# MHz  S  MA  R   50.00000
! SCATTERING PARAMETERS : 
  65.0000000   6.480e-01   1.498e+02   4.168e-05   3.495e+01   5.659e-05   1.235e+01   7.468e-01  -1.188e+02
  65.0500000   6.480e-01   1.498e+02   4.168e-05   3.495e+01   5.659e-05   1.235e+01   7.468e-01  -1.188e+02
  65.1000000   6.480e-01   1.498e+02   4.168e-05   3.495e+01   5.659e-05   1.235e+01   7.468e-01  -1.188e+02
  65.1500000   6.480e-01   1.498e+02   4.168e-05   3.495e+01   5.659e-05   1.235e+01   7.468e-01  -1.188e+02
  65.2000000   6.480e-01   1.498e+02   4.168e-05   3.495e+01   5.659e-05   1.235e+01   7.468e-01  -1.188e+02
  65.2500000   6.480e-01   1.498e+02   4.168e-05   3.495e+01   5.659e-05   1.235e+01   7.468e-01  -1.188e+02
  65.3000000   6.480e-01   1.498e+02   4.168e-05   3.495e+01   5.659e-05   1.235e+01   7.468e-01  -1.188e+02
  65.3500000   6.480e-01   1.498e+02   4.168e-05   3.495e+01   5.659e-05   1.235e+01   7.468e-01  -1.188e+02
  65.4000000   6.480e-01   1.498e+02   4.168e-05   3.495e+01   5.659e-05   1.235e+01   7.468e-01  -1.188e+02
  65.4500000   6.480e-01   1.498e+02   4.168e-05   3.495e+01   5.659e-05   1.235e+01   7.468e-01  -1.188e+02
  65.5000000   6.480e-01   1.498e+02   4.168e-05   3.495e+01   5.659e-05   1.235e+01   7.468e-01  -1.188e+02
  65.5500000   6.480e-01   1.498e+02   4.168e-05   3.495e+01   5.659e-05   1.235e+01   7.468e-01  -1.188e+02
  65.6000000   6.480e-01   1.498e+02   4.168e-05   3.495e+01   5.659e-05   1.235e+01   7.468e-01  -1.188e+02
  65.6500000   6.480e-01   1.498e+02   4.168e-05   3.495e+01   5.659e-05   1.235e+01   7.468e-01  -1.188e+02
  65.7000000   6.480e-01   1.498e+02   4.168e-05   3.495e+01   5.659e-05   1.235e+01   7.468e-01  -1.188e+02
  65.7500000   6.480e-01   1.498e+02   4.168e-05   3.495e+01   5.659e-05   1.235e+01   7.468e-01  -1.188e+02
  65.8000000   6.480e-01   1.498e+02   4.168e-05   3.495e+01   5.659e-05   1.235e+01   7.468e-01  -1.188e+02
  65.8500000   6.480e-01   1.498e+02   4.168e-05   3.495e+01   5.659e-05   1.235e+01   7.468e-01  -1.188e+02
  65.9000000   6.480e-01   1.498e+02   4.168e-05   3.495e+01   5.659e-05   1.235e+01   7.468e-01  -1.188e+02
  65.9500000   6.480e-01   1.498e+02   4.168e-05   3.495e+01   5.659e-05   1.235e+01   7.468e-01  -1.188e+02
  66.0000000   6.480e-01   1.498e+02   4.168e-05   3.495e+01   5.659e-05   1.235e+01   7.468e-01  -1.188e+02
  66.0500000   6.480e-01   1.498e+02   4.168e-05   3.495e+01   5.659e-05   1.235e+01   7.468e-01  -1.188e+02
  66.1000000   6.480e-01   1.498e+02   4.168e-05   3.495e+01   5.659e-05   1.235e+01   7.468e-01  -1.188e+02
  66.1500000   6.480e-01   1.498e+02   4.168e-05   3.495e+01   5.659e-05   1.235e+01   7.468e-01  -1.188e+02
  66.2000000   6.480e-01   1.498e+02   4.168e-05   3.495e+01   5.659e-05   1.235e+01   7.468e-01  -1.188e+02
  66.2500000   6.480e-01   1.498e+02   4.168e-05   3.495e+01   5.659e-05   1.235e+01   7.468e-01  -1.188e+02
  66.3000000   6.480e-01   1.498e+02   4.168e-05   3.495e+01   5.659e-05   1.235e+01   7.468e-01  -1.188e+02
  66.3500000   6.480e-01   1.498e+02   4.168e-05   3.495e+01   5.659e-05   1.235e+01   7.468e-01  -1.188e+02
  66.4000000   6.480e-01   1.498e+02   4.168e-05   3.495e+01   5.659e-05   1.235e+01   7.468e-01  -1.188e+02
  66.4500000   6.480e-01   1.498e+02   4.168e-05   3.495e+01   5.659e-05   1.235e+01   7.468e-01  -1.188e+02
  66.5000000   6.480e-01   1.498e+02   4.168e-05   3.495e+01   5.659e-05   1.235e+01   7.468e-01  -1.188e+02
  66.5500000   6.480e-01   1.498e+02   4.168e-05   3.495e+01   5.659e-05   1.235e+01   7.468e-01  -1.188e+02
  66.6000000   6.480e-01   1.498e+02   4.168e-05   3.495e+01   5.659e-05   1.235e+01   7.468e-01  -1.188e+02
  66.6500000   6.480e-01   1.498e+02   4.168e-05   3.495e+01   5.659e-05   1.235e+01   7.468e-01  -1.188e+02
  66.7000000   6.480e-01   1.498e+02   4.168e-05   3.495e+01   5.659e-05   1.235e+01   7.468e-01  -1.188e+02
  66.7500000   6.480e-01   1.498e+02   4.168e-05   3.495e+01   5.659e-05   1.235e+01   7.468e-01  -1.188e+02
  66.8000000   6.480e-01   1.498e+02   4.168e-05   3.495e+01   5.659e-05   1.235e+01   7.468e-01  -1.188e+02
  66.8500000   6.480e-01   1.498e+02   4.168e-05   3.495e+01   5.659e-05   1.235e+01   7.468e-01  -1.188e+02
  66.9000000   6.480e-01   1.498e+02   4.168e-05   3.495e+01   5.659e-05   1.235e+01   7.468e-01  -1.188e+02
  66.9500000   6.480e-01   1.498e+02   4.168e-05   3.495e+01   5.659e-05   1.235e+01   7.468e-01  -1.188e+02
  67.0000000   6.480e-01   1.498e+02   4.168e-05   3.495e+01   5.659e-05   1.235e+01   7.468e-01  -1.188e+02
  67.0500000   6.480e-01   1.498e+02   4.168e-05   3.495e+01   5.659e-05   1.235e+01   7.468e-01  -1.188e+02
  67.1000000   6.480e-01   1.498e+02   4.168e-05   3.495e+01   5.659e-05   1.235e+01   7.468e-01  -1.188e+02
  67.1500000   6.480e-01   1.498e+02   4.168e-05   3.495e+01   5.659e-05   1.235e+01   7.468e-01  -1.188e+02
  67.2000000   6.480e-01   1.498e+02   4.168e-05   3.495e+01   5.659e-05   1.235e+01   7.468e-01  -1.188e+02
  67.2500000   6.480e-01   1.498e+02   4.168e-05   3.495e+01   5.659e-05   1.235e+01   7.468e-01  -1.188e+02
  67.3000000   6.480e-01   1.498e+02   4.168e-05   3.495e+01   5.659e-05   1.235e+01   7.468e-01  -1.188e+02
  67.3500000   6.480e-01   1.498e+02   4.168e-05   3.495e+01   5.659e-05   1.235e+01   7.468e-01  -1.188e+02
  67.4000000   6.480e-01   1.498e+02   4.168e-05   3.495e+01   5.659e-05   1.235e+01   7.468e-01  -1.188e+02
  67.4500000   6.480e-01   1.498e+02   4.168e-05   3.495e+01   5.659e-05   1.235e+01   7.468e-01  -1.188e+02
  67.5000000   6.480e-01   1.498e+02   4.168e-05   3.495e+01   5.659e-05   1.235e+01   7.468e-01  -1.188e+02
  67.5500000   6.480e-01   1.498e+02   4.168e-05   3.495e+01   5.659e-05   1.235e+01   7.468e-01  -1.188e+02
  67.6000000   6.480e-01   1.498e+02   4.168e-05   3.495e+01   5.659e-05   1.235e+01   7.468e-01  -1.188e+02
  67.6500000   6.480e-01   1.498e+02   4.168e-05   3.495e+01   5.659e-05   1.235e+01   7.468e-01  -1.188e+02
  67.7000000   6.480e-01   1.498e+02   4.168e-05   3.495e+01   5.659e-05   1.235e+01   7.468e-01  -1.188e+02
  67.7500000   6.480e-01   1.498e+02   4.168e-05   3.495e+01   5.659e-05   1.235e+01   7.468e-01  -1.188e+02
  67.8000000   6.480e-01   1.498e+02   4.168e-05   3.495e+01   5.659e-05   1.235e+01   7.468e-01  -1.188e+02
  67.8500000   6.480e-01   1.498e+02   4.168e-05   3.495e+01   5.659e-05   1.235e+01   7.468e-01  -1.188e+02
  67.9000000   6.480e-01   1.498e+02   4.168e-05   3.495e+01   5.659e-05   1.235e+01   7.468e-01  -1.188e+02
  67.9500000   6.480e-01   1.498e+02   4.168e-05   3.495e+01   5.659e-05   1.235e+01   7.468e-01  -1.188e+02
  68.0000000   6.480e-01   1.498e+02   4.168e-05   3.495e+01   5.659e-05   1.235e+01   7.468e-01  -1.188e+02
  68.0500000   6.487e-01   1.494e+02   3.765e-05  -1.008e+01   3.940e-05   6.931e+00   7.452e-01  -1.192e+02
  68.1000000   6.488e-01   1.490e+02   2.722e-05   1.060e+01   4.053e-05   1.239e+00   7.440e-01  -1.195e+02
  68.1500000   6.493e-01   1.485e+02   5.972e-05   2.432e+01   6.690e-05   1.955e+01   7.417e-01  -1.199e+02
  68.2000000   6.499e-01   1.481e+02   8.331e-05  -6.901e+00   6.707e-05  -1.501e+00   7.405e-01  -1.202e+02
  68.2500000   6.503e-01   1.476e+02   4.263e-05  -2.252e+01   5.343e-05  -2.180e+01   7.371e-01  -1.206e+02
  68.3000000   6.506e-01   1.472e+02   1.964e-05  -2.001e+01   3.159e-05   4.455e+00   7.356e-01  -1.209e+02
  68.3500000   6.513e-01   1.468e+02   3.627e-05  -1.524e+01   3.839e-05  -6.206e+00   7.326e-01  -1.212e+02
  68.4000000   6.518e-01   1.463e+02   2.975e-05  -4.111e+01   5.010e-05  -2.644e+01   7.308e-01  -1.214e+02
  68.4500000   6.522e-01   1.459e+02   5.398e-06   4.067e+01   1.817e-05  -4.526e+01   7.290e-01  -1.217e+02
  68.5000000   6.527e-01   1.454e+02   4.639e-05   4.178e+01   4.336e-05   3.476e+01   7.284e-01  -1.219e+02
  68.5500000   6.530e-01   1.449e+02   5.832e-05   3.404e+01   6.635e-05   1.556e+01   7.279e-01  -1.222e+02
  68.6000000   6.535e-01   1.445e+02   7.411e-05  -6.247e+00   7.771e-05  -3.624e+00   7.274e-01  -1.225e+02
  68.6500000   6.544e-01   1.440e+02   4.630e-05  -4.134e+01   5.424e-05  -3.828e+01   7.281e-01  -1.228e+02
  68.7000000   6.549e-01   1.435e+02   3.977e-05   3.428e+01   3.372e-05   3.843e+01   7.284e-01  -1.233e+02
  68.7500000   6.558e-01   1.430e+02   5.427e-05   2.101e+01   4.683e-05   1.948e+01   7.284e-01  -1.238e+02
  68.8000000   6.562e-01   1.425e+02   5.306e-05   6.654e+00   4.843e-05   1.167e+00   7.278e-01  -1.244e+02
  68.8500000   6.568e-01   1.419e+02   6.916e-05  -5.760e+01   7.316e-05  -4.614e+01   7.261e-01  -1.251e+02
  68.9000000   6.574e-01   1.413e+02   3.014e-04  -1.636e+02   2.964e-04  -1.620e+02   7.233e-01  -1.257e+02
  68.9500000   6.578e-01   1.407e+02   1.183e-03   1.266e+02   1.187e-03   1.263e+02   7.186e-01  -1.264e+02
  69.0000000   6.575e-01   1.400e+02   3.071e-03   6.170e+01   3.088e-03   6.153e+01   7.125e-01  -1.271e+02
  69.0500000   6.566e-01   1.392e+02   6.369e-03  -3.425e+00   6.388e-03  -3.491e+00   7.049e-01  -1.277e+02
  69.1000000   6.544e-01   1.384e+02   1.122e-02  -6.878e+01   1.126e-02  -6.893e+01   6.959e-01  -1.282e+02
  69.1500000   6.510e-01   1.376e+02   1.765e-02  -1.341e+02   1.772e-02  -1.342e+02   6.871e-01  -1.285e+02
  69.2000000   6.456e-01   1.369e+02   2.533e-02   1.608e+02   2.542e-02   1.607e+02   6.768e-01  -1.288e+02
  69.2500000   6.387e-01   1.362e+02   3.355e-02   9.609e+01   3.367e-02   9.597e+01   6.680e-01  -1.288e+02
  69.3000000   6.318e-01   1.359e+02   4.178e-02   3.180e+01   4.193e-02   3.167e+01   6.608e-01  -1.288e+02
  69.3500000   6.251e-01   1.353e+02   4.931e-02  -3.195e+01   4.956e-02  -3.209e+01   6.516e-01  -1.288e+02
  69.4000000   6.152e-01   1.354e+02   5.603e-02  -9.541e+01   5.622e-02  -9.549e+01   6.442e-01  -1.282e+02
  69.4500000   6.135e-01   1.353e+02   6.208e-02  -1.592e+02   6.225e-02  -1.593e+02   6.436e-01  -1.282e+02
  69.5000000   6.058e-01   1.351e+02   6.632e-02   1.370e+02   6.653e-02   1.368e+02   6.317e-01  -1.280e+02
  69.5500000   6.004e-01   1.356e+02   6.975e-02   7.284e+01   7.003e-02   7.276e+01   6.338e-01  -1.270e+02
  69.6000000   6.024e-01   1.357e+02   7.165e-02   8.235e+00   7.186e-02   8.147e+00   6.336e-01  -1.273e+02
  69.6500000   5.968e-01   1.354e+02   7.157e-02  -5.584e+01   7.183e-02  -5.598e+01   6.268e-01  -1.268e+02
  69.7000000   5.963e-01   1.361e+02   7.155e-02  -1.195e+02   7.173e-02  -1.196e+02   6.331e-01  -1.262e+02
  69.7500000   6.012e-01   1.358e+02   7.114e-02   1.765e+02   7.140e-02   1.764e+02   6.322e-01  -1.268e+02
  69.8000000   5.954e-01   1.357e+02   7.050e-02   1.132e+02   7.086e-02   1.131e+02   6.274e-01  -1.262e+02
  69.8500000   5.988e-01   1.361e+02   7.089e-02   4.984e+01   7.116e-02   4.968e+01   6.340e-01  -1.260e+02
  69.9000000   6.013e-01   1.355e+02   7.115e-02  -1.425e+01   7.144e-02  -1.438e+01   6.306e-01  -1.266e+02
  69.9500000   5.959e-01   1.356e+02   7.162e-02  -7.820e+01   7.193e-02  -7.829e+01   6.276e-01  -1.257e+02
  70.0000000   6.002e-01   1.357e+02   7.200e-02  -1.429e+02   7.226e-02  -1.430e+02   6.345e-01  -1.260e+02
  70.0500000   6.005e-01   1.351e+02   7.127e-02   1.526e+02   7.151e-02   1.525e+02   6.297e-01  -1.261e+02
  70.1000000   5.950e-01   1.354e+02   7.120e-02   8.894e+01   7.139e-02   8.882e+01   6.292e-01  -1.254e+02
  70.1500000   6.010e-01   1.354e+02   7.218e-02   2.472e+01   7.247e-02   2.467e+01   6.363e-01  -1.258e+02
  70.2000000   5.970e-01   1.348e+02   7.234e-02  -3.943e+01   7.264e-02  -3.958e+01   6.280e-01  -1.258e+02
  70.2500000   5.944e-01   1.353e+02   7.296e-02  -1.036e+02   7.332e-02  -1.037e+02   6.336e-01  -1.250e+02
  70.3000000   5.977e-01   1.353e+02   7.315e-02  -1.681e+02   7.341e-02  -1.682e+02   6.370e-01  -1.254e+02
  70.3500000   5.940e-01   1.351e+02   7.224e-02   1.274e+02   7.259e-02   1.273e+02   6.327e-01  -1.250e+02
  70.4000000   5.940e-01   1.359e+02   7.106e-02   6.348e+01   7.130e-02   6.336e+01   6.414e-01  -1.244e+02
  70.4500000   6.001e-01   1.358e+02   6.845e-02  -7.500e-01   6.872e-02  -9.130e-01   6.453e-01  -1.249e+02
  70.5000000   5.977e-01   1.360e+02   6.470e-02  -6.435e+01   6.492e-02  -6.446e+01   6.454e-01  -1.243e+02
  70.5500000   6.039e-01   1.367e+02   5.986e-02  -1.284e+02   6.001e-02  -1.284e+02   6.572e-01  -1.242e+02
  70.6000000   6.110e-01   1.367e+02   5.327e-02   1.672e+02   5.342e-02   1.671e+02   6.619e-01  -1.245e+02
  70.6500000   6.165e-01   1.369e+02   4.538e-02   1.032e+02   4.552e-02   1.030e+02   6.683e-01  -1.244e+02
  70.7000000   6.268e-01   1.369e+02   3.690e-02   3.896e+01   3.697e-02   3.881e+01   6.786e-01  -1.248e+02
  70.7500000   6.358e-01   1.366e+02   2.814e-02  -2.548e+01   2.827e-02  -2.560e+01   6.852e-01  -1.252e+02
  70.8000000   6.439e-01   1.361e+02   1.989e-02  -8.996e+01   1.995e-02  -9.006e+01   6.929e-01  -1.256e+02
  70.8500000   6.517e-01   1.356e+02   1.283e-02  -1.534e+02   1.287e-02  -1.535e+02   6.999e-01  -1.263e+02
  70.9000000   6.584e-01   1.349e+02   7.579e-03   1.435e+02   7.590e-03   1.433e+02   7.055e-01  -1.270e+02
  70.9500000   6.630e-01   1.342e+02   3.974e-03   7.858e+01   3.985e-03   7.871e+01   7.096e-01  -1.278e+02
  71.0000000   6.664e-01   1.335e+02   1.597e-03   1.543e+01   1.601e-03   1.519e+01   7.121e-01  -1.286e+02
  71.0500000   6.687e-01   1.329e+02   4.375e-04  -1.642e+01   4.513e-04  -1.683e+01   7.136e-01  -1.294e+02
  71.1000000   6.702e-01   1.323e+02   2.919e-04  -2.032e+01   2.952e-04  -1.925e+01   7.126e-01  -1.301e+02
  71.1500000   6.716e-01   1.317e+02   1.149e-04  -4.668e+01   1.196e-04  -4.398e+01   7.119e-01  -1.308e+02
  71.2000000   6.724e-01   1.312e+02   1.269e-04  -4.049e+01   1.245e-04  -4.361e+01   7.095e-01  -1.314e+02
  71.2500000   6.733e-01   1.307e+02   1.008e-04  -1.277e+02   9.038e-05  -1.309e+02   7.070e-01  -1.319e+02
  71.3000000   6.742e-01   1.303e+02   8.433e-05   9.197e+01   8.548e-05   8.863e+01   7.050e-01  -1.324e+02
  71.3500000   6.752e-01   1.298e+02   8.323e-05   1.156e+00   8.848e-05   5.032e+00   7.027e-01  -1.327e+02
  71.4000000   6.759e-01   1.294e+02   5.264e-05  -5.746e+01   5.174e-05  -5.557e+01   7.014e-01  -1.330e+02
  71.4500000   6.769e-01   1.290e+02   1.759e-05   1.422e+01   3.012e-05   2.689e+00   7.005e-01  -1.333e+02
  71.5000000   6.775e-01   1.286e+02   1.959e-05   3.769e+01   2.443e-05   1.190e+01   7.003e-01  -1.336e+02
  71.5500000   6.782e-01   1.282e+02   6.582e-05   4.595e+01   7.237e-05   4.254e+01   7.006e-01  -1.339e+02
  71.6000000   6.788e-01   1.278e+02   8.452e-05  -2.313e+01   1.065e-04  -7.641e+00   7.011e-01  -1.342e+02
  71.6500000   6.793e-01   1.274e+02   3.239e-05  -8.257e+01   4.706e-05  -7.987e+01   7.016e-01  -1.346e+02
  71.7000000   6.801e-01   1.271e+02   2.465e-05   5.823e+01   3.757e-05   6.895e+01   7.025e-01  -1.350e+02
  71.7500000   6.811e-01   1.267e+02   5.521e-05   7.769e+00   4.673e-05   5.869e+00   7.029e-01  -1.354e+02
  71.8000000   6.818e-01   1.264e+02   4.889e-05   2.029e+01   6.913e-05   7.545e+00   7.029e-01  -1.359e+02
  71.8500000   6.829e-01   1.260e+02   9.508e-05   9.783e+00   9.327e-05   7.368e+00   7.028e-01  -1.363e+02
  71.9000000   6.838e-01   1.256e+02   9.517e-05  -3.452e+01   9.857e-05  -3.185e+01   7.029e-01  -1.367e+02
  71.9500000   6.841e-01   1.253e+02   4.431e-05  -4.482e+01   5.957e-05  -4.685e+01   7.019e-01  -1.371e+02
  72.0000000   6.848e-01   1.249e+02   4.903e-05  -3.911e+01   5.903e-05  -2.729e+01   7.014e-01  -1.376e+02
  72.0500000   6.848e-01   1.249e+02   4.903e-05  -3.911e+01   5.903e-05  -2.729e+01   7.014e-01  -1.376e+02
  72.1000000   6.848e-01   1.249e+02   4.903e-05  -3.911e+01   5.903e-05  -2.729e+01   7.014e-01  -1.376e+02
  72.1500000   6.848e-01   1.249e+02   4.903e-05  -3.911e+01   5.903e-05  -2.729e+01   7.014e-01  -1.376e+02
  72.2000000   6.848e-01   1.249e+02   4.903e-05  -3.911e+01   5.903e-05  -2.729e+01   7.014e-01  -1.376e+02
  72.2500000   6.848e-01   1.249e+02   4.903e-05  -3.911e+01   5.903e-05  -2.729e+01   7.014e-01  -1.376e+02
  72.3000000   6.848e-01   1.249e+02   4.903e-05  -3.911e+01   5.903e-05  -2.729e+01   7.014e-01  -1.376e+02
  72.3500000   6.848e-01   1.249e+02   4.903e-05  -3.911e+01   5.903e-05  -2.729e+01   7.014e-01  -1.376e+02
  72.4000000   6.848e-01   1.249e+02   4.903e-05  -3.911e+01   5.903e-05  -2.729e+01   7.014e-01  -1.376e+02
  72.4500000   6.848e-01   1.249e+02   4.903e-05  -3.911e+01   5.903e-05  -2.729e+01   7.014e-01  -1.376e+02
  72.5000000   6.848e-01   1.249e+02   4.903e-05  -3.911e+01   5.903e-05  -2.729e+01   7.014e-01  -1.376e+02
  72.5500000   6.848e-01   1.249e+02   4.903e-05  -3.911e+01   5.903e-05  -2.729e+01   7.014e-01  -1.376e+02
  72.6000000   6.848e-01   1.249e+02   4.903e-05  -3.911e+01   5.903e-05  -2.729e+01   7.014e-01  -1.376e+02
  72.6500000   6.848e-01   1.249e+02   4.903e-05  -3.911e+01   5.903e-05  -2.729e+01   7.014e-01  -1.376e+02
  72.7000000   6.848e-01   1.249e+02   4.903e-05  -3.911e+01   5.903e-05  -2.729e+01   7.014e-01  -1.376e+02
  72.7500000   6.848e-01   1.249e+02   4.903e-05  -3.911e+01   5.903e-05  -2.729e+01   7.014e-01  -1.376e+02
  72.8000000   6.848e-01   1.249e+02   4.903e-05  -3.911e+01   5.903e-05  -2.729e+01   7.014e-01  -1.376e+02
  72.8500000   6.848e-01   1.249e+02   4.903e-05  -3.911e+01   5.903e-05  -2.729e+01   7.014e-01  -1.376e+02
  72.9000000   6.848e-01   1.249e+02   4.903e-05  -3.911e+01   5.903e-05  -2.729e+01   7.014e-01  -1.376e+02
  72.9500000   6.848e-01   1.249e+02   4.903e-05  -3.911e+01   5.903e-05  -2.729e+01   7.014e-01  -1.376e+02
  73.0000000   6.848e-01   1.249e+02   4.903e-05  -3.911e+01   5.903e-05  -2.729e+01   7.014e-01  -1.376e+02
  73.0500000   6.848e-01   1.249e+02   4.903e-05  -3.911e+01   5.903e-05  -2.729e+01   7.014e-01  -1.376e+02
  73.1000000   6.848e-01   1.249e+02   4.903e-05  -3.911e+01   5.903e-05  -2.729e+01   7.014e-01  -1.376e+02
  73.1500000   6.848e-01   1.249e+02   4.903e-05  -3.911e+01   5.903e-05  -2.729e+01   7.014e-01  -1.376e+02
  73.2000000   6.848e-01   1.249e+02   4.903e-05  -3.911e+01   5.903e-05  -2.729e+01   7.014e-01  -1.376e+02
  73.2500000   6.848e-01   1.249e+02   4.903e-05  -3.911e+01   5.903e-05  -2.729e+01   7.014e-01  -1.376e+02
  73.3000000   6.848e-01   1.249e+02   4.903e-05  -3.911e+01   5.903e-05  -2.729e+01   7.014e-01  -1.376e+02
  73.3500000   6.848e-01   1.249e+02   4.903e-05  -3.911e+01   5.903e-05  -2.729e+01   7.014e-01  -1.376e+02
  73.4000000   6.848e-01   1.249e+02   4.903e-05  -3.911e+01   5.903e-05  -2.729e+01   7.014e-01  -1.376e+02
  73.4500000   6.848e-01   1.249e+02   4.903e-05  -3.911e+01   5.903e-05  -2.729e+01   7.014e-01  -1.376e+02
  73.5000000   6.848e-01   1.249e+02   4.903e-05  -3.911e+01   5.903e-05  -2.729e+01   7.014e-01  -1.376e+02
  73.5500000   6.848e-01   1.249e+02   4.903e-05  -3.911e+01   5.903e-05  -2.729e+01   7.014e-01  -1.376e+02
  73.6000000   6.848e-01   1.249e+02   4.903e-05  -3.911e+01   5.903e-05  -2.729e+01   7.014e-01  -1.376e+02
  73.6500000   6.848e-01   1.249e+02   4.903e-05  -3.911e+01   5.903e-05  -2.729e+01   7.014e-01  -1.376e+02
  73.7000000   6.848e-01   1.249e+02   4.903e-05  -3.911e+01   5.903e-05  -2.729e+01   7.014e-01  -1.376e+02
  73.7500000   6.848e-01   1.249e+02   4.903e-05  -3.911e+01   5.903e-05  -2.729e+01   7.014e-01  -1.376e+02
  73.8000000   6.848e-01   1.249e+02   4.903e-05  -3.911e+01   5.903e-05  -2.729e+01   7.014e-01  -1.376e+02
  73.8500000   6.848e-01   1.249e+02   4.903e-05  -3.911e+01   5.903e-05  -2.729e+01   7.014e-01  -1.376e+02
  73.9000000   6.848e-01   1.249e+02   4.903e-05  -3.911e+01   5.903e-05  -2.729e+01   7.014e-01  -1.376e+02
  73.9500000   6.848e-01   1.249e+02   4.903e-05  -3.911e+01   5.903e-05  -2.729e+01   7.014e-01  -1.376e+02
  74.0000000   6.848e-01   1.249e+02   4.903e-05  -3.911e+01   5.903e-05  -2.729e+01   7.014e-01  -1.376e+02
  74.0500000   6.848e-01   1.249e+02   4.903e-05  -3.911e+01   5.903e-05  -2.729e+01   7.014e-01  -1.376e+02
