! Filename:  P:\Prog\Test\Noise\ATS_data\Testdata_Net\06 Compressed Noise after Statistics\BFU550A_APG2013_35_C05_08p0V_010mA_NF_CM01_D.sf
! Date/Time: Tue 16/Apr/2013 15:11:31
! BFU550A_APG2013_35_C05_08p0V_1to35mA_NF_CM01_Bias5_R.sf
! Noise Parameter Data File
! BFU550A_APG2013_35_C05_08p0V_1to35mA_NF_CM01
! Date/time: Mon Apr 15 17:49:26 2013
! VAR V_out= 8.000000
! VAR I_out= 9.995000
! VAR V_in= 0.816100
! VAR I_in= 0.102305
! Device data file deembeded for feedlines and parallel
! Original file: \06 Compressed Noise after Statistics\BFU550A_APG2013_35_C05_08p0V_010mA_NF_CM01_R.sf
! Feed-files: PR017V01_150413_Feed1.s2p, PR017V01_150413_Feed2.s2p
! Parallel-file: PR017V01_150413_Par.s2p
# MHz S MA R 50
!  Freq-MHz   S11-mag  S11-arg   S21-mag  S21-arg   S12-mag  S12-arg   S22-mag  S22-arg
        400   0.34184   -91.15    11.575   109.92  0.052735    64.92   0.53216   -39.46
        420   0.33075   -93.77    11.141   108.42  0.054471    64.93   0.51928   -39.81
        433   0.32321   -95.46    10.879   107.53  0.055558    64.97   0.51168   -39.94
        440   0.31995   -96.35    10.738   107.04  0.056173    65.02   0.50762   -40.04
        460   0.31024   -98.59    10.353   105.77  0.057857    65.09   0.49693   -40.32
        480    0.3015  -101.04    9.9984   104.52  0.059555    65.21   0.48633   -40.50
        500   0.29267  -103.33    9.6643   103.34  0.061243    65.29   0.47722   -40.67
        550   0.27273  -108.96    8.9316   100.49  0.065338    65.62   0.45472   -40.98
        600    0.2574  -113.92    8.2864    98.08  0.069673    65.95   0.43855   -41.25
        650   0.24407  -118.91    7.7228    95.84  0.073986    66.24   0.42454   -41.53
        700   0.23238  -123.50    7.2315    93.74  0.078284    66.54   0.41231   -41.74
        750   0.22308  -128.06    6.7951    91.84  0.082584    66.80   0.40161   -41.88
        800    0.2151  -132.35    6.4132    90.03   0.08696    67.00   0.39306   -42.19
        850   0.20801  -136.83    6.0692    88.29  0.091314    67.17   0.38425   -42.46
        900   0.20137  -140.98    5.7603    86.68  0.095736    67.32   0.37757   -42.75
        950   0.19668  -144.81    5.4842    85.11   0.10014    67.43   0.37184   -43.15
       1000   0.19188  -148.45    5.2319    83.59   0.10463    67.53    0.3666   -43.42
       1050   0.18873  -152.28    4.9993    82.16   0.10911    67.59   0.36195   -43.78
       1100   0.18577  -156.01    4.7906    80.77   0.11361    67.59   0.35794   -44.22
       1150   0.18372  -159.51     4.598    79.43   0.11813    67.56    0.3537   -44.62
       1200   0.18138  -163.00    4.4219    78.12    0.1227    67.53   0.35076   -45.19
       1250   0.17978  -166.22    4.2582    76.83   0.12727    67.47   0.34775   -45.72
       1300   0.17811  -169.23    4.1084    75.60   0.13184    67.38   0.34563   -46.22
       1350   0.17748  -172.25    3.9691    74.38   0.13641    67.25   0.34316   -46.85
       1400   0.17747  -175.44    3.8402    73.18   0.14101    67.15   0.34034   -47.38
       1450   0.17708  -178.34    3.7198    72.02   0.14565    66.99   0.33843   -47.98
       1500   0.17756   178.65    3.6045    70.84   0.15027    66.81   0.33619   -48.75
       1550   0.17694   176.08    3.4992    69.71   0.15492    66.63    0.3347   -49.41
       1600    0.1769   173.53    3.3998    68.64   0.15956    66.44   0.33367   -50.11
       1650   0.17766   171.07    3.3067    67.54   0.16427    66.24   0.33229   -50.82
       1700   0.17875   168.67    3.2197    66.47   0.16895    66.02   0.33122   -51.50
       1750   0.17992   166.14    3.1377    65.40   0.17356    65.77   0.32944   -52.27
       1800   0.18229   163.79    3.0607    64.34   0.17826    65.54   0.32752   -53.07
       1850   0.18226   161.69    2.9872    63.27   0.18303    65.28   0.32744   -53.87
       1900   0.18344   159.47    2.9153    62.23   0.18774    64.97   0.32675   -54.89
       1950   0.18462   157.18    2.8486    61.24   0.19237    64.70   0.32564   -55.64
       2000   0.18697   155.60    2.7847    60.25   0.19701    64.41   0.32515   -56.47

!  
! Device Noise Parameters
!  Freq-MHz   Fmin-dB  Gopt-mag  Gopt-arg   Rn-Ohm_normalized
        400    0.7889   0.03350   133.50    0.1030
        420    0.7538   0.04117   143.11    0.0948
        433    0.7831   0.04714   139.99    0.0888
        440    0.7933   0.03275   129.17    0.0937
        460    0.7946   0.04555   144.13    0.0892
        480    0.7695   0.04543   144.98    0.0950
        500    0.8102   0.05881   156.20    0.0905
        550    0.8036   0.04151   142.60    0.0980
        600    0.8703   0.02614   148.31    0.1032
        650    0.8039   0.05939   163.50    0.0938
        700    0.8241   0.06268   155.88    0.0936
        750    0.8579   0.05636   163.05    0.0962
        800    0.8602   0.08274   167.67    0.0858
        850    0.8424   0.07279   168.08    0.0908
        900    0.8516   0.08419   164.03    0.0839
        950    0.8605   0.08958   170.71    0.0866
       1000    0.8705   0.09326   170.65    0.0852
       1050    0.8826   0.08658   174.67    0.0887
       1100    0.8747   0.09953   175.94    0.0891
       1150    0.8974   0.10841   177.12    0.0885
       1200    0.9053   0.11419   179.02    0.0857
       1250    0.8951   0.11930  -178.88    0.0850
       1300    0.9404   0.12340  -175.79    0.0839
       1350    0.8961   0.12898  -176.26    0.0931
       1400    0.9366   0.12161  -167.77    0.0878
       1450    0.9941   0.14175  -169.06    0.0821
       1500    0.9519   0.13505  -172.90    0.0902
       1550    0.9332   0.17253  -163.42    0.0761
       1600    0.9507   0.16053  -162.07    0.0828
       1650    0.9926   0.15123  -156.15    0.0893
       1700    0.9288   0.19048  -161.76    0.0756
       1750    0.9748   0.19403  -154.90    0.0726
       1800    0.9833   0.19367  -154.98    0.0726
       1850    0.9817   0.19690  -151.14    0.0718
       1900    0.9983   0.20001  -148.10    0.0849
       1950    1.0479   0.18842  -137.75    0.1035
       2000    0.9515   0.20926  -148.47    0.0832

