! Filename:  P:\Prog\Test\Noise\ATS_data\Testdata_Net\06 Compressed Noise after Statistics\BFU550A_APG2013_35_C05_03p3V_010mA_NF_CM01_D.sf
! Date/Time: Tue 16/Apr/2013 15:11:28
! BFU550A_APG2013_35_C05_03p3V_1to35mA_NF_CM01_Bias5_R.sf
! Noise Parameter Data File
! BFU550A_APG2013_35_C05_03p3V_1to35mA_NF_CM01
! Date/time: Mon Apr 15 15:23:40 2013
! VAR V_out= 3.300000
! VAR I_out= 9.995000
! VAR V_in= 0.836100
! VAR I_in= 0.109305
! Device data file deembeded for feedlines and parallel
! Original file: \06 Compressed Noise after Statistics\BFU550A_APG2013_35_C05_03p3V_010mA_NF_CM01_R.sf
! Feed-files: PR017V01_150413_Feed1.s2p, PR017V01_150413_Feed2.s2p
! Parallel-file: PR017V01_150413_Par.s2p
# MHz S MA R 50
!  Freq-MHz   S11-mag  S11-arg   S21-mag  S21-arg   S12-mag  S12-arg   S22-mag  S22-arg
        400   0.33028   -99.34    11.272   108.26  0.053779    64.53   0.50706   -41.17
        420   0.32075  -102.17    10.841   106.80  0.055564    64.60   0.49438   -41.49
        433   0.31435  -103.91    10.578   105.93  0.056662    64.65   0.48691   -41.61
        440   0.31133  -104.87    10.438   105.45  0.057306    64.67   0.48291   -41.70
        460   0.30335  -107.31    10.057   104.20   0.05904    64.82   0.47249   -41.96
        480   0.29629  -109.88    9.7059   102.98  0.060728    64.92   0.46211   -42.14
        500   0.28829  -112.30    9.3739   101.83  0.062505    65.05    0.4533   -42.29
        550   0.27188  -118.23    8.6528    99.05  0.066699    65.43   0.43144   -42.55
        600   0.25955  -123.41     8.019    96.67  0.071194    65.79   0.41572   -42.80
        650   0.24903  -128.53    7.4674    94.47  0.075625    66.09   0.40228   -43.07
        700   0.24009  -133.22    6.9885    92.41  0.080032    66.40   0.39049   -43.28
        750   0.23288  -137.81    6.5627    90.53  0.084502    66.68    0.3802   -43.43
        800   0.22704  -142.06    6.1908    88.75  0.089026    66.88   0.37207   -43.75
        850   0.22235  -146.35    5.8571    87.03  0.093508    67.04   0.36359   -44.04
        900   0.21782  -150.37    5.5565    85.43  0.098059    67.20   0.35723   -44.34
        950   0.21443  -153.97    5.2884    83.88   0.10262    67.30   0.35183   -44.76
       1000   0.21096  -157.49    5.0442    82.37   0.10722    67.38   0.34681   -45.06
       1050    0.2094  -161.00     4.819    80.95   0.11187    67.43   0.34234   -45.44
       1100   0.20751  -164.45    4.6172    79.57   0.11654    67.42   0.33851   -45.92
       1150   0.20667  -167.63    4.4311    78.22   0.12117    67.39   0.33451   -46.35
       1200   0.20524  -170.73    4.2608    76.92   0.12588    67.33   0.33179   -46.96
       1250   0.20485  -173.66     4.103    75.63   0.13058    67.24   0.32892   -47.53
       1300   0.20357  -176.40    3.9584    74.39   0.13529    67.13    0.3269   -48.06
       1350   0.20374  -179.14    3.8242    73.17      0.14    67.00   0.32462   -48.71
       1400   0.20451   178.04    3.6995    71.98   0.14474    66.86   0.32196   -49.30
       1450   0.20477   175.51    3.5834    70.80   0.14949    66.70   0.32012   -49.94
       1500   0.20565   172.92    3.4724    69.64   0.15427    66.51   0.31801   -50.75
       1550   0.20558   170.58    3.3711    68.49   0.15907    66.30   0.31663   -51.46
       1600   0.20609   168.32    3.2753    67.41   0.16384    66.10   0.31569   -52.20
       1650   0.20729   166.12    3.1857    66.31   0.16866    65.87   0.31447   -52.94
       1700   0.20827   163.97    3.1014    65.21   0.17347    65.63   0.31342   -53.66
       1750   0.21022   161.76    3.0224    64.15   0.17821    65.37   0.31179   -54.49
       1800   0.21277   159.66     2.948    63.08   0.18302    65.12   0.30996   -55.34
       1850   0.21293   157.68    2.8775    62.01   0.18792    64.85   0.30992   -56.18
       1900   0.21421   155.80    2.8085    60.97   0.19274    64.52   0.30938   -57.25
       1950    0.2153   153.71    2.7443    59.96   0.19749    64.23   0.30836   -58.05
       2000   0.21795   152.37    2.6827    58.97   0.20227    63.93   0.30794   -58.92

!  
! Device Noise Parameters
!  Freq-MHz   Fmin-dB  Gopt-mag  Gopt-arg   Rn-Ohm_normalized
        400    0.8018   0.05370  -166.46    0.0939
        420    0.7687   0.06192  -174.97    0.0879
        433    0.7657   0.06590  -174.41    0.0879
        440    0.7980   0.08103  -177.28    0.0817
        460    0.7871   0.07532  -173.50    0.0850
        480    0.7902   0.07450  -171.98    0.0824
        500    0.8199   0.07274  -173.08    0.0877
        550    0.8132   0.06820  -173.74    0.0868
        600    0.8799   0.05385  -168.06    0.0982
        650    0.8421   0.08546  -177.41    0.0853
        700    0.8263   0.08687  -177.38    0.0870
        750    0.8522   0.08019  -173.44    0.0910
        800    0.8395   0.10954  -173.12    0.0825
        850    0.8470   0.11844  -174.76    0.0789
        900    0.8470   0.11966  -176.01    0.0766
        950    0.8521   0.12102  -166.39    0.0822
       1000    0.8573   0.12802  -173.37    0.0786
       1050    0.8708   0.11720  -172.82    0.0839
       1100    0.8825   0.13691  -166.28    0.0798
       1150    0.8900   0.13511  -166.67    0.0812
       1200    0.8867   0.15067  -163.36    0.0806
       1250    0.8965   0.16007  -166.14    0.0774
       1300    0.9155   0.16080  -161.08    0.0795
       1350    0.9014   0.16810  -163.72    0.0783
       1400    0.9617   0.16548  -162.43    0.0747
       1450    0.9975   0.18561  -162.14    0.0641
       1500    0.9718   0.18048  -161.13    0.0785
       1550    0.9283   0.19977  -159.64    0.0733
       1600    0.9301   0.23075  -159.02    0.0694
       1650    0.9927   0.19856  -154.27    0.0768
       1700    0.9240   0.23172  -157.70    0.0694
       1750    0.9601   0.22221  -154.88    0.0728
       1800    0.9578   0.23976  -157.34    0.0642
       1850    0.9222   0.24917  -155.50    0.0675
       1900    0.9617   0.25331  -151.60    0.0773
       1950    1.0527   0.18874  -143.44    0.1017
       2000    0.9661   0.27242  -155.53    0.0620

