! Filename:  P:\Prog\Test\Noise\ATS_data\Testdata_Net\06 Compressed Noise after Statistics\BFU550A_APG2013_35_C05_05p0V_025mA_NF_CM01_D.sf
! Date/Time: Tue 16/Apr/2013 15:11:30
! BFU550A_APG2013_35_C05_05p0V_1to35mA_NF_CM01_Bias7_R.sf
! Noise Parameter Data File
! BFU550A_APG2013_35_C05_05p0V_1to35mA_SP_CM01
! Date/time: Mon Apr 15 16:43:38 2013
! VAR V_out= 5.000000
! VAR I_out= 24.995000
! VAR V_in= 0.834000
! VAR I_in= 0.273200
! Device data file deembeded for feedlines and parallel
! Original file: \06 Compressed Noise after Statistics\BFU550A_APG2013_35_C05_05p0V_025mA_NF_CM01_R.sf
! Feed-files: PR017V01_150413_Feed1.s2p, PR017V01_150413_Feed2.s2p
! Parallel-file: PR017V01_150413_Par.s2p
# MHz S MA R 50
!  Freq-MHz   S11-mag  S11-arg   S21-mag  S21-arg   S12-mag  S12-arg   S22-mag  S22-arg
        400   0.22627  -136.87    11.929    99.06  0.045379    72.88   0.41087   -35.20
        420   0.22426  -139.55    11.412    97.93  0.047308    73.07   0.40347   -35.11
        433   0.22272  -141.23    11.103    97.27  0.048532    73.20   0.39928   -34.97
        440    0.2223  -142.05    10.939    96.91   0.04922    73.23   0.39702   -34.92
        460   0.22025  -144.21    10.498    95.95  0.051102    73.42   0.39134   -34.88
        480   0.21923  -146.48    10.093    95.00  0.052996    73.56   0.38552   -34.75
        500   0.21758  -148.62    9.7184    94.12  0.054913    73.69   0.38103   -34.65
        550   0.21491  -153.85    8.9083    91.94  0.059609    74.02   0.36895   -34.36
        600   0.21251  -157.90    8.2129    90.07   0.06449    74.18   0.36153   -34.34
        650    0.2119  -162.05    7.6168    88.31  0.069335    74.28   0.35505   -34.44
        700    0.2108  -165.67    7.1023    86.64   0.07415    74.36   0.34956   -34.54
        750   0.21051  -169.02    6.6514    85.10  0.079012    74.40   0.34476   -34.67
        800   0.21075  -172.08    6.2599    83.63  0.083883    74.37   0.34117   -35.06
        850   0.21156  -175.27    5.9098    82.19  0.088729    74.29   0.33682   -35.39
        900   0.21177  -178.11    5.5978    80.83  0.093654    74.21   0.33403   -35.79
        950   0.21198   179.29    5.3202    79.49  0.098529    74.09   0.33181   -36.35
       1000   0.21211   176.79    5.0678    78.19   0.10347    73.94   0.32971   -36.78
       1050   0.21333   174.41    4.8368    76.96   0.10841    73.76   0.32789   -37.32
       1100   0.21479   171.97    4.6301    75.74   0.11335    73.55   0.32626   -37.96
       1150   0.21591   169.89    4.4392    74.55   0.11828    73.32   0.32424   -38.53
       1200    0.2171   167.67    4.2655    73.39   0.12321    73.08    0.3232   -39.32
       1250   0.21824   165.60    4.1043    72.22   0.12819    72.82   0.32194   -40.03
       1300   0.21893   163.66    3.9574    71.10   0.13314    72.54   0.32146   -40.74
       1350   0.22046   161.80    3.8211    70.00   0.13808    72.25   0.32047   -41.56
       1400   0.22266   159.83    3.6947    68.91   0.14307    71.96   0.31901   -42.28
       1450   0.22396   158.05    3.5772    67.83   0.14805    71.64   0.31826   -43.07
       1500   0.22614   156.15    3.4649    66.75   0.15302    71.30    0.3171   -44.02
       1550   0.22693   154.43    3.3622    65.69   0.15804    70.97   0.31665   -44.86
       1600   0.22813   152.88    3.2658    64.69     0.163    70.64   0.31653   -45.76
       1650   0.23011   151.27    3.1751    63.66   0.16807    70.29   0.31605   -46.63
       1700   0.23172   149.74    3.0903    62.64   0.17306    69.93    0.3158   -47.50
       1750   0.23399   148.11    3.0106    61.64   0.17796    69.57   0.31473   -48.44
       1800   0.23713   146.72    2.9367    60.64   0.18301    69.21   0.31348   -49.40
       1850   0.23772   145.15    2.8652    59.62   0.18804    68.84   0.31398   -50.38
       1900   0.23931   143.72    2.7956    58.62   0.19308    68.40   0.31383   -51.55
       1950   0.24104   142.16    2.7314    57.67   0.19799    68.02   0.31329   -52.47
       2000   0.24382   141.15     2.669    56.73   0.20291    67.63   0.31332   -53.46

!  
! Device Noise Parameters
!  Freq-MHz   Fmin-dB  Gopt-mag  Gopt-arg   Rn-Ohm_normalized
        400    1.1916   0.30388  -166.09    0.0826
        420    1.1373   0.30108  -166.30    0.0850
        433    1.1673   0.31162  -165.10    0.0776
        440    1.1711   0.30606  -165.82    0.0793
        460    1.1208   0.30673  -166.23    0.0862
        480    1.1772   0.31113  -164.32    0.0771
        500    1.1806   0.31784  -164.84    0.0803
        550    1.2027   0.31499  -162.83    0.0793
        600    1.2411   0.31500  -159.50    0.0855
        650    1.1995   0.32224  -160.39    0.0814
        700    1.2186   0.33343  -158.83    0.0794
        750    1.2186   0.33261  -155.64    0.0855
        800    1.2191   0.33954  -156.35    0.0805
        850    1.2250   0.33981  -154.91    0.0825
        900    1.2225   0.34443  -153.10    0.0822
        950    1.2394   0.34275  -151.65    0.0860
       1000    1.2465   0.35970  -150.62    0.0821
       1050    1.2520   0.34044  -149.00    0.0923
       1100    1.2719   0.35509  -147.44    0.0885
       1150    1.2727   0.35990  -146.70    0.0908
       1200    1.2675   0.35639  -143.99    0.0976
       1250    1.2839   0.36863  -143.42    0.0937
       1300    1.3207   0.36075  -141.68    0.0993
       1350    1.3055   0.36967  -142.54    0.0984
       1400    1.3026   0.36755  -141.12    0.1038
       1450    1.3507   0.37721  -136.35    0.1083
       1500    1.3220   0.37634  -136.58    0.1104
       1550    1.3313   0.38537  -134.45    0.1103
       1600    1.3147   0.39069  -134.00    0.1129
       1650    1.3758   0.39577  -131.56    0.1155
       1700    1.3188   0.38641  -131.79    0.1178
       1750    1.3652   0.41275  -130.16    0.1131
       1800    1.3317   0.40477  -128.42    0.1242
       1850    1.3746   0.40085  -128.38    0.1225
       1900    1.3764   0.40232  -126.79    0.1347
       1950    1.4565   0.38339  -120.20    0.1601
       2000    1.3927   0.40873  -124.10    0.1329

