! Filename:  P:\Prog\Test\Noise\ATS_data\Testdata_Net\06 Compressed Noise after Statistics\BFU550A_APG2013_35_C05_08p0V_002mA_NF_CM01_D.sf
! Date/Time: Tue 16/Apr/2013 15:11:27
! BFU550A_APG2013_35_C05_08p0V_1to35mA_NF_CM01_Bias2_R.sf
! Noise Parameter Data File
! BFU550A_APG2013_35_C05_08p0V_1to35mA_NF_CM01
! Date/time: Mon Apr 15 17:49:26 2013
! VAR V_out= 8.001000
! VAR I_out= 2.000000
! VAR V_in= 0.796100
! VAR I_in= 0.020100
! Device data file deembeded for feedlines and parallel
! Original file: \06 Compressed Noise after Statistics\BFU550A_APG2013_35_C05_08p0V_002mA_NF_CM01_R.sf
! Feed-files: PR017V01_150413_Feed1.s2p, PR017V01_150413_Feed2.s2p
! Parallel-file: PR017V01_150413_Par.s2p
# MHz S MA R 50
!  Freq-MHz   S11-mag  S11-arg   S21-mag  S21-arg   S12-mag  S12-arg   S22-mag  S22-arg
        400   0.77459   -50.09    5.5862   137.22  0.080067    62.10   0.85268   -26.87
        420   0.76292   -52.35    5.5199   135.41  0.082846    61.09   0.84281   -27.88
        433   0.75509   -53.72    5.4643   134.36  0.084608    60.48   0.83672   -28.44
        440   0.75126   -54.50    5.4419   133.76  0.085534    60.14   0.83307   -28.80
        460   0.74003   -56.57    5.3603   132.16   0.08804    59.22   0.82346   -29.75
        480   0.72912   -58.59    5.2699   130.56  0.090384    58.35   0.81269   -30.62
        500    0.7168   -60.68     5.205   128.98  0.092693    57.52   0.80298   -31.44
        550   0.68758   -65.74    5.0229   125.11  0.097757    55.57   0.77724   -33.46
        600   0.66093   -70.46    4.8409   121.58   0.10247    53.94    0.7551   -35.25
        650   0.63638   -74.84    4.6398   118.30   0.10685    52.44   0.73495   -36.85
        700   0.61068   -79.32    4.4795   115.04    0.1104    51.14   0.71389   -38.42
        750    0.5887   -83.46    4.3003   112.10    0.1139    50.04   0.69523   -39.70
        800   0.56639   -87.59    4.1526   109.22   0.11694    49.09   0.67759   -40.99
        850   0.54516   -91.64    4.0027   106.44   0.11973    48.20   0.66064   -42.18
        900   0.52569   -95.50    3.8627   103.85    0.1225    47.43   0.64707   -43.26
        950   0.50818   -99.27    3.7334   101.34   0.12443    46.91   0.63092   -44.41
       1000   0.49163  -102.83     3.606    98.96   0.12666    46.43    0.6185   -45.32
       1050   0.47618  -106.45    3.4829    96.68   0.12849    46.14    0.6053   -46.21
       1100   0.46178  -109.98     3.372    94.48   0.13042    45.85    0.5941   -47.10
       1150   0.44848  -113.49    3.2666    92.37   0.13244    45.53   0.58498   -47.89
       1200   0.43547  -116.82    3.1683    90.31   0.13397    45.49   0.57465   -48.78
       1250    0.4243  -120.10    3.0735    88.33   0.13579    45.41   0.56643   -49.55
       1300   0.41335  -123.28    2.9877    86.45    0.1372    45.46   0.55825   -50.35
       1350   0.40402  -126.50    2.9035    84.59    0.1387    45.62   0.54981   -51.10
       1400     0.395  -129.80    2.8258    82.78   0.14026    45.73   0.54263   -51.84
       1450    0.3866  -132.87    2.7496    81.03   0.14185    45.96   0.53613   -52.53
       1500   0.37902  -136.08    2.6781    79.29   0.14348    46.16   0.53002   -53.33
       1550   0.37161  -138.97    2.6123    77.62   0.14518    46.43   0.52467   -54.05
       1600   0.36545  -141.93    2.5496    76.05   0.14669    46.84   0.51935   -54.79
       1650   0.35974  -144.89    2.4897    74.47   0.14848    47.23   0.51443   -55.51
       1700   0.35467  -147.80    2.4324    72.92   0.15034    47.80   0.50896   -56.15
       1750   0.34982  -150.76    2.3777    71.40   0.15219    48.11   0.50525   -56.86
       1800   0.34635  -153.73    2.3263    69.88   0.15407    48.57    0.5007   -57.64
       1850   0.34227  -156.38    2.2769    68.42   0.15619    48.99   0.49849   -58.36
       1900   0.33868  -159.20    2.2281    67.00   0.15833    49.44   0.49522   -59.26
       1950   0.33511  -161.89    2.1828    65.62   0.16057    49.93   0.49193   -59.93
       2000   0.33418  -164.56    2.1389    64.26   0.16286    50.45   0.48938   -60.65

!  
! Device Noise Parameters
!  Freq-MHz   Fmin-dB  Gopt-mag  Gopt-arg   Rn-Ohm_normalized
        400    0.5692   0.46315    22.69    0.1973
        420    0.5093   0.46540    24.27    0.1893
        433    0.5547   0.45950    25.25    0.1815
        440    0.5542   0.46493    24.55    0.2022
        460    0.5430   0.45751    25.79    0.2002
        480    0.5423   0.46268    26.88    0.1865
        500    0.5543   0.46171    29.30    0.2037
        550    0.5963   0.46163    32.45    0.1891
        600    0.5848   0.45786    35.06    0.1985
        650    0.6050   0.46635    39.10    0.1826
        700    0.5949   0.45576    43.27    0.1804
        750    0.6119   0.45968    45.24    0.1868
        800    0.6084   0.44220    50.77    0.1627
        850    0.6440   0.45331    53.64    0.1659
        900    0.5901   0.44703    56.14    0.1517
        950    0.6348   0.44558    59.63    0.1690
       1000    0.6624   0.43739    64.24    0.1464
       1050    0.6815   0.44350    63.84    0.1611
       1100    0.6890   0.42011    66.07    0.1557
       1150    0.6909   0.42752    73.75    0.1450
       1200    0.7161   0.42521    76.42    0.1389
       1250    0.7097   0.42356    80.86    0.1286
       1300    0.7539   0.41827    80.72    0.1383
       1350    0.7577   0.42325    86.24    0.1224
       1400    0.7833   0.41409    91.77    0.1112
       1450    0.9168   0.39301    86.94    0.1365
       1500    0.8551   0.39885    99.68    0.1119
       1550    0.7734   0.39975   102.13    0.1029
       1600    0.8003   0.38635   105.57    0.1000
       1650    0.9102   0.35830   104.90    0.1154
       1700    0.8178   0.36226   118.75    0.0854
       1750    0.8077   0.36220   117.40    0.0878
       1800    0.7295   0.36347   123.26    0.0857
       1850    0.7835   0.36282   122.17    0.0873
       1900    0.8797   0.35479   128.13    0.0907
       1950    1.1594   0.35697   130.14    0.0902
       2000    0.8260   0.34412   139.25    0.0758

