! Filename:  P:\Prog\Test\Noise\ATS_data\Testdata_Net\06 Compressed Noise after Statistics\BFU550A_APG2013_35_C05_05p0V_035mA_NF_CM01_D.sf
! Date/Time: Tue 16/Apr/2013 15:11:27
! BFU550A_APG2013_35_C05_05p0V_1to35mA_NF_CM01_Bias8_R.sf
! Noise Parameter Data File
! BFU550A_APG2013_35_C05_05p0V_1to35mA_SP_CM01
! Date/time: Mon Apr 15 16:43:38 2013
! VAR V_out= 5.000000
! VAR I_out= 35.000000
! VAR V_in= 0.831500
! VAR I_in= 0.393200
! Device data file deembeded for feedlines and parallel
! Original file: \06 Compressed Noise after Statistics\BFU550A_APG2013_35_C05_05p0V_035mA_NF_CM01_R.sf
! Feed-files: PR017V01_150413_Feed1.s2p, PR017V01_150413_Feed2.s2p
! Parallel-file: PR017V01_150413_Par.s2p
# MHz S MA R 50
!  Freq-MHz   S11-mag  S11-arg   S21-mag  S21-arg   S12-mag  S12-arg   S22-mag  S22-arg
        400   0.29775  -158.94    10.463    95.27  0.042324    74.20   0.40906   -28.82
        420   0.29805  -160.76    9.9943    94.23   0.04418    74.45   0.40414   -28.72
        433   0.29862  -162.01    9.7172    93.61  0.045365    74.59   0.40158   -28.58
        440   0.29872  -162.58    9.5703    93.27   0.04601    74.64    0.4001   -28.55
        460   0.29862  -164.10    9.1743    92.38  0.047822    74.88   0.39648   -28.53
        480   0.29966  -165.60    8.8141    91.48  0.049664    75.06   0.39277   -28.43
        500    0.2995  -167.18    8.4777    90.66  0.051518    75.20   0.39007   -28.38
        550   0.30036  -170.72    7.7573    88.58  0.056007    75.59    0.3822   -28.25
        600   0.30067  -173.66    7.1441    86.78  0.060756    75.84   0.37783   -28.44
        650   0.30241  -176.49    6.6188    85.07  0.065412    75.99   0.37399   -28.74
        700   0.30269  -179.03    6.1672    83.44  0.070104    76.14   0.37085   -29.07
        750   0.30421   178.56    5.7711    81.93  0.074781    76.24   0.36806   -29.41
        800    0.3054   176.31    5.4283    80.46  0.079495    76.24   0.36609   -30.01
        850   0.30711   174.08    5.1223    79.02  0.084224    76.23    0.3633   -30.53
        900    0.3081   171.94    4.8502    77.66  0.088969    76.20   0.36173   -31.13
        950   0.30932   170.03    4.6083    76.30  0.093728    76.11   0.36059   -31.88
       1000   0.30999   168.10    4.3889    74.97  0.098564    76.02   0.35947   -32.50
       1050   0.31176   166.31    4.1881    73.71   0.10337    75.90   0.35863   -33.22
       1100   0.31347   164.51    4.0087    72.46   0.10819    75.74   0.35779   -34.02
       1150   0.31521   162.85     3.843    71.24   0.11305    75.56    0.3565   -34.76
       1200   0.31645   161.10    3.6924    70.04    0.1179    75.36   0.35609   -35.68
       1250   0.31813   159.49    3.5531    68.84   0.12281    75.15   0.35537   -36.55
       1300   0.31886   157.88    3.4256    67.68   0.12772    74.91   0.35542   -37.40
       1350   0.32043   156.35    3.3072    66.53   0.13261    74.66   0.35501   -38.35
       1400    0.3228   154.80    3.1982    65.40   0.13755    74.43   0.35406   -39.20
       1450    0.3242   153.32    3.0965    64.27   0.14249    74.16   0.35375   -40.12
       1500   0.32666   151.80    2.9995    63.15   0.14746    73.87   0.35302   -41.17
       1550   0.32739   150.36    2.9112    62.04   0.15247    73.56   0.35289   -42.13
       1600   0.32888   148.94    2.8276    60.98   0.15746    73.27   0.35314   -43.14
       1650   0.33078   147.56    2.7497    59.90   0.16255    72.96   0.35298   -44.13
       1700   0.33244   146.28    2.6766    58.84   0.16758    72.64   0.35306   -45.09
       1750   0.33479   144.89    2.6074    57.80   0.17256    72.32   0.35242   -46.13
       1800   0.33759   143.64    2.5433    56.75   0.17765    71.99   0.35152   -47.18
       1850   0.33858   142.22    2.4814    55.69   0.18282    71.65   0.35221   -48.26
       1900   0.34007   140.96    2.4213    54.64   0.18791    71.23   0.35223   -49.50
       1950   0.34199   139.59     2.366    53.66   0.19295    70.89   0.35201   -50.51
       2000   0.34421   138.55    2.3121    52.68   0.19797    70.52   0.35232   -51.59

!  
! Device Noise Parameters
!  Freq-MHz   Fmin-dB  Gopt-mag  Gopt-arg   Rn-Ohm_normalized
        400    1.3673   0.37716  -167.14    0.0913
        420    1.4132   0.38106  -166.31    0.0829
        433    1.4156   0.39436  -166.64    0.0765
        440    1.4083   0.38791  -165.57    0.0819
        460    1.4155   0.39037  -164.77    0.0816
        480    1.4105   0.38621  -164.70    0.0837
        500    1.4212   0.38384  -164.60    0.0877
        550    1.4318   0.39451  -162.44    0.0850
        600    1.5096   0.39164  -159.75    0.0905
        650    1.4585   0.40670  -159.37    0.0867
        700    1.4728   0.41368  -157.41    0.0867
        750    1.4888   0.41557  -154.75    0.0933
        800    1.4926   0.41902  -154.97    0.0914
        850    1.5105   0.43120  -153.42    0.0904
        900    1.4748   0.43629  -152.24    0.0923
        950    1.5335   0.43569  -149.28    0.0987
       1000    1.5513   0.44113  -148.07    0.0992
       1050    1.5677   0.43540  -147.17    0.1072
       1100    1.5769   0.45022  -144.94    0.1084
       1150    1.5941   0.45377  -144.14    0.1113
       1200    1.6112   0.45610  -141.47    0.1194
       1250    1.6201   0.45984  -140.10    0.1239
       1300    1.6428   0.46643  -138.85    0.1303
       1350    1.6490   0.46301  -136.77    0.1382
       1400    1.6782   0.47064  -135.94    0.1403
       1450    1.7241   0.46469  -133.42    0.1558
       1500    1.7001   0.48742  -133.08    0.1522
       1550    1.7085   0.48681  -132.23    0.1558
       1600    1.7075   0.49676  -130.11    0.1676
       1650    1.7937   0.47618  -128.51    0.1817
       1700    1.6903   0.49496  -127.14    0.1843
       1750    1.7571   0.49870  -125.66    0.1908
       1800    1.7187   0.52336  -127.00    0.1839
       1850    1.7969   0.48897  -124.24    0.2079
       1900    1.8013   0.51992  -120.27    0.2268
       1950    1.8315   0.55021  -117.92    0.2379
       2000    1.8145   0.52440  -118.93    0.2403

