! Filename:  P:\Prog\Test\Noise\ATS_data\Testdata_Net\06 Compressed Noise after Statistics\BFU550A_APG2013_35_C05_12p0V_035mA_NF_CM01_D.sf
! Date/Time: Tue 16/Apr/2013 15:11:30
! BFU550A_APG2013_35_C05_12p0V_1to35mA_NF_CM01_Bias8_R.sf
! Noise Parameter Data File
! BFU550A_APG2013_35_C05_12p0V_1to35mA_NF_CM01
! Date/time: Mon Apr 15 18:57:59 2013
! VAR V_out= 12.001000
! VAR I_out= 35.000000
! VAR V_in= 0.729800
! VAR I_in= 0.333450
! Device data file deembeded for feedlines and parallel
! Original file: \06 Compressed Noise after Statistics\BFU550A_APG2013_35_C05_12p0V_035mA_NF_CM01_R.sf
! Feed-files: PR017V01_150413_Feed1.s2p, PR017V01_150413_Feed2.s2p
! Parallel-file: PR017V01_150413_Par.s2p
# MHz S MA R 50
!  Freq-MHz   S11-mag  S11-arg   S21-mag  S21-arg   S12-mag  S12-arg   S22-mag  S22-arg
        400   0.20294  -130.27    12.418    99.32  0.044732    73.47   0.41526   -33.97
        420   0.20021  -133.01     11.88    98.21  0.046642    73.64   0.40806   -33.87
        433   0.19842  -134.91    11.558    97.55  0.047865    73.76   0.40408   -33.72
        440   0.19749  -135.75    11.386    97.19  0.048523    73.79   0.40184   -33.68
        460   0.19484  -137.96    10.925    96.24  0.050435    73.97   0.39633   -33.63
        480   0.19334  -140.30    10.506    95.32  0.052329    74.09   0.39073   -33.48
        500   0.19074  -142.71    10.115    94.45  0.054215    74.19   0.38642   -33.39
        550   0.18688  -148.18    9.2704    92.29  0.058911    74.50   0.37465   -33.09
        600    0.1836  -152.71    8.5472    90.46  0.063773    74.61   0.36748   -33.09
        650   0.18191  -157.24    7.9271    88.73  0.068577    74.71   0.36119   -33.19
        700   0.18013  -161.31    7.3909    87.09  0.073382    74.76   0.35589   -33.29
        750   0.17959  -164.91    6.9226    85.58  0.078214    74.77   0.35127   -33.39
        800   0.17904  -168.39    6.5147    84.13  0.083034    74.72   0.34774   -33.78
        850   0.17938  -171.93     6.151    82.72  0.087862    74.63    0.3434   -34.10
        900   0.17907  -175.09    5.8264    81.38  0.092727    74.53   0.34066   -34.48
        950   0.17927  -177.95    5.5373    80.07  0.097574    74.38    0.3385   -35.04
       1000   0.17899   179.24    5.2745    78.79   0.10248    74.22   0.33648   -35.45
       1050   0.18033   176.58    5.0341    77.59   0.10737    74.03   0.33468   -35.98
       1100   0.18136   173.98    4.8178    76.39   0.11225    73.79   0.33302   -36.59
       1150   0.18268   171.56    4.6197    75.23   0.11714    73.56   0.33102   -37.15
       1200   0.18361   169.15    4.4386    74.09   0.12205    73.31   0.33001   -37.92
       1250   0.18469   166.91    4.2711    72.96   0.12696    73.04   0.32875   -38.61
       1300   0.18522   164.76    4.1176    71.86   0.13189    72.75   0.32829   -39.29
       1350   0.18654   162.76    3.9756    70.77   0.13678    72.45   0.32722   -40.10
       1400   0.18888   160.63    3.8445    69.70    0.1417    72.16   0.32574   -40.79
       1450   0.18995   158.64    3.7221    68.64   0.14664    71.83   0.32504   -41.55
       1500   0.19238   156.63     3.605    67.59   0.15155    71.49   0.32379   -42.48
       1550   0.19294   154.84    3.4977    66.55   0.15651    71.14   0.32328   -43.30
       1600   0.19444   153.08    3.3967    65.58   0.16143    70.81   0.32317   -44.17
       1650    0.1963   151.38    3.3026    64.58   0.16643    70.46   0.32266   -45.02
       1700   0.19794   149.76    3.2141    63.58   0.17135    70.10   0.32236   -45.86
       1750   0.20031   148.04    3.1311    62.60   0.17622    69.73   0.32123   -46.77
       1800   0.20342   146.55     3.054    61.61    0.1812    69.37   0.31991   -47.70
       1850    0.2041   144.93    2.9795    60.61   0.18621    68.99    0.3204   -48.65
       1900   0.20563   143.33    2.9068    59.63   0.19114    68.56   0.32017   -49.80
       1950   0.20761   141.69    2.8396    58.71   0.19599    68.17   0.31959   -50.68
       2000   0.21005   140.65    2.7749    57.79   0.20083    67.78   0.31953   -51.65

!  
! Device Noise Parameters
!  Freq-MHz   Fmin-dB  Gopt-mag  Gopt-arg   Rn-Ohm_normalized
        400    1.5618   0.25947  -166.12    0.1185
        420    1.4659   0.26376  -166.54    0.1291
        433    1.5064   0.27737  -169.09    0.1113
        440    1.5013   0.24663  -162.24    0.1421
        460    1.4972   0.29380  -167.86    0.1050
        480    1.5240   0.29530  -162.31    0.1006
        500    1.5197   0.28040  -162.44    0.1194
        550    1.5356   0.27480  -163.49    0.1177
        600    1.5856   0.26238  -157.65    0.1316
        650    1.5449   0.32824  -159.87    0.0963
        700    1.5811   0.28556  -160.43    0.1136
        750    1.6068   0.26806  -157.47    0.1261
        800    1.5538   0.31138  -156.19    0.1117
        850    1.5855   0.30441  -152.57    0.1166
        900    1.5650   0.29566  -153.09    0.1211
        950    1.5696   0.29951  -149.03    0.1291
       1000    1.5592   0.30949  -149.85    0.1249
       1050    1.6063   0.29357  -149.35    0.1324
       1100    1.5917   0.30863  -145.81    0.1343
       1150    1.6410   0.30441  -144.66    0.1344
       1200    1.6214   0.29836  -144.63    0.1438
       1250    1.6239   0.32872  -142.09    0.1322
       1300    1.6466   0.31718  -138.49    0.1473
       1350    1.6593   0.33504  -140.80    0.1361
       1400    1.6687   0.36302  -139.49    0.1197
       1450    1.7042   0.34994  -133.10    0.1396
       1500    1.7077   0.35328  -131.41    0.1450
       1550    1.6380   0.38381  -132.96    0.1342
       1600    1.6324   0.38598  -131.14    0.1467
       1650    1.7480   0.31570  -123.50    0.1982
       1700    1.6523   0.36264  -128.93    0.1624
       1750    1.6495   0.39568  -125.59    0.1562
       1800    1.6626   0.36160  -132.57    0.1547
       1850    1.6376   0.38813  -127.18    0.1640
       1900    1.6850   0.38839  -123.96    0.1774
       1950    1.8015   0.33126  -119.79    0.2144
       2000    1.6931   0.42752  -125.40    0.1453

