! Filename:  P:\Prog\Test\Noise\ATS_data\Testdata_Net\06 Compressed Noise after Statistics\BFU550A_APG2013_35_C05_05p0V_015mA_NF_CM01_D.sf
! Date/Time: Tue 16/Apr/2013 15:11:26
! BFU550A_APG2013_35_C05_05p0V_1to35mA_NF_CM01_Bias6_R.sf
! Noise Parameter Data File
! BFU550A_APG2013_35_C05_05p0V_1to35mA_SP_CM01
! Date/time: Mon Apr 15 16:43:38 2013
! VAR V_out= 5.001000
! VAR I_out= 14.995000
! VAR V_in= 0.832800
! VAR I_in= 0.161300
! Device data file deembeded for feedlines and parallel
! Original file: \06 Compressed Noise after Statistics\BFU550A_APG2013_35_C05_05p0V_015mA_NF_CM01_R.sf
! Feed-files: PR017V01_150413_Feed1.s2p, PR017V01_150413_Feed2.s2p
! Parallel-file: PR017V01_150413_Par.s2p
# MHz S MA R 50
!  Freq-MHz   S11-mag  S11-arg   S21-mag  S21-arg   S12-mag  S12-arg   S22-mag  S22-arg
        400   0.25833  -110.62    12.049   104.07  0.049025    68.74   0.45719   -39.40
        420   0.25169  -113.37    11.553   102.76  0.050897    68.88   0.44661   -39.49
        433     0.247  -115.25    11.257   102.00  0.052062    69.02   0.44058   -39.46
        440   0.24507  -116.17    11.098   101.57  0.052723    69.07   0.43737   -39.48
        460   0.23936  -118.57     10.67   100.47  0.054536    69.28   0.42897   -39.56
        480    0.2348  -121.11    10.277    99.38  0.056382    69.41    0.4206   -39.56
        500   0.22969  -123.61    9.9084    98.38  0.058224    69.57   0.41373   -39.55
        550   0.21886  -129.63    9.1113    95.89  0.062708    69.97   0.39617   -39.45
        600   0.21066  -134.76    8.4216    93.78  0.067456    70.27   0.38439   -39.49
        650   0.20462  -139.80    7.8253    91.81   0.07215    70.49    0.3742   -39.59
        700   0.19913  -144.37    7.3075    89.97   0.07682    70.70   0.36544   -39.66
        750   0.19527  -148.75    6.8526    88.27  0.081557    70.85   0.35776   -39.72
        800   0.19202  -152.78    6.4555    86.67  0.086305    70.93   0.35188   -40.01
        850   0.18988  -156.99    6.1005    85.10   0.09105    70.97   0.34543   -40.26
        900    0.1876  -160.77    5.7829    83.64  0.095824    70.99   0.34078   -40.55
        950   0.18608  -164.17    5.4988    82.21   0.10061    70.96   0.33697   -40.99
       1000   0.18427  -167.43    5.2412    80.83   0.10542    70.91   0.33337   -41.30
       1050   0.18406  -170.77    5.0045    79.52   0.11026    70.82   0.33031   -41.71
       1100   0.18381  -173.95    4.7921    78.23   0.11511    70.68   0.32751   -42.23
       1150    0.1842  -176.85    4.5964    76.99   0.11995    70.53   0.32449   -42.69
       1200   0.18407  -179.70    4.4177    75.78   0.12479    70.37   0.32259   -43.35
       1250    0.1843   177.57    4.2525    74.57    0.1297    70.18    0.3205   -43.95
       1300   0.18417   175.00    4.1007    73.42   0.13456    69.96   0.31931   -44.54
       1350   0.18508   172.62    3.9602    72.27   0.13941    69.72   0.31763   -45.25
       1400   0.18659   170.08    3.8304    71.15   0.14429    69.50   0.31551   -45.86
       1450   0.18738   167.72    3.7088    70.04   0.14919    69.24   0.31422   -46.56
       1500   0.18904   165.22    3.5934    68.93   0.15408    68.95   0.31256   -47.41
       1550   0.18939   163.19    3.4877    67.85     0.159    68.65   0.31165   -48.15
       1600   0.19036   161.11    3.3876    66.83   0.16389    68.38   0.31111   -48.95
       1650   0.19182   159.10    3.2936    65.79   0.16886    68.07   0.31024   -49.74
       1700   0.19355   157.17    3.2064    64.75   0.17378    67.76   0.30959   -50.51
       1750   0.19554   155.18    3.1237    63.74    0.1786    67.42   0.30817   -51.37
       1800   0.19806   153.35    3.0469    62.71   0.18353    67.09   0.30662   -52.26
       1850   0.19886   151.56    2.9731    61.69    0.1885    66.76   0.30681   -53.14
       1900   0.20042   149.79    2.9012    60.68   0.19339    66.35   0.30641   -54.25
       1950     0.202   147.91    2.8346    59.73   0.19821    66.01   0.30561   -55.08
       2000   0.20465   146.66    2.7701    58.77   0.20305    65.66    0.3054   -56.00

!  
! Device Noise Parameters
!  Freq-MHz   Fmin-dB  Gopt-mag  Gopt-arg   Rn-Ohm_normalized
        400    0.9333   0.17197  -174.85    0.0844
        420    0.8998   0.19009  -174.98    0.0750
        433    0.9358   0.17429  -170.32    0.0784
        440    0.9315   0.17084  -172.62    0.0809
        460    0.8983   0.17487  -172.62    0.0863
        480    0.9383   0.16282  -171.93    0.0807
        500    0.9417   0.17523  -171.76    0.0876
        550    0.9580   0.17893  -170.24    0.0806
        600    0.9941   0.16136  -160.88    0.0927
        650    0.9638   0.18458  -167.14    0.0816
        700    0.9651   0.19659  -166.21    0.0793
        750    0.9878   0.18447  -163.43    0.0869
        800    0.9732   0.21409  -163.43    0.0780
        850    0.9887   0.20623  -162.11    0.0792
        900    0.9864   0.21067  -160.25    0.0776
        950    0.9929   0.20665  -157.52    0.0835
       1000    0.9890   0.21699  -157.95    0.0811
       1050    1.0095   0.20681  -154.57    0.0853
       1100    1.0274   0.22225  -154.60    0.0814
       1150    1.0211   0.22402  -152.93    0.0831
       1200    1.0306   0.23480  -153.94    0.0810
       1250    1.0345   0.23366  -149.88    0.0833
       1300    1.0572   0.22980  -149.84    0.0861
       1350    1.0545   0.24799  -147.90    0.0843
       1400    1.0498   0.24551  -150.57    0.0879
       1450    1.1115   0.25846  -140.38    0.0885
       1500    1.0748   0.26851  -142.83    0.0869
       1550    1.0446   0.26575  -142.22    0.0877
       1600    1.0861   0.26502  -141.37    0.0883
       1650    1.1389   0.26488  -136.82    0.0950
       1700    1.0836   0.28972  -139.18    0.0811
       1750    1.0699   0.29897  -138.54    0.0867
       1800    1.1065   0.29631  -141.42    0.0780
       1850    1.0386   0.30778  -136.13    0.0896
       1900    1.1013   0.30797  -135.81    0.0907
       1950    1.1740   0.29948  -130.25    0.1040
       2000    1.0863   0.33151  -131.06    0.0905

