! Filename:  P:\Prog\Test\Noise\ATS_data\Testdata_Net\06 Compressed Noise after Statistics\BFU550A_APG2013_35_C05_03p3V_001mA_NF_CM01_D.sf
! Date/Time: Tue 16/Apr/2013 15:11:38
! BFU550A_APG2013_35_C05_03p3V_1to35mA_NF_CM01_Bias1_R.sf
! Noise Parameter Data File
! BFU550A_APG2013_35_C05_03p3V_1to35mA_NF_CM01
! Date/time: Mon Apr 15 15:23:40 2013
! freq range =  0.4000 to  2.0000 GHz, 37 points
! bias range =  0.9950 to 35.0000 mA, 8 points
! bias supplies used: 1 1 0 0 0 0
! VAR bias_mode= 1     ! Specify V_out, I_out
! VAR bias_var = 1     ! Bias variable = I_out
! VAR V_out= 3.300000
! VAR I_out= 0.995000
! VAR V_in= 0.783800
! VAR I_in= 0.010401
! Device data file deembeded for feedlines and parallel
! Original file: \06 Compressed Noise after Statistics\BFU550A_APG2013_35_C05_03p3V_001mA_NF_CM01_R.sf
! Feed-files: PR017V01_150413_Feed1.s2p, PR017V01_150413_Feed2.s2p
! Parallel-file: PR017V01_150413_Par.s2p
# MHz S MA R 50
!  Freq-MHz   S11-mag  S11-arg   S21-mag  S21-arg   S12-mag  S12-arg   S22-mag  S22-arg
        400   0.88052   -39.91    3.2023   145.08  0.094242    64.88   0.92425   -21.47
        420   0.87319   -41.88    3.1939   143.45  0.098063    63.78   0.91844   -22.41
        433   0.86857   -43.03    3.1718   142.45   0.10046    63.12   0.91481   -22.94
        440   0.86628   -43.72    3.1662   141.93   0.10173    62.72   0.91259   -23.29
        460   0.85869   -45.57     3.144   140.46    0.1053    61.68    0.9069   -24.21
        480   0.85225   -47.32    3.1062   138.94   0.10864    60.63   0.89982   -25.09
        500   0.84379   -49.20    3.0932   137.46   0.11194    59.64   0.89351   -25.92
        550    0.8246   -53.75    3.0327   133.82   0.11943    57.22   0.87584   -28.00
        600    0.8054   -58.11    2.9772   130.33   0.12649    54.99   0.86014   -29.96
        650   0.78664   -62.21    2.8873   127.00   0.13319    52.89   0.84606   -31.74
        700   0.76713   -66.49    2.8382   123.71   0.13861    50.80   0.82934   -33.63
        750    0.7492   -70.43    2.7565   120.58   0.14403    48.96   0.81461   -35.15
        800   0.73007   -74.51    2.7034   117.53   0.14863    47.16       0.8   -36.79
        850   0.71145   -78.49    2.6392   114.48    0.1528    45.44   0.78525   -38.30
        900   0.69332   -82.28    2.5773   111.63   0.15708    43.86   0.77472   -39.63
        950   0.67689   -86.07    2.5213   108.86   0.15931    42.35   0.75798   -41.25
       1000   0.66118   -89.66    2.4591   106.18   0.16234    40.98   0.74697   -42.48
       1050   0.64538   -93.24    2.3967   103.54   0.16433    39.78   0.73329   -43.70
       1100   0.63038   -96.84    2.3418   101.05   0.16621    38.60    0.7218   -44.95
       1150   0.61625  -100.36    2.2873    98.60   0.16876    37.37   0.71454   -45.99
       1200   0.60174  -103.77    2.2386    96.18   0.16925    36.40   0.70205   -47.31
       1250   0.58901  -107.11    2.1868    93.86   0.17084    35.45   0.69448   -48.32
       1300   0.57659  -110.40    2.1432    91.62   0.17087    34.63   0.68439   -49.52
       1350    0.5657  -113.67    2.0942    89.45   0.17099    34.00   0.67415   -50.55
       1400   0.55447  -117.01     2.051    87.32   0.17116    33.27    0.6665   -51.61
       1450    0.5446  -120.13    2.0052    85.24   0.17121    32.76   0.65906   -52.53
       1500   0.53458  -123.37    1.9638    83.18   0.17104    32.24   0.65191   -53.58
       1550   0.52543  -126.37    1.9257    81.21   0.17074    31.83   0.64578   -54.56
       1600   0.51757  -129.43    1.8887    79.38   0.16951    31.71    0.6379   -55.62
       1650   0.50956  -132.47    1.8528    77.52   0.16881    31.60   0.63148   -56.57
       1700   0.50203  -135.43    1.8168    75.65   0.16753    31.91   0.62256   -57.46
       1750   0.49565  -138.48    1.7818    73.87   0.16719    31.68   0.61965   -58.31
       1800   0.49002  -141.48    1.7488    72.06   0.16617    31.83   0.61388   -59.29
       1850   0.48423  -144.21     1.717    70.36   0.16564    31.90   0.61175   -60.17
       1900   0.47956  -147.09     1.686    68.73   0.16451    32.31   0.60643   -61.25
       1950   0.47391  -149.91     1.656    67.12   0.16389    32.71   0.60264   -62.05
       2000   0.47075  -152.77    1.6276    65.54   0.16294    33.38    0.5982   -62.94

!  
! Device Noise Parameters
!  Freq-MHz   Fmin-dB  Gopt-mag  Gopt-arg   Rn-Ohm_normalized
        400    0.5056   0.69405    21.79    0.3401
        420    0.4696   0.67454    24.90    0.3197
        433    0.5129   0.67531    26.52    0.2969
        440    0.5271   0.70871    24.14    0.3581
        460    0.5297   0.67583    27.70    0.3576
        480    0.5135   0.66991    28.02    0.3162
        500    0.5393   0.66778    31.16    0.3471
        550    0.5629   0.67308    32.52    0.3183
        600    0.5688   0.65150    38.26    0.3250
        650    0.5996   0.63832    39.85    0.3145
        700    0.6128   0.63237    43.50    0.2972
        750    0.6224   0.63207    45.13    0.3143
        800    0.6300   0.59911    51.31    0.2613
        850    0.6813   0.61854    52.92    0.2860
        900    0.6054   0.59150    56.50    0.2254
        950    0.7194   0.59973    60.57    0.2891
       1000    0.6892   0.60426    64.63    0.2338
       1050    0.7970   0.58849    65.16    0.2715
       1100    0.8060   0.58446    68.49    0.2540
       1150    0.7814   0.58549    72.65    0.2451
       1200    0.7807   0.58024    74.77    0.2365
       1250    0.7749   0.53942    79.62    0.2090
       1300    0.8166   0.58441    80.25    0.2251
       1350    0.8259   0.56047    85.84    0.1944
       1400    0.7775   0.55539    88.30    0.1965
       1450    1.1048   0.56234    89.10    0.2303
       1500    1.0300   0.52837    95.71    0.1885
       1550    0.9157   0.53559    99.22    0.1491
       1600    0.8506   0.52445   101.43    0.1593
       1650    1.1457   0.51730   107.53    0.1627
       1700    0.9522   0.46224   114.72    0.1220
       1750    0.8747   0.51954   115.55    0.1238
       1800    0.7450   0.50148   122.03    0.1048
       1850    0.8538   0.51311   116.32    0.1234
       1900    1.0376   0.50185   127.57    0.1129
       1950    1.5008   0.50800   126.83    0.1323
       2000    0.9229   0.49904   129.82    0.0971

