# Hz S DB R 50
! CMT, M5065, 19127446, 23.4.5/2
! Date: 23/9/2024 23:55:54
! Data: Format (Calibration Info)
! Freq	S11:dB/Ang(F2)	S21:dB/Ang(F2)	S12:dB/Ang(F2)	S22:dB/Ang(F2)
3.00000000000E+05	-5.92772181736E-02	1.78227420158E+02	-3.63993941936E+01	1.73148203499E+02	-3.02525042617E+01	-2.29233815861E+01	-5.04136780397E-01	1.77676827643E+02
1.29985000000E+06	-3.91938701615E-01	1.78796215494E+02	-4.43460708587E+01	-2.52886199200E+01	-3.98059318245E+01	-7.11543529840E+01	-9.18488463454E-01	1.77008615537E+02
2.29970000000E+06	-4.58620365436E-01	1.79254440820E+02	-3.59506351021E+01	-6.87146743226E+01	-3.68207572641E+01	-1.21528018340E+02	-8.69080739394E-01	1.78417716220E+02
3.29955000000E+06	-4.68834292777E-01	1.78939958043E+02	-3.78829668594E+01	-4.77812225642E+01	-4.44339499418E+01	-1.54955154904E+02	-9.82475660043E-01	1.77109632379E+02
4.29940000000E+06	-4.90407630708E-01	1.78659540935E+02	-4.32032757599E+01	-2.60337224884E+01	-4.51899222988E+01	1.30403342510E+01	-1.33020797492E+00	1.76847268839E+02
5.29925000000E+06	-4.42895227376E-01	1.78841894522E+02	-3.38072201074E+01	-1.32359467870E+02	-3.83729781210E+01	-4.03272480362E+01	-1.53113052174E+00	1.78564255476E+02
6.29910000000E+06	-5.19154471468E-01	1.78231671453E+02	-4.92221899826E+01	7.90745195269E+01	-5.35122593755E+01	-7.68361431839E+01	-1.27112959051E+00	1.77882287046E+02
7.29895000000E+06	-5.07471937182E-01	1.78209771568E+02	-5.95353475314E+01	-8.34744044640E+01	-4.39861397047E+01	2.04761884795E+01	-1.38621684905E+00	1.76975926204E+02
8.29880000000E+06	-4.92989197493E-01	1.78023432124E+02	-5.03041383656E+01	1.43261425938E+02	-5.41361476375E+01	1.31643026215E+02	-1.20021483438E+00	1.77236494408E+02
9.29865000000E+06	-5.06799850636E-01	1.77924028161E+02	-5.35291709343E+01	-1.68334114465E+01	-3.58334101373E+01	9.63318833028E+01	-1.14561411956E+00	1.74539297848E+02
1.02985000000E+07	-4.98493835229E-01	1.77770232103E+02	-5.00560939854E+01	3.59075867394E+01	-4.14963114888E+01	8.91561130215E+01	-1.21086511842E+00	1.75807137102E+02
1.12983500000E+07	-4.70275752143E-01	1.77357914144E+02	-4.05350500005E+01	9.64325294828E+01	-4.35099637497E+01	6.93607106864E+01	-1.28711188878E+00	1.76012336072E+02
1.22982000000E+07	-4.73479339060E-01	1.77131569165E+02	-4.32467092258E+01	6.45651176135E+01	-3.72755154434E+01	8.32018763027E+01	-1.22704355888E+00	1.74373050368E+02
1.32980500000E+07	-4.71134574364E-01	1.76686965154E+02	-4.55564455904E+01	7.20984211546E+01	-4.08086135346E+01	7.83943813740E+01	-1.22446970449E+00	1.74886289694E+02
1.42979000000E+07	-4.66849963427E-01	1.76316238147E+02	-4.18589079841E+01	8.88940382089E+01	-3.97942983286E+01	7.36950943610E+01	-1.26274041923E+00	1.74319420365E+02
1.52977500000E+07	-4.66408432914E-01	1.75974792416E+02	-3.89405186943E+01	7.58477258163E+01	-4.05442684703E+01	7.74488285429E+01	-1.22485556246E+00	1.74389288900E+02
1.62976000000E+07	-4.64797217348E-01	1.75633969674E+02	-3.92137887036E+01	7.88431360474E+01	-3.90511767249E+01	8.00315479591E+01	-1.23844986699E+00	1.73719820604E+02
1.72974500000E+07	-4.70108125902E-01	1.75325973709E+02	-3.86912342228E+01	7.77550071020E+01	-3.88854601976E+01	7.79436999640E+01	-1.23604183600E+00	1.73421672339E+02
1.82973000000E+07	-4.69465711228E-01	1.75065247273E+02	-3.82077584253E+01	7.82196879462E+01	-3.81399072847E+01	7.73757853106E+01	-1.23809614100E+00	1.73074286861E+02
1.92971500000E+07	-4.65838866825E-01	1.74821095681E+02	-3.78158839311E+01	7.74202747154E+01	-3.76079425457E+01	7.76958123350E+01	-1.24825573409E+00	1.72729808249E+02
2.02970000000E+07	-4.62321223662E-01	1.74537547353E+02	-3.73886482019E+01	7.72932061752E+01	-3.72856278829E+01	7.63861425992E+01	-1.24297026233E+00	1.72387402187E+02
2.12968500000E+07	-4.64581056087E-01	1.74325606166E+02	-3.69609298395E+01	7.70873521139E+01	-3.66979814267E+01	7.77381618880E+01	-1.24454276177E+00	1.72049836425E+02
2.22967000000E+07	-4.63363148724E-01	1.73920889039E+02	-3.63830637352E+01	7.69600378458E+01	-3.61924856528E+01	7.69819354823E+01	-1.24529046701E+00	1.71727887278E+02
2.32965500000E+07	-4.61363888068E-01	1.73746504916E+02	-3.61497587955E+01	7.67197162681E+01	-3.59922278449E+01	7.68626663669E+01	-1.24781801118E+00	1.71336104565E+02
2.42964000000E+07	-4.65796428232E-01	1.73443556506E+02	-3.55695926382E+01	7.66050665571E+01	-3.55044288450E+01	7.67746131795E+01	-1.24625514559E+00	1.71067253920E+02
2.52962500000E+07	-4.59002472576E-01	1.73253901779E+02	-3.52254011522E+01	7.83263879517E+01	-3.52485066427E+01	7.68314013968E+01	-1.24239699138E+00	1.70726953486E+02
2.62961000000E+07	-4.70291439177E-01	1.72921587037E+02	-3.47313087061E+01	7.63395735140E+01	-3.49319480399E+01	7.63324717811E+01	-1.24408813426E+00	1.70379552874E+02
2.72959500000E+07	-4.56925429695E-01	1.72657278909E+02	-3.45233591418E+01	7.71981665496E+01	-3.45636704144E+01	7.66036899559E+01	-1.23904547593E+00	1.69928497268E+02
2.82958000000E+07	-4.65072937495E-01	1.72401388211E+02	-3.40948303057E+01	7.73564537869E+01	-3.42489959585E+01	7.71011349238E+01	-1.24630395118E+00	1.69673424711E+02
2.92956500000E+07	-4.64939467374E-01	1.72158247689E+02	-3.38265788717E+01	7.57635823057E+01	-3.39351133311E+01	7.63617593198E+01	-1.25170936719E+00	1.69309580911E+02
3.02955000000E+07	-4.56748382713E-01	1.71924731332E+02	-3.35693344501E+01	7.71736062965E+01	-3.34794414210E+01	7.76783032860E+01	-1.22959924037E+00	1.68917106636E+02
3.12953500000E+07	-4.60378023886E-01	1.71639765968E+02	-3.31346342016E+01	7.71252085906E+01	-3.30686155272E+01	7.69770969134E+01	-1.23259911485E+00	1.68597501710E+02
3.22952000000E+07	-4.69661100313E-01	1.71431103754E+02	-3.29260434719E+01	7.62954746237E+01	-3.28506722250E+01	7.58950385383E+01	-1.25088130576E+00	1.68252038553E+02
3.32950500000E+07	-4.70986654116E-01	1.71169357689E+02	-3.27438283822E+01	7.56647073533E+01	-3.26096613474E+01	7.47614436342E+01	-1.24919618950E+00	1.67888337060E+02
3.42949000000E+07	-4.71764415578E-01	1.70894470639E+02	-3.24013559317E+01	7.57167831973E+01	-3.23718200165E+01	7.60627624566E+01	-1.24406704340E+00	1.67601984047E+02
3.52947500000E+07	-4.66184394362E-01	1.70601466049E+02	-3.21268420840E+01	7.49833887163E+01	-3.21772523696E+01	7.57339782736E+01	-1.23316311132E+00	1.67213721142E+02
3.62946000000E+07	-4.72738520763E-01	1.70272007243E+02	-3.18705326206E+01	7.46792903898E+01	-3.19145152781E+01	7.56122133901E+01	-1.24414900930E+00	1.66906083272E+02
3.72944500000E+07	-4.62741856941E-01	1.70129881428E+02	-3.16903217858E+01	7.51748199792E+01	-3.16020958107E+01	7.49010861627E+01	-1.23215351170E+00	1.66608614295E+02
3.82943000000E+07	-4.61031658979E-01	1.69814138187E+02	-3.13451894907E+01	7.44048891227E+01	-3.14739123038E+01	7.47246007250E+01	-1.24572033698E+00	1.66218741443E+02
3.92941500000E+07	-4.74600041236E-01	1.69579615827E+02	-3.12104949816E+01	7.46901685199E+01	-3.11228049620E+01	7.46850598319E+01	-1.24445611273E+00	1.65859735498E+02
4.02940000000E+07	-4.61079457756E-01	1.69298202438E+02	-3.09928750718E+01	7.46164965898E+01	-3.09327013061E+01	7.43762137240E+01	-1.23554088121E+00	1.65506383499E+02
4.12938500000E+07	-4.73495719570E-01	1.69065014670E+02	-3.07749327193E+01	7.42465201777E+01	-3.07044738895E+01	7.44052526024E+01	-1.24961698940E+00	1.65167843430E+02
4.22937000000E+07	-4.68602309627E-01	1.68750540241E+02	-3.05705603940E+01	7.32165797404E+01	-3.04840542947E+01	7.39281320407E+01	-1.23422060194E+00	1.64801320824E+02
4.32935500000E+07	-4.68393525633E-01	1.68488432088E+02	-3.03622512453E+01	7.30103087603E+01	-3.03029471470E+01	7.34968590370E+01	-1.25135202169E+00	1.64514311942E+02
4.42934000000E+07	-4.66228313078E-01	1.68266810237E+02	-3.00733590187E+01	7.33049653997E+01	-3.00877046317E+01	7.31626382111E+01	-1.24020736969E+00	1.64111011918E+02
4.52932500000E+07	-4.64835663393E-01	1.67968508095E+02	-2.99120445893E+01	7.28882625895E+01	-2.98123794580E+01	7.33177253303E+01	-1.23808862945E+00	1.63693369603E+02
4.62931000000E+07	-4.63592288527E-01	1.67735624535E+02	-2.96862288038E+01	7.29233440028E+01	-2.96775319547E+01	7.28538177028E+01	-1.24261477705E+00	1.63433454796E+02
4.72929500000E+07	-4.68600807501E-01	1.67502746694E+02	-2.95472771306E+01	7.26845982987E+01	-2.95621444827E+01	7.25168197137E+01	-1.24345293801E+00	1.63066639235E+02
4.82928000000E+07	-4.71239031064E-01	1.67182690182E+02	-2.93156950560E+01	7.19968177465E+01	-2.93631326680E+01	7.19124087609E+01	-1.25075509507E+00	1.62743378227E+02
4.92926500000E+07	-4.73156650796E-01	1.66900235932E+02	-2.91587883018E+01	7.16295410416E+01	-2.91937121760E+01	7.20401019804E+01	-1.25075237780E+00	1.62408568400E+02
5.02925000000E+07	-4.71163010071E-01	1.66690417941E+02	-2.90184346383E+01	7.15621320710E+01	-2.89962549353E+01	7.19448859559E+01	-1.24742886239E+00	1.62071744465E+02
5.12923500000E+07	-4.75119995102E-01	1.66464015201E+02	-2.88391100066E+01	7.14165586272E+01	-2.88107688685E+01	7.15989452291E+01	-1.26245892601E+00	1.61654049594E+02
5.22922000000E+07	-4.79243499097E-01	1.66114506692E+02	-2.87018987591E+01	7.10623394098E+01	-2.86034199631E+01	7.15709370477E+01	-1.26375890052E+00	1.61364226198E+02
5.32920500000E+07	-4.81097130204E-01	1.65891975435E+02	-2.85158715075E+01	7.06623942214E+01	-2.84723359606E+01	7.07721259522E+01	-1.24208910785E+00	1.61008713111E+02
5.42919000000E+07	-4.84688286304E-01	1.65588466210E+02	-2.82583926983E+01	7.00023717777E+01	-2.83257181606E+01	7.07901039828E+01	-1.24871943725E+00	1.60677954167E+02
5.52917500000E+07	-4.83035360688E-01	1.65378278497E+02	-2.81322406135E+01	6.99664820864E+01	-2.81937069381E+01	7.04221011170E+01	-1.25150128388E+00	1.60305534688E+02
5.62916000000E+07	-4.68336158944E-01	1.65075902033E+02	-2.79741830126E+01	6.95530912867E+01	-2.80071916102E+01	7.04482088342E+01	-1.24748783981E+00	1.59953193671E+02
5.72914500000E+07	-4.78742024836E-01	1.64900269598E+02	-2.78002303580E+01	6.95719240588E+01	-2.78738714189E+01	6.97128614765E+01	-1.24118927840E+00	1.59586295034E+02
5.82913000000E+07	-4.87173079496E-01	1.64586284292E+02	-2.77323304506E+01	6.93859638255E+01	-2.76800722603E+01	6.98825232675E+01	-1.25512923137E+00	1.59296702523E+02
5.92911500000E+07	-4.84300672770E-01	1.64308857253E+02	-2.75208140025E+01	6.90973964902E+01	-2.75437652193E+01	6.94014700262E+01	-1.24879383227E+00	1.58908722835E+02
6.02910000000E+07	-4.92248140517E-01	1.64007230368E+02	-2.73799148898E+01	6.88648685620E+01	-2.73470987361E+01	6.86928913583E+01	-1.24274335418E+00	1.58475529081E+02
6.12908500000E+07	-4.94597397832E-01	1.63800856776E+02	-2.72708270792E+01	6.86106342491E+01	-2.71877915851E+01	6.85031782087E+01	-1.25098778562E+00	1.58142315349E+02
6.22907000000E+07	-4.81470301747E-01	1.63524926528E+02	-2.71271174294E+01	6.83175236492E+01	-2.70661333736E+01	6.86406739355E+01	-1.25843172406E+00	1.57758494965E+02
6.32905500000E+07	-4.98178363123E-01	1.63314079557E+02	-2.69675780644E+01	6.82052475117E+01	-2.69224026502E+01	6.82581772359E+01	-1.24873422848E+00	1.57489494450E+02
6.42904000000E+07	-4.93750834619E-01	1.62986137328E+02	-2.68382991176E+01	6.78704659604E+01	-2.68184116501E+01	6.80440184247E+01	-1.25953795489E+00	1.57095217863E+02
6.52902500000E+07	-4.96704188262E-01	1.62676890807E+02	-2.66538384240E+01	6.75098819776E+01	-2.66604795388E+01	6.76465185583E+01	-1.26373506102E+00	1.56700605252E+02
6.62901000000E+07	-5.01745414884E-01	1.62528352651E+02	-2.65696942072E+01	6.77911585595E+01	-2.65094891937E+01	6.75502724648E+01	-1.25459236863E+00	1.56365208442E+02
6.72899500000E+07	-4.98143902850E-01	1.62218420601E+02	-2.63690925041E+01	6.69444279297E+01	-2.63998346554E+01	6.69663883698E+01	-1.26997626534E+00	1.56033393368E+02
6.82898000000E+07	-5.04317422418E-01	1.61984672056E+02	-2.62754450272E+01	6.65409303163E+01	-2.62475444584E+01	6.71389716768E+01	-1.26333065968E+00	1.55683345670E+02
6.92896500000E+07	-5.10674338086E-01	1.61678432396E+02	-2.61263330741E+01	6.61388637278E+01	-2.60961198616E+01	6.66865054553E+01	-1.26530775745E+00	1.55311386724E+02
7.02895000000E+07	-5.13352783498E-01	1.61412140757E+02	-2.59993706257E+01	6.63147863409E+01	-2.60231326796E+01	6.64602185403E+01	-1.26952923883E+00	1.54928197987E+02
7.12893500000E+07	-5.09699321466E-01	1.61155406301E+02	-2.58686045867E+01	6.62288530081E+01	-2.58319724119E+01	6.57805885770E+01	-1.26982723956E+00	1.54563476499E+02
7.22892000000E+07	-5.04501367089E-01	1.60869902660E+02	-2.57453878364E+01	6.55714959207E+01	-2.57435223550E+01	6.61450046142E+01	-1.26207189253E+00	1.54173979365E+02
7.32890500000E+07	-5.11948652803E-01	1.60602507192E+02	-2.56126355602E+01	6.52883305366E+01	-2.55926811743E+01	6.52755782787E+01	-1.26961540411E+00	1.53843093996E+02
7.42889000000E+07	-5.22689251217E-01	1.60372970909E+02	-2.55096063409E+01	6.50991461512E+01	-2.54971285428E+01	6.53438060171E+01	-1.27093106323E+00	1.53461105939E+02
7.52887500000E+07	-5.11674948996E-01	1.60096282047E+02	-2.53819116660E+01	6.49220563078E+01	-2.53109461046E+01	6.47546328621E+01	-1.27532344761E+00	1.53074614174E+02
7.62886000000E+07	-5.12126620180E-01	1.59843879783E+02	-2.52276872925E+01	6.46819875875E+01	-2.52285686662E+01	6.46167890109E+01	-1.27016849360E+00	1.52690155367E+02
7.72884500000E+07	-5.17271012455E-01	1.59602676997E+02	-2.51501530194E+01	6.41103993262E+01	-2.51310491242E+01	6.42324231034E+01	-1.26681518683E+00	1.52363003445E+02
7.82883000000E+07	-5.23243733276E-01	1.59329971032E+02	-2.49927916324E+01	6.36617540750E+01	-2.50122278258E+01	6.42029621242E+01	-1.27034287248E+00	1.51982057927E+02
7.92881500000E+07	-5.22554664380E-01	1.59100952141E+02	-2.49176004051E+01	6.36965947507E+01	-2.49048078721E+01	6.36775356695E+01	-1.27165367693E+00	1.51619968581E+02
8.02880000000E+07	-5.20511842924E-01	1.58833786868E+02	-2.47627260628E+01	6.33287349027E+01	-2.47682015853E+01	6.35574444893E+01	-1.26726344988E+00	1.51264420876E+02
8.12878500000E+07	-5.12649067525E-01	1.58543197180E+02	-2.46402788668E+01	6.30223518703E+01	-2.46737456136E+01	6.31038907284E+01	-1.27430672615E+00	1.50879106313E+02
8.22877000000E+07	-5.33618679732E-01	1.58326738216E+02	-2.45828003222E+01	6.29051151620E+01	-2.45822606161E+01	6.29269465230E+01	-1.28513591211E+00	1.50420335311E+02
8.32875500000E+07	-5.33859269775E-01	1.58030320792E+02	-2.44854112318E+01	6.24035552357E+01	-2.44077104206E+01	6.24244056221E+01	-1.27098392425E+00	1.50128943801E+02
8.42874000000E+07	-5.34201851640E-01	1.57713299746E+02	-2.43408045382E+01	6.21449228364E+01	-2.43090464343E+01	6.22638863984E+01	-1.26717352737E+00	1.49793286103E+02
8.52872500000E+07	-5.29541923609E-01	1.57481097793E+02	-2.42342691500E+01	6.17781987022E+01	-2.41952533909E+01	6.20585734461E+01	-1.27702721486E+00	1.49384621691E+02
8.62871000000E+07	-5.25797655597E-01	1.57197394698E+02	-2.40809593077E+01	6.15002836768E+01	-2.41150153437E+01	6.16579811341E+01	-1.27937729623E+00	1.48997248691E+02
8.72869500000E+07	-5.38610253515E-01	1.57036167597E+02	-2.40102337862E+01	6.13324587536E+01	-2.39832456496E+01	6.16651904026E+01	-1.27642531970E+00	1.48657187081E+02
8.82868000000E+07	-5.30681243410E-01	1.56769771035E+02	-2.38907378487E+01	6.10846872438E+01	-2.38412275546E+01	6.11979763732E+01	-1.28551608182E+00	1.48228603053E+02
8.92866500000E+07	-5.43783387161E-01	1.56445955623E+02	-2.38305074082E+01	6.06803078327E+01	-2.37915109341E+01	6.08239317579E+01	-1.27655438939E+00	1.47913897033E+02
9.02865000000E+07	-5.32621369786E-01	1.56167365843E+02	-2.36823700591E+01	6.05868328879E+01	-2.36333468582E+01	6.06884492531E+01	-1.26959015644E+00	1.47521551813E+02
9.12863500000E+07	-5.48539463428E-01	1.55956572981E+02	-2.36043861738E+01	6.03627550892E+01	-2.35588919024E+01	6.03451896558E+01	-1.27633078033E+00	1.47141231473E+02
9.22862000000E+07	-5.38109838489E-01	1.55651643846E+02	-2.34939350727E+01	6.00658474088E+01	-2.34252581073E+01	6.01459359497E+01	-1.27607766647E+00	1.46732537437E+02
9.32860500000E+07	-5.42190453699E-01	1.55419329678E+02	-2.33706811533E+01	5.96514714515E+01	-2.33551901650E+01	5.98077144994E+01	-1.28676543372E+00	1.46386482638E+02
9.42859000000E+07	-5.47812016207E-01	1.55102031210E+02	-2.32917103353E+01	5.93863583092E+01	-2.32246729000E+01	5.96472741070E+01	-1.27313099583E+00	1.46035666639E+02
9.52857500000E+07	-5.51576098141E-01	1.54892454379E+02	-2.31491835053E+01	5.91575943503E+01	-2.31460602555E+01	5.92427555656E+01	-1.27499154428E+00	1.45628520026E+02
9.62856000000E+07	-5.56675704548E-01	1.54662556337E+02	-2.30660608268E+01	5.86703379407E+01	-2.30452630924E+01	5.89618020721E+01	-1.28558629495E+00	1.45251467837E+02
9.72854500000E+07	-5.46198399163E-01	1.54361020355E+02	-2.29326291313E+01	5.85684681556E+01	-2.29607304889E+01	5.86404924014E+01	-1.26889300216E+00	1.44824182817E+02
9.82853000000E+07	-5.53296011966E-01	1.54067439711E+02	-2.28290342781E+01	5.83481594913E+01	-2.28869308567E+01	5.82577317913E+01	-1.29196342441E+00	1.44527402391E+02
9.92851500000E+07	-5.49419455062E-01	1.53777717873E+02	-2.27347925448E+01	5.80816171962E+01	-2.27279432274E+01	5.80749581790E+01	-1.27714519733E+00	1.44087886861E+02
1.00285000000E+08	-5.48772910228E-01	1.53526505174E+02	-2.26473638641E+01	5.75771660890E+01	-2.26169922538E+01	5.77214005827E+01	-1.27509584460E+00	1.43760646321E+02
1.01284850000E+08	-5.54236267886E-01	1.53263459295E+02	-2.25734974363E+01	5.72654855731E+01	-2.25421742611E+01	5.77690933654E+01	-1.28430604310E+00	1.43410710938E+02
1.02284700000E+08	-5.55488751566E-01	1.53099978526E+02	-2.24412445790E+01	5.69865656203E+01	-2.24068084236E+01	5.70918123846E+01	-1.26296711440E+00	1.43140096647E+02
1.03284550000E+08	-5.47032647942E-01	1.52815549815E+02	-2.23201457097E+01	5.70886985012E+01	-2.23585809650E+01	5.70298712356E+01	-1.27406511318E+00	1.42648066071E+02
1.04284400000E+08	-5.65632787554E-01	1.52549619118E+02	-2.22529547868E+01	5.66624687018E+01	-2.22163797632E+01	5.69070792248E+01	-1.28032594524E+00	1.42327452251E+02
1.05284250000E+08	-5.57682057454E-01	1.52287941214E+02	-2.21160457350E+01	5.60293152628E+01	-2.21348220550E+01	5.62829315545E+01	-1.27506751335E+00	1.41942623427E+02
1.06284100000E+08	-5.49757305883E-01	1.52024950488E+02	-2.20201917589E+01	5.59632912771E+01	-2.20232179080E+01	5.62711224034E+01	-1.26585486698E+00	1.41658866662E+02
1.07283950000E+08	-5.64202531790E-01	1.51745259172E+02	-2.19271937178E+01	5.56856449797E+01	-2.19112794945E+01	5.59532052428E+01	-1.26568842984E+00	1.41276992843E+02
1.08283800000E+08	-5.54802747390E-01	1.51428947895E+02	-2.17699131543E+01	5.54149111375E+01	-2.17746653094E+01	5.53551213163E+01	-1.25592457891E+00	1.40885712636E+02
1.09283650000E+08	-5.61457989887E-01	1.51189827075E+02	-2.16983864255E+01	5.50587873128E+01	-2.16446512472E+01	5.53510646240E+01	-1.25711349921E+00	1.40568548881E+02
1.10283500000E+08	-5.53410445886E-01	1.50949413223E+02	-2.15306483325E+01	5.48664708480E+01	-2.15178420770E+01	5.49522488466E+01	-1.25500039042E+00	1.40226066908E+02
1.11283350000E+08	-5.63126862707E-01	1.50678640116E+02	-2.13902143345E+01	5.43783472662E+01	-2.13623486856E+01	5.47215997627E+01	-1.24004623291E+00	1.39892178131E+02
1.12283200000E+08	-5.67321577782E-01	1.50440720408E+02	-2.12178474479E+01	5.42989216950E+01	-2.11853080496E+01	5.41943558807E+01	-1.23288928960E+00	1.39759994639E+02
1.13283050000E+08	-5.59299446064E-01	1.50094252321E+02	-2.10047305069E+01	5.34965715217E+01	-2.09641994515E+01	5.37640618861E+01	-1.21360397652E+00	1.39529729736E+02
1.14282900000E+08	-5.57067258144E-01	1.49909090409E+02	-2.06850868075E+01	5.26168841421E+01	-2.06884867081E+01	5.28271908415E+01	-1.17911924456E+00	1.39359148424E+02
1.15282750000E+08	-5.53357565630E-01	1.49813490433E+02	-2.02704788185E+01	4.98482690559E+01	-2.02090629179E+01	5.00003251935E+01	-1.05603124577E+00	1.39438691796E+02
1.16282600000E+08	-4.95235717389E-01	1.49553672693E+02	-2.02964965761E+01	4.14424451062E+01	-2.02918613256E+01	4.15352537307E+01	-7.86245592426E-01	1.38052328988E+02
1.17282450000E+08	-5.00571716766E-01	1.48878357438E+02	-2.18266453518E+01	4.19978000077E+01	-2.18001021667E+01	4.21605373799E+01	-9.53259559925E-01	1.35600365375E+02
1.18282300000E+08	-5.20320053153E-01	1.48503021314E+02	-2.18562217542E+01	4.70796988532E+01	-2.18583674250E+01	4.74122454613E+01	-1.11874909293E+00	1.35337714448E+02
