# Hz S DB R 50
! CMT, M5065, 19127446, 23.4.5/2
! Date: 23/9/2024 23:58:13
! Data: Format (Calibration Info)
! Freq	S11:dB/Ang(F2)	S21:dB/Ang(F2)	S12:dB/Ang(F2)	S22:dB/Ang(F2)
3.00000000000E+05	-2.93929203271E-01	1.79209865272E+02	-7.00169286069E+01	4.61609593288E+01	-6.85321311115E+01	7.23123349945E+01	2.26903151594E-02	-1.15233784915E+00
1.29985000000E+06	-3.61970831466E-01	1.79375637862E+02	-7.07397775396E+01	4.43154903147E+00	-5.69657876287E+01	-1.06439221351E+01	-1.70947995544E-02	-4.89273005645E+00
2.29970000000E+06	-3.64950526001E-01	1.79026759093E+02	-7.10214026614E+01	1.51479033128E+01	-4.98525728884E+01	1.33959004154E+02	-1.01604819463E-01	-8.53159534550E+00
3.29955000000E+06	-3.77568619351E-01	1.78792630877E+02	-6.45845629885E+01	1.39473180762E+02	-5.57994699968E+01	1.33429728933E+02	-2.12593701665E-01	-1.22181750263E+01
4.29940000000E+06	-4.02109484862E-01	1.78644442768E+02	-6.91335529422E+01	4.52800489453E+01	-5.12201610495E+01	-1.31965910906E+02	-3.50884562270E-01	-1.55608128879E+01
5.29925000000E+06	-4.16404314764E-01	1.78464004447E+02	-6.73614166786E+01	-1.47030490557E+01	-5.83507245848E+01	6.27413638823E+01	-5.20505335071E-01	-1.87092186404E+01
6.29910000000E+06	-4.45248043520E-01	1.78243528968E+02	-7.35935499428E+01	4.90212817816E+01	-6.87080492909E+01	-1.02410010809E+02	-7.09106361054E-01	-2.17888494927E+01
7.29895000000E+06	-4.54474928984E-01	1.78156316342E+02	-6.92222851262E+01	-3.09415507140E+00	-6.09328452693E+01	-3.68592965345E+01	-9.05184944769E-01	-2.47604945491E+01
8.29880000000E+06	-4.19917067709E-01	1.77985366818E+02	-8.69266664652E+01	-1.46094559193E+02	-5.67864133804E+01	-3.02059343129E+01	-1.10680235974E+00	-2.74463827058E+01
9.29865000000E+06	-4.22036745386E-01	1.77809668300E+02	-6.27634108808E+01	-1.10533338874E+01	-6.26664183311E+01	1.06564725702E+02	-1.31238546884E+00	-3.00595106821E+01
1.02985000000E+07	-4.08006358708E-01	1.77688254386E+02	-8.08784949520E+01	-9.69486177460E+01	-6.12238316046E+01	-1.76528057268E+02	-1.53633482491E+00	-3.25455315608E+01
1.12983500000E+07	-3.96031031374E-01	1.77163033834E+02	-6.36147737837E+01	1.39465279512E+02	-6.64986783080E+01	5.62658811609E+01	-1.75929831649E+00	-3.49431737204E+01
1.22982000000E+07	-3.84390017089E-01	1.77134561752E+02	-6.67921769801E+01	-1.26446003538E+02	-5.72231431695E+01	-1.39243749730E+02	-1.98439993228E+00	-3.72844807750E+01
1.32980500000E+07	-3.88072789683E-01	1.76518854879E+02	-6.36493520432E+01	-6.33556690644E+01	-7.01239487086E+01	-1.61401718923E+02	-2.20783830146E+00	-3.97539237099E+01
1.42979000000E+07	-3.87390900857E-01	1.76221078043E+02	-6.81971076892E+01	-2.02009164288E+01	-6.07488911644E+01	-5.04954619325E+01	-2.44819184443E+00	-4.17993070829E+01
1.52977500000E+07	-3.84958190645E-01	1.75884716845E+02	-7.20460265973E+01	-8.54208824559E+00	-6.85130773477E+01	1.31350360953E+01	-2.67437526368E+00	-4.38184424278E+01
1.62976000000E+07	-3.93988422628E-01	1.75611559777E+02	-8.06972578737E+01	-1.64518127567E+02	-7.16329058149E+01	-8.51350986229E+01	-2.91240567289E+00	-4.56244764598E+01
1.72974500000E+07	-3.80470781710E-01	1.75328880765E+02	-6.37913159038E+01	-7.37116603604E+01	-7.45737321547E+01	-5.98885911419E+01	-3.13888446533E+00	-4.74683961171E+01
1.82973000000E+07	-3.77076488650E-01	1.75015471133E+02	-6.90318715251E+01	-1.15948964322E+02	-7.70900435670E+01	-1.44157056824E+01	-3.33706964119E+00	-4.91289106794E+01
1.92971500000E+07	-3.84568606099E-01	1.74750832620E+02	-7.06285450391E+01	-1.14890559124E+02	-7.70857390582E+01	1.94758360309E+00	-3.56956604296E+00	-5.07460006720E+01
2.02970000000E+07	-3.87906709842E-01	1.74473470379E+02	-6.87440547947E+01	-1.04592795272E+02	-8.08450817166E+01	1.41845073124E+02	-3.78222611759E+00	-5.22891607772E+01
2.12968500000E+07	-3.84359149572E-01	1.74177169022E+02	-6.95304286189E+01	-1.31864082236E+02	-7.34410616377E+01	-1.62037771445E+02	-3.98498802734E+00	-5.38356733675E+01
2.22967000000E+07	-3.72018423177E-01	1.73942324005E+02	-6.38559461825E+01	-1.33581975514E+02	-7.74697788476E+01	-1.70505376524E+01	-4.20096644023E+00	-5.52457465033E+01
2.32965500000E+07	-3.73546208557E-01	1.73721896343E+02	-6.22469380085E+01	-9.10747664720E+01	-7.61926586699E+01	-6.26498004835E+00	-4.40368842691E+00	-5.66252074923E+01
2.42964000000E+07	-3.76936537692E-01	1.73398636750E+02	-6.48443265901E+01	-1.50815353394E+02	-8.30226118869E+01	1.57409225765E+02	-4.59184857375E+00	-5.80352451180E+01
2.52962500000E+07	-3.89695356924E-01	1.73114272288E+02	-6.35021209192E+01	-1.06909254782E+02	-7.60471099634E+01	-1.41650859418E+02	-4.79150166351E+00	-5.92570010272E+01
2.62961000000E+07	-3.93368314271E-01	1.72842152336E+02	-6.26879768126E+01	-1.15274776262E+02	-8.20979809051E+01	-1.11010227317E+01	-4.98683300008E+00	-6.06041955412E+01
2.72959500000E+07	-3.92581639799E-01	1.72616900319E+02	-6.17017565018E+01	-1.02361923962E+02	-8.04668702703E+01	-1.01271887147E+02	-5.16757088939E+00	-6.17595330520E+01
2.82958000000E+07	-3.78919472859E-01	1.72327940987E+02	-5.95493847783E+01	-1.30470803692E+02	-7.98947173314E+01	1.71516843042E+02	-5.34808749627E+00	-6.29035491187E+01
2.92956500000E+07	-3.93210505925E-01	1.72113975913E+02	-5.82860255213E+01	-1.24297033986E+02	-7.87603033516E+01	-1.12392172991E+01	-5.51763328561E+00	-6.40552176942E+01
3.02955000000E+07	-3.78821269542E-01	1.71868108382E+02	-5.86225562944E+01	-1.33298027666E+02	-7.25928027595E+01	-6.11218497146E+01	-5.70195861991E+00	-6.51662993805E+01
3.12953500000E+07	-3.76971058727E-01	1.71575817021E+02	-5.62352620530E+01	-1.30077593719E+02	-7.32311907875E+01	-1.22379105571E+02	-5.87050711400E+00	-6.62733998600E+01
3.22952000000E+07	-3.81711408121E-01	1.71267754963E+02	-5.68118166272E+01	-1.33880049720E+02	-7.06541952688E+01	6.10053436405E+01	-6.04492906312E+00	-6.72508104060E+01
3.32950500000E+07	-3.75817194461E-01	1.70990559757E+02	-5.61598544622E+01	-1.26331187691E+02	-8.25237297507E+01	-9.50528463183E+00	-6.20570865211E+00	-6.82628185044E+01
3.42949000000E+07	-3.73435081773E-01	1.70808264076E+02	-5.55522571016E+01	-1.39775965362E+02	-7.25942768085E+01	2.81601309330E+01	-6.36775476587E+00	-6.92913175513E+01
3.52947500000E+07	-3.81378731281E-01	1.70484418671E+02	-5.48933493164E+01	-1.43573108577E+02	-7.15118898363E+01	-1.57575337117E+02	-6.51536901992E+00	-7.03229423465E+01
3.62946000000E+07	-3.85937461991E-01	1.70236838313E+02	-5.38657313728E+01	-1.41066021969E+02	-7.56552970847E+01	3.30436477290E+01	-6.67878532443E+00	-7.12195338944E+01
3.72944500000E+07	-3.78760406622E-01	1.70057629333E+02	-5.37685288041E+01	-1.45946773567E+02	-7.46797578346E+01	-4.77609860961E+01	-6.82506816747E+00	-7.21306311952E+01
3.82943000000E+07	-3.78260730990E-01	1.69777286231E+02	-5.35074562459E+01	-1.41034472309E+02	-7.43632250213E+01	8.09371723021E+01	-6.96271599491E+00	-7.29928875860E+01
3.92941500000E+07	-3.79918013401E-01	1.69466599439E+02	-5.18637139375E+01	-1.48819214277E+02	-7.34760007173E+01	-1.57253056350E+02	-7.11449809010E+00	-7.38936262244E+01
4.02940000000E+07	-3.82537250963E-01	1.69150363228E+02	-5.19470592706E+01	-1.45990043514E+02	-7.95593067166E+01	3.90414736665E+01	-7.26409204126E+00	-7.47090999609E+01
4.12938500000E+07	-3.69596015357E-01	1.68938767256E+02	-5.07746591186E+01	-1.52927401501E+02	-7.32135618132E+01	-1.68111013171E+02	-7.39887664608E+00	-7.55881283989E+01
4.22937000000E+07	-3.83645627126E-01	1.68655332411E+02	-5.08632050964E+01	-1.52077608282E+02	-8.25281923216E+01	-8.63970145639E+01	-7.52040382988E+00	-7.63659516119E+01
4.32935500000E+07	-3.85541066324E-01	1.68471949663E+02	-5.00881729421E+01	-1.51325268049E+02	-7.14376874392E+01	1.56429685233E+01	-7.66145086588E+00	-7.71446409852E+01
4.42934000000E+07	-3.83345584478E-01	1.68155595938E+02	-4.99172020814E+01	-1.55951753458E+02	-7.84861282137E+01	1.50245420964E+02	-7.79029919108E+00	-7.79737861108E+01
4.52932500000E+07	-3.78854148023E-01	1.67887465890E+02	-4.98391332274E+01	-1.53254490011E+02	-6.65414538897E+01	-9.65250950539E+01	-7.91556003600E+00	-7.87739463248E+01
4.62931000000E+07	-3.82422211629E-01	1.67668361729E+02	-4.88355803365E+01	-1.57677395093E+02	-8.47618529440E+01	4.37606294550E+01	-8.03340977586E+00	-7.94738648888E+01
4.72929500000E+07	-3.82985209599E-01	1.67425346095E+02	-4.91864502157E+01	-1.58066115791E+02	-7.77143301515E+01	-1.34472765164E+02	-8.17572627296E+00	-8.02353376683E+01
4.82928000000E+07	-3.84157461143E-01	1.67098717486E+02	-4.81282569636E+01	-1.59067996833E+02	-7.75333649592E+01	1.17108316562E+02	-8.30051415044E+00	-8.09688088360E+01
4.92926500000E+07	-3.85140211952E-01	1.66882971614E+02	-4.75108887701E+01	-1.59144987990E+02	-7.53751461301E+01	2.31909439386E+00	-8.39864498005E+00	-8.15109423269E+01
5.02925000000E+07	-3.92180211458E-01	1.66590415955E+02	-4.71497592238E+01	-1.56464759075E+02	-8.40294951782E+01	1.16180754909E+02	-8.51771654559E+00	-8.22612042963E+01
5.12923500000E+07	-3.86536939167E-01	1.66335150912E+02	-4.68486943005E+01	-1.61404768975E+02	-7.59508637243E+01	-1.14194624245E+02	-8.63846940282E+00	-8.29263502408E+01
5.22922000000E+07	-3.82110962759E-01	1.66088568559E+02	-4.62013673909E+01	-1.58817771979E+02	-7.33605758697E+01	1.40189845092E+02	-8.73867726527E+00	-8.34044605852E+01
5.32920500000E+07	-3.93160976829E-01	1.65791259537E+02	-4.56884946156E+01	-1.63221486765E+02	-8.30055205397E+01	-3.69882763099E+01	-8.85769391377E+00	-8.40915990236E+01
5.42919000000E+07	-3.93058210051E-01	1.65575934581E+02	-4.61970870025E+01	-1.60737815941E+02	-8.05306174212E+01	-1.10077868146E+02	-8.95752955576E+00	-8.47934262401E+01
5.52917500000E+07	-3.91972213685E-01	1.65316709441E+02	-4.51301850672E+01	-1.64858355799E+02	-6.91755936638E+01	1.42853493103E+01	-9.06516675257E+00	-8.53112444848E+01
5.62916000000E+07	-3.98149206098E-01	1.64994520301E+02	-4.49500800033E+01	-1.65365627063E+02	-7.77206999650E+01	-1.91797015362E+01	-9.16349094888E+00	-8.59359713789E+01
5.72914500000E+07	-4.05773879154E-01	1.64733695155E+02	-4.48215257014E+01	-1.66704041869E+02	-7.45713692595E+01	-5.95112814029E+01	-9.25678650182E+00	-8.64447354767E+01
5.82913000000E+07	-4.01018261159E-01	1.64453678360E+02	-4.42858134718E+01	-1.67201415120E+02	-6.89526004595E+01	-1.16113269234E+02	-9.36977843659E+00	-8.70440851890E+01
5.92911500000E+07	-4.01682914925E-01	1.64205476858E+02	-4.42184890944E+01	-1.68559804175E+02	-7.96667481006E+01	-3.86290335886E+01	-9.48450202348E+00	-8.75961191701E+01
6.02910000000E+07	-4.06583329339E-01	1.64011154044E+02	-4.37908703750E+01	-1.68929404477E+02	-7.41263634057E+01	4.01712398609E+01	-9.55878292716E+00	-8.81134275027E+01
6.12908500000E+07	-4.07355358085E-01	1.63695573616E+02	-4.31956081047E+01	-1.71024480710E+02	-7.80144524026E+01	9.98103110553E+01	-9.66002547274E+00	-8.86449330556E+01
6.22907000000E+07	-4.09348289033E-01	1.63455141340E+02	-4.29712595402E+01	-1.72131474936E+02	-7.78345577012E+01	-1.35937739232E+02	-9.74007321766E+00	-8.91754849206E+01
6.32905500000E+07	-4.00260054193E-01	1.63165870120E+02	-4.24966798800E+01	-1.73089777266E+02	-7.43767107102E+01	-1.76677079768E+02	-9.84719548590E+00	-8.95845622700E+01
6.42904000000E+07	-4.11712448214E-01	1.62961252003E+02	-4.24988852962E+01	-1.72153466253E+02	-7.22260058494E+01	3.86053839269E+01	-9.92827192003E+00	-9.01821038755E+01
6.52902500000E+07	-4.15157651871E-01	1.62613734461E+02	-4.17098085799E+01	-1.73435460728E+02	-7.35044437538E+01	1.02866054325E+02	-1.00135627996E+01	-9.05679107271E+01
6.62901000000E+07	-4.06507403200E-01	1.62342189238E+02	-4.18564098710E+01	-1.74451293516E+02	-7.57081218957E+01	3.60693054483E+01	-1.01198724523E+01	-9.10441725834E+01
6.72899500000E+07	-4.20776564310E-01	1.62102892105E+02	-4.15394654866E+01	-1.75320884733E+02	-7.80445083836E+01	5.59045321435E+01	-1.01912010105E+01	-9.15153983553E+01
6.82898000000E+07	-4.17647648361E-01	1.61836847421E+02	-4.10359899320E+01	-1.75900600910E+02	-7.07845600828E+01	-9.18631505728E+01	-1.02903793791E+01	-9.17861533183E+01
6.92896500000E+07	-4.15535330867E-01	1.61528120048E+02	-4.10824787560E+01	-1.77200099873E+02	-7.05103446854E+01	9.23404482845E+01	-1.03802104250E+01	-9.23289597700E+01
7.02895000000E+07	-4.19141743979E-01	1.61323164712E+02	-4.05462723860E+01	-1.77278976540E+02	-7.14099001612E+01	-4.00876648493E+01	-1.04429846665E+01	-9.26810270361E+01
7.12893500000E+07	-4.32617888230E-01	1.61079009693E+02	-4.02600815619E+01	-1.77559409728E+02	-8.65114587688E+01	-1.52935674196E+02	-1.05356826303E+01	-9.32260317307E+01
7.22892000000E+07	-4.25027704577E-01	1.60805332155E+02	-4.01177738472E+01	-1.78873862001E+02	-8.10459285258E+01	1.10742372060E+02	-1.06060462294E+01	-9.35717137173E+01
7.32890500000E+07	-4.37756032448E-01	1.60419889622E+02	-3.99864286902E+01	1.79462985861E+02	-8.20233585908E+01	-5.17087496121E+01	-1.06927324859E+01	-9.39375305902E+01
7.42889000000E+07	-4.46064477480E-01	1.60241268904E+02	-3.95563264616E+01	1.79871377568E+02	-7.41437287036E+01	1.30400530398E+02	-1.07695041353E+01	-9.44024796883E+01
7.52887500000E+07	-4.43165389990E-01	1.59894026438E+02	-3.95857147898E+01	1.78006565937E+02	-9.44106208834E+01	5.06396864935E+01	-1.08524367276E+01	-9.46748984422E+01
7.62886000000E+07	-4.47112830788E-01	1.59632263751E+02	-3.91038423829E+01	1.78091092831E+02	-7.87471420716E+01	9.16961368851E+01	-1.09201998482E+01	-9.51116606023E+01
7.72884500000E+07	-4.53328761986E-01	1.59389657104E+02	-3.88339662526E+01	1.76082665990E+02	-6.99613310202E+01	1.00923379080E+02	-1.10112734921E+01	-9.54421543670E+01
7.82883000000E+07	-4.42739468191E-01	1.59120971981E+02	-3.85971422970E+01	1.74332657678E+02	-7.15238800053E+01	-1.35537913156E+02	-1.10705459891E+01	-9.57649391288E+01
7.92881500000E+07	-4.53495006552E-01	1.58823145592E+02	-3.85011973718E+01	1.74958186738E+02	-7.69875027440E+01	-1.17705583501E+02	-1.11630443080E+01	-9.62099268406E+01
8.02880000000E+07	-4.52830234805E-01	1.58577475029E+02	-3.81168352803E+01	1.74681111238E+02	-7.55065042345E+01	1.64051826374E+02	-1.12394420639E+01	-9.64819239335E+01
8.12878500000E+07	-4.56807214004E-01	1.58273593294E+02	-3.78525567100E+01	1.74012549827E+02	-7.65699193947E+01	6.54318812660E+00	-1.13184300171E+01	-9.67212826429E+01
8.22877000000E+07	-4.60379696770E-01	1.58047720404E+02	-3.76399752040E+01	1.72899502172E+02	-7.45264696604E+01	1.00394669927E+02	-1.13890807185E+01	-9.70958885596E+01
8.32875500000E+07	-4.64540674225E-01	1.57735540061E+02	-3.75302842809E+01	1.72554959973E+02	-7.37057317151E+01	1.97523785050E+01	-1.14682139450E+01	-9.74281265072E+01
8.42874000000E+07	-4.63474643126E-01	1.57494833168E+02	-3.73094987911E+01	1.71767014772E+02	-8.23346448799E+01	-1.35345112837E+02	-1.15441103354E+01	-9.77480480414E+01
8.52872500000E+07	-4.77943289397E-01	1.57160101348E+02	-3.70468480996E+01	1.69686923500E+02	-8.18028218709E+01	-7.63757795847E+01	-1.16117025491E+01	-9.80643718532E+01
8.62871000000E+07	-4.73766840278E-01	1.57040254501E+02	-3.69549158065E+01	1.70010242567E+02	-8.51848864528E+01	1.34279492878E+02	-1.16976864358E+01	-9.83167109131E+01
8.72869500000E+07	-4.77688371607E-01	1.56690721958E+02	-3.65455271387E+01	1.69931223137E+02	-7.54869841486E+01	-1.29433192051E+02	-1.17720537046E+01	-9.84695340051E+01
8.82868000000E+07	-4.82416297276E-01	1.56417919850E+02	-3.63758673416E+01	1.68734229900E+02	-9.19402377429E+01	-1.73169905077E+02	-1.18331951912E+01	-9.88610035162E+01
8.92866500000E+07	-4.83518004390E-01	1.56124034656E+02	-3.62756471985E+01	1.68345577981E+02	-7.74066718901E+01	1.54455633658E+02	-1.19130566100E+01	-9.91621593459E+01
9.02865000000E+07	-4.74561786567E-01	1.55950115029E+02	-3.60479865355E+01	1.67771759421E+02	-8.47951979894E+01	6.62589487443E+01	-1.19792494588E+01	-9.92773121535E+01
9.12863500000E+07	-4.81941667121E-01	1.55602812734E+02	-3.58651977025E+01	1.66267655952E+02	-8.00062594900E+01	-1.44598333281E+02	-1.20659631095E+01	-9.96563697099E+01
9.22862000000E+07	-4.85439509889E-01	1.55435155237E+02	-3.56713512635E+01	1.66377289019E+02	-8.57260185556E+01	-6.53309884748E+01	-1.21219764660E+01	-9.98916608417E+01
9.32860500000E+07	-4.93703177121E-01	1.55041405647E+02	-3.53015644352E+01	1.65665657054E+02	-7.65773816422E+01	8.24384559487E+01	-1.22049749050E+01	-1.00183475663E+02
9.42859000000E+07	-4.94419158540E-01	1.54795660044E+02	-3.52167524065E+01	1.65130817527E+02	-7.25563658177E+01	1.34994951020E+02	-1.22642409945E+01	-1.00463816813E+02
9.52857500000E+07	-4.97093024260E-01	1.54589608654E+02	-3.51843002002E+01	1.64883025465E+02	-7.85288409486E+01	-1.60356849729E+02	-1.23399096498E+01	-1.00772896882E+02
9.62856000000E+07	-4.94217944445E-01	1.54256981163E+02	-3.49190256910E+01	1.63820712437E+02	-7.25812578201E+01	1.02974399570E+02	-1.24150780646E+01	-1.00979679912E+02
9.72854500000E+07	-4.96192232883E-01	1.53980924856E+02	-3.45932153096E+01	1.63297907843E+02	-7.10565043203E+01	3.52795178774E+01	-1.24869998170E+01	-1.01196209191E+02
9.82853000000E+07	-5.03353071571E-01	1.53736787649E+02	-3.44450661300E+01	1.61760472346E+02	-7.66950651161E+01	3.10757055816E+01	-1.25379070786E+01	-1.01483982648E+02
9.92851500000E+07	-5.06747168429E-01	1.53414672862E+02	-3.41412184807E+01	1.62225514097E+02	-8.07283766996E+01	-1.60056668935E+02	-1.26234197909E+01	-1.01771993672E+02
1.00285000000E+08	-5.01071874125E-01	1.53111655670E+02	-3.39918261022E+01	1.62478199730E+02	-8.52807172287E+01	1.58166272912E+02	-1.26754195970E+01	-1.02070200289E+02
1.01284850000E+08	-5.03358888189E-01	1.52914143014E+02	-3.38895586074E+01	1.60611198562E+02	-7.23843639317E+01	-4.43614229364E+01	-1.27578328910E+01	-1.02315666888E+02
1.02284700000E+08	-5.00875173093E-01	1.52636374393E+02	-3.35929483253E+01	1.59713831247E+02	-8.18638777955E+01	-1.33005823743E+02	-1.28119251893E+01	-1.02569646322E+02
1.03284550000E+08	-4.94797894503E-01	1.52396656216E+02	-3.33162905477E+01	1.59742824816E+02	-7.57472016259E+01	1.08101693121E+02	-1.28804852306E+01	-1.02878408355E+02
1.04284400000E+08	-5.08908458355E-01	1.52107273127E+02	-3.32305048657E+01	1.58387366879E+02	-7.48997603350E+01	-8.89241972711E+01	-1.29432074493E+01	-1.03091758543E+02
1.05284250000E+08	-5.08982569220E-01	1.51883658351E+02	-3.30766829930E+01	1.57567348048E+02	-7.26647383968E+01	-1.16582345308E+02	-1.29979128039E+01	-1.03355378004E+02
1.06284100000E+08	-5.02284786286E-01	1.51528468214E+02	-3.27981163226E+01	1.57421811494E+02	-6.96217340052E+01	-1.99262528836E+01	-1.30834121288E+01	-1.03477998976E+02
1.07283950000E+08	-5.12949271218E-01	1.51246684559E+02	-3.26472258770E+01	1.56483676970E+02	-8.29005189234E+01	-1.10663150979E+02	-1.31363871409E+01	-1.03779370377E+02
1.08283800000E+08	-5.10585869531E-01	1.50977690753E+02	-3.24988776505E+01	1.57245098380E+02	-6.97142668559E+01	-7.99664140699E+01	-1.32112798331E+01	-1.04112308817E+02
1.09283650000E+08	-5.08870750300E-01	1.50752420316E+02	-3.23913097553E+01	1.55880468057E+02	-6.90091359775E+01	-1.64095066756E+02	-1.32823019727E+01	-1.04291547571E+02
1.10283500000E+08	-5.07745464816E-01	1.50446002522E+02	-3.22459048677E+01	1.55184686377E+02	-7.35311832113E+01	-3.16644320007E+01	-1.33202333212E+01	-1.04521774063E+02
1.11283350000E+08	-5.13301058750E-01	1.50288481940E+02	-3.19745030384E+01	1.55551750249E+02	-7.30123602270E+01	-9.26339419195E+01	-1.33838099671E+01	-1.04888050453E+02
1.12283200000E+08	-5.13427783883E-01	1.49958512572E+02	-3.18216276934E+01	1.54838329772E+02	-7.12576347978E+01	-5.20629533604E+01	-1.34487405668E+01	-1.05191495557E+02
1.13283050000E+08	-5.12599409476E-01	1.49689314587E+02	-3.17061331609E+01	1.54023024978E+02	-8.17935822529E+01	1.67845882934E+01	-1.35120198259E+01	-1.05501053803E+02
1.14282900000E+08	-5.08034973633E-01	1.49386738864E+02	-3.14563167805E+01	1.53494466538E+02	-7.49015314606E+01	-1.03802601784E+02	-1.35681280225E+01	-1.05626550880E+02
1.15282750000E+08	-5.07970095521E-01	1.49027703054E+02	-3.12956051855E+01	1.52716356807E+02	-8.62456502187E+01	1.48626685385E+02	-1.36197826088E+01	-1.06000320895E+02
1.16282600000E+08	-5.07856659974E-01	1.48782132401E+02	-3.10553229522E+01	1.52354782614E+02	-7.40576818408E+01	1.04097483371E+01	-1.36764785959E+01	-1.06186072465E+02
