! Infineon Technologies  Discrete & RF Semiconductors
! BFP193W
! VCE = 10.0V,  IC =  15 mA
! Common Emitter S-Parameters:                            Jan 2016
# GHz  S  MA  R  50
!  f         S11            S21            S12            S22
! GHz     MAG   ANG      MAG   ANG      MAG   ANG      MAG   ANG
 0.010  0.6980   -8.4  35.514  174.1  0.0032   77.6  0.9509   -3.8
 0.015  0.6975  -13.0  35.387  172.4  0.0049   77.3  0.9443   -6.6
 0.020  0.7016  -17.6  35.294  170.6  0.0067   77.1  0.9400   -9.4
 0.025  0.6965  -21.8  35.034  168.5  0.0082   76.5  0.9314  -11.6
 0.030  0.6952  -26.1  34.824  166.3  0.0098   76.1  0.9242  -13.8
 0.035  0.6891  -30.2  34.392  164.3  0.0113   73.6  0.9127  -15.9
 0.040  0.6866  -34.3  34.005  162.2  0.0127   71.6  0.9024  -18.1
 0.045  0.6876  -38.4  33.663  160.1  0.0142   70.1  0.8935  -20.3
 0.050  0.6922  -42.5  33.369  157.9  0.0157   68.8  0.8859  -22.5
 0.055  0.6818  -45.7  32.754  156.4  0.0167   66.8  0.8698  -24.0
 0.060  0.6736  -49.0  32.162  154.9  0.0178   65.1  0.8544  -25.6
 0.065  0.6677  -52.4  31.593  153.3  0.0189   63.5  0.8396  -27.2
 0.070  0.6641  -55.8  31.050  151.7  0.0199   62.1  0.8255  -28.8
 0.075  0.6629  -59.2  30.532  150.0  0.0210   60.9  0.8121  -30.6
 0.080  0.6640  -62.6  30.042  148.2  0.0221   59.7  0.7995  -32.3
 0.085  0.6676  -66.0  29.581  146.4  0.0232   58.7  0.7876  -34.2
 0.090  0.6734  -69.4  29.150  144.6  0.0244   57.8  0.7766  -36.1
 0.095  0.6816  -72.7  28.751  142.7  0.0255   57.0  0.7665  -38.0
 0.100  0.6919  -75.9  28.385  140.7  0.0266   56.2  0.7573  -40.0
 0.105  0.6859  -78.3  27.847  139.6  0.0273   55.1  0.7430  -41.1
 0.110  0.6811  -80.7  27.319  138.5  0.0279   54.0  0.7290  -42.2
 0.115  0.6776  -83.1  26.803  137.3  0.0286   53.0  0.7154  -43.4
 0.120  0.6753  -85.6  26.297  136.1  0.0293   52.1  0.7020  -44.7
 0.125  0.6742  -88.1  25.805  134.9  0.0300   51.2  0.6890  -45.9
 0.130  0.6744  -90.5  25.325  133.5  0.0307   50.3  0.6763  -47.3
 0.135  0.6759  -93.0  24.858  132.2  0.0314   49.5  0.6640  -48.7
 0.140  0.6786  -95.5  24.407  130.8  0.0321   48.7  0.6521  -50.1
 0.145  0.6825  -97.9  23.970  129.3  0.0328   47.9  0.6406  -51.6
 0.150  0.6877 -100.3  23.550  127.8  0.0335   47.2  0.6296  -53.1
 0.155  0.6852 -101.9  23.133  127.1  0.0339   46.6  0.6189  -53.9
 0.160  0.6832 -103.6  22.720  126.3  0.0342   46.0  0.6083  -54.7
 0.165  0.6818 -105.3  22.311  125.5  0.0346   45.5  0.5978  -55.5
 0.170  0.6809 -106.9  21.907  124.7  0.0349   44.9  0.5875  -56.4
 0.175  0.6807 -108.6  21.507  123.8  0.0353   44.4  0.5773  -57.3
 0.180  0.6810 -110.3  21.112  122.9  0.0357   43.9  0.5672  -58.2
 0.185  0.6819 -111.9  20.723  122.0  0.0361   43.4  0.5573  -59.1
 0.190  0.6834 -113.6  20.339  121.0  0.0364   42.9  0.5476  -60.1
 0.195  0.6855 -115.3  19.962  120.0  0.0368   42.4  0.5380  -61.1
 0.200  0.6881 -116.9  19.590  119.0  0.0372   41.9  0.5286  -62.2
 0.220  0.6849 -121.7  18.378  116.7  0.0384   40.6  0.4984  -64.7
 0.240  0.6866 -126.5  17.200  114.1  0.0396   39.5  0.4694  -67.5
 0.260  0.6874 -130.6  16.147  111.7  0.0405   38.5  0.4430  -70.0
 0.280  0.6858 -134.1  15.201  109.7  0.0412   37.7  0.4187  -72.0
 0.300  0.6866 -137.5  14.276  107.5  0.0419   37.0  0.3950  -74.2
 0.320  0.6844 -140.0  13.630  106.3  0.0425   36.7  0.3795  -75.5
 0.340  0.6835 -142.5  12.990  105.0  0.0431   36.4  0.3642  -77.0
 0.360  0.6839 -145.0  12.359  103.5  0.0437   36.1  0.3492  -78.5
 0.380  0.6857 -147.5  11.736  101.9  0.0443   35.8  0.3344  -80.2
 0.400  0.6887 -150.0  11.123  100.1  0.0449   35.5  0.3200  -82.1
 0.420  0.6876 -151.7  10.708   99.2  0.0454   35.6  0.3104  -83.1
 0.440  0.6871 -153.5  10.295   98.2  0.0459   35.7  0.3009  -84.2
 0.450  0.6871 -154.4  10.090   97.7  0.0461   35.8  0.2961  -84.7
 0.460  0.6872 -155.2   9.886   97.1  0.0464   35.9  0.2914  -85.3
 0.480  0.6880 -157.0   9.480   96.0  0.0469   36.0  0.2822  -86.5
 0.500  0.6894 -158.7   9.079   94.7  0.0474   36.1  0.2730  -87.8
 0.520  0.6893 -159.9   8.786   94.0  0.0479   36.3  0.2666  -88.6
 0.540  0.6895 -161.1   8.495   93.2  0.0484   36.4  0.2603  -89.5
 0.560  0.6901 -162.4   8.206   92.3  0.0489   36.6  0.2540  -90.4
 0.580  0.6909 -163.6   7.918   91.4  0.0494   36.7  0.2477  -91.3
 0.600  0.6921 -164.8   7.633   90.4  0.0499   36.9  0.2416  -92.3
 0.620  0.6918 -165.8   7.430   89.8  0.0504   37.2  0.2372  -93.0
 0.640  0.6917 -166.7   7.227   89.1  0.0509   37.4  0.2329  -93.7
 0.660  0.6918 -167.7   7.026   88.4  0.0514   37.7  0.2286  -94.4
 0.680  0.6921 -168.6   6.826   87.7  0.0519   38.0  0.2243  -95.1
 0.700  0.6926 -169.6   6.627   86.9  0.0524   38.2  0.2201  -95.9
 0.720  0.6919 -170.5   6.460   86.3  0.0530   38.5  0.2173  -96.5
 0.740  0.6914 -171.3   6.295   85.7  0.0535   38.9  0.2146  -97.0
 0.760  0.6911 -172.2   6.130   85.0  0.0541   39.2  0.2119  -97.6
 0.780  0.6908 -173.0   5.965   84.3  0.0546   39.5  0.2092  -98.2
 0.800  0.6908 -173.9   5.802   83.6  0.0552   39.8  0.2065  -98.8
 0.820  0.6908 -174.6   5.676   83.1  0.0557   40.0  0.2045  -99.4
 0.840  0.6909 -175.3   5.551   82.5  0.0562   40.3  0.2025 -100.0
 0.860  0.6910 -176.0   5.426   81.9  0.0567   40.5  0.2005 -100.6
 0.880  0.6913 -176.7   5.302   81.3  0.0572   40.7  0.1985 -101.2
 0.900  0.6917 -177.4   5.178   80.7  0.0577   40.9  0.1966 -101.8
 0.920  0.6918 -178.0   5.075   80.2  0.0583   41.1  0.1952 -102.4
 0.940  0.6920 -178.5   4.972   79.7  0.0588   41.4  0.1939 -102.9
 0.960  0.6923 -179.1   4.870   79.2  0.0594   41.6  0.1925 -103.5
 0.980  0.6926 -179.6   4.768   78.7  0.0599   41.9  0.1912 -104.1
 1.000  0.6930  179.8   4.666   78.1  0.0605   42.1  0.1899 -104.7
 1.020  0.6933  179.2   4.586   77.6  0.0612   42.4  0.1887 -105.0
 1.040  0.6937  178.6   4.507   77.1  0.0618   42.6  0.1876 -105.4
 1.060  0.6942  178.0   4.428   76.5  0.0625   42.8  0.1864 -105.7
 1.080  0.6948  177.4   4.350   76.0  0.0631   43.1  0.1852 -106.1
 1.100  0.6954  176.8   4.272   75.4  0.0638   43.3  0.1841 -106.4
 1.120  0.6956  176.2   4.199   75.0  0.0644   43.5  0.1837 -106.8
 1.140  0.6959  175.7   4.127   74.5  0.0649   43.7  0.1833 -107.1
 1.160  0.6962  175.1   4.055   74.0  0.0655   43.9  0.1829 -107.5
 1.180  0.6966  174.6   3.983   73.5  0.0660   44.1  0.1826 -107.8
 1.200  0.6971  174.0   3.911   73.0  0.0666   44.3  0.1822 -108.2
 1.220  0.6972  173.5   3.853   72.5  0.0673   44.5  0.1819 -108.6
 1.240  0.6974  173.0   3.795   72.0  0.0680   44.7  0.1817 -109.0
 1.260  0.6977  172.5   3.737   71.5  0.0687   44.9  0.1814 -109.5
 1.280  0.6980  172.0   3.680   71.0  0.0694   45.0  0.1811 -109.9
 1.300  0.6983  171.5   3.623   70.4  0.0701   45.2  0.1809 -110.3
 1.320  0.6985  171.0   3.573   70.0  0.0707   45.3  0.1808 -110.7
 1.340  0.6987  170.6   3.524   69.6  0.0713   45.4  0.1806 -111.1
 1.360  0.6989  170.1   3.475   69.1  0.0720   45.6  0.1805 -111.4
 1.380  0.6992  169.7   3.426   68.7  0.0726   45.7  0.1804 -111.8
 1.400  0.6996  169.2   3.377   68.2  0.0732   45.8  0.1803 -112.2
 1.420  0.7000  168.8   3.333   67.8  0.0739   46.0  0.1801 -112.5
 1.440  0.7004  168.3   3.289   67.4  0.0746   46.1  0.1800 -112.8
 1.460  0.7009  167.9   3.246   66.9  0.0752   46.3  0.1799 -113.2
 1.480  0.7014  167.4   3.202   66.5  0.0759   46.4  0.1797 -113.5
 1.500  0.7019  167.0   3.159   66.0  0.0766   46.6  0.1796 -113.8
 1.520  0.7021  166.6   3.121   65.5  0.0773   46.7  0.1798 -114.0
 1.540  0.7024  166.1   3.084   65.1  0.0780   46.8  0.1800 -114.2
 1.560  0.7027  165.7   3.046   64.6  0.0786   47.0  0.1803 -114.5
 1.580  0.7030  165.2   3.009   64.1  0.0793   47.1  0.1805 -114.7
 1.600  0.7034  164.8   2.972   63.6  0.0800   47.2  0.1807 -114.9
 1.620  0.7039  164.4   2.938   63.2  0.0807   47.2  0.1813 -115.3
 1.640  0.7043  164.0   2.904   62.8  0.0813   47.3  0.1819 -115.7
 1.660  0.7049  163.6   2.870   62.4  0.0820   47.3  0.1825 -116.2
 1.680  0.7054  163.2   2.836   61.9  0.0826   47.4  0.1832 -116.6
 1.700  0.7060  162.8   2.802   61.5  0.0833   47.4  0.1838 -117.0
 1.720  0.7063  162.4   2.771   61.1  0.0840   47.5  0.1837 -117.4
 1.740  0.7067  162.0   2.740   60.7  0.0847   47.6  0.1836 -117.8
 1.760  0.7071  161.7   2.710   60.3  0.0855   47.7  0.1835 -118.1
 1.780  0.7075  161.3   2.679   59.8  0.0862   47.8  0.1835 -118.5
 1.800  0.7080  160.9   2.649   59.4  0.0869   47.9  0.1834 -118.9
 1.820  0.7069  160.4   2.621   59.0  0.0876   48.0  0.1837 -119.1
 1.840  0.7059  160.0   2.593   58.5  0.0883   48.0  0.1840 -119.3
 1.860  0.7050  159.5   2.565   58.1  0.0890   48.1  0.1844 -119.4
 1.880  0.7041  159.1   2.537   57.7  0.0897   48.1  0.1847 -119.6
 1.900  0.7032  158.6   2.509   57.2  0.0904   48.2  0.1850 -119.8
 1.920  0.7043  158.3   2.486   56.8  0.0911   48.2  0.1859 -120.1
 1.940  0.7055  157.9   2.463   56.4  0.0918   48.2  0.1867 -120.3
 1.960  0.7067  157.6   2.440   56.0  0.0926   48.2  0.1876 -120.6
 1.980  0.7079  157.2   2.417   55.6  0.0933   48.2  0.1884 -120.8
 2.000  0.7091  156.9   2.394   55.2  0.0940   48.2  0.1893 -121.1
 2.020  0.7095  156.5   2.373   54.8  0.0947   48.2  0.1898 -121.4
 2.040  0.7099  156.2   2.351   54.4  0.0954   48.2  0.1902 -121.8
 2.060  0.7103  155.8   2.330   54.0  0.0962   48.2  0.1907 -122.1
 2.080  0.7108  155.5   2.309   53.6  0.0969   48.2  0.1912 -122.5
 2.100  0.7112  155.1   2.289   53.2  0.0976   48.3  0.1917 -122.8
 2.120  0.7118  154.7   2.268   52.8  0.0983   48.3  0.1922 -123.2
 2.140  0.7123  154.4   2.247   52.4  0.0990   48.3  0.1927 -123.5
 2.160  0.7129  154.0   2.227   52.0  0.0998   48.3  0.1932 -123.8
 2.180  0.7135  153.7   2.206   51.5  0.1005   48.3  0.1937 -124.2
 2.200  0.7141  153.3   2.186   51.1  0.1012   48.3  0.1942 -124.5
 2.220  0.7143  152.9   2.167   50.7  0.1019   48.3  0.1950 -124.8
 2.240  0.7146  152.6   2.149   50.4  0.1026   48.3  0.1958 -125.1
 2.260  0.7148  152.2   2.131   50.0  0.1033   48.3  0.1965 -125.4
 2.280  0.7151  151.9   2.112   49.6  0.1040   48.3  0.1973 -125.6
 2.300  0.7155  151.5   2.094   49.2  0.1047   48.2  0.1981 -125.9
 2.320  0.7158  151.2   2.076   48.8  0.1054   48.2  0.1989 -126.2
 2.340  0.7162  150.8   2.058   48.4  0.1061   48.2  0.1998 -126.5
 2.360  0.7166  150.5   2.040   48.0  0.1068   48.2  0.2006 -126.8
 2.380  0.7170  150.1   2.023   47.5  0.1075   48.2  0.2014 -127.0
 2.400  0.7175  149.8   2.005   47.1  0.1082   48.2  0.2022 -127.3
 2.420  0.7178  149.4   1.990   46.7  0.1089   48.2  0.2028 -127.7
 2.440  0.7181  149.1   1.975   46.4  0.1096   48.1  0.2034 -128.0
 2.460  0.7185  148.7   1.961   46.0  0.1104   48.1  0.2040 -128.4
 2.480  0.7188  148.4   1.946   45.6  0.1111   48.1  0.2046 -128.7
 2.500  0.7192  148.0   1.931   45.2  0.1118   48.0  0.2053 -129.1
 2.520  0.7197  147.6   1.917   44.8  0.1125   48.0  0.2059 -129.4
 2.540  0.7201  147.3   1.903   44.4  0.1132   48.0  0.2065 -129.8
 2.560  0.7206  146.9   1.888   44.0  0.1140   48.0  0.2072 -130.1
 2.580  0.7212  146.6   1.874   43.6  0.1147   47.9  0.2078 -130.5
 2.600  0.7217  146.2   1.860   43.2  0.1154   47.9  0.2085 -130.8
 2.620  0.7224  145.9   1.847   42.9  0.1161   47.8  0.2095 -131.1
 2.640  0.7230  145.5   1.833   42.5  0.1169   47.8  0.2105 -131.4
 2.660  0.7238  145.2   1.820   42.1  0.1176   47.7  0.2115 -131.6
 2.680  0.7245  144.9   1.807   41.8  0.1184   47.7  0.2126 -131.9
 2.700  0.7252  144.5   1.794   41.4  0.1191   47.6  0.2136 -132.2
 2.720  0.7260  144.2   1.781   41.0  0.1199   47.6  0.2146 -132.5
 2.740  0.7268  143.9   1.768   40.7  0.1206   47.5  0.2157 -132.7
 2.760  0.7277  143.6   1.755   40.3  0.1214   47.5  0.2167 -133.0
 2.780  0.7285  143.2   1.743   39.9  0.1221   47.4  0.2177 -133.2
 2.800  0.7294  142.9   1.730   39.5  0.1229   47.4  0.2188 -133.5
 2.820  0.7299  142.6   1.718   39.2  0.1236   47.3  0.2195 -133.9
 2.840  0.7304  142.3   1.707   38.8  0.1244   47.3  0.2203 -134.2
 2.860  0.7310  142.0   1.695   38.4  0.1251   47.2  0.2210 -134.6
 2.880  0.7316  141.7   1.684   38.1  0.1258   47.1  0.2218 -134.9
 2.900  0.7322  141.3   1.672   37.7  0.1265   47.0  0.2225 -135.3
 2.920  0.7328  141.0   1.661   37.3  0.1273   47.0  0.2233 -135.6
 2.940  0.7334  140.7   1.649   37.0  0.1280   46.9  0.2241 -136.0
 2.960  0.7341  140.4   1.638   36.6  0.1287   46.8  0.2249 -136.3
 2.980  0.7348  140.1   1.627   36.2  0.1295   46.8  0.2257 -136.7
 3.000  0.7355  139.8   1.616   35.8  0.1302   46.7  0.2265 -137.0
 3.100  0.7378  138.1   1.568   34.0  0.1338   46.3  0.2321 -138.7
 3.200  0.7408  136.4   1.521   32.1  0.1375   46.0  0.2378 -140.3
 3.300  0.7452  134.7   1.476   30.3  0.1411   45.5  0.2429 -142.0
 3.400  0.7503  133.1   1.433   28.4  0.1447   45.1  0.2483 -143.7
 3.500  0.7541  131.7   1.393   26.7  0.1483   44.7  0.2543 -145.3
 3.600  0.7584  130.4   1.355   25.0  0.1519   44.3  0.2604 -146.8
 3.700  0.7606  128.9   1.316   23.3  0.1550   43.7  0.2665 -148.6
 3.800  0.7632  127.5   1.278   21.5  0.1581   43.2  0.2728 -150.4
 3.900  0.7678  126.2   1.245   19.9  0.1617   42.7  0.2797 -152.0
 4.000  0.7728  124.9   1.213   18.3  0.1654   42.2  0.2869 -153.6
 4.100  0.7737  123.7   1.182   16.9  0.1686   41.6  0.2943 -155.2
 4.200  0.7749  122.5   1.152   15.4  0.1718   41.1  0.3020 -156.8
 4.300  0.7764  121.3   1.123   13.9  0.1751   40.6  0.3098 -158.3
 4.400  0.7783  120.1   1.094   12.2  0.1783   40.1  0.3179 -159.7
 4.500  0.7805  118.9   1.067   10.5  0.1816   39.6  0.3261 -161.0
 4.600  0.7816  117.9   1.042    9.3  0.1848   39.1  0.3329 -162.4
 4.700  0.7830  116.8   1.018    8.0  0.1881   38.5  0.3399 -163.8
 4.800  0.7846  115.8   0.994    6.7  0.1913   38.0  0.3471 -165.1
 4.900  0.7865  114.7   0.971    5.3  0.1946   37.6  0.3545 -166.4
 5.000  0.7886  113.7   0.948    3.8  0.1979   37.1  0.3620 -167.6
 5.100  0.7890  112.9   0.928    2.7  0.2012   36.5  0.3689 -168.7
 5.200  0.7896  112.1   0.908    1.6  0.2045   36.0  0.3758 -169.8
 5.300  0.7903  111.4   0.889    0.5  0.2079   35.4  0.3829 -170.8
 5.400  0.7911  110.6   0.870   -0.7  0.2112   34.9  0.3902 -171.8
 5.500  0.7921  109.8   0.851   -2.0  0.2146   34.4  0.3975 -172.7
 5.600  0.7938  108.9   0.836   -3.0  0.2181   33.9  0.4042 -173.6
 5.700  0.7957  108.1   0.821   -4.0  0.2216   33.4  0.4110 -174.5
 5.800  0.7977  107.2   0.806   -5.1  0.2252   33.0  0.4180 -175.4
 5.900  0.8000  106.4   0.791   -6.2  0.2287   32.5  0.4250 -176.3
 6.000  0.8024  105.5   0.777   -7.3  0.2323   32.1  0.4321 -177.1
!
!  f       NFmin   Gammaopt  rn/50
! GHz       dB    MAG  ANG    -
!
! noise parameter not available yet for this operation point!
!
! (c) 2016  Infineon Technologies AG, Munich
