! Infineon Technologies  Discrete & RF Semiconductors
! BFP193W
! VCE = 1.5 V,  IC =  25 mA
! Common Emitter S-Parameters:                            Jan 2016
# GHz  S  MA  R  50
!  f         S11            S21            S12            S22
! GHz     MAG   ANG      MAG   ANG      MAG   ANG      MAG   ANG
 0.010  0.4028  -19.1  47.202  172.3  0.0035   86.1  0.9415   -6.8
 0.015  0.4050  -28.5  46.775  169.3  0.0051   81.0  0.9301  -11.1
 0.020  0.4178  -37.6  46.477  166.3  0.0068   78.4  0.9240  -15.4
 0.025  0.4268  -45.8  45.752  163.1  0.0083   74.9  0.9059  -18.9
 0.030  0.4440  -53.5  45.170  159.9  0.0098   72.4  0.8912  -22.5
 0.035  0.4489  -60.6  44.003  157.2  0.0111   69.4  0.8681  -25.6
 0.040  0.4604  -67.5  42.940  154.3  0.0124   67.0  0.8477  -28.8
 0.045  0.4782  -73.9  41.989  151.3  0.0137   65.0  0.8300  -32.2
 0.050  0.5016  -79.8  41.158  148.2  0.0150   63.4  0.8154  -35.7
 0.055  0.5018  -84.1  39.960  146.7  0.0157   61.3  0.7912  -37.5
 0.060  0.5047  -88.4  38.792  145.1  0.0164   59.4  0.7677  -39.4
 0.065  0.5105  -92.5  37.656  143.4  0.0171   57.7  0.7452  -41.4
 0.070  0.5189  -96.6  36.556  141.6  0.0178   56.1  0.7237  -43.5
 0.075  0.5298 -100.6  35.495  139.6  0.0186   54.6  0.7032  -45.8
 0.080  0.5431 -104.3  34.476  137.6  0.0193   53.3  0.6838  -48.2
 0.085  0.5586 -107.9  33.503  135.4  0.0201   52.0  0.6658  -50.7
 0.090  0.5762 -111.2  32.580  133.2  0.0208   50.9  0.6491  -53.4
 0.095  0.5956 -114.4  31.712  130.7  0.0216   49.8  0.6338  -56.2
 0.100  0.6167 -117.3  30.904  128.2  0.0224   48.8  0.6202  -59.1
 0.105  0.6187 -119.4  30.110  127.3  0.0228   48.0  0.6046  -60.3
 0.110  0.6214 -121.5  29.324  126.3  0.0232   47.3  0.5893  -61.6
 0.115  0.6250 -123.5  28.547  125.2  0.0235   46.5  0.5743  -63.0
 0.120  0.6294 -125.5  27.781  124.1  0.0239   45.8  0.5597  -64.4
 0.125  0.6345 -127.5  27.026  122.9  0.0243   45.1  0.5454  -65.9
 0.130  0.6404 -129.5  26.282  121.7  0.0247   44.5  0.5315  -67.5
 0.135  0.6470 -131.4  25.551  120.4  0.0251   43.8  0.5180  -69.2
 0.140  0.6544 -133.3  24.835  119.0  0.0255   43.2  0.5051  -70.9
 0.145  0.6624 -135.1  24.134  117.6  0.0259   42.6  0.4926  -72.8
 0.150  0.6711 -136.9  23.449  116.0  0.0263   42.0  0.4806  -74.7
 0.155  0.6726 -138.1  22.944  115.4  0.0265   41.7  0.4712  -75.6
 0.160  0.6743 -139.2  22.441  114.8  0.0267   41.5  0.4619  -76.5
 0.165  0.6763 -140.3  21.941  114.1  0.0269   41.2  0.4528  -77.4
 0.170  0.6786 -141.5  21.445  113.4  0.0271   41.0  0.4438  -78.4
 0.175  0.6811 -142.6  20.951  112.7  0.0273   40.7  0.4349  -79.5
 0.180  0.6839 -143.7  20.461  112.0  0.0276   40.5  0.4262  -80.5
 0.185  0.6869 -144.8  19.974  111.2  0.0278   40.2  0.4176  -81.7
 0.190  0.6902 -145.9  19.491  110.4  0.0280   40.0  0.4092  -82.8
 0.195  0.6938 -147.0  19.013  109.5  0.0282   39.7  0.4009  -84.0
 0.200  0.6976 -148.1  18.539  108.6  0.0284   39.5  0.3929  -85.3
 0.220  0.7013 -151.1  17.228  106.8  0.0291   39.3  0.3694  -88.2
 0.240  0.7069 -154.0  15.937  104.6  0.0298   39.1  0.3471  -91.6
 0.260  0.7114 -156.5  14.815  102.7  0.0305   39.0  0.3278  -94.6
 0.280  0.7140 -158.6  13.850  101.3  0.0310   39.0  0.3109  -97.1
 0.300  0.7177 -160.7  12.896   99.6  0.0316   39.0  0.2948  -99.9
 0.320  0.7184 -162.2  12.277   98.7  0.0322   39.5  0.2848 -101.6
 0.340  0.7196 -163.7  11.662   97.6  0.0328   40.0  0.2752 -103.5
 0.360  0.7212 -165.2  11.051   96.5  0.0333   40.4  0.2658 -105.4
 0.380  0.7234 -166.6  10.445   95.2  0.0339   40.9  0.2568 -107.5
 0.400  0.7260 -168.1   9.845   93.7  0.0345   41.3  0.2481 -109.8
 0.420  0.7269 -169.1   9.463   93.0  0.0351   41.9  0.2426 -111.2
 0.440  0.7280 -170.2   9.083   92.2  0.0357   42.4  0.2373 -112.6
 0.450  0.7287 -170.7   8.893   91.7  0.0360   42.7  0.2347 -113.3
 0.460  0.7294 -171.2   8.704   91.3  0.0364   43.0  0.2321 -114.1
 0.480  0.7310 -172.2   8.328   90.3  0.0370   43.5  0.2271 -115.7
 0.500  0.7328 -173.2   7.954   89.3  0.0376   44.0  0.2223 -117.3
 0.520  0.7329 -174.0   7.691   88.7  0.0383   44.5  0.2189 -118.4
 0.540  0.7331 -174.8   7.429   88.0  0.0390   45.0  0.2156 -119.5
 0.560  0.7335 -175.6   7.169   87.3  0.0396   45.5  0.2124 -120.6
 0.580  0.7340 -176.4   6.909   86.5  0.0403   46.0  0.2092 -121.8
 0.600  0.7347 -177.2   6.651   85.7  0.0410   46.4  0.2062 -123.0
 0.620  0.7363 -177.9   6.471   85.2  0.0417   46.8  0.2042 -123.8
 0.640  0.7380 -178.5   6.292   84.6  0.0424   47.3  0.2021 -124.7
 0.660  0.7399 -179.2   6.113   84.0  0.0432   47.7  0.2002 -125.5
 0.680  0.7418 -179.8   5.935   83.4  0.0439   48.1  0.1983 -126.4
 0.700  0.7438  179.5   5.758   82.7  0.0446   48.5  0.1964 -127.3
 0.720  0.7425  178.9   5.611   82.2  0.0453   48.9  0.1952 -127.9
 0.740  0.7412  178.4   5.465   81.6  0.0460   49.3  0.1941 -128.6
 0.760  0.7400  177.8   5.319   81.1  0.0468   49.7  0.1930 -129.2
 0.780  0.7389  177.3   5.174   80.4  0.0475   50.1  0.1919 -129.8
 0.800  0.7378  176.7   5.029   79.8  0.0482   50.5  0.1908 -130.5
 0.820  0.7382  176.2   4.919   79.3  0.0490   50.8  0.1903 -131.1
 0.840  0.7386  175.6   4.810   78.8  0.0497   51.1  0.1899 -131.7
 0.860  0.7392  175.1   4.701   78.3  0.0505   51.4  0.1894 -132.2
 0.880  0.7397  174.5   4.592   77.8  0.0512   51.7  0.1890 -132.8
 0.900  0.7404  174.0   4.484   77.2  0.0520   52.0  0.1886 -133.4
 0.920  0.7404  173.6   4.394   76.8  0.0528   52.3  0.1883 -133.9
 0.940  0.7405  173.2   4.304   76.3  0.0535   52.5  0.1881 -134.4
 0.960  0.7406  172.7   4.214   75.8  0.0543   52.7  0.1879 -135.0
 0.980  0.7408  172.3   4.124   75.3  0.0550   53.0  0.1877 -135.5
 1.000  0.7410  171.9   4.035   74.8  0.0558   53.2  0.1875 -136.0
 1.020  0.7417  171.4   3.967   74.3  0.0567   53.4  0.1872 -136.4
 1.040  0.7425  171.0   3.899   73.9  0.0576   53.6  0.1869 -136.7
 1.060  0.7434  170.5   3.831   73.4  0.0584   53.8  0.1866 -137.1
 1.080  0.7443  170.1   3.764   72.8  0.0593   53.9  0.1864 -137.4
 1.100  0.7452  169.6   3.697   72.3  0.0602   54.1  0.1861 -137.8
 1.120  0.7449  169.2   3.634   71.9  0.0610   54.2  0.1862 -138.1
 1.140  0.7447  168.7   3.571   71.4  0.0618   54.3  0.1863 -138.3
 1.160  0.7445  168.3   3.509   71.0  0.0627   54.5  0.1864 -138.6
 1.180  0.7444  167.8   3.446   70.5  0.0635   54.6  0.1866 -138.8
 1.200  0.7443  167.4   3.384   70.0  0.0643   54.7  0.1867 -139.1
 1.220  0.7442  167.0   3.333   69.5  0.0651   54.8  0.1871 -139.4
 1.240  0.7441  166.6   3.282   69.0  0.0659   54.9  0.1874 -139.6
 1.260  0.7440  166.1   3.232   68.5  0.0668   55.1  0.1878 -139.9
 1.280  0.7440  165.7   3.182   68.0  0.0676   55.2  0.1882 -140.1
 1.300  0.7440  165.3   3.132   67.5  0.0684   55.3  0.1886 -140.4
 1.320  0.7443  164.9   3.089   67.1  0.0692   55.4  0.1890 -140.7
 1.340  0.7446  164.5   3.047   66.7  0.0701   55.4  0.1895 -141.0
 1.360  0.7450  164.2   3.005   66.2  0.0709   55.5  0.1900 -141.4
 1.380  0.7454  163.8   2.963   65.8  0.0718   55.5  0.1904 -141.7
 1.400  0.7458  163.4   2.921   65.3  0.0726   55.6  0.1909 -142.0
 1.420  0.7463  163.1   2.884   64.9  0.0734   55.7  0.1911 -142.2
 1.440  0.7469  162.7   2.847   64.5  0.0743   55.7  0.1912 -142.4
 1.460  0.7475  162.4   2.810   64.1  0.0751   55.8  0.1914 -142.6
 1.480  0.7481  162.0   2.773   63.6  0.0760   55.8  0.1915 -142.8
 1.500  0.7487  161.7   2.736   63.2  0.0768   55.9  0.1917 -143.0
 1.520  0.7491  161.3   2.702   62.8  0.0777   55.9  0.1922 -143.1
 1.540  0.7496  160.9   2.669   62.3  0.0786   56.0  0.1927 -143.2
 1.560  0.7502  160.5   2.636   61.9  0.0794   56.0  0.1931 -143.4
 1.580  0.7507  160.1   2.603   61.4  0.0803   56.1  0.1936 -143.5
 1.600  0.7513  159.7   2.570   60.9  0.0812   56.1  0.1941 -143.6
 1.620  0.7514  159.3   2.540   60.5  0.0820   56.1  0.1951 -143.8
 1.640  0.7515  159.0   2.510   60.1  0.0828   56.2  0.1960 -144.1
 1.660  0.7516  158.6   2.481   59.7  0.0837   56.2  0.1970 -144.3
 1.680  0.7517  158.3   2.451   59.2  0.0845   56.3  0.1979 -144.6
 1.700  0.7519  157.9   2.422   58.8  0.0853   56.3  0.1989 -144.8
 1.720  0.7521  157.5   2.395   58.4  0.0862   56.2  0.1993 -145.1
 1.740  0.7523  157.2   2.368   58.0  0.0871   56.2  0.1998 -145.4
 1.760  0.7525  156.8   2.342   57.6  0.0879   56.1  0.2002 -145.7
 1.780  0.7528  156.5   2.315   57.1  0.0888   56.1  0.2006 -146.0
 1.800  0.7531  156.1   2.289   56.7  0.0897   56.0  0.2011 -146.3
 1.820  0.7527  155.7   2.265   56.3  0.0905   56.0  0.2015 -146.4
 1.840  0.7524  155.3   2.241   55.9  0.0913   56.0  0.2019 -146.5
 1.860  0.7520  154.9   2.217   55.5  0.0921   56.0  0.2022 -146.5
 1.880  0.7517  154.5   2.194   55.0  0.0929   56.0  0.2026 -146.6
 1.900  0.7515  154.1   2.170   54.6  0.0937   56.0  0.2030 -146.7
 1.920  0.7525  153.8   2.150   54.2  0.0946   55.9  0.2040 -146.8
 1.940  0.7535  153.5   2.129   53.8  0.0955   55.8  0.2050 -147.0
 1.960  0.7545  153.1   2.109   53.4  0.0964   55.8  0.2060 -147.1
 1.980  0.7555  152.8   2.089   53.0  0.0973   55.7  0.2070 -147.3
 2.000  0.7566  152.5   2.069   52.6  0.0982   55.6  0.2080 -147.4
 2.020  0.7570  152.2   2.051   52.2  0.0990   55.5  0.2087 -147.6
 2.040  0.7573  151.9   2.033   51.9  0.0999   55.5  0.2094 -147.9
 2.060  0.7577  151.6   2.015   51.5  0.1007   55.4  0.2102 -148.1
 2.080  0.7582  151.3   1.997   51.1  0.1016   55.3  0.2109 -148.4
 2.100  0.7586  150.9   1.979   50.7  0.1024   55.3  0.2117 -148.6
 2.120  0.7591  150.6   1.962   50.3  0.1032   55.2  0.2124 -148.9
 2.140  0.7596  150.3   1.944   49.9  0.1041   55.2  0.2131 -149.1
 2.160  0.7601  150.0   1.927   49.5  0.1049   55.1  0.2139 -149.3
 2.180  0.7606  149.7   1.909   49.0  0.1058   55.1  0.2146 -149.6
 2.200  0.7612  149.4   1.892   48.6  0.1066   55.0  0.2154 -149.8
 2.220  0.7609  149.1   1.876   48.2  0.1075   54.9  0.2164 -150.0
 2.240  0.7606  148.7   1.860   47.9  0.1083   54.8  0.2173 -150.1
 2.260  0.7604  148.4   1.844   47.5  0.1092   54.7  0.2183 -150.3
 2.280  0.7601  148.0   1.829   47.1  0.1100   54.7  0.2192 -150.5
 2.300  0.7599  147.7   1.813   46.7  0.1109   54.6  0.2202 -150.6
 2.320  0.7598  147.3   1.797   46.3  0.1118   54.5  0.2211 -150.8
 2.340  0.7596  147.0   1.782   45.9  0.1126   54.4  0.2221 -150.9
 2.360  0.7595  146.6   1.766   45.5  0.1135   54.4  0.2231 -151.1
 2.380  0.7595  146.3   1.751   45.0  0.1143   54.3  0.2240 -151.2
 2.400  0.7594  145.9   1.736   44.6  0.1152   54.2  0.2250 -151.4
 2.420  0.7598  145.6   1.723   44.2  0.1160   54.1  0.2258 -151.7
 2.440  0.7602  145.3   1.710   43.9  0.1169   54.0  0.2267 -151.9
 2.460  0.7607  145.0   1.698   43.5  0.1177   53.9  0.2275 -152.2
 2.480  0.7612  144.7   1.685   43.1  0.1186   53.8  0.2284 -152.4
 2.500  0.7617  144.3   1.673   42.7  0.1194   53.7  0.2292 -152.7
 2.520  0.7622  144.0   1.660   42.3  0.1203   53.6  0.2301 -152.9
 2.540  0.7627  143.7   1.648   41.9  0.1211   53.6  0.2310 -153.2
 2.560  0.7633  143.4   1.635   41.5  0.1220   53.5  0.2318 -153.4
 2.580  0.7639  143.1   1.623   41.1  0.1228   53.4  0.2327 -153.7
 2.600  0.7645  142.8   1.611   40.7  0.1237   53.3  0.2336 -153.9
 2.620  0.7652  142.5   1.600   40.4  0.1246   53.2  0.2348 -154.1
 2.640  0.7658  142.2   1.588   40.0  0.1254   53.0  0.2359 -154.3
 2.660  0.7665  141.8   1.577   39.6  0.1263   52.9  0.2371 -154.5
 2.680  0.7673  141.5   1.566   39.3  0.1271   52.8  0.2383 -154.6
 2.700  0.7680  141.2   1.555   38.9  0.1280   52.7  0.2394 -154.8
 2.720  0.7688  140.9   1.544   38.5  0.1289   52.6  0.2406 -155.0
 2.740  0.7696  140.6   1.533   38.2  0.1297   52.4  0.2418 -155.2
 2.760  0.7704  140.2   1.522   37.8  0.1306   52.3  0.2429 -155.4
 2.780  0.7712  139.9   1.512   37.4  0.1314   52.2  0.2441 -155.5
 2.800  0.7721  139.6   1.501   37.0  0.1323   52.1  0.2453 -155.7
 2.820  0.7726  139.3   1.491   36.7  0.1331   52.0  0.2463 -156.0
 2.840  0.7732  139.0   1.481   36.3  0.1340   51.8  0.2472 -156.3
 2.860  0.7738  138.7   1.470   36.0  0.1348   51.7  0.2482 -156.5
 2.880  0.7744  138.4   1.460   35.6  0.1356   51.6  0.2492 -156.8
 2.900  0.7750  138.0   1.450   35.3  0.1364   51.4  0.2502 -157.1
 2.920  0.7757  137.7   1.440   34.9  0.1373   51.3  0.2512 -157.3
 2.940  0.7763  137.4   1.430   34.5  0.1381   51.2  0.2522 -157.6
 2.960  0.7770  137.1   1.421   34.2  0.1389   51.0  0.2532 -157.9
 2.980  0.7778  136.8   1.411   33.8  0.1398   50.9  0.2542 -158.1
 3.000  0.7785  136.5   1.401   33.4  0.1406   50.8  0.2552 -158.4
 3.100  0.7808  134.9   1.361   31.6  0.1445   50.2  0.2616 -159.5
 3.200  0.7838  133.3   1.323   29.7  0.1485   49.7  0.2680 -160.5
 3.300  0.7864  131.7   1.283   28.0  0.1528   49.0  0.2742 -161.9
 3.400  0.7897  130.1   1.244   26.1  0.1571   48.3  0.2806 -163.2
 3.500  0.7936  128.8   1.209   24.4  0.1611   47.7  0.2873 -164.4
 3.600  0.7978  127.6   1.175   22.7  0.1651   47.1  0.2942 -165.5
 3.700  0.7992  126.0   1.142   21.1  0.1686   46.3  0.3008 -166.9
 3.800  0.8012  124.5   1.110   19.4  0.1721   45.5  0.3076 -168.3
 3.900  0.8040  123.2   1.080   17.9  0.1760   44.8  0.3152 -169.5
 4.000  0.8071  122.0   1.050   16.3  0.1799   44.2  0.3229 -170.6
 4.100  0.8075  120.8   1.024   15.0  0.1834   43.4  0.3306 -171.9
 4.200  0.8083  119.7   0.999   13.6  0.1869   42.7  0.3384 -173.1
 4.300  0.8094  118.5   0.975   12.1  0.1905   42.0  0.3464 -174.2
 4.400  0.8108  117.4   0.951   10.5  0.1941   41.3  0.3545 -175.3
 4.500  0.8126  116.2   0.928    8.9  0.1977   40.7  0.3628 -176.4
 4.600  0.8135  115.2   0.907    7.8  0.2011   40.0  0.3696 -177.6
 4.700  0.8147  114.2   0.887    6.6  0.2045   39.4  0.3765 -178.7
 4.800  0.8161  113.2   0.867    5.3  0.2080   38.7  0.3835 -179.8
 4.900  0.8177  112.3   0.847    4.0  0.2115   38.1  0.3907  179.2
 5.000  0.8196  111.3   0.828    2.6  0.2150   37.5  0.3980  178.2
 5.100  0.8195  110.5   0.811    1.6  0.2184   36.8  0.4043  177.3
 5.200  0.8195  109.8   0.794    0.6  0.2219   36.2  0.4108  176.5
 5.300  0.8196  109.0   0.777   -0.4  0.2254   35.5  0.4173  175.7
 5.400  0.8200  108.3   0.761   -1.5  0.2289   34.9  0.4238  175.0
 5.500  0.8204  107.5   0.745   -2.7  0.2325   34.3  0.4305  174.2
 5.600  0.8208  106.6   0.732   -3.6  0.2360   33.7  0.4365  173.4
 5.700  0.8215  105.8   0.719   -4.5  0.2395   33.1  0.4427  172.7
 5.800  0.8223  104.9   0.707   -5.5  0.2430   32.5  0.4489  171.9
 5.900  0.8233  104.1   0.694   -6.5  0.2466   31.9  0.4552  171.2
 6.000  0.8245  103.2   0.682   -7.5  0.2502   31.4  0.4615  170.5
!
!  f       NFmin   Gammaopt  rn/50
! GHz       dB    MAG  ANG    -
!
! noise parameter not available yet for this operation point!
!
! (c) 2016  Infineon Technologies AG, Munich
