! Infineon Technologies  Discrete & RF Semiconductors
! BFP196
! VCE = 3.0 V,  IC =  10mA
! Common Emitter S-Parameters:                            Jan 2016
# GHz  S  MA  R  50
!  f         S11            S21            S12            S22
! GHz     MAG   ANG      MAG   ANG      MAG   ANG      MAG   ANG
 0.010  0.6923  -11.7  27.910  175.0  0.0051   87.7  0.9746   -6.0
 0.015  0.6844  -17.4  27.545  171.5  0.0078   83.2  0.9643   -8.8
 0.020  0.6834  -23.1  27.282  168.0  0.0105   81.0  0.9564  -11.6
 0.025  0.6724  -28.0  26.790  165.6  0.0127   76.5  0.9391  -14.0
 0.030  0.6666  -33.1  26.345  163.2  0.0149   73.3  0.9236  -16.5
 0.035  0.6660  -38.2  25.950  160.6  0.0172   70.9  0.9099  -19.1
 0.040  0.6708  -43.3  25.608  158.0  0.0195   69.2  0.8981  -21.8
 0.045  0.6807  -48.3  25.321  155.3  0.0219   67.7  0.8883  -24.5
 0.050  0.6956  -53.1  25.090  152.6  0.0242   66.6  0.8806  -27.3
 0.055  0.6809  -56.8  24.487  151.0  0.0256   64.1  0.8595  -28.9
 0.060  0.6691  -60.6  23.904  149.3  0.0269   61.9  0.8391  -30.6
 0.065  0.6604  -64.6  23.344  147.5  0.0284   59.9  0.8195  -32.3
 0.070  0.6549  -68.6  22.807  145.6  0.0298   58.0  0.8007  -34.2
 0.075  0.6527  -72.7  22.295  143.7  0.0313   56.4  0.7828  -36.1
 0.080  0.6538  -76.8  21.810  141.7  0.0329   54.9  0.7657  -38.1
 0.085  0.6582  -80.8  21.354  139.5  0.0344   53.5  0.7497  -40.2
 0.090  0.6659  -84.8  20.929  137.3  0.0359   52.3  0.7348  -42.4
 0.095  0.6767  -88.7  20.537  135.0  0.0375   51.1  0.7209  -44.7
 0.100  0.6905  -92.4  20.179  132.6  0.0391   50.1  0.7083  -47.1
 0.105  0.6847  -94.8  19.705  131.5  0.0398   49.1  0.6925  -48.1
 0.110  0.6801  -97.2  19.237  130.4  0.0405   48.2  0.6769  -49.1
 0.115  0.6767  -99.7  18.778  129.2  0.0412   47.2  0.6616  -50.2
 0.120  0.6746 -102.1  18.327  128.0  0.0419   46.4  0.6465  -51.4
 0.125  0.6738 -104.6  17.885  126.7  0.0426   45.5  0.6317  -52.6
 0.130  0.6742 -107.1  17.453  125.3  0.0433   44.7  0.6172  -53.8
 0.135  0.6759 -109.6  17.032  123.9  0.0440   43.9  0.6029  -55.2
 0.140  0.6789 -112.1  16.621  122.3  0.0448   43.1  0.5891  -56.5
 0.145  0.6831 -114.5  16.223  120.8  0.0455   42.3  0.5755  -58.0
 0.150  0.6885 -116.9  15.838  119.1  0.0463   41.6  0.5624  -59.5
 0.155  0.6867 -118.5  15.529  118.4  0.0467   41.1  0.5521  -60.2
 0.160  0.6854 -120.1  15.224  117.6  0.0471   40.5  0.5418  -60.9
 0.165  0.6847 -121.7  14.920  116.9  0.0475   40.0  0.5316  -61.6
 0.170  0.6845 -123.3  14.620  116.0  0.0479   39.5  0.5215  -62.4
 0.175  0.6849 -124.9  14.323  115.2  0.0483   38.9  0.5115  -63.2
 0.180  0.6858 -126.5  14.028  114.3  0.0487   38.4  0.5016  -64.0
 0.185  0.6872 -128.1  13.738  113.4  0.0491   37.9  0.4919  -64.8
 0.190  0.6892 -129.7  13.451  112.4  0.0495   37.5  0.4822  -65.7
 0.195  0.6917 -131.3  13.168  111.4  0.0499   37.0  0.4726  -66.6
 0.200  0.6947 -132.9  12.889  110.4  0.0503   36.5  0.4632  -67.6
 0.220  0.6911 -137.5  11.971  108.1  0.0514   35.4  0.4337  -69.8
 0.240  0.6921 -142.2  11.075  105.4  0.0525   34.4  0.4050  -72.2
 0.260  0.6933 -146.2  10.321  103.1  0.0535   33.8  0.3813  -74.4
 0.280  0.6931 -149.5   9.696  101.2  0.0542   33.5  0.3622  -76.3
 0.300  0.6953 -152.9   9.083   99.1  0.0549   33.3  0.3436  -78.3
 0.320  0.6937 -155.3   8.655   98.0  0.0556   33.3  0.3302  -79.4
 0.340  0.6933 -157.6   8.231   96.7  0.0563   33.2  0.3170  -80.6
 0.360  0.6940 -160.0   7.811   95.3  0.0570   33.2  0.3039  -81.9
 0.380  0.6960 -162.4   7.396   93.8  0.0577   33.1  0.2910  -83.3
 0.400  0.6991 -164.7   6.987   92.1  0.0584   33.1  0.2783  -84.8
 0.420  0.6975 -166.4   6.710   91.1  0.0590   33.2  0.2710  -85.6
 0.440  0.6965 -168.0   6.435   90.1  0.0596   33.2  0.2638  -86.5
 0.450  0.6963 -168.8   6.298   89.5  0.0599   33.3  0.2602  -87.0
 0.460  0.6961 -169.7   6.162   88.9  0.0602   33.3  0.2567  -87.5
 0.480  0.6963 -171.3   5.892   87.7  0.0608   33.3  0.2496  -88.5
 0.500  0.6971 -173.0   5.625   86.3  0.0614   33.4  0.2426  -89.5
 0.520  0.6974 -174.4   5.444   85.4  0.0621   33.8  0.2382  -90.3
 0.540  0.6981 -175.9   5.264   84.4  0.0628   34.2  0.2339  -91.0
 0.560  0.6993 -177.3   5.086   83.4  0.0635   34.6  0.2296  -91.9
 0.580  0.7009 -178.8   4.910   82.3  0.0642   34.9  0.2253  -92.7
 0.600  0.7030  179.8   4.736   81.1  0.0649   35.3  0.2211  -93.6
 0.620  0.7025  178.6   4.603   80.3  0.0656   35.6  0.2184  -94.3
 0.640  0.7023  177.3   4.471   79.4  0.0663   36.0  0.2158  -95.1
 0.660  0.7024  176.1   4.340   78.5  0.0669   36.3  0.2132  -95.9
 0.680  0.7028  174.8   4.210   77.5  0.0676   36.6  0.2106  -96.7
 0.700  0.7036  173.6   4.082   76.5  0.0683   36.9  0.2081  -97.5
 0.720  0.7037  172.7   3.979   75.8  0.0691   37.1  0.2065  -98.1
 0.740  0.7041  171.8   3.878   75.1  0.0699   37.3  0.2049  -98.8
 0.760  0.7045  171.0   3.776   74.3  0.0707   37.5  0.2033  -99.4
 0.780  0.7052  170.1   3.676   73.5  0.0715   37.6  0.2017 -100.1
 0.800  0.7060  169.2   3.576   72.6  0.0723   37.8  0.2002 -100.8
 0.820  0.7056  168.2   3.496   71.9  0.0732   38.1  0.1992 -101.3
 0.840  0.7053  167.2   3.416   71.2  0.0741   38.5  0.1983 -101.9
 0.860  0.7053  166.1   3.337   70.4  0.0750   38.8  0.1973 -102.4
 0.880  0.7056  165.1   3.259   69.6  0.0759   39.1  0.1964 -102.9
 0.900  0.7060  164.1   3.181   68.8  0.0768   39.4  0.1955 -103.5
 0.920  0.7057  163.2   3.118   68.1  0.0776   39.6  0.1954 -104.0
 0.940  0.7055  162.3   3.056   67.4  0.0784   39.9  0.1954 -104.4
 0.960  0.7056  161.5   2.995   66.7  0.0791   40.1  0.1953 -104.9
 0.980  0.7057  160.6   2.934   66.0  0.0799   40.3  0.1953 -105.3
 1.000  0.7061  159.7   2.873   65.2  0.0807   40.5  0.1953 -105.8
 1.020  0.7077  158.9   2.821   64.6  0.0816   40.8  0.1955 -106.4
 1.040  0.7094  158.0   2.770   63.9  0.0825   41.0  0.1956 -107.0
 1.060  0.7113  157.2   2.719   63.2  0.0835   41.2  0.1958 -107.5
 1.080  0.7133  156.4   2.668   62.5  0.0844   41.5  0.1961 -108.1
 1.100  0.7155  155.6   2.618   61.7  0.0853   41.7  0.1963 -108.7
 1.120  0.7164  154.8   2.576   61.1  0.0862   41.8  0.1966 -109.3
 1.140  0.7174  154.0   2.534   60.4  0.0872   42.0  0.1969 -109.9
 1.160  0.7186  153.2   2.493   59.7  0.0881   42.1  0.1972 -110.5
 1.180  0.7199  152.4   2.452   59.0  0.0891   42.3  0.1975 -111.1
 1.200  0.7213  151.6   2.411   58.3  0.0900   42.4  0.1979 -111.7
 1.220  0.7208  150.8   2.373   57.7  0.0911   42.5  0.1983 -112.2
 1.240  0.7203  150.0   2.336   57.0  0.0922   42.6  0.1988 -112.7
 1.260  0.7201  149.3   2.298   56.4  0.0932   42.7  0.1992 -113.3
 1.280  0.7199  148.5   2.262   55.7  0.0943   42.8  0.1997 -113.8
 1.300  0.7199  147.7   2.225   55.0  0.0954   42.9  0.2002 -114.3
 1.320  0.7210  147.0   2.192   54.5  0.0963   43.0  0.2011 -114.8
 1.340  0.7221  146.4   2.160   53.9  0.0971   43.1  0.2020 -115.2
 1.360  0.7234  145.7   2.127   53.3  0.0980   43.3  0.2029 -115.7
 1.380  0.7247  145.1   2.095   52.7  0.0988   43.4  0.2039 -116.1
 1.400  0.7262  144.4   2.063   52.1  0.0997   43.5  0.2048 -116.6
 1.420  0.7264  143.7   2.040   51.5  0.1008   43.5  0.2057 -117.2
 1.440  0.7267  143.0   2.016   50.9  0.1019   43.6  0.2067 -117.9
 1.460  0.7272  142.4   1.993   50.3  0.1031   43.6  0.2077 -118.5
 1.480  0.7277  141.7   1.971   49.6  0.1042   43.7  0.2087 -119.1
 1.500  0.7283  141.0   1.948   49.0  0.1053   43.7  0.2097 -119.7
 1.520  0.7298  140.3   1.919   48.4  0.1064   43.7  0.2105 -120.3
 1.540  0.7313  139.6   1.890   47.7  0.1074   43.8  0.2114 -120.9
 1.560  0.7330  138.9   1.861   47.1  0.1085   43.8  0.2122 -121.5
 1.580  0.7348  138.2   1.833   46.4  0.1095   43.9  0.2131 -122.0
 1.600  0.7367  137.5   1.805   45.7  0.1106   43.9  0.2140 -122.6
 1.620  0.7375  136.8   1.784   45.1  0.1117   43.9  0.2147 -123.1
 1.640  0.7383  136.1   1.763   44.5  0.1128   43.9  0.2154 -123.6
 1.660  0.7394  135.3   1.742   43.9  0.1139   44.0  0.2161 -124.0
 1.680  0.7405  134.6   1.721   43.3  0.1150   44.0  0.2168 -124.5
 1.700  0.7417  133.9   1.701   42.7  0.1161   44.0  0.2175 -125.0
 1.720  0.7429  133.3   1.684   42.2  0.1173   43.9  0.2189 -125.3
 1.740  0.7442  132.7   1.668   41.7  0.1184   43.8  0.2203 -125.7
 1.760  0.7456  132.1   1.651   41.2  0.1196   43.8  0.2217 -126.0
 1.780  0.7471  131.5   1.635   40.6  0.1207   43.7  0.2231 -126.4
 1.800  0.7486  130.9   1.619   40.1  0.1219   43.6  0.2245 -126.7
 1.820  0.7489  130.4   1.601   39.5  0.1230   43.6  0.2261 -127.3
 1.840  0.7494  129.8   1.584   38.9  0.1241   43.6  0.2278 -127.9
 1.860  0.7498  129.3   1.567   38.3  0.1251   43.6  0.2295 -128.5
 1.880  0.7504  128.7   1.550   37.7  0.1262   43.6  0.2312 -129.1
 1.900  0.7510  128.2   1.533   37.1  0.1273   43.6  0.2329 -129.7
 1.920  0.7523  127.6   1.516   36.6  0.1284   43.5  0.2336 -130.3
 1.940  0.7536  127.0   1.500   36.1  0.1295   43.4  0.2343 -131.0
 1.960  0.7550  126.4   1.483   35.5  0.1307   43.4  0.2351 -131.6
 1.980  0.7565  125.8   1.467   35.0  0.1318   43.3  0.2359 -132.2
 2.000  0.7581  125.2   1.451   34.4  0.1329   43.2  0.2367 -132.8
 2.020  0.7581  124.6   1.437   33.9  0.1341   43.1  0.2381 -133.3
 2.040  0.7582  124.0   1.423   33.4  0.1352   43.0  0.2395 -133.8
 2.060  0.7583  123.5   1.409   32.9  0.1364   42.9  0.2409 -134.2
 2.080  0.7586  122.9   1.395   32.4  0.1375   42.8  0.2424 -134.7
 2.100  0.7589  122.3   1.381   31.8  0.1387   42.7  0.2439 -135.2
 2.120  0.7593  121.7   1.368   31.3  0.1399   42.6  0.2453 -135.6
 2.140  0.7597  121.1   1.354   30.7  0.1410   42.5  0.2468 -136.1
 2.160  0.7603  120.6   1.341   30.2  0.1422   42.4  0.2483 -136.5
 2.180  0.7609  120.0   1.328   29.6  0.1433   42.3  0.2499 -137.0
 2.200  0.7616  119.4   1.315   29.0  0.1445   42.2  0.2514 -137.4
 2.220  0.7628  118.8   1.304   28.5  0.1456   42.1  0.2528 -138.0
 2.240  0.7641  118.2   1.294   28.0  0.1468   41.9  0.2541 -138.6
 2.260  0.7654  117.5   1.283   27.5  0.1479   41.8  0.2555 -139.2
 2.280  0.7669  116.9   1.272   26.9  0.1491   41.7  0.2570 -139.8
 2.300  0.7684  116.3   1.262   26.4  0.1502   41.5  0.2585 -140.4
 2.320  0.7700  115.7   1.252   25.9  0.1514   41.4  0.2600 -141.0
 2.340  0.7717  115.1   1.242   25.3  0.1525   41.3  0.2615 -141.6
 2.360  0.7735  114.5   1.232   24.8  0.1537   41.1  0.2630 -142.2
 2.380  0.7754  113.9   1.222   24.2  0.1548   41.0  0.2646 -142.7
 2.400  0.7774  113.3   1.212   23.6  0.1560   40.9  0.2662 -143.3
 2.420  0.7779  112.8   1.201   23.2  0.1571   40.7  0.2677 -143.8
 2.440  0.7786  112.2   1.191   22.7  0.1583   40.6  0.2693 -144.4
 2.460  0.7792  111.7   1.181   22.2  0.1594   40.4  0.2709 -144.9
 2.480  0.7800  111.2   1.170   21.8  0.1606   40.3  0.2725 -145.4
 2.500  0.7808  110.6   1.160   21.3  0.1617   40.1  0.2741 -145.9
 2.520  0.7817  110.1   1.150   20.8  0.1629   40.0  0.2757 -146.4
 2.540  0.7826  109.6   1.140   20.3  0.1640   39.8  0.2774 -146.9
 2.560  0.7837  109.1   1.130   19.8  0.1652   39.7  0.2791 -147.4
 2.580  0.7848  108.5   1.120   19.3  0.1663   39.5  0.2808 -147.9
 2.600  0.7859  108.0   1.110   18.8  0.1675   39.4  0.2825 -148.4
 2.620  0.7867  107.5   1.102   18.4  0.1686   39.2  0.2841 -149.0
 2.640  0.7876  107.0   1.093   18.0  0.1697   39.0  0.2857 -149.6
 2.660  0.7885  106.5   1.085   17.5  0.1708   38.9  0.2874 -150.1
 2.680  0.7895  106.0   1.077   17.1  0.1720   38.7  0.2891 -150.7
 2.700  0.7906  105.5   1.069   16.6  0.1731   38.5  0.2908 -151.2
 2.720  0.7917  105.0   1.061   16.2  0.1742   38.4  0.2925 -151.8
 2.740  0.7929  104.5   1.053   15.7  0.1753   38.2  0.2943 -152.3
 2.760  0.7941  104.0   1.045   15.3  0.1764   38.0  0.2960 -152.9
 2.780  0.7954  103.5   1.038   14.8  0.1776   37.9  0.2979 -153.4
 2.800  0.7968  103.0   1.030   14.3  0.1787   37.7  0.2997 -153.9
 2.820  0.7975  102.5   1.022   13.9  0.1799   37.5  0.3015 -154.4
 2.840  0.7982  102.1   1.014   13.4  0.1810   37.3  0.3034 -155.0
 2.860  0.7990  101.6   1.007   13.0  0.1822   37.1  0.3052 -155.5
 2.880  0.7999  101.1   0.999   12.5  0.1834   36.9  0.3071 -156.0
 2.900  0.8008  100.7   0.992   12.0  0.1845   36.7  0.3091 -156.5
 2.920  0.8018  100.2   0.984   11.6  0.1857   36.5  0.3110 -157.0
 2.940  0.8028   99.8   0.977   11.1  0.1869   36.3  0.3130 -157.5
 2.960  0.8038   99.3   0.969   10.6  0.1880   36.1  0.3150 -157.9
 2.980  0.8049   98.9   0.962   10.1  0.1892   35.9  0.3170 -158.4
 3.000  0.8061   98.4   0.955    9.6  0.1904   35.7  0.3190 -158.9
 3.100  0.8092   96.3   0.922    8.0  0.1954   34.5  0.3275 -161.7
 3.200  0.8134   94.2   0.890    6.2  0.2005   33.4  0.3367 -164.3
 3.300  0.8187   92.1   0.859    4.4  0.2057   32.4  0.3465 -166.8
 3.400  0.8250   90.1   0.828    2.4  0.2109   31.4  0.3570 -169.2
 3.500  0.8323   88.1   0.799    0.2  0.2162   30.4  0.3681 -171.4
 3.600  0.8333   86.2   0.776   -1.2  0.2210   29.2  0.3776 -173.8
 3.700  0.8352   84.4   0.753   -2.6  0.2260   28.1  0.3878 -176.1
 3.800  0.8380   82.5   0.731   -4.2  0.2310   27.1  0.3986 -178.3
 3.900  0.8416   80.7   0.709   -5.8  0.2360   26.1  0.4099  179.6
 4.000  0.8461   78.9   0.688   -7.6  0.2412   25.1  0.4217  177.7
 4.100  0.8474   77.3   0.671   -8.7  0.2460   23.9  0.4306  175.6
 4.200  0.8493   75.7   0.653   -9.9  0.2509   22.7  0.4401  173.6
 4.300  0.8519   74.1   0.637  -11.2  0.2559   21.6  0.4502  171.7
 4.400  0.8551   72.6   0.620  -12.5  0.2610   20.5  0.4607  169.8
 4.500  0.8590   71.0   0.604  -13.9  0.2662   19.5  0.4716  168.1
 4.600  0.8593   69.7   0.592  -14.8  0.2703   18.3  0.4798  166.3
 4.700  0.8601   68.4   0.580  -15.8  0.2744   17.2  0.4886  164.5
 4.800  0.8613   67.1   0.568  -16.8  0.2787   16.0  0.4977  162.8
 4.900  0.8630   65.8   0.556  -17.8  0.2831   15.0  0.5073  161.2
 5.000  0.8651   64.5   0.545  -18.9  0.2876   13.9  0.5173  159.6
 5.100  0.8668   63.2   0.535  -19.6  0.2916   12.7  0.5245  157.8
 5.200  0.8690   62.0   0.525  -20.4  0.2957   11.5  0.5322  156.0
 5.300  0.8715   60.8   0.515  -21.2  0.2999   10.3  0.5403  154.3
 5.400  0.8744   59.5   0.506  -22.0  0.3042    9.2  0.5490  152.6
 5.500  0.8778   58.3   0.496  -22.9  0.3087    8.1  0.5581  151.0
 5.600  0.8769   57.2   0.490  -23.5  0.3123    6.8  0.5646  149.4
 5.700  0.8764   56.1   0.483  -24.1  0.3160    5.6  0.5716  147.8
 5.800  0.8762   55.0   0.477  -24.7  0.3199    4.4  0.5790  146.3
 5.900  0.8763   53.9   0.471  -25.3  0.3239    3.2  0.5868  144.8
 6.000  0.8767   52.8   0.465  -26.0  0.3280    2.0  0.5950  143.3
!
!  f       NFmin   Gammaopt  rn/50
! GHz       dB    MAG  ANG    -
!
! noise parameter not available yet for this operation point!
!
! (c) 2016  Infineon Technologies AG, Munich
