! Infineon Technologies  Discrete & RF Semiconductors
! BFP181
! VCE = 1.0 V,  IC =  15 mA
! Common Emitter S-Parameters:                            Jan 2016
# GHz  S  MA  R  50
!  f         S11            S21            S12            S22
! GHz     MAG   ANG      MAG   ANG      MAG   ANG      MAG   ANG
 0.010  0.5630   -8.4  21.237  175.6  0.0021   77.4  0.8753   -2.1
 0.015  0.5628  -12.6  21.183  173.5  0.0032   76.6  0.8719   -3.4
 0.020  0.5656  -16.7  21.157  171.4  0.0043   76.2  0.8690   -4.8
 0.025  0.5567  -20.6  20.904  169.3  0.0053   75.6  0.8623   -5.9
 0.030  0.5504  -24.5  20.680  167.2  0.0064   75.2  0.8560   -7.0
 0.035  0.5468  -28.6  20.485  165.0  0.0074   74.9  0.8500   -8.1
 0.040  0.5459  -32.6  20.320  162.8  0.0084   74.7  0.8443   -9.3
 0.045  0.5478  -36.7  20.185  160.6  0.0095   74.5  0.8389  -10.4
 0.050  0.5524  -40.7  20.082  158.3  0.0105   74.4  0.8339  -11.6
 0.055  0.5434  -43.8  19.706  156.8  0.0112   71.7  0.8245  -12.3
 0.060  0.5360  -47.0  19.344  155.3  0.0119   69.4  0.8152  -13.1
 0.065  0.5303  -50.3  18.997  153.7  0.0126   67.3  0.8060  -13.8
 0.070  0.5264  -53.6  18.665  152.0  0.0134   65.4  0.7970  -14.6
 0.075  0.5244  -57.0  18.349  150.3  0.0141   63.7  0.7882  -15.4
 0.080  0.5242  -60.4  18.050  148.5  0.0149   62.2  0.7795  -16.2
 0.085  0.5258  -63.8  17.770  146.7  0.0156   60.9  0.7710  -17.1
 0.090  0.5292  -67.2  17.508  144.8  0.0164   59.6  0.7626  -17.9
 0.095  0.5344  -70.5  17.266  142.8  0.0172   58.5  0.7544  -18.8
 0.100  0.5414  -73.7  17.045  140.8  0.0180   57.5  0.7464  -19.7
 0.105  0.5359  -76.0  16.726  139.7  0.0185   56.6  0.7376  -20.1
 0.110  0.5314  -78.4  16.413  138.5  0.0190   55.8  0.7288  -20.4
 0.115  0.5277  -80.8  16.108  137.3  0.0195   54.9  0.7200  -20.8
 0.120  0.5251  -83.3  15.809  136.1  0.0200   54.2  0.7113  -21.2
 0.125  0.5234  -85.8  15.519  134.8  0.0205   53.5  0.7026  -21.6
 0.130  0.5226  -88.2  15.236  133.5  0.0210   52.8  0.6939  -22.0
 0.135  0.5229  -90.7  14.963  132.1  0.0215   52.1  0.6853  -22.5
 0.140  0.5241  -93.2  14.698  130.6  0.0221   51.5  0.6767  -22.9
 0.145  0.5263  -95.7  14.443  129.1  0.0226   50.9  0.6682  -23.3
 0.150  0.5295  -98.1  14.198  127.6  0.0231   50.3  0.6597  -23.8
 0.155  0.5265  -99.9  13.954  126.8  0.0233   50.0  0.6533  -24.0
 0.160  0.5240 -101.7  13.713  126.0  0.0236   49.7  0.6470  -24.1
 0.165  0.5220 -103.5  13.475  125.1  0.0238   49.4  0.6406  -24.3
 0.170  0.5205 -105.3  13.240  124.3  0.0241   49.2  0.6343  -24.5
 0.175  0.5196 -107.1  13.008  123.4  0.0243   48.9  0.6279  -24.7
 0.180  0.5191 -108.9  12.780  122.4  0.0246   48.6  0.6216  -24.8
 0.185  0.5192 -110.7  12.555  121.4  0.0248   48.4  0.6153  -25.0
 0.190  0.5199 -112.6  12.334  120.4  0.0251   48.1  0.6089  -25.2
 0.195  0.5210 -114.4  12.117  119.4  0.0253   47.8  0.6026  -25.4
 0.200  0.5227 -116.2  11.904  118.3  0.0256   47.6  0.5963  -25.6
 0.220  0.5197 -121.3  11.147  115.7  0.0266   46.3  0.5783  -25.8
 0.240  0.5207 -126.4  10.415  112.8  0.0276   45.2  0.5603  -26.0
 0.260  0.5202 -130.9   9.780  110.3  0.0285   44.3  0.5449  -26.1
 0.280  0.5168 -134.9   9.230  108.2  0.0292   43.6  0.5320  -26.1
 0.300  0.5160 -138.9   8.693  105.9  0.0299   43.0  0.5191  -26.1
 0.320  0.5130 -141.7   8.297  104.5  0.0305   43.0  0.5111  -26.0
 0.340  0.5111 -144.5   7.906  103.0  0.0311   43.1  0.5031  -25.9
 0.360  0.5105 -147.3   7.522  101.3  0.0316   43.1  0.4952  -25.9
 0.380  0.5111 -150.1   7.145   99.4  0.0322   43.2  0.4872  -25.8
 0.400  0.5130 -152.9   6.776   97.3  0.0328   43.2  0.4792  -25.7
 0.420  0.5118 -155.0   6.515   96.2  0.0334   43.3  0.4749  -25.7
 0.440  0.5114 -157.2   6.257   95.1  0.0340   43.4  0.4706  -25.7
 0.450  0.5115 -158.3   6.129   94.5  0.0343   43.5  0.4685  -25.7
 0.460  0.5117 -159.3   6.001   93.8  0.0347   43.5  0.4664  -25.6
 0.480  0.5127 -161.5   5.749   92.5  0.0353   43.6  0.4621  -25.6
 0.500  0.5144 -163.6   5.500   91.0  0.0359   43.7  0.4578  -25.6
 0.520  0.5137 -165.2   5.329   90.1  0.0364   44.0  0.4553  -25.7
 0.540  0.5133 -166.8   5.159   89.1  0.0369   44.2  0.4527  -25.7
 0.560  0.5134 -168.4   4.991   88.1  0.0375   44.5  0.4502  -25.8
 0.580  0.5138 -170.0   4.825   87.0  0.0380   44.8  0.4476  -25.8
 0.600  0.5147 -171.6   4.660   85.8  0.0385   45.0  0.4451  -25.9
 0.620  0.5151 -172.9   4.522   85.0  0.0390   45.3  0.4433  -26.0
 0.640  0.5158 -174.3   4.385   84.2  0.0396   45.6  0.4414  -26.1
 0.660  0.5168 -175.6   4.249   83.3  0.0401   45.9  0.4396  -26.2
 0.680  0.5180 -176.9   4.115   82.3  0.0407   46.2  0.4377  -26.3
 0.700  0.5195 -178.2   3.981   81.3  0.0412   46.5  0.4359  -26.4
 0.720  0.5197 -179.4   3.888   80.6  0.0418   46.7  0.4348  -26.6
 0.740  0.5201  179.5   3.796   79.8  0.0425   47.0  0.4336  -26.8
 0.760  0.5208  178.3   3.705   79.0  0.0431   47.2  0.4325  -26.9
 0.780  0.5216  177.2   3.615   78.1  0.0438   47.4  0.4313  -27.1
 0.800  0.5227  176.0   3.525   77.2  0.0444   47.6  0.4302  -27.3
 0.820  0.5230  175.1   3.449   76.5  0.0451   47.8  0.4292  -27.5
 0.840  0.5235  174.1   3.374   75.9  0.0457   48.0  0.4283  -27.7
 0.860  0.5241  173.2   3.299   75.1  0.0464   48.2  0.4274  -28.0
 0.880  0.5248  172.2   3.225   74.4  0.0470   48.4  0.4264  -28.2
 0.900  0.5257  171.3   3.151   73.6  0.0477   48.6  0.4255  -28.4
 0.920  0.5257  170.3   3.087   72.9  0.0483   48.8  0.4248  -28.7
 0.940  0.5258  169.3   3.024   72.2  0.0489   48.9  0.4242  -28.9
 0.960  0.5260  168.4   2.962   71.5  0.0496   49.1  0.4235  -29.2
 0.980  0.5264  167.4   2.900   70.7  0.0502   49.2  0.4228  -29.4
 1.000  0.5270  166.4   2.838   69.9  0.0508   49.4  0.4222  -29.7
 1.020  0.5278  165.6   2.788   69.2  0.0516   49.6  0.4216  -30.0
 1.040  0.5287  164.7   2.739   68.6  0.0524   49.7  0.4211  -30.2
 1.060  0.5297  163.9   2.690   67.9  0.0531   49.9  0.4206  -30.5
 1.080  0.5309  163.0   2.642   67.2  0.0539   50.0  0.4200  -30.7
 1.100  0.5321  162.2   2.594   66.4  0.0547   50.2  0.4195  -31.0
 1.120  0.5327  161.4   2.550   65.8  0.0553   50.3  0.4190  -31.3
 1.140  0.5334  160.6   2.506   65.3  0.0559   50.3  0.4184  -31.6
 1.160  0.5342  159.8   2.462   64.7  0.0566   50.4  0.4179  -32.0
 1.180  0.5351  159.0   2.418   64.0  0.0572   50.4  0.4174  -32.3
 1.200  0.5361  158.2   2.375   63.4  0.0578   50.5  0.4169  -32.6
 1.220  0.5375  157.5   2.338   62.8  0.0585   50.6  0.4166  -32.9
 1.240  0.5390  156.8   2.300   62.1  0.0591   50.7  0.4164  -33.2
 1.260  0.5405  156.1   2.264   61.5  0.0598   50.7  0.4161  -33.6
 1.280  0.5421  155.5   2.227   60.8  0.0604   50.8  0.4159  -33.9
 1.300  0.5438  154.8   2.191   60.1  0.0611   50.9  0.4157  -34.2
 1.320  0.5445  154.0   2.161   59.6  0.0618   50.9  0.4151  -34.5
 1.340  0.5452  153.2   2.130   59.0  0.0625   51.0  0.4146  -34.9
 1.360  0.5461  152.4   2.100   58.4  0.0633   51.0  0.4140  -35.2
 1.380  0.5471  151.6   2.071   57.8  0.0640   51.1  0.4135  -35.6
 1.400  0.5482  150.8   2.041   57.2  0.0647   51.1  0.4130  -35.9
 1.420  0.5494  150.2   2.013   56.6  0.0654   51.1  0.4127  -36.2
 1.440  0.5507  149.6   1.985   55.9  0.0661   51.1  0.4125  -36.5
 1.460  0.5520  149.0   1.958   55.3  0.0668   51.0  0.4122  -36.9
 1.480  0.5534  148.4   1.931   54.6  0.0675   51.0  0.4120  -37.2
 1.500  0.5548  147.8   1.904   53.9  0.0682   51.0  0.4118  -37.5
 1.520  0.5549  147.0   1.881   53.3  0.0690   51.1  0.4115  -37.9
 1.540  0.5551  146.3   1.857   52.8  0.0697   51.1  0.4112  -38.2
 1.560  0.5554  145.5   1.834   52.2  0.0705   51.2  0.4110  -38.6
 1.580  0.5558  144.8   1.812   51.6  0.0712   51.2  0.4107  -38.9
 1.600  0.5563  144.0   1.789   51.0  0.0720   51.3  0.4105  -39.3
 1.620  0.5581  143.4   1.767   50.4  0.0727   51.2  0.4101  -39.7
 1.640  0.5600  142.7   1.746   49.9  0.0734   51.2  0.4096  -40.1
 1.660  0.5619  142.1   1.724   49.3  0.0741   51.1  0.4092  -40.5
 1.680  0.5639  141.5   1.703   48.7  0.0748   51.1  0.4089  -40.9
 1.700  0.5660  140.9   1.682   48.1  0.0755   51.0  0.4085  -41.3
 1.720  0.5666  140.3   1.663   47.6  0.0762   51.0  0.4081  -41.7
 1.740  0.5673  139.7   1.645   47.0  0.0769   50.9  0.4078  -42.1
 1.760  0.5680  139.1   1.626   46.5  0.0775   50.9  0.4074  -42.5
 1.780  0.5688  138.5   1.608   45.9  0.0782   50.8  0.4071  -42.9
 1.800  0.5697  137.9   1.590   45.3  0.0789   50.8  0.4068  -43.3
 1.820  0.5704  137.3   1.573   44.8  0.0798   50.6  0.4063  -43.7
 1.840  0.5711  136.7   1.556   44.3  0.0806   50.4  0.4059  -44.0
 1.860  0.5719  136.2   1.539   43.8  0.0815   50.2  0.4055  -44.4
 1.880  0.5727  135.6   1.523   43.2  0.0823   50.1  0.4051  -44.7
 1.900  0.5736  135.0   1.506   42.7  0.0832   49.9  0.4047  -45.1
 1.920  0.5745  134.4   1.489   42.1  0.0838   49.9  0.4045  -45.5
 1.940  0.5755  133.8   1.472   41.6  0.0844   49.9  0.4042  -45.9
 1.960  0.5766  133.1   1.456   41.0  0.0851   49.8  0.4040  -46.3
 1.980  0.5777  132.5   1.439   40.4  0.0857   49.8  0.4039  -46.7
 2.000  0.5789  131.9   1.423   39.8  0.0863   49.8  0.4037  -47.1
 2.020  0.5803  131.3   1.410   39.3  0.0870   49.7  0.4030  -47.5
 2.040  0.5817  130.8   1.396   38.8  0.0878   49.6  0.4024  -48.0
 2.060  0.5831  130.2   1.383   38.3  0.0885   49.5  0.4018  -48.4
 2.080  0.5847  129.7   1.370   37.8  0.0892   49.5  0.4012  -48.8
 2.100  0.5862  129.2   1.358   37.3  0.0899   49.4  0.4007  -49.3
 2.120  0.5879  128.6   1.345   36.7  0.0907   49.3  0.4001  -49.7
 2.140  0.5896  128.1   1.332   36.2  0.0914   49.2  0.3996  -50.2
 2.160  0.5913  127.6   1.320   35.6  0.0921   49.1  0.3991  -50.6
 2.180  0.5931  127.0   1.307   35.1  0.0929   49.1  0.3986  -51.1
 2.200  0.5949  126.5   1.295   34.5  0.0936   49.0  0.3982  -51.5
 2.220  0.5963  125.9   1.284   34.0  0.0943   48.9  0.3977  -51.9
 2.240  0.5977  125.4   1.272   33.6  0.0951   48.8  0.3973  -52.4
 2.260  0.5992  124.8   1.261   33.1  0.0958   48.7  0.3969  -52.8
 2.280  0.6007  124.2   1.250   32.6  0.0965   48.5  0.3965  -53.2
 2.300  0.6023  123.7   1.239   32.1  0.0972   48.4  0.3961  -53.6
 2.320  0.6039  123.1   1.228   31.6  0.0980   48.3  0.3957  -54.1
 2.340  0.6056  122.5   1.217   31.1  0.0987   48.2  0.3954  -54.5
 2.360  0.6074  122.0   1.206   30.6  0.0994   48.1  0.3951  -54.9
 2.380  0.6092  121.4   1.196   30.0  0.1002   48.0  0.3948  -55.4
 2.400  0.6111  120.9   1.185   29.5  0.1009   47.9  0.3945  -55.8
 2.420  0.6126  120.4   1.174   29.0  0.1016   47.8  0.3938  -56.2
 2.440  0.6141  119.9   1.164   28.6  0.1023   47.6  0.3931  -56.7
 2.460  0.6157  119.4   1.153   28.1  0.1029   47.5  0.3924  -57.1
 2.480  0.6174  118.9   1.143   27.6  0.1036   47.4  0.3918  -57.6
 2.500  0.6190  118.4   1.132   27.1  0.1043   47.2  0.3911  -58.0
 2.520  0.6208  117.9   1.122   26.6  0.1050   47.1  0.3905  -58.5
 2.540  0.6225  117.4   1.112   26.1  0.1057   47.0  0.3900  -58.9
 2.560  0.6243  117.0   1.102   25.6  0.1063   46.8  0.3894  -59.4
 2.580  0.6262  116.5   1.092   25.0  0.1070   46.7  0.3889  -59.8
 2.600  0.6281  116.0   1.082   24.5  0.1077   46.6  0.3884  -60.3
 2.620  0.6292  115.5   1.074   24.0  0.1083   46.4  0.3880  -60.8
 2.640  0.6302  115.1   1.066   23.5  0.1090   46.3  0.3877  -61.3
 2.660  0.6314  114.6   1.058   23.0  0.1096   46.1  0.3874  -61.7
 2.680  0.6325  114.2   1.050   22.6  0.1103   46.0  0.3871  -62.2
 2.700  0.6338  113.7   1.042   22.0  0.1109   45.8  0.3868  -62.7
 2.720  0.6350  113.3   1.035   21.5  0.1116   45.7  0.3866  -63.2
 2.740  0.6363  112.8   1.027   21.0  0.1122   45.5  0.3864  -63.7
 2.760  0.6376  112.4   1.020   20.5  0.1129   45.4  0.3862  -64.1
 2.780  0.6390  111.9   1.012   19.9  0.1135   45.2  0.3860  -64.6
 2.800  0.6404  111.5   1.005   19.4  0.1142   45.1  0.3859  -65.1
 2.820  0.6416  111.0   0.997   19.0  0.1149   45.0  0.3851  -65.6
 2.840  0.6429  110.5   0.990   18.6  0.1157   44.8  0.3843  -66.1
 2.860  0.6442  110.0   0.982   18.1  0.1164   44.7  0.3836  -66.6
 2.880  0.6456  109.6   0.975   17.7  0.1171   44.6  0.3829  -67.1
 2.900  0.6470  109.1   0.967   17.3  0.1178   44.5  0.3822  -67.6
 2.920  0.6484  108.6   0.960   16.8  0.1186   44.4  0.3815  -68.1
 2.940  0.6499  108.1   0.953   16.4  0.1193   44.2  0.3809  -68.6
 2.960  0.6515  107.6   0.945   15.9  0.1200   44.1  0.3803  -69.1
 2.980  0.6531  107.2   0.938   15.5  0.1208   44.0  0.3797  -69.6
 3.000  0.6547  106.7   0.931   15.0  0.1215   43.9  0.3792  -70.1
 3.100  0.6603  104.6   0.898   13.2  0.1249   43.1  0.3763  -72.7
 3.200  0.6668  102.6   0.866   11.2  0.1283   42.3  0.3742  -75.4
 3.300  0.6741  100.6   0.836    9.0  0.1318   41.6  0.3730  -78.1
 3.400  0.6822   98.7   0.806    6.8  0.1352   40.9  0.3725  -80.8
 3.500  0.6910   96.8   0.778    4.3  0.1387   40.3  0.3729  -83.5
 3.600  0.6965   95.1   0.754    2.7  0.1420   39.3  0.3702  -86.3
 3.700  0.7027   93.4   0.730    0.9  0.1454   38.4  0.3685  -89.2
 3.800  0.7094   91.8   0.707   -0.9  0.1487   37.5  0.3676  -92.1
 3.900  0.7167   90.2   0.685   -2.9  0.1522   36.7  0.3677  -95.0
 4.000  0.7245   88.6   0.664   -5.0  0.1556   35.9  0.3688  -97.9
 4.100  0.7281   87.1   0.644   -6.4  0.1586   35.0  0.3674 -100.9
 4.200  0.7323   85.6   0.624   -8.0  0.1617   34.1  0.3670 -103.9
 4.300  0.7369   84.1   0.604   -9.6  0.1649   33.2  0.3675 -106.9
 4.400  0.7420   82.6   0.585  -11.3  0.1680   32.4  0.3691 -109.9
 4.500  0.7476   81.2   0.567  -13.2  0.1712   31.6  0.3717 -112.8
 4.600  0.7509   80.0   0.552  -14.3  0.1742   30.7  0.3714 -115.7
 4.700  0.7545   78.7   0.537  -15.4  0.1773   29.9  0.3721 -118.7
 4.800  0.7585   77.5   0.522  -16.6  0.1805   29.1  0.3737 -121.6
 4.900  0.7628   76.3   0.508  -17.9  0.1836   28.3  0.3763 -124.5
 5.000  0.7675   75.1   0.494  -19.2  0.1868   27.6  0.3798 -127.3
 5.100  0.7702   74.0   0.480  -20.2  0.1902   26.6  0.3823 -130.1
 5.200  0.7732   72.9   0.467  -21.2  0.1936   25.7  0.3857 -132.8
 5.300  0.7765   71.8   0.454  -22.3  0.1970   24.8  0.3899 -135.5
 5.400  0.7800   70.8   0.441  -23.4  0.2005   23.9  0.3950 -138.1
 5.500  0.7838   69.7   0.428  -24.6  0.2041   23.1  0.4009 -140.7
 5.600  0.7867   68.6   0.418  -25.4  0.2069   22.1  0.4044 -143.3
 5.700  0.7898   67.6   0.408  -26.2  0.2098   21.1  0.4087 -145.8
 5.800  0.7932   66.6   0.398  -27.1  0.2128   20.1  0.4138 -148.3
 5.900  0.7968   65.5   0.389  -28.0  0.2158   19.1  0.4196 -150.7
 6.000  0.8007   64.5   0.379  -29.0  0.2189   18.2  0.4262 -153.0
!
!  f       NFmin   Gammaopt  rn/50
! GHz       dB    MAG  ANG    -
!
! noise parameter not available yet for this operation point!
!
! (c) 2016  Infineon Technologies AG, Munich
