! Infineon Technologies  Discrete & RF Semiconductors
! BFP183W
! VCE = 2.0 V,  IC =  3.0 mA
! Common Emitter S-Parameters:                            Jan 2016
# GHz  S  MA  R  50
!  f         S11            S21            S12            S22
! GHz     MAG   ANG      MAG   ANG      MAG   ANG      MAG   ANG
 0.010  0.8830   -2.5   9.826  177.7  0.0028   90.1  0.9952   -1.1
 0.015  0.8817   -3.7   9.852  177.3  0.0041   88.0  0.9928   -1.6
 0.020  0.8808   -5.0   9.878  177.0  0.0054   86.9  0.9904   -2.2
 0.025  0.8819   -6.4   9.893  176.2  0.0066   86.7  0.9916   -2.8
 0.030  0.8834   -7.7   9.909  175.4  0.0078   86.5  0.9930   -3.4
 0.035  0.8816   -8.9   9.889  174.6  0.0091   85.9  0.9916   -3.9
 0.040  0.8802  -10.0   9.872  173.8  0.0104   85.4  0.9902   -4.4
 0.045  0.8792  -11.2   9.856  173.0  0.0118   85.0  0.9890   -5.0
 0.050  0.8785  -12.4   9.842  172.2  0.0131   84.7  0.9878   -5.5
 0.055  0.8759  -13.6   9.814  171.4  0.0143   83.3  0.9856   -6.0
 0.060  0.8737  -14.8   9.787  170.7  0.0155   82.0  0.9836   -6.5
 0.065  0.8719  -16.0   9.762  169.9  0.0167   81.0  0.9816   -7.1
 0.070  0.8705  -17.2   9.739  169.2  0.0179   80.1  0.9797   -7.6
 0.075  0.8694  -18.4   9.718  168.4  0.0191   79.3  0.9779   -8.1
 0.080  0.8688  -19.6   9.698  167.6  0.0203   78.6  0.9761   -8.7
 0.085  0.8685  -20.9   9.681  166.8  0.0215   78.0  0.9745   -9.2
 0.090  0.8687  -22.1   9.665  166.1  0.0227   77.4  0.9729   -9.7
 0.095  0.8692  -23.3   9.650  165.3  0.0239   76.9  0.9714  -10.3
 0.100  0.8701  -24.5   9.638  164.5  0.0251   76.5  0.9700  -10.8
 0.105  0.8667  -25.7   9.605  163.7  0.0262   75.6  0.9671  -11.3
 0.110  0.8638  -26.9   9.573  163.0  0.0274   74.8  0.9642  -11.8
 0.115  0.8611  -28.0   9.543  162.2  0.0285   74.0  0.9615  -12.3
 0.120  0.8589  -29.2   9.515  161.4  0.0297   73.3  0.9588  -12.8
 0.125  0.8570  -30.4   9.489  160.7  0.0309   72.6  0.9562  -13.4
 0.130  0.8555  -31.6   9.464  159.9  0.0320   72.0  0.9536  -13.9
 0.135  0.8544  -32.9   9.442  159.1  0.0332   71.5  0.9512  -14.4
 0.140  0.8537  -34.1   9.421  158.3  0.0344   70.9  0.9488  -14.9
 0.145  0.8534  -35.3   9.401  157.5  0.0355   70.5  0.9465  -15.5
 0.150  0.8534  -36.5   9.384  156.7  0.0367   70.0  0.9443  -16.0
 0.155  0.8497  -37.6   9.336  156.0  0.0377   69.3  0.9406  -16.4
 0.160  0.8462  -38.7   9.290  155.4  0.0387   68.6  0.9370  -16.9
 0.165  0.8431  -39.8   9.245  154.7  0.0397   68.0  0.9335  -17.3
 0.170  0.8404  -41.0   9.202  154.0  0.0407   67.3  0.9300  -17.8
 0.175  0.8379  -42.1   9.159  153.3  0.0417   66.7  0.9265  -18.2
 0.180  0.8358  -43.3   9.119  152.6  0.0427   66.2  0.9232  -18.7
 0.185  0.8341  -44.4   9.079  151.9  0.0437   65.7  0.9198  -19.1
 0.190  0.8326  -45.6   9.041  151.1  0.0447   65.1  0.9166  -19.6
 0.195  0.8315  -46.7   9.004  150.4  0.0458   64.7  0.9133  -20.0
 0.200  0.8308  -47.9   8.969  149.7  0.0468   64.2  0.9102  -20.5
 0.220  0.8230  -52.0   8.794  147.3  0.0503   61.9  0.8950  -22.1
 0.240  0.8194  -56.1   8.636  144.8  0.0539   60.0  0.8805  -23.8
 0.260  0.8128  -60.1   8.459  142.3  0.0572   58.0  0.8653  -25.3
 0.280  0.8028  -63.9   8.261  139.9  0.0602   55.9  0.8492  -26.7
 0.300  0.7964  -67.8   8.079  137.3  0.0633   54.1  0.8336  -28.1
 0.320  0.7838  -71.1   7.887  135.4  0.0655   52.3  0.8184  -29.2
 0.340  0.7739  -74.5   7.703  133.5  0.0677   50.5  0.8036  -30.3
 0.360  0.7668  -77.9   7.530  131.4  0.0700   48.9  0.7890  -31.5
 0.380  0.7625  -81.5   7.366  129.2  0.0724   47.4  0.7748  -32.7
 0.400  0.7611  -85.0   7.213  127.0  0.0748   46.0  0.7609  -33.9
 0.420  0.7512  -87.7   7.037  125.4  0.0763   44.7  0.7480  -34.7
 0.440  0.7430  -90.5   6.867  123.8  0.0778   43.5  0.7352  -35.5
 0.450  0.7396  -91.9   6.784  122.9  0.0786   42.9  0.7288  -35.9
 0.460  0.7367  -93.4   6.703  122.0  0.0794   42.3  0.7225  -36.3
 0.480  0.7322  -96.3   6.546  120.2  0.0810   41.2  0.7100  -37.1
 0.500  0.7296  -99.2   6.395  118.3  0.0826   40.1  0.6977  -38.0
 0.520  0.7230 -101.5   6.250  117.0  0.0836   39.0  0.6871  -38.6
 0.540  0.7176 -103.9   6.108  115.7  0.0847   37.9  0.6766  -39.3
 0.560  0.7135 -106.3   5.970  114.2  0.0858   36.9  0.6662  -39.9
 0.580  0.7105 -108.7   5.835  112.8  0.0869   35.9  0.6559  -40.6
 0.600  0.7089 -111.1   5.705  111.2  0.0881   34.9  0.6457  -41.3
 0.620  0.7044 -113.1   5.587  110.1  0.0888   34.2  0.6373  -41.7
 0.640  0.7007 -115.0   5.472  108.9  0.0895   33.5  0.6289  -42.2
 0.660  0.6979 -117.1   5.359  107.8  0.0902   32.8  0.6205  -42.6
 0.680  0.6959 -119.1   5.248  106.5  0.0910   32.1  0.6122  -43.1
 0.700  0.6948 -121.1   5.140  105.2  0.0917   31.4  0.6039  -43.6
 0.720  0.6902 -122.8   5.033  104.2  0.0922   30.8  0.5971  -44.0
 0.740  0.6863 -124.5   4.927  103.1  0.0927   30.1  0.5904  -44.5
 0.760  0.6829 -126.3   4.823  102.0  0.0932   29.5  0.5837  -44.9
 0.780  0.6802 -128.0   4.720  100.9  0.0937   28.9  0.5770  -45.3
 0.800  0.6782 -129.8   4.620   99.7  0.0942   28.3  0.5704  -45.8
 0.820  0.6758 -131.3   4.535   98.8  0.0945   27.8  0.5649  -46.1
 0.840  0.6739 -132.8   4.452   97.9  0.0949   27.4  0.5593  -46.4
 0.860  0.6724 -134.3   4.370   97.0  0.0953   26.9  0.5538  -46.7
 0.880  0.6714 -135.8   4.289   96.0  0.0956   26.5  0.5484  -47.1
 0.900  0.6709 -137.3   4.209   95.0  0.0960   26.0  0.5429  -47.4
 0.920  0.6685 -138.6   4.133   94.2  0.0962   25.6  0.5389  -47.7
 0.940  0.6663 -139.8   4.058   93.4  0.0965   25.2  0.5349  -48.1
 0.960  0.6646 -141.1   3.983   92.6  0.0967   24.8  0.5309  -48.5
 0.980  0.6631 -142.4   3.910   91.7  0.0970   24.4  0.5269  -48.8
 1.000  0.6620 -143.7   3.837   90.8  0.0972   24.0  0.5230  -49.2
 1.020  0.6610 -144.8   3.779   90.0  0.0974   23.7  0.5197  -49.5
 1.040  0.6602 -146.0   3.722   89.3  0.0976   23.4  0.5164  -49.7
 1.060  0.6597 -147.1   3.666   88.5  0.0979   23.1  0.5131  -50.0
 1.080  0.6595 -148.3   3.610   87.6  0.0981   22.8  0.5098  -50.3
 1.100  0.6595 -149.4   3.555   86.8  0.0983   22.5  0.5065  -50.6
 1.120  0.6587 -150.5   3.500   86.1  0.0984   22.2  0.5038  -50.9
 1.140  0.6581 -151.6   3.445   85.4  0.0985   21.9  0.5011  -51.2
 1.160  0.6578 -152.8   3.391   84.7  0.0987   21.6  0.4984  -51.5
 1.180  0.6577 -153.9   3.338   84.0  0.0988   21.3  0.4957  -51.9
 1.200  0.6579 -155.0   3.285   83.2  0.0989   21.0  0.4931  -52.2
 1.220  0.6572 -156.0   3.240   82.5  0.0989   20.9  0.4907  -52.5
 1.240  0.6567 -156.9   3.195   81.9  0.0989   20.7  0.4884  -52.8
 1.260  0.6564 -157.9   3.151   81.2  0.0989   20.6  0.4860  -53.0
 1.280  0.6563 -158.8   3.107   80.4  0.0989   20.4  0.4837  -53.3
 1.300  0.6563 -159.8   3.064   79.7  0.0989   20.3  0.4814  -53.6
 1.320  0.6553 -160.6   3.024   79.1  0.0990   20.1  0.4798  -53.9
 1.340  0.6544 -161.4   2.985   78.4  0.0991   20.0  0.4783  -54.1
 1.360  0.6536 -162.3   2.946   77.8  0.0991   19.8  0.4768  -54.4
 1.380  0.6530 -163.1   2.907   77.1  0.0992   19.7  0.4752  -54.6
 1.400  0.6525 -163.9   2.869   76.4  0.0993   19.5  0.4737  -54.9
 1.420  0.6525 -164.7   2.834   75.8  0.0992   19.4  0.4716  -55.2
 1.440  0.6527 -165.6   2.799   75.3  0.0990   19.3  0.4696  -55.5
 1.460  0.6530 -166.4   2.764   74.7  0.0989   19.3  0.4675  -55.9
 1.480  0.6535 -167.3   2.730   74.1  0.0987   19.2  0.4655  -56.2
 1.500  0.6541 -168.1   2.696   73.5  0.0986   19.1  0.4635  -56.5
 1.520  0.6544 -168.9   2.665   72.9  0.0987   19.1  0.4622  -56.8
 1.540  0.6549 -169.7   2.635   72.3  0.0988   19.0  0.4609  -57.1
 1.560  0.6555 -170.5   2.605   71.6  0.0988   19.0  0.4597  -57.3
 1.580  0.6562 -171.3   2.575   71.0  0.0989   18.9  0.4584  -57.6
 1.600  0.6571 -172.1   2.546   70.3  0.0990   18.9  0.4572  -57.9
 1.620  0.6567 -172.8   2.518   69.8  0.0989   18.9  0.4560  -58.2
 1.640  0.6565 -173.6   2.490   69.3  0.0988   18.8  0.4548  -58.6
 1.660  0.6563 -174.3   2.463   68.8  0.0987   18.8  0.4537  -58.9
 1.680  0.6562 -175.1   2.435   68.2  0.0986   18.7  0.4525  -59.3
 1.700  0.6563 -175.8   2.408   67.7  0.0985   18.7  0.4514  -59.6
 1.720  0.6563 -176.5   2.382   67.1  0.0986   18.8  0.4506  -59.8
 1.740  0.6564 -177.1   2.357   66.6  0.0987   18.8  0.4499  -60.1
 1.760  0.6565 -177.8   2.332   66.0  0.0988   18.9  0.4491  -60.3
 1.780  0.6568 -178.4   2.307   65.4  0.0989   18.9  0.4483  -60.6
 1.800  0.6571 -179.1   2.282   64.8  0.0990   19.0  0.4476  -60.8
 1.820  0.6568 -179.8   2.259   64.3  0.0990   19.0  0.4473  -61.1
 1.840  0.6566  179.6   2.236   63.8  0.0989   19.0  0.4470  -61.4
 1.860  0.6565  178.9   2.214   63.2  0.0989   18.9  0.4467  -61.8
 1.880  0.6564  178.3   2.191   62.7  0.0988   18.9  0.4465  -62.1
 1.900  0.6565  177.6   2.169   62.1  0.0988   18.9  0.4462  -62.4
 1.920  0.6568  177.0   2.149   61.6  0.0988   18.9  0.4455  -62.7
 1.940  0.6572  176.4   2.129   61.1  0.0989   19.0  0.4448  -63.1
 1.960  0.6576  175.7   2.109   60.6  0.0989   19.0  0.4441  -63.4
 1.980  0.6582  175.1   2.089   60.0  0.0990   19.1  0.4434  -63.8
 2.000  0.6588  174.5   2.070   59.5  0.0990   19.1  0.4428  -64.1
 2.020  0.6590  174.0   2.052   59.0  0.0990   19.1  0.4425  -64.4
 2.040  0.6593  173.4   2.034   58.6  0.0990   19.2  0.4421  -64.8
 2.060  0.6597  172.9   2.016   58.1  0.0990   19.2  0.4418  -65.1
 2.080  0.6601  172.3   1.999   57.6  0.0990   19.3  0.4415  -65.4
 2.100  0.6605  171.8   1.981   57.1  0.0990   19.3  0.4412  -65.7
 2.120  0.6610  171.3   1.964   56.6  0.0990   19.3  0.4409  -66.1
 2.140  0.6616  170.7   1.947   56.1  0.0990   19.4  0.4407  -66.4
 2.160  0.6623  170.2   1.930   55.6  0.0990   19.4  0.4404  -66.7
 2.180  0.6629  169.6   1.913   55.0  0.0990   19.5  0.4402  -67.1
 2.200  0.6637  169.1   1.896   54.5  0.0990   19.5  0.4400  -67.4
 2.220  0.6639  168.5   1.880   54.1  0.0990   19.6  0.4397  -67.8
 2.240  0.6641  168.0   1.865   53.6  0.0991   19.7  0.4395  -68.2
 2.260  0.6644  167.4   1.850   53.1  0.0991   19.7  0.4393  -68.5
 2.280  0.6648  166.9   1.834   52.7  0.0992   19.8  0.4390  -68.9
 2.300  0.6652  166.3   1.819   52.2  0.0992   19.9  0.4389  -69.3
 2.320  0.6657  165.8   1.804   51.7  0.0992   20.0  0.4387  -69.7
 2.340  0.6662  165.2   1.790   51.2  0.0993   20.1  0.4385  -70.1
 2.360  0.6668  164.7   1.775   50.7  0.0993   20.1  0.4384  -70.4
 2.380  0.6675  164.1   1.760   50.2  0.0994   20.2  0.4383  -70.8
 2.400  0.6682  163.6   1.746   49.7  0.0994   20.3  0.4382  -71.2
 2.420  0.6683  163.1   1.733   49.3  0.0995   20.5  0.4380  -71.5
 2.440  0.6685  162.6   1.720   48.8  0.0995   20.6  0.4377  -71.9
 2.460  0.6687  162.1   1.706   48.4  0.0996   20.8  0.4375  -72.2
 2.480  0.6689  161.6   1.693   47.9  0.0996   20.9  0.4373  -72.6
 2.500  0.6692  161.1   1.681   47.4  0.0997   21.1  0.4371  -72.9
 2.520  0.6696  160.6   1.668   47.0  0.0998   21.3  0.4370  -73.3
 2.540  0.6700  160.1   1.655   46.5  0.0998   21.4  0.4368  -73.6
 2.560  0.6704  159.6   1.643   46.0  0.0999   21.6  0.4367  -74.0
 2.580  0.6709  159.1   1.630   45.5  0.0999   21.7  0.4366  -74.3
 2.600  0.6715  158.6   1.618   45.0  0.1000   21.9  0.4365  -74.7
 2.620  0.6721  158.1   1.607   44.6  0.1002   22.0  0.4364  -75.1
 2.640  0.6728  157.6   1.595   44.2  0.1003   22.1  0.4364  -75.5
 2.660  0.6736  157.1   1.584   43.7  0.1005   22.3  0.4363  -75.8
 2.680  0.6744  156.7   1.573   43.3  0.1006   22.4  0.4363  -76.2
 2.700  0.6752  156.2   1.562   42.8  0.1008   22.5  0.4363  -76.6
 2.720  0.6761  155.7   1.551   42.4  0.1010   22.6  0.4363  -77.0
 2.740  0.6770  155.2   1.540   41.9  0.1011   22.7  0.4364  -77.4
 2.760  0.6780  154.7   1.529   41.5  0.1013   22.9  0.4364  -77.7
 2.780  0.6790  154.3   1.519   41.0  0.1014   23.0  0.4365  -78.1
 2.800  0.6801  153.8   1.508   40.5  0.1016   23.1  0.4366  -78.5
 2.820  0.6806  153.4   1.498   40.1  0.1018   23.2  0.4368  -78.9
 2.840  0.6812  152.9   1.488   39.7  0.1020   23.4  0.4370  -79.3
 2.860  0.6818  152.5   1.478   39.2  0.1022   23.5  0.4372  -79.7
 2.880  0.6824  152.0   1.468   38.8  0.1024   23.6  0.4374  -80.1
 2.900  0.6831  151.6   1.458   38.4  0.1025   23.8  0.4377  -80.5
 2.920  0.6838  151.1   1.448   37.9  0.1027   23.9  0.4380  -80.9
 2.940  0.6846  150.7   1.438   37.5  0.1029   24.0  0.4383  -81.3
 2.960  0.6854  150.3   1.429   37.0  0.1031   24.1  0.4386  -81.7
 2.980  0.6862  149.8   1.419   36.6  0.1033   24.3  0.4389  -82.1
 3.000  0.6871  149.4   1.410   36.1  0.1035   24.4  0.4393  -82.5
 3.100  0.6898  147.2   1.368   34.1  0.1047   25.1  0.4397  -84.6
 3.200  0.6934  145.1   1.328   32.0  0.1060   25.8  0.4407  -86.6
 3.300  0.6984  143.0   1.288   30.0  0.1074   26.5  0.4430  -88.7
 3.400  0.7043  140.9   1.250   27.8  0.1089   27.2  0.4458  -90.7
 3.500  0.7089  139.0   1.215   25.9  0.1103   27.9  0.4470  -92.9
 3.600  0.7142  137.2   1.181   23.9  0.1118   28.5  0.4489  -95.1
 3.700  0.7164  135.3   1.146   22.0  0.1133   29.0  0.4518  -97.5
 3.800  0.7194  133.4   1.112   20.0  0.1149   29.5  0.4555  -99.8
 3.900  0.7246  131.7   1.083   18.2  0.1172   30.2  0.4586 -102.2
 4.000  0.7305  130.1   1.056   16.4  0.1195   30.9  0.4625 -104.5
 4.100  0.7328  128.6   1.029   14.8  0.1220   31.3  0.4656 -106.9
 4.200  0.7355  127.0   1.002   13.1  0.1246   31.7  0.4694 -109.4
 4.300  0.7388  125.5   0.977   11.4  0.1271   32.0  0.4741 -111.7
 4.400  0.7427  124.0   0.952    9.5  0.1297   32.4  0.4796 -114.0
 4.500  0.7470  122.5   0.929    7.6  0.1322   32.7  0.4859 -116.3
 4.600  0.7484  121.2   0.905    6.2  0.1352   32.9  0.4899 -118.7
 4.700  0.7501  120.0   0.882    4.8  0.1382   33.0  0.4947 -121.0
 4.800  0.7522  118.8   0.859    3.3  0.1413   33.2  0.5003 -123.2
 4.900  0.7546  117.5   0.837    1.7  0.1443   33.4  0.5066 -125.4
 5.000  0.7574  116.3   0.815    0.0  0.1473   33.5  0.5137 -127.6
 5.100  0.7585  115.3   0.796   -1.2  0.1507   33.4  0.5179 -129.7
 5.200  0.7598  114.4   0.778   -2.4  0.1541   33.3  0.5228 -131.8
 5.300  0.7613  113.4   0.760   -3.7  0.1576   33.2  0.5284 -133.9
 5.400  0.7631  112.5   0.742   -5.0  0.1610   33.2  0.5347 -135.9
 5.500  0.7650  111.5   0.725   -6.4  0.1644   33.1  0.5416 -137.9
 5.600  0.7654  110.5   0.710   -7.4  0.1681   32.9  0.5460 -139.7
 5.700  0.7660  109.5   0.694   -8.4  0.1718   32.7  0.5510 -141.6
 5.800  0.7669  108.4   0.679   -9.5  0.1755   32.5  0.5566 -143.3
 5.900  0.7680  107.4   0.664  -10.6  0.1792   32.4  0.5626 -145.1
 6.000  0.7694  106.4   0.650  -11.8  0.1829   32.2  0.5692 -146.8
!
!  f       NFmin   Gammaopt  rn/50
! GHz       dB    MAG  ANG    -
 0.450      1.10  0.37   35   0.30
 0.900      1.15  0.34   85   0.23
 1.800      1.90  0.35  160   0.13
!
! (c) 2016  Infineon Technologies AG, Munich
