! Infineon Technologies  Discrete & RF Semiconductors
! BFP181
! VCE = 2.5 V,  IC =  10 mA
! Common Emitter S-Parameters:                            Jan 2016
# GHz  S  MA  R  50
!  f         S11            S21            S12            S22
! GHz     MAG   ANG      MAG   ANG      MAG   ANG      MAG   ANG
 0.010  0.7318   -3.3  20.897  177.6  0.0013   82.2  0.9766   -1.0
 0.015  0.7324   -5.0  20.946  176.7  0.0020   82.1  0.9760   -1.6
 0.020  0.7336   -6.6  21.000  175.9  0.0027   82.0  0.9755   -2.2
 0.025  0.7311   -8.0  20.926  174.8  0.0034   84.0  0.9738   -2.8
 0.030  0.7290   -9.5  20.859  173.7  0.0041   85.3  0.9722   -3.4
 0.035  0.7274  -10.9  20.800  172.6  0.0048   86.2  0.9707   -4.0
 0.040  0.7263  -12.4  20.750  171.5  0.0056   86.9  0.9693   -4.6
 0.045  0.7257  -13.8  20.707  170.3  0.0063   87.4  0.9680   -5.2
 0.050  0.7255  -15.3  20.672  169.2  0.0070   87.8  0.9668   -5.8
 0.055  0.7210  -16.8  20.549  168.2  0.0075   85.5  0.9638   -6.3
 0.060  0.7170  -18.2  20.432  167.3  0.0080   83.5  0.9609   -6.8
 0.065  0.7134  -19.7  20.321  166.3  0.0085   81.8  0.9581   -7.4
 0.070  0.7103  -21.2  20.216  165.3  0.0090   80.2  0.9553   -7.9
 0.075  0.7078  -22.7  20.117  164.3  0.0095   78.8  0.9527   -8.4
 0.080  0.7057  -24.3  20.025  163.3  0.0101   77.6  0.9501   -8.9
 0.085  0.7041  -25.8  19.938  162.2  0.0106   76.5  0.9476   -9.5
 0.090  0.7030  -27.3  19.859  161.2  0.0111   75.5  0.9452  -10.0
 0.095  0.7025  -28.9  19.786  160.1  0.0117   74.5  0.9428  -10.6
 0.100  0.7024  -30.4  19.719  159.1  0.0122   73.7  0.9406  -11.1
 0.105  0.6968  -31.8  19.584  158.2  0.0128   73.0  0.9359  -11.5
 0.110  0.6916  -33.1  19.453  157.3  0.0133   72.3  0.9312  -12.0
 0.115  0.6867  -34.5  19.328  156.3  0.0139   71.7  0.9265  -12.4
 0.120  0.6823  -35.9  19.207  155.4  0.0145   71.1  0.9220  -12.8
 0.125  0.6783  -37.4  19.092  154.4  0.0150   70.5  0.9174  -13.3
 0.130  0.6748  -38.8  18.983  153.5  0.0156   70.1  0.9130  -13.7
 0.135  0.6716  -40.3  18.879  152.5  0.0162   69.6  0.9086  -14.2
 0.140  0.6689  -41.7  18.780  151.5  0.0168   69.2  0.9042  -14.7
 0.145  0.6667  -43.2  18.687  150.5  0.0173   68.8  0.8999  -15.1
 0.150  0.6649  -44.7  18.600  149.5  0.0179   68.4  0.8957  -15.6
 0.155  0.6595  -45.9  18.460  148.7  0.0183   67.9  0.8911  -16.0
 0.160  0.6543  -47.2  18.323  147.9  0.0188   67.4  0.8865  -16.3
 0.165  0.6495  -48.4  18.189  147.1  0.0192   66.9  0.8819  -16.7
 0.170  0.6450  -49.7  18.060  146.3  0.0196   66.5  0.8773  -17.0
 0.175  0.6409  -51.0  17.933  145.5  0.0200   66.1  0.8728  -17.4
 0.180  0.6370  -52.3  17.811  144.7  0.0205   65.7  0.8684  -17.8
 0.185  0.6335  -53.6  17.693  143.8  0.0209   65.3  0.8640  -18.1
 0.190  0.6304  -55.0  17.578  143.0  0.0213   64.9  0.8596  -18.5
 0.195  0.6276  -56.3  17.467  142.1  0.0218   64.5  0.8552  -18.9
 0.200  0.6251  -57.7  17.361  141.2  0.0222   64.2  0.8509  -19.3
 0.220  0.6086  -62.2  16.742  138.4  0.0235   62.5  0.8324  -20.4
 0.240  0.5960  -67.0  16.166  135.3  0.0248   60.9  0.8143  -21.5
 0.260  0.5830  -71.4  15.637  132.6  0.0261   59.5  0.7966  -22.5
 0.280  0.5685  -75.6  15.133  130.3  0.0274   58.2  0.7793  -23.3
 0.300  0.5572  -79.9  14.656  127.9  0.0288   57.1  0.7622  -24.1
 0.320  0.5420  -83.2  14.167  126.1  0.0297   56.2  0.7483  -24.6
 0.340  0.5286  -86.7  13.694  124.1  0.0306   55.3  0.7344  -25.1
 0.360  0.5173  -90.3  13.238  122.0  0.0315   54.4  0.7206  -25.7
 0.380  0.5081  -94.1  12.801  119.7  0.0324   53.6  0.7069  -26.2
 0.400  0.5013  -98.0  12.386  117.3  0.0333   52.9  0.6932  -26.8
 0.420  0.4902 -100.8  11.997  115.9  0.0340   52.3  0.6829  -27.1
 0.440  0.4803 -103.7  11.616  114.4  0.0347   51.7  0.6727  -27.3
 0.450  0.4758 -105.3  11.429  113.6  0.0350   51.4  0.6676  -27.5
 0.460  0.4717 -106.8  11.244  112.8  0.0354   51.2  0.6625  -27.6
 0.480  0.4645 -110.0  10.881  111.0  0.0361   50.6  0.6523  -27.9
 0.500  0.4588 -113.2  10.529  109.2  0.0368   50.1  0.6421  -28.2
 0.520  0.4515 -115.8  10.253  108.1  0.0375   49.9  0.6347  -28.3
 0.540  0.4452 -118.4   9.981  106.8  0.0382   49.6  0.6274  -28.5
 0.560  0.4399 -121.1   9.714  105.6  0.0389   49.4  0.6200  -28.6
 0.580  0.4355 -123.9   9.452  104.2  0.0396   49.2  0.6127  -28.8
 0.600  0.4322 -126.7   9.196  102.8  0.0403   49.0  0.6053  -28.9
 0.620  0.4266 -128.7   8.956  101.8  0.0408   48.9  0.5999  -29.0
 0.640  0.4216 -130.8   8.719  100.8  0.0414   48.8  0.5944  -29.1
 0.660  0.4171 -133.0   8.486   99.7  0.0419   48.7  0.5890  -29.3
 0.680  0.4132 -135.2   8.255   98.5  0.0425   48.6  0.5835  -29.4
 0.700  0.4100 -137.4   8.028   97.3  0.0430   48.5  0.5781  -29.5
 0.720  0.4069 -139.3   7.858   96.4  0.0435   48.4  0.5744  -29.6
 0.740  0.4043 -141.3   7.691   95.5  0.0441   48.3  0.5707  -29.7
 0.760  0.4022 -143.2   7.525   94.6  0.0446   48.3  0.5671  -29.7
 0.780  0.4006 -145.2   7.361   93.6  0.0452   48.2  0.5634  -29.8
 0.800  0.3994 -147.2   7.200   92.6  0.0457   48.1  0.5597  -29.9
 0.820  0.3973 -148.7   7.055   91.9  0.0464   48.1  0.5567  -30.0
 0.840  0.3955 -150.3   6.912   91.1  0.0471   48.1  0.5537  -30.2
 0.860  0.3940 -151.8   6.770   90.3  0.0477   48.2  0.5508  -30.3
 0.880  0.3927 -153.4   6.629   89.5  0.0484   48.2  0.5478  -30.5
 0.900  0.3918 -155.0   6.490   88.6  0.0491   48.2  0.5448  -30.6
 0.920  0.3903 -156.8   6.364   87.9  0.0495   48.3  0.5424  -30.7
 0.940  0.3892 -158.7   6.240   87.1  0.0499   48.3  0.5400  -30.8
 0.960  0.3884 -160.5   6.117   86.3  0.0504   48.4  0.5375  -30.9
 0.980  0.3881 -162.4   5.995   85.5  0.0508   48.4  0.5351  -31.0
 1.000  0.3882 -164.2   5.874   84.6  0.0512   48.5  0.5327  -31.1
 1.020  0.3874 -165.6   5.778   83.9  0.0518   48.5  0.5308  -31.3
 1.040  0.3869 -166.9   5.682   83.2  0.0525   48.5  0.5289  -31.4
 1.060  0.3866 -168.3   5.588   82.5  0.0531   48.5  0.5270  -31.6
 1.080  0.3865 -169.6   5.494   81.7  0.0538   48.5  0.5251  -31.7
 1.100  0.3866 -171.0   5.402   80.9  0.0544   48.5  0.5232  -31.9
 1.120  0.3859 -172.4   5.312   80.3  0.0550   48.5  0.5219  -32.1
 1.140  0.3853 -173.8   5.224   79.8  0.0556   48.5  0.5206  -32.3
 1.160  0.3851 -175.2   5.135   79.2  0.0561   48.4  0.5193  -32.4
 1.180  0.3850 -176.6   5.047   78.5  0.0567   48.4  0.5180  -32.6
 1.200  0.3852 -178.0   4.960   77.9  0.0573   48.4  0.5167  -32.8
 1.220  0.3854 -179.0   4.884   77.3  0.0579   48.5  0.5154  -33.0
 1.240  0.3857 -180.0   4.808   76.7  0.0584   48.5  0.5140  -33.1
 1.260  0.3862  179.1   4.733   76.0  0.0590   48.6  0.5127  -33.3
 1.280  0.3867  178.1   4.658   75.4  0.0595   48.6  0.5113  -33.4
 1.300  0.3874  177.1   4.584   74.7  0.0601   48.7  0.5100  -33.6
 1.320  0.3873  175.8   4.524   74.2  0.0607   48.8  0.5089  -33.8
 1.340  0.3874  174.5   4.464   73.6  0.0613   48.8  0.5078  -34.0
 1.360  0.3878  173.2   4.405   73.1  0.0619   48.9  0.5067  -34.1
 1.380  0.3883  171.9   4.346   72.5  0.0625   48.9  0.5057  -34.3
 1.400  0.3890  170.6   4.287   71.9  0.0631   49.0  0.5046  -34.5
 1.420  0.3898  169.7   4.231   71.3  0.0637   49.0  0.5037  -34.7
 1.440  0.3908  168.7   4.175   70.6  0.0643   48.9  0.5027  -34.9
 1.460  0.3918  167.8   4.119   70.0  0.0649   48.9  0.5018  -35.2
 1.480  0.3930  166.9   4.064   69.3  0.0655   48.8  0.5009  -35.4
 1.500  0.3942  166.0   4.010   68.6  0.0661   48.8  0.5000  -35.6
 1.520  0.3952  164.9   3.962   68.1  0.0667   48.8  0.4993  -35.8
 1.540  0.3963  163.9   3.913   67.6  0.0673   48.8  0.4986  -36.0
 1.560  0.3976  162.8   3.866   67.0  0.0679   48.7  0.4979  -36.2
 1.580  0.3990  161.7   3.818   66.5  0.0685   48.7  0.4972  -36.4
 1.600  0.4005  160.7   3.771   65.9  0.0691   48.7  0.4965  -36.6
 1.620  0.4003  159.7   3.725   65.4  0.0697   48.6  0.4956  -36.9
 1.640  0.4002  158.8   3.680   64.9  0.0703   48.6  0.4947  -37.2
 1.660  0.4003  157.8   3.634   64.3  0.0709   48.5  0.4939  -37.4
 1.680  0.4004  156.9   3.590   63.8  0.0715   48.5  0.4930  -37.7
 1.700  0.4007  155.9   3.545   63.2  0.0721   48.4  0.4922  -38.0
 1.720  0.4027  155.1   3.507   62.7  0.0727   48.4  0.4913  -38.2
 1.740  0.4048  154.4   3.470   62.2  0.0733   48.4  0.4905  -38.5
 1.760  0.4070  153.7   3.432   61.6  0.0738   48.4  0.4897  -38.7
 1.780  0.4092  152.9   3.396   61.1  0.0744   48.4  0.4888  -39.0
 1.800  0.4115  152.2   3.359   60.5  0.0750   48.4  0.4880  -39.2
 1.820  0.4123  151.4   3.324   60.0  0.0756   48.2  0.4874  -39.5
 1.840  0.4131  150.6   3.288   59.6  0.0763   48.0  0.4868  -39.7
 1.860  0.4140  149.8   3.253   59.1  0.0769   47.9  0.4862  -40.0
 1.880  0.4150  149.1   3.219   58.6  0.0776   47.7  0.4856  -40.2
 1.900  0.4161  148.3   3.184   58.1  0.0782   47.5  0.4850  -40.5
 1.920  0.4175  147.3   3.149   57.6  0.0788   47.5  0.4843  -40.8
 1.940  0.4190  146.4   3.115   57.1  0.0794   47.5  0.4837  -41.0
 1.960  0.4207  145.5   3.081   56.6  0.0801   47.4  0.4831  -41.3
 1.980  0.4224  144.5   3.047   56.1  0.0807   47.4  0.4824  -41.5
 2.000  0.4243  143.6   3.013   55.6  0.0813   47.4  0.4818  -41.8
 2.020  0.4253  142.9   2.985   55.1  0.0819   47.3  0.4810  -42.1
 2.040  0.4264  142.2   2.958   54.7  0.0825   47.3  0.4803  -42.4
 2.060  0.4276  141.5   2.931   54.2  0.0831   47.2  0.4796  -42.7
 2.080  0.4288  140.7   2.904   53.7  0.0837   47.1  0.4789  -42.9
 2.100  0.4300  140.0   2.877   53.2  0.0843   47.0  0.4781  -43.2
 2.120  0.4314  139.3   2.851   52.7  0.0849   47.0  0.4775  -43.5
 2.140  0.4328  138.7   2.824   52.2  0.0855   46.9  0.4768  -43.8
 2.160  0.4343  138.0   2.798   51.7  0.0861   46.8  0.4761  -44.1
 2.180  0.4358  137.3   2.773   51.1  0.0867   46.8  0.4754  -44.4
 2.200  0.4374  136.6   2.747   50.6  0.0873   46.7  0.4748  -44.7
 2.220  0.4389  135.9   2.724   50.2  0.0879   46.6  0.4741  -45.0
 2.240  0.4404  135.2   2.700   49.7  0.0886   46.4  0.4734  -45.3
 2.260  0.4420  134.5   2.677   49.3  0.0892   46.3  0.4728  -45.6
 2.280  0.4436  133.8   2.654   48.9  0.0899   46.2  0.4722  -45.9
 2.300  0.4453  133.1   2.631   48.4  0.0905   46.0  0.4715  -46.2
 2.320  0.4471  132.4   2.609   47.9  0.0911   45.9  0.4709  -46.6
 2.340  0.4490  131.7   2.586   47.5  0.0918   45.8  0.4703  -46.9
 2.360  0.4509  131.0   2.564   47.0  0.0924   45.6  0.4697  -47.2
 2.380  0.4529  130.4   2.542   46.5  0.0931   45.5  0.4692  -47.5
 2.400  0.4549  129.7   2.520   46.0  0.0937   45.4  0.4686  -47.8
 2.420  0.4568  129.1   2.499   45.6  0.0942   45.3  0.4676  -48.1
 2.440  0.4587  128.5   2.479   45.1  0.0948   45.2  0.4667  -48.4
 2.460  0.4607  127.9   2.459   44.7  0.0953   45.1  0.4657  -48.7
 2.480  0.4627  127.4   2.439   44.3  0.0959   45.0  0.4648  -49.1
 2.500  0.4647  126.8   2.419   43.8  0.0964   44.9  0.4639  -49.4
 2.520  0.4668  126.2   2.399   43.3  0.0970   44.8  0.4630  -49.7
 2.540  0.4690  125.7   2.379   42.9  0.0975   44.7  0.4621  -50.0
 2.560  0.4712  125.1   2.360   42.4  0.0981   44.6  0.4613  -50.4
 2.580  0.4734  124.5   2.340   41.9  0.0986   44.5  0.4604  -50.7
 2.600  0.4757  124.0   2.321   41.4  0.0992   44.4  0.4596  -51.0
 2.620  0.4773  123.5   2.303   41.0  0.0998   44.3  0.4590  -51.3
 2.640  0.4789  122.9   2.285   40.5  0.1004   44.1  0.4585  -51.7
 2.660  0.4806  122.4   2.267   40.1  0.1010   44.0  0.4579  -52.0
 2.680  0.4823  121.8   2.250   39.6  0.1016   43.9  0.4574  -52.4
 2.700  0.4840  121.3   2.232   39.1  0.1022   43.7  0.4569  -52.7
 2.720  0.4858  120.8   2.215   38.7  0.1028   43.6  0.4564  -53.0
 2.740  0.4877  120.2   2.198   38.2  0.1034   43.5  0.4559  -53.4
 2.760  0.4895  119.7   2.181   37.7  0.1040   43.3  0.4555  -53.7
 2.780  0.4914  119.2   2.164   37.2  0.1046   43.2  0.4550  -54.1
 2.800  0.4934  118.7   2.147   36.7  0.1052   43.1  0.4546  -54.4
 2.820  0.4951  118.1   2.132   36.3  0.1058   43.0  0.4537  -54.7
 2.840  0.4968  117.6   2.118   35.9  0.1063   42.9  0.4528  -55.1
 2.860  0.4985  117.0   2.103   35.5  0.1069   42.8  0.4519  -55.4
 2.880  0.5003  116.5   2.088   35.1  0.1074   42.6  0.4511  -55.7
 2.900  0.5022  115.9   2.074   34.7  0.1080   42.5  0.4502  -56.1
 2.920  0.5041  115.4   2.060   34.2  0.1086   42.4  0.4494  -56.4
 2.940  0.5060  114.9   2.046   33.8  0.1091   42.3  0.4486  -56.8
 2.960  0.5080  114.3   2.032   33.4  0.1097   42.2  0.4478  -57.1
 2.980  0.5100  113.8   2.018   32.9  0.1102   42.1  0.4470  -57.5
 3.000  0.5121  113.3   2.004   32.5  0.1108   42.0  0.4462  -57.8
 3.100  0.5204  110.9   1.939   30.7  0.1136   41.3  0.4424  -59.7
 3.200  0.5295  108.7   1.876   28.7  0.1165   40.6  0.4390  -61.6
 3.300  0.5395  106.5   1.816   26.6  0.1194   39.9  0.4362  -63.5
 3.400  0.5502  104.3   1.758   24.4  0.1223   39.3  0.4338  -65.4
 3.500  0.5616  102.3   1.703   22.0  0.1252   38.7  0.4320  -67.4
 3.600  0.5693  100.4   1.654   20.3  0.1279   37.9  0.4281  -69.4
 3.700  0.5777   98.6   1.606   18.4  0.1307   37.1  0.4247  -71.5
 3.800  0.5866   96.8   1.560   16.5  0.1335   36.3  0.4218  -73.6
 3.900  0.5960   95.1   1.516   14.4  0.1363   35.6  0.4196  -75.7
 4.000  0.6060   93.4   1.474   12.2  0.1391   34.9  0.4179  -77.9
 4.100  0.6115   91.8   1.434   10.5  0.1416   34.1  0.4146  -80.1
 4.200  0.6175   90.2   1.394    8.7  0.1441   33.3  0.4120  -82.4
 4.300  0.6240   88.7   1.357    6.9  0.1466   32.5  0.4100  -84.7
 4.400  0.6309   87.2   1.321    4.9  0.1491   31.8  0.4086  -87.1
 4.500  0.6382   85.7   1.286    2.8  0.1517   31.1  0.4080  -89.4
 4.600  0.6446   84.5   1.255    1.4  0.1542   30.4  0.4057  -91.7
 4.700  0.6512   83.3   1.225   -0.2  0.1566   29.7  0.4040  -94.0
 4.800  0.6582   82.1   1.196   -1.8  0.1591   29.0  0.4030  -96.3
 4.900  0.6654   80.9   1.167   -3.4  0.1617   28.3  0.4026  -98.6
 5.000  0.6729   79.8   1.140   -5.2  0.1642   27.7  0.4029 -100.9
 5.100  0.6770   78.6   1.114   -6.7  0.1671   26.9  0.4032 -103.3
 5.200  0.6813   77.5   1.088   -8.3  0.1701   26.1  0.4042 -105.7
 5.300  0.6859   76.3   1.064   -9.9  0.1731   25.4  0.4059 -108.0
 5.400  0.6908   75.2   1.040  -11.6  0.1761   24.7  0.4082 -110.4
 5.500  0.6959   74.1   1.017  -13.4  0.1791   24.0  0.4113 -112.7
 5.600  0.7015   73.0   0.996  -14.8  0.1816   23.1  0.4125 -115.1
 5.700  0.7073   72.0   0.975  -16.3  0.1841   22.3  0.4143 -117.5
 5.800  0.7134   70.9   0.955  -17.8  0.1867   21.5  0.4169 -119.9
 5.900  0.7197   69.9   0.936  -19.4  0.1893   20.7  0.4202 -122.2
 6.000  0.7262   68.9   0.917  -21.1  0.1920   19.9  0.4242 -124.5
!
!  f       NFmin   Gammaopt  rn/50
! GHz       dB    MAG  ANG    -
!
! noise parameter not available yet for this operation point!
!
! (c) 2016  Infineon Technologies AG, Munich
