! Infineon Technologies  Discrete & RF Semiconductors
! BFP181
! VCE = 0.50V,  IC =  8.0 mA
! Common Emitter S-Parameters:                            Jan 2016
# GHz  S  MA  R  50
!  f         S11            S21            S12            S22
! GHz     MAG   ANG      MAG   ANG      MAG   ANG      MAG   ANG
 0.010  0.7345   -6.4  16.032  176.4  0.0031   85.9  0.8855   -2.4
 0.015  0.7359   -9.3  16.018  174.7  0.0049   82.1  0.8838   -3.7
 0.020  0.7391  -12.1  16.019  173.0  0.0067   80.3  0.8825   -5.1
 0.025  0.7318  -14.9  15.884  171.2  0.0083   78.9  0.8767   -6.3
 0.030  0.7263  -17.7  15.766  169.3  0.0099   77.9  0.8712   -7.5
 0.035  0.7226  -20.6  15.664  167.5  0.0115   77.2  0.8661   -8.7
 0.040  0.7207  -23.4  15.579  165.6  0.0131   76.6  0.8615  -10.0
 0.045  0.7206  -26.3  15.512  163.6  0.0147   76.2  0.8572  -11.2
 0.050  0.7223  -29.2  15.462  161.7  0.0163   75.9  0.8534  -12.5
 0.055  0.7109  -31.7  15.238  160.3  0.0175   73.6  0.8445  -13.4
 0.060  0.7008  -34.2  15.023  158.9  0.0188   71.5  0.8359  -14.4
 0.065  0.6922  -36.8  14.817  157.4  0.0200   69.7  0.8275  -15.3
 0.070  0.6850  -39.4  14.622  155.9  0.0213   68.2  0.8194  -16.3
 0.075  0.6793  -42.1  14.437  154.3  0.0226   66.8  0.8114  -17.3
 0.080  0.6751  -44.9  14.264  152.7  0.0239   65.5  0.8038  -18.3
 0.085  0.6725  -47.6  14.101  151.1  0.0252   64.4  0.7964  -19.4
 0.090  0.6715  -50.4  13.950  149.4  0.0265   63.4  0.7892  -20.4
 0.095  0.6720  -53.2  13.811  147.7  0.0279   62.5  0.7824  -21.5
 0.100  0.6742  -56.0  13.685  146.0  0.0292   61.7  0.7758  -22.6
 0.105  0.6658  -58.0  13.477  144.9  0.0300   60.6  0.7661  -23.2
 0.110  0.6582  -60.1  13.274  143.7  0.0308   59.5  0.7565  -23.8
 0.115  0.6515  -62.2  13.077  142.6  0.0317   58.5  0.7469  -24.4
 0.120  0.6457  -64.3  12.885  141.4  0.0325   57.5  0.7375  -25.1
 0.125  0.6408  -66.5  12.699  140.1  0.0334   56.6  0.7281  -25.7
 0.130  0.6368  -68.7  12.519  138.8  0.0343   55.7  0.7189  -26.4
 0.135  0.6338  -70.9  12.346  137.5  0.0351   54.9  0.7097  -27.1
 0.140  0.6317  -73.2  12.180  136.1  0.0360   54.1  0.7007  -27.8
 0.145  0.6307  -75.4  12.021  134.7  0.0369   53.3  0.6917  -28.6
 0.150  0.6306  -77.7  11.869  133.3  0.0378   52.6  0.6829  -29.3
 0.155  0.6246  -79.4  11.692  132.4  0.0383   51.9  0.6754  -29.7
 0.160  0.6191  -81.1  11.519  131.6  0.0388   51.3  0.6678  -30.1
 0.165  0.6141  -82.9  11.348  130.7  0.0394   50.7  0.6603  -30.5
 0.170  0.6098  -84.6  11.179  129.7  0.0399   50.1  0.6529  -30.9
 0.175  0.6061  -86.4  11.014  128.8  0.0404   49.5  0.6455  -31.3
 0.180  0.6029  -88.3  10.852  127.8  0.0410   48.9  0.6381  -31.7
 0.185  0.6004  -90.1  10.694  126.7  0.0415   48.4  0.6307  -32.1
 0.190  0.5985  -92.0  10.539  125.7  0.0421   47.8  0.6234  -32.6
 0.195  0.5972  -93.8  10.388  124.6  0.0426   47.3  0.6161  -33.0
 0.200  0.5966  -95.7  10.240  123.5  0.0432   46.8  0.6089  -33.5
 0.220  0.5809 -101.3   9.641  120.7  0.0446   44.7  0.5838  -34.4
 0.240  0.5711 -107.1   9.068  117.5  0.0461   42.8  0.5588  -35.5
 0.260  0.5629 -112.3   8.570  114.8  0.0475   41.4  0.5369  -36.2
 0.280  0.5542 -116.7   8.134  112.5  0.0488   40.4  0.5179  -36.8
 0.300  0.5490 -121.2   7.711  110.0  0.0501   39.5  0.4990  -37.3
 0.320  0.5409 -124.5   7.377  108.4  0.0508   38.9  0.4868  -37.5
 0.340  0.5346 -127.9   7.049  106.7  0.0516   38.3  0.4745  -37.6
 0.360  0.5302 -131.3   6.728  104.8  0.0524   37.7  0.4623  -37.8
 0.380  0.5277 -134.8   6.415  102.8  0.0531   37.1  0.4500  -38.0
 0.400  0.5272 -138.3   6.111  100.5  0.0539   36.6  0.4378  -38.2
 0.420  0.5224 -140.8   5.878   99.3  0.0546   36.3  0.4299  -38.3
 0.440  0.5186 -143.3   5.649   98.0  0.0553   35.9  0.4220  -38.3
 0.450  0.5171 -144.6   5.535   97.3  0.0556   35.8  0.4180  -38.3
 0.460  0.5158 -145.9   5.422   96.6  0.0559   35.6  0.4140  -38.4
 0.480  0.5141 -148.5   5.199   95.1  0.0566   35.3  0.4061  -38.4
 0.500  0.5134 -151.1   4.980   93.4  0.0573   35.0  0.3982  -38.5
 0.520  0.5116 -153.1   4.827   92.4  0.0579   35.0  0.3930  -38.5
 0.540  0.5103 -155.1   4.676   91.3  0.0584   34.9  0.3878  -38.6
 0.560  0.5097 -157.1   4.527   90.1  0.0590   34.9  0.3825  -38.6
 0.580  0.5098 -159.1   4.380   88.8  0.0595   34.8  0.3773  -38.7
 0.600  0.5104 -161.1   4.235   87.5  0.0601   34.8  0.3721  -38.7
 0.620  0.5093 -162.7   4.115   86.6  0.0606   34.9  0.3687  -38.8
 0.640  0.5086 -164.3   3.995   85.7  0.0611   35.0  0.3653  -38.8
 0.660  0.5083 -166.0   3.877   84.7  0.0615   35.1  0.3620  -38.9
 0.680  0.5084 -167.6   3.760   83.7  0.0620   35.2  0.3586  -38.9
 0.700  0.5089 -169.2   3.644   82.6  0.0625   35.3  0.3552  -39.0
 0.720  0.5079 -170.5   3.561   81.8  0.0631   35.4  0.3530  -39.1
 0.740  0.5072 -171.7   3.478   81.0  0.0637   35.5  0.3507  -39.2
 0.760  0.5067 -173.0   3.396   80.1  0.0644   35.5  0.3485  -39.3
 0.780  0.5064 -174.2   3.315   79.2  0.0650   35.6  0.3462  -39.4
 0.800  0.5064 -175.5   3.235   78.2  0.0656   35.7  0.3440  -39.5
 0.820  0.5067 -176.7   3.166   77.5  0.0663   35.8  0.3427  -39.7
 0.840  0.5073 -177.9   3.098   76.7  0.0670   35.9  0.3413  -39.8
 0.860  0.5080 -179.1   3.031   75.9  0.0678   35.9  0.3400  -40.0
 0.880  0.5090  179.7   2.964   75.1  0.0685   36.0  0.3386  -40.1
 0.900  0.5102  178.5   2.898   74.2  0.0692   36.1  0.3373  -40.3
 0.920  0.5104  177.3   2.838   73.5  0.0697   36.2  0.3357  -40.5
 0.940  0.5108  176.2   2.778   72.7  0.0703   36.3  0.3341  -40.7
 0.960  0.5114  175.0   2.718   71.9  0.0708   36.5  0.3325  -40.9
 0.980  0.5122  173.9   2.659   71.1  0.0714   36.6  0.3309  -41.1
 1.000  0.5132  172.7   2.601   70.2  0.0719   36.7  0.3293  -41.3
 1.020  0.5133  171.7   2.556   69.5  0.0726   36.8  0.3282  -41.6
 1.040  0.5135  170.6   2.511   68.8  0.0733   36.9  0.3271  -41.8
 1.060  0.5139  169.6   2.467   68.0  0.0740   36.9  0.3260  -42.1
 1.080  0.5145  168.5   2.423   67.2  0.0747   37.0  0.3249  -42.3
 1.100  0.5152  167.5   2.380   66.4  0.0754   37.1  0.3238  -42.6
 1.120  0.5153  166.6   2.339   65.8  0.0761   37.1  0.3227  -42.9
 1.140  0.5155  165.7   2.299   65.2  0.0768   37.2  0.3217  -43.2
 1.160  0.5158  164.9   2.259   64.6  0.0774   37.2  0.3206  -43.4
 1.180  0.5162  164.0   2.219   64.0  0.0781   37.3  0.3195  -43.7
 1.200  0.5168  163.1   2.180   63.3  0.0788   37.3  0.3185  -44.0
 1.220  0.5175  162.4   2.147   62.6  0.0794   37.4  0.3178  -44.3
 1.240  0.5183  161.6   2.113   62.0  0.0800   37.5  0.3172  -44.6
 1.260  0.5192  160.9   2.081   61.3  0.0805   37.6  0.3165  -45.0
 1.280  0.5201  160.1   2.048   60.5  0.0811   37.7  0.3158  -45.3
 1.300  0.5212  159.4   2.016   59.8  0.0817   37.8  0.3152  -45.6
 1.320  0.5217  158.5   1.989   59.2  0.0825   37.8  0.3144  -45.9
 1.340  0.5224  157.7   1.961   58.6  0.0833   37.8  0.3136  -46.3
 1.360  0.5231  156.8   1.934   58.0  0.0841   37.8  0.3129  -46.6
 1.380  0.5240  156.0   1.908   57.4  0.0849   37.8  0.3121  -47.0
 1.400  0.5250  155.1   1.881   56.7  0.0857   37.8  0.3114  -47.3
 1.420  0.5260  154.4   1.856   56.0  0.0863   37.9  0.3111  -47.6
 1.440  0.5270  153.7   1.832   55.3  0.0869   37.9  0.3108  -47.8
 1.460  0.5282  152.9   1.808   54.6  0.0876   38.0  0.3105  -48.1
 1.480  0.5294  152.2   1.784   53.9  0.0882   38.0  0.3102  -48.3
 1.500  0.5307  151.5   1.761   53.1  0.0888   38.1  0.3099  -48.6
 1.520  0.5314  150.7   1.741   52.6  0.0896   38.1  0.3096  -49.0
 1.540  0.5321  149.9   1.721   52.0  0.0903   38.1  0.3093  -49.4
 1.560  0.5330  149.0   1.701   51.5  0.0911   38.2  0.3091  -49.7
 1.580  0.5340  148.2   1.681   50.9  0.0918   38.2  0.3088  -50.1
 1.600  0.5351  147.4   1.661   50.3  0.0926   38.2  0.3086  -50.5
 1.620  0.5364  146.7   1.641   49.7  0.0932   38.1  0.3084  -50.9
 1.640  0.5378  146.0   1.621   49.0  0.0938   38.1  0.3081  -51.2
 1.660  0.5393  145.3   1.602   48.4  0.0944   38.0  0.3079  -51.6
 1.680  0.5408  144.7   1.582   47.7  0.0950   38.0  0.3077  -51.9
 1.700  0.5424  144.0   1.563   47.0  0.0956   37.9  0.3075  -52.3
 1.720  0.5435  143.3   1.545   46.4  0.0963   37.9  0.3072  -52.7
 1.740  0.5447  142.7   1.527   45.9  0.0971   37.9  0.3069  -53.2
 1.760  0.5460  142.0   1.509   45.3  0.0978   37.9  0.3067  -53.6
 1.780  0.5474  141.4   1.491   44.7  0.0986   37.9  0.3064  -54.1
 1.800  0.5488  140.7   1.473   44.1  0.0993   37.9  0.3062  -54.5
 1.820  0.5497  140.1   1.457   43.6  0.1000   37.8  0.3054  -54.9
 1.840  0.5506  139.5   1.441   43.1  0.1007   37.7  0.3047  -55.3
 1.860  0.5516  138.8   1.426   42.5  0.1015   37.6  0.3039  -55.6
 1.880  0.5527  138.2   1.410   42.0  0.1022   37.5  0.3032  -56.0
 1.900  0.5538  137.6   1.395   41.4  0.1029   37.4  0.3025  -56.4
 1.920  0.5547  136.9   1.380   40.8  0.1036   37.4  0.3024  -56.9
 1.940  0.5558  136.2   1.364   40.3  0.1044   37.4  0.3024  -57.3
 1.960  0.5569  135.4   1.349   39.7  0.1051   37.4  0.3024  -57.8
 1.980  0.5581  134.7   1.334   39.1  0.1059   37.4  0.3024  -58.2
 2.000  0.5594  134.0   1.319   38.5  0.1066   37.4  0.3024  -58.7
 2.020  0.5606  133.4   1.307   38.0  0.1073   37.3  0.3017  -59.2
 2.040  0.5619  132.9   1.296   37.5  0.1080   37.2  0.3010  -59.7
 2.060  0.5632  132.3   1.285   36.9  0.1088   37.1  0.3003  -60.2
 2.080  0.5646  131.8   1.274   36.4  0.1095   37.0  0.2996  -60.7
 2.100  0.5660  131.2   1.263   35.9  0.1102   36.9  0.2990  -61.2
 2.120  0.5675  130.7   1.252   35.3  0.1109   36.8  0.2984  -61.7
 2.140  0.5690  130.1   1.241   34.8  0.1116   36.8  0.2978  -62.2
 2.160  0.5706  129.6   1.230   34.2  0.1124   36.7  0.2973  -62.7
 2.180  0.5722  129.0   1.219   33.6  0.1131   36.6  0.2967  -63.2
 2.200  0.5739  128.5   1.209   33.0  0.1138   36.5  0.2962  -63.7
 2.220  0.5752  127.9   1.198   32.5  0.1145   36.4  0.2957  -64.2
 2.240  0.5765  127.3   1.187   32.0  0.1153   36.3  0.2952  -64.7
 2.260  0.5779  126.8   1.177   31.5  0.1160   36.2  0.2948  -65.2
 2.280  0.5793  126.2   1.166   31.0  0.1167   36.1  0.2944  -65.6
 2.300  0.5808  125.6   1.156   30.5  0.1174   36.0  0.2940  -66.1
 2.320  0.5824  125.0   1.145   29.9  0.1182   35.9  0.2936  -66.6
 2.340  0.5840  124.5   1.135   29.4  0.1189   35.8  0.2932  -67.1
 2.360  0.5857  123.9   1.125   28.8  0.1196   35.7  0.2929  -67.6
 2.380  0.5874  123.4   1.115   28.3  0.1204   35.6  0.2926  -68.1
 2.400  0.5892  122.8   1.105   27.7  0.1211   35.5  0.2923  -68.6
 2.420  0.5904  122.3   1.096   27.2  0.1217   35.4  0.2918  -69.1
 2.440  0.5917  121.7   1.087   26.8  0.1223   35.3  0.2914  -69.5
 2.460  0.5931  121.2   1.078   26.3  0.1230   35.2  0.2909  -70.0
 2.480  0.5944  120.7   1.069   25.8  0.1236   35.0  0.2905  -70.5
 2.500  0.5959  120.2   1.060   25.3  0.1242   34.9  0.2901  -71.0
 2.520  0.5974  119.6   1.052   24.8  0.1248   34.8  0.2898  -71.5
 2.540  0.5989  119.1   1.043   24.3  0.1254   34.7  0.2894  -71.9
 2.560  0.6005  118.6   1.035   23.8  0.1261   34.6  0.2891  -72.4
 2.580  0.6021  118.1   1.026   23.2  0.1267   34.5  0.2888  -72.9
 2.600  0.6038  117.6   1.018   22.7  0.1273   34.4  0.2885  -73.4
 2.620  0.6052  117.1   1.010   22.2  0.1280   34.3  0.2883  -74.0
 2.640  0.6067  116.6   1.002   21.7  0.1287   34.1  0.2882  -74.6
 2.660  0.6082  116.1   0.994   21.2  0.1294   34.0  0.2881  -75.2
 2.680  0.6098  115.6   0.986   20.6  0.1301   33.9  0.2880  -75.8
 2.700  0.6114  115.1   0.978   20.1  0.1308   33.8  0.2880  -76.3
 2.720  0.6131  114.6   0.970   19.6  0.1315   33.7  0.2880  -76.9
 2.740  0.6148  114.1   0.962   19.0  0.1322   33.5  0.2880  -77.5
 2.760  0.6166  113.6   0.955   18.4  0.1329   33.4  0.2880  -78.1
 2.780  0.6184  113.1   0.947   17.9  0.1336   33.3  0.2881  -78.7
 2.800  0.6202  112.6   0.940   17.3  0.1343   33.2  0.2882  -79.3
 2.820  0.6215  112.1   0.933   16.9  0.1349   33.1  0.2875  -79.9
 2.840  0.6228  111.6   0.927   16.5  0.1356   33.0  0.2868  -80.4
 2.860  0.6242  111.1   0.921   16.1  0.1362   32.8  0.2862  -81.0
 2.880  0.6256  110.7   0.914   15.7  0.1368   32.7  0.2856  -81.6
 2.900  0.6271  110.2   0.908   15.3  0.1374   32.6  0.2850  -82.2
 2.920  0.6286  109.7   0.902   14.9  0.1381   32.5  0.2844  -82.8
 2.940  0.6302  109.2   0.895   14.5  0.1387   32.3  0.2839  -83.3
 2.960  0.6318  108.7   0.889   14.1  0.1393   32.2  0.2834  -83.9
 2.980  0.6334  108.3   0.883   13.6  0.1400   32.1  0.2829  -84.5
 3.000  0.6351  107.8   0.877   13.2  0.1406   32.0  0.2825  -85.1
 3.100  0.6402  105.7   0.847   11.3  0.1439   31.3  0.2815  -88.3
 3.200  0.6461  103.6   0.818    9.3  0.1473   30.5  0.2815  -91.5
 3.300  0.6529  101.5   0.790    7.2  0.1506   29.9  0.2823  -94.7
 3.400  0.6606   99.5   0.763    4.9  0.1540   29.2  0.2840  -97.9
 3.500  0.6690   97.5   0.737    2.4  0.1574   28.6  0.2865 -101.0
 3.600  0.6747   95.8   0.715    0.8  0.1604   27.7  0.2855 -104.3
 3.700  0.6810   94.0   0.693   -0.9  0.1635   26.8  0.2854 -107.7
 3.800  0.6879   92.4   0.672   -2.8  0.1666   26.0  0.2863 -111.0
 3.900  0.6954   90.7   0.652   -4.7  0.1697   25.2  0.2882 -114.3
 4.000  0.7034   89.1   0.632   -6.8  0.1729   24.4  0.2910 -117.6
 4.100  0.7072   87.6   0.613   -8.2  0.1755   23.5  0.2921 -120.9
 4.200  0.7114   86.1   0.594   -9.7  0.1781   22.6  0.2942 -124.2
 4.300  0.7162   84.6   0.575  -11.4  0.1807   21.7  0.2972 -127.4
 4.400  0.7214   83.1   0.557  -13.1  0.1834   20.9  0.3012 -130.5
 4.500  0.7271   81.7   0.540  -14.9  0.1861   20.1  0.3060 -133.6
 4.600  0.7305   80.5   0.526  -15.9  0.1887   19.4  0.3085 -136.6
 4.700  0.7342   79.3   0.513  -17.0  0.1913   18.6  0.3118 -139.5
 4.800  0.7383   78.1   0.499  -18.1  0.1939   17.9  0.3159 -142.3
 4.900  0.7426   76.9   0.486  -19.3  0.1965   17.3  0.3208 -145.1
 5.000  0.7473   75.7   0.473  -20.6  0.1992   16.6  0.3264 -147.8
 5.100  0.7497   74.6   0.462  -21.6  0.2021   15.7  0.3312 -150.5
 5.200  0.7525   73.5   0.451  -22.6  0.2050   14.9  0.3367 -153.2
 5.300  0.7555   72.4   0.440  -23.7  0.2080   14.1  0.3428 -155.7
 5.400  0.7587   71.3   0.429  -24.8  0.2110   13.3  0.3497 -158.1
 5.500  0.7623   70.2   0.418  -26.0  0.2140   12.5  0.3571 -160.5
 5.600  0.7657   69.1   0.408  -26.5  0.2164   11.6  0.3623 -162.8
 5.700  0.7693   68.1   0.398  -27.1  0.2188   10.7  0.3681 -165.1
 5.800  0.7732   67.0   0.388  -27.7  0.2212    9.8  0.3744 -167.3
 5.900  0.7774   66.0   0.378  -28.3  0.2237    8.9  0.3813 -169.5
 6.000  0.7818   65.0   0.368  -29.0  0.2263    8.1  0.3887 -171.5
!
!  f       NFmin   Gammaopt  rn/50
! GHz       dB    MAG  ANG    -
!
! noise parameter not available yet for this operation point!
!
! (c) 2016  Infineon Technologies AG, Munich
