! Infineon Technologies  Discrete & RF Semiconductors
! BFP196
! VCE = 8.0 V,  IC =  15mA
! Common Emitter S-Parameters:                            Jan 2016
# GHz  S  MA  R  50
!  f         S11            S21            S12            S22
! GHz     MAG   ANG      MAG   ANG      MAG   ANG      MAG   ANG
 0.010  0.6719  -13.1  36.913  173.8  0.0048   84.5  0.9563   -7.2
 0.015  0.6675  -19.3  36.319  170.2  0.0071   79.0  0.9428  -10.4
 0.020  0.6710  -25.6  35.876  166.4  0.0094   76.2  0.9324  -13.7
 0.025  0.6555  -31.0  35.084  163.8  0.0113   72.9  0.9108  -16.5
 0.030  0.6461  -36.7  34.365  161.1  0.0133   70.5  0.8915  -19.5
 0.035  0.6431  -42.4  33.725  158.3  0.0152   68.8  0.8748  -22.6
 0.040  0.6467  -48.2  33.169  155.5  0.0172   67.4  0.8606  -25.8
 0.045  0.6566  -53.8  32.700  152.5  0.0192   66.4  0.8492  -29.0
 0.050  0.6726  -59.2  32.322  149.4  0.0212   65.5  0.8406  -32.4
 0.055  0.6579  -63.0  31.429  147.8  0.0223   63.1  0.8171  -34.1
 0.060  0.6461  -66.9  30.561  146.1  0.0234   60.9  0.7944  -35.9
 0.065  0.6375  -70.9  29.720  144.4  0.0245   59.0  0.7726  -37.9
 0.070  0.6322  -75.1  28.910  142.5  0.0257   57.2  0.7517  -39.9
 0.075  0.6301  -79.3  28.133  140.5  0.0269   55.6  0.7317  -42.1
 0.080  0.6315  -83.4  27.391  138.4  0.0281   54.1  0.7129  -44.3
 0.085  0.6362  -87.6  26.687  136.2  0.0293   52.7  0.6953  -46.7
 0.090  0.6441  -91.7  26.026  133.9  0.0306   51.4  0.6789  -49.2
 0.095  0.6553  -95.6  25.409  131.5  0.0318   50.3  0.6639  -51.9
 0.100  0.6694  -99.4  24.840  128.9  0.0331   49.2  0.6503  -54.6
 0.105  0.6637 -101.7  24.215  127.9  0.0337   48.3  0.6346  -55.7
 0.110  0.6592 -104.1  23.598  126.8  0.0342   47.5  0.6191  -56.8
 0.115  0.6558 -106.5  22.990  125.7  0.0348   46.7  0.6038  -58.0
 0.120  0.6535 -108.9  22.390  124.5  0.0353   45.9  0.5888  -59.2
 0.125  0.6524 -111.3  21.801  123.3  0.0359   45.2  0.5741  -60.5
 0.130  0.6525 -113.7  21.222  122.0  0.0365   44.5  0.5598  -61.9
 0.135  0.6538 -116.2  20.656  120.6  0.0371   43.8  0.5458  -63.4
 0.140  0.6562 -118.6  20.101  119.2  0.0377   43.1  0.5321  -64.9
 0.145  0.6597 -120.9  19.561  117.6  0.0383   42.4  0.5188  -66.5
 0.150  0.6644 -123.3  19.035  116.0  0.0389   41.8  0.5060  -68.2
 0.155  0.6626 -124.8  18.643  115.3  0.0392   41.5  0.4961  -69.0
 0.160  0.6613 -126.4  18.255  114.6  0.0396   41.3  0.4864  -69.8
 0.165  0.6605 -127.9  17.869  113.9  0.0399   41.0  0.4767  -70.6
 0.170  0.6601 -129.4  17.485  113.1  0.0403   40.7  0.4671  -71.5
 0.175  0.6602 -131.0  17.106  112.4  0.0406   40.5  0.4577  -72.4
 0.180  0.6608 -132.5  16.729  111.5  0.0409   40.3  0.4483  -73.4
 0.185  0.6619 -134.0  16.357  110.7  0.0413   40.0  0.4391  -74.4
 0.190  0.6634 -135.6  15.988  109.7  0.0416   39.8  0.4301  -75.4
 0.195  0.6654 -137.1  15.623  108.8  0.0420   39.5  0.4212  -76.5
 0.200  0.6679 -138.6  15.263  107.8  0.0423   39.3  0.4124  -77.6
 0.220  0.6649 -142.9  14.140  105.7  0.0432   38.7  0.3856  -80.2
 0.240  0.6656 -147.2  13.039  103.3  0.0441   38.2  0.3598  -83.1
 0.260  0.6667 -150.7  12.117  101.1  0.0450   37.9  0.3388  -85.7
 0.280  0.6664 -153.6  11.363   99.5  0.0459   38.0  0.3223  -87.9
 0.300  0.6679 -156.5  10.620   97.6  0.0467   38.0  0.3063  -90.3
 0.320  0.6659 -158.8  10.116   96.6  0.0476   38.2  0.2945  -91.8
 0.340  0.6650 -161.1   9.615   95.4  0.0484   38.4  0.2830  -93.4
 0.360  0.6652 -163.5   9.119   94.1  0.0493   38.6  0.2716  -95.1
 0.380  0.6664 -165.8   8.628   92.7  0.0501   38.7  0.2606  -97.0
 0.400  0.6688 -168.1   8.143   91.1  0.0510   38.9  0.2498  -99.0
 0.420  0.6689 -169.6   7.818   90.2  0.0518   39.3  0.2433 -100.1
 0.440  0.6695 -171.1   7.495   89.3  0.0527   39.7  0.2369 -101.4
 0.450  0.6700 -171.8   7.334   88.8  0.0531   39.9  0.2338 -102.0
 0.460  0.6705 -172.6   7.174   88.3  0.0535   40.1  0.2307 -102.6
 0.480  0.6720 -174.0   6.855   87.1  0.0544   40.4  0.2245 -104.0
 0.500  0.6739 -175.5   6.540   85.9  0.0552   40.8  0.2185 -105.4
 0.520  0.6724 -176.9   6.326   85.1  0.0562   41.3  0.2149 -106.4
 0.540  0.6713 -178.3   6.114   84.2  0.0572   41.8  0.2114 -107.4
 0.560  0.6706 -179.6   5.903   83.3  0.0582   42.2  0.2080 -108.4
 0.580  0.6703  179.0   5.693   82.3  0.0593   42.7  0.2046 -109.5
 0.600  0.6704  177.6   5.486   81.2  0.0603   43.1  0.2013 -110.6
 0.620  0.6711  176.5   5.333   80.4  0.0613   43.4  0.1992 -111.5
 0.640  0.6721  175.3   5.180   79.6  0.0623   43.7  0.1971 -112.4
 0.660  0.6733  174.2   5.029   78.7  0.0632   44.0  0.1950 -113.3
 0.680  0.6748  173.1   4.879   77.8  0.0642   44.3  0.1930 -114.2
 0.700  0.6765  172.0   4.731   76.8  0.0652   44.6  0.1911 -115.2
 0.720  0.6766  171.1   4.612   76.2  0.0663   44.8  0.1898 -116.0
 0.740  0.6768  170.2   4.493   75.5  0.0673   45.0  0.1885 -116.7
 0.760  0.6772  169.3   4.376   74.8  0.0684   45.2  0.1872 -117.5
 0.780  0.6778  168.4   4.258   74.1  0.0694   45.3  0.1860 -118.3
 0.800  0.6785  167.5   4.142   73.3  0.0705   45.5  0.1848 -119.1
 0.820  0.6779  166.6   4.050   72.7  0.0717   45.8  0.1839 -119.7
 0.840  0.6775  165.7   3.958   72.0  0.0728   46.0  0.1831 -120.3
 0.860  0.6772  164.7   3.867   71.3  0.0740   46.2  0.1823 -120.9
 0.880  0.6771  163.8   3.777   70.6  0.0751   46.5  0.1815 -121.5
 0.900  0.6772  162.9   3.687   69.8  0.0763   46.7  0.1807 -122.1
 0.920  0.6782  162.0   3.614   69.2  0.0774   46.8  0.1806 -122.6
 0.940  0.6794  161.0   3.542   68.5  0.0785   46.9  0.1805 -123.1
 0.960  0.6807  160.1   3.470   67.8  0.0795   47.1  0.1805 -123.6
 0.980  0.6823  159.1   3.399   67.1  0.0806   47.2  0.1804 -124.1
 1.000  0.6840  158.2   3.328   66.4  0.0817   47.3  0.1804 -124.6
 1.020  0.6836  157.5   3.268   65.8  0.0828   47.4  0.1806 -125.1
 1.040  0.6834  156.7   3.209   65.1  0.0839   47.5  0.1808 -125.6
 1.060  0.6832  156.0   3.150   64.4  0.0851   47.6  0.1811 -126.2
 1.080  0.6832  155.2   3.092   63.7  0.0862   47.7  0.1813 -126.7
 1.100  0.6833  154.5   3.034   63.0  0.0873   47.8  0.1816 -127.2
 1.120  0.6849  153.7   2.984   62.4  0.0885   47.9  0.1819 -127.7
 1.140  0.6865  153.0   2.933   61.8  0.0897   47.9  0.1822 -128.3
 1.160  0.6883  152.2   2.884   61.2  0.0908   48.0  0.1825 -128.8
 1.180  0.6903  151.5   2.834   60.6  0.0920   48.0  0.1828 -129.4
 1.200  0.6923  150.7   2.785   59.9  0.0932   48.1  0.1831 -129.9
 1.220  0.6919  149.9   2.741   59.3  0.0945   48.1  0.1834 -130.3
 1.240  0.6916  149.1   2.698   58.7  0.0958   48.1  0.1837 -130.8
 1.260  0.6914  148.2   2.655   58.0  0.0971   48.0  0.1840 -131.2
 1.280  0.6914  147.4   2.612   57.4  0.0984   48.0  0.1843 -131.7
 1.300  0.6915  146.6   2.570   56.7  0.0997   48.0  0.1846 -132.1
 1.320  0.6926  146.0   2.533   56.2  0.1008   47.9  0.1854 -132.5
 1.340  0.6937  145.4   2.495   55.7  0.1018   47.9  0.1863 -132.8
 1.360  0.6949  144.7   2.458   55.1  0.1029   47.8  0.1872 -133.2
 1.380  0.6962  144.1   2.422   54.6  0.1039   47.8  0.1880 -133.5
 1.400  0.6976  143.5   2.385   54.0  0.1050   47.7  0.1889 -133.9
 1.420  0.6985  142.9   2.357   53.4  0.1062   47.7  0.1898 -134.4
 1.440  0.6996  142.3   2.329   52.8  0.1074   47.7  0.1907 -134.9
 1.460  0.7007  141.6   2.302   52.2  0.1085   47.6  0.1917 -135.4
 1.480  0.7018  141.0   2.275   51.6  0.1097   47.6  0.1926 -135.8
 1.500  0.7031  140.4   2.248   51.0  0.1109   47.6  0.1936 -136.3
 1.520  0.7038  139.7   2.216   50.4  0.1121   47.5  0.1944 -136.9
 1.540  0.7047  139.0   2.184   49.9  0.1133   47.4  0.1952 -137.4
 1.560  0.7056  138.4   2.152   49.3  0.1146   47.3  0.1960 -138.0
 1.580  0.7067  137.7   2.121   48.6  0.1158   47.2  0.1968 -138.5
 1.600  0.7078  137.0   2.090   48.0  0.1170   47.1  0.1977 -139.1
 1.620  0.7086  136.3   2.066   47.4  0.1183   47.0  0.1983 -139.6
 1.640  0.7096  135.5   2.041   46.9  0.1195   46.9  0.1989 -140.0
 1.660  0.7106  134.8   2.017   46.3  0.1208   46.9  0.1995 -140.5
 1.680  0.7118  134.0   1.994   45.7  0.1220   46.8  0.2001 -140.9
 1.700  0.7131  133.3   1.970   45.1  0.1233   46.7  0.2007 -141.4
 1.720  0.7138  132.7   1.949   44.6  0.1245   46.5  0.2018 -141.6
 1.740  0.7146  132.1   1.929   44.1  0.1257   46.4  0.2029 -141.9
 1.760  0.7155  131.6   1.908   43.6  0.1268   46.2  0.2040 -142.1
 1.780  0.7165  131.0   1.888   43.1  0.1280   46.1  0.2051 -142.4
 1.800  0.7175  130.4   1.868   42.6  0.1292   45.9  0.2062 -142.6
 1.820  0.7185  129.9   1.849   42.1  0.1304   45.8  0.2077 -143.1
 1.840  0.7196  129.4   1.829   41.5  0.1316   45.7  0.2092 -143.5
 1.860  0.7207  128.8   1.810   41.0  0.1329   45.5  0.2108 -143.9
 1.880  0.7219  128.3   1.792   40.4  0.1341   45.4  0.2123 -144.4
 1.900  0.7232  127.8   1.773   39.8  0.1353   45.3  0.2139 -144.8
 1.920  0.7243  127.2   1.753   39.3  0.1364   45.1  0.2146 -145.3
 1.940  0.7255  126.6   1.734   38.8  0.1376   44.9  0.2153 -145.9
 1.960  0.7268  126.0   1.715   38.2  0.1387   44.8  0.2161 -146.4
 1.980  0.7282  125.4   1.696   37.7  0.1399   44.6  0.2168 -146.9
 2.000  0.7296  124.8   1.677   37.1  0.1410   44.4  0.2176 -147.4
 2.020  0.7298  124.2   1.661   36.6  0.1422   44.2  0.2188 -147.8
 2.040  0.7301  123.6   1.646   36.1  0.1434   44.1  0.2200 -148.2
 2.060  0.7305  123.0   1.630   35.6  0.1445   43.9  0.2212 -148.6
 2.080  0.7309  122.4   1.615   35.1  0.1457   43.7  0.2224 -149.1
 2.100  0.7314  121.8   1.599   34.6  0.1469   43.6  0.2237 -149.5
 2.120  0.7321  121.2   1.584   34.1  0.1481   43.4  0.2249 -149.9
 2.140  0.7327  120.6   1.569   33.6  0.1492   43.3  0.2262 -150.2
 2.160  0.7335  120.0   1.554   33.0  0.1504   43.1  0.2274 -150.6
 2.180  0.7344  119.4   1.540   32.5  0.1516   42.9  0.2287 -151.0
 2.200  0.7353  118.8   1.525   31.9  0.1528   42.8  0.2300 -151.4
 2.220  0.7367  118.2   1.513   31.4  0.1539   42.6  0.2313 -151.9
 2.240  0.7381  117.6   1.500   30.9  0.1551   42.4  0.2326 -152.4
 2.260  0.7396  117.1   1.488   30.4  0.1562   42.2  0.2339 -152.9
 2.280  0.7412  116.5   1.476   29.9  0.1573   42.0  0.2352 -153.4
 2.300  0.7428  115.9   1.464   29.4  0.1585   41.8  0.2365 -153.9
 2.320  0.7446  115.3   1.452   28.8  0.1596   41.6  0.2379 -154.4
 2.340  0.7464  114.8   1.440   28.3  0.1608   41.4  0.2393 -154.9
 2.360  0.7482  114.2   1.429   27.7  0.1619   41.3  0.2407 -155.4
 2.380  0.7502  113.7   1.417   27.2  0.1631   41.1  0.2421 -155.8
 2.400  0.7522  113.1   1.406   26.6  0.1642   40.9  0.2435 -156.3
 2.420  0.7527  112.6   1.394   26.2  0.1654   40.7  0.2449 -156.8
 2.440  0.7533  112.0   1.382   25.7  0.1665   40.5  0.2463 -157.2
 2.460  0.7540  111.5   1.370   25.3  0.1677   40.2  0.2477 -157.6
 2.480  0.7547  111.0   1.358   24.8  0.1689   40.0  0.2491 -158.1
 2.500  0.7555  110.4   1.346   24.4  0.1701   39.8  0.2505 -158.5
 2.520  0.7563  109.9   1.335   23.9  0.1713   39.6  0.2520 -158.9
 2.540  0.7573  109.4   1.323   23.4  0.1724   39.4  0.2534 -159.4
 2.560  0.7582  108.9   1.312   22.9  0.1736   39.2  0.2549 -159.8
 2.580  0.7593  108.3   1.300   22.4  0.1748   39.0  0.2564 -160.2
 2.600  0.7604  107.8   1.289   21.9  0.1760   38.8  0.2579 -160.6
 2.620  0.7613  107.3   1.279   21.5  0.1770   38.6  0.2594 -161.1
 2.640  0.7623  106.8   1.270   21.1  0.1780   38.4  0.2609 -161.6
 2.660  0.7634  106.3   1.261   20.6  0.1790   38.1  0.2625 -162.0
 2.680  0.7645  105.9   1.251   20.2  0.1800   37.9  0.2641 -162.5
 2.700  0.7657  105.4   1.242   19.8  0.1810   37.7  0.2656 -163.0
 2.720  0.7669  104.9   1.233   19.3  0.1820   37.5  0.2672 -163.4
 2.740  0.7682  104.4   1.224   18.9  0.1830   37.3  0.2689 -163.9
 2.760  0.7695  103.9   1.215   18.4  0.1841   37.1  0.2705 -164.3
 2.780  0.7709  103.5   1.206   18.0  0.1851   36.9  0.2721 -164.8
 2.800  0.7723  103.0   1.197   17.5  0.1861   36.7  0.2738 -165.2
 2.820  0.7728  102.5   1.188   17.0  0.1872   36.5  0.2754 -165.7
 2.840  0.7733  102.1   1.179   16.6  0.1883   36.2  0.2771 -166.1
 2.860  0.7739  101.6   1.170   16.1  0.1894   36.0  0.2788 -166.5
 2.880  0.7746  101.1   1.161   15.6  0.1905   35.8  0.2804 -167.0
 2.900  0.7753  100.7   1.152   15.1  0.1917   35.6  0.2822 -167.4
 2.920  0.7760  100.2   1.144   14.6  0.1928   35.3  0.2839 -167.8
 2.940  0.7768   99.8   1.135   14.1  0.1939   35.1  0.2856 -168.3
 2.960  0.7777   99.3   1.127   13.6  0.1950   34.9  0.2874 -168.7
 2.980  0.7786   98.9   1.118   13.1  0.1962   34.7  0.2891 -169.1
 3.000  0.7795   98.4   1.110   12.6  0.1973   34.5  0.2909 -169.5
 3.100  0.7835   96.3   1.072   11.0  0.2018   33.2  0.2989 -171.8
 3.200  0.7886   94.2   1.036    9.2  0.2063   32.0  0.3073 -174.1
 3.300  0.7947   92.2   1.000    7.3  0.2110   30.9  0.3162 -176.2
 3.400  0.8018   90.2   0.965    5.3  0.2157   29.8  0.3255 -178.1
 3.500  0.8098   88.2   0.932    3.1  0.2205   28.7  0.3351  180.0
 3.600  0.8109   86.4   0.905    1.6  0.2247   27.6  0.3439  178.0
 3.700  0.8129   84.6   0.879   -0.0  0.2289   26.5  0.3532  176.1
 3.800  0.8156   82.8   0.854   -1.7  0.2333   25.4  0.3628  174.2
 3.900  0.8192   81.0   0.830   -3.5  0.2377   24.4  0.3728  172.5
 4.000  0.8235   79.2   0.806   -5.4  0.2422   23.4  0.3831  170.9
 4.100  0.8263   77.7   0.785   -6.7  0.2464   22.2  0.3912  169.2
 4.200  0.8297   76.1   0.765   -8.1  0.2507   21.1  0.3996  167.5
 4.300  0.8336   74.6   0.745   -9.5  0.2551   20.0  0.4083  166.0
 4.400  0.8382   73.1   0.726  -11.1  0.2595   19.0  0.4174  164.4
 4.500  0.8433   71.6   0.707  -12.7  0.2641   18.0  0.4267  163.0
 4.600  0.8436   70.3   0.693  -13.8  0.2679   16.8  0.4344  161.4
 4.700  0.8444   68.9   0.679  -14.9  0.2717   15.7  0.4425  159.9
 4.800  0.8457   67.6   0.665  -16.0  0.2757   14.6  0.4508  158.5
 4.900  0.8474   66.3   0.651  -17.2  0.2797   13.5  0.4594  157.1
 5.000  0.8495   65.0   0.638  -18.5  0.2839   12.5  0.4683  155.7
 5.100  0.8512   63.8   0.625  -19.4  0.2876   11.4  0.4755  154.1
 5.200  0.8534   62.5   0.613  -20.3  0.2914   10.3  0.4831  152.6
 5.300  0.8559   61.3   0.600  -21.3  0.2952    9.2  0.4909  151.2
 5.400  0.8588   60.1   0.588  -22.3  0.2992    8.2  0.4991  149.8
 5.500  0.8621   58.9   0.576  -23.4  0.3033    7.2  0.5076  148.4
 5.600  0.8617   57.8   0.567  -24.2  0.3067    6.0  0.5142  147.0
 5.700  0.8617   56.7   0.559  -25.0  0.3102    4.8  0.5211  145.6
 5.800  0.8619   55.6   0.550  -25.9  0.3139    3.6  0.5283  144.3
 5.900  0.8625   54.5   0.542  -26.8  0.3177    2.4  0.5358  143.0
 6.000  0.8634   53.4   0.534  -27.7  0.3216    1.3  0.5436  141.7
!
!  f       NFmin   Gammaopt  rn/50
! GHz       dB    MAG  ANG    -
!
! noise parameter not available yet for this operation point!
!
! (c) 2016  Infineon Technologies AG, Munich
