! Infineon Technologies  Discrete & RF Semiconductors
! BFP196
! VCE = 1.7 V,  IC =  30mA
! Common Emitter S-Parameters:                            Jan 2016
# GHz  S  MA  R  50
!  f         S11            S21            S12            S22
! GHz     MAG   ANG      MAG   ANG      MAG   ANG      MAG   ANG
 0.010  0.3760  -30.6  55.412  170.0  0.0045   81.8  0.9259  -12.7
 0.015  0.3807  -43.8  53.617  164.8  0.0066   76.5  0.8985  -18.4
 0.020  0.4046  -56.1  52.291  159.3  0.0088   73.8  0.8803  -24.3
 0.025  0.4036  -65.6  50.080  156.2  0.0102   68.6  0.8391  -28.2
 0.030  0.4135  -74.9  48.028  152.9  0.0117   64.6  0.8023  -32.5
 0.035  0.4336  -83.5  46.154  149.2  0.0132   61.6  0.7704  -37.2
 0.040  0.4625  -91.2  44.481  145.3  0.0147   59.2  0.7440  -42.3
 0.045  0.4988  -97.9  43.033  141.1  0.0162   57.2  0.7239  -47.7
 0.050  0.5409 -103.6  41.834  136.6  0.0178   55.6  0.7105  -53.3
 0.055  0.5403 -107.5  40.221  135.2  0.0184   54.2  0.6826  -55.4
 0.060  0.5422 -111.4  38.633  133.8  0.0190   53.0  0.6556  -57.6
 0.065  0.5466 -115.3  37.072  132.2  0.0197   51.8  0.6296  -60.0
 0.070  0.5534 -119.0  35.543  130.4  0.0203   50.6  0.6049  -62.6
 0.075  0.5626 -122.7  34.050  128.5  0.0210   49.6  0.5816  -65.4
 0.080  0.5740 -126.3  32.597  126.5  0.0216   48.6  0.5598  -68.5
 0.085  0.5875 -129.6  31.191  124.2  0.0223   47.7  0.5397  -71.8
 0.090  0.6029 -132.9  29.837  121.7  0.0230   46.8  0.5215  -75.3
 0.095  0.6202 -135.9  28.544  119.0  0.0236   46.0  0.5054  -79.1
 0.100  0.6391 -138.8  27.320  116.1  0.0243   45.2  0.4917  -83.1
 0.105  0.6402 -140.4  26.507  115.3  0.0246   45.0  0.4791  -84.5
 0.110  0.6418 -142.0  25.700  114.5  0.0250   44.7  0.4668  -85.9
 0.115  0.6439 -143.6  24.898  113.7  0.0253   44.5  0.4548  -87.4
 0.120  0.6465 -145.2  24.101  112.8  0.0257   44.3  0.4431  -89.0
 0.125  0.6496 -146.7  23.312  111.8  0.0260   44.0  0.4318  -90.7
 0.130  0.6532 -148.3  22.530  110.7  0.0263   43.8  0.4209  -92.5
 0.135  0.6572 -149.8  21.755  109.6  0.0267   43.6  0.4104  -94.3
 0.140  0.6617 -151.3  20.990  108.4  0.0270   43.4  0.4004  -96.3
 0.145  0.6667 -152.8  20.235  107.1  0.0274   43.2  0.3908  -98.3
 0.150  0.6721 -154.3  19.491  105.7  0.0277   43.0  0.3818 -100.5
 0.155  0.6726 -155.2  19.038  105.2  0.0279   43.2  0.3753 -101.6
 0.160  0.6733 -156.1  18.587  104.7  0.0282   43.3  0.3690 -102.6
 0.165  0.6741 -157.0  18.138  104.1  0.0284   43.5  0.3628 -103.8
 0.170  0.6751 -157.9  17.690  103.5  0.0287   43.7  0.3567 -104.9
 0.175  0.6763 -158.8  17.245  102.9  0.0289   43.8  0.3508 -106.1
 0.180  0.6777 -159.7  16.801  102.3  0.0291   44.0  0.3451 -107.4
 0.185  0.6792 -160.6  16.360  101.6  0.0294   44.1  0.3395 -108.7
 0.190  0.6808 -161.5  15.921  100.9  0.0296   44.3  0.3341 -110.0
 0.195  0.6827 -162.4  15.484  100.1  0.0299   44.5  0.3289 -111.4
 0.200  0.6847 -163.3  15.051   99.3  0.0301   44.6  0.3239 -112.8
 0.220  0.6858 -165.8  13.866   97.7  0.0314   45.3  0.3093 -116.3
 0.240  0.6883 -168.3  12.693   95.9  0.0327   45.9  0.2959 -120.2
 0.260  0.6907 -170.5  11.725   94.3  0.0340   46.8  0.2859 -123.5
 0.280  0.6927 -172.3  10.953   93.1  0.0353   47.9  0.2784 -126.1
 0.300  0.6953 -174.1  10.187   91.7  0.0366   49.0  0.2716 -128.8
 0.320  0.6960 -175.5   9.690   90.9  0.0378   49.8  0.2665 -130.7
 0.340  0.6972 -176.9   9.195   90.0  0.0390   50.5  0.2617 -132.7
 0.360  0.6988 -178.3   8.703   89.0  0.0402   51.2  0.2573 -134.8
 0.380  0.7008 -179.7   8.214   87.9  0.0415   51.9  0.2532 -136.9
 0.400  0.7032  178.9   7.728   86.6  0.0427   52.5  0.2494 -139.1
 0.420  0.7029  177.8   7.415   85.9  0.0441   53.0  0.2470 -140.4
 0.440  0.7028  176.8   7.104   85.1  0.0454   53.5  0.2448 -141.7
 0.450  0.7028  176.2   6.949   84.7  0.0461   53.7  0.2438 -142.4
 0.460  0.7030  175.7   6.794   84.3  0.0468   54.0  0.2427 -143.1
 0.480  0.7034  174.7   6.486   83.3  0.0481   54.4  0.2408 -144.5
 0.500  0.7040  173.6   6.180   82.3  0.0495   54.8  0.2390 -145.9
 0.520  0.7039  172.5   5.975   81.6  0.0510   55.2  0.2380 -146.8
 0.540  0.7041  171.5   5.770   80.8  0.0524   55.5  0.2372 -147.8
 0.560  0.7045  170.4   5.567   80.0  0.0539   55.9  0.2363 -148.8
 0.580  0.7051  169.4   5.365   79.1  0.0553   56.2  0.2356 -149.7
 0.600  0.7060  168.3   5.165   78.1  0.0568   56.5  0.2349 -150.7
 0.620  0.7062  167.5   5.019   77.4  0.0582   56.7  0.2346 -151.4
 0.640  0.7064  166.7   4.874   76.7  0.0596   56.8  0.2343 -152.1
 0.660  0.7069  165.8   4.729   75.9  0.0611   57.0  0.2340 -152.8
 0.680  0.7075  165.0   4.586   75.1  0.0625   57.2  0.2338 -153.5
 0.700  0.7082  164.2   4.443   74.2  0.0639   57.3  0.2336 -154.2
 0.720  0.7087  163.5   4.331   73.6  0.0655   57.3  0.2336 -154.8
 0.740  0.7093  162.8   4.220   73.1  0.0670   57.3  0.2336 -155.4
 0.760  0.7100  162.2   4.110   72.4  0.0686   57.2  0.2337 -155.9
 0.780  0.7108  161.5   4.000   71.8  0.0701   57.2  0.2338 -156.5
 0.800  0.7117  160.8   3.890   71.1  0.0717   57.2  0.2339 -157.1
 0.820  0.7105  160.0   3.803   70.5  0.0732   57.3  0.2338 -157.6
 0.840  0.7094  159.2   3.716   69.9  0.0747   57.3  0.2337 -158.1
 0.860  0.7084  158.4   3.630   69.3  0.0762   57.4  0.2336 -158.6
 0.880  0.7076  157.6   3.544   68.6  0.0777   57.4  0.2335 -159.1
 0.900  0.7069  156.8   3.459   67.9  0.0792   57.5  0.2335 -159.6
 0.920  0.7086  156.0   3.391   67.3  0.0807   57.5  0.2341 -160.0
 0.940  0.7104  155.2   3.324   66.7  0.0821   57.4  0.2346 -160.3
 0.960  0.7124  154.4   3.257   66.1  0.0836   57.4  0.2352 -160.7
 0.980  0.7145  153.6   3.191   65.4  0.0850   57.3  0.2358 -161.0
 1.000  0.7168  152.8   3.125   64.7  0.0865   57.3  0.2364 -161.4
 1.020  0.7166  152.1   3.069   64.1  0.0880   57.2  0.2370 -161.7
 1.040  0.7166  151.4   3.013   63.5  0.0895   57.1  0.2377 -162.1
 1.060  0.7166  150.8   2.958   62.9  0.0909   57.0  0.2384 -162.4
 1.080  0.7168  150.1   2.903   62.2  0.0924   56.9  0.2390 -162.8
 1.100  0.7170  149.4   2.848   61.5  0.0939   56.8  0.2397 -163.1
 1.120  0.7186  148.7   2.801   61.0  0.0954   56.7  0.2403 -163.5
 1.140  0.7204  147.9   2.755   60.4  0.0969   56.5  0.2408 -163.8
 1.160  0.7222  147.2   2.709   59.8  0.0984   56.4  0.2414 -164.2
 1.180  0.7242  146.5   2.663   59.2  0.0999   56.2  0.2420 -164.5
 1.200  0.7263  145.8   2.618   58.6  0.1014   56.1  0.2426 -164.9
 1.220  0.7250  145.1   2.577   58.0  0.1030   55.8  0.2431 -165.2
 1.240  0.7239  144.5   2.537   57.4  0.1046   55.6  0.2437 -165.5
 1.260  0.7228  143.8   2.497   56.8  0.1063   55.3  0.2442 -165.8
 1.280  0.7219  143.2   2.457   56.2  0.1079   55.0  0.2447 -166.1
 1.300  0.7210  142.5   2.417   55.5  0.1095   54.8  0.2453 -166.4
 1.320  0.7228  141.9   2.382   55.0  0.1108   54.6  0.2461 -166.6
 1.340  0.7246  141.3   2.347   54.5  0.1121   54.5  0.2468 -166.8
 1.360  0.7265  140.8   2.313   54.0  0.1135   54.3  0.2476 -167.1
 1.380  0.7285  140.2   2.278   53.5  0.1148   54.2  0.2483 -167.3
 1.400  0.7305  139.6   2.244   53.0  0.1161   54.0  0.2491 -167.5
 1.420  0.7301  139.0   2.218   52.4  0.1175   53.8  0.2500 -167.7
 1.440  0.7298  138.4   2.193   51.9  0.1190   53.7  0.2509 -168.0
 1.460  0.7296  137.7   2.168   51.3  0.1204   53.5  0.2518 -168.2
 1.480  0.7295  137.1   2.143   50.7  0.1219   53.4  0.2528 -168.5
 1.500  0.7295  136.5   2.118   50.1  0.1233   53.2  0.2537 -168.7
 1.520  0.7311  135.9   2.087   49.5  0.1248   52.9  0.2547 -169.0
 1.540  0.7329  135.3   2.056   49.0  0.1262   52.7  0.2557 -169.4
 1.560  0.7347  134.6   2.026   48.4  0.1277   52.5  0.2567 -169.7
 1.580  0.7366  134.0   1.995   47.7  0.1291   52.2  0.2577 -170.1
 1.600  0.7386  133.4   1.965   47.1  0.1306   52.0  0.2587 -170.4
 1.620  0.7388  132.7   1.943   46.5  0.1320   51.7  0.2594 -170.7
 1.640  0.7392  132.0   1.921   46.0  0.1333   51.5  0.2601 -171.0
 1.660  0.7396  131.4   1.899   45.4  0.1347   51.2  0.2608 -171.4
 1.680  0.7402  130.7   1.877   44.8  0.1360   50.9  0.2616 -171.7
 1.700  0.7408  130.0   1.856   44.2  0.1374   50.7  0.2623 -172.0
 1.720  0.7416  129.4   1.837   43.8  0.1388   50.4  0.2631 -172.2
 1.740  0.7425  128.9   1.819   43.4  0.1403   50.2  0.2640 -172.4
 1.760  0.7434  128.3   1.801   43.0  0.1417   49.9  0.2648 -172.5
 1.780  0.7444  127.8   1.782   42.5  0.1432   49.6  0.2657 -172.7
 1.800  0.7455  127.2   1.764   42.1  0.1446   49.4  0.2665 -172.9
 1.820  0.7458  126.7   1.746   41.5  0.1460   49.2  0.2680 -173.2
 1.840  0.7461  126.2   1.728   41.0  0.1474   48.9  0.2696 -173.5
 1.860  0.7465  125.7   1.710   40.4  0.1487   48.7  0.2712 -173.7
 1.880  0.7470  125.2   1.692   39.8  0.1501   48.4  0.2727 -174.0
 1.900  0.7475  124.7   1.675   39.2  0.1515   48.2  0.2743 -174.3
 1.920  0.7486  124.2   1.657   38.7  0.1528   47.9  0.2752 -174.7
 1.940  0.7497  123.6   1.638   38.3  0.1542   47.6  0.2761 -175.0
 1.960  0.7509  123.1   1.620   37.8  0.1555   47.3  0.2771 -175.4
 1.980  0.7522  122.5   1.602   37.3  0.1569   47.1  0.2780 -175.7
 2.000  0.7535  122.0   1.584   36.8  0.1582   46.8  0.2790 -176.1
 2.020  0.7538  121.4   1.569   36.3  0.1595   46.5  0.2801 -176.4
 2.040  0.7541  120.9   1.555   35.8  0.1607   46.3  0.2811 -176.6
 2.060  0.7545  120.3   1.540   35.3  0.1620   46.0  0.2822 -176.9
 2.080  0.7550  119.8   1.526   34.8  0.1632   45.8  0.2833 -177.2
 2.100  0.7556  119.2   1.511   34.3  0.1645   45.5  0.2844 -177.4
 2.120  0.7562  118.7   1.497   33.8  0.1658   45.3  0.2855 -177.7
 2.140  0.7569  118.1   1.483   33.3  0.1671   45.0  0.2866 -177.9
 2.160  0.7577  117.6   1.469   32.7  0.1683   44.8  0.2877 -178.2
 2.180  0.7585  117.0   1.456   32.2  0.1696   44.5  0.2888 -178.4
 2.200  0.7594  116.5   1.442   31.6  0.1709   44.3  0.2899 -178.7
 2.220  0.7604  115.9   1.430   31.1  0.1721   44.0  0.2913 -179.1
 2.240  0.7614  115.3   1.419   30.6  0.1733   43.7  0.2927 -179.4
 2.260  0.7625  114.8   1.407   30.1  0.1745   43.5  0.2941 -179.8
 2.280  0.7637  114.2   1.395   29.6  0.1758   43.2  0.2955  179.8
 2.300  0.7650  113.6   1.384   29.1  0.1770   42.9  0.2970  179.5
 2.320  0.7663  113.1   1.373   28.6  0.1782   42.6  0.2984  179.1
 2.340  0.7677  112.5   1.362   28.0  0.1795   42.4  0.2999  178.7
 2.360  0.7692  111.9   1.351   27.5  0.1807   42.1  0.3013  178.4
 2.380  0.7708  111.4   1.340   27.0  0.1820   41.9  0.3028  178.0
 2.400  0.7724  110.8   1.329   26.4  0.1832   41.6  0.3043  177.7
 2.420  0.7730  110.3   1.318   26.0  0.1843   41.3  0.3055  177.4
 2.440  0.7737  109.8   1.307   25.6  0.1855   41.0  0.3067  177.1
 2.460  0.7744  109.3   1.296   25.1  0.1867   40.7  0.3079  176.9
 2.480  0.7752  108.8   1.285   24.7  0.1878   40.4  0.3091  176.6
 2.500  0.7760  108.3   1.274   24.2  0.1890   40.2  0.3104  176.3
 2.520  0.7769  107.8   1.263   23.8  0.1902   39.9  0.3116  176.1
 2.540  0.7779  107.3   1.253   23.3  0.1913   39.6  0.3128  175.8
 2.560  0.7789  106.8   1.242   22.9  0.1925   39.3  0.3141  175.5
 2.580  0.7800  106.3   1.231   22.4  0.1937   39.1  0.3153  175.3
 2.600  0.7811  105.8   1.221   21.9  0.1949   38.8  0.3166  175.0
 2.620  0.7817  105.3   1.213   21.5  0.1960   38.5  0.3182  174.6
 2.640  0.7824  104.8   1.204   21.1  0.1971   38.2  0.3199  174.3
 2.660  0.7831  104.3   1.196   20.6  0.1982   38.0  0.3215  173.9
 2.680  0.7839  103.9   1.188   20.2  0.1993   37.7  0.3232  173.6
 2.700  0.7847  103.4   1.180   19.8  0.2004   37.4  0.3249  173.2
 2.720  0.7856  102.9   1.172   19.3  0.2016   37.1  0.3266  172.9
 2.740  0.7865  102.4   1.164   18.9  0.2027   36.9  0.3283  172.5
 2.760  0.7875  102.0   1.156   18.4  0.2038   36.6  0.3300  172.2
 2.780  0.7886  101.5   1.148   18.0  0.2050   36.4  0.3318  171.8
 2.800  0.7897  101.0   1.140   17.5  0.2061   36.1  0.3335  171.5
 2.820  0.7902  100.6   1.131   17.1  0.2071   35.8  0.3349  171.2
 2.840  0.7907  100.1   1.123   16.7  0.2082   35.5  0.3362  170.9
 2.860  0.7912   99.7   1.114   16.2  0.2092   35.2  0.3376  170.6
 2.880  0.7918   99.2   1.106   15.8  0.2102   34.9  0.3390  170.3
 2.900  0.7925   98.8   1.097   15.3  0.2113   34.6  0.3403  170.0
 2.920  0.7932   98.4   1.089   14.9  0.2123   34.3  0.3417  169.7
 2.940  0.7939   97.9   1.080   14.4  0.2134   34.0  0.3431  169.4
 2.960  0.7947   97.5   1.072   14.0  0.2145   33.8  0.3446  169.2
 2.980  0.7955   97.0   1.064   13.5  0.2155   33.5  0.3460  168.9
 3.000  0.7964   96.6   1.056   13.0  0.2166   33.2  0.3474  168.6
 3.100  0.7996   94.6   1.022   11.3  0.2208   31.8  0.3549  166.9
 3.200  0.8037   92.6   0.989    9.6  0.2252   30.4  0.3627  165.3
 3.300  0.8088   90.6   0.957    7.7  0.2296   29.1  0.3708  163.8
 3.400  0.8148   88.7   0.926    5.7  0.2342   27.8  0.3791  162.3
 3.500  0.8218   86.8   0.896    3.5  0.2389   26.6  0.3877  160.9
 3.600  0.8229   85.0   0.871    2.1  0.2426   25.3  0.3954  159.4
 3.700  0.8248   83.2   0.847    0.6  0.2464   24.1  0.4034  157.9
 3.800  0.8274   81.5   0.823   -1.0  0.2503   22.9  0.4117  156.5
 3.900  0.8309   79.7   0.799   -2.6  0.2544   21.8  0.4202  155.2
 4.000  0.8351   78.0   0.777   -4.4  0.2585   20.7  0.4289  153.9
 4.100  0.8367   76.5   0.759   -5.7  0.2622   19.5  0.4353  152.6
 4.200  0.8388   75.1   0.741   -7.1  0.2660   18.3  0.4419  151.3
 4.300  0.8415   73.6   0.724   -8.6  0.2699   17.1  0.4488  150.0
 4.400  0.8447   72.1   0.707  -10.1  0.2740   16.0  0.4558  148.8
 4.500  0.8485   70.7   0.691  -11.7  0.2781   14.9  0.4631  147.6
 4.600  0.8493   69.4   0.678  -12.8  0.2812   13.7  0.4690  146.4
 4.700  0.8506   68.1   0.665  -13.9  0.2844   12.6  0.4751  145.3
 4.800  0.8523   66.8   0.653  -15.0  0.2877   11.5  0.4814  144.2
 4.900  0.8545   65.5   0.641  -16.2  0.2912   10.4  0.4878  143.1
 5.000  0.8571   64.2   0.629  -17.4  0.2947    9.4  0.4944  142.1
 5.100  0.8582   63.0   0.618  -18.3  0.2978    8.3  0.5004  140.9
 5.200  0.8596   61.9   0.606  -19.3  0.3010    7.2  0.5065  139.7
 5.300  0.8613   60.7   0.595  -20.2  0.3044    6.2  0.5129  138.5
 5.400  0.8634   59.5   0.585  -21.2  0.3078    5.1  0.5195  137.4
 5.500  0.8659   58.4   0.574  -22.3  0.3113    4.1  0.5263  136.3
 5.600  0.8651   57.3   0.566  -23.2  0.3143    2.9  0.5316  135.1
 5.700  0.8647   56.2   0.559  -24.2  0.3175    1.7  0.5371  134.0
 5.800  0.8645   55.0   0.552  -25.2  0.3208    0.6  0.5428  132.9
 5.900  0.8648   53.9   0.545  -26.2  0.3242   -0.5  0.5487  131.8
 6.000  0.8653   52.8   0.538  -27.2  0.3277   -1.6  0.5548  130.7
!
!  f       NFmin   Gammaopt  rn/50
! GHz       dB    MAG  ANG    -
!
! noise parameter not available yet for this operation point!
!
! (c) 2016  Infineon Technologies AG, Munich
