! Infineon Technologies  Discrete & RF Semiconductors
! BFP193
! VCE = 3.0 V,  IC =  10 mA
! Common Emitter S-Parameters:                            Jan 2016
# GHz  S  MA  R  50
!  f         S11            S21            S12            S22
! GHz     MAG   ANG      MAG   ANG      MAG   ANG      MAG   ANG
 0.010  0.7082   -7.6  26.978  176.5  0.0032   84.4  0.9770   -3.6
 0.015  0.7076  -11.2  26.590  173.8  0.0049   81.6  0.9718   -5.3
 0.020  0.7098  -14.7  26.264  171.0  0.0067   80.2  0.9675   -7.0
 0.025  0.7021  -18.0  25.989  169.2  0.0083   78.0  0.9586   -8.6
 0.030  0.6967  -21.4  25.742  167.3  0.0099   76.6  0.9504  -10.3
 0.035  0.6938  -24.8  25.522  165.4  0.0115   75.5  0.9430  -11.9
 0.040  0.6934  -28.2  25.331  163.5  0.0132   74.7  0.9365  -13.6
 0.045  0.6954  -31.6  25.170  161.5  0.0148   74.1  0.9308  -15.4
 0.050  0.6999  -35.0  25.038  159.5  0.0164   73.6  0.9259  -17.1
 0.055  0.6878  -37.9  24.650  158.0  0.0176   71.8  0.9123  -18.3
 0.060  0.6775  -40.9  24.279  156.5  0.0188   70.1  0.8992  -19.6
 0.065  0.6691  -43.9  23.926  155.0  0.0201   68.7  0.8865  -20.9
 0.070  0.6626  -47.0  23.590  153.3  0.0213   67.5  0.8743  -22.2
 0.075  0.6581  -50.2  23.274  151.7  0.0226   66.4  0.8625  -23.6
 0.080  0.6557  -53.4  22.978  150.0  0.0239   65.4  0.8513  -25.0
 0.085  0.6553  -56.6  22.702  148.3  0.0251   64.5  0.8406  -26.4
 0.090  0.6570  -59.9  22.448  146.5  0.0264   63.7  0.8305  -27.9
 0.095  0.6608  -63.1  22.216  144.7  0.0277   63.0  0.8209  -29.4
 0.100  0.6666  -66.2  22.007  142.8  0.0290   62.3  0.8119  -31.0
 0.105  0.6587  -68.4  21.606  141.7  0.0298   61.2  0.7991  -31.8
 0.110  0.6518  -70.6  21.214  140.5  0.0306   60.1  0.7865  -32.6
 0.115  0.6459  -72.9  20.831  139.3  0.0315   59.1  0.7740  -33.5
 0.120  0.6410  -75.3  20.458  138.1  0.0323   58.1  0.7617  -34.4
 0.125  0.6372  -77.6  20.094  136.8  0.0331   57.2  0.7496  -35.3
 0.130  0.6345  -80.0  19.741  135.4  0.0340   56.3  0.7377  -36.3
 0.135  0.6330  -82.4  19.399  134.1  0.0349   55.5  0.7261  -37.3
 0.140  0.6325  -84.8  19.069  132.6  0.0357   54.7  0.7146  -38.3
 0.145  0.6331  -87.2  18.752  131.1  0.0366   53.9  0.7034  -39.3
 0.150  0.6349  -89.6  18.447  129.6  0.0375   53.2  0.6924  -40.4
 0.155  0.6307  -91.3  18.159  128.8  0.0380   52.7  0.6824  -40.9
 0.160  0.6271  -93.1  17.874  128.0  0.0385   52.1  0.6725  -41.5
 0.165  0.6241  -94.9  17.594  127.1  0.0390   51.6  0.6626  -42.1
 0.170  0.6217  -96.6  17.317  126.2  0.0395   51.1  0.6528  -42.7
 0.175  0.6199  -98.4  17.045  125.3  0.0401   50.6  0.6431  -43.3
 0.180  0.6187 -100.3  16.777  124.4  0.0406   50.1  0.6335  -44.0
 0.185  0.6182 -102.1  16.513  123.4  0.0411   49.6  0.6239  -44.6
 0.190  0.6182 -103.9  16.255  122.4  0.0416   49.2  0.6145  -45.3
 0.195  0.6189 -105.7  16.002  121.4  0.0422   48.7  0.6051  -46.0
 0.200  0.6202 -107.5  15.754  120.3  0.0427   48.3  0.5958  -46.7
 0.220  0.6075 -113.0  14.789  117.6  0.0441   46.9  0.5629  -48.3
 0.240  0.6005 -118.6  13.861  114.5  0.0456   45.5  0.5304  -50.1
 0.260  0.5971 -123.6  13.049  111.9  0.0470   44.6  0.5032  -51.6
 0.280  0.5951 -128.0  12.331  109.8  0.0483   43.9  0.4810  -52.8
 0.300  0.5966 -132.3  11.630  107.5  0.0497   43.3  0.4590  -54.0
 0.320  0.5914 -135.3  11.118  106.2  0.0507   43.0  0.4424  -54.5
 0.340  0.5878 -138.4  10.613  104.8  0.0516   42.7  0.4258  -55.1
 0.360  0.5859 -141.4  10.115  103.2  0.0526   42.4  0.4092  -55.7
 0.380  0.5857 -144.5   9.626  101.4  0.0535   42.2  0.3927  -56.3
 0.400  0.5872 -147.6   9.146   99.5  0.0545   41.9  0.3763  -57.0
 0.420  0.5844 -149.7   8.796   98.4  0.0553   42.0  0.3659  -57.3
 0.440  0.5825 -151.8   8.450   97.2  0.0561   42.1  0.3555  -57.7
 0.450  0.5818 -152.9   8.279   96.6  0.0564   42.1  0.3503  -57.8
 0.460  0.5813 -153.9   8.108   95.9  0.0568   42.1  0.3451  -58.0
 0.480  0.5810 -156.1   7.771   94.5  0.0576   42.2  0.3348  -58.4
 0.500  0.5814 -158.2   7.438   93.0  0.0584   42.3  0.3244  -58.8
 0.520  0.5804 -160.0   7.206   92.1  0.0593   42.5  0.3175  -59.1
 0.540  0.5800 -161.8   6.975   91.1  0.0602   42.8  0.3106  -59.3
 0.560  0.5802 -163.6   6.747   90.0  0.0612   43.0  0.3037  -59.6
 0.580  0.5810 -165.4   6.521   88.9  0.0621   43.2  0.2968  -59.9
 0.600  0.5823 -167.2   6.298   87.7  0.0630   43.4  0.2899  -60.2
 0.620  0.5818 -168.7   6.127   86.9  0.0639   43.7  0.2854  -60.4
 0.640  0.5817 -170.2   5.958   86.0  0.0648   43.9  0.2808  -60.6
 0.660  0.5819 -171.6   5.790   85.0  0.0656   44.1  0.2763  -60.8
 0.680  0.5826 -173.1   5.624   84.1  0.0665   44.4  0.2718  -61.1
 0.700  0.5836 -174.6   5.460   83.0  0.0674   44.6  0.2673  -61.3
 0.720  0.5843 -175.7   5.324   82.3  0.0684   44.7  0.2638  -61.5
 0.740  0.5852 -176.9   5.189   81.5  0.0694   44.9  0.2604  -61.7
 0.760  0.5864 -178.0   5.054   80.7  0.0705   45.0  0.2569  -61.9
 0.780  0.5878 -179.2   4.921   79.9  0.0715   45.2  0.2535  -62.1
 0.800  0.5894  179.7   4.789   79.0  0.0725   45.3  0.2500  -62.3
 0.820  0.5879  178.6   4.685   78.3  0.0735   45.5  0.2477  -62.5
 0.840  0.5866  177.5   4.582   77.6  0.0745   45.7  0.2455  -62.7
 0.860  0.5856  176.4   4.480   76.9  0.0755   45.9  0.2432  -62.9
 0.880  0.5847  175.3   4.379   76.1  0.0765   46.1  0.2410  -63.1
 0.900  0.5841  174.2   4.278   75.3  0.0775   46.3  0.2387  -63.3
 0.920  0.5848  173.2   4.197   74.7  0.0784   46.5  0.2369  -63.6
 0.940  0.5857  172.1   4.116   74.0  0.0793   46.8  0.2351  -63.8
 0.960  0.5868  171.1   4.036   73.3  0.0803   47.0  0.2333  -64.1
 0.980  0.5881  170.1   3.957   72.6  0.0812   47.2  0.2315  -64.3
 1.000  0.5896  169.1   3.878   71.8  0.0821   47.4  0.2297  -64.6
 1.020  0.5901  168.2   3.810   71.2  0.0831   47.5  0.2282  -65.0
 1.040  0.5908  167.3   3.743   70.5  0.0841   47.5  0.2268  -65.3
 1.060  0.5916  166.3   3.676   69.8  0.0851   47.6  0.2254  -65.7
 1.080  0.5926  165.4   3.610   69.1  0.0861   47.6  0.2239  -66.0
 1.100  0.5937  164.5   3.544   68.4  0.0871   47.7  0.2225  -66.4
 1.120  0.5948  163.7   3.486   67.8  0.0882   47.8  0.2212  -66.8
 1.140  0.5960  162.8   3.428   67.2  0.0893   47.9  0.2200  -67.1
 1.160  0.5973  162.0   3.371   66.5  0.0904   48.0  0.2188  -67.5
 1.180  0.5988  161.1   3.314   65.9  0.0915   48.1  0.2175  -67.9
 1.200  0.6004  160.3   3.258   65.2  0.0926   48.2  0.2163  -68.3
 1.220  0.5995  159.5   3.207   64.6  0.0938   48.2  0.2153  -68.7
 1.240  0.5986  158.7   3.157   64.0  0.0949   48.2  0.2144  -69.0
 1.260  0.5979  157.8   3.107   63.4  0.0961   48.3  0.2135  -69.4
 1.280  0.5974  157.0   3.057   62.8  0.0972   48.3  0.2125  -69.8
 1.300  0.5969  156.2   3.008   62.1  0.0984   48.3  0.2116  -70.2
 1.320  0.5980  155.5   2.965   61.6  0.0994   48.4  0.2112  -70.6
 1.340  0.5992  154.7   2.922   61.0  0.1005   48.4  0.2108  -71.0
 1.360  0.6006  154.0   2.880   60.5  0.1015   48.5  0.2104  -71.4
 1.380  0.6020  153.2   2.838   59.9  0.1026   48.5  0.2100  -71.8
 1.400  0.6035  152.5   2.796   59.3  0.1036   48.6  0.2096  -72.2
 1.420  0.6035  151.8   2.763   58.7  0.1047   48.6  0.2090  -72.7
 1.440  0.6036  151.1   2.730   58.2  0.1059   48.5  0.2083  -73.2
 1.460  0.6038  150.5   2.698   57.6  0.1070   48.5  0.2077  -73.6
 1.480  0.6041  149.8   2.666   57.0  0.1082   48.4  0.2071  -74.1
 1.500  0.6045  149.1   2.634   56.4  0.1093   48.4  0.2065  -74.6
 1.520  0.6060  148.4   2.597   55.8  0.1104   48.4  0.2058  -75.1
 1.540  0.6077  147.7   2.561   55.2  0.1116   48.4  0.2051  -75.6
 1.560  0.6094  147.0   2.525   54.6  0.1127   48.3  0.2044  -76.0
 1.580  0.6112  146.4   2.489   54.0  0.1139   48.3  0.2038  -76.5
 1.600  0.6131  145.7   2.454   53.3  0.1150   48.3  0.2031  -77.0
 1.620  0.6146  144.9   2.427   52.8  0.1161   48.3  0.2027  -77.5
 1.640  0.6163  144.2   2.401   52.2  0.1172   48.3  0.2022  -77.9
 1.660  0.6180  143.4   2.375   51.7  0.1184   48.3  0.2018  -78.4
 1.680  0.6198  142.7   2.349   51.1  0.1195   48.3  0.2014  -78.8
 1.700  0.6218  141.9   2.323   50.5  0.1206   48.3  0.2010  -79.3
 1.720  0.6221  141.3   2.299   50.0  0.1217   48.2  0.2009  -79.8
 1.740  0.6224  140.7   2.275   49.6  0.1228   48.1  0.2007  -80.3
 1.760  0.6227  140.2   2.251   49.1  0.1240   48.1  0.2006  -80.7
 1.780  0.6232  139.6   2.227   48.6  0.1251   48.0  0.2005  -81.2
 1.800  0.6237  139.0   2.204   48.1  0.1262   47.9  0.2004  -81.7
 1.820  0.6251  138.4   2.182   47.6  0.1274   47.8  0.2002  -82.4
 1.840  0.6265  137.8   2.160   47.0  0.1286   47.7  0.2001  -83.1
 1.860  0.6280  137.2   2.139   46.5  0.1297   47.7  0.2000  -83.8
 1.880  0.6296  136.6   2.117   45.9  0.1309   47.6  0.1999  -84.5
 1.900  0.6312  136.0   2.096   45.3  0.1321   47.5  0.1998  -85.2
 1.920  0.6319  135.4   2.074   44.8  0.1333   47.4  0.1991  -85.7
 1.940  0.6327  134.8   2.052   44.3  0.1345   47.2  0.1983  -86.3
 1.960  0.6336  134.1   2.030   43.7  0.1357   47.1  0.1976  -86.8
 1.980  0.6346  133.5   2.008   43.2  0.1369   46.9  0.1970  -87.4
 2.000  0.6356  132.9   1.987   42.6  0.1381   46.8  0.1963  -87.9
 2.020  0.6363  132.3   1.968   42.1  0.1392   46.7  0.1963  -88.5
 2.040  0.6371  131.8   1.950   41.6  0.1403   46.6  0.1963  -89.1
 2.060  0.6380  131.2   1.931   41.1  0.1415   46.5  0.1964  -89.6
 2.080  0.6389  130.7   1.913   40.6  0.1426   46.4  0.1964  -90.2
 2.100  0.6399  130.1   1.895   40.1  0.1437   46.3  0.1965  -90.8
 2.120  0.6409  129.6   1.877   39.6  0.1448   46.2  0.1966  -91.4
 2.140  0.6420  129.0   1.859   39.1  0.1459   46.1  0.1967  -92.0
 2.160  0.6431  128.5   1.841   38.5  0.1471   46.0  0.1969  -92.5
 2.180  0.6443  127.9   1.823   38.0  0.1482   45.9  0.1970  -93.1
 2.200  0.6456  127.4   1.806   37.4  0.1493   45.8  0.1972  -93.7
 2.220  0.6468  126.8   1.792   36.9  0.1505   45.7  0.1968  -94.4
 2.240  0.6481  126.2   1.778   36.4  0.1517   45.5  0.1964  -95.1
 2.260  0.6494  125.6   1.764   35.9  0.1529   45.4  0.1961  -95.9
 2.280  0.6508  125.0   1.750   35.4  0.1541   45.3  0.1958  -96.6
 2.300  0.6523  124.4   1.736   34.9  0.1553   45.2  0.1955  -97.3
 2.320  0.6539  123.8   1.723   34.4  0.1566   45.1  0.1953  -98.1
 2.340  0.6555  123.2   1.709   33.8  0.1578   44.9  0.1950  -98.8
 2.360  0.6572  122.6   1.696   33.3  0.1590   44.8  0.1949  -99.5
 2.380  0.6590  122.0   1.683   32.8  0.1602   44.7  0.1947 -100.3
 2.400  0.6608  121.4   1.670   32.2  0.1614   44.6  0.1946 -101.0
 2.420  0.6620  120.9   1.656   31.8  0.1625   44.4  0.1946 -101.7
 2.440  0.6632  120.3   1.642   31.3  0.1636   44.3  0.1947 -102.3
 2.460  0.6644  119.8   1.628   30.9  0.1647   44.1  0.1948 -103.0
 2.480  0.6657  119.3   1.615   30.4  0.1658   43.9  0.1949 -103.7
 2.500  0.6671  118.8   1.601   29.9  0.1669   43.8  0.1950 -104.4
 2.520  0.6685  118.3   1.588   29.5  0.1680   43.6  0.1952 -105.0
 2.540  0.6700  117.7   1.574   29.0  0.1692   43.5  0.1954 -105.7
 2.560  0.6716  117.2   1.561   28.5  0.1703   43.3  0.1956 -106.4
 2.580  0.6732  116.7   1.548   28.0  0.1714   43.2  0.1958 -107.0
 2.600  0.6748  116.2   1.535   27.5  0.1725   43.0  0.1961 -107.7
 2.620  0.6758  115.7   1.524   27.1  0.1736   42.8  0.1960 -108.5
 2.640  0.6768  115.2   1.514   26.7  0.1747   42.6  0.1960 -109.3
 2.660  0.6779  114.7   1.503   26.2  0.1759   42.5  0.1959 -110.1
 2.680  0.6791  114.2   1.493   25.8  0.1770   42.3  0.1960 -110.9
 2.700  0.6803  113.7   1.482   25.4  0.1781   42.1  0.1960 -111.7
 2.720  0.6815  113.2   1.472   24.9  0.1793   42.0  0.1961 -112.4
 2.740  0.6828  112.7   1.462   24.5  0.1804   41.8  0.1963 -113.2
 2.760  0.6841  112.2   1.452   24.0  0.1815   41.6  0.1964 -114.0
 2.780  0.6855  111.7   1.442   23.6  0.1827   41.5  0.1967 -114.8
 2.800  0.6870  111.2   1.432   23.1  0.1838   41.3  0.1969 -115.6
 2.820  0.6879  110.7   1.422   22.7  0.1849   41.1  0.1973 -116.3
 2.840  0.6888  110.3   1.411   22.2  0.1860   40.9  0.1978 -117.1
 2.860  0.6898  109.8   1.401   21.8  0.1871   40.8  0.1983 -117.8
 2.880  0.6908  109.4   1.391   21.3  0.1883   40.6  0.1988 -118.5
 2.900  0.6919  108.9   1.381   20.8  0.1894   40.4  0.1994 -119.3
 2.920  0.6930  108.5   1.371   20.4  0.1905   40.3  0.2000 -120.0
 2.940  0.6941  108.0   1.361   19.9  0.1916   40.1  0.2006 -120.7
 2.960  0.6953  107.6   1.351   19.4  0.1927   39.9  0.2013 -121.4
 2.980  0.6965  107.1   1.342   18.9  0.1939   39.8  0.2020 -122.1
 3.000  0.6978  106.7   1.332   18.4  0.1950   39.6  0.2027 -122.8
 3.100  0.7023  104.6   1.288   16.7  0.2004   38.6  0.2048 -126.7
 3.200  0.7078  102.6   1.246   14.8  0.2058   37.7  0.2078 -130.6
 3.300  0.7141  100.6   1.205   12.9  0.2112   36.8  0.2117 -134.3
 3.400  0.7213   98.6   1.165   10.8  0.2167   36.0  0.2164 -137.8
 3.500  0.7293   96.7   1.127    8.5  0.2223   35.2  0.2220 -141.2
 3.600  0.7331   94.9   1.097    6.9  0.2277   34.1  0.2273 -145.1
 3.700  0.7376   93.0   1.067    5.2  0.2331   33.1  0.2336 -148.7
 3.800  0.7428   91.2   1.039    3.4  0.2386   32.1  0.2408 -152.2
 3.900  0.7488   89.4   1.011    1.6  0.2442   31.1  0.2488 -155.5
 4.000  0.7555   87.7   0.985   -0.4  0.2498   30.2  0.2576 -158.5
 4.100  0.7597   86.1   0.961   -1.9  0.2548   29.0  0.2642 -161.6
 4.200  0.7645   84.6   0.937   -3.4  0.2600   27.9  0.2715 -164.6
 4.300  0.7698   83.0   0.914   -5.0  0.2652   26.8  0.2795 -167.4
 4.400  0.7757   81.5   0.891   -6.7  0.2705   25.8  0.2881 -170.0
 4.500  0.7821   80.0   0.870   -8.5  0.2759   24.8  0.2973 -172.5
 4.600  0.7850   78.7   0.851   -9.8  0.2805   23.7  0.3050 -175.1
 4.700  0.7883   77.4   0.833  -11.1  0.2851   22.6  0.3134 -177.5
 4.800  0.7920   76.1   0.815  -12.5  0.2899   21.6  0.3222 -179.8
 4.900  0.7961   74.9   0.798  -13.9  0.2948   20.6  0.3316  178.0
 5.000  0.8006   73.6   0.781  -15.4  0.2997   19.6  0.3414  175.9
 5.100  0.8036   72.4   0.764  -16.4  0.3042   18.5  0.3484  173.5
 5.200  0.8070   71.2   0.748  -17.5  0.3088   17.4  0.3561  171.2
 5.300  0.8108   70.0   0.732  -18.7  0.3135   16.3  0.3643  168.9
 5.400  0.8149   68.8   0.716  -19.9  0.3183   15.3  0.3730  166.8
 5.500  0.8193   67.6   0.700  -21.1  0.3232   14.3  0.3822  164.8
 5.600  0.8192   66.5   0.688  -22.0  0.3275   13.1  0.3893  162.8
 5.700  0.8194   65.4   0.677  -23.0  0.3319   12.0  0.3969  160.8
 5.800  0.8199   64.4   0.665  -23.9  0.3364   10.8  0.4050  158.9
 5.900  0.8207   63.3   0.654  -25.0  0.3410    9.8  0.4134  157.1
 6.000  0.8218   62.2   0.643  -26.0  0.3458    8.7  0.4223  155.4
!
!  f       NFmin   Gammaopt  rn/50
! GHz       dB    MAG  ANG    -
 0.450      1.30  0.22  143   0.11
 0.900      1.30  0.34  160   0.11
 1.800      2.05  0.54 -153   0.14
!
! (c) 2016  Infineon Technologies AG, Munich
