! Infineon Technologies  Discrete & RF Semiconductors
! BFP183
! VCE = 4.0 V,  IC =  8.0 mA
! Common Emitter S-Parameters:                            Jan 2016
# GHz  S  MA  R  50
!  f         S11            S21            S12            S22
! GHz     MAG   ANG      MAG   ANG      MAG   ANG      MAG   ANG
 0.010  0.7440   -4.0  21.346  177.5  0.0020   86.9  0.9890   -1.7
 0.015  0.7432   -6.0  21.354  176.4  0.0028   85.1  0.9873   -2.5
 0.020  0.7433   -8.1  21.369  175.4  0.0036   84.1  0.9858   -3.3
 0.025  0.7398  -10.0  21.276  174.2  0.0047   83.6  0.9828   -4.1
 0.030  0.7371  -12.0  21.193  172.9  0.0057   83.2  0.9801   -4.9
 0.035  0.7353  -13.9  21.120  171.7  0.0068   83.0  0.9775   -5.8
 0.040  0.7343  -15.9  21.057  170.4  0.0079   82.8  0.9752   -6.6
 0.045  0.7342  -17.8  21.005  169.2  0.0089   82.7  0.9730   -7.5
 0.050  0.7349  -19.8  20.962  167.9  0.0100   82.6  0.9711   -8.3
 0.055  0.7293  -21.6  20.821  166.8  0.0108   80.5  0.9659   -9.0
 0.060  0.7245  -23.4  20.687  165.8  0.0116   78.8  0.9608   -9.8
 0.065  0.7204  -25.3  20.561  164.7  0.0125   77.3  0.9559  -10.6
 0.070  0.7171  -27.1  20.443  163.6  0.0133   75.9  0.9512  -11.3
 0.075  0.7145  -29.0  20.332  162.4  0.0142   74.7  0.9466  -12.1
 0.080  0.7127  -30.9  20.228  161.3  0.0150   73.7  0.9422  -12.9
 0.085  0.7117  -32.8  20.133  160.2  0.0159   72.8  0.9380  -13.7
 0.090  0.7114  -34.7  20.046  159.0  0.0168   71.9  0.9340  -14.5
 0.095  0.7120  -36.6  19.967  157.9  0.0176   71.2  0.9302  -15.3
 0.100  0.7133  -38.5  19.896  156.7  0.0185   70.5  0.9265  -16.1
 0.105  0.7081  -40.2  19.726  155.8  0.0192   69.6  0.9203  -16.7
 0.110  0.7036  -41.8  19.561  154.8  0.0200   68.8  0.9141  -17.4
 0.115  0.6996  -43.5  19.402  153.8  0.0207   68.0  0.9081  -18.0
 0.120  0.6963  -45.3  19.249  152.8  0.0215   67.3  0.9022  -18.6
 0.125  0.6936  -47.0  19.101  151.8  0.0223   66.6  0.8964  -19.3
 0.130  0.6916  -48.8  18.960  150.8  0.0230   65.9  0.8907  -20.0
 0.135  0.6902  -50.5  18.825  149.7  0.0238   65.4  0.8852  -20.6
 0.140  0.6894  -52.3  18.696  148.7  0.0246   64.8  0.8798  -21.3
 0.145  0.6893  -54.0  18.574  147.6  0.0253   64.3  0.8745  -22.0
 0.150  0.6899  -55.8  18.458  146.5  0.0261   63.8  0.8693  -22.7
 0.155  0.6846  -57.3  18.296  145.7  0.0267   63.2  0.8627  -23.2
 0.160  0.6798  -58.9  18.137  144.8  0.0273   62.5  0.8562  -23.7
 0.165  0.6755  -60.4  17.982  144.0  0.0279   61.9  0.8497  -24.2
 0.170  0.6717  -62.0  17.832  143.1  0.0285   61.4  0.8433  -24.7
 0.175  0.6684  -63.6  17.686  142.2  0.0291   60.8  0.8370  -25.3
 0.180  0.6656  -65.2  17.544  141.3  0.0297   60.3  0.8308  -25.8
 0.185  0.6634  -66.9  17.406  140.4  0.0303   59.8  0.8246  -26.3
 0.190  0.6617  -68.5  17.273  139.5  0.0309   59.3  0.8185  -26.9
 0.195  0.6606  -70.2  17.144  138.6  0.0315   58.8  0.8124  -27.4
 0.200  0.6600  -71.8  17.020  137.6  0.0321   58.4  0.8065  -28.0
 0.220  0.6467  -76.9  16.351  134.7  0.0337   56.0  0.7812  -29.6
 0.240  0.6386  -82.1  15.726  131.6  0.0354   53.9  0.7566  -31.3
 0.260  0.6312  -87.1  15.152  128.9  0.0371   52.2  0.7331  -32.7
 0.280  0.6234  -91.7  14.612  126.5  0.0386   50.9  0.7104  -33.9
 0.300  0.6198  -96.4  14.099  123.9  0.0401   49.7  0.6879  -35.1
 0.320  0.6080 -100.0  13.590  122.1  0.0410   48.5  0.6702  -35.8
 0.340  0.5987 -103.8  13.095  120.2  0.0420   47.3  0.6525  -36.5
 0.360  0.5920 -107.7  12.617  118.1  0.0429   46.3  0.6350  -37.3
 0.380  0.5882 -111.6  12.156  115.8  0.0439   45.2  0.6177  -38.1
 0.400  0.5871 -115.6  11.716  113.4  0.0449   44.2  0.6004  -39.0
 0.420  0.5798 -118.5  11.330  112.0  0.0456   43.5  0.5872  -39.4
 0.440  0.5740 -121.5  10.950  110.6  0.0463   42.8  0.5741  -39.9
 0.450  0.5717 -123.1  10.763  109.8  0.0467   42.5  0.5676  -40.1
 0.460  0.5699 -124.6  10.578  109.0  0.0470   42.2  0.5610  -40.3
 0.480  0.5673 -127.7  10.215  107.3  0.0478   41.5  0.5480  -40.8
 0.500  0.5665 -130.8   9.861  105.5  0.0485   40.9  0.5350  -41.3
 0.520  0.5629 -133.1   9.593  104.4  0.0491   40.7  0.5255  -41.5
 0.540  0.5603 -135.4   9.328  103.2  0.0498   40.4  0.5159  -41.8
 0.560  0.5586 -137.7   9.068  101.9  0.0504   40.2  0.5064  -42.1
 0.580  0.5578 -140.1   8.813  100.6  0.0511   40.0  0.4969  -42.3
 0.600  0.5579 -142.4   8.562   99.2  0.0517   39.8  0.4874  -42.6
 0.620  0.5551 -144.3   8.330   98.3  0.0521   39.6  0.4806  -42.8
 0.640  0.5530 -146.2   8.100   97.3  0.0526   39.4  0.4737  -42.9
 0.660  0.5515 -148.2   7.872   96.2  0.0530   39.2  0.4669  -43.1
 0.680  0.5506 -150.1   7.648   95.1  0.0535   39.0  0.4600  -43.2
 0.700  0.5504 -152.1   7.426   93.9  0.0539   38.8  0.4532  -43.4
 0.720  0.5486 -153.8   7.266   93.1  0.0543   38.7  0.4483  -43.5
 0.740  0.5472 -155.4   7.107   92.2  0.0547   38.6  0.4433  -43.6
 0.760  0.5463 -157.1   6.950   91.3  0.0552   38.4  0.4384  -43.7
 0.780  0.5459 -158.8   6.795   90.3  0.0556   38.3  0.4334  -43.8
 0.800  0.5459 -160.5   6.642   89.3  0.0560   38.2  0.4285  -43.9
 0.820  0.5450 -161.9   6.504   88.6  0.0566   38.2  0.4248  -44.0
 0.840  0.5445 -163.4   6.368   87.8  0.0572   38.2  0.4211  -44.1
 0.860  0.5443 -164.8   6.233   87.0  0.0577   38.3  0.4174  -44.3
 0.880  0.5444 -166.3   6.099   86.2  0.0583   38.3  0.4137  -44.4
 0.900  0.5449 -167.7   5.966   85.3  0.0589   38.3  0.4100  -44.5
 0.920  0.5445 -169.1   5.849   84.6  0.0593   38.3  0.4069  -44.6
 0.940  0.5444 -170.4   5.733   83.8  0.0597   38.2  0.4038  -44.7
 0.960  0.5446 -171.8   5.618   83.0  0.0600   38.2  0.4008  -44.9
 0.980  0.5452 -173.1   5.504   82.2  0.0604   38.1  0.3977  -45.0
 1.000  0.5460 -174.5   5.391   81.3  0.0608   38.1  0.3946  -45.1
 1.020  0.5460 -175.7   5.301   80.6  0.0613   38.2  0.3921  -45.2
 1.040  0.5463 -176.8   5.212   79.9  0.0618   38.3  0.3896  -45.4
 1.060  0.5468 -178.0   5.123   79.2  0.0622   38.3  0.3872  -45.5
 1.080  0.5475 -179.1   5.036   78.4  0.0627   38.4  0.3847  -45.7
 1.100  0.5484  179.7   4.949   77.6  0.0632   38.5  0.3822  -45.8
 1.120  0.5479  178.6   4.866   77.0  0.0636   38.5  0.3804  -46.0
 1.140  0.5476  177.5   4.783   76.4  0.0641   38.5  0.3786  -46.2
 1.160  0.5475  176.5   4.701   75.8  0.0645   38.5  0.3768  -46.3
 1.180  0.5476  175.4   4.620   75.2  0.0650   38.5  0.3750  -46.5
 1.200  0.5479  174.3   4.539   74.5  0.0654   38.5  0.3732  -46.7
 1.220  0.5483  173.4   4.469   73.9  0.0659   38.6  0.3716  -46.9
 1.240  0.5488  172.5   4.400   73.3  0.0664   38.7  0.3700  -47.1
 1.260  0.5495  171.5   4.331   72.6  0.0670   38.7  0.3684  -47.2
 1.280  0.5503  170.6   4.263   72.0  0.0675   38.8  0.3668  -47.4
 1.300  0.5513  169.7   4.195   71.3  0.0680   38.9  0.3652  -47.6
 1.320  0.5515  168.7   4.138   70.8  0.0685   39.0  0.3638  -47.8
 1.340  0.5518  167.7   4.081   70.2  0.0690   39.1  0.3624  -48.0
 1.360  0.5523  166.8   4.025   69.6  0.0694   39.1  0.3610  -48.3
 1.380  0.5530  165.8   3.969   69.0  0.0699   39.2  0.3597  -48.5
 1.400  0.5538  164.8   3.913   68.4  0.0704   39.3  0.3583  -48.7
 1.420  0.5557  164.0   3.861   67.8  0.0709   39.4  0.3571  -48.9
 1.440  0.5577  163.2   3.810   67.1  0.0715   39.5  0.3559  -49.1
 1.460  0.5598  162.4   3.760   66.5  0.0720   39.5  0.3547  -49.3
 1.480  0.5621  161.7   3.710   65.8  0.0726   39.6  0.3536  -49.5
 1.500  0.5644  160.9   3.660   65.1  0.0731   39.7  0.3524  -49.7
 1.520  0.5643  160.1   3.615   64.6  0.0736   39.6  0.3515  -49.9
 1.540  0.5643  159.3   3.570   64.1  0.0742   39.6  0.3505  -50.2
 1.560  0.5645  158.4   3.526   63.5  0.0747   39.5  0.3496  -50.4
 1.580  0.5647  157.6   3.482   63.0  0.0753   39.5  0.3487  -50.7
 1.600  0.5651  156.8   3.438   62.4  0.0758   39.4  0.3478  -50.9
 1.620  0.5655  155.9   3.395   61.9  0.0763   39.5  0.3469  -51.2
 1.640  0.5661  155.0   3.352   61.3  0.0768   39.5  0.3460  -51.5
 1.660  0.5668  154.2   3.309   60.8  0.0773   39.6  0.3451  -51.9
 1.680  0.5676  153.3   3.267   60.2  0.0778   39.6  0.3443  -52.2
 1.700  0.5686  152.4   3.225   59.6  0.0783   39.7  0.3434  -52.5
 1.720  0.5696  151.7   3.190   59.1  0.0789   39.7  0.3424  -52.8
 1.740  0.5706  150.9   3.156   58.5  0.0795   39.7  0.3414  -53.1
 1.760  0.5718  150.2   3.122   58.0  0.0801   39.8  0.3404  -53.3
 1.780  0.5730  149.4   3.088   57.4  0.0807   39.8  0.3394  -53.6
 1.800  0.5744  148.7   3.055   56.8  0.0813   39.8  0.3384  -53.9
 1.820  0.5756  148.0   3.022   56.3  0.0818   39.8  0.3377  -54.2
 1.840  0.5768  147.3   2.990   55.8  0.0824   39.7  0.3369  -54.5
 1.860  0.5782  146.6   2.957   55.3  0.0829   39.7  0.3362  -54.7
 1.880  0.5796  145.9   2.925   54.8  0.0835   39.6  0.3355  -55.0
 1.900  0.5811  145.2   2.893   54.3  0.0840   39.6  0.3348  -55.3
 1.920  0.5814  144.5   2.861   53.8  0.0845   39.6  0.3340  -55.6
 1.940  0.5819  143.8   2.829   53.3  0.0851   39.6  0.3333  -55.9
 1.960  0.5824  143.0   2.798   52.8  0.0856   39.5  0.3326  -56.2
 1.980  0.5830  142.3   2.766   52.2  0.0862   39.5  0.3318  -56.5
 2.000  0.5837  141.6   2.735   51.7  0.0867   39.5  0.3311  -56.8
 2.020  0.5850  141.0   2.709   51.2  0.0873   39.5  0.3303  -57.2
 2.040  0.5863  140.4   2.684   50.7  0.0878   39.5  0.3296  -57.5
 2.060  0.5878  139.7   2.658   50.2  0.0884   39.4  0.3289  -57.9
 2.080  0.5893  139.1   2.633   49.7  0.0890   39.4  0.3282  -58.3
 2.100  0.5908  138.5   2.608   49.2  0.0895   39.4  0.3275  -58.6
 2.120  0.5924  137.9   2.584   48.7  0.0901   39.4  0.3268  -59.0
 2.140  0.5941  137.3   2.559   48.2  0.0907   39.4  0.3261  -59.4
 2.160  0.5959  136.7   2.535   47.6  0.0913   39.3  0.3255  -59.7
 2.180  0.5977  136.1   2.511   47.1  0.0918   39.3  0.3248  -60.1
 2.200  0.5996  135.5   2.487   46.5  0.0924   39.3  0.3242  -60.5
 2.220  0.6005  134.8   2.466   46.1  0.0930   39.2  0.3235  -60.9
 2.240  0.6016  134.2   2.444   45.6  0.0935   39.2  0.3228  -61.3
 2.260  0.6027  133.6   2.423   45.1  0.0941   39.1  0.3221  -61.7
 2.280  0.6039  132.9   2.403   44.7  0.0947   39.1  0.3214  -62.0
 2.300  0.6051  132.3   2.382   44.2  0.0952   39.0  0.3208  -62.4
 2.320  0.6064  131.6   2.361   43.7  0.0958   39.0  0.3201  -62.8
 2.340  0.6078  131.0   2.341   43.2  0.0964   38.9  0.3195  -63.2
 2.360  0.6093  130.4   2.321   42.7  0.0970   38.9  0.3189  -63.6
 2.380  0.6109  129.7   2.301   42.2  0.0975   38.8  0.3183  -64.0
 2.400  0.6125  129.1   2.281   41.7  0.0981   38.8  0.3177  -64.4
 2.420  0.6141  128.6   2.261   41.3  0.0986   38.7  0.3170  -64.8
 2.440  0.6158  128.0   2.242   40.8  0.0992   38.7  0.3163  -65.2
 2.460  0.6175  127.5   2.222   40.4  0.0997   38.6  0.3156  -65.6
 2.480  0.6193  126.9   2.203   40.0  0.1003   38.6  0.3150  -66.0
 2.500  0.6211  126.4   2.183   39.5  0.1008   38.5  0.3143  -66.4
 2.520  0.6230  125.9   2.164   39.0  0.1013   38.4  0.3137  -66.8
 2.540  0.6249  125.4   2.145   38.6  0.1019   38.4  0.3131  -67.2
 2.560  0.6269  124.8   2.126   38.1  0.1024   38.3  0.3125  -67.6
 2.580  0.6289  124.3   2.108   37.6  0.1030   38.3  0.3119  -68.0
 2.600  0.6310  123.8   2.089   37.1  0.1035   38.2  0.3113  -68.4
 2.620  0.6322  123.3   2.073   36.6  0.1041   38.1  0.3107  -68.8
 2.640  0.6335  122.7   2.057   36.2  0.1046   38.0  0.3101  -69.3
 2.660  0.6348  122.2   2.041   35.7  0.1052   37.9  0.3095  -69.7
 2.680  0.6362  121.7   2.025   35.2  0.1057   37.8  0.3089  -70.1
 2.700  0.6376  121.2   2.010   34.7  0.1063   37.7  0.3083  -70.6
 2.720  0.6391  120.7   1.994   34.2  0.1069   37.6  0.3078  -71.0
 2.740  0.6406  120.1   1.979   33.7  0.1074   37.5  0.3073  -71.5
 2.760  0.6422  119.6   1.964   33.2  0.1080   37.4  0.3068  -71.9
 2.780  0.6438  119.1   1.949   32.6  0.1085   37.3  0.3063  -72.4
 2.800  0.6455  118.6   1.934   32.1  0.1091   37.2  0.3058  -72.8
 2.820  0.6467  118.1   1.920   31.7  0.1097   37.1  0.3052  -73.3
 2.840  0.6479  117.6   1.905   31.3  0.1103   37.0  0.3045  -73.7
 2.860  0.6491  117.1   1.891   30.9  0.1108   37.0  0.3039  -74.2
 2.880  0.6504  116.6   1.877   30.5  0.1114   36.9  0.3034  -74.7
 2.900  0.6518  116.1   1.863   30.0  0.1120   36.8  0.3028  -75.1
 2.920  0.6532  115.6   1.849   29.6  0.1126   36.7  0.3023  -75.6
 2.940  0.6547  115.1   1.836   29.2  0.1132   36.6  0.3017  -76.1
 2.960  0.6562  114.7   1.822   28.7  0.1137   36.6  0.3012  -76.5
 2.980  0.6577  114.2   1.808   28.3  0.1143   36.5  0.3008  -77.0
 3.000  0.6593  113.7   1.795   27.8  0.1149   36.4  0.3003  -77.5
 3.100  0.6646  111.5   1.734   26.0  0.1177   35.9  0.2980  -80.0
 3.200  0.6708  109.3   1.675   24.0  0.1204   35.3  0.2962  -82.4
 3.300  0.6780  107.2   1.618   21.9  0.1232   34.8  0.2951  -84.9
 3.400  0.6861  105.1   1.563   19.6  0.1260   34.4  0.2944  -87.5
 3.500  0.6951  103.1   1.511   17.2  0.1288   33.9  0.2944  -90.0
 3.600  0.7000  101.2   1.466   15.5  0.1315   33.2  0.2928  -92.9
 3.700  0.7057   99.4   1.422   13.7  0.1343   32.6  0.2919  -95.7
 3.800  0.7120   97.6   1.380   11.7  0.1371   32.0  0.2918  -98.6
 3.900  0.7191   95.8   1.339    9.7  0.1399   31.4  0.2924 -101.5
 4.000  0.7268   94.1   1.300    7.5  0.1427   30.8  0.2938 -104.4
 4.100  0.7309   92.5   1.263    5.9  0.1452   30.1  0.2934 -107.4
 4.200  0.7356   91.0   1.227    4.2  0.1478   29.4  0.2939 -110.4
 4.300  0.7408   89.5   1.192    2.4  0.1503   28.7  0.2952 -113.4
 4.400  0.7466   88.0   1.158    0.4  0.1529   28.0  0.2972 -116.4
 4.500  0.7528   86.5   1.126   -1.6  0.1555   27.4  0.3001 -119.3
 4.600  0.7558   85.3   1.096   -2.9  0.1580   27.0  0.3014 -122.0
 4.700  0.7591   84.0   1.067   -4.4  0.1605   26.6  0.3034 -124.7
 4.800  0.7628   82.8   1.039   -5.9  0.1630   26.2  0.3060 -127.3
 4.900  0.7668   81.6   1.011   -7.4  0.1655   25.9  0.3093 -129.9
 5.000  0.7712   80.4   0.984   -9.1  0.1680   25.5  0.3132 -132.4
 5.100  0.7746   79.3   0.962  -10.5  0.1715   24.6  0.3179 -135.1
 5.200  0.7783   78.2   0.940  -12.0  0.1751   23.7  0.3233 -137.8
 5.300  0.7822   77.1   0.919  -13.6  0.1787   22.9  0.3293 -140.4
 5.400  0.7865   76.1   0.899  -15.2  0.1823   22.1  0.3360 -142.8
 5.500  0.7910   75.0   0.879  -16.9  0.1860   21.3  0.3433 -145.2
 5.600  0.7952   74.0   0.860  -18.2  0.1887   20.4  0.3483 -147.7
 5.700  0.7996   73.0   0.842  -19.6  0.1913   19.5  0.3539 -150.1
 5.800  0.8043   72.0   0.824  -21.0  0.1941   18.6  0.3601 -152.5
 5.900  0.8092   71.1   0.807  -22.5  0.1969   17.8  0.3669 -154.7
 6.000  0.8143   70.1   0.790  -24.0  0.1997   17.0  0.3743 -156.9
!
!  f       NFmin   Gammaopt  rn/50
! GHz       dB    MAG  ANG    -
 0.450      1.30  0.17   43   0.21
 0.900      1.35  0.21  115   0.20
 1.800      2.05  0.33 -177   0.14
!
! (c) 2016  Infineon Technologies AG, Munich
