! Infineon Technologies  Discrete & RF Semiconductors
! BFP183
! VCE = 0.50V,  IC =  5.0 mA
! Common Emitter S-Parameters:                            Jan 2016
# GHz  S  MA  R  50
!  f         S11            S21            S12            S22
! GHz     MAG   ANG      MAG   ANG      MAG   ANG      MAG   ANG
 0.010  0.7971   -4.5  14.918  177.6  0.0039   86.9  0.9850   -2.3
 0.015  0.7960   -6.7  14.906  176.4  0.0059   85.9  0.9797   -3.5
 0.020  0.7961   -9.0  14.901  175.2  0.0079   85.4  0.9748   -4.7
 0.025  0.7918  -11.1  14.840  173.8  0.0097   83.5  0.9721   -5.8
 0.030  0.7887  -13.3  14.787  172.5  0.0116   82.2  0.9697   -6.9
 0.035  0.7866  -15.4  14.743  171.1  0.0134   81.3  0.9677   -8.0
 0.040  0.7856  -17.6  14.708  169.7  0.0153   80.6  0.9661   -9.2
 0.045  0.7858  -19.7  14.681  168.3  0.0171   80.0  0.9648  -10.3
 0.050  0.7871  -21.9  14.663  166.9  0.0190   79.6  0.9639  -11.4
 0.055  0.7806  -23.9  14.552  165.8  0.0206   77.7  0.9570  -12.4
 0.060  0.7751  -25.9  14.447  164.6  0.0222   76.0  0.9505  -13.4
 0.065  0.7705  -28.0  14.347  163.4  0.0238   74.6  0.9442  -14.4
 0.070  0.7669  -30.0  14.254  162.2  0.0254   73.4  0.9383  -15.5
 0.075  0.7644  -32.1  14.167  161.0  0.0271   72.3  0.9326  -16.5
 0.080  0.7628  -34.2  14.087  159.8  0.0287   71.3  0.9273  -17.6
 0.085  0.7623  -36.3  14.013  158.6  0.0304   70.5  0.9224  -18.7
 0.090  0.7628  -38.4  13.945  157.3  0.0321   69.7  0.9177  -19.8
 0.095  0.7643  -40.5  13.884  156.1  0.0337   69.0  0.9134  -20.9
 0.100  0.7669  -42.6  13.830  154.8  0.0354   68.4  0.9094  -22.0
 0.105  0.7608  -44.4  13.699  153.8  0.0367   67.2  0.9017  -22.9
 0.110  0.7555  -46.2  13.572  152.8  0.0381   66.1  0.8941  -23.7
 0.115  0.7510  -48.1  13.449  151.7  0.0395   65.0  0.8868  -24.6
 0.120  0.7472  -49.9  13.331  150.7  0.0409   64.1  0.8797  -25.5
 0.125  0.7442  -51.8  13.218  149.6  0.0423   63.2  0.8728  -26.4
 0.130  0.7421  -53.7  13.110  148.5  0.0437   62.3  0.8661  -27.3
 0.135  0.7407  -55.6  13.006  147.4  0.0451   61.5  0.8597  -28.3
 0.140  0.7402  -57.5  12.907  146.2  0.0465   60.8  0.8535  -29.2
 0.145  0.7405  -59.4  12.814  145.1  0.0480   60.1  0.8475  -30.2
 0.150  0.7416  -61.3  12.726  143.9  0.0494   59.4  0.8418  -31.2
 0.155  0.7363  -62.9  12.600  143.0  0.0504   58.6  0.8338  -31.9
 0.160  0.7317  -64.6  12.478  142.2  0.0513   57.7  0.8260  -32.6
 0.165  0.7276  -66.2  12.358  141.3  0.0523   57.0  0.8183  -33.2
 0.170  0.7242  -67.9  12.241  140.4  0.0533   56.2  0.8107  -34.0
 0.175  0.7213  -69.6  12.127  139.5  0.0543   55.5  0.8032  -34.7
 0.180  0.7192  -71.3  12.016  138.5  0.0554   54.8  0.7958  -35.4
 0.185  0.7176  -73.0  11.909  137.6  0.0564   54.1  0.7886  -36.2
 0.190  0.7167  -74.8  11.805  136.6  0.0574   53.4  0.7815  -36.9
 0.195  0.7165  -76.5  11.705  135.6  0.0585   52.8  0.7746  -37.7
 0.200  0.7169  -78.2  11.608  134.6  0.0595   52.2  0.7678  -38.5
 0.220  0.7034  -83.6  11.117  131.6  0.0624   49.6  0.7378  -40.9
 0.240  0.6964  -89.1  10.659  128.4  0.0654   47.3  0.7091  -43.4
 0.260  0.6904  -94.2  10.238  125.6  0.0680   45.3  0.6821  -45.7
 0.280  0.6840  -98.8   9.840  123.2  0.0702   43.6  0.6563  -47.5
 0.300  0.6821 -103.5   9.461  120.6  0.0725   42.0  0.6311  -49.4
 0.320  0.6707 -107.2   9.100  118.7  0.0740   40.5  0.6109  -50.6
 0.340  0.6622 -110.9   8.750  116.7  0.0755   39.2  0.5909  -51.8
 0.360  0.6566 -114.8   8.411  114.6  0.0771   37.8  0.5712  -53.2
 0.380  0.6540 -118.7   8.085  112.2  0.0787   36.5  0.5519  -54.6
 0.400  0.6545 -122.6   7.774  109.7  0.0804   35.3  0.5330  -56.2
 0.420  0.6484 -125.4   7.510  108.3  0.0813   34.4  0.5180  -57.1
 0.440  0.6439 -128.3   7.251  106.8  0.0822   33.5  0.5032  -58.0
 0.450  0.6423 -129.8   7.123  106.1  0.0826   33.0  0.4958  -58.4
 0.460  0.6411 -131.2   6.997  105.2  0.0831   32.6  0.4884  -58.9
 0.480  0.6400 -134.2   6.749  103.5  0.0840   31.7  0.4738  -59.9
 0.500  0.6405 -137.1   6.507  101.7  0.0850   30.9  0.4594  -61.0
 0.520  0.6368 -139.3   6.327  100.5  0.0856   30.3  0.4483  -61.6
 0.540  0.6341 -141.5   6.150   99.3  0.0862   29.8  0.4373  -62.3
 0.560  0.6324 -143.8   5.976   98.0  0.0868   29.3  0.4263  -63.0
 0.580  0.6316 -146.0   5.805   96.7  0.0874   28.7  0.4154  -63.8
 0.600  0.6318 -148.3   5.637   95.2  0.0880   28.2  0.4046  -64.6
 0.620  0.6301 -150.1   5.482   94.2  0.0884   27.9  0.3966  -65.1
 0.640  0.6289 -151.9   5.328   93.2  0.0887   27.6  0.3887  -65.6
 0.660  0.6285 -153.8   5.176   92.1  0.0891   27.2  0.3807  -66.1
 0.680  0.6286 -155.6   5.026   91.0  0.0894   26.9  0.3729  -66.6
 0.700  0.6294 -157.4   4.878   89.8  0.0898   26.6  0.3650  -67.2
 0.720  0.6271 -158.9   4.770   88.9  0.0903   26.3  0.3593  -67.6
 0.740  0.6253 -160.5   4.664   88.0  0.0909   26.0  0.3536  -68.0
 0.760  0.6240 -162.1   4.559   87.0  0.0914   25.8  0.3479  -68.5
 0.780  0.6231 -163.6   4.455   86.0  0.0920   25.5  0.3422  -68.9
 0.800  0.6227 -165.2   4.353   84.9  0.0925   25.2  0.3366  -69.4
 0.820  0.6227 -166.5   4.262   84.1  0.0929   25.1  0.3322  -69.7
 0.840  0.6231 -167.8   4.172   83.3  0.0934   24.9  0.3278  -70.1
 0.860  0.6237 -169.1   4.083   82.5  0.0938   24.8  0.3235  -70.4
 0.880  0.6247 -170.4   3.995   81.6  0.0943   24.6  0.3191  -70.7
 0.900  0.6260 -171.7   3.908   80.7  0.0947   24.5  0.3148  -71.1
 0.920  0.6255 -173.0   3.831   79.9  0.0950   24.4  0.3110  -71.5
 0.940  0.6254 -174.4   3.754   79.1  0.0953   24.2  0.3073  -71.9
 0.960  0.6256 -175.7   3.678   78.2  0.0956   24.1  0.3035  -72.3
 0.980  0.6261 -177.1   3.603   77.3  0.0959   23.9  0.2998  -72.8
 1.000  0.6270 -178.4   3.529   76.4  0.0962   23.8  0.2961  -73.2
 1.020  0.6268 -179.5   3.469   75.7  0.0965   23.7  0.2931  -73.6
 1.040  0.6269  179.4   3.410   74.9  0.0969   23.6  0.2901  -74.0
 1.060  0.6271  178.3   3.351   74.1  0.0972   23.5  0.2872  -74.4
 1.080  0.6277  177.2   3.293   73.3  0.0976   23.4  0.2842  -74.8
 1.100  0.6284  176.1   3.236   72.4  0.0979   23.3  0.2813  -75.2
 1.120  0.6284  175.1   3.182   71.8  0.0982   23.2  0.2791  -75.6
 1.140  0.6286  174.2   3.128   71.1  0.0985   23.1  0.2769  -75.9
 1.160  0.6290  173.2   3.075   70.5  0.0987   23.1  0.2747  -76.3
 1.180  0.6296  172.3   3.022   69.8  0.0990   23.0  0.2725  -76.7
 1.200  0.6303  171.3   2.969   69.1  0.0993   22.9  0.2703  -77.1
 1.220  0.6313  170.4   2.924   68.4  0.0996   22.9  0.2684  -77.4
 1.240  0.6324  169.4   2.880   67.8  0.0999   22.9  0.2665  -77.8
 1.260  0.6338  168.5   2.836   67.1  0.1003   22.9  0.2646  -78.2
 1.280  0.6353  167.6   2.792   66.3  0.1006   22.9  0.2627  -78.5
 1.300  0.6369  166.7   2.749   65.6  0.1009   22.9  0.2608  -78.9
 1.320  0.6362  165.8   2.713   65.0  0.1013   22.9  0.2594  -79.3
 1.340  0.6357  164.8   2.676   64.4  0.1017   22.8  0.2579  -79.7
 1.360  0.6354  163.9   2.641   63.8  0.1021   22.8  0.2565  -80.1
 1.380  0.6352  162.9   2.605   63.2  0.1025   22.7  0.2551  -80.6
 1.400  0.6352  162.0   2.570   62.5  0.1029   22.7  0.2537  -81.0
 1.420  0.6365  161.3   2.535   61.8  0.1032   22.8  0.2521  -81.3
 1.440  0.6378  160.6   2.501   61.1  0.1035   22.9  0.2506  -81.7
 1.460  0.6393  159.9   2.467   60.3  0.1037   22.9  0.2491  -82.0
 1.480  0.6408  159.2   2.434   59.6  0.1040   23.0  0.2475  -82.4
 1.500  0.6425  158.5   2.401   58.8  0.1043   23.1  0.2460  -82.7
 1.520  0.6425  157.6   2.373   58.2  0.1048   23.1  0.2452  -83.1
 1.540  0.6426  156.8   2.345   57.6  0.1052   23.0  0.2444  -83.5
 1.560  0.6428  155.9   2.317   57.0  0.1057   23.0  0.2436  -83.8
 1.580  0.6433  155.1   2.290   56.4  0.1061   22.9  0.2429  -84.2
 1.600  0.6438  154.2   2.263   55.8  0.1066   22.9  0.2421  -84.6
 1.620  0.6450  153.4   2.235   55.2  0.1070   22.9  0.2413  -85.0
 1.640  0.6463  152.7   2.206   54.6  0.1074   23.0  0.2404  -85.4
 1.660  0.6477  151.9   2.178   54.0  0.1077   23.0  0.2396  -85.9
 1.680  0.6493  151.2   2.151   53.4  0.1081   23.1  0.2388  -86.3
 1.700  0.6509  150.4   2.123   52.8  0.1085   23.1  0.2380  -86.7
 1.720  0.6518  149.7   2.100   52.2  0.1089   23.1  0.2373  -87.1
 1.740  0.6529  149.0   2.076   51.7  0.1093   23.1  0.2366  -87.5
 1.760  0.6540  148.3   2.053   51.1  0.1097   23.2  0.2360  -88.0
 1.780  0.6553  147.6   2.031   50.5  0.1101   23.2  0.2353  -88.4
 1.800  0.6566  146.9   2.008   49.9  0.1105   23.2  0.2347  -88.8
 1.820  0.6571  146.2   1.986   49.3  0.1109   23.2  0.2339  -89.3
 1.840  0.6578  145.5   1.965   48.8  0.1114   23.1  0.2332  -89.8
 1.860  0.6585  144.8   1.944   48.2  0.1118   23.1  0.2325  -90.4
 1.880  0.6594  144.1   1.923   47.6  0.1123   23.0  0.2318  -90.9
 1.900  0.6603  143.4   1.902   47.0  0.1127   23.0  0.2311  -91.4
 1.920  0.6608  142.7   1.881   46.4  0.1131   23.0  0.2307  -91.8
 1.940  0.6614  142.0   1.861   45.9  0.1136   23.1  0.2303  -92.3
 1.960  0.6622  141.3   1.841   45.3  0.1140   23.1  0.2299  -92.7
 1.980  0.6630  140.6   1.821   44.7  0.1145   23.2  0.2296  -93.2
 2.000  0.6639  139.9   1.801   44.1  0.1149   23.2  0.2292  -93.6
 2.020  0.6648  139.3   1.784   43.6  0.1153   23.2  0.2289  -94.1
 2.040  0.6657  138.7   1.768   43.1  0.1157   23.1  0.2286  -94.7
 2.060  0.6667  138.0   1.751   42.6  0.1162   23.1  0.2283  -95.2
 2.080  0.6678  137.4   1.735   42.0  0.1166   23.0  0.2280  -95.7
 2.100  0.6690  136.8   1.719   41.5  0.1170   23.0  0.2278  -96.3
 2.120  0.6703  136.2   1.702   40.9  0.1174   23.0  0.2276  -96.8
 2.140  0.6716  135.6   1.687   40.4  0.1178   22.9  0.2274  -97.4
 2.160  0.6730  135.0   1.671   39.8  0.1183   22.9  0.2272  -97.9
 2.180  0.6745  134.4   1.655   39.2  0.1187   22.8  0.2270  -98.5
 2.200  0.6760  133.8   1.640   38.6  0.1191   22.8  0.2269  -99.0
 2.220  0.6769  133.2   1.626   38.1  0.1196   22.8  0.2266  -99.6
 2.240  0.6780  132.5   1.612   37.6  0.1200   22.8  0.2264 -100.1
 2.260  0.6791  131.9   1.598   37.1  0.1205   22.8  0.2261 -100.7
 2.280  0.6803  131.3   1.585   36.6  0.1210   22.8  0.2259 -101.3
 2.300  0.6816  130.7   1.571   36.1  0.1214   22.7  0.2257 -101.8
 2.320  0.6829  130.1   1.558   35.6  0.1219   22.7  0.2256 -102.4
 2.340  0.6843  129.4   1.545   35.1  0.1224   22.7  0.2254 -103.0
 2.360  0.6858  128.8   1.532   34.5  0.1229   22.7  0.2253 -103.6
 2.380  0.6874  128.2   1.519   34.0  0.1233   22.7  0.2252 -104.1
 2.400  0.6891  127.6   1.506   33.4  0.1238   22.7  0.2251 -104.7
 2.420  0.6902  127.1   1.493   32.9  0.1242   22.7  0.2250 -105.2
 2.440  0.6913  126.5   1.480   32.4  0.1247   22.7  0.2249 -105.8
 2.460  0.6925  126.0   1.468   31.9  0.1251   22.7  0.2249 -106.3
 2.480  0.6938  125.5   1.455   31.4  0.1255   22.7  0.2249 -106.9
 2.500  0.6951  124.9   1.443   30.9  0.1259   22.6  0.2249 -107.4
 2.520  0.6965  124.4   1.430   30.4  0.1264   22.6  0.2249 -107.9
 2.540  0.6979  123.9   1.418   29.9  0.1268   22.6  0.2249 -108.5
 2.560  0.6994  123.3   1.406   29.3  0.1272   22.6  0.2249 -109.0
 2.580  0.7010  122.8   1.394   28.8  0.1277   22.6  0.2250 -109.6
 2.600  0.7026  122.3   1.382   28.2  0.1281   22.6  0.2251 -110.1
 2.620  0.7039  121.8   1.372   27.7  0.1286   22.5  0.2253 -110.7
 2.640  0.7052  121.2   1.361   27.2  0.1291   22.5  0.2255 -111.3
 2.660  0.7066  120.7   1.351   26.7  0.1296   22.4  0.2258 -111.9
 2.680  0.7081  120.2   1.341   26.2  0.1301   22.4  0.2260 -112.5
 2.700  0.7096  119.6   1.331   25.7  0.1306   22.3  0.2263 -113.1
 2.720  0.7112  119.1   1.321   25.2  0.1312   22.3  0.2267 -113.7
 2.740  0.7129  118.6   1.312   24.6  0.1317   22.2  0.2270 -114.3
 2.760  0.7146  118.0   1.302   24.1  0.1322   22.2  0.2274 -114.9
 2.780  0.7164  117.5   1.292   23.6  0.1327   22.1  0.2278 -115.5
 2.800  0.7182  117.0   1.283   23.0  0.1332   22.1  0.2282 -116.1
 2.820  0.7188  116.5   1.273   22.6  0.1337   22.0  0.2285 -116.7
 2.840  0.7194  116.0   1.264   22.2  0.1341   22.0  0.2287 -117.3
 2.860  0.7201  115.5   1.254   21.7  0.1346   21.9  0.2290 -117.9
 2.880  0.7209  115.1   1.245   21.3  0.1351   21.9  0.2294 -118.6
 2.900  0.7217  114.6   1.236   20.8  0.1355   21.8  0.2297 -119.2
 2.920  0.7225  114.1   1.226   20.4  0.1360   21.7  0.2301 -119.8
 2.940  0.7234  113.6   1.217   19.9  0.1365   21.7  0.2305 -120.4
 2.960  0.7244  113.2   1.208   19.5  0.1370   21.6  0.2310 -121.0
 2.980  0.7254  112.7   1.199   19.0  0.1374   21.6  0.2314 -121.6
 3.000  0.7264  112.2   1.190   18.5  0.1379   21.5  0.2319 -122.2
 3.100  0.7305  110.0   1.149   16.6  0.1405   21.1  0.2348 -125.3
 3.200  0.7356  107.8   1.109   14.6  0.1431   20.8  0.2384 -128.3
 3.300  0.7419  105.7   1.071   12.4  0.1457   20.4  0.2427 -131.2
 3.400  0.7491  103.6   1.035   10.0  0.1483   20.1  0.2475 -134.0
 3.500  0.7573  101.5   1.000    7.5  0.1509   19.8  0.2529 -136.7
 3.600  0.7605   99.7   0.970    5.8  0.1534   19.3  0.2572 -139.8
 3.700  0.7645   97.9   0.940    4.0  0.1559   18.8  0.2623 -142.8
 3.800  0.7692   96.1   0.912    2.0  0.1585   18.4  0.2680 -145.6
 3.900  0.7747   94.3   0.885   -0.0  0.1610   17.9  0.2743 -148.4
 4.000  0.7809   92.6   0.859   -2.2  0.1636   17.5  0.2813 -151.0
 4.100  0.7837   91.0   0.834   -3.7  0.1658   16.9  0.2870 -153.8
 4.200  0.7871   89.4   0.809   -5.4  0.1681   16.3  0.2933 -156.5
 4.300  0.7911   87.8   0.785   -7.1  0.1704   15.7  0.3002 -159.1
 4.400  0.7957   86.2   0.762   -8.9  0.1727   15.1  0.3077 -161.6
 4.500  0.8009   84.7   0.740  -10.9  0.1750   14.6  0.3158 -163.9
 4.600  0.8026   83.5   0.721  -12.0  0.1772   14.3  0.3217 -166.2
 4.700  0.8047   82.2   0.703  -13.3  0.1794   13.9  0.3280 -168.4
 4.800  0.8072   81.0   0.684  -14.5  0.1816   13.6  0.3348 -170.5
 4.900  0.8100   79.8   0.666  -15.9  0.1838   13.3  0.3421 -172.5
 5.000  0.8132   78.6   0.649  -17.3  0.1860   13.0  0.3497 -174.4
 5.100  0.8152   77.5   0.634  -18.6  0.1894   12.3  0.3577 -176.4
 5.200  0.8176   76.4   0.620  -19.9  0.1929   11.6  0.3661 -178.3
 5.300  0.8202   75.3   0.606  -21.3  0.1964   10.9  0.3749  179.9
 5.400  0.8231   74.3   0.593  -22.8  0.1999   10.2  0.3841  178.2
 5.500  0.8263   73.2   0.580  -24.3  0.2035    9.6  0.3936  176.5
 5.600  0.8294   72.2   0.568  -25.3  0.2060    8.7  0.4009  174.6
 5.700  0.8328   71.2   0.555  -26.4  0.2085    7.9  0.4087  172.9
 5.800  0.8364   70.2   0.543  -27.5  0.2110    7.1  0.4168  171.1
 5.900  0.8403   69.2   0.532  -28.6  0.2136    6.3  0.4253  169.5
 6.000  0.8444   68.2   0.520  -29.8  0.2162    5.5  0.4341  167.9
!
!  f       NFmin   Gammaopt  rn/50
! GHz       dB    MAG  ANG    -
!
! noise parameter not available yet for this operation point!
!
! (c) 2016  Infineon Technologies AG, Munich
