! Infineon Technologies  Discrete & RF Semiconductors
! BFP196
! VCE = 1.7 V,  IC =  60mA
! Common Emitter S-Parameters:                            Jan 2016
# GHz  S  MA  R  50
!  f         S11            S21            S12            S22
! GHz     MAG   ANG      MAG   ANG      MAG   ANG      MAG   ANG
 0.010  0.2000  -68.6  70.401  166.9  0.0037   78.6  0.8541  -17.2
 0.015  0.2540  -86.0  67.214  160.7  0.0055   71.4  0.8179  -24.7
 0.020  0.3227  -96.7  64.882  154.0  0.0073   67.8  0.7967  -32.7
 0.025  0.3472 -105.5  61.262  150.9  0.0082   64.2  0.7477  -37.2
 0.030  0.3786 -112.9  57.839  147.5  0.0092   61.3  0.7038  -42.3
 0.035  0.4155 -119.2  54.651  143.6  0.0102   59.0  0.6663  -48.0
 0.040  0.4565 -124.3  51.742  139.3  0.0112   57.1  0.6360  -54.3
 0.045  0.5005 -128.6  49.161  134.5  0.0122   55.5  0.6142  -61.2
 0.050  0.5469 -132.2  46.962  129.2  0.0132   54.2  0.6018  -68.4
 0.055  0.5526 -135.0  44.953  128.0  0.0137   53.6  0.5771  -70.7
 0.060  0.5595 -137.7  42.965  126.8  0.0141   53.0  0.5533  -73.1
 0.065  0.5677 -140.4  41.000  125.4  0.0146   52.5  0.5306  -75.8
 0.070  0.5771 -143.0  39.062  123.8  0.0150   52.0  0.5092  -78.7
 0.075  0.5876 -145.5  37.155  122.1  0.0155   51.5  0.4893  -81.9
 0.080  0.5992 -147.9  35.285  120.2  0.0159   51.1  0.4709  -85.3
 0.085  0.6118 -150.2  33.457  118.1  0.0164   50.6  0.4544  -89.0
 0.090  0.6254 -152.4  31.678  115.8  0.0169   50.2  0.4398  -92.9
 0.095  0.6398 -154.5  29.958  113.2  0.0173   49.9  0.4275  -97.1
 0.100  0.6551 -156.5  28.307  110.3  0.0178   49.5  0.4176 -101.5
 0.105  0.6577 -157.6  27.428  109.7  0.0182   49.7  0.4087 -103.0
 0.110  0.6605 -158.6  26.552  109.0  0.0185   49.9  0.4002 -104.6
 0.115  0.6636 -159.6  25.680  108.3  0.0189   50.1  0.3920 -106.3
 0.120  0.6669 -160.7  24.812  107.5  0.0192   50.3  0.3841 -108.1
 0.125  0.6703 -161.7  23.950  106.6  0.0196   50.5  0.3766 -109.9
 0.130  0.6740 -162.7  23.093  105.8  0.0200   50.7  0.3695 -111.8
 0.135  0.6779 -163.7  22.242  104.8  0.0203   50.8  0.3628 -113.7
 0.140  0.6820 -164.7  21.398  103.7  0.0207   51.0  0.3565 -115.7
 0.145  0.6863 -165.6  20.561  102.6  0.0210   51.1  0.3507 -117.8
 0.150  0.6908 -166.6  19.733  101.4  0.0214   51.3  0.3454 -120.0
 0.155  0.6911 -167.2  19.259  101.0  0.0217   51.7  0.3414 -121.1
 0.160  0.6914 -167.8  18.786  100.5  0.0221   52.0  0.3376 -122.2
 0.165  0.6919 -168.4  18.314  100.1  0.0224   52.3  0.3338 -123.3
 0.170  0.6924 -169.0  17.843   99.6  0.0228   52.7  0.3302 -124.4
 0.175  0.6929 -169.6  17.374   99.1  0.0231   53.0  0.3268 -125.6
 0.180  0.6936 -170.2  16.906   98.5  0.0234   53.3  0.3234 -126.8
 0.185  0.6943 -170.8  16.439   97.9  0.0238   53.6  0.3203 -128.0
 0.190  0.6952 -171.4  15.975   97.3  0.0241   53.9  0.3172 -129.2
 0.195  0.6960 -172.0  15.512   96.7  0.0245   54.1  0.3143 -130.5
 0.200  0.6970 -172.6  15.052   96.0  0.0248   54.4  0.3116 -131.8
 0.220  0.7002 -174.6  13.852   94.7  0.0262   55.5  0.3038 -135.1
 0.240  0.7042 -176.5  12.661   93.1  0.0277   56.5  0.2970 -138.5
 0.260  0.7071 -178.1  11.675   91.7  0.0292   57.5  0.2920 -141.4
 0.280  0.7084 -179.2  10.889   90.6  0.0308   58.5  0.2883 -143.7
 0.300  0.7100  179.6  10.107   89.4  0.0324   59.4  0.2851 -146.0
 0.320  0.7094  178.4   9.611   88.7  0.0338   60.1  0.2826 -147.6
 0.340  0.7090  177.3   9.117   87.9  0.0353   60.7  0.2804 -149.2
 0.360  0.7090  176.1   8.624   87.0  0.0367   61.2  0.2784 -150.9
 0.380  0.7093  175.0   8.134   86.0  0.0382   61.7  0.2766 -152.6
 0.400  0.7098  173.8   7.647   84.9  0.0396   62.2  0.2751 -154.3
 0.420  0.7110  173.0   7.339   84.3  0.0413   62.5  0.2741 -155.3
 0.440  0.7123  172.2   7.032   83.5  0.0429   62.9  0.2732 -156.4
 0.450  0.7130  171.8   6.879   83.2  0.0437   63.0  0.2728 -156.9
 0.460  0.7138  171.5   6.726   82.8  0.0446   63.2  0.2724 -157.4
 0.480  0.7154  170.7   6.421   81.9  0.0462   63.4  0.2716 -158.4
 0.500  0.7171  169.9   6.118   81.0  0.0479   63.7  0.2710 -159.5
 0.520  0.7162  169.1   5.915   80.3  0.0496   63.8  0.2708 -160.2
 0.540  0.7155  168.2   5.712   79.6  0.0513   63.9  0.2706 -160.9
 0.560  0.7149  167.4   5.510   78.9  0.0529   64.0  0.2705 -161.6
 0.580  0.7145  166.5   5.310   78.1  0.0546   64.1  0.2704 -162.3
 0.600  0.7142  165.7   5.110   77.2  0.0563   64.2  0.2703 -163.0
 0.620  0.7146  164.8   4.965   76.5  0.0579   64.2  0.2704 -163.6
 0.640  0.7152  163.9   4.820   75.9  0.0595   64.2  0.2705 -164.2
 0.660  0.7160  163.1   4.677   75.1  0.0611   64.3  0.2706 -164.7
 0.680  0.7169  162.2   4.534   74.3  0.0627   64.3  0.2707 -165.3
 0.700  0.7180  161.3   4.392   73.5  0.0643   64.3  0.2709 -165.9
 0.720  0.7187  160.7   4.282   73.0  0.0660   64.1  0.2711 -166.3
 0.740  0.7194  160.1   4.171   72.4  0.0677   63.8  0.2713 -166.8
 0.760  0.7202  159.4   4.062   71.8  0.0695   63.6  0.2716 -167.2
 0.780  0.7211  158.8   3.953   71.2  0.0712   63.4  0.2718 -167.7
 0.800  0.7221  158.2   3.844   70.5  0.0729   63.2  0.2721 -168.1
 0.820  0.7212  157.5   3.759   69.9  0.0747   63.1  0.2722 -168.5
 0.840  0.7204  156.7   3.675   69.3  0.0765   62.9  0.2724 -168.9
 0.860  0.7198  156.0   3.591   68.7  0.0782   62.8  0.2725 -169.2
 0.880  0.7192  155.2   3.508   68.1  0.0800   62.7  0.2727 -169.6
 0.900  0.7188  154.5   3.425   67.4  0.0818   62.6  0.2729 -170.0
 0.920  0.7191  153.7   3.357   66.8  0.0833   62.4  0.2734 -170.3
 0.940  0.7196  153.0   3.290   66.2  0.0848   62.3  0.2738 -170.6
 0.960  0.7202  152.2   3.223   65.6  0.0863   62.1  0.2743 -171.0
 0.980  0.7209  151.5   3.157   65.0  0.0878   61.9  0.2748 -171.3
 1.000  0.7218  150.7   3.091   64.3  0.0893   61.8  0.2753 -171.6
 1.020  0.7226  150.1   3.036   63.7  0.0910   61.7  0.2760 -171.9
 1.040  0.7235  149.5   2.980   63.1  0.0927   61.5  0.2767 -172.2
 1.060  0.7245  149.0   2.926   62.5  0.0943   61.4  0.2774 -172.4
 1.080  0.7256  148.4   2.871   61.9  0.0960   61.3  0.2781 -172.7
 1.100  0.7267  147.8   2.817   61.2  0.0977   61.2  0.2788 -173.0
 1.120  0.7278  147.1   2.770   60.7  0.0993   60.9  0.2794 -173.3
 1.140  0.7290  146.3   2.724   60.1  0.1009   60.6  0.2800 -173.6
 1.160  0.7304  145.6   2.678   59.6  0.1025   60.3  0.2806 -173.9
 1.180  0.7318  144.8   2.632   59.0  0.1041   60.1  0.2812 -174.2
 1.200  0.7334  144.1   2.587   58.4  0.1057   59.8  0.2818 -174.5
 1.220  0.7327  143.5   2.548   57.8  0.1073   59.5  0.2823 -174.7
 1.240  0.7321  142.8   2.509   57.2  0.1089   59.2  0.2828 -175.0
 1.260  0.7316  142.2   2.470   56.6  0.1106   58.9  0.2833 -175.2
 1.280  0.7311  141.5   2.431   56.0  0.1122   58.7  0.2839 -175.5
 1.300  0.7308  140.9   2.393   55.3  0.1138   58.4  0.2844 -175.7
 1.320  0.7317  140.3   2.358   54.8  0.1153   58.1  0.2850 -175.9
 1.340  0.7327  139.7   2.323   54.4  0.1167   57.8  0.2857 -176.1
 1.360  0.7337  139.1   2.288   53.9  0.1182   57.5  0.2863 -176.4
 1.380  0.7349  138.5   2.253   53.4  0.1196   57.3  0.2870 -176.6
 1.400  0.7361  137.9   2.219   52.9  0.1211   57.0  0.2876 -176.8
 1.420  0.7361  137.3   2.193   52.4  0.1227   56.7  0.2884 -177.0
 1.440  0.7362  136.7   2.167   51.8  0.1243   56.4  0.2893 -177.3
 1.460  0.7363  136.2   2.142   51.3  0.1258   56.1  0.2901 -177.5
 1.480  0.7365  135.6   2.116   50.7  0.1274   55.9  0.2909 -177.8
 1.500  0.7368  135.0   2.091   50.1  0.1290   55.6  0.2918 -178.0
 1.520  0.7383  134.4   2.061   49.5  0.1305   55.3  0.2928 -178.3
 1.540  0.7399  133.8   2.032   49.0  0.1320   55.0  0.2938 -178.6
 1.560  0.7416  133.3   2.003   48.4  0.1336   54.7  0.2948 -178.8
 1.580  0.7433  132.7   1.974   47.7  0.1351   54.5  0.2958 -179.1
 1.600  0.7451  132.1   1.945   47.1  0.1366   54.2  0.2968 -179.4
 1.620  0.7456  131.5   1.922   46.6  0.1381   53.9  0.2974 -179.7
 1.640  0.7461  130.8   1.900   46.0  0.1395   53.6  0.2980  180.0
 1.660  0.7468  130.2   1.878   45.5  0.1410   53.3  0.2986  179.7
 1.680  0.7476  129.5   1.856   44.9  0.1425   53.1  0.2993  179.4
 1.700  0.7484  128.9   1.834   44.3  0.1440   52.8  0.2999  179.1
 1.720  0.7493  128.4   1.816   43.9  0.1454   52.4  0.3006  179.0
 1.740  0.7502  127.8   1.798   43.4  0.1468   52.1  0.3012  178.8
 1.760  0.7512  127.3   1.781   43.0  0.1482   51.8  0.3019  178.7
 1.780  0.7523  126.7   1.763   42.6  0.1497   51.4  0.3025  178.5
 1.800  0.7534  126.2   1.746   42.1  0.1511   51.1  0.3032  178.4
 1.820  0.7536  125.7   1.728   41.6  0.1526   50.8  0.3046  178.1
 1.840  0.7539  125.2   1.710   41.1  0.1540   50.5  0.3059  177.9
 1.860  0.7542  124.7   1.693   40.5  0.1555   50.2  0.3073  177.6
 1.880  0.7546  124.2   1.675   40.0  0.1569   50.0  0.3087  177.4
 1.900  0.7551  123.7   1.658   39.4  0.1584   49.7  0.3101  177.1
 1.920  0.7562  123.1   1.640   38.9  0.1597   49.4  0.3111  176.8
 1.940  0.7575  122.5   1.622   38.4  0.1611   49.0  0.3121  176.5
 1.960  0.7588  122.0   1.605   37.9  0.1624   48.7  0.3131  176.1
 1.980  0.7601  121.4   1.587   37.4  0.1638   48.4  0.3142  175.8
 2.000  0.7616  120.8   1.570   36.9  0.1651   48.1  0.3152  175.5
 2.020  0.7615  120.3   1.555   36.4  0.1664   47.8  0.3162  175.2
 2.040  0.7615  119.7   1.541   36.0  0.1677   47.5  0.3171  175.0
 2.060  0.7615  119.2   1.527   35.5  0.1691   47.2  0.3181  174.7
 2.080  0.7616  118.6   1.512   35.0  0.1704   46.8  0.3191  174.5
 2.100  0.7618  118.1   1.498   34.5  0.1717   46.5  0.3201  174.2
 2.120  0.7620  117.6   1.484   34.0  0.1731   46.2  0.3211  174.0
 2.140  0.7624  117.0   1.470   33.5  0.1744   46.0  0.3221  173.7
 2.160  0.7627  116.5   1.456   33.0  0.1758   45.7  0.3231  173.5
 2.180  0.7632  115.9   1.443   32.4  0.1771   45.4  0.3241  173.2
 2.200  0.7637  115.4   1.429   31.9  0.1785   45.1  0.3251  173.0
 2.220  0.7647  114.9   1.418   31.4  0.1797   44.8  0.3263  172.7
 2.240  0.7658  114.3   1.406   30.9  0.1810   44.4  0.3276  172.3
 2.260  0.7669  113.8   1.395   30.5  0.1822   44.1  0.3288  172.0
 2.280  0.7681  113.3   1.384   30.0  0.1835   43.8  0.3301  171.7
 2.300  0.7694  112.7   1.373   29.5  0.1847   43.4  0.3314  171.4
 2.320  0.7707  112.2   1.362   28.9  0.1860   43.1  0.3327  171.1
 2.340  0.7721  111.7   1.352   28.4  0.1873   42.8  0.3340  170.7
 2.360  0.7736  111.1   1.341   27.9  0.1885   42.5  0.3353  170.4
 2.380  0.7751  110.6   1.330   27.3  0.1898   42.2  0.3366  170.1
 2.400  0.7767  110.1   1.320   26.8  0.1911   41.9  0.3379  169.8
 2.420  0.7773  109.6   1.309   26.4  0.1922   41.6  0.3390  169.5
 2.440  0.7780  109.1   1.298   25.9  0.1934   41.3  0.3401  169.3
 2.460  0.7787  108.5   1.288   25.5  0.1946   41.0  0.3412  169.0
 2.480  0.7795  108.0   1.277   25.1  0.1957   40.7  0.3423  168.7
 2.500  0.7804  107.5   1.266   24.6  0.1969   40.4  0.3435  168.5
 2.520  0.7813  107.0   1.256   24.1  0.1981   40.1  0.3446  168.2
 2.540  0.7823  106.4   1.246   23.7  0.1992   39.8  0.3457  168.0
 2.560  0.7834  105.9   1.235   23.2  0.2004   39.6  0.3469  167.7
 2.580  0.7845  105.4   1.225   22.7  0.2016   39.3  0.3480  167.5
 2.600  0.7857  104.9   1.215   22.2  0.2028   39.0  0.3492  167.2
 2.620  0.7862  104.4   1.207   21.8  0.2039   38.7  0.3507  166.9
 2.640  0.7867  104.0   1.198   21.4  0.2050   38.4  0.3522  166.6
 2.660  0.7872  103.5   1.190   21.0  0.2060   38.1  0.3537  166.2
 2.680  0.7878  103.1   1.181   20.6  0.2071   37.8  0.3553  165.9
 2.700  0.7885  102.6   1.173   20.2  0.2082   37.5  0.3568  165.6
 2.720  0.7892  102.1   1.165   19.8  0.2093   37.2  0.3584  165.3
 2.740  0.7899  101.7   1.157   19.3  0.2104   36.9  0.3599  165.0
 2.760  0.7907  101.2   1.149   18.9  0.2116   36.6  0.3615  164.7
 2.780  0.7916  100.8   1.141   18.4  0.2127   36.3  0.3631  164.4
 2.800  0.7925  100.3   1.133   18.0  0.2138   36.0  0.3647  164.1
 2.820  0.7931   99.9   1.124   17.6  0.2148   35.7  0.3659  163.8
 2.840  0.7938   99.4   1.116   17.2  0.2158   35.4  0.3672  163.5
 2.860  0.7946   99.0   1.107   16.8  0.2168   35.0  0.3684  163.3
 2.880  0.7954   98.5   1.099   16.3  0.2178   34.7  0.3697  163.0
 2.900  0.7962   98.1   1.090   15.9  0.2189   34.4  0.3709  162.7
 2.920  0.7971   97.6   1.082   15.4  0.2199   34.1  0.3722  162.5
 2.940  0.7980   97.2   1.074   15.0  0.2209   33.8  0.3735  162.2
 2.960  0.7990   96.8   1.065   14.5  0.2220   33.5  0.3748  161.9
 2.980  0.8000   96.3   1.057   14.1  0.2230   33.2  0.3761  161.7
 3.000  0.8011   95.9   1.049   13.6  0.2241   32.9  0.3774  161.4
 3.100  0.8042   93.9   1.016   12.0  0.2282   31.4  0.3842  159.9
 3.200  0.8082   92.0   0.984   10.2  0.2324   30.0  0.3913  158.4
 3.300  0.8131   90.1   0.952    8.3  0.2367   28.6  0.3987  157.0
 3.400  0.8189   88.2   0.922    6.3  0.2412   27.3  0.4063  155.6
 3.500  0.8256   86.3   0.893    4.2  0.2458   26.0  0.4141  154.3
 3.600  0.8258   84.5   0.870    2.8  0.2493   24.7  0.4210  152.9
 3.700  0.8268   82.8   0.847    1.3  0.2529   23.5  0.4281  151.6
 3.800  0.8286   81.1   0.824   -0.3  0.2566   22.2  0.4355  150.3
 3.900  0.8311   79.3   0.803   -1.9  0.2605   21.0  0.4431  149.0
 4.000  0.8344   77.6   0.782   -3.7  0.2644   19.9  0.4509  147.8
 4.100  0.8362   76.1   0.764   -5.0  0.2678   18.6  0.4564  146.6
 4.200  0.8387   74.6   0.745   -6.3  0.2714   17.4  0.4620  145.4
 4.300  0.8417   73.1   0.728   -7.8  0.2750   16.2  0.4679  144.2
 4.400  0.8453   71.6   0.711   -9.2  0.2788   15.0  0.4739  143.1
 4.500  0.8494   70.1   0.694  -10.8  0.2827   13.9  0.4801  142.0
 4.600  0.8500   68.8   0.682  -11.9  0.2856   12.8  0.4850  141.0
 4.700  0.8509   67.6   0.670  -13.0  0.2887   11.7  0.4900  139.9
 4.800  0.8523   66.3   0.658  -14.2  0.2918   10.6  0.4951  138.9
 4.900  0.8541   65.1   0.647  -15.4  0.2951    9.5  0.5004  138.0
 5.000  0.8563   63.8   0.636  -16.6  0.2984    8.5  0.5059  137.0
 5.100  0.8574   62.6   0.625  -17.6  0.3014    7.4  0.5110  135.9
 5.200  0.8589   61.4   0.613  -18.6  0.3044    6.3  0.5163  134.8
 5.300  0.8608   60.2   0.602  -19.7  0.3076    5.2  0.5217  133.8
 5.400  0.8630   59.1   0.592  -20.8  0.3109    4.1  0.5274  132.7
 5.500  0.8656   57.9   0.581  -22.0  0.3143    3.1  0.5332  131.7
 5.600  0.8654   56.8   0.574  -22.9  0.3169    1.9  0.5378  130.6
 5.700  0.8655   55.7   0.567  -23.8  0.3197    0.7  0.5426  129.6
 5.800  0.8659   54.7   0.560  -24.7  0.3225   -0.4  0.5476  128.6
 5.900  0.8666   53.6   0.553  -25.6  0.3256   -1.6  0.5527  127.6
 6.000  0.8676   52.5   0.546  -26.6  0.3287   -2.7  0.5580  126.6
!
!  f       NFmin   Gammaopt  rn/50
! GHz       dB    MAG  ANG    -
!
! noise parameter not available yet for this operation point!
!
! (c) 2016  Infineon Technologies AG, Munich
