! Infineon Technologies  Discrete & RF Semiconductors
! BFP193
! VCE = 2.0 V,  IC =  12 mA
! Common Emitter S-Parameters:                            Jan 2016
# GHz  S  MA  R  50
!  f         S11            S21            S12            S22
! GHz     MAG   ANG      MAG   ANG      MAG   ANG      MAG   ANG
 0.010  0.6592   -9.0  30.613  175.8  0.0035   86.3  0.9720   -4.3
 0.015  0.6546  -13.1  30.201  172.9  0.0052   83.6  0.9650   -6.4
 0.020  0.6535  -17.3  29.870  169.9  0.0069   82.2  0.9592   -8.5
 0.025  0.6449  -21.2  29.482  167.8  0.0085   79.0  0.9476  -10.4
 0.030  0.6394  -25.2  29.132  165.7  0.0101   76.8  0.9371  -12.3
 0.035  0.6371  -29.3  28.823  163.6  0.0117   75.2  0.9276  -14.3
 0.040  0.6381  -33.4  28.555  161.4  0.0133   74.0  0.9193  -16.3
 0.045  0.6422  -37.4  28.330  159.2  0.0149   73.1  0.9121  -18.3
 0.050  0.6495  -41.4  28.148  156.9  0.0165   72.3  0.9061  -20.4
 0.055  0.6373  -44.5  27.613  155.4  0.0177   70.3  0.8900  -21.7
 0.060  0.6271  -47.8  27.099  153.8  0.0189   68.5  0.8743  -23.1
 0.065  0.6190  -51.1  26.606  152.2  0.0201   66.9  0.8592  -24.5
 0.070  0.6130  -54.6  26.135  150.5  0.0213   65.6  0.8447  -26.0
 0.075  0.6093  -58.1  25.689  148.7  0.0226   64.3  0.8307  -27.6
 0.080  0.6079  -61.6  25.267  146.9  0.0238   63.2  0.8173  -29.2
 0.085  0.6087  -65.1  24.872  145.0  0.0251   62.2  0.8046  -30.8
 0.090  0.6119  -68.6  24.505  143.0  0.0264   61.4  0.7926  -32.5
 0.095  0.6172  -72.0  24.166  141.1  0.0276   60.5  0.7813  -34.2
 0.100  0.6248  -75.4  23.858  139.0  0.0289   59.8  0.7707  -36.0
 0.105  0.6177  -77.8  23.375  137.9  0.0296   58.7  0.7563  -36.9
 0.110  0.6117  -80.2  22.901  136.7  0.0303   57.7  0.7422  -37.8
 0.115  0.6068  -82.7  22.437  135.5  0.0310   56.7  0.7282  -38.7
 0.120  0.6030  -85.2  21.984  134.3  0.0317   55.8  0.7144  -39.7
 0.125  0.6004  -87.7  21.541  133.0  0.0324   54.9  0.7008  -40.7
 0.130  0.5990  -90.2  21.110  131.6  0.0331   54.1  0.6875  -41.7
 0.135  0.5988  -92.8  20.691  130.2  0.0339   53.2  0.6744  -42.8
 0.140  0.5997  -95.3  20.285  128.7  0.0346   52.5  0.6615  -43.9
 0.145  0.6019  -97.9  19.894  127.2  0.0353   51.7  0.6489  -45.1
 0.150  0.6052 -100.4  19.517  125.6  0.0361   51.0  0.6366  -46.3
 0.155  0.6025 -102.1  19.177  124.8  0.0366   50.6  0.6263  -46.9
 0.160  0.6003 -103.8  18.840  124.0  0.0370   50.2  0.6161  -47.5
 0.165  0.5987 -105.5  18.507  123.2  0.0375   49.8  0.6059  -48.1
 0.170  0.5976 -107.2  18.177  122.4  0.0379   49.4  0.5958  -48.7
 0.175  0.5971 -109.0  17.852  121.5  0.0384   49.0  0.5858  -49.4
 0.180  0.5971 -110.7  17.531  120.6  0.0388   48.6  0.5759  -50.0
 0.185  0.5977 -112.4  17.215  119.6  0.0393   48.2  0.5660  -50.7
 0.190  0.5988 -114.2  16.904  118.7  0.0398   47.9  0.5562  -51.5
 0.195  0.6004 -115.9  16.598  117.7  0.0402   47.5  0.5466  -52.2
 0.200  0.6026 -117.6  16.297  116.6  0.0407   47.2  0.5370  -53.0
 0.220  0.5941 -122.8  15.227  114.1  0.0421   46.1  0.5047  -54.6
 0.240  0.5906 -128.0  14.190  111.2  0.0435   45.0  0.4728  -56.4
 0.260  0.5888 -132.7  13.304  108.7  0.0447   44.4  0.4462  -58.0
 0.280  0.5872 -136.7  12.549  106.8  0.0458   44.1  0.4244  -59.3
 0.300  0.5884 -140.7  11.810  104.6  0.0469   43.8  0.4029  -60.7
 0.320  0.5850 -143.5  11.274  103.4  0.0479   43.8  0.3873  -61.3
 0.340  0.5830 -146.3  10.744  102.0  0.0489   43.9  0.3718  -61.9
 0.360  0.5825 -149.2  10.220  100.6  0.0499   43.9  0.3562  -62.6
 0.380  0.5833 -152.0   9.704   98.9  0.0509   44.0  0.3408  -63.3
 0.400  0.5856 -154.8   9.197   97.1  0.0519   44.0  0.3254  -64.1
 0.420  0.5842 -156.7   8.840   96.1  0.0528   44.2  0.3159  -64.5
 0.440  0.5835 -158.5   8.486   95.0  0.0537   44.3  0.3064  -64.9
 0.450  0.5834 -159.4   8.310   94.4  0.0541   44.4  0.3017  -65.1
 0.460  0.5834 -160.4   8.135   93.8  0.0545   44.5  0.2970  -65.3
 0.480  0.5839 -162.2   7.788   92.5  0.0554   44.7  0.2875  -65.7
 0.500  0.5850 -164.1   7.445   91.1  0.0563   44.8  0.2781  -66.2
 0.520  0.5846 -165.7   7.209   90.2  0.0574   45.1  0.2719  -66.5
 0.540  0.5847 -167.4   6.975   89.3  0.0585   45.4  0.2656  -66.9
 0.560  0.5852 -169.0   6.742   88.3  0.0596   45.7  0.2594  -67.3
 0.580  0.5863 -170.7   6.512   87.2  0.0607   45.9  0.2532  -67.7
 0.600  0.5878 -172.3   6.285   86.0  0.0618   46.2  0.2470  -68.1
 0.620  0.5879 -173.7   6.113   85.2  0.0628   46.5  0.2427  -68.4
 0.640  0.5883 -175.0   5.943   84.4  0.0638   46.7  0.2383  -68.7
 0.660  0.5891 -176.4   5.774   83.5  0.0649   46.9  0.2340  -69.1
 0.680  0.5902 -177.7   5.606   82.5  0.0659   47.2  0.2297  -69.4
 0.700  0.5916 -179.1   5.440   81.5  0.0669   47.4  0.2254  -69.8
 0.720  0.5917  179.9   5.304   80.8  0.0680   47.6  0.2223  -70.1
 0.740  0.5920  178.8   5.170   80.1  0.0691   47.8  0.2192  -70.3
 0.760  0.5925  177.8   5.036   79.3  0.0702   48.0  0.2161  -70.6
 0.780  0.5932  176.7   4.903   78.5  0.0713   48.2  0.2131  -70.9
 0.800  0.5941  175.7   4.771   77.7  0.0724   48.4  0.2100  -71.2
 0.820  0.5928  174.7   4.666   77.0  0.0736   48.6  0.2078  -71.5
 0.840  0.5917  173.8   4.562   76.4  0.0748   48.8  0.2055  -71.7
 0.860  0.5908  172.8   4.459   75.6  0.0760   49.0  0.2033  -72.0
 0.880  0.5900  171.9   4.356   74.9  0.0772   49.1  0.2011  -72.3
 0.900  0.5894  170.9   4.254   74.1  0.0784   49.3  0.1989  -72.6
 0.920  0.5894  170.0   4.172   73.5  0.0794   49.4  0.1976  -72.9
 0.940  0.5896  169.0   4.090   72.9  0.0804   49.5  0.1962  -73.2
 0.960  0.5900  168.1   4.008   72.2  0.0815   49.7  0.1949  -73.5
 0.980  0.5905  167.1   3.927   71.5  0.0825   49.8  0.1936  -73.8
 1.000  0.5912  166.2   3.847   70.8  0.0835   49.9  0.1923  -74.1
 1.020  0.5928  165.4   3.780   70.2  0.0847   50.0  0.1910  -74.5
 1.040  0.5945  164.5   3.713   69.5  0.0859   50.1  0.1898  -75.0
 1.060  0.5963  163.7   3.647   68.8  0.0872   50.2  0.1885  -75.5
 1.080  0.5982  162.8   3.581   68.1  0.0884   50.3  0.1873  -75.9
 1.100  0.6003  162.0   3.516   67.4  0.0896   50.4  0.1861  -76.4
 1.120  0.6009  161.2   3.459   66.8  0.0908   50.4  0.1850  -76.8
 1.140  0.6016  160.3   3.402   66.2  0.0919   50.5  0.1840  -77.3
 1.160  0.6024  159.5   3.346   65.6  0.0931   50.5  0.1829  -77.8
 1.180  0.6034  158.6   3.290   65.0  0.0942   50.6  0.1819  -78.2
 1.200  0.6045  157.8   3.234   64.3  0.0954   50.6  0.1809  -78.7
 1.220  0.6040  157.0   3.183   63.7  0.0966   50.6  0.1801  -79.1
 1.240  0.6036  156.2   3.133   63.1  0.0979   50.6  0.1794  -79.5
 1.260  0.6034  155.5   3.083   62.5  0.0991   50.6  0.1786  -79.9
 1.280  0.6032  154.7   3.033   61.9  0.1004   50.6  0.1778  -80.4
 1.300  0.6032  153.9   2.984   61.2  0.1016   50.6  0.1771  -80.8
 1.320  0.6045  153.2   2.942   60.7  0.1027   50.6  0.1768  -81.3
 1.340  0.6059  152.5   2.901   60.2  0.1038   50.6  0.1765  -81.7
 1.360  0.6074  151.8   2.860   59.6  0.1049   50.6  0.1762  -82.2
 1.380  0.6089  151.1   2.819   59.1  0.1060   50.6  0.1760  -82.6
 1.400  0.6106  150.4   2.778   58.5  0.1071   50.6  0.1757  -83.1
 1.420  0.6107  149.8   2.745   58.0  0.1085   50.5  0.1752  -83.7
 1.440  0.6109  149.2   2.713   57.4  0.1099   50.5  0.1748  -84.2
 1.460  0.6111  148.6   2.681   56.9  0.1112   50.4  0.1744  -84.8
 1.480  0.6114  148.0   2.649   56.3  0.1126   50.4  0.1740  -85.3
 1.500  0.6118  147.4   2.617   55.7  0.1140   50.3  0.1736  -85.9
 1.520  0.6138  146.7   2.581   55.1  0.1153   50.2  0.1731  -86.5
 1.540  0.6160  146.0   2.546   54.5  0.1166   50.2  0.1725  -87.0
 1.560  0.6182  145.3   2.511   54.0  0.1178   50.1  0.1720  -87.6
 1.580  0.6205  144.7   2.476   53.3  0.1191   50.1  0.1716  -88.2
 1.600  0.6229  144.0   2.441   52.7  0.1204   50.0  0.1711  -88.8
 1.620  0.6234  143.3   2.413   52.2  0.1215   49.9  0.1707  -89.3
 1.640  0.6240  142.6   2.385   51.6  0.1226   49.9  0.1702  -89.8
 1.660  0.6247  141.8   2.358   51.1  0.1238   49.8  0.1698  -90.4
 1.680  0.6255  141.1   2.330   50.5  0.1249   49.8  0.1694  -90.9
 1.700  0.6264  140.4   2.303   49.9  0.1260   49.7  0.1690  -91.4
 1.720  0.6274  139.8   2.280   49.4  0.1272   49.5  0.1692  -91.9
 1.740  0.6285  139.2   2.257   49.0  0.1285   49.3  0.1695  -92.4
 1.760  0.6296  138.7   2.234   48.5  0.1297   49.1  0.1697  -92.9
 1.780  0.6308  138.1   2.211   48.0  0.1310   49.0  0.1700  -93.4
 1.800  0.6321  137.5   2.189   47.5  0.1322   48.8  0.1703  -93.9
 1.820  0.6326  136.9   2.166   46.9  0.1335   48.7  0.1704  -94.6
 1.840  0.6333  136.3   2.143   46.4  0.1347   48.6  0.1705  -95.4
 1.860  0.6339  135.7   2.121   45.8  0.1360   48.6  0.1706  -96.1
 1.880  0.6347  135.1   2.098   45.2  0.1372   48.5  0.1707  -96.9
 1.900  0.6355  134.5   2.076   44.6  0.1385   48.4  0.1709  -97.6
 1.920  0.6370  133.9   2.055   44.1  0.1397   48.2  0.1705  -98.2
 1.940  0.6385  133.3   2.034   43.6  0.1410   48.0  0.1701  -98.9
 1.960  0.6402  132.8   2.013   43.1  0.1422   47.9  0.1697  -99.5
 1.980  0.6418  132.2   1.992   42.6  0.1435   47.7  0.1693 -100.2
 2.000  0.6436  131.6   1.971   42.1  0.1447   47.5  0.1690 -100.8
 2.020  0.6443  131.1   1.953   41.6  0.1460   47.4  0.1691 -101.4
 2.040  0.6450  130.5   1.935   41.1  0.1472   47.2  0.1692 -102.1
 2.060  0.6458  130.0   1.917   40.6  0.1485   47.1  0.1693 -102.7
 2.080  0.6466  129.4   1.899   40.1  0.1497   47.0  0.1694 -103.4
 2.100  0.6475  128.9   1.882   39.6  0.1510   46.8  0.1695 -104.0
 2.120  0.6484  128.3   1.864   39.1  0.1523   46.7  0.1697 -104.7
 2.140  0.6494  127.8   1.847   38.6  0.1535   46.6  0.1699 -105.3
 2.160  0.6505  127.3   1.830   38.0  0.1548   46.4  0.1701 -105.9
 2.180  0.6516  126.7   1.813   37.5  0.1560   46.3  0.1703 -106.6
 2.200  0.6528  126.2   1.796   36.9  0.1573   46.2  0.1706 -107.2
 2.220  0.6537  125.6   1.782   36.4  0.1585   46.0  0.1706 -108.0
 2.240  0.6547  125.0   1.768   35.9  0.1597   45.9  0.1707 -108.7
 2.260  0.6558  124.4   1.754   35.4  0.1609   45.7  0.1708 -109.5
 2.280  0.6569  123.9   1.740   34.9  0.1621   45.5  0.1709 -110.3
 2.300  0.6582  123.3   1.726   34.4  0.1633   45.4  0.1710 -111.1
 2.320  0.6594  122.7   1.713   33.9  0.1645   45.2  0.1712 -111.8
 2.340  0.6608  122.1   1.699   33.3  0.1657   45.1  0.1714 -112.6
 2.360  0.6622  121.5   1.686   32.8  0.1669   44.9  0.1716 -113.4
 2.380  0.6637  121.0   1.673   32.3  0.1681   44.7  0.1719 -114.1
 2.400  0.6652  120.4   1.660   31.7  0.1693   44.6  0.1722 -114.9
 2.420  0.6661  119.9   1.646   31.3  0.1705   44.4  0.1724 -115.6
 2.440  0.6672  119.3   1.632   30.9  0.1716   44.2  0.1727 -116.4
 2.460  0.6682  118.8   1.619   30.4  0.1728   44.0  0.1730 -117.1
 2.480  0.6694  118.2   1.605   30.0  0.1739   43.9  0.1733 -117.8
 2.500  0.6706  117.7   1.592   29.5  0.1751   43.7  0.1736 -118.5
 2.520  0.6718  117.1   1.578   29.1  0.1762   43.5  0.1740 -119.3
 2.540  0.6731  116.6   1.565   28.6  0.1774   43.3  0.1744 -120.0
 2.560  0.6745  116.1   1.552   28.2  0.1786   43.1  0.1748 -120.7
 2.580  0.6759  115.5   1.539   27.7  0.1797   43.0  0.1752 -121.4
 2.600  0.6774  115.0   1.526   27.2  0.1809   42.8  0.1757 -122.1
 2.620  0.6786  114.5   1.516   26.8  0.1820   42.6  0.1760 -122.9
 2.640  0.6797  114.1   1.505   26.3  0.1832   42.4  0.1764 -123.7
 2.660  0.6810  113.6   1.495   25.9  0.1843   42.2  0.1768 -124.5
 2.680  0.6823  113.1   1.485   25.5  0.1854   42.0  0.1773 -125.3
 2.700  0.6836  112.7   1.474   25.0  0.1866   41.8  0.1777 -126.1
 2.720  0.6850  112.2   1.464   24.6  0.1877   41.6  0.1782 -126.9
 2.740  0.6864  111.8   1.454   24.1  0.1889   41.4  0.1788 -127.7
 2.760  0.6878  111.3   1.444   23.6  0.1900   41.2  0.1794 -128.5
 2.780  0.6894  110.9   1.435   23.2  0.1912   41.0  0.1800 -129.2
 2.800  0.6909  110.4   1.425   22.7  0.1923   40.8  0.1806 -130.0
 2.820  0.6920  109.9   1.415   22.3  0.1934   40.6  0.1813 -130.8
 2.840  0.6932  109.5   1.404   21.8  0.1946   40.4  0.1820 -131.5
 2.860  0.6944  109.0   1.394   21.4  0.1958   40.2  0.1827 -132.3
 2.880  0.6957  108.6   1.384   20.9  0.1969   40.0  0.1835 -133.0
 2.900  0.6970  108.1   1.373   20.5  0.1981   39.8  0.1843 -133.7
 2.920  0.6983  107.7   1.363   20.0  0.1992   39.6  0.1851 -134.5
 2.940  0.6997  107.2   1.353   19.6  0.2004   39.4  0.1860 -135.2
 2.960  0.7011  106.8   1.343   19.1  0.2016   39.2  0.1868 -135.9
 2.980  0.7026  106.3   1.334   18.6  0.2027   39.0  0.1878 -136.6
 3.000  0.7041  105.9   1.324   18.1  0.2039   38.8  0.1887 -137.3
 3.100  0.7085  103.9   1.282   16.4  0.2092   37.8  0.1925 -141.1
 3.200  0.7138  101.9   1.241   14.6  0.2145   36.8  0.1970 -144.8
 3.300  0.7199   99.9   1.201   12.6  0.2199   35.8  0.2024 -148.3
 3.400  0.7268   98.0   1.163   10.5  0.2253   34.9  0.2085 -151.6
 3.500  0.7346   96.1   1.126    8.3  0.2308   34.1  0.2152 -154.7
 3.600  0.7378   94.3   1.095    6.7  0.2360   32.9  0.2220 -158.1
 3.700  0.7418   92.5   1.066    5.0  0.2414   31.8  0.2296 -161.4
 3.800  0.7464   90.8   1.037    3.3  0.2468   30.7  0.2378 -164.4
 3.900  0.7518   89.0   1.009    1.4  0.2523   29.7  0.2467 -167.2
 4.000  0.7578   87.3   0.983   -0.6  0.2579   28.7  0.2561 -169.8
 4.100  0.7624   85.7   0.959   -2.0  0.2627   27.5  0.2635 -172.5
 4.200  0.7675   84.2   0.936   -3.5  0.2676   26.4  0.2714 -175.1
 4.300  0.7732   82.7   0.914   -5.1  0.2725   25.3  0.2799 -177.6
 4.400  0.7794   81.2   0.892   -6.7  0.2776   24.2  0.2888 -179.9
 4.500  0.7861   79.7   0.871   -8.4  0.2828   23.2  0.2982  178.0
 4.600  0.7881   78.4   0.852   -9.7  0.2871   22.1  0.3061  175.7
 4.700  0.7905   77.1   0.833  -11.0  0.2915   21.0  0.3145  173.5
 4.800  0.7933   75.8   0.814  -12.4  0.2960   19.9  0.3234  171.5
 4.900  0.7965   74.6   0.796  -13.9  0.3006   18.9  0.3326  169.5
 5.000  0.8001   73.3   0.779  -15.4  0.3053   17.9  0.3422  167.7
 5.100  0.8030   72.1   0.763  -16.5  0.3095   16.8  0.3493  165.6
 5.200  0.8064   70.9   0.748  -17.6  0.3138   15.7  0.3570  163.5
 5.300  0.8100   69.7   0.732  -18.8  0.3182   14.7  0.3650  161.6
 5.400  0.8140   68.5   0.718  -20.0  0.3228   13.7  0.3735  159.7
 5.500  0.8184   67.3   0.703  -21.3  0.3274   12.7  0.3823  157.9
 5.600  0.8188   66.2   0.692  -22.3  0.3314   11.5  0.3896  156.1
 5.700  0.8194   65.2   0.680  -23.2  0.3355   10.4  0.3973  154.3
 5.800  0.8204   64.1   0.669  -24.3  0.3397    9.3  0.4053  152.7
 5.900  0.8216   63.1   0.659  -25.3  0.3440    8.2  0.4137  151.0
 6.000  0.8231   62.0   0.648  -26.4  0.3485    7.1  0.4224  149.5
!
!  f       NFmin   Gammaopt  rn/50
! GHz       dB    MAG  ANG    -
!
! noise parameter not available yet for this operation point!
!
! (c) 2016  Infineon Technologies AG, Munich
