! Infineon Technologies  Discrete & RF Semiconductors
! BFP193W
! VCE = 2.5 V,  IC =  5.0 mA
! Common Emitter S-Parameters:                            Jan 2016
# GHz  S  MA  R  50
!  f         S11            S21            S12            S22
! GHz     MAG   ANG      MAG   ANG      MAG   ANG      MAG   ANG
 0.010  0.8204   -5.2  15.706  176.2  0.0041   87.6  0.9944   -1.7
 0.015  0.8193   -7.9  15.742  175.1  0.0061   85.2  0.9918   -3.4
 0.020  0.8200  -10.6  15.784  174.1  0.0082   84.0  0.9902   -5.2
 0.025  0.8171  -13.2  15.729  172.7  0.0101   83.5  0.9848   -6.4
 0.030  0.8159  -15.8  15.683  171.3  0.0120   83.2  0.9799   -7.6
 0.035  0.8126  -18.3  15.603  169.9  0.0140   81.0  0.9751   -8.8
 0.040  0.8108  -20.8  15.532  168.4  0.0160   79.4  0.9707  -10.0
 0.045  0.8106  -23.4  15.472  167.0  0.0180   78.1  0.9668  -11.3
 0.050  0.8120  -25.9  15.421  165.5  0.0200   77.1  0.9633  -12.5
 0.055  0.8047  -28.2  15.279  164.3  0.0216   75.1  0.9555  -13.5
 0.060  0.7986  -30.6  15.145  163.0  0.0232   73.4  0.9480  -14.5
 0.065  0.7940  -32.9  15.018  161.7  0.0248   71.9  0.9408  -15.6
 0.070  0.7907  -35.3  14.898  160.5  0.0264   70.6  0.9339  -16.6
 0.075  0.7889  -37.8  14.786  159.1  0.0280   69.5  0.9274  -17.7
 0.080  0.7884  -40.2  14.683  157.8  0.0297   68.5  0.9211  -18.8
 0.085  0.7894  -42.6  14.587  156.5  0.0313   67.5  0.9153  -19.9
 0.090  0.7918  -45.0  14.499  155.1  0.0330   66.7  0.9097  -21.0
 0.095  0.7955  -47.4  14.420  153.7  0.0346   66.0  0.9045  -22.2
 0.100  0.8007  -49.8  14.349  152.3  0.0363   65.3  0.8997  -23.3
 0.105  0.7946  -51.8  14.191  151.2  0.0376   64.0  0.8905  -24.2
 0.110  0.7895  -53.8  14.039  150.2  0.0389   62.8  0.8816  -25.0
 0.115  0.7854  -55.9  13.891  149.1  0.0402   61.7  0.8728  -25.9
 0.120  0.7823  -57.9  13.749  147.9  0.0415   60.7  0.8643  -26.8
 0.125  0.7803  -60.0  13.612  146.8  0.0428   59.7  0.8560  -27.7
 0.130  0.7792  -62.1  13.480  145.6  0.0442   58.8  0.8479  -28.7
 0.135  0.7792  -64.2  13.355  144.4  0.0456   57.9  0.8400  -29.6
 0.140  0.7803  -66.3  13.235  143.2  0.0469   57.1  0.8324  -30.6
 0.145  0.7823  -68.3  13.121  142.0  0.0483   56.3  0.8250  -31.6
 0.150  0.7854  -70.4  13.014  140.7  0.0497   55.6  0.8179  -32.6
 0.155  0.7810  -72.1  12.854  139.9  0.0505   54.7  0.8091  -33.2
 0.160  0.7774  -73.8  12.698  139.0  0.0514   53.8  0.8004  -33.9
 0.165  0.7743  -75.4  12.544  138.1  0.0522   53.0  0.7918  -34.5
 0.170  0.7720  -77.2  12.393  137.2  0.0531   52.2  0.7833  -35.2
 0.175  0.7704  -78.9  12.245  136.3  0.0540   51.4  0.7749  -35.9
 0.180  0.7695  -80.6  12.101  135.4  0.0549   50.6  0.7667  -36.6
 0.185  0.7692  -82.3  11.959  134.4  0.0558   49.9  0.7585  -37.3
 0.190  0.7697  -84.1  11.822  133.4  0.0567   49.2  0.7505  -38.0
 0.195  0.7708  -85.8  11.687  132.4  0.0576   48.5  0.7426  -38.7
 0.200  0.7727  -87.5  11.557  131.4  0.0585   47.8  0.7348  -39.5
 0.220  0.7634  -92.8  11.031  128.6  0.0612   45.3  0.7061  -41.6
 0.240  0.7608  -98.2  10.533  125.6  0.0641   43.1  0.6784  -43.8
 0.260  0.7577 -103.1  10.057  122.9  0.0663   41.0  0.6516  -45.7
 0.280  0.7524 -107.5   9.591  120.4  0.0680   39.0  0.6250  -47.2
 0.300  0.7515 -111.9   9.145  117.7  0.0698   37.2  0.5990  -48.9
 0.320  0.7444 -115.1   8.787  116.1  0.0708   35.8  0.5804  -49.9
 0.340  0.7397 -118.4   8.436  114.4  0.0719   34.5  0.5620  -51.0
 0.360  0.7375 -121.8   8.094  112.5  0.0731   33.2  0.5437  -52.1
 0.380  0.7377 -125.1   7.761  110.4  0.0742   32.0  0.5257  -53.3
 0.400  0.7405 -128.4   7.439  108.2  0.0754   30.8  0.5080  -54.6
 0.420  0.7375 -130.7   7.183  106.9  0.0760   30.1  0.4955  -55.3
 0.440  0.7356 -133.1   6.932  105.6  0.0766   29.3  0.4831  -56.0
 0.450  0.7352 -134.2   6.807  104.8  0.0770   29.0  0.4769  -56.3
 0.460  0.7351 -135.4   6.684  104.1  0.0773   28.6  0.4707  -56.7
 0.480  0.7357 -137.8   6.441  102.5  0.0779   27.9  0.4585  -57.5
 0.500  0.7376 -140.1   6.204  100.8  0.0786   27.2  0.4463  -58.3
 0.520  0.7356 -141.9   6.018   99.8  0.0790   26.6  0.4377  -58.8
 0.540  0.7343 -143.6   5.833   98.7  0.0794   26.1  0.4292  -59.3
 0.560  0.7337 -145.4   5.651   97.6  0.0798   25.5  0.4207  -59.9
 0.580  0.7338 -147.2   5.471   96.4  0.0802   24.9  0.4122  -60.4
 0.600  0.7346 -149.0   5.294   95.1  0.0806   24.4  0.4038  -61.0
 0.620  0.7341 -150.4   5.159   94.3  0.0808   24.1  0.3977  -61.4
 0.640  0.7341 -151.8   5.026   93.4  0.0810   23.8  0.3916  -61.8
 0.660  0.7345 -153.1   4.893   92.4  0.0812   23.6  0.3856  -62.2
 0.680  0.7353 -154.5   4.762   91.4  0.0814   23.3  0.3795  -62.6
 0.700  0.7365 -155.9   4.633   90.4  0.0816   23.0  0.3735  -63.0
 0.720  0.7351 -157.0   4.520   89.6  0.0818   22.8  0.3695  -63.4
 0.740  0.7339 -158.1   4.407   88.8  0.0819   22.6  0.3656  -63.8
 0.760  0.7330 -159.2   4.295   88.0  0.0821   22.3  0.3616  -64.2
 0.780  0.7324 -160.3   4.185   87.1  0.0822   22.1  0.3577  -64.6
 0.800  0.7321 -161.4   4.075   86.1  0.0824   21.9  0.3538  -65.0
 0.820  0.7316 -162.4   3.989   85.4  0.0825   21.8  0.3508  -65.4
 0.840  0.7314 -163.4   3.904   84.7  0.0827   21.7  0.3478  -65.7
 0.860  0.7313 -164.3   3.820   83.9  0.0828   21.5  0.3448  -66.1
 0.880  0.7315 -165.3   3.736   83.1  0.0830   21.4  0.3418  -66.5
 0.900  0.7319 -166.3   3.653   82.3  0.0831   21.3  0.3389  -66.9
 0.920  0.7311 -167.1   3.580   81.7  0.0830   21.3  0.3369  -67.3
 0.940  0.7305 -167.9   3.508   81.0  0.0830   21.2  0.3348  -67.8
 0.960  0.7300 -168.7   3.436   80.3  0.0829   21.2  0.3328  -68.3
 0.980  0.7297 -169.5   3.365   79.6  0.0829   21.1  0.3309  -68.7
 1.000  0.7295 -170.3   3.294   78.9  0.0828   21.1  0.3289  -69.2
 1.020  0.7306 -171.0   3.240   78.3  0.0830   21.1  0.3275  -69.5
 1.040  0.7319 -171.7   3.186   77.7  0.0831   21.1  0.3260  -69.8
 1.060  0.7332 -172.5   3.133   77.0  0.0833   21.0  0.3246  -70.1
 1.080  0.7347 -173.2   3.080   76.4  0.0834   21.0  0.3232  -70.4
 1.100  0.7363 -173.9   3.028   75.7  0.0836   21.0  0.3218  -70.7
 1.120  0.7362 -174.6   2.977   75.1  0.0837   21.0  0.3213  -71.1
 1.140  0.7361 -175.4   2.926   74.5  0.0838   21.0  0.3208  -71.5
 1.160  0.7362 -176.1   2.876   73.8  0.0839   21.0  0.3203  -71.9
 1.180  0.7365 -176.9   2.826   73.2  0.0840   21.0  0.3198  -72.3
 1.200  0.7368 -177.6   2.776   72.5  0.0841   21.0  0.3194  -72.7
 1.220  0.7369 -178.2   2.735   71.9  0.0841   21.2  0.3187  -73.1
 1.240  0.7370 -178.8   2.694   71.4  0.0841   21.3  0.3179  -73.6
 1.260  0.7373 -179.4   2.653   70.8  0.0842   21.5  0.3172  -74.0
 1.280  0.7376  180.0   2.612   70.1  0.0842   21.6  0.3166  -74.5
 1.300  0.7380  179.4   2.572   69.5  0.0842   21.8  0.3159  -74.9
 1.320  0.7382  178.8   2.537   69.0  0.0843   21.9  0.3156  -75.3
 1.340  0.7385  178.3   2.502   68.4  0.0843   22.0  0.3152  -75.7
 1.360  0.7388  177.7   2.467   67.9  0.0844   22.0  0.3149  -76.2
 1.380  0.7392  177.2   2.433   67.3  0.0844   22.1  0.3147  -76.6
 1.400  0.7397  176.6   2.399   66.7  0.0845   22.2  0.3144  -77.0
 1.420  0.7401  176.1   2.368   66.2  0.0845   22.4  0.3140  -77.4
 1.440  0.7406  175.6   2.338   65.7  0.0846   22.6  0.3135  -77.9
 1.460  0.7411  175.0   2.308   65.2  0.0846   22.9  0.3131  -78.3
 1.480  0.7417  174.5   2.278   64.6  0.0847   23.1  0.3128  -78.8
 1.500  0.7423  174.0   2.248   64.1  0.0847   23.3  0.3124  -79.2
 1.520  0.7426  173.5   2.221   63.6  0.0849   23.4  0.3127  -79.5
 1.540  0.7429  172.9   2.194   63.0  0.0850   23.6  0.3129  -79.9
 1.560  0.7434  172.4   2.168   62.5  0.0852   23.7  0.3132  -80.2
 1.580  0.7438  171.8   2.141   61.9  0.0853   23.9  0.3135  -80.6
 1.600  0.7444  171.3   2.115   61.3  0.0855   24.0  0.3138  -80.9
 1.620  0.7451  170.8   2.090   60.8  0.0856   24.2  0.3141  -81.4
 1.640  0.7459  170.3   2.066   60.3  0.0857   24.4  0.3145  -82.0
 1.660  0.7467  169.8   2.042   59.8  0.0857   24.7  0.3149  -82.5
 1.680  0.7476  169.3   2.018   59.3  0.0858   24.9  0.3153  -83.1
 1.700  0.7486  168.8   1.994   58.8  0.0859   25.1  0.3157  -83.6
 1.720  0.7483  168.3   1.972   58.3  0.0861   25.3  0.3155  -84.0
 1.740  0.7481  167.8   1.950   57.8  0.0863   25.5  0.3152  -84.4
 1.760  0.7480  167.4   1.928   57.3  0.0864   25.8  0.3150  -84.9
 1.780  0.7479  166.9   1.906   56.7  0.0866   26.0  0.3149  -85.3
 1.800  0.7478  166.4   1.885   56.2  0.0868   26.2  0.3147  -85.7
 1.820  0.7477  165.9   1.865   55.7  0.0870   26.4  0.3154  -86.1
 1.840  0.7476  165.4   1.845   55.2  0.0872   26.6  0.3161  -86.4
 1.860  0.7476  165.0   1.826   54.7  0.0874   26.8  0.3169  -86.8
 1.880  0.7476  164.5   1.806   54.2  0.0876   27.0  0.3176  -87.1
 1.900  0.7477  164.0   1.787   53.7  0.0878   27.2  0.3184  -87.5
 1.920  0.7482  163.6   1.770   53.2  0.0880   27.4  0.3193  -88.0
 1.940  0.7487  163.1   1.753   52.8  0.0882   27.6  0.3201  -88.4
 1.960  0.7492  162.7   1.736   52.3  0.0883   27.9  0.3210  -88.9
 1.980  0.7499  162.2   1.719   51.8  0.0885   28.1  0.3220  -89.3
 2.000  0.7505  161.8   1.702   51.3  0.0887   28.3  0.3229  -89.8
 2.020  0.7509  161.4   1.687   50.9  0.0890   28.5  0.3234  -90.3
 2.040  0.7514  161.0   1.672   50.5  0.0892   28.7  0.3238  -90.7
 2.060  0.7520  160.6   1.657   50.0  0.0895   28.9  0.3243  -91.2
 2.080  0.7525  160.2   1.643   49.6  0.0897   29.1  0.3248  -91.7
 2.100  0.7531  159.7   1.628   49.2  0.0900   29.3  0.3254  -92.1
 2.120  0.7538  159.3   1.614   48.7  0.0902   29.5  0.3259  -92.6
 2.140  0.7544  158.9   1.599   48.2  0.0905   29.7  0.3265  -93.0
 2.160  0.7552  158.5   1.585   47.8  0.0908   29.9  0.3271  -93.5
 2.180  0.7559  158.1   1.571   47.3  0.0910   30.1  0.3278  -93.9
 2.200  0.7567  157.7   1.557   46.8  0.0913   30.3  0.3284  -94.4
 2.220  0.7569  157.3   1.544   46.4  0.0916   30.5  0.3293  -94.9
 2.240  0.7571  156.9   1.530   45.9  0.0918   30.8  0.3303  -95.3
 2.260  0.7574  156.5   1.517   45.5  0.0921   31.0  0.3313  -95.7
 2.280  0.7577  156.1   1.504   45.1  0.0924   31.2  0.3322  -96.2
 2.300  0.7580  155.7   1.491   44.6  0.0927   31.4  0.3333  -96.6
 2.320  0.7584  155.3   1.478   44.1  0.0930   31.6  0.3343  -97.1
 2.340  0.7588  154.9   1.465   43.7  0.0932   31.9  0.3353  -97.5
 2.360  0.7592  154.5   1.452   43.2  0.0935   32.1  0.3364  -97.9
 2.380  0.7597  154.1   1.440   42.7  0.0938   32.3  0.3375  -98.4
 2.400  0.7602  153.7   1.427   42.2  0.0941   32.5  0.3386  -98.8
 2.420  0.7604  153.3   1.416   41.8  0.0945   32.7  0.3391  -99.3
 2.440  0.7607  152.9   1.405   41.4  0.0949   33.0  0.3395  -99.8
 2.460  0.7610  152.5   1.394   41.0  0.0953   33.2  0.3400 -100.3
 2.480  0.7614  152.1   1.383   40.6  0.0957   33.4  0.3406 -100.8
 2.500  0.7618  151.7   1.373   40.1  0.0961   33.7  0.3411 -101.3
 2.520  0.7622  151.4   1.362   39.7  0.0965   33.9  0.3417 -101.8
 2.540  0.7626  151.0   1.351   39.3  0.0969   34.1  0.3423 -102.2
 2.560  0.7631  150.6   1.341   38.8  0.0973   34.4  0.3430 -102.7
 2.580  0.7636  150.2   1.330   38.4  0.0977   34.6  0.3436 -103.2
 2.600  0.7642  149.8   1.320   37.9  0.0981   34.8  0.3443 -103.7
 2.620  0.7650  149.4   1.311   37.5  0.0986   35.0  0.3455 -104.1
 2.640  0.7658  149.1   1.301   37.1  0.0991   35.2  0.3467 -104.6
 2.660  0.7667  148.7   1.292   36.7  0.0996   35.4  0.3479 -105.0
 2.680  0.7675  148.3   1.282   36.3  0.1000   35.5  0.3491 -105.5
 2.700  0.7684  147.9   1.273   35.9  0.1005   35.7  0.3504 -105.9
 2.720  0.7694  147.6   1.264   35.5  0.1010   35.9  0.3516 -106.3
 2.740  0.7704  147.2   1.255   35.1  0.1015   36.1  0.3529 -106.7
 2.760  0.7714  146.8   1.246   34.7  0.1020   36.3  0.3542 -107.2
 2.780  0.7724  146.5   1.237   34.2  0.1025   36.4  0.3556 -107.6
 2.800  0.7735  146.1   1.228   33.8  0.1030   36.6  0.3569 -108.0
 2.820  0.7740  145.8   1.219   33.4  0.1035   36.8  0.3577 -108.5
 2.840  0.7744  145.4   1.211   33.0  0.1040   36.9  0.3585 -109.0
 2.860  0.7750  145.1   1.202   32.6  0.1045   37.1  0.3594 -109.4
 2.880  0.7755  144.7   1.194   32.2  0.1050   37.2  0.3603 -109.9
 2.900  0.7761  144.4   1.186   31.8  0.1055   37.4  0.3612 -110.4
 2.920  0.7767  144.1   1.177   31.4  0.1061   37.5  0.3621 -110.8
 2.940  0.7773  143.7   1.169   31.0  0.1066   37.7  0.3631 -111.3
 2.960  0.7779  143.4   1.161   30.6  0.1071   37.8  0.3641 -111.8
 2.980  0.7786  143.0   1.153   30.1  0.1076   38.0  0.3651 -112.2
 3.000  0.7793  142.7   1.145   29.7  0.1081   38.1  0.3661 -112.7
 3.100  0.7823  140.8   1.109   27.8  0.1112   38.8  0.3718 -115.1
 3.200  0.7862  139.0   1.075   25.8  0.1143   39.4  0.3782 -117.4
 3.300  0.7901  137.2   1.041   23.9  0.1176   39.9  0.3840 -119.8
 3.400  0.7947  135.4   1.009   21.8  0.1209   40.3  0.3904 -122.1
 3.500  0.7986  133.8   0.981   20.1  0.1241   40.8  0.3976 -124.4
 3.600  0.8030  132.3   0.953   18.4  0.1274   41.3  0.4055 -126.6
 3.700  0.8052  130.6   0.924   16.6  0.1307   41.5  0.4124 -129.1
 3.800  0.8080  129.0   0.895   14.7  0.1340   41.6  0.4200 -131.6
 3.900  0.8110  127.6   0.869   13.2  0.1380   41.7  0.4274 -133.9
 4.000  0.8145  126.2   0.844   11.6  0.1420   41.7  0.4355 -136.1
 4.100  0.8155  124.9   0.821   10.3  0.1459   41.6  0.4429 -138.5
 4.200  0.8169  123.5   0.799    8.8  0.1498   41.5  0.4510 -140.8
 4.300  0.8187  122.2   0.777    7.4  0.1537   41.4  0.4598 -143.0
 4.400  0.8210  120.9   0.756    5.8  0.1576   41.4  0.4693 -145.2
 4.500  0.8237  119.6   0.735    4.1  0.1615   41.3  0.4794 -147.2
 4.600  0.8244  118.5   0.716    3.1  0.1657   41.0  0.4861 -149.3
 4.700  0.8254  117.4   0.698    2.0  0.1698   40.7  0.4934 -151.4
 4.800  0.8267  116.3   0.680    0.8  0.1740   40.4  0.5014 -153.4
 4.900  0.8284  115.2   0.662   -0.4  0.1782   40.2  0.5100 -155.3
 5.000  0.8303  114.1   0.645   -1.7  0.1824   39.9  0.5191 -157.2
 5.100  0.8297  113.2   0.630   -2.5  0.1866   39.4  0.5256 -158.9
 5.200  0.8293  112.4   0.615   -3.3  0.1908   39.0  0.5326 -160.6
 5.300  0.8291  111.5   0.600   -4.2  0.1950   38.5  0.5400 -162.3
 5.400  0.8291  110.7   0.586   -5.1  0.1993   38.1  0.5479 -163.9
 5.500  0.8293  109.8   0.571   -6.1  0.2035   37.7  0.5562 -165.4
 5.600  0.8306  108.9   0.560   -6.7  0.2079   37.2  0.5621 -166.9
 5.700  0.8322  107.9   0.548   -7.4  0.2124   36.7  0.5684 -168.4
 5.800  0.8340  107.0   0.537   -8.1  0.2169   36.2  0.5751 -169.9
 5.900  0.8360  106.1   0.526   -8.8  0.2214   35.7  0.5822 -171.3
 6.000  0.8382  105.2   0.515   -9.5  0.2259   35.3  0.5896 -172.7
!
!  f       NFmin   Gammaopt  rn/50
! GHz       dB    MAG  ANG    -
 0.450      1.20  0.26  102   0.14
 0.900      1.25  0.38  145   0.12
 1.800      2.05  0.56 -161   0.12
!
! (c) 2016  Infineon Technologies AG, Munich
