! Infineon Technologies  Discrete & RF Semiconductors
! BFP196
! VCE = 0.75V,  IC = 0.10A
! Common Emitter S-Parameters:                            Jan 2016
# GHz  S  MA  R  50
!  f         S11            S21            S12            S22
! GHz     MAG   ANG      MAG   ANG      MAG   ANG      MAG   ANG
 0.010  0.4004 -143.9  44.291  155.9  0.0059   58.6  0.3605  -59.5
 0.015  0.4955 -146.8  39.600  147.9  0.0081   53.8  0.3700  -79.4
 0.020  0.5915 -148.7  35.885  137.9  0.0103   51.1  0.4194  -96.4
 0.025  0.6200 -151.8  32.946  135.5  0.0110   48.9  0.4122 -104.2
 0.030  0.6502 -154.5  30.077  132.6  0.0117   47.0  0.4128 -112.2
 0.035  0.6818 -157.1  27.302  129.1  0.0124   45.3  0.4213 -120.0
 0.040  0.7145 -159.4  24.651  124.8  0.0131   43.8  0.4373 -127.3
 0.045  0.7484 -161.5  22.170  119.5  0.0139   42.4  0.4598 -134.1
 0.050  0.7831 -163.4  19.922  113.0  0.0146   41.2  0.4881 -140.1
 0.055  0.7870 -164.6  18.961  112.2  0.0150   41.8  0.4874 -142.2
 0.060  0.7912 -165.8  18.003  111.4  0.0153   42.4  0.4872 -144.2
 0.065  0.7957 -166.9  17.050  110.5  0.0157   43.0  0.4878 -146.3
 0.070  0.8006 -168.1  16.102  109.4  0.0161   43.6  0.4889 -148.3
 0.075  0.8057 -169.2  15.159  108.3  0.0164   44.1  0.4907 -150.4
 0.080  0.8112 -170.3  14.224  106.9  0.0168   44.6  0.4930 -152.4
 0.085  0.8170 -171.4  13.298  105.4  0.0172   45.1  0.4960 -154.4
 0.090  0.8231 -172.5  12.382  103.7  0.0175   45.5  0.4996 -156.3
 0.095  0.8294 -173.5  11.480  101.7  0.0179   46.0  0.5038 -158.3
 0.100  0.8361 -174.6  10.594   99.3  0.0183   46.4  0.5085 -160.2
 0.105  0.8378 -175.0  10.248   98.9  0.0187   47.0  0.5085 -160.9
 0.110  0.8396 -175.4   9.903   98.4  0.0191   47.6  0.5086 -161.7
 0.115  0.8413 -175.8   9.558   97.9  0.0195   48.2  0.5088 -162.4
 0.120  0.8432 -176.3   9.214   97.4  0.0199   48.8  0.5091 -163.1
 0.125  0.8451 -176.7   8.871   96.8  0.0203   49.3  0.5095 -163.9
 0.130  0.8470 -177.1   8.529   96.2  0.0207   49.8  0.5099 -164.6
 0.135  0.8489 -177.5   8.188   95.6  0.0212   50.3  0.5104 -165.3
 0.140  0.8510 -177.9   7.848   94.8  0.0216   50.8  0.5110 -166.1
 0.145  0.8530 -178.3   7.509   94.1  0.0220   51.3  0.5117 -166.8
 0.150  0.8551 -178.7   7.172   93.2  0.0224   51.7  0.5125 -167.5
 0.155  0.8546 -179.1   6.993   92.9  0.0228   52.3  0.5124 -167.9
 0.160  0.8542 -179.4   6.815   92.5  0.0232   52.9  0.5123 -168.3
 0.165  0.8538 -179.8   6.637   92.2  0.0237   53.5  0.5123 -168.7
 0.170  0.8534  179.9   6.459   91.8  0.0241   54.0  0.5123 -169.1
 0.175  0.8530  179.5   6.281   91.4  0.0245   54.5  0.5123 -169.5
 0.180  0.8527  179.1   6.104   90.9  0.0250   55.0  0.5123 -169.8
 0.185  0.8524  178.8   5.927   90.5  0.0254   55.5  0.5123 -170.2
 0.190  0.8522  178.4   5.751   90.0  0.0258   56.0  0.5124 -170.6
 0.195  0.8520  178.1   5.575   89.5  0.0263   56.5  0.5125 -171.0
 0.200  0.8518  177.7   5.399   88.9  0.0267   56.9  0.5126 -171.4
 0.220  0.8503  176.7   4.956   87.9  0.0285   57.9  0.5129 -172.5
 0.240  0.8490  175.6   4.516   86.7  0.0304   58.8  0.5135 -173.6
 0.260  0.8488  174.7   4.155   85.6  0.0323   59.7  0.5139 -174.5
 0.280  0.8495  173.9   3.875   84.6  0.0344   60.7  0.5140 -175.2
 0.300  0.8503  173.1   3.596   83.5  0.0364   61.6  0.5143 -175.9
 0.320  0.8510  172.2   3.421   82.8  0.0384   62.3  0.5143 -176.4
 0.340  0.8519  171.3   3.247   82.1  0.0403   62.8  0.5144 -177.0
 0.360  0.8530  170.4   3.073   81.2  0.0423   63.4  0.5145 -177.5
 0.380  0.8543  169.5   2.900   80.3  0.0442   63.9  0.5147 -178.1
 0.400  0.8558  168.6   2.728   79.2  0.0462   64.3  0.5149 -178.6
 0.420  0.8553  168.0   2.621   78.5  0.0482   64.6  0.5151 -179.0
 0.440  0.8548  167.4   2.514   77.8  0.0502   64.8  0.5153 -179.4
 0.450  0.8546  167.1   2.461   77.5  0.0511   64.9  0.5155 -179.6
 0.460  0.8545  166.7   2.407   77.1  0.0521   65.0  0.5156 -179.8
 0.480  0.8542  166.1   2.301   76.2  0.0541   65.2  0.5159  179.8
 0.500  0.8541  165.5   2.196   75.3  0.0561   65.4  0.5162  179.4
 0.520  0.8538  164.7   2.123   74.6  0.0582   65.4  0.5163  179.1
 0.540  0.8537  164.0   2.050   73.8  0.0602   65.4  0.5164  178.8
 0.560  0.8537  163.2   1.977   72.9  0.0623   65.3  0.5166  178.4
 0.580  0.8539  162.5   1.905   72.0  0.0643   65.3  0.5167  178.1
 0.600  0.8542  161.7   1.834   71.0  0.0664   65.3  0.5169  177.8
 0.620  0.8537  160.9   1.784   70.3  0.0684   65.2  0.5172  177.5
 0.640  0.8533  160.2   1.734   69.5  0.0704   65.1  0.5174  177.2
 0.660  0.8531  159.4   1.685   68.7  0.0723   65.0  0.5177  176.9
 0.680  0.8531  158.7   1.636   67.9  0.0743   65.0  0.5180  176.6
 0.700  0.8532  157.9   1.587   67.0  0.0763   64.9  0.5183  176.3
 0.720  0.8535  157.3   1.549   66.4  0.0783   64.6  0.5186  176.0
 0.740  0.8538  156.8   1.512   65.8  0.0802   64.4  0.5190  175.8
 0.760  0.8543  156.2   1.475   65.2  0.0822   64.1  0.5193  175.5
 0.780  0.8548  155.7   1.438   64.5  0.0841   63.9  0.5197  175.3
 0.800  0.8554  155.1   1.401   63.8  0.0861   63.7  0.5201  175.0
 0.820  0.8542  154.4   1.372   63.2  0.0882   63.5  0.5203  174.7
 0.840  0.8532  153.6   1.342   62.5  0.0903   63.2  0.5204  174.4
 0.860  0.8523  152.9   1.313   61.8  0.0925   63.0  0.5206  174.1
 0.880  0.8516  152.1   1.285   61.1  0.0946   62.8  0.5208  173.8
 0.900  0.8510  151.4   1.256   60.4  0.0967   62.6  0.5210  173.5
 0.920  0.8510  150.7   1.233   59.8  0.0986   62.3  0.5215  173.3
 0.940  0.8510  150.0   1.211   59.1  0.1005   62.0  0.5219  173.0
 0.960  0.8513  149.2   1.188   58.4  0.1024   61.7  0.5224  172.8
 0.980  0.8516  148.5   1.166   57.7  0.1043   61.4  0.5229  172.5
 1.000  0.8521  147.8   1.144   57.0  0.1062   61.1  0.5234  172.3
 1.020  0.8524  147.2   1.125   56.4  0.1081   60.8  0.5240  172.1
 1.040  0.8527  146.7   1.107   55.7  0.1100   60.6  0.5246  171.8
 1.060  0.8531  146.1   1.089   55.0  0.1120   60.4  0.5252  171.6
 1.080  0.8536  145.6   1.071   54.3  0.1139   60.1  0.5259  171.3
 1.100  0.8542  145.0   1.053   53.6  0.1158   59.9  0.5265  171.1
 1.120  0.8552  144.3   1.037   53.0  0.1177   59.6  0.5269  170.8
 1.140  0.8563  143.6   1.022   52.4  0.1196   59.3  0.5273  170.6
 1.160  0.8575  142.8   1.006   51.8  0.1216   59.0  0.5277  170.3
 1.180  0.8589  142.1   0.991   51.2  0.1235   58.7  0.5282  170.1
 1.200  0.8604  141.4   0.976   50.5  0.1254   58.4  0.5286  169.8
 1.220  0.8598  140.7   0.963   49.9  0.1273   58.0  0.5289  169.5
 1.240  0.8593  140.1   0.951   49.3  0.1293   57.6  0.5292  169.3
 1.260  0.8589  139.4   0.938   48.7  0.1312   57.3  0.5296  169.0
 1.280  0.8586  138.8   0.926   48.1  0.1331   56.9  0.5299  168.8
 1.300  0.8584  138.1   0.914   47.5  0.1351   56.6  0.5303  168.5
 1.320  0.8589  137.5   0.902   47.0  0.1368   56.3  0.5308  168.3
 1.340  0.8594  137.0   0.891   46.5  0.1385   55.9  0.5314  168.0
 1.360  0.8600  136.4   0.879   45.9  0.1402   55.6  0.5319  167.8
 1.380  0.8607  135.9   0.867   45.4  0.1420   55.3  0.5324  167.5
 1.400  0.8615  135.3   0.856   44.8  0.1437   55.0  0.5330  167.3
 1.420  0.8607  134.7   0.848   44.2  0.1456   54.7  0.5335  167.1
 1.440  0.8600  134.1   0.841   43.6  0.1474   54.3  0.5340  166.9
 1.460  0.8594  133.6   0.833   42.9  0.1493   54.0  0.5345  166.6
 1.480  0.8588  133.0   0.826   42.3  0.1512   53.7  0.5351  166.4
 1.500  0.8584  132.4   0.819   41.6  0.1531   53.4  0.5356  166.2
 1.520  0.8592  131.8   0.809   41.1  0.1547   53.0  0.5362  165.9
 1.540  0.8602  131.2   0.799   40.6  0.1564   52.7  0.5368  165.7
 1.560  0.8612  130.7   0.789   40.1  0.1580   52.3  0.5374  165.4
 1.580  0.8623  130.1   0.779   39.6  0.1596   51.9  0.5380  165.2
 1.600  0.8635  129.5   0.769   39.1  0.1613   51.6  0.5386  164.9
 1.620  0.8630  128.9   0.762   38.5  0.1629   51.2  0.5390  164.6
 1.640  0.8627  128.2   0.755   37.9  0.1646   50.9  0.5393  164.3
 1.660  0.8625  127.6   0.748   37.3  0.1662   50.6  0.5397  164.0
 1.680  0.8623  126.9   0.741   36.6  0.1678   50.2  0.5401  163.7
 1.700  0.8623  126.3   0.734   36.0  0.1695   49.9  0.5405  163.4
 1.720  0.8634  125.7   0.728   35.6  0.1711   49.5  0.5408  163.2
 1.740  0.8646  125.1   0.723   35.2  0.1728   49.1  0.5412  163.0
 1.760  0.8659  124.5   0.717   34.8  0.1744   48.7  0.5416  162.7
 1.780  0.8672  123.9   0.712   34.3  0.1760   48.3  0.5419  162.5
 1.800  0.8687  123.3   0.706   33.9  0.1777   47.9  0.5423  162.3
 1.820  0.8688  122.8   0.700   33.4  0.1794   47.6  0.5433  162.1
 1.840  0.8689  122.2   0.694   32.8  0.1810   47.2  0.5443  161.8
 1.860  0.8691  121.7   0.688   32.3  0.1827   46.9  0.5453  161.6
 1.880  0.8694  121.1   0.683   31.8  0.1844   46.6  0.5464  161.3
 1.900  0.8698  120.6   0.677   31.2  0.1861   46.3  0.5474  161.1
 1.920  0.8693  120.1   0.672   30.8  0.1875   45.9  0.5482  160.8
 1.940  0.8689  119.6   0.666   30.3  0.1890   45.6  0.5490  160.5
 1.960  0.8685  119.0   0.661   29.8  0.1905   45.2  0.5498  160.3
 1.980  0.8682  118.5   0.655   29.4  0.1919   44.8  0.5506  160.0
 2.000  0.8680  118.0   0.650   28.9  0.1934   44.5  0.5514  159.7
 2.020  0.8678  117.5   0.645   28.5  0.1948   44.1  0.5520  159.4
 2.040  0.8677  116.9   0.641   28.1  0.1963   43.8  0.5526  159.2
 2.060  0.8677  116.4   0.636   27.6  0.1978   43.4  0.5532  158.9
 2.080  0.8678  115.8   0.632   27.2  0.1992   43.1  0.5538  158.7
 2.100  0.8679  115.3   0.627   26.7  0.2007   42.7  0.5545  158.4
 2.120  0.8682  114.8   0.623   26.3  0.2022   42.4  0.5551  158.1
 2.140  0.8685  114.2   0.618   25.8  0.2037   42.1  0.5558  157.9
 2.160  0.8688  113.7   0.614   25.4  0.2052   41.7  0.5564  157.6
 2.180  0.8693  113.1   0.609   24.9  0.2067   41.4  0.5571  157.4
 2.200  0.8698  112.6   0.605   24.4  0.2082   41.1  0.5578  157.1
 2.220  0.8701  112.0   0.602   24.0  0.2095   40.7  0.5588  156.8
 2.240  0.8705  111.5   0.599   23.5  0.2108   40.4  0.5597  156.5
 2.260  0.8711  110.9   0.595   23.1  0.2121   40.0  0.5607  156.2
 2.280  0.8716  110.3   0.592   22.7  0.2134   39.6  0.5617  155.9
 2.300  0.8723  109.7   0.589   22.2  0.2147   39.3  0.5628  155.6
 2.320  0.8731  109.2   0.586   21.8  0.2160   38.9  0.5638  155.3
 2.340  0.8739  108.6   0.583   21.3  0.2174   38.6  0.5648  155.0
 2.360  0.8749  108.0   0.580   20.8  0.2187   38.3  0.5659  154.7
 2.380  0.8759  107.5   0.577   20.4  0.2200   37.9  0.5670  154.4
 2.400  0.8770  106.9   0.574   19.9  0.2214   37.6  0.5681  154.1
 2.420  0.8767  106.4   0.570   19.5  0.2226   37.3  0.5687  153.8
 2.440  0.8765  105.9   0.566   19.1  0.2238   36.9  0.5694  153.6
 2.460  0.8763  105.5   0.563   18.8  0.2250   36.6  0.5701  153.3
 2.480  0.8762  105.0   0.559   18.4  0.2262   36.2  0.5707  153.1
 2.500  0.8761  104.5   0.555   18.0  0.2275   35.9  0.5714  152.8
 2.520  0.8761  104.0   0.551   17.6  0.2287   35.6  0.5721  152.6
 2.540  0.8762  103.5   0.548   17.2  0.2299   35.3  0.5728  152.3
 2.560  0.8763  103.1   0.544   16.7  0.2312   34.9  0.5735  152.1
 2.580  0.8765  102.6   0.541   16.3  0.2324   34.6  0.5743  151.8
 2.600  0.8768  102.1   0.537   15.9  0.2337   34.3  0.5750  151.6
 2.620  0.8770  101.6   0.535   15.6  0.2348   34.0  0.5762  151.3
 2.640  0.8773  101.1   0.532   15.2  0.2359   33.7  0.5775  151.1
 2.660  0.8776  100.7   0.530   14.9  0.2370   33.3  0.5788  150.8
 2.680  0.8780  100.2   0.527   14.6  0.2381   33.0  0.5801  150.5
 2.700  0.8785   99.7   0.525   14.2  0.2393   32.7  0.5814  150.3
 2.720  0.8790   99.2   0.522   13.9  0.2404   32.4  0.5827  150.0
 2.740  0.8796   98.7   0.520   13.6  0.2415   32.1  0.5840  149.8
 2.760  0.8802   98.3   0.518   13.2  0.2427   31.8  0.5853  149.5
 2.780  0.8809   97.8   0.515   12.9  0.2438   31.5  0.5866  149.3
 2.800  0.8817   97.3   0.513   12.5  0.2450   31.2  0.5880  149.0
 2.820  0.8814   96.9   0.510   12.1  0.2460   30.8  0.5887  148.7
 2.840  0.8812   96.4   0.508   11.8  0.2470   30.5  0.5895  148.4
 2.860  0.8810   96.0   0.505   11.4  0.2481   30.1  0.5903  148.2
 2.880  0.8808   95.5   0.503   11.1  0.2491   29.8  0.5911  147.9
 2.900  0.8808   95.1   0.500   10.7  0.2501   29.5  0.5919  147.6
 2.920  0.8807   94.6   0.498   10.3  0.2512   29.1  0.5927  147.3
 2.940  0.8808   94.2   0.495    9.9  0.2523   28.8  0.5935  147.0
 2.960  0.8809   93.7   0.493    9.6  0.2533   28.5  0.5944  146.8
 2.980  0.8810   93.2   0.490    9.2  0.2544   28.1  0.5952  146.5
 3.000  0.8812   92.8   0.488    8.8  0.2555   27.8  0.5961  146.2
 3.100  0.8810   90.9   0.478    7.6  0.2593   26.2  0.6006  144.9
 3.200  0.8819   88.9   0.469    6.4  0.2633   24.7  0.6055  143.6
 3.300  0.8837   87.0   0.459    5.1  0.2675   23.2  0.6106  142.3
 3.400  0.8865   85.1   0.450    3.8  0.2719   21.7  0.6161  141.0
 3.500  0.8903   83.2   0.441    2.4  0.2764   20.3  0.6218  139.8
 3.600  0.8884   81.5   0.435    1.4  0.2793   18.9  0.6261  138.5
 3.700  0.8874   79.8   0.428    0.3  0.2823   17.6  0.6307  137.3
 3.800  0.8871   78.1   0.422   -0.7  0.2855   16.3  0.6356  136.1
 3.900  0.8875   76.4   0.416   -1.9  0.2888   15.0  0.6408  134.9
 4.000  0.8888   74.7   0.410   -3.0  0.2923   13.8  0.6463  133.7
 4.100  0.8881   73.2   0.406   -3.9  0.2952   12.5  0.6490  132.6
 4.200  0.8880   71.7   0.401   -4.7  0.2982   11.3  0.6519  131.5
 4.300  0.8885   70.3   0.397   -5.6  0.3014   10.1  0.6551  130.4
 4.400  0.8895   68.8   0.393   -6.6  0.3048    8.9  0.6585  129.3
 4.500  0.8912   67.3   0.389   -7.5  0.3082    7.7  0.6621  128.2
 4.600  0.8903   66.1   0.387   -8.2  0.3106    6.6  0.6642  127.2
 4.700  0.8897   64.9   0.385   -9.0  0.3131    5.5  0.6665  126.3
 4.800  0.8895   63.7   0.383   -9.7  0.3158    4.4  0.6690  125.3
 4.900  0.8898   62.5   0.382  -10.4  0.3185    3.3  0.6716  124.3
 5.000  0.8904   61.3   0.380  -11.2  0.3214    2.3  0.6745  123.4
 5.100  0.8905   60.2   0.378  -11.8  0.3241    1.2  0.6775  122.4
 5.200  0.8910   59.0   0.377  -12.3  0.3268    0.1  0.6807  121.4
 5.300  0.8918   57.9   0.375  -12.9  0.3298   -1.0  0.6841  120.4
 5.400  0.8930   56.7   0.374  -13.4  0.3328   -2.1  0.6877  119.5
 5.500  0.8945   55.6   0.372  -14.0  0.3359   -3.1  0.6915  118.5
 5.600  0.8922   54.6   0.372  -14.9  0.3381   -4.3  0.6940  117.5
 5.700  0.8901   53.5   0.373  -15.7  0.3404   -5.5  0.6967  116.6
 5.800  0.8883   52.5   0.373  -16.6  0.3429   -6.6  0.6996  115.6
 5.900  0.8869   51.4   0.373  -17.4  0.3455   -7.8  0.7026  114.6
 6.000  0.8857   50.4   0.374  -18.3  0.3483   -8.9  0.7059  113.7
!
!  f       NFmin   Gammaopt  rn/50
! GHz       dB    MAG  ANG    -
!
! noise parameter not available yet for this operation point!
!
! (c) 2016  Infineon Technologies AG, Munich
