! Infineon Technologies  Discrete & RF Semiconductors
! BFP183
! VCE = 2.5 V,  IC =  50 mA
! Common Emitter S-Parameters:                            Jan 2016
# GHz  S  MA  R  50
!  f         S11            S21            S12            S22
! GHz     MAG   ANG      MAG   ANG      MAG   ANG      MAG   ANG
 0.010  0.1827  -31.8  41.231  173.1  0.0022   65.6  0.8151   -4.6
 0.015  0.1968  -45.4  40.900  169.9  0.0030   66.9  0.8072   -7.2
 0.020  0.2202  -56.6  40.701  166.6  0.0039   67.6  0.8010   -9.8
 0.025  0.2315  -66.5  39.681  163.9  0.0047   67.4  0.7847  -11.8
 0.030  0.2489  -75.3  38.756  161.0  0.0056   67.3  0.7694  -13.9
 0.035  0.2714  -82.8  37.930  158.0  0.0064   67.2  0.7551  -16.1
 0.040  0.2978  -89.0  37.212  154.9  0.0072   67.1  0.7421  -18.4
 0.045  0.3272  -94.2  36.608  151.7  0.0081   67.0  0.7301  -20.7
 0.050  0.3587  -98.5  36.123  148.4  0.0089   67.0  0.7195  -23.1
 0.055  0.3667 -102.7  35.036  146.9  0.0094   65.0  0.7020  -24.1
 0.060  0.3766 -106.6  33.976  145.2  0.0098   63.2  0.6848  -25.2
 0.065  0.3882 -110.4  32.945  143.5  0.0103   61.5  0.6677  -26.3
 0.070  0.4014 -113.9  31.946  141.7  0.0108   60.0  0.6510  -27.4
 0.075  0.4159 -117.2  30.982  139.7  0.0113   58.6  0.6345  -28.6
 0.080  0.4317 -120.2  30.056  137.6  0.0118   57.3  0.6183  -29.9
 0.085  0.4487 -123.0  29.173  135.4  0.0123   56.2  0.6025  -31.3
 0.090  0.4667 -125.7  28.335  133.1  0.0128   55.1  0.5870  -32.7
 0.095  0.4855 -128.1  27.547  130.6  0.0133   54.1  0.5719  -34.2
 0.100  0.5052 -130.3  26.814  128.0  0.0138   53.2  0.5572  -35.8
 0.105  0.5097 -132.1  26.138  127.1  0.0140   52.8  0.5460  -36.2
 0.110  0.5146 -133.8  25.470  126.1  0.0143   52.3  0.5349  -36.6
 0.115  0.5200 -135.5  24.810  125.0  0.0145   51.9  0.5237  -37.0
 0.120  0.5259 -137.2  24.158  123.9  0.0147   51.5  0.5126  -37.4
 0.125  0.5321 -138.8  23.517  122.7  0.0149   51.2  0.5016  -37.8
 0.130  0.5388 -140.4  22.885  121.5  0.0152   50.8  0.4905  -38.3
 0.135  0.5459 -141.9  22.265  120.2  0.0154   50.4  0.4795  -38.8
 0.140  0.5534 -143.4  21.657  118.8  0.0156   50.1  0.4685  -39.3
 0.145  0.5613 -144.9  21.062  117.3  0.0159   49.7  0.4576  -39.8
 0.150  0.5695 -146.3  20.482  115.8  0.0161   49.4  0.4467  -40.4
 0.155  0.5717 -147.4  20.044  115.2  0.0163   49.5  0.4399  -40.5
 0.160  0.5742 -148.5  19.609  114.5  0.0165   49.5  0.4330  -40.6
 0.165  0.5768 -149.6  19.176  113.8  0.0168   49.6  0.4262  -40.7
 0.170  0.5797 -150.6  18.746  113.1  0.0170   49.6  0.4194  -40.9
 0.175  0.5827 -151.7  18.320  112.3  0.0172   49.7  0.4126  -41.0
 0.180  0.5860 -152.7  17.897  111.5  0.0174   49.7  0.4058  -41.1
 0.185  0.5894 -153.8  17.478  110.7  0.0176   49.8  0.3989  -41.3
 0.190  0.5931 -154.8  17.062  109.8  0.0179   49.8  0.3921  -41.4
 0.195  0.5969 -155.8  16.651  108.9  0.0181   49.9  0.3853  -41.5
 0.200  0.6009 -156.8  16.244  107.9  0.0183   49.9  0.3785  -41.7
 0.220  0.6075 -159.6  15.061  106.0  0.0188   49.7  0.3608  -41.6
 0.240  0.6155 -162.3  13.898  103.7  0.0193   49.5  0.3431  -41.5
 0.260  0.6211 -164.6  12.921  101.7  0.0199   50.0  0.3285  -41.3
 0.280  0.6238 -166.7  12.119  100.2  0.0208   51.1  0.3169  -40.9
 0.300  0.6274 -168.7  11.326   98.4  0.0216   52.2  0.3053  -40.5
 0.320  0.6286 -170.2  10.776   97.4  0.0224   52.7  0.2985  -40.3
 0.340  0.6302 -171.7  10.230   96.2  0.0231   53.3  0.2918  -40.0
 0.360  0.6323 -173.2   9.688   94.9  0.0239   53.7  0.2850  -39.8
 0.380  0.6347 -174.6   9.152   93.5  0.0246   54.2  0.2782  -39.5
 0.400  0.6376 -176.1   8.622   91.9  0.0254   54.6  0.2715  -39.2
 0.420  0.6379 -177.3   8.276   91.1  0.0260   54.9  0.2676  -39.1
 0.440  0.6385 -178.5   7.932   90.2  0.0267   55.2  0.2638  -39.0
 0.450  0.6389 -179.1   7.761   89.8  0.0270   55.3  0.2618  -39.0
 0.460  0.6394 -179.7   7.591   89.3  0.0273   55.5  0.2599  -38.9
 0.480  0.6405  179.2   7.251   88.2  0.0280   55.7  0.2561  -38.8
 0.500  0.6419  178.0   6.914   87.1  0.0286   56.0  0.2522  -38.7
 0.520  0.6422  177.1   6.696   86.4  0.0296   56.5  0.2501  -38.7
 0.540  0.6427  176.1   6.480   85.6  0.0305   57.0  0.2481  -38.7
 0.560  0.6433  175.2   6.265   84.8  0.0315   57.5  0.2460  -38.6
 0.580  0.6441  174.2   6.051   83.9  0.0324   57.9  0.2440  -38.6
 0.600  0.6451  173.3   5.839   82.9  0.0334   58.3  0.2419  -38.6
 0.620  0.6455  172.4   5.666   82.2  0.0341   58.8  0.2405  -38.7
 0.640  0.6461  171.6   5.494   81.6  0.0348   59.2  0.2391  -38.8
 0.660  0.6469  170.7   5.323   80.8  0.0355   59.7  0.2378  -38.9
 0.680  0.6478  169.9   5.152   80.0  0.0362   60.1  0.2364  -39.0
 0.700  0.6488  169.0   4.983   79.2  0.0369   60.5  0.2350  -39.1
 0.720  0.6493  168.3   4.864   78.6  0.0377   60.5  0.2342  -39.3
 0.740  0.6499  167.6   4.745   77.9  0.0385   60.5  0.2334  -39.5
 0.760  0.6507  166.8   4.628   77.3  0.0394   60.4  0.2326  -39.6
 0.780  0.6515  166.1   4.510   76.6  0.0402   60.4  0.2318  -39.8
 0.800  0.6524  165.4   4.394   75.8  0.0410   60.4  0.2310  -40.0
 0.820  0.6524  164.7   4.298   75.3  0.0419   60.5  0.2303  -40.3
 0.840  0.6526  164.0   4.202   74.7  0.0428   60.5  0.2296  -40.5
 0.860  0.6528  163.3   4.106   74.1  0.0437   60.6  0.2289  -40.8
 0.880  0.6532  162.6   4.011   73.5  0.0446   60.6  0.2283  -41.0
 0.900  0.6536  161.9   3.916   72.9  0.0455   60.7  0.2276  -41.3
 0.920  0.6546  161.1   3.835   72.3  0.0463   60.8  0.2269  -41.6
 0.940  0.6557  160.3   3.754   71.7  0.0470   60.9  0.2262  -41.9
 0.960  0.6569  159.5   3.674   71.0  0.0478   61.0  0.2255  -42.2
 0.980  0.6582  158.7   3.594   70.3  0.0485   61.1  0.2248  -42.5
 1.000  0.6597  157.9   3.515   69.6  0.0493   61.2  0.2241  -42.8
 1.020  0.6606  157.3   3.452   69.0  0.0503   61.1  0.2238  -43.2
 1.040  0.6616  156.7   3.390   68.5  0.0513   61.1  0.2234  -43.5
 1.060  0.6626  156.0   3.327   67.9  0.0523   61.0  0.2231  -43.9
 1.080  0.6638  155.4   3.265   67.2  0.0533   61.0  0.2228  -44.2
 1.100  0.6650  154.8   3.204   66.6  0.0543   60.9  0.2225  -44.6
 1.120  0.6654  154.2   3.150   66.1  0.0551   60.8  0.2223  -45.0
 1.140  0.6659  153.6   3.096   65.6  0.0559   60.7  0.2222  -45.4
 1.160  0.6665  153.0   3.042   65.1  0.0566   60.6  0.2220  -45.7
 1.180  0.6672  152.4   2.989   64.6  0.0574   60.5  0.2218  -46.1
 1.200  0.6679  151.8   2.936   64.0  0.0582   60.4  0.2217  -46.5
 1.220  0.6679  151.3   2.890   63.5  0.0591   60.4  0.2215  -46.9
 1.240  0.6680  150.7   2.845   62.9  0.0600   60.4  0.2213  -47.4
 1.260  0.6682  150.2   2.800   62.3  0.0609   60.4  0.2211  -47.8
 1.280  0.6684  149.6   2.755   61.7  0.0618   60.4  0.2210  -48.3
 1.300  0.6687  149.1   2.710   61.1  0.0627   60.4  0.2208  -48.7
 1.320  0.6698  148.5   2.674   60.6  0.0636   60.3  0.2206  -49.1
 1.340  0.6709  147.9   2.637   60.1  0.0645   60.3  0.2204  -49.5
 1.360  0.6722  147.2   2.601   59.6  0.0653   60.2  0.2202  -50.0
 1.380  0.6735  146.6   2.566   59.1  0.0662   60.2  0.2200  -50.4
 1.400  0.6749  146.0   2.530   58.6  0.0671   60.1  0.2198  -50.8
 1.420  0.6748  145.5   2.495   58.0  0.0680   59.9  0.2196  -51.2
 1.440  0.6748  145.0   2.460   57.4  0.0688   59.6  0.2194  -51.6
 1.460  0.6748  144.5   2.425   56.8  0.0697   59.4  0.2192  -52.1
 1.480  0.6749  144.0   2.391   56.2  0.0705   59.2  0.2191  -52.5
 1.500  0.6750  143.5   2.357   55.5  0.0714   59.0  0.2189  -52.9
 1.520  0.6762  142.9   2.329   55.0  0.0723   59.0  0.2189  -53.4
 1.540  0.6775  142.2   2.300   54.5  0.0732   58.9  0.2190  -53.9
 1.560  0.6789  141.6   2.272   54.0  0.0740   58.9  0.2190  -54.3
 1.580  0.6804  140.9   2.245   53.5  0.0749   58.8  0.2191  -54.8
 1.600  0.6820  140.3   2.217   53.0  0.0758   58.8  0.2192  -55.3
 1.620  0.6825  139.7   2.187   52.5  0.0766   58.6  0.2189  -55.9
 1.640  0.6830  139.1   2.158   52.0  0.0774   58.4  0.2186  -56.5
 1.660  0.6836  138.4   2.129   51.4  0.0781   58.2  0.2184  -57.0
 1.680  0.6843  137.8   2.100   50.9  0.0789   58.0  0.2181  -57.6
 1.700  0.6851  137.2   2.071   50.3  0.0797   57.8  0.2179  -58.2
 1.720  0.6864  136.7   2.048   49.8  0.0806   57.7  0.2174  -58.7
 1.740  0.6878  136.3   2.025   49.3  0.0815   57.6  0.2170  -59.3
 1.760  0.6892  135.8   2.002   48.8  0.0824   57.6  0.2166  -59.8
 1.780  0.6907  135.4   1.979   48.2  0.0833   57.5  0.2162  -60.4
 1.800  0.6922  134.9   1.957   47.7  0.0842   57.4  0.2158  -60.9
 1.820  0.6923  134.4   1.936   47.3  0.0850   57.2  0.2157  -61.4
 1.840  0.6924  133.8   1.914   46.8  0.0858   56.9  0.2157  -61.8
 1.860  0.6926  133.3   1.893   46.4  0.0867   56.7  0.2156  -62.3
 1.880  0.6928  132.7   1.872   46.0  0.0875   56.4  0.2156  -62.7
 1.900  0.6931  132.2   1.851   45.5  0.0883   56.2  0.2156  -63.2
 1.920  0.6940  131.6   1.830   45.0  0.0892   56.0  0.2156  -63.8
 1.940  0.6950  131.0   1.809   44.5  0.0900   55.8  0.2155  -64.3
 1.960  0.6960  130.5   1.789   43.9  0.0909   55.6  0.2155  -64.9
 1.980  0.6971  129.9   1.768   43.4  0.0917   55.5  0.2156  -65.4
 2.000  0.6983  129.3   1.748   42.8  0.0926   55.3  0.2156  -66.0
 2.020  0.6990  128.8   1.732   42.3  0.0934   55.1  0.2152  -66.6
 2.040  0.6998  128.4   1.716   41.9  0.0942   54.9  0.2149  -67.2
 2.060  0.7007  127.9   1.701   41.4  0.0950   54.7  0.2145  -67.8
 2.080  0.7015  127.4   1.685   40.9  0.0959   54.5  0.2142  -68.4
 2.100  0.7025  126.9   1.670   40.4  0.0967   54.3  0.2140  -69.0
 2.120  0.7034  126.5   1.655   39.9  0.0975   54.1  0.2137  -69.6
 2.140  0.7045  126.0   1.640   39.4  0.0983   53.9  0.2135  -70.2
 2.160  0.7055  125.5   1.625   38.9  0.0992   53.8  0.2133  -70.8
 2.180  0.7066  125.1   1.610   38.3  0.1000   53.6  0.2131  -71.4
 2.200  0.7078  124.6   1.595   37.8  0.1008   53.4  0.2129  -72.0
 2.220  0.7086  124.1   1.581   37.4  0.1016   53.2  0.2127  -72.6
 2.240  0.7095  123.5   1.567   36.9  0.1025   53.0  0.2126  -73.2
 2.260  0.7105  123.0   1.554   36.5  0.1033   52.8  0.2125  -73.9
 2.280  0.7115  122.5   1.540   36.1  0.1041   52.6  0.2124  -74.5
 2.300  0.7125  122.0   1.527   35.6  0.1049   52.4  0.2124  -75.1
 2.320  0.7136  121.5   1.513   35.1  0.1058   52.2  0.2124  -75.7
 2.340  0.7148  120.9   1.500   34.7  0.1066   52.0  0.2124  -76.3
 2.360  0.7161  120.4   1.487   34.2  0.1074   51.9  0.2124  -77.0
 2.380  0.7173  119.9   1.474   33.7  0.1083   51.7  0.2124  -77.6
 2.400  0.7187  119.4   1.461   33.2  0.1091   51.5  0.2125  -78.2
 2.420  0.7200  119.0   1.448   32.8  0.1098   51.3  0.2122  -78.8
 2.440  0.7213  118.5   1.436   32.3  0.1106   51.1  0.2119  -79.5
 2.460  0.7227  118.1   1.423   31.9  0.1113   50.9  0.2116  -80.1
 2.480  0.7241  117.6   1.411   31.5  0.1121   50.8  0.2113  -80.7
 2.500  0.7255  117.2   1.399   31.0  0.1128   50.6  0.2111  -81.4
 2.520  0.7270  116.7   1.387   30.5  0.1136   50.4  0.2109  -82.0
 2.540  0.7285  116.3   1.375   30.1  0.1143   50.2  0.2108  -82.7
 2.560  0.7301  115.9   1.363   29.6  0.1151   50.0  0.2106  -83.3
 2.580  0.7317  115.4   1.351   29.1  0.1158   49.9  0.2105  -84.0
 2.600  0.7334  115.0   1.339   28.6  0.1166   49.7  0.2104  -84.6
 2.620  0.7343  114.5   1.329   28.2  0.1173   49.5  0.2104  -85.3
 2.640  0.7352  114.1   1.318   27.7  0.1180   49.2  0.2104  -86.0
 2.660  0.7361  113.6   1.308   27.3  0.1187   49.0  0.2105  -86.7
 2.680  0.7371  113.2   1.298   26.8  0.1194   48.7  0.2106  -87.4
 2.700  0.7382  112.7   1.287   26.3  0.1201   48.5  0.2107  -88.1
 2.720  0.7393  112.3   1.277   25.9  0.1208   48.3  0.2109  -88.8
 2.740  0.7404  111.8   1.267   25.4  0.1215   48.1  0.2111  -89.4
 2.760  0.7416  111.4   1.257   24.9  0.1223   47.8  0.2113  -90.1
 2.780  0.7428  110.9   1.248   24.4  0.1230   47.6  0.2115  -90.8
 2.800  0.7441  110.5   1.238   23.9  0.1237   47.4  0.2118  -91.5
 2.820  0.7448  110.1   1.229   23.5  0.1245   47.2  0.2116  -92.2
 2.840  0.7455  109.7   1.220   23.1  0.1252   47.0  0.2115  -92.9
 2.860  0.7462  109.3   1.211   22.7  0.1260   46.8  0.2114  -93.6
 2.880  0.7470  108.9   1.202   22.3  0.1267   46.7  0.2114  -94.3
 2.900  0.7478  108.5   1.193   21.9  0.1275   46.5  0.2113  -94.9
 2.920  0.7486  108.1   1.184   21.5  0.1282   46.3  0.2113  -95.6
 2.940  0.7495  107.7   1.175   21.0  0.1290   46.1  0.2113  -96.3
 2.960  0.7504  107.3   1.166   20.6  0.1298   45.9  0.2114  -97.0
 2.980  0.7514  106.9   1.158   20.1  0.1305   45.8  0.2115  -97.7
 3.000  0.7524  106.5   1.149   19.7  0.1313   45.6  0.2116  -98.4
 3.100  0.7562  104.5   1.110   18.0  0.1347   44.5  0.2121 -102.0
 3.200  0.7609  102.6   1.072   16.1  0.1382   43.5  0.2134 -105.6
 3.300  0.7664  100.7   1.035   14.1  0.1417   42.5  0.2155 -109.2
 3.400  0.7728   98.8   0.999   11.9  0.1452   41.6  0.2185 -112.6
 3.500  0.7800   97.0   0.965    9.6  0.1488   40.7  0.2222 -116.0
 3.600  0.7838   95.4   0.937    8.0  0.1521   39.6  0.2244 -119.6
 3.700  0.7882   93.7   0.909    6.3  0.1554   38.5  0.2274 -123.2
 3.800  0.7932   92.1   0.882    4.5  0.1588   37.5  0.2313 -126.7
 3.900  0.7989   90.6   0.856    2.6  0.1622   36.5  0.2360 -130.0
 4.000  0.8051   89.0   0.831    0.6  0.1657   35.6  0.2415 -133.2
 4.100  0.8069   87.6   0.807   -0.8  0.1684   34.5  0.2452 -136.6
 4.200  0.8092   86.2   0.783   -2.4  0.1711   33.5  0.2497 -140.0
 4.300  0.8120   84.8   0.760   -4.0  0.1739   32.5  0.2550 -143.1
 4.400  0.8153   83.4   0.737   -5.7  0.1768   31.5  0.2610 -146.2
 4.500  0.8191   82.0   0.715   -7.5  0.1797   30.6  0.2678 -149.1
 4.600  0.8209   80.8   0.696   -8.6  0.1826   29.8  0.2724 -151.9
 4.700  0.8231   79.7   0.678   -9.7  0.1856   29.0  0.2776 -154.5
 4.800  0.8256   78.5   0.659  -11.0  0.1885   28.3  0.2834 -157.1
 4.900  0.8284   77.3   0.642  -12.2  0.1916   27.6  0.2897 -159.6
 5.000  0.8316   76.2   0.624  -13.6  0.1946   26.9  0.2965 -161.9
 5.100  0.8332   75.1   0.611  -14.8  0.1981   25.8  0.3038 -164.2
 5.200  0.8352   74.1   0.599  -16.0  0.2017   24.7  0.3115 -166.5
 5.300  0.8374   73.1   0.587  -17.3  0.2053   23.6  0.3198 -168.6
 5.400  0.8399   72.0   0.575  -18.6  0.2090   22.6  0.3284 -170.6
 5.500  0.8426   71.0   0.563  -20.0  0.2128   21.6  0.3374 -172.5
 5.600  0.8457   70.1   0.551  -21.0  0.2153   20.5  0.3445 -174.6
 5.700  0.8489   69.1   0.540  -22.1  0.2178   19.5  0.3520 -176.7
 5.800  0.8524   68.2   0.528  -23.2  0.2205   18.5  0.3599 -178.6
 5.900  0.8562   67.3   0.517  -24.3  0.2231   17.5  0.3683  179.5
 6.000  0.8601   66.4   0.506  -25.5  0.2259   16.5  0.3770  177.7
!
!  f       NFmin   Gammaopt  rn/50
! GHz       dB    MAG  ANG    -
!
! noise parameter not available yet for this operation point!
!
! (c) 2016  Infineon Technologies AG, Munich
