! Infineon Technologies  Discrete & RF Semiconductors
! BFP183
! VCE = 8.0 V,  IC =  20 mA
! Common Emitter S-Parameters:                            Jan 2016
# GHz  S  MA  R  50
!  f         S11            S21            S12            S22
! GHz     MAG   ANG      MAG   ANG      MAG   ANG      MAG   ANG
 0.010  0.6429   -5.4  36.131  176.0  0.0018   86.6  0.9660   -2.4
 0.015  0.6431   -8.6  35.953  174.5  0.0027   86.3  0.9614   -3.7
 0.020  0.6452  -11.7  35.800  173.0  0.0036   86.2  0.9572   -5.0
 0.025  0.6385  -14.5  35.558  171.4  0.0045   83.7  0.9522   -6.2
 0.030  0.6333  -17.4  35.346  169.7  0.0053   82.0  0.9477   -7.5
 0.035  0.6298  -20.3  35.164  168.0  0.0062   80.7  0.9436   -8.7
 0.040  0.6279  -23.2  35.013  166.3  0.0071   79.8  0.9399  -10.0
 0.045  0.6277  -26.2  34.892  164.6  0.0079   79.1  0.9367  -11.2
 0.050  0.6291  -29.1  34.803  162.9  0.0088   78.5  0.9340  -12.5
 0.055  0.6211  -31.5  34.358  161.6  0.0095   76.7  0.9245  -13.5
 0.060  0.6143  -34.0  33.932  160.2  0.0101   75.2  0.9153  -14.5
 0.065  0.6086  -36.6  33.526  158.9  0.0108   73.9  0.9063  -15.5
 0.070  0.6042  -39.2  33.139  157.4  0.0115   72.7  0.8977  -16.5
 0.075  0.6010  -41.8  32.773  156.0  0.0122   71.6  0.8894  -17.6
 0.080  0.5991  -44.4  32.428  154.5  0.0129   70.7  0.8813  -18.7
 0.085  0.5985  -47.1  32.106  153.0  0.0136   69.9  0.8736  -19.8
 0.090  0.5991  -49.7  31.806  151.5  0.0143   69.1  0.8662  -20.9
 0.095  0.6011  -52.4  31.529  149.9  0.0150   68.4  0.8592  -22.0
 0.100  0.6043  -55.0  31.277  148.3  0.0157   67.8  0.8525  -23.2
 0.105  0.5979  -57.1  30.841  147.2  0.0162   66.7  0.8423  -23.9
 0.110  0.5923  -59.2  30.415  146.1  0.0168   65.7  0.8322  -24.7
 0.115  0.5874  -61.3  30.001  145.0  0.0173   64.7  0.8222  -25.4
 0.120  0.5835  -63.5  29.599  143.9  0.0179   63.8  0.8124  -26.2
 0.125  0.5803  -65.7  29.209  142.7  0.0184   63.0  0.8028  -27.0
 0.130  0.5781  -67.9  28.832  141.5  0.0190   62.2  0.7933  -27.8
 0.135  0.5767  -70.2  28.468  140.2  0.0195   61.4  0.7840  -28.6
 0.140  0.5762  -72.4  28.118  139.0  0.0201   60.7  0.7748  -29.4
 0.145  0.5766  -74.7  27.783  137.6  0.0206   60.0  0.7658  -30.3
 0.150  0.5779  -76.9  27.462  136.3  0.0212   59.4  0.7570  -31.2
 0.155  0.5730  -78.6  27.085  135.5  0.0216   58.8  0.7480  -31.7
 0.160  0.5685  -80.3  26.713  134.6  0.0220   58.2  0.7392  -32.2
 0.165  0.5646  -82.1  26.348  133.7  0.0224   57.7  0.7303  -32.7
 0.170  0.5612  -83.9  25.989  132.8  0.0228   57.1  0.7215  -33.2
 0.175  0.5584  -85.6  25.636  131.9  0.0232   56.6  0.7128  -33.7
 0.180  0.5561  -87.5  25.291  131.0  0.0236   56.1  0.7042  -34.3
 0.185  0.5544  -89.3  24.952  130.0  0.0240   55.7  0.6956  -34.8
 0.190  0.5533  -91.1  24.621  129.0  0.0244   55.2  0.6870  -35.4
 0.195  0.5527  -93.0  24.298  128.0  0.0248   54.7  0.6786  -36.0
 0.200  0.5527  -94.8  23.983  126.9  0.0252   54.3  0.6702  -36.6
 0.220  0.5430 -100.2  22.675  124.2  0.0261   53.0  0.6406  -37.9
 0.240  0.5383 -105.8  21.424  121.2  0.0270   51.7  0.6114  -39.4
 0.260  0.5341 -110.8  20.319  118.5  0.0280   50.8  0.5851  -40.6
 0.280  0.5290 -115.3  19.329  116.4  0.0290   50.1  0.5613  -41.4
 0.300  0.5272 -119.8  18.368  114.1  0.0300   49.5  0.5377  -42.3
 0.320  0.5201 -123.2  17.588  112.6  0.0307   49.1  0.5213  -42.7
 0.340  0.5149 -126.7  16.823  110.9  0.0314   48.8  0.5049  -43.1
 0.360  0.5116 -130.2  16.073  109.0  0.0321   48.4  0.4885  -43.5
 0.380  0.5103 -133.8  15.342  107.0  0.0328   48.1  0.4721  -44.0
 0.400  0.5110 -137.4  14.631  104.8  0.0335   47.8  0.4558  -44.5
 0.420  0.5076 -139.9  14.086  103.7  0.0341   47.8  0.4449  -44.7
 0.440  0.5053 -142.4  13.547  102.5  0.0348   47.8  0.4339  -44.8
 0.450  0.5044 -143.7  13.280  101.9  0.0351   47.7  0.4285  -44.9
 0.460  0.5039 -145.0  13.014  101.2  0.0354   47.7  0.4230  -45.0
 0.480  0.5035 -147.5  12.489   99.8  0.0361   47.7  0.4121  -45.2
 0.500  0.5041 -150.1  11.971   98.3  0.0367   47.7  0.4012  -45.4
 0.520  0.5023 -152.0  11.619   97.4  0.0374   47.7  0.3940  -45.4
 0.540  0.5010 -153.9  11.271   96.4  0.0381   47.8  0.3867  -45.4
 0.560  0.5003 -155.8  10.926   95.4  0.0387   47.8  0.3795  -45.5
 0.580  0.5002 -157.8  10.584   94.3  0.0394   47.9  0.3722  -45.5
 0.600  0.5006 -159.7  10.247   93.1  0.0401   47.9  0.3650  -45.5
 0.620  0.5002 -161.2   9.953   92.3  0.0408   48.1  0.3600  -45.5
 0.640  0.5001 -162.7   9.662   91.5  0.0414   48.3  0.3550  -45.5
 0.660  0.5004 -164.3   9.372   90.6  0.0421   48.5  0.3499  -45.6
 0.680  0.5011 -165.8   9.085   89.7  0.0427   48.6  0.3449  -45.6
 0.700  0.5021 -167.3   8.800   88.7  0.0434   48.8  0.3399  -45.6
 0.720  0.5011 -168.7   8.599   88.0  0.0441   49.0  0.3365  -45.6
 0.740  0.5004 -170.1   8.400   87.3  0.0447   49.1  0.3330  -45.6
 0.760  0.5001 -171.5   8.203   86.5  0.0454   49.3  0.3296  -45.7
 0.780  0.5000 -172.9   8.006   85.7  0.0460   49.4  0.3261  -45.7
 0.800  0.5002 -174.3   7.812   84.8  0.0467   49.6  0.3227  -45.7
 0.820  0.5002 -175.4   7.645   84.2  0.0474   49.7  0.3201  -45.7
 0.840  0.5003 -176.5   7.479   83.6  0.0482   49.8  0.3175  -45.8
 0.860  0.5007 -177.7   7.315   82.9  0.0489   49.9  0.3148  -45.8
 0.880  0.5013 -178.8   7.151   82.2  0.0497   50.0  0.3122  -45.9
 0.900  0.5020 -179.9   6.988   81.5  0.0504   50.1  0.3096  -45.9
 0.920  0.5024  178.9   6.845   80.9  0.0511   50.2  0.3074  -46.0
 0.940  0.5031  177.8   6.703   80.2  0.0517   50.3  0.3051  -46.1
 0.960  0.5039  176.6   6.563   79.5  0.0524   50.5  0.3029  -46.1
 0.980  0.5049  175.5   6.423   78.8  0.0530   50.6  0.3006  -46.2
 1.000  0.5062  174.3   6.284   78.0  0.0537   50.7  0.2984  -46.3
 1.020  0.5069  173.3   6.175   77.4  0.0545   50.7  0.2968  -46.4
 1.040  0.5078  172.4   6.067   76.8  0.0553   50.7  0.2951  -46.5
 1.060  0.5088  171.4   5.959   76.1  0.0560   50.7  0.2935  -46.7
 1.080  0.5099  170.5   5.852   75.5  0.0568   50.7  0.2918  -46.8
 1.100  0.5112  169.5   5.746   74.8  0.0576   50.7  0.2902  -46.9
 1.120  0.5107  168.6   5.648   74.3  0.0583   50.7  0.2890  -47.1
 1.140  0.5103  167.7   5.551   73.8  0.0590   50.8  0.2878  -47.2
 1.160  0.5100  166.8   5.454   73.2  0.0597   50.8  0.2867  -47.4
 1.180  0.5098  165.9   5.358   72.7  0.0604   50.9  0.2855  -47.5
 1.200  0.5098  165.0   5.262   72.1  0.0611   50.9  0.2843  -47.7
 1.220  0.5106  164.2   5.180   71.6  0.0619   50.9  0.2831  -47.9
 1.240  0.5115  163.4   5.099   71.0  0.0627   51.0  0.2820  -48.1
 1.260  0.5125  162.5   5.018   70.5  0.0635   51.0  0.2808  -48.3
 1.280  0.5137  161.7   4.938   69.9  0.0643   51.1  0.2797  -48.5
 1.300  0.5149  160.9   4.858   69.3  0.0651   51.1  0.2785  -48.7
 1.320  0.5162  160.1   4.791   68.8  0.0658   51.0  0.2777  -48.9
 1.340  0.5176  159.2   4.725   68.3  0.0665   51.0  0.2768  -49.1
 1.360  0.5191  158.4   4.659   67.8  0.0671   50.9  0.2760  -49.4
 1.380  0.5207  157.6   4.593   67.3  0.0678   50.9  0.2751  -49.6
 1.400  0.5224  156.8   4.528   66.8  0.0685   50.8  0.2743  -49.8
 1.420  0.5229  156.2   4.467   66.2  0.0693   50.7  0.2734  -50.0
 1.440  0.5234  155.6   4.406   65.6  0.0702   50.7  0.2725  -50.2
 1.460  0.5240  155.1   4.346   65.0  0.0710   50.6  0.2716  -50.4
 1.480  0.5247  154.5   4.286   64.4  0.0719   50.6  0.2707  -50.6
 1.500  0.5254  153.9   4.227   63.8  0.0727   50.5  0.2698  -50.8
 1.520  0.5258  153.1   4.175   63.3  0.0734   50.4  0.2692  -51.1
 1.540  0.5263  152.3   4.122   62.8  0.0741   50.4  0.2687  -51.3
 1.560  0.5269  151.4   4.071   62.3  0.0747   50.3  0.2682  -51.6
 1.580  0.5276  150.6   4.019   61.8  0.0754   50.3  0.2676  -51.8
 1.600  0.5284  149.8   3.968   61.3  0.0761   50.2  0.2671  -52.1
 1.620  0.5295  149.1   3.918   60.8  0.0769   50.1  0.2664  -52.5
 1.640  0.5308  148.3   3.868   60.3  0.0777   50.0  0.2657  -52.8
 1.660  0.5321  147.6   3.818   59.8  0.0784   50.0  0.2650  -53.2
 1.680  0.5335  146.8   3.769   59.2  0.0792   49.9  0.2644  -53.5
 1.700  0.5350  146.1   3.720   58.7  0.0800   49.8  0.2637  -53.9
 1.720  0.5361  145.5   3.679   58.2  0.0807   49.7  0.2627  -54.2
 1.740  0.5372  144.8   3.639   57.7  0.0815   49.6  0.2617  -54.5
 1.760  0.5385  144.2   3.599   57.2  0.0822   49.5  0.2607  -54.9
 1.780  0.5397  143.5   3.559   56.7  0.0830   49.4  0.2598  -55.2
 1.800  0.5411  142.9   3.519   56.2  0.0837   49.3  0.2588  -55.5
 1.820  0.5422  142.3   3.481   55.8  0.0844   49.1  0.2582  -55.8
 1.840  0.5434  141.7   3.443   55.3  0.0851   49.0  0.2576  -56.1
 1.860  0.5446  141.2   3.406   54.9  0.0858   48.8  0.2570  -56.3
 1.880  0.5459  140.6   3.368   54.4  0.0865   48.7  0.2565  -56.6
 1.900  0.5472  140.0   3.331   53.9  0.0872   48.5  0.2559  -56.9
 1.920  0.5481  139.4   3.294   53.4  0.0879   48.4  0.2554  -57.3
 1.940  0.5490  138.7   3.257   52.9  0.0887   48.3  0.2549  -57.7
 1.960  0.5501  138.1   3.220   52.4  0.0894   48.2  0.2545  -58.0
 1.980  0.5511  137.4   3.183   51.9  0.0902   48.1  0.2540  -58.4
 2.000  0.5523  136.8   3.147   51.4  0.0909   48.0  0.2536  -58.8
 2.020  0.5534  136.2   3.118   51.0  0.0916   47.9  0.2528  -59.2
 2.040  0.5545  135.7   3.089   50.5  0.0923   47.7  0.2521  -59.6
 2.060  0.5556  135.1   3.060   50.1  0.0931   47.6  0.2513  -60.0
 2.080  0.5568  134.6   3.031   49.6  0.0938   47.4  0.2506  -60.4
 2.100  0.5581  134.0   3.002   49.2  0.0945   47.3  0.2499  -60.8
 2.120  0.5594  133.5   2.974   48.7  0.0952   47.1  0.2492  -61.2
 2.140  0.5608  132.9   2.946   48.2  0.0959   47.0  0.2485  -61.6
 2.160  0.5622  132.4   2.918   47.7  0.0967   46.9  0.2478  -62.0
 2.180  0.5637  131.8   2.890   47.2  0.0974   46.7  0.2472  -62.4
 2.200  0.5652  131.3   2.863   46.7  0.0981   46.6  0.2465  -62.8
 2.220  0.5664  130.7   2.838   46.3  0.0988   46.4  0.2459  -63.2
 2.240  0.5677  130.1   2.813   45.9  0.0995   46.3  0.2452  -63.6
 2.260  0.5690  129.5   2.788   45.4  0.1003   46.1  0.2446  -64.1
 2.280  0.5704  128.9   2.764   45.0  0.1010   46.0  0.2440  -64.5
 2.300  0.5719  128.3   2.739   44.5  0.1017   45.8  0.2434  -64.9
 2.320  0.5734  127.7   2.715   44.1  0.1024   45.7  0.2429  -65.4
 2.340  0.5750  127.1   2.691   43.6  0.1031   45.5  0.2423  -65.8
 2.360  0.5766  126.5   2.667   43.2  0.1039   45.4  0.2417  -66.2
 2.380  0.5783  125.9   2.644   42.7  0.1046   45.2  0.2412  -66.7
 2.400  0.5801  125.3   2.620   42.2  0.1053   45.1  0.2407  -67.1
 2.420  0.5817  124.8   2.598   41.8  0.1060   44.9  0.2399  -67.5
 2.440  0.5833  124.3   2.576   41.4  0.1066   44.8  0.2392  -68.0
 2.460  0.5850  123.8   2.554   41.0  0.1073   44.6  0.2384  -68.4
 2.480  0.5868  123.3   2.532   40.5  0.1079   44.4  0.2377  -68.9
 2.500  0.5885  122.9   2.511   40.1  0.1086   44.3  0.2370  -69.3
 2.520  0.5903  122.4   2.489   39.7  0.1092   44.1  0.2363  -69.8
 2.540  0.5922  121.9   2.468   39.2  0.1099   44.0  0.2356  -70.2
 2.560  0.5941  121.4   2.447   38.7  0.1106   43.8  0.2350  -70.7
 2.580  0.5960  121.0   2.426   38.3  0.1112   43.7  0.2343  -71.1
 2.600  0.5980  120.5   2.405   37.8  0.1119   43.5  0.2337  -71.6
 2.620  0.5992  120.0   2.386   37.4  0.1125   43.3  0.2331  -72.1
 2.640  0.6005  119.5   2.368   36.9  0.1132   43.1  0.2326  -72.6
 2.660  0.6019  119.1   2.349   36.5  0.1138   42.9  0.2321  -73.1
 2.680  0.6032  118.6   2.331   36.0  0.1144   42.8  0.2316  -73.6
 2.700  0.6046  118.1   2.313   35.5  0.1151   42.6  0.2311  -74.1
 2.720  0.6061  117.7   2.295   35.1  0.1157   42.4  0.2306  -74.6
 2.740  0.6076  117.2   2.277   34.6  0.1164   42.2  0.2301  -75.1
 2.760  0.6091  116.7   2.260   34.1  0.1170   42.0  0.2297  -75.7
 2.780  0.6107  116.3   2.242   33.6  0.1177   41.9  0.2293  -76.2
 2.800  0.6123  115.8   2.225   33.1  0.1183   41.7  0.2289  -76.7
 2.820  0.6137  115.3   2.209   32.7  0.1189   41.5  0.2282  -77.2
 2.840  0.6152  114.9   2.193   32.3  0.1196   41.4  0.2275  -77.7
 2.860  0.6167  114.4   2.177   32.0  0.1202   41.2  0.2269  -78.2
 2.880  0.6182  114.0   2.161   31.6  0.1209   41.1  0.2262  -78.7
 2.900  0.6198  113.5   2.145   31.2  0.1215   40.9  0.2256  -79.3
 2.920  0.6214  113.1   2.129   30.8  0.1222   40.8  0.2250  -79.8
 2.940  0.6231  112.6   2.113   30.4  0.1228   40.6  0.2244  -80.3
 2.960  0.6248  112.2   2.098   29.9  0.1235   40.5  0.2239  -80.8
 2.980  0.6265  111.7   2.082   29.5  0.1241   40.3  0.2233  -81.4
 3.000  0.6283  111.3   2.067   29.1  0.1248   40.2  0.2228  -81.9
 3.100  0.6342  109.2   1.997   27.3  0.1277   39.2  0.2202  -84.7
 3.200  0.6410  107.2   1.930   25.5  0.1307   38.3  0.2182  -87.5
 3.300  0.6485  105.2   1.864   23.5  0.1336   37.4  0.2167  -90.4
 3.400  0.6568  103.2   1.801   21.3  0.1367   36.6  0.2158  -93.3
 3.500  0.6659  101.3   1.741   19.0  0.1397   35.8  0.2154  -96.2
 3.600  0.6722   99.6   1.689   17.3  0.1425   34.8  0.2140  -99.4
 3.700  0.6790   97.9   1.639   15.6  0.1454   33.9  0.2132 -102.6
 3.800  0.6865   96.2   1.590   13.7  0.1483   33.1  0.2131 -105.8
 3.900  0.6945   94.6   1.543   11.7  0.1512   32.2  0.2137 -109.0
 4.000  0.7031   93.0   1.498    9.6  0.1542   31.4  0.2150 -112.2
 4.100  0.7070   91.5   1.455    8.0  0.1565   30.5  0.2150 -115.5
 4.200  0.7114   89.9   1.414    6.3  0.1588   29.6  0.2156 -118.8
 4.300  0.7163   88.4   1.373    4.6  0.1612   28.7  0.2170 -122.0
 4.400  0.7217   87.0   1.334    2.7  0.1636   27.8  0.2191 -125.2
 4.500  0.7275   85.5   1.297    0.7  0.1661   27.0  0.2218 -128.3
 4.600  0.7313   84.3   1.264   -0.6  0.1683   26.4  0.2234 -131.0
 4.700  0.7354   83.1   1.233   -2.0  0.1705   25.8  0.2256 -133.7
 4.800  0.7398   82.0   1.202   -3.5  0.1728   25.2  0.2282 -136.3
 4.900  0.7445   80.8   1.171   -5.1  0.1750   24.7  0.2313 -138.9
 5.000  0.7495   79.7   1.142   -6.7  0.1773   24.1  0.2348 -141.4
 5.100  0.7530   78.7   1.117   -8.1  0.1805   23.1  0.2402 -144.0
 5.200  0.7568   77.7   1.093   -9.6  0.1837   22.2  0.2460 -146.6
 5.300  0.7607   76.7   1.069  -11.1  0.1869   21.2  0.2523 -149.0
 5.400  0.7649   75.8   1.047  -12.7  0.1902   20.4  0.2591 -151.2
 5.500  0.7693   74.8   1.025  -14.4  0.1936   19.5  0.2662 -153.4
 5.600  0.7737   73.8   1.004  -15.7  0.1958   18.6  0.2716 -155.8
 5.700  0.7783   72.8   0.983  -17.1  0.1981   17.7  0.2774 -158.1
 5.800  0.7832   71.9   0.963  -18.5  0.2004   16.8  0.2836 -160.3
 5.900  0.7882   70.9   0.944  -20.0  0.2028   15.9  0.2903 -162.4
 6.000  0.7935   70.0   0.925  -21.6  0.2052   15.1  0.2973 -164.4
!
!  f       NFmin   Gammaopt  rn/50
! GHz       dB    MAG  ANG    -
!
! noise parameter not available yet for this operation point!
!
! (c) 2016  Infineon Technologies AG, Munich
