! Infineon Technologies  Discrete & RF Semiconductors
! BFP193W
! VCE = 2.5 V,  IC =  4.0 mA
! Common Emitter S-Parameters:                            Jan 2016
# GHz  S  MA  R  50
!  f         S11            S21            S12            S22
! GHz     MAG   ANG      MAG   ANG      MAG   ANG      MAG   ANG
 0.010  0.8525   -4.5  12.825  176.6  0.0039   87.7  0.9977   -1.4
 0.015  0.8520   -6.9  12.848  175.7  0.0062   85.6  0.9946   -2.9
 0.020  0.8530   -9.2  12.874  174.8  0.0085   84.6  0.9921   -4.4
 0.025  0.8504  -11.5  12.859  173.5  0.0106   84.6  0.9886   -5.4
 0.030  0.8491  -13.8  12.850  172.2  0.0126   84.6  0.9854   -6.4
 0.035  0.8457  -16.0  12.796  170.9  0.0145   82.6  0.9815   -7.4
 0.040  0.8436  -18.3  12.749  169.6  0.0165   81.0  0.9779   -8.5
 0.045  0.8429  -20.5  12.709  168.3  0.0184   79.8  0.9747   -9.5
 0.050  0.8434  -22.8  12.675  167.0  0.0204   78.8  0.9718  -10.6
 0.055  0.8373  -24.9  12.579  165.9  0.0221   76.8  0.9658  -11.5
 0.060  0.8322  -26.9  12.487  164.7  0.0238   75.1  0.9600  -12.4
 0.065  0.8283  -29.0  12.401  163.6  0.0256   73.7  0.9544  -13.3
 0.070  0.8255  -31.2  12.320  162.4  0.0273   72.4  0.9491  -14.2
 0.075  0.8238  -33.3  12.245  161.2  0.0291   71.3  0.9440  -15.2
 0.080  0.8232  -35.4  12.174  160.0  0.0309   70.3  0.9392  -16.1
 0.085  0.8239  -37.6  12.110  158.7  0.0327   69.4  0.9347  -17.1
 0.090  0.8256  -39.7  12.050  157.5  0.0345   68.7  0.9304  -18.0
 0.095  0.8285  -41.8  11.997  156.3  0.0363   67.9  0.9264  -19.0
 0.100  0.8325  -43.9  11.949  155.0  0.0381   67.3  0.9226  -20.0
 0.105  0.8264  -45.7  11.840  154.0  0.0395   66.1  0.9149  -20.8
 0.110  0.8212  -47.6  11.735  152.9  0.0409   64.9  0.9074  -21.6
 0.115  0.8169  -49.5  11.634  151.9  0.0423   63.9  0.9001  -22.4
 0.120  0.8134  -51.4  11.537  150.8  0.0437   62.9  0.8929  -23.2
 0.125  0.8109  -53.3  11.444  149.7  0.0452   62.0  0.8859  -24.0
 0.130  0.8093  -55.3  11.355  148.6  0.0466   61.1  0.8791  -24.9
 0.135  0.8086  -57.2  11.270  147.5  0.0481   60.3  0.8725  -25.7
 0.140  0.8089  -59.1  11.190  146.3  0.0495   59.5  0.8662  -26.6
 0.145  0.8100  -61.1  11.115  145.2  0.0510   58.8  0.8600  -27.5
 0.150  0.8121  -63.0  11.044  144.0  0.0525   58.1  0.8540  -28.4
 0.155  0.8076  -64.6  10.926  143.2  0.0535   57.2  0.8463  -29.0
 0.160  0.8037  -66.2  10.810  142.3  0.0545   56.3  0.8387  -29.6
 0.165  0.8004  -67.8  10.697  141.5  0.0556   55.5  0.8312  -30.2
 0.170  0.7978  -69.4  10.586  140.6  0.0566   54.7  0.8238  -30.8
 0.175  0.7958  -71.0  10.477  139.7  0.0577   53.9  0.8165  -31.4
 0.180  0.7945  -72.6  10.372  138.8  0.0587   53.1  0.8093  -32.0
 0.185  0.7938  -74.3  10.269  137.8  0.0598   52.4  0.8022  -32.7
 0.190  0.7937  -75.9  10.169  136.9  0.0609   51.7  0.7952  -33.3
 0.195  0.7943  -77.6  10.071  135.9  0.0620   51.1  0.7883  -34.0
 0.200  0.7956  -79.2   9.977  134.9  0.0631   50.4  0.7815  -34.7
 0.220  0.7863  -84.5   9.580  132.1  0.0662   47.7  0.7549  -36.7
 0.240  0.7837  -89.8   9.207  129.1  0.0695   45.2  0.7294  -38.9
 0.260  0.7802  -94.7   8.839  126.3  0.0723   43.1  0.7046  -40.7
 0.280  0.7743  -99.3   8.467  123.8  0.0747   41.1  0.6800  -42.1
 0.300  0.7734 -103.9   8.114  121.0  0.0771   39.3  0.6559  -43.7
 0.320  0.7652 -107.2   7.815  119.3  0.0784   37.7  0.6372  -44.7
 0.340  0.7597 -110.7   7.524  117.4  0.0798   36.1  0.6188  -45.7
 0.360  0.7569 -114.1   7.241  115.4  0.0812   34.6  0.6005  -46.9
 0.380  0.7568 -117.6   6.967  113.2  0.0827   33.1  0.5825  -48.0
 0.400  0.7595 -121.0   6.705  110.9  0.0842   31.7  0.5648  -49.3
 0.420  0.7543 -123.5   6.484  109.5  0.0850   30.7  0.5523  -50.0
 0.440  0.7506 -126.0   6.266  108.1  0.0857   29.7  0.5399  -50.7
 0.450  0.7493 -127.3   6.159  107.3  0.0861   29.2  0.5337  -51.0
 0.460  0.7484 -128.6   6.053  106.5  0.0865   28.8  0.5275  -51.4
 0.480  0.7476 -131.1   5.844  104.9  0.0874   27.8  0.5153  -52.2
 0.500  0.7484 -133.7   5.641  103.1  0.0882   26.9  0.5031  -53.0
 0.520  0.7459 -135.6   5.476  102.0  0.0886   26.2  0.4940  -53.5
 0.540  0.7443 -137.5   5.313  100.8  0.0890   25.5  0.4848  -54.1
 0.560  0.7435 -139.4   5.152   99.6  0.0894   24.8  0.4758  -54.6
 0.580  0.7435 -141.3   4.993   98.3  0.0898   24.1  0.4668  -55.2
 0.600  0.7443 -143.2   4.838   96.9  0.0902   23.4  0.4578  -55.8
 0.620  0.7433 -144.7   4.718   96.0  0.0905   23.0  0.4515  -56.2
 0.640  0.7428 -146.2   4.599   95.0  0.0907   22.6  0.4451  -56.5
 0.660  0.7429 -147.8   4.482   94.0  0.0910   22.1  0.4388  -56.9
 0.680  0.7435 -149.3   4.366   92.9  0.0912   21.7  0.4326  -57.3
 0.700  0.7446 -150.8   4.252   91.8  0.0915   21.3  0.4263  -57.7
 0.720  0.7431 -152.0   4.150   91.0  0.0916   20.9  0.4220  -58.1
 0.740  0.7419 -153.3   4.049   90.1  0.0918   20.5  0.4177  -58.6
 0.760  0.7411 -154.5   3.948   89.2  0.0919   20.2  0.4134  -59.0
 0.780  0.7406 -155.8   3.849   88.3  0.0921   19.8  0.4091  -59.4
 0.800  0.7405 -157.0   3.751   87.3  0.0922   19.4  0.4049  -59.9
 0.820  0.7397 -158.0   3.673   86.5  0.0923   19.2  0.4017  -60.3
 0.840  0.7390 -159.0   3.595   85.8  0.0923   19.0  0.3986  -60.6
 0.860  0.7387 -160.1   3.518   84.9  0.0924   18.7  0.3954  -61.0
 0.880  0.7385 -161.1   3.442   84.1  0.0924   18.5  0.3923  -61.4
 0.900  0.7386 -162.1   3.367   83.2  0.0925   18.3  0.3892  -61.8
 0.920  0.7380 -163.0   3.301   82.5  0.0925   18.1  0.3870  -62.2
 0.940  0.7377 -163.8   3.235   81.8  0.0925   17.9  0.3849  -62.6
 0.960  0.7374 -164.7   3.170   81.1  0.0925   17.8  0.3827  -63.0
 0.980  0.7374 -165.5   3.105   80.4  0.0925   17.6  0.3806  -63.5
 1.000  0.7375 -166.4   3.041   79.6  0.0925   17.4  0.3785  -63.9
 1.020  0.7381 -167.2   2.991   78.9  0.0925   17.3  0.3768  -64.2
 1.040  0.7388 -168.0   2.941   78.3  0.0925   17.2  0.3751  -64.6
 1.060  0.7397 -168.8   2.892   77.6  0.0924   17.1  0.3735  -64.9
 1.080  0.7407 -169.6   2.843   76.8  0.0924   17.0  0.3718  -65.3
 1.100  0.7419 -170.4   2.795   76.1  0.0924   16.9  0.3702  -65.6
 1.120  0.7412 -171.2   2.748   75.5  0.0924   16.8  0.3696  -66.0
 1.140  0.7407 -172.0   2.701   74.9  0.0924   16.7  0.3690  -66.4
 1.160  0.7403 -172.8   2.655   74.2  0.0923   16.6  0.3685  -66.9
 1.180  0.7400 -173.6   2.609   73.6  0.0923   16.5  0.3679  -67.3
 1.200  0.7399 -174.4   2.563   72.9  0.0923   16.4  0.3674  -67.7
 1.220  0.7406 -175.0   2.525   72.3  0.0922   16.4  0.3665  -68.1
 1.240  0.7413 -175.6   2.488   71.7  0.0920   16.5  0.3657  -68.5
 1.260  0.7422 -176.3   2.451   71.0  0.0919   16.5  0.3649  -69.0
 1.280  0.7431 -176.9   2.414   70.4  0.0917   16.6  0.3641  -69.4
 1.300  0.7441 -177.5   2.378   69.7  0.0916   16.6  0.3633  -69.8
 1.320  0.7441 -178.1   2.346   69.1  0.0916   16.6  0.3629  -70.2
 1.340  0.7442 -178.7   2.314   68.5  0.0915   16.6  0.3625  -70.7
 1.360  0.7444 -179.4   2.283   67.9  0.0915   16.6  0.3621  -71.1
 1.380  0.7447 -180.0   2.252   67.3  0.0914   16.6  0.3617  -71.6
 1.400  0.7451  179.4   2.221   66.7  0.0914   16.6  0.3614  -72.0
 1.420  0.7454  178.8   2.193   66.2  0.0912   16.8  0.3607  -72.5
 1.440  0.7458  178.3   2.164   65.7  0.0911   16.9  0.3601  -73.0
 1.460  0.7463  177.7   2.136   65.2  0.0909   17.1  0.3595  -73.4
 1.480  0.7468  177.2   2.109   64.6  0.0908   17.2  0.3589  -73.9
 1.500  0.7474  176.6   2.081   64.1  0.0906   17.4  0.3583  -74.4
 1.520  0.7478  176.0   2.056   63.5  0.0906   17.5  0.3585  -74.7
 1.540  0.7484  175.4   2.032   62.9  0.0905   17.6  0.3587  -75.1
 1.560  0.7490  174.8   2.007   62.3  0.0905   17.8  0.3589  -75.4
 1.580  0.7496  174.2   1.983   61.7  0.0904   17.9  0.3591  -75.8
 1.600  0.7504  173.6   1.959   61.1  0.0904   18.0  0.3593  -76.1
 1.620  0.7508  173.1   1.936   60.6  0.0903   18.1  0.3595  -76.6
 1.640  0.7512  172.5   1.913   60.1  0.0902   18.3  0.3597  -77.2
 1.660  0.7517  172.0   1.890   59.6  0.0902   18.4  0.3599  -77.7
 1.680  0.7523  171.4   1.867   59.0  0.0901   18.6  0.3602  -78.3
 1.700  0.7529  170.9   1.844   58.5  0.0900   18.7  0.3605  -78.8
 1.720  0.7530  170.5   1.824   58.0  0.0900   18.9  0.3602  -79.2
 1.740  0.7532  170.0   1.803   57.5  0.0900   19.1  0.3600  -79.6
 1.760  0.7534  169.6   1.783   57.0  0.0901   19.2  0.3598  -80.1
 1.780  0.7536  169.1   1.763   56.4  0.0901   19.4  0.3596  -80.5
 1.800  0.7539  168.7   1.743   55.9  0.0901   19.6  0.3594  -80.9
 1.820  0.7534  168.2   1.725   55.4  0.0901   19.8  0.3601  -81.3
 1.840  0.7529  167.6   1.707   54.8  0.0902   20.0  0.3609  -81.7
 1.860  0.7526  167.1   1.689   54.3  0.0902   20.3  0.3617  -82.0
 1.880  0.7522  166.5   1.671   53.7  0.0903   20.5  0.3625  -82.4
 1.900  0.7520  166.0   1.654   53.1  0.0903   20.7  0.3633  -82.8
 1.920  0.7528  165.5   1.639   52.6  0.0903   20.9  0.3640  -83.3
 1.940  0.7537  165.1   1.623   52.2  0.0903   21.1  0.3647  -83.8
 1.960  0.7546  164.6   1.608   51.7  0.0903   21.3  0.3654  -84.2
 1.980  0.7556  164.2   1.593   51.2  0.0903   21.5  0.3661  -84.7
 2.000  0.7566  163.7   1.578   50.7  0.0903   21.7  0.3669  -85.2
 2.020  0.7571  163.3   1.564   50.3  0.0903   21.9  0.3673  -85.7
 2.040  0.7576  162.9   1.550   49.8  0.0904   22.2  0.3677  -86.2
 2.060  0.7581  162.4   1.536   49.4  0.0904   22.4  0.3681  -86.7
 2.080  0.7587  162.0   1.522   48.9  0.0905   22.6  0.3685  -87.1
 2.100  0.7593  161.6   1.508   48.5  0.0905   22.9  0.3690  -87.6
 2.120  0.7600  161.2   1.494   48.0  0.0906   23.1  0.3695  -88.1
 2.140  0.7607  160.8   1.480   47.5  0.0906   23.3  0.3701  -88.6
 2.160  0.7614  160.3   1.467   47.0  0.0907   23.5  0.3706  -89.1
 2.180  0.7622  159.9   1.453   46.5  0.0907   23.8  0.3712  -89.5
 2.200  0.7630  159.5   1.440   46.0  0.0908   24.0  0.3718  -90.0
 2.220  0.7630  159.1   1.428   45.6  0.0909   24.3  0.3727  -90.5
 2.240  0.7631  158.6   1.416   45.1  0.0911   24.5  0.3737  -90.9
 2.260  0.7632  158.2   1.404   44.7  0.0912   24.8  0.3746  -91.4
 2.280  0.7634  157.8   1.392   44.2  0.0913   25.0  0.3756  -91.9
 2.300  0.7636  157.3   1.380   43.8  0.0915   25.3  0.3766  -92.3
 2.320  0.7639  156.9   1.368   43.3  0.0916   25.5  0.3777  -92.8
 2.340  0.7642  156.5   1.356   42.8  0.0918   25.8  0.3788  -93.2
 2.360  0.7645  156.1   1.345   42.3  0.0919   26.0  0.3798  -93.7
 2.380  0.7649  155.6   1.333   41.8  0.0921   26.3  0.3810  -94.2
 2.400  0.7653  155.2   1.322   41.3  0.0922   26.5  0.3821  -94.6
 2.420  0.7656  154.8   1.312   40.9  0.0924   26.8  0.3825  -95.1
 2.440  0.7660  154.4   1.301   40.5  0.0927   27.1  0.3828  -95.6
 2.460  0.7665  154.0   1.291   40.0  0.0929   27.4  0.3833  -96.1
 2.480  0.7669  153.6   1.281   39.6  0.0931   27.7  0.3837  -96.6
 2.500  0.7674  153.2   1.271   39.1  0.0934   28.0  0.3842  -97.1
 2.520  0.7679  152.9   1.260   38.7  0.0936   28.3  0.3847  -97.6
 2.540  0.7685  152.5   1.250   38.2  0.0939   28.6  0.3852  -98.1
 2.560  0.7691  152.1   1.241   37.8  0.0941   28.9  0.3858  -98.6
 2.580  0.7697  151.7   1.231   37.3  0.0943   29.2  0.3864  -99.1
 2.600  0.7704  151.3   1.221   36.8  0.0946   29.5  0.3870  -99.6
 2.620  0.7711  150.9   1.212   36.4  0.0949   29.7  0.3881 -100.1
 2.640  0.7719  150.5   1.204   36.0  0.0953   30.0  0.3892 -100.5
 2.660  0.7727  150.1   1.195   35.6  0.0956   30.2  0.3904 -101.0
 2.680  0.7736  149.7   1.186   35.2  0.0960   30.4  0.3915 -101.4
 2.700  0.7745  149.3   1.178   34.8  0.0963   30.7  0.3927 -101.9
 2.720  0.7754  148.9   1.169   34.4  0.0967   30.9  0.3940 -102.3
 2.740  0.7763  148.6   1.161   33.9  0.0970   31.1  0.3952 -102.8
 2.760  0.7773  148.2   1.152   33.5  0.0974   31.4  0.3965 -103.2
 2.780  0.7783  147.8   1.144   33.0  0.0977   31.6  0.3978 -103.7
 2.800  0.7794  147.4   1.136   32.6  0.0981   31.8  0.3991 -104.1
 2.820  0.7799  147.0   1.128   32.2  0.0985   32.1  0.3999 -104.6
 2.840  0.7804  146.7   1.120   31.8  0.0989   32.3  0.4007 -105.1
 2.860  0.7810  146.3   1.112   31.4  0.0993   32.6  0.4015 -105.6
 2.880  0.7816  145.9   1.104   31.0  0.0997   32.8  0.4024 -106.1
 2.900  0.7822  145.5   1.096   30.6  0.1001   33.1  0.4033 -106.6
 2.920  0.7829  145.2   1.089   30.2  0.1005   33.3  0.4042 -107.1
 2.940  0.7836  144.8   1.081   29.8  0.1010   33.6  0.4052 -107.6
 2.960  0.7843  144.4   1.073   29.4  0.1014   33.8  0.4061 -108.0
 2.980  0.7851  144.1   1.066   28.9  0.1018   34.1  0.4072 -108.5
 3.000  0.7859  143.7   1.058   28.5  0.1022   34.3  0.4082 -109.0
 3.100  0.7899  141.9   1.024   26.6  0.1048   35.4  0.4135 -111.4
 3.200  0.7947  140.1   0.992   24.5  0.1075   36.5  0.4196 -113.8
 3.300  0.7981  138.2   0.961   22.6  0.1105   37.3  0.4253 -116.3
 3.400  0.8023  136.4   0.931   20.6  0.1136   38.1  0.4317 -118.7
 3.500  0.8057  134.7   0.905   18.9  0.1167   38.9  0.4388 -121.1
 3.600  0.8098  133.1   0.879   17.1  0.1199   39.6  0.4467 -123.4
 3.700  0.8112  131.4   0.852   15.4  0.1231   40.0  0.4532 -126.0
 3.800  0.8133  129.8   0.826   13.5  0.1263   40.4  0.4606 -128.5
 3.900  0.8168  128.3   0.801   11.9  0.1302   40.8  0.4678 -130.9
 4.000  0.8208  126.9   0.776   10.2  0.1341   41.2  0.4759 -133.3
 4.100  0.8217  125.5   0.754    8.9  0.1381   41.3  0.4828 -135.8
 4.200  0.8230  124.2   0.733    7.5  0.1422   41.3  0.4906 -138.2
 4.300  0.8248  122.8   0.712    6.0  0.1462   41.4  0.4992 -140.5
 4.400  0.8271  121.4   0.691    4.5  0.1503   41.4  0.5086 -142.7
 4.500  0.8298  120.1   0.671    2.8  0.1543   41.5  0.5188 -144.9
 4.600  0.8299  118.9   0.654    1.8  0.1587   41.3  0.5250 -147.1
 4.700  0.8303  117.8   0.638    0.8  0.1632   41.1  0.5319 -149.3
 4.800  0.8311  116.6   0.621   -0.3  0.1676   40.9  0.5396 -151.4
 4.900  0.8322  115.5   0.605   -1.4  0.1721   40.8  0.5479 -153.4
 5.000  0.8337  114.3   0.589   -2.6  0.1765   40.6  0.5570 -155.4
 5.100  0.8335  113.5   0.575   -3.3  0.1809   40.2  0.5629 -157.2
 5.200  0.8335  112.7   0.561   -4.0  0.1854   39.7  0.5694 -159.0
 5.300  0.8337  111.8   0.547   -4.8  0.1898   39.3  0.5764 -160.7
 5.400  0.8340  111.0   0.533   -5.6  0.1942   39.0  0.5839 -162.4
 5.500  0.8345  110.2   0.519   -6.4  0.1987   38.6  0.5919 -164.1
 5.600  0.8354  109.2   0.509   -6.9  0.2034   38.1  0.5974 -165.7
 5.700  0.8365  108.3   0.499   -7.4  0.2081   37.6  0.6033 -167.3
 5.800  0.8379  107.3   0.489   -8.0  0.2128   37.2  0.6097 -168.8
 5.900  0.8395  106.4   0.480   -8.5  0.2176   36.7  0.6165 -170.3
 6.000  0.8413  105.4   0.470   -9.1  0.2223   36.3  0.6237 -171.8
!
!  f       NFmin   Gammaopt  rn/50
! GHz       dB    MAG  ANG    -
!
! noise parameter not available yet for this operation point!
!
! (c) 2016  Infineon Technologies AG, Munich
