! Infineon Technologies  Discrete & RF Semiconductors
! BFP181
! VCE = 0.75V,  IC =  90 mA
! Common Emitter S-Parameters:                            Jan 2016
# GHz  S  MA  R  50
!  f         S11            S21            S12            S22
! GHz     MAG   ANG      MAG   ANG      MAG   ANG      MAG   ANG
 0.010  0.9649   -1.0   3.123  179.7  0.0016   90.4  0.9973   -0.3
 0.015  0.9659   -1.4   3.137  179.5  0.0027   88.0  0.9969   -0.5
 0.020  0.9669   -1.7   3.151  179.3  0.0039   87.0  0.9965   -0.8
 0.025  0.9667   -2.0   3.154  178.8  0.0048   88.1  0.9962   -1.0
 0.030  0.9665   -2.4   3.158  178.4  0.0058   88.8  0.9959   -1.2
 0.035  0.9664   -2.7   3.162  177.9  0.0067   89.3  0.9956   -1.4
 0.040  0.9662   -3.0   3.166  177.5  0.0076   89.7  0.9953   -1.6
 0.045  0.9662   -3.4   3.170  177.0  0.0086   90.0  0.9951   -1.8
 0.050  0.9661   -3.7   3.174  176.6  0.0095   90.3  0.9948   -2.0
 0.055  0.9651   -4.1   3.166  176.3  0.0104   89.2  0.9948   -2.2
 0.060  0.9641   -4.6   3.158  175.9  0.0113   88.3  0.9948   -2.4
 0.065  0.9632   -5.0   3.149  175.6  0.0122   87.5  0.9949   -2.6
 0.070  0.9623   -5.4   3.141  175.3  0.0130   86.9  0.9949   -2.8
 0.075  0.9615   -5.8   3.134  174.9  0.0139   86.3  0.9950   -3.0
 0.080  0.9608   -6.3   3.126  174.6  0.0148   85.8  0.9951   -3.2
 0.085  0.9601   -6.7   3.118  174.2  0.0157   85.3  0.9952   -3.4
 0.090  0.9594   -7.1   3.111  173.9  0.0166   84.9  0.9953   -3.6
 0.095  0.9588   -7.6   3.103  173.5  0.0175   84.5  0.9954   -3.8
 0.100  0.9583   -8.0   3.096  173.2  0.0184   84.2  0.9955   -4.0
 0.105  0.9581   -8.4   3.099  172.8  0.0193   83.8  0.9951   -4.2
 0.110  0.9580   -8.8   3.103  172.5  0.0202   83.4  0.9947   -4.4
 0.115  0.9579   -9.2   3.107  172.1  0.0212   83.1  0.9943   -4.6
 0.120  0.9579   -9.6   3.111  171.8  0.0221   82.8  0.9939   -4.8
 0.125  0.9579  -10.0   3.115  171.4  0.0230   82.5  0.9936   -4.9
 0.130  0.9580  -10.4   3.119  171.1  0.0239   82.3  0.9932   -5.1
 0.135  0.9581  -10.8   3.123  170.7  0.0248   82.0  0.9929   -5.3
 0.140  0.9582  -11.2   3.127  170.4  0.0258   81.8  0.9925   -5.5
 0.145  0.9584  -11.6   3.131  170.0  0.0267   81.6  0.9922   -5.7
 0.150  0.9587  -12.0   3.136  169.7  0.0276   81.4  0.9919   -5.9
 0.155  0.9578  -12.4   3.135  169.3  0.0285   81.1  0.9915   -6.1
 0.160  0.9570  -12.8   3.134  169.0  0.0295   80.9  0.9911   -6.3
 0.165  0.9562  -13.2   3.133  168.6  0.0304   80.6  0.9907   -6.5
 0.170  0.9554  -13.6   3.132  168.2  0.0313   80.4  0.9903   -6.7
 0.175  0.9547  -13.9   3.132  167.9  0.0322   80.2  0.9900   -6.9
 0.180  0.9540  -14.3   3.131  167.5  0.0332   80.0  0.9896   -7.2
 0.185  0.9534  -14.7   3.131  167.1  0.0341   79.8  0.9893   -7.4
 0.190  0.9528  -15.1   3.131  166.7  0.0350   79.6  0.9890   -7.6
 0.195  0.9523  -15.5   3.131  166.4  0.0360   79.5  0.9887   -7.8
 0.200  0.9518  -15.9   3.131  166.0  0.0369   79.3  0.9884   -8.0
 0.220  0.9490  -17.5   3.108  164.7  0.0402   78.3  0.9863   -8.8
 0.240  0.9469  -19.1   3.086  163.3  0.0435   77.4  0.9843   -9.5
 0.260  0.9438  -20.7   3.078  162.0  0.0470   76.4  0.9824  -10.3
 0.280  0.9398  -22.2   3.084  160.9  0.0506   75.2  0.9806  -11.0
 0.300  0.9365  -23.8   3.090  159.8  0.0542   74.2  0.9789  -11.8
 0.320  0.9313  -25.3   3.079  158.3  0.0575   72.9  0.9758  -12.6
 0.340  0.9267  -26.8   3.070  156.8  0.0608   71.8  0.9728  -13.3
 0.360  0.9227  -28.3   3.064  155.3  0.0642   70.8  0.9700  -14.1
 0.380  0.9194  -29.9   3.059  153.8  0.0675   69.8  0.9674  -14.8
 0.400  0.9168  -31.4   3.057  152.3  0.0709   69.0  0.9650  -15.6
 0.420  0.9102  -32.9   3.030  151.0  0.0739   67.8  0.9611  -16.3
 0.440  0.9042  -34.5   3.005  149.7  0.0770   66.6  0.9574  -17.0
 0.450  0.9015  -35.3   2.993  149.1  0.0786   66.1  0.9556  -17.4
 0.460  0.8989  -36.1   2.981  148.4  0.0801   65.6  0.9538  -17.7
 0.480  0.8943  -37.7   2.959  147.1  0.0832   64.6  0.9504  -18.5
 0.500  0.8904  -39.3   2.938  145.7  0.0864   63.7  0.9471  -19.2
 0.520  0.8836  -40.7   2.924  144.5  0.0893   62.6  0.9431  -19.9
 0.540  0.8773  -42.1   2.911  143.3  0.0922   61.6  0.9392  -20.6
 0.560  0.8716  -43.6   2.900  142.1  0.0951   60.7  0.9355  -21.3
 0.580  0.8665  -45.0   2.890  140.9  0.0980   59.8  0.9319  -22.0
 0.600  0.8619  -46.5   2.881  139.7  0.1010   59.0  0.9285  -22.7
 0.620  0.8557  -48.0   2.859  138.5  0.1034   58.0  0.9238  -23.3
 0.640  0.8502  -49.4   2.839  137.3  0.1059   57.0  0.9192  -24.0
 0.660  0.8451  -50.9   2.820  136.0  0.1084   56.1  0.9148  -24.6
 0.680  0.8407  -52.5   2.802  134.8  0.1109   55.2  0.9104  -25.2
 0.700  0.8369  -54.0   2.786  133.5  0.1134   54.4  0.9062  -25.9
 0.720  0.8288  -55.4   2.773  132.3  0.1155   53.5  0.9015  -26.5
 0.740  0.8212  -56.8   2.760  131.1  0.1177   52.6  0.8968  -27.1
 0.760  0.8142  -58.2   2.749  129.9  0.1199   51.7  0.8923  -27.7
 0.780  0.8076  -59.7   2.740  128.7  0.1221   50.9  0.8878  -28.3
 0.800  0.8016  -61.2   2.731  127.5  0.1244   50.1  0.8835  -28.9
 0.820  0.7943  -62.6   2.710  126.4  0.1264   49.2  0.8787  -29.5
 0.840  0.7875  -63.9   2.690  125.3  0.1285   48.3  0.8739  -30.0
 0.860  0.7811  -65.3   2.672  124.2  0.1306   47.5  0.8693  -30.6
 0.880  0.7752  -66.8   2.654  123.1  0.1327   46.7  0.8647  -31.2
 0.900  0.7698  -68.2   2.637  121.9  0.1348   45.9  0.8602  -31.8
 0.920  0.7636  -69.5   2.611  120.9  0.1364   45.1  0.8555  -32.3
 0.940  0.7578  -70.9   2.586  119.9  0.1381   44.3  0.8510  -32.8
 0.960  0.7525  -72.3   2.562  118.8  0.1398   43.5  0.8464  -33.3
 0.980  0.7476  -73.7   2.539  117.8  0.1415   42.7  0.8420  -33.9
 1.000  0.7432  -75.1   2.517  116.7  0.1433   42.0  0.8376  -34.4
 1.020  0.7358  -76.5   2.502  115.6  0.1450   41.2  0.8334  -34.9
 1.040  0.7288  -77.9   2.488  114.6  0.1466   40.5  0.8292  -35.4
 1.060  0.7222  -79.3   2.475  113.5  0.1483   39.8  0.8251  -35.9
 1.080  0.7161  -80.7   2.463  112.4  0.1501   39.1  0.8211  -36.4
 1.100  0.7105  -82.2   2.452  111.3  0.1518   38.4  0.8171  -36.9
 1.120  0.7044  -83.4   2.431  110.4  0.1532   37.6  0.8131  -37.4
 1.140  0.6986  -84.7   2.410  109.5  0.1547   36.9  0.8091  -37.9
 1.160  0.6931  -85.9   2.391  108.5  0.1562   36.1  0.8053  -38.4
 1.180  0.6880  -87.2   2.371  107.6  0.1577   35.4  0.8014  -39.0
 1.200  0.6832  -88.5   2.353  106.6  0.1593   34.7  0.7977  -39.5
 1.220  0.6775  -89.9   2.335  105.7  0.1602   34.0  0.7934  -39.9
 1.240  0.6723  -91.4   2.318  104.7  0.1612   33.4  0.7892  -40.3
 1.260  0.6674  -92.8   2.302  103.8  0.1621   32.8  0.7850  -40.7
 1.280  0.6630  -94.3   2.286  102.8  0.1631   32.1  0.7808  -41.2
 1.300  0.6591  -95.8   2.271  101.8  0.1641   31.5  0.7767  -41.6
 1.320  0.6516  -97.0   2.254  100.9  0.1650   30.9  0.7725  -42.0
 1.340  0.6444  -98.2   2.237  100.0  0.1660   30.2  0.7683  -42.5
 1.360  0.6376  -99.4   2.221   99.0  0.1670   29.6  0.7641  -42.9
 1.380  0.6310 -100.7   2.206   98.1  0.1680   29.0  0.7600  -43.4
 1.400  0.6247 -102.0   2.191   97.1  0.1690   28.4  0.7560  -43.8
 1.420  0.6204 -103.6   2.181   96.1  0.1696   27.9  0.7518  -44.1
 1.440  0.6165 -105.1   2.171   95.2  0.1702   27.4  0.7476  -44.5
 1.460  0.6131 -106.7   2.161   94.2  0.1709   26.9  0.7434  -44.8
 1.480  0.6102 -108.4   2.153   93.2  0.1715   26.4  0.7393  -45.2
 1.500  0.6078 -110.0   2.145   92.2  0.1722   25.9  0.7352  -45.5
 1.520  0.6011 -111.2   2.127   91.4  0.1730   25.4  0.7321  -45.8
 1.540  0.5946 -112.4   2.109   90.6  0.1737   24.9  0.7291  -46.2
 1.560  0.5884 -113.6   2.092   89.7  0.1745   24.4  0.7261  -46.5
 1.580  0.5825 -114.9   2.075   88.9  0.1753   23.9  0.7231  -46.9
 1.600  0.5769 -116.2   2.059   88.0  0.1761   23.4  0.7201  -47.2
 1.620  0.5731 -117.6   2.046   87.2  0.1764   22.9  0.7158  -47.6
 1.640  0.5697 -119.1   2.034   86.3  0.1768   22.4  0.7116  -48.0
 1.660  0.5666 -120.5   2.022   85.5  0.1771   21.8  0.7074  -48.4
 1.680  0.5639 -122.0   2.011   84.7  0.1775   21.3  0.7032  -48.9
 1.700  0.5616 -123.5   2.000   83.8  0.1779   20.8  0.6991  -49.3
 1.720  0.5569 -124.8   1.984   83.0  0.1784   20.4  0.6962  -49.6
 1.740  0.5526 -126.2   1.969   82.1  0.1789   20.0  0.6933  -49.8
 1.760  0.5485 -127.5   1.954   81.3  0.1794   19.7  0.6904  -50.1
 1.780  0.5447 -128.9   1.940   80.4  0.1800   19.3  0.6875  -50.3
 1.800  0.5413 -130.3   1.926   79.5  0.1805   18.9  0.6846  -50.6
 1.820  0.5385 -131.6   1.913   78.8  0.1808   18.4  0.6814  -51.0
 1.840  0.5360 -132.9   1.900   78.0  0.1811   17.8  0.6782  -51.3
 1.860  0.5338 -134.2   1.888   77.2  0.1814   17.3  0.6750  -51.7
 1.880  0.5318 -135.5   1.876   76.5  0.1817   16.7  0.6718  -52.1
 1.900  0.5301 -136.8   1.864   75.7  0.1820   16.2  0.6687  -52.5
 1.920  0.5261 -138.1   1.850   74.9  0.1825   15.9  0.6666  -52.7
 1.940  0.5224 -139.4   1.837   74.1  0.1830   15.5  0.6644  -53.0
 1.960  0.5190 -140.8   1.825   73.3  0.1835   15.2  0.6623  -53.2
 1.980  0.5159 -142.1   1.812   72.5  0.1841   14.8  0.6602  -53.5
 2.000  0.5131 -143.5   1.800   71.7  0.1846   14.5  0.6581  -53.7
 2.020  0.5097 -144.8   1.787   71.0  0.1846   14.1  0.6553  -54.0
 2.040  0.5066 -146.2   1.775   70.2  0.1846   13.7  0.6525  -54.4
 2.060  0.5038 -147.5   1.762   69.5  0.1846   13.2  0.6497  -54.7
 2.080  0.5013 -148.9   1.750   68.7  0.1846   12.8  0.6469  -55.1
 2.100  0.4991 -150.3   1.739   68.0  0.1846   12.4  0.6441  -55.4
 2.120  0.4971 -151.7   1.727   67.2  0.1846   12.0  0.6414  -55.8
 2.140  0.4955 -153.1   1.716   66.4  0.1846   11.6  0.6387  -56.1
 2.160  0.4942 -154.5   1.705   65.6  0.1847   11.1  0.6361  -56.5
 2.180  0.4931 -156.0   1.695   64.8  0.1847   10.7  0.6334  -56.8
 2.200  0.4924 -157.4   1.685   64.0  0.1848   10.3  0.6308  -57.2
 2.220  0.4903 -158.6   1.674   63.4  0.1849    9.9  0.6288  -57.5
 2.240  0.4885 -159.8   1.663   62.7  0.1850    9.5  0.6267  -57.8
 2.260  0.4869 -161.1   1.652   62.0  0.1851    9.2  0.6247  -58.1
 2.280  0.4855 -162.3   1.641   61.4  0.1853    8.8  0.6227  -58.5
 2.300  0.4844 -163.6   1.631   60.7  0.1854    8.4  0.6208  -58.8
 2.320  0.4834 -164.8   1.621   60.0  0.1855    8.0  0.6188  -59.1
 2.340  0.4827 -166.1   1.611   59.3  0.1857    7.6  0.6169  -59.4
 2.360  0.4823 -167.4   1.602   58.6  0.1859    7.3  0.6150  -59.7
 2.380  0.4821 -168.6   1.592   57.9  0.1860    6.9  0.6131  -60.1
 2.400  0.4821 -169.9   1.583   57.2  0.1862    6.5  0.6112  -60.4
 2.420  0.4811 -171.2   1.573   56.6  0.1859    6.2  0.6087  -60.7
 2.440  0.4803 -172.5   1.563   55.9  0.1856    6.0  0.6062  -60.9
 2.460  0.4798 -173.7   1.553   55.3  0.1853    5.7  0.6037  -61.2
 2.480  0.4795 -175.0   1.543   54.7  0.1850    5.5  0.6012  -61.5
 2.500  0.4794 -176.3   1.533   54.0  0.1847    5.2  0.5987  -61.7
 2.520  0.4796 -177.6   1.524   53.3  0.1844    5.0  0.5962  -62.0
 2.540  0.4801 -178.9   1.515   52.7  0.1841    4.7  0.5938  -62.3
 2.560  0.4807  179.8   1.506   52.0  0.1838    4.4  0.5913  -62.5
 2.580  0.4817  178.6   1.497   51.3  0.1835    4.2  0.5889  -62.8
 2.600  0.4828  177.3   1.489   50.6  0.1832    3.9  0.5865  -63.1
 2.620  0.4824  176.2   1.479   50.0  0.1833    3.6  0.5854  -63.4
 2.640  0.4821  175.1   1.470   49.3  0.1833    3.3  0.5844  -63.7
 2.660  0.4821  174.0   1.460   48.6  0.1834    3.0  0.5834  -64.0
 2.680  0.4822  172.9   1.451   48.0  0.1835    2.7  0.5823  -64.3
 2.700  0.4825  171.8   1.442   47.3  0.1835    2.4  0.5813  -64.6
 2.720  0.4829  170.7   1.434   46.6  0.1836    2.1  0.5804  -64.9
 2.740  0.4836  169.6   1.425   45.9  0.1837    1.8  0.5794  -65.3
 2.760  0.4844  168.5   1.417   45.2  0.1838    1.5  0.5784  -65.6
 2.780  0.4854  167.4   1.409   44.5  0.1839    1.2  0.5775  -65.9
 2.800  0.4866  166.3   1.401   43.8  0.1840    0.9  0.5766  -66.2
 2.820  0.4865  165.2   1.393   43.2  0.1836    0.6  0.5747  -66.5
 2.840  0.4866  164.1   1.386   42.6  0.1832    0.3  0.5728  -66.8
 2.860  0.4868  162.9   1.379   42.0  0.1829    0.1  0.5709  -67.1
 2.880  0.4873  161.8   1.371   41.4  0.1825   -0.2  0.5691  -67.5
 2.900  0.4879  160.7   1.365   40.8  0.1821   -0.5  0.5672  -67.8
 2.920  0.4887  159.6   1.358   40.2  0.1818   -0.8  0.5654  -68.1
 2.940  0.4897  158.5   1.351   39.5  0.1814   -1.0  0.5636  -68.4
 2.960  0.4909  157.4   1.345   38.9  0.1811   -1.3  0.5618  -68.7
 2.980  0.4923  156.3   1.338   38.2  0.1807   -1.6  0.5600  -69.1
 3.000  0.4938  155.2   1.332   37.6  0.1804   -1.9  0.5583  -69.4
 3.100  0.4948  150.5   1.290   35.1  0.1797   -2.8  0.5542  -71.0
 3.200  0.4991  145.9   1.251   32.4  0.1790   -3.7  0.5506  -72.6
 3.300  0.5066  141.4   1.214   29.5  0.1784   -4.6  0.5474  -74.3
 3.400  0.5171  137.1   1.181   26.5  0.1778   -5.5  0.5447  -75.9
 3.500  0.5304  132.9   1.151   23.3  0.1773   -6.4  0.5424  -77.6
 3.600  0.5360  129.4   1.118   21.0  0.1755   -7.1  0.5382  -79.5
 3.700  0.5435  126.0   1.086   18.6  0.1737   -7.9  0.5347  -81.5
 3.800  0.5529  122.7   1.057   16.1  0.1719   -8.6  0.5318  -83.4
 3.900  0.5641  119.5   1.030   13.4  0.1702   -9.4  0.5295  -85.4
 4.000  0.5770  116.4   1.005   10.6  0.1685  -10.2  0.5278  -87.4
 4.100  0.5829  113.7   0.977    8.6  0.1667  -10.8  0.5261  -89.6
 4.200  0.5900  111.1   0.951    6.5  0.1650  -11.3  0.5252  -91.8
 4.300  0.5984  108.5   0.926    4.2  0.1632  -11.9  0.5250  -93.9
 4.400  0.6079  106.0   0.902    1.9  0.1615  -12.5  0.5256  -96.1
 4.500  0.6185  103.6   0.880   -0.6  0.1598  -13.1  0.5269  -98.3
 4.600  0.6240  101.5   0.858   -2.3  0.1581  -13.0  0.5252 -100.5
 4.700  0.6304   99.4   0.836   -4.2  0.1564  -12.9  0.5243 -102.8
 4.800  0.6376   97.3   0.816   -6.1  0.1548  -12.8  0.5242 -105.0
 4.900  0.6456   95.3   0.796   -8.1  0.1531  -12.7  0.5249 -107.3
 5.000  0.6543   93.4   0.778  -10.2  0.1514  -12.6  0.5264 -109.5
 5.100  0.6594   91.8   0.760  -11.8  0.1512  -12.2  0.5271 -111.8
 5.200  0.6651   90.2   0.742  -13.5  0.1511  -11.9  0.5287 -114.0
 5.300  0.6712   88.7   0.725  -15.3  0.1509  -11.5  0.5311 -116.3
 5.400  0.6778   87.2   0.709  -17.2  0.1507  -11.2  0.5343 -118.5
 5.500  0.6849   85.7   0.693  -19.1  0.1506  -10.8  0.5383 -120.7
 5.600  0.6903   84.3   0.677  -20.5  0.1512  -10.6  0.5398 -123.0
 5.700  0.6960   82.8   0.662  -22.0  0.1519  -10.4  0.5423 -125.3
 5.800  0.7023   81.4   0.647  -23.6  0.1525  -10.1  0.5456 -127.6
 5.900  0.7089   80.0   0.632  -25.2  0.1532   -9.9  0.5497 -129.9
 6.000  0.7159   78.7   0.618  -26.9  0.1538   -9.7  0.5547 -132.1
!
!  f       NFmin   Gammaopt  rn/50
! GHz       dB    MAG  ANG    -
!
! noise parameter not available yet for this operation point!
!
! (c) 2016  Infineon Technologies AG, Munich
