! Infineon Technologies  Discrete & RF Semiconductors
! BFP183
! VCE = 0.50V,  IC =  60 mA
! Common Emitter S-Parameters:                            Jan 2016
# GHz  S  MA  R  50
!  f         S11            S21            S12            S22
! GHz     MAG   ANG      MAG   ANG      MAG   ANG      MAG   ANG
 0.010  0.3167 -145.6  23.316  162.2  0.0077   55.9  0.3495  -38.1
 0.015  0.3963 -145.0  21.869  154.9  0.0105   53.3  0.3446  -54.4
 0.020  0.4760 -144.6  20.818  146.8  0.0133   51.8  0.3670  -69.9
 0.025  0.5121 -147.8  19.317  143.9  0.0144   48.8  0.3518  -78.2
 0.030  0.5496 -150.5  17.876  140.5  0.0156   46.2  0.3444  -87.0
 0.035  0.5882 -152.9  16.508  136.5  0.0168   44.0  0.3454  -96.0
 0.040  0.6277 -155.0  15.235  131.8  0.0180   42.0  0.3548 -104.7
 0.045  0.6679 -156.9  14.081  126.3  0.0193   40.4  0.3718 -112.7
 0.050  0.7088 -158.5  13.079  119.9  0.0205   38.9  0.3955 -120.0
 0.055  0.7153 -159.8  12.474  118.9  0.0208   38.0  0.3922 -122.7
 0.060  0.7221 -161.0  11.873  117.8  0.0212   37.0  0.3899 -125.5
 0.065  0.7292 -162.2  11.277  116.6  0.0215   36.2  0.3885 -128.3
 0.070  0.7367 -163.4  10.686  115.3  0.0218   35.3  0.3880 -131.1
 0.075  0.7445 -164.6  10.102  113.8  0.0222   34.5  0.3884 -134.0
 0.080  0.7526 -165.8   9.525  112.1  0.0225   33.7  0.3898 -136.8
 0.085  0.7610 -166.9   8.958  110.2  0.0229   32.9  0.3921 -139.5
 0.090  0.7696 -168.0   8.402  108.1  0.0233   32.1  0.3953 -142.3
 0.095  0.7786 -169.1   7.859  105.6  0.0236   31.4  0.3994 -145.0
 0.100  0.7878 -170.1   7.333  102.8  0.0240   30.7  0.4044 -147.6
 0.105  0.7898 -170.7   7.097  102.2  0.0242   31.1  0.4041 -148.7
 0.110  0.7919 -171.2   6.861  101.6  0.0244   31.5  0.4039 -149.8
 0.115  0.7940 -171.8   6.627  101.0  0.0246   31.9  0.4038 -150.9
 0.120  0.7963 -172.3   6.393  100.3  0.0248   32.3  0.4039 -151.9
 0.125  0.7986 -172.8   6.160   99.6  0.0250   32.6  0.4042 -153.0
 0.130  0.8009 -173.4   5.928   98.8  0.0252   33.0  0.4046 -154.1
 0.135  0.8034 -173.9   5.698   97.9  0.0255   33.4  0.4051 -155.2
 0.140  0.8059 -174.4   5.468   97.0  0.0257   33.7  0.4058 -156.3
 0.145  0.8085 -175.0   5.241   96.0  0.0259   34.1  0.4066 -157.3
 0.150  0.8111 -175.5   5.015   94.9  0.0261   34.4  0.4076 -158.4
 0.155  0.8108 -175.9   4.891   94.5  0.0264   34.8  0.4075 -158.9
 0.160  0.8106 -176.3   4.767   94.1  0.0266   35.2  0.4073 -159.5
 0.165  0.8103 -176.6   4.644   93.6  0.0269   35.6  0.4073 -160.0
 0.170  0.8102 -177.0   4.521   93.1  0.0271   36.0  0.4072 -160.5
 0.175  0.8100 -177.4   4.398   92.6  0.0274   36.4  0.4072 -161.1
 0.180  0.8099 -177.8   4.276   92.1  0.0276   36.8  0.4072 -161.6
 0.185  0.8098 -178.2   4.154   91.5  0.0279   37.1  0.4073 -162.1
 0.190  0.8098 -178.5   4.033   90.9  0.0282   37.5  0.4074 -162.6
 0.195  0.8098 -178.9   3.912   90.3  0.0284   37.9  0.4075 -163.2
 0.200  0.8098 -179.3   3.791   89.6  0.0287   38.2  0.4077 -163.7
 0.220  0.8124  179.6   3.491   88.1  0.0296   39.5  0.4079 -165.0
 0.240  0.8153  178.5   3.194   86.4  0.0305   40.6  0.4083 -166.3
 0.260  0.8162  177.4   2.945   84.8  0.0315   41.8  0.4090 -167.5
 0.280  0.8151  176.5   2.742   83.5  0.0326   43.1  0.4098 -168.4
 0.300  0.8142  175.5   2.540   81.9  0.0338   44.2  0.4107 -169.4
 0.320  0.8149  174.7   2.415   80.9  0.0350   45.5  0.4111 -170.0
 0.340  0.8157  173.9   2.290   79.9  0.0362   46.7  0.4115 -170.5
 0.360  0.8167  173.0   2.166   78.7  0.0374   47.8  0.4120 -171.1
 0.380  0.8179  172.2   2.043   77.3  0.0387   48.9  0.4125 -171.6
 0.400  0.8192  171.4   1.922   75.8  0.0399   49.9  0.4130 -172.2
 0.420  0.8192  170.8   1.844   74.9  0.0411   50.4  0.4135 -172.6
 0.440  0.8193  170.1   1.767   74.0  0.0424   50.8  0.4141 -172.9
 0.450  0.8194  169.8   1.729   73.5  0.0430   51.0  0.4143 -173.1
 0.460  0.8196  169.5   1.690   73.0  0.0436   51.2  0.4146 -173.3
 0.480  0.8199  168.8   1.614   71.8  0.0449   51.6  0.4152 -173.6
 0.500  0.8203  168.2   1.539   70.6  0.0461   52.0  0.4158 -174.0
 0.520  0.8205  167.5   1.489   69.7  0.0474   52.5  0.4166 -174.3
 0.540  0.8207  166.9   1.440   68.7  0.0487   53.0  0.4175 -174.6
 0.560  0.8211  166.2   1.391   67.6  0.0500   53.5  0.4183 -175.0
 0.580  0.8216  165.6   1.343   66.5  0.0514   54.0  0.4192 -175.3
 0.600  0.8222  164.9   1.295   65.3  0.0527   54.4  0.4201 -175.6
 0.620  0.8221  164.2   1.258   64.5  0.0540   54.7  0.4210 -175.9
 0.640  0.8222  163.5   1.221   63.7  0.0553   55.0  0.4219 -176.1
 0.660  0.8224  162.9   1.184   62.8  0.0567   55.2  0.4228 -176.4
 0.680  0.8227  162.2   1.147   61.9  0.0580   55.5  0.4238 -176.6
 0.700  0.8231  161.5   1.111   60.9  0.0593   55.7  0.4247 -176.9
 0.720  0.8227  160.9   1.084   60.1  0.0607   55.8  0.4255 -177.1
 0.740  0.8224  160.3   1.057   59.2  0.0621   55.8  0.4264 -177.3
 0.760  0.8222  159.7   1.030   58.3  0.0636   55.9  0.4272 -177.5
 0.780  0.8221  159.1   1.004   57.3  0.0650   55.9  0.4280 -177.7
 0.800  0.8221  158.5   0.978   56.3  0.0664   56.0  0.4289 -177.9
 0.820  0.8220  158.0   0.957   55.6  0.0680   56.0  0.4302 -178.1
 0.840  0.8219  157.5   0.937   54.8  0.0696   56.1  0.4315 -178.3
 0.860  0.8220  156.9   0.917   54.1  0.0711   56.1  0.4328 -178.4
 0.880  0.8220  156.4   0.897   53.2  0.0727   56.2  0.4342 -178.6
 0.900  0.8222  155.9   0.877   52.4  0.0743   56.2  0.4355 -178.8
 0.920  0.8228  155.2   0.860   51.6  0.0756   56.2  0.4364 -179.0
 0.940  0.8234  154.6   0.843   50.9  0.0768   56.2  0.4374 -179.3
 0.960  0.8242  153.9   0.827   50.0  0.0781   56.1  0.4383 -179.5
 0.980  0.8251  153.3   0.810   49.2  0.0793   56.1  0.4392 -179.8
 1.000  0.8261  152.6   0.794   48.3  0.0806   56.1  0.4402 -180.0
 1.020  0.8255  152.0   0.780   47.6  0.0821   56.0  0.4415  179.8
 1.040  0.8250  151.5   0.766   46.8  0.0836   55.9  0.4427  179.6
 1.060  0.8245  150.9   0.752   46.0  0.0850   55.8  0.4440  179.5
 1.080  0.8242  150.4   0.738   45.2  0.0865   55.7  0.4453  179.3
 1.100  0.8239  149.8   0.725   44.3  0.0880   55.6  0.4466  179.1
 1.120  0.8247  149.3   0.713   43.6  0.0893   55.4  0.4478  178.9
 1.140  0.8256  148.8   0.701   43.0  0.0906   55.3  0.4489  178.7
 1.160  0.8265  148.2   0.689   42.3  0.0920   55.1  0.4501  178.4
 1.180  0.8275  147.7   0.678   41.5  0.0933   55.0  0.4513  178.2
 1.200  0.8286  147.2   0.666   40.8  0.0946   54.8  0.4525  178.0
 1.220  0.8284  146.6   0.657   40.1  0.0960   54.7  0.4538  177.8
 1.240  0.8282  146.0   0.647   39.3  0.0975   54.5  0.4552  177.6
 1.260  0.8281  145.5   0.638   38.6  0.0989   54.4  0.4566  177.3
 1.280  0.8281  144.9   0.629   37.8  0.1004   54.3  0.4579  177.1
 1.300  0.8282  144.3   0.620   37.0  0.1018   54.2  0.4593  176.9
 1.320  0.8289  143.7   0.612   36.5  0.1032   54.0  0.4609  176.7
 1.340  0.8297  143.2   0.604   35.9  0.1046   53.8  0.4624  176.4
 1.360  0.8306  142.6   0.596   35.3  0.1059   53.6  0.4640  176.2
 1.380  0.8316  142.1   0.588   34.7  0.1073   53.4  0.4656  175.9
 1.400  0.8326  141.5   0.580   34.1  0.1087   53.2  0.4672  175.7
 1.420  0.8332  141.0   0.572   33.4  0.1101   52.9  0.4685  175.5
 1.440  0.8338  140.5   0.565   32.6  0.1115   52.7  0.4698  175.2
 1.460  0.8345  140.1   0.558   31.9  0.1129   52.5  0.4711  175.0
 1.480  0.8352  139.6   0.550   31.1  0.1143   52.2  0.4725  174.7
 1.500  0.8360  139.1   0.543   30.3  0.1157   52.0  0.4738  174.5
 1.520  0.8359  138.5   0.538   29.8  0.1171   51.7  0.4752  174.3
 1.540  0.8360  137.9   0.532   29.3  0.1184   51.5  0.4766  174.1
 1.560  0.8361  137.4   0.527   28.7  0.1198   51.3  0.4780  173.8
 1.580  0.8363  136.8   0.522   28.2  0.1211   51.0  0.4794  173.6
 1.600  0.8366  136.2   0.517   27.6  0.1225   50.8  0.4808  173.4
 1.620  0.8367  135.6   0.511   27.0  0.1238   50.5  0.4822  173.1
 1.640  0.8368  134.9   0.506   26.4  0.1252   50.3  0.4835  172.8
 1.660  0.8371  134.3   0.500   25.8  0.1265   50.1  0.4849  172.6
 1.680  0.8375  133.6   0.494   25.1  0.1279   49.8  0.4863  172.3
 1.700  0.8380  133.0   0.489   24.5  0.1292   49.6  0.4877  172.0
 1.720  0.8383  132.5   0.483   24.0  0.1305   49.4  0.4894  171.7
 1.740  0.8387  132.1   0.477   23.5  0.1318   49.1  0.4911  171.5
 1.760  0.8391  131.6   0.471   23.0  0.1332   48.9  0.4928  171.2
 1.780  0.8396  131.2   0.465   22.5  0.1345   48.6  0.4946  171.0
 1.800  0.8401  130.7   0.459   22.0  0.1358   48.4  0.4963  170.7
 1.820  0.8403  130.2   0.454   21.6  0.1370   48.0  0.4976  170.4
 1.840  0.8406  129.7   0.450   21.3  0.1382   47.7  0.4989  170.1
 1.860  0.8410  129.3   0.445   20.9  0.1394   47.4  0.5002  169.7
 1.880  0.8414  128.8   0.441   20.5  0.1406   47.0  0.5015  169.4
 1.900  0.8419  128.3   0.436   20.1  0.1418   46.7  0.5029  169.1
 1.920  0.8419  127.7   0.431   19.6  0.1431   46.4  0.5041  168.9
 1.940  0.8421  127.1   0.426   19.1  0.1443   46.2  0.5052  168.7
 1.960  0.8423  126.5   0.421   18.6  0.1456   45.9  0.5064  168.4
 1.980  0.8426  125.9   0.417   18.0  0.1468   45.7  0.5076  168.2
 2.000  0.8430  125.3   0.412   17.5  0.1481   45.4  0.5088  168.0
 2.020  0.8436  124.8   0.409   17.1  0.1493   45.1  0.5106  167.7
 2.040  0.8443  124.4   0.406   16.7  0.1504   44.8  0.5125  167.3
 2.060  0.8450  123.9   0.403   16.3  0.1516   44.5  0.5143  167.0
 2.080  0.8458  123.4   0.400   15.9  0.1528   44.2  0.5162  166.7
 2.100  0.8466  122.9   0.397   15.5  0.1540   43.9  0.5181  166.3
 2.120  0.8475  122.5   0.394   15.1  0.1551   43.6  0.5200  166.0
 2.140  0.8485  122.0   0.391   14.7  0.1563   43.3  0.5219  165.7
 2.160  0.8495  121.5   0.388   14.3  0.1575   43.0  0.5239  165.3
 2.180  0.8506  121.1   0.385   13.8  0.1587   42.8  0.5258  165.0
 2.200  0.8517  120.6   0.382   13.4  0.1599   42.5  0.5278  164.7
 2.220  0.8517  120.1   0.379   13.1  0.1610   42.2  0.5291  164.4
 2.240  0.8517  119.6   0.376   12.8  0.1621   41.9  0.5305  164.1
 2.260  0.8519  119.1   0.372   12.6  0.1632   41.6  0.5319  163.8
 2.280  0.8520  118.6   0.369   12.3  0.1643   41.3  0.5333  163.5
 2.300  0.8523  118.0   0.366   12.0  0.1654   41.0  0.5347  163.2
 2.320  0.8526  117.5   0.363   11.7  0.1665   40.7  0.5361  162.9
 2.340  0.8530  117.0   0.359   11.4  0.1676   40.4  0.5375  162.7
 2.360  0.8535  116.5   0.356   11.0  0.1687   40.1  0.5390  162.4
 2.380  0.8540  116.0   0.353   10.7  0.1699   39.9  0.5404  162.1
 2.400  0.8546  115.5   0.350   10.4  0.1710   39.6  0.5419  161.8
 2.420  0.8551  115.0   0.347   10.1  0.1720   39.3  0.5434  161.5
 2.440  0.8556  114.6   0.345    9.8  0.1730   39.0  0.5450  161.1
 2.460  0.8562  114.1   0.342    9.5  0.1740   38.7  0.5465  160.8
 2.480  0.8569  113.6   0.339    9.2  0.1749   38.4  0.5481  160.5
 2.500  0.8576  113.1   0.337    8.9  0.1759   38.1  0.5497  160.1
 2.520  0.8583  112.7   0.334    8.6  0.1769   37.8  0.5513  159.8
 2.540  0.8592  112.2   0.332    8.3  0.1780   37.5  0.5529  159.5
 2.560  0.8601  111.7   0.329    8.0  0.1790   37.3  0.5546  159.1
 2.580  0.8610  111.3   0.327    7.6  0.1800   37.0  0.5562  158.8
 2.600  0.8620  110.8   0.324    7.3  0.1810   36.7  0.5579  158.5
 2.620  0.8621  110.4   0.322    7.1  0.1819   36.4  0.5592  158.2
 2.640  0.8622  109.9   0.320    6.9  0.1828   36.1  0.5605  157.9
 2.660  0.8623  109.5   0.319    6.7  0.1837   35.8  0.5618  157.6
 2.680  0.8625  109.0   0.317    6.5  0.1846   35.5  0.5631  157.3
 2.700  0.8628  108.6   0.315    6.2  0.1855   35.2  0.5644  157.0
 2.720  0.8631  108.2   0.313    6.0  0.1865   34.9  0.5658  156.7
 2.740  0.8634  107.7   0.311    5.8  0.1874   34.6  0.5671  156.5
 2.760  0.8638  107.3   0.310    5.6  0.1883   34.3  0.5685  156.2
 2.780  0.8643  106.8   0.308    5.3  0.1893   34.0  0.5699  155.9
 2.800  0.8648  106.4   0.306    5.1  0.1902   33.7  0.5713  155.6
 2.820  0.8650  106.0   0.304    5.0  0.1911   33.4  0.5727  155.3
 2.840  0.8652  105.6   0.302    4.9  0.1920   33.1  0.5741  154.9
 2.860  0.8655  105.2   0.300    4.8  0.1929   32.9  0.5756  154.6
 2.880  0.8659  104.8   0.298    4.7  0.1937   32.6  0.5770  154.3
 2.900  0.8662  104.3   0.296    4.6  0.1946   32.3  0.5785  154.0
 2.920  0.8667  103.9   0.294    4.5  0.1955   32.1  0.5800  153.7
 2.940  0.8671  103.5   0.292    4.4  0.1965   31.8  0.5815  153.3
 2.960  0.8676  103.1   0.290    4.3  0.1974   31.5  0.5831  153.0
 2.980  0.8682  102.7   0.288    4.2  0.1983   31.3  0.5846  152.7
 3.000  0.8688  102.3   0.286    4.1  0.1992   31.0  0.5862  152.4
 3.100  0.8684  100.5   0.281    3.6  0.2026   29.5  0.5918  150.8
 3.200  0.8689   98.6   0.276    3.1  0.2060   28.1  0.5978  149.3
 3.300  0.8703   96.8   0.270    2.5  0.2097   26.8  0.6043  147.8
 3.400  0.8726   94.9   0.265    2.0  0.2134   25.5  0.6111  146.3
 3.500  0.8758   93.1   0.260    1.4  0.2172   24.2  0.6184  144.9
 3.600  0.8757   91.5   0.258    1.3  0.2200   22.9  0.6234  143.5
 3.700  0.8762   90.0   0.255    1.2  0.2228   21.6  0.6287  142.0
 3.800  0.8774   88.4   0.253    1.1  0.2258   20.4  0.6345  140.6
 3.900  0.8793   86.8   0.250    1.0  0.2289   19.2  0.6406  139.2
 4.000  0.8818   85.3   0.248    0.9  0.2321   18.0  0.6471  137.9
 4.100  0.8812   83.9   0.247    0.6  0.2339   16.8  0.6501  136.6
 4.200  0.8812   82.5   0.246    0.3  0.2359   15.7  0.6534  135.3
 4.300  0.8817   81.0   0.244    0.0  0.2379   14.5  0.6571  134.0
 4.400  0.8828   79.6   0.243   -0.3  0.2400   13.4  0.6611  132.7
 4.500  0.8844   78.2   0.242   -0.6  0.2422   12.3  0.6654  131.4
 4.600  0.8834   77.1   0.244   -0.5  0.2444   11.4  0.6669  130.2
 4.700  0.8827   76.1   0.245   -0.4  0.2466   10.6  0.6688  129.1
 4.800  0.8824   75.0   0.247   -0.4  0.2488    9.7  0.6709  127.9
 4.900  0.8823   74.0   0.248   -0.3  0.2511    8.9  0.6733  126.7
 5.000  0.8825   72.9   0.250   -0.2  0.2535    8.1  0.6759  125.6
 5.100  0.8817   71.9   0.252   -0.9  0.2559    7.0  0.6785  124.6
 5.200  0.8811   70.9   0.253   -1.5  0.2585    5.8  0.6812  123.7
 5.300  0.8809   69.9   0.255   -2.2  0.2611    4.7  0.6842  122.8
 5.400  0.8808   68.9   0.256   -2.9  0.2638    3.7  0.6873  121.8
 5.500  0.8811   67.9   0.258   -3.5  0.2666    2.6  0.6906  120.9
 5.600  0.8821   67.0   0.260   -4.0  0.2678    1.6  0.6918  120.0
 5.700  0.8834   66.1   0.261   -4.4  0.2691    0.5  0.6932  119.0
 5.800  0.8849   65.3   0.263   -4.8  0.2705   -0.5  0.6947  118.1
 5.900  0.8865   64.4   0.264   -5.3  0.2720   -1.5  0.6965  117.1
 6.000  0.8884   63.5   0.266   -5.7  0.2736   -2.5  0.6984  116.2
!
!  f       NFmin   Gammaopt  rn/50
! GHz       dB    MAG  ANG    -
!
! noise parameter not available yet for this operation point!
!
! (c) 2016  Infineon Technologies AG, Munich
