! Infineon Technologies  Discrete & RF Semiconductors
! BFP181
! VCE = 4.0 V,  IC =  12 mA
! Common Emitter S-Parameters:                            Jan 2016
# GHz  S  MA  R  50
!  f         S11            S21            S12            S22
! GHz     MAG   ANG      MAG   ANG      MAG   ANG      MAG   ANG
 0.010  0.7183   -3.2  22.991  177.4  0.0011   87.7  0.9774   -0.9
 0.015  0.7184   -4.9  22.969  176.6  0.0020   82.0  0.9780   -1.6
 0.020  0.7191   -6.5  22.953  175.7  0.0029   79.8  0.9787   -2.3
 0.025  0.7167   -8.0  22.899  174.6  0.0035   80.8  0.9764   -2.9
 0.030  0.7149   -9.5  22.854  173.4  0.0041   81.6  0.9742   -3.5
 0.035  0.7135  -11.0  22.817  172.3  0.0047   82.1  0.9721   -4.0
 0.040  0.7126  -12.6  22.790  171.2  0.0054   82.5  0.9702   -4.6
 0.045  0.7123  -14.1  22.771  170.0  0.0060   82.8  0.9683   -5.2
 0.050  0.7124  -15.6  22.762  168.9  0.0066   83.1  0.9665   -5.8
 0.055  0.7076  -17.0  22.615  167.9  0.0071   81.6  0.9634   -6.3
 0.060  0.7033  -18.5  22.475  166.9  0.0077   80.4  0.9604   -6.9
 0.065  0.6994  -20.0  22.342  166.0  0.0082   79.3  0.9575   -7.4
 0.070  0.6960  -21.5  22.215  165.0  0.0088   78.4  0.9547   -8.0
 0.075  0.6931  -23.0  22.095  163.9  0.0093   77.5  0.9520   -8.5
 0.080  0.6906  -24.5  21.983  162.9  0.0099   76.8  0.9494   -9.1
 0.085  0.6887  -26.0  21.877  161.9  0.0104   76.1  0.9468   -9.6
 0.090  0.6872  -27.5  21.779  160.8  0.0110   75.5  0.9444  -10.2
 0.095  0.6862  -29.1  21.688  159.8  0.0115   75.0  0.9420  -10.7
 0.100  0.6857  -30.6  21.604  158.7  0.0121   74.5  0.9397  -11.3
 0.105  0.6803  -32.0  21.457  157.8  0.0126   73.8  0.9348  -11.7
 0.110  0.6753  -33.4  21.315  156.9  0.0130   73.2  0.9299  -12.2
 0.115  0.6708  -34.8  21.180  155.9  0.0135   72.6  0.9251  -12.6
 0.120  0.6666  -36.2  21.049  155.0  0.0139   72.1  0.9204  -13.1
 0.125  0.6629  -37.7  20.925  154.0  0.0144   71.5  0.9157  -13.5
 0.130  0.6595  -39.1  20.807  153.0  0.0148   71.1  0.9111  -14.0
 0.135  0.6567  -40.6  20.695  152.0  0.0153   70.6  0.9065  -14.5
 0.140  0.6542  -42.1  20.590  151.0  0.0158   70.2  0.9020  -14.9
 0.145  0.6522  -43.6  20.490  150.0  0.0162   69.8  0.8976  -15.4
 0.150  0.6507  -45.1  20.397  149.0  0.0167   69.4  0.8932  -15.9
 0.155  0.6451  -46.3  20.232  148.2  0.0171   68.9  0.8883  -16.3
 0.160  0.6399  -47.5  20.070  147.4  0.0175   68.4  0.8835  -16.6
 0.165  0.6349  -48.8  19.913  146.6  0.0179   67.9  0.8787  -17.0
 0.170  0.6302  -50.0  19.759  145.8  0.0182   67.5  0.8739  -17.3
 0.175  0.6259  -51.3  19.609  145.0  0.0186   67.1  0.8691  -17.7
 0.180  0.6218  -52.6  19.463  144.2  0.0190   66.7  0.8644  -18.1
 0.185  0.6181  -53.9  19.322  143.3  0.0194   66.3  0.8598  -18.4
 0.190  0.6147  -55.2  19.185  142.5  0.0198   65.9  0.8551  -18.8
 0.195  0.6116  -56.5  19.052  141.6  0.0202   65.5  0.8506  -19.2
 0.200  0.6089  -57.9  18.924  140.7  0.0206   65.2  0.8460  -19.6
 0.220  0.5912  -62.3  18.237  137.9  0.0219   63.4  0.8270  -20.7
 0.240  0.5771  -67.0  17.596  135.0  0.0232   61.8  0.8083  -21.9
 0.260  0.5630  -71.4  17.004  132.3  0.0246   60.3  0.7904  -22.9
 0.280  0.5479  -75.7  16.444  129.9  0.0259   58.8  0.7731  -23.6
 0.300  0.5360  -80.1  15.914  127.4  0.0273   57.4  0.7559  -24.4
 0.320  0.5212  -83.4  15.373  125.6  0.0281   56.6  0.7417  -24.9
 0.340  0.5083  -86.9  14.850  123.6  0.0289   55.9  0.7275  -25.3
 0.360  0.4973  -90.6  14.345  121.5  0.0297   55.2  0.7133  -25.8
 0.380  0.4884  -94.4  13.861  119.2  0.0305   54.6  0.6992  -26.4
 0.400  0.4818  -98.3  13.400  116.8  0.0313   54.0  0.6852  -26.9
 0.420  0.4708 -101.1  12.978  115.4  0.0320   53.6  0.6752  -27.1
 0.440  0.4609 -104.1  12.565  114.0  0.0327   53.2  0.6652  -27.4
 0.450  0.4565 -105.6  12.361  113.2  0.0330   52.9  0.6602  -27.5
 0.460  0.4524 -107.1  12.160  112.4  0.0333   52.8  0.6552  -27.7
 0.480  0.4452 -110.3  11.764  110.8  0.0340   52.4  0.6453  -27.9
 0.500  0.4394 -113.6  11.379  109.0  0.0347   52.0  0.6353  -28.2
 0.520  0.4320 -116.0  11.077  107.9  0.0354   51.9  0.6279  -28.4
 0.540  0.4254 -118.5  10.780  106.6  0.0361   51.7  0.6205  -28.5
 0.560  0.4195 -121.0  10.488  105.4  0.0369   51.6  0.6131  -28.7
 0.580  0.4146 -123.6  10.202  104.0  0.0376   51.5  0.6057  -28.8
 0.600  0.4105 -126.3   9.921  102.6  0.0383   51.4  0.5983  -29.0
 0.620  0.4050 -128.4   9.659  101.7  0.0388   51.2  0.5931  -29.1
 0.640  0.4001 -130.6   9.400  100.7  0.0394   50.9  0.5879  -29.2
 0.660  0.3958 -132.9   9.143   99.6  0.0399   50.7  0.5828  -29.2
 0.680  0.3921 -135.2   8.890   98.5  0.0405   50.5  0.5776  -29.3
 0.700  0.3891 -137.5   8.641   97.3  0.0410   50.3  0.5724  -29.4
 0.720  0.3861 -139.5   8.460   96.4  0.0415   50.4  0.5684  -29.5
 0.740  0.3835 -141.4   8.280   95.5  0.0420   50.5  0.5644  -29.6
 0.760  0.3813 -143.4   8.103   94.6  0.0426   50.7  0.5604  -29.6
 0.780  0.3797 -145.5   7.928   93.6  0.0431   50.8  0.5564  -29.7
 0.800  0.3785 -147.5   7.756   92.6  0.0436   50.9  0.5524  -29.8
 0.820  0.3768 -149.2   7.599   91.9  0.0442   50.8  0.5494  -29.9
 0.840  0.3753 -150.9   7.443   91.1  0.0449   50.7  0.5464  -30.0
 0.860  0.3743 -152.6   7.289   90.4  0.0455   50.6  0.5435  -30.2
 0.880  0.3735 -154.3   7.136   89.5  0.0462   50.5  0.5405  -30.3
 0.900  0.3731 -156.0   6.984   88.7  0.0468   50.4  0.5375  -30.4
 0.920  0.3715 -157.7   6.848   88.0  0.0473   50.4  0.5352  -30.5
 0.940  0.3703 -159.4   6.714   87.2  0.0478   50.4  0.5329  -30.6
 0.960  0.3694 -161.1   6.580   86.5  0.0482   50.5  0.5307  -30.8
 0.980  0.3688 -162.8   6.448   85.6  0.0487   50.5  0.5284  -30.9
 1.000  0.3685 -164.5   6.317   84.8  0.0492   50.5  0.5261  -31.0
 1.020  0.3675 -165.9   6.215   84.1  0.0500   50.5  0.5243  -31.1
 1.040  0.3666 -167.2   6.113   83.5  0.0508   50.5  0.5226  -31.3
 1.060  0.3660 -168.6   6.012   82.8  0.0516   50.5  0.5208  -31.4
 1.080  0.3656 -170.0   5.913   82.0  0.0524   50.5  0.5191  -31.6
 1.100  0.3654 -171.4   5.814   81.3  0.0532   50.5  0.5173  -31.7
 1.120  0.3648 -172.7   5.717   80.7  0.0537   50.6  0.5160  -31.9
 1.140  0.3644 -174.0   5.621   80.2  0.0543   50.6  0.5146  -32.0
 1.160  0.3642 -175.2   5.526   79.6  0.0548   50.7  0.5133  -32.2
 1.180  0.3642 -176.5   5.431   78.9  0.0554   50.7  0.5119  -32.3
 1.200  0.3643 -177.8   5.337   78.3  0.0559   50.8  0.5106  -32.5
 1.220  0.3649 -179.0   5.254   77.7  0.0564   50.8  0.5092  -32.7
 1.240  0.3656  179.9   5.172   77.1  0.0569   50.7  0.5078  -32.9
 1.260  0.3665  178.8   5.091   76.5  0.0575   50.7  0.5064  -33.0
 1.280  0.3675  177.6   5.010   75.9  0.0580   50.6  0.5051  -33.2
 1.300  0.3687  176.5   4.930   75.2  0.0585   50.6  0.5037  -33.4
 1.320  0.3686  175.3   4.866   74.7  0.0592   50.7  0.5026  -33.6
 1.340  0.3686  174.0   4.803   74.1  0.0599   50.8  0.5016  -33.8
 1.360  0.3688  172.8   4.740   73.6  0.0605   50.8  0.5005  -33.9
 1.380  0.3692  171.5   4.678   73.0  0.0612   50.9  0.4995  -34.1
 1.400  0.3698  170.3   4.616   72.4  0.0619   51.0  0.4984  -34.3
 1.420  0.3703  169.4   4.555   71.8  0.0625   51.0  0.4976  -34.5
 1.440  0.3709  168.4   4.495   71.2  0.0631   50.9  0.4967  -34.7
 1.460  0.3717  167.5   4.435   70.5  0.0638   50.9  0.4959  -34.8
 1.480  0.3725  166.5   4.376   69.9  0.0644   50.8  0.4951  -35.0
 1.500  0.3734  165.6   4.317   69.2  0.0650   50.8  0.4943  -35.2
 1.520  0.3739  164.5   4.263   68.7  0.0656   50.7  0.4935  -35.4
 1.540  0.3745  163.4   4.209   68.2  0.0662   50.6  0.4927  -35.7
 1.560  0.3753  162.3   4.155   67.7  0.0667   50.6  0.4919  -35.9
 1.580  0.3762  161.2   4.102   67.2  0.0673   50.5  0.4912  -36.2
 1.600  0.3772  160.1   4.049   66.7  0.0679   50.4  0.4904  -36.4
 1.620  0.3785  159.2   4.001   66.2  0.0686   50.4  0.4896  -36.6
 1.640  0.3799  158.4   3.954   65.6  0.0692   50.4  0.4888  -36.9
 1.660  0.3814  157.5   3.907   65.1  0.0699   50.3  0.4880  -37.1
 1.680  0.3829  156.6   3.860   64.5  0.0705   50.3  0.4873  -37.4
 1.700  0.3846  155.8   3.814   63.9  0.0712   50.3  0.4865  -37.6
 1.720  0.3858  154.9   3.773   63.4  0.0718   50.3  0.4856  -37.8
 1.740  0.3871  153.9   3.732   62.9  0.0725   50.2  0.4848  -38.1
 1.760  0.3884  153.0   3.691   62.4  0.0731   50.2  0.4840  -38.3
 1.780  0.3899  152.1   3.651   61.8  0.0738   50.1  0.4831  -38.6
 1.800  0.3915  151.2   3.611   61.3  0.0744   50.1  0.4823  -38.8
 1.820  0.3925  150.5   3.573   60.9  0.0750   49.9  0.4815  -39.1
 1.840  0.3936  149.7   3.534   60.4  0.0756   49.7  0.4808  -39.3
 1.860  0.3947  149.0   3.496   59.9  0.0762   49.6  0.4800  -39.6
 1.880  0.3959  148.3   3.459   59.5  0.0768   49.4  0.4792  -39.8
 1.900  0.3971  147.6   3.421   59.0  0.0774   49.2  0.4785  -40.1
 1.920  0.3980  146.7   3.384   58.5  0.0780   49.1  0.4780  -40.4
 1.940  0.3990  145.9   3.348   58.1  0.0786   49.0  0.4775  -40.6
 1.960  0.4001  145.0   3.311   57.6  0.0793   49.0  0.4770  -40.9
 1.980  0.4013  144.2   3.275   57.1  0.0799   48.9  0.4765  -41.1
 2.000  0.4026  143.3   3.239   56.6  0.0805   48.8  0.4760  -41.4
 2.020  0.4040  142.6   3.209   56.1  0.0811   48.7  0.4752  -41.7
 2.040  0.4054  141.9   3.179   55.7  0.0817   48.6  0.4744  -42.0
 2.060  0.4069  141.2   3.150   55.2  0.0824   48.5  0.4737  -42.3
 2.080  0.4084  140.5   3.120   54.7  0.0830   48.5  0.4729  -42.5
 2.100  0.4100  139.8   3.091   54.2  0.0836   48.4  0.4722  -42.8
 2.120  0.4117  139.1   3.062   53.7  0.0842   48.3  0.4715  -43.1
 2.140  0.4134  138.4   3.033   53.2  0.0848   48.2  0.4708  -43.4
 2.160  0.4152  137.7   3.005   52.7  0.0855   48.2  0.4701  -43.7
 2.180  0.4170  137.1   2.977   52.1  0.0861   48.1  0.4694  -44.0
 2.200  0.4189  136.4   2.949   51.6  0.0867   48.0  0.4687  -44.3
 2.220  0.4204  135.7   2.924   51.2  0.0874   47.9  0.4680  -44.6
 2.240  0.4220  135.0   2.899   50.8  0.0880   47.7  0.4673  -44.9
 2.260  0.4236  134.3   2.875   50.3  0.0887   47.6  0.4666  -45.2
 2.280  0.4253  133.6   2.851   49.9  0.0893   47.5  0.4659  -45.5
 2.300  0.4270  132.9   2.826   49.4  0.0900   47.4  0.4653  -45.8
 2.320  0.4289  132.3   2.802   49.0  0.0907   47.3  0.4646  -46.1
 2.340  0.4307  131.6   2.778   48.5  0.0913   47.1  0.4640  -46.4
 2.360  0.4327  130.9   2.755   48.1  0.0920   47.0  0.4634  -46.7
 2.380  0.4347  130.3   2.731   47.6  0.0926   46.9  0.4628  -47.0
 2.400  0.4367  129.6   2.708   47.1  0.0933   46.8  0.4622  -47.3
 2.420  0.4389  129.0   2.686   46.7  0.0939   46.7  0.4612  -47.6
 2.440  0.4412  128.4   2.664   46.3  0.0944   46.5  0.4603  -47.9
 2.460  0.4435  127.8   2.642   45.9  0.0950   46.4  0.4594  -48.2
 2.480  0.4459  127.2   2.620   45.4  0.0955   46.3  0.4584  -48.5
 2.500  0.4483  126.6   2.598   45.0  0.0961   46.2  0.4575  -48.8
 2.520  0.4508  126.0   2.577   44.5  0.0967   46.1  0.4566  -49.1
 2.540  0.4533  125.4   2.555   44.1  0.0972   45.9  0.4558  -49.5
 2.560  0.4558  124.8   2.534   43.6  0.0978   45.8  0.4549  -49.8
 2.580  0.4585  124.3   2.513   43.2  0.0983   45.7  0.4540  -50.1
 2.600  0.4611  123.7   2.492   42.7  0.0989   45.6  0.4532  -50.4
 2.620  0.4626  123.1   2.473   42.3  0.0995   45.5  0.4525  -50.7
 2.640  0.4642  122.6   2.454   41.8  0.1001   45.3  0.4519  -51.1
 2.660  0.4658  122.0   2.435   41.4  0.1007   45.2  0.4513  -51.4
 2.680  0.4674  121.5   2.417   40.9  0.1013   45.0  0.4507  -51.7
 2.700  0.4691  121.0   2.398   40.4  0.1018   44.9  0.4501  -52.1
 2.720  0.4708  120.4   2.380   40.0  0.1024   44.7  0.4495  -52.4
 2.740  0.4726  119.9   2.362   39.5  0.1030   44.6  0.4489  -52.8
 2.760  0.4744  119.3   2.344   39.0  0.1036   44.5  0.4484  -53.1
 2.780  0.4762  118.8   2.327   38.5  0.1042   44.3  0.4478  -53.5
 2.800  0.4781  118.3   2.309   38.0  0.1048   44.2  0.4473  -53.8
 2.820  0.4799  117.7   2.293   37.6  0.1054   44.1  0.4464  -54.1
 2.840  0.4818  117.2   2.277   37.2  0.1059   43.9  0.4455  -54.4
 2.860  0.4837  116.6   2.261   36.8  0.1065   43.8  0.4446  -54.8
 2.880  0.4856  116.1   2.246   36.4  0.1071   43.7  0.4438  -55.1
 2.900  0.4876  115.5   2.230   36.0  0.1076   43.6  0.4429  -55.4
 2.920  0.4896  115.0   2.215   35.6  0.1082   43.5  0.4421  -55.8
 2.940  0.4917  114.5   2.199   35.1  0.1088   43.3  0.4413  -56.1
 2.960  0.4938  113.9   2.184   34.7  0.1094   43.2  0.4405  -56.4
 2.980  0.4960  113.4   2.169   34.2  0.1099   43.1  0.4397  -56.8
 3.000  0.4982  112.9   2.154   33.8  0.1105   43.0  0.4389  -57.1
 3.100  0.5061  110.6   2.084   32.0  0.1133   42.2  0.4350  -58.9
 3.200  0.5147  108.4   2.017   30.1  0.1162   41.5  0.4315  -60.8
 3.300  0.5240  106.3   1.952   28.0  0.1190   40.7  0.4284  -62.7
 3.400  0.5341  104.3   1.889   25.8  0.1219   40.1  0.4259  -64.6
 3.500  0.5448  102.3   1.830   23.5  0.1248   39.4  0.4238  -66.5
 3.600  0.5530  100.5   1.777   21.8  0.1275   38.6  0.4197  -68.5
 3.700  0.5618   98.7   1.726   20.0  0.1303   37.7  0.4161  -70.6
 3.800  0.5711   97.0   1.676   18.1  0.1331   37.0  0.4131  -72.7
 3.900  0.5808   95.3   1.628   16.0  0.1360   36.2  0.4106  -74.8
 4.000  0.5911   93.7   1.583   13.9  0.1388   35.5  0.4087  -76.9
 4.100  0.5974   92.1   1.541   12.3  0.1412   34.6  0.4051  -79.1
 4.200  0.6043   90.5   1.500   10.5  0.1437   33.8  0.4022  -81.4
 4.300  0.6115   88.9   1.460    8.7  0.1462   33.0  0.3999  -83.7
 4.400  0.6193   87.4   1.422    6.7  0.1487   32.2  0.3982  -86.0
 4.500  0.6274   85.9   1.386    4.7  0.1512   31.5  0.3972  -88.3
 4.600  0.6336   84.6   1.352    3.2  0.1537   30.8  0.3948  -90.5
 4.700  0.6402   83.3   1.320    1.7  0.1561   30.1  0.3930  -92.7
 4.800  0.6471   82.0   1.288    0.0  0.1586   29.4  0.3918  -95.0
 4.900  0.6542   80.8   1.257   -1.7  0.1612   28.7  0.3912  -97.2
 5.000  0.6617   79.6   1.228   -3.5  0.1637   28.1  0.3912  -99.5
 5.100  0.6662   78.5   1.200   -5.0  0.1664   27.3  0.3912 -101.9
 5.200  0.6708   77.4   1.173   -6.6  0.1692   26.5  0.3919 -104.2
 5.300  0.6758   76.4   1.147   -8.2  0.1720   25.8  0.3933 -106.6
 5.400  0.6809   75.3   1.121   -9.9  0.1748   25.1  0.3953 -108.9
 5.500  0.6863   74.3   1.097  -11.7  0.1777   24.4  0.3980 -111.2
 5.600  0.6916   73.3   1.074  -13.1  0.1801   23.5  0.3991 -113.6
 5.700  0.6971   72.3   1.052  -14.6  0.1826   22.7  0.4009 -116.0
 5.800  0.7028   71.3   1.031  -16.1  0.1851   21.8  0.4033 -118.3
 5.900  0.7088   70.3   1.011  -17.7  0.1877   21.0  0.4064 -120.6
 6.000  0.7149   69.3   0.991  -19.3  0.1903   20.2  0.4102 -122.9
!
!  f       NFmin   Gammaopt  rn/50
! GHz       dB    MAG  ANG    -
!
! noise parameter not available yet for this operation point!
!
! (c) 2016  Infineon Technologies AG, Munich
