! Infineon Technologies  Discrete & RF Semiconductors
! BFP193
! VCE = 2.0 V,  IC =  4.0 mA
! Common Emitter S-Parameters:                            Jan 2016
# GHz  S  MA  R  50
!  f         S11            S21            S12            S22
! GHz     MAG   ANG      MAG   ANG      MAG   ANG      MAG   ANG
 0.010  0.8521   -4.8  12.868  178.3  0.0038   89.8  0.9902   -2.0
 0.015  0.8513   -6.9  12.766  176.2  0.0060   86.7  0.9895   -3.0
 0.020  0.8516   -9.1  12.682  174.1  0.0082   85.3  0.9892   -4.0
 0.025  0.8468  -11.3  12.624  172.9  0.0100   82.9  0.9854   -5.0
 0.030  0.8433  -13.5  12.572  171.6  0.0119   81.2  0.9818   -5.9
 0.035  0.8410  -15.7  12.526  170.3  0.0137   80.0  0.9785   -6.9
 0.040  0.8399  -17.9  12.487  169.1  0.0156   79.1  0.9755   -7.9
 0.045  0.8401  -20.1  12.453  167.8  0.0174   78.4  0.9728   -8.9
 0.050  0.8416  -22.3  12.426  166.5  0.0193   77.8  0.9704   -9.9
 0.055  0.8346  -24.3  12.337  165.3  0.0210   76.3  0.9644  -10.8
 0.060  0.8286  -26.4  12.253  164.1  0.0228   75.0  0.9586  -11.6
 0.065  0.8237  -28.4  12.175  162.9  0.0245   74.0  0.9530  -12.5
 0.070  0.8199  -30.5  12.103  161.7  0.0263   73.0  0.9476  -13.4
 0.075  0.8172  -32.7  12.036  160.4  0.0281   72.2  0.9425  -14.3
 0.080  0.8156  -34.8  11.974  159.2  0.0299   71.5  0.9376  -15.2
 0.085  0.8152  -36.9  11.919  157.9  0.0316   70.9  0.9329  -16.1
 0.090  0.8159  -39.1  11.870  156.6  0.0334   70.3  0.9285  -17.0
 0.095  0.8177  -41.2  11.826  155.3  0.0352   69.8  0.9243  -18.0
 0.100  0.8206  -43.3  11.789  154.0  0.0370   69.3  0.9204  -18.9
 0.105  0.8129  -45.1  11.667  152.9  0.0383   68.0  0.9126  -19.6
 0.110  0.8061  -47.0  11.549  151.8  0.0396   66.7  0.9049  -20.3
 0.115  0.8001  -48.9  11.435  150.6  0.0410   65.5  0.8973  -21.0
 0.120  0.7950  -50.8  11.327  149.4  0.0424   64.4  0.8899  -21.7
 0.125  0.7908  -52.7  11.223  148.2  0.0437   63.4  0.8827  -22.4
 0.130  0.7875  -54.7  11.124  147.0  0.0451   62.4  0.8755  -23.2
 0.135  0.7852  -56.7  11.030  145.8  0.0465   61.5  0.8686  -24.0
 0.140  0.7837  -58.6  10.942  144.5  0.0479   60.7  0.8618  -24.7
 0.145  0.7832  -60.6  10.859  143.2  0.0494   59.9  0.8551  -25.5
 0.150  0.7837  -62.6  10.782  141.9  0.0508   59.1  0.8486  -26.3
 0.155  0.7788  -64.1  10.672  141.1  0.0518   58.2  0.8413  -26.8
 0.160  0.7744  -65.7  10.564  140.3  0.0528   57.4  0.8341  -27.3
 0.165  0.7706  -67.3  10.458  139.4  0.0538   56.6  0.8270  -27.9
 0.170  0.7674  -68.9  10.355  138.5  0.0548   55.8  0.8200  -28.4
 0.175  0.7648  -70.5  10.254  137.7  0.0558   55.1  0.8130  -29.0
 0.180  0.7628  -72.1  10.155  136.8  0.0568   54.3  0.8061  -29.5
 0.185  0.7614  -73.7  10.059  135.9  0.0578   53.6  0.7993  -30.1
 0.190  0.7606  -75.3   9.966  134.9  0.0589   53.0  0.7925  -30.7
 0.195  0.7605  -77.0   9.875  134.0  0.0599   52.3  0.7859  -31.3
 0.200  0.7609  -78.6   9.787  133.0  0.0610   51.7  0.7793  -31.9
 0.220  0.7425  -84.2   9.362  129.9  0.0640   49.1  0.7514  -33.6
 0.240  0.7316  -90.0   8.967  126.4  0.0672   46.8  0.7241  -35.4
 0.260  0.7222  -95.4   8.600  123.4  0.0699   44.9  0.6995  -36.9
 0.280  0.7125 -100.2   8.246  120.9  0.0720   43.3  0.6771  -38.3
 0.300  0.7081 -105.2   7.909  118.1  0.0742   41.8  0.6552  -39.7
 0.320  0.6971 -108.7   7.609  116.4  0.0755   40.4  0.6369  -40.4
 0.340  0.6888 -112.3   7.316  114.6  0.0768   39.1  0.6187  -41.2
 0.360  0.6833 -116.0   7.030  112.6  0.0781   37.8  0.6007  -42.0
 0.380  0.6807 -119.8   6.754  110.5  0.0795   36.5  0.5827  -42.8
 0.400  0.6810 -123.5   6.488  108.2  0.0809   35.3  0.5649  -43.7
 0.420  0.6742 -126.2   6.262  106.8  0.0818   34.6  0.5530  -44.1
 0.440  0.6690 -129.0   6.039  105.2  0.0827   33.9  0.5410  -44.6
 0.450  0.6669 -130.4   5.930  104.4  0.0832   33.5  0.5351  -44.8
 0.460  0.6653 -131.8   5.822  103.5  0.0836   33.2  0.5292  -45.0
 0.480  0.6633 -134.7   5.610  101.7  0.0846   32.5  0.5173  -45.5
 0.500  0.6629 -137.5   5.404   99.8  0.0855   31.8  0.5055  -46.0
 0.520  0.6590 -139.8   5.252   98.6  0.0860   31.3  0.4968  -46.4
 0.540  0.6561 -142.1   5.102   97.3  0.0865   30.8  0.4882  -46.7
 0.560  0.6543 -144.4   4.956   96.0  0.0870   30.3  0.4795  -47.1
 0.580  0.6535 -146.8   4.812   94.5  0.0876   29.9  0.4709  -47.5
 0.600  0.6539 -149.1   4.671   93.0  0.0881   29.4  0.4623  -47.9
 0.620  0.6524 -151.0   4.551   92.0  0.0884   29.1  0.4560  -48.2
 0.640  0.6517 -153.0   4.433   90.9  0.0888   28.9  0.4496  -48.5
 0.660  0.6517 -154.9   4.317   89.7  0.0891   28.6  0.4433  -48.8
 0.680  0.6524 -156.9   4.202   88.5  0.0895   28.4  0.4370  -49.2
 0.700  0.6539 -158.8   4.090   87.2  0.0898   28.1  0.4307  -49.5
 0.720  0.6520 -160.2   3.993   86.3  0.0901   28.0  0.4262  -49.7
 0.740  0.6504 -161.6   3.897   85.3  0.0905   27.9  0.4218  -50.0
 0.760  0.6493 -163.0   3.802   84.3  0.0908   27.7  0.4174  -50.3
 0.780  0.6485 -164.5   3.708   83.3  0.0912   27.6  0.4129  -50.5
 0.800  0.6482 -165.9   3.616   82.2  0.0915   27.5  0.4085  -50.8
 0.820  0.6465 -167.2   3.538   81.4  0.0919   27.5  0.4054  -51.0
 0.840  0.6451 -168.6   3.460   80.5  0.0922   27.5  0.4024  -51.3
 0.860  0.6440 -170.0   3.383   79.6  0.0926   27.4  0.3994  -51.5
 0.880  0.6434 -171.3   3.307   78.7  0.0929   27.4  0.3963  -51.8
 0.900  0.6431 -172.7   3.232   77.7  0.0933   27.4  0.3933  -52.0
 0.920  0.6429 -174.0   3.172   76.9  0.0936   27.4  0.3914  -52.3
 0.940  0.6429 -175.3   3.112   76.0  0.0938   27.4  0.3894  -52.6
 0.960  0.6433 -176.5   3.053   75.2  0.0941   27.4  0.3875  -52.9
 0.980  0.6441 -177.8   2.995   74.2  0.0943   27.4  0.3856  -53.2
 1.000  0.6451 -179.1   2.938   73.3  0.0946   27.4  0.3837  -53.5
 1.020  0.6459  179.7   2.889   72.6  0.0948   27.5  0.3817  -53.9
 1.040  0.6469  178.4   2.841   71.8  0.0950   27.6  0.3796  -54.2
 1.060  0.6483  177.2   2.794   71.0  0.0953   27.7  0.3776  -54.6
 1.080  0.6499  175.9   2.747   70.2  0.0955   27.8  0.3756  -54.9
 1.100  0.6519  174.7   2.700   69.4  0.0957   27.9  0.3736  -55.3
 1.120  0.6517  173.7   2.657   68.7  0.0960   28.1  0.3721  -55.7
 1.140  0.6516  172.7   2.614   67.9  0.0962   28.3  0.3707  -56.1
 1.160  0.6518  171.7   2.572   67.1  0.0965   28.5  0.3692  -56.5
 1.180  0.6521  170.7   2.530   66.3  0.0967   28.7  0.3678  -56.9
 1.200  0.6527  169.7   2.489   65.4  0.0970   28.9  0.3664  -57.3
 1.220  0.6523  168.7   2.452   64.8  0.0973   29.0  0.3650  -57.6
 1.240  0.6522  167.8   2.414   64.1  0.0977   29.1  0.3635  -58.0
 1.260  0.6522  166.8   2.378   63.4  0.0980   29.3  0.3621  -58.3
 1.280  0.6523  165.9   2.341   62.7  0.0984   29.4  0.3607  -58.7
 1.300  0.6527  164.9   2.305   62.0  0.0987   29.5  0.3593  -59.0
 1.320  0.6529  164.0   2.272   61.4  0.0990   29.7  0.3587  -59.4
 1.340  0.6532  163.1   2.240   60.7  0.0993   29.8  0.3581  -59.8
 1.360  0.6537  162.3   2.207   60.0  0.0995   30.0  0.3576  -60.3
 1.380  0.6544  161.4   2.176   59.3  0.0998   30.1  0.3570  -60.7
 1.400  0.6552  160.5   2.144   58.6  0.1001   30.3  0.3565  -61.1
 1.420  0.6563  159.7   2.119   58.0  0.1005   30.6  0.3553  -61.6
 1.440  0.6575  159.0   2.095   57.4  0.1009   30.9  0.3540  -62.0
 1.460  0.6588  158.2   2.071   56.7  0.1014   31.3  0.3528  -62.5
 1.480  0.6602  157.5   2.047   56.1  0.1018   31.6  0.3517  -62.9
 1.500  0.6618  156.7   2.023   55.4  0.1022   31.9  0.3505  -63.4
 1.520  0.6622  155.8   1.995   54.7  0.1027   32.1  0.3497  -63.8
 1.540  0.6627  154.9   1.967   54.1  0.1032   32.3  0.3488  -64.2
 1.560  0.6634  154.1   1.939   53.4  0.1038   32.4  0.3480  -64.7
 1.580  0.6643  153.2   1.912   52.6  0.1043   32.6  0.3473  -65.1
 1.600  0.6653  152.3   1.885   51.9  0.1048   32.8  0.3465  -65.5
 1.620  0.6669  151.5   1.864   51.3  0.1054   33.1  0.3457  -66.0
 1.640  0.6687  150.6   1.843   50.7  0.1059   33.3  0.3449  -66.4
 1.660  0.6706  149.8   1.822   50.0  0.1065   33.6  0.3442  -66.9
 1.680  0.6727  148.9   1.801   49.4  0.1070   33.8  0.3434  -67.3
 1.700  0.6749  148.1   1.781   48.7  0.1076   34.1  0.3427  -67.8
 1.720  0.6749  147.4   1.763   48.2  0.1082   34.2  0.3429  -68.2
 1.740  0.6749  146.7   1.746   47.6  0.1089   34.3  0.3430  -68.6
 1.760  0.6751  146.0   1.729   47.1  0.1095   34.5  0.3432  -69.1
 1.780  0.6753  145.3   1.712   46.5  0.1102   34.6  0.3435  -69.5
 1.800  0.6757  144.6   1.695   45.9  0.1108   34.7  0.3437  -69.9
 1.820  0.6771  144.0   1.678   45.3  0.1115   35.0  0.3434  -70.5
 1.840  0.6785  143.4   1.661   44.7  0.1122   35.2  0.3431  -71.1
 1.860  0.6801  142.7   1.645   44.1  0.1129   35.5  0.3429  -71.8
 1.880  0.6817  142.1   1.628   43.4  0.1136   35.7  0.3427  -72.4
 1.900  0.6834  141.5   1.612   42.8  0.1143   36.0  0.3426  -73.0
 1.920  0.6841  140.8   1.595   42.2  0.1150   36.1  0.3418  -73.5
 1.940  0.6848  140.1   1.578   41.7  0.1158   36.2  0.3409  -73.9
 1.960  0.6857  139.3   1.561   41.1  0.1165   36.4  0.3401  -74.4
 1.980  0.6867  138.6   1.544   40.5  0.1173   36.5  0.3394  -74.8
 2.000  0.6878  137.9   1.527   39.9  0.1180   36.6  0.3386  -75.3
 2.020  0.6882  137.3   1.513   39.4  0.1188   36.8  0.3384  -75.9
 2.040  0.6887  136.6   1.498   38.8  0.1196   37.0  0.3383  -76.4
 2.060  0.6892  136.0   1.484   38.3  0.1203   37.2  0.3381  -77.0
 2.080  0.6899  135.4   1.470   37.7  0.1211   37.3  0.3381  -77.5
 2.100  0.6906  134.7   1.457   37.1  0.1219   37.5  0.3380  -78.1
 2.120  0.6914  134.1   1.443   36.6  0.1227   37.7  0.3380  -78.7
 2.140  0.6923  133.5   1.430   36.0  0.1234   37.9  0.3380  -79.2
 2.160  0.6933  132.8   1.416   35.3  0.1242   38.1  0.3380  -79.8
 2.180  0.6944  132.2   1.403   34.7  0.1250   38.2  0.3381  -80.3
 2.200  0.6955  131.6   1.390   34.1  0.1258   38.4  0.3382  -80.9
 2.220  0.6966  130.9   1.379   33.6  0.1267   38.5  0.3379  -81.5
 2.240  0.6979  130.2   1.368   33.1  0.1277   38.7  0.3376  -82.1
 2.260  0.6992  129.6   1.357   32.6  0.1286   38.8  0.3374  -82.8
 2.280  0.7007  128.9   1.347   32.0  0.1296   38.9  0.3372  -83.4
 2.300  0.7022  128.2   1.336   31.5  0.1305   39.0  0.3370  -84.0
 2.320  0.7038  127.5   1.326   31.0  0.1315   39.1  0.3369  -84.6
 2.340  0.7056  126.9   1.315   30.4  0.1324   39.3  0.3368  -85.2
 2.360  0.7074  126.2   1.305   29.8  0.1334   39.4  0.3368  -85.9
 2.380  0.7093  125.6   1.295   29.3  0.1343   39.5  0.3368  -86.5
 2.400  0.7113  124.9   1.285   28.7  0.1353   39.6  0.3368  -87.1
 2.420  0.7122  124.3   1.274   28.2  0.1363   39.7  0.3365  -87.7
 2.440  0.7132  123.7   1.264   27.8  0.1373   39.7  0.3362  -88.3
 2.460  0.7143  123.1   1.253   27.3  0.1383   39.8  0.3359  -89.0
 2.480  0.7155  122.5   1.243   26.8  0.1393   39.9  0.3357  -89.6
 2.500  0.7167  121.9   1.232   26.4  0.1403   39.9  0.3356  -90.2
 2.520  0.7180  121.3   1.222   25.9  0.1414   40.0  0.3354  -90.8
 2.540  0.7194  120.7   1.212   25.4  0.1424   40.0  0.3353  -91.4
 2.560  0.7209  120.2   1.202   24.8  0.1434   40.1  0.3353  -92.1
 2.580  0.7224  119.6   1.192   24.3  0.1444   40.1  0.3353  -92.7
 2.600  0.7240  119.0   1.182   23.8  0.1454   40.2  0.3353  -93.3
 2.620  0.7248  118.5   1.174   23.4  0.1465   40.2  0.3353  -94.0
 2.640  0.7257  117.9   1.165   22.9  0.1476   40.2  0.3354  -94.6
 2.660  0.7267  117.4   1.157   22.4  0.1486   40.2  0.3355  -95.3
 2.680  0.7277  116.9   1.149   22.0  0.1497   40.2  0.3356  -95.9
 2.700  0.7288  116.3   1.140   21.5  0.1508   40.3  0.3358  -96.6
 2.720  0.7299  115.8   1.132   21.0  0.1519   40.3  0.3360  -97.3
 2.740  0.7311  115.3   1.124   20.5  0.1530   40.3  0.3363  -97.9
 2.760  0.7324  114.7   1.117   20.0  0.1540   40.3  0.3366  -98.6
 2.780  0.7337  114.2   1.109   19.5  0.1551   40.3  0.3370  -99.2
 2.800  0.7351  113.7   1.101   19.0  0.1562   40.3  0.3374  -99.9
 2.820  0.7357  113.2   1.093   18.6  0.1574   40.3  0.3375 -100.6
 2.840  0.7364  112.7   1.084   18.1  0.1586   40.3  0.3377 -101.3
 2.860  0.7372  112.2   1.076   17.7  0.1598   40.2  0.3380 -102.0
 2.880  0.7380  111.7   1.068   17.2  0.1610   40.2  0.3383 -102.7
 2.900  0.7388  111.2   1.060   16.7  0.1622   40.2  0.3386 -103.4
 2.920  0.7398  110.7   1.052   16.3  0.1634   40.2  0.3390 -104.1
 2.940  0.7407  110.2   1.044   15.8  0.1646   40.2  0.3395 -104.8
 2.960  0.7418  109.7   1.036   15.3  0.1658   40.1  0.3400 -105.5
 2.980  0.7429  109.2   1.029   14.8  0.1670   40.1  0.3405 -106.2
 3.000  0.7440  108.7   1.021   14.3  0.1682   40.1  0.3411 -106.9
 3.100  0.7479  106.4   0.986   12.6  0.1745   39.7  0.3418 -110.5
 3.200  0.7530  104.2   0.953   10.8  0.1808   39.3  0.3438 -114.1
 3.300  0.7593  101.9   0.920    8.8  0.1871   38.9  0.3471 -117.7
 3.400  0.7666   99.7   0.888    6.7  0.1935   38.6  0.3518 -121.1
 3.500  0.7751   97.6   0.858    4.5  0.1998   38.3  0.3577 -124.5
 3.600  0.7775   95.7   0.834    3.0  0.2068   37.4  0.3613 -128.3
 3.700  0.7808   93.7   0.811    1.4  0.2138   36.6  0.3666 -132.1
 3.800  0.7849   91.8   0.788   -0.3  0.2208   35.8  0.3733 -135.7
 3.900  0.7899   90.0   0.766   -2.0  0.2279   35.1  0.3815 -139.2
 4.000  0.7958   88.1   0.745   -3.9  0.2350   34.4  0.3910 -142.5
 4.100  0.7987   86.4   0.726   -5.1  0.2416   33.2  0.3964 -146.0
 4.200  0.8023   84.8   0.707   -6.4  0.2482   32.1  0.4032 -149.4
 4.300  0.8065   83.1   0.688   -7.7  0.2550   31.1  0.4113 -152.6
 4.400  0.8114   81.5   0.670   -9.1  0.2618   30.1  0.4207 -155.7
 4.500  0.8169   79.9   0.652  -10.6  0.2687   29.1  0.4313 -158.7
 4.600  0.8189   78.5   0.638  -11.5  0.2746   27.9  0.4374 -161.8
 4.700  0.8215   77.2   0.625  -12.5  0.2806   26.7  0.4448 -164.9
 4.800  0.8244   75.8   0.611  -13.5  0.2867   25.5  0.4534 -167.8
 4.900  0.8279   74.4   0.598  -14.5  0.2930   24.4  0.4631 -170.6
 5.000  0.8318   73.1   0.585  -15.6  0.2993   23.4  0.4739 -173.3
 5.100  0.8340   71.8   0.574  -16.3  0.3049   22.1  0.4791 -176.1
 5.200  0.8365   70.6   0.562  -17.0  0.3107   20.9  0.4854 -178.9
 5.300  0.8394   69.4   0.551  -17.7  0.3166   19.7  0.4928  178.4
 5.400  0.8428   68.1   0.540  -18.5  0.3226   18.5  0.5012  175.8
 5.500  0.8465   66.9   0.529  -19.3  0.3288   17.4  0.5107  173.3
 5.600  0.8453   65.7   0.522  -20.0  0.3339   16.1  0.5166  170.8
 5.700  0.8444   64.6   0.515  -20.6  0.3391   14.8  0.5235  168.5
 5.800  0.8438   63.4   0.508  -21.3  0.3445   13.5  0.5312  166.1
 5.900  0.8436   62.3   0.502  -22.1  0.3501   12.3  0.5398  163.9
 6.000  0.8438   61.1   0.495  -22.8  0.3558   11.1  0.5492  161.7
!
!  f       NFmin   Gammaopt  rn/50
! GHz       dB    MAG  ANG    -
!
! noise parameter not available yet for this operation point!
!
! (c) 2016  Infineon Technologies AG, Munich
