! Infineon Technologies  Discrete & RF Semiconductors
! BFP183
! VCE = 1.0 V,  IC =  4.0 mA
! Common Emitter S-Parameters:                            Jan 2016
# GHz  S  MA  R  50
!  f         S11            S21            S12            S22
! GHz     MAG   ANG      MAG   ANG      MAG   ANG      MAG   ANG
 0.010  0.8388   -3.0  12.508  178.3  0.0026   88.9  0.9939   -1.4
 0.015  0.8367   -4.6  12.458  177.5  0.0038   87.1  0.9914   -2.1
 0.020  0.8353   -6.3  12.410  176.6  0.0051   86.2  0.9891   -2.9
 0.025  0.8330   -7.8  12.403  175.5  0.0065   85.3  0.9874   -3.6
 0.030  0.8313   -9.4  12.399  174.5  0.0079   84.7  0.9859   -4.2
 0.035  0.8303  -10.9  12.400  173.4  0.0093   84.3  0.9844   -4.9
 0.040  0.8298  -12.5  12.405  172.4  0.0108   84.0  0.9832   -5.6
 0.045  0.8299  -14.0  12.415  171.3  0.0122   83.8  0.9820   -6.2
 0.050  0.8307  -15.6  12.428  170.3  0.0136   83.6  0.9810   -6.9
 0.055  0.8266  -17.1  12.369  169.4  0.0149   81.7  0.9774   -7.6
 0.060  0.8230  -18.6  12.313  168.5  0.0161   80.1  0.9740   -8.2
 0.065  0.8200  -20.1  12.260  167.5  0.0174   78.8  0.9707   -8.9
 0.070  0.8175  -21.6  12.210  166.6  0.0187   77.6  0.9675   -9.6
 0.075  0.8157  -23.1  12.164  165.6  0.0200   76.6  0.9645  -10.3
 0.080  0.8144  -24.7  12.121  164.7  0.0213   75.7  0.9616  -11.0
 0.085  0.8137  -26.2  12.082  163.7  0.0226   74.9  0.9589  -11.7
 0.090  0.8136  -27.7  12.046  162.8  0.0239   74.2  0.9563  -12.4
 0.095  0.8140  -29.3  12.013  161.8  0.0252   73.6  0.9538  -13.1
 0.100  0.8151  -30.8  11.984  160.8  0.0265   73.0  0.9515  -13.8
 0.105  0.8107  -32.2  11.915  160.0  0.0276   72.1  0.9474  -14.4
 0.110  0.8068  -33.6  11.848  159.1  0.0287   71.3  0.9434  -15.0
 0.115  0.8034  -35.0  11.784  158.2  0.0298   70.6  0.9395  -15.6
 0.120  0.8004  -36.4  11.722  157.3  0.0310   69.9  0.9358  -16.1
 0.125  0.7979  -37.8  11.664  156.5  0.0321   69.2  0.9321  -16.7
 0.130  0.7960  -39.2  11.608  155.6  0.0332   68.6  0.9285  -17.3
 0.135  0.7945  -40.7  11.555  154.7  0.0344   68.1  0.9250  -18.0
 0.140  0.7935  -42.1  11.505  153.7  0.0355   67.6  0.9216  -18.6
 0.145  0.7931  -43.6  11.458  152.8  0.0367   67.1  0.9184  -19.2
 0.150  0.7931  -45.0  11.414  151.9  0.0378   66.6  0.9152  -19.8
 0.155  0.7881  -46.4  11.350  151.1  0.0388   65.8  0.9101  -20.3
 0.160  0.7836  -47.7  11.287  150.3  0.0398   65.1  0.9050  -20.8
 0.165  0.7795  -49.1  11.227  149.5  0.0407   64.4  0.9000  -21.3
 0.170  0.7758  -50.5  11.170  148.7  0.0417   63.8  0.8951  -21.9
 0.175  0.7727  -51.9  11.114  147.9  0.0427   63.1  0.8903  -22.4
 0.180  0.7700  -53.3  11.061  147.0  0.0437   62.5  0.8855  -22.9
 0.185  0.7678  -54.8  11.011  146.2  0.0448   62.0  0.8809  -23.5
 0.190  0.7660  -56.2  10.962  145.3  0.0458   61.4  0.8763  -24.0
 0.195  0.7648  -57.7  10.916  144.5  0.0468   60.9  0.8717  -24.5
 0.200  0.7640  -59.1  10.873  143.6  0.0478   60.4  0.8673  -25.1
 0.220  0.7528  -63.7  10.537  140.9  0.0507   57.8  0.8463  -26.9
 0.240  0.7467  -68.4  10.227  137.9  0.0536   55.6  0.8262  -28.8
 0.260  0.7391  -72.9   9.938  135.3  0.0564   53.5  0.8064  -30.4
 0.280  0.7295  -77.3   9.664  132.9  0.0590   51.5  0.7864  -31.8
 0.300  0.7243  -81.8   9.406  130.4  0.0616   49.7  0.7669  -33.2
 0.320  0.7093  -85.4   9.122  128.4  0.0633   48.1  0.7491  -34.2
 0.340  0.6973  -89.2   8.850  126.2  0.0651   46.5  0.7316  -35.3
 0.360  0.6885  -93.1   8.591  123.9  0.0669   45.0  0.7144  -36.5
 0.380  0.6829  -97.1   8.347  121.5  0.0688   43.6  0.6974  -37.6
 0.400  0.6806 -101.1   8.119  118.9  0.0707   42.3  0.6808  -38.9
 0.420  0.6711 -104.1   7.881  117.4  0.0718   41.1  0.6661  -39.6
 0.440  0.6634 -107.2   7.648  115.7  0.0730   39.9  0.6514  -40.4
 0.450  0.6604 -108.8   7.534  114.9  0.0736   39.3  0.6442  -40.7
 0.460  0.6578 -110.4   7.422  114.0  0.0742   38.7  0.6369  -41.1
 0.480  0.6542 -113.6   7.204  112.2  0.0754   37.6  0.6226  -41.9
 0.500  0.6526 -116.8   6.993  110.2  0.0766   36.5  0.6083  -42.8
 0.520  0.6470 -119.2   6.818  108.9  0.0774   35.7  0.5974  -43.3
 0.540  0.6426 -121.7   6.647  107.6  0.0782   35.0  0.5866  -43.8
 0.560  0.6394 -124.2   6.480  106.2  0.0790   34.2  0.5759  -44.4
 0.580  0.6375 -126.8   6.317  104.7  0.0798   33.5  0.5652  -44.9
 0.600  0.6368 -129.3   6.158  103.2  0.0806   32.8  0.5545  -45.5
 0.620  0.6322 -131.4   6.003  102.1  0.0812   32.2  0.5463  -45.8
 0.640  0.6285 -133.5   5.850  101.0  0.0818   31.7  0.5382  -46.1
 0.660  0.6257 -135.7   5.699   99.8  0.0824   31.1  0.5300  -46.5
 0.680  0.6238 -137.8   5.551   98.5  0.0831   30.5  0.5219  -46.8
 0.700  0.6227 -140.0   5.406   97.2  0.0837   30.0  0.5138  -47.2
 0.720  0.6194 -141.9   5.295   96.2  0.0841   29.5  0.5075  -47.5
 0.740  0.6168 -143.8   5.186   95.1  0.0846   29.0  0.5012  -47.8
 0.760  0.6148 -145.7   5.078   94.0  0.0850   28.5  0.4949  -48.1
 0.780  0.6136 -147.6   4.973   92.8  0.0854   28.1  0.4887  -48.4
 0.800  0.6130 -149.5   4.870   91.6  0.0859   27.6  0.4824  -48.7
 0.820  0.6109 -151.1   4.774   90.8  0.0863   27.3  0.4771  -49.0
 0.840  0.6093 -152.6   4.680   89.9  0.0867   27.0  0.4718  -49.2
 0.860  0.6081 -154.2   4.587   89.0  0.0870   26.7  0.4666  -49.5
 0.880  0.6074 -155.8   4.495   88.0  0.0874   26.4  0.4613  -49.8
 0.900  0.6071 -157.4   4.404   87.0  0.0878   26.1  0.4561  -50.1
 0.920  0.6062 -159.0   4.321   86.1  0.0879   25.9  0.4517  -50.3
 0.940  0.6058 -160.6   4.240   85.3  0.0880   25.6  0.4473  -50.6
 0.960  0.6058 -162.1   4.159   84.3  0.0882   25.4  0.4429  -50.9
 0.980  0.6063 -163.7   4.079   83.4  0.0883   25.1  0.4386  -51.1
 1.000  0.6073 -165.3   4.001   82.4  0.0884   24.9  0.4342  -51.4
 1.020  0.6062 -166.6   3.936   81.6  0.0887   24.7  0.4309  -51.6
 1.040  0.6054 -168.0   3.871   80.8  0.0890   24.6  0.4277  -51.8
 1.060  0.6049 -169.3   3.808   80.0  0.0893   24.4  0.4245  -52.0
 1.080  0.6048 -170.7   3.745   79.1  0.0896   24.3  0.4212  -52.3
 1.100  0.6050 -172.0   3.683   78.2  0.0899   24.1  0.4180  -52.5
 1.120  0.6046 -173.2   3.623   77.5  0.0901   23.9  0.4155  -52.8
 1.140  0.6045 -174.4   3.563   76.8  0.0903   23.7  0.4131  -53.0
 1.160  0.6047 -175.6   3.503   76.1  0.0905   23.5  0.4107  -53.3
 1.180  0.6051 -176.8   3.444   75.4  0.0907   23.3  0.4082  -53.5
 1.200  0.6058 -178.0   3.386   74.6  0.0909   23.1  0.4058  -53.8
 1.220  0.6059 -179.0   3.334   73.9  0.0912   23.0  0.4035  -54.0
 1.240  0.6062  179.9   3.283   73.2  0.0915   22.9  0.4013  -54.3
 1.260  0.6068  178.9   3.233   72.5  0.0917   22.9  0.3991  -54.5
 1.280  0.6075  177.8   3.183   71.8  0.0920   22.8  0.3968  -54.8
 1.300  0.6084  176.8   3.133   71.0  0.0923   22.7  0.3946  -55.0
 1.320  0.6079  175.8   3.091   70.4  0.0925   22.7  0.3929  -55.3
 1.340  0.6075  174.7   3.049   69.7  0.0926   22.6  0.3912  -55.6
 1.360  0.6074  173.7   3.007   69.1  0.0928   22.6  0.3895  -55.8
 1.380  0.6074  172.6   2.966   68.4  0.0929   22.5  0.3878  -56.1
 1.400  0.6077  171.6   2.925   67.7  0.0931   22.5  0.3861  -56.4
 1.420  0.6088  170.7   2.888   67.0  0.0933   22.4  0.3844  -56.6
 1.440  0.6101  169.8   2.851   66.3  0.0935   22.4  0.3828  -56.9
 1.460  0.6115  168.9   2.814   65.5  0.0936   22.3  0.3811  -57.1
 1.480  0.6130  168.1   2.778   64.8  0.0938   22.3  0.3794  -57.4
 1.500  0.6147  167.2   2.743   64.0  0.0940   22.2  0.3778  -57.6
 1.520  0.6148  166.3   2.710   63.4  0.0943   22.2  0.3767  -57.9
 1.540  0.6151  165.3   2.677   62.8  0.0946   22.2  0.3755  -58.1
 1.560  0.6155  164.4   2.644   62.2  0.0948   22.2  0.3744  -58.4
 1.580  0.6161  163.4   2.612   61.6  0.0951   22.2  0.3733  -58.6
 1.600  0.6169  162.5   2.580   60.9  0.0954   22.2  0.3722  -58.9
 1.620  0.6170  161.5   2.550   60.3  0.0955   22.2  0.3706  -59.3
 1.640  0.6172  160.5   2.520   59.7  0.0957   22.2  0.3691  -59.6
 1.660  0.6177  159.5   2.491   59.0  0.0958   22.3  0.3675  -60.0
 1.680  0.6183  158.5   2.462   58.4  0.0960   22.3  0.3660  -60.3
 1.700  0.6191  157.5   2.433   57.7  0.0961   22.3  0.3645  -60.7
 1.720  0.6197  156.7   2.406   57.1  0.0964   22.4  0.3632  -61.0
 1.740  0.6205  155.9   2.380   56.5  0.0967   22.5  0.3620  -61.3
 1.760  0.6213  155.2   2.354   55.9  0.0970   22.5  0.3607  -61.5
 1.780  0.6223  154.4   2.328   55.2  0.0973   22.6  0.3594  -61.8
 1.800  0.6234  153.6   2.302   54.6  0.0976   22.7  0.3582  -62.1
 1.820  0.6250  152.9   2.278   54.1  0.0978   22.7  0.3574  -62.5
 1.840  0.6268  152.1   2.254   53.5  0.0980   22.7  0.3566  -62.8
 1.860  0.6287  151.4   2.231   53.0  0.0983   22.6  0.3558  -63.2
 1.880  0.6306  150.6   2.207   52.4  0.0985   22.6  0.3551  -63.5
 1.900  0.6327  149.9   2.184   51.8  0.0987   22.6  0.3543  -63.9
 1.920  0.6328  149.1   2.160   51.2  0.0990   22.6  0.3535  -64.2
 1.940  0.6330  148.3   2.136   50.6  0.0993   22.7  0.3527  -64.5
 1.960  0.6334  147.6   2.112   50.0  0.0997   22.7  0.3520  -64.9
 1.980  0.6338  146.8   2.088   49.4  0.1000   22.8  0.3512  -65.2
 2.000  0.6344  146.0   2.065   48.8  0.1003   22.8  0.3505  -65.5
 2.020  0.6354  145.3   2.046   48.3  0.1005   22.8  0.3498  -65.9
 2.040  0.6365  144.6   2.026   47.8  0.1008   22.8  0.3490  -66.3
 2.060  0.6377  143.9   2.007   47.2  0.1010   22.8  0.3483  -66.7
 2.080  0.6390  143.2   1.988   46.7  0.1013   22.8  0.3477  -67.1
 2.100  0.6404  142.6   1.970   46.1  0.1015   22.9  0.3470  -67.5
 2.120  0.6418  141.9   1.951   45.6  0.1018   22.9  0.3463  -67.9
 2.140  0.6434  141.2   1.933   45.0  0.1020   22.9  0.3457  -68.3
 2.160  0.6450  140.5   1.915   44.4  0.1023   22.9  0.3451  -68.7
 2.180  0.6468  139.9   1.897   43.8  0.1025   22.9  0.3445  -69.1
 2.200  0.6486  139.2   1.879   43.2  0.1028   22.9  0.3439  -69.5
 2.220  0.6495  138.5   1.863   42.7  0.1031   22.9  0.3432  -69.9
 2.240  0.6505  137.9   1.847   42.2  0.1034   23.0  0.3424  -70.3
 2.260  0.6516  137.2   1.831   41.7  0.1038   23.0  0.3417  -70.8
 2.280  0.6528  136.6   1.816   41.2  0.1041   23.0  0.3411  -71.2
 2.300  0.6541  135.9   1.800   40.7  0.1044   23.1  0.3404  -71.6
 2.320  0.6555  135.3   1.785   40.1  0.1047   23.1  0.3398  -72.1
 2.340  0.6569  134.6   1.770   39.6  0.1050   23.1  0.3391  -72.5
 2.360  0.6584  134.0   1.755   39.0  0.1054   23.1  0.3385  -72.9
 2.380  0.6600  133.3   1.740   38.5  0.1057   23.2  0.3380  -73.4
 2.400  0.6617  132.7   1.725   37.9  0.1060   23.2  0.3374  -73.8
 2.420  0.6628  132.1   1.710   37.4  0.1063   23.2  0.3368  -74.2
 2.440  0.6641  131.5   1.695   36.9  0.1066   23.3  0.3362  -74.6
 2.460  0.6654  130.8   1.681   36.5  0.1070   23.3  0.3357  -75.1
 2.480  0.6667  130.2   1.666   36.0  0.1073   23.4  0.3351  -75.5
 2.500  0.6682  129.6   1.652   35.5  0.1076   23.4  0.3346  -75.9
 2.520  0.6697  129.0   1.638   34.9  0.1079   23.4  0.3341  -76.4
 2.540  0.6713  128.4   1.624   34.4  0.1082   23.5  0.3336  -76.8
 2.560  0.6730  127.8   1.610   33.9  0.1086   23.5  0.3332  -77.2
 2.580  0.6748  127.2   1.596   33.4  0.1089   23.6  0.3327  -77.7
 2.600  0.6766  126.6   1.582   32.8  0.1092   23.6  0.3323  -78.1
 2.620  0.6777  126.0   1.570   32.3  0.1096   23.6  0.3318  -78.6
 2.640  0.6790  125.4   1.558   31.8  0.1100   23.7  0.3313  -79.1
 2.660  0.6802  124.9   1.546   31.3  0.1104   23.7  0.3309  -79.5
 2.680  0.6816  124.3   1.534   30.7  0.1108   23.7  0.3305  -80.0
 2.700  0.6830  123.7   1.523   30.2  0.1111   23.8  0.3301  -80.5
 2.720  0.6845  123.2   1.511   29.7  0.1115   23.8  0.3297  -81.0
 2.740  0.6860  122.6   1.500   29.1  0.1119   23.8  0.3293  -81.4
 2.760  0.6877  122.0   1.489   28.5  0.1123   23.8  0.3290  -81.9
 2.780  0.6893  121.5   1.478   28.0  0.1127   23.9  0.3287  -82.4
 2.800  0.6911  120.9   1.467   27.4  0.1131   23.9  0.3284  -82.9
 2.820  0.6921  120.4   1.456   27.0  0.1135   23.9  0.3280  -83.4
 2.840  0.6931  119.8   1.445   26.5  0.1138   23.9  0.3277  -83.9
 2.860  0.6942  119.3   1.435   26.1  0.1142   23.9  0.3273  -84.4
 2.880  0.6954  118.8   1.424   25.6  0.1145   23.9  0.3270  -84.9
 2.900  0.6966  118.2   1.414   25.2  0.1149   23.8  0.3267  -85.4
 2.920  0.6979  117.7   1.403   24.7  0.1153   23.8  0.3265  -86.0
 2.940  0.6992  117.2   1.393   24.3  0.1156   23.8  0.3262  -86.5
 2.960  0.7006  116.6   1.383   23.8  0.1160   23.8  0.3260  -87.0
 2.980  0.7021  116.1   1.373   23.3  0.1163   23.8  0.3259  -87.5
 3.000  0.7036  115.6   1.363   22.8  0.1167   23.8  0.3257  -88.0
 3.100  0.7078  113.2   1.316   20.9  0.1190   23.8  0.3250  -90.6
 3.200  0.7131  110.9   1.270   18.8  0.1213   23.8  0.3250  -93.3
 3.300  0.7196  108.6   1.226   16.6  0.1235   23.7  0.3257  -95.9
 3.400  0.7273  106.4   1.184   14.2  0.1258   23.7  0.3271  -98.5
 3.500  0.7360  104.2   1.144   11.6  0.1281   23.7  0.3291 -101.1
 3.600  0.7406  102.3   1.109    9.8  0.1306   23.5  0.3294 -104.1
 3.700  0.7459  100.4   1.074    7.9  0.1331   23.3  0.3307 -107.2
 3.800  0.7520   98.6   1.042    5.9  0.1356   23.1  0.3329 -110.2
 3.900  0.7590   96.8   1.010    3.7  0.1381   22.9  0.3360 -113.1
 4.000  0.7666   95.0   0.980    1.4  0.1406   22.7  0.3399 -116.0
 4.100  0.7691   93.3   0.951   -0.2  0.1431   22.3  0.3413 -119.1
 4.200  0.7723   91.6   0.924   -1.9  0.1455   21.9  0.3436 -122.2
 4.300  0.7762   89.9   0.897   -3.7  0.1480   21.6  0.3469 -125.2
 4.400  0.7807   88.2   0.871   -5.7  0.1505   21.2  0.3511 -128.1
 4.500  0.7859   86.6   0.846   -7.7  0.1530   20.9  0.3563 -131.0
 4.600  0.7881   85.3   0.823   -9.0  0.1555   20.8  0.3592 -133.8
 4.700  0.7907   84.1   0.800  -10.3  0.1581   20.6  0.3629 -136.5
 4.800  0.7937   82.9   0.778  -11.7  0.1606   20.5  0.3674 -139.1
 4.900  0.7970   81.6   0.756  -13.2  0.1632   20.3  0.3726 -141.7
 5.000  0.8007   80.4   0.735  -14.8  0.1657   20.2  0.3786 -144.2
 5.100  0.8041   79.2   0.718  -16.1  0.1696   19.5  0.3847 -146.8
 5.200  0.8077   78.1   0.701  -17.6  0.1735   18.8  0.3916 -149.4
 5.300  0.8117   76.9   0.684  -19.0  0.1774   18.1  0.3992 -151.8
 5.400  0.8161   75.8   0.668  -20.6  0.1813   17.5  0.4075 -154.1
 5.500  0.8207   74.7   0.653  -22.2  0.1853   16.9  0.4165 -156.4
 5.600  0.8237   73.7   0.638  -23.3  0.1882   16.1  0.4221 -158.9
 5.700  0.8270   72.6   0.624  -24.5  0.1912   15.3  0.4285 -161.3
 5.800  0.8305   71.6   0.610  -25.8  0.1942   14.5  0.4356 -163.6
 5.900  0.8343   70.6   0.596  -27.1  0.1972   13.7  0.4434 -165.8
 6.000  0.8384   69.6   0.583  -28.5  0.2003   13.0  0.4518 -168.0
!
!  f       NFmin   Gammaopt  rn/50
! GHz       dB    MAG  ANG    -
!
! noise parameter not available yet for this operation point!
!
! (c) 2016  Infineon Technologies AG, Munich
