! Infineon Technologies  Discrete & RF Semiconductors
! BFP193W
! VCE = 0.50V,  IC =  15 mA
! Common Emitter S-Parameters:                            Jan 2016
# GHz  S  MA  R  50
!  f         S11            S21            S12            S22
! GHz     MAG   ANG      MAG   ANG      MAG   ANG      MAG   ANG
 0.010  0.5546  -18.4  34.295  171.4  0.0065   83.0  0.9208   -9.2
 0.015  0.5515  -27.6  33.855  168.0  0.0097   77.7  0.9066  -14.5
 0.020  0.5626  -36.7  33.535  164.6  0.0129   75.1  0.9004  -20.0
 0.025  0.5675  -44.4  32.918  161.2  0.0156   71.8  0.8802  -24.5
 0.030  0.5825  -51.9  32.423  157.6  0.0183   69.4  0.8656  -29.2
 0.035  0.5804  -58.9  31.420  154.7  0.0204   65.8  0.8390  -33.0
 0.040  0.5869  -65.8  30.501  151.7  0.0225   62.8  0.8164  -37.1
 0.045  0.6017  -72.4  29.675  148.4  0.0247   60.3  0.7982  -41.4
 0.050  0.6241  -78.7  28.949  145.0  0.0269   58.3  0.7845  -45.8
 0.055  0.6183  -82.8  28.036  143.5  0.0280   56.0  0.7589  -48.0
 0.060  0.6157  -86.9  27.142  141.9  0.0291   53.9  0.7346  -50.4
 0.065  0.6163  -91.1  26.271  140.2  0.0303   52.0  0.7115  -52.9
 0.070  0.6201  -95.2  25.424  138.4  0.0315   50.2  0.6900  -55.6
 0.075  0.6271  -99.2  24.604  136.5  0.0327   48.6  0.6701  -58.5
 0.080  0.6371 -103.1  23.813  134.5  0.0339   47.0  0.6519  -61.5
 0.085  0.6500 -106.9  23.055  132.3  0.0352   45.6  0.6356  -64.7
 0.090  0.6656 -110.6  22.334  129.9  0.0365   44.3  0.6214  -68.0
 0.095  0.6838 -114.0  21.652  127.4  0.0378   43.1  0.6094  -71.5
 0.100  0.7044 -117.3  21.013  124.8  0.0391   41.9  0.5998  -75.1
 0.105  0.7038 -119.4  20.446  123.9  0.0395   41.0  0.5858  -76.7
 0.110  0.7042 -121.5  19.885  122.9  0.0400   40.1  0.5722  -78.3
 0.115  0.7055 -123.5  19.329  121.9  0.0404   39.2  0.5592  -80.1
 0.120  0.7077 -125.6  18.780  120.9  0.0409   38.4  0.5467  -81.9
 0.125  0.7108 -127.6  18.238  119.7  0.0413   37.6  0.5348  -83.8
 0.130  0.7148 -129.7  17.703  118.5  0.0418   36.8  0.5234  -85.8
 0.135  0.7197 -131.7  17.177  117.2  0.0423   36.0  0.5128  -87.9
 0.140  0.7254 -133.7  16.660  115.9  0.0428   35.2  0.5028  -90.0
 0.145  0.7321 -135.6  16.152  114.4  0.0433   34.4  0.4936  -92.3
 0.150  0.7395 -137.5  15.656  112.9  0.0438   33.7  0.4852  -94.6
 0.155  0.7400 -138.6  15.310  112.3  0.0440   33.4  0.4775  -95.8
 0.160  0.7407 -139.8  14.966  111.7  0.0443   33.1  0.4700  -97.0
 0.165  0.7418 -140.9  14.624  111.1  0.0445   32.8  0.4627  -98.2
 0.170  0.7431 -142.0  14.283  110.5  0.0448   32.5  0.4556  -99.5
 0.175  0.7447 -143.1  13.945  109.8  0.0450   32.3  0.4487 -100.8
 0.180  0.7466 -144.2  13.608  109.1  0.0453   32.0  0.4421 -102.2
 0.185  0.7487 -145.3  13.274  108.3  0.0455   31.7  0.4358 -103.6
 0.190  0.7512 -146.4  12.942  107.5  0.0458   31.4  0.4298 -105.1
 0.195  0.7539 -147.5  12.612  106.7  0.0460   31.2  0.4240 -106.6
 0.200  0.7569 -148.6  12.286  105.8  0.0463   30.9  0.4185 -108.1
 0.220  0.7577 -151.5  11.396  104.0  0.0471   30.2  0.4017 -111.9
 0.240  0.7605 -154.5  10.520  102.0  0.0480   29.5  0.3867 -115.9
 0.260  0.7630 -157.0   9.760  100.2  0.0487   29.1  0.3740 -119.5
 0.280  0.7647 -159.1   9.110   98.8  0.0492   28.9  0.3628 -122.6
 0.300  0.7674 -161.2   8.466   97.2  0.0497   28.7  0.3527 -125.8
 0.320  0.7671 -162.7   8.057   96.3  0.0502   28.8  0.3463 -127.8
 0.340  0.7674 -164.2   7.651   95.2  0.0507   29.0  0.3404 -129.9
 0.360  0.7681 -165.6   7.248   94.1  0.0511   29.1  0.3350 -132.0
 0.380  0.7694 -167.1   6.848   92.8  0.0516   29.3  0.3300 -134.2
 0.400  0.7712 -168.6   6.452   91.3  0.0521   29.4  0.3255 -136.5
 0.420  0.7716 -169.6   6.201   90.6  0.0526   29.8  0.3226 -137.9
 0.440  0.7723 -170.7   5.951   89.8  0.0532   30.3  0.3199 -139.3
 0.450  0.7728 -171.2   5.826   89.3  0.0534   30.5  0.3186 -140.0
 0.460  0.7733 -171.7   5.702   88.9  0.0537   30.7  0.3174 -140.8
 0.480  0.7745 -172.8   5.455   87.9  0.0543   31.1  0.3151 -142.2
 0.500  0.7759 -173.8   5.209   86.9  0.0548   31.5  0.3130 -143.7
 0.520  0.7760 -174.6   5.037   86.3  0.0554   31.9  0.3112 -144.8
 0.540  0.7763 -175.4   4.866   85.6  0.0560   32.3  0.3096 -145.8
 0.560  0.7767 -176.2   4.696   84.9  0.0565   32.7  0.3080 -146.9
 0.580  0.7773 -177.0   4.526   84.1  0.0571   33.0  0.3065 -148.0
 0.600  0.7780 -177.8   4.357   83.3  0.0577   33.4  0.3052 -149.1
 0.620  0.7790 -178.4   4.240   82.7  0.0583   33.8  0.3042 -149.8
 0.640  0.7801 -179.1   4.123   82.1  0.0589   34.2  0.3032 -150.5
 0.660  0.7813 -179.7   4.006   81.5  0.0595   34.6  0.3023 -151.2
 0.680  0.7826  179.6   3.890   80.8  0.0601   34.9  0.3014 -152.0
 0.700  0.7840  179.0   3.775   80.1  0.0607   35.3  0.3006 -152.7
 0.720  0.7827  178.4   3.680   79.5  0.0613   35.7  0.3002 -153.3
 0.740  0.7816  177.8   3.585   79.0  0.0619   36.0  0.2998 -153.9
 0.760  0.7805  177.2   3.490   78.3  0.0624   36.4  0.2994 -154.5
 0.780  0.7795  176.6   3.396   77.7  0.0630   36.8  0.2991 -155.1
 0.800  0.7786  176.0   3.302   77.0  0.0636   37.1  0.2988 -155.7
 0.820  0.7790  175.5   3.230   76.5  0.0643   37.5  0.2988 -156.1
 0.840  0.7795  175.0   3.158   76.0  0.0650   37.8  0.2989 -156.6
 0.860  0.7800  174.5   3.087   75.4  0.0658   38.1  0.2990 -157.0
 0.880  0.7806  174.0   3.016   74.8  0.0665   38.5  0.2991 -157.5
 0.900  0.7813  173.5   2.945   74.2  0.0672   38.8  0.2992 -157.9
 0.920  0.7816  173.1   2.886   73.7  0.0679   39.1  0.2994 -158.3
 0.940  0.7820  172.6   2.828   73.2  0.0686   39.4  0.2996 -158.7
 0.960  0.7824  172.2   2.769   72.7  0.0693   39.7  0.2998 -159.2
 0.980  0.7828  171.7   2.711   72.2  0.0700   39.9  0.3000 -159.6
 1.000  0.7833  171.3   2.653   71.6  0.0707   40.2  0.3003 -160.0
 1.020  0.7836  170.8   2.608   71.1  0.0715   40.5  0.3003 -160.3
 1.040  0.7839  170.3   2.564   70.6  0.0723   40.7  0.3002 -160.6
 1.060  0.7843  169.8   2.520   70.1  0.0730   40.9  0.3002 -161.0
 1.080  0.7848  169.3   2.476   69.6  0.0738   41.2  0.3002 -161.3
 1.100  0.7853  168.8   2.432   69.0  0.0746   41.4  0.3002 -161.6
 1.120  0.7849  168.4   2.391   68.5  0.0753   41.6  0.3004 -161.8
 1.140  0.7846  168.0   2.351   68.1  0.0760   41.8  0.3005 -162.1
 1.160  0.7843  167.6   2.311   67.6  0.0768   42.0  0.3007 -162.3
 1.180  0.7841  167.2   2.271   67.0  0.0775   42.2  0.3009 -162.6
 1.200  0.7839  166.8   2.231   66.5  0.0782   42.4  0.3011 -162.8
 1.220  0.7840  166.4   2.198   66.0  0.0790   42.6  0.3016 -163.0
 1.240  0.7841  166.0   2.165   65.5  0.0799   42.8  0.3020 -163.2
 1.260  0.7842  165.5   2.133   65.0  0.0807   43.0  0.3025 -163.5
 1.280  0.7844  165.1   2.100   64.5  0.0816   43.2  0.3029 -163.7
 1.300  0.7846  164.7   2.068   63.9  0.0824   43.4  0.3034 -163.9
 1.320  0.7845  164.3   2.040   63.4  0.0832   43.5  0.3040 -164.2
 1.340  0.7845  164.0   2.012   63.0  0.0840   43.6  0.3047 -164.4
 1.360  0.7844  163.6   1.985   62.5  0.0847   43.7  0.3054 -164.7
 1.380  0.7845  163.3   1.957   62.0  0.0855   43.8  0.3060 -164.9
 1.400  0.7845  162.9   1.930   61.5  0.0863   43.9  0.3067 -165.2
 1.420  0.7849  162.5   1.906   61.1  0.0871   44.1  0.3067 -165.4
 1.440  0.7854  162.1   1.882   60.7  0.0879   44.3  0.3068 -165.6
 1.460  0.7859  161.8   1.859   60.2  0.0886   44.4  0.3068 -165.9
 1.480  0.7864  161.4   1.835   59.8  0.0894   44.6  0.3069 -166.1
 1.500  0.7870  161.0   1.812   59.3  0.0902   44.8  0.3069 -166.3
 1.520  0.7875  160.6   1.791   58.8  0.0910   44.9  0.3073 -166.4
 1.540  0.7880  160.2   1.770   58.3  0.0919   45.0  0.3078 -166.5
 1.560  0.7885  159.9   1.749   57.8  0.0927   45.0  0.3082 -166.6
 1.580  0.7891  159.5   1.729   57.3  0.0936   45.1  0.3087 -166.7
 1.600  0.7897  159.1   1.708   56.8  0.0944   45.2  0.3091 -166.8
 1.620  0.7901  158.7   1.689   56.4  0.0952   45.3  0.3100 -167.0
 1.640  0.7905  158.3   1.670   55.9  0.0960   45.3  0.3108 -167.2
 1.660  0.7910  158.0   1.651   55.5  0.0967   45.4  0.3117 -167.3
 1.680  0.7915  157.6   1.632   55.0  0.0975   45.4  0.3125 -167.5
 1.700  0.7920  157.2   1.613   54.5  0.0983   45.5  0.3134 -167.7
 1.720  0.7918  156.8   1.595   54.1  0.0992   45.6  0.3139 -167.9
 1.740  0.7915  156.5   1.578   53.6  0.1001   45.6  0.3145 -168.2
 1.760  0.7914  156.1   1.560   53.2  0.1011   45.7  0.3151 -168.4
 1.780  0.7912  155.8   1.542   52.8  0.1020   45.7  0.3156 -168.7
 1.800  0.7911  155.4   1.525   52.3  0.1029   45.8  0.3162 -168.9
 1.820  0.7906  155.0   1.510   51.8  0.1038   45.8  0.3165 -169.0
 1.840  0.7902  154.6   1.495   51.4  0.1046   45.9  0.3169 -169.2
 1.860  0.7898  154.2   1.481   50.9  0.1055   45.9  0.3172 -169.3
 1.880  0.7895  153.8   1.466   50.4  0.1063   46.0  0.3176 -169.5
 1.900  0.7892  153.4   1.452   49.9  0.1072   46.0  0.3179 -169.6
 1.920  0.7899  153.1   1.438   49.5  0.1080   46.0  0.3187 -169.7
 1.940  0.7907  152.7   1.424   49.0  0.1089   46.0  0.3196 -169.8
 1.960  0.7915  152.4   1.410   48.6  0.1097   45.9  0.3204 -169.9
 1.980  0.7923  152.0   1.397   48.2  0.1106   45.9  0.3213 -170.0
 2.000  0.7932  151.7   1.383   47.7  0.1114   45.9  0.3221 -170.1
 2.020  0.7934  151.4   1.371   47.3  0.1123   45.9  0.3229 -170.3
 2.040  0.7937  151.1   1.360   46.9  0.1131   45.8  0.3237 -170.5
 2.060  0.7939  150.8   1.348   46.5  0.1140   45.8  0.3245 -170.7
 2.080  0.7942  150.5   1.337   46.1  0.1149   45.8  0.3253 -170.9
 2.100  0.7945  150.1   1.326   45.7  0.1157   45.7  0.3261 -171.1
 2.120  0.7948  149.8   1.314   45.3  0.1166   45.7  0.3269 -171.3
 2.140  0.7952  149.5   1.303   44.9  0.1175   45.7  0.3277 -171.5
 2.160  0.7956  149.2   1.292   44.5  0.1184   45.7  0.3285 -171.7
 2.180  0.7960  148.9   1.281   44.0  0.1192   45.6  0.3294 -171.9
 2.200  0.7964  148.6   1.270   43.6  0.1201   45.6  0.3302 -172.1
 2.220  0.7965  148.3   1.260   43.2  0.1210   45.6  0.3310 -172.3
 2.240  0.7966  147.9   1.249   42.8  0.1218   45.5  0.3318 -172.4
 2.260  0.7968  147.6   1.239   42.4  0.1227   45.5  0.3326 -172.6
 2.280  0.7970  147.2   1.229   42.0  0.1235   45.4  0.3335 -172.7
 2.300  0.7972  146.9   1.219   41.6  0.1244   45.4  0.3343 -172.9
 2.320  0.7974  146.6   1.209   41.2  0.1253   45.4  0.3351 -173.0
 2.340  0.7977  146.2   1.199   40.7  0.1261   45.3  0.3359 -173.2
 2.360  0.7980  145.9   1.189   40.3  0.1270   45.3  0.3367 -173.3
 2.380  0.7983  145.5   1.180   39.9  0.1278   45.2  0.3376 -173.5
 2.400  0.7987  145.2   1.170   39.4  0.1287   45.2  0.3384 -173.6
 2.420  0.7987  144.9   1.162   39.0  0.1295   45.1  0.3392 -173.8
 2.440  0.7987  144.5   1.154   38.6  0.1304   45.1  0.3400 -174.0
 2.460  0.7987  144.2   1.145   38.2  0.1312   45.0  0.3408 -174.2
 2.480  0.7988  143.8   1.137   37.8  0.1321   45.0  0.3417 -174.4
 2.500  0.7988  143.5   1.129   37.4  0.1329   44.9  0.3425 -174.6
 2.520  0.7990  143.2   1.121   37.0  0.1337   44.9  0.3433 -174.8
 2.540  0.7991  142.8   1.113   36.6  0.1346   44.8  0.3442 -175.0
 2.560  0.7993  142.5   1.106   36.2  0.1354   44.8  0.3450 -175.2
 2.580  0.7995  142.1   1.098   35.7  0.1363   44.7  0.3459 -175.4
 2.600  0.7997  141.8   1.090   35.3  0.1371   44.7  0.3467 -175.6
 2.620  0.8002  141.5   1.083   35.0  0.1380   44.6  0.3478 -175.7
 2.640  0.8008  141.2   1.075   34.6  0.1389   44.5  0.3490 -175.9
 2.660  0.8014  140.8   1.068   34.2  0.1398   44.4  0.3501 -176.0
 2.680  0.8020  140.5   1.061   33.9  0.1407   44.4  0.3512 -176.2
 2.700  0.8026  140.2   1.053   33.5  0.1415   44.3  0.3524 -176.3
 2.720  0.8032  139.9   1.046   33.1  0.1424   44.2  0.3535 -176.5
 2.740  0.8039  139.6   1.039   32.8  0.1433   44.1  0.3547 -176.6
 2.760  0.8046  139.2   1.032   32.4  0.1442   44.1  0.3558 -176.7
 2.780  0.8053  138.9   1.025   32.0  0.1451   44.0  0.3570 -176.9
 2.800  0.8061  138.6   1.018   31.6  0.1460   43.9  0.3581 -177.0
 2.820  0.8064  138.3   1.011   31.3  0.1469   43.8  0.3591 -177.2
 2.840  0.8068  138.0   1.005   30.9  0.1477   43.7  0.3601 -177.4
 2.860  0.8072  137.7   0.998   30.5  0.1486   43.6  0.3610 -177.7
 2.880  0.8076  137.4   0.992   30.2  0.1495   43.5  0.3620 -177.9
 2.900  0.8080  137.1   0.985   29.8  0.1503   43.4  0.3630 -178.1
 2.920  0.8085  136.8   0.979   29.4  0.1512   43.3  0.3640 -178.3
 2.940  0.8089  136.5   0.973   29.1  0.1521   43.2  0.3650 -178.6
 2.960  0.8094  136.2   0.966   28.7  0.1530   43.1  0.3661 -178.8
 2.980  0.8100  135.9   0.960   28.3  0.1538   43.0  0.3671 -179.0
 3.000  0.8105  135.6   0.954   27.9  0.1547   42.9  0.3681 -179.2
 3.100  0.8131  134.0   0.927   26.2  0.1588   42.3  0.3744  180.0
 3.200  0.8163  132.4   0.900   24.4  0.1629   41.8  0.3807  179.2
 3.300  0.8186  130.8   0.876   22.6  0.1670   41.2  0.3870  178.1
 3.400  0.8216  129.2   0.852   20.7  0.1712   40.7  0.3934  177.1
 3.500  0.8246  127.8   0.829   19.1  0.1752   40.1  0.4002  176.1
 3.600  0.8280  126.4   0.807   17.4  0.1793   39.5  0.4071  175.2
 3.700  0.8286  124.9   0.785   15.9  0.1826   38.8  0.4133  174.0
 3.800  0.8297  123.5   0.763   14.3  0.1859   38.1  0.4196  172.9
 3.900  0.8321  122.2   0.744   12.8  0.1899   37.5  0.4272  172.0
 4.000  0.8349  120.9   0.725   11.2  0.1939   36.9  0.4349  171.1
 4.100  0.8348  119.7   0.708   10.0  0.1973   36.2  0.4421  170.1
 4.200  0.8350  118.5   0.691    8.8  0.2007   35.5  0.4494  169.1
 4.300  0.8355  117.4   0.675    7.5  0.2042   34.9  0.4568  168.1
 4.400  0.8364  116.2   0.659    6.1  0.2077   34.2  0.4644  167.2
 4.500  0.8377  115.0   0.643    4.7  0.2112   33.6  0.4721  166.3
 4.600  0.8377  114.0   0.630    3.7  0.2145   33.0  0.4779  165.3
 4.700  0.8380  113.0   0.617    2.7  0.2179   32.4  0.4839  164.4
 4.800  0.8386  112.0   0.605    1.7  0.2212   31.8  0.4900  163.5
 4.900  0.8393  111.0   0.592    0.6  0.2246   31.2  0.4963  162.6
 5.000  0.8404  110.0   0.580   -0.5  0.2280   30.7  0.5026  161.7
 5.100  0.8398  109.3   0.569   -1.2  0.2314   30.1  0.5076  161.0
 5.200  0.8393  108.5   0.559   -1.9  0.2349   29.5  0.5126  160.3
 5.300  0.8390  107.8   0.548   -2.6  0.2384   28.9  0.5177  159.6
 5.400  0.8388  107.0   0.537   -3.4  0.2419   28.3  0.5229  158.9
 5.500  0.8387  106.3   0.527   -4.2  0.2454   27.8  0.5282  158.2
 5.600  0.8386  105.5   0.519   -4.8  0.2489   27.2  0.5330  157.5
 5.700  0.8388  104.6   0.512   -5.5  0.2524   26.6  0.5378  156.9
 5.800  0.8391  103.8   0.504   -6.1  0.2559   26.1  0.5427  156.2
 5.900  0.8395  102.9   0.496   -6.8  0.2595   25.5  0.5477  155.6
 6.000  0.8402  102.1   0.489   -7.5  0.2631   25.0  0.5527  155.0
!
!  f       NFmin   Gammaopt  rn/50
! GHz       dB    MAG  ANG    -
!
! noise parameter not available yet for this operation point!
!
! (c) 2016  Infineon Technologies AG, Munich
