! Infineon Technologies  Discrete & RF Semiconductors
! BFP183
! VCE = 3.0 V,  IC =  50 mA
! Common Emitter S-Parameters:                            Jan 2016
# GHz  S  MA  R  50
!  f         S11            S21            S12            S22
! GHz     MAG   ANG      MAG   ANG      MAG   ANG      MAG   ANG
 0.010  0.2261  -24.0  42.749  173.6  0.0019   68.0  0.8428   -4.1
 0.015  0.2341  -35.6  42.455  170.5  0.0027   72.8  0.8349   -6.5
 0.020  0.2510  -46.1  42.286  167.4  0.0035   75.4  0.8285   -8.9
 0.025  0.2561  -55.1  41.330  164.8  0.0044   73.5  0.8135  -10.8
 0.030  0.2671  -63.6  40.465  162.0  0.0053   72.3  0.7994  -12.8
 0.035  0.2835  -71.2  39.697  159.2  0.0061   71.4  0.7863  -14.8
 0.040  0.3042  -77.9  39.032  156.2  0.0070   70.7  0.7743  -16.9
 0.045  0.3286  -83.7  38.475  153.1  0.0079   70.2  0.7633  -19.1
 0.050  0.3559  -88.6  38.030  150.0  0.0088   69.8  0.7534  -21.3
 0.055  0.3611  -92.9  36.956  148.5  0.0092   67.5  0.7365  -22.3
 0.060  0.3684  -97.1  35.910  146.8  0.0096   65.5  0.7197  -23.3
 0.065  0.3775 -101.2  34.894  145.1  0.0100   63.6  0.7032  -24.4
 0.070  0.3884 -105.0  33.912  143.3  0.0104   61.8  0.6870  -25.5
 0.075  0.4009 -108.5  32.966  141.4  0.0108   60.2  0.6711  -26.7
 0.080  0.4149 -111.9  32.060  139.3  0.0113   58.7  0.6554  -27.9
 0.085  0.4302 -115.0  31.196  137.2  0.0117   57.4  0.6401  -29.2
 0.090  0.4467 -117.9  30.379  134.9  0.0122   56.1  0.6251  -30.6
 0.095  0.4643 -120.6  29.612  132.5  0.0126   54.9  0.6105  -32.0
 0.100  0.4828 -123.1  28.900  130.0  0.0131   53.8  0.5963  -33.5
 0.105  0.4864 -125.2  28.189  129.0  0.0134   53.5  0.5850  -33.9
 0.110  0.4906 -127.2  27.487  128.0  0.0138   53.1  0.5737  -34.3
 0.115  0.4954 -129.2  26.794  126.9  0.0141   52.8  0.5625  -34.7
 0.120  0.5008 -131.2  26.111  125.8  0.0144   52.5  0.5513  -35.2
 0.125  0.5068 -133.1  25.438  124.6  0.0147   52.2  0.5402  -35.6
 0.130  0.5134 -134.9  24.778  123.3  0.0151   52.0  0.5290  -36.1
 0.135  0.5204 -136.8  24.129  122.0  0.0154   51.7  0.5179  -36.6
 0.140  0.5280 -138.5  23.495  120.6  0.0157   51.5  0.5069  -37.1
 0.145  0.5361 -140.2  22.875  119.2  0.0161   51.2  0.4959  -37.6
 0.150  0.5446 -141.9  22.271  117.6  0.0164   51.0  0.4849  -38.2
 0.155  0.5469 -143.0  21.806  116.9  0.0165   50.9  0.4776  -38.3
 0.160  0.5493 -144.2  21.343  116.3  0.0167   50.8  0.4704  -38.4
 0.165  0.5520 -145.3  20.883  115.6  0.0168   50.7  0.4632  -38.6
 0.170  0.5549 -146.4  20.427  114.8  0.0170   50.7  0.4559  -38.7
 0.175  0.5580 -147.5  19.975  114.0  0.0171   50.6  0.4487  -38.8
 0.180  0.5613 -148.5  19.526  113.2  0.0172   50.5  0.4414  -39.0
 0.185  0.5648 -149.6  19.081  112.4  0.0174   50.4  0.4342  -39.1
 0.190  0.5685 -150.6  18.641  111.5  0.0175   50.3  0.4270  -39.3
 0.195  0.5723 -151.7  18.206  110.6  0.0177   50.3  0.4197  -39.4
 0.200  0.5764 -152.7  17.775  109.6  0.0178   50.2  0.4125  -39.6
 0.220  0.5819 -155.7  16.519  107.5  0.0184   50.4  0.3945  -39.6
 0.240  0.5890 -158.6  15.287  105.1  0.0191   50.5  0.3765  -39.5
 0.260  0.5939 -161.2  14.229  103.1  0.0198   50.8  0.3611  -39.4
 0.280  0.5963 -163.6  13.328  101.5  0.0206   51.2  0.3483  -39.1
 0.300  0.5997 -165.9  12.439   99.7  0.0214   51.5  0.3355  -38.8
 0.320  0.6016 -167.6  11.846   98.6  0.0221   52.3  0.3282  -38.5
 0.340  0.6040 -169.2  11.257   97.4  0.0229   53.1  0.3210  -38.3
 0.360  0.6069 -170.9  10.674   96.1  0.0236   53.9  0.3138  -38.0
 0.380  0.6102 -172.5  10.097   94.6  0.0244   54.6  0.3065  -37.7
 0.400  0.6141 -174.1   9.527   93.0  0.0251   55.2  0.2993  -37.4
 0.420  0.6146 -175.3   9.148   92.2  0.0258   55.4  0.2951  -37.3
 0.440  0.6154 -176.6   8.771   91.3  0.0265   55.7  0.2910  -37.2
 0.450  0.6159 -177.2   8.583   90.8  0.0268   55.8  0.2889  -37.1
 0.460  0.6165 -177.8   8.396   90.3  0.0272   55.9  0.2868  -37.1
 0.480  0.6179 -179.1   8.024   89.2  0.0279   56.1  0.2827  -36.9
 0.500  0.6196  179.7   7.655   88.0  0.0286   56.3  0.2785  -36.8
 0.520  0.6200  178.7   7.414   87.3  0.0294   56.8  0.2762  -36.8
 0.540  0.6206  177.7   7.174   86.5  0.0302   57.2  0.2739  -36.7
 0.560  0.6214  176.6   6.936   85.7  0.0309   57.6  0.2717  -36.7
 0.580  0.6224  175.6   6.699   84.8  0.0317   58.0  0.2694  -36.6
 0.600  0.6236  174.6   6.464   83.9  0.0325   58.4  0.2671  -36.6
 0.620  0.6240  173.7   6.272   83.2  0.0333   58.8  0.2655  -36.7
 0.640  0.6245  172.8   6.081   82.6  0.0341   59.3  0.2640  -36.8
 0.660  0.6252  171.8   5.890   81.8  0.0348   59.7  0.2624  -36.8
 0.680  0.6260  170.9   5.701   81.0  0.0356   60.0  0.2609  -36.9
 0.700  0.6270  170.0   5.513   80.2  0.0364   60.4  0.2593  -37.0
 0.720  0.6273  169.3   5.382   79.6  0.0372   60.5  0.2583  -37.1
 0.740  0.6276  168.6   5.251   78.9  0.0380   60.5  0.2573  -37.3
 0.760  0.6280  167.9   5.121   78.3  0.0389   60.6  0.2564  -37.4
 0.780  0.6286  167.2   4.991   77.6  0.0397   60.6  0.2554  -37.6
 0.800  0.6292  166.5   4.863   76.8  0.0405   60.7  0.2544  -37.7
 0.820  0.6298  165.7   4.758   76.3  0.0414   60.7  0.2537  -37.9
 0.840  0.6305  165.0   4.653   75.8  0.0423   60.7  0.2529  -38.2
 0.860  0.6313  164.2   4.549   75.2  0.0432   60.8  0.2522  -38.4
 0.880  0.6323  163.5   4.445   74.6  0.0441   60.8  0.2514  -38.7
 0.900  0.6333  162.7   4.342   74.0  0.0450   60.8  0.2507  -38.9
 0.920  0.6334  161.9   4.253   73.4  0.0457   60.9  0.2500  -39.2
 0.940  0.6336  161.1   4.164   72.8  0.0465   60.9  0.2494  -39.5
 0.960  0.6339  160.4   4.075   72.2  0.0472   61.0  0.2488  -39.7
 0.980  0.6343  159.6   3.987   71.5  0.0480   61.0  0.2481  -40.0
 1.000  0.6349  158.8   3.900   70.8  0.0487   61.1  0.2475  -40.3
 1.020  0.6362  158.2   3.830   70.2  0.0496   61.1  0.2470  -40.6
 1.040  0.6376  157.6   3.761   69.7  0.0506   61.0  0.2465  -40.9
 1.060  0.6390  156.9   3.692   69.1  0.0515   61.0  0.2460  -41.2
 1.080  0.6405  156.3   3.624   68.4  0.0525   60.9  0.2455  -41.5
 1.100  0.6421  155.7   3.556   67.8  0.0534   60.9  0.2450  -41.8
 1.120  0.6424  155.1   3.496   67.3  0.0542   60.8  0.2448  -42.1
 1.140  0.6428  154.4   3.436   66.8  0.0550   60.7  0.2447  -42.5
 1.160  0.6433  153.8   3.376   66.3  0.0557   60.7  0.2446  -42.8
 1.180  0.6439  153.1   3.317   65.8  0.0565   60.6  0.2444  -43.2
 1.200  0.6445  152.5   3.258   65.2  0.0573   60.5  0.2443  -43.5
 1.220  0.6448  151.9   3.206   64.7  0.0581   60.4  0.2440  -43.9
 1.240  0.6453  151.3   3.154   64.1  0.0590   60.4  0.2437  -44.3
 1.260  0.6457  150.8   3.103   63.6  0.0598   60.3  0.2434  -44.8
 1.280  0.6463  150.2   3.052   63.0  0.0607   60.3  0.2431  -45.2
 1.300  0.6469  149.6   3.001   62.4  0.0615   60.2  0.2428  -45.6
 1.320  0.6479  149.0   2.961   61.9  0.0624   60.1  0.2424  -46.0
 1.340  0.6490  148.4   2.920   61.4  0.0632   60.0  0.2421  -46.4
 1.360  0.6502  147.8   2.880   60.9  0.0641   60.0  0.2417  -46.7
 1.380  0.6514  147.2   2.841   60.3  0.0649   59.9  0.2414  -47.1
 1.400  0.6527  146.6   2.801   59.8  0.0658   59.8  0.2411  -47.5
 1.420  0.6529  146.0   2.762   59.3  0.0666   59.7  0.2409  -47.9
 1.440  0.6532  145.5   2.724   58.7  0.0675   59.6  0.2406  -48.3
 1.460  0.6535  144.9   2.686   58.1  0.0683   59.4  0.2404  -48.6
 1.480  0.6539  144.4   2.648   57.5  0.0692   59.3  0.2402  -49.0
 1.500  0.6543  143.8   2.610   56.9  0.0700   59.2  0.2400  -49.4
 1.520  0.6552  143.2   2.578   56.4  0.0708   59.1  0.2399  -49.9
 1.540  0.6562  142.6   2.545   55.9  0.0717   59.0  0.2398  -50.3
 1.560  0.6573  142.0   2.513   55.4  0.0725   59.0  0.2397  -50.8
 1.580  0.6585  141.4   2.482   54.9  0.0734   58.9  0.2396  -51.2
 1.600  0.6597  140.8   2.450   54.4  0.0742   58.8  0.2395  -51.7
 1.620  0.6608  140.2   2.419   53.9  0.0751   58.7  0.2391  -52.2
 1.640  0.6621  139.6   2.389   53.4  0.0760   58.6  0.2388  -52.8
 1.660  0.6634  138.9   2.358   52.8  0.0768   58.4  0.2384  -53.3
 1.680  0.6647  138.3   2.328   52.3  0.0777   58.3  0.2381  -53.9
 1.700  0.6662  137.7   2.298   51.7  0.0786   58.2  0.2378  -54.4
 1.720  0.6667  137.2   2.273   51.2  0.0794   58.0  0.2374  -54.9
 1.740  0.6672  136.7   2.249   50.7  0.0802   57.8  0.2370  -55.3
 1.760  0.6678  136.1   2.224   50.2  0.0811   57.6  0.2366  -55.8
 1.780  0.6685  135.6   2.200   49.7  0.0819   57.5  0.2362  -56.2
 1.800  0.6692  135.1   2.176   49.2  0.0827   57.3  0.2358  -56.7
 1.820  0.6696  134.6   2.152   48.8  0.0836   57.1  0.2356  -57.1
 1.840  0.6700  134.1   2.128   48.3  0.0844   56.8  0.2354  -57.6
 1.860  0.6705  133.7   2.105   47.9  0.0853   56.6  0.2352  -58.0
 1.880  0.6710  133.2   2.081   47.4  0.0861   56.4  0.2350  -58.5
 1.900  0.6716  132.7   2.058   46.9  0.0870   56.2  0.2348  -58.9
 1.920  0.6730  132.2   2.034   46.4  0.0878   56.0  0.2348  -59.4
 1.940  0.6744  131.6   2.011   45.9  0.0885   55.8  0.2349  -60.0
 1.960  0.6759  131.1   1.987   45.4  0.0893   55.7  0.2349  -60.5
 1.980  0.6774  130.5   1.964   44.8  0.0900   55.5  0.2350  -61.1
 2.000  0.6790  130.0   1.941   44.3  0.0908   55.3  0.2351  -61.6
 2.020  0.6798  129.5   1.923   43.9  0.0916   55.1  0.2346  -62.1
 2.040  0.6807  129.0   1.905   43.4  0.0924   55.0  0.2341  -62.7
 2.060  0.6817  128.5   1.887   42.9  0.0932   54.8  0.2336  -63.2
 2.080  0.6827  128.0   1.869   42.5  0.0940   54.6  0.2332  -63.8
 2.100  0.6837  127.5   1.851   42.0  0.0948   54.5  0.2327  -64.3
 2.120  0.6848  127.0   1.834   41.5  0.0957   54.3  0.2323  -64.9
 2.140  0.6859  126.5   1.816   41.0  0.0965   54.2  0.2319  -65.4
 2.160  0.6871  126.0   1.799   40.5  0.0973   54.0  0.2316  -66.0
 2.180  0.6884  125.5   1.782   39.9  0.0981   53.8  0.2312  -66.5
 2.200  0.6897  125.0   1.765   39.4  0.0989   53.7  0.2309  -67.1
 2.220  0.6907  124.5   1.750   39.0  0.0997   53.5  0.2306  -67.7
 2.240  0.6917  124.0   1.735   38.6  0.1005   53.3  0.2304  -68.3
 2.260  0.6927  123.5   1.720   38.1  0.1013   53.0  0.2302  -68.8
 2.280  0.6939  122.9   1.705   37.7  0.1021   52.8  0.2300  -69.4
 2.300  0.6951  122.4   1.691   37.2  0.1029   52.6  0.2298  -70.0
 2.320  0.6963  121.9   1.676   36.8  0.1037   52.4  0.2297  -70.6
 2.340  0.6976  121.4   1.662   36.3  0.1045   52.2  0.2295  -71.2
 2.360  0.6989  120.9   1.647   35.9  0.1053   52.0  0.2294  -71.7
 2.380  0.7003  120.4   1.633   35.4  0.1061   51.8  0.2294  -72.3
 2.400  0.7018  119.9   1.619   34.9  0.1069   51.6  0.2293  -72.9
 2.420  0.7029  119.5   1.605   34.5  0.1076   51.4  0.2289  -73.5
 2.440  0.7040  119.0   1.591   34.0  0.1084   51.2  0.2284  -74.1
 2.460  0.7052  118.6   1.577   33.6  0.1091   51.1  0.2280  -74.7
 2.480  0.7065  118.1   1.563   33.2  0.1099   50.9  0.2277  -75.2
 2.500  0.7077  117.7   1.549   32.7  0.1106   50.7  0.2273  -75.8
 2.520  0.7090  117.2   1.536   32.2  0.1114   50.6  0.2270  -76.4
 2.540  0.7104  116.8   1.522   31.8  0.1121   50.4  0.2267  -77.0
 2.560  0.7118  116.4   1.509   31.3  0.1129   50.2  0.2264  -77.6
 2.580  0.7132  115.9   1.495   30.8  0.1136   50.1  0.2261  -78.2
 2.600  0.7147  115.5   1.482   30.3  0.1144   49.9  0.2259  -78.8
 2.620  0.7155  115.0   1.471   29.9  0.1151   49.7  0.2258  -79.4
 2.640  0.7163  114.6   1.460   29.4  0.1158   49.4  0.2256  -80.1
 2.660  0.7172  114.1   1.449   29.0  0.1165   49.2  0.2256  -80.7
 2.680  0.7181  113.7   1.438   28.5  0.1173   49.0  0.2255  -81.4
 2.700  0.7190  113.2   1.427   28.0  0.1180   48.8  0.2255  -82.0
 2.720  0.7200  112.8   1.416   27.6  0.1187   48.5  0.2255  -82.7
 2.740  0.7211  112.3   1.405   27.1  0.1194   48.3  0.2255  -83.4
 2.760  0.7222  111.9   1.395   26.6  0.1201   48.1  0.2256  -84.0
 2.780  0.7233  111.4   1.384   26.1  0.1209   47.9  0.2257  -84.7
 2.800  0.7245  111.0   1.374   25.6  0.1216   47.7  0.2258  -85.3
 2.820  0.7256  110.6   1.363   25.2  0.1223   47.5  0.2254  -86.0
 2.840  0.7268  110.1   1.353   24.8  0.1231   47.3  0.2251  -86.6
 2.860  0.7280  109.7   1.343   24.4  0.1238   47.2  0.2248  -87.3
 2.880  0.7292  109.3   1.332   24.0  0.1245   47.0  0.2246  -87.9
 2.900  0.7305  108.9   1.322   23.6  0.1252   46.8  0.2243  -88.6
 2.920  0.7318  108.5   1.312   23.2  0.1260   46.7  0.2241  -89.2
 2.940  0.7332  108.0   1.302   22.7  0.1267   46.5  0.2239  -89.9
 2.960  0.7346  107.6   1.292   22.3  0.1274   46.3  0.2238  -90.6
 2.980  0.7360  107.2   1.282   21.8  0.1282   46.2  0.2237  -91.2
 3.000  0.7375  106.8   1.272   21.4  0.1289   46.0  0.2236  -91.9
 3.100  0.7416  104.9   1.229   19.6  0.1322   44.9  0.2232  -95.3
 3.200  0.7465  103.0   1.186   17.7  0.1356   43.9  0.2235  -98.8
 3.300  0.7522  101.1   1.146   15.7  0.1390   42.9  0.2247 -102.2
 3.400  0.7587   99.2   1.106   13.5  0.1424   42.0  0.2267 -105.6
 3.500  0.7660   97.4   1.069   11.2  0.1459   41.1  0.2294 -108.9
 3.600  0.7698   95.8   1.037    9.6  0.1491   40.0  0.2304 -112.5
 3.700  0.7743   94.2   1.006    7.9  0.1523   38.9  0.2323 -116.1
 3.800  0.7793   92.6   0.977    6.1  0.1556   37.9  0.2351 -119.5
 3.900  0.7849   91.0   0.948    4.1  0.1589   36.9  0.2388 -122.9
 4.000  0.7911   89.5   0.920    2.1  0.1623   36.0  0.2432 -126.2
 4.100  0.7933   88.0   0.894    0.6  0.1651   35.0  0.2459 -129.6
 4.200  0.7960   86.6   0.868   -0.9  0.1680   33.9  0.2495 -133.0
 4.300  0.7992   85.1   0.843   -2.5  0.1709   33.0  0.2539 -136.2
 4.400  0.8029   83.7   0.819   -4.3  0.1738   32.0  0.2591 -139.3
 4.500  0.8071   82.3   0.796   -6.1  0.1768   31.1  0.2650 -142.3
 4.600  0.8092   81.1   0.775   -7.3  0.1796   30.4  0.2688 -145.2
 4.700  0.8117   80.0   0.755   -8.5  0.1824   29.6  0.2732 -147.9
 4.800  0.8144   78.9   0.735   -9.8  0.1852   28.9  0.2783 -150.6
 4.900  0.8175   77.7   0.716  -11.2  0.1881   28.3  0.2839 -153.2
 5.000  0.8209   76.6   0.697  -12.6  0.1910   27.6  0.2901 -155.7
 5.100  0.8232   75.6   0.682  -13.8  0.1945   26.5  0.2970 -158.2
 5.200  0.8257   74.6   0.668  -15.1  0.1981   25.4  0.3045 -160.5
 5.300  0.8284   73.6   0.654  -16.4  0.2017   24.3  0.3125 -162.8
 5.400  0.8314   72.6   0.640  -17.8  0.2054   23.3  0.3209 -164.9
 5.500  0.8347   71.6   0.627  -19.3  0.2092   22.3  0.3297 -166.9
 5.600  0.8372   70.6   0.614  -20.4  0.2116   21.2  0.3363 -169.1
 5.700  0.8399   69.7   0.601  -21.6  0.2141   20.2  0.3434 -171.3
 5.800  0.8428   68.8   0.588  -22.8  0.2167   19.2  0.3509 -173.3
 5.900  0.8459   67.8   0.575  -24.1  0.2193   18.2  0.3589 -175.3
 6.000  0.8493   66.9   0.563  -25.4  0.2220   17.2  0.3673 -177.2
!
!  f       NFmin   Gammaopt  rn/50
! GHz       dB    MAG  ANG    -
!
! noise parameter not available yet for this operation point!
!
! (c) 2016  Infineon Technologies AG, Munich
