! Infineon Technologies  Discrete & RF Semiconductors
! BFP183W
! VCE = 8.0 V,  IC =  7.0 mA
! Common Emitter S-Parameters:                            Jan 2016
# GHz  S  MA  R  50
!  f         S11            S21            S12            S22
! GHz     MAG   ANG      MAG   ANG      MAG   ANG      MAG   ANG
 0.010  0.8079   -3.5  19.599  176.6  0.0022   85.1  0.9867   -1.8
 0.015  0.8053   -5.3  19.577  176.1  0.0032   84.4  0.9838   -2.6
 0.020  0.8035   -7.2  19.557  175.5  0.0043   84.1  0.9812   -3.5
 0.025  0.8029   -9.0  19.571  174.4  0.0055   84.0  0.9807   -4.3
 0.030  0.8030  -10.8  19.591  173.4  0.0067   83.9  0.9805   -5.2
 0.035  0.8004  -12.5  19.525  172.3  0.0077   82.2  0.9778   -6.0
 0.040  0.7986  -14.2  19.465  171.3  0.0088   80.9  0.9754   -6.9
 0.045  0.7975  -16.0  19.413  170.2  0.0098   79.8  0.9731   -7.7
 0.050  0.7971  -17.7  19.367  169.1  0.0109   79.0  0.9711   -8.6
 0.055  0.7927  -19.4  19.263  168.1  0.0119   77.8  0.9665   -9.4
 0.060  0.7889  -21.1  19.165  167.1  0.0128   76.8  0.9621  -10.1
 0.065  0.7859  -22.8  19.072  166.1  0.0138   75.9  0.9579  -10.9
 0.070  0.7835  -24.5  18.985  165.1  0.0148   75.2  0.9538  -11.6
 0.075  0.7819  -26.3  18.904  164.1  0.0157   74.5  0.9499  -12.4
 0.080  0.7810  -28.0  18.830  163.1  0.0167   73.9  0.9462  -13.2
 0.085  0.7808  -29.8  18.761  162.0  0.0177   73.4  0.9426  -14.0
 0.090  0.7814  -31.5  18.698  161.0  0.0186   72.9  0.9393  -14.8
 0.095  0.7827  -33.3  18.642  160.0  0.0196   72.5  0.9361  -15.6
 0.100  0.7847  -35.0  18.592  158.9  0.0206   72.1  0.9331  -16.4
 0.105  0.7796  -36.5  18.461  158.0  0.0215   71.1  0.9271  -17.1
 0.110  0.7751  -38.1  18.334  157.1  0.0223   70.2  0.9213  -17.8
 0.115  0.7711  -39.6  18.213  156.1  0.0232   69.3  0.9156  -18.5
 0.120  0.7677  -41.2  18.096  155.2  0.0241   68.5  0.9101  -19.2
 0.125  0.7649  -42.8  17.985  154.2  0.0250   67.8  0.9047  -19.9
 0.130  0.7627  -44.4  17.879  153.2  0.0258   67.1  0.8995  -20.7
 0.135  0.7611  -46.0  17.778  152.2  0.0267   66.5  0.8944  -21.4
 0.140  0.7601  -47.6  17.682  151.2  0.0276   65.9  0.8894  -22.2
 0.145  0.7596  -49.2  17.592  150.2  0.0285   65.3  0.8846  -22.9
 0.150  0.7598  -50.8  17.507  149.2  0.0294   64.8  0.8800  -23.7
 0.155  0.7549  -52.2  17.362  148.4  0.0300   64.1  0.8735  -24.2
 0.160  0.7504  -53.6  17.221  147.6  0.0307   63.4  0.8670  -24.8
 0.165  0.7464  -55.0  17.083  146.8  0.0313   62.7  0.8606  -25.3
 0.170  0.7429  -56.4  16.948  146.0  0.0320   62.1  0.8543  -25.9
 0.175  0.7398  -57.9  16.817  145.2  0.0327   61.4  0.8481  -26.4
 0.180  0.7372  -59.3  16.689  144.4  0.0333   60.8  0.8420  -27.0
 0.185  0.7350  -60.8  16.565  143.5  0.0340   60.3  0.8359  -27.6
 0.190  0.7334  -62.2  16.444  142.7  0.0347   59.7  0.8300  -28.2
 0.195  0.7322  -63.7  16.328  141.8  0.0353   59.2  0.8241  -28.8
 0.200  0.7315  -65.2  16.215  140.9  0.0360   58.7  0.8183  -29.4
 0.220  0.7201  -70.1  15.670  138.2  0.0382   56.4  0.7941  -31.3
 0.240  0.7141  -75.1  15.161  135.4  0.0404   54.4  0.7709  -33.3
 0.260  0.7058  -79.8  14.652  132.7  0.0423   52.6  0.7476  -35.1
 0.280  0.6943  -84.2  14.134  130.3  0.0439   50.8  0.7239  -36.5
 0.300  0.6871  -88.8  13.644  127.6  0.0455   49.1  0.7006  -38.1
 0.320  0.6763  -92.2  13.192  125.9  0.0467   47.8  0.6816  -39.1
 0.340  0.6679  -95.8  12.753  124.0  0.0479   46.5  0.6629  -40.2
 0.360  0.6622  -99.4  12.328  122.1  0.0492   45.3  0.6444  -41.3
 0.380  0.6591 -103.0  11.919  120.0  0.0504   44.1  0.6262  -42.4
 0.400  0.6587 -106.7  11.527  117.7  0.0517   43.0  0.6082  -43.7
 0.420  0.6513 -109.4  11.176  116.3  0.0525   42.2  0.5941  -44.3
 0.440  0.6454 -112.1  10.831  114.9  0.0533   41.4  0.5800  -44.9
 0.450  0.6430 -113.5  10.662  114.1  0.0538   41.0  0.5730  -45.2
 0.460  0.6409 -114.9  10.494  113.3  0.0542   40.6  0.5660  -45.6
 0.480  0.6380 -117.7  10.166  111.7  0.0550   39.8  0.5521  -46.3
 0.500  0.6366 -120.5   9.846  109.9  0.0559   39.1  0.5383  -47.0
 0.520  0.6323 -122.7   9.576  108.8  0.0564   38.6  0.5279  -47.4
 0.540  0.6289 -124.9   9.310  107.7  0.0570   38.2  0.5174  -47.9
 0.560  0.6265 -127.2   9.047  106.5  0.0575   37.7  0.5071  -48.4
 0.580  0.6251 -129.4   8.789  105.2  0.0581   37.2  0.4967  -48.9
 0.600  0.6246 -131.7   8.536  103.8  0.0586   36.8  0.4864  -49.4
 0.620  0.6217 -133.4   8.332  102.9  0.0590   36.6  0.4785  -49.7
 0.640  0.6193 -135.1   8.131  101.9  0.0595   36.3  0.4706  -50.0
 0.660  0.6175 -136.9   7.932  101.0  0.0599   36.1  0.4628  -50.3
 0.680  0.6163 -138.6   7.735   99.9  0.0604   35.8  0.4549  -50.6
 0.700  0.6157 -140.4   7.541   98.8  0.0608   35.6  0.4471  -50.9
 0.720  0.6134 -141.8   7.366   98.0  0.0612   35.5  0.4412  -51.1
 0.740  0.6114 -143.2   7.192   97.1  0.0616   35.3  0.4353  -51.4
 0.760  0.6098 -144.6   7.020   96.2  0.0619   35.2  0.4294  -51.7
 0.780  0.6086 -146.1   6.849   95.3  0.0623   35.0  0.4235  -51.9
 0.800  0.6078 -147.5   6.681   94.3  0.0627   34.9  0.4176  -52.2
 0.820  0.6066 -148.8   6.547   93.6  0.0631   34.8  0.4130  -52.4
 0.840  0.6058 -150.0   6.414   92.8  0.0635   34.7  0.4085  -52.6
 0.860  0.6052 -151.3   6.282   92.1  0.0638   34.5  0.4039  -52.8
 0.880  0.6049 -152.5   6.151   91.2  0.0642   34.4  0.3993  -53.0
 0.900  0.6049 -153.8   6.022   90.4  0.0646   34.3  0.3948  -53.2
 0.920  0.6039 -154.9   5.906   89.8  0.0649   34.3  0.3914  -53.4
 0.940  0.6030 -155.9   5.791   89.2  0.0652   34.4  0.3881  -53.7
 0.960  0.6024 -157.0   5.677   88.5  0.0656   34.4  0.3848  -53.9
 0.980  0.6020 -158.0   5.564   87.8  0.0659   34.5  0.3814  -54.2
 1.000  0.6018 -159.1   5.451   87.1  0.0662   34.5  0.3781  -54.4
 1.020  0.6014 -160.1   5.363   86.5  0.0666   34.5  0.3754  -54.6
 1.040  0.6012 -161.0   5.276   85.8  0.0669   34.5  0.3727  -54.8
 1.060  0.6012 -162.0   5.189   85.2  0.0673   34.5  0.3700  -54.9
 1.080  0.6013 -162.9   5.103   84.5  0.0676   34.5  0.3673  -55.1
 1.100  0.6016 -163.9   5.018   83.8  0.0680   34.5  0.3646  -55.3
 1.120  0.6012 -164.8   4.936   83.2  0.0683   34.5  0.3625  -55.5
 1.140  0.6009 -165.7   4.855   82.7  0.0686   34.5  0.3604  -55.7
 1.160  0.6007 -166.5   4.774   82.1  0.0689   34.5  0.3583  -56.0
 1.180  0.6007 -167.4   4.694   81.4  0.0692   34.5  0.3563  -56.2
 1.200  0.6008 -168.3   4.614   80.8  0.0695   34.5  0.3542  -56.4
 1.220  0.6005 -169.1   4.547   80.2  0.0698   34.7  0.3524  -56.6
 1.240  0.6003 -169.9   4.480   79.7  0.0702   34.8  0.3506  -56.8
 1.260  0.6003 -170.8   4.414   79.1  0.0705   35.0  0.3488  -56.9
 1.280  0.6003 -171.6   4.348   78.4  0.0709   35.1  0.3470  -57.1
 1.300  0.6005 -172.4   4.283   77.8  0.0712   35.3  0.3452  -57.3
 1.320  0.6006 -173.1   4.225   77.3  0.0715   35.4  0.3439  -57.5
 1.340  0.6009 -173.7   4.168   76.8  0.0719   35.4  0.3427  -57.7
 1.360  0.6012 -174.4   4.110   76.3  0.0722   35.5  0.3415  -58.0
 1.380  0.6015 -175.0   4.054   75.8  0.0726   35.5  0.3402  -58.2
 1.400  0.6020 -175.7   3.997   75.3  0.0729   35.6  0.3390  -58.4
 1.420  0.6024 -176.4   3.946   74.8  0.0733   35.7  0.3378  -58.6
 1.440  0.6028 -177.0   3.896   74.3  0.0736   35.8  0.3366  -58.9
 1.460  0.6033 -177.7   3.846   73.8  0.0740   36.0  0.3354  -59.1
 1.480  0.6039 -178.3   3.796   73.3  0.0743   36.1  0.3342  -59.4
 1.500  0.6046 -179.0   3.746   72.8  0.0747   36.2  0.3330  -59.6
 1.520  0.6044 -179.7   3.702   72.3  0.0751   36.3  0.3320  -59.8
 1.540  0.6044  179.6   3.658   71.8  0.0755   36.4  0.3311  -60.1
 1.560  0.6044  178.9   3.615   71.2  0.0758   36.6  0.3302  -60.3
 1.580  0.6045  178.2   3.572   70.7  0.0762   36.7  0.3292  -60.6
 1.600  0.6047  177.5   3.529   70.1  0.0766   36.8  0.3283  -60.8
 1.620  0.6048  176.9   3.489   69.7  0.0770   36.9  0.3276  -61.1
 1.640  0.6050  176.3   3.449   69.2  0.0773   37.0  0.3268  -61.4
 1.660  0.6052  175.8   3.409   68.8  0.0777   37.0  0.3261  -61.6
 1.680  0.6055  175.2   3.369   68.3  0.0780   37.1  0.3254  -61.9
 1.700  0.6059  174.6   3.330   67.8  0.0784   37.2  0.3247  -62.2
 1.720  0.6064  174.0   3.294   67.3  0.0788   37.3  0.3242  -62.4
 1.740  0.6070  173.4   3.257   66.9  0.0793   37.5  0.3236  -62.6
 1.760  0.6076  172.9   3.221   66.4  0.0797   37.6  0.3231  -62.9
 1.780  0.6083  172.3   3.186   65.9  0.0802   37.8  0.3226  -63.1
 1.800  0.6090  171.7   3.150   65.4  0.0806   37.9  0.3221  -63.3
 1.820  0.6087  171.1   3.117   64.9  0.0810   38.0  0.3218  -63.6
 1.840  0.6085  170.6   3.083   64.5  0.0814   38.1  0.3215  -63.8
 1.860  0.6083  170.0   3.050   64.0  0.0819   38.2  0.3212  -64.1
 1.880  0.6082  169.5   3.018   63.5  0.0823   38.3  0.3210  -64.3
 1.900  0.6081  168.9   2.985   63.0  0.0827   38.4  0.3207  -64.6
 1.920  0.6088  168.4   2.957   62.6  0.0831   38.4  0.3203  -64.9
 1.940  0.6096  167.9   2.930   62.2  0.0835   38.5  0.3199  -65.2
 1.960  0.6104  167.4   2.902   61.8  0.0838   38.5  0.3195  -65.5
 1.980  0.6112  166.9   2.875   61.3  0.0842   38.6  0.3191  -65.8
 2.000  0.6121  166.4   2.848   60.9  0.0846   38.6  0.3187  -66.1
 2.020  0.6125  165.9   2.823   60.5  0.0850   38.7  0.3185  -66.4
 2.040  0.6130  165.5   2.798   60.1  0.0855   38.8  0.3183  -66.7
 2.060  0.6135  165.0   2.773   59.7  0.0859   38.8  0.3181  -67.0
 2.080  0.6140  164.5   2.748   59.2  0.0864   38.9  0.3179  -67.3
 2.100  0.6146  164.1   2.723   58.8  0.0868   39.0  0.3177  -67.6
 2.120  0.6152  163.6   2.699   58.4  0.0872   39.1  0.3175  -67.9
 2.140  0.6158  163.2   2.675   57.9  0.0877   39.2  0.3173  -68.2
 2.160  0.6165  162.7   2.651   57.4  0.0881   39.2  0.3172  -68.5
 2.180  0.6172  162.3   2.627   57.0  0.0886   39.3  0.3170  -68.8
 2.200  0.6180  161.8   2.603   56.5  0.0890   39.4  0.3169  -69.1
 2.220  0.6180  161.3   2.581   56.1  0.0895   39.5  0.3167  -69.4
 2.240  0.6180  160.9   2.560   55.7  0.0899   39.5  0.3165  -69.8
 2.260  0.6181  160.4   2.539   55.3  0.0904   39.6  0.3163  -70.1
 2.280  0.6183  159.9   2.517   54.9  0.0908   39.6  0.3162  -70.5
 2.300  0.6184  159.4   2.496   54.5  0.0913   39.7  0.3160  -70.8
 2.320  0.6186  159.0   2.475   54.1  0.0918   39.8  0.3159  -71.2
 2.340  0.6189  158.5   2.455   53.6  0.0922   39.8  0.3157  -71.5
 2.360  0.6192  158.0   2.434   53.2  0.0927   39.9  0.3156  -71.9
 2.380  0.6195  157.6   2.413   52.8  0.0931   39.9  0.3155  -72.2
 2.400  0.6199  157.1   2.393   52.3  0.0936   40.0  0.3154  -72.6
 2.420  0.6205  156.7   2.375   51.9  0.0941   40.1  0.3153  -72.9
 2.440  0.6211  156.2   2.357   51.5  0.0946   40.1  0.3152  -73.3
 2.460  0.6217  155.8   2.339   51.1  0.0951   40.2  0.3152  -73.6
 2.480  0.6224  155.4   2.321   50.7  0.0956   40.3  0.3151  -73.9
 2.500  0.6231  154.9   2.303   50.3  0.0960   40.4  0.3151  -74.2
 2.520  0.6238  154.5   2.285   49.9  0.0965   40.4  0.3150  -74.6
 2.540  0.6246  154.1   2.268   49.4  0.0970   40.5  0.3150  -74.9
 2.560  0.6254  153.7   2.250   49.0  0.0975   40.6  0.3150  -75.2
 2.580  0.6262  153.2   2.233   48.5  0.0980   40.6  0.3150  -75.6
 2.600  0.6271  152.8   2.216   48.1  0.0985   40.7  0.3150  -75.9
 2.620  0.6276  152.4   2.200   47.7  0.0990   40.7  0.3150  -76.3
 2.640  0.6281  152.0   2.184   47.4  0.0995   40.7  0.3149  -76.6
 2.660  0.6287  151.5   2.168   47.0  0.1000   40.8  0.3149  -77.0
 2.680  0.6293  151.1   2.152   46.6  0.1005   40.8  0.3149  -77.3
 2.700  0.6300  150.7   2.137   46.2  0.1010   40.8  0.3149  -77.7
 2.720  0.6307  150.3   2.121   45.8  0.1016   40.8  0.3150  -78.1
 2.740  0.6314  149.9   2.106   45.4  0.1021   40.8  0.3150  -78.4
 2.760  0.6321  149.4   2.090   45.0  0.1026   40.9  0.3151  -78.8
 2.780  0.6329  149.0   2.075   44.6  0.1031   40.9  0.3151  -79.1
 2.800  0.6337  148.6   2.060   44.2  0.1036   40.9  0.3152  -79.5
 2.820  0.6345  148.2   2.046   43.8  0.1041   40.9  0.3153  -79.9
 2.840  0.6354  147.8   2.032   43.5  0.1047   40.9  0.3153  -80.3
 2.860  0.6363  147.4   2.018   43.1  0.1052   40.9  0.3154  -80.6
 2.880  0.6372  147.0   2.004   42.7  0.1058   40.9  0.3156  -81.0
 2.900  0.6381  146.6   1.990   42.3  0.1063   41.0  0.3157  -81.4
 2.920  0.6391  146.2   1.977   41.9  0.1069   41.0  0.3158  -81.8
 2.940  0.6401  145.9   1.963   41.5  0.1074   41.0  0.3160  -82.2
 2.960  0.6411  145.5   1.950   41.1  0.1080   41.0  0.3161  -82.5
 2.980  0.6422  145.1   1.936   40.7  0.1085   41.0  0.3163  -82.9
 3.000  0.6433  144.7   1.923   40.3  0.1091   41.0  0.3165  -83.3
 3.100  0.6471  142.8   1.867   38.5  0.1118   41.0  0.3172  -85.3
 3.200  0.6516  141.0   1.813   36.6  0.1145   41.0  0.3183  -87.3
 3.300  0.6565  139.1   1.760   34.8  0.1172   41.0  0.3201  -89.4
 3.400  0.6621  137.3   1.709   32.8  0.1200   41.0  0.3223  -91.4
 3.500  0.6661  135.6   1.660   31.1  0.1226   40.9  0.3234  -93.5
 3.600  0.6706  134.0   1.612   29.2  0.1252   40.8  0.3249  -95.5
 3.700  0.6730  132.3   1.564   27.4  0.1275   40.5  0.3264  -97.9
 3.800  0.6759  130.6   1.518   25.5  0.1298   40.3  0.3285 -100.2
 3.900  0.6820  129.2   1.482   23.9  0.1331   40.2  0.3319 -102.5
 4.000  0.6884  127.9   1.447   22.2  0.1364   40.1  0.3358 -104.8
 4.100  0.6912  126.5   1.411   20.6  0.1393   39.8  0.3387 -107.2
 4.200  0.6943  125.1   1.375   19.0  0.1421   39.4  0.3421 -109.6
 4.300  0.6979  123.7   1.341   17.3  0.1450   39.1  0.3461 -111.9
 4.400  0.7019  122.4   1.308   15.5  0.1479   38.8  0.3507 -114.1
 4.500  0.7063  121.0   1.277   13.6  0.1508   38.5  0.3558 -116.3
 4.600  0.7083  119.8   1.246   12.3  0.1537   38.2  0.3601 -118.5
 4.700  0.7106  118.7   1.217   10.9  0.1567   37.9  0.3648 -120.7
 4.800  0.7132  117.5   1.188    9.4  0.1596   37.6  0.3701 -122.8
 4.900  0.7161  116.3   1.159    7.8  0.1626   37.3  0.3759 -124.9
 5.000  0.7193  115.2   1.132    6.2  0.1655   37.0  0.3822 -126.9
 5.100  0.7203  114.4   1.108    5.0  0.1685   36.5  0.3870 -128.9
 5.200  0.7214  113.5   1.084    3.7  0.1715   36.1  0.3923 -130.8
 5.300  0.7227  112.7   1.061    2.3  0.1745   35.6  0.3979 -132.6
 5.400  0.7242  111.8   1.038    0.9  0.1776   35.2  0.4040 -134.4
 5.500  0.7258  111.0   1.016   -0.6  0.1806   34.8  0.4105 -136.2
 5.600  0.7263  110.1   0.996   -1.7  0.1837   34.4  0.4158 -137.8
 5.700  0.7270  109.2   0.975   -2.9  0.1868   34.0  0.4215 -139.4
 5.800  0.7279  108.2   0.956   -4.2  0.1899   33.7  0.4275 -140.9
 5.900  0.7290  107.3   0.937   -5.5  0.1931   33.3  0.4337 -142.4
 6.000  0.7303  106.4   0.918   -6.8  0.1962   33.0  0.4403 -143.9
!
!  f       NFmin   Gammaopt  rn/50
! GHz       dB    MAG  ANG    -
 0.450      1.25  0.18   42   0.22
 0.900      1.30  0.22  110   0.20
 1.800      2.00  0.33  180   0.14
!
! (c) 2016  Infineon Technologies AG, Munich
