! Infineon Technologies  Discrete & RF Semiconductors
! BFP196
! VCE = 1.5 V,  IC = 0.10A
! Common Emitter S-Parameters:                            Jan 2016
# GHz  S  MA  R  50
!  f         S11            S21            S12            S22
! GHz     MAG   ANG      MAG   ANG      MAG   ANG      MAG   ANG
 0.010  0.2404 -129.9  65.429  163.2  0.0039   67.3  0.6413  -24.8
 0.015  0.3248 -133.2  61.429  156.2  0.0055   63.6  0.6069  -35.3
 0.020  0.4099 -135.1  58.472  148.3  0.0071   61.6  0.5950  -46.7
 0.025  0.4449 -139.2  54.493  145.4  0.0079   59.0  0.5522  -52.3
 0.030  0.4818 -142.7  50.676  142.1  0.0087   56.9  0.5155  -58.8
 0.035  0.5202 -145.7  47.058  138.2  0.0095   55.2  0.4863  -66.1
 0.040  0.5599 -148.2  43.691  133.7  0.0103   53.7  0.4660  -74.3
 0.045  0.6005 -150.5  40.635  128.5  0.0112   52.5  0.4559  -82.9
 0.050  0.6419 -152.4  37.967  122.5  0.0120   51.4  0.4565  -91.8
 0.055  0.6489 -154.1  36.241  121.5  0.0124   51.4  0.4417  -94.6
 0.060  0.6565 -155.8  34.528  120.4  0.0128   51.3  0.4279  -97.6
 0.065  0.6647 -157.4  32.828  119.2  0.0132   51.3  0.4154 -100.7
 0.070  0.6734 -159.0  31.145  117.8  0.0136   51.3  0.4043 -104.1
 0.075  0.6825 -160.6  29.480  116.4  0.0140   51.2  0.3945 -107.6
 0.080  0.6922 -162.1  27.838  114.7  0.0144   51.2  0.3864 -111.3
 0.085  0.7024 -163.6  26.223  112.8  0.0148   51.2  0.3799 -115.1
 0.090  0.7130 -165.0  24.640  110.7  0.0152   51.1  0.3751 -119.0
 0.095  0.7240 -166.4  23.096  108.3  0.0156   51.1  0.3722 -123.0
 0.100  0.7354 -167.7  21.598  105.5  0.0160   51.1  0.3711 -127.1
 0.105  0.7372 -168.4  20.908  105.0  0.0164   51.5  0.3673 -128.6
 0.110  0.7392 -169.0  20.220  104.4  0.0168   52.0  0.3637 -130.1
 0.115  0.7412 -169.7  19.534  103.8  0.0171   52.3  0.3604 -131.6
 0.120  0.7434 -170.3  18.850  103.1  0.0175   52.7  0.3574 -133.1
 0.125  0.7456 -171.0  18.169  102.4  0.0179   53.1  0.3546 -134.7
 0.130  0.7479 -171.6  17.491  101.6  0.0183   53.4  0.3521 -136.3
 0.135  0.7504 -172.3  16.817  100.8  0.0187   53.8  0.3499 -137.9
 0.140  0.7529 -172.9  16.146   99.9  0.0190   54.1  0.3479 -139.6
 0.145  0.7555 -173.6  15.480   99.0  0.0194   54.4  0.3463 -141.2
 0.150  0.7582 -174.2  14.818   97.9  0.0198   54.7  0.3449 -142.9
 0.155  0.7582 -174.7  14.455   97.5  0.0202   55.2  0.3435 -143.8
 0.160  0.7582 -175.1  14.092   97.1  0.0205   55.7  0.3421 -144.7
 0.165  0.7582 -175.6  13.730   96.7  0.0209   56.2  0.3408 -145.5
 0.170  0.7584 -176.0  13.369   96.3  0.0213   56.6  0.3397 -146.4
 0.175  0.7585 -176.5  13.008   95.8  0.0217   57.0  0.3386 -147.3
 0.180  0.7587 -176.9  12.649   95.3  0.0221   57.5  0.3375 -148.2
 0.185  0.7590 -177.4  12.290   94.8  0.0224   57.9  0.3366 -149.1
 0.190  0.7593 -177.8  11.933   94.2  0.0228   58.3  0.3357 -150.1
 0.195  0.7596 -178.3  11.577   93.6  0.0232   58.6  0.3350 -151.0
 0.200  0.7600 -178.7  11.222   93.0  0.0236   59.0  0.3343 -151.9
 0.220  0.7607 -179.9  10.314   91.9  0.0252   60.3  0.3322 -154.3
 0.240  0.7618  178.8   9.411   90.6  0.0269   61.4  0.3307 -156.7
 0.260  0.7635  177.7   8.668   89.4  0.0286   62.3  0.3296 -158.6
 0.280  0.7657  176.7   8.081   88.4  0.0303   63.1  0.3284 -160.1
 0.300  0.7681  175.7   7.497   87.2  0.0321   63.8  0.3275 -161.5
 0.320  0.7688  174.7   7.126   86.5  0.0337   64.3  0.3270 -162.6
 0.340  0.7698  173.7   6.757   85.7  0.0354   64.8  0.3267 -163.6
 0.360  0.7710  172.6   6.388   84.9  0.0370   65.3  0.3264 -164.7
 0.380  0.7725  171.6   6.022   83.9  0.0387   65.7  0.3263 -165.7
 0.400  0.7742  170.6   5.657   82.8  0.0403   66.1  0.3263 -166.8
 0.420  0.7734  169.9   5.429   82.2  0.0421   66.3  0.3262 -167.5
 0.440  0.7727  169.3   5.202   81.5  0.0438   66.5  0.3262 -168.2
 0.450  0.7724  169.0   5.089   81.1  0.0447   66.6  0.3262 -168.5
 0.460  0.7721  168.6   4.976   80.7  0.0456   66.7  0.3262 -168.8
 0.480  0.7716  168.0   4.751   79.9  0.0473   66.8  0.3262 -169.5
 0.500  0.7712  167.3   4.527   79.0  0.0491   67.0  0.3263 -170.2
 0.520  0.7709  166.5   4.378   78.3  0.0510   67.0  0.3264 -170.7
 0.540  0.7708  165.7   4.229   77.6  0.0528   66.9  0.3266 -171.2
 0.560  0.7708  164.8   4.081   76.8  0.0547   66.9  0.3268 -171.6
 0.580  0.7710  164.0   3.933   76.0  0.0565   66.8  0.3270 -172.1
 0.600  0.7714  163.2   3.787   75.1  0.0584   66.8  0.3272 -172.6
 0.620  0.7719  162.4   3.680   74.4  0.0602   66.7  0.3275 -173.0
 0.640  0.7726  161.7   3.574   73.8  0.0619   66.6  0.3278 -173.4
 0.660  0.7733  160.9   3.468   73.0  0.0637   66.5  0.3281 -173.7
 0.680  0.7742  160.2   3.363   72.2  0.0654   66.5  0.3284 -174.1
 0.700  0.7753  159.4   3.258   71.4  0.0672   66.4  0.3287 -174.5
 0.720  0.7753  158.8   3.178   70.8  0.0690   66.2  0.3292 -174.8
 0.740  0.7755  158.2   3.097   70.3  0.0708   66.0  0.3297 -175.1
 0.760  0.7757  157.6   3.018   69.6  0.0726   65.8  0.3302 -175.5
 0.780  0.7760  157.0   2.938   69.0  0.0744   65.7  0.3307 -175.8
 0.800  0.7764  156.4   2.859   68.3  0.0762   65.5  0.3312 -176.1
 0.820  0.7754  155.7   2.795   67.7  0.0780   65.3  0.3315 -176.4
 0.840  0.7745  155.0   2.731   67.1  0.0798   65.1  0.3318 -176.7
 0.860  0.7737  154.4   2.667   66.5  0.0817   64.9  0.3321 -177.0
 0.880  0.7731  153.7   2.604   65.8  0.0835   64.7  0.3324 -177.3
 0.900  0.7725  153.0   2.541   65.1  0.0853   64.5  0.3327 -177.6
 0.920  0.7732  152.2   2.492   64.5  0.0870   64.3  0.3333 -177.9
 0.940  0.7740  151.5   2.443   63.9  0.0887   64.0  0.3340 -178.1
 0.960  0.7749  150.7   2.394   63.3  0.0904   63.8  0.3346 -178.4
 0.980  0.7760  150.0   2.345   62.6  0.0921   63.6  0.3352 -178.6
 1.000  0.7772  149.2   2.297   61.9  0.0938   63.4  0.3359 -178.9
 1.020  0.7779  148.6   2.257   61.3  0.0955   63.1  0.3365 -179.1
 1.040  0.7787  148.0   2.217   60.7  0.0972   62.9  0.3372 -179.4
 1.060  0.7795  147.5   2.177   60.1  0.0990   62.7  0.3379 -179.6
 1.080  0.7805  146.9   2.137   59.4  0.1007   62.4  0.3385 -179.9
 1.100  0.7815  146.3   2.098   58.7  0.1024   62.2  0.3392  179.9
 1.120  0.7821  145.6   2.064   58.2  0.1041   61.9  0.3398  179.7
 1.140  0.7827  144.9   2.031   57.6  0.1058   61.6  0.3403  179.4
 1.160  0.7835  144.1   1.997   57.0  0.1075   61.3  0.3409  179.2
 1.180  0.7845  143.4   1.964   56.4  0.1092   61.1  0.3415  178.9
 1.200  0.7855  142.7   1.931   55.8  0.1109   60.8  0.3421  178.7
 1.220  0.7849  142.1   1.902   55.2  0.1127   60.4  0.3427  178.5
 1.240  0.7844  141.4   1.874   54.7  0.1144   60.0  0.3433  178.2
 1.260  0.7841  140.8   1.845   54.1  0.1162   59.7  0.3439  178.0
 1.280  0.7838  140.1   1.817   53.4  0.1179   59.3  0.3446  177.7
 1.300  0.7836  139.5   1.789   52.8  0.1197   59.0  0.3452  177.5
 1.320  0.7842  138.9   1.764   52.3  0.1212   58.7  0.3458  177.3
 1.340  0.7849  138.4   1.739   51.8  0.1227   58.4  0.3464  177.1
 1.360  0.7857  137.8   1.714   51.3  0.1242   58.1  0.3470  176.9
 1.380  0.7866  137.3   1.689   50.8  0.1257   57.9  0.3476  176.7
 1.400  0.7875  136.7   1.664   50.3  0.1272   57.6  0.3482  176.5
 1.420  0.7876  136.1   1.645   49.7  0.1289   57.3  0.3489  176.3
 1.440  0.7878  135.6   1.626   49.1  0.1306   57.0  0.3497  176.1
 1.460  0.7881  135.0   1.608   48.5  0.1323   56.7  0.3504  176.0
 1.480  0.7884  134.5   1.589   47.9  0.1340   56.4  0.3512  175.8
 1.500  0.7888  133.9   1.571   47.3  0.1357   56.1  0.3519  175.6
 1.520  0.7897  133.3   1.549   46.7  0.1373   55.8  0.3528  175.4
 1.540  0.7907  132.7   1.527   46.2  0.1388   55.4  0.3536  175.1
 1.560  0.7918  132.0   1.506   45.6  0.1404   55.1  0.3545  174.9
 1.580  0.7929  131.4   1.484   44.9  0.1419   54.8  0.3554  174.6
 1.600  0.7942  130.8   1.463   44.3  0.1435   54.5  0.3563  174.4
 1.620  0.7946  130.2   1.446   43.7  0.1449   54.2  0.3570  174.1
 1.640  0.7951  129.6   1.429   43.2  0.1464   53.8  0.3577  173.8
 1.660  0.7957  129.0   1.413   42.6  0.1478   53.5  0.3584  173.5
 1.680  0.7964  128.4   1.396   42.0  0.1493   53.2  0.3591  173.2
 1.700  0.7972  127.8   1.380   41.4  0.1507   52.9  0.3598  172.9
 1.720  0.7983  127.2   1.367   41.0  0.1523   52.5  0.3605  172.7
 1.740  0.7995  126.6   1.355   40.5  0.1539   52.2  0.3611  172.6
 1.760  0.8008  126.1   1.343   40.1  0.1555   51.8  0.3618  172.4
 1.780  0.8022  125.5   1.330   39.7  0.1571   51.4  0.3624  172.3
 1.800  0.8036  124.9   1.318   39.2  0.1587   51.1  0.3631  172.1
 1.820  0.8036  124.4   1.305   38.7  0.1602   50.8  0.3643  171.9
 1.840  0.8036  123.8   1.292   38.1  0.1616   50.5  0.3654  171.7
 1.860  0.8037  123.3   1.280   37.6  0.1631   50.2  0.3666  171.4
 1.880  0.8039  122.7   1.267   37.0  0.1645   49.9  0.3678  171.2
 1.900  0.8041  122.2   1.255   36.4  0.1660   49.6  0.3690  171.0
 1.920  0.8041  121.7   1.242   36.0  0.1674   49.2  0.3701  170.7
 1.940  0.8043  121.2   1.230   35.5  0.1688   48.9  0.3711  170.4
 1.960  0.8044  120.8   1.218   35.0  0.1702   48.6  0.3722  170.1
 1.980  0.8046  120.3   1.205   34.6  0.1717   48.2  0.3733  169.8
 2.000  0.8049  119.8   1.193   34.1  0.1731   47.9  0.3744  169.5
 2.020  0.8047  119.2   1.182   33.6  0.1744   47.6  0.3753  169.3
 2.040  0.8046  118.7   1.171   33.1  0.1758   47.2  0.3762  169.0
 2.060  0.8045  118.1   1.160   32.6  0.1772   46.9  0.3771  168.8
 2.080  0.8046  117.6   1.149   32.1  0.1785   46.6  0.3780  168.5
 2.100  0.8047  117.0   1.139   31.6  0.1799   46.3  0.3790  168.3
 2.120  0.8049  116.4   1.128   31.1  0.1813   46.0  0.3799  168.0
 2.140  0.8051  115.9   1.118   30.6  0.1826   45.7  0.3808  167.8
 2.160  0.8055  115.3   1.107   30.0  0.1840   45.4  0.3818  167.6
 2.180  0.8059  114.8   1.097   29.5  0.1854   45.1  0.3827  167.3
 2.200  0.8064  114.2   1.087   28.9  0.1868   44.8  0.3837  167.1
 2.220  0.8074  113.7   1.079   28.4  0.1881   44.4  0.3849  166.8
 2.240  0.8084  113.1   1.071   27.9  0.1893   44.1  0.3861  166.5
 2.260  0.8095  112.6   1.063   27.4  0.1906   43.8  0.3873  166.2
 2.280  0.8107  112.0   1.056   26.9  0.1918   43.4  0.3886  165.9
 2.300  0.8120  111.5   1.048   26.4  0.1931   43.1  0.3898  165.6
 2.320  0.8133  110.9   1.040   25.9  0.1944   42.8  0.3911  165.3
 2.340  0.8147  110.4   1.033   25.4  0.1957   42.4  0.3923  165.1
 2.360  0.8162  109.9   1.026   24.9  0.1970   42.1  0.3936  164.8
 2.380  0.8178  109.3   1.018   24.3  0.1983   41.8  0.3949  164.5
 2.400  0.8194  108.8   1.011   23.8  0.1996   41.5  0.3962  164.2
 2.420  0.8195  108.3   1.003   23.4  0.2008   41.2  0.3972  163.9
 2.440  0.8196  107.8   0.995   23.0  0.2020   40.8  0.3982  163.7
 2.460  0.8198  107.3   0.986   22.5  0.2032   40.5  0.3993  163.4
 2.480  0.8200  106.8   0.978   22.1  0.2044   40.2  0.4003  163.1
 2.500  0.8203  106.2   0.970   21.6  0.2057   39.9  0.4013  162.9
 2.520  0.8207  105.7   0.962   21.2  0.2069   39.5  0.4024  162.6
 2.540  0.8212  105.2   0.954   20.7  0.2081   39.2  0.4035  162.4
 2.560  0.8217  104.7   0.947   20.3  0.2094   38.9  0.4045  162.1
 2.580  0.8223  104.2   0.939   19.8  0.2106   38.6  0.4056  161.9
 2.600  0.8229  103.7   0.931   19.3  0.2119   38.3  0.4067  161.6
 2.620  0.8236  103.2   0.925   18.9  0.2130   38.0  0.4082  161.3
 2.640  0.8243  102.7   0.919   18.6  0.2141   37.7  0.4097  161.0
 2.660  0.8251  102.2   0.913   18.2  0.2152   37.4  0.4112  160.8
 2.680  0.8260  101.8   0.908   17.8  0.2163   37.1  0.4127  160.5
 2.700  0.8269  101.3   0.902   17.4  0.2174   36.8  0.4142  160.2
 2.720  0.8278  100.8   0.896   17.0  0.2185   36.5  0.4158  160.0
 2.740  0.8289  100.3   0.891   16.6  0.2196   36.2  0.4173  159.7
 2.760  0.8300   99.9   0.885   16.2  0.2207   35.9  0.4189  159.4
 2.780  0.8311   99.4   0.880   15.8  0.2219   35.6  0.4204  159.2
 2.800  0.8323   98.9   0.874   15.4  0.2230   35.3  0.4220  158.9
 2.820  0.8327   98.5   0.868   15.0  0.2240   35.0  0.4231  158.6
 2.840  0.8331   98.1   0.861   14.6  0.2250   34.6  0.4243  158.3
 2.860  0.8336   97.7   0.855   14.1  0.2260   34.3  0.4254  158.1
 2.880  0.8341   97.3   0.849   13.7  0.2270   34.0  0.4266  157.8
 2.900  0.8347   96.8   0.842   13.3  0.2280   33.7  0.4278  157.5
 2.920  0.8353   96.4   0.836   12.8  0.2290   33.3  0.4290  157.3
 2.940  0.8359   96.0   0.830   12.4  0.2301   33.0  0.4302  157.0
 2.960  0.8366   95.6   0.824   11.9  0.2311   32.7  0.4314  156.7
 2.980  0.8373   95.2   0.818   11.5  0.2321   32.4  0.4326  156.5
 3.000  0.8381   94.8   0.812   11.0  0.2332   32.1  0.4338  156.2
 3.100  0.8397   92.8   0.788    9.5  0.2372   30.6  0.4403  154.8
 3.200  0.8422   90.9   0.765    7.8  0.2414   29.1  0.4471  153.4
 3.300  0.8458   88.9   0.743    6.1  0.2457   27.6  0.4541  152.1
 3.400  0.8503   87.0   0.721    4.3  0.2502   26.2  0.4613  150.8
 3.500  0.8557   85.1   0.700    2.3  0.2548   24.9  0.4688  149.6
 3.600  0.8549   83.4   0.682    0.9  0.2582   23.5  0.4752  148.3
 3.700  0.8548   81.6   0.665   -0.5  0.2616   22.2  0.4818  147.0
 3.800  0.8555   79.9   0.648   -2.0  0.2653   21.0  0.4886  145.8
 3.900  0.8571   78.1   0.632   -3.5  0.2690   19.7  0.4957  144.6
 4.000  0.8594   76.4   0.616   -5.2  0.2729   18.5  0.5030  143.4
 4.100  0.8597   74.9   0.604   -6.3  0.2762   17.3  0.5080  142.2
 4.200  0.8607   73.4   0.592   -7.4  0.2796   16.1  0.5133  141.0
 4.300  0.8622   71.9   0.580   -8.6  0.2831   14.9  0.5187  139.9
 4.400  0.8643   70.5   0.568   -9.8  0.2867   13.7  0.5244  138.8
 4.500  0.8669   69.0   0.557  -11.1  0.2905   12.6  0.5302  137.7
 4.600  0.8670   67.8   0.548  -12.0  0.2934   11.5  0.5345  136.7
 4.700  0.8675   66.5   0.540  -13.0  0.2963   10.3  0.5390  135.7
 4.800  0.8684   65.3   0.531  -14.0  0.2994    9.2  0.5437  134.8
 4.900  0.8698   64.0   0.523  -15.0  0.3026    8.2  0.5485  133.8
 5.000  0.8715   62.8   0.515  -16.1  0.3059    7.1  0.5534  132.9
 5.100  0.8725   61.7   0.508  -16.9  0.3088    6.0  0.5581  131.8
 5.200  0.8739   60.5   0.501  -17.7  0.3119    4.8  0.5629  130.8
 5.300  0.8757   59.4   0.495  -18.5  0.3150    3.7  0.5679  129.8
 5.400  0.8778   58.2   0.488  -19.3  0.3183    2.7  0.5731  128.8
 5.500  0.8802   57.1   0.482  -20.2  0.3217    1.6  0.5785  127.8
 5.600  0.8792   56.0   0.478  -21.0  0.3243    0.4  0.5828  126.8
 5.700  0.8786   54.9   0.473  -21.8  0.3271   -0.8  0.5872  125.8
 5.800  0.8782   53.7   0.469  -22.6  0.3300   -1.9  0.5918  124.8
 5.900  0.8782   52.6   0.465  -23.4  0.3330   -3.1  0.5966  123.8
 6.000  0.8786   51.5   0.461  -24.2  0.3362   -4.2  0.6016  122.8
!
!  f       NFmin   Gammaopt  rn/50
! GHz       dB    MAG  ANG    -
!
! noise parameter not available yet for this operation point!
!
! (c) 2016  Infineon Technologies AG, Munich
