! Infineon Technologies  Discrete & RF Semiconductors
! BFP193W
! VCE = 10.0V,  IC =  10 mA
! Common Emitter S-Parameters:                            Jan 2016
# GHz  S  MA  R  50
!  f         S11            S21            S12            S22
! GHz     MAG   ANG      MAG   ANG      MAG   ANG      MAG   ANG
 0.010  0.7729   -6.6  26.757  175.0  0.0034   81.4  0.9687   -2.8
 0.015  0.7720  -10.1  26.745  173.7  0.0053   79.7  0.9642   -5.0
 0.020  0.7740  -13.6  26.748  172.3  0.0072   78.9  0.9612   -7.3
 0.025  0.7702  -17.0  26.628  170.6  0.0088   78.8  0.9549   -9.0
 0.030  0.7691  -20.4  26.532  168.8  0.0105   78.7  0.9495  -10.7
 0.035  0.7635  -23.7  26.297  167.0  0.0121   76.8  0.9414  -12.4
 0.040  0.7605  -27.0  26.087  165.3  0.0137   75.4  0.9341  -14.1
 0.045  0.7600  -30.3  25.903  163.4  0.0154   74.3  0.9276  -15.8
 0.050  0.7620  -33.6  25.745  161.6  0.0170   73.4  0.9220  -17.6
 0.055  0.7523  -36.3  25.387  160.2  0.0182   71.3  0.9098  -18.9
 0.060  0.7444  -39.2  25.044  158.8  0.0195   69.5  0.8980  -20.2
 0.065  0.7383  -42.0  24.717  157.4  0.0207   67.9  0.8868  -21.6
 0.070  0.7341  -44.9  24.406  155.9  0.0220   66.5  0.8760  -23.0
 0.075  0.7318  -47.9  24.112  154.4  0.0233   65.2  0.8658  -24.4
 0.080  0.7314  -50.8  23.836  152.8  0.0246   64.1  0.8562  -25.9
 0.085  0.7329  -53.8  23.577  151.2  0.0259   63.1  0.8471  -27.4
 0.090  0.7364  -56.7  23.338  149.6  0.0272   62.2  0.8387  -28.9
 0.095  0.7418  -59.6  23.117  147.9  0.0286   61.4  0.8308  -30.5
 0.100  0.7490  -62.4  22.917  146.2  0.0299   60.6  0.8236  -32.1
 0.105  0.7418  -64.6  22.565  145.1  0.0307   59.3  0.8112  -33.1
 0.110  0.7358  -66.9  22.222  144.0  0.0316   58.2  0.7990  -34.2
 0.115  0.7310  -69.2  21.888  142.8  0.0324   57.0  0.7872  -35.3
 0.120  0.7273  -71.5  21.563  141.6  0.0333   56.0  0.7756  -36.4
 0.125  0.7248  -73.9  21.248  140.4  0.0342   55.0  0.7643  -37.5
 0.130  0.7236  -76.2  20.943  139.1  0.0351   54.0  0.7534  -38.7
 0.135  0.7236  -78.6  20.649  137.8  0.0360   53.1  0.7427  -39.9
 0.140  0.7248  -80.9  20.366  136.4  0.0369   52.2  0.7325  -41.2
 0.145  0.7273  -83.3  20.095  135.0  0.0378   51.4  0.7225  -42.5
 0.150  0.7309  -85.6  19.836  133.6  0.0387   50.6  0.7130  -43.8
 0.155  0.7268  -87.3  19.530  132.8  0.0392   49.9  0.7027  -44.5
 0.160  0.7234  -89.0  19.227  132.0  0.0398   49.2  0.6925  -45.2
 0.165  0.7206  -90.7  18.929  131.1  0.0403   48.5  0.6824  -46.0
 0.170  0.7184  -92.5  18.634  130.3  0.0408   47.9  0.6724  -46.8
 0.175  0.7170  -94.2  18.345  129.4  0.0414   47.2  0.6626  -47.6
 0.180  0.7162  -96.0  18.060  128.4  0.0419   46.6  0.6529  -48.4
 0.185  0.7160  -97.7  17.779  127.5  0.0425   46.0  0.6433  -49.2
 0.190  0.7166  -99.5  17.504  126.5  0.0431   45.4  0.6339  -50.1
 0.195  0.7178 -101.3  17.235  125.5  0.0436   44.9  0.6246  -51.0
 0.200  0.7197 -103.0  16.971  124.4  0.0442   44.3  0.6155  -51.9
 0.220  0.7138 -108.2  16.036  121.9  0.0458   42.4  0.5842  -54.3
 0.240  0.7139 -113.4  15.137  119.0  0.0475   40.6  0.5539  -56.9
 0.260  0.7123 -118.0  14.310  116.5  0.0488   39.2  0.5260  -59.1
 0.280  0.7074 -122.0  13.541  114.3  0.0498   38.0  0.4997  -60.8
 0.300  0.7060 -126.1  12.794  111.8  0.0507   36.8  0.4739  -62.7
 0.320  0.7018 -129.0  12.241  110.4  0.0513   36.0  0.4561  -63.8
 0.340  0.6993 -131.8  11.695  109.0  0.0520   35.3  0.4385  -65.1
 0.360  0.6986 -134.7  11.158  107.4  0.0527   34.5  0.4211  -66.4
 0.380  0.6996 -137.6  10.630  105.6  0.0533   33.8  0.4040  -67.8
 0.400  0.7025 -140.5  10.114  103.6  0.0540   33.1  0.3871  -69.4
 0.420  0.7004 -142.5   9.747  102.5  0.0545   32.9  0.3759  -70.2
 0.440  0.6992 -144.5   9.384  101.4  0.0550   32.6  0.3647  -71.0
 0.450  0.6990 -145.5   9.204  100.8  0.0553   32.5  0.3591  -71.5
 0.460  0.6989 -146.6   9.025  100.2  0.0556   32.4  0.3536  -71.9
 0.480  0.6995 -148.6   8.670   98.8  0.0561   32.1  0.3426  -72.9
 0.500  0.7009 -150.6   8.320   97.4  0.0566   31.9  0.3317  -73.9
 0.520  0.6996 -152.0   8.057   96.6  0.0570   31.8  0.3239  -74.6
 0.540  0.6987 -153.5   7.796   95.7  0.0574   31.7  0.3162  -75.2
 0.560  0.6982 -154.9   7.537   94.7  0.0579   31.7  0.3085  -76.0
 0.580  0.6982 -156.4   7.280   93.7  0.0583   31.6  0.3008  -76.7
 0.600  0.6986 -157.8   7.026   92.6  0.0587   31.5  0.2932  -77.5
 0.620  0.6986 -159.0   6.843   91.9  0.0590   31.6  0.2879  -78.0
 0.640  0.6989 -160.2   6.662   91.1  0.0594   31.7  0.2826  -78.4
 0.660  0.6996 -161.5   6.482   90.3  0.0597   31.7  0.2774  -78.9
 0.680  0.7005 -162.7   6.303   89.5  0.0601   31.8  0.2721  -79.5
 0.700  0.7018 -163.9   6.125   88.6  0.0604   31.9  0.2669  -80.0
 0.720  0.7006 -164.8   5.972   88.0  0.0608   32.0  0.2633  -80.5
 0.740  0.6996 -165.8   5.821   87.3  0.0613   32.1  0.2597  -80.9
 0.760  0.6988 -166.7   5.670   86.6  0.0617   32.3  0.2562  -81.4
 0.780  0.6982 -167.7   5.520   85.8  0.0622   32.4  0.2526  -81.9
 0.800  0.6978 -168.6   5.371   85.0  0.0626   32.5  0.2491  -82.4
 0.820  0.6979 -169.4   5.255   84.4  0.0630   32.7  0.2466  -82.8
 0.840  0.6982 -170.2   5.140   83.8  0.0634   32.9  0.2441  -83.3
 0.860  0.6986 -171.1   5.026   83.2  0.0637   33.0  0.2416  -83.8
 0.880  0.6992 -171.9   4.912   82.5  0.0641   33.2  0.2391  -84.2
 0.900  0.6999 -172.7   4.799   81.8  0.0645   33.4  0.2366  -84.7
 0.920  0.6992 -173.4   4.703   81.3  0.0649   33.6  0.2347  -85.1
 0.940  0.6987 -174.1   4.608   80.7  0.0653   33.8  0.2328  -85.6
 0.960  0.6982 -174.8   4.514   80.1  0.0657   34.0  0.2310  -86.1
 0.980  0.6979 -175.5   4.420   79.5  0.0661   34.2  0.2291  -86.5
 1.000  0.6976 -176.2   4.326   78.9  0.0665   34.4  0.2273  -87.0
 1.020  0.6985 -176.8   4.253   78.4  0.0669   34.6  0.2259  -87.3
 1.040  0.6995 -177.5   4.180   77.8  0.0673   34.7  0.2245  -87.6
 1.060  0.7005 -178.1   4.108   77.3  0.0678   34.9  0.2231  -87.9
 1.080  0.7017 -178.8   4.036   76.7  0.0682   35.0  0.2217  -88.3
 1.100  0.7029 -179.4   3.964   76.1  0.0686   35.2  0.2203  -88.6
 1.120  0.7027  180.0   3.897   75.6  0.0690   35.3  0.2197  -88.9
 1.140  0.7025  179.4   3.830   75.1  0.0695   35.4  0.2191  -89.2
 1.160  0.7024  178.7   3.763   74.5  0.0699   35.6  0.2185  -89.6
 1.180  0.7024  178.1   3.697   74.0  0.0704   35.7  0.2179  -89.9
 1.200  0.7025  177.5   3.631   73.4  0.0708   35.8  0.2173  -90.2
 1.220  0.7022  177.0   3.577   72.9  0.0712   36.0  0.2168  -90.6
 1.240  0.7019  176.4   3.523   72.4  0.0717   36.3  0.2162  -91.0
 1.260  0.7017  175.9   3.470   71.9  0.0721   36.5  0.2157  -91.4
 1.280  0.7015  175.3   3.417   71.4  0.0726   36.8  0.2152  -91.8
 1.300  0.7014  174.8   3.364   70.8  0.0730   37.0  0.2147  -92.2
 1.320  0.7019  174.3   3.318   70.3  0.0735   37.2  0.2143  -92.6
 1.340  0.7025  173.8   3.272   69.8  0.0739   37.4  0.2139  -93.0
 1.360  0.7032  173.4   3.227   69.3  0.0744   37.5  0.2136  -93.5
 1.380  0.7039  172.9   3.182   68.8  0.0748   37.7  0.2132  -93.9
 1.400  0.7046  172.4   3.137   68.3  0.0753   37.9  0.2129  -94.3
 1.420  0.7047  171.9   3.097   67.9  0.0758   38.1  0.2127  -94.7
 1.440  0.7049  171.5   3.056   67.4  0.0763   38.4  0.2124  -95.0
 1.460  0.7051  171.0   3.016   67.0  0.0768   38.6  0.2122  -95.4
 1.480  0.7054  170.6   2.977   66.5  0.0773   38.9  0.2120  -95.7
 1.500  0.7057  170.1   2.937   66.0  0.0778   39.1  0.2118  -96.1
 1.520  0.7064  169.6   2.902   65.5  0.0783   39.2  0.2120  -96.4
 1.540  0.7072  169.0   2.868   65.0  0.0788   39.3  0.2122  -96.6
 1.560  0.7080  168.5   2.833   64.5  0.0794   39.4  0.2124  -96.9
 1.580  0.7089  167.9   2.799   64.0  0.0799   39.5  0.2126  -97.1
 1.600  0.7098  167.4   2.765   63.5  0.0804   39.6  0.2128  -97.4
 1.620  0.7099  167.0   2.732   63.1  0.0809   39.8  0.2131  -97.9
 1.640  0.7100  166.6   2.700   62.7  0.0813   39.9  0.2134  -98.4
 1.660  0.7102  166.2   2.668   62.2  0.0818   40.1  0.2138  -98.8
 1.680  0.7104  165.8   2.636   61.8  0.0822   40.2  0.2141  -99.3
 1.700  0.7106  165.4   2.604   61.3  0.0827   40.4  0.2145  -99.8
 1.720  0.7110  165.0   2.575   60.9  0.0833   40.5  0.2144 -100.2
 1.740  0.7114  164.6   2.546   60.4  0.0840   40.7  0.2142 -100.5
 1.760  0.7118  164.1   2.518   60.0  0.0846   40.8  0.2141 -100.9
 1.780  0.7123  163.7   2.489   59.6  0.0853   41.0  0.2140 -101.2
 1.800  0.7128  163.3   2.461   59.1  0.0859   41.1  0.2139 -101.6
 1.820  0.7126  162.8   2.435   58.6  0.0864   41.2  0.2143 -101.8
 1.840  0.7124  162.3   2.409   58.2  0.0869   41.3  0.2146 -102.1
 1.860  0.7123  161.9   2.384   57.7  0.0875   41.5  0.2150 -102.3
 1.880  0.7123  161.4   2.358   57.2  0.0880   41.6  0.2154 -102.6
 1.900  0.7123  160.9   2.333   56.7  0.0885   41.7  0.2158 -102.8
 1.920  0.7127  160.5   2.311   56.3  0.0891   41.8  0.2166 -103.2
 1.940  0.7131  160.1   2.288   55.9  0.0896   41.9  0.2175 -103.5
 1.960  0.7135  159.8   2.266   55.5  0.0902   42.0  0.2183 -103.9
 1.980  0.7140  159.4   2.244   55.0  0.0907   42.1  0.2191 -104.2
 2.000  0.7145  159.0   2.222   54.6  0.0913   42.2  0.2200 -104.6
 2.020  0.7149  158.6   2.203   54.2  0.0919   42.3  0.2204 -105.0
 2.040  0.7154  158.3   2.183   53.8  0.0925   42.4  0.2208 -105.4
 2.060  0.7159  157.9   2.164   53.4  0.0931   42.5  0.2213 -105.8
 2.080  0.7164  157.6   2.145   53.0  0.0937   42.5  0.2217 -106.2
 2.100  0.7169  157.2   2.126   52.6  0.0942   42.6  0.2222 -106.6
 2.120  0.7175  156.8   2.107   52.2  0.0948   42.7  0.2226 -107.0
 2.140  0.7181  156.5   2.088   51.7  0.0954   42.8  0.2231 -107.4
 2.160  0.7188  156.1   2.069   51.3  0.0960   42.8  0.2236 -107.8
 2.180  0.7194  155.8   2.050   50.9  0.0966   42.9  0.2241 -108.2
 2.200  0.7201  155.4   2.032   50.4  0.0972   43.0  0.2246 -108.6
 2.220  0.7201  155.0   2.015   50.0  0.0978   43.1  0.2254 -109.0
 2.240  0.7202  154.6   1.998   49.6  0.0984   43.1  0.2263 -109.3
 2.260  0.7203  154.2   1.981   49.2  0.0990   43.2  0.2271 -109.6
 2.280  0.7205  153.8   1.964   48.8  0.0996   43.2  0.2280 -110.0
 2.300  0.7206  153.4   1.947   48.4  0.1002   43.3  0.2288 -110.3
 2.320  0.7208  153.1   1.931   48.0  0.1009   43.3  0.2297 -110.7
 2.340  0.7211  152.7   1.914   47.5  0.1015   43.4  0.2306 -111.0
 2.360  0.7214  152.3   1.898   47.1  0.1021   43.4  0.2315 -111.3
 2.380  0.7217  151.9   1.881   46.7  0.1027   43.5  0.2324 -111.7
 2.400  0.7220  151.5   1.865   46.2  0.1033   43.5  0.2333 -112.0
 2.420  0.7223  151.1   1.851   45.8  0.1039   43.6  0.2338 -112.4
 2.440  0.7227  150.8   1.837   45.4  0.1045   43.6  0.2343 -112.9
 2.460  0.7231  150.4   1.823   45.0  0.1052   43.7  0.2348 -113.3
 2.480  0.7236  150.1   1.809   44.6  0.1058   43.7  0.2354 -113.7
 2.500  0.7240  149.7   1.795   44.2  0.1064   43.8  0.2359 -114.1
 2.520  0.7245  149.4   1.781   43.8  0.1070   43.8  0.2365 -114.5
 2.540  0.7250  149.0   1.767   43.4  0.1076   43.9  0.2371 -115.0
 2.560  0.7255  148.7   1.754   43.0  0.1083   43.9  0.2377 -115.4
 2.580  0.7261  148.3   1.740   42.5  0.1089   44.0  0.2383 -115.8
 2.600  0.7267  148.0   1.727   42.1  0.1095   44.0  0.2389 -116.2
 2.620  0.7276  147.6   1.715   41.7  0.1102   44.0  0.2399 -116.6
 2.640  0.7285  147.3   1.703   41.4  0.1108   44.0  0.2409 -116.9
 2.660  0.7294  146.9   1.691   41.0  0.1115   44.0  0.2419 -117.3
 2.680  0.7304  146.5   1.679   40.6  0.1121   44.0  0.2429 -117.6
 2.700  0.7313  146.2   1.667   40.3  0.1128   44.1  0.2439 -117.9
 2.720  0.7324  145.8   1.655   39.9  0.1135   44.1  0.2450 -118.3
 2.740  0.7334  145.5   1.643   39.5  0.1141   44.1  0.2460 -118.6
 2.760  0.7345  145.1   1.631   39.1  0.1148   44.1  0.2471 -118.9
 2.780  0.7356  144.8   1.620   38.7  0.1154   44.1  0.2481 -119.3
 2.800  0.7367  144.4   1.608   38.3  0.1161   44.1  0.2492 -119.6
 2.820  0.7372  144.1   1.597   37.9  0.1168   44.1  0.2499 -120.0
 2.840  0.7377  143.7   1.586   37.6  0.1175   44.1  0.2507 -120.4
 2.860  0.7382  143.4   1.575   37.2  0.1181   44.1  0.2514 -120.9
 2.880  0.7388  143.0   1.565   36.8  0.1188   44.1  0.2522 -121.3
 2.900  0.7394  142.7   1.554   36.4  0.1195   44.0  0.2529 -121.7
 2.920  0.7400  142.4   1.544   36.0  0.1202   44.0  0.2537 -122.1
 2.940  0.7406  142.0   1.533   35.6  0.1209   44.0  0.2545 -122.5
 2.960  0.7413  141.7   1.523   35.2  0.1215   44.0  0.2553 -122.9
 2.980  0.7420  141.3   1.512   34.8  0.1222   44.0  0.2562 -123.3
 3.000  0.7427  141.0   1.502   34.4  0.1229   44.0  0.2570 -123.7
 3.100  0.7455  139.3   1.457   32.7  0.1263   43.8  0.2626 -125.6
 3.200  0.7490  137.7   1.414   30.8  0.1297   43.7  0.2685 -127.5
 3.300  0.7529  136.0   1.370   29.0  0.1331   43.5  0.2735 -129.6
 3.400  0.7575  134.4   1.328   27.0  0.1366   43.3  0.2789 -131.6
 3.500  0.7614  132.9   1.290   25.3  0.1401   43.1  0.2853 -133.5
 3.600  0.7658  131.5   1.254   23.4  0.1436   43.0  0.2919 -135.3
 3.700  0.7681  129.9   1.218   21.7  0.1466   42.6  0.2980 -137.4
 3.800  0.7709  128.3   1.184   19.8  0.1496   42.3  0.3045 -139.5
 3.900  0.7750  127.0   1.153   18.2  0.1531   42.0  0.3117 -141.4
 4.000  0.7795  125.8   1.122   16.5  0.1567   41.7  0.3192 -143.3
 4.100  0.7807  124.5   1.093   15.1  0.1600   41.3  0.3268 -145.3
 4.200  0.7822  123.3   1.064   13.6  0.1634   40.9  0.3347 -147.2
 4.300  0.7841  122.0   1.037   12.0  0.1668   40.5  0.3430 -149.0
 4.400  0.7864  120.7   1.010   10.4  0.1701   40.1  0.3516 -150.8
 4.500  0.7891  119.5   0.984    8.6  0.1735   39.7  0.3605 -152.4
 4.600  0.7899  118.4   0.960    7.4  0.1769   39.3  0.3675 -154.1
 4.700  0.7910  117.4   0.937    6.2  0.1803   38.9  0.3748 -155.8
 4.800  0.7924  116.3   0.914    4.8  0.1837   38.5  0.3825 -157.4
 4.900  0.7941  115.3   0.892    3.5  0.1872   38.1  0.3904 -158.9
 5.000  0.7960  114.2   0.870    2.0  0.1906   37.7  0.3986 -160.4
 5.100  0.7962  113.4   0.851    1.0  0.1941   37.2  0.4058 -161.8
 5.200  0.7966  112.5   0.833   -0.1  0.1975   36.7  0.4133 -163.1
 5.300  0.7972  111.7   0.815   -1.3  0.2010   36.2  0.4210 -164.4
 5.400  0.7980  110.8   0.797   -2.5  0.2045   35.7  0.4288 -165.6
 5.500  0.7989  110.0   0.780   -3.7  0.2080   35.3  0.4369 -166.8
 5.600  0.8001  109.2   0.765   -4.6  0.2117   34.9  0.4439 -168.0
 5.700  0.8015  108.3   0.751   -5.5  0.2154   34.4  0.4510 -169.2
 5.800  0.8031  107.5   0.736   -6.5  0.2192   34.0  0.4583 -170.3
 5.900  0.8048  106.6   0.722   -7.5  0.2229   33.6  0.4658 -171.4
 6.000  0.8067  105.8   0.708   -8.6  0.2267   33.2  0.4735 -172.5
!
!  f       NFmin   Gammaopt  rn/50
! GHz       dB    MAG  ANG    -
!
! noise parameter not available yet for this operation point!
!
! (c) 2016  Infineon Technologies AG, Munich
