! Infineon Technologies  Discrete & RF Semiconductors
! BFP181
! VCE = 4.0 V,  IC =  1.0 mA
! Common Emitter S-Parameters:                            Jan 2016
# GHz  S  MA  R  50
!  f         S11            S21            S12            S22
! GHz     MAG   ANG      MAG   ANG      MAG   ANG      MAG   ANG
 0.010  0.9625   -0.9   3.438  179.6  0.0010   90.9  0.9979   -0.2
 0.015  0.9638   -1.2   3.441  179.5  0.0020   87.9  0.9962   -0.4
 0.020  0.9651   -1.4   3.444  179.4  0.0030   86.9  0.9946   -0.7
 0.025  0.9657   -1.8   3.450  179.0  0.0037   88.3  0.9950   -0.9
 0.030  0.9664   -2.1   3.457  178.6  0.0044   89.3  0.9955   -1.0
 0.035  0.9671   -2.5   3.463  178.1  0.0050   90.1  0.9959   -1.2
 0.040  0.9678   -2.8   3.470  177.7  0.0057   90.6  0.9964   -1.4
 0.045  0.9686   -3.2   3.477  177.3  0.0064   91.0  0.9968   -1.5
 0.050  0.9694   -3.5   3.484  176.9  0.0071   91.4  0.9973   -1.7
 0.055  0.9685   -3.9   3.477  176.6  0.0077   90.1  0.9970   -1.9
 0.060  0.9676   -4.3   3.470  176.3  0.0084   89.0  0.9967   -2.0
 0.065  0.9668   -4.6   3.463  176.0  0.0090   88.1  0.9965   -2.2
 0.070  0.9660   -5.0   3.457  175.7  0.0096   87.3  0.9962   -2.4
 0.075  0.9653   -5.4   3.450  175.4  0.0103   86.5  0.9959   -2.5
 0.080  0.9646   -5.8   3.444  175.1  0.0109   85.9  0.9957   -2.7
 0.085  0.9639   -6.2   3.437  174.7  0.0116   85.4  0.9955   -2.9
 0.090  0.9633   -6.5   3.431  174.4  0.0122   84.9  0.9952   -3.1
 0.095  0.9627   -6.9   3.425  174.1  0.0129   84.4  0.9950   -3.2
 0.100  0.9622   -7.3   3.419  173.8  0.0135   84.0  0.9948   -3.4
 0.105  0.9612   -7.7   3.421  173.5  0.0142   83.8  0.9946   -3.6
 0.110  0.9603   -8.1   3.424  173.1  0.0150   83.5  0.9944   -3.7
 0.115  0.9594   -8.4   3.426  172.8  0.0157   83.3  0.9942   -3.9
 0.120  0.9585   -8.8   3.429  172.5  0.0165   83.1  0.9940   -4.1
 0.125  0.9577   -9.2   3.432  172.1  0.0172   83.0  0.9938   -4.2
 0.130  0.9569   -9.6   3.434  171.8  0.0179   82.8  0.9937   -4.4
 0.135  0.9562  -10.0   3.437  171.5  0.0187   82.7  0.9935   -4.6
 0.140  0.9555  -10.3   3.440  171.2  0.0194   82.5  0.9934   -4.8
 0.145  0.9548  -10.7   3.444  170.8  0.0202   82.4  0.9932   -4.9
 0.150  0.9542  -11.1   3.447  170.5  0.0209   82.3  0.9931   -5.1
 0.155  0.9538  -11.4   3.448  170.2  0.0216   82.1  0.9929   -5.3
 0.160  0.9535  -11.8   3.449  169.8  0.0223   81.9  0.9928   -5.4
 0.165  0.9532  -12.1   3.450  169.5  0.0230   81.8  0.9926   -5.6
 0.170  0.9530  -12.5   3.452  169.2  0.0237   81.6  0.9924   -5.7
 0.175  0.9528  -12.8   3.453  168.8  0.0243   81.4  0.9923   -5.9
 0.180  0.9526  -13.2   3.455  168.5  0.0250   81.3  0.9922   -6.1
 0.185  0.9524  -13.5   3.456  168.2  0.0257   81.2  0.9920   -6.2
 0.190  0.9523  -13.9   3.458  167.9  0.0264   81.0  0.9919   -6.4
 0.195  0.9522  -14.2   3.460  167.5  0.0271   80.9  0.9918   -6.5
 0.200  0.9522  -14.6   3.462  167.2  0.0278   80.8  0.9917   -6.7
 0.220  0.9504  -16.0   3.430  166.0  0.0303   79.4  0.9896   -7.4
 0.240  0.9492  -17.3   3.400  164.7  0.0328   78.1  0.9876   -8.1
 0.260  0.9470  -18.7   3.386  163.6  0.0354   77.2  0.9859   -8.7
 0.280  0.9439  -20.2   3.388  162.6  0.0381   76.4  0.9844   -9.4
 0.300  0.9414  -21.6   3.390  161.6  0.0407   75.7  0.9831  -10.0
 0.320  0.9369  -23.0   3.383  160.2  0.0432   74.5  0.9805  -10.7
 0.340  0.9329  -24.5   3.378  158.8  0.0457   73.5  0.9780  -11.3
 0.360  0.9296  -25.9   3.375  157.4  0.0483   72.6  0.9757  -12.0
 0.380  0.9269  -27.4   3.374  156.0  0.0508   71.8  0.9735  -12.6
 0.400  0.9248  -28.9   3.375  154.6  0.0534   71.0  0.9714  -13.3
 0.420  0.9179  -30.2   3.352  153.4  0.0557   69.9  0.9685  -13.9
 0.440  0.9115  -31.6   3.330  152.2  0.0580   68.9  0.9656  -14.5
 0.450  0.9085  -32.3   3.320  151.5  0.0592   68.5  0.9642  -14.8
 0.460  0.9056  -33.0   3.310  150.9  0.0604   68.0  0.9629  -15.1
 0.480  0.9003  -34.4   3.292  149.7  0.0627   67.2  0.9603  -15.8
 0.500  0.8955  -35.8   3.275  148.4  0.0651   66.4  0.9578  -16.4
 0.520  0.8898  -37.1   3.259  147.3  0.0674   65.4  0.9545  -17.0
 0.540  0.8846  -38.5   3.243  146.2  0.0697   64.4  0.9514  -17.5
 0.560  0.8799  -39.9   3.229  145.1  0.0720   63.5  0.9483  -18.1
 0.580  0.8757  -41.3   3.217  144.0  0.0743   62.6  0.9454  -18.7
 0.600  0.8721  -42.7   3.205  142.9  0.0767   61.8  0.9425  -19.3
 0.620  0.8672  -44.0   3.181  141.8  0.0786   61.0  0.9389  -19.9
 0.640  0.8627  -45.3   3.158  140.7  0.0806   60.2  0.9353  -20.4
 0.660  0.8586  -46.6   3.136  139.6  0.0825   59.5  0.9319  -21.0
 0.680  0.8550  -47.9   3.115  138.5  0.0845   58.8  0.9285  -21.5
 0.700  0.8519  -49.2   3.096  137.3  0.0865   58.1  0.9252  -22.1
 0.720  0.8440  -50.5   3.086  136.2  0.0883   57.2  0.9216  -22.6
 0.740  0.8366  -51.9   3.078  135.0  0.0901   56.4  0.9181  -23.1
 0.760  0.8297  -53.2   3.071  133.9  0.0919   55.5  0.9147  -23.6
 0.780  0.8232  -54.6   3.065  132.7  0.0937   54.8  0.9114  -24.2
 0.800  0.8172  -56.0   3.060  131.6  0.0956   54.0  0.9081  -24.7
 0.820  0.8105  -57.3   3.041  130.5  0.0973   53.1  0.9038  -25.2
 0.840  0.8042  -58.6   3.024  129.5  0.0989   52.3  0.8996  -25.8
 0.860  0.7983  -59.9   3.007  128.4  0.1006   51.5  0.8955  -26.3
 0.880  0.7929  -61.2   2.991  127.3  0.1024   50.7  0.8915  -26.9
 0.900  0.7879  -62.6   2.977  126.2  0.1041   50.0  0.8875  -27.4
 0.920  0.7814  -63.9   2.951  125.3  0.1054   49.3  0.8836  -27.9
 0.940  0.7754  -65.2   2.926  124.3  0.1067   48.6  0.8798  -28.3
 0.960  0.7697  -66.5   2.902  123.4  0.1080   47.9  0.8760  -28.8
 0.980  0.7645  -67.8   2.879  122.4  0.1093   47.2  0.8723  -29.2
 1.000  0.7597  -69.2   2.856  121.4  0.1106   46.6  0.8686  -29.7
 1.020  0.7524  -70.4   2.839  120.4  0.1120   45.8  0.8648  -30.2
 1.040  0.7455  -71.7   2.824  119.4  0.1135   45.1  0.8611  -30.6
 1.060  0.7390  -73.0   2.809  118.3  0.1150   44.4  0.8575  -31.1
 1.080  0.7328  -74.3   2.795  117.3  0.1165   43.7  0.8538  -31.5
 1.100  0.7270  -75.6   2.782  116.2  0.1180   43.0  0.8503  -32.0
 1.120  0.7205  -76.8   2.760  115.3  0.1191   42.3  0.8469  -32.5
 1.140  0.7144  -78.1   2.738  114.5  0.1202   41.6  0.8436  -32.9
 1.160  0.7086  -79.4   2.717  113.6  0.1214   40.9  0.8404  -33.4
 1.180  0.7032  -80.7   2.697  112.7  0.1225   40.3  0.8372  -33.8
 1.200  0.6981  -82.0   2.677  111.8  0.1237   39.6  0.8340  -34.3
 1.220  0.6927  -83.3   2.658  110.9  0.1247   39.0  0.8305  -34.7
 1.240  0.6876  -84.5   2.640  110.0  0.1256   38.5  0.8271  -35.1
 1.260  0.6828  -85.8   2.623  109.0  0.1266   37.9  0.8237  -35.4
 1.280  0.6784  -87.2   2.606  108.1  0.1276   37.3  0.8203  -35.8
 1.300  0.6744  -88.5   2.590  107.1  0.1286   36.8  0.8170  -36.2
 1.320  0.6673  -89.6   2.572  106.3  0.1294   36.2  0.8134  -36.6
 1.340  0.6605  -90.8   2.555  105.4  0.1302   35.7  0.8099  -37.0
 1.360  0.6540  -92.0   2.539  104.6  0.1310   35.1  0.8064  -37.4
 1.380  0.6478  -93.2   2.523  103.7  0.1319   34.5  0.8029  -37.8
 1.400  0.6418  -94.4   2.508  102.8  0.1327   34.0  0.7995  -38.2
 1.420  0.6364  -95.8   2.496  101.9  0.1334   33.5  0.7959  -38.5
 1.440  0.6314  -97.3   2.484  100.9  0.1342   33.0  0.7923  -38.8
 1.460  0.6269  -98.8   2.474  100.0  0.1349   32.5  0.7887  -39.2
 1.480  0.6227 -100.3   2.463   99.1  0.1356   32.1  0.7852  -39.5
 1.500  0.6190 -101.8   2.454   98.1  0.1364   31.6  0.7817  -39.8
 1.520  0.6130 -103.0   2.436   97.3  0.1371   31.1  0.7792  -40.1
 1.540  0.6072 -104.1   2.419   96.5  0.1378   30.6  0.7766  -40.4
 1.560  0.6017 -105.3   2.402   95.7  0.1385   30.1  0.7741  -40.8
 1.580  0.5965 -106.6   2.385   94.8  0.1392   29.7  0.7717  -41.1
 1.600  0.5915 -107.8   2.369   94.0  0.1399   29.2  0.7692  -41.4
 1.620  0.5862 -109.2   2.355   93.2  0.1403   28.7  0.7652  -41.8
 1.640  0.5813 -110.5   2.341   92.3  0.1406   28.2  0.7612  -42.1
 1.660  0.5767 -111.9   2.328   91.4  0.1410   27.8  0.7572  -42.5
 1.680  0.5725 -113.4   2.315   90.6  0.1414   27.3  0.7533  -42.9
 1.700  0.5686 -114.8   2.303   89.7  0.1418   26.8  0.7494  -43.3
 1.720  0.5634 -116.2   2.287   88.9  0.1423   26.4  0.7465  -43.6
 1.740  0.5585 -117.5   2.272   88.1  0.1427   26.0  0.7437  -43.9
 1.760  0.5540 -118.9   2.257   87.3  0.1432   25.6  0.7409  -44.1
 1.780  0.5498 -120.4   2.243   86.4  0.1437   25.2  0.7381  -44.4
 1.800  0.5459 -121.8   2.229   85.6  0.1442   24.8  0.7353  -44.7
 1.820  0.5422 -123.1   2.214   84.9  0.1446   24.3  0.7326  -45.0
 1.840  0.5388 -124.4   2.200   84.1  0.1449   23.8  0.7299  -45.4
 1.860  0.5357 -125.7   2.186   83.3  0.1453   23.4  0.7272  -45.7
 1.880  0.5329 -127.0   2.173   82.6  0.1457   22.9  0.7245  -46.1
 1.900  0.5303 -128.3   2.160   81.8  0.1461   22.4  0.7219  -46.4
 1.920  0.5255 -129.5   2.144   81.1  0.1465   22.1  0.7196  -46.7
 1.940  0.5210 -130.8   2.128   80.3  0.1469   21.7  0.7174  -46.9
 1.960  0.5167 -132.1   2.113   79.6  0.1473   21.4  0.7151  -47.2
 1.980  0.5127 -133.4   2.098   78.8  0.1477   21.0  0.7129  -47.4
 2.000  0.5090 -134.7   2.084   78.0  0.1481   20.7  0.7107  -47.7
 2.020  0.5050 -136.0   2.070   77.3  0.1482   20.3  0.7083  -48.0
 2.040  0.5012 -137.3   2.056   76.6  0.1484   20.0  0.7059  -48.3
 2.060  0.4978 -138.6   2.042   75.9  0.1485   19.6  0.7035  -48.6
 2.080  0.4945 -139.9   2.028   75.2  0.1487   19.2  0.7012  -48.9
 2.100  0.4916 -141.3   2.015   74.4  0.1489   18.8  0.6988  -49.2
 2.120  0.4889 -142.6   2.003   73.7  0.1490   18.5  0.6965  -49.5
 2.140  0.4865 -144.0   1.990   72.9  0.1492   18.1  0.6942  -49.8
 2.160  0.4844 -145.4   1.978   72.2  0.1494   17.7  0.6920  -50.2
 2.180  0.4825 -146.8   1.966   71.4  0.1496   17.4  0.6897  -50.5
 2.200  0.4810 -148.2   1.955   70.6  0.1498   17.0  0.6875  -50.8
 2.220  0.4784 -149.5   1.942   70.0  0.1499   16.7  0.6854  -51.1
 2.240  0.4761 -150.7   1.929   69.3  0.1500   16.3  0.6834  -51.4
 2.260  0.4740 -152.0   1.917   68.7  0.1502   16.0  0.6814  -51.7
 2.280  0.4721 -153.3   1.904   68.0  0.1503   15.6  0.6794  -51.9
 2.300  0.4705 -154.6   1.892   67.4  0.1504   15.3  0.6774  -52.2
 2.320  0.4691 -155.9   1.880   66.7  0.1506   15.0  0.6754  -52.5
 2.340  0.4680 -157.2   1.869   66.0  0.1507   14.6  0.6735  -52.8
 2.360  0.4671 -158.5   1.858   65.3  0.1509   14.3  0.6715  -53.1
 2.380  0.4665 -159.9   1.847   64.6  0.1510   13.9  0.6696  -53.4
 2.400  0.4661 -161.2   1.836   63.9  0.1512   13.6  0.6677  -53.7
 2.420  0.4645 -162.5   1.824   63.3  0.1511   13.4  0.6655  -54.0
 2.440  0.4631 -163.8   1.813   62.7  0.1511   13.1  0.6632  -54.2
 2.460  0.4620 -165.2   1.802   62.0  0.1511   12.9  0.6610  -54.5
 2.480  0.4611 -166.5   1.791   61.4  0.1510   12.6  0.6588  -54.8
 2.500  0.4605 -167.9   1.781   60.7  0.1510   12.4  0.6566  -55.1
 2.520  0.4601 -169.2   1.770   60.1  0.1509   12.2  0.6544  -55.4
 2.540  0.4600 -170.6   1.760   59.4  0.1509   11.9  0.6523  -55.6
 2.560  0.4601 -171.9   1.750   58.8  0.1509   11.7  0.6501  -55.9
 2.580  0.4605 -173.3   1.740   58.1  0.1508   11.4  0.6480  -56.2
 2.600  0.4612 -174.6   1.731   57.4  0.1508   11.2  0.6459  -56.5
 2.620  0.4602 -175.8   1.720   56.8  0.1508   10.9  0.6446  -56.8
 2.640  0.4593 -176.9   1.708   56.1  0.1508   10.7  0.6434  -57.1
 2.660  0.4587 -178.1   1.697   55.5  0.1508   10.4  0.6421  -57.3
 2.680  0.4583 -179.3   1.687   54.8  0.1508   10.1  0.6409  -57.6
 2.700  0.4580  179.5   1.676   54.2  0.1508    9.8  0.6397  -57.9
 2.720  0.4580  178.3   1.666   53.5  0.1508    9.6  0.6385  -58.2
 2.740  0.4581  177.1   1.656   52.8  0.1508    9.3  0.6373  -58.4
 2.760  0.4584  176.0   1.646   52.1  0.1509    9.0  0.6361  -58.7
 2.780  0.4590  174.8   1.636   51.4  0.1509    8.8  0.6349  -59.0
 2.800  0.4597  173.6   1.627   50.7  0.1509    8.5  0.6338  -59.3
 2.820  0.4593  172.4   1.619   50.1  0.1508    8.3  0.6322  -59.6
 2.840  0.4590  171.3   1.610   49.5  0.1506    8.0  0.6306  -59.9
 2.860  0.4590  170.1   1.602   48.9  0.1505    7.8  0.6290  -60.2
 2.880  0.4591  168.9   1.594   48.3  0.1504    7.5  0.6275  -60.5
 2.900  0.4594  167.7   1.587   47.7  0.1503    7.3  0.6259  -60.8
 2.920  0.4600  166.5   1.579   47.1  0.1501    7.1  0.6244  -61.1
 2.940  0.4607  165.4   1.572   46.5  0.1500    6.8  0.6229  -61.4
 2.960  0.4616  164.2   1.565   45.9  0.1499    6.6  0.6214  -61.7
 2.980  0.4627  163.1   1.558   45.2  0.1498    6.3  0.6200  -62.0
 3.000  0.4640  161.9   1.551   44.6  0.1497    6.1  0.6185  -62.3
 3.100  0.4637  156.8   1.503   42.1  0.1493    5.3  0.6139  -63.8
 3.200  0.4671  151.8   1.458   39.4  0.1489    4.5  0.6097  -65.3
 3.300  0.4741  146.8   1.416   36.6  0.1485    3.7  0.6060  -66.8
 3.400  0.4844  142.0   1.378   33.6  0.1481    2.9  0.6027  -68.3
 3.500  0.4980  137.5   1.344   30.5  0.1478    2.1  0.5998  -69.9
 3.600  0.5036  133.7   1.305   28.2  0.1468    1.6  0.5954  -71.7
 3.700  0.5114  130.1   1.268   25.8  0.1458    1.0  0.5916  -73.4
 3.800  0.5212  126.5   1.233   23.3  0.1448    0.4  0.5884  -75.2
 3.900  0.5329  123.1   1.200   20.6  0.1439   -0.1  0.5857  -77.1
 4.000  0.5464  119.9   1.171   17.8  0.1429   -0.7  0.5837  -78.9
 4.100  0.5523  117.0   1.138   15.8  0.1420   -1.0  0.5810  -80.9
 4.200  0.5596  114.2   1.107   13.6  0.1411   -1.2  0.5791  -82.9
 4.300  0.5682  111.4   1.078   11.3  0.1402   -1.5  0.5779  -84.9
 4.400  0.5781  108.8   1.050    8.9  0.1394   -1.8  0.5774  -87.0
 4.500  0.5892  106.2   1.024    6.4  0.1385   -2.1  0.5776  -89.0
 4.600  0.5946  103.9   0.999    4.7  0.1378   -1.9  0.5751  -91.1
 4.700  0.6009  101.7   0.975    2.8  0.1371   -1.7  0.5733  -93.1
 4.800  0.6081   99.5   0.952    0.9  0.1364   -1.5  0.5722  -95.2
 4.900  0.6162   97.4   0.930   -1.1  0.1357   -1.3  0.5719  -97.3
 5.000  0.6251   95.3   0.909   -3.2  0.1350   -1.1  0.5724  -99.4
 5.100  0.6314   93.6   0.887   -4.9  0.1357   -0.7  0.5724 -101.5
 5.200  0.6383   92.0   0.867   -6.6  0.1364   -0.3  0.5731 -103.7
 5.300  0.6457   90.4   0.847   -8.5  0.1371    0.1  0.5747 -105.8
 5.400  0.6536   88.8   0.828  -10.4  0.1378    0.5  0.5770 -107.9
 5.500  0.6619   87.3   0.810  -12.4  0.1385    0.9  0.5801 -110.0
 5.600  0.6683   85.8   0.791  -13.9  0.1398    1.0  0.5805 -112.2
 5.700  0.6751   84.3   0.772  -15.6  0.1412    1.2  0.5818 -114.4
 5.800  0.6824   82.8   0.755  -17.3  0.1425    1.3  0.5840 -116.7
 5.900  0.6902   81.4   0.737  -19.0  0.1439    1.5  0.5870 -118.8
 6.000  0.6983   80.0   0.721  -20.9  0.1452    1.6  0.5909 -121.0
!
!  f       NFmin   Gammaopt  rn/50
! GHz       dB    MAG  ANG    -
 0.450      1.30  0.70   18   0.50
 0.900      1.40  0.60   39   0.52
 1.800      1.85  0.40   81   0.47
!
! (c) 2016  Infineon Technologies AG, Munich
