! Infineon Technologies  Discrete & RF Semiconductors
! BFP183
! VCE = 4.0 V,  IC =  30 mA
! Common Emitter S-Parameters:                            Jan 2016
# GHz  S  MA  R  50
!  f         S11            S21            S12            S22
! GHz     MAG   ANG      MAG   ANG      MAG   ANG      MAG   ANG
 0.010  0.4362   -9.8  43.245  175.3  0.0016   76.2  0.9508   -2.9
 0.015  0.4372  -14.6  43.206  173.3  0.0023   81.7  0.9448   -4.6
 0.020  0.4412  -19.4  43.222  171.2  0.0031   84.5  0.9397   -6.4
 0.025  0.4353  -23.8  42.700  169.2  0.0039   82.2  0.9312   -7.9
 0.030  0.4320  -28.3  42.234  167.1  0.0048   80.7  0.9233   -9.5
 0.035  0.4314  -32.8  41.823  165.0  0.0056   79.7  0.9161  -11.0
 0.040  0.4335  -37.3  41.472  162.8  0.0065   78.9  0.9097  -12.6
 0.045  0.4382  -41.8  41.180  160.6  0.0073   78.4  0.9039  -14.3
 0.050  0.4455  -46.1  40.949  158.4  0.0082   77.9  0.8989  -15.9
 0.055  0.4404  -49.6  40.185  156.9  0.0087   75.6  0.8854  -17.0
 0.060  0.4370  -53.2  39.448  155.4  0.0093   73.5  0.8721  -18.1
 0.065  0.4353  -56.8  38.740  153.8  0.0098   71.7  0.8593  -19.2
 0.070  0.4353  -60.4  38.063  152.2  0.0104   70.0  0.8467  -20.4
 0.075  0.4371  -64.0  37.417  150.5  0.0110   68.6  0.8345  -21.6
 0.080  0.4406  -67.6  36.806  148.8  0.0115   67.3  0.8227  -22.8
 0.085  0.4458  -71.1  36.230  147.0  0.0121   66.1  0.8113  -24.1
 0.090  0.4527  -74.5  35.691  145.1  0.0127   65.0  0.8003  -25.4
 0.095  0.4611  -77.8  35.191  143.2  0.0133   64.0  0.7897  -26.7
 0.100  0.4709  -81.0  34.731  141.2  0.0139   63.1  0.7796  -28.1
 0.105  0.4683  -83.5  34.093  140.1  0.0143   62.3  0.7675  -28.8
 0.110  0.4666  -86.0  33.467  139.0  0.0147   61.5  0.7555  -29.4
 0.115  0.4658  -88.6  32.854  137.8  0.0151   60.7  0.7435  -30.1
 0.120  0.4660  -91.1  32.256  136.6  0.0155   60.0  0.7318  -30.9
 0.125  0.4670  -93.6  31.672  135.4  0.0159   59.3  0.7201  -31.6
 0.130  0.4690  -96.2  31.105  134.1  0.0163   58.7  0.7085  -32.4
 0.135  0.4718  -98.7  30.553  132.7  0.0167   58.1  0.6971  -33.2
 0.140  0.4756 -101.1  30.019  131.3  0.0172   57.5  0.6858  -34.0
 0.145  0.4802 -103.5  29.504  129.9  0.0176   56.9  0.6747  -34.8
 0.150  0.4856 -105.9  29.008  128.4  0.0180   56.4  0.6637  -35.7
 0.155  0.4850 -107.6  28.508  127.6  0.0183   56.0  0.6544  -36.1
 0.160  0.4848 -109.4  28.014  126.8  0.0185   55.7  0.6451  -36.5
 0.165  0.4851 -111.1  27.525  126.0  0.0188   55.3  0.6358  -36.9
 0.170  0.4858 -112.9  27.042  125.1  0.0190   55.0  0.6265  -37.3
 0.175  0.4870 -114.6  26.566  124.3  0.0193   54.7  0.6173  -37.7
 0.180  0.4886 -116.3  26.096  123.3  0.0196   54.4  0.6081  -38.1
 0.185  0.4906 -118.1  25.633  122.4  0.0198   54.1  0.5990  -38.6
 0.190  0.4931 -119.8  25.177  121.4  0.0201   53.8  0.5899  -39.0
 0.195  0.4961 -121.4  24.730  120.4  0.0203   53.5  0.5808  -39.5
 0.200  0.4994 -123.1  24.290  119.3  0.0206   53.2  0.5718  -40.0
 0.220  0.5026 -128.1  22.759  116.8  0.0213   52.6  0.5443  -40.8
 0.240  0.5095 -133.0  21.275  114.0  0.0220   52.0  0.5169  -41.7
 0.260  0.5131 -137.2  19.993  111.6  0.0228   51.7  0.4927  -42.4
 0.280  0.5123 -140.7  18.888  109.7  0.0239   51.8  0.4715  -42.7
 0.300  0.5135 -144.3  17.807  107.5  0.0250   51.8  0.4503  -43.1
 0.320  0.5138 -146.9  16.998  106.2  0.0256   51.8  0.4370  -43.2
 0.340  0.5151 -149.6  16.198  104.7  0.0263   51.9  0.4238  -43.2
 0.360  0.5175 -152.2  15.410  103.1  0.0269   51.9  0.4105  -43.3
 0.380  0.5210 -154.8  14.635  101.4  0.0276   52.0  0.3973  -43.4
 0.400  0.5255 -157.3  13.876   99.4  0.0282   52.0  0.3840  -43.5
 0.420  0.5252 -159.2  13.338   98.4  0.0288   52.2  0.3759  -43.4
 0.440  0.5254 -161.2  12.804   97.4  0.0295   52.4  0.3678  -43.4
 0.450  0.5257 -162.1  12.539   96.9  0.0298   52.5  0.3637  -43.4
 0.460  0.5262 -163.1  12.275   96.3  0.0301   52.6  0.3596  -43.3
 0.480  0.5277 -165.0  11.751   95.0  0.0308   52.8  0.3515  -43.3
 0.500  0.5297 -166.9  11.233   93.7  0.0314   53.0  0.3434  -43.2
 0.520  0.5298 -168.3  10.887   92.9  0.0322   53.3  0.3382  -43.1
 0.540  0.5303 -169.8  10.544   92.0  0.0329   53.6  0.3330  -43.0
 0.560  0.5311 -171.2  10.203   91.0  0.0337   53.9  0.3277  -43.0
 0.580  0.5322 -172.6   9.865   90.0  0.0344   54.2  0.3225  -42.9
 0.600  0.5337 -174.0   9.531   88.9  0.0352   54.5  0.3173  -42.8
 0.620  0.5336 -175.2   9.254   88.2  0.0359   54.7  0.3138  -42.7
 0.640  0.5337 -176.4   8.979   87.4  0.0366   54.9  0.3103  -42.7
 0.660  0.5341 -177.5   8.705   86.7  0.0372   55.1  0.3069  -42.6
 0.680  0.5347 -178.7   8.433   85.8  0.0379   55.3  0.3034  -42.6
 0.700  0.5355 -179.9   8.163   84.9  0.0386   55.5  0.2999  -42.5
 0.720  0.5359  179.1   7.972   84.3  0.0394   55.6  0.2976  -42.5
 0.740  0.5365  178.0   7.783   83.6  0.0401   55.7  0.2953  -42.5
 0.760  0.5372  177.0   7.594   82.9  0.0409   55.7  0.2931  -42.5
 0.780  0.5382  175.9   7.407   82.2  0.0416   55.8  0.2908  -42.5
 0.800  0.5393  174.9   7.221   81.4  0.0424   55.9  0.2885  -42.5
 0.820  0.5396  173.9   7.065   80.8  0.0432   56.1  0.2868  -42.6
 0.840  0.5401  173.0   6.909   80.2  0.0441   56.2  0.2851  -42.7
 0.860  0.5407  172.0   6.755   79.6  0.0449   56.3  0.2833  -42.7
 0.880  0.5415  171.1   6.601   79.0  0.0458   56.5  0.2816  -42.8
 0.900  0.5424  170.1   6.448   78.3  0.0466   56.6  0.2799  -42.9
 0.920  0.5425  169.2   6.314   77.7  0.0473   56.7  0.2784  -43.0
 0.940  0.5427  168.3   6.181   77.1  0.0481   56.8  0.2770  -43.1
 0.960  0.5430  167.5   6.049   76.4  0.0488   56.8  0.2755  -43.2
 0.980  0.5435  166.6   5.918   75.7  0.0496   56.9  0.2741  -43.3
 1.000  0.5441  165.7   5.787   75.0  0.0503   57.0  0.2726  -43.4
 1.020  0.5453  164.9   5.686   74.4  0.0512   57.0  0.2716  -43.6
 1.040  0.5465  164.1   5.585   73.9  0.0521   57.0  0.2705  -43.8
 1.060  0.5479  163.3   5.485   73.3  0.0529   56.9  0.2695  -43.9
 1.080  0.5493  162.6   5.386   72.6  0.0538   56.9  0.2684  -44.1
 1.100  0.5509  161.8   5.287   72.0  0.0547   56.9  0.2674  -44.3
 1.120  0.5515  161.1   5.196   71.5  0.0554   56.9  0.2667  -44.5
 1.140  0.5521  160.3   5.106   71.1  0.0561   56.9  0.2660  -44.7
 1.160  0.5528  159.6   5.016   70.6  0.0568   56.8  0.2654  -44.9
 1.180  0.5537  158.8   4.926   70.0  0.0575   56.8  0.2647  -45.1
 1.200  0.5546  158.1   4.837   69.5  0.0582   56.8  0.2640  -45.3
 1.220  0.5552  157.4   4.761   69.0  0.0590   56.8  0.2632  -45.6
 1.240  0.5559  156.8   4.685   68.4  0.0598   56.8  0.2624  -45.8
 1.260  0.5567  156.1   4.609   67.9  0.0606   56.8  0.2616  -46.1
 1.280  0.5576  155.5   4.534   67.3  0.0614   56.8  0.2609  -46.3
 1.300  0.5585  154.8   4.460   66.7  0.0622   56.8  0.2601  -46.6
 1.320  0.5593  154.1   4.398   66.2  0.0630   56.7  0.2595  -46.8
 1.340  0.5602  153.4   4.337   65.7  0.0638   56.6  0.2589  -47.1
 1.360  0.5611  152.6   4.275   65.2  0.0647   56.5  0.2583  -47.3
 1.380  0.5622  151.9   4.215   64.7  0.0655   56.4  0.2577  -47.6
 1.400  0.5633  151.2   4.154   64.2  0.0663   56.3  0.2571  -47.8
 1.420  0.5642  150.6   4.098   63.7  0.0671   56.2  0.2566  -48.1
 1.440  0.5652  150.0   4.043   63.1  0.0679   56.1  0.2560  -48.4
 1.460  0.5662  149.4   3.988   62.5  0.0688   56.0  0.2555  -48.6
 1.480  0.5673  148.8   3.933   61.9  0.0696   55.9  0.2550  -48.9
 1.500  0.5685  148.2   3.879   61.3  0.0704   55.8  0.2545  -49.2
 1.520  0.5688  147.6   3.830   60.8  0.0712   55.7  0.2540  -49.5
 1.540  0.5691  146.9   3.782   60.4  0.0719   55.6  0.2536  -49.8
 1.560  0.5695  146.3   3.734   59.9  0.0727   55.5  0.2532  -50.2
 1.580  0.5700  145.6   3.686   59.4  0.0734   55.4  0.2527  -50.5
 1.600  0.5706  145.0   3.639   58.9  0.0742   55.3  0.2523  -50.8
 1.620  0.5721  144.4   3.593   58.4  0.0751   55.1  0.2518  -51.2
 1.640  0.5737  143.8   3.548   57.9  0.0759   55.0  0.2513  -51.6
 1.660  0.5753  143.2   3.503   57.4  0.0768   54.8  0.2508  -52.0
 1.680  0.5770  142.6   3.458   56.9  0.0776   54.7  0.2503  -52.4
 1.700  0.5787  142.0   3.414   56.4  0.0785   54.5  0.2498  -52.8
 1.720  0.5800  141.3   3.376   55.9  0.0792   54.4  0.2491  -53.1
 1.740  0.5813  140.7   3.338   55.4  0.0799   54.3  0.2484  -53.5
 1.760  0.5828  140.0   3.300   54.9  0.0807   54.2  0.2477  -53.8
 1.780  0.5843  139.4   3.262   54.3  0.0814   54.1  0.2471  -54.2
 1.800  0.5859  138.7   3.225   53.8  0.0821   54.0  0.2464  -54.5
 1.820  0.5858  138.2   3.189   53.4  0.0829   53.8  0.2460  -54.8
 1.840  0.5857  137.6   3.153   52.9  0.0836   53.5  0.2457  -55.2
 1.860  0.5857  137.1   3.118   52.5  0.0844   53.3  0.2453  -55.5
 1.880  0.5857  136.5   3.082   52.1  0.0851   53.1  0.2449  -55.9
 1.900  0.5858  136.0   3.047   51.6  0.0859   52.9  0.2446  -56.2
 1.920  0.5875  135.4   3.014   51.1  0.0867   52.8  0.2443  -56.6
 1.940  0.5892  134.9   2.980   50.6  0.0875   52.6  0.2440  -57.0
 1.960  0.5910  134.3   2.947   50.1  0.0883   52.5  0.2437  -57.5
 1.980  0.5929  133.8   2.915   49.6  0.0891   52.3  0.2434  -57.9
 2.000  0.5948  133.2   2.882   49.1  0.0899   52.2  0.2431  -58.3
 2.020  0.5960  132.7   2.855   48.7  0.0907   52.0  0.2424  -58.7
 2.040  0.5972  132.2   2.828   48.2  0.0914   51.9  0.2418  -59.2
 2.060  0.5984  131.7   2.801   47.8  0.0922   51.7  0.2412  -59.6
 2.080  0.5997  131.2   2.775   47.3  0.0930   51.6  0.2406  -60.1
 2.100  0.6011  130.7   2.748   46.9  0.0937   51.4  0.2400  -60.5
 2.120  0.6025  130.2   2.722   46.4  0.0945   51.3  0.2394  -61.0
 2.140  0.6039  129.7   2.696   45.9  0.0953   51.1  0.2388  -61.4
 2.160  0.6054  129.2   2.670   45.4  0.0961   51.0  0.2383  -61.9
 2.180  0.6069  128.7   2.644   44.9  0.0968   50.8  0.2377  -62.3
 2.200  0.6085  128.2   2.619   44.4  0.0976   50.7  0.2372  -62.8
 2.220  0.6096  127.7   2.596   44.0  0.0984   50.5  0.2367  -63.3
 2.240  0.6107  127.1   2.574   43.6  0.0991   50.4  0.2362  -63.7
 2.260  0.6119  126.6   2.551   43.2  0.0999   50.2  0.2357  -64.2
 2.280  0.6131  126.0   2.529   42.7  0.1006   50.0  0.2353  -64.7
 2.300  0.6144  125.5   2.507   42.3  0.1014   49.9  0.2348  -65.2
 2.320  0.6157  124.9   2.485   41.9  0.1022   49.7  0.2344  -65.7
 2.340  0.6171  124.4   2.463   41.4  0.1029   49.6  0.2340  -66.1
 2.360  0.6185  123.9   2.441   40.9  0.1037   49.4  0.2336  -66.6
 2.380  0.6200  123.3   2.419   40.5  0.1044   49.2  0.2333  -67.1
 2.400  0.6216  122.8   2.398   40.0  0.1052   49.1  0.2329  -67.6
 2.420  0.6230  122.3   2.378   39.6  0.1059   48.9  0.2322  -68.1
 2.440  0.6244  121.8   2.358   39.2  0.1066   48.7  0.2316  -68.6
 2.460  0.6258  121.3   2.338   38.8  0.1073   48.5  0.2309  -69.1
 2.480  0.6273  120.9   2.318   38.3  0.1080   48.3  0.2303  -69.6
 2.500  0.6288  120.4   2.298   37.9  0.1087   48.1  0.2297  -70.1
 2.520  0.6304  119.9   2.278   37.5  0.1094   47.9  0.2291  -70.6
 2.540  0.6321  119.4   2.259   37.0  0.1101   47.7  0.2285  -71.1
 2.560  0.6337  118.9   2.239   36.5  0.1108   47.5  0.2280  -71.6
 2.580  0.6354  118.5   2.220   36.1  0.1115   47.3  0.2274  -72.1
 2.600  0.6372  118.0   2.201   35.6  0.1122   47.1  0.2269  -72.6
 2.620  0.6383  117.6   2.183   35.2  0.1129   46.9  0.2265  -73.1
 2.640  0.6394  117.1   2.166   34.7  0.1135   46.7  0.2260  -73.7
 2.660  0.6406  116.7   2.149   34.3  0.1142   46.5  0.2256  -74.2
 2.680  0.6418  116.2   2.132   33.8  0.1148   46.3  0.2253  -74.7
 2.700  0.6431  115.8   2.115   33.3  0.1155   46.1  0.2249  -75.3
 2.720  0.6444  115.3   2.098   32.9  0.1161   45.9  0.2246  -75.8
 2.740  0.6457  114.9   2.081   32.4  0.1168   45.7  0.2242  -76.4
 2.760  0.6471  114.5   2.065   31.9  0.1175   45.6  0.2239  -76.9
 2.780  0.6485  114.0   2.048   31.4  0.1181   45.4  0.2237  -77.5
 2.800  0.6499  113.6   2.032   30.9  0.1188   45.2  0.2234  -78.0
 2.820  0.6512  113.1   2.017   30.5  0.1195   45.0  0.2228  -78.6
 2.840  0.6526  112.7   2.002   30.1  0.1201   44.8  0.2222  -79.1
 2.860  0.6540  112.2   1.987   29.7  0.1208   44.6  0.2217  -79.7
 2.880  0.6555  111.7   1.973   29.3  0.1215   44.5  0.2212  -80.2
 2.900  0.6570  111.3   1.958   28.9  0.1221   44.3  0.2207  -80.8
 2.920  0.6586  110.8   1.944   28.5  0.1228   44.1  0.2202  -81.4
 2.940  0.6602  110.4   1.929   28.1  0.1235   43.9  0.2197  -82.0
 2.960  0.6618  109.9   1.915   27.7  0.1242   43.7  0.2193  -82.5
 2.980  0.6635  109.5   1.901   27.2  0.1248   43.6  0.2189  -83.1
 3.000  0.6652  109.0   1.887   26.8  0.1255   43.4  0.2185  -83.7
 3.100  0.6708  107.1   1.823   25.1  0.1286   42.4  0.2166  -86.7
 3.200  0.6771  105.2   1.760   23.2  0.1318   41.4  0.2153  -89.8
 3.300  0.6841  103.3   1.700   21.2  0.1349   40.5  0.2146  -92.9
 3.400  0.6919  101.5   1.642   19.1  0.1382   39.6  0.2146  -96.0
 3.500  0.7003   99.7   1.586   16.8  0.1414   38.8  0.2152  -99.1
 3.600  0.7054   98.0   1.539   15.1  0.1443   37.8  0.2144 -102.5
 3.700  0.7111   96.3   1.493   13.4  0.1473   36.8  0.2144 -105.8
 3.800  0.7173   94.7   1.449   11.5  0.1503   35.9  0.2152 -109.2
 3.900  0.7242   93.1   1.406    9.5  0.1534   35.0  0.2166 -112.5
 4.000  0.7316   91.5   1.365    7.4  0.1565   34.1  0.2188 -115.8
 4.100  0.7354   90.1   1.326    5.8  0.1589   33.1  0.2196 -119.2
 4.200  0.7395   88.7   1.289    4.1  0.1614   32.1  0.2212 -122.5
 4.300  0.7442   87.3   1.252    2.4  0.1639   31.2  0.2235 -125.8
 4.400  0.7492   85.9   1.217    0.5  0.1665   30.3  0.2265 -129.0
 4.500  0.7547   84.6   1.183   -1.5  0.1691   29.4  0.2302 -132.1
 4.600  0.7578   83.4   1.153   -2.8  0.1716   28.7  0.2325 -134.9
 4.700  0.7612   82.2   1.123   -4.1  0.1741   28.1  0.2353 -137.6
 4.800  0.7650   81.0   1.094   -5.5  0.1767   27.4  0.2386 -140.3
 4.900  0.7690   79.9   1.066   -6.9  0.1792   26.8  0.2424 -142.9
 5.000  0.7734   78.7   1.038   -8.5  0.1818   26.2  0.2467 -145.4
 5.100  0.7764   77.7   1.015   -9.9  0.1850   25.1  0.2527 -148.0
 5.200  0.7796   76.7   0.993  -11.4  0.1883   24.1  0.2593 -150.5
 5.300  0.7831   75.7   0.972  -12.9  0.1917   23.2  0.2663 -152.9
 5.400  0.7868   74.7   0.952  -14.5  0.1951   22.2  0.2737 -155.2
 5.500  0.7908   73.7   0.932  -16.2  0.1985   21.3  0.2816 -157.3
 5.600  0.7948   72.8   0.912  -17.5  0.2009   20.3  0.2874 -159.6
 5.700  0.7991   71.8   0.893  -18.8  0.2033   19.4  0.2937 -161.9
 5.800  0.8035   70.9   0.874  -20.2  0.2058   18.5  0.3004 -164.0
 5.900  0.8082   70.0   0.856  -21.7  0.2083   17.6  0.3075 -166.1
 6.000  0.8130   69.1   0.838  -23.2  0.2109   16.7  0.3150 -168.0
!
!  f       NFmin   Gammaopt  rn/50
! GHz       dB    MAG  ANG    -
!
! noise parameter not available yet for this operation point!
!
! (c) 2016  Infineon Technologies AG, Munich
