! Infineon Technologies  Discrete & RF Semiconductors
! BFP196W
! VCE = 8.0 V,  IC =  12mA
! Common Emitter S-Parameters:                            Jan 2016
# GHz  S  MA  R  50
!  f         S11            S21            S12            S22
! GHz     MAG   ANG      MAG   ANG      MAG   ANG      MAG   ANG
 0.010  0.7099  -12.8  32.071  172.0  0.0054   81.2  0.9625   -6.7
 0.015  0.7056  -19.4  32.071  169.7  0.0079   79.2  0.9538  -10.0
 0.020  0.7105  -25.9  32.123  167.4  0.0105   78.2  0.9483  -13.3
 0.025  0.7107  -31.9  31.685  164.5  0.0128   75.4  0.9350  -16.5
 0.030  0.7188  -37.9  31.329  161.6  0.0152   73.4  0.9247  -19.7
 0.035  0.7099  -43.4  30.661  159.0  0.0173   69.9  0.9040  -22.5
 0.040  0.7076  -48.9  30.061  156.2  0.0194   67.2  0.8856  -25.4
 0.045  0.7119  -54.5  29.533  153.4  0.0216   65.0  0.8695  -28.4
 0.050  0.7228  -59.9  29.081  150.4  0.0238   63.2  0.8559  -31.5
 0.055  0.7103  -63.7  28.301  148.9  0.0249   60.8  0.8330  -33.2
 0.060  0.7010  -67.6  27.543  147.2  0.0260   58.5  0.8108  -34.9
 0.065  0.6951  -71.6  26.808  145.5  0.0272   56.5  0.7895  -36.8
 0.070  0.6925  -75.6  26.099  143.7  0.0284   54.6  0.7690  -38.8
 0.075  0.6935  -79.7  25.417  141.8  0.0297   52.9  0.7495  -40.8
 0.080  0.6979  -83.7  24.766  139.8  0.0309   51.4  0.7310  -43.0
 0.085  0.7057  -87.7  24.146  137.6  0.0322   49.9  0.7136  -45.3
 0.090  0.7168  -91.5  23.562  135.4  0.0335   48.6  0.6974  -47.7
 0.095  0.7310  -95.2  23.015  133.1  0.0349   47.3  0.6825  -50.2
 0.100  0.7481  -98.8  22.509  130.6  0.0362   46.2  0.6689  -52.8
 0.105  0.7443 -101.1  21.970  129.6  0.0368   45.1  0.6534  -53.9
 0.110  0.7418 -103.5  21.438  128.5  0.0374   44.0  0.6382  -55.1
 0.115  0.7406 -105.9  20.913  127.4  0.0381   43.0  0.6233  -56.4
 0.120  0.7406 -108.2  20.397  126.3  0.0387   42.0  0.6086  -57.7
 0.125  0.7418 -110.6  19.890  125.0  0.0394   41.1  0.5943  -59.0
 0.130  0.7444 -113.0  19.392  123.8  0.0400   40.1  0.5804  -60.5
 0.135  0.7482 -115.3  18.904  122.4  0.0407   39.2  0.5668  -62.0
 0.140  0.7532 -117.6  18.428  121.0  0.0414   38.4  0.5537  -63.5
 0.145  0.7594 -119.9  17.963  119.5  0.0421   37.5  0.5410  -65.2
 0.150  0.7668 -122.1  17.512  117.9  0.0428   36.7  0.5287  -66.9
 0.155  0.7649 -123.5  17.141  117.3  0.0430   36.2  0.5185  -67.7
 0.160  0.7635 -124.9  16.773  116.6  0.0433   35.7  0.5084  -68.5
 0.165  0.7625 -126.3  16.406  115.9  0.0435   35.2  0.4983  -69.3
 0.170  0.7620 -127.7  16.043  115.1  0.0438   34.7  0.4884  -70.1
 0.175  0.7620 -129.2  15.682  114.4  0.0440   34.2  0.4786  -71.0
 0.180  0.7624 -130.6  15.324  113.5  0.0443   33.8  0.4689  -72.0
 0.185  0.7633 -132.0  14.970  112.7  0.0445   33.3  0.4594  -72.9
 0.190  0.7647 -133.4  14.619  111.8  0.0448   32.8  0.4500  -73.9
 0.195  0.7665 -134.8  14.271  110.9  0.0450   32.4  0.4407  -75.0
 0.200  0.7688 -136.2  13.928  109.9  0.0453   31.9  0.4316  -76.1
 0.220  0.7715 -140.0  12.977  107.9  0.0462   30.6  0.4071  -78.7
 0.240  0.7777 -143.8  12.045  105.5  0.0472   29.3  0.3835  -81.7
 0.260  0.7804 -147.0  11.220  103.5  0.0479   28.4  0.3621  -84.2
 0.280  0.7786 -149.7  10.491  101.9  0.0484   27.9  0.3424  -86.2
 0.300  0.7785 -152.4   9.772  100.0  0.0488   27.4  0.3231  -88.4
 0.320  0.7782 -154.3   9.308   98.9  0.0491   27.1  0.3124  -89.8
 0.340  0.7787 -156.2   8.847   97.8  0.0494   26.7  0.3019  -91.4
 0.360  0.7801 -158.1   8.390   96.5  0.0497   26.4  0.2916  -93.0
 0.380  0.7824 -160.0   7.938   95.0  0.0500   26.1  0.2816  -94.8
 0.400  0.7855 -161.9   7.492   93.4  0.0503   25.8  0.2719  -96.7
 0.420  0.7852 -163.2   7.205   92.6  0.0507   25.9  0.2657  -97.8
 0.440  0.7853 -164.5   6.919   91.6  0.0510   26.1  0.2596  -99.0
 0.450  0.7855 -165.2   6.777   91.2  0.0512   26.2  0.2566  -99.6
 0.460  0.7858 -165.8   6.635   90.7  0.0514   26.2  0.2536 -100.2
 0.480  0.7868 -167.1   6.353   89.6  0.0517   26.4  0.2477 -101.5
 0.500  0.7881 -168.4   6.074   88.4  0.0521   26.5  0.2420 -102.8
 0.520  0.7874 -169.4   5.873   87.7  0.0524   26.7  0.2385 -103.7
 0.540  0.7870 -170.3   5.674   86.9  0.0527   27.0  0.2351 -104.6
 0.560  0.7867 -171.3   5.475   86.1  0.0530   27.2  0.2318 -105.5
 0.580  0.7867 -172.2   5.278   85.2  0.0533   27.5  0.2285 -106.5
 0.600  0.7869 -173.2   5.082   84.3  0.0536   27.7  0.2253 -107.5
 0.620  0.7877 -174.0   4.943   83.7  0.0539   28.0  0.2234 -108.1
 0.640  0.7887 -174.8   4.805   83.0  0.0542   28.2  0.2215 -108.8
 0.660  0.7899 -175.7   4.668   82.3  0.0545   28.5  0.2196 -109.4
 0.680  0.7912 -176.5   4.531   81.6  0.0548   28.7  0.2178 -110.1
 0.700  0.7927 -177.3   4.395   80.8  0.0551   29.0  0.2160 -110.8
 0.720  0.7920 -178.0   4.283   80.2  0.0555   29.3  0.2153 -111.4
 0.740  0.7913 -178.6   4.171   79.6  0.0558   29.7  0.2147 -111.9
 0.760  0.7908 -179.3   4.060   78.9  0.0562   30.0  0.2140 -112.5
 0.780  0.7904 -179.9   3.950   78.2  0.0565   30.3  0.2134 -113.1
 0.800  0.7901  179.4   3.840   77.5  0.0569   30.6  0.2128 -113.7
 0.820  0.7901  178.8   3.756   77.0  0.0573   30.9  0.2125 -114.2
 0.840  0.7902  178.3   3.672   76.4  0.0576   31.2  0.2122 -114.8
 0.860  0.7904  177.7   3.589   75.8  0.0580   31.5  0.2119 -115.3
 0.880  0.7906  177.2   3.506   75.2  0.0583   31.8  0.2116 -115.9
 0.900  0.7909  176.6   3.423   74.5  0.0587   32.1  0.2114 -116.4
 0.920  0.7908  176.1   3.354   74.0  0.0590   32.4  0.2117 -116.8
 0.940  0.7907  175.6   3.285   73.5  0.0594   32.8  0.2120 -117.3
 0.960  0.7907  175.0   3.216   72.9  0.0597   33.1  0.2123 -117.7
 0.980  0.7908  174.5   3.148   72.3  0.0601   33.5  0.2126 -118.2
 1.000  0.7909  174.0   3.080   71.7  0.0604   33.8  0.2129 -118.6
 1.020  0.7918  173.5   3.028   71.2  0.0608   34.1  0.2134 -118.9
 1.040  0.7927  173.0   2.976   70.6  0.0612   34.4  0.2139 -119.3
 1.060  0.7937  172.6   2.924   70.0  0.0617   34.7  0.2144 -119.6
 1.080  0.7948  172.1   2.872   69.4  0.0621   34.9  0.2150 -120.0
 1.100  0.7959  171.6   2.821   68.8  0.0625   35.2  0.2155 -120.3
 1.120  0.7959  171.1   2.773   68.3  0.0629   35.5  0.2165 -120.6
 1.140  0.7959  170.6   2.725   67.8  0.0634   35.8  0.2175 -120.9
 1.160  0.7960  170.2   2.677   67.3  0.0638   36.1  0.2185 -121.2
 1.180  0.7962  169.7   2.629   66.8  0.0643   36.4  0.2195 -121.5
 1.200  0.7964  169.2   2.582   66.2  0.0647   36.7  0.2205 -121.8
 1.220  0.7967  168.7   2.543   65.7  0.0652   37.0  0.2215 -122.1
 1.240  0.7970  168.2   2.504   65.1  0.0656   37.4  0.2224 -122.5
 1.260  0.7974  167.7   2.466   64.6  0.0661   37.7  0.2234 -122.8
 1.280  0.7978  167.2   2.428   64.0  0.0665   38.0  0.2244 -123.2
 1.300  0.7983  166.7   2.390   63.4  0.0670   38.3  0.2254 -123.5
 1.320  0.7985  166.3   2.356   62.9  0.0675   38.6  0.2265 -123.8
 1.340  0.7988  166.0   2.323   62.4  0.0680   38.9  0.2276 -124.1
 1.360  0.7991  165.6   2.289   61.9  0.0684   39.2  0.2287 -124.4
 1.380  0.7994  165.3   2.256   61.4  0.0689   39.4  0.2299 -124.7
 1.400  0.7998  164.9   2.223   60.8  0.0694   39.7  0.2310 -125.0
 1.420  0.8000  164.5   2.194   60.4  0.0699   40.0  0.2322 -125.4
 1.440  0.8003  164.1   2.164   59.9  0.0705   40.3  0.2334 -125.7
 1.460  0.8006  163.8   2.135   59.5  0.0710   40.6  0.2346 -126.1
 1.480  0.8009  163.4   2.106   59.0  0.0716   40.9  0.2359 -126.4
 1.500  0.8013  163.0   2.077   58.5  0.0721   41.2  0.2371 -126.8
 1.520  0.8015  162.5   2.051   58.0  0.0726   41.4  0.2382 -127.0
 1.540  0.8017  162.0   2.026   57.5  0.0732   41.6  0.2392 -127.3
 1.560  0.8020  161.6   2.001   56.9  0.0737   41.9  0.2403 -127.5
 1.580  0.8023  161.1   1.976   56.4  0.0743   42.1  0.2414 -127.8
 1.600  0.8027  160.6   1.951   55.8  0.0748   42.3  0.2425 -128.0
 1.620  0.8032  160.2   1.929   55.4  0.0754   42.5  0.2442 -128.3
 1.640  0.8037  159.9   1.906   54.9  0.0759   42.7  0.2459 -128.7
 1.660  0.8043  159.5   1.884   54.5  0.0765   42.9  0.2476 -129.0
 1.680  0.8049  159.2   1.862   54.0  0.0770   43.1  0.2494 -129.3
 1.700  0.8055  158.8   1.840   53.5  0.0776   43.3  0.2511 -129.6
 1.720  0.8057  158.4   1.819   53.0  0.0783   43.5  0.2523 -129.9
 1.740  0.8059  158.1   1.799   52.6  0.0790   43.7  0.2536 -130.2
 1.760  0.8061  157.7   1.778   52.1  0.0797   43.8  0.2549 -130.5
 1.780  0.8064  157.4   1.758   51.6  0.0804   44.0  0.2561 -130.8
 1.800  0.8067  157.0   1.738   51.1  0.0811   44.2  0.2574 -131.1
 1.820  0.8066  156.6   1.720   50.7  0.0817   44.4  0.2587 -131.4
 1.840  0.8066  156.2   1.702   50.2  0.0822   44.5  0.2601 -131.6
 1.860  0.8066  155.8   1.684   49.7  0.0828   44.7  0.2614 -131.9
 1.880  0.8066  155.4   1.666   49.3  0.0833   44.8  0.2627 -132.1
 1.900  0.8067  155.0   1.648   48.8  0.0839   45.0  0.2641 -132.4
 1.920  0.8071  154.6   1.632   48.4  0.0846   45.2  0.2656 -132.7
 1.940  0.8076  154.2   1.616   47.9  0.0853   45.3  0.2671 -132.9
 1.960  0.8081  153.9   1.600   47.4  0.0859   45.5  0.2686 -133.2
 1.980  0.8086  153.5   1.585   47.0  0.0866   45.6  0.2702 -133.4
 2.000  0.8092  153.1   1.569   46.5  0.0873   45.8  0.2717 -133.7
 2.020  0.8094  152.7   1.555   46.1  0.0880   45.9  0.2733 -134.0
 2.040  0.8097  152.4   1.541   45.7  0.0886   46.0  0.2749 -134.3
 2.060  0.8100  152.0   1.527   45.2  0.0893   46.1  0.2765 -134.7
 2.080  0.8104  151.7   1.513   44.8  0.0899   46.2  0.2782 -135.0
 2.100  0.8107  151.3   1.499   44.4  0.0906   46.3  0.2798 -135.3
 2.120  0.8111  151.0   1.485   43.9  0.0913   46.4  0.2814 -135.6
 2.140  0.8115  150.6   1.471   43.4  0.0919   46.5  0.2831 -135.9
 2.160  0.8120  150.3   1.458   43.0  0.0926   46.6  0.2848 -136.2
 2.180  0.8125  149.9   1.444   42.5  0.0932   46.7  0.2864 -136.5
 2.200  0.8130  149.6   1.431   42.0  0.0939   46.8  0.2881 -136.8
 2.220  0.8134  149.2   1.419   41.6  0.0946   46.9  0.2896 -137.1
 2.240  0.8138  148.9   1.407   41.2  0.0954   46.9  0.2912 -137.4
 2.260  0.8143  148.5   1.395   40.7  0.0961   47.0  0.2928 -137.7
 2.280  0.8148  148.1   1.383   40.3  0.0969   47.1  0.2943 -138.0
 2.300  0.8153  147.7   1.371   39.8  0.0976   47.2  0.2959 -138.3
 2.320  0.8159  147.4   1.359   39.4  0.0983   47.2  0.2975 -138.6
 2.340  0.8165  147.0   1.347   38.9  0.0991   47.3  0.2991 -138.9
 2.360  0.8171  146.6   1.336   38.5  0.0998   47.4  0.3007 -139.1
 2.380  0.8178  146.3   1.324   38.0  0.1006   47.4  0.3023 -139.4
 2.400  0.8185  145.9   1.313   37.5  0.1013   47.5  0.3039 -139.7
 2.420  0.8186  145.6   1.303   37.1  0.1021   47.6  0.3056 -140.1
 2.440  0.8187  145.2   1.292   36.7  0.1028   47.6  0.3073 -140.5
 2.460  0.8189  144.9   1.282   36.3  0.1036   47.7  0.3090 -140.8
 2.480  0.8191  144.6   1.272   35.9  0.1044   47.7  0.3107 -141.2
 2.500  0.8193  144.2   1.262   35.5  0.1051   47.8  0.3124 -141.6
 2.520  0.8195  143.9   1.252   35.1  0.1059   47.8  0.3142 -141.9
 2.540  0.8198  143.6   1.242   34.6  0.1067   47.9  0.3160 -142.3
 2.560  0.8200  143.3   1.232   34.2  0.1075   47.9  0.3177 -142.6
 2.580  0.8204  142.9   1.223   33.8  0.1082   48.0  0.3195 -143.0
 2.600  0.8207  142.6   1.213   33.3  0.1090   48.0  0.3213 -143.3
 2.620  0.8213  142.3   1.204   32.9  0.1098   48.0  0.3229 -143.6
 2.640  0.8219  141.9   1.195   32.5  0.1106   48.0  0.3246 -143.9
 2.660  0.8226  141.6   1.185   32.2  0.1114   48.0  0.3262 -144.2
 2.680  0.8233  141.2   1.176   31.8  0.1122   48.0  0.3279 -144.5
 2.700  0.8240  140.9   1.167   31.4  0.1130   48.0  0.3296 -144.7
 2.720  0.8248  140.6   1.158   31.0  0.1137   48.0  0.3312 -145.0
 2.740  0.8256  140.2   1.149   30.6  0.1145   48.0  0.3329 -145.3
 2.760  0.8264  139.9   1.141   30.2  0.1153   48.0  0.3346 -145.6
 2.780  0.8272  139.5   1.132   29.7  0.1161   48.0  0.3363 -145.8
 2.800  0.8281  139.2   1.123   29.3  0.1169   48.0  0.3380 -146.1
 2.820  0.8285  138.9   1.115   28.9  0.1177   48.0  0.3398 -146.5
 2.840  0.8289  138.6   1.108   28.6  0.1186   47.9  0.3416 -146.9
 2.860  0.8294  138.2   1.100   28.2  0.1194   47.9  0.3434 -147.3
 2.880  0.8298  137.9   1.092   27.8  0.1203   47.8  0.3452 -147.7
 2.900  0.8303  137.6   1.085   27.4  0.1211   47.8  0.3470 -148.1
 2.920  0.8308  137.3   1.077   27.0  0.1219   47.8  0.3489 -148.4
 2.940  0.8314  137.0   1.070   26.6  0.1228   47.7  0.3507 -148.8
 2.960  0.8320  136.6   1.063   26.2  0.1236   47.7  0.3526 -149.2
 2.980  0.8326  136.3   1.055   25.8  0.1245   47.6  0.3545 -149.5
 3.000  0.8332  136.0   1.048   25.4  0.1253   47.6  0.3564 -149.9
 3.100  0.8367  134.3   1.015   23.6  0.1294   47.3  0.3656 -151.5
 3.200  0.8410  132.6   0.984   21.6  0.1336   47.1  0.3750 -153.1
 3.300  0.8446  131.1   0.953   19.8  0.1377   46.7  0.3840 -155.0
 3.400  0.8487  129.6   0.922   17.9  0.1419   46.4  0.3934 -156.8
 3.500  0.8499  128.1   0.893   16.3  0.1457   46.0  0.4021 -158.3
 3.600  0.8517  126.6   0.864   14.5  0.1495   45.7  0.4111 -159.8
 3.700  0.8514  125.0   0.836   12.8  0.1531   45.1  0.4196 -161.7
 3.800  0.8518  123.5   0.808   11.0  0.1568   44.5  0.4285 -163.5
 3.900  0.8559  122.2   0.788    9.5  0.1617   44.1  0.4409 -165.0
 4.000  0.8604  121.0   0.769    8.0  0.1666   43.7  0.4536 -166.5
 4.100  0.8610  119.7   0.748    6.7  0.1708   43.0  0.4631 -168.3
 4.200  0.8621  118.4   0.728    5.3  0.1750   42.3  0.4730 -170.1
 4.300  0.8635  117.1   0.708    3.9  0.1793   41.6  0.4833 -171.8
 4.400  0.8655  115.9   0.688    2.3  0.1836   41.0  0.4941 -173.4
 4.500  0.8678  114.6   0.669    0.7  0.1879   40.4  0.5052 -174.9
 4.600  0.8668  113.6   0.652   -0.2  0.1917   39.7  0.5127 -176.5
 4.700  0.8661  112.5   0.636   -1.2  0.1955   39.0  0.5206 -178.0
 4.800  0.8657  111.5   0.619   -2.2  0.1993   38.3  0.5288 -179.5
 4.900  0.8655  110.4   0.603   -3.3  0.2032   37.7  0.5374  179.0
 5.000  0.8657  109.4   0.587   -4.4  0.2071   37.1  0.5463  177.6
 5.100  0.8655  108.6   0.573   -5.2  0.2110   36.3  0.5544  176.3
 5.200  0.8654  107.8   0.560   -6.0  0.2150   35.6  0.5628  175.1
 5.300  0.8655  106.9   0.546   -6.8  0.2189   34.9  0.5714  173.9
 5.400  0.8658  106.1   0.533   -7.7  0.2230   34.2  0.5803  172.7
 5.500  0.8663  105.3   0.520   -8.6  0.2270   33.6  0.5894  171.6
 5.600  0.8648  104.4   0.511   -9.1  0.2308   32.9  0.5951  170.5
 5.700  0.8635  103.5   0.501   -9.5  0.2347   32.1  0.6010  169.5
 5.800  0.8624  102.7   0.492  -10.0  0.2387   31.4  0.6072  168.4
 5.900  0.8616  101.8   0.483  -10.6  0.2426   30.8  0.6135  167.4
 6.000  0.8609  100.9   0.474  -11.1  0.2466   30.1  0.6200  166.4
!
!  f       NFmin   Gammaopt  rn/50
! GHz       dB    MAG  ANG    -
!
! noise parameter not available yet for this operation point!
!
! (c) 2016  Infineon Technologies AG, Munich
