! Infineon Technologies  Discrete & RF Semiconductors
! BFP181
! VCE = 0.75V,  IC =  60 mA
! Common Emitter S-Parameters:                            Jan 2016
# GHz  S  MA  R  50
!  f         S11            S21            S12            S22
! GHz     MAG   ANG      MAG   ANG      MAG   ANG      MAG   ANG
 0.010  0.9741   -0.7   2.176  179.8  0.0019   86.9  0.9995   -0.3
 0.015  0.9749   -1.1   2.164  179.6  0.0029   86.2  0.9988   -0.5
 0.020  0.9757   -1.4   2.153  179.4  0.0039   85.8  0.9981   -0.7
 0.025  0.9759   -1.7   2.157  179.0  0.0048   87.4  0.9979   -0.9
 0.030  0.9762   -1.9   2.161  178.6  0.0057   88.5  0.9976   -1.1
 0.035  0.9765   -2.2   2.164  178.1  0.0066   89.3  0.9974   -1.2
 0.040  0.9768   -2.4   2.169  177.7  0.0076   89.9  0.9972   -1.4
 0.045  0.9771   -2.7   2.173  177.3  0.0085   90.4  0.9970   -1.6
 0.050  0.9774   -2.9   2.177  176.9  0.0094   90.8  0.9968   -1.8
 0.055  0.9764   -3.3   2.174  176.6  0.0103   89.6  0.9968   -2.0
 0.060  0.9754   -3.7   2.172  176.3  0.0112   88.7  0.9968   -2.1
 0.065  0.9745   -4.0   2.169  176.0  0.0121   87.8  0.9968   -2.3
 0.070  0.9736   -4.4   2.167  175.7  0.0129   87.1  0.9968   -2.4
 0.075  0.9727   -4.8   2.164  175.4  0.0138   86.5  0.9969   -2.6
 0.080  0.9719   -5.2   2.162  175.1  0.0147   86.0  0.9969   -2.8
 0.085  0.9711   -5.6   2.160  174.8  0.0156   85.5  0.9969   -2.9
 0.090  0.9704   -5.9   2.157  174.5  0.0165   85.0  0.9970   -3.1
 0.095  0.9697   -6.3   2.155  174.2  0.0174   84.7  0.9970   -3.2
 0.100  0.9691   -6.7   2.153  173.9  0.0183   84.3  0.9971   -3.4
 0.105  0.9689   -7.0   2.152  173.6  0.0192   84.0  0.9969   -3.6
 0.110  0.9688   -7.4   2.151  173.3  0.0201   83.8  0.9966   -3.7
 0.115  0.9687   -7.7   2.150  173.0  0.0210   83.5  0.9964   -3.9
 0.120  0.9686   -8.1   2.149  172.7  0.0219   83.3  0.9962   -4.1
 0.125  0.9686   -8.4   2.148  172.4  0.0228   83.1  0.9959   -4.2
 0.130  0.9686   -8.8   2.147  172.0  0.0238   82.9  0.9957   -4.4
 0.135  0.9687   -9.2   2.146  171.7  0.0247   82.7  0.9955   -4.6
 0.140  0.9687   -9.5   2.145  171.4  0.0256   82.6  0.9953   -4.8
 0.145  0.9688   -9.9   2.145  171.1  0.0265   82.4  0.9952   -4.9
 0.150  0.9690  -10.2   2.144  170.8  0.0274   82.3  0.9950   -5.1
 0.155  0.9683  -10.5   2.146  170.5  0.0283   82.1  0.9948   -5.3
 0.160  0.9675  -10.8   2.148  170.2  0.0293   81.9  0.9946   -5.4
 0.165  0.9669  -11.2   2.150  169.8  0.0302   81.8  0.9944   -5.6
 0.170  0.9662  -11.5   2.152  169.5  0.0312   81.6  0.9943   -5.8
 0.175  0.9656  -11.8   2.155  169.2  0.0321   81.4  0.9941   -5.9
 0.180  0.9650  -12.1   2.157  168.9  0.0330   81.3  0.9939   -6.1
 0.185  0.9644  -12.4   2.159  168.6  0.0340   81.2  0.9938   -6.3
 0.190  0.9639  -12.8   2.162  168.2  0.0349   81.0  0.9936   -6.5
 0.195  0.9634  -13.1   2.164  167.9  0.0359   80.9  0.9935   -6.6
 0.200  0.9629  -13.4   2.167  167.6  0.0368   80.8  0.9934   -6.8
 0.220  0.9626  -14.7   2.156  166.4  0.0404   79.8  0.9919   -7.5
 0.240  0.9627  -16.0   2.146  165.1  0.0439   78.9  0.9905   -8.2
 0.260  0.9617  -17.3   2.139  164.0  0.0475   77.9  0.9889   -8.8
 0.280  0.9596  -18.6   2.135  163.1  0.0512   76.8  0.9873   -9.5
 0.300  0.9580  -19.9   2.131  162.1  0.0549   75.9  0.9858  -10.2
 0.320  0.9539  -21.2   2.128  160.7  0.0583   74.8  0.9839  -10.8
 0.340  0.9502  -22.5   2.127  159.4  0.0618   73.9  0.9821  -11.5
 0.360  0.9471  -23.8   2.127  158.0  0.0653   73.0  0.9805  -12.1
 0.380  0.9444  -25.1   2.128  156.7  0.0688   72.3  0.9789  -12.8
 0.400  0.9422  -26.4   2.130  155.3  0.0723   71.6  0.9775  -13.4
 0.420  0.9371  -27.8   2.121  154.1  0.0754   70.4  0.9751  -14.1
 0.440  0.9325  -29.1   2.113  152.8  0.0786   69.3  0.9728  -14.7
 0.450  0.9304  -29.8   2.110  152.2  0.0802   68.8  0.9716  -15.0
 0.460  0.9285  -30.5   2.107  151.6  0.0818   68.3  0.9706  -15.4
 0.480  0.9250  -31.9   2.101  150.4  0.0850   67.4  0.9685  -16.0
 0.500  0.9220  -33.3   2.096  149.1  0.0882   66.5  0.9666  -16.7
 0.520  0.9172  -34.4   2.085  148.0  0.0914   65.5  0.9638  -17.3
 0.540  0.9127  -35.6   2.076  146.9  0.0946   64.6  0.9611  -18.0
 0.560  0.9086  -36.7   2.067  145.8  0.0979   63.7  0.9585  -18.6
 0.580  0.9048  -37.9   2.058  144.6  0.1011   62.9  0.9560  -19.3
 0.600  0.9015  -39.1   2.051  143.5  0.1044   62.2  0.9537  -19.9
 0.620  0.8976  -40.4   2.038  142.4  0.1072   61.3  0.9505  -20.5
 0.640  0.8942  -41.8   2.025  141.3  0.1100   60.4  0.9473  -21.1
 0.660  0.8913  -43.1   2.014  140.2  0.1128   59.6  0.9443  -21.7
 0.680  0.8889  -44.4   2.003  139.0  0.1156   58.8  0.9413  -22.3
 0.700  0.8870  -45.8   1.993  137.9  0.1185   58.0  0.9385  -22.9
 0.720  0.8803  -47.1   1.988  136.8  0.1211   57.1  0.9353  -23.5
 0.740  0.8741  -48.3   1.984  135.6  0.1237   56.2  0.9321  -24.0
 0.760  0.8682  -49.6   1.980  134.5  0.1263   55.3  0.9291  -24.6
 0.780  0.8629  -51.0   1.978  133.3  0.1289   54.5  0.9261  -25.1
 0.800  0.8580  -52.3   1.976  132.2  0.1316   53.7  0.9232  -25.7
 0.820  0.8525  -53.5   1.968  131.1  0.1340   52.8  0.9194  -26.3
 0.840  0.8474  -54.8   1.960  129.9  0.1365   51.9  0.9157  -26.8
 0.860  0.8427  -56.0   1.953  128.8  0.1390   51.1  0.9121  -27.4
 0.880  0.8384  -57.3   1.947  127.7  0.1415   50.3  0.9085  -28.0
 0.900  0.8345  -58.6   1.942  126.5  0.1440   49.5  0.9051  -28.6
 0.920  0.8284  -59.9   1.930  125.5  0.1461   48.7  0.9013  -29.1
 0.940  0.8228  -61.2   1.919  124.5  0.1482   47.8  0.8975  -29.7
 0.960  0.8175  -62.6   1.908  123.5  0.1503   47.0  0.8938  -30.2
 0.980  0.8128  -63.9   1.898  122.4  0.1524   46.3  0.8902  -30.8
 1.000  0.8085  -65.3   1.888  121.4  0.1546   45.5  0.8867  -31.3
 1.020  0.8019  -66.5   1.881  120.3  0.1566   44.7  0.8830  -31.8
 1.040  0.7956  -67.7   1.875  119.3  0.1586   44.0  0.8794  -32.3
 1.060  0.7897  -69.0   1.870  118.2  0.1606   43.2  0.8759  -32.8
 1.080  0.7842  -70.2   1.865  117.1  0.1626   42.5  0.8724  -33.3
 1.100  0.7791  -71.5   1.861  116.0  0.1647   41.8  0.8690  -33.8
 1.120  0.7735  -72.6   1.847  115.1  0.1665   41.0  0.8657  -34.3
 1.140  0.7682  -73.7   1.834  114.2  0.1684   40.1  0.8626  -34.9
 1.160  0.7632  -74.9   1.821  113.3  0.1702   39.3  0.8595  -35.4
 1.180  0.7586  -76.0   1.809  112.3  0.1722   38.6  0.8564  -36.0
 1.200  0.7542  -77.2   1.797  111.4  0.1741   37.8  0.8535  -36.5
 1.220  0.7492  -78.5   1.787  110.5  0.1755   37.1  0.8497  -37.0
 1.240  0.7445  -79.8   1.777  109.5  0.1769   36.5  0.8459  -37.4
 1.260  0.7402  -81.1   1.767  108.6  0.1784   35.8  0.8422  -37.9
 1.280  0.7363  -82.4   1.758  107.6  0.1798   35.2  0.8385  -38.3
 1.300  0.7328  -83.7   1.750  106.6  0.1813   34.6  0.8349  -38.8
 1.320  0.7266  -84.8   1.739  105.7  0.1827   33.9  0.8313  -39.3
 1.340  0.7206  -86.0   1.729  104.8  0.1841   33.2  0.8277  -39.7
 1.360  0.7150  -87.1   1.719  103.8  0.1855   32.5  0.8241  -40.2
 1.380  0.7096  -88.3   1.709  102.9  0.1870   31.9  0.8206  -40.6
 1.400  0.7046  -89.5   1.700  101.9  0.1885   31.2  0.8172  -41.1
 1.420  0.6991  -90.9   1.694  100.9  0.1895   30.6  0.8133  -41.5
 1.440  0.6940  -92.3   1.689  100.0  0.1904   30.0  0.8094  -41.8
 1.460  0.6893  -93.7   1.685   99.0  0.1914   29.4  0.8055  -42.2
 1.480  0.6850  -95.1   1.681   98.0  0.1925   28.9  0.8017  -42.5
 1.500  0.6812  -96.6   1.677   97.0  0.1935   28.3  0.7979  -42.9
 1.520  0.6754  -97.7   1.665   96.1  0.1947   27.7  0.7955  -43.3
 1.540  0.6698  -98.9   1.654   95.3  0.1959   27.2  0.7931  -43.7
 1.560  0.6645 -100.0   1.643   94.4  0.1971   26.7  0.7908  -44.0
 1.580  0.6594 -101.2   1.633   93.5  0.1983   26.1  0.7885  -44.4
 1.600  0.6547 -102.4   1.623   92.6  0.1996   25.6  0.7862  -44.8
 1.620  0.6506 -103.7   1.617   91.7  0.2002   25.0  0.7819  -45.2
 1.640  0.6469 -105.1   1.612   90.8  0.2009   24.3  0.7777  -45.6
 1.660  0.6435 -106.5   1.607   89.9  0.2016   23.7  0.7735  -46.0
 1.680  0.6405 -107.9   1.603   89.0  0.2023   23.0  0.7693  -46.5
 1.700  0.6379 -109.3   1.599   88.1  0.2030   22.4  0.7652  -46.9
 1.720  0.6316 -110.6   1.592   87.2  0.2036   21.9  0.7620  -47.2
 1.740  0.6256 -111.9   1.584   86.2  0.2043   21.5  0.7587  -47.5
 1.760  0.6200 -113.3   1.578   85.2  0.2049   21.0  0.7555  -47.9
 1.780  0.6147 -114.7   1.572   84.3  0.2056   20.6  0.7524  -48.2
 1.800  0.6098 -116.1   1.566   83.3  0.2063   20.1  0.7492  -48.5
 1.820  0.6055 -117.4   1.557   82.5  0.2068   19.5  0.7460  -48.9
 1.840  0.6015 -118.7   1.549   81.7  0.2073   18.9  0.7428  -49.3
 1.860  0.5978 -120.1   1.541   80.9  0.2078   18.2  0.7396  -49.7
 1.880  0.5944 -121.4   1.533   80.1  0.2084   17.6  0.7365  -50.2
 1.900  0.5914 -122.8   1.526   79.3  0.2090   17.0  0.7334  -50.6
 1.920  0.5870 -124.0   1.516   78.5  0.2097   16.6  0.7310  -50.9
 1.940  0.5829 -125.2   1.507   77.7  0.2103   16.2  0.7286  -51.1
 1.960  0.5791 -126.4   1.497   76.8  0.2110   15.8  0.7262  -51.4
 1.980  0.5755 -127.6   1.489   76.0  0.2117   15.4  0.7238  -51.6
 2.000  0.5722 -128.9   1.480   75.1  0.2124   15.0  0.7214  -51.9
 2.020  0.5680 -130.1   1.470   74.3  0.2127   14.5  0.7188  -52.3
 2.040  0.5642 -131.3   1.461   73.5  0.2129   13.9  0.7161  -52.6
 2.060  0.5605 -132.6   1.452   72.7  0.2132   13.4  0.7136  -53.0
 2.080  0.5572 -133.9   1.443   71.9  0.2135   12.9  0.7110  -53.3
 2.100  0.5541 -135.1   1.434   71.1  0.2139   12.4  0.7085  -53.7
 2.120  0.5513 -136.4   1.426   70.3  0.2142   11.9  0.7060  -54.1
 2.140  0.5487 -137.7   1.418   69.5  0.2146   11.3  0.7035  -54.5
 2.160  0.5465 -139.0   1.410   68.6  0.2150   10.8  0.7011  -54.8
 2.180  0.5446 -140.4   1.403   67.8  0.2154   10.3  0.6987  -55.2
 2.200  0.5429 -141.7   1.396   66.9  0.2158    9.8  0.6963  -55.6
 2.220  0.5397 -143.0   1.389   66.2  0.2158    9.3  0.6937  -55.9
 2.240  0.5367 -144.3   1.381   65.5  0.2158    8.9  0.6912  -56.3
 2.260  0.5340 -145.5   1.374   64.8  0.2159    8.4  0.6887  -56.6
 2.280  0.5316 -146.9   1.368   64.1  0.2159    7.9  0.6862  -57.0
 2.300  0.5294 -148.2   1.361   63.3  0.2160    7.4  0.6838  -57.3
 2.320  0.5276 -149.5   1.355   62.6  0.2160    7.0  0.6814  -57.7
 2.340  0.5260 -150.8   1.349   61.9  0.2161    6.5  0.6790  -58.0
 2.360  0.5247 -152.2   1.343   61.1  0.2162    6.0  0.6766  -58.4
 2.380  0.5237 -153.5   1.337   60.4  0.2164    5.6  0.6742  -58.7
 2.400  0.5230 -154.9   1.332   59.6  0.2165    5.1  0.6719  -59.1
 2.420  0.5211 -156.2   1.324   58.9  0.2163    4.8  0.6695  -59.4
 2.440  0.5195 -157.4   1.316   58.3  0.2161    4.4  0.6671  -59.6
 2.460  0.5181 -158.7   1.308   57.6  0.2160    4.1  0.6647  -59.9
 2.480  0.5170 -160.0   1.300   56.9  0.2158    3.7  0.6623  -60.2
 2.500  0.5161 -161.3   1.293   56.2  0.2157    3.4  0.6599  -60.5
 2.520  0.5155 -162.5   1.285   55.6  0.2155    3.1  0.6576  -60.8
 2.540  0.5152 -163.8   1.278   54.9  0.2154    2.7  0.6552  -61.0
 2.560  0.5151 -165.1   1.271   54.1  0.2152    2.4  0.6529  -61.3
 2.580  0.5153 -166.4   1.265   53.4  0.2151    2.0  0.6506  -61.6
 2.600  0.5157 -167.7   1.258   52.7  0.2150    1.7  0.6483  -61.9
 2.620  0.5140 -168.9   1.251   52.0  0.2149    1.3  0.6470  -62.2
 2.640  0.5126 -170.1   1.245   51.3  0.2149    0.9  0.6456  -62.5
 2.660  0.5114 -171.4   1.238   50.5  0.2148    0.5  0.6443  -62.8
 2.680  0.5105 -172.6   1.232   49.8  0.2148    0.1  0.6430  -63.2
 2.700  0.5098 -173.9   1.226   49.0  0.2147   -0.3  0.6417  -63.5
 2.720  0.5093 -175.1   1.220   48.3  0.2147   -0.7  0.6405  -63.8
 2.740  0.5090 -176.4   1.214   47.5  0.2147   -1.1  0.6393  -64.1
 2.760  0.5091 -177.6   1.209   46.8  0.2147   -1.5  0.6381  -64.5
 2.780  0.5093 -178.9   1.204   46.0  0.2147   -1.9  0.6369  -64.8
 2.800  0.5098  179.9   1.199   45.2  0.2147   -2.3  0.6357  -65.1
 2.820  0.5090  178.7   1.193   44.6  0.2144   -2.7  0.6340  -65.4
 2.840  0.5085  177.5   1.187   43.9  0.2141   -3.1  0.6323  -65.7
 2.860  0.5081  176.4   1.181   43.3  0.2137   -3.5  0.6307  -66.1
 2.880  0.5080  175.2   1.175   42.6  0.2134   -3.9  0.6291  -66.4
 2.900  0.5081  174.0   1.169   41.9  0.2132   -4.3  0.6274  -66.7
 2.920  0.5084  172.8   1.164   41.3  0.2129   -4.7  0.6258  -67.1
 2.940  0.5089  171.6   1.159   40.6  0.2126   -5.2  0.6243  -67.4
 2.960  0.5097  170.4   1.154   39.9  0.2124   -5.6  0.6227  -67.7
 2.980  0.5106  169.3   1.149   39.2  0.2121   -6.0  0.6212  -68.1
 3.000  0.5118  168.1   1.144   38.5  0.2119   -6.4  0.6197  -68.4
 3.100  0.5089  163.0   1.110   35.7  0.2104   -7.8  0.6157  -70.0
 3.200  0.5101  157.8   1.078   32.8  0.2090   -9.1  0.6122  -71.6
 3.300  0.5154  152.7   1.050   29.7  0.2077  -10.5  0.6092  -73.2
 3.400  0.5247  147.7   1.025   26.5  0.2065  -12.0  0.6067  -74.9
 3.500  0.5378  143.0   1.003   23.1  0.2055  -13.4  0.6047  -76.5
 3.600  0.5413  139.1   0.975   20.7  0.2019  -14.5  0.5998  -78.4
 3.700  0.5473  135.2   0.948   18.1  0.1984  -15.6  0.5956  -80.4
 3.800  0.5558  131.5   0.923   15.4  0.1949  -16.8  0.5922  -82.4
 3.900  0.5665  127.9   0.901   12.6  0.1916  -18.0  0.5895  -84.5
 4.000  0.5794  124.4   0.881    9.6  0.1883  -19.3  0.5875  -86.5
 4.100  0.5844  121.2   0.856    7.5  0.1849  -20.1  0.5856  -88.7
 4.200  0.5911  118.2   0.833    5.2  0.1815  -20.9  0.5845  -90.8
 4.300  0.5995  115.1   0.811    2.8  0.1782  -21.8  0.5843  -93.0
 4.400  0.6095  112.2   0.791    0.3  0.1749  -22.7  0.5849  -95.1
 4.500  0.6210  109.4   0.772   -2.3  0.1717  -23.6  0.5863  -97.3
 4.600  0.6268  107.1   0.752   -4.1  0.1681  -23.8  0.5851  -99.5
 4.700  0.6337  104.8   0.734   -5.9  0.1645  -24.0  0.5848 -101.8
 4.800  0.6415  102.6   0.715   -7.8  0.1610  -24.3  0.5853 -104.0
 4.900  0.6502  100.4   0.698   -9.9  0.1574  -24.5  0.5868 -106.3
 5.000  0.6599   98.3   0.682  -12.0  0.1538  -24.8  0.5892 -108.5
 5.100  0.6644   96.5   0.665  -13.6  0.1519  -24.3  0.5899 -110.8
 5.200  0.6695   94.6   0.648  -15.4  0.1499  -23.8  0.5915 -113.1
 5.300  0.6753   92.9   0.633  -17.2  0.1480  -23.3  0.5940 -115.3
 5.400  0.6817   91.1   0.617  -19.1  0.1461  -22.7  0.5974 -117.6
 5.500  0.6888   89.4   0.603  -21.1  0.1442  -22.2  0.6018 -119.8
 5.600  0.6939   87.7   0.588  -22.5  0.1434  -21.6  0.6026 -122.1
 5.700  0.6996   86.1   0.574  -24.0  0.1427  -20.9  0.6043 -124.4
 5.800  0.7058   84.5   0.560  -25.5  0.1420  -20.3  0.6071 -126.7
 5.900  0.7126   82.9   0.547  -27.1  0.1413  -19.7  0.6108 -129.0
 6.000  0.7199   81.4   0.534  -28.8  0.1406  -19.0  0.6154 -131.2
!
!  f       NFmin   Gammaopt  rn/50
! GHz       dB    MAG  ANG    -
!
! noise parameter not available yet for this operation point!
!
! (c) 2016  Infineon Technologies AG, Munich
