! Infineon Technologies  Discrete & RF Semiconductors
! BFP181
! VCE = 1.0 V,  IC =  80 mA
! Common Emitter S-Parameters:                            Jan 2016
# GHz  S  MA  R  50
!  f         S11            S21            S12            S22
! GHz     MAG   ANG      MAG   ANG      MAG   ANG      MAG   ANG
 0.010  0.9668   -0.8   2.830  179.7  0.0018   89.2  0.9993   -0.3
 0.015  0.9689   -1.1   2.822  179.6  0.0026   81.5  0.9986   -0.5
 0.020  0.9710   -1.4   2.815  179.4  0.0035   77.6  0.9980   -0.8
 0.025  0.9709   -1.7   2.816  179.0  0.0043   82.4  0.9980   -1.0
 0.030  0.9707   -2.1   2.816  178.5  0.0052   85.6  0.9979   -1.1
 0.035  0.9707   -2.4   2.817  178.1  0.0060   87.9  0.9979   -1.3
 0.040  0.9706   -2.7   2.818  177.7  0.0069   89.7  0.9979   -1.5
 0.045  0.9706   -3.1   2.820  177.2  0.0077   91.0  0.9979   -1.6
 0.050  0.9706   -3.4   2.821  176.8  0.0086   92.1  0.9979   -1.8
 0.055  0.9697   -3.8   2.819  176.5  0.0094   90.6  0.9978   -2.0
 0.060  0.9688   -4.2   2.818  176.2  0.0102   89.4  0.9977   -2.1
 0.065  0.9680   -4.6   2.816  175.9  0.0110   88.3  0.9977   -2.3
 0.070  0.9673   -5.0   2.814  175.6  0.0118   87.4  0.9976   -2.5
 0.075  0.9666   -5.4   2.813  175.3  0.0126   86.6  0.9976   -2.6
 0.080  0.9659   -5.9   2.812  174.9  0.0134   85.9  0.9976   -2.8
 0.085  0.9653   -6.3   2.810  174.6  0.0142   85.3  0.9975   -3.0
 0.090  0.9648   -6.7   2.809  174.3  0.0150   84.7  0.9975   -3.2
 0.095  0.9643   -7.1   2.808  174.0  0.0158   84.3  0.9975   -3.3
 0.100  0.9638   -7.5   2.807  173.7  0.0166   83.8  0.9975   -3.5
 0.105  0.9632   -7.9   2.805  173.4  0.0175   83.5  0.9971   -3.7
 0.110  0.9627   -8.2   2.803  173.0  0.0184   83.2  0.9967   -3.9
 0.115  0.9622   -8.6   2.802  172.7  0.0193   83.0  0.9963   -4.0
 0.120  0.9618   -8.9   2.800  172.4  0.0202   82.7  0.9960   -4.2
 0.125  0.9614   -9.3   2.799  172.1  0.0210   82.5  0.9956   -4.4
 0.130  0.9610   -9.7   2.797  171.7  0.0219   82.3  0.9953   -4.6
 0.135  0.9607  -10.0   2.796  171.4  0.0228   82.2  0.9949   -4.8
 0.140  0.9604  -10.4   2.795  171.1  0.0237   82.0  0.9946   -4.9
 0.145  0.9601  -10.7   2.794  170.7  0.0246   81.8  0.9943   -5.1
 0.150  0.9599  -11.1   2.793  170.4  0.0255   81.7  0.9940   -5.3
 0.155  0.9593  -11.5   2.795  170.1  0.0263   81.6  0.9937   -5.5
 0.160  0.9587  -11.8   2.797  169.7  0.0272   81.4  0.9934   -5.7
 0.165  0.9582  -12.2   2.799  169.4  0.0280   81.3  0.9931   -5.8
 0.170  0.9577  -12.6   2.801  169.1  0.0288   81.2  0.9928   -6.0
 0.175  0.9572  -12.9   2.804  168.7  0.0296   81.1  0.9926   -6.2
 0.180  0.9568  -13.3   2.806  168.4  0.0305   81.0  0.9923   -6.4
 0.185  0.9564  -13.7   2.809  168.1  0.0313   80.9  0.9921   -6.6
 0.190  0.9561  -14.1   2.811  167.8  0.0321   80.8  0.9918   -6.7
 0.195  0.9558  -14.4   2.814  167.4  0.0330   80.7  0.9916   -6.9
 0.200  0.9555  -14.8   2.817  167.1  0.0338   80.6  0.9914   -7.1
 0.220  0.9544  -16.2   2.807  165.8  0.0369   79.4  0.9894   -7.8
 0.240  0.9539  -17.6   2.799  164.5  0.0400   78.4  0.9876   -8.5
 0.260  0.9519  -19.0   2.790  163.3  0.0433   77.2  0.9860   -9.2
 0.280  0.9482  -20.3   2.779  162.3  0.0466   76.0  0.9844   -9.9
 0.300  0.9450  -21.7   2.768  161.3  0.0500   75.0  0.9829  -10.6
 0.320  0.9407  -23.1   2.759  159.9  0.0531   73.9  0.9805  -11.3
 0.340  0.9369  -24.4   2.752  158.5  0.0562   72.9  0.9783  -12.0
 0.360  0.9336  -25.8   2.746  157.1  0.0593   72.1  0.9762  -12.6
 0.380  0.9309  -27.2   2.742  155.6  0.0625   71.3  0.9743  -13.3
 0.400  0.9287  -28.6   2.740  154.2  0.0656   70.6  0.9725  -14.0
 0.420  0.9227  -30.1   2.727  152.9  0.0684   69.4  0.9695  -14.7
 0.440  0.9173  -31.6   2.716  151.7  0.0713   68.4  0.9667  -15.3
 0.450  0.9149  -32.4   2.710  151.0  0.0727   67.9  0.9653  -15.6
 0.460  0.9126  -33.1   2.705  150.4  0.0742   67.4  0.9640  -16.0
 0.480  0.9085  -34.7   2.696  149.1  0.0771   66.5  0.9614  -16.6
 0.500  0.9051  -36.2   2.689  147.8  0.0800   65.6  0.9589  -17.3
 0.520  0.8990  -37.5   2.679  146.7  0.0828   64.6  0.9555  -17.9
 0.540  0.8934  -38.9   2.671  145.5  0.0855   63.6  0.9522  -18.6
 0.560  0.8882  -40.2   2.663  144.3  0.0883   62.7  0.9490  -19.2
 0.580  0.8836  -41.6   2.656  143.2  0.0912   61.9  0.9459  -19.9
 0.600  0.8795  -43.0   2.651  142.0  0.0940   61.1  0.9430  -20.5
 0.620  0.8748  -44.3   2.627  140.9  0.0964   60.2  0.9392  -21.1
 0.640  0.8706  -45.6   2.604  139.8  0.0988   59.3  0.9355  -21.7
 0.660  0.8668  -46.9   2.581  138.7  0.1012   58.4  0.9319  -22.3
 0.680  0.8635  -48.2   2.560  137.6  0.1036   57.6  0.9285  -23.0
 0.700  0.8606  -49.5   2.540  136.4  0.1061   56.8  0.9251  -23.6
 0.720  0.8544  -50.8   2.530  135.3  0.1083   55.9  0.9214  -24.2
 0.740  0.8485  -52.0   2.522  134.1  0.1106   55.1  0.9177  -24.7
 0.760  0.8431  -53.4   2.514  133.0  0.1128   54.2  0.9142  -25.3
 0.780  0.8382  -54.7   2.508  131.9  0.1151   53.5  0.9107  -25.8
 0.800  0.8337  -56.0   2.502  130.7  0.1174   52.7  0.9073  -26.4
 0.820  0.8259  -57.4   2.488  129.6  0.1195   51.8  0.9030  -26.9
 0.840  0.8185  -58.7   2.474  128.5  0.1216   50.9  0.8988  -27.5
 0.860  0.8117  -60.1   2.462  127.4  0.1237   50.1  0.8947  -28.0
 0.880  0.8053  -61.6   2.450  126.2  0.1259   49.3  0.8907  -28.6
 0.900  0.7994  -63.0   2.440  125.1  0.1281   48.5  0.8867  -29.1
 0.920  0.7931  -64.4   2.424  124.1  0.1298   47.7  0.8827  -29.6
 0.940  0.7873  -65.7   2.408  123.1  0.1314   46.9  0.8787  -30.2
 0.960  0.7820  -67.1   2.394  122.0  0.1331   46.1  0.8749  -30.7
 0.980  0.7771  -68.6   2.380  121.0  0.1349   45.3  0.8711  -31.3
 1.000  0.7727  -70.0   2.367  119.9  0.1366   44.6  0.8674  -31.8
 1.020  0.7662  -71.3   2.355  118.8  0.1382   43.8  0.8634  -32.3
 1.040  0.7600  -72.5   2.344  117.8  0.1399   43.0  0.8594  -32.7
 1.060  0.7542  -73.8   2.334  116.7  0.1416   42.3  0.8555  -33.2
 1.080  0.7489  -75.2   2.325  115.6  0.1433   41.5  0.8516  -33.7
 1.100  0.7439  -76.5   2.316  114.5  0.1450   40.8  0.8478  -34.2
 1.120  0.7370  -77.7   2.298  113.6  0.1464   40.0  0.8441  -34.7
 1.140  0.7305  -79.0   2.281  112.7  0.1478   39.3  0.8406  -35.2
 1.160  0.7243  -80.3   2.264  111.8  0.1492   38.5  0.8370  -35.7
 1.180  0.7185  -81.6   2.248  110.8  0.1507   37.8  0.8336  -36.3
 1.200  0.7131  -82.9   2.233  109.9  0.1522   37.1  0.8302  -36.8
 1.220  0.7076  -84.2   2.218  109.0  0.1534   36.5  0.8263  -37.2
 1.240  0.7024  -85.5   2.203  108.0  0.1546   35.8  0.8224  -37.6
 1.260  0.6977  -86.9   2.189  107.1  0.1558   35.2  0.8186  -38.0
 1.280  0.6933  -88.2   2.176  106.1  0.1570   34.6  0.8148  -38.4
 1.300  0.6893  -89.6   2.163  105.1  0.1583   34.0  0.8110  -38.8
 1.320  0.6826  -90.8   2.148  104.2  0.1592   33.3  0.8071  -39.3
 1.340  0.6762  -92.1   2.133  103.3  0.1601   32.7  0.8033  -39.7
 1.360  0.6701  -93.3   2.118  102.4  0.1611   32.1  0.7996  -40.2
 1.380  0.6644  -94.6   2.104  101.5  0.1620   31.4  0.7959  -40.6
 1.400  0.6590  -95.9   2.091  100.6  0.1630   30.8  0.7922  -41.1
 1.420  0.6545  -97.3   2.080   99.7  0.1638   30.3  0.7882  -41.4
 1.440  0.6504  -98.7   2.070   98.7  0.1646   29.8  0.7843  -41.8
 1.460  0.6467 -100.1   2.060   97.8  0.1654   29.3  0.7804  -42.1
 1.480  0.6433 -101.5   2.051   96.9  0.1662   28.8  0.7765  -42.5
 1.500  0.6404 -102.9   2.042   95.9  0.1670   28.3  0.7727  -42.8
 1.520  0.6338 -104.0   2.026   95.1  0.1679   27.7  0.7701  -43.1
 1.540  0.6274 -105.2   2.010   94.2  0.1689   27.2  0.7675  -43.5
 1.560  0.6213 -106.3   1.995   93.4  0.1699   26.7  0.7649  -43.8
 1.580  0.6155 -107.5   1.980   92.5  0.1709   26.1  0.7624  -44.2
 1.600  0.6099 -108.7   1.966   91.6  0.1719   25.6  0.7599  -44.5
 1.620  0.6056 -110.1   1.956   90.8  0.1724   25.1  0.7560  -44.9
 1.640  0.6018 -111.6   1.945   89.9  0.1729   24.5  0.7522  -45.3
 1.660  0.5983 -113.1   1.936   89.0  0.1734   24.0  0.7485  -45.7
 1.680  0.5953 -114.6   1.927   88.2  0.1739   23.4  0.7447  -46.1
 1.700  0.5926 -116.1   1.918   87.3  0.1745   22.9  0.7410  -46.5
 1.720  0.5866 -117.5   1.908   86.4  0.1750   22.5  0.7381  -46.8
 1.740  0.5810 -118.9   1.898   85.5  0.1756   22.1  0.7351  -47.1
 1.760  0.5757 -120.3   1.888   84.6  0.1762   21.6  0.7322  -47.3
 1.780  0.5708 -121.7   1.879   83.6  0.1767   21.2  0.7294  -47.6
 1.800  0.5663 -123.2   1.871   82.7  0.1773   20.8  0.7265  -47.9
 1.820  0.5634 -124.5   1.860   81.9  0.1776   20.2  0.7232  -48.3
 1.840  0.5607 -125.8   1.849   81.2  0.1780   19.7  0.7200  -48.6
 1.860  0.5584 -127.2   1.838   80.4  0.1783   19.1  0.7168  -49.0
 1.880  0.5564 -128.5   1.828   79.6  0.1787   18.6  0.7136  -49.4
 1.900  0.5547 -129.9   1.818   78.8  0.1791   18.0  0.7105  -49.8
 1.920  0.5497 -131.1   1.806   78.0  0.1795   17.6  0.7079  -50.1
 1.940  0.5450 -132.4   1.793   77.2  0.1799   17.3  0.7054  -50.4
 1.960  0.5406 -133.6   1.782   76.4  0.1803   16.9  0.7029  -50.6
 1.980  0.5364 -134.9   1.770   75.6  0.1807   16.6  0.7004  -50.9
 2.000  0.5325 -136.2   1.759   74.8  0.1811   16.2  0.6979  -51.2
 2.020  0.5292 -137.4   1.746   74.1  0.1813   15.8  0.6954  -51.5
 2.040  0.5262 -138.7   1.733   73.3  0.1815   15.3  0.6930  -51.8
 2.060  0.5235 -139.9   1.720   72.6  0.1817   14.9  0.6906  -52.2
 2.080  0.5210 -141.2   1.708   71.8  0.1819   14.5  0.6881  -52.5
 2.100  0.5187 -142.5   1.696   71.1  0.1821   14.0  0.6858  -52.8
 2.120  0.5167 -143.8   1.684   70.3  0.1823   13.6  0.6834  -53.2
 2.140  0.5150 -145.1   1.672   69.5  0.1825   13.2  0.6811  -53.5
 2.160  0.5135 -146.4   1.661   68.7  0.1828   12.8  0.6788  -53.8
 2.180  0.5123 -147.7   1.650   67.9  0.1830   12.3  0.6765  -54.2
 2.200  0.5114 -149.0   1.640   67.1  0.1833   11.9  0.6742  -54.5
 2.220  0.5084 -150.3   1.631   66.4  0.1833   11.5  0.6719  -54.8
 2.240  0.5057 -151.6   1.622   65.8  0.1833   11.1  0.6696  -55.1
 2.260  0.5032 -152.9   1.613   65.1  0.1834   10.7  0.6674  -55.4
 2.280  0.5011 -154.3   1.604   64.4  0.1834   10.3  0.6651  -55.8
 2.300  0.4992 -155.6   1.596   63.7  0.1834    9.8  0.6629  -56.1
 2.320  0.4975 -157.0   1.588   63.0  0.1835    9.4  0.6607  -56.4
 2.340  0.4962 -158.4   1.580   62.3  0.1836    9.0  0.6585  -56.7
 2.360  0.4952 -159.7   1.572   61.6  0.1836    8.6  0.6564  -57.0
 2.380  0.4944 -161.1   1.565   60.8  0.1837    8.2  0.6542  -57.4
 2.400  0.4939 -162.5   1.558   60.1  0.1838    7.8  0.6521  -57.7
 2.420  0.4926 -163.7   1.547   59.5  0.1837    7.5  0.6498  -58.0
 2.440  0.4916 -165.0   1.537   58.8  0.1835    7.2  0.6475  -58.2
 2.460  0.4907 -166.3   1.527   58.2  0.1834    6.9  0.6452  -58.5
 2.480  0.4902 -167.5   1.517   57.6  0.1833    6.6  0.6429  -58.8
 2.500  0.4898 -168.8   1.507   56.9  0.1832    6.4  0.6407  -59.1
 2.520  0.4897 -170.1   1.497   56.2  0.1831    6.1  0.6384  -59.4
 2.540  0.4899 -171.3   1.488   55.6  0.1830    5.8  0.6362  -59.6
 2.560  0.4902 -172.6   1.479   54.9  0.1829    5.5  0.6340  -59.9
 2.580  0.4908 -173.8   1.470   54.2  0.1828    5.2  0.6318  -60.2
 2.600  0.4917 -175.1   1.461   53.5  0.1827    4.9  0.6296  -60.5
 2.620  0.4903 -176.3   1.453   52.8  0.1826    4.6  0.6283  -60.8
 2.640  0.4891 -177.5   1.444   52.1  0.1825    4.3  0.6269  -61.1
 2.660  0.4881 -178.7   1.436   51.4  0.1824    3.9  0.6256  -61.4
 2.680  0.4873 -179.9   1.428   50.8  0.1823    3.6  0.6243  -61.7
 2.700  0.4867  178.8   1.421   50.0  0.1822    3.3  0.6231  -62.0
 2.720  0.4864  177.6   1.413   49.3  0.1822    3.0  0.6218  -62.3
 2.740  0.4863  176.4   1.406   48.6  0.1821    2.7  0.6206  -62.7
 2.760  0.4864  175.1   1.399   47.9  0.1820    2.3  0.6194  -63.0
 2.780  0.4867  173.9   1.392   47.1  0.1820    2.0  0.6182  -63.3
 2.800  0.4873  172.7   1.386   46.4  0.1819    1.7  0.6170  -63.6
 2.820  0.4873  171.6   1.378   45.8  0.1817    1.4  0.6154  -63.9
 2.840  0.4876  170.5   1.370   45.2  0.1814    1.1  0.6137  -64.2
 2.860  0.4879  169.4   1.363   44.6  0.1812    0.7  0.6121  -64.5
 2.880  0.4885  168.3   1.355   44.0  0.1810    0.4  0.6105  -64.9
 2.900  0.4893  167.2   1.348   43.3  0.1807    0.1  0.6090  -65.2
 2.920  0.4902  166.1   1.341   42.7  0.1805   -0.2  0.6074  -65.5
 2.940  0.4913  165.0   1.334   42.1  0.1803   -0.5  0.6059  -65.8
 2.960  0.4926  163.9   1.327   41.4  0.1801   -0.9  0.6044  -66.1
 2.980  0.4941  162.9   1.320   40.8  0.1799   -1.2  0.6029  -66.5
 3.000  0.4957  161.8   1.314   40.1  0.1797   -1.5  0.6014  -66.8
 3.100  0.4947  156.8   1.273   37.5  0.1787   -2.5  0.5973  -68.3
 3.200  0.4976  151.7   1.236   34.7  0.1778   -3.5  0.5936  -69.9
 3.300  0.5042  146.8   1.201   31.8  0.1769   -4.6  0.5903  -71.5
 3.400  0.5145  142.0   1.170   28.7  0.1761   -5.6  0.5875  -73.1
 3.500  0.5281  137.5   1.142   25.4  0.1754   -6.7  0.5852  -74.7
 3.600  0.5331  133.8   1.109   23.1  0.1732   -7.4  0.5804  -76.6
 3.700  0.5402  130.2   1.078   20.6  0.1710   -8.2  0.5763  -78.5
 3.800  0.5493  126.8   1.049   18.0  0.1688   -8.9  0.5728  -80.5
 3.900  0.5604  123.4   1.022   15.3  0.1666   -9.7  0.5699  -82.4
 4.000  0.5734  120.2   0.998   12.4  0.1645  -10.5  0.5678  -84.4
 4.100  0.5785  117.2   0.971   10.3  0.1625  -11.0  0.5658  -86.5
 4.200  0.5851  114.3   0.945    8.2  0.1605  -11.5  0.5646  -88.6
 4.300  0.5932  111.4   0.921    5.9  0.1585  -12.1  0.5641  -90.8
 4.400  0.6028  108.6   0.898    3.4  0.1566  -12.6  0.5644  -92.9
 4.500  0.6138  105.9   0.877    0.9  0.1546  -13.2  0.5655  -95.0
 4.600  0.6192  103.8   0.854   -0.8  0.1527  -13.2  0.5641  -97.2
 4.700  0.6255  101.7   0.833   -2.7  0.1508  -13.2  0.5635  -99.4
 4.800  0.6325   99.6   0.812   -4.6  0.1488  -13.1  0.5637 -101.6
 4.900  0.6404   97.6   0.792   -6.7  0.1469  -13.1  0.5648 -103.8
 5.000  0.6490   95.7   0.773   -8.8  0.1450  -13.1  0.5667 -106.0
 5.100  0.6539   94.0   0.754  -10.4  0.1446  -12.5  0.5668 -108.2
 5.200  0.6593   92.3   0.736  -12.1  0.1442  -12.0  0.5678 -110.5
 5.300  0.6653   90.6   0.719  -13.9  0.1438  -11.4  0.5696 -112.7
 5.400  0.6718   89.0   0.702  -15.8  0.1435  -10.9  0.5723 -114.9
 5.500  0.6789   87.4   0.686  -17.8  0.1431  -10.3  0.5758 -117.1
 5.600  0.6853   85.9   0.671  -19.2  0.1437   -9.9  0.5767 -119.4
 5.700  0.6922   84.3   0.656  -20.6  0.1443   -9.5  0.5786 -121.7
 5.800  0.6995   82.9   0.642  -22.2  0.1449   -9.2  0.5813 -123.9
 5.900  0.7073   81.4   0.628  -23.7  0.1456   -8.8  0.5850 -126.2
 6.000  0.7156   80.0   0.615  -25.4  0.1462   -8.4  0.5895 -128.4
!
!  f       NFmin   Gammaopt  rn/50
! GHz       dB    MAG  ANG    -
!
! noise parameter not available yet for this operation point!
!
! (c) 2016  Infineon Technologies AG, Munich
