! Infineon Technologies  Discrete & RF Semiconductors
! BFP196
! VCE = 2.5 V,  IC = 6.0mA
! Common Emitter S-Parameters:                            Jan 2016
# GHz  S  MA  R  50
!  f         S11            S21            S12            S22
! GHz     MAG   ANG      MAG   ANG      MAG   ANG      MAG   ANG
 0.010  0.7841   -8.7  18.495  176.4  0.0057   86.9  0.9846   -4.3
 0.015  0.7795  -12.8  18.284  173.5  0.0086   81.7  0.9790   -6.2
 0.020  0.7790  -16.9  18.119  170.6  0.0116   79.2  0.9746   -8.2
 0.025  0.7690  -20.8  17.932  168.6  0.0142   76.1  0.9636  -10.0
 0.030  0.7626  -24.8  17.768  166.5  0.0168   74.0  0.9536  -11.9
 0.035  0.7600  -28.8  17.628  164.4  0.0194   72.4  0.9447  -13.8
 0.040  0.7611  -32.9  17.512  162.2  0.0220   71.2  0.9368  -15.8
 0.045  0.7660  -36.9  17.420  160.1  0.0247   70.3  0.9301  -17.8
 0.050  0.7746  -40.8  17.354  157.9  0.0273   69.5  0.9245  -19.8
 0.055  0.7610  -44.0  17.046  156.3  0.0291   67.2  0.9094  -21.2
 0.060  0.7499  -47.3  16.751  154.7  0.0310   65.1  0.8948  -22.6
 0.065  0.7413  -50.6  16.470  153.0  0.0329   63.3  0.8807  -24.0
 0.070  0.7352  -54.1  16.203  151.3  0.0349   61.6  0.8673  -25.5
 0.075  0.7319  -57.5  15.952  149.5  0.0369   60.2  0.8545  -27.1
 0.080  0.7313  -61.0  15.717  147.7  0.0389   58.9  0.8423  -28.7
 0.085  0.7334  -64.5  15.498  145.8  0.0409   57.7  0.8307  -30.3
 0.090  0.7382  -68.0  15.297  143.8  0.0429   56.7  0.8199  -32.0
 0.095  0.7457  -71.4  15.114  141.8  0.0449   55.7  0.8098  -33.7
 0.100  0.7557  -74.7  14.950  139.8  0.0470   54.8  0.8005  -35.5
 0.105  0.7480  -77.1  14.661  138.6  0.0481   53.5  0.7865  -36.4
 0.110  0.7415  -79.5  14.379  137.4  0.0492   52.3  0.7728  -37.3
 0.115  0.7364  -81.9  14.103  136.2  0.0503   51.1  0.7592  -38.2
 0.120  0.7326  -84.4  13.834  134.9  0.0514   50.0  0.7459  -39.2
 0.125  0.7302  -86.9  13.572  133.5  0.0526   48.9  0.7327  -40.2
 0.130  0.7292  -89.4  13.319  132.1  0.0538   47.9  0.7199  -41.3
 0.135  0.7296  -91.9  13.074  130.6  0.0549   46.9  0.7072  -42.4
 0.140  0.7314  -94.4  12.838  129.1  0.0561   46.0  0.6949  -43.5
 0.145  0.7346  -96.8  12.611  127.5  0.0574   45.1  0.6828  -44.7
 0.150  0.7391  -99.3  12.394  125.9  0.0586   44.2  0.6710  -45.9
 0.155  0.7355 -101.0  12.185  125.1  0.0592   43.4  0.6605  -46.5
 0.160  0.7326 -102.8  11.979  124.3  0.0598   42.7  0.6501  -47.2
 0.165  0.7304 -104.6  11.776  123.4  0.0604   41.9  0.6397  -47.8
 0.170  0.7288 -106.3  11.575  122.5  0.0610   41.2  0.6295  -48.5
 0.175  0.7280 -108.1  11.378  121.6  0.0617   40.5  0.6193  -49.3
 0.180  0.7279 -109.9  11.183  120.6  0.0623   39.8  0.6093  -50.0
 0.185  0.7285 -111.7  10.992  119.6  0.0630   39.1  0.5994  -50.8
 0.190  0.7298 -113.5  10.804  118.6  0.0636   38.5  0.5895  -51.5
 0.195  0.7318 -115.2  10.619  117.5  0.0643   37.8  0.5798  -52.4
 0.200  0.7345 -117.0  10.439  116.4  0.0650   37.2  0.5702  -53.2
 0.220  0.7264 -122.3   9.749  113.7  0.0664   35.3  0.5389  -54.9
 0.240  0.7247 -127.7   9.084  110.7  0.0679   33.4  0.5081  -56.8
 0.260  0.7242 -132.4   8.520  108.0  0.0693   32.0  0.4824  -58.5
 0.280  0.7226 -136.3   8.044  105.9  0.0707   30.9  0.4615  -59.8
 0.300  0.7245 -140.2   7.581  103.5  0.0720   29.9  0.4409  -61.2
 0.320  0.7195 -143.1   7.240  102.1  0.0725   29.2  0.4252  -62.0
 0.340  0.7164 -146.1   6.903  100.6  0.0729   28.5  0.4097  -62.9
 0.360  0.7152 -149.1   6.572   99.0  0.0734   27.8  0.3942  -63.9
 0.380  0.7159 -152.0   6.247   97.1  0.0739   27.1  0.3788  -64.9
 0.400  0.7186 -155.0   5.929   95.1  0.0744   26.4  0.3636  -66.0
 0.420  0.7164 -156.9   5.698   94.0  0.0749   26.1  0.3545  -66.6
 0.440  0.7150 -158.9   5.468   92.8  0.0753   25.8  0.3455  -67.2
 0.450  0.7147 -159.9   5.355   92.1  0.0755   25.6  0.3410  -67.5
 0.460  0.7145 -160.9   5.242   91.4  0.0758   25.5  0.3365  -67.8
 0.480  0.7148 -162.8   5.019   90.0  0.0762   25.2  0.3276  -68.5
 0.500  0.7160 -164.8   4.799   88.4  0.0767   24.9  0.3187  -69.2
 0.520  0.7153 -166.5   4.645   87.4  0.0770   24.8  0.3135  -69.7
 0.540  0.7153 -168.2   4.492   86.3  0.0773   24.7  0.3084  -70.2
 0.560  0.7159 -169.8   4.341   85.1  0.0776   24.6  0.3033  -70.7
 0.580  0.7171 -171.5   4.192   83.8  0.0779   24.5  0.2982  -71.2
 0.600  0.7189 -173.2   4.045   82.5  0.0782   24.4  0.2931  -71.8
 0.620  0.7186 -174.6   3.934   81.6  0.0784   24.4  0.2898  -72.3
 0.640  0.7187 -176.0   3.825   80.6  0.0786   24.5  0.2864  -72.8
 0.660  0.7192 -177.4   3.716   79.6  0.0788   24.5  0.2831  -73.3
 0.680  0.7202 -178.8   3.609   78.5  0.0790   24.6  0.2799  -73.8
 0.700  0.7216  179.8   3.503   77.4  0.0792   24.6  0.2766  -74.3
 0.720  0.7208  178.7   3.416   76.6  0.0796   24.8  0.2743  -74.8
 0.740  0.7203  177.6   3.329   75.8  0.0800   25.0  0.2720  -75.4
 0.760  0.7201  176.5   3.243   74.9  0.0803   25.1  0.2697  -75.9
 0.780  0.7201  175.4   3.157   74.0  0.0807   25.3  0.2674  -76.4
 0.800  0.7204  174.3   3.073   73.0  0.0811   25.5  0.2652  -77.0
 0.820  0.7202  173.2   3.005   72.2  0.0814   25.7  0.2638  -77.5
 0.840  0.7202  172.2   2.937   71.4  0.0818   26.0  0.2624  -78.1
 0.860  0.7204  171.1   2.871   70.5  0.0821   26.2  0.2610  -78.6
 0.880  0.7209  170.1   2.804   69.6  0.0825   26.5  0.2596  -79.1
 0.900  0.7217  169.0   2.739   68.7  0.0828   26.7  0.2583  -79.7
 0.920  0.7225  168.0   2.685   68.0  0.0831   26.9  0.2578  -80.2
 0.940  0.7235  167.0   2.632   67.2  0.0833   27.1  0.2574  -80.7
 0.960  0.7247  165.9   2.579   66.4  0.0836   27.4  0.2570  -81.3
 0.980  0.7261  164.9   2.527   65.6  0.0838   27.6  0.2566  -81.8
 1.000  0.7278  163.9   2.475   64.7  0.0841   27.8  0.2562  -82.3
 1.020  0.7288  163.0   2.431   64.0  0.0845   28.1  0.2562  -82.9
 1.040  0.7300  162.1   2.387   63.3  0.0849   28.3  0.2562  -83.5
 1.060  0.7313  161.2   2.344   62.5  0.0854   28.6  0.2562  -84.1
 1.080  0.7329  160.3   2.301   61.7  0.0858   28.8  0.2563  -84.7
 1.100  0.7346  159.4   2.259   60.9  0.0862   29.1  0.2564  -85.3
 1.120  0.7348  158.5   2.221   60.2  0.0866   29.4  0.2565  -85.9
 1.140  0.7351  157.7   2.183   59.5  0.0870   29.7  0.2567  -86.6
 1.160  0.7356  156.8   2.146   58.7  0.0873   30.0  0.2569  -87.2
 1.180  0.7363  156.0   2.109   57.9  0.0877   30.3  0.2571  -87.9
 1.200  0.7371  155.1   2.072   57.1  0.0881   30.6  0.2574  -88.5
 1.220  0.7369  154.3   2.039   56.4  0.0887   30.8  0.2577  -89.0
 1.240  0.7368  153.4   2.007   55.8  0.0892   31.1  0.2579  -89.5
 1.260  0.7369  152.6   1.975   55.1  0.0898   31.3  0.2582  -90.1
 1.280  0.7372  151.7   1.943   54.3  0.0903   31.6  0.2586  -90.6
 1.300  0.7376  150.9   1.911   53.6  0.0909   31.8  0.2589  -91.1
 1.320  0.7386  150.2   1.883   53.0  0.0914   32.0  0.2600  -91.6
 1.340  0.7398  149.5   1.856   52.4  0.0919   32.3  0.2612  -92.2
 1.360  0.7410  148.7   1.828   51.7  0.0923   32.5  0.2624  -92.7
 1.380  0.7424  148.0   1.801   51.1  0.0928   32.8  0.2636  -93.3
 1.400  0.7439  147.3   1.774   50.4  0.0933   33.0  0.2648  -93.8
 1.420  0.7443  146.6   1.754   49.8  0.0940   33.3  0.2654  -94.5
 1.440  0.7449  145.9   1.734   49.2  0.0946   33.6  0.2661  -95.1
 1.460  0.7456  145.3   1.715   48.5  0.0953   33.9  0.2667  -95.8
 1.480  0.7463  144.6   1.695   47.9  0.0959   34.2  0.2674  -96.4
 1.500  0.7472  143.9   1.676   47.2  0.0966   34.5  0.2682  -97.1
 1.520  0.7487  143.2   1.652   46.6  0.0974   34.7  0.2688  -97.8
 1.540  0.7502  142.5   1.628   45.9  0.0982   35.0  0.2694  -98.4
 1.560  0.7519  141.7   1.605   45.2  0.0991   35.2  0.2700  -99.1
 1.580  0.7538  141.0   1.581   44.5  0.0999   35.4  0.2707  -99.7
 1.600  0.7557  140.3   1.558   43.8  0.1007   35.6  0.2714 -100.4
 1.620  0.7564  139.5   1.540   43.2  0.1015   35.9  0.2717 -101.1
 1.640  0.7573  138.7   1.521   42.6  0.1023   36.2  0.2720 -101.8
 1.660  0.7584  137.9   1.503   41.9  0.1031   36.5  0.2724 -102.4
 1.680  0.7596  137.1   1.486   41.3  0.1039   36.7  0.2728 -103.1
 1.700  0.7609  136.3   1.468   40.6  0.1047   37.0  0.2733 -103.8
 1.720  0.7618  135.7   1.453   40.1  0.1055   37.1  0.2746 -104.3
 1.740  0.7627  135.1   1.438   39.6  0.1063   37.2  0.2759 -104.8
 1.760  0.7638  134.4   1.423   39.0  0.1072   37.4  0.2772 -105.3
 1.780  0.7649  133.8   1.409   38.5  0.1080   37.5  0.2785 -105.8
 1.800  0.7661  133.2   1.394   37.9  0.1088   37.6  0.2799 -106.3
 1.820  0.7670  132.6   1.379   37.3  0.1098   37.8  0.2815 -107.1
 1.840  0.7680  132.0   1.364   36.6  0.1108   38.0  0.2831 -107.8
 1.860  0.7690  131.4   1.349   36.0  0.1118   38.2  0.2847 -108.6
 1.880  0.7702  130.8   1.334   35.3  0.1128   38.4  0.2864 -109.4
 1.900  0.7714  130.2   1.320   34.6  0.1138   38.6  0.2882 -110.1
 1.920  0.7719  129.6   1.305   34.0  0.1147   38.7  0.2887 -110.7
 1.940  0.7726  128.9   1.290   33.5  0.1156   38.7  0.2892 -111.3
 1.960  0.7733  128.3   1.275   32.9  0.1166   38.8  0.2897 -112.0
 1.980  0.7742  127.6   1.261   32.3  0.1175   38.8  0.2903 -112.6
 2.000  0.7751  127.0   1.246   31.7  0.1184   38.9  0.2909 -113.2
 2.020  0.7753  126.4   1.234   31.2  0.1194   39.0  0.2924 -113.8
 2.040  0.7755  125.8   1.222   30.7  0.1205   39.1  0.2939 -114.4
 2.060  0.7759  125.1   1.209   30.1  0.1215   39.2  0.2954 -115.0
 2.080  0.7763  124.5   1.197   29.6  0.1225   39.3  0.2969 -115.6
 2.100  0.7769  123.9   1.186   29.0  0.1235   39.4  0.2985 -116.1
 2.120  0.7775  123.3   1.174   28.5  0.1246   39.5  0.3001 -116.7
 2.140  0.7782  122.6   1.162   27.9  0.1256   39.6  0.3018 -117.3
 2.160  0.7790  122.0   1.151   27.3  0.1266   39.7  0.3035 -117.8
 2.180  0.7799  121.4   1.139   26.7  0.1277   39.8  0.3052 -118.4
 2.200  0.7809  120.8   1.128   26.1  0.1287   39.9  0.3069 -118.9
 2.220  0.7822  120.2   1.118   25.6  0.1298   39.9  0.3080 -119.6
 2.240  0.7835  119.6   1.109   25.1  0.1309   39.9  0.3092 -120.4
 2.260  0.7850  118.9   1.099   24.6  0.1320   39.9  0.3105 -121.1
 2.280  0.7865  118.3   1.090   24.0  0.1331   39.9  0.3118 -121.8
 2.300  0.7882  117.7   1.081   23.5  0.1342   39.9  0.3131 -122.5
 2.320  0.7899  117.1   1.072   23.0  0.1352   39.9  0.3145 -123.2
 2.340  0.7917  116.5   1.063   22.4  0.1363   39.9  0.3160 -123.9
 2.360  0.7936  115.9   1.054   21.9  0.1374   39.9  0.3175 -124.6
 2.380  0.7956  115.3   1.045   21.3  0.1385   39.9  0.3190 -125.3
 2.400  0.7977  114.7   1.036   20.7  0.1396   39.9  0.3206 -126.0
 2.420  0.7980  114.1   1.027   20.3  0.1408   39.9  0.3221 -126.6
 2.440  0.7983  113.6   1.018   19.8  0.1420   39.8  0.3236 -127.3
 2.460  0.7988  113.0   1.010   19.3  0.1432   39.8  0.3251 -127.9
 2.480  0.7993  112.5   1.001   18.9  0.1444   39.8  0.3267 -128.6
 2.500  0.7998  111.9   0.993   18.4  0.1456   39.7  0.3284 -129.2
 2.520  0.8005  111.4   0.984   17.9  0.1469   39.7  0.3300 -129.8
 2.540  0.8012  110.8   0.976   17.4  0.1481   39.7  0.3318 -130.4
 2.560  0.8020  110.3   0.967   16.9  0.1493   39.7  0.3335 -131.0
 2.580  0.8029  109.7   0.959   16.4  0.1505   39.6  0.3353 -131.6
 2.600  0.8038  109.2   0.951   15.9  0.1517   39.6  0.3371 -132.2
 2.620  0.8049  108.7   0.943   15.5  0.1529   39.5  0.3385 -132.9
 2.640  0.8061  108.1   0.936   15.1  0.1542   39.4  0.3400 -133.6
 2.660  0.8074  107.6   0.928   14.6  0.1554   39.3  0.3415 -134.2
 2.680  0.8087  107.1   0.920   14.2  0.1566   39.2  0.3431 -134.9
 2.700  0.8101  106.5   0.913   13.7  0.1578   39.1  0.3447 -135.6
 2.720  0.8116  106.0   0.905   13.3  0.1591   39.0  0.3464 -136.2
 2.740  0.8132  105.5   0.898   12.8  0.1603   38.9  0.3481 -136.9
 2.760  0.8148  104.9   0.891   12.4  0.1615   38.8  0.3499 -137.5
 2.780  0.8165  104.4   0.883   11.9  0.1628   38.7  0.3517 -138.2
 2.800  0.8182  103.9   0.876   11.4  0.1640   38.6  0.3535 -138.8
 2.820  0.8184  103.4   0.869   11.0  0.1652   38.5  0.3554 -139.4
 2.840  0.8186  102.9   0.863   10.6  0.1665   38.3  0.3573 -140.1
 2.860  0.8189  102.4   0.856   10.1  0.1677   38.2  0.3593 -140.7
 2.880  0.8192  101.9   0.850    9.7  0.1690   38.1  0.3613 -141.3
 2.900  0.8197  101.4   0.843    9.2  0.1702   37.9  0.3633 -141.9
 2.920  0.8201  101.0   0.837    8.8  0.1715   37.8  0.3654 -142.5
 2.940  0.8207  100.5   0.831    8.3  0.1727   37.7  0.3675 -143.1
 2.960  0.8212  100.0   0.824    7.9  0.1740   37.5  0.3697 -143.7
 2.980  0.8219   99.5   0.818    7.4  0.1752   37.4  0.3719 -144.2
 3.000  0.8226   99.0   0.812    6.9  0.1765   37.3  0.3741 -144.8
 3.100  0.8255   96.8   0.783    5.4  0.1823   36.3  0.3817 -148.1
 3.200  0.8296   94.6   0.755    3.7  0.1882   35.3  0.3905 -151.3
 3.300  0.8349   92.5   0.728    2.0  0.1941   34.4  0.4005 -154.3
 3.400  0.8413   90.4   0.701    0.1  0.2001   33.6  0.4115 -157.2
 3.500  0.8489   88.3   0.675   -2.0  0.2061   32.8  0.4235 -159.9
 3.600  0.8496   86.4   0.655   -3.2  0.2119   31.7  0.4328 -162.8
 3.700  0.8512   84.5   0.635   -4.5  0.2177   30.6  0.4432 -165.7
 3.800  0.8536   82.7   0.615   -5.8  0.2236   29.6  0.4545 -168.3
 3.900  0.8570   80.8   0.596   -7.3  0.2296   28.7  0.4669 -170.9
 4.000  0.8613   79.0   0.577   -8.8  0.2356   27.8  0.4801 -173.3
 4.100  0.8619   77.4   0.563   -9.7  0.2410   26.5  0.4883 -175.8
 4.200  0.8632   75.8   0.549  -10.7  0.2466   25.2  0.4975 -178.3
 4.300  0.8651   74.2   0.535  -11.7  0.2522   24.0  0.5076  179.3
 4.400  0.8677   72.6   0.521  -12.8  0.2580   22.8  0.5184  177.1
 4.500  0.8710   71.0   0.508  -13.9  0.2639   21.7  0.5301  174.9
 4.600  0.8709   69.6   0.499  -14.6  0.2685   20.4  0.5377  172.7
 4.700  0.8714   68.3   0.490  -15.3  0.2732   19.1  0.5461  170.5
 4.800  0.8723   66.9   0.481  -16.0  0.2781   17.9  0.5552  168.5
 4.900  0.8737   65.6   0.472  -16.8  0.2831   16.7  0.5650  166.4
 5.000  0.8756   64.2   0.463  -17.6  0.2882   15.6  0.5755  164.5
 5.100  0.8765   63.0   0.456  -18.0  0.2926   14.3  0.5820  162.5
 5.200  0.8778   61.7   0.449  -18.5  0.2970   13.1  0.5892  160.5
 5.300  0.8795   60.5   0.442  -18.9  0.3017   11.9  0.5972  158.5
 5.400  0.8816   59.3   0.435  -19.4  0.3064   10.7  0.6058  156.6
 5.500  0.8841   58.1   0.428  -19.9  0.3113    9.6  0.6150  154.8
 5.600  0.8825   56.9   0.424  -20.4  0.3151    8.2  0.6206  153.0
 5.700  0.8813   55.8   0.420  -20.9  0.3191    6.9  0.6268  151.2
 5.800  0.8805   54.6   0.415  -21.4  0.3233    5.5  0.6336  149.4
 5.900  0.8800   53.5   0.411  -21.9  0.3276    4.3  0.6410  147.7
 6.000  0.8799   52.3   0.407  -22.4  0.3321    3.0  0.6490  146.0
!
!  f       NFmin   Gammaopt  rn/50
! GHz       dB    MAG  ANG    -
!
! noise parameter not available yet for this operation point!
!
! (c) 2016  Infineon Technologies AG, Munich
