! Infineon Technologies  Discrete & RF Semiconductors
! BFP183W
! VCE = 10.0V,  IC =  20 mA
! Common Emitter S-Parameters:                            Jan 2016
# GHz  S  MA  R  50
!  f         S11            S21            S12            S22
! GHz     MAG   ANG      MAG   ANG      MAG   ANG      MAG   ANG
 0.010  0.6246   -6.3  39.036  174.6  0.0020   77.6  0.9514   -2.8
 0.015  0.6228   -9.6  38.877  173.5  0.0029   77.0  0.9478   -4.4
 0.020  0.6231  -12.9  38.734  172.3  0.0039   76.7  0.9449   -6.0
 0.025  0.6214  -16.4  38.632  170.7  0.0048   78.1  0.9425   -7.5
 0.030  0.6221  -19.9  38.560  169.1  0.0058   79.1  0.9407   -9.1
 0.035  0.6183  -23.0  38.220  167.4  0.0068   77.7  0.9334  -10.6
 0.040  0.6163  -26.1  37.912  165.8  0.0077   76.6  0.9268  -12.1
 0.045  0.6161  -29.3  37.637  164.0  0.0087   75.8  0.9208  -13.6
 0.050  0.6178  -32.4  37.397  162.3  0.0097   75.1  0.9154  -15.1
 0.055  0.6104  -35.1  36.915  161.0  0.0104   73.2  0.9044  -16.2
 0.060  0.6043  -37.8  36.454  159.6  0.0111   71.5  0.8939  -17.4
 0.065  0.5997  -40.6  36.014  158.2  0.0118   70.0  0.8836  -18.6
 0.070  0.5965  -43.5  35.595  156.8  0.0126   68.7  0.8738  -19.8
 0.075  0.5948  -46.3  35.200  155.3  0.0133   67.6  0.8644  -21.1
 0.080  0.5945  -49.2  34.829  153.8  0.0140   66.5  0.8554  -22.3
 0.085  0.5958  -52.1  34.481  152.3  0.0148   65.6  0.8469  -23.6
 0.090  0.5986  -54.9  34.159  150.7  0.0155   64.8  0.8387  -25.0
 0.095  0.6028  -57.7  33.863  149.1  0.0163   64.0  0.8311  -26.3
 0.100  0.6084  -60.5  33.593  147.5  0.0170   63.3  0.8239  -27.7
 0.105  0.6028  -62.7  33.099  146.4  0.0175   62.5  0.8126  -28.6
 0.110  0.5982  -65.0  32.617  145.3  0.0180   61.7  0.8014  -29.5
 0.115  0.5945  -67.3  32.147  144.2  0.0185   61.0  0.7905  -30.4
 0.120  0.5918  -69.6  31.690  143.0  0.0190   60.3  0.7798  -31.3
 0.125  0.5901  -71.9  31.246  141.8  0.0195   59.6  0.7693  -32.3
 0.130  0.5893  -74.3  30.817  140.6  0.0200   59.0  0.7590  -33.3
 0.135  0.5895  -76.6  30.403  139.3  0.0205   58.4  0.7490  -34.3
 0.140  0.5907  -79.0  30.004  138.0  0.0210   57.9  0.7392  -35.4
 0.145  0.5929  -81.3  29.621  136.7  0.0215   57.3  0.7297  -36.5
 0.150  0.5961  -83.6  29.254  135.3  0.0220   56.8  0.7204  -37.6
 0.155  0.5929  -85.3  28.815  134.5  0.0224   56.2  0.7107  -38.2
 0.160  0.5901  -87.0  28.382  133.7  0.0228   55.6  0.7010  -38.8
 0.165  0.5880  -88.7  27.955  132.9  0.0232   55.1  0.6914  -39.4
 0.170  0.5863  -90.4  27.534  132.0  0.0236   54.6  0.6819  -40.0
 0.175  0.5851  -92.1  27.119  131.1  0.0240   54.0  0.6724  -40.6
 0.180  0.5845  -93.9  26.711  130.2  0.0244   53.5  0.6631  -41.3
 0.185  0.5845  -95.6  26.310  129.3  0.0248   53.1  0.6538  -42.0
 0.190  0.5850  -97.3  25.916  128.3  0.0252   52.6  0.6446  -42.7
 0.195  0.5860  -99.1  25.529  127.3  0.0256   52.1  0.6356  -43.4
 0.200  0.5875 -100.8  25.151  126.3  0.0260   51.7  0.6266  -44.1
 0.220  0.5819 -106.0  23.801  123.8  0.0270   50.3  0.5954  -45.9
 0.240  0.5813 -111.4  22.503  120.9  0.0281   49.1  0.5649  -48.0
 0.260  0.5806 -116.1  21.303  118.4  0.0290   48.0  0.5374  -49.7
 0.280  0.5787 -120.3  20.176  116.2  0.0297   47.1  0.5124  -50.9
 0.300  0.5798 -124.5  19.082  113.8  0.0304   46.3  0.4877  -52.3
 0.320  0.5760 -127.5  18.273  112.4  0.0311   46.0  0.4701  -53.0
 0.340  0.5738 -130.4  17.475  111.0  0.0318   45.7  0.4526  -53.8
 0.360  0.5731 -133.4  16.691  109.3  0.0325   45.4  0.4352  -54.6
 0.380  0.5740 -136.4  15.920  107.6  0.0332   45.1  0.4178  -55.5
 0.400  0.5765 -139.4  15.167  105.6  0.0339   44.8  0.4006  -56.5
 0.420  0.5741 -141.4  14.625  104.6  0.0345   44.8  0.3893  -56.9
 0.440  0.5725 -143.5  14.088  103.5  0.0351   44.8  0.3780  -57.2
 0.450  0.5719 -144.5  13.822  102.9  0.0354   44.8  0.3723  -57.4
 0.460  0.5716 -145.5  13.557  102.3  0.0358   44.8  0.3667  -57.6
 0.480  0.5714 -147.6  13.032  101.0  0.0364   44.8  0.3554  -58.0
 0.500  0.5719 -149.6  12.514   99.6  0.0370   44.8  0.3442  -58.5
 0.520  0.5719 -151.1  12.122   98.8  0.0375   45.0  0.3366  -58.7
 0.540  0.5723 -152.7  11.732   97.9  0.0381   45.1  0.3290  -58.9
 0.560  0.5731 -154.2  11.345   97.0  0.0386   45.3  0.3214  -59.2
 0.580  0.5744 -155.7  10.961   96.0  0.0392   45.4  0.3139  -59.4
 0.600  0.5760 -157.2  10.581   94.9  0.0397   45.6  0.3063  -59.7
 0.620  0.5752 -158.4  10.304   94.2  0.0402   45.9  0.3010  -59.9
 0.640  0.5747 -159.7  10.028   93.5  0.0407   46.1  0.2956  -60.1
 0.660  0.5744 -160.9   9.755   92.7  0.0411   46.4  0.2903  -60.3
 0.680  0.5744 -162.2   9.483   91.9  0.0416   46.7  0.2850  -60.5
 0.700  0.5747 -163.4   9.213   91.0  0.0421   46.9  0.2797  -60.7
 0.720  0.5740 -164.4   8.986   90.4  0.0427   47.1  0.2757  -60.8
 0.740  0.5735 -165.4   8.760   89.7  0.0433   47.4  0.2718  -61.0
 0.760  0.5732 -166.4   8.535   89.1  0.0439   47.6  0.2678  -61.1
 0.780  0.5730 -167.4   8.311   88.4  0.0445   47.8  0.2639  -61.3
 0.800  0.5730 -168.4   8.089   87.6  0.0451   48.0  0.2599  -61.4
 0.820  0.5736 -169.3   7.916   87.1  0.0457   48.2  0.2569  -61.5
 0.840  0.5743 -170.2   7.743   86.5  0.0463   48.3  0.2539  -61.7
 0.860  0.5751 -171.0   7.571   85.9  0.0470   48.5  0.2509  -61.8
 0.880  0.5761 -171.9   7.400   85.3  0.0476   48.6  0.2479  -62.0
 0.900  0.5772 -172.8   7.230   84.6  0.0482   48.8  0.2449  -62.1
 0.920  0.5767 -173.5   7.086   84.1  0.0488   49.1  0.2431  -62.3
 0.940  0.5764 -174.3   6.943   83.6  0.0494   49.3  0.2413  -62.4
 0.960  0.5761 -175.0   6.801   83.0  0.0499   49.6  0.2394  -62.6
 0.980  0.5759 -175.8   6.659   82.5  0.0505   49.9  0.2376  -62.7
 1.000  0.5758 -176.5   6.518   81.9  0.0511   50.1  0.2358  -62.9
 1.020  0.5760 -177.2   6.406   81.4  0.0518   50.2  0.2342  -63.1
 1.040  0.5763 -177.9   6.295   80.9  0.0525   50.2  0.2325  -63.3
 1.060  0.5767 -178.5   6.184   80.3  0.0531   50.3  0.2309  -63.4
 1.080  0.5772 -179.2   6.074   79.8  0.0538   50.3  0.2292  -63.6
 1.100  0.5777 -179.9   5.964   79.2  0.0545   50.4  0.2276  -63.8
 1.120  0.5782  179.5   5.865   78.7  0.0551   50.6  0.2263  -64.0
 1.140  0.5788  178.9   5.766   78.3  0.0557   50.7  0.2251  -64.2
 1.160  0.5794  178.2   5.667   77.8  0.0563   50.9  0.2238  -64.3
 1.180  0.5801  177.6   5.570   77.2  0.0569   51.0  0.2226  -64.5
 1.200  0.5809  177.0   5.472   76.7  0.0575   51.2  0.2213  -64.7
 1.220  0.5808  176.4   5.390   76.2  0.0582   51.4  0.2203  -64.9
 1.240  0.5809  175.8   5.308   75.7  0.0590   51.5  0.2194  -65.0
 1.260  0.5809  175.1   5.227   75.2  0.0597   51.7  0.2184  -65.2
 1.280  0.5811  174.5   5.146   74.7  0.0605   51.8  0.2175  -65.3
 1.300  0.5813  173.9   5.065   74.2  0.0612   52.0  0.2165  -65.5
 1.320  0.5812  173.4   4.995   73.8  0.0618   52.1  0.2160  -65.7
 1.340  0.5812  173.0   4.925   73.4  0.0625   52.1  0.2155  -65.9
 1.360  0.5812  172.5   4.855   72.9  0.0631   52.2  0.2150  -66.1
 1.380  0.5812  172.1   4.785   72.5  0.0638   52.2  0.2145  -66.3
 1.400  0.5813  171.6   4.716   72.0  0.0644   52.3  0.2140  -66.5
 1.420  0.5818  171.1   4.655   71.6  0.0650   52.4  0.2135  -66.8
 1.440  0.5824  170.6   4.593   71.2  0.0657   52.5  0.2129  -67.1
 1.460  0.5830  170.1   4.532   70.8  0.0663   52.5  0.2124  -67.3
 1.480  0.5837  169.6   4.472   70.3  0.0670   52.6  0.2119  -67.6
 1.500  0.5844  169.1   4.411   69.9  0.0676   52.7  0.2114  -67.9
 1.520  0.5849  168.6   4.357   69.4  0.0683   52.8  0.2110  -68.2
 1.540  0.5855  168.0   4.303   69.0  0.0689   52.8  0.2105  -68.4
 1.560  0.5862  167.5   4.250   68.5  0.0696   52.9  0.2101  -68.7
 1.580  0.5869  166.9   4.197   68.0  0.0702   52.9  0.2096  -68.9
 1.600  0.5876  166.4   4.144   67.5  0.0709   53.0  0.2092  -69.2
 1.620  0.5880  165.9   4.097   67.1  0.0716   53.0  0.2089  -69.5
 1.640  0.5884  165.4   4.050   66.8  0.0723   52.9  0.2085  -69.7
 1.660  0.5889  165.0   4.003   66.4  0.0731   52.9  0.2082  -70.0
 1.680  0.5894  164.5   3.956   66.0  0.0738   52.8  0.2078  -70.2
 1.700  0.5899  164.0   3.910   65.6  0.0745   52.8  0.2075  -70.5
 1.720  0.5904  163.6   3.866   65.2  0.0752   52.8  0.2076  -70.8
 1.740  0.5909  163.3   3.823   64.8  0.0759   52.8  0.2076  -71.0
 1.760  0.5915  162.9   3.779   64.4  0.0767   52.9  0.2077  -71.3
 1.780  0.5921  162.6   3.736   63.9  0.0774   52.9  0.2078  -71.5
 1.800  0.5927  162.2   3.693   63.5  0.0781   52.9  0.2079  -71.8
 1.820  0.5925  161.7   3.654   63.1  0.0787   52.9  0.2080  -72.1
 1.840  0.5924  161.3   3.615   62.6  0.0793   52.9  0.2080  -72.4
 1.860  0.5923  160.8   3.576   62.2  0.0800   53.0  0.2081  -72.7
 1.880  0.5922  160.4   3.537   61.8  0.0806   53.0  0.2082  -73.0
 1.900  0.5922  159.9   3.499   61.3  0.0812   53.0  0.2083  -73.3
 1.920  0.5926  159.5   3.466   61.0  0.0819   52.9  0.2079  -73.6
 1.940  0.5930  159.0   3.433   60.6  0.0826   52.9  0.2076  -74.0
 1.960  0.5934  158.6   3.400   60.2  0.0833   52.8  0.2072  -74.3
 1.980  0.5939  158.1   3.368   59.9  0.0840   52.8  0.2068  -74.7
 2.000  0.5944  157.7   3.335   59.5  0.0847   52.7  0.2065  -75.0
 2.020  0.5949  157.3   3.305   59.1  0.0854   52.7  0.2067  -75.3
 2.040  0.5954  156.9   3.276   58.8  0.0861   52.6  0.2069  -75.6
 2.060  0.5960  156.5   3.246   58.4  0.0867   52.6  0.2070  -75.9
 2.080  0.5966  156.1   3.217   58.0  0.0874   52.5  0.2072  -76.2
 2.100  0.5972  155.7   3.188   57.6  0.0881   52.5  0.2074  -76.5
 2.120  0.5979  155.3   3.159   57.2  0.0888   52.5  0.2076  -76.7
 2.140  0.5986  154.9   3.130   56.8  0.0895   52.4  0.2078  -77.0
 2.160  0.5993  154.5   3.101   56.4  0.0901   52.4  0.2081  -77.3
 2.180  0.6000  154.1   3.072   55.9  0.0908   52.3  0.2083  -77.6
 2.200  0.6008  153.7   3.044   55.5  0.0915   52.3  0.2085  -77.9
 2.220  0.6010  153.3   3.018   55.1  0.0922   52.2  0.2084  -78.3
 2.240  0.6012  152.9   2.993   54.8  0.0929   52.2  0.2084  -78.7
 2.260  0.6015  152.5   2.967   54.4  0.0936   52.1  0.2083  -79.0
 2.280  0.6018  152.1   2.942   54.0  0.0943   52.0  0.2083  -79.4
 2.300  0.6021  151.7   2.917   53.6  0.0949   52.0  0.2082  -79.8
 2.320  0.6024  151.3   2.892   53.2  0.0956   51.9  0.2082  -80.2
 2.340  0.6028  150.9   2.867   52.8  0.0963   51.9  0.2082  -80.6
 2.360  0.6032  150.5   2.842   52.4  0.0970   51.8  0.2082  -80.9
 2.380  0.6036  150.1   2.817   52.0  0.0977   51.8  0.2082  -81.3
 2.400  0.6041  149.7   2.793   51.6  0.0984   51.7  0.2082  -81.7
 2.420  0.6046  149.3   2.772   51.2  0.0991   51.6  0.2085  -82.1
 2.440  0.6051  149.0   2.750   50.9  0.0998   51.6  0.2088  -82.4
 2.460  0.6057  148.6   2.729   50.5  0.1005   51.5  0.2091  -82.8
 2.480  0.6063  148.3   2.708   50.2  0.1012   51.4  0.2094  -83.1
 2.500  0.6069  147.9   2.687   49.8  0.1019   51.3  0.2097  -83.5
 2.520  0.6075  147.5   2.666   49.4  0.1026   51.3  0.2100  -83.8
 2.540  0.6082  147.2   2.645   49.0  0.1033   51.2  0.2104  -84.2
 2.560  0.6089  146.8   2.625   48.6  0.1040   51.1  0.2107  -84.5
 2.580  0.6096  146.5   2.604   48.2  0.1047   51.1  0.2110  -84.9
 2.600  0.6103  146.1   2.584   47.8  0.1054   51.0  0.2114  -85.2
 2.620  0.6111  145.7   2.565   47.5  0.1061   50.9  0.2114  -85.6
 2.640  0.6120  145.4   2.547   47.1  0.1068   50.8  0.2114  -86.1
 2.660  0.6129  145.0   2.528   46.8  0.1074   50.7  0.2114  -86.5
 2.680  0.6138  144.6   2.510   46.4  0.1081   50.6  0.2115  -86.9
 2.700  0.6147  144.3   2.491   46.1  0.1088   50.5  0.2115  -87.4
 2.720  0.6156  143.9   2.473   45.7  0.1095   50.4  0.2116  -87.8
 2.740  0.6166  143.6   2.455   45.3  0.1102   50.3  0.2116  -88.2
 2.760  0.6176  143.2   2.437   45.0  0.1108   50.2  0.2117  -88.6
 2.780  0.6187  142.9   2.419   44.6  0.1115   50.1  0.2118  -89.1
 2.800  0.6197  142.5   2.401   44.2  0.1122   50.0  0.2119  -89.5
 2.820  0.6203  142.2   2.385   43.9  0.1129   49.9  0.2122  -89.9
 2.840  0.6208  141.8   2.369   43.5  0.1136   49.8  0.2126  -90.4
 2.860  0.6214  141.5   2.353   43.2  0.1143   49.7  0.2130  -90.8
 2.880  0.6220  141.1   2.337   42.8  0.1150   49.6  0.2134  -91.2
 2.900  0.6227  140.8   2.321   42.5  0.1157   49.5  0.2138  -91.6
 2.920  0.6233  140.5   2.305   42.1  0.1164   49.4  0.2142  -92.0
 2.940  0.6240  140.1   2.289   41.7  0.1171   49.3  0.2146  -92.5
 2.960  0.6247  139.8   2.274   41.4  0.1178   49.2  0.2150  -92.9
 2.980  0.6255  139.4   2.258   41.0  0.1185   49.1  0.2154  -93.3
 3.000  0.6262  139.1   2.243   40.6  0.1192   49.0  0.2159  -93.7
 3.100  0.6300  137.4   2.176   38.9  0.1224   48.4  0.2167  -96.0
 3.200  0.6343  135.7   2.111   37.1  0.1257   47.8  0.2178  -98.2
 3.300  0.6396  134.1   2.048   35.4  0.1290   47.2  0.2203 -100.5
 3.400  0.6454  132.5   1.987   33.5  0.1323   46.7  0.2232 -102.7
 3.500  0.6505  130.9   1.929   31.8  0.1352   46.1  0.2243 -105.0
 3.600  0.6561  129.3   1.872   30.0  0.1382   45.6  0.2257 -107.3
 3.700  0.6591  127.9   1.820   28.3  0.1411   44.9  0.2286 -109.7
 3.800  0.6625  126.5   1.770   26.6  0.1441   44.3  0.2319 -112.1
 3.900  0.6678  125.2   1.727   25.1  0.1475   43.7  0.2353 -114.5
 4.000  0.6734  124.0   1.685   23.5  0.1509   43.2  0.2391 -116.9
 4.100  0.6761  122.6   1.644   22.0  0.1540   42.5  0.2426 -119.3
 4.200  0.6793  121.3   1.604   20.5  0.1572   41.8  0.2465 -121.7
 4.300  0.6828  119.9   1.565   18.8  0.1603   41.1  0.2508 -124.0
 4.400  0.6867  118.6   1.528   17.1  0.1635   40.5  0.2555 -126.2
 4.500  0.6909  117.3   1.492   15.3  0.1667   39.9  0.2606 -128.3
 4.600  0.6936  116.3   1.457   14.0  0.1695   39.3  0.2656 -130.4
 4.700  0.6965  115.2   1.423   12.6  0.1724   38.6  0.2709 -132.5
 4.800  0.6997  114.2   1.390   11.2  0.1752   38.0  0.2766 -134.4
 4.900  0.7030  113.2   1.357    9.7  0.1781   37.5  0.2825 -136.3
 5.000  0.7066  112.2   1.326    8.1  0.1810   36.9  0.2888 -138.1
 5.100  0.7077  111.4   1.299    6.9  0.1839   36.2  0.2944 -139.9
 5.200  0.7090  110.6   1.272    5.6  0.1868   35.6  0.3002 -141.7
 5.300  0.7104  109.7   1.247    4.2  0.1898   34.9  0.3063 -143.3
 5.400  0.7120  108.9   1.221    2.9  0.1928   34.3  0.3127 -145.0
 5.500  0.7137  108.1   1.197    1.4  0.1958   33.7  0.3193 -146.5
 5.600  0.7140  107.3   1.175    0.2  0.1987   33.1  0.3251 -147.9
 5.700  0.7144  106.4   1.153   -1.1  0.2016   32.5  0.3310 -149.2
 5.800  0.7149  105.6   1.132   -2.4  0.2046   31.9  0.3371 -150.5
 5.900  0.7156  104.7   1.112   -3.7  0.2075   31.3  0.3434 -151.8
 6.000  0.7165  103.9   1.092   -5.1  0.2105   30.8  0.3499 -153.0
!
!  f       NFmin   Gammaopt  rn/50
! GHz       dB    MAG  ANG    -
!
! noise parameter not available yet for this operation point!
!
! (c) 2016  Infineon Technologies AG, Munich
