! Infineon Technologies  Discrete & RF Semiconductors
! BFP193
! VCE = 1.5 V,  IC =  50 mA
! Common Emitter S-Parameters:                            Jan 2016
# GHz  S  MA  R  50
!  f         S11            S21            S12            S22
! GHz     MAG   ANG      MAG   ANG      MAG   ANG      MAG   ANG
 0.010  0.2131  -37.5  56.227  170.5  0.0029   76.5  0.8387   -9.9
 0.015  0.2278  -52.4  54.473  165.7  0.0045   74.5  0.8214  -14.6
 0.020  0.2557  -64.8  53.126  160.6  0.0062   73.5  0.8098  -19.4
 0.025  0.2673  -75.1  51.053  157.7  0.0072   69.8  0.7776  -22.6
 0.030  0.2866  -84.2  49.125  154.5  0.0083   67.1  0.7481  -26.1
 0.035  0.3122  -92.1  47.360  151.1  0.0094   65.0  0.7215  -29.8
 0.040  0.3428  -98.6  45.778  147.4  0.0105   63.4  0.6982  -33.8
 0.045  0.3770 -104.0  44.397  143.5  0.0116   62.0  0.6785  -38.0
 0.050  0.4141 -108.5  43.237  139.3  0.0127   60.9  0.6627  -42.5
 0.055  0.4194 -112.3  41.665  137.9  0.0133   60.1  0.6386  -44.1
 0.060  0.4265 -116.1  40.119  136.4  0.0138   59.4  0.6150  -45.9
 0.065  0.4353 -119.7  38.603  134.8  0.0144   58.7  0.5921  -47.7
 0.070  0.4459 -123.1  37.120  133.1  0.0150   58.1  0.5698  -49.8
 0.075  0.4579 -126.4  35.674  131.2  0.0156   57.6  0.5483  -52.0
 0.080  0.4713 -129.5  34.269  129.1  0.0162   57.1  0.5277  -54.3
 0.085  0.4861 -132.4  32.912  126.9  0.0167   56.6  0.5081  -56.9
 0.090  0.5020 -135.1  31.609  124.5  0.0173   56.1  0.4895  -59.7
 0.095  0.5190 -137.7  30.365  121.9  0.0179   55.7  0.4722  -62.6
 0.100  0.5370 -140.1  29.190  119.1  0.0185   55.3  0.4562  -65.8
 0.105  0.5399 -141.6  28.349  118.3  0.0189   55.1  0.4436  -66.8
 0.110  0.5432 -143.2  27.514  117.4  0.0193   54.9  0.4312  -67.8
 0.115  0.5469 -144.7  26.685  116.5  0.0197   54.8  0.4189  -68.9
 0.120  0.5510 -146.2  25.864  115.6  0.0201   54.6  0.4068  -70.1
 0.125  0.5554 -147.6  25.050  114.5  0.0205   54.4  0.3949  -71.3
 0.130  0.5602 -149.1  24.245  113.4  0.0209   54.3  0.3831  -72.6
 0.135  0.5654 -150.5  23.450  112.2  0.0213   54.1  0.3716  -74.0
 0.140  0.5709 -151.9  22.665  111.0  0.0217   54.0  0.3603  -75.5
 0.145  0.5767 -153.3  21.892  109.6  0.0221   53.8  0.3493  -77.0
 0.150  0.5828 -154.6  21.132  108.2  0.0225   53.7  0.3385  -78.7
 0.155  0.5840 -155.5  20.651  107.7  0.0229   54.0  0.3315  -79.4
 0.160  0.5853 -156.4  20.172  107.1  0.0233   54.2  0.3246  -80.2
 0.165  0.5867 -157.3  19.696  106.5  0.0236   54.5  0.3178  -80.9
 0.170  0.5883 -158.1  19.221  105.9  0.0240   54.8  0.3110  -81.7
 0.175  0.5900 -159.0  18.748  105.3  0.0244   55.0  0.3042  -82.6
 0.180  0.5919 -159.9  18.278  104.6  0.0248   55.2  0.2976  -83.5
 0.185  0.5939 -160.7  17.811  103.9  0.0252   55.5  0.2910  -84.4
 0.190  0.5960 -161.6  17.347  103.1  0.0255   55.7  0.2845  -85.3
 0.195  0.5983 -162.5  16.886  102.3  0.0259   55.9  0.2780  -86.3
 0.200  0.6007 -163.3  16.428  101.5  0.0263   56.1  0.2717  -87.4
 0.220  0.6056 -165.6  15.146   99.9  0.0277   56.7  0.2533  -89.9
 0.240  0.6115 -167.9  13.879   98.0  0.0290   57.2  0.2355  -92.8
 0.260  0.6156 -169.8  12.838   96.3  0.0305   57.9  0.2213  -95.4
 0.280  0.6175 -171.5  12.015   95.0  0.0320   59.0  0.2106  -97.4
 0.300  0.6200 -173.1  11.199   93.5  0.0335   59.9  0.2001  -99.7
 0.320  0.6203 -174.6  10.656   92.7  0.0349   60.4  0.1928 -101.2
 0.340  0.6211 -176.0  10.114   91.8  0.0364   60.8  0.1856 -102.8
 0.360  0.6222 -177.5   9.576   90.7  0.0378   61.2  0.1785 -104.5
 0.380  0.6238 -179.0   9.042   89.6  0.0393   61.6  0.1717 -106.4
 0.400  0.6257  179.6   8.511   88.3  0.0407   61.9  0.1650 -108.4
 0.420  0.6268  178.7   8.170   87.6  0.0423   62.2  0.1610 -109.7
 0.440  0.6280  177.8   7.831   86.8  0.0439   62.6  0.1570 -111.0
 0.450  0.6287  177.4   7.662   86.4  0.0446   62.7  0.1551 -111.7
 0.460  0.6294  176.9   7.493   86.0  0.0454   62.9  0.1532 -112.4
 0.480  0.6309  176.1   7.157   85.0  0.0470   63.1  0.1494 -113.9
 0.500  0.6326  175.2   6.823   84.0  0.0486   63.4  0.1458 -115.4
 0.520  0.6323  174.3   6.596   83.3  0.0503   63.6  0.1438 -116.5
 0.540  0.6322  173.3   6.371   82.5  0.0519   63.8  0.1419 -117.6
 0.560  0.6322  172.4   6.147   81.7  0.0536   64.0  0.1401 -118.7
 0.580  0.6324  171.4   5.924   80.8  0.0552   64.2  0.1383 -119.8
 0.600  0.6328  170.5   5.703   79.8  0.0569   64.4  0.1365 -121.0
 0.620  0.6331  169.7   5.543   79.1  0.0585   64.4  0.1353 -121.9
 0.640  0.6335  168.8   5.383   78.5  0.0601   64.5  0.1341 -122.8
 0.660  0.6341  168.0   5.224   77.7  0.0616   64.5  0.1330 -123.7
 0.680  0.6348  167.1   5.066   76.9  0.0632   64.6  0.1319 -124.6
 0.700  0.6356  166.3   4.909   76.1  0.0648   64.6  0.1308 -125.6
 0.720  0.6359  165.6   4.787   75.5  0.0665   64.4  0.1302 -126.4
 0.740  0.6362  165.0   4.665   75.0  0.0682   64.3  0.1295 -127.1
 0.760  0.6366  164.3   4.543   74.3  0.0698   64.1  0.1289 -127.9
 0.780  0.6371  163.7   4.422   73.7  0.0715   63.9  0.1284 -128.7
 0.800  0.6377  163.0   4.302   73.0  0.0732   63.8  0.1278 -129.5
 0.820  0.6374  162.2   4.207   72.4  0.0749   63.8  0.1273 -130.1
 0.840  0.6371  161.5   4.112   71.8  0.0765   63.8  0.1269 -130.8
 0.860  0.6370  160.7   4.018   71.2  0.0782   63.8  0.1264 -131.4
 0.880  0.6370  160.0   3.924   70.6  0.0798   63.8  0.1260 -132.1
 0.900  0.6371  159.2   3.831   69.9  0.0815   63.8  0.1256 -132.7
 0.920  0.6381  158.5   3.756   69.3  0.0831   63.6  0.1257 -133.3
 0.940  0.6393  157.7   3.681   68.8  0.0846   63.5  0.1257 -133.9
 0.960  0.6406  157.0   3.607   68.2  0.0862   63.4  0.1258 -134.4
 0.980  0.6419  156.2   3.533   67.6  0.0877   63.2  0.1259 -135.0
 1.000  0.6434  155.5   3.460   66.9  0.0893   63.1  0.1260 -135.6
 1.020  0.6441  154.8   3.399   66.3  0.0909   62.9  0.1263 -136.2
 1.040  0.6449  154.1   3.338   65.7  0.0926   62.8  0.1266 -136.8
 1.060  0.6458  153.4   3.277   65.1  0.0942   62.7  0.1270 -137.4
 1.080  0.6468  152.7   3.217   64.5  0.0959   62.5  0.1273 -138.0
 1.100  0.6479  152.0   3.157   63.8  0.0975   62.4  0.1277 -138.6
 1.120  0.6494  151.4   3.106   63.3  0.0991   62.2  0.1279 -139.2
 1.140  0.6509  150.8   3.056   62.7  0.1008   62.0  0.1281 -139.7
 1.160  0.6525  150.2   3.005   62.1  0.1024   61.8  0.1284 -140.3
 1.180  0.6542  149.6   2.956   61.5  0.1041   61.7  0.1286 -140.8
 1.200  0.6559  149.0   2.906   60.9  0.1057   61.5  0.1289 -141.4
 1.220  0.6549  148.4   2.861   60.4  0.1073   61.3  0.1293 -141.8
 1.240  0.6539  147.8   2.816   59.8  0.1090   61.0  0.1297 -142.2
 1.260  0.6531  147.3   2.771   59.3  0.1106   60.8  0.1301 -142.7
 1.280  0.6522  146.7   2.727   58.7  0.1123   60.6  0.1305 -143.1
 1.300  0.6515  146.1   2.683   58.1  0.1139   60.4  0.1309 -143.5
 1.320  0.6521  145.5   2.644   57.6  0.1154   60.2  0.1315 -143.9
 1.340  0.6527  144.9   2.606   57.1  0.1169   59.9  0.1322 -144.3
 1.360  0.6534  144.2   2.567   56.6  0.1184   59.7  0.1329 -144.7
 1.380  0.6542  143.6   2.529   56.1  0.1199   59.5  0.1335 -145.1
 1.400  0.6551  143.0   2.491   55.6  0.1214   59.3  0.1342 -145.5
 1.420  0.6552  142.5   2.463   55.1  0.1230   59.0  0.1349 -146.0
 1.440  0.6554  142.0   2.435   54.6  0.1247   58.8  0.1356 -146.5
 1.460  0.6557  141.6   2.407   54.0  0.1263   58.6  0.1363 -147.0
 1.480  0.6560  141.1   2.379   53.5  0.1280   58.3  0.1371 -147.4
 1.500  0.6563  140.6   2.352   52.9  0.1296   58.1  0.1378 -147.9
 1.520  0.6582  140.0   2.319   52.4  0.1311   57.8  0.1385 -148.4
 1.540  0.6601  139.4   2.287   51.8  0.1326   57.6  0.1391 -148.9
 1.560  0.6622  138.8   2.254   51.2  0.1340   57.3  0.1398 -149.4
 1.580  0.6642  138.3   2.222   50.6  0.1355   57.0  0.1405 -149.9
 1.600  0.6664  137.7   2.190   50.0  0.1370   56.8  0.1412 -150.4
 1.620  0.6668  137.1   2.165   49.5  0.1385   56.5  0.1417 -150.9
 1.640  0.6673  136.4   2.141   49.0  0.1400   56.3  0.1421 -151.3
 1.660  0.6679  135.8   2.117   48.5  0.1416   56.1  0.1426 -151.8
 1.680  0.6686  135.1   2.093   47.9  0.1431   55.8  0.1431 -152.2
 1.700  0.6693  134.5   2.069   47.4  0.1446   55.6  0.1436 -152.7
 1.720  0.6709  133.9   2.048   46.9  0.1461   55.3  0.1445 -153.0
 1.740  0.6726  133.3   2.028   46.4  0.1475   55.0  0.1453 -153.4
 1.760  0.6744  132.8   2.008   45.9  0.1490   54.7  0.1462 -153.7
 1.780  0.6762  132.2   1.988   45.4  0.1505   54.5  0.1470 -154.0
 1.800  0.6781  131.6   1.968   44.9  0.1520   54.2  0.1479 -154.3
 1.820  0.6784  131.1   1.947   44.4  0.1536   54.0  0.1491 -154.8
 1.840  0.6788  130.7   1.927   43.9  0.1551   53.7  0.1503 -155.4
 1.860  0.6792  130.2   1.907   43.4  0.1567   53.5  0.1515 -155.9
 1.880  0.6797  129.8   1.887   42.8  0.1582   53.2  0.1527 -156.4
 1.900  0.6802  129.3   1.867   42.3  0.1598   53.0  0.1539 -156.9
 1.920  0.6813  128.8   1.848   41.8  0.1612   52.7  0.1548 -157.5
 1.940  0.6825  128.2   1.828   41.4  0.1626   52.4  0.1557 -158.0
 1.960  0.6837  127.7   1.809   40.9  0.1640   52.1  0.1566 -158.5
 1.980  0.6850  127.1   1.790   40.4  0.1654   51.9  0.1575 -159.1
 2.000  0.6863  126.6   1.771   39.9  0.1668   51.6  0.1584 -159.6
 2.020  0.6867  126.1   1.755   39.4  0.1682   51.3  0.1594 -160.1
 2.040  0.6871  125.6   1.739   39.0  0.1696   51.0  0.1603 -160.5
 2.060  0.6876  125.1   1.724   38.5  0.1710   50.7  0.1613 -161.0
 2.080  0.6882  124.6   1.708   38.0  0.1725   50.5  0.1623 -161.4
 2.100  0.6888  124.1   1.692   37.6  0.1739   50.2  0.1633 -161.9
 2.120  0.6895  123.6   1.677   37.1  0.1753   49.9  0.1643 -162.3
 2.140  0.6902  123.1   1.662   36.6  0.1768   49.7  0.1653 -162.7
 2.160  0.6909  122.6   1.647   36.1  0.1782   49.4  0.1663 -163.2
 2.180  0.6917  122.1   1.632   35.5  0.1797   49.2  0.1674 -163.6
 2.200  0.6926  121.6   1.617   35.0  0.1811   48.9  0.1684 -164.0
 2.220  0.6936  121.1   1.604   34.5  0.1824   48.6  0.1695 -164.6
 2.240  0.6947  120.5   1.591   34.1  0.1838   48.3  0.1706 -165.1
 2.260  0.6958  120.0   1.578   33.6  0.1851   48.1  0.1718 -165.7
 2.280  0.6970  119.4   1.566   33.1  0.1865   47.8  0.1729 -166.2
 2.300  0.6983  118.9   1.553   32.6  0.1878   47.6  0.1741 -166.7
 2.320  0.6996  118.3   1.541   32.1  0.1892   47.3  0.1753 -167.3
 2.340  0.7010  117.8   1.528   31.6  0.1905   47.0  0.1765 -167.8
 2.360  0.7024  117.3   1.516   31.1  0.1919   46.8  0.1777 -168.3
 2.380  0.7039  116.7   1.504   30.5  0.1932   46.5  0.1790 -168.8
 2.400  0.7055  116.2   1.492   30.0  0.1946   46.3  0.1802 -169.3
 2.420  0.7060  115.7   1.480   29.6  0.1958   46.0  0.1813 -169.8
 2.440  0.7066  115.2   1.468   29.2  0.1971   45.7  0.1824 -170.3
 2.460  0.7072  114.7   1.457   28.8  0.1983   45.4  0.1835 -170.7
 2.480  0.7079  114.3   1.445   28.3  0.1995   45.1  0.1846 -171.2
 2.500  0.7086  113.8   1.433   27.9  0.2008   44.9  0.1857 -171.7
 2.520  0.7093  113.3   1.422   27.4  0.2020   44.6  0.1868 -172.1
 2.540  0.7102  112.8   1.411   27.0  0.2033   44.3  0.1880 -172.6
 2.560  0.7110  112.4   1.399   26.5  0.2046   44.0  0.1891 -173.0
 2.580  0.7119  111.9   1.388   26.1  0.2058   43.8  0.1903 -173.5
 2.600  0.7129  111.4   1.377   25.6  0.2071   43.5  0.1915 -173.9
 2.620  0.7140  110.9   1.367   25.2  0.2083   43.2  0.1929 -174.4
 2.640  0.7151  110.5   1.358   24.8  0.2095   43.0  0.1944 -174.9
 2.660  0.7162  110.0   1.348   24.3  0.2107   42.7  0.1958 -175.4
 2.680  0.7174  109.6   1.339   23.9  0.2120   42.4  0.1973 -175.9
 2.700  0.7186  109.1   1.330   23.5  0.2132   42.2  0.1988 -176.4
 2.720  0.7199  108.7   1.320   23.0  0.2144   41.9  0.2003 -176.9
 2.740  0.7213  108.2   1.311   22.6  0.2157   41.6  0.2018 -177.3
 2.760  0.7226  107.8   1.302   22.1  0.2169   41.4  0.2033 -177.8
 2.780  0.7240  107.3   1.293   21.7  0.2182   41.1  0.2048 -178.3
 2.800  0.7255  106.9   1.284   21.2  0.2194   40.9  0.2064 -178.7
 2.820  0.7262  106.5   1.275   20.8  0.2206   40.6  0.2077 -179.2
 2.840  0.7269  106.0   1.266   20.4  0.2218   40.3  0.2090 -179.6
 2.860  0.7277  105.6   1.257   19.9  0.2230   40.1  0.2104  180.0
 2.880  0.7285  105.2   1.248   19.5  0.2242   39.8  0.2117  179.5
 2.900  0.7293  104.7   1.240   19.1  0.2254   39.5  0.2131  179.1
 2.920  0.7302  104.3   1.231   18.6  0.2266   39.2  0.2145  178.7
 2.940  0.7312  103.9   1.222   18.2  0.2278   39.0  0.2159  178.2
 2.960  0.7321  103.5   1.214   17.7  0.2290   38.7  0.2173  177.8
 2.980  0.7331  103.0   1.205   17.3  0.2303   38.5  0.2187  177.4
 3.000  0.7342  102.6   1.197   16.8  0.2315   38.2  0.2201  177.0
 3.100  0.7382  100.7   1.160   15.2  0.2367   36.8  0.2273  174.7
 3.200  0.7430   98.8   1.124   13.4  0.2420   35.6  0.2349  172.6
 3.300  0.7486   96.9   1.088   11.6  0.2474   34.3  0.2427  170.6
 3.400  0.7550   95.1   1.055    9.6  0.2529   33.1  0.2508  168.7
 3.500  0.7621   93.3   1.022    7.5  0.2585   32.0  0.2592  167.0
 3.600  0.7643   91.6   0.995    6.0  0.2633   30.6  0.2678  165.0
 3.700  0.7671   89.9   0.970    4.5  0.2682   29.3  0.2768  163.2
 3.800  0.7707   88.2   0.945    2.8  0.2732   28.0  0.2860  161.4
 3.900  0.7749   86.5   0.920    1.1  0.2784   26.8  0.2954  159.8
 4.000  0.7797   84.9   0.897   -0.7  0.2837   25.6  0.3051  158.3
 4.100  0.7829   83.4   0.876   -2.1  0.2877   24.3  0.3125  156.6
 4.200  0.7867   81.9   0.856   -3.5  0.2918   23.1  0.3202  155.0
 4.300  0.7910   80.4   0.837   -5.0  0.2960   21.9  0.3282  153.5
 4.400  0.7958   78.9   0.818   -6.6  0.3003   20.7  0.3363  152.0
 4.500  0.8011   77.5   0.800   -8.3  0.3048   19.6  0.3447  150.6
 4.600  0.8028   76.3   0.785   -9.4  0.3085   18.4  0.3516  149.2
 4.700  0.8048   75.0   0.769  -10.6  0.3123   17.3  0.3587  147.8
 4.800  0.8073   73.8   0.755  -11.8  0.3162   16.2  0.3660  146.5
 4.900  0.8101   72.6   0.740  -13.1  0.3202   15.1  0.3735  145.2
 5.000  0.8132   71.4   0.726  -14.4  0.3243   14.1  0.3812  144.0
 5.100  0.8156   70.2   0.712  -15.3  0.3278   13.0  0.3878  142.6
 5.200  0.8183   69.1   0.699  -16.3  0.3315   11.9  0.3946  141.2
 5.300  0.8214   68.0   0.686  -17.3  0.3352   10.8  0.4016  139.8
 5.400  0.8248   66.8   0.673  -18.4  0.3391    9.8  0.4089  138.5
 5.500  0.8285   65.7   0.660  -19.5  0.3431    8.8  0.4163  137.3
 5.600  0.8284   64.7   0.651  -20.5  0.3464    7.6  0.4224  136.0
 5.700  0.8286   63.7   0.642  -21.5  0.3499    6.5  0.4287  134.8
 5.800  0.8290   62.6   0.634  -22.5  0.3535    5.3  0.4352  133.6
 5.900  0.8297   61.6   0.625  -23.5  0.3572    4.2  0.4418  132.4
 6.000  0.8307   60.6   0.617  -24.6  0.3611    3.1  0.4487  131.3
!
!  f       NFmin   Gammaopt  rn/50
! GHz       dB    MAG  ANG    -
!
! noise parameter not available yet for this operation point!
!
! (c) 2016  Infineon Technologies AG, Munich
