! Infineon Technologies  Discrete & RF Semiconductors
! BFP181
! VCE = 0.50V,  IC =  30 mA
! Common Emitter S-Parameters:                            Jan 2016
# GHz  S  MA  R  50
!  f         S11            S21            S12            S22
! GHz     MAG   ANG      MAG   ANG      MAG   ANG      MAG   ANG
 0.010  0.9850   -0.9   1.108  179.8  0.0019   88.6  0.9978   -0.3
 0.015  0.9874   -1.0   1.115  179.7  0.0031   90.3  0.9978   -0.5
 0.020  0.9898   -1.1   1.123  179.6  0.0043   91.1  0.9978   -0.6
 0.025  0.9896   -1.3   1.125  179.2  0.0054   90.8  0.9977   -0.7
 0.030  0.9894   -1.6   1.126  178.8  0.0066   90.6  0.9975   -0.9
 0.035  0.9892   -1.8   1.128  178.3  0.0077   90.5  0.9974   -1.0
 0.040  0.9891   -2.1   1.130  177.9  0.0088   90.3  0.9973   -1.2
 0.045  0.9889   -2.3   1.132  177.5  0.0100   90.3  0.9972   -1.3
 0.050  0.9888   -2.6   1.134  177.1  0.0111   90.2  0.9971   -1.5
 0.055  0.9876   -2.9   1.131  176.8  0.0121   89.3  0.9970   -1.6
 0.060  0.9865   -3.2   1.128  176.5  0.0130   88.4  0.9970   -1.8
 0.065  0.9854   -3.5   1.126  176.2  0.0140   87.8  0.9970   -1.9
 0.070  0.9843   -3.8   1.123  175.9  0.0150   87.1  0.9969   -2.1
 0.075  0.9833   -4.1   1.120  175.6  0.0159   86.6  0.9969   -2.2
 0.080  0.9822   -4.4   1.117  175.3  0.0169   86.1  0.9969   -2.4
 0.085  0.9812   -4.7   1.115  175.0  0.0179   85.7  0.9969   -2.5
 0.090  0.9803   -5.0   1.112  174.7  0.0189   85.3  0.9969   -2.7
 0.095  0.9793   -5.3   1.110  174.4  0.0198   85.0  0.9969   -2.8
 0.100  0.9784   -5.6   1.107  174.1  0.0208   84.7  0.9969   -3.0
 0.105  0.9784   -5.9   1.108  173.8  0.0219   84.5  0.9969   -3.1
 0.110  0.9785   -6.1   1.109  173.5  0.0230   84.2  0.9968   -3.3
 0.115  0.9785   -6.4   1.110  173.2  0.0241   84.0  0.9968   -3.4
 0.120  0.9786   -6.7   1.111  172.9  0.0252   83.8  0.9968   -3.6
 0.125  0.9787   -7.0   1.112  172.6  0.0263   83.7  0.9968   -3.7
 0.130  0.9789   -7.2   1.113  172.3  0.0274   83.5  0.9968   -3.9
 0.135  0.9790   -7.5   1.114  172.0  0.0285   83.4  0.9968   -4.0
 0.140  0.9792   -7.8   1.115  171.7  0.0296   83.2  0.9968   -4.2
 0.145  0.9794   -8.0   1.116  171.4  0.0307   83.1  0.9968   -4.3
 0.150  0.9796   -8.3   1.117  171.1  0.0318   83.0  0.9968   -4.5
 0.155  0.9794   -8.6   1.118  170.8  0.0329   82.8  0.9967   -4.6
 0.160  0.9792   -8.9   1.120  170.4  0.0339   82.6  0.9967   -4.8
 0.165  0.9791   -9.2   1.121  170.1  0.0350   82.5  0.9966   -4.9
 0.170  0.9789   -9.5   1.122  169.8  0.0361   82.3  0.9966   -5.1
 0.175  0.9788   -9.7   1.124  169.4  0.0371   82.2  0.9966   -5.2
 0.180  0.9788  -10.0   1.125  169.1  0.0382   82.1  0.9965   -5.4
 0.185  0.9787  -10.3   1.126  168.8  0.0393   81.9  0.9965   -5.5
 0.190  0.9787  -10.6   1.128  168.5  0.0404   81.8  0.9965   -5.7
 0.195  0.9787  -10.9   1.129  168.1  0.0414   81.7  0.9965   -5.8
 0.200  0.9787  -11.2   1.131  167.8  0.0425   81.6  0.9965   -6.0
 0.220  0.9788  -12.3   1.121  166.7  0.0465   80.7  0.9951   -6.6
 0.240  0.9793  -13.4   1.111  165.5  0.0506   79.9  0.9939   -7.3
 0.260  0.9780  -14.4   1.107  164.4  0.0547   78.9  0.9929   -7.9
 0.280  0.9749  -15.5   1.110  163.5  0.0588   77.9  0.9921   -8.5
 0.300  0.9722  -16.6   1.113  162.6  0.0630   77.0  0.9915   -9.1
 0.320  0.9707  -17.7   1.114  161.2  0.0672   76.0  0.9903   -9.7
 0.340  0.9695  -18.8   1.116  159.9  0.0714   75.2  0.9892  -10.3
 0.360  0.9687  -20.0   1.118  158.5  0.0756   74.4  0.9882  -10.9
 0.380  0.9683  -21.1   1.121  157.1  0.0798   73.7  0.9873  -11.5
 0.400  0.9682  -22.2   1.125  155.8  0.0840   73.1  0.9865  -12.1
 0.420  0.9634  -23.3   1.121  154.6  0.0879   72.0  0.9849  -12.7
 0.440  0.9590  -24.5   1.117  153.3  0.0918   71.1  0.9835  -13.3
 0.450  0.9569  -25.1   1.115  152.7  0.0937   70.6  0.9828  -13.6
 0.460  0.9550  -25.7   1.114  152.1  0.0957   70.2  0.9821  -13.9
 0.480  0.9513  -26.8   1.111  150.9  0.0996   69.4  0.9808  -14.5
 0.500  0.9481  -28.0   1.109  149.6  0.1036   68.6  0.9797  -15.1
 0.520  0.9448  -29.0   1.105  148.5  0.1074   67.7  0.9777  -15.7
 0.540  0.9419  -30.0   1.102  147.4  0.1113   66.8  0.9759  -16.3
 0.560  0.9392  -31.0   1.099  146.3  0.1151   66.0  0.9742  -16.9
 0.580  0.9369  -32.1   1.097  145.2  0.1190   65.3  0.9725  -17.5
 0.600  0.9348  -33.1   1.095  144.1  0.1229   64.6  0.9710  -18.1
 0.620  0.9324  -34.2   1.090  143.0  0.1264   63.7  0.9687  -18.7
 0.640  0.9302  -35.2   1.086  141.8  0.1300   62.8  0.9666  -19.3
 0.660  0.9285  -36.3   1.082  140.6  0.1336   61.9  0.9645  -19.8
 0.680  0.9270  -37.4   1.079  139.5  0.1372   61.2  0.9626  -20.4
 0.700  0.9259  -38.5   1.076  138.3  0.1408   60.4  0.9607  -21.0
 0.720  0.9215  -39.6   1.075  137.2  0.1442   59.5  0.9582  -21.6
 0.740  0.9175  -40.7   1.075  136.1  0.1475   58.6  0.9557  -22.1
 0.760  0.9138  -41.8   1.075  135.0  0.1510   57.8  0.9534  -22.7
 0.780  0.9104  -42.9   1.075  133.9  0.1544   57.0  0.9512  -23.2
 0.800  0.9074  -44.0   1.076  132.8  0.1579   56.3  0.9490  -23.8
 0.820  0.9033  -45.1   1.075  131.6  0.1611   55.4  0.9462  -24.4
 0.840  0.8995  -46.2   1.074  130.5  0.1643   54.5  0.9435  -25.0
 0.860  0.8960  -47.3   1.073  129.3  0.1676   53.7  0.9408  -25.5
 0.880  0.8929  -48.5   1.074  128.2  0.1709   52.9  0.9383  -26.1
 0.900  0.8901  -49.6   1.074  127.0  0.1742   52.1  0.9359  -26.7
 0.920  0.8855  -50.8   1.071  126.0  0.1770   51.3  0.9332  -27.2
 0.940  0.8813  -51.9   1.069  124.9  0.1799   50.6  0.9306  -27.7
 0.960  0.8775  -53.1   1.066  123.9  0.1828   49.9  0.9281  -28.2
 0.980  0.8741  -54.3   1.064  122.8  0.1857   49.2  0.9257  -28.7
 1.000  0.8710  -55.5   1.063  121.8  0.1886   48.5  0.9233  -29.2
 1.020  0.8665  -56.6   1.061  120.7  0.1914   47.7  0.9204  -29.7
 1.040  0.8623  -57.7   1.060  119.6  0.1943   46.9  0.9176  -30.2
 1.060  0.8583  -58.8   1.059  118.6  0.1972   46.2  0.9148  -30.8
 1.080  0.8548  -59.9   1.059  117.5  0.2001   45.4  0.9121  -31.3
 1.100  0.8515  -61.0   1.059  116.4  0.2031   44.7  0.9095  -31.8
 1.120  0.8459  -62.0   1.054  115.4  0.2057   43.8  0.9070  -32.4
 1.140  0.8405  -63.0   1.050  114.5  0.2083   42.9  0.9045  -33.0
 1.160  0.8354  -64.1   1.046  113.5  0.2110   42.1  0.9021  -33.5
 1.180  0.8305  -65.1   1.042  112.5  0.2137   41.2  0.8999  -34.1
 1.200  0.8260  -66.2   1.039  111.5  0.2165   40.4  0.8977  -34.7
 1.220  0.8218  -67.3   1.035  110.5  0.2186   39.7  0.8945  -35.2
 1.240  0.8180  -68.5   1.032  109.5  0.2208   39.0  0.8914  -35.6
 1.260  0.8145  -69.6   1.028  108.5  0.2230   38.3  0.8883  -36.1
 1.280  0.8113  -70.7   1.026  107.4  0.2252   37.7  0.8853  -36.5
 1.300  0.8084  -71.9   1.023  106.4  0.2275   37.0  0.8823  -37.0
 1.320  0.8030  -72.9   1.019  105.4  0.2295   36.3  0.8790  -37.5
 1.340  0.7978  -73.9   1.016  104.4  0.2316   35.5  0.8757  -38.0
 1.360  0.7928  -74.9   1.013  103.4  0.2337   34.8  0.8725  -38.5
 1.380  0.7881  -76.0   1.010  102.4  0.2358   34.1  0.8694  -39.0
 1.400  0.7837  -77.0   1.008  101.4  0.2380   33.4  0.8663  -39.5
 1.420  0.7801  -78.3   1.008  100.4  0.2396   32.7  0.8630  -39.9
 1.440  0.7770  -79.5   1.009   99.3  0.2413   32.1  0.8597  -40.3
 1.460  0.7742  -80.8   1.009   98.3  0.2430   31.5  0.8565  -40.7
 1.480  0.7718  -82.1   1.011   97.2  0.2447   30.8  0.8533  -41.1
 1.500  0.7698  -83.4   1.012   96.2  0.2465   30.2  0.8501  -41.5
 1.520  0.7632  -84.4   1.008   95.3  0.2484   29.6  0.8479  -41.9
 1.540  0.7568  -85.4   1.004   94.3  0.2503   29.1  0.8457  -42.3
 1.560  0.7506  -86.4   1.000   93.4  0.2522   28.5  0.8435  -42.7
 1.580  0.7446  -87.4   0.997   92.5  0.2541   27.9  0.8414  -43.1
 1.600  0.7389  -88.4   0.994   91.5  0.2561   27.4  0.8393  -43.5
 1.620  0.7340  -89.6   0.992   90.5  0.2573   26.6  0.8352  -44.0
 1.640  0.7294  -90.9   0.991   89.6  0.2585   25.9  0.8311  -44.4
 1.660  0.7251  -92.2   0.990   88.6  0.2598   25.2  0.8271  -44.9
 1.680  0.7213  -93.5   0.989   87.7  0.2611   24.4  0.8232  -45.4
 1.700  0.7178  -94.8   0.989   86.7  0.2624   23.7  0.8193  -45.9
 1.720  0.7130  -96.0   0.987   85.7  0.2637   23.2  0.8165  -46.2
 1.740  0.7085  -97.3   0.986   84.7  0.2651   22.6  0.8137  -46.6
 1.760  0.7044  -98.6   0.985   83.7  0.2665   22.1  0.8109  -46.9
 1.780  0.7006  -99.9   0.984   82.7  0.2679   21.6  0.8081  -47.3
 1.800  0.6972 -101.2   0.984   81.7  0.2693   21.1  0.8054  -47.6
 1.820  0.6933 -102.4   0.982   80.8  0.2704   20.4  0.8024  -48.0
 1.840  0.6897 -103.7   0.980   79.9  0.2715   19.6  0.7994  -48.5
 1.860  0.6865 -104.9   0.978   79.1  0.2727   18.9  0.7964  -48.9
 1.880  0.6836 -106.2   0.976   78.2  0.2739   18.2  0.7935  -49.4
 1.900  0.6810 -107.5   0.975   77.3  0.2751   17.5  0.7907  -49.8
 1.920  0.6755 -108.6   0.971   76.4  0.2763   17.0  0.7887  -50.1
 1.940  0.6703 -109.8   0.968   75.4  0.2776   16.6  0.7867  -50.4
 1.960  0.6653 -110.9   0.965   74.5  0.2788   16.1  0.7847  -50.7
 1.980  0.6606 -112.1   0.962   73.6  0.2801   15.7  0.7827  -51.0
 2.000  0.6562 -113.3   0.960   72.6  0.2814   15.2  0.7808  -51.3
 2.020  0.6520 -114.4   0.955   71.7  0.2819   14.6  0.7778  -51.7
 2.040  0.6480 -115.6   0.951   70.9  0.2825   13.9  0.7748  -52.1
 2.060  0.6443 -116.7   0.947   70.0  0.2831   13.3  0.7719  -52.5
 2.080  0.6408 -117.9   0.943   69.1  0.2838   12.7  0.7690  -52.9
 2.100  0.6376 -119.1   0.940   68.2  0.2844   12.1  0.7661  -53.3
 2.120  0.6347 -120.2   0.936   67.3  0.2851   11.4  0.7633  -53.7
 2.140  0.6320 -121.4   0.933   66.4  0.2859   10.8  0.7605  -54.1
 2.160  0.6297 -122.7   0.930   65.5  0.2867   10.2  0.7578  -54.6
 2.180  0.6276 -123.9   0.927   64.5  0.2875    9.6  0.7551  -55.0
 2.200  0.6258 -125.1   0.925   63.6  0.2883    9.0  0.7524  -55.4
 2.220  0.6212 -126.3   0.922   62.8  0.2887    8.4  0.7499  -55.8
 2.240  0.6170 -127.6   0.919   62.0  0.2892    7.8  0.7474  -56.2
 2.260  0.6130 -128.8   0.917   61.2  0.2897    7.2  0.7449  -56.5
 2.280  0.6093 -130.1   0.914   60.4  0.2902    6.6  0.7425  -56.9
 2.300  0.6059 -131.4   0.912   59.6  0.2907    6.0  0.7401  -57.3
 2.320  0.6029 -132.7   0.910   58.8  0.2913    5.4  0.7378  -57.7
 2.340  0.6001 -134.0   0.908   58.0  0.2919    4.8  0.7354  -58.1
 2.360  0.5977 -135.3   0.907   57.2  0.2925    4.3  0.7332  -58.5
 2.380  0.5956 -136.7   0.905   56.4  0.2932    3.7  0.7309  -58.9
 2.400  0.5938 -138.0   0.904   55.6  0.2939    3.1  0.7287  -59.3
 2.420  0.5910 -139.2   0.900   54.9  0.2936    2.7  0.7258  -59.6
 2.440  0.5884 -140.5   0.895   54.1  0.2934    2.2  0.7230  -59.9
 2.460  0.5861 -141.7   0.891   53.3  0.2931    1.8  0.7202  -60.2
 2.480  0.5841 -143.0   0.887   52.6  0.2929    1.3  0.7173  -60.5
 2.500  0.5823 -144.2   0.883   51.8  0.2927    0.9  0.7146  -60.8
 2.520  0.5809 -145.5   0.880   51.0  0.2925    0.4  0.7118  -61.1
 2.540  0.5797 -146.8   0.876   50.2  0.2923   -0.0  0.7090  -61.4
 2.560  0.5788 -148.0   0.873   49.4  0.2922   -0.5  0.7063  -61.7
 2.580  0.5782 -149.3   0.870   48.6  0.2920   -0.9  0.7036  -62.0
 2.600  0.5779 -150.6   0.867   47.8  0.2919   -1.4  0.7009  -62.3
 2.620  0.5753 -151.8   0.864   47.0  0.2923   -1.9  0.7001  -62.6
 2.640  0.5729 -153.0   0.862   46.2  0.2927   -2.5  0.6993  -63.0
 2.660  0.5707 -154.3   0.859   45.4  0.2931   -3.0  0.6985  -63.3
 2.680  0.5689 -155.5   0.857   44.5  0.2936   -3.5  0.6978  -63.6
 2.700  0.5673 -156.8   0.855   43.7  0.2940   -4.1  0.6971  -63.9
 2.720  0.5660 -158.0   0.853   42.9  0.2945   -4.6  0.6964  -64.3
 2.740  0.5650 -159.3   0.851   42.0  0.2951   -5.1  0.6957  -64.6
 2.760  0.5642 -160.6   0.850   41.2  0.2956   -5.7  0.6950  -64.9
 2.780  0.5637 -161.8   0.848   40.3  0.2962   -6.2  0.6944  -65.3
 2.800  0.5635 -163.1   0.847   39.5  0.2968   -6.7  0.6938  -65.6
 2.820  0.5613 -164.3   0.844   38.8  0.2963   -7.2  0.6918  -66.0
 2.840  0.5594 -165.5   0.840   38.1  0.2958   -7.8  0.6898  -66.3
 2.860  0.5577 -166.7   0.837   37.3  0.2953   -8.3  0.6879  -66.7
 2.880  0.5563 -167.9   0.834   36.6  0.2949   -8.8  0.6859  -67.1
 2.900  0.5551 -169.1   0.831   35.9  0.2945   -9.4  0.6840  -67.4
 2.920  0.5542 -170.3   0.829   35.1  0.2941   -9.9  0.6822  -67.8
 2.940  0.5535 -171.5   0.826   34.4  0.2937  -10.5  0.6803  -68.2
 2.960  0.5530 -172.8   0.823   33.6  0.2934  -11.0  0.6785  -68.5
 2.980  0.5528 -174.0   0.821   32.9  0.2931  -11.6  0.6768  -68.9
 3.000  0.5529 -175.2   0.819   32.1  0.2928  -12.1  0.6750  -69.3
 3.100  0.5438  179.3   0.797   29.0  0.2908  -14.2  0.6720  -71.0
 3.200  0.5398  173.7   0.778   25.7  0.2891  -16.3  0.6696  -72.7
 3.300  0.5411  168.0   0.761   22.3  0.2879  -18.5  0.6678  -74.4
 3.400  0.5476  162.4   0.748   18.7  0.2870  -20.6  0.6665  -76.1
 3.500  0.5592  157.0   0.737   15.0  0.2866  -22.8  0.6659  -77.8
 3.600  0.5593  152.5   0.718   12.3  0.2803  -24.6  0.6607  -79.8
 3.700  0.5629  148.0   0.700    9.5  0.2744  -26.6  0.6564  -81.9
 3.800  0.5698  143.6   0.684    6.5  0.2687  -28.6  0.6529  -84.0
 3.900  0.5800  139.4   0.670    3.4  0.2634  -30.6  0.6502  -86.1
 4.000  0.5933  135.3   0.658    0.2  0.2585  -32.8  0.6485  -88.2
 4.100  0.5964  131.6   0.641   -2.1  0.2521  -34.4  0.6471  -90.5
 4.200  0.6020  128.0   0.624   -4.5  0.2459  -36.2  0.6467  -92.8
 4.300  0.6099  124.5   0.609   -7.0  0.2399  -38.0  0.6474  -95.1
 4.400  0.6201  121.0   0.595   -9.6  0.2342  -39.9  0.6491  -97.4
 4.500  0.6324  117.7   0.582  -12.4  0.2288  -41.9  0.6519  -99.7
 4.600  0.6370  115.0   0.566  -14.2  0.2215  -42.9  0.6506 -102.0
 4.700  0.6429  112.4   0.550  -16.1  0.2142  -44.0  0.6504 -104.3
 4.800  0.6503  109.8   0.536  -18.1  0.2071  -45.1  0.6512 -106.6
 4.900  0.6589  107.3   0.521  -20.2  0.2000  -46.3  0.6531 -108.9
 5.000  0.6687  104.8   0.508  -22.4  0.1930  -47.6  0.6560 -111.2
 5.100  0.6742  102.7   0.495  -23.9  0.1871  -47.8  0.6575 -113.6
 5.200  0.6805  100.6   0.482  -25.6  0.1812  -48.0  0.6602 -115.9
 5.300  0.6878   98.5   0.470  -27.3  0.1752  -48.3  0.6639 -118.2
 5.400  0.6959   96.6   0.458  -29.1  0.1693  -48.5  0.6687 -120.5
 5.500  0.7048   94.6   0.447  -31.0  0.1634  -48.8  0.6746 -122.8
 5.600  0.7098   92.8   0.435  -32.3  0.1586  -48.5  0.6760 -125.2
 5.700  0.7155   90.9   0.424  -33.6  0.1539  -48.2  0.6786 -127.6
 5.800  0.7219   89.2   0.413  -35.0  0.1492  -47.8  0.6824 -130.0
 5.900  0.7289   87.4   0.402  -36.4  0.1444  -47.5  0.6873 -132.3
 6.000  0.7367   85.7   0.391  -38.0  0.1397  -47.1  0.6934 -134.6
!
!  f       NFmin   Gammaopt  rn/50
! GHz       dB    MAG  ANG    -
!
! noise parameter not available yet for this operation point!
!
! (c) 2016  Infineon Technologies AG, Munich
