! Infineon Technologies  Discrete & RF Semiconductors
! BFP193
! VCE = 2.0 V,  IC =  5.0 mA
! Common Emitter S-Parameters:                            Jan 2016
# GHz  S  MA  R  50
!  f         S11            S21            S12            S22
! GHz     MAG   ANG      MAG   ANG      MAG   ANG      MAG   ANG
 0.010  0.8242   -5.3  15.545  177.9  0.0038   89.2  0.9876   -2.4
 0.015  0.8218   -7.7  15.405  175.7  0.0057   87.9  0.9832   -3.5
 0.020  0.8209  -10.1  15.287  173.5  0.0076   87.3  0.9792   -4.6
 0.025  0.8159  -12.6  15.215  172.1  0.0095   83.6  0.9753   -5.7
 0.030  0.8124  -15.0  15.152  170.6  0.0114   81.2  0.9719   -6.9
 0.035  0.8105  -17.5  15.099  169.2  0.0133   79.4  0.9688   -8.1
 0.040  0.8101  -20.0  15.055  167.7  0.0152   78.1  0.9661   -9.2
 0.045  0.8112  -22.5  15.022  166.3  0.0172   77.1  0.9639  -10.4
 0.050  0.8139  -25.0  14.998  164.8  0.0191   76.3  0.9620  -11.6
 0.055  0.8052  -27.2  14.858  163.5  0.0207   74.7  0.9542  -12.6
 0.060  0.7976  -29.5  14.726  162.3  0.0223   73.3  0.9467  -13.5
 0.065  0.7914  -31.8  14.601  161.0  0.0239   72.1  0.9394  -14.5
 0.070  0.7864  -34.1  14.484  159.6  0.0256   71.0  0.9324  -15.5
 0.075  0.7827  -36.4  14.374  158.3  0.0272   70.1  0.9257  -16.5
 0.080  0.7804  -38.8  14.273  156.9  0.0289   69.3  0.9193  -17.5
 0.085  0.7794  -41.2  14.180  155.5  0.0305   68.6  0.9132  -18.6
 0.090  0.7798  -43.6  14.095  154.1  0.0322   67.9  0.9074  -19.6
 0.095  0.7815  -45.9  14.019  152.7  0.0338   67.3  0.9020  -20.7
 0.100  0.7845  -48.3  13.951  151.3  0.0355   66.8  0.8968  -21.8
 0.105  0.7770  -50.2  13.782  150.2  0.0367   65.5  0.8877  -22.5
 0.110  0.7704  -52.2  13.618  149.0  0.0379   64.2  0.8788  -23.3
 0.115  0.7648  -54.2  13.460  147.8  0.0392   63.1  0.8700  -24.1
 0.120  0.7600  -56.2  13.308  146.6  0.0405   62.0  0.8614  -24.9
 0.125  0.7562  -58.2  13.162  145.4  0.0417   61.0  0.8529  -25.7
 0.130  0.7534  -60.3  13.022  144.1  0.0430   60.0  0.8446  -26.5
 0.135  0.7516  -62.4  12.889  142.8  0.0443   59.1  0.8365  -27.3
 0.140  0.7507  -64.4  12.762  141.5  0.0456   58.3  0.8286  -28.2
 0.145  0.7509  -66.5  12.643  140.2  0.0470   57.5  0.8209  -29.0
 0.150  0.7520  -68.6  12.530  138.8  0.0483   56.7  0.8133  -29.9
 0.155  0.7464  -70.3  12.385  138.0  0.0491   55.9  0.8050  -30.4
 0.160  0.7413  -71.9  12.243  137.1  0.0500   55.2  0.7967  -31.0
 0.165  0.7370  -73.6  12.104  136.3  0.0509   54.5  0.7886  -31.6
 0.170  0.7332  -75.4  11.968  135.4  0.0517   53.8  0.7805  -32.2
 0.175  0.7302  -77.1  11.834  134.5  0.0526   53.1  0.7725  -32.7
 0.180  0.7278  -78.8  11.704  133.5  0.0535   52.5  0.7646  -33.4
 0.185  0.7261  -80.6  11.577  132.6  0.0544   51.9  0.7567  -34.0
 0.190  0.7251  -82.4  11.453  131.6  0.0553   51.3  0.7490  -34.6
 0.195  0.7248  -84.1  11.332  130.6  0.0562   50.7  0.7414  -35.2
 0.200  0.7252  -85.9  11.215  129.6  0.0571   50.1  0.7338  -35.9
 0.220  0.7086  -91.5  10.655  126.6  0.0597   47.7  0.7041  -37.5
 0.240  0.6990  -97.3  10.128  123.2  0.0623   45.5  0.6749  -39.3
 0.260  0.6906 -102.6   9.657  120.3  0.0645   43.8  0.6489  -40.8
 0.280  0.6813 -107.3   9.227  117.8  0.0663   42.6  0.6258  -42.1
 0.300  0.6766 -112.1   8.816  115.1  0.0680   41.4  0.6031  -43.5
 0.320  0.6668 -115.6   8.467  113.5  0.0691   40.2  0.5844  -44.2
 0.340  0.6597 -119.3   8.125  111.8  0.0702   39.1  0.5657  -44.9
 0.360  0.6552 -122.9   7.791  109.9  0.0713   38.0  0.5472  -45.7
 0.380  0.6535 -126.7   7.466  107.8  0.0725   36.9  0.5287  -46.5
 0.400  0.6546 -130.4   7.152  105.6  0.0737   35.9  0.5104  -47.4
 0.420  0.6490 -133.0   6.890  104.3  0.0744   35.4  0.4984  -47.8
 0.440  0.6447 -135.6   6.633  102.8  0.0752   34.8  0.4864  -48.3
 0.450  0.6431 -136.9   6.506  102.1  0.0756   34.6  0.4805  -48.5
 0.460  0.6418 -138.3   6.380  101.3  0.0760   34.3  0.4745  -48.7
 0.480  0.6402 -140.9   6.131   99.6  0.0767   33.8  0.4626  -49.2
 0.500  0.6401 -143.6   5.889   97.8  0.0775   33.3  0.4507  -49.7
 0.520  0.6379 -145.7   5.718   96.7  0.0781   33.0  0.4428  -50.0
 0.540  0.6366 -147.8   5.550   95.4  0.0787   32.8  0.4349  -50.3
 0.560  0.6361 -150.0   5.384   94.1  0.0793   32.5  0.4270  -50.6
 0.580  0.6365 -152.1   5.222   92.8  0.0799   32.3  0.4191  -51.0
 0.600  0.6378 -154.2   5.062   91.3  0.0805   32.0  0.4112  -51.3
 0.620  0.6357 -156.0   4.931   90.3  0.0810   31.9  0.4054  -51.5
 0.640  0.6342 -157.8   4.801   89.3  0.0815   31.8  0.3996  -51.8
 0.660  0.6333 -159.6   4.673   88.2  0.0821   31.6  0.3938  -52.1
 0.680  0.6330 -161.4   4.546   87.0  0.0826   31.5  0.3880  -52.3
 0.700  0.6334 -163.2   4.422   85.8  0.0831   31.4  0.3822  -52.6
 0.720  0.6321 -164.7   4.315   85.0  0.0836   31.4  0.3778  -52.8
 0.740  0.6313 -166.2   4.209   84.1  0.0841   31.4  0.3735  -53.1
 0.760  0.6309 -167.6   4.104   83.1  0.0846   31.3  0.3691  -53.3
 0.780  0.6309 -169.1   4.000   82.1  0.0851   31.3  0.3647  -53.5
 0.800  0.6313 -170.6   3.898   81.1  0.0856   31.3  0.3604  -53.8
 0.820  0.6297 -171.8   3.814   80.3  0.0860   31.4  0.3574  -54.1
 0.840  0.6284 -173.1   3.731   79.5  0.0864   31.5  0.3545  -54.3
 0.860  0.6274 -174.3   3.648   78.6  0.0868   31.6  0.3515  -54.6
 0.880  0.6267 -175.6   3.567   77.7  0.0872   31.7  0.3485  -54.8
 0.900  0.6263 -176.8   3.486   76.8  0.0876   31.8  0.3456  -55.1
 0.920  0.6263 -178.0   3.419   76.1  0.0880   31.9  0.3435  -55.4
 0.940  0.6266 -179.2   3.353   75.3  0.0884   32.0  0.3413  -55.6
 0.960  0.6271  179.5   3.287   74.5  0.0888   32.1  0.3392  -55.9
 0.980  0.6280  178.3   3.222   73.7  0.0892   32.2  0.3371  -56.2
 1.000  0.6291  177.1   3.158   72.8  0.0896   32.3  0.3350  -56.5
 1.020  0.6298  176.0   3.104   72.1  0.0901   32.5  0.3334  -56.8
 1.040  0.6307  175.0   3.051   71.3  0.0907   32.7  0.3318  -57.2
 1.060  0.6318  173.9   2.999   70.5  0.0912   32.8  0.3302  -57.5
 1.080  0.6331  172.9   2.946   69.7  0.0918   33.0  0.3286  -57.9
 1.100  0.6346  171.8   2.895   68.9  0.0923   33.2  0.3270  -58.2
 1.120  0.6357  170.8   2.849   68.2  0.0929   33.4  0.3257  -58.6
 1.140  0.6370  169.9   2.804   67.5  0.0934   33.6  0.3245  -58.9
 1.160  0.6385  168.9   2.759   66.8  0.0940   33.8  0.3232  -59.3
 1.180  0.6402  168.0   2.715   66.0  0.0945   34.0  0.3220  -59.6
 1.200  0.6420  167.0   2.671   65.2  0.0951   34.2  0.3208  -60.0
 1.220  0.6410  166.1   2.630   64.6  0.0957   34.3  0.3195  -60.4
 1.240  0.6402  165.2   2.589   63.9  0.0962   34.4  0.3182  -60.7
 1.260  0.6396  164.4   2.548   63.2  0.0968   34.4  0.3170  -61.1
 1.280  0.6391  163.5   2.508   62.5  0.0973   34.5  0.3157  -61.4
 1.300  0.6387  162.6   2.468   61.8  0.0979   34.6  0.3145  -61.8
 1.320  0.6397  161.7   2.433   61.2  0.0984   34.8  0.3139  -62.2
 1.340  0.6409  160.8   2.398   60.6  0.0989   35.0  0.3133  -62.6
 1.360  0.6423  159.9   2.363   59.9  0.0995   35.3  0.3127  -63.1
 1.380  0.6438  159.1   2.329   59.3  0.1000   35.5  0.3121  -63.5
 1.400  0.6454  158.2   2.295   58.6  0.1005   35.7  0.3116  -63.9
 1.420  0.6455  157.5   2.269   58.0  0.1012   35.9  0.3105  -64.4
 1.440  0.6457  156.8   2.244   57.4  0.1018   36.1  0.3095  -64.8
 1.460  0.6460  156.2   2.219   56.8  0.1025   36.3  0.3084  -65.3
 1.480  0.6463  155.5   2.194   56.1  0.1031   36.5  0.3074  -65.7
 1.500  0.6468  154.8   2.169   55.5  0.1038   36.7  0.3064  -66.2
 1.520  0.6483  153.9   2.139   54.9  0.1045   36.8  0.3056  -66.7
 1.540  0.6499  153.0   2.110   54.2  0.1053   37.0  0.3049  -67.1
 1.560  0.6517  152.1   2.081   53.5  0.1060   37.1  0.3041  -67.6
 1.580  0.6537  151.3   2.052   52.8  0.1068   37.3  0.3034  -68.0
 1.600  0.6558  150.4   2.024   52.1  0.1075   37.4  0.3027  -68.5
 1.620  0.6564  149.6   2.001   51.5  0.1082   37.6  0.3018  -68.9
 1.640  0.6570  148.8   1.978   50.9  0.1089   37.8  0.3009  -69.4
 1.660  0.6579  147.9   1.955   50.3  0.1096   38.1  0.3000  -69.8
 1.680  0.6588  147.1   1.932   49.6  0.1103   38.3  0.2991  -70.3
 1.700  0.6599  146.3   1.910   49.0  0.1110   38.5  0.2983  -70.7
 1.720  0.6613  145.6   1.890   48.5  0.1118   38.6  0.2982  -71.2
 1.740  0.6628  145.0   1.870   48.0  0.1126   38.7  0.2981  -71.6
 1.760  0.6644  144.3   1.851   47.5  0.1134   38.7  0.2980  -72.1
 1.780  0.6660  143.7   1.831   47.0  0.1142   38.8  0.2979  -72.5
 1.800  0.6678  143.0   1.812   46.5  0.1150   38.9  0.2979  -73.0
 1.820  0.6683  142.3   1.794   45.9  0.1159   39.0  0.2978  -73.6
 1.840  0.6688  141.7   1.776   45.2  0.1168   39.1  0.2977  -74.2
 1.860  0.6695  141.0   1.758   44.6  0.1177   39.3  0.2976  -74.9
 1.880  0.6702  140.4   1.740   43.9  0.1186   39.4  0.2976  -75.5
 1.900  0.6710  139.7   1.723   43.2  0.1195   39.5  0.2976  -76.1
 1.920  0.6717  139.0   1.705   42.7  0.1204   39.6  0.2971  -76.6
 1.940  0.6725  138.4   1.687   42.1  0.1213   39.6  0.2966  -77.0
 1.960  0.6734  137.7   1.669   41.6  0.1222   39.7  0.2962  -77.5
 1.980  0.6743  137.1   1.651   41.0  0.1231   39.7  0.2957  -77.9
 2.000  0.6754  136.4   1.634   40.4  0.1240   39.8  0.2953  -78.4
 2.020  0.6760  135.8   1.619   39.9  0.1249   39.9  0.2950  -79.0
 2.040  0.6767  135.1   1.604   39.4  0.1259   40.0  0.2948  -79.5
 2.060  0.6775  134.5   1.589   38.8  0.1268   40.1  0.2946  -80.1
 2.080  0.6784  133.9   1.575   38.3  0.1277   40.2  0.2944  -80.7
 2.100  0.6793  133.3   1.560   37.7  0.1286   40.3  0.2942  -81.2
 2.120  0.6803  132.7   1.546   37.2  0.1296   40.4  0.2941  -81.8
 2.140  0.6814  132.0   1.532   36.6  0.1305   40.4  0.2940  -82.4
 2.160  0.6826  131.4   1.518   36.0  0.1314   40.5  0.2939  -83.0
 2.180  0.6839  130.8   1.504   35.4  0.1324   40.6  0.2939  -83.5
 2.200  0.6852  130.2   1.490   34.8  0.1333   40.7  0.2939  -84.1
 2.220  0.6864  129.5   1.478   34.3  0.1343   40.7  0.2937  -84.7
 2.240  0.6877  128.9   1.467   33.8  0.1353   40.7  0.2935  -85.3
 2.260  0.6891  128.2   1.455   33.2  0.1363   40.7  0.2934  -86.0
 2.280  0.6906  127.6   1.444   32.7  0.1373   40.7  0.2933  -86.6
 2.300  0.6921  127.0   1.432   32.2  0.1382   40.8  0.2933  -87.2
 2.320  0.6938  126.3   1.421   31.6  0.1392   40.8  0.2932  -87.8
 2.340  0.6955  125.7   1.410   31.0  0.1402   40.8  0.2933  -88.4
 2.360  0.6973  125.1   1.399   30.5  0.1412   40.8  0.2933  -89.1
 2.380  0.6992  124.4   1.389   29.9  0.1422   40.8  0.2934  -89.7
 2.400  0.7012  123.8   1.378   29.3  0.1432   40.8  0.2935  -90.3
 2.420  0.7018  123.2   1.366   28.9  0.1443   40.8  0.2931  -90.9
 2.440  0.7024  122.7   1.355   28.4  0.1454   40.8  0.2928  -91.6
 2.460  0.7031  122.1   1.343   27.9  0.1465   40.8  0.2925  -92.2
 2.480  0.7039  121.5   1.332   27.5  0.1476   40.8  0.2922  -92.9
 2.500  0.7047  121.0   1.321   27.0  0.1487   40.8  0.2920  -93.5
 2.520  0.7056  120.4   1.310   26.5  0.1498   40.8  0.2918  -94.2
 2.540  0.7066  119.9   1.299   26.0  0.1509   40.8  0.2917  -94.8
 2.560  0.7076  119.3   1.288   25.5  0.1520   40.8  0.2916  -95.5
 2.580  0.7087  118.8   1.277   25.0  0.1531   40.8  0.2915  -96.1
 2.600  0.7099  118.2   1.266   24.5  0.1542   40.8  0.2915  -96.8
 2.620  0.7109  117.7   1.257   24.1  0.1553   40.7  0.2916  -97.5
 2.640  0.7120  117.1   1.248   23.6  0.1563   40.7  0.2917  -98.1
 2.660  0.7131  116.6   1.239   23.2  0.1574   40.6  0.2919  -98.8
 2.680  0.7143  116.0   1.231   22.7  0.1584   40.6  0.2922  -99.5
 2.700  0.7156  115.5   1.222   22.3  0.1595   40.5  0.2924 -100.1
 2.720  0.7169  114.9   1.213   21.8  0.1606   40.5  0.2927 -100.8
 2.740  0.7183  114.4   1.205   21.3  0.1616   40.4  0.2931 -101.4
 2.760  0.7198  113.9   1.197   20.9  0.1627   40.4  0.2934 -102.1
 2.780  0.7213  113.3   1.188   20.4  0.1637   40.3  0.2938 -102.7
 2.800  0.7229  112.8   1.180   19.9  0.1648   40.3  0.2943 -103.4
 2.820  0.7238  112.3   1.171   19.5  0.1660   40.2  0.2944 -104.1
 2.840  0.7247  111.8   1.162   19.0  0.1672   40.2  0.2946 -104.9
 2.860  0.7257  111.3   1.154   18.5  0.1684   40.1  0.2948 -105.6
 2.880  0.7267  110.9   1.145   18.1  0.1696   40.0  0.2950 -106.3
 2.900  0.7278  110.4   1.137   17.6  0.1708   39.9  0.2953 -107.1
 2.920  0.7289  109.9   1.128   17.1  0.1721   39.9  0.2957 -107.8
 2.940  0.7301  109.4   1.120   16.6  0.1733   39.8  0.2961 -108.5
 2.960  0.7314  108.9   1.111   16.1  0.1745   39.7  0.2966 -109.3
 2.980  0.7327  108.5   1.103   15.6  0.1757   39.7  0.2971 -110.0
 3.000  0.7340  108.0   1.095   15.1  0.1769   39.6  0.2976 -110.7
 3.100  0.7382  105.8   1.059   13.4  0.1829   39.0  0.2988 -114.4
 3.200  0.7435  103.6   1.024   11.6  0.1889   38.5  0.3011 -118.0
 3.300  0.7498  101.5   0.989    9.7  0.1949   37.9  0.3047 -121.6
 3.400  0.7571   99.4   0.957    7.6  0.2009   37.5  0.3094 -125.0
 3.500  0.7655   97.3   0.925    5.4  0.2069   37.0  0.3152 -128.4
 3.600  0.7684   95.4   0.899    3.9  0.2133   36.1  0.3197 -132.2
 3.700  0.7722   93.5   0.873    2.2  0.2198   35.2  0.3256 -135.9
 3.800  0.7767   91.7   0.849    0.5  0.2263   34.4  0.3329 -139.5
 3.900  0.7821   89.8   0.825   -1.4  0.2329   33.6  0.3413 -142.9
 4.000  0.7883   88.0   0.802   -3.3  0.2395   32.9  0.3509 -146.1
 4.100  0.7910   86.3   0.782   -4.6  0.2456   31.7  0.3569 -149.5
 4.200  0.7944   84.7   0.762   -6.0  0.2518   30.6  0.3641 -152.8
 4.300  0.7984   83.0   0.742   -7.5  0.2581   29.6  0.3725 -156.0
 4.400  0.8031   81.4   0.723   -9.0  0.2645   28.6  0.3819 -159.0
 4.500  0.8084   79.8   0.705  -10.6  0.2709   27.6  0.3924 -161.9
 4.600  0.8102   78.5   0.690  -11.7  0.2764   26.4  0.3991 -164.9
 4.700  0.8124   77.1   0.675  -12.8  0.2821   25.3  0.4069 -167.9
 4.800  0.8150   75.8   0.660  -13.9  0.2878   24.2  0.4157 -170.7
 4.900  0.8181   74.5   0.645  -15.1  0.2937   23.1  0.4255 -173.3
 5.000  0.8216   73.2   0.631  -16.4  0.2996   22.1  0.4361 -175.9
 5.100  0.8238   71.9   0.618  -17.1  0.3049   20.9  0.4423 -178.7
 5.200  0.8264   70.7   0.605  -17.9  0.3102   19.7  0.4494  178.7
 5.300  0.8294   69.4   0.592  -18.7  0.3157   18.6  0.4575  176.1
 5.400  0.8328   68.1   0.580  -19.5  0.3214   17.5  0.4665  173.6
 5.500  0.8366   66.9   0.567  -20.4  0.3271   16.5  0.4764  171.2
 5.600  0.8359   65.8   0.558  -21.2  0.3321   15.2  0.4831  168.9
 5.700  0.8356   64.7   0.549  -21.9  0.3373   13.9  0.4905  166.6
 5.800  0.8356   63.6   0.541  -22.7  0.3426   12.7  0.4988  164.4
 5.900  0.8358   62.5   0.532  -23.5  0.3481   11.5  0.5077  162.3
 6.000  0.8364   61.4   0.524  -24.4  0.3537   10.4  0.5173  160.2
!
!  f       NFmin   Gammaopt  rn/50
! GHz       dB    MAG  ANG    -
 0.450      1.20  0.26  102   0.14
 0.900      1.25  0.38  145   0.12
 1.800      2.05  0.56 -161   0.12
!
! (c) 2016  Infineon Technologies AG, Munich
