! Infineon Technologies  Discrete & RF Semiconductors
! BFP193
! VCE = 2.0 V,  IC =  15 mA
! Common Emitter S-Parameters:                            Jan 2016
# GHz  S  MA  R  50
!  f         S11            S21            S12            S22
! GHz     MAG   ANG      MAG   ANG      MAG   ANG      MAG   ANG
 0.010  0.6036  -10.4  35.388  175.1  0.0033   87.8  0.9649   -5.0
 0.015  0.6004  -15.1  34.858  172.0  0.0051   86.3  0.9568   -7.3
 0.020  0.6014  -19.9  34.434  168.8  0.0069   85.6  0.9503   -9.6
 0.025  0.5915  -24.3  33.883  166.6  0.0084   81.0  0.9358  -11.7
 0.030  0.5851  -28.8  33.386  164.2  0.0100   77.7  0.9225  -13.9
 0.035  0.5825  -33.5  32.945  161.9  0.0115   75.4  0.9107  -16.1
 0.040  0.5837  -38.1  32.562  159.4  0.0131   73.6  0.9002  -18.4
 0.045  0.5887  -42.6  32.239  156.9  0.0147   72.2  0.8912  -20.7
 0.050  0.5973  -47.1  31.979  154.4  0.0163   71.1  0.8837  -23.1
 0.055  0.5852  -50.6  31.277  152.9  0.0173   68.9  0.8651  -24.5
 0.060  0.5753  -54.2  30.599  151.2  0.0182   67.0  0.8471  -26.0
 0.065  0.5677  -57.9  29.946  149.6  0.0192   65.2  0.8297  -27.5
 0.070  0.5625  -61.6  29.320  147.8  0.0203   63.6  0.8129  -29.1
 0.075  0.5599  -65.5  28.723  146.0  0.0213   62.2  0.7967  -30.8
 0.080  0.5598  -69.3  28.156  144.1  0.0223   60.9  0.7813  -32.5
 0.085  0.5622  -73.2  27.621  142.1  0.0234   59.8  0.7666  -34.3
 0.090  0.5671  -77.0  27.121  140.0  0.0245   58.7  0.7526  -36.2
 0.095  0.5745  -80.7  26.658  137.9  0.0255   57.7  0.7395  -38.1
 0.100  0.5842  -84.3  26.232  135.7  0.0266   56.8  0.7273  -40.1
 0.105  0.5786  -86.7  25.657  134.6  0.0272   56.1  0.7125  -41.0
 0.110  0.5740  -89.2  25.091  133.5  0.0278   55.5  0.6979  -41.9
 0.115  0.5706  -91.7  24.535  132.3  0.0285   54.9  0.6835  -42.8
 0.120  0.5682  -94.2  23.990  131.1  0.0291   54.3  0.6693  -43.8
 0.125  0.5670  -96.8  23.457  129.8  0.0297   53.7  0.6553  -44.8
 0.130  0.5668  -99.3  22.936  128.4  0.0303   53.2  0.6415  -45.9
 0.135  0.5678 -101.9  22.429  127.0  0.0310   52.6  0.6279  -47.0
 0.140  0.5700 -104.4  21.936  125.6  0.0316   52.1  0.6146  -48.1
 0.145  0.5732 -106.9  21.458  124.0  0.0323   51.7  0.6015  -49.3
 0.150  0.5775 -109.4  20.996  122.4  0.0329   51.2  0.5887  -50.6
 0.155  0.5753 -111.0  20.608  121.7  0.0333   50.8  0.5784  -51.2
 0.160  0.5737 -112.7  20.223  120.9  0.0337   50.4  0.5682  -51.8
 0.165  0.5725 -114.4  19.842  120.2  0.0341   50.0  0.5580  -52.4
 0.170  0.5718 -116.0  19.464  119.4  0.0345   49.6  0.5479  -53.0
 0.175  0.5716 -117.7  19.091  118.5  0.0349   49.2  0.5379  -53.6
 0.180  0.5718 -119.4  18.721  117.6  0.0353   48.9  0.5279  -54.3
 0.185  0.5726 -121.0  18.357  116.7  0.0358   48.5  0.5180  -55.0
 0.190  0.5738 -122.7  17.997  115.8  0.0362   48.2  0.5082  -55.8
 0.195  0.5755 -124.4  17.642  114.8  0.0366   47.8  0.4985  -56.5
 0.200  0.5777 -126.0  17.292  113.8  0.0370   47.5  0.4889  -57.3
 0.220  0.5733 -130.8  16.103  111.4  0.0383   46.9  0.4583  -58.9
 0.240  0.5731 -135.7  14.946  108.7  0.0396   46.3  0.4282  -60.7
 0.260  0.5739 -139.8  13.963  106.4  0.0409   46.0  0.4031  -62.3
 0.280  0.5743 -143.3  13.137  104.6  0.0422   46.1  0.3827  -63.6
 0.300  0.5769 -146.8  12.326  102.5  0.0436   46.1  0.3626  -65.0
 0.320  0.5745 -149.4  11.758  101.4  0.0445   46.2  0.3478  -65.6
 0.340  0.5733 -152.0  11.194  100.1  0.0454   46.4  0.3330  -66.4
 0.360  0.5733 -154.5  10.637   98.7  0.0464   46.5  0.3183  -67.1
 0.380  0.5744 -157.1  10.087   97.2  0.0473   46.6  0.3036  -68.0
 0.400  0.5767 -159.7   9.544   95.5  0.0482   46.7  0.2890  -68.9
 0.420  0.5768 -161.4   9.169   94.6  0.0492   47.1  0.2803  -69.3
 0.440  0.5775 -163.2   8.796   93.5  0.0502   47.5  0.2716  -69.8
 0.450  0.5780 -164.0   8.611   93.0  0.0507   47.7  0.2673  -70.0
 0.460  0.5786 -164.9   8.426   92.4  0.0512   47.9  0.2630  -70.3
 0.480  0.5803 -166.6   8.060   91.2  0.0522   48.2  0.2543  -70.8
 0.500  0.5825 -168.3   7.698   89.9  0.0532   48.6  0.2457  -71.4
 0.520  0.5816 -169.8   7.453   89.0  0.0545   48.9  0.2402  -71.8
 0.540  0.5811 -171.2   7.209   88.1  0.0558   49.2  0.2347  -72.1
 0.560  0.5809 -172.7   6.968   87.2  0.0572   49.5  0.2292  -72.5
 0.580  0.5812 -174.1   6.728   86.1  0.0585   49.8  0.2237  -73.0
 0.600  0.5818 -175.6   6.491   85.0  0.0598   50.1  0.2182  -73.4
 0.620  0.5814 -176.9   6.312   84.2  0.0608   50.4  0.2143  -73.8
 0.640  0.5812 -178.1   6.133   83.4  0.0618   50.6  0.2105  -74.1
 0.660  0.5813 -179.4   5.956   82.6  0.0629   50.9  0.2067  -74.5
 0.680  0.5817  179.4   5.781   81.7  0.0639   51.2  0.2028  -74.9
 0.700  0.5824  178.1   5.607   80.7  0.0649   51.4  0.1990  -75.3
 0.720  0.5828  177.1   5.468   80.0  0.0662   51.5  0.1961  -75.7
 0.740  0.5834  176.1   5.330   79.3  0.0675   51.6  0.1933  -76.1
 0.760  0.5842  175.2   5.192   78.6  0.0689   51.7  0.1904  -76.5
 0.780  0.5851  174.2   5.056   77.8  0.0702   51.8  0.1875  -76.9
 0.800  0.5862  173.2   4.920   77.0  0.0715   51.9  0.1847  -77.3
 0.820  0.5857  172.3   4.811   76.4  0.0727   52.1  0.1827  -77.6
 0.840  0.5854  171.3   4.702   75.7  0.0740   52.3  0.1806  -77.9
 0.860  0.5853  170.4   4.593   75.1  0.0752   52.5  0.1786  -78.2
 0.880  0.5853  169.4   4.486   74.3  0.0765   52.7  0.1765  -78.5
 0.900  0.5855  168.5   4.379   73.6  0.0777   52.9  0.1745  -78.8
 0.920  0.5861  167.6   4.294   73.0  0.0789   52.9  0.1732  -79.2
 0.940  0.5868  166.7   4.210   72.4  0.0801   53.0  0.1719  -79.6
 0.960  0.5877  165.8   4.126   71.7  0.0814   53.0  0.1706  -80.0
 0.980  0.5887  164.9   4.043   71.0  0.0826   53.1  0.1694  -80.4
 1.000  0.5899  164.0   3.960   70.3  0.0838   53.1  0.1681  -80.8
 1.020  0.5913  163.2   3.891   69.7  0.0851   53.2  0.1671  -81.2
 1.040  0.5929  162.3   3.823   69.1  0.0864   53.3  0.1661  -81.7
 1.060  0.5945  161.5   3.756   68.4  0.0876   53.3  0.1651  -82.2
 1.080  0.5963  160.7   3.689   67.8  0.0889   53.4  0.1641  -82.6
 1.100  0.5982  159.9   3.622   67.1  0.0902   53.5  0.1631  -83.1
 1.120  0.5981  159.1   3.563   66.5  0.0915   53.5  0.1621  -83.6
 1.140  0.5981  158.4   3.504   66.0  0.0928   53.5  0.1612  -84.0
 1.160  0.5982  157.6   3.445   65.4  0.0942   53.5  0.1602  -84.5
 1.180  0.5984  156.9   3.387   64.7  0.0955   53.5  0.1593  -85.0
 1.200  0.5987  156.1   3.329   64.1  0.0968   53.5  0.1584  -85.5
 1.220  0.5990  155.3   3.277   63.5  0.0981   53.4  0.1579  -86.0
 1.240  0.5994  154.5   3.226   63.0  0.0995   53.3  0.1573  -86.5
 1.260  0.6000  153.7   3.175   62.4  0.1008   53.2  0.1568  -86.9
 1.280  0.6006  152.9   3.124   61.7  0.1022   53.1  0.1563  -87.4
 1.300  0.6014  152.1   3.074   61.1  0.1035   53.0  0.1558  -87.9
 1.320  0.6026  151.5   3.030   60.6  0.1047   53.0  0.1556  -88.4
 1.340  0.6038  150.9   2.986   60.1  0.1059   53.0  0.1554  -88.9
 1.360  0.6051  150.4   2.942   59.6  0.1072   52.9  0.1552  -89.5
 1.380  0.6065  149.8   2.898   59.1  0.1084   52.9  0.1550  -90.0
 1.400  0.6079  149.2   2.855   58.5  0.1096   52.9  0.1548  -90.5
 1.420  0.6078  148.6   2.822   57.9  0.1109   52.8  0.1545  -91.1
 1.440  0.6078  147.9   2.789   57.4  0.1122   52.7  0.1542  -91.7
 1.460  0.6078  147.3   2.756   56.8  0.1136   52.6  0.1539  -92.2
 1.480  0.6079  146.6   2.724   56.2  0.1149   52.5  0.1536  -92.8
 1.500  0.6081  146.0   2.692   55.6  0.1162   52.4  0.1533  -93.4
 1.520  0.6099  145.3   2.655   55.1  0.1176   52.3  0.1529  -94.0
 1.540  0.6119  144.6   2.619   54.5  0.1190   52.2  0.1526  -94.7
 1.560  0.6139  143.9   2.583   53.9  0.1204   52.1  0.1522  -95.3
 1.580  0.6160  143.3   2.547   53.3  0.1218   52.0  0.1519  -96.0
 1.600  0.6182  142.6   2.512   52.7  0.1232   51.9  0.1516  -96.6
 1.620  0.6184  141.9   2.483   52.2  0.1245   51.8  0.1513  -97.1
 1.640  0.6187  141.2   2.453   51.7  0.1257   51.7  0.1510  -97.7
 1.660  0.6192  140.4   2.424   51.1  0.1270   51.6  0.1507  -98.2
 1.680  0.6197  139.7   2.396   50.6  0.1282   51.5  0.1505  -98.8
 1.700  0.6203  139.0   2.367   50.0  0.1295   51.4  0.1502  -99.3
 1.720  0.6215  138.5   2.343   49.5  0.1308   51.2  0.1505  -99.8
 1.740  0.6228  137.9   2.319   49.0  0.1321   51.0  0.1507 -100.3
 1.760  0.6242  137.4   2.296   48.5  0.1335   50.8  0.1510 -100.9
 1.780  0.6255  136.8   2.272   48.0  0.1348   50.6  0.1513 -101.4
 1.800  0.6270  136.3   2.249   47.5  0.1361   50.4  0.1516 -101.9
 1.820  0.6283  135.8   2.226   47.0  0.1373   50.3  0.1517 -102.7
 1.840  0.6297  135.3   2.204   46.5  0.1386   50.1  0.1519 -103.5
 1.860  0.6312  134.7   2.181   45.9  0.1398   50.0  0.1521 -104.2
 1.880  0.6327  134.2   2.159   45.4  0.1411   49.8  0.1523 -105.0
 1.900  0.6342  133.7   2.137   44.8  0.1423   49.7  0.1525 -105.8
 1.920  0.6346  133.1   2.114   44.3  0.1436   49.5  0.1524 -106.5
 1.940  0.6351  132.5   2.092   43.8  0.1449   49.3  0.1522 -107.1
 1.960  0.6357  132.0   2.069   43.3  0.1461   49.2  0.1521 -107.8
 1.980  0.6363  131.4   2.047   42.8  0.1474   49.0  0.1521 -108.4
 2.000  0.6370  130.8   2.025   42.3  0.1487   48.8  0.1520 -109.1
 2.020  0.6376  130.2   2.007   41.8  0.1500   48.6  0.1522 -109.8
 2.040  0.6383  129.7   1.988   41.4  0.1513   48.4  0.1524 -110.5
 2.060  0.6391  129.1   1.970   40.9  0.1526   48.2  0.1526 -111.1
 2.080  0.6399  128.6   1.952   40.4  0.1538   48.0  0.1528 -111.8
 2.100  0.6408  128.0   1.934   39.9  0.1551   47.9  0.1530 -112.5
 2.120  0.6417  127.5   1.916   39.4  0.1564   47.7  0.1533 -113.1
 2.140  0.6427  126.9   1.899   38.9  0.1577   47.5  0.1536 -113.8
 2.160  0.6437  126.4   1.881   38.4  0.1590   47.3  0.1539 -114.5
 2.180  0.6448  125.8   1.864   37.8  0.1603   47.2  0.1542 -115.1
 2.200  0.6460  125.3   1.847   37.3  0.1616   47.0  0.1546 -115.8
 2.220  0.6471  124.7   1.832   36.8  0.1628   46.8  0.1548 -116.6
 2.240  0.6482  124.2   1.817   36.3  0.1641   46.6  0.1550 -117.4
 2.260  0.6494  123.6   1.803   35.9  0.1653   46.4  0.1552 -118.2
 2.280  0.6506  123.1   1.788   35.4  0.1665   46.2  0.1555 -119.0
 2.300  0.6519  122.5   1.774   34.9  0.1678   46.0  0.1558 -119.8
 2.320  0.6533  122.0   1.760   34.3  0.1690   45.8  0.1561 -120.6
 2.340  0.6548  121.4   1.745   33.8  0.1703   45.6  0.1565 -121.4
 2.360  0.6562  120.9   1.731   33.3  0.1715   45.5  0.1568 -122.1
 2.380  0.6578  120.3   1.718   32.7  0.1728   45.3  0.1573 -122.9
 2.400  0.6594  119.8   1.704   32.2  0.1740   45.1  0.1577 -123.7
 2.420  0.6606  119.3   1.690   31.8  0.1752   44.9  0.1581 -124.4
 2.440  0.6618  118.7   1.676   31.3  0.1763   44.7  0.1584 -125.2
 2.460  0.6631  118.2   1.663   30.9  0.1775   44.4  0.1588 -125.9
 2.480  0.6644  117.7   1.649   30.4  0.1787   44.2  0.1593 -126.6
 2.500  0.6658  117.2   1.636   30.0  0.1798   44.0  0.1597 -127.4
 2.520  0.6672  116.7   1.622   29.5  0.1810   43.8  0.1602 -128.1
 2.540  0.6687  116.1   1.609   29.1  0.1822   43.6  0.1607 -128.8
 2.560  0.6702  115.6   1.596   28.6  0.1833   43.4  0.1613 -129.5
 2.580  0.6718  115.1   1.583   28.1  0.1845   43.2  0.1618 -130.2
 2.600  0.6735  114.6   1.570   27.6  0.1857   43.0  0.1624 -130.9
 2.620  0.6748  114.1   1.559   27.2  0.1868   42.8  0.1629 -131.7
 2.640  0.6761  113.6   1.548   26.8  0.1880   42.6  0.1635 -132.5
 2.660  0.6775  113.1   1.537   26.3  0.1891   42.3  0.1641 -133.3
 2.680  0.6790  112.6   1.526   25.9  0.1903   42.1  0.1648 -134.1
 2.700  0.6805  112.1   1.515   25.5  0.1914   41.9  0.1655 -134.9
 2.720  0.6820  111.6   1.505   25.0  0.1926   41.7  0.1662 -135.7
 2.740  0.6836  111.1   1.494   24.6  0.1937   41.5  0.1669 -136.5
 2.760  0.6853  110.7   1.484   24.1  0.1949   41.3  0.1677 -137.3
 2.780  0.6870  110.2   1.473   23.7  0.1960   41.1  0.1685 -138.0
 2.800  0.6887  109.7   1.463   23.2  0.1972   40.9  0.1693 -138.8
 2.820  0.6893  109.3   1.453   22.8  0.1983   40.7  0.1701 -139.6
 2.840  0.6899  108.9   1.442   22.4  0.1995   40.4  0.1709 -140.3
 2.860  0.6906  108.5   1.432   21.9  0.2006   40.2  0.1717 -141.0
 2.880  0.6913  108.0   1.422   21.5  0.2018   40.0  0.1726 -141.8
 2.900  0.6920  107.6   1.411   21.0  0.2030   39.8  0.1735 -142.5
 2.920  0.6928  107.2   1.401   20.6  0.2041   39.5  0.1744 -143.2
 2.940  0.6936  106.8   1.391   20.1  0.2053   39.3  0.1754 -143.9
 2.960  0.6944  106.4   1.381   19.7  0.2065   39.1  0.1764 -144.6
 2.980  0.6953  106.0   1.372   19.2  0.2076   38.9  0.1774 -145.3
 3.000  0.6962  105.6   1.362   18.7  0.2088   38.7  0.1784 -146.0
 3.100  0.7012  103.6   1.318   17.0  0.2140   37.6  0.1829 -149.7
 3.200  0.7070  101.6   1.276   15.1  0.2193   36.5  0.1881 -153.2
 3.300  0.7137   99.6   1.234   13.2  0.2246   35.5  0.1940 -156.5
 3.400  0.7212   97.7   1.195   11.0  0.2300   34.5  0.2005 -159.6
 3.500  0.7295   95.8   1.157    8.8  0.2355   33.6  0.2075 -162.5
 3.600  0.7331   94.0   1.126    7.2  0.2406   32.4  0.2148 -165.7
 3.700  0.7374   92.2   1.095    5.5  0.2458   31.3  0.2227 -168.6
 3.800  0.7424   90.4   1.066    3.8  0.2511   30.2  0.2311 -171.4
 3.900  0.7481   88.7   1.037    1.9  0.2565   29.1  0.2400 -173.9
 4.000  0.7545   87.0   1.010   -0.1  0.2620   28.1  0.2494 -176.3
 4.100  0.7585   85.5   0.986   -1.5  0.2665   26.9  0.2569 -178.8
 4.200  0.7631   83.9   0.962   -3.1  0.2712   25.7  0.2649  178.8
 4.300  0.7682   82.4   0.939   -4.7  0.2759   24.6  0.2733  176.6
 4.400  0.7739   81.0   0.917   -6.3  0.2807   23.5  0.2821  174.5
 4.500  0.7800   79.5   0.896   -8.1  0.2857   22.4  0.2913  172.5
 4.600  0.7825   78.2   0.877   -9.3  0.2897   21.3  0.2990  170.4
 4.700  0.7853   76.9   0.859  -10.6  0.2939   20.2  0.3070  168.4
 4.800  0.7886   75.6   0.841  -12.0  0.2981   19.2  0.3154  166.5
 4.900  0.7923   74.4   0.824  -13.3  0.3025   18.2  0.3242  164.7
 5.000  0.7963   73.1   0.807  -14.8  0.3069   17.2  0.3332  163.0
 5.100  0.7991   71.9   0.791  -15.9  0.3110   16.1  0.3405  161.1
 5.200  0.8022   70.7   0.774  -17.0  0.3152   15.0  0.3481  159.2
 5.300  0.8057   69.5   0.759  -18.2  0.3195   14.0  0.3561  157.4
 5.400  0.8095   68.3   0.743  -19.4  0.3239   13.0  0.3644  155.7
 5.500  0.8137   67.1   0.728  -20.7  0.3284   12.0  0.3730  154.1
 5.600  0.8145   66.1   0.716  -21.7  0.3322   10.8  0.3801  152.4
 5.700  0.8155   65.1   0.704  -22.8  0.3361    9.7  0.3874  150.8
 5.800  0.8168   64.0   0.693  -23.8  0.3402    8.6  0.3951  149.2
 5.900  0.8184   63.0   0.682  -24.9  0.3444    7.5  0.4031  147.7
 6.000  0.8202   62.0   0.671  -26.1  0.3487    6.4  0.4113  146.3
!
!  f       NFmin   Gammaopt  rn/50
! GHz       dB    MAG  ANG    -
!
! noise parameter not available yet for this operation point!
!
! (c) 2016  Infineon Technologies AG, Munich
