! Infineon Technologies  Discrete & RF Semiconductors
! BFP183W
! VCE = 2.0 V,  IC =  12 mA
! Common Emitter S-Parameters:                            Jan 2016
# GHz  S  MA  R  50
!  f         S11            S21            S12            S22
! GHz     MAG   ANG      MAG   ANG      MAG   ANG      MAG   ANG
 0.010  0.6348   -6.2  29.326  176.0  0.0023   89.0  0.9780   -2.6
 0.015  0.6319   -9.4  29.286  174.8  0.0034   84.5  0.9739   -4.0
 0.020  0.6311  -12.7  29.259  173.5  0.0046   82.2  0.9705   -5.5
 0.025  0.6328  -15.8  29.245  171.9  0.0057   83.1  0.9686   -6.8
 0.030  0.6364  -18.9  29.254  170.3  0.0068   83.7  0.9672   -8.2
 0.035  0.6319  -21.9  29.047  168.7  0.0079   81.2  0.9610   -9.5
 0.040  0.6292  -24.9  28.861  167.1  0.0090   79.3  0.9553  -10.9
 0.045  0.6282  -27.9  28.699  165.5  0.0101   77.9  0.9502  -12.2
 0.050  0.6289  -30.9  28.559  163.9  0.0112   76.7  0.9456  -13.6
 0.055  0.6227  -33.5  28.237  162.6  0.0121   74.8  0.9358  -14.7
 0.060  0.6179  -36.2  27.929  161.3  0.0129   73.2  0.9264  -15.7
 0.065  0.6144  -38.9  27.637  159.9  0.0138   71.7  0.9173  -16.9
 0.070  0.6123  -41.7  27.359  158.6  0.0147   70.5  0.9086  -18.0
 0.075  0.6117  -44.4  27.098  157.2  0.0156   69.4  0.9002  -19.1
 0.080  0.6124  -47.2  26.854  155.7  0.0165   68.4  0.8922  -20.3
 0.085  0.6145  -49.9  26.627  154.3  0.0174   67.5  0.8846  -21.5
 0.090  0.6181  -52.6  26.416  152.8  0.0183   66.7  0.8774  -22.7
 0.095  0.6230  -55.3  26.224  151.3  0.0192   66.0  0.8705  -23.9
 0.100  0.6292  -57.9  26.050  149.8  0.0201   65.3  0.8641  -25.2
 0.105  0.6243  -60.1  25.703  148.7  0.0208   64.2  0.8536  -26.0
 0.110  0.6204  -62.3  25.366  147.6  0.0214   63.2  0.8433  -26.9
 0.115  0.6174  -64.5  25.038  146.5  0.0221   62.2  0.8332  -27.8
 0.120  0.6153  -66.8  24.720  145.3  0.0228   61.3  0.8233  -28.7
 0.125  0.6142  -69.0  24.413  144.1  0.0234   60.5  0.8136  -29.6
 0.130  0.6140  -71.3  24.117  142.9  0.0241   59.7  0.8041  -30.5
 0.135  0.6148  -73.6  23.832  141.6  0.0248   58.9  0.7949  -31.5
 0.140  0.6166  -75.8  23.559  140.4  0.0255   58.2  0.7858  -32.5
 0.145  0.6193  -78.1  23.298  139.0  0.0262   57.5  0.7770  -33.5
 0.150  0.6230  -80.3  23.049  137.7  0.0269   56.9  0.7685  -34.5
 0.155  0.6200  -82.0  22.730  136.9  0.0273   56.2  0.7590  -35.1
 0.160  0.6175  -83.8  22.416  136.1  0.0277   55.6  0.7496  -35.7
 0.165  0.6156  -85.5  22.107  135.2  0.0281   54.9  0.7403  -36.3
 0.170  0.6143  -87.3  21.802  134.4  0.0285   54.3  0.7311  -36.9
 0.175  0.6136  -89.1  21.503  133.5  0.0290   53.7  0.7219  -37.5
 0.180  0.6135  -90.8  21.209  132.5  0.0294   53.1  0.7129  -38.2
 0.185  0.6139  -92.6  20.921  131.6  0.0298   52.5  0.7039  -38.9
 0.190  0.6150  -94.4  20.638  130.6  0.0302   52.0  0.6951  -39.6
 0.195  0.6166  -96.1  20.362  129.6  0.0307   51.4  0.6863  -40.3
 0.200  0.6188  -97.9  20.092  128.6  0.0311   50.9  0.6777  -41.0
 0.220  0.6153 -103.1  19.080  126.0  0.0325   49.1  0.6469  -42.8
 0.240  0.6169 -108.3  18.111  123.1  0.0340   47.4  0.6168  -44.7
 0.260  0.6180 -113.0  17.205  120.5  0.0352   46.0  0.5891  -46.4
 0.280  0.6173 -117.3  16.345  118.2  0.0361   44.9  0.5634  -47.7
 0.300  0.6200 -121.5  15.513  115.7  0.0371   43.8  0.5380  -49.1
 0.320  0.6160 -124.5  14.872  114.3  0.0377   43.1  0.5198  -49.8
 0.340  0.6136 -127.6  14.242  112.7  0.0384   42.4  0.5016  -50.6
 0.360  0.6130 -130.6  13.624  111.0  0.0391   41.8  0.4836  -51.4
 0.380  0.6142 -133.7  13.019  109.1  0.0397   41.1  0.4656  -52.3
 0.400  0.6171 -136.7  12.429  107.0  0.0404   40.5  0.4478  -53.3
 0.420  0.6155 -138.9  11.990  105.9  0.0410   40.3  0.4358  -53.7
 0.440  0.6147 -141.1  11.555  104.7  0.0415   40.2  0.4238  -54.1
 0.450  0.6147 -142.2  11.340  104.1  0.0418   40.1  0.4178  -54.3
 0.460  0.6149 -143.3  11.126  103.4  0.0421   40.0  0.4118  -54.5
 0.480  0.6160 -145.5  10.703  102.0  0.0426   39.9  0.3998  -55.0
 0.500  0.6180 -147.7  10.287  100.5  0.0432   39.7  0.3879  -55.5
 0.520  0.6173 -149.3   9.970   99.6  0.0437   39.6  0.3798  -55.8
 0.540  0.6170 -150.9   9.656   98.7  0.0441   39.6  0.3717  -56.0
 0.560  0.6172 -152.4   9.344   97.7  0.0446   39.5  0.3636  -56.3
 0.580  0.6179 -154.0   9.035   96.6  0.0450   39.5  0.3555  -56.6
 0.600  0.6190 -155.6   8.730   95.5  0.0455   39.4  0.3474  -56.9
 0.620  0.6184 -156.9   8.504   94.8  0.0460   39.6  0.3418  -57.1
 0.640  0.6182 -158.2   8.279   94.0  0.0465   39.7  0.3362  -57.3
 0.660  0.6183 -159.5   8.057   93.2  0.0469   39.9  0.3306  -57.5
 0.680  0.6187 -160.8   7.835   92.3  0.0474   40.0  0.3250  -57.7
 0.700  0.6194 -162.1   7.616   91.4  0.0479   40.2  0.3194  -57.9
 0.720  0.6192 -163.1   7.429   90.7  0.0483   40.4  0.3152  -58.1
 0.740  0.6193 -164.1   7.242   90.0  0.0487   40.7  0.3110  -58.2
 0.760  0.6195 -165.1   7.057   89.3  0.0492   40.9  0.3069  -58.4
 0.780  0.6199 -166.1   6.873   88.5  0.0496   41.1  0.3027  -58.6
 0.800  0.6205 -167.1   6.690   87.7  0.0500   41.3  0.2985  -58.8
 0.820  0.6205 -168.0   6.547   87.1  0.0505   41.4  0.2954  -59.0
 0.840  0.6207 -168.9   6.406   86.5  0.0510   41.6  0.2922  -59.1
 0.860  0.6210 -169.9   6.264   85.8  0.0514   41.7  0.2891  -59.3
 0.880  0.6215 -170.8   6.124   85.1  0.0519   41.9  0.2859  -59.4
 0.900  0.6222 -171.7   5.985   84.4  0.0524   42.0  0.2828  -59.6
 0.920  0.6219 -172.5   5.866   83.9  0.0529   42.2  0.2808  -59.8
 0.940  0.6217 -173.2   5.748   83.3  0.0533   42.4  0.2788  -60.0
 0.960  0.6216 -174.0   5.630   82.7  0.0538   42.6  0.2767  -60.1
 0.980  0.6216 -174.7   5.513   82.1  0.0542   42.8  0.2747  -60.3
 1.000  0.6217 -175.5   5.397   81.5  0.0547   43.0  0.2727  -60.5
 1.020  0.6226 -176.2   5.306   81.0  0.0553   43.1  0.2711  -60.7
 1.040  0.6236 -176.8   5.216   80.4  0.0558   43.2  0.2695  -60.9
 1.060  0.6247 -177.5   5.127   79.9  0.0564   43.4  0.2680  -61.1
 1.080  0.6259 -178.1   5.038   79.3  0.0569   43.5  0.2664  -61.3
 1.100  0.6271 -178.8   4.949   78.7  0.0575   43.6  0.2648  -61.5
 1.120  0.6272 -179.5   4.866   78.2  0.0580   43.8  0.2634  -61.7
 1.140  0.6275  179.8   4.783   77.7  0.0585   44.0  0.2620  -61.9
 1.160  0.6278  179.2   4.701   77.1  0.0591   44.1  0.2606  -62.2
 1.180  0.6282  178.5   4.619   76.6  0.0596   44.3  0.2592  -62.4
 1.200  0.6287  177.8   4.538   76.0  0.0601   44.5  0.2578  -62.6
 1.220  0.6286  177.2   4.470   75.5  0.0607   44.7  0.2569  -62.8
 1.240  0.6285  176.6   4.402   75.0  0.0613   44.9  0.2560  -63.0
 1.260  0.6285  175.9   4.335   74.4  0.0618   45.1  0.2552  -63.2
 1.280  0.6286  175.3   4.268   73.9  0.0624   45.3  0.2543  -63.4
 1.300  0.6288  174.7   4.202   73.3  0.0630   45.5  0.2534  -63.6
 1.320  0.6291  174.2   4.144   72.8  0.0635   45.7  0.2529  -63.8
 1.340  0.6294  173.7   4.086   72.4  0.0640   45.8  0.2523  -64.1
 1.360  0.6298  173.2   4.028   71.9  0.0646   46.0  0.2518  -64.3
 1.380  0.6302  172.7   3.970   71.4  0.0651   46.1  0.2512  -64.6
 1.400  0.6307  172.2   3.913   70.9  0.0656   46.3  0.2507  -64.8
 1.420  0.6310  171.7   3.862   70.5  0.0662   46.4  0.2501  -65.1
 1.440  0.6314  171.2   3.811   70.1  0.0668   46.5  0.2496  -65.4
 1.460  0.6318  170.8   3.760   69.6  0.0673   46.5  0.2490  -65.6
 1.480  0.6323  170.3   3.709   69.2  0.0679   46.6  0.2484  -65.9
 1.500  0.6328  169.8   3.659   68.7  0.0685   46.7  0.2479  -66.2
 1.520  0.6332  169.2   3.616   68.2  0.0690   46.8  0.2475  -66.5
 1.540  0.6337  168.7   3.573   67.7  0.0696   46.9  0.2471  -66.8
 1.560  0.6343  168.1   3.530   67.2  0.0701   47.1  0.2467  -67.0
 1.580  0.6349  167.6   3.488   66.7  0.0707   47.2  0.2464  -67.3
 1.600  0.6356  167.0   3.446   66.2  0.0712   47.3  0.2460  -67.6
 1.620  0.6356  166.6   3.406   65.8  0.0718   47.4  0.2457  -67.9
 1.640  0.6357  166.2   3.366   65.4  0.0724   47.5  0.2454  -68.2
 1.660  0.6357  165.7   3.327   65.0  0.0729   47.6  0.2451  -68.5
 1.680  0.6359  165.3   3.287   64.5  0.0735   47.7  0.2449  -68.8
 1.700  0.6360  164.9   3.248   64.1  0.0741   47.8  0.2446  -69.1
 1.720  0.6362  164.4   3.212   63.7  0.0748   47.9  0.2446  -69.4
 1.740  0.6365  163.9   3.176   63.2  0.0755   48.0  0.2447  -69.7
 1.760  0.6368  163.4   3.141   62.8  0.0762   48.0  0.2447  -69.9
 1.780  0.6372  162.9   3.105   62.3  0.0769   48.1  0.2447  -70.2
 1.800  0.6376  162.4   3.070   61.8  0.0776   48.2  0.2448  -70.5
 1.820  0.6379  161.9   3.037   61.4  0.0782   48.3  0.2449  -70.8
 1.840  0.6382  161.4   3.005   60.9  0.0787   48.4  0.2450  -71.1
 1.860  0.6385  161.0   2.972   60.5  0.0793   48.4  0.2451  -71.5
 1.880  0.6390  160.5   2.940   60.1  0.0798   48.5  0.2453  -71.8
 1.900  0.6394  160.0   2.908   59.6  0.0804   48.6  0.2454  -72.1
 1.920  0.6402  159.6   2.881   59.2  0.0810   48.6  0.2453  -72.5
 1.940  0.6409  159.2   2.854   58.8  0.0816   48.6  0.2451  -72.8
 1.960  0.6418  158.8   2.827   58.4  0.0823   48.6  0.2450  -73.2
 1.980  0.6426  158.4   2.801   58.0  0.0829   48.6  0.2449  -73.5
 2.000  0.6435  158.0   2.774   57.6  0.0835   48.6  0.2448  -73.9
 2.020  0.6437  157.6   2.749   57.2  0.0841   48.6  0.2450  -74.2
 2.040  0.6438  157.2   2.724   56.8  0.0848   48.6  0.2451  -74.6
 2.060  0.6441  156.8   2.699   56.4  0.0854   48.7  0.2453  -74.9
 2.080  0.6443  156.4   2.675   56.0  0.0860   48.7  0.2455  -75.2
 2.100  0.6446  156.0   2.650   55.6  0.0866   48.7  0.2456  -75.6
 2.120  0.6449  155.7   2.626   55.2  0.0873   48.7  0.2458  -75.9
 2.140  0.6452  155.3   2.602   54.7  0.0879   48.7  0.2460  -76.2
 2.160  0.6456  154.9   2.578   54.3  0.0885   48.8  0.2463  -76.5
 2.180  0.6460  154.5   2.554   53.9  0.0892   48.8  0.2465  -76.9
 2.200  0.6464  154.1   2.530   53.4  0.0898   48.8  0.2467  -77.2
 2.220  0.6468  153.7   2.509   53.0  0.0904   48.8  0.2467  -77.6
 2.240  0.6473  153.3   2.487   52.6  0.0911   48.8  0.2467  -78.0
 2.260  0.6478  152.9   2.466   52.2  0.0917   48.8  0.2468  -78.4
 2.280  0.6483  152.5   2.445   51.8  0.0924   48.8  0.2468  -78.8
 2.300  0.6489  152.1   2.424   51.4  0.0930   48.7  0.2469  -79.2
 2.320  0.6495  151.7   2.404   51.0  0.0936   48.7  0.2470  -79.6
 2.340  0.6501  151.3   2.383   50.6  0.0943   48.7  0.2471  -80.0
 2.360  0.6508  150.9   2.363   50.2  0.0949   48.7  0.2472  -80.4
 2.380  0.6515  150.5   2.342   49.7  0.0956   48.7  0.2473  -80.8
 2.400  0.6522  150.1   2.322   49.3  0.0962   48.7  0.2474  -81.2
 2.420  0.6525  149.7   2.304   48.9  0.0968   48.7  0.2477  -81.6
 2.440  0.6529  149.3   2.287   48.5  0.0975   48.7  0.2481  -81.9
 2.460  0.6532  148.9   2.269   48.2  0.0981   48.7  0.2484  -82.3
 2.480  0.6536  148.5   2.252   47.8  0.0988   48.7  0.2488  -82.7
 2.500  0.6541  148.1   2.235   47.4  0.0994   48.6  0.2491  -83.1
 2.520  0.6545  147.8   2.217   47.0  0.1000   48.6  0.2495  -83.4
 2.540  0.6550  147.4   2.200   46.6  0.1007   48.6  0.2499  -83.8
 2.560  0.6556  147.0   2.184   46.2  0.1013   48.6  0.2503  -84.2
 2.580  0.6561  146.6   2.167   45.7  0.1020   48.6  0.2507  -84.5
 2.600  0.6567  146.2   2.150   45.3  0.1026   48.6  0.2511  -84.9
 2.620  0.6574  145.8   2.135   45.0  0.1033   48.5  0.2512  -85.3
 2.640  0.6582  145.5   2.119   44.6  0.1039   48.5  0.2514  -85.7
 2.660  0.6590  145.1   2.104   44.2  0.1046   48.4  0.2515  -86.2
 2.680  0.6598  144.8   2.089   43.9  0.1053   48.4  0.2517  -86.6
 2.700  0.6607  144.4   2.073   43.5  0.1059   48.3  0.2519  -87.0
 2.720  0.6616  144.1   2.058   43.1  0.1066   48.3  0.2521  -87.4
 2.740  0.6625  143.7   2.043   42.8  0.1073   48.2  0.2523  -87.8
 2.760  0.6634  143.4   2.028   42.4  0.1080   48.2  0.2525  -88.3
 2.780  0.6643  143.0   2.014   42.0  0.1086   48.1  0.2527  -88.7
 2.800  0.6653  142.7   1.999   41.6  0.1093   48.1  0.2530  -89.1
 2.820  0.6660  142.3   1.985   41.2  0.1100   48.0  0.2534  -89.5
 2.840  0.6668  142.0   1.972   40.9  0.1107   48.0  0.2537  -90.0
 2.860  0.6676  141.6   1.959   40.5  0.1113   47.9  0.2541  -90.4
 2.880  0.6684  141.3   1.945   40.1  0.1120   47.9  0.2545  -90.8
 2.900  0.6692  140.9   1.932   39.8  0.1127   47.8  0.2550  -91.3
 2.920  0.6700  140.6   1.919   39.4  0.1134   47.7  0.2554  -91.7
 2.940  0.6709  140.2   1.906   39.0  0.1141   47.7  0.2559  -92.1
 2.960  0.6718  139.9   1.893   38.6  0.1147   47.6  0.2563  -92.6
 2.980  0.6727  139.5   1.880   38.2  0.1154   47.6  0.2568  -93.0
 3.000  0.6737  139.2   1.867   37.8  0.1161   47.5  0.2573  -93.4
 3.100  0.6766  137.4   1.811   36.0  0.1193   47.2  0.2590  -95.7
 3.200  0.6802  135.7   1.757   34.1  0.1226   46.9  0.2610  -97.9
 3.300  0.6843  134.0   1.704   32.3  0.1258   46.4  0.2638 -100.2
 3.400  0.6891  132.3   1.653   30.4  0.1290   46.0  0.2670 -102.5
 3.500  0.6945  130.8   1.606   28.7  0.1322   45.6  0.2691 -104.8
 3.600  0.7004  129.3   1.560   26.8  0.1354   45.3  0.2716 -107.1
 3.700  0.7024  127.7   1.516   25.1  0.1384   44.7  0.2747 -109.5
 3.800  0.7049  126.2   1.473   23.4  0.1414   44.2  0.2783 -111.9
 3.900  0.7096  124.9   1.437   21.7  0.1449   43.7  0.2826 -114.3
 4.000  0.7147  123.6   1.402   20.0  0.1485   43.3  0.2873 -116.7
 4.100  0.7172  122.3   1.367   18.5  0.1517   42.7  0.2914 -119.2
 4.200  0.7200  121.0   1.333   16.9  0.1550   42.2  0.2959 -121.5
 4.300  0.7232  119.7   1.300   15.3  0.1582   41.6  0.3010 -123.8
 4.400  0.7268  118.5   1.268   13.5  0.1615   41.1  0.3065 -126.1
 4.500  0.7307  117.2   1.237   11.7  0.1648   40.6  0.3125 -128.2
 4.600  0.7321  116.1   1.208   10.4  0.1679   40.0  0.3179 -130.4
 4.700  0.7338  115.0   1.179    9.0  0.1710   39.5  0.3237 -132.5
 4.800  0.7357  113.9   1.151    7.6  0.1741   38.9  0.3300 -134.5
 4.900  0.7379  112.9   1.123    6.1  0.1773   38.4  0.3366 -136.4
 5.000  0.7404  111.8   1.097    4.5  0.1804   37.9  0.3436 -138.3
 5.100  0.7416  111.0   1.074    3.3  0.1836   37.3  0.3494 -140.2
 5.200  0.7429  110.2   1.051    2.1  0.1867   36.6  0.3557 -142.0
 5.300  0.7444  109.4   1.029    0.8  0.1899   36.0  0.3622 -143.8
 5.400  0.7460  108.6   1.008   -0.6  0.1932   35.5  0.3691 -145.5
 5.500  0.7478  107.8   0.987   -2.0  0.1964   34.9  0.3763 -147.1
 5.600  0.7485  106.9   0.968   -3.1  0.1996   34.3  0.3822 -148.6
 5.700  0.7494  106.1   0.950   -4.3  0.2028   33.8  0.3884 -150.1
 5.800  0.7504  105.2   0.932   -5.6  0.2061   33.2  0.3949 -151.6
 5.900  0.7516  104.4   0.914   -6.9  0.2093   32.7  0.4016 -153.0
 6.000  0.7530  103.5   0.897   -8.2  0.2126   32.2  0.4085 -154.3
!
!  f       NFmin   Gammaopt  rn/50
! GHz       dB    MAG  ANG    -
!
! noise parameter not available yet for this operation point!
!
! (c) 2016  Infineon Technologies AG, Munich
