! Infineon Technologies  Discrete & RF Semiconductors
! BFP196W
! VCE = 8.0 V,  IC =  40mA
! Common Emitter S-Parameters:                            Jan 2016
# GHz  S  MA  R  50
!  f         S11            S21            S12            S22
! GHz     MAG   ANG      MAG   ANG      MAG   ANG      MAG   ANG
 0.010  0.4372  -28.8  66.682  167.5  0.0042   77.1  0.8952  -13.6
 0.015  0.4470  -42.8  65.547  163.3  0.0063   73.0  0.8716  -20.0
 0.020  0.4816  -55.5  64.781  158.9  0.0084   71.0  0.8595  -26.7
 0.025  0.4997  -65.9  62.400  154.7  0.0099   66.7  0.8292  -32.5
 0.030  0.5328  -75.3  60.388  150.1  0.0115   63.6  0.8080  -38.7
 0.035  0.5398  -83.2  57.595  147.0  0.0127   59.7  0.7704  -43.2
 0.040  0.5567  -90.8  54.989  143.5  0.0140   56.6  0.7379  -48.1
 0.045  0.5828  -97.9  52.600  139.8  0.0153   53.9  0.7112  -53.3
 0.050  0.6168 -104.2  50.458  135.7  0.0166   51.7  0.6911  -59.0
 0.055  0.6163 -107.8  48.495  134.4  0.0170   50.1  0.6646  -61.2
 0.060  0.6184 -111.5  46.559  133.0  0.0175   48.6  0.6391  -63.7
 0.065  0.6228 -115.1  44.652  131.5  0.0179   47.2  0.6149  -66.3
 0.070  0.6297 -118.6  42.780  129.9  0.0184   45.9  0.5921  -69.1
 0.075  0.6389 -122.0  40.946  128.1  0.0188   44.6  0.5709  -72.2
 0.080  0.6504 -125.3  39.156  126.1  0.0193   43.4  0.5514  -75.5
 0.085  0.6639 -128.5  37.416  124.0  0.0198   42.2  0.5339  -79.0
 0.090  0.6795 -131.6  35.733  121.6  0.0203   41.1  0.5185  -82.7
 0.095  0.6969 -134.5  34.117  119.0  0.0208   40.1  0.5054  -86.7
 0.100  0.7160 -137.3  32.577  116.2  0.0213   39.1  0.4948  -90.8
 0.105  0.7176 -138.8  31.611  115.5  0.0215   38.7  0.4834  -92.4
 0.110  0.7198 -140.3  30.650  114.7  0.0218   38.4  0.4724  -94.0
 0.115  0.7225 -141.9  29.695  113.9  0.0220   38.0  0.4619  -95.8
 0.120  0.7256 -143.4  28.747  113.0  0.0223   37.7  0.4518  -97.6
 0.125  0.7293 -144.8  27.806  112.0  0.0225   37.4  0.4421  -99.5
 0.130  0.7334 -146.3  26.873  111.0  0.0227   37.0  0.4330 -101.5
 0.135  0.7380 -147.8  25.949  109.9  0.0230   36.7  0.4244 -103.5
 0.140  0.7431 -149.2  25.035  108.8  0.0232   36.4  0.4163 -105.7
 0.145  0.7486 -150.6  24.132  107.5  0.0235   36.1  0.4089 -107.9
 0.150  0.7546 -152.0  23.241  106.2  0.0237   35.8  0.4021 -110.2
 0.155  0.7546 -152.8  22.689  105.8  0.0238   35.9  0.3967 -111.3
 0.160  0.7548 -153.6  22.138  105.3  0.0240   36.1  0.3914 -112.5
 0.165  0.7551 -154.5  21.589  104.9  0.0241   36.2  0.3863 -113.7
 0.170  0.7556 -155.3  21.041  104.4  0.0242   36.3  0.3814 -115.0
 0.175  0.7562 -156.1  20.495  103.9  0.0243   36.5  0.3766 -116.3
 0.180  0.7570 -156.9  19.951  103.3  0.0245   36.6  0.3721 -117.6
 0.185  0.7579 -157.8  19.408  102.7  0.0246   36.7  0.3677 -118.9
 0.190  0.7590 -158.6  18.868  102.1  0.0247   36.9  0.3636 -120.3
 0.195  0.7603 -159.4  18.330  101.5  0.0249   37.0  0.3596 -121.7
 0.200  0.7617 -160.2  17.794  100.8  0.0250   37.1  0.3559 -123.1
 0.220  0.7649 -162.3  16.464   99.4  0.0258   37.6  0.3461 -126.4
 0.240  0.7691 -164.4  15.145   97.7  0.0266   38.1  0.3375 -130.0
 0.260  0.7720 -166.2  14.003   96.3  0.0273   38.8  0.3297 -133.1
 0.280  0.7731 -167.8  13.032   95.2  0.0278   39.8  0.3222 -135.8
 0.300  0.7749 -169.4  12.065   94.0  0.0283   40.8  0.3154 -138.7
 0.320  0.7746 -170.5  11.474   93.3  0.0289   41.4  0.3122 -140.4
 0.340  0.7746 -171.6  10.886   92.4  0.0295   42.0  0.3092 -142.1
 0.360  0.7749 -172.7  10.300   91.5  0.0302   42.6  0.3065 -143.9
 0.380  0.7754 -173.8   9.716   90.5  0.0308   43.2  0.3042 -145.7
 0.400  0.7763 -174.9   9.137   89.3  0.0314   43.7  0.3021 -147.5
 0.420  0.7767 -175.7   8.780   88.7  0.0322   44.5  0.3006 -148.7
 0.440  0.7773 -176.5   8.423   88.0  0.0330   45.3  0.2992 -149.9
 0.450  0.7776 -176.9   8.246   87.6  0.0334   45.7  0.2986 -150.5
 0.460  0.7780 -177.2   8.068   87.3  0.0338   46.1  0.2980 -151.1
 0.480  0.7788 -178.0   7.715   86.5  0.0346   46.8  0.2969 -152.3
 0.500  0.7798 -178.8   7.363   85.6  0.0354   47.5  0.2959 -153.5
 0.520  0.7800 -179.4   7.117   85.1  0.0362   48.1  0.2951 -154.3
 0.540  0.7802  180.0   6.872   84.5  0.0370   48.7  0.2943 -155.1
 0.560  0.7805  179.3   6.628   83.9  0.0379   49.2  0.2936 -155.9
 0.580  0.7810  178.7   6.384   83.3  0.0387   49.7  0.2929 -156.8
 0.600  0.7815  178.1   6.141   82.6  0.0395   50.2  0.2923 -157.6
 0.620  0.7821  177.5   5.973   82.1  0.0403   50.7  0.2917 -158.2
 0.640  0.7827  176.9   5.806   81.6  0.0412   51.1  0.2911 -158.8
 0.660  0.7835  176.4   5.640   81.1  0.0420   51.6  0.2906 -159.3
 0.680  0.7843  175.8   5.474   80.5  0.0429   52.0  0.2901 -159.9
 0.700  0.7852  175.2   5.308   79.9  0.0437   52.4  0.2896 -160.5
 0.720  0.7845  174.7   5.172   79.4  0.0445   52.8  0.2896 -160.9
 0.740  0.7838  174.2   5.036   78.9  0.0453   53.2  0.2896 -161.3
 0.760  0.7832  173.7   4.901   78.4  0.0461   53.6  0.2897 -161.8
 0.780  0.7827  173.2   4.766   77.9  0.0469   54.0  0.2897 -162.2
 0.800  0.7822  172.7   4.631   77.3  0.0477   54.4  0.2898 -162.6
 0.820  0.7823  172.3   4.530   76.8  0.0486   54.6  0.2900 -163.0
 0.840  0.7825  171.8   4.429   76.4  0.0495   54.8  0.2902 -163.4
 0.860  0.7827  171.4   4.328   75.9  0.0505   55.0  0.2904 -163.7
 0.880  0.7830  170.9   4.228   75.3  0.0514   55.2  0.2907 -164.1
 0.900  0.7833  170.5   4.128   74.8  0.0523   55.4  0.2909 -164.5
 0.920  0.7831  170.1   4.045   74.4  0.0532   55.6  0.2910 -164.8
 0.940  0.7829  169.7   3.963   74.0  0.0540   55.9  0.2912 -165.1
 0.960  0.7827  169.4   3.880   73.5  0.0549   56.1  0.2914 -165.4
 0.980  0.7826  169.0   3.798   73.1  0.0557   56.3  0.2915 -165.7
 1.000  0.7825  168.6   3.716   72.6  0.0566   56.5  0.2917 -166.0
 1.020  0.7835  168.2   3.653   72.2  0.0575   56.6  0.2918 -166.2
 1.040  0.7845  167.7   3.590   71.7  0.0585   56.7  0.2919 -166.5
 1.060  0.7855  167.3   3.528   71.2  0.0594   56.7  0.2920 -166.7
 1.080  0.7866  166.8   3.466   70.7  0.0604   56.8  0.2921 -167.0
 1.100  0.7878  166.4   3.404   70.2  0.0613   56.9  0.2922 -167.2
 1.120  0.7877  166.0   3.346   69.8  0.0622   57.0  0.2925 -167.4
 1.140  0.7877  165.6   3.289   69.3  0.0631   57.0  0.2928 -167.6
 1.160  0.7877  165.2   3.231   68.9  0.0639   57.1  0.2930 -167.7
 1.180  0.7877  164.8   3.174   68.4  0.0648   57.1  0.2933 -167.9
 1.200  0.7878  164.4   3.117   67.9  0.0657   57.2  0.2936 -168.1
 1.220  0.7878  164.0   3.071   67.4  0.0667   57.3  0.2940 -168.3
 1.240  0.7878  163.6   3.024   67.0  0.0676   57.4  0.2944 -168.5
 1.260  0.7879  163.2   2.978   66.5  0.0686   57.5  0.2948 -168.7
 1.280  0.7880  162.8   2.933   66.0  0.0695   57.6  0.2952 -168.9
 1.300  0.7881  162.4   2.887   65.5  0.0705   57.7  0.2956 -169.1
 1.320  0.7883  162.1   2.846   65.1  0.0714   57.7  0.2959 -169.3
 1.340  0.7885  161.8   2.806   64.7  0.0723   57.6  0.2962 -169.5
 1.360  0.7888  161.4   2.766   64.2  0.0731   57.6  0.2965 -169.6
 1.380  0.7891  161.1   2.726   63.8  0.0740   57.5  0.2968 -169.8
 1.400  0.7894  160.8   2.686   63.3  0.0749   57.5  0.2971 -170.0
 1.420  0.7895  160.4   2.652   62.9  0.0759   57.5  0.2975 -170.2
 1.440  0.7896  160.1   2.618   62.5  0.0768   57.5  0.2978 -170.3
 1.460  0.7898  159.7   2.584   62.1  0.0778   57.6  0.2982 -170.5
 1.480  0.7900  159.4   2.550   61.7  0.0787   57.6  0.2985 -170.6
 1.500  0.7902  159.0   2.516   61.3  0.0797   57.6  0.2989 -170.8
 1.520  0.7906  158.6   2.485   60.9  0.0806   57.6  0.2992 -170.9
 1.540  0.7910  158.2   2.454   60.4  0.0815   57.5  0.2995 -171.1
 1.560  0.7915  157.7   2.423   60.0  0.0823   57.5  0.2998 -171.2
 1.580  0.7920  157.3   2.392   59.5  0.0832   57.4  0.3001 -171.4
 1.600  0.7926  156.9   2.362   59.0  0.0841   57.4  0.3004 -171.5
 1.620  0.7923  156.6   2.335   58.6  0.0850   57.4  0.3011 -171.6
 1.640  0.7920  156.3   2.308   58.2  0.0860   57.3  0.3018 -171.7
 1.660  0.7918  155.9   2.281   57.8  0.0869   57.3  0.3024 -171.9
 1.680  0.7916  155.6   2.255   57.4  0.0879   57.2  0.3031 -172.0
 1.700  0.7914  155.3   2.228   57.0  0.0888   57.2  0.3038 -172.1
 1.720  0.7920  155.0   2.204   56.6  0.0898   57.1  0.3043 -172.3
 1.740  0.7927  154.7   2.180   56.1  0.0907   57.0  0.3049 -172.5
 1.760  0.7934  154.3   2.156   55.7  0.0917   57.0  0.3054 -172.6
 1.780  0.7941  154.0   2.133   55.3  0.0926   56.9  0.3060 -172.8
 1.800  0.7948  153.7   2.109   54.8  0.0936   56.8  0.3065 -173.0
 1.820  0.7945  153.3   2.087   54.4  0.0945   56.7  0.3068 -173.1
 1.840  0.7943  152.9   2.066   54.0  0.0954   56.6  0.3071 -173.3
 1.860  0.7941  152.6   2.044   53.6  0.0963   56.6  0.3074 -173.4
 1.880  0.7939  152.2   2.022   53.2  0.0972   56.5  0.3077 -173.6
 1.900  0.7938  151.8   2.001   52.8  0.0981   56.4  0.3080 -173.7
 1.920  0.7941  151.5   1.982   52.4  0.0990   56.3  0.3085 -173.8
 1.940  0.7945  151.1   1.964   52.0  0.0999   56.2  0.3091 -173.9
 1.960  0.7949  150.8   1.945   51.6  0.1008   56.2  0.3096 -173.9
 1.980  0.7953  150.4   1.926   51.2  0.1017   56.1  0.3102 -174.0
 2.000  0.7957  150.1   1.908   50.8  0.1026   56.0  0.3107 -174.1
 2.020  0.7959  149.8   1.891   50.4  0.1035   55.9  0.3114 -174.3
 2.040  0.7962  149.5   1.875   50.0  0.1044   55.7  0.3122 -174.4
 2.060  0.7964  149.1   1.858   49.6  0.1053   55.6  0.3129 -174.6
 2.080  0.7967  148.8   1.842   49.2  0.1062   55.5  0.3136 -174.7
 2.100  0.7970  148.5   1.825   48.8  0.1071   55.4  0.3144 -174.9
 2.120  0.7974  148.2   1.809   48.4  0.1080   55.3  0.3151 -175.1
 2.140  0.7977  147.9   1.793   48.0  0.1089   55.1  0.3159 -175.2
 2.160  0.7981  147.5   1.777   47.6  0.1098   55.0  0.3166 -175.4
 2.180  0.7986  147.2   1.761   47.1  0.1107   54.9  0.3173 -175.5
 2.200  0.7990  146.9   1.745   46.7  0.1116   54.8  0.3181 -175.7
 2.220  0.7992  146.5   1.730   46.3  0.1125   54.7  0.3187 -175.8
 2.240  0.7994  146.2   1.716   45.9  0.1134   54.5  0.3192 -176.0
 2.260  0.7997  145.8   1.701   45.5  0.1143   54.4  0.3198 -176.1
 2.280  0.8000  145.5   1.687   45.1  0.1152   54.3  0.3203 -176.2
 2.300  0.8003  145.1   1.672   44.7  0.1161   54.1  0.3209 -176.4
 2.320  0.8006  144.8   1.658   44.3  0.1170   54.0  0.3214 -176.5
 2.340  0.8010  144.4   1.644   43.9  0.1179   53.9  0.3220 -176.6
 2.360  0.8014  144.1   1.630   43.5  0.1188   53.7  0.3226 -176.7
 2.380  0.8018  143.7   1.616   43.0  0.1197   53.6  0.3231 -176.9
 2.400  0.8023  143.4   1.602   42.6  0.1206   53.5  0.3237 -177.0
 2.420  0.8023  143.1   1.590   42.2  0.1215   53.4  0.3247 -177.2
 2.440  0.8024  142.8   1.578   41.9  0.1224   53.2  0.3256 -177.4
 2.460  0.8024  142.5   1.567   41.5  0.1233   53.1  0.3266 -177.6
 2.480  0.8025  142.2   1.555   41.1  0.1242   53.0  0.3275 -177.7
 2.500  0.8026  141.8   1.544   40.7  0.1251   52.8  0.3285 -177.9
 2.520  0.8027  141.5   1.532   40.3  0.1261   52.7  0.3295 -178.1
 2.540  0.8029  141.2   1.521   39.9  0.1270   52.6  0.3305 -178.3
 2.560  0.8031  140.9   1.509   39.5  0.1279   52.4  0.3314 -178.4
 2.580  0.8033  140.6   1.498   39.1  0.1288   52.3  0.3324 -178.6
 2.600  0.8035  140.3   1.487   38.7  0.1297   52.2  0.3334 -178.8
 2.620  0.8040  140.0   1.477   38.4  0.1306   52.0  0.3342 -178.9
 2.640  0.8045  139.7   1.466   38.0  0.1314   51.9  0.3350 -179.0
 2.660  0.8051  139.3   1.456   37.6  0.1323   51.7  0.3359 -179.2
 2.680  0.8057  139.0   1.446   37.3  0.1331   51.6  0.3367 -179.3
 2.700  0.8063  138.7   1.436   36.9  0.1340   51.4  0.3375 -179.4
 2.720  0.8069  138.4   1.426   36.5  0.1348   51.3  0.3384 -179.5
 2.740  0.8076  138.1   1.416   36.2  0.1357   51.1  0.3392 -179.6
 2.760  0.8083  137.7   1.406   35.8  0.1366   51.0  0.3400 -179.8
 2.780  0.8090  137.4   1.396   35.4  0.1374   50.8  0.3409 -179.9
 2.800  0.8097  137.1   1.386   35.0  0.1383   50.7  0.3417  180.0
 2.820  0.8102  136.8   1.376   34.7  0.1392   50.5  0.3428  179.8
 2.840  0.8108  136.5   1.367   34.3  0.1401   50.4  0.3438  179.6
 2.860  0.8113  136.2   1.358   34.0  0.1410   50.2  0.3449  179.4
 2.880  0.8119  135.9   1.348   33.6  0.1419   50.0  0.3460  179.2
 2.900  0.8125  135.6   1.339   33.3  0.1428   49.9  0.3471  179.0
 2.920  0.8132  135.3   1.330   32.9  0.1437   49.7  0.3482  178.8
 2.940  0.8138  135.0   1.320   32.5  0.1446   49.6  0.3493  178.6
 2.960  0.8145  134.7   1.311   32.2  0.1455   49.4  0.3504  178.4
 2.980  0.8152  134.4   1.302   31.8  0.1464   49.3  0.3515  178.2
 3.000  0.8159  134.1   1.293   31.4  0.1473   49.1  0.3526  178.0
 3.100  0.8178  132.5   1.256   29.6  0.1512   48.1  0.3576  177.2
 3.200  0.8203  131.0   1.220   27.7  0.1552   47.2  0.3627  176.4
 3.300  0.8234  129.5   1.184   26.0  0.1593   46.4  0.3684  175.4
 3.400  0.8271  128.0   1.150   24.1  0.1635   45.7  0.3743  174.4
 3.500  0.8292  126.6   1.117   22.5  0.1669   44.9  0.3792  173.7
 3.600  0.8318  125.2   1.084   20.7  0.1704   44.2  0.3841  173.1
 3.700  0.8316  123.7   1.051   19.1  0.1733   43.2  0.3892  172.0
 3.800  0.8320  122.2   1.019   17.3  0.1762   42.3  0.3944  171.0
 3.900  0.8355  121.0   0.995   15.9  0.1809   41.6  0.4029  170.4
 4.000  0.8393  119.8   0.972   14.4  0.1857   41.0  0.4115  169.8
 4.100  0.8402  118.6   0.948   13.0  0.1891   40.1  0.4184  168.8
 4.200  0.8415  117.3   0.926   11.5  0.1925   39.3  0.4253  167.9
 4.300  0.8432  116.1   0.903    9.9  0.1960   38.5  0.4324  167.0
 4.400  0.8453  114.9   0.882    8.3  0.1995   37.7  0.4396  166.1
 4.500  0.8477  113.7   0.861    6.6  0.2030   37.0  0.4469  165.3
 4.600  0.8468  112.7   0.842    5.5  0.2060   36.2  0.4520  164.4
 4.700  0.8461  111.8   0.822    4.4  0.2090   35.4  0.4573  163.6
 4.800  0.8457  110.8   0.804    3.2  0.2121   34.7  0.4626  162.8
 4.900  0.8455  109.9   0.785    1.9  0.2152   33.9  0.4680  162.0
 5.000  0.8455  108.9   0.767    0.6  0.2184   33.2  0.4735  161.2
 5.100  0.8455  108.1   0.752   -0.4  0.2217   32.5  0.4796  160.6
 5.200  0.8457  107.3   0.736   -1.4  0.2251   31.7  0.4857  160.1
 5.300  0.8461  106.5   0.721   -2.4  0.2285   31.0  0.4919  159.5
 5.400  0.8466  105.7   0.706   -3.6  0.2319   30.4  0.4981  159.0
 5.500  0.8473  104.9   0.692   -4.7  0.2354   29.7  0.5044  158.5
 5.600  0.8464  104.1   0.680   -5.5  0.2385   29.0  0.5090  157.9
 5.700  0.8457  103.3   0.669   -6.4  0.2417   28.3  0.5136  157.4
 5.800  0.8451  102.4   0.658   -7.3  0.2449   27.7  0.5183  156.9
 5.900  0.8447  101.6   0.647   -8.2  0.2481   27.0  0.5230  156.3
 6.000  0.8445  100.8   0.636   -9.2  0.2514   26.4  0.5278  155.8
!
!  f       NFmin   Gammaopt  rn/50
! GHz       dB    MAG  ANG    -
!
! noise parameter not available yet for this operation point!
!
! (c) 2016  Infineon Technologies AG, Munich
