! Infineon Technologies  Discrete & RF Semiconductors
! BFP181
! VCE = 0.75V,  IC =  1.0 mA
! Common Emitter S-Parameters:                            Jan 2016
# GHz  S  MA  R  50
!  f         S11            S21            S12            S22
! GHz     MAG   ANG      MAG   ANG      MAG   ANG      MAG   ANG
 0.010  0.9599   -1.0   3.450  179.6  0.0016   88.7  0.9984   -0.4
 0.015  0.9613   -1.5   3.449  179.4  0.0026   89.6  0.9982   -0.6
 0.020  0.9628   -2.0   3.449  179.2  0.0037   90.0  0.9980   -0.8
 0.025  0.9624   -2.3   3.456  178.7  0.0046   89.8  0.9974   -1.0
 0.030  0.9620   -2.6   3.462  178.3  0.0055   89.7  0.9969   -1.2
 0.035  0.9616   -2.9   3.470  177.8  0.0064   89.6  0.9963   -1.4
 0.040  0.9613   -3.3   3.477  177.4  0.0074   89.6  0.9958   -1.6
 0.045  0.9610   -3.6   3.484  176.9  0.0083   89.5  0.9953   -1.8
 0.050  0.9607   -3.9   3.492  176.5  0.0092   89.5  0.9948   -2.0
 0.055  0.9602   -4.3   3.485  176.1  0.0101   88.3  0.9950   -2.2
 0.060  0.9598   -4.8   3.478  175.8  0.0110   87.3  0.9952   -2.4
 0.065  0.9594   -5.2   3.472  175.4  0.0118   86.4  0.9954   -2.6
 0.070  0.9591   -5.7   3.465  175.1  0.0127   85.7  0.9956   -2.8
 0.075  0.9589   -6.1   3.459  174.7  0.0136   85.1  0.9959   -3.1
 0.080  0.9587   -6.6   3.453  174.4  0.0145   84.5  0.9961   -3.3
 0.085  0.9585   -7.0   3.446  174.0  0.0154   84.0  0.9964   -3.5
 0.090  0.9585   -7.5   3.441  173.6  0.0163   83.6  0.9967   -3.7
 0.095  0.9585   -7.9   3.435  173.3  0.0172   83.2  0.9970   -3.9
 0.100  0.9585   -8.4   3.429  172.9  0.0181   82.8  0.9973   -4.1
 0.105  0.9574   -8.8   3.430  172.5  0.0191   82.5  0.9966   -4.3
 0.110  0.9563   -9.3   3.432  172.2  0.0200   82.3  0.9959   -4.5
 0.115  0.9552   -9.7   3.433  171.8  0.0210   82.1  0.9951   -4.7
 0.120  0.9543  -10.1   3.435  171.5  0.0219   81.9  0.9945   -4.9
 0.125  0.9533  -10.5   3.437  171.1  0.0229   81.7  0.9938   -5.1
 0.130  0.9525  -11.0   3.439  170.7  0.0239   81.5  0.9931   -5.4
 0.135  0.9516  -11.4   3.441  170.4  0.0248   81.4  0.9925   -5.6
 0.140  0.9509  -11.8   3.443  170.0  0.0258   81.3  0.9918   -5.8
 0.145  0.9502  -12.3   3.445  169.7  0.0267   81.1  0.9912   -6.0
 0.150  0.9495  -12.7   3.448  169.3  0.0277   81.0  0.9906   -6.2
 0.155  0.9489  -13.1   3.449  168.9  0.0286   80.7  0.9901   -6.4
 0.160  0.9484  -13.5   3.449  168.6  0.0295   80.5  0.9897   -6.6
 0.165  0.9479  -13.9   3.450  168.2  0.0304   80.3  0.9892   -6.9
 0.170  0.9475  -14.3   3.451  167.8  0.0313   80.1  0.9888   -7.1
 0.175  0.9471  -14.6   3.453  167.4  0.0322   79.9  0.9884   -7.3
 0.180  0.9467  -15.0   3.454  167.1  0.0331   79.7  0.9880   -7.5
 0.185  0.9464  -15.4   3.456  166.7  0.0340   79.5  0.9876   -7.7
 0.190  0.9461  -15.8   3.457  166.3  0.0349   79.3  0.9873   -8.0
 0.195  0.9459  -16.2   3.459  166.0  0.0358   79.2  0.9869   -8.2
 0.200  0.9457  -16.6   3.461  165.6  0.0367   79.0  0.9866   -8.4
 0.220  0.9417  -18.2   3.428  164.2  0.0401   77.9  0.9844   -9.2
 0.240  0.9384  -19.8   3.398  162.8  0.0434   77.0  0.9823  -10.0
 0.260  0.9356  -21.4   3.381  161.5  0.0469   75.9  0.9802  -10.8
 0.280  0.9334  -23.1   3.378  160.3  0.0504   74.5  0.9779  -11.5
 0.300  0.9320  -24.7   3.377  159.1  0.0540   73.4  0.9758  -12.3
 0.320  0.9256  -26.4   3.365  157.6  0.0572   72.1  0.9722  -13.1
 0.340  0.9200  -28.0   3.356  156.0  0.0605   71.0  0.9687  -13.9
 0.360  0.9152  -29.7   3.350  154.4  0.0638   70.0  0.9655  -14.7
 0.380  0.9112  -31.5   3.346  152.9  0.0671   69.1  0.9624  -15.5
 0.400  0.9080  -33.2   3.344  151.3  0.0704   68.3  0.9595  -16.3
 0.420  0.9002  -34.7   3.316  150.0  0.0734   67.0  0.9552  -17.0
 0.440  0.8930  -36.3   3.291  148.7  0.0764   65.9  0.9510  -17.8
 0.450  0.8896  -37.1   3.278  148.0  0.0780   65.3  0.9490  -18.1
 0.460  0.8865  -37.9   3.267  147.3  0.0795   64.8  0.9470  -18.5
 0.480  0.8806  -39.5   3.244  146.0  0.0826   63.8  0.9432  -19.2
 0.500  0.8755  -41.1   3.224  144.6  0.0857   62.9  0.9395  -20.0
 0.520  0.8694  -42.6   3.204  143.4  0.0884   61.8  0.9350  -20.7
 0.540  0.8639  -44.1   3.185  142.2  0.0911   60.8  0.9306  -21.4
 0.560  0.8590  -45.6   3.168  140.9  0.0939   59.9  0.9264  -22.1
 0.580  0.8548  -47.1   3.152  139.7  0.0967   59.0  0.9223  -22.8
 0.600  0.8511  -48.7   3.138  138.4  0.0995   58.2  0.9184  -23.5
 0.620  0.8443  -50.1   3.109  137.2  0.1018   57.2  0.9136  -24.1
 0.640  0.8381  -51.6   3.082  136.0  0.1042   56.3  0.9088  -24.8
 0.660  0.8324  -53.1   3.056  134.7  0.1066   55.4  0.9042  -25.4
 0.680  0.8273  -54.6   3.032  133.5  0.1090   54.5  0.8997  -26.0
 0.700  0.8228  -56.1   3.009  132.2  0.1114   53.7  0.8953  -26.7
 0.720  0.8143  -57.6   2.994  131.0  0.1136   52.7  0.8903  -27.3
 0.740  0.8064  -59.1   2.981  129.8  0.1158   51.8  0.8854  -27.9
 0.760  0.7990  -60.7   2.969  128.6  0.1180   50.9  0.8805  -28.5
 0.780  0.7923  -62.3   2.958  127.3  0.1202   50.0  0.8758  -29.1
 0.800  0.7862  -63.9   2.949  126.1  0.1225   49.2  0.8712  -29.7
 0.820  0.7783  -65.3   2.926  125.0  0.1243   48.3  0.8659  -30.3
 0.840  0.7710  -66.8   2.904  123.8  0.1262   47.4  0.8607  -30.8
 0.860  0.7641  -68.3   2.883  122.7  0.1281   46.5  0.8555  -31.4
 0.880  0.7578  -69.8   2.863  121.5  0.1300   45.7  0.8505  -32.0
 0.900  0.7520  -71.3   2.845  120.3  0.1320   44.9  0.8455  -32.6
 0.920  0.7459  -72.7   2.818  119.3  0.1335   44.1  0.8405  -33.1
 0.940  0.7402  -74.1   2.791  118.2  0.1350   43.3  0.8355  -33.7
 0.960  0.7350  -75.5   2.766  117.2  0.1366   42.6  0.8306  -34.2
 0.980  0.7303  -76.9   2.741  116.1  0.1382   41.8  0.8258  -34.7
 1.000  0.7260  -78.4   2.718  115.0  0.1398   41.1  0.8211  -35.3
 1.020  0.7177  -79.8   2.698  114.0  0.1413   40.3  0.8165  -35.8
 1.040  0.7099  -81.2   2.679  112.9  0.1427   39.6  0.8119  -36.3
 1.060  0.7025  -82.6   2.661  111.9  0.1442   38.9  0.8074  -36.8
 1.080  0.6956  -84.1   2.643  110.8  0.1458   38.2  0.8029  -37.3
 1.100  0.6891  -85.6   2.627  109.7  0.1473   37.5  0.7985  -37.8
 1.120  0.6824  -86.9   2.603  108.8  0.1485   36.7  0.7944  -38.3
 1.140  0.6761  -88.2   2.579  107.9  0.1498   35.9  0.7903  -38.8
 1.160  0.6702  -89.5   2.556  106.9  0.1511   35.2  0.7863  -39.3
 1.180  0.6646  -90.9   2.534  106.0  0.1524   34.4  0.7824  -39.9
 1.200  0.6594  -92.3   2.512  105.0  0.1538   33.7  0.7785  -40.4
 1.220  0.6540  -93.7   2.492  104.1  0.1548   33.1  0.7743  -40.8
 1.240  0.6490  -95.1   2.473  103.2  0.1559   32.6  0.7701  -41.2
 1.260  0.6444  -96.6   2.454  102.2  0.1569   32.0  0.7660  -41.6
 1.280  0.6403  -98.0   2.436  101.3  0.1580   31.4  0.7619  -42.0
 1.300  0.6365  -99.5   2.419  100.3  0.1591   30.9  0.7579  -42.4
 1.320  0.6296 -100.7   2.399   99.4  0.1599   30.3  0.7538  -42.8
 1.340  0.6230 -101.9   2.380   98.5  0.1607   29.7  0.7497  -43.2
 1.360  0.6167 -103.1   2.361   97.6  0.1615   29.1  0.7456  -43.6
 1.380  0.6107 -104.4   2.343   96.6  0.1623   28.5  0.7416  -44.1
 1.400  0.6050 -105.7   2.325   95.7  0.1632   27.9  0.7376  -44.5
 1.420  0.6006 -107.2   2.311   94.8  0.1638   27.4  0.7334  -44.8
 1.440  0.5966 -108.8   2.297   93.9  0.1644   26.8  0.7291  -45.1
 1.460  0.5931 -110.4   2.284   92.9  0.1650   26.3  0.7249  -45.4
 1.480  0.5900 -112.0   2.271   92.0  0.1657   25.8  0.7208  -45.8
 1.500  0.5874 -113.6   2.259   91.0  0.1663   25.3  0.7166  -46.1
 1.520  0.5819 -114.8   2.240   90.2  0.1670   24.8  0.7138  -46.4
 1.540  0.5767 -116.1   2.222   89.3  0.1677   24.4  0.7109  -46.8
 1.560  0.5718 -117.4   2.204   88.5  0.1684   23.9  0.7081  -47.1
 1.580  0.5672 -118.7   2.187   87.6  0.1692   23.5  0.7053  -47.5
 1.600  0.5629 -120.0   2.170   86.7  0.1699   23.0  0.7026  -47.8
 1.620  0.5582 -121.5   2.156   85.9  0.1701   22.5  0.6982  -48.2
 1.640  0.5539 -123.0   2.142   85.1  0.1703   22.0  0.6938  -48.5
 1.660  0.5501 -124.6   2.129   84.3  0.1705   21.5  0.6895  -48.9
 1.680  0.5466 -126.1   2.116   83.4  0.1707   21.0  0.6852  -49.3
 1.700  0.5435 -127.7   2.104   82.6  0.1709   20.5  0.6809  -49.7
 1.720  0.5394 -129.1   2.088   81.7  0.1713   20.2  0.6778  -50.0
 1.740  0.5356 -130.5   2.073   80.9  0.1717   19.8  0.6747  -50.2
 1.760  0.5321 -132.0   2.059   80.0  0.1721   19.5  0.6716  -50.5
 1.780  0.5290 -133.4   2.045   79.1  0.1726   19.1  0.6686  -50.7
 1.800  0.5262 -134.9   2.031   78.2  0.1730   18.8  0.6655  -51.0
 1.820  0.5237 -136.2   2.015   77.5  0.1733   18.3  0.6623  -51.4
 1.840  0.5214 -137.4   2.000   76.7  0.1736   17.8  0.6592  -51.7
 1.860  0.5194 -138.7   1.984   76.0  0.1739   17.2  0.6561  -52.1
 1.880  0.5176 -140.0   1.969   75.2  0.1742   16.7  0.6530  -52.5
 1.900  0.5161 -141.3   1.955   74.4  0.1745   16.2  0.6500  -52.9
 1.920  0.5114 -142.6   1.939   73.7  0.1748   15.9  0.6476  -53.1
 1.940  0.5070 -143.9   1.924   72.9  0.1751   15.6  0.6452  -53.4
 1.960  0.5029 -145.2   1.909   72.2  0.1754   15.2  0.6428  -53.6
 1.980  0.4990 -146.5   1.894   71.4  0.1758   14.9  0.6404  -53.9
 2.000  0.4954 -147.9   1.880   70.6  0.1761   14.6  0.6380  -54.1
 2.020  0.4926 -149.2   1.866   69.9  0.1762   14.2  0.6355  -54.4
 2.040  0.4901 -150.5   1.853   69.2  0.1763   13.8  0.6331  -54.8
 2.060  0.4879 -151.9   1.840   68.5  0.1764   13.4  0.6306  -55.1
 2.080  0.4860 -153.2   1.827   67.7  0.1766   13.0  0.6282  -55.4
 2.100  0.4843 -154.6   1.815   67.0  0.1767   12.6  0.6258  -55.8
 2.120  0.4829 -156.0   1.803   66.2  0.1768   12.3  0.6235  -56.1
 2.140  0.4817 -157.3   1.791   65.5  0.1770   11.9  0.6211  -56.5
 2.160  0.4809 -158.7   1.780   64.7  0.1772   11.5  0.6188  -56.8
 2.180  0.4803 -160.1   1.769   63.9  0.1773   11.1  0.6165  -57.1
 2.200  0.4800 -161.5   1.758   63.1  0.1775   10.7  0.6142  -57.5
 2.220  0.4782 -162.7   1.746   62.5  0.1775   10.4  0.6120  -57.8
 2.240  0.4767 -164.0   1.734   61.8  0.1776   10.0  0.6099  -58.1
 2.260  0.4754 -165.2   1.723   61.2  0.1776    9.7  0.6078  -58.4
 2.280  0.4743 -166.5   1.711   60.6  0.1776    9.4  0.6056  -58.7
 2.300  0.4734 -167.8   1.700   59.9  0.1777    9.0  0.6035  -59.0
 2.320  0.4728 -169.0   1.689   59.2  0.1777    8.7  0.6015  -59.3
 2.340  0.4724 -170.3   1.679   58.6  0.1778    8.4  0.5994  -59.6
 2.360  0.4722 -171.6   1.668   57.9  0.1779    8.1  0.5973  -59.9
 2.380  0.4723 -172.8   1.658   57.2  0.1779    7.7  0.5953  -60.2
 2.400  0.4726 -174.1   1.648   56.5  0.1780    7.4  0.5933  -60.5
 2.420  0.4719 -175.3   1.637   55.9  0.1778    7.2  0.5910  -60.8
 2.440  0.4713 -176.6   1.626   55.3  0.1776    6.9  0.5888  -61.0
 2.460  0.4710 -177.9   1.615   54.6  0.1775    6.7  0.5866  -61.3
 2.480  0.4710 -179.1   1.605   54.0  0.1773    6.4  0.5844  -61.6
 2.500  0.4711  179.6   1.594   53.4  0.1771    6.2  0.5822  -61.9
 2.520  0.4715  178.4   1.584   52.7  0.1769    6.0  0.5800  -62.2
 2.540  0.4721  177.1   1.574   52.0  0.1768    5.7  0.5778  -62.4
 2.560  0.4730  175.9   1.565   51.4  0.1766    5.5  0.5757  -62.7
 2.580  0.4740  174.6   1.555   50.7  0.1765    5.2  0.5735  -63.0
 2.600  0.4753  173.4   1.546   50.0  0.1763    5.0  0.5714  -63.3
 2.620  0.4750  172.3   1.536   49.4  0.1763    4.7  0.5702  -63.6
 2.640  0.4749  171.3   1.525   48.7  0.1762    4.5  0.5689  -63.9
 2.660  0.4750  170.2   1.515   48.1  0.1762    4.2  0.5677  -64.2
 2.680  0.4752  169.1   1.506   47.5  0.1762    4.0  0.5665  -64.5
 2.700  0.4756  168.1   1.496   46.8  0.1762    3.7  0.5653  -64.8
 2.720  0.4762  167.0   1.487   46.1  0.1761    3.4  0.5642  -65.1
 2.740  0.4769  166.0   1.477   45.5  0.1761    3.2  0.5630  -65.5
 2.760  0.4778  164.9   1.468   44.8  0.1761    2.9  0.5619  -65.8
 2.780  0.4788  163.8   1.460   44.1  0.1761    2.7  0.5608  -66.1
 2.800  0.4800  162.8   1.451   43.4  0.1761    2.4  0.5597  -66.4
 2.820  0.4804  161.7   1.443   42.8  0.1759    2.1  0.5581  -66.7
 2.840  0.4810  160.6   1.435   42.2  0.1756    1.8  0.5564  -67.0
 2.860  0.4817  159.6   1.427   41.6  0.1754    1.6  0.5548  -67.3
 2.880  0.4826  158.5   1.419   41.0  0.1752    1.3  0.5532  -67.6
 2.900  0.4837  157.4   1.411   40.3  0.1749    1.0  0.5516  -67.9
 2.920  0.4849  156.4   1.404   39.7  0.1747    0.7  0.5501  -68.2
 2.940  0.4863  155.3   1.397   39.1  0.1745    0.4  0.5485  -68.6
 2.960  0.4879  154.3   1.390   38.4  0.1743    0.2  0.5470  -68.9
 2.980  0.4896  153.2   1.383   37.8  0.1741   -0.1  0.5455  -69.2
 3.000  0.4915  152.2   1.376   37.1  0.1739   -0.4  0.5440  -69.5
 3.100  0.4932  147.6   1.333   34.7  0.1734   -1.2  0.5398  -71.1
 3.200  0.4981  143.0   1.292   32.1  0.1729   -1.9  0.5360  -72.7
 3.300  0.5061  138.6   1.255   29.3  0.1724   -2.7  0.5327  -74.4
 3.400  0.5170  134.3   1.220   26.4  0.1720   -3.5  0.5298  -76.0
 3.500  0.5307  130.2   1.189   23.3  0.1716   -4.3  0.5273  -77.7
 3.600  0.5370  126.9   1.154   21.1  0.1702   -4.9  0.5232  -79.6
 3.700  0.5450  123.7   1.121   18.7  0.1689   -5.6  0.5197  -81.6
 3.800  0.5546  120.6   1.091   16.2  0.1675   -6.2  0.5168  -83.6
 3.900  0.5659  117.6   1.062   13.5  0.1662   -6.9  0.5145  -85.6
 4.000  0.5786  114.7   1.036   10.7  0.1649   -7.6  0.5129  -87.6
 4.100  0.5842  112.1   1.007    8.7  0.1635   -8.0  0.5109  -89.8
 4.200  0.5910  109.5   0.980    6.7  0.1621   -8.5  0.5096  -92.0
 4.300  0.5990  106.9   0.954    4.5  0.1608   -9.0  0.5090  -94.2
 4.400  0.6081  104.5   0.929    2.1  0.1594   -9.4  0.5092  -96.4
 4.500  0.6183  102.1   0.906   -0.3  0.1581   -9.9  0.5102  -98.6
 4.600  0.6238  100.1   0.883   -2.0  0.1569   -9.8  0.5087 -100.8
 4.700  0.6301   98.1   0.861   -3.7  0.1556   -9.8  0.5080 -103.0
 4.800  0.6371   96.2   0.840   -5.6  0.1544   -9.7  0.5081 -105.3
 4.900  0.6449   94.3   0.820   -7.6  0.1531   -9.7  0.5089 -107.5
 5.000  0.6533   92.4   0.801   -9.6  0.1519   -9.6  0.5105 -109.7
 5.100  0.6582   90.8   0.782  -11.3  0.1522   -9.3  0.5113 -112.0
 5.200  0.6636   89.2   0.764  -13.0  0.1525   -9.0  0.5130 -114.2
 5.300  0.6695   87.6   0.747  -14.8  0.1528   -8.7  0.5154 -116.5
 5.400  0.6759   86.1   0.731  -16.7  0.1531   -8.4  0.5186 -118.7
 5.500  0.6828   84.6   0.715  -18.7  0.1534   -8.1  0.5226 -120.9
 5.600  0.6880   83.2   0.699  -20.1  0.1542   -8.0  0.5239 -123.2
 5.700  0.6936   81.8   0.683  -21.5  0.1551   -7.8  0.5261 -125.5
 5.800  0.6997   80.4   0.667  -23.1  0.1559   -7.7  0.5292 -127.8
 5.900  0.7061   79.0   0.652  -24.6  0.1568   -7.5  0.5330 -130.1
 6.000  0.7129   77.7   0.638  -26.3  0.1576   -7.4  0.5377 -132.3
!
!  f       NFmin   Gammaopt  rn/50
! GHz       dB    MAG  ANG    -
!
! noise parameter not available yet for this operation point!
!
! (c) 2016  Infineon Technologies AG, Munich
