! Infineon Technologies  Discrete & RF Semiconductors
! BFP183
! VCE = 8.0 V,  IC =  2.5 mA
! Common Emitter S-Parameters:                            Jan 2016
# GHz  S  MA  R  50
!  f         S11            S21            S12            S22
! GHz     MAG   ANG      MAG   ANG      MAG   ANG      MAG   ANG
 0.010  0.9153   -1.9   8.233  178.8  0.0020   85.7  0.9969   -0.7
 0.015  0.9143   -2.9   8.201  178.4  0.0031   84.1  0.9943   -1.1
 0.020  0.9136   -3.9   8.170  177.9  0.0042   83.4  0.9917   -1.5
 0.025  0.9119   -4.9   8.165  177.2  0.0052   83.9  0.9913   -1.9
 0.030  0.9104   -5.9   8.161  176.4  0.0063   84.2  0.9909   -2.2
 0.035  0.9092   -6.9   8.159  175.7  0.0073   84.5  0.9906   -2.6
 0.040  0.9083   -8.0   8.158  174.9  0.0084   84.7  0.9903   -3.0
 0.045  0.9077   -9.0   8.158  174.2  0.0094   84.8  0.9900   -3.3
 0.050  0.9074  -10.0   8.160  173.4  0.0105   84.9  0.9898   -3.7
 0.055  0.9052  -10.9   8.146  172.8  0.0115   83.6  0.9886   -4.1
 0.060  0.9033  -11.8   8.132  172.1  0.0125   82.5  0.9875   -4.5
 0.065  0.9016  -12.8   8.120  171.5  0.0135   81.6  0.9864   -4.9
 0.070  0.9001  -13.7   8.108  170.8  0.0145   80.8  0.9854   -5.3
 0.075  0.8989  -14.6   8.098  170.2  0.0155   80.1  0.9844   -5.6
 0.080  0.8979  -15.6   8.089  169.5  0.0165   79.5  0.9835   -6.0
 0.085  0.8971  -16.5   8.080  168.9  0.0175   78.9  0.9826   -6.4
 0.090  0.8966  -17.4   8.073  168.2  0.0185   78.4  0.9818   -6.8
 0.095  0.8963  -18.4   8.067  167.6  0.0195   78.0  0.9810   -7.2
 0.100  0.8963  -19.3   8.062  166.9  0.0205   77.6  0.9802   -7.6
 0.105  0.8943  -20.3   8.039  166.3  0.0215   77.1  0.9786   -8.0
 0.110  0.8925  -21.2   8.017  165.6  0.0224   76.6  0.9770   -8.3
 0.115  0.8910  -22.2   7.996  165.0  0.0234   76.1  0.9754   -8.7
 0.120  0.8898  -23.2   7.976  164.4  0.0244   75.7  0.9739   -9.0
 0.125  0.8888  -24.2   7.958  163.7  0.0253   75.3  0.9724   -9.4
 0.130  0.8881  -25.2   7.940  163.1  0.0263   74.9  0.9710   -9.7
 0.135  0.8876  -26.1   7.923  162.5  0.0273   74.6  0.9696  -10.1
 0.140  0.8874  -27.1   7.907  161.8  0.0283   74.3  0.9682  -10.5
 0.145  0.8875  -28.1   7.892  161.2  0.0292   74.0  0.9669  -10.8
 0.150  0.8878  -29.1   7.878  160.5  0.0302   73.7  0.9656  -11.2
 0.155  0.8851  -30.0   7.859  159.9  0.0311   73.1  0.9635  -11.5
 0.160  0.8826  -30.9   7.842  159.3  0.0319   72.5  0.9615  -11.9
 0.165  0.8803  -31.8   7.825  158.6  0.0328   71.9  0.9595  -12.2
 0.170  0.8783  -32.8   7.809  158.0  0.0336   71.4  0.9576  -12.5
 0.175  0.8765  -33.7   7.794  157.4  0.0345   70.9  0.9557  -12.9
 0.180  0.8749  -34.6   7.780  156.7  0.0354   70.4  0.9538  -13.2
 0.185  0.8735  -35.6   7.767  156.1  0.0363   69.9  0.9519  -13.6
 0.190  0.8724  -36.5   7.755  155.5  0.0371   69.5  0.9501  -13.9
 0.195  0.8715  -37.5   7.744  154.8  0.0380   69.1  0.9483  -14.3
 0.200  0.8709  -38.4   7.734  154.2  0.0389   68.7  0.9466  -14.6
 0.220  0.8600  -41.9   7.622  151.8  0.0421   66.6  0.9364  -15.9
 0.240  0.8524  -45.5   7.524  149.4  0.0454   64.7  0.9268  -17.2
 0.260  0.8452  -49.0   7.425  147.2  0.0485   63.0  0.9163  -18.4
 0.280  0.8380  -52.3   7.321  145.2  0.0514   61.2  0.9049  -19.5
 0.300  0.8337  -55.7   7.227  143.2  0.0544   59.7  0.8938  -20.6
 0.320  0.8189  -58.7   7.086  141.2  0.0567   57.8  0.8831  -21.5
 0.340  0.8066  -61.9   6.954  139.1  0.0590   56.1  0.8727  -22.5
 0.360  0.7967  -65.1   6.831  137.0  0.0614   54.5  0.8625  -23.4
 0.380  0.7895  -68.4   6.718  134.8  0.0638   53.1  0.8525  -24.4
 0.400  0.7849  -71.8   6.615  132.5  0.0663   51.7  0.8428  -25.4
 0.420  0.7731  -74.5   6.482  130.8  0.0680   50.2  0.8319  -26.1
 0.440  0.7631  -77.3   6.354  129.1  0.0697   48.9  0.8211  -26.9
 0.450  0.7588  -78.7   6.293  128.2  0.0706   48.2  0.8157  -27.3
 0.460  0.7549  -80.1   6.233  127.2  0.0715   47.5  0.8104  -27.7
 0.480  0.7487  -83.1   6.118  125.4  0.0733   46.3  0.7999  -28.5
 0.500  0.7444  -86.0   6.010  123.4  0.0752   45.1  0.7896  -29.3
 0.520  0.7339  -88.6   5.905  122.0  0.0764   43.9  0.7801  -29.9
 0.540  0.7249  -91.2   5.803  120.5  0.0777   42.8  0.7707  -30.5
 0.560  0.7175  -93.9   5.705  119.0  0.0790   41.8  0.7614  -31.1
 0.580  0.7117  -96.6   5.611  117.4  0.0803   40.7  0.7522  -31.7
 0.600  0.7076  -99.4   5.522  115.8  0.0817   39.7  0.7431  -32.3
 0.620  0.7009 -101.6   5.408  114.6  0.0826   38.8  0.7347  -32.8
 0.640  0.6952 -103.7   5.297  113.3  0.0835   37.8  0.7263  -33.2
 0.660  0.6906 -106.0   5.189  111.9  0.0845   36.9  0.7180  -33.7
 0.680  0.6870 -108.2   5.084  110.6  0.0854   36.1  0.7098  -34.2
 0.700  0.6845 -110.5   4.982  109.1  0.0864   35.2  0.7016  -34.7
 0.720  0.6771 -112.5   4.899  108.0  0.0870   34.5  0.6952  -35.1
 0.740  0.6704 -114.5   4.819  106.8  0.0877   33.7  0.6887  -35.4
 0.760  0.6647 -116.5   4.740  105.6  0.0883   33.0  0.6824  -35.8
 0.780  0.6597 -118.6   4.664  104.3  0.0890   32.3  0.6760  -36.2
 0.800  0.6557 -120.7   4.590  103.0  0.0897   31.6  0.6697  -36.6
 0.820  0.6510 -122.5   4.511  102.0  0.0903   31.0  0.6643  -36.9
 0.840  0.6471 -124.4   4.433  101.0  0.0909   30.3  0.6590  -37.2
 0.860  0.6437 -126.2   4.357   99.9  0.0915   29.7  0.6537  -37.5
 0.880  0.6411 -128.1   4.283   98.8  0.0922   29.1  0.6484  -37.9
 0.900  0.6392 -130.0   4.210   97.6  0.0928   28.5  0.6431  -38.2
 0.920  0.6355 -131.8   4.142   96.6  0.0930   27.9  0.6384  -38.5
 0.940  0.6325 -133.7   4.074   95.6  0.0933   27.4  0.6338  -38.8
 0.960  0.6302 -135.5   4.009   94.6  0.0936   26.8  0.6292  -39.1
 0.980  0.6285 -137.4   3.944   93.5  0.0938   26.3  0.6246  -39.4
 1.000  0.6275 -139.3   3.881   92.4  0.0941   25.7  0.6200  -39.7
 1.020  0.6245 -141.0   3.826   91.5  0.0944   25.3  0.6159  -40.0
 1.040  0.6221 -142.7   3.772   90.5  0.0946   24.8  0.6118  -40.2
 1.060  0.6203 -144.4   3.719   89.5  0.0949   24.4  0.6078  -40.5
 1.080  0.6190 -146.2   3.668   88.5  0.0952   23.9  0.6037  -40.8
 1.100  0.6183 -147.9   3.617   87.5  0.0955   23.5  0.5997  -41.1
 1.120  0.6153 -149.3   3.563   86.7  0.0956   23.1  0.5966  -41.4
 1.140  0.6127 -150.8   3.510   85.9  0.0957   22.7  0.5935  -41.6
 1.160  0.6104 -152.2   3.457   85.1  0.0958   22.2  0.5905  -41.9
 1.180  0.6086 -153.7   3.405   84.3  0.0959   21.8  0.5874  -42.1
 1.200  0.6072 -155.2   3.354   83.4  0.0960   21.4  0.5844  -42.4
 1.220  0.6066 -156.6   3.308   82.6  0.0961   21.1  0.5814  -42.7
 1.240  0.6064 -158.0   3.263   81.9  0.0962   20.9  0.5784  -42.9
 1.260  0.6065 -159.5   3.219   81.1  0.0963   20.6  0.5754  -43.2
 1.280  0.6070 -160.9   3.175   80.2  0.0964   20.4  0.5724  -43.4
 1.300  0.6079 -162.3   3.132   79.4  0.0965   20.1  0.5694  -43.7
 1.320  0.6053 -163.5   3.092   78.7  0.0966   19.8  0.5671  -43.9
 1.340  0.6030 -164.8   3.053   77.9  0.0967   19.6  0.5648  -44.2
 1.360  0.6009 -166.0   3.015   77.1  0.0967   19.3  0.5625  -44.4
 1.380  0.5992 -167.2   2.976   76.3  0.0968   19.1  0.5603  -44.7
 1.400  0.5977 -168.5   2.939   75.5  0.0969   18.8  0.5580  -44.9
 1.420  0.5980 -169.8   2.904   74.8  0.0969   18.6  0.5557  -45.1
 1.440  0.5986 -171.0   2.870   74.0  0.0968   18.5  0.5533  -45.4
 1.460  0.5995 -172.3   2.837   73.2  0.0968   18.3  0.5510  -45.6
 1.480  0.6007 -173.5   2.804   72.4  0.0967   18.2  0.5487  -45.9
 1.500  0.6022 -174.8   2.771   71.6  0.0967   18.0  0.5464  -46.1
 1.520  0.6021 -175.9   2.737   71.0  0.0967   17.8  0.5448  -46.3
 1.540  0.6022 -177.1   2.703   70.3  0.0968   17.7  0.5432  -46.6
 1.560  0.6026 -178.2   2.670   69.6  0.0968   17.5  0.5416  -46.8
 1.580  0.6032 -179.4   2.637   68.9  0.0969   17.4  0.5400  -47.1
 1.600  0.6040  179.5   2.605   68.2  0.0969   17.2  0.5384  -47.3
 1.620  0.6035  178.4   2.574   67.6  0.0968   17.1  0.5368  -47.6
 1.640  0.6033  177.3   2.544   66.9  0.0968   16.9  0.5353  -47.9
 1.660  0.6033  176.2   2.514   66.2  0.0967   16.8  0.5338  -48.3
 1.680  0.6035  175.1   2.484   65.5  0.0967   16.6  0.5323  -48.6
 1.700  0.6039  174.0   2.455   64.8  0.0966   16.5  0.5308  -48.9
 1.720  0.6041  173.0   2.431   64.1  0.0966   16.4  0.5292  -49.1
 1.740  0.6044  172.0   2.407   63.4  0.0966   16.4  0.5276  -49.4
 1.760  0.6050  170.9   2.384   62.7  0.0967   16.3  0.5260  -49.6
 1.780  0.6058  169.9   2.361   62.0  0.0967   16.3  0.5244  -49.9
 1.800  0.6067  168.9   2.338   61.3  0.0967   16.2  0.5228  -50.1
 1.820  0.6069  167.9   2.315   60.7  0.0967   16.1  0.5216  -50.4
 1.840  0.6072  166.9   2.292   60.1  0.0966   16.0  0.5205  -50.7
 1.860  0.6077  165.8   2.269   59.5  0.0966   15.8  0.5193  -50.9
 1.880  0.6085  164.8   2.247   58.9  0.0965   15.7  0.5182  -51.2
 1.900  0.6094  163.8   2.225   58.3  0.0965   15.6  0.5171  -51.5
 1.920  0.6097  162.9   2.202   57.7  0.0966   15.6  0.5159  -51.8
 1.940  0.6101  162.0   2.180   57.1  0.0966   15.5  0.5147  -52.0
 1.960  0.6106  161.1   2.158   56.4  0.0967   15.5  0.5135  -52.3
 1.980  0.6113  160.2   2.136   55.8  0.0967   15.4  0.5123  -52.5
 2.000  0.6122  159.3   2.114   55.1  0.0968   15.4  0.5111  -52.8
 2.020  0.6129  158.5   2.093   54.5  0.0967   15.4  0.5101  -53.1
 2.040  0.6137  157.6   2.073   54.0  0.0967   15.4  0.5091  -53.5
 2.060  0.6147  156.8   2.053   53.4  0.0966   15.4  0.5082  -53.8
 2.080  0.6158  155.9   2.032   52.8  0.0965   15.4  0.5073  -54.1
 2.100  0.6170  155.1   2.013   52.2  0.0964   15.4  0.5063  -54.4
 2.120  0.6184  154.3   1.993   51.6  0.0964   15.3  0.5054  -54.8
 2.140  0.6199  153.5   1.974   51.0  0.0963   15.3  0.5046  -55.1
 2.160  0.6215  152.6   1.955   50.3  0.0962   15.3  0.5037  -55.4
 2.180  0.6232  151.8   1.936   49.7  0.0962   15.3  0.5028  -55.8
 2.200  0.6251  151.0   1.917   49.0  0.0961   15.3  0.5020  -56.1
 2.220  0.6255  150.1   1.901   48.5  0.0961   15.3  0.5011  -56.4
 2.240  0.6261  149.3   1.886   48.0  0.0960   15.4  0.5002  -56.8
 2.260  0.6267  148.5   1.871   47.4  0.0960   15.4  0.4993  -57.1
 2.280  0.6276  147.6   1.856   46.9  0.0960   15.5  0.4985  -57.4
 2.300  0.6285  146.8   1.841   46.4  0.0959   15.5  0.4976  -57.8
 2.320  0.6296  145.9   1.826   45.8  0.0959   15.5  0.4968  -58.1
 2.340  0.6308  145.1   1.812   45.2  0.0959   15.6  0.4960  -58.5
 2.360  0.6322  144.3   1.797   44.7  0.0959   15.6  0.4952  -58.8
 2.380  0.6337  143.4   1.783   44.1  0.0958   15.7  0.4945  -59.2
 2.400  0.6353  142.6   1.769   43.5  0.0958   15.7  0.4937  -59.5
 2.420  0.6365  141.9   1.753   43.0  0.0958   15.8  0.4928  -59.8
 2.440  0.6377  141.2   1.738   42.5  0.0959   15.9  0.4919  -60.2
 2.460  0.6391  140.5   1.723   42.0  0.0959   16.0  0.4910  -60.5
 2.480  0.6406  139.8   1.708   41.5  0.0960   16.1  0.4901  -60.9
 2.500  0.6422  139.1   1.693   40.9  0.0960   16.2  0.4892  -61.2
 2.520  0.6438  138.4   1.678   40.4  0.0960   16.2  0.4884  -61.6
 2.540  0.6456  137.7   1.663   39.8  0.0961   16.3  0.4876  -61.9
 2.560  0.6474  137.0   1.649   39.3  0.0961   16.4  0.4868  -62.3
 2.580  0.6494  136.3   1.634   38.7  0.0962   16.5  0.4860  -62.6
 2.600  0.6514  135.6   1.620   38.1  0.0962   16.6  0.4852  -63.0
 2.620  0.6524  134.9   1.608   37.6  0.0963   16.7  0.4846  -63.4
 2.640  0.6535  134.2   1.596   37.0  0.0964   16.8  0.4840  -63.7
 2.660  0.6547  133.6   1.584   36.5  0.0965   16.8  0.4834  -64.1
 2.680  0.6560  132.9   1.573   36.0  0.0966   16.9  0.4828  -64.5
 2.700  0.6574  132.2   1.561   35.4  0.0967   17.0  0.4822  -64.8
 2.720  0.6589  131.5   1.550   34.8  0.0968   17.1  0.4817  -65.2
 2.740  0.6605  130.9   1.539   34.3  0.0969   17.2  0.4812  -65.6
 2.760  0.6621  130.2   1.528   33.7  0.0970   17.2  0.4807  -66.0
 2.780  0.6639  129.6   1.517   33.1  0.0971   17.3  0.4802  -66.3
 2.800  0.6657  128.9   1.506   32.5  0.0972   17.4  0.4798  -66.7
 2.820  0.6667  128.3   1.495   32.0  0.0973   17.5  0.4792  -67.1
 2.840  0.6677  127.6   1.484   31.6  0.0974   17.6  0.4785  -67.5
 2.860  0.6688  127.0   1.473   31.1  0.0975   17.7  0.4779  -67.9
 2.880  0.6700  126.4   1.462   30.6  0.0976   17.8  0.4774  -68.3
 2.900  0.6713  125.8   1.451   30.1  0.0976   18.0  0.4768  -68.7
 2.920  0.6726  125.2   1.440   29.6  0.0977   18.1  0.4763  -69.1
 2.940  0.6740  124.5   1.430   29.1  0.0978   18.2  0.4758  -69.5
 2.960  0.6756  123.9   1.419   28.6  0.0979   18.3  0.4753  -69.9
 2.980  0.6771  123.3   1.409   28.0  0.0980   18.4  0.4748  -70.3
 3.000  0.6788  122.7   1.399   27.5  0.0981   18.5  0.4744  -70.7
 3.100  0.6830  120.0   1.350   25.5  0.0992   19.1  0.4727  -72.8
 3.200  0.6887  117.3   1.303   23.3  0.1004   19.6  0.4717  -74.9
 3.300  0.6958  114.7   1.258   21.0  0.1015   20.2  0.4713  -77.1
 3.400  0.7044  112.1   1.215   18.6  0.1026   20.7  0.4715  -79.2
 3.500  0.7144  109.6   1.174   15.9  0.1038   21.2  0.4724  -81.3
 3.600  0.7189  107.4   1.138   14.1  0.1057   21.7  0.4705  -83.8
 3.700  0.7243  105.2   1.103   12.1  0.1076   22.2  0.4695  -86.4
 3.800  0.7309  103.1   1.069   10.0  0.1095   22.7  0.4694  -89.0
 3.900  0.7383  101.0   1.037    7.8  0.1114   23.2  0.4703  -91.5
 4.000  0.7468   99.0   1.007    5.4  0.1133   23.6  0.4721  -94.1
 4.100  0.7497   97.2   0.977    3.7  0.1155   23.8  0.4711  -96.8
 4.200  0.7533   95.4   0.948    1.9  0.1177   23.9  0.4711  -99.6
 4.300  0.7577   93.6   0.920   -0.0  0.1200   24.0  0.4722 -102.3
 4.400  0.7628   91.8   0.893   -2.0  0.1222   24.2  0.4744 -105.0
 4.500  0.7686   90.1   0.867   -4.2  0.1244   24.3  0.4776 -107.7
 4.600  0.7718   88.7   0.842   -5.5  0.1270   24.7  0.4774 -110.3
 4.700  0.7754   87.3   0.818   -6.9  0.1296   25.0  0.4783 -113.0
 4.800  0.7796   85.9   0.794   -8.4  0.1322   25.4  0.4802 -115.6
 4.900  0.7842   84.5   0.771  -10.0  0.1348   25.7  0.4830 -118.2
 5.000  0.7892   83.1   0.748  -11.7  0.1374   26.0  0.4868 -120.7
 5.100  0.7923   81.9   0.730  -13.1  0.1418   25.5  0.4892 -123.4
 5.200  0.7957   80.7   0.713  -14.5  0.1461   25.0  0.4926 -126.0
 5.300  0.7994   79.5   0.697  -16.0  0.1505   24.5  0.4971 -128.6
 5.400  0.8035   78.4   0.681  -17.6  0.1549   24.0  0.5025 -131.2
 5.500  0.8079   77.2   0.665  -19.2  0.1593   23.6  0.5090 -133.7
 5.600  0.8115   76.1   0.649  -20.4  0.1627   22.9  0.5122 -136.3
 5.700  0.8153   75.0   0.634  -21.6  0.1660   22.2  0.5163 -138.8
 5.800  0.8195   73.9   0.619  -22.9  0.1694   21.6  0.5215 -141.3
 5.900  0.8239   72.8   0.604  -24.3  0.1729   21.0  0.5276 -143.7
 6.000  0.8287   71.7   0.590  -25.7  0.1763   20.4  0.5347 -146.1
!
!  f       NFmin   Gammaopt  rn/50
! GHz       dB    MAG  ANG    -
!
! noise parameter not available yet for this operation point!
!
! (c) 2016  Infineon Technologies AG, Munich
