! Infineon Technologies  Discrete & RF Semiconductors
! BFP193W
! VCE = 1.5 V,  IC =  10 mA
! Common Emitter S-Parameters:                            Jan 2016
# GHz  S  MA  R  50
!  f         S11            S21            S12            S22
! GHz     MAG   ANG      MAG   ANG      MAG   ANG      MAG   ANG
 0.010  0.6802   -8.8  27.086  174.8  0.0040   87.1  0.9805   -3.7
 0.015  0.6795  -13.3  27.046  173.0  0.0062   83.8  0.9745   -6.3
 0.020  0.6830  -17.7  27.032  171.2  0.0084   82.2  0.9705   -9.0
 0.025  0.6798  -22.1  26.866  169.1  0.0102   80.2  0.9627  -11.1
 0.030  0.6806  -26.5  26.737  167.0  0.0120   78.8  0.9563  -13.3
 0.035  0.6755  -30.6  26.430  165.0  0.0138   76.2  0.9450  -15.3
 0.040  0.6739  -34.7  26.157  162.9  0.0156   74.2  0.9349  -17.4
 0.045  0.6757  -38.7  25.919  160.8  0.0174   72.6  0.9260  -19.5
 0.050  0.6809  -42.8  25.717  158.6  0.0192   71.3  0.9184  -21.6
 0.055  0.6718  -46.1  25.266  157.1  0.0205   68.9  0.9026  -23.1
 0.060  0.6650  -49.5  24.832  155.6  0.0218   66.9  0.8875  -24.6
 0.065  0.6606  -53.0  24.417  154.0  0.0231   65.0  0.8730  -26.1
 0.070  0.6586  -56.5  24.020  152.4  0.0244   63.4  0.8591  -27.8
 0.075  0.6591  -60.0  23.644  150.7  0.0258   61.9  0.8460  -29.4
 0.080  0.6620  -63.4  23.289  149.0  0.0272   60.6  0.8336  -31.1
 0.085  0.6674  -66.9  22.956  147.2  0.0286   59.4  0.8220  -32.9
 0.090  0.6751  -70.2  22.647  145.3  0.0300   58.3  0.8112  -34.7
 0.095  0.6850  -73.5  22.361  143.4  0.0314   57.3  0.8012  -36.6
 0.100  0.6972  -76.7  22.100  141.5  0.0328   56.4  0.7921  -38.5
 0.105  0.6921  -79.1  21.691  140.4  0.0336   55.2  0.7777  -39.6
 0.110  0.6883  -81.5  21.290  139.2  0.0344   54.0  0.7636  -40.7
 0.115  0.6857  -84.0  20.898  138.1  0.0353   52.9  0.7498  -41.8
 0.120  0.6845  -86.5  20.515  136.8  0.0361   51.9  0.7364  -43.0
 0.125  0.6844  -89.0  20.142  135.5  0.0370   50.9  0.7232  -44.3
 0.130  0.6857  -91.4  19.780  134.2  0.0378   49.9  0.7104  -45.6
 0.135  0.6882  -93.9  19.429  132.8  0.0387   49.0  0.6980  -46.9
 0.140  0.6920  -96.3  19.089  131.4  0.0396   48.1  0.6860  -48.3
 0.145  0.6971  -98.7  18.761  129.9  0.0405   47.3  0.6744  -49.7
 0.150  0.7033 -101.1  18.447  128.4  0.0414   46.5  0.6632  -51.2
 0.155  0.7013 -102.7  18.124  127.6  0.0418   45.8  0.6522  -52.0
 0.160  0.6999 -104.4  17.805  126.8  0.0423   45.1  0.6414  -52.7
 0.165  0.6990 -106.1  17.489  126.0  0.0427   44.4  0.6306  -53.5
 0.170  0.6988 -107.7  17.177  125.2  0.0432   43.8  0.6200  -54.4
 0.175  0.6991 -109.4  16.869  124.3  0.0436   43.1  0.6096  -55.2
 0.180  0.7001 -111.0  16.565  123.4  0.0441   42.5  0.5992  -56.1
 0.185  0.7016 -112.7  16.266  122.5  0.0446   41.9  0.5891  -57.0
 0.190  0.7037 -114.3  15.970  121.5  0.0450   41.3  0.5790  -58.0
 0.195  0.7064 -116.0  15.680  120.5  0.0455   40.7  0.5692  -59.0
 0.200  0.7096 -117.6  15.395  119.4  0.0460   40.1  0.5595  -60.0
 0.220  0.7092 -122.4  14.465  117.0  0.0473   38.4  0.5286  -62.5
 0.240  0.7138 -127.2  13.565  114.2  0.0485   36.8  0.4987  -65.2
 0.260  0.7171 -131.2  12.749  111.8  0.0496   35.5  0.4715  -67.6
 0.280  0.7175 -134.7  12.003  109.8  0.0504   34.5  0.4463  -69.4
 0.300  0.7205 -138.1  11.272  107.6  0.0512   33.5  0.4216  -71.5
 0.320  0.7181 -140.6  10.766  106.3  0.0518   32.9  0.4057  -72.7
 0.340  0.7170 -143.1  10.265  104.9  0.0524   32.3  0.3899  -74.0
 0.360  0.7172 -145.6   9.772  103.4  0.0530   31.8  0.3744  -75.5
 0.380  0.7188 -148.0   9.286  101.7  0.0536   31.2  0.3592  -77.0
 0.400  0.7218 -150.5   8.809   99.8  0.0542   30.7  0.3442  -78.7
 0.420  0.7217 -152.2   8.481   98.8  0.0546   30.6  0.3343  -79.7
 0.440  0.7222 -153.9   8.155   97.8  0.0551   30.5  0.3245  -80.7
 0.450  0.7228 -154.8   7.993   97.2  0.0553   30.5  0.3196  -81.2
 0.460  0.7234 -155.6   7.832   96.7  0.0555   30.5  0.3148  -81.7
 0.480  0.7252 -157.3   7.513   95.4  0.0560   30.4  0.3052  -82.9
 0.500  0.7277 -159.0   7.197   94.1  0.0564   30.3  0.2957  -84.1
 0.520  0.7272 -160.2   6.966   93.3  0.0568   30.3  0.2892  -84.9
 0.540  0.7270 -161.5   6.736   92.4  0.0572   30.2  0.2827  -85.7
 0.560  0.7272 -162.7   6.507   91.5  0.0577   30.2  0.2763  -86.5
 0.580  0.7277 -164.0   6.281   90.6  0.0581   30.1  0.2700  -87.4
 0.600  0.7286 -165.2   6.056   89.5  0.0585   30.1  0.2637  -88.3
 0.620  0.7290 -166.2   5.895   88.8  0.0588   30.3  0.2594  -88.9
 0.640  0.7296 -167.2   5.735   88.1  0.0591   30.5  0.2552  -89.5
 0.660  0.7305 -168.3   5.576   87.4  0.0595   30.8  0.2510  -90.1
 0.680  0.7316 -169.3   5.418   86.6  0.0598   31.0  0.2468  -90.7
 0.700  0.7329 -170.3   5.261   85.8  0.0601   31.2  0.2426  -91.4
 0.720  0.7315 -171.1   5.128   85.2  0.0605   31.4  0.2399  -92.0
 0.740  0.7302 -171.8   4.996   84.5  0.0609   31.6  0.2372  -92.5
 0.760  0.7290 -172.6   4.865   83.8  0.0612   31.8  0.2345  -93.1
 0.780  0.7279 -173.3   4.735   83.1  0.0616   32.0  0.2319  -93.7
 0.800  0.7270 -174.1   4.605   82.3  0.0620   32.2  0.2293  -94.3
 0.820  0.7280 -174.8   4.505   81.7  0.0624   32.4  0.2275  -94.8
 0.840  0.7291 -175.6   4.406   81.1  0.0628   32.6  0.2257  -95.4
 0.860  0.7304 -176.3   4.308   80.5  0.0631   32.7  0.2240  -96.0
 0.880  0.7317 -177.1   4.210   79.9  0.0635   32.9  0.2222  -96.5
 0.900  0.7332 -177.8   4.112   79.2  0.0639   33.1  0.2205  -97.1
 0.920  0.7330 -178.4   4.030   78.7  0.0643   33.3  0.2192  -97.6
 0.940  0.7329 -179.0   3.948   78.1  0.0647   33.6  0.2180  -98.1
 0.960  0.7329 -179.5   3.867   77.6  0.0651   33.8  0.2167  -98.6
 0.980  0.7330  179.9   3.786   77.0  0.0655   34.1  0.2155  -99.2
 1.000  0.7331  179.3   3.705   76.4  0.0659   34.3  0.2143  -99.7
 1.020  0.7338  178.7   3.642   75.9  0.0664   34.5  0.2135 -100.1
 1.040  0.7345  178.1   3.580   75.3  0.0669   34.8  0.2127 -100.5
 1.060  0.7354  177.5   3.518   74.7  0.0673   35.0  0.2119 -100.8
 1.080  0.7363  176.9   3.456   74.1  0.0678   35.3  0.2111 -101.2
 1.100  0.7373  176.3   3.395   73.5  0.0683   35.5  0.2103 -101.6
 1.120  0.7371  175.8   3.337   73.0  0.0688   35.7  0.2101 -102.0
 1.140  0.7370  175.3   3.280   72.5  0.0692   35.9  0.2099 -102.3
 1.160  0.7370  174.7   3.223   72.0  0.0697   36.2  0.2097 -102.7
 1.180  0.7370  174.2   3.166   71.5  0.0701   36.4  0.2095 -103.0
 1.200  0.7371  173.7   3.109   70.9  0.0706   36.6  0.2093 -103.4
 1.220  0.7367  173.2   3.062   70.4  0.0711   36.8  0.2094 -103.8
 1.240  0.7365  172.7   3.016   69.9  0.0716   37.1  0.2094 -104.2
 1.260  0.7362  172.2   2.970   69.3  0.0721   37.3  0.2095 -104.7
 1.280  0.7360  171.7   2.924   68.8  0.0726   37.6  0.2096 -105.1
 1.300  0.7359  171.2   2.879   68.2  0.0731   37.8  0.2097 -105.5
 1.320  0.7368  170.7   2.840   67.7  0.0736   38.0  0.2098 -105.9
 1.340  0.7377  170.3   2.801   67.3  0.0741   38.2  0.2100 -106.3
 1.360  0.7386  169.8   2.763   66.8  0.0745   38.3  0.2101 -106.8
 1.380  0.7396  169.4   2.724   66.3  0.0750   38.5  0.2103 -107.2
 1.400  0.7407  168.9   2.686   65.8  0.0755   38.7  0.2105 -107.6
 1.420  0.7411  168.5   2.652   65.3  0.0760   38.9  0.2106 -108.0
 1.440  0.7415  168.1   2.617   64.9  0.0765   39.2  0.2107 -108.3
 1.460  0.7419  167.7   2.583   64.4  0.0769   39.4  0.2108 -108.7
 1.480  0.7424  167.3   2.550   63.9  0.0774   39.7  0.2110 -109.0
 1.500  0.7429  166.9   2.516   63.4  0.0779   39.9  0.2111 -109.4
 1.520  0.7431  166.4   2.485   62.9  0.0785   40.0  0.2116 -109.7
 1.540  0.7433  165.9   2.455   62.4  0.0792   40.2  0.2122 -110.0
 1.560  0.7436  165.5   2.425   61.9  0.0798   40.3  0.2127 -110.3
 1.580  0.7439  165.0   2.395   61.3  0.0805   40.5  0.2132 -110.6
 1.600  0.7443  164.5   2.365   60.8  0.0811   40.6  0.2138 -110.9
 1.620  0.7448  164.1   2.337   60.4  0.0816   40.8  0.2146 -111.3
 1.640  0.7453  163.6   2.309   60.0  0.0821   41.0  0.2155 -111.7
 1.660  0.7459  163.2   2.282   59.6  0.0826   41.2  0.2163 -112.1
 1.680  0.7465  162.7   2.254   59.1  0.0831   41.4  0.2172 -112.5
 1.700  0.7472  162.3   2.227   58.7  0.0836   41.6  0.2181 -112.9
 1.720  0.7472  161.9   2.203   58.3  0.0842   41.7  0.2183 -113.3
 1.740  0.7472  161.6   2.178   57.8  0.0848   41.9  0.2185 -113.7
 1.760  0.7472  161.2   2.154   57.4  0.0855   42.0  0.2188 -114.1
 1.780  0.7472  160.9   2.130   56.9  0.0861   42.2  0.2190 -114.5
 1.800  0.7473  160.5   2.106   56.4  0.0867   42.3  0.2193 -114.9
 1.820  0.7471  160.1   2.084   55.9  0.0873   42.4  0.2200 -115.1
 1.840  0.7469  159.7   2.063   55.4  0.0879   42.6  0.2207 -115.4
 1.860  0.7468  159.2   2.041   54.9  0.0886   42.7  0.2214 -115.6
 1.880  0.7467  158.8   2.020   54.4  0.0892   42.9  0.2221 -115.9
 1.900  0.7466  158.4   1.999   53.9  0.0898   43.0  0.2228 -116.1
 1.920  0.7469  158.0   1.980   53.5  0.0904   43.1  0.2239 -116.4
 1.940  0.7472  157.6   1.960   53.1  0.0910   43.2  0.2250 -116.8
 1.960  0.7475  157.2   1.941   52.7  0.0917   43.2  0.2261 -117.1
 1.980  0.7479  156.8   1.922   52.3  0.0923   43.3  0.2273 -117.5
 2.000  0.7483  156.4   1.903   51.9  0.0929   43.4  0.2284 -117.8
 2.020  0.7488  156.0   1.886   51.5  0.0935   43.5  0.2292 -118.2
 2.040  0.7493  155.7   1.870   51.1  0.0941   43.6  0.2299 -118.6
 2.060  0.7499  155.3   1.853   50.7  0.0948   43.7  0.2307 -118.9
 2.080  0.7505  155.0   1.837   50.2  0.0954   43.8  0.2315 -119.3
 2.100  0.7511  154.6   1.820   49.8  0.0960   43.9  0.2323 -119.7
 2.120  0.7518  154.2   1.804   49.4  0.0966   44.0  0.2331 -120.1
 2.140  0.7525  153.9   1.788   48.9  0.0972   44.0  0.2339 -120.4
 2.160  0.7532  153.5   1.772   48.4  0.0979   44.1  0.2347 -120.8
 2.180  0.7539  153.2   1.756   48.0  0.0985   44.2  0.2356 -121.1
 2.200  0.7547  152.8   1.740   47.5  0.0991   44.3  0.2364 -121.5
 2.220  0.7550  152.4   1.725   47.1  0.0998   44.4  0.2375 -121.8
 2.240  0.7553  152.1   1.711   46.7  0.1004   44.4  0.2386 -122.2
 2.260  0.7556  151.7   1.696   46.3  0.1011   44.5  0.2397 -122.5
 2.280  0.7560  151.4   1.682   45.9  0.1017   44.5  0.2408 -122.9
 2.300  0.7564  151.0   1.667   45.5  0.1024   44.6  0.2419 -123.2
 2.320  0.7568  150.7   1.653   45.1  0.1031   44.6  0.2430 -123.5
 2.340  0.7573  150.3   1.639   44.6  0.1037   44.7  0.2442 -123.8
 2.360  0.7578  150.0   1.625   44.2  0.1044   44.7  0.2453 -124.2
 2.380  0.7583  149.6   1.611   43.8  0.1050   44.8  0.2464 -124.5
 2.400  0.7588  149.3   1.597   43.3  0.1057   44.8  0.2476 -124.8
 2.420  0.7590  148.9   1.585   42.9  0.1064   44.8  0.2485 -125.2
 2.440  0.7592  148.6   1.574   42.5  0.1071   44.9  0.2493 -125.6
 2.460  0.7594  148.2   1.562   42.1  0.1078   44.9  0.2502 -126.0
 2.480  0.7597  147.9   1.550   41.7  0.1085   45.0  0.2511 -126.4
 2.500  0.7600  147.5   1.539   41.3  0.1092   45.0  0.2520 -126.8
 2.520  0.7603  147.1   1.528   40.9  0.1100   45.0  0.2529 -127.2
 2.540  0.7607  146.8   1.516   40.5  0.1107   45.1  0.2538 -127.6
 2.560  0.7610  146.4   1.505   40.1  0.1114   45.1  0.2548 -127.9
 2.580  0.7615  146.1   1.494   39.6  0.1121   45.2  0.2557 -128.3
 2.600  0.7619  145.7   1.483   39.2  0.1128   45.2  0.2567 -128.7
 2.620  0.7626  145.4   1.472   38.8  0.1135   45.2  0.2580 -129.0
 2.640  0.7633  145.0   1.462   38.5  0.1143   45.2  0.2593 -129.4
 2.660  0.7641  144.7   1.451   38.1  0.1150   45.2  0.2606 -129.7
 2.680  0.7649  144.3   1.441   37.7  0.1157   45.2  0.2620 -130.1
 2.700  0.7657  144.0   1.430   37.3  0.1164   45.3  0.2633 -130.4
 2.720  0.7665  143.7   1.420   36.9  0.1172   45.3  0.2646 -130.7
 2.740  0.7674  143.3   1.409   36.5  0.1179   45.3  0.2660 -131.0
 2.760  0.7682  143.0   1.399   36.1  0.1186   45.3  0.2674 -131.4
 2.780  0.7692  142.6   1.389   35.7  0.1194   45.3  0.2687 -131.7
 2.800  0.7701  142.3   1.379   35.3  0.1201   45.3  0.2701 -132.0
 2.820  0.7705  142.0   1.369   34.9  0.1208   45.3  0.2711 -132.4
 2.840  0.7710  141.6   1.360   34.6  0.1216   45.2  0.2721 -132.8
 2.860  0.7714  141.3   1.350   34.2  0.1223   45.2  0.2732 -133.2
 2.880  0.7719  141.0   1.340   33.8  0.1230   45.2  0.2742 -133.6
 2.900  0.7724  140.6   1.331   33.5  0.1237   45.1  0.2752 -133.9
 2.920  0.7730  140.3   1.321   33.1  0.1245   45.1  0.2763 -134.3
 2.940  0.7735  140.0   1.312   32.7  0.1252   45.1  0.2774 -134.7
 2.960  0.7741  139.7   1.303   32.3  0.1259   45.1  0.2785 -135.1
 2.980  0.7748  139.3   1.293   31.9  0.1267   45.0  0.2796 -135.4
 3.000  0.7754  139.0   1.284   31.5  0.1274   45.0  0.2807 -135.8
 3.100  0.7782  137.4   1.247   29.7  0.1310   44.9  0.2876 -137.6
 3.200  0.7816  135.8   1.211   27.8  0.1346   44.9  0.2947 -139.4
 3.300  0.7850  134.1   1.174   26.0  0.1385   44.6  0.3012 -141.3
 3.400  0.7890  132.5   1.138   24.0  0.1424   44.4  0.3081 -143.2
 3.500  0.7927  131.0   1.106   22.3  0.1462   44.1  0.3155 -144.9
 3.600  0.7969  129.6   1.076   20.5  0.1500   43.8  0.3232 -146.5
 3.700  0.7989  128.0   1.044   18.8  0.1533   43.4  0.3305 -148.5
 3.800  0.8016  126.4   1.014   16.9  0.1566   43.0  0.3382 -150.5
 3.900  0.8047  125.2   0.987   15.4  0.1605   42.6  0.3465 -152.3
 4.000  0.8082  124.0   0.960   13.8  0.1645   42.2  0.3552 -154.0
 4.100  0.8090  122.7   0.935   12.4  0.1681   41.7  0.3635 -155.8
 4.200  0.8101  121.5   0.911   11.0  0.1718   41.2  0.3722 -157.6
 4.300  0.8116  120.2   0.887    9.5  0.1754   40.7  0.3812 -159.3
 4.400  0.8136  118.9   0.864    7.9  0.1791   40.2  0.3906 -160.9
 4.500  0.8159  117.7   0.842    6.2  0.1828   39.8  0.4002 -162.4
 4.600  0.8165  116.7   0.822    5.1  0.1865   39.3  0.4076 -164.0
 4.700  0.8173  115.6   0.802    3.9  0.1901   38.8  0.4153 -165.6
 4.800  0.8185  114.6   0.782    2.7  0.1938   38.4  0.4234 -167.1
 4.900  0.8198  113.5   0.763    1.4  0.1975   37.9  0.4317 -168.6
 5.000  0.8215  112.5   0.744    0.1  0.2012   37.5  0.4403 -170.0
 5.100  0.8211  111.7   0.729   -0.8  0.2049   36.9  0.4475 -171.3
 5.200  0.8208  110.9   0.714   -1.8  0.2086   36.3  0.4549 -172.6
 5.300  0.8207  110.2   0.699   -2.8  0.2124   35.8  0.4625 -173.8
 5.400  0.8207  109.4   0.684   -3.9  0.2161   35.2  0.4703 -175.0
 5.500  0.8209  108.6   0.670   -5.0  0.2199   34.7  0.4783 -176.1
 5.600  0.8220  107.7   0.657   -5.8  0.2238   34.2  0.4849 -177.2
 5.700  0.8233  106.8   0.645   -6.7  0.2276   33.6  0.4916 -178.4
 5.800  0.8248  105.8   0.632   -7.5  0.2315   33.1  0.4986 -179.4
 5.900  0.8265  104.9   0.620   -8.5  0.2355   32.7  0.5057  179.5
 6.000  0.8284  104.0   0.608   -9.4  0.2394   32.2  0.5130  178.5
!
!  f       NFmin   Gammaopt  rn/50
! GHz       dB    MAG  ANG    -
!
! noise parameter not available yet for this operation point!
!
! (c) 2016  Infineon Technologies AG, Munich
