! Infineon Technologies  Discrete & RF Semiconductors
! BFP183
! VCE = 3.0 V,  IC =  60 mA
! Common Emitter S-Parameters:                            Jan 2016
# GHz  S  MA  R  50
!  f         S11            S21            S12            S22
! GHz     MAG   ANG      MAG   ANG      MAG   ANG      MAG   ANG
 0.010  0.1586  -39.5  39.881  172.6  0.0023   67.3  0.7782   -4.8
 0.015  0.1783  -55.0  39.448  169.1  0.0030   67.0  0.7688   -7.5
 0.020  0.2082  -66.8  39.166  165.5  0.0038   66.8  0.7611  -10.3
 0.025  0.2252  -77.1  38.075  162.7  0.0046   66.1  0.7440  -12.3
 0.030  0.2483  -85.7  37.083  159.7  0.0054   65.7  0.7279  -14.5
 0.035  0.2760  -92.7  36.196  156.5  0.0062   65.3  0.7128  -16.7
 0.040  0.3071  -98.4  35.423  153.3  0.0070   65.1  0.6989  -19.0
 0.045  0.3406 -103.0  34.772  149.8  0.0078   64.9  0.6861  -21.4
 0.050  0.3759 -106.7  34.249  146.3  0.0086   64.7  0.6746  -23.9
 0.055  0.3849 -110.5  33.151  144.8  0.0090   62.6  0.6575  -24.8
 0.060  0.3955 -114.1  32.078  143.2  0.0095   60.6  0.6406  -25.8
 0.065  0.4076 -117.5  31.032  141.5  0.0099   58.8  0.6239  -26.8
 0.070  0.4210 -120.7  30.016  139.6  0.0104   57.2  0.6074  -27.8
 0.075  0.4357 -123.7  29.032  137.7  0.0109   55.8  0.5912  -29.0
 0.080  0.4514 -126.5  28.085  135.6  0.0113   54.4  0.5751  -30.1
 0.085  0.4682 -129.1  27.178  133.3  0.0118   53.2  0.5593  -31.4
 0.090  0.4859 -131.5  26.315  131.0  0.0123   52.0  0.5438  -32.7
 0.095  0.5043 -133.7  25.501  128.4  0.0128   51.0  0.5287  -34.1
 0.100  0.5235 -135.8  24.741  125.7  0.0133   50.0  0.5138  -35.6
 0.105  0.5283 -137.5  24.091  124.8  0.0135   49.8  0.5035  -35.9
 0.110  0.5336 -139.1  23.448  123.8  0.0138   49.6  0.4933  -36.2
 0.115  0.5393 -140.7  22.812  122.8  0.0140   49.4  0.4831  -36.5
 0.120  0.5453 -142.3  22.183  121.7  0.0143   49.2  0.4729  -36.8
 0.125  0.5518 -143.8  21.563  120.6  0.0145   49.0  0.4627  -37.2
 0.130  0.5587 -145.3  20.951  119.4  0.0147   48.8  0.4525  -37.5
 0.135  0.5660 -146.8  20.350  118.1  0.0150   48.7  0.4424  -37.9
 0.140  0.5736 -148.2  19.759  116.8  0.0152   48.5  0.4322  -38.3
 0.145  0.5815 -149.6  19.179  115.3  0.0155   48.4  0.4221  -38.7
 0.150  0.5898 -150.9  18.613  113.8  0.0157   48.2  0.4120  -39.1
 0.155  0.5918 -151.9  18.207  113.2  0.0159   48.4  0.4060  -39.1
 0.160  0.5940 -152.8  17.802  112.6  0.0161   48.6  0.4000  -39.2
 0.165  0.5963 -153.7  17.400  111.9  0.0162   48.7  0.3940  -39.2
 0.170  0.5988 -154.7  17.000  111.2  0.0164   48.9  0.3880  -39.3
 0.175  0.6014 -155.6  16.603  110.5  0.0166   49.1  0.3820  -39.3
 0.180  0.6042 -156.5  16.209  109.7  0.0168   49.3  0.3760  -39.4
 0.185  0.6072 -157.4  15.818  108.9  0.0170   49.4  0.3700  -39.4
 0.190  0.6103 -158.3  15.430  108.1  0.0171   49.6  0.3640  -39.5
 0.195  0.6135 -159.2  15.045  107.2  0.0173   49.7  0.3580  -39.5
 0.200  0.6169 -160.1  14.664  106.3  0.0175   49.9  0.3520  -39.6
 0.220  0.6240 -162.6  13.583  104.4  0.0181   49.9  0.3373  -39.3
 0.240  0.6322 -165.0  12.520  102.2  0.0186   49.8  0.3226  -39.1
 0.260  0.6378 -167.2  11.622  100.2  0.0193   50.3  0.3102  -38.7
 0.280  0.6407 -169.3  10.878   98.8  0.0202   51.2  0.3001  -38.3
 0.300  0.6443 -171.3  10.142   97.1  0.0210   52.0  0.2901  -37.9
 0.320  0.6447 -172.7   9.655   96.1  0.0217   52.8  0.2846  -37.6
 0.340  0.6455 -174.1   9.171   95.0  0.0225   53.5  0.2792  -37.3
 0.360  0.6467 -175.5   8.691   93.7  0.0232   54.2  0.2738  -37.0
 0.380  0.6482 -176.9   8.216   92.4  0.0240   54.8  0.2683  -36.7
 0.400  0.6502 -178.3   7.746   90.8  0.0247   55.4  0.2629  -36.4
 0.420  0.6516 -179.3   7.433   90.0  0.0254   55.7  0.2600  -36.3
 0.440  0.6532  179.6   7.122   89.2  0.0262   55.9  0.2570  -36.3
 0.450  0.6541  179.1   6.967   88.8  0.0265   56.0  0.2555  -36.3
 0.460  0.6550  178.6   6.813   88.3  0.0269   56.2  0.2541  -36.2
 0.480  0.6571  177.6   6.505   87.3  0.0277   56.4  0.2511  -36.2
 0.500  0.6593  176.6   6.200   86.2  0.0284   56.6  0.2482  -36.1
 0.520  0.6597  175.7   6.002   85.5  0.0293   57.2  0.2464  -36.1
 0.540  0.6603  174.8   5.806   84.7  0.0302   57.8  0.2447  -36.2
 0.560  0.6610  173.9   5.610   83.9  0.0310   58.4  0.2429  -36.2
 0.580  0.6619  173.0   5.416   83.0  0.0319   58.9  0.2412  -36.3
 0.600  0.6630  172.1   5.223   82.1  0.0328   59.4  0.2394  -36.3
 0.620  0.6631  171.2   5.069   81.4  0.0336   59.7  0.2383  -36.5
 0.640  0.6634  170.4   4.915   80.8  0.0344   59.9  0.2372  -36.6
 0.660  0.6639  169.5   4.762   80.0  0.0353   60.2  0.2361  -36.8
 0.680  0.6645  168.7   4.610   79.2  0.0361   60.4  0.2350  -36.9
 0.700  0.6652  167.8   4.459   78.4  0.0369   60.6  0.2339  -37.1
 0.720  0.6648  167.1   4.353   77.8  0.0377   60.8  0.2333  -37.3
 0.740  0.6644  166.4   4.247   77.2  0.0385   60.9  0.2327  -37.6
 0.760  0.6642  165.7   4.142   76.5  0.0392   61.1  0.2321  -37.8
 0.780  0.6640  165.0   4.038   75.8  0.0400   61.3  0.2316  -38.1
 0.800  0.6640  164.3   3.934   75.1  0.0408   61.4  0.2310  -38.3
 0.820  0.6653  163.6   3.850   74.6  0.0417   61.4  0.2305  -38.6
 0.840  0.6668  163.0   3.766   74.0  0.0426   61.4  0.2299  -38.9
 0.860  0.6683  162.3   3.682   73.4  0.0435   61.4  0.2294  -39.3
 0.880  0.6699  161.7   3.599   72.8  0.0444   61.4  0.2289  -39.6
 0.900  0.6716  161.0   3.516   72.2  0.0453   61.4  0.2284  -39.9
 0.920  0.6718  160.3   3.443   71.6  0.0460   61.5  0.2280  -40.3
 0.940  0.6721  159.5   3.371   71.0  0.0468   61.6  0.2275  -40.6
 0.960  0.6725  158.8   3.299   70.3  0.0475   61.6  0.2271  -41.0
 0.980  0.6730  158.0   3.228   69.6  0.0483   61.7  0.2267  -41.3
 1.000  0.6736  157.3   3.157   68.9  0.0490   61.8  0.2263  -41.7
 1.020  0.6743  156.7   3.101   68.3  0.0500   61.8  0.2260  -42.1
 1.040  0.6750  156.1   3.045   67.7  0.0509   61.8  0.2256  -42.4
 1.060  0.6759  155.6   2.989   67.1  0.0519   61.8  0.2253  -42.8
 1.080  0.6767  155.0   2.934   66.5  0.0528   61.8  0.2250  -43.1
 1.100  0.6777  154.4   2.879   65.8  0.0538   61.8  0.2247  -43.5
 1.120  0.6783  153.8   2.830   65.3  0.0546   61.8  0.2246  -43.9
 1.140  0.6791  153.2   2.781   64.9  0.0555   61.7  0.2245  -44.3
 1.160  0.6799  152.5   2.733   64.4  0.0563   61.7  0.2244  -44.8
 1.180  0.6807  151.9   2.684   63.8  0.0572   61.6  0.2244  -45.2
 1.200  0.6817  151.3   2.636   63.3  0.0580   61.6  0.2243  -45.6
 1.220  0.6819  150.7   2.595   62.8  0.0589   61.5  0.2241  -46.1
 1.240  0.6823  150.1   2.554   62.2  0.0597   61.3  0.2240  -46.6
 1.260  0.6826  149.6   2.513   61.6  0.0606   61.2  0.2239  -47.1
 1.280  0.6831  149.0   2.473   61.0  0.0614   61.0  0.2238  -47.6
 1.300  0.6836  148.4   2.433   60.4  0.0623   60.9  0.2237  -48.1
 1.320  0.6840  147.7   2.400   59.9  0.0632   60.8  0.2234  -48.6
 1.340  0.6845  147.1   2.367   59.4  0.0641   60.7  0.2231  -49.0
 1.360  0.6851  146.4   2.334   58.9  0.0650   60.7  0.2228  -49.5
 1.380  0.6858  145.8   2.301   58.3  0.0659   60.6  0.2225  -49.9
 1.400  0.6866  145.1   2.269   57.8  0.0668   60.5  0.2222  -50.4
 1.420  0.6875  144.6   2.238   57.2  0.0677   60.3  0.2220  -50.8
 1.440  0.6884  144.1   2.207   56.7  0.0686   60.2  0.2219  -51.3
 1.460  0.6893  143.6   2.176   56.1  0.0696   60.0  0.2217  -51.7
 1.480  0.6903  143.1   2.145   55.4  0.0705   59.9  0.2216  -52.2
 1.500  0.6914  142.6   2.115   54.8  0.0714   59.7  0.2215  -52.6
 1.520  0.6920  142.0   2.089   54.3  0.0723   59.6  0.2215  -53.1
 1.540  0.6927  141.4   2.064   53.8  0.0731   59.5  0.2216  -53.6
 1.560  0.6935  140.8   2.038   53.3  0.0740   59.5  0.2216  -54.2
 1.580  0.6944  140.2   2.013   52.7  0.0748   59.4  0.2217  -54.7
 1.600  0.6953  139.6   1.988   52.2  0.0757   59.3  0.2218  -55.2
 1.620  0.6960  139.0   1.964   51.7  0.0765   59.1  0.2216  -55.8
 1.640  0.6968  138.5   1.939   51.2  0.0773   59.0  0.2214  -56.4
 1.660  0.6976  137.9   1.915   50.6  0.0782   58.8  0.2212  -56.9
 1.680  0.6985  137.4   1.892   50.1  0.0790   58.7  0.2210  -57.5
 1.700  0.6995  136.8   1.868   49.5  0.0798   58.5  0.2209  -58.1
 1.720  0.7002  136.3   1.847   49.0  0.0807   58.4  0.2206  -58.6
 1.740  0.7010  135.8   1.826   48.5  0.0816   58.2  0.2202  -59.2
 1.760  0.7018  135.2   1.805   48.0  0.0824   58.1  0.2199  -59.7
 1.780  0.7027  134.7   1.784   47.4  0.0833   57.9  0.2197  -60.3
 1.800  0.7036  134.2   1.764   46.9  0.0842   57.8  0.2194  -60.8
 1.820  0.7038  133.7   1.745   46.4  0.0851   57.6  0.2193  -61.3
 1.840  0.7041  133.3   1.725   46.0  0.0859   57.4  0.2192  -61.8
 1.860  0.7045  132.8   1.706   45.5  0.0868   57.2  0.2192  -62.2
 1.880  0.7049  132.4   1.687   45.0  0.0876   57.0  0.2191  -62.7
 1.900  0.7053  131.9   1.668   44.5  0.0885   56.8  0.2191  -63.2
 1.920  0.7062  131.3   1.650   44.0  0.0893   56.6  0.2191  -63.8
 1.940  0.7072  130.7   1.631   43.5  0.0901   56.4  0.2191  -64.4
 1.960  0.7083  130.1   1.613   43.0  0.0908   56.2  0.2191  -65.0
 1.980  0.7095  129.5   1.595   42.4  0.0916   56.0  0.2192  -65.6
 2.000  0.7107  128.9   1.577   41.9  0.0924   55.8  0.2193  -66.2
 2.020  0.7114  128.4   1.563   41.4  0.0932   55.6  0.2189  -66.8
 2.040  0.7122  127.9   1.548   41.0  0.0941   55.4  0.2185  -67.4
 2.060  0.7130  127.4   1.534   40.5  0.0949   55.3  0.2182  -68.0
 2.080  0.7139  126.9   1.520   40.0  0.0957   55.1  0.2178  -68.7
 2.100  0.7148  126.4   1.506   39.5  0.0966   54.9  0.2175  -69.3
 2.120  0.7158  125.9   1.492   39.0  0.0974   54.7  0.2173  -69.9
 2.140  0.7169  125.5   1.478   38.5  0.0983   54.6  0.2170  -70.5
 2.160  0.7180  125.0   1.465   38.0  0.0991   54.4  0.2168  -71.1
 2.180  0.7191  124.5   1.451   37.4  0.1000   54.3  0.2166  -71.8
 2.200  0.7203  124.0   1.438   36.9  0.1008   54.1  0.2164  -72.4
 2.220  0.7213  123.5   1.425   36.5  0.1016   53.9  0.2163  -73.0
 2.240  0.7224  123.0   1.413   36.0  0.1024   53.7  0.2162  -73.7
 2.260  0.7235  122.5   1.400   35.6  0.1033   53.4  0.2161  -74.3
 2.280  0.7247  122.0   1.388   35.2  0.1041   53.2  0.2161  -75.0
 2.300  0.7260  121.5   1.376   34.7  0.1049   53.0  0.2161  -75.6
 2.320  0.7273  121.0   1.364   34.2  0.1058   52.8  0.2161  -76.2
 2.340  0.7286  120.5   1.352   33.8  0.1066   52.6  0.2161  -76.9
 2.360  0.7300  120.0   1.340   33.3  0.1074   52.4  0.2162  -77.5
 2.380  0.7315  119.5   1.328   32.8  0.1083   52.2  0.2163  -78.2
 2.400  0.7330  119.0   1.316   32.3  0.1091   52.0  0.2164  -78.8
 2.420  0.7341  118.5   1.305   31.9  0.1099   51.8  0.2160  -79.5
 2.440  0.7352  118.1   1.294   31.4  0.1107   51.6  0.2157  -80.1
 2.460  0.7364  117.6   1.283   31.0  0.1114   51.4  0.2154  -80.8
 2.480  0.7376  117.1   1.272   30.6  0.1122   51.2  0.2151  -81.4
 2.500  0.7389  116.7   1.261   30.1  0.1130   51.1  0.2149  -82.1
 2.520  0.7402  116.2   1.250   29.6  0.1138   50.9  0.2147  -82.7
 2.540  0.7416  115.8   1.240   29.2  0.1145   50.7  0.2145  -83.4
 2.560  0.7430  115.3   1.229   28.7  0.1153   50.5  0.2143  -84.1
 2.580  0.7445  114.9   1.218   28.2  0.1161   50.4  0.2142  -84.7
 2.600  0.7460  114.4   1.208   27.7  0.1169   50.2  0.2141  -85.4
 2.620  0.7465  114.0   1.199   27.2  0.1176   50.0  0.2142  -86.1
 2.640  0.7471  113.6   1.189   26.8  0.1183   49.7  0.2143  -86.8
 2.660  0.7476  113.1   1.180   26.3  0.1190   49.5  0.2144  -87.5
 2.680  0.7483  112.7   1.171   25.8  0.1198   49.3  0.2146  -88.2
 2.700  0.7489  112.3   1.161   25.3  0.1205   49.1  0.2148  -88.9
 2.720  0.7497  111.9   1.152   24.9  0.1212   48.8  0.2150  -89.6
 2.740  0.7504  111.5   1.143   24.4  0.1219   48.6  0.2152  -90.2
 2.760  0.7512  111.0   1.135   23.8  0.1226   48.4  0.2155  -90.9
 2.780  0.7520  110.6   1.126   23.3  0.1234   48.2  0.2159  -91.6
 2.800  0.7529  110.2   1.117   22.8  0.1241   48.0  0.2162  -92.3
 2.820  0.7539  109.8   1.109   22.4  0.1248   47.8  0.2160  -93.0
 2.840  0.7550  109.3   1.101   22.0  0.1256   47.6  0.2159  -93.7
 2.860  0.7561  108.9   1.092   21.6  0.1263   47.4  0.2158  -94.4
 2.880  0.7572  108.4   1.084   21.2  0.1271   47.2  0.2157  -95.1
 2.900  0.7584  108.0   1.076   20.8  0.1278   47.0  0.2157  -95.8
 2.920  0.7597  107.5   1.068   20.4  0.1286   46.8  0.2157  -96.5
 2.940  0.7610  107.1   1.060   20.0  0.1293   46.6  0.2157  -97.2
 2.960  0.7623  106.7   1.053   19.6  0.1301   46.5  0.2158  -97.9
 2.980  0.7637  106.2   1.045   19.1  0.1308   46.3  0.2159  -98.6
 3.000  0.7651  105.8   1.037   18.7  0.1316   46.1  0.2160  -99.3
 3.100  0.7682  103.9   1.002   17.0  0.1351   45.0  0.2166 -103.0
 3.200  0.7721  102.0   0.968   15.1  0.1386   43.9  0.2181 -106.7
 3.300  0.7769  100.2   0.935   13.1  0.1421   43.0  0.2204 -110.3
 3.400  0.7824   98.3   0.903   11.0  0.1457   42.0  0.2237 -113.8
 3.500  0.7888   96.5   0.873    8.7  0.1493   41.1  0.2277 -117.2
 3.600  0.7923   94.9   0.847    7.1  0.1526   40.0  0.2299 -120.9
 3.700  0.7964   93.3   0.822    5.5  0.1560   38.9  0.2331 -124.5
 3.800  0.8012   91.7   0.797    3.7  0.1595   37.8  0.2371 -128.0
 3.900  0.8066   90.1   0.774    1.9  0.1630   36.9  0.2420 -131.4
 4.000  0.8125   88.6   0.751   -0.1  0.1665   35.9  0.2477 -134.6
 4.100  0.8142   87.2   0.730   -1.5  0.1693   34.8  0.2516 -138.0
 4.200  0.8165   85.7   0.709   -3.0  0.1722   33.8  0.2564 -141.2
 4.300  0.8193   84.3   0.689   -4.6  0.1752   32.8  0.2620 -144.3
 4.400  0.8225   82.9   0.669   -6.3  0.1782   31.8  0.2683 -147.3
 4.500  0.8263   81.5   0.650   -8.1  0.1812   30.9  0.2753 -150.1
 4.600  0.8275   80.3   0.633   -9.1  0.1841   30.1  0.2798 -152.9
 4.700  0.8291   79.2   0.617  -10.2  0.1870   29.4  0.2850 -155.6
 4.800  0.8310   78.0   0.601  -11.3  0.1899   28.6  0.2908 -158.2
 4.900  0.8333   76.8   0.585  -12.5  0.1929   27.9  0.2971 -160.6
 5.000  0.8359   75.7   0.569  -13.7  0.1959   27.2  0.3040 -163.0
 5.100  0.8382   74.7   0.557  -14.9  0.1994   26.0  0.3113 -165.4
 5.200  0.8407   73.6   0.545  -16.1  0.2029   24.9  0.3192 -167.6
 5.300  0.8436   72.6   0.533  -17.3  0.2065   23.8  0.3275 -169.7
 5.400  0.8466   71.6   0.522  -18.6  0.2102   22.7  0.3363 -171.8
 5.500  0.8500   70.6   0.511  -20.0  0.2140   21.7  0.3454 -173.7
 5.600  0.8519   69.7   0.500  -20.9  0.2166   20.6  0.3523 -175.8
 5.700  0.8540   68.8   0.490  -21.8  0.2192   19.6  0.3596 -177.8
 5.800  0.8563   67.9   0.479  -22.8  0.2220   18.6  0.3673 -179.8
 5.900  0.8588   67.0   0.469  -23.8  0.2247   17.6  0.3755  178.4
 6.000  0.8615   66.1   0.459  -24.8  0.2276   16.6  0.3840  176.6
!
!  f       NFmin   Gammaopt  rn/50
! GHz       dB    MAG  ANG    -
!
! noise parameter not available yet for this operation point!
!
! (c) 2016  Infineon Technologies AG, Munich
