! Infineon Technologies  Discrete & RF Semiconductors
! BFP183W
! VCE = 8.0 V,  IC =  12 mA
! Common Emitter S-Parameters:                            Jan 2016
# GHz  S  MA  R  50
!  f         S11            S21            S12            S22
! GHz     MAG   ANG      MAG   ANG      MAG   ANG      MAG   ANG
 0.010  0.6999   -4.8  29.194  175.7  0.0019   88.3  0.9773   -2.3
 0.015  0.6969   -7.4  29.119  174.8  0.0030   84.6  0.9731   -3.5
 0.020  0.6954  -10.1  29.052  173.9  0.0041   82.9  0.9693   -4.8
 0.025  0.6964  -12.7  29.054  172.5  0.0051   83.7  0.9686   -6.0
 0.030  0.6988  -15.2  29.072  171.2  0.0061   84.2  0.9683   -7.2
 0.035  0.6946  -17.7  28.892  169.8  0.0071   81.9  0.9636   -8.4
 0.040  0.6917  -20.2  28.729  168.4  0.0080   80.1  0.9594   -9.5
 0.045  0.6901  -22.7  28.585  166.9  0.0090   78.7  0.9555  -10.7
 0.050  0.6898  -25.2  28.458  165.5  0.0100   77.6  0.9521  -11.9
 0.055  0.6834  -27.4  28.202  164.3  0.0109   76.0  0.9442  -12.9
 0.060  0.6781  -29.7  27.959  163.1  0.0117   74.6  0.9365  -13.9
 0.065  0.6739  -32.0  27.727  161.9  0.0126   73.4  0.9291  -14.9
 0.070  0.6708  -34.3  27.509  160.7  0.0135   72.4  0.9221  -15.9
 0.075  0.6688  -36.7  27.303  159.4  0.0144   71.5  0.9153  -16.9
 0.080  0.6679  -39.0  27.111  158.2  0.0152   70.7  0.9088  -18.0
 0.085  0.6681  -41.4  26.932  156.9  0.0161   69.9  0.9026  -19.0
 0.090  0.6695  -43.7  26.767  155.6  0.0170   69.3  0.8968  -20.1
 0.095  0.6720  -46.1  26.617  154.2  0.0179   68.7  0.8912  -21.2
 0.100  0.6756  -48.4  26.480  152.9  0.0188   68.2  0.8860  -22.3
 0.105  0.6700  -50.3  26.183  151.9  0.0195   67.2  0.8769  -23.1
 0.110  0.6652  -52.3  25.895  150.8  0.0201   66.3  0.8681  -23.9
 0.115  0.6611  -54.3  25.616  149.8  0.0208   65.4  0.8594  -24.8
 0.120  0.6579  -56.3  25.346  148.7  0.0215   64.6  0.8509  -25.7
 0.125  0.6554  -58.3  25.086  147.5  0.0222   63.8  0.8426  -26.5
 0.130  0.6538  -60.3  24.835  146.4  0.0228   63.1  0.8345  -27.4
 0.135  0.6531  -62.4  24.595  145.2  0.0235   62.4  0.8266  -28.3
 0.140  0.6531  -64.4  24.364  144.0  0.0242   61.8  0.8189  -29.3
 0.145  0.6540  -66.5  24.145  142.8  0.0249   61.2  0.8114  -30.2
 0.150  0.6557  -68.5  23.936  141.6  0.0256   60.6  0.8042  -31.2
 0.155  0.6514  -70.1  23.646  140.8  0.0261   59.9  0.7955  -31.8
 0.160  0.6476  -71.7  23.360  140.0  0.0265   59.2  0.7869  -32.4
 0.165  0.6444  -73.4  23.080  139.1  0.0270   58.5  0.7784  -33.0
 0.170  0.6417  -75.1  22.804  138.3  0.0275   57.9  0.7700  -33.6
 0.175  0.6395  -76.7  22.534  137.4  0.0280   57.2  0.7617  -34.2
 0.180  0.6379  -78.4  22.270  136.5  0.0284   56.6  0.7534  -34.9
 0.185  0.6369  -80.1  22.011  135.5  0.0289   56.0  0.7453  -35.5
 0.190  0.6364  -81.8  21.758  134.6  0.0294   55.5  0.7373  -36.2
 0.195  0.6365  -83.5  21.511  133.6  0.0299   54.9  0.7293  -36.9
 0.200  0.6371  -85.2  21.271  132.6  0.0304   54.4  0.7215  -37.6
 0.220  0.6295  -90.6  20.305  130.0  0.0319   52.3  0.6917  -39.5
 0.240  0.6276  -96.0  19.386  127.1  0.0333   50.4  0.6628  -41.5
 0.260  0.6245 -100.9  18.511  124.4  0.0347   48.9  0.6356  -43.3
 0.280  0.6189 -105.4  17.660  122.1  0.0358   47.6  0.6097  -44.7
 0.300  0.6172 -109.9  16.842  119.5  0.0369   46.5  0.5843  -46.2
 0.320  0.6101 -113.2  16.182  118.0  0.0376   45.7  0.5652  -47.0
 0.340  0.6050 -116.5  15.534  116.3  0.0384   44.9  0.5462  -47.9
 0.360  0.6020 -119.8  14.900  114.5  0.0391   44.1  0.5274  -48.9
 0.380  0.6010 -123.2  14.282  112.5  0.0398   43.4  0.5087  -49.9
 0.400  0.6022 -126.6  13.683  110.4  0.0406   42.7  0.4902  -51.0
 0.420  0.5985 -129.0  13.217  109.2  0.0412   42.4  0.4772  -51.5
 0.440  0.5958 -131.4  12.758  108.0  0.0418   42.1  0.4643  -52.0
 0.450  0.5949 -132.6  12.531  107.3  0.0421   42.0  0.4578  -52.2
 0.460  0.5942 -133.8  12.305  106.6  0.0425   41.8  0.4514  -52.5
 0.480  0.5936 -136.2  11.859  105.2  0.0431   41.6  0.4385  -53.0
 0.500  0.5941 -138.6  11.422  103.6  0.0437   41.3  0.4257  -53.6
 0.520  0.5924 -140.4  11.079  102.7  0.0442   41.2  0.4166  -53.9
 0.540  0.5913 -142.2  10.739  101.7  0.0446   41.0  0.4075  -54.2
 0.560  0.5908 -144.0  10.402  100.6  0.0451   40.9  0.3985  -54.6
 0.580  0.5908 -145.8  10.069   99.5  0.0455   40.7  0.3894  -54.9
 0.600  0.5915 -147.6   9.740   98.3  0.0460   40.6  0.3804  -55.3
 0.620  0.5904 -149.1   9.493   97.5  0.0465   40.7  0.3739  -55.5
 0.640  0.5896 -150.6   9.248   96.7  0.0469   40.7  0.3673  -55.7
 0.660  0.5892 -152.0   9.005   95.9  0.0474   40.8  0.3608  -55.9
 0.680  0.5893 -153.5   8.765   95.0  0.0478   40.8  0.3543  -56.1
 0.700  0.5897 -155.0   8.526   94.0  0.0483   40.9  0.3478  -56.3
 0.720  0.5884 -156.2   8.318   93.3  0.0488   41.0  0.3431  -56.5
 0.740  0.5874 -157.4   8.111   92.6  0.0493   41.1  0.3383  -56.6
 0.760  0.5867 -158.5   7.905   91.8  0.0499   41.1  0.3336  -56.8
 0.780  0.5862 -159.7   7.701   91.0  0.0504   41.2  0.3288  -57.0
 0.800  0.5859 -160.9   7.498   90.2  0.0509   41.3  0.3241  -57.2
 0.820  0.5860 -161.9   7.341   89.6  0.0514   41.5  0.3204  -57.4
 0.840  0.5863 -162.9   7.185   89.0  0.0519   41.6  0.3167  -57.5
 0.860  0.5867 -164.0   7.030   88.3  0.0525   41.8  0.3131  -57.7
 0.880  0.5874 -165.0   6.875   87.6  0.0530   41.9  0.3094  -57.8
 0.900  0.5882 -166.0   6.722   86.9  0.0535   42.1  0.3057  -58.0
 0.920  0.5877 -166.9   6.590   86.3  0.0539   42.2  0.3032  -58.2
 0.940  0.5874 -167.7   6.458   85.8  0.0544   42.4  0.3008  -58.4
 0.960  0.5871 -168.6   6.327   85.2  0.0548   42.5  0.2983  -58.5
 0.980  0.5871 -169.4   6.197   84.6  0.0553   42.7  0.2959  -58.7
 1.000  0.5871 -170.3   6.068   83.9  0.0557   42.8  0.2934  -58.9
 1.020  0.5876 -171.1   5.967   83.4  0.0562   43.0  0.2913  -59.1
 1.040  0.5883 -171.8   5.867   82.8  0.0567   43.2  0.2891  -59.2
 1.060  0.5890 -172.6   5.767   82.3  0.0573   43.3  0.2870  -59.4
 1.080  0.5899 -173.3   5.668   81.7  0.0578   43.5  0.2848  -59.5
 1.100  0.5908 -174.1   5.569   81.1  0.0583   43.7  0.2827  -59.7
 1.120  0.5909 -174.8   5.476   80.6  0.0588   43.8  0.2811  -59.9
 1.140  0.5910 -175.6   5.384   80.0  0.0593   43.9  0.2795  -60.1
 1.160  0.5913 -176.3   5.292   79.5  0.0597   44.0  0.2779  -60.2
 1.180  0.5916 -177.1   5.201   78.9  0.0602   44.1  0.2763  -60.4
 1.200  0.5921 -177.8   5.110   78.3  0.0607   44.2  0.2747  -60.6
 1.220  0.5917 -178.4   5.034   77.8  0.0612   44.4  0.2735  -60.8
 1.240  0.5913 -179.0   4.958   77.3  0.0618   44.5  0.2722  -61.0
 1.260  0.5910 -179.7   4.883   76.8  0.0623   44.7  0.2710  -61.1
 1.280  0.5908  179.7   4.808   76.3  0.0629   44.8  0.2697  -61.3
 1.300  0.5906  179.1   4.733   75.7  0.0634   45.0  0.2685  -61.5
 1.320  0.5910  178.5   4.668   75.3  0.0640   45.1  0.2677  -61.7
 1.340  0.5914  178.0   4.604   74.8  0.0646   45.2  0.2668  -61.9
 1.360  0.5919  177.4   4.540   74.4  0.0651   45.4  0.2660  -62.2
 1.380  0.5924  176.9   4.476   73.9  0.0657   45.5  0.2652  -62.4
 1.400  0.5930  176.3   4.412   73.4  0.0663   45.6  0.2644  -62.6
 1.420  0.5934  175.7   4.355   73.0  0.0668   45.7  0.2636  -62.8
 1.440  0.5938  175.1   4.298   72.5  0.0673   45.8  0.2627  -63.0
 1.460  0.5943  174.6   4.241   72.1  0.0679   46.0  0.2619  -63.3
 1.480  0.5948  174.0   4.185   71.6  0.0684   46.1  0.2610  -63.5
 1.500  0.5954  173.4   4.129   71.1  0.0689   46.2  0.2602  -63.7
 1.520  0.5958  172.8   4.079   70.6  0.0695   46.3  0.2596  -63.9
 1.540  0.5963  172.2   4.030   70.2  0.0701   46.4  0.2590  -64.2
 1.560  0.5968  171.7   3.981   69.7  0.0706   46.5  0.2584  -64.4
 1.580  0.5974  171.1   3.932   69.2  0.0712   46.6  0.2579  -64.7
 1.600  0.5980  170.5   3.883   68.7  0.0718   46.7  0.2573  -64.9
 1.620  0.5981  170.0   3.839   68.3  0.0723   46.8  0.2568  -65.2
 1.640  0.5983  169.5   3.795   67.9  0.0728   46.9  0.2563  -65.5
 1.660  0.5985  169.1   3.752   67.5  0.0734   47.1  0.2558  -65.7
 1.680  0.5988  168.6   3.708   67.0  0.0739   47.2  0.2553  -66.0
 1.700  0.5991  168.1   3.665   66.6  0.0744   47.3  0.2548  -66.3
 1.720  0.5996  167.6   3.624   66.2  0.0750   47.4  0.2546  -66.5
 1.740  0.6002  167.1   3.583   65.7  0.0756   47.4  0.2544  -66.8
 1.760  0.6008  166.6   3.543   65.3  0.0763   47.5  0.2542  -67.0
 1.780  0.6014  166.1   3.502   64.9  0.0769   47.5  0.2540  -67.3
 1.800  0.6021  165.6   3.462   64.4  0.0775   47.6  0.2538  -67.5
 1.820  0.6018  165.1   3.425   64.0  0.0781   47.6  0.2537  -67.8
 1.840  0.6016  164.6   3.389   63.5  0.0787   47.7  0.2537  -68.0
 1.860  0.6014  164.1   3.353   63.1  0.0793   47.7  0.2536  -68.3
 1.880  0.6013  163.6   3.317   62.7  0.0799   47.8  0.2535  -68.5
 1.900  0.6012  163.1   3.281   62.2  0.0805   47.8  0.2535  -68.8
 1.920  0.6020  162.7   3.250   61.8  0.0811   47.9  0.2533  -69.1
 1.940  0.6028  162.3   3.219   61.4  0.0816   47.9  0.2531  -69.4
 1.960  0.6037  161.8   3.188   61.0  0.0822   48.0  0.2529  -69.8
 1.980  0.6046  161.4   3.157   60.6  0.0827   48.0  0.2527  -70.1
 2.000  0.6055  161.0   3.127   60.2  0.0833   48.1  0.2525  -70.4
 2.020  0.6059  160.6   3.099   59.8  0.0839   48.1  0.2524  -70.7
 2.040  0.6064  160.2   3.072   59.4  0.0845   48.1  0.2524  -71.0
 2.060  0.6068  159.7   3.044   59.0  0.0851   48.1  0.2523  -71.3
 2.080  0.6073  159.3   3.017   58.6  0.0857   48.1  0.2523  -71.6
 2.100  0.6079  158.9   2.990   58.2  0.0863   48.1  0.2522  -71.9
 2.120  0.6085  158.5   2.963   57.8  0.0870   48.1  0.2522  -72.2
 2.140  0.6091  158.1   2.936   57.4  0.0876   48.1  0.2521  -72.5
 2.160  0.6097  157.6   2.910   57.0  0.0882   48.1  0.2521  -72.8
 2.180  0.6104  157.2   2.883   56.5  0.0888   48.1  0.2521  -73.1
 2.200  0.6111  156.8   2.857   56.1  0.0894   48.1  0.2521  -73.4
 2.220  0.6113  156.4   2.833   55.7  0.0900   48.1  0.2520  -73.8
 2.240  0.6116  156.0   2.809   55.4  0.0906   48.1  0.2520  -74.1
 2.260  0.6119  155.5   2.785   55.0  0.0913   48.1  0.2519  -74.5
 2.280  0.6122  155.1   2.761   54.6  0.0919   48.1  0.2519  -74.8
 2.300  0.6126  154.7   2.737   54.2  0.0925   48.1  0.2518  -75.2
 2.320  0.6130  154.3   2.714   53.8  0.0931   48.1  0.2518  -75.6
 2.340  0.6134  153.9   2.690   53.4  0.0937   48.1  0.2518  -75.9
 2.360  0.6139  153.4   2.667   53.0  0.0944   48.1  0.2518  -76.3
 2.380  0.6144  153.0   2.644   52.5  0.0950   48.1  0.2518  -76.6
 2.400  0.6149  152.6   2.621   52.1  0.0956   48.1  0.2518  -77.0
 2.420  0.6153  152.2   2.601   51.7  0.0962   48.1  0.2519  -77.4
 2.440  0.6158  151.8   2.581   51.4  0.0968   48.1  0.2519  -77.7
 2.460  0.6162  151.4   2.561   51.0  0.0974   48.1  0.2520  -78.1
 2.480  0.6168  151.0   2.541   50.6  0.0980   48.1  0.2521  -78.4
 2.500  0.6173  150.6   2.522   50.2  0.0986   48.0  0.2522  -78.8
 2.520  0.6179  150.3   2.502   49.8  0.0993   48.0  0.2523  -79.1
 2.540  0.6185  149.9   2.483   49.4  0.0999   48.0  0.2525  -79.5
 2.560  0.6191  149.5   2.463   49.0  0.1005   48.0  0.2526  -79.8
 2.580  0.6197  149.1   2.444   48.6  0.1011   48.0  0.2527  -80.2
 2.600  0.6204  148.7   2.425   48.2  0.1017   48.0  0.2529  -80.5
 2.620  0.6212  148.3   2.408   47.9  0.1023   47.9  0.2529  -80.9
 2.640  0.6220  148.0   2.390   47.5  0.1030   47.9  0.2529  -81.3
 2.660  0.6229  147.6   2.373   47.2  0.1036   47.8  0.2530  -81.6
 2.680  0.6238  147.2   2.356   46.8  0.1042   47.8  0.2530  -82.0
 2.700  0.6247  146.8   2.339   46.5  0.1048   47.7  0.2531  -82.4
 2.720  0.6256  146.5   2.322   46.1  0.1055   47.7  0.2531  -82.8
 2.740  0.6266  146.1   2.305   45.7  0.1061   47.6  0.2532  -83.2
 2.760  0.6276  145.7   2.288   45.4  0.1067   47.6  0.2533  -83.5
 2.780  0.6286  145.4   2.272   45.0  0.1074   47.5  0.2534  -83.9
 2.800  0.6296  145.0   2.255   44.6  0.1080   47.5  0.2535  -84.3
 2.820  0.6303  144.6   2.240   44.3  0.1086   47.4  0.2537  -84.7
 2.840  0.6311  144.3   2.224   43.9  0.1093   47.4  0.2539  -85.1
 2.860  0.6319  143.9   2.209   43.5  0.1099   47.3  0.2541  -85.5
 2.880  0.6327  143.6   2.194   43.2  0.1106   47.3  0.2543  -85.9
 2.900  0.6336  143.2   2.179   42.8  0.1112   47.2  0.2545  -86.3
 2.920  0.6344  142.9   2.165   42.4  0.1119   47.2  0.2547  -86.7
 2.940  0.6353  142.5   2.150   42.1  0.1125   47.1  0.2550  -87.1
 2.960  0.6362  142.2   2.135   41.7  0.1132   47.1  0.2552  -87.5
 2.980  0.6371  141.8   2.120   41.3  0.1138   47.0  0.2555  -87.9
 3.000  0.6381  141.5   2.106   40.9  0.1145   47.0  0.2558  -88.3
 3.100  0.6412  139.7   2.044   39.2  0.1176   46.6  0.2570  -90.4
 3.200  0.6450  137.9   1.984   37.3  0.1207   46.3  0.2585  -92.5
 3.300  0.6492  136.2   1.925   35.5  0.1239   45.9  0.2604  -94.7
 3.400  0.6540  134.5   1.868   33.5  0.1271   45.5  0.2626  -96.8
 3.500  0.6594  133.0   1.814   31.9  0.1301   45.2  0.2640  -99.0
 3.600  0.6653  131.5   1.761   30.2  0.1331   44.9  0.2658 -101.2
 3.700  0.6669  129.8   1.709   28.5  0.1356   44.3  0.2676 -103.6
 3.800  0.6691  128.2   1.659   26.7  0.1381   43.7  0.2699 -105.9
 3.900  0.6759  127.0   1.620   25.1  0.1417   43.4  0.2735 -108.3
 4.000  0.6829  125.8   1.583   23.4  0.1453   43.1  0.2775 -110.7
 4.100  0.6856  124.5   1.544   21.9  0.1483   42.5  0.2807 -113.1
 4.200  0.6886  123.1   1.506   20.4  0.1513   42.0  0.2845 -115.5
 4.300  0.6920  121.8   1.470   18.7  0.1544   41.5  0.2887 -117.8
 4.400  0.6958  120.5   1.434   17.0  0.1574   41.0  0.2933 -120.0
 4.500  0.6999  119.2   1.400   15.2  0.1605   40.5  0.2984 -122.2
 4.600  0.7016  118.1   1.367   13.9  0.1634   39.9  0.3030 -124.4
 4.700  0.7036  117.1   1.334   12.5  0.1664   39.4  0.3080 -126.5
 4.800  0.7058  116.0   1.303   11.1  0.1693   38.9  0.3134 -128.5
 4.900  0.7083  114.9   1.272    9.6  0.1723   38.4  0.3192 -130.5
 5.000  0.7110  113.9   1.242    8.0  0.1753   37.9  0.3254 -132.4
 5.100  0.7123  113.0   1.216    6.8  0.1782   37.3  0.3306 -134.2
 5.200  0.7137  112.2   1.191    5.4  0.1812   36.7  0.3362 -136.0
 5.300  0.7153  111.3   1.167    4.1  0.1842   36.2  0.3421 -137.7
 5.400  0.7170  110.5   1.143    2.7  0.1872   35.6  0.3483 -139.3
 5.500  0.7189  109.6   1.120    1.2  0.1902   35.1  0.3547 -140.9
 5.600  0.7201  108.8   1.099    0.1  0.1932   34.6  0.3603 -142.4
 5.700  0.7215  108.0   1.078   -1.1  0.1962   34.2  0.3662 -143.8
 5.800  0.7230  107.2   1.057   -2.4  0.1992   33.7  0.3723 -145.2
 5.900  0.7246  106.4   1.037   -3.7  0.2022   33.3  0.3787 -146.6
 6.000  0.7264  105.6   1.018   -5.0  0.2052   32.9  0.3852 -147.9
!
!  f       NFmin   Gammaopt  rn/50
! GHz       dB    MAG  ANG    -
!
! noise parameter not available yet for this operation point!
!
! (c) 2016  Infineon Technologies AG, Munich
