! Infineon Technologies  Discrete & RF Semiconductors
! BFP193
! VCE = 3.5 V,  IC =  60 mA
! Common Emitter S-Parameters:                            Jan 2016
# GHz  S  MA  R  50
!  f         S11            S21            S12            S22
! GHz     MAG   ANG      MAG   ANG      MAG   ANG      MAG   ANG
 0.010  0.2737  -26.0  63.033  171.3  0.0025   77.1  0.8767   -8.2
 0.015  0.2778  -37.5  61.297  166.8  0.0036   74.3  0.8618  -12.1
 0.020  0.2926  -48.3  59.966  162.0  0.0047   72.8  0.8512  -16.2
 0.025  0.2937  -57.2  57.869  159.2  0.0057   70.5  0.8223  -19.1
 0.030  0.3017  -65.9  55.923  156.1  0.0068   68.9  0.7956  -22.1
 0.035  0.3161  -73.9  54.147  152.9  0.0078   67.8  0.7714  -25.4
 0.040  0.3362  -81.1  52.556  149.4  0.0089   66.9  0.7498  -28.8
 0.045  0.3609  -87.4  51.169  145.7  0.0099   66.2  0.7310  -32.5
 0.050  0.3894  -92.8  50.001  141.9  0.0110   65.6  0.7154  -36.3
 0.055  0.3899  -97.1  48.293  140.5  0.0116   64.5  0.6917  -37.8
 0.060  0.3927 -101.4  46.617  138.9  0.0122   63.5  0.6684  -39.3
 0.065  0.3976 -105.5  44.976  137.3  0.0128   62.6  0.6457  -41.0
 0.070  0.4045 -109.6  43.376  135.5  0.0135   61.7  0.6236  -42.7
 0.075  0.4134 -113.5  41.820  133.6  0.0141   61.0  0.6021  -44.7
 0.080  0.4241 -117.2  40.315  131.6  0.0147   60.3  0.5813  -46.7
 0.085  0.4365 -120.8  38.864  129.4  0.0153   59.6  0.5613  -48.9
 0.090  0.4505 -124.1  37.476  127.0  0.0159   59.0  0.5422  -51.3
 0.095  0.4659 -127.2  36.156  124.4  0.0166   58.5  0.5241  -53.8
 0.100  0.4826 -130.1  34.914  121.7  0.0172   58.0  0.5071  -56.5
 0.105  0.4844 -131.9  33.934  120.9  0.0176   57.8  0.4935  -57.3
 0.110  0.4866 -133.7  32.961  120.0  0.0180   57.7  0.4801  -58.1
 0.115  0.4893 -135.5  31.997  119.0  0.0184   57.5  0.4667  -59.0
 0.120  0.4925 -137.2  31.042  118.0  0.0188   57.4  0.4535  -59.9
 0.125  0.4961 -139.0  30.098  116.9  0.0191   57.2  0.4404  -60.8
 0.130  0.5002 -140.7  29.165  115.8  0.0195   57.1  0.4274  -61.9
 0.135  0.5047 -142.4  28.244  114.6  0.0199   57.0  0.4146  -63.0
 0.140  0.5096 -144.0  27.337  113.3  0.0203   56.8  0.4019  -64.1
 0.145  0.5150 -145.6  26.445  111.9  0.0207   56.7  0.3894  -65.4
 0.150  0.5207 -147.2  25.569  110.4  0.0211   56.6  0.3771  -66.7
 0.155  0.5221 -148.2  25.004  109.9  0.0214   56.7  0.3693  -67.2
 0.160  0.5237 -149.2  24.441  109.3  0.0217   56.8  0.3616  -67.8
 0.165  0.5254 -150.2  23.881  108.7  0.0220   57.0  0.3539  -68.3
 0.170  0.5273 -151.2  23.323  108.1  0.0223   57.1  0.3462  -68.9
 0.175  0.5293 -152.2  22.768  107.4  0.0226   57.2  0.3385  -69.5
 0.180  0.5315 -153.2  22.217  106.7  0.0230   57.3  0.3309  -70.2
 0.185  0.5339 -154.1  21.669  106.0  0.0233   57.4  0.3234  -70.9
 0.190  0.5364 -155.1  21.124  105.2  0.0236   57.5  0.3159  -71.6
 0.195  0.5390 -156.1  20.583  104.4  0.0239   57.6  0.3084  -72.3
 0.200  0.5418 -157.0  20.047  103.6  0.0242   57.7  0.3010  -73.1
 0.220  0.5422 -160.0  18.519  101.9  0.0256   58.3  0.2797  -74.7
 0.240  0.5442 -163.0  17.010   99.9  0.0270   58.9  0.2587  -76.5
 0.260  0.5472 -165.4  15.752   98.1  0.0284   59.7  0.2418  -78.1
 0.280  0.5507 -167.3  14.731   96.7  0.0297   60.6  0.2289  -79.4
 0.300  0.5547 -169.1  13.720   95.2  0.0311   61.4  0.2162  -80.8
 0.320  0.5552 -170.8  13.058   94.4  0.0326   61.9  0.2072  -81.6
 0.340  0.5562 -172.4  12.400   93.4  0.0341   62.4  0.1982  -82.5
 0.360  0.5576 -174.0  11.745   92.4  0.0356   62.8  0.1892  -83.5
 0.380  0.5595 -175.7  11.094   91.3  0.0371   63.2  0.1803  -84.5
 0.400  0.5618 -177.3  10.448   90.0  0.0386   63.6  0.1715  -85.7
 0.420  0.5622 -178.3  10.032   89.3  0.0401   63.9  0.1663  -86.4
 0.440  0.5628 -179.4   9.618   88.5  0.0415   64.2  0.1612  -87.1
 0.450  0.5632 -179.9   9.412   88.0  0.0422   64.4  0.1586  -87.5
 0.460  0.5636  179.6   9.206   87.6  0.0430   64.5  0.1561  -87.9
 0.480  0.5646  178.5   8.796   86.6  0.0444   64.8  0.1510  -88.7
 0.500  0.5658  177.5   8.389   85.6  0.0459   65.0  0.1459  -89.6
 0.520  0.5653  176.6   8.112   84.9  0.0474   65.1  0.1430  -90.2
 0.540  0.5650  175.6   7.836   84.2  0.0489   65.1  0.1402  -90.9
 0.560  0.5649  174.7   7.561   83.4  0.0505   65.2  0.1373  -91.6
 0.580  0.5649  173.7   7.288   82.5  0.0520   65.2  0.1345  -92.3
 0.600  0.5650  172.8   7.017   81.6  0.0535   65.3  0.1317  -93.1
 0.620  0.5666  171.8   6.819   80.9  0.0551   65.4  0.1297  -93.7
 0.640  0.5683  170.9   6.622   80.3  0.0567   65.5  0.1277  -94.4
 0.660  0.5702  169.9   6.426   79.5  0.0582   65.6  0.1257  -95.1
 0.680  0.5723  168.9   6.231   78.7  0.0598   65.7  0.1237  -95.8
 0.700  0.5745  168.0   6.037   77.9  0.0614   65.8  0.1218  -96.5
 0.720  0.5751  167.3   5.888   77.3  0.0629   65.7  0.1204  -97.1
 0.740  0.5757  166.6   5.739   76.8  0.0645   65.5  0.1190  -97.7
 0.760  0.5764  166.0   5.590   76.1  0.0660   65.4  0.1177  -98.4
 0.780  0.5772  165.3   5.443   75.5  0.0676   65.3  0.1163  -99.0
 0.800  0.5781  164.6   5.296   74.8  0.0691   65.2  0.1150  -99.7
 0.820  0.5766  163.8   5.178   74.3  0.0708   65.1  0.1140 -100.2
 0.840  0.5752  163.1   5.060   73.7  0.0725   65.0  0.1130 -100.7
 0.860  0.5738  162.3   4.942   73.1  0.0741   64.9  0.1120 -101.2
 0.880  0.5726  161.6   4.825   72.5  0.0758   64.8  0.1110 -101.8
 0.900  0.5715  160.8   4.709   71.8  0.0775   64.7  0.1100 -102.3
 0.920  0.5732  160.0   4.618   71.3  0.0790   64.6  0.1096 -102.9
 0.940  0.5750  159.2   4.526   70.7  0.0805   64.4  0.1093 -103.4
 0.960  0.5769  158.4   4.436   70.1  0.0819   64.3  0.1089 -104.0
 0.980  0.5789  157.7   4.346   69.5  0.0834   64.2  0.1086 -104.6
 1.000  0.5810  156.9   4.256   68.9  0.0849   64.1  0.1083 -105.2
 1.020  0.5818  156.2   4.181   68.4  0.0865   63.9  0.1081 -105.9
 1.040  0.5826  155.5   4.106   67.8  0.0881   63.7  0.1079 -106.6
 1.060  0.5836  154.9   4.031   67.2  0.0896   63.5  0.1077 -107.3
 1.080  0.5846  154.2   3.957   66.6  0.0912   63.4  0.1075 -108.0
 1.100  0.5857  153.5   3.883   66.0  0.0928   63.2  0.1074 -108.7
 1.120  0.5867  152.9   3.819   65.5  0.0943   63.1  0.1072 -109.4
 1.140  0.5878  152.3   3.756   65.0  0.0959   63.0  0.1070 -110.0
 1.160  0.5890  151.6   3.693   64.4  0.0974   62.9  0.1068 -110.7
 1.180  0.5902  151.0   3.630   63.9  0.0990   62.8  0.1066 -111.3
 1.200  0.5915  150.4   3.568   63.3  0.1005   62.7  0.1064 -112.0
 1.220  0.5908  149.8   3.512   62.8  0.1020   62.4  0.1064 -112.5
 1.240  0.5902  149.2   3.455   62.2  0.1035   62.1  0.1064 -113.1
 1.260  0.5897  148.5   3.400   61.7  0.1050   61.8  0.1064 -113.6
 1.280  0.5892  147.9   3.344   61.1  0.1065   61.5  0.1064 -114.2
 1.300  0.5888  147.3   3.289   60.5  0.1080   61.2  0.1064 -114.7
 1.320  0.5902  146.7   3.242   60.0  0.1094   61.0  0.1068 -115.3
 1.340  0.5917  146.1   3.195   59.6  0.1109   60.8  0.1071 -115.8
 1.360  0.5933  145.6   3.149   59.1  0.1123   60.6  0.1075 -116.4
 1.380  0.5949  145.0   3.102   58.6  0.1138   60.5  0.1079 -116.9
 1.400  0.5966  144.4   3.056   58.1  0.1152   60.3  0.1083 -117.5
 1.420  0.5968  143.8   3.020   57.6  0.1168   60.0  0.1086 -118.1
 1.440  0.5971  143.2   2.984   57.1  0.1183   59.8  0.1089 -118.8
 1.460  0.5974  142.7   2.948   56.5  0.1199   59.6  0.1093 -119.4
 1.480  0.5978  142.1   2.913   56.0  0.1214   59.3  0.1096 -120.1
 1.500  0.5983  141.5   2.878   55.4  0.1230   59.1  0.1100 -120.7
 1.520  0.5999  140.9   2.838   54.9  0.1245   58.8  0.1102 -121.4
 1.540  0.6015  140.2   2.798   54.4  0.1260   58.6  0.1103 -122.1
 1.560  0.6032  139.6   2.758   53.8  0.1274   58.3  0.1105 -122.9
 1.580  0.6050  139.0   2.719   53.3  0.1289   58.0  0.1108 -123.6
 1.600  0.6069  138.4   2.680   52.7  0.1304   57.8  0.1110 -124.3
 1.620  0.6077  137.8   2.650   52.2  0.1318   57.6  0.1112 -125.0
 1.640  0.6085  137.3   2.620   51.7  0.1332   57.3  0.1114 -125.6
 1.660  0.6094  136.7   2.590   51.2  0.1346   57.1  0.1117 -126.3
 1.680  0.6104  136.2   2.560   50.6  0.1360   56.9  0.1119 -126.9
 1.700  0.6114  135.6   2.531   50.1  0.1374   56.7  0.1122 -127.6
 1.720  0.6121  135.0   2.506   49.7  0.1388   56.4  0.1128 -128.1
 1.740  0.6129  134.5   2.480   49.2  0.1402   56.1  0.1133 -128.7
 1.760  0.6138  133.9   2.455   48.8  0.1416   55.8  0.1139 -129.2
 1.780  0.6147  133.4   2.430   48.4  0.1431   55.6  0.1145 -129.7
 1.800  0.6157  132.8   2.405   47.9  0.1445   55.3  0.1151 -130.2
 1.820  0.6172  132.3   2.381   47.4  0.1460   55.0  0.1159 -131.0
 1.840  0.6187  131.8   2.356   46.9  0.1474   54.8  0.1168 -131.7
 1.860  0.6203  131.3   2.332   46.4  0.1489   54.5  0.1176 -132.5
 1.880  0.6219  130.8   2.309   45.9  0.1503   54.2  0.1185 -133.2
 1.900  0.6236  130.3   2.285   45.4  0.1518   54.0  0.1194 -133.9
 1.920  0.6244  129.8   2.261   44.9  0.1532   53.7  0.1198 -134.6
 1.940  0.6252  129.3   2.237   44.5  0.1546   53.5  0.1201 -135.4
 1.960  0.6261  128.7   2.213   44.0  0.1559   53.2  0.1205 -136.1
 1.980  0.6271  128.2   2.189   43.5  0.1573   53.0  0.1210 -136.9
 2.000  0.6281  127.7   2.165   43.0  0.1587   52.7  0.1214 -137.6
 2.020  0.6288  127.2   2.145   42.5  0.1601   52.4  0.1220 -138.3
 2.040  0.6296  126.7   2.125   42.1  0.1614   52.2  0.1227 -138.9
 2.060  0.6304  126.2   2.105   41.6  0.1628   51.9  0.1233 -139.6
 2.080  0.6312  125.7   2.085   41.1  0.1641   51.6  0.1240 -140.2
 2.100  0.6321  125.2   2.065   40.6  0.1655   51.4  0.1247 -140.8
 2.120  0.6331  124.7   2.045   40.1  0.1669   51.2  0.1254 -141.5
 2.140  0.6341  124.3   2.026   39.6  0.1683   50.9  0.1261 -142.1
 2.160  0.6351  123.8   2.007   39.1  0.1696   50.7  0.1268 -142.7
 2.180  0.6362  123.3   1.988   38.5  0.1710   50.4  0.1275 -143.3
 2.200  0.6373  122.8   1.969   38.0  0.1724   50.2  0.1283 -143.9
 2.220  0.6385  122.2   1.953   37.6  0.1737   49.9  0.1290 -144.7
 2.240  0.6397  121.7   1.938   37.1  0.1750   49.6  0.1298 -145.5
 2.260  0.6410  121.2   1.922   36.6  0.1763   49.3  0.1306 -146.2
 2.280  0.6423  120.6   1.907   36.2  0.1776   49.1  0.1314 -147.0
 2.300  0.6437  120.1   1.892   35.7  0.1790   48.8  0.1322 -147.8
 2.320  0.6452  119.5   1.877   35.2  0.1803   48.5  0.1331 -148.5
 2.340  0.6467  119.0   1.862   34.7  0.1816   48.3  0.1339 -149.3
 2.360  0.6483  118.5   1.847   34.2  0.1829   48.0  0.1348 -150.0
 2.380  0.6499  117.9   1.832   33.7  0.1843   47.8  0.1358 -150.7
 2.400  0.6516  117.4   1.818   33.2  0.1856   47.5  0.1367 -151.4
 2.420  0.6525  116.9   1.803   32.8  0.1868   47.2  0.1375 -152.1
 2.440  0.6534  116.4   1.788   32.4  0.1880   46.9  0.1383 -152.7
 2.460  0.6543  115.9   1.774   32.0  0.1892   46.6  0.1392 -153.4
 2.480  0.6553  115.5   1.759   31.5  0.1904   46.3  0.1400 -154.1
 2.500  0.6564  115.0   1.745   31.1  0.1916   46.1  0.1409 -154.7
 2.520  0.6575  114.5   1.730   30.6  0.1928   45.8  0.1418 -155.3
 2.540  0.6586  114.0   1.716   30.2  0.1940   45.5  0.1427 -156.0
 2.560  0.6598  113.5   1.702   29.7  0.1952   45.2  0.1437 -156.6
 2.580  0.6610  113.1   1.688   29.3  0.1965   45.0  0.1446 -157.2
 2.600  0.6623  112.6   1.674   28.8  0.1977   44.7  0.1456 -157.8
 2.620  0.6632  112.1   1.662   28.4  0.1988   44.4  0.1466 -158.5
 2.640  0.6642  111.7   1.650   28.0  0.2000   44.2  0.1477 -159.3
 2.660  0.6652  111.2   1.639   27.6  0.2011   43.9  0.1488 -160.0
 2.680  0.6663  110.7   1.627   27.2  0.2022   43.6  0.1499 -160.7
 2.700  0.6674  110.3   1.615   26.8  0.2034   43.4  0.1510 -161.4
 2.720  0.6686  109.8   1.604   26.4  0.2046   43.1  0.1522 -162.1
 2.740  0.6698  109.4   1.593   25.9  0.2057   42.8  0.1534 -162.7
 2.760  0.6710  108.9   1.581   25.5  0.2069   42.6  0.1545 -163.4
 2.780  0.6723  108.5   1.570   25.0  0.2080   42.3  0.1558 -164.1
 2.800  0.6736  108.0   1.559   24.6  0.2092   42.1  0.1570 -164.7
 2.820  0.6748  107.6   1.548   24.2  0.2104   41.8  0.1581 -165.3
 2.840  0.6759  107.1   1.537   23.8  0.2116   41.6  0.1592 -165.9
 2.860  0.6772  106.7   1.526   23.3  0.2128   41.3  0.1604 -166.5
 2.880  0.6784  106.3   1.515   22.9  0.2140   41.0  0.1615 -167.1
 2.900  0.6797  105.9   1.504   22.4  0.2152   40.8  0.1627 -167.7
 2.920  0.6811  105.5   1.494   22.0  0.2164   40.5  0.1639 -168.2
 2.940  0.6825  105.0   1.483   21.5  0.2176   40.2  0.1651 -168.8
 2.960  0.6839  104.6   1.473   21.1  0.2188   40.0  0.1663 -169.3
 2.980  0.6853  104.2   1.462   20.6  0.2201   39.7  0.1675 -169.9
 3.000  0.6868  103.8   1.452   20.1  0.2213   39.5  0.1688 -170.4
 3.100  0.6917  101.9   1.406   18.5  0.2262   38.2  0.1750 -173.4
 3.200  0.6974  100.0   1.361   16.7  0.2313   36.9  0.1816 -176.2
 3.300  0.7039   98.1   1.317   14.8  0.2365   35.7  0.1887 -178.8
 3.400  0.7110   96.3   1.275   12.8  0.2417   34.5  0.1961  178.8
 3.500  0.7189   94.5   1.235   10.7  0.2471   33.4  0.2038  176.6
 3.600  0.7227   92.8   1.202    9.1  0.2518   32.1  0.2117  174.2
 3.700  0.7271   91.1   1.170    7.5  0.2566   30.8  0.2200  171.9
 3.800  0.7321   89.5   1.139    5.7  0.2616   29.5  0.2286  169.8
 3.900  0.7378   87.8   1.109    3.9  0.2666   28.3  0.2375  167.9
 4.000  0.7440   86.2   1.080    1.9  0.2718   27.2  0.2466  166.1
 4.100  0.7482   84.7   1.055    0.5  0.2758   25.9  0.2538  164.1
 4.200  0.7528   83.3   1.030   -1.0  0.2800   24.7  0.2613  162.2
 4.300  0.7579   81.8   1.006   -2.6  0.2843   23.5  0.2691  160.5
 4.400  0.7635   80.4   0.982   -4.2  0.2888   22.3  0.2771  158.8
 4.500  0.7696   79.0   0.960   -5.9  0.2933   21.2  0.2853  157.2
 4.600  0.7720   77.8   0.941   -7.2  0.2969   20.1  0.2921  155.6
 4.700  0.7747   76.5   0.922   -8.5  0.3005   19.0  0.2991  154.1
 4.800  0.7778   75.3   0.904   -9.9  0.3043   17.9  0.3063  152.7
 4.900  0.7813   74.1   0.886  -11.3  0.3082   16.9  0.3137  151.3
 5.000  0.7851   72.9   0.869  -12.8  0.3122   15.9  0.3213  150.0
 5.100  0.7882   71.7   0.851  -13.9  0.3158   14.8  0.3278  148.4
 5.200  0.7916   70.5   0.834  -15.0  0.3195   13.7  0.3346  146.9
 5.300  0.7953   69.4   0.817  -16.2  0.3234   12.6  0.3415  145.5
 5.400  0.7994   68.2   0.800  -17.4  0.3273   11.6  0.3487  144.1
 5.500  0.8038   67.1   0.784  -18.7  0.3314   10.6  0.3561  142.8
 5.600  0.8051   66.0   0.772  -19.8  0.3348    9.4  0.3623  141.5
 5.700  0.8066   65.0   0.761  -21.0  0.3383    8.3  0.3686  140.2
 5.800  0.8084   63.9   0.749  -22.1  0.3419    7.2  0.3751  139.0
 5.900  0.8105   62.8   0.739  -23.3  0.3457    6.1  0.3818  137.8
 6.000  0.8129   61.8   0.728  -24.6  0.3496    5.0  0.3887  136.6
!
!  f       NFmin   Gammaopt  rn/50
! GHz       dB    MAG  ANG    -
!
! noise parameter not available yet for this operation point!
!
! (c) 2016  Infineon Technologies AG, Munich
