! Infineon Technologies  Discrete & RF Semiconductors
! BFP181
! VCE = 3.0 V,  IC =  60 mA
! Common Emitter S-Parameters:                            Jan 2016
# GHz  S  MA  R  50
!  f         S11            S21            S12            S22
! GHz     MAG   ANG      MAG   ANG      MAG   ANG      MAG   ANG
 0.010  0.9788   -0.8   2.151  179.7  0.0013   84.3  0.9992   -0.3
 0.015  0.9819   -1.0   2.163  179.7  0.0020   83.3  0.9989   -0.4
 0.020  0.9851   -1.2   2.175  179.7  0.0028   82.9  0.9987   -0.5
 0.025  0.9835   -1.5   2.176  179.3  0.0036   85.5  0.9984   -0.7
 0.030  0.9820   -1.7   2.177  178.9  0.0044   87.3  0.9981   -0.8
 0.035  0.9805   -2.0   2.178  178.5  0.0051   88.4  0.9979   -1.0
 0.040  0.9789   -2.3   2.179  178.1  0.0059   89.3  0.9976   -1.2
 0.045  0.9775   -2.5   2.181  177.7  0.0067   90.0  0.9973   -1.3
 0.050  0.9760   -2.8   2.182  177.3  0.0075   90.5  0.9971   -1.5
 0.055  0.9752   -3.1   2.176  177.0  0.0081   89.5  0.9971   -1.6
 0.060  0.9744   -3.4   2.171  176.8  0.0087   88.6  0.9970   -1.8
 0.065  0.9737   -3.8   2.165  176.5  0.0094   87.9  0.9970   -1.9
 0.070  0.9730   -4.1   2.159  176.2  0.0100   87.2  0.9969   -2.1
 0.075  0.9723   -4.4   2.154  176.0  0.0106   86.7  0.9969   -2.2
 0.080  0.9716   -4.7   2.148  175.7  0.0113   86.2  0.9969   -2.3
 0.085  0.9710   -5.0   2.143  175.4  0.0119   85.7  0.9969   -2.5
 0.090  0.9704   -5.4   2.138  175.2  0.0125   85.3  0.9969   -2.6
 0.095  0.9698   -5.7   2.132  174.9  0.0132   84.9  0.9969   -2.8
 0.100  0.9693   -6.0   2.127  174.6  0.0138   84.6  0.9969   -2.9
 0.105  0.9697   -6.3   2.130  174.3  0.0146   84.4  0.9968   -3.0
 0.110  0.9702   -6.6   2.133  174.0  0.0153   84.2  0.9967   -3.2
 0.115  0.9706   -6.9   2.135  173.7  0.0161   84.1  0.9966   -3.3
 0.120  0.9711   -7.2   2.138  173.4  0.0168   83.9  0.9965   -3.4
 0.125  0.9716   -7.6   2.141  173.1  0.0176   83.8  0.9964   -3.5
 0.130  0.9722   -7.9   2.144  172.9  0.0184   83.7  0.9964   -3.7
 0.135  0.9728   -8.2   2.147  172.6  0.0191   83.6  0.9963   -3.8
 0.140  0.9734   -8.5   2.151  172.3  0.0199   83.5  0.9962   -3.9
 0.145  0.9740   -8.8   2.154  172.0  0.0206   83.4  0.9962   -4.1
 0.150  0.9747   -9.1   2.157  171.7  0.0214   83.3  0.9961   -4.2
 0.155  0.9742   -9.4   2.156  171.4  0.0221   83.1  0.9959   -4.3
 0.160  0.9737   -9.7   2.156  171.1  0.0228   82.9  0.9957   -4.5
 0.165  0.9732  -10.0   2.155  170.8  0.0235   82.7  0.9955   -4.6
 0.170  0.9728  -10.3   2.155  170.5  0.0242   82.5  0.9954   -4.8
 0.175  0.9724  -10.6   2.154  170.3  0.0249   82.4  0.9952   -4.9
 0.180  0.9720  -10.9   2.154  170.0  0.0256   82.2  0.9951   -5.1
 0.185  0.9716  -11.2   2.154  169.7  0.0263   82.1  0.9949   -5.2
 0.190  0.9713  -11.5   2.153  169.4  0.0270   82.0  0.9948   -5.4
 0.195  0.9710  -11.8   2.153  169.1  0.0277   81.8  0.9946   -5.5
 0.200  0.9707  -12.1   2.153  168.8  0.0284   81.7  0.9945   -5.7
 0.220  0.9684  -13.3   2.141  167.7  0.0312   81.1  0.9928   -6.3
 0.240  0.9665  -14.4   2.130  166.6  0.0339   80.5  0.9912   -6.9
 0.260  0.9645  -15.6   2.130  165.7  0.0367   79.6  0.9904   -7.5
 0.280  0.9626  -16.8   2.139  164.8  0.0395   78.3  0.9903   -8.0
 0.300  0.9610  -18.0   2.149  164.0  0.0423   77.2  0.9903   -8.5
 0.320  0.9581  -19.2   2.146  162.7  0.0450   76.3  0.9888   -9.1
 0.340  0.9557  -20.4   2.144  161.4  0.0477   75.5  0.9874   -9.6
 0.360  0.9536  -21.6   2.143  160.2  0.0504   74.8  0.9861  -10.2
 0.380  0.9520  -22.8   2.143  158.9  0.0531   74.2  0.9848  -10.7
 0.400  0.9508  -24.0   2.144  157.6  0.0558   73.6  0.9837  -11.3
 0.420  0.9469  -25.1   2.131  156.5  0.0583   72.5  0.9819  -11.9
 0.440  0.9433  -26.3   2.118  155.4  0.0609   71.5  0.9802  -12.4
 0.450  0.9416  -26.9   2.113  154.9  0.0622   71.1  0.9794  -12.7
 0.460  0.9401  -27.5   2.107  154.3  0.0634   70.6  0.9786  -13.0
 0.480  0.9373  -28.6   2.096  153.2  0.0660   69.8  0.9770  -13.5
 0.500  0.9349  -29.8   2.086  152.1  0.0686   69.0  0.9756  -14.1
 0.520  0.9305  -30.9   2.081  151.1  0.0711   68.2  0.9736  -14.6
 0.540  0.9265  -32.1   2.077  150.1  0.0737   67.4  0.9716  -15.2
 0.560  0.9228  -33.2   2.074  149.0  0.0762   66.6  0.9698  -15.7
 0.580  0.9195  -34.3   2.071  148.0  0.0788   65.9  0.9680  -16.3
 0.600  0.9166  -35.5   2.069  147.0  0.0814   65.3  0.9663  -16.8
 0.620  0.9131  -36.7   2.060  146.0  0.0837   64.4  0.9639  -17.3
 0.640  0.9099  -37.9   2.052  144.9  0.0859   63.6  0.9616  -17.8
 0.660  0.9072  -39.1   2.045  143.8  0.0882   62.8  0.9594  -18.4
 0.680  0.9048  -40.3   2.038  142.8  0.0906   62.0  0.9573  -18.9
 0.700  0.9029  -41.5   2.032  141.7  0.0929   61.3  0.9552  -19.4
 0.720  0.8977  -42.7   2.029  140.7  0.0950   60.5  0.9529  -19.9
 0.740  0.8928  -43.8   2.026  139.7  0.0970   59.6  0.9506  -20.4
 0.760  0.8883  -45.0   2.024  138.6  0.0991   58.9  0.9484  -20.9
 0.780  0.8842  -46.2   2.023  137.6  0.1013   58.1  0.9463  -21.4
 0.800  0.8805  -47.4   2.022  136.6  0.1034   57.4  0.9443  -21.9
 0.820  0.8750  -48.5   2.013  135.6  0.1055   56.5  0.9412  -22.4
 0.840  0.8698  -49.6   2.005  134.6  0.1076   55.7  0.9382  -22.9
 0.860  0.8649  -50.7   1.998  133.6  0.1097   54.8  0.9353  -23.5
 0.880  0.8604  -51.9   1.991  132.6  0.1118   54.1  0.9325  -24.0
 0.900  0.8562  -53.0   1.985  131.6  0.1140   53.3  0.9297  -24.5
 0.920  0.8510  -54.2   1.972  130.7  0.1157   52.6  0.9271  -25.0
 0.940  0.8461  -55.3   1.959  129.8  0.1175   51.9  0.9246  -25.4
 0.960  0.8416  -56.5   1.947  128.8  0.1192   51.3  0.9221  -25.9
 0.980  0.8374  -57.7   1.935  127.9  0.1210   50.6  0.9197  -26.3
 1.000  0.8336  -58.9   1.924  126.9  0.1228   50.0  0.9173  -26.8
 1.020  0.8287  -60.1   1.919  125.9  0.1246   49.2  0.9144  -27.3
 1.040  0.8241  -61.2   1.914  124.9  0.1265   48.5  0.9116  -27.7
 1.060  0.8199  -62.4   1.910  123.9  0.1284   47.8  0.9088  -28.2
 1.080  0.8160  -63.6   1.907  122.8  0.1303   47.1  0.9061  -28.6
 1.100  0.8125  -64.8   1.904  121.8  0.1322   46.4  0.9034  -29.1
 1.120  0.8066  -65.9   1.893  121.0  0.1337   45.6  0.9008  -29.6
 1.140  0.8009  -67.0   1.883  120.1  0.1352   44.9  0.8983  -30.1
 1.160  0.7956  -68.1   1.873  119.2  0.1367   44.2  0.8958  -30.5
 1.180  0.7905  -69.3   1.863  118.4  0.1382   43.5  0.8934  -31.0
 1.200  0.7858  -70.4   1.854  117.5  0.1398   42.8  0.8910  -31.5
 1.220  0.7811  -71.6   1.845  116.6  0.1411   42.2  0.8879  -31.9
 1.240  0.7768  -72.8   1.836  115.6  0.1425   41.5  0.8849  -32.3
 1.260  0.7728  -74.0   1.828  114.6  0.1439   40.9  0.8819  -32.7
 1.280  0.7692  -75.2   1.820  113.7  0.1453   40.3  0.8789  -33.1
 1.300  0.7659  -76.4   1.813  112.7  0.1467   39.7  0.8760  -33.5
 1.320  0.7593  -77.4   1.806  111.8  0.1479   39.1  0.8729  -33.9
 1.340  0.7530  -78.5   1.800  111.0  0.1490   38.4  0.8698  -34.3
 1.360  0.7469  -79.6   1.794  110.1  0.1502   37.8  0.8668  -34.8
 1.380  0.7411  -80.7   1.789  109.2  0.1515   37.2  0.8638  -35.2
 1.400  0.7356  -81.8   1.784  108.3  0.1527   36.6  0.8609  -35.6
 1.420  0.7306  -83.1   1.780  107.4  0.1538   36.0  0.8578  -36.0
 1.440  0.7261  -84.5   1.777  106.4  0.1548   35.5  0.8547  -36.4
 1.460  0.7220  -85.9   1.775  105.5  0.1559   34.9  0.8516  -36.7
 1.480  0.7183  -87.3   1.773  104.5  0.1570   34.3  0.8486  -37.1
 1.500  0.7150  -88.7   1.771  103.6  0.1581   33.8  0.8456  -37.5
 1.520  0.7085  -89.7   1.760  102.8  0.1591   33.2  0.8433  -37.8
 1.540  0.7022  -90.8   1.749  101.9  0.1601   32.7  0.8410  -38.2
 1.560  0.6962  -91.8   1.739  101.1  0.1612   32.1  0.8387  -38.5
 1.580  0.6904  -92.9   1.729  100.2  0.1622   31.5  0.8365  -38.9
 1.600  0.6849  -94.0   1.720   99.3  0.1633   31.0  0.8343  -39.2
 1.620  0.6800  -95.3   1.714   98.5  0.1640   30.4  0.8307  -39.6
 1.640  0.6755  -96.6   1.709   97.6  0.1647   29.8  0.8270  -40.0
 1.660  0.6713  -97.9   1.703   96.8  0.1655   29.2  0.8235  -40.4
 1.680  0.6675  -99.2   1.698   95.9  0.1662   28.6  0.8200  -40.9
 1.700  0.6641 -100.6   1.694   95.1  0.1670   28.0  0.8165  -41.3
 1.720  0.6584 -101.8   1.685   94.2  0.1677   27.5  0.8139  -41.6
 1.740  0.6529 -103.0   1.676   93.2  0.1684   27.1  0.8113  -41.9
 1.760  0.6477 -104.2   1.668   92.3  0.1692   26.6  0.8087  -42.3
 1.780  0.6429 -105.4   1.660   91.4  0.1699   26.2  0.8061  -42.6
 1.800  0.6383 -106.7   1.653   90.4  0.1707   25.7  0.8036  -42.9
 1.820  0.6344 -108.0   1.645   89.7  0.1713   25.1  0.8009  -43.3
 1.840  0.6309 -109.3   1.638   88.9  0.1719   24.5  0.7983  -43.6
 1.860  0.6277 -110.6   1.631   88.1  0.1726   23.9  0.7956  -44.0
 1.880  0.6248 -111.9   1.624   87.4  0.1732   23.3  0.7931  -44.3
 1.900  0.6222 -113.2   1.618   86.6  0.1739   22.7  0.7905  -44.7
 1.920  0.6174 -114.3   1.609   85.8  0.1746   22.3  0.7884  -45.0
 1.940  0.6127 -115.4   1.601   84.9  0.1752   21.9  0.7863  -45.3
 1.960  0.6084 -116.5   1.592   84.0  0.1759   21.4  0.7843  -45.5
 1.980  0.6042 -117.6   1.584   83.2  0.1766   21.0  0.7822  -45.8
 2.000  0.6003 -118.8   1.577   82.3  0.1773   20.6  0.7802  -46.1
 2.020  0.5955 -120.0   1.568   81.5  0.1775   20.1  0.7776  -46.4
 2.040  0.5909 -121.3   1.560   80.8  0.1778   19.6  0.7751  -46.8
 2.060  0.5867 -122.5   1.552   80.0  0.1781   19.1  0.7726  -47.1
 2.080  0.5827 -123.8   1.544   79.2  0.1783   18.7  0.7701  -47.5
 2.100  0.5790 -125.1   1.536   78.4  0.1786   18.2  0.7677  -47.8
 2.120  0.5756 -126.4   1.529   77.6  0.1789   17.7  0.7653  -48.2
 2.140  0.5725 -127.7   1.522   76.8  0.1793   17.2  0.7629  -48.5
 2.160  0.5698 -129.1   1.515   76.0  0.1796   16.7  0.7605  -48.9
 2.180  0.5673 -130.4   1.509   75.1  0.1799   16.3  0.7582  -49.2
 2.200  0.5652 -131.8   1.503   74.3  0.1803   15.8  0.7559  -49.6
 2.220  0.5614 -133.0   1.495   73.6  0.1805   15.3  0.7538  -49.9
 2.240  0.5580 -134.3   1.486   72.9  0.1808   14.8  0.7518  -50.2
 2.260  0.5547 -135.5   1.478   72.2  0.1810   14.4  0.7497  -50.6
 2.280  0.5518 -136.8   1.471   71.5  0.1813   13.9  0.7477  -50.9
 2.300  0.5491 -138.1   1.463   70.8  0.1816   13.4  0.7457  -51.2
 2.320  0.5467 -139.4   1.456   70.1  0.1819   13.0  0.7438  -51.6
 2.340  0.5446 -140.7   1.449   69.3  0.1822   12.5  0.7418  -51.9
 2.360  0.5428 -142.0   1.442   68.6  0.1825   12.0  0.7399  -52.2
 2.380  0.5412 -143.4   1.435   67.9  0.1829   11.6  0.7381  -52.6
 2.400  0.5400 -144.7   1.429   67.1  0.1832   11.1  0.7362  -52.9
 2.420  0.5367 -146.0   1.422   66.4  0.1830   10.8  0.7336  -53.2
 2.440  0.5337 -147.3   1.415   65.7  0.1829   10.4  0.7311  -53.4
 2.460  0.5310 -148.7   1.408   65.0  0.1828   10.1  0.7285  -53.7
 2.480  0.5286 -150.0   1.401   64.3  0.1826    9.7  0.7260  -54.0
 2.500  0.5264 -151.4   1.394   63.6  0.1825    9.4  0.7235  -54.3
 2.520  0.5246 -152.7   1.388   62.9  0.1824    9.0  0.7211  -54.6
 2.540  0.5231 -154.1   1.382   62.2  0.1823    8.7  0.7186  -54.8
 2.560  0.5218 -155.5   1.376   61.5  0.1822    8.3  0.7161  -55.1
 2.580  0.5209 -156.9   1.370   60.7  0.1821    8.0  0.7137  -55.4
 2.600  0.5203 -158.3   1.365   60.0  0.1820    7.6  0.7113  -55.7
 2.620  0.5182 -159.5   1.357   59.3  0.1820    7.2  0.7101  -56.0
 2.640  0.5164 -160.7   1.350   58.6  0.1821    6.8  0.7090  -56.3
 2.660  0.5148 -161.8   1.342   57.9  0.1821    6.4  0.7079  -56.6
 2.680  0.5134 -163.0   1.335   57.2  0.1822    6.0  0.7068  -56.9
 2.700  0.5122 -164.2   1.328   56.4  0.1823    5.6  0.7057  -57.2
 2.720  0.5113 -165.4   1.321   55.7  0.1824    5.2  0.7046  -57.5
 2.740  0.5106 -166.7   1.314   55.0  0.1825    4.8  0.7036  -57.9
 2.760  0.5101 -167.9   1.308   54.2  0.1826    4.4  0.7026  -58.2
 2.780  0.5098 -169.1   1.302   53.5  0.1827    4.0  0.7016  -58.5
 2.800  0.5098 -170.3   1.296   52.7  0.1828    3.6  0.7006  -58.8
 2.820  0.5083 -171.6   1.290   52.0  0.1825    3.2  0.6988  -59.1
 2.840  0.5071 -172.8   1.284   51.3  0.1822    2.9  0.6969  -59.4
 2.860  0.5061 -174.1   1.279   50.7  0.1819    2.5  0.6952  -59.7
 2.880  0.5053 -175.4   1.273   50.0  0.1816    2.2  0.6934  -60.1
 2.900  0.5048 -176.6   1.268   49.3  0.1813    1.8  0.6916  -60.4
 2.920  0.5046 -177.9   1.263   48.6  0.1810    1.5  0.6899  -60.7
 2.940  0.5046 -179.2   1.258   47.9  0.1808    1.1  0.6882  -61.0
 2.960  0.5048  179.5   1.254   47.1  0.1805    0.7  0.6865  -61.3
 2.980  0.5053  178.3   1.249   46.4  0.1802    0.4  0.6848  -61.7
 3.000  0.5061  177.0   1.245   45.7  0.1800    0.0  0.6832  -62.0
 3.100  0.4999  171.5   1.209   42.9  0.1786   -1.4  0.6788  -63.5
 3.200  0.4983  166.0   1.175   40.0  0.1774   -2.8  0.6748  -65.1
 3.300  0.5014  160.4   1.145   36.9  0.1763   -4.2  0.6714  -66.6
 3.400  0.5091  155.0   1.118   33.7  0.1752   -5.6  0.6684  -68.2
 3.500  0.5212  149.8   1.095   30.3  0.1743   -7.1  0.6660  -69.8
 3.600  0.5239  145.5   1.064   27.8  0.1715   -8.1  0.6614  -71.6
 3.700  0.5295  141.2   1.035   25.2  0.1688   -9.0  0.6575  -73.4
 3.800  0.5379  137.1   1.008   22.4  0.1661  -10.1  0.6542  -75.3
 3.900  0.5491  133.1   0.984   19.5  0.1635  -11.1  0.6516  -77.1
 4.000  0.5628  129.3   0.962   16.5  0.1609  -12.2  0.6497  -79.0
 4.100  0.5673  125.9   0.935   14.3  0.1582  -12.8  0.6474  -81.0
 4.200  0.5737  122.6   0.908   12.1  0.1555  -13.5  0.6459  -83.1
 4.300  0.5820  119.4   0.884    9.6  0.1529  -14.1  0.6452  -85.1
 4.400  0.5921  116.2   0.861    7.1  0.1502  -14.8  0.6453  -87.2
 4.500  0.6039  113.2   0.840    4.4  0.1476  -15.5  0.6463  -89.2
 4.600  0.6096  110.7   0.819    2.6  0.1448  -15.4  0.6438  -91.3
 4.700  0.6164  108.2   0.799    0.6  0.1420  -15.3  0.6421  -93.4
 4.800  0.6244  105.8   0.779   -1.4  0.1393  -15.2  0.6414  -95.5
 4.900  0.6334  103.4   0.761   -3.6  0.1365  -15.1  0.6415  -97.7
 5.000  0.6435  101.1   0.744   -5.8  0.1337  -15.0  0.6425  -99.8
 5.100  0.6481   99.1   0.726   -7.5  0.1326  -14.3  0.6422 -102.0
 5.200  0.6534   97.1   0.709   -9.3  0.1315  -13.6  0.6429 -104.1
 5.300  0.6595   95.2   0.693  -11.1  0.1305  -12.8  0.6444 -106.3
 5.400  0.6663   93.3   0.678  -13.1  0.1294  -12.1  0.6469 -108.5
 5.500  0.6739   91.4   0.663  -15.1  0.1284  -11.3  0.6503 -110.6
 5.600  0.6802   89.8   0.646  -16.5  0.1285  -10.6  0.6509 -112.8
 5.700  0.6870   88.2   0.630  -18.0  0.1287   -9.9  0.6525 -115.1
 5.800  0.6943   86.6   0.614  -19.6  0.1288   -9.3  0.6552 -117.3
 5.900  0.7021   85.1   0.599  -21.3  0.1290   -8.6  0.6587 -119.5
 6.000  0.7104   83.6   0.584  -23.0  0.1292   -7.9  0.6633 -121.7
!
!  f       NFmin   Gammaopt  rn/50
! GHz       dB    MAG  ANG    -
!
! noise parameter not available yet for this operation point!
!
! (c) 2016  Infineon Technologies AG, Munich
