! Infineon Technologies  Discrete & RF Semiconductors
! BFP193
! VCE = 8.0 V,  IC =  15 mA
! Common Emitter S-Parameters:                            Jan 2016
# GHz  S  MA  R  50
!  f         S11            S21            S12            S22
! GHz     MAG   ANG      MAG   ANG      MAG   ANG      MAG   ANG
 0.010  0.6960   -8.3  35.086  175.4  0.0030   87.6  0.9601   -4.2
 0.015  0.6925  -12.1  34.513  172.6  0.0046   82.9  0.9534   -6.1
 0.020  0.6921  -15.9  34.026  169.7  0.0063   80.6  0.9478   -8.1
 0.025  0.6822  -19.5  33.588  167.7  0.0077   78.5  0.9369   -9.9
 0.030  0.6751  -23.3  33.191  165.6  0.0091   77.1  0.9269  -11.8
 0.035  0.6709  -27.1  32.839  163.5  0.0105   76.0  0.9180  -13.7
 0.040  0.6697  -30.9  32.532  161.4  0.0119   75.2  0.9100  -15.6
 0.045  0.6715  -34.7  32.271  159.2  0.0133   74.6  0.9032  -17.6
 0.050  0.6763  -38.5  32.057  157.0  0.0147   74.1  0.8974  -19.6
 0.055  0.6628  -41.4  31.465  155.5  0.0157   72.1  0.8818  -20.9
 0.060  0.6512  -44.5  30.896  153.9  0.0168   70.3  0.8667  -22.3
 0.065  0.6415  -47.7  30.351  152.3  0.0178   68.7  0.8520  -23.7
 0.070  0.6338  -50.9  29.831  150.6  0.0189   67.3  0.8379  -25.1
 0.075  0.6282  -54.2  29.337  148.9  0.0200   66.0  0.8244  -26.6
 0.080  0.6247  -57.6  28.871  147.1  0.0211   64.9  0.8114  -28.2
 0.085  0.6234  -61.0  28.434  145.3  0.0222   63.9  0.7991  -29.8
 0.090  0.6243  -64.4  28.027  143.4  0.0233   63.0  0.7874  -31.5
 0.095  0.6274  -67.8  27.653  141.4  0.0244   62.2  0.7764  -33.2
 0.100  0.6326  -71.1  27.311  139.4  0.0255   61.4  0.7661  -34.9
 0.105  0.6244  -73.3  26.759  138.3  0.0261   60.4  0.7524  -35.7
 0.110  0.6171  -75.6  26.218  137.2  0.0268   59.4  0.7388  -36.5
 0.115  0.6107  -77.9  25.687  136.0  0.0274   58.5  0.7255  -37.4
 0.120  0.6055  -80.2  25.167  134.8  0.0280   57.7  0.7122  -38.3
 0.125  0.6012  -82.6  24.660  133.5  0.0287   56.8  0.6992  -39.3
 0.130  0.5980  -85.1  24.166  132.1  0.0293   56.0  0.6864  -40.2
 0.135  0.5959  -87.5  23.685  130.7  0.0300   55.3  0.6737  -41.2
 0.140  0.5949  -90.0  23.219  129.3  0.0307   54.6  0.6613  -42.3
 0.145  0.5950  -92.4  22.769  127.8  0.0313   53.9  0.6491  -43.4
 0.150  0.5962  -94.9  22.335  126.2  0.0320   53.2  0.6372  -44.5
 0.155  0.5921  -96.6  21.955  125.4  0.0324   52.8  0.6269  -45.1
 0.160  0.5885  -98.3  21.578  124.6  0.0328   52.4  0.6166  -45.6
 0.165  0.5854 -100.1  21.206  123.8  0.0332   52.0  0.6063  -46.2
 0.170  0.5829 -101.8  20.839  123.0  0.0337   51.6  0.5962  -46.8
 0.175  0.5810 -103.6  20.476  122.1  0.0341   51.2  0.5861  -47.5
 0.180  0.5796 -105.4  20.118  121.2  0.0345   50.8  0.5761  -48.1
 0.185  0.5787 -107.1  19.766  120.2  0.0349   50.4  0.5662  -48.8
 0.190  0.5785 -108.9  19.419  119.3  0.0353   50.1  0.5563  -49.5
 0.195  0.5788 -110.7  19.078  118.2  0.0358   49.7  0.5466  -50.2
 0.200  0.5796 -112.5  18.743  117.2  0.0362   49.4  0.5369  -51.0
 0.220  0.5682 -117.8  17.520  114.7  0.0376   48.6  0.5049  -52.5
 0.240  0.5618 -123.2  16.334  111.9  0.0390   47.9  0.4732  -54.2
 0.260  0.5580 -127.9  15.308  109.4  0.0403   47.4  0.4471  -55.7
 0.280  0.5549 -131.9  14.421  107.5  0.0415   47.3  0.4262  -56.8
 0.300  0.5544 -135.8  13.551  105.4  0.0427   47.2  0.4054  -58.0
 0.320  0.5498 -138.7  12.943  104.2  0.0437   47.2  0.3898  -58.5
 0.340  0.5467 -141.7  12.342  102.9  0.0447   47.2  0.3743  -59.1
 0.360  0.5451 -144.7  11.748  101.4  0.0458   47.1  0.3588  -59.6
 0.380  0.5450 -147.7  11.162   99.8  0.0468   47.1  0.3434  -60.3
 0.400  0.5464 -150.7  10.586   98.0  0.0478   47.1  0.3280  -61.0
 0.420  0.5436 -152.8  10.177   97.0  0.0488   47.4  0.3182  -61.3
 0.440  0.5416 -154.9   9.772   95.9  0.0499   47.7  0.3084  -61.7
 0.450  0.5408 -156.0   9.571   95.3  0.0504   47.9  0.3036  -61.8
 0.460  0.5403 -157.1   9.370   94.7  0.0509   48.0  0.2987  -62.0
 0.480  0.5398 -159.2   8.973   93.4  0.0520   48.3  0.2889  -62.4
 0.500  0.5400 -161.4   8.581   92.0  0.0530   48.6  0.2792  -62.8
 0.520  0.5390 -163.1   8.309   91.1  0.0541   48.9  0.2731  -63.1
 0.540  0.5385 -164.7   8.039   90.2  0.0552   49.2  0.2671  -63.3
 0.560  0.5384 -166.4   7.771   89.3  0.0562   49.4  0.2610  -63.6
 0.580  0.5388 -168.0   7.505   88.2  0.0573   49.7  0.2549  -63.9
 0.600  0.5396 -169.7   7.242   87.1  0.0584   49.9  0.2489  -64.2
 0.620  0.5395 -171.0   7.043   86.3  0.0595   50.1  0.2446  -64.4
 0.640  0.5397 -172.4   6.845   85.5  0.0607   50.3  0.2402  -64.6
 0.660  0.5402 -173.7   6.649   84.6  0.0618   50.5  0.2359  -64.8
 0.680  0.5409 -175.1   6.455   83.7  0.0630   50.7  0.2315  -65.0
 0.700  0.5420 -176.4   6.262   82.7  0.0641   50.9  0.2272  -65.2
 0.720  0.5420 -177.5   6.107   82.0  0.0653   51.1  0.2241  -65.4
 0.740  0.5423 -178.6   5.953   81.3  0.0665   51.2  0.2209  -65.7
 0.760  0.5427 -179.8   5.800   80.6  0.0677   51.3  0.2178  -65.9
 0.780  0.5433  179.1   5.648   79.8  0.0689   51.5  0.2147  -66.1
 0.800  0.5442  178.0   5.497   79.0  0.0701   51.6  0.2116  -66.4
 0.820  0.5425  177.0   5.377   78.4  0.0713   51.7  0.2093  -66.6
 0.840  0.5411  175.9   5.257   77.7  0.0725   51.8  0.2070  -66.7
 0.860  0.5398  174.9   5.138   77.0  0.0736   51.8  0.2047  -66.9
 0.880  0.5386  173.8   5.020   76.3  0.0748   51.9  0.2024  -67.1
 0.900  0.5377  172.8   4.903   75.5  0.0760   52.0  0.2001  -67.3
 0.920  0.5387  171.8   4.809   74.9  0.0771   52.1  0.1984  -67.6
 0.940  0.5399  170.7   4.716   74.3  0.0782   52.2  0.1967  -67.8
 0.960  0.5412  169.7   4.623   73.6  0.0792   52.4  0.1950  -68.1
 0.980  0.5428  168.6   4.531   72.9  0.0803   52.5  0.1934  -68.3
 1.000  0.5445  167.6   4.440   72.2  0.0814   52.6  0.1917  -68.6
 1.020  0.5451  166.7   4.362   71.6  0.0827   52.7  0.1903  -69.0
 1.040  0.5458  165.8   4.284   71.0  0.0839   52.8  0.1889  -69.3
 1.060  0.5467  165.0   4.206   70.4  0.0852   52.9  0.1875  -69.7
 1.080  0.5477  164.1   4.129   69.8  0.0864   53.0  0.1861  -70.1
 1.100  0.5488  163.2   4.053   69.1  0.0877   53.1  0.1847  -70.5
 1.120  0.5503  162.3   3.986   68.5  0.0890   53.1  0.1834  -70.9
 1.140  0.5519  161.5   3.920   68.0  0.0902   53.1  0.1821  -71.2
 1.160  0.5536  160.7   3.854   67.4  0.0915   53.1  0.1808  -71.6
 1.180  0.5554  159.8   3.788   66.7  0.0927   53.1  0.1796  -72.0
 1.200  0.5574  159.0   3.723   66.1  0.0940   53.1  0.1783  -72.4
 1.220  0.5564  158.2   3.665   65.5  0.0953   53.0  0.1775  -72.8
 1.240  0.5556  157.4   3.607   65.0  0.0965   52.9  0.1768  -73.1
 1.260  0.5548  156.5   3.550   64.4  0.0978   52.8  0.1761  -73.5
 1.280  0.5542  155.7   3.493   63.7  0.0990   52.7  0.1753  -73.8
 1.300  0.5537  154.9   3.437   63.1  0.1003   52.6  0.1746  -74.2
 1.320  0.5553  154.3   3.387   62.6  0.1015   52.6  0.1742  -74.6
 1.340  0.5570  153.6   3.338   62.1  0.1027   52.6  0.1737  -75.0
 1.360  0.5588  153.0   3.289   61.6  0.1038   52.5  0.1733  -75.3
 1.380  0.5606  152.3   3.240   61.1  0.1050   52.5  0.1729  -75.7
 1.400  0.5625  151.7   3.192   60.5  0.1062   52.5  0.1725  -76.1
 1.420  0.5624  151.1   3.155   60.0  0.1075   52.4  0.1719  -76.6
 1.440  0.5623  150.5   3.118   59.5  0.1088   52.3  0.1713  -77.1
 1.460  0.5623  149.8   3.081   58.9  0.1101   52.2  0.1707  -77.6
 1.480  0.5624  149.2   3.045   58.4  0.1114   52.1  0.1701  -78.2
 1.500  0.5625  148.6   3.009   57.8  0.1127   52.0  0.1695  -78.7
 1.520  0.5641  147.9   2.967   57.2  0.1139   51.9  0.1688  -79.2
 1.540  0.5659  147.1   2.926   56.7  0.1151   51.8  0.1680  -79.6
 1.560  0.5677  146.4   2.885   56.1  0.1163   51.7  0.1673  -80.1
 1.580  0.5696  145.6   2.844   55.4  0.1175   51.6  0.1666  -80.6
 1.600  0.5716  144.9   2.804   54.8  0.1187   51.5  0.1659  -81.1
 1.620  0.5729  144.2   2.772   54.3  0.1199   51.4  0.1653  -81.6
 1.640  0.5744  143.4   2.740   53.8  0.1211   51.3  0.1646  -82.0
 1.660  0.5759  142.7   2.708   53.2  0.1224   51.1  0.1640  -82.5
 1.680  0.5775  141.9   2.677   52.7  0.1236   51.0  0.1634  -83.0
 1.700  0.5792  141.2   2.646   52.1  0.1248   50.9  0.1628  -83.5
 1.720  0.5800  140.6   2.620   51.6  0.1260   50.7  0.1627  -84.0
 1.740  0.5810  140.1   2.595   51.2  0.1272   50.5  0.1627  -84.5
 1.760  0.5819  139.5   2.569   50.7  0.1285   50.3  0.1626  -85.0
 1.780  0.5829  139.0   2.544   50.2  0.1297   50.2  0.1626  -85.5
 1.800  0.5840  138.4   2.519   49.7  0.1309   50.0  0.1626  -86.0
 1.820  0.5852  137.8   2.493   49.2  0.1323   49.9  0.1623  -86.7
 1.840  0.5866  137.3   2.467   48.7  0.1337   49.8  0.1620  -87.4
 1.860  0.5879  136.7   2.441   48.1  0.1350   49.7  0.1618  -88.2
 1.880  0.5893  136.2   2.415   47.6  0.1364   49.6  0.1616  -88.9
 1.900  0.5908  135.6   2.390   47.0  0.1378   49.5  0.1614  -89.6
 1.920  0.5914  135.0   2.365   46.5  0.1389   49.3  0.1607  -90.2
 1.940  0.5921  134.4   2.340   46.1  0.1400   49.1  0.1600  -90.8
 1.960  0.5928  133.9   2.316   45.6  0.1411   49.0  0.1593  -91.4
 1.980  0.5936  133.3   2.291   45.1  0.1422   48.8  0.1586  -92.1
 2.000  0.5945  132.7   2.267   44.6  0.1433   48.6  0.1580  -92.7
 2.020  0.5952  132.1   2.246   44.1  0.1445   48.4  0.1579  -93.3
 2.040  0.5959  131.5   2.225   43.7  0.1457   48.2  0.1579  -93.9
 2.060  0.5967  130.9   2.204   43.2  0.1469   48.1  0.1578  -94.4
 2.080  0.5976  130.4   2.183   42.7  0.1482   47.9  0.1578  -95.0
 2.100  0.5985  129.8   2.163   42.2  0.1494   47.7  0.1578  -95.6
 2.120  0.5995  129.2   2.143   41.7  0.1506   47.5  0.1578  -96.2
 2.140  0.6005  128.6   2.122   41.1  0.1518   47.4  0.1578  -96.8
 2.160  0.6016  128.0   2.102   40.6  0.1530   47.2  0.1579  -97.3
 2.180  0.6028  127.5   2.083   40.1  0.1543   47.1  0.1579  -97.9
 2.200  0.6040  126.9   2.063   39.5  0.1555   46.9  0.1580  -98.5
 2.220  0.6055  126.3   2.046   39.0  0.1567   46.7  0.1575  -99.3
 2.240  0.6070  125.8   2.030   38.6  0.1578   46.5  0.1571 -100.1
 2.260  0.6087  125.2   2.013   38.1  0.1590   46.3  0.1567 -100.9
 2.280  0.6103  124.6   1.997   37.6  0.1602   46.1  0.1564 -101.7
 2.300  0.6121  124.1   1.981   37.1  0.1613   46.0  0.1560 -102.5
 2.320  0.6139  123.5   1.965   36.6  0.1625   45.8  0.1557 -103.3
 2.340  0.6157  122.9   1.949   36.1  0.1637   45.6  0.1554 -104.1
 2.360  0.6176  122.4   1.934   35.6  0.1648   45.4  0.1552 -104.9
 2.380  0.6196  121.8   1.918   35.0  0.1660   45.3  0.1550 -105.7
 2.400  0.6216  121.3   1.903   34.5  0.1672   45.1  0.1548 -106.5
 2.420  0.6229  120.7   1.887   34.1  0.1683   44.9  0.1548 -107.2
 2.440  0.6242  120.2   1.872   33.6  0.1694   44.7  0.1548 -107.9
 2.460  0.6256  119.7   1.857   33.2  0.1706   44.4  0.1549 -108.6
 2.480  0.6270  119.1   1.842   32.8  0.1717   44.2  0.1550 -109.4
 2.500  0.6285  118.6   1.827   32.3  0.1728   44.0  0.1551 -110.1
 2.520  0.6301  118.0   1.812   31.8  0.1740   43.8  0.1552 -110.8
 2.540  0.6317  117.5   1.797   31.4  0.1751   43.6  0.1553 -111.5
 2.560  0.6333  117.0   1.782   30.9  0.1762   43.4  0.1555 -112.2
 2.580  0.6350  116.4   1.767   30.4  0.1774   43.2  0.1557 -112.9
 2.600  0.6368  115.9   1.753   29.9  0.1785   43.0  0.1559 -113.6
 2.620  0.6378  115.4   1.740   29.5  0.1796   42.8  0.1558 -114.5
 2.640  0.6388  114.9   1.728   29.1  0.1807   42.6  0.1557 -115.3
 2.660  0.6399  114.5   1.716   28.7  0.1818   42.4  0.1556 -116.2
 2.680  0.6410  114.0   1.703   28.3  0.1829   42.2  0.1556 -117.0
 2.700  0.6421  113.5   1.691   27.8  0.1840   42.0  0.1556 -117.9
 2.720  0.6433  113.1   1.679   27.4  0.1851   41.8  0.1557 -118.8
 2.740  0.6445  112.6   1.667   27.0  0.1862   41.6  0.1557 -119.6
 2.760  0.6458  112.1   1.655   26.5  0.1874   41.4  0.1559 -120.5
 2.780  0.6471  111.7   1.644   26.1  0.1885   41.2  0.1560 -121.3
 2.800  0.6485  111.2   1.632   25.6  0.1896   41.0  0.1562 -122.2
 2.820  0.6495  110.7   1.620   25.2  0.1907   40.8  0.1566 -123.0
 2.840  0.6506  110.3   1.609   24.7  0.1918   40.6  0.1571 -123.7
 2.860  0.6517  109.8   1.597   24.3  0.1930   40.4  0.1576 -124.5
 2.880  0.6529  109.4   1.586   23.8  0.1941   40.2  0.1581 -125.3
 2.900  0.6540  108.9   1.575   23.3  0.1952   40.0  0.1587 -126.0
 2.920  0.6553  108.5   1.564   22.9  0.1964   39.8  0.1592 -126.8
 2.940  0.6565  108.0   1.552   22.4  0.1975   39.6  0.1598 -127.5
 2.960  0.6579  107.6   1.542   21.9  0.1986   39.4  0.1605 -128.2
 2.980  0.6592  107.1   1.531   21.4  0.1998   39.2  0.1611 -129.0
 3.000  0.6606  106.7   1.520   20.9  0.2009   39.0  0.1618 -129.7
 3.100  0.6662  104.7   1.471   19.2  0.2057   37.9  0.1637 -133.8
 3.200  0.6726  102.7   1.424   17.4  0.2107   36.9  0.1665 -137.8
 3.300  0.6798  100.7   1.378   15.5  0.2156   35.9  0.1701 -141.7
 3.400  0.6878   98.8   1.333   13.4  0.2207   34.9  0.1744 -145.4
 3.500  0.6965   96.9   1.291   11.2  0.2258   34.0  0.1794 -148.9
 3.600  0.7012   95.1   1.256    9.6  0.2308   32.8  0.1848 -152.7
 3.700  0.7066   93.3   1.223    7.8  0.2358   31.7  0.1909 -156.3
 3.800  0.7127   91.6   1.190    6.0  0.2410   30.7  0.1977 -159.7
 3.900  0.7194   89.9   1.159    4.0  0.2462   29.7  0.2052 -162.8
 4.000  0.7267   88.2   1.129    2.0  0.2515   28.7  0.2132 -165.7
 4.100  0.7311   86.7   1.101    0.5  0.2559   27.5  0.2194 -168.7
 4.200  0.7361   85.2   1.073   -1.1  0.2604   26.4  0.2261 -171.4
 4.300  0.7415   83.7   1.047   -2.7  0.2650   25.3  0.2333 -174.0
 4.400  0.7475   82.2   1.021   -4.5  0.2696   24.2  0.2410 -176.5
 4.500  0.7539   80.8   0.996   -6.3  0.2744   23.2  0.2491 -178.8
 4.600  0.7572   79.5   0.975   -7.7  0.2784   22.1  0.2564  178.9
 4.700  0.7610   78.2   0.955   -9.1  0.2826   21.1  0.2640  176.7
 4.800  0.7651   76.9   0.935  -10.6  0.2868   20.1  0.2720  174.7
 4.900  0.7695   75.7   0.916  -12.1  0.2911   19.1  0.2804  172.7
 5.000  0.7744   74.4   0.897  -13.7  0.2955   18.2  0.2890  170.9
 5.100  0.7784   73.2   0.878  -14.9  0.2995   17.1  0.2957  168.7
 5.200  0.7827   72.0   0.860  -16.1  0.3035   16.1  0.3029  166.6
 5.300  0.7873   70.8   0.842  -17.4  0.3077   15.1  0.3104  164.7
 5.400  0.7923   69.7   0.824  -18.8  0.3120   14.1  0.3183  162.8
 5.500  0.7976   68.5   0.807  -20.2  0.3163   13.2  0.3265  161.0
 5.600  0.7980   67.4   0.793  -21.3  0.3201   12.1  0.3334  159.2
 5.700  0.7987   66.3   0.779  -22.4  0.3240   11.0  0.3407  157.5
 5.800  0.7997   65.3   0.765  -23.5  0.3281    9.9  0.3482  155.8
 5.900  0.8010   64.2   0.752  -24.7  0.3322    8.8  0.3560  154.2
 6.000  0.8026   63.1   0.739  -25.9  0.3365    7.8  0.3641  152.7
!
!  f       NFmin   Gammaopt  rn/50
! GHz       dB    MAG  ANG    -
!
! noise parameter not available yet for this operation point!
!
! (c) 2016  Infineon Technologies AG, Munich
