! Infineon Technologies  Discrete & RF Semiconductors
! BFP183
! VCE = 0.75V,  IC =  6.0 mA
! Common Emitter S-Parameters:                            Jan 2016
# GHz  S  MA  R  50
!  f         S11            S21            S12            S22
! GHz     MAG   ANG      MAG   ANG      MAG   ANG      MAG   ANG
 0.010  0.7664   -4.4  17.275  177.7  0.0030   88.0  0.9863   -2.1
 0.015  0.7668   -6.6  17.252  176.5  0.0045   88.3  0.9825   -3.1
 0.020  0.7684   -8.8  17.236  175.3  0.0060   88.4  0.9791   -4.2
 0.025  0.7637  -11.0  17.173  174.0  0.0074   85.7  0.9762   -5.2
 0.030  0.7600  -13.2  17.119  172.6  0.0088   83.9  0.9736   -6.2
 0.035  0.7575  -15.4  17.075  171.2  0.0103   82.6  0.9714   -7.2
 0.040  0.7562  -17.6  17.041  169.9  0.0117   81.6  0.9694   -8.2
 0.045  0.7560  -19.9  17.017  168.5  0.0132   80.8  0.9677   -9.3
 0.050  0.7569  -22.1  17.002  167.1  0.0146   80.2  0.9664  -10.3
 0.055  0.7504  -24.1  16.872  166.0  0.0159   78.2  0.9599  -11.2
 0.060  0.7449  -26.1  16.748  164.8  0.0172   76.6  0.9537  -12.1
 0.065  0.7403  -28.1  16.632  163.7  0.0186   75.1  0.9477  -13.1
 0.070  0.7366  -30.2  16.522  162.5  0.0199   73.9  0.9420  -14.0
 0.075  0.7339  -32.3  16.420  161.3  0.0213   72.8  0.9365  -15.0
 0.080  0.7322  -34.4  16.324  160.1  0.0226   71.9  0.9313  -16.0
 0.085  0.7315  -36.5  16.236  158.8  0.0240   71.0  0.9264  -17.0
 0.090  0.7317  -38.6  16.156  157.6  0.0254   70.3  0.9217  -18.0
 0.095  0.7330  -40.7  16.083  156.4  0.0267   69.6  0.9174  -19.0
 0.100  0.7352  -42.8  16.018  155.1  0.0281   69.0  0.9133  -20.0
 0.105  0.7298  -44.6  15.868  154.1  0.0291   67.9  0.9060  -20.8
 0.110  0.7252  -46.4  15.723  153.1  0.0302   66.9  0.8989  -21.5
 0.115  0.7213  -48.2  15.583  152.0  0.0312   66.0  0.8919  -22.3
 0.120  0.7182  -50.1  15.449  151.0  0.0323   65.1  0.8851  -23.1
 0.125  0.7158  -52.0  15.319  149.9  0.0334   64.2  0.8785  -23.9
 0.130  0.7142  -53.9  15.195  148.8  0.0344   63.5  0.8721  -24.8
 0.135  0.7134  -55.7  15.077  147.7  0.0355   62.7  0.8658  -25.6
 0.140  0.7133  -57.6  14.965  146.6  0.0366   62.1  0.8597  -26.5
 0.145  0.7140  -59.5  14.858  145.5  0.0377   61.4  0.8539  -27.3
 0.150  0.7155  -61.4  14.757  144.3  0.0388   60.8  0.8482  -28.2
 0.155  0.7102  -63.0  14.613  143.5  0.0396   60.0  0.8405  -28.8
 0.160  0.7054  -64.6  14.473  142.6  0.0404   59.2  0.8329  -29.4
 0.165  0.7012  -66.2  14.336  141.7  0.0412   58.5  0.8254  -30.0
 0.170  0.6975  -67.8  14.202  140.8  0.0420   57.8  0.8180  -30.7
 0.175  0.6944  -69.5  14.072  139.9  0.0428   57.1  0.8107  -31.3
 0.180  0.6919  -71.2  13.946  139.0  0.0436   56.4  0.8035  -32.0
 0.185  0.6900  -72.8  13.823  138.0  0.0445   55.8  0.7964  -32.6
 0.190  0.6887  -74.5  13.704  137.1  0.0453   55.2  0.7894  -33.3
 0.195  0.6880  -76.2  13.589  136.1  0.0462   54.6  0.7826  -34.0
 0.200  0.6879  -77.9  13.478  135.1  0.0470   54.0  0.7758  -34.7
 0.220  0.6769  -83.3  12.911  132.2  0.0495   51.5  0.7466  -36.8
 0.240  0.6721  -88.8  12.380  129.0  0.0520   49.2  0.7184  -39.0
 0.260  0.6665  -93.8  11.895  126.2  0.0542   47.4  0.6920  -40.9
 0.280  0.6585  -98.4  11.439  123.8  0.0562   45.9  0.6670  -42.4
 0.300  0.6547 -103.0  11.004  121.3  0.0581   44.5  0.6425  -44.0
 0.320  0.6450 -106.7  10.586  119.5  0.0593   43.2  0.6231  -45.0
 0.340  0.6379 -110.4  10.179  117.5  0.0605   42.0  0.6039  -46.0
 0.360  0.6337 -114.3   9.785  115.3  0.0618   40.8  0.5848  -47.1
 0.380  0.6324 -118.1   9.407  113.0  0.0631   39.6  0.5660  -48.3
 0.400  0.6339 -122.0   9.045  110.5  0.0644   38.5  0.5475  -49.5
 0.420  0.6279 -124.9   8.741  109.1  0.0651   37.7  0.5331  -50.1
 0.440  0.6235 -127.9   8.443  107.7  0.0658   36.9  0.5187  -50.8
 0.450  0.6220 -129.4   8.295  106.9  0.0662   36.5  0.5116  -51.2
 0.460  0.6208 -130.9   8.150  106.1  0.0666   36.2  0.5045  -51.5
 0.480  0.6199 -133.9   7.864  104.4  0.0673   35.4  0.4903  -52.3
 0.500  0.6206 -136.9   7.585  102.6  0.0681   34.7  0.4762  -53.1
 0.520  0.6168 -139.1   7.375  101.5  0.0687   34.2  0.4657  -53.5
 0.540  0.6139 -141.3   7.168  100.3  0.0694   33.7  0.4552  -54.0
 0.560  0.6119 -143.6   6.964   99.0  0.0700   33.2  0.4448  -54.5
 0.580  0.6109 -145.8   6.764   97.7  0.0706   32.7  0.4344  -55.0
 0.600  0.6108 -148.1   6.568   96.3  0.0713   32.2  0.4240  -55.5
 0.620  0.6089 -149.9   6.387   95.4  0.0718   32.0  0.4165  -55.8
 0.640  0.6075 -151.7   6.207   94.4  0.0722   31.8  0.4090  -56.1
 0.660  0.6068 -153.5   6.030   93.3  0.0727   31.5  0.4015  -56.5
 0.680  0.6066 -155.3   5.855   92.2  0.0731   31.3  0.3941  -56.8
 0.700  0.6071 -157.1   5.682   91.0  0.0736   31.1  0.3866  -57.2
 0.720  0.6050 -158.7   5.556   90.1  0.0741   30.9  0.3812  -57.4
 0.740  0.6033 -160.2   5.431   89.2  0.0745   30.7  0.3758  -57.7
 0.760  0.6021 -161.8   5.308   88.2  0.0750   30.4  0.3704  -58.0
 0.780  0.6014 -163.4   5.187   87.2  0.0754   30.2  0.3651  -58.2
 0.800  0.6011 -165.0   5.067   86.1  0.0759   30.0  0.3597  -58.5
 0.820  0.6003 -166.3   4.962   85.4  0.0763   30.0  0.3555  -58.7
 0.840  0.5999 -167.6   4.858   84.6  0.0768   29.9  0.3513  -58.9
 0.860  0.5997 -169.0   4.755   83.8  0.0772   29.9  0.3471  -59.1
 0.880  0.5999 -170.3   4.652   83.0  0.0777   29.8  0.3429  -59.3
 0.900  0.6004 -171.6   4.551   82.1  0.0781   29.8  0.3387  -59.5
 0.920  0.6006 -172.9   4.461   81.3  0.0784   29.7  0.3352  -59.8
 0.940  0.6012 -174.3   4.371   80.5  0.0788   29.6  0.3318  -60.0
 0.960  0.6021 -175.6   4.282   79.7  0.0791   29.5  0.3284  -60.3
 0.980  0.6033 -177.0   4.195   78.8  0.0795   29.4  0.3249  -60.6
 1.000  0.6049 -178.3   4.108   77.9  0.0798   29.3  0.3215  -60.9
 1.020  0.6053 -179.4   4.038   77.2  0.0803   29.3  0.3187  -61.2
 1.040  0.6059  179.4   3.969   76.4  0.0808   29.3  0.3160  -61.4
 1.060  0.6067  178.3   3.901   75.6  0.0814   29.3  0.3132  -61.7
 1.080  0.6078  177.1   3.834   74.8  0.0819   29.3  0.3104  -61.9
 1.100  0.6091  176.0   3.767   74.0  0.0824   29.3  0.3077  -62.2
 1.120  0.6088  175.1   3.704   73.4  0.0827   29.3  0.3056  -62.5
 1.140  0.6087  174.2   3.642   72.8  0.0831   29.2  0.3035  -62.7
 1.160  0.6087  173.3   3.580   72.1  0.0834   29.2  0.3014  -63.0
 1.180  0.6089  172.4   3.519   71.5  0.0838   29.1  0.2993  -63.3
 1.200  0.6092  171.5   3.458   70.8  0.0841   29.1  0.2972  -63.6
 1.220  0.6103  170.6   3.405   70.2  0.0845   29.2  0.2954  -63.9
 1.240  0.6115  169.6   3.352   69.5  0.0850   29.2  0.2937  -64.1
 1.260  0.6129  168.7   3.300   68.9  0.0854   29.3  0.2919  -64.4
 1.280  0.6145  167.7   3.248   68.2  0.0859   29.3  0.2901  -64.6
 1.300  0.6162  166.8   3.197   67.5  0.0863   29.4  0.2884  -64.9
 1.320  0.6154  165.9   3.154   66.9  0.0867   29.4  0.2870  -65.2
 1.340  0.6148  165.1   3.111   66.3  0.0871   29.4  0.2855  -65.5
 1.360  0.6143  164.2   3.069   65.7  0.0876   29.4  0.2841  -65.8
 1.380  0.6140  163.4   3.027   65.1  0.0880   29.4  0.2827  -66.1
 1.400  0.6138  162.5   2.985   64.4  0.0884   29.4  0.2813  -66.4
 1.420  0.6151  161.7   2.945   63.7  0.0888   29.5  0.2799  -66.7
 1.440  0.6165  160.9   2.906   63.1  0.0893   29.5  0.2786  -67.0
 1.460  0.6181  160.1   2.867   62.4  0.0897   29.6  0.2773  -67.2
 1.480  0.6197  159.3   2.828   61.6  0.0902   29.6  0.2759  -67.5
 1.500  0.6215  158.5   2.790   60.9  0.0906   29.7  0.2746  -67.8
 1.520  0.6214  157.7   2.756   60.4  0.0911   29.7  0.2738  -68.1
 1.540  0.6215  156.9   2.723   59.8  0.0916   29.8  0.2730  -68.4
 1.560  0.6217  156.2   2.690   59.3  0.0922   29.8  0.2722  -68.7
 1.580  0.6220  155.4   2.657   58.7  0.0927   29.9  0.2714  -69.0
 1.600  0.6224  154.6   2.625   58.1  0.0932   29.9  0.2706  -69.3
 1.620  0.6236  153.8   2.592   57.5  0.0936   29.9  0.2698  -69.7
 1.640  0.6249  152.9   2.559   56.9  0.0940   29.9  0.2690  -70.1
 1.660  0.6263  152.1   2.526   56.3  0.0944   29.9  0.2682  -70.4
 1.680  0.6279  151.2   2.494   55.7  0.0948   29.9  0.2674  -70.8
 1.700  0.6296  150.4   2.462   55.1  0.0952   29.9  0.2666  -71.2
 1.720  0.6312  149.7   2.435   54.5  0.0957   29.9  0.2657  -71.6
 1.740  0.6329  149.0   2.409   54.0  0.0963   30.0  0.2647  -72.0
 1.760  0.6346  148.3   2.383   53.4  0.0968   30.0  0.2638  -72.3
 1.780  0.6365  147.7   2.357   52.8  0.0974   30.1  0.2629  -72.7
 1.800  0.6384  147.0   2.331   52.2  0.0979   30.1  0.2620  -73.1
 1.820  0.6388  146.3   2.306   51.7  0.0984   30.1  0.2612  -73.5
 1.840  0.6393  145.6   2.280   51.2  0.0989   30.0  0.2605  -73.9
 1.860  0.6399  145.0   2.255   50.6  0.0994   30.0  0.2597  -74.3
 1.880  0.6406  144.3   2.231   50.1  0.0999   29.9  0.2590  -74.7
 1.900  0.6414  143.6   2.206   49.5  0.1004   29.9  0.2583  -75.1
 1.920  0.6413  142.9   2.182   49.0  0.1009   29.9  0.2578  -75.5
 1.940  0.6413  142.2   2.158   48.4  0.1015   29.9  0.2572  -75.9
 1.960  0.6414  141.5   2.134   47.9  0.1020   30.0  0.2567  -76.3
 1.980  0.6416  140.8   2.110   47.3  0.1026   30.0  0.2562  -76.7
 2.000  0.6419  140.1   2.087   46.7  0.1031   30.0  0.2557  -77.1
 2.020  0.6431  139.5   2.067   46.2  0.1036   30.0  0.2552  -77.6
 2.040  0.6444  138.8   2.048   45.7  0.1042   30.0  0.2547  -78.0
 2.060  0.6457  138.2   2.029   45.2  0.1047   29.9  0.2542  -78.5
 2.080  0.6471  137.6   2.010   44.6  0.1052   29.9  0.2537  -79.0
 2.100  0.6486  137.0   1.991   44.1  0.1057   29.9  0.2532  -79.4
 2.120  0.6502  136.3   1.972   43.5  0.1063   29.9  0.2528  -79.9
 2.140  0.6519  135.7   1.953   43.0  0.1068   29.9  0.2524  -80.4
 2.160  0.6536  135.1   1.935   42.4  0.1073   29.8  0.2520  -80.8
 2.180  0.6554  134.5   1.917   41.8  0.1079   29.8  0.2516  -81.3
 2.200  0.6573  133.9   1.899   41.2  0.1084   29.8  0.2512  -81.8
 2.220  0.6583  133.3   1.883   40.7  0.1089   29.8  0.2507  -82.3
 2.240  0.6594  132.6   1.867   40.3  0.1095   29.8  0.2501  -82.8
 2.260  0.6606  132.0   1.851   39.8  0.1100   29.7  0.2496  -83.3
 2.280  0.6619  131.3   1.836   39.3  0.1105   29.7  0.2492  -83.9
 2.300  0.6632  130.7   1.820   38.8  0.1110   29.7  0.2487  -84.4
 2.320  0.6647  130.1   1.805   38.3  0.1116   29.7  0.2483  -84.9
 2.340  0.6662  129.5   1.790   37.8  0.1121   29.7  0.2478  -85.4
 2.360  0.6678  128.8   1.775   37.3  0.1126   29.6  0.2474  -85.9
 2.380  0.6695  128.2   1.760   36.7  0.1132   29.6  0.2471  -86.5
 2.400  0.6712  127.6   1.745   36.2  0.1137   29.6  0.2467  -87.0
 2.420  0.6724  127.1   1.730   35.7  0.1142   29.6  0.2464  -87.5
 2.440  0.6737  126.6   1.715   35.3  0.1147   29.5  0.2461  -88.0
 2.460  0.6751  126.0   1.700   34.8  0.1152   29.5  0.2458  -88.5
 2.480  0.6765  125.5   1.685   34.3  0.1157   29.4  0.2455  -89.0
 2.500  0.6780  125.0   1.670   33.8  0.1162   29.4  0.2452  -89.5
 2.520  0.6795  124.5   1.655   33.3  0.1168   29.4  0.2450  -90.0
 2.540  0.6811  124.0   1.641   32.8  0.1173   29.3  0.2448  -90.5
 2.560  0.6827  123.5   1.626   32.3  0.1178   29.3  0.2446  -91.0
 2.580  0.6844  123.0   1.612   31.7  0.1183   29.2  0.2444  -91.5
 2.600  0.6861  122.5   1.598   31.2  0.1188   29.2  0.2442  -92.0
 2.620  0.6871  122.0   1.586   30.7  0.1193   29.1  0.2440  -92.6
 2.640  0.6882  121.4   1.573   30.2  0.1199   29.1  0.2439  -93.1
 2.660  0.6893  120.9   1.561   29.8  0.1204   29.0  0.2437  -93.7
 2.680  0.6905  120.4   1.549   29.3  0.1210   29.0  0.2436  -94.3
 2.700  0.6917  119.9   1.537   28.7  0.1215   28.9  0.2435  -94.8
 2.720  0.6930  119.4   1.526   28.2  0.1221   28.8  0.2435  -95.4
 2.740  0.6943  118.8   1.514   27.7  0.1226   28.8  0.2435  -96.0
 2.760  0.6957  118.3   1.503   27.2  0.1232   28.7  0.2434  -96.6
 2.780  0.6972  117.8   1.491   26.6  0.1237   28.7  0.2435  -97.1
 2.800  0.6987  117.3   1.480   26.1  0.1243   28.6  0.2435  -97.7
 2.820  0.6999  116.8   1.469   25.7  0.1248   28.5  0.2433  -98.3
 2.840  0.7011  116.3   1.458   25.3  0.1253   28.5  0.2432  -98.9
 2.860  0.7023  115.8   1.448   24.8  0.1259   28.4  0.2431  -99.5
 2.880  0.7036  115.3   1.437   24.4  0.1264   28.3  0.2430 -100.1
 2.900  0.7050  114.8   1.426   23.9  0.1269   28.2  0.2430 -100.6
 2.920  0.7064  114.3   1.416   23.5  0.1274   28.2  0.2430 -101.2
 2.940  0.7079  113.8   1.406   23.0  0.1279   28.1  0.2429 -101.8
 2.960  0.7094  113.4   1.395   22.6  0.1285   28.0  0.2430 -102.4
 2.980  0.7110  112.9   1.385   22.1  0.1290   28.0  0.2430 -103.0
 3.000  0.7126  112.4   1.375   21.6  0.1295   27.9  0.2431 -103.6
 3.100  0.7164  110.2   1.327   19.7  0.1323   27.4  0.2438 -106.7
 3.200  0.7213  108.0   1.281   17.7  0.1352   27.0  0.2453 -109.7
 3.300  0.7272  105.8   1.237   15.5  0.1380   26.5  0.2474 -112.8
 3.400  0.7342  103.7   1.194   13.2  0.1408   26.1  0.2502 -115.7
 3.500  0.7421  101.6   1.154   10.7  0.1437   25.7  0.2536 -118.6
 3.600  0.7463   99.8   1.119    9.0  0.1464   25.1  0.2556 -121.9
 3.700  0.7512   98.0   1.086    7.2  0.1491   24.6  0.2585 -125.1
 3.800  0.7568   96.3   1.053    5.3  0.1518   24.0  0.2621 -128.2
 3.900  0.7630   94.6   1.022    3.3  0.1545   23.5  0.2665 -131.3
 4.000  0.7700   92.9   0.992    1.1  0.1572   23.0  0.2716 -134.2
 4.100  0.7732   91.3   0.963   -0.5  0.1596   22.3  0.2752 -137.3
 4.200  0.7770   89.7   0.934   -2.1  0.1621   21.7  0.2797 -140.3
 4.300  0.7814   88.1   0.907   -3.9  0.1646   21.0  0.2848 -143.2
 4.400  0.7864   86.5   0.880   -5.8  0.1671   20.4  0.2907 -145.9
 4.500  0.7920   85.0   0.854   -7.8  0.1696   19.8  0.2972 -148.6
 4.600  0.7936   83.8   0.832   -9.1  0.1720   19.4  0.3019 -151.2
 4.700  0.7955   82.6   0.811  -10.4  0.1745   19.0  0.3073 -153.6
 4.800  0.7979   81.4   0.790  -11.8  0.1769   18.7  0.3131 -156.0
 4.900  0.8005   80.2   0.770  -13.3  0.1793   18.3  0.3195 -158.3
 5.000  0.8035   79.0   0.750  -14.9  0.1818   18.0  0.3264 -160.5
 5.100  0.8065   77.9   0.733  -16.2  0.1852   17.1  0.3338 -162.8
 5.200  0.8097   76.8   0.717  -17.6  0.1887   16.3  0.3417 -165.0
 5.300  0.8133   75.7   0.701  -19.0  0.1922   15.5  0.3501 -167.2
 5.400  0.8171   74.7   0.685  -20.5  0.1958   14.7  0.3590 -169.2
 5.500  0.8212   73.6   0.670  -22.1  0.1994   14.0  0.3683 -171.1
 5.600  0.8239   72.6   0.655  -23.2  0.2020   13.1  0.3752 -173.2
 5.700  0.8269   71.5   0.641  -24.4  0.2047   12.3  0.3826 -175.3
 5.800  0.8301   70.5   0.627  -25.6  0.2074   11.5  0.3904 -177.3
 5.900  0.8336   69.5   0.613  -26.9  0.2101   10.7  0.3988 -179.2
 6.000  0.8373   68.5   0.599  -28.2  0.2129    9.9  0.4075  179.0
!
!  f       NFmin   Gammaopt  rn/50
! GHz       dB    MAG  ANG    -
!
! noise parameter not available yet for this operation point!
!
! (c) 2016  Infineon Technologies AG, Munich
