! Infineon Technologies  Discrete & RF Semiconductors
! BFP193W
! VCE = 0.50V,  IC =  3.0 mA
! Common Emitter S-Parameters:                            Jan 2016
# GHz  S  MA  R  50
!  f         S11            S21            S12            S22
! GHz     MAG   ANG      MAG   ANG      MAG   ANG      MAG   ANG
 0.010  0.8787   -5.0   9.880  176.3  0.0069   87.7  0.9955   -2.0
 0.015  0.8763   -7.6   9.906  175.2  0.0105   85.0  0.9923   -3.9
 0.020  0.8758  -10.2   9.935  174.1  0.0141   83.7  0.9903   -5.9
 0.025  0.8728  -12.7   9.904  172.7  0.0175   82.8  0.9852   -7.2
 0.030  0.8715  -15.3   9.879  171.3  0.0210   82.2  0.9807   -8.6
 0.035  0.8681  -17.8   9.829  169.8  0.0243   80.2  0.9759  -10.0
 0.040  0.8663  -20.3   9.785  168.4  0.0276   78.7  0.9717  -11.3
 0.045  0.8662  -22.8   9.748  166.9  0.0309   77.6  0.9681  -12.7
 0.050  0.8678  -25.3   9.717  165.4  0.0342   76.6  0.9650  -14.1
 0.055  0.8600  -27.5   9.628  164.2  0.0370   74.4  0.9568  -15.3
 0.060  0.8534  -29.8   9.544  162.9  0.0398   72.6  0.9491  -16.4
 0.065  0.8483  -32.1   9.465  161.6  0.0427   70.9  0.9417  -17.6
 0.070  0.8445  -34.4   9.391  160.3  0.0456   69.5  0.9348  -18.8
 0.075  0.8420  -36.7   9.321  158.9  0.0485   68.3  0.9282  -20.0
 0.080  0.8410  -39.1   9.257  157.6  0.0515   67.2  0.9221  -21.3
 0.085  0.8415  -41.4   9.198  156.2  0.0544   66.2  0.9165  -22.5
 0.090  0.8433  -43.8   9.145  154.8  0.0574   65.3  0.9113  -23.8
 0.095  0.8465  -46.1   9.097  153.4  0.0604   64.5  0.9065  -25.1
 0.100  0.8511  -48.4   9.054  152.0  0.0634   63.8  0.9022  -26.4
 0.105  0.8440  -50.4   8.955  150.9  0.0655   62.5  0.8929  -27.4
 0.110  0.8378  -52.4   8.859  149.8  0.0677   61.2  0.8838  -28.4
 0.115  0.8327  -54.4   8.766  148.6  0.0699   60.0  0.8750  -29.4
 0.120  0.8287  -56.4   8.677  147.5  0.0721   58.9  0.8665  -30.5
 0.125  0.8257  -58.5   8.592  146.3  0.0743   57.9  0.8583  -31.5
 0.130  0.8238  -60.6   8.510  145.1  0.0766   56.9  0.8504  -32.6
 0.135  0.8230  -62.7   8.433  143.8  0.0788   56.0  0.8428  -33.8
 0.140  0.8233  -64.7   8.359  142.6  0.0811   55.1  0.8355  -34.9
 0.145  0.8246  -66.8   8.289  141.3  0.0835   54.3  0.8286  -36.0
 0.150  0.8271  -68.9   8.224  140.0  0.0858   53.5  0.8220  -37.2
 0.155  0.8223  -70.5   8.124  139.1  0.0873   52.5  0.8130  -38.0
 0.160  0.8181  -72.1   8.025  138.3  0.0888   51.6  0.8041  -38.7
 0.165  0.8145  -73.8   7.929  137.4  0.0903   50.7  0.7954  -39.5
 0.170  0.8117  -75.4   7.834  136.5  0.0919   49.9  0.7869  -40.3
 0.175  0.8095  -77.1   7.742  135.5  0.0935   49.1  0.7785  -41.1
 0.180  0.8081  -78.8   7.652  134.6  0.0951   48.3  0.7702  -42.0
 0.185  0.8073  -80.5   7.563  133.6  0.0967   47.5  0.7621  -42.8
 0.190  0.8072  -82.1   7.478  132.6  0.0983   46.7  0.7543  -43.7
 0.195  0.8078  -83.8   7.394  131.6  0.0999   46.0  0.7465  -44.6
 0.200  0.8091  -85.5   7.313  130.5  0.1016   45.3  0.7390  -45.5
 0.220  0.7981  -90.9   6.985  127.6  0.1059   42.4  0.7096  -48.2
 0.240  0.7943  -96.4   6.675  124.5  0.1105   39.8  0.6820  -51.1
 0.260  0.7902 -101.3   6.377  121.6  0.1143   37.5  0.6555  -53.5
 0.280  0.7838 -105.7   6.082  119.0  0.1172   35.5  0.6295  -55.4
 0.300  0.7821 -110.1   5.800  116.2  0.1203   33.5  0.6042  -57.5
 0.320  0.7733 -113.4   5.573  114.5  0.1220   31.8  0.5850  -58.9
 0.340  0.7671 -116.8   5.351  112.6  0.1237   30.2  0.5661  -60.5
 0.360  0.7636 -120.2   5.135  110.6  0.1255   28.7  0.5477  -62.1
 0.380  0.7628 -123.6   4.927  108.4  0.1275   27.2  0.5297  -63.8
 0.400  0.7647 -127.0   4.726  106.0  0.1295   25.7  0.5123  -65.7
 0.420  0.7609 -129.3   4.563  104.7  0.1304   24.6  0.4997  -66.7
 0.440  0.7584 -131.7   4.403  103.2  0.1313   23.6  0.4873  -67.8
 0.450  0.7576 -132.9   4.324  102.5  0.1318   23.1  0.4812  -68.4
 0.460  0.7572 -134.1   4.246  101.7  0.1323   22.5  0.4751  -68.9
 0.480  0.7572 -136.4   4.092  100.0  0.1333   21.5  0.4631  -70.1
 0.500  0.7586 -138.8   3.942   98.2  0.1344   20.5  0.4513  -71.4
 0.520  0.7566 -140.6   3.823   97.1  0.1348   19.7  0.4426  -72.3
 0.540  0.7553 -142.3   3.706   95.9  0.1352   18.8  0.4340  -73.3
 0.560  0.7547 -144.1   3.590   94.7  0.1356   18.0  0.4256  -74.3
 0.580  0.7549 -145.8   3.476   93.3  0.1361   17.2  0.4173  -75.3
 0.600  0.7557 -147.6   3.364   91.9  0.1366   16.4  0.4091  -76.4
 0.620  0.7546 -149.0   3.279   91.0  0.1368   15.9  0.4032  -77.0
 0.640  0.7540 -150.4   3.194   90.0  0.1370   15.4  0.3973  -77.7
 0.660  0.7538 -151.9   3.111   88.9  0.1372   14.8  0.3915  -78.4
 0.680  0.7541 -153.3   3.028   87.9  0.1374   14.3  0.3858  -79.1
 0.700  0.7549 -154.7   2.947   86.7  0.1376   13.8  0.3801  -79.8
 0.720  0.7531 -155.8   2.876   85.8  0.1376   13.3  0.3763  -80.5
 0.740  0.7516 -157.0   2.805   84.9  0.1375   12.8  0.3726  -81.2
 0.760  0.7504 -158.1   2.735   84.0  0.1375   12.3  0.3689  -81.9
 0.780  0.7495 -159.3   2.665   83.0  0.1375   11.8  0.3653  -82.7
 0.800  0.7489 -160.4   2.597   81.9  0.1375   11.3  0.3618  -83.4
 0.820  0.7489 -161.4   2.543   81.1  0.1375   11.0  0.3592  -84.0
 0.840  0.7491 -162.4   2.489   80.3  0.1374   10.7  0.3566  -84.5
 0.860  0.7495 -163.4   2.436   79.5  0.1374   10.3  0.3541  -85.1
 0.880  0.7502 -164.4   2.383   78.6  0.1374   10.0  0.3516  -85.7
 0.900  0.7511 -165.4   2.331   77.7  0.1374    9.7  0.3491  -86.3
 0.920  0.7509 -166.1   2.284   77.0  0.1372    9.3  0.3476  -86.9
 0.940  0.7509 -166.9   2.238   76.2  0.1369    8.9  0.3461  -87.6
 0.960  0.7510 -167.6   2.192   75.4  0.1367    8.6  0.3447  -88.3
 0.980  0.7512 -168.4   2.146   74.6  0.1365    8.2  0.3433  -88.9
 1.000  0.7516 -169.1   2.101   73.7  0.1363    7.8  0.3420  -89.6
 1.020  0.7518 -169.9   2.067   73.0  0.1361    7.6  0.3409  -90.1
 1.040  0.7521 -170.7   2.034   72.3  0.1359    7.4  0.3398  -90.6
 1.060  0.7525 -171.4   2.001   71.6  0.1358    7.3  0.3387  -91.0
 1.080  0.7531 -172.2   1.968   70.8  0.1356    7.1  0.3376  -91.5
 1.100  0.7538 -173.0   1.936   70.0  0.1354    6.9  0.3366  -92.0
 1.120  0.7540 -173.7   1.904   69.4  0.1352    6.6  0.3368  -92.5
 1.140  0.7543 -174.4   1.872   68.7  0.1350    6.4  0.3370  -93.1
 1.160  0.7548 -175.2   1.840   68.0  0.1347    6.1  0.3372  -93.6
 1.180  0.7553 -175.9   1.808   67.3  0.1345    5.9  0.3374  -94.2
 1.200  0.7560 -176.6   1.777   66.6  0.1343    5.6  0.3377  -94.7
 1.220  0.7559 -177.2   1.751   66.0  0.1338    5.5  0.3374  -95.3
 1.240  0.7559 -177.8   1.725   65.3  0.1334    5.4  0.3372  -95.8
 1.260  0.7560 -178.5   1.699   64.6  0.1329    5.3  0.3370  -96.4
 1.280  0.7561 -179.1   1.673   63.9  0.1325    5.2  0.3368  -96.9
 1.300  0.7564 -179.7   1.648   63.2  0.1320    5.1  0.3367  -97.5
 1.320  0.7567  179.8   1.626   62.6  0.1318    5.0  0.3371  -98.0
 1.340  0.7570  179.3   1.604   61.9  0.1316    4.9  0.3375  -98.5
 1.360  0.7574  178.7   1.582   61.3  0.1314    4.7  0.3380  -99.0
 1.380  0.7579  178.2   1.560   60.6  0.1312    4.6  0.3385  -99.5
 1.400  0.7584  177.7   1.539   59.9  0.1310    4.5  0.3390 -100.0
 1.420  0.7590  177.2   1.519   59.3  0.1303    4.5  0.3389 -100.6
 1.440  0.7597  176.6   1.500   58.8  0.1297    4.5  0.3388 -101.2
 1.460  0.7604  176.1   1.480   58.2  0.1290    4.4  0.3388 -101.7
 1.480  0.7612  175.5   1.461   57.6  0.1284    4.4  0.3388 -102.3
 1.500  0.7621  175.0   1.442   57.0  0.1277    4.4  0.3388 -102.9
 1.520  0.7624  174.4   1.426   56.4  0.1275    4.4  0.3395 -103.3
 1.540  0.7628  173.8   1.410   55.7  0.1273    4.4  0.3401 -103.6
 1.560  0.7633  173.3   1.394   55.1  0.1270    4.5  0.3408 -104.0
 1.580  0.7639  172.7   1.378   54.4  0.1268    4.5  0.3415 -104.3
 1.600  0.7645  172.1   1.363   53.7  0.1266    4.5  0.3422 -104.7
 1.620  0.7653  171.7   1.347   53.2  0.1261    4.5  0.3432 -105.3
 1.640  0.7661  171.2   1.331   52.7  0.1256    4.5  0.3442 -105.9
 1.660  0.7669  170.8   1.315   52.1  0.1251    4.5  0.3453 -106.5
 1.680  0.7678  170.3   1.300   51.6  0.1246    4.5  0.3464 -107.1
 1.700  0.7688  169.9   1.284   51.0  0.1241    4.5  0.3476 -107.7
 1.720  0.7687  169.4   1.270   50.4  0.1239    4.6  0.3480 -108.1
 1.740  0.7686  168.8   1.256   49.9  0.1236    4.7  0.3485 -108.6
 1.760  0.7687  168.3   1.243   49.3  0.1234    4.8  0.3489 -109.0
 1.780  0.7687  167.7   1.229   48.7  0.1231    4.9  0.3494 -109.5
 1.800  0.7689  167.2   1.216   48.1  0.1229    5.0  0.3499 -109.9
 1.820  0.7690  166.7   1.204   47.6  0.1225    5.1  0.3510 -110.3
 1.840  0.7691  166.2   1.191   47.0  0.1221    5.1  0.3521 -110.7
 1.860  0.7692  165.8   1.179   46.5  0.1218    5.2  0.3533 -111.1
 1.880  0.7694  165.3   1.167   45.9  0.1214    5.2  0.3544 -111.5
 1.900  0.7697  164.8   1.155   45.3  0.1210    5.3  0.3556 -111.9
 1.920  0.7701  164.4   1.144   44.8  0.1208    5.4  0.3570 -112.4
 1.940  0.7706  164.0   1.134   44.3  0.1206    5.5  0.3585 -112.8
 1.960  0.7711  163.5   1.124   43.8  0.1203    5.7  0.3600 -113.3
 1.980  0.7717  163.1   1.113   43.2  0.1201    5.8  0.3615 -113.7
 2.000  0.7723  162.7   1.103   42.7  0.1199    5.9  0.3630 -114.2
 2.020  0.7730  162.3   1.093   42.2  0.1196    6.0  0.3642 -114.7
 2.040  0.7738  161.9   1.083   41.8  0.1193    6.2  0.3653 -115.2
 2.060  0.7746  161.4   1.073   41.3  0.1190    6.3  0.3666 -115.7
 2.080  0.7754  161.0   1.064   40.8  0.1187    6.5  0.3678 -116.2
 2.100  0.7763  160.6   1.054   40.3  0.1184    6.6  0.3691 -116.7
 2.120  0.7773  160.2   1.044   39.8  0.1181    6.8  0.3704 -117.2
 2.140  0.7782  159.7   1.035   39.2  0.1178    6.9  0.3717 -117.7
 2.160  0.7792  159.3   1.026   38.7  0.1175    7.1  0.3730 -118.1
 2.180  0.7803  158.9   1.016   38.2  0.1172    7.2  0.3744 -118.6
 2.200  0.7814  158.5   1.007   37.6  0.1169    7.4  0.3758 -119.1
 2.220  0.7814  158.1   0.999   37.2  0.1167    7.5  0.3774 -119.5
 2.240  0.7814  157.7   0.990   36.7  0.1164    7.7  0.3790 -120.0
 2.260  0.7815  157.2   0.982   36.3  0.1162    7.8  0.3806 -120.4
 2.280  0.7816  156.8   0.973   35.8  0.1159    8.0  0.3822 -120.9
 2.300  0.7818  156.4   0.965   35.3  0.1157    8.1  0.3839 -121.3
 2.320  0.7820  156.0   0.957   34.9  0.1155    8.3  0.3856 -121.7
 2.340  0.7822  155.6   0.949   34.4  0.1152    8.4  0.3873 -122.1
 2.360  0.7825  155.1   0.941   33.9  0.1150    8.6  0.3890 -122.6
 2.380  0.7828  154.7   0.933   33.4  0.1147    8.7  0.3907 -123.0
 2.400  0.7832  154.3   0.925   32.9  0.1145    8.9  0.3925 -123.4
 2.420  0.7835  153.9   0.918   32.5  0.1144    9.2  0.3935 -123.9
 2.440  0.7839  153.5   0.911   32.0  0.1143    9.5  0.3945 -124.4
 2.460  0.7844  153.1   0.904   31.5  0.1141    9.8  0.3956 -124.9
 2.480  0.7848  152.7   0.897   31.1  0.1140   10.1  0.3967 -125.4
 2.500  0.7853  152.2   0.891   30.6  0.1139   10.4  0.3978 -125.9
 2.520  0.7859  151.8   0.884   30.1  0.1138   10.8  0.3990 -126.4
 2.540  0.7865  151.4   0.877   29.6  0.1137   11.1  0.4002 -126.9
 2.560  0.7871  151.0   0.871   29.1  0.1136   11.4  0.4014 -127.4
 2.580  0.7878  150.6   0.864   28.6  0.1135   11.7  0.4026 -127.9
 2.600  0.7885  150.2   0.858   28.1  0.1134   12.0  0.4039 -128.4
 2.620  0.7893  149.8   0.852   27.7  0.1135   12.3  0.4056 -128.8
 2.640  0.7902  149.5   0.845   27.3  0.1136   12.5  0.4073 -129.2
 2.660  0.7911  149.1   0.839   26.9  0.1136   12.8  0.4090 -129.6
 2.680  0.7920  148.7   0.833   26.5  0.1137   13.1  0.4107 -130.0
 2.700  0.7930  148.3   0.827   26.1  0.1138   13.4  0.4125 -130.4
 2.720  0.7940  148.0   0.821   25.7  0.1139   13.6  0.4143 -130.8
 2.740  0.7950  147.6   0.815   25.2  0.1140   13.9  0.4161 -131.2
 2.760  0.7961  147.2   0.809   24.8  0.1141   14.2  0.4179 -131.6
 2.780  0.7972  146.9   0.803   24.3  0.1142   14.4  0.4197 -132.0
 2.800  0.7983  146.5   0.797   23.9  0.1143   14.7  0.4216 -132.4
 2.820  0.7988  146.1   0.791   23.5  0.1144   15.0  0.4230 -132.9
 2.840  0.7994  145.8   0.786   23.1  0.1145   15.3  0.4244 -133.4
 2.860  0.8000  145.4   0.780   22.8  0.1146   15.5  0.4258 -133.8
 2.880  0.8007  145.1   0.775   22.4  0.1147   15.8  0.4273 -134.3
 2.900  0.8014  144.7   0.770   22.0  0.1148   16.1  0.4288 -134.8
 2.920  0.8021  144.3   0.764   21.6  0.1149   16.4  0.4303 -135.3
 2.940  0.8028  144.0   0.759   21.2  0.1150   16.7  0.4319 -135.7
 2.960  0.8036  143.6   0.753   20.7  0.1152   16.9  0.4335 -136.2
 2.980  0.8044  143.3   0.748   20.3  0.1153   17.2  0.4351 -136.6
 3.000  0.8052  142.9   0.743   19.9  0.1154   17.5  0.4367 -137.1
 3.100  0.8086  141.1   0.720   18.1  0.1170   18.9  0.4449 -139.2
 3.200  0.8127  139.3   0.698   16.1  0.1186   20.3  0.4536 -141.3
 3.300  0.8154  137.4   0.676   14.4  0.1206   21.6  0.4619 -143.6
 3.400  0.8190  135.6   0.654   12.5  0.1227   22.9  0.4709 -145.8
 3.500  0.8234  134.0   0.635   10.8  0.1251   24.0  0.4805 -147.9
 3.600  0.8284  132.4   0.617    9.1  0.1276   25.1  0.4908 -150.0
 3.700  0.8299  130.6   0.597    7.6  0.1301   26.0  0.4988 -152.3
 3.800  0.8321  128.9   0.577    6.0  0.1326   26.9  0.5077 -154.6
 3.900  0.8358  127.5   0.560    4.7  0.1361   27.7  0.5175 -156.6
 4.000  0.8399  126.1   0.543    3.3  0.1397   28.4  0.5280 -158.6
 4.100  0.8396  124.7   0.528    2.3  0.1434   28.8  0.5363 -160.7
 4.200  0.8398  123.3   0.514    1.2  0.1472   29.3  0.5453 -162.8
 4.300  0.8405  122.0   0.499    0.0  0.1510   29.7  0.5550 -164.8
 4.400  0.8416  120.6   0.485   -1.2  0.1547   30.0  0.5653 -166.7
 4.500  0.8433  119.2   0.471   -2.5  0.1585   30.4  0.5763 -168.6
 4.600  0.8438  118.1   0.460   -3.0  0.1628   30.5  0.5827 -170.5
 4.700  0.8446  117.0   0.449   -3.6  0.1670   30.6  0.5898 -172.3
 4.800  0.8458  115.8   0.438   -4.2  0.1713   30.7  0.5974 -174.1
 4.900  0.8473  114.7   0.428   -4.8  0.1755   30.7  0.6056 -175.9
 5.000  0.8491  113.6   0.417   -5.5  0.1798   30.8  0.6144 -177.6
 5.100  0.8482  112.7   0.409   -5.7  0.1843   30.6  0.6196 -179.1
 5.200  0.8474  111.8   0.400   -5.9  0.1888   30.4  0.6252  179.4
 5.300  0.8469  111.0   0.392   -6.2  0.1932   30.2  0.6313  177.9
 5.400  0.8465  110.1   0.383   -6.4  0.1977   30.0  0.6378  176.5
 5.500  0.8464  109.2   0.375   -6.7  0.2022   29.8  0.6446  175.1
 5.600  0.8472  108.3   0.370   -6.7  0.2069   29.4  0.6489  173.8
 5.700  0.8482  107.3   0.364   -6.8  0.2116   29.1  0.6536  172.5
 5.800  0.8494  106.4   0.359   -6.8  0.2163   28.7  0.6586  171.2
 5.900  0.8508  105.4   0.353   -6.9  0.2211   28.4  0.6639  169.9
 6.000  0.8525  104.5   0.348   -6.9  0.2258   28.1  0.6695  168.7
!
!  f       NFmin   Gammaopt  rn/50
! GHz       dB    MAG  ANG    -
!
! noise parameter not available yet for this operation point!
!
! (c) 2016  Infineon Technologies AG, Munich
