! Infineon Technologies  Discrete & RF Semiconductors
! BFP196
! VCE = 2.5 V,  IC = 8.0mA
! Common Emitter S-Parameters:                            Jan 2016
# GHz  S  MA  R  50
!  f         S11            S21            S12            S22
! GHz     MAG   ANG      MAG   ANG      MAG   ANG      MAG   ANG
 0.010  0.7323  -10.4  23.451  175.5  0.0055   86.4  0.9801   -5.3
 0.015  0.7298  -15.4  23.150  172.3  0.0082   82.7  0.9713   -7.7
 0.020  0.7327  -20.3  22.921  169.1  0.0109   80.9  0.9642  -10.1
 0.025  0.7209  -24.7  22.573  166.9  0.0133   76.5  0.9498  -12.3
 0.030  0.7136  -29.3  22.259  164.6  0.0157   73.4  0.9369  -14.5
 0.035  0.7108  -33.9  21.982  162.2  0.0182   71.1  0.9255  -16.9
 0.040  0.7127  -38.5  21.743  159.8  0.0207   69.4  0.9156  -19.2
 0.045  0.7191  -43.0  21.543  157.4  0.0232   68.1  0.9073  -21.6
 0.050  0.7300  -47.5  21.383  154.9  0.0257   67.0  0.9006  -24.1
 0.055  0.7154  -51.0  20.934  153.3  0.0273   64.7  0.8818  -25.6
 0.060  0.7036  -54.6  20.503  151.6  0.0289   62.7  0.8636  -27.2
 0.065  0.6947  -58.4  20.090  149.9  0.0305   60.9  0.8461  -28.8
 0.070  0.6888  -62.2  19.697  148.0  0.0322   59.3  0.8293  -30.5
 0.075  0.6861  -66.1  19.324  146.1  0.0339   57.8  0.8133  -32.3
 0.080  0.6865  -70.0  18.973  144.2  0.0356   56.5  0.7981  -34.1
 0.085  0.6901  -73.9  18.646  142.1  0.0373   55.3  0.7837  -36.1
 0.090  0.6968  -77.7  18.343  140.0  0.0391   54.2  0.7703  -38.0
 0.095  0.7065  -81.4  18.065  137.8  0.0408   53.2  0.7578  -40.1
 0.100  0.7191  -85.0  17.815  135.6  0.0426   52.3  0.7463  -42.2
 0.105  0.7124  -87.4  17.419  134.5  0.0435   51.1  0.7312  -43.2
 0.110  0.7069  -89.8  17.030  133.3  0.0443   49.9  0.7163  -44.2
 0.115  0.7027  -92.2  16.648  132.1  0.0452   48.8  0.7017  -45.2
 0.120  0.6997  -94.7  16.274  130.8  0.0461   47.7  0.6873  -46.3
 0.125  0.6981  -97.2  15.909  129.5  0.0471   46.6  0.6731  -47.4
 0.130  0.6979  -99.7  15.552  128.1  0.0480   45.6  0.6592  -48.6
 0.135  0.6989 -102.2  15.205  126.7  0.0490   44.7  0.6456  -49.8
 0.140  0.7013 -104.7  14.868  125.2  0.0499   43.7  0.6324  -51.1
 0.145  0.7050 -107.2  14.542  123.6  0.0509   42.9  0.6194  -52.4
 0.150  0.7100 -109.6  14.228  121.9  0.0519   42.0  0.6068  -53.8
 0.155  0.7073 -111.3  13.967  121.1  0.0524   41.4  0.5963  -54.4
 0.160  0.7052 -113.0  13.709  120.3  0.0529   40.8  0.5859  -55.1
 0.165  0.7037 -114.7  13.453  119.5  0.0534   40.2  0.5756  -55.8
 0.170  0.7028 -116.4  13.200  118.7  0.0539   39.7  0.5654  -56.5
 0.175  0.7026 -118.1  12.950  117.8  0.0544   39.1  0.5552  -57.3
 0.180  0.7030 -119.8  12.704  116.9  0.0550   38.6  0.5452  -58.0
 0.185  0.7039 -121.5  12.461  115.9  0.0555   38.0  0.5353  -58.8
 0.190  0.7056 -123.1  12.221  114.9  0.0560   37.5  0.5254  -59.6
 0.195  0.7078 -124.8  11.986  113.9  0.0566   37.0  0.5157  -60.5
 0.200  0.7106 -126.5  11.754  112.8  0.0571   36.5  0.5061  -61.4
 0.220  0.7046 -131.7  10.947  110.3  0.0582   35.0  0.4751  -63.4
 0.240  0.7044 -136.9  10.164  107.3  0.0594   33.6  0.4447  -65.6
 0.260  0.7056 -141.3   9.498  104.8  0.0604   32.6  0.4194  -67.7
 0.280  0.7058 -144.8   8.934  102.9  0.0612   31.9  0.3988  -69.3
 0.300  0.7086 -148.3   8.382  100.7  0.0620   31.3  0.3785  -71.1
 0.320  0.7057 -150.9   7.992   99.5  0.0626   30.8  0.3644  -72.0
 0.340  0.7041 -153.5   7.606   98.2  0.0631   30.4  0.3505  -73.0
 0.360  0.7041 -156.0   7.224   96.7  0.0637   30.0  0.3366  -74.1
 0.380  0.7054 -158.6   6.848   95.0  0.0642   29.5  0.3229  -75.2
 0.400  0.7082 -161.2   6.478   93.2  0.0648   29.1  0.3093  -76.5
 0.420  0.7066 -163.0   6.223   92.1  0.0653   29.2  0.3012  -77.2
 0.440  0.7057 -164.7   5.971   91.0  0.0659   29.2  0.2931  -77.9
 0.450  0.7055 -165.6   5.846   90.4  0.0661   29.3  0.2890  -78.3
 0.460  0.7054 -166.5   5.721   89.7  0.0664   29.3  0.2850  -78.7
 0.480  0.7058 -168.2   5.474   88.4  0.0670   29.3  0.2770  -79.5
 0.500  0.7069 -170.0   5.231   86.9  0.0675   29.4  0.2691  -80.4
 0.520  0.7064 -171.5   5.063   86.0  0.0679   29.6  0.2641  -81.1
 0.540  0.7065 -173.1   4.896   85.0  0.0684   29.7  0.2592  -81.8
 0.560  0.7070 -174.6   4.730   83.9  0.0688   29.9  0.2543  -82.5
 0.580  0.7081 -176.2   4.567   82.8  0.0693   30.0  0.2494  -83.2
 0.600  0.7097 -177.7   4.405   81.6  0.0697   30.2  0.2446  -84.0
 0.620  0.7097 -179.0   4.283   80.7  0.0702   30.5  0.2417  -84.6
 0.640  0.7101  179.8   4.162   79.8  0.0708   30.7  0.2388  -85.3
 0.660  0.7108  178.5   4.042   78.8  0.0713   31.0  0.2359  -85.9
 0.680  0.7118  177.3   3.923   77.8  0.0719   31.2  0.2331  -86.6
 0.700  0.7132  176.0   3.806   76.7  0.0724   31.5  0.2303  -87.3
 0.720  0.7134  175.0   3.710   76.0  0.0731   31.7  0.2285  -87.9
 0.740  0.7138  174.0   3.614   75.2  0.0738   31.9  0.2267  -88.5
 0.760  0.7144  173.1   3.519   74.4  0.0744   32.1  0.2249  -89.1
 0.780  0.7152  172.1   3.425   73.5  0.0751   32.3  0.2231  -89.7
 0.800  0.7162  171.1   3.332   72.6  0.0758   32.5  0.2214  -90.3
 0.820  0.7148  170.1   3.258   71.9  0.0765   32.7  0.2204  -90.8
 0.840  0.7136  169.1   3.184   71.1  0.0771   33.0  0.2194  -91.2
 0.860  0.7127  168.1   3.111   70.4  0.0778   33.2  0.2184  -91.7
 0.880  0.7119  167.1   3.038   69.6  0.0784   33.5  0.2174  -92.1
 0.900  0.7114  166.1   2.966   68.7  0.0791   33.7  0.2164  -92.6
 0.920  0.7125  165.1   2.908   68.0  0.0797   34.0  0.2161  -93.2
 0.940  0.7138  164.0   2.850   67.2  0.0803   34.3  0.2159  -93.7
 0.960  0.7153  163.0   2.793   66.5  0.0809   34.6  0.2157  -94.3
 0.980  0.7170  162.0   2.736   65.6  0.0815   34.9  0.2155  -94.8
 1.000  0.7190  161.0   2.680   64.8  0.0821   35.2  0.2153  -95.4
 1.020  0.7197  160.2   2.633   64.1  0.0827   35.4  0.2154  -96.0
 1.040  0.7205  159.4   2.586   63.4  0.0834   35.7  0.2154  -96.6
 1.060  0.7214  158.5   2.539   62.7  0.0840   35.9  0.2155  -97.2
 1.080  0.7225  157.7   2.493   61.9  0.0847   36.2  0.2157  -97.8
 1.100  0.7238  156.9   2.447   61.1  0.0853   36.4  0.2158  -98.4
 1.120  0.7247  156.1   2.406   60.4  0.0861   36.7  0.2160  -99.0
 1.140  0.7258  155.3   2.366   59.8  0.0868   37.0  0.2162  -99.6
 1.160  0.7270  154.5   2.326   59.1  0.0876   37.3  0.2164 -100.3
 1.180  0.7283  153.7   2.286   58.3  0.0883   37.5  0.2167 -100.9
 1.200  0.7298  152.9   2.247   57.6  0.0891   37.8  0.2170 -101.5
 1.220  0.7291  152.1   2.212   57.0  0.0900   37.9  0.2172 -102.1
 1.240  0.7285  151.3   2.178   56.3  0.0908   38.0  0.2175 -102.6
 1.260  0.7281  150.5   2.144   55.7  0.0917   38.2  0.2178 -103.2
 1.280  0.7278  149.7   2.110   55.0  0.0925   38.3  0.2181 -103.7
 1.300  0.7277  148.9   2.076   54.3  0.0934   38.4  0.2184 -104.3
 1.320  0.7293  148.2   2.046   53.7  0.0941   38.6  0.2194 -104.8
 1.340  0.7309  147.6   2.016   53.1  0.0949   38.8  0.2203 -105.3
 1.360  0.7327  146.9   1.986   52.5  0.0956   39.0  0.2213 -105.8
 1.380  0.7345  146.3   1.957   51.9  0.0964   39.2  0.2224 -106.3
 1.400  0.7365  145.6   1.928   51.2  0.0971   39.4  0.2234 -106.8
 1.420  0.7367  144.9   1.905   50.6  0.0980   39.6  0.2243 -107.4
 1.440  0.7370  144.2   1.883   50.0  0.0989   39.7  0.2252 -108.1
 1.460  0.7375  143.5   1.861   49.4  0.0998   39.9  0.2261 -108.7
 1.480  0.7380  142.8   1.839   48.7  0.1007   40.0  0.2270 -109.3
 1.500  0.7387  142.1   1.817   48.1  0.1016   40.2  0.2280 -109.9
 1.520  0.7403  141.4   1.791   47.5  0.1026   40.3  0.2288 -110.5
 1.540  0.7419  140.7   1.765   46.8  0.1037   40.4  0.2297 -111.1
 1.560  0.7437  140.0   1.739   46.1  0.1047   40.5  0.2306 -111.7
 1.580  0.7456  139.3   1.713   45.4  0.1058   40.6  0.2315 -112.3
 1.600  0.7476  138.6   1.688   44.7  0.1068   40.7  0.2324 -112.9
 1.620  0.7480  137.9   1.667   44.1  0.1077   40.8  0.2331 -113.4
 1.640  0.7484  137.2   1.647   43.5  0.1086   40.9  0.2339 -114.0
 1.660  0.7490  136.4   1.626   42.9  0.1094   41.1  0.2346 -114.5
 1.680  0.7498  135.7   1.606   42.3  0.1103   41.2  0.2354 -115.1
 1.700  0.7506  135.0   1.586   41.6  0.1112   41.3  0.2362 -115.6
 1.720  0.7514  134.3   1.571   41.1  0.1122   41.3  0.2376 -116.1
 1.740  0.7523  133.6   1.555   40.6  0.1133   41.3  0.2389 -116.5
 1.760  0.7533  133.0   1.540   40.1  0.1143   41.3  0.2403 -116.9
 1.780  0.7545  132.3   1.525   39.5  0.1154   41.3  0.2417 -117.4
 1.800  0.7557  131.6   1.510   39.0  0.1164   41.3  0.2431 -117.8
 1.820  0.7558  131.1   1.493   38.4  0.1175   41.4  0.2447 -118.5
 1.840  0.7560  130.5   1.477   37.8  0.1186   41.5  0.2463 -119.2
 1.860  0.7562  130.0   1.461   37.2  0.1198   41.5  0.2479 -119.9
 1.880  0.7565  129.4   1.445   36.6  0.1209   41.6  0.2496 -120.6
 1.900  0.7569  128.9   1.429   36.0  0.1220   41.7  0.2513 -121.3
 1.920  0.7589  128.3   1.414   35.5  0.1230   41.6  0.2519 -121.9
 1.940  0.7609  127.7   1.399   34.9  0.1240   41.6  0.2526 -122.5
 1.960  0.7631  127.1   1.384   34.4  0.1250   41.5  0.2533 -123.1
 1.980  0.7653  126.5   1.369   33.8  0.1260   41.5  0.2540 -123.7
 2.000  0.7676  125.9   1.354   33.2  0.1270   41.4  0.2548 -124.3
 2.020  0.7678  125.3   1.340   32.7  0.1281   41.4  0.2562 -124.8
 2.040  0.7681  124.7   1.327   32.2  0.1292   41.4  0.2577 -125.4
 2.060  0.7685  124.1   1.314   31.6  0.1304   41.3  0.2592 -125.9
 2.080  0.7689  123.5   1.301   31.1  0.1315   41.3  0.2607 -126.5
 2.100  0.7695  122.9   1.287   30.5  0.1326   41.3  0.2622 -127.0
 2.120  0.7701  122.3   1.275   30.0  0.1337   41.3  0.2638 -127.5
 2.140  0.7708  121.7   1.262   29.4  0.1348   41.3  0.2654 -128.0
 2.160  0.7716  121.1   1.249   28.8  0.1360   41.2  0.2670 -128.5
 2.180  0.7725  120.5   1.236   28.2  0.1371   41.2  0.2686 -129.0
 2.200  0.7735  119.9   1.224   27.6  0.1382   41.2  0.2702 -129.5
 2.220  0.7745  119.3   1.214   27.1  0.1393   41.1  0.2715 -130.2
 2.240  0.7755  118.6   1.204   26.6  0.1405   41.1  0.2728 -130.9
 2.260  0.7766  118.0   1.194   26.0  0.1416   41.0  0.2742 -131.5
 2.280  0.7779  117.4   1.185   25.5  0.1428   40.9  0.2756 -132.2
 2.300  0.7792  116.8   1.175   25.0  0.1439   40.8  0.2770 -132.8
 2.320  0.7806  116.2   1.166   24.4  0.1451   40.8  0.2785 -133.5
 2.340  0.7821  115.5   1.156   23.8  0.1462   40.7  0.2800 -134.1
 2.360  0.7837  114.9   1.147   23.3  0.1474   40.6  0.2815 -134.8
 2.380  0.7854  114.3   1.138   22.7  0.1485   40.6  0.2831 -135.4
 2.400  0.7872  113.7   1.129   22.1  0.1497   40.5  0.2847 -136.0
 2.420  0.7878  113.2   1.119   21.7  0.1509   40.4  0.2862 -136.6
 2.440  0.7884  112.7   1.109   21.2  0.1521   40.2  0.2878 -137.2
 2.460  0.7891  112.1   1.099   20.8  0.1533   40.1  0.2894 -137.7
 2.480  0.7899  111.6   1.089   20.3  0.1545   40.0  0.2911 -138.3
 2.500  0.7907  111.1   1.080   19.9  0.1556   39.9  0.2927 -138.8
 2.520  0.7916  110.6   1.070   19.4  0.1568   39.8  0.2944 -139.4
 2.540  0.7925  110.0   1.060   18.9  0.1580   39.6  0.2961 -139.9
 2.560  0.7936  109.5   1.051   18.4  0.1592   39.5  0.2978 -140.5
 2.580  0.7946  109.0   1.041   17.9  0.1604   39.4  0.2996 -141.0
 2.600  0.7958  108.5   1.032   17.4  0.1616   39.3  0.3014 -141.5
 2.620  0.7966  108.0   1.024   17.0  0.1627   39.2  0.3030 -142.1
 2.640  0.7975  107.5   1.017   16.6  0.1639   39.0  0.3046 -142.8
 2.660  0.7985  107.0   1.009   16.1  0.1650   38.9  0.3063 -143.4
 2.680  0.7995  106.4   1.002   15.7  0.1662   38.7  0.3080 -144.0
 2.700  0.8006  105.9   0.995   15.2  0.1673   38.6  0.3097 -144.6
 2.720  0.8017  105.4   0.987   14.8  0.1685   38.4  0.3115 -145.2
 2.740  0.8029  104.9   0.980   14.3  0.1696   38.3  0.3133 -145.8
 2.760  0.8042  104.4   0.973   13.9  0.1708   38.2  0.3151 -146.4
 2.780  0.8055  103.9   0.966   13.4  0.1719   38.0  0.3170 -146.9
 2.800  0.8069  103.4   0.959   12.9  0.1731   37.9  0.3189 -147.5
 2.820  0.8074  102.9   0.951   12.5  0.1743   37.7  0.3208 -148.1
 2.840  0.8080  102.5   0.944   12.0  0.1755   37.5  0.3226 -148.7
 2.860  0.8086  102.0   0.936   11.6  0.1767   37.3  0.3245 -149.2
 2.880  0.8093  101.5   0.929   11.1  0.1779   37.2  0.3265 -149.8
 2.900  0.8101  101.0   0.921   10.6  0.1791   37.0  0.3285 -150.3
 2.920  0.8109  100.6   0.914   10.2  0.1803   36.8  0.3305 -150.9
 2.940  0.8117  100.1   0.907    9.7  0.1815   36.6  0.3325 -151.4
 2.960  0.8126   99.6   0.899    9.2  0.1827   36.4  0.3346 -152.0
 2.980  0.8136   99.2   0.892    8.7  0.1839   36.3  0.3367 -152.5
 3.000  0.8146   98.7   0.885    8.2  0.1851   36.1  0.3388 -153.0
 3.100  0.8173   96.5   0.854    6.6  0.1904   35.0  0.3471 -156.0
 3.200  0.8211   94.4   0.823    4.9  0.1958   34.0  0.3564 -158.9
 3.300  0.8260   92.3   0.794    3.1  0.2013   33.0  0.3665 -161.6
 3.400  0.8321   90.2   0.765    1.1  0.2068   32.1  0.3774 -164.2
 3.500  0.8393   88.1   0.737   -1.0  0.2124   31.2  0.3890 -166.6
 3.600  0.8401   86.2   0.715   -2.3  0.2176   30.1  0.3985 -169.3
 3.700  0.8419   84.4   0.694   -3.8  0.2228   29.0  0.4088 -171.8
 3.800  0.8445   82.5   0.674   -5.3  0.2281   27.9  0.4198 -174.2
 3.900  0.8480   80.7   0.654   -6.9  0.2335   26.9  0.4316 -176.5
 4.000  0.8523   78.9   0.634   -8.6  0.2390   26.0  0.4440 -178.7
 4.100  0.8533   77.3   0.619   -9.6  0.2440   24.8  0.4529  179.0
 4.200  0.8550   75.8   0.603  -10.6  0.2491   23.6  0.4625  176.9
 4.300  0.8572   74.2   0.588  -11.7  0.2544   22.4  0.4728  174.8
 4.400  0.8602   72.6   0.574  -12.9  0.2597   21.3  0.4836  172.8
 4.500  0.8637   71.1   0.559  -14.1  0.2651   20.3  0.4950  170.9
 4.600  0.8641   69.8   0.548  -15.0  0.2695   19.1  0.5034  168.9
 4.700  0.8649   68.4   0.537  -15.9  0.2740   17.9  0.5123  167.0
 4.800  0.8662   67.1   0.526  -16.8  0.2786   16.8  0.5218  165.2
 4.900  0.8680   65.7   0.515  -17.8  0.2833   15.7  0.5318  163.4
 5.000  0.8703   64.4   0.504  -18.8  0.2881   14.6  0.5423  161.7
 5.100  0.8720   63.2   0.496  -19.3  0.2922   13.3  0.5491  159.8
 5.200  0.8740   62.0   0.487  -19.9  0.2965   12.1  0.5566  157.9
 5.300  0.8765   60.8   0.479  -20.5  0.3009   10.9  0.5646  156.0
 5.400  0.8793   59.6   0.471  -21.1  0.3054    9.7  0.5732  154.2
 5.500  0.8825   58.4   0.463  -21.7  0.3101    8.6  0.5823  152.5
 5.600  0.8806   57.2   0.457  -22.3  0.3137    7.3  0.5884  150.8
 5.700  0.8791   56.1   0.452  -22.9  0.3175    6.0  0.5951  149.1
 5.800  0.8779   54.9   0.447  -23.6  0.3215    4.7  0.6022  147.5
 5.900  0.8771   53.8   0.441  -24.2  0.3256    3.5  0.6098  145.9
 6.000  0.8767   52.6   0.436  -24.9  0.3298    2.3  0.6179  144.3
!
!  f       NFmin   Gammaopt  rn/50
! GHz       dB    MAG  ANG    -
!
! noise parameter not available yet for this operation point!
!
! (c) 2016  Infineon Technologies AG, Munich
