! Infineon Technologies  Discrete & RF Semiconductors
! BFP193
! VCE = 3.0 V,  IC =  4.0 mA
! Common Emitter S-Parameters:                            Jan 2016
# GHz  S  MA  R  50
!  f         S11            S21            S12            S22
! GHz     MAG   ANG      MAG   ANG      MAG   ANG      MAG   ANG
 0.010  0.8573   -4.5  12.902  178.3  0.0034   89.4  0.9912   -1.9
 0.015  0.8547   -6.6  12.761  176.3  0.0054   85.6  0.9884   -2.8
 0.020  0.8532   -8.7  12.635  174.3  0.0075   83.9  0.9858   -3.7
 0.025  0.8499  -10.8  12.580  173.1  0.0093   82.3  0.9829   -4.6
 0.030  0.8477  -12.9  12.532  171.8  0.0112   81.2  0.9802   -5.5
 0.035  0.8467  -15.0  12.489  170.5  0.0130   80.5  0.9777   -6.5
 0.040  0.8469  -17.2  12.453  169.3  0.0149   79.9  0.9756   -7.4
 0.045  0.8482  -19.3  12.423  168.0  0.0167   79.5  0.9736   -8.4
 0.050  0.8507  -21.4  12.399  166.7  0.0186   79.1  0.9720   -9.3
 0.055  0.8434  -23.4  12.320  165.6  0.0202   77.3  0.9663  -10.1
 0.060  0.8371  -25.4  12.247  164.4  0.0219   75.8  0.9607  -10.9
 0.065  0.8318  -27.4  12.178  163.2  0.0236   74.6  0.9554  -11.8
 0.070  0.8275  -29.4  12.115  162.0  0.0253   73.4  0.9503  -12.6
 0.075  0.8243  -31.5  12.057  160.8  0.0270   72.5  0.9454  -13.5
 0.080  0.8222  -33.6  12.004  159.6  0.0287   71.6  0.9407  -14.4
 0.085  0.8212  -35.7  11.957  158.4  0.0304   70.8  0.9362  -15.2
 0.090  0.8213  -37.7  11.915  157.2  0.0321   70.2  0.9319  -16.1
 0.095  0.8225  -39.8  11.879  155.9  0.0338   69.6  0.9279  -17.0
 0.100  0.8247  -41.9  11.848  154.7  0.0355   69.0  0.9241  -17.9
 0.105  0.8175  -43.6  11.724  153.6  0.0367   67.8  0.9168  -18.6
 0.110  0.8110  -45.4  11.604  152.5  0.0380   66.6  0.9097  -19.2
 0.115  0.8053  -47.2  11.489  151.4  0.0393   65.5  0.9026  -19.9
 0.120  0.8005  -49.0  11.378  150.3  0.0406   64.5  0.8957  -20.6
 0.125  0.7964  -50.9  11.272  149.1  0.0419   63.5  0.8889  -21.3
 0.130  0.7932  -52.8  11.170  147.9  0.0432   62.6  0.8823  -22.0
 0.135  0.7909  -54.6  11.073  146.7  0.0445   61.8  0.8758  -22.7
 0.140  0.7893  -56.5  10.981  145.5  0.0458   61.0  0.8694  -23.4
 0.145  0.7887  -58.4  10.895  144.3  0.0472   60.2  0.8632  -24.2
 0.150  0.7889  -60.3  10.813  143.0  0.0485   59.5  0.8571  -24.9
 0.155  0.7842  -61.8  10.713  142.2  0.0495   58.7  0.8503  -25.4
 0.160  0.7801  -63.4  10.616  141.3  0.0505   57.9  0.8435  -25.9
 0.165  0.7765  -65.0  10.521  140.5  0.0515   57.2  0.8368  -26.4
 0.170  0.7736  -66.6  10.428  139.6  0.0526   56.5  0.8301  -27.0
 0.175  0.7712  -68.2  10.338  138.7  0.0536   55.8  0.8236  -27.5
 0.180  0.7695  -69.8  10.251  137.8  0.0547   55.2  0.8171  -28.0
 0.185  0.7684  -71.4  10.166  136.9  0.0557   54.5  0.8107  -28.6
 0.190  0.7679  -73.1  10.083  135.9  0.0568   53.9  0.8043  -29.2
 0.195  0.7680  -74.7  10.004  135.0  0.0578   53.4  0.7981  -29.7
 0.200  0.7687  -76.3   9.927  134.0  0.0589   52.8  0.7919  -30.3
 0.220  0.7478  -82.0   9.506  130.8  0.0617   50.3  0.7643  -31.9
 0.240  0.7347  -88.0   9.117  127.3  0.0646   48.0  0.7373  -33.6
 0.260  0.7246  -93.3   8.750  124.3  0.0672   46.0  0.7132  -35.1
 0.280  0.7146  -97.8   8.390  121.9  0.0694   44.2  0.6915  -36.4
 0.300  0.7091 -102.4   8.047  119.2  0.0717   42.6  0.6702  -37.7
 0.320  0.6974 -106.0   7.747  117.5  0.0730   41.3  0.6524  -38.4
 0.340  0.6885 -109.7   7.454  115.7  0.0744   40.0  0.6348  -39.1
 0.360  0.6825 -113.5   7.170  113.7  0.0757   38.7  0.6172  -39.9
 0.380  0.6796 -117.3   6.895  111.5  0.0772   37.6  0.5998  -40.7
 0.400  0.6798 -121.2   6.630  109.2  0.0786   36.4  0.5825  -41.6
 0.420  0.6722 -124.0   6.404  107.7  0.0794   35.6  0.5703  -42.0
 0.440  0.6662 -126.8   6.182  106.2  0.0802   34.8  0.5582  -42.5
 0.450  0.6638 -128.3   6.072  105.3  0.0807   34.4  0.5521  -42.7
 0.460  0.6618 -129.7   5.965  104.5  0.0811   34.0  0.5461  -43.0
 0.480  0.6592 -132.7   5.753  102.7  0.0819   33.2  0.5340  -43.5
 0.500  0.6583 -135.6   5.548  100.7  0.0828   32.5  0.5220  -44.0
 0.520  0.6540 -137.9   5.391   99.5  0.0832   32.0  0.5132  -44.3
 0.540  0.6507 -140.3   5.236   98.2  0.0837   31.6  0.5044  -44.6
 0.560  0.6486 -142.7   5.084   96.9  0.0842   31.1  0.4957  -45.0
 0.580  0.6476 -145.1   4.936   95.4  0.0846   30.6  0.4869  -45.3
 0.600  0.6478 -147.5   4.790   93.9  0.0851   30.2  0.4782  -45.7
 0.620  0.6459 -149.4   4.669   92.8  0.0855   29.9  0.4722  -46.0
 0.640  0.6448 -151.2   4.549   91.7  0.0859   29.7  0.4661  -46.2
 0.660  0.6443 -153.1   4.431   90.5  0.0863   29.4  0.4601  -46.5
 0.680  0.6445 -155.0   4.315   89.3  0.0867   29.2  0.4541  -46.8
 0.700  0.6454 -156.9   4.201   88.0  0.0871   28.9  0.4481  -47.1
 0.720  0.6441 -158.4   4.101   87.1  0.0876   28.8  0.4437  -47.3
 0.740  0.6432 -160.0   4.002   86.2  0.0880   28.7  0.4393  -47.6
 0.760  0.6429 -161.5   3.904   85.2  0.0885   28.5  0.4349  -47.8
 0.780  0.6429 -163.1   3.807   84.2  0.0889   28.4  0.4305  -48.1
 0.800  0.6435 -164.6   3.712   83.1  0.0894   28.3  0.4261  -48.3
 0.820  0.6416 -165.9   3.633   82.2  0.0897   28.2  0.4233  -48.5
 0.840  0.6400 -167.3   3.555   81.3  0.0901   28.2  0.4204  -48.8
 0.860  0.6388 -168.6   3.478   80.4  0.0904   28.1  0.4176  -49.0
 0.880  0.6379 -170.0   3.401   79.4  0.0908   28.1  0.4148  -49.3
 0.900  0.6374 -171.3   3.326   78.4  0.0911   28.0  0.4120  -49.5
 0.920  0.6371 -172.7   3.265   77.6  0.0912   28.0  0.4095  -49.8
 0.940  0.6372 -174.2   3.204   76.8  0.0913   28.0  0.4071  -50.0
 0.960  0.6377 -175.6   3.144   76.0  0.0913   28.1  0.4047  -50.3
 0.980  0.6386 -177.1   3.085   75.1  0.0914   28.1  0.4022  -50.6
 1.000  0.6399 -178.5   3.026   74.2  0.0915   28.1  0.3998  -50.9
 1.020  0.6397 -179.6   2.976   73.5  0.0918   28.2  0.3977  -51.2
 1.040  0.6398  179.2   2.926   72.7  0.0922   28.3  0.3957  -51.6
 1.060  0.6401  178.1   2.877   71.9  0.0925   28.4  0.3936  -51.9
 1.080  0.6407  176.9   2.829   71.1  0.0929   28.5  0.3916  -52.3
 1.100  0.6415  175.8   2.781   70.2  0.0932   28.6  0.3896  -52.6
 1.120  0.6418  174.7   2.737   69.5  0.0935   28.7  0.3881  -53.0
 1.140  0.6423  173.6   2.694   68.7  0.0937   28.9  0.3867  -53.4
 1.160  0.6430  172.6   2.651   67.9  0.0940   29.0  0.3853  -53.7
 1.180  0.6439  171.5   2.609   67.1  0.0942   29.2  0.3839  -54.1
 1.200  0.6451  170.4   2.567   66.3  0.0945   29.3  0.3825  -54.5
 1.220  0.6447  169.5   2.528   65.6  0.0948   29.5  0.3810  -54.8
 1.240  0.6444  168.6   2.489   65.0  0.0952   29.6  0.3794  -55.2
 1.260  0.6444  167.6   2.450   64.3  0.0955   29.8  0.3779  -55.5
 1.280  0.6444  166.7   2.412   63.5  0.0959   29.9  0.3764  -55.9
 1.300  0.6447  165.8   2.374   62.8  0.0962   30.1  0.3749  -56.2
 1.320  0.6452  164.9   2.340   62.2  0.0965   30.3  0.3742  -56.6
 1.340  0.6458  164.1   2.306   61.5  0.0967   30.5  0.3736  -57.0
 1.360  0.6466  163.2   2.273   60.8  0.0970   30.8  0.3730  -57.3
 1.380  0.6475  162.4   2.240   60.1  0.0972   31.0  0.3724  -57.7
 1.400  0.6486  161.5   2.207   59.4  0.0975   31.2  0.3718  -58.1
 1.420  0.6498  160.7   2.181   58.8  0.0979   31.4  0.3706  -58.5
 1.440  0.6511  159.9   2.156   58.2  0.0983   31.7  0.3695  -59.0
 1.460  0.6526  159.1   2.131   57.5  0.0987   31.9  0.3683  -59.4
 1.480  0.6541  158.4   2.106   56.9  0.0991   32.2  0.3672  -59.9
 1.500  0.6558  157.6   2.082   56.2  0.0995   32.4  0.3661  -60.3
 1.520  0.6568  156.7   2.054   55.6  0.1001   32.6  0.3654  -60.7
 1.540  0.6580  155.9   2.026   54.9  0.1006   32.7  0.3647  -61.1
 1.560  0.6594  155.0   1.998   54.2  0.1012   32.9  0.3641  -61.5
 1.580  0.6609  154.2   1.970   53.5  0.1017   33.0  0.3634  -61.9
 1.600  0.6625  153.3   1.943   52.8  0.1023   33.2  0.3628  -62.3
 1.620  0.6623  152.4   1.920   52.2  0.1029   33.5  0.3621  -62.7
 1.640  0.6622  151.6   1.898   51.6  0.1034   33.8  0.3615  -63.1
 1.660  0.6623  150.7   1.876   50.9  0.1040   34.0  0.3608  -63.6
 1.680  0.6625  149.9   1.854   50.3  0.1045   34.3  0.3602  -64.0
 1.700  0.6629  149.0   1.832   49.6  0.1051   34.6  0.3596  -64.4
 1.720  0.6641  148.3   1.814   49.1  0.1056   34.8  0.3592  -64.8
 1.740  0.6653  147.6   1.797   48.5  0.1061   35.0  0.3589  -65.3
 1.760  0.6667  146.8   1.779   48.0  0.1067   35.1  0.3586  -65.7
 1.780  0.6682  146.1   1.762   47.4  0.1072   35.3  0.3583  -66.2
 1.800  0.6698  145.4   1.745   46.8  0.1077   35.5  0.3580  -66.6
 1.820  0.6710  144.7   1.727   46.2  0.1084   35.7  0.3576  -67.2
 1.840  0.6723  144.1   1.710   45.6  0.1091   35.9  0.3573  -67.8
 1.860  0.6736  143.4   1.693   44.9  0.1099   36.2  0.3570  -68.3
 1.880  0.6751  142.8   1.676   44.3  0.1106   36.4  0.3567  -68.9
 1.900  0.6766  142.1   1.659   43.6  0.1113   36.6  0.3565  -69.5
 1.920  0.6773  141.3   1.642   43.1  0.1121   36.7  0.3556  -69.9
 1.940  0.6781  140.5   1.626   42.5  0.1128   36.9  0.3548  -70.4
 1.960  0.6791  139.8   1.609   42.0  0.1136   37.0  0.3539  -70.8
 1.980  0.6802  139.0   1.593   41.4  0.1143   37.2  0.3531  -71.3
 2.000  0.6814  138.2   1.577   40.8  0.1151   37.3  0.3523  -71.7
 2.020  0.6822  137.6   1.562   40.3  0.1159   37.5  0.3522  -72.2
 2.040  0.6831  136.9   1.546   39.7  0.1167   37.7  0.3521  -72.8
 2.060  0.6840  136.3   1.531   39.2  0.1174   37.8  0.3521  -73.3
 2.080  0.6850  135.7   1.516   38.7  0.1182   38.0  0.3521  -73.8
 2.100  0.6862  135.0   1.501   38.1  0.1190   38.2  0.3521  -74.4
 2.120  0.6874  134.4   1.486   37.5  0.1198   38.3  0.3521  -74.9
 2.140  0.6887  133.8   1.472   36.9  0.1205   38.5  0.3522  -75.4
 2.160  0.6900  133.1   1.457   36.3  0.1213   38.7  0.3523  -75.9
 2.180  0.6915  132.5   1.443   35.7  0.1221   38.8  0.3524  -76.5
 2.200  0.6930  131.9   1.429   35.1  0.1229   39.0  0.3526  -77.0
 2.220  0.6936  131.2   1.418   34.6  0.1238   39.1  0.3521  -77.6
 2.240  0.6942  130.5   1.407   34.0  0.1247   39.3  0.3516  -78.2
 2.260  0.6950  129.9   1.396   33.5  0.1256   39.4  0.3512  -78.8
 2.280  0.6959  129.2   1.385   33.0  0.1265   39.5  0.3508  -79.3
 2.300  0.6968  128.5   1.374   32.4  0.1274   39.7  0.3504  -79.9
 2.320  0.6979  127.9   1.364   31.8  0.1284   39.8  0.3501  -80.5
 2.340  0.6990  127.2   1.353   31.3  0.1293   39.9  0.3498  -81.1
 2.360  0.7002  126.5   1.343   30.7  0.1302   40.1  0.3495  -81.7
 2.380  0.7016  125.9   1.333   30.1  0.1311   40.2  0.3493  -82.3
 2.400  0.7030  125.2   1.323   29.5  0.1320   40.3  0.3491  -82.9
 2.420  0.7041  124.6   1.311   29.0  0.1330   40.4  0.3487  -83.5
 2.440  0.7053  124.0   1.300   28.6  0.1340   40.4  0.3484  -84.1
 2.460  0.7066  123.4   1.288   28.1  0.1350   40.5  0.3481  -84.7
 2.480  0.7080  122.8   1.277   27.6  0.1360   40.6  0.3479  -85.3
 2.500  0.7094  122.2   1.266   27.2  0.1369   40.7  0.3477  -85.9
 2.520  0.7109  121.6   1.255   26.7  0.1379   40.7  0.3475  -86.6
 2.540  0.7125  121.0   1.244   26.2  0.1389   40.8  0.3474  -87.2
 2.560  0.7142  120.5   1.233   25.7  0.1399   40.9  0.3473  -87.8
 2.580  0.7159  119.9   1.222   25.1  0.1409   40.9  0.3472  -88.4
 2.600  0.7177  119.3   1.211   24.6  0.1419   41.0  0.3472  -89.0
 2.620  0.7186  118.8   1.203   24.2  0.1430   41.0  0.3470  -89.6
 2.640  0.7196  118.2   1.194   23.7  0.1440   41.0  0.3468  -90.3
 2.660  0.7206  117.7   1.186   23.3  0.1451   41.0  0.3467  -90.9
 2.680  0.7217  117.2   1.178   22.8  0.1462   41.0  0.3466  -91.6
 2.700  0.7229  116.7   1.170   22.3  0.1472   41.1  0.3466  -92.2
 2.720  0.7241  116.2   1.162   21.9  0.1483   41.1  0.3466  -92.8
 2.740  0.7253  115.6   1.154   21.4  0.1494   41.1  0.3466  -93.5
 2.760  0.7267  115.1   1.146   20.9  0.1505   41.1  0.3467  -94.1
 2.780  0.7281  114.6   1.139   20.4  0.1515   41.1  0.3468  -94.8
 2.800  0.7295  114.1   1.131   19.9  0.1526   41.1  0.3470  -95.4
 2.820  0.7302  113.6   1.122   19.5  0.1538   41.1  0.3471  -96.1
 2.840  0.7310  113.1   1.114   19.0  0.1550   41.1  0.3472  -96.7
 2.860  0.7318  112.6   1.105   18.5  0.1561   41.1  0.3474  -97.4
 2.880  0.7326  112.1   1.096   18.1  0.1573   41.1  0.3476  -98.1
 2.900  0.7336  111.6   1.088   17.6  0.1585   41.1  0.3479  -98.8
 2.920  0.7345  111.1   1.080   17.1  0.1597   41.1  0.3482  -99.4
 2.940  0.7356  110.6   1.071   16.6  0.1609   41.1  0.3486 -100.1
 2.960  0.7367  110.1   1.063   16.1  0.1620   41.1  0.3490 -100.8
 2.980  0.7378  109.6   1.055   15.6  0.1632   41.1  0.3495 -101.4
 3.000  0.7390  109.1   1.047   15.1  0.1644   41.1  0.3500 -102.1
 3.100  0.7431  106.8   1.011   13.4  0.1706   40.7  0.3500 -105.6
 3.200  0.7484  104.5   0.977   11.6  0.1768   40.3  0.3514 -109.2
 3.300  0.7549  102.3   0.943    9.6  0.1830   39.9  0.3540 -112.6
 3.400  0.7624  100.1   0.911    7.5  0.1892   39.6  0.3580 -116.1
 3.500  0.7711   98.0   0.880    5.3  0.1954   39.3  0.3632 -119.4
 3.600  0.7736   96.0   0.855    3.8  0.2024   38.5  0.3659 -123.2
 3.700  0.7769   94.1   0.831    2.1  0.2095   37.7  0.3701 -127.0
 3.800  0.7812   92.1   0.808    0.4  0.2165   36.9  0.3759 -130.6
 3.900  0.7864   90.2   0.786   -1.4  0.2237   36.2  0.3832 -134.1
 4.000  0.7924   88.3   0.764   -3.3  0.2308   35.6  0.3918 -137.5
 4.100  0.7952   86.6   0.745   -4.5  0.2375   34.4  0.3962 -141.1
 4.200  0.7988   84.9   0.726   -5.8  0.2442   33.3  0.4021 -144.5
 4.300  0.8030   83.2   0.707   -7.1  0.2511   32.2  0.4095 -147.9
 4.400  0.8079   81.5   0.689   -8.5  0.2580   31.2  0.4181 -151.1
 4.500  0.8135   79.9   0.671  -10.0  0.2650   30.2  0.4281 -154.2
 4.600  0.8150   78.6   0.657  -11.0  0.2710   29.0  0.4339 -157.4
 4.700  0.8170   77.2   0.642  -12.1  0.2771   27.9  0.4411 -160.5
 4.800  0.8193   75.9   0.628  -13.2  0.2833   26.8  0.4495 -163.5
 4.900  0.8222   74.6   0.614  -14.4  0.2896   25.7  0.4590 -166.4
 5.000  0.8254   73.3   0.601  -15.6  0.2960   24.7  0.4697 -169.1
 5.100  0.8276   72.0   0.589  -16.3  0.3016   23.4  0.4744 -172.0
 5.200  0.8303   70.7   0.577  -17.0  0.3074   22.2  0.4803 -174.9
 5.300  0.8334   69.4   0.565  -17.8  0.3134   21.0  0.4873 -177.6
 5.400  0.8369   68.1   0.554  -18.6  0.3194   19.8  0.4955  179.7
 5.500  0.8408   66.8   0.542  -19.4  0.3256   18.7  0.5047  177.1
 5.600  0.8399   65.7   0.534  -20.0  0.3308   17.3  0.5101  174.6
 5.700  0.8393   64.6   0.525  -20.6  0.3361   16.0  0.5165  172.1
 5.800  0.8391   63.4   0.517  -21.2  0.3416   14.7  0.5239  169.6
 5.900  0.8391   62.3   0.509  -21.8  0.3473   13.4  0.5322  167.3
 6.000  0.8395   61.2   0.501  -22.5  0.3532   12.2  0.5413  165.0
!
!  f       NFmin   Gammaopt  rn/50
! GHz       dB    MAG  ANG    -
!
! noise parameter not available yet for this operation point!
!
! (c) 2016  Infineon Technologies AG, Munich
