! Infineon Technologies  Discrete & RF Semiconductors
! BFP183
! VCE = 3.5 V,  IC =  30 mA
! Common Emitter S-Parameters:                            Jan 2016
# GHz  S  MA  R  50
!  f         S11            S21            S12            S22
! GHz     MAG   ANG      MAG   ANG      MAG   ANG      MAG   ANG
 0.010  0.4147  -10.0  43.129  175.3  0.0015   81.9  0.9488   -3.0
 0.015  0.4143  -15.3  43.000  173.2  0.0024   82.5  0.9441   -4.8
 0.020  0.4174  -20.5  42.928  171.1  0.0034   82.7  0.9404   -6.6
 0.025  0.4120  -25.2  42.422  169.0  0.0042   81.0  0.9312   -8.1
 0.030  0.4095  -30.0  41.973  166.9  0.0049   79.8  0.9228   -9.7
 0.035  0.4099  -34.8  41.584  164.7  0.0057   78.9  0.9149  -11.2
 0.040  0.4131  -39.6  41.255  162.5  0.0065   78.2  0.9078  -12.8
 0.045  0.4192  -44.3  40.989  160.3  0.0072   77.7  0.9015  -14.5
 0.050  0.4280  -48.8  40.786  158.0  0.0080   77.3  0.8958  -16.1
 0.055  0.4237  -52.4  40.003  156.5  0.0085   74.9  0.8818  -17.2
 0.060  0.4210  -56.1  39.248  155.0  0.0091   72.8  0.8681  -18.3
 0.065  0.4201  -59.8  38.522  153.4  0.0096   71.0  0.8548  -19.4
 0.070  0.4210  -63.5  37.826  151.8  0.0102   69.3  0.8418  -20.6
 0.075  0.4236  -67.1  37.164  150.0  0.0107   67.8  0.8291  -21.8
 0.080  0.4279  -70.7  36.535  148.3  0.0113   66.5  0.8169  -23.1
 0.085  0.4339  -74.3  35.943  146.4  0.0119   65.3  0.8051  -24.4
 0.090  0.4414  -77.7  35.388  144.6  0.0124   64.2  0.7937  -25.7
 0.095  0.4505  -81.0  34.873  142.6  0.0130   63.2  0.7827  -27.1
 0.100  0.4610  -84.1  34.400  140.6  0.0136   62.3  0.7722  -28.5
 0.105  0.4590  -86.7  33.753  139.5  0.0140   61.5  0.7601  -29.1
 0.110  0.4579  -89.2  33.118  138.4  0.0144   60.8  0.7481  -29.8
 0.115  0.4578  -91.8  32.496  137.2  0.0149   60.1  0.7362  -30.5
 0.120  0.4586  -94.4  31.888  136.0  0.0153   59.4  0.7244  -31.2
 0.125  0.4603  -97.0  31.295  134.8  0.0157   58.8  0.7127  -31.9
 0.130  0.4629  -99.5  30.717  133.5  0.0162   58.2  0.7011  -32.6
 0.135  0.4665 -102.0  30.156  132.1  0.0166   57.6  0.6896  -33.4
 0.140  0.4709 -104.5  29.611  130.8  0.0170   57.1  0.6783  -34.2
 0.145  0.4762 -106.9  29.086  129.3  0.0175   56.6  0.6671  -35.0
 0.150  0.4823 -109.3  28.579  127.8  0.0179   56.1  0.6561  -35.9
 0.155  0.4824 -111.0  28.081  127.0  0.0182   55.7  0.6467  -36.3
 0.160  0.4830 -112.7  27.588  126.2  0.0185   55.4  0.6374  -36.7
 0.165  0.4840 -114.4  27.100  125.4  0.0188   55.0  0.6281  -37.1
 0.170  0.4854 -116.1  26.619  124.5  0.0191   54.7  0.6188  -37.5
 0.175  0.4872 -117.7  26.144  123.7  0.0193   54.3  0.6096  -37.9
 0.180  0.4894 -119.4  25.675  122.7  0.0196   54.0  0.6004  -38.3
 0.185  0.4920 -121.0  25.213  121.8  0.0199   53.7  0.5912  -38.8
 0.190  0.4950 -122.6  24.758  120.8  0.0202   53.4  0.5821  -39.2
 0.195  0.4984 -124.2  24.311  119.8  0.0205   53.1  0.5730  -39.7
 0.200  0.5022 -125.8  23.872  118.7  0.0208   52.8  0.5639  -40.2
 0.220  0.5047 -130.7  22.350  116.3  0.0214   52.4  0.5365  -41.0
 0.240  0.5108 -135.5  20.872  113.5  0.0220   52.0  0.5093  -41.8
 0.260  0.5156 -139.5  19.600  111.1  0.0227   51.7  0.4855  -42.4
 0.280  0.5180 -142.9  18.509  109.1  0.0236   51.6  0.4650  -42.7
 0.300  0.5222 -146.2  17.443  106.9  0.0245   51.4  0.4446  -43.0
 0.320  0.5215 -148.8  16.649  105.6  0.0251   51.6  0.4314  -43.1
 0.340  0.5218 -151.4  15.865  104.2  0.0257   51.9  0.4183  -43.1
 0.360  0.5232 -154.0  15.091  102.6  0.0264   52.1  0.4051  -43.2
 0.380  0.5257 -156.6  14.330  100.9  0.0270   52.3  0.3920  -43.3
 0.400  0.5292 -159.1  13.583   99.0  0.0276   52.5  0.3788  -43.4
 0.420  0.5293 -161.0  13.057   98.0  0.0283   52.6  0.3710  -43.3
 0.440  0.5300 -162.8  12.534   97.0  0.0291   52.6  0.3631  -43.3
 0.450  0.5305 -163.7  12.275   96.4  0.0294   52.7  0.3592  -43.2
 0.460  0.5312 -164.6  12.017   95.8  0.0298   52.7  0.3553  -43.2
 0.480  0.5330 -166.5  11.504   94.6  0.0306   52.7  0.3474  -43.1
 0.500  0.5353 -168.3  10.998   93.2  0.0313   52.8  0.3396  -43.0
 0.520  0.5362 -169.6  10.658   92.4  0.0321   53.3  0.3345  -42.9
 0.540  0.5375 -171.0  10.320   91.5  0.0329   53.7  0.3294  -42.8
 0.560  0.5390 -172.3   9.985   90.6  0.0337   54.2  0.3242  -42.7
 0.580  0.5408 -173.6   9.653   89.6  0.0345   54.6  0.3191  -42.6
 0.600  0.5429 -174.9   9.323   88.6  0.0353   55.0  0.3140  -42.5
 0.620  0.5420 -176.2   9.050   87.9  0.0359   55.3  0.3108  -42.5
 0.640  0.5413 -177.5   8.779   87.1  0.0365   55.5  0.3076  -42.5
 0.660  0.5409 -178.8   8.509   86.4  0.0371   55.8  0.3044  -42.4
 0.680  0.5408  179.9   8.241   85.5  0.0377   56.1  0.3012  -42.4
 0.700  0.5410  178.6   7.975   84.6  0.0383   56.3  0.2980  -42.4
 0.720  0.5417  177.7   7.789   84.0  0.0390   56.3  0.2957  -42.4
 0.740  0.5426  176.7   7.604   83.3  0.0397   56.3  0.2934  -42.4
 0.760  0.5436  175.8   7.420   82.6  0.0405   56.4  0.2910  -42.4
 0.780  0.5448  174.9   7.237   81.9  0.0412   56.4  0.2887  -42.4
 0.800  0.5461  174.0   7.056   81.1  0.0419   56.4  0.2864  -42.4
 0.820  0.5465  173.1   6.903   80.5  0.0428   56.5  0.2846  -42.5
 0.840  0.5470  172.2   6.751   79.9  0.0437   56.5  0.2829  -42.6
 0.860  0.5477  171.4   6.599   79.3  0.0445   56.6  0.2811  -42.6
 0.880  0.5485  170.5   6.449   78.7  0.0454   56.6  0.2794  -42.7
 0.900  0.5494  169.6   6.299   78.0  0.0463   56.7  0.2776  -42.8
 0.920  0.5503  168.6   6.167   77.4  0.0470   56.8  0.2763  -42.9
 0.940  0.5515  167.7   6.037   76.8  0.0477   57.0  0.2751  -43.0
 0.960  0.5527  166.7   5.907   76.1  0.0483   57.1  0.2738  -43.2
 0.980  0.5541  165.8   5.777   75.4  0.0490   57.3  0.2726  -43.3
 1.000  0.5557  164.8   5.649   74.7  0.0497   57.4  0.2713  -43.4
 1.020  0.5562  164.2   5.551   74.1  0.0506   57.4  0.2702  -43.5
 1.040  0.5568  163.5   5.454   73.6  0.0516   57.4  0.2692  -43.7
 1.060  0.5574  162.9   5.357   73.0  0.0525   57.4  0.2681  -43.8
 1.080  0.5581  162.2   5.261   72.3  0.0535   57.4  0.2671  -44.0
 1.100  0.5589  161.6   5.166   71.7  0.0544   57.4  0.2660  -44.1
 1.120  0.5590  160.8   5.076   71.2  0.0551   57.3  0.2653  -44.3
 1.140  0.5591  160.0   4.987   70.7  0.0559   57.2  0.2645  -44.5
 1.160  0.5594  159.1   4.898   70.2  0.0566   57.2  0.2638  -44.8
 1.180  0.5598  158.3   4.809   69.7  0.0574   57.1  0.2631  -45.0
 1.200  0.5603  157.5   4.721   69.1  0.0581   57.0  0.2624  -45.2
 1.220  0.5611  156.9   4.647   68.6  0.0589   57.0  0.2618  -45.5
 1.240  0.5621  156.3   4.573   68.0  0.0598   57.0  0.2611  -45.8
 1.260  0.5630  155.6   4.500   67.5  0.0606   56.9  0.2605  -46.0
 1.280  0.5641  155.0   4.427   66.9  0.0615   56.9  0.2599  -46.3
 1.300  0.5652  154.4   4.355   66.3  0.0623   56.9  0.2593  -46.6
 1.320  0.5662  153.6   4.295   65.8  0.0631   56.8  0.2587  -46.8
 1.340  0.5673  152.8   4.235   65.3  0.0639   56.8  0.2581  -47.1
 1.360  0.5685  152.0   4.175   64.8  0.0646   56.7  0.2575  -47.3
 1.380  0.5698  151.3   4.116   64.3  0.0654   56.7  0.2569  -47.6
 1.400  0.5712  150.5   4.057   63.8  0.0662   56.6  0.2563  -47.8
 1.420  0.5722  150.0   4.003   63.3  0.0670   56.5  0.2558  -48.1
 1.440  0.5733  149.5   3.949   62.7  0.0679   56.4  0.2554  -48.4
 1.460  0.5744  149.0   3.895   62.1  0.0687   56.3  0.2550  -48.6
 1.480  0.5755  148.5   3.842   61.5  0.0696   56.2  0.2545  -48.9
 1.500  0.5767  148.0   3.789   60.9  0.0704   56.1  0.2541  -49.2
 1.520  0.5770  147.3   3.742   60.4  0.0712   56.0  0.2537  -49.5
 1.540  0.5775  146.6   3.695   60.0  0.0719   55.9  0.2532  -49.8
 1.560  0.5780  146.0   3.649   59.5  0.0727   55.9  0.2528  -50.2
 1.580  0.5785  145.3   3.603   59.0  0.0734   55.8  0.2524  -50.5
 1.600  0.5792  144.6   3.557   58.5  0.0742   55.7  0.2520  -50.8
 1.620  0.5801  144.0   3.511   58.0  0.0750   55.6  0.2515  -51.2
 1.640  0.5810  143.4   3.466   57.5  0.0759   55.4  0.2509  -51.6
 1.660  0.5820  142.7   3.421   57.0  0.0767   55.3  0.2504  -52.0
 1.680  0.5831  142.1   3.376   56.5  0.0776   55.1  0.2499  -52.4
 1.700  0.5842  141.5   3.332   56.0  0.0784   55.0  0.2494  -52.8
 1.720  0.5859  140.9   3.294   55.5  0.0791   54.9  0.2487  -53.2
 1.740  0.5877  140.3   3.256   55.0  0.0799   54.8  0.2480  -53.6
 1.760  0.5895  139.7   3.219   54.5  0.0806   54.6  0.2474  -53.9
 1.780  0.5914  139.2   3.182   53.9  0.0814   54.5  0.2467  -54.3
 1.800  0.5933  138.6   3.145   53.4  0.0821   54.4  0.2461  -54.7
 1.820  0.5935  138.1   3.110   53.0  0.0829   54.2  0.2458  -55.0
 1.840  0.5937  137.6   3.076   52.5  0.0837   54.0  0.2454  -55.4
 1.860  0.5940  137.0   3.042   52.1  0.0845   53.8  0.2451  -55.7
 1.880  0.5943  136.5   3.008   51.7  0.0853   53.7  0.2448  -56.1
 1.900  0.5947  136.0   2.974   51.2  0.0861   53.5  0.2445  -56.4
 1.920  0.5961  135.4   2.942   50.7  0.0868   53.3  0.2441  -56.8
 1.940  0.5976  134.8   2.909   50.2  0.0876   53.1  0.2437  -57.2
 1.960  0.5991  134.1   2.877   49.7  0.0883   53.0  0.2433  -57.7
 1.980  0.6007  133.5   2.846   49.2  0.0891   52.8  0.2429  -58.1
 2.000  0.6024  132.9   2.814   48.7  0.0898   52.6  0.2425  -58.5
 2.020  0.6035  132.4   2.788   48.3  0.0906   52.4  0.2419  -58.9
 2.040  0.6046  131.9   2.762   47.8  0.0914   52.3  0.2414  -59.4
 2.060  0.6058  131.3   2.736   47.4  0.0921   52.1  0.2408  -59.8
 2.080  0.6070  130.8   2.710   46.9  0.0929   51.9  0.2403  -60.3
 2.100  0.6083  130.3   2.684   46.5  0.0937   51.8  0.2398  -60.7
 2.120  0.6096  129.8   2.659   46.0  0.0945   51.6  0.2393  -61.2
 2.140  0.6110  129.3   2.634   45.5  0.0953   51.5  0.2388  -61.6
 2.160  0.6124  128.8   2.609   45.0  0.0960   51.3  0.2383  -62.1
 2.180  0.6139  128.3   2.584   44.5  0.0968   51.1  0.2378  -62.5
 2.200  0.6154  127.8   2.559   44.0  0.0976   51.0  0.2374  -63.0
 2.220  0.6164  127.3   2.537   43.6  0.0984   50.8  0.2369  -63.5
 2.240  0.6175  126.7   2.514   43.2  0.0991   50.6  0.2365  -64.0
 2.260  0.6187  126.2   2.492   42.7  0.0999   50.4  0.2360  -64.5
 2.280  0.6199  125.7   2.470   42.3  0.1006   50.2  0.2356  -64.9
 2.300  0.6211  125.2   2.449   41.8  0.1014   50.1  0.2352  -65.4
 2.320  0.6224  124.7   2.427   41.4  0.1021   49.9  0.2348  -65.9
 2.340  0.6238  124.1   2.405   40.9  0.1029   49.7  0.2344  -66.4
 2.360  0.6252  123.6   2.384   40.5  0.1037   49.5  0.2341  -66.9
 2.380  0.6266  123.1   2.363   40.0  0.1044   49.4  0.2337  -67.4
 2.400  0.6281  122.6   2.342   39.5  0.1052   49.2  0.2334  -67.9
 2.420  0.6297  122.1   2.322   39.1  0.1059   49.0  0.2327  -68.4
 2.440  0.6313  121.7   2.302   38.7  0.1067   48.8  0.2321  -68.9
 2.460  0.6329  121.2   2.282   38.3  0.1074   48.6  0.2315  -69.4
 2.480  0.6346  120.7   2.263   37.8  0.1081   48.4  0.2309  -69.9
 2.500  0.6363  120.3   2.243   37.4  0.1088   48.2  0.2303  -70.4
 2.520  0.6381  119.8   2.224   37.0  0.1096   48.0  0.2297  -70.9
 2.540  0.6399  119.4   2.205   36.5  0.1103   47.8  0.2292  -71.4
 2.560  0.6418  118.9   2.186   36.0  0.1110   47.7  0.2286  -71.9
 2.580  0.6437  118.4   2.167   35.6  0.1118   47.5  0.2281  -72.4
 2.600  0.6456  118.0   2.148   35.1  0.1125   47.3  0.2276  -72.9
 2.620  0.6466  117.5   2.131   34.7  0.1131   47.1  0.2272  -73.5
 2.640  0.6476  117.0   2.114   34.2  0.1138   46.9  0.2268  -74.0
 2.660  0.6486  116.6   2.097   33.8  0.1144   46.7  0.2264  -74.6
 2.680  0.6497  116.1   2.081   33.3  0.1151   46.5  0.2260  -75.1
 2.700  0.6509  115.6   2.064   32.8  0.1157   46.3  0.2257  -75.7
 2.720  0.6520  115.2   2.048   32.4  0.1164   46.1  0.2254  -76.2
 2.740  0.6533  114.7   2.032   31.9  0.1170   45.9  0.2251  -76.8
 2.760  0.6545  114.2   2.016   31.4  0.1177   45.7  0.2248  -77.4
 2.780  0.6558  113.8   2.000   30.9  0.1183   45.5  0.2245  -77.9
 2.800  0.6572  113.3   1.984   30.4  0.1190   45.3  0.2243  -78.5
 2.820  0.6587  112.9   1.969   30.0  0.1197   45.1  0.2237  -79.1
 2.840  0.6602  112.4   1.955   29.6  0.1203   44.9  0.2232  -79.6
 2.860  0.6617  112.0   1.940   29.3  0.1210   44.7  0.2227  -80.2
 2.880  0.6633  111.6   1.926   28.9  0.1217   44.6  0.2222  -80.8
 2.900  0.6649  111.2   1.912   28.5  0.1223   44.4  0.2217  -81.3
 2.920  0.6666  110.8   1.898   28.1  0.1230   44.2  0.2212  -81.9
 2.940  0.6682  110.3   1.884   27.7  0.1237   44.0  0.2208  -82.5
 2.960  0.6700  109.9   1.870   27.2  0.1244   43.8  0.2204  -83.0
 2.980  0.6717  109.5   1.856   26.8  0.1250   43.7  0.2200  -83.6
 3.000  0.6735  109.1   1.842   26.4  0.1257   43.5  0.2196  -84.2
 3.100  0.6786  107.2   1.779   24.6  0.1288   42.5  0.2178  -87.3
 3.200  0.6844  105.2   1.719   22.7  0.1320   41.6  0.2166  -90.3
 3.300  0.6910  103.4   1.660   20.7  0.1352   40.7  0.2161  -93.5
 3.400  0.6983  101.5   1.603   18.5  0.1384   39.8  0.2162  -96.6
 3.500  0.7063   99.7   1.549   16.2  0.1417   39.0  0.2169  -99.7
 3.600  0.7117   98.0   1.503   14.6  0.1446   38.0  0.2162 -103.1
 3.700  0.7176   96.4   1.458   12.8  0.1476   37.0  0.2163 -106.4
 3.800  0.7242   94.8   1.415   11.0  0.1506   36.1  0.2172 -109.8
 3.900  0.7313   93.2   1.373    9.0  0.1536   35.2  0.2188 -113.1
 4.000  0.7389   91.7   1.333    6.9  0.1567   34.3  0.2211 -116.4
 4.100  0.7425   90.2   1.295    5.3  0.1592   33.3  0.2221 -119.8
 4.200  0.7467   88.7   1.258    3.7  0.1618   32.4  0.2238 -123.1
 4.300  0.7514   87.2   1.221    1.9  0.1644   31.5  0.2264 -126.4
 4.400  0.7565   85.7   1.187    0.1  0.1670   30.6  0.2296 -129.6
 4.500  0.7622   84.3   1.153   -1.9  0.1697   29.7  0.2335 -132.7
 4.600  0.7649   83.1   1.123   -3.2  0.1722   29.0  0.2359 -135.5
 4.700  0.7680   81.9   1.095   -4.6  0.1748   28.3  0.2389 -138.2
 4.800  0.7714   80.7   1.066   -6.0  0.1774   27.7  0.2424 -140.9
 4.900  0.7752   79.6   1.039   -7.6  0.1800   27.0  0.2465 -143.5
 5.000  0.7792   78.4   1.012   -9.2  0.1826   26.4  0.2510 -146.0
 5.100  0.7823   77.4   0.990  -10.6  0.1859   25.3  0.2571 -148.6
 5.200  0.7856   76.5   0.969  -12.0  0.1892   24.3  0.2637 -151.1
 5.300  0.7891   75.6   0.948  -13.5  0.1926   23.4  0.2708 -153.5
 5.400  0.7928   74.6   0.928  -15.1  0.1960   22.4  0.2784 -155.7
 5.500  0.7967   73.7   0.909  -16.7  0.1995   21.5  0.2863 -157.8
 5.600  0.8007   72.7   0.890  -17.9  0.2019   20.5  0.2922 -160.1
 5.700  0.8049   71.7   0.871  -19.2  0.2043   19.6  0.2987 -162.4
 5.800  0.8094   70.7   0.852  -20.6  0.2068   18.6  0.3055 -164.5
 5.900  0.8141   69.7   0.834  -22.0  0.2094   17.7  0.3128 -166.6
 6.000  0.8191   68.7   0.817  -23.5  0.2120   16.8  0.3204 -168.5
!
!  f       NFmin   Gammaopt  rn/50
! GHz       dB    MAG  ANG    -
!
! noise parameter not available yet for this operation point!
!
! (c) 2016  Infineon Technologies AG, Munich
