! Infineon Technologies  Discrete & RF Semiconductors
! BFP183
! VCE = 3.5 V,  IC =  20 mA
! Common Emitter S-Parameters:                            Jan 2016
# GHz  S  MA  R  50
!  f         S11            S21            S12            S22
! GHz     MAG   ANG      MAG   ANG      MAG   ANG      MAG   ANG
 0.010  0.5213   -7.2  37.020  176.1  0.0017   80.9  0.9685   -2.7
 0.015  0.5216  -11.0  36.901  174.4  0.0025   84.7  0.9625   -4.1
 0.020  0.5242  -14.8  36.817  172.6  0.0033   86.6  0.9571   -5.5
 0.025  0.5183  -18.3  36.511  170.8  0.0042   84.3  0.9511   -6.8
 0.030  0.5143  -21.9  36.243  169.0  0.0050   82.8  0.9457   -8.2
 0.035  0.5124  -25.5  36.012  167.1  0.0059   81.8  0.9408   -9.5
 0.040  0.5126  -29.2  35.819  165.2  0.0068   81.0  0.9364  -10.9
 0.045  0.5148  -32.8  35.666  163.3  0.0076   80.4  0.9326  -12.3
 0.050  0.5191  -36.4  35.552  161.4  0.0085   79.9  0.9293  -13.7
 0.055  0.5127  -39.3  35.028  160.0  0.0091   77.5  0.9180  -14.7
 0.060  0.5076  -42.3  34.526  158.6  0.0098   75.5  0.9070  -15.8
 0.065  0.5040  -45.4  34.046  157.1  0.0105   73.7  0.8963  -16.9
 0.070  0.5018  -48.5  33.588  155.6  0.0111   72.1  0.8860  -18.0
 0.075  0.5011  -51.6  33.155  154.0  0.0118   70.7  0.8760  -19.1
 0.080  0.5019  -54.7  32.747  152.4  0.0125   69.5  0.8663  -20.2
 0.085  0.5042  -57.8  32.365  150.8  0.0132   68.3  0.8570  -21.4
 0.090  0.5079  -60.9  32.009  149.1  0.0139   67.3  0.8480  -22.6
 0.095  0.5130  -63.9  31.682  147.4  0.0146   66.4  0.8395  -23.8
 0.100  0.5195  -66.8  31.383  145.7  0.0153   65.6  0.8313  -25.1
 0.105  0.5152  -69.2  30.889  144.6  0.0158   64.6  0.8204  -25.8
 0.110  0.5119  -71.6  30.407  143.5  0.0162   63.7  0.8096  -26.5
 0.115  0.5095  -74.1  29.936  142.4  0.0167   62.9  0.7989  -27.2
 0.120  0.5080  -76.6  29.478  141.2  0.0172   62.1  0.7884  -28.0
 0.125  0.5075  -79.0  29.033  140.0  0.0177   61.3  0.7780  -28.7
 0.130  0.5080  -81.5  28.601  138.7  0.0181   60.6  0.7678  -29.5
 0.135  0.5094  -84.0  28.183  137.4  0.0186   59.9  0.7576  -30.3
 0.140  0.5117  -86.5  27.780  136.1  0.0191   59.3  0.7477  -31.2
 0.145  0.5150  -88.9  27.393  134.7  0.0196   58.7  0.7379  -32.0
 0.150  0.5192  -91.3  27.022  133.3  0.0201   58.1  0.7283  -32.9
 0.155  0.5169  -93.1  26.611  132.5  0.0204   57.6  0.7190  -33.4
 0.160  0.5152  -94.9  26.206  131.6  0.0208   57.0  0.7098  -33.8
 0.165  0.5140  -96.7  25.807  130.8  0.0211   56.5  0.7006  -34.3
 0.170  0.5133  -98.6  25.414  129.9  0.0214   56.0  0.6915  -34.8
 0.175  0.5131 -100.4  25.027  129.0  0.0218   55.6  0.6824  -35.3
 0.180  0.5135 -102.2  24.647  128.0  0.0221   55.1  0.6734  -35.8
 0.185  0.5143 -104.1  24.274  127.0  0.0225   54.7  0.6644  -36.3
 0.190  0.5157 -105.9  23.908  126.0  0.0228   54.2  0.6555  -36.9
 0.195  0.5177 -107.7  23.550  125.0  0.0232   53.8  0.6467  -37.4
 0.200  0.5201 -109.5  23.200  123.9  0.0235   53.4  0.6379  -38.0
 0.220  0.5177 -114.7  21.862  121.3  0.0245   52.3  0.6085  -39.2
 0.240  0.5196 -119.9  20.576  118.3  0.0255   51.3  0.5794  -40.4
 0.260  0.5207 -124.5  19.444  115.7  0.0264   50.6  0.5534  -41.4
 0.280  0.5198 -128.6  18.440  113.6  0.0272   50.1  0.5302  -42.0
 0.300  0.5215 -132.7  17.463  111.3  0.0280   49.7  0.5071  -42.7
 0.320  0.5191 -135.7  16.702  109.9  0.0287   49.5  0.4919  -43.0
 0.340  0.5181 -138.8  15.952  108.3  0.0293   49.4  0.4767  -43.3
 0.360  0.5187 -141.8  15.216  106.5  0.0300   49.2  0.4615  -43.6
 0.380  0.5206 -144.9  14.495  104.6  0.0306   49.0  0.4463  -43.9
 0.400  0.5241 -147.9  13.792  102.5  0.0313   48.9  0.4312  -44.3
 0.420  0.5227 -150.2  13.272  101.4  0.0319   48.7  0.4213  -44.4
 0.440  0.5221 -152.4  12.756  100.3  0.0326   48.6  0.4113  -44.4
 0.450  0.5221 -153.6  12.500   99.7  0.0329   48.5  0.4063  -44.5
 0.460  0.5223 -154.7  12.246   99.0  0.0332   48.5  0.4014  -44.5
 0.480  0.5233 -157.0  11.742   97.7  0.0339   48.3  0.3914  -44.6
 0.500  0.5251 -159.2  11.246   96.2  0.0345   48.2  0.3815  -44.7
 0.520  0.5252 -161.0  10.908   95.3  0.0352   48.6  0.3750  -44.7
 0.540  0.5259 -162.7  10.572   94.4  0.0358   49.0  0.3685  -44.7
 0.560  0.5270 -164.4  10.240   93.4  0.0365   49.4  0.3621  -44.6
 0.580  0.5286 -166.2   9.911   92.3  0.0371   49.8  0.3556  -44.6
 0.600  0.5307 -167.9   9.585   91.2  0.0378   50.2  0.3491  -44.6
 0.620  0.5303 -169.2   9.307   90.4  0.0385   50.3  0.3447  -44.6
 0.640  0.5302 -170.5   9.030   89.6  0.0392   50.4  0.3402  -44.6
 0.660  0.5303 -171.9   8.755   88.8  0.0398   50.4  0.3358  -44.5
 0.680  0.5308 -173.2   8.482   87.9  0.0405   50.5  0.3313  -44.5
 0.700  0.5315 -174.5   8.212   86.9  0.0412   50.6  0.3269  -44.5
 0.720  0.5311 -175.7   8.022   86.2  0.0418   50.8  0.3240  -44.5
 0.740  0.5308 -176.9   7.833   85.5  0.0424   51.0  0.3211  -44.5
 0.760  0.5309 -178.1   7.646   84.7  0.0431   51.2  0.3181  -44.5
 0.780  0.5311 -179.3   7.460   83.9  0.0437   51.4  0.3152  -44.5
 0.800  0.5316  179.5   7.275   83.1  0.0443   51.6  0.3123  -44.5
 0.820  0.5321  178.5   7.120   82.5  0.0451   51.8  0.3100  -44.5
 0.840  0.5328  177.6   6.966   81.9  0.0459   51.9  0.3077  -44.6
 0.860  0.5336  176.6   6.813   81.3  0.0468   52.0  0.3055  -44.6
 0.880  0.5345  175.7   6.660   80.6  0.0476   52.2  0.3032  -44.7
 0.900  0.5356  174.7   6.509   79.9  0.0484   52.3  0.3009  -44.7
 0.920  0.5367  173.6   6.375   79.3  0.0490   52.4  0.2991  -44.8
 0.940  0.5380  172.6   6.241   78.6  0.0497   52.5  0.2972  -44.9
 0.960  0.5394  171.5   6.108   77.9  0.0503   52.7  0.2954  -45.1
 0.980  0.5411  170.4   5.977   77.2  0.0510   52.8  0.2935  -45.2
 1.000  0.5429  169.4   5.846   76.4  0.0516   52.9  0.2917  -45.3
 1.020  0.5436  168.6   5.744   75.8  0.0524   52.9  0.2902  -45.4
 1.040  0.5444  167.8   5.643   75.2  0.0532   53.0  0.2888  -45.6
 1.060  0.5454  166.9   5.543   74.6  0.0540   53.0  0.2873  -45.7
 1.080  0.5464  166.1   5.443   74.0  0.0548   53.1  0.2859  -45.9
 1.100  0.5476  165.3   5.344   73.3  0.0556   53.1  0.2844  -46.0
 1.120  0.5472  164.4   5.252   72.8  0.0563   53.1  0.2835  -46.2
 1.140  0.5470  163.5   5.161   72.3  0.0571   53.1  0.2826  -46.3
 1.160  0.5469  162.6   5.070   71.7  0.0578   53.0  0.2817  -46.5
 1.180  0.5469  161.7   4.980   71.2  0.0586   53.0  0.2808  -46.6
 1.200  0.5471  160.8   4.890   70.6  0.0593   53.0  0.2799  -46.8
 1.220  0.5479  160.2   4.813   70.1  0.0601   53.0  0.2790  -47.0
 1.240  0.5488  159.6   4.736   69.5  0.0609   53.0  0.2781  -47.3
 1.260  0.5497  159.0   4.660   69.0  0.0616   53.1  0.2772  -47.5
 1.280  0.5507  158.4   4.584   68.4  0.0624   53.1  0.2764  -47.8
 1.300  0.5518  157.8   4.509   67.8  0.0632   53.1  0.2755  -48.0
 1.320  0.5524  157.0   4.448   67.3  0.0639   53.1  0.2747  -48.3
 1.340  0.5531  156.2   4.387   66.8  0.0647   53.0  0.2739  -48.5
 1.360  0.5539  155.3   4.327   66.3  0.0654   53.0  0.2731  -48.8
 1.380  0.5549  154.5   4.267   65.7  0.0662   52.9  0.2723  -49.0
 1.400  0.5559  153.7   4.207   65.2  0.0669   52.9  0.2715  -49.3
 1.420  0.5570  153.1   4.150   64.7  0.0677   52.9  0.2708  -49.5
 1.440  0.5581  152.5   4.093   64.1  0.0685   52.8  0.2701  -49.7
 1.460  0.5593  151.9   4.037   63.5  0.0692   52.8  0.2695  -49.9
 1.480  0.5606  151.3   3.981   62.9  0.0700   52.7  0.2688  -50.1
 1.500  0.5619  150.7   3.926   62.3  0.0708   52.7  0.2681  -50.3
 1.520  0.5628  149.9   3.877   61.8  0.0715   52.6  0.2675  -50.6
 1.540  0.5638  149.2   3.829   61.3  0.0722   52.5  0.2670  -50.9
 1.560  0.5648  148.4   3.781   60.8  0.0730   52.5  0.2664  -51.2
 1.580  0.5660  147.7   3.733   60.3  0.0737   52.4  0.2658  -51.5
 1.600  0.5673  146.9   3.685   59.8  0.0744   52.3  0.2653  -51.8
 1.620  0.5681  146.3   3.638   59.3  0.0752   52.2  0.2647  -52.2
 1.640  0.5690  145.7   3.592   58.8  0.0760   52.1  0.2641  -52.6
 1.660  0.5699  145.0   3.546   58.3  0.0768   52.0  0.2635  -52.9
 1.680  0.5709  144.4   3.500   57.8  0.0776   51.9  0.2629  -53.3
 1.700  0.5720  143.8   3.455   57.3  0.0784   51.8  0.2623  -53.7
 1.720  0.5737  143.2   3.416   56.8  0.0791   51.7  0.2615  -54.0
 1.740  0.5755  142.6   3.378   56.3  0.0798   51.6  0.2606  -54.4
 1.760  0.5773  142.0   3.340   55.8  0.0805   51.6  0.2598  -54.7
 1.780  0.5792  141.5   3.302   55.2  0.0812   51.5  0.2590  -55.1
 1.800  0.5811  140.9   3.265   54.7  0.0819   51.4  0.2582  -55.4
 1.820  0.5814  140.3   3.229   54.3  0.0827   51.2  0.2578  -55.7
 1.840  0.5817  139.7   3.194   53.8  0.0835   51.0  0.2575  -56.0
 1.860  0.5821  139.1   3.158   53.4  0.0842   50.8  0.2571  -56.4
 1.880  0.5826  138.5   3.123   52.9  0.0850   50.7  0.2567  -56.7
 1.900  0.5831  137.9   3.088   52.4  0.0858   50.5  0.2564  -57.0
 1.920  0.5836  137.3   3.054   51.9  0.0866   50.4  0.2560  -57.4
 1.940  0.5843  136.7   3.020   51.4  0.0873   50.3  0.2555  -57.8
 1.960  0.5849  136.0   2.987   50.9  0.0881   50.3  0.2551  -58.1
 1.980  0.5857  135.4   2.953   50.4  0.0888   50.2  0.2547  -58.5
 2.000  0.5865  134.8   2.920   49.9  0.0896   50.1  0.2543  -58.9
 2.020  0.5877  134.2   2.893   49.5  0.0903   49.9  0.2536  -59.3
 2.040  0.5890  133.7   2.866   49.0  0.0910   49.8  0.2530  -59.7
 2.060  0.5904  133.2   2.839   48.6  0.0918   49.6  0.2523  -60.1
 2.080  0.5917  132.6   2.812   48.1  0.0925   49.5  0.2517  -60.6
 2.100  0.5932  132.1   2.786   47.6  0.0932   49.3  0.2510  -61.0
 2.120  0.5947  131.5   2.759   47.1  0.0939   49.2  0.2504  -61.4
 2.140  0.5962  131.0   2.733   46.6  0.0946   49.0  0.2498  -61.8
 2.160  0.5978  130.5   2.707   46.1  0.0954   48.9  0.2492  -62.2
 2.180  0.5995  129.9   2.681   45.6  0.0961   48.7  0.2487  -62.7
 2.200  0.6012  129.4   2.656   45.1  0.0968   48.6  0.2481  -63.1
 2.220  0.6025  128.9   2.633   44.7  0.0975   48.4  0.2475  -63.6
 2.240  0.6039  128.3   2.609   44.3  0.0983   48.3  0.2470  -64.0
 2.260  0.6054  127.8   2.586   43.8  0.0990   48.1  0.2465  -64.5
 2.280  0.6069  127.2   2.563   43.4  0.0997   48.0  0.2460  -64.9
 2.300  0.6084  126.7   2.541   43.0  0.1004   47.8  0.2455  -65.4
 2.320  0.6100  126.2   2.518   42.5  0.1012   47.7  0.2450  -65.8
 2.340  0.6116  125.7   2.495   42.0  0.1019   47.5  0.2446  -66.3
 2.360  0.6133  125.1   2.473   41.6  0.1026   47.4  0.2441  -66.8
 2.380  0.6151  124.6   2.451   41.1  0.1034   47.2  0.2437  -67.2
 2.400  0.6169  124.1   2.429   40.6  0.1041   47.1  0.2433  -67.7
 2.420  0.6181  123.6   2.408   40.2  0.1048   46.9  0.2426  -68.2
 2.440  0.6193  123.1   2.388   39.8  0.1054   46.7  0.2420  -68.6
 2.460  0.6206  122.6   2.367   39.4  0.1061   46.6  0.2413  -69.1
 2.480  0.6219  122.1   2.347   38.9  0.1067   46.4  0.2407  -69.6
 2.500  0.6232  121.6   2.327   38.5  0.1074   46.2  0.2401  -70.1
 2.520  0.6246  121.1   2.307   38.1  0.1080   46.1  0.2395  -70.6
 2.540  0.6261  120.6   2.287   37.6  0.1087   45.9  0.2389  -71.0
 2.560  0.6276  120.2   2.267   37.1  0.1094   45.7  0.2384  -71.5
 2.580  0.6291  119.7   2.247   36.7  0.1100   45.6  0.2378  -72.0
 2.600  0.6307  119.2   2.228   36.2  0.1107   45.4  0.2373  -72.5
 2.620  0.6318  118.7   2.210   35.8  0.1114   45.2  0.2368  -73.0
 2.640  0.6329  118.3   2.193   35.3  0.1120   45.0  0.2363  -73.5
 2.660  0.6341  117.8   2.176   34.9  0.1127   44.8  0.2359  -74.0
 2.680  0.6353  117.4   2.159   34.4  0.1134   44.7  0.2355  -74.6
 2.700  0.6366  116.9   2.142   33.9  0.1140   44.5  0.2351  -75.1
 2.720  0.6379  116.5   2.125   33.5  0.1147   44.3  0.2347  -75.6
 2.740  0.6392  116.0   2.108   33.0  0.1154   44.1  0.2343  -76.1
 2.760  0.6406  115.6   2.092   32.5  0.1161   43.9  0.2339  -76.6
 2.780  0.6420  115.1   2.075   32.0  0.1167   43.8  0.2336  -77.2
 2.800  0.6435  114.7   2.059   31.5  0.1174   43.6  0.2333  -77.7
 2.820  0.6448  114.2   2.044   31.1  0.1180   43.4  0.2327  -78.2
 2.840  0.6462  113.8   2.029   30.7  0.1187   43.3  0.2321  -78.8
 2.860  0.6476  113.3   2.014   30.3  0.1193   43.1  0.2315  -79.3
 2.880  0.6491  112.9   1.999   29.9  0.1200   43.0  0.2310  -79.9
 2.900  0.6505  112.4   1.984   29.5  0.1206   42.8  0.2305  -80.4
 2.920  0.6521  112.0   1.970   29.1  0.1213   42.7  0.2300  -81.0
 2.940  0.6537  111.5   1.955   28.7  0.1219   42.5  0.2295  -81.5
 2.960  0.6553  111.1   1.941   28.3  0.1226   42.4  0.2290  -82.1
 2.980  0.6569  110.6   1.926   27.8  0.1232   42.2  0.2286  -82.6
 3.000  0.6586  110.2   1.912   27.4  0.1239   42.1  0.2282  -83.2
 3.100  0.6645  108.2   1.847   25.6  0.1270   41.1  0.2262  -86.1
 3.200  0.6711  106.2   1.785   23.7  0.1300   40.2  0.2247  -89.0
 3.300  0.6786  104.2   1.724   21.7  0.1332   39.3  0.2238  -92.0
 3.400  0.6869  102.3   1.666   19.5  0.1363   38.5  0.2236  -94.9
 3.500  0.6959  100.4   1.610   17.2  0.1395   37.7  0.2239  -97.9
 3.600  0.7013   98.7   1.562   15.6  0.1424   36.7  0.2229 -101.2
 3.700  0.7073   97.0   1.515   13.8  0.1453   35.8  0.2226 -104.4
 3.800  0.7140   95.3   1.470   12.0  0.1483   35.0  0.2230 -107.7
 3.900  0.7212   93.7   1.427   10.0  0.1513   34.1  0.2242 -111.0
 4.000  0.7290   92.1   1.385    7.9  0.1543   33.3  0.2261 -114.2
 4.100  0.7325   90.6   1.346    6.3  0.1568   32.3  0.2267 -117.5
 4.200  0.7365   89.1   1.308    4.6  0.1594   31.4  0.2281 -120.8
 4.300  0.7409   87.7   1.271    2.9  0.1620   30.5  0.2301 -124.0
 4.400  0.7459   86.2   1.235    1.0  0.1646   29.6  0.2329 -127.1
 4.500  0.7513   84.8   1.201   -1.0  0.1673   28.8  0.2364 -130.2
 4.600  0.7542   83.6   1.170   -2.3  0.1698   28.2  0.2386 -133.0
 4.700  0.7575   82.4   1.140   -3.7  0.1723   27.5  0.2413 -135.7
 4.800  0.7610   81.3   1.111   -5.1  0.1748   26.9  0.2446 -138.3
 4.900  0.7649   80.1   1.082   -6.7  0.1773   26.4  0.2483 -140.9
 5.000  0.7691   79.0   1.054   -8.3  0.1799   25.8  0.2526 -143.4
 5.100  0.7727   78.0   1.030   -9.7  0.1831   24.7  0.2584 -146.1
 5.200  0.7766   76.9   1.007  -11.2  0.1864   23.7  0.2647 -148.6
 5.300  0.7807   75.9   0.985  -12.7  0.1898   22.8  0.2715 -151.0
 5.400  0.7851   74.9   0.964  -14.3  0.1932   21.8  0.2788 -153.3
 5.500  0.7897   73.9   0.943  -16.0  0.1966   20.9  0.2865 -155.5
 5.600  0.7942   72.9   0.923  -17.3  0.1990   20.0  0.2922 -157.8
 5.700  0.7989   72.0   0.904  -18.7  0.2015   19.0  0.2983 -160.1
 5.800  0.8039   71.0   0.885  -20.1  0.2040   18.1  0.3049 -162.3
 5.900  0.8090   70.1   0.867  -21.6  0.2066   17.3  0.3119 -164.3
 6.000  0.8144   69.2   0.849  -23.1  0.2092   16.4  0.3193 -166.3
!
!  f       NFmin   Gammaopt  rn/50
! GHz       dB    MAG  ANG    -
!
! noise parameter not available yet for this operation point!
!
! (c) 2016  Infineon Technologies AG, Munich
