! Infineon Technologies  Discrete & RF Semiconductors
! BFP193W
! VCE = 5.0 V,  IC =  40 mA
! Common Emitter S-Parameters:                            Jan 2016
# GHz  S  MA  R  50
!  f         S11            S21            S12            S22
! GHz     MAG   ANG      MAG   ANG      MAG   ANG      MAG   ANG
 0.010  0.3531  -21.3  59.368  171.7  0.0028   82.9  0.9212   -7.0
 0.015  0.3573  -31.6  58.710  168.6  0.0041   77.0  0.9092  -11.4
 0.020  0.3726  -41.3  58.229  165.4  0.0055   74.0  0.9027  -15.9
 0.025  0.3847  -50.3  57.190  162.2  0.0067   73.6  0.8849  -19.6
 0.030  0.4056  -58.5  56.340  158.8  0.0080   73.3  0.8708  -23.4
 0.035  0.4127  -65.8  54.763  156.1  0.0090   70.2  0.8463  -26.5
 0.040  0.4262  -72.8  53.318  153.2  0.0100   67.7  0.8246  -29.9
 0.045  0.4456  -79.3  52.018  150.1  0.0110   65.6  0.8057  -33.4
 0.050  0.4701  -85.1  50.873  146.9  0.0120   63.9  0.7900  -37.0
 0.055  0.4722  -89.4  49.326  145.4  0.0125   61.9  0.7654  -38.8
 0.060  0.4768  -93.6  47.814  143.8  0.0131   60.2  0.7416  -40.7
 0.065  0.4839  -97.7  46.342  142.1  0.0136   58.5  0.7186  -42.7
 0.070  0.4935 -101.6  44.912  140.3  0.0142   57.0  0.6966  -44.8
 0.075  0.5053 -105.4  43.529  138.4  0.0148   55.6  0.6757  -47.1
 0.080  0.5192 -109.0  42.198  136.4  0.0154   54.3  0.6558  -49.5
 0.085  0.5350 -112.4  40.924  134.2  0.0160   53.1  0.6372  -52.1
 0.090  0.5527 -115.6  39.711  131.9  0.0166   52.0  0.6200  -54.8
 0.095  0.5719 -118.6  38.567  129.5  0.0172   51.0  0.6043  -57.7
 0.100  0.5926 -121.4  37.497  126.9  0.0178   50.0  0.5901  -60.7
 0.105  0.5947 -123.4  36.514  126.0  0.0181   49.4  0.5750  -61.9
 0.110  0.5976 -125.3  35.541  125.0  0.0184   48.8  0.5601  -63.2
 0.115  0.6011 -127.3  34.578  124.0  0.0188   48.2  0.5455  -64.5
 0.120  0.6053 -129.2  33.627  122.9  0.0191   47.7  0.5313  -65.9
 0.125  0.6101 -131.0  32.689  121.8  0.0194   47.2  0.5174  -67.4
 0.130  0.6156 -132.9  31.764  120.6  0.0198   46.7  0.5038  -69.0
 0.135  0.6217 -134.7  30.854  119.3  0.0201   46.2  0.4907  -70.7
 0.140  0.6285 -136.5  29.961  118.0  0.0204   45.7  0.4780  -72.4
 0.145  0.6358 -138.2  29.085  116.5  0.0208   45.2  0.4657  -74.3
 0.150  0.6437 -139.9  28.228  115.0  0.0211   44.8  0.4540  -76.2
 0.155  0.6454 -141.0  27.610  114.4  0.0213   44.7  0.4450  -77.1
 0.160  0.6473 -142.1  26.994  113.8  0.0215   44.7  0.4361  -78.0
 0.165  0.6494 -143.2  26.381  113.2  0.0216   44.6  0.4272  -78.9
 0.170  0.6518 -144.2  25.772  112.6  0.0218   44.5  0.4186  -79.9
 0.175  0.6544 -145.3  25.166  111.9  0.0220   44.5  0.4100  -80.9
 0.180  0.6572 -146.4  24.564  111.2  0.0222   44.4  0.4016  -82.0
 0.185  0.6603 -147.4  23.966  110.4  0.0224   44.4  0.3933  -83.1
 0.190  0.6635 -148.5  23.373  109.6  0.0225   44.3  0.3852  -84.2
 0.195  0.6670 -149.5  22.784  108.8  0.0227   44.3  0.3772  -85.4
 0.200  0.6707 -150.5  22.200  107.9  0.0229   44.2  0.3694  -86.7
 0.220  0.6737 -153.3  20.618  106.1  0.0236   44.4  0.3474  -89.6
 0.240  0.6784 -156.1  19.059  104.1  0.0243   44.5  0.3264  -92.9
 0.260  0.6826 -158.4  17.703  102.3  0.0249   44.7  0.3080  -95.9
 0.280  0.6857 -160.3  16.535  100.8  0.0256   44.9  0.2917  -98.5
 0.300  0.6896 -162.2  15.379   99.2  0.0262   45.1  0.2761 -101.4
 0.320  0.6896 -163.6  14.640   98.3  0.0269   45.8  0.2668 -103.1
 0.340  0.6901 -165.1  13.905   97.3  0.0276   46.4  0.2577 -104.9
 0.360  0.6910 -166.5  13.175   96.3  0.0282   47.0  0.2489 -106.9
 0.380  0.6924 -167.9  12.450   95.1  0.0289   47.6  0.2404 -109.0
 0.400  0.6941 -169.3  11.731   93.7  0.0296   48.1  0.2323 -111.2
 0.420  0.6956 -170.3  11.276   93.0  0.0304   48.8  0.2271 -112.6
 0.440  0.6974 -171.3  10.822   92.2  0.0311   49.5  0.2221 -114.0
 0.450  0.6983 -171.8  10.596   91.8  0.0315   49.8  0.2197 -114.8
 0.460  0.6993 -172.3  10.371   91.4  0.0319   50.1  0.2173 -115.6
 0.480  0.7015 -173.2   9.922   90.5  0.0326   50.7  0.2125 -117.1
 0.500  0.7038 -174.2   9.476   89.5  0.0334   51.3  0.2080 -118.8
 0.520  0.7046 -175.0   9.163   88.9  0.0342   51.7  0.2048 -119.9
 0.540  0.7055 -175.8   8.851   88.3  0.0349   52.2  0.2016 -121.1
 0.560  0.7066 -176.6   8.540   87.7  0.0357   52.6  0.1986 -122.2
 0.580  0.7078 -177.4   8.230   87.0  0.0364   52.9  0.1956 -123.4
 0.600  0.7092 -178.2   7.922   86.2  0.0372   53.3  0.1927 -124.7
 0.620  0.7099 -178.9   7.707   85.7  0.0380   53.8  0.1906 -125.5
 0.640  0.7106 -179.5   7.493   85.1  0.0387   54.2  0.1886 -126.4
 0.660  0.7114  179.8   7.280   84.6  0.0395   54.6  0.1866 -127.3
 0.680  0.7124  179.2   7.068   83.9  0.0402   55.0  0.1847 -128.2
 0.700  0.7134  178.5   6.856   83.3  0.0410   55.4  0.1828 -129.1
 0.720  0.7125  178.0   6.682   82.8  0.0418   55.7  0.1817 -129.7
 0.740  0.7116  177.5   6.508   82.3  0.0426   56.0  0.1805 -130.4
 0.760  0.7108  177.1   6.335   81.8  0.0435   56.3  0.1794 -131.1
 0.780  0.7100  176.6   6.162   81.2  0.0443   56.6  0.1784 -131.7
 0.800  0.7093  176.1   5.990   80.6  0.0451   56.9  0.1773 -132.4
 0.820  0.7099  175.6   5.859   80.1  0.0460   57.1  0.1768 -133.0
 0.840  0.7105  175.0   5.728   79.7  0.0469   57.4  0.1763 -133.6
 0.860  0.7112  174.5   5.598   79.2  0.0477   57.6  0.1758 -134.2
 0.880  0.7119  173.9   5.468   78.6  0.0486   57.8  0.1753 -134.8
 0.900  0.7127  173.4   5.339   78.1  0.0495   58.0  0.1749 -135.4
 0.920  0.7127  173.0   5.231   77.7  0.0503   58.2  0.1746 -135.9
 0.940  0.7128  172.6   5.123   77.3  0.0512   58.4  0.1744 -136.4
 0.960  0.7128  172.3   5.016   76.8  0.0520   58.6  0.1741 -136.9
 0.980  0.7130  171.9   4.909   76.4  0.0529   58.7  0.1739 -137.4
 1.000  0.7131  171.5   4.802   75.9  0.0537   58.9  0.1737 -137.9
 1.020  0.7134  171.0   4.720   75.5  0.0546   59.0  0.1732 -138.3
 1.040  0.7138  170.6   4.638   75.0  0.0555   59.0  0.1728 -138.7
 1.060  0.7143  170.1   4.556   74.5  0.0564   59.1  0.1723 -139.0
 1.080  0.7148  169.7   4.475   74.0  0.0573   59.1  0.1718 -139.4
 1.100  0.7153  169.2   4.394   73.5  0.0582   59.2  0.1714 -139.8
 1.120  0.7154  168.8   4.319   73.1  0.0590   59.3  0.1714 -140.1
 1.140  0.7155  168.4   4.244   72.7  0.0598   59.4  0.1714 -140.3
 1.160  0.7157  167.9   4.170   72.2  0.0607   59.6  0.1714 -140.6
 1.180  0.7159  167.5   4.096   71.8  0.0615   59.7  0.1715 -140.8
 1.200  0.7161  167.1   4.022   71.3  0.0623   59.8  0.1715 -141.1
 1.220  0.7164  166.7   3.962   70.9  0.0632   59.9  0.1718 -141.4
 1.240  0.7167  166.3   3.901   70.4  0.0641   59.9  0.1721 -141.7
 1.260  0.7170  165.9   3.841   70.0  0.0650   60.0  0.1724 -141.9
 1.280  0.7174  165.5   3.781   69.5  0.0659   60.0  0.1727 -142.2
 1.300  0.7178  165.1   3.722   69.0  0.0668   60.1  0.1730 -142.5
 1.320  0.7176  164.7   3.672   68.6  0.0677   60.1  0.1733 -142.8
 1.340  0.7175  164.4   3.621   68.2  0.0687   60.1  0.1736 -143.1
 1.360  0.7174  164.0   3.571   67.8  0.0696   60.1  0.1739 -143.5
 1.380  0.7173  163.7   3.522   67.4  0.0706   60.1  0.1743 -143.8
 1.400  0.7172  163.3   3.472   67.0  0.0715   60.1  0.1746 -144.1
 1.420  0.7174  163.0   3.427   66.6  0.0724   60.1  0.1745 -144.3
 1.440  0.7176  162.6   3.382   66.2  0.0733   60.1  0.1745 -144.5
 1.460  0.7178  162.3   3.337   65.8  0.0741   60.1  0.1744 -144.7
 1.480  0.7180  161.9   3.292   65.4  0.0750   60.1  0.1744 -144.9
 1.500  0.7183  161.6   3.248   65.0  0.0759   60.1  0.1743 -145.1
 1.520  0.7188  161.2   3.208   64.6  0.0768   60.1  0.1747 -145.2
 1.540  0.7193  160.8   3.168   64.2  0.0776   60.0  0.1751 -145.3
 1.560  0.7199  160.3   3.129   63.7  0.0785   60.0  0.1754 -145.3
 1.580  0.7205  159.9   3.089   63.3  0.0793   59.9  0.1758 -145.4
 1.600  0.7211  159.5   3.050   62.8  0.0802   59.9  0.1762 -145.5
 1.620  0.7216  159.2   3.015   62.4  0.0811   59.9  0.1770 -145.7
 1.640  0.7222  158.9   2.979   62.1  0.0819   59.8  0.1778 -146.0
 1.660  0.7228  158.5   2.944   61.7  0.0828   59.8  0.1786 -146.2
 1.680  0.7234  158.2   2.909   61.3  0.0836   59.7  0.1794 -146.5
 1.700  0.7240  157.9   2.874   60.9  0.0845   59.7  0.1802 -146.7
 1.720  0.7238  157.5   2.843   60.5  0.0854   59.6  0.1805 -147.0
 1.740  0.7236  157.1   2.812   60.1  0.0863   59.6  0.1809 -147.3
 1.760  0.7235  156.8   2.781   59.7  0.0872   59.5  0.1813 -147.7
 1.780  0.7234  156.4   2.750   59.3  0.0881   59.5  0.1816 -148.0
 1.800  0.7233  156.0   2.719   58.9  0.0890   59.4  0.1820 -148.3
 1.820  0.7232  155.6   2.690   58.5  0.0899   59.3  0.1821 -148.4
 1.840  0.7230  155.2   2.661   58.1  0.0908   59.3  0.1823 -148.4
 1.860  0.7230  154.9   2.632   57.7  0.0917   59.2  0.1824 -148.5
 1.880  0.7229  154.5   2.604   57.2  0.0926   59.2  0.1826 -148.5
 1.900  0.7229  154.1   2.575   56.8  0.0935   59.1  0.1827 -148.6
 1.920  0.7233  153.8   2.551   56.4  0.0943   59.0  0.1836 -148.7
 1.940  0.7238  153.5   2.526   56.0  0.0951   58.9  0.1845 -148.8
 1.960  0.7243  153.1   2.502   55.6  0.0960   58.7  0.1855 -149.0
 1.980  0.7248  152.8   2.478   55.2  0.0968   58.6  0.1864 -149.1
 2.000  0.7253  152.5   2.454   54.8  0.0976   58.5  0.1873 -149.2
 2.020  0.7258  152.2   2.432   54.5  0.0985   58.4  0.1878 -149.4
 2.040  0.7264  151.9   2.411   54.1  0.0993   58.3  0.1884 -149.7
 2.060  0.7269  151.6   2.389   53.7  0.1002   58.1  0.1889 -149.9
 2.080  0.7275  151.3   2.368   53.4  0.1011   58.0  0.1894 -150.2
 2.100  0.7281  150.9   2.346   53.0  0.1019   57.9  0.1900 -150.4
 2.120  0.7288  150.6   2.325   52.6  0.1028   57.8  0.1905 -150.7
 2.140  0.7294  150.3   2.304   52.2  0.1037   57.7  0.1910 -150.9
 2.160  0.7301  150.0   2.283   51.8  0.1046   57.6  0.1916 -151.1
 2.180  0.7308  149.7   2.262   51.4  0.1054   57.5  0.1921 -151.4
 2.200  0.7315  149.4   2.241   51.0  0.1063   57.4  0.1927 -151.6
 2.220  0.7316  149.1   2.222   50.6  0.1071   57.3  0.1935 -151.7
 2.240  0.7318  148.8   2.203   50.3  0.1080   57.2  0.1942 -151.8
 2.260  0.7320  148.4   2.185   49.9  0.1088   57.1  0.1950 -152.0
 2.280  0.7322  148.1   2.166   49.6  0.1097   57.0  0.1958 -152.1
 2.300  0.7325  147.8   2.148   49.2  0.1105   56.9  0.1965 -152.2
 2.320  0.7327  147.5   2.129   48.8  0.1113   56.8  0.1973 -152.3
 2.340  0.7330  147.2   2.111   48.4  0.1122   56.7  0.1981 -152.4
 2.360  0.7333  146.8   2.093   48.0  0.1130   56.6  0.1989 -152.6
 2.380  0.7336  146.5   2.075   47.6  0.1139   56.5  0.1996 -152.7
 2.400  0.7340  146.2   2.057   47.2  0.1147   56.4  0.2004 -152.8
 2.420  0.7342  145.9   2.042   46.9  0.1155   56.3  0.2011 -153.1
 2.440  0.7344  145.5   2.027   46.5  0.1164   56.1  0.2017 -153.3
 2.460  0.7346  145.2   2.011   46.1  0.1172   56.0  0.2024 -153.6
 2.480  0.7348  144.9   1.996   45.8  0.1181   55.8  0.2030 -153.9
 2.500  0.7351  144.5   1.981   45.4  0.1189   55.7  0.2037 -154.1
 2.520  0.7354  144.2   1.967   45.0  0.1198   55.5  0.2044 -154.4
 2.540  0.7357  143.9   1.952   44.7  0.1206   55.4  0.2050 -154.6
 2.560  0.7360  143.6   1.937   44.3  0.1215   55.3  0.2057 -154.9
 2.580  0.7364  143.2   1.923   43.9  0.1223   55.1  0.2064 -155.1
 2.600  0.7368  142.9   1.908   43.5  0.1232   55.0  0.2071 -155.4
 2.620  0.7376  142.6   1.894   43.2  0.1240   54.9  0.2081 -155.6
 2.640  0.7385  142.3   1.881   42.8  0.1249   54.7  0.2092 -155.7
 2.660  0.7393  142.0   1.868   42.5  0.1257   54.6  0.2102 -155.9
 2.680  0.7402  141.7   1.854   42.2  0.1266   54.5  0.2112 -156.0
 2.700  0.7411  141.3   1.841   41.8  0.1274   54.3  0.2123 -156.2
 2.720  0.7421  141.0   1.828   41.5  0.1283   54.2  0.2133 -156.3
 2.740  0.7430  140.7   1.815   41.1  0.1291   54.1  0.2144 -156.5
 2.760  0.7440  140.4   1.802   40.7  0.1300   53.9  0.2154 -156.6
 2.780  0.7450  140.1   1.789   40.4  0.1308   53.8  0.2165 -156.8
 2.800  0.7460  139.8   1.776   40.0  0.1317   53.7  0.2175 -156.9
 2.820  0.7463  139.5   1.764   39.7  0.1325   53.6  0.2183 -157.2
 2.840  0.7467  139.2   1.752   39.3  0.1334   53.4  0.2190 -157.4
 2.860  0.7471  138.9   1.740   39.0  0.1342   53.3  0.2198 -157.7
 2.880  0.7475  138.6   1.728   38.6  0.1350   53.2  0.2206 -158.0
 2.900  0.7479  138.2   1.716   38.3  0.1358   53.0  0.2214 -158.2
 2.920  0.7484  137.9   1.704   37.9  0.1367   52.9  0.2222 -158.5
 2.940  0.7489  137.6   1.692   37.5  0.1375   52.8  0.2230 -158.7
 2.960  0.7493  137.3   1.680   37.2  0.1383   52.6  0.2238 -159.0
 2.980  0.7499  137.0   1.669   36.8  0.1392   52.5  0.2246 -159.2
 3.000  0.7504  136.7   1.657   36.4  0.1400   52.4  0.2254 -159.5
 3.100  0.7529  135.2   1.609   34.7  0.1439   51.6  0.2310 -160.5
 3.200  0.7559  133.8   1.563   32.9  0.1478   50.9  0.2367 -161.5
 3.300  0.7595  132.2   1.516   31.2  0.1519   50.2  0.2419 -162.8
 3.400  0.7636  130.7   1.471   29.3  0.1560   49.5  0.2472 -164.0
 3.500  0.7675  129.4   1.429   27.7  0.1599   48.8  0.2532 -165.1
 3.600  0.7717  128.1   1.388   26.0  0.1639   48.1  0.2592 -166.2
 3.700  0.7741  126.6   1.350   24.4  0.1672   47.3  0.2651 -167.6
 3.800  0.7770  125.1   1.313   22.8  0.1705   46.5  0.2712 -168.9
 3.900  0.7801  123.8   1.278   21.2  0.1743   45.7  0.2778 -170.0
 4.000  0.7835  122.6   1.244   19.6  0.1782   45.0  0.2845 -171.0
 4.100  0.7844  121.5   1.213   18.2  0.1815   44.2  0.2915 -172.2
 4.200  0.7855  120.3   1.183   16.8  0.1848   43.5  0.2986 -173.3
 4.300  0.7870  119.2   1.154   15.3  0.1882   42.8  0.3058 -174.4
 4.400  0.7888  118.0   1.126   13.8  0.1916   42.1  0.3132 -175.4
 4.500  0.7909  116.9   1.098   12.1  0.1950   41.4  0.3206 -176.4
 4.600  0.7919  115.9   1.073   11.0  0.1983   40.7  0.3268 -177.4
 4.700  0.7932  114.9   1.049    9.8  0.2016   40.0  0.3331 -178.4
 4.800  0.7947  113.9   1.025    8.5  0.2049   39.4  0.3395 -179.4
 4.900  0.7965  112.9   1.002    7.2  0.2082   38.7  0.3459  179.7
 5.000  0.7985  111.9   0.979    5.8  0.2116   38.1  0.3525  178.8
 5.100  0.7984  111.2   0.960    4.7  0.2148   37.4  0.3584  178.1
 5.200  0.7985  110.5   0.941    3.7  0.2180   36.8  0.3644  177.4
 5.300  0.7987  109.7   0.922    2.5  0.2213   36.1  0.3704  176.8
 5.400  0.7990  109.0   0.904    1.3  0.2246   35.5  0.3764  176.1
 5.500  0.7994  108.3   0.886    0.1  0.2279   34.9  0.3825  175.5
 5.600  0.8006  107.4   0.871   -0.9  0.2313   34.3  0.3883  174.9
 5.700  0.8020  106.5   0.856   -1.9  0.2347   33.7  0.3941  174.2
 5.800  0.8036  105.6   0.842   -2.9  0.2381   33.1  0.4000  173.6
 5.900  0.8053  104.8   0.828   -4.0  0.2416   32.5  0.4059  173.1
 6.000  0.8073  103.9   0.814   -5.1  0.2451   32.0  0.4119  172.5
!
!  f       NFmin   Gammaopt  rn/50
! GHz       dB    MAG  ANG    -
!
! noise parameter not available yet for this operation point!
!
! (c) 2016  Infineon Technologies AG, Munich
