! Infineon Technologies  Discrete & RF Semiconductors
! BFP193
! VCE = 3.0 V,  IC =  8.0 mA
! Common Emitter S-Parameters:                            Jan 2016
# GHz  S  MA  R  50
!  f         S11            S21            S12            S22
! GHz     MAG   ANG      MAG   ANG      MAG   ANG      MAG   ANG
 0.010  0.7540   -6.7  22.758  177.0  0.0032   87.4  0.9811   -3.1
 0.015  0.7512   -9.7  22.459  174.5  0.0051   84.6  0.9770   -4.5
 0.020  0.7505  -12.7  22.202  172.0  0.0071   83.3  0.9736   -6.0
 0.025  0.7436  -15.7  22.045  170.3  0.0088   80.7  0.9665   -7.4
 0.030  0.7387  -18.8  21.908  168.6  0.0104   78.9  0.9600   -8.9
 0.035  0.7360  -21.8  21.792  166.8  0.0121   77.6  0.9542  -10.4
 0.040  0.7354  -24.9  21.695  165.1  0.0138   76.7  0.9490  -11.9
 0.045  0.7370  -28.0  21.620  163.3  0.0155   75.9  0.9444  -13.4
 0.050  0.7407  -31.1  21.565  161.5  0.0172   75.3  0.9405  -14.9
 0.055  0.7303  -33.7  21.276  160.1  0.0185   73.4  0.9293  -16.0
 0.060  0.7214  -36.3  20.999  158.7  0.0198   71.7  0.9185  -17.2
 0.065  0.7140  -39.0  20.736  157.2  0.0211   70.2  0.9081  -18.4
 0.070  0.7084  -41.8  20.488  155.7  0.0225   68.9  0.8980  -19.6
 0.075  0.7043  -44.6  20.253  154.1  0.0238   67.8  0.8884  -20.9
 0.080  0.7020  -47.4  20.034  152.5  0.0252   66.8  0.8792  -22.1
 0.085  0.7014  -50.3  19.831  150.9  0.0266   65.9  0.8705  -23.4
 0.090  0.7025  -53.1  19.644  149.3  0.0279   65.0  0.8622  -24.8
 0.095  0.7053  -55.9  19.473  147.6  0.0293   64.3  0.8544  -26.1
 0.100  0.7098  -58.7  19.319  145.9  0.0307   63.6  0.8471  -27.5
 0.105  0.7009  -60.8  19.012  144.8  0.0316   62.4  0.8354  -28.3
 0.110  0.6930  -63.0  18.714  143.6  0.0326   61.2  0.8239  -29.1
 0.115  0.6862  -65.3  18.423  142.4  0.0335   60.1  0.8126  -29.9
 0.120  0.6804  -67.6  18.141  141.1  0.0345   59.1  0.8014  -30.7
 0.125  0.6758  -69.9  17.867  139.8  0.0355   58.1  0.7904  -31.6
 0.130  0.6723  -72.3  17.603  138.5  0.0365   57.2  0.7796  -32.5
 0.135  0.6699  -74.6  17.349  137.1  0.0375   56.3  0.7690  -33.4
 0.140  0.6687  -77.0  17.105  135.7  0.0385   55.5  0.7586  -34.3
 0.145  0.6686  -79.4  16.871  134.3  0.0395   54.7  0.7484  -35.3
 0.150  0.6697  -81.8  16.649  132.8  0.0405   54.0  0.7384  -36.3
 0.155  0.6649  -83.5  16.410  132.0  0.0411   53.4  0.7287  -36.9
 0.160  0.6607  -85.2  16.175  131.1  0.0417   52.9  0.7190  -37.4
 0.165  0.6571  -87.0  15.944  130.3  0.0423   52.3  0.7094  -38.0
 0.170  0.6541  -88.8  15.716  129.4  0.0429   51.8  0.6999  -38.7
 0.175  0.6518  -90.6  15.492  128.5  0.0435   51.3  0.6905  -39.3
 0.180  0.6501  -92.4  15.272  127.5  0.0441   50.8  0.6811  -39.9
 0.185  0.6490  -94.2  15.056  126.6  0.0447   50.4  0.6719  -40.6
 0.190  0.6486  -96.0  14.845  125.6  0.0454   49.9  0.6627  -41.3
 0.195  0.6488  -97.8  14.638  124.6  0.0460   49.4  0.6537  -42.0
 0.200  0.6497  -99.6  14.436  123.5  0.0466   49.0  0.6447  -42.7
 0.220  0.6378 -105.1  13.594  120.7  0.0483   47.1  0.6127  -44.2
 0.240  0.6320 -110.7  12.788  117.6  0.0500   45.3  0.5812  -46.0
 0.260  0.6264 -115.8  12.084  114.9  0.0516   44.1  0.5542  -47.4
 0.280  0.6194 -120.4  11.465  112.6  0.0530   43.4  0.5316  -48.6
 0.300  0.6164 -125.1  10.866  110.1  0.0544   42.8  0.5092  -49.8
 0.320  0.6097 -128.4  10.404  108.7  0.0553   42.2  0.4914  -50.4
 0.340  0.6049 -131.7   9.949  107.2  0.0562   41.6  0.4737  -51.0
 0.360  0.6023 -135.0   9.501  105.5  0.0571   41.0  0.4560  -51.6
 0.380  0.6017 -138.4   9.063  103.6  0.0581   40.4  0.4384  -52.3
 0.400  0.6032 -141.8   8.635  101.6  0.0590   39.9  0.4209  -53.1
 0.420  0.5999 -144.1   8.308  100.4  0.0597   39.8  0.4099  -53.4
 0.440  0.5975 -146.3   7.985   99.1  0.0604   39.7  0.3989  -53.8
 0.450  0.5967 -147.5   7.825   98.5  0.0607   39.6  0.3934  -53.9
 0.460  0.5961 -148.6   7.666   97.7  0.0611   39.6  0.3879  -54.1
 0.480  0.5956 -150.9   7.352   96.2  0.0618   39.5  0.3769  -54.5
 0.500  0.5961 -153.2   7.043   94.6  0.0625   39.4  0.3659  -54.9
 0.520  0.5951 -155.1   6.826   93.6  0.0634   39.4  0.3588  -55.1
 0.540  0.5948 -157.0   6.611   92.6  0.0643   39.4  0.3517  -55.4
 0.560  0.5951 -158.9   6.399   91.5  0.0652   39.4  0.3446  -55.6
 0.580  0.5961 -160.8   6.189   90.3  0.0661   39.4  0.3375  -55.8
 0.600  0.5977 -162.7   5.982   89.0  0.0670   39.4  0.3304  -56.1
 0.620  0.5964 -164.3   5.822   88.1  0.0677   39.6  0.3255  -56.3
 0.640  0.5955 -165.9   5.664   87.2  0.0684   39.8  0.3206  -56.5
 0.660  0.5951 -167.4   5.508   86.2  0.0690   40.0  0.3157  -56.7
 0.680  0.5952 -169.0   5.353   85.1  0.0697   40.2  0.3108  -57.0
 0.700  0.5957 -170.6   5.200   84.0  0.0704   40.4  0.3059  -57.2
 0.720  0.5964 -171.9   5.073   83.3  0.0713   40.5  0.3021  -57.4
 0.740  0.5974 -173.2   4.946   82.5  0.0722   40.6  0.2983  -57.6
 0.760  0.5988 -174.5   4.821   81.7  0.0730   40.6  0.2945  -57.8
 0.780  0.6004 -175.7   4.696   80.8  0.0739   40.7  0.2907  -58.0
 0.800  0.6023 -177.0   4.573   79.9  0.0748   40.8  0.2869  -58.2
 0.820  0.6002 -178.2   4.474   79.2  0.0757   41.1  0.2841  -58.4
 0.840  0.5983 -179.4   4.375   78.4  0.0766   41.3  0.2813  -58.6
 0.860  0.5967  179.4   4.277   77.7  0.0776   41.5  0.2785  -58.8
 0.880  0.5954  178.2   4.180   76.9  0.0785   41.8  0.2757  -59.1
 0.900  0.5943  177.0   4.084   76.0  0.0794   42.0  0.2729  -59.3
 0.920  0.5946  176.0   4.006   75.3  0.0801   42.2  0.2711  -59.5
 0.940  0.5951  175.0   3.928   74.6  0.0808   42.4  0.2694  -59.8
 0.960  0.5957  174.0   3.852   73.9  0.0814   42.5  0.2676  -60.0
 0.980  0.5966  173.0   3.775   73.1  0.0821   42.7  0.2659  -60.3
 1.000  0.5976  172.0   3.700   72.3  0.0828   42.9  0.2641  -60.5
 1.020  0.5984  170.9   3.636   71.6  0.0837   43.1  0.2625  -60.9
 1.040  0.5995  169.9   3.572   70.9  0.0846   43.3  0.2608  -61.2
 1.060  0.6007  168.8   3.509   70.2  0.0854   43.5  0.2592  -61.6
 1.080  0.6022  167.8   3.447   69.5  0.0863   43.6  0.2576  -61.9
 1.100  0.6038  166.7   3.385   68.7  0.0872   43.8  0.2560  -62.3
 1.120  0.6045  165.9   3.330   68.1  0.0882   43.9  0.2548  -62.6
 1.140  0.6053  165.0   3.275   67.5  0.0892   44.0  0.2536  -62.9
 1.160  0.6062  164.2   3.221   66.8  0.0901   44.2  0.2524  -63.3
 1.180  0.6073  163.3   3.167   66.2  0.0911   44.3  0.2513  -63.6
 1.200  0.6085  162.5   3.113   65.5  0.0921   44.4  0.2501  -63.9
 1.220  0.6078  161.7   3.065   64.9  0.0931   44.5  0.2491  -64.2
 1.240  0.6073  160.9   3.017   64.3  0.0941   44.6  0.2481  -64.6
 1.260  0.6068  160.2   2.970   63.6  0.0950   44.6  0.2471  -64.9
 1.280  0.6065  159.4   2.923   63.0  0.0960   44.7  0.2462  -65.3
 1.300  0.6063  158.6   2.876   62.3  0.0970   44.8  0.2452  -65.6
 1.320  0.6074  157.8   2.835   61.7  0.0978   44.9  0.2448  -66.0
 1.340  0.6087  157.0   2.794   61.2  0.0986   44.9  0.2444  -66.4
 1.360  0.6100  156.2   2.753   60.6  0.0995   45.0  0.2441  -66.8
 1.380  0.6115  155.5   2.713   59.9  0.1003   45.0  0.2437  -67.2
 1.400  0.6131  154.7   2.673   59.3  0.1011   45.1  0.2434  -67.6
 1.420  0.6133  154.0   2.641   58.7  0.1021   45.2  0.2426  -68.0
 1.440  0.6135  153.3   2.610   58.2  0.1032   45.2  0.2418  -68.5
 1.460  0.6138  152.6   2.579   57.6  0.1042   45.3  0.2410  -68.9
 1.480  0.6143  151.9   2.548   57.0  0.1053   45.3  0.2403  -69.4
 1.500  0.6148  151.2   2.518   56.4  0.1063   45.4  0.2395  -69.8
 1.520  0.6162  150.4   2.484   55.8  0.1074   45.5  0.2387  -70.2
 1.540  0.6177  149.6   2.450   55.2  0.1085   45.5  0.2379  -70.7
 1.560  0.6193  148.8   2.417   54.5  0.1095   45.6  0.2372  -71.1
 1.580  0.6210  148.1   2.384   53.9  0.1106   45.6  0.2364  -71.6
 1.600  0.6228  147.3   2.351   53.2  0.1117   45.7  0.2357  -72.0
 1.620  0.6239  146.5   2.325   52.7  0.1127   45.8  0.2348  -72.5
 1.640  0.6251  145.8   2.299   52.1  0.1137   45.8  0.2340  -73.0
 1.660  0.6264  145.0   2.274   51.6  0.1148   45.9  0.2331  -73.5
 1.680  0.6279  144.3   2.248   51.0  0.1158   45.9  0.2323  -74.0
 1.700  0.6294  143.5   2.223   50.4  0.1168   46.0  0.2315  -74.5
 1.720  0.6301  142.8   2.200   49.9  0.1179   45.9  0.2314  -74.9
 1.740  0.6308  142.2   2.177   49.4  0.1190   45.8  0.2314  -75.4
 1.760  0.6317  141.5   2.155   48.9  0.1201   45.7  0.2313  -75.8
 1.780  0.6326  140.9   2.132   48.3  0.1212   45.6  0.2313  -76.3
 1.800  0.6336  140.2   2.110   47.8  0.1223   45.5  0.2313  -76.7
 1.820  0.6344  139.7   2.089   47.2  0.1234   45.5  0.2311  -77.3
 1.840  0.6353  139.1   2.068   46.7  0.1245   45.5  0.2309  -78.0
 1.860  0.6363  138.6   2.048   46.1  0.1256   45.6  0.2308  -78.6
 1.880  0.6372  138.0   2.027   45.5  0.1267   45.6  0.2307  -79.3
 1.900  0.6383  137.5   2.007   44.9  0.1278   45.6  0.2306  -79.9
 1.920  0.6394  136.9   1.984   44.4  0.1288   45.5  0.2298  -80.4
 1.940  0.6405  136.2   1.962   43.9  0.1298   45.5  0.2291  -80.9
 1.960  0.6417  135.6   1.940   43.4  0.1309   45.4  0.2284  -81.4
 1.980  0.6430  134.9   1.918   42.8  0.1319   45.4  0.2277  -81.9
 2.000  0.6444  134.3   1.896   42.3  0.1329   45.3  0.2270  -82.4
 2.020  0.6449  133.7   1.879   41.8  0.1340   45.2  0.2269  -83.0
 2.040  0.6454  133.1   1.862   41.3  0.1351   45.2  0.2268  -83.5
 2.060  0.6460  132.5   1.845   40.8  0.1362   45.1  0.2267  -84.1
 2.080  0.6467  131.9   1.828   40.3  0.1373   45.0  0.2266  -84.6
 2.100  0.6475  131.3   1.811   39.7  0.1383   45.0  0.2266  -85.2
 2.120  0.6483  130.7   1.795   39.2  0.1394   44.9  0.2266  -85.8
 2.140  0.6492  130.1   1.779   38.6  0.1405   44.9  0.2266  -86.3
 2.160  0.6502  129.5   1.763   38.1  0.1416   44.8  0.2266  -86.9
 2.180  0.6512  128.9   1.747   37.5  0.1427   44.8  0.2266  -87.4
 2.200  0.6523  128.3   1.731   36.9  0.1438   44.7  0.2267  -88.0
 2.220  0.6537  127.7   1.717   36.4  0.1449   44.6  0.2263  -88.7
 2.240  0.6551  127.1   1.703   35.9  0.1461   44.5  0.2260  -89.3
 2.260  0.6567  126.5   1.689   35.4  0.1472   44.4  0.2256  -90.0
 2.280  0.6583  125.9   1.676   34.9  0.1484   44.3  0.2253  -90.7
 2.300  0.6599  125.3   1.662   34.4  0.1495   44.2  0.2251  -91.3
 2.320  0.6617  124.7   1.649   33.9  0.1506   44.1  0.2248  -92.0
 2.340  0.6635  124.1   1.636   33.3  0.1518   44.0  0.2246  -92.7
 2.360  0.6654  123.5   1.623   32.8  0.1529   43.9  0.2245  -93.3
 2.380  0.6674  122.9   1.610   32.3  0.1541   43.8  0.2243  -94.0
 2.400  0.6694  122.3   1.597   31.7  0.1552   43.7  0.2242  -94.7
 2.420  0.6702  121.7   1.584   31.3  0.1563   43.6  0.2240  -95.4
 2.440  0.6710  121.2   1.571   30.8  0.1574   43.5  0.2239  -96.0
 2.460  0.6720  120.6   1.559   30.3  0.1585   43.4  0.2238  -96.7
 2.480  0.6729  120.1   1.546   29.9  0.1596   43.2  0.2238  -97.3
 2.500  0.6740  119.5   1.534   29.4  0.1606   43.1  0.2237  -98.0
 2.520  0.6751  119.0   1.521   28.9  0.1617   43.0  0.2237  -98.7
 2.540  0.6762  118.4   1.509   28.4  0.1628   42.9  0.2237  -99.3
 2.560  0.6775  117.9   1.497   27.9  0.1639   42.8  0.2238 -100.0
 2.580  0.6788  117.3   1.485   27.4  0.1650   42.7  0.2239 -100.6
 2.600  0.6801  116.8   1.473   26.9  0.1661   42.6  0.2240 -101.3
 2.620  0.6814  116.3   1.462   26.5  0.1672   42.5  0.2239 -102.0
 2.640  0.6828  115.8   1.452   26.1  0.1683   42.3  0.2237 -102.8
 2.660  0.6842  115.3   1.441   25.6  0.1694   42.2  0.2237 -103.5
 2.680  0.6857  114.8   1.430   25.2  0.1705   42.1  0.2236 -104.2
 2.700  0.6872  114.3   1.420   24.7  0.1716   41.9  0.2236 -105.0
 2.720  0.6888  113.8   1.410   24.3  0.1727   41.8  0.2237 -105.7
 2.740  0.6904  113.3   1.399   23.8  0.1738   41.7  0.2238 -106.4
 2.760  0.6921  112.8   1.389   23.4  0.1749   41.5  0.2239 -107.1
 2.780  0.6938  112.3   1.379   22.9  0.1760   41.4  0.2240 -107.9
 2.800  0.6956  111.8   1.369   22.4  0.1771   41.3  0.2242 -108.6
 2.820  0.6965  111.3   1.359   22.0  0.1783   41.1  0.2245 -109.3
 2.840  0.6975  110.9   1.350   21.5  0.1794   41.0  0.2249 -110.1
 2.860  0.6985  110.4   1.340   21.1  0.1806   40.8  0.2253 -110.8
 2.880  0.6995  109.9   1.331   20.6  0.1817   40.7  0.2257 -111.5
 2.900  0.7006  109.5   1.321   20.1  0.1829   40.5  0.2262 -112.2
 2.920  0.7018  109.0   1.312   19.7  0.1840   40.4  0.2267 -113.0
 2.940  0.7030  108.6   1.303   19.2  0.1852   40.2  0.2272 -113.7
 2.960  0.7042  108.1   1.294   18.7  0.1864   40.1  0.2278 -114.4
 2.980  0.7055  107.7   1.285   18.2  0.1875   39.9  0.2284 -115.1
 3.000  0.7068  107.2   1.276   17.7  0.1887   39.8  0.2290 -115.8
 3.100  0.7111  105.1   1.234   16.0  0.1941   39.0  0.2303 -119.7
 3.200  0.7164  103.0   1.193   14.1  0.1996   38.2  0.2327 -123.5
 3.300  0.7227  100.9   1.154   12.1  0.2052   37.4  0.2360 -127.2
 3.400  0.7298   98.9   1.116   10.0  0.2107   36.7  0.2403 -130.8
 3.500  0.7379   96.9   1.080    7.7  0.2163   36.0  0.2455 -134.2
 3.600  0.7414   95.1   1.050    6.1  0.2220   34.9  0.2504 -138.1
 3.700  0.7457   93.2   1.020    4.4  0.2278   33.9  0.2564 -141.8
 3.800  0.7507   91.4   0.992    2.7  0.2336   33.0  0.2634 -145.3
 3.900  0.7564   89.6   0.964    0.8  0.2395   32.1  0.2713 -148.6
 4.000  0.7629   87.9   0.938   -1.2  0.2455   31.2  0.2801 -151.7
 4.100  0.7670   86.3   0.915   -2.6  0.2508   30.0  0.2862 -155.0
 4.200  0.7716   84.7   0.893   -4.1  0.2562   28.9  0.2931 -158.2
 4.300  0.7769   83.2   0.871   -5.6  0.2616   27.9  0.3010 -161.2
 4.400  0.7827   81.6   0.850   -7.3  0.2672   26.9  0.3096 -164.0
 4.500  0.7891   80.1   0.830   -9.0  0.2728   25.9  0.3189 -166.7
 4.600  0.7915   78.8   0.812  -10.2  0.2777   24.8  0.3263 -169.5
 4.700  0.7943   77.5   0.794  -11.5  0.2827   23.7  0.3344 -172.2
 4.800  0.7976   76.2   0.777  -12.9  0.2878   22.7  0.3432 -174.8
 4.900  0.8012   74.9   0.760  -14.3  0.2930   21.7  0.3526 -177.2
 5.000  0.8053   73.6   0.744  -15.8  0.2983   20.7  0.3627 -179.5
 5.100  0.8083   72.4   0.728  -16.8  0.3029   19.6  0.3697  178.0
 5.200  0.8117   71.1   0.713  -17.8  0.3077   18.4  0.3774  175.5
 5.300  0.8154   69.9   0.698  -18.9  0.3126   17.4  0.3858  173.2
 5.400  0.8195   68.7   0.683  -20.0  0.3175   16.3  0.3947  170.9
 5.500  0.8240   67.5   0.668  -21.2  0.3226   15.3  0.4043  168.8
 5.600  0.8243   66.4   0.656  -22.1  0.3271   14.1  0.4114  166.6
 5.700  0.8248   65.3   0.645  -23.1  0.3317   12.9  0.4190  164.5
 5.800  0.8257   64.3   0.633  -24.0  0.3365   11.7  0.4272  162.4
 5.900  0.8269   63.2   0.622  -25.0  0.3414   10.6  0.4359  160.5
 6.000  0.8283   62.1   0.611  -26.1  0.3464    9.5  0.4451  158.6
!
!  f       NFmin   Gammaopt  rn/50
! GHz       dB    MAG  ANG    -
 0.450      1.25  0.23  133   0.12
 0.900      1.30  0.35  156   0.11
 1.800      2.00  0.55 -155   0.13
!
! (c) 2016  Infineon Technologies AG, Munich
