! Infineon Technologies  Discrete & RF Semiconductors
! BFP196W
! VCE = 1.0 V,  IC = 5.0mA
! Common Emitter S-Parameters:                            Jan 2016
# GHz  S  MA  R  50
!  f         S11            S21            S12            S22
! GHz     MAG   ANG      MAG   ANG      MAG   ANG      MAG   ANG
 0.010  0.8188   -9.7  15.808  173.5  0.0077   83.9  0.9821   -5.1
 0.015  0.8157  -14.6  15.873  171.7  0.0120   80.8  0.9769   -7.6
 0.020  0.8187  -19.6  15.953  169.9  0.0163   79.4  0.9735  -10.1
 0.025  0.8151  -24.3  15.826  167.5  0.0200   77.3  0.9658  -12.5
 0.030  0.8171  -29.0  15.727  165.1  0.0238   75.8  0.9598  -14.9
 0.035  0.8094  -33.4  15.510  162.8  0.0272   72.7  0.9455  -17.1
 0.040  0.8066  -37.9  15.319  160.4  0.0306   70.3  0.9328  -19.4
 0.045  0.8088  -42.4  15.156  157.9  0.0341   68.4  0.9215  -21.8
 0.050  0.8159  -46.9  15.021  155.4  0.0376   66.9  0.9119  -24.2
 0.055  0.8019  -50.3  14.701  153.8  0.0397   64.2  0.8936  -25.7
 0.060  0.7908  -53.7  14.392  152.2  0.0420   61.8  0.8759  -27.3
 0.065  0.7826  -57.3  14.096  150.5  0.0443   59.7  0.8589  -28.9
 0.070  0.7775  -60.9  13.813  148.7  0.0466   57.7  0.8427  -30.6
 0.075  0.7754  -64.5  13.544  146.8  0.0490   56.0  0.8272  -32.3
 0.080  0.7766  -68.1  13.289  144.9  0.0514   54.4  0.8125  -34.2
 0.085  0.7808  -71.8  13.050  142.9  0.0539   52.9  0.7987  -36.1
 0.090  0.7881  -75.3  12.828  140.9  0.0564   51.6  0.7857  -38.0
 0.095  0.7984  -78.8  12.623  138.7  0.0589   50.4  0.7737  -40.0
 0.100  0.8116  -82.2  12.436  136.5  0.0615   49.3  0.7627  -42.1
 0.105  0.8054  -84.6  12.183  135.4  0.0628   47.9  0.7483  -43.1
 0.110  0.8006  -87.1  11.934  134.2  0.0641   46.7  0.7342  -44.2
 0.115  0.7973  -89.6  11.690  133.0  0.0654   45.4  0.7203  -45.3
 0.120  0.7956  -92.1  11.452  131.8  0.0668   44.2  0.7067  -46.5
 0.125  0.7954  -94.6  11.220  130.5  0.0682   43.1  0.6934  -47.7
 0.130  0.7967  -97.1  10.993  129.1  0.0696   42.0  0.6804  -49.0
 0.135  0.7995  -99.6  10.773  127.7  0.0710   40.9  0.6678  -50.3
 0.140  0.8038 -102.1  10.560  126.2  0.0725   39.9  0.6556  -51.6
 0.145  0.8096 -104.5  10.354  124.7  0.0740   38.9  0.6437  -53.0
 0.150  0.8168 -106.9  10.156  123.1  0.0755   38.0  0.6322  -54.5
 0.155  0.8133 -108.5   9.960  122.3  0.0761   37.2  0.6215  -55.2
 0.160  0.8104 -110.1   9.766  121.5  0.0767   36.4  0.6109  -55.9
 0.165  0.8081 -111.7   9.574  120.7  0.0773   35.6  0.6003  -56.6
 0.170  0.8065 -113.3   9.384  119.9  0.0780   34.9  0.5899  -57.4
 0.175  0.8055 -114.9   9.196  119.0  0.0786   34.1  0.5796  -58.2
 0.180  0.8051 -116.5   9.011  118.0  0.0793   33.4  0.5694  -59.0
 0.185  0.8054 -118.1   8.828  117.1  0.0800   32.7  0.5593  -59.9
 0.190  0.8063 -119.7   8.647  116.1  0.0807   32.0  0.5494  -60.7
 0.195  0.8078 -121.3   8.470  115.0  0.0814   31.3  0.5396  -61.7
 0.200  0.8100 -122.9   8.295  113.9  0.0821   30.6  0.5299  -62.6
 0.220  0.8088 -127.5   7.767  111.5  0.0837   28.4  0.5029  -64.9
 0.240  0.8128 -132.0   7.255  108.7  0.0854   26.2  0.4768  -67.4
 0.260  0.8144 -135.9   6.794  106.3  0.0868   24.5  0.4530  -69.5
 0.280  0.8117 -139.2   6.375  104.2  0.0877   23.1  0.4309  -71.1
 0.300  0.8117 -142.5   5.966  101.9  0.0887   21.7  0.4092  -72.8
 0.320  0.8092 -144.8   5.690  100.6  0.0891   20.7  0.3967  -74.0
 0.340  0.8081 -147.1   5.418   99.2  0.0895   19.6  0.3845  -75.2
 0.360  0.8083 -149.4   5.149   97.6  0.0899   18.6  0.3724  -76.6
 0.380  0.8097 -151.7   4.884   95.8  0.0903   17.6  0.3605  -78.0
 0.400  0.8125 -154.0   4.625   93.9  0.0908   16.6  0.3489  -79.5
 0.420  0.8116 -155.6   4.449   92.8  0.0909   16.1  0.3420  -80.4
 0.440  0.8113 -157.2   4.274   91.7  0.0911   15.6  0.3351  -81.3
 0.450  0.8114 -158.0   4.188   91.1  0.0912   15.3  0.3318  -81.8
 0.460  0.8117 -158.7   4.102   90.4  0.0913   15.0  0.3284  -82.3
 0.480  0.8126 -160.3   3.931   89.1  0.0914   14.5  0.3217  -83.3
 0.500  0.8142 -161.9   3.763   87.6  0.0916   14.0  0.3152  -84.3
 0.520  0.8133 -163.1   3.640   86.7  0.0915   13.6  0.3117  -85.1
 0.540  0.8126 -164.3   3.517   85.8  0.0914   13.2  0.3083  -85.9
 0.560  0.8124 -165.4   3.396   84.8  0.0913   12.8  0.3050  -86.7
 0.580  0.8125 -166.6   3.276   83.7  0.0913   12.4  0.3017  -87.5
 0.600  0.8129 -167.8   3.157   82.5  0.0912   12.0  0.2985  -88.4
 0.620  0.8143 -168.7   3.071   81.7  0.0912   11.8  0.2966  -89.0
 0.640  0.8160 -169.7   2.985   80.9  0.0911   11.6  0.2948  -89.7
 0.660  0.8178 -170.6   2.900   80.0  0.0911   11.5  0.2930  -90.3
 0.680  0.8199 -171.5   2.816   79.1  0.0910   11.3  0.2912  -90.9
 0.700  0.8222 -172.4   2.733   78.1  0.0910   11.1  0.2895  -91.6
 0.720  0.8206 -173.2   2.663   77.3  0.0908   10.9  0.2893  -92.3
 0.740  0.8192 -173.9   2.593   76.6  0.0905   10.8  0.2892  -93.0
 0.760  0.8179 -174.7   2.524   75.7  0.0903   10.6  0.2891  -93.7
 0.780  0.8167 -175.4   2.456   74.8  0.0900   10.5  0.2891  -94.4
 0.800  0.8157 -176.2   2.388   73.9  0.0898   10.3  0.2891  -95.1
 0.820  0.8159 -176.9   2.336   73.2  0.0896   10.3  0.2893  -95.7
 0.840  0.8162 -177.6   2.284   72.5  0.0895   10.2  0.2895  -96.3
 0.860  0.8166 -178.4   2.233   71.8  0.0893   10.2  0.2898  -96.9
 0.880  0.8172 -179.1   2.182   71.0  0.0892   10.1  0.2901  -97.5
 0.900  0.8179 -179.8   2.131   70.2  0.0890   10.1  0.2904  -98.1
 0.920  0.8178  179.6   2.087   69.6  0.0887   10.1  0.2916  -98.7
 0.940  0.8178  179.1   2.044   68.9  0.0884   10.0  0.2928  -99.3
 0.960  0.8179  178.5   2.001   68.2  0.0881   10.0  0.2940  -99.9
 0.980  0.8181  178.0   1.958   67.5  0.0878    9.9  0.2953 -100.5
 1.000  0.8183  177.4   1.916   66.7  0.0875    9.9  0.2966 -101.1
 1.020  0.8195  176.9   1.883   66.0  0.0873   10.0  0.2980 -101.6
 1.040  0.8208  176.4   1.850   65.4  0.0872   10.1  0.2993 -102.1
 1.060  0.8221  176.0   1.818   64.7  0.0870   10.1  0.3007 -102.6
 1.080  0.8235  175.5   1.786   64.0  0.0869   10.2  0.3022 -103.1
 1.100  0.8249  175.0   1.754   63.2  0.0867   10.3  0.3036 -103.6
 1.120  0.8252  174.4   1.724   62.6  0.0864   10.4  0.3055 -104.1
 1.140  0.8256  173.8   1.694   62.0  0.0862   10.5  0.3075 -104.7
 1.160  0.8261  173.3   1.664   61.3  0.0859   10.7  0.3095 -105.2
 1.180  0.8267  172.7   1.634   60.7  0.0857   10.8  0.3115 -105.7
 1.200  0.8273  172.1   1.605   60.0  0.0854   10.9  0.3136 -106.2
 1.220  0.8275  171.6   1.580   59.4  0.0851   11.1  0.3153 -106.8
 1.240  0.8277  171.1   1.556   58.7  0.0849   11.3  0.3170 -107.3
 1.260  0.8280  170.7   1.531   58.0  0.0846   11.5  0.3188 -107.9
 1.280  0.8283  170.2   1.507   57.3  0.0844   11.7  0.3206 -108.5
 1.300  0.8287  169.7   1.483   56.6  0.0841   11.9  0.3224 -109.0
 1.320  0.8286  169.3   1.462   56.0  0.0839   12.1  0.3245 -109.5
 1.340  0.8285  168.8   1.441   55.5  0.0837   12.3  0.3267 -110.0
 1.360  0.8285  168.4   1.420   54.9  0.0835   12.5  0.3289 -110.5
 1.380  0.8285  167.9   1.399   54.2  0.0833   12.7  0.3312 -111.0
 1.400  0.8286  167.5   1.379   53.6  0.0831   12.9  0.3334 -111.5
 1.420  0.8289  167.1   1.360   53.1  0.0828   13.3  0.3353 -112.1
 1.440  0.8293  166.7   1.341   52.5  0.0826   13.6  0.3371 -112.7
 1.460  0.8297  166.2   1.323   52.0  0.0823   14.0  0.3391 -113.3
 1.480  0.8302  165.8   1.304   51.4  0.0821   14.3  0.3410 -113.8
 1.500  0.8307  165.4   1.286   50.8  0.0818   14.7  0.3430 -114.4
 1.520  0.8312  164.9   1.270   50.2  0.0817   15.0  0.3449 -114.9
 1.540  0.8317  164.5   1.254   49.6  0.0816   15.4  0.3469 -115.3
 1.560  0.8323  164.0   1.239   49.0  0.0816   15.7  0.3489 -115.7
 1.580  0.8329  163.6   1.223   48.4  0.0815   16.1  0.3509 -116.2
 1.600  0.8336  163.1   1.208   47.7  0.0814   16.4  0.3529 -116.6
 1.620  0.8344  162.7   1.194   47.2  0.0813   16.8  0.3554 -117.2
 1.640  0.8353  162.2   1.179   46.7  0.0811   17.2  0.3579 -117.7
 1.660  0.8363  161.8   1.165   46.1  0.0810   17.5  0.3604 -118.2
 1.680  0.8373  161.3   1.151   45.6  0.0808   17.9  0.3630 -118.8
 1.700  0.8383  160.9   1.137   45.0  0.0807   18.3  0.3656 -119.3
 1.720  0.8383  160.5   1.124   44.5  0.0808   18.7  0.3676 -119.8
 1.740  0.8383  160.1   1.111   44.0  0.0808   19.1  0.3696 -120.2
 1.760  0.8383  159.7   1.098   43.5  0.0809   19.6  0.3716 -120.7
 1.780  0.8384  159.3   1.086   42.9  0.0810   20.0  0.3736 -121.2
 1.800  0.8385  158.9   1.073   42.4  0.0811   20.4  0.3757 -121.6
 1.820  0.8385  158.5   1.061   41.9  0.0812   20.8  0.3779 -122.1
 1.840  0.8385  158.1   1.050   41.3  0.0812   21.3  0.3801 -122.5
 1.860  0.8385  157.7   1.038   40.8  0.0813   21.7  0.3823 -123.0
 1.880  0.8386  157.3   1.027   40.2  0.0814   22.2  0.3846 -123.5
 1.900  0.8387  156.9   1.016   39.6  0.0815   22.6  0.3869 -123.9
 1.920  0.8395  156.5   1.006   39.1  0.0816   23.1  0.3891 -124.4
 1.940  0.8403  156.1   0.996   38.6  0.0818   23.6  0.3914 -124.8
 1.960  0.8411  155.6   0.986   38.1  0.0819   24.0  0.3937 -125.2
 1.980  0.8420  155.2   0.977   37.6  0.0820   24.5  0.3960 -125.7
 2.000  0.8430  154.8   0.967   37.1  0.0822   25.0  0.3983 -126.1
 2.020  0.8433  154.4   0.958   36.7  0.0824   25.4  0.4006 -126.6
 2.040  0.8436  154.1   0.948   36.2  0.0826   25.9  0.4030 -127.1
 2.060  0.8440  153.7   0.939   35.7  0.0828   26.3  0.4054 -127.6
 2.080  0.8444  153.4   0.930   35.3  0.0830   26.7  0.4078 -128.1
 2.100  0.8448  153.0   0.921   34.8  0.0832   27.1  0.4103 -128.6
 2.120  0.8453  152.6   0.912   34.3  0.0835   27.5  0.4128 -129.0
 2.140  0.8458  152.3   0.903   33.8  0.0837   28.0  0.4153 -129.5
 2.160  0.8463  151.9   0.894   33.3  0.0839   28.4  0.4178 -130.0
 2.180  0.8469  151.6   0.886   32.7  0.0842   28.8  0.4204 -130.4
 2.200  0.8475  151.2   0.877   32.2  0.0844   29.2  0.4230 -130.9
 2.220  0.8480  150.8   0.869   31.8  0.0848   29.6  0.4252 -131.4
 2.240  0.8486  150.4   0.862   31.3  0.0852   30.1  0.4274 -131.9
 2.260  0.8492  150.0   0.854   30.9  0.0856   30.5  0.4296 -132.3
 2.280  0.8498  149.6   0.846   30.5  0.0861   30.9  0.4319 -132.8
 2.300  0.8505  149.2   0.839   30.0  0.0865   31.3  0.4342 -133.3
 2.320  0.8512  148.8   0.831   29.5  0.0869   31.7  0.4365 -133.7
 2.340  0.8520  148.4   0.824   29.1  0.0874   32.1  0.4389 -134.2
 2.360  0.8528  148.0   0.817   28.6  0.0878   32.5  0.4413 -134.6
 2.380  0.8536  147.6   0.809   28.1  0.0883   32.9  0.4437 -135.1
 2.400  0.8545  147.2   0.802   27.6  0.0887   33.3  0.4461 -135.5
 2.420  0.8545  146.8   0.795   27.2  0.0893   33.7  0.4482 -136.0
 2.440  0.8546  146.5   0.789   26.8  0.0899   34.1  0.4504 -136.5
 2.460  0.8547  146.1   0.782   26.4  0.0905   34.5  0.4526 -137.0
 2.480  0.8548  145.8   0.776   26.0  0.0911   34.9  0.4549 -137.5
 2.500  0.8550  145.4   0.769   25.5  0.0917   35.3  0.4572 -138.0
 2.520  0.8552  145.1   0.763   25.1  0.0924   35.6  0.4595 -138.5
 2.540  0.8554  144.7   0.757   24.7  0.0930   36.0  0.4619 -139.0
 2.560  0.8557  144.4   0.750   24.2  0.0936   36.4  0.4642 -139.5
 2.580  0.8560  144.0   0.744   23.8  0.0943   36.7  0.4667 -139.9
 2.600  0.8563  143.7   0.738   23.3  0.0949   37.1  0.4691 -140.4
 2.620  0.8570  143.3   0.732   22.9  0.0956   37.4  0.4712 -140.8
 2.640  0.8578  143.0   0.726   22.6  0.0964   37.7  0.4734 -141.3
 2.660  0.8586  142.6   0.720   22.2  0.0972   38.0  0.4756 -141.7
 2.680  0.8594  142.2   0.714   21.8  0.0979   38.2  0.4778 -142.1
 2.700  0.8603  141.8   0.709   21.4  0.0987   38.5  0.4800 -142.5
 2.720  0.8612  141.5   0.703   21.0  0.0994   38.8  0.4823 -143.0
 2.740  0.8622  141.1   0.697   20.6  0.1002   39.0  0.4846 -143.4
 2.760  0.8631  140.7   0.691   20.2  0.1010   39.3  0.4869 -143.8
 2.780  0.8641  140.4   0.686   19.8  0.1017   39.5  0.4892 -144.2
 2.800  0.8652  140.0   0.680   19.4  0.1025   39.8  0.4916 -144.6
 2.820  0.8656  139.7   0.675   19.1  0.1034   40.0  0.4938 -145.1
 2.840  0.8660  139.3   0.669   18.7  0.1042   40.2  0.4960 -145.6
 2.860  0.8664  139.0   0.664   18.4  0.1051   40.4  0.4983 -146.1
 2.880  0.8668  138.6   0.659   18.0  0.1059   40.6  0.5006 -146.6
 2.900  0.8673  138.3   0.654   17.7  0.1068   40.8  0.5030 -147.1
 2.920  0.8678  138.0   0.648   17.3  0.1076   41.0  0.5054 -147.6
 2.940  0.8684  137.6   0.643   16.9  0.1085   41.2  0.5078 -148.1
 2.960  0.8690  137.3   0.638   16.6  0.1094   41.3  0.5103 -148.6
 2.980  0.8696  136.9   0.633   16.2  0.1102   41.5  0.5128 -149.0
 3.000  0.8702  136.6   0.628   15.8  0.1111   41.7  0.5153 -149.5
 3.100  0.8728  134.8   0.608   14.2  0.1157   42.3  0.5258 -151.8
 3.200  0.8763  133.1   0.588   12.5  0.1203   42.9  0.5371 -154.0
 3.300  0.8798  131.4   0.567   11.1  0.1253   43.2  0.5476 -156.2
 3.400  0.8841  129.8   0.546    9.5  0.1304   43.5  0.5589 -158.4
 3.500  0.8855  128.2   0.529    8.1  0.1351   43.6  0.5684 -160.5
 3.600  0.8875  126.6   0.512    6.7  0.1398   43.6  0.5787 -162.5
 3.700  0.8873  125.0   0.494    5.4  0.1446   43.2  0.5869 -164.8
 3.800  0.8877  123.4   0.476    4.1  0.1494   42.9  0.5960 -167.1
 3.900  0.8904  122.1   0.463    3.2  0.1553   42.7  0.6091 -169.0
 4.000  0.8935  120.8   0.451    2.2  0.1612   42.6  0.6228 -170.8
 4.100  0.8933  119.4   0.439    1.6  0.1664   41.9  0.6310 -172.9
 4.200  0.8937  118.0   0.427    0.9  0.1715   41.2  0.6401 -175.0
 4.300  0.8945  116.7   0.415    0.2  0.1767   40.6  0.6500 -177.0
 4.400  0.8959  115.3   0.404   -0.5  0.1820   40.0  0.6607 -178.9
 4.500  0.8978  113.9   0.392   -1.3  0.1872   39.4  0.6721  179.2
 4.600  0.8961  112.8   0.384   -1.6  0.1917   38.6  0.6772  177.4
 4.700  0.8947  111.8   0.376   -1.9  0.1963   37.9  0.6830  175.7
 4.800  0.8936  110.7   0.367   -2.2  0.2008   37.1  0.6894  174.0
 4.900  0.8929  109.7   0.359   -2.5  0.2055   36.5  0.6963  172.3
 5.000  0.8924  108.6   0.351   -2.8  0.2101   35.8  0.7039  170.7
 5.100  0.8918  107.8   0.346   -2.7  0.2145   35.0  0.7093  169.3
 5.200  0.8914  106.9   0.341   -2.6  0.2190   34.1  0.7151  167.9
 5.300  0.8912  106.1   0.336   -2.6  0.2235   33.4  0.7213  166.5
 5.400  0.8911  105.2   0.331   -2.5  0.2281   32.6  0.7280  165.1
 5.500  0.8913  104.4   0.326   -2.4  0.2327   31.9  0.7350  163.8
 5.600  0.8894  103.5   0.323   -2.3  0.2369   31.1  0.7380  162.6
 5.700  0.8878  102.7   0.321   -2.2  0.2412   30.3  0.7413  161.5
 5.800  0.8863  101.8   0.318   -2.1  0.2455   29.5  0.7449  160.3
 5.900  0.8851  101.0   0.316   -2.0  0.2499   28.7  0.7488  159.2
 6.000  0.8840  100.1   0.313   -1.9  0.2543   28.0  0.7530  158.1
!
!  f       NFmin   Gammaopt  rn/50
! GHz       dB    MAG  ANG    -
!
! noise parameter not available yet for this operation point!
!
! (c) 2016  Infineon Technologies AG, Munich
