! Infineon Technologies  Discrete & RF Semiconductors
! BFP196W
! VCE = 1.5 V,  IC =  60mA
! Common Emitter S-Parameters:                            Jan 2016
# GHz  S  MA  R  50
!  f         S11            S21            S12            S22
! GHz     MAG   ANG      MAG   ANG      MAG   ANG      MAG   ANG
 0.010  0.2018  -89.1  71.665  164.7  0.0041   74.0  0.8503  -19.6
 0.015  0.2819 -102.1  69.124  159.1  0.0060   69.2  0.8155  -28.4
 0.020  0.3700 -109.2  67.293  153.1  0.0080   66.7  0.8014  -37.8
 0.025  0.4300 -116.5  63.604  148.2  0.0090   61.8  0.7605  -45.4
 0.030  0.4953 -122.0  60.439  142.7  0.0101   58.0  0.7341  -53.6
 0.035  0.5261 -127.2  56.749  139.6  0.0109   55.0  0.6926  -58.9
 0.040  0.5607 -131.9  53.247  136.1  0.0118   52.4  0.6577  -64.9
 0.045  0.5986 -135.9  49.972  132.1  0.0126   50.2  0.6307  -71.4
 0.050  0.6391 -139.5  46.972  127.6  0.0135   48.3  0.6125  -78.4
 0.055  0.6478 -141.7  44.950  126.5  0.0138   47.2  0.5900  -81.0
 0.060  0.6575 -143.8  42.946  125.3  0.0140   46.1  0.5687  -83.8
 0.065  0.6680 -145.8  40.962  124.0  0.0143   45.0  0.5489  -86.8
 0.070  0.6793 -147.8  39.002  122.6  0.0146   44.0  0.5307  -90.0
 0.075  0.6915 -149.7  37.068  121.0  0.0149   43.0  0.5142  -93.4
 0.080  0.7043 -151.6  35.166  119.2  0.0152   42.1  0.4998  -97.0
 0.085  0.7179 -153.4  33.301  117.3  0.0155   41.2  0.4874 -100.8
 0.090  0.7322 -155.1  31.480  115.1  0.0158   40.3  0.4773 -104.9
 0.095  0.7470 -156.7  29.709  112.7  0.0161   39.5  0.4697 -109.0
 0.100  0.7625 -158.3  28.000  109.9  0.0164   38.7  0.4646 -113.3
 0.105  0.7650 -159.2  27.120  109.3  0.0166   38.8  0.4573 -114.9
 0.110  0.7677 -160.0  26.243  108.7  0.0168   39.0  0.4503 -116.6
 0.115  0.7705 -160.9  25.369  108.0  0.0170   39.1  0.4438 -118.3
 0.120  0.7735 -161.7  24.499  107.2  0.0172   39.2  0.4377 -120.1
 0.125  0.7767 -162.5  23.634  106.5  0.0173   39.3  0.4320 -121.9
 0.130  0.7800 -163.4  22.773  105.6  0.0175   39.5  0.4268 -123.8
 0.135  0.7836 -164.2  21.918  104.7  0.0177   39.6  0.4220 -125.7
 0.140  0.7872 -165.0  21.069  103.7  0.0179   39.7  0.4177 -127.7
 0.145  0.7910 -165.8  20.226  102.7  0.0181   39.8  0.4139 -129.7
 0.150  0.7950 -166.6  19.391  101.5  0.0183   39.9  0.4106 -131.7
 0.155  0.7957 -167.1  18.919  101.2  0.0185   40.3  0.4079 -132.7
 0.160  0.7964 -167.6  18.448  100.8  0.0186   40.8  0.4053 -133.8
 0.165  0.7971 -168.1  17.978  100.4  0.0188   41.2  0.4029 -134.8
 0.170  0.7980 -168.5  17.509  100.0  0.0190   41.6  0.4005 -135.9
 0.175  0.7988 -169.0  17.041   99.6  0.0191   42.0  0.3984 -137.0
 0.180  0.7998 -169.5  16.573   99.1  0.0193   42.4  0.3963 -138.0
 0.185  0.8008 -170.0  16.107   98.6  0.0195   42.8  0.3945 -139.1
 0.190  0.8018 -170.4  15.642   98.1  0.0197   43.2  0.3927 -140.3
 0.195  0.8029 -170.9  15.178   97.6  0.0198   43.5  0.3911 -141.4
 0.200  0.8041 -171.4  14.716   97.0  0.0200   43.9  0.3897 -142.5
 0.220  0.8069 -172.6  13.588   95.8  0.0208   44.8  0.3853 -145.1
 0.240  0.8100 -173.8  12.466   94.4  0.0216   45.7  0.3818 -147.8
 0.260  0.8119 -174.9  11.504   93.2  0.0224   46.7  0.3782 -150.2
 0.280  0.8125 -175.9  10.695   92.3  0.0231   47.8  0.3745 -152.3
 0.300  0.8133 -176.9   9.889   91.2  0.0238   48.8  0.3712 -154.5
 0.320  0.8138 -177.6   9.401   90.5  0.0247   49.8  0.3701 -155.7
 0.340  0.8144 -178.4   8.915   89.8  0.0255   50.8  0.3691 -156.9
 0.360  0.8152 -179.1   8.430   89.0  0.0264   51.7  0.3683 -158.1
 0.380  0.8161 -179.9   7.948   88.1  0.0273   52.5  0.3677 -159.4
 0.400  0.8171  179.4   7.467   87.1  0.0282   53.3  0.3672 -160.6
 0.420  0.8175  178.8   7.173   86.5  0.0291   54.1  0.3669 -161.4
 0.440  0.8179  178.2   6.880   85.9  0.0301   54.9  0.3666 -162.3
 0.450  0.8182  177.9   6.734   85.6  0.0305   55.2  0.3666 -162.7
 0.460  0.8185  177.7   6.588   85.2  0.0310   55.6  0.3665 -163.1
 0.480  0.8191  177.1   6.297   84.5  0.0320   56.3  0.3664 -164.0
 0.500  0.8198  176.5   6.007   83.7  0.0329   56.9  0.3664 -164.8
 0.520  0.8195  176.0   5.806   83.2  0.0339   57.4  0.3660 -165.4
 0.540  0.8193  175.5   5.606   82.7  0.0348   57.9  0.3657 -166.0
 0.560  0.8191  175.0   5.406   82.1  0.0358   58.3  0.3654 -166.6
 0.580  0.8190  174.5   5.207   81.5  0.0367   58.7  0.3652 -167.2
 0.600  0.8190  174.0   5.009   80.8  0.0377   59.1  0.3650 -167.8
 0.620  0.8202  173.5   4.873   80.4  0.0387   59.5  0.3648 -168.2
 0.640  0.8214  173.1   4.737   79.9  0.0397   59.8  0.3647 -168.6
 0.660  0.8226  172.6   4.602   79.4  0.0407   60.1  0.3645 -169.0
 0.680  0.8239  172.2   4.467   78.9  0.0417   60.4  0.3644 -169.4
 0.700  0.8253  171.7   4.332   78.3  0.0427   60.7  0.3643 -169.8
 0.720  0.8243  171.3   4.222   77.8  0.0437   61.0  0.3645 -170.1
 0.740  0.8234  170.9   4.112   77.3  0.0447   61.2  0.3646 -170.4
 0.760  0.8225  170.5   4.003   76.8  0.0457   61.5  0.3648 -170.8
 0.780  0.8216  170.1   3.894   76.3  0.0467   61.7  0.3650 -171.1
 0.800  0.8208  169.7   3.785   75.7  0.0477   61.9  0.3652 -171.4
 0.820  0.8211  169.3   3.701   75.3  0.0487   62.0  0.3655 -171.7
 0.840  0.8214  168.9   3.617   74.8  0.0497   62.1  0.3658 -172.0
 0.860  0.8218  168.5   3.534   74.3  0.0508   62.2  0.3661 -172.2
 0.880  0.8222  168.1   3.451   73.8  0.0518   62.3  0.3665 -172.5
 0.900  0.8226  167.7   3.368   73.3  0.0528   62.4  0.3668 -172.8
 0.920  0.8220  167.4   3.301   72.9  0.0538   62.5  0.3670 -173.1
 0.940  0.8215  167.0   3.234   72.4  0.0548   62.6  0.3672 -173.3
 0.960  0.8210  166.7   3.167   72.0  0.0557   62.6  0.3674 -173.6
 0.980  0.8205  166.3   3.100   71.5  0.0567   62.7  0.3677 -173.8
 1.000  0.8201  166.0   3.034   71.0  0.0577   62.8  0.3679 -174.1
 1.020  0.8208  165.6   2.983   70.6  0.0587   62.8  0.3682 -174.3
 1.040  0.8216  165.2   2.932   70.1  0.0598   62.8  0.3684 -174.5
 1.060  0.8225  164.9   2.881   69.7  0.0608   62.9  0.3687 -174.7
 1.080  0.8233  164.5   2.830   69.2  0.0619   62.9  0.3689 -174.9
 1.100  0.8242  164.1   2.780   68.7  0.0629   62.9  0.3692 -175.1
 1.120  0.8246  163.7   2.733   68.3  0.0640   62.9  0.3695 -175.3
 1.140  0.8251  163.3   2.687   67.8  0.0650   62.9  0.3698 -175.4
 1.160  0.8256  163.0   2.641   67.3  0.0661   62.8  0.3700 -175.6
 1.180  0.8261  162.6   2.595   66.8  0.0671   62.8  0.3703 -175.7
 1.200  0.8267  162.2   2.549   66.3  0.0682   62.8  0.3706 -175.9
 1.220  0.8263  161.8   2.511   65.9  0.0693   62.8  0.3710 -176.1
 1.240  0.8259  161.4   2.474   65.4  0.0704   62.7  0.3713 -176.3
 1.260  0.8255  161.0   2.436   65.0  0.0714   62.7  0.3717 -176.4
 1.280  0.8252  160.6   2.399   64.5  0.0725   62.6  0.3721 -176.6
 1.300  0.8249  160.2   2.362   64.0  0.0736   62.6  0.3725 -176.8
 1.320  0.8249  159.9   2.330   63.6  0.0746   62.5  0.3729 -177.0
 1.340  0.8250  159.6   2.297   63.1  0.0755   62.5  0.3733 -177.1
 1.360  0.8251  159.2   2.265   62.7  0.0765   62.4  0.3737 -177.3
 1.380  0.8252  158.9   2.233   62.2  0.0774   62.4  0.3741 -177.4
 1.400  0.8253  158.6   2.201   61.7  0.0784   62.3  0.3745 -177.6
 1.420  0.8256  158.3   2.173   61.3  0.0794   62.2  0.3747 -177.8
 1.440  0.8259  158.0   2.144   61.0  0.0804   62.1  0.3749 -177.9
 1.460  0.8262  157.7   2.116   60.6  0.0815   62.1  0.3750 -178.1
 1.480  0.8265  157.4   2.088   60.2  0.0825   62.0  0.3752 -178.2
 1.500  0.8269  157.1   2.060   59.8  0.0835   61.9  0.3754 -178.4
 1.520  0.8271  156.7   2.035   59.3  0.0845   61.8  0.3757 -178.5
 1.540  0.8274  156.3   2.010   58.9  0.0855   61.7  0.3759 -178.7
 1.560  0.8277  155.8   1.985   58.4  0.0864   61.7  0.3762 -178.8
 1.580  0.8280  155.4   1.961   57.9  0.0874   61.6  0.3764 -179.0
 1.600  0.8284  155.0   1.936   57.4  0.0884   61.5  0.3767 -179.1
 1.620  0.8286  154.7   1.914   57.0  0.0894   61.4  0.3774 -179.2
 1.640  0.8289  154.4   1.892   56.6  0.0904   61.2  0.3780 -179.3
 1.660  0.8291  154.1   1.871   56.2  0.0915   61.1  0.3787 -179.5
 1.680  0.8294  153.8   1.849   55.7  0.0925   60.9  0.3793 -179.6
 1.700  0.8297  153.5   1.828   55.3  0.0935   60.8  0.3800 -179.7
 1.720  0.8297  153.2   1.809   54.9  0.0946   60.7  0.3806 -179.9
 1.740  0.8297  152.8   1.790   54.5  0.0956   60.6  0.3811  179.9
 1.760  0.8297  152.5   1.771   54.1  0.0967   60.4  0.3817  179.8
 1.780  0.8298  152.1   1.753   53.6  0.0977   60.3  0.3823  179.6
 1.800  0.8299  151.8   1.734   53.2  0.0988   60.2  0.3829  179.4
 1.820  0.8299  151.5   1.716   52.8  0.0998   60.1  0.3832  179.3
 1.840  0.8299  151.2   1.699   52.4  0.1008   60.0  0.3835  179.2
 1.860  0.8299  150.8   1.681   52.0  0.1017   59.8  0.3838  179.0
 1.880  0.8299  150.5   1.663   51.5  0.1027   59.7  0.3841  178.9
 1.900  0.8300  150.2   1.646   51.1  0.1037   59.6  0.3844  178.8
 1.920  0.8305  149.8   1.631   50.7  0.1047   59.5  0.3849  178.7
 1.940  0.8310  149.5   1.616   50.3  0.1058   59.4  0.3854  178.6
 1.960  0.8315  149.1   1.601   49.9  0.1068   59.2  0.3859  178.4
 1.980  0.8321  148.8   1.586   49.5  0.1079   59.1  0.3864  178.3
 2.000  0.8327  148.4   1.571   49.1  0.1089   59.0  0.3869  178.2
 2.020  0.8327  148.1   1.557   48.7  0.1099   58.8  0.3876  178.0
 2.040  0.8328  147.8   1.544   48.4  0.1108   58.6  0.3883  177.9
 2.060  0.8329  147.5   1.531   48.0  0.1118   58.5  0.3890  177.7
 2.080  0.8330  147.2   1.517   47.6  0.1128   58.3  0.3897  177.6
 2.100  0.8331  146.8   1.504   47.2  0.1137   58.1  0.3904  177.4
 2.120  0.8333  146.5   1.491   46.8  0.1147   57.9  0.3911  177.2
 2.140  0.8335  146.2   1.478   46.4  0.1157   57.8  0.3918  177.1
 2.160  0.8337  145.9   1.465   46.0  0.1167   57.6  0.3926  176.9
 2.180  0.8339  145.6   1.452   45.5  0.1176   57.5  0.3933  176.8
 2.200  0.8342  145.3   1.439   45.1  0.1186   57.3  0.3940  176.6
 2.220  0.8343  145.0   1.427   44.7  0.1196   57.1  0.3945  176.5
 2.240  0.8344  144.6   1.416   44.3  0.1205   56.9  0.3950  176.3
 2.260  0.8346  144.3   1.404   43.9  0.1215   56.8  0.3954  176.2
 2.280  0.8348  143.9   1.393   43.5  0.1225   56.6  0.3959  176.1
 2.300  0.8350  143.6   1.382   43.1  0.1234   56.4  0.3964  175.9
 2.320  0.8353  143.3   1.370   42.7  0.1244   56.2  0.3969  175.8
 2.340  0.8356  142.9   1.359   42.2  0.1254   56.1  0.3974  175.7
 2.360  0.8359  142.6   1.348   41.8  0.1264   55.9  0.3979  175.6
 2.380  0.8362  142.2   1.337   41.4  0.1273   55.8  0.3984  175.4
 2.400  0.8366  141.9   1.326   40.9  0.1283   55.6  0.3989  175.3
 2.420  0.8365  141.6   1.316   40.5  0.1293   55.4  0.3998  175.1
 2.440  0.8364  141.3   1.307   40.2  0.1302   55.2  0.4007  174.9
 2.460  0.8364  141.0   1.297   39.8  0.1312   55.0  0.4016  174.8
 2.480  0.8364  140.7   1.287   39.4  0.1322   54.8  0.4025  174.6
 2.500  0.8364  140.3   1.278   39.0  0.1332   54.7  0.4035  174.4
 2.520  0.8364  140.0   1.268   38.6  0.1342   54.5  0.4044  174.2
 2.540  0.8365  139.7   1.259   38.2  0.1351   54.3  0.4053  174.0
 2.560  0.8366  139.4   1.250   37.8  0.1361   54.1  0.4062  173.9
 2.580  0.8367  139.1   1.240   37.4  0.1371   54.0  0.4072  173.7
 2.600  0.8368  138.8   1.231   37.0  0.1381   53.8  0.4081  173.5
 2.620  0.8372  138.5   1.222   36.7  0.1390   53.6  0.4089  173.4
 2.640  0.8377  138.2   1.214   36.3  0.1399   53.4  0.4097  173.2
 2.660  0.8381  137.8   1.205   36.0  0.1408   53.2  0.4105  173.1
 2.680  0.8386  137.5   1.197   35.6  0.1418   53.1  0.4113  173.0
 2.700  0.8391  137.2   1.188   35.3  0.1427   52.9  0.4121  172.8
 2.720  0.8397  136.9   1.180   34.9  0.1436   52.7  0.4129  172.7
 2.740  0.8402  136.6   1.172   34.5  0.1445   52.5  0.4137  172.6
 2.760  0.8408  136.2   1.163   34.2  0.1454   52.3  0.4145  172.5
 2.780  0.8415  135.9   1.155   33.8  0.1464   52.2  0.4153  172.3
 2.800  0.8421  135.6   1.147   33.4  0.1473   52.0  0.4161  172.2
 2.820  0.8425  135.3   1.139   33.1  0.1482   51.8  0.4171  172.0
 2.840  0.8428  135.0   1.132   32.7  0.1492   51.6  0.4181  171.8
 2.860  0.8432  134.7   1.124   32.3  0.1501   51.4  0.4191  171.6
 2.880  0.8437  134.4   1.117   32.0  0.1510   51.2  0.4201  171.4
 2.900  0.8441  134.1   1.109   31.6  0.1520   51.0  0.4211  171.2
 2.920  0.8446  133.8   1.102   31.2  0.1529   50.8  0.4222  171.0
 2.940  0.8451  133.5   1.095   30.9  0.1539   50.6  0.4232  170.9
 2.960  0.8456  133.2   1.087   30.5  0.1548   50.5  0.4242  170.7
 2.980  0.8461  132.9   1.080   30.1  0.1558   50.3  0.4253  170.5
 3.000  0.8467  132.6   1.073   29.7  0.1567   50.1  0.4263  170.3
 3.100  0.8485  131.0   1.044   28.0  0.1610   49.0  0.4310  169.4
 3.200  0.8509  129.5   1.015   26.2  0.1653   48.0  0.4358  168.6
 3.300  0.8526  128.0   0.986   24.5  0.1696   47.1  0.4415  167.6
 3.400  0.8549  126.6   0.958   22.7  0.1740   46.3  0.4473  166.7
 3.500  0.8581  125.1   0.931   21.1  0.1777   45.4  0.4515  166.0
 3.600  0.8618  123.7   0.905   19.4  0.1814   44.5  0.4558  165.4
 3.700  0.8607  122.3   0.878   17.8  0.1845   43.4  0.4603  164.3
 3.800  0.8601  120.9   0.851   16.2  0.1876   42.3  0.4650  163.3
 3.900  0.8626  119.7   0.834   14.8  0.1922   41.6  0.4732  162.7
 4.000  0.8655  118.5   0.817   13.3  0.1969   40.9  0.4814  162.1
 4.100  0.8657  117.3   0.798   12.0  0.2004   39.9  0.4877  161.2
 4.200  0.8663  116.1   0.779   10.6  0.2040   39.0  0.4942  160.3
 4.300  0.8673  114.8   0.760    9.2  0.2077   38.1  0.5007  159.4
 4.400  0.8687  113.6   0.742    7.7  0.2114   37.2  0.5074  158.5
 4.500  0.8705  112.4   0.725    6.1  0.2151   36.4  0.5142  157.7
 4.600  0.8694  111.4   0.709    5.1  0.2181   35.5  0.5184  156.9
 4.700  0.8684  110.5   0.694    4.0  0.2212   34.7  0.5228  156.1
 4.800  0.8678  109.5   0.679    2.9  0.2243   33.9  0.5272  155.3
 4.900  0.8674  108.6   0.664    1.7  0.2275   33.1  0.5318  154.5
 5.000  0.8672  107.6   0.649    0.5  0.2307   32.3  0.5364  153.7
 5.100  0.8666  106.8   0.637   -0.4  0.2340   31.5  0.5415  153.1
 5.200  0.8661  106.1   0.626   -1.2  0.2373   30.8  0.5466  152.6
 5.300  0.8658  105.3   0.614   -2.2  0.2406   30.0  0.5517  152.0
 5.400  0.8657  104.6   0.603   -3.1  0.2440   29.3  0.5569  151.5
 5.500  0.8657  103.8   0.592   -4.1  0.2474   28.6  0.5622  151.0
 5.600  0.8640  103.0   0.583   -4.8  0.2506   27.8  0.5658  150.5
 5.700  0.8624  102.2   0.574   -5.6  0.2538   27.1  0.5695  149.9
 5.800  0.8610  101.3   0.566   -6.4  0.2571   26.4  0.5733  149.4
 5.900  0.8598  100.5   0.557   -7.2  0.2604   25.7  0.5771  148.9
 6.000  0.8588   99.7   0.549   -8.0  0.2637   25.0  0.5809  148.4
!
!  f       NFmin   Gammaopt  rn/50
! GHz       dB    MAG  ANG    -
!
! noise parameter not available yet for this operation point!
!
! (c) 2016  Infineon Technologies AG, Munich
