! Infineon Technologies  Discrete & RF Semiconductors
! BFP193W
! VCE = 1.5 V,  IC =  3.0 mA
! Common Emitter S-Parameters:                            Jan 2016
# GHz  S  MA  R  50
!  f         S11            S21            S12            S22
! GHz     MAG   ANG      MAG   ANG      MAG   ANG      MAG   ANG
 0.010  0.8802   -4.1   9.911  176.8  0.0046   88.5  0.9996   -1.1
 0.015  0.8829   -6.2   9.959  176.0  0.0070   85.5  0.9981   -2.5
 0.020  0.8867   -8.3  10.008  175.3  0.0094   84.0  0.9973   -4.0
 0.025  0.8808  -10.2   9.963  174.2  0.0115   83.9  0.9925   -4.8
 0.030  0.8760  -12.2   9.923  173.0  0.0137   83.9  0.9880   -5.7
 0.035  0.8732  -14.2   9.900  171.8  0.0159   82.0  0.9850   -6.6
 0.040  0.8714  -16.3   9.881  170.6  0.0181   80.6  0.9823   -7.5
 0.045  0.8708  -18.3   9.867  169.3  0.0204   79.5  0.9799   -8.5
 0.050  0.8713  -20.4   9.858  168.1  0.0226   78.6  0.9777   -9.4
 0.055  0.8658  -22.3   9.793  167.0  0.0245   76.9  0.9728  -10.2
 0.060  0.8613  -24.2   9.732  166.0  0.0265   75.4  0.9681  -11.0
 0.065  0.8577  -26.1   9.674  164.9  0.0285   74.1  0.9636  -11.8
 0.070  0.8550  -28.0   9.620  163.8  0.0304   73.0  0.9593  -12.7
 0.075  0.8534  -29.9   9.570  162.6  0.0324   72.1  0.9552  -13.5
 0.080  0.8527  -31.9   9.523  161.5  0.0344   71.2  0.9513  -14.4
 0.085  0.8530  -33.8   9.480  160.4  0.0364   70.5  0.9476  -15.2
 0.090  0.8543  -35.8   9.440  159.2  0.0385   69.8  0.9441  -16.1
 0.095  0.8565  -37.7   9.405  158.1  0.0405   69.2  0.9408  -16.9
 0.100  0.8597  -39.6   9.373  156.9  0.0425   68.6  0.9378  -17.8
 0.105  0.8545  -41.3   9.302  155.9  0.0442   67.4  0.9314  -18.5
 0.110  0.8500  -43.1   9.233  154.9  0.0458   66.3  0.9251  -19.3
 0.115  0.8464  -44.8   9.167  153.9  0.0475   65.2  0.9190  -20.0
 0.120  0.8435  -46.6   9.104  152.8  0.0492   64.2  0.9131  -20.8
 0.125  0.8415  -48.4   9.045  151.8  0.0509   63.3  0.9073  -21.6
 0.130  0.8402  -50.2   8.988  150.7  0.0527   62.5  0.9017  -22.4
 0.135  0.8398  -51.9   8.935  149.6  0.0544   61.7  0.8963  -23.2
 0.140  0.8402  -53.7   8.885  148.5  0.0562   61.0  0.8910  -24.0
 0.145  0.8415  -55.5   8.838  147.4  0.0579   60.3  0.8859  -24.8
 0.150  0.8435  -57.3   8.794  146.3  0.0597   59.6  0.8810  -25.6
 0.155  0.8391  -58.8   8.711  145.5  0.0610   58.7  0.8742  -26.2
 0.160  0.8352  -60.3   8.630  144.7  0.0622   57.8  0.8675  -26.7
 0.165  0.8320  -61.8   8.551  143.8  0.0635   57.0  0.8609  -27.3
 0.170  0.8293  -63.4   8.474  143.0  0.0648   56.2  0.8544  -27.9
 0.175  0.8272  -64.9   8.399  142.1  0.0662   55.5  0.8480  -28.5
 0.180  0.8258  -66.5   8.325  141.2  0.0675   54.7  0.8417  -29.1
 0.185  0.8249  -68.0   8.254  140.3  0.0688   54.0  0.8354  -29.7
 0.190  0.8247  -69.6   8.185  139.4  0.0702   53.4  0.8293  -30.3
 0.195  0.8250  -71.1   8.118  138.4  0.0715   52.7  0.8232  -31.0
 0.200  0.8260  -72.7   8.053  137.5  0.0729   52.1  0.8173  -31.6
 0.220  0.8154  -77.8   7.760  134.7  0.0769   49.3  0.7933  -33.6
 0.240  0.8114  -83.1   7.487  131.7  0.0810   46.7  0.7703  -35.8
 0.260  0.8066  -87.9   7.217  128.8  0.0845   44.4  0.7475  -37.6
 0.280  0.7996  -92.5   6.944  126.2  0.0874   42.4  0.7242  -39.0
 0.300  0.7977  -97.1   6.688  123.3  0.0904   40.5  0.7013  -40.5
 0.320  0.7877 -100.6   6.455  121.5  0.0921   38.7  0.6830  -41.6
 0.340  0.7805 -104.1   6.229  119.5  0.0939   36.9  0.6651  -42.7
 0.360  0.7765 -107.7   6.011  117.5  0.0958   35.2  0.6473  -43.9
 0.380  0.7754 -111.3   5.802  115.2  0.0978   33.6  0.6299  -45.2
 0.400  0.7775 -114.9   5.602  112.8  0.0998   32.0  0.6128  -46.5
 0.420  0.7719 -117.5   5.426  111.3  0.1009   30.9  0.6003  -47.2
 0.440  0.7680 -120.1   5.253  109.8  0.1020   29.7  0.5878  -48.0
 0.450  0.7666 -121.5   5.168  109.0  0.1026   29.2  0.5817  -48.3
 0.460  0.7656 -122.8   5.084  108.1  0.1032   28.6  0.5755  -48.7
 0.480  0.7649 -125.4   4.920  106.4  0.1044   27.6  0.5633  -49.6
 0.500  0.7659 -128.1   4.761  104.5  0.1056   26.5  0.5512  -50.4
 0.520  0.7626 -130.1   4.625  103.3  0.1061   25.6  0.5420  -51.0
 0.540  0.7602 -132.0   4.490  102.1  0.1067   24.7  0.5329  -51.6
 0.560  0.7587 -134.0   4.358  100.8  0.1073   23.8  0.5238  -52.2
 0.580  0.7581 -136.0   4.228   99.5  0.1079   22.9  0.5148  -52.8
 0.600  0.7584 -138.0   4.101   98.0  0.1085   22.0  0.5059  -53.5
 0.620  0.7568 -139.7   4.003   97.0  0.1088   21.4  0.4994  -53.9
 0.640  0.7559 -141.3   3.906   96.0  0.1090   20.8  0.4929  -54.3
 0.660  0.7555 -143.0   3.810   94.9  0.1093   20.2  0.4864  -54.8
 0.680  0.7558 -144.6   3.716   93.7  0.1096   19.6  0.4800  -55.2
 0.700  0.7568 -146.3   3.623   92.5  0.1099   19.0  0.4736  -55.7
 0.720  0.7547 -147.5   3.536   91.6  0.1100   18.5  0.4690  -56.2
 0.740  0.7530 -148.8   3.451   90.6  0.1102   18.0  0.4645  -56.7
 0.760  0.7516 -150.1   3.366   89.7  0.1103   17.5  0.4600  -57.2
 0.780  0.7506 -151.3   3.282   88.6  0.1104   17.0  0.4555  -57.7
 0.800  0.7500 -152.6   3.200   87.5  0.1106   16.5  0.4511  -58.2
 0.820  0.7492 -153.8   3.134   86.7  0.1106   16.1  0.4478  -58.6
 0.840  0.7488 -155.0   3.070   85.9  0.1105   15.7  0.4444  -59.0
 0.860  0.7487 -156.2   3.005   85.0  0.1105   15.4  0.4411  -59.4
 0.880  0.7489 -157.4   2.942   84.1  0.1105   15.0  0.4379  -59.9
 0.900  0.7495 -158.6   2.879   83.2  0.1105   14.6  0.4346  -60.3
 0.920  0.7487 -159.5   2.823   82.5  0.1104   14.3  0.4322  -60.8
 0.940  0.7480 -160.4   2.767   81.7  0.1102   14.0  0.4299  -61.2
 0.960  0.7475 -161.3   2.711   80.9  0.1101   13.6  0.4275  -61.7
 0.980  0.7472 -162.2   2.656   80.1  0.1100   13.3  0.4253  -62.2
 1.000  0.7471 -163.1   2.602   79.2  0.1099   13.0  0.4230  -62.7
 1.020  0.7479 -163.9   2.559   78.5  0.1098   12.7  0.4213  -63.1
 1.040  0.7489 -164.8   2.517   77.8  0.1097   12.5  0.4197  -63.5
 1.060  0.7500 -165.6   2.475   77.1  0.1097   12.2  0.4180  -63.8
 1.080  0.7513 -166.5   2.434   76.3  0.1096   12.0  0.4164  -64.2
 1.100  0.7527 -167.3   2.393   75.5  0.1095   11.7  0.4148  -64.6
 1.120  0.7527 -168.1   2.353   74.8  0.1093   11.5  0.4142  -65.1
 1.140  0.7528 -168.9   2.314   74.2  0.1091   11.3  0.4137  -65.5
 1.160  0.7530 -169.8   2.274   73.5  0.1088   11.0  0.4132  -66.0
 1.180  0.7534 -170.6   2.235   72.7  0.1086   10.8  0.4127  -66.4
 1.200  0.7540 -171.4   2.197   72.0  0.1084   10.6  0.4122  -66.9
 1.220  0.7540 -172.1   2.165   71.4  0.1082   10.5  0.4113  -67.4
 1.240  0.7542 -172.8   2.133   70.7  0.1080   10.4  0.4104  -67.8
 1.260  0.7545 -173.6   2.102   70.0  0.1077   10.4  0.4095  -68.3
 1.280  0.7549 -174.3   2.071   69.3  0.1075   10.3  0.4086  -68.7
 1.300  0.7554 -175.0   2.040   68.6  0.1073   10.2  0.4078  -69.2
 1.320  0.7554 -175.6   2.013   68.0  0.1070   10.1  0.4074  -69.7
 1.340  0.7554 -176.2   1.985   67.4  0.1068   10.0  0.4071  -70.1
 1.360  0.7555 -176.8   1.958   66.7  0.1065    9.9  0.4068  -70.6
 1.380  0.7557 -177.4   1.931   66.1  0.1063    9.8  0.4065  -71.0
 1.400  0.7560 -178.0   1.905   65.4  0.1060    9.7  0.4062  -71.5
 1.420  0.7565 -178.6   1.881   64.8  0.1056    9.7  0.4055  -72.0
 1.440  0.7571 -179.2   1.857   64.3  0.1052    9.8  0.4048  -72.5
 1.460  0.7578 -179.9   1.833   63.7  0.1048    9.8  0.4041  -73.1
 1.480  0.7585  179.5   1.809   63.1  0.1044    9.9  0.4035  -73.6
 1.500  0.7594  178.9   1.786   62.5  0.1040    9.9  0.4029  -74.1
 1.520  0.7597  178.3   1.766   61.9  0.1038    9.9  0.4031  -74.5
 1.540  0.7600  177.7   1.746   61.3  0.1036    9.9  0.4033  -74.8
 1.560  0.7604  177.1   1.726   60.6  0.1034   10.0  0.4035  -75.2
 1.580  0.7609  176.5   1.706   60.0  0.1032   10.0  0.4037  -75.5
 1.600  0.7615  175.9   1.687   59.3  0.1030   10.0  0.4039  -75.9
 1.620  0.7615  175.4   1.667   58.8  0.1026   10.0  0.4039  -76.5
 1.640  0.7615  174.8   1.647   58.3  0.1021   10.1  0.4040  -77.1
 1.660  0.7616  174.3   1.627   57.8  0.1017   10.1  0.4041  -77.6
 1.680  0.7618  173.7   1.608   57.3  0.1012   10.2  0.4043  -78.2
 1.700  0.7620  173.2   1.588   56.8  0.1008   10.2  0.4045  -78.8
 1.720  0.7625  172.7   1.571   56.2  0.1007   10.3  0.4043  -79.2
 1.740  0.7631  172.2   1.554   55.7  0.1006   10.5  0.4040  -79.7
 1.760  0.7638  171.6   1.537   55.1  0.1004   10.6  0.4038  -80.1
 1.780  0.7645  171.1   1.520   54.5  0.1003   10.8  0.4037  -80.6
 1.800  0.7653  170.6   1.503   53.9  0.1002   10.9  0.4035  -81.0
 1.820  0.7652  170.0   1.487   53.3  0.1000   11.0  0.4042  -81.4
 1.840  0.7652  169.5   1.471   52.8  0.0997   11.2  0.4050  -81.8
 1.860  0.7653  168.9   1.455   52.2  0.0995   11.3  0.4058  -82.3
 1.880  0.7655  168.4   1.439   51.6  0.0992   11.5  0.4066  -82.7
 1.900  0.7657  167.8   1.423   51.0  0.0990   11.6  0.4074  -83.1
 1.920  0.7659  167.3   1.409   50.5  0.0988   11.7  0.4081  -83.6
 1.940  0.7662  166.9   1.396   50.0  0.0985   11.8  0.4089  -84.1
 1.960  0.7665  166.4   1.382   49.5  0.0983   12.0  0.4097  -84.6
 1.980  0.7668  166.0   1.369   49.0  0.0980   12.1  0.4105  -85.1
 2.000  0.7672  165.5   1.356   48.5  0.0978   12.2  0.4114  -85.6
 2.020  0.7678  165.1   1.344   48.0  0.0976   12.4  0.4119  -86.1
 2.040  0.7684  164.6   1.332   47.6  0.0974   12.6  0.4123  -86.6
 2.060  0.7691  164.2   1.320   47.1  0.0972   12.8  0.4129  -87.1
 2.080  0.7698  163.7   1.309   46.6  0.0970   13.0  0.4134  -87.6
 2.100  0.7706  163.3   1.297   46.1  0.0968   13.2  0.4140  -88.1
 2.120  0.7714  162.8   1.286   45.6  0.0966   13.5  0.4146  -88.6
 2.140  0.7723  162.4   1.274   45.1  0.0965   13.7  0.4153  -89.1
 2.160  0.7732  162.0   1.263   44.6  0.0963   13.9  0.4159  -89.6
 2.180  0.7741  161.5   1.252   44.0  0.0961   14.1  0.4167  -90.1
 2.200  0.7751  161.1   1.241   43.5  0.0959   14.3  0.4174  -90.6
 2.220  0.7753  160.7   1.230   43.1  0.0958   14.6  0.4183  -91.1
 2.240  0.7755  160.2   1.219   42.6  0.0956   14.8  0.4193  -91.6
 2.260  0.7758  159.8   1.209   42.1  0.0955   15.1  0.4203  -92.1
 2.280  0.7761  159.4   1.198   41.7  0.0954   15.3  0.4213  -92.6
 2.300  0.7765  158.9   1.187   41.2  0.0952   15.6  0.4224  -93.1
 2.320  0.7769  158.5   1.177   40.7  0.0951   15.9  0.4235  -93.6
 2.340  0.7774  158.1   1.167   40.2  0.0950   16.1  0.4246  -94.1
 2.360  0.7779  157.7   1.156   39.7  0.0948   16.4  0.4257  -94.5
 2.380  0.7784  157.2   1.146   39.2  0.0947   16.6  0.4269  -95.0
 2.400  0.7790  156.8   1.136   38.7  0.0946   16.9  0.4281  -95.5
 2.420  0.7791  156.4   1.127   38.3  0.0946   17.2  0.4285  -96.0
 2.440  0.7793  155.9   1.119   37.8  0.0946   17.6  0.4290  -96.6
 2.460  0.7795  155.5   1.110   37.4  0.0946   17.9  0.4295  -97.1
 2.480  0.7798  155.1   1.102   36.9  0.0946   18.2  0.4300  -97.6
 2.500  0.7801  154.6   1.093   36.5  0.0946   18.5  0.4306  -98.1
 2.520  0.7804  154.2   1.085   36.0  0.0946   18.9  0.4312  -98.6
 2.540  0.7808  153.8   1.076   35.6  0.0946   19.2  0.4319  -99.2
 2.560  0.7812  153.4   1.068   35.1  0.0946   19.5  0.4325  -99.7
 2.580  0.7817  152.9   1.060   34.6  0.0946   19.9  0.4333 -100.2
 2.600  0.7822  152.5   1.052   34.1  0.0946   20.2  0.4340 -100.7
 2.620  0.7830  152.1   1.044   33.7  0.0947   20.5  0.4351 -101.2
 2.640  0.7838  151.7   1.037   33.3  0.0949   20.9  0.4363 -101.6
 2.660  0.7847  151.3   1.029   32.8  0.0950   21.2  0.4375 -102.1
 2.680  0.7856  150.9   1.022   32.4  0.0951   21.5  0.4387 -102.6
 2.700  0.7866  150.5   1.014   32.0  0.0953   21.9  0.4400 -103.0
 2.720  0.7876  150.1   1.007   31.5  0.0954   22.2  0.4413 -103.5
 2.740  0.7886  149.7   1.000   31.1  0.0955   22.5  0.4426 -103.9
 2.760  0.7897  149.3   0.992   30.6  0.0957   22.8  0.4439 -104.4
 2.780  0.7908  148.9   0.985   30.2  0.0958   23.2  0.4453 -104.9
 2.800  0.7919  148.5   0.978   29.7  0.0960   23.5  0.4467 -105.3
 2.820  0.7923  148.1   0.971   29.3  0.0962   23.8  0.4475 -105.8
 2.840  0.7928  147.7   0.964   28.9  0.0964   24.2  0.4484 -106.3
 2.860  0.7933  147.4   0.957   28.5  0.0966   24.5  0.4494 -106.9
 2.880  0.7939  147.0   0.950   28.1  0.0968   24.8  0.4503 -107.4
 2.900  0.7945  146.6   0.943   27.7  0.0970   25.2  0.4513 -107.9
 2.920  0.7951  146.2   0.936   27.3  0.0972   25.5  0.4523 -108.4
 2.940  0.7957  145.8   0.929   26.8  0.0974   25.8  0.4534 -108.9
 2.960  0.7964  145.5   0.922   26.4  0.0977   26.2  0.4545 -109.4
 2.980  0.7971  145.1   0.916   25.9  0.0979   26.5  0.4556 -109.9
 3.000  0.7979  144.7   0.909   25.5  0.0981   26.8  0.4568 -110.4
 3.100  0.7998  142.8   0.880   23.6  0.1001   28.5  0.4622 -112.9
 3.200  0.8025  141.0   0.852   21.6  0.1021   30.2  0.4685 -115.3
 3.300  0.8073  139.0   0.825   19.7  0.1046   31.6  0.4749 -117.9
 3.400  0.8130  137.1   0.799   17.7  0.1071   32.9  0.4823 -120.4
 3.500  0.8168  135.5   0.775   16.0  0.1100   34.1  0.4893 -122.9
 3.600  0.8213  133.9   0.752   14.1  0.1130   35.3  0.4971 -125.3
 3.700  0.8238  132.1   0.728   12.4  0.1160   36.3  0.5037 -127.9
 3.800  0.8270  130.4   0.704   10.6  0.1190   37.2  0.5113 -130.5
 3.900  0.8298  128.9   0.684    9.1  0.1230   37.9  0.5186 -133.0
 4.000  0.8332  127.4   0.664    7.6  0.1270   38.6  0.5268 -135.4
 4.100  0.8339  126.0   0.645    6.4  0.1312   39.0  0.5336 -137.9
 4.200  0.8350  124.6   0.627    5.1  0.1354   39.3  0.5414 -140.3
 4.300  0.8367  123.2   0.608    3.8  0.1396   39.6  0.5502 -142.7
 4.400  0.8388  121.8   0.590    2.3  0.1439   39.9  0.5599 -145.0
 4.500  0.8415  120.4   0.573    0.8  0.1481   40.2  0.5704 -147.2
 4.600  0.8416  119.2   0.558   -0.0  0.1528   40.1  0.5760 -149.5
 4.700  0.8421  118.1   0.543   -0.9  0.1575   40.1  0.5824 -151.7
 4.800  0.8430  116.9   0.528   -1.8  0.1621   40.0  0.5897 -153.8
 4.900  0.8442  115.8   0.513   -2.8  0.1668   40.0  0.5978 -156.0
 5.000  0.8457  114.6   0.498   -3.8  0.1715   39.9  0.6067 -158.0
 5.100  0.8455  113.7   0.486   -4.3  0.1763   39.5  0.6118 -159.9
 5.200  0.8456  112.8   0.473   -4.9  0.1811   39.1  0.6176 -161.7
 5.300  0.8458  112.0   0.461   -5.4  0.1859   38.8  0.6239 -163.5
 5.400  0.8463  111.1   0.448   -6.1  0.1907   38.4  0.6309 -165.3
 5.500  0.8469  110.2   0.436   -6.7  0.1955   38.1  0.6385 -167.0
 5.600  0.8466  109.2   0.429   -6.9  0.2005   37.6  0.6430 -168.6
 5.700  0.8465  108.3   0.421   -7.2  0.2054   37.1  0.6480 -170.2
 5.800  0.8467  107.3   0.414   -7.4  0.2104   36.7  0.6534 -171.8
 5.900  0.8471  106.4   0.406   -7.6  0.2154   36.2  0.6594 -173.3
 6.000  0.8478  105.4   0.399   -7.9  0.2204   35.8  0.6658 -174.8
!
!  f       NFmin   Gammaopt  rn/50
! GHz       dB    MAG  ANG    -
!
! noise parameter not available yet for this operation point!
!
! (c) 2016  Infineon Technologies AG, Munich
