! Infineon Technologies  Discrete & RF Semiconductors
! BFP181
! VCE = 1.0 V,  IC =  5.0 mA
! Common Emitter S-Parameters:                            Jan 2016
# GHz  S  MA  R  50
!  f         S11            S21            S12            S22
! GHz     MAG   ANG      MAG   ANG      MAG   ANG      MAG   ANG
 0.010  0.8377   -2.4  13.409  178.5  0.0016   83.9  0.9840   -0.9
 0.015  0.8399   -3.6  13.397  177.9  0.0025   86.4  0.9835   -1.4
 0.020  0.8425   -4.7  13.387  177.2  0.0035   87.5  0.9831   -1.9
 0.025  0.8407   -5.8  13.370  176.3  0.0043   87.4  0.9821   -2.4
 0.030  0.8391   -6.8  13.356  175.4  0.0052   87.3  0.9811   -2.9
 0.035  0.8379   -7.9  13.346  174.5  0.0060   87.2  0.9802   -3.3
 0.040  0.8369   -9.0  13.338  173.6  0.0069   87.2  0.9794   -3.8
 0.045  0.8363  -10.0  13.335  172.7  0.0077   87.1  0.9787   -4.3
 0.050  0.8359  -11.1  13.334  171.8  0.0086   87.1  0.9780   -4.8
 0.055  0.8322  -12.2  13.285  171.0  0.0093   85.4  0.9762   -5.3
 0.060  0.8287  -13.3  13.238  170.2  0.0100   84.0  0.9744   -5.7
 0.065  0.8256  -14.4  13.194  169.5  0.0108   82.7  0.9728   -6.2
 0.070  0.8228  -15.5  13.152  168.7  0.0115   81.6  0.9711   -6.6
 0.075  0.8203  -16.6  13.112  167.9  0.0123   80.7  0.9696   -7.1
 0.080  0.8181  -17.7  13.076  167.1  0.0130   79.8  0.9681   -7.5
 0.085  0.8163  -18.9  13.042  166.2  0.0137   79.0  0.9666   -8.0
 0.090  0.8147  -20.0  13.010  165.4  0.0145   78.4  0.9653   -8.5
 0.095  0.8135  -21.2  12.981  164.6  0.0152   77.8  0.9639   -8.9
 0.100  0.8126  -22.3  12.955  163.8  0.0160   77.2  0.9627   -9.4
 0.105  0.8090  -23.4  12.902  163.1  0.0167   76.4  0.9596   -9.8
 0.110  0.8056  -24.4  12.852  162.3  0.0175   75.7  0.9565  -10.2
 0.115  0.8025  -25.5  12.804  161.5  0.0182   75.0  0.9535  -10.6
 0.120  0.7997  -26.6  12.757  160.8  0.0190   74.4  0.9505  -11.0
 0.125  0.7972  -27.7  12.714  160.0  0.0197   73.9  0.9476  -11.5
 0.130  0.7950  -28.8  12.672  159.2  0.0205   73.3  0.9447  -11.9
 0.135  0.7931  -29.9  12.633  158.5  0.0212   72.9  0.9419  -12.3
 0.140  0.7915  -31.0  12.596  157.7  0.0220   72.4  0.9392  -12.7
 0.145  0.7901  -32.1  12.562  156.9  0.0227   72.0  0.9365  -13.2
 0.150  0.7891  -33.2  12.530  156.1  0.0235   71.6  0.9338  -13.6
 0.155  0.7847  -34.2  12.476  155.4  0.0242   71.2  0.9305  -14.0
 0.160  0.7806  -35.2  12.424  154.7  0.0248   70.7  0.9273  -14.3
 0.165  0.7766  -36.2  12.374  154.0  0.0255   70.3  0.9241  -14.7
 0.170  0.7730  -37.3  12.325  153.2  0.0262   69.9  0.9210  -15.1
 0.175  0.7696  -38.3  12.279  152.5  0.0268   69.6  0.9179  -15.5
 0.180  0.7664  -39.3  12.235  151.8  0.0275   69.2  0.9148  -15.8
 0.185  0.7635  -40.4  12.192  151.0  0.0282   68.9  0.9118  -16.2
 0.190  0.7609  -41.5  12.152  150.3  0.0289   68.6  0.9088  -16.6
 0.195  0.7585  -42.5  12.114  149.6  0.0295   68.3  0.9059  -17.0
 0.200  0.7564  -43.6  12.078  148.8  0.0302   68.0  0.9030  -17.4
 0.220  0.7426  -47.3  11.792  146.2  0.0323   65.6  0.8879  -18.8
 0.240  0.7320  -51.1  11.531  143.5  0.0344   63.5  0.8734  -20.2
 0.260  0.7198  -54.8  11.279  141.0  0.0366   61.7  0.8589  -21.4
 0.280  0.7054  -58.2  11.029  138.9  0.0387   60.1  0.8443  -22.5
 0.300  0.6936  -61.8  10.795  136.6  0.0409   58.7  0.8300  -23.6
 0.320  0.6763  -64.8  10.518  134.6  0.0424   57.4  0.8163  -24.4
 0.340  0.6609  -68.0  10.255  132.5  0.0439   56.2  0.8028  -25.2
 0.360  0.6476  -71.3  10.006  130.3  0.0455   55.1  0.7894  -26.0
 0.380  0.6365  -74.7   9.772  128.0  0.0470   54.1  0.7762  -26.9
 0.400  0.6278  -78.2   9.555  125.6  0.0486   53.1  0.7632  -27.8
 0.420  0.6130  -80.9   9.308  124.0  0.0497   52.0  0.7512  -28.4
 0.440  0.5996  -83.7   9.068  122.4  0.0508   51.0  0.7393  -29.0
 0.450  0.5935  -85.1   8.951  121.5  0.0513   50.5  0.7334  -29.3
 0.460  0.5878  -86.6   8.836  120.6  0.0519   50.0  0.7275  -29.6
 0.480  0.5775  -89.7   8.613  118.7  0.0530   49.0  0.7158  -30.2
 0.500  0.5689  -92.8   8.400  116.8  0.0541   48.1  0.7042  -30.9
 0.520  0.5586  -95.2   8.212  115.5  0.0549   47.5  0.6945  -31.3
 0.540  0.5494  -97.8   8.029  114.1  0.0558   46.8  0.6849  -31.7
 0.560  0.5413 -100.4   7.850  112.7  0.0567   46.2  0.6752  -32.1
 0.580  0.5344 -103.1   7.677  111.2  0.0575   45.7  0.6657  -32.5
 0.600  0.5286 -105.8   7.509  109.6  0.0584   45.1  0.6561  -32.9
 0.620  0.5202 -107.9   7.333  108.5  0.0591   44.6  0.6487  -33.2
 0.640  0.5125 -110.0   7.160  107.4  0.0598   44.1  0.6413  -33.4
 0.660  0.5056 -112.2   6.990  106.2  0.0605   43.7  0.6339  -33.7
 0.680  0.4994 -114.5   6.823  104.9  0.0613   43.2  0.6265  -34.0
 0.700  0.4940 -116.8   6.660  103.6  0.0620   42.8  0.6191  -34.3
 0.720  0.4870 -118.8   6.533  102.6  0.0626   42.4  0.6134  -34.5
 0.740  0.4807 -120.9   6.408  101.5  0.0632   42.1  0.6077  -34.7
 0.760  0.4750 -123.1   6.286  100.4  0.0638   41.8  0.6020  -34.9
 0.780  0.4700 -125.3   6.166   99.3  0.0644   41.4  0.5963  -35.2
 0.800  0.4657 -127.5   6.048   98.1  0.0650   41.1  0.5906  -35.4
 0.820  0.4615 -129.1   5.936   97.2  0.0657   40.8  0.5860  -35.6
 0.840  0.4577 -130.8   5.825   96.3  0.0664   40.6  0.5814  -35.8
 0.860  0.4543 -132.5   5.715   95.4  0.0670   40.3  0.5768  -36.0
 0.880  0.4514 -134.3   5.607   94.4  0.0677   40.0  0.5722  -36.2
 0.900  0.4488 -136.0   5.501   93.4  0.0684   39.8  0.5676  -36.4
 0.920  0.4451 -137.9   5.400   92.5  0.0688   39.6  0.5636  -36.6
 0.940  0.4420 -139.8   5.301   91.7  0.0692   39.5  0.5597  -36.8
 0.960  0.4393 -141.7   5.203   90.7  0.0695   39.3  0.5557  -36.9
 0.980  0.4371 -143.6   5.106   89.8  0.0699   39.2  0.5517  -37.1
 1.000  0.4354 -145.6   5.011   88.8  0.0703   39.0  0.5478  -37.3
 1.020  0.4326 -147.3   4.934   88.0  0.0709   38.9  0.5446  -37.5
 1.040  0.4301 -149.1   4.858   87.2  0.0716   38.8  0.5413  -37.6
 1.060  0.4281 -150.9   4.783   86.4  0.0722   38.8  0.5381  -37.8
 1.080  0.4265 -152.7   4.709   85.5  0.0729   38.7  0.5348  -37.9
 1.100  0.4253 -154.5   4.636   84.6  0.0735   38.6  0.5316  -38.1
 1.120  0.4229 -155.9   4.563   83.9  0.0739   38.4  0.5291  -38.3
 1.140  0.4208 -157.4   4.491   83.3  0.0743   38.2  0.5265  -38.5
 1.160  0.4190 -158.8   4.419   82.6  0.0748   38.0  0.5240  -38.6
 1.180  0.4174 -160.3   4.348   81.8  0.0752   37.8  0.5215  -38.8
 1.200  0.4161 -161.8   4.278   81.1  0.0756   37.6  0.5190  -39.0
 1.220  0.4163 -163.1   4.215   80.4  0.0761   37.6  0.5170  -39.2
 1.240  0.4168 -164.5   4.153   79.7  0.0766   37.5  0.5149  -39.4
 1.260  0.4175 -165.8   4.091   79.0  0.0771   37.5  0.5129  -39.6
 1.280  0.4184 -167.1   4.030   78.3  0.0776   37.4  0.5109  -39.8
 1.300  0.4195 -168.4   3.970   77.5  0.0781   37.4  0.5089  -40.0
 1.320  0.4170 -169.7   3.919   76.9  0.0786   37.4  0.5070  -40.2
 1.340  0.4147 -171.1   3.869   76.3  0.0791   37.4  0.5050  -40.4
 1.360  0.4127 -172.4   3.819   75.6  0.0795   37.3  0.5031  -40.6
 1.380  0.4109 -173.8   3.769   75.0  0.0800   37.3  0.5012  -40.8
 1.400  0.4093 -175.2   3.720   74.3  0.0805   37.3  0.4993  -41.0
 1.420  0.4098 -176.3   3.675   73.6  0.0810   37.2  0.4977  -41.2
 1.440  0.4105 -177.5   3.630   72.9  0.0815   37.2  0.4961  -41.4
 1.460  0.4113 -178.6   3.586   72.2  0.0819   37.1  0.4945  -41.5
 1.480  0.4123 -179.8   3.542   71.5  0.0824   37.1  0.4929  -41.7
 1.500  0.4135  179.1   3.499   70.7  0.0829   37.0  0.4913  -41.9
 1.520  0.4131  177.9   3.456   70.1  0.0835   37.0  0.4902  -42.1
 1.540  0.4129  176.7   3.414   69.6  0.0840   37.0  0.4891  -42.3
 1.560  0.4128  175.6   3.371   69.0  0.0846   37.0  0.4880  -42.5
 1.580  0.4129  174.4   3.329   68.4  0.0851   37.0  0.4870  -42.7
 1.600  0.4132  173.2   3.288   67.8  0.0857   37.0  0.4859  -42.9
 1.620  0.4137  172.1   3.249   67.2  0.0863   36.9  0.4846  -43.1
 1.640  0.4144  171.0   3.210   66.6  0.0868   36.9  0.4833  -43.4
 1.660  0.4153  169.9   3.172   66.0  0.0874   36.8  0.4820  -43.6
 1.680  0.4163  168.9   3.134   65.4  0.0879   36.8  0.4807  -43.9
 1.700  0.4174  167.8   3.096   64.7  0.0885   36.7  0.4794  -44.1
 1.720  0.4182  166.6   3.064   64.1  0.0889   36.7  0.4782  -44.3
 1.740  0.4192  165.4   3.032   63.5  0.0893   36.6  0.4771  -44.6
 1.760  0.4204  164.2   3.001   62.8  0.0898   36.6  0.4759  -44.8
 1.780  0.4218  163.1   2.970   62.2  0.0902   36.5  0.4747  -45.1
 1.800  0.4233  161.9   2.939   61.5  0.0906   36.5  0.4736  -45.3
 1.820  0.4241  161.0   2.909   61.0  0.0911   36.4  0.4723  -45.5
 1.840  0.4250  160.2   2.879   60.5  0.0916   36.3  0.4711  -45.8
 1.860  0.4260  159.3   2.850   59.9  0.0922   36.1  0.4699  -46.0
 1.880  0.4270  158.5   2.821   59.4  0.0927   36.0  0.4686  -46.3
 1.900  0.4282  157.6   2.792   58.8  0.0932   35.9  0.4674  -46.5
 1.920  0.4285  156.7   2.762   58.3  0.0938   35.9  0.4665  -46.8
 1.940  0.4290  155.7   2.731   57.8  0.0943   35.9  0.4656  -47.0
 1.960  0.4295  154.8   2.701   57.2  0.0949   35.9  0.4647  -47.3
 1.980  0.4302  153.8   2.672   56.7  0.0954   35.9  0.4638  -47.5
 2.000  0.4310  152.9   2.642   56.1  0.0960   35.9  0.4629  -47.8
 2.020  0.4321  152.1   2.618   55.6  0.0965   35.8  0.4619  -48.1
 2.040  0.4332  151.2   2.595   55.1  0.0970   35.7  0.4610  -48.4
 2.060  0.4344  150.4   2.572   54.6  0.0976   35.7  0.4600  -48.7
 2.080  0.4358  149.6   2.549   54.1  0.0981   35.6  0.4591  -48.9
 2.100  0.4372  148.7   2.526   53.5  0.0986   35.5  0.4582  -49.2
 2.120  0.4387  147.9   2.504   53.0  0.0991   35.4  0.4572  -49.5
 2.140  0.4403  147.1   2.481   52.4  0.0996   35.3  0.4563  -49.8
 2.160  0.4420  146.3   2.459   51.9  0.1002   35.3  0.4554  -50.1
 2.180  0.4437  145.5   2.438   51.3  0.1007   35.2  0.4546  -50.4
 2.200  0.4456  144.7   2.416   50.7  0.1012   35.1  0.4537  -50.7
 2.220  0.4467  143.8   2.396   50.2  0.1017   35.0  0.4528  -51.0
 2.240  0.4480  143.0   2.375   49.7  0.1022   35.0  0.4520  -51.3
 2.260  0.4493  142.2   2.355   49.3  0.1027   34.9  0.4511  -51.6
 2.280  0.4507  141.3   2.335   48.8  0.1032   34.9  0.4503  -51.9
 2.300  0.4522  140.5   2.315   48.3  0.1037   34.8  0.4494  -52.2
 2.320  0.4538  139.7   2.296   47.7  0.1043   34.7  0.4486  -52.5
 2.340  0.4555  138.8   2.276   47.2  0.1048   34.7  0.4478  -52.8
 2.360  0.4573  138.0   2.257   46.7  0.1053   34.6  0.4470  -53.1
 2.380  0.4592  137.2   2.238   46.1  0.1058   34.6  0.4463  -53.4
 2.400  0.4612  136.4   2.219   45.6  0.1063   34.5  0.4455  -53.7
 2.420  0.4630  135.7   2.201   45.2  0.1068   34.4  0.4445  -54.0
 2.440  0.4648  135.1   2.183   44.7  0.1074   34.3  0.4435  -54.3
 2.460  0.4668  134.4   2.166   44.2  0.1079   34.3  0.4425  -54.6
 2.480  0.4687  133.7   2.148   43.8  0.1085   34.2  0.4416  -54.9
 2.500  0.4708  133.1   2.131   43.3  0.1090   34.1  0.4406  -55.2
 2.520  0.4729  132.4   2.113   42.8  0.1095   34.0  0.4397  -55.5
 2.540  0.4751  131.8   2.096   42.3  0.1101   33.9  0.4388  -55.9
 2.560  0.4773  131.2   2.079   41.8  0.1106   33.9  0.4379  -56.2
 2.580  0.4796  130.5   2.063   41.3  0.1112   33.8  0.4370  -56.5
 2.600  0.4819  129.9   2.046   40.8  0.1117   33.7  0.4361  -56.8
 2.620  0.4836  129.2   2.031   40.3  0.1122   33.6  0.4354  -57.1
 2.640  0.4854  128.6   2.015   39.8  0.1127   33.5  0.4347  -57.5
 2.660  0.4872  128.0   2.000   39.3  0.1131   33.4  0.4340  -57.8
 2.680  0.4891  127.3   1.985   38.8  0.1136   33.3  0.4333  -58.2
 2.700  0.4911  126.7   1.970   38.3  0.1141   33.2  0.4326  -58.5
 2.720  0.4931  126.1   1.956   37.8  0.1146   33.2  0.4320  -58.9
 2.740  0.4951  125.4   1.941   37.2  0.1151   33.1  0.4314  -59.2
 2.760  0.4973  124.8   1.927   36.7  0.1155   33.0  0.4308  -59.6
 2.780  0.4995  124.2   1.913   36.2  0.1160   32.9  0.4302  -59.9
 2.800  0.5017  123.6   1.899   35.6  0.1165   32.8  0.4296  -60.3
 2.820  0.5031  123.0   1.886   35.2  0.1170   32.7  0.4286  -60.6
 2.840  0.5047  122.3   1.874   34.7  0.1175   32.6  0.4276  -61.0
 2.860  0.5062  121.7   1.861   34.3  0.1180   32.5  0.4266  -61.3
 2.880  0.5078  121.1   1.848   33.9  0.1185   32.3  0.4256  -61.7
 2.900  0.5095  120.5   1.836   33.4  0.1190   32.2  0.4247  -62.0
 2.920  0.5113  119.9   1.824   33.0  0.1196   32.1  0.4237  -62.4
 2.940  0.5131  119.3   1.812   32.5  0.1201   32.0  0.4228  -62.7
 2.960  0.5149  118.7   1.800   32.0  0.1206   31.9  0.4219  -63.1
 2.980  0.5168  118.1   1.788   31.6  0.1211   31.8  0.4210  -63.4
 3.000  0.5188  117.5   1.776   31.1  0.1216   31.7  0.4201  -63.8
 3.100  0.5264  114.9   1.717   29.2  0.1243   31.2  0.4165  -65.7
 3.200  0.5350  112.4   1.661   27.1  0.1269   30.6  0.4133  -67.7
 3.300  0.5446  109.9   1.606   24.9  0.1296   30.1  0.4107  -69.7
 3.400  0.5552  107.6   1.554   22.6  0.1323   29.7  0.4085  -71.7
 3.500  0.5667  105.3   1.505   20.1  0.1350   29.2  0.4069  -73.7
 3.600  0.5743  103.3   1.462   18.3  0.1375   28.5  0.4032  -75.8
 3.700  0.5825  101.3   1.421   16.4  0.1399   27.9  0.4000  -78.0
 3.800  0.5915   99.4   1.381   14.3  0.1424   27.2  0.3974  -80.2
 3.900  0.6011   97.5   1.343   12.2  0.1450   26.6  0.3955  -82.4
 4.000  0.6113   95.7   1.307    9.9  0.1475   26.0  0.3941  -84.7
 4.100  0.6174   94.0   1.271    8.2  0.1497   25.3  0.3913  -87.1
 4.200  0.6241   92.3   1.236    6.4  0.1520   24.7  0.3892  -89.4
 4.300  0.6314   90.6   1.203    4.5  0.1543   24.0  0.3878  -91.9
 4.400  0.6391   89.0   1.171    2.4  0.1566   23.4  0.3870  -94.3
 4.500  0.6474   87.4   1.140    0.3  0.1589   22.8  0.3870  -96.7
 4.600  0.6525   86.0   1.112   -1.2  0.1611   22.2  0.3854  -99.0
 4.700  0.6580   84.6   1.085   -2.8  0.1633   21.6  0.3844 -101.4
 4.800  0.6638   83.3   1.059   -4.4  0.1656   21.0  0.3841 -103.8
 4.900  0.6700   82.0   1.034   -6.2  0.1678   20.4  0.3845 -106.1
 5.000  0.6766   80.7   1.010   -8.0  0.1701   19.9  0.3855 -108.5
 5.100  0.6805   79.5   0.987   -9.5  0.1728   19.2  0.3865 -111.0
 5.200  0.6847   78.4   0.965  -11.1  0.1754   18.6  0.3882 -113.4
 5.300  0.6892   77.2   0.943  -12.8  0.1781   17.9  0.3906 -115.8
 5.400  0.6940   76.1   0.923  -14.5  0.1809   17.3  0.3937 -118.2
 5.500  0.6990   75.0   0.903  -16.3  0.1836   16.7  0.3975 -120.5
 5.600  0.7043   73.9   0.884  -17.7  0.1859   15.9  0.3995 -122.9
 5.700  0.7099   72.8   0.865  -19.1  0.1883   15.2  0.4023 -125.3
 5.800  0.7157   71.8   0.847  -20.7  0.1906   14.4  0.4057 -127.7
 5.900  0.7218   70.7   0.830  -22.3  0.1931   13.7  0.4098 -130.0
 6.000  0.7281   69.7   0.813  -23.9  0.1955   13.0  0.4146 -132.3
!
!  f       NFmin   Gammaopt  rn/50
! GHz       dB    MAG  ANG    -
!
! noise parameter not available yet for this operation point!
!
! (c) 2016  Infineon Technologies AG, Munich
