! Infineon Technologies  Discrete & RF Semiconductors
! BFP183
! VCE = 1.0 V,  IC =  8.0 mA
! Common Emitter S-Parameters:                            Jan 2016
# GHz  S  MA  R  50
!  f         S11            S21            S12            S22
! GHz     MAG   ANG      MAG   ANG      MAG   ANG      MAG   ANG
 0.010  0.7060   -5.1  21.281  177.3  0.0025   82.3  0.9838   -2.2
 0.015  0.7059   -7.6  21.315  176.0  0.0037   83.8  0.9815   -3.3
 0.020  0.7072  -10.1  21.359  174.8  0.0050   84.6  0.9795   -4.5
 0.025  0.7021  -12.5  21.271  173.3  0.0063   82.8  0.9753   -5.6
 0.030  0.6984  -15.0  21.197  171.8  0.0076   81.7  0.9715   -6.7
 0.035  0.6959  -17.5  21.138  170.3  0.0089   80.9  0.9680   -7.8
 0.040  0.6948  -20.0  21.093  168.8  0.0103   80.2  0.9649   -8.9
 0.045  0.6950  -22.5  21.063  167.3  0.0116   79.8  0.9621  -10.0
 0.050  0.6965  -25.0  21.047  165.8  0.0129   79.4  0.9597  -11.1
 0.055  0.6902  -27.2  20.840  164.6  0.0139   77.4  0.9521  -12.0
 0.060  0.6848  -29.3  20.642  163.4  0.0150   75.7  0.9448  -13.0
 0.065  0.6805  -31.6  20.453  162.2  0.0161   74.2  0.9378  -14.0
 0.070  0.6772  -33.8  20.274  160.9  0.0172   72.9  0.9311  -14.9
 0.075  0.6749  -36.1  20.106  159.6  0.0183   71.7  0.9246  -15.9
 0.080  0.6737  -38.3  19.947  158.3  0.0194   70.7  0.9184  -16.9
 0.085  0.6736  -40.6  19.799  157.0  0.0205   69.8  0.9125  -18.0
 0.090  0.6745  -42.9  19.662  155.6  0.0216   69.0  0.9068  -19.0
 0.095  0.6765  -45.2  19.535  154.3  0.0227   68.3  0.9015  -20.0
 0.100  0.6795  -47.4  19.420  152.9  0.0238   67.6  0.8965  -21.1
 0.105  0.6737  -49.4  19.219  151.9  0.0246   66.6  0.8881  -21.9
 0.110  0.6687  -51.4  19.024  150.8  0.0255   65.6  0.8799  -22.6
 0.115  0.6645  -53.4  18.836  149.7  0.0263   64.7  0.8719  -23.4
 0.120  0.6612  -55.5  18.654  148.6  0.0271   63.8  0.8640  -24.2
 0.125  0.6588  -57.6  18.480  147.5  0.0280   63.0  0.8563  -25.0
 0.130  0.6573  -59.7  18.314  146.3  0.0288   62.2  0.8488  -25.8
 0.135  0.6566  -61.8  18.154  145.1  0.0297   61.5  0.8414  -26.7
 0.140  0.6568  -63.9  18.003  143.9  0.0306   60.8  0.8343  -27.5
 0.145  0.6579  -66.0  17.859  142.7  0.0314   60.2  0.8273  -28.4
 0.150  0.6599  -68.1  17.724  141.5  0.0323   59.6  0.8205  -29.3
 0.155  0.6553  -69.8  17.523  140.7  0.0329   58.9  0.8121  -29.9
 0.160  0.6512  -71.6  17.327  139.8  0.0335   58.2  0.8038  -30.5
 0.165  0.6478  -73.3  17.134  138.9  0.0341   57.5  0.7955  -31.1
 0.170  0.6450  -75.1  16.946  138.0  0.0346   56.9  0.7874  -31.7
 0.175  0.6428  -76.9  16.762  137.1  0.0352   56.2  0.7793  -32.3
 0.180  0.6413  -78.7  16.582  136.1  0.0359   55.6  0.7714  -32.9
 0.185  0.6403  -80.5  16.407  135.1  0.0365   55.0  0.7635  -33.6
 0.190  0.6401  -82.3  16.237  134.1  0.0371   54.5  0.7557  -34.2
 0.195  0.6404  -84.1  16.072  133.1  0.0377   53.9  0.7481  -34.9
 0.200  0.6414  -85.9  15.912  132.1  0.0383   53.4  0.7405  -35.6
 0.220  0.6309  -91.2  15.162  129.3  0.0401   51.2  0.7124  -37.4
 0.240  0.6260  -96.6  14.452  126.2  0.0420   49.1  0.6851  -39.3
 0.260  0.6218 -101.7  13.815  123.5  0.0437   47.4  0.6589  -40.9
 0.280  0.6175 -106.5  13.235  121.0  0.0452   45.9  0.6334  -42.1
 0.300  0.6176 -111.3  12.682  118.4  0.0468   44.5  0.6082  -43.4
 0.320  0.6094 -114.9  12.183  116.7  0.0477   43.5  0.5889  -44.2
 0.340  0.6038 -118.7  11.696  114.8  0.0486   42.6  0.5697  -45.1
 0.360  0.6007 -122.4  11.222  112.7  0.0496   41.7  0.5506  -46.0
 0.380  0.6003 -126.2  10.764  110.5  0.0505   40.8  0.5317  -46.9
 0.400  0.6025 -130.0  10.324  108.1  0.0515   40.0  0.5130  -48.0
 0.420  0.5987 -132.6   9.958  106.8  0.0522   39.4  0.4999  -48.4
 0.440  0.5963 -135.2   9.597  105.5  0.0528   38.8  0.4869  -48.9
 0.450  0.5955 -136.6   9.418  104.8  0.0532   38.5  0.4804  -49.2
 0.460  0.5950 -137.9   9.241  104.1  0.0535   38.2  0.4739  -49.4
 0.480  0.5951 -140.5   8.892  102.5  0.0542   37.7  0.4609  -49.9
 0.500  0.5964 -143.2   8.550  100.8  0.0549   37.1  0.4480  -50.5
 0.520  0.5943 -145.3   8.306   99.7  0.0555   36.9  0.4391  -50.8
 0.540  0.5930 -147.4   8.064   98.6  0.0562   36.6  0.4302  -51.0
 0.560  0.5926 -149.5   7.826   97.4  0.0568   36.4  0.4214  -51.3
 0.580  0.5929 -151.6   7.592   96.1  0.0575   36.2  0.4125  -51.6
 0.600  0.5940 -153.7   7.361   94.8  0.0581   36.0  0.4037  -51.9
 0.620  0.5912 -155.4   7.157   93.9  0.0585   35.9  0.3971  -52.1
 0.640  0.5889 -157.1   6.955   93.0  0.0589   35.8  0.3905  -52.2
 0.660  0.5871 -158.9   6.755   92.0  0.0594   35.7  0.3839  -52.4
 0.680  0.5859 -160.6   6.557   90.9  0.0598   35.6  0.3773  -52.6
 0.700  0.5853 -162.4   6.361   89.8  0.0602   35.5  0.3707  -52.8
 0.720  0.5850 -163.8   6.218   89.0  0.0607   35.5  0.3659  -53.0
 0.740  0.5851 -165.2   6.077   88.1  0.0612   35.5  0.3612  -53.1
 0.760  0.5856 -166.7   5.937   87.2  0.0616   35.4  0.3564  -53.3
 0.780  0.5864 -168.1   5.799   86.2  0.0621   35.4  0.3517  -53.4
 0.800  0.5876 -169.5   5.662   85.2  0.0626   35.4  0.3469  -53.6
 0.820  0.5876 -170.8   5.544   84.5  0.0632   35.5  0.3430  -53.8
 0.840  0.5879 -172.1   5.426   83.8  0.0638   35.5  0.3392  -53.9
 0.860  0.5885 -173.3   5.310   83.0  0.0643   35.6  0.3353  -54.1
 0.880  0.5894 -174.6   5.194   82.2  0.0649   35.6  0.3315  -54.2
 0.900  0.5906 -175.9   5.080   81.4  0.0655   35.7  0.3276  -54.4
 0.920  0.5898 -177.2   4.976   80.7  0.0659   35.8  0.3247  -54.6
 0.940  0.5893 -178.4   4.874   79.9  0.0664   35.8  0.3217  -54.8
 0.960  0.5891 -179.7   4.772   79.2  0.0668   35.9  0.3188  -55.0
 0.980  0.5891  179.1   4.671   78.3  0.0673   35.9  0.3159  -55.2
 1.000  0.5895  177.8   4.571   77.5  0.0677   36.0  0.3130  -55.4
 1.020  0.5897  176.8   4.493   76.8  0.0682   36.0  0.3108  -55.6
 1.040  0.5901  175.9   4.415   76.1  0.0688   36.1  0.3086  -55.8
 1.060  0.5906  174.9   4.339   75.4  0.0693   36.1  0.3064  -56.0
 1.080  0.5913  174.0   4.262   74.7  0.0699   36.2  0.3042  -56.2
 1.100  0.5922  173.0   4.187   73.9  0.0704   36.2  0.3020  -56.4
 1.120  0.5923  172.0   4.117   73.3  0.0709   36.2  0.3005  -56.6
 1.140  0.5926  171.0   4.047   72.8  0.0715   36.2  0.2989  -56.8
 1.160  0.5931  170.1   3.977   72.2  0.0720   36.3  0.2974  -57.0
 1.180  0.5937  169.1   3.908   71.5  0.0726   36.3  0.2959  -57.2
 1.200  0.5945  168.1   3.840   70.9  0.0731   36.3  0.2944  -57.4
 1.220  0.5952  167.3   3.780   70.3  0.0736   36.4  0.2929  -57.6
 1.240  0.5960  166.6   3.721   69.6  0.0742   36.4  0.2915  -57.9
 1.260  0.5969  165.8   3.662   69.0  0.0747   36.5  0.2901  -58.1
 1.280  0.5979  165.1   3.604   68.3  0.0753   36.5  0.2886  -58.4
 1.300  0.5990  164.3   3.546   67.6  0.0758   36.6  0.2872  -58.6
 1.320  0.5997  163.4   3.499   67.1  0.0764   36.7  0.2860  -58.9
 1.340  0.6006  162.5   3.451   66.5  0.0769   36.7  0.2849  -59.1
 1.360  0.6017  161.6   3.405   65.9  0.0775   36.8  0.2838  -59.4
 1.380  0.6029  160.7   3.358   65.3  0.0780   36.8  0.2826  -59.6
 1.400  0.6042  159.8   3.312   64.7  0.0786   36.9  0.2815  -59.9
 1.420  0.6051  159.1   3.267   64.1  0.0792   37.0  0.2803  -60.2
 1.440  0.6061  158.4   3.222   63.4  0.0798   37.0  0.2791  -60.4
 1.460  0.6072  157.6   3.178   62.8  0.0805   37.1  0.2779  -60.7
 1.480  0.6083  156.9   3.134   62.1  0.0811   37.1  0.2767  -60.9
 1.500  0.6096  156.2   3.091   61.4  0.0817   37.2  0.2755  -61.2
 1.520  0.6103  155.3   3.054   60.9  0.0823   37.2  0.2748  -61.5
 1.540  0.6112  154.5   3.018   60.3  0.0829   37.2  0.2741  -61.8
 1.560  0.6122  153.6   2.982   59.8  0.0834   37.3  0.2734  -62.1
 1.580  0.6133  152.8   2.946   59.2  0.0840   37.3  0.2728  -62.4
 1.600  0.6146  151.9   2.910   58.6  0.0846   37.3  0.2721  -62.7
 1.620  0.6149  151.2   2.873   58.1  0.0851   37.3  0.2710  -63.1
 1.640  0.6152  150.5   2.837   57.5  0.0857   37.3  0.2699  -63.5
 1.660  0.6156  149.8   2.801   57.0  0.0862   37.4  0.2688  -63.8
 1.680  0.6162  149.1   2.765   56.4  0.0868   37.4  0.2678  -64.2
 1.700  0.6168  148.4   2.730   55.8  0.0873   37.4  0.2667  -64.6
 1.720  0.6179  147.7   2.699   55.3  0.0879   37.4  0.2660  -65.0
 1.740  0.6190  147.1   2.667   54.7  0.0886   37.5  0.2653  -65.3
 1.760  0.6202  146.4   2.636   54.2  0.0892   37.5  0.2646  -65.7
 1.780  0.6215  145.8   2.605   53.6  0.0899   37.6  0.2639  -66.0
 1.800  0.6229  145.1   2.575   53.0  0.0905   37.6  0.2632  -66.4
 1.820  0.6237  144.4   2.547   52.5  0.0911   37.5  0.2625  -66.8
 1.840  0.6247  143.7   2.520   52.0  0.0917   37.4  0.2619  -67.1
 1.860  0.6257  143.1   2.493   51.4  0.0924   37.4  0.2612  -67.5
 1.880  0.6268  142.4   2.466   50.9  0.0930   37.3  0.2606  -67.8
 1.900  0.6280  141.7   2.439   50.3  0.0936   37.2  0.2600  -68.2
 1.920  0.6289  141.0   2.412   49.8  0.0942   37.2  0.2597  -68.6
 1.940  0.6298  140.4   2.385   49.3  0.0948   37.2  0.2593  -69.0
 1.960  0.6309  139.7   2.359   48.8  0.0955   37.2  0.2590  -69.3
 1.980  0.6320  139.1   2.332   48.3  0.0961   37.2  0.2587  -69.7
 2.000  0.6332  138.4   2.306   47.8  0.0967   37.2  0.2584  -70.1
 2.020  0.6340  137.8   2.285   47.3  0.0973   37.2  0.2577  -70.5
 2.040  0.6349  137.2   2.263   46.8  0.0978   37.1  0.2571  -71.0
 2.060  0.6358  136.6   2.242   46.3  0.0984   37.1  0.2565  -71.4
 2.080  0.6369  136.1   2.222   45.8  0.0990   37.0  0.2559  -71.9
 2.100  0.6379  135.5   2.201   45.2  0.0995   37.0  0.2553  -72.3
 2.120  0.6391  134.9   2.181   44.7  0.1001   37.0  0.2547  -72.8
 2.140  0.6403  134.3   2.160   44.1  0.1007   36.9  0.2542  -73.2
 2.160  0.6416  133.7   2.140   43.6  0.1013   36.9  0.2536  -73.7
 2.180  0.6429  133.2   2.121   43.0  0.1018   36.8  0.2531  -74.1
 2.200  0.6443  132.6   2.101   42.4  0.1024   36.8  0.2526  -74.6
 2.220  0.6454  132.0   2.083   42.0  0.1031   36.7  0.2521  -75.1
 2.240  0.6465  131.4   2.065   41.5  0.1037   36.7  0.2517  -75.6
 2.260  0.6478  130.8   2.047   41.0  0.1044   36.6  0.2513  -76.1
 2.280  0.6491  130.2   2.029   40.6  0.1051   36.5  0.2509  -76.5
 2.300  0.6505  129.6   2.011   40.1  0.1057   36.4  0.2505  -77.0
 2.320  0.6519  129.0   1.994   39.6  0.1064   36.4  0.2501  -77.5
 2.340  0.6534  128.4   1.976   39.1  0.1071   36.3  0.2497  -78.0
 2.360  0.6550  127.8   1.959   38.6  0.1078   36.2  0.2494  -78.5
 2.380  0.6567  127.2   1.942   38.1  0.1084   36.2  0.2491  -79.0
 2.400  0.6584  126.6   1.925   37.6  0.1091   36.1  0.2488  -79.5
 2.420  0.6600  126.1   1.908   37.1  0.1097   36.0  0.2483  -80.0
 2.440  0.6616  125.5   1.892   36.7  0.1103   36.0  0.2478  -80.5
 2.460  0.6633  125.0   1.875   36.2  0.1109   35.9  0.2473  -81.0
 2.480  0.6650  124.4   1.859   35.7  0.1115   35.9  0.2468  -81.5
 2.500  0.6668  123.9   1.843   35.3  0.1121   35.8  0.2463  -82.0
 2.520  0.6686  123.4   1.827   34.8  0.1127   35.7  0.2459  -82.5
 2.540  0.6705  122.9   1.811   34.3  0.1133   35.7  0.2455  -83.0
 2.560  0.6725  122.3   1.795   33.7  0.1139   35.6  0.2450  -83.5
 2.580  0.6745  121.8   1.779   33.2  0.1145   35.6  0.2447  -84.0
 2.600  0.6766  121.3   1.764   32.7  0.1151   35.5  0.2443  -84.5
 2.620  0.6776  120.8   1.750   32.2  0.1157   35.4  0.2441  -85.1
 2.640  0.6786  120.3   1.736   31.8  0.1163   35.2  0.2439  -85.6
 2.660  0.6796  119.8   1.723   31.3  0.1169   35.1  0.2437  -86.2
 2.680  0.6807  119.3   1.709   30.8  0.1175   35.0  0.2435  -86.7
 2.700  0.6819  118.8   1.696   30.3  0.1181   34.9  0.2434  -87.3
 2.720  0.6831  118.3   1.683   29.8  0.1188   34.8  0.2433  -87.9
 2.740  0.6844  117.8   1.670   29.3  0.1194   34.6  0.2432  -88.4
 2.760  0.6857  117.3   1.657   28.8  0.1200   34.5  0.2432  -89.0
 2.780  0.6871  116.8   1.644   28.2  0.1206   34.4  0.2431  -89.5
 2.800  0.6885  116.3   1.631   27.7  0.1212   34.3  0.2431  -90.1
 2.820  0.6895  115.8   1.619   27.3  0.1218   34.2  0.2427  -90.7
 2.840  0.6906  115.3   1.607   26.9  0.1223   34.1  0.2424  -91.2
 2.860  0.6917  114.8   1.595   26.4  0.1229   34.0  0.2420  -91.8
 2.880  0.6929  114.4   1.583   26.0  0.1234   33.9  0.2417  -92.4
 2.900  0.6941  113.9   1.572   25.6  0.1240   33.8  0.2415  -92.9
 2.920  0.6954  113.4   1.560   25.1  0.1246   33.7  0.2412  -93.5
 2.940  0.6967  112.9   1.549   24.7  0.1251   33.6  0.2410  -94.1
 2.960  0.6980  112.4   1.537   24.2  0.1257   33.5  0.2407  -94.7
 2.980  0.6994  112.0   1.526   23.8  0.1262   33.4  0.2406  -95.2
 3.000  0.7009  111.5   1.515   23.3  0.1268   33.3  0.2404  -95.8
 3.100  0.7052  109.4   1.463   21.5  0.1298   32.7  0.2401  -98.9
 3.200  0.7105  107.4   1.413   19.5  0.1328   32.1  0.2404 -102.0
 3.300  0.7167  105.3   1.365   17.4  0.1358   31.5  0.2415 -105.0
 3.400  0.7237  103.3   1.318   15.1  0.1389   30.9  0.2432 -108.0
 3.500  0.7316  101.4   1.274   12.7  0.1419   30.4  0.2456 -111.0
 3.600  0.7366   99.6   1.236   11.0  0.1447   29.7  0.2468 -114.3
 3.700  0.7422   97.8   1.199    9.2  0.1476   29.0  0.2488 -117.5
 3.800  0.7486   96.0   1.164    7.3  0.1505   28.3  0.2515 -120.6
 3.900  0.7557   94.3   1.130    5.3  0.1534   27.6  0.2550 -123.7
 4.000  0.7635   92.6   1.097    3.1  0.1563   27.0  0.2592 -126.7
 4.100  0.7665   91.1   1.064    1.5  0.1588   26.2  0.2618 -129.9
 4.200  0.7699   89.6   1.033   -0.3  0.1613   25.5  0.2652 -133.0
 4.300  0.7740   88.1   1.002   -2.1  0.1639   24.8  0.2694 -136.0
 4.400  0.7785   86.6   0.972   -4.0  0.1665   24.1  0.2743 -139.0
 4.500  0.7836   85.1   0.944   -6.1  0.1691   23.4  0.2799 -141.8
 4.600  0.7856   83.8   0.920   -7.3  0.1716   22.9  0.2836 -144.5
 4.700  0.7880   82.6   0.896   -8.6  0.1741   22.4  0.2880 -147.1
 4.800  0.7908   81.4   0.873  -10.0  0.1767   22.0  0.2929 -149.6
 4.900  0.7939   80.1   0.850  -11.4  0.1792   21.5  0.2984 -152.1
 5.000  0.7974   78.9   0.828  -12.9  0.1818   21.1  0.3044 -154.4
 5.100  0.8004   77.8   0.810  -14.3  0.1853   20.2  0.3115 -156.8
 5.200  0.8037   76.8   0.792  -15.7  0.1888   19.3  0.3191 -159.1
 5.300  0.8073   75.7   0.774  -17.3  0.1923   18.4  0.3272 -161.3
 5.400  0.8111   74.6   0.757  -18.8  0.1959   17.6  0.3357 -163.3
 5.500  0.8152   73.6   0.741  -20.5  0.1995   16.8  0.3447 -165.3
 5.600  0.8182   72.6   0.725  -21.7  0.2020   15.9  0.3513 -167.5
 5.700  0.8213   71.7   0.709  -23.0  0.2045   15.0  0.3584 -169.7
 5.800  0.8248   70.7   0.693  -24.3  0.2070   14.2  0.3660 -171.7
 5.900  0.8284   69.7   0.678  -25.7  0.2096   13.3  0.3740 -173.7
 6.000  0.8323   68.8   0.663  -27.2  0.2123   12.5  0.3825 -175.6
!
!  f       NFmin   Gammaopt  rn/50
! GHz       dB    MAG  ANG    -
!
! noise parameter not available yet for this operation point!
!
! (c) 2016  Infineon Technologies AG, Munich
