! Infineon Technologies  Discrete & RF Semiconductors
! BFP183W
! VCE = 2.0 V,  IC =  2.0 mA
! Common Emitter S-Parameters:                            Jan 2016
# GHz  S  MA  R  50
!  f         S11            S21            S12            S22
! GHz     MAG   ANG      MAG   ANG      MAG   ANG      MAG   ANG
 0.010  0.9188   -2.1   6.806  178.0  0.0026   86.3  0.9969   -0.9
 0.015  0.9163   -3.1   6.836  177.7  0.0040   86.2  0.9958   -1.3
 0.020  0.9140   -4.1   6.866  177.5  0.0054   86.2  0.9948   -1.7
 0.025  0.9159   -5.2   6.866  176.8  0.0065   86.9  0.9944   -2.1
 0.030  0.9182   -6.2   6.866  176.2  0.0077   87.4  0.9941   -2.6
 0.035  0.9164   -7.2   6.863  175.5  0.0091   86.0  0.9935   -3.0
 0.040  0.9149   -8.1   6.860  174.9  0.0106   84.9  0.9930   -3.4
 0.045  0.9136   -9.1   6.859  174.2  0.0120   84.1  0.9925   -3.9
 0.050  0.9126  -10.1   6.858  173.5  0.0135   83.5  0.9921   -4.3
 0.055  0.9109  -11.1   6.843  172.9  0.0148   82.6  0.9909   -4.7
 0.060  0.9095  -12.0   6.829  172.2  0.0160   81.8  0.9897   -5.1
 0.065  0.9083  -13.0   6.816  171.5  0.0173   81.1  0.9886   -5.5
 0.070  0.9074  -14.0   6.804  170.9  0.0186   80.5  0.9876   -5.9
 0.075  0.9067  -15.0   6.793  170.2  0.0198   80.0  0.9866   -6.3
 0.080  0.9063  -16.0   6.782  169.6  0.0211   79.6  0.9856   -6.8
 0.085  0.9062  -17.0   6.773  168.9  0.0224   79.2  0.9847   -7.2
 0.090  0.9064  -17.9   6.764  168.2  0.0236   78.8  0.9839   -7.6
 0.095  0.9068  -18.9   6.757  167.6  0.0249   78.5  0.9831   -8.0
 0.100  0.9075  -19.9   6.750  166.9  0.0262   78.2  0.9823   -8.4
 0.105  0.9051  -20.9   6.735  166.3  0.0274   77.5  0.9803   -8.8
 0.110  0.9030  -21.9   6.721  165.6  0.0286   76.8  0.9784   -9.2
 0.115  0.9011  -22.9   6.708  164.9  0.0297   76.2  0.9766   -9.6
 0.120  0.8995  -23.9   6.695  164.3  0.0309   75.6  0.9748  -10.1
 0.125  0.8982  -24.9   6.684  163.6  0.0321   75.1  0.9730  -10.5
 0.130  0.8972  -25.9   6.673  163.0  0.0333   74.6  0.9713  -10.9
 0.135  0.8964  -26.9   6.664  162.3  0.0345   74.1  0.9696  -11.3
 0.140  0.8959  -27.9   6.655  161.6  0.0357   73.7  0.9680  -11.7
 0.145  0.8957  -28.9   6.647  161.0  0.0369   73.3  0.9665  -12.2
 0.150  0.8958  -29.9   6.640  160.3  0.0381   72.9  0.9650  -12.6
 0.155  0.8931  -30.8   6.617  159.7  0.0392   72.3  0.9626  -13.0
 0.160  0.8905  -31.7   6.596  159.1  0.0404   71.7  0.9603  -13.3
 0.165  0.8883  -32.7   6.575  158.4  0.0415   71.1  0.9579  -13.7
 0.170  0.8862  -33.6   6.555  157.8  0.0426   70.5  0.9557  -14.0
 0.175  0.8844  -34.6   6.535  157.2  0.0438   70.0  0.9534  -14.4
 0.180  0.8829  -35.5   6.516  156.6  0.0449   69.5  0.9512  -14.7
 0.185  0.8815  -36.4   6.499  155.9  0.0460   69.1  0.9491  -15.1
 0.190  0.8804  -37.4   6.482  155.3  0.0472   68.6  0.9469  -15.5
 0.195  0.8796  -38.3   6.465  154.6  0.0483   68.2  0.9448  -15.8
 0.200  0.8790  -39.3   6.450  154.0  0.0495   67.8  0.9428  -16.2
 0.220  0.8722  -42.9   6.359  151.9  0.0536   65.5  0.9322  -17.7
 0.240  0.8690  -46.6   6.277  149.7  0.0578   63.5  0.9222  -19.1
 0.260  0.8630  -50.1   6.184  147.4  0.0617   61.6  0.9116  -20.5
 0.280  0.8538  -53.5   6.079  145.1  0.0652   59.6  0.9003  -21.7
 0.300  0.8477  -56.9   5.985  142.6  0.0689   57.9  0.8894  -23.0
 0.320  0.8364  -59.9   5.874  140.8  0.0717   56.0  0.8775  -24.0
 0.340  0.8273  -62.9   5.770  138.8  0.0746   54.3  0.8660  -25.1
 0.360  0.8207  -66.0   5.673  136.9  0.0775   52.7  0.8547  -26.2
 0.380  0.8165  -69.1   5.582  134.8  0.0805   51.2  0.8437  -27.3
 0.400  0.8147  -72.3   5.499  132.7  0.0835   49.8  0.8331  -28.4
 0.420  0.8044  -74.9   5.389  131.1  0.0856   48.3  0.8222  -29.2
 0.440  0.7959  -77.6   5.284  129.3  0.0877   46.9  0.8115  -30.1
 0.450  0.7923  -79.0   5.233  128.5  0.0887   46.2  0.8062  -30.5
 0.460  0.7892  -80.4   5.183  127.6  0.0898   45.6  0.8009  -30.9
 0.480  0.7843  -83.2   5.088  125.7  0.0920   44.3  0.7906  -31.8
 0.500  0.7813  -86.0   4.998  123.8  0.0943   43.1  0.7804  -32.7
 0.520  0.7742  -88.3   4.901  122.4  0.0957   41.9  0.7708  -33.4
 0.540  0.7683  -90.7   4.806  121.0  0.0972   40.8  0.7613  -34.0
 0.560  0.7638  -93.1   4.715  119.5  0.0988   39.7  0.7519  -34.7
 0.580  0.7606  -95.5   4.627  118.0  0.1003   38.6  0.7426  -35.5
 0.600  0.7588  -97.9   4.542  116.4  0.1019   37.6  0.7334  -36.2
 0.620  0.7526  -99.9   4.460  115.2  0.1030   36.7  0.7256  -36.7
 0.640  0.7473 -102.0   4.381  113.9  0.1042   35.7  0.7178  -37.2
 0.660  0.7430 -104.1   4.304  112.6  0.1054   34.8  0.7101  -37.7
 0.680  0.7397 -106.3   4.229  111.3  0.1066   34.0  0.7024  -38.3
 0.700  0.7375 -108.4   4.156  109.9  0.1078   33.1  0.6948  -38.8
 0.720  0.7325 -110.1   4.078  108.8  0.1085   32.3  0.6880  -39.3
 0.740  0.7282 -111.7   4.001  107.7  0.1092   31.4  0.6812  -39.8
 0.760  0.7245 -113.4   3.927  106.5  0.1099   30.6  0.6745  -40.3
 0.780  0.7215 -115.2   3.853  105.3  0.1106   29.8  0.6678  -40.9
 0.800  0.7191 -116.9   3.782  104.0  0.1114   29.0  0.6612  -41.4
 0.820  0.7154 -118.6   3.719  103.0  0.1119   28.3  0.6555  -41.8
 0.840  0.7123 -120.3   3.658  102.0  0.1125   27.7  0.6499  -42.2
 0.860  0.7099 -122.1   3.597  101.0  0.1131   27.0  0.6443  -42.6
 0.880  0.7082 -123.8   3.538   99.9  0.1137   26.3  0.6387  -43.0
 0.900  0.7071 -125.6   3.480   98.8  0.1143   25.7  0.6332  -43.4
 0.920  0.7034 -126.9   3.420   98.0  0.1146   25.2  0.6288  -43.8
 0.940  0.7001 -128.2   3.361   97.1  0.1149   24.6  0.6245  -44.2
 0.960  0.6972 -129.6   3.303   96.2  0.1152   24.1  0.6201  -44.6
 0.980  0.6947 -130.9   3.246   95.3  0.1156   23.5  0.6159  -45.0
 1.000  0.6925 -132.3   3.189   94.3  0.1159   23.0  0.6116  -45.4
 1.020  0.6912 -133.6   3.144   93.5  0.1162   22.5  0.6080  -45.7
 1.040  0.6902 -134.9   3.099   92.6  0.1164   22.0  0.6044  -46.1
 1.060  0.6896 -136.2   3.055   91.7  0.1167   21.6  0.6009  -46.4
 1.080  0.6893 -137.5   3.012   90.8  0.1170   21.1  0.5973  -46.8
 1.100  0.6894 -138.8   2.970   89.8  0.1173   20.6  0.5938  -47.1
 1.120  0.6878 -140.0   2.927   89.0  0.1175   20.1  0.5910  -47.5
 1.140  0.6866 -141.2   2.885   88.3  0.1176   19.6  0.5883  -47.8
 1.160  0.6856 -142.4   2.843   87.5  0.1178   19.2  0.5855  -48.2
 1.180  0.6850 -143.6   2.802   86.6  0.1180   18.7  0.5828  -48.5
 1.200  0.6846 -144.8   2.761   85.8  0.1182   18.2  0.5801  -48.9
 1.220  0.6832 -145.9   2.724   85.1  0.1182   17.9  0.5774  -49.2
 1.240  0.6820 -147.0   2.688   84.3  0.1181   17.6  0.5747  -49.5
 1.260  0.6811 -148.0   2.652   83.6  0.1181   17.2  0.5720  -49.9
 1.280  0.6804 -149.1   2.617   82.8  0.1181   16.9  0.5693  -50.2
 1.300  0.6800 -150.2   2.582   82.0  0.1181   16.6  0.5667  -50.5
 1.320  0.6796 -151.1   2.550   81.3  0.1181   16.3  0.5649  -50.8
 1.340  0.6794 -152.0   2.518   80.6  0.1180   16.0  0.5631  -51.1
 1.360  0.6793 -153.0   2.486   79.9  0.1180   15.6  0.5614  -51.5
 1.380  0.6794 -153.9   2.455   79.2  0.1179   15.3  0.5596  -51.8
 1.400  0.6797 -154.8   2.424   78.4  0.1179   15.0  0.5579  -52.1
 1.420  0.6788 -155.7   2.395   77.8  0.1177   14.8  0.5555  -52.4
 1.440  0.6781 -156.6   2.367   77.2  0.1175   14.6  0.5532  -52.8
 1.460  0.6775 -157.5   2.339   76.5  0.1172   14.4  0.5509  -53.1
 1.480  0.6771 -158.4   2.311   75.9  0.1170   14.2  0.5486  -53.5
 1.500  0.6769 -159.3   2.283   75.2  0.1168   14.0  0.5463  -53.8
 1.520  0.6763 -160.2   2.259   74.5  0.1167   13.8  0.5449  -54.1
 1.540  0.6758 -161.2   2.235   73.8  0.1166   13.6  0.5434  -54.4
 1.560  0.6756 -162.1   2.211   73.1  0.1166   13.4  0.5420  -54.6
 1.580  0.6755 -163.1   2.188   72.4  0.1165   13.2  0.5406  -54.9
 1.600  0.6756 -164.0   2.165   71.6  0.1164   13.0  0.5392  -55.2
 1.620  0.6752 -164.8   2.143   71.1  0.1161   12.8  0.5376  -55.6
 1.640  0.6749 -165.6   2.120   70.5  0.1159   12.6  0.5361  -56.0
 1.660  0.6748 -166.4   2.098   70.0  0.1156   12.5  0.5346  -56.3
 1.680  0.6748 -167.2   2.077   69.4  0.1154   12.3  0.5331  -56.7
 1.700  0.6749 -168.0   2.055   68.8  0.1151   12.1  0.5316  -57.1
 1.720  0.6748 -168.7   2.034   68.2  0.1150   12.0  0.5307  -57.4
 1.740  0.6748 -169.5   2.013   67.6  0.1149   11.9  0.5297  -57.6
 1.760  0.6750 -170.2   1.992   67.0  0.1149   11.9  0.5288  -57.9
 1.780  0.6752 -171.0   1.971   66.3  0.1148   11.8  0.5279  -58.1
 1.800  0.6756 -171.7   1.951   65.7  0.1147   11.7  0.5270  -58.4
 1.820  0.6747 -172.4   1.931   65.1  0.1145   11.6  0.5266  -58.7
 1.840  0.6739 -173.2   1.912   64.6  0.1143   11.5  0.5261  -59.1
 1.860  0.6732 -173.9   1.892   64.0  0.1140   11.3  0.5257  -59.4
 1.880  0.6727 -174.7   1.873   63.4  0.1138   11.2  0.5254  -59.8
 1.900  0.6722 -175.4   1.854   62.8  0.1136   11.1  0.5250  -60.1
 1.920  0.6727 -176.1   1.837   62.3  0.1134   11.0  0.5241  -60.5
 1.940  0.6732 -176.8   1.821   61.7  0.1133   11.0  0.5232  -60.8
 1.960  0.6739 -177.5   1.805   61.2  0.1131   10.9  0.5223  -61.2
 1.980  0.6746 -178.2   1.789   60.6  0.1130   10.9  0.5214  -61.5
 2.000  0.6755 -178.9   1.773   60.0  0.1128   10.8  0.5206  -61.9
 2.020  0.6756 -179.5   1.758   59.5  0.1125   10.8  0.5201  -62.2
 2.040  0.6758  179.9   1.743   59.0  0.1123   10.7  0.5196  -62.6
 2.060  0.6760  179.2   1.728   58.5  0.1120   10.7  0.5191  -62.9
 2.080  0.6763  178.6   1.713   58.0  0.1118   10.6  0.5187  -63.3
 2.100  0.6768  178.0   1.698   57.4  0.1115   10.6  0.5183  -63.6
 2.120  0.6772  177.4   1.684   56.9  0.1112   10.5  0.5179  -63.9
 2.140  0.6778  176.8   1.669   56.3  0.1110   10.5  0.5175  -64.3
 2.160  0.6785  176.1   1.655   55.8  0.1107   10.4  0.5171  -64.6
 2.180  0.6792  175.5   1.641   55.2  0.1105   10.4  0.5167  -65.0
 2.200  0.6800  174.9   1.627   54.6  0.1102   10.3  0.5164  -65.3
 2.220  0.6798  174.3   1.614   54.1  0.1100   10.3  0.5160  -65.7
 2.240  0.6797  173.7   1.601   53.6  0.1098   10.3  0.5157  -66.1
 2.260  0.6796  173.1   1.588   53.1  0.1096   10.3  0.5154  -66.5
 2.280  0.6796  172.5   1.575   52.6  0.1094   10.3  0.5151  -66.9
 2.300  0.6797  171.9   1.562   52.1  0.1092   10.3  0.5149  -67.2
 2.320  0.6799  171.3   1.550   51.5  0.1091   10.2  0.5146  -67.6
 2.340  0.6801  170.7   1.537   51.0  0.1089   10.2  0.5144  -68.0
 2.360  0.6804  170.1   1.525   50.4  0.1087   10.2  0.5142  -68.4
 2.380  0.6808  169.5   1.513   49.9  0.1085   10.2  0.5140  -68.8
 2.400  0.6813  168.9   1.501   49.3  0.1083   10.2  0.5139  -69.2
 2.420  0.6815  168.4   1.490   48.8  0.1081   10.3  0.5136  -69.6
 2.440  0.6818  167.8   1.479   48.4  0.1079   10.4  0.5133  -69.9
 2.460  0.6821  167.3   1.468   47.9  0.1077   10.5  0.5130  -70.3
 2.480  0.6824  166.8   1.457   47.4  0.1075   10.6  0.5127  -70.6
 2.500  0.6829  166.2   1.446   46.9  0.1072   10.7  0.5124  -71.0
 2.520  0.6834  165.7   1.436   46.4  0.1070   10.8  0.5122  -71.4
 2.540  0.6839  165.2   1.425   45.9  0.1068   10.9  0.5120  -71.7
 2.560  0.6845  164.7   1.415   45.4  0.1066   11.0  0.5118  -72.1
 2.580  0.6852  164.1   1.404   44.9  0.1064   11.1  0.5116  -72.4
 2.600  0.6859  163.6   1.394   44.4  0.1062   11.2  0.5115  -72.8
 2.620  0.6865  163.1   1.384   44.0  0.1061   11.3  0.5113  -73.2
 2.640  0.6871  162.5   1.374   43.5  0.1060   11.4  0.5112  -73.6
 2.660  0.6878  162.0   1.364   43.1  0.1059   11.5  0.5111  -73.9
 2.680  0.6886  161.5   1.355   42.6  0.1058   11.6  0.5110  -74.3
 2.700  0.6894  160.9   1.345   42.1  0.1057   11.7  0.5110  -74.7
 2.720  0.6902  160.4   1.335   41.7  0.1057   11.9  0.5109  -75.1
 2.740  0.6912  159.9   1.326   41.2  0.1056   12.0  0.5109  -75.5
 2.760  0.6921  159.3   1.316   40.7  0.1055   12.1  0.5109  -75.8
 2.780  0.6932  158.8   1.307   40.2  0.1054   12.2  0.5109  -76.2
 2.800  0.6943  158.3   1.298   39.7  0.1053   12.3  0.5110  -76.6
 2.820  0.6948  157.8   1.289   39.3  0.1052   12.4  0.5111  -77.0
 2.840  0.6953  157.3   1.281   38.8  0.1050   12.5  0.5113  -77.4
 2.860  0.6959  156.9   1.272   38.4  0.1049   12.7  0.5115  -77.8
 2.880  0.6965  156.4   1.263   37.9  0.1048   12.8  0.5117  -78.2
 2.900  0.6971  155.9   1.255   37.4  0.1046   12.9  0.5119  -78.6
 2.920  0.6979  155.4   1.247   37.0  0.1045   13.0  0.5121  -79.0
 2.940  0.6986  154.9   1.238   36.5  0.1044   13.1  0.5124  -79.4
 2.960  0.6994  154.5   1.230   36.0  0.1043   13.3  0.5127  -79.8
 2.980  0.7003  154.0   1.222   35.5  0.1041   13.4  0.5130  -80.2
 3.000  0.7012  153.5   1.214   35.0  0.1040   13.5  0.5134  -80.6
 3.100  0.7044  151.1   1.179   33.0  0.1039   14.5  0.5136  -82.7
 3.200  0.7088  148.7   1.146   30.9  0.1039   15.5  0.5145  -84.8
 3.300  0.7135  146.6   1.110   28.7  0.1041   16.5  0.5167  -86.8
 3.400  0.7192  144.5   1.075   26.4  0.1043   17.5  0.5196  -88.8
 3.500  0.7220  142.4   1.045   24.4  0.1044   18.5  0.5206  -91.1
 3.600  0.7258  140.3   1.017   22.3  0.1046   19.4  0.5224  -93.3
 3.700  0.7293  138.3   0.987   20.4  0.1052   20.5  0.5249  -95.7
 3.800  0.7336  136.3   0.958   18.4  0.1058   21.5  0.5283  -98.1
 3.900  0.7380  134.5   0.934   16.6  0.1073   22.8  0.5314 -100.4
 4.000  0.7431  132.8   0.910   14.7  0.1088   24.0  0.5354 -102.7
 4.100  0.7453  131.2   0.886   13.1  0.1107   25.0  0.5381 -105.2
 4.200  0.7481  129.5   0.862   11.4  0.1127   25.9  0.5419 -107.6
 4.300  0.7515  127.9   0.839    9.6  0.1147   26.8  0.5466 -110.0
 4.400  0.7555  126.3   0.817    7.7  0.1167   27.7  0.5522 -112.4
 4.500  0.7601  124.7   0.796    5.7  0.1188   28.5  0.5588 -114.7
 4.600  0.7609  123.3   0.775    4.4  0.1216   29.2  0.5620 -117.1
 4.700  0.7620  122.0   0.755    3.0  0.1245   29.9  0.5662 -119.5
 4.800  0.7637  120.6   0.734    1.5  0.1273   30.6  0.5713 -121.8
 4.900  0.7657  119.2   0.715   -0.1  0.1302   31.2  0.5774 -124.1
 5.000  0.7682  117.9   0.696   -1.7  0.1331   31.8  0.5843 -126.3
 5.100  0.7693  116.9   0.679   -2.8  0.1366   32.1  0.5876 -128.5
 5.200  0.7707  115.9   0.663   -3.9  0.1402   32.3  0.5918 -130.6
 5.300  0.7722  114.9   0.647   -5.1  0.1437   32.6  0.5968 -132.8
 5.400  0.7741  113.9   0.631   -6.3  0.1473   32.8  0.6026 -134.9
 5.500  0.7761  112.9   0.616   -7.6  0.1508   33.0  0.6092 -136.9
 5.600  0.7764  111.8   0.602   -8.5  0.1548   33.0  0.6126 -138.8
 5.700  0.7770  110.8   0.588   -9.4  0.1589   33.0  0.6166 -140.7
 5.800  0.7778  109.7   0.574  -10.3  0.1629   32.9  0.6213 -142.6
 5.900  0.7789  108.7   0.560  -11.3  0.1670   32.9  0.6266 -144.4
 6.000  0.7803  107.6   0.547  -12.4  0.1710   32.9  0.6326 -146.2
!
!  f       NFmin   Gammaopt  rn/50
! GHz       dB    MAG  ANG    -
!
! noise parameter not available yet for this operation point!
!
! (c) 2016  Infineon Technologies AG, Munich
