! Infineon Technologies  Discrete & RF Semiconductors
! BFP196W
! VCE = 8.0 V,  IC = 6.0mA
! Common Emitter S-Parameters:                            Jan 2016
# GHz  S  MA  R  50
!  f         S11            S21            S12            S22
! GHz     MAG   ANG      MAG   ANG      MAG   ANG      MAG   ANG
 0.010  0.8285   -8.5  18.542  173.8  0.0055   82.7  0.9810   -4.1
 0.015  0.8244  -12.9  18.654  172.3  0.0086   81.2  0.9761   -6.1
 0.020  0.8253  -17.4  18.777  170.9  0.0117   80.5  0.9724   -8.2
 0.025  0.8245  -21.5  18.644  168.8  0.0144   78.8  0.9663  -10.1
 0.030  0.8279  -25.6  18.538  166.6  0.0171   77.7  0.9614  -12.1
 0.035  0.8203  -29.6  18.320  164.5  0.0195   74.9  0.9501  -14.0
 0.040  0.8169  -33.7  18.127  162.3  0.0219   72.7  0.9398  -15.9
 0.045  0.8175  -37.7  17.960  160.1  0.0244   70.9  0.9305  -17.8
 0.050  0.8223  -41.8  17.820  157.9  0.0269   69.5  0.9224  -19.8
 0.055  0.8092  -45.0  17.492  156.4  0.0286   66.9  0.9070  -21.1
 0.060  0.7987  -48.2  17.177  154.8  0.0304   64.6  0.8921  -22.4
 0.065  0.7908  -51.6  16.875  153.2  0.0322   62.6  0.8777  -23.8
 0.070  0.7857  -55.0  16.587  151.5  0.0340   60.8  0.8638  -25.3
 0.075  0.7834  -58.4  16.315  149.7  0.0359   59.2  0.8505  -26.7
 0.080  0.7838  -61.8  16.058  147.9  0.0377   57.7  0.8378  -28.3
 0.085  0.7871  -65.3  15.818  146.0  0.0397   56.4  0.8256  -29.8
 0.090  0.7932  -68.6  15.595  144.1  0.0416   55.2  0.8142  -31.4
 0.095  0.8020  -72.0  15.391  142.1  0.0435   54.1  0.8033  -33.1
 0.100  0.8134  -75.2  15.205  140.1  0.0455   53.1  0.7932  -34.8
 0.105  0.8068  -77.6  14.923  139.0  0.0466   51.8  0.7799  -35.7
 0.110  0.8016  -80.0  14.647  137.8  0.0477   50.5  0.7669  -36.6
 0.115  0.7979  -82.5  14.377  136.6  0.0488   49.3  0.7540  -37.6
 0.120  0.7956  -84.9  14.113  135.4  0.0499   48.2  0.7414  -38.6
 0.125  0.7948  -87.4  13.857  134.1  0.0511   47.1  0.7290  -39.6
 0.130  0.7955  -89.9  13.608  132.7  0.0522   46.0  0.7168  -40.7
 0.135  0.7977  -92.3  13.367  131.3  0.0534   45.0  0.7049  -41.8
 0.140  0.8013  -94.8  13.134  129.9  0.0546   44.1  0.6932  -42.9
 0.145  0.8064  -97.2  12.910  128.4  0.0559   43.2  0.6819  -44.1
 0.150  0.8129  -99.6  12.695  126.8  0.0571   42.3  0.6708  -45.3
 0.155  0.8089 -101.2  12.465  126.0  0.0576   41.5  0.6603  -45.9
 0.160  0.8056 -102.8  12.238  125.2  0.0582   40.7  0.6499  -46.5
 0.165  0.8029 -104.5  12.013  124.4  0.0588   39.9  0.6395  -47.1
 0.170  0.8009 -106.1  11.791  123.5  0.0593   39.1  0.6292  -47.7
 0.175  0.7996 -107.8  11.572  122.6  0.0599   38.3  0.6190  -48.3
 0.180  0.7989 -109.5  11.355  121.6  0.0605   37.6  0.6089  -49.0
 0.185  0.7989 -111.1  11.142  120.7  0.0611   36.8  0.5989  -49.7
 0.190  0.7996 -112.8  10.933  119.7  0.0617   36.1  0.5889  -50.4
 0.195  0.8010 -114.4  10.726  118.6  0.0624   35.4  0.5791  -51.1
 0.200  0.8030 -116.1  10.524  117.5  0.0630   34.7  0.5693  -51.9
 0.220  0.8002 -121.0   9.887  115.1  0.0645   32.5  0.5412  -53.7
 0.240  0.8033 -125.9   9.270  112.3  0.0662   30.5  0.5138  -55.8
 0.260  0.8041 -130.1   8.709  109.8  0.0674   28.8  0.4887  -57.4
 0.280  0.8005 -133.6   8.195  107.7  0.0683   27.3  0.4657  -58.4
 0.300  0.8001 -137.2   7.693  105.3  0.0692   25.9  0.4428  -59.6
 0.320  0.7971 -139.7   7.344  104.0  0.0696   24.9  0.4291  -60.4
 0.340  0.7957 -142.3   7.000  102.5  0.0701   23.9  0.4155  -61.3
 0.360  0.7959 -144.8   6.661  100.9  0.0705   23.0  0.4020  -62.2
 0.380  0.7977 -147.4   6.327   99.1  0.0710   22.0  0.3887  -63.2
 0.400  0.8010 -149.9   6.001   97.1  0.0715   21.1  0.3754  -64.2
 0.420  0.7995 -151.6   5.776   96.1  0.0717   20.6  0.3674  -64.8
 0.440  0.7988 -153.3   5.553   95.0  0.0719   20.1  0.3595  -65.4
 0.450  0.7986 -154.1   5.443   94.4  0.0720   19.9  0.3555  -65.7
 0.460  0.7987 -154.9   5.333   93.7  0.0721   19.7  0.3516  -66.0
 0.480  0.7993 -156.6   5.115   92.4  0.0724   19.2  0.3437  -66.6
 0.500  0.8006 -158.3   4.900   91.0  0.0726   18.7  0.3359  -67.3
 0.520  0.7996 -159.6   4.740   90.1  0.0727   18.4  0.3312  -67.8
 0.540  0.7990 -160.9   4.581   89.2  0.0728   18.1  0.3266  -68.4
 0.560  0.7989 -162.1   4.423   88.2  0.0728   17.8  0.3219  -68.9
 0.580  0.7991 -163.4   4.267   87.1  0.0729   17.5  0.3174  -69.5
 0.600  0.7997 -164.7   4.113   85.9  0.0730   17.2  0.3128  -70.1
 0.620  0.8003 -165.7   4.003   85.2  0.0730   17.1  0.3101  -70.5
 0.640  0.8012 -166.7   3.894   84.4  0.0730   17.0  0.3074  -71.0
 0.660  0.8023 -167.8   3.785   83.5  0.0730   16.9  0.3047  -71.4
 0.680  0.8037 -168.8   3.678   82.6  0.0730   16.8  0.3020  -71.8
 0.700  0.8053 -169.8   3.571   81.7  0.0730   16.7  0.2994  -72.3
 0.720  0.8044 -170.6   3.480   81.0  0.0730   16.7  0.2983  -72.9
 0.740  0.8037 -171.4   3.389   80.2  0.0730   16.7  0.2972  -73.4
 0.760  0.8032 -172.3   3.300   79.4  0.0729   16.6  0.2961  -74.0
 0.780  0.8028 -173.1   3.210   78.6  0.0729   16.6  0.2950  -74.5
 0.800  0.8026 -173.9   3.122   77.7  0.0729   16.6  0.2940  -75.1
 0.820  0.8028 -174.6   3.053   77.0  0.0729   16.6  0.2933  -75.6
 0.840  0.8032 -175.4   2.985   76.4  0.0728   16.6  0.2926  -76.1
 0.860  0.8036 -176.1   2.917   75.6  0.0728   16.5  0.2919  -76.7
 0.880  0.8043 -176.9   2.850   74.9  0.0727   16.5  0.2912  -77.2
 0.900  0.8050 -177.6   2.783   74.1  0.0727   16.5  0.2906  -77.7
 0.920  0.8045 -178.2   2.726   73.5  0.0726   16.6  0.2908  -78.3
 0.940  0.8041 -178.8   2.670   72.9  0.0725   16.7  0.2911  -78.8
 0.960  0.8037 -179.4   2.613   72.2  0.0723   16.9  0.2914  -79.4
 0.980  0.8035 -180.0   2.557   71.5  0.0722   17.0  0.2917  -79.9
 1.000  0.8033  179.4   2.502   70.8  0.0721   17.1  0.2920  -80.5
 1.020  0.8044  178.8   2.460   70.2  0.0721   17.3  0.2925  -81.0
 1.040  0.8055  178.2   2.418   69.6  0.0721   17.4  0.2931  -81.5
 1.060  0.8068  177.6   2.376   69.0  0.0721   17.6  0.2937  -82.1
 1.080  0.8081  177.0   2.334   68.4  0.0721   17.7  0.2943  -82.6
 1.100  0.8095  176.4   2.293   67.7  0.0721   17.9  0.2949  -83.1
 1.120  0.8098  175.8   2.253   67.1  0.0720   18.1  0.2959  -83.6
 1.140  0.8101  175.2   2.214   66.5  0.0719   18.3  0.2970  -84.2
 1.160  0.8106  174.7   2.175   65.8  0.0718   18.4  0.2981  -84.7
 1.180  0.8111  174.1   2.136   65.2  0.0717   18.6  0.2992  -85.3
 1.200  0.8117  173.5   2.097   64.5  0.0716   18.8  0.3004  -85.8
 1.220  0.8113  173.0   2.066   63.9  0.0716   19.1  0.3013  -86.4
 1.240  0.8110  172.5   2.034   63.3  0.0715   19.4  0.3023  -86.9
 1.260  0.8107  171.9   2.003   62.7  0.0715   19.7  0.3033  -87.5
 1.280  0.8105  171.4   1.973   62.1  0.0714   20.0  0.3043  -88.0
 1.300  0.8104  170.9   1.942   61.4  0.0714   20.3  0.3054  -88.6
 1.320  0.8105  170.5   1.914   60.9  0.0714   20.5  0.3067  -89.1
 1.340  0.8106  170.0   1.886   60.3  0.0713   20.8  0.3080  -89.7
 1.360  0.8107  169.6   1.858   59.7  0.0713   21.0  0.3094  -90.2
 1.380  0.8109  169.1   1.830   59.1  0.0712   21.3  0.3108  -90.8
 1.400  0.8112  168.7   1.803   58.5  0.0712   21.5  0.3122  -91.3
 1.420  0.8122  168.3   1.779   58.0  0.0712   21.9  0.3132  -91.9
 1.440  0.8132  167.8   1.755   57.5  0.0712   22.3  0.3143  -92.5
 1.460  0.8143  167.4   1.731   56.9  0.0712   22.7  0.3154  -93.1
 1.480  0.8154  166.9   1.707   56.4  0.0713   23.1  0.3165  -93.7
 1.500  0.8166  166.5   1.683   55.8  0.0713   23.5  0.3177  -94.3
 1.520  0.8170  166.0   1.662   55.2  0.0714   23.9  0.3191  -94.8
 1.540  0.8175  165.5   1.642   54.7  0.0715   24.2  0.3206  -95.3
 1.560  0.8180  165.0   1.621   54.1  0.0717   24.6  0.3220  -95.8
 1.580  0.8186  164.5   1.601   53.5  0.0718   24.9  0.3235  -96.2
 1.600  0.8192  164.0   1.581   52.9  0.0719   25.3  0.3250  -96.7
 1.620  0.8189  163.6   1.562   52.4  0.0720   25.7  0.3267  -97.3
 1.640  0.8186  163.1   1.543   51.9  0.0721   26.0  0.3284  -97.9
 1.660  0.8184  162.7   1.524   51.4  0.0721   26.4  0.3302  -98.5
 1.680  0.8182  162.2   1.506   50.9  0.0722   26.7  0.3320  -99.0
 1.700  0.8181  161.8   1.487   50.4  0.0723   27.1  0.3338  -99.6
 1.720  0.8189  161.4   1.470   49.9  0.0725   27.5  0.3351 -100.1
 1.740  0.8197  161.1   1.453   49.4  0.0728   27.9  0.3364 -100.7
 1.760  0.8205  160.7   1.436   48.9  0.0730   28.4  0.3378 -101.2
 1.780  0.8214  160.4   1.420   48.3  0.0733   28.8  0.3392 -101.7
 1.800  0.8223  160.0   1.403   47.8  0.0735   29.2  0.3406 -102.2
 1.820  0.8220  159.5   1.388   47.3  0.0737   29.6  0.3423 -102.7
 1.840  0.8218  159.0   1.373   46.8  0.0739   30.0  0.3439 -103.1
 1.860  0.8216  158.6   1.359   46.3  0.0741   30.4  0.3456 -103.6
 1.880  0.8215  158.1   1.344   45.7  0.0743   30.8  0.3474 -104.0
 1.900  0.8215  157.6   1.330   45.2  0.0745   31.2  0.3491 -104.5
 1.920  0.8221  157.2   1.317   44.7  0.0748   31.6  0.3508 -105.0
 1.940  0.8228  156.8   1.304   44.2  0.0750   32.0  0.3525 -105.5
 1.960  0.8235  156.5   1.291   43.7  0.0753   32.5  0.3543 -106.0
 1.980  0.8242  156.1   1.279   43.2  0.0755   32.9  0.3561 -106.5
 2.000  0.8250  155.7   1.266   42.7  0.0758   33.3  0.3579 -107.0
 2.020  0.8254  155.3   1.254   42.3  0.0762   33.7  0.3596 -107.6
 2.040  0.8257  155.0   1.242   41.8  0.0765   34.0  0.3613 -108.1
 2.060  0.8262  154.6   1.230   41.4  0.0769   34.4  0.3631 -108.6
 2.080  0.8266  154.2   1.219   40.9  0.0772   34.8  0.3649 -109.2
 2.100  0.8271  153.8   1.207   40.4  0.0776   35.1  0.3668 -109.7
 2.120  0.8276  153.5   1.195   39.9  0.0780   35.5  0.3686 -110.2
 2.140  0.8282  153.1   1.184   39.4  0.0784   35.9  0.3705 -110.8
 2.160  0.8288  152.7   1.173   38.9  0.0787   36.2  0.3725 -111.3
 2.180  0.8294  152.4   1.161   38.4  0.0791   36.6  0.3744 -111.8
 2.200  0.8301  152.0   1.150   37.9  0.0795   36.9  0.3764 -112.3
 2.220  0.8304  151.6   1.140   37.5  0.0800   37.3  0.3782 -112.8
 2.240  0.8308  151.2   1.130   37.0  0.0805   37.6  0.3800 -113.3
 2.260  0.8313  150.8   1.120   36.6  0.0809   38.0  0.3819 -113.8
 2.280  0.8317  150.4   1.110   36.2  0.0814   38.3  0.3837 -114.3
 2.300  0.8322  150.0   1.101   35.7  0.0819   38.7  0.3856 -114.8
 2.320  0.8328  149.7   1.091   35.2  0.0824   39.0  0.3876 -115.3
 2.340  0.8333  149.3   1.081   34.8  0.0829   39.3  0.3895 -115.8
 2.360  0.8340  148.9   1.072   34.3  0.0834   39.7  0.3915 -116.3
 2.380  0.8346  148.5   1.062   33.8  0.0839   40.0  0.3936 -116.7
 2.400  0.8353  148.1   1.053   33.3  0.0844   40.3  0.3956 -117.2
 2.420  0.8355  147.7   1.044   32.9  0.0850   40.6  0.3972 -117.8
 2.440  0.8357  147.4   1.035   32.5  0.0857   41.0  0.3989 -118.3
 2.460  0.8360  147.0   1.027   32.1  0.0863   41.3  0.4006 -118.9
 2.480  0.8363  146.6   1.018   31.6  0.0870   41.6  0.4024 -119.4
 2.500  0.8367  146.2   1.009   31.2  0.0876   41.9  0.4042 -120.0
 2.520  0.8370  145.9   1.001   30.8  0.0883   42.2  0.4060 -120.5
 2.540  0.8375  145.5   0.992   30.3  0.0889   42.5  0.4078 -121.0
 2.560  0.8379  145.1   0.984   29.8  0.0896   42.8  0.4097 -121.6
 2.580  0.8384  144.8   0.975   29.4  0.0902   43.1  0.4116 -122.1
 2.600  0.8389  144.4   0.967   28.9  0.0909   43.4  0.4136 -122.6
 2.620  0.8395  144.0   0.959   28.5  0.0916   43.6  0.4154 -123.1
 2.640  0.8402  143.7   0.952   28.1  0.0923   43.8  0.4171 -123.5
 2.660  0.8409  143.3   0.944   27.7  0.0930   44.0  0.4190 -124.0
 2.680  0.8417  143.0   0.937   27.3  0.0938   44.2  0.4208 -124.4
 2.700  0.8425  142.6   0.929   26.9  0.0945   44.4  0.4227 -124.9
 2.720  0.8433  142.2   0.922   26.5  0.0952   44.6  0.4246 -125.3
 2.740  0.8442  141.9   0.915   26.0  0.0959   44.8  0.4265 -125.8
 2.760  0.8450  141.5   0.907   25.6  0.0967   45.0  0.4284 -126.2
 2.780  0.8460  141.2   0.900   25.2  0.0974   45.2  0.4304 -126.7
 2.800  0.8469  140.8   0.893   24.7  0.0981   45.4  0.4324 -127.1
 2.820  0.8473  140.5   0.886   24.3  0.0989   45.6  0.4342 -127.7
 2.840  0.8477  140.1   0.880   23.9  0.0998   45.7  0.4361 -128.2
 2.860  0.8481  139.8   0.873   23.6  0.1006   45.8  0.4380 -128.7
 2.880  0.8485  139.4   0.867   23.2  0.1014   46.0  0.4399 -129.3
 2.900  0.8490  139.1   0.860   22.8  0.1022   46.1  0.4419 -129.8
 2.920  0.8495  138.8   0.853   22.4  0.1031   46.3  0.4439 -130.3
 2.940  0.8501  138.4   0.847   22.0  0.1039   46.4  0.4459 -130.9
 2.960  0.8507  138.1   0.841   21.5  0.1047   46.5  0.4480 -131.4
 2.980  0.8513  137.7   0.834   21.1  0.1056   46.7  0.4501 -131.9
 3.000  0.8519  137.4   0.828   20.7  0.1064   46.8  0.4523 -132.4
 3.100  0.8543  135.6   0.800   18.9  0.1107   47.2  0.4622 -134.8
 3.200  0.8574  133.9   0.773   17.0  0.1151   47.6  0.4728 -137.1
 3.300  0.8620  132.3   0.747   15.4  0.1197   47.8  0.4818 -139.6
 3.400  0.8673  130.8   0.722   13.6  0.1243   48.0  0.4918 -142.1
 3.500  0.8685  129.1   0.697   12.0  0.1288   48.1  0.5009 -144.3
 3.600  0.8704  127.5   0.673   10.2  0.1333   48.2  0.5107 -146.4
 3.700  0.8708  125.9   0.650    8.8  0.1377   47.8  0.5188 -148.9
 3.800  0.8719  124.3   0.628    7.2  0.1422   47.4  0.5278 -151.4
 3.900  0.8753  123.0   0.611    6.0  0.1478   47.2  0.5409 -153.6
 4.000  0.8792  121.7   0.594    4.7  0.1534   47.0  0.5547 -155.6
 4.100  0.8792  120.3   0.577    3.6  0.1584   46.3  0.5633 -158.0
 4.200  0.8796  119.0   0.560    2.5  0.1635   45.7  0.5728 -160.2
 4.300  0.8806  117.6   0.543    1.3  0.1685   45.1  0.5832 -162.4
 4.400  0.8820  116.3   0.527    0.0  0.1736   44.5  0.5944 -164.6
 4.500  0.8840  114.9   0.511   -1.3  0.1787   44.0  0.6064 -166.6
 4.600  0.8831  113.8   0.498   -1.9  0.1832   43.2  0.6125 -168.6
 4.700  0.8824  112.7   0.485   -2.6  0.1878   42.4  0.6194 -170.6
 4.800  0.8821  111.7   0.472   -3.3  0.1923   41.6  0.6270 -172.6
 4.900  0.8821  110.6   0.460   -4.1  0.1970   40.9  0.6353 -174.5
 5.000  0.8824  109.5   0.447   -4.9  0.2016   40.2  0.6443 -176.3
 5.100  0.8817  108.7   0.437   -5.2  0.2061   39.4  0.6509 -178.0
 5.200  0.8811  107.8   0.426   -5.6  0.2107   38.6  0.6580 -179.6
 5.300  0.8808  107.0   0.416   -5.9  0.2154   37.9  0.6657  178.9
 5.400  0.8806  106.1   0.405   -6.3  0.2200   37.2  0.6738  177.3
 5.500  0.8806  105.3   0.395   -6.7  0.2247   36.5  0.6824  175.8
 5.600  0.8788  104.4   0.389   -6.8  0.2290   35.7  0.6867  174.5
 5.700  0.8772  103.5   0.383   -6.9  0.2333   34.9  0.6914  173.1
 5.800  0.8758  102.5   0.378   -7.0  0.2377   34.1  0.6964  171.8
 5.900  0.8746  101.6   0.372   -7.1  0.2421   33.3  0.7018  170.6
 6.000  0.8737  100.7   0.366   -7.2  0.2465   32.6  0.7075  169.3
!
!  f       NFmin   Gammaopt  rn/50
! GHz       dB    MAG  ANG    -
!
! noise parameter not available yet for this operation point!
!
! (c) 2016  Infineon Technologies AG, Munich
