! Infineon Technologies  Discrete & RF Semiconductors
! BFP196
! VCE = 3.0 V,  IC =  70mA
! Common Emitter S-Parameters:                            Jan 2016
# GHz  S  MA  R  50
!  f         S11            S21            S12            S22
! GHz     MAG   ANG      MAG   ANG      MAG   ANG      MAG   ANG
 0.010  0.2215  -56.8  75.980  167.0  0.0034   79.0  0.8517  -16.4
 0.015  0.2603  -75.5  72.596  161.0  0.0049   72.6  0.8196  -23.7
 0.020  0.3188  -88.4  70.092  154.4  0.0065   69.3  0.8016  -31.4
 0.025  0.3378  -98.1  66.266  151.3  0.0075   65.6  0.7529  -35.7
 0.030  0.3653 -106.6  62.653  147.9  0.0084   62.8  0.7091  -40.7
 0.035  0.3996 -113.7  59.293  144.0  0.0094   60.5  0.6712  -46.2
 0.040  0.4391 -119.7  56.232  139.8  0.0105   58.7  0.6402  -52.3
 0.045  0.4826 -124.6  53.519  135.0  0.0115   57.2  0.6172  -58.9
 0.050  0.5290 -128.7  51.211  129.8  0.0125   56.0  0.6030  -66.0
 0.055  0.5341 -131.6  49.041  128.6  0.0130   55.1  0.5780  -68.2
 0.060  0.5405 -134.5  46.893  127.3  0.0134   54.4  0.5540  -70.6
 0.065  0.5482 -137.3  44.771  125.9  0.0139   53.6  0.5310  -73.2
 0.070  0.5572 -140.0  42.680  124.4  0.0144   52.9  0.5092  -76.1
 0.075  0.5674 -142.6  40.623  122.6  0.0149   52.3  0.4887  -79.1
 0.080  0.5788 -145.1  38.606  120.7  0.0154   51.7  0.4698  -82.5
 0.085  0.5912 -147.5  36.637  118.6  0.0158   51.1  0.4526  -86.1
 0.090  0.6046 -149.8  34.721  116.3  0.0163   50.6  0.4374  -90.0
 0.095  0.6189 -152.0  32.871  113.7  0.0168   50.1  0.4243  -94.1
 0.100  0.6341 -154.1  31.096  110.8  0.0173   49.6  0.4136  -98.5
 0.105  0.6363 -155.2  30.130  110.2  0.0176   49.9  0.4043 -100.0
 0.110  0.6388 -156.3  29.169  109.5  0.0179   50.3  0.3952 -101.5
 0.115  0.6415 -157.4  28.212  108.7  0.0183   50.6  0.3864 -103.2
 0.120  0.6444 -158.5  27.259  107.9  0.0186   50.9  0.3780 -104.9
 0.125  0.6476 -159.6  26.313  107.1  0.0189   51.2  0.3699 -106.6
 0.130  0.6510 -160.7  25.372  106.2  0.0192   51.5  0.3622 -108.5
 0.135  0.6546 -161.8  24.438  105.2  0.0195   51.8  0.3549 -110.4
 0.140  0.6584 -162.8  23.512  104.2  0.0199   52.1  0.3480 -112.4
 0.145  0.6625 -163.9  22.595  103.0  0.0202   52.3  0.3416 -114.5
 0.150  0.6668 -164.9  21.687  101.8  0.0205   52.6  0.3356 -116.7
 0.155  0.6670 -165.6  21.169  101.4  0.0208   53.0  0.3314 -117.8
 0.160  0.6672 -166.3  20.653  100.9  0.0212   53.3  0.3273 -118.9
 0.165  0.6675 -167.0  20.138  100.4  0.0215   53.7  0.3234 -120.0
 0.170  0.6680 -167.6  19.624   99.9  0.0219   54.0  0.3196 -121.1
 0.175  0.6685 -168.3  19.112   99.4  0.0222   54.4  0.3159 -122.3
 0.180  0.6691 -169.0  18.601   98.9  0.0226   54.7  0.3123 -123.5
 0.185  0.6699 -169.7  18.093   98.3  0.0229   55.0  0.3089 -124.7
 0.190  0.6707 -170.4  17.586   97.7  0.0233   55.3  0.3057 -126.0
 0.195  0.6716 -171.0  17.082   97.0  0.0236   55.6  0.3026 -127.3
 0.200  0.6726 -171.7  16.580   96.3  0.0240   55.9  0.2996 -128.6
 0.220  0.6759 -173.5  15.245   95.0  0.0254   57.0  0.2910 -132.1
 0.240  0.6798 -175.3  13.920   93.5  0.0269   58.0  0.2836 -135.7
 0.260  0.6820 -176.9  12.834   92.1  0.0284   59.0  0.2780 -138.7
 0.280  0.6824 -178.3  11.982   91.0  0.0301   60.0  0.2738 -141.0
 0.300  0.6831 -179.7  11.135   89.8  0.0318   61.0  0.2700 -143.3
 0.320  0.6842  179.2  10.590   89.1  0.0333   61.5  0.2672 -144.9
 0.340  0.6855  178.0  10.046   88.3  0.0348   62.0  0.2647 -146.6
 0.360  0.6871  176.9   9.505   87.5  0.0363   62.4  0.2623 -148.3
 0.380  0.6890  175.8   8.966   86.5  0.0378   62.8  0.2602 -150.0
 0.400  0.6911  174.7   8.430   85.4  0.0393   63.2  0.2584 -151.8
 0.420  0.6904  173.8   8.091   84.8  0.0408   63.5  0.2574 -152.9
 0.440  0.6899  172.9   7.752   84.0  0.0423   63.8  0.2565 -154.1
 0.450  0.6896  172.5   7.584   83.7  0.0430   64.0  0.2561 -154.6
 0.460  0.6895  172.1   7.415   83.3  0.0438   64.1  0.2557 -155.2
 0.480  0.6893  171.2   7.080   82.4  0.0453   64.4  0.2550 -156.3
 0.500  0.6892  170.3   6.746   81.5  0.0468   64.6  0.2544 -157.5
 0.520  0.6895  169.5   6.520   80.8  0.0485   64.7  0.2541 -158.2
 0.540  0.6900  168.7   6.295   80.1  0.0502   64.9  0.2538 -158.9
 0.560  0.6906  167.8   6.071   79.4  0.0519   65.0  0.2536 -159.7
 0.580  0.6913  167.0   5.848   78.6  0.0536   65.1  0.2534 -160.4
 0.600  0.6922  166.2   5.626   77.7  0.0553   65.2  0.2532 -161.1
 0.620  0.6921  165.3   5.465   77.0  0.0570   65.2  0.2533 -161.7
 0.640  0.6922  164.4   5.305   76.4  0.0587   65.1  0.2534 -162.3
 0.660  0.6924  163.6   5.146   75.6  0.0603   65.1  0.2535 -162.8
 0.680  0.6928  162.7   4.988   74.8  0.0620   65.0  0.2537 -163.4
 0.700  0.6934  161.8   4.831   74.0  0.0637   65.0  0.2539 -164.0
 0.720  0.6940  161.2   4.710   73.5  0.0654   64.8  0.2540 -164.4
 0.740  0.6947  160.6   4.589   72.9  0.0671   64.5  0.2542 -164.9
 0.760  0.6954  159.9   4.469   72.4  0.0687   64.3  0.2544 -165.3
 0.780  0.6963  159.3   4.349   71.7  0.0704   64.1  0.2546 -165.8
 0.800  0.6972  158.7   4.230   71.1  0.0721   63.9  0.2548 -166.2
 0.820  0.6969  157.9   4.136   70.5  0.0738   63.8  0.2549 -166.6
 0.840  0.6968  157.2   4.043   69.9  0.0754   63.7  0.2550 -167.0
 0.860  0.6968  156.4   3.950   69.3  0.0771   63.6  0.2551 -167.5
 0.880  0.6969  155.7   3.857   68.7  0.0787   63.6  0.2552 -167.9
 0.900  0.6971  154.9   3.765   68.0  0.0804   63.5  0.2553 -168.3
 0.920  0.6965  154.1   3.690   67.4  0.0820   63.3  0.2558 -168.6
 0.940  0.6960  153.4   3.615   66.9  0.0835   63.1  0.2562 -169.0
 0.960  0.6957  152.6   3.541   66.3  0.0851   62.9  0.2567 -169.3
 0.980  0.6954  151.9   3.467   65.7  0.0866   62.7  0.2572 -169.7
 1.000  0.6953  151.1   3.394   65.0  0.0882   62.5  0.2577 -170.0
 1.020  0.6962  150.4   3.334   64.5  0.0898   62.2  0.2584 -170.3
 1.040  0.6971  149.8   3.274   63.9  0.0914   62.0  0.2591 -170.6
 1.060  0.6981  149.1   3.214   63.3  0.0929   61.8  0.2598 -170.8
 1.080  0.6993  148.5   3.155   62.7  0.0945   61.5  0.2606 -171.1
 1.100  0.7005  147.8   3.096   62.1  0.0961   61.3  0.2613 -171.4
 1.120  0.7018  147.1   3.045   61.6  0.0978   61.1  0.2619 -171.7
 1.140  0.7032  146.4   2.994   61.0  0.0995   60.9  0.2625 -172.0
 1.160  0.7047  145.7   2.943   60.5  0.1011   60.7  0.2631 -172.2
 1.180  0.7063  145.0   2.892   59.9  0.1028   60.5  0.2637 -172.5
 1.200  0.7080  144.3   2.842   59.3  0.1045   60.3  0.2643 -172.8
 1.220  0.7085  143.6   2.798   58.7  0.1061   60.0  0.2648 -173.1
 1.240  0.7090  143.0   2.754   58.2  0.1077   59.6  0.2654 -173.3
 1.260  0.7096  142.3   2.710   57.6  0.1093   59.3  0.2660 -173.6
 1.280  0.7104  141.7   2.667   56.9  0.1110   59.0  0.2665 -173.8
 1.300  0.7112  141.0   2.624   56.3  0.1126   58.7  0.2671 -174.1
 1.320  0.7120  140.5   2.586   55.8  0.1140   58.4  0.2677 -174.3
 1.340  0.7128  140.0   2.548   55.4  0.1154   58.2  0.2683 -174.5
 1.360  0.7137  139.4   2.511   54.9  0.1167   58.0  0.2689 -174.8
 1.380  0.7147  138.9   2.473   54.4  0.1181   57.7  0.2695 -175.0
 1.400  0.7157  138.4   2.436   53.9  0.1195   57.5  0.2701 -175.2
 1.420  0.7154  137.8   2.408   53.4  0.1211   57.2  0.2710 -175.4
 1.440  0.7152  137.2   2.379   52.8  0.1227   56.9  0.2719 -175.6
 1.460  0.7151  136.7   2.351   52.3  0.1243   56.6  0.2728 -175.9
 1.480  0.7150  136.1   2.324   51.7  0.1259   56.4  0.2737 -176.1
 1.500  0.7150  135.5   2.296   51.1  0.1275   56.1  0.2746 -176.3
 1.520  0.7160  134.9   2.264   50.6  0.1290   55.8  0.2755 -176.6
 1.540  0.7171  134.2   2.232   50.0  0.1305   55.5  0.2764 -176.9
 1.560  0.7183  133.6   2.201   49.4  0.1320   55.2  0.2773 -177.2
 1.580  0.7195  132.9   2.169   48.8  0.1335   55.0  0.2783 -177.5
 1.600  0.7209  132.3   2.138   48.2  0.1350   54.7  0.2792 -177.8
 1.620  0.7220  131.7   2.114   47.7  0.1364   54.4  0.2799 -178.1
 1.640  0.7231  131.0   2.089   47.1  0.1378   54.0  0.2806 -178.4
 1.660  0.7244  130.4   2.065   46.6  0.1392   53.7  0.2813 -178.6
 1.680  0.7258  129.7   2.042   46.0  0.1406   53.4  0.2820 -178.9
 1.700  0.7272  129.1   2.018   45.4  0.1420   53.1  0.2827 -179.2
 1.720  0.7284  128.5   1.997   45.0  0.1434   52.8  0.2834 -179.4
 1.740  0.7297  128.0   1.976   44.5  0.1449   52.5  0.2840 -179.6
 1.760  0.7310  127.4   1.956   44.1  0.1463   52.2  0.2847 -179.7
 1.780  0.7324  126.9   1.935   43.7  0.1478   51.9  0.2853 -179.9
 1.800  0.7339  126.3   1.915   43.2  0.1492   51.6  0.2860  179.9
 1.820  0.7339  125.8   1.895   42.7  0.1506   51.3  0.2873  179.7
 1.840  0.7339  125.3   1.876   42.2  0.1520   51.0  0.2887  179.4
 1.860  0.7339  124.9   1.856   41.6  0.1534   50.7  0.2900  179.2
 1.880  0.7340  124.4   1.837   41.1  0.1549   50.5  0.2913  178.9
 1.900  0.7342  123.9   1.818   40.5  0.1563   50.2  0.2927  178.7
 1.920  0.7356  123.4   1.799   40.0  0.1577   49.8  0.2937  178.4
 1.940  0.7370  122.9   1.780   39.6  0.1590   49.5  0.2947  178.0
 1.960  0.7385  122.3   1.761   39.1  0.1604   49.2  0.2957  177.7
 1.980  0.7400  121.8   1.743   38.6  0.1618   48.8  0.2968  177.3
 2.000  0.7416  121.3   1.724   38.1  0.1632   48.5  0.2978  177.0
 2.020  0.7414  120.7   1.708   37.7  0.1645   48.2  0.2988  176.7
 2.040  0.7413  120.2   1.691   37.2  0.1658   47.9  0.2998  176.5
 2.060  0.7413  119.6   1.675   36.7  0.1671   47.5  0.3007  176.2
 2.080  0.7413  119.1   1.659   36.3  0.1685   47.2  0.3017  176.0
 2.100  0.7414  118.5   1.643   35.8  0.1698   46.9  0.3027  175.7
 2.120  0.7416  118.0   1.627   35.3  0.1711   46.6  0.3037  175.5
 2.140  0.7418  117.4   1.611   34.8  0.1725   46.4  0.3047  175.2
 2.160  0.7421  116.9   1.596   34.3  0.1738   46.1  0.3058  175.0
 2.180  0.7425  116.3   1.580   33.7  0.1751   45.8  0.3068  174.7
 2.200  0.7429  115.8   1.565   33.2  0.1765   45.5  0.3078  174.5
 2.220  0.7441  115.2   1.552   32.7  0.1777   45.2  0.3091  174.2
 2.240  0.7454  114.6   1.540   32.2  0.1790   44.9  0.3104  173.8
 2.260  0.7468  114.1   1.527   31.7  0.1802   44.6  0.3116  173.5
 2.280  0.7482  113.5   1.515   31.2  0.1814   44.3  0.3130  173.1
 2.300  0.7497  112.9   1.503   30.7  0.1827   43.9  0.3143  172.8
 2.320  0.7513  112.4   1.491   30.2  0.1839   43.7  0.3156  172.5
 2.340  0.7530  111.8   1.479   29.6  0.1852   43.4  0.3169  172.2
 2.360  0.7547  111.2   1.467   29.1  0.1865   43.1  0.3183  171.8
 2.380  0.7565  110.7   1.456   28.6  0.1877   42.8  0.3196  171.5
 2.400  0.7584  110.1   1.444   28.0  0.1890   42.5  0.3210  171.2
 2.420  0.7589  109.6   1.432   27.6  0.1901   42.2  0.3221  170.9
 2.440  0.7595  109.2   1.420   27.2  0.1912   41.9  0.3231  170.7
 2.460  0.7601  108.7   1.408   26.8  0.1924   41.5  0.3242  170.4
 2.480  0.7607  108.2   1.396   26.3  0.1935   41.2  0.3253  170.1
 2.500  0.7615  107.7   1.384   25.9  0.1946   40.9  0.3264  169.9
 2.520  0.7622  107.3   1.372   25.5  0.1958   40.6  0.3275  169.6
 2.540  0.7630  106.8   1.361   25.0  0.1969   40.3  0.3286  169.4
 2.560  0.7639  106.3   1.349   24.5  0.1981   40.0  0.3297  169.1
 2.580  0.7648  105.9   1.337   24.1  0.1992   39.7  0.3308  168.9
 2.600  0.7658  105.4   1.326   23.6  0.2004   39.4  0.3319  168.6
 2.620  0.7666  104.9   1.317   23.2  0.2015   39.1  0.3335  168.3
 2.640  0.7674  104.4   1.308   22.8  0.2026   38.8  0.3350  168.0
 2.660  0.7683  103.9   1.299   22.4  0.2036   38.5  0.3366  167.6
 2.680  0.7692  103.5   1.290   22.0  0.2047   38.2  0.3382  167.3
 2.700  0.7702  103.0   1.281   21.5  0.2058   37.9  0.3398  167.0
 2.720  0.7713  102.5   1.272   21.1  0.2069   37.6  0.3414  166.7
 2.740  0.7724  102.0   1.263   20.7  0.2080   37.3  0.3430  166.4
 2.760  0.7735  101.5   1.254   20.2  0.2092   37.1  0.3446  166.1
 2.780  0.7747  101.1   1.246   19.8  0.2103   36.8  0.3463  165.8
 2.800  0.7760  100.6   1.237   19.3  0.2114   36.5  0.3479  165.5
 2.820  0.7765  100.2   1.228   18.9  0.2124   36.2  0.3491  165.2
 2.840  0.7771   99.7   1.219   18.5  0.2134   35.9  0.3503  164.9
 2.860  0.7777   99.3   1.210   18.0  0.2144   35.5  0.3516  164.6
 2.880  0.7784   98.9   1.201   17.6  0.2154   35.2  0.3528  164.4
 2.900  0.7791   98.4   1.192   17.1  0.2165   34.9  0.3540  164.1
 2.920  0.7799   98.0   1.183   16.7  0.2175   34.6  0.3553  163.8
 2.940  0.7806   97.6   1.174   16.2  0.2185   34.3  0.3566  163.5
 2.960  0.7815   97.2   1.165   15.8  0.2196   34.0  0.3578  163.2
 2.980  0.7824   96.7   1.157   15.3  0.2206   33.7  0.3591  163.0
 3.000  0.7833   96.3   1.148   14.8  0.2217   33.4  0.3604  162.7
 3.100  0.7869   94.3   1.111   13.2  0.2258   31.9  0.3672  161.1
 3.200  0.7914   92.3   1.075   11.4  0.2300   30.4  0.3743  159.6
 3.300  0.7969   90.4   1.041    9.5  0.2344   29.0  0.3816  158.2
 3.400  0.8033   88.5   1.007    7.5  0.2389   27.7  0.3892  156.7
 3.500  0.8105   86.6   0.975    5.4  0.2435   26.4  0.3970  155.4
 3.600  0.8114   84.8   0.948    3.9  0.2469   25.1  0.4039  154.0
 3.700  0.8130   83.1   0.921    2.3  0.2505   23.8  0.4110  152.6
 3.800  0.8154   81.3   0.896    0.6  0.2542   22.6  0.4183  151.3
 3.900  0.8186   79.6   0.871   -1.1  0.2580   21.4  0.4259  150.0
 4.000  0.8225   77.9   0.847   -3.0  0.2619   20.2  0.4336  148.8
 4.100  0.8245   76.4   0.827   -4.3  0.2653   19.0  0.4391  147.6
 4.200  0.8271   74.9   0.808   -5.6  0.2688   17.8  0.4447  146.4
 4.300  0.8302   73.5   0.790   -7.1  0.2724   16.6  0.4506  145.2
 4.400  0.8338   72.0   0.772   -8.5  0.2761   15.5  0.4566  144.1
 4.500  0.8380   70.6   0.754  -10.1  0.2799   14.4  0.4628  143.0
 4.600  0.8392   69.3   0.739  -11.3  0.2828   13.3  0.4676  142.0
 4.700  0.8407   68.1   0.725  -12.5  0.2858   12.1  0.4726  140.9
 4.800  0.8427   66.8   0.710  -13.7  0.2889   11.0  0.4777  139.9
 4.900  0.8451   65.5   0.696  -15.0  0.2921   10.0  0.4830  139.0
 5.000  0.8479   64.3   0.683  -16.4  0.2954    8.9  0.4884  138.0
 5.100  0.8500   63.1   0.671  -17.4  0.2984    7.8  0.4935  136.9
 5.200  0.8525   62.0   0.659  -18.4  0.3016    6.7  0.4988  135.9
 5.300  0.8553   60.9   0.647  -19.5  0.3048    5.7  0.5043  134.8
 5.400  0.8584   59.7   0.636  -20.6  0.3082    4.6  0.5099  133.8
 5.500  0.8619   58.6   0.625  -21.8  0.3116    3.6  0.5157  132.8
 5.600  0.8608   57.5   0.616  -22.7  0.3143    2.4  0.5203  131.7
 5.700  0.8601   56.4   0.607  -23.7  0.3171    1.2  0.5251  130.7
 5.800  0.8597   55.2   0.599  -24.7  0.3201    0.1  0.5300  129.7
 5.900  0.8596   54.1   0.590  -25.7  0.3232   -1.1  0.5351  128.7
 6.000  0.8598   53.0   0.582  -26.8  0.3264   -2.2  0.5404  127.7
!
!  f       NFmin   Gammaopt  rn/50
! GHz       dB    MAG  ANG    -
!
! noise parameter not available yet for this operation point!
!
! (c) 2016  Infineon Technologies AG, Munich
