! Infineon Technologies  Discrete & RF Semiconductors
! BFP183
! VCE = 1.5 V,  IC =  25 mA
! Common Emitter S-Parameters:                            Jan 2016
# GHz  S  MA  R  50
!  f         S11            S21            S12            S22
! GHz     MAG   ANG      MAG   ANG      MAG   ANG      MAG   ANG
 0.010  0.3717  -12.8  38.815  175.0  0.0020   77.9  0.9283   -3.7
 0.015  0.3745  -19.4  38.700  172.6  0.0031   80.3  0.9220   -5.7
 0.020  0.3822  -25.9  38.653  170.2  0.0042   81.5  0.9168   -7.7
 0.025  0.3779  -31.5  38.083  167.9  0.0051   79.3  0.9056   -9.4
 0.030  0.3774  -37.2  37.574  165.6  0.0061   77.8  0.8953  -11.2
 0.035  0.3805  -42.9  37.128  163.2  0.0070   76.7  0.8858  -13.0
 0.040  0.3874  -48.4  36.748  160.8  0.0080   75.9  0.8773  -14.9
 0.045  0.3976  -53.7  36.435  158.3  0.0089   75.2  0.8696  -16.8
 0.050  0.4111  -58.7  36.192  155.8  0.0099   74.7  0.8630  -18.7
 0.055  0.4082  -62.8  35.399  154.3  0.0105   72.2  0.8474  -19.8
 0.060  0.4074  -67.0  34.632  152.7  0.0111   69.9  0.8321  -21.0
 0.065  0.4087  -71.2  33.892  151.0  0.0117   67.9  0.8171  -22.3
 0.070  0.4122  -75.3  33.182  149.3  0.0123   66.1  0.8026  -23.5
 0.075  0.4178  -79.3  32.503  147.5  0.0130   64.4  0.7885  -24.9
 0.080  0.4254  -83.2  31.858  145.6  0.0136   62.9  0.7748  -26.2
 0.085  0.4349  -87.0  31.248  143.7  0.0143   61.6  0.7616  -27.6
 0.090  0.4462  -90.5  30.676  141.7  0.0149   60.4  0.7488  -29.1
 0.095  0.4591  -93.9  30.144  139.6  0.0156   59.2  0.7366  -30.6
 0.100  0.4735  -97.1  29.653  137.4  0.0163   58.2  0.7249  -32.2
 0.105  0.4742  -99.6  29.045  136.3  0.0167   57.4  0.7120  -32.8
 0.110  0.4758 -102.0  28.446  135.2  0.0171   56.7  0.6992  -33.5
 0.115  0.4782 -104.5  27.859  134.1  0.0175   56.0  0.6866  -34.2
 0.120  0.4815 -106.9  27.284  132.9  0.0179   55.3  0.6740  -34.9
 0.125  0.4857 -109.3  26.720  131.7  0.0183   54.7  0.6615  -35.7
 0.130  0.4906 -111.6  26.170  130.4  0.0187   54.1  0.6492  -36.5
 0.135  0.4964 -113.9  25.634  129.0  0.0191   53.5  0.6369  -37.3
 0.140  0.5029 -116.1  25.113  127.6  0.0196   52.9  0.6249  -38.1
 0.145  0.5102 -118.3  24.607  126.1  0.0200   52.4  0.6129  -39.0
 0.150  0.5182 -120.4  24.119  124.6  0.0204   51.9  0.6011  -39.9
 0.155  0.5192 -122.0  23.667  123.8  0.0206   51.7  0.5918  -40.3
 0.160  0.5206 -123.6  23.220  123.1  0.0208   51.4  0.5824  -40.6
 0.165  0.5224 -125.2  22.777  122.2  0.0211   51.2  0.5732  -41.0
 0.170  0.5246 -126.8  22.339  121.4  0.0213   51.0  0.5639  -41.4
 0.175  0.5272 -128.4  21.906  120.5  0.0215   50.7  0.5546  -41.8
 0.180  0.5302 -129.9  21.478  119.6  0.0217   50.5  0.5454  -42.2
 0.185  0.5336 -131.4  21.057  118.6  0.0219   50.3  0.5363  -42.6
 0.190  0.5374 -132.9  20.641  117.6  0.0222   50.1  0.5271  -43.1
 0.195  0.5415 -134.4  20.232  116.6  0.0224   49.9  0.5180  -43.5
 0.200  0.5460 -135.9  19.830  115.5  0.0226   49.7  0.5089  -44.0
 0.220  0.5497 -139.9  18.514  113.1  0.0233   49.0  0.4824  -44.7
 0.240  0.5561 -143.8  17.235  110.4  0.0240   48.4  0.4559  -45.6
 0.260  0.5616 -147.3  16.145  108.1  0.0248   48.0  0.4332  -46.1
 0.280  0.5658 -150.4  15.223  106.3  0.0258   47.9  0.4141  -46.5
 0.300  0.5715 -153.4  14.318  104.3  0.0268   47.7  0.3950  -46.8
 0.320  0.5731 -155.7  13.649  103.1  0.0274   47.9  0.3829  -46.9
 0.340  0.5756 -157.9  12.987  101.7  0.0280   48.1  0.3708  -46.9
 0.360  0.5789 -160.1  12.333  100.2  0.0286   48.3  0.3587  -47.0
 0.380  0.5831 -162.3  11.689   98.5  0.0292   48.4  0.3466  -47.0
 0.400  0.5882 -164.5  11.056   96.6  0.0298   48.6  0.3345  -47.1
 0.420  0.5875 -166.1  10.618   95.6  0.0305   48.8  0.3272  -47.0
 0.440  0.5874 -167.8  10.184   94.6  0.0313   49.0  0.3199  -47.0
 0.450  0.5874 -168.6   9.968   94.1  0.0316   49.1  0.3162  -46.9
 0.460  0.5877 -169.4   9.753   93.5  0.0320   49.2  0.3126  -46.9
 0.480  0.5884 -171.1   9.327   92.2  0.0328   49.4  0.3053  -46.8
 0.500  0.5897 -172.7   8.905   90.9  0.0335   49.6  0.2980  -46.7
 0.520  0.5908 -173.9   8.629   90.1  0.0342   50.1  0.2935  -46.6
 0.540  0.5921 -175.2   8.354   89.3  0.0349   50.6  0.2890  -46.6
 0.560  0.5937 -176.4   8.081   88.4  0.0356   51.1  0.2846  -46.5
 0.580  0.5956 -177.6   7.810   87.4  0.0363   51.6  0.2801  -46.5
 0.600  0.5977 -178.8   7.542   86.4  0.0370   52.0  0.2756  -46.4
 0.620  0.5974 -179.9   7.323   85.7  0.0377   52.3  0.2726  -46.4
 0.640  0.5973  178.9   7.106   84.9  0.0384   52.7  0.2695  -46.4
 0.660  0.5974  177.8   6.890   84.2  0.0392   53.0  0.2665  -46.3
 0.680  0.5978  176.6   6.675   83.3  0.0399   53.3  0.2634  -46.3
 0.700  0.5984  175.5   6.462   82.4  0.0406   53.6  0.2604  -46.3
 0.720  0.5990  174.6   6.309   81.7  0.0413   53.8  0.2586  -46.4
 0.740  0.5997  173.7   6.157   81.1  0.0421   53.9  0.2567  -46.4
 0.760  0.6005  172.8   6.006   80.3  0.0428   54.0  0.2549  -46.5
 0.780  0.6015  171.9   5.856   79.6  0.0436   54.2  0.2530  -46.5
 0.800  0.6027  171.0   5.707   78.8  0.0443   54.3  0.2512  -46.6
 0.820  0.6034  170.2   5.582   78.2  0.0452   54.4  0.2498  -46.7
 0.840  0.6042  169.4   5.458   77.6  0.0460   54.6  0.2484  -46.8
 0.860  0.6052  168.5   5.335   77.0  0.0469   54.7  0.2469  -47.0
 0.880  0.6063  167.7   5.212   76.4  0.0477   54.8  0.2455  -47.1
 0.900  0.6075  166.9   5.090   75.7  0.0486   54.9  0.2441  -47.2
 0.920  0.6082  166.0   4.983   75.1  0.0493   54.9  0.2429  -47.4
 0.940  0.6091  165.2   4.877   74.4  0.0501   55.0  0.2417  -47.5
 0.960  0.6101  164.3   4.771   73.8  0.0508   55.0  0.2404  -47.7
 0.980  0.6113  163.5   4.666   73.0  0.0516   55.1  0.2392  -47.8
 1.000  0.6126  162.6   4.562   72.3  0.0523   55.1  0.2380  -48.0
 1.020  0.6134  161.9   4.482   71.7  0.0532   55.2  0.2370  -48.3
 1.040  0.6143  161.2   4.402   71.1  0.0541   55.3  0.2361  -48.5
 1.060  0.6153  160.6   4.323   70.5  0.0551   55.3  0.2351  -48.8
 1.080  0.6163  159.9   4.244   69.9  0.0560   55.4  0.2342  -49.0
 1.100  0.6175  159.2   4.166   69.2  0.0569   55.5  0.2332  -49.3
 1.120  0.6176  158.5   4.094   68.7  0.0576   55.5  0.2327  -49.5
 1.140  0.6177  157.8   4.023   68.2  0.0583   55.5  0.2321  -49.8
 1.160  0.6180  157.0   3.952   67.6  0.0591   55.4  0.2316  -50.0
 1.180  0.6183  156.3   3.881   67.1  0.0598   55.4  0.2311  -50.3
 1.200  0.6188  155.6   3.811   66.5  0.0605   55.4  0.2306  -50.5
 1.220  0.6191  155.0   3.751   66.0  0.0614   55.4  0.2300  -50.8
 1.240  0.6194  154.4   3.691   65.4  0.0623   55.4  0.2294  -51.1
 1.260  0.6199  153.9   3.632   64.8  0.0632   55.5  0.2288  -51.5
 1.280  0.6204  153.3   3.573   64.2  0.0641   55.5  0.2283  -51.8
 1.300  0.6209  152.7   3.515   63.6  0.0650   55.5  0.2277  -52.1
 1.320  0.6218  152.0   3.467   63.1  0.0658   55.5  0.2272  -52.4
 1.340  0.6229  151.4   3.420   62.6  0.0666   55.4  0.2268  -52.8
 1.360  0.6240  150.7   3.373   62.1  0.0674   55.4  0.2263  -53.1
 1.380  0.6251  150.1   3.326   61.6  0.0682   55.3  0.2258  -53.5
 1.400  0.6264  149.4   3.280   61.1  0.0690   55.3  0.2254  -53.8
 1.420  0.6272  148.8   3.236   60.5  0.0699   55.2  0.2251  -54.1
 1.440  0.6280  148.2   3.192   59.9  0.0708   55.1  0.2247  -54.4
 1.460  0.6289  147.6   3.148   59.3  0.0716   54.9  0.2244  -54.7
 1.480  0.6299  147.0   3.105   58.7  0.0725   54.8  0.2241  -55.0
 1.500  0.6309  146.4   3.062   58.0  0.0734   54.7  0.2238  -55.3
 1.520  0.6316  145.8   3.024   57.5  0.0742   54.6  0.2235  -55.7
 1.540  0.6323  145.2   2.987   57.0  0.0750   54.5  0.2232  -56.1
 1.560  0.6331  144.5   2.949   56.5  0.0758   54.4  0.2229  -56.6
 1.580  0.6340  143.9   2.912   56.0  0.0766   54.3  0.2227  -57.0
 1.600  0.6350  143.3   2.875   55.5  0.0774   54.2  0.2224  -57.4
 1.620  0.6361  142.7   2.838   55.0  0.0783   54.1  0.2222  -57.8
 1.640  0.6372  142.1   2.802   54.5  0.0792   54.0  0.2219  -58.3
 1.660  0.6384  141.4   2.766   54.0  0.0800   53.8  0.2217  -58.7
 1.680  0.6397  140.8   2.730   53.4  0.0809   53.7  0.2215  -59.2
 1.700  0.6410  140.2   2.694   52.9  0.0818   53.6  0.2213  -59.6
 1.720  0.6422  139.6   2.662   52.4  0.0826   53.5  0.2208  -60.1
 1.740  0.6435  139.1   2.631   51.9  0.0834   53.4  0.2202  -60.5
 1.760  0.6448  138.5   2.600   51.4  0.0841   53.3  0.2197  -61.0
 1.780  0.6462  138.0   2.569   50.8  0.0849   53.2  0.2192  -61.4
 1.800  0.6476  137.4   2.538   50.3  0.0857   53.1  0.2187  -61.9
 1.820  0.6485  136.8   2.510   49.8  0.0865   52.9  0.2184  -62.3
 1.840  0.6494  136.3   2.482   49.4  0.0873   52.6  0.2181  -62.7
 1.860  0.6504  135.7   2.454   48.9  0.0881   52.4  0.2178  -63.1
 1.880  0.6514  135.2   2.426   48.4  0.0889   52.2  0.2176  -63.5
 1.900  0.6525  134.6   2.399   47.9  0.0897   52.0  0.2173  -63.9
 1.920  0.6528  134.0   2.372   47.4  0.0904   51.9  0.2171  -64.4
 1.940  0.6533  133.4   2.346   46.9  0.0911   51.8  0.2170  -64.9
 1.960  0.6537  132.9   2.320   46.4  0.0918   51.6  0.2168  -65.4
 1.980  0.6543  132.3   2.294   45.8  0.0925   51.5  0.2167  -65.9
 2.000  0.6549  131.7   2.268   45.3  0.0932   51.4  0.2166  -66.4
 2.020  0.6557  131.2   2.247   44.8  0.0940   51.2  0.2162  -66.9
 2.040  0.6566  130.7   2.227   44.4  0.0949   51.1  0.2158  -67.4
 2.060  0.6576  130.2   2.206   43.9  0.0957   50.9  0.2154  -68.0
 2.080  0.6585  129.8   2.186   43.4  0.0966   50.7  0.2150  -68.5
 2.100  0.6596  129.3   2.166   43.0  0.0974   50.6  0.2147  -69.0
 2.120  0.6606  128.8   2.146   42.5  0.0982   50.4  0.2143  -69.6
 2.140  0.6618  128.3   2.126   42.0  0.0991   50.3  0.2140  -70.1
 2.160  0.6629  127.8   2.107   41.5  0.0999   50.1  0.2137  -70.6
 2.180  0.6641  127.4   2.087   40.9  0.1008   49.9  0.2135  -71.2
 2.200  0.6654  126.9   2.068   40.4  0.1016   49.8  0.2132  -71.7
 2.220  0.6663  126.4   2.050   40.0  0.1024   49.6  0.2129  -72.3
 2.240  0.6673  125.8   2.031   39.5  0.1031   49.4  0.2126  -72.8
 2.260  0.6683  125.3   2.013   39.1  0.1039   49.3  0.2124  -73.4
 2.280  0.6694  124.7   1.995   38.7  0.1046   49.1  0.2121  -73.9
 2.300  0.6706  124.2   1.977   38.2  0.1054   48.9  0.2119  -74.5
 2.320  0.6718  123.6   1.960   37.7  0.1061   48.8  0.2117  -75.0
 2.340  0.6730  123.1   1.942   37.3  0.1069   48.6  0.2115  -75.6
 2.360  0.6744  122.6   1.925   36.8  0.1077   48.4  0.2114  -76.2
 2.380  0.6758  122.0   1.907   36.3  0.1084   48.3  0.2112  -76.7
 2.400  0.6772  121.5   1.890   35.8  0.1092   48.1  0.2111  -77.3
 2.420  0.6784  121.0   1.874   35.4  0.1099   47.9  0.2108  -77.9
 2.440  0.6796  120.5   1.858   34.9  0.1107   47.7  0.2104  -78.4
 2.460  0.6809  120.1   1.842   34.5  0.1114   47.5  0.2101  -79.0
 2.480  0.6822  119.6   1.827   34.1  0.1122   47.4  0.2098  -79.6
 2.500  0.6835  119.1   1.811   33.6  0.1129   47.2  0.2096  -80.2
 2.520  0.6849  118.7   1.796   33.1  0.1137   47.0  0.2093  -80.8
 2.540  0.6864  118.2   1.780   32.7  0.1144   46.8  0.2091  -81.3
 2.560  0.6879  117.7   1.765   32.2  0.1152   46.6  0.2089  -81.9
 2.580  0.6894  117.3   1.750   31.7  0.1159   46.5  0.2088  -82.5
 2.600  0.6910  116.8   1.735   31.2  0.1167   46.3  0.2086  -83.1
 2.620  0.6923  116.4   1.721   30.7  0.1174   46.1  0.2084  -83.7
 2.640  0.6935  115.9   1.707   30.3  0.1180   45.9  0.2082  -84.4
 2.660  0.6949  115.5   1.694   29.8  0.1187   45.7  0.2081  -85.0
 2.680  0.6963  115.0   1.680   29.3  0.1194   45.5  0.2080  -85.7
 2.700  0.6977  114.6   1.667   28.8  0.1201   45.3  0.2079  -86.3
 2.720  0.6991  114.1   1.654   28.3  0.1208   45.1  0.2078  -87.0
 2.740  0.7006  113.7   1.641   27.8  0.1214   44.9  0.2078  -87.6
 2.760  0.7022  113.3   1.628   27.3  0.1221   44.8  0.2077  -88.3
 2.780  0.7038  112.8   1.615   26.7  0.1228   44.6  0.2078  -88.9
 2.800  0.7054  112.4   1.602   26.2  0.1235   44.4  0.2078  -89.6
 2.820  0.7062  112.0   1.590   25.8  0.1242   44.2  0.2076  -90.2
 2.840  0.7071  111.5   1.578   25.4  0.1249   44.0  0.2074  -90.9
 2.860  0.7079  111.1   1.567   25.0  0.1256   43.8  0.2072  -91.5
 2.880  0.7089  110.7   1.555   24.6  0.1264   43.6  0.2070  -92.2
 2.900  0.7098  110.2   1.544   24.2  0.1271   43.4  0.2069  -92.8
 2.920  0.7109  109.8   1.532   23.8  0.1278   43.2  0.2068  -93.4
 2.940  0.7119  109.4   1.521   23.4  0.1285   43.0  0.2067  -94.1
 2.960  0.7130  109.0   1.509   23.0  0.1292   42.9  0.2066  -94.7
 2.980  0.7141  108.5   1.498   22.5  0.1300   42.7  0.2066  -95.4
 3.000  0.7153  108.1   1.487   22.1  0.1307   42.5  0.2066  -96.0
 3.100  0.7202  106.1   1.436   20.4  0.1340   41.5  0.2065  -99.4
 3.200  0.7259  104.2   1.386   18.5  0.1373   40.6  0.2071 -102.9
 3.300  0.7325  102.2   1.337   16.5  0.1406   39.7  0.2085 -106.3
 3.400  0.7399  100.3   1.291   14.3  0.1440   38.9  0.2106 -109.6
 3.500  0.7481   98.5   1.246   12.0  0.1474   38.1  0.2134 -112.9
 3.600  0.7524   96.9   1.209   10.3  0.1505   37.1  0.2148 -116.5
 3.700  0.7573   95.2   1.172    8.6  0.1536   36.1  0.2171 -120.0
 3.800  0.7628   93.6   1.137    6.7  0.1568   35.1  0.2201 -123.4
 3.900  0.7688   92.1   1.103    4.7  0.1600   34.2  0.2240 -126.7
 4.000  0.7755   90.5   1.071    2.6  0.1632   33.3  0.2285 -129.9
 4.100  0.7779   89.0   1.040    1.0  0.1658   32.3  0.2317 -133.3
 4.200  0.7809   87.5   1.009   -0.6  0.1685   31.3  0.2356 -136.5
 4.300  0.7844   86.1   0.980   -2.4  0.1712   30.4  0.2403 -139.7
 4.400  0.7883   84.6   0.951   -4.2  0.1739   29.5  0.2457 -142.7
 4.500  0.7928   83.2   0.924   -6.2  0.1767   28.6  0.2518 -145.6
 4.600  0.7952   82.0   0.900   -7.4  0.1794   27.9  0.2559 -148.3
 4.700  0.7979   80.9   0.877   -8.7  0.1821   27.2  0.2606 -150.9
 4.800  0.8010   79.8   0.853  -10.1  0.1848   26.6  0.2658 -153.4
 4.900  0.8043   78.6   0.831  -11.6  0.1876   25.9  0.2715 -155.8
 5.000  0.8080   77.5   0.809  -13.1  0.1904   25.3  0.2776 -158.1
 5.100  0.8106   76.5   0.792  -14.4  0.1937   24.2  0.2850 -160.5
 5.200  0.8135   75.5   0.774  -15.7  0.1972   23.1  0.2928 -162.7
 5.300  0.8166   74.5   0.758  -17.1  0.2006   22.1  0.3010 -164.8
 5.400  0.8200   73.5   0.742  -18.5  0.2042   21.1  0.3096 -166.8
 5.500  0.8236   72.5   0.726  -20.0  0.2078   20.1  0.3186 -168.7
 5.600  0.8267   71.5   0.710  -21.2  0.2103   19.1  0.3255 -170.9
 5.700  0.8300   70.5   0.694  -22.5  0.2128   18.2  0.3328 -173.0
 5.800  0.8336   69.5   0.678  -23.8  0.2154   17.2  0.3405 -175.0
 5.900  0.8374   68.6   0.663  -25.2  0.2180   16.3  0.3486 -176.9
 6.000  0.8415   67.6   0.648  -26.7  0.2207   15.4  0.3571 -178.7
!
!  f       NFmin   Gammaopt  rn/50
! GHz       dB    MAG  ANG    -
!
! noise parameter not available yet for this operation point!
!
! (c) 2016  Infineon Technologies AG, Munich
