! Infineon Technologies  Discrete & RF Semiconductors
! BFP181
! VCE = 1.0 V,  IC =  90 mA
! Common Emitter S-Parameters:                            Jan 2016
# GHz  S  MA  R  50
!  f         S11            S21            S12            S22
! GHz     MAG   ANG      MAG   ANG      MAG   ANG      MAG   ANG
 0.010  0.9630   -0.9   3.155  179.7  0.0015   89.1  0.9983   -0.2
 0.015  0.9626   -1.2   3.136  179.6  0.0026   89.1  0.9955   -0.4
 0.020  0.9623   -1.6   3.117  179.4  0.0038   89.1  0.9927   -0.7
 0.025  0.9635   -1.9   3.123  178.9  0.0046   89.1  0.9935   -0.9
 0.030  0.9646   -2.2   3.130  178.5  0.0054   89.2  0.9942   -1.1
 0.035  0.9659   -2.6   3.136  178.0  0.0061   89.2  0.9950   -1.3
 0.040  0.9671   -2.9   3.143  177.6  0.0069   89.2  0.9958   -1.5
 0.045  0.9684   -3.2   3.150  177.1  0.0077   89.2  0.9966   -1.7
 0.050  0.9697   -3.5   3.157  176.7  0.0085   89.2  0.9974   -1.9
 0.055  0.9681   -3.9   3.154  176.4  0.0093   88.2  0.9975   -2.1
 0.060  0.9665   -4.3   3.150  176.1  0.0102   87.4  0.9976   -2.3
 0.065  0.9650   -4.8   3.147  175.7  0.0110   86.8  0.9977   -2.4
 0.070  0.9635   -5.2   3.144  175.4  0.0118   86.2  0.9978   -2.6
 0.075  0.9621   -5.6   3.141  175.1  0.0127   85.7  0.9979   -2.8
 0.080  0.9608   -6.1   3.138  174.8  0.0135   85.2  0.9980   -3.0
 0.085  0.9595   -6.5   3.135  174.5  0.0144   84.8  0.9981   -3.2
 0.090  0.9582   -6.9   3.132  174.1  0.0152   84.5  0.9983   -3.3
 0.095  0.9570   -7.4   3.130  173.8  0.0161   84.2  0.9984   -3.5
 0.100  0.9559   -7.8   3.127  173.5  0.0169   83.9  0.9986   -3.7
 0.105  0.9559   -8.2   3.125  173.2  0.0177   83.7  0.9980   -3.9
 0.110  0.9560   -8.5   3.124  172.8  0.0186   83.5  0.9973   -4.1
 0.115  0.9561   -8.9   3.122  172.5  0.0194   83.3  0.9967   -4.3
 0.120  0.9562   -9.3   3.121  172.1  0.0203   83.1  0.9961   -4.5
 0.125  0.9564   -9.7   3.120  171.8  0.0211   82.9  0.9955   -4.6
 0.130  0.9566  -10.0   3.118  171.5  0.0219   82.8  0.9949   -4.8
 0.135  0.9568  -10.4   3.117  171.1  0.0228   82.7  0.9943   -5.0
 0.140  0.9571  -10.8   3.117  170.8  0.0236   82.5  0.9937   -5.2
 0.145  0.9574  -11.1   3.116  170.4  0.0245   82.4  0.9932   -5.4
 0.150  0.9578  -11.5   3.115  170.1  0.0253   82.3  0.9926   -5.6
 0.155  0.9568  -11.9   3.118  169.7  0.0261   82.0  0.9924   -5.8
 0.160  0.9558  -12.3   3.120  169.4  0.0270   81.7  0.9921   -6.0
 0.165  0.9549  -12.7   3.123  169.0  0.0278   81.4  0.9919   -6.1
 0.170  0.9540  -13.1   3.126  168.7  0.0286   81.1  0.9917   -6.3
 0.175  0.9531  -13.4   3.129  168.3  0.0294   80.9  0.9915   -6.5
 0.180  0.9523  -13.8   3.133  167.9  0.0303   80.6  0.9913   -6.7
 0.185  0.9516  -14.2   3.136  167.6  0.0311   80.4  0.9911   -6.9
 0.190  0.9509  -14.6   3.140  167.2  0.0319   80.2  0.9909   -7.0
 0.195  0.9502  -15.0   3.143  166.9  0.0328   80.0  0.9908   -7.2
 0.200  0.9496  -15.4   3.147  166.5  0.0336   79.8  0.9906   -7.4
 0.220  0.9491  -16.8   3.131  165.2  0.0366   78.7  0.9881   -8.2
 0.240  0.9491  -18.3   3.116  163.9  0.0397   77.7  0.9857   -8.9
 0.260  0.9469  -19.8   3.101  162.7  0.0429   76.7  0.9837   -9.7
 0.280  0.9425  -21.3   3.087  161.6  0.0463   75.6  0.9819  -10.4
 0.300  0.9387  -22.9   3.074  160.5  0.0498   74.7  0.9803  -11.1
 0.320  0.9341  -24.4   3.065  159.1  0.0528   73.5  0.9775  -11.8
 0.340  0.9301  -25.8   3.058  157.6  0.0558   72.5  0.9748  -12.5
 0.360  0.9268  -27.3   3.053  156.2  0.0589   71.5  0.9723  -13.2
 0.380  0.9240  -28.8   3.050  154.7  0.0619   70.7  0.9699  -13.9
 0.400  0.9219  -30.3   3.049  153.3  0.0650   69.9  0.9677  -14.6
 0.420  0.9147  -31.8   3.032  152.0  0.0678   68.7  0.9644  -15.3
 0.440  0.9082  -33.3   3.017  150.7  0.0707   67.6  0.9613  -16.0
 0.450  0.9051  -34.0   3.010  150.0  0.0721   67.1  0.9598  -16.3
 0.460  0.9022  -34.8   3.003  149.4  0.0736   66.6  0.9583  -16.7
 0.480  0.8969  -36.3   2.991  148.0  0.0765   65.7  0.9554  -17.4
 0.500  0.8923  -37.9   2.980  146.7  0.0794   64.8  0.9527  -18.1
 0.520  0.8869  -39.3   2.963  145.5  0.0821   63.7  0.9488  -18.7
 0.540  0.8820  -40.7   2.948  144.4  0.0848   62.7  0.9450  -19.4
 0.560  0.8776  -42.1   2.934  143.2  0.0875   61.7  0.9413  -20.1
 0.580  0.8737  -43.5   2.921  142.0  0.0902   60.8  0.9377  -20.7
 0.600  0.8704  -44.9   2.909  140.8  0.0930   60.0  0.9343  -21.4
 0.620  0.8639  -46.3   2.883  139.7  0.0953   59.1  0.9301  -22.0
 0.640  0.8579  -47.7   2.858  138.5  0.0976   58.2  0.9261  -22.6
 0.660  0.8524  -49.2   2.835  137.4  0.1000   57.4  0.9221  -23.2
 0.680  0.8475  -50.6   2.812  136.2  0.1023   56.6  0.9183  -23.8
 0.700  0.8431  -52.1   2.791  135.0  0.1047   55.8  0.9145  -24.4
 0.720  0.8354  -53.4   2.778  133.9  0.1068   54.9  0.9105  -25.0
 0.740  0.8281  -54.8   2.766  132.7  0.1089   54.0  0.9066  -25.5
 0.760  0.8214  -56.2   2.755  131.5  0.1110   53.1  0.9028  -26.1
 0.780  0.8151  -57.6   2.746  130.4  0.1132   52.3  0.8991  -26.6
 0.800  0.8093  -59.0   2.737  129.2  0.1154   51.5  0.8955  -27.2
 0.820  0.8023  -60.3   2.721  128.1  0.1173   50.6  0.8909  -27.7
 0.840  0.7958  -61.7   2.707  127.0  0.1192   49.7  0.8863  -28.3
 0.860  0.7898  -63.1   2.693  125.8  0.1212   48.9  0.8819  -28.8
 0.880  0.7842  -64.5   2.680  124.7  0.1232   48.1  0.8775  -29.3
 0.900  0.7791  -65.9   2.669  123.5  0.1252   47.3  0.8732  -29.9
 0.920  0.7732  -67.3   2.648  122.5  0.1268   46.5  0.8686  -30.4
 0.940  0.7678  -68.7   2.628  121.5  0.1283   45.7  0.8642  -31.0
 0.960  0.7628  -70.1   2.609  120.4  0.1299   45.0  0.8598  -31.5
 0.980  0.7583  -71.5   2.591  119.4  0.1316   44.2  0.8554  -32.0
 1.000  0.7543  -73.0   2.574  118.3  0.1332   43.5  0.8512  -32.6
 1.020  0.7471  -74.4   2.560  117.2  0.1347   42.7  0.8470  -33.1
 1.040  0.7404  -75.7   2.546  116.2  0.1363   42.0  0.8428  -33.6
 1.060  0.7341  -77.1   2.534  115.1  0.1379   41.3  0.8386  -34.1
 1.080  0.7282  -78.6   2.523  114.0  0.1395   40.6  0.8346  -34.6
 1.100  0.7228  -80.0   2.512  112.9  0.1411   39.9  0.8306  -35.1
 1.120  0.7158  -81.3   2.491  112.0  0.1423   39.1  0.8270  -35.6
 1.140  0.7091  -82.6   2.471  111.1  0.1436   38.3  0.8235  -36.1
 1.160  0.7028  -83.9   2.451  110.2  0.1449   37.6  0.8201  -36.6
 1.180  0.6969  -85.2   2.432  109.2  0.1462   36.8  0.8167  -37.1
 1.200  0.6914  -86.6   2.414  108.3  0.1476   36.1  0.8134  -37.6
 1.220  0.6861  -87.9   2.396  107.4  0.1486   35.5  0.8090  -38.0
 1.240  0.6812  -89.1   2.378  106.5  0.1496   35.0  0.8046  -38.4
 1.260  0.6766  -90.4   2.360  105.5  0.1507   34.4  0.8003  -38.8
 1.280  0.6724  -91.8   2.344  104.6  0.1517   33.8  0.7960  -39.2
 1.300  0.6685  -93.1   2.328  103.6  0.1528   33.3  0.7918  -39.6
 1.320  0.6620  -94.3   2.308  102.7  0.1538   32.6  0.7880  -40.0
 1.340  0.6557  -95.6   2.290  101.8  0.1548   32.0  0.7843  -40.5
 1.360  0.6498  -96.8   2.271  100.9  0.1558   31.4  0.7807  -40.9
 1.380  0.6442  -98.1   2.253  100.0  0.1568   30.7  0.7771  -41.4
 1.400  0.6389  -99.4   2.236   99.1  0.1579   30.1  0.7735  -41.8
 1.420  0.6338 -100.9   2.225   98.2  0.1585   29.6  0.7698  -42.1
 1.440  0.6292 -102.3   2.214   97.2  0.1592   29.1  0.7660  -42.4
 1.460  0.6249 -103.8   2.204   96.2  0.1598   28.6  0.7623  -42.8
 1.480  0.6212 -105.4   2.195   95.3  0.1605   28.2  0.7587  -43.1
 1.500  0.6178 -106.9   2.186   94.3  0.1612   27.7  0.7550  -43.4
 1.520  0.6115 -108.0   2.167   93.5  0.1620   27.2  0.7523  -43.7
 1.540  0.6054 -109.2   2.149   92.7  0.1629   26.7  0.7496  -44.0
 1.560  0.5995 -110.4   2.132   91.8  0.1637   26.2  0.7469  -44.4
 1.580  0.5939 -111.6   2.115   91.0  0.1646   25.7  0.7443  -44.7
 1.600  0.5886 -112.8   2.098   90.1  0.1655   25.2  0.7417  -45.0
 1.620  0.5841 -114.2   2.086   89.3  0.1659   24.7  0.7378  -45.4
 1.640  0.5799 -115.7   2.075   88.4  0.1663   24.2  0.7339  -45.8
 1.660  0.5761 -117.1   2.065   87.5  0.1668   23.6  0.7301  -46.2
 1.680  0.5726 -118.6   2.055   86.7  0.1672   23.1  0.7263  -46.6
 1.700  0.5696 -120.1   2.045   85.8  0.1677   22.6  0.7225  -47.0
 1.720  0.5641 -121.5   2.032   84.9  0.1681   22.2  0.7192  -47.3
 1.740  0.5590 -122.9   2.019   84.0  0.1684   21.8  0.7159  -47.6
 1.760  0.5542 -124.4   2.006   83.1  0.1688   21.4  0.7127  -47.9
 1.780  0.5497 -125.9   1.994   82.2  0.1692   21.0  0.7094  -48.2
 1.800  0.5457 -127.4   1.983   81.3  0.1696   20.6  0.7062  -48.5
 1.820  0.5426 -128.8   1.971   80.6  0.1699   20.1  0.7031  -48.9
 1.840  0.5399 -130.2   1.960   79.8  0.1703   19.5  0.7001  -49.2
 1.860  0.5374 -131.6   1.949   79.1  0.1706   19.0  0.6971  -49.6
 1.880  0.5353 -133.0   1.938   78.4  0.1710   18.4  0.6941  -49.9
 1.900  0.5335 -134.4   1.928   77.6  0.1714   17.9  0.6911  -50.3
 1.920  0.5287 -135.7   1.913   76.8  0.1718   17.6  0.6887  -50.6
 1.940  0.5242 -136.9   1.899   76.1  0.1722   17.3  0.6864  -50.8
 1.960  0.5200 -138.2   1.885   75.3  0.1726   16.9  0.6840  -51.1
 1.980  0.5160 -139.6   1.871   74.5  0.1731   16.6  0.6817  -51.3
 2.000  0.5123 -140.9   1.858   73.7  0.1735   16.3  0.6794  -51.6
 2.020  0.5094 -142.1   1.844   73.0  0.1736   15.9  0.6769  -51.9
 2.040  0.5067 -143.4   1.830   72.3  0.1738   15.5  0.6745  -52.2
 2.060  0.5042 -144.6   1.816   71.5  0.1739   15.1  0.6720  -52.6
 2.080  0.5020 -145.9   1.803   70.8  0.1741   14.6  0.6696  -52.9
 2.100  0.5000 -147.2   1.790   70.0  0.1743   14.2  0.6672  -53.2
 2.120  0.4983 -148.5   1.777   69.3  0.1745   13.8  0.6649  -53.6
 2.140  0.4968 -149.8   1.764   68.5  0.1747   13.4  0.6625  -53.9
 2.160  0.4956 -151.1   1.752   67.7  0.1749   13.0  0.6602  -54.2
 2.180  0.4947 -152.4   1.740   66.9  0.1751   12.6  0.6579  -54.6
 2.200  0.4940 -153.7   1.729   66.1  0.1753   12.2  0.6556  -54.9
 2.220  0.4915 -155.0   1.719   65.4  0.1753   11.8  0.6533  -55.2
 2.240  0.4893 -156.3   1.708   64.8  0.1752   11.5  0.6510  -55.5
 2.260  0.4873 -157.7   1.699   64.1  0.1752   11.1  0.6487  -55.8
 2.280  0.4856 -159.0   1.689   63.4  0.1752   10.7  0.6465  -56.1
 2.300  0.4842 -160.4   1.679   62.7  0.1752   10.4  0.6443  -56.4
 2.320  0.4831 -161.7   1.670   62.1  0.1752   10.0  0.6421  -56.7
 2.340  0.4822 -163.1   1.661   61.3  0.1752    9.6  0.6399  -57.0
 2.360  0.4816 -164.5   1.653   60.6  0.1752    9.2  0.6377  -57.4
 2.380  0.4813 -165.8   1.644   59.9  0.1753    8.9  0.6355  -57.7
 2.400  0.4812 -167.2   1.636   59.2  0.1753    8.5  0.6334  -58.0
 2.420  0.4803 -168.4   1.624   58.6  0.1752    8.2  0.6312  -58.3
 2.440  0.4796 -169.6   1.613   58.0  0.1751    8.0  0.6290  -58.5
 2.460  0.4792 -170.9   1.601   57.3  0.1750    7.7  0.6268  -58.8
 2.480  0.4789 -172.1   1.590   56.7  0.1749    7.4  0.6247  -59.1
 2.500  0.4789 -173.3   1.579   56.1  0.1748    7.2  0.6225  -59.3
 2.520  0.4791 -174.5   1.569   55.4  0.1747    6.9  0.6204  -59.6
 2.540  0.4795 -175.8   1.558   54.7  0.1746    6.6  0.6183  -59.9
 2.560  0.4802 -177.0   1.548   54.1  0.1745    6.3  0.6162  -60.1
 2.580  0.4810 -178.2   1.538   53.4  0.1744    6.1  0.6141  -60.4
 2.600  0.4821 -179.4   1.528   52.7  0.1743    5.8  0.6120  -60.7
 2.620  0.4811  179.4   1.519   52.1  0.1742    5.5  0.6107  -61.0
 2.640  0.4802  178.2   1.511   51.4  0.1741    5.2  0.6094  -61.3
 2.660  0.4796  177.0   1.502   50.7  0.1740    4.9  0.6081  -61.6
 2.680  0.4792  175.8   1.494   50.1  0.1740    4.6  0.6069  -61.9
 2.700  0.4791  174.6   1.486   49.4  0.1739    4.4  0.6056  -62.2
 2.720  0.4791  173.3   1.478   48.7  0.1738    4.1  0.6044  -62.5
 2.740  0.4794  172.1   1.470   48.0  0.1738    3.8  0.6032  -62.9
 2.760  0.4798  170.9   1.463   47.3  0.1737    3.5  0.6020  -63.2
 2.780  0.4805  169.7   1.456   46.6  0.1736    3.2  0.6008  -63.5
 2.800  0.4814  168.5   1.449   45.9  0.1736    2.9  0.5997  -63.8
 2.820  0.4816  167.4   1.440   45.3  0.1734    2.6  0.5981  -64.1
 2.840  0.4820  166.3   1.432   44.7  0.1732    2.3  0.5964  -64.4
 2.860  0.4825  165.2   1.423   44.1  0.1730    2.0  0.5948  -64.7
 2.880  0.4832  164.1   1.415   43.4  0.1729    1.7  0.5932  -65.0
 2.900  0.4841  163.0   1.407   42.8  0.1727    1.5  0.5916  -65.3
 2.920  0.4852  162.0   1.399   42.1  0.1725    1.2  0.5901  -65.6
 2.940  0.4864  160.9   1.392   41.5  0.1724    0.9  0.5885  -66.0
 2.960  0.4878  159.8   1.384   40.8  0.1722    0.6  0.5870  -66.3
 2.980  0.4894  158.8   1.377   40.2  0.1721    0.3  0.5855  -66.6
 3.000  0.4911  157.7   1.370   39.5  0.1719    0.0  0.5840  -66.9
 3.100  0.4909  152.9   1.328   37.0  0.1711   -0.9  0.5799  -68.5
 3.200  0.4941  148.2   1.288   34.3  0.1704   -1.8  0.5762  -70.0
 3.300  0.5007  143.5   1.251   31.5  0.1697   -2.7  0.5730  -71.6
 3.400  0.5104  139.0   1.218   28.5  0.1690   -3.6  0.5702  -73.3
 3.500  0.5232  134.7   1.188   25.3  0.1684   -4.5  0.5679  -74.9
 3.600  0.5289  131.1   1.154   23.0  0.1667   -5.1  0.5635  -76.8
 3.700  0.5367  127.6   1.121   20.6  0.1651   -5.8  0.5598  -78.7
 3.800  0.5465  124.2   1.091   18.0  0.1634   -6.4  0.5566  -80.6
 3.900  0.5581  120.9   1.063   15.3  0.1618   -7.1  0.5542  -82.5
 4.000  0.5714  117.8   1.037   12.5  0.1602   -7.8  0.5523  -84.5
 4.100  0.5771  114.9   1.008   10.5  0.1586   -8.2  0.5500  -86.6
 4.200  0.5842  112.1   0.981    8.3  0.1571   -8.7  0.5485  -88.8
 4.300  0.5926  109.4   0.954    6.1  0.1555   -9.1  0.5477  -90.9
 4.400  0.6024  106.8   0.930    3.7  0.1539   -9.5  0.5477  -93.1
 4.500  0.6134  104.2   0.907    1.2  0.1524  -10.0  0.5485  -95.2
 4.600  0.6193  102.1   0.884   -0.5  0.1510   -9.9  0.5469  -97.4
 4.700  0.6260  100.1   0.863   -2.3  0.1495   -9.8  0.5461  -99.6
 4.800  0.6334   98.1   0.842   -4.2  0.1481   -9.8  0.5461 -101.8
 4.900  0.6416   96.2   0.822   -6.2  0.1466   -9.7  0.5469 -104.0
 5.000  0.6505   94.3   0.803   -8.3  0.1452   -9.6  0.5485 -106.2
 5.100  0.6553   92.6   0.784   -9.9  0.1453   -9.2  0.5488 -108.4
 5.200  0.6606   91.0   0.765  -11.6  0.1454   -8.8  0.5500 -110.7
 5.300  0.6664   89.4   0.747  -13.4  0.1455   -8.3  0.5520 -112.9
 5.400  0.6728   87.8   0.729  -15.3  0.1457   -7.9  0.5548 -115.1
 5.500  0.6797   86.2   0.713  -17.3  0.1458   -7.5  0.5584 -117.3
 5.600  0.6857   84.7   0.697  -18.8  0.1466   -7.2  0.5592 -119.6
 5.700  0.6921   83.2   0.681  -20.3  0.1473   -6.9  0.5609 -121.9
 5.800  0.6990   81.8   0.666  -21.9  0.1481   -6.7  0.5635 -124.1
 5.900  0.7063   80.4   0.652  -23.6  0.1488   -6.4  0.5670 -126.4
 6.000  0.7140   79.0   0.638  -25.4  0.1496   -6.1  0.5713 -128.6
!
!  f       NFmin   Gammaopt  rn/50
! GHz       dB    MAG  ANG    -
!
! noise parameter not available yet for this operation point!
!
! (c) 2016  Infineon Technologies AG, Munich
