! Infineon Technologies  Discrete & RF Semiconductors
! BFP196W
! VCE = 1.0 V,  IC = 8.0mA
! Common Emitter S-Parameters:                            Jan 2016
# GHz  S  MA  R  50
!  f         S11            S21            S12            S22
! GHz     MAG   ANG      MAG   ANG      MAG   ANG      MAG   ANG
 0.010  0.7295  -13.2  23.353  172.1  0.0075   81.3  0.9725   -7.2
 0.015  0.7262  -19.8  23.399  169.6  0.0116   79.1  0.9644  -10.7
 0.020  0.7325  -26.4  23.487  167.2  0.0157   78.1  0.9600  -14.3
 0.025  0.7313  -32.6  23.137  164.3  0.0189   74.6  0.9454  -17.6
 0.030  0.7388  -38.8  22.848  161.3  0.0222   72.2  0.9341  -21.0
 0.035  0.7304  -44.4  22.352  158.6  0.0251   68.6  0.9124  -24.0
 0.040  0.7291  -50.0  21.908  155.8  0.0281   65.8  0.8932  -27.1
 0.045  0.7348  -55.6  21.520  152.8  0.0311   63.6  0.8767  -30.3
 0.050  0.7474  -61.1  21.190  149.8  0.0342   61.7  0.8631  -33.6
 0.055  0.7343  -64.9  20.607  148.2  0.0358   59.1  0.8394  -35.4
 0.060  0.7245  -68.8  20.039  146.6  0.0374   56.8  0.8165  -37.3
 0.065  0.7182  -72.8  19.490  144.8  0.0391   54.6  0.7946  -39.3
 0.070  0.7155  -76.9  18.960  143.0  0.0409   52.6  0.7736  -41.4
 0.075  0.7163  -80.9  18.450  141.0  0.0426   50.8  0.7538  -43.6
 0.080  0.7208  -85.0  17.963  139.0  0.0445   49.2  0.7352  -45.9
 0.085  0.7287  -88.9  17.501  136.8  0.0463   47.6  0.7178  -48.4
 0.090  0.7401  -92.8  17.065  134.5  0.0482   46.2  0.7018  -50.9
 0.095  0.7547  -96.5  16.658  132.1  0.0502   44.9  0.6873  -53.6
 0.100  0.7724 -100.1  16.281  129.6  0.0521   43.7  0.6744  -56.4
 0.105  0.7688 -102.4  15.887  128.6  0.0529   42.5  0.6588  -57.6
 0.110  0.7664 -104.8  15.498  127.5  0.0536   41.4  0.6436  -58.9
 0.115  0.7654 -107.1  15.115  126.4  0.0544   40.3  0.6287  -60.2
 0.120  0.7656 -109.5  14.738  125.2  0.0552   39.3  0.6141  -61.7
 0.125  0.7672 -111.9  14.367  124.0  0.0561   38.2  0.6000  -63.1
 0.130  0.7700 -114.2  14.004  122.7  0.0569   37.2  0.5862  -64.7
 0.135  0.7741 -116.5  13.648  121.3  0.0578   36.2  0.5729  -66.3
 0.140  0.7795 -118.8  13.300  119.8  0.0587   35.3  0.5601  -68.0
 0.145  0.7861 -121.1  12.962  118.3  0.0596   34.4  0.5478  -69.8
 0.150  0.7939 -123.3  12.633  116.7  0.0605   33.5  0.5360  -71.6
 0.155  0.7919 -124.7  12.362  116.0  0.0608   32.9  0.5260  -72.5
 0.160  0.7903 -126.1  12.092  115.4  0.0612   32.3  0.5161  -73.4
 0.165  0.7892 -127.5  11.825  114.6  0.0615   31.7  0.5063  -74.3
 0.170  0.7885 -128.9  11.559  113.9  0.0619   31.1  0.4967  -75.3
 0.175  0.7883 -130.3  11.295  113.1  0.0623   30.6  0.4872  -76.3
 0.180  0.7886 -131.6  11.034  112.3  0.0626   30.0  0.4779  -77.3
 0.185  0.7894 -133.0  10.774  111.4  0.0630   29.4  0.4687  -78.4
 0.190  0.7906 -134.4  10.518  110.5  0.0634   28.9  0.4597  -79.5
 0.195  0.7923 -135.8  10.264  109.6  0.0638   28.3  0.4509  -80.7
 0.200  0.7944 -137.2  10.013  108.6  0.0642   27.8  0.4423  -81.9
 0.220  0.7966 -140.9   9.325  106.5  0.0653   26.2  0.4192  -84.8
 0.240  0.8020 -144.6   8.651  104.1  0.0664   24.7  0.3972  -88.0
 0.260  0.8051 -147.8   8.056  102.0  0.0672   23.6  0.3774  -90.8
 0.280  0.8046 -150.5   7.532  100.3  0.0676   22.7  0.3589  -93.1
 0.300  0.8060 -153.3   7.016   98.4  0.0681   21.8  0.3411  -95.6
 0.320  0.8050 -155.1   6.682   97.3  0.0684   21.3  0.3314  -97.2
 0.340  0.8048 -157.0   6.350   96.1  0.0688   20.8  0.3220  -99.0
 0.360  0.8054 -158.8   6.022   94.7  0.0691   20.3  0.3129 -100.8
 0.380  0.8069 -160.7   5.697   93.2  0.0694   19.8  0.3041 -102.7
 0.400  0.8092 -162.5   5.377   91.5  0.0698   19.3  0.2957 -104.8
 0.420  0.8093 -163.8   5.169   90.6  0.0700   19.1  0.2905 -106.0
 0.440  0.8097 -165.1   4.963   89.7  0.0701   19.0  0.2855 -107.3
 0.450  0.8101 -165.7   4.860   89.2  0.0702   18.9  0.2830 -108.0
 0.460  0.8106 -166.3   4.758   88.6  0.0703   18.8  0.2806 -108.6
 0.480  0.8119 -167.6   4.554   87.5  0.0704   18.7  0.2759 -110.0
 0.500  0.8136 -168.9   4.353   86.3  0.0706   18.5  0.2713 -111.4
 0.520  0.8128 -169.8   4.209   85.5  0.0707   18.5  0.2688 -112.3
 0.540  0.8122 -170.7   4.065   84.7  0.0709   18.4  0.2664 -113.2
 0.560  0.8118 -171.7   3.922   83.9  0.0710   18.4  0.2640 -114.2
 0.580  0.8116 -172.6   3.781   82.9  0.0712   18.3  0.2617 -115.1
 0.600  0.8116 -173.5   3.640   81.9  0.0713   18.3  0.2595 -116.1
 0.620  0.8125 -174.3   3.541   81.2  0.0714   18.4  0.2583 -116.8
 0.640  0.8135 -175.1   3.443   80.5  0.0715   18.5  0.2571 -117.4
 0.660  0.8147 -175.9   3.345   79.8  0.0715   18.6  0.2559 -118.1
 0.680  0.8160 -176.7   3.248   79.0  0.0716   18.7  0.2548 -118.8
 0.700  0.8175 -177.5   3.151   78.1  0.0717   18.8  0.2537 -119.5
 0.720  0.8172 -178.2   3.070   77.4  0.0718   18.9  0.2539 -120.1
 0.740  0.8170 -178.9   2.990   76.7  0.0719   19.0  0.2541 -120.7
 0.760  0.8169 -179.5   2.910   76.0  0.0720   19.2  0.2543 -121.2
 0.780  0.8169  179.8   2.831   75.2  0.0721   19.3  0.2545 -121.8
 0.800  0.8171  179.1   2.752   74.4  0.0722   19.4  0.2548 -122.4
 0.820  0.8172  178.5   2.691   73.8  0.0723   19.6  0.2552 -122.9
 0.840  0.8174  177.9   2.631   73.2  0.0725   19.8  0.2556 -123.4
 0.860  0.8177  177.4   2.571   72.5  0.0726   20.1  0.2561 -124.0
 0.880  0.8181  176.8   2.511   71.8  0.0728   20.3  0.2565 -124.5
 0.900  0.8185  176.2   2.452   71.1  0.0729   20.5  0.2570 -125.0
 0.920  0.8177  175.7   2.403   70.5  0.0729   20.7  0.2580 -125.4
 0.940  0.8170  175.2   2.353   70.0  0.0730   21.0  0.2590 -125.8
 0.960  0.8163  174.7   2.304   69.4  0.0730   21.2  0.2601 -126.2
 0.980  0.8157  174.2   2.255   68.8  0.0731   21.5  0.2611 -126.6
 1.000  0.8151  173.7   2.207   68.1  0.0731   21.7  0.2622 -127.0
 1.020  0.8163  173.2   2.169   67.5  0.0733   21.9  0.2633 -127.3
 1.040  0.8175  172.7   2.132   66.8  0.0735   22.2  0.2645 -127.6
 1.060  0.8188  172.3   2.095   66.2  0.0738   22.4  0.2656 -128.0
 1.080  0.8202  171.8   2.058   65.5  0.0740   22.7  0.2667 -128.3
 1.100  0.8216  171.3   2.021   64.8  0.0742   22.9  0.2679 -128.6
 1.120  0.8221  170.8   1.986   64.2  0.0744   23.2  0.2695 -128.9
 1.140  0.8227  170.3   1.952   63.7  0.0746   23.4  0.2712 -129.2
 1.160  0.8233  169.9   1.918   63.1  0.0748   23.7  0.2729 -129.5
 1.180  0.8240  169.4   1.884   62.4  0.0750   23.9  0.2745 -129.8
 1.200  0.8248  168.9   1.850   61.8  0.0752   24.2  0.2762 -130.1
 1.220  0.8250  168.4   1.822   61.3  0.0754   24.6  0.2778 -130.5
 1.240  0.8253  167.9   1.795   60.7  0.0756   24.9  0.2793 -130.8
 1.260  0.8256  167.5   1.768   60.1  0.0758   25.3  0.2809 -131.2
 1.280  0.8260  167.0   1.741   59.5  0.0760   25.6  0.2825 -131.5
 1.300  0.8264  166.5   1.714   58.9  0.0762   26.0  0.2841 -131.9
 1.320  0.8266  166.1   1.690   58.4  0.0764   26.3  0.2858 -132.2
 1.340  0.8268  165.7   1.666   57.8  0.0766   26.6  0.2876 -132.5
 1.360  0.8270  165.4   1.643   57.2  0.0769   26.8  0.2894 -132.8
 1.380  0.8273  165.0   1.619   56.6  0.0771   27.1  0.2911 -133.0
 1.400  0.8276  164.6   1.596   56.0  0.0773   27.4  0.2929 -133.3
 1.420  0.8275  164.2   1.575   55.5  0.0776   27.8  0.2946 -133.6
 1.440  0.8275  163.8   1.553   55.1  0.0778   28.1  0.2963 -134.0
 1.460  0.8275  163.5   1.532   54.6  0.0781   28.5  0.2980 -134.3
 1.480  0.8275  163.1   1.511   54.1  0.0783   28.8  0.2998 -134.7
 1.500  0.8276  162.7   1.490   53.6  0.0786   29.2  0.3015 -135.0
 1.520  0.8278  162.3   1.471   53.0  0.0789   29.5  0.3031 -135.3
 1.540  0.8281  161.8   1.453   52.4  0.0792   29.8  0.3048 -135.6
 1.560  0.8284  161.4   1.435   51.8  0.0796   30.1  0.3065 -135.8
 1.580  0.8287  160.9   1.417   51.2  0.0799   30.4  0.3081 -136.1
 1.600  0.8291  160.5   1.399   50.6  0.0802   30.7  0.3098 -136.4
 1.620  0.8296  160.1   1.382   50.1  0.0805   31.0  0.3120 -136.7
 1.640  0.8301  159.7   1.366   49.6  0.0809   31.4  0.3142 -137.1
 1.660  0.8306  159.3   1.349   49.1  0.0812   31.7  0.3164 -137.4
 1.680  0.8312  158.9   1.333   48.6  0.0816   32.1  0.3186 -137.7
 1.700  0.8318  158.5   1.317   48.1  0.0819   32.4  0.3208 -138.0
 1.720  0.8319  158.1   1.302   47.6  0.0824   32.7  0.3227 -138.3
 1.740  0.8320  157.7   1.288   47.1  0.0829   33.0  0.3245 -138.7
 1.760  0.8322  157.4   1.274   46.6  0.0835   33.3  0.3264 -139.0
 1.780  0.8324  157.0   1.259   46.1  0.0840   33.5  0.3283 -139.3
 1.800  0.8326  156.6   1.245   45.6  0.0845   33.8  0.3302 -139.6
 1.820  0.8330  156.2   1.232   45.1  0.0850   34.1  0.3320 -139.9
 1.840  0.8335  155.8   1.219   44.6  0.0855   34.4  0.3339 -140.1
 1.860  0.8340  155.5   1.206   44.1  0.0859   34.7  0.3357 -140.4
 1.880  0.8345  155.1   1.194   43.6  0.0864   35.0  0.3375 -140.6
 1.900  0.8351  154.7   1.181   43.1  0.0869   35.3  0.3394 -140.9
 1.920  0.8356  154.3   1.169   42.7  0.0874   35.6  0.3414 -141.2
 1.940  0.8361  153.9   1.158   42.2  0.0878   35.9  0.3433 -141.5
 1.960  0.8367  153.6   1.147   41.7  0.0883   36.1  0.3453 -141.7
 1.980  0.8373  153.2   1.135   41.3  0.0887   36.4  0.3473 -142.0
 2.000  0.8380  152.8   1.124   40.8  0.0892   36.7  0.3493 -142.3
 2.020  0.8381  152.4   1.114   40.4  0.0898   36.9  0.3514 -142.6
 2.040  0.8383  152.1   1.104   39.9  0.0903   37.2  0.3535 -143.0
 2.060  0.8385  151.7   1.094   39.5  0.0909   37.4  0.3557 -143.3
 2.080  0.8387  151.4   1.084   39.0  0.0915   37.7  0.3578 -143.6
 2.100  0.8390  151.0   1.074   38.5  0.0920   37.9  0.3600 -143.9
 2.120  0.8393  150.7   1.064   38.0  0.0926   38.1  0.3621 -144.3
 2.140  0.8396  150.3   1.054   37.5  0.0932   38.3  0.3643 -144.6
 2.160  0.8400  150.0   1.044   37.0  0.0937   38.6  0.3665 -144.9
 2.180  0.8404  149.6   1.035   36.5  0.0943   38.8  0.3687 -145.2
 2.200  0.8408  149.3   1.025   36.0  0.0949   39.0  0.3709 -145.5
 2.220  0.8410  148.9   1.016   35.6  0.0956   39.2  0.3728 -145.8
 2.240  0.8412  148.5   1.007   35.1  0.0962   39.4  0.3748 -146.2
 2.260  0.8415  148.2   0.999   34.7  0.0969   39.6  0.3768 -146.5
 2.280  0.8418  147.8   0.990   34.3  0.0976   39.7  0.3788 -146.8
 2.300  0.8421  147.4   0.981   33.8  0.0982   39.9  0.3808 -147.1
 2.320  0.8425  147.0   0.973   33.3  0.0989   40.1  0.3828 -147.5
 2.340  0.8429  146.6   0.964   32.9  0.0996   40.3  0.3848 -147.8
 2.360  0.8434  146.3   0.956   32.4  0.1003   40.5  0.3868 -148.1
 2.380  0.8439  145.9   0.947   31.9  0.1009   40.6  0.3888 -148.4
 2.400  0.8444  145.5   0.939   31.4  0.1016   40.8  0.3909 -148.7
 2.420  0.8447  145.2   0.932   31.0  0.1023   41.0  0.3930 -149.1
 2.440  0.8450  144.8   0.924   30.6  0.1031   41.1  0.3951 -149.5
 2.460  0.8454  144.5   0.917   30.2  0.1038   41.3  0.3972 -149.8
 2.480  0.8458  144.1   0.910   29.8  0.1046   41.4  0.3994 -150.2
 2.500  0.8462  143.8   0.903   29.3  0.1053   41.6  0.4016 -150.5
 2.520  0.8466  143.5   0.896   28.9  0.1061   41.7  0.4037 -150.9
 2.540  0.8471  143.1   0.889   28.5  0.1068   41.9  0.4059 -151.3
 2.560  0.8476  142.8   0.882   28.0  0.1076   42.0  0.4081 -151.6
 2.580  0.8481  142.4   0.875   27.6  0.1083   42.2  0.4104 -152.0
 2.600  0.8487  142.1   0.868   27.1  0.1091   42.3  0.4126 -152.3
 2.620  0.8494  141.8   0.862   26.7  0.1099   42.4  0.4146 -152.6
 2.640  0.8501  141.4   0.855   26.4  0.1108   42.5  0.4166 -152.9
 2.660  0.8509  141.1   0.849   26.0  0.1116   42.6  0.4186 -153.3
 2.680  0.8517  140.7   0.842   25.6  0.1124   42.6  0.4206 -153.6
 2.700  0.8525  140.4   0.836   25.2  0.1132   42.7  0.4226 -153.9
 2.720  0.8533  140.1   0.830   24.8  0.1141   42.8  0.4247 -154.2
 2.740  0.8542  139.7   0.823   24.4  0.1149   42.9  0.4268 -154.5
 2.760  0.8551  139.4   0.817   24.0  0.1157   42.9  0.4288 -154.8
 2.780  0.8560  139.0   0.811   23.6  0.1166   43.0  0.4309 -155.1
 2.800  0.8570  138.7   0.805   23.2  0.1174   43.1  0.4330 -155.4
 2.820  0.8573  138.4   0.799   22.8  0.1183   43.1  0.4352 -155.8
 2.840  0.8576  138.0   0.793   22.5  0.1191   43.2  0.4374 -156.2
 2.860  0.8579  137.7   0.787   22.1  0.1200   43.2  0.4396 -156.6
 2.880  0.8583  137.3   0.781   21.7  0.1209   43.2  0.4418 -157.0
 2.900  0.8587  137.0   0.776   21.4  0.1217   43.3  0.4441 -157.3
 2.920  0.8591  136.7   0.770   21.0  0.1226   43.3  0.4463 -157.7
 2.940  0.8596  136.3   0.764   20.6  0.1235   43.3  0.4486 -158.1
 2.960  0.8600  136.0   0.758   20.2  0.1244   43.3  0.4509 -158.5
 2.980  0.8606  135.6   0.753   19.8  0.1252   43.4  0.4533 -158.8
 3.000  0.8611  135.3   0.747   19.4  0.1261   43.4  0.4556 -159.2
 3.100  0.8649  133.6   0.724   17.7  0.1305   43.3  0.4655 -161.0
 3.200  0.8695  132.0   0.701   15.8  0.1349   43.3  0.4759 -162.7
 3.300  0.8707  130.4   0.678   14.3  0.1397   43.2  0.4866 -164.5
 3.400  0.8725  128.9   0.656   12.6  0.1445   43.1  0.4977 -166.3
 3.500  0.8753  127.3   0.635   11.1  0.1486   42.9  0.5071 -168.0
 3.600  0.8787  125.8   0.614    9.4  0.1527   42.7  0.5169 -169.6
 3.700  0.8780  124.3   0.594    8.0  0.1568   42.1  0.5255 -171.5
 3.800  0.8780  122.7   0.574    6.6  0.1609   41.5  0.5347 -173.4
 3.900  0.8815  121.4   0.560    5.3  0.1662   41.2  0.5476 -174.9
 4.000  0.8855  120.1   0.546    4.0  0.1715   40.9  0.5608 -176.4
 4.100  0.8848  118.8   0.531    3.1  0.1760   40.2  0.5701 -178.2
 4.200  0.8845  117.5   0.517    2.1  0.1806   39.5  0.5799 -179.9
 4.300  0.8847  116.1   0.503    1.1  0.1852   38.8  0.5903  178.4
 4.400  0.8854  114.8   0.489    0.0  0.1899   38.2  0.6011  176.8
 4.500  0.8865  113.5   0.475   -1.1  0.1945   37.6  0.6124  175.2
 4.600  0.8855  112.5   0.464   -1.7  0.1986   36.8  0.6187  173.7
 4.700  0.8849  111.4   0.453   -2.3  0.2027   36.1  0.6254  172.1
 4.800  0.8845  110.4   0.442   -3.0  0.2069   35.4  0.6326  170.7
 4.900  0.8844  109.3   0.432   -3.7  0.2111   34.7  0.6401  169.2
 5.000  0.8846  108.3   0.421   -4.4  0.2153   34.0  0.6481  167.8
 5.100  0.8842  107.5   0.413   -4.6  0.2194   33.2  0.6545  166.6
 5.200  0.8839  106.7   0.405   -4.9  0.2235   32.5  0.6613  165.4
 5.300  0.8838  105.8   0.397   -5.1  0.2277   31.8  0.6683  164.2
 5.400  0.8839  105.0   0.389   -5.4  0.2319   31.1  0.6756  163.0
 5.500  0.8842  104.2   0.381   -5.7  0.2361   30.5  0.6832  161.9
 5.600  0.8821  103.4   0.377   -5.9  0.2401   29.7  0.6873  160.8
 5.700  0.8803  102.5   0.373   -6.0  0.2441   28.9  0.6917  159.8
 5.800  0.8786  101.7   0.368   -6.2  0.2481   28.2  0.6963  158.7
 5.900  0.8771  100.8   0.364   -6.3  0.2522   27.5  0.7011  157.7
 6.000  0.8758  100.0   0.360   -6.5  0.2563   26.8  0.7062  156.7
!
!  f       NFmin   Gammaopt  rn/50
! GHz       dB    MAG  ANG    -
!
! noise parameter not available yet for this operation point!
!
! (c) 2016  Infineon Technologies AG, Munich
