! Infineon Technologies  Discrete & RF Semiconductors
! BFP183
! VCE = 2.5 V,  IC =  1.2 mA
! Common Emitter S-Parameters:                            Jan 2016
# GHz  S  MA  R  50
!  f         S11            S21            S12            S22
! GHz     MAG   ANG      MAG   ANG      MAG   ANG      MAG   ANG
 0.010  0.9497   -1.5   4.248  179.2  0.0023   90.0  0.9994   -0.5
 0.015  0.9516   -2.4   4.246  178.9  0.0036   88.5  0.9953   -0.8
 0.020  0.9537   -3.2   4.245  178.6  0.0049   87.8  0.9912   -1.1
 0.025  0.9517   -3.9   4.243  178.0  0.0060   87.4  0.9917   -1.4
 0.030  0.9498   -4.7   4.241  177.3  0.0071   87.1  0.9922   -1.6
 0.035  0.9481   -5.4   4.240  176.7  0.0082   86.9  0.9927   -1.9
 0.040  0.9466   -6.2   4.239  176.0  0.0093   86.7  0.9932   -2.2
 0.045  0.9452   -6.9   4.239  175.4  0.0104   86.6  0.9938   -2.4
 0.050  0.9440   -7.7   4.240  174.7  0.0115   86.5  0.9944   -2.7
 0.055  0.9428   -8.5   4.234  174.2  0.0126   85.5  0.9935   -3.0
 0.060  0.9418   -9.3   4.229  173.6  0.0137   84.7  0.9927   -3.3
 0.065  0.9410  -10.0   4.223  173.1  0.0149   84.0  0.9918   -3.5
 0.070  0.9403  -10.8   4.218  172.6  0.0160   83.4  0.9910   -3.8
 0.075  0.9398  -11.6   4.214  172.1  0.0171   82.8  0.9903   -4.1
 0.080  0.9395  -12.4   4.210  171.5  0.0183   82.4  0.9895   -4.4
 0.085  0.9394  -13.2   4.206  171.0  0.0194   82.0  0.9888   -4.7
 0.090  0.9394  -13.9   4.203  170.5  0.0205   81.6  0.9881   -4.9
 0.095  0.9396  -14.7   4.200  169.9  0.0217   81.3  0.9874   -5.2
 0.100  0.9400  -15.5   4.197  169.4  0.0228   81.0  0.9867   -5.5
 0.105  0.9386  -16.3   4.190  168.9  0.0239   80.3  0.9862   -5.8
 0.110  0.9374  -17.0   4.183  168.3  0.0250   79.7  0.9858   -6.0
 0.115  0.9364  -17.8   4.177  167.8  0.0262   79.1  0.9853   -6.3
 0.120  0.9355  -18.5   4.171  167.3  0.0273   78.6  0.9849   -6.5
 0.125  0.9348  -19.3   4.166  166.7  0.0284   78.1  0.9845   -6.8
 0.130  0.9343  -20.0   4.161  166.2  0.0296   77.6  0.9841   -7.1
 0.135  0.9339  -20.8   4.156  165.6  0.0307   77.2  0.9838   -7.3
 0.140  0.9337  -21.6   4.152  165.1  0.0318   76.8  0.9834   -7.6
 0.145  0.9337  -22.3   4.148  164.5  0.0330   76.4  0.9831   -7.8
 0.150  0.9338  -23.1   4.144  164.0  0.0341   76.1  0.9828   -8.1
 0.155  0.9319  -23.8   4.142  163.5  0.0352   75.6  0.9819   -8.4
 0.160  0.9303  -24.6   4.140  162.9  0.0363   75.1  0.9809   -8.6
 0.165  0.9287  -25.3   4.139  162.4  0.0375   74.6  0.9801   -8.9
 0.170  0.9273  -26.1   4.138  161.9  0.0386   74.2  0.9792   -9.2
 0.175  0.9261  -26.8   4.138  161.4  0.0397   73.8  0.9783   -9.4
 0.180  0.9251  -27.6   4.137  160.8  0.0409   73.4  0.9775   -9.7
 0.185  0.9241  -28.3   4.137  160.3  0.0420   73.0  0.9767  -10.0
 0.190  0.9234  -29.1   4.138  159.8  0.0431   72.6  0.9759  -10.3
 0.195  0.9228  -29.8   4.139  159.2  0.0443   72.3  0.9751  -10.5
 0.200  0.9224  -30.6   4.140  158.7  0.0454   72.0  0.9744  -10.8
 0.220  0.9172  -33.5   4.097  156.7  0.0490   70.2  0.9687  -11.8
 0.240  0.9144  -36.4   4.060  154.6  0.0527   68.6  0.9633  -12.9
 0.260  0.9095  -39.3   4.022  152.7  0.0565   67.0  0.9575  -13.8
 0.280  0.9023  -42.2   3.982  150.9  0.0604   65.3  0.9512  -14.7
 0.300  0.8974  -45.1   3.947  149.1  0.0644   63.8  0.9452  -15.6
 0.320  0.8877  -47.8   3.898  147.2  0.0676   61.9  0.9387  -16.4
 0.340  0.8799  -50.5   3.854  145.2  0.0709   60.2  0.9324  -17.3
 0.360  0.8742  -53.2   3.814  143.2  0.0742   58.7  0.9263  -18.1
 0.380  0.8705  -56.0   3.779  141.2  0.0776   57.3  0.9204  -19.0
 0.400  0.8688  -58.8   3.749  139.1  0.0810   56.0  0.9147  -19.9
 0.420  0.8579  -61.3   3.698  137.4  0.0836   54.3  0.9072  -20.6
 0.440  0.8488  -63.9   3.650  135.7  0.0863   52.7  0.8999  -21.4
 0.450  0.8449  -65.2   3.628  134.8  0.0877   51.9  0.8963  -21.8
 0.460  0.8414  -66.5   3.606  133.9  0.0891   51.2  0.8927  -22.1
 0.480  0.8358  -69.2   3.565  132.1  0.0919   49.7  0.8857  -22.9
 0.500  0.8320  -71.9   3.528  130.2  0.0948   48.4  0.8788  -23.7
 0.520  0.8235  -74.3   3.483  128.8  0.0969   47.1  0.8718  -24.3
 0.540  0.8165  -76.7   3.440  127.3  0.0991   45.9  0.8648  -24.9
 0.560  0.8110  -79.2   3.399  125.7  0.1013   44.7  0.8580  -25.6
 0.580  0.8070  -81.7   3.361  124.2  0.1035   43.6  0.8513  -26.2
 0.600  0.8045  -84.2   3.325  122.6  0.1058   42.5  0.8447  -26.9
 0.620  0.7973  -86.2   3.268  121.3  0.1072   41.3  0.8380  -27.4
 0.640  0.7912  -88.3   3.213  119.9  0.1087   40.2  0.8314  -28.0
 0.660  0.7861  -90.4   3.159  118.4  0.1102   39.1  0.8249  -28.6
 0.680  0.7820  -92.6   3.108  116.9  0.1117   38.0  0.8185  -29.1
 0.700  0.7791  -94.7   3.059  115.4  0.1133   37.0  0.8121  -29.7
 0.720  0.7722  -96.7   3.020  114.1  0.1145   36.0  0.8066  -30.2
 0.740  0.7663  -98.7   2.982  112.8  0.1158   34.9  0.8011  -30.6
 0.760  0.7614 -100.8   2.945  111.4  0.1172   33.9  0.7957  -31.1
 0.780  0.7574 -102.9   2.911  110.0  0.1185   33.0  0.7904  -31.6
 0.800  0.7545 -105.0   2.878  108.6  0.1199   32.0  0.7851  -32.1
 0.820  0.7480 -106.9   2.837  107.4  0.1208   31.1  0.7800  -32.5
 0.840  0.7423 -108.9   2.798  106.3  0.1216   30.2  0.7749  -32.9
 0.860  0.7375 -110.9   2.760  105.0  0.1226   29.3  0.7699  -33.3
 0.880  0.7336 -112.9   2.723  103.8  0.1235   28.4  0.7649  -33.8
 0.900  0.7306 -114.9   2.687  102.5  0.1245   27.5  0.7599  -34.2
 0.920  0.7266 -116.8   2.652  101.4  0.1250   26.7  0.7555  -34.6
 0.940  0.7235 -118.7   2.617  100.3  0.1256   25.8  0.7511  -35.0
 0.960  0.7211 -120.7   2.584   99.1  0.1262   25.0  0.7468  -35.4
 0.980  0.7197 -122.6   2.551   97.9  0.1268   24.2  0.7425  -35.9
 1.000  0.7190 -124.6   2.520   96.7  0.1274   23.4  0.7382  -36.3
 1.020  0.7139 -126.3   2.490   95.6  0.1279   22.7  0.7340  -36.7
 1.040  0.7094 -128.0   2.460   94.5  0.1283   22.0  0.7299  -37.0
 1.060  0.7056 -129.7   2.431   93.4  0.1288   21.3  0.7258  -37.4
 1.080  0.7024 -131.4   2.404   92.3  0.1294   20.6  0.7217  -37.7
 1.100  0.6998 -133.2   2.377   91.1  0.1299   19.9  0.7176  -38.1
 1.120  0.6965 -134.8   2.345   90.2  0.1300   19.2  0.7147  -38.5
 1.140  0.6937 -136.3   2.313   89.3  0.1302   18.5  0.7118  -38.9
 1.160  0.6915 -137.9   2.282   88.4  0.1304   17.8  0.7089  -39.2
 1.180  0.6898 -139.5   2.252   87.5  0.1306   17.1  0.7061  -39.6
 1.200  0.6886 -141.1   2.222   86.5  0.1308   16.4  0.7033  -40.0
 1.220  0.6866 -142.6   2.195   85.6  0.1309   15.9  0.7003  -40.3
 1.240  0.6850 -144.2   2.169   84.7  0.1310   15.3  0.6974  -40.6
 1.260  0.6840 -145.7   2.143   83.7  0.1311   14.8  0.6944  -41.0
 1.280  0.6834 -147.3   2.118   82.8  0.1313   14.2  0.6915  -41.3
 1.300  0.6834 -148.8   2.094   81.8  0.1314   13.7  0.6886  -41.6
 1.320  0.6802 -150.1   2.069   81.0  0.1313   13.2  0.6861  -41.9
 1.340  0.6774 -151.4   2.044   80.1  0.1312   12.6  0.6837  -42.2
 1.360  0.6749 -152.7   2.020   79.2  0.1311   12.1  0.6813  -42.6
 1.380  0.6728 -154.1   1.996   78.3  0.1311   11.5  0.6789  -42.9
 1.400  0.6710 -155.4   1.973   77.4  0.1310   11.0  0.6765  -43.2
 1.420  0.6715 -156.8   1.951   76.5  0.1307   10.6  0.6736  -43.5
 1.440  0.6724 -158.2   1.930   75.6  0.1305   10.2  0.6707  -43.8
 1.460  0.6737 -159.6   1.909   74.7  0.1302    9.8  0.6679  -44.0
 1.480  0.6754 -160.9   1.889   73.8  0.1299    9.4  0.6650  -44.3
 1.500  0.6775 -162.3   1.869   72.8  0.1297    9.0  0.6622  -44.6
 1.520  0.6756 -163.5   1.848   72.1  0.1296    8.5  0.6608  -44.9
 1.540  0.6741 -164.8   1.827   71.3  0.1295    8.1  0.6595  -45.2
 1.560  0.6729 -166.1   1.807   70.5  0.1294    7.6  0.6581  -45.5
 1.580  0.6720 -167.3   1.787   69.7  0.1294    7.2  0.6568  -45.8
 1.600  0.6715 -168.6   1.767   68.9  0.1293    6.7  0.6555  -46.1
 1.620  0.6711 -169.9   1.749   68.2  0.1290    6.4  0.6534  -46.5
 1.640  0.6711 -171.1   1.732   67.4  0.1286    6.0  0.6514  -46.9
 1.660  0.6714 -172.4   1.714   66.7  0.1283    5.7  0.6494  -47.2
 1.680  0.6720 -173.6   1.698   65.9  0.1279    5.3  0.6474  -47.6
 1.700  0.6729 -174.9   1.681   65.1  0.1276    5.0  0.6454  -48.0
 1.720  0.6720 -176.1   1.665   64.3  0.1272    4.7  0.6438  -48.3
 1.740  0.6714 -177.3   1.650   63.5  0.1268    4.4  0.6421  -48.5
 1.760  0.6711 -178.6   1.635   62.7  0.1264    4.1  0.6405  -48.8
 1.780  0.6712 -179.8   1.620   61.9  0.1261    3.8  0.6389  -49.0
 1.800  0.6715  179.0   1.606   61.0  0.1257    3.5  0.6373  -49.3
 1.820  0.6711  178.0   1.591   60.3  0.1253    3.1  0.6360  -49.7
 1.840  0.6709  177.0   1.577   59.7  0.1249    2.8  0.6346  -50.0
 1.860  0.6709  175.9   1.563   59.0  0.1245    2.4  0.6333  -50.4
 1.880  0.6711  174.9   1.549   58.3  0.1242    2.1  0.6320  -50.7
 1.900  0.6715  173.9   1.535   57.6  0.1238    1.7  0.6308  -51.1
 1.920  0.6713  172.8   1.520   56.9  0.1234    1.5  0.6297  -51.4
 1.940  0.6713  171.7   1.505   56.2  0.1230    1.4  0.6285  -51.7
 1.960  0.6716  170.5   1.490   55.5  0.1225    1.2  0.6274  -51.9
 1.980  0.6722  169.4   1.475   54.7  0.1221    1.1  0.6263  -52.2
 2.000  0.6730  168.3   1.461   54.0  0.1217    0.9  0.6252  -52.5
 2.020  0.6729  167.4   1.447   53.4  0.1212    0.7  0.6242  -52.9
 2.040  0.6729  166.4   1.433   52.7  0.1207    0.5  0.6233  -53.2
 2.060  0.6731  165.5   1.420   52.1  0.1202    0.3  0.6223  -53.6
 2.080  0.6735  164.5   1.406   51.4  0.1197    0.0  0.6214  -53.9
 2.100  0.6741  163.6   1.393   50.7  0.1192   -0.2  0.6205  -54.3
 2.120  0.6749  162.6   1.380   50.0  0.1187   -0.4  0.6197  -54.6
 2.140  0.6759  161.7   1.367   49.3  0.1183   -0.6  0.6189  -55.0
 2.160  0.6770  160.8   1.355   48.6  0.1178   -0.8  0.6180  -55.4
 2.180  0.6783  159.8   1.342   47.8  0.1173   -1.1  0.6173  -55.7
 2.200  0.6798  158.9   1.330   47.1  0.1168   -1.3  0.6165  -56.1
 2.220  0.6802  158.0   1.320   46.5  0.1163   -1.4  0.6155  -56.5
 2.240  0.6808  157.1   1.309   45.9  0.1157   -1.5  0.6146  -56.9
 2.260  0.6815  156.1   1.299   45.3  0.1152   -1.6  0.6137  -57.3
 2.280  0.6824  155.2   1.289   44.7  0.1147   -1.8  0.6128  -57.6
 2.300  0.6835  154.3   1.280   44.1  0.1141   -1.9  0.6120  -58.0
 2.320  0.6847  153.4   1.270   43.4  0.1136   -2.0  0.6112  -58.4
 2.340  0.6862  152.5   1.260   42.8  0.1131   -2.1  0.6104  -58.8
 2.360  0.6878  151.6   1.251   42.1  0.1126   -2.3  0.6096  -59.2
 2.380  0.6896  150.7   1.242   41.5  0.1120   -2.4  0.6089  -59.6
 2.400  0.6915  149.8   1.233   40.8  0.1115   -2.5  0.6082  -60.0
 2.420  0.6923  149.0   1.222   40.2  0.1110   -2.5  0.6073  -60.4
 2.440  0.6933  148.2   1.211   39.7  0.1104   -2.5  0.6065  -60.7
 2.460  0.6944  147.4   1.200   39.1  0.1099   -2.5  0.6056  -61.1
 2.480  0.6956  146.6   1.190   38.5  0.1093   -2.5  0.6048  -61.5
 2.500  0.6969  145.8   1.179   37.9  0.1088   -2.5  0.6040  -61.8
 2.520  0.6984  145.0   1.169   37.3  0.1083   -2.5  0.6033  -62.2
 2.540  0.7001  144.2   1.159   36.7  0.1077   -2.5  0.6025  -62.6
 2.560  0.7018  143.5   1.149   36.1  0.1072   -2.5  0.6018  -63.0
 2.580  0.7037  142.7   1.139   35.4  0.1066   -2.5  0.6012  -63.3
 2.600  0.7057  141.9   1.129   34.8  0.1061   -2.5  0.6005  -63.7
 2.620  0.7061  141.1   1.121   34.2  0.1056   -2.5  0.6000  -64.1
 2.640  0.7066  140.3   1.113   33.7  0.1052   -2.4  0.5995  -64.5
 2.660  0.7072  139.6   1.106   33.1  0.1047   -2.4  0.5990  -64.9
 2.680  0.7079  138.8   1.098   32.5  0.1043   -2.3  0.5986  -65.3
 2.700  0.7088  138.0   1.091   31.9  0.1038   -2.3  0.5981  -65.7
 2.720  0.7098  137.3   1.084   31.3  0.1034   -2.2  0.5977  -66.1
 2.740  0.7109  136.5   1.077   30.7  0.1029   -2.2  0.5974  -66.5
 2.760  0.7122  135.7   1.070   30.1  0.1025   -2.1  0.5971  -66.9
 2.780  0.7136  135.0   1.063   29.4  0.1020   -2.1  0.5968  -67.3
 2.800  0.7151  134.2   1.056   28.8  0.1016   -2.0  0.5965  -67.7
 2.820  0.7159  133.5   1.048   28.3  0.1011   -1.9  0.5961  -68.1
 2.840  0.7169  132.8   1.039   27.8  0.1007   -1.8  0.5957  -68.6
 2.860  0.7179  132.2   1.031   27.3  0.1002   -1.8  0.5953  -69.0
 2.880  0.7190  131.5   1.023   26.7  0.0997   -1.7  0.5950  -69.5
 2.900  0.7203  130.8   1.015   26.2  0.0992   -1.6  0.5947  -69.9
 2.920  0.7216  130.2   1.008   25.7  0.0988   -1.5  0.5944  -70.3
 2.940  0.7230  129.5   1.000   25.1  0.0983   -1.4  0.5942  -70.8
 2.960  0.7246  128.8   0.992   24.5  0.0978   -1.4  0.5940  -71.2
 2.980  0.7262  128.2   0.984   24.0  0.0974   -1.3  0.5938  -71.7
 3.000  0.7279  127.5   0.977   23.4  0.0969   -1.2  0.5937  -72.1
 3.100  0.7303  124.5   0.942   21.3  0.0957    0.1  0.5925  -74.3
 3.200  0.7347  121.4   0.908   19.0  0.0945    1.3  0.5923  -76.6
 3.300  0.7412  118.5   0.877   16.5  0.0934    2.7  0.5929  -78.8
 3.400  0.7496  115.5   0.846   13.8  0.0923    4.0  0.5944  -81.1
 3.500  0.7599  112.7   0.818   11.0  0.0913    5.4  0.5969  -83.3
 3.600  0.7629  110.4   0.792    9.1  0.0916    7.2  0.5950  -86.0
 3.700  0.7671  108.0   0.767    7.1  0.0921    8.9  0.5945  -88.7
 3.800  0.7726  105.8   0.742    5.0  0.0926   10.7  0.5952  -91.4
 3.900  0.7793  103.5   0.719    2.7  0.0932   12.4  0.5973  -94.0
 4.000  0.7872  101.3   0.697    0.3  0.0939   14.1  0.6006  -96.7
 4.100  0.7888   99.3   0.676   -1.3  0.0957   15.5  0.5994  -99.5
 4.200  0.7914   97.3   0.655   -3.0  0.0975   16.9  0.5996 -102.4
 4.300  0.7949   95.4   0.636   -4.9  0.0994   18.3  0.6013 -105.2
 4.400  0.7993   93.4   0.616   -6.8  0.1014   19.6  0.6045 -108.0
 4.500  0.8046   91.5   0.598   -8.9  0.1034   20.8  0.6091 -110.8
 4.600  0.8066   90.0   0.579  -10.0  0.1064   22.0  0.6081 -113.5
 4.700  0.8092   88.5   0.561  -11.2  0.1095   23.2  0.6086 -116.3
 4.800  0.8124   87.0   0.543  -12.4  0.1126   24.3  0.6104 -119.0
 4.900  0.8161   85.5   0.525  -13.8  0.1157   25.4  0.6136 -121.7
 5.000  0.8204   84.0   0.508  -15.2  0.1189   26.4  0.6182 -124.4
 5.100  0.8230   82.7   0.496  -16.3  0.1242   26.2  0.6195 -127.1
 5.200  0.8261   81.4   0.484  -17.4  0.1296   26.0  0.6222 -129.8
 5.300  0.8296   80.1   0.472  -18.6  0.1349   25.8  0.6262 -132.5
 5.400  0.8335   78.8   0.460  -19.9  0.1403   25.6  0.6316 -135.1
 5.500  0.8378   77.5   0.449  -21.2  0.1456   25.4  0.6383 -137.7
 5.600  0.8407   76.4   0.439  -22.0  0.1498   24.7  0.6400 -140.3
 5.700  0.8439   75.2   0.428  -22.8  0.1540   24.1  0.6430 -142.9
 5.800  0.8475   74.1   0.418  -23.6  0.1583   23.5  0.6473 -145.5
 5.900  0.8513   73.0   0.408  -24.5  0.1625   22.9  0.6529 -148.0
 6.000  0.8555   71.9   0.398  -25.4  0.1668   22.4  0.6597 -150.5
!
!  f       NFmin   Gammaopt  rn/50
! GHz       dB    MAG  ANG    -
!
! noise parameter not available yet for this operation point!
!
! (c) 2016  Infineon Technologies AG, Munich
