! Infineon Technologies  Discrete & RF Semiconductors
! BFP196
! VCE = 1.7 V,  IC = 5.0mA
! Common Emitter S-Parameters:                            Jan 2016
# GHz  S  MA  R  50
!  f         S11            S21            S12            S22
! GHz     MAG   ANG      MAG   ANG      MAG   ANG      MAG   ANG
 0.010  0.8101   -8.0  15.725  176.6  0.0061   86.0  0.9862   -4.0
 0.015  0.8056  -11.9  15.604  173.9  0.0092   82.1  0.9801   -5.8
 0.020  0.8049  -15.8  15.518  171.2  0.0123   80.2  0.9750   -7.6
 0.025  0.7965  -19.4  15.367  169.2  0.0152   77.1  0.9658   -9.3
 0.030  0.7914  -23.1  15.233  167.3  0.0181   74.9  0.9575  -11.1
 0.035  0.7896  -26.8  15.119  165.2  0.0210   73.4  0.9501  -12.9
 0.040  0.7911  -30.6  15.024  163.2  0.0239   72.2  0.9437  -14.8
 0.045  0.7960  -34.3  14.948  161.1  0.0269   71.3  0.9382  -16.6
 0.050  0.8041  -37.9  14.892  159.0  0.0298   70.6  0.9338  -18.5
 0.055  0.7906  -41.0  14.649  157.5  0.0319   68.2  0.9197  -19.8
 0.060  0.7794  -44.1  14.418  155.9  0.0340   66.1  0.9061  -21.2
 0.065  0.7706  -47.3  14.197  154.3  0.0361   64.3  0.8930  -22.6
 0.070  0.7644  -50.6  13.989  152.6  0.0383   62.6  0.8805  -24.1
 0.075  0.7607  -54.0  13.792  150.8  0.0405   61.2  0.8685  -25.5
 0.080  0.7595  -57.3  13.609  149.1  0.0428   59.9  0.8572  -27.1
 0.085  0.7610  -60.7  13.439  147.2  0.0450   58.7  0.8465  -28.7
 0.090  0.7651  -64.0  13.284  145.4  0.0473   57.6  0.8364  -30.3
 0.095  0.7718  -67.3  13.142  143.5  0.0496   56.7  0.8271  -31.9
 0.100  0.7809  -70.5  13.016  141.5  0.0519   55.8  0.8184  -33.6
 0.105  0.7727  -72.9  12.782  140.3  0.0531   54.4  0.8053  -34.5
 0.110  0.7658  -75.3  12.553  139.1  0.0544   53.1  0.7923  -35.4
 0.115  0.7603  -77.7  12.331  137.8  0.0557   51.9  0.7796  -36.3
 0.120  0.7561  -80.2  12.115  136.5  0.0570   50.7  0.7670  -37.3
 0.125  0.7535  -82.7  11.905  135.1  0.0583   49.6  0.7547  -38.3
 0.130  0.7522  -85.2  11.703  133.7  0.0597   48.5  0.7427  -39.3
 0.135  0.7524  -87.7  11.508  132.2  0.0611   47.4  0.7308  -40.4
 0.140  0.7541  -90.2  11.321  130.7  0.0625   46.4  0.7193  -41.5
 0.145  0.7572  -92.7  11.142  129.1  0.0639   45.5  0.7080  -42.6
 0.150  0.7617  -95.2  10.972  127.5  0.0653   44.6  0.6970  -43.8
 0.155  0.7577  -97.0  10.794  126.7  0.0660   43.8  0.6868  -44.4
 0.160  0.7543  -98.7  10.618  125.8  0.0668   43.0  0.6767  -45.1
 0.165  0.7518 -100.5  10.444  124.9  0.0676   42.3  0.6667  -45.7
 0.170  0.7499 -102.3  10.274  124.0  0.0684   41.5  0.6567  -46.4
 0.175  0.7488 -104.2  10.105  123.0  0.0692   40.8  0.6469  -47.1
 0.180  0.7485 -106.0   9.940  122.1  0.0700   40.1  0.6371  -47.8
 0.185  0.7489 -107.8   9.778  121.1  0.0708   39.4  0.6275  -48.5
 0.190  0.7500 -109.6   9.619  120.0  0.0716   38.7  0.6179  -49.3
 0.195  0.7520 -111.4   9.463  118.9  0.0725   38.0  0.6085  -50.1
 0.200  0.7546 -113.2   9.311  117.8  0.0733   37.4  0.5992  -50.9
 0.220  0.7444 -118.6   8.714  115.0  0.0751   35.2  0.5675  -52.7
 0.240  0.7409 -124.1   8.140  111.9  0.0770   33.2  0.5363  -54.6
 0.260  0.7384 -128.8   7.652  109.1  0.0786   31.5  0.5102  -56.4
 0.280  0.7348 -133.0   7.237  106.9  0.0798   30.2  0.4887  -57.8
 0.300  0.7349 -137.1   6.834  104.4  0.0810   28.9  0.4676  -59.3
 0.320  0.7303 -140.1   6.529  103.0  0.0816   28.0  0.4514  -60.1
 0.340  0.7278 -143.2   6.229  101.4  0.0822   27.0  0.4352  -60.9
 0.360  0.7274 -146.3   5.933   99.6  0.0828   26.1  0.4192  -61.8
 0.380  0.7291 -149.4   5.644   97.7  0.0834   25.2  0.4033  -62.8
 0.400  0.7329 -152.4   5.362   95.6  0.0841   24.3  0.3875  -63.9
 0.420  0.7306 -154.4   5.152   94.4  0.0844   23.8  0.3784  -64.5
 0.440  0.7291 -156.4   4.945   93.1  0.0847   23.3  0.3693  -65.1
 0.450  0.7288 -157.4   4.842   92.5  0.0849   23.0  0.3648  -65.4
 0.460  0.7286 -158.5   4.740   91.8  0.0850   22.8  0.3602  -65.7
 0.480  0.7290 -160.5   4.538   90.3  0.0854   22.3  0.3512  -66.4
 0.500  0.7303 -162.5   4.340   88.6  0.0857   21.8  0.3423  -67.1
 0.520  0.7286 -164.3   4.203   87.5  0.0859   21.6  0.3371  -67.6
 0.540  0.7277 -166.0   4.068   86.4  0.0862   21.4  0.3320  -68.1
 0.560  0.7274 -167.8   3.935   85.1  0.0864   21.1  0.3269  -68.6
 0.580  0.7278 -169.5   3.803   83.8  0.0867   20.9  0.3218  -69.1
 0.600  0.7289 -171.3   3.674   82.4  0.0869   20.7  0.3167  -69.7
 0.620  0.7289 -172.8   3.574   81.4  0.0869   20.6  0.3132  -70.3
 0.640  0.7294 -174.3   3.476   80.4  0.0870   20.6  0.3097  -70.8
 0.660  0.7303 -175.8   3.378   79.3  0.0870   20.5  0.3062  -71.4
 0.680  0.7318 -177.3   3.282   78.2  0.0871   20.5  0.3028  -72.0
 0.700  0.7338 -178.8   3.187   77.0  0.0871   20.4  0.2994  -72.6
 0.720  0.7337 -179.9   3.108   76.2  0.0874   20.4  0.2971  -73.1
 0.740  0.7338  179.0   3.030   75.3  0.0876   20.5  0.2948  -73.7
 0.760  0.7342  178.0   2.952   74.4  0.0879   20.5  0.2925  -74.2
 0.780  0.7349  176.9   2.875   73.5  0.0881   20.6  0.2903  -74.7
 0.800  0.7358  175.8   2.799   72.5  0.0884   20.6  0.2881  -75.3
 0.820  0.7346  174.7   2.736   71.7  0.0885   20.8  0.2865  -75.9
 0.840  0.7336  173.6   2.673   70.8  0.0885   20.9  0.2849  -76.4
 0.860  0.7329  172.5   2.611   69.9  0.0886   21.1  0.2834  -77.0
 0.880  0.7325  171.4   2.550   68.9  0.0886   21.2  0.2819  -77.6
 0.900  0.7324  170.3   2.489   67.9  0.0887   21.4  0.2804  -78.2
 0.920  0.7335  169.2   2.441   67.1  0.0888   21.6  0.2801  -78.7
 0.940  0.7348  168.2   2.393   66.4  0.0888   21.8  0.2798  -79.3
 0.960  0.7364  167.1   2.345   65.5  0.0889   21.9  0.2796  -79.8
 0.980  0.7382  166.1   2.298   64.7  0.0889   22.1  0.2794  -80.4
 1.000  0.7403  165.0   2.252   63.8  0.0890   22.3  0.2792  -80.9
 1.020  0.7407  164.1   2.211   63.1  0.0891   22.5  0.2792  -81.5
 1.040  0.7414  163.2   2.170   62.3  0.0893   22.7  0.2793  -82.1
 1.060  0.7422  162.3   2.130   61.5  0.0894   23.0  0.2793  -82.7
 1.080  0.7431  161.4   2.090   60.7  0.0896   23.2  0.2795  -83.3
 1.100  0.7443  160.5   2.051   59.8  0.0897   23.4  0.2796  -83.9
 1.120  0.7450  159.6   2.018   59.1  0.0899   23.7  0.2799  -84.5
 1.140  0.7458  158.8   1.986   58.4  0.0902   24.0  0.2802  -85.1
 1.160  0.7469  157.9   1.953   57.6  0.0904   24.2  0.2805  -85.8
 1.180  0.7480  157.1   1.921   56.8  0.0907   24.5  0.2809  -86.4
 1.200  0.7494  156.2   1.890   56.0  0.0909   24.8  0.2813  -87.0
 1.220  0.7496  155.3   1.860   55.3  0.0913   25.0  0.2817  -87.6
 1.240  0.7501  154.5   1.830   54.6  0.0917   25.2  0.2821  -88.2
 1.260  0.7506  153.6   1.800   53.9  0.0922   25.5  0.2826  -88.7
 1.280  0.7514  152.8   1.771   53.2  0.0926   25.7  0.2831  -89.3
 1.300  0.7523  151.9   1.742   52.4  0.0930   25.9  0.2836  -89.9
 1.320  0.7530  151.1   1.717   51.8  0.0932   26.3  0.2847  -90.5
 1.340  0.7538  150.3   1.692   51.1  0.0935   26.6  0.2858  -91.0
 1.360  0.7548  149.6   1.667   50.4  0.0937   27.0  0.2869  -91.6
 1.380  0.7559  148.8   1.642   49.7  0.0940   27.3  0.2881  -92.1
 1.400  0.7571  148.0   1.618   49.0  0.0942   27.7  0.2893  -92.7
 1.420  0.7571  147.3   1.600   48.4  0.0947   28.1  0.2899  -93.4
 1.440  0.7572  146.6   1.582   47.7  0.0951   28.5  0.2906  -94.2
 1.460  0.7574  145.9   1.564   47.1  0.0956   28.9  0.2913  -94.9
 1.480  0.7578  145.2   1.546   46.4  0.0960   29.2  0.2920  -95.7
 1.500  0.7582  144.5   1.529   45.7  0.0965   29.6  0.2928  -96.4
 1.520  0.7593  143.8   1.506   45.0  0.0971   29.9  0.2934  -97.0
 1.540  0.7605  143.0   1.483   44.3  0.0976   30.2  0.2940  -97.7
 1.560  0.7619  142.3   1.460   43.6  0.0982   30.5  0.2947  -98.3
 1.580  0.7634  141.5   1.438   42.9  0.0987   30.8  0.2954  -99.0
 1.600  0.7650  140.8   1.416   42.1  0.0993   31.1  0.2962  -99.6
 1.620  0.7657  140.0   1.399   41.5  0.1000   31.4  0.2966 -100.3
 1.640  0.7665  139.2   1.383   40.9  0.1007   31.8  0.2970 -101.0
 1.660  0.7675  138.5   1.367   40.2  0.1015   32.1  0.2975 -101.8
 1.680  0.7686  137.7   1.351   39.6  0.1022   32.4  0.2980 -102.5
 1.700  0.7699  136.9   1.335   38.9  0.1029   32.7  0.2986 -103.2
 1.720  0.7713  136.3   1.321   38.4  0.1036   32.9  0.3001 -103.7
 1.740  0.7728  135.7   1.308   37.8  0.1043   33.1  0.3015 -104.2
 1.760  0.7744  135.0   1.294   37.3  0.1050   33.4  0.3030 -104.7
 1.780  0.7761  134.4   1.281   36.7  0.1057   33.6  0.3046 -105.2
 1.800  0.7779  133.8   1.268   36.1  0.1064   33.8  0.3061 -105.7
 1.820  0.7786  133.2   1.254   35.5  0.1072   34.1  0.3077 -106.5
 1.840  0.7795  132.6   1.240   34.9  0.1081   34.5  0.3094 -107.2
 1.860  0.7804  131.9   1.226   34.2  0.1089   34.8  0.3111 -108.0
 1.880  0.7814  131.3   1.212   33.6  0.1098   35.1  0.3129 -108.8
 1.900  0.7825  130.7   1.198   32.9  0.1106   35.4  0.3147 -109.5
 1.920  0.7833  130.0   1.185   32.3  0.1115   35.5  0.3153 -110.1
 1.940  0.7842  129.4   1.172   31.8  0.1124   35.7  0.3159 -110.8
 1.960  0.7852  128.7   1.159   31.2  0.1133   35.8  0.3166 -111.4
 1.980  0.7863  128.1   1.146   30.6  0.1142   36.0  0.3173 -112.1
 2.000  0.7875  127.4   1.133   30.0  0.1151   36.1  0.3181 -112.7
 2.020  0.7879  126.8   1.122   29.5  0.1161   36.3  0.3196 -113.3
 2.040  0.7883  126.2   1.111   29.0  0.1170   36.5  0.3212 -114.0
 2.060  0.7889  125.6   1.100   28.4  0.1180   36.6  0.3228 -114.6
 2.080  0.7895  124.9   1.089   27.9  0.1189   36.8  0.3245 -115.2
 2.100  0.7902  124.3   1.079   27.3  0.1199   37.0  0.3261 -115.8
 2.120  0.7910  123.7   1.068   26.8  0.1208   37.2  0.3279 -116.4
 2.140  0.7920  123.1   1.058   26.2  0.1218   37.3  0.3296 -117.0
 2.160  0.7929  122.5   1.047   25.6  0.1228   37.5  0.3314 -117.6
 2.180  0.7940  121.9   1.037   25.0  0.1237   37.6  0.3332 -118.2
 2.200  0.7952  121.3   1.027   24.4  0.1247   37.8  0.3351 -118.8
 2.220  0.7960  120.7   1.018   23.9  0.1258   37.9  0.3364 -119.5
 2.240  0.7970  120.0   1.009   23.4  0.1269   37.9  0.3378 -120.3
 2.260  0.7980  119.4   1.000   22.9  0.1280   38.0  0.3392 -121.0
 2.280  0.7991  118.8   0.991   22.3  0.1291   38.1  0.3407 -121.7
 2.300  0.8003  118.1   0.982   21.8  0.1302   38.2  0.3422 -122.4
 2.320  0.8017  117.5   0.974   21.2  0.1313   38.2  0.3438 -123.1
 2.340  0.8031  116.9   0.965   20.7  0.1324   38.3  0.3455 -123.8
 2.360  0.8046  116.2   0.957   20.1  0.1335   38.4  0.3472 -124.5
 2.380  0.8062  115.6   0.948   19.5  0.1346   38.4  0.3489 -125.2
 2.400  0.8079  115.0   0.940   18.9  0.1357   38.5  0.3507 -125.9
 2.420  0.8084  114.4   0.932   18.4  0.1369   38.5  0.3522 -126.6
 2.440  0.8091  113.9   0.924   18.0  0.1382   38.5  0.3537 -127.2
 2.460  0.8098  113.3   0.917   17.5  0.1394   38.5  0.3552 -127.9
 2.480  0.8106  112.7   0.909   17.0  0.1407   38.5  0.3568 -128.5
 2.500  0.8114  112.2   0.901   16.6  0.1419   38.6  0.3585 -129.2
 2.520  0.8124  111.6   0.894   16.1  0.1431   38.6  0.3602 -129.8
 2.540  0.8134  111.1   0.886   15.6  0.1444   38.6  0.3619 -130.4
 2.560  0.8145  110.5   0.879   15.0  0.1456   38.6  0.3637 -131.1
 2.580  0.8157  110.0   0.871   14.5  0.1469   38.6  0.3655 -131.7
 2.600  0.8169  109.4   0.864   14.0  0.1481   38.6  0.3674 -132.3
 2.620  0.8178  108.9   0.857   13.6  0.1494   38.5  0.3689 -133.0
 2.640  0.8187  108.3   0.850   13.2  0.1506   38.5  0.3705 -133.7
 2.660  0.8198  107.8   0.843   12.8  0.1519   38.4  0.3721 -134.3
 2.680  0.8209  107.3   0.836   12.3  0.1531   38.4  0.3738 -135.0
 2.700  0.8220  106.7   0.829   11.9  0.1544   38.3  0.3755 -135.7
 2.720  0.8233  106.2   0.823   11.4  0.1557   38.3  0.3773 -136.3
 2.740  0.8246  105.7   0.816   11.0  0.1569   38.2  0.3791 -137.0
 2.760  0.8259  105.1   0.809   10.5  0.1582   38.2  0.3810 -137.6
 2.780  0.8274  104.6   0.803   10.1  0.1594   38.1  0.3829 -138.3
 2.800  0.8289  104.1   0.796    9.6  0.1607   38.1  0.3849 -138.9
 2.820  0.8293  103.6   0.790    9.2  0.1620   38.0  0.3868 -139.6
 2.840  0.8297  103.1   0.784    8.8  0.1633   37.9  0.3888 -140.2
 2.860  0.8302  102.6   0.778    8.4  0.1647   37.8  0.3908 -140.9
 2.880  0.8308  102.1   0.772    8.0  0.1660   37.6  0.3929 -141.5
 2.900  0.8315  101.6   0.766    7.5  0.1673   37.5  0.3951 -142.1
 2.920  0.8322  101.1   0.760    7.1  0.1686   37.4  0.3972 -142.8
 2.940  0.8329  100.6   0.754    6.7  0.1699   37.3  0.3995 -143.4
 2.960  0.8338  100.1   0.748    6.2  0.1713   37.2  0.4017 -144.0
 2.980  0.8346   99.6   0.743    5.8  0.1726   37.1  0.4040 -144.6
 3.000  0.8356   99.1   0.737    5.3  0.1739   37.0  0.4064 -145.2
 3.100  0.8377   96.9   0.711    3.9  0.1801   36.0  0.4139 -148.6
 3.200  0.8410   94.8   0.685    2.3  0.1864   35.1  0.4228 -151.8
 3.300  0.8456   92.6   0.660    0.6  0.1927   34.3  0.4330 -154.9
 3.400  0.8513   90.5   0.636   -1.2  0.1991   33.5  0.4444 -157.8
 3.500  0.8581   88.4   0.612   -3.1  0.2055   32.7  0.4569 -160.6
 3.600  0.8581   86.5   0.594   -4.2  0.2115   31.6  0.4660 -163.6
 3.700  0.8591   84.5   0.576   -5.4  0.2176   30.5  0.4763 -166.5
 3.800  0.8611   82.6   0.558   -6.6  0.2237   29.5  0.4878 -169.2
 3.900  0.8640   80.7   0.540   -8.0  0.2299   28.5  0.5003 -171.8
 4.000  0.8679   78.8   0.523   -9.4  0.2362   27.6  0.5138 -174.3
 4.100  0.8684   77.2   0.511  -10.2  0.2419   26.3  0.5217 -176.9
 4.200  0.8696   75.6   0.499  -11.0  0.2477   25.0  0.5306 -179.4
 4.300  0.8715   74.0   0.487  -11.8  0.2536   23.8  0.5405  178.2
 4.400  0.8741   72.4   0.476  -12.7  0.2597   22.6  0.5513  175.9
 4.500  0.8773   70.8   0.464  -13.6  0.2658   21.5  0.5630  173.7
 4.600  0.8767   69.5   0.456  -14.1  0.2705   20.1  0.5700  171.5
 4.700  0.8765   68.1   0.449  -14.6  0.2754   18.8  0.5778  169.3
 4.800  0.8769   66.8   0.441  -15.2  0.2805   17.6  0.5865  167.2
 4.900  0.8777   65.4   0.434  -15.7  0.2856   16.4  0.5959  165.1
 5.000  0.8790   64.1   0.426  -16.3  0.2909   15.2  0.6061  163.1
 5.100  0.8801   62.9   0.421  -16.7  0.2952   13.9  0.6120  161.1
 5.200  0.8816   61.6   0.415  -17.1  0.2996   12.6  0.6187  159.0
 5.300  0.8835   60.4   0.410  -17.5  0.3042   11.4  0.6261  157.1
 5.400  0.8858   59.1   0.404  -17.9  0.3089   10.2  0.6342  155.2
 5.500  0.8885   57.9   0.399  -18.3  0.3137    9.0  0.6430  153.3
 5.600  0.8871   56.8   0.397  -18.8  0.3175    7.6  0.6481  151.5
 5.700  0.8860   55.6   0.396  -19.2  0.3215    6.3  0.6538  149.7
 5.800  0.8853   54.5   0.394  -19.7  0.3256    4.9  0.6601  147.9
 5.900  0.8850   53.3   0.393  -20.1  0.3299    3.7  0.6671  146.2
 6.000  0.8850   52.2   0.391  -20.6  0.3344    2.4  0.6746  144.5
!
!  f       NFmin   Gammaopt  rn/50
! GHz       dB    MAG  ANG    -
!
! noise parameter not available yet for this operation point!
!
! (c) 2016  Infineon Technologies AG, Munich
