! Infineon Technologies  Discrete & RF Semiconductors
! BFP193W
! VCE = 2.5 V,  IC =  15 mA
! Common Emitter S-Parameters:                            Jan 2016
# GHz  S  MA  R  50
!  f         S11            S21            S12            S22
! GHz     MAG   ANG      MAG   ANG      MAG   ANG      MAG   ANG
 0.010  0.5876  -11.1  35.756  174.0  0.0034   86.1  0.9713   -4.4
 0.015  0.5850  -16.6  35.636  171.9  0.0052   81.4  0.9644   -7.5
 0.020  0.5879  -22.1  35.563  169.8  0.0071   79.1  0.9603  -10.6
 0.025  0.5887  -27.3  35.267  167.4  0.0086   78.3  0.9492  -13.0
 0.030  0.5944  -32.5  35.032  165.0  0.0102   77.8  0.9399  -15.5
 0.035  0.5903  -37.4  34.488  162.7  0.0117   74.9  0.9253  -17.8
 0.040  0.5906  -42.4  33.998  160.4  0.0132   72.6  0.9123  -20.2
 0.045  0.5953  -47.3  33.566  158.0  0.0147   70.8  0.9010  -22.7
 0.050  0.6043  -52.1  33.194  155.6  0.0162   69.3  0.8913  -25.2
 0.055  0.5966  -55.8  32.490  154.1  0.0172   66.9  0.8725  -26.8
 0.060  0.5915  -59.7  31.811  152.5  0.0182   64.8  0.8544  -28.4
 0.065  0.5891  -63.5  31.156  150.8  0.0192   63.0  0.8370  -30.1
 0.070  0.5894  -67.4  30.529  149.1  0.0203   61.3  0.8204  -31.8
 0.075  0.5924  -71.3  29.930  147.3  0.0213   59.8  0.8046  -33.7
 0.080  0.5981  -75.1  29.362  145.5  0.0224   58.4  0.7897  -35.6
 0.085  0.6063  -78.8  28.826  143.5  0.0235   57.1  0.7756  -37.6
 0.090  0.6170  -82.4  28.325  141.5  0.0246   56.0  0.7625  -39.6
 0.095  0.6301  -85.9  27.859  139.4  0.0257   55.0  0.7504  -41.7
 0.100  0.6454  -89.2  27.431  137.3  0.0268   54.0  0.7394  -43.9
 0.105  0.6427  -91.6  26.856  136.2  0.0274   53.0  0.7241  -45.0
 0.110  0.6411  -94.1  26.290  135.1  0.0279   52.0  0.7091  -46.1
 0.115  0.6407  -96.5  25.735  134.0  0.0285   51.0  0.6944  -47.3
 0.120  0.6414  -98.9  25.190  132.8  0.0291   50.1  0.6800  -48.6
 0.125  0.6434 -101.4  24.657  131.5  0.0297   49.2  0.6659  -49.9
 0.130  0.6464 -103.8  24.136  130.2  0.0303   48.4  0.6522  -51.2
 0.135  0.6506 -106.2  23.629  128.9  0.0309   47.6  0.6389  -52.6
 0.140  0.6559 -108.5  23.135  127.4  0.0315   46.8  0.6260  -54.1
 0.145  0.6623 -110.8  22.657  125.9  0.0321   46.0  0.6135  -55.6
 0.150  0.6698 -113.1  22.194  124.4  0.0327   45.3  0.6014  -57.2
 0.155  0.6693 -114.6  21.771  123.7  0.0330   44.7  0.5906  -57.9
 0.160  0.6693 -116.2  21.351  122.9  0.0334   44.2  0.5799  -58.7
 0.165  0.6697 -117.7  20.935  122.2  0.0337   43.6  0.5693  -59.5
 0.170  0.6707 -119.3  20.523  121.4  0.0340   43.1  0.5588  -60.4
 0.175  0.6721 -120.8  20.115  120.5  0.0344   42.5  0.5484  -61.2
 0.180  0.6740 -122.3  19.711  119.7  0.0347   42.0  0.5382  -62.1
 0.185  0.6764 -123.8  19.313  118.8  0.0350   41.5  0.5281  -63.1
 0.190  0.6792 -125.3  18.919  117.8  0.0354   41.0  0.5181  -64.0
 0.195  0.6825 -126.8  18.531  116.8  0.0357   40.5  0.5083  -65.1
 0.200  0.6863 -128.3  18.148  115.8  0.0361   40.0  0.4987  -66.1
 0.220  0.6880 -132.5  16.977  113.6  0.0371   38.9  0.4691  -68.6
 0.240  0.6934 -136.7  15.835  111.0  0.0380   37.8  0.4404  -71.4
 0.260  0.6970 -140.4  14.819  108.8  0.0388   37.0  0.4148  -73.8
 0.280  0.6975 -143.5  13.914  107.0  0.0395   36.5  0.3916  -75.7
 0.300  0.7001 -146.7  13.024  104.9  0.0401   36.0  0.3689  -77.8
 0.320  0.6998 -148.8  12.423  103.8  0.0406   35.9  0.3546  -79.1
 0.340  0.7004 -150.8  11.828  102.5  0.0411   35.8  0.3405  -80.5
 0.360  0.7019 -152.9  11.239  101.1  0.0417   35.6  0.3265  -82.0
 0.380  0.7044 -155.0  10.657   99.6  0.0422   35.5  0.3129  -83.6
 0.400  0.7077 -157.0  10.083   97.9  0.0427   35.4  0.2995  -85.4
 0.420  0.7075 -158.5   9.700   97.0  0.0432   35.6  0.2909  -86.4
 0.440  0.7078 -160.0   9.320   96.1  0.0437   35.7  0.2823  -87.4
 0.450  0.7081 -160.8   9.131   95.6  0.0439   35.8  0.2781  -88.0
 0.460  0.7085 -161.5   8.943   95.0  0.0441   35.9  0.2739  -88.6
 0.480  0.7098 -163.0   8.569   93.9  0.0446   36.0  0.2655  -89.7
 0.500  0.7115 -164.5   8.198   92.7  0.0451   36.2  0.2573  -91.0
 0.520  0.7120 -165.5   7.931   92.0  0.0456   36.5  0.2517  -91.8
 0.540  0.7128 -166.6   7.666   91.2  0.0461   36.7  0.2462  -92.7
 0.560  0.7138 -167.6   7.402   90.4  0.0467   36.9  0.2407  -93.6
 0.580  0.7150 -168.7   7.140   89.5  0.0472   37.2  0.2353  -94.6
 0.600  0.7165 -169.7   6.879   88.6  0.0477   37.4  0.2299  -95.6
 0.620  0.7171 -170.6   6.695   88.0  0.0482   37.8  0.2261  -96.3
 0.640  0.7179 -171.5   6.512   87.4  0.0486   38.2  0.2224  -96.9
 0.660  0.7189 -172.3   6.330   86.7  0.0491   38.6  0.2187  -97.6
 0.680  0.7200 -173.2   6.148   86.0  0.0495   38.9  0.2150  -98.4
 0.700  0.7213 -174.1   5.968   85.2  0.0500   39.3  0.2114  -99.1
 0.720  0.7204 -174.8   5.817   84.6  0.0505   39.6  0.2092  -99.6
 0.740  0.7197 -175.5   5.667   84.0  0.0511   39.8  0.2069 -100.2
 0.760  0.7190 -176.3   5.517   83.4  0.0516   40.1  0.2047 -100.7
 0.780  0.7185 -177.0   5.368   82.7  0.0522   40.4  0.2026 -101.3
 0.800  0.7181 -177.7   5.220   82.0  0.0527   40.6  0.2004 -101.9
 0.820  0.7189 -178.3   5.107   81.5  0.0533   40.9  0.1988 -102.5
 0.840  0.7197 -178.9   4.994   80.9  0.0539   41.2  0.1973 -103.1
 0.860  0.7207 -179.6   4.882   80.3  0.0544   41.5  0.1958 -103.7
 0.880  0.7217  179.8   4.770   79.7  0.0550   41.8  0.1943 -104.3
 0.900  0.7228  179.2   4.659   79.1  0.0556   42.1  0.1928 -104.9
 0.920  0.7229  178.7   4.565   78.6  0.0561   42.4  0.1918 -105.4
 0.940  0.7231  178.2   4.472   78.1  0.0566   42.7  0.1909 -105.9
 0.960  0.7233  177.6   4.378   77.6  0.0572   43.0  0.1900 -106.4
 0.980  0.7236  177.1   4.285   77.1  0.0577   43.3  0.1891 -107.0
 1.000  0.7240  176.6   4.193   76.5  0.0582   43.6  0.1882 -107.5
 1.020  0.7248  176.1   4.122   76.0  0.0589   43.9  0.1875 -107.9
 1.040  0.7256  175.5   4.051   75.5  0.0596   44.1  0.1867 -108.3
 1.060  0.7266  175.0   3.981   75.0  0.0603   44.4  0.1860 -108.6
 1.080  0.7276  174.4   3.911   74.5  0.0610   44.7  0.1853 -109.0
 1.100  0.7286  173.9   3.841   73.9  0.0617   44.9  0.1846 -109.4
 1.120  0.7282  173.4   3.775   73.4  0.0623   45.1  0.1845 -109.7
 1.140  0.7279  172.8   3.710   73.0  0.0630   45.3  0.1844 -110.0
 1.160  0.7277  172.3   3.645   72.5  0.0636   45.5  0.1843 -110.4
 1.180  0.7275  171.7   3.580   71.9  0.0643   45.7  0.1842 -110.7
 1.200  0.7274  171.2   3.515   71.4  0.0649   45.9  0.1841 -111.0
 1.220  0.7276  170.8   3.462   70.9  0.0655   46.1  0.1842 -111.4
 1.240  0.7278  170.3   3.410   70.4  0.0662   46.4  0.1842 -111.8
 1.260  0.7281  169.9   3.358   69.9  0.0668   46.6  0.1843 -112.2
 1.280  0.7284  169.4   3.306   69.4  0.0675   46.9  0.1844 -112.6
 1.300  0.7288  169.0   3.254   68.9  0.0681   47.1  0.1845 -113.0
 1.320  0.7285  168.6   3.210   68.4  0.0687   47.2  0.1847 -113.4
 1.340  0.7283  168.2   3.165   68.0  0.0693   47.3  0.1848 -113.8
 1.360  0.7281  167.8   3.121   67.5  0.0700   47.5  0.1850 -114.2
 1.380  0.7279  167.4   3.078   67.0  0.0706   47.6  0.1852 -114.6
 1.400  0.7278  167.0   3.034   66.5  0.0712   47.7  0.1854 -115.0
 1.420  0.7281  166.6   2.995   66.1  0.0719   47.8  0.1855 -115.3
 1.440  0.7285  166.2   2.956   65.7  0.0726   48.0  0.1856 -115.6
 1.460  0.7288  165.8   2.917   65.3  0.0734   48.1  0.1857 -116.0
 1.480  0.7292  165.4   2.878   64.8  0.0741   48.3  0.1858 -116.3
 1.500  0.7297  165.0   2.839   64.4  0.0748   48.4  0.1859 -116.6
 1.520  0.7304  164.5   2.805   63.9  0.0755   48.5  0.1864 -116.8
 1.540  0.7311  164.0   2.771   63.4  0.0762   48.7  0.1869 -117.0
 1.560  0.7319  163.5   2.738   62.9  0.0768   48.8  0.1874 -117.3
 1.580  0.7328  163.0   2.704   62.4  0.0775   49.0  0.1879 -117.5
 1.600  0.7337  162.5   2.671   61.9  0.0782   49.1  0.1884 -117.7
 1.620  0.7339  162.2   2.640   61.5  0.0789   49.2  0.1892 -118.1
 1.640  0.7342  161.8   2.609   61.1  0.0796   49.3  0.1901 -118.5
 1.660  0.7345  161.5   2.579   60.7  0.0804   49.4  0.1909 -118.9
 1.680  0.7348  161.1   2.548   60.3  0.0811   49.5  0.1917 -119.2
 1.700  0.7352  160.8   2.518   59.9  0.0818   49.6  0.1926 -119.6
 1.720  0.7357  160.4   2.490   59.5  0.0825   49.7  0.1928 -120.0
 1.740  0.7363  160.0   2.462   59.0  0.0832   49.7  0.1931 -120.4
 1.760  0.7368  159.6   2.435   58.6  0.0839   49.8  0.1934 -120.7
 1.780  0.7374  159.2   2.407   58.2  0.0846   49.8  0.1936 -121.1
 1.800  0.7381  158.8   2.380   57.7  0.0853   49.9  0.1939 -121.5
 1.820  0.7377  158.4   2.355   57.3  0.0861   50.0  0.1944 -121.7
 1.840  0.7372  158.0   2.329   56.8  0.0869   50.0  0.1949 -121.9
 1.860  0.7369  157.7   2.304   56.4  0.0876   50.1  0.1955 -122.0
 1.880  0.7365  157.3   2.279   55.9  0.0884   50.1  0.1960 -122.2
 1.900  0.7362  156.9   2.254   55.4  0.0892   50.2  0.1965 -122.4
 1.920  0.7368  156.5   2.233   55.0  0.0900   50.2  0.1976 -122.7
 1.940  0.7373  156.1   2.212   54.6  0.0907   50.3  0.1986 -123.0
 1.960  0.7380  155.8   2.191   54.2  0.0915   50.3  0.1997 -123.2
 1.980  0.7386  155.4   2.171   53.8  0.0922   50.4  0.2007 -123.5
 2.000  0.7393  155.0   2.150   53.4  0.0930   50.4  0.2018 -123.8
 2.020  0.7397  154.7   2.131   53.0  0.0937   50.4  0.2025 -124.2
 2.040  0.7402  154.3   2.112   52.6  0.0944   50.4  0.2031 -124.5
 2.060  0.7407  154.0   2.093   52.2  0.0952   50.4  0.2038 -124.8
 2.080  0.7412  153.7   2.074   51.8  0.0959   50.4  0.2045 -125.2
 2.100  0.7418  153.3   2.056   51.4  0.0966   50.5  0.2052 -125.5
 2.120  0.7424  153.0   2.037   51.0  0.0973   50.5  0.2059 -125.9
 2.140  0.7430  152.7   2.019   50.6  0.0980   50.5  0.2066 -126.2
 2.160  0.7436  152.4   2.000   50.2  0.0988   50.5  0.2073 -126.5
 2.180  0.7442  152.0   1.982   49.7  0.0995   50.5  0.2081 -126.9
 2.200  0.7449  151.7   1.964   49.3  0.1002   50.5  0.2088 -127.2
 2.220  0.7449  151.3   1.948   48.9  0.1010   50.5  0.2098 -127.5
 2.240  0.7450  151.0   1.931   48.6  0.1017   50.5  0.2108 -127.8
 2.260  0.7451  150.6   1.915   48.2  0.1025   50.5  0.2118 -128.0
 2.280  0.7452  150.2   1.899   47.8  0.1032   50.5  0.2128 -128.3
 2.300  0.7454  149.8   1.882   47.4  0.1040   50.4  0.2138 -128.6
 2.320  0.7455  149.5   1.866   47.0  0.1048   50.4  0.2148 -128.9
 2.340  0.7458  149.1   1.850   46.6  0.1055   50.4  0.2158 -129.1
 2.360  0.7460  148.7   1.834   46.2  0.1063   50.4  0.2168 -129.4
 2.380  0.7463  148.4   1.819   45.7  0.1070   50.4  0.2179 -129.6
 2.400  0.7466  148.0   1.803   45.3  0.1078   50.4  0.2189 -129.9
 2.420  0.7468  147.7   1.789   44.9  0.1085   50.4  0.2197 -130.3
 2.440  0.7471  147.4   1.775   44.5  0.1093   50.3  0.2205 -130.6
 2.460  0.7473  147.0   1.762   44.1  0.1100   50.3  0.2213 -131.0
 2.480  0.7476  146.7   1.748   43.7  0.1108   50.2  0.2222 -131.4
 2.500  0.7479  146.4   1.734   43.3  0.1115   50.2  0.2230 -131.7
 2.520  0.7482  146.1   1.721   42.9  0.1122   50.2  0.2238 -132.1
 2.540  0.7486  145.8   1.708   42.5  0.1130   50.1  0.2247 -132.4
 2.560  0.7490  145.4   1.694   42.1  0.1137   50.1  0.2256 -132.8
 2.580  0.7494  145.1   1.681   41.6  0.1145   50.0  0.2264 -133.2
 2.600  0.7498  144.8   1.668   41.2  0.1152   50.0  0.2273 -133.5
 2.620  0.7504  144.5   1.656   40.9  0.1160   49.9  0.2285 -133.8
 2.640  0.7511  144.1   1.645   40.5  0.1168   49.9  0.2297 -134.1
 2.660  0.7517  143.8   1.633   40.2  0.1176   49.8  0.2309 -134.4
 2.680  0.7524  143.4   1.622   39.8  0.1184   49.8  0.2322 -134.7
 2.700  0.7532  143.1   1.610   39.5  0.1191   49.7  0.2334 -134.9
 2.720  0.7539  142.8   1.599   39.1  0.1199   49.7  0.2346 -135.2
 2.740  0.7547  142.4   1.588   38.7  0.1207   49.6  0.2359 -135.5
 2.760  0.7555  142.1   1.576   38.4  0.1215   49.6  0.2371 -135.8
 2.780  0.7563  141.7   1.565   38.0  0.1223   49.5  0.2383 -136.0
 2.800  0.7572  141.4   1.554   37.6  0.1231   49.5  0.2396 -136.3
 2.820  0.7575  141.1   1.543   37.2  0.1239   49.4  0.2405 -136.7
 2.840  0.7579  140.8   1.533   36.9  0.1246   49.4  0.2414 -137.0
 2.860  0.7583  140.5   1.522   36.5  0.1254   49.3  0.2423 -137.4
 2.880  0.7587  140.2   1.512   36.1  0.1262   49.2  0.2432 -137.8
 2.900  0.7591  139.8   1.502   35.8  0.1269   49.1  0.2442 -138.1
 2.920  0.7595  139.5   1.491   35.4  0.1277   49.1  0.2451 -138.5
 2.940  0.7600  139.2   1.481   35.0  0.1285   49.0  0.2461 -138.8
 2.960  0.7605  138.9   1.471   34.6  0.1293   48.9  0.2470 -139.2
 2.980  0.7610  138.6   1.461   34.2  0.1300   48.9  0.2480 -139.6
 3.000  0.7615  138.3   1.451   33.8  0.1308   48.8  0.2490 -139.9
 3.100  0.7650  136.7   1.408   32.0  0.1346   48.4  0.2554 -141.5
 3.200  0.7690  135.1   1.366   30.1  0.1384   48.0  0.2620 -143.1
 3.300  0.7725  133.4   1.325   28.3  0.1423   47.5  0.2680 -144.8
 3.400  0.7766  131.8   1.285   26.4  0.1462   47.1  0.2742 -146.5
 3.500  0.7815  130.5   1.250   24.7  0.1502   46.6  0.2812 -148.1
 3.600  0.7868  129.2   1.217   23.0  0.1542   46.2  0.2884 -149.7
 3.700  0.7882  127.6   1.180   21.4  0.1575   45.6  0.2951 -151.6
 3.800  0.7903  126.0   1.144   19.7  0.1609   45.1  0.3022 -153.4
 3.900  0.7938  124.7   1.116   18.0  0.1648   44.5  0.3099 -155.0
 4.000  0.7977  123.5   1.088   16.3  0.1687   44.0  0.3179 -156.5
 4.100  0.7984  122.3   1.060   14.9  0.1722   43.4  0.3258 -158.2
 4.200  0.7994  121.1   1.033   13.5  0.1756   42.8  0.3340 -159.8
 4.300  0.8008  119.9   1.006   12.0  0.1791   42.2  0.3424 -161.3
 4.400  0.8025  118.8   0.980   10.4  0.1827   41.6  0.3511 -162.8
 4.500  0.8046  117.6   0.955    8.7  0.1862   41.1  0.3600 -164.2
 4.600  0.8055  116.5   0.933    7.6  0.1897   40.5  0.3672 -165.7
 4.700  0.8067  115.4   0.911    6.4  0.1933   39.9  0.3746 -167.1
 4.800  0.8082  114.3   0.889    5.2  0.1968   39.4  0.3822 -168.4
 4.900  0.8099  113.3   0.868    3.9  0.2004   38.8  0.3900 -169.7
 5.000  0.8120  112.2   0.847    2.5  0.2040   38.3  0.3980 -171.0
 5.100  0.8115  111.5   0.829    1.5  0.2075   37.7  0.4050 -172.1
 5.200  0.8112  110.8   0.812    0.4  0.2110   37.1  0.4121 -173.2
 5.300  0.8110  110.1   0.795   -0.7  0.2146   36.5  0.4194 -174.3
 5.400  0.8109  109.4   0.778   -1.8  0.2181   35.9  0.4268 -175.3
 5.500  0.8109  108.7   0.762   -3.0  0.2217   35.4  0.4344 -176.3
 5.600  0.8120  107.8   0.748   -3.9  0.2254   34.8  0.4410 -177.3
 5.700  0.8134  106.9   0.735   -4.8  0.2292   34.2  0.4477 -178.3
 5.800  0.8149  106.0   0.721   -5.8  0.2330   33.7  0.4546 -179.3
 5.900  0.8167  105.1   0.708   -6.8  0.2368   33.1  0.4616  179.8
 6.000  0.8186  104.2   0.695   -7.8  0.2406   32.6  0.4687  178.9
!
!  f       NFmin   Gammaopt  rn/50
! GHz       dB    MAG  ANG    -
!
! noise parameter not available yet for this operation point!
!
! (c) 2016  Infineon Technologies AG, Munich
