! Infineon Technologies  Discrete & RF Semiconductors
! BFP183
! VCE = 4.0 V,  IC =  35 mA
! Common Emitter S-Parameters:                            Jan 2016
# GHz  S  MA  R  50
!  f         S11            S21            S12            S22
! GHz     MAG   ANG      MAG   ANG      MAG   ANG      MAG   ANG
 0.010  0.4001  -11.2  44.970  175.1  0.0016   83.2  0.9394   -3.1
 0.015  0.4008  -16.6  44.867  172.9  0.0025   82.2  0.9355   -4.9
 0.020  0.4051  -21.9  44.833  170.6  0.0035   81.8  0.9325   -6.8
 0.025  0.4000  -26.9  44.231  168.5  0.0042   80.2  0.9220   -8.4
 0.030  0.3980  -32.0  43.692  166.3  0.0050   79.1  0.9123  -10.0
 0.035  0.3991  -37.1  43.219  164.0  0.0057   78.3  0.9033  -11.7
 0.040  0.4034  -42.1  42.814  161.7  0.0065   77.7  0.8951  -13.3
 0.045  0.4107  -47.0  42.480  159.4  0.0072   77.2  0.8876  -15.1
 0.050  0.4209  -51.7  42.217  157.0  0.0080   76.8  0.8810  -16.8
 0.055  0.4160  -55.5  41.359  155.5  0.0085   74.2  0.8665  -17.9
 0.060  0.4130  -59.4  40.531  154.0  0.0091   71.9  0.8524  -19.0
 0.065  0.4120  -63.3  39.734  152.3  0.0096   69.9  0.8386  -20.1
 0.070  0.4128  -67.2  38.969  150.7  0.0102   68.1  0.8252  -21.3
 0.075  0.4156  -71.1  38.239  148.9  0.0107   66.5  0.8121  -22.6
 0.080  0.4203  -75.0  37.547  147.1  0.0113   65.0  0.7994  -23.8
 0.085  0.4268  -78.7  36.893  145.2  0.0119   63.7  0.7871  -25.1
 0.090  0.4350  -82.3  36.280  143.3  0.0125   62.6  0.7752  -26.5
 0.095  0.4449  -85.7  35.710  141.3  0.0131   61.5  0.7638  -27.9
 0.100  0.4563  -89.0  35.186  139.2  0.0137   60.5  0.7528  -29.3
 0.105  0.4553  -91.5  34.491  138.1  0.0140   60.0  0.7405  -29.9
 0.110  0.4551  -94.1  33.808  137.0  0.0144   59.5  0.7282  -30.5
 0.115  0.4559  -96.6  33.138  135.9  0.0147   59.0  0.7161  -31.2
 0.120  0.4576  -99.2  32.483  134.6  0.0150   58.5  0.7040  -31.9
 0.125  0.4602 -101.7  31.843  133.4  0.0154   58.1  0.6920  -32.5
 0.130  0.4636 -104.2  31.218  132.1  0.0157   57.7  0.6802  -33.3
 0.135  0.4679 -106.6  30.611  130.7  0.0161   57.3  0.6684  -34.0
 0.140  0.4730 -109.0  30.022  129.3  0.0164   56.9  0.6568  -34.8
 0.145  0.4789 -111.3  29.451  127.8  0.0168   56.6  0.6453  -35.6
 0.150  0.4856 -113.6  28.901  126.3  0.0171   56.2  0.6339  -36.4
 0.155  0.4856 -115.2  28.376  125.5  0.0174   55.9  0.6248  -36.7
 0.160  0.4861 -116.9  27.857  124.8  0.0177   55.7  0.6156  -37.1
 0.165  0.4869 -118.5  27.343  123.9  0.0180   55.4  0.6065  -37.4
 0.170  0.4881 -120.1  26.834  123.1  0.0183   55.1  0.5975  -37.8
 0.175  0.4897 -121.7  26.332  122.2  0.0185   54.9  0.5884  -38.2
 0.180  0.4917 -123.3  25.836  121.3  0.0188   54.7  0.5794  -38.5
 0.185  0.4941 -124.9  25.347  120.4  0.0191   54.4  0.5704  -38.9
 0.190  0.4969 -126.5  24.865  119.4  0.0194   54.2  0.5614  -39.3
 0.195  0.5000 -128.1  24.390  118.4  0.0197   54.0  0.5525  -39.8
 0.200  0.5035 -129.6  23.924  117.3  0.0200   53.8  0.5436  -40.2
 0.220  0.5058 -133.9  22.381  114.9  0.0206   52.8  0.5169  -40.8
 0.240  0.5111 -138.2  20.883  112.2  0.0212   51.8  0.4902  -41.4
 0.260  0.5154 -142.1  19.586  109.8  0.0219   51.5  0.4672  -41.9
 0.280  0.5183 -145.6  18.465  108.0  0.0228   51.9  0.4477  -42.1
 0.300  0.5231 -149.0  17.366  105.9  0.0236   52.3  0.4283  -42.3
 0.320  0.5233 -151.4  16.565  104.6  0.0243   52.5  0.4162  -42.3
 0.340  0.5245 -153.9  15.772  103.2  0.0249   52.8  0.4041  -42.3
 0.360  0.5266 -156.3  14.990  101.7  0.0256   53.0  0.3921  -42.3
 0.380  0.5296 -158.6  14.219  100.0  0.0262   53.2  0.3800  -42.3
 0.400  0.5335 -161.0  13.463   98.1  0.0269   53.4  0.3679  -42.3
 0.420  0.5328 -162.7  12.937   97.2  0.0276   53.6  0.3606  -42.2
 0.440  0.5326 -164.4  12.414   96.1  0.0283   53.8  0.3533  -42.1
 0.450  0.5327 -165.3  12.155   95.6  0.0286   53.9  0.3496  -42.0
 0.460  0.5329 -166.2  11.896   95.0  0.0289   54.0  0.3460  -42.0
 0.480  0.5337 -167.9  11.383   93.8  0.0296   54.1  0.3387  -41.8
 0.500  0.5349 -169.6  10.875   92.5  0.0303   54.3  0.3314  -41.7
 0.520  0.5350 -171.0  10.540   91.7  0.0311   54.6  0.3268  -41.6
 0.540  0.5354 -172.4  10.207   90.9  0.0319   54.9  0.3221  -41.5
 0.560  0.5361 -173.8   9.876   90.0  0.0327   55.2  0.3175  -41.4
 0.580  0.5371 -175.2   9.548   89.0  0.0335   55.5  0.3128  -41.3
 0.600  0.5385 -176.6   9.223   88.0  0.0343   55.8  0.3082  -41.2
 0.620  0.5392 -177.7   8.954   87.3  0.0351   56.1  0.3053  -41.2
 0.640  0.5400 -178.9   8.686   86.6  0.0358   56.3  0.3024  -41.1
 0.660  0.5411  180.0   8.420   85.8  0.0366   56.5  0.2994  -41.1
 0.680  0.5424  178.8   8.156   85.0  0.0373   56.8  0.2965  -41.0
 0.700  0.5439  177.7   7.893   84.1  0.0381   57.0  0.2936  -41.0
 0.720  0.5445  176.7   7.709   83.5  0.0388   57.1  0.2916  -41.0
 0.740  0.5453  175.8   7.526   82.8  0.0395   57.3  0.2896  -41.0
 0.760  0.5463  174.8   7.344   82.1  0.0402   57.4  0.2876  -41.1
 0.780  0.5474  173.9   7.164   81.4  0.0409   57.5  0.2856  -41.1
 0.800  0.5486  172.9   6.984   80.6  0.0416   57.6  0.2836  -41.1
 0.820  0.5486  172.0   6.830   80.1  0.0425   57.7  0.2821  -41.2
 0.840  0.5486  171.2   6.677   79.5  0.0433   57.7  0.2806  -41.3
 0.860  0.5488  170.3   6.525   78.9  0.0442   57.8  0.2790  -41.4
 0.880  0.5492  169.5   6.374   78.3  0.0450   57.8  0.2775  -41.5
 0.900  0.5496  168.6   6.223   77.6  0.0459   57.9  0.2760  -41.6
 0.920  0.5508  167.7   6.094   77.0  0.0466   58.0  0.2748  -41.7
 0.940  0.5521  166.9   5.966   76.4  0.0473   58.0  0.2736  -41.8
 0.960  0.5536  166.0   5.839   75.7  0.0481   58.1  0.2724  -42.0
 0.980  0.5552  165.2   5.713   75.0  0.0488   58.1  0.2712  -42.1
 1.000  0.5569  164.3   5.587   74.3  0.0495   58.2  0.2700  -42.2
 1.020  0.5574  163.5   5.489   73.7  0.0504   58.3  0.2690  -42.4
 1.040  0.5581  162.7   5.392   73.2  0.0514   58.3  0.2680  -42.5
 1.060  0.5588  161.9   5.295   72.6  0.0523   58.4  0.2671  -42.7
 1.080  0.5596  161.1   5.199   71.9  0.0533   58.4  0.2661  -42.8
 1.100  0.5606  160.3   5.103   71.3  0.0542   58.5  0.2651  -43.0
 1.120  0.5612  159.6   5.015   70.8  0.0549   58.4  0.2646  -43.2
 1.140  0.5618  158.9   4.927   70.4  0.0556   58.3  0.2641  -43.4
 1.160  0.5626  158.2   4.840   69.9  0.0562   58.3  0.2636  -43.7
 1.180  0.5634  157.5   4.753   69.3  0.0569   58.2  0.2631  -43.9
 1.200  0.5643  156.8   4.666   68.8  0.0576   58.1  0.2626  -44.1
 1.220  0.5651  156.2   4.592   68.3  0.0585   58.0  0.2619  -44.4
 1.240  0.5659  155.6   4.518   67.7  0.0594   57.9  0.2612  -44.7
 1.260  0.5668  155.1   4.445   67.2  0.0602   57.9  0.2605  -44.9
 1.280  0.5678  154.5   4.372   66.6  0.0611   57.8  0.2599  -45.2
 1.300  0.5688  153.9   4.300   66.0  0.0620   57.7  0.2592  -45.5
 1.320  0.5684  153.1   4.242   65.5  0.0628   57.6  0.2586  -45.8
 1.340  0.5682  152.3   4.184   65.1  0.0636   57.6  0.2580  -46.1
 1.360  0.5680  151.6   4.126   64.6  0.0645   57.5  0.2574  -46.3
 1.380  0.5679  150.8   4.069   64.1  0.0653   57.5  0.2568  -46.6
 1.400  0.5680  150.0   4.012   63.6  0.0661   57.4  0.2562  -46.9
 1.420  0.5699  149.5   3.957   63.1  0.0669   57.3  0.2558  -47.2
 1.440  0.5719  148.9   3.902   62.5  0.0677   57.2  0.2554  -47.5
 1.460  0.5739  148.4   3.848   61.9  0.0686   57.2  0.2550  -47.8
 1.480  0.5760  147.8   3.794   61.3  0.0694   57.1  0.2547  -48.1
 1.500  0.5781  147.3   3.740   60.7  0.0702   57.0  0.2543  -48.4
 1.520  0.5782  146.6   3.695   60.2  0.0710   56.8  0.2539  -48.7
 1.540  0.5784  146.0   3.649   59.8  0.0718   56.7  0.2536  -49.0
 1.560  0.5786  145.3   3.604   59.3  0.0727   56.5  0.2533  -49.4
 1.580  0.5790  144.7   3.559   58.8  0.0735   56.4  0.2529  -49.7
 1.600  0.5794  144.0   3.515   58.3  0.0743   56.2  0.2526  -50.0
 1.620  0.5810  143.4   3.469   57.8  0.0751   56.1  0.2521  -50.4
 1.640  0.5827  142.8   3.424   57.3  0.0759   55.9  0.2516  -50.8
 1.660  0.5845  142.2   3.379   56.8  0.0768   55.8  0.2512  -51.3
 1.680  0.5863  141.7   3.334   56.2  0.0776   55.6  0.2507  -51.7
 1.700  0.5882  141.1   3.289   55.7  0.0784   55.5  0.2503  -52.1
 1.720  0.5892  140.5   3.252   55.2  0.0791   55.4  0.2495  -52.5
 1.740  0.5903  139.9   3.214   54.7  0.0799   55.2  0.2487  -52.8
 1.760  0.5915  139.2   3.177   54.2  0.0806   55.1  0.2479  -53.2
 1.780  0.5927  138.6   3.141   53.7  0.0814   54.9  0.2472  -53.5
 1.800  0.5940  138.0   3.104   53.2  0.0821   54.8  0.2464  -53.9
 1.820  0.5948  137.5   3.071   52.8  0.0829   54.6  0.2461  -54.3
 1.840  0.5956  137.0   3.038   52.3  0.0837   54.4  0.2459  -54.6
 1.860  0.5965  136.5   3.005   51.9  0.0846   54.2  0.2457  -55.0
 1.880  0.5974  136.0   2.972   51.4  0.0854   54.1  0.2454  -55.3
 1.900  0.5984  135.5   2.940   50.9  0.0862   53.9  0.2452  -55.7
 1.920  0.5990  134.9   2.908   50.4  0.0869   53.8  0.2448  -56.1
 1.940  0.5996  134.3   2.876   50.0  0.0876   53.6  0.2445  -56.6
 1.960  0.6003  133.8   2.844   49.5  0.0883   53.5  0.2441  -57.0
 1.980  0.6010  133.2   2.812   49.0  0.0890   53.3  0.2438  -57.5
 2.000  0.6018  132.6   2.781   48.5  0.0897   53.2  0.2435  -57.9
 2.020  0.6030  132.1   2.755   48.1  0.0905   53.0  0.2429  -58.3
 2.040  0.6042  131.6   2.729   47.6  0.0913   52.8  0.2423  -58.8
 2.060  0.6055  131.0   2.703   47.2  0.0921   52.7  0.2417  -59.2
 2.080  0.6068  130.5   2.677   46.7  0.0929   52.5  0.2411  -59.7
 2.100  0.6082  130.0   2.651   46.3  0.0937   52.3  0.2406  -60.1
 2.120  0.6096  129.5   2.626   45.8  0.0945   52.1  0.2400  -60.6
 2.140  0.6111  129.0   2.601   45.3  0.0953   52.0  0.2395  -61.0
 2.160  0.6126  128.5   2.576   44.8  0.0961   51.8  0.2390  -61.5
 2.180  0.6142  128.0   2.551   44.3  0.0969   51.7  0.2385  -61.9
 2.200  0.6158  127.5   2.526   43.8  0.0977   51.5  0.2380  -62.4
 2.220  0.6168  127.0   2.504   43.4  0.0984   51.3  0.2376  -62.9
 2.240  0.6180  126.4   2.482   43.0  0.0992   51.1  0.2371  -63.4
 2.260  0.6191  125.9   2.461   42.5  0.0999   50.9  0.2367  -63.9
 2.280  0.6203  125.3   2.439   42.1  0.1006   50.7  0.2364  -64.3
 2.300  0.6216  124.8   2.418   41.6  0.1014   50.6  0.2360  -64.8
 2.320  0.6229  124.2   2.396   41.2  0.1021   50.4  0.2356  -65.3
 2.340  0.6243  123.7   2.375   40.7  0.1029   50.2  0.2353  -65.8
 2.360  0.6258  123.2   2.354   40.3  0.1036   50.0  0.2350  -66.3
 2.380  0.6273  122.6   2.334   39.8  0.1044   49.9  0.2347  -66.8
 2.400  0.6288  122.1   2.313   39.3  0.1051   49.7  0.2344  -67.3
 2.420  0.6304  121.6   2.293   38.9  0.1058   49.5  0.2337  -67.8
 2.440  0.6320  121.2   2.274   38.5  0.1065   49.3  0.2331  -68.3
 2.460  0.6337  120.7   2.254   38.0  0.1072   49.1  0.2324  -68.8
 2.480  0.6354  120.2   2.235   37.6  0.1080   48.9  0.2318  -69.3
 2.500  0.6371  119.8   2.216   37.1  0.1087   48.7  0.2312  -69.8
 2.520  0.6389  119.3   2.197   36.7  0.1094   48.5  0.2306  -70.3
 2.540  0.6408  118.9   2.178   36.2  0.1101   48.3  0.2301  -70.8
 2.560  0.6426  118.4   2.159   35.8  0.1109   48.2  0.2295  -71.4
 2.580  0.6445  117.9   2.140   35.3  0.1116   48.0  0.2290  -71.9
 2.600  0.6465  117.5   2.122   34.8  0.1123   47.8  0.2285  -72.4
 2.620  0.6478  117.0   2.105   34.4  0.1130   47.6  0.2281  -73.0
 2.640  0.6491  116.6   2.088   33.9  0.1136   47.4  0.2277  -73.5
 2.660  0.6505  116.1   2.071   33.5  0.1143   47.1  0.2274  -74.1
 2.680  0.6519  115.7   2.055   33.0  0.1150   46.9  0.2270  -74.6
 2.700  0.6533  115.2   2.038   32.5  0.1156   46.7  0.2267  -75.2
 2.720  0.6548  114.8   2.022   32.1  0.1163   46.5  0.2264  -75.7
 2.740  0.6564  114.3   2.006   31.6  0.1170   46.3  0.2262  -76.3
 2.760  0.6579  113.9   1.990   31.1  0.1176   46.1  0.2259  -76.9
 2.780  0.6596  113.4   1.974   30.6  0.1183   45.9  0.2257  -77.4
 2.800  0.6612  113.0   1.958   30.1  0.1190   45.7  0.2255  -78.0
 2.820  0.6623  112.6   1.944   29.7  0.1197   45.5  0.2249  -78.6
 2.840  0.6634  112.2   1.929   29.3  0.1203   45.3  0.2243  -79.1
 2.860  0.6646  111.8   1.915   29.0  0.1210   45.1  0.2237  -79.7
 2.880  0.6657  111.3   1.901   28.6  0.1217   45.0  0.2232  -80.3
 2.900  0.6670  110.9   1.887   28.2  0.1223   44.8  0.2227  -80.9
 2.920  0.6682  110.5   1.873   27.8  0.1230   44.6  0.2222  -81.4
 2.940  0.6695  110.1   1.859   27.4  0.1237   44.4  0.2217  -82.0
 2.960  0.6708  109.7   1.845   26.9  0.1244   44.2  0.2212  -82.6
 2.980  0.6722  109.3   1.832   26.5  0.1250   44.1  0.2208  -83.2
 3.000  0.6736  108.9   1.818   26.1  0.1257   43.9  0.2204  -83.8
 3.100  0.6790  106.9   1.757   24.4  0.1289   42.9  0.2186  -86.9
 3.200  0.6852  105.0   1.697   22.5  0.1320   42.0  0.2174  -89.9
 3.300  0.6922  103.1   1.640   20.5  0.1353   41.1  0.2168  -93.1
 3.400  0.6999  101.2   1.584   18.4  0.1385   40.2  0.2169  -96.2
 3.500  0.7084   99.4   1.531   16.1  0.1418   39.4  0.2176  -99.3
 3.600  0.7131   97.7   1.485   14.5  0.1447   38.3  0.2170 -102.7
 3.700  0.7185   96.1   1.441   12.7  0.1477   37.3  0.2172 -106.1
 3.800  0.7244   94.5   1.398   10.9  0.1507   36.3  0.2181 -109.5
 3.900  0.7308   92.9   1.357    9.0  0.1538   35.4  0.2198 -112.8
 4.000  0.7378   91.4   1.317    6.9  0.1569   34.5  0.2222 -116.1
 4.100  0.7424   89.9   1.279    5.3  0.1594   33.5  0.2231 -119.5
 4.200  0.7475   88.4   1.242    3.6  0.1620   32.5  0.2249 -122.8
 4.300  0.7530   87.0   1.207    1.9  0.1647   31.6  0.2273 -126.1
 4.400  0.7591   85.5   1.172   -0.0  0.1674   30.7  0.2305 -129.3
 4.500  0.7656   84.1   1.139   -2.0  0.1701   29.8  0.2344 -132.4
 4.600  0.7682   82.9   1.110   -3.3  0.1726   29.1  0.2368 -135.2
 4.700  0.7711   81.7   1.081   -4.7  0.1751   28.5  0.2397 -138.0
 4.800  0.7743   80.5   1.053   -6.1  0.1776   27.8  0.2431 -140.7
 4.900  0.7779   79.4   1.026   -7.6  0.1801   27.2  0.2471 -143.3
 5.000  0.7818   78.2   0.999   -9.2  0.1827   26.6  0.2516 -145.8
 5.100  0.7842   77.2   0.977  -10.6  0.1860   25.5  0.2577 -148.4
 5.200  0.7867   76.3   0.956  -12.0  0.1893   24.5  0.2643 -150.9
 5.300  0.7895   75.3   0.936  -13.6  0.1927   23.5  0.2714 -153.3
 5.400  0.7926   74.3   0.916  -15.1  0.1961   22.5  0.2790 -155.6
 5.500  0.7958   73.4   0.897  -16.8  0.1996   21.6  0.2869 -157.7
 5.600  0.8002   72.4   0.878  -18.1  0.2021   20.6  0.2929 -160.0
 5.700  0.8048   71.4   0.859  -19.4  0.2046   19.7  0.2995 -162.3
 5.800  0.8096   70.5   0.840  -20.8  0.2071   18.8  0.3064 -164.4
 5.900  0.8146   69.5   0.822  -22.2  0.2097   17.9  0.3138 -166.5
 6.000  0.8199   68.6   0.805  -23.7  0.2124   17.0  0.3215 -168.4
!
!  f       NFmin   Gammaopt  rn/50
! GHz       dB    MAG  ANG    -
!
! noise parameter not available yet for this operation point!
!
! (c) 2016  Infineon Technologies AG, Munich
