! Infineon Technologies  Discrete & RF Semiconductors
! BFP183W
! VCE = 8.0 V,  IC =  1.0 mA
! Common Emitter S-Parameters:                            Jan 2016
# GHz  S  MA  R  50
!  f         S11            S21            S12            S22
! GHz     MAG   ANG      MAG   ANG      MAG   ANG      MAG   ANG
 0.010  0.9634   -1.5   3.569  178.2  0.0024   90.6  0.9992   -0.6
 0.015  0.9598   -2.1   3.576  178.2  0.0036   87.5  0.9969   -0.8
 0.020  0.9563   -2.8   3.583  178.2  0.0048   86.0  0.9947   -1.0
 0.025  0.9597   -3.6   3.591  177.7  0.0059   86.9  0.9956   -1.3
 0.030  0.9632   -4.4   3.599  177.2  0.0071   87.5  0.9966   -1.6
 0.035  0.9618   -5.0   3.596  176.7  0.0083   86.7  0.9962   -1.8
 0.040  0.9606   -5.6   3.593  176.2  0.0096   86.1  0.9959   -2.1
 0.045  0.9594   -6.3   3.591  175.7  0.0108   85.6  0.9955   -2.3
 0.050  0.9584   -6.9   3.589  175.2  0.0121   85.2  0.9952   -2.6
 0.055  0.9574   -7.6   3.585  174.7  0.0133   84.5  0.9948   -2.9
 0.060  0.9566   -8.3   3.581  174.2  0.0144   83.8  0.9944   -3.1
 0.065  0.9559   -9.0   3.578  173.7  0.0156   83.3  0.9941   -3.4
 0.070  0.9554   -9.7   3.575  173.2  0.0168   82.9  0.9937   -3.6
 0.075  0.9550  -10.4   3.572  172.7  0.0179   82.5  0.9934   -3.9
 0.080  0.9547  -11.1   3.569  172.2  0.0191   82.1  0.9931   -4.2
 0.085  0.9546  -11.8   3.567  171.7  0.0203   81.8  0.9928   -4.4
 0.090  0.9546  -12.5   3.564  171.2  0.0215   81.6  0.9926   -4.7
 0.095  0.9548  -13.2   3.563  170.7  0.0226   81.3  0.9923   -4.9
 0.100  0.9551  -13.9   3.561  170.2  0.0238   81.1  0.9921   -5.2
 0.105  0.9542  -14.6   3.559  169.7  0.0250   80.5  0.9914   -5.5
 0.110  0.9533  -15.3   3.556  169.2  0.0261   80.0  0.9906   -5.7
 0.115  0.9527  -16.0   3.554  168.7  0.0273   79.6  0.9899   -6.0
 0.120  0.9522  -16.7   3.553  168.2  0.0285   79.2  0.9892   -6.3
 0.125  0.9518  -17.4   3.551  167.7  0.0297   78.8  0.9886   -6.5
 0.130  0.9515  -18.1   3.550  167.1  0.0309   78.4  0.9879   -6.8
 0.135  0.9514  -18.8   3.550  166.6  0.0320   78.1  0.9873   -7.1
 0.140  0.9515  -19.5   3.549  166.1  0.0332   77.8  0.9867   -7.4
 0.145  0.9517  -20.2   3.549  165.6  0.0344   77.5  0.9862   -7.6
 0.150  0.9520  -20.9   3.549  165.1  0.0356   77.2  0.9856   -7.9
 0.155  0.9502  -21.6   3.542  164.6  0.0367   76.7  0.9846   -8.1
 0.160  0.9486  -22.2   3.535  164.1  0.0378   76.2  0.9836   -8.4
 0.165  0.9471  -22.9   3.528  163.6  0.0389   75.8  0.9826   -8.6
 0.170  0.9457  -23.6   3.522  163.1  0.0400   75.4  0.9816   -8.9
 0.175  0.9444  -24.3   3.516  162.6  0.0411   75.0  0.9807   -9.1
 0.180  0.9433  -25.0   3.510  162.1  0.0422   74.6  0.9797   -9.4
 0.185  0.9423  -25.6   3.504  161.6  0.0433   74.3  0.9788   -9.6
 0.190  0.9415  -26.3   3.499  161.1  0.0444   73.9  0.9779   -9.9
 0.195  0.9408  -27.0   3.494  160.6  0.0455   73.6  0.9771  -10.1
 0.200  0.9402  -27.7   3.489  160.1  0.0466   73.3  0.9762  -10.4
 0.220  0.9370  -30.5   3.468  158.4  0.0508   71.5  0.9718  -11.4
 0.240  0.9360  -33.2   3.450  156.7  0.0551   69.9  0.9677  -12.3
 0.260  0.9324  -35.9   3.424  154.9  0.0592   68.2  0.9630  -13.3
 0.280  0.9261  -38.5   3.392  152.8  0.0633   66.5  0.9575  -14.2
 0.300  0.9217  -41.1   3.364  150.7  0.0675   64.9  0.9523  -15.1
 0.320  0.9134  -43.5   3.329  149.0  0.0709   63.1  0.9464  -15.9
 0.340  0.9068  -46.0   3.298  147.4  0.0743   61.5  0.9407  -16.8
 0.360  0.9020  -48.5   3.269  145.6  0.0778   60.1  0.9352  -17.6
 0.380  0.8989  -51.1   3.243  143.9  0.0813   58.7  0.9300  -18.5
 0.400  0.8975  -53.6   3.220  142.1  0.0849   57.5  0.9249  -19.4
 0.420  0.8894  -55.9   3.178  140.5  0.0878   56.0  0.9186  -20.1
 0.440  0.8826  -58.2   3.139  138.8  0.0908   54.7  0.9125  -20.9
 0.450  0.8798  -59.3   3.120  138.0  0.0923   54.0  0.9094  -21.3
 0.460  0.8774  -60.5   3.102  137.1  0.0938   53.4  0.9065  -21.7
 0.480  0.8735  -62.8   3.068  135.4  0.0969   52.2  0.9007  -22.4
 0.500  0.8712  -65.2   3.037  133.6  0.1000   51.1  0.8950  -23.2
 0.520  0.8642  -67.3   2.999  132.2  0.1022   49.7  0.8887  -23.9
 0.540  0.8583  -69.4   2.962  130.8  0.1045   48.5  0.8825  -24.5
 0.560  0.8537  -71.6   2.928  129.3  0.1068   47.2  0.8765  -25.2
 0.580  0.8503  -73.8   2.896  127.8  0.1091   46.0  0.8706  -25.9
 0.600  0.8481  -76.0   2.865  126.3  0.1115   44.9  0.8648  -26.6
 0.620  0.8415  -77.9   2.828  125.0  0.1133   43.8  0.8592  -27.1
 0.640  0.8357  -79.7   2.793  123.6  0.1151   42.8  0.8537  -27.7
 0.660  0.8309  -81.6   2.759  122.3  0.1169   41.8  0.8483  -28.3
 0.680  0.8270  -83.6   2.727  120.8  0.1188   40.8  0.8430  -28.8
 0.700  0.8240  -85.5   2.696  119.4  0.1207   39.9  0.8377  -29.4
 0.720  0.8175  -87.3   2.658  118.2  0.1221   38.9  0.8324  -29.9
 0.740  0.8118  -89.1   2.620  117.0  0.1235   37.9  0.8271  -30.5
 0.760  0.8070  -90.9   2.584  115.8  0.1250   36.9  0.8220  -31.1
 0.780  0.8029  -92.7   2.550  114.5  0.1265   35.9  0.8169  -31.6
 0.800  0.7997  -94.6   2.516  113.2  0.1280   35.0  0.8119  -32.2
 0.820  0.7950  -96.3   2.483  112.1  0.1290   34.1  0.8071  -32.7
 0.840  0.7909  -98.0   2.451  110.9  0.1301   33.2  0.8024  -33.1
 0.860  0.7875  -99.7   2.420  109.8  0.1312   32.4  0.7978  -33.6
 0.880  0.7849 -101.4   2.390  108.5  0.1323   31.5  0.7931  -34.1
 0.900  0.7829 -103.1   2.361  107.3  0.1335   30.7  0.7886  -34.6
 0.920  0.7791 -104.5   2.328  106.4  0.1342   29.9  0.7847  -35.1
 0.940  0.7757 -105.9   2.296  105.4  0.1349   29.1  0.7808  -35.5
 0.960  0.7728 -107.4   2.265  104.4  0.1356   28.3  0.7770  -36.0
 0.980  0.7705 -108.8   2.234  103.4  0.1364   27.6  0.7733  -36.4
 1.000  0.7686 -110.3   2.204  102.3  0.1372   26.8  0.7696  -36.9
 1.020  0.7654 -111.7   2.178  101.3  0.1378   26.1  0.7662  -37.3
 1.040  0.7626 -113.1   2.153  100.3  0.1385   25.4  0.7629  -37.7
 1.060  0.7602 -114.5   2.129   99.3  0.1391   24.7  0.7596  -38.1
 1.080  0.7583 -115.9   2.105   98.3  0.1398   24.0  0.7563  -38.5
 1.100  0.7569 -117.3   2.082   97.2  0.1405   23.3  0.7531  -38.9
 1.120  0.7537 -118.7   2.056   96.3  0.1409   22.6  0.7503  -39.3
 1.140  0.7510 -120.0   2.030   95.4  0.1413   21.9  0.7475  -39.7
 1.160  0.7487 -121.4   2.004   94.5  0.1418   21.2  0.7448  -40.2
 1.180  0.7468 -122.8   1.979   93.6  0.1422   20.6  0.7421  -40.6
 1.200  0.7454 -124.2   1.955   92.6  0.1427   19.9  0.7394  -41.0
 1.220  0.7431 -125.4   1.934   91.8  0.1429   19.4  0.7367  -41.4
 1.240  0.7412 -126.6   1.913   90.9  0.1431   18.9  0.7339  -41.8
 1.260  0.7395 -127.8   1.892   90.0  0.1433   18.4  0.7313  -42.1
 1.280  0.7382 -129.1   1.872   89.1  0.1435   17.9  0.7286  -42.5
 1.300  0.7373 -130.3   1.853   88.2  0.1437   17.4  0.7260  -42.9
 1.320  0.7354 -131.4   1.832   87.4  0.1438   16.9  0.7240  -43.3
 1.340  0.7338 -132.4   1.811   86.6  0.1439   16.4  0.7221  -43.6
 1.360  0.7324 -133.5   1.791   85.8  0.1440   15.8  0.7202  -44.0
 1.380  0.7313 -134.5   1.771   85.0  0.1441   15.3  0.7183  -44.3
 1.400  0.7304 -135.6   1.752   84.1  0.1442   14.8  0.7165  -44.7
 1.420  0.7291 -136.7   1.734   83.4  0.1440   14.3  0.7139  -45.1
 1.440  0.7280 -137.7   1.716   82.7  0.1438   13.9  0.7113  -45.5
 1.460  0.7271 -138.8   1.699   82.0  0.1436   13.4  0.7087  -45.8
 1.480  0.7265 -139.8   1.682   81.2  0.1434   13.0  0.7062  -46.2
 1.500  0.7262 -140.9   1.665   80.5  0.1432   12.5  0.7037  -46.6
 1.520  0.7245 -142.0   1.650   79.7  0.1432   12.1  0.7023  -46.9
 1.540  0.7230 -143.0   1.635   78.9  0.1431   11.7  0.7010  -47.2
 1.560  0.7218 -144.1   1.620   78.1  0.1431   11.4  0.6996  -47.5
 1.580  0.7208 -145.1   1.606   77.3  0.1431   11.0  0.6983  -47.8
 1.600  0.7201 -146.2   1.592   76.5  0.1431   10.6  0.6970  -48.1
 1.620  0.7195 -147.2   1.576   75.9  0.1427   10.2  0.6950  -48.5
 1.640  0.7191 -148.1   1.561   75.3  0.1424    9.8  0.6930  -48.9
 1.660  0.7189 -149.1   1.546   74.6  0.1421    9.3  0.6910  -49.4
 1.680  0.7189 -150.0   1.531   74.0  0.1417    8.9  0.6891  -49.8
 1.700  0.7191 -151.0   1.516   73.3  0.1414    8.5  0.6872  -50.2
 1.720  0.7183 -151.9   1.502   72.6  0.1412    8.2  0.6859  -50.5
 1.740  0.7178 -152.8   1.488   71.9  0.1410    8.0  0.6846  -50.8
 1.760  0.7174 -153.7   1.474   71.2  0.1408    7.7  0.6834  -51.1
 1.780  0.7171 -154.6   1.461   70.4  0.1406    7.5  0.6821  -51.4
 1.800  0.7171 -155.5   1.448   69.7  0.1404    7.2  0.6809  -51.7
 1.820  0.7158 -156.4   1.435   69.0  0.1401    6.9  0.6805  -52.0
 1.840  0.7147 -157.3   1.421   68.3  0.1398    6.5  0.6800  -52.4
 1.860  0.7137 -158.2   1.408   67.6  0.1395    6.2  0.6796  -52.7
 1.880  0.7129 -159.1   1.396   66.9  0.1392    5.8  0.6793  -53.1
 1.900  0.7123 -160.0   1.383   66.2  0.1389    5.5  0.6789  -53.4
 1.920  0.7119 -160.8   1.372   65.6  0.1385    5.2  0.6779  -53.8
 1.940  0.7115 -161.6   1.361   65.0  0.1381    4.9  0.6769  -54.2
 1.960  0.7114 -162.3   1.351   64.4  0.1376    4.7  0.6759  -54.5
 1.980  0.7113 -163.1   1.340   63.8  0.1372    4.4  0.6750  -54.9
 2.000  0.7114 -163.9   1.330   63.2  0.1368    4.1  0.6741  -55.3
 2.020  0.7109 -164.7   1.319   62.6  0.1363    3.9  0.6732  -55.7
 2.040  0.7105 -165.4   1.308   62.1  0.1359    3.6  0.6722  -56.0
 2.060  0.7102 -166.2   1.298   61.5  0.1354    3.4  0.6714  -56.4
 2.080  0.7100 -167.0   1.287   60.9  0.1350    3.2  0.6705  -56.7
 2.100  0.7100 -167.8   1.277   60.3  0.1345    2.9  0.6697  -57.1
 2.120  0.7101 -168.5   1.267   59.7  0.1341    2.7  0.6689  -57.4
 2.140  0.7103 -169.3   1.257   59.0  0.1336    2.4  0.6681  -57.8
 2.160  0.7107 -170.1   1.247   58.4  0.1332    2.2  0.6673  -58.2
 2.180  0.7112 -170.8   1.238   57.8  0.1327    1.9  0.6666  -58.5
 2.200  0.7118 -171.6   1.228   57.1  0.1323    1.7  0.6659  -58.9
 2.220  0.7112 -172.3   1.218   56.6  0.1318    1.5  0.6654  -59.3
 2.240  0.7107 -173.0   1.208   56.0  0.1313    1.3  0.6649  -59.7
 2.260  0.7103 -173.7   1.199   55.5  0.1308    1.1  0.6645  -60.1
 2.280  0.7100 -174.4   1.189   54.9  0.1303    1.0  0.6641  -60.5
 2.300  0.7098 -175.1   1.180   54.3  0.1298    0.8  0.6637  -60.8
 2.320  0.7097 -175.8   1.171   53.7  0.1293    0.6  0.6634  -61.2
 2.340  0.7098 -176.5   1.162   53.1  0.1289    0.4  0.6631  -61.6
 2.360  0.7099 -177.2   1.153   52.5  0.1284    0.2  0.6628  -62.0
 2.380  0.7102 -177.9   1.144   51.9  0.1279   -0.0  0.6625  -62.4
 2.400  0.7105 -178.6   1.135   51.3  0.1274   -0.2  0.6623  -62.8
 2.420  0.7105 -179.3   1.127   50.8  0.1268   -0.3  0.6616  -63.2
 2.440  0.7105 -179.9   1.119   50.3  0.1262   -0.3  0.6610  -63.5
 2.460  0.7107  179.4   1.111   49.8  0.1256   -0.4  0.6604  -63.9
 2.480  0.7109  178.8   1.103   49.3  0.1250   -0.5  0.6598  -64.2
 2.500  0.7113  178.1   1.095   48.7  0.1244   -0.5  0.6593  -64.6
 2.520  0.7117  177.4   1.088   48.2  0.1239   -0.6  0.6587  -65.0
 2.540  0.7122  176.8   1.080   47.7  0.1233   -0.7  0.6582  -65.3
 2.560  0.7129  176.1   1.073   47.1  0.1227   -0.8  0.6578  -65.7
 2.580  0.7136  175.5   1.065   46.6  0.1221   -0.8  0.6573  -66.0
 2.600  0.7144  174.8   1.058   46.0  0.1215   -0.9  0.6569  -66.4
 2.620  0.7143  174.2   1.051   45.5  0.1210   -0.9  0.6567  -66.8
 2.640  0.7144  173.6   1.044   45.0  0.1205   -1.0  0.6566  -67.1
 2.660  0.7145  173.0   1.037   44.5  0.1201   -1.0  0.6565  -67.5
 2.680  0.7147  172.4   1.030   44.0  0.1196   -1.1  0.6564  -67.9
 2.700  0.7149  171.8   1.023   43.5  0.1191   -1.1  0.6563  -68.2
 2.720  0.7153  171.2   1.016   43.0  0.1186   -1.2  0.6563  -68.6
 2.740  0.7157  170.6   1.010   42.4  0.1181   -1.2  0.6563  -69.0
 2.760  0.7162  170.0   1.003   41.9  0.1177   -1.3  0.6563  -69.4
 2.780  0.7167  169.4   0.996   41.4  0.1172   -1.3  0.6563  -69.7
 2.800  0.7174  168.8   0.990   40.8  0.1167   -1.4  0.6564  -70.1
 2.820  0.7176  168.2   0.983   40.3  0.1161   -1.4  0.6563  -70.5
 2.840  0.7179  167.7   0.977   39.9  0.1156   -1.4  0.6563  -70.9
 2.860  0.7183  167.1   0.971   39.4  0.1150   -1.4  0.6562  -71.3
 2.880  0.7187  166.6   0.964   38.9  0.1145   -1.4  0.6563  -71.7
 2.900  0.7192  166.0   0.958   38.4  0.1139   -1.4  0.6563  -72.1
 2.920  0.7198  165.4   0.952   37.9  0.1134   -1.5  0.6564  -72.5
 2.940  0.7204  164.9   0.946   37.4  0.1128   -1.5  0.6565  -72.9
 2.960  0.7211  164.3   0.940   36.9  0.1123   -1.5  0.6566  -73.3
 2.980  0.7219  163.8   0.934   36.3  0.1117   -1.5  0.6568  -73.7
 3.000  0.7227  163.2   0.928   35.8  0.1112   -1.5  0.6570  -74.1
 3.100  0.7254  160.5   0.902   33.6  0.1085   -1.0  0.6571  -76.2
 3.200  0.7297  157.9   0.878   31.2  0.1059   -0.5  0.6580  -78.2
 3.300  0.7341  155.2   0.852   29.0  0.1037    0.3  0.6598  -80.2
 3.400  0.7401  152.6   0.827   26.7  0.1015    1.2  0.6625  -82.2
 3.500  0.7432  150.2   0.803   24.7  0.0992    2.4  0.6629  -84.4
 3.600  0.7476  147.9   0.781   22.6  0.0969    3.6  0.6642  -86.6
 3.700  0.7479  145.5   0.758   20.6  0.0947    5.1  0.6644  -89.0
 3.800  0.7495  143.1   0.735   18.5  0.0925    6.6  0.6657  -91.3
 3.900  0.7552  141.2   0.716   16.6  0.0919    8.7  0.6689  -93.7
 4.000  0.7617  139.3   0.698   14.7  0.0914   10.8  0.6732  -96.0
 4.100  0.7631  137.4   0.679   13.1  0.0915   13.0  0.6743  -98.5
 4.200  0.7652  135.5   0.660   11.5  0.0917   15.1  0.6767 -100.9
 4.300  0.7682  133.7   0.642    9.7  0.0920   17.3  0.6802 -103.3
 4.400  0.7720  131.8   0.624    7.9  0.0924   19.4  0.6850 -105.7
 4.500  0.7766  130.0   0.607    5.9  0.0930   21.5  0.6910 -108.1
 4.600  0.7772  128.5   0.591    4.7  0.0952   23.5  0.6922 -110.5
 4.700  0.7784  127.0   0.575    3.4  0.0974   25.5  0.6946 -112.9
 4.800  0.7802  125.5   0.559    2.0  0.0998   27.3  0.6982 -115.3
 4.900  0.7824  124.0   0.544    0.5  0.1023   29.1  0.7030 -117.7
 5.000  0.7852  122.5   0.529   -1.0  0.1049   30.8  0.7090 -120.0
 5.100  0.7856  121.3   0.515   -1.9  0.1086   31.9  0.7098 -122.2
 5.200  0.7863  120.2   0.502   -2.9  0.1123   33.0  0.7116 -124.4
 5.300  0.7874  119.0   0.488   -3.9  0.1161   33.9  0.7145 -126.6
 5.400  0.7887  117.9   0.475   -5.0  0.1199   34.8  0.7184 -128.8
 5.500  0.7904  116.7   0.462   -6.1  0.1237   35.7  0.7233 -130.9
 5.600  0.7906  115.6   0.452   -6.6  0.1283   36.2  0.7243 -132.8
 5.700  0.7911  114.5   0.441   -7.1  0.1329   36.7  0.7261 -134.7
 5.800  0.7919  113.3   0.431   -7.7  0.1375   37.1  0.7288 -136.6
 5.900  0.7930  112.2   0.421   -8.3  0.1421   37.5  0.7322 -138.5
 6.000  0.7944  111.1   0.411   -8.9  0.1467   37.9  0.7364 -140.4
!
!  f       NFmin   Gammaopt  rn/50
! GHz       dB    MAG  ANG    -
!
! noise parameter not available yet for this operation point!
!
! (c) 2016  Infineon Technologies AG, Munich
