! Infineon Technologies  Discrete & RF Semiconductors
! BFP193W
! VCE = 2.0 V,  IC =  15 mA
! Common Emitter S-Parameters:                            Jan 2016
# GHz  S  MA  R  50
!  f         S11            S21            S12            S22
! GHz     MAG   ANG      MAG   ANG      MAG   ANG      MAG   ANG
 0.010  0.5801  -11.3  35.797  174.0  0.0036   84.7  0.9699   -4.6
 0.015  0.5786  -17.1  35.661  171.8  0.0054   82.0  0.9629   -7.7
 0.020  0.5830  -22.9  35.580  169.5  0.0073   80.7  0.9588  -10.9
 0.025  0.5831  -28.2  35.271  167.1  0.0090   79.1  0.9477  -13.5
 0.030  0.5882  -33.5  35.027  164.6  0.0107   78.0  0.9385  -16.1
 0.035  0.5841  -38.6  34.451  162.3  0.0122   75.1  0.9231  -18.5
 0.040  0.5846  -43.6  33.933  159.9  0.0137   72.8  0.9094  -20.9
 0.045  0.5897  -48.7  33.474  157.5  0.0153   71.0  0.8974  -23.4
 0.050  0.5993  -53.6  33.077  155.0  0.0168   69.5  0.8871  -26.0
 0.055  0.5918  -57.4  32.358  153.5  0.0178   67.1  0.8678  -27.6
 0.060  0.5869  -61.3  31.664  151.9  0.0187   64.9  0.8492  -29.2
 0.065  0.5848  -65.2  30.995  150.2  0.0198   62.9  0.8313  -31.0
 0.070  0.5855  -69.1  30.353  148.5  0.0208   61.1  0.8142  -32.7
 0.075  0.5888  -73.1  29.741  146.7  0.0218   59.5  0.7979  -34.6
 0.080  0.5949  -76.9  29.159  144.8  0.0229   58.1  0.7825  -36.6
 0.085  0.6037  -80.7  28.611  142.8  0.0240   56.7  0.7681  -38.6
 0.090  0.6149  -84.3  28.097  140.8  0.0251   55.5  0.7546  -40.7
 0.095  0.6285  -87.8  27.620  138.7  0.0262   54.4  0.7422  -42.9
 0.100  0.6443  -91.1  27.181  136.5  0.0273   53.4  0.7309  -45.1
 0.105  0.6420  -93.5  26.599  135.4  0.0279   52.4  0.7155  -46.2
 0.110  0.6408  -95.9  26.027  134.3  0.0284   51.4  0.7004  -47.4
 0.115  0.6408  -98.4  25.464  133.2  0.0290   50.4  0.6856  -48.6
 0.120  0.6419 -100.8  24.912  132.0  0.0296   49.5  0.6711  -49.9
 0.125  0.6441 -103.2  24.372  130.8  0.0302   48.6  0.6569  -51.2
 0.130  0.6475 -105.6  23.844  129.4  0.0308   47.8  0.6432  -52.6
 0.135  0.6520 -108.0  23.329  128.1  0.0314   47.0  0.6298  -54.0
 0.140  0.6576 -110.3  22.827  126.6  0.0320   46.2  0.6168  -55.5
 0.145  0.6643 -112.6  22.341  125.2  0.0326   45.4  0.6043  -57.1
 0.150  0.6720 -114.8  21.870  123.6  0.0332   44.7  0.5922  -58.7
 0.155  0.6715 -116.3  21.448  122.9  0.0335   44.2  0.5814  -59.5
 0.160  0.6714 -117.9  21.029  122.2  0.0338   43.7  0.5707  -60.3
 0.165  0.6719 -119.4  20.613  121.4  0.0341   43.1  0.5601  -61.1
 0.170  0.6728 -120.9  20.202  120.6  0.0344   42.6  0.5496  -61.9
 0.175  0.6742 -122.4  19.794  119.8  0.0347   42.1  0.5393  -62.8
 0.180  0.6760 -124.0  19.391  118.9  0.0350   41.7  0.5291  -63.7
 0.185  0.6783 -125.5  18.992  118.0  0.0353   41.2  0.5190  -64.7
 0.190  0.6811 -127.0  18.598  117.1  0.0356   40.7  0.5091  -65.7
 0.195  0.6844 -128.4  18.209  116.1  0.0359   40.3  0.4994  -66.7
 0.200  0.6881 -129.9  17.826  115.1  0.0362   39.8  0.4898  -67.8
 0.220  0.6908 -134.1  16.669  112.9  0.0372   38.6  0.4605  -70.3
 0.240  0.6972 -138.3  15.539  110.4  0.0382   37.5  0.4323  -73.1
 0.260  0.7017 -141.8  14.535  108.2  0.0390   36.7  0.4071  -75.6
 0.280  0.7031 -144.8  13.639  106.4  0.0397   36.0  0.3845  -77.6
 0.300  0.7065 -147.8  12.759  104.4  0.0403   35.4  0.3624  -79.9
 0.320  0.7064 -149.9  12.166  103.3  0.0408   35.3  0.3484  -81.2
 0.340  0.7071 -151.9  11.579  102.1  0.0413   35.2  0.3346  -82.7
 0.360  0.7088 -154.0  10.997  100.7  0.0418   35.1  0.3211  -84.2
 0.380  0.7115 -156.1  10.422   99.2  0.0423   35.0  0.3078  -85.9
 0.400  0.7150 -158.1   9.855   97.5  0.0428   34.9  0.2948  -87.8
 0.420  0.7149 -159.5   9.481   96.6  0.0433   35.2  0.2864  -88.8
 0.440  0.7152 -160.9   9.108   95.7  0.0438   35.4  0.2781  -89.9
 0.450  0.7155 -161.7   8.923   95.2  0.0440   35.6  0.2741  -90.5
 0.460  0.7160 -162.4   8.739   94.6  0.0442   35.7  0.2700  -91.1
 0.480  0.7172 -163.8   8.373   93.5  0.0447   36.0  0.2619  -92.3
 0.500  0.7188 -165.2   8.010   92.3  0.0452   36.2  0.2540  -93.6
 0.520  0.7188 -166.2   7.750   91.6  0.0457   36.5  0.2486  -94.5
 0.540  0.7191 -167.2   7.491   90.8  0.0462   36.8  0.2432  -95.4
 0.560  0.7196 -168.3   7.233   90.0  0.0466   37.1  0.2379  -96.4
 0.580  0.7203 -169.3   6.977   89.1  0.0471   37.3  0.2327  -97.4
 0.600  0.7212 -170.3   6.723   88.2  0.0476   37.6  0.2276  -98.5
 0.620  0.7216 -171.2   6.543   87.6  0.0481   37.9  0.2240  -99.2
 0.640  0.7222 -172.1   6.363   87.0  0.0487   38.2  0.2204  -99.8
 0.660  0.7229 -173.0   6.185   86.3  0.0492   38.5  0.2169 -100.5
 0.680  0.7239 -173.9   6.007   85.6  0.0498   38.8  0.2134 -101.3
 0.700  0.7250 -174.8   5.830   84.8  0.0503   39.1  0.2099 -102.0
 0.720  0.7247 -175.5   5.682   84.2  0.0509   39.4  0.2078 -102.6
 0.740  0.7245 -176.2   5.535   83.6  0.0515   39.7  0.2056 -103.2
 0.760  0.7244 -176.8   5.388   83.0  0.0520   40.0  0.2035 -103.8
 0.780  0.7244 -177.5   5.242   82.3  0.0526   40.3  0.2015 -104.5
 0.800  0.7245 -178.2   5.097   81.6  0.0532   40.6  0.1994 -105.1
 0.820  0.7243 -178.8   4.986   81.1  0.0537   40.9  0.1981 -105.7
 0.840  0.7242 -179.4   4.876   80.6  0.0542   41.2  0.1967 -106.3
 0.860  0.7242  179.9   4.766   80.0  0.0548   41.5  0.1954 -106.9
 0.880  0.7243  179.3   4.656   79.4  0.0553   41.8  0.1942 -107.5
 0.900  0.7245  178.7   4.547   78.8  0.0558   42.1  0.1929 -108.1
 0.920  0.7244  178.2   4.456   78.3  0.0564   42.4  0.1919 -108.6
 0.940  0.7244  177.7   4.366   77.8  0.0570   42.7  0.1910 -109.1
 0.960  0.7244  177.1   4.275   77.3  0.0575   43.0  0.1900 -109.6
 0.980  0.7245  176.6   4.185   76.8  0.0581   43.3  0.1891 -110.2
 1.000  0.7247  176.1   4.096   76.2  0.0587   43.6  0.1882 -110.7
 1.020  0.7255  175.6   4.026   75.7  0.0594   43.9  0.1876 -111.1
 1.040  0.7264  175.1   3.956   75.2  0.0600   44.1  0.1869 -111.5
 1.060  0.7274  174.5   3.886   74.6  0.0607   44.3  0.1863 -111.8
 1.080  0.7284  174.0   3.817   74.1  0.0613   44.6  0.1857 -112.2
 1.100  0.7295  173.5   3.748   73.5  0.0620   44.8  0.1851 -112.6
 1.120  0.7296  173.0   3.685   73.0  0.0626   45.0  0.1850 -112.9
 1.140  0.7298  172.4   3.622   72.6  0.0633   45.3  0.1850 -113.3
 1.160  0.7300  171.9   3.559   72.1  0.0639   45.5  0.1849 -113.6
 1.180  0.7303  171.3   3.497   71.5  0.0646   45.7  0.1848 -114.0
 1.200  0.7307  170.8   3.435   71.0  0.0652   45.9  0.1848 -114.3
 1.220  0.7308  170.4   3.383   70.5  0.0659   46.1  0.1849 -114.7
 1.240  0.7309  170.0   3.332   70.0  0.0665   46.3  0.1851 -115.1
 1.260  0.7310  169.5   3.281   69.5  0.0672   46.5  0.1853 -115.4
 1.280  0.7312  169.1   3.230   69.0  0.0678   46.7  0.1854 -115.8
 1.300  0.7314  168.7   3.179   68.5  0.0685   46.9  0.1856 -116.2
 1.320  0.7319  168.3   3.136   68.1  0.0692   47.1  0.1857 -116.6
 1.340  0.7324  167.9   3.092   67.6  0.0698   47.2  0.1859 -117.0
 1.360  0.7330  167.5   3.049   67.2  0.0705   47.4  0.1860 -117.4
 1.380  0.7336  167.1   3.007   66.7  0.0711   47.5  0.1861 -117.8
 1.400  0.7342  166.7   2.964   66.2  0.0718   47.7  0.1863 -118.2
 1.420  0.7346  166.3   2.925   65.8  0.0725   47.9  0.1865 -118.5
 1.440  0.7350  165.9   2.887   65.4  0.0732   48.1  0.1868 -118.8
 1.460  0.7355  165.4   2.848   64.9  0.0739   48.3  0.1870 -119.1
 1.480  0.7360  165.0   2.810   64.5  0.0746   48.4  0.1872 -119.4
 1.500  0.7365  164.6   2.772   64.0  0.0753   48.6  0.1875 -119.7
 1.520  0.7365  164.1   2.739   63.5  0.0760   48.7  0.1880 -119.9
 1.540  0.7366  163.7   2.705   63.1  0.0767   48.7  0.1885 -120.1
 1.560  0.7367  163.2   2.672   62.6  0.0775   48.8  0.1890 -120.3
 1.580  0.7369  162.8   2.640   62.1  0.0782   48.8  0.1895 -120.5
 1.600  0.7371  162.3   2.607   61.6  0.0789   48.9  0.1900 -120.7
 1.620  0.7377  161.9   2.577   61.2  0.0796   49.0  0.1908 -121.1
 1.640  0.7384  161.5   2.547   60.8  0.0803   49.1  0.1917 -121.5
 1.660  0.7390  161.2   2.517   60.4  0.0811   49.3  0.1926 -121.9
 1.680  0.7398  160.8   2.488   60.0  0.0818   49.4  0.1934 -122.2
 1.700  0.7405  160.4   2.458   59.6  0.0825   49.5  0.1943 -122.6
 1.720  0.7404  160.0   2.430   59.2  0.0832   49.6  0.1946 -123.0
 1.740  0.7403  159.7   2.403   58.7  0.0840   49.7  0.1950 -123.4
 1.760  0.7403  159.3   2.376   58.3  0.0847   49.7  0.1953 -123.7
 1.780  0.7403  159.0   2.349   57.8  0.0855   49.8  0.1956 -124.1
 1.800  0.7403  158.6   2.322   57.3  0.0862   49.9  0.1960 -124.5
 1.820  0.7401  158.2   2.298   56.9  0.0869   49.9  0.1965 -124.7
 1.840  0.7398  157.8   2.274   56.4  0.0876   50.0  0.1970 -124.9
 1.860  0.7397  157.5   2.250   56.0  0.0884   50.0  0.1975 -125.0
 1.880  0.7395  157.1   2.227   55.6  0.0891   50.1  0.1980 -125.2
 1.900  0.7394  156.7   2.203   55.1  0.0898   50.1  0.1985 -125.4
 1.920  0.7397  156.3   2.182   54.7  0.0905   50.1  0.1996 -125.7
 1.940  0.7400  155.9   2.161   54.3  0.0912   50.1  0.2008 -125.9
 1.960  0.7403  155.6   2.140   53.9  0.0920   50.2  0.2019 -126.2
 1.980  0.7407  155.2   2.119   53.5  0.0927   50.2  0.2031 -126.4
 2.000  0.7411  154.8   2.098   53.1  0.0934   50.2  0.2042 -126.7
 2.020  0.7417  154.5   2.079   52.7  0.0942   50.2  0.2049 -127.0
 2.040  0.7423  154.1   2.061   52.3  0.0949   50.2  0.2056 -127.4
 2.060  0.7430  153.8   2.043   51.9  0.0957   50.3  0.2063 -127.7
 2.080  0.7436  153.4   2.024   51.5  0.0964   50.3  0.2071 -128.0
 2.100  0.7443  153.1   2.006   51.1  0.0972   50.3  0.2078 -128.4
 2.120  0.7450  152.8   1.988   50.7  0.0980   50.3  0.2086 -128.7
 2.140  0.7458  152.4   1.970   50.2  0.0987   50.3  0.2093 -129.0
 2.160  0.7466  152.1   1.952   49.8  0.0995   50.4  0.2101 -129.4
 2.180  0.7474  151.7   1.935   49.4  0.1002   50.4  0.2108 -129.7
 2.200  0.7482  151.4   1.917   48.9  0.1010   50.4  0.2116 -130.0
 2.220  0.7483  151.1   1.901   48.5  0.1017   50.4  0.2126 -130.3
 2.240  0.7485  150.7   1.885   48.1  0.1025   50.4  0.2136 -130.5
 2.260  0.7487  150.4   1.869   47.7  0.1032   50.4  0.2146 -130.8
 2.280  0.7489  150.0   1.853   47.3  0.1040   50.4  0.2156 -131.0
 2.300  0.7491  149.7   1.837   46.9  0.1047   50.3  0.2166 -131.3
 2.320  0.7494  149.4   1.821   46.5  0.1055   50.3  0.2176 -131.5
 2.340  0.7497  149.0   1.805   46.1  0.1062   50.3  0.2186 -131.8
 2.360  0.7500  148.7   1.790   45.7  0.1070   50.3  0.2196 -132.0
 2.380  0.7503  148.3   1.774   45.2  0.1077   50.3  0.2207 -132.3
 2.400  0.7507  148.0   1.759   44.8  0.1085   50.3  0.2217 -132.5
 2.420  0.7508  147.7   1.746   44.4  0.1093   50.3  0.2225 -132.9
 2.440  0.7509  147.3   1.733   44.1  0.1101   50.2  0.2234 -133.2
 2.460  0.7511  147.0   1.720   43.7  0.1109   50.2  0.2242 -133.6
 2.480  0.7513  146.6   1.708   43.3  0.1117   50.2  0.2251 -133.9
 2.500  0.7515  146.3   1.695   42.9  0.1125   50.1  0.2259 -134.3
 2.520  0.7518  146.0   1.682   42.5  0.1133   50.1  0.2268 -134.6
 2.540  0.7520  145.6   1.670   42.1  0.1141   50.1  0.2277 -135.0
 2.560  0.7523  145.3   1.658   41.7  0.1149   50.1  0.2286 -135.3
 2.580  0.7527  144.9   1.645   41.3  0.1157   50.0  0.2295 -135.7
 2.600  0.7530  144.6   1.633   40.9  0.1165   50.0  0.2304 -136.0
 2.620  0.7538  144.3   1.621   40.5  0.1173   49.9  0.2316 -136.3
 2.640  0.7546  143.9   1.610   40.2  0.1180   49.9  0.2328 -136.6
 2.660  0.7554  143.6   1.598   39.8  0.1188   49.8  0.2340 -136.9
 2.680  0.7562  143.2   1.587   39.4  0.1196   49.8  0.2353 -137.2
 2.700  0.7571  142.9   1.575   39.1  0.1203   49.7  0.2365 -137.4
 2.720  0.7580  142.6   1.564   38.7  0.1211   49.6  0.2377 -137.7
 2.740  0.7590  142.2   1.552   38.3  0.1219   49.6  0.2390 -138.0
 2.760  0.7599  141.9   1.541   37.9  0.1227   49.5  0.2402 -138.3
 2.780  0.7609  141.5   1.530   37.5  0.1234   49.5  0.2414 -138.5
 2.800  0.7619  141.2   1.519   37.1  0.1242   49.4  0.2427 -138.8
 2.820  0.7624  140.9   1.509   36.8  0.1250   49.3  0.2436 -139.2
 2.840  0.7629  140.6   1.499   36.4  0.1258   49.3  0.2446 -139.5
 2.860  0.7635  140.3   1.488   36.0  0.1266   49.2  0.2455 -139.8
 2.880  0.7641  140.0   1.478   35.7  0.1274   49.1  0.2465 -140.2
 2.900  0.7647  139.6   1.468   35.3  0.1281   49.0  0.2475 -140.5
 2.920  0.7653  139.3   1.458   34.9  0.1289   49.0  0.2485 -140.9
 2.940  0.7659  139.0   1.448   34.6  0.1297   48.9  0.2495 -141.2
 2.960  0.7666  138.7   1.439   34.2  0.1305   48.8  0.2505 -141.5
 2.980  0.7673  138.4   1.429   33.8  0.1313   48.8  0.2515 -141.9
 3.000  0.7680  138.1   1.419   33.4  0.1321   48.7  0.2525 -142.2
 3.100  0.7700  136.5   1.376   31.7  0.1358   48.2  0.2592 -143.8
 3.200  0.7726  134.9   1.335   29.8  0.1395   47.8  0.2661 -145.3
 3.300  0.7760  133.2   1.295   28.0  0.1436   47.3  0.2722 -147.0
 3.400  0.7801  131.6   1.256   26.1  0.1477   46.9  0.2786 -148.7
 3.500  0.7855  130.2   1.221   24.4  0.1514   46.5  0.2855 -150.3
 3.600  0.7913  128.9   1.187   22.6  0.1551   46.1  0.2927 -151.8
 3.700  0.7917  127.3   1.153   20.9  0.1587   45.5  0.2997 -153.6
 3.800  0.7927  125.8   1.121   19.2  0.1624   44.9  0.3069 -155.3
 3.900  0.7965  124.5   1.091   17.6  0.1662   44.3  0.3148 -156.9
 4.000  0.8007  123.3   1.061   15.9  0.1700   43.8  0.3229 -158.4
 4.100  0.8015  122.1   1.034   14.5  0.1735   43.2  0.3309 -160.0
 4.200  0.8026  120.8   1.008   13.1  0.1771   42.5  0.3391 -161.6
 4.300  0.8042  119.6   0.983   11.6  0.1807   41.9  0.3476 -163.1
 4.400  0.8061  118.4   0.958   10.0  0.1843   41.4  0.3563 -164.5
 4.500  0.8083  117.2   0.934    8.3  0.1879   40.8  0.3652 -165.8
 4.600  0.8089  116.2   0.912    7.2  0.1914   40.2  0.3724 -167.3
 4.700  0.8098  115.2   0.890    6.0  0.1949   39.6  0.3799 -168.7
 4.800  0.8109  114.2   0.869    4.7  0.1985   39.1  0.3875 -170.0
 4.900  0.8122  113.2   0.848    3.4  0.2020   38.5  0.3954 -171.3
 5.000  0.8138  112.2   0.827    2.0  0.2056   38.0  0.4035 -172.6
 5.100  0.8140  111.4   0.810    1.0  0.2092   37.4  0.4104 -173.7
 5.200  0.8143  110.6   0.793   -0.0  0.2127   36.7  0.4175 -174.8
 5.300  0.8147  109.9   0.777   -1.1  0.2163   36.1  0.4247 -175.8
 5.400  0.8153  109.1   0.761   -2.2  0.2200   35.6  0.4321 -176.8
 5.500  0.8161  108.3   0.745   -3.4  0.2236   35.0  0.4396 -177.8
 5.600  0.8168  107.5   0.732   -4.3  0.2273   34.4  0.4462 -178.8
 5.700  0.8176  106.6   0.718   -5.1  0.2310   33.9  0.4529 -179.8
 5.800  0.8186  105.8   0.705   -6.1  0.2348   33.4  0.4597  179.3
 5.900  0.8198  104.9   0.693   -7.0  0.2385   32.9  0.4666  178.4
 6.000  0.8212  104.1   0.680   -8.0  0.2423   32.4  0.4737  177.5
!
!  f       NFmin   Gammaopt  rn/50
! GHz       dB    MAG  ANG    -
!
! noise parameter not available yet for this operation point!
!
! (c) 2016  Infineon Technologies AG, Munich
