! Infineon Technologies  Discrete & RF Semiconductors
! BFP196
! VCE = 10.0V,  IC =  12mA
! Common Emitter S-Parameters:                            Jan 2016
# GHz  S  MA  R  50
!  f         S11            S21            S12            S22
! GHz     MAG   ANG      MAG   ANG      MAG   ANG      MAG   ANG
 0.010  0.7414  -11.1  31.674  174.6  0.0049   81.7  0.9547   -6.1
 0.015  0.7361  -16.3  31.117  171.3  0.0071   79.0  0.9459   -8.9
 0.020  0.7370  -21.6  30.666  167.9  0.0094   77.6  0.9394  -11.7
 0.025  0.7225  -26.3  30.121  165.5  0.0115   73.7  0.9219  -14.2
 0.030  0.7131  -31.2  29.629  163.1  0.0136   71.0  0.9062  -16.8
 0.035  0.7090  -36.2  29.192  160.6  0.0158   69.1  0.8923  -19.4
 0.040  0.7102  -41.2  28.814  158.0  0.0179   67.6  0.8805  -22.1
 0.045  0.7168  -46.1  28.497  155.3  0.0201   66.4  0.8707  -24.9
 0.050  0.7286  -50.9  28.242  152.6  0.0223   65.5  0.8630  -27.8
 0.055  0.7123  -54.4  27.570  151.0  0.0236   63.2  0.8420  -29.4
 0.060  0.6989  -58.1  26.921  149.3  0.0249   61.2  0.8216  -31.2
 0.065  0.6884  -61.9  26.296  147.5  0.0263   59.4  0.8021  -33.0
 0.070  0.6809  -65.8  25.698  145.7  0.0277   57.8  0.7834  -34.8
 0.075  0.6767  -69.7  25.128  143.7  0.0291   56.3  0.7656  -36.8
 0.080  0.6758  -73.7  24.589  141.7  0.0305   55.0  0.7487  -38.9
 0.085  0.6781  -77.7  24.081  139.6  0.0319   53.8  0.7329  -41.1
 0.090  0.6836  -81.6  23.608  137.4  0.0334   52.7  0.7181  -43.3
 0.095  0.6923  -85.5  23.171  135.1  0.0348   51.6  0.7046  -45.7
 0.100  0.7041  -89.2  22.773  132.7  0.0363   50.7  0.6922  -48.1
 0.105  0.6969  -91.6  22.232  131.6  0.0369   49.7  0.6768  -49.1
 0.110  0.6910  -94.0  21.698  130.5  0.0376   48.8  0.6616  -50.2
 0.115  0.6863  -96.4  21.173  129.4  0.0382   47.9  0.6467  -51.3
 0.120  0.6828  -98.9  20.657  128.2  0.0389   47.1  0.6320  -52.5
 0.125  0.6806 -101.4  20.151  126.9  0.0395   46.3  0.6176  -53.8
 0.130  0.6797 -103.9  19.656  125.5  0.0402   45.5  0.6035  -55.1
 0.135  0.6801 -106.4  19.172  124.1  0.0409   44.7  0.5898  -56.4
 0.140  0.6818 -108.9  18.700  122.6  0.0416   43.9  0.5764  -57.8
 0.145  0.6848 -111.3  18.242  121.0  0.0423   43.2  0.5633  -59.3
 0.150  0.6891 -113.8  17.798  119.4  0.0430   42.5  0.5507  -60.9
 0.155  0.6858 -115.4  17.454  118.7  0.0434   42.0  0.5405  -61.6
 0.160  0.6830 -117.0  17.113  117.9  0.0439   41.5  0.5304  -62.4
 0.165  0.6807 -118.6  16.774  117.1  0.0443   41.0  0.5203  -63.1
 0.170  0.6790 -120.2  16.440  116.3  0.0448   40.5  0.5104  -63.9
 0.175  0.6778 -121.8  16.108  115.4  0.0452   40.0  0.5006  -64.8
 0.180  0.6771 -123.5  15.781  114.6  0.0457   39.5  0.4908  -65.7
 0.185  0.6771 -125.1  15.457  113.6  0.0461   39.0  0.4812  -66.6
 0.190  0.6775 -126.7  15.138  112.7  0.0466   38.6  0.4717  -67.5
 0.195  0.6785 -128.4  14.823  111.7  0.0470   38.1  0.4624  -68.5
 0.200  0.6801 -130.0  14.513  110.6  0.0475   37.7  0.4532  -69.5
 0.220  0.6736 -135.0  13.491  108.3  0.0485   36.8  0.4238  -71.9
 0.240  0.6723 -140.1  12.495  105.6  0.0495   35.8  0.3953  -74.6
 0.260  0.6725 -144.3  11.644  103.3  0.0504   35.4  0.3719  -77.0
 0.280  0.6719 -147.6  10.923  101.5  0.0513   35.3  0.3532  -78.9
 0.300  0.6737 -151.0  10.214   99.5  0.0522   35.3  0.3350  -81.1
 0.320  0.6712 -153.5   9.735   98.4  0.0529   35.3  0.3220  -82.3
 0.340  0.6700 -155.9   9.261   97.2  0.0536   35.3  0.3091  -83.6
 0.360  0.6700 -158.4   8.791   95.8  0.0543   35.3  0.2964  -84.9
 0.380  0.6712 -160.8   8.327   94.3  0.0550   35.3  0.2838  -86.5
 0.400  0.6737 -163.3   7.869   92.6  0.0557   35.3  0.2715  -88.1
 0.420  0.6727 -165.0   7.558   91.7  0.0564   35.5  0.2639  -89.1
 0.440  0.6722 -166.7   7.250   90.6  0.0572   35.8  0.2564  -90.1
 0.450  0.6722 -167.5   7.096   90.1  0.0575   35.9  0.2527  -90.7
 0.460  0.6723 -168.3   6.943   89.5  0.0579   36.0  0.2490  -91.3
 0.480  0.6730 -170.0   6.640   88.3  0.0587   36.2  0.2417  -92.4
 0.500  0.6743 -171.7   6.340   87.0  0.0594   36.4  0.2345  -93.7
 0.520  0.6738 -173.1   6.134   86.1  0.0601   36.8  0.2299  -94.6
 0.540  0.6737 -174.6   5.930   85.2  0.0609   37.1  0.2254  -95.5
 0.560  0.6740 -176.0   5.727   84.2  0.0616   37.5  0.2210  -96.5
 0.580  0.6747 -177.5   5.527   83.1  0.0624   37.9  0.2166  -97.5
 0.600  0.6759 -178.9   5.328   82.0  0.0631   38.2  0.2123  -98.5
 0.620  0.6755  179.8   5.180   81.2  0.0639   38.5  0.2096  -99.3
 0.640  0.6755  178.5   5.032   80.4  0.0647   38.8  0.2069 -100.0
 0.660  0.6759  177.2   4.886   79.5  0.0655   39.1  0.2043 -100.8
 0.680  0.6766  175.9   4.741   78.5  0.0663   39.3  0.2017 -101.7
 0.700  0.6776  174.6   4.598   77.5  0.0671   39.6  0.1991 -102.5
 0.720  0.6778  173.7   4.484   76.8  0.0681   39.8  0.1974 -103.2
 0.740  0.6781  172.7   4.370   76.1  0.0692   40.1  0.1957 -103.9
 0.760  0.6786  171.8   4.257   75.4  0.0702   40.3  0.1940 -104.6
 0.780  0.6793  170.8   4.145   74.6  0.0713   40.5  0.1924 -105.3
 0.800  0.6802  169.9   4.033   73.8  0.0723   40.7  0.1908 -106.0
 0.820  0.6792  168.9   3.942   73.1  0.0732   41.0  0.1896 -106.5
 0.840  0.6784  167.9   3.851   72.4  0.0741   41.2  0.1884 -106.9
 0.860  0.6779  167.0   3.760   71.6  0.0750   41.4  0.1873 -107.4
 0.880  0.6775  166.0   3.671   70.8  0.0759   41.7  0.1861 -107.9
 0.900  0.6773  165.0   3.582   70.0  0.0768   41.9  0.1850 -108.4
 0.920  0.6785  164.1   3.512   69.4  0.0777   42.1  0.1847 -109.0
 0.940  0.6798  163.1   3.442   68.7  0.0786   42.4  0.1843 -109.5
 0.960  0.6813  162.2   3.373   68.0  0.0795   42.6  0.1840 -110.1
 0.980  0.6830  161.3   3.305   67.3  0.0804   42.8  0.1838 -110.6
 1.000  0.6849  160.4   3.237   66.5  0.0813   43.0  0.1835 -111.2
 1.020  0.6849  159.6   3.180   65.9  0.0823   43.1  0.1836 -111.8
 1.040  0.6851  158.7   3.123   65.2  0.0833   43.3  0.1836 -112.4
 1.060  0.6855  157.9   3.067   64.5  0.0844   43.4  0.1837 -113.0
 1.080  0.6860  157.0   3.011   63.8  0.0854   43.6  0.1839 -113.6
 1.100  0.6866  156.2   2.956   63.1  0.0864   43.7  0.1840 -114.2
 1.120  0.6873  155.4   2.907   62.5  0.0875   43.8  0.1841 -114.7
 1.140  0.6882  154.6   2.858   61.9  0.0885   44.0  0.1842 -115.3
 1.160  0.6892  153.7   2.809   61.2  0.0896   44.1  0.1843 -115.8
 1.180  0.6904  152.9   2.761   60.6  0.0906   44.3  0.1844 -116.4
 1.200  0.6917  152.1   2.713   59.9  0.0917   44.4  0.1846 -116.9
 1.220  0.6918  151.3   2.671   59.3  0.0928   44.4  0.1848 -117.4
 1.240  0.6919  150.6   2.628   58.7  0.0939   44.4  0.1851 -118.0
 1.260  0.6922  149.8   2.587   58.0  0.0949   44.5  0.1854 -118.5
 1.280  0.6927  149.1   2.545   57.4  0.0960   44.5  0.1857 -119.1
 1.300  0.6932  148.3   2.504   56.7  0.0971   44.5  0.1860 -119.6
 1.320  0.6941  147.6   2.467   56.2  0.0982   44.5  0.1867 -120.0
 1.340  0.6952  146.9   2.430   55.6  0.0993   44.6  0.1874 -120.4
 1.360  0.6963  146.1   2.393   55.0  0.1003   44.6  0.1882 -120.9
 1.380  0.6975  145.4   2.357   54.4  0.1014   44.7  0.1889 -121.3
 1.400  0.6989  144.7   2.321   53.8  0.1025   44.7  0.1897 -121.7
 1.420  0.6992  144.1   2.294   53.2  0.1036   44.7  0.1905 -122.2
 1.440  0.6996  143.5   2.266   52.6  0.1047   44.7  0.1914 -122.8
 1.460  0.7000  142.8   2.239   52.0  0.1057   44.8  0.1922 -123.3
 1.480  0.7006  142.2   2.212   51.4  0.1068   44.8  0.1931 -123.8
 1.500  0.7012  141.6   2.186   50.8  0.1079   44.8  0.1940 -124.3
 1.520  0.7028  140.9   2.155   50.2  0.1090   44.8  0.1946 -124.9
 1.540  0.7045  140.2   2.124   49.6  0.1101   44.7  0.1952 -125.4
 1.560  0.7063  139.5   2.093   49.0  0.1113   44.7  0.1958 -126.0
 1.580  0.7082  138.9   2.062   48.4  0.1124   44.6  0.1964 -126.5
 1.600  0.7102  138.2   2.032   47.7  0.1135   44.6  0.1971 -127.1
 1.620  0.7110  137.5   2.008   47.1  0.1145   44.6  0.1977 -127.6
 1.640  0.7119  136.7   1.984   46.5  0.1155   44.6  0.1983 -128.0
 1.660  0.7129  136.0   1.961   45.9  0.1166   44.5  0.1989 -128.5
 1.680  0.7140  135.2   1.937   45.3  0.1176   44.5  0.1996 -128.9
 1.700  0.7153  134.5   1.914   44.7  0.1186   44.5  0.2002 -129.4
 1.720  0.7160  133.9   1.896   44.2  0.1197   44.4  0.2013 -129.7
 1.740  0.7168  133.2   1.877   43.7  0.1208   44.2  0.2023 -130.1
 1.760  0.7177  132.6   1.859   43.2  0.1220   44.1  0.2034 -130.4
 1.780  0.7187  131.9   1.841   42.7  0.1231   43.9  0.2045 -130.8
 1.800  0.7198  131.3   1.823   42.2  0.1242   43.8  0.2056 -131.1
 1.820  0.7206  130.8   1.803   41.6  0.1254   43.8  0.2071 -131.7
 1.840  0.7214  130.3   1.784   41.1  0.1266   43.7  0.2086 -132.3
 1.860  0.7223  129.8   1.765   40.5  0.1279   43.7  0.2101 -132.9
 1.880  0.7233  129.3   1.746   39.9  0.1291   43.6  0.2116 -133.4
 1.900  0.7243  128.8   1.727   39.3  0.1303   43.6  0.2132 -134.0
 1.920  0.7258  128.1   1.709   38.8  0.1314   43.5  0.2137 -134.6
 1.940  0.7274  127.4   1.690   38.3  0.1325   43.4  0.2142 -135.2
 1.960  0.7291  126.8   1.672   37.7  0.1337   43.2  0.2148 -135.7
 1.980  0.7309  126.1   1.654   37.2  0.1348   43.1  0.2153 -136.3
 2.000  0.7328  125.4   1.636   36.6  0.1359   43.0  0.2159 -136.9
 2.020  0.7329  124.8   1.620   36.1  0.1370   42.9  0.2171 -137.3
 2.040  0.7331  124.3   1.604   35.6  0.1381   42.7  0.2183 -137.8
 2.060  0.7334  123.7   1.588   35.1  0.1392   42.6  0.2196 -138.2
 2.080  0.7337  123.2   1.573   34.6  0.1403   42.5  0.2208 -138.6
 2.100  0.7341  122.6   1.557   34.0  0.1414   42.4  0.2221 -139.1
 2.120  0.7345  122.0   1.542   33.5  0.1426   42.3  0.2234 -139.5
 2.140  0.7351  121.5   1.527   32.9  0.1437   42.1  0.2247 -139.9
 2.160  0.7357  120.9   1.512   32.4  0.1448   42.0  0.2260 -140.3
 2.180  0.7364  120.4   1.497   31.8  0.1459   41.9  0.2273 -140.7
 2.200  0.7371  119.8   1.482   31.2  0.1470   41.8  0.2286 -141.1
 2.220  0.7383  119.2   1.470   30.7  0.1481   41.6  0.2298 -141.7
 2.240  0.7396  118.6   1.458   30.2  0.1493   41.5  0.2310 -142.3
 2.260  0.7410  118.0   1.447   29.7  0.1504   41.3  0.2323 -142.9
 2.280  0.7425  117.4   1.435   29.2  0.1516   41.2  0.2335 -143.5
 2.300  0.7441  116.8   1.423   28.7  0.1527   41.0  0.2348 -144.1
 2.320  0.7457  116.2   1.412   28.1  0.1539   40.9  0.2362 -144.7
 2.340  0.7474  115.6   1.401   27.6  0.1550   40.7  0.2375 -145.2
 2.360  0.7492  115.1   1.390   27.0  0.1562   40.6  0.2389 -145.8
 2.380  0.7511  114.5   1.379   26.5  0.1573   40.4  0.2403 -146.3
 2.400  0.7530  113.9   1.368   25.9  0.1585   40.3  0.2417 -146.9
 2.420  0.7536  113.4   1.356   25.5  0.1596   40.1  0.2431 -147.4
 2.440  0.7542  112.8   1.344   25.0  0.1606   39.9  0.2444 -147.9
 2.460  0.7549  112.3   1.332   24.5  0.1617   39.7  0.2458 -148.3
 2.480  0.7556  111.7   1.321   24.1  0.1628   39.6  0.2472 -148.8
 2.500  0.7565  111.2   1.309   23.6  0.1638   39.4  0.2486 -149.3
 2.520  0.7574  110.6   1.297   23.1  0.1649   39.2  0.2501 -149.7
 2.540  0.7583  110.1   1.286   22.6  0.1660   39.0  0.2515 -150.2
 2.560  0.7593  109.6   1.274   22.1  0.1670   38.8  0.2530 -150.6
 2.580  0.7604  109.0   1.263   21.6  0.1681   38.7  0.2545 -151.1
 2.600  0.7616  108.5   1.252   21.1  0.1692   38.5  0.2560 -151.5
 2.620  0.7625  108.0   1.243   20.7  0.1703   38.3  0.2574 -152.1
 2.640  0.7635  107.5   1.234   20.3  0.1714   38.1  0.2589 -152.6
 2.660  0.7645  107.0   1.225   19.8  0.1724   37.9  0.2604 -153.2
 2.680  0.7655  106.5   1.216   19.4  0.1735   37.7  0.2619 -153.7
 2.700  0.7667  106.0   1.207   19.0  0.1746   37.5  0.2635 -154.3
 2.720  0.7679  105.5   1.198   18.5  0.1757   37.3  0.2650 -154.8
 2.740  0.7691  105.0   1.190   18.1  0.1768   37.1  0.2666 -155.3
 2.760  0.7704  104.5   1.181   17.6  0.1779   37.0  0.2682 -155.9
 2.780  0.7718  104.0   1.172   17.2  0.1790   36.8  0.2698 -156.4
 2.800  0.7732  103.5   1.164   16.7  0.1801   36.6  0.2715 -156.9
 2.820  0.7738  103.0   1.155   16.3  0.1812   36.4  0.2732 -157.4
 2.840  0.7745  102.6   1.146   15.8  0.1822   36.2  0.2749 -157.9
 2.860  0.7752  102.1   1.137   15.3  0.1833   36.0  0.2766 -158.3
 2.880  0.7759  101.6   1.128   14.9  0.1844   35.8  0.2783 -158.8
 2.900  0.7767  101.2   1.119   14.4  0.1854   35.6  0.2801 -159.3
 2.920  0.7776  100.7   1.110   13.9  0.1865   35.4  0.2818 -159.7
 2.940  0.7785  100.3   1.102   13.4  0.1876   35.2  0.2836 -160.2
 2.960  0.7794   99.8   1.093   12.9  0.1886   35.1  0.2854 -160.6
 2.980  0.7804   99.4   1.084   12.4  0.1897   34.9  0.2873 -161.1
 3.000  0.7815   98.9   1.076   11.9  0.1908   34.7  0.2891 -161.5
 3.100  0.7858   96.8   1.039   10.2  0.1954   33.5  0.2970 -164.1
 3.200  0.7912   94.7   1.003    8.5  0.2001   32.4  0.3054 -166.6
 3.300  0.7976   92.7   0.968    6.6  0.2049   31.3  0.3145 -168.9
 3.400  0.8049   90.7   0.934    4.5  0.2098   30.3  0.3240 -171.1
 3.500  0.8133   88.7   0.902    2.3  0.2147   29.3  0.3339 -173.2
 3.600  0.8140   86.8   0.876    0.8  0.2191   28.2  0.3429 -175.5
 3.700  0.8156   85.0   0.850   -0.9  0.2237   27.2  0.3525 -177.6
 3.800  0.8180   83.1   0.825   -2.6  0.2282   26.2  0.3625 -179.7
 3.900  0.8212   81.3   0.800   -4.4  0.2329   25.2  0.3730  178.4
 4.000  0.8253   79.5   0.777   -6.4  0.2376   24.3  0.3838  176.6
 4.100  0.8279   77.9   0.757   -7.6  0.2420   23.1  0.3923  174.7
 4.200  0.8311   76.3   0.738   -8.9  0.2466   22.0  0.4012  172.8
 4.300  0.8349   74.8   0.719  -10.3  0.2512   20.9  0.4105  171.0
 4.400  0.8394   73.2   0.701  -11.7  0.2559   19.9  0.4202  169.3
 4.500  0.8444   71.7   0.683  -13.2  0.2607   18.9  0.4302  167.7
 4.600  0.8451   70.4   0.668  -14.3  0.2646   17.8  0.4385  166.0
 4.700  0.8462   69.1   0.654  -15.4  0.2687   16.6  0.4472  164.4
 4.800  0.8477   67.8   0.640  -16.5  0.2728   15.6  0.4563  162.8
 4.900  0.8497   66.5   0.626  -17.7  0.2771   14.5  0.4656  161.3
 5.000  0.8521   65.2   0.612  -19.0  0.2814   13.5  0.4753  159.9
 5.100  0.8542   63.9   0.600  -19.8  0.2853   12.3  0.4826  158.2
 5.200  0.8567   62.7   0.588  -20.7  0.2892   11.2  0.4903  156.5
 5.300  0.8596   61.5   0.576  -21.5  0.2933   10.1  0.4984  154.9
 5.400  0.8629   60.2   0.564  -22.4  0.2975    9.0  0.5068  153.3
 5.500  0.8666   59.0   0.552  -23.4  0.3018    8.0  0.5157  151.8
 5.600  0.8656   57.8   0.544  -24.3  0.3053    6.8  0.5226  150.3
 5.700  0.8649   56.7   0.536  -25.2  0.3089    5.6  0.5298  148.8
 5.800  0.8645   55.5   0.528  -26.1  0.3126    4.4  0.5374  147.3
 5.900  0.8645   54.4   0.521  -27.1  0.3165    3.3  0.5453  145.9
 6.000  0.8649   53.2   0.513  -28.1  0.3205    2.2  0.5536  144.5
!
!  f       NFmin   Gammaopt  rn/50
! GHz       dB    MAG  ANG    -
!
! noise parameter not available yet for this operation point!
!
! (c) 2016  Infineon Technologies AG, Munich
