! Infineon Technologies  Discrete & RF Semiconductors
! BFP183
! VCE = 0.50V,  IC =  45 mA
! Common Emitter S-Parameters:                            Jan 2016
# GHz  S  MA  R  50
!  f         S11            S21            S12            S22
! GHz     MAG   ANG      MAG   ANG      MAG   ANG      MAG   ANG
 0.010  0.2148 -114.2  26.964  164.4  0.0072   62.0  0.4587  -26.3
 0.015  0.2990 -120.2  25.610  157.9  0.0099   58.8  0.4399  -38.1
 0.020  0.3850 -123.5  24.624  150.7  0.0127   57.0  0.4407  -50.3
 0.025  0.4214 -129.5  23.007  147.6  0.0140   53.2  0.4135  -57.0
 0.030  0.4617 -134.5  21.466  144.1  0.0154   50.2  0.3927  -64.5
 0.035  0.5050 -138.7  20.019  140.0  0.0169   47.6  0.3792  -72.7
 0.040  0.5505 -142.2  18.688  135.4  0.0183   45.4  0.3740  -81.3
 0.045  0.5978 -145.2  17.498  130.0  0.0198   43.6  0.3773  -89.9
 0.050  0.6464 -147.7  16.481  124.0  0.0213   42.0  0.3889  -98.2
 0.055  0.6542 -149.5  15.739  122.9  0.0217   40.9  0.3796 -101.2
 0.060  0.6627 -151.3  15.003  121.7  0.0221   39.9  0.3714 -104.4
 0.065  0.6717 -153.0  14.274  120.4  0.0226   38.9  0.3644 -107.6
 0.070  0.6814 -154.7  13.553  119.0  0.0230   37.9  0.3586 -111.0
 0.075  0.6916 -156.3  12.842  117.4  0.0234   37.0  0.3541 -114.5
 0.080  0.7023 -157.9  12.141  115.6  0.0239   36.1  0.3510 -118.1
 0.085  0.7136 -159.4  11.454  113.6  0.0243   35.2  0.3492 -121.7
 0.090  0.7254 -160.9  10.783  111.3  0.0248   34.4  0.3489 -125.4
 0.095  0.7376 -162.3  10.131  108.8  0.0252   33.6  0.3499 -129.0
 0.100  0.7503 -163.7   9.502  105.9  0.0257   32.8  0.3524 -132.6
 0.105  0.7523 -164.5   9.202  105.3  0.0259   32.8  0.3503 -134.0
 0.110  0.7545 -165.3   8.903  104.7  0.0261   32.9  0.3484 -135.4
 0.115  0.7568 -166.1   8.605  104.0  0.0263   32.9  0.3467 -136.9
 0.120  0.7593 -166.8   8.309  103.2  0.0265   33.0  0.3452 -138.4
 0.125  0.7619 -167.6   8.014  102.4  0.0267   33.0  0.3440 -139.8
 0.130  0.7646 -168.4   7.721  101.6  0.0269   33.0  0.3430 -141.3
 0.135  0.7675 -169.1   7.430  100.7  0.0271   33.1  0.3422 -142.8
 0.140  0.7705 -169.9   7.140   99.7  0.0273   33.1  0.3417 -144.3
 0.145  0.7736 -170.7   6.853   98.6  0.0275   33.2  0.3414 -145.8
 0.150  0.7769 -171.4   6.569   97.4  0.0277   33.2  0.3413 -147.3
 0.155  0.7776 -171.9   6.407   97.0  0.0279   33.6  0.3406 -148.1
 0.160  0.7783 -172.4   6.245   96.5  0.0281   34.0  0.3400 -148.8
 0.165  0.7790 -172.9   6.083   96.1  0.0283   34.3  0.3395 -149.6
 0.170  0.7799 -173.4   5.922   95.6  0.0285   34.7  0.3390 -150.4
 0.175  0.7807 -173.9   5.761   95.1  0.0287   35.1  0.3386 -151.2
 0.180  0.7817 -174.4   5.601   94.5  0.0289   35.4  0.3383 -152.0
 0.185  0.7827 -174.8   5.441   94.0  0.0291   35.8  0.3380 -152.7
 0.190  0.7837 -175.3   5.282   93.3  0.0293   36.1  0.3378 -153.5
 0.195  0.7848 -175.8   5.124   92.7  0.0295   36.5  0.3376 -154.3
 0.200  0.7860 -176.3   4.966   92.0  0.0297   36.8  0.3375 -155.1
 0.220  0.7878 -177.6   4.574   90.5  0.0305   37.6  0.3370 -157.0
 0.240  0.7900 -178.9   4.186   88.7  0.0313   38.4  0.3368 -158.9
 0.260  0.7906  179.9   3.864   87.1  0.0323   39.4  0.3367 -160.6
 0.280  0.7896  178.8   3.606   85.9  0.0334   40.5  0.3364 -161.9
 0.300  0.7889  177.8   3.349   84.4  0.0345   41.5  0.3363 -163.2
 0.320  0.7900  176.9   3.181   83.5  0.0354   42.6  0.3362 -164.0
 0.340  0.7913  176.0   3.015   82.4  0.0364   43.7  0.3361 -164.8
 0.360  0.7928  175.1   2.849   81.3  0.0373   44.7  0.3362 -165.6
 0.380  0.7945  174.2   2.685   80.0  0.0383   45.7  0.3362 -166.4
 0.400  0.7964  173.3   2.522   78.5  0.0393   46.6  0.3364 -167.2
 0.420  0.7960  172.5   2.419   77.7  0.0406   47.2  0.3369 -167.7
 0.440  0.7958  171.7   2.317   76.8  0.0418   47.7  0.3373 -168.3
 0.450  0.7957  171.4   2.266   76.3  0.0424   47.9  0.3376 -168.6
 0.460  0.7957  171.0   2.215   75.8  0.0431   48.2  0.3379 -168.8
 0.480  0.7957  170.2   2.114   74.7  0.0443   48.7  0.3384 -169.4
 0.500  0.7959  169.4   2.014   73.5  0.0456   49.1  0.3390 -169.9
 0.520  0.7956  168.7   1.950   72.7  0.0467   49.7  0.3397 -170.3
 0.540  0.7954  168.0   1.886   71.8  0.0479   50.2  0.3404 -170.7
 0.560  0.7953  167.4   1.822   70.8  0.0490   50.7  0.3411 -171.0
 0.580  0.7954  166.7   1.759   69.8  0.0502   51.2  0.3419 -171.4
 0.600  0.7955  166.0   1.697   68.7  0.0513   51.7  0.3426 -171.8
 0.620  0.7960  165.3   1.648   68.0  0.0525   52.0  0.3430 -172.1
 0.640  0.7965  164.7   1.600   67.2  0.0537   52.4  0.3435 -172.4
 0.660  0.7972  164.0   1.552   66.3  0.0548   52.7  0.3440 -172.6
 0.680  0.7980  163.4   1.504   65.4  0.0560   53.0  0.3444 -172.9
 0.700  0.7989  162.7   1.457   64.5  0.0572   53.3  0.3449 -173.2
 0.720  0.7983  162.1   1.422   63.7  0.0585   53.4  0.3456 -173.4
 0.740  0.7979  161.5   1.387   62.9  0.0598   53.5  0.3463 -173.6
 0.760  0.7975  160.9   1.352   62.1  0.0610   53.6  0.3470 -173.9
 0.780  0.7972  160.3   1.318   61.2  0.0623   53.7  0.3477 -174.1
 0.800  0.7970  159.7   1.284   60.3  0.0636   53.8  0.3484 -174.3
 0.820  0.7976  159.1   1.257   59.6  0.0650   54.0  0.3494 -174.5
 0.840  0.7982  158.5   1.230   58.8  0.0664   54.1  0.3504 -174.7
 0.860  0.7989  158.0   1.203   57.9  0.0679   54.2  0.3514 -174.9
 0.880  0.7997  157.4   1.176   57.1  0.0693   54.4  0.3525 -175.1
 0.900  0.8006  156.8   1.150   56.2  0.0707   54.5  0.3535 -175.3
 0.920  0.8012  156.1   1.127   55.5  0.0720   54.5  0.3545 -175.6
 0.940  0.8020  155.4   1.104   54.8  0.0732   54.5  0.3554 -175.8
 0.960  0.8029  154.6   1.081   54.1  0.0745   54.4  0.3564 -176.1
 0.980  0.8039  153.9   1.058   53.3  0.0757   54.4  0.3574 -176.3
 1.000  0.8050  153.2   1.036   52.5  0.0770   54.4  0.3584 -176.6
 1.020  0.8047  152.7   1.017   51.8  0.0783   54.3  0.3596 -176.8
 1.040  0.8044  152.1   0.998   51.0  0.0797   54.2  0.3607 -177.0
 1.060  0.8042  151.6   0.980   50.2  0.0810   54.2  0.3619 -177.2
 1.080  0.8041  151.0   0.961   49.4  0.0824   54.1  0.3630 -177.4
 1.100  0.8040  150.5   0.943   48.5  0.0837   54.0  0.3642 -177.6
 1.120  0.8041  150.0   0.928   47.9  0.0850   53.9  0.3653 -177.8
 1.140  0.8044  149.5   0.913   47.2  0.0863   53.7  0.3663 -178.0
 1.160  0.8046  148.9   0.899   46.6  0.0875   53.6  0.3674 -178.3
 1.180  0.8050  148.4   0.884   45.9  0.0888   53.5  0.3685 -178.5
 1.200  0.8054  147.9   0.870   45.2  0.0901   53.4  0.3696 -178.7
 1.220  0.8066  147.3   0.857   44.5  0.0914   53.3  0.3708 -178.9
 1.240  0.8078  146.7   0.843   43.8  0.0928   53.2  0.3720 -179.1
 1.260  0.8092  146.1   0.830   43.0  0.0941   53.2  0.3732 -179.3
 1.280  0.8106  145.5   0.817   42.2  0.0955   53.1  0.3744 -179.5
 1.300  0.8121  144.9   0.804   41.4  0.0968   53.0  0.3756 -179.7
 1.320  0.8115  144.3   0.794   40.9  0.0981   52.9  0.3769 -179.9
 1.340  0.8111  143.7   0.784   40.3  0.0994   52.7  0.3782  179.9
 1.360  0.8107  143.1   0.774   39.8  0.1007   52.6  0.3795  179.6
 1.380  0.8104  142.5   0.765   39.2  0.1020   52.4  0.3809  179.4
 1.400  0.8102  141.9   0.755   38.6  0.1033   52.3  0.3822  179.2
 1.420  0.8109  141.5   0.745   37.8  0.1046   52.1  0.3832  179.0
 1.440  0.8116  141.0   0.735   37.1  0.1059   51.8  0.3842  178.7
 1.460  0.8123  140.6   0.725   36.3  0.1073   51.6  0.3852  178.5
 1.480  0.8131  140.1   0.716   35.4  0.1086   51.4  0.3862  178.2
 1.500  0.8140  139.7   0.706   34.6  0.1099   51.2  0.3872  178.0
 1.520  0.8141  139.1   0.698   34.1  0.1111   51.0  0.3883  177.8
 1.540  0.8142  138.5   0.691   33.5  0.1123   50.9  0.3895  177.6
 1.560  0.8145  137.8   0.683   33.0  0.1134   50.7  0.3906  177.5
 1.580  0.8148  137.2   0.675   32.4  0.1146   50.6  0.3918  177.3
 1.600  0.8153  136.6   0.668   31.8  0.1158   50.4  0.3929  177.1
 1.620  0.8156  136.0   0.660   31.2  0.1170   50.1  0.3941  176.9
 1.640  0.8160  135.5   0.652   30.6  0.1183   49.9  0.3954  176.6
 1.660  0.8164  134.9   0.644   29.9  0.1195   49.7  0.3967  176.4
 1.680  0.8170  134.4   0.636   29.3  0.1208   49.4  0.3979  176.1
 1.700  0.8176  133.8   0.628   28.6  0.1220   49.2  0.3992  175.9
 1.720  0.8190  133.3   0.621   28.1  0.1233   49.0  0.4009  175.6
 1.740  0.8205  132.8   0.613   27.6  0.1246   48.7  0.4027  175.4
 1.760  0.8221  132.3   0.606   27.1  0.1258   48.5  0.4045  175.1
 1.780  0.8237  131.8   0.599   26.6  0.1271   48.3  0.4062  174.9
 1.800  0.8254  131.3   0.592   26.1  0.1284   48.1  0.4080  174.6
 1.820  0.8247  130.8   0.586   25.6  0.1296   47.8  0.4093  174.3
 1.840  0.8241  130.3   0.580   25.1  0.1308   47.5  0.4106  174.0
 1.860  0.8236  129.8   0.574   24.5  0.1320   47.2  0.4119  173.7
 1.880  0.8231  129.3   0.568   24.0  0.1332   46.9  0.4133  173.4
 1.900  0.8227  128.8   0.562   23.4  0.1344   46.6  0.4146  173.1
 1.920  0.8231  128.2   0.555   22.8  0.1356   46.4  0.4159  172.9
 1.940  0.8236  127.7   0.549   22.3  0.1368   46.1  0.4172  172.7
 1.960  0.8241  127.1   0.543   21.7  0.1379   45.9  0.4185  172.5
 1.980  0.8248  126.6   0.536   21.1  0.1391   45.7  0.4199  172.3
 2.000  0.8255  126.0   0.530   20.5  0.1403   45.5  0.4212  172.1
 2.020  0.8259  125.5   0.526   20.1  0.1414   45.2  0.4228  171.8
 2.040  0.8264  125.0   0.522   19.6  0.1425   44.9  0.4245  171.5
 2.060  0.8269  124.6   0.517   19.2  0.1436   44.7  0.4262  171.2
 2.080  0.8275  124.1   0.513   18.7  0.1447   44.4  0.4279  170.9
 2.100  0.8281  123.6   0.509   18.3  0.1459   44.2  0.4296  170.6
 2.120  0.8288  123.1   0.505   17.8  0.1470   43.9  0.4313  170.3
 2.140  0.8296  122.6   0.501   17.4  0.1481   43.6  0.4330  170.0
 2.160  0.8304  122.2   0.497   16.9  0.1492   43.4  0.4347  169.7
 2.180  0.8313  121.7   0.493   16.4  0.1504   43.1  0.4364  169.4
 2.200  0.8322  121.2   0.489   15.9  0.1515   42.9  0.4382  169.1
 2.220  0.8325  120.7   0.485   15.5  0.1526   42.6  0.4397  168.8
 2.240  0.8329  120.2   0.481   15.2  0.1537   42.4  0.4413  168.5
 2.260  0.8333  119.7   0.476   14.8  0.1548   42.1  0.4429  168.2
 2.280  0.8338  119.2   0.472   14.4  0.1559   41.8  0.4445  167.9
 2.300  0.8344  118.6   0.468   14.0  0.1570   41.6  0.4460  167.6
 2.320  0.8351  118.1   0.464   13.6  0.1581   41.3  0.4477  167.3
 2.340  0.8358  117.6   0.460   13.2  0.1592   41.0  0.4493  167.0
 2.360  0.8366  117.1   0.456   12.8  0.1603   40.8  0.4509  166.7
 2.380  0.8374  116.6   0.452   12.4  0.1614   40.5  0.4525  166.4
 2.400  0.8383  116.1   0.448   12.0  0.1625   40.3  0.4542  166.1
 2.420  0.8390  115.6   0.444   11.6  0.1634   40.0  0.4557  165.8
 2.440  0.8397  115.2   0.441   11.2  0.1644   39.7  0.4571  165.5
 2.460  0.8404  114.7   0.437   10.8  0.1653   39.4  0.4586  165.2
 2.480  0.8413  114.2   0.433   10.4  0.1663   39.1  0.4601  164.9
 2.500  0.8421  113.7   0.430    9.9  0.1673   38.9  0.4616  164.6
 2.520  0.8431  113.3   0.426    9.5  0.1682   38.6  0.4631  164.3
 2.540  0.8441  112.8   0.423    9.1  0.1692   38.3  0.4646  164.0
 2.560  0.8451  112.3   0.419    8.6  0.1701   38.0  0.4662  163.7
 2.580  0.8462  111.9   0.415    8.2  0.1711   37.8  0.4677  163.4
 2.600  0.8474  111.4   0.412    7.7  0.1721   37.5  0.4693  163.1
 2.620  0.8474  111.0   0.409    7.4  0.1730   37.2  0.4709  162.8
 2.640  0.8475  110.5   0.406    7.1  0.1739   36.9  0.4725  162.5
 2.660  0.8476  110.1   0.403    6.8  0.1748   36.6  0.4741  162.2
 2.680  0.8477  109.7   0.400    6.4  0.1757   36.3  0.4757  161.9
 2.700  0.8480  109.2   0.397    6.1  0.1766   36.0  0.4773  161.6
 2.720  0.8482  108.8   0.394    5.8  0.1775   35.7  0.4789  161.3
 2.740  0.8485  108.4   0.392    5.4  0.1784   35.4  0.4806  161.0
 2.760  0.8489  108.0   0.389    5.1  0.1793   35.2  0.4822  160.8
 2.780  0.8493  107.5   0.386    4.8  0.1803   34.9  0.4839  160.5
 2.800  0.8497  107.1   0.383    4.4  0.1812   34.6  0.4856  160.2
 2.820  0.8499  106.7   0.380    4.2  0.1820   34.3  0.4870  159.9
 2.840  0.8502  106.2   0.378    4.0  0.1829   34.1  0.4885  159.6
 2.860  0.8505  105.8   0.375    3.8  0.1837   33.8  0.4899  159.3
 2.880  0.8509  105.4   0.373    3.6  0.1846   33.6  0.4914  159.0
 2.900  0.8513  104.9   0.370    3.4  0.1854   33.3  0.4929  158.7
 2.920  0.8518  104.5   0.367    3.2  0.1863   33.1  0.4944  158.4
 2.940  0.8523  104.1   0.365    3.0  0.1871   32.8  0.4959  158.1
 2.960  0.8528  103.7   0.362    2.7  0.1880   32.6  0.4974  157.8
 2.980  0.8534  103.2   0.360    2.5  0.1888   32.3  0.4989  157.5
 3.000  0.8541  102.8   0.357    2.3  0.1897   32.1  0.5005  157.2
 3.100  0.8545  100.9   0.347    1.5  0.1932   30.7  0.5075  155.7
 3.200  0.8558   99.1   0.337    0.6  0.1969   29.4  0.5148  154.2
 3.300  0.8580   97.2   0.327   -0.3  0.2006   28.1  0.5225  152.7
 3.400  0.8612   95.3   0.318   -1.3  0.2045   26.9  0.5305  151.3
 3.500  0.8652   93.5   0.308   -2.3  0.2084   25.7  0.5388  149.9
 3.600  0.8656   91.9   0.302   -2.6  0.2114   24.4  0.5452  148.4
 3.700  0.8667   90.3   0.297   -3.0  0.2144   23.2  0.5520  147.0
 3.800  0.8684   88.7   0.291   -3.3  0.2176   21.9  0.5591  145.5
 3.900  0.8708   87.2   0.286   -3.7  0.2208   20.7  0.5666  144.1
 4.000  0.8738   85.6   0.280   -4.1  0.2242   19.6  0.5744  142.8
 4.100  0.8734   84.2   0.276   -4.4  0.2262   18.4  0.5791  141.4
 4.200  0.8734   82.8   0.272   -4.8  0.2284   17.3  0.5841  140.0
 4.300  0.8740   81.4   0.267   -5.1  0.2306   16.1  0.5895  138.6
 4.400  0.8752   80.0   0.263   -5.5  0.2329   15.0  0.5952  137.2
 4.500  0.8768   78.6   0.259   -5.9  0.2353   13.9  0.6012  135.9
 4.600  0.8757   77.5   0.258   -5.7  0.2375   13.0  0.6040  134.7
 4.700  0.8749   76.4   0.257   -5.5  0.2397   12.2  0.6070  133.5
 4.800  0.8744   75.2   0.256   -5.3  0.2420   11.3  0.6103  132.3
 4.900  0.8743   74.1   0.255   -5.1  0.2443   10.5  0.6139  131.2
 5.000  0.8745   73.0   0.254   -4.9  0.2467    9.7  0.6177  130.0
 5.100  0.8748   72.0   0.255   -5.3  0.2494    8.6  0.6214  129.0
 5.200  0.8753   71.0   0.256   -5.7  0.2521    7.4  0.6252  128.0
 5.300  0.8761   70.1   0.257   -6.1  0.2550    6.3  0.6293  127.1
 5.400  0.8771   69.1   0.258   -6.5  0.2580    5.3  0.6335  126.1
 5.500  0.8784   68.1   0.259   -6.9  0.2610    4.2  0.6379  125.2
 5.600  0.8794   67.2   0.260   -7.3  0.2624    3.2  0.6404  124.2
 5.700  0.8806   66.3   0.260   -7.7  0.2639    2.1  0.6431  123.2
 5.800  0.8820   65.3   0.261   -8.2  0.2655    1.1  0.6460  122.2
 5.900  0.8837   64.4   0.261   -8.6  0.2672    0.1  0.6491  121.2
 6.000  0.8856   63.5   0.262   -9.0  0.2689   -0.9  0.6524  120.2
!
!  f       NFmin   Gammaopt  rn/50
! GHz       dB    MAG  ANG    -
!
! noise parameter not available yet for this operation point!
!
! (c) 2016  Infineon Technologies AG, Munich
