! Infineon Technologies  Discrete & RF Semiconductors
! BFP183
! VCE = 1.7 V,  IC =  3.0 mA
! Common Emitter S-Parameters:                            Jan 2016
# GHz  S  MA  R  50
!  f         S11            S21            S12            S22
! GHz     MAG   ANG      MAG   ANG      MAG   ANG      MAG   ANG
 0.010  0.8798   -2.3   9.694  178.7  0.0022   86.5  0.9959   -0.9
 0.015  0.8774   -3.7   9.760  178.0  0.0035   87.7  0.9932   -1.4
 0.020  0.8756   -5.2   9.828  177.4  0.0049   88.3  0.9906   -2.0
 0.025  0.8740   -6.4   9.815  176.5  0.0061   87.3  0.9898   -2.5
 0.030  0.8728   -7.6   9.804  175.6  0.0072   86.7  0.9891   -3.0
 0.035  0.8720   -8.8   9.796  174.8  0.0084   86.2  0.9884   -3.4
 0.040  0.8716  -10.0   9.789  173.9  0.0096   85.8  0.9879   -3.9
 0.045  0.8716  -11.2   9.786  173.0  0.0107   85.5  0.9873   -4.4
 0.050  0.8719  -12.4   9.784  172.1  0.0119   85.3  0.9869   -4.9
 0.055  0.8690  -13.5   9.741  171.4  0.0130   83.7  0.9849   -5.4
 0.060  0.8664  -14.6   9.699  170.6  0.0141   82.3  0.9830   -5.8
 0.065  0.8642  -15.8   9.660  169.9  0.0152   81.1  0.9812   -6.3
 0.070  0.8622  -16.9   9.621  169.1  0.0163   80.1  0.9794   -6.8
 0.075  0.8607  -18.1   9.585  168.4  0.0174   79.2  0.9777   -7.3
 0.080  0.8594  -19.2   9.550  167.6  0.0186   78.4  0.9761   -7.8
 0.085  0.8586  -20.3   9.517  166.8  0.0197   77.8  0.9746   -8.2
 0.090  0.8580  -21.5   9.486  166.1  0.0208   77.1  0.9731   -8.7
 0.095  0.8578  -22.6   9.456  165.3  0.0220   76.6  0.9716   -9.2
 0.100  0.8580  -23.8   9.428  164.5  0.0231   76.1  0.9703   -9.7
 0.105  0.8547  -25.0   9.406  163.7  0.0241   75.3  0.9679  -10.2
 0.110  0.8518  -26.2   9.385  163.0  0.0252   74.5  0.9655  -10.6
 0.115  0.8492  -27.4   9.367  162.2  0.0262   73.8  0.9632  -11.1
 0.120  0.8470  -28.6   9.349  161.4  0.0273   73.2  0.9610  -11.6
 0.125  0.8452  -29.8   9.334  160.7  0.0284   72.6  0.9588  -12.1
 0.130  0.8438  -31.1   9.320  159.9  0.0294   72.0  0.9567  -12.6
 0.135  0.8428  -32.3   9.308  159.1  0.0305   71.5  0.9547  -13.0
 0.140  0.8422  -33.5   9.298  158.4  0.0316   71.1  0.9527  -13.5
 0.145  0.8419  -34.8   9.289  157.6  0.0326   70.6  0.9508  -14.0
 0.150  0.8421  -36.0   9.282  156.8  0.0337   70.2  0.9490  -14.5
 0.155  0.8386  -37.0   9.239  156.1  0.0346   69.6  0.9458  -14.9
 0.160  0.8353  -38.1   9.197  155.4  0.0356   69.0  0.9427  -15.3
 0.165  0.8323  -39.2   9.156  154.7  0.0365   68.5  0.9396  -15.7
 0.170  0.8297  -40.2   9.117  154.0  0.0375   67.9  0.9366  -16.1
 0.175  0.8273  -41.3   9.079  153.3  0.0385   67.4  0.9336  -16.5
 0.180  0.8252  -42.4   9.043  152.6  0.0394   67.0  0.9306  -16.9
 0.185  0.8234  -43.5   9.008  151.9  0.0404   66.5  0.9277  -17.3
 0.190  0.8219  -44.6   8.974  151.2  0.0414   66.1  0.9249  -17.7
 0.195  0.8207  -45.7   8.942  150.4  0.0423   65.7  0.9221  -18.1
 0.200  0.8198  -46.8   8.911  149.7  0.0433   65.3  0.9193  -18.5
 0.220  0.8097  -50.9   8.713  147.1  0.0464   62.8  0.9057  -19.9
 0.240  0.8039  -55.1   8.533  144.5  0.0497   60.6  0.8926  -21.4
 0.260  0.7962  -59.2   8.377  142.0  0.0526   58.6  0.8784  -22.8
 0.280  0.7863  -63.2   8.242  139.7  0.0553   56.7  0.8628  -24.0
 0.300  0.7803  -67.3   8.119  137.4  0.0580   55.0  0.8476  -25.2
 0.320  0.7655  -70.7   7.925  135.3  0.0601   53.2  0.8331  -26.2
 0.340  0.7534  -74.2   7.742  133.2  0.0623   51.5  0.8189  -27.2
 0.360  0.7443  -77.8   7.570  130.9  0.0645   49.9  0.8050  -28.3
 0.380  0.7381  -81.5   7.411  128.6  0.0668   48.5  0.7914  -29.4
 0.400  0.7351  -85.2   7.265  126.1  0.0691   47.1  0.7781  -30.6
 0.420  0.7241  -88.1   7.076  124.5  0.0706   45.7  0.7655  -31.3
 0.440  0.7150  -91.0   6.892  122.8  0.0721   44.4  0.7530  -32.0
 0.450  0.7112  -92.5   6.803  121.9  0.0728   43.7  0.7468  -32.4
 0.460  0.7079  -94.0   6.715  121.0  0.0736   43.1  0.7407  -32.8
 0.480  0.7027  -97.1   6.545  119.2  0.0752   41.9  0.7285  -33.6
 0.500  0.6996 -100.2   6.382  117.2  0.0768   40.7  0.7164  -34.4
 0.520  0.6908 -102.7   6.249  115.8  0.0779   39.6  0.7065  -34.9
 0.540  0.6834 -105.3   6.119  114.4  0.0789   38.6  0.6966  -35.4
 0.560  0.6774 -107.9   5.993  112.9  0.0800   37.6  0.6868  -36.0
 0.580  0.6728 -110.6   5.872  111.3  0.0812   36.6  0.6771  -36.5
 0.600  0.6697 -113.3   5.755  109.7  0.0823   35.7  0.6674  -37.1
 0.620  0.6637 -115.6   5.626  108.5  0.0830   34.9  0.6590  -37.5
 0.640  0.6589 -118.0   5.499  107.2  0.0836   34.1  0.6507  -37.9
 0.660  0.6552 -120.4   5.375  105.9  0.0843   33.4  0.6424  -38.3
 0.680  0.6526 -122.8   5.254  104.5  0.0850   32.6  0.6341  -38.7
 0.700  0.6512 -125.2   5.136  103.1  0.0857   31.9  0.6259  -39.1
 0.720  0.6460 -127.1   5.041  102.0  0.0862   31.2  0.6190  -39.4
 0.740  0.6416 -129.0   4.949  100.8  0.0866   30.6  0.6121  -39.8
 0.760  0.6378 -131.0   4.858   99.6  0.0871   30.0  0.6053  -40.2
 0.780  0.6349 -133.0   4.770   98.4  0.0876   29.3  0.5985  -40.5
 0.800  0.6327 -135.0   4.684   97.1  0.0881   28.7  0.5917  -40.9
 0.820  0.6294 -136.8   4.597   96.2  0.0885   28.2  0.5862  -41.2
 0.840  0.6266 -138.6   4.511   95.2  0.0889   27.8  0.5807  -41.4
 0.860  0.6245 -140.4   4.427   94.2  0.0893   27.3  0.5753  -41.7
 0.880  0.6231 -142.2   4.344   93.2  0.0898   26.9  0.5698  -42.0
 0.900  0.6222 -144.0   4.262   92.1  0.0902   26.4  0.5644  -42.3
 0.920  0.6198 -145.7   4.183   91.2  0.0904   25.9  0.5601  -42.6
 0.940  0.6178 -147.3   4.104   90.3  0.0906   25.5  0.5558  -42.8
 0.960  0.6165 -149.0   4.027   89.3  0.0908   25.0  0.5515  -43.1
 0.980  0.6156 -150.7   3.952   88.3  0.0911   24.6  0.5472  -43.3
 1.000  0.6153 -152.4   3.877   87.2  0.0913   24.1  0.5429  -43.6
 1.020  0.6140 -154.0   3.818   86.3  0.0916   23.8  0.5394  -43.8
 1.040  0.6131 -155.5   3.760   85.4  0.0919   23.5  0.5360  -44.1
 1.060  0.6127 -157.1   3.703   84.5  0.0921   23.2  0.5325  -44.3
 1.080  0.6127 -158.6   3.647   83.6  0.0924   22.9  0.5290  -44.6
 1.100  0.6132 -160.2   3.592   82.6  0.0927   22.6  0.5256  -44.8
 1.120  0.6114 -161.5   3.536   81.9  0.0928   22.3  0.5231  -45.1
 1.140  0.6100 -162.8   3.481   81.2  0.0929   21.9  0.5207  -45.3
 1.160  0.6089 -164.1   3.426   80.4  0.0931   21.6  0.5182  -45.6
 1.180  0.6081 -165.5   3.372   79.6  0.0932   21.2  0.5158  -45.8
 1.200  0.6076 -166.8   3.318   78.8  0.0933   20.9  0.5134  -46.1
 1.220  0.6074 -168.1   3.270   78.1  0.0934   20.7  0.5108  -46.3
 1.240  0.6074 -169.3   3.222   77.3  0.0935   20.5  0.5083  -46.6
 1.260  0.6078 -170.6   3.175   76.5  0.0937   20.4  0.5057  -46.8
 1.280  0.6085 -171.8   3.129   75.7  0.0938   20.2  0.5031  -47.1
 1.300  0.6094 -173.1   3.083   74.9  0.0939   20.0  0.5006  -47.3
 1.320  0.6078 -174.2   3.044   74.2  0.0940   19.8  0.4986  -47.6
 1.340  0.6065 -175.4   3.005   73.5  0.0941   19.7  0.4966  -47.8
 1.360  0.6054 -176.5   2.967   72.7  0.0942   19.5  0.4946  -48.1
 1.380  0.6045 -177.7   2.929   72.0  0.0943   19.4  0.4926  -48.3
 1.400  0.6039 -178.8   2.892   71.2  0.0944   19.2  0.4906  -48.6
 1.420  0.6050 -179.9   2.856   70.5  0.0943   19.1  0.4885  -48.8
 1.440  0.6063  178.9   2.821   69.7  0.0942   19.1  0.4863  -49.1
 1.460  0.6079  177.8   2.787   69.0  0.0942   19.0  0.4842  -49.3
 1.480  0.6097  176.7   2.753   68.2  0.0941   19.0  0.4821  -49.6
 1.500  0.6117  175.6   2.719   67.4  0.0940   18.9  0.4800  -49.8
 1.520  0.6113  174.6   2.687   66.8  0.0941   18.8  0.4784  -50.0
 1.540  0.6111  173.5   2.655   66.1  0.0943   18.7  0.4769  -50.3
 1.560  0.6111  172.5   2.623   65.5  0.0944   18.7  0.4754  -50.5
 1.580  0.6113  171.4   2.592   64.8  0.0946   18.6  0.4738  -50.8
 1.600  0.6117  170.4   2.561   64.1  0.0947   18.5  0.4723  -51.0
 1.620  0.6115  169.4   2.531   63.5  0.0946   18.4  0.4705  -51.3
 1.640  0.6114  168.4   2.501   62.9  0.0945   18.4  0.4687  -51.7
 1.660  0.6115  167.3   2.471   62.2  0.0945   18.3  0.4670  -52.0
 1.680  0.6119  166.3   2.442   61.6  0.0944   18.3  0.4652  -52.4
 1.700  0.6124  165.3   2.413   60.9  0.0943   18.2  0.4635  -52.7
 1.720  0.6147  164.4   2.386   60.3  0.0945   18.2  0.4623  -52.9
 1.740  0.6171  163.5   2.360   59.6  0.0947   18.3  0.4612  -53.2
 1.760  0.6197  162.6   2.333   58.9  0.0948   18.3  0.4600  -53.4
 1.780  0.6224  161.7   2.308   58.2  0.0950   18.4  0.4588  -53.7
 1.800  0.6253  160.8   2.282   57.5  0.0952   18.4  0.4577  -53.9
 1.820  0.6249  160.0   2.258   56.9  0.0952   18.3  0.4569  -54.2
 1.840  0.6246  159.2   2.234   56.4  0.0953   18.2  0.4562  -54.5
 1.860  0.6244  158.4   2.210   55.8  0.0953   18.1  0.4554  -54.9
 1.880  0.6243  157.6   2.186   55.2  0.0954   18.0  0.4547  -55.2
 1.900  0.6244  156.8   2.163   54.6  0.0954   17.9  0.4540  -55.5
 1.920  0.6247  155.9   2.140   54.0  0.0955   17.9  0.4531  -55.8
 1.940  0.6251  155.0   2.117   53.4  0.0956   18.0  0.4523  -56.1
 1.960  0.6256  154.1   2.094   52.8  0.0956   18.0  0.4514  -56.3
 1.980  0.6263  153.2   2.071   52.1  0.0957   18.1  0.4506  -56.6
 2.000  0.6272  152.3   2.049   51.5  0.0958   18.1  0.4498  -56.9
 2.020  0.6281  151.5   2.030   51.0  0.0959   18.2  0.4488  -57.3
 2.040  0.6291  150.7   2.012   50.4  0.0960   18.2  0.4477  -57.6
 2.060  0.6303  149.9   1.994   49.8  0.0960   18.3  0.4467  -58.0
 2.080  0.6316  149.1   1.976   49.3  0.0961   18.3  0.4457  -58.4
 2.100  0.6329  148.3   1.958   48.7  0.0962   18.4  0.4448  -58.7
 2.120  0.6345  147.5   1.940   48.1  0.0963   18.5  0.4438  -59.1
 2.140  0.6361  146.7   1.923   47.5  0.0964   18.5  0.4429  -59.5
 2.160  0.6378  145.9   1.906   46.9  0.0964   18.6  0.4420  -59.8
 2.180  0.6397  145.2   1.889   46.2  0.0965   18.6  0.4411  -60.2
 2.200  0.6417  144.4   1.872   45.6  0.0966   18.7  0.4402  -60.6
 2.220  0.6424  143.7   1.856   45.1  0.0967   18.7  0.4396  -61.0
 2.240  0.6431  143.0   1.840   44.6  0.0968   18.8  0.4391  -61.3
 2.260  0.6440  142.2   1.824   44.1  0.0969   18.8  0.4386  -61.7
 2.280  0.6450  141.5   1.808   43.6  0.0970   18.9  0.4381  -62.1
 2.300  0.6461  140.8   1.792   43.1  0.0971   18.9  0.4376  -62.4
 2.320  0.6472  140.1   1.777   42.5  0.0973   18.9  0.4371  -62.8
 2.340  0.6485  139.4   1.761   42.0  0.0974   19.0  0.4366  -63.2
 2.360  0.6499  138.7   1.746   41.4  0.0975   19.0  0.4362  -63.6
 2.380  0.6513  138.0   1.731   40.9  0.0976   19.1  0.4358  -63.9
 2.400  0.6529  137.3   1.716   40.3  0.0977   19.1  0.4354  -64.3
 2.420  0.6541  136.6   1.701   39.8  0.0979   19.2  0.4343  -64.7
 2.440  0.6554  135.9   1.687   39.3  0.0980   19.4  0.4333  -65.1
 2.460  0.6568  135.3   1.673   38.8  0.0982   19.5  0.4323  -65.5
 2.480  0.6583  134.6   1.659   38.2  0.0984   19.6  0.4312  -65.8
 2.500  0.6599  133.9   1.645   37.7  0.0985   19.8  0.4303  -66.2
 2.520  0.6615  133.2   1.631   37.2  0.0987   19.9  0.4293  -66.6
 2.540  0.6633  132.6   1.617   36.6  0.0989   20.0  0.4283  -67.0
 2.560  0.6651  131.9   1.604   36.1  0.0991   20.1  0.4274  -67.4
 2.580  0.6671  131.3   1.590   35.5  0.0992   20.3  0.4265  -67.8
 2.600  0.6691  130.6   1.577   34.9  0.0994   20.4  0.4256  -68.2
 2.620  0.6702  130.0   1.565   34.4  0.0996   20.4  0.4253  -68.6
 2.640  0.6713  129.4   1.552   33.9  0.0998   20.5  0.4250  -69.0
 2.660  0.6726  128.7   1.540   33.4  0.1000   20.5  0.4247  -69.4
 2.680  0.6739  128.1   1.528   32.8  0.1002   20.5  0.4244  -69.8
 2.700  0.6753  127.5   1.516   32.3  0.1004   20.6  0.4242  -70.2
 2.720  0.6768  126.9   1.505   31.8  0.1007   20.6  0.4240  -70.7
 2.740  0.6783  126.3   1.493   31.2  0.1009   20.6  0.4238  -71.1
 2.760  0.6799  125.7   1.481   30.6  0.1011   20.6  0.4236  -71.5
 2.780  0.6816  125.1   1.470   30.1  0.1013   20.7  0.4234  -71.9
 2.800  0.6834  124.5   1.459   29.5  0.1015   20.7  0.4233  -72.3
 2.820  0.6844  123.9   1.449   29.0  0.1017   20.8  0.4225  -72.7
 2.840  0.6855  123.3   1.439   28.6  0.1020   20.9  0.4218  -73.2
 2.860  0.6866  122.7   1.428   28.1  0.1022   21.0  0.4210  -73.6
 2.880  0.6878  122.2   1.419   27.6  0.1024   21.1  0.4203  -74.1
 2.900  0.6891  121.6   1.409   27.1  0.1026   21.3  0.4197  -74.5
 2.920  0.6904  121.0   1.399   26.6  0.1029   21.4  0.4190  -75.0
 2.940  0.6918  120.4   1.389   26.1  0.1031   21.5  0.4184  -75.4
 2.960  0.6933  119.8   1.380   25.6  0.1033   21.6  0.4178  -75.9
 2.980  0.6949  119.3   1.370   25.0  0.1036   21.7  0.4172  -76.3
 3.000  0.6965  118.7   1.361   24.5  0.1038   21.8  0.4167  -76.8
 3.100  0.7003  116.2   1.314   22.5  0.1057   22.2  0.4152  -79.1
 3.200  0.7054  113.7   1.268   20.4  0.1075   22.6  0.4144  -81.5
 3.300  0.7118  111.3   1.224   18.1  0.1094   22.9  0.4143  -83.8
 3.400  0.7195  108.9   1.182   15.7  0.1112   23.3  0.4149  -86.2
 3.500  0.7284  106.6   1.143   13.1  0.1131   23.6  0.4162  -88.5
 3.600  0.7327  104.6   1.107   11.3  0.1153   23.8  0.4154  -91.3
 3.700  0.7379  102.6   1.073    9.4  0.1175   23.9  0.4156  -94.0
 3.800  0.7439  100.6   1.040    7.4  0.1196   24.0  0.4168  -96.8
 3.900  0.7508   98.7   1.008    5.2  0.1218   24.2  0.4189  -99.5
 4.000  0.7586   96.8   0.978    2.9  0.1240   24.3  0.4220 -102.2
 4.100  0.7619   95.0   0.948    1.2  0.1264   24.2  0.4220 -105.1
 4.200  0.7660   93.3   0.919   -0.6  0.1289   24.1  0.4231 -108.0
 4.300  0.7707   91.6   0.890   -2.5  0.1313   24.1  0.4253 -110.9
 4.400  0.7761   89.9   0.863   -4.5  0.1338   24.0  0.4285 -113.7
 4.500  0.7822   88.2   0.837   -6.7  0.1362   23.9  0.4328 -116.5
 4.600  0.7850   86.8   0.814   -8.0  0.1391   24.0  0.4333 -119.2
 4.700  0.7882   85.5   0.792   -9.3  0.1420   24.1  0.4347 -122.0
 4.800  0.7918   84.1   0.770  -10.7  0.1448   24.2  0.4371 -124.7
 4.900  0.7959   82.8   0.748  -12.2  0.1477   24.3  0.4406 -127.4
 5.000  0.8004   81.5   0.727  -13.8  0.1506   24.4  0.4449 -130.0
 5.100  0.8031   80.4   0.710  -15.1  0.1548   23.7  0.4491 -132.7
 5.200  0.8060   79.2   0.693  -16.6  0.1589   23.1  0.4543 -135.4
 5.300  0.8093   78.1   0.677  -18.0  0.1631   22.4  0.4605 -138.0
 5.400  0.8129   77.0   0.661  -19.6  0.1674   21.9  0.4676 -140.5
 5.500  0.8168   75.9   0.646  -21.2  0.1716   21.3  0.4756 -143.0
 5.600  0.8204   74.8   0.630  -22.4  0.1748   20.5  0.4801 -145.6
 5.700  0.8244   73.7   0.614  -23.6  0.1780   19.8  0.4855 -148.1
 5.800  0.8287   72.6   0.599  -24.8  0.1813   19.1  0.4919 -150.6
 5.900  0.8332   71.5   0.584  -26.2  0.1846   18.4  0.4991 -153.0
 6.000  0.8381   70.4   0.569  -27.6  0.1879   17.7  0.5072 -155.3
!
!  f       NFmin   Gammaopt  rn/50
! GHz       dB    MAG  ANG    -
!
! noise parameter not available yet for this operation point!
!
! (c) 2016  Infineon Technologies AG, Munich
