! Infineon Technologies  Discrete & RF Semiconductors
! BFP196W
! VCE = 10.0V,  IC =  20mA
! Common Emitter S-Parameters:                            Jan 2016
# GHz  S  MA  R  50
!  f         S11            S21            S12            S22
! GHz     MAG   ANG      MAG   ANG      MAG   ANG      MAG   ANG
 0.010  0.6271  -17.0  45.620  170.2  0.0048   74.0  0.9219   -9.2
 0.015  0.6260  -25.7  45.356  167.2  0.0074   72.2  0.9083  -13.7
 0.020  0.6394  -34.3  45.217  164.2  0.0101   71.4  0.9005  -18.3
 0.025  0.6398  -42.0  44.266  160.8  0.0120   69.1  0.8812  -22.5
 0.030  0.6515  -49.5  43.480  157.2  0.0140   67.5  0.8667  -26.8
 0.035  0.6442  -56.1  42.133  154.3  0.0156   64.1  0.8389  -30.3
 0.040  0.6456  -62.8  40.904  151.2  0.0173   61.4  0.8146  -34.1
 0.045  0.6557  -69.3  39.802  147.9  0.0191   59.2  0.7939  -38.0
 0.050  0.6740  -75.6  38.839  144.4  0.0208   57.3  0.7772  -42.2
 0.055  0.6645  -79.6  37.577  142.9  0.0216   55.2  0.7515  -44.1
 0.060  0.6582  -83.6  36.342  141.4  0.0224   53.3  0.7267  -46.2
 0.065  0.6553  -87.8  35.137  139.7  0.0232   51.5  0.7029  -48.4
 0.070  0.6558  -91.9  33.963  137.9  0.0240   49.8  0.6802  -50.8
 0.075  0.6598  -96.0  32.826  135.9  0.0249   48.3  0.6588  -53.3
 0.080  0.6671 -100.1  31.729  133.9  0.0258   46.8  0.6387  -56.0
 0.085  0.6776 -104.0  30.675  131.7  0.0266   45.5  0.6202  -58.8
 0.090  0.6912 -107.8  29.670  129.3  0.0276   44.2  0.6032  -61.9
 0.095  0.7077 -111.4  28.719  126.8  0.0285   43.0  0.5881  -65.1
 0.100  0.7270 -114.9  27.828  124.1  0.0294   41.9  0.5748  -68.4
 0.105  0.7255 -117.0  27.080  123.2  0.0298   41.1  0.5603  -69.8
 0.110  0.7250 -119.1  26.339  122.3  0.0302   40.3  0.5461  -71.2
 0.115  0.7254 -121.1  25.605  121.3  0.0306   39.5  0.5322  -72.7
 0.120  0.7268 -123.2  24.879  120.3  0.0310   38.7  0.5188  -74.3
 0.125  0.7291 -125.3  24.162  119.1  0.0314   38.0  0.5057  -75.9
 0.130  0.7324 -127.3  23.454  118.0  0.0318   37.3  0.4931  -77.7
 0.135  0.7366 -129.4  22.757  116.7  0.0322   36.6  0.4810  -79.5
 0.140  0.7418 -131.4  22.072  115.4  0.0326   35.9  0.4695  -81.4
 0.145  0.7478 -133.4  21.398  114.0  0.0331   35.2  0.4584  -83.5
 0.150  0.7547 -135.3  20.739  112.5  0.0335   34.6  0.4480  -85.6
 0.155  0.7537 -136.5  20.273  112.0  0.0337   34.3  0.4396  -86.6
 0.160  0.7530 -137.7  19.808  111.4  0.0339   34.1  0.4314  -87.6
 0.165  0.7526 -138.8  19.346  110.8  0.0341   33.8  0.4232  -88.7
 0.170  0.7525 -140.0  18.886  110.1  0.0343   33.6  0.4153  -89.8
 0.175  0.7527 -141.2  18.428  109.5  0.0345   33.3  0.4075  -90.9
 0.180  0.7533 -142.4  17.973  108.8  0.0348   33.1  0.3999  -92.1
 0.185  0.7542 -143.6  17.521  108.0  0.0350   32.8  0.3924  -93.4
 0.190  0.7554 -144.8  17.071  107.3  0.0352   32.6  0.3852  -94.7
 0.195  0.7570 -145.9  16.625  106.5  0.0354   32.3  0.3781  -96.0
 0.200  0.7588 -147.1  16.183  105.6  0.0356   32.1  0.3713  -97.4
 0.220  0.7631 -150.2  15.019  103.9  0.0362   31.6  0.3533 -100.7
 0.240  0.7696 -153.2  13.869  101.9  0.0368   31.1  0.3367 -104.4
 0.260  0.7724 -155.8  12.866  100.2  0.0373   31.0  0.3216 -107.7
 0.280  0.7709 -158.0  12.000   98.7  0.0377   31.1  0.3074 -110.5
 0.300  0.7705 -160.2  11.143   97.1  0.0381   31.3  0.2940 -113.5
 0.320  0.7708 -161.8  10.606   96.2  0.0386   31.5  0.2870 -115.4
 0.340  0.7717 -163.3  10.073   95.2  0.0391   31.7  0.2803 -117.3
 0.360  0.7732 -164.9   9.542   94.1  0.0396   31.9  0.2740 -119.4
 0.380  0.7752 -166.5   9.016   92.9  0.0401   32.0  0.2681 -121.6
 0.400  0.7778 -168.0   8.494   91.5  0.0406   32.2  0.2625 -123.8
 0.420  0.7773 -169.0   8.163   90.8  0.0410   32.7  0.2587 -125.2
 0.440  0.7771 -170.1   7.833   90.0  0.0414   33.3  0.2552 -126.6
 0.450  0.7771 -170.6   7.669   89.6  0.0416   33.5  0.2534 -127.4
 0.460  0.7772 -171.1   7.505   89.1  0.0418   33.8  0.2517 -128.1
 0.480  0.7774 -172.2   7.178   88.2  0.0423   34.3  0.2485 -129.6
 0.500  0.7780 -173.2   6.854   87.2  0.0427   34.8  0.2454 -131.2
 0.520  0.7782 -174.0   6.627   86.6  0.0432   35.3  0.2433 -132.2
 0.540  0.7786 -174.8   6.400   85.9  0.0438   35.8  0.2412 -133.2
 0.560  0.7792 -175.7   6.175   85.2  0.0443   36.2  0.2392 -134.3
 0.580  0.7799 -176.5   5.950   84.4  0.0449   36.7  0.2373 -135.3
 0.600  0.7808 -177.3   5.727   83.6  0.0454   37.1  0.2355 -136.4
 0.620  0.7812 -178.0   5.571   83.1  0.0460   37.5  0.2344 -137.1
 0.640  0.7818 -178.7   5.415   82.5  0.0465   38.0  0.2333 -137.8
 0.660  0.7824 -179.4   5.260   81.9  0.0471   38.4  0.2323 -138.5
 0.680  0.7832  179.9   5.105   81.3  0.0476   38.8  0.2313 -139.3
 0.700  0.7841  179.2   4.951   80.6  0.0482   39.2  0.2304 -140.0
 0.720  0.7830  178.7   4.825   80.1  0.0488   39.7  0.2301 -140.5
 0.740  0.7820  178.1   4.700   79.5  0.0494   40.2  0.2299 -141.0
 0.760  0.7810  177.6   4.576   78.9  0.0500   40.6  0.2296 -141.6
 0.780  0.7801  177.0   4.452   78.3  0.0506   41.1  0.2294 -142.1
 0.800  0.7793  176.5   4.328   77.6  0.0512   41.5  0.2292 -142.6
 0.820  0.7798  175.9   4.232   77.1  0.0519   41.9  0.2291 -143.1
 0.840  0.7804  175.4   4.137   76.6  0.0526   42.2  0.2291 -143.6
 0.860  0.7810  174.8   4.042   76.0  0.0532   42.5  0.2290 -144.2
 0.880  0.7817  174.3   3.948   75.4  0.0539   42.9  0.2290 -144.7
 0.900  0.7825  173.7   3.854   74.8  0.0546   43.2  0.2290 -145.2
 0.920  0.7824  173.3   3.775   74.3  0.0552   43.6  0.2292 -145.5
 0.940  0.7824  172.8   3.697   73.9  0.0558   43.9  0.2295 -145.9
 0.960  0.7825  172.4   3.619   73.4  0.0564   44.2  0.2298 -146.2
 0.980  0.7826  171.9   3.541   72.8  0.0570   44.6  0.2300 -146.6
 1.000  0.7827  171.5   3.464   72.3  0.0576   44.9  0.2303 -146.9
 1.020  0.7833  171.0   3.406   71.8  0.0583   45.2  0.2305 -147.2
 1.040  0.7840  170.5   3.348   71.4  0.0590   45.4  0.2307 -147.4
 1.060  0.7848  170.1   3.290   70.9  0.0596   45.6  0.2309 -147.7
 1.080  0.7856  169.6   3.232   70.3  0.0603   45.9  0.2312 -147.9
 1.100  0.7864  169.1   3.175   69.8  0.0610   46.1  0.2314 -148.2
 1.120  0.7866  168.7   3.121   69.3  0.0617   46.3  0.2320 -148.4
 1.140  0.7868  168.3   3.067   68.8  0.0624   46.5  0.2326 -148.6
 1.160  0.7871  167.8   3.014   68.3  0.0632   46.7  0.2332 -148.8
 1.180  0.7874  167.4   2.961   67.8  0.0639   46.9  0.2338 -149.0
 1.200  0.7878  167.0   2.908   67.2  0.0646   47.1  0.2344 -149.2
 1.220  0.7876  166.6   2.864   66.7  0.0653   47.3  0.2350 -149.4
 1.240  0.7874  166.2   2.821   66.3  0.0660   47.5  0.2357 -149.6
 1.260  0.7872  165.7   2.778   65.8  0.0667   47.7  0.2363 -149.9
 1.280  0.7871  165.3   2.735   65.3  0.0674   47.9  0.2370 -150.1
 1.300  0.7870  164.9   2.692   64.8  0.0681   48.1  0.2376 -150.3
 1.320  0.7872  164.5   2.654   64.3  0.0689   48.2  0.2383 -150.5
 1.340  0.7874  164.2   2.617   63.9  0.0696   48.4  0.2389 -150.7
 1.360  0.7877  163.8   2.580   63.4  0.0704   48.5  0.2396 -150.8
 1.380  0.7880  163.5   2.543   62.9  0.0711   48.7  0.2402 -151.0
 1.400  0.7883  163.1   2.506   62.4  0.0719   48.8  0.2409 -151.2
 1.420  0.7889  162.7   2.473   62.0  0.0727   48.9  0.2417 -151.4
 1.440  0.7894  162.4   2.440   61.6  0.0734   49.1  0.2425 -151.6
 1.460  0.7901  162.0   2.407   61.1  0.0742   49.2  0.2432 -151.8
 1.480  0.7907  161.7   2.375   60.7  0.0749   49.4  0.2440 -152.0
 1.500  0.7914  161.3   2.342   60.2  0.0757   49.5  0.2448 -152.2
 1.520  0.7914  160.9   2.314   59.7  0.0765   49.6  0.2454 -152.4
 1.540  0.7915  160.5   2.285   59.2  0.0772   49.7  0.2461 -152.5
 1.560  0.7916  160.0   2.257   58.7  0.0780   49.8  0.2467 -152.7
 1.580  0.7917  159.6   2.230   58.2  0.0787   49.9  0.2474 -152.8
 1.600  0.7919  159.2   2.202   57.7  0.0795   50.0  0.2480 -153.0
 1.620  0.7924  158.8   2.176   57.3  0.0802   50.1  0.2491 -153.1
 1.640  0.7928  158.4   2.151   56.9  0.0810   50.2  0.2502 -153.2
 1.660  0.7934  158.1   2.125   56.5  0.0817   50.3  0.2513 -153.4
 1.680  0.7939  157.7   2.100   56.0  0.0825   50.4  0.2524 -153.5
 1.700  0.7945  157.3   2.075   55.6  0.0832   50.5  0.2535 -153.6
 1.720  0.7944  157.0   2.052   55.2  0.0840   50.5  0.2544 -153.8
 1.740  0.7943  156.6   2.030   54.7  0.0848   50.6  0.2553 -154.0
 1.760  0.7942  156.3   2.007   54.3  0.0857   50.6  0.2563 -154.2
 1.780  0.7942  155.9   1.985   53.9  0.0865   50.7  0.2572 -154.4
 1.800  0.7942  155.6   1.963   53.4  0.0873   50.7  0.2581 -154.6
 1.820  0.7940  155.2   1.943   53.0  0.0881   50.7  0.2589 -154.7
 1.840  0.7938  154.8   1.922   52.5  0.0888   50.7  0.2597 -154.9
 1.860  0.7937  154.3   1.902   52.0  0.0896   50.8  0.2605 -155.0
 1.880  0.7936  153.9   1.882   51.6  0.0903   50.8  0.2613 -155.2
 1.900  0.7936  153.5   1.862   51.1  0.0911   50.8  0.2621 -155.3
 1.920  0.7940  153.2   1.845   50.7  0.0919   50.8  0.2631 -155.4
 1.940  0.7945  152.8   1.827   50.3  0.0927   50.9  0.2640 -155.5
 1.960  0.7950  152.5   1.810   49.9  0.0936   50.9  0.2650 -155.7
 1.980  0.7955  152.1   1.793   49.4  0.0944   51.0  0.2659 -155.8
 2.000  0.7961  151.8   1.776   49.0  0.0952   51.0  0.2669 -155.9
 2.020  0.7965  151.5   1.760   48.6  0.0960   51.0  0.2681 -156.1
 2.040  0.7969  151.1   1.744   48.2  0.0968   51.0  0.2692 -156.3
 2.060  0.7973  150.8   1.729   47.8  0.0976   51.0  0.2704 -156.5
 2.080  0.7977  150.5   1.713   47.4  0.0984   51.0  0.2715 -156.6
 2.100  0.7982  150.1   1.697   47.0  0.0991   50.9  0.2727 -156.8
 2.120  0.7987  149.8   1.682   46.6  0.0999   50.9  0.2739 -157.0
 2.140  0.7993  149.5   1.667   46.1  0.1007   50.9  0.2751 -157.2
 2.160  0.7998  149.2   1.651   45.7  0.1015   50.9  0.2762 -157.4
 2.180  0.8004  148.8   1.636   45.3  0.1023   50.9  0.2774 -157.5
 2.200  0.8010  148.5   1.621   44.8  0.1031   50.9  0.2786 -157.7
 2.220  0.8013  148.1   1.607   44.4  0.1039   50.8  0.2796 -157.9
 2.240  0.8016  147.8   1.594   44.0  0.1047   50.8  0.2807 -158.0
 2.260  0.8020  147.4   1.580   43.6  0.1056   50.7  0.2818 -158.2
 2.280  0.8024  147.1   1.567   43.2  0.1064   50.7  0.2828 -158.4
 2.300  0.8029  146.7   1.553   42.7  0.1072   50.6  0.2839 -158.5
 2.320  0.8033  146.3   1.540   42.3  0.1080   50.6  0.2849 -158.7
 2.340  0.8038  146.0   1.527   41.9  0.1088   50.5  0.2860 -158.8
 2.360  0.8043  145.6   1.514   41.4  0.1097   50.5  0.2871 -159.0
 2.380  0.8049  145.3   1.501   41.0  0.1105   50.4  0.2881 -159.1
 2.400  0.8055  144.9   1.488   40.5  0.1113   50.4  0.2892 -159.3
 2.420  0.8055  144.6   1.477   40.1  0.1121   50.3  0.2905 -159.5
 2.440  0.8054  144.3   1.466   39.7  0.1129   50.3  0.2918 -159.8
 2.460  0.8054  143.9   1.455   39.3  0.1138   50.2  0.2932 -160.0
 2.480  0.8055  143.6   1.444   38.9  0.1146   50.1  0.2945 -160.2
 2.500  0.8055  143.3   1.433   38.5  0.1154   50.0  0.2958 -160.5
 2.520  0.8056  143.0   1.422   38.1  0.1162   50.0  0.2972 -160.7
 2.540  0.8057  142.7   1.412   37.7  0.1170   49.9  0.2985 -160.9
 2.560  0.8059  142.3   1.401   37.3  0.1179   49.8  0.2999 -161.2
 2.580  0.8060  142.0   1.390   36.8  0.1187   49.8  0.3012 -161.4
 2.600  0.8062  141.7   1.380   36.4  0.1195   49.7  0.3026 -161.6
 2.620  0.8070  141.4   1.370   36.0  0.1203   49.6  0.3039 -161.8
 2.640  0.8078  141.0   1.360   35.6  0.1212   49.6  0.3051 -162.0
 2.660  0.8086  140.7   1.350   35.3  0.1220   49.5  0.3064 -162.1
 2.680  0.8095  140.4   1.340   34.9  0.1229   49.4  0.3076 -162.3
 2.700  0.8104  140.0   1.330   34.5  0.1237   49.3  0.3089 -162.5
 2.720  0.8113  139.7   1.320   34.1  0.1245   49.3  0.3102 -162.6
 2.740  0.8123  139.4   1.310   33.7  0.1254   49.2  0.3115 -162.8
 2.760  0.8133  139.1   1.300   33.2  0.1262   49.1  0.3127 -163.0
 2.780  0.8143  138.7   1.291   32.8  0.1271   49.1  0.3140 -163.1
 2.800  0.8153  138.4   1.281   32.4  0.1279   49.0  0.3153 -163.3
 2.820  0.8155  138.1   1.272   32.1  0.1287   48.9  0.3167 -163.6
 2.840  0.8157  137.8   1.264   31.7  0.1296   48.8  0.3181 -163.8
 2.860  0.8159  137.5   1.255   31.3  0.1304   48.7  0.3195 -164.1
 2.880  0.8162  137.2   1.246   31.0  0.1313   48.5  0.3210 -164.4
 2.900  0.8165  136.8   1.238   30.6  0.1321   48.4  0.3224 -164.6
 2.920  0.8168  136.5   1.229   30.2  0.1329   48.3  0.3239 -164.9
 2.940  0.8171  136.2   1.221   29.9  0.1338   48.2  0.3253 -165.1
 2.960  0.8175  135.9   1.213   29.5  0.1346   48.1  0.3268 -165.4
 2.980  0.8179  135.6   1.204   29.1  0.1355   48.0  0.3282 -165.7
 3.000  0.8183  135.3   1.196   28.7  0.1363   47.9  0.3297 -165.9
 3.100  0.8208  133.7   1.159   26.9  0.1403   47.3  0.3369 -167.0
 3.200  0.8240  132.1   1.124   25.0  0.1444   46.7  0.3443 -168.0
 3.300  0.8277  130.6   1.090   23.2  0.1484   46.1  0.3517 -169.3
 3.400  0.8319  129.1   1.057   21.3  0.1525   45.6  0.3592 -170.6
 3.500  0.8342  127.6   1.027   19.6  0.1560   45.1  0.3663 -171.6
 3.600  0.8371  126.2   0.997   17.8  0.1596   44.6  0.3736 -172.5
 3.700  0.8374  124.6   0.965   16.1  0.1628   43.8  0.3806 -173.9
 3.800  0.8384  123.1   0.933   14.3  0.1661   43.0  0.3879 -175.3
 3.900  0.8420  121.9   0.911   12.8  0.1705   42.5  0.3984 -176.3
 4.000  0.8460  120.7   0.890   11.3  0.1750   42.0  0.4091 -177.2
 4.100  0.8468  119.5   0.867   10.0  0.1787   41.2  0.4178 -178.5
 4.200  0.8480  118.2   0.845    8.5  0.1825   40.5  0.4267 -179.8
 4.300  0.8496  117.0   0.823    7.0  0.1863   39.8  0.4358  179.0
 4.400  0.8516  115.7   0.802    5.5  0.1901   39.1  0.4450  177.8
 4.500  0.8540  114.5   0.781    3.8  0.1939   38.4  0.4545  176.7
 4.600  0.8533  113.5   0.762    2.7  0.1973   37.7  0.4614  175.5
 4.700  0.8528  112.5   0.743    1.5  0.2007   37.0  0.4685  174.4
 4.800  0.8525  111.6   0.725    0.3  0.2041   36.4  0.4757  173.3
 4.900  0.8525  110.6   0.707   -1.0  0.2075   35.7  0.4831  172.2
 5.000  0.8528  109.6   0.689   -2.3  0.2110   35.1  0.4907  171.2
 5.100  0.8529  108.8   0.674   -3.2  0.2146   34.4  0.4983  170.3
 5.200  0.8532  107.9   0.660   -4.1  0.2182   33.7  0.5060  169.4
 5.300  0.8537  107.1   0.645   -5.1  0.2218   33.1  0.5138  168.6
 5.400  0.8544  106.2   0.631   -6.1  0.2254   32.4  0.5218  167.8
 5.500  0.8552  105.4   0.617   -7.2  0.2291   31.8  0.5298  167.0
 5.600  0.8541  104.6   0.606   -7.9  0.2326   31.1  0.5357  166.2
 5.700  0.8532  103.8   0.595   -8.7  0.2360   30.4  0.5416  165.4
 5.800  0.8524  103.0   0.584   -9.5  0.2396   29.8  0.5477  164.6
 5.900  0.8518  102.2   0.573  -10.3  0.2431   29.1  0.5538  163.8
 6.000  0.8514  101.4   0.562  -11.1  0.2467   28.5  0.5601  163.1
!
!  f       NFmin   Gammaopt  rn/50
! GHz       dB    MAG  ANG    -
!
! noise parameter not available yet for this operation point!
!
! (c) 2016  Infineon Technologies AG, Munich
