! Infineon Technologies  Discrete & RF Semiconductors
! BFP181
! VCE = 5.0 V,  IC =  17 mA
! Common Emitter S-Parameters:                            Jan 2016
# GHz  S  MA  R  50
!  f         S11            S21            S12            S22
! GHz     MAG   ANG      MAG   ANG      MAG   ANG      MAG   ANG
 0.010  0.6520   -3.9  26.290  176.8  0.0011   80.6  0.9656   -1.0
 0.015  0.6532   -5.9  26.262  175.9  0.0016   82.3  0.9666   -1.7
 0.020  0.6551   -7.9  26.241  174.9  0.0022   83.1  0.9677   -2.4
 0.025  0.6516   -9.7  26.141  173.6  0.0028   82.3  0.9650   -3.1
 0.030  0.6487  -11.6  26.054  172.3  0.0034   81.8  0.9625   -3.8
 0.035  0.6465  -13.5  25.981  171.0  0.0040   81.4  0.9601   -4.4
 0.040  0.6451  -15.3  25.921  169.7  0.0047   81.2  0.9578   -5.1
 0.045  0.6443  -17.2  25.874  168.4  0.0053   81.0  0.9557   -5.8
 0.050  0.6442  -19.1  25.841  167.1  0.0059   80.8  0.9537   -6.5
 0.055  0.6381  -20.8  25.627  166.0  0.0064   79.2  0.9495   -7.1
 0.060  0.6326  -22.6  25.422  164.9  0.0069   77.9  0.9453   -7.7
 0.065  0.6277  -24.4  25.227  163.8  0.0075   76.8  0.9413   -8.2
 0.070  0.6234  -26.2  25.043  162.6  0.0080   75.8  0.9374   -8.8
 0.075  0.6198  -28.1  24.868  161.4  0.0085   74.9  0.9335   -9.4
 0.080  0.6168  -29.9  24.704  160.3  0.0091   74.1  0.9298  -10.0
 0.085  0.6145  -31.8  24.550  159.1  0.0096   73.5  0.9262  -10.6
 0.090  0.6128  -33.7  24.407  157.9  0.0101   72.8  0.9226  -11.3
 0.095  0.6118  -35.6  24.276  156.6  0.0107   72.3  0.9192  -11.9
 0.100  0.6115  -37.5  24.155  155.4  0.0112   71.8  0.9159  -12.5
 0.105  0.6062  -39.0  23.934  154.4  0.0117   71.0  0.9102  -12.9
 0.110  0.6013  -40.6  23.719  153.4  0.0121   70.3  0.9045  -13.4
 0.115  0.5968  -42.2  23.513  152.4  0.0126   69.7  0.8990  -13.8
 0.120  0.5929  -43.8  23.314  151.3  0.0130   69.0  0.8934  -14.2
 0.125  0.5894  -45.5  23.122  150.3  0.0135   68.5  0.8879  -14.7
 0.130  0.5864  -47.1  22.939  149.2  0.0139   67.9  0.8825  -15.1
 0.135  0.5839  -48.8  22.765  148.1  0.0144   67.4  0.8771  -15.6
 0.140  0.5819  -50.5  22.598  147.0  0.0149   67.0  0.8718  -16.1
 0.145  0.5804  -52.2  22.441  145.8  0.0153   66.5  0.8665  -16.5
 0.150  0.5794  -53.9  22.292  144.7  0.0158   66.1  0.8613  -17.0
 0.155  0.5738  -55.3  22.067  143.9  0.0161   65.8  0.8558  -17.3
 0.160  0.5685  -56.8  21.846  143.1  0.0164   65.5  0.8502  -17.6
 0.165  0.5637  -58.2  21.630  142.2  0.0168   65.2  0.8448  -18.0
 0.170  0.5592  -59.7  21.418  141.3  0.0171   65.0  0.8393  -18.3
 0.175  0.5550  -61.2  21.212  140.5  0.0174   64.7  0.8339  -18.6
 0.180  0.5513  -62.8  21.011  139.6  0.0177   64.5  0.8285  -19.0
 0.185  0.5480  -64.3  20.815  138.6  0.0180   64.3  0.8231  -19.3
 0.190  0.5451  -65.9  20.624  137.7  0.0184   64.0  0.8178  -19.7
 0.195  0.5426  -67.5  20.439  136.8  0.0187   63.8  0.8125  -20.0
 0.200  0.5405  -69.1  20.260  135.8  0.0190   63.6  0.8072  -20.4
 0.220  0.5255  -73.9  19.382  133.0  0.0202   61.7  0.7869  -21.3
 0.240  0.5144  -79.0  18.555  129.9  0.0214   60.1  0.7668  -22.2
 0.260  0.5027  -83.6  17.806  127.2  0.0225   58.8  0.7484  -23.0
 0.280  0.4892  -87.8  17.112  125.0  0.0235   58.0  0.7315  -23.5
 0.300  0.4785  -92.2  16.446  122.6  0.0245   57.2  0.7148  -24.1
 0.320  0.4659  -95.8  15.826  120.8  0.0252   56.5  0.7020  -24.4
 0.340  0.4553  -99.6  15.222  119.0  0.0259   55.9  0.6893  -24.7
 0.360  0.4468 -103.6  14.637  116.9  0.0265   55.3  0.6765  -25.0
 0.380  0.4406 -107.7  14.071  114.7  0.0272   54.7  0.6638  -25.4
 0.400  0.4366 -111.9  13.528  112.3  0.0279   54.2  0.6511  -25.7
 0.420  0.4290 -114.8  13.069  111.0  0.0285   53.9  0.6422  -25.8
 0.440  0.4225 -117.8  12.617  109.7  0.0292   53.6  0.6333  -25.9
 0.450  0.4197 -119.3  12.394  108.9  0.0295   53.5  0.6289  -26.0
 0.460  0.4172 -120.9  12.173  108.2  0.0298   53.3  0.6245  -26.0
 0.480  0.4132 -124.0  11.737  106.6  0.0305   53.1  0.6156  -26.2
 0.500  0.4104 -127.2  11.311  104.9  0.0311   52.8  0.6067  -26.3
 0.520  0.4053 -129.4  10.997  103.9  0.0317   52.9  0.6009  -26.4
 0.540  0.4008 -131.7  10.686  102.8  0.0323   53.0  0.5952  -26.5
 0.560  0.3969 -134.0  10.379  101.6  0.0330   53.1  0.5894  -26.5
 0.580  0.3937 -136.3  10.077  100.4  0.0336   53.2  0.5837  -26.6
 0.600  0.3912 -138.7   9.780   99.1  0.0342   53.3  0.5779  -26.7
 0.620  0.3880 -140.8   9.512   98.2  0.0348   53.3  0.5738  -26.8
 0.640  0.3854 -143.0   9.247   97.3  0.0354   53.4  0.5696  -26.8
 0.660  0.3834 -145.2   8.984   96.3  0.0359   53.4  0.5655  -26.9
 0.680  0.3819 -147.5   8.725   95.2  0.0365   53.5  0.5613  -26.9
 0.700  0.3810 -149.7   8.468   94.1  0.0371   53.5  0.5572  -27.0
 0.720  0.3792 -151.5   8.285   93.3  0.0376   53.5  0.5545  -27.1
 0.740  0.3778 -153.2   8.104   92.5  0.0382   53.5  0.5517  -27.2
 0.760  0.3767 -155.0   7.924   91.6  0.0387   53.6  0.5490  -27.2
 0.780  0.3760 -156.8   7.747   90.7  0.0393   53.6  0.5462  -27.3
 0.800  0.3757 -158.6   7.571   89.8  0.0398   53.6  0.5435  -27.4
 0.820  0.3739 -160.1   7.409   89.1  0.0405   53.6  0.5412  -27.5
 0.840  0.3724 -161.6   7.249   88.4  0.0412   53.6  0.5389  -27.6
 0.860  0.3712 -163.1   7.090   87.6  0.0420   53.6  0.5366  -27.7
 0.880  0.3702 -164.7   6.932   86.8  0.0427   53.6  0.5343  -27.8
 0.900  0.3695 -166.2   6.775   86.0  0.0434   53.6  0.5320  -27.9
 0.920  0.3696 -167.7   6.641   85.3  0.0440   53.8  0.5304  -28.0
 0.940  0.3699 -169.3   6.507   84.6  0.0445   53.9  0.5288  -28.1
 0.960  0.3705 -170.8   6.375   83.9  0.0451   54.1  0.5271  -28.3
 0.980  0.3713 -172.3   6.243   83.2  0.0456   54.2  0.5255  -28.4
 1.000  0.3724 -173.8   6.113   82.4  0.0462   54.4  0.5239  -28.5
 1.020  0.3722 -175.1   6.011   81.8  0.0469   54.3  0.5225  -28.7
 1.040  0.3722 -176.4   5.910   81.1  0.0476   54.3  0.5210  -28.8
 1.060  0.3724 -177.7   5.809   80.4  0.0483   54.2  0.5196  -29.0
 1.080  0.3727 -179.0   5.710   79.7  0.0490   54.2  0.5182  -29.1
 1.100  0.3733  179.7   5.611   79.0  0.0497   54.1  0.5168  -29.3
 1.120  0.3734  178.6   5.518   78.5  0.0503   54.1  0.5158  -29.5
 1.140  0.3736  177.6   5.425   77.9  0.0509   54.1  0.5149  -29.7
 1.160  0.3740  176.5   5.333   77.3  0.0514   54.0  0.5139  -29.8
 1.180  0.3745  175.5   5.242   76.7  0.0520   54.0  0.5129  -30.0
 1.200  0.3751  174.4   5.151   76.1  0.0526   54.0  0.5120  -30.2
 1.220  0.3754  173.3   5.071   75.6  0.0532   54.1  0.5111  -30.4
 1.240  0.3759  172.3   4.992   75.0  0.0538   54.1  0.5102  -30.6
 1.260  0.3765  171.2   4.913   74.5  0.0544   54.2  0.5093  -30.8
 1.280  0.3772  170.2   4.835   73.9  0.0550   54.2  0.5085  -31.0
 1.300  0.3781  169.1   4.757   73.3  0.0556   54.3  0.5076  -31.2
 1.320  0.3780  168.1   4.694   72.8  0.0562   54.3  0.5067  -31.4
 1.340  0.3781  167.0   4.632   72.2  0.0569   54.2  0.5058  -31.6
 1.360  0.3783  166.0   4.570   71.7  0.0575   54.2  0.5049  -31.9
 1.380  0.3786  164.9   4.509   71.1  0.0582   54.1  0.5040  -32.1
 1.400  0.3790  163.9   4.448   70.5  0.0588   54.1  0.5031  -32.3
 1.420  0.3808  163.0   4.389   70.0  0.0595   54.1  0.5023  -32.5
 1.440  0.3828  162.1   4.330   69.4  0.0602   54.1  0.5016  -32.7
 1.460  0.3848  161.2   4.271   68.8  0.0608   54.1  0.5009  -32.9
 1.480  0.3869  160.3   4.214   68.2  0.0615   54.1  0.5001  -33.1
 1.500  0.3891  159.4   4.156   67.6  0.0622   54.1  0.4994  -33.3
 1.520  0.3892  158.5   4.104   67.1  0.0629   54.0  0.4988  -33.6
 1.540  0.3895  157.6   4.052   66.6  0.0636   53.9  0.4982  -33.8
 1.560  0.3898  156.6   4.001   66.1  0.0643   53.8  0.4976  -34.1
 1.580  0.3903  155.7   3.950   65.5  0.0650   53.7  0.4971  -34.3
 1.600  0.3908  154.8   3.899   65.0  0.0657   53.6  0.4965  -34.6
 1.620  0.3923  153.9   3.851   64.5  0.0663   53.5  0.4959  -34.9
 1.640  0.3939  152.9   3.802   64.0  0.0669   53.4  0.4953  -35.1
 1.660  0.3956  152.0   3.755   63.4  0.0675   53.4  0.4947  -35.4
 1.680  0.3974  151.1   3.707   62.9  0.0681   53.3  0.4941  -35.6
 1.700  0.3993  150.2   3.660   62.3  0.0687   53.2  0.4935  -35.9
 1.720  0.4009  149.4   3.620   61.8  0.0693   53.2  0.4928  -36.1
 1.740  0.4026  148.7   3.581   61.3  0.0700   53.2  0.4921  -36.4
 1.760  0.4044  147.9   3.542   60.8  0.0706   53.1  0.4914  -36.6
 1.780  0.4062  147.1   3.503   60.2  0.0713   53.1  0.4908  -36.9
 1.800  0.4081  146.4   3.465   59.7  0.0719   53.1  0.4901  -37.1
 1.820  0.4089  145.7   3.428   59.3  0.0726   53.0  0.4895  -37.4
 1.840  0.4097  145.1   3.392   58.8  0.0733   52.9  0.4889  -37.7
 1.860  0.4106  144.4   3.355   58.3  0.0740   52.7  0.4883  -37.9
 1.880  0.4116  143.8   3.319   57.9  0.0747   52.6  0.4878  -38.2
 1.900  0.4126  143.1   3.283   57.4  0.0754   52.5  0.4872  -38.5
 1.920  0.4139  142.3   3.247   56.9  0.0760   52.4  0.4867  -38.8
 1.940  0.4153  141.6   3.212   56.5  0.0766   52.3  0.4863  -39.1
 1.960  0.4168  140.8   3.176   56.0  0.0772   52.1  0.4858  -39.3
 1.980  0.4183  140.0   3.141   55.5  0.0778   52.0  0.4854  -39.6
 2.000  0.4199  139.3   3.106   55.0  0.0784   51.9  0.4850  -39.9
 2.020  0.4214  138.6   3.078   54.6  0.0790   51.8  0.4843  -40.2
 2.040  0.4229  138.0   3.049   54.1  0.0796   51.7  0.4835  -40.5
 2.060  0.4245  137.4   3.021   53.7  0.0803   51.6  0.4828  -40.8
 2.080  0.4262  136.7   2.993   53.2  0.0809   51.5  0.4821  -41.1
 2.100  0.4279  136.1   2.966   52.8  0.0815   51.4  0.4814  -41.4
 2.120  0.4296  135.5   2.938   52.3  0.0821   51.3  0.4807  -41.7
 2.140  0.4314  134.8   2.911   51.8  0.0827   51.2  0.4800  -42.0
 2.160  0.4333  134.2   2.884   51.3  0.0834   51.1  0.4794  -42.3
 2.180  0.4352  133.6   2.857   50.8  0.0840   51.0  0.4787  -42.6
 2.200  0.4371  133.0   2.830   50.3  0.0846   50.9  0.4781  -42.9
 2.220  0.4386  132.3   2.806   49.9  0.0852   50.8  0.4775  -43.2
 2.240  0.4401  131.7   2.782   49.5  0.0859   50.6  0.4769  -43.5
 2.260  0.4418  131.1   2.758   49.1  0.0865   50.5  0.4763  -43.9
 2.280  0.4434  130.4   2.735   48.6  0.0871   50.4  0.4758  -44.2
 2.300  0.4451  129.8   2.711   48.2  0.0877   50.2  0.4752  -44.5
 2.320  0.4469  129.2   2.688   47.8  0.0884   50.1  0.4747  -44.8
 2.340  0.4487  128.5   2.664   47.3  0.0890   50.0  0.4742  -45.1
 2.360  0.4506  127.9   2.641   46.8  0.0896   49.8  0.4737  -45.5
 2.380  0.4525  127.3   2.619   46.4  0.0903   49.7  0.4732  -45.8
 2.400  0.4545  126.7   2.596   45.9  0.0909   49.6  0.4727  -46.1
 2.420  0.4562  126.1   2.574   45.5  0.0915   49.5  0.4717  -46.4
 2.440  0.4580  125.6   2.553   45.1  0.0922   49.3  0.4708  -46.7
 2.460  0.4599  125.0   2.532   44.7  0.0928   49.2  0.4699  -47.0
 2.480  0.4617  124.5   2.511   44.2  0.0935   49.1  0.4690  -47.4
 2.500  0.4636  123.9   2.490   43.8  0.0941   48.9  0.4681  -47.7
 2.520  0.4656  123.4   2.469   43.3  0.0947   48.8  0.4672  -48.0
 2.540  0.4676  122.9   2.448   42.9  0.0954   48.7  0.4663  -48.3
 2.560  0.4696  122.3   2.428   42.4  0.0960   48.5  0.4655  -48.7
 2.580  0.4717  121.8   2.407   42.0  0.0967   48.4  0.4646  -49.0
 2.600  0.4738  121.3   2.387   41.5  0.0973   48.3  0.4638  -49.3
 2.620  0.4756  120.8   2.369   41.1  0.0979   48.1  0.4632  -49.6
 2.640  0.4775  120.3   2.351   40.6  0.0985   48.0  0.4627  -50.0
 2.660  0.4794  119.8   2.333   40.2  0.0990   47.8  0.4622  -50.3
 2.680  0.4813  119.3   2.316   39.7  0.0996   47.7  0.4617  -50.7
 2.700  0.4833  118.7   2.298   39.2  0.1002   47.5  0.4612  -51.0
 2.720  0.4853  118.3   2.281   38.8  0.1008   47.4  0.4607  -51.4
 2.740  0.4873  117.8   2.264   38.3  0.1014   47.2  0.4603  -51.7
 2.760  0.4894  117.3   2.247   37.8  0.1019   47.1  0.4598  -52.1
 2.780  0.4915  116.8   2.230   37.3  0.1025   46.9  0.4594  -52.4
 2.800  0.4937  116.3   2.213   36.8  0.1031   46.8  0.4590  -52.8
 2.820  0.4954  115.8   2.198   36.4  0.1037   46.7  0.4581  -53.1
 2.840  0.4971  115.3   2.182   36.0  0.1043   46.5  0.4571  -53.5
 2.860  0.4989  114.8   2.167   35.7  0.1050   46.4  0.4562  -53.8
 2.880  0.5007  114.3   2.152   35.3  0.1056   46.2  0.4553  -54.1
 2.900  0.5025  113.8   2.137   34.9  0.1062   46.1  0.4544  -54.5
 2.920  0.5044  113.3   2.122   34.5  0.1068   45.9  0.4536  -54.8
 2.940  0.5063  112.8   2.108   34.1  0.1074   45.8  0.4527  -55.2
 2.960  0.5082  112.4   2.093   33.6  0.1081   45.7  0.4519  -55.5
 2.980  0.5102  111.9   2.078   33.2  0.1087   45.5  0.4511  -55.9
 3.000  0.5122  111.4   2.064   32.8  0.1093   45.4  0.4503  -56.2
 3.100  0.5200  109.1   1.997   31.0  0.1121   44.6  0.4464  -58.1
 3.200  0.5286  106.9   1.932   29.1  0.1150   43.8  0.4431  -60.0
 3.300  0.5380  104.8   1.869   27.1  0.1179   43.1  0.4402  -61.9
 3.400  0.5481  102.8   1.809   24.9  0.1208   42.4  0.4378  -63.8
 3.500  0.5588  100.8   1.752   22.6  0.1237   41.7  0.4359  -65.8
 3.600  0.5672   99.1   1.702   20.9  0.1265   40.8  0.4319  -67.8
 3.700  0.5760   97.4   1.654   19.1  0.1293   39.9  0.4285  -69.9
 3.800  0.5853   95.8   1.607   17.2  0.1321   39.1  0.4257  -72.0
 3.900  0.5950   94.3   1.563   15.2  0.1349   38.3  0.4235  -74.1
 4.000  0.6052   92.8   1.520   13.1  0.1378   37.5  0.4218  -76.3
 4.100  0.6109   91.2   1.478   11.5  0.1403   36.6  0.4183  -78.6
 4.200  0.6170   89.6   1.438    9.8  0.1429   35.8  0.4154  -80.9
 4.300  0.6236   88.0   1.399    7.9  0.1455   35.0  0.4132  -83.2
 4.400  0.6307   86.5   1.362    6.0  0.1481   34.2  0.4117  -85.5
 4.500  0.6382   85.0   1.326    4.0  0.1507   33.4  0.4109  -87.9
 4.600  0.6439   83.8   1.293    2.5  0.1532   32.7  0.4083  -90.1
 4.700  0.6500   82.5   1.262    1.0  0.1558   32.0  0.4064  -92.4
 4.800  0.6563   81.3   1.231   -0.7  0.1584   31.3  0.4051  -94.7
 4.900  0.6629   80.2   1.201   -2.4  0.1610   30.6  0.4045  -97.0
 5.000  0.6698   79.0   1.173   -4.2  0.1636   30.0  0.4045  -99.3
 5.100  0.6741   77.9   1.147   -5.6  0.1665   29.2  0.4044 -101.7
 5.200  0.6786   76.9   1.122   -7.2  0.1693   28.4  0.4050 -104.1
 5.300  0.6834   75.8   1.097   -8.7  0.1723   27.6  0.4063 -106.4
 5.400  0.6884   74.8   1.074  -10.4  0.1752   26.8  0.4083 -108.8
 5.500  0.6936   73.8   1.051  -12.1  0.1782   26.1  0.4110 -111.1
 5.600  0.6992   72.7   1.028  -13.5  0.1807   25.2  0.4122 -113.5
 5.700  0.7051   71.7   1.007  -14.9  0.1833   24.3  0.4142 -115.9
 5.800  0.7112   70.7   0.985  -16.5  0.1859   23.5  0.4168 -118.3
 5.900  0.7175   69.7   0.965  -18.0  0.1886   22.7  0.4202 -120.6
 6.000  0.7240   68.7   0.945  -19.7  0.1913   21.9  0.4242 -122.9
!
!  f       NFmin   Gammaopt  rn/50
! GHz       dB    MAG  ANG    -
!
! noise parameter not available yet for this operation point!
!
! (c) 2016  Infineon Technologies AG, Munich
