! Infineon Technologies  Discrete & RF Semiconductors
! BFP420
! VCE =  0.5 V,  IC =  5.0 mA
! Common Emitter S-Parameters:                            Jan 2016
# GHz  S  MA  R  50
!  f         S11            S21            S12            S22
! GHz     MAG   ANG      MAG   ANG      MAG   ANG      MAG   ANG
 0.010  0.8353   -2.0  15.697  179.2  0.0012   94.3  0.9735   -0.2
 0.015  0.8314   -2.6  15.532  178.7  0.0021   89.0  0.9754   -1.2
 0.020  0.8276   -3.2  15.369  178.2  0.0031   87.0  0.9776   -2.1
 0.025  0.8270   -3.9  15.373  177.6  0.0038   86.7  0.9771   -2.6
 0.030  0.8265   -4.7  15.378  177.0  0.0046   86.5  0.9766   -3.2
 0.035  0.8262   -5.4  15.385  176.4  0.0053   86.4  0.9763   -3.7
 0.040  0.8260   -6.2  15.394  175.8  0.0060   86.3  0.9760   -4.3
 0.045  0.8259   -6.9  15.405  175.2  0.0068   86.2  0.9759   -4.8
 0.050  0.8260   -7.7  15.417  174.6  0.0075   86.1  0.9758   -5.4
 0.055  0.8248   -8.5  15.410  174.1  0.0082   85.3  0.9747   -5.9
 0.060  0.8237   -9.3  15.404  173.5  0.0090   84.7  0.9736   -6.5
 0.065  0.8228  -10.1  15.399  173.0  0.0097   84.2  0.9726   -7.0
 0.070  0.8221  -10.9  15.396  172.5  0.0105   83.7  0.9717   -7.5
 0.075  0.8215  -11.7  15.394  172.0  0.0112   83.3  0.9709   -8.0
 0.080  0.8211  -12.5  15.393  171.4  0.0119   83.0  0.9702   -8.6
 0.085  0.8208  -13.3  15.393  170.9  0.0127   82.6  0.9695   -9.1
 0.090  0.8207  -14.1  15.395  170.4  0.0134   82.4  0.9690   -9.6
 0.095  0.8208  -14.9  15.398  169.8  0.0142   82.1  0.9685  -10.2
 0.100  0.8210  -15.7  15.403  169.3  0.0149   81.9  0.9681  -10.7
 0.105  0.8197  -16.4  15.376  168.8  0.0156   81.3  0.9664  -11.2
 0.110  0.8185  -17.2  15.350  168.2  0.0163   80.8  0.9648  -11.8
 0.115  0.8175  -17.9  15.326  167.7  0.0170   80.3  0.9632  -12.3
 0.120  0.8166  -18.7  15.303  167.2  0.0178   79.9  0.9618  -12.8
 0.125  0.8158  -19.4  15.282  166.6  0.0185   79.5  0.9604  -13.4
 0.130  0.8152  -20.2  15.261  166.1  0.0192   79.1  0.9591  -13.9
 0.135  0.8147  -20.9  15.242  165.5  0.0199   78.7  0.9579  -14.5
 0.140  0.8144  -21.7  15.225  165.0  0.0207   78.4  0.9568  -15.0
 0.145  0.8142  -22.4  15.209  164.4  0.0214   78.1  0.9557  -15.6
 0.150  0.8141  -23.2  15.194  163.9  0.0221   77.8  0.9548  -16.1
 0.155  0.8127  -23.9  15.160  163.4  0.0228   77.3  0.9526  -16.6
 0.160  0.8114  -24.7  15.128  162.9  0.0235   76.8  0.9505  -17.1
 0.165  0.8103  -25.4  15.097  162.4  0.0242   76.3  0.9484  -17.6
 0.170  0.8093  -26.2  15.067  161.9  0.0248   75.9  0.9465  -18.1
 0.175  0.8084  -26.9  15.038  161.4  0.0255   75.5  0.9446  -18.6
 0.180  0.8077  -27.7  15.010  160.9  0.0262   75.1  0.9427  -19.1
 0.185  0.8071  -28.4  14.983  160.3  0.0269   74.7  0.9410  -19.6
 0.190  0.8067  -29.2  14.958  159.8  0.0276   74.4  0.9393  -20.2
 0.195  0.8064  -29.9  14.934  159.3  0.0283   74.0  0.9377  -20.7
 0.200  0.8062  -30.7  14.911  158.8  0.0290   73.7  0.9362  -21.2
 0.220  0.7987  -33.6  14.731  156.8  0.0315   72.0  0.9267  -23.2
 0.240  0.7934  -36.6  14.570  154.7  0.0341   70.5  0.9183  -25.2
 0.260  0.7880  -39.5  14.415  152.7  0.0366   69.1  0.9088  -27.1
 0.280  0.7824  -42.3  14.263  150.8  0.0390   67.6  0.8981  -29.0
 0.300  0.7787  -45.2  14.126  148.9  0.0414   66.3  0.8884  -31.0
 0.320  0.7718  -47.9  13.938  147.1  0.0436   64.8  0.8766  -32.8
 0.340  0.7668  -50.7  13.764  145.3  0.0458   63.4  0.8656  -34.7
 0.360  0.7613  -53.4  13.583  143.5  0.0479   62.1  0.8543  -36.4
 0.380  0.7554  -56.0  13.393  141.8  0.0499   60.8  0.8424  -38.1
 0.400  0.7510  -58.6  13.216  140.0  0.0519   59.6  0.8313  -39.9
 0.420  0.7437  -61.1  13.012  138.4  0.0537   58.3  0.8189  -41.5
 0.440  0.7379  -63.6  12.820  136.7  0.0556   57.2  0.8072  -43.2
 0.450  0.7355  -64.9  12.728  135.8  0.0565   56.6  0.8016  -44.1
 0.460  0.7319  -66.1  12.626  135.0  0.0573   56.0  0.7953  -44.9
 0.480  0.7257  -68.5  12.428  133.5  0.0589   54.9  0.7832  -46.4
 0.500  0.7208  -71.0  12.239  131.9  0.0606   53.9  0.7716  -48.0
 0.520  0.7132  -73.2  12.035  130.6  0.0620   52.8  0.7590  -49.4
 0.540  0.7067  -75.5  11.839  129.2  0.0633   51.8  0.7468  -50.8
 0.560  0.7013  -77.7  11.649  127.7  0.0647   50.8  0.7351  -52.3
 0.580  0.6970  -80.1  11.467  126.2  0.0662   49.8  0.7239  -53.8
 0.600  0.6939  -82.4  11.293  124.7  0.0676   48.9  0.7132  -55.4
 0.620  0.6872  -84.4  11.102  123.5  0.0687   48.0  0.7015  -56.6
 0.640  0.6814  -86.5  10.917  122.3  0.0698   47.1  0.6902  -57.9
 0.660  0.6764  -88.6  10.736  121.0  0.0709   46.3  0.6791  -59.2
 0.680  0.6724  -90.7  10.561  119.7  0.0721   45.5  0.6685  -60.5
 0.700  0.6693  -92.8  10.392  118.3  0.0732   44.7  0.6582  -61.9
 0.720  0.6640  -94.6  10.219  117.3  0.0741   44.0  0.6477  -63.0
 0.740  0.6594  -96.4  10.049  116.2  0.0750   43.2  0.6374  -64.2
 0.760  0.6555  -98.3   9.883  115.1  0.0759   42.5  0.6274  -65.4
 0.780  0.6522 -100.1   9.721  113.9  0.0769   41.9  0.6176  -66.6
 0.800  0.6497 -102.0   9.563  112.7  0.0778   41.2  0.6082  -67.9
 0.820  0.6452 -103.7   9.411  111.7  0.0785   40.6  0.5988  -68.9
 0.840  0.6412 -105.4   9.261  110.8  0.0793   39.9  0.5896  -70.0
 0.860  0.6378 -107.1   9.114  109.7  0.0800   39.3  0.5805  -71.1
 0.880  0.6350 -108.8   8.970  108.7  0.0807   38.7  0.5718  -72.2
 0.900  0.6328 -110.6   8.829  107.6  0.0815   38.1  0.5632  -73.4
 0.920  0.6294 -112.2   8.694  106.7  0.0821   37.6  0.5548  -74.4
 0.940  0.6265 -113.7   8.560  105.8  0.0828   37.0  0.5465  -75.4
 0.960  0.6240 -115.3   8.429  104.9  0.0834   36.5  0.5385  -76.4
 0.980  0.6220 -116.9   8.300  104.0  0.0840   36.0  0.5306  -77.5
 1.000  0.6205 -118.5   8.173  103.0  0.0847   35.5  0.5229  -78.6
 1.020  0.6176 -119.9   8.052  102.2  0.0852   35.0  0.5156  -79.5
 1.040  0.6150 -121.3   7.932  101.4  0.0858   34.6  0.5083  -80.4
 1.060  0.6129 -122.7   7.814  100.6  0.0863   34.2  0.5012  -81.3
 1.080  0.6111 -124.2   7.698   99.8  0.0868   33.7  0.4943  -82.3
 1.100  0.6097 -125.6   7.583   98.9  0.0874   33.3  0.4875  -83.3
 1.120  0.6075 -126.9   7.475   98.1  0.0879   32.9  0.4808  -84.2
 1.140  0.6055 -128.3   7.369   97.4  0.0883   32.4  0.4743  -85.1
 1.160  0.6040 -129.6   7.264   96.6  0.0888   32.0  0.4678  -86.1
 1.180  0.6027 -130.9   7.161   95.7  0.0893   31.6  0.4616  -87.1
 1.200  0.6018 -132.3   7.059   94.9  0.0898   31.2  0.4554  -88.1
 1.220  0.6000 -133.5   6.965   94.2  0.0902   30.9  0.4496  -88.9
 1.240  0.5985 -134.7   6.871   93.6  0.0906   30.5  0.4440  -89.8
 1.260  0.5973 -135.9   6.779   92.9  0.0911   30.2  0.4384  -90.6
 1.280  0.5963 -137.1   6.687   92.1  0.0915   29.8  0.4330  -91.5
 1.300  0.5956 -138.3   6.597   91.4  0.0919   29.5  0.4276  -92.4
 1.320  0.5942 -139.4   6.512   90.8  0.0923   29.2  0.4224  -93.2
 1.340  0.5931 -140.6   6.428   90.1  0.0927   28.9  0.4174  -94.1
 1.360  0.5922 -141.7   6.344   89.5  0.0930   28.6  0.4124  -94.9
 1.380  0.5915 -142.9   6.262   88.8  0.0934   28.3  0.4075  -95.8
 1.400  0.5911 -144.0   6.180   88.1  0.0938   28.0  0.4027  -96.7
 1.420  0.5899 -145.0   6.105   87.5  0.0942   27.7  0.3980  -97.5
 1.440  0.5889 -146.1   6.032   86.9  0.0945   27.4  0.3934  -98.3
 1.460  0.5881 -147.1   5.958   86.3  0.0949   27.2  0.3888  -99.1
 1.480  0.5874 -148.2   5.886   85.7  0.0952   26.9  0.3844  -99.9
 1.500  0.5870 -149.2   5.814   85.0  0.0956   26.6  0.3800 -100.8
 1.520  0.5863 -150.2   5.746   84.4  0.0959   26.4  0.3760 -101.5
 1.540  0.5857 -151.1   5.678   83.8  0.0962   26.2  0.3721 -102.3
 1.560  0.5852 -152.1   5.611   83.2  0.0965   25.9  0.3682 -103.1
 1.580  0.5850 -153.0   5.544   82.6  0.0968   25.7  0.3644 -103.9
 1.600  0.5849 -154.0   5.478   82.0  0.0971   25.5  0.3607 -104.7
 1.620  0.5839 -155.0   5.418   81.5  0.0974   25.3  0.3570 -105.5
 1.640  0.5830 -155.9   5.358   80.9  0.0977   25.0  0.3534 -106.3
 1.660  0.5824 -156.9   5.298   80.4  0.0981   24.8  0.3498 -107.1
 1.680  0.5819 -157.8   5.239   79.8  0.0984   24.5  0.3463 -107.9
 1.700  0.5815 -158.8   5.181   79.2  0.0987   24.3  0.3429 -108.7
 1.720  0.5811 -159.6   5.125   78.7  0.0990   24.1  0.3397 -109.4
 1.740  0.5808 -160.5   5.068   78.2  0.0993   23.9  0.3365 -110.1
 1.760  0.5807 -161.3   5.013   77.6  0.0995   23.7  0.3334 -110.9
 1.780  0.5807 -162.2   4.958   77.1  0.0998   23.5  0.3303 -111.6
 1.800  0.5808 -163.0   4.903   76.5  0.1001   23.3  0.3273 -112.4
 1.820  0.5802 -163.9   4.852   76.0  0.1004   23.1  0.3244 -113.2
 1.840  0.5798 -164.8   4.802   75.5  0.1007   22.9  0.3215 -114.0
 1.860  0.5795 -165.6   4.752   75.0  0.1009   22.7  0.3187 -114.8
 1.880  0.5794 -166.5   4.702   74.4  0.1012   22.5  0.3160 -115.7
 1.900  0.5794 -167.4   4.653   73.9  0.1015   22.3  0.3133 -116.5
 1.920  0.5789 -168.1   4.608   73.4  0.1018   22.1  0.3106 -117.2
 1.940  0.5786 -168.9   4.564   73.0  0.1021   22.0  0.3080 -117.9
 1.960  0.5783 -169.6   4.519   72.5  0.1023   21.8  0.3054 -118.6
 1.980  0.5781 -170.4   4.476   72.0  0.1026   21.7  0.3028 -119.3
 2.000  0.5780 -171.1   4.432   71.5  0.1029   21.5  0.3003 -120.0
 2.020  0.5775 -171.9   4.391   71.1  0.1031   21.3  0.2979 -120.7
 2.040  0.5772 -172.6   4.351   70.6  0.1034   21.2  0.2956 -121.5
 2.060  0.5769 -173.4   4.310   70.2  0.1036   21.0  0.2933 -122.2
 2.080  0.5768 -174.2   4.270   69.7  0.1039   20.8  0.2910 -123.0
 2.100  0.5767 -175.0   4.231   69.2  0.1041   20.6  0.2888 -123.8
 2.120  0.5768 -175.7   4.191   68.7  0.1044   20.5  0.2867 -124.5
 2.140  0.5770 -176.5   4.152   68.2  0.1046   20.3  0.2846 -125.3
 2.160  0.5772 -177.3   4.114   67.7  0.1049   20.1  0.2826 -126.1
 2.180  0.5776 -178.0   4.075   67.2  0.1051   20.0  0.2806 -127.0
 2.200  0.5781 -178.8   4.037   66.7  0.1054   19.8  0.2787 -127.8
 2.220  0.5779 -179.5   4.002   66.3  0.1056   19.6  0.2768 -128.6
 2.240  0.5778  179.8   3.968   65.9  0.1059   19.5  0.2750 -129.3
 2.260  0.5778  179.1   3.933   65.4  0.1061   19.3  0.2732 -130.1
 2.280  0.5779  178.4   3.899   65.0  0.1064   19.2  0.2714 -130.9
 2.300  0.5781  177.7   3.865   64.5  0.1066   19.0  0.2697 -131.7
 2.320  0.5783  177.0   3.831   64.1  0.1069   18.8  0.2681 -132.5
 2.340  0.5787  176.3   3.798   63.6  0.1071   18.7  0.2665 -133.4
 2.360  0.5791  175.6   3.765   63.2  0.1074   18.5  0.2650 -134.2
 2.380  0.5796  174.9   3.732   62.7  0.1076   18.4  0.2635 -135.0
 2.400  0.5802  174.2   3.699   62.2  0.1079   18.2  0.2621 -135.9
 2.420  0.5806  173.5   3.669   61.8  0.1081   18.1  0.2606 -136.7
 2.440  0.5810  172.9   3.640   61.4  0.1083   17.9  0.2592 -137.5
 2.460  0.5815  172.2   3.610   61.0  0.1086   17.8  0.2579 -138.2
 2.480  0.5821  171.6   3.581   60.5  0.1088   17.6  0.2566 -139.0
 2.500  0.5828  170.9   3.552   60.1  0.1090   17.5  0.2553 -139.9
 2.520  0.5835  170.3   3.524   59.6  0.1092   17.4  0.2541 -140.7
 2.540  0.5843  169.6   3.495   59.2  0.1094   17.2  0.2529 -141.5
 2.560  0.5852  169.0   3.467   58.7  0.1097   17.1  0.2518 -142.3
 2.580  0.5862  168.3   3.439   58.3  0.1099   16.9  0.2508 -143.2
 2.600  0.5872  167.7   3.411   57.8  0.1101   16.8  0.2498 -144.0
 2.620  0.5874  167.1   3.385   57.4  0.1103   16.7  0.2487 -144.7
 2.640  0.5877  166.5   3.359   57.0  0.1105   16.6  0.2476 -145.5
 2.660  0.5880  166.0   3.333   56.7  0.1107   16.4  0.2466 -146.2
 2.680  0.5884  165.4   3.307   56.3  0.1109   16.3  0.2457 -147.0
 2.700  0.5888  164.8   3.282   55.9  0.1111   16.2  0.2447 -147.8
 2.720  0.5893  164.2   3.257   55.5  0.1114   16.1  0.2439 -148.6
 2.740  0.5899  163.6   3.231   55.1  0.1116   16.0  0.2430 -149.3
 2.760  0.5905  163.1   3.206   54.7  0.1118   15.8  0.2422 -150.1
 2.780  0.5912  162.5   3.182   54.2  0.1120   15.7  0.2415 -150.9
 2.800  0.5919  161.9   3.157   53.8  0.1122   15.6  0.2408 -151.7
 2.820  0.5924  161.3   3.135   53.4  0.1124   15.5  0.2401 -152.4
 2.840  0.5929  160.8   3.112   53.0  0.1127   15.4  0.2394 -153.2
 2.860  0.5935  160.2   3.090   52.7  0.1129   15.2  0.2387 -153.9
 2.880  0.5941  159.7   3.068   52.3  0.1132   15.1  0.2381 -154.6
 2.900  0.5948  159.1   3.047   51.9  0.1134   15.0  0.2376 -155.4
 2.920  0.5956  158.6   3.025   51.5  0.1136   14.9  0.2370 -156.1
 2.940  0.5964  158.0   3.004   51.1  0.1139   14.8  0.2365 -156.8
 2.960  0.5972  157.5   2.982   50.6  0.1141   14.6  0.2361 -157.6
 2.980  0.5981  156.9   2.961   50.2  0.1144   14.5  0.2357 -158.3
 3.000  0.5991  156.4   2.940   49.8  0.1146   14.4  0.2353 -159.1
 3.100  0.6016  153.8   2.845   48.1  0.1156   13.8  0.2335 -162.8
 3.200  0.6053  151.2   2.753   46.4  0.1167   13.2  0.2327 -166.5
 3.300  0.6103  148.7   2.663   44.5  0.1177   12.6  0.2329 -170.3
 3.400  0.6164  146.1   2.577   42.5  0.1188   12.0  0.2340 -174.0
 3.500  0.6237  143.7   2.494   40.3  0.1199   11.4  0.2362 -177.7
 3.600  0.6268  141.5   2.421   38.7  0.1210   10.8  0.2376  179.2
 3.700  0.6308  139.2   2.351   37.1  0.1221   10.2  0.2397  176.1
 3.800  0.6357  137.1   2.282   35.3  0.1233    9.7  0.2425  173.1
 3.900  0.6416  134.9   2.216   33.4  0.1244    9.1  0.2460  170.2
 4.000  0.6483  132.8   2.152   31.4  0.1256    8.6  0.2500  167.4
 4.100  0.6504  131.0   2.093   29.9  0.1266    8.0  0.2529  165.0
 4.200  0.6532  129.3   2.036   28.3  0.1275    7.4  0.2562  162.6
 4.300  0.6566  127.6   1.981   26.6  0.1285    6.8  0.2599  160.2
 4.400  0.6605  125.9   1.927   24.9  0.1295    6.2  0.2641  158.0
 4.500  0.6650  124.2   1.875   23.0  0.1305    5.6  0.2686  155.8
 4.600  0.6660  122.8   1.829   21.7  0.1315    5.1  0.2710  153.9
 4.700  0.6673  121.5   1.785   20.3  0.1325    4.6  0.2737  152.1
 4.800  0.6690  120.2   1.741   18.9  0.1335    4.1  0.2767  150.3
 4.900  0.6711  118.8   1.698   17.4  0.1345    3.6  0.2800  148.5
 5.000  0.6735  117.5   1.657   15.8  0.1355    3.1  0.2835  146.8
 5.100  0.6751  116.2   1.621   14.5  0.1365    2.6  0.2865  145.2
 5.200  0.6770  114.8   1.586   13.2  0.1375    2.1  0.2897  143.6
 5.300  0.6793  113.5   1.552   11.8  0.1385    1.6  0.2932  142.0
 5.400  0.6819  112.2   1.519   10.4  0.1395    1.1  0.2968  140.5
 5.500  0.6849  110.9   1.487    8.9  0.1405    0.6  0.3007  139.0
 5.600  0.6877  109.6   1.459    7.6  0.1417    0.1  0.3045  137.4
 5.700  0.6908  108.3   1.432    6.3  0.1428   -0.5  0.3085  135.9
 5.800  0.6943  107.0   1.405    4.9  0.1440   -1.0  0.3127  134.4
 5.900  0.6982  105.7   1.380    3.5  0.1452   -1.5  0.3171  132.9
 6.000  0.7024  104.4   1.355    2.0  0.1464   -2.0  0.3217  131.5
 6.100  0.7057  103.2   1.331    0.7  0.1477   -2.7  0.3253  130.0
 6.200  0.7092  102.0   1.308   -0.7  0.1490   -3.3  0.3290  128.6
 6.300  0.7130  100.9   1.285   -2.1  0.1504   -4.0  0.3330  127.1
 6.400  0.7172   99.7   1.264   -3.6  0.1517   -4.6  0.3372  125.8
 6.500  0.7216   98.6   1.243   -5.1  0.1531   -5.2  0.3416  124.4
 6.600  0.7239   97.4   1.223   -6.4  0.1545   -5.9  0.3444  122.9
 6.800  0.7294   95.1   1.186   -9.2  0.1575   -7.3  0.3507  120.1
 7.000  0.7361   92.8   1.151  -12.2  0.1605   -8.7  0.3579  117.3
 7.200  0.7390   90.4   1.117  -15.0  0.1632  -10.5  0.3661  114.5
 7.400  0.7432   88.0   1.085  -17.9  0.1661  -12.3  0.3751  111.9
 7.600  0.7467   85.4   1.051  -20.8  0.1682  -14.1  0.3845  109.1
 7.800  0.7498   82.7   1.015  -23.7  0.1697  -16.2  0.3945  106.2
 8.000  0.7545   80.0   0.981  -26.8  0.1713  -18.2  0.4054  103.5
 8.200  0.7576   77.1   0.942  -29.3  0.1708  -20.0  0.4160  100.3
 8.400  0.7626   74.3   0.906  -32.1  0.1704  -21.7  0.4278   97.3
 8.600  0.7709   71.6   0.872  -34.5  0.1701  -23.2  0.4425   94.4
 8.800  0.7821   69.1   0.840  -36.7  0.1698  -24.3  0.4599   91.8
 9.000  0.7948   66.7   0.810  -39.1  0.1695  -25.5  0.4783   89.4
 9.200  0.8132   64.8   0.787  -41.1  0.1699  -26.5  0.5004   87.6
 9.400  0.8325   63.0   0.765  -43.1  0.1703  -27.6  0.5230   85.9
 9.600  0.8493   61.4   0.739  -45.1  0.1708  -28.7  0.5444   84.3
 9.800  0.8632   60.0   0.710  -47.1  0.1713  -29.9  0.5645   82.9
10.000  0.8776   58.7   0.682  -49.3  0.1720  -31.1  0.5849   81.5
!
!  f       NFmin   Gammaopt  rn/50
! GHz       dB    MAG  ANG    -
 0.900      0.66  0.21   31   0.15
 1.800      1.05  0.09   93   0.13
 2.400      1.14  0.14  119   0.13
 3.000      1.24  0.17  165   0.11
 4.000      1.41  0.31 -145   0.12
 5.000      1.85  0.38 -119   0.21
 6.000      2.30  0.45 -101   0.36
!
! (c) 2016  Infineon Technologies AG, Munich
