! Infineon Technologies  Discrete & RF Semiconductors
! BFP420
! VCE =  4.0 V,  IC =  1.5 mA
! Common Emitter S-Parameters:                            Jan 2016
# GHz  S  MA  R  50
!  f         S11            S21            S12            S22
! GHz     MAG   ANG      MAG   ANG      MAG   ANG      MAG   ANG
 0.010  0.9550   -1.3   5.554  179.3  0.0008   44.4  0.9953    0.0
 0.015  0.9527   -1.3   5.470  179.3  0.0013   66.6  0.9950   -0.3
 0.020  0.9504   -1.3   5.386  179.2  0.0019   75.8  0.9948   -0.6
 0.025  0.9512   -1.7   5.391  178.9  0.0024   77.9  0.9949   -0.8
 0.030  0.9521   -2.0   5.395  178.5  0.0028   79.3  0.9949   -1.0
 0.035  0.9530   -2.4   5.400  178.2  0.0033   80.4  0.9950   -1.2
 0.040  0.9539   -2.7   5.405  177.9  0.0038   81.1  0.9951   -1.3
 0.045  0.9549   -3.1   5.411  177.5  0.0042   81.7  0.9952   -1.5
 0.050  0.9559   -3.4   5.416  177.2  0.0047   82.2  0.9953   -1.7
 0.055  0.9554   -3.7   5.418  177.0  0.0051   82.4  0.9951   -1.9
 0.060  0.9549   -4.1   5.421  176.7  0.0056   82.7  0.9950   -2.1
 0.065  0.9544   -4.4   5.423  176.5  0.0060   82.8  0.9949   -2.2
 0.070  0.9540   -4.7   5.426  176.2  0.0065   83.0  0.9947   -2.4
 0.075  0.9536   -5.0   5.429  176.0  0.0069   83.1  0.9946   -2.6
 0.080  0.9532   -5.4   5.432  175.8  0.0073   83.2  0.9945   -2.8
 0.085  0.9529   -5.7   5.435  175.5  0.0078   83.3  0.9944   -3.0
 0.090  0.9526   -6.0   5.438  175.3  0.0082   83.4  0.9943   -3.1
 0.095  0.9523   -6.4   5.441  175.0  0.0087   83.5  0.9943   -3.3
 0.100  0.9521   -6.7   5.444  174.8  0.0091   83.6  0.9942   -3.5
 0.105  0.9517   -7.0   5.443  174.5  0.0095   83.5  0.9939   -3.7
 0.110  0.9514   -7.3   5.443  174.3  0.0100   83.4  0.9937   -3.9
 0.115  0.9510   -7.7   5.443  174.0  0.0104   83.3  0.9935   -4.0
 0.120  0.9507   -8.0   5.443  173.8  0.0109   83.3  0.9932   -4.2
 0.125  0.9505   -8.3   5.443  173.5  0.0113   83.2  0.9930   -4.4
 0.130  0.9502   -8.6   5.443  173.2  0.0118   83.1  0.9928   -4.6
 0.135  0.9500   -8.9   5.443  173.0  0.0122   83.1  0.9926   -4.8
 0.140  0.9499   -9.3   5.443  172.7  0.0127   83.0  0.9924   -4.9
 0.145  0.9497   -9.6   5.443  172.5  0.0131   82.9  0.9923   -5.1
 0.150  0.9496   -9.9   5.444  172.2  0.0136   82.9  0.9921   -5.3
 0.155  0.9495  -10.2   5.442  171.9  0.0140   82.7  0.9918   -5.5
 0.160  0.9494  -10.6   5.441  171.7  0.0145   82.5  0.9915   -5.6
 0.165  0.9493  -10.9   5.440  171.4  0.0149   82.3  0.9911   -5.8
 0.170  0.9493  -11.3   5.438  171.2  0.0154   82.1  0.9908   -6.0
 0.175  0.9493  -11.6   5.437  170.9  0.0158   81.9  0.9905   -6.1
 0.180  0.9493  -11.9   5.436  170.6  0.0162   81.8  0.9903   -6.3
 0.185  0.9494  -12.3   5.435  170.4  0.0167   81.6  0.9900   -6.5
 0.190  0.9495  -12.6   5.434  170.1  0.0171   81.5  0.9897   -6.7
 0.195  0.9496  -13.0   5.434  169.9  0.0176   81.3  0.9895   -6.8
 0.200  0.9498  -13.3   5.433  169.6  0.0180   81.2  0.9892   -7.0
 0.220  0.9476  -14.6   5.419  168.4  0.0198   80.5  0.9878   -7.7
 0.240  0.9459  -15.9   5.408  167.3  0.0216   79.9  0.9865   -8.4
 0.260  0.9445  -17.3   5.400  166.2  0.0234   79.2  0.9849   -9.2
 0.280  0.9432  -18.6   5.396  165.2  0.0251   78.5  0.9829   -9.9
 0.300  0.9424  -20.0   5.393  164.2  0.0268   77.9  0.9811  -10.6
 0.320  0.9399  -21.3   5.384  163.2  0.0286   77.1  0.9789  -11.3
 0.340  0.9379  -22.6   5.377  162.2  0.0303   76.3  0.9769  -12.0
 0.360  0.9362  -23.9   5.365  161.2  0.0321   75.6  0.9745  -12.6
 0.380  0.9348  -25.2   5.348  160.1  0.0338   74.9  0.9719  -13.3
 0.400  0.9338  -26.5   5.333  159.1  0.0355   74.2  0.9694  -13.9
 0.420  0.9314  -27.9   5.319  158.1  0.0372   73.4  0.9667  -14.6
 0.440  0.9295  -29.2   5.307  157.0  0.0389   72.6  0.9642  -15.3
 0.450  0.9287  -29.9   5.301  156.5  0.0398   72.3  0.9630  -15.6
 0.460  0.9275  -30.6   5.292  156.0  0.0406   71.9  0.9614  -15.9
 0.480  0.9253  -31.9   5.274  154.9  0.0423   71.2  0.9582  -16.6
 0.500  0.9237  -33.2   5.258  153.9  0.0439   70.5  0.9552  -17.3
 0.520  0.9202  -34.5   5.236  152.9  0.0455   69.7  0.9517  -18.0
 0.540  0.9172  -35.8   5.216  151.9  0.0471   68.9  0.9482  -18.6
 0.560  0.9146  -37.1   5.197  150.9  0.0487   68.1  0.9449  -19.3
 0.580  0.9126  -38.5   5.180  149.8  0.0503   67.4  0.9417  -19.9
 0.600  0.9110  -39.8   5.165  148.8  0.0519   66.8  0.9387  -20.6
 0.620  0.9074  -41.1   5.141  147.8  0.0534   66.0  0.9346  -21.2
 0.640  0.9042  -42.3   5.119  146.9  0.0549   65.2  0.9307  -21.9
 0.660  0.9015  -43.6   5.099  145.9  0.0564   64.5  0.9269  -22.5
 0.680  0.8992  -44.9   5.080  144.9  0.0580   63.8  0.9232  -23.1
 0.700  0.8974  -46.2   5.062  143.9  0.0595   63.1  0.9196  -23.8
 0.720  0.8936  -47.4   5.033  143.0  0.0609   62.3  0.9153  -24.4
 0.740  0.8902  -48.7   5.006  142.0  0.0623   61.6  0.9111  -25.0
 0.760  0.8872  -50.0   4.980  141.1  0.0637   60.9  0.9070  -25.6
 0.780  0.8847  -51.2   4.955  140.2  0.0652   60.2  0.9031  -26.3
 0.800  0.8826  -52.5   4.932  139.2  0.0666   59.6  0.8992  -26.9
 0.820  0.8787  -53.7   4.904  138.3  0.0679   58.9  0.8947  -27.5
 0.840  0.8753  -55.0   4.877  137.3  0.0693   58.2  0.8902  -28.0
 0.860  0.8723  -56.3   4.852  136.4  0.0706   57.5  0.8859  -28.6
 0.880  0.8697  -57.5   4.828  135.5  0.0719   56.8  0.8817  -29.2
 0.900  0.8675  -58.8   4.805  134.5  0.0733   56.2  0.8775  -29.8
 0.920  0.8637  -60.0   4.776  133.6  0.0745   55.5  0.8728  -30.4
 0.940  0.8602  -61.3   4.749  132.8  0.0757   54.8  0.8683  -30.9
 0.960  0.8572  -62.5   4.722  131.9  0.0770   54.2  0.8638  -31.5
 0.980  0.8545  -63.7   4.697  131.0  0.0782   53.5  0.8594  -32.1
 1.000  0.8523  -65.0   4.673  130.1  0.0795   52.9  0.8551  -32.7
 1.020  0.8485  -66.2   4.644  129.3  0.0806   52.2  0.8504  -33.2
 1.040  0.8451  -67.4   4.615  128.4  0.0818   51.6  0.8458  -33.7
 1.060  0.8420  -68.6   4.588  127.6  0.0829   51.0  0.8412  -34.2
 1.080  0.8393  -69.8   4.562  126.7  0.0840   50.4  0.8367  -34.8
 1.100  0.8370  -71.0   4.537  125.8  0.0852   49.8  0.8323  -35.3
 1.120  0.8333  -72.2   4.507  125.0  0.0862   49.1  0.8274  -35.8
 1.140  0.8300  -73.4   4.479  124.1  0.0873   48.5  0.8225  -36.4
 1.160  0.8270  -74.6   4.451  123.3  0.0883   47.9  0.8177  -36.9
 1.180  0.8243  -75.8   4.425  122.4  0.0894   47.3  0.8130  -37.4
 1.200  0.8221  -77.0   4.399  121.5  0.0905   46.7  0.8084  -38.0
 1.220  0.8186  -78.1   4.370  120.7  0.0914   46.1  0.8037  -38.5
 1.240  0.8155  -79.3   4.341  119.9  0.0924   45.5  0.7991  -39.0
 1.260  0.8127  -80.5   4.314  119.1  0.0934   44.9  0.7945  -39.5
 1.280  0.8102  -81.6   4.287  118.3  0.0943   44.4  0.7900  -40.0
 1.300  0.8081  -82.8   4.261  117.5  0.0953   43.8  0.7856  -40.5
 1.320  0.8045  -83.9   4.233  116.7  0.0962   43.2  0.7809  -41.0
 1.340  0.8012  -85.1   4.205  115.9  0.0970   42.6  0.7762  -41.4
 1.360  0.7983  -86.3   4.179  115.1  0.0979   42.0  0.7715  -41.9
 1.380  0.7957  -87.4   4.153  114.3  0.0988   41.4  0.7669  -42.4
 1.400  0.7934  -88.6   4.128  113.5  0.0997   40.8  0.7624  -42.9
 1.420  0.7901  -89.7   4.101  112.8  0.1005   40.2  0.7577  -43.3
 1.440  0.7871  -90.8   4.075  112.0  0.1013   39.7  0.7531  -43.8
 1.460  0.7844  -91.9   4.050  111.3  0.1021   39.2  0.7485  -44.3
 1.480  0.7820  -93.0   4.025  110.6  0.1029   38.6  0.7440  -44.7
 1.500  0.7799  -94.1   4.001  109.8  0.1037   38.1  0.7395  -45.2
 1.520  0.7769  -95.2   3.975  109.1  0.1044   37.6  0.7349  -45.6
 1.540  0.7741  -96.2   3.949  108.3  0.1050   37.0  0.7303  -46.1
 1.560  0.7716  -97.3   3.924  107.6  0.1057   36.5  0.7258  -46.5
 1.580  0.7693  -98.4   3.900  106.9  0.1064   36.0  0.7213  -46.9
 1.600  0.7674  -99.5   3.876  106.1  0.1071   35.5  0.7169  -47.4
 1.620  0.7641 -100.5   3.850  105.4  0.1077   35.0  0.7126  -47.8
 1.640  0.7611 -101.6   3.825  104.7  0.1084   34.4  0.7082  -48.2
 1.660  0.7584 -102.7   3.801  104.0  0.1091   33.9  0.7040  -48.6
 1.680  0.7559 -103.7   3.777  103.3  0.1097   33.4  0.6997  -49.0
 1.700  0.7537 -104.8   3.754  102.6  0.1104   32.9  0.6955  -49.4
 1.720  0.7510 -105.8   3.727  101.9  0.1109   32.4  0.6913  -49.8
 1.740  0.7485 -106.8   3.700  101.3  0.1115   31.9  0.6870  -50.2
 1.760  0.7463 -107.8   3.674  100.6  0.1121   31.4  0.6829  -50.6
 1.780  0.7443 -108.9   3.648   99.9  0.1126   31.0  0.6787  -51.0
 1.800  0.7425 -109.9   3.623   99.2  0.1132   30.5  0.6746  -51.4
 1.820  0.7398 -110.9   3.600   98.5  0.1137   30.0  0.6703  -51.8
 1.840  0.7374 -112.0   3.577   97.9  0.1142   29.5  0.6659  -52.2
 1.860  0.7353 -113.1   3.555   97.2  0.1147   29.0  0.6617  -52.6
 1.880  0.7334 -114.1   3.534   96.5  0.1153   28.6  0.6574  -53.0
 1.900  0.7317 -115.2   3.513   95.8  0.1158   28.1  0.6532  -53.4
 1.920  0.7290 -116.1   3.489   95.2  0.1162   27.7  0.6493  -53.7
 1.940  0.7264 -117.1   3.466   94.6  0.1166   27.3  0.6455  -54.1
 1.960  0.7241 -118.0   3.443   94.0  0.1170   26.8  0.6416  -54.4
 1.980  0.7219 -118.9   3.420   93.3  0.1175   26.4  0.6378  -54.8
 2.000  0.7200 -119.9   3.398   92.7  0.1179   26.0  0.6340  -55.1
 2.020  0.7171 -120.9   3.376   92.1  0.1182   25.6  0.6300  -55.4
 2.040  0.7144 -121.8   3.354   91.5  0.1186   25.1  0.6260  -55.8
 2.060  0.7119 -122.8   3.333   90.9  0.1190   24.7  0.6221  -56.1
 2.080  0.7096 -123.8   3.312   90.3  0.1193   24.2  0.6182  -56.5
 2.100  0.7075 -124.7   3.291   89.7  0.1197   23.8  0.6143  -56.8
 2.120  0.7056 -125.7   3.271   89.1  0.1201   23.4  0.6104  -57.2
 2.140  0.7039 -126.7   3.251   88.4  0.1205   23.0  0.6066  -57.6
 2.160  0.7025 -127.7   3.232   87.8  0.1209   22.5  0.6028  -57.9
 2.180  0.7012 -128.7   3.213   87.2  0.1213   22.1  0.5990  -58.3
 2.200  0.7002 -129.7   3.194   86.5  0.1217   21.7  0.5952  -58.7
 2.220  0.6977 -130.6   3.173   85.9  0.1219   21.3  0.5915  -59.0
 2.240  0.6954 -131.5   3.152   85.4  0.1222   20.9  0.5877  -59.3
 2.260  0.6933 -132.5   3.132   84.8  0.1224   20.5  0.5841  -59.6
 2.280  0.6914 -133.4   3.112   84.2  0.1227   20.0  0.5804  -60.0
 2.300  0.6896 -134.3   3.092   83.6  0.1230   19.6  0.5767  -60.3
 2.320  0.6881 -135.3   3.073   83.0  0.1232   19.2  0.5731  -60.6
 2.340  0.6867 -136.2   3.054   82.4  0.1235   18.8  0.5694  -61.0
 2.360  0.6855 -137.2   3.035   81.8  0.1238   18.4  0.5658  -61.3
 2.380  0.6845 -138.1   3.017   81.2  0.1241   18.0  0.5623  -61.7
 2.400  0.6837 -139.1   2.999   80.6  0.1244   17.6  0.5587  -62.0
 2.420  0.6818 -140.0   2.980   80.1  0.1245   17.2  0.5552  -62.3
 2.440  0.6800 -140.9   2.961   79.5  0.1247   16.9  0.5517  -62.6
 2.460  0.6784 -141.9   2.943   79.0  0.1249   16.5  0.5482  -62.9
 2.480  0.6770 -142.8   2.924   78.4  0.1250   16.1  0.5448  -63.2
 2.500  0.6758 -143.7   2.907   77.9  0.1252   15.7  0.5413  -63.5
 2.520  0.6747 -144.6   2.889   77.3  0.1254   15.4  0.5379  -63.9
 2.540  0.6738 -145.6   2.871   76.8  0.1255   15.0  0.5345  -64.2
 2.560  0.6731 -146.5   2.854   76.2  0.1257   14.6  0.5311  -64.5
 2.580  0.6726 -147.5   2.838   75.6  0.1259   14.3  0.5278  -64.9
 2.600  0.6723 -148.4   2.821   75.0  0.1261   13.9  0.5244  -65.2
 2.620  0.6706 -149.2   2.803   74.5  0.1262   13.6  0.5212  -65.5
 2.640  0.6690 -150.1   2.786   74.0  0.1262   13.2  0.5180  -65.8
 2.660  0.6675 -150.9   2.769   73.5  0.1263   12.9  0.5149  -66.1
 2.680  0.6662 -151.8   2.752   73.0  0.1264   12.5  0.5117  -66.4
 2.700  0.6651 -152.7   2.735   72.5  0.1265   12.2  0.5086  -66.7
 2.720  0.6641 -153.5   2.719   72.0  0.1266   11.9  0.5055  -67.0
 2.740  0.6632 -154.4   2.702   71.4  0.1267   11.5  0.5023  -67.3
 2.760  0.6625 -155.3   2.686   70.9  0.1268   11.2  0.4992  -67.6
 2.780  0.6620 -156.1   2.671   70.3  0.1269   10.8  0.4962  -67.9
 2.800  0.6616 -157.0   2.655   69.8  0.1270   10.5  0.4931  -68.2
 2.820  0.6605 -157.8   2.639   69.3  0.1270   10.2  0.4902  -68.5
 2.840  0.6596 -158.6   2.624   68.8  0.1270    9.9  0.4872  -68.8
 2.860  0.6588 -159.4   2.609   68.4  0.1270    9.5  0.4843  -69.0
 2.880  0.6582 -160.2   2.594   67.9  0.1271    9.2  0.4814  -69.3
 2.900  0.6577 -161.0   2.579   67.4  0.1271    8.9  0.4785  -69.6
 2.920  0.6573 -161.8   2.564   66.9  0.1271    8.6  0.4757  -69.9
 2.940  0.6570 -162.7   2.550   66.4  0.1272    8.3  0.4728  -70.2
 2.960  0.6569 -163.5   2.536   65.8  0.1272    7.9  0.4700  -70.5
 2.980  0.6569 -164.3   2.522   65.3  0.1273    7.6  0.4671  -70.8
 3.000  0.6570 -165.1   2.508   64.8  0.1273    7.3  0.4643  -71.1
 3.100  0.6508 -168.9   2.437   62.7  0.1269    6.0  0.4510  -72.4
 3.200  0.6476 -172.8   2.369   60.4  0.1266    4.6  0.4380  -73.9
 3.300  0.6473 -176.7   2.305   58.0  0.1263    3.3  0.4253  -75.4
 3.400  0.6500  179.4   2.245   55.5  0.1261    1.9  0.4129  -77.0
 3.500  0.6557  175.6   2.190   52.8  0.1260    0.6  0.4009  -78.7
 3.600  0.6535  172.3   2.132   50.8  0.1254   -0.4  0.3904  -80.2
 3.700  0.6535  169.1   2.076   48.7  0.1248   -1.4  0.3803  -81.7
 3.800  0.6556  165.8   2.023   46.5  0.1243   -2.4  0.3704  -83.4
 3.900  0.6597  162.6   1.974   44.1  0.1238   -3.5  0.3608  -85.1
 4.000  0.6660  159.4   1.928   41.7  0.1234   -4.5  0.3516  -86.9
 4.100  0.6657  156.8   1.878   39.8  0.1226   -5.3  0.3436  -88.6
 4.200  0.6667  154.1   1.829   37.9  0.1218   -6.2  0.3359  -90.4
 4.300  0.6692  151.5   1.784   35.8  0.1211   -7.0  0.3285  -92.2
 4.400  0.6731  148.9   1.740   33.7  0.1204   -7.9  0.3215  -94.2
 4.500  0.6784  146.3   1.699   31.4  0.1197   -8.8  0.3149  -96.2
 4.600  0.6777  144.2   1.657   29.8  0.1188   -9.3  0.3088  -97.9
 4.700  0.6779  142.2   1.617   28.1  0.1179   -9.9  0.3030  -99.6
 4.800  0.6790  140.1   1.577   26.4  0.1171  -10.5  0.2975 -101.5
 4.900  0.6810  138.0   1.540   24.5  0.1162  -11.0  0.2923 -103.3
 5.000  0.6838  136.0   1.504   22.6  0.1154  -11.6  0.2874 -105.3
 5.100  0.6840  134.1   1.471   21.1  0.1145  -11.9  0.2823 -107.1
 5.200  0.6849  132.3   1.439   19.5  0.1135  -12.3  0.2774 -109.0
 5.300  0.6865  130.4   1.409   17.8  0.1126  -12.7  0.2729 -110.9
 5.400  0.6889  128.5   1.379   16.1  0.1117  -13.0  0.2687 -112.9
 5.500  0.6920  126.7   1.351   14.3  0.1108  -13.4  0.2648 -114.9
 5.600  0.6937  124.9   1.325   12.9  0.1102  -13.5  0.2607 -116.9
 5.700  0.6960  123.2   1.300   11.4  0.1095  -13.5  0.2570 -119.0
 5.800  0.6990  121.4   1.276    9.8  0.1089  -13.6  0.2536 -121.2
 5.900  0.7026  119.7   1.253    8.2  0.1082  -13.6  0.2506 -123.4
 6.000  0.7068  118.0   1.231    6.5  0.1076  -13.7  0.2480 -125.6
 6.100  0.7096  116.4   1.210    5.0  0.1075  -13.7  0.2451 -127.8
 6.200  0.7130  114.9   1.190    3.5  0.1075  -13.6  0.2425 -130.0
 6.300  0.7168  113.4   1.171    1.9  0.1074  -13.6  0.2404 -132.3
 6.400  0.7212  111.9   1.152    0.3  0.1074  -13.5  0.2386 -134.6
 6.500  0.7260  110.4   1.135   -1.4  0.1073  -13.5  0.2372 -137.0
 6.600  0.7280  109.0   1.117   -2.9  0.1077  -13.4  0.2348 -139.3
 6.800  0.7335  106.1   1.083   -5.9  0.1085  -13.3  0.2311 -144.0
 7.000  0.7407  103.3   1.053   -9.2  0.1093  -13.2  0.2290 -148.8
 7.200  0.7438  100.4   1.020  -12.1  0.1108  -13.4  0.2260 -154.2
 7.400  0.7489   97.4   0.991  -15.3  0.1123  -13.7  0.2251 -159.7
 7.600  0.7525   94.4   0.960  -18.4  0.1138  -14.1  0.2243 -165.5
 7.800  0.7551   91.1   0.927  -21.5  0.1152  -14.8  0.2241 -171.8
 8.000  0.7602   87.9   0.897  -24.8  0.1167  -15.5  0.2266 -178.0
 8.200  0.7617   84.6   0.863  -27.5  0.1173  -16.3  0.2257  174.9
 8.400  0.7657   81.4   0.831  -30.4  0.1180  -17.0  0.2282  167.8
 8.600  0.7731   78.3   0.802  -33.2  0.1186  -17.6  0.2338  160.3
 8.800  0.7836   75.4   0.775  -35.8  0.1192  -17.9  0.2433  152.6
 9.000  0.7961   72.6   0.750  -38.6  0.1198  -18.3  0.2567  145.6
 9.200  0.8154   70.4   0.726  -40.8  0.1210  -18.5  0.2770  139.3
 9.400  0.8358   68.2   0.704  -43.2  0.1223  -18.7  0.3001  133.9
 9.600  0.8538   66.4   0.679  -45.7  0.1240  -19.0  0.3258  129.4
 9.800  0.8690   64.8   0.651  -48.2  0.1261  -19.4  0.3533  125.8
10.000  0.8848   63.2   0.625  -50.9  0.1283  -19.8  0.3820  122.7
!
!  f       NFmin   Gammaopt  rn/50
! GHz       dB    MAG  ANG    -
 0.900      0.52  0.55   33   0.27
 1.800      1.07  0.35   77   0.21
 2.400      1.18  0.36  101   0.18
 3.000      1.41  0.36  134   0.13
 4.000      1.68  0.40 -172   0.10
 5.000      2.08  0.44 -130   0.32
 6.000      2.89  0.57 -114   0.39
!
! (c) 2016  Infineon Technologies AG, Munich
