! Infineon Technologies  Discrete & RF Semiconductors
! BFP410
! VCE =  4.0 V,  IC =  1.0 mA
! Common Emitter S-Parameters:                            Nov 2015
# GHz  S  MA  R  50
!  f         S11            S21            S12            S22
! GHz     MAG   ANG      MAG   ANG      MAG   ANG      MAG   ANG
 0.010  0.9565    1.4   3.718  179.5  0.0003   28.7  1.0000    1.0
 0.015  0.9581    0.6   3.700  179.5  0.0007   71.3  0.9960    0.8
 0.020  0.9598   -0.1   3.682  179.4  0.0012   81.0  0.9921    0.5
 0.025  0.9596   -0.4   3.681  179.1  0.0015   82.8  0.9932    0.3
 0.030  0.9594   -0.8   3.680  178.8  0.0018   84.1  0.9944    0.2
 0.035  0.9593   -1.1   3.680  178.6  0.0021   84.9  0.9955   -0.0
 0.040  0.9591   -1.4   3.679  178.3  0.0024   85.6  0.9967   -0.2
 0.045  0.9591   -1.8   3.678  178.0  0.0027   86.1  0.9978   -0.3
 0.050  0.9590   -2.1   3.678  177.7  0.0030   86.5  0.9990   -0.5
 0.055  0.9590   -2.3   3.680  177.6  0.0033   86.4  0.9990   -0.6
 0.060  0.9589   -2.5   3.681  177.4  0.0036   86.4  0.9989   -0.8
 0.065  0.9589   -2.8   3.683  177.3  0.0039   86.4  0.9989   -0.9
 0.070  0.9590   -3.0   3.685  177.1  0.0042   86.3  0.9989   -1.1
 0.075  0.9590   -3.2   3.687  177.0  0.0044   86.3  0.9989   -1.2
 0.080  0.9590   -3.4   3.689  176.9  0.0047   86.3  0.9989   -1.4
 0.085  0.9591   -3.6   3.690  176.7  0.0050   86.3  0.9989   -1.6
 0.090  0.9591   -3.9   3.692  176.6  0.0053   86.2  0.9989   -1.7
 0.095  0.9592   -4.1   3.694  176.4  0.0056   86.2  0.9990   -1.9
 0.100  0.9593   -4.3   3.696  176.3  0.0059   86.2  0.9990   -2.0
 0.105  0.9592   -4.5   3.697  176.1  0.0062   86.1  0.9990   -2.1
 0.110  0.9590   -4.7   3.697  175.9  0.0065   85.9  0.9989   -2.2
 0.115  0.9589   -5.0   3.698  175.7  0.0068   85.8  0.9989   -2.3
 0.120  0.9588   -5.2   3.698  175.5  0.0071   85.7  0.9989   -2.4
 0.125  0.9587   -5.4   3.699  175.3  0.0074   85.6  0.9989   -2.5
 0.130  0.9587   -5.6   3.700  175.2  0.0078   85.5  0.9988   -2.6
 0.135  0.9586   -5.8   3.700  175.0  0.0081   85.4  0.9988   -2.7
 0.140  0.9585   -6.1   3.701  174.8  0.0084   85.3  0.9988   -2.8
 0.145  0.9585   -6.3   3.702  174.6  0.0087   85.3  0.9988   -2.9
 0.150  0.9585   -6.5   3.703  174.4  0.0090   85.2  0.9988   -3.0
 0.155  0.9584   -6.7   3.703  174.2  0.0093   85.1  0.9986   -3.1
 0.160  0.9583   -6.9   3.703  174.0  0.0096   85.0  0.9984   -3.2
 0.165  0.9582   -7.2   3.703  173.9  0.0099   84.9  0.9982   -3.4
 0.170  0.9581   -7.4   3.703  173.7  0.0102   84.8  0.9980   -3.5
 0.175  0.9580   -7.6   3.703  173.5  0.0104   84.7  0.9978   -3.6
 0.180  0.9580   -7.8   3.703  173.3  0.0107   84.6  0.9976   -3.7
 0.185  0.9579   -8.0   3.703  173.1  0.0110   84.5  0.9974   -3.8
 0.190  0.9579   -8.3   3.703  173.0  0.0113   84.4  0.9972   -4.0
 0.195  0.9579   -8.5   3.703  172.8  0.0116   84.4  0.9971   -4.1
 0.200  0.9579   -8.7   3.703  172.6  0.0119   84.3  0.9969   -4.2
 0.220  0.9571   -9.6   3.698  171.8  0.0131   83.8  0.9965   -4.6
 0.240  0.9565  -10.5   3.694  170.9  0.0142   83.5  0.9961   -5.1
 0.260  0.9558  -11.4   3.694  170.1  0.0154   83.0  0.9953   -5.5
 0.280  0.9549  -12.3   3.697  169.4  0.0167   82.5  0.9941   -5.9
 0.300  0.9543  -13.2   3.701  168.7  0.0179   82.0  0.9930   -6.3
 0.320  0.9535  -14.1   3.701  168.0  0.0191   81.6  0.9922   -6.7
 0.340  0.9529  -15.0   3.701  167.3  0.0203   81.2  0.9915   -7.2
 0.360  0.9520  -15.9   3.698  166.5  0.0215   80.7  0.9906   -7.6
 0.380  0.9507  -16.8   3.693  165.7  0.0226   80.2  0.9895   -8.1
 0.400  0.9497  -17.7   3.689  164.9  0.0238   79.7  0.9885   -8.5
 0.420  0.9486  -18.6   3.685  164.2  0.0250   79.3  0.9875   -8.9
 0.440  0.9477  -19.5   3.682  163.5  0.0262   78.9  0.9866   -9.3
 0.450  0.9474  -19.9   3.681  163.1  0.0268   78.7  0.9861   -9.5
 0.460  0.9465  -20.4   3.680  162.7  0.0274   78.4  0.9854   -9.7
 0.480  0.9450  -21.3   3.679  161.9  0.0286   77.9  0.9839  -10.2
 0.500  0.9437  -22.2   3.678  161.1  0.0298   77.4  0.9825  -10.6
 0.520  0.9421  -23.1   3.670  160.3  0.0310   76.8  0.9811  -11.0
 0.540  0.9408  -24.0   3.663  159.5  0.0321   76.3  0.9797  -11.4
 0.560  0.9397  -24.9   3.656  158.7  0.0333   75.8  0.9784  -11.9
 0.580  0.9388  -25.8   3.650  157.9  0.0344   75.3  0.9772  -12.3
 0.600  0.9382  -26.7   3.645  157.1  0.0356   74.9  0.9760  -12.7
 0.620  0.9362  -27.6   3.640  156.4  0.0368   74.3  0.9742  -13.1
 0.640  0.9344  -28.5   3.636  155.7  0.0380   73.8  0.9724  -13.5
 0.660  0.9329  -29.4   3.633  155.0  0.0391   73.3  0.9707  -14.0
 0.680  0.9316  -30.3   3.630  154.3  0.0403   72.8  0.9690  -14.4
 0.700  0.9305  -31.2   3.627  153.6  0.0415   72.4  0.9674  -14.8
 0.720  0.9284  -32.1   3.617  152.8  0.0426   71.8  0.9655  -15.2
 0.740  0.9265  -33.0   3.608  152.1  0.0438   71.3  0.9636  -15.6
 0.760  0.9248  -33.9   3.599  151.3  0.0449   70.8  0.9618  -16.1
 0.780  0.9234  -34.8   3.591  150.6  0.0461   70.3  0.9600  -16.5
 0.800  0.9222  -35.7   3.584  149.8  0.0472   69.8  0.9583  -16.9
 0.820  0.9199  -36.6   3.576  149.1  0.0483   69.2  0.9561  -17.3
 0.840  0.9179  -37.5   3.569  148.4  0.0494   68.7  0.9540  -17.7
 0.860  0.9161  -38.4   3.563  147.6  0.0505   68.2  0.9519  -18.1
 0.880  0.9145  -39.4   3.556  146.9  0.0517   67.7  0.9498  -18.5
 0.900  0.9132  -40.3   3.551  146.2  0.0528   67.2  0.9478  -18.9
 0.920  0.9107  -41.2   3.541  145.5  0.0539   66.7  0.9454  -19.3
 0.940  0.9084  -42.1   3.531  144.8  0.0550   66.1  0.9431  -19.7
 0.960  0.9063  -43.0   3.522  144.1  0.0561   65.6  0.9408  -20.1
 0.980  0.9044  -43.9   3.513  143.3  0.0573   65.2  0.9386  -20.5
 1.000  0.9028  -44.8   3.505  142.6  0.0584   64.7  0.9364  -20.9
 1.020  0.9002  -45.7   3.495  141.9  0.0594   64.1  0.9340  -21.3
 1.040  0.8978  -46.6   3.486  141.2  0.0605   63.6  0.9316  -21.7
 1.060  0.8957  -47.5   3.478  140.5  0.0616   63.1  0.9293  -22.0
 1.080  0.8938  -48.5   3.469  139.7  0.0626   62.6  0.9270  -22.4
 1.100  0.8921  -49.4   3.462  139.0  0.0637   62.1  0.9248  -22.8
 1.120  0.8895  -50.3   3.452  138.3  0.0647   61.5  0.9223  -23.2
 1.140  0.8871  -51.2   3.442  137.6  0.0658   61.0  0.9198  -23.6
 1.160  0.8850  -52.1   3.433  136.9  0.0669   60.5  0.9173  -24.0
 1.180  0.8830  -53.0   3.424  136.1  0.0679   60.0  0.9150  -24.4
 1.200  0.8813  -53.9   3.416  135.4  0.0690   59.5  0.9126  -24.8
 1.220  0.8786  -54.8   3.405  134.7  0.0700   58.9  0.9100  -25.2
 1.240  0.8761  -55.7   3.394  134.0  0.0709   58.4  0.9075  -25.5
 1.260  0.8738  -56.6   3.384  133.3  0.0719   57.8  0.9049  -25.9
 1.280  0.8717  -57.5   3.375  132.6  0.0729   57.3  0.9024  -26.2
 1.300  0.8699  -58.4   3.366  131.9  0.0739   56.8  0.9000  -26.6
 1.320  0.8671  -59.3   3.353  131.2  0.0748   56.3  0.8973  -27.0
 1.340  0.8645  -60.2   3.340  130.5  0.0758   55.7  0.8946  -27.3
 1.360  0.8621  -61.1   3.328  129.8  0.0767   55.2  0.8919  -27.7
 1.380  0.8599  -62.1   3.317  129.0  0.0776   54.7  0.8893  -28.0
 1.400  0.8580  -63.0   3.306  128.3  0.0786   54.2  0.8867  -28.4
 1.420  0.8553  -63.8   3.295  127.7  0.0795   53.7  0.8840  -28.8
 1.440  0.8527  -64.7   3.284  127.1  0.0804   53.2  0.8812  -29.1
 1.460  0.8503  -65.5   3.273  126.5  0.0813   52.7  0.8786  -29.5
 1.480  0.8481  -66.4   3.263  125.8  0.0822   52.3  0.8759  -29.8
 1.500  0.8461  -67.2   3.253  125.2  0.0831   51.8  0.8733  -30.2
 1.520  0.8432  -68.1   3.242  124.5  0.0839   51.3  0.8704  -30.5
 1.540  0.8405  -69.1   3.232  123.8  0.0848   50.7  0.8674  -30.9
 1.560  0.8380  -70.0   3.223  123.1  0.0857   50.2  0.8646  -31.2
 1.580  0.8357  -70.9   3.214  122.4  0.0865   49.7  0.8617  -31.6
 1.600  0.8337  -71.9   3.205  121.7  0.0874   49.2  0.8589  -31.9
 1.620  0.8308  -72.7   3.193  121.1  0.0882   48.7  0.8563  -32.2
 1.640  0.8282  -73.6   3.181  120.4  0.0890   48.2  0.8537  -32.5
 1.660  0.8257  -74.5   3.170  119.8  0.0898   47.7  0.8511  -32.9
 1.680  0.8234  -75.3   3.159  119.1  0.0906   47.3  0.8485  -33.2
 1.700  0.8213  -76.2   3.149  118.5  0.0914   46.8  0.8460  -33.5
 1.720  0.8187  -77.1   3.136  117.9  0.0921   46.3  0.8433  -33.8
 1.740  0.8162  -77.9   3.123  117.3  0.0929   45.8  0.8406  -34.2
 1.760  0.8140  -78.8   3.111  116.7  0.0937   45.3  0.8379  -34.5
 1.780  0.8120  -79.7   3.099  116.0  0.0944   44.9  0.8352  -34.9
 1.800  0.8101  -80.6   3.087  115.4  0.0952   44.4  0.8326  -35.2
 1.820  0.8071  -81.5   3.077  114.8  0.0959   43.9  0.8297  -35.5
 1.840  0.8043  -82.3   3.068  114.2  0.0967   43.5  0.8268  -35.8
 1.860  0.8017  -83.2   3.058  113.6  0.0975   43.0  0.8239  -36.2
 1.880  0.7992  -84.1   3.049  112.9  0.0982   42.5  0.8210  -36.5
 1.900  0.7970  -85.0   3.041  112.3  0.0990   42.1  0.8182  -36.8
 1.920  0.7944  -85.8   3.029  111.7  0.0996   41.6  0.8154  -37.1
 1.940  0.7919  -86.7   3.016  111.1  0.1003   41.2  0.8127  -37.4
 1.960  0.7897  -87.6   3.005  110.5  0.1010   40.7  0.8099  -37.7
 1.980  0.7876  -88.4   2.993  109.9  0.1016   40.2  0.8072  -38.0
 2.000  0.7857  -89.3   2.982  109.3  0.1023   39.8  0.8045  -38.3
 2.020  0.7823  -90.2   2.971  108.7  0.1029   39.3  0.8015  -38.6
 2.040  0.7790  -91.0   2.959  108.1  0.1035   38.8  0.7984  -38.9
 2.060  0.7760  -91.9   2.949  107.5  0.1041   38.4  0.7955  -39.2
 2.080  0.7731  -92.8   2.938  106.9  0.1047   37.9  0.7925  -39.5
 2.100  0.7704  -93.7   2.928  106.3  0.1053   37.4  0.7895  -39.8
 2.120  0.7679  -94.6   2.918  105.6  0.1059   37.0  0.7866  -40.1
 2.140  0.7656  -95.5   2.909  105.0  0.1066   36.5  0.7837  -40.4
 2.160  0.7635  -96.4   2.900  104.4  0.1072   36.1  0.7808  -40.7
 2.180  0.7615  -97.3   2.891  103.7  0.1079   35.6  0.7779  -41.0
 2.200  0.7598  -98.2   2.883  103.1  0.1085   35.2  0.7751  -41.3
 2.220  0.7564  -99.1   2.871  102.5  0.1090   34.7  0.7721  -41.6
 2.240  0.7532  -99.9   2.860  102.0  0.1095   34.3  0.7690  -41.8
 2.260  0.7501 -100.8   2.849  101.4  0.1101   33.8  0.7660  -42.1
 2.280  0.7472 -101.7   2.838  100.8  0.1106   33.4  0.7630  -42.4
 2.300  0.7445 -102.6   2.827  100.2  0.1112   32.9  0.7601  -42.7
 2.320  0.7420 -103.5   2.817   99.6  0.1117   32.5  0.7571  -43.0
 2.340  0.7397 -104.4   2.807   99.0  0.1123   32.1  0.7542  -43.2
 2.360  0.7375 -105.3   2.797   98.4  0.1128   31.6  0.7513  -43.5
 2.380  0.7356 -106.2   2.788   97.8  0.1134   31.2  0.7484  -43.8
 2.400  0.7338 -107.1   2.779   97.2  0.1140   30.8  0.7455  -44.1
 2.420  0.7306 -108.0   2.767   96.6  0.1144   30.3  0.7423  -44.4
 2.440  0.7276 -108.9   2.756   96.1  0.1148   29.9  0.7392  -44.7
 2.460  0.7247 -109.8   2.745   95.5  0.1152   29.4  0.7360  -44.9
 2.480  0.7220 -110.7   2.734   94.9  0.1155   28.9  0.7329  -45.2
 2.500  0.7195 -111.6   2.723   94.4  0.1160   28.5  0.7298  -45.5
 2.520  0.7172 -112.5   2.713   93.8  0.1164   28.0  0.7267  -45.8
 2.540  0.7151 -113.4   2.703   93.2  0.1168   27.5  0.7237  -46.1
 2.560  0.7131 -114.3   2.693   92.6  0.1172   27.1  0.7206  -46.4
 2.580  0.7114 -115.3   2.683   92.0  0.1177   26.6  0.7176  -46.7
 2.600  0.7098 -116.2   2.674   91.4  0.1181   26.2  0.7146  -47.0
 2.620  0.7068 -117.1   2.662   90.9  0.1184   25.8  0.7117  -47.3
 2.640  0.7039 -117.9   2.651   90.3  0.1187   25.4  0.7087  -47.5
 2.660  0.7012 -118.8   2.640   89.8  0.1190   25.0  0.7058  -47.8
 2.680  0.6987 -119.7   2.629   89.2  0.1193   24.6  0.7029  -48.0
 2.700  0.6963 -120.6   2.618   88.7  0.1196   24.2  0.7001  -48.3
 2.720  0.6942 -121.5   2.607   88.1  0.1200   23.8  0.6972  -48.5
 2.740  0.6921 -122.4   2.597   87.5  0.1203   23.4  0.6944  -48.8
 2.760  0.6903 -123.3   2.587   87.0  0.1206   23.0  0.6915  -49.1
 2.780  0.6886 -124.2   2.577   86.4  0.1210   22.6  0.6887  -49.3
 2.800  0.6871 -125.1   2.568   85.8  0.1213   22.2  0.6859  -49.6
 2.820  0.6847 -125.9   2.557   85.3  0.1215   21.8  0.6831  -49.9
 2.840  0.6825 -126.8   2.547   84.8  0.1217   21.4  0.6804  -50.1
 2.860  0.6804 -127.7   2.537   84.3  0.1220   21.0  0.6776  -50.4
 2.880  0.6785 -128.5   2.527   83.7  0.1222   20.5  0.6749  -50.6
 2.900  0.6767 -129.4   2.517   83.2  0.1224   20.1  0.6722  -50.9
 2.920  0.6751 -130.3   2.508   82.7  0.1227   19.7  0.6695  -51.1
 2.940  0.6736 -131.1   2.499   82.1  0.1229   19.3  0.6668  -51.4
 2.960  0.6723 -132.0   2.489   81.6  0.1232   18.9  0.6641  -51.7
 2.980  0.6712 -132.9   2.481   81.0  0.1234   18.5  0.6614  -51.9
 3.000  0.6702 -133.8   2.472   80.5  0.1237   18.1  0.6588  -52.2
 3.100  0.6571 -137.9   2.416   78.1  0.1239   16.3  0.6461  -53.3
 3.200  0.6475 -142.2   2.364   75.7  0.1243   14.6  0.6337  -54.4
 3.300  0.6416 -146.6   2.317   73.1  0.1247   12.8  0.6215  -55.6
 3.400  0.6394 -151.0   2.275   70.4  0.1253   11.1  0.6095  -56.8
 3.500  0.6411 -155.4   2.238   67.6  0.1260    9.4  0.5979  -58.1
 3.600  0.6329 -159.4   2.189   65.4  0.1258    8.0  0.5871  -59.2
 3.700  0.6279 -163.4   2.144   63.1  0.1257    6.5  0.5765  -60.3
 3.800  0.6260 -167.5   2.102   60.7  0.1256    5.1  0.5661  -61.4
 3.900  0.6274 -171.6   2.064   58.2  0.1257    3.6  0.5560  -62.6
 4.000  0.6319 -175.7   2.030   55.6  0.1258    2.2  0.5461  -63.8
 4.100  0.6276 -179.1   1.984   53.5  0.1251    0.9  0.5364  -65.1
 4.200  0.6255  177.4   1.940   51.3  0.1245   -0.4  0.5269  -66.4
 4.300  0.6257  174.0   1.900   49.0  0.1240   -1.7  0.5178  -67.7
 4.400  0.6282  170.5   1.863   46.6  0.1235   -3.0  0.5089  -69.1
 4.500  0.6330  167.1   1.829   44.1  0.1231   -4.3  0.5004  -70.6
 4.600  0.6305  164.4   1.787   42.2  0.1220   -5.3  0.4930  -71.8
 4.700  0.6294  161.7   1.747   40.3  0.1210   -6.3  0.4859  -73.1
 4.800  0.6297  158.9   1.710   38.2  0.1200   -7.3  0.4790  -74.4
 4.900  0.6314  156.2   1.674   36.1  0.1190   -8.3  0.4724  -75.7
 5.000  0.6346  153.5   1.641   33.9  0.1181   -9.3  0.4660  -77.1
 5.100  0.6331  151.2   1.607   32.2  0.1168  -10.0  0.4595  -78.2
 5.200  0.6326  148.8   1.574   30.5  0.1156  -10.7  0.4531  -79.3
 5.300  0.6332  146.5   1.543   28.7  0.1143  -11.4  0.4469  -80.4
 5.400  0.6349  144.1   1.514   26.8  0.1131  -12.1  0.4409  -81.6
 5.500  0.6376  141.8   1.486   24.8  0.1119  -12.9  0.4351  -82.8
 5.600  0.6382  139.6   1.459   23.2  0.1107  -13.2  0.4288  -84.0
 5.700  0.6398  137.4   1.433   21.5  0.1095  -13.6  0.4226  -85.1
 5.800  0.6423  135.3   1.408   19.8  0.1083  -13.9  0.4166  -86.4
 5.900  0.6457  133.1   1.385   18.0  0.1071  -14.2  0.4109  -87.6
 6.000  0.6500  131.0   1.363   16.2  0.1059  -14.6  0.4053  -88.9
 6.100  0.6524  129.1   1.341   14.6  0.1052  -14.7  0.4001  -90.3
 6.200  0.6555  127.2   1.319   13.0  0.1045  -14.7  0.3952  -91.8
 6.300  0.6593  125.3   1.299   11.3  0.1037  -14.8  0.3906  -93.2
 6.400  0.6638  123.4   1.280    9.6  0.1030  -14.8  0.3862  -94.8
 6.500  0.6690  121.6   1.262    7.8  0.1023  -14.9  0.3821  -96.3
 6.600  0.6714  119.9   1.242    6.2  0.1020  -14.8  0.3780  -97.6
 6.800  0.6780  116.6   1.206    3.0  0.1015  -14.5  0.3703 -100.4
 7.000  0.6869  113.3   1.174   -0.5  0.1009  -14.3  0.3636 -103.2
 7.200  0.6905  109.9   1.140   -3.5  0.1015  -14.1  0.3534 -106.2
 7.400  0.6964  106.6   1.109   -6.7  0.1020  -13.9  0.3442 -109.4
 7.600  0.7009  103.1   1.077  -10.0  0.1028  -13.9  0.3335 -113.0
 7.800  0.7046   99.4   1.044  -13.4  0.1037  -14.2  0.3218 -117.3
 8.000  0.7113   95.7   1.015  -17.0  0.1047  -14.5  0.3120 -121.9
 8.200  0.7129   91.9   0.979  -19.8  0.1051  -14.8  0.2977 -126.7
 8.400  0.7177   88.2   0.945  -22.9  0.1056  -15.1  0.2856 -131.9
 8.600  0.7264   84.8   0.915  -25.8  0.1061  -15.2  0.2724 -137.7
 8.800  0.7385   81.8   0.888  -28.5  0.1068  -15.1  0.2586 -144.1
 9.000  0.7524   78.9   0.863  -31.4  0.1075  -15.1  0.2483 -151.1
 9.200  0.7736   76.7   0.838  -34.0  0.1088  -14.9  0.2404 -160.0
 9.400  0.7960   74.6   0.815  -36.8  0.1101  -14.8  0.2387 -169.4
 9.600  0.8162   72.6   0.788  -39.6  0.1119  -14.7  0.2446 -178.6
 9.800  0.8345   70.5   0.758  -42.5  0.1142  -14.8  0.2578  172.7
10.000  0.8537   68.6   0.730  -45.7  0.1166  -14.8  0.2763  165.1
10.200  0.8577   67.2   0.699  -47.7  0.1200  -15.3  0.2971  158.9
10.400  0.8622   65.8   0.669  -49.9  0.1235  -15.7  0.3210  153.6
10.600  0.8591   65.0   0.643  -51.8  0.1267  -16.7  0.3443  148.8
10.800  0.8480   64.9   0.622  -53.3  0.1296  -18.1  0.3671  144.4
11.000  0.8369   64.8   0.602  -54.9  0.1327  -19.5  0.3917  140.6
11.200  0.8272   64.9   0.595  -55.8  0.1332  -20.9  0.4057  138.2
11.400  0.8175   65.0   0.589  -56.7  0.1339  -22.3  0.4203  136.0
11.600  0.8209   64.5   0.584  -58.8  0.1349  -23.6  0.4341  134.7
11.800  0.8375   63.4   0.582  -62.2  0.1362  -24.6  0.4467  134.3
12.000  0.8544   62.4   0.581  -65.5  0.1376  -25.7  0.4594  133.9
!
!  f       NFmin   Gammaopt  rn/50
! GHz       dB    MAG  ANG    -
 0.450      0.82  0.68    9   0.45
 0.900      0.79  0.65   23   0.41
 1.800      1.13  0.53   57   0.35
 2.400      1.23  0.50   71   0.31
 5.500      2.66  0.44 -153   0.19
!
! (c) 2015  Infineon Technologies AG, Munich
