! Infineon Technologies  Discrete & RF Semiconductors
! BFP420F
!
! VCE =  1.0 V,  IC =  14 mA
! Common Emitter S-Parameters:                            Sep 2011
# GHz  S  MA  R  50
!  f         S11            S21            S12            S22
! GHz     MAG   ANG      MAG   ANG      MAG   ANG      MAG   ANG
 0.030  0.5908   -7.0  32.348  174.3  0.0030   88.9  0.9580   -4.1
 0.040  0.5868   -9.4  32.318  172.5  0.0040   88.2  0.9570   -5.5
 0.050  0.5800  -11.0  31.870  170.5  0.0049   87.8  0.9550   -6.9
 0.060  0.5836  -14.1  31.869  169.3  0.0059   83.8  0.9520   -8.4
 0.070  0.5864  -16.6  31.767  167.7  0.0070   82.9  0.9477   -9.8
 0.080  0.5794  -18.4  31.323  165.9  0.0078   83.5  0.9432  -11.1
 0.090  0.5776  -20.9  31.187  164.4  0.0087   82.8  0.9387  -12.5
 0.100  0.5735  -23.1  31.069  162.6  0.0096   80.7  0.9330  -13.8
 0.110  0.5759  -25.1  30.504  161.4  0.0107   79.7  0.9270  -15.2
 0.120  0.5714  -27.7  30.428  159.4  0.0115   79.7  0.9208  -16.5
 0.130  0.5664  -29.5  29.951  158.1  0.0123   78.4  0.9145  -17.8
 0.140  0.5657  -31.5  29.637  156.7  0.0133   77.7  0.9071  -19.0
 0.150  0.5617  -33.8  29.370  155.3  0.0141   76.8  0.9002  -20.3
 0.200  0.5517  -44.0  27.769  148.9  0.0183   73.3  0.8627  -26.1
 0.250  0.5336  -53.5  26.074  142.9  0.0218   70.0  0.8204  -31.4
 0.300  0.5199  -62.5  24.629  137.6  0.0253   67.2  0.7805  -36.2
 0.350  0.5060  -70.7  23.076  132.8  0.0282   64.8  0.7384  -40.5
 0.400  0.4933  -78.2  21.610  128.4  0.0309   62.9  0.6993  -44.4
 0.450  0.4824  -84.9  20.330  124.6  0.0334   61.1  0.6627  -47.9
 0.500  0.4708  -91.2  19.054  121.1  0.0356   59.8  0.6264  -51.2
 0.600  0.4539 -102.7  16.843  114.8  0.0393   57.6  0.5618  -57.1
 0.700  0.4411 -112.6  15.088  109.5  0.0429   56.0  0.5092  -62.2
 0.800  0.4319 -121.0  13.528  104.9  0.0460   55.1  0.4622  -66.7
 0.900  0.4244 -128.0  12.197  101.2  0.0489   54.5  0.4218  -70.7
 1.000  0.4218 -134.4  11.131   97.8  0.0519   54.2  0.3882  -74.7
 1.100  0.4172 -140.0  10.204   94.7  0.0546   53.8  0.3580  -78.3
 1.200  0.4137 -145.1   9.343   91.8  0.0574   53.7  0.3335  -82.0
 1.300  0.4125 -149.4   8.668   89.6  0.0601   53.7  0.3115  -85.2
 1.400  0.4144 -153.4   8.080   87.4  0.0628   53.7  0.2931  -88.7
 1.500  0.4122 -157.5   7.530   84.9  0.0656   53.7  0.2751  -91.7
 1.600  0.4120 -160.5   7.008   83.1  0.0683   53.6  0.2609  -95.2
 1.700  0.4121 -163.5   6.612   81.5  0.0710   53.6  0.2473  -98.4
 1.800  0.4152 -166.2   6.264   79.9  0.0738   53.7  0.2374 -101.7
 1.900  0.4159 -169.3   5.928   77.7  0.0768   53.5  0.2282 -104.8
 2.000  0.4135 -171.5   5.574   76.3  0.0794   53.4  0.2208 -108.1
 2.200  0.4180 -175.6   5.090   73.6  0.0849   53.4  0.2097 -113.8
 2.400  0.4155 -179.5   4.617   70.6  0.0908   52.8  0.2022 -119.1
 2.600  0.4189  177.0   4.267   68.3  0.0964   52.6  0.1961 -123.9
 2.800  0.4197  173.4   3.961   65.7  0.1024   52.0  0.1927 -128.1
 3.000  0.4220  170.3   3.689   63.4  0.1081   51.5  0.1899 -132.0
 3.500  0.4261  163.3   3.161   57.8  0.1230   49.8  0.1857 -140.2
 4.000  0.4313  156.7   2.772   52.3  0.1379   47.5  0.1820 -147.4
 4.500  0.4390  151.2   2.473   47.0  0.1530   45.0  0.1756 -154.8
 5.000  0.4433  146.4   2.238   41.9  0.1676   42.2  0.1677 -162.7
 5.500  0.4486  141.3   2.044   36.7  0.1818   39.1  0.1589 -172.0
 6.000  0.4552  135.7   1.884   31.7  0.1958   36.1  0.1501  176.8
 6.500  0.4670  129.9   1.745   26.7  0.2089   32.8  0.1488  164.2
 7.000  0.4814  123.9   1.622   21.5  0.2217   29.5  0.1502  150.7
 7.500  0.5034  119.3   1.514   16.7  0.2345   26.2  0.1622  137.4
 8.000  0.5278  115.1   1.414   11.8  0.2458   22.4  0.1890  124.3
 8.500  0.5561  111.2   1.316    7.0  0.2542   18.6  0.2291  111.6
 9.000  0.5827  107.7   1.228    2.9  0.2609   15.2  0.2779  101.7
 9.500  0.6092  104.6   1.150   -0.8  0.2671   12.4  0.3331   95.5
10.000  0.6378  100.8   1.083   -3.9  0.2734    9.7  0.3913   92.0
!
!  f       NFmin   Gammaopt  rn/50
! GHz       dB    MAG  ANG    -
 0.450      1.34  0.08  173   0.11
 0.900      1.34  0.09  161   0.13
 1.900      1.47  0.19  177   0.19
 2.400      1.53  0.19 -180   0.12
 3.500      1.78  0.24 -164   0.17
!
! (c) 2011  Infineon Technologies AG, Munich
