! Infineon Technologies  Discrete & RF Semiconductors
! BFP405
! VCE =  4.5 V,  IC =  3.0 mA
! Common Emitter S-Parameters:                            Jan 2016
# GHz  S  MA  R  50
!  f         S11            S21            S12            S22
! GHz     MAG   ANG      MAG   ANG      MAG   ANG      MAG   ANG
 0.010  0.8903    0.7   9.440 -177.9  0.0015    1.5  0.9919    1.0
 0.015  0.8980    0.0   9.357 -179.8  0.0012   16.7  0.9887    0.6
 0.020  0.9059   -0.6   9.284  178.2  0.0010   39.9  0.9856    0.1
 0.025  0.9063   -0.9   9.271  178.1  0.0011   43.9  0.9862   -0.0
 0.030  0.9068   -1.2   9.258  178.0  0.0012   47.3  0.9869   -0.1
 0.035  0.9072   -1.5   9.244  178.0  0.0012   50.3  0.9875   -0.3
 0.040  0.9077   -1.8   9.231  177.9  0.0013   52.9  0.9881   -0.4
 0.045  0.9083   -2.1   9.218  177.8  0.0014   55.2  0.9888   -0.5
 0.050  0.9088   -2.4   9.205  177.7  0.0015   57.2  0.9894   -0.6
 0.055  0.9083   -2.6   9.206  177.4  0.0017   60.1  0.9894   -0.7
 0.060  0.9079   -2.8   9.207  177.2  0.0018   62.4  0.9895   -0.9
 0.065  0.9074   -3.0   9.209  176.9  0.0020   64.4  0.9896   -1.0
 0.070  0.9070   -3.2   9.210  176.7  0.0022   66.0  0.9896   -1.1
 0.075  0.9066   -3.3   9.212  176.4  0.0023   67.4  0.9897   -1.3
 0.080  0.9062   -3.5   9.214  176.2  0.0025   68.6  0.9898   -1.4
 0.085  0.9058   -3.7   9.216  175.9  0.0027   69.7  0.9898   -1.5
 0.090  0.9054   -3.9   9.219  175.7  0.0029   70.6  0.9899   -1.6
 0.095  0.9050   -4.1   9.221  175.4  0.0030   71.5  0.9900   -1.8
 0.100  0.9046   -4.3   9.224  175.2  0.0032   72.2  0.9901   -1.9
 0.105  0.9044   -4.5   9.220  175.1  0.0033   72.6  0.9898   -2.0
 0.110  0.9041   -4.7   9.217  174.9  0.0035   72.9  0.9896   -2.1
 0.115  0.9039   -4.9   9.213  174.8  0.0036   73.2  0.9893   -2.2
 0.120  0.9037   -5.1   9.210  174.6  0.0037   73.5  0.9891   -2.3
 0.125  0.9035   -5.2   9.206  174.5  0.0038   73.7  0.9889   -2.4
 0.130  0.9033   -5.4   9.203  174.3  0.0040   74.0  0.9886   -2.5
 0.135  0.9031   -5.6   9.200  174.2  0.0041   74.2  0.9884   -2.6
 0.140  0.9029   -5.8   9.196  174.0  0.0042   74.4  0.9882   -2.7
 0.145  0.9028   -6.0   9.193  173.9  0.0044   74.6  0.9879   -2.8
 0.150  0.9026   -6.2   9.190  173.7  0.0045   74.8  0.9877   -2.9
 0.155  0.9022   -6.4   9.186  173.5  0.0047   75.2  0.9876   -3.0
 0.160  0.9018   -6.6   9.183  173.3  0.0048   75.5  0.9876   -3.1
 0.165  0.9014   -6.9   9.180  173.1  0.0050   75.8  0.9875   -3.2
 0.170  0.9010   -7.1   9.177  172.9  0.0051   76.1  0.9874   -3.3
 0.175  0.9007   -7.3   9.173  172.7  0.0053   76.4  0.9874   -3.4
 0.180  0.9003   -7.5   9.171  172.4  0.0055   76.7  0.9873   -3.5
 0.185  0.9000   -7.7   9.168  172.2  0.0056   76.9  0.9872   -3.6
 0.190  0.8997   -8.0   9.165  172.0  0.0058   77.2  0.9872   -3.7
 0.195  0.8994   -8.2   9.162  171.8  0.0059   77.4  0.9871   -3.8
 0.200  0.8991   -8.4   9.160  171.6  0.0061   77.6  0.9871   -3.9
 0.220  0.8977   -9.2   9.169  170.8  0.0067   77.8  0.9839   -4.3
 0.240  0.8965  -10.1   9.179  170.0  0.0073   78.0  0.9808   -4.8
 0.260  0.8957  -11.0   9.174  169.2  0.0079   78.0  0.9803   -5.2
 0.280  0.8954  -11.9   9.155  168.5  0.0085   77.8  0.9825   -5.5
 0.300  0.8953  -12.8   9.136  167.8  0.0091   77.7  0.9847   -5.8
 0.320  0.8937  -13.6   9.113  167.0  0.0097   78.0  0.9830   -6.2
 0.340  0.8923  -14.3   9.092  166.2  0.0103   78.3  0.9813   -6.6
 0.360  0.8908  -15.2   9.081  165.4  0.0109   78.2  0.9798   -7.0
 0.380  0.8894  -16.1   9.079  164.5  0.0115   77.8  0.9784   -7.4
 0.400  0.8882  -17.0   9.080  163.7  0.0121   77.5  0.9770   -7.8
 0.420  0.8861  -17.8   9.054  162.9  0.0127   77.3  0.9763   -8.2
 0.440  0.8841  -18.6   9.030  162.1  0.0133   77.1  0.9756   -8.6
 0.450  0.8832  -19.0   9.018  161.7  0.0136   77.0  0.9753   -8.8
 0.460  0.8822  -19.4   9.012  161.3  0.0139   76.8  0.9745   -9.0
 0.480  0.8804  -20.2   9.002  160.6  0.0145   76.6  0.9730   -9.4
 0.500  0.8788  -21.0   8.993  159.9  0.0151   76.3  0.9716   -9.8
 0.520  0.8761  -21.8   8.965  159.1  0.0157   75.9  0.9701  -10.2
 0.540  0.8735  -22.7   8.939  158.3  0.0163   75.6  0.9687  -10.6
 0.560  0.8712  -23.5   8.915  157.5  0.0168   75.3  0.9673  -10.9
 0.580  0.8690  -24.4   8.893  156.6  0.0174   75.0  0.9659  -11.3
 0.600  0.8670  -25.2   8.872  155.8  0.0180   74.7  0.9646  -11.7
 0.620  0.8641  -26.0   8.847  155.1  0.0186   74.3  0.9628  -12.1
 0.640  0.8614  -26.9   8.823  154.3  0.0191   74.0  0.9610  -12.4
 0.660  0.8589  -27.7   8.800  153.6  0.0197   73.7  0.9593  -12.8
 0.680  0.8566  -28.6   8.779  152.8  0.0202   73.4  0.9576  -13.1
 0.700  0.8545  -29.4   8.760  152.1  0.0208   73.1  0.9559  -13.5
 0.720  0.8511  -30.2   8.735  151.3  0.0214   72.7  0.9540  -13.9
 0.740  0.8478  -31.1   8.712  150.6  0.0219   72.4  0.9521  -14.3
 0.760  0.8448  -31.9   8.690  149.8  0.0225   72.0  0.9503  -14.6
 0.780  0.8419  -32.7   8.670  149.0  0.0230   71.7  0.9485  -15.0
 0.800  0.8392  -33.6   8.651  148.2  0.0236   71.4  0.9467  -15.4
 0.820  0.8358  -34.4   8.620  147.4  0.0241   71.0  0.9445  -15.8
 0.840  0.8325  -35.2   8.591  146.7  0.0247   70.6  0.9424  -16.2
 0.860  0.8294  -36.0   8.564  145.9  0.0252   70.3  0.9403  -16.5
 0.880  0.8265  -36.8   8.538  145.2  0.0258   69.9  0.9383  -16.9
 0.900  0.8237  -37.6   8.513  144.4  0.0263   69.6  0.9363  -17.3
 0.920  0.8198  -38.4   8.479  143.7  0.0268   69.2  0.9340  -17.6
 0.940  0.8160  -39.2   8.446  142.9  0.0274   68.9  0.9318  -18.0
 0.960  0.8124  -40.0   8.414  142.2  0.0279   68.5  0.9295  -18.3
 0.980  0.8090  -40.8   8.384  141.5  0.0285   68.2  0.9274  -18.7
 1.000  0.8057  -41.6   8.355  140.7  0.0290   67.9  0.9252  -19.0
 1.020  0.8020  -42.4   8.323  140.0  0.0295   67.5  0.9228  -19.4
 1.040  0.7984  -43.2   8.292  139.3  0.0300   67.1  0.9205  -19.7
 1.060  0.7949  -44.0   8.263  138.6  0.0306   66.7  0.9183  -20.1
 1.080  0.7916  -44.8   8.235  137.8  0.0311   66.4  0.9160  -20.4
 1.100  0.7885  -45.6   8.208  137.1  0.0316   66.0  0.9138  -20.8
 1.120  0.7842  -46.4   8.171  136.4  0.0321   65.6  0.9112  -21.1
 1.140  0.7801  -47.2   8.134  135.8  0.0326   65.3  0.9085  -21.5
 1.160  0.7761  -48.0   8.099  135.1  0.0330   65.0  0.9060  -21.8
 1.180  0.7723  -48.8   8.065  134.4  0.0335   64.6  0.9034  -22.2
 1.200  0.7686  -49.6   8.032  133.7  0.0340   64.3  0.9009  -22.5
 1.220  0.7646  -50.4   7.994  133.0  0.0345   63.9  0.8983  -22.8
 1.240  0.7607  -51.1   7.958  132.3  0.0350   63.6  0.8957  -23.2
 1.260  0.7570  -51.9   7.923  131.6  0.0354   63.3  0.8931  -23.5
 1.280  0.7534  -52.7   7.889  130.9  0.0359   62.9  0.8906  -23.9
 1.300  0.7499  -53.5   7.856  130.2  0.0364   62.6  0.8881  -24.2
 1.320  0.7457  -54.3   7.820  129.6  0.0368   62.2  0.8854  -24.5
 1.340  0.7416  -55.1   7.785  128.9  0.0373   61.9  0.8827  -24.8
 1.360  0.7376  -55.9   7.752  128.2  0.0377   61.6  0.8800  -25.1
 1.380  0.7338  -56.7   7.719  127.6  0.0382   61.2  0.8773  -25.4
 1.400  0.7302  -57.5   7.687  126.9  0.0386   60.9  0.8747  -25.7
 1.420  0.7259  -58.2   7.648  126.3  0.0390   60.6  0.8720  -26.0
 1.440  0.7217  -59.0   7.610  125.6  0.0395   60.2  0.8692  -26.3
 1.460  0.7177  -59.8   7.574  124.9  0.0399   59.9  0.8665  -26.6
 1.480  0.7138  -60.5   7.538  124.3  0.0404   59.6  0.8639  -26.9
 1.500  0.7100  -61.3   7.503  123.6  0.0408   59.3  0.8612  -27.2
 1.520  0.7054  -62.1   7.469  123.0  0.0412   59.0  0.8584  -27.5
 1.540  0.7009  -62.8   7.436  122.4  0.0416   58.6  0.8557  -27.8
 1.560  0.6965  -63.6   7.404  121.8  0.0421   58.3  0.8530  -28.2
 1.580  0.6923  -64.4   7.372  121.1  0.0425   58.0  0.8503  -28.5
 1.600  0.6882  -65.2   7.342  120.5  0.0429   57.7  0.8477  -28.8
 1.620  0.6844  -65.9   7.304  119.9  0.0433   57.4  0.8449  -29.1
 1.640  0.6807  -66.7   7.266  119.3  0.0437   57.0  0.8421  -29.4
 1.660  0.6772  -67.4   7.230  118.7  0.0441   56.7  0.8394  -29.6
 1.680  0.6737  -68.1   7.194  118.0  0.0445   56.4  0.8366  -29.9
 1.700  0.6704  -68.9   7.159  117.4  0.0449   56.1  0.8339  -30.2
 1.720  0.6661  -69.7   7.121  116.8  0.0453   55.8  0.8312  -30.5
 1.740  0.6620  -70.4   7.083  116.2  0.0457   55.5  0.8285  -30.7
 1.760  0.6579  -71.2   7.047  115.6  0.0461   55.2  0.8258  -31.0
 1.780  0.6540  -72.0   7.011  114.9  0.0465   54.9  0.8231  -31.2
 1.800  0.6502  -72.8   6.976  114.3  0.0469   54.6  0.8205  -31.5
 1.820  0.6462  -73.5   6.942  113.8  0.0473   54.3  0.8177  -31.8
 1.840  0.6424  -74.3   6.909  113.2  0.0476   54.0  0.8148  -32.1
 1.860  0.6386  -75.1   6.877  112.6  0.0480   53.7  0.8120  -32.3
 1.880  0.6350  -75.8   6.845  112.1  0.0483   53.5  0.8093  -32.6
 1.900  0.6315  -76.6   6.814  111.5  0.0487   53.2  0.8065  -32.9
 1.920  0.6274  -77.3   6.779  111.0  0.0490   52.9  0.8038  -33.2
 1.940  0.6233  -78.1   6.745  110.4  0.0494   52.6  0.8011  -33.4
 1.960  0.6194  -78.8   6.712  109.8  0.0497   52.3  0.7984  -33.7
 1.980  0.6156  -79.5   6.679  109.3  0.0501   52.1  0.7957  -33.9
 2.000  0.6119  -80.3   6.647  108.7  0.0504   51.8  0.7930  -34.2
 2.020  0.6079  -81.0   6.612  108.2  0.0507   51.5  0.7903  -34.4
 2.040  0.6040  -81.7   6.578  107.7  0.0511   51.3  0.7876  -34.7
 2.060  0.6003  -82.5   6.544  107.1  0.0514   51.0  0.7848  -34.9
 2.080  0.5966  -83.2   6.511  106.6  0.0517   50.7  0.7822  -35.1
 2.100  0.5930  -83.9   6.479  106.1  0.0521   50.5  0.7795  -35.4
 2.120  0.5895  -84.7   6.447  105.5  0.0524   50.2  0.7768  -35.6
 2.140  0.5861  -85.5   6.415  105.0  0.0528   49.9  0.7742  -35.9
 2.160  0.5828  -86.2   6.385  104.4  0.0531   49.7  0.7715  -36.1
 2.180  0.5797  -87.0   6.355  103.9  0.0535   49.4  0.7689  -36.4
 2.200  0.5766  -87.8   6.325  103.3  0.0538   49.2  0.7663  -36.6
 2.220  0.5728  -88.5   6.293  102.8  0.0541   48.9  0.7636  -36.8
 2.240  0.5692  -89.3   6.261  102.3  0.0544   48.7  0.7608  -37.1
 2.260  0.5656  -90.0   6.230  101.8  0.0547   48.4  0.7581  -37.3
 2.280  0.5621  -90.8   6.199  101.3  0.0550   48.1  0.7554  -37.6
 2.300  0.5587  -91.5   6.169  100.8  0.0553   47.9  0.7528  -37.8
 2.320  0.5555  -92.3   6.139  100.3  0.0556   47.6  0.7501  -38.1
 2.340  0.5523  -93.1   6.110   99.8  0.0559   47.4  0.7475  -38.3
 2.360  0.5492  -93.9   6.081   99.3  0.0562   47.1  0.7448  -38.6
 2.380  0.5463  -94.7   6.053   98.7  0.0565   46.8  0.7422  -38.8
 2.400  0.5434  -95.5   6.025   98.2  0.0568   46.6  0.7396  -39.1
 2.420  0.5400  -96.2   5.994   97.7  0.0571   46.4  0.7370  -39.3
 2.440  0.5366  -96.9   5.964   97.2  0.0574   46.1  0.7344  -39.5
 2.460  0.5334  -97.6   5.934   96.8  0.0577   45.9  0.7318  -39.7
 2.480  0.5302  -98.4   5.904   96.3  0.0580   45.7  0.7292  -39.9
 2.500  0.5271  -99.1   5.875   95.8  0.0583   45.4  0.7267  -40.1
 2.520  0.5241  -99.8   5.847   95.3  0.0586   45.2  0.7241  -40.3
 2.540  0.5212 -100.6   5.819   94.8  0.0589   45.0  0.7216  -40.6
 2.560  0.5184 -101.4   5.791   94.2  0.0592   44.7  0.7190  -40.8
 2.580  0.5156 -102.1   5.764   93.7  0.0595   44.5  0.7165  -41.0
 2.600  0.5130 -102.9   5.737   93.2  0.0598   44.3  0.7140  -41.2
 2.620  0.5099 -103.6   5.710   92.7  0.0601   44.1  0.7114  -41.4
 2.640  0.5068 -104.4   5.683   92.3  0.0603   43.8  0.7088  -41.6
 2.660  0.5039 -105.1   5.657   91.8  0.0606   43.6  0.7062  -41.8
 2.680  0.5010 -105.9   5.630   91.4  0.0609   43.4  0.7036  -42.1
 2.700  0.4982 -106.7   5.605   90.9  0.0611   43.2  0.7011  -42.3
 2.720  0.4956 -107.5   5.579   90.4  0.0614   43.0  0.6985  -42.5
 2.740  0.4930 -108.3   5.555   90.0  0.0617   42.7  0.6960  -42.7
 2.760  0.4905 -109.1   5.530   89.5  0.0620   42.5  0.6934  -42.9
 2.780  0.4881 -109.9   5.506   89.0  0.0622   42.3  0.6909  -43.2
 2.800  0.4858 -110.7   5.482   88.5  0.0625   42.1  0.6884  -43.4
 2.820  0.4828 -111.4   5.455   88.0  0.0627   41.9  0.6859  -43.6
 2.840  0.4798 -112.1   5.429   87.6  0.0630   41.7  0.6833  -43.8
 2.860  0.4770 -112.9   5.403   87.1  0.0632   41.5  0.6808  -44.0
 2.880  0.4742 -113.6   5.377   86.7  0.0635   41.2  0.6783  -44.3
 2.900  0.4715 -114.3   5.352   86.2  0.0637   41.0  0.6758  -44.5
 2.920  0.4689 -115.1   5.327   85.7  0.0640   40.8  0.6733  -44.7
 2.940  0.4663 -115.9   5.302   85.3  0.0642   40.6  0.6709  -44.9
 2.960  0.4639 -116.6   5.278   84.8  0.0645   40.4  0.6684  -45.1
 2.980  0.4615 -117.4   5.254   84.3  0.0647   40.2  0.6659  -45.4
 3.000  0.4592 -118.2   5.231   83.8  0.0650   40.0  0.6635  -45.6
 3.100  0.4440 -121.8   5.107   81.8  0.0661   38.9  0.6508  -46.5
 3.200  0.4306 -125.6   4.989   79.7  0.0672   37.9  0.6382  -47.5
 3.300  0.4193 -129.6   4.879   77.5  0.0684   36.9  0.6259  -48.5
 3.400  0.4102 -133.9   4.776   75.2  0.0695   35.9  0.6137  -49.5
 3.500  0.4034 -138.3   4.681   72.8  0.0707   35.0  0.6018  -50.6
 3.600  0.3918 -142.1   4.571   70.9  0.0716   34.1  0.5904  -51.5
 3.700  0.3821 -146.1   4.465   68.9  0.0726   33.2  0.5792  -52.4
 3.800  0.3743 -150.4   4.366   66.8  0.0735   32.4  0.5682  -53.4
 3.900  0.3687 -154.7   4.272   64.7  0.0745   31.5  0.5573  -54.4
 4.000  0.3652 -159.2   4.185   62.4  0.0755   30.7  0.5466  -55.4
 4.100  0.3591 -163.2   4.090   60.7  0.0763   29.9  0.5368  -56.3
 4.200  0.3549 -167.4   4.000   58.9  0.0771   29.1  0.5271  -57.3
 4.300  0.3526 -171.7   3.913   57.0  0.0780   28.3  0.5176  -58.2
 4.400  0.3522 -175.9   3.831   55.0  0.0788   27.5  0.5083  -59.2
 4.500  0.3538  179.8   3.753   53.0  0.0797   26.8  0.4991  -60.3
 4.600  0.3537  176.3   3.671   51.4  0.0804   26.1  0.4908  -61.2
 4.700  0.3549  172.9   3.592   49.7  0.0811   25.4  0.4825  -62.0
 4.800  0.3574  169.4   3.517   48.0  0.0819   24.8  0.4744  -63.0
 4.900  0.3611  166.1   3.445   46.2  0.0826   24.1  0.4664  -63.9
 5.000  0.3661  162.8   3.376   44.3  0.0834   23.5  0.4586  -64.9
 5.100  0.3686  160.2   3.309   42.9  0.0841   22.9  0.4518  -65.7
 5.200  0.3718  157.6   3.244   41.4  0.0848   22.3  0.4450  -66.4
 5.300  0.3758  155.1   3.181   39.8  0.0855   21.7  0.4383  -67.2
 5.400  0.3805  152.7   3.121   38.2  0.0862   21.2  0.4317  -68.1
 5.500  0.3858  150.3   3.063   36.5  0.0869   20.6  0.4252  -68.9
 5.600  0.3877  148.3   3.010   35.1  0.0877   20.1  0.4191  -69.6
 5.700  0.3901  146.3   2.958   33.7  0.0884   19.6  0.4130  -70.4
 5.800  0.3929  144.3   2.908   32.2  0.0892   19.1  0.4070  -71.1
 5.900  0.3963  142.4   2.861   30.7  0.0900   18.7  0.4011  -71.9
 6.000  0.4000  140.5   2.815   29.1  0.0908   18.2  0.3952  -72.7
 6.100  0.4009  138.6   2.772   27.7  0.0917   17.7  0.3894  -73.5
 6.200  0.4022  136.7   2.730   26.2  0.0926   17.2  0.3837  -74.3
 6.300  0.4040  134.8   2.690   24.7  0.0935   16.7  0.3781  -75.1
 6.400  0.4062  132.9   2.652   23.2  0.0944   16.2  0.3726  -75.9
 6.500  0.4088  131.1   2.616   21.6  0.0953   15.7  0.3671  -76.8
 6.600  0.4085  128.9   2.574   20.2  0.0963   15.1  0.3614  -77.6
 6.800  0.4098  124.5   2.495   17.2  0.0982   14.0  0.3503  -79.2
 7.000  0.4135  120.1   2.423   14.0  0.1002   13.0  0.3394  -80.9
 7.200  0.4182  115.6   2.349   11.2  0.1022   11.7  0.3286  -82.5
 7.400  0.4254  111.2   2.281    8.2  0.1043   10.5  0.3181  -84.1
 7.600  0.4361  106.9   2.216    5.4  0.1063    9.2  0.3065  -85.9
 7.800  0.4502  102.8   2.154    2.6  0.1083    7.8  0.2940  -87.7
 8.000  0.4665   99.0   2.098   -0.3  0.1103    6.5  0.2818  -89.7
 8.200  0.4846   95.8   2.038   -2.9  0.1118    5.1  0.2638  -91.5
 8.400  0.5042   92.8   1.983   -5.6  0.1134    3.7  0.2462  -93.6
 8.600  0.5233   90.2   1.932   -8.3  0.1150    2.3  0.2263  -96.1
 8.800  0.5418   88.0   1.885  -10.9  0.1165    1.1  0.2042  -99.1
 9.000  0.5611   85.9   1.842  -13.7  0.1181   -0.2  0.1828 -102.9
 9.200  0.5791   83.6   1.795  -16.6  0.1194   -1.5  0.1595 -107.8
 9.400  0.5979   81.3   1.753  -19.6  0.1208   -2.9  0.1379 -114.4
 9.600  0.6125   78.7   1.702  -22.5  0.1221   -4.1  0.1188 -123.6
 9.800  0.6235   75.7   1.641  -25.4  0.1233   -5.3  0.1040 -136.1
10.000  0.6361   72.8   1.585  -28.4  0.1246   -6.4  0.0955 -151.7
!
!  f       NFmin   Gammaopt  rn/50
! GHz       dB    MAG  ANG    -
 0.900      0.98  0.49   14   0.37
 1.800      1.30  0.39   24   0.34
 2.400      1.48  0.33   33   0.33
 3.000      1.51  0.31   50   0.31
 4.000      1.71  0.19   75   0.25
 5.000      2.06  0.14  114   0.21
!
! (c) 2016  Infineon Technologies AG, Munich
