! Infineon Technologies  Discrete & RF Semiconductors
! BFP405
! VCE =  4.5 V,  IC =  2.0 mA
! Common Emitter S-Parameters:                            Jan 2016
# GHz  S  MA  R  50
!  f         S11            S21            S12            S22
! GHz     MAG   ANG      MAG   ANG      MAG   ANG      MAG   ANG
 0.010  0.9542    0.9   6.868 -177.9  0.0011  -15.0  0.9999    0.9
 0.015  0.9461    0.2   6.800 -179.6  0.0009   11.5  0.9945    0.6
 0.020  0.9381   -0.6   6.738  178.6  0.0009   44.6  0.9891    0.2
 0.025  0.9378   -0.8   6.730  178.5  0.0010   52.5  0.9898    0.1
 0.030  0.9375   -1.0   6.723  178.5  0.0012   58.6  0.9906   -0.0
 0.035  0.9373   -1.1   6.715  178.4  0.0013   63.3  0.9913   -0.2
 0.040  0.9370   -1.3   6.708  178.3  0.0015   67.0  0.9921   -0.3
 0.045  0.9367   -1.5   6.700  178.3  0.0016   70.0  0.9928   -0.4
 0.050  0.9365   -1.7   6.693  178.2  0.0018   72.5  0.9936   -0.5
 0.055  0.9365   -1.9   6.695  178.0  0.0019   72.9  0.9936   -0.6
 0.060  0.9366   -2.1   6.697  177.8  0.0021   73.2  0.9937   -0.7
 0.065  0.9366   -2.3   6.700  177.5  0.0022   73.5  0.9937   -0.8
 0.070  0.9367   -2.5   6.702  177.3  0.0024   73.8  0.9938   -0.9
 0.075  0.9367   -2.7   6.705  177.1  0.0025   74.0  0.9938   -1.1
 0.080  0.9368   -2.8   6.707  176.9  0.0026   74.2  0.9939   -1.2
 0.085  0.9369   -3.0   6.710  176.7  0.0028   74.4  0.9939   -1.3
 0.090  0.9370   -3.2   6.713  176.4  0.0029   74.6  0.9940   -1.4
 0.095  0.9371   -3.4   6.716  176.2  0.0031   74.8  0.9940   -1.5
 0.100  0.9372   -3.6   6.719  176.0  0.0032   74.9  0.9941   -1.6
 0.105  0.9370   -3.8   6.717  175.9  0.0033   75.3  0.9938   -1.7
 0.110  0.9368   -3.9   6.714  175.7  0.0035   75.7  0.9936   -1.8
 0.115  0.9366   -4.1   6.712  175.6  0.0036   76.1  0.9933   -1.9
 0.120  0.9364   -4.2   6.710  175.5  0.0038   76.4  0.9930   -2.0
 0.125  0.9363   -4.4   6.708  175.4  0.0039   76.7  0.9928   -2.1
 0.130  0.9361   -4.6   6.705  175.2  0.0041   77.0  0.9925   -2.2
 0.135  0.9359   -4.7   6.703  175.1  0.0042   77.3  0.9922   -2.3
 0.140  0.9358   -4.9   6.701  175.0  0.0044   77.5  0.9920   -2.4
 0.145  0.9356   -5.0   6.699  174.8  0.0045   77.8  0.9917   -2.5
 0.150  0.9355   -5.2   6.697  174.7  0.0047   78.0  0.9915   -2.6
 0.155  0.9352   -5.4   6.696  174.5  0.0048   78.2  0.9915   -2.7
 0.160  0.9349   -5.6   6.695  174.3  0.0050   78.3  0.9914   -2.8
 0.165  0.9347   -5.8   6.694  174.2  0.0051   78.5  0.9914   -2.9
 0.170  0.9344   -6.0   6.693  174.0  0.0053   78.6  0.9914   -3.0
 0.175  0.9342   -6.1   6.692  173.8  0.0054   78.7  0.9914   -3.0
 0.180  0.9339   -6.3   6.691  173.6  0.0055   78.9  0.9914   -3.1
 0.185  0.9337   -6.5   6.690  173.4  0.0057   79.0  0.9913   -3.2
 0.190  0.9335   -6.7   6.689  173.3  0.0058   79.1  0.9913   -3.3
 0.195  0.9333   -6.9   6.689  173.1  0.0060   79.2  0.9913   -3.4
 0.200  0.9331   -7.1   6.688  172.9  0.0061   79.3  0.9913   -3.5
 0.220  0.9317   -7.8   6.696  172.2  0.0067   79.8  0.9877   -3.9
 0.240  0.9304   -8.5   6.704  171.5  0.0074   80.2  0.9842   -4.2
 0.260  0.9299   -9.3   6.704  170.9  0.0080   80.4  0.9838   -4.5
 0.280  0.9303  -10.0   6.696  170.3  0.0087   80.5  0.9868   -4.8
 0.300  0.9309  -10.8   6.688  169.7  0.0093   80.5  0.9897   -5.1
 0.320  0.9293  -11.5   6.674  169.0  0.0099   80.2  0.9883   -5.5
 0.340  0.9278  -12.2   6.661  168.3  0.0105   80.0  0.9869   -5.8
 0.360  0.9266  -13.0   6.657  167.5  0.0111   79.8  0.9857   -6.2
 0.380  0.9258  -13.7   6.662  166.8  0.0118   79.6  0.9847   -6.5
 0.400  0.9251  -14.4   6.668  166.1  0.0124   79.5  0.9837   -6.9
 0.420  0.9240  -15.1   6.652  165.4  0.0130   79.3  0.9833   -7.2
 0.440  0.9230  -15.8   6.638  164.7  0.0136   79.2  0.9829   -7.5
 0.450  0.9225  -16.1   6.631  164.4  0.0139   79.1  0.9827   -7.7
 0.460  0.9218  -16.5   6.631  164.1  0.0142   79.0  0.9822   -7.9
 0.480  0.9204  -17.2   6.630  163.4  0.0149   78.7  0.9812   -8.2
 0.500  0.9192  -17.9   6.631  162.7  0.0155   78.5  0.9803   -8.6
 0.520  0.9173  -18.6   6.617  162.0  0.0161   78.1  0.9792   -9.0
 0.540  0.9155  -19.4   6.604  161.3  0.0167   77.8  0.9782   -9.3
 0.560  0.9139  -20.1   6.592  160.6  0.0173   77.5  0.9772   -9.7
 0.580  0.9124  -20.9   6.581  159.9  0.0179   77.2  0.9763  -10.0
 0.600  0.9111  -21.6   6.571  159.2  0.0185   76.9  0.9754  -10.4
 0.620  0.9091  -22.3   6.558  158.6  0.0191   76.6  0.9742  -10.7
 0.640  0.9073  -23.0   6.546  157.9  0.0197   76.2  0.9730  -11.1
 0.660  0.9055  -23.7   6.535  157.3  0.0204   75.9  0.9718  -11.4
 0.680  0.9039  -24.4   6.525  156.6  0.0210   75.7  0.9707  -11.8
 0.700  0.9025  -25.1   6.515  156.0  0.0216   75.4  0.9696  -12.1
 0.720  0.9001  -25.8   6.505  155.3  0.0222   75.0  0.9682  -12.4
 0.740  0.8979  -26.6   6.497  154.6  0.0228   74.7  0.9669  -12.8
 0.760  0.8958  -27.3   6.489  153.9  0.0234   74.3  0.9655  -13.1
 0.780  0.8938  -28.1   6.483  153.2  0.0240   74.0  0.9643  -13.5
 0.800  0.8920  -28.8   6.477  152.5  0.0246   73.7  0.9630  -13.8
 0.820  0.8895  -29.5   6.462  151.8  0.0252   73.3  0.9614  -14.1
 0.840  0.8871  -30.2   6.447  151.1  0.0258   73.0  0.9599  -14.5
 0.860  0.8849  -30.9   6.434  150.5  0.0264   72.7  0.9583  -14.8
 0.880  0.8828  -31.6   6.422  149.8  0.0270   72.4  0.9569  -15.2
 0.900  0.8808  -32.3   6.410  149.1  0.0276   72.1  0.9554  -15.5
 0.920  0.8780  -33.0   6.393  148.4  0.0282   71.7  0.9538  -15.8
 0.940  0.8754  -33.7   6.377  147.8  0.0288   71.3  0.9521  -16.2
 0.960  0.8729  -34.4   6.362  147.1  0.0293   71.0  0.9506  -16.5
 0.980  0.8705  -35.1   6.348  146.5  0.0299   70.6  0.9490  -16.9
 1.000  0.8683  -35.8   6.335  145.8  0.0305   70.3  0.9475  -17.2
 1.020  0.8654  -36.5   6.320  145.2  0.0311   69.9  0.9457  -17.5
 1.040  0.8626  -37.3   6.307  144.5  0.0316   69.5  0.9439  -17.8
 1.060  0.8600  -38.0   6.294  143.9  0.0322   69.2  0.9421  -18.2
 1.080  0.8575  -38.8   6.281  143.2  0.0327   68.8  0.9404  -18.5
 1.100  0.8552  -39.5   6.270  142.6  0.0333   68.5  0.9387  -18.8
 1.120  0.8519  -40.2   6.250  142.0  0.0339   68.1  0.9367  -19.1
 1.140  0.8487  -40.9   6.230  141.3  0.0344   67.8  0.9347  -19.4
 1.160  0.8456  -41.6   6.211  140.7  0.0350   67.4  0.9327  -19.8
 1.180  0.8426  -42.3   6.193  140.0  0.0355   67.1  0.9308  -20.1
 1.200  0.8398  -43.0   6.176  139.4  0.0361   66.8  0.9289  -20.4
 1.220  0.8367  -43.7   6.156  138.8  0.0366   66.4  0.9269  -20.7
 1.240  0.8337  -44.4   6.137  138.1  0.0372   66.0  0.9249  -21.1
 1.260  0.8308  -45.1   6.118  137.5  0.0377   65.7  0.9230  -21.4
 1.280  0.8280  -45.8   6.100  136.8  0.0383   65.3  0.9211  -21.8
 1.300  0.8254  -46.5   6.083  136.2  0.0388   65.0  0.9192  -22.1
 1.320  0.8221  -47.2   6.064  135.6  0.0393   64.6  0.9170  -22.4
 1.340  0.8189  -47.9   6.046  135.0  0.0398   64.3  0.9148  -22.7
 1.360  0.8158  -48.6   6.028  134.4  0.0404   64.0  0.9126  -23.0
 1.380  0.8128  -49.4   6.011  133.7  0.0409   63.6  0.9105  -23.3
 1.400  0.8100  -50.1   5.995  133.1  0.0414   63.3  0.9084  -23.6
 1.420  0.8064  -50.8   5.974  132.5  0.0419   62.9  0.9061  -23.9
 1.440  0.8029  -51.5   5.954  131.9  0.0424   62.6  0.9038  -24.2
 1.460  0.7995  -52.2   5.935  131.3  0.0430   62.3  0.9016  -24.5
 1.480  0.7962  -53.0   5.916  130.6  0.0435   61.9  0.8994  -24.8
 1.500  0.7931  -53.7   5.898  130.0  0.0440   61.6  0.8972  -25.1
 1.520  0.7896  -54.4   5.880  129.4  0.0445   61.2  0.8950  -25.4
 1.540  0.7861  -55.1   5.862  128.8  0.0450   60.9  0.8928  -25.7
 1.560  0.7828  -55.8   5.844  128.2  0.0455   60.5  0.8906  -26.0
 1.580  0.7797  -56.6   5.828  127.6  0.0460   60.1  0.8885  -26.3
 1.600  0.7766  -57.3   5.812  127.0  0.0465   59.8  0.8864  -26.6
 1.620  0.7733  -58.0   5.790  126.4  0.0470   59.4  0.8841  -26.9
 1.640  0.7702  -58.6   5.769  125.9  0.0475   59.1  0.8818  -27.2
 1.660  0.7671  -59.3   5.749  125.3  0.0479   58.8  0.8795  -27.5
 1.680  0.7641  -60.0   5.729  124.7  0.0484   58.4  0.8772  -27.8
 1.700  0.7613  -60.7   5.710  124.1  0.0489   58.1  0.8750  -28.1
 1.720  0.7575  -61.4   5.688  123.5  0.0494   57.7  0.8726  -28.4
 1.740  0.7538  -62.1   5.666  122.9  0.0498   57.4  0.8703  -28.7
 1.760  0.7503  -62.8   5.645  122.3  0.0503   57.1  0.8679  -28.9
 1.780  0.7468  -63.5   5.624  121.7  0.0507   56.7  0.8656  -29.2
 1.800  0.7435  -64.2   5.604  121.1  0.0512   56.4  0.8633  -29.5
 1.820  0.7401  -64.9   5.584  120.6  0.0517   56.1  0.8609  -29.8
 1.840  0.7368  -65.6   5.565  120.0  0.0521   55.7  0.8585  -30.0
 1.860  0.7336  -66.3   5.546  119.5  0.0526   55.4  0.8561  -30.3
 1.880  0.7305  -67.1   5.528  118.9  0.0530   55.1  0.8537  -30.5
 1.900  0.7275  -67.8   5.510  118.4  0.0535   54.8  0.8514  -30.8
 1.920  0.7238  -68.5   5.489  117.8  0.0539   54.4  0.8490  -31.1
 1.940  0.7203  -69.2   5.469  117.3  0.0543   54.1  0.8467  -31.4
 1.960  0.7169  -69.9   5.449  116.7  0.0548   53.8  0.8444  -31.6
 1.980  0.7135  -70.6   5.430  116.2  0.0552   53.4  0.8421  -31.9
 2.000  0.7103  -71.3   5.411  115.6  0.0556   53.1  0.8398  -32.2
 2.020  0.7066  -72.0   5.390  115.1  0.0560   52.8  0.8373  -32.5
 2.040  0.7030  -72.7   5.369  114.6  0.0564   52.4  0.8348  -32.7
 2.060  0.6996  -73.4   5.348  114.0  0.0568   52.1  0.8323  -33.0
 2.080  0.6962  -74.1   5.329  113.5  0.0572   51.8  0.8299  -33.2
 2.100  0.6929  -74.8   5.309  112.9  0.0576   51.5  0.8274  -33.5
 2.120  0.6898  -75.5   5.290  112.4  0.0580   51.2  0.8250  -33.7
 2.140  0.6867  -76.2   5.272  111.9  0.0584   50.9  0.8226  -34.0
 2.160  0.6838  -76.9   5.254  111.3  0.0588   50.6  0.8202  -34.3
 2.180  0.6809  -77.7   5.236  110.8  0.0592   50.3  0.8179  -34.5
 2.200  0.6782  -78.4   5.219  110.2  0.0596   50.0  0.8155  -34.8
 2.220  0.6746  -79.1   5.198  109.7  0.0600   49.7  0.8130  -35.1
 2.240  0.6711  -79.8   5.178  109.2  0.0603   49.4  0.8105  -35.3
 2.260  0.6677  -80.5   5.159  108.7  0.0607   49.1  0.8080  -35.6
 2.280  0.6644  -81.2   5.139  108.2  0.0611   48.8  0.8055  -35.8
 2.300  0.6611  -81.9   5.120  107.6  0.0615   48.5  0.8031  -36.1
 2.320  0.6580  -82.6   5.102  107.1  0.0619   48.2  0.8007  -36.3
 2.340  0.6550  -83.4   5.084  106.6  0.0622   47.9  0.7982  -36.6
 2.360  0.6522  -84.1   5.066  106.1  0.0626   47.6  0.7958  -36.9
 2.380  0.6494  -84.8   5.049  105.5  0.0630   47.3  0.7935  -37.1
 2.400  0.6467  -85.6   5.032  105.0  0.0634   47.0  0.7911  -37.4
 2.420  0.6432  -86.3   5.011  104.5  0.0637   46.7  0.7886  -37.6
 2.440  0.6398  -86.9   4.991  104.0  0.0641   46.4  0.7861  -37.9
 2.460  0.6365  -87.6   4.971  103.5  0.0644   46.1  0.7836  -38.1
 2.480  0.6332  -88.3   4.952  103.0  0.0648   45.8  0.7812  -38.3
 2.500  0.6301  -89.0   4.933  102.5  0.0651   45.6  0.7787  -38.6
 2.520  0.6270  -89.7   4.914  102.0  0.0655   45.3  0.7763  -38.8
 2.540  0.6241  -90.4   4.896  101.5  0.0658   45.0  0.7739  -39.1
 2.560  0.6212  -91.1   4.878  101.0  0.0662   44.7  0.7715  -39.3
 2.580  0.6185  -91.9   4.860  100.5  0.0665   44.5  0.7691  -39.6
 2.600  0.6158  -92.6   4.843  100.0  0.0669   44.2  0.7667  -39.8
 2.620  0.6125  -93.3   4.825   99.5  0.0672   43.9  0.7641  -40.0
 2.640  0.6093  -94.0   4.807   99.0  0.0675   43.6  0.7616  -40.3
 2.660  0.6062  -94.7   4.790   98.6  0.0679   43.3  0.7591  -40.5
 2.680  0.6032  -95.5   4.773   98.1  0.0682   43.0  0.7566  -40.8
 2.700  0.6003  -96.2   4.757   97.6  0.0685   42.8  0.7541  -41.0
 2.720  0.5975  -97.0   4.740   97.1  0.0689   42.5  0.7516  -41.3
 2.740  0.5948  -97.7   4.725   96.6  0.0692   42.2  0.7491  -41.5
 2.760  0.5922  -98.5   4.709   96.1  0.0695   41.9  0.7467  -41.8
 2.780  0.5897  -99.2   4.694   95.6  0.0699   41.7  0.7442  -42.0
 2.800  0.5873 -100.0   4.679   95.1  0.0702   41.4  0.7418  -42.3
 2.820  0.5840 -100.7   4.661   94.6  0.0705   41.1  0.7393  -42.5
 2.840  0.5808 -101.4   4.643   94.1  0.0708   40.8  0.7368  -42.7
 2.860  0.5777 -102.1   4.625   93.7  0.0711   40.6  0.7343  -43.0
 2.880  0.5747 -102.8   4.608   93.2  0.0713   40.3  0.7318  -43.2
 2.900  0.5718 -103.5   4.591   92.7  0.0716   40.0  0.7293  -43.4
 2.920  0.5689 -104.2   4.574   92.2  0.0719   39.8  0.7268  -43.7
 2.940  0.5661 -104.9   4.558   91.7  0.0722   39.5  0.7244  -43.9
 2.960  0.5635 -105.6   4.542   91.2  0.0725   39.2  0.7219  -44.1
 2.980  0.5609 -106.4   4.526   90.7  0.0728   39.0  0.7195  -44.4
 3.000  0.5584 -107.1   4.511   90.2  0.0731   38.7  0.7171  -44.6
 3.100  0.5408 -110.5   4.418   88.0  0.0743   37.3  0.7041  -45.6
 3.200  0.5252 -114.0   4.332   85.8  0.0755   36.0  0.6913  -46.7
 3.300  0.5118 -117.8   4.253   83.4  0.0767   34.7  0.6787  -47.8
 3.400  0.5007 -121.8   4.181   81.0  0.0780   33.4  0.6664  -48.9
 3.500  0.4921 -125.9   4.117   78.5  0.0793   32.2  0.6544  -50.1
 3.600  0.4771 -129.5   4.030   76.5  0.0801   31.0  0.6424  -51.1
 3.700  0.4640 -133.3   3.948   74.3  0.0810   29.9  0.6306  -52.1
 3.800  0.4532 -137.4   3.872   72.1  0.0819   28.8  0.6190  -53.2
 3.900  0.4446 -141.6   3.803   69.8  0.0828   27.7  0.6076  -54.3
 4.000  0.4386 -145.9   3.739   67.4  0.0838   26.6  0.5964  -55.4
 4.100  0.4287 -149.8   3.659   65.5  0.0844   25.6  0.5859  -56.3
 4.200  0.4209 -153.8   3.584   63.6  0.0851   24.6  0.5757  -57.3
 4.300  0.4152 -158.0   3.512   61.5  0.0858   23.6  0.5656  -58.4
 4.400  0.4118 -162.3   3.446   59.4  0.0865   22.6  0.5556  -59.4
 4.500  0.4107 -166.6   3.384   57.2  0.0872   21.7  0.5459  -60.5
 4.600  0.4071 -170.2   3.313   55.5  0.0876   20.8  0.5369  -61.4
 4.700  0.4052 -173.9   3.246   53.7  0.0881   20.0  0.5281  -62.4
 4.800  0.4050 -177.6   3.182   51.8  0.0885   19.2  0.5194  -63.3
 4.900  0.4064  178.7   3.121   49.8  0.0890   18.3  0.5109  -64.4
 5.000  0.4095  175.1   3.064   47.8  0.0895   17.5  0.5025  -65.4
 5.100  0.4098  172.2   3.004   46.2  0.0898   16.8  0.4952  -66.2
 5.200  0.4112  169.3   2.947   44.6  0.0902   16.2  0.4880  -67.0
 5.300  0.4137  166.5   2.891   43.0  0.0905   15.5  0.4808  -67.8
 5.400  0.4171  163.7   2.839   41.2  0.0909   14.8  0.4738  -68.7
 5.500  0.4215  160.9   2.789   39.4  0.0913   14.2  0.4669  -69.6
 5.600  0.4219  158.6   2.741   37.9  0.0917   13.7  0.4603  -70.3
 5.700  0.4231  156.3   2.696   36.4  0.0921   13.1  0.4539  -71.1
 5.800  0.4249  154.1   2.652   34.9  0.0925   12.6  0.4474  -71.9
 5.900  0.4273  151.8   2.610   33.3  0.0930   12.1  0.4411  -72.7
 6.000  0.4304  149.6   2.570   31.6  0.0934   11.6  0.4349  -73.5
 6.100  0.4304  147.5   2.531   30.1  0.0940   11.1  0.4289  -74.3
 6.200  0.4309  145.5   2.494   28.6  0.0945   10.7  0.4229  -75.1
 6.300  0.4320  143.4   2.459   27.0  0.0951   10.2  0.4170  -76.0
 6.400  0.4337  141.3   2.425   25.4  0.0957    9.7  0.4113  -76.9
 6.500  0.4359  139.3   2.394   23.7  0.0963    9.3  0.4056  -77.8
 6.600  0.4344  137.0   2.356   22.2  0.0969    8.8  0.3996  -78.6
 6.800  0.4335  132.3   2.285   19.0  0.0983    7.8  0.3879  -80.2
 7.000  0.4356  127.6   2.222   15.7  0.0996    6.8  0.3766  -82.0
 7.200  0.4381  122.7   2.155   12.8  0.1011    5.7  0.3653  -83.7
 7.400  0.4437  117.9   2.093    9.7  0.1025    4.7  0.3544  -85.5
 7.600  0.4532  113.3   2.035    6.7  0.1040    3.6  0.3426  -87.3
 7.800  0.4665  108.7   1.980    3.9  0.1055    2.4  0.3299  -89.1
 8.000  0.4825  104.5   1.929    0.9  0.1070    1.3  0.3175  -91.1
 8.200  0.4997  100.8   1.874   -1.8  0.1081    0.1  0.2997  -93.0
 8.400  0.5189   97.3   1.824   -4.6  0.1092   -1.0  0.2822  -95.2
 8.600  0.5377   94.4   1.778   -7.4  0.1104   -2.2  0.2626  -97.8
 8.800  0.5555   91.8   1.736  -10.2  0.1116   -3.2  0.2409 -100.9
 9.000  0.5744   89.4   1.698  -13.1  0.1129   -4.3  0.2200 -104.7
 9.200  0.5916   86.8   1.655  -16.1  0.1139   -5.4  0.1973 -109.5
 9.400  0.6100   84.4   1.617  -19.2  0.1150   -6.6  0.1763 -115.4
 9.600  0.6240   81.6   1.570  -22.2  0.1161   -7.6  0.1577 -123.1
 9.800  0.6345   78.4   1.513  -25.1  0.1171   -8.6  0.1428 -133.1
10.000  0.6469   75.3   1.461  -28.3  0.1181   -9.5  0.1330 -144.9
!
!  f       NFmin   Gammaopt  rn/50
! GHz       dB    MAG  ANG    -
 0.900      0.86  0.58   15   0.42
 1.800      1.21  0.46   27   0.37
 2.400      1.43  0.38   38   0.36
 3.000      1.47  0.38   52   0.33
 4.000      1.69  0.25   80   0.26
 5.000      2.05  0.21  114   0.21
!
! (c) 2016  Infineon Technologies AG, Munich
