! Infineon Technologies  Discrete & RF Semiconductors
! BFP405F
! VCE =  1.5 V,  IC =  4.0 mA
! Common Emitter S-Parameters:                            Nov 2015
# GHz  S  MA  R  50
!  f         S11            S21            S12            S22
! GHz     MAG   ANG      MAG   ANG      MAG   ANG      MAG   ANG
 0.030  0.8523   -1.5  11.855  178.2  0.0011    3.9  0.9898   -0.8
 0.035  0.8520   -1.8  11.871  178.1  0.0011   45.3  0.9907   -0.9
 0.040  0.8517   -2.1  11.887  178.0  0.0016   72.3  0.9916   -1.0
 0.045  0.8523   -2.4  11.947  177.5  0.0021   80.0  0.9927   -1.2
 0.050  0.8529   -2.7  12.008  177.1  0.0026   84.7  0.9939   -1.4
 0.055  0.8502   -2.9  11.951  177.0  0.0023   81.7  0.9924   -1.4
 0.060  0.8476   -3.1  11.895  176.8  0.0021   77.9  0.9910   -1.4
 0.065  0.8501   -3.4  11.910  176.3  0.0037   69.2  0.9912   -1.6
 0.070  0.8526   -3.7  11.925  175.9  0.0054   65.8  0.9914   -1.8
 0.075  0.8535   -4.0  11.891  175.7  0.0050   98.1  0.9930   -1.9
 0.080  0.8545   -4.2  11.858  175.5  0.0061  126.4  0.9947   -1.9
 0.085  0.8552   -4.5  11.884  175.6  0.0055  118.5  0.9936   -2.1
 0.090  0.8560   -4.7  11.910  175.6  0.0050  108.8  0.9926   -2.3
 0.095  0.8546   -4.9  11.890  175.4  0.0041  100.2  0.9917   -2.5
 0.100  0.8532   -5.1  11.870  175.1  0.0034   87.6  0.9909   -2.7
 0.105  0.8532   -5.5  11.866  174.9  0.0044   90.8  0.9904   -2.8
 0.110  0.8533   -5.8  11.862  174.6  0.0055   92.8  0.9900   -2.9
 0.115  0.8527   -6.0  11.856  174.5  0.0046   89.7  0.9912   -3.0
 0.120  0.8521   -6.3  11.850  174.3  0.0037   85.0  0.9924   -3.0
 0.125  0.8509   -6.6  11.862  173.9  0.0049   87.2  0.9918   -3.2
 0.130  0.8498   -6.9  11.874  173.6  0.0061   88.5  0.9912   -3.4
 0.135  0.8497   -7.1  11.885  173.5  0.0053   84.3  0.9903   -3.5
 0.140  0.8496   -7.4  11.897  173.5  0.0045   78.5  0.9895   -3.7
 0.145  0.8505   -7.7  11.896  173.3  0.0052   88.8  0.9886   -3.8
 0.150  0.8515   -7.9  11.896  173.0  0.0060   96.5  0.9878   -3.9
 0.155  0.8511   -8.2  11.895  172.7  0.0060   94.6  0.9876   -4.0
 0.160  0.8507   -8.4  11.893  172.4  0.0061   92.7  0.9874   -4.2
 0.165  0.8504   -8.7  11.893  172.1  0.0061   90.8  0.9873   -4.3
 0.170  0.8500   -8.9  11.892  171.8  0.0062   89.0  0.9871   -4.5
 0.175  0.8497   -9.2  11.892  171.6  0.0062   87.2  0.9869   -4.6
 0.180  0.8494   -9.5  11.892  171.3  0.0063   85.4  0.9868   -4.7
 0.185  0.8491   -9.7  11.892  171.0  0.0064   83.7  0.9866   -4.9
 0.190  0.8488  -10.0  11.893  170.7  0.0064   82.0  0.9865   -5.0
 0.195  0.8485  -10.2  11.894  170.4  0.0065   80.3  0.9863   -5.2
 0.200  0.8483  -10.5  11.895  170.1  0.0066   78.7  0.9862   -5.3
 0.220  0.8455  -11.5  11.846  169.2  0.0075   83.8  0.9856   -5.8
 0.240  0.8429  -12.6  11.800  168.3  0.0084   87.7  0.9850   -6.3
 0.260  0.8405  -13.6  11.772  167.3  0.0092   87.6  0.9835   -6.8
 0.280  0.8381  -14.6  11.762  166.4  0.0098   84.4  0.9809   -7.3
 0.300  0.8361  -15.6  11.755  165.4  0.0104   81.5  0.9784   -7.9
 0.320  0.8340  -16.6  11.703  164.5  0.0114   80.9  0.9773   -8.4
 0.340  0.8322  -17.7  11.654  163.6  0.0124   80.3  0.9764   -8.9
 0.360  0.8298  -18.7  11.620  162.6  0.0131   80.8  0.9751   -9.4
 0.380  0.8267  -19.7  11.600  161.6  0.0134   82.0  0.9734   -9.9
 0.400  0.8238  -20.7  11.583  160.6  0.0137   83.2  0.9719  -10.5
 0.420  0.8213  -21.7  11.537  159.7  0.0147   82.0  0.9692  -11.0
 0.440  0.8190  -22.8  11.494  158.8  0.0158   81.1  0.9666  -11.5
 0.450  0.8180  -23.3  11.473  158.3  0.0163   80.6  0.9653  -11.8
 0.460  0.8163  -23.8  11.448  157.8  0.0165   80.5  0.9639  -12.1
 0.480  0.8131  -24.7  11.400  156.9  0.0170   80.2  0.9613  -12.6
 0.500  0.8101  -25.7  11.355  156.0  0.0175   79.9  0.9587  -13.1
 0.520  0.8059  -26.7  11.297  155.1  0.0184   79.3  0.9556  -13.6
 0.540  0.8018  -27.6  11.242  154.2  0.0192   78.7  0.9526  -14.0
 0.560  0.7981  -28.6  11.190  153.3  0.0201   78.2  0.9497  -14.5
 0.580  0.7945  -29.6  11.140  152.3  0.0209   77.7  0.9468  -14.9
 0.600  0.7912  -30.6  11.094  151.4  0.0218   77.3  0.9440  -15.4
 0.620  0.7868  -31.5  11.042  150.5  0.0221   76.7  0.9406  -15.9
 0.640  0.7827  -32.5  10.992  149.7  0.0224   76.1  0.9372  -16.3
 0.660  0.7787  -33.4  10.945  148.8  0.0226   75.5  0.9339  -16.8
 0.680  0.7749  -34.3  10.901  147.9  0.0229   75.0  0.9307  -17.2
 0.700  0.7714  -35.3  10.859  147.0  0.0232   74.4  0.9275  -17.7
 0.720  0.7665  -36.2  10.786  146.2  0.0239   74.1  0.9236  -18.2
 0.740  0.7617  -37.1  10.715  145.3  0.0246   73.7  0.9197  -18.6
 0.760  0.7572  -38.1  10.647  144.5  0.0254   73.4  0.9160  -19.1
 0.780  0.7529  -39.0  10.581  143.6  0.0261   73.2  0.9123  -19.6
 0.800  0.7488  -40.0  10.518  142.7  0.0268   72.9  0.9086  -20.1
 0.820  0.7440  -40.9  10.457  141.9  0.0275   72.3  0.9049  -20.5
 0.840  0.7394  -41.8  10.398  141.0  0.0281   71.8  0.9013  -20.9
 0.860  0.7349  -42.7  10.341  140.2  0.0288   71.3  0.8977  -21.3
 0.880  0.7307  -43.6  10.287  139.4  0.0294   70.8  0.8941  -21.7
 0.900  0.7266  -44.5  10.235  138.5  0.0301   70.3  0.8906  -22.1
 0.920  0.7214  -45.4  10.163  137.7  0.0307   70.2  0.8865  -22.5
 0.940  0.7163  -46.2  10.093  137.0  0.0313   70.0  0.8825  -22.9
 0.960  0.7114  -47.1  10.025  136.2  0.0319   69.9  0.8785  -23.3
 0.980  0.7067  -48.0   9.959  135.4  0.0325   69.8  0.8746  -23.8
 1.000  0.7021  -48.9   9.895  134.6  0.0331   69.7  0.8707  -24.2
 1.020  0.6971  -49.7   9.824  133.9  0.0335   69.2  0.8665  -24.6
 1.040  0.6921  -50.5   9.754  133.2  0.0339   68.7  0.8623  -24.9
 1.060  0.6874  -51.3   9.685  132.5  0.0344   68.2  0.8582  -25.3
 1.080  0.6827  -52.1   9.618  131.7  0.0348   67.8  0.8541  -25.7
 1.100  0.6782  -52.9   9.553  131.0  0.0352   67.3  0.8501  -26.1
 1.120  0.6730  -53.7   9.488  130.3  0.0357   66.9  0.8459  -26.4
 1.140  0.6679  -54.6   9.425  129.5  0.0362   66.5  0.8417  -26.7
 1.160  0.6630  -55.4   9.363  128.8  0.0367   66.1  0.8375  -27.1
 1.180  0.6582  -56.3   9.303  128.1  0.0372   65.8  0.8334  -27.4
 1.200  0.6536  -57.2   9.244  127.3  0.0377   65.4  0.8293  -27.7
 1.220  0.6484  -58.0   9.174  126.6  0.0382   65.2  0.8252  -28.0
 1.240  0.6434  -58.8   9.105  125.9  0.0388   65.1  0.8211  -28.4
 1.260  0.6385  -59.6   9.037  125.2  0.0393   64.9  0.8170  -28.7
 1.280  0.6337  -60.4   8.972  124.4  0.0399   64.8  0.8130  -29.1
 1.300  0.6290  -61.2   8.907  123.7  0.0404   64.6  0.8090  -29.4
 1.320  0.6244  -61.9   8.838  123.1  0.0408   64.2  0.8049  -29.7
 1.340  0.6199  -62.6   8.771  122.5  0.0413   63.7  0.8008  -30.0
 1.360  0.6155  -63.4   8.704  121.9  0.0417   63.3  0.7967  -30.4
 1.380  0.6112  -64.1   8.638  121.3  0.0422   62.9  0.7927  -30.7
 1.400  0.6070  -64.9   8.573  120.7  0.0426   62.5  0.7887  -31.0
 1.420  0.6022  -65.6   8.509  120.1  0.0429   62.3  0.7849  -31.3
 1.440  0.5974  -66.4   8.446  119.5  0.0432   62.1  0.7811  -31.5
 1.460  0.5928  -67.1   8.384  118.9  0.0434   61.9  0.7773  -31.8
 1.480  0.5882  -67.9   8.322  118.3  0.0437   61.7  0.7735  -32.0
 1.500  0.5838  -68.7   8.262  117.7  0.0440   61.5  0.7697  -32.3
 1.520  0.5793  -69.4   8.201  117.1  0.0444   61.5  0.7659  -32.6
 1.540  0.5749  -70.1   8.140  116.5  0.0448   61.5  0.7621  -32.9
 1.560  0.5706  -70.8   8.081  115.9  0.0453   61.6  0.7584  -33.1
 1.580  0.5663  -71.6   8.022  115.3  0.0457   61.6  0.7546  -33.4
 1.600  0.5622  -72.3   7.964  114.7  0.0461   61.6  0.7509  -33.7
 1.620  0.5583  -72.9   7.900  114.2  0.0465   61.2  0.7468  -34.0
 1.640  0.5545  -73.6   7.836  113.6  0.0469   60.8  0.7428  -34.2
 1.660  0.5508  -74.3   7.773  113.0  0.0472   60.4  0.7387  -34.5
 1.680  0.5471  -74.9   7.711  112.5  0.0476   60.0  0.7347  -34.7
 1.700  0.5435  -75.6   7.650  111.9  0.0480   59.6  0.7307  -35.0
 1.720  0.5393  -76.3   7.593  111.4  0.0483   59.3  0.7272  -35.3
 1.740  0.5351  -77.0   7.537  110.9  0.0486   59.1  0.7238  -35.6
 1.760  0.5310  -77.7   7.482  110.4  0.0489   58.8  0.7203  -35.8
 1.780  0.5270  -78.5   7.427  109.8  0.0492   58.6  0.7169  -36.1
 1.800  0.5231  -79.2   7.373  109.3  0.0495   58.3  0.7135  -36.4
 1.820  0.5192  -79.8   7.321  108.8  0.0500   58.3  0.7099  -36.6
 1.840  0.5154  -80.5   7.269  108.3  0.0505   58.3  0.7063  -36.8
 1.860  0.5117  -81.1   7.218  107.8  0.0510   58.2  0.7027  -37.1
 1.880  0.5080  -81.7   7.168  107.3  0.0515   58.2  0.6991  -37.3
 1.900  0.5044  -82.4   7.118  106.8  0.0520   58.2  0.6955  -37.5
 1.920  0.5008  -83.1   7.069  106.3  0.0523   58.0  0.6927  -37.8
 1.940  0.4974  -83.8   7.021  105.8  0.0526   57.8  0.6900  -38.1
 1.960  0.4940  -84.6   6.974  105.3  0.0529   57.6  0.6872  -38.4
 1.980  0.4906  -85.3   6.927  104.8  0.0532   57.4  0.6845  -38.7
 2.000  0.4874  -86.1   6.880  104.3  0.0535   57.2  0.6818  -39.0
 2.020  0.4838  -86.7   6.830  103.8  0.0539   56.9  0.6788  -39.2
 2.040  0.4803  -87.4   6.780  103.4  0.0543   56.7  0.6758  -39.4
 2.060  0.4768  -88.0   6.730  102.9  0.0546   56.4  0.6728  -39.7
 2.080  0.4734  -88.6   6.681  102.4  0.0550   56.2  0.6699  -39.9
 2.100  0.4701  -89.3   6.633  101.9  0.0554   55.9  0.6669  -40.1
 2.120  0.4667  -89.9   6.584  101.5  0.0557   55.9  0.6637  -40.3
 2.140  0.4633  -90.5   6.536  101.0  0.0560   55.8  0.6604  -40.6
 2.160  0.4599  -91.1   6.488  100.6  0.0564   55.8  0.6572  -40.8
 2.180  0.4566  -91.8   6.440  100.2  0.0567   55.7  0.6540  -41.1
 2.200  0.4534  -92.4   6.393   99.7  0.0570   55.7  0.6508  -41.3
 2.220  0.4504  -93.0   6.347   99.3  0.0572   55.5  0.6480  -41.5
 2.240  0.4475  -93.6   6.300   98.9  0.0574   55.4  0.6452  -41.7
 2.260  0.4446  -94.2   6.255   98.5  0.0575   55.2  0.6424  -41.9
 2.280  0.4417  -94.8   6.209   98.0  0.0577   55.1  0.6397  -42.1
 2.300  0.4389  -95.4   6.164   97.6  0.0579   54.9  0.6369  -42.3
 2.320  0.4359  -95.9   6.122   97.2  0.0582   54.7  0.6344  -42.5
 2.340  0.4330  -96.5   6.081   96.8  0.0585   54.5  0.6319  -42.7
 2.360  0.4301  -97.1   6.040   96.4  0.0587   54.2  0.6294  -42.9
 2.380  0.4273  -97.6   5.999   96.0  0.0590   54.0  0.6270  -43.1
 2.400  0.4245  -98.2   5.959   95.6  0.0593   53.8  0.6245  -43.3
 2.420  0.4219  -98.8   5.917   95.2  0.0596   53.8  0.6222  -43.5
 2.440  0.4194  -99.4   5.876   94.8  0.0599   53.7  0.6199  -43.7
 2.460  0.4169 -100.0   5.835   94.4  0.0601   53.7  0.6176  -43.8
 2.480  0.4144 -100.6   5.794   94.0  0.0604   53.6  0.6153  -44.0
 2.500  0.4120 -101.2   5.753   93.6  0.0607   53.6  0.6130  -44.2
 2.520  0.4091 -101.7   5.714   93.2  0.0611   53.5  0.6109  -44.4
 2.540  0.4063 -102.2   5.675   92.9  0.0615   53.4  0.6087  -44.5
 2.560  0.4035 -102.7   5.636   92.5  0.0619   53.2  0.6066  -44.7
 2.580  0.4007 -103.3   5.597   92.2  0.0623   53.1  0.6045  -44.8
 2.600  0.3980 -103.8   5.559   91.8  0.0627   53.0  0.6024  -45.0
 2.620  0.3955 -104.4   5.524   91.4  0.0629   52.8  0.6001  -45.1
 2.640  0.3931 -104.9   5.490   91.1  0.0630   52.6  0.5978  -45.3
 2.660  0.3907 -105.5   5.455   90.7  0.0632   52.5  0.5955  -45.4
 2.680  0.3883 -106.1   5.421   90.4  0.0633   52.3  0.5932  -45.6
 2.700  0.3860 -106.7   5.387   90.0  0.0635   52.1  0.5909  -45.7
 2.720  0.3839 -107.2   5.354   89.7  0.0637   52.1  0.5890  -45.9
 2.740  0.3818 -107.7   5.320   89.3  0.0640   52.0  0.5871  -46.1
 2.760  0.3797 -108.2   5.287   89.0  0.0642   52.0  0.5852  -46.2
 2.780  0.3776 -108.7   5.255   88.6  0.0645   51.9  0.5834  -46.4
 2.800  0.3756 -109.2   5.222   88.3  0.0647   51.9  0.5815  -46.6
 2.820  0.3736 -109.7   5.188   88.0  0.0649   51.9  0.5797  -46.7
 2.840  0.3717 -110.2   5.155   87.7  0.0652   52.0  0.5778  -46.9
 2.860  0.3698 -110.7   5.121   87.4  0.0654   52.0  0.5760  -47.0
 2.880  0.3679 -111.3   5.088   87.0  0.0657   52.1  0.5742  -47.2
 2.900  0.3661 -111.8   5.055   86.7  0.0659   52.1  0.5724  -47.3
 2.920  0.3640 -112.3   5.025   86.4  0.0661   52.0  0.5706  -47.5
 2.940  0.3618 -112.9   4.996   86.1  0.0664   51.9  0.5689  -47.7
 2.960  0.3598 -113.4   4.967   85.8  0.0666   51.9  0.5671  -47.8
 2.980  0.3577 -113.9   4.938   85.4  0.0669   51.8  0.5653  -48.0
 3.000  0.3557 -114.5   4.909   85.1  0.0671   51.7  0.5636  -48.2
 3.100  0.3461 -117.1   4.764   83.4  0.0686   51.2  0.5551  -48.9
 3.200  0.3364 -119.7   4.623   81.9  0.0697   51.1  0.5477  -49.6
 3.300  0.3300 -122.1   4.499   80.5  0.0709   50.8  0.5405  -50.2
 3.400  0.3208 -124.9   4.371   79.0  0.0725   49.9  0.5345  -51.0
 3.500  0.3142 -126.9   4.262   77.6  0.0740   49.5  0.5289  -51.4
 3.600  0.3062 -129.4   4.145   76.3  0.0748   49.6  0.5222  -51.9
 3.700  0.2992 -132.0   4.043   75.0  0.0763   49.1  0.5165  -52.3
 3.800  0.2938 -134.3   3.939   73.7  0.0779   49.3  0.5116  -52.8
 3.900  0.2890 -136.8   3.849   72.4  0.0787   49.0  0.5070  -53.4
 4.000  0.2829 -139.1   3.759   71.2  0.0803   48.8  0.5016  -53.8
 4.100  0.2799 -141.7   3.673   69.9  0.0813   48.9  0.4963  -54.3
 4.200  0.2721 -144.2   3.592   68.7  0.0826   48.3  0.4918  -54.7
 4.300  0.2710 -146.5   3.516   67.5  0.0846   48.0  0.4873  -55.2
 4.400  0.2655 -149.1   3.442   66.4  0.0853   47.7  0.4826  -55.6
 4.500  0.2644 -151.1   3.366   65.3  0.0868   48.0  0.4792  -55.9
 4.600  0.2595 -154.0   3.297   64.0  0.0877   47.2  0.4743  -56.4
 4.700  0.2591 -156.0   3.232   62.9  0.0892   47.4  0.4688  -56.7
 4.800  0.2564 -158.7   3.170   61.8  0.0909   46.7  0.4657  -57.2
 4.900  0.2558 -160.6   3.109   60.8  0.0921   46.8  0.4611  -57.5
 5.000  0.2535 -163.1   3.052   59.6  0.0934   46.4  0.4568  -57.9
 5.100  0.2514 -165.2   2.996   58.5  0.0949   46.6  0.4527  -58.3
 5.200  0.2510 -167.4   2.942   57.4  0.0965   46.4  0.4483  -58.7
 5.300  0.2498 -169.6   2.889   56.3  0.0980   46.1  0.4440  -59.2
 5.400  0.2484 -171.4   2.841   55.3  0.0992   45.4  0.4409  -59.5
 5.500  0.2484 -173.6   2.793   54.2  0.1003   45.4  0.4371  -59.9
 5.600  0.2471 -175.6   2.746   53.1  0.1015   45.3  0.4335  -60.2
 5.700  0.2467 -178.0   2.700   52.0  0.1034   44.7  0.4303  -60.6
 5.800  0.2463 -179.6   2.657   51.0  0.1048   44.4  0.4267  -61.0
 5.900  0.2454  178.1   2.615   50.0  0.1065   44.3  0.4233  -61.3
 6.000  0.2445  176.0   2.573   49.1  0.1079   44.0  0.4203  -61.6
 6.100  0.2443  173.8   2.531   48.0  0.1091   43.8  0.4166  -61.9
 6.200  0.2437  171.7   2.492   47.0  0.1110   43.4  0.4134  -62.3
 6.300  0.2431  169.3   2.456   46.0  0.1119   43.1  0.4091  -62.5
 6.400  0.2424  167.2   2.418   45.0  0.1137   42.9  0.4064  -63.0
 6.500  0.2429  164.5   2.381   43.9  0.1146   42.7  0.4029  -63.2
 6.600  0.2425  162.3   2.347   43.0  0.1164   42.4  0.3992  -63.5
 6.800  0.2436  157.6   2.280   41.0  0.1188   42.0  0.3919  -63.8
 7.000  0.2443  152.8   2.217   39.1  0.1218   41.4  0.3840  -63.9
 7.200  0.2485  148.1   2.156   37.3  0.1254   41.0  0.3740  -64.4
 7.400  0.2556  143.9   2.100   35.5  0.1280   40.8  0.3649  -64.7
 7.600  0.2634  140.0   2.048   33.8  0.1319   40.1  0.3533  -65.0
 7.800  0.2736  136.4   1.999   32.0  0.1356   39.6  0.3412  -65.5
 8.000  0.2860  133.3   1.953   30.2  0.1392   38.7  0.3261  -65.9
 8.200  0.3007  130.5   1.912   28.5  0.1429   37.9  0.3077  -66.6
 8.400  0.3161  128.0   1.873   26.7  0.1466   37.1  0.2893  -67.3
 8.600  0.3316  125.8   1.835   24.9  0.1503   36.3  0.2688  -68.1
 8.800  0.3471  123.8   1.798   23.2  0.1539   35.4  0.2464  -69.2
 9.000  0.3629  122.0   1.763   21.3  0.1575   34.6  0.2240  -70.4
 9.200  0.3767  120.3   1.730   19.6  0.1612   33.7  0.2001  -72.3
 9.400  0.3908  118.7   1.698   17.9  0.1649   32.8  0.1765  -74.8
 9.600  0.4040  117.2   1.668   16.1  0.1688   31.9  0.1526  -78.3
 9.800  0.4163  115.7   1.639   14.3  0.1728   30.8  0.1288  -83.3
10.000  0.4288  114.2   1.612   12.4  0.1768   29.8  0.1065  -90.6
10.200  0.4398  112.2   1.583   10.6  0.1802   28.5  0.0862 -102.5
10.400  0.4512  110.4   1.555    8.7  0.1836   27.2  0.0717 -120.4
10.600  0.4617  108.4   1.526    6.7  0.1868   26.0  0.0696 -143.8
10.800  0.4715  106.1   1.495    4.8  0.1895   24.8  0.0816 -164.5
11.000  0.4820  104.0   1.466    2.7  0.1924   23.6  0.1010 -178.5
11.200  0.4899  101.8   1.430    1.0  0.1943   22.5  0.1256  174.3
11.400  0.4985   99.7   1.396   -0.9  0.1963   21.4  0.1515  169.4
11.600  0.5045   98.0   1.363   -2.4  0.1984   20.5  0.1775  167.8
11.800  0.5078   96.6   1.330   -3.8  0.2006   19.8  0.2030  168.1
12.000  0.5114   95.3   1.299   -5.2  0.2029   19.1  0.2284  168.4
!
!  f       NFmin   Gammaopt  rn/50
! GHz       dB    MAG  ANG    -
 0.450      1.20  0.44    5   0.35
 0.900      1.21  0.41   13   0.38
 1.500      1.29  0.38   19   0.33
 1.900      1.32  0.36   25   0.33
 2.400      1.49  0.34   35   0.35
 3.000      1.56  0.32   46   0.32
 3.500      1.61  0.31   55   0.29
 4.500      1.77  0.24   70   0.26
 5.500      2.00  0.15   83   0.16
!
! (c) 2015  Infineon Technologies AG, Munich
