! Infineon Technologies  Discrete & RF Semiconductors
! BFP420F
!
! VCE =  1.5 V,  IC =  18 mA
! Common Emitter S-Parameters:                            Sep 2011
# GHz  S  MA  R  50
!  f         S11            S21            S12            S22
! GHz     MAG   ANG      MAG   ANG      MAG   ANG      MAG   ANG
 0.030  0.5240   -7.3  37.347  173.9  0.0025   90.8  0.9562   -3.8
 0.040  0.5217   -9.5  37.268  172.0  0.0035   88.2  0.9558   -5.3
 0.050  0.5171  -12.0  36.764  169.9  0.0046   87.8  0.9546   -6.7
 0.060  0.5210  -14.7  36.704  168.5  0.0050   88.0  0.9507   -8.1
 0.070  0.5199  -17.3  36.536  166.9  0.0058   84.7  0.9463   -9.6
 0.080  0.5144  -19.9  35.972  165.0  0.0067   83.6  0.9416  -11.0
 0.090  0.5101  -21.7  35.767  163.4  0.0075   82.6  0.9363  -12.3
 0.100  0.5090  -24.4  35.581  161.5  0.0084   81.5  0.9298  -13.6
 0.110  0.5112  -26.1  34.915  160.2  0.0089   80.0  0.9239  -14.9
 0.120  0.5038  -29.0  34.772  158.2  0.0099   79.8  0.9168  -16.1
 0.130  0.5051  -31.1  34.188  156.8  0.0105   79.5  0.9096  -17.4
 0.140  0.5007  -33.2  33.771  155.4  0.0113   78.5  0.9024  -18.6
 0.150  0.4979  -35.5  33.421  153.9  0.0120   77.6  0.8949  -19.8
 0.200  0.4885  -45.9  31.421  147.5  0.0155   74.1  0.8552  -25.4
 0.250  0.4731  -55.9  29.357  141.4  0.0184   71.4  0.8108  -30.3
 0.300  0.4617  -65.1  27.594  136.0  0.0215   68.7  0.7701  -34.8
 0.350  0.4499  -73.3  25.745  131.3  0.0240   66.6  0.7274  -38.8
 0.400  0.4383  -80.9  24.013  127.0  0.0263   65.0  0.6886  -42.3
 0.450  0.4296  -87.9  22.539  123.2  0.0284   63.5  0.6520  -45.4
 0.500  0.4197  -94.3  21.060  119.7  0.0304   62.4  0.6161  -48.3
 0.600  0.4060 -105.9  18.550  113.5  0.0338   60.6  0.5533  -53.4
 0.700  0.3961 -115.5  16.564  108.4  0.0371   59.6  0.5024  -57.8
 0.800  0.3901 -123.9  14.827  103.9  0.0401   59.0  0.4571  -61.6
 0.900  0.3836 -130.7  13.341  100.3  0.0430   58.6  0.4181  -64.9
 1.000  0.3832 -136.9  12.163   97.0  0.0459   58.5  0.3854  -68.2
 1.100  0.3799 -142.5  11.140   94.0  0.0487   58.2  0.3563  -71.3
 1.200  0.3779 -147.4  10.191   91.2  0.0515   58.2  0.3324  -74.3
 1.300  0.3775 -151.5   9.446   89.0  0.0543   58.2  0.3107  -76.9
 1.400  0.3796 -155.5   8.802   86.9  0.0572   58.2  0.2921  -79.9
 1.500  0.3784 -159.6   8.199   84.4  0.0600   58.1  0.2742  -82.4
 1.600  0.3789 -162.3   7.624   82.7  0.0627   58.0  0.2595  -85.4
 1.700  0.3797 -165.3   7.191   81.2  0.0655   58.0  0.2454  -88.1
 1.800  0.3835 -167.9   6.810   79.6  0.0684   58.0  0.2347  -91.0
 1.900  0.3844 -170.9   6.444   77.5  0.0713   57.8  0.2247  -93.7
 2.000  0.3835 -173.1   6.056   76.1  0.0740   57.5  0.2165  -96.7
 2.200  0.3871 -177.0   5.523   73.5  0.0798   57.3  0.2038 -101.9
 2.400  0.3860  179.1   5.008   70.6  0.0856   56.7  0.1946 -106.7
 2.600  0.3896  175.7   4.625   68.4  0.0912   56.3  0.1870 -111.3
 2.800  0.3897  172.4   4.288   65.8  0.0973   55.6  0.1824 -115.4
 3.000  0.3930  169.0   3.991   63.6  0.1030   54.9  0.1787 -119.3
 3.500  0.3976  162.4   3.414   58.2  0.1178   52.9  0.1725 -127.4
 4.000  0.4024  155.9   2.987   52.9  0.1326   50.4  0.1676 -134.5
 4.500  0.4104  150.6   2.663   47.7  0.1475   47.7  0.1597 -141.5
 5.000  0.4150  145.9   2.406   42.8  0.1619   44.7  0.1502 -149.0
 5.500  0.4203  141.0   2.196   37.7  0.1760   41.6  0.1388 -157.9
 6.000  0.4273  135.5   2.021   32.8  0.1898   38.4  0.1264 -169.2
 6.500  0.4399  129.7   1.872   27.9  0.2028   35.2  0.1206  176.2
 7.000  0.4542  123.9   1.739   22.9  0.2155   31.8  0.1176  160.5
 7.500  0.4764  119.5   1.622   18.2  0.2283   28.4  0.1263  144.3
 8.000  0.5015  115.4   1.514   13.3  0.2398   24.6  0.1512  128.3
 8.500  0.5312  111.7   1.411    8.7  0.2485   20.8  0.1913  113.6
 9.000  0.5597  108.3   1.318    4.5  0.2558   17.4  0.2410  102.7
 9.500  0.5881  105.2   1.236    0.8  0.2624   14.5  0.2979   96.3
10.000  0.6188  101.4   1.164   -2.4  0.2691   11.7  0.3580   92.8
!
!  f       NFmin   Gammaopt  rn/50
! GHz       dB    MAG  ANG    -
 0.450      1.49  0.14  179   0.11
 0.900      1.47  0.15  176   0.13
 1.900      1.60  0.24 -172   0.18
 2.400      1.67  0.25 -168   0.12
 3.500      1.90  0.27 -159   0.16
!
! (c) 2011  Infineon Technologies AG, Munich
