! Infineon Technologies  Discrete & RF Semiconductors
! BFP410
! VCE =  4.0 V,  IC =  6.0 mA
! Common Emitter S-Parameters:                            Nov 2015
# GHz  S  MA  R  50
!  f         S11            S21            S12            S22
! GHz     MAG   ANG      MAG   ANG      MAG   ANG      MAG   ANG
 0.010  0.7824    0.8  17.502  178.9  0.0012   29.2  0.9834    2.0
 0.015  0.7839   -0.1  17.414  178.4  0.0013   40.8  0.9794    1.1
 0.020  0.7855   -0.9  17.327  177.9  0.0014   50.7  0.9757    0.1
 0.025  0.7851   -1.4  17.298  177.5  0.0016   56.4  0.9768   -0.2
 0.030  0.7847   -2.0  17.270  177.1  0.0018   60.9  0.9780   -0.5
 0.035  0.7844   -2.5  17.243  176.7  0.0020   64.4  0.9791   -0.8
 0.040  0.7842   -3.1  17.216  176.3  0.0022   67.2  0.9803   -1.0
 0.045  0.7841   -3.6  17.191  175.9  0.0025   69.5  0.9816   -1.3
 0.050  0.7840   -4.2  17.166  175.5  0.0027   71.4  0.9828   -1.6
 0.055  0.7837   -4.7  17.161  175.2  0.0030   72.8  0.9825   -1.9
 0.060  0.7834   -5.2  17.157  174.9  0.0033   73.9  0.9823   -2.1
 0.065  0.7832   -5.7  17.153  174.5  0.0035   74.8  0.9821   -2.4
 0.070  0.7831   -6.2  17.150  174.2  0.0038   75.7  0.9819   -2.7
 0.075  0.7830   -6.6  17.147  173.9  0.0041   76.4  0.9817   -2.9
 0.080  0.7830   -7.1  17.145  173.6  0.0044   77.0  0.9815   -3.2
 0.085  0.7830   -7.6  17.144  173.3  0.0047   77.5  0.9814   -3.5
 0.090  0.7831   -8.1  17.143  172.9  0.0049   78.0  0.9813   -3.8
 0.095  0.7832   -8.6  17.142  172.6  0.0052   78.4  0.9812   -4.0
 0.100  0.7834   -9.1  17.142  172.3  0.0055   78.8  0.9811   -4.3
 0.105  0.7827   -9.6  17.125  171.9  0.0057   78.8  0.9806   -4.5
 0.110  0.7820  -10.0  17.108  171.6  0.0060   78.7  0.9801   -4.7
 0.115  0.7813  -10.5  17.092  171.2  0.0062   78.7  0.9797   -5.0
 0.120  0.7808  -11.0  17.076  170.8  0.0065   78.7  0.9792   -5.2
 0.125  0.7802  -11.4  17.062  170.5  0.0067   78.7  0.9788   -5.4
 0.130  0.7798  -11.9  17.048  170.1  0.0070   78.7  0.9784   -5.6
 0.135  0.7793  -12.4  17.034  169.7  0.0072   78.6  0.9780   -5.8
 0.140  0.7790  -12.9  17.022  169.3  0.0075   78.6  0.9776   -6.1
 0.145  0.7787  -13.3  17.010  169.0  0.0077   78.6  0.9773   -6.3
 0.150  0.7784  -13.8  16.999  168.6  0.0080   78.6  0.9769   -6.5
 0.155  0.7775  -14.3  16.983  168.3  0.0083   78.5  0.9761   -6.7
 0.160  0.7766  -14.7  16.967  167.9  0.0085   78.3  0.9754   -7.0
 0.165  0.7758  -15.2  16.952  167.6  0.0088   78.2  0.9746   -7.2
 0.170  0.7750  -15.7  16.938  167.2  0.0090   78.1  0.9739   -7.4
 0.175  0.7743  -16.1  16.925  166.9  0.0093   78.0  0.9732   -7.6
 0.180  0.7736  -16.6  16.912  166.5  0.0096   77.9  0.9725   -7.9
 0.185  0.7730  -17.1  16.899  166.2  0.0098   77.8  0.9718   -8.1
 0.190  0.7725  -17.6  16.888  165.8  0.0101   77.7  0.9711   -8.3
 0.195  0.7720  -18.0  16.876  165.5  0.0103   77.6  0.9704   -8.6
 0.200  0.7715  -18.5  16.866  165.1  0.0106   77.5  0.9698   -8.8
 0.220  0.7680  -20.2  16.759  163.6  0.0116   76.9  0.9665   -9.7
 0.240  0.7653  -22.0  16.663  162.1  0.0126   76.3  0.9634  -10.6
 0.260  0.7620  -23.8  16.580  160.7  0.0136   75.8  0.9597  -11.4
 0.280  0.7582  -25.6  16.510  159.4  0.0146   75.1  0.9552  -12.3
 0.300  0.7552  -27.5  16.449  158.0  0.0156   74.6  0.9510  -13.1
 0.320  0.7506  -29.3  16.346  156.7  0.0166   73.9  0.9465  -13.9
 0.340  0.7468  -31.1  16.252  155.3  0.0175   73.2  0.9423  -14.8
 0.360  0.7426  -32.8  16.147  153.9  0.0185   72.5  0.9375  -15.6
 0.380  0.7379  -34.6  16.028  152.6  0.0194   71.8  0.9324  -16.4
 0.400  0.7338  -36.3  15.919  151.2  0.0203   71.1  0.9274  -17.2
 0.420  0.7286  -38.0  15.795  149.9  0.0212   70.5  0.9220  -18.0
 0.440  0.7240  -39.7  15.679  148.6  0.0221   69.9  0.9168  -18.7
 0.450  0.7220  -40.6  15.624  147.9  0.0226   69.6  0.9142  -19.1
 0.460  0.7190  -41.5  15.558  147.3  0.0230   69.2  0.9111  -19.5
 0.480  0.7136  -43.2  15.431  146.0  0.0239   68.5  0.9051  -20.2
 0.500  0.7089  -45.0  15.312  144.7  0.0247   67.9  0.8993  -21.0
 0.520  0.7023  -46.6  15.162  143.5  0.0255   67.2  0.8930  -21.7
 0.540  0.6963  -48.2  15.019  142.2  0.0262   66.5  0.8867  -22.4
 0.560  0.6908  -49.8  14.883  141.0  0.0270   65.9  0.8807  -23.1
 0.580  0.6859  -51.5  14.755  139.7  0.0278   65.3  0.8747  -23.8
 0.600  0.6816  -53.2  14.634  138.4  0.0286   64.7  0.8689  -24.5
 0.620  0.6752  -54.8  14.487  137.3  0.0293   64.1  0.8622  -25.1
 0.640  0.6693  -56.4  14.346  136.2  0.0301   63.5  0.8557  -25.8
 0.660  0.6640  -58.0  14.210  135.1  0.0308   62.9  0.8492  -26.5
 0.680  0.6592  -59.6  14.079  134.0  0.0316   62.3  0.8429  -27.1
 0.700  0.6549  -61.3  13.954  132.8  0.0323   61.8  0.8367  -27.8
 0.720  0.6487  -62.7  13.799  131.8  0.0329   61.2  0.8301  -28.4
 0.740  0.6430  -64.2  13.649  130.7  0.0336   60.7  0.8236  -28.9
 0.760  0.6377  -65.7  13.504  129.7  0.0342   60.2  0.8172  -29.5
 0.780  0.6328  -67.3  13.363  128.6  0.0349   59.7  0.8108  -30.1
 0.800  0.6284  -68.8  13.227  127.5  0.0355   59.2  0.8046  -30.7
 0.820  0.6226  -70.2  13.087  126.5  0.0361   58.7  0.7981  -31.2
 0.840  0.6171  -71.7  12.950  125.5  0.0367   58.2  0.7916  -31.8
 0.860  0.6121  -73.2  12.817  124.5  0.0373   57.7  0.7852  -32.3
 0.880  0.6075  -74.8  12.689  123.5  0.0379   57.2  0.7789  -32.8
 0.900  0.6034  -76.3  12.565  122.4  0.0385   56.7  0.7727  -33.4
 0.920  0.5977  -77.7  12.425  121.5  0.0390   56.3  0.7661  -33.9
 0.940  0.5924  -79.1  12.288  120.6  0.0396   55.8  0.7596  -34.4
 0.960  0.5874  -80.5  12.154  119.7  0.0401   55.4  0.7532  -34.9
 0.980  0.5828  -81.9  12.023  118.8  0.0407   55.0  0.7468  -35.4
 1.000  0.5786  -83.4  11.896  117.8  0.0412   54.6  0.7405  -35.9
 1.020  0.5737  -84.7  11.766  117.0  0.0417   54.2  0.7346  -36.3
 1.040  0.5690  -86.1  11.638  116.1  0.0422   53.8  0.7287  -36.8
 1.060  0.5647  -87.4  11.513  115.3  0.0427   53.4  0.7229  -37.2
 1.080  0.5608  -88.8  11.390  114.4  0.0432   53.1  0.7171  -37.6
 1.100  0.5571  -90.2  11.270  113.5  0.0437   52.7  0.7113  -38.1
 1.120  0.5525  -91.5  11.148  112.7  0.0442   52.3  0.7055  -38.5
 1.140  0.5482  -92.8  11.028  111.9  0.0446   52.0  0.6998  -38.9
 1.160  0.5442  -94.1  10.910  111.1  0.0451   51.7  0.6941  -39.3
 1.180  0.5405  -95.4  10.794  110.3  0.0455   51.3  0.6885  -39.8
 1.200  0.5371  -96.8  10.681  109.4  0.0460   51.0  0.6829  -40.2
 1.220  0.5330  -98.0  10.565  108.7  0.0464   50.7  0.6775  -40.5
 1.240  0.5291  -99.3  10.450  107.9  0.0468   50.3  0.6722  -40.9
 1.260  0.5254 -100.5  10.338  107.2  0.0473   50.0  0.6669  -41.3
 1.280  0.5220 -101.8  10.227  106.4  0.0477   49.7  0.6616  -41.6
 1.300  0.5189 -103.1  10.118  105.6  0.0481   49.4  0.6564  -42.0
 1.320  0.5150 -104.3  10.008  104.9  0.0485   49.1  0.6513  -42.3
 1.340  0.5114 -105.5   9.900  104.2  0.0489   48.8  0.6462  -42.7
 1.360  0.5080 -106.7   9.794  103.5  0.0492   48.5  0.6412  -43.1
 1.380  0.5048 -107.9   9.688  102.8  0.0496   48.3  0.6362  -43.4
 1.400  0.5018 -109.1   9.585  102.0  0.0500   48.0  0.6312  -43.8
 1.420  0.4986 -110.2   9.488  101.4  0.0504   47.8  0.6265  -44.1
 1.440  0.4956 -111.3   9.392  100.8  0.0508   47.5  0.6219  -44.4
 1.460  0.4928 -112.4   9.298  100.1  0.0511   47.3  0.6173  -44.7
 1.480  0.4902 -113.5   9.204   99.5  0.0515   47.0  0.6127  -45.0
 1.500  0.4877 -114.6   9.112   98.8  0.0519   46.8  0.6081  -45.3
 1.520  0.4849 -115.7   9.022   98.2  0.0523   46.6  0.6036  -45.6
 1.540  0.4822 -116.8   8.933   97.5  0.0526   46.3  0.5992  -45.9
 1.560  0.4798 -118.0   8.845   96.9  0.0530   46.1  0.5948  -46.2
 1.580  0.4776 -119.1   8.758   96.2  0.0533   45.8  0.5904  -46.5
 1.600  0.4755 -120.3   8.673   95.5  0.0537   45.6  0.5860  -46.8
 1.620  0.4726 -121.3   8.591   94.9  0.0540   45.4  0.5820  -47.1
 1.640  0.4699 -122.4   8.509   94.4  0.0543   45.2  0.5780  -47.3
 1.660  0.4673 -123.4   8.429   93.8  0.0547   44.9  0.5740  -47.6
 1.680  0.4649 -124.5   8.349   93.2  0.0550   44.7  0.5700  -47.8
 1.700  0.4627 -125.6   8.270   92.6  0.0553   44.5  0.5660  -48.1
 1.720  0.4606 -126.6   8.188   92.1  0.0556   44.3  0.5623  -48.4
 1.740  0.4587 -127.6   8.106   91.5  0.0560   44.1  0.5586  -48.6
 1.760  0.4569 -128.6   8.025   91.0  0.0563   44.0  0.5549  -48.9
 1.780  0.4553 -129.6   7.945   90.4  0.0567   43.8  0.5513  -49.1
 1.800  0.4538 -130.6   7.866   89.8  0.0570   43.6  0.5476  -49.4
 1.820  0.4516 -131.6   7.797   89.3  0.0573   43.4  0.5437  -49.7
 1.840  0.4496 -132.7   7.729   88.7  0.0577   43.2  0.5399  -49.9
 1.860  0.4477 -133.7   7.661   88.2  0.0580   43.1  0.5360  -50.2
 1.880  0.4460 -134.7   7.594   87.7  0.0584   42.9  0.5322  -50.4
 1.900  0.4444 -135.8   7.528   87.1  0.0587   42.7  0.5284  -50.7
 1.920  0.4426 -136.7   7.461   86.6  0.0590   42.5  0.5251  -50.9
 1.940  0.4409 -137.6   7.395   86.1  0.0593   42.4  0.5218  -51.1
 1.960  0.4393 -138.5   7.329   85.6  0.0596   42.2  0.5185  -51.2
 1.980  0.4379 -139.5   7.264   85.0  0.0599   42.1  0.5152  -51.4
 2.000  0.4365 -140.4   7.200   84.5  0.0602   41.9  0.5119  -51.6
 2.020  0.4345 -141.3   7.140   84.0  0.0605   41.7  0.5085  -51.8
 2.040  0.4327 -142.3   7.080   83.6  0.0608   41.6  0.5052  -52.0
 2.060  0.4310 -143.2   7.021   83.1  0.0611   41.4  0.5018  -52.2
 2.080  0.4293 -144.2   6.962   82.6  0.0614   41.2  0.4985  -52.4
 2.100  0.4279 -145.2   6.904   82.1  0.0617   41.1  0.4952  -52.7
 2.120  0.4265 -146.1   6.846   81.6  0.0620   40.9  0.4918  -52.9
 2.140  0.4253 -147.1   6.789   81.1  0.0623   40.8  0.4885  -53.1
 2.160  0.4241 -148.1   6.732   80.6  0.0626   40.6  0.4852  -53.3
 2.180  0.4232 -149.1   6.676   80.0  0.0629   40.5  0.4819  -53.6
 2.200  0.4223 -150.1   6.621   79.5  0.0632   40.3  0.4786  -53.8
 2.220  0.4209 -151.0   6.569   79.1  0.0635   40.1  0.4754  -54.0
 2.240  0.4196 -151.9   6.517   78.6  0.0638   40.0  0.4723  -54.2
 2.260  0.4185 -152.8   6.466   78.2  0.0641   39.8  0.4691  -54.4
 2.280  0.4174 -153.7   6.415   77.7  0.0644   39.7  0.4660  -54.6
 2.300  0.4165 -154.7   6.365   77.3  0.0646   39.5  0.4628  -54.8
 2.320  0.4156 -155.6   6.315   76.8  0.0649   39.4  0.4597  -55.0
 2.340  0.4149 -156.5   6.265   76.4  0.0652   39.2  0.4566  -55.2
 2.360  0.4142 -157.4   6.216   75.9  0.0655   39.1  0.4534  -55.5
 2.380  0.4137 -158.4   6.167   75.4  0.0658   38.9  0.4503  -55.7
 2.400  0.4133 -159.3   6.119   74.9  0.0661   38.8  0.4472  -55.9
 2.420  0.4125 -160.2   6.073   74.5  0.0664   38.7  0.4442  -56.1
 2.440  0.4118 -161.1   6.027   74.1  0.0666   38.5  0.4412  -56.3
 2.460  0.4111 -162.0   5.981   73.6  0.0669   38.4  0.4382  -56.5
 2.480  0.4106 -162.9   5.936   73.2  0.0672   38.2  0.4352  -56.7
 2.500  0.4102 -163.8   5.891   72.7  0.0674   38.1  0.4322  -56.9
 2.520  0.4099 -164.7   5.846   72.3  0.0677   37.9  0.4292  -57.1
 2.540  0.4097 -165.7   5.802   71.8  0.0680   37.8  0.4262  -57.3
 2.560  0.4096 -166.6   5.758   71.4  0.0683   37.7  0.4232  -57.5
 2.580  0.4096 -167.5   5.715   70.9  0.0685   37.5  0.4203  -57.7
 2.600  0.4097 -168.4   5.672   70.4  0.0688   37.4  0.4173  -57.9
 2.620  0.4092 -169.2   5.632   70.0  0.0691   37.3  0.4146  -58.1
 2.640  0.4089 -170.0   5.591   69.6  0.0693   37.2  0.4120  -58.3
 2.660  0.4086 -170.9   5.552   69.2  0.0696   37.1  0.4093  -58.5
 2.680  0.4084 -171.7   5.512   68.8  0.0699   36.9  0.4066  -58.7
 2.700  0.4083 -172.5   5.472   68.4  0.0701   36.8  0.4040  -58.9
 2.720  0.4082 -173.3   5.433   68.0  0.0704   36.7  0.4013  -59.1
 2.740  0.4083 -174.1   5.395   67.6  0.0707   36.6  0.3987  -59.3
 2.760  0.4084 -175.0   5.356   67.2  0.0710   36.5  0.3961  -59.5
 2.780  0.4086 -175.8   5.318   66.7  0.0712   36.4  0.3934  -59.7
 2.800  0.4089 -176.6   5.280   66.3  0.0715   36.3  0.3908  -59.9
 2.820  0.4089 -177.4   5.245   65.9  0.0718   36.2  0.3884  -60.1
 2.840  0.4091 -178.1   5.210   65.6  0.0721   36.0  0.3860  -60.2
 2.860  0.4092 -178.9   5.176   65.2  0.0723   35.9  0.3836  -60.4
 2.880  0.4095 -179.6   5.142   64.8  0.0726   35.8  0.3812  -60.6
 2.900  0.4098  179.6   5.108   64.4  0.0729   35.6  0.3788  -60.8
 2.920  0.4102  178.9   5.074   64.0  0.0732   35.5  0.3764  -61.0
 2.940  0.4107  178.1   5.040   63.6  0.0735   35.4  0.3740  -61.1
 2.960  0.4112  177.4   5.007   63.2  0.0737   35.3  0.3716  -61.3
 2.980  0.4118  176.6   4.974   62.8  0.0740   35.1  0.3692  -61.5
 3.000  0.4125  175.9   4.941   62.4  0.0743   35.0  0.3668  -61.7
 3.100  0.4133  172.5   4.792   60.7  0.0756   34.4  0.3563  -62.5
 3.200  0.4156  169.1   4.647   59.0  0.0769   33.9  0.3458  -63.4
 3.300  0.4194  165.8   4.507   57.1  0.0782   33.3  0.3354  -64.4
 3.400  0.4245  162.5   4.372   55.1  0.0796   32.8  0.3252  -65.4
 3.500  0.4310  159.3   4.243   53.0  0.0809   32.3  0.3150  -66.5
 3.600  0.4343  156.5   4.128   51.4  0.0823   31.7  0.3056  -67.4
 3.700  0.4387  153.7   4.015   49.8  0.0837   31.2  0.2963  -68.5
 3.800  0.4440  150.9   3.907   48.1  0.0851   30.6  0.2871  -69.5
 3.900  0.4504  148.3   3.802   46.2  0.0865   30.1  0.2781  -70.7
 4.000  0.4577  145.7   3.701   44.3  0.0879   29.6  0.2691  -71.9
 4.100  0.4615  143.4   3.607   42.8  0.0893   28.9  0.2605  -73.2
 4.200  0.4661  141.2   3.515   41.2  0.0906   28.3  0.2521  -74.7
 4.300  0.4713  139.0   3.426   39.6  0.0920   27.7  0.2439  -76.2
 4.400  0.4772  136.9   3.340   37.8  0.0934   27.1  0.2358  -77.8
 4.500  0.4838  134.8   3.257   36.0  0.0948   26.5  0.2280  -79.6
 4.600  0.4867  133.1   3.180   34.6  0.0961   25.9  0.2219  -81.0
 4.700  0.4900  131.4   3.105   33.2  0.0974   25.3  0.2159  -82.4
 4.800  0.4938  129.7   3.032   31.7  0.0987   24.7  0.2101  -83.9
 4.900  0.4980  128.0   2.961   30.1  0.1001   24.1  0.2044  -85.5
 5.000  0.5026  126.4   2.893   28.5  0.1014   23.5  0.1989  -87.2
 5.100  0.5052  124.9   2.832   27.2  0.1026   22.8  0.1937  -88.3
 5.200  0.5081  123.3   2.773   25.8  0.1039   22.2  0.1887  -89.6
 5.300  0.5113  121.8   2.716   24.4  0.1051   21.6  0.1837  -90.8
 5.400  0.5149  120.4   2.661   22.9  0.1064   21.0  0.1788  -92.2
 5.500  0.5189  118.9   2.607   21.3  0.1077   20.4  0.1740  -93.6
 5.600  0.5227  117.4   2.558   20.0  0.1090   19.8  0.1681  -95.1
 5.700  0.5268  116.0   2.511   18.7  0.1102   19.2  0.1623  -96.6
 5.800  0.5312  114.6   2.465   17.3  0.1115   18.7  0.1566  -98.3
 5.900  0.5359  113.2   2.421   15.9  0.1128   18.1  0.1511 -100.1
 6.000  0.5410  111.8   2.378   14.4  0.1141   17.6  0.1457 -102.0
 6.100  0.5455  110.5   2.337   13.1  0.1156   16.9  0.1408 -104.1
 6.200  0.5503  109.1   2.298   11.7  0.1170   16.3  0.1362 -106.4
 6.300  0.5554  107.8   2.260   10.3  0.1185   15.7  0.1317 -108.8
 6.400  0.5608  106.6   2.223    8.9  0.1200   15.1  0.1275 -111.4
 6.500  0.5665  105.3   2.188    7.4  0.1215   14.5  0.1236 -114.1
 6.600  0.5702  104.1   2.154    6.1  0.1231   13.8  0.1197 -115.8
 6.800  0.5784  101.8   2.089    3.3  0.1264   12.5  0.1122 -119.6
 7.000  0.5875   99.5   2.029    0.3  0.1297   11.2  0.1053 -123.9
 7.200  0.5929   97.0   1.969   -2.4  0.1331    9.5  0.0963 -129.3
 7.400  0.5994   94.6   1.915   -5.3  0.1367    7.9  0.0883 -135.7
 7.600  0.6060   91.9   1.858   -8.2  0.1398    6.0  0.0806 -144.7
 7.800  0.6131   89.0   1.799  -11.2  0.1426    3.9  0.0748 -157.2
 8.000  0.6217   86.1   1.745  -14.4  0.1456    1.9  0.0730 -170.9
 8.200  0.6296   83.0   1.683  -16.9  0.1469   -0.0  0.0721  173.2
 8.400  0.6393   80.0   1.624  -19.7  0.1484   -1.9  0.0766  158.1
 8.600  0.6523   77.2   1.571  -22.2  0.1497   -3.6  0.0850  143.4
 8.800  0.6682   74.8   1.524  -24.6  0.1507   -5.1  0.0980  130.2
 9.000  0.6853   72.5   1.480  -27.2  0.1519   -6.6  0.1149  120.5
 9.200  0.7089   70.9   1.440  -29.6  0.1530   -7.9  0.1381  112.7
 9.400  0.7330   69.3   1.402  -32.1  0.1543   -9.2  0.1631  107.2
 9.600  0.7551   67.8   1.358  -34.6  0.1556  -10.5  0.1889  103.7
 9.800  0.7755   66.1   1.308  -37.2  0.1569  -11.9  0.2149  101.6
10.000  0.7964   64.6   1.260  -39.9  0.1584  -13.2  0.2412  100.0
10.200  0.8018   63.3   1.215  -41.8  0.1605  -14.4  0.2599   98.9
10.400  0.8076   62.1   1.170  -43.7  0.1626  -15.5  0.2786   97.9
10.600  0.8052   61.5   1.134  -45.5  0.1646  -17.0  0.2945   97.5
10.800  0.7943   61.5   1.105  -47.0  0.1666  -18.7  0.3076   97.4
11.000  0.7835   61.5   1.077  -48.5  0.1687  -20.4  0.3207   97.3
11.200  0.7731   61.7   1.069  -49.7  0.1692  -22.1  0.3293   98.3
11.400  0.7627   62.0   1.062  -50.9  0.1698  -23.8  0.3381   99.2
11.600  0.7650   61.6   1.054  -53.2  0.1707  -25.6  0.3477  100.3
11.800  0.7802   60.6   1.047  -56.8  0.1718  -27.6  0.3581  101.5
12.000  0.7956   59.7   1.044  -60.3  0.1732  -29.5  0.3687  102.6
!
!  f       NFmin   Gammaopt  rn/50
! GHz       dB    MAG  ANG    -
 0.450      1.09  0.20    1   0.22
 0.900      1.06  0.19   15   0.18
 1.800      1.21  0.13   52   0.16
 2.400      1.21  0.11   50   0.19
 5.500      2.12  0.32 -125   0.21
10.000      3.36  0.67  -51   1.79
!
! (c) 2015  Infineon Technologies AG, Munich
