! Infineon Technologies  Discrete & RF Semiconductors
! BFP420
! VCE =  1.0 V,  IC =  8.0 mA
! Common Emitter S-Parameters:                            Jan 2016
# GHz  S  MA  R  50
!  f         S11            S21            S12            S22
! GHz     MAG   ANG      MAG   ANG      MAG   ANG      MAG   ANG
 0.010  0.7484   -2.3  22.942  179.3  0.0013  102.0  0.9676    0.3
 0.015  0.7494   -3.0  22.695  178.6  0.0019   93.8  0.9710   -0.9
 0.020  0.7504   -3.6  22.451  177.8  0.0025   89.5  0.9749   -2.1
 0.025  0.7497   -4.4  22.449  177.1  0.0030   88.4  0.9744   -2.7
 0.030  0.7492   -5.3  22.450  176.5  0.0035   87.7  0.9739   -3.3
 0.035  0.7488   -6.1  22.454  175.8  0.0040   87.1  0.9736   -3.8
 0.040  0.7486   -6.9  22.461  175.2  0.0046   86.7  0.9734   -4.4
 0.045  0.7485   -7.8  22.470  174.5  0.0051   86.4  0.9732   -5.0
 0.050  0.7486   -8.6  22.483  173.9  0.0056   86.1  0.9732   -5.6
 0.055  0.7471   -9.5  22.461  173.3  0.0061   85.2  0.9718   -6.2
 0.060  0.7458  -10.4  22.441  172.7  0.0067   84.5  0.9705   -6.7
 0.065  0.7447  -11.3  22.423  172.1  0.0072   83.9  0.9693   -7.3
 0.070  0.7437  -12.3  22.408  171.5  0.0078   83.4  0.9682   -7.9
 0.075  0.7430  -13.2  22.396  170.9  0.0083   82.9  0.9672   -8.4
 0.080  0.7425  -14.1  22.386  170.3  0.0089   82.5  0.9663   -9.0
 0.085  0.7421  -15.0  22.378  169.7  0.0094   82.2  0.9655   -9.6
 0.090  0.7419  -16.0  22.373  169.1  0.0100   81.8  0.9648  -10.2
 0.095  0.7420  -16.9  22.370  168.5  0.0105   81.6  0.9641  -10.7
 0.100  0.7422  -17.8  22.370  167.9  0.0111   81.3  0.9636  -11.3
 0.105  0.7405  -18.7  22.317  167.3  0.0116   80.7  0.9615  -11.8
 0.110  0.7389  -19.6  22.266  166.7  0.0122   80.2  0.9595  -12.4
 0.115  0.7375  -20.4  22.218  166.1  0.0127   79.7  0.9575  -12.9
 0.120  0.7363  -21.3  22.172  165.5  0.0132   79.3  0.9557  -13.5
 0.125  0.7353  -22.2  22.129  164.9  0.0137   78.9  0.9539  -14.0
 0.130  0.7345  -23.1  22.088  164.3  0.0143   78.5  0.9522  -14.6
 0.135  0.7338  -24.0  22.049  163.7  0.0148   78.2  0.9506  -15.1
 0.140  0.7333  -24.9  22.013  163.1  0.0153   77.9  0.9491  -15.7
 0.145  0.7330  -25.8  21.979  162.5  0.0159   77.6  0.9477  -16.2
 0.150  0.7329  -26.7  21.948  161.9  0.0164   77.3  0.9464  -16.8
 0.155  0.7312  -27.5  21.883  161.4  0.0169   76.8  0.9437  -17.3
 0.160  0.7296  -28.4  21.820  160.8  0.0174   76.3  0.9411  -17.8
 0.165  0.7282  -29.2  21.759  160.3  0.0179   75.8  0.9386  -18.4
 0.170  0.7269  -30.0  21.700  159.7  0.0184   75.4  0.9361  -18.9
 0.175  0.7258  -30.9  21.644  159.1  0.0189   75.0  0.9338  -19.4
 0.180  0.7249  -31.7  21.589  158.6  0.0194   74.6  0.9315  -19.9
 0.185  0.7241  -32.6  21.536  158.0  0.0199   74.2  0.9292  -20.5
 0.190  0.7235  -33.4  21.486  157.4  0.0204   73.9  0.9271  -21.0
 0.195  0.7230  -34.3  21.437  156.9  0.0209   73.5  0.9251  -21.6
 0.200  0.7227  -35.1  21.391  156.3  0.0214   73.2  0.9231  -22.1
 0.220  0.7141  -38.4  21.068  154.1  0.0232   71.5  0.9114  -24.1
 0.240  0.7080  -41.7  20.776  151.9  0.0251   70.1  0.9008  -26.2
 0.260  0.7022  -45.0  20.494  149.7  0.0268   68.7  0.8893  -28.1
 0.280  0.6966  -48.1  20.215  147.6  0.0285   67.2  0.8766  -30.0
 0.300  0.6931  -51.3  19.963  145.5  0.0302   65.9  0.8649  -32.0
 0.320  0.6857  -54.3  19.629  143.7  0.0317   64.5  0.8512  -33.8
 0.340  0.6802  -57.4  19.316  141.8  0.0332   63.2  0.8383  -35.7
 0.360  0.6743  -60.3  18.996  139.9  0.0347   62.0  0.8251  -37.4
 0.380  0.6677  -63.1  18.667  138.1  0.0360   60.8  0.8115  -39.1
 0.400  0.6628  -66.0  18.358  136.2  0.0374   59.7  0.7985  -40.8
 0.420  0.6553  -68.7  18.021  134.5  0.0386   58.6  0.7847  -42.4
 0.440  0.6492  -71.4  17.700  132.8  0.0399   57.5  0.7715  -44.0
 0.450  0.6467  -72.8  17.546  131.9  0.0405   57.0  0.7651  -44.8
 0.460  0.6434  -74.1  17.379  131.1  0.0411   56.5  0.7582  -45.5
 0.480  0.6377  -76.7  17.054  129.5  0.0422   55.5  0.7447  -47.0
 0.500  0.6333  -79.3  16.742  127.9  0.0433   54.6  0.7318  -48.5
 0.520  0.6262  -81.6  16.420  126.6  0.0442   53.7  0.7185  -49.8
 0.540  0.6201  -83.9  16.107  125.2  0.0451   52.8  0.7056  -51.1
 0.560  0.6151  -86.3  15.804  123.7  0.0460   52.0  0.6930  -52.4
 0.580  0.6112  -88.8  15.511  122.3  0.0470   51.2  0.6809  -53.8
 0.600  0.6084  -91.2  15.229  120.7  0.0479   50.4  0.6692  -55.3
 0.620  0.6025  -93.3  14.941  119.6  0.0487   49.7  0.6573  -56.4
 0.640  0.5974  -95.3  14.660  118.4  0.0494   49.1  0.6456  -57.6
 0.660  0.5931  -97.5  14.385  117.1  0.0502   48.4  0.6343  -58.8
 0.680  0.5896  -99.6  14.117  115.8  0.0510   47.8  0.6232  -60.0
 0.700  0.5870 -101.8  13.856  114.5  0.0518   47.2  0.6124  -61.3
 0.720  0.5825 -103.6  13.599  113.5  0.0524   46.6  0.6019  -62.3
 0.740  0.5786 -105.5  13.347  112.4  0.0530   46.1  0.5915  -63.3
 0.760  0.5753 -107.3  13.100  111.3  0.0536   45.5  0.5814  -64.4
 0.780  0.5727 -109.2  12.857  110.2  0.0543   45.0  0.5715  -65.5
 0.800  0.5706 -111.1  12.620  109.0  0.0549   44.5  0.5618  -66.7
 0.820  0.5670 -112.8  12.400  108.1  0.0555   44.1  0.5527  -67.6
 0.840  0.5640 -114.5  12.184  107.1  0.0560   43.6  0.5437  -68.5
 0.860  0.5614 -116.2  11.970  106.2  0.0566   43.2  0.5348  -69.5
 0.880  0.5593 -117.9  11.761  105.2  0.0571   42.8  0.5261  -70.5
 0.900  0.5577 -119.6  11.555  104.1  0.0577   42.4  0.5176  -71.5
 0.920  0.5549 -121.1  11.363  103.3  0.0582   42.0  0.5095  -72.4
 0.940  0.5525 -122.6  11.173  102.4  0.0587   41.7  0.5015  -73.3
 0.960  0.5505 -124.2  10.986  101.5  0.0592   41.4  0.4936  -74.2
 0.980  0.5489 -125.7  10.802  100.6  0.0597   41.0  0.4858  -75.1
 1.000  0.5477 -127.3  10.620   99.7  0.0602   40.7  0.4782  -76.1
 1.020  0.5456 -128.7  10.452   99.0  0.0606   40.4  0.4711  -76.9
 1.040  0.5438 -130.0  10.285   98.3  0.0611   40.1  0.4642  -77.7
 1.060  0.5423 -131.4  10.121   97.5  0.0615   39.8  0.4573  -78.5
 1.080  0.5411 -132.8   9.958   96.7  0.0620   39.6  0.4506  -79.4
 1.100  0.5403 -134.2   9.797   95.9  0.0624   39.3  0.4439  -80.3
 1.120  0.5387 -135.5   9.649   95.2  0.0628   39.0  0.4376  -81.1
 1.140  0.5374 -136.7   9.503   94.5  0.0632   38.8  0.4313  -81.9
 1.160  0.5363 -138.0   9.358   93.7  0.0637   38.5  0.4251  -82.8
 1.180  0.5355 -139.3   9.215   93.0  0.0641   38.3  0.4191  -83.7
 1.200  0.5350 -140.6   9.073   92.2  0.0645   38.0  0.4131  -84.6
 1.220  0.5338 -141.8   8.944   91.6  0.0649   37.8  0.4076  -85.3
 1.240  0.5327 -142.9   8.816   90.9  0.0653   37.6  0.4022  -86.1
 1.260  0.5319 -144.1   8.690   90.3  0.0657   37.5  0.3969  -86.8
 1.280  0.5314 -145.2   8.564   89.6  0.0661   37.3  0.3916  -87.6
 1.300  0.5310 -146.4   8.440   88.9  0.0665   37.1  0.3864  -88.4
 1.320  0.5303 -147.5   8.325   88.3  0.0669   36.9  0.3816  -89.1
 1.340  0.5297 -148.5   8.212   87.7  0.0672   36.7  0.3768  -89.9
 1.360  0.5293 -149.6   8.099   87.1  0.0676   36.6  0.3720  -90.6
 1.380  0.5291 -150.6   7.987   86.5  0.0679   36.4  0.3674  -91.4
 1.400  0.5291 -151.7   7.876   85.8  0.0683   36.2  0.3628  -92.2
 1.420  0.5283 -152.7   7.776   85.2  0.0687   36.0  0.3584  -92.9
 1.440  0.5276 -153.7   7.677   84.7  0.0691   35.9  0.3540  -93.6
 1.460  0.5271 -154.6   7.579   84.1  0.0695   35.7  0.3497  -94.4
 1.480  0.5267 -155.6   7.482   83.5  0.0699   35.6  0.3454  -95.1
 1.500  0.5265 -156.6   7.385   82.9  0.0703   35.4  0.3412  -95.9
 1.520  0.5262 -157.5   7.294   82.4  0.0706   35.3  0.3374  -96.6
 1.540  0.5260 -158.4   7.203   81.8  0.0710   35.2  0.3336  -97.3
 1.560  0.5259 -159.3   7.114   81.3  0.0713   35.0  0.3299  -98.0
 1.580  0.5259 -160.2   7.024   80.7  0.0717   34.9  0.3262  -98.7
 1.600  0.5261 -161.1   6.936   80.1  0.0720   34.8  0.3226  -99.4
 1.620  0.5256 -162.0   6.857   79.6  0.0724   34.7  0.3191 -100.1
 1.640  0.5253 -162.9   6.778   79.1  0.0728   34.5  0.3156 -100.8
 1.660  0.5251 -163.8   6.699   78.6  0.0731   34.4  0.3121 -101.5
 1.680  0.5250 -164.7   6.621   78.1  0.0735   34.2  0.3087 -102.2
 1.700  0.5251 -165.6   6.544   77.6  0.0739   34.1  0.3054 -103.0
 1.720  0.5248 -166.4   6.470   77.1  0.0743   34.0  0.3023 -103.6
 1.740  0.5247 -167.1   6.396   76.6  0.0746   33.9  0.2993 -104.3
 1.760  0.5246 -167.9   6.323   76.1  0.0750   33.8  0.2963 -104.9
 1.780  0.5246 -168.6   6.250   75.6  0.0753   33.7  0.2933 -105.6
 1.800  0.5247 -169.4   6.178   75.1  0.0757   33.6  0.2904 -106.3
 1.820  0.5246 -170.2   6.112   74.6  0.0761   33.5  0.2875 -107.1
 1.840  0.5247 -171.1   6.046   74.2  0.0764   33.4  0.2847 -107.9
 1.860  0.5248 -171.9   5.981   73.7  0.0768   33.2  0.2820 -108.7
 1.880  0.5251 -172.8   5.916   73.2  0.0771   33.1  0.2792 -109.5
 1.900  0.5255 -173.6   5.851   72.7  0.0775   33.0  0.2766 -110.3
 1.920  0.5251 -174.3   5.792   72.3  0.0779   32.9  0.2740 -110.9
 1.940  0.5248 -175.0   5.733   71.8  0.0782   32.8  0.2715 -111.5
 1.960  0.5246 -175.6   5.675   71.3  0.0786   32.7  0.2689 -112.2
 1.980  0.5244 -176.3   5.617   70.9  0.0789   32.6  0.2665 -112.8
 2.000  0.5243 -177.0   5.559   70.4  0.0793   32.5  0.2640 -113.5
 2.020  0.5241 -177.7   5.507   70.0  0.0797   32.4  0.2617 -114.2
 2.040  0.5241 -178.4   5.454   69.6  0.0800   32.3  0.2593 -114.9
 2.060  0.5241 -179.2   5.402   69.2  0.0804   32.2  0.2571 -115.6
 2.080  0.5242 -179.9   5.351   68.7  0.0808   32.0  0.2548 -116.3
 2.100  0.5244  179.4   5.300   68.3  0.0811   31.9  0.2527 -117.1
 2.120  0.5246  178.7   5.249   67.9  0.0815   31.8  0.2505 -117.8
 2.140  0.5250  178.0   5.198   67.4  0.0819   31.7  0.2484 -118.6
 2.160  0.5254  177.2   5.148   66.9  0.0823   31.6  0.2464 -119.4
 2.180  0.5259  176.5   5.098   66.5  0.0826   31.5  0.2444 -120.2
 2.200  0.5265  175.8   5.048   66.0  0.0830   31.4  0.2424 -121.0
 2.220  0.5266  175.2   5.003   65.6  0.0833   31.3  0.2405 -121.7
 2.240  0.5267  174.5   4.959   65.2  0.0837   31.2  0.2386 -122.5
 2.260  0.5270  173.9   4.915   64.8  0.0840   31.1  0.2368 -123.2
 2.280  0.5273  173.3   4.871   64.4  0.0844   30.9  0.2350 -124.0
 2.300  0.5276  172.6   4.828   64.0  0.0847   30.8  0.2333 -124.8
 2.320  0.5280  172.0   4.784   63.6  0.0851   30.7  0.2316 -125.6
 2.340  0.5285  171.4   4.741   63.1  0.0854   30.6  0.2300 -126.4
 2.360  0.5290  170.8   4.699   62.7  0.0858   30.5  0.2284 -127.2
 2.380  0.5296  170.1   4.656   62.3  0.0861   30.4  0.2268 -128.1
 2.400  0.5303  169.5   4.614   61.8  0.0865   30.3  0.2253 -128.9
 2.420  0.5308  168.9   4.576   61.4  0.0868   30.2  0.2238 -129.7
 2.440  0.5315  168.2   4.539   61.1  0.0872   30.1  0.2223 -130.5
 2.460  0.5321  167.6   4.501   60.7  0.0875   29.9  0.2209 -131.3
 2.480  0.5329  167.0   4.464   60.3  0.0879   29.8  0.2196 -132.1
 2.500  0.5337  166.4   4.427   59.9  0.0882   29.7  0.2182 -132.9
 2.520  0.5345  165.8   4.390   59.5  0.0886   29.6  0.2170 -133.7
 2.540  0.5355  165.1   4.353   59.1  0.0889   29.5  0.2157 -134.5
 2.560  0.5364  164.5   4.317   58.7  0.0893   29.3  0.2145 -135.4
 2.580  0.5375  163.9   4.281   58.2  0.0896   29.2  0.2134 -136.2
 2.600  0.5386  163.3   4.245   57.8  0.0900   29.1  0.2123 -137.1
 2.620  0.5390  162.8   4.212   57.5  0.0903   29.0  0.2112 -137.9
 2.640  0.5394  162.2   4.179   57.1  0.0907   28.9  0.2101 -138.7
 2.660  0.5399  161.7   4.147   56.8  0.0910   28.8  0.2090 -139.5
 2.680  0.5404  161.1   4.115   56.4  0.0914   28.7  0.2080 -140.2
 2.700  0.5409  160.6   4.082   56.0  0.0917   28.6  0.2070 -141.1
 2.720  0.5416  160.0   4.050   55.7  0.0921   28.5  0.2061 -141.9
 2.740  0.5422  159.5   4.018   55.3  0.0924   28.4  0.2052 -142.7
 2.760  0.5429  159.0   3.987   54.9  0.0928   28.3  0.2044 -143.5
 2.780  0.5437  158.4   3.955   54.5  0.0931   28.2  0.2036 -144.4
 2.800  0.5445  157.9   3.924   54.1  0.0935   28.1  0.2028 -145.2
 2.820  0.5452  157.4   3.896   53.8  0.0938   28.0  0.2020 -146.0
 2.840  0.5459  156.9   3.867   53.4  0.0942   27.9  0.2012 -146.8
 2.860  0.5467  156.4   3.839   53.0  0.0945   27.8  0.2005 -147.6
 2.880  0.5475  155.9   3.811   52.7  0.0949   27.7  0.1998 -148.4
 2.900  0.5484  155.4   3.784   52.3  0.0952   27.5  0.1992 -149.2
 2.920  0.5493  154.9   3.756   51.9  0.0956   27.4  0.1985 -150.0
 2.940  0.5502  154.4   3.728   51.6  0.0959   27.3  0.1980 -150.8
 2.960  0.5512  153.9   3.701   51.2  0.0963   27.2  0.1974 -151.6
 2.980  0.5522  153.4   3.674   50.8  0.0966   27.1  0.1969 -152.5
 3.000  0.5533  152.9   3.647   50.4  0.0970   27.0  0.1965 -153.3
 3.100  0.5570  150.4   3.529   48.9  0.0987   26.3  0.1944 -157.3
 3.200  0.5617  148.0   3.413   47.2  0.1004   25.7  0.1933 -161.4
 3.300  0.5674  145.6   3.300   45.5  0.1021   25.1  0.1932 -165.5
 3.400  0.5740  143.3   3.191   43.6  0.1039   24.5  0.1941 -169.6
 3.500  0.5816  141.0   3.085   41.6  0.1056   23.9  0.1959 -173.6
 3.600  0.5853  138.9   2.995   40.1  0.1073   23.2  0.1973 -177.1
 3.700  0.5897  136.8   2.907   38.5  0.1090   22.6  0.1994  179.5
 3.800  0.5950  134.8   2.821   36.9  0.1107   21.9  0.2021  176.2
 3.900  0.6009  132.8   2.738   35.1  0.1125   21.3  0.2055  173.0
 4.000  0.6076  130.8   2.658   33.2  0.1142   20.7  0.2096  169.9
 4.100  0.6107  129.1   2.586   31.8  0.1157   19.9  0.2127  167.2
 4.200  0.6144  127.5   2.515   30.3  0.1172   19.2  0.2162  164.5
 4.300  0.6185  125.9   2.446   28.7  0.1188   18.4  0.2202  161.9
 4.400  0.6231  124.3   2.379   27.1  0.1203   17.7  0.2247  159.5
 4.500  0.6282  122.7   2.314   25.3  0.1219   17.0  0.2295  157.1
 4.600  0.6297  121.4   2.257   24.1  0.1233   16.3  0.2322  155.1
 4.700  0.6316  120.1   2.201   22.7  0.1248   15.7  0.2351  153.1
 4.800  0.6337  118.8   2.147   21.4  0.1263   15.0  0.2383  151.1
 4.900  0.6362  117.6   2.094   19.9  0.1278   14.4  0.2418  149.2
 5.000  0.6390  116.3   2.042   18.4  0.1293   13.8  0.2456  147.4
 5.100  0.6409  115.0   1.998   17.2  0.1307   13.1  0.2488  145.6
 5.200  0.6432  113.7   1.955   15.9  0.1321   12.4  0.2523  143.9
 5.300  0.6458  112.4   1.913   14.6  0.1335   11.8  0.2560  142.3
 5.400  0.6487  111.2   1.872   13.2  0.1349   11.1  0.2599  140.7
 5.500  0.6519  109.9   1.832   11.7  0.1364   10.5  0.2640  139.1
 5.600  0.6551  108.6   1.797   10.5  0.1379    9.8  0.2679  137.4
 5.700  0.6586  107.4   1.763    9.2  0.1393    9.1  0.2720  135.8
 5.800  0.6624  106.1   1.730    7.9  0.1408    8.4  0.2763  134.2
 5.900  0.6665  104.9   1.698    6.5  0.1424    7.8  0.2809  132.7
 6.000  0.6709  103.7   1.667    5.1  0.1439    7.1  0.2856  131.2
 6.100  0.6744  102.6   1.637    3.8  0.1454    6.3  0.2892  129.6
 6.200  0.6782  101.4   1.609    2.5  0.1470    5.5  0.2930  128.1
 6.300  0.6822  100.3   1.581    1.2  0.1486    4.7  0.2971  126.6
 6.400  0.6865   99.2   1.554   -0.2  0.1502    3.9  0.3013  125.2
 6.500  0.6911   98.1   1.528   -1.7  0.1519    3.2  0.3057  123.8
 6.600  0.6937   97.0   1.503   -3.0  0.1535    2.3  0.3085  122.3
 6.800  0.6997   94.7   1.456   -5.7  0.1569    0.6  0.3147  119.3
 7.000  0.7067   92.5   1.413   -8.6  0.1604   -1.0  0.3217  116.5
 7.200  0.7100   90.1   1.369  -11.3  0.1635   -3.0  0.3298  113.7
 7.400  0.7145   87.8   1.329  -14.2  0.1667   -5.0  0.3387  111.0
 7.600  0.7186   85.3   1.287  -17.1  0.1692   -7.0  0.3482  108.2
 7.800  0.7227   82.6   1.242  -19.9  0.1709   -9.3  0.3585  105.4
 8.000  0.7282   80.0   1.201  -23.0  0.1729  -11.5  0.3697  102.7
 8.200  0.7329   77.2   1.154  -25.5  0.1727  -13.5  0.3814   99.5
 8.400  0.7393   74.4   1.109  -28.2  0.1726  -15.4  0.3943   96.4
 8.600  0.7488   71.7   1.068  -30.6  0.1726  -17.1  0.4099   93.6
 8.800  0.7611   69.2   1.030  -32.8  0.1724  -18.4  0.4282   90.9
 9.000  0.7748   66.8   0.994  -35.2  0.1723  -19.8  0.4473   88.5
 9.200  0.7943   64.9   0.965  -37.2  0.1728  -21.0  0.4698   86.7
 9.400  0.8147   63.1   0.937  -39.2  0.1734  -22.3  0.4928   85.0
 9.600  0.8324   61.5   0.906  -41.3  0.1740  -23.6  0.5142   83.4
 9.800  0.8471   60.2   0.871  -43.4  0.1747  -24.9  0.5342   82.0
10.000  0.8623   58.9   0.837  -45.6  0.1754  -26.2  0.5544   80.7
!
!  f       NFmin   Gammaopt  rn/50
! GHz       dB    MAG  ANG    -
 0.900      0.79  0.08   30   0.13
 1.800      1.14  0.06  171   0.12
 2.400      1.24  0.10  160   0.13
 3.000      1.32  0.17 -165   0.12
 4.000      1.46  0.32 -132   0.14
 5.000      1.85  0.39 -110   0.25
 6.000      2.30  0.46  -95   0.37
!
! (c) 2016  Infineon Technologies AG, Munich
