! Infineon Technologies  Discrete & RF Semiconductors
! BFP405F
! VCE =  1.5 V,  IC =  15 mA
! Common Emitter S-Parameters:                            Nov 2015
# GHz  S  MA  R  50
!  f         S11            S21            S12            S22
! GHz     MAG   ANG      MAG   ANG      MAG   ANG      MAG   ANG
 0.030  0.6271   -2.8  25.993  177.1  0.0031  106.0  0.9629   -0.4
 0.035  0.6262   -3.5  26.033  176.8  0.0031   91.6  0.9666   -0.7
 0.040  0.6253   -4.2  26.074  176.5  0.0032   77.7  0.9704   -1.0
 0.045  0.6242   -4.8  26.173  175.8  0.0042   89.3  0.9727   -1.3
 0.050  0.6232   -5.4  26.276  175.1  0.0053   96.2  0.9750   -1.6
 0.055  0.6260   -5.9  26.168  174.7  0.0058   95.8  0.9752   -1.8
 0.060  0.6289   -6.3  26.061  174.3  0.0063   95.5  0.9755   -2.0
 0.065  0.6244   -6.7  26.056  173.7  0.0034   93.2  0.9725   -2.1
 0.070  0.6199   -7.2  26.055  173.0  0.0005   62.5  0.9696   -2.3
 0.075  0.6185   -7.7  25.984  172.6  0.0020   39.9  0.9679   -2.6
 0.080  0.6171   -8.3  25.915  172.2  0.0035   36.7  0.9662   -2.9
 0.085  0.6188   -9.1  25.961  171.9  0.0042   69.4  0.9682   -3.3
 0.090  0.6207   -9.8  26.008  171.7  0.0058   88.5  0.9703   -3.7
 0.095  0.6213  -10.3  25.935  171.3  0.0046   81.1  0.9691   -3.9
 0.100  0.6219  -10.7  25.864  170.8  0.0036   69.2  0.9679   -4.1
 0.105  0.6198  -11.1  25.848  170.3  0.0043   79.7  0.9680   -4.3
 0.110  0.6178  -11.6  25.833  169.8  0.0052   86.9  0.9682   -4.4
 0.115  0.6179  -12.2  25.809  169.5  0.0057   83.1  0.9684   -4.6
 0.120  0.6180  -12.8  25.786  169.1  0.0062   79.9  0.9686   -4.8
 0.125  0.6169  -13.2  25.771  168.6  0.0053   80.1  0.9669   -5.0
 0.130  0.6158  -13.7  25.758  168.0  0.0045   80.4  0.9653   -5.3
 0.135  0.6151  -14.3  25.761  167.7  0.0050   89.6  0.9664   -5.5
 0.140  0.6144  -14.9  25.765  167.4  0.0056   97.0  0.9675   -5.7
 0.145  0.6124  -15.4  25.738  167.0  0.0046   94.4  0.9660   -5.9
 0.150  0.6104  -16.0  25.713  166.5  0.0036   90.3  0.9645   -6.2
 0.155  0.6092  -16.5  25.670  166.0  0.0039   89.3  0.9635   -6.4
 0.160  0.6080  -17.0  25.629  165.5  0.0043   88.6  0.9625   -6.6
 0.165  0.6069  -17.5  25.589  165.0  0.0046   87.9  0.9615   -6.8
 0.170  0.6059  -18.1  25.552  164.5  0.0050   87.3  0.9606   -7.0
 0.175  0.6049  -18.6  25.516  164.0  0.0053   86.8  0.9596   -7.2
 0.180  0.6039  -19.1  25.483  163.5  0.0057   86.3  0.9587   -7.5
 0.185  0.6030  -19.6  25.451  163.0  0.0060   85.9  0.9578   -7.7
 0.190  0.6022  -20.1  25.421  162.5  0.0064   85.6  0.9569   -7.9
 0.195  0.6014  -20.7  25.394  162.0  0.0067   85.3  0.9560   -8.1
 0.200  0.6006  -21.2  25.368  161.5  0.0071   85.0  0.9551   -8.3
 0.220  0.5952  -23.1  25.079  159.8  0.0074   82.8  0.9504   -9.1
 0.240  0.5904  -24.9  24.811  158.2  0.0077   80.7  0.9459   -9.9
 0.260  0.5850  -26.8  24.565  156.5  0.0081   80.1  0.9406  -10.7
 0.280  0.5789  -28.7  24.340  154.8  0.0086   80.9  0.9346  -11.4
 0.300  0.5734  -30.6  24.137  153.1  0.0092   81.5  0.9287  -12.2
 0.320  0.5668  -32.4  23.832  151.6  0.0100   79.3  0.9230  -12.9
 0.340  0.5608  -34.3  23.545  150.0  0.0109   77.5  0.9175  -13.6
 0.360  0.5548  -36.2  23.265  148.4  0.0116   76.3  0.9122  -14.2
 0.380  0.5487  -38.0  22.990  146.9  0.0123   75.6  0.9071  -14.9
 0.400  0.5431  -39.8  22.733  145.3  0.0129   75.0  0.9022  -15.6
 0.420  0.5362  -41.4  22.425  143.9  0.0131   75.2  0.8942  -16.2
 0.440  0.5297  -43.1  22.131  142.5  0.0132   75.4  0.8864  -16.8
 0.450  0.5267  -44.0  21.989  141.8  0.0133   75.5  0.8825  -17.1
 0.460  0.5229  -44.8  21.828  141.1  0.0136   75.4  0.8792  -17.4
 0.480  0.5154  -46.3  21.514  139.8  0.0143   75.1  0.8727  -17.9
 0.500  0.5084  -47.9  21.213  138.4  0.0149   74.9  0.8662  -18.5
 0.520  0.5009  -49.4  20.898  137.2  0.0152   74.3  0.8594  -19.0
 0.540  0.4937  -50.9  20.592  136.0  0.0154   73.7  0.8527  -19.4
 0.560  0.4869  -52.5  20.295  134.7  0.0157   73.1  0.8460  -19.9
 0.580  0.4805  -54.1  20.009  133.4  0.0159   72.5  0.8394  -20.4
 0.600  0.4744  -55.7  19.733  132.1  0.0162   72.0  0.8329  -20.9
 0.620  0.4675  -57.0  19.447  131.1  0.0166   71.6  0.8266  -21.3
 0.640  0.4608  -58.3  19.167  130.0  0.0170   71.2  0.8203  -21.7
 0.660  0.4544  -59.7  18.894  128.9  0.0175   70.8  0.8141  -22.1
 0.680  0.4482  -61.1  18.628  127.8  0.0179   70.4  0.8079  -22.5
 0.700  0.4423  -62.5  18.370  126.6  0.0183   70.1  0.8017  -22.9
 0.720  0.4358  -63.7  18.083  125.7  0.0187   69.8  0.7956  -23.2
 0.740  0.4296  -65.0  17.800  124.7  0.0192   69.5  0.7896  -23.6
 0.760  0.4236  -66.3  17.523  123.7  0.0196   69.2  0.7836  -23.9
 0.780  0.4178  -67.7  17.252  122.7  0.0201   69.0  0.7776  -24.2
 0.800  0.4122  -69.1  16.986  121.6  0.0205   68.7  0.7716  -24.6
 0.820  0.4064  -70.2  16.745  120.8  0.0208   68.6  0.7661  -24.9
 0.840  0.4008  -71.4  16.507  119.9  0.0210   68.6  0.7606  -25.2
 0.860  0.3953  -72.5  16.274  119.0  0.0213   68.5  0.7552  -25.5
 0.880  0.3900  -73.8  16.044  118.1  0.0215   68.5  0.7497  -25.8
 0.900  0.3849  -75.0  15.818  117.2  0.0218   68.4  0.7443  -26.1
 0.920  0.3800  -76.1  15.589  116.4  0.0222   68.3  0.7390  -26.4
 0.940  0.3751  -77.2  15.364  115.7  0.0226   68.2  0.7338  -26.6
 0.960  0.3705  -78.3  15.141  114.9  0.0230   68.1  0.7286  -26.9
 0.980  0.3660  -79.5  14.921  114.0  0.0234   68.0  0.7234  -27.2
 1.000  0.3616  -80.7  14.704  113.2  0.0238   67.9  0.7182  -27.5
 1.020  0.3567  -81.7  14.500  112.5  0.0242   68.1  0.7135  -27.7
 1.040  0.3519  -82.8  14.298  111.9  0.0246   68.3  0.7089  -28.0
 1.060  0.3472  -83.9  14.098  111.2  0.0250   68.5  0.7042  -28.2
 1.080  0.3427  -85.0  13.900  110.4  0.0254   68.7  0.6996  -28.5
 1.100  0.3383  -86.1  13.704  109.7  0.0258   68.9  0.6950  -28.7
 1.120  0.3345  -87.1  13.525  109.1  0.0261   68.5  0.6909  -28.9
 1.140  0.3308  -88.2  13.347  108.4  0.0264   68.1  0.6868  -29.1
 1.160  0.3272  -89.2  13.171  107.8  0.0268   67.7  0.6827  -29.2
 1.180  0.3238  -90.3  12.997  107.1  0.0271   67.3  0.6787  -29.4
 1.200  0.3204  -91.4  12.825  106.4  0.0274   66.9  0.6746  -29.6
 1.220  0.3164  -92.4  12.660  105.8  0.0277   66.9  0.6705  -29.8
 1.240  0.3124  -93.3  12.497  105.2  0.0280   66.9  0.6664  -30.0
 1.260  0.3086  -94.3  12.335  104.6  0.0282   67.0  0.6623  -30.3
 1.280  0.3048  -95.4  12.175  104.0  0.0285   67.0  0.6582  -30.5
 1.300  0.3012  -96.4  12.016  103.3  0.0288   67.0  0.6541  -30.7
 1.320  0.2986  -97.3  11.868  102.8  0.0291   67.2  0.6506  -30.9
 1.340  0.2961  -98.2  11.721  102.3  0.0294   67.4  0.6471  -31.1
 1.360  0.2936  -99.1  11.575  101.8  0.0298   67.6  0.6436  -31.2
 1.380  0.2912 -100.0  11.429  101.2  0.0301   67.8  0.6402  -31.4
 1.400  0.2889 -101.0  11.285  100.7  0.0304   68.0  0.6367  -31.6
 1.420  0.2860 -101.9  11.153  100.2  0.0307   67.7  0.6333  -31.7
 1.440  0.2832 -102.8  11.022   99.7  0.0310   67.5  0.6298  -31.9
 1.460  0.2804 -103.8  10.891   99.2  0.0312   67.2  0.6264  -32.0
 1.480  0.2777 -104.7  10.762   98.7  0.0315   67.0  0.6230  -32.2
 1.500  0.2751 -105.7  10.633   98.2  0.0318   66.7  0.6196  -32.3
 1.520  0.2729 -106.6  10.515   97.8  0.0322   66.7  0.6166  -32.5
 1.540  0.2707 -107.5  10.397   97.3  0.0326   66.8  0.6136  -32.6
 1.560  0.2686 -108.4  10.281   96.9  0.0330   66.8  0.6106  -32.8
 1.580  0.2666 -109.3  10.164   96.4  0.0334   66.9  0.6077  -32.9
 1.600  0.2646 -110.2  10.049   95.9  0.0338   66.9  0.6047  -33.1
 1.620  0.2627 -111.0   9.936   95.5  0.0341   66.9  0.6016  -33.2
 1.640  0.2609 -111.8   9.824   95.1  0.0344   66.9  0.5984  -33.4
 1.660  0.2591 -112.6   9.712   94.6  0.0346   66.8  0.5953  -33.5
 1.680  0.2574 -113.5   9.601   94.2  0.0349   66.8  0.5921  -33.7
 1.700  0.2557 -114.3   9.490   93.7  0.0352   66.8  0.5890  -33.8
 1.720  0.2538 -115.2   9.392   93.3  0.0356   66.8  0.5861  -34.0
 1.740  0.2519 -116.1   9.294   92.9  0.0360   66.9  0.5833  -34.2
 1.760  0.2500 -117.0   9.196   92.5  0.0364   66.9  0.5804  -34.3
 1.780  0.2483 -118.0   9.099   92.0  0.0368   67.0  0.5775  -34.5
 1.800  0.2466 -118.9   9.003   91.6  0.0372   67.0  0.5747  -34.7
 1.820  0.2452 -119.7   8.914   91.2  0.0376   67.1  0.5720  -34.8
 1.840  0.2438 -120.4   8.825   90.9  0.0379   67.1  0.5693  -35.0
 1.860  0.2424 -121.2   8.737   90.5  0.0383   67.2  0.5666  -35.1
 1.880  0.2411 -122.0   8.649   90.1  0.0386   67.2  0.5640  -35.3
 1.900  0.2399 -122.8   8.562   89.7  0.0390   67.3  0.5613  -35.4
 1.920  0.2389 -123.7   8.483   89.3  0.0393   67.2  0.5595  -35.6
 1.940  0.2380 -124.5   8.404   89.0  0.0396   67.1  0.5576  -35.9
 1.960  0.2371 -125.4   8.326   88.6  0.0398   66.9  0.5558  -36.1
 1.980  0.2363 -126.3   8.248   88.2  0.0401   66.8  0.5540  -36.4
 2.000  0.2355 -127.2   8.170   87.8  0.0404   66.7  0.5522  -36.6
 2.020  0.2344 -127.9   8.093   87.5  0.0408   66.7  0.5500  -36.8
 2.040  0.2333 -128.7   8.015   87.1  0.0412   66.7  0.5477  -37.0
 2.060  0.2322 -129.4   7.939   86.7  0.0415   66.6  0.5455  -37.1
 2.080  0.2312 -130.1   7.862   86.4  0.0419   66.6  0.5433  -37.3
 2.100  0.2302 -130.9   7.786   86.0  0.0423   66.6  0.5411  -37.5
 2.120  0.2290 -131.7   7.715   85.7  0.0427   66.5  0.5389  -37.7
 2.140  0.2279 -132.5   7.644   85.3  0.0430   66.4  0.5366  -37.8
 2.160  0.2268 -133.3   7.573   84.9  0.0434   66.2  0.5344  -38.0
 2.180  0.2258 -134.1   7.503   84.6  0.0437   66.1  0.5322  -38.1
 2.200  0.2248 -134.9   7.433   84.2  0.0441   66.0  0.5300  -38.3
 2.220  0.2242 -135.6   7.368   83.9  0.0444   65.9  0.5280  -38.4
 2.240  0.2237 -136.3   7.303   83.6  0.0447   65.9  0.5261  -38.5
 2.260  0.2231 -136.9   7.239   83.3  0.0450   65.8  0.5241  -38.7
 2.280  0.2227 -137.6   7.174   83.0  0.0453   65.8  0.5222  -38.8
 2.300  0.2222 -138.3   7.110   82.7  0.0456   65.7  0.5202  -38.9
 2.320  0.2213 -138.9   7.051   82.4  0.0459   65.8  0.5185  -39.1
 2.340  0.2204 -139.6   6.992   82.1  0.0461   65.8  0.5169  -39.3
 2.360  0.2196 -140.3   6.934   81.8  0.0464   65.9  0.5152  -39.4
 2.380  0.2188 -140.9   6.875   81.5  0.0466   65.9  0.5135  -39.6
 2.400  0.2180 -141.6   6.817   81.2  0.0469   66.0  0.5119  -39.8
 2.420  0.2173 -142.3   6.761   80.9  0.0473   66.0  0.5103  -39.9
 2.440  0.2167 -142.9   6.705   80.6  0.0476   66.1  0.5087  -40.0
 2.460  0.2161 -143.6   6.649   80.3  0.0480   66.1  0.5072  -40.2
 2.480  0.2155 -144.3   6.593   80.0  0.0483   66.2  0.5056  -40.3
 2.500  0.2150 -145.0   6.538   79.7  0.0487   66.2  0.5040  -40.4
 2.520  0.2143 -145.6   6.486   79.4  0.0491   66.1  0.5026  -40.5
 2.540  0.2136 -146.2   6.434   79.2  0.0496   66.0  0.5012  -40.6
 2.560  0.2129 -146.8   6.382   78.9  0.0500   65.8  0.4997  -40.8
 2.580  0.2123 -147.4   6.330   78.6  0.0505   65.7  0.4983  -40.9
 2.600  0.2117 -148.0   6.279   78.3  0.0509   65.6  0.4969  -41.0
 2.620  0.2113 -148.6   6.232   78.0  0.0511   65.5  0.4954  -41.1
 2.640  0.2110 -149.3   6.185   77.8  0.0512   65.4  0.4940  -41.2
 2.660  0.2107 -149.9   6.139   77.5  0.0514   65.3  0.4925  -41.4
 2.680  0.2104 -150.6   6.092   77.2  0.0515   65.2  0.4911  -41.5
 2.700  0.2101 -151.2   6.046   76.9  0.0517   65.1  0.4896  -41.6
 2.720  0.2096 -151.8   6.003   76.6  0.0522   65.1  0.4884  -41.8
 2.740  0.2091 -152.4   5.961   76.4  0.0526   65.1  0.4871  -41.9
 2.760  0.2086 -152.9   5.918   76.1  0.0531   65.1  0.4859  -42.1
 2.780  0.2081 -153.5   5.876   75.9  0.0535   65.1  0.4847  -42.2
 2.800  0.2077 -154.1   5.834   75.6  0.0540   65.1  0.4835  -42.4
 2.820  0.2074 -154.6   5.791   75.3  0.0544   65.0  0.4824  -42.5
 2.840  0.2071 -155.1   5.748   75.1  0.0547   64.9  0.4813  -42.6
 2.860  0.2068 -155.6   5.705   74.8  0.0551   64.9  0.4802  -42.8
 2.880  0.2065 -156.1   5.663   74.6  0.0554   64.8  0.4791  -42.9
 2.900  0.2062 -156.6   5.620   74.3  0.0558   64.7  0.4780  -43.0
 2.920  0.2059 -157.2   5.582   74.1  0.0560   64.7  0.4769  -43.1
 2.940  0.2056 -157.8   5.545   73.8  0.0562   64.7  0.4757  -43.3
 2.960  0.2054 -158.5   5.508   73.6  0.0564   64.6  0.4746  -43.4
 2.980  0.2052 -159.1   5.470   73.3  0.0566   64.6  0.4734  -43.6
 3.000  0.2050 -159.7   5.433   73.1  0.0568   64.6  0.4723  -43.7
 3.100  0.2040 -162.1   5.249   71.8  0.0594   63.8  0.4670  -44.2
 3.200  0.2024 -165.1   5.078   70.7  0.0604   64.2  0.4625  -45.0
 3.300  0.2018 -167.2   4.926   69.5  0.0630   63.6  0.4585  -45.4
 3.400  0.2005 -170.0   4.770   68.4  0.0643   63.3  0.4546  -46.2
 3.500  0.2003 -172.0   4.634   67.3  0.0661   63.1  0.4518  -46.5
 3.600  0.1990 -174.4   4.497   66.2  0.0673   62.7  0.4485  -47.0
 3.700  0.1999 -177.0   4.372   65.2  0.0694   62.4  0.4454  -47.5
 3.800  0.1999 -179.1   4.253   64.1  0.0714   62.3  0.4422  -48.0
 3.900  0.1992  179.0   4.144   63.1  0.0726   61.7  0.4394  -48.5
 4.000  0.1994  176.9   4.039   62.1  0.0743   61.8  0.4368  -48.9
 4.100  0.2008  174.4   3.939   61.1  0.0763   61.8  0.4334  -49.3
 4.200  0.2012  172.0   3.842   60.1  0.0780   61.1  0.4302  -49.8
 4.300  0.2041  170.3   3.755   59.1  0.0798   60.1  0.4267  -50.3
 4.400  0.2036  168.0   3.670   58.2  0.0816   60.2  0.4246  -50.7
 4.500  0.2056  166.5   3.586   57.3  0.0830   60.0  0.4225  -50.9
 4.600  0.2073  164.1   3.504   56.2  0.0851   59.6  0.4194  -51.5
 4.700  0.2093  162.9   3.432   55.3  0.0872   59.0  0.4149  -51.7
 4.800  0.2114  160.7   3.363   54.4  0.0887   58.7  0.4134  -52.3
 4.900  0.2132  159.6   3.293   53.5  0.0904   58.3  0.4096  -52.5
 5.000  0.2142  157.5   3.229   52.5  0.0924   57.9  0.4073  -53.0
 5.100  0.2159  155.9   3.164   51.6  0.0939   57.3  0.4043  -53.3
 5.200  0.2179  154.3   3.107   50.6  0.0960   57.2  0.4006  -53.8
 5.300  0.2203  152.7   3.048   49.7  0.0976   56.5  0.3984  -54.2
 5.400  0.2207  151.5   2.993   48.8  0.0993   56.4  0.3961  -54.6
 5.500  0.2227  149.9   2.940   47.9  0.1014   55.8  0.3931  -54.9
 5.600  0.2238  148.6   2.887   47.0  0.1033   55.5  0.3910  -55.3
 5.700  0.2270  146.7   2.837   46.0  0.1046   54.8  0.3874  -55.7
 5.800  0.2275  145.5   2.791   45.1  0.1067   54.2  0.3849  -56.1
 5.900  0.2298  143.9   2.744   44.2  0.1085   53.8  0.3832  -56.4
 6.000  0.2300  142.6   2.698   43.4  0.1100   53.5  0.3808  -56.8
 6.100  0.2323  141.0   2.652   42.4  0.1123   52.9  0.3774  -56.9
 6.200  0.2335  139.4   2.609   41.5  0.1140   52.4  0.3755  -57.4
 6.300  0.2357  137.8   2.570   40.6  0.1155   52.3  0.3721  -57.7
 6.400  0.2361  136.4   2.529   39.7  0.1175   51.7  0.3700  -58.1
 6.500  0.2387  134.4   2.488   38.8  0.1191   51.2  0.3672  -58.3
 6.600  0.2402  132.9   2.452   38.0  0.1204   50.9  0.3642  -58.6
 6.800  0.2448  129.6   2.378   36.2  0.1246   49.9  0.3588  -58.9
 7.000  0.2498  126.1   2.310   34.5  0.1279   49.2  0.3519  -59.0
 7.200  0.2568  123.1   2.242   32.9  0.1316   48.4  0.3429  -59.4
 7.400  0.2664  120.6   2.182   31.3  0.1352   47.7  0.3351  -59.8
 7.600  0.2752  118.4   2.126   29.8  0.1394   46.8  0.3251  -59.9
 7.800  0.2866  116.5   2.074   28.2  0.1435   45.8  0.3129  -60.2
 8.000  0.2990  114.8   2.025   26.6  0.1476   44.8  0.2991  -60.5
 8.200  0.3140  113.6   1.981   25.1  0.1514   43.6  0.2813  -60.8
 8.400  0.3292  112.4   1.939   23.4  0.1553   42.5  0.2635  -61.2
 8.600  0.3443  111.4   1.899   21.8  0.1592   41.4  0.2438  -61.6
 8.800  0.3594  110.5   1.860   20.2  0.1632   40.3  0.2222  -62.0
 9.000  0.3745  109.7   1.823   18.5  0.1673   39.3  0.2006  -62.5
 9.200  0.3885  108.8   1.788   16.9  0.1712   38.1  0.1768  -63.4
 9.400  0.4025  108.0   1.754   15.3  0.1752   37.0  0.1531  -64.6
 9.600  0.4157  107.1   1.723   13.7  0.1792   35.8  0.1288  -66.5
 9.800  0.4281  106.1   1.693   12.0  0.1834   34.6  0.1040  -69.6
10.000  0.4405  105.2   1.665   10.2  0.1876   33.5  0.0797  -74.5
10.200  0.4521  103.7   1.635    8.5  0.1912   32.1  0.0551  -85.2
10.400  0.4640  102.3   1.606    6.8  0.1950   30.8  0.0352 -110.1
10.600  0.4751  100.6   1.576    5.0  0.1983   29.4  0.0336 -158.7
10.800  0.4858   98.8   1.545    3.1  0.2012   28.0  0.0536  171.9
11.000  0.4970   97.0   1.516    1.2  0.2042   26.6  0.0797  160.0
11.200  0.5056   95.0   1.480   -0.4  0.2063   25.4  0.1063  157.1
11.400  0.5147   93.1   1.446   -2.1  0.2086   24.3  0.1331  155.4
11.600  0.5209   91.6   1.413   -3.6  0.2110   23.2  0.1585  156.2
11.800  0.5240   90.3   1.381   -4.9  0.2135   22.4  0.1829  158.5
12.000  0.5273   89.1   1.350   -6.2  0.2161   21.5  0.2074  160.2
!
!  f       NFmin   Gammaopt  rn/50
! GHz       dB    MAG  ANG    -
 0.450      1.97  0.11    2   0.35
 0.900      1.99  0.10    4   0.33
 1.500      2.03  0.08    8   0.23
 1.900      2.09  0.06   10   0.28
 2.400      2.24  0.04   13   0.42
 3.000      2.32  0.03    6   0.36
 3.500      2.38  0.01  -46   0.48
 4.500      2.58  0.08  -93   0.25
 5.500      2.83  0.16  -88   0.10
!
! (c) 2015  Infineon Technologies AG, Munich
