! Infineon Technologies  Discrete & RF Semiconductors
! BFP420
! VCE =  2.0 V,  IC =  12 mA
! Common Emitter S-Parameters:                            Jan 2016
# GHz  S  MA  R  50
!  f         S11            S21            S12            S22
! GHz     MAG   ANG      MAG   ANG      MAG   ANG      MAG   ANG
 0.010  0.6673   -2.8  30.819  179.2  0.0005  106.4  0.9651    0.8
 0.015  0.6654   -3.4  30.477  178.2  0.0011   92.8  0.9683   -0.7
 0.020  0.6636   -4.0  30.145  177.2  0.0018   89.0  0.9721   -2.1
 0.025  0.6625   -5.0  30.119  176.5  0.0022   87.7  0.9717   -2.7
 0.030  0.6616   -6.1  30.098  175.8  0.0027   86.9  0.9715   -3.3
 0.035  0.6610   -7.1  30.081  175.1  0.0031   86.3  0.9713   -3.9
 0.040  0.6606   -8.2  30.069  174.4  0.0036   85.8  0.9713   -4.5
 0.045  0.6604   -9.2  30.061  173.7  0.0040   85.5  0.9713   -5.1
 0.050  0.6604  -10.3  30.058  173.0  0.0045   85.2  0.9715   -5.7
 0.055  0.6590  -11.3  30.006  172.3  0.0049   84.5  0.9698   -6.3
 0.060  0.6579  -12.3  29.958  171.7  0.0053   83.9  0.9682   -6.9
 0.065  0.6570  -13.4  29.915  171.0  0.0057   83.4  0.9667   -7.5
 0.070  0.6563  -14.4  29.875  170.3  0.0061   83.0  0.9654   -8.0
 0.075  0.6557  -15.4  29.839  169.7  0.0065   82.6  0.9641   -8.6
 0.080  0.6554  -16.5  29.808  169.0  0.0070   82.2  0.9629   -9.2
 0.085  0.6554  -17.5  29.781  168.3  0.0074   81.9  0.9618   -9.8
 0.090  0.6555  -18.5  29.757  167.7  0.0078   81.7  0.9608  -10.4
 0.095  0.6558  -19.6  29.738  167.0  0.0082   81.4  0.9600  -11.0
 0.100  0.6564  -20.6  29.723  166.3  0.0086   81.2  0.9592  -11.6
 0.105  0.6546  -21.6  29.629  165.7  0.0090   80.6  0.9566  -12.2
 0.110  0.6531  -22.5  29.540  165.0  0.0094   80.0  0.9541  -12.7
 0.115  0.6517  -23.5  29.453  164.4  0.0099   79.5  0.9517  -13.3
 0.120  0.6505  -24.5  29.371  163.7  0.0103   79.0  0.9494  -13.8
 0.125  0.6495  -25.5  29.293  163.0  0.0107   78.6  0.9472  -14.4
 0.130  0.6487  -26.4  29.218  162.4  0.0111   78.2  0.9451  -15.0
 0.135  0.6480  -27.4  29.148  161.7  0.0115   77.8  0.9430  -15.6
 0.140  0.6476  -28.4  29.081  161.0  0.0120   77.4  0.9411  -16.1
 0.145  0.6473  -29.4  29.019  160.4  0.0124   77.1  0.9392  -16.7
 0.150  0.6473  -30.4  28.960  159.7  0.0128   76.8  0.9375  -17.3
 0.155  0.6454  -31.3  28.849  159.1  0.0132   76.3  0.9343  -17.8
 0.160  0.6437  -32.3  28.742  158.5  0.0135   75.8  0.9311  -18.3
 0.165  0.6422  -33.2  28.637  157.9  0.0139   75.4  0.9281  -18.9
 0.170  0.6408  -34.1  28.536  157.3  0.0143   75.0  0.9251  -19.4
 0.175  0.6396  -35.1  28.438  156.7  0.0146   74.5  0.9222  -19.9
 0.180  0.6386  -36.0  28.343  156.1  0.0150   74.2  0.9193  -20.4
 0.185  0.6378  -36.9  28.252  155.5  0.0154   73.8  0.9166  -21.0
 0.190  0.6371  -37.9  28.164  154.9  0.0158   73.4  0.9139  -21.5
 0.195  0.6366  -38.8  28.079  154.2  0.0161   73.1  0.9113  -22.1
 0.200  0.6363  -39.8  27.997  153.6  0.0165   72.8  0.9088  -22.6
 0.220  0.6276  -43.4  27.482  151.3  0.0179   71.2  0.8949  -24.6
 0.240  0.6216  -47.1  27.014  148.8  0.0193   69.9  0.8821  -26.6
 0.260  0.6155  -50.7  26.556  146.6  0.0206   68.5  0.8684  -28.5
 0.280  0.6091  -54.2  26.097  144.4  0.0219   67.1  0.8536  -30.4
 0.300  0.6051  -57.8  25.675  142.2  0.0231   65.9  0.8398  -32.3
 0.320  0.5973  -61.0  25.160  140.3  0.0242   64.7  0.8243  -34.0
 0.340  0.5913  -64.2  24.676  138.2  0.0253   63.5  0.8096  -35.7
 0.360  0.5855  -67.4  24.186  136.3  0.0264   62.4  0.7948  -37.4
 0.380  0.5795  -70.4  23.686  134.4  0.0274   61.3  0.7798  -38.9
 0.400  0.5751  -73.5  23.213  132.5  0.0284   60.3  0.7654  -40.5
 0.420  0.5684  -76.3  22.717  130.8  0.0293   59.4  0.7505  -41.9
 0.440  0.5632  -79.2  22.241  129.1  0.0302   58.5  0.7361  -43.4
 0.450  0.5611  -80.7  22.011  128.2  0.0306   58.1  0.7291  -44.1
 0.460  0.5580  -82.0  21.771  127.5  0.0310   57.7  0.7219  -44.7
 0.480  0.5527  -84.7  21.303  125.9  0.0318   56.9  0.7078  -46.0
 0.500  0.5487  -87.4  20.851  124.3  0.0326   56.2  0.6941  -47.4
 0.520  0.5427  -89.8  20.404  123.0  0.0333   55.5  0.6807  -48.5
 0.540  0.5375  -92.2  19.969  121.6  0.0339   54.8  0.6675  -49.6
 0.560  0.5334  -94.6  19.545  120.2  0.0346   54.1  0.6547  -50.8
 0.580  0.5302  -97.1  19.135  118.7  0.0353   53.5  0.6421  -52.0
 0.600  0.5281  -99.6  18.738  117.1  0.0360   52.9  0.6298  -53.3
 0.620  0.5234 -101.7  18.351  116.0  0.0366   52.4  0.6182  -54.2
 0.640  0.5193 -103.8  17.972  114.8  0.0372   51.9  0.6068  -55.2
 0.660  0.5160 -105.9  17.600  113.7  0.0377   51.5  0.5955  -56.2
 0.680  0.5134 -108.1  17.236  112.4  0.0383   51.0  0.5845  -57.2
 0.700  0.5116 -110.3  16.880  111.1  0.0389   50.6  0.5736  -58.3
 0.720  0.5079 -112.1  16.545  110.1  0.0394   50.2  0.5636  -59.1
 0.740  0.5046 -113.9  16.215  109.1  0.0399   49.9  0.5537  -60.0
 0.760  0.5019 -115.8  15.890  108.0  0.0404   49.5  0.5439  -60.8
 0.780  0.4998 -117.6  15.570  106.9  0.0409   49.1  0.5343  -61.8
 0.800  0.4981 -119.5  15.257  105.8  0.0414   48.8  0.5248  -62.7
 0.820  0.4956 -121.1  14.976  104.9  0.0419   48.5  0.5162  -63.4
 0.840  0.4935 -122.8  14.699  104.1  0.0424   48.3  0.5076  -64.2
 0.860  0.4919 -124.4  14.425  103.1  0.0428   48.0  0.4992  -65.0
 0.880  0.4906 -126.1  14.155  102.2  0.0433   47.7  0.4908  -65.8
 0.900  0.4898 -127.8  13.889  101.2  0.0438   47.5  0.4826  -66.7
 0.920  0.4879 -129.3  13.646  100.4  0.0442   47.3  0.4750  -67.4
 0.940  0.4864 -130.8  13.406   99.6  0.0447   47.1  0.4676  -68.1
 0.960  0.4851 -132.3  13.168   98.8  0.0451   46.9  0.4602  -68.8
 0.980  0.4843 -133.8  12.933   98.0  0.0456   46.8  0.4528  -69.6
 1.000  0.4837 -135.3  12.701   97.1  0.0460   46.6  0.4456  -70.4
 1.020  0.4823 -136.6  12.490   96.4  0.0464   46.4  0.4391  -71.0
 1.040  0.4812 -137.8  12.282   95.7  0.0468   46.3  0.4327  -71.7
 1.060  0.4803 -139.1  12.075   95.0  0.0473   46.1  0.4263  -72.3
 1.080  0.4797 -140.4  11.870   94.2  0.0477   46.0  0.4200  -73.0
 1.100  0.4793 -141.7  11.668   93.4  0.0481   45.8  0.4137  -73.7
 1.120  0.4785 -142.9  11.485   92.7  0.0485   45.7  0.4078  -74.4
 1.140  0.4778 -144.1  11.303   92.1  0.0489   45.6  0.4020  -75.0
 1.160  0.4774 -145.3  11.123   91.4  0.0494   45.4  0.3962  -75.7
 1.180  0.4772 -146.5  10.945   90.6  0.0498   45.3  0.3905  -76.5
 1.200  0.4772 -147.7  10.768   89.9  0.0502   45.2  0.3848  -77.2
 1.220  0.4765 -148.8  10.609   89.3  0.0506   45.1  0.3797  -77.8
 1.240  0.4760 -149.9  10.452   88.7  0.0510   45.0  0.3747  -78.4
 1.260  0.4756 -151.0  10.296   88.1  0.0515   44.9  0.3697  -79.0
 1.280  0.4754 -152.1  10.141   87.5  0.0519   44.8  0.3648  -79.6
 1.300  0.4754 -153.2   9.987   86.8  0.0523   44.7  0.3599  -80.2
 1.320  0.4750 -154.2   9.848   86.3  0.0527   44.6  0.3553  -80.8
 1.340  0.4746 -155.2   9.709   85.7  0.0531   44.5  0.3508  -81.4
 1.360  0.4745 -156.2   9.572   85.1  0.0535   44.4  0.3463  -82.1
 1.380  0.4745 -157.2   9.435   84.5  0.0539   44.3  0.3419  -82.7
 1.400  0.4746 -158.2   9.300   83.9  0.0543   44.2  0.3375  -83.4
 1.420  0.4743 -159.1   9.179   83.4  0.0547   44.1  0.3333  -84.0
 1.440  0.4741 -160.0   9.058   82.9  0.0551   44.0  0.3292  -84.6
 1.460  0.4740 -161.0   8.938   82.3  0.0556   44.0  0.3251  -85.2
 1.480  0.4740 -161.9   8.819   81.8  0.0560   43.9  0.3210  -85.8
 1.500  0.4742 -162.8   8.701   81.2  0.0564   43.8  0.3170  -86.4
 1.520  0.4743 -163.6   8.591   80.7  0.0568   43.7  0.3134  -87.0
 1.540  0.4745 -164.4   8.483   80.2  0.0572   43.6  0.3099  -87.5
 1.560  0.4749 -165.3   8.374   79.7  0.0576   43.6  0.3064  -88.1
 1.580  0.4753 -166.1   8.267   79.1  0.0580   43.5  0.3029  -88.7
 1.600  0.4758 -166.9   8.160   78.6  0.0584   43.4  0.2995  -89.3
 1.620  0.4755 -167.8   8.064   78.1  0.0588   43.3  0.2961  -89.9
 1.640  0.4752 -168.6   7.968   77.7  0.0592   43.2  0.2928  -90.5
 1.660  0.4751 -169.5   7.872   77.2  0.0597   43.2  0.2894  -91.1
 1.680  0.4751 -170.3   7.777   76.7  0.0601   43.1  0.2862  -91.7
 1.700  0.4752 -171.2   7.683   76.2  0.0605   43.0  0.2829  -92.3
 1.720  0.4752 -171.9   7.594   75.7  0.0609   42.9  0.2799  -92.8
 1.740  0.4753 -172.6   7.505   75.3  0.0613   42.8  0.2769  -93.3
 1.760  0.4755 -173.4   7.417   74.8  0.0618   42.8  0.2739  -93.9
 1.780  0.4758 -174.1   7.330   74.3  0.0622   42.7  0.2710  -94.4
 1.800  0.4761 -174.8   7.243   73.8  0.0626   42.6  0.2681  -95.0
 1.820  0.4764 -175.5   7.164   73.4  0.0630   42.5  0.2653  -95.7
 1.840  0.4767 -176.3   7.085   72.9  0.0635   42.4  0.2625  -96.3
 1.860  0.4772 -177.0   7.007   72.5  0.0639   42.3  0.2597  -97.0
 1.880  0.4777 -177.8   6.929   72.1  0.0644   42.2  0.2570  -97.7
 1.900  0.4783 -178.5   6.851   71.6  0.0648   42.1  0.2543  -98.4
 1.920  0.4781 -179.1   6.781   71.2  0.0652   42.0  0.2517  -98.9
 1.940  0.4780 -179.8   6.711   70.8  0.0656   41.9  0.2492  -99.4
 1.960  0.4779  179.6   6.641   70.4  0.0661   41.9  0.2467 -100.0
 1.980  0.4779  178.9   6.572   69.9  0.0665   41.8  0.2442 -100.5
 2.000  0.4780  178.3   6.503   69.5  0.0669   41.7  0.2417 -101.1
 2.020  0.4781  177.6   6.441   69.1  0.0673   41.6  0.2393 -101.7
 2.040  0.4782  177.0   6.378   68.7  0.0677   41.5  0.2370 -102.3
 2.060  0.4785  176.3   6.317   68.3  0.0682   41.4  0.2346 -102.9
 2.080  0.4787  175.6   6.255   67.9  0.0686   41.3  0.2323 -103.5
 2.100  0.4791  174.9   6.194   67.5  0.0690   41.2  0.2300 -104.2
 2.120  0.4795  174.3   6.133   67.1  0.0694   41.1  0.2278 -104.8
 2.140  0.4800  173.6   6.072   66.6  0.0698   41.0  0.2256 -105.5
 2.160  0.4805  172.9   6.012   66.2  0.0703   40.9  0.2234 -106.2
 2.180  0.4811  172.3   5.952   65.8  0.0707   40.8  0.2212 -106.9
 2.200  0.4818  171.6   5.893   65.3  0.0711   40.7  0.2191 -107.6
 2.220  0.4821  171.0   5.840   64.9  0.0715   40.6  0.2171 -108.3
 2.240  0.4824  170.4   5.788   64.6  0.0719   40.5  0.2150 -108.9
 2.260  0.4828  169.8   5.736   64.2  0.0724   40.4  0.2131 -109.6
 2.280  0.4833  169.2   5.684   63.8  0.0728   40.2  0.2111 -110.3
 2.300  0.4838  168.6   5.632   63.4  0.0732   40.1  0.2092 -111.0
 2.320  0.4843  168.0   5.580   63.0  0.0736   40.0  0.2073 -111.8
 2.340  0.4850  167.4   5.529   62.6  0.0740   39.9  0.2054 -112.5
 2.360  0.4856  166.8   5.478   62.2  0.0745   39.8  0.2036 -113.3
 2.380  0.4863  166.2   5.427   61.8  0.0749   39.7  0.2018 -114.0
 2.400  0.4871  165.6   5.377   61.4  0.0753   39.6  0.2001 -114.8
 2.420  0.4879  165.0   5.332   61.0  0.0757   39.5  0.1984 -115.5
 2.440  0.4887  164.5   5.288   60.7  0.0761   39.3  0.1967 -116.2
 2.460  0.4895  163.9   5.244   60.3  0.0765   39.2  0.1951 -117.0
 2.480  0.4904  163.3   5.200   59.9  0.0769   39.1  0.1934 -117.7
 2.500  0.4914  162.8   5.156   59.5  0.0773   39.0  0.1919 -118.5
 2.520  0.4924  162.2   5.113   59.1  0.0778   38.9  0.1903 -119.3
 2.540  0.4934  161.7   5.069   58.7  0.0782   38.7  0.1888 -120.1
 2.560  0.4945  161.1   5.026   58.3  0.0786   38.6  0.1873 -120.9
 2.580  0.4956  160.5   4.983   57.9  0.0790   38.5  0.1859 -121.7
 2.600  0.4968  160.0   4.941   57.5  0.0794   38.4  0.1845 -122.5
 2.620  0.4973  159.5   4.902   57.2  0.0798   38.3  0.1831 -123.2
 2.640  0.4978  159.0   4.864   56.8  0.0802   38.2  0.1817 -124.0
 2.660  0.4984  158.5   4.825   56.5  0.0806   38.1  0.1804 -124.8
 2.680  0.4990  157.9   4.787   56.2  0.0810   38.0  0.1791 -125.6
 2.700  0.4997  157.4   4.749   55.8  0.0814   37.9  0.1779 -126.4
 2.720  0.5004  156.9   4.711   55.5  0.0819   37.8  0.1766 -127.2
 2.740  0.5011  156.4   4.674   55.1  0.0823   37.7  0.1755 -128.0
 2.760  0.5019  155.9   4.636   54.7  0.0827   37.6  0.1743 -128.8
 2.780  0.5027  155.4   4.599   54.4  0.0831   37.5  0.1732 -129.7
 2.800  0.5036  154.9   4.562   54.0  0.0835   37.4  0.1721 -130.5
 2.820  0.5045  154.4   4.529   53.7  0.0839   37.3  0.1710 -131.3
 2.840  0.5054  153.9   4.496   53.4  0.0843   37.1  0.1700 -132.1
 2.860  0.5063  153.5   4.463   53.0  0.0847   37.0  0.1689 -132.9
 2.880  0.5073  153.0   4.430   52.7  0.0851   36.8  0.1679 -133.8
 2.900  0.5083  152.5   4.397   52.4  0.0855   36.7  0.1670 -134.6
 2.920  0.5093  152.1   4.365   52.0  0.0860   36.5  0.1661 -135.5
 2.940  0.5104  151.6   4.332   51.7  0.0864   36.4  0.1652 -136.4
 2.960  0.5115  151.1   4.300   51.3  0.0868   36.3  0.1644 -137.2
 2.980  0.5126  150.7   4.268   51.0  0.0872   36.1  0.1636 -138.1
 3.000  0.5138  150.2   4.236   50.6  0.0876   36.0  0.1628 -139.0
 3.100  0.5181  147.8   4.099   49.1  0.0896   35.2  0.1592 -143.4
 3.200  0.5233  145.5   3.964   47.6  0.0916   34.5  0.1565 -147.9
 3.300  0.5293  143.3   3.833   45.9  0.0936   33.8  0.1548 -152.5
 3.400  0.5362  141.1   3.705   44.1  0.0956   33.1  0.1542 -157.3
 3.500  0.5438  138.9   3.581   42.2  0.0976   32.5  0.1546 -162.0
 3.600  0.5482  136.9   3.476   40.8  0.0995   31.7  0.1549 -166.2
 3.700  0.5533  134.9   3.374   39.3  0.1015   30.8  0.1561 -170.3
 3.800  0.5591  133.0   3.274   37.7  0.1035   30.1  0.1580 -174.3
 3.900  0.5654  131.1   3.177   36.0  0.1055   29.3  0.1607 -178.2
 4.000  0.5724  129.2   3.083   34.2  0.1075   28.6  0.1641  178.0
 4.100  0.5760  127.6   3.000   32.8  0.1092   27.7  0.1669  174.7
 4.200  0.5799  126.1   2.918   31.4  0.1110   26.9  0.1702  171.5
 4.300  0.5843  124.6   2.838   29.9  0.1128   26.1  0.1741  168.5
 4.400  0.5891  123.1   2.760   28.3  0.1146   25.3  0.1784  165.6
 4.500  0.5943  121.6   2.685   26.6  0.1164   24.5  0.1831  162.8
 4.600  0.5964  120.4   2.619   25.4  0.1180   23.7  0.1858  160.4
 4.700  0.5988  119.1   2.555   24.1  0.1197   22.9  0.1888  158.0
 4.800  0.6015  117.9   2.491   22.8  0.1214   22.2  0.1922  155.8
 4.900  0.6044  116.7   2.429   21.4  0.1231   21.4  0.1958  153.6
 5.000  0.6076  115.5   2.369   19.9  0.1248   20.7  0.1997  151.5
 5.100  0.6099  114.2   2.318   18.7  0.1263   19.9  0.2030  149.5
 5.200  0.6126  113.0   2.268   17.5  0.1279   19.1  0.2066  147.5
 5.300  0.6155  111.7   2.219   16.2  0.1295   18.3  0.2104  145.6
 5.400  0.6187  110.5   2.171   14.9  0.1311   17.5  0.2145  143.8
 5.500  0.6222  109.3   2.124   13.5  0.1327   16.8  0.2187  142.0
 5.600  0.6256  108.1   2.084   12.3  0.1343   16.0  0.2226  140.1
 5.700  0.6294  106.9   2.044   11.0  0.1359   15.2  0.2267  138.3
 5.800  0.6334  105.7   2.006    9.7  0.1375   14.5  0.2311  136.5
 5.900  0.6377  104.5   1.968    8.4  0.1392   13.7  0.2356  134.8
 6.000  0.6422  103.3   1.932    7.0  0.1409   13.0  0.2404  133.2
 6.100  0.6460  102.2   1.898    5.8  0.1425   12.1  0.2441  131.5
 6.200  0.6501  101.1   1.865    4.5  0.1442   11.2  0.2481  129.9
 6.300  0.6544  100.0   1.832    3.1  0.1458   10.4  0.2523  128.3
 6.400  0.6589   99.0   1.801    1.7  0.1476    9.5  0.2566  126.8
 6.500  0.6637   97.9   1.771    0.3  0.1493    8.7  0.2611  125.3
 6.600  0.6665   96.8   1.743   -1.0  0.1510    7.8  0.2639  123.7
 6.800  0.6727   94.6   1.688   -3.7  0.1546    5.9  0.2700  120.5
 7.000  0.6800   92.4   1.638   -6.5  0.1583    4.2  0.2770  117.5
 7.200  0.6837   90.1   1.587   -9.2  0.1615    2.1  0.2852  114.6
 7.400  0.6886   87.8   1.540  -12.0  0.1648   -0.0  0.2941  111.8
 7.600  0.6933   85.4   1.491  -14.8  0.1675   -2.2  0.3039  109.0
 7.800  0.6982   82.7   1.439  -17.6  0.1695   -4.5  0.3148  106.0
 8.000  0.7046   80.1   1.391  -20.6  0.1717   -6.8  0.3264  103.3
 8.200  0.7103   77.3   1.337  -23.1  0.1717   -8.9  0.3393  100.0
 8.400  0.7177   74.6   1.286  -25.8  0.1719  -11.0  0.3532   96.9
 8.600  0.7282   71.9   1.240  -28.2  0.1721  -12.7  0.3698   93.9
 8.800  0.7417   69.5   1.196  -30.4  0.1721  -14.2  0.3890   91.2
 9.000  0.7565   67.1   1.154  -32.7  0.1722  -15.7  0.4090   88.7
 9.200  0.7768   65.2   1.121  -34.7  0.1727  -17.0  0.4321   86.8
 9.400  0.7978   63.5   1.088  -36.8  0.1734  -18.3  0.4556   85.1
 9.600  0.8164   61.9   1.052  -38.9  0.1740  -19.7  0.4775   83.6
 9.800  0.8323   60.5   1.011  -41.0  0.1748  -21.2  0.4978   82.2
10.000  0.8486   59.2   0.972  -43.3  0.1756  -22.6  0.5184   80.9
!
!  f       NFmin   Gammaopt  rn/50
! GHz       dB    MAG  ANG    -
 0.900      0.95  0.03 -151   0.13
 1.800      1.27  0.13 -152   0.12
 2.400      1.38  0.13 -160   0.14
 3.000      1.43  0.22 -145   0.13
 4.000      1.58  0.35 -123   0.17
 5.000      2.03  0.43 -103   0.28
 6.000      2.40  0.47  -91   0.43
!
! (c) 2016  Infineon Technologies AG, Munich
