! Infineon Technologies  Discrete & RF Semiconductors
! BFP405F
! VCE =  0.5 V,  IC =  8.0 mA
! Common Emitter S-Parameters:                            Nov 2015
# GHz  S  MA  R  50
!  f         S11            S21            S12            S22
! GHz     MAG   ANG      MAG   ANG      MAG   ANG      MAG   ANG
 0.030  0.7465   -3.1  18.464  177.6  0.0014   85.0  0.9528   -1.4
 0.035  0.7443   -3.5  18.507  177.3  0.0017  114.8  0.9531   -1.7
 0.040  0.7422   -4.0  18.550  177.0  0.0022  133.3  0.9535   -1.9
 0.045  0.7456   -4.6  18.637  176.4  0.0032   94.0  0.9588   -2.1
 0.050  0.7491   -5.1  18.726  175.8  0.0049   77.5  0.9641   -2.3
 0.055  0.7468   -5.5  18.652  175.5  0.0046   81.8  0.9594   -2.7
 0.060  0.7446   -6.0  18.578  175.1  0.0043   86.8  0.9547   -3.1
 0.065  0.7434   -6.4  18.586  174.4  0.0029   93.4  0.9534   -3.3
 0.070  0.7422   -6.8  18.596  173.8  0.0016  111.5  0.9521   -3.5
 0.075  0.7425   -7.6  18.550  173.4  0.0027  116.5  0.9529   -3.7
 0.080  0.7430   -8.3  18.504  173.0  0.0039  118.5  0.9538   -3.9
 0.085  0.7430   -8.8  18.538  172.8  0.0044  112.8  0.9541   -4.4
 0.090  0.7430   -9.3  18.573  172.7  0.0049  108.3  0.9544   -4.9
 0.095  0.7411   -9.7  18.526  172.3  0.0060   88.3  0.9524   -5.1
 0.100  0.7393  -10.2  18.480  171.9  0.0076   75.5  0.9504   -5.4
 0.105  0.7387  -10.7  18.471  171.5  0.0077   85.2  0.9508   -5.6
 0.110  0.7381  -11.3  18.464  171.0  0.0081   94.3  0.9512   -5.8
 0.115  0.7382  -11.8  18.445  170.7  0.0068   90.4  0.9514   -6.1
 0.120  0.7384  -12.3  18.427  170.3  0.0055   84.7  0.9517   -6.3
 0.125  0.7367  -12.8  18.427  169.8  0.0065   84.0  0.9507   -6.6
 0.130  0.7351  -13.3  18.428  169.3  0.0076   83.5  0.9498   -6.9
 0.135  0.7343  -13.8  18.437  169.0  0.0076   90.0  0.9495   -7.1
 0.140  0.7336  -14.4  18.447  168.8  0.0077   96.4  0.9493   -7.4
 0.145  0.7335  -14.9  18.436  168.4  0.0076   85.4  0.9472   -7.7
 0.150  0.7335  -15.5  18.426  168.0  0.0077   74.4  0.9451   -8.0
 0.155  0.7322  -16.0  18.402  167.5  0.0080   75.0  0.9441   -8.3
 0.160  0.7310  -16.5  18.380  167.1  0.0082   75.5  0.9432   -8.5
 0.165  0.7299  -17.0  18.359  166.6  0.0085   76.0  0.9423   -8.8
 0.170  0.7288  -17.4  18.339  166.1  0.0087   76.5  0.9414   -9.1
 0.175  0.7277  -17.9  18.321  165.7  0.0090   77.0  0.9405   -9.3
 0.180  0.7267  -18.4  18.303  165.2  0.0093   77.4  0.9397   -9.6
 0.185  0.7258  -18.9  18.287  164.7  0.0095   77.8  0.9389   -9.9
 0.190  0.7249  -19.4  18.272  164.2  0.0098   78.2  0.9381  -10.2
 0.195  0.7241  -19.9  18.258  163.8  0.0100   78.6  0.9373  -10.4
 0.200  0.7233  -20.4  18.246  163.3  0.0103   78.9  0.9365  -10.7
 0.220  0.7190  -22.2  18.082  161.8  0.0120   79.1  0.9320  -11.7
 0.240  0.7155  -24.1  17.930  160.4  0.0137   79.2  0.9277  -12.7
 0.260  0.7106  -25.9  17.795  158.8  0.0149   78.7  0.9224  -13.7
 0.280  0.7043  -27.8  17.678  157.2  0.0156   77.7  0.9159  -14.7
 0.300  0.6988  -29.7  17.575  155.6  0.0164   76.8  0.9097  -15.7
 0.320  0.6925  -31.5  17.389  154.1  0.0174   75.7  0.9032  -16.6
 0.340  0.6868  -33.4  17.214  152.7  0.0185   74.7  0.8969  -17.5
 0.360  0.6809  -35.2  17.048  151.2  0.0195   73.9  0.8908  -18.5
 0.380  0.6745  -37.0  16.890  149.8  0.0206   73.2  0.8848  -19.4
 0.400  0.6689  -38.9  16.742  148.3  0.0217   72.5  0.8790  -20.3
 0.420  0.6628  -40.5  16.567  147.0  0.0226   71.2  0.8706  -21.1
 0.440  0.6573  -42.2  16.402  145.6  0.0235   70.1  0.8624  -21.9
 0.450  0.6547  -43.0  16.323  144.9  0.0240   69.5  0.8583  -22.3
 0.460  0.6510  -43.8  16.222  144.3  0.0244   69.7  0.8544  -22.7
 0.480  0.6441  -45.5  16.026  142.9  0.0253   70.1  0.8469  -23.6
 0.500  0.6377  -47.2  15.839  141.6  0.0262   70.5  0.8395  -24.5
 0.520  0.6298  -48.7  15.639  140.4  0.0269   69.7  0.8313  -25.2
 0.540  0.6223  -50.3  15.446  139.2  0.0275   69.0  0.8232  -25.9
 0.560  0.6153  -51.8  15.260  138.0  0.0282   68.2  0.8152  -26.6
 0.580  0.6088  -53.5  15.081  136.8  0.0288   67.6  0.8074  -27.4
 0.600  0.6028  -55.1  14.909  135.5  0.0295   66.9  0.7997  -28.1
 0.620  0.5955  -56.5  14.723  134.4  0.0303   66.2  0.7916  -28.7
 0.640  0.5885  -57.9  14.543  133.3  0.0310   65.6  0.7837  -29.3
 0.660  0.5819  -59.3  14.367  132.2  0.0318   65.0  0.7758  -29.9
 0.680  0.5756  -60.8  14.198  131.1  0.0325   64.4  0.7680  -30.6
 0.700  0.5698  -62.3  14.034  129.9  0.0333   63.9  0.7603  -31.2
 0.720  0.5628  -63.6  13.840  128.9  0.0339   63.8  0.7524  -31.7
 0.740  0.5561  -65.0  13.650  127.9  0.0344   63.6  0.7446  -32.3
 0.760  0.5497  -66.4  13.464  126.9  0.0350   63.5  0.7368  -32.8
 0.780  0.5437  -67.8  13.283  125.9  0.0355   63.3  0.7291  -33.4
 0.800  0.5380  -69.3  13.106  124.8  0.0361   63.2  0.7215  -34.0
 0.820  0.5317  -70.5  12.939  123.9  0.0367   62.5  0.7140  -34.5
 0.840  0.5256  -71.7  12.774  123.0  0.0372   61.9  0.7065  -35.0
 0.860  0.5197  -72.9  12.613  122.1  0.0378   61.3  0.6991  -35.5
 0.880  0.5141  -74.2  12.455  121.2  0.0384   60.7  0.6917  -36.0
 0.900  0.5088  -75.5  12.301  120.2  0.0390   60.1  0.6844  -36.5
 0.920  0.5031  -76.7  12.139  119.4  0.0397   59.6  0.6776  -36.9
 0.940  0.4977  -77.9  11.979  118.6  0.0403   59.1  0.6708  -37.4
 0.960  0.4925  -79.1  11.821  117.8  0.0410   58.7  0.6641  -37.8
 0.980  0.4875  -80.3  11.666  117.0  0.0416   58.2  0.6574  -38.2
 1.000  0.4827  -81.6  11.513  116.1  0.0423   57.8  0.6508  -38.7
 1.020  0.4773  -82.7  11.365  115.4  0.0426   57.8  0.6443  -39.1
 1.040  0.4721  -83.8  11.219  114.7  0.0429   57.7  0.6378  -39.4
 1.060  0.4670  -84.9  11.075  113.9  0.0433   57.7  0.6314  -39.8
 1.080  0.4622  -86.1  10.932  113.2  0.0436   57.6  0.6250  -40.2
 1.100  0.4575  -87.3  10.792  112.4  0.0439   57.6  0.6186  -40.6
 1.120  0.4528  -88.4  10.660  111.7  0.0444   57.4  0.6129  -40.9
 1.140  0.4483  -89.5  10.530  111.0  0.0449   57.2  0.6073  -41.2
 1.160  0.4440  -90.6  10.401  110.3  0.0455   57.0  0.6017  -41.5
 1.180  0.4398  -91.7  10.274  109.6  0.0460   56.8  0.5961  -41.9
 1.200  0.4358  -92.9  10.149  108.8  0.0465   56.6  0.5905  -42.2
 1.220  0.4314  -93.9  10.026  108.2  0.0468   56.5  0.5848  -42.5
 1.240  0.4272  -94.9   9.904  107.5  0.0471   56.3  0.5791  -42.8
 1.260  0.4231  -96.0   9.784  106.9  0.0475   56.2  0.5734  -43.1
 1.280  0.4191  -97.0   9.665  106.2  0.0478   56.0  0.5677  -43.4
 1.300  0.4153  -98.1   9.547  105.5  0.0481   55.9  0.5620  -43.7
 1.320  0.4120  -99.0   9.436  105.0  0.0486   55.8  0.5571  -44.0
 1.340  0.4088 -100.0   9.326  104.4  0.0491   55.6  0.5523  -44.2
 1.360  0.4057 -100.9   9.217  103.9  0.0496   55.5  0.5474  -44.5
 1.380  0.4027 -101.9   9.108  103.3  0.0501   55.3  0.5426  -44.8
 1.400  0.3999 -102.9   9.001  102.7  0.0506   55.2  0.5378  -45.1
 1.420  0.3965 -103.8   8.900  102.2  0.0510   55.1  0.5332  -45.4
 1.440  0.3931 -104.8   8.800  101.7  0.0514   55.0  0.5287  -45.6
 1.460  0.3899 -105.8   8.700  101.2  0.0517   54.8  0.5241  -45.9
 1.480  0.3868 -106.8   8.601  100.6  0.0521   54.7  0.5196  -46.1
 1.500  0.3838 -107.8   8.503  100.1  0.0525   54.6  0.5151  -46.4
 1.520  0.3812 -108.7   8.412   99.6  0.0528   54.5  0.5111  -46.6
 1.540  0.3787 -109.6   8.322   99.1  0.0531   54.5  0.5072  -46.8
 1.560  0.3763 -110.5   8.232   98.6  0.0535   54.4  0.5032  -47.0
 1.580  0.3739 -111.4   8.143   98.1  0.0538   54.4  0.4992  -47.3
 1.600  0.3717 -112.3   8.055   97.6  0.0541   54.3  0.4953  -47.5
 1.620  0.3693 -113.1   7.968   97.1  0.0545   54.2  0.4911  -47.7
 1.640  0.3670 -113.9   7.881   96.6  0.0549   54.0  0.4870  -47.9
 1.660  0.3647 -114.7   7.795   96.1  0.0552   53.9  0.4828  -48.1
 1.680  0.3625 -115.6   7.710   95.6  0.0556   53.7  0.4786  -48.4
 1.700  0.3604 -116.4   7.625   95.1  0.0560   53.6  0.4745  -48.6
 1.720  0.3582 -117.3   7.548   94.7  0.0564   53.6  0.4710  -48.9
 1.740  0.3560 -118.1   7.472   94.2  0.0568   53.6  0.4675  -49.1
 1.760  0.3540 -119.0   7.396   93.8  0.0573   53.6  0.4640  -49.4
 1.780  0.3520 -119.9   7.321   93.4  0.0577   53.6  0.4606  -49.6
 1.800  0.3501 -120.8   7.246   92.9  0.0581   53.6  0.4571  -49.9
 1.820  0.3483 -121.6   7.177   92.5  0.0585   53.6  0.4536  -50.1
 1.840  0.3465 -122.3   7.109   92.1  0.0589   53.6  0.4502  -50.3
 1.860  0.3447 -123.1   7.041   91.7  0.0592   53.5  0.4467  -50.5
 1.880  0.3431 -123.9   6.973   91.3  0.0596   53.5  0.4432  -50.7
 1.900  0.3415 -124.7   6.906   90.9  0.0600   53.5  0.4398  -50.9
 1.920  0.3404 -125.5   6.844   90.5  0.0602   53.4  0.4373  -51.2
 1.940  0.3393 -126.3   6.782   90.1  0.0605   53.3  0.4349  -51.5
 1.960  0.3383 -127.1   6.721   89.7  0.0607   53.3  0.4324  -51.8
 1.980  0.3374 -128.0   6.660   89.2  0.0610   53.2  0.4300  -52.2
 2.000  0.3365 -128.8   6.599   88.8  0.0612   53.1  0.4276  -52.5
 2.020  0.3349 -129.5   6.538   88.4  0.0617   53.1  0.4247  -52.7
 2.040  0.3333 -130.3   6.477   88.0  0.0623   53.1  0.4217  -52.9
 2.060  0.3318 -131.0   6.416   87.6  0.0628   53.0  0.4188  -53.0
 2.080  0.3304 -131.7   6.356   87.2  0.0634   53.0  0.4158  -53.2
 2.100  0.3290 -132.5   6.296   86.8  0.0639   53.0  0.4129  -53.4
 2.120  0.3276 -133.2   6.240   86.5  0.0643   52.9  0.4103  -53.6
 2.140  0.3263 -134.0   6.184   86.1  0.0647   52.8  0.4078  -53.9
 2.160  0.3250 -134.7   6.128   85.7  0.0650   52.6  0.4053  -54.1
 2.180  0.3238 -135.4   6.072   85.4  0.0654   52.5  0.4027  -54.4
 2.200  0.3226 -136.2   6.017   85.0  0.0658   52.4  0.4002  -54.6
 2.220  0.3216 -136.9   5.965   84.7  0.0662   52.4  0.3979  -54.8
 2.240  0.3205 -137.5   5.914   84.3  0.0666   52.4  0.3956  -55.0
 2.260  0.3196 -138.2   5.862   84.0  0.0669   52.4  0.3933  -55.2
 2.280  0.3187 -138.9   5.811   83.7  0.0673   52.4  0.3910  -55.4
 2.300  0.3178 -139.6   5.760   83.3  0.0677   52.4  0.3887  -55.6
 2.320  0.3166 -140.2   5.714   83.0  0.0681   52.4  0.3867  -55.8
 2.340  0.3155 -140.9   5.668   82.7  0.0684   52.3  0.3846  -56.0
 2.360  0.3144 -141.5   5.622   82.4  0.0688   52.3  0.3826  -56.3
 2.380  0.3133 -142.2   5.576   82.0  0.0691   52.2  0.3806  -56.5
 2.400  0.3123 -142.8   5.531   81.7  0.0695   52.2  0.3786  -56.7
 2.420  0.3115 -143.4   5.487   81.4  0.0697   52.1  0.3770  -56.8
 2.440  0.3108 -144.0   5.443   81.1  0.0699   52.0  0.3753  -56.9
 2.460  0.3101 -144.5   5.400   80.8  0.0701   52.0  0.3737  -57.1
 2.480  0.3094 -145.1   5.356   80.4  0.0703   51.9  0.3720  -57.2
 2.500  0.3088 -145.7   5.313   80.1  0.0705   51.8  0.3704  -57.3
 2.520  0.3080 -146.3   5.272   79.8  0.0708   51.8  0.3687  -57.5
 2.540  0.3072 -146.9   5.231   79.5  0.0712   51.9  0.3669  -57.7
 2.560  0.3064 -147.5   5.190   79.2  0.0715   51.9  0.3652  -57.8
 2.580  0.3057 -148.1   5.150   78.9  0.0719   52.0  0.3635  -58.0
 2.600  0.3050 -148.7   5.109   78.6  0.0722   52.0  0.3618  -58.2
 2.620  0.3044 -149.3   5.072   78.3  0.0726   51.9  0.3603  -58.3
 2.640  0.3039 -149.9   5.034   78.0  0.0730   51.8  0.3587  -58.4
 2.660  0.3034 -150.4   4.997   77.7  0.0734   51.8  0.3572  -58.6
 2.680  0.3029 -151.0   4.960   77.4  0.0738   51.7  0.3556  -58.7
 2.700  0.3025 -151.6   4.923   77.1  0.0742   51.6  0.3541  -58.8
 2.720  0.3018 -152.1   4.889   76.8  0.0746   51.6  0.3526  -59.0
 2.740  0.3010 -152.6   4.856   76.6  0.0750   51.7  0.3510  -59.2
 2.760  0.3003 -153.2   4.822   76.3  0.0755   51.7  0.3495  -59.5
 2.780  0.2997 -153.7   4.789   76.0  0.0759   51.8  0.3480  -59.7
 2.800  0.2990 -154.2   4.756   75.7  0.0763   51.8  0.3465  -59.9
 2.820  0.2986 -154.7   4.722   75.4  0.0767   51.7  0.3452  -60.0
 2.840  0.2982 -155.2   4.688   75.2  0.0771   51.7  0.3439  -60.2
 2.860  0.2978 -155.7   4.654   74.9  0.0776   51.6  0.3425  -60.3
 2.880  0.2974 -156.2   4.621   74.6  0.0780   51.6  0.3412  -60.5
 2.900  0.2971 -156.7   4.587   74.3  0.0784   51.5  0.3399  -60.6
 2.920  0.2966 -157.3   4.558   74.0  0.0789   51.4  0.3386  -60.8
 2.940  0.2962 -157.8   4.528   73.8  0.0794   51.3  0.3374  -61.0
 2.960  0.2958 -158.4   4.499   73.5  0.0800   51.2  0.3361  -61.1
 2.980  0.2954 -158.9   4.470   73.2  0.0805   51.1  0.3349  -61.3
 3.000  0.2951 -159.5   4.441   72.9  0.0810   51.0  0.3336  -61.5
 3.100  0.2931 -161.7   4.297   71.6  0.0820   50.7  0.3277  -62.1
 3.200  0.2911 -164.4   4.158   70.3  0.0843   50.7  0.3228  -62.9
 3.300  0.2905 -166.4   4.040   69.0  0.0853   50.4  0.3179  -63.5
 3.400  0.2884 -169.0   3.914   67.8  0.0877   50.2  0.3143  -64.5
 3.500  0.2875 -170.9   3.808   66.6  0.0895   49.9  0.3102  -64.8
 3.600  0.2861 -173.0   3.701   65.4  0.0914   49.7  0.3066  -65.2
 3.700  0.2860 -175.2   3.602   64.3  0.0938   49.8  0.3025  -65.7
 3.800  0.2852 -177.2   3.506   63.2  0.0956   49.3  0.2991  -66.4
 3.900  0.2858 -179.1   3.420   61.9  0.0980   49.2  0.2943  -66.9
 4.000  0.2853  179.0   3.336   60.9  0.0995   48.8  0.2922  -67.2
 4.100  0.2864  177.0   3.257   59.7  0.1017   48.5  0.2874  -67.7
 4.200  0.2862  174.7   3.179   58.7  0.1032   48.3  0.2837  -68.2
 4.300  0.2889  172.9   3.110   57.5  0.1052   48.1  0.2800  -68.8
 4.400  0.2885  170.8   3.040   56.5  0.1078   47.6  0.2771  -69.1
 4.500  0.2904  169.4   2.973   55.5  0.1096   47.4  0.2736  -69.4
 4.600  0.2909  167.2   2.909   54.3  0.1113   46.7  0.2697  -69.7
 4.700  0.2932  166.0   2.850   53.3  0.1136   46.3  0.2647  -70.0
 4.800  0.2951  163.8   2.793   52.3  0.1156   46.3  0.2625  -70.5
 4.900  0.2970  162.6   2.737   51.3  0.1172   46.0  0.2575  -70.8
 5.000  0.2984  160.8   2.686   50.2  0.1198   45.6  0.2539  -71.3
 5.100  0.2993  159.3   2.634   49.2  0.1221   45.0  0.2503  -71.7
 5.200  0.3013  157.7   2.586   48.1  0.1238   44.7  0.2462  -72.0
 5.300  0.3034  156.1   2.538   47.0  0.1254   44.3  0.2423  -72.6
 5.400  0.3043  154.8   2.494   46.1  0.1277   44.1  0.2390  -72.9
 5.500  0.3065  153.2   2.450   45.0  0.1301   43.4  0.2363  -73.2
 5.600  0.3073  151.8   2.408   44.0  0.1321   43.0  0.2325  -73.5
 5.700  0.3093  150.3   2.367   43.0  0.1339   42.6  0.2290  -73.7
 5.800  0.3101  149.0   2.329   42.0  0.1359   42.2  0.2253  -74.2
 5.900  0.3122  147.4   2.291   41.0  0.1382   41.7  0.2221  -74.4
 6.000  0.3129  146.0   2.254   40.0  0.1400   41.2  0.2192  -74.6
 6.100  0.3147  144.5   2.217   39.0  0.1419   40.7  0.2152  -74.6
 6.200  0.3161  143.0   2.182   38.0  0.1436   40.4  0.2118  -75.0
 6.300  0.3181  141.4   2.148   37.0  0.1457   39.7  0.2074  -75.2
 6.400  0.3188  139.9   2.115   36.0  0.1477   39.4  0.2040  -75.6
 6.500  0.3213  138.2   2.082   35.0  0.1496   39.0  0.2007  -75.5
 6.600  0.3228  136.7   2.052   34.1  0.1519   38.5  0.1966  -75.6
 6.800  0.3271  133.6   1.990   32.1  0.1557   37.6  0.1882  -75.3
 7.000  0.3322  130.3   1.934   30.2  0.1592   36.6  0.1792  -74.7
 7.200  0.3387  127.2   1.877   28.3  0.1633   35.8  0.1676  -74.3
 7.400  0.3478  124.5   1.827   26.5  0.1672   34.8  0.1566  -73.8
 7.600  0.3571  122.1   1.780   24.9  0.1712   33.9  0.1442  -72.7
 7.800  0.3687  119.8   1.733   23.0  0.1758   32.8  0.1285  -71.8
 8.000  0.3827  117.8   1.691   21.2  0.1799   31.8  0.1118  -70.6
 8.200  0.3975  116.0   1.651   19.5  0.1837   30.6  0.0922  -68.3
 8.400  0.4126  114.4   1.613   17.7  0.1876   29.5  0.0728  -64.8
 8.600  0.4276  112.9   1.575   15.9  0.1913   28.3  0.0523  -58.2
 8.800  0.4425  111.4   1.538   14.2  0.1948   27.3  0.0323  -41.7
 9.000  0.4577  110.1   1.503   12.3  0.1984   26.2  0.0206    4.2
 9.200  0.4703  108.9   1.469   10.8  0.2019   25.1  0.0291   57.0
 9.400  0.4831  107.7   1.437    9.1  0.2054   23.9  0.0487   76.8
 9.600  0.4950  106.4   1.406    7.5  0.2090   22.8  0.0703   85.6
 9.800  0.5061  105.1   1.378    5.8  0.2127   21.7  0.0924   90.8
10.000  0.5174  103.9   1.351    4.1  0.2165   20.6  0.1151   94.0
10.200  0.5266  102.2   1.323    2.6  0.2193   19.3  0.1383   97.3
10.400  0.5362  100.6   1.295    0.9  0.2222   18.1  0.1618   99.6
10.600  0.5450   98.8   1.268   -0.7  0.2249   16.9  0.1846  101.9
10.800  0.5530   96.8   1.240   -2.4  0.2273   15.7  0.2070  104.3
11.000  0.5617   94.9   1.214   -4.1  0.2298   14.6  0.2296  106.2
11.200  0.5673   93.1   1.186   -5.4  0.2315   13.8  0.2463  109.2
11.400  0.5734   91.3   1.158   -6.8  0.2332   12.9  0.2636  111.9
11.600  0.5773   89.9   1.134   -8.0  0.2356   12.2  0.2779  115.1
11.800  0.5786   88.8   1.112   -9.0  0.2385   11.5  0.2898  119.0
12.000  0.5801   87.7   1.090  -10.1  0.2415   10.9  0.3029  122.5
!
!  f       NFmin   Gammaopt  rn/50
! GHz       dB    MAG  ANG    -
 0.450      1.52  0.27    6   0.33
 0.900      1.54  0.24   12   0.32
 1.500      1.60  0.23   17   0.29
 1.900      1.63  0.21   23   0.30
 2.400      1.77  0.20   31   0.33
 3.000      1.84  0.18   45   0.31
 3.500      1.90  0.16   52   0.30
 4.500      2.05  0.13   55   0.20
 5.500      2.24  0.07   59   0.06
!
! (c) 2015  Infineon Technologies AG, Munich
