! Infineon Technologies  Discrete & RF Semiconductors
! BFP450
! VCE =  2.0 V,  IC =  90 mA
! Common Emitter S-Parameters:                            Nov 2015
# GHz  S  MA  R  50
!  f         S11            S21            S12            S22
! GHz     MAG   ANG      MAG   ANG      MAG   ANG      MAG   ANG
 0.030  0.2579 -135.3  79.329  162.1  0.0044   81.8  0.8278  -25.8
 0.035  0.2845 -135.4  78.049  159.3  0.0049   78.2  0.8190  -30.1
 0.040  0.3111 -135.5  76.963  156.4  0.0055   75.4  0.8149  -34.5
 0.045  0.3366 -136.5  75.444  153.8  0.0060   73.2  0.8040  -38.7
 0.050  0.3621 -137.3  74.092  151.0  0.0066   71.3  0.7974  -42.9
 0.055  0.3878 -138.4  72.328  148.8  0.0071   69.6  0.7851  -46.7
 0.060  0.4136 -139.3  70.681  146.4  0.0076   68.2  0.7764  -50.6
 0.065  0.4328 -140.4  68.883  144.0  0.0079   67.0  0.7638  -54.1
 0.070  0.4521 -141.5  67.211  141.5  0.0083   65.9  0.7543  -57.8
 0.075  0.4694 -142.4  65.535  139.6  0.0087   63.9  0.7422  -61.2
 0.080  0.4868 -143.3  63.932  137.7  0.0092   62.1  0.7327  -64.6
 0.085  0.5005 -144.5  62.202  135.9  0.0095   61.4  0.7214  -67.6
 0.090  0.5145 -145.7  60.533  134.1  0.0098   60.7  0.7121  -70.7
 0.095  0.5274 -146.8  58.952  132.5  0.0101   60.2  0.7016  -73.6
 0.100  0.5404 -147.9  57.419  130.8  0.0104   59.7  0.6929  -76.5
 0.105  0.5516 -148.9  55.961  129.3  0.0107   58.8  0.6830  -79.1
 0.110  0.5629 -149.8  54.541  127.8  0.0110   57.9  0.6746  -81.7
 0.115  0.5710 -150.9  53.112  126.5  0.0113   57.4  0.6658  -84.2
 0.120  0.5793 -152.0  51.713  125.1  0.0116   56.9  0.6582  -86.7
 0.125  0.5872 -152.7  50.418  123.9  0.0117   56.3  0.6503  -88.9
 0.130  0.5951 -153.3  49.146  122.6  0.0119   55.8  0.6434  -91.2
 0.135  0.6032 -154.2  47.956  121.5  0.0121   55.2  0.6362  -93.2
 0.140  0.6115 -155.1  46.783  120.4  0.0124   54.7  0.6299  -95.3
 0.145  0.6164 -155.9  45.636  119.3  0.0126   54.5  0.6235  -97.2
 0.150  0.6214 -156.7  44.505  118.2  0.0128   54.3  0.6178  -99.2
 0.155  0.6253 -157.4  43.564  117.5  0.0130   54.2  0.6114 -100.7
 0.160  0.6292 -158.0  42.629  116.8  0.0131   54.0  0.6054 -102.2
 0.165  0.6332 -158.6  41.701  116.1  0.0133   53.9  0.5998 -103.7
 0.170  0.6373 -159.3  40.781  115.3  0.0135   53.7  0.5946 -105.2
 0.175  0.6415 -159.9  39.868  114.5  0.0136   53.6  0.5899 -106.8
 0.180  0.6457 -160.5  38.963  113.7  0.0138   53.5  0.5856 -108.4
 0.185  0.6500 -161.1  38.066  112.8  0.0140   53.4  0.5818 -110.0
 0.190  0.6544 -161.7  37.180  111.9  0.0142   53.2  0.5784 -111.7
 0.195  0.6589 -162.3  36.303  110.9  0.0143   53.1  0.5756 -113.3
 0.200  0.6634 -162.9  35.437  109.9  0.0145   53.0  0.5732 -115.0
 0.220  0.6711 -164.7  32.944  107.8  0.0151   53.1  0.5600 -119.5
 0.240  0.6795 -166.4  30.501  105.4  0.0158   53.2  0.5503 -124.1
 0.260  0.6866 -167.9  28.376  103.3  0.0164   53.4  0.5428 -128.2
 0.280  0.6924 -169.3  26.543  101.6  0.0171   53.8  0.5359 -131.6
 0.300  0.6985 -170.6  24.737   99.6  0.0177   54.1  0.5310 -135.1
 0.320  0.7016 -171.7  23.375   98.4  0.0183   54.4  0.5263 -137.8
 0.340  0.7049 -172.8  22.025   97.0  0.0189   54.7  0.5228 -140.4
 0.360  0.7076 -173.8  20.826   95.6  0.0195   55.0  0.5200 -142.9
 0.380  0.7096 -174.7  19.775   94.4  0.0202   55.5  0.5175 -145.1
 0.400  0.7118 -175.6  18.734   93.1  0.0208   55.9  0.5158 -147.3
 0.420  0.7139 -176.4  17.898   92.1  0.0214   56.2  0.5140 -149.1
 0.440  0.7161 -177.2  17.068   91.1  0.0221   56.5  0.5127 -151.0
 0.450  0.7172 -177.6  16.655   90.5  0.0224   56.7  0.5122 -151.9
 0.460  0.7177 -177.9  16.314   90.1  0.0227   56.9  0.5116 -152.7
 0.480  0.7188 -178.6  15.635   89.2  0.0234   57.2  0.5108 -154.2
 0.500  0.7200 -179.3  14.960   88.3  0.0240   57.5  0.5103 -155.7
 0.520  0.7210 -179.9  14.443   87.6  0.0247   57.8  0.5097 -156.9
 0.540  0.7220  179.5  13.927   86.9  0.0253   58.0  0.5093 -158.2
 0.560  0.7232  178.9  13.414   86.2  0.0260   58.3  0.5091 -159.4
 0.580  0.7244  178.3  12.904   85.4  0.0266   58.5  0.5092 -160.7
 0.600  0.7257  177.7  12.396   84.5  0.0273   58.7  0.5095 -161.9
 0.620  0.7262  177.2  12.023   84.0  0.0280   58.9  0.5094 -162.9
 0.640  0.7267  176.7  11.651   83.4  0.0287   59.0  0.5095 -163.9
 0.660  0.7273  176.1  11.280   82.8  0.0293   59.1  0.5097 -164.8
 0.680  0.7280  175.6  10.911   82.1  0.0300   59.3  0.5101 -165.8
 0.700  0.7287  175.1  10.543   81.4  0.0307   59.4  0.5106 -166.8
 0.720  0.7291  174.6  10.262   80.9  0.0314   59.5  0.5108 -167.6
 0.740  0.7296  174.2   9.982   80.3  0.0321   59.6  0.5111 -168.5
 0.760  0.7301  173.7   9.702   79.8  0.0327   59.6  0.5116 -169.3
 0.780  0.7307  173.3   9.424   79.1  0.0334   59.7  0.5121 -170.2
 0.800  0.7313  172.8   9.147   78.5  0.0341   59.8  0.5128 -171.0
 0.820  0.7318  172.4   8.932   78.1  0.0348   59.8  0.5132 -171.7
 0.840  0.7323  172.0   8.717   77.6  0.0355   59.8  0.5137 -172.4
 0.860  0.7328  171.5   8.503   77.1  0.0361   59.9  0.5142 -173.1
 0.880  0.7334  171.1   8.289   76.6  0.0368   59.9  0.5149 -173.8
 0.900  0.7340  170.7   8.076   76.1  0.0375   59.9  0.5156 -174.5
 0.920  0.7343  170.3   7.899   75.7  0.0382   59.9  0.5161 -175.2
 0.940  0.7347  169.9   7.722   75.2  0.0389   59.8  0.5167 -175.8
 0.960  0.7350  169.5   7.546   74.8  0.0395   59.8  0.5173 -176.5
 0.980  0.7354  169.1   7.370   74.3  0.0402   59.7  0.5180 -177.1
 1.000  0.7359  168.7   7.195   73.8  0.0409   59.7  0.5188 -177.8
 1.020  0.7363  168.3   7.057   73.4  0.0416   59.6  0.5193 -178.4
 1.040  0.7367  167.9   6.920   73.0  0.0423   59.6  0.5199 -178.9
 1.060  0.7372  167.6   6.783   72.5  0.0430   59.5  0.5205 -179.5
 1.080  0.7377  167.2   6.646   72.1  0.0437   59.5  0.5211  180.0
 1.100  0.7382  166.8   6.510   71.6  0.0444   59.4  0.5218  179.4
 1.120  0.7386  166.4   6.391   71.2  0.0451   59.3  0.5224  178.9
 1.140  0.7389  166.0   6.272   70.8  0.0458   59.2  0.5230  178.3
 1.160  0.7394  165.7   6.153   70.4  0.0465   59.1  0.5236  177.8
 1.180  0.7398  165.3   6.034   70.0  0.0472   59.0  0.5243  177.2
 1.200  0.7403  164.9   5.916   69.6  0.0479   58.9  0.5251  176.7
 1.220  0.7405  164.5   5.819   69.2  0.0486   58.8  0.5256  176.2
 1.240  0.7407  164.2   5.722   68.8  0.0493   58.7  0.5261  175.7
 1.260  0.7410  163.8   5.625   68.4  0.0499   58.5  0.5267  175.3
 1.280  0.7413  163.5   5.528   68.0  0.0506   58.4  0.5273  174.8
 1.300  0.7416  163.1   5.432   67.6  0.0513   58.3  0.5280  174.3
 1.320  0.7420  162.8   5.347   67.2  0.0520   58.2  0.5286  173.8
 1.340  0.7424  162.4   5.262   66.9  0.0527   58.0  0.5292  173.3
 1.360  0.7429  162.1   5.178   66.5  0.0534   57.9  0.5299  172.9
 1.380  0.7434  161.7   5.093   66.1  0.0541   57.7  0.5306  172.4
 1.400  0.7439  161.4   5.009   65.7  0.0548   57.6  0.5313  171.9
 1.420  0.7443  161.1   4.937   65.3  0.0555   57.4  0.5319  171.5
 1.440  0.7447  160.7   4.866   65.0  0.0562   57.3  0.5326  171.0
 1.460  0.7452  160.4   4.795   64.6  0.0568   57.1  0.5333  170.6
 1.480  0.7457  160.0   4.724   64.2  0.0575   57.0  0.5340  170.1
 1.500  0.7462  159.7   4.653   63.8  0.0582   56.8  0.5348  169.7
 1.520  0.7464  159.4   4.590   63.5  0.0589   56.6  0.5354  169.3
 1.540  0.7467  159.1   4.528   63.1  0.0596   56.5  0.5360  168.9
 1.560  0.7469  158.7   4.466   62.8  0.0602   56.3  0.5366  168.4
 1.580  0.7472  158.4   4.404   62.4  0.0609   56.2  0.5373  168.0
 1.600  0.7475  158.1   4.342   62.0  0.0616   56.0  0.5380  167.6
 1.620  0.7480  157.8   4.287   61.7  0.0623   55.8  0.5386  167.2
 1.640  0.7485  157.4   4.232   61.3  0.0630   55.6  0.5393  166.8
 1.660  0.7490  157.1   4.178   61.0  0.0636   55.4  0.5400  166.3
 1.680  0.7495  156.7   4.123   60.7  0.0643   55.3  0.5407  165.9
 1.700  0.7501  156.4   4.069   60.3  0.0650   55.1  0.5414  165.5
 1.720  0.7502  156.1   4.019   59.9  0.0657   54.9  0.5419  165.1
 1.740  0.7503  155.8   3.969   59.6  0.0663   54.7  0.5424  164.7
 1.760  0.7504  155.4   3.920   59.2  0.0670   54.5  0.5429  164.3
 1.780  0.7506  155.1   3.870   58.8  0.0676   54.3  0.5435  163.9
 1.800  0.7508  154.8   3.821   58.4  0.0683   54.1  0.5441  163.5
 1.820  0.7511  154.5   3.777   58.1  0.0690   53.9  0.5448  163.1
 1.840  0.7513  154.2   3.733   57.8  0.0696   53.7  0.5455  162.7
 1.860  0.7516  153.8   3.689   57.5  0.0703   53.5  0.5462  162.4
 1.880  0.7520  153.5   3.646   57.1  0.0709   53.3  0.5469  162.0
 1.900  0.7523  153.2   3.602   56.8  0.0716   53.1  0.5477  161.6
 1.920  0.7526  152.9   3.564   56.5  0.0723   52.9  0.5482  161.2
 1.940  0.7529  152.6   3.525   56.1  0.0729   52.6  0.5487  160.8
 1.960  0.7533  152.2   3.487   55.7  0.0736   52.4  0.5492  160.4
 1.980  0.7537  151.9   3.449   55.4  0.0742   52.2  0.5498  160.0
 2.000  0.7541  151.6   3.411   55.0  0.0749   52.0  0.5504  159.6
 2.020  0.7541  151.3   3.377   54.7  0.0755   51.8  0.5509  159.2
 2.040  0.7541  150.9   3.343   54.4  0.0761   51.5  0.5514  158.8
 2.060  0.7542  150.6   3.309   54.1  0.0767   51.3  0.5519  158.5
 2.080  0.7543  150.3   3.275   53.7  0.0774   51.1  0.5524  158.1
 2.100  0.7544  149.9   3.241   53.4  0.0780   50.9  0.5530  157.7
 2.120  0.7545  149.6   3.207   53.0  0.0786   50.6  0.5536  157.3
 2.140  0.7547  149.3   3.174   52.7  0.0792   50.4  0.5542  156.9
 2.160  0.7549  149.0   3.140   52.3  0.0799   50.2  0.5548  156.6
 2.180  0.7551  148.6   3.107   52.0  0.0805   50.0  0.5555  156.2
 2.200  0.7553  148.3   3.074   51.6  0.0811   49.8  0.5562  155.8
 2.220  0.7555  148.0   3.046   51.3  0.0817   49.6  0.5568  155.4
 2.240  0.7557  147.7   3.018   51.0  0.0823   49.4  0.5573  155.1
 2.260  0.7559  147.4   2.990   50.7  0.0829   49.1  0.5579  154.7
 2.280  0.7561  147.1   2.962   50.4  0.0836   48.9  0.5586  154.3
 2.300  0.7564  146.8   2.934   50.1  0.0842   48.7  0.5592  154.0
 2.320  0.7567  146.5   2.906   49.8  0.0848   48.5  0.5599  153.6
 2.340  0.7570  146.2   2.878   49.4  0.0854   48.3  0.5606  153.3
 2.360  0.7573  145.9   2.851   49.1  0.0861   48.1  0.5613  152.9
 2.380  0.7576  145.6   2.823   48.7  0.0867   47.9  0.5620  152.6
 2.400  0.7580  145.3   2.796   48.4  0.0873   47.7  0.5628  152.2
 2.420  0.7580  145.0   2.772   48.1  0.0879   47.5  0.5634  151.8
 2.440  0.7580  144.7   2.748   47.8  0.0885   47.2  0.5639  151.5
 2.460  0.7581  144.4   2.724   47.5  0.0891   47.0  0.5645  151.1
 2.480  0.7582  144.1   2.701   47.1  0.0897   46.7  0.5652  150.8
 2.500  0.7583  143.8   2.677   46.8  0.0903   46.5  0.5658  150.4
 2.520  0.7584  143.6   2.653   46.5  0.0909   46.3  0.5665  150.0
 2.540  0.7585  143.3   2.630   46.2  0.0915   46.1  0.5672  149.7
 2.560  0.7586  143.0   2.606   45.8  0.0921   45.8  0.5679  149.3
 2.580  0.7588  142.7   2.583   45.5  0.0927   45.6  0.5686  149.0
 2.600  0.7590  142.4   2.560   45.1  0.0933   45.4  0.5694  148.6
 2.620  0.7592  142.1   2.540   44.8  0.0939   45.2  0.5700  148.3
 2.640  0.7595  141.8   2.520   44.5  0.0945   44.9  0.5706  147.9
 2.660  0.7597  141.5   2.501   44.2  0.0951   44.7  0.5712  147.6
 2.680  0.7600  141.2   2.481   43.9  0.0956   44.4  0.5719  147.2
 2.700  0.7603  140.9   2.462   43.6  0.0962   44.2  0.5725  146.9
 2.720  0.7606  140.6   2.442   43.2  0.0968   44.0  0.5732  146.6
 2.740  0.7610  140.3   2.423   42.9  0.0974   43.8  0.5739  146.2
 2.760  0.7613  140.0   2.403   42.6  0.0980   43.5  0.5747  145.9
 2.780  0.7617  139.7   2.384   42.2  0.0986   43.3  0.5754  145.5
 2.800  0.7621  139.4   2.365   41.9  0.0992   43.1  0.5762  145.2
 2.820  0.7624  139.1   2.348   41.6  0.0998   42.8  0.5768  144.9
 2.840  0.7627  138.8   2.330   41.3  0.1003   42.6  0.5773  144.6
 2.860  0.7630  138.6   2.313   41.0  0.1009   42.4  0.5779  144.2
 2.880  0.7634  138.3   2.296   40.7  0.1015   42.1  0.5785  143.9
 2.900  0.7637  138.0   2.279   40.4  0.1020   41.9  0.5792  143.6
 2.920  0.7641  137.7   2.262   40.0  0.1026   41.6  0.5798  143.3
 2.940  0.7645  137.4   2.245   39.7  0.1032   41.4  0.5805  143.0
 2.960  0.7649  137.2   2.228   39.4  0.1037   41.2  0.5812  142.6
 2.980  0.7653  136.9   2.212   39.0  0.1043   40.9  0.5819  142.3
 3.000  0.7658  136.6   2.195   38.7  0.1049   40.7  0.5826  142.0
 3.100  0.7672  135.1   2.122   37.3  0.1073   39.4  0.5851  140.5
 3.200  0.7691  133.6   2.050   35.9  0.1098   38.1  0.5881  139.0
 3.300  0.7715  132.1   1.979   34.3  0.1124   36.9  0.5914  137.6
 3.400  0.7744  130.6   1.910   32.6  0.1150   35.7  0.5951  136.1
 3.500  0.7779  129.1   1.843   30.8  0.1176   34.6  0.5992  134.7
 3.600  0.7800  127.8   1.787   29.5  0.1197   33.4  0.6024  133.4
 3.700  0.7824  126.5   1.733   28.2  0.1218   32.2  0.6059  132.1
 3.800  0.7853  125.2   1.679   26.7  0.1239   31.1  0.6097  130.9
 3.900  0.7886  123.9   1.626   25.2  0.1261   30.0  0.6137  129.6
 4.000  0.7923  122.6   1.575   23.5  0.1284   28.9  0.6181  128.4
 4.100  0.7938  121.5   1.533   22.3  0.1303   27.8  0.6213  127.2
 4.200  0.7955  120.4   1.492   21.1  0.1322   26.8  0.6248  126.1
 4.300  0.7976  119.3   1.451   19.8  0.1342   25.8  0.6285  124.9
 4.400  0.8000  118.2   1.411   18.4  0.1362   24.8  0.6324  123.8
 4.500  0.8026  117.1   1.372   17.0  0.1382   23.8  0.6366  122.7
 4.600  0.8033  116.1   1.340   15.8  0.1401   22.7  0.6390  121.6
 4.700  0.8042  115.0   1.309   14.6  0.1421   21.7  0.6416  120.5
 4.800  0.8055  114.0   1.278   13.3  0.1441   20.7  0.6444  119.4
 4.900  0.8070  112.9   1.248   12.0  0.1461   19.7  0.6475  118.3
 5.000  0.8087  111.9   1.219   10.6  0.1482   18.8  0.6508  117.2
 5.100  0.8082  110.9   1.193    9.5  0.1499   17.7  0.6521  116.1
 5.200  0.8081  109.9   1.168    8.3  0.1517   16.7  0.6537  115.0
 5.300  0.8081  108.8   1.144    7.1  0.1536   15.7  0.6555  113.9
 5.400  0.8084  107.8   1.120    5.8  0.1555   14.7  0.6575  112.8
 5.500  0.8090  106.8   1.096    4.5  0.1574   13.7  0.6598  111.7
 5.600  0.8087  106.0   1.077    3.4  0.1592   12.7  0.6608  110.6
 5.700  0.8085  105.1   1.057    2.3  0.1610   11.7  0.6621  109.4
 5.800  0.8085  104.3   1.039    1.1  0.1628   10.7  0.6637  108.3
 5.900  0.8087  103.4   1.021   -0.1  0.1647    9.7  0.6655  107.1
 6.000  0.8090  102.6   1.003   -1.4  0.1667    8.8  0.6676  106.0
 6.100  0.8102  101.8   0.988   -2.6  0.1684    7.7  0.6689  105.0
 6.200  0.8117  101.0   0.974   -3.8  0.1701    6.6  0.6704  103.9
 6.300  0.8132  100.1   0.960   -5.0  0.1719    5.6  0.6722  102.9
 6.400  0.8150   99.3   0.946   -6.3  0.1737    4.5  0.6741  101.9
 6.500  0.8169   98.5   0.933   -7.6  0.1756    3.5  0.6763  100.9
 6.600  0.8183   97.5   0.919   -8.9  0.1772    2.3  0.6777  100.0
 6.800  0.8217   95.5   0.892  -11.6  0.1805    0.0  0.6809   98.2
 7.000  0.8262   93.5   0.868  -14.4  0.1841   -2.2  0.6847   96.5
 7.200  0.8284   91.2   0.841  -17.0  0.1864   -4.6  0.6886   94.6
 7.400  0.8319   89.0   0.817  -19.8  0.1890   -7.0  0.6934   92.6
 7.600  0.8346   86.7   0.791  -22.4  0.1910   -9.4  0.6995   90.5
 7.800  0.8368   84.2   0.765  -24.9  0.1925  -11.7  0.7076   88.0
 8.000  0.8405   81.8   0.740  -27.6  0.1943  -14.0  0.7169   85.6
 8.200  0.8427   79.3   0.715  -29.9  0.1942  -16.3  0.7252   82.9
 8.400  0.8464   76.9   0.691  -32.4  0.1945  -18.6  0.7350   80.4
 8.600  0.8497   74.5   0.667  -34.7  0.1940  -20.9  0.7429   77.9
 8.800  0.8525   72.1   0.643  -36.8  0.1929  -23.0  0.7487   75.5
 9.000  0.8567   69.8   0.620  -39.1  0.1920  -25.2  0.7558   73.2
 9.200  0.8606   68.0   0.597  -40.8  0.1902  -26.8  0.7610   71.3
 9.400  0.8654   66.2   0.574  -42.6  0.1885  -28.5  0.7670   69.4
 9.600  0.8707   64.8   0.555  -44.2  0.1870  -29.9  0.7757   67.8
 9.800  0.8761   63.8   0.539  -45.5  0.1856  -31.1  0.7867   66.6
10.000  0.8817   62.8   0.523  -46.8  0.1843  -32.4  0.7981   65.3
10.200  0.8840   62.3   0.511  -47.6  0.1838  -33.0  0.8020   65.3
10.400  0.8864   61.8   0.499  -48.5  0.1834  -33.5  0.8059   65.3
10.600  0.8872   61.3   0.490  -49.4  0.1835  -34.1  0.8074   65.5
10.800  0.8864   60.9   0.485  -50.2  0.1843  -34.8  0.8066   65.8
11.000  0.8857   60.5   0.479  -51.0  0.1850  -35.5  0.8058   66.2
11.200  0.8818   59.8   0.475  -52.4  0.1910  -35.6  0.7939   65.7
11.400  0.8780   59.1   0.472  -53.9  0.1970  -35.7  0.7820   65.1
11.600  0.8731   58.4   0.470  -55.3  0.2024  -36.9  0.7761   64.2
11.800  0.8673   57.7   0.472  -56.8  0.2074  -39.1  0.7764   63.0
12.000  0.8616   57.1   0.473  -58.2  0.2128  -41.3  0.7770   61.8
!
!  f       NFmin   Gammaopt  rn/50
! GHz       dB    MAG  ANG    -
 0.450      2.02  0.62 -172   0.07
 0.900      2.06  0.65 -166   0.08
 1.900      2.17  0.67 -150   0.14
 2.400      2.26  0.67 -140   0.21
!
! (c) 2015  Infineon Technologies AG, Munich
