! Infineon Technologies  Discrete & RF Semiconductors
! BFP420
! VCE =  3.0 V,  IC =  5.0 mA
! Common Emitter S-Parameters:                            Jan 2016
# GHz  S  MA  R  50
!  f         S11            S21            S12            S22
! GHz     MAG   ANG      MAG   ANG      MAG   ANG      MAG   ANG
 0.010  0.8454   -2.4  15.923  179.1  0.0005   50.0  0.9860    0.3
 0.015  0.8416   -2.4  15.734  178.7  0.0012   75.4  0.9867   -0.5
 0.020  0.8378   -2.3  15.546  178.3  0.0019   81.9  0.9876   -1.3
 0.025  0.8370   -2.9  15.546  177.8  0.0023   82.2  0.9874   -1.6
 0.030  0.8364   -3.5  15.548  177.4  0.0027   82.4  0.9873   -1.9
 0.035  0.8358   -4.0  15.550  176.9  0.0031   82.5  0.9872   -2.2
 0.040  0.8353   -4.6  15.553  176.4  0.0035   82.6  0.9871   -2.6
 0.045  0.8348   -5.2  15.558  176.0  0.0039   82.7  0.9871   -2.9
 0.050  0.8345   -5.8  15.563  175.5  0.0043   82.8  0.9871   -3.2
 0.055  0.8340   -6.4  15.560  175.1  0.0048   82.8  0.9866   -3.5
 0.060  0.8335   -7.0  15.558  174.7  0.0052   82.7  0.9861   -3.9
 0.065  0.8332   -7.5  15.556  174.2  0.0057   82.7  0.9856   -4.2
 0.070  0.8329   -8.1  15.555  173.8  0.0062   82.7  0.9852   -4.6
 0.075  0.8327   -8.7  15.556  173.4  0.0066   82.7  0.9848   -4.9
 0.080  0.8326   -9.3  15.557  173.0  0.0071   82.6  0.9845   -5.2
 0.085  0.8326   -9.9  15.558  172.6  0.0076   82.6  0.9841   -5.6
 0.090  0.8327  -10.4  15.561  172.1  0.0081   82.6  0.9839   -5.9
 0.095  0.8329  -11.0  15.565  171.7  0.0085   82.6  0.9836   -6.3
 0.100  0.8331  -11.6  15.569  171.3  0.0090   82.6  0.9834   -6.6
 0.105  0.8321  -12.2  15.552  170.9  0.0094   82.3  0.9825   -6.9
 0.110  0.8312  -12.8  15.536  170.5  0.0098   82.0  0.9816   -7.3
 0.115  0.8304  -13.3  15.520  170.0  0.0103   81.7  0.9808   -7.6
 0.120  0.8297  -13.9  15.506  169.6  0.0107   81.5  0.9800   -7.9
 0.125  0.8290  -14.5  15.492  169.2  0.0111   81.2  0.9792   -8.2
 0.130  0.8285  -15.1  15.479  168.8  0.0115   81.0  0.9785   -8.6
 0.135  0.8280  -15.7  15.467  168.4  0.0119   80.8  0.9778   -8.9
 0.140  0.8276  -16.2  15.456  167.9  0.0124   80.6  0.9771   -9.2
 0.145  0.8273  -16.8  15.446  167.5  0.0128   80.5  0.9765   -9.6
 0.150  0.8271  -17.4  15.436  167.1  0.0132   80.3  0.9759   -9.9
 0.155  0.8263  -18.0  15.415  166.7  0.0136   79.9  0.9747  -10.2
 0.160  0.8255  -18.6  15.395  166.3  0.0141   79.6  0.9736  -10.5
 0.165  0.8248  -19.1  15.376  165.9  0.0145   79.2  0.9725  -10.9
 0.170  0.8242  -19.7  15.357  165.4  0.0150   78.9  0.9714  -11.2
 0.175  0.8237  -20.3  15.340  165.0  0.0154   78.6  0.9703  -11.5
 0.180  0.8233  -20.9  15.323  164.6  0.0158   78.4  0.9693  -11.8
 0.185  0.8229  -21.5  15.307  164.2  0.0163   78.1  0.9683  -12.1
 0.190  0.8227  -22.0  15.292  163.7  0.0167   77.9  0.9673  -12.5
 0.195  0.8225  -22.6  15.277  163.3  0.0172   77.6  0.9664  -12.8
 0.200  0.8224  -23.2  15.264  162.9  0.0176   77.4  0.9655  -13.1
 0.220  0.8171  -25.4  15.145  161.2  0.0192   76.3  0.9601  -14.4
 0.240  0.8131  -27.7  15.038  159.6  0.0209   75.3  0.9552  -15.7
 0.260  0.8090  -29.9  14.940  157.9  0.0225   74.3  0.9496  -16.9
 0.280  0.8049  -32.1  14.850  156.3  0.0240   73.2  0.9433  -18.1
 0.300  0.8019  -34.4  14.771  154.7  0.0256   72.2  0.9375  -19.4
 0.320  0.7962  -36.6  14.648  153.2  0.0271   71.0  0.9303  -20.6
 0.340  0.7918  -38.9  14.535  151.7  0.0286   70.0  0.9235  -21.8
 0.360  0.7874  -41.0  14.411  150.2  0.0301   68.9  0.9162  -23.0
 0.380  0.7830  -43.1  14.276  148.6  0.0315   67.9  0.9084  -24.1
 0.400  0.7796  -45.2  14.151  147.1  0.0329   66.9  0.9009  -25.2
 0.420  0.7729  -47.3  14.011  145.7  0.0343   65.9  0.8929  -26.3
 0.440  0.7672  -49.4  13.879  144.2  0.0356   64.9  0.8852  -27.4
 0.450  0.7648  -50.5  13.817  143.5  0.0363   64.5  0.8815  -28.0
 0.460  0.7616  -51.5  13.739  142.8  0.0369   64.0  0.8771  -28.5
 0.480  0.7559  -53.6  13.590  141.4  0.0382   63.1  0.8685  -29.5
 0.500  0.7512  -55.7  13.450  139.9  0.0394   62.3  0.8602  -30.6
 0.520  0.7440  -57.6  13.290  138.6  0.0405   61.3  0.8511  -31.6
 0.540  0.7377  -59.6  13.136  137.3  0.0416   60.4  0.8422  -32.6
 0.560  0.7323  -61.6  12.990  135.9  0.0428   59.5  0.8335  -33.6
 0.580  0.7277  -63.6  12.852  134.5  0.0439   58.6  0.8252  -34.6
 0.600  0.7241  -65.6  12.721  133.1  0.0451   57.8  0.8171  -35.7
 0.620  0.7174  -67.4  12.561  131.9  0.0461   57.0  0.8080  -36.6
 0.640  0.7114  -69.2  12.406  130.7  0.0470   56.2  0.7990  -37.4
 0.660  0.7061  -71.0  12.256  129.5  0.0480   55.4  0.7902  -38.3
 0.680  0.7016  -72.9  12.112  128.3  0.0490   54.7  0.7817  -39.3
 0.700  0.6978  -74.8  11.974  127.0  0.0500   54.0  0.7733  -40.2
 0.720  0.6917  -76.5  11.816  125.9  0.0508   53.3  0.7645  -41.0
 0.740  0.6862  -78.2  11.661  124.8  0.0517   52.6  0.7559  -41.8
 0.760  0.6813  -79.9  11.511  123.7  0.0525   51.9  0.7475  -42.6
 0.780  0.6770  -81.6  11.366  122.6  0.0533   51.2  0.7391  -43.4
 0.800  0.6734  -83.4  11.225  121.4  0.0542   50.6  0.7310  -44.3
 0.820  0.6678  -85.0  11.080  120.4  0.0549   50.0  0.7226  -45.0
 0.840  0.6627  -86.7  10.939  119.4  0.0556   49.4  0.7144  -45.7
 0.860  0.6582  -88.3  10.802  118.3  0.0563   48.8  0.7062  -46.5
 0.880  0.6543  -90.0  10.668  117.2  0.0571   48.2  0.6982  -47.2
 0.900  0.6509  -91.7  10.538  116.1  0.0578   47.6  0.6903  -48.0
 0.920  0.6461  -93.2  10.404  115.2  0.0584   47.1  0.6824  -48.7
 0.940  0.6418  -94.8  10.273  114.3  0.0591   46.5  0.6745  -49.4
 0.960  0.6380  -96.3  10.145  113.4  0.0597   46.0  0.6668  -50.1
 0.980  0.6347  -97.9  10.019  112.4  0.0604   45.5  0.6591  -50.8
 1.000  0.6318  -99.5   9.896  111.4  0.0610   45.0  0.6516  -51.5
 1.020  0.6277 -100.9   9.770  110.6  0.0616   44.5  0.6444  -52.1
 1.040  0.6239 -102.3   9.646  109.7  0.0621   44.1  0.6373  -52.7
 1.060  0.6205 -103.7   9.525  108.8  0.0627   43.6  0.6303  -53.3
 1.080  0.6175 -105.2   9.406  107.9  0.0632   43.1  0.6234  -54.0
 1.100  0.6149 -106.6   9.289  107.0  0.0638   42.7  0.6165  -54.6
 1.120  0.6112 -108.0   9.174  106.2  0.0643   42.3  0.6095  -55.2
 1.140  0.6078 -109.4   9.060  105.4  0.0647   41.8  0.6026  -55.8
 1.160  0.6047 -110.8   8.949  104.5  0.0652   41.4  0.5958  -56.4
 1.180  0.6021 -112.2   8.839  103.7  0.0657   41.0  0.5890  -57.1
 1.200  0.5998 -113.6   8.732  102.8  0.0662   40.6  0.5823  -57.7
 1.220  0.5967 -114.8   8.627  102.1  0.0667   40.2  0.5761  -58.2
 1.240  0.5938 -116.1   8.524  101.4  0.0671   39.9  0.5700  -58.7
 1.260  0.5913 -117.3   8.422  100.6  0.0676   39.5  0.5639  -59.3
 1.280  0.5890 -118.6   8.322   99.9  0.0680   39.2  0.5579  -59.8
 1.300  0.5870 -119.9   8.223   99.1  0.0685   38.8  0.5519  -60.4
 1.320  0.5844 -121.1   8.127   98.4  0.0689   38.5  0.5460  -60.9
 1.340  0.5821 -122.4   8.033   97.7  0.0693   38.1  0.5402  -61.4
 1.360  0.5801 -123.6   7.940   96.9  0.0696   37.8  0.5344  -62.0
 1.380  0.5783 -124.8   7.848   96.2  0.0700   37.4  0.5287  -62.5
 1.400  0.5768 -126.1   7.758   95.4  0.0704   37.1  0.5230  -63.1
 1.420  0.5743 -127.2   7.672   94.8  0.0708   36.8  0.5176  -63.6
 1.440  0.5721 -128.4   7.587   94.2  0.0712   36.5  0.5122  -64.0
 1.460  0.5701 -129.5   7.503   93.5  0.0715   36.2  0.5068  -64.5
 1.480  0.5683 -130.6   7.420   92.9  0.0719   35.9  0.5015  -65.0
 1.500  0.5668 -131.8   7.338   92.2  0.0723   35.6  0.4962  -65.5
 1.520  0.5651 -132.9   7.258   91.6  0.0726   35.3  0.4912  -65.9
 1.540  0.5636 -133.9   7.178   90.9  0.0729   35.1  0.4863  -66.4
 1.560  0.5623 -135.0   7.099   90.3  0.0733   34.8  0.4814  -66.9
 1.580  0.5612 -136.1   7.022   89.6  0.0736   34.6  0.4765  -67.3
 1.600  0.5603 -137.2   6.945   88.9  0.0739   34.3  0.4717  -67.8
 1.620  0.5584 -138.2   6.874   88.3  0.0742   34.1  0.4670  -68.2
 1.640  0.5567 -139.3   6.803   87.8  0.0746   33.8  0.4624  -68.7
 1.660  0.5551 -140.3   6.733   87.2  0.0749   33.6  0.4578  -69.1
 1.680  0.5538 -141.3   6.664   86.6  0.0753   33.3  0.4532  -69.5
 1.700  0.5526 -142.4   6.595   86.0  0.0756   33.1  0.4486  -70.0
 1.720  0.5513 -143.3   6.526   85.4  0.0759   32.9  0.4444  -70.4
 1.740  0.5502 -144.3   6.457   84.9  0.0762   32.7  0.4402  -70.8
 1.760  0.5492 -145.2   6.389   84.3  0.0765   32.4  0.4360  -71.2
 1.780  0.5484 -146.2   6.322   83.7  0.0768   32.2  0.4318  -71.6
 1.800  0.5477 -147.1   6.255   83.1  0.0771   32.0  0.4277  -72.0
 1.820  0.5464 -148.1   6.194   82.6  0.0774   31.8  0.4235  -72.4
 1.840  0.5453 -149.1   6.134   82.1  0.0777   31.6  0.4193  -72.9
 1.860  0.5443 -150.1   6.075   81.5  0.0779   31.3  0.4151  -73.4
 1.880  0.5435 -151.1   6.015   81.0  0.0782   31.1  0.4110  -73.8
 1.900  0.5429 -152.1   5.957   80.4  0.0785   30.9  0.4069  -74.3
 1.920  0.5415 -152.9   5.901   79.9  0.0788   30.7  0.4032  -74.6
 1.940  0.5402 -153.8   5.846   79.4  0.0791   30.5  0.3996  -75.0
 1.960  0.5391 -154.6   5.791   78.9  0.0793   30.4  0.3960  -75.4
 1.980  0.5380 -155.5   5.736   78.3  0.0796   30.2  0.3924  -75.7
 2.000  0.5371 -156.3   5.682   77.8  0.0799   30.0  0.3888  -76.1
 2.020  0.5359 -157.2   5.631   77.3  0.0802   29.8  0.3852  -76.5
 2.040  0.5349 -158.0   5.581   76.9  0.0804   29.6  0.3817  -76.9
 2.060  0.5340 -158.9   5.531   76.4  0.0807   29.4  0.3781  -77.3
 2.080  0.5332 -159.8   5.482   75.9  0.0810   29.3  0.3746  -77.6
 2.100  0.5326 -160.6   5.433   75.4  0.0812   29.1  0.3711  -78.1
 2.120  0.5320 -161.5   5.384   74.9  0.0815   28.9  0.3676  -78.5
 2.140  0.5316 -162.4   5.336   74.3  0.0818   28.7  0.3641  -78.9
 2.160  0.5313 -163.2   5.288   73.8  0.0821   28.6  0.3606  -79.3
 2.180  0.5311 -164.1   5.241   73.3  0.0823   28.4  0.3572  -79.8
 2.200  0.5311 -165.0   5.194   72.7  0.0826   28.2  0.3538  -80.2
 2.220  0.5305 -165.8   5.150   72.3  0.0828   28.0  0.3505  -80.6
 2.240  0.5300 -166.6   5.107   71.8  0.0831   27.9  0.3473  -81.0
 2.260  0.5296 -167.4   5.064   71.4  0.0833   27.7  0.3440  -81.4
 2.280  0.5293 -168.2   5.021   71.0  0.0836   27.5  0.3408  -81.8
 2.300  0.5291 -169.0   4.979   70.5  0.0838   27.4  0.3376  -82.2
 2.320  0.5290 -169.9   4.937   70.0  0.0841   27.2  0.3344  -82.6
 2.340  0.5290 -170.7   4.895   69.6  0.0843   27.1  0.3312  -83.1
 2.360  0.5291 -171.5   4.854   69.1  0.0846   26.9  0.3281  -83.5
 2.380  0.5294 -172.3   4.813   68.6  0.0848   26.8  0.3249  -83.9
 2.400  0.5297 -173.1   4.772   68.1  0.0851   26.6  0.3218  -84.4
 2.420  0.5295 -173.9   4.734   67.7  0.0853   26.5  0.3189  -84.8
 2.440  0.5294 -174.6   4.697   67.3  0.0855   26.3  0.3159  -85.2
 2.460  0.5294 -175.4   4.660   66.8  0.0858   26.2  0.3130  -85.6
 2.480  0.5295 -176.2   4.623   66.4  0.0860   26.0  0.3101  -86.0
 2.500  0.5297 -177.0   4.586   65.9  0.0862   25.9  0.3072  -86.4
 2.520  0.5299 -177.7   4.550   65.5  0.0864   25.8  0.3044  -86.9
 2.540  0.5303 -178.5   4.513   65.0  0.0866   25.6  0.3015  -87.3
 2.560  0.5308 -179.3   4.478   64.6  0.0869   25.5  0.2987  -87.8
 2.580  0.5313  180.0   4.442   64.1  0.0871   25.3  0.2959  -88.2
 2.600  0.5320  179.2   4.407   63.6  0.0873   25.2  0.2931  -88.7
 2.620  0.5319  178.5   4.374   63.2  0.0875   25.1  0.2905  -89.1
 2.640  0.5319  177.9   4.341   62.8  0.0877   25.0  0.2879  -89.5
 2.660  0.5319  177.2   4.308   62.4  0.0880   24.8  0.2853  -89.9
 2.680  0.5320  176.5   4.276   62.0  0.0882   24.7  0.2827  -90.3
 2.700  0.5322  175.8   4.244   61.6  0.0884   24.6  0.2802  -90.8
 2.720  0.5325  175.2   4.212   61.2  0.0886   24.5  0.2776  -91.2
 2.740  0.5328  174.5   4.180   60.8  0.0888   24.4  0.2751  -91.6
 2.760  0.5333  173.8   4.148   60.4  0.0891   24.2  0.2726  -92.1
 2.780  0.5337  173.2   4.117   59.9  0.0893   24.1  0.2701  -92.5
 2.800  0.5343  172.5   4.086   59.5  0.0895   24.0  0.2676  -93.0
 2.820  0.5346  171.9   4.057   59.1  0.0897   23.9  0.2652  -93.4
 2.840  0.5349  171.2   4.029   58.7  0.0900   23.8  0.2629  -93.8
 2.860  0.5354  170.6   4.001   58.4  0.0902   23.6  0.2606  -94.2
 2.880  0.5358  170.0   3.973   58.0  0.0904   23.5  0.2583  -94.7
 2.900  0.5364  169.3   3.945   57.6  0.0906   23.4  0.2560  -95.1
 2.920  0.5370  168.7   3.917   57.2  0.0909   23.3  0.2537  -95.5
 2.940  0.5377  168.1   3.889   56.8  0.0911   23.2  0.2514  -96.0
 2.960  0.5384  167.4   3.862   56.3  0.0913   23.0  0.2492  -96.5
 2.980  0.5392  166.8   3.835   55.9  0.0916   22.9  0.2469  -96.9
 3.000  0.5401  166.2   3.808   55.5  0.0918   22.8  0.2447  -97.4
 3.100  0.5417  163.2   3.687   53.8  0.0929   22.2  0.2342  -99.7
 3.200  0.5448  160.3   3.570   52.0  0.0939   21.6  0.2241 -102.2
 3.300  0.5493  157.4   3.456   50.1  0.0950   21.1  0.2145 -105.0
 3.400  0.5551  154.6   3.346   48.1  0.0961   20.5  0.2054 -107.9
 3.500  0.5623  151.8   3.241   45.9  0.0972   20.0  0.1969 -111.2
 3.600  0.5650  149.3   3.148   44.3  0.0984   19.5  0.1895 -114.1
 3.700  0.5689  146.8   3.057   42.6  0.0995   18.9  0.1826 -117.2
 3.800  0.5738  144.3   2.970   40.8  0.1007   18.4  0.1763 -120.5
 3.900  0.5797  141.9   2.885   38.9  0.1019   17.9  0.1707 -124.0
 4.000  0.5867  139.5   2.804   36.9  0.1031   17.4  0.1657 -127.8
 4.100  0.5894  137.6   2.728   35.4  0.1042   16.8  0.1616 -131.2
 4.200  0.5928  135.6   2.655   33.8  0.1052   16.2  0.1581 -134.7
 4.300  0.5969  133.7   2.583   32.1  0.1063   15.6  0.1552 -138.5
 4.400  0.6016  131.8   2.514   30.4  0.1074   15.1  0.1530 -142.3
 4.500  0.6069  130.0   2.447   28.5  0.1085   14.5  0.1515 -146.2
 4.600  0.6085  128.5   2.387   27.2  0.1096   14.0  0.1496 -149.4
 4.700  0.6105  127.0   2.327   25.8  0.1107   13.5  0.1481 -152.6
 4.800  0.6129  125.5   2.270   24.3  0.1118   13.0  0.1471 -155.9
 4.900  0.6157  124.0   2.214   22.8  0.1129   12.5  0.1466 -159.2
 5.000  0.6190  122.5   2.159   21.2  0.1140   12.0  0.1466 -162.5
 5.100  0.6209  121.0   2.112   19.9  0.1150   11.5  0.1463 -165.7
 5.200  0.6231  119.5   2.066   18.5  0.1160   11.0  0.1464 -169.0
 5.300  0.6258  118.1   2.022   17.1  0.1170   10.5  0.1470 -172.2
 5.400  0.6289  116.6   1.979   15.6  0.1181   10.0  0.1481 -175.4
 5.500  0.6324  115.2   1.937   14.1  0.1191    9.5  0.1496 -178.5
 5.600  0.6356  113.8   1.900   12.8  0.1202    9.0  0.1505  178.4
 5.700  0.6392  112.4   1.864   11.5  0.1214    8.5  0.1518  175.4
 5.800  0.6432  111.0   1.829   10.1  0.1226    8.0  0.1536  172.4
 5.900  0.6475  109.6   1.795    8.7  0.1237    7.6  0.1558  169.5
 6.000  0.6522  108.3   1.762    7.2  0.1249    7.1  0.1583  166.7
 6.100  0.6558  107.1   1.731    5.9  0.1262    6.5  0.1601  164.0
 6.200  0.6597  105.8   1.701    4.5  0.1276    5.9  0.1623  161.4
 6.300  0.6638  104.6   1.672    3.1  0.1289    5.3  0.1648  158.9
 6.400  0.6683  103.4   1.644    1.7  0.1303    4.8  0.1676  156.5
 6.500  0.6731  102.2   1.617    0.2  0.1317    4.2  0.1707  154.1
 6.600  0.6758  101.0   1.591   -1.2  0.1332    3.5  0.1724  151.7
 6.800  0.6820   98.6   1.542   -4.0  0.1363    2.2  0.1767  147.2
 7.000  0.6894   96.2   1.497   -7.1  0.1395    1.0  0.1821  142.9
 7.200  0.6931   93.7   1.451   -9.8  0.1425   -0.7  0.1891  138.5
 7.400  0.6982   91.2   1.409  -12.7  0.1457   -2.3  0.1971  134.4
 7.600  0.7028   88.6   1.364  -15.6  0.1483   -4.1  0.2060  130.2
 7.800  0.7074   85.8   1.317  -18.5  0.1504   -6.1  0.2163  125.9
 8.000  0.7136   83.0   1.274  -21.7  0.1527   -8.1  0.2276  122.0
 8.200  0.7183   80.0   1.226  -24.3  0.1531   -9.9  0.2396  117.1
 8.400  0.7249   77.1   1.180  -27.0  0.1537  -11.7  0.2532  112.7
 8.600  0.7347   74.3   1.138  -29.6  0.1541  -13.2  0.2697  108.5
 8.800  0.7475   71.6   1.098  -32.0  0.1544  -14.5  0.2891  104.6
 9.000  0.7618   69.1   1.061  -34.5  0.1548  -15.8  0.3097  101.2
 9.200  0.7822   67.1   1.030  -36.6  0.1555  -16.9  0.3338   98.6
 9.400  0.8034   65.2   1.000  -38.9  0.1563  -18.0  0.3585   96.4
 9.600  0.8221   63.6   0.967  -41.2  0.1572  -19.1  0.3824   94.6
 9.800  0.8378   62.2   0.929  -43.4  0.1584  -20.3  0.4054   93.1
10.000  0.8540   60.8   0.893  -45.9  0.1596  -21.5  0.4286   91.7
!
!  f       NFmin   Gammaopt  rn/50
! GHz       dB    MAG  ANG    -
 0.900      0.66  0.21   31   0.15
 1.800      1.05  0.09   93   0.13
 2.400      1.14  0.14  119   0.13
 3.000      1.24  0.17  165   0.11
 4.000      1.41  0.31 -145   0.12
 5.000      1.85  0.38 -119   0.21
 6.000      2.30  0.45 -101   0.36
!
! (c) 2016  Infineon Technologies AG, Munich
