! Infineon Technologies  Discrete & RF Semiconductors
! BFP410
! VCE =  1.0 V,  IC =  20 mA
! Common Emitter S-Parameters:                            Nov 2015
# GHz  S  MA  R  50
!  f         S11            S21            S12            S22
! GHz     MAG   ANG      MAG   ANG      MAG   ANG      MAG   ANG
 0.010  0.4885   -2.6  35.236  179.6  0.0009   97.9  0.9261    2.9
 0.015  0.4849   -3.6  35.456  178.3  0.0011   95.3  0.9307    0.9
 0.020  0.4814   -4.6  35.695  177.0  0.0014   93.6  0.9365   -1.1
 0.025  0.4800   -5.7  35.620  176.2  0.0017   91.1  0.9373   -1.7
 0.030  0.4787   -6.8  35.552  175.5  0.0021   89.3  0.9383   -2.3
 0.035  0.4777   -8.0  35.490  174.7  0.0024   88.1  0.9393   -2.9
 0.040  0.4768   -9.1  35.434  173.9  0.0027   87.1  0.9404   -3.5
 0.045  0.4761  -10.3  35.385  173.2  0.0031   86.4  0.9417   -4.1
 0.050  0.4756  -11.4  35.342  172.4  0.0034   85.8  0.9430   -4.7
 0.055  0.4745  -12.6  35.281  171.7  0.0037   85.0  0.9416   -5.3
 0.060  0.4736  -13.8  35.226  171.1  0.0040   84.3  0.9402   -5.9
 0.065  0.4728  -15.0  35.175  170.4  0.0043   83.8  0.9390   -6.5
 0.070  0.4723  -16.2  35.129  169.7  0.0046   83.3  0.9378   -7.0
 0.075  0.4721  -17.4  35.088  169.0  0.0048   82.8  0.9368   -7.6
 0.080  0.4720  -18.7  35.052  168.3  0.0051   82.4  0.9359   -8.2
 0.085  0.4721  -19.9  35.020  167.7  0.0054   82.1  0.9350   -8.8
 0.090  0.4725  -21.1  34.994  167.0  0.0057   81.7  0.9343   -9.4
 0.095  0.4730  -22.3  34.973  166.3  0.0060   81.5  0.9336  -10.0
 0.100  0.4738  -23.5  34.957  165.6  0.0063   81.2  0.9331  -10.6
 0.105  0.4721  -24.6  34.826  164.9  0.0066   80.7  0.9305  -11.1
 0.110  0.4706  -25.7  34.700  164.2  0.0069   80.3  0.9279  -11.7
 0.115  0.4693  -26.8  34.580  163.5  0.0072   79.9  0.9254  -12.2
 0.120  0.4681  -27.9  34.464  162.8  0.0075   79.6  0.9230  -12.7
 0.125  0.4671  -29.0  34.354  162.1  0.0078   79.2  0.9207  -13.3
 0.130  0.4663  -30.1  34.249  161.4  0.0081   78.9  0.9184  -13.8
 0.135  0.4656  -31.2  34.149  160.7  0.0084   78.6  0.9163  -14.4
 0.140  0.4652  -32.4  34.055  160.0  0.0087   78.4  0.9142  -14.9
 0.145  0.4649  -33.5  33.966  159.2  0.0090   78.1  0.9122  -15.4
 0.150  0.4648  -34.6  33.883  158.5  0.0093   77.9  0.9103  -16.0
 0.155  0.4634  -35.6  33.739  157.9  0.0096   77.5  0.9069  -16.5
 0.160  0.4621  -36.7  33.599  157.3  0.0098   77.0  0.9036  -17.0
 0.165  0.4610  -37.7  33.463  156.6  0.0101   76.7  0.9004  -17.5
 0.170  0.4600  -38.8  33.331  156.0  0.0104   76.3  0.8972  -18.0
 0.175  0.4592  -39.9  33.203  155.4  0.0106   75.9  0.8941  -18.5
 0.180  0.4586  -40.9  33.079  154.7  0.0109   75.6  0.8910  -19.0
 0.185  0.4581  -42.0  32.960  154.1  0.0112   75.3  0.8881  -19.5
 0.190  0.4578  -43.1  32.845  153.4  0.0115   75.0  0.8852  -20.1
 0.195  0.4576  -44.1  32.734  152.8  0.0117   74.7  0.8823  -20.6
 0.200  0.4576  -45.2  32.627  152.1  0.0120   74.4  0.8796  -21.1
 0.220  0.4515  -49.2  31.950  149.7  0.0130   72.9  0.8651  -22.9
 0.240  0.4477  -53.3  31.331  147.2  0.0139   71.6  0.8515  -24.7
 0.260  0.4439  -57.2  30.725  144.8  0.0149   70.4  0.8370  -26.4
 0.280  0.4397  -61.0  30.119  142.6  0.0158   69.3  0.8216  -28.0
 0.300  0.4374  -64.8  29.559  140.3  0.0167   68.3  0.8068  -29.7
 0.320  0.4328  -68.3  28.901  138.4  0.0175   67.4  0.7912  -31.1
 0.340  0.4298  -71.9  28.277  136.3  0.0183   66.6  0.7762  -32.6
 0.360  0.4267  -75.3  27.650  134.4  0.0191   65.7  0.7611  -34.0
 0.380  0.4231  -78.5  27.013  132.5  0.0198   64.9  0.7459  -35.3
 0.400  0.4208  -81.7  26.408  130.5  0.0206   64.1  0.7310  -36.7
 0.420  0.4172  -84.7  25.794  128.9  0.0212   63.5  0.7167  -37.8
 0.440  0.4148  -87.7  25.202  127.2  0.0219   62.9  0.7027  -39.0
 0.450  0.4140  -89.2  24.915  126.3  0.0222   62.6  0.6958  -39.6
 0.460  0.4120  -90.6  24.625  125.5  0.0225   62.3  0.6887  -40.1
 0.480  0.4089  -93.5  24.057  124.0  0.0232   61.7  0.6748  -41.2
 0.500  0.4068  -96.4  23.509  122.3  0.0238   61.2  0.6611  -42.3
 0.520  0.4035  -98.8  22.970  121.0  0.0243   60.8  0.6485  -43.1
 0.540  0.4009 -101.2  22.443  119.7  0.0249   60.3  0.6360  -44.0
 0.560  0.3990 -103.7  21.929  118.3  0.0254   59.9  0.6236  -44.8
 0.580  0.3979 -106.2  21.428  116.8  0.0260   59.6  0.6114  -45.7
 0.600  0.3975 -108.7  20.942  115.3  0.0265   59.2  0.5994  -46.7
 0.620  0.3950 -110.8  20.494  114.3  0.0270   58.9  0.5887  -47.4
 0.640  0.3931 -112.9  20.053  113.2  0.0275   58.6  0.5781  -48.1
 0.660  0.3916 -115.1  19.620  112.0  0.0281   58.3  0.5675  -48.9
 0.680  0.3908 -117.2  19.195  110.8  0.0286   58.1  0.5571  -49.7
 0.700  0.3905 -119.4  18.778  109.6  0.0291   57.8  0.5468  -50.5
 0.720  0.3889 -121.2  18.394  108.7  0.0296   57.6  0.5376  -51.1
 0.740  0.3878 -123.0  18.015  107.7  0.0301   57.4  0.5285  -51.6
 0.760  0.3870 -124.8  17.641  106.7  0.0305   57.2  0.5195  -52.2
 0.780  0.3866 -126.7  17.272  105.7  0.0310   57.1  0.5105  -52.9
 0.800  0.3866 -128.5  16.910  104.6  0.0315   56.9  0.5016  -53.5
 0.820  0.3858 -130.1  16.594  103.8  0.0320   56.8  0.4937  -54.0
 0.840  0.3853 -131.8  16.282  102.9  0.0324   56.6  0.4859  -54.6
 0.860  0.3851 -133.4  15.973  102.1  0.0329   56.5  0.4781  -55.2
 0.880  0.3852 -135.1  15.668  101.1  0.0333   56.3  0.4703  -55.8
 0.900  0.3857 -136.7  15.367  100.2  0.0338   56.2  0.4626  -56.4
 0.920  0.3849 -138.1  15.087   99.5  0.0343   56.1  0.4555  -56.9
 0.940  0.3843 -139.5  14.809   98.7  0.0347   56.0  0.4484  -57.3
 0.960  0.3839 -141.0  14.534   97.9  0.0352   55.9  0.4414  -57.8
 0.980  0.3838 -142.4  14.261   97.1  0.0356   55.8  0.4344  -58.3
 1.000  0.3839 -143.8  13.992   96.3  0.0361   55.7  0.4274  -58.8
 1.020  0.3838 -145.0  13.758   95.6  0.0365   55.6  0.4215  -59.2
 1.040  0.3838 -146.2  13.526   95.0  0.0370   55.5  0.4156  -59.6
 1.060  0.3840 -147.5  13.296   94.3  0.0374   55.5  0.4097  -60.1
 1.080  0.3844 -148.7  13.068   93.5  0.0379   55.4  0.4038  -60.5
 1.100  0.3849 -149.9  12.842   92.8  0.0383   55.3  0.3980  -61.0
 1.120  0.3849 -151.1  12.641   92.2  0.0388   55.2  0.3927  -61.4
 1.140  0.3851 -152.2  12.441   91.5  0.0392   55.1  0.3874  -61.8
 1.160  0.3854 -153.4  12.242   90.9  0.0397   55.1  0.3821  -62.3
 1.180  0.3859 -154.5  12.046   90.2  0.0401   55.0  0.3768  -62.7
 1.200  0.3866 -155.7  11.851   89.5  0.0406   54.9  0.3716  -63.2
 1.220  0.3867 -156.7  11.675   89.0  0.0411   54.8  0.3670  -63.5
 1.240  0.3869 -157.7  11.499   88.4  0.0415   54.7  0.3624  -63.9
 1.260  0.3872 -158.7  11.325   87.8  0.0420   54.7  0.3578  -64.3
 1.280  0.3876 -159.7  11.152   87.2  0.0424   54.6  0.3532  -64.6
 1.300  0.3882 -160.7  10.980   86.6  0.0429   54.5  0.3486  -65.0
 1.320  0.3884 -161.6  10.822   86.1  0.0433   54.5  0.3443  -65.3
 1.340  0.3886 -162.6  10.665   85.6  0.0438   54.4  0.3401  -65.7
 1.360  0.3890 -163.5  10.509   85.0  0.0442   54.4  0.3358  -66.1
 1.380  0.3894 -164.5  10.354   84.5  0.0447   54.3  0.3316  -66.4
 1.400  0.3900 -165.4  10.200   83.9  0.0451   54.3  0.3274  -66.8
 1.420  0.3900 -166.2  10.068   83.4  0.0456   54.2  0.3238  -67.1
 1.440  0.3902 -167.0   9.937   82.9  0.0460   54.1  0.3202  -67.4
 1.460  0.3904 -167.9   9.806   82.4  0.0465   54.1  0.3166  -67.7
 1.480  0.3906 -168.7   9.676   81.9  0.0469   54.0  0.3130  -68.1
 1.500  0.3910 -169.5   9.547   81.4  0.0474   53.9  0.3094  -68.4
 1.520  0.3917 -170.3   9.428   80.9  0.0479   53.8  0.3060  -68.7
 1.540  0.3924 -171.1   9.311   80.4  0.0483   53.7  0.3026  -69.1
 1.560  0.3932 -171.8   9.193   79.9  0.0488   53.6  0.2993  -69.4
 1.580  0.3941 -172.6   9.077   79.4  0.0492   53.5  0.2959  -69.7
 1.600  0.3950 -173.4   8.961   78.9  0.0497   53.4  0.2926  -70.1
 1.620  0.3950 -174.2   8.856   78.5  0.0502   53.3  0.2896  -70.4
 1.640  0.3951 -175.0   8.752   78.0  0.0507   53.2  0.2866  -70.7
 1.660  0.3952 -175.8   8.649   77.6  0.0511   53.2  0.2836  -71.0
 1.680  0.3955 -176.6   8.545   77.1  0.0516   53.1  0.2806  -71.4
 1.700  0.3958 -177.4   8.443   76.6  0.0521   53.0  0.2776  -71.7
 1.720  0.3962 -178.1   8.344   76.2  0.0526   52.9  0.2749  -72.0
 1.740  0.3966 -178.7   8.246   75.8  0.0530   52.8  0.2723  -72.3
 1.760  0.3971 -179.4   8.148   75.3  0.0535   52.8  0.2697  -72.6
 1.780  0.3976  180.0   8.051   74.9  0.0539   52.7  0.2670  -72.9
 1.800  0.3982  179.3   7.954   74.4  0.0544   52.6  0.2644  -73.2
 1.820  0.3986  178.6   7.869   74.0  0.0549   52.5  0.2616  -73.5
 1.840  0.3990  177.9   7.785   73.6  0.0553   52.4  0.2588  -73.9
 1.860  0.3995  177.2   7.701   73.2  0.0558   52.2  0.2560  -74.3
 1.880  0.4000  176.5   7.618   72.8  0.0562   52.1  0.2532  -74.6
 1.900  0.4006  175.8   7.535   72.4  0.0567   52.0  0.2504  -75.0
 1.920  0.4009  175.2   7.459   72.0  0.0572   51.9  0.2480  -75.2
 1.940  0.4012  174.6   7.383   71.6  0.0577   51.8  0.2457  -75.5
 1.960  0.4015  174.0   7.308   71.2  0.0581   51.7  0.2433  -75.7
 1.980  0.4020  173.4   7.233   70.8  0.0586   51.6  0.2410  -76.0
 2.000  0.4024  172.8   7.158   70.4  0.0591   51.5  0.2386  -76.2
 2.020  0.4027  172.2   7.089   70.0  0.0596   51.4  0.2361  -76.5
 2.040  0.4030  171.5   7.021   69.6  0.0600   51.2  0.2337  -76.8
 2.060  0.4034  170.9   6.953   69.3  0.0605   51.1  0.2313  -77.2
 2.080  0.4039  170.3   6.885   68.9  0.0609   51.0  0.2288  -77.5
 2.100  0.4043  169.6   6.817   68.5  0.0614   50.8  0.2264  -77.9
 2.120  0.4049  169.0   6.750   68.0  0.0619   50.7  0.2240  -78.2
 2.140  0.4055  168.4   6.683   67.6  0.0623   50.6  0.2216  -78.6
 2.160  0.4061  167.7   6.617   67.2  0.0628   50.4  0.2192  -78.9
 2.180  0.4068  167.1   6.551   66.7  0.0632   50.3  0.2168  -79.3
 2.200  0.4075  166.5   6.485   66.3  0.0637   50.2  0.2144  -79.7
 2.220  0.4080  165.9   6.428   66.0  0.0642   50.1  0.2121  -80.1
 2.240  0.4086  165.3   6.372   65.6  0.0646   49.9  0.2098  -80.4
 2.260  0.4092  164.8   6.316   65.3  0.0651   49.8  0.2075  -80.8
 2.280  0.4099  164.2   6.260   64.9  0.0656   49.6  0.2052  -81.2
 2.300  0.4106  163.6   6.204   64.6  0.0660   49.5  0.2030  -81.6
 2.320  0.4113  163.1   6.148   64.2  0.0665   49.3  0.2007  -82.0
 2.340  0.4121  162.5   6.093   63.8  0.0670   49.2  0.1985  -82.4
 2.360  0.4129  161.9   6.038   63.5  0.0675   49.1  0.1962  -82.8
 2.380  0.4138  161.4   5.983   63.1  0.0679   48.9  0.1940  -83.3
 2.400  0.4147  160.8   5.929   62.7  0.0684   48.8  0.1918  -83.7
 2.420  0.4155  160.2   5.880   62.4  0.0688   48.6  0.1896  -84.1
 2.440  0.4164  159.7   5.831   62.0  0.0693   48.5  0.1875  -84.5
 2.460  0.4173  159.1   5.783   61.7  0.0697   48.3  0.1853  -85.0
 2.480  0.4182  158.6   5.734   61.3  0.0702   48.2  0.1832  -85.4
 2.500  0.4192  158.0   5.686   60.9  0.0706   48.0  0.1811  -85.9
 2.520  0.4202  157.5   5.638   60.6  0.0710   47.9  0.1789  -86.3
 2.540  0.4212  156.9   5.590   60.2  0.0715   47.7  0.1768  -86.8
 2.560  0.4223  156.4   5.543   59.8  0.0719   47.6  0.1747  -87.3
 2.580  0.4234  155.8   5.496   59.4  0.0724   47.4  0.1727  -87.8
 2.600  0.4246  155.3   5.449   59.0  0.0728   47.3  0.1706  -88.3
 2.620  0.4255  154.8   5.408   58.7  0.0733   47.2  0.1687  -88.8
 2.640  0.4264  154.3   5.366   58.4  0.0737   47.0  0.1668  -89.3
 2.660  0.4274  153.8   5.325   58.0  0.0742   46.9  0.1649  -89.8
 2.680  0.4284  153.4   5.284   57.7  0.0746   46.7  0.1630  -90.3
 2.700  0.4294  152.9   5.244   57.4  0.0751   46.6  0.1612  -90.8
 2.720  0.4305  152.4   5.203   57.0  0.0756   46.4  0.1593  -91.3
 2.740  0.4316  151.9   5.163   56.7  0.0760   46.3  0.1575  -91.9
 2.760  0.4327  151.4   5.123   56.3  0.0765   46.2  0.1557  -92.4
 2.780  0.4338  151.0   5.083   56.0  0.0769   46.0  0.1539  -93.0
 2.800  0.4350  150.5   5.043   55.6  0.0774   45.9  0.1521  -93.6
 2.820  0.4360  150.0   5.007   55.3  0.0778   45.7  0.1504  -94.1
 2.840  0.4371  149.6   4.971   55.0  0.0783   45.6  0.1487  -94.7
 2.860  0.4382  149.1   4.935   54.7  0.0787   45.4  0.1471  -95.3
 2.880  0.4393  148.7   4.900   54.3  0.0792   45.2  0.1454  -95.8
 2.900  0.4405  148.2   4.864   54.0  0.0796   45.1  0.1438  -96.4
 2.920  0.4416  147.8   4.829   53.7  0.0801   44.9  0.1422  -97.0
 2.940  0.4428  147.3   4.794   53.3  0.0805   44.8  0.1406  -97.7
 2.960  0.4441  146.9   4.759   53.0  0.0810   44.6  0.1390  -98.3
 2.980  0.4453  146.4   4.725   52.7  0.0814   44.5  0.1374  -98.9
 3.000  0.4466  146.0   4.690   52.3  0.0819   44.3  0.1359  -99.6
 3.100  0.4518  143.8   4.542   50.9  0.0841   43.4  0.1286 -102.6
 3.200  0.4577  141.7   4.397   49.4  0.0862   42.6  0.1217 -106.0
 3.300  0.4642  139.6   4.255   47.8  0.0884   41.8  0.1153 -109.8
 3.400  0.4713  137.6   4.116   46.0  0.0907   41.0  0.1095 -114.0
 3.500  0.4789  135.7   3.982   44.2  0.0929   40.3  0.1043 -118.6
 3.600  0.4843  133.8   3.869   42.8  0.0950   39.3  0.0991 -123.3
 3.700  0.4902  132.0   3.758   41.4  0.0971   38.4  0.0947 -128.5
 3.800  0.4966  130.2   3.650   39.9  0.0993   37.5  0.0911 -134.1
 3.900  0.5035  128.4   3.544   38.2  0.1015   36.7  0.0884 -140.2
 4.000  0.5108  126.7   3.442   36.5  0.1037   35.9  0.0868 -146.5
 4.100  0.5154  125.2   3.351   35.2  0.1056   34.9  0.0863 -152.8
 4.200  0.5203  123.7   3.263   33.8  0.1075   33.9  0.0869 -159.0
 4.300  0.5256  122.3   3.176   32.3  0.1094   33.0  0.0884 -165.1
 4.400  0.5312  120.9   3.092   30.7  0.1114   32.1  0.0910 -170.9
 4.500  0.5371  119.5   3.010   29.1  0.1134   31.2  0.0944 -176.4
 4.600  0.5401  118.3   2.939   27.9  0.1152   30.3  0.0965  179.7
 4.700  0.5432  117.1   2.869   26.6  0.1170   29.4  0.0991  176.0
 4.800  0.5467  115.9   2.800   25.3  0.1188   28.5  0.1020  172.4
 4.900  0.5503  114.7   2.733   23.9  0.1207   27.7  0.1054  169.1
 5.000  0.5542  113.6   2.668   22.4  0.1226   26.9  0.1090  166.0
 5.100  0.5569  112.5   2.612   21.2  0.1243   26.0  0.1110  162.9
 5.200  0.5599  111.4   2.558   19.9  0.1260   25.1  0.1133  159.9
 5.300  0.5630  110.3   2.504   18.6  0.1278   24.2  0.1158  157.0
 5.400  0.5663  109.2   2.452   17.2  0.1296   23.3  0.1187  154.3
 5.500  0.5699  108.1   2.402   15.8  0.1314   22.5  0.1218  151.7
 5.600  0.5739  106.9   2.357   14.6  0.1331   21.6  0.1252  148.6
 5.700  0.5782  105.8   2.312   13.3  0.1348   20.8  0.1290  145.7
 5.800  0.5826  104.7   2.269   12.0  0.1366   19.9  0.1331  143.0
 5.900  0.5873  103.6   2.227   10.7  0.1384   19.1  0.1375  140.4
 6.000  0.5922  102.5   2.186    9.3  0.1402   18.3  0.1421  138.0
 6.100  0.5965  101.4   2.147    8.1  0.1419   17.3  0.1466  135.8
 6.200  0.6010  100.2   2.110    6.8  0.1436   16.4  0.1512  133.8
 6.300  0.6058   99.1   2.073    5.5  0.1454   15.5  0.1561  131.9
 6.400  0.6107   98.1   2.038    4.1  0.1472   14.6  0.1611  130.1
 6.500  0.6159   97.0   2.004    2.7  0.1491   13.7  0.1662  128.4
 6.600  0.6195   96.0   1.972    1.4  0.1509   12.7  0.1689  126.5
 6.800  0.6272   94.0   1.911   -1.2  0.1547   10.9  0.1748  122.7
 7.000  0.6356   92.1   1.855   -4.0  0.1587    9.1  0.1814  119.3
 7.200  0.6407   89.9   1.799   -6.7  0.1622    6.8  0.1898  115.4
 7.400  0.6467   87.8   1.747   -9.5  0.1660    4.6  0.1990  111.8
 7.600  0.6526   85.4   1.693  -12.4  0.1690    2.3  0.2103  108.4
 7.800  0.6588   82.8   1.636  -15.2  0.1714   -0.2  0.2237  105.2
 8.000  0.6663   80.2   1.583  -18.3  0.1740   -2.6  0.2377  102.4
 8.200  0.6735   77.3   1.524  -20.7  0.1745   -4.7  0.2523   99.2
 8.400  0.6824   74.6   1.467  -23.3  0.1752   -6.8  0.2675   96.4
 8.600  0.6943   72.1   1.416  -25.7  0.1758   -8.7  0.2847   93.5
 8.800  0.7089   70.0   1.369  -27.9  0.1763  -10.3  0.3040   90.6
 9.000  0.7244   68.0   1.325  -30.2  0.1769  -11.9  0.3239   88.0
 9.200  0.7465   66.5   1.288  -32.3  0.1777  -13.4  0.3485   85.7
 9.400  0.7691   65.2   1.253  -34.6  0.1787  -14.9  0.3735   83.6
 9.600  0.7894   63.7   1.212  -36.8  0.1794  -16.5  0.3975   82.0
 9.800  0.8075   62.1   1.164  -39.0  0.1800  -18.0  0.4204   80.6
10.000  0.8261   60.6   1.118  -41.4  0.1807  -19.6  0.4434   79.4
10.200  0.8292   59.5   1.079  -42.8  0.1818  -20.8  0.4557   78.3
10.400  0.8326   58.4   1.042  -44.4  0.1829  -22.0  0.4681   77.2
10.600  0.8285   57.8   1.012  -45.8  0.1840  -23.4  0.4759   76.5
10.800  0.8166   57.9   0.990  -47.0  0.1851  -25.0  0.4788   76.0
11.000  0.8048   58.0   0.969  -48.2  0.1864  -26.5  0.4818   75.6
11.200  0.7946   58.3   0.966  -49.2  0.1873  -27.8  0.4802   76.7
11.400  0.7845   58.6   0.963  -50.3  0.1884  -29.1  0.4788   77.8
11.600  0.7869   58.2   0.958  -52.6  0.1900  -30.9  0.4828   79.0
11.800  0.8021   57.2   0.951  -56.2  0.1925  -33.2  0.4924   80.3
12.000  0.8175   56.3   0.949  -59.8  0.1953  -35.4  0.5023   81.6
!
!  f       NFmin   Gammaopt  rn/50
! GHz       dB    MAG  ANG    -
 0.450      1.73  0.14 -155   0.16
 0.900      1.70  0.14 -156   0.16
 1.800      1.84  0.19 -141   0.17
 2.400      1.84  0.24 -124   0.23
 5.500      2.72  0.43 -103   0.42
10.000      3.83  0.70  -46   2.50
!
! (c) 2015  Infineon Technologies AG, Munich
