! Infineon Technologies  Discrete & RF Semiconductors
! BFP410
! VCE =  2.5 V,  IC =  15 mA
! Common Emitter S-Parameters:                            Nov 2015
# GHz  S  MA  R  50
!  f         S11            S21            S12            S22
! GHz     MAG   ANG      MAG   ANG      MAG   ANG      MAG   ANG
 0.010  0.5666    1.2  31.809  179.2  0.0007  108.5  0.9635    3.1
 0.015  0.5704   -0.6  31.686  178.2  0.0009  101.2  0.9640    1.4
 0.020  0.5748   -2.3  31.574  177.1  0.0011   96.6  0.9652   -0.2
 0.025  0.5741   -3.1  31.504  176.5  0.0014   93.4  0.9666   -0.7
 0.030  0.5735   -4.0  31.438  175.9  0.0016   91.3  0.9680   -1.1
 0.035  0.5730   -4.8  31.376  175.3  0.0019   89.8  0.9695   -1.6
 0.040  0.5727   -5.7  31.316  174.7  0.0022   88.6  0.9711   -2.0
 0.045  0.5725   -6.5  31.260  174.1  0.0024   87.7  0.9727   -2.5
 0.050  0.5724   -7.4  31.208  173.5  0.0027   87.0  0.9744   -2.9
 0.055  0.5716   -8.2  31.169  173.0  0.0029   86.6  0.9736   -3.3
 0.060  0.5709   -9.1  31.132  172.4  0.0032   86.3  0.9728   -3.8
 0.065  0.5703   -9.9  31.099  171.9  0.0034   86.0  0.9721   -4.2
 0.070  0.5698  -10.7  31.068  171.4  0.0037   85.8  0.9714   -4.6
 0.075  0.5695  -11.6  31.040  170.8  0.0039   85.6  0.9708   -5.0
 0.080  0.5693  -12.4  31.014  170.3  0.0041   85.4  0.9703   -5.5
 0.085  0.5692  -13.3  30.991  169.7  0.0044   85.2  0.9698   -5.9
 0.090  0.5693  -14.1  30.971  169.2  0.0046   85.1  0.9693   -6.3
 0.095  0.5694  -15.0  30.954  168.6  0.0049   84.9  0.9689   -6.8
 0.100  0.5697  -15.8  30.940  168.1  0.0051   84.8  0.9686   -7.2
 0.105  0.5683  -16.6  30.865  167.6  0.0053   84.2  0.9671   -7.6
 0.110  0.5670  -17.4  30.792  167.0  0.0056   83.6  0.9657   -8.0
 0.115  0.5659  -18.1  30.722  166.4  0.0058   83.1  0.9643   -8.3
 0.120  0.5648  -18.9  30.655  165.9  0.0061   82.7  0.9629   -8.7
 0.125  0.5639  -19.7  30.591  165.3  0.0063   82.2  0.9616   -9.1
 0.130  0.5630  -20.5  30.530  164.8  0.0066   81.8  0.9603   -9.5
 0.135  0.5623  -21.3  30.472  164.2  0.0068   81.5  0.9591   -9.8
 0.140  0.5616  -22.1  30.417  163.6  0.0071   81.1  0.9579  -10.2
 0.145  0.5611  -22.9  30.365  163.1  0.0073   80.8  0.9567  -10.6
 0.150  0.5607  -23.7  30.316  162.5  0.0076   80.5  0.9556  -11.0
 0.155  0.5593  -24.5  30.231  162.0  0.0078   80.1  0.9535  -11.4
 0.160  0.5579  -25.2  30.148  161.5  0.0081   79.8  0.9514  -11.7
 0.165  0.5567  -26.0  30.067  160.9  0.0083   79.4  0.9494  -12.1
 0.170  0.5555  -26.7  29.989  160.4  0.0085   79.1  0.9474  -12.4
 0.175  0.5545  -27.5  29.914  159.9  0.0087   78.8  0.9454  -12.8
 0.180  0.5536  -28.3  29.841  159.4  0.0090   78.5  0.9435  -13.1
 0.185  0.5527  -29.1  29.771  158.8  0.0092   78.2  0.9416  -13.5
 0.190  0.5520  -29.8  29.703  158.3  0.0094   78.0  0.9397  -13.9
 0.195  0.5513  -30.6  29.638  157.7  0.0097   77.7  0.9379  -14.2
 0.200  0.5508  -31.4  29.576  157.2  0.0099   77.5  0.9361  -14.6
 0.220  0.5443  -34.3  29.151  155.1  0.0108   76.4  0.9271  -15.9
 0.240  0.5391  -37.2  28.765  153.0  0.0117   75.4  0.9186  -17.2
 0.260  0.5337  -40.1  28.391  150.9  0.0125   74.5  0.9090  -18.5
 0.280  0.5279  -43.1  28.022  149.0  0.0134   73.5  0.8984  -19.7
 0.300  0.5235  -46.1  27.686  147.0  0.0142   72.7  0.8882  -21.0
 0.320  0.5173  -48.8  27.251  145.2  0.0150   71.8  0.8773  -22.1
 0.340  0.5123  -51.6  26.845  143.3  0.0157   70.9  0.8668  -23.3
 0.360  0.5068  -54.3  26.421  141.5  0.0165   70.0  0.8560  -24.4
 0.380  0.5009  -56.9  25.977  139.8  0.0172   69.2  0.8448  -25.4
 0.400  0.4960  -59.5  25.558  138.0  0.0179   68.4  0.8338  -26.4
 0.420  0.4895  -62.0  25.114  136.4  0.0186   67.7  0.8228  -27.3
 0.440  0.4839  -64.5  24.690  134.8  0.0193   67.0  0.8120  -28.3
 0.450  0.4815  -65.8  24.485  134.0  0.0196   66.7  0.8067  -28.8
 0.460  0.4782  -67.0  24.264  133.2  0.0199   66.4  0.8010  -29.2
 0.480  0.4724  -69.5  23.834  131.7  0.0205   65.8  0.7897  -30.2
 0.500  0.4674  -72.0  23.422  130.1  0.0211   65.2  0.7787  -31.1
 0.520  0.4611  -74.1  22.987  128.8  0.0216   64.7  0.7680  -31.8
 0.540  0.4555  -76.3  22.565  127.5  0.0222   64.1  0.7574  -32.5
 0.560  0.4505  -78.5  22.156  126.1  0.0227   63.6  0.7470  -33.3
 0.580  0.4463  -80.8  21.760  124.6  0.0233   63.2  0.7367  -34.0
 0.600  0.4427  -83.1  21.379  123.1  0.0238   62.7  0.7265  -34.8
 0.620  0.4372  -85.1  20.997  122.0  0.0243   62.3  0.7168  -35.4
 0.640  0.4323  -87.2  20.622  120.9  0.0248   61.9  0.7072  -36.0
 0.660  0.4280  -89.3  20.257  119.7  0.0254   61.5  0.6977  -36.7
 0.680  0.4242  -91.4  19.900  118.5  0.0259   61.1  0.6883  -37.3
 0.700  0.4211  -93.6  19.552  117.2  0.0264   60.8  0.6790  -38.0
 0.720  0.4169  -95.4  19.204  116.2  0.0269   60.5  0.6704  -38.5
 0.740  0.4131  -97.2  18.862  115.2  0.0273   60.2  0.6618  -39.0
 0.760  0.4098  -99.0  18.526  114.1  0.0278   59.9  0.6533  -39.5
 0.780  0.4069 -100.9  18.196  113.0  0.0282   59.6  0.6449  -40.1
 0.800  0.4044 -102.8  17.874  111.9  0.0287   59.3  0.6365  -40.6
 0.820  0.4010 -104.5  17.579  111.0  0.0291   59.1  0.6288  -41.1
 0.840  0.3979 -106.3  17.288  110.1  0.0296   58.8  0.6211  -41.5
 0.860  0.3953 -108.1  17.001  109.1  0.0300   58.6  0.6134  -42.0
 0.880  0.3930 -109.9  16.720  108.1  0.0305   58.4  0.6058  -42.5
 0.900  0.3911 -111.7  16.444  107.1  0.0309   58.2  0.5982  -43.0
 0.920  0.3881 -113.2  16.174  106.3  0.0313   58.0  0.5911  -43.4
 0.940  0.3854 -114.8  15.907  105.5  0.0317   57.8  0.5841  -43.8
 0.960  0.3830 -116.4  15.643  104.7  0.0321   57.6  0.5771  -44.2
 0.980  0.3808 -118.0  15.383  103.8  0.0325   57.5  0.5701  -44.6
 1.000  0.3790 -119.6  15.126  102.9  0.0329   57.3  0.5632  -45.0
 1.020  0.3770 -121.0  14.894  102.2  0.0333   57.2  0.5571  -45.3
 1.040  0.3753 -122.4  14.664  101.5  0.0337   57.0  0.5510  -45.7
 1.060  0.3738 -123.9  14.437  100.7  0.0342   56.9  0.5449  -46.0
 1.080  0.3725 -125.3  14.213   99.9  0.0346   56.7  0.5388  -46.3
 1.100  0.3715 -126.8  13.991   99.1  0.0350   56.6  0.5328  -46.7
 1.120  0.3699 -128.1  13.787   98.4  0.0354   56.5  0.5272  -47.0
 1.140  0.3684 -129.5  13.585   97.7  0.0358   56.4  0.5216  -47.4
 1.160  0.3672 -130.9  13.385   97.0  0.0362   56.2  0.5161  -47.7
 1.180  0.3662 -132.2  13.187   96.3  0.0366   56.1  0.5105  -48.0
 1.200  0.3654 -133.6  12.992   95.5  0.0370   56.0  0.5050  -48.4
 1.220  0.3642 -134.8  12.811   94.9  0.0374   55.9  0.5001  -48.7
 1.240  0.3631 -136.0  12.631   94.3  0.0378   55.8  0.4952  -48.9
 1.260  0.3623 -137.2  12.452   93.6  0.0381   55.7  0.4904  -49.2
 1.280  0.3615 -138.5  12.275   93.0  0.0385   55.6  0.4855  -49.5
 1.300  0.3610 -139.7  12.100   92.3  0.0389   55.5  0.4807  -49.8
 1.320  0.3600 -140.9  11.936   91.7  0.0393   55.4  0.4761  -50.1
 1.340  0.3592 -142.0  11.773   91.1  0.0397   55.3  0.4715  -50.3
 1.360  0.3585 -143.2  11.612   90.5  0.0401   55.2  0.4670  -50.6
 1.380  0.3580 -144.3  11.452   89.9  0.0405   55.1  0.4624  -50.9
 1.400  0.3576 -145.5  11.293   89.3  0.0409   55.0  0.4579  -51.2
 1.420  0.3567 -146.5  11.153   88.8  0.0413   54.9  0.4540  -51.4
 1.440  0.3559 -147.5  11.013   88.3  0.0417   54.8  0.4501  -51.6
 1.460  0.3552 -148.5  10.874   87.8  0.0421   54.8  0.4462  -51.8
 1.480  0.3547 -149.5  10.737   87.2  0.0425   54.7  0.4423  -52.1
 1.500  0.3542 -150.5  10.600   86.7  0.0429   54.6  0.4384  -52.3
 1.520  0.3539 -151.5  10.474   86.2  0.0433   54.5  0.4346  -52.5
 1.540  0.3538 -152.5  10.348   85.7  0.0437   54.4  0.4309  -52.8
 1.560  0.3537 -153.5  10.224   85.1  0.0441   54.3  0.4272  -53.0
 1.580  0.3537 -154.5  10.101   84.6  0.0445   54.2  0.4234  -53.3
 1.600  0.3539 -155.5   9.978   84.0  0.0449   54.1  0.4197  -53.5
 1.620  0.3534 -156.5   9.866   83.5  0.0453   54.0  0.4165  -53.7
 1.640  0.3530 -157.5   9.754   83.0  0.0457   53.9  0.4132  -53.9
 1.660  0.3526 -158.4   9.643   82.5  0.0460   53.8  0.4100  -54.1
 1.680  0.3524 -159.4   9.532   82.0  0.0464   53.7  0.4067  -54.3
 1.700  0.3523 -160.4   9.423   81.5  0.0468   53.6  0.4035  -54.5
 1.720  0.3521 -161.2   9.316   81.1  0.0472   53.5  0.4005  -54.7
 1.740  0.3521 -162.0   9.209   80.6  0.0476   53.4  0.3975  -54.9
 1.760  0.3520 -162.8   9.103   80.2  0.0480   53.4  0.3945  -55.1
 1.780  0.3521 -163.6   8.998   79.7  0.0484   53.3  0.3916  -55.3
 1.800  0.3522 -164.4   8.893   79.2  0.0488   53.2  0.3886  -55.5
 1.820  0.3522 -165.3   8.802   78.8  0.0492   53.1  0.3855  -55.7
 1.840  0.3522 -166.2   8.712   78.3  0.0496   53.0  0.3824  -55.9
 1.860  0.3524 -167.1   8.622   77.9  0.0501   52.9  0.3793  -56.1
 1.880  0.3526 -168.0   8.533   77.5  0.0505   52.8  0.3763  -56.4
 1.900  0.3529 -168.9   8.444   77.0  0.0509   52.7  0.3732  -56.6
 1.920  0.3525 -169.7   8.360   76.6  0.0513   52.6  0.3706  -56.7
 1.940  0.3522 -170.5   8.276   76.2  0.0517   52.5  0.3680  -56.9
 1.960  0.3520 -171.2   8.193   75.8  0.0521   52.4  0.3654  -57.0
 1.980  0.3518 -172.0   8.110   75.3  0.0525   52.3  0.3628  -57.2
 2.000  0.3517 -172.8   8.028   74.9  0.0529   52.2  0.3602  -57.3
 2.020  0.3516 -173.6   7.953   74.5  0.0533   52.1  0.3575  -57.5
 2.040  0.3515 -174.4   7.879   74.1  0.0537   52.0  0.3548  -57.7
 2.060  0.3515 -175.2   7.805   73.7  0.0541   51.9  0.3521  -57.9
 2.080  0.3515 -176.0   7.731   73.3  0.0545   51.7  0.3494  -58.1
 2.100  0.3516 -176.8   7.658   72.9  0.0549   51.6  0.3467  -58.3
 2.120  0.3518 -177.6   7.585   72.4  0.0553   51.5  0.3441  -58.5
 2.140  0.3521 -178.4   7.512   72.0  0.0557   51.4  0.3414  -58.7
 2.160  0.3524 -179.2   7.440   71.5  0.0561   51.3  0.3387  -58.9
 2.180  0.3528  180.0   7.369   71.1  0.0565   51.2  0.3361  -59.1
 2.200  0.3533  179.2   7.298   70.6  0.0569   51.1  0.3334  -59.3
 2.220  0.3536  178.5   7.236   70.2  0.0573   51.0  0.3308  -59.5
 2.240  0.3539  177.8   7.174   69.9  0.0577   50.8  0.3283  -59.7
 2.260  0.3543  177.1   7.112   69.5  0.0581   50.7  0.3257  -59.8
 2.280  0.3547  176.4   7.050   69.2  0.0585   50.6  0.3232  -60.0
 2.300  0.3552  175.7   6.989   68.8  0.0589   50.5  0.3206  -60.2
 2.320  0.3558  175.0   6.928   68.4  0.0593   50.4  0.3181  -60.4
 2.340  0.3564  174.3   6.868   68.0  0.0597   50.2  0.3155  -60.6
 2.360  0.3570  173.6   6.807   67.6  0.0601   50.1  0.3130  -60.8
 2.380  0.3577  172.9   6.748   67.2  0.0605   50.0  0.3104  -61.0
 2.400  0.3585  172.2   6.688   66.8  0.0609   49.9  0.3079  -61.2
 2.420  0.3591  171.5   6.634   66.4  0.0613   49.8  0.3054  -61.4
 2.440  0.3597  170.8   6.580   66.1  0.0617   49.6  0.3030  -61.6
 2.460  0.3604  170.2   6.526   65.7  0.0621   49.5  0.3005  -61.8
 2.480  0.3611  169.5   6.472   65.4  0.0625   49.3  0.2980  -62.0
 2.500  0.3619  168.8   6.419   65.0  0.0628   49.2  0.2956  -62.3
 2.520  0.3627  168.1   6.366   64.6  0.0632   49.0  0.2931  -62.5
 2.540  0.3636  167.5   6.313   64.2  0.0636   48.9  0.2907  -62.7
 2.560  0.3645  166.8   6.261   63.8  0.0640   48.8  0.2883  -62.9
 2.580  0.3655  166.2   6.209   63.4  0.0644   48.6  0.2858  -63.2
 2.600  0.3665  165.5   6.157   63.0  0.0648   48.5  0.2834  -63.4
 2.620  0.3672  164.9   6.111   62.7  0.0652   48.4  0.2812  -63.6
 2.640  0.3679  164.3   6.065   62.3  0.0656   48.2  0.2790  -63.8
 2.660  0.3687  163.7   6.019   62.0  0.0660   48.1  0.2768  -64.0
 2.680  0.3695  163.1   5.974   61.7  0.0664   48.0  0.2746  -64.2
 2.700  0.3704  162.5   5.929   61.3  0.0668   47.9  0.2724  -64.5
 2.720  0.3713  161.9   5.884   61.0  0.0672   47.8  0.2702  -64.7
 2.740  0.3722  161.3   5.839   60.6  0.0676   47.6  0.2680  -64.9
 2.760  0.3732  160.8   5.794   60.2  0.0680   47.5  0.2658  -65.1
 2.780  0.3742  160.2   5.750   59.9  0.0684   47.4  0.2637  -65.4
 2.800  0.3753  159.6   5.706   59.5  0.0688   47.3  0.2615  -65.6
 2.820  0.3763  159.0   5.666   59.2  0.0692   47.2  0.2595  -65.8
 2.840  0.3772  158.5   5.626   58.9  0.0696   47.0  0.2575  -66.0
 2.860  0.3783  157.9   5.587   58.6  0.0700   46.9  0.2554  -66.2
 2.880  0.3793  157.4   5.547   58.2  0.0704   46.7  0.2534  -66.4
 2.900  0.3804  156.9   5.508   57.9  0.0708   46.6  0.2514  -66.7
 2.920  0.3816  156.3   5.469   57.6  0.0712   46.4  0.2494  -66.9
 2.940  0.3827  155.8   5.430   57.2  0.0716   46.3  0.2474  -67.1
 2.960  0.3839  155.3   5.392   56.9  0.0720   46.2  0.2454  -67.3
 2.980  0.3851  154.7   5.353   56.6  0.0724   46.0  0.2434  -67.6
 3.000  0.3864  154.2   5.315   56.2  0.0728   45.9  0.2414  -67.8
 3.100  0.3911  151.6   5.150   54.8  0.0747   45.1  0.2323  -68.9
 3.200  0.3966  149.1   4.988   53.2  0.0766   44.4  0.2233  -70.1
 3.300  0.4028  146.7   4.831   51.6  0.0786   43.6  0.2144  -71.3
 3.400  0.4097  144.3   4.677   49.9  0.0805   43.0  0.2056  -72.7
 3.500  0.4173  142.0   4.528   48.0  0.0825   42.3  0.1970  -74.2
 3.600  0.4228  139.9   4.402   46.6  0.0844   41.5  0.1885  -75.5
 3.700  0.4289  137.8   4.279   45.1  0.0864   40.7  0.1802  -77.0
 3.800  0.4356  135.8   4.159   43.5  0.0883   39.9  0.1720  -78.6
 3.900  0.4427  133.9   4.042   41.9  0.0903   39.2  0.1639  -80.4
 4.000  0.4504  132.0   3.929   40.1  0.0923   38.5  0.1560  -82.3
 4.100  0.4555  130.3   3.828   38.8  0.0941   37.6  0.1484  -84.5
 4.200  0.4610  128.7   3.729   37.3  0.0959   36.7  0.1411  -87.0
 4.300  0.4669  127.1   3.633   35.8  0.0978   35.8  0.1340  -89.8
 4.400  0.4731  125.5   3.539   34.3  0.0996   35.0  0.1273  -92.8
 4.500  0.4797  124.0   3.448   32.6  0.1015   34.2  0.1210  -96.2
 4.600  0.4831  122.7   3.367   31.4  0.1032   33.3  0.1162  -98.7
 4.700  0.4867  121.3   3.287   30.1  0.1049   32.5  0.1116 -101.5
 4.800  0.4906  120.0   3.210   28.7  0.1067   31.7  0.1073 -104.4
 4.900  0.4948  118.8   3.134   27.3  0.1084   30.9  0.1033 -107.6
 5.000  0.4992  117.5   3.060   25.8  0.1102   30.1  0.0997 -111.1
 5.100  0.5022  116.3   2.996   24.6  0.1118   29.2  0.0957 -113.7
 5.200  0.5054  115.1   2.934   23.3  0.1134   28.3  0.0920 -116.6
 5.300  0.5089  113.9   2.874   22.0  0.1151   27.5  0.0885 -119.6
 5.400  0.5125  112.7   2.814   20.6  0.1168   26.7  0.0852 -122.9
 5.500  0.5164  111.5   2.757   19.2  0.1185   25.9  0.0823 -126.5
 5.600  0.5207  110.3   2.705   18.0  0.1201   25.1  0.0782 -130.7
 5.700  0.5253  109.1   2.655   16.7  0.1217   24.3  0.0745 -135.4
 5.800  0.5301  107.9   2.606   15.4  0.1234   23.5  0.0715 -140.6
 5.900  0.5351  106.7   2.559   14.0  0.1250   22.7  0.0690 -146.1
 6.000  0.5403  105.6   2.513   12.6  0.1267   22.0  0.0672 -152.0
 6.100  0.5449  104.4   2.470   11.4  0.1284   21.1  0.0661 -157.9
 6.200  0.5498  103.3   2.427   10.1  0.1301   20.2  0.0657 -163.9
 6.300  0.5548  102.1   2.386    8.8  0.1318   19.4  0.0660 -170.0
 6.400  0.5601  101.0   2.346    7.4  0.1335   18.5  0.0671 -175.9
 6.500  0.5656   99.9   2.308    6.0  0.1353   17.7  0.0688  178.4
 6.600  0.5694   98.9   2.272    4.7  0.1371   16.8  0.0684  174.1
 6.800  0.5776   96.8   2.203    2.0  0.1407   15.1  0.0688  165.5
 7.000  0.5865   94.8   2.139   -0.8  0.1445   13.4  0.0707  157.1
 7.200  0.5921   92.6   2.076   -3.4  0.1481   11.3  0.0744  147.6
 7.400  0.5985   90.5   2.017   -6.2  0.1518    9.3  0.0799  139.2
 7.600  0.6051   88.0   1.956   -9.0  0.1550    7.1  0.0888  131.3
 7.800  0.6125   85.3   1.892  -11.9  0.1577    4.7  0.1010  124.5
 8.000  0.6211   82.7   1.834  -15.0  0.1607    2.4  0.1144  119.2
 8.200  0.6298   79.8   1.767  -17.5  0.1617    0.3  0.1293  113.2
 8.400  0.6402   77.0   1.704  -20.1  0.1630   -1.9  0.1453  108.5
 8.600  0.6536   74.4   1.648  -22.6  0.1641   -3.7  0.1632  103.8
 8.800  0.6696   72.2   1.596  -24.9  0.1649   -5.4  0.1835   99.2
 9.000  0.6867   70.1   1.548  -27.3  0.1659   -7.0  0.2046   95.6
 9.200  0.7102   68.6   1.505  -29.5  0.1669   -8.5  0.2303   92.5
 9.400  0.7342   67.3   1.464  -31.8  0.1680  -10.0  0.2565   90.0
 9.600  0.7560   65.8   1.417  -34.1  0.1690  -11.5  0.2821   88.2
 9.800  0.7759   64.2   1.364  -36.5  0.1700  -13.0  0.3068   87.0
10.000  0.7964   62.7   1.313  -39.1  0.1711  -14.5  0.3317   85.9
10.200  0.8016   61.5   1.267  -40.8  0.1727  -15.8  0.3467   84.9
10.400  0.8071   60.4   1.222  -42.6  0.1743  -17.1  0.3617   83.9
10.600  0.8044   59.8   1.186  -44.1  0.1759  -18.6  0.3728   83.4
10.800  0.7932   59.8   1.159  -45.4  0.1775  -20.2  0.3798   83.3
11.000  0.7820   59.8   1.132  -46.8  0.1792  -21.9  0.3868   83.2
11.200  0.7713   60.1   1.126  -48.0  0.1799  -23.5  0.3894   84.4
11.400  0.7607   60.4   1.120  -49.1  0.1807  -25.0  0.3922   85.6
11.600  0.7628   60.0   1.112  -51.4  0.1820  -26.9  0.3983   86.9
11.800  0.7778   59.1   1.104  -55.0  0.1837  -29.0  0.4077   88.3
12.000  0.7929   58.2   1.101  -58.5  0.1856  -31.1  0.4173   89.7
!
!  f       NFmin   Gammaopt  rn/50
! GHz       dB    MAG  ANG    -
 0.450      1.52  0.06 -134   0.19
 0.900      1.50  0.07 -151   0.16
 1.800      1.61  0.12 -142   0.16
 2.400      1.64  0.18 -123   0.21
 5.500      2.49  0.39 -106   0.35
10.000      3.60  0.69  -47   2.16
!
! (c) 2015  Infineon Technologies AG, Munich
