! Infineon Technologies  Discrete & RF Semiconductors
! BFP405F
! VCE =  4.0 V,  IC =  16 mA
! Common Emitter S-Parameters:                            Nov 2015
# GHz  S  MA  R  50
!  f         S11            S21            S12            S22
! GHz     MAG   ANG      MAG   ANG      MAG   ANG      MAG   ANG
 0.030  0.6270   -1.8  26.616  176.1  0.0031   45.3  0.9727   -0.2
 0.035  0.6248   -2.2  26.597  175.9  0.0023   64.7  0.9727   -0.4
 0.040  0.6227   -2.7  26.579  175.7  0.0020   95.6  0.9727   -0.6
 0.045  0.6223   -3.7  26.652  175.1  0.0029   67.6  0.9762   -0.8
 0.050  0.6220   -4.7  26.727  174.5  0.0041   54.4  0.9798   -1.0
 0.055  0.6227   -4.9  26.597  174.2  0.0028   78.7  0.9763   -1.0
 0.060  0.6234   -5.0  26.468  173.9  0.0025  121.0  0.9729   -1.1
 0.065  0.6230   -5.4  26.448  173.3  0.0032  114.5  0.9761   -1.5
 0.070  0.6226   -5.8  26.430  172.7  0.0039  110.3  0.9793   -1.8
 0.075  0.6226   -6.4  26.350  172.4  0.0037   88.2  0.9768   -2.0
 0.080  0.6226   -7.1  26.270  172.0  0.0041   67.3  0.9743   -2.2
 0.085  0.6216   -7.7  26.305  171.8  0.0046   76.9  0.9753   -2.5
 0.090  0.6206   -8.3  26.340  171.7  0.0053   84.3  0.9764   -2.7
 0.095  0.6221   -8.7  26.260  171.3  0.0034   87.2  0.9767   -3.0
 0.100  0.6236   -9.0  26.182  170.9  0.0016   96.9  0.9771   -3.2
 0.105  0.6222   -9.4  26.164  170.5  0.0019  110.1  0.9766   -3.3
 0.110  0.6208   -9.8  26.147  170.0  0.0023  119.3  0.9761   -3.5
 0.115  0.6181  -10.3  26.121  169.7  0.0034   89.5  0.9752   -3.6
 0.120  0.6155  -10.8  26.095  169.4  0.0049   76.0  0.9743   -3.7
 0.125  0.6161  -11.2  26.078  168.9  0.0054   80.5  0.9732   -3.9
 0.130  0.6167  -11.6  26.062  168.4  0.0059   84.3  0.9722   -4.2
 0.135  0.6161  -12.2  26.065  168.1  0.0045   79.4  0.9729   -4.4
 0.140  0.6155  -12.8  26.069  167.9  0.0032   70.2  0.9736   -4.5
 0.145  0.6143  -13.2  26.047  167.5  0.0032   66.7  0.9719   -4.7
 0.150  0.6132  -13.7  26.026  167.1  0.0033   63.4  0.9702   -5.0
 0.155  0.6122  -14.1  25.989  166.6  0.0035   66.7  0.9695   -5.2
 0.160  0.6112  -14.6  25.953  166.2  0.0037   69.6  0.9687   -5.4
 0.165  0.6102  -15.0  25.919  165.7  0.0040   72.1  0.9680   -5.5
 0.170  0.6093  -15.5  25.886  165.3  0.0042   74.4  0.9673   -5.7
 0.175  0.6084  -15.9  25.855  164.8  0.0045   76.4  0.9666   -5.9
 0.180  0.6075  -16.4  25.826  164.4  0.0047   78.2  0.9659   -6.1
 0.185  0.6067  -16.8  25.798  163.9  0.0050   79.8  0.9653   -6.3
 0.190  0.6059  -17.3  25.773  163.4  0.0053   81.2  0.9646   -6.4
 0.195  0.6052  -17.7  25.748  163.0  0.0055   82.5  0.9639   -6.6
 0.200  0.6045  -18.2  25.726  162.5  0.0058   83.7  0.9633   -6.8
 0.220  0.5997  -19.9  25.463  161.0  0.0060   82.2  0.9606   -7.4
 0.240  0.5955  -21.6  25.219  159.5  0.0061   80.9  0.9580   -8.0
 0.260  0.5904  -23.3  24.998  157.9  0.0063   79.3  0.9541   -8.6
 0.280  0.5843  -24.9  24.801  156.3  0.0066   77.6  0.9489   -9.3
 0.300  0.5787  -26.6  24.624  154.7  0.0068   76.1  0.9439   -9.9
 0.320  0.5728  -28.2  24.347  153.2  0.0074   77.0  0.9397  -10.5
 0.340  0.5674  -29.8  24.086  151.8  0.0079   77.8  0.9356  -11.0
 0.360  0.5615  -31.4  23.835  150.3  0.0085   79.3  0.9315  -11.6
 0.380  0.5552  -33.0  23.591  148.9  0.0090   81.3  0.9272  -12.1
 0.400  0.5494  -34.6  23.362  147.4  0.0096   83.1  0.9231  -12.7
 0.420  0.5434  -36.1  23.078  146.1  0.0101   80.6  0.9171  -13.2
 0.440  0.5378  -37.6  22.807  144.7  0.0106   78.4  0.9112  -13.7
 0.450  0.5352  -38.4  22.677  144.0  0.0109   77.4  0.9083  -13.9
 0.460  0.5318  -39.1  22.528  143.4  0.0110   76.9  0.9056  -14.2
 0.480  0.5253  -40.4  22.239  142.0  0.0112   75.9  0.9003  -14.7
 0.500  0.5190  -41.8  21.962  140.7  0.0114   75.0  0.8950  -15.2
 0.520  0.5114  -43.1  21.665  139.5  0.0117   75.0  0.8896  -15.6
 0.540  0.5040  -44.4  21.376  138.4  0.0120   74.9  0.8842  -16.0
 0.560  0.4969  -45.8  21.097  137.1  0.0122   74.9  0.8788  -16.4
 0.580  0.4902  -47.2  20.828  135.9  0.0125   74.8  0.8735  -16.8
 0.600  0.4837  -48.7  20.569  134.6  0.0128   74.8  0.8682  -17.2
 0.620  0.4770  -49.8  20.295  133.6  0.0133   74.4  0.8630  -17.5
 0.640  0.4706  -51.0  20.027  132.6  0.0138   74.0  0.8579  -17.9
 0.660  0.4643  -52.2  19.766  131.5  0.0142   73.7  0.8528  -18.2
 0.680  0.4582  -53.4  19.512  130.4  0.0147   73.4  0.8477  -18.6
 0.700  0.4524  -54.7  19.265  129.3  0.0152   73.1  0.8427  -18.9
 0.720  0.4459  -55.8  18.984  128.4  0.0155   72.9  0.8378  -19.2
 0.740  0.4396  -56.9  18.707  127.4  0.0158   72.8  0.8330  -19.6
 0.760  0.4334  -58.1  18.437  126.4  0.0162   72.6  0.8282  -19.9
 0.780  0.4275  -59.3  18.172  125.4  0.0165   72.4  0.8234  -20.3
 0.800  0.4217  -60.5  17.913  124.3  0.0168   72.3  0.8187  -20.6
 0.820  0.4160  -61.5  17.676  123.5  0.0172   71.9  0.8141  -20.9
 0.840  0.4104  -62.5  17.442  122.6  0.0176   71.6  0.8096  -21.1
 0.860  0.4049  -63.5  17.213  121.7  0.0180   71.2  0.8050  -21.4
 0.880  0.3996  -64.5  16.988  120.8  0.0184   70.9  0.8005  -21.6
 0.900  0.3944  -65.6  16.767  119.9  0.0188   70.6  0.7960  -21.9
 0.920  0.3891  -66.5  16.538  119.2  0.0191   70.9  0.7914  -22.2
 0.940  0.3839  -67.5  16.312  118.4  0.0194   71.1  0.7869  -22.4
 0.960  0.3787  -68.5  16.088  117.6  0.0198   71.4  0.7824  -22.7
 0.980  0.3738  -69.5  15.868  116.8  0.0201   71.7  0.7779  -22.9
 1.000  0.3689  -70.6  15.651  116.0  0.0204   71.9  0.7734  -23.2
 1.020  0.3638  -71.5  15.446  115.3  0.0207   71.7  0.7695  -23.4
 1.040  0.3589  -72.4  15.243  114.7  0.0210   71.4  0.7657  -23.6
 1.060  0.3540  -73.3  15.043  114.0  0.0212   71.2  0.7618  -23.9
 1.080  0.3492  -74.2  14.845  113.2  0.0215   71.0  0.7580  -24.1
 1.100  0.3445  -75.2  14.649  112.5  0.0218   70.8  0.7542  -24.3
 1.120  0.3402  -76.1  14.466  111.9  0.0221   70.9  0.7505  -24.5
 1.140  0.3359  -77.0  14.285  111.2  0.0223   71.0  0.7467  -24.7
 1.160  0.3317  -77.9  14.107  110.5  0.0226   71.1  0.7430  -24.8
 1.180  0.3277  -78.9  13.930  109.8  0.0228   71.2  0.7393  -25.0
 1.200  0.3237  -79.9  13.755  109.1  0.0231   71.3  0.7356  -25.2
 1.220  0.3194  -80.7  13.587  108.5  0.0233   71.2  0.7322  -25.4
 1.240  0.3152  -81.5  13.420  107.9  0.0235   71.0  0.7288  -25.6
 1.260  0.3111  -82.4  13.254  107.3  0.0238   70.9  0.7254  -25.7
 1.280  0.3070  -83.2  13.090  106.7  0.0240   70.7  0.7220  -25.9
 1.300  0.3030  -84.1  12.928  106.0  0.0242   70.6  0.7186  -26.1
 1.320  0.2998  -84.9  12.774  105.5  0.0246   70.5  0.7153  -26.3
 1.340  0.2966  -85.7  12.621  105.0  0.0249   70.5  0.7121  -26.5
 1.360  0.2934  -86.6  12.469  104.4  0.0253   70.4  0.7088  -26.6
 1.380  0.2904  -87.4  12.319  103.9  0.0256   70.4  0.7055  -26.8
 1.400  0.2874  -88.3  12.169  103.3  0.0260   70.3  0.7023  -27.0
 1.420  0.2841  -89.1  12.032  102.8  0.0263   70.2  0.6995  -27.2
 1.440  0.2808  -89.9  11.896  102.3  0.0266   70.2  0.6967  -27.3
 1.460  0.2776  -90.8  11.761  101.8  0.0269   70.1  0.6939  -27.5
 1.480  0.2744  -91.6  11.626  101.3  0.0272   70.1  0.6911  -27.6
 1.500  0.2713  -92.5  11.493  100.8  0.0275   70.0  0.6883  -27.8
 1.520  0.2686  -93.3  11.369  100.3  0.0277   70.4  0.6854  -28.0
 1.540  0.2660  -94.1  11.246   99.9  0.0280   70.8  0.6826  -28.1
 1.560  0.2634  -94.9  11.123   99.4  0.0282   71.2  0.6797  -28.3
 1.580  0.2609  -95.7  11.002   98.9  0.0285   71.5  0.6768  -28.4
 1.600  0.2584  -96.6  10.881   98.4  0.0287   71.9  0.6740  -28.6
 1.620  0.2561  -97.3  10.762   98.0  0.0290   71.6  0.6713  -28.7
 1.640  0.2538  -98.0  10.644   97.5  0.0294   71.2  0.6686  -28.9
 1.660  0.2515  -98.7  10.527   97.1  0.0297   70.9  0.6659  -29.0
 1.680  0.2493  -99.5  10.410   96.6  0.0301   70.6  0.6633  -29.2
 1.700  0.2471 -100.2  10.294   96.1  0.0304   70.3  0.6606  -29.3
 1.720  0.2446 -101.0  10.191   95.7  0.0308   70.3  0.6579  -29.5
 1.740  0.2422 -101.8  10.088   95.3  0.0312   70.3  0.6553  -29.7
 1.760  0.2398 -102.7   9.986   94.9  0.0315   70.3  0.6527  -29.8
 1.780  0.2375 -103.5   9.884   94.4  0.0319   70.3  0.6500  -30.0
 1.800  0.2352 -104.4   9.783   94.0  0.0323   70.3  0.6474  -30.2
 1.820  0.2334 -105.1   9.689   93.6  0.0325   70.2  0.6450  -30.3
 1.840  0.2316 -105.8   9.596   93.3  0.0326   70.1  0.6426  -30.5
 1.860  0.2299 -106.6   9.503   92.9  0.0328   70.1  0.6402  -30.6
 1.880  0.2282 -107.3   9.411   92.5  0.0329   70.0  0.6379  -30.8
 1.900  0.2266 -108.1   9.319   92.1  0.0331   69.9  0.6355  -30.9
 1.920  0.2250 -109.0   9.235   91.7  0.0334   69.9  0.6337  -31.1
 1.940  0.2234 -109.8   9.152   91.4  0.0338   69.9  0.6319  -31.3
 1.960  0.2219 -110.7   9.069   91.0  0.0341   69.9  0.6301  -31.6
 1.980  0.2204 -111.6   8.986   90.6  0.0345   69.9  0.6284  -31.8
 2.000  0.2190 -112.5   8.904   90.2  0.0348   69.9  0.6266  -32.0
 2.020  0.2174 -113.2   8.821   89.8  0.0351   69.8  0.6245  -32.2
 2.040  0.2159 -113.9   8.739   89.5  0.0354   69.7  0.6223  -32.3
 2.060  0.2145 -114.7   8.657   89.1  0.0356   69.7  0.6202  -32.5
 2.080  0.2130 -115.4   8.575   88.7  0.0359   69.6  0.6181  -32.6
 2.100  0.2116 -116.2   8.494   88.3  0.0362   69.5  0.6160  -32.8
 2.120  0.2097 -117.0   8.418   88.0  0.0366   69.9  0.6137  -33.0
 2.140  0.2079 -117.8   8.342   87.6  0.0370   70.3  0.6114  -33.1
 2.160  0.2061 -118.6   8.266   87.2  0.0374   70.7  0.6091  -33.3
 2.180  0.2044 -119.5   8.191   86.9  0.0378   71.1  0.6068  -33.4
 2.200  0.2027 -120.3   8.116   86.5  0.0382   71.5  0.6045  -33.6
 2.220  0.2018 -120.9   8.047   86.2  0.0385   71.2  0.6029  -33.7
 2.240  0.2009 -121.6   7.977   85.9  0.0389   70.8  0.6012  -33.9
 2.260  0.2000 -122.2   7.908   85.6  0.0392   70.5  0.5996  -34.0
 2.280  0.1992 -122.8   7.840   85.3  0.0396   70.2  0.5979  -34.2
 2.300  0.1984 -123.5   7.771   85.0  0.0399   69.9  0.5963  -34.3
 2.320  0.1971 -124.2   7.708   84.7  0.0402   69.9  0.5946  -34.4
 2.340  0.1959 -124.8   7.645   84.4  0.0404   69.8  0.5930  -34.6
 2.360  0.1947 -125.5   7.582   84.1  0.0407   69.8  0.5913  -34.7
 2.380  0.1935 -126.2   7.520   83.7  0.0409   69.7  0.5897  -34.9
 2.400  0.1923 -126.9   7.458   83.4  0.0412   69.7  0.5880  -35.0
 2.420  0.1911 -127.6   7.397   83.1  0.0416   69.3  0.5865  -35.1
 2.440  0.1900 -128.3   7.336   82.8  0.0420   69.0  0.5850  -35.2
 2.460  0.1889 -129.0   7.275   82.5  0.0425   68.7  0.5836  -35.4
 2.480  0.1878 -129.7   7.214   82.2  0.0429   68.3  0.5821  -35.5
 2.500  0.1868 -130.4   7.154   81.9  0.0433   68.0  0.5806  -35.6
 2.520  0.1859 -131.0   7.097   81.6  0.0434   68.3  0.5791  -35.8
 2.540  0.1849 -131.6   7.041   81.4  0.0435   68.5  0.5777  -35.9
 2.560  0.1840 -132.2   6.985   81.1  0.0437   68.8  0.5762  -36.1
 2.580  0.1832 -132.9   6.929   80.8  0.0438   69.0  0.5748  -36.2
 2.600  0.1823 -133.5   6.873   80.5  0.0439   69.3  0.5733  -36.4
 2.620  0.1815 -134.2   6.822   80.2  0.0441   69.2  0.5721  -36.5
 2.640  0.1807 -134.8   6.772   79.9  0.0443   69.1  0.5709  -36.6
 2.660  0.1800 -135.5   6.721   79.6  0.0446   69.1  0.5698  -36.7
 2.680  0.1793 -136.2   6.671   79.3  0.0448   69.0  0.5686  -36.8
 2.700  0.1786 -136.9   6.621   79.0  0.0450   68.9  0.5674  -36.9
 2.720  0.1778 -137.5   6.574   78.7  0.0455   68.8  0.5661  -37.1
 2.740  0.1771 -138.0   6.528   78.5  0.0460   68.7  0.5648  -37.2
 2.760  0.1764 -138.6   6.481   78.2  0.0464   68.5  0.5635  -37.4
 2.780  0.1757 -139.1   6.435   78.0  0.0469   68.4  0.5623  -37.5
 2.800  0.1750 -139.7   6.389   77.7  0.0474   68.3  0.5610  -37.7
 2.820  0.1745 -140.3   6.342   77.5  0.0477   68.4  0.5598  -37.8
 2.840  0.1740 -140.9   6.295   77.2  0.0481   68.5  0.5586  -37.9
 2.860  0.1735 -141.5   6.249   77.0  0.0484   68.7  0.5574  -38.0
 2.880  0.1730 -142.2   6.202   76.7  0.0488   68.8  0.5562  -38.1
 2.900  0.1726 -142.8   6.156   76.5  0.0491   68.9  0.5550  -38.2
 2.920  0.1718 -143.5   6.115   76.2  0.0494   68.8  0.5539  -38.4
 2.940  0.1710 -144.1   6.074   76.0  0.0497   68.7  0.5528  -38.5
 2.960  0.1703 -144.8   6.034   75.7  0.0500   68.5  0.5517  -38.7
 2.980  0.1696 -145.5   5.993   75.5  0.0503   68.4  0.5506  -38.8
 3.000  0.1689 -146.2   5.953   75.2  0.0506   68.3  0.5495  -39.0
 3.100  0.1666 -148.8   5.753   73.9  0.0523   67.5  0.5447  -39.5
 3.200  0.1638 -152.3   5.565   72.7  0.0533   67.3  0.5396  -40.1
 3.300  0.1631 -154.7   5.399   71.5  0.0550   67.2  0.5353  -40.7
 3.400  0.1596 -158.1   5.228   70.4  0.0566   66.7  0.5318  -41.4
 3.500  0.1583 -160.4   5.078   69.3  0.0584   66.7  0.5287  -41.8
 3.600  0.1562 -163.0   4.927   68.2  0.0595   66.5  0.5249  -42.3
 3.700  0.1555 -166.1   4.791   67.2  0.0613   66.1  0.5216  -42.8
 3.800  0.1551 -168.8   4.660   66.2  0.0626   65.2  0.5194  -43.3
 3.900  0.1546 -171.2   4.540   65.1  0.0649   65.2  0.5161  -43.8
 4.000  0.1538 -173.5   4.425   64.2  0.0663   65.1  0.5134  -44.2
 4.100  0.1544 -176.3   4.314   63.1  0.0678   64.7  0.5101  -44.7
 4.200  0.1543 -178.8   4.207   62.2  0.0697   64.2  0.5064  -45.0
 4.300  0.1563  179.0   4.113   61.2  0.0707   64.1  0.5040  -45.6
 4.400  0.1554  176.1   4.019   60.3  0.0726   63.6  0.5018  -46.1
 4.500  0.1572  174.4   3.925   59.4  0.0738   63.1  0.4988  -46.3
 4.600  0.1576  171.4   3.838   58.4  0.0757   62.9  0.4963  -46.8
 4.700  0.1599  169.8   3.756   57.5  0.0770   62.8  0.4925  -47.1
 4.800  0.1614  167.1   3.681   56.6  0.0791   62.1  0.4905  -47.7
 4.900  0.1626  165.7   3.605   55.7  0.0807   61.5  0.4871  -48.1
 5.000  0.1650  163.3   3.534   54.7  0.0823   61.5  0.4848  -48.5
 5.100  0.1656  161.3   3.464   53.8  0.0839   61.2  0.4818  -48.8
 5.200  0.1678  159.4   3.401   52.9  0.0856   60.5  0.4785  -49.3
 5.300  0.1694  157.7   3.336   52.0  0.0875   60.2  0.4753  -49.8
 5.400  0.1697  156.0   3.275   51.2  0.0894   59.9  0.4738  -50.1
 5.500  0.1724  154.3   3.217   50.2  0.0909   59.5  0.4711  -50.5
 5.600  0.1725  152.6   3.159   49.3  0.0924   58.7  0.4691  -50.9
 5.700  0.1755  150.5   3.105   48.4  0.0940   58.6  0.4660  -51.3
 5.800  0.1762  149.2   3.054   47.6  0.0959   58.0  0.4643  -51.7
 5.900  0.1782  147.4   3.003   46.7  0.0972   57.6  0.4617  -52.1
 6.000  0.1782  145.6   2.951   45.8  0.0986   57.3  0.4600  -52.4
 6.100  0.1804  143.8   2.901   44.9  0.0999   56.7  0.4572  -52.7
 6.200  0.1820  142.0   2.853   44.0  0.1023   56.2  0.4549  -53.2
 6.300  0.1843  140.2   2.810   43.2  0.1037   56.0  0.4521  -53.5
 6.400  0.1839  138.5   2.766   42.3  0.1051   55.3  0.4498  -53.9
 6.500  0.1869  136.2   2.719   41.5  0.1065   55.3  0.4476  -54.2
 6.600  0.1883  134.5   2.681   40.6  0.1087   54.7  0.4449  -54.5
 6.800  0.1934  130.7   2.601   38.9  0.1115   54.0  0.4398  -55.0
 7.000  0.1975  126.9   2.524   37.4  0.1149   53.0  0.4339  -55.2
 7.200  0.2051  123.3   2.452   35.8  0.1182   52.4  0.4263  -55.8
 7.400  0.2139  120.6   2.388   34.2  0.1218   51.7  0.4186  -56.2
 7.600  0.2234  118.3   2.328   32.8  0.1258   51.0  0.4096  -56.7
 7.800  0.2344  116.4   2.273   31.3  0.1294   50.1  0.3991  -57.2
 8.000  0.2470  114.8   2.220   29.7  0.1332   49.2  0.3864  -57.7
 8.200  0.2618  113.8   2.175   28.3  0.1371   48.2  0.3698  -58.4
 8.400  0.2767  112.9   2.131   26.8  0.1411   47.3  0.3532  -59.1
 8.600  0.2918  112.1   2.090   25.2  0.1451   46.2  0.3345  -59.9
 8.800  0.3072  111.5   2.050   23.6  0.1491   45.1  0.3137  -60.7
 9.000  0.3225  110.9   2.012   21.9  0.1531   44.1  0.2930  -61.7
 9.200  0.3367  110.2   1.977   20.4  0.1571   43.0  0.2699  -63.2
 9.400  0.3510  109.5   1.942   18.8  0.1612   41.9  0.2470  -64.9
 9.600  0.3646  108.8   1.911   17.2  0.1654   40.7  0.2234  -67.1
 9.800  0.3774  108.0   1.881   15.5  0.1698   39.5  0.1993  -70.1
10.000  0.3903  107.2   1.853   13.7  0.1743   38.3  0.1758  -73.8
10.200  0.4029  105.8   1.822   11.9  0.1780   36.9  0.1504  -79.3
10.400  0.4157  104.4   1.793   10.1  0.1819   35.6  0.1269  -86.9
10.600  0.4280  102.8   1.762    8.3  0.1854   34.2  0.1072  -98.2
10.800  0.4399  100.8   1.731    6.3  0.1886   32.7  0.0941 -114.1
11.000  0.4523   99.0   1.701    4.3  0.1919   31.2  0.0902 -133.2
11.200  0.4622   96.9   1.661    2.5  0.1940   29.8  0.1020 -148.8
11.400  0.4727   95.0   1.623    0.6  0.1962   28.5  0.1196 -160.4
11.600  0.4802   93.3   1.586   -1.1  0.1986   27.3  0.1427 -167.1
11.800  0.4843   91.9   1.548   -2.4  0.2010   26.3  0.1689 -170.4
12.000  0.4887   90.6   1.512   -3.9  0.2035   25.4  0.1954 -172.8
!
!  f       NFmin   Gammaopt  rn/50
! GHz       dB    MAG  ANG    -
 0.450      2.03  0.08    1   0.37
 0.900      2.05  0.07    3   0.39
 1.500      2.10  0.06    5   0.16
 1.900      2.15  0.05    6   0.27
 2.400      2.30  0.02   -8   0.38
 3.000      2.38  0.02  -67   0.22
 3.500      2.44  0.03  -99   0.35
 4.500      2.65  0.09  -97   0.43
 5.500      2.93  0.18  -88   0.16
!
! (c) 2015  Infineon Technologies AG, Munich
