! Infineon Technologies  Discrete & RF Semiconductors
! BFP405F
! VCE =  4.0 V,  IC =  7.0 mA
! Common Emitter S-Parameters:                            Nov 2015
# GHz  S  MA  R  50
!  f         S11            S21            S12            S22
! GHz     MAG   ANG      MAG   ANG      MAG   ANG      MAG   ANG
 0.030  0.7792   -1.6  17.243  176.9  0.0013  -49.8  0.9814   -0.6
 0.035  0.7782   -1.9  17.236  176.8  0.0007  -45.8  0.9819   -0.8
 0.040  0.7773   -2.2  17.230  176.7  0.0001   20.6  0.9824   -0.9
 0.045  0.7760   -2.8  17.303  176.2  0.0021   68.8  0.9863   -1.0
 0.050  0.7747   -3.4  17.378  175.8  0.0041   69.8  0.9903   -1.1
 0.055  0.7778   -3.5  17.272  175.6  0.0033   47.1  0.9872   -1.2
 0.060  0.7809   -3.6  17.167  175.4  0.0033   18.4  0.9842   -1.4
 0.065  0.7782   -4.0  17.159  174.9  0.0039   48.8  0.9835   -1.7
 0.070  0.7755   -4.4  17.153  174.4  0.0053   67.1  0.9829   -2.0
 0.075  0.7778   -4.7  17.112  174.2  0.0045   78.3  0.9827   -2.0
 0.080  0.7802   -4.9  17.071  174.0  0.0040   93.2  0.9826   -1.9
 0.085  0.7802   -5.3  17.096  174.0  0.0047   92.2  0.9822   -2.1
 0.090  0.7803   -5.6  17.121  174.0  0.0055   91.5  0.9818   -2.3
 0.095  0.7800   -5.8  17.065  173.7  0.0057   79.1  0.9811   -2.5
 0.100  0.7797   -6.1  17.010  173.4  0.0061   67.9  0.9804   -2.8
 0.105  0.7796   -6.4  17.018  173.1  0.0045   74.9  0.9807   -2.7
 0.110  0.7796   -6.8  17.026  172.8  0.0031   88.8  0.9810   -2.7
 0.115  0.7781   -7.1  17.011  172.7  0.0025  108.3  0.9831   -2.9
 0.120  0.7766   -7.5  16.997  172.5  0.0024  133.9  0.9853   -3.0
 0.125  0.7772   -7.8  16.989  172.2  0.0028  106.5  0.9835   -3.2
 0.130  0.7779   -8.1  16.981  171.8  0.0037   89.2  0.9817   -3.4
 0.135  0.7773   -8.4  17.003  171.6  0.0036   76.6  0.9818   -3.5
 0.140  0.7768   -8.7  17.025  171.5  0.0037   64.0  0.9820   -3.6
 0.145  0.7755   -9.0  17.022  171.3  0.0032   69.3  0.9810   -3.7
 0.150  0.7742   -9.4  17.020  171.0  0.0027   76.6  0.9800   -3.9
 0.155  0.7738   -9.7  17.011  170.7  0.0030   78.0  0.9798   -4.0
 0.160  0.7735  -10.0  17.002  170.3  0.0034   79.2  0.9796   -4.2
 0.165  0.7732  -10.3  16.994  170.0  0.0037   80.1  0.9794   -4.3
 0.170  0.7729  -10.6  16.986  169.6  0.0040   80.9  0.9792   -4.4
 0.175  0.7726  -10.9  16.980  169.3  0.0043   81.6  0.9790   -4.5
 0.180  0.7724  -11.2  16.973  168.9  0.0047   82.1  0.9788   -4.7
 0.185  0.7722  -11.5  16.968  168.6  0.0050   82.6  0.9786   -4.8
 0.190  0.7720  -11.8  16.963  168.2  0.0053   83.1  0.9784   -4.9
 0.195  0.7718  -12.1  16.959  167.9  0.0057   83.5  0.9783   -5.1
 0.200  0.7716  -12.4  16.955  167.5  0.0060   83.8  0.9781   -5.2
 0.220  0.7688  -13.6  16.856  166.5  0.0065   76.7  0.9768   -5.7
 0.240  0.7663  -14.9  16.763  165.4  0.0072   70.8  0.9755   -6.2
 0.260  0.7633  -16.1  16.690  164.3  0.0076   70.1  0.9734   -6.8
 0.280  0.7597  -17.2  16.638  163.2  0.0079   73.8  0.9703   -7.3
 0.300  0.7564  -18.4  16.594  162.0  0.0082   77.2  0.9674   -7.8
 0.320  0.7527  -19.6  16.502  160.9  0.0086   79.2  0.9657   -8.3
 0.340  0.7494  -20.8  16.415  159.8  0.0090   81.0  0.9642   -8.8
 0.360  0.7455  -22.0  16.333  158.7  0.0095   81.2  0.9622   -9.3
 0.380  0.7411  -23.2  16.257  157.6  0.0100   80.0  0.9599   -9.8
 0.400  0.7370  -24.4  16.187  156.4  0.0106   79.0  0.9577  -10.2
 0.420  0.7331  -25.6  16.096  155.3  0.0113   78.5  0.9543  -10.7
 0.440  0.7296  -26.7  16.010  154.2  0.0120   78.0  0.9510  -11.2
 0.450  0.7279  -27.3  15.969  153.7  0.0124   77.8  0.9494  -11.5
 0.460  0.7255  -27.8  15.912  153.2  0.0126   77.5  0.9478  -11.7
 0.480  0.7208  -28.9  15.801  152.2  0.0129   76.9  0.9448  -12.2
 0.500  0.7164  -30.0  15.696  151.1  0.0132   76.3  0.9418  -12.7
 0.520  0.7105  -31.0  15.578  150.1  0.0138   75.9  0.9384  -13.1
 0.540  0.7048  -32.1  15.465  149.1  0.0144   75.6  0.9350  -13.6
 0.560  0.6994  -33.2  15.357  148.0  0.0149   75.3  0.9316  -14.0
 0.580  0.6942  -34.3  15.254  147.0  0.0155   75.0  0.9283  -14.5
 0.600  0.6893  -35.4  15.156  145.9  0.0161   74.7  0.9251  -14.9
 0.620  0.6835  -36.4  15.046  145.0  0.0164   74.7  0.9212  -15.3
 0.640  0.6779  -37.5  14.941  144.0  0.0167   74.8  0.9174  -15.7
 0.660  0.6725  -38.5  14.839  143.1  0.0170   74.8  0.9136  -16.1
 0.680  0.6674  -39.6  14.742  142.1  0.0173   74.9  0.9099  -16.5
 0.700  0.6625  -40.7  14.649  141.1  0.0176   74.9  0.9062  -16.9
 0.720  0.6566  -41.6  14.510  140.2  0.0181   74.5  0.9021  -17.3
 0.740  0.6508  -42.6  14.375  139.3  0.0186   74.0  0.8981  -17.6
 0.760  0.6452  -43.6  14.244  138.3  0.0192   73.6  0.8941  -18.0
 0.780  0.6399  -44.6  14.116  137.4  0.0197   73.3  0.8902  -18.4
 0.800  0.6347  -45.6  13.993  136.4  0.0202   72.9  0.8863  -18.8
 0.820  0.6288  -46.5  13.877  135.5  0.0206   72.3  0.8825  -19.1
 0.840  0.6230  -47.4  13.763  134.7  0.0210   71.7  0.8787  -19.5
 0.860  0.6174  -48.4  13.653  133.8  0.0215   71.2  0.8749  -19.8
 0.880  0.6120  -49.3  13.546  132.9  0.0219   70.6  0.8712  -20.2
 0.900  0.6067  -50.3  13.443  132.0  0.0223   70.1  0.8675  -20.5
 0.920  0.6009  -51.1  13.316  131.2  0.0227   70.3  0.8634  -20.8
 0.940  0.5952  -52.0  13.192  130.4  0.0230   70.5  0.8594  -21.2
 0.960  0.5896  -52.9  13.070  129.6  0.0234   70.7  0.8554  -21.5
 0.980  0.5842  -53.8  12.951  128.8  0.0237   70.9  0.8514  -21.9
 1.000  0.5789  -54.7  12.834  128.0  0.0241   71.1  0.8475  -22.2
 1.020  0.5733  -55.5  12.713  127.3  0.0244   70.5  0.8435  -22.5
 1.040  0.5677  -56.3  12.594  126.6  0.0248   69.9  0.8394  -22.8
 1.060  0.5623  -57.2  12.477  125.8  0.0251   69.3  0.8354  -23.1
 1.080  0.5571  -58.0  12.362  125.1  0.0255   68.7  0.8315  -23.4
 1.100  0.5519  -58.9  12.249  124.3  0.0258   68.1  0.8275  -23.7
 1.120  0.5466  -59.7  12.136  123.6  0.0261   68.0  0.8237  -23.9
 1.140  0.5414  -60.5  12.025  122.9  0.0263   67.9  0.8198  -24.2
 1.160  0.5363  -61.4  11.916  122.1  0.0266   67.8  0.8160  -24.4
 1.180  0.5313  -62.2  11.809  121.4  0.0268   67.7  0.8122  -24.7
 1.200  0.5264  -63.1  11.704  120.6  0.0271   67.6  0.8084  -24.9
 1.220  0.5210  -63.8  11.594  119.9  0.0275   67.6  0.8047  -25.2
 1.240  0.5158  -64.6  11.487  119.2  0.0278   67.7  0.8010  -25.5
 1.260  0.5106  -65.3  11.380  118.5  0.0282   67.7  0.7973  -25.7
 1.280  0.5055  -66.1  11.276  117.8  0.0285   67.8  0.7936  -26.0
 1.300  0.5005  -66.9  11.173  117.1  0.0289   67.8  0.7900  -26.3
 1.320  0.4958  -67.6  11.068  116.5  0.0293   67.5  0.7865  -26.5
 1.340  0.4912  -68.4  10.963  116.0  0.0296   67.3  0.7831  -26.8
 1.360  0.4867  -69.1  10.860  115.4  0.0300   67.1  0.7796  -27.0
 1.380  0.4823  -69.9  10.758  114.8  0.0303   66.8  0.7762  -27.3
 1.400  0.4780  -70.7  10.657  114.2  0.0307   66.6  0.7728  -27.5
 1.420  0.4732  -71.4  10.561  113.6  0.0311   66.3  0.7694  -27.7
 1.440  0.4684  -72.1  10.466  113.1  0.0314   66.0  0.7660  -27.9
 1.460  0.4637  -72.8  10.372  112.5  0.0318   65.7  0.7626  -28.1
 1.480  0.4591  -73.6  10.279  111.9  0.0321   65.4  0.7593  -28.3
 1.500  0.4546  -74.3  10.187  111.3  0.0325   65.1  0.7559  -28.5
 1.520  0.4504  -75.0  10.096  110.8  0.0328   64.9  0.7527  -28.7
 1.540  0.4462  -75.7  10.007  110.2  0.0331   64.8  0.7495  -28.9
 1.560  0.4421  -76.4   9.918  109.7  0.0333   64.6  0.7463  -29.1
 1.580  0.4381  -77.2   9.830  109.1  0.0336   64.5  0.7432  -29.3
 1.600  0.4342  -77.9   9.743  108.5  0.0339   64.3  0.7400  -29.5
 1.620  0.4304  -78.5   9.652  108.0  0.0342   64.2  0.7367  -29.7
 1.640  0.4266  -79.1   9.563  107.5  0.0345   64.2  0.7334  -29.9
 1.660  0.4229  -79.8   9.474  107.0  0.0347   64.1  0.7301  -30.1
 1.680  0.4193  -80.4   9.385  106.4  0.0350   64.1  0.7269  -30.3
 1.700  0.4157  -81.1   9.298  105.9  0.0353   64.0  0.7236  -30.5
 1.720  0.4118  -81.8   9.218  105.4  0.0357   63.9  0.7206  -30.7
 1.740  0.4079  -82.4   9.140  104.9  0.0361   63.8  0.7176  -30.9
 1.760  0.4041  -83.1   9.061  104.4  0.0364   63.7  0.7146  -31.2
 1.780  0.4004  -83.8   8.984  103.9  0.0368   63.6  0.7116  -31.4
 1.800  0.3967  -84.5   8.907  103.4  0.0372   63.5  0.7086  -31.6
 1.820  0.3935  -85.1   8.834  103.0  0.0374   63.5  0.7057  -31.8
 1.840  0.3903  -85.7   8.761  102.5  0.0376   63.6  0.7028  -32.0
 1.860  0.3872  -86.4   8.689  102.0  0.0379   63.6  0.6999  -32.1
 1.880  0.3841  -87.0   8.618  101.6  0.0381   63.7  0.6971  -32.3
 1.900  0.3811  -87.7   8.547  101.1  0.0383   63.7  0.6942  -32.5
 1.920  0.3780  -88.4   8.480  100.7  0.0385   63.7  0.6919  -32.7
 1.940  0.3749  -89.1   8.414  100.2  0.0388   63.7  0.6896  -33.0
 1.960  0.3719  -89.9   8.348   99.8  0.0390   63.7  0.6873  -33.2
 1.980  0.3690  -90.6   8.283   99.4  0.0393   63.7  0.6851  -33.5
 2.000  0.3661  -91.4   8.218   98.9  0.0395   63.7  0.6828  -33.7
 2.020  0.3631  -92.0   8.150   98.5  0.0398   63.5  0.6802  -33.9
 2.040  0.3602  -92.6   8.082   98.0  0.0401   63.4  0.6777  -34.1
 2.060  0.3573  -93.2   8.014   97.5  0.0405   63.2  0.6752  -34.2
 2.080  0.3544  -93.8   7.947   97.1  0.0408   63.1  0.6726  -34.4
 2.100  0.3516  -94.4   7.881   96.6  0.0411   62.9  0.6701  -34.6
 2.120  0.3485  -95.0   7.817   96.2  0.0413   62.8  0.6676  -34.8
 2.140  0.3454  -95.6   7.754   95.8  0.0415   62.7  0.6651  -35.0
 2.160  0.3424  -96.3   7.691   95.4  0.0418   62.7  0.6626  -35.2
 2.180  0.3394  -96.9   7.629   94.9  0.0420   62.6  0.6601  -35.4
 2.200  0.3365  -97.6   7.567   94.5  0.0422   62.5  0.6576  -35.6
 2.220  0.3340  -98.2   7.508   94.2  0.0425   62.5  0.6553  -35.8
 2.240  0.3315  -98.7   7.450   93.8  0.0428   62.5  0.6530  -35.9
 2.260  0.3291  -99.3   7.392   93.4  0.0432   62.6  0.6507  -36.1
 2.280  0.3267  -99.9   7.334   93.1  0.0435   62.6  0.6485  -36.2
 2.300  0.3243 -100.5   7.276   92.7  0.0438   62.6  0.6462  -36.4
 2.320  0.3218 -101.1   7.223   92.3  0.0442   62.6  0.6442  -36.6
 2.340  0.3194 -101.6   7.169   92.0  0.0445   62.6  0.6422  -36.7
 2.360  0.3170 -102.2   7.117   91.6  0.0449   62.6  0.6402  -36.9
 2.380  0.3146 -102.8   7.064   91.2  0.0452   62.6  0.6382  -37.0
 2.400  0.3123 -103.4   7.012   90.8  0.0456   62.6  0.6362  -37.2
 2.420  0.3100 -104.0   6.958   90.5  0.0459   62.4  0.6342  -37.3
 2.440  0.3076 -104.5   6.905   90.1  0.0463   62.2  0.6323  -37.5
 2.460  0.3054 -105.1   6.852   89.7  0.0466   62.0  0.6303  -37.6
 2.480  0.3031 -105.7   6.799   89.4  0.0470   61.8  0.6284  -37.8
 2.500  0.3009 -106.3   6.746   89.0  0.0473   61.6  0.6264  -37.9
 2.520  0.2988 -106.8   6.696   88.7  0.0474   61.4  0.6249  -38.0
 2.540  0.2967 -107.3   6.646   88.4  0.0476   61.3  0.6234  -38.2
 2.560  0.2946 -107.8   6.597   88.1  0.0477   61.1  0.6219  -38.3
 2.580  0.2926 -108.4   6.547   87.7  0.0479   61.0  0.6205  -38.5
 2.600  0.2906 -108.9   6.498   87.4  0.0480   60.8  0.6190  -38.6
 2.620  0.2888 -109.5   6.454   87.1  0.0484   60.7  0.6171  -38.7
 2.640  0.2871 -110.0   6.409   86.7  0.0488   60.7  0.6151  -38.9
 2.660  0.2854 -110.6   6.365   86.4  0.0491   60.6  0.6132  -39.0
 2.680  0.2837 -111.2   6.322   86.0  0.0495   60.6  0.6113  -39.2
 2.700  0.2820 -111.8   6.278   85.7  0.0499   60.5  0.6094  -39.3
 2.720  0.2800 -112.3   6.236   85.4  0.0501   60.6  0.6079  -39.4
 2.740  0.2779 -112.8   6.195   85.1  0.0503   60.7  0.6064  -39.6
 2.760  0.2759 -113.3   6.154   84.8  0.0506   60.8  0.6049  -39.7
 2.780  0.2740 -113.9   6.113   84.5  0.0508   60.9  0.6035  -39.9
 2.800  0.2720 -114.4   6.072   84.2  0.0510   61.0  0.6020  -40.0
 2.820  0.2705 -114.9   6.030   83.9  0.0512   61.0  0.6006  -40.1
 2.840  0.2691 -115.4   5.988   83.6  0.0514   61.1  0.5992  -40.3
 2.860  0.2676 -115.9   5.946   83.3  0.0516   61.1  0.5978  -40.4
 2.880  0.2662 -116.5   5.904   83.0  0.0518   61.2  0.5965  -40.6
 2.900  0.2648 -117.0   5.862   82.7  0.0520   61.2  0.5951  -40.7
 2.920  0.2630 -117.5   5.825   82.4  0.0523   61.1  0.5936  -40.8
 2.940  0.2613 -118.1   5.789   82.1  0.0526   60.9  0.5921  -41.0
 2.960  0.2596 -118.6   5.753   81.8  0.0529   60.8  0.5906  -41.1
 2.980  0.2579 -119.1   5.717   81.5  0.0532   60.6  0.5891  -41.3
 3.000  0.2562 -119.7   5.681   81.2  0.0535   60.5  0.5876  -41.4
 3.100  0.2493 -122.1   5.501   79.8  0.0539   60.5  0.5812  -42.0
 3.200  0.2413 -125.1   5.331   78.4  0.0565   59.7  0.5746  -42.7
 3.300  0.2367 -127.4   5.177   77.1  0.0575   59.9  0.5693  -43.3
 3.400  0.2281 -130.3   5.020   75.8  0.0592   59.9  0.5647  -43.9
 3.500  0.2237 -132.5   4.884   74.5  0.0605   59.7  0.5601  -44.4
 3.600  0.2176 -135.0   4.745   73.3  0.0617   59.6  0.5555  -44.8
 3.700  0.2121 -137.8   4.618   72.1  0.0631   59.9  0.5511  -45.3
 3.800  0.2084 -140.3   4.494   71.0  0.0646   58.9  0.5474  -45.9
 3.900  0.2051 -142.7   4.385   69.8  0.0657   59.1  0.5438  -46.3
 4.000  0.2002 -145.1   4.278   68.7  0.0672   58.6  0.5397  -46.7
 4.100  0.1978 -148.0   4.174   67.5  0.0691   58.3  0.5351  -47.2
 4.200  0.1927 -150.7   4.077   66.5  0.0700   57.5  0.5310  -47.6
 4.300  0.1921 -153.3   3.986   65.4  0.0716   58.0  0.5276  -48.1
 4.400  0.1888 -155.9   3.899   64.3  0.0734   57.3  0.5243  -48.5
 4.500  0.1883 -158.2   3.809   63.4  0.0744   57.4  0.5215  -48.8
 4.600  0.1853 -161.2   3.726   62.2  0.0757   57.2  0.5178  -49.3
 4.700  0.1858 -163.2   3.651   61.3  0.0774   56.5  0.5137  -49.6
 4.800  0.1848 -166.1   3.578   60.2  0.0792   56.3  0.5109  -50.1
 4.900  0.1844 -168.0   3.506   59.3  0.0806   56.3  0.5069  -50.4
 5.000  0.1828 -170.7   3.439   58.2  0.0821   56.0  0.5038  -50.9
 5.100  0.1827 -172.7   3.371   57.2  0.0837   55.7  0.5003  -51.2
 5.200  0.1826 -175.2   3.310   56.2  0.0853   55.5  0.4966  -51.7
 5.300  0.1829 -177.5   3.249   55.2  0.0867   54.9  0.4931  -52.1
 5.400  0.1823 -179.1   3.193   54.3  0.0880   55.0  0.4913  -52.5
 5.500  0.1826  178.3   3.136   53.3  0.0893   54.4  0.4882  -52.9
 5.600  0.1821  176.1   3.082   52.3  0.0910   54.3  0.4852  -53.3
 5.700  0.1827  173.7   3.029   51.3  0.0929   53.7  0.4822  -53.7
 5.800  0.1827  171.7   2.980   50.4  0.0943   53.6  0.4791  -54.0
 5.900  0.1829  169.4   2.932   49.5  0.0959   53.4  0.4770  -54.4
 6.000  0.1825  167.3   2.881   48.6  0.0971   52.7  0.4747  -54.7
 6.100  0.1833  164.8   2.833   47.6  0.0987   52.2  0.4710  -54.9
 6.200  0.1833  162.6   2.788   46.7  0.1004   52.1  0.4683  -55.5
 6.300  0.1840  160.0   2.747   45.8  0.1014   51.9  0.4654  -55.7
 6.400  0.1839  158.2   2.703   44.9  0.1032   51.4  0.4634  -56.1
 6.500  0.1852  155.3   2.660   43.9  0.1045   51.2  0.4605  -56.4
 6.600  0.1858  153.2   2.622   43.0  0.1062   50.9  0.4574  -56.7
 6.800  0.1883  148.2   2.545   41.2  0.1092   50.3  0.4521  -57.2
 7.000  0.1903  143.3   2.472   39.5  0.1118   49.6  0.4454  -57.4
 7.200  0.1966  138.5   2.403   37.9  0.1154   49.1  0.4362  -57.9
 7.400  0.2046  134.6   2.340   36.2  0.1187   48.6  0.4284  -58.4
 7.600  0.2134  131.1   2.282   34.7  0.1225   48.0  0.4190  -58.8
 7.800  0.2241  128.2   2.228   33.1  0.1260   47.2  0.4081  -59.3
 8.000  0.2367  125.7   2.177   31.5  0.1300   46.4  0.3950  -59.9
 8.200  0.2519  123.6   2.133   29.9  0.1337   45.5  0.3783  -60.6
 8.400  0.2674  121.8   2.091   28.3  0.1373   44.6  0.3617  -61.4
 8.600  0.2830  120.3   2.050   26.7  0.1411   43.7  0.3428  -62.3
 8.800  0.2986  119.0   2.012   25.0  0.1449   42.8  0.3216  -63.3
 9.000  0.3144  117.8   1.975   23.3  0.1488   42.0  0.3006  -64.5
 9.200  0.3289  116.6   1.941   21.7  0.1526   40.9  0.2774  -66.1
 9.400  0.3436  115.5   1.908   20.0  0.1565   39.9  0.2545  -68.1
 9.600  0.3574  114.4   1.876   18.3  0.1605   38.8  0.2310  -70.6
 9.800  0.3705  113.3   1.847   16.5  0.1648   37.7  0.2072  -73.9
10.000  0.3836  112.2   1.819   14.7  0.1692   36.6  0.1842  -78.1
10.200  0.3958  110.5   1.789   12.9  0.1730   35.2  0.1596  -84.0
10.400  0.4083  108.9   1.760   11.0  0.1769   33.8  0.1374  -92.0
10.600  0.4202  107.0   1.730    9.0  0.1804   32.5  0.1196 -103.2
10.800  0.4317  104.8   1.699    7.1  0.1835   31.1  0.1088 -117.8
11.000  0.4438  102.8   1.669    5.0  0.1867   29.7  0.1062 -134.3
11.200  0.4533  100.6   1.630    3.1  0.1888   28.4  0.1178 -148.0
11.400  0.4635   98.5   1.592    1.2  0.1911   27.1  0.1347 -158.8
11.600  0.4707   96.8   1.555   -0.5  0.1932   26.0  0.1573 -165.3
11.800  0.4746   95.4   1.517   -1.9  0.1953   25.1  0.1831 -168.6
12.000  0.4789   94.0   1.480   -3.4  0.1975   24.2  0.2094 -171.1
!
!  f       NFmin   Gammaopt  rn/50
! GHz       dB    MAG  ANG    -
 0.450      1.45  0.30    6   0.34
 0.900      1.46  0.28   11   0.34
 1.500      1.52  0.26   16   0.30
 1.900      1.56  0.24   24   0.30
 2.400      1.71  0.23   32   0.32
 3.000      1.77  0.21   45   0.29
 3.500      1.82  0.19   53   0.28
 4.500      1.97  0.15   59   0.20
 5.500      2.17  0.08   66   0.07
!
! (c) 2015  Infineon Technologies AG, Munich
