! Infineon Technologies  Discrete & RF Semiconductors
! BFP420F
!
! VCE =  0.5 V,  IC =  25 mA
! Common Emitter S-Parameters:                            Sep 2011
# GHz  S  MA  R  50
!  f         S11            S21            S12            S22
! GHz     MAG   ANG      MAG   ANG      MAG   ANG      MAG   ANG
 0.030  0.4082  -17.6  39.833  171.1  0.0043   87.0  0.8355   -8.3
 0.040  0.4065  -23.1  39.494  168.1  0.0058   84.2  0.8343  -11.4
 0.050  0.4027  -27.7  38.701  165.2  0.0072   81.8  0.8270  -14.3
 0.060  0.4102  -33.5  38.515  162.8  0.0086   80.8  0.8157  -17.4
 0.070  0.4126  -38.9  38.132  160.4  0.0099   79.6  0.8011  -20.4
 0.080  0.4110  -42.6  37.324  157.8  0.0112   77.1  0.7924  -23.2
 0.090  0.4086  -47.7  36.771  155.5  0.0123   75.6  0.7866  -25.6
 0.100  0.4102  -52.6  36.214  152.9  0.0133   74.6  0.7779  -27.9
 0.110  0.4154  -56.1  35.228  150.9  0.0145   73.5  0.7672  -30.2
 0.120  0.4127  -61.2  34.640  148.3  0.0157   72.5  0.7544  -32.7
 0.130  0.4162  -64.5  33.778  146.5  0.0167   71.0  0.7388  -35.4
 0.140  0.4158  -68.1  33.075  144.7  0.0179   69.7  0.7211  -38.0
 0.150  0.4195  -71.9  32.435  142.8  0.0189   68.6  0.7080  -40.1
 0.200  0.4334  -86.7  29.213  134.9  0.0231   64.5  0.6550  -49.5
 0.250  0.4400  -99.1  26.170  128.3  0.0265   61.2  0.5978  -57.7
 0.300  0.4514 -109.4  23.734  122.7  0.0298   58.8  0.5464  -65.6
 0.350  0.4583 -117.9  21.440  118.1  0.0323   57.3  0.5053  -71.8
 0.400  0.4642 -124.7  19.519  114.1  0.0347   56.1  0.4693  -77.5
 0.450  0.4686 -130.4  17.922  110.7  0.0369   55.0  0.4364  -83.3
 0.500  0.4722 -135.7  16.451  107.7  0.0388   54.6  0.4093  -87.8
 0.600  0.4795 -144.2  14.089  102.6  0.0424   54.1  0.3653  -97.1
 0.700  0.4854 -151.0  12.327   98.3  0.0461   53.9  0.3347 -105.1
 0.800  0.4909 -156.3  10.874   94.6  0.0495   54.1  0.3108 -112.5
 0.900  0.4926 -160.7   9.696   91.8  0.0530   54.3  0.2923 -119.3
 1.000  0.4987 -164.4   8.767   89.1  0.0565   54.7  0.2805 -125.7
 1.100  0.5009 -168.0   7.985   86.6  0.0599   54.8  0.2706 -131.4
 1.200  0.5015 -171.1   7.276   84.3  0.0634   55.1  0.2652 -136.7
 1.300  0.5049 -173.6   6.728   82.5  0.0670   55.2  0.2601 -141.5
 1.400  0.5095 -176.0   6.254   80.7  0.0705   55.4  0.2586 -145.8
 1.500  0.5100 -178.7   5.819   78.5  0.0741   55.5  0.2555 -150.0
 1.600  0.5095  179.6   5.404   77.0  0.0776   55.4  0.2560 -153.8
 1.700  0.5126  177.9   5.095   75.8  0.0811   55.4  0.2552 -157.3
 1.800  0.5175  176.1   4.827   74.3  0.0848   55.5  0.2576 -160.2
 1.900  0.5188  173.9   4.570   72.4  0.0886   55.3  0.2588 -163.2
 2.000  0.5167  172.4   4.293   71.1  0.0921   55.0  0.2613 -165.9
 2.200  0.5219  169.7   3.920   68.7  0.0992   54.7  0.2652 -169.8
 2.400  0.5190  166.7   3.559   66.0  0.1067   53.9  0.2694 -173.6
 2.600  0.5234  164.4   3.295   63.9  0.1138   53.5  0.2725 -176.7
 2.800  0.5242  161.8   3.066   61.3  0.1215   52.5  0.2758 -179.4
 3.000  0.5261  159.2   2.858   59.1  0.1288   51.7  0.2785  178.2
 3.500  0.5306  153.7   2.463   53.6  0.1473   49.2  0.2833  172.8
 4.000  0.5350  148.2   2.169   48.0  0.1657   46.1  0.2864  167.6
 4.500  0.5401  143.4   1.943   42.6  0.1838   42.8  0.2866  161.6
 5.000  0.5428  139.1   1.765   37.3  0.2009   39.3  0.2857  155.1
 5.500  0.5454  134.5   1.617   32.0  0.2171   35.6  0.2856  147.8
 6.000  0.5506  129.4   1.494   26.8  0.2327   31.8  0.2870  139.8
 6.500  0.5620  124.1   1.389   21.7  0.2469   28.0  0.2958  131.8
 7.000  0.5739  118.6   1.294   16.5  0.2603   24.0  0.3066  123.3
 7.500  0.5940  114.1   1.209   11.5  0.2729   20.1  0.3245  115.3
 8.000  0.6145  109.9   1.127    6.5  0.2825   15.8  0.3539  107.2
 8.500  0.6359  106.0   1.046    1.9  0.2882   11.8  0.3921   98.9
 9.000  0.6567  102.7   0.974   -1.9  0.2919    8.4  0.4338   91.6
 9.500  0.6776   99.7   0.913   -5.1  0.2956    5.7  0.4791   86.7
10.000  0.7004   96.3   0.861   -7.6  0.3000    3.4  0.5256   83.7
!
!  f       NFmin   Gammaopt  rn/50
! GHz       dB    MAG  ANG    -
 0.450      1.66  0.23 -177   0.10
 0.900      1.68  0.25 -175   0.13
 1.900      1.81  0.32 -166   0.14
 2.400      1.87  0.32 -160   0.12
 3.500      2.10  0.32 -151   0.17
!
! (c) 2011  Infineon Technologies AG, Munich
