! Infineon Technologies  Discrete & RF Semiconductors
! BFP450
! VCE =  3.0 V,  IC =  80 mA
! Common Emitter S-Parameters:                            Nov 2015
# GHz  S  MA  R  50
!  f         S11            S21            S12            S22
! GHz     MAG   ANG      MAG   ANG      MAG   ANG      MAG   ANG
 0.030  0.2112 -127.5  78.130  163.2  0.0043   78.8  0.8403  -22.8
 0.035  0.2384 -127.6  77.050  160.7  0.0048   76.6  0.8320  -26.7
 0.040  0.2657 -127.6  76.123  158.1  0.0054   74.8  0.8275  -30.6
 0.045  0.2930 -129.3  74.840  155.5  0.0059   72.3  0.8173  -34.3
 0.050  0.3206 -130.7  73.711  152.9  0.0065   70.3  0.8106  -38.1
 0.055  0.3422 -131.6  72.162  150.8  0.0069   69.3  0.7991  -41.6
 0.060  0.3638 -132.3  70.714  148.6  0.0074   68.5  0.7905  -45.1
 0.065  0.3852 -133.7  69.124  146.4  0.0079   67.2  0.7780  -48.4
 0.070  0.4069 -135.0  67.645  144.0  0.0084   66.1  0.7682  -51.8
 0.075  0.4245 -136.1  66.143  142.2  0.0088   64.5  0.7560  -54.9
 0.080  0.4423 -137.1  64.710  140.3  0.0092   63.1  0.7461  -58.0
 0.085  0.4563 -138.5  63.117  138.5  0.0095   62.1  0.7343  -60.8
 0.090  0.4706 -139.9  61.586  136.7  0.0098   61.1  0.7243  -63.7
 0.095  0.4839 -141.0  60.122  135.1  0.0101   60.3  0.7131  -66.4
 0.100  0.4974 -142.1  58.707  133.4  0.0105   59.5  0.7035  -69.2
 0.105  0.5081 -143.3  57.343  132.0  0.0108   58.9  0.6930  -71.7
 0.110  0.5191 -144.5  56.016  130.5  0.0112   58.4  0.6839  -74.2
 0.115  0.5287 -145.6  54.653  129.2  0.0114   57.9  0.6742  -76.5
 0.120  0.5385 -146.7  53.321  127.8  0.0117   57.4  0.6657  -78.9
 0.125  0.5479 -147.5  52.085  126.5  0.0119   56.7  0.6570  -81.1
 0.130  0.5573 -148.2  50.875  125.2  0.0121   56.0  0.6492  -83.3
 0.135  0.5649 -149.3  49.720  124.1  0.0123   55.7  0.6409  -85.3
 0.140  0.5727 -150.4  48.583  123.0  0.0126   55.5  0.6334  -87.4
 0.145  0.5796 -151.3  47.465  121.9  0.0128   55.0  0.6261  -89.3
 0.150  0.5867 -152.2  46.367  120.7  0.0131   54.5  0.6195  -91.2
 0.155  0.5911 -152.9  45.423  120.0  0.0133   54.3  0.6121  -92.7
 0.160  0.5955 -153.6  44.486  119.3  0.0135   54.1  0.6052  -94.1
 0.165  0.6001 -154.4  43.557  118.5  0.0136   54.0  0.5986  -95.7
 0.170  0.6047 -155.0  42.635  117.7  0.0138   53.8  0.5925  -97.2
 0.175  0.6094 -155.7  41.723  116.9  0.0140   53.6  0.5869  -98.8
 0.180  0.6142 -156.4  40.819  116.0  0.0142   53.5  0.5817 -100.4
 0.185  0.6191 -157.1  39.926  115.1  0.0144   53.3  0.5769 -102.0
 0.190  0.6241 -157.7  39.043  114.1  0.0145   53.2  0.5726 -103.7
 0.195  0.6292 -158.4  38.171  113.1  0.0147   53.0  0.5689 -105.4
 0.200  0.6343 -159.0  37.311  112.1  0.0149   52.9  0.5656 -107.1
 0.220  0.6434 -161.0  34.760  110.0  0.0155   52.6  0.5493 -111.7
 0.240  0.6534 -163.0  32.266  107.5  0.0161   52.4  0.5367 -116.5
 0.260  0.6619 -164.8  30.084  105.3  0.0167   52.4  0.5266 -120.8
 0.280  0.6687 -166.3  28.184  103.5  0.0174   52.7  0.5174 -124.4
 0.300  0.6761 -167.8  26.317  101.4  0.0180   52.9  0.5105 -128.2
 0.320  0.6797 -169.0  24.889  100.0  0.0186   53.3  0.5043 -131.0
 0.340  0.6836 -170.2  23.477   98.5  0.0191   53.6  0.4993 -133.9
 0.360  0.6869 -171.3  22.222   97.1  0.0197   54.0  0.4952 -136.6
 0.380  0.6895 -172.4  21.118   95.8  0.0204   54.3  0.4915 -138.9
 0.400  0.6923 -173.4  20.025   94.4  0.0210   54.6  0.4887 -141.3
 0.420  0.6946 -174.3  19.140   93.4  0.0216   54.9  0.4860 -143.3
 0.440  0.6970 -175.2  18.260   92.4  0.0222   55.2  0.4839 -145.3
 0.450  0.6983 -175.6  17.823   91.8  0.0225   55.3  0.4831 -146.3
 0.460  0.6991 -176.0  17.462   91.4  0.0228   55.5  0.4822 -147.2
 0.480  0.7007 -176.7  16.744   90.4  0.0234   55.8  0.4807 -148.9
 0.500  0.7024 -177.5  16.030   89.4  0.0240   56.1  0.4796 -150.6
 0.520  0.7034 -178.1  15.478   88.7  0.0246   56.4  0.4785 -152.0
 0.540  0.7045 -178.8  14.929   88.0  0.0253   56.6  0.4777 -153.3
 0.560  0.7057 -179.4  14.383   87.2  0.0259   56.9  0.4772 -154.7
 0.580  0.7070  179.9  13.839   86.3  0.0266   57.1  0.4769 -156.0
 0.600  0.7084  179.3  13.299   85.4  0.0272   57.3  0.4769 -157.4
 0.620  0.7092  178.8  12.900   84.8  0.0279   57.5  0.4766 -158.5
 0.640  0.7100  178.2  12.503   84.2  0.0285   57.7  0.4764 -159.6
 0.660  0.7109  177.7  12.107   83.6  0.0292   57.9  0.4764 -160.6
 0.680  0.7118  177.1  11.713   82.9  0.0298   58.0  0.4766 -161.7
 0.700  0.7128  176.6  11.320   82.2  0.0305   58.2  0.4769 -162.8
 0.720  0.7134  176.1  11.019   81.7  0.0311   58.3  0.4770 -163.7
 0.740  0.7140  175.6  10.719   81.1  0.0318   58.4  0.4772 -164.6
 0.760  0.7147  175.1  10.421   80.5  0.0324   58.4  0.4775 -165.6
 0.780  0.7155  174.6  10.123   79.9  0.0331   58.5  0.4779 -166.5
 0.800  0.7163  174.1   9.827   79.2  0.0337   58.6  0.4785 -167.4
 0.820  0.7168  173.7   9.595   78.7  0.0344   58.6  0.4788 -168.2
 0.840  0.7174  173.2   9.364   78.2  0.0350   58.7  0.4792 -168.9
 0.860  0.7180  172.8   9.133   77.7  0.0357   58.7  0.4797 -169.7
 0.880  0.7187  172.3   8.903   77.2  0.0363   58.8  0.4803 -170.4
 0.900  0.7194  171.9   8.674   76.6  0.0370   58.8  0.4810 -171.2
 0.920  0.7196  171.5   8.484   76.2  0.0377   58.8  0.4814 -171.9
 0.940  0.7198  171.0   8.294   75.7  0.0383   58.8  0.4819 -172.6
 0.960  0.7201  170.6   8.105   75.2  0.0390   58.8  0.4825 -173.3
 0.980  0.7204  170.1   7.917   74.7  0.0396   58.8  0.4832 -174.0
 1.000  0.7208  169.7   7.729   74.2  0.0403   58.8  0.4839 -174.7
 1.020  0.7213  169.3   7.581   73.8  0.0410   58.7  0.4844 -175.3
 1.040  0.7219  168.9   7.433   73.4  0.0417   58.7  0.4850 -175.9
 1.060  0.7225  168.6   7.285   72.9  0.0423   58.6  0.4856 -176.5
 1.080  0.7231  168.2   7.139   72.5  0.0430   58.6  0.4863 -177.1
 1.100  0.7238  167.8   6.992   72.0  0.0437   58.5  0.4870 -177.7
 1.120  0.7242  167.4   6.864   71.6  0.0444   58.4  0.4876 -178.3
 1.140  0.7247  167.0   6.735   71.2  0.0451   58.3  0.4882 -178.9
 1.160  0.7251  166.6   6.608   70.8  0.0457   58.3  0.4889 -179.4
 1.180  0.7256  166.2   6.480   70.4  0.0464   58.2  0.4896  180.0
 1.200  0.7262  165.8   6.353   69.9  0.0471   58.1  0.4904  179.4
 1.220  0.7265  165.4   6.248   69.5  0.0478   58.0  0.4909  178.9
 1.240  0.7269  165.1   6.143   69.1  0.0484   57.9  0.4915  178.3
 1.260  0.7273  164.7   6.038   68.7  0.0491   57.8  0.4921  177.8
 1.280  0.7277  164.4   5.934   68.3  0.0497   57.7  0.4927  177.2
 1.300  0.7281  164.0   5.830   67.9  0.0504   57.6  0.4934  176.7
 1.320  0.7286  163.7   5.739   67.5  0.0511   57.5  0.4940  176.2
 1.340  0.7291  163.3   5.647   67.2  0.0518   57.4  0.4947  175.7
 1.360  0.7297  163.0   5.556   66.8  0.0524   57.2  0.4954  175.2
 1.380  0.7303  162.6   5.465   66.4  0.0531   57.1  0.4961  174.7
 1.400  0.7309  162.3   5.375   66.0  0.0538   57.0  0.4969  174.2
 1.420  0.7312  161.9   5.298   65.6  0.0545   56.9  0.4976  173.7
 1.440  0.7316  161.6   5.221   65.3  0.0551   56.7  0.4982  173.3
 1.460  0.7320  161.2   5.144   64.9  0.0558   56.6  0.4990  172.8
 1.480  0.7324  160.9   5.067   64.5  0.0564   56.4  0.4997  172.4
 1.500  0.7329  160.5   4.991   64.1  0.0571   56.3  0.5005  171.9
 1.520  0.7332  160.2   4.924   63.8  0.0578   56.1  0.5011  171.5
 1.540  0.7335  159.8   4.856   63.4  0.0584   56.0  0.5017  171.0
 1.560  0.7338  159.5   4.789   63.1  0.0591   55.8  0.5024  170.6
 1.580  0.7342  159.1   4.723   62.7  0.0597   55.7  0.5031  170.1
 1.600  0.7346  158.8   4.656   62.3  0.0604   55.5  0.5038  169.7
 1.620  0.7351  158.5   4.597   62.0  0.0611   55.3  0.5044  169.3
 1.640  0.7356  158.1   4.537   61.6  0.0617   55.1  0.5051  168.8
 1.660  0.7361  157.8   4.478   61.2  0.0624   54.9  0.5058  168.4
 1.680  0.7366  157.4   4.420   60.9  0.0630   54.8  0.5065  167.9
 1.700  0.7372  157.1   4.361   60.5  0.0637   54.6  0.5073  167.5
 1.720  0.7373  156.8   4.307   60.2  0.0644   54.4  0.5078  167.1
 1.740  0.7375  156.5   4.254   59.8  0.0650   54.2  0.5084  166.7
 1.760  0.7376  156.1   4.200   59.4  0.0657   54.0  0.5090  166.2
 1.780  0.7378  155.8   4.147   59.1  0.0663   53.9  0.5096  165.8
 1.800  0.7380  155.5   4.094   58.7  0.0670   53.7  0.5103  165.4
 1.820  0.7384  155.2   4.047   58.4  0.0676   53.5  0.5110  165.0
 1.840  0.7387  154.9   4.000   58.0  0.0683   53.3  0.5117  164.6
 1.860  0.7391  154.5   3.953   57.7  0.0689   53.1  0.5125  164.2
 1.880  0.7396  154.2   3.906   57.4  0.0696   53.0  0.5133  163.8
 1.900  0.7400  153.9   3.859   57.0  0.0702   52.8  0.5141  163.4
 1.920  0.7403  153.6   3.818   56.7  0.0708   52.6  0.5146  163.0
 1.940  0.7406  153.2   3.776   56.3  0.0715   52.3  0.5152  162.6
 1.960  0.7410  152.9   3.735   55.9  0.0721   52.1  0.5158  162.2
 1.980  0.7414  152.5   3.694   55.6  0.0728   51.9  0.5164  161.8
 2.000  0.7418  152.2   3.653   55.2  0.0734   51.7  0.5170  161.4
 2.020  0.7419  151.9   3.616   54.9  0.0740   51.5  0.5175  161.0
 2.040  0.7420  151.5   3.579   54.6  0.0746   51.3  0.5180  160.6
 2.060  0.7422  151.2   3.543   54.3  0.0752   51.0  0.5186  160.2
 2.080  0.7423  150.9   3.506   53.9  0.0758   50.8  0.5192  159.8
 2.100  0.7425  150.5   3.470   53.6  0.0764   50.6  0.5198  159.4
 2.120  0.7428  150.2   3.434   53.2  0.0770   50.4  0.5204  159.0
 2.140  0.7430  149.9   3.398   52.9  0.0777   50.2  0.5211  158.6
 2.160  0.7433  149.6   3.362   52.5  0.0783   50.0  0.5218  158.2
 2.180  0.7436  149.2   3.326   52.2  0.0789   49.8  0.5225  157.8
 2.200  0.7439  148.9   3.290   51.8  0.0795   49.6  0.5232  157.4
 2.220  0.7441  148.6   3.260   51.5  0.0801   49.4  0.5238  157.0
 2.240  0.7443  148.3   3.229   51.2  0.0807   49.2  0.5244  156.7
 2.260  0.7445  148.0   3.199   50.9  0.0813   49.0  0.5250  156.3
 2.280  0.7447  147.7   3.169   50.6  0.0819   48.8  0.5257  155.9
 2.300  0.7449  147.4   3.139   50.3  0.0825   48.6  0.5264  155.5
 2.320  0.7452  147.1   3.109   50.0  0.0831   48.4  0.5271  155.2
 2.340  0.7455  146.8   3.080   49.6  0.0838   48.2  0.5278  154.8
 2.360  0.7458  146.5   3.050   49.3  0.0844   48.0  0.5285  154.4
 2.380  0.7461  146.2   3.020   48.9  0.0850   47.8  0.5293  154.1
 2.400  0.7465  145.9   2.991   48.6  0.0856   47.6  0.5301  153.7
 2.420  0.7465  145.6   2.965   48.3  0.0862   47.4  0.5307  153.3
 2.440  0.7466  145.3   2.939   48.0  0.0868   47.1  0.5313  153.0
 2.460  0.7467  145.0   2.914   47.7  0.0874   46.9  0.5320  152.6
 2.480  0.7468  144.7   2.888   47.4  0.0879   46.6  0.5327  152.2
 2.500  0.7469  144.4   2.862   47.0  0.0885   46.4  0.5334  151.8
 2.520  0.7470  144.1   2.837   46.7  0.0891   46.2  0.5341  151.5
 2.540  0.7472  143.8   2.811   46.4  0.0897   46.0  0.5348  151.1
 2.560  0.7474  143.5   2.786   46.0  0.0903   45.7  0.5356  150.7
 2.580  0.7476  143.2   2.761   45.7  0.0909   45.5  0.5364  150.4
 2.600  0.7478  142.9   2.736   45.3  0.0915   45.3  0.5372  150.0
 2.620  0.7481  142.6   2.715   45.0  0.0921   45.1  0.5378  149.6
 2.640  0.7484  142.3   2.694   44.7  0.0926   44.8  0.5385  149.3
 2.660  0.7487  142.0   2.673   44.4  0.0932   44.6  0.5391  148.9
 2.680  0.7490  141.7   2.652   44.1  0.0938   44.4  0.5398  148.6
 2.700  0.7494  141.4   2.631   43.8  0.0943   44.2  0.5405  148.2
 2.720  0.7497  141.2   2.610   43.5  0.0949   43.9  0.5413  147.9
 2.740  0.7501  140.9   2.590   43.2  0.0955   43.7  0.5420  147.5
 2.760  0.7505  140.6   2.569   42.9  0.0960   43.5  0.5428  147.2
 2.780  0.7510  140.3   2.548   42.5  0.0966   43.3  0.5436  146.8
 2.800  0.7514  140.0   2.528   42.2  0.0972   43.1  0.5444  146.5
 2.820  0.7516  139.7   2.509   41.9  0.0978   42.9  0.5450  146.2
 2.840  0.7519  139.4   2.491   41.6  0.0983   42.6  0.5456  145.9
 2.860  0.7521  139.1   2.472   41.3  0.0989   42.4  0.5463  145.5
 2.880  0.7524  138.8   2.454   41.0  0.0995   42.1  0.5470  145.2
 2.900  0.7527  138.5   2.436   40.7  0.1000   41.9  0.5476  144.9
 2.920  0.7530  138.2   2.417   40.3  0.1006   41.7  0.5483  144.6
 2.940  0.7534  137.9   2.399   40.0  0.1012   41.5  0.5491  144.3
 2.960  0.7537  137.6   2.381   39.7  0.1017   41.2  0.5498  143.9
 2.980  0.7541  137.3   2.363   39.3  0.1023   41.0  0.5505  143.6
 3.000  0.7545  137.0   2.345   39.0  0.1029   40.8  0.5513  143.3
 3.100  0.7561  135.5   2.266   37.6  0.1053   39.5  0.5542  141.8
 3.200  0.7581  134.0   2.189   36.1  0.1078   38.2  0.5575  140.3
 3.300  0.7607  132.5   2.113   34.5  0.1103   37.0  0.5611  138.8
 3.400  0.7638  131.1   2.039   32.8  0.1128   35.9  0.5651  137.3
 3.500  0.7674  129.6   1.967   31.0  0.1154   34.8  0.5695  135.9
 3.600  0.7697  128.3   1.907   29.7  0.1175   33.6  0.5730  134.6
 3.700  0.7724  126.9   1.849   28.4  0.1196   32.4  0.5767  133.3
 3.800  0.7755  125.6   1.791   26.9  0.1217   31.3  0.5808  132.0
 3.900  0.7791  124.3   1.735   25.4  0.1240   30.2  0.5851  130.7
 4.000  0.7830  123.0   1.680   23.7  0.1262   29.2  0.5897  129.5
 4.100  0.7846  121.9   1.635   22.5  0.1281   28.1  0.5931  128.3
 4.200  0.7866  120.8   1.590   21.3  0.1300   27.1  0.5968  127.1
 4.300  0.7888  119.7   1.547   20.0  0.1319   26.0  0.6007  125.9
 4.400  0.7913  118.6   1.504   18.6  0.1339   25.1  0.6049  124.7
 4.500  0.7941  117.5   1.462   17.2  0.1359   24.1  0.6093  123.6
 4.600  0.7949  116.5   1.428   16.0  0.1378   23.1  0.6119  122.5
 4.700  0.7960  115.4   1.394   14.8  0.1398   22.1  0.6147  121.4
 4.800  0.7974  114.4   1.361   13.5  0.1418   21.1  0.6178  120.3
 4.900  0.7990  113.3   1.329   12.2  0.1438   20.1  0.6211  119.2
 5.000  0.8009  112.3   1.297   10.8  0.1459   19.2  0.6246  118.1
 5.100  0.8004  111.3   1.269    9.7  0.1476   18.1  0.6261  117.0
 5.200  0.8002  110.2   1.242    8.5  0.1494   17.1  0.6279  115.8
 5.300  0.8002  109.2   1.216    7.2  0.1512   16.1  0.6299  114.7
 5.400  0.8005  108.1   1.190    5.9  0.1531   15.1  0.6321  113.6
 5.500  0.8011  107.1   1.165    4.6  0.1550   14.1  0.6346  112.5
 5.600  0.8010  106.2   1.144    3.5  0.1568   13.1  0.6359  111.3
 5.700  0.8011  105.4   1.124    2.4  0.1586   12.2  0.6374  110.2
 5.800  0.8014  104.5   1.104    1.2  0.1605   11.2  0.6391  109.1
 5.900  0.8019  103.7   1.084   -0.0  0.1624   10.3  0.6411  107.9
 6.000  0.8025  102.8   1.065   -1.3  0.1644    9.4  0.6434  106.8
 6.100  0.8036  102.0   1.049   -2.5  0.1660    8.3  0.6449  105.8
 6.200  0.8050  101.2   1.034   -3.7  0.1677    7.2  0.6467  104.7
 6.300  0.8064  100.3   1.019   -5.0  0.1695    6.1  0.6487  103.7
 6.400  0.8081   99.5   1.004   -6.3  0.1713    5.0  0.6508  102.7
 6.500  0.8099   98.7   0.990   -7.6  0.1732    4.0  0.6532  101.7
 6.600  0.8113   97.7   0.975   -8.9  0.1748    2.8  0.6547  100.8
 6.800  0.8148   95.7   0.946  -11.5  0.1781    0.6  0.6583   99.0
 7.000  0.8193   93.8   0.920  -14.3  0.1817   -1.6  0.6624   97.3
 7.200  0.8221   91.5   0.891  -17.0  0.1840   -4.0  0.6667   95.4
 7.400  0.8263   89.2   0.865  -19.8  0.1867   -6.4  0.6717   93.4
 7.600  0.8293   86.9   0.837  -22.5  0.1887   -8.8  0.6782   91.2
 7.800  0.8314   84.5   0.809  -25.0  0.1903  -11.1  0.6866   88.7
 8.000  0.8350   82.1   0.783  -27.6  0.1921  -13.4  0.6963   86.3
 8.200  0.8375   79.6   0.756  -29.9  0.1921  -15.7  0.7052   83.6
 8.400  0.8417   77.1   0.729  -32.5  0.1924  -18.0  0.7156   81.1
 8.600  0.8453   74.7   0.704  -34.8  0.1921  -20.3  0.7241   78.6
 8.800  0.8483   72.3   0.679  -37.0  0.1911  -22.4  0.7306   76.2
 9.000  0.8528   70.0   0.655  -39.3  0.1903  -24.6  0.7384   73.9
 9.200  0.8569   68.2   0.630  -41.0  0.1886  -26.2  0.7442   72.0
 9.400  0.8618   66.4   0.605  -42.9  0.1870  -27.8  0.7509   70.0
 9.600  0.8673   65.0   0.584  -44.5  0.1856  -29.2  0.7601   68.4
 9.800  0.8730   63.9   0.568  -45.8  0.1843  -30.5  0.7716   67.2
10.000  0.8790   62.9   0.551  -47.1  0.1830  -31.8  0.7835   65.9
10.200  0.8812   62.4   0.537  -48.0  0.1825  -32.4  0.7879   65.9
10.400  0.8834   61.9   0.524  -48.9  0.1821  -33.0  0.7923   65.9
10.600  0.8844   61.4   0.514  -49.8  0.1822  -33.6  0.7941   66.1
10.800  0.8841   61.0   0.508  -50.6  0.1830  -34.3  0.7934   66.5
11.000  0.8839   60.6   0.502  -51.5  0.1837  -34.9  0.7927   66.9
11.200  0.8796   59.9   0.497  -53.0  0.1896  -35.0  0.7808   66.3
11.400  0.8755   59.2   0.493  -54.4  0.1955  -35.1  0.7690   65.7
11.600  0.8706   58.6   0.491  -55.9  0.2009  -36.4  0.7632   64.8
11.800  0.8649   57.9   0.491  -57.4  0.2060  -38.6  0.7635   63.6
12.000  0.8593   57.2   0.492  -58.8  0.2113  -40.7  0.7642   62.4
!
!  f       NFmin   Gammaopt  rn/50
! GHz       dB    MAG  ANG    -
 0.450      1.90  0.60 -172   0.07
 0.900      1.96  0.63 -166   0.08
 1.900      2.06  0.65 -150   0.14
 2.400      2.15  0.65 -141   0.20
!
! (c) 2015  Infineon Technologies AG, Munich
