! Infineon Technologies  Discrete & RF Semiconductors
! BFP405F
! VCE =  1.5 V,  IC =  20 mA
! Common Emitter S-Parameters:                            Nov 2015
# GHz  S  MA  R  50
!  f         S11            S21            S12            S22
! GHz     MAG   ANG      MAG   ANG      MAG   ANG      MAG   ANG
 0.030  0.5544   -4.2  27.941  176.8  0.0022  162.7  0.9438   -0.4
 0.035  0.5553   -5.0  27.984  176.3  0.0011  127.9  0.9476   -0.8
 0.040  0.5562   -5.7  28.028  175.9  0.0013   52.9  0.9514   -1.1
 0.045  0.5563   -6.6  28.120  175.1  0.0049   64.1  0.9575   -1.4
 0.050  0.5565   -7.5  28.217  174.4  0.0085   65.8  0.9636   -1.7
 0.055  0.5557   -7.9  28.113  173.9  0.0059   76.1  0.9583   -1.7
 0.060  0.5549   -8.4  28.011  173.4  0.0038   99.6  0.9531   -1.8
 0.065  0.5533   -8.9  27.993  172.7  0.0006  134.1  0.9497   -2.1
 0.070  0.5517   -9.4  27.980  172.0  0.0029  -93.8  0.9464   -2.4
 0.075  0.5514  -10.3  27.908  171.5  0.0002  -37.6  0.9499   -2.9
 0.080  0.5512  -11.2  27.838  171.0  0.0027   79.2  0.9534   -3.3
 0.085  0.5504  -11.8  27.877  170.6  0.0025   86.2  0.9543   -3.6
 0.090  0.5497  -12.5  27.917  170.3  0.0024   94.0  0.9553   -3.8
 0.095  0.5495  -13.2  27.829  169.8  0.0033   79.5  0.9535   -4.1
 0.100  0.5494  -14.0  27.744  169.2  0.0044   71.6  0.9517   -4.4
 0.105  0.5486  -14.7  27.718  168.6  0.0043   75.9  0.9506   -4.6
 0.110  0.5479  -15.5  27.695  168.0  0.0042   80.4  0.9496   -4.8
 0.115  0.5474  -16.4  27.653  167.6  0.0044   80.0  0.9510   -5.0
 0.120  0.5471  -17.3  27.612  167.2  0.0047   79.7  0.9524   -5.2
 0.125  0.5456  -17.8  27.579  166.6  0.0046   81.1  0.9501   -5.5
 0.130  0.5441  -18.3  27.549  165.9  0.0046   82.5  0.9479   -5.8
 0.135  0.5433  -19.0  27.537  165.5  0.0048   88.7  0.9471   -6.1
 0.140  0.5425  -19.7  27.526  165.1  0.0051   94.3  0.9463   -6.4
 0.145  0.5405  -20.5  27.481  164.6  0.0046   81.4  0.9446   -6.7
 0.150  0.5387  -21.4  27.438  164.0  0.0043   66.1  0.9430   -7.0
 0.155  0.5373  -22.0  27.369  163.4  0.0045   67.4  0.9417   -7.2
 0.160  0.5360  -22.7  27.303  162.9  0.0047   68.6  0.9403   -7.5
 0.165  0.5347  -23.3  27.239  162.3  0.0049   69.7  0.9390   -7.7
 0.170  0.5335  -23.9  27.178  161.7  0.0052   70.7  0.9377   -7.9
 0.175  0.5323  -24.6  27.120  161.2  0.0054   71.6  0.9365   -8.1
 0.180  0.5312  -25.2  27.064  160.6  0.0056   72.5  0.9352   -8.4
 0.185  0.5302  -25.9  27.011  160.0  0.0058   73.3  0.9340   -8.6
 0.190  0.5293  -26.5  26.961  159.5  0.0061   74.0  0.9327   -8.8
 0.195  0.5284  -27.1  26.914  158.9  0.0063   74.7  0.9315   -9.1
 0.200  0.5276  -27.8  26.869  158.3  0.0065   75.3  0.9303   -9.3
 0.220  0.5211  -30.2  26.468  156.4  0.0071   75.3  0.9248  -10.1
 0.240  0.5154  -32.7  26.096  154.5  0.0077   75.3  0.9195  -11.0
 0.260  0.5092  -35.1  25.742  152.6  0.0082   75.1  0.9129  -11.8
 0.280  0.5023  -37.5  25.406  150.7  0.0085   74.9  0.9049  -12.6
 0.300  0.4962  -39.9  25.099  148.7  0.0089   74.6  0.8972  -13.4
 0.320  0.4884  -42.1  24.681  147.0  0.0099   74.9  0.8896  -14.0
 0.340  0.4814  -44.4  24.285  145.3  0.0108   75.1  0.8820  -14.7
 0.360  0.4746  -46.7  23.899  143.6  0.0114   74.7  0.8749  -15.3
 0.380  0.4679  -49.0  23.521  141.9  0.0117   73.6  0.8682  -16.0
 0.400  0.4620  -51.4  23.163  140.2  0.0119   72.6  0.8616  -16.7
 0.420  0.4558  -53.3  22.760  138.7  0.0123   72.6  0.8536  -17.2
 0.440  0.4501  -55.3  22.373  137.2  0.0128   72.6  0.8457  -17.7
 0.450  0.4475  -56.3  22.186  136.4  0.0130   72.6  0.8418  -18.0
 0.460  0.4434  -57.2  21.984  135.7  0.0133   72.8  0.8377  -18.3
 0.480  0.4356  -59.1  21.588  134.3  0.0140   73.1  0.8295  -18.8
 0.500  0.4283  -61.1  21.206  132.9  0.0147   73.4  0.8214  -19.3
 0.520  0.4214  -62.9  20.822  131.7  0.0150   72.6  0.8142  -19.7
 0.540  0.4148  -64.7  20.448  130.5  0.0153   71.8  0.8071  -20.1
 0.560  0.4087  -66.6  20.083  129.2  0.0155   71.0  0.8000  -20.5
 0.580  0.4031  -68.6  19.728  127.9  0.0158   70.2  0.7929  -21.0
 0.600  0.3980  -70.6  19.385  126.5  0.0161   69.5  0.7859  -21.4
 0.620  0.3916  -72.1  19.050  125.5  0.0166   69.5  0.7797  -21.7
 0.640  0.3856  -73.7  18.722  124.5  0.0170   69.5  0.7736  -22.0
 0.660  0.3798  -75.3  18.400  123.4  0.0175   69.6  0.7675  -22.3
 0.680  0.3743  -76.9  18.084  122.3  0.0179   69.6  0.7614  -22.7
 0.700  0.3691  -78.6  17.776  121.1  0.0184   69.6  0.7553  -23.0
 0.720  0.3639  -80.1  17.459  120.2  0.0186   69.3  0.7494  -23.3
 0.740  0.3591  -81.6  17.147  119.2  0.0188   69.1  0.7435  -23.5
 0.760  0.3544  -83.2  16.840  118.3  0.0189   68.8  0.7376  -23.8
 0.780  0.3501  -84.8  16.538  117.3  0.0191   68.6  0.7317  -24.0
 0.800  0.3460  -86.5  16.241  116.2  0.0193   68.3  0.7259  -24.3
 0.820  0.3414  -87.8  15.980  115.4  0.0196   68.3  0.7209  -24.6
 0.840  0.3370  -89.2  15.721  114.6  0.0199   68.3  0.7159  -24.8
 0.860  0.3328  -90.5  15.466  113.8  0.0203   68.2  0.7110  -25.1
 0.880  0.3288  -92.0  15.215  112.9  0.0206   68.2  0.7060  -25.3
 0.900  0.3250  -93.4  14.967  112.0  0.0209   68.2  0.7011  -25.6
 0.920  0.3214  -94.7  14.729  111.3  0.0214   67.9  0.6964  -25.8
 0.940  0.3179  -96.0  14.493  110.6  0.0219   67.7  0.6916  -26.0
 0.960  0.3147  -97.3  14.260  109.8  0.0223   67.4  0.6869  -26.3
 0.980  0.3115  -98.6  14.030  109.0  0.0228   67.2  0.6822  -26.5
 1.000  0.3086 -100.0  13.802  108.2  0.0233   67.0  0.6775  -26.7
 1.020  0.3051 -101.2  13.594  107.6  0.0235   67.1  0.6732  -26.9
 1.040  0.3018 -102.4  13.388  106.9  0.0237   67.3  0.6689  -27.1
 1.060  0.2985 -103.6  13.183  106.3  0.0239   67.4  0.6646  -27.3
 1.080  0.2954 -104.8  12.981  105.6  0.0241   67.6  0.6604  -27.5
 1.100  0.2925 -106.1  12.780  104.9  0.0243   67.7  0.6561  -27.7
 1.120  0.2901 -107.3  12.599  104.3  0.0246   67.7  0.6524  -27.8
 1.140  0.2879 -108.5  12.419  103.7  0.0249   67.7  0.6486  -28.0
 1.160  0.2857 -109.8  12.240  103.1  0.0251   67.7  0.6449  -28.1
 1.180  0.2837 -111.0  12.063  102.5  0.0254   67.7  0.6412  -28.3
 1.200  0.2819 -112.3  11.888  101.8  0.0257   67.7  0.6375  -28.4
 1.220  0.2793 -113.4  11.726  101.3  0.0262   67.8  0.6340  -28.6
 1.240  0.2769 -114.5  11.564  100.7  0.0267   67.9  0.6304  -28.7
 1.260  0.2745 -115.6  11.404  100.1  0.0271   67.9  0.6269  -28.9
 1.280  0.2722 -116.7  11.246   99.5  0.0276   68.0  0.6234  -29.0
 1.300  0.2701 -117.9  11.088   98.9  0.0281   68.1  0.6199  -29.2
 1.320  0.2687 -118.9  10.944   98.4  0.0284   67.9  0.6169  -29.4
 1.340  0.2674 -119.9  10.801   98.0  0.0287   67.7  0.6138  -29.5
 1.360  0.2661 -120.9  10.658   97.5  0.0291   67.5  0.6108  -29.7
 1.380  0.2650 -121.9  10.516   97.0  0.0294   67.4  0.6078  -29.8
 1.400  0.2639 -122.9  10.375   96.5  0.0297   67.2  0.6048  -30.0
 1.420  0.2622 -123.9  10.247   96.1  0.0300   67.4  0.6019  -30.1
 1.440  0.2605 -124.9  10.120   95.6  0.0303   67.6  0.5989  -30.2
 1.460  0.2590 -125.9   9.993   95.2  0.0306   67.8  0.5960  -30.4
 1.480  0.2575 -126.9   9.867   94.7  0.0309   68.0  0.5930  -30.5
 1.500  0.2561 -127.9   9.742   94.2  0.0312   68.2  0.5901  -30.6
 1.520  0.2552 -128.8   9.629   93.8  0.0314   68.3  0.5877  -30.7
 1.540  0.2543 -129.8   9.517   93.4  0.0316   68.3  0.5852  -30.9
 1.560  0.2535 -130.8   9.405   93.0  0.0318   68.4  0.5828  -31.0
 1.580  0.2528 -131.7   9.294   92.5  0.0320   68.4  0.5803  -31.2
 1.600  0.2522 -132.7   9.183   92.1  0.0322   68.5  0.5779  -31.3
 1.620  0.2513 -133.4   9.076   91.7  0.0326   68.3  0.5750  -31.5
 1.640  0.2504 -134.2   8.970   91.3  0.0330   68.0  0.5721  -31.6
 1.660  0.2496 -135.0   8.864   90.9  0.0333   67.8  0.5692  -31.8
 1.680  0.2488 -135.7   8.758   90.4  0.0337   67.6  0.5664  -31.9
 1.700  0.2481 -136.5   8.653   90.0  0.0341   67.4  0.5635  -32.1
 1.720  0.2473 -137.4   8.561   89.6  0.0345   67.4  0.5612  -32.3
 1.740  0.2467 -138.4   8.469   89.2  0.0349   67.4  0.5589  -32.4
 1.760  0.2460 -139.3   8.378   88.8  0.0353   67.3  0.5566  -32.6
 1.780  0.2455 -140.3   8.287   88.4  0.0357   67.3  0.5544  -32.7
 1.800  0.2450 -141.2   8.197   88.0  0.0361   67.3  0.5521  -32.9
 1.820  0.2445 -141.9   8.113   87.7  0.0364   67.3  0.5498  -33.0
 1.840  0.2440 -142.6   8.030   87.3  0.0367   67.4  0.5476  -33.2
 1.860  0.2436 -143.2   7.947   87.0  0.0371   67.4  0.5453  -33.3
 1.880  0.2432 -143.9   7.864   86.7  0.0374   67.5  0.5431  -33.5
 1.900  0.2428 -144.6   7.782   86.3  0.0377   67.5  0.5408  -33.6
 1.920  0.2429 -145.4   7.708   86.0  0.0380   67.6  0.5389  -33.8
 1.940  0.2431 -146.2   7.635   85.6  0.0384   67.7  0.5371  -34.0
 1.960  0.2433 -147.1   7.562   85.2  0.0387   67.7  0.5352  -34.3
 1.980  0.2436 -147.9   7.489   84.9  0.0391   67.8  0.5333  -34.5
 2.000  0.2439 -148.7   7.417   84.5  0.0394   67.9  0.5315  -34.7
 2.020  0.2436 -149.4   7.345   84.2  0.0396   67.8  0.5295  -34.8
 2.040  0.2433 -150.1   7.273   83.8  0.0399   67.7  0.5275  -35.0
 2.060  0.2430 -150.8   7.201   83.5  0.0401   67.5  0.5256  -35.1
 2.080  0.2428 -151.5   7.130   83.2  0.0404   67.4  0.5236  -35.3
 2.100  0.2426 -152.2   7.059   82.8  0.0406   67.3  0.5216  -35.4
 2.120  0.2423 -152.9   6.993   82.5  0.0410   67.3  0.5198  -35.6
 2.140  0.2420 -153.5   6.928   82.2  0.0414   67.2  0.5179  -35.8
 2.160  0.2418 -154.2   6.862   81.9  0.0419   67.2  0.5161  -35.9
 2.180  0.2416 -154.8   6.797   81.5  0.0423   67.1  0.5143  -36.1
 2.200  0.2414 -155.5   6.732   81.2  0.0427   67.1  0.5125  -36.3
 2.220  0.2413 -156.1   6.672   80.9  0.0431   67.1  0.5108  -36.4
 2.240  0.2412 -156.7   6.613   80.6  0.0435   67.2  0.5091  -36.6
 2.260  0.2412 -157.3   6.553   80.3  0.0438   67.2  0.5073  -36.7
 2.280  0.2412 -157.9   6.494   80.0  0.0442   67.3  0.5056  -36.9
 2.300  0.2412 -158.5   6.435   79.7  0.0446   67.3  0.5039  -37.0
 2.320  0.2409 -159.1   6.382   79.4  0.0450   67.3  0.5023  -37.1
 2.340  0.2407 -159.8   6.329   79.2  0.0454   67.4  0.5006  -37.3
 2.360  0.2405 -160.4   6.276   78.9  0.0457   67.4  0.4990  -37.4
 2.380  0.2403 -161.1   6.223   78.6  0.0461   67.5  0.4973  -37.6
 2.400  0.2402 -161.7   6.171   78.3  0.0465   67.5  0.4957  -37.7
 2.420  0.2403 -162.2   6.118   78.0  0.0468   67.5  0.4945  -37.8
 2.440  0.2405 -162.7   6.066   77.7  0.0471   67.4  0.4933  -38.0
 2.460  0.2406 -163.3   6.014   77.4  0.0473   67.4  0.4922  -38.1
 2.480  0.2408 -163.8   5.962   77.1  0.0476   67.3  0.4910  -38.3
 2.500  0.2410 -164.3   5.910   76.8  0.0479   67.3  0.4898  -38.4
 2.520  0.2406 -164.8   5.863   76.5  0.0482   67.2  0.4884  -38.5
 2.540  0.2403 -165.3   5.816   76.3  0.0485   67.1  0.4870  -38.7
 2.560  0.2399 -165.9   5.769   76.0  0.0488   67.1  0.4857  -38.8
 2.580  0.2396 -166.4   5.723   75.8  0.0491   67.0  0.4843  -39.0
 2.600  0.2393 -166.9   5.676   75.5  0.0494   66.9  0.4829  -39.1
 2.620  0.2394 -167.4   5.633   75.2  0.0497   66.7  0.4817  -39.2
 2.640  0.2396 -167.9   5.590   75.0  0.0500   66.5  0.4806  -39.3
 2.660  0.2397 -168.4   5.547   74.7  0.0502   66.4  0.4794  -39.5
 2.680  0.2399 -168.9   5.504   74.5  0.0505   66.2  0.4783  -39.6
 2.700  0.2401 -169.4   5.461   74.2  0.0508   66.0  0.4771  -39.7
 2.720  0.2399 -169.9   5.422   73.9  0.0513   66.2  0.4761  -39.8
 2.740  0.2398 -170.4   5.383   73.7  0.0518   66.3  0.4751  -40.0
 2.760  0.2397 -170.8   5.344   73.4  0.0522   66.5  0.4742  -40.1
 2.780  0.2396 -171.3   5.306   73.2  0.0527   66.6  0.4732  -40.3
 2.800  0.2395 -171.8   5.267   72.9  0.0532   66.8  0.4722  -40.4
 2.820  0.2398 -172.2   5.228   72.7  0.0535   66.6  0.4712  -40.5
 2.840  0.2401 -172.6   5.190   72.4  0.0538   66.4  0.4702  -40.7
 2.860  0.2404 -173.1   5.151   72.2  0.0541   66.1  0.4693  -40.8
 2.880  0.2407 -173.5   5.112   71.9  0.0544   65.9  0.4683  -41.0
 2.900  0.2410 -173.9   5.074   71.7  0.0547   65.7  0.4673  -41.1
 2.920  0.2408 -174.4   5.040   71.5  0.0550   65.8  0.4663  -41.2
 2.940  0.2406 -174.9   5.005   71.2  0.0553   65.8  0.4654  -41.4
 2.960  0.2405 -175.4   4.971   71.0  0.0555   65.9  0.4644  -41.5
 2.980  0.2403 -175.9   4.937   70.7  0.0558   65.9  0.4635  -41.7
 3.000  0.2402 -176.4   4.903   70.5  0.0561   66.0  0.4625  -41.8
 3.100  0.2411 -178.3   4.735   69.3  0.0578   66.2  0.4579  -42.3
 3.200  0.2417  179.2   4.581   68.2  0.0593   65.6  0.4545  -43.1
 3.300  0.2428  177.5   4.442   67.0  0.0618   64.9  0.4502  -43.7
 3.400  0.2429  175.1   4.301   66.0  0.0628   64.8  0.4476  -44.4
 3.500  0.2425  173.4   4.179   64.8  0.0648   64.2  0.4451  -44.8
 3.600  0.2437  171.2   4.054   63.8  0.0663   63.9  0.4416  -45.3
 3.700  0.2450  169.3   3.941   62.7  0.0685   63.7  0.4390  -45.8
 3.800  0.2456  167.4   3.834   61.7  0.0704   63.1  0.4369  -46.3
 3.900  0.2476  165.7   3.735   60.7  0.0720   63.5  0.4340  -46.9
 4.000  0.2469  164.0   3.639   59.8  0.0739   62.8  0.4318  -47.4
 4.100  0.2498  162.2   3.548   58.7  0.0753   62.2  0.4288  -47.9
 4.200  0.2502  160.0   3.462   57.8  0.0767   62.0  0.4262  -48.3
 4.300  0.2528  158.8   3.384   56.8  0.0789   62.2  0.4240  -48.8
 4.400  0.2536  157.0   3.306   55.9  0.0805   61.2  0.4215  -49.3
 4.500  0.2565  155.9   3.230   55.0  0.0827   61.4  0.4198  -49.6
 4.600  0.2582  153.8   3.156   54.0  0.0845   60.4  0.4165  -50.0
 4.700  0.2602  152.8   3.091   53.0  0.0864   60.3  0.4133  -50.4
 4.800  0.2624  151.1   3.028   52.1  0.0883   59.7  0.4115  -51.0
 4.900  0.2648  150.0   2.964   51.3  0.0902   59.6  0.4082  -51.3
 5.000  0.2663  148.4   2.907   50.2  0.0919   59.2  0.4060  -51.8
 5.100  0.2684  147.2   2.849   49.3  0.0932   58.7  0.4030  -52.2
 5.200  0.2700  145.8   2.798   48.4  0.0955   58.3  0.4002  -52.6
 5.300  0.2726  144.5   2.744   47.4  0.0976   57.8  0.3974  -53.2
 5.400  0.2728  143.5   2.695   46.6  0.0993   57.4  0.3954  -53.5
 5.500  0.2758  142.1   2.646   45.6  0.1010   56.8  0.3927  -53.9
 5.600  0.2771  140.8   2.599   44.7  0.1027   56.5  0.3903  -54.3
 5.700  0.2794  139.4   2.554   43.8  0.1046   56.3  0.3879  -54.7
 5.800  0.2801  138.3   2.514   42.9  0.1065   55.8  0.3853  -55.2
 5.900  0.2825  136.9   2.470   42.0  0.1077   55.4  0.3837  -55.6
 6.000  0.2834  135.7   2.429   41.1  0.1099   54.7  0.3818  -55.9
 6.100  0.2856  134.4   2.388   40.2  0.1116   54.1  0.3783  -56.1
 6.200  0.2867  133.1   2.349   39.3  0.1132   53.8  0.3761  -56.7
 6.300  0.2895  131.7   2.314   38.4  0.1157   53.2  0.3731  -57.0
 6.400  0.2895  130.3   2.276   37.5  0.1173   52.8  0.3710  -57.4
 6.500  0.2925  128.6   2.239   36.6  0.1190   52.3  0.3685  -57.7
 6.600  0.2942  127.3   2.207   35.7  0.1206   52.1  0.3656  -58.0
 6.800  0.2987  124.4   2.140   33.9  0.1241   51.1  0.3600  -58.5
 7.000  0.3035  121.4   2.078   32.2  0.1278   50.4  0.3538  -58.6
 7.200  0.3105  118.7   2.017   30.6  0.1314   49.6  0.3445  -59.1
 7.400  0.3193  116.4   1.963   29.0  0.1354   48.6  0.3367  -59.5
 7.600  0.3288  114.4   1.913   27.5  0.1396   47.9  0.3260  -59.7
 7.800  0.3391  112.6   1.866   25.9  0.1438   46.8  0.3146  -60.0
 8.000  0.3508  111.0   1.821   24.2  0.1477   45.8  0.3005  -60.5
 8.200  0.3650  109.8   1.781   22.7  0.1518   44.7  0.2827  -60.9
 8.400  0.3793  108.7   1.743   21.1  0.1559   43.6  0.2650  -61.4
 8.600  0.3935  107.8   1.706   19.5  0.1599   42.6  0.2453  -61.8
 8.800  0.4075  106.9   1.671   17.9  0.1638   41.5  0.2237  -62.4
 9.000  0.4216  106.1   1.638   16.2  0.1677   40.5  0.2021  -63.0
 9.200  0.4344  105.2   1.607   14.6  0.1719   39.3  0.1782  -64.1
 9.400  0.4472  104.4   1.577   13.0  0.1762   38.2  0.1544  -65.6
 9.600  0.4593  103.5   1.548   11.4  0.1805   37.0  0.1298  -67.8
 9.800  0.4707  102.6   1.521    9.7  0.1848   35.7  0.1047  -71.4
10.000  0.4822  101.7   1.496    8.0  0.1891   34.5  0.0802  -77.2
10.200  0.4929  100.4   1.469    6.3  0.1929   33.1  0.0564  -89.3
10.400  0.5039   99.1   1.443    4.6  0.1968   31.7  0.0383 -115.2
10.600  0.5143   97.6   1.415    2.8  0.2003   30.3  0.0387 -158.9
10.800  0.5243   95.8   1.387    0.9  0.2033   28.9  0.0588  174.4
11.000  0.5348   94.1   1.361   -1.0  0.2065   27.6  0.0849  162.6
11.200  0.5427   92.3   1.329   -2.6  0.2086   26.4  0.1118  159.1
11.400  0.5512   90.6   1.298   -4.3  0.2107   25.2  0.1390  157.0
11.600  0.5570   89.1   1.268   -5.8  0.2131   24.1  0.1650  157.3
11.800  0.5601   88.0   1.239   -7.0  0.2157   23.3  0.1898  159.1
12.000  0.5633   86.9   1.211   -8.3  0.2183   22.4  0.2148  160.5
!
!  f       NFmin   Gammaopt  rn/50
! GHz       dB    MAG  ANG    -
 0.450      2.24  0.02  -18   0.47
 0.900      2.25  0.01  -90   0.30
 1.500      2.31  0.03 -114   0.38
 1.900      2.38  0.04 -120   0.52
 2.400      2.53  0.05 -120   0.18
 3.000      2.62  0.07 -120   0.16
 3.500      2.70  0.09 -118   0.22
 4.500      2.94  0.14 -105   0.50
 5.500      3.27  0.24  -88   0.52
!
! (c) 2015  Infineon Technologies AG, Munich
