! Infineon Technologies  Discrete & RF Semiconductors
! BFP420F
!
! VCE =  1.0 V,  IC =  20 mA
! Common Emitter S-Parameters:                            Sep 2011
# GHz  S  MA  R  50
!  f         S11            S21            S12            S22
! GHz     MAG   ANG      MAG   ANG      MAG   ANG      MAG   ANG
 0.030  0.4864   -8.8  39.088  173.5  0.0029   90.8  0.9409   -4.6
 0.040  0.4833  -11.7  38.987  171.4  0.0038   88.3  0.9399   -6.3
 0.050  0.4791  -14.2  38.415  169.1  0.0044   84.3  0.9366   -8.0
 0.060  0.4803  -17.9  38.342  167.5  0.0057   84.4  0.9336   -9.7
 0.070  0.4829  -20.5  38.120  165.7  0.0066   84.8  0.9282  -11.4
 0.080  0.4818  -23.0  37.502  163.7  0.0075   82.5  0.9223  -12.9
 0.090  0.4712  -26.0  37.220  162.0  0.0083   82.0  0.9159  -14.6
 0.100  0.4728  -28.8  36.972  159.9  0.0091   80.8  0.9085  -16.1
 0.110  0.4747  -30.6  36.229  158.4  0.0099   78.8  0.9012  -17.6
 0.120  0.4699  -33.9  36.001  156.3  0.0107   78.4  0.8927  -19.1
 0.130  0.4671  -36.3  35.344  154.8  0.0116   77.5  0.8842  -20.6
 0.140  0.4641  -39.1  34.856  153.3  0.0124   77.0  0.8752  -21.9
 0.150  0.4630  -41.7  34.435  151.7  0.0132   76.2  0.8663  -23.3
 0.200  0.4568  -53.4  32.063  144.8  0.0168   72.7  0.8199  -29.8
 0.250  0.4441  -64.4  29.669  138.4  0.0199   69.1  0.7705  -35.4
 0.300  0.4357  -74.5  27.647  133.0  0.0230   66.9  0.7246  -40.5
 0.350  0.4274  -83.4  25.586  128.1  0.0256   64.7  0.6785  -44.9
 0.400  0.4221  -91.3  23.710  123.8  0.0280   63.3  0.6372  -48.9
 0.450  0.4176  -98.3  22.109  120.0  0.0301   61.7  0.5992  -52.5
 0.500  0.4108 -104.7  20.551  116.7  0.0320   60.8  0.5626  -55.7
 0.600  0.4033 -116.2  17.943  110.7  0.0356   59.4  0.4997  -61.5
 0.700  0.3999 -125.4  15.920  105.7  0.0390   58.5  0.4499  -66.6
 0.800  0.3985 -133.2  14.177  101.4  0.0421   58.1  0.4066  -71.1
 0.900  0.3956 -139.6  12.715   98.0  0.0452   57.9  0.3701  -75.2
 1.000  0.3981 -145.1  11.559   94.9  0.0482   57.9  0.3400  -79.3
 1.100  0.3962 -150.2  10.562   92.0  0.0511   57.8  0.3135  -83.1
 1.200  0.3963 -154.5   9.646   89.3  0.0541   57.8  0.2923  -87.0
 1.300  0.3976 -158.3   8.932   87.2  0.0571   57.8  0.2732  -90.4
 1.400  0.4014 -161.7   8.312   85.2  0.0602   57.9  0.2578  -94.2
 1.500  0.4004 -165.4   7.736   82.8  0.0631   57.8  0.2423  -97.5
 1.600  0.4018 -167.9   7.191   81.2  0.0661   57.7  0.2309 -101.5
 1.700  0.4032 -170.5   6.779   79.8  0.0691   57.7  0.2196 -104.9
 1.800  0.4071 -172.8   6.420   78.3  0.0722   57.7  0.2121 -108.6
 1.900  0.4086 -175.6   6.075   76.2  0.0753   57.5  0.2047 -112.0
 2.000  0.4075 -177.5   5.707   74.8  0.0782   57.3  0.1994 -115.5
 2.200  0.4127  179.0   5.207   72.3  0.0843   57.0  0.1920 -121.5
 2.400  0.4112  175.4   4.719   69.5  0.0906   56.3  0.1873 -127.0
 2.600  0.4144  172.3   4.361   67.3  0.0966   55.8  0.1836 -131.9
 2.800  0.4155  169.1   4.047   64.8  0.1031   55.0  0.1822 -136.1
 3.000  0.4180  166.2   3.766   62.6  0.1091   54.4  0.1813 -140.0
 3.500  0.4229  159.8   3.227   57.2  0.1249   52.2  0.1800 -148.0
 4.000  0.4280  153.7   2.827   51.8  0.1407   49.5  0.1787 -155.1
 4.500  0.4351  148.6   2.522   46.7  0.1565   46.6  0.1740 -162.5
 5.000  0.4393  144.2   2.282   41.7  0.1716   43.5  0.1679 -170.6
 5.500  0.4447  139.4   2.083   36.6  0.1863   40.2  0.1612  179.9
 6.000  0.4515  134.0   1.919   31.6  0.2006   36.9  0.1549  169.1
 6.500  0.4643  128.3   1.777   26.6  0.2140   33.4  0.1565  157.0
 7.000  0.4783  122.7   1.651   21.5  0.2270   29.9  0.1606  144.2
 7.500  0.5001  118.2   1.540   16.7  0.2399   26.4  0.1749  132.1
 8.000  0.5248  114.3   1.437   11.9  0.2511   22.4  0.2037  120.1
 8.500  0.5533  110.5   1.337    7.2  0.2593   18.6  0.2449  108.6
 9.000  0.5807  107.1   1.246    3.1  0.2657   15.1  0.2936   99.3
 9.500  0.6075  103.9   1.167   -0.5  0.2715   12.2  0.3479   93.5
10.000  0.6366  100.3   1.099   -3.6  0.2777    9.5  0.4049   90.2
!
!  f       NFmin   Gammaopt  rn/50
! GHz       dB    MAG  ANG    -
 0.450      1.53  0.18 -179   0.15
 0.900      1.54  0.18 -179   0.17
 1.900      1.66  0.26 -170   0.15
 2.400      1.72  0.27 -165   0.11
 3.500      1.96  0.29 -155   0.15
!
! (c) 2011  Infineon Technologies AG, Munich
