! Infineon Technologies  Discrete & RF Semiconductors
! BFP405F
! VCE =  1.5 V,  IC =  14 mA
! Common Emitter S-Parameters:                            Nov 2015
# GHz  S  MA  R  50
!  f         S11            S21            S12            S22
! GHz     MAG   ANG      MAG   ANG      MAG   ANG      MAG   ANG
 0.030  0.6384   -2.9  25.317  177.1  0.0012 -119.0  0.9665   -0.8
 0.035  0.6388   -3.6  25.355  176.8  0.0004 -175.2  0.9683   -1.0
 0.040  0.6393   -4.2  25.394  176.5  0.0010   98.7  0.9702   -1.1
 0.045  0.6373   -4.6  25.487  175.8  0.0025  118.1  0.9711   -1.4
 0.050  0.6353   -5.0  25.583  175.2  0.0041  122.7  0.9721   -1.6
 0.055  0.6376   -5.5  25.477  174.9  0.0032   93.3  0.9718   -1.8
 0.060  0.6399   -5.9  25.372  174.5  0.0034   56.9  0.9715   -2.1
 0.065  0.6392   -6.5  25.370  173.8  0.0027   98.3  0.9733   -2.2
 0.070  0.6386   -7.1  25.372  173.2  0.0036  137.0  0.9752   -2.3
 0.075  0.6369   -7.5  25.303  172.8  0.0017  102.1  0.9740   -2.5
 0.080  0.6353   -7.9  25.235  172.4  0.0021   23.6  0.9728   -2.8
 0.085  0.6345   -8.4  25.281  172.2  0.0027   36.1  0.9724   -3.1
 0.090  0.6338   -8.9  25.328  172.0  0.0033   44.0  0.9720   -3.4
 0.095  0.6360   -9.6  25.259  171.6  0.0036   61.0  0.9711   -3.7
 0.100  0.6382  -10.2  25.192  171.1  0.0042   74.3  0.9702   -4.0
 0.105  0.6366  -10.5  25.178  170.7  0.0038   80.0  0.9700   -4.1
 0.110  0.6351  -10.8  25.166  170.2  0.0035   86.8  0.9699   -4.2
 0.115  0.6346  -11.4  25.143  169.9  0.0035   87.8  0.9704   -4.5
 0.120  0.6342  -12.1  25.120  169.5  0.0036   88.7  0.9709   -4.7
 0.125  0.6338  -12.6  25.104  169.0  0.0037   94.5  0.9694   -5.0
 0.130  0.6335  -13.2  25.090  168.4  0.0039   99.8  0.9680   -5.3
 0.135  0.6316  -13.7  25.099  168.1  0.0039   91.3  0.9688   -5.5
 0.140  0.6297  -14.3  25.109  167.9  0.0039   82.8  0.9696   -5.6
 0.145  0.6284  -14.8  25.087  167.5  0.0052   84.7  0.9676   -5.8
 0.150  0.6272  -15.4  25.066  167.0  0.0066   85.9  0.9657   -6.0
 0.155  0.6261  -15.9  25.027  166.5  0.0066   84.7  0.9647   -6.2
 0.160  0.6250  -16.3  24.990  166.0  0.0065   83.6  0.9638   -6.4
 0.165  0.6239  -16.8  24.955  165.5  0.0065   82.4  0.9629   -6.7
 0.170  0.6229  -17.2  24.921  165.1  0.0065   81.2  0.9619   -6.9
 0.175  0.6219  -17.7  24.889  164.6  0.0065   80.0  0.9610   -7.1
 0.180  0.6210  -18.1  24.859  164.1  0.0064   78.8  0.9601   -7.3
 0.185  0.6201  -18.6  24.831  163.6  0.0064   77.6  0.9593   -7.5
 0.190  0.6193  -19.1  24.805  163.1  0.0064   76.4  0.9584   -7.8
 0.195  0.6185  -19.5  24.781  162.6  0.0064   75.2  0.9575   -8.0
 0.200  0.6177  -20.0  24.758  162.1  0.0064   74.0  0.9567   -8.2
 0.220  0.6126  -21.9  24.492  160.5  0.0072   79.6  0.9532   -9.0
 0.240  0.6083  -23.9  24.245  158.9  0.0080   84.1  0.9498   -9.7
 0.260  0.6031  -25.8  24.018  157.3  0.0086   85.2  0.9453  -10.5
 0.280  0.5969  -27.5  23.811  155.6  0.0090   83.7  0.9397  -11.2
 0.300  0.5913  -29.3  23.625  153.9  0.0094   82.4  0.9343  -11.9
 0.320  0.5848  -31.0  23.345  152.4  0.0098   80.8  0.9283  -12.6
 0.340  0.5789  -32.8  23.082  150.9  0.0103   79.4  0.9224  -13.3
 0.360  0.5726  -34.6  22.826  149.4  0.0108   77.2  0.9170  -14.0
 0.380  0.5660  -36.4  22.577  147.8  0.0113   74.5  0.9120  -14.7
 0.400  0.5599  -38.2  22.344  146.3  0.0119   72.1  0.9072  -15.4
 0.420  0.5535  -39.7  22.054  144.9  0.0125   72.9  0.9002  -16.0
 0.440  0.5475  -41.3  21.777  143.5  0.0131   73.6  0.8933  -16.5
 0.450  0.5446  -42.1  21.643  142.8  0.0134   73.9  0.8899  -16.8
 0.460  0.5410  -42.9  21.493  142.1  0.0137   74.1  0.8864  -17.1
 0.480  0.5342  -44.4  21.203  140.8  0.0142   74.6  0.8795  -17.7
 0.500  0.5278  -46.0  20.924  139.4  0.0147   75.0  0.8727  -18.3
 0.520  0.5201  -47.4  20.626  138.2  0.0149   74.4  0.8661  -18.8
 0.540  0.5126  -48.9  20.337  137.0  0.0152   73.9  0.8595  -19.3
 0.560  0.5056  -50.4  20.057  135.8  0.0154   73.4  0.8531  -19.8
 0.580  0.4988  -51.9  19.787  134.5  0.0157   72.9  0.8466  -20.3
 0.600  0.4925  -53.5  19.527  133.2  0.0159   72.4  0.8403  -20.8
 0.620  0.4857  -54.8  19.255  132.2  0.0165   71.9  0.8341  -21.2
 0.640  0.4792  -56.0  18.989  131.1  0.0171   71.5  0.8280  -21.6
 0.660  0.4730  -57.4  18.730  130.0  0.0177   71.1  0.8219  -22.0
 0.680  0.4669  -58.7  18.477  128.9  0.0183   70.7  0.8159  -22.4
 0.700  0.4612  -60.1  18.232  127.8  0.0189   70.4  0.8099  -22.8
 0.720  0.4544  -61.3  17.957  126.9  0.0192   70.1  0.8038  -23.1
 0.740  0.4479  -62.6  17.686  125.9  0.0195   69.7  0.7977  -23.5
 0.760  0.4415  -63.9  17.421  124.9  0.0198   69.4  0.7917  -23.9
 0.780  0.4355  -65.2  17.161  123.9  0.0201   69.1  0.7857  -24.2
 0.800  0.4296  -66.6  16.907  122.8  0.0204   68.8  0.7797  -24.6
 0.820  0.4238  -67.7  16.674  121.9  0.0208   68.7  0.7742  -24.9
 0.840  0.4182  -68.8  16.444  121.1  0.0212   68.5  0.7687  -25.2
 0.860  0.4127  -69.9  16.218  120.2  0.0217   68.4  0.7633  -25.5
 0.880  0.4074  -71.1  15.996  119.3  0.0221   68.3  0.7579  -25.9
 0.900  0.4023  -72.3  15.779  118.3  0.0225   68.2  0.7525  -26.2
 0.920  0.3970  -73.4  15.556  117.5  0.0229   68.3  0.7473  -26.5
 0.940  0.3919  -74.5  15.336  116.8  0.0233   68.3  0.7421  -26.7
 0.960  0.3869  -75.6  15.118  116.0  0.0237   68.4  0.7370  -27.0
 0.980  0.3820  -76.7  14.904  115.1  0.0241   68.4  0.7318  -27.3
 1.000  0.3773  -77.9  14.693  114.3  0.0245   68.5  0.7267  -27.6
 1.020  0.3724  -78.9  14.493  113.6  0.0247   68.5  0.7219  -27.9
 1.040  0.3676  -79.9  14.296  113.0  0.0249   68.5  0.7171  -28.1
 1.060  0.3630  -80.9  14.100  112.3  0.0251   68.4  0.7123  -28.4
 1.080  0.3584  -81.9  13.907  111.5  0.0253   68.4  0.7076  -28.6
 1.100  0.3540  -83.0  13.716  110.8  0.0255   68.4  0.7028  -28.9
 1.120  0.3497  -84.0  13.540  110.2  0.0258   68.1  0.6985  -29.1
 1.140  0.3456  -85.1  13.366  109.5  0.0262   67.7  0.6943  -29.3
 1.160  0.3416  -86.2  13.193  108.8  0.0265   67.4  0.6900  -29.4
 1.180  0.3377  -87.3  13.023  108.1  0.0269   67.1  0.6857  -29.6
 1.200  0.3339  -88.4  12.854  107.4  0.0272   66.8  0.6815  -29.8
 1.220  0.3299  -89.3  12.691  106.8  0.0275   66.8  0.6774  -30.0
 1.240  0.3259  -90.2  12.530  106.2  0.0279   66.7  0.6733  -30.2
 1.260  0.3221  -91.1  12.371  105.5  0.0282   66.7  0.6692  -30.5
 1.280  0.3183  -92.0  12.212  104.9  0.0286   66.6  0.6651  -30.7
 1.300  0.3146  -93.0  12.056  104.2  0.0289   66.6  0.6610  -30.9
 1.320  0.3117  -93.9  11.910  103.7  0.0293   66.7  0.6572  -31.1
 1.340  0.3088  -94.8  11.764  103.2  0.0297   66.8  0.6535  -31.3
 1.360  0.3061  -95.8  11.619  102.7  0.0300   66.9  0.6497  -31.4
 1.380  0.3034  -96.7  11.476  102.1  0.0304   67.0  0.6459  -31.6
 1.400  0.3008  -97.7  11.333  101.6  0.0308   67.1  0.6422  -31.8
 1.420  0.2976  -98.6  11.202  101.1  0.0311   67.1  0.6389  -32.0
 1.440  0.2945  -99.5  11.071  100.6  0.0315   67.1  0.6355  -32.1
 1.460  0.2915 -100.4  10.942  100.1  0.0318   67.2  0.6322  -32.3
 1.480  0.2886 -101.3  10.813   99.6  0.0322   67.2  0.6288  -32.4
 1.500  0.2857 -102.3  10.685   99.1  0.0325   67.2  0.6255  -32.6
 1.520  0.2834 -103.2  10.567   98.6  0.0328   67.0  0.6224  -32.8
 1.540  0.2811 -104.1  10.450   98.2  0.0331   66.7  0.6193  -33.0
 1.560  0.2789 -105.0  10.333   97.7  0.0335   66.5  0.6162  -33.1
 1.580  0.2768 -105.9  10.217   97.2  0.0338   66.2  0.6131  -33.3
 1.600  0.2747 -106.8  10.102   96.7  0.0341   66.0  0.6100  -33.5
 1.620  0.2723 -107.6   9.990   96.3  0.0345   66.1  0.6068  -33.6
 1.640  0.2700 -108.3   9.878   95.8  0.0349   66.2  0.6035  -33.8
 1.660  0.2678 -109.1   9.767   95.4  0.0353   66.4  0.6003  -33.9
 1.680  0.2656 -109.9   9.657   94.9  0.0357   66.5  0.5971  -34.1
 1.700  0.2634 -110.7   9.547   94.4  0.0361   66.6  0.5939  -34.2
 1.720  0.2614 -111.6   9.449   94.0  0.0363   66.6  0.5909  -34.4
 1.740  0.2595 -112.4   9.351   93.6  0.0365   66.6  0.5880  -34.6
 1.760  0.2576 -113.3   9.254   93.2  0.0366   66.5  0.5851  -34.7
 1.780  0.2558 -114.2   9.157   92.7  0.0368   66.5  0.5821  -34.9
 1.800  0.2541 -115.1   9.061   92.3  0.0370   66.5  0.5792  -35.1
 1.820  0.2525 -115.9   8.973   92.0  0.0374   66.8  0.5766  -35.2
 1.840  0.2510 -116.7   8.885   91.6  0.0378   67.0  0.5740  -35.4
 1.860  0.2495 -117.5   8.798   91.2  0.0382   67.3  0.5714  -35.5
 1.880  0.2481 -118.3   8.711   90.9  0.0386   67.6  0.5688  -35.7
 1.900  0.2467 -119.1   8.624   90.5  0.0390   67.8  0.5662  -35.8
 1.920  0.2456 -119.9   8.544   90.1  0.0394   67.6  0.5641  -36.0
 1.940  0.2445 -120.8   8.465   89.7  0.0397   67.3  0.5620  -36.3
 1.960  0.2435 -121.7   8.386   89.3  0.0401   67.1  0.5599  -36.5
 1.980  0.2426 -122.5   8.308   88.9  0.0404   66.8  0.5579  -36.8
 2.000  0.2417 -123.4   8.230   88.5  0.0408   66.6  0.5558  -37.0
 2.020  0.2402 -124.1   8.153   88.1  0.0412   66.4  0.5537  -37.2
 2.040  0.2388 -124.9   8.076   87.8  0.0416   66.1  0.5515  -37.3
 2.060  0.2374 -125.7   7.999   87.4  0.0419   65.9  0.5494  -37.5
 2.080  0.2360 -126.4   7.923   87.0  0.0423   65.6  0.5472  -37.6
 2.100  0.2347 -127.2   7.847   86.6  0.0427   65.4  0.5451  -37.8
 2.120  0.2335 -127.9   7.775   86.3  0.0430   65.5  0.5427  -38.0
 2.140  0.2324 -128.7   7.704   85.9  0.0433   65.6  0.5403  -38.1
 2.160  0.2313 -129.5   7.633   85.6  0.0435   65.8  0.5379  -38.3
 2.180  0.2303 -130.2   7.562   85.3  0.0438   65.9  0.5356  -38.4
 2.200  0.2293 -131.0   7.492   84.9  0.0441   66.0  0.5332  -38.6
 2.220  0.2283 -131.7   7.427   84.6  0.0444   65.8  0.5312  -38.8
 2.240  0.2274 -132.4   7.362   84.3  0.0446   65.6  0.5292  -38.9
 2.260  0.2264 -133.1   7.297   84.0  0.0449   65.4  0.5272  -39.1
 2.280  0.2256 -133.8   7.232   83.6  0.0451   65.2  0.5252  -39.2
 2.300  0.2247 -134.5   7.168   83.3  0.0454   65.0  0.5232  -39.4
 2.320  0.2238 -135.2   7.109   83.0  0.0458   65.1  0.5215  -39.6
 2.340  0.2228 -135.9   7.051   82.7  0.0462   65.2  0.5197  -39.7
 2.360  0.2220 -136.6   6.993   82.4  0.0467   65.4  0.5180  -39.9
 2.380  0.2211 -137.3   6.935   82.1  0.0471   65.5  0.5163  -40.0
 2.400  0.2203 -138.0   6.877   81.8  0.0475   65.6  0.5146  -40.2
 2.420  0.2194 -138.7   6.820   81.5  0.0478   65.5  0.5131  -40.3
 2.440  0.2186 -139.4   6.763   81.2  0.0481   65.4  0.5116  -40.4
 2.460  0.2178 -140.1   6.707   80.9  0.0485   65.4  0.5101  -40.5
 2.480  0.2170 -140.8   6.650   80.6  0.0488   65.3  0.5086  -40.6
 2.500  0.2163 -141.5   6.594   80.3  0.0491   65.2  0.5071  -40.7
 2.520  0.2155 -142.1   6.541   80.0  0.0495   65.1  0.5055  -40.8
 2.540  0.2147 -142.6   6.489   79.8  0.0499   65.0  0.5038  -40.9
 2.560  0.2140 -143.2   6.436   79.5  0.0502   65.0  0.5022  -41.1
 2.580  0.2132 -143.8   6.384   79.2  0.0506   64.9  0.5005  -41.2
 2.600  0.2125 -144.4   6.332   78.9  0.0510   64.8  0.4989  -41.3
 2.620  0.2121 -145.1   6.285   78.6  0.0514   64.9  0.4975  -41.4
 2.640  0.2117 -145.7   6.238   78.4  0.0518   64.9  0.4960  -41.6
 2.660  0.2113 -146.4   6.192   78.1  0.0521   65.0  0.4946  -41.7
 2.680  0.2109 -147.0   6.145   77.8  0.0525   65.0  0.4931  -41.9
 2.700  0.2106 -147.7   6.099   77.5  0.0529   65.1  0.4917  -42.0
 2.720  0.2099 -148.2   6.056   77.2  0.0532   64.9  0.4905  -42.1
 2.740  0.2093 -148.8   6.013   77.0  0.0535   64.8  0.4892  -42.3
 2.760  0.2086 -149.3   5.971   76.7  0.0538   64.6  0.4880  -42.4
 2.780  0.2080 -149.9   5.928   76.4  0.0541   64.5  0.4867  -42.6
 2.800  0.2074 -150.4   5.886   76.1  0.0544   64.3  0.4855  -42.7
 2.820  0.2071 -150.9   5.843   75.9  0.0547   64.4  0.4844  -42.8
 2.840  0.2067 -151.5   5.800   75.6  0.0551   64.5  0.4833  -43.0
 2.860  0.2064 -152.0   5.757   75.4  0.0554   64.6  0.4823  -43.1
 2.880  0.2062 -152.6   5.714   75.1  0.0558   64.7  0.4812  -43.3
 2.900  0.2059 -153.1   5.671   74.9  0.0561   64.8  0.4801  -43.4
 2.920  0.2054 -153.7   5.633   74.6  0.0564   64.6  0.4789  -43.5
 2.940  0.2049 -154.3   5.595   74.4  0.0567   64.4  0.4777  -43.7
 2.960  0.2044 -154.8   5.557   74.1  0.0571   64.3  0.4766  -43.8
 2.980  0.2039 -155.4   5.520   73.9  0.0574   64.1  0.4754  -44.0
 3.000  0.2035 -156.0   5.482   73.6  0.0577   63.9  0.4742  -44.1
 3.100  0.2025 -158.6   5.299   72.3  0.0593   64.0  0.4691  -44.6
 3.200  0.1995 -161.8   5.125   71.1  0.0607   64.2  0.4642  -45.3
 3.300  0.1996 -163.9   4.970   70.0  0.0626   63.3  0.4602  -45.7
 3.400  0.1981 -167.2   4.814   68.9  0.0643   62.7  0.4562  -46.5
 3.500  0.1968 -169.0   4.678   67.8  0.0665   62.7  0.4530  -47.0
 3.600  0.1960 -171.3   4.540   66.7  0.0678   62.8  0.4493  -47.4
 3.700  0.1953 -173.9   4.413   65.6  0.0701   62.2  0.4462  -47.9
 3.800  0.1952 -176.3   4.294   64.6  0.0712   61.8  0.4437  -48.3
 3.900  0.1960 -178.3   4.185   63.5  0.0731   61.4  0.4399  -48.8
 4.000  0.1960  179.6   4.078   62.6  0.0754   61.2  0.4373  -49.3
 4.100  0.1968  177.3   3.977   61.5  0.0764   60.7  0.4335  -49.7
 4.200  0.1960  174.9   3.880   60.6  0.0778   61.0  0.4314  -50.1
 4.300  0.1996  173.0   3.792   59.5  0.0808   60.0  0.4277  -50.6
 4.400  0.1988  170.6   3.707   58.6  0.0816   59.4  0.4250  -51.0
 4.500  0.2010  169.2   3.622   57.7  0.0835   59.3  0.4225  -51.3
 4.600  0.2017  166.5   3.539   56.6  0.0851   59.2  0.4197  -51.7
 4.700  0.2038  165.3   3.467   55.7  0.0872   58.7  0.4158  -52.0
 4.800  0.2057  162.8   3.396   54.8  0.0887   58.4  0.4135  -52.6
 4.900  0.2073  161.7   3.327   53.9  0.0907   57.8  0.4097  -52.9
 5.000  0.2091  159.6   3.262   52.9  0.0927   57.6  0.4071  -53.3
 5.100  0.2101  158.1   3.197   52.0  0.0947   57.0  0.4041  -53.7
 5.200  0.2118  156.4   3.138   51.0  0.0963   56.7  0.4008  -54.1
 5.300  0.2139  154.5   3.079   50.1  0.0980   56.3  0.3981  -54.5
 5.400  0.2146  153.4   3.025   49.2  0.1000   56.0  0.3956  -54.9
 5.500  0.2169  151.6   2.970   48.2  0.1016   55.4  0.3934  -55.2
 5.600  0.2182  150.2   2.917   47.3  0.1030   55.0  0.3906  -55.6
 5.700  0.2206  148.5   2.868   46.4  0.1051   54.3  0.3874  -55.9
 5.800  0.2217  147.1   2.820   45.5  0.1067   53.9  0.3851  -56.4
 5.900  0.2230  145.6   2.773   44.6  0.1086   53.7  0.3824  -56.6
 6.000  0.2242  144.0   2.726   43.7  0.1105   53.0  0.3803  -57.0
 6.100  0.2255  142.5   2.679   42.8  0.1122   52.9  0.3774  -57.2
 6.200  0.2271  140.9   2.636   41.9  0.1143   52.1  0.3755  -57.7
 6.300  0.2295  139.1   2.597   41.0  0.1160   51.8  0.3720  -57.9
 6.400  0.2299  137.7   2.555   40.1  0.1177   51.1  0.3694  -58.4
 6.500  0.2322  135.8   2.514   39.2  0.1188   51.0  0.3668  -58.6
 6.600  0.2336  134.3   2.477   38.3  0.1211   50.5  0.3639  -58.8
 6.800  0.2385  130.7   2.403   36.6  0.1240   49.6  0.3581  -59.2
 7.000  0.2427  127.3   2.333   34.9  0.1275   48.8  0.3519  -59.3
 7.200  0.2506  124.0   2.266   33.2  0.1315   48.0  0.3426  -59.6
 7.400  0.2589  121.6   2.205   31.6  0.1351   47.2  0.3345  -60.0
 7.600  0.2688  119.2   2.149   30.1  0.1395   46.6  0.3244  -60.1
 7.800  0.2796  117.3   2.097   28.5  0.1432   45.5  0.3120  -60.3
 8.000  0.2926  115.6   2.046   26.9  0.1472   44.5  0.2981  -60.8
 8.200  0.3077  114.3   2.002   25.4  0.1512   43.3  0.2803  -61.1
 8.400  0.3230  113.1   1.960   23.7  0.1553   42.2  0.2625  -61.3
 8.600  0.3383  112.1   1.919   22.1  0.1593   41.2  0.2427  -61.7
 8.800  0.3536  111.2   1.880   20.5  0.1630   40.1  0.2208  -62.1
 9.000  0.3690  110.4   1.843   18.8  0.1668   39.1  0.1989  -62.6
 9.200  0.3829  109.5   1.808   17.2  0.1709   37.9  0.1754  -63.5
 9.400  0.3968  108.7   1.773   15.6  0.1751   36.8  0.1519  -64.7
 9.600  0.4100  107.8   1.741   14.0  0.1792   35.7  0.1277  -66.5
 9.800  0.4224  106.8   1.711   12.3  0.1833   34.5  0.1030  -69.6
10.000  0.4349  105.8   1.682   10.5  0.1874   33.3  0.0787  -74.5
10.200  0.4468  104.3   1.652    8.8  0.1910   31.9  0.0542  -85.3
10.400  0.4590  102.9   1.623    7.1  0.1947   30.6  0.0344 -110.6
10.600  0.4703  101.2   1.593    5.3  0.1980   29.2  0.0334 -159.9
10.800  0.4810   99.3   1.562    3.4  0.2010   27.8  0.0538  171.2
11.000  0.4922   97.4   1.532    1.5  0.2040   26.4  0.0801  159.6
11.200  0.5007   95.4   1.496   -0.1  0.2061   25.2  0.1065  156.8
11.400  0.5097   93.4   1.461   -1.8  0.2084   24.0  0.1331  155.1
11.600  0.5160   91.9   1.428   -3.3  0.2108   23.0  0.1583  155.9
11.800  0.5191   90.6   1.395   -4.6  0.2134   22.2  0.1823  158.2
12.000  0.5224   89.4   1.364   -5.9  0.2161   21.4  0.2065  159.9
!
!  f       NFmin   Gammaopt  rn/50
! GHz       dB    MAG  ANG    -
 0.450      1.91  0.12    3   0.31
 0.900      1.94  0.11    6   0.31
 1.500      1.98  0.10   10   0.20
 1.900      2.03  0.08   15   0.24
 2.400      2.17  0.06   22   0.38
 3.000      2.25  0.04   27   0.41
 3.500      2.31  0.02   23   0.49
 4.500      2.50  0.07  -88   0.15
 5.500      2.76  0.15  -87   0.08
!
! (c) 2015  Infineon Technologies AG, Munich
