! Infineon Technologies  Discrete & RF Semiconductors
! BFP420F
!
! VCE =  1.5 V,  IC =  6.0 mA
! Common Emitter S-Parameters:                            Sep 2011
# GHz  S  MA  R  50
!  f         S11            S21            S12            S22
! GHz     MAG   ANG      MAG   ANG      MAG   ANG      MAG   ANG
 0.030  0.7864   -4.0  18.008  176.2  0.0031   88.9  0.9853   -2.5
 0.040  0.7839   -5.4  18.034  175.1  0.0039   88.4  0.9844   -3.2
 0.050  0.7839   -6.5  17.866  173.8  0.0051   88.6  0.9841   -4.0
 0.060  0.7843   -8.6  17.907  173.2  0.0057   83.6  0.9827   -4.9
 0.070  0.7836   -9.6  17.930  172.3  0.0069   86.3  0.9813   -5.7
 0.080  0.7798  -10.8  17.739  171.1  0.0079   84.8  0.9794   -6.5
 0.090  0.7753  -12.2  17.763  170.1  0.0089   84.7  0.9778   -7.3
 0.100  0.7762  -13.5  17.806  168.9  0.0099   84.6  0.9754   -8.1
 0.110  0.7796  -14.6  17.555  168.1  0.0107   83.4  0.9731   -8.8
 0.120  0.7727  -16.0  17.639  166.8  0.0118   82.8  0.9706   -9.6
 0.130  0.7712  -17.3  17.437  165.9  0.0126   82.0  0.9682  -10.4
 0.140  0.7706  -18.7  17.352  164.9  0.0136   81.9  0.9654  -11.2
 0.150  0.7695  -20.0  17.308  163.9  0.0145   80.6  0.9629  -12.0
 0.200  0.7601  -26.3  16.906  159.5  0.0191   77.7  0.9466  -15.8
 0.250  0.7463  -32.6  16.419  154.8  0.0232   74.9  0.9260  -19.3
 0.300  0.7329  -38.8  16.032  150.6  0.0277   72.3  0.9061  -22.9
 0.350  0.7176  -44.6  15.499  146.6  0.0315   69.7  0.8816  -26.2
 0.400  0.7033  -50.1  14.956  142.6  0.0351   67.3  0.8572  -29.2
 0.450  0.6881  -55.5  14.471  139.0  0.0385   64.9  0.8323  -32.2
 0.500  0.6716  -60.6  13.918  135.5  0.0415   62.9  0.8049  -34.9
 0.600  0.6391  -70.6  12.874  129.0  0.0470   59.1  0.7514  -40.1
 0.700  0.6123  -79.5  11.963  123.2  0.0518   56.0  0.7037  -44.7
 0.800  0.5868  -87.9  11.056  117.9  0.0557   53.4  0.6553  -48.8
 0.900  0.5624  -95.4  10.208  113.4  0.0592   51.3  0.6111  -52.3
 1.000  0.5456 -102.4   9.498  109.3  0.0623   49.6  0.5714  -55.8
 1.100  0.5276 -108.9   8.839  105.4  0.0650   48.0  0.5344  -58.8
 1.200  0.5128 -114.9   8.196  101.9  0.0675   46.8  0.5024  -61.7
 1.300  0.5011 -120.3   7.685   99.0  0.0697   45.9  0.4732  -64.2
 1.400  0.4930 -125.5   7.225   96.2  0.0719   45.2  0.4467  -66.8
 1.500  0.4823 -130.4   6.776   93.1  0.0739   44.6  0.4215  -68.9
 1.600  0.4753 -134.8   6.346   90.8  0.0757   44.0  0.3997  -71.3
 1.700  0.4694 -138.8   6.014   88.8  0.0776   43.7  0.3793  -73.4
 1.800  0.4667 -142.4   5.717   86.7  0.0796   43.5  0.3623  -75.6
 1.900  0.4626 -146.3   5.428   84.2  0.0815   43.2  0.3467  -77.6
 2.000  0.4576 -149.5   5.121   82.3  0.0832   42.9  0.3325  -79.8
 2.200  0.4539 -155.3   4.696   79.0  0.0868   42.7  0.3096  -83.7
 2.400  0.4477 -160.7   4.277   75.5  0.0907   42.3  0.2916  -87.4
 2.600  0.4469 -165.4   3.959   72.6  0.0942   42.4  0.2763  -90.8
 2.800  0.4448 -169.9   3.679   69.6  0.0984   42.2  0.2653  -94.0
 3.000  0.4441 -174.0   3.431   67.0  0.1021   42.1  0.2552  -97.1
 3.500  0.4454  176.9   2.946   60.6  0.1126   41.7  0.2375 -103.8
 4.000  0.4485  168.5   2.588   54.5  0.1235   40.8  0.2243 -109.8
 4.500  0.4567  161.4   2.313   48.8  0.1349   39.6  0.2107 -115.3
 5.000  0.4605  155.2   2.094   43.4  0.1464   38.1  0.1964 -120.8
 5.500  0.4657  149.0   1.915   37.9  0.1580   36.4  0.1798 -126.9
 6.000  0.4712  142.5   1.766   32.6  0.1698   34.4  0.1606 -134.0
 6.500  0.4818  135.8   1.638   27.4  0.1812   32.2  0.1428 -144.4
 7.000  0.4951  129.1   1.525   22.1  0.1929   29.8  0.1249 -156.8
 7.500  0.5162  123.6   1.426   17.2  0.2052   27.5  0.1144 -174.1
 8.000  0.5399  118.6   1.335   12.1  0.2170   24.4  0.1174  163.0
 8.500  0.5664  114.2   1.248    7.2  0.2268   21.2  0.1401  138.5
 9.000  0.5913  110.4   1.167    2.9  0.2352   18.3  0.1829  120.2
 9.500  0.6167  106.9   1.097   -1.1  0.2431   15.6  0.2411  109.9
10.000  0.6450  103.0   1.034   -4.7  0.2510   13.1  0.3071  104.2
!
!  f       NFmin   Gammaopt  rn/50
! GHz       dB    MAG  ANG    -
 0.450      1.00  0.17   17   0.17
 0.900      1.02  0.18   42   0.16
 1.900      1.19  0.16  110   0.13
 2.400      1.27  0.18  119   0.15
 3.500      1.56  0.23  155   0.19
!
! (c) 2011  Infineon Technologies AG, Munich
