! Infineon Technologies  Discrete & RF Semiconductors
! BFP420F
!
! VCE =  3.0 V,  IC =  50 mA
! Common Emitter S-Parameters:                            Sep 2011
# GHz  S  MA  R  50
!  f         S11            S21            S12            S22
! GHz     MAG   ANG      MAG   ANG      MAG   ANG      MAG   ANG
 0.030  0.2239  -12.0  53.598  172.2  0.0023   90.4  0.9208   -3.0
 0.040  0.2230  -15.4  53.267  169.8  0.0027   89.8  0.9222   -4.8
 0.050  0.2195  -18.5  52.349  167.2  0.0031   86.9  0.9213   -6.6
 0.060  0.2301  -23.2  52.082  165.1  0.0036   84.3  0.9178   -8.3
 0.070  0.2337  -27.3  51.504  162.9  0.0044   85.0  0.9126  -10.0
 0.080  0.2292  -30.2  50.532  160.6  0.0047   83.1  0.9055  -11.5
 0.090  0.2281  -34.3  49.887  158.7  0.0054   81.2  0.8980  -13.1
 0.100  0.2273  -38.3  49.332  156.4  0.0059   79.6  0.8894  -14.5
 0.110  0.2350  -40.7  48.158  154.7  0.0064   82.1  0.8806  -16.0
 0.120  0.2318  -45.4  47.580  152.5  0.0069   80.7  0.8712  -17.3
 0.130  0.2343  -48.2  46.527  150.8  0.0074   80.6  0.8613  -18.6
 0.140  0.2346  -51.9  45.677  149.1  0.0078   79.0  0.8508  -19.8
 0.150  0.2367  -54.6  44.922  147.4  0.0084   78.4  0.8408  -21.0
 0.200  0.2469  -69.5  40.941  140.2  0.0109   76.2  0.7893  -26.4
 0.250  0.2543  -82.2  37.214  133.8  0.0128   74.2  0.7374  -30.7
 0.300  0.2632  -93.2  34.155  128.4  0.0149   72.8  0.6917  -34.4
 0.350  0.2730 -102.3  31.236  123.8  0.0167   71.7  0.6478  -37.4
 0.400  0.2780 -109.9  28.688  119.8  0.0185   70.9  0.6097  -39.9
 0.450  0.2835 -116.5  26.549  116.2  0.0201   70.2  0.5757  -42.1
 0.500  0.2871 -122.4  24.537  113.1  0.0217   69.9  0.5433  -44.0
 0.600  0.2965 -132.4  21.245  107.6  0.0248   69.3  0.4889  -47.3
 0.700  0.3029 -140.3  18.730  103.1  0.0278   69.0  0.4470  -50.0
 0.800  0.3101 -146.7  16.621   99.1  0.0308   69.0  0.4102  -52.4
 0.900  0.3145 -151.9  14.871   96.0  0.0338   68.9  0.3790  -54.3
 1.000  0.3216 -156.3  13.493   93.2  0.0368   68.9  0.3525  -56.5
 1.100  0.3247 -160.4  12.315   90.5  0.0397   68.6  0.3290  -58.4
 1.200  0.3284 -164.0  11.236   88.0  0.0426   68.4  0.3093  -60.4
 1.300  0.3317 -167.1  10.393   86.1  0.0456   68.3  0.2918  -62.1
 1.400  0.3375 -169.8   9.669   84.3  0.0486   68.2  0.2760  -64.1
 1.500  0.3386 -173.0   8.997   82.0  0.0516   67.9  0.2607  -65.7
 1.600  0.3426 -174.9   8.358   80.5  0.0545   67.5  0.2477  -67.9
 1.700  0.3457 -177.1   7.877   79.1  0.0574   67.3  0.2350  -69.7
 1.800  0.3501 -179.0   7.456   77.7  0.0604   67.1  0.2248  -71.8
 1.900  0.3524  178.5   7.048   75.7  0.0635   66.6  0.2153  -73.7
 2.000  0.3537  177.1   6.620   74.5  0.0663   66.1  0.2072  -76.1
 2.200  0.3598  173.8   6.033   72.1  0.0721   65.5  0.1942  -80.2
 2.400  0.3588  170.7   5.465   69.5  0.0782   64.4  0.1846  -84.2
 2.600  0.3638  168.0   5.044   67.3  0.0839   63.6  0.1764  -88.0
 2.800  0.3659  165.1   4.673   64.9  0.0900   62.5  0.1712  -91.5
 3.000  0.3687  162.4   4.344   62.9  0.0957   61.6  0.1665  -95.0
 3.500  0.3751  156.7   3.707   57.7  0.1104   58.9  0.1592 -102.4
 4.000  0.3804  151.1   3.239   52.7  0.1250   55.9  0.1536 -108.8
 4.500  0.3881  146.3   2.880   47.8  0.1396   52.8  0.1452 -114.6
 5.000  0.3926  142.2   2.599   43.2  0.1538   49.5  0.1345 -120.4
 5.500  0.3980  137.8   2.371   38.3  0.1677   46.2  0.1206 -126.9
 6.000  0.4055  132.7   2.181   33.6  0.1813   42.9  0.1031 -135.0
 6.500  0.4182  127.4   2.017   28.9  0.1941   39.4  0.0876 -148.8
 7.000  0.4330  121.7   1.872   24.0  0.2067   36.0  0.0729 -167.0
 7.500  0.4548  117.7   1.746   19.5  0.2194   32.6  0.0696  167.2
 8.000  0.4804  114.2   1.631   14.9  0.2311   28.8  0.0870  138.9
 8.500  0.5108  110.8   1.523   10.3  0.2405   25.0  0.1255  116.7
 9.000  0.5412  107.8   1.425    6.2  0.2487   21.5  0.1771  103.3
 9.500  0.5715  104.9   1.338    2.5  0.2561   18.4  0.2368   96.8
10.000  0.6045  101.3   1.262   -0.9  0.2636   15.5  0.2998   93.8
!
!  f       NFmin   Gammaopt  rn/50
! GHz       dB    MAG  ANG    -
!
! noise parameter not available yet for this operation point!
!
! (c) 2011  Infineon Technologies AG, Munich
