! Infineon Technologies  Discrete & RF Semiconductors
! BFP405F
! VCE =  3.5 V,  IC =  3.0 mA
! Common Emitter S-Parameters:                            Nov 2015
# GHz  S  MA  R  50
!  f         S11            S21            S12            S22
! GHz     MAG   ANG      MAG   ANG      MAG   ANG      MAG   ANG
 0.030  0.8876   -1.1   9.456  178.0  0.0012  135.4  0.9912   -0.6
 0.035  0.8868   -1.3   9.460  178.0  0.0004   93.7  0.9924   -0.7
 0.040  0.8861   -1.6   9.464  178.0  0.0008    0.4  0.9936   -0.8
 0.045  0.8874   -2.0   9.502  177.6  0.0007  124.2  0.9944   -0.8
 0.050  0.8887   -2.3   9.541  177.3  0.0020  143.6  0.9951   -0.8
 0.055  0.8887   -2.4   9.503  177.2  0.0023  103.0  0.9949   -0.9
 0.060  0.8887   -2.5   9.465  177.0  0.0033   79.7  0.9948   -1.1
 0.065  0.8905   -2.8   9.463  176.6  0.0043   54.0  0.9910   -1.1
 0.070  0.8924   -3.1   9.461  176.2  0.0059   39.9  0.9873   -1.2
 0.075  0.8918   -3.3   9.437  176.1  0.0041   65.8  0.9915   -1.4
 0.080  0.8912   -3.5   9.414  175.9  0.0038  108.4  0.9958   -1.5
 0.085  0.8901   -3.6   9.438  176.0  0.0039   91.9  0.9932   -1.7
 0.090  0.8891   -3.8   9.463  176.1  0.0042   77.0  0.9906   -2.0
 0.095  0.8889   -4.0   9.436  175.9  0.0028   71.3  0.9908   -2.1
 0.100  0.8888   -4.2   9.410  175.7  0.0015   55.2  0.9911   -2.1
 0.105  0.8891   -4.5   9.412  175.5  0.0026   86.5  0.9908   -2.1
 0.110  0.8895   -4.7   9.414  175.3  0.0039   98.0  0.9906   -2.1
 0.115  0.8890   -4.9   9.416  175.2  0.0040   91.4  0.9921   -2.3
 0.120  0.8885   -5.2   9.418  175.1  0.0042   85.3  0.9937   -2.4
 0.125  0.8878   -5.4   9.417  174.8  0.0040   86.6  0.9936   -2.5
 0.130  0.8872   -5.6   9.417  174.5  0.0039   87.9  0.9935   -2.6
 0.135  0.8868   -5.8   9.431  174.5  0.0037  100.0  0.9930   -2.7
 0.140  0.8865   -6.1   9.444  174.5  0.0036  113.2  0.9926   -2.8
 0.145  0.8863   -6.3   9.455  174.3  0.0038   99.3  0.9920   -2.9
 0.150  0.8862   -6.5   9.466  174.1  0.0042   87.4  0.9915   -3.0
 0.155  0.8861   -6.7   9.464  173.9  0.0044   86.6  0.9915   -3.1
 0.160  0.8861   -7.0   9.463  173.6  0.0046   85.9  0.9915   -3.2
 0.165  0.8861   -7.2   9.462  173.4  0.0049   85.3  0.9915   -3.3
 0.170  0.8860   -7.4   9.461  173.1  0.0051   84.7  0.9915   -3.4
 0.175  0.8860   -7.6   9.460  172.9  0.0053   84.2  0.9915   -3.6
 0.180  0.8860   -7.9   9.460  172.6  0.0055   83.7  0.9915   -3.7
 0.185  0.8861   -8.1   9.459  172.4  0.0057   83.3  0.9915   -3.8
 0.190  0.8861   -8.3   9.459  172.1  0.0060   82.8  0.9916   -3.9
 0.195  0.8861   -8.6   9.459  171.9  0.0062   82.5  0.9916   -4.0
 0.200  0.8862   -8.8   9.459  171.6  0.0064   82.1  0.9916   -4.1
 0.220  0.8842   -9.6   9.433  170.9  0.0064   82.5  0.9903   -4.5
 0.240  0.8824  -10.4   9.409  170.2  0.0064   83.0  0.9890   -4.9
 0.260  0.8805  -11.2   9.394  169.4  0.0071   83.2  0.9878   -5.3
 0.280  0.8786  -12.1   9.386  168.5  0.0084   83.3  0.9865   -5.7
 0.300  0.8769  -12.9   9.381  167.7  0.0098   83.3  0.9853   -6.1
 0.320  0.8754  -13.7   9.354  166.9  0.0103   83.1  0.9847   -6.5
 0.340  0.8742  -14.6   9.329  166.2  0.0108   82.9  0.9842   -6.8
 0.360  0.8726  -15.5   9.312  165.4  0.0113   82.5  0.9835   -7.2
 0.380  0.8709  -16.4   9.305  164.6  0.0118   81.8  0.9828   -7.7
 0.400  0.8693  -17.3   9.299  163.8  0.0123   81.2  0.9822   -8.1
 0.420  0.8677  -18.1   9.274  163.0  0.0129   81.7  0.9806   -8.5
 0.440  0.8663  -18.9   9.250  162.3  0.0134   82.1  0.9791   -8.9
 0.450  0.8656  -19.3   9.239  161.9  0.0137   82.3  0.9784   -9.1
 0.460  0.8644  -19.7   9.228  161.5  0.0141   81.2  0.9777   -9.3
 0.480  0.8620  -20.6   9.207  160.7  0.0149   79.1  0.9762   -9.7
 0.500  0.8599  -21.4   9.188  159.9  0.0158   77.3  0.9748  -10.1
 0.520  0.8566  -22.2   9.158  159.1  0.0163   77.5  0.9729  -10.5
 0.540  0.8534  -23.1   9.129  158.3  0.0167   77.8  0.9710  -10.9
 0.560  0.8505  -23.9   9.103  157.5  0.0172   78.0  0.9692  -11.3
 0.580  0.8477  -24.7   9.078  156.6  0.0176   78.2  0.9674  -11.7
 0.600  0.8451  -25.6   9.055  155.8  0.0181   78.4  0.9657  -12.1
 0.620  0.8420  -26.4   9.027  155.1  0.0187   78.0  0.9636  -12.5
 0.640  0.8390  -27.2   9.001  154.3  0.0193   77.6  0.9615  -12.8
 0.660  0.8362  -28.0   8.977  153.6  0.0198   77.2  0.9595  -13.2
 0.680  0.8336  -28.8   8.954  152.8  0.0204   76.8  0.9575  -13.5
 0.700  0.8311  -29.6   8.932  152.1  0.0210   76.5  0.9555  -13.9
 0.720  0.8272  -30.4   8.891  151.3  0.0215   76.3  0.9532  -14.3
 0.740  0.8236  -31.3   8.851  150.6  0.0221   76.1  0.9509  -14.7
 0.760  0.8201  -32.1   8.814  149.8  0.0226   75.9  0.9487  -15.0
 0.780  0.8167  -32.9   8.778  149.0  0.0232   75.8  0.9465  -15.4
 0.800  0.8136  -33.8   8.743  148.2  0.0237   75.6  0.9443  -15.8
 0.820  0.8097  -34.6   8.711  147.5  0.0242   75.2  0.9420  -16.2
 0.840  0.8059  -35.3   8.680  146.7  0.0248   74.8  0.9397  -16.5
 0.860  0.8023  -36.1   8.651  146.0  0.0253   74.4  0.9375  -16.9
 0.880  0.7988  -36.9   8.623  145.2  0.0259   74.0  0.9353  -17.2
 0.900  0.7955  -37.7   8.597  144.5  0.0264   73.7  0.9331  -17.6
 0.920  0.7914  -38.4   8.550  143.8  0.0269   73.4  0.9300  -18.0
 0.940  0.7874  -39.2   8.504  143.1  0.0274   73.2  0.9269  -18.3
 0.960  0.7836  -40.0   8.459  142.4  0.0280   73.0  0.9239  -18.7
 0.980  0.7799  -40.7   8.416  141.6  0.0285   72.7  0.9209  -19.0
 1.000  0.7764  -41.5   8.374  140.9  0.0290   72.5  0.9179  -19.4
 1.020  0.7721  -42.2   8.332  140.2  0.0295   72.1  0.9152  -19.7
 1.040  0.7679  -43.0   8.292  139.6  0.0300   71.6  0.9125  -20.1
 1.060  0.7638  -43.7   8.252  138.9  0.0306   71.2  0.9098  -20.4
 1.080  0.7598  -44.4   8.214  138.2  0.0311   70.8  0.9072  -20.8
 1.100  0.7560  -45.2   8.177  137.5  0.0316   70.4  0.9046  -21.1
 1.120  0.7517  -45.9   8.135  136.8  0.0321   70.0  0.9016  -21.4
 1.140  0.7476  -46.7   8.095  136.2  0.0325   69.5  0.8985  -21.7
 1.160  0.7435  -47.5   8.055  135.5  0.0330   69.1  0.8955  -21.9
 1.180  0.7397  -48.2   8.017  134.8  0.0334   68.7  0.8926  -22.2
 1.200  0.7359  -49.0   7.980  134.1  0.0339   68.3  0.8896  -22.5
 1.220  0.7312  -49.7   7.937  133.4  0.0344   68.1  0.8865  -22.8
 1.240  0.7267  -50.4   7.895  132.7  0.0349   67.9  0.8835  -23.2
 1.260  0.7222  -51.1   7.855  132.0  0.0354   67.7  0.8804  -23.5
 1.280  0.7179  -51.9   7.815  131.3  0.0359   67.6  0.8775  -23.9
 1.300  0.7137  -52.6   7.777  130.6  0.0364   67.4  0.8745  -24.2
 1.320  0.7095  -53.3   7.730  130.0  0.0368   67.3  0.8714  -24.5
 1.340  0.7054  -54.0   7.684  129.4  0.0372   67.2  0.8682  -24.8
 1.360  0.7014  -54.7   7.639  128.8  0.0375   67.1  0.8651  -25.0
 1.380  0.6976  -55.4   7.595  128.2  0.0379   67.0  0.8621  -25.3
 1.400  0.6938  -56.1   7.552  127.6  0.0383   66.9  0.8590  -25.6
 1.420  0.6892  -56.8   7.509  127.0  0.0388   66.4  0.8560  -25.9
 1.440  0.6848  -57.5   7.467  126.5  0.0393   65.9  0.8529  -26.1
 1.460  0.6804  -58.2   7.426  125.9  0.0399   65.4  0.8499  -26.4
 1.480  0.6762  -58.9   7.385  125.3  0.0404   64.9  0.8470  -26.6
 1.500  0.6720  -59.6   7.345  124.7  0.0409   64.4  0.8440  -26.9
 1.520  0.6678  -60.3   7.303  124.1  0.0412   64.3  0.8408  -27.2
 1.540  0.6636  -60.9   7.262  123.5  0.0415   64.2  0.8377  -27.4
 1.560  0.6595  -61.6   7.221  122.9  0.0417   64.2  0.8346  -27.7
 1.580  0.6556  -62.3   7.182  122.3  0.0420   64.1  0.8315  -27.9
 1.600  0.6517  -63.0   7.143  121.7  0.0423   64.0  0.8284  -28.2
 1.620  0.6478  -63.6   7.095  121.2  0.0428   63.6  0.8253  -28.5
 1.640  0.6440  -64.2   7.047  120.6  0.0433   63.3  0.8223  -28.7
 1.660  0.6403  -64.8   7.000  120.0  0.0438   63.0  0.8193  -29.0
 1.680  0.6366  -65.5   6.954  119.5  0.0443   62.6  0.8163  -29.2
 1.700  0.6330  -66.1   6.908  118.9  0.0448   62.3  0.8133  -29.5
 1.720  0.6287  -66.7   6.866  118.4  0.0452   62.1  0.8101  -29.8
 1.740  0.6246  -67.4   6.824  117.8  0.0455   61.8  0.8069  -30.0
 1.760  0.6205  -68.1   6.783  117.3  0.0459   61.6  0.8038  -30.3
 1.780  0.6164  -68.7   6.742  116.8  0.0462   61.4  0.8006  -30.5
 1.800  0.6125  -69.4   6.702  116.2  0.0466   61.2  0.7975  -30.8
 1.820  0.6087  -70.0   6.663  115.7  0.0469   60.9  0.7943  -31.1
 1.840  0.6050  -70.6   6.625  115.3  0.0472   60.7  0.7912  -31.3
 1.860  0.6014  -71.2   6.588  114.8  0.0475   60.4  0.7881  -31.6
 1.880  0.5978  -71.8   6.551  114.3  0.0478   60.2  0.7850  -31.8
 1.900  0.5943  -72.4   6.514  113.8  0.0481   59.9  0.7819  -32.1
 1.920  0.5906  -73.1   6.478  113.3  0.0485   59.7  0.7796  -32.4
 1.940  0.5870  -73.8   6.443  112.7  0.0488   59.5  0.7773  -32.7
 1.960  0.5834  -74.5   6.409  112.2  0.0492   59.3  0.7751  -32.9
 1.980  0.5800  -75.2   6.375  111.7  0.0495   59.1  0.7728  -33.2
 2.000  0.5766  -75.9   6.342  111.1  0.0499   58.9  0.7706  -33.5
 2.020  0.5728  -76.5   6.301  110.6  0.0500   58.8  0.7678  -33.7
 2.040  0.5691  -77.1   6.261  110.1  0.0502   58.7  0.7650  -33.9
 2.060  0.5655  -77.7   6.221  109.6  0.0503   58.6  0.7623  -34.2
 2.080  0.5619  -78.3   6.181  109.1  0.0505   58.5  0.7595  -34.4
 2.100  0.5584  -78.9   6.142  108.6  0.0506   58.4  0.7568  -34.6
 2.120  0.5544  -79.5   6.105  108.1  0.0511   58.2  0.7542  -34.8
 2.140  0.5504  -80.1   6.069  107.7  0.0516   57.9  0.7516  -35.1
 2.160  0.5465  -80.7   6.033  107.2  0.0521   57.7  0.7490  -35.3
 2.180  0.5427  -81.3   5.997  106.7  0.0526   57.5  0.7465  -35.6
 2.200  0.5389  -81.9   5.962  106.2  0.0531   57.3  0.7439  -35.8
 2.220  0.5357  -82.4   5.924  105.8  0.0534   57.2  0.7411  -36.0
 2.240  0.5325  -83.0   5.887  105.3  0.0537   57.1  0.7384  -36.2
 2.260  0.5294  -83.6   5.850  104.9  0.0540   57.0  0.7357  -36.4
 2.280  0.5264  -84.1   5.813  104.5  0.0543   56.9  0.7329  -36.6
 2.300  0.5234  -84.7   5.777  104.0  0.0546   56.8  0.7302  -36.8
 2.320  0.5201  -85.2   5.743  103.6  0.0548   56.5  0.7279  -37.0
 2.340  0.5169  -85.8   5.708  103.2  0.0550   56.2  0.7256  -37.2
 2.360  0.5137  -86.3   5.675  102.8  0.0553   55.8  0.7234  -37.5
 2.380  0.5105  -86.8   5.641  102.3  0.0555   55.5  0.7211  -37.7
 2.400  0.5074  -87.4   5.608  101.9  0.0557   55.2  0.7189  -37.9
 2.420  0.5046  -87.9   5.572  101.5  0.0559   55.1  0.7165  -38.1
 2.440  0.5017  -88.5   5.536  101.1  0.0561   55.0  0.7140  -38.3
 2.460  0.4990  -89.0   5.501  100.7  0.0564   54.9  0.7116  -38.4
 2.480  0.4963  -89.5   5.466  100.2  0.0566   54.8  0.7092  -38.6
 2.500  0.4936  -90.1   5.431   99.8  0.0568   54.7  0.7068  -38.8
 2.520  0.4904  -90.6   5.398   99.4  0.0570   54.5  0.7046  -39.0
 2.540  0.4873  -91.1   5.365   99.1  0.0572   54.3  0.7024  -39.2
 2.560  0.4842  -91.6   5.332   98.7  0.0574   54.0  0.7002  -39.3
 2.580  0.4812  -92.1   5.299   98.3  0.0576   53.8  0.6980  -39.5
 2.600  0.4782  -92.6   5.267   97.9  0.0578   53.6  0.6958  -39.7
 2.620  0.4753  -93.1   5.237   97.5  0.0581   53.5  0.6938  -39.9
 2.640  0.4725  -93.7   5.208   97.1  0.0585   53.4  0.6918  -40.0
 2.660  0.4697  -94.3   5.179   96.7  0.0588   53.3  0.6898  -40.2
 2.680  0.4670  -94.8   5.150   96.3  0.0592   53.2  0.6879  -40.3
 2.700  0.4643  -95.4   5.121   95.9  0.0595   53.1  0.6859  -40.5
 2.720  0.4617  -95.8   5.093   95.5  0.0597   53.0  0.6839  -40.7
 2.740  0.4591  -96.3   5.064   95.2  0.0599   52.9  0.6820  -40.9
 2.760  0.4565  -96.8   5.036   94.8  0.0600   52.9  0.6801  -41.0
 2.780  0.4539  -97.2   5.009   94.4  0.0602   52.8  0.6781  -41.2
 2.800  0.4514  -97.7   4.981   94.0  0.0604   52.7  0.6762  -41.4
 2.820  0.4488  -98.2   4.952   93.7  0.0607   52.6  0.6743  -41.5
 2.840  0.4462  -98.7   4.924   93.3  0.0610   52.6  0.6724  -41.7
 2.860  0.4437  -99.2   4.895   93.0  0.0614   52.5  0.6705  -41.8
 2.880  0.4412  -99.7   4.867   92.6  0.0617   52.5  0.6686  -42.0
 2.900  0.4387 -100.2   4.839   92.3  0.0620   52.4  0.6667  -42.1
 2.920  0.4361 -100.7   4.813   91.9  0.0621   52.4  0.6650  -42.3
 2.940  0.4336 -101.2   4.787   91.6  0.0622   52.4  0.6633  -42.5
 2.960  0.4312 -101.7   4.761   91.2  0.0624   52.3  0.6616  -42.6
 2.980  0.4287 -102.3   4.735   90.9  0.0625   52.3  0.6600  -42.8
 3.000  0.4263 -102.8   4.710   90.5  0.0626   52.3  0.6583  -43.0
 3.100  0.4156 -105.1   4.578   88.8  0.0640   51.1  0.6495  -43.7
 3.200  0.4027 -107.7   4.454   87.1  0.0649   50.6  0.6419  -44.5
 3.300  0.3949 -109.9   4.344   85.6  0.0665   50.4  0.6342  -45.2
 3.400  0.3825 -112.4   4.230   84.0  0.0673   50.1  0.6282  -45.9
 3.500  0.3737 -114.6   4.132   82.6  0.0687   49.4  0.6220  -46.4
 3.600  0.3640 -116.8   4.022   81.1  0.0692   49.6  0.6154  -47.0
 3.700  0.3555 -119.3   3.926   79.7  0.0704   49.1  0.6096  -47.5
 3.800  0.3473 -121.5   3.830   78.3  0.0716   48.7  0.6044  -48.1
 3.900  0.3408 -123.9   3.749   76.9  0.0725   48.5  0.5986  -48.7
 4.000  0.3318 -126.1   3.668   75.6  0.0737   48.8  0.5942  -49.2
 4.100  0.3258 -128.5   3.584   74.3  0.0748   47.9  0.5876  -49.6
 4.200  0.3178 -130.8   3.507   73.0  0.0758   47.6  0.5825  -50.1
 4.300  0.3137 -133.3   3.438   71.7  0.0771   47.3  0.5775  -50.6
 4.400  0.3063 -135.7   3.370   70.5  0.0774   47.0  0.5734  -51.0
 4.500  0.3028 -138.0   3.298   69.3  0.0784   47.3  0.5697  -51.4
 4.600  0.2955 -140.5   3.230   68.0  0.0797   46.8  0.5652  -51.9
 4.700  0.2934 -142.6   3.171   66.9  0.0809   46.7  0.5587  -52.3
 4.800  0.2884 -145.2   3.112   65.7  0.0820   46.3  0.5552  -52.8
 4.900  0.2859 -147.3   3.056   64.6  0.0831   46.0  0.5510  -53.2
 5.000  0.2814 -149.7   3.000   63.3  0.0844   46.1  0.5469  -53.6
 5.100  0.2786 -151.8   2.945   62.2  0.0852   45.8  0.5427  -54.0
 5.200  0.2754 -154.2   2.895   61.0  0.0866   45.9  0.5379  -54.5
 5.300  0.2725 -156.5   2.844   59.9  0.0877   45.8  0.5337  -55.0
 5.400  0.2698 -158.3   2.798   58.8  0.0890   45.5  0.5310  -55.4
 5.500  0.2675 -160.7   2.753   57.7  0.0898   45.4  0.5272  -55.7
 5.600  0.2650 -162.7   2.705   56.6  0.0908   44.9  0.5236  -56.1
 5.700  0.2628 -165.2   2.661   55.4  0.0924   44.7  0.5190  -56.6
 5.800  0.2619 -167.0   2.621   54.4  0.0930   44.4  0.5158  -56.9
 5.900  0.2587 -169.3   2.580   53.4  0.0945   44.5  0.5129  -57.3
 6.000  0.2571 -171.2   2.539   52.3  0.0951   44.3  0.5100  -57.6
 6.100  0.2549 -173.4   2.497   51.2  0.0966   44.0  0.5058  -57.9
 6.200  0.2537 -175.6   2.459   50.2  0.0978   43.9  0.5025  -58.4
 6.300  0.2517 -178.0   2.426   49.2  0.0988   43.7  0.4991  -58.7
 6.400  0.2491 -179.9   2.391   48.1  0.1002   43.9  0.4962  -59.1
 6.500  0.2480  177.2   2.353   47.1  0.1013   43.4  0.4929  -59.5
 6.600  0.2468  174.9   2.320   46.1  0.1027   43.0  0.4891  -59.7
 6.800  0.2444  169.6   2.256   44.1  0.1052   42.9  0.4821  -60.2
 7.000  0.2432  164.4   2.194   42.1  0.1071   42.8  0.4747  -60.5
 7.200  0.2438  159.0   2.136   40.2  0.1098   42.6  0.4654  -61.1
 7.400  0.2496  154.2   2.082   38.5  0.1126   42.2  0.4566  -61.6
 7.600  0.2561  149.5   2.031   36.7  0.1155   42.3  0.4459  -62.0
 7.800  0.2644  145.3   1.986   34.9  0.1195   41.8  0.4343  -62.7
 8.000  0.2748  141.3   1.941   33.1  0.1226   41.3  0.4207  -63.4
 8.200  0.2887  137.9   1.902   31.4  0.1261   40.7  0.4036  -64.3
 8.400  0.3035  134.8   1.866   29.6  0.1296   40.1  0.3866  -65.3
 8.600  0.3184  132.1   1.830   27.8  0.1331   39.5  0.3676  -66.4
 8.800  0.3333  129.7   1.796   26.0  0.1365   38.8  0.3466  -67.8
 9.000  0.3488  127.5   1.763   24.1  0.1400   38.2  0.3258  -69.3
 9.200  0.3622  125.5   1.733   22.3  0.1437   37.4  0.3027  -71.4
 9.400  0.3760  123.7   1.704   20.5  0.1474   36.7  0.2801  -73.8
 9.600  0.3889  121.9   1.676   18.7  0.1513   35.8  0.2569  -76.9
 9.800  0.4010  120.1   1.650   16.8  0.1553   34.9  0.2334  -80.8
10.000  0.4135  118.5   1.626   14.8  0.1593   34.0  0.2113  -85.5
10.200  0.4243  116.5   1.598   12.9  0.1630   32.7  0.1887  -91.9
10.400  0.4357  114.5   1.572   10.9  0.1667   31.5  0.1691  -99.8
10.600  0.4464  112.4   1.545    8.8  0.1701   30.3  0.1544 -110.0
10.800  0.4567  110.0   1.516    6.7  0.1731   29.0  0.1466 -122.2
11.000  0.4677  107.8   1.489    4.4  0.1762   27.8  0.1460 -135.1
11.200  0.4760  105.5   1.452    2.5  0.1779   26.6  0.1572 -145.9
11.400  0.4851  103.4   1.417    0.4  0.1797   25.5  0.1731 -154.9
11.600  0.4919  101.6   1.382   -1.3  0.1817   24.5  0.1947 -161.0
11.800  0.4963  100.1   1.346   -2.8  0.1841   23.8  0.2200 -164.8
12.000  0.5009   98.7   1.312   -4.4  0.1864   23.1  0.2459 -167.7
!
!  f       NFmin   Gammaopt  rn/50
! GHz       dB    MAG  ANG    -
 0.450      1.11  0.50    6   0.37
 0.900      1.12  0.47   14   0.41
 1.500      1.21  0.44   20   0.35
 1.900      1.25  0.42   27   0.35
 2.400      1.43  0.39   37   0.36
 3.000      1.50  0.37   47   0.33
 3.500      1.54  0.36   57   0.31
 4.500      1.72  0.30   73   0.26
 5.500      1.97  0.19   88   0.16
!
! (c) 2015  Infineon Technologies AG, Munich
