! Infineon Technologies  Discrete & RF Semiconductors
! BFP405
! VCE =  2.0 V,  IC =  4.0 mA
! Common Emitter S-Parameters:                            Jan 2016
# GHz  S  MA  R  50
!  f         S11            S21            S12            S22
! GHz     MAG   ANG      MAG   ANG      MAG   ANG      MAG   ANG
 0.010  0.8675    0.8  11.693 -177.6  0.0010  -62.2  0.9924    0.8
 0.015  0.8700   -0.2  11.639 -179.5  0.0003   -9.1  0.9914    0.3
 0.020  0.8728   -1.1  11.599  178.5  0.0008   81.4  0.9905   -0.2
 0.025  0.8712   -1.4  11.589  178.4  0.0010   85.5  0.9908   -0.3
 0.030  0.8695   -1.7  11.578  178.2  0.0011   88.3  0.9911   -0.5
 0.035  0.8680   -1.9  11.568  178.1  0.0013   90.5  0.9915   -0.6
 0.040  0.8664   -2.2  11.557  178.0  0.0015   92.1  0.9918   -0.7
 0.045  0.8648   -2.5  11.547  177.8  0.0016   93.4  0.9922   -0.9
 0.050  0.8633   -2.8  11.537  177.7  0.0018   94.5  0.9925   -1.0
 0.055  0.8632   -3.0  11.541  177.4  0.0019   93.4  0.9926   -1.1
 0.060  0.8632   -3.2  11.546  177.1  0.0021   92.5  0.9926   -1.3
 0.065  0.8632   -3.5  11.550  176.8  0.0022   91.7  0.9927   -1.4
 0.070  0.8631   -3.7  11.555  176.5  0.0024   91.0  0.9927   -1.6
 0.075  0.8631   -3.9  11.561  176.2  0.0025   90.4  0.9928   -1.7
 0.080  0.8631   -4.1  11.566  176.0  0.0027   89.9  0.9929   -1.8
 0.085  0.8632   -4.3  11.572  175.7  0.0028   89.4  0.9930   -2.0
 0.090  0.8632   -4.6  11.579  175.4  0.0030   89.0  0.9931   -2.1
 0.095  0.8632   -4.8  11.585  175.1  0.0031   88.6  0.9932   -2.3
 0.100  0.8633   -5.0  11.592  174.8  0.0033   88.2  0.9933   -2.4
 0.105  0.8632   -5.2  11.588  174.6  0.0035   87.9  0.9930   -2.5
 0.110  0.8630   -5.5  11.583  174.4  0.0037   87.6  0.9928   -2.7
 0.115  0.8629   -5.7  11.579  174.2  0.0038   87.4  0.9925   -2.8
 0.120  0.8628   -6.0  11.575  174.0  0.0040   87.2  0.9923   -2.9
 0.125  0.8628   -6.2  11.571  173.8  0.0042   87.0  0.9920   -3.0
 0.130  0.8627   -6.4  11.568  173.6  0.0044   86.8  0.9918   -3.2
 0.135  0.8627   -6.7  11.564  173.4  0.0046   86.6  0.9916   -3.3
 0.140  0.8626   -6.9  11.560  173.2  0.0047   86.5  0.9913   -3.4
 0.145  0.8626   -7.2  11.557  173.0  0.0049   86.3  0.9911   -3.6
 0.150  0.8626   -7.4  11.554  172.8  0.0051   86.2  0.9909   -3.7
 0.155  0.8621   -7.7  11.549  172.6  0.0053   86.1  0.9907   -3.8
 0.160  0.8617   -7.9  11.543  172.3  0.0055   85.9  0.9905   -4.0
 0.165  0.8612   -8.2  11.538  172.1  0.0056   85.8  0.9903   -4.1
 0.170  0.8608   -8.5  11.533  171.8  0.0058   85.7  0.9901   -4.2
 0.175  0.8604   -8.7  11.529  171.6  0.0060   85.6  0.9899   -4.3
 0.180  0.8600   -9.0  11.524  171.3  0.0062   85.5  0.9897   -4.5
 0.185  0.8597   -9.3  11.520  171.1  0.0064   85.4  0.9895   -4.6
 0.190  0.8593   -9.6  11.516  170.8  0.0065   85.4  0.9893   -4.7
 0.195  0.8590   -9.8  11.513  170.6  0.0067   85.3  0.9892   -4.9
 0.200  0.8587  -10.1  11.509  170.3  0.0069   85.2  0.9890   -5.0
 0.220  0.8576  -11.1  11.519  169.3  0.0076   84.6  0.9861   -5.5
 0.240  0.8567  -12.1  11.533  168.4  0.0083   84.1  0.9834   -6.0
 0.260  0.8557  -13.1  11.520  167.5  0.0089   83.7  0.9823   -6.5
 0.280  0.8544  -14.1  11.481  166.6  0.0096   83.3  0.9831   -7.0
 0.300  0.8534  -15.1  11.444  165.8  0.0103   83.0  0.9839   -7.5
 0.320  0.8509  -16.1  11.404  164.8  0.0109   82.4  0.9818   -8.0
 0.340  0.8486  -17.1  11.366  163.9  0.0116   81.8  0.9799   -8.5
 0.360  0.8466  -18.1  11.341  162.9  0.0123   81.3  0.9780   -9.0
 0.380  0.8447  -19.2  11.328  162.0  0.0130   80.8  0.9763   -9.5
 0.400  0.8431  -20.2  11.318  161.0  0.0137   80.3  0.9746  -10.0
 0.420  0.8399  -21.1  11.274  160.0  0.0143   79.7  0.9728  -10.5
 0.440  0.8370  -22.0  11.233  159.1  0.0150   79.2  0.9710  -11.0
 0.450  0.8356  -22.5  11.214  158.6  0.0153   78.9  0.9702  -11.2
 0.460  0.8344  -23.0  11.201  158.2  0.0156   78.6  0.9690  -11.4
 0.480  0.8320  -24.0  11.177  157.3  0.0163   78.2  0.9667  -11.9
 0.500  0.8300  -25.0  11.155  156.5  0.0169   77.7  0.9645  -12.4
 0.520  0.8263  -26.0  11.105  155.6  0.0176   77.2  0.9620  -12.9
 0.540  0.8228  -26.9  11.059  154.6  0.0182   76.7  0.9595  -13.4
 0.560  0.8196  -27.9  11.015  153.7  0.0189   76.2  0.9572  -13.8
 0.580  0.8166  -28.9  10.975  152.8  0.0195   75.8  0.9548  -14.3
 0.600  0.8138  -29.9  10.937  151.8  0.0202   75.4  0.9526  -14.8
 0.620  0.8101  -30.8  10.888  151.0  0.0208   74.9  0.9498  -15.3
 0.640  0.8067  -31.8  10.842  150.1  0.0214   74.4  0.9471  -15.7
 0.660  0.8035  -32.8  10.798  149.3  0.0220   73.9  0.9444  -16.2
 0.680  0.8005  -33.7  10.756  148.5  0.0226   73.4  0.9418  -16.6
 0.700  0.7977  -34.7  10.717  147.6  0.0232   73.0  0.9393  -17.1
 0.720  0.7932  -35.7  10.670  146.7  0.0238   72.5  0.9362  -17.5
 0.740  0.7889  -36.6  10.625  145.9  0.0244   72.0  0.9332  -18.0
 0.760  0.7849  -37.6  10.582  145.0  0.0250   71.5  0.9302  -18.4
 0.780  0.7811  -38.6  10.542  144.1  0.0256   71.0  0.9273  -18.9
 0.800  0.7775  -39.6  10.505  143.2  0.0262   70.6  0.9244  -19.3
 0.820  0.7731  -40.5  10.450  142.4  0.0268   70.1  0.9211  -19.7
 0.840  0.7689  -41.4  10.397  141.5  0.0274   69.7  0.9178  -20.2
 0.860  0.7649  -42.3  10.346  140.7  0.0279   69.3  0.9146  -20.6
 0.880  0.7610  -43.2  10.297  139.9  0.0285   68.9  0.9114  -21.1
 0.900  0.7574  -44.1  10.251  139.0  0.0291   68.5  0.9083  -21.5
 0.920  0.7527  -45.0  10.191  138.2  0.0296   68.0  0.9050  -21.9
 0.940  0.7482  -45.9  10.133  137.4  0.0302   67.6  0.9016  -22.3
 0.960  0.7439  -46.8  10.077  136.6  0.0307   67.1  0.8984  -22.7
 0.980  0.7397  -47.7  10.024  135.7  0.0313   66.7  0.8952  -23.1
 1.000  0.7358  -48.6   9.972  134.9  0.0318   66.3  0.8920  -23.5
 1.020  0.7311  -49.5   9.918  134.2  0.0323   65.9  0.8885  -23.9
 1.040  0.7265  -50.4   9.865  133.4  0.0328   65.5  0.8850  -24.3
 1.060  0.7222  -51.4   9.814  132.6  0.0334   65.1  0.8816  -24.7
 1.080  0.7180  -52.3   9.765  131.9  0.0339   64.7  0.8782  -25.1
 1.100  0.7141  -53.3   9.717  131.1  0.0344   64.3  0.8748  -25.5
 1.120  0.7091  -54.2   9.656  130.4  0.0349   63.9  0.8711  -25.9
 1.140  0.7042  -55.0   9.597  129.6  0.0354   63.5  0.8674  -26.3
 1.160  0.6996  -55.9   9.539  128.9  0.0359   63.1  0.8638  -26.6
 1.180  0.6950  -56.8   9.483  128.2  0.0364   62.8  0.8602  -27.0
 1.200  0.6907  -57.7   9.429  127.4  0.0369   62.4  0.8566  -27.4
 1.220  0.6859  -58.5   9.370  126.7  0.0374   62.0  0.8530  -27.8
 1.240  0.6812  -59.4   9.312  125.9  0.0378   61.6  0.8495  -28.1
 1.260  0.6767  -60.2   9.256  125.2  0.0383   61.2  0.8460  -28.5
 1.280  0.6724  -61.1   9.202  124.5  0.0387   60.9  0.8425  -28.8
 1.300  0.6682  -62.0   9.149  123.7  0.0392   60.5  0.8391  -29.2
 1.320  0.6635  -62.9   9.092  123.0  0.0397   60.1  0.8354  -29.6
 1.340  0.6589  -63.8   9.035  122.3  0.0401   59.8  0.8318  -29.9
 1.360  0.6545  -64.7   8.981  121.6  0.0406   59.5  0.8282  -30.3
 1.380  0.6503  -65.6   8.927  120.9  0.0410   59.1  0.8246  -30.6
 1.400  0.6462  -66.5   8.875  120.2  0.0415   58.8  0.8211  -31.0
 1.420  0.6416  -67.3   8.817  119.5  0.0419   58.5  0.8174  -31.3
 1.440  0.6371  -68.1   8.760  118.9  0.0423   58.1  0.8138  -31.6
 1.460  0.6328  -68.9   8.704  118.2  0.0428   57.8  0.8102  -32.0
 1.480  0.6286  -69.8   8.650  117.5  0.0432   57.5  0.8066  -32.3
 1.500  0.6245  -70.6   8.597  116.8  0.0436   57.2  0.8030  -32.6
 1.520  0.6199  -71.5   8.544  116.2  0.0440   56.9  0.7994  -32.9
 1.540  0.6153  -72.3   8.493  115.5  0.0444   56.5  0.7958  -33.2
 1.560  0.6110  -73.2   8.442  114.9  0.0448   56.2  0.7923  -33.6
 1.580  0.6068  -74.1   8.392  114.3  0.0452   55.9  0.7888  -33.9
 1.600  0.6027  -75.0   8.344  113.6  0.0456   55.6  0.7853  -34.2
 1.620  0.5984  -75.8   8.289  113.0  0.0460   55.3  0.7818  -34.5
 1.640  0.5941  -76.6   8.234  112.4  0.0464   54.9  0.7782  -34.8
 1.660  0.5900  -77.4   8.181  111.8  0.0467   54.6  0.7747  -35.1
 1.680  0.5860  -78.2   8.128  111.1  0.0471   54.3  0.7713  -35.4
 1.700  0.5821  -79.0   8.077  110.5  0.0475   54.0  0.7678  -35.7
 1.720  0.5777  -79.8   8.023  109.9  0.0479   53.7  0.7644  -36.0
 1.740  0.5735  -80.7   7.970  109.3  0.0483   53.4  0.7611  -36.3
 1.760  0.5694  -81.5   7.918  108.7  0.0486   53.1  0.7577  -36.5
 1.780  0.5654  -82.4   7.866  108.0  0.0490   52.8  0.7544  -36.8
 1.800  0.5615  -83.3   7.816  107.4  0.0494   52.5  0.7511  -37.1
 1.820  0.5576  -84.1   7.767  106.9  0.0497   52.2  0.7477  -37.4
 1.840  0.5539  -84.9   7.719  106.3  0.0501   52.0  0.7443  -37.6
 1.860  0.5502  -85.7   7.672  105.7  0.0504   51.7  0.7409  -37.9
 1.880  0.5467  -86.6   7.626  105.2  0.0508   51.5  0.7375  -38.1
 1.900  0.5433  -87.4   7.580  104.6  0.0511   51.2  0.7341  -38.4
 1.920  0.5394  -88.2   7.531  104.1  0.0515   50.9  0.7308  -38.7
 1.940  0.5355  -89.0   7.483  103.5  0.0518   50.7  0.7276  -39.0
 1.960  0.5318  -89.8   7.435  102.9  0.0522   50.4  0.7244  -39.2
 1.980  0.5282  -90.6   7.388  102.4  0.0525   50.2  0.7212  -39.5
 2.000  0.5247  -91.4   7.342  101.8  0.0529   49.9  0.7180  -39.8
 2.020  0.5209  -92.2   7.296  101.3  0.0532   49.6  0.7148  -40.0
 2.040  0.5173  -93.0   7.250  100.8  0.0535   49.4  0.7116  -40.3
 2.060  0.5137  -93.8   7.206  100.2  0.0538   49.2  0.7085  -40.5
 2.080  0.5102  -94.6   7.161   99.7  0.0541   48.9  0.7053  -40.7
 2.100  0.5069  -95.4   7.118   99.2  0.0544   48.7  0.7021  -41.0
 2.120  0.5036  -96.3   7.075   98.6  0.0547   48.4  0.6990  -41.2
 2.140  0.5005  -97.1   7.032   98.1  0.0551   48.2  0.6959  -41.5
 2.160  0.4974  -98.0   6.990   97.5  0.0554   48.0  0.6928  -41.7
 2.180  0.4945  -98.8   6.949   97.0  0.0557   47.7  0.6897  -42.0
 2.200  0.4917  -99.7   6.909   96.4  0.0560   47.5  0.6866  -42.2
 2.220  0.4883 -100.5   6.867   95.9  0.0563   47.3  0.6836  -42.4
 2.240  0.4849 -101.3   6.825   95.4  0.0566   47.0  0.6805  -42.7
 2.260  0.4816 -102.1   6.784   95.0  0.0569   46.8  0.6775  -42.9
 2.280  0.4785 -102.9   6.743   94.5  0.0572   46.6  0.6745  -43.1
 2.300  0.4754 -103.7   6.703   94.0  0.0575   46.3  0.6715  -43.4
 2.320  0.4724 -104.6   6.663   93.5  0.0578   46.1  0.6685  -43.6
 2.340  0.4696 -105.4   6.624   93.0  0.0582   45.9  0.6655  -43.9
 2.360  0.4668 -106.3   6.585   92.4  0.0585   45.6  0.6626  -44.1
 2.380  0.4641 -107.1   6.547   91.9  0.0588   45.4  0.6596  -44.4
 2.400  0.4616 -108.0   6.509   91.4  0.0591   45.2  0.6567  -44.6
 2.420  0.4586 -108.7   6.470   90.9  0.0594   45.0  0.6538  -44.8
 2.440  0.4558 -109.5   6.432   90.5  0.0597   44.8  0.6509  -45.0
 2.460  0.4529 -110.3   6.394   90.0  0.0599   44.6  0.6480  -45.2
 2.480  0.4502 -111.0   6.357   89.5  0.0602   44.4  0.6451  -45.4
 2.500  0.4476 -111.8   6.320   89.1  0.0605   44.2  0.6422  -45.6
 2.520  0.4450 -112.6   6.283   88.6  0.0608   44.0  0.6394  -45.8
 2.540  0.4426 -113.4   6.247   88.1  0.0611   43.8  0.6365  -46.1
 2.560  0.4402 -114.2   6.212   87.6  0.0613   43.6  0.6337  -46.3
 2.580  0.4379 -115.1   6.177   87.1  0.0616   43.4  0.6308  -46.5
 2.600  0.4357 -115.9   6.142   86.6  0.0619   43.2  0.6280  -46.7
 2.620  0.4330 -116.7   6.108   86.2  0.0622   43.0  0.6252  -46.9
 2.640  0.4305 -117.5   6.074   85.7  0.0625   42.8  0.6224  -47.1
 2.660  0.4280 -118.4   6.040   85.3  0.0627   42.6  0.6196  -47.3
 2.680  0.4256 -119.2   6.007   84.9  0.0630   42.4  0.6169  -47.6
 2.700  0.4233 -120.0   5.974   84.4  0.0633   42.2  0.6141  -47.8
 2.720  0.4211 -120.9   5.942   84.0  0.0636   42.0  0.6113  -48.0
 2.740  0.4190 -121.8   5.910   83.5  0.0639   41.8  0.6086  -48.2
 2.760  0.4170 -122.6   5.878   83.0  0.0641   41.6  0.6058  -48.4
 2.780  0.4151 -123.5   5.847   82.6  0.0644   41.4  0.6031  -48.7
 2.800  0.4133 -124.4   5.816   82.1  0.0647   41.2  0.6004  -48.9
 2.820  0.4109 -125.2   5.784   81.7  0.0650   41.0  0.5977  -49.1
 2.840  0.4086 -126.0   5.752   81.2  0.0652   40.8  0.5950  -49.3
 2.860  0.4064 -126.8   5.721   80.8  0.0655   40.6  0.5922  -49.5
 2.880  0.4043 -127.6   5.690   80.4  0.0658   40.4  0.5895  -49.7
 2.900  0.4022 -128.4   5.660   79.9  0.0660   40.2  0.5869  -49.9
 2.920  0.4002 -129.2   5.629   79.5  0.0663   40.0  0.5842  -50.1
 2.940  0.3984 -130.1   5.599   79.0  0.0666   39.9  0.5815  -50.3
 2.960  0.3966 -130.9   5.570   78.5  0.0669   39.7  0.5788  -50.6
 2.980  0.3948 -131.7   5.541   78.1  0.0671   39.5  0.5762  -50.8
 3.000  0.3932 -132.6   5.512   77.6  0.0674   39.3  0.5735  -51.0
 3.100  0.3817 -136.5   5.367   75.7  0.0686   38.4  0.5604  -51.9
 3.200  0.3720 -140.5   5.227   73.7  0.0698   37.5  0.5474  -52.8
 3.300  0.3643 -144.8   5.095   71.6  0.0710   36.6  0.5346  -53.8
 3.400  0.3587 -149.3   4.970   69.4  0.0722   35.8  0.5219  -54.8
 3.500  0.3553 -153.8   4.852   67.1  0.0734   35.0  0.5094  -55.9
 3.600  0.3477 -157.8   4.730   65.3  0.0745   34.2  0.4979  -56.8
 3.700  0.3419 -162.0   4.612   63.5  0.0756   33.3  0.4865  -57.8
 3.800  0.3380 -166.3   4.499   61.6  0.0767   32.5  0.4752  -58.8
 3.900  0.3360 -170.7   4.392   59.5  0.0778   31.8  0.4641  -59.8
 4.000  0.3360 -175.1   4.290   57.4  0.0789   31.0  0.4532  -60.9
 4.100  0.3341 -179.0   4.188   55.8  0.0799   30.2  0.4434  -61.8
 4.200  0.3338  177.1   4.090   54.1  0.0809   29.5  0.4337  -62.8
 4.300  0.3351  173.2   3.995   52.3  0.0819   28.7  0.4241  -63.8
 4.400  0.3379  169.3   3.904   50.4  0.0830   28.0  0.4146  -64.8
 4.500  0.3422  165.5   3.818   48.5  0.0840   27.3  0.4053  -65.9
 4.600  0.3450  162.4   3.732   47.0  0.0849   26.6  0.3970  -66.8
 4.700  0.3488  159.4   3.649   45.4  0.0859   25.9  0.3888  -67.7
 4.800  0.3535  156.4   3.569   43.7  0.0868   25.2  0.3808  -68.7
 4.900  0.3592  153.6   3.493   42.0  0.0878   24.6  0.3728  -69.7
 5.000  0.3657  150.8   3.419   40.2  0.0888   23.9  0.3650  -70.8
 5.100  0.3698  148.6   3.350   38.8  0.0897   23.2  0.3582  -71.6
 5.200  0.3745  146.4   3.283   37.4  0.0906   22.6  0.3515  -72.4
 5.300  0.3797  144.3   3.218   35.9  0.0915   21.9  0.3449  -73.2
 5.400  0.3854  142.3   3.155   34.4  0.0925   21.3  0.3383  -74.1
 5.500  0.3916  140.3   3.095   32.8  0.0934   20.7  0.3318  -75.0
 5.600  0.3943  138.6   3.040   31.5  0.0944   20.1  0.3256  -75.7
 5.700  0.3973  136.9   2.986   30.1  0.0954   19.5  0.3195  -76.4
 5.800  0.4007  135.2   2.934   28.7  0.0964   19.0  0.3134  -77.2
 5.900  0.4044  133.6   2.884   27.2  0.0974   18.4  0.3074  -78.0
 6.000  0.4084  132.0   2.836   25.7  0.0984   17.9  0.3014  -78.8
 6.100  0.4100  130.3   2.791   24.3  0.0995   17.3  0.2955  -79.6
 6.200  0.4120  128.5   2.747   23.0  0.1006   16.7  0.2897  -80.4
 6.300  0.4143  126.8   2.705   21.5  0.1017   16.1  0.2840  -81.3
 6.400  0.4170  125.2   2.665   20.0  0.1028   15.5  0.2783  -82.2
 6.500  0.4201  123.5   2.627   18.5  0.1039   14.9  0.2727  -83.1
 6.600  0.4206  121.5   2.584   17.1  0.1050   14.2  0.2670  -83.9
 6.800  0.4231  117.4   2.503   14.2  0.1073   12.9  0.2557  -85.5
 7.000  0.4278  113.4   2.429   11.1  0.1096   11.6  0.2446  -87.3
 7.200  0.4337  109.3   2.354    8.4  0.1119   10.1  0.2336  -89.0
 7.400  0.4418  105.2   2.285    5.5  0.1143    8.7  0.2229  -90.9
 7.600  0.4533  101.4   2.220    2.7  0.1165    7.1  0.2108  -92.9
 7.800  0.4680   97.8   2.156   -0.0  0.1186    5.4  0.1975  -95.0
 8.000  0.4845   94.4   2.098   -2.9  0.1208    3.8  0.1845  -97.5
 8.200  0.5029   91.5   2.035   -5.5  0.1222    2.2  0.1656  -99.7
 8.400  0.5225   88.9   1.976   -8.2  0.1237    0.6  0.1470 -102.5
 8.600  0.5418   86.5   1.922  -10.8  0.1252   -0.9  0.1264 -106.1
 8.800  0.5604   84.4   1.872  -13.4  0.1265   -2.4  0.1042 -111.1
 9.000  0.5798   82.5   1.826  -16.1  0.1280   -3.8  0.0832 -118.8
 9.200  0.5971   80.3   1.776  -18.9  0.1291   -5.3  0.0632 -131.9
 9.400  0.6152   78.2   1.730  -21.8  0.1303   -6.8  0.0492 -154.4
 9.600  0.6290   75.7   1.676  -24.5  0.1313   -8.1  0.0473  174.7
 9.800  0.6393   72.8   1.614  -27.2  0.1323   -9.4  0.0586  149.5
10.000  0.6512   70.0   1.555  -30.0  0.1333  -10.6  0.0771  134.4
!
!  f       NFmin   Gammaopt  rn/50
! GHz       dB    MAG  ANG    -
 0.900      1.10  0.42   13   0.34
 1.800      1.39  0.33   21   0.32
 2.400      1.55  0.28   31   0.32
 3.000      1.58  0.26   47   0.29
 4.000      1.76  0.14   70   0.25
 5.000      2.11  0.09  124   0.22
!
! (c) 2016  Infineon Technologies AG, Munich
