! Infineon Technologies  Discrete & RF Semiconductors
! BFP405F
! VCE =  1.5 V,  IC =  23 mA
! Common Emitter S-Parameters:                            Nov 2015
# GHz  S  MA  R  50
!  f         S11            S21            S12            S22
! GHz     MAG   ANG      MAG   ANG      MAG   ANG      MAG   ANG
 0.030  0.5181   -5.3  27.936  176.4  0.0010   83.1  0.9260   -0.6
 0.035  0.5184   -6.2  27.977  175.9  0.0017   97.5  0.9274   -0.9
 0.040  0.5189   -7.1  28.020  175.4  0.0024  103.4  0.9289   -1.1
 0.045  0.5150   -8.4  28.106  174.5  0.0023   88.2  0.9309   -1.4
 0.050  0.5114   -9.7  28.198  173.7  0.0023   72.4  0.9330   -1.7
 0.055  0.5132  -10.2  28.095  173.2  0.0027   65.5  0.9339   -2.0
 0.060  0.5150  -10.6  27.994  172.6  0.0032   60.5  0.9348   -2.3
 0.065  0.5133  -11.6  27.967  171.8  0.0036   84.5  0.9342   -2.7
 0.070  0.5118  -12.7  27.945  171.0  0.0044  101.7  0.9337   -3.1
 0.075  0.5111  -13.4  27.865  170.5  0.0026  103.8  0.9336   -3.1
 0.080  0.5105  -14.1  27.788  169.9  0.0009  114.4  0.9335   -3.1
 0.085  0.5107  -15.1  27.815  169.4  0.0018  109.9  0.9327   -3.7
 0.090  0.5111  -16.0  27.844  169.0  0.0028  108.5  0.9321   -4.4
 0.095  0.5105  -16.7  27.748  168.4  0.0037   72.9  0.9300   -4.6
 0.100  0.5099  -17.5  27.655  167.8  0.0054   55.4  0.9279   -4.9
 0.105  0.5094  -18.4  27.613  167.2  0.0054   63.0  0.9271   -5.2
 0.110  0.5091  -19.4  27.575  166.5  0.0055   70.5  0.9264   -5.5
 0.115  0.5074  -20.4  27.522  166.0  0.0044   86.2  0.9261   -5.7
 0.120  0.5058  -21.5  27.471  165.5  0.0038  109.2  0.9258   -6.0
 0.125  0.5046  -22.2  27.420  164.8  0.0040  105.6  0.9245   -6.3
 0.130  0.5035  -23.0  27.374  164.1  0.0043  102.5  0.9232   -6.7
 0.135  0.5028  -23.9  27.346  163.6  0.0037   87.1  0.9223   -6.9
 0.140  0.5022  -24.8  27.320  163.1  0.0035   68.1  0.9214   -7.1
 0.145  0.5002  -25.7  27.254  162.5  0.0039   69.5  0.9188   -7.4
 0.150  0.4984  -26.6  27.191  161.9  0.0043   70.7  0.9162   -7.7
 0.155  0.4966  -27.4  27.102  161.3  0.0044   72.4  0.9148   -7.9
 0.160  0.4950  -28.2  27.016  160.7  0.0046   73.9  0.9133   -8.2
 0.165  0.4934  -29.0  26.933  160.0  0.0048   75.4  0.9119   -8.4
 0.170  0.4919  -29.7  26.853  159.4  0.0049   76.7  0.9106   -8.7
 0.175  0.4906  -30.5  26.776  158.8  0.0051   78.0  0.9092   -8.9
 0.180  0.4893  -31.3  26.703  158.2  0.0052   79.2  0.9078   -9.2
 0.185  0.4881  -32.2  26.633  157.5  0.0054   80.3  0.9065   -9.4
 0.190  0.4870  -33.0  26.566  156.9  0.0056   81.4  0.9052   -9.7
 0.195  0.4860  -33.8  26.503  156.2  0.0057   82.4  0.9039   -9.9
 0.200  0.4851  -34.6  26.443  155.6  0.0059   83.3  0.9026  -10.2
 0.220  0.4791  -37.6  25.962  153.5  0.0066   81.6  0.8951  -11.1
 0.240  0.4743  -40.6  25.516  151.4  0.0073   80.2  0.8878  -12.0
 0.260  0.4682  -43.6  25.089  149.3  0.0082   77.4  0.8796  -12.8
 0.280  0.4605  -46.5  24.675  147.3  0.0092   73.7  0.8705  -13.5
 0.300  0.4540  -49.5  24.293  145.2  0.0102   70.8  0.8616  -14.2
 0.320  0.4469  -52.1  23.808  143.4  0.0104   71.5  0.8532  -14.9
 0.340  0.4408  -54.8  23.348  141.6  0.0105   72.1  0.8449  -15.6
 0.360  0.4346  -57.5  22.900  139.8  0.0111   72.1  0.8369  -16.3
 0.380  0.4284  -60.2  22.460  138.1  0.0122   71.6  0.8290  -16.8
 0.400  0.4231  -62.9  22.041  136.3  0.0133   71.2  0.8213  -17.4
 0.420  0.4171  -65.3  21.591  134.8  0.0134   70.6  0.8127  -17.9
 0.440  0.4119  -67.8  21.157  133.2  0.0135   70.0  0.8042  -18.4
 0.450  0.4096  -69.1  20.946  132.4  0.0136   69.7  0.8000  -18.7
 0.460  0.4060  -70.2  20.726  131.7  0.0137   69.6  0.7958  -18.9
 0.480  0.3994  -72.4  20.295  130.3  0.0139   69.5  0.7875  -19.4
 0.500  0.3933  -74.7  19.877  128.8  0.0141   69.3  0.7793  -19.9
 0.520  0.3872  -76.7  19.472  127.6  0.0145   68.9  0.7721  -20.2
 0.540  0.3815  -78.8  19.076  126.4  0.0149   68.6  0.7650  -20.5
 0.560  0.3764  -81.0  18.688  125.2  0.0153   68.3  0.7579  -20.8
 0.580  0.3719  -83.2  18.310  123.9  0.0157   68.0  0.7508  -21.2
 0.600  0.3679  -85.5  17.942  122.5  0.0161   67.7  0.7437  -21.5
 0.620  0.3630  -87.2  17.600  121.5  0.0165   67.2  0.7376  -21.8
 0.640  0.3584  -88.9  17.263  120.5  0.0170   66.7  0.7315  -22.0
 0.660  0.3541  -90.7  16.932  119.4  0.0174   66.3  0.7254  -22.3
 0.680  0.3502  -92.5  16.607  118.3  0.0179   65.8  0.7193  -22.6
 0.700  0.3466  -94.4  16.288  117.2  0.0183   65.4  0.7133  -22.9
 0.720  0.3427  -96.1  15.973  116.3  0.0186   65.7  0.7079  -23.1
 0.740  0.3391  -97.9  15.662  115.4  0.0189   66.0  0.7025  -23.3
 0.760  0.3358  -99.6  15.355  114.5  0.0193   66.3  0.6971  -23.5
 0.780  0.3329 -101.5  15.052  113.5  0.0196   66.6  0.6918  -23.8
 0.800  0.3303 -103.3  14.754  112.5  0.0199   66.9  0.6864  -24.0
 0.820  0.3268 -104.7  14.501  111.7  0.0203   66.7  0.6817  -24.2
 0.840  0.3235 -106.2  14.250  110.9  0.0207   66.6  0.6771  -24.4
 0.860  0.3204 -107.7  14.002  110.1  0.0210   66.4  0.6724  -24.6
 0.880  0.3175 -109.2  13.758  109.3  0.0214   66.2  0.6677  -24.8
 0.900  0.3149 -110.7  13.516  108.4  0.0218   66.1  0.6631  -25.0
 0.920  0.3127 -112.0  13.289  107.7  0.0220   66.2  0.6586  -25.2
 0.940  0.3107 -113.4  13.063  107.1  0.0222   66.3  0.6541  -25.4
 0.960  0.3089 -114.7  12.840  106.4  0.0225   66.4  0.6496  -25.6
 0.980  0.3073 -116.1  12.618  105.6  0.0227   66.5  0.6451  -25.8
 1.000  0.3058 -117.5  12.399  104.9  0.0229   66.6  0.6406  -26.0
 1.020  0.3036 -118.7  12.203  104.3  0.0232   66.4  0.6371  -26.1
 1.040  0.3016 -120.0  12.009  103.7  0.0235   66.1  0.6337  -26.3
 1.060  0.2996 -121.3  11.816  103.0  0.0239   65.9  0.6302  -26.4
 1.080  0.2979 -122.6  11.624  102.4  0.0242   65.7  0.6268  -26.6
 1.100  0.2963 -123.9  11.434  101.7  0.0245   65.5  0.6233  -26.7
 1.120  0.2950 -125.1  11.265  101.2  0.0248   65.6  0.6200  -26.8
 1.140  0.2939 -126.3  11.097  100.6  0.0252   65.7  0.6167  -27.0
 1.160  0.2929 -127.5  10.930  100.0  0.0255   65.7  0.6134  -27.1
 1.180  0.2920 -128.7  10.764   99.4  0.0259   65.8  0.6101  -27.3
 1.200  0.2912 -129.9  10.599   98.8  0.0262   65.9  0.6068  -27.4
 1.220  0.2898 -131.0  10.449   98.3  0.0265   66.0  0.6036  -27.5
 1.240  0.2884 -132.0  10.301   97.8  0.0268   66.2  0.6003  -27.7
 1.260  0.2872 -133.1  10.153   97.2  0.0271   66.3  0.5971  -27.8
 1.280  0.2860 -134.2  10.006   96.7  0.0274   66.5  0.5939  -28.0
 1.300  0.2850 -135.3   9.860   96.1  0.0277   66.6  0.5907  -28.1
 1.320  0.2845 -136.2   9.728   95.7  0.0280   66.6  0.5880  -28.2
 1.340  0.2841 -137.2   9.597   95.2  0.0283   66.7  0.5853  -28.4
 1.360  0.2838 -138.1   9.466   94.8  0.0287   66.7  0.5826  -28.5
 1.380  0.2835 -139.1   9.336   94.3  0.0290   66.8  0.5799  -28.7
 1.400  0.2833 -140.0   9.207   93.8  0.0293   66.8  0.5772  -28.8
 1.420  0.2825 -140.9   9.091   93.4  0.0296   66.9  0.5747  -28.9
 1.440  0.2818 -141.8   8.975   93.0  0.0299   67.0  0.5722  -29.0
 1.460  0.2812 -142.7   8.860   92.5  0.0303   67.2  0.5696  -29.2
 1.480  0.2806 -143.7   8.745   92.1  0.0306   67.3  0.5671  -29.3
 1.500  0.2801 -144.6   8.631   91.6  0.0309   67.4  0.5646  -29.4
 1.520  0.2800 -145.4   8.529   91.2  0.0313   67.2  0.5623  -29.5
 1.540  0.2800 -146.3   8.426   90.8  0.0316   67.0  0.5600  -29.7
 1.560  0.2800 -147.1   8.325   90.4  0.0320   66.8  0.5576  -29.8
 1.580  0.2801 -148.0   8.224   89.9  0.0323   66.6  0.5553  -30.0
 1.600  0.2803 -148.8   8.123   89.5  0.0327   66.4  0.5530  -30.1
 1.620  0.2799 -149.5   8.027   89.1  0.0331   66.4  0.5507  -30.2
 1.640  0.2795 -150.2   7.931   88.8  0.0335   66.4  0.5483  -30.3
 1.660  0.2792 -150.8   7.835   88.4  0.0338   66.5  0.5460  -30.5
 1.680  0.2789 -151.5   7.740   88.0  0.0342   66.5  0.5436  -30.6
 1.700  0.2787 -152.2   7.645   87.6  0.0346   66.5  0.5413  -30.7
 1.720  0.2787 -153.0   7.563   87.2  0.0348   66.6  0.5390  -30.9
 1.740  0.2787 -153.8   7.481   86.9  0.0350   66.7  0.5367  -31.0
 1.760  0.2787 -154.6   7.399   86.5  0.0352   66.8  0.5344  -31.2
 1.780  0.2788 -155.4   7.318   86.1  0.0354   66.9  0.5321  -31.3
 1.800  0.2790 -156.2   7.237   85.7  0.0356   67.0  0.5298  -31.5
 1.820  0.2788 -156.8   7.162   85.4  0.0359   67.0  0.5277  -31.7
 1.840  0.2787 -157.4   7.088   85.1  0.0363   67.0  0.5256  -31.8
 1.860  0.2786 -157.9   7.013   84.8  0.0366   66.9  0.5235  -32.0
 1.880  0.2785 -158.5   6.939   84.4  0.0370   66.9  0.5214  -32.1
 1.900  0.2785 -159.1   6.865   84.1  0.0373   66.9  0.5193  -32.3
 1.920  0.2791 -159.8   6.799   83.8  0.0377   67.0  0.5177  -32.5
 1.940  0.2797 -160.4   6.733   83.4  0.0381   67.1  0.5161  -32.7
 1.960  0.2804 -161.1   6.667   83.1  0.0385   67.1  0.5145  -33.0
 1.980  0.2811 -161.7   6.602   82.8  0.0389   67.2  0.5129  -33.2
 2.000  0.2819 -162.4   6.537   82.4  0.0393   67.3  0.5113  -33.4
 2.020  0.2819 -163.0   6.473   82.1  0.0397   67.4  0.5097  -33.5
 2.040  0.2819 -163.6   6.409   81.7  0.0401   67.4  0.5081  -33.7
 2.060  0.2820 -164.2   6.345   81.4  0.0405   67.5  0.5064  -33.8
 2.080  0.2821 -164.8   6.281   81.1  0.0409   67.5  0.5048  -34.0
 2.100  0.2822 -165.4   6.218   80.7  0.0413   67.6  0.5032  -34.1
 2.120  0.2824 -166.0   6.160   80.4  0.0416   67.5  0.5015  -34.3
 2.140  0.2827 -166.6   6.101   80.1  0.0418   67.5  0.4997  -34.5
 2.160  0.2829 -167.3   6.043   79.8  0.0421   67.4  0.4980  -34.6
 2.180  0.2833 -167.9   5.986   79.4  0.0423   67.4  0.4963  -34.8
 2.200  0.2836 -168.5   5.928   79.1  0.0426   67.3  0.4946  -35.0
 2.220  0.2839 -169.0   5.875   78.8  0.0429   67.2  0.4931  -35.1
 2.240  0.2842 -169.4   5.823   78.6  0.0432   67.1  0.4916  -35.3
 2.260  0.2845 -169.9   5.770   78.3  0.0434   67.0  0.4900  -35.4
 2.280  0.2848 -170.3   5.718   78.0  0.0437   66.9  0.4885  -35.6
 2.300  0.2852 -170.8   5.666   77.7  0.0440   66.8  0.4870  -35.7
 2.320  0.2851 -171.3   5.619   77.4  0.0443   66.8  0.4857  -35.9
 2.340  0.2849 -171.8   5.572   77.2  0.0446   66.8  0.4843  -36.0
 2.360  0.2848 -172.2   5.525   76.9  0.0450   66.7  0.4830  -36.2
 2.380  0.2848 -172.7   5.478   76.6  0.0453   66.7  0.4816  -36.3
 2.400  0.2847 -173.2   5.431   76.3  0.0456   66.7  0.4803  -36.5
 2.420  0.2849 -173.7   5.385   76.0  0.0460   66.6  0.4792  -36.6
 2.440  0.2851 -174.1   5.339   75.8  0.0464   66.6  0.4781  -36.7
 2.460  0.2853 -174.6   5.294   75.5  0.0468   66.5  0.4770  -36.9
 2.480  0.2855 -175.0   5.248   75.2  0.0472   66.5  0.4759  -37.0
 2.500  0.2858 -175.5   5.203   74.9  0.0476   66.4  0.4748  -37.1
 2.520  0.2859 -175.9   5.161   74.7  0.0479   66.4  0.4736  -37.3
 2.540  0.2860 -176.3   5.119   74.4  0.0483   66.5  0.4725  -37.4
 2.560  0.2861 -176.7   5.077   74.2  0.0486   66.5  0.4713  -37.6
 2.580  0.2863 -177.1   5.036   73.9  0.0490   66.6  0.4702  -37.7
 2.600  0.2864 -177.5   4.994   73.7  0.0493   66.6  0.4690  -37.9
 2.620  0.2866 -177.9   4.956   73.4  0.0497   66.6  0.4679  -38.0
 2.640  0.2869 -178.3   4.918   73.2  0.0501   66.7  0.4667  -38.1
 2.660  0.2872 -178.8   4.880   72.9  0.0505   66.7  0.4656  -38.3
 2.680  0.2875 -179.2   4.843   72.6  0.0509   66.8  0.4644  -38.4
 2.700  0.2878 -179.6   4.805   72.3  0.0513   66.8  0.4633  -38.5
 2.720  0.2878  180.0   4.771   72.1  0.0517   66.6  0.4625  -38.7
 2.740  0.2879  179.5   4.737   71.8  0.0521   66.4  0.4617  -38.8
 2.760  0.2880  179.1   4.703   71.6  0.0525   66.3  0.4609  -39.0
 2.780  0.2881  178.6   4.670   71.3  0.0529   66.1  0.4601  -39.1
 2.800  0.2882  178.2   4.636   71.1  0.0533   65.9  0.4593  -39.3
 2.820  0.2885  177.8   4.602   70.9  0.0535   66.0  0.4584  -39.4
 2.840  0.2888  177.4   4.567   70.6  0.0538   66.1  0.4574  -39.6
 2.860  0.2891  177.1   4.533   70.4  0.0540   66.1  0.4565  -39.7
 2.880  0.2894  176.7   4.499   70.1  0.0543   66.2  0.4555  -39.9
 2.900  0.2897  176.3   4.465   69.9  0.0545   66.3  0.4546  -40.0
 2.920  0.2898  175.9   4.435   69.7  0.0549   66.2  0.4537  -40.2
 2.940  0.2899  175.5   4.405   69.4  0.0552   66.0  0.4527  -40.3
 2.960  0.2900  175.1   4.375   69.2  0.0556   65.9  0.4518  -40.5
 2.980  0.2902  174.7   4.346   68.9  0.0559   65.7  0.4508  -40.6
 3.000  0.2903  174.3   4.316   68.7  0.0563   65.6  0.4499  -40.8
 3.100  0.2916  172.5   4.168   67.5  0.0581   65.1  0.4458  -41.3
 3.200  0.2929  170.5   4.031   66.4  0.0594   65.6  0.4421  -42.1
 3.300  0.2935  169.0   3.910   65.2  0.0615   65.0  0.4394  -42.7
 3.400  0.2943  166.8   3.786   64.2  0.0633   64.8  0.4369  -43.5
 3.500  0.2946  165.4   3.678   63.1  0.0649   64.2  0.4348  -44.0
 3.600  0.2960  163.6   3.568   62.1  0.0665   64.0  0.4321  -44.5
 3.700  0.2972  161.8   3.468   61.0  0.0689   63.8  0.4301  -45.0
 3.800  0.2981  160.4   3.376   60.0  0.0703   63.3  0.4280  -45.5
 3.900  0.2991  158.8   3.288   59.0  0.0719   63.1  0.4245  -46.1
 4.000  0.3005  157.2   3.203   58.0  0.0737   63.0  0.4234  -46.6
 4.100  0.3029  155.7   3.125   57.0  0.0760   62.1  0.4203  -47.1
 4.200  0.3039  154.0   3.047   56.1  0.0773   61.9  0.4183  -47.7
 4.300  0.3074  152.9   2.980   55.0  0.0790   62.0  0.4157  -48.2
 4.400  0.3083  151.1   2.910   54.1  0.0816   61.6  0.4138  -48.7
 4.500  0.3102  150.2   2.843   53.2  0.0832   61.0  0.4117  -49.0
 4.600  0.3122  148.3   2.779   52.2  0.0843   60.7  0.4096  -49.6
 4.700  0.3141  147.5   2.722   51.3  0.0867   60.3  0.4061  -49.9
 4.800  0.3171  145.9   2.666   50.3  0.0880   60.2  0.4042  -50.6
 4.900  0.3186  145.1   2.611   49.5  0.0897   59.6  0.4013  -50.9
 5.000  0.3206  143.5   2.561   48.4  0.0920   59.3  0.3989  -51.4
 5.100  0.3224  142.4   2.509   47.5  0.0937   58.8  0.3966  -51.9
 5.200  0.3242  141.2   2.465   46.6  0.0959   58.5  0.3935  -52.3
 5.300  0.3263  140.0   2.417   45.6  0.0974   57.9  0.3909  -52.9
 5.400  0.3270  139.0   2.374   44.8  0.0999   57.8  0.3896  -53.3
 5.500  0.3298  137.7   2.331   43.8  0.1016   57.3  0.3869  -53.7
 5.600  0.3306  136.6   2.290   42.9  0.1029   57.0  0.3847  -54.3
 5.700  0.3337  135.3   2.250   42.0  0.1049   56.3  0.3816  -54.6
 5.800  0.3338  134.3   2.215   41.1  0.1067   55.7  0.3796  -55.1
 5.900  0.3360  133.0   2.177   40.2  0.1088   55.5  0.3778  -55.5
 6.000  0.3372  131.8   2.141   39.3  0.1111   55.0  0.3757  -55.9
 6.100  0.3391  130.6   2.104   38.3  0.1123   54.5  0.3724  -56.2
 6.200  0.3400  129.4   2.070   37.4  0.1145   54.1  0.3706  -56.7
 6.300  0.3423  128.0   2.039   36.5  0.1163   53.6  0.3674  -57.0
 6.400  0.3431  126.7   2.007   35.6  0.1179   53.1  0.3654  -57.5
 6.500  0.3457  125.2   1.973   34.7  0.1200   52.6  0.3627  -57.8
 6.600  0.3468  124.0   1.946   33.8  0.1219   52.3  0.3598  -58.1
 6.800  0.3520  121.2   1.887   32.0  0.1253   51.4  0.3543  -58.6
 7.000  0.3568  118.4   1.833   30.3  0.1290   50.6  0.3476  -58.8
 7.200  0.3635  115.9   1.779   28.7  0.1327   49.7  0.3389  -59.3
 7.400  0.3719  113.7   1.731   27.0  0.1367   48.8  0.3304  -59.7
 7.600  0.3804  111.7   1.686   25.5  0.1409   48.0  0.3202  -60.0
 7.800  0.3906  109.9   1.645   23.9  0.1457   47.1  0.3083  -60.5
 8.000  0.4021  108.3   1.604   22.2  0.1492   46.0  0.2941  -60.8
 8.200  0.4151  107.1   1.569   20.7  0.1534   44.9  0.2763  -61.3
 8.400  0.4282  105.9   1.535   19.1  0.1577   43.8  0.2586  -61.8
 8.600  0.4413  104.9   1.503   17.5  0.1618   42.7  0.2387  -62.4
 8.800  0.4545  104.0   1.472   15.9  0.1659   41.6  0.2167  -63.0
 9.000  0.4678  103.1   1.442   14.2  0.1701   40.5  0.1947  -63.8
 9.200  0.4794  102.2   1.414   12.7  0.1741   39.4  0.1707  -65.0
 9.400  0.4911  101.4   1.387   11.1  0.1781   38.3  0.1467  -66.7
 9.600  0.5021  100.5   1.362    9.5  0.1824   37.1  0.1220  -69.2
 9.800  0.5123   99.7   1.339    7.8  0.1871   35.9  0.0967  -73.5
10.000  0.5226   98.8   1.317    6.1  0.1918   34.7  0.0723  -80.7
10.200  0.5322   97.5   1.293    4.4  0.1956   33.3  0.0497  -96.3
10.400  0.5421   96.2   1.270    2.7  0.1994   31.9  0.0355 -129.4
10.600  0.5514   94.8   1.246    0.9  0.2028   30.5  0.0428 -171.4
10.800  0.5605   93.1   1.221   -0.9  0.2057   29.0  0.0661  167.9
11.000  0.5700   91.5   1.198   -2.8  0.2088   27.6  0.0934  158.6
11.200  0.5775   89.9   1.169   -4.4  0.2110   26.5  0.1207  156.1
11.400  0.5855   88.3   1.142   -6.0  0.2133   25.3  0.1482  154.6
11.600  0.5909   87.0   1.116   -7.5  0.2158   24.3  0.1743  155.2
11.800  0.5937   85.9   1.091   -8.6  0.2186   23.3  0.1992  157.2
12.000  0.5967   84.9   1.067   -9.8  0.2214   22.4  0.2243  158.7
!
!  f       NFmin   Gammaopt  rn/50
! GHz       dB    MAG  ANG    -
 0.450      2.38  0.02 -151   0.44
 0.900      2.41  0.04 -143   0.29
 1.500      2.48  0.07 -134   0.34
 1.900      2.55  0.09 -131   0.43
 2.400      2.73  0.10 -127   0.19
 3.000      2.85  0.11 -124   0.20
 3.500      2.94  0.12 -121   0.31
 4.500      3.22  0.17 -107   0.53
 5.500      3.59  0.31  -88   0.51
!
! (c) 2015  Infineon Technologies AG, Munich
