! Infineon Technologies  Discrete & RF Semiconductors
! BFP405F
! VCE =  2.5 V,  IC =  9.0 mA
! Common Emitter S-Parameters:                            Nov 2015
# GHz  S  MA  R  50
!  f         S11            S21            S12            S22
! GHz     MAG   ANG      MAG   ANG      MAG   ANG      MAG   ANG
 0.030  0.7353   -1.9  20.433  177.1  0.0006   62.1  0.9823   -0.7
 0.035  0.7352   -2.2  20.444  176.9  0.0012   97.3  0.9824   -0.8
 0.040  0.7351   -2.6  20.456  176.7  0.0019  107.8  0.9825   -0.8
 0.045  0.7324   -3.3  20.539  176.2  0.0015  112.5  0.9842   -1.0
 0.050  0.7299   -4.0  20.624  175.7  0.0012  120.0  0.9860   -1.2
 0.055  0.7347   -4.3  20.521  175.5  0.0031   66.6  0.9854   -1.5
 0.060  0.7395   -4.6  20.419  175.2  0.0055   56.5  0.9849   -1.9
 0.065  0.7372   -4.6  20.410  174.7  0.0033   87.5  0.9853   -1.8
 0.070  0.7350   -4.7  20.403  174.1  0.0034  144.0  0.9857   -1.8
 0.075  0.7341   -5.2  20.356  173.8  0.0027  137.2  0.9863   -2.0
 0.080  0.7332   -5.8  20.309  173.5  0.0021  126.2  0.9869   -2.2
 0.085  0.7322   -6.2  20.344  173.4  0.0030   92.1  0.9869   -2.5
 0.090  0.7313   -6.7  20.379  173.3  0.0045   76.9  0.9870   -2.8
 0.095  0.7320   -7.0  20.316  173.0  0.0046   78.5  0.9862   -2.9
 0.100  0.7327   -7.2  20.253  172.7  0.0047   80.1  0.9854   -3.1
 0.105  0.7336   -7.6  20.257  172.3  0.0034   85.4  0.9861   -3.2
 0.110  0.7345   -8.0  20.262  171.9  0.0022   96.7  0.9869   -3.3
 0.115  0.7323   -8.4  20.247  171.7  0.0031   95.0  0.9867   -3.5
 0.120  0.7301   -8.9  20.232  171.5  0.0040   94.0  0.9866   -3.7
 0.125  0.7301   -9.3  20.222  171.1  0.0035   77.2  0.9857   -3.9
 0.130  0.7301   -9.6  20.214  170.6  0.0033   56.7  0.9849   -4.1
 0.135  0.7279   -9.9  20.235  170.4  0.0036   74.3  0.9844   -4.2
 0.140  0.7258  -10.2  20.257  170.3  0.0041   88.3  0.9840   -4.4
 0.145  0.7262  -10.7  20.254  170.0  0.0035   93.3  0.9820   -4.5
 0.150  0.7267  -11.2  20.251  169.6  0.0029  100.4  0.9800   -4.7
 0.155  0.7260  -11.6  20.232  169.2  0.0031   96.1  0.9796   -4.9
 0.160  0.7254  -11.9  20.215  168.8  0.0032   92.2  0.9791   -5.0
 0.165  0.7248  -12.3  20.198  168.4  0.0034   88.6  0.9787   -5.2
 0.170  0.7242  -12.6  20.182  168.0  0.0036   85.5  0.9783   -5.4
 0.175  0.7236  -13.0  20.167  167.7  0.0038   82.7  0.9779   -5.5
 0.180  0.7231  -13.4  20.153  167.3  0.0040   80.1  0.9775   -5.7
 0.185  0.7226  -13.7  20.140  166.9  0.0042   77.9  0.9771   -5.9
 0.190  0.7222  -14.1  20.128  166.5  0.0044   75.8  0.9767   -6.1
 0.195  0.7217  -14.4  20.117  166.1  0.0047   74.0  0.9764   -6.2
 0.200  0.7213  -14.8  20.107  165.7  0.0049   72.3  0.9760   -6.4
 0.220  0.7176  -16.2  19.962  164.4  0.0062   78.4  0.9742   -7.0
 0.240  0.7143  -17.6  19.826  163.1  0.0075   82.4  0.9724   -7.6
 0.260  0.7104  -19.0  19.710  161.8  0.0081   82.6  0.9698   -8.2
 0.280  0.7058  -20.3  19.614  160.5  0.0079   80.0  0.9664   -8.8
 0.300  0.7016  -21.7  19.529  159.1  0.0077   77.2  0.9630   -9.4
 0.320  0.6969  -23.1  19.382  157.9  0.0087   78.9  0.9597  -10.0
 0.340  0.6927  -24.5  19.244  156.6  0.0097   80.3  0.9566  -10.5
 0.360  0.6877  -25.9  19.110  155.3  0.0104   81.8  0.9531  -11.1
 0.380  0.6820  -27.2  18.981  154.0  0.0107   83.6  0.9493  -11.6
 0.400  0.6767  -28.6  18.862  152.7  0.0110   85.2  0.9456  -12.2
 0.420  0.6723  -29.9  18.708  151.5  0.0117   82.2  0.9415  -12.8
 0.440  0.6682  -31.2  18.563  150.3  0.0125   79.5  0.9376  -13.3
 0.450  0.6663  -31.9  18.493  149.7  0.0129   78.3  0.9356  -13.6
 0.460  0.6632  -32.5  18.406  149.1  0.0130   78.4  0.9331  -13.9
 0.480  0.6573  -33.7  18.239  148.0  0.0132   78.5  0.9282  -14.4
 0.500  0.6517  -35.0  18.079  146.8  0.0134   78.6  0.9233  -15.0
 0.520  0.6449  -36.2  17.901  145.7  0.0140   77.4  0.9187  -15.5
 0.540  0.6384  -37.4  17.729  144.6  0.0145   76.3  0.9141  -15.9
 0.560  0.6322  -38.7  17.564  143.4  0.0151   75.2  0.9096  -16.4
 0.580  0.6264  -40.0  17.406  142.3  0.0157   74.3  0.9052  -16.8
 0.600  0.6208  -41.3  17.256  141.1  0.0163   73.4  0.9008  -17.3
 0.620  0.6143  -42.4  17.086  140.1  0.0167   73.4  0.8959  -17.7
 0.640  0.6080  -43.4  16.922  139.1  0.0171   73.5  0.8910  -18.2
 0.660  0.6019  -44.5  16.762  138.1  0.0174   73.5  0.8862  -18.6
 0.680  0.5960  -45.7  16.608  137.1  0.0178   73.6  0.8815  -19.1
 0.700  0.5904  -46.8  16.460  136.0  0.0182   73.6  0.8768  -19.5
 0.720  0.5837  -47.9  16.268  135.0  0.0186   73.3  0.8718  -19.9
 0.740  0.5772  -48.9  16.081  134.1  0.0190   73.0  0.8668  -20.3
 0.760  0.5709  -50.0  15.899  133.1  0.0195   72.7  0.8619  -20.7
 0.780  0.5648  -51.2  15.721  132.0  0.0199   72.5  0.8570  -21.1
 0.800  0.5589  -52.3  15.549  131.0  0.0203   72.2  0.8521  -21.5
 0.820  0.5525  -53.2  15.386  130.1  0.0209   71.8  0.8473  -21.8
 0.840  0.5462  -54.2  15.227  129.3  0.0215   71.4  0.8425  -22.2
 0.860  0.5401  -55.2  15.071  128.4  0.0221   71.0  0.8377  -22.5
 0.880  0.5342  -56.2  14.919  127.4  0.0227   70.6  0.8329  -22.9
 0.900  0.5284  -57.2  14.771  126.5  0.0233   70.3  0.8282  -23.2
 0.920  0.5226  -58.1  14.602  125.7  0.0234   70.1  0.8235  -23.5
 0.940  0.5168  -59.1  14.435  124.9  0.0236   69.8  0.8188  -23.9
 0.960  0.5113  -60.0  14.271  124.1  0.0237   69.6  0.8141  -24.2
 0.980  0.5059  -61.0  14.111  123.3  0.0239   69.3  0.8095  -24.6
 1.000  0.5006  -62.0  13.953  122.4  0.0240   69.1  0.8049  -24.9
 1.020  0.4948  -62.8  13.797  121.7  0.0244   68.9  0.8002  -25.2
 1.040  0.4891  -63.7  13.644  121.0  0.0248   68.7  0.7956  -25.5
 1.060  0.4835  -64.6  13.493  120.2  0.0252   68.5  0.7909  -25.8
 1.080  0.4780  -65.5  13.344  119.5  0.0256   68.3  0.7863  -26.1
 1.100  0.4727  -66.4  13.197  118.7  0.0260   68.1  0.7817  -26.4
 1.120  0.4675  -67.3  13.055  118.0  0.0264   67.9  0.7776  -26.6
 1.140  0.4624  -68.1  12.914  117.3  0.0267   67.6  0.7735  -26.8
 1.160  0.4574  -69.0  12.775  116.6  0.0271   67.4  0.7694  -27.1
 1.180  0.4525  -70.0  12.639  115.9  0.0274   67.2  0.7653  -27.3
 1.200  0.4477  -70.9  12.504  115.2  0.0278   67.0  0.7612  -27.5
 1.220  0.4425  -71.7  12.369  114.5  0.0282   67.1  0.7571  -27.8
 1.240  0.4373  -72.5  12.235  113.8  0.0286   67.1  0.7531  -28.0
 1.260  0.4323  -73.4  12.104  113.1  0.0291   67.2  0.7490  -28.3
 1.280  0.4273  -74.2  11.974  112.4  0.0295   67.2  0.7450  -28.5
 1.300  0.4225  -75.1  11.846  111.7  0.0299   67.3  0.7410  -28.8
 1.320  0.4183  -75.8  11.719  111.2  0.0301   67.3  0.7373  -29.0
 1.340  0.4142  -76.6  11.594  110.6  0.0303   67.3  0.7336  -29.2
 1.360  0.4102  -77.4  11.469  110.1  0.0306   67.3  0.7299  -29.5
 1.380  0.4063  -78.2  11.346  109.5  0.0308   67.3  0.7262  -29.7
 1.400  0.4024  -79.0  11.224  108.9  0.0310   67.3  0.7225  -29.9
 1.420  0.3980  -79.7  11.111  108.4  0.0313   67.0  0.7188  -30.1
 1.440  0.3937  -80.5  10.998  107.8  0.0316   66.7  0.7152  -30.3
 1.460  0.3894  -81.3  10.887  107.3  0.0319   66.4  0.7116  -30.5
 1.480  0.3852  -82.1  10.776  106.7  0.0322   66.2  0.7079  -30.7
 1.500  0.3811  -82.9  10.667  106.1  0.0325   65.9  0.7043  -30.9
 1.520  0.3775  -83.7  10.561  105.6  0.0328   65.7  0.7010  -31.1
 1.540  0.3739  -84.4  10.456  105.1  0.0331   65.6  0.6976  -31.3
 1.560  0.3704  -85.2  10.351  104.6  0.0335   65.4  0.6943  -31.4
 1.580  0.3670  -86.0  10.248  104.0  0.0338   65.3  0.6910  -31.6
 1.600  0.3636  -86.8  10.145  103.5  0.0341   65.1  0.6877  -31.8
 1.620  0.3604  -87.4  10.042  103.0  0.0345   65.0  0.6843  -32.0
 1.640  0.3572  -88.1   9.940  102.5  0.0348   64.9  0.6810  -32.2
 1.660  0.3541  -88.7   9.839  102.0  0.0352   64.8  0.6776  -32.3
 1.680  0.3510  -89.4   9.739  101.5  0.0355   64.7  0.6742  -32.5
 1.700  0.3480  -90.1   9.639  101.0  0.0359   64.6  0.6709  -32.7
 1.720  0.3445  -90.8   9.548  100.5  0.0362   64.7  0.6677  -32.9
 1.740  0.3411  -91.6   9.458  100.1  0.0365   64.8  0.6646  -33.1
 1.760  0.3377  -92.3   9.368   99.6  0.0368   64.9  0.6614  -33.3
 1.780  0.3344  -93.1   9.279   99.1  0.0371   65.0  0.6582  -33.5
 1.800  0.3311  -93.9   9.191   98.6  0.0374   65.1  0.6551  -33.7
 1.820  0.3283  -94.5   9.109   98.2  0.0376   64.9  0.6522  -33.9
 1.840  0.3255  -95.2   9.028   97.8  0.0379   64.7  0.6494  -34.0
 1.860  0.3227  -95.8   8.947   97.4  0.0381   64.5  0.6466  -34.2
 1.880  0.3200  -96.5   8.866   96.9  0.0384   64.3  0.6437  -34.3
 1.900  0.3173  -97.2   8.786   96.5  0.0386   64.1  0.6409  -34.5
 1.920  0.3150  -98.0   8.711   96.1  0.0390   64.2  0.6386  -34.8
 1.940  0.3128  -98.7   8.637   95.7  0.0394   64.4  0.6363  -35.0
 1.960  0.3106  -99.5   8.563   95.3  0.0398   64.5  0.6340  -35.3
 1.980  0.3085 -100.3   8.490   94.8  0.0402   64.7  0.6318  -35.5
 2.000  0.3065 -101.1   8.417   94.4  0.0406   64.8  0.6295  -35.8
 2.020  0.3038 -101.7   8.343   94.0  0.0409   64.9  0.6270  -36.0
 2.040  0.3011 -102.4   8.268   93.6  0.0412   65.1  0.6244  -36.1
 2.060  0.2985 -103.0   8.195   93.2  0.0415   65.2  0.6219  -36.3
 2.080  0.2959 -103.7   8.122   92.7  0.0418   65.4  0.6193  -36.4
 2.100  0.2933 -104.4   8.049   92.3  0.0421   65.5  0.6168  -36.6
 2.120  0.2910 -105.1   7.980   91.9  0.0423   65.2  0.6144  -36.8
 2.140  0.2888 -105.8   7.911   91.5  0.0425   64.8  0.6120  -37.0
 2.160  0.2866 -106.5   7.843   91.1  0.0428   64.5  0.6096  -37.1
 2.180  0.2844 -107.2   7.775   90.7  0.0430   64.1  0.6073  -37.3
 2.200  0.2823 -107.9   7.707   90.3  0.0432   63.8  0.6049  -37.5
 2.220  0.2802 -108.5   7.643   90.0  0.0435   63.7  0.6026  -37.6
 2.240  0.2782 -109.2   7.580   89.6  0.0437   63.6  0.6002  -37.8
 2.260  0.2761 -109.8   7.517   89.3  0.0440   63.6  0.5979  -37.9
 2.280  0.2742 -110.4   7.454   89.0  0.0442   63.5  0.5956  -38.1
 2.300  0.2722 -111.1   7.392   88.6  0.0445   63.4  0.5933  -38.2
 2.320  0.2701 -111.7   7.334   88.3  0.0449   63.3  0.5914  -38.4
 2.340  0.2680 -112.3   7.277   87.9  0.0453   63.1  0.5896  -38.6
 2.360  0.2660 -112.9   7.220   87.6  0.0458   63.0  0.5877  -38.7
 2.380  0.2640 -113.5   7.163   87.3  0.0462   62.8  0.5858  -38.9
 2.400  0.2620 -114.1   7.106   86.9  0.0466   62.7  0.5840  -39.1
 2.420  0.2604 -114.8   7.050   86.6  0.0469   62.7  0.5821  -39.2
 2.440  0.2589 -115.4   6.993   86.2  0.0472   62.7  0.5802  -39.3
 2.460  0.2575 -116.1   6.937   85.9  0.0476   62.8  0.5784  -39.5
 2.480  0.2560 -116.8   6.882   85.6  0.0479   62.8  0.5765  -39.6
 2.500  0.2546 -117.5   6.826   85.2  0.0482   62.8  0.5746  -39.7
 2.520  0.2527 -118.0   6.773   84.9  0.0484   62.8  0.5729  -39.8
 2.540  0.2509 -118.5   6.721   84.6  0.0486   62.8  0.5712  -40.0
 2.560  0.2491 -119.0   6.669   84.3  0.0488   62.7  0.5695  -40.1
 2.580  0.2473 -119.6   6.617   84.0  0.0490   62.7  0.5678  -40.3
 2.600  0.2455 -120.1   6.565   83.7  0.0492   62.7  0.5661  -40.4
 2.620  0.2441 -120.7   6.518   83.4  0.0496   62.8  0.5645  -40.5
 2.640  0.2428 -121.4   6.471   83.1  0.0500   62.8  0.5628  -40.6
 2.660  0.2415 -122.1   6.425   82.8  0.0505   62.9  0.5612  -40.8
 2.680  0.2402 -122.7   6.378   82.4  0.0509   62.9  0.5595  -40.9
 2.700  0.2390 -123.4   6.332   82.1  0.0513   63.0  0.5579  -41.0
 2.720  0.2377 -123.9   6.289   81.8  0.0517   62.9  0.5565  -41.2
 2.740  0.2364 -124.4   6.245   81.6  0.0520   62.9  0.5552  -41.3
 2.760  0.2351 -124.9   6.202   81.3  0.0524   62.8  0.5538  -41.5
 2.780  0.2338 -125.4   6.159   81.0  0.0527   62.8  0.5525  -41.6
 2.800  0.2326 -125.9   6.116   80.7  0.0531   62.7  0.5511  -41.8
 2.820  0.2315 -126.5   6.072   80.4  0.0533   62.8  0.5496  -41.9
 2.840  0.2304 -127.0   6.029   80.2  0.0535   62.8  0.5481  -42.0
 2.860  0.2294 -127.6   5.985   79.9  0.0537   62.9  0.5465  -42.2
 2.880  0.2284 -128.2   5.942   79.6  0.0539   62.9  0.5450  -42.3
 2.900  0.2274 -128.8   5.899   79.3  0.0541   63.0  0.5435  -42.4
 2.920  0.2261 -129.4   5.861   79.0  0.0543   62.9  0.5422  -42.6
 2.940  0.2249 -130.0   5.823   78.8  0.0545   62.9  0.5408  -42.7
 2.960  0.2237 -130.6   5.786   78.5  0.0548   62.8  0.5395  -42.9
 2.980  0.2225 -131.3   5.748   78.2  0.0550   62.8  0.5381  -43.0
 3.000  0.2213 -131.9   5.711   77.9  0.0552   62.7  0.5368  -43.2
 3.100  0.2161 -134.4   5.522   76.6  0.0570   62.6  0.5314  -43.6
 3.200  0.2101 -137.6   5.347   75.3  0.0584   61.8  0.5253  -44.4
 3.300  0.2066 -140.0   5.191   74.0  0.0600   61.3  0.5207  -44.8
 3.400  0.2013 -143.0   5.031   72.8  0.0614   61.3  0.5162  -45.5
 3.500  0.1985 -145.1   4.889   71.6  0.0629   61.2  0.5120  -45.9
 3.600  0.1941 -148.0   4.747   70.5  0.0639   60.6  0.5074  -46.4
 3.700  0.1915 -150.8   4.618   69.4  0.0662   60.4  0.5036  -46.8
 3.800  0.1891 -153.6   4.492   68.3  0.0678   60.1  0.5002  -47.3
 3.900  0.1861 -156.1   4.382   67.1  0.0700   60.0  0.4962  -47.9
 4.000  0.1842 -158.4   4.271   66.1  0.0712   59.8  0.4932  -48.2
 4.100  0.1826 -161.0   4.168   65.0  0.0721   59.6  0.4895  -48.6
 4.200  0.1801 -163.9   4.067   64.0  0.0738   58.8  0.4848  -49.1
 4.300  0.1812 -166.3   3.976   63.0  0.0753   58.7  0.4819  -49.6
 4.400  0.1791 -169.0   3.887   62.0  0.0770   58.4  0.4791  -49.9
 4.500  0.1795 -171.0   3.799   61.0  0.0783   58.4  0.4765  -50.2
 4.600  0.1785 -173.8   3.715   59.9  0.0800   58.0  0.4724  -50.7
 4.700  0.1798 -175.6   3.638   59.0  0.0818   57.7  0.4685  -51.0
 4.800  0.1801 -178.5   3.565   58.0  0.0836   57.6  0.4660  -51.5
 4.900  0.1812  179.9   3.493   57.1  0.0853   57.0  0.4624  -51.8
 5.000  0.1814  177.5   3.424   56.1  0.0870   56.6  0.4591  -52.3
 5.100  0.1817  175.1   3.356   55.1  0.0887   56.5  0.4559  -52.7
 5.200  0.1825  173.0   3.296   54.1  0.0903   55.9  0.4523  -53.0
 5.300  0.1838  170.7   3.234   53.2  0.0914   55.7  0.4490  -53.5
 5.400  0.1844  169.1   3.178   52.3  0.0935   55.4  0.4470  -53.9
 5.500  0.1858  166.9   3.119   51.3  0.0950   55.2  0.4438  -54.2
 5.600  0.1858  164.9   3.066   50.3  0.0966   54.4  0.4412  -54.6
 5.700  0.1875  162.6   3.013   49.4  0.0983   54.0  0.4382  -55.0
 5.800  0.1873  161.2   2.964   48.5  0.1001   53.8  0.4355  -55.3
 5.900  0.1888  159.0   2.914   47.6  0.1020   53.4  0.4329  -55.6
 6.000  0.1888  157.2   2.866   46.7  0.1026   52.9  0.4307  -56.0
 6.100  0.1904  155.0   2.816   45.7  0.1045   52.4  0.4269  -56.2
 6.200  0.1910  153.0   2.771   44.8  0.1067   52.3  0.4254  -56.6
 6.300  0.1928  150.9   2.730   43.9  0.1083   52.0  0.4214  -56.9
 6.400  0.1928  148.9   2.687   43.0  0.1094   50.9  0.4193  -57.4
 6.500  0.1945  146.5   2.644   42.1  0.1108   50.8  0.4169  -57.5
 6.600  0.1956  144.6   2.605   41.2  0.1127   50.6  0.4135  -57.9
 6.800  0.1994  140.2   2.528   39.5  0.1158   49.9  0.4081  -58.3
 7.000  0.2034  136.0   2.454   37.8  0.1193   49.3  0.4016  -58.4
 7.200  0.2100  132.1   2.385   36.2  0.1224   48.6  0.3925  -58.8
 7.400  0.2182  128.7   2.323   34.5  0.1261   47.9  0.3842  -59.2
 7.600  0.2276  125.6   2.264   33.0  0.1300   47.2  0.3745  -59.5
 7.800  0.2392  123.2   2.211   31.4  0.1336   46.5  0.3633  -60.0
 8.000  0.2515  121.1   2.158   29.8  0.1377   45.6  0.3498  -60.5
 8.200  0.2669  119.5   2.114   28.2  0.1416   44.5  0.3322  -61.1
 8.400  0.2825  118.1   2.071   26.6  0.1456   43.5  0.3147  -61.7
 8.600  0.2981  116.8   2.030   25.0  0.1495   42.5  0.2952  -62.3
 8.800  0.3137  115.8   1.990   23.4  0.1534   41.5  0.2739  -63.1
 9.000  0.3295  114.8   1.952   21.7  0.1573   40.6  0.2527  -64.0
 9.200  0.3439  113.7   1.916   20.1  0.1611   39.4  0.2291  -65.4
 9.400  0.3584  112.8   1.882   18.4  0.1649   38.3  0.2056  -67.2
 9.600  0.3721  111.7   1.849   16.8  0.1689   37.2  0.1817  -69.6
 9.800  0.3850  110.6   1.819   15.1  0.1731   36.1  0.1575  -72.9
10.000  0.3980  109.6   1.790   13.3  0.1773   35.0  0.1340  -77.4
10.200  0.4103  108.0   1.759   11.5  0.1811   33.6  0.1094  -84.6
10.400  0.4230  106.4   1.730    9.7  0.1850   32.3  0.0874  -95.7
10.600  0.4348  104.6   1.699    7.8  0.1885   30.9  0.0725 -113.7
10.800  0.4460  102.6   1.666    5.9  0.1916   29.5  0.0694 -137.5
11.000  0.4578  100.6   1.636    3.8  0.1948   28.1  0.0781 -159.4
11.200  0.4668   98.5   1.598    2.1  0.1967   26.8  0.0994 -171.4
11.400  0.4765   96.5   1.561    0.2  0.1987   25.4  0.1235 -179.0
11.600  0.4833   94.8   1.525   -1.3  0.2010   24.4  0.1492  177.6
11.800  0.4871   93.4   1.489   -2.7  0.2034   23.5  0.1753  176.7
12.000  0.4911   92.1   1.454   -4.1  0.2059   22.7  0.2015  176.0
!
!  f       NFmin   Gammaopt  rn/50
! GHz       dB    MAG  ANG    -
 0.450      1.60  0.23    5   0.33
 0.900      1.61  0.21   11   0.35
 1.500      1.67  0.20   16   0.26
 1.900      1.70  0.18   22   0.29
 2.400      1.84  0.17   30   0.34
 3.000      1.92  0.15   43   0.31
 3.500      1.97  0.13   50   0.30
 4.500      2.13  0.10   51   0.20
 5.500      2.32  0.05   51   0.05
!
! (c) 2015  Infineon Technologies AG, Munich
