! Infineon Technologies  Discrete & RF Semiconductors
! BFP420F
!
! VCE =  0.5 V,  IC =  18 mA
! Common Emitter S-Parameters:                            Sep 2011
# GHz  S  MA  R  50
!  f         S11            S21            S12            S22
! GHz     MAG   ANG      MAG   ANG      MAG   ANG      MAG   ANG
 0.030  0.5123  -11.3  36.005  172.7  0.0040   86.7  0.9070   -6.4
 0.040  0.5081  -15.1  35.880  170.3  0.0053   85.5  0.9055   -8.8
 0.050  0.5004  -19.3  35.300  167.9  0.0070   85.4  0.9013  -10.9
 0.060  0.5029  -23.1  35.200  166.1  0.0081   83.6  0.8945  -13.2
 0.070  0.5018  -26.2  34.954  164.0  0.0095   81.1  0.8854  -15.6
 0.080  0.5021  -29.4  34.335  161.8  0.0106   80.4  0.8779  -17.7
 0.090  0.4953  -33.2  34.012  159.8  0.0118   77.5  0.8709  -19.7
 0.100  0.4970  -36.2  33.700  157.6  0.0128   77.7  0.8631  -21.6
 0.110  0.4967  -39.2  32.949  155.9  0.0140   76.0  0.8540  -23.6
 0.120  0.4927  -42.7  32.643  153.6  0.0151   74.7  0.8439  -25.6
 0.130  0.4911  -45.9  31.977  151.9  0.0162   74.3  0.8326  -27.6
 0.140  0.4875  -48.9  31.466  150.3  0.0174   72.6  0.8198  -29.6
 0.150  0.4870  -52.1  31.004  148.6  0.0185   71.6  0.8081  -31.4
 0.200  0.4849  -65.6  28.545  141.1  0.0230   67.4  0.7575  -39.5
 0.250  0.4750  -77.7  26.084  134.5  0.0267   63.9  0.7014  -46.8
 0.300  0.4750  -88.4  24.041  128.8  0.0306   60.9  0.6506  -53.6
 0.350  0.4710  -97.5  22.016  124.0  0.0334   58.8  0.6043  -59.2
 0.400  0.4689 -105.4  20.246  119.7  0.0360   57.1  0.5632  -64.4
 0.450  0.4683 -112.2  18.746  116.0  0.0385   55.6  0.5248  -69.3
 0.500  0.4656 -118.3  17.325  112.7  0.0405   54.6  0.4911  -73.6
 0.600  0.4640 -128.6  14.975  107.1  0.0442   53.3  0.4339  -81.7
 0.700  0.4652 -137.1  13.197  102.3  0.0478   52.6  0.3913  -88.9
 0.800  0.4659 -143.9  11.701   98.2  0.0510   52.3  0.3561  -95.6
 0.900  0.4656 -149.4  10.459   95.1  0.0542   52.2  0.3273 -101.7
 1.000  0.4700 -154.2   9.483   92.1  0.0574   52.4  0.3060 -107.7
 1.100  0.4700 -158.6   8.650   89.4  0.0605   52.4  0.2877 -113.2
 1.200  0.4707 -162.4   7.893   86.9  0.0637   52.5  0.2751 -118.6
 1.300  0.4720 -165.6   7.303   84.9  0.0670   52.7  0.2636 -123.5
 1.400  0.4765 -168.5   6.794   82.9  0.0702   52.9  0.2566 -128.3
 1.500  0.4765 -171.7   6.325   80.7  0.0734   53.0  0.2485 -132.7
 1.600  0.4767 -173.9   5.877   79.1  0.0766   53.0  0.2446 -137.1
 1.700  0.4797 -176.0   5.542   77.7  0.0798   53.0  0.2402 -141.1
 1.800  0.4840 -178.0   5.249   76.2  0.0832   53.2  0.2394 -144.7
 1.900  0.4847  179.4   4.970   74.2  0.0866   53.0  0.2379 -148.2
 2.000  0.4835  177.9   4.670   72.9  0.0897   52.9  0.2381 -151.4
 2.200  0.4878  174.7   4.264   70.3  0.0963   52.7  0.2390 -156.5
 2.400  0.4860  171.3   3.871   67.5  0.1033   52.2  0.2409 -161.1
 2.600  0.4903  168.5   3.580   65.3  0.1098   51.8  0.2424 -164.9
 2.800  0.4909  165.6   3.329   62.8  0.1171   51.1  0.2447 -168.2
 3.000  0.4929  163.0   3.102   60.6  0.1237   50.4  0.2466 -171.1
 3.500  0.4975  157.0   2.669   54.9  0.1411   48.3  0.2501 -177.5
 4.000  0.5014  151.1   2.349   49.3  0.1585   45.6  0.2521  176.5
 4.500  0.5089  146.1   2.100   43.9  0.1757   42.6  0.2514  170.1
 5.000  0.5119  141.6   1.907   38.6  0.1921   39.3  0.2495  163.2
 5.500  0.5157  136.8   1.745   33.3  0.2077   35.8  0.2481  155.4
 6.000  0.5222  131.7   1.610   28.2  0.2228   32.3  0.2480  146.7
 6.500  0.5327  126.2   1.495   23.1  0.2367   28.7  0.2556  137.8
 7.000  0.5461  120.5   1.392   17.8  0.2502   24.9  0.2653  128.6
 7.500  0.5672  116.0   1.300   12.9  0.2628   21.2  0.2828  119.9
 8.000  0.5888  111.7   1.212    7.8  0.2730   17.1  0.3126  111.1
 8.500  0.6133  107.8   1.125    3.2  0.2795   13.1  0.3519  102.1
 9.000  0.6358  104.4   1.047   -0.7  0.2842    9.8  0.3960   94.3
 9.500  0.6578  101.3   0.981   -4.1  0.2885    7.0  0.4442   89.1
10.000  0.6828   97.8   0.924   -6.8  0.2931    4.6  0.4937   86.0
!
!  f       NFmin   Gammaopt  rn/50
! GHz       dB    MAG  ANG    -
 0.450      1.49  0.14  179   0.11
 0.900      1.47  0.15  176   0.13
 1.900      1.60  0.24 -172   0.18
 2.400      1.67  0.25 -168   0.12
 3.500      1.90  0.27 -159   0.16
!
! (c) 2011  Infineon Technologies AG, Munich
