! Infineon Technologies  Discrete & RF Semiconductors
! BFP420
! VCE =  1.5 V,  IC =  8.0 mA
! Common Emitter S-Parameters:                            Jan 2016
# GHz  S  MA  R  50
!  f         S11            S21            S12            S22
! GHz     MAG   ANG      MAG   ANG      MAG   ANG      MAG   ANG
 0.010  0.7497   -2.2  23.056  179.3  0.0008   96.7  0.9732    0.4
 0.015  0.7512   -2.9  22.795  178.6  0.0014   91.3  0.9760   -0.8
 0.020  0.7527   -3.5  22.537  177.8  0.0020   89.2  0.9791   -1.9
 0.025  0.7514   -4.3  22.532  177.2  0.0025   88.4  0.9788   -2.4
 0.030  0.7502   -5.1  22.530  176.6  0.0030   87.8  0.9785   -2.9
 0.035  0.7492   -5.8  22.531  175.9  0.0034   87.4  0.9783   -3.4
 0.040  0.7483   -6.6  22.534  175.3  0.0039   87.1  0.9782   -4.0
 0.045  0.7476   -7.4  22.540  174.7  0.0044   86.9  0.9782   -4.5
 0.050  0.7470   -8.2  22.548  174.1  0.0049   86.7  0.9783   -5.0
 0.055  0.7462   -9.0  22.530  173.5  0.0054   85.8  0.9771   -5.5
 0.060  0.7456   -9.9  22.513  173.0  0.0059   85.1  0.9759   -6.0
 0.065  0.7452  -10.7  22.499  172.4  0.0064   84.4  0.9749   -6.5
 0.070  0.7449  -11.6  22.487  171.9  0.0069   83.9  0.9739   -7.0
 0.075  0.7447  -12.4  22.478  171.3  0.0074   83.4  0.9730   -7.5
 0.080  0.7448  -13.3  22.470  170.7  0.0079   83.0  0.9722   -8.0
 0.085  0.7450  -14.2  22.465  170.2  0.0084   82.7  0.9714   -8.6
 0.090  0.7454  -15.0  22.461  169.6  0.0089   82.3  0.9707   -9.1
 0.095  0.7459  -15.9  22.460  169.1  0.0094   82.1  0.9701   -9.6
 0.100  0.7466  -16.7  22.461  168.5  0.0099   81.8  0.9696  -10.1
 0.105  0.7449  -17.5  22.412  167.9  0.0104   81.3  0.9678  -10.6
 0.110  0.7434  -18.3  22.364  167.4  0.0109   80.9  0.9660  -11.1
 0.115  0.7420  -19.1  22.319  166.8  0.0113   80.5  0.9643  -11.6
 0.120  0.7407  -19.9  22.276  166.2  0.0118   80.1  0.9626  -12.1
 0.125  0.7396  -20.7  22.235  165.7  0.0123   79.8  0.9611  -12.6
 0.130  0.7387  -21.5  22.197  165.1  0.0128   79.5  0.9596  -13.1
 0.135  0.7379  -22.3  22.161  164.5  0.0133   79.2  0.9582  -13.6
 0.140  0.7373  -23.2  22.126  164.0  0.0137   78.9  0.9569  -14.1
 0.145  0.7368  -24.0  22.095  163.4  0.0142   78.6  0.9556  -14.6
 0.150  0.7364  -24.8  22.065  162.8  0.0147   78.4  0.9544  -15.1
 0.155  0.7348  -25.6  22.006  162.3  0.0151   77.9  0.9520  -15.6
 0.160  0.7333  -26.4  21.950  161.7  0.0156   77.4  0.9497  -16.0
 0.165  0.7320  -27.1  21.895  161.2  0.0160   77.0  0.9474  -16.5
 0.170  0.7308  -27.9  21.842  160.7  0.0165   76.6  0.9452  -17.0
 0.175  0.7298  -28.7  21.791  160.1  0.0169   76.2  0.9431  -17.5
 0.180  0.7288  -29.5  21.742  159.6  0.0174   75.8  0.9411  -18.0
 0.185  0.7281  -30.3  21.695  159.0  0.0178   75.5  0.9391  -18.4
 0.190  0.7274  -31.1  21.650  158.5  0.0183   75.1  0.9371  -18.9
 0.195  0.7270  -31.9  21.607  158.0  0.0187   74.8  0.9353  -19.4
 0.200  0.7266  -32.7  21.566  157.4  0.0192   74.5  0.9335  -19.9
 0.220  0.7190  -35.8  21.271  155.3  0.0209   72.9  0.9231  -21.7
 0.240  0.7136  -38.9  21.007  153.1  0.0226   71.5  0.9136  -23.5
 0.260  0.7080  -42.0  20.748  151.0  0.0242   70.2  0.9031  -25.3
 0.280  0.7021  -45.0  20.490  149.1  0.0257   68.8  0.8916  -27.0
 0.300  0.6982  -48.1  20.256  147.1  0.0273   67.6  0.8809  -28.8
 0.320  0.6907  -50.9  19.950  145.3  0.0287   66.2  0.8684  -30.4
 0.340  0.6848  -53.8  19.664  143.4  0.0301   65.0  0.8565  -32.1
 0.360  0.6790  -56.6  19.368  141.5  0.0314   63.8  0.8444  -33.7
 0.380  0.6730  -59.3  19.058  139.7  0.0327   62.7  0.8318  -35.2
 0.400  0.6685  -62.1  18.767  137.9  0.0340   61.6  0.8198  -36.8
 0.420  0.6610  -64.7  18.449  136.3  0.0352   60.5  0.8068  -38.2
 0.440  0.6549  -67.4  18.146  134.6  0.0364   59.5  0.7943  -39.7
 0.450  0.6524  -68.7  18.000  133.8  0.0370   59.0  0.7882  -40.4
 0.460  0.6488  -69.9  17.838  133.0  0.0375   58.5  0.7817  -41.1
 0.480  0.6424  -72.4  17.525  131.4  0.0386   57.6  0.7690  -42.4
 0.500  0.6372  -74.9  17.226  129.8  0.0396   56.7  0.7567  -43.8
 0.520  0.6299  -77.2  16.915  128.5  0.0405   55.8  0.7440  -45.0
 0.540  0.6237  -79.5  16.614  127.1  0.0414   55.0  0.7316  -46.2
 0.560  0.6184  -81.8  16.323  125.6  0.0423   54.1  0.7196  -47.4
 0.580  0.6142  -84.2  16.042  124.1  0.0433   53.3  0.7079  -48.7
 0.600  0.6111  -86.6  15.773  122.6  0.0442   52.6  0.6966  -50.0
 0.620  0.6049  -88.6  15.487  121.4  0.0449   51.9  0.6850  -51.0
 0.640  0.5994  -90.7  15.208  120.3  0.0457   51.2  0.6736  -52.1
 0.660  0.5948  -92.8  14.936  119.0  0.0464   50.6  0.6624  -53.2
 0.680  0.5909  -94.9  14.671  117.7  0.0471   49.9  0.6515  -54.3
 0.700  0.5879  -97.1  14.414  116.4  0.0479   49.3  0.6409  -55.5
 0.720  0.5830  -98.9  14.158  115.4  0.0485   48.7  0.6306  -56.4
 0.740  0.5786 -100.7  13.907  114.3  0.0492   48.2  0.6204  -57.3
 0.760  0.5749 -102.6  13.661  113.2  0.0498   47.6  0.6104  -58.3
 0.780  0.5718 -104.5  13.421  112.0  0.0505   47.1  0.6006  -59.3
 0.800  0.5693 -106.4  13.186  110.8  0.0511   46.6  0.5910  -60.3
 0.820  0.5653 -108.1  12.964  109.9  0.0516   46.1  0.5818  -61.1
 0.840  0.5619 -109.7  12.746  108.9  0.0522   45.7  0.5728  -62.0
 0.860  0.5589 -111.4  12.531  108.0  0.0527   45.3  0.5638  -62.9
 0.880  0.5564 -113.2  12.320  106.9  0.0533   44.8  0.5550  -63.8
 0.900  0.5544 -114.9  12.113  105.9  0.0538   44.4  0.5464  -64.7
 0.920  0.5513 -116.5  11.918  105.1  0.0543   44.0  0.5382  -65.5
 0.940  0.5486 -118.0  11.726  104.2  0.0548   43.7  0.5300  -66.3
 0.960  0.5462 -119.6  11.536  103.3  0.0553   43.3  0.5220  -67.1
 0.980  0.5444 -121.2  11.350  102.4  0.0558   42.9  0.5141  -67.9
 1.000  0.5429 -122.8  11.166  101.4  0.0563   42.6  0.5063  -68.8
 1.020  0.5404 -124.2  10.992  100.7  0.0567   42.3  0.4991  -69.5
 1.040  0.5382 -125.6  10.820   99.9  0.0572   42.0  0.4921  -70.2
 1.060  0.5364 -127.0  10.651   99.1  0.0576   41.7  0.4851  -70.9
 1.080  0.5348 -128.4  10.483   98.3  0.0581   41.5  0.4781  -71.6
 1.100  0.5336 -129.8  10.317   97.5  0.0585   41.2  0.4713  -72.4
 1.120  0.5318 -131.1  10.164   96.8  0.0589   41.0  0.4647  -73.1
 1.140  0.5303 -132.4  10.013   96.0  0.0593   40.7  0.4581  -73.9
 1.160  0.5290 -133.7   9.864   95.3  0.0598   40.5  0.4516  -74.6
 1.180  0.5280 -135.0   9.717   94.5  0.0602   40.2  0.4452  -75.4
 1.200  0.5273 -136.3   9.571   93.7  0.0606   40.0  0.4389  -76.2
 1.220  0.5257 -137.5   9.438   93.1  0.0610   39.8  0.4332  -76.8
 1.240  0.5243 -138.7   9.306   92.4  0.0614   39.6  0.4276  -77.5
 1.260  0.5231 -139.9   9.175   91.8  0.0618   39.3  0.4220  -78.1
 1.280  0.5221 -141.1   9.045   91.1  0.0622   39.1  0.4165  -78.8
 1.300  0.5214 -142.3   8.917   90.4  0.0626   38.9  0.4111  -79.5
 1.320  0.5204 -143.4   8.797   89.8  0.0630   38.7  0.4059  -80.1
 1.340  0.5197 -144.5   8.679   89.2  0.0634   38.5  0.4008  -80.8
 1.360  0.5191 -145.6   8.561   88.5  0.0637   38.4  0.3957  -81.4
 1.380  0.5187 -146.7   8.444   87.9  0.0641   38.2  0.3907  -82.1
 1.400  0.5185 -147.8   8.329   87.2  0.0645   38.0  0.3857  -82.8
 1.420  0.5174 -148.8   8.225   86.6  0.0649   37.9  0.3810  -83.4
 1.440  0.5165 -149.8   8.121   86.1  0.0652   37.7  0.3762  -84.0
 1.460  0.5157 -150.8   8.018   85.5  0.0656   37.6  0.3716  -84.6
 1.480  0.5151 -151.8   7.916   84.9  0.0659   37.4  0.3670  -85.2
 1.500  0.5147 -152.8   7.815   84.3  0.0663   37.3  0.3624  -85.9
 1.520  0.5143 -153.8   7.720   83.7  0.0667   37.2  0.3583  -86.5
 1.540  0.5139 -154.7   7.626   83.2  0.0670   37.0  0.3542  -87.1
 1.560  0.5138 -155.7   7.532   82.6  0.0674   36.9  0.3502  -87.7
 1.580  0.5138 -156.6   7.440   82.0  0.0677   36.7  0.3462  -88.4
 1.600  0.5139 -157.6   7.348   81.4  0.0681   36.6  0.3422  -89.0
 1.620  0.5133 -158.5   7.264   80.9  0.0685   36.5  0.3383  -89.6
 1.640  0.5128 -159.4   7.181   80.4  0.0688   36.3  0.3345  -90.2
 1.660  0.5124 -160.4   7.098   79.9  0.0692   36.2  0.3307  -90.8
 1.680  0.5122 -161.3   7.016   79.3  0.0695   36.0  0.3269  -91.4
 1.700  0.5121 -162.2   6.934   78.8  0.0699   35.9  0.3232  -92.0
 1.720  0.5117 -163.0   6.856   78.3  0.0703   35.8  0.3198  -92.6
 1.740  0.5113 -163.8   6.778   77.8  0.0706   35.7  0.3164  -93.1
 1.760  0.5111 -164.6   6.700   77.3  0.0710   35.5  0.3130  -93.7
 1.780  0.5109 -165.4   6.623   76.8  0.0713   35.4  0.3097  -94.3
 1.800  0.5109 -166.2   6.547   76.3  0.0717   35.3  0.3064  -94.9
 1.820  0.5107 -167.1   6.478   75.8  0.0721   35.2  0.3031  -95.5
 1.840  0.5106 -167.9   6.408   75.4  0.0724   35.1  0.2998  -96.2
 1.860  0.5107 -168.8   6.340   74.9  0.0728   34.9  0.2966  -96.8
 1.880  0.5108 -169.6   6.272   74.4  0.0731   34.8  0.2934  -97.5
 1.900  0.5111 -170.5   6.204   73.9  0.0735   34.7  0.2903  -98.2
 1.920  0.5107 -171.2   6.142   73.5  0.0739   34.6  0.2874  -98.7
 1.940  0.5104 -171.9   6.080   73.0  0.0742   34.5  0.2845  -99.2
 1.960  0.5101 -172.6   6.018   72.5  0.0746   34.4  0.2817  -99.8
 1.980  0.5099 -173.3   5.957   72.1  0.0749   34.3  0.2789 -100.3
 2.000  0.5098 -174.0   5.896   71.6  0.0753   34.2  0.2761 -100.9
 2.020  0.5094 -174.7   5.841   71.2  0.0756   34.1  0.2734 -101.5
 2.040  0.5092 -175.5   5.785   70.8  0.0760   34.0  0.2707 -102.1
 2.060  0.5090 -176.2   5.730   70.3  0.0763   33.9  0.2680 -102.7
 2.080  0.5089 -177.0   5.676   69.9  0.0767   33.7  0.2654 -103.3
 2.100  0.5089 -177.8   5.622   69.5  0.0770   33.6  0.2627 -103.9
 2.120  0.5090 -178.5   5.568   69.0  0.0774   33.5  0.2602 -104.6
 2.140  0.5092 -179.3   5.514   68.5  0.0777   33.4  0.2576 -105.2
 2.160  0.5094  180.0   5.461   68.1  0.0781   33.3  0.2551 -105.9
 2.180  0.5098  179.2   5.408   67.6  0.0784   33.2  0.2526 -106.6
 2.200  0.5102  178.5   5.356   67.1  0.0788   33.1  0.2502 -107.3
 2.220  0.5102  177.8   5.309   66.7  0.0791   33.0  0.2479 -107.9
 2.240  0.5104  177.2   5.262   66.3  0.0795   32.9  0.2456 -108.6
 2.260  0.5105  176.5   5.216   65.9  0.0798   32.8  0.2433 -109.2
 2.280  0.5108  175.8   5.170   65.5  0.0802   32.6  0.2410 -109.9
 2.300  0.5111  175.2   5.124   65.1  0.0805   32.5  0.2388 -110.6
 2.320  0.5115  174.5   5.078   64.7  0.0809   32.4  0.2366 -111.3
 2.340  0.5119  173.9   5.032   64.2  0.0812   32.3  0.2345 -112.0
 2.360  0.5125  173.2   4.987   63.8  0.0816   32.2  0.2324 -112.7
 2.380  0.5130  172.6   4.943   63.4  0.0819   32.1  0.2303 -113.5
 2.400  0.5137  171.9   4.898   62.9  0.0823   32.0  0.2283 -114.2
 2.420  0.5142  171.3   4.858   62.5  0.0826   31.9  0.2263 -114.9
 2.440  0.5148  170.6   4.818   62.2  0.0830   31.8  0.2244 -115.6
 2.460  0.5154  170.0   4.778   61.8  0.0833   31.6  0.2225 -116.3
 2.480  0.5161  169.3   4.738   61.4  0.0837   31.5  0.2206 -117.0
 2.500  0.5168  168.7   4.699   61.0  0.0840   31.4  0.2188 -117.7
 2.520  0.5177  168.0   4.660   60.6  0.0843   31.3  0.2170 -118.5
 2.540  0.5186  167.4   4.621   60.2  0.0847   31.1  0.2152 -119.3
 2.560  0.5195  166.8   4.583   59.8  0.0850   31.0  0.2135 -120.0
 2.580  0.5205  166.1   4.544   59.3  0.0854   30.9  0.2118 -120.8
 2.600  0.5216  165.5   4.506   58.9  0.0857   30.8  0.2102 -121.6
 2.620  0.5220  164.9   4.471   58.5  0.0860   30.7  0.2086 -122.3
 2.640  0.5225  164.4   4.436   58.2  0.0864   30.6  0.2070 -123.0
 2.660  0.5230  163.8   4.402   57.8  0.0867   30.5  0.2054 -123.8
 2.680  0.5235  163.3   4.367   57.5  0.0871   30.4  0.2039 -124.5
 2.700  0.5241  162.7   4.333   57.1  0.0874   30.3  0.2024 -125.3
 2.720  0.5248  162.2   4.299   56.7  0.0877   30.2  0.2009 -126.0
 2.740  0.5255  161.6   4.265   56.3  0.0881   30.1  0.1995 -126.8
 2.760  0.5263  161.1   4.232   55.9  0.0884   30.0  0.1981 -127.6
 2.780  0.5271  160.5   4.198   55.5  0.0888   29.9  0.1967 -128.4
 2.800  0.5279  160.0   4.165   55.1  0.0891   29.8  0.1954 -129.2
 2.820  0.5286  159.5   4.135   54.8  0.0894   29.7  0.1941 -129.9
 2.840  0.5293  158.9   4.105   54.4  0.0898   29.6  0.1928 -130.7
 2.860  0.5301  158.4   4.076   54.1  0.0901   29.5  0.1916 -131.4
 2.880  0.5309  157.9   4.046   53.7  0.0905   29.3  0.1904 -132.2
 2.900  0.5318  157.4   4.017   53.4  0.0908   29.2  0.1892 -133.0
 2.920  0.5327  156.9   3.988   53.0  0.0912   29.1  0.1881 -133.8
 2.940  0.5337  156.3   3.959   52.6  0.0915   29.0  0.1870 -134.6
 2.960  0.5347  155.8   3.930   52.3  0.0919   28.9  0.1859 -135.4
 2.980  0.5357  155.3   3.901   51.9  0.0922   28.8  0.1849 -136.2
 3.000  0.5368  154.8   3.873   51.5  0.0926   28.7  0.1839 -137.0
 3.100  0.5402  152.3   3.748   50.0  0.0943   28.1  0.1793 -141.0
 3.200  0.5446  149.7   3.625   48.3  0.0959   27.4  0.1756 -145.3
 3.300  0.5501  147.3   3.506   46.6  0.0976   26.8  0.1729 -149.7
 3.400  0.5566  144.9   3.390   44.7  0.0993   26.3  0.1713 -154.1
 3.500  0.5640  142.5   3.278   42.7  0.1010   25.7  0.1707 -158.7
 3.600  0.5680  140.3   3.183   41.2  0.1027   25.0  0.1701 -162.7
 3.700  0.5728  138.2   3.089   39.6  0.1044   24.3  0.1703 -166.6
 3.800  0.5784  136.1   2.999   38.0  0.1061   23.7  0.1713 -170.6
 3.900  0.5847  134.1   2.911   36.2  0.1079   23.0  0.1731 -174.4
 4.000  0.5918  132.1   2.826   34.3  0.1096   22.4  0.1757 -178.2
 4.100  0.5948  130.4   2.749   32.9  0.1111   21.7  0.1778  178.5
 4.200  0.5984  128.7   2.674   31.4  0.1126   20.9  0.1804  175.4
 4.300  0.6024  127.1   2.601   29.8  0.1142   20.2  0.1836  172.3
 4.400  0.6070  125.4   2.530   28.2  0.1157   19.6  0.1872  169.3
 4.500  0.6120  123.8   2.461   26.4  0.1173   18.9  0.1914  166.5
 4.600  0.6137  122.5   2.401   25.2  0.1187   18.2  0.1937  164.1
 4.700  0.6156  121.2   2.341   23.8  0.1202   17.5  0.1963  161.7
 4.800  0.6179  119.9   2.284   22.5  0.1217   16.9  0.1992  159.4
 4.900  0.6206  118.6   2.227   21.0  0.1232   16.2  0.2025  157.2
 5.000  0.6235  117.3   2.172   19.5  0.1247   15.6  0.2060  155.0
 5.100  0.6256  116.0   2.125   18.3  0.1261   14.9  0.2090  152.9
 5.200  0.6281  114.7   2.079   17.0  0.1275   14.2  0.2122  150.8
 5.300  0.6309  113.4   2.034   15.7  0.1289   13.6  0.2157  148.9
 5.400  0.6341  112.1   1.990   14.3  0.1303   12.9  0.2194  146.9
 5.500  0.6375  110.8   1.948   12.8  0.1318   12.3  0.2234  145.1
 5.600  0.6407  109.5   1.911   11.6  0.1332   11.6  0.2270  143.2
 5.700  0.6442  108.2   1.874   10.3  0.1347   10.9  0.2309  141.3
 5.800  0.6480  107.0   1.839    9.0  0.1361   10.3  0.2350  139.5
 5.900  0.6522  105.7   1.804    7.6  0.1376    9.6  0.2393  137.8
 6.000  0.6566  104.5   1.771    6.2  0.1391    9.0  0.2438  136.1
 6.100  0.6604  103.4   1.740    4.9  0.1406    8.2  0.2474  134.4
 6.200  0.6644  102.2   1.710    3.6  0.1422    7.4  0.2512  132.7
 6.300  0.6687  101.1   1.681    2.3  0.1438    6.6  0.2552  131.1
 6.400  0.6732  100.0   1.652    0.9  0.1454    5.8  0.2593  129.6
 6.500  0.6780   98.9   1.625   -0.6  0.1471    5.1  0.2637  128.1
 6.600  0.6805   97.7   1.599   -1.9  0.1488    4.2  0.2664  126.4
 6.800  0.6864   95.4   1.548   -4.7  0.1522    2.6  0.2726  123.2
 7.000  0.6933   93.2   1.502   -7.7  0.1557    1.0  0.2795  120.2
 7.200  0.6972   90.8   1.456  -10.4  0.1588   -1.0  0.2877  117.1
 7.400  0.7023   88.5   1.414  -13.2  0.1621   -3.0  0.2967  114.3
 7.600  0.7069   85.9   1.369  -16.0  0.1646   -5.0  0.3064  111.3
 7.800  0.7113   83.3   1.321  -18.9  0.1665   -7.2  0.3170  108.3
 8.000  0.7172   80.6   1.277  -21.9  0.1686   -9.4  0.3285  105.5
 8.200  0.7222   77.8   1.227  -24.4  0.1686  -11.4  0.3409  102.0
 8.400  0.7290   75.0   1.180  -27.2  0.1687  -13.3  0.3544   98.8
 8.600  0.7387   72.3   1.137  -29.6  0.1689  -15.0  0.3707   95.8
 8.800  0.7513   69.8   1.097  -31.8  0.1689  -16.4  0.3896   93.0
 9.000  0.7653   67.3   1.058  -34.2  0.1690  -17.8  0.4094   90.5
 9.200  0.7852   65.4   1.027  -36.2  0.1695  -19.0  0.4324   88.6
 9.400  0.8060   63.6   0.998  -38.4  0.1701  -20.3  0.4558   86.8
 9.600  0.8244   62.0   0.965  -40.5  0.1708  -21.6  0.4779   85.2
 9.800  0.8400   60.7   0.927  -42.6  0.1715  -22.9  0.4984   83.8
10.000  0.8561   59.4   0.891  -44.9  0.1724  -24.3  0.5193   82.5
!
!  f       NFmin   Gammaopt  rn/50
! GHz       dB    MAG  ANG    -
 0.900      0.79  0.08   30   0.13
 1.800      1.14  0.06  171   0.12
 2.400      1.24  0.10  160   0.13
 3.000      1.32  0.17 -165   0.12
 4.000      1.46  0.32 -132   0.14
 5.000      1.85  0.39 -110   0.25
 6.000      2.30  0.46  -95   0.37
!
! (c) 2016  Infineon Technologies AG, Munich
