! Infineon Technologies  Discrete & RF Semiconductors
! BFP420
! VCE =  1.0 V,  IC =  30 mA
! Common Emitter S-Parameters:                            Jan 2016
# GHz  S  MA  R  50
!  f         S11            S21            S12            S22
! GHz     MAG   ANG      MAG   ANG      MAG   ANG      MAG   ANG
 0.010  0.3902   -4.9  48.505  179.5  0.0017   92.0  0.8858    2.2
 0.015  0.3900   -7.5  48.148  177.8  0.0019   90.8  0.8953   -0.6
 0.020  0.3906  -10.1  47.836  176.0  0.0021   89.9  0.9069   -3.3
 0.025  0.3891  -12.3  47.731  174.9  0.0025   88.0  0.9060   -4.4
 0.030  0.3882  -14.4  47.645  173.7  0.0030   86.6  0.9054   -5.6
 0.035  0.3879  -16.6  47.578  172.6  0.0034   85.6  0.9052   -6.7
 0.040  0.3881  -18.8  47.529  171.5  0.0038   84.8  0.9053   -7.8
 0.045  0.3889  -20.9  47.498  170.3  0.0043   84.2  0.9058   -9.0
 0.050  0.3902  -23.1  47.487  169.2  0.0047   83.7  0.9067  -10.1
 0.055  0.3883  -25.3  47.243  168.2  0.0051   82.4  0.9021  -11.2
 0.060  0.3869  -27.5  47.014  167.1  0.0055   81.4  0.8978  -12.2
 0.065  0.3862  -29.8  46.801  166.0  0.0059   80.5  0.8938  -13.3
 0.070  0.3860  -32.0  46.605  165.0  0.0063   79.6  0.8901  -14.4
 0.075  0.3864  -34.2  46.425  163.9  0.0067   78.9  0.8867  -15.5
 0.080  0.3874  -36.5  46.261  162.8  0.0071   78.3  0.8837  -16.5
 0.085  0.3890  -38.7  46.114  161.7  0.0076   77.8  0.8810  -17.7
 0.090  0.3912  -40.9  45.984  160.6  0.0080   77.3  0.8786  -18.8
 0.095  0.3939  -43.1  45.872  159.5  0.0084   76.8  0.8765  -19.9
 0.100  0.3972  -45.2  45.776  158.4  0.0088   76.4  0.8748  -21.0
 0.105  0.3960  -47.1  45.414  157.5  0.0092   75.7  0.8685  -21.9
 0.110  0.3952  -49.0  45.064  156.5  0.0095   75.0  0.8623  -22.9
 0.115  0.3948  -50.9  44.726  155.6  0.0099   74.3  0.8565  -23.8
 0.120  0.3950  -52.9  44.401  154.6  0.0102   73.7  0.8508  -24.8
 0.125  0.3955  -54.8  44.089  153.6  0.0106   73.2  0.8454  -25.8
 0.130  0.3965  -56.7  43.790  152.6  0.0109   72.7  0.8403  -26.8
 0.135  0.3979  -58.6  43.505  151.6  0.0113   72.2  0.8354  -27.8
 0.140  0.3998  -60.5  43.233  150.6  0.0117   71.7  0.8308  -28.8
 0.145  0.4021  -62.4  42.975  149.5  0.0120   71.3  0.8265  -29.9
 0.150  0.4048  -64.2  42.732  148.5  0.0124   70.9  0.8224  -30.9
 0.155  0.4044  -65.8  42.357  147.7  0.0127   70.3  0.8156  -31.7
 0.160  0.4042  -67.4  41.990  146.9  0.0130   69.8  0.8089  -32.5
 0.165  0.4044  -69.1  41.632  146.1  0.0133   69.3  0.8024  -33.3
 0.170  0.4050  -70.7  41.281  145.3  0.0136   68.8  0.7961  -34.1
 0.175  0.4058  -72.3  40.939  144.5  0.0139   68.3  0.7899  -34.9
 0.180  0.4070  -73.9  40.606  143.6  0.0142   67.9  0.7839  -35.8
 0.185  0.4085  -75.5  40.283  142.8  0.0146   67.5  0.7780  -36.6
 0.190  0.4103  -77.1  39.968  141.9  0.0149   67.1  0.7724  -37.5
 0.195  0.4124  -78.6  39.663  141.0  0.0152   66.7  0.7669  -38.4
 0.200  0.4148  -80.2  39.367  140.1  0.0155   66.3  0.7616  -39.3
 0.220  0.4145  -85.8  37.887  137.3  0.0165   64.7  0.7359  -42.1
 0.240  0.4182  -91.3  36.505  134.3  0.0175   63.3  0.7121  -45.1
 0.260  0.4216  -96.3  35.200  131.5  0.0184   62.1  0.6888  -47.9
 0.280  0.4241 -100.8  33.938  129.1  0.0193   61.1  0.6654  -50.4
 0.300  0.4292 -105.3  32.742  126.5  0.0201   60.1  0.6433  -53.1
 0.320  0.4307 -109.1  31.570  124.5  0.0209   59.3  0.6219  -55.2
 0.340  0.4340 -112.8  30.439  122.3  0.0216   58.6  0.6014  -57.4
 0.360  0.4368 -116.3  29.371  120.3  0.0223   57.9  0.5821  -59.5
 0.380  0.4385 -119.5  28.354  118.5  0.0230   57.3  0.5638  -61.4
 0.400  0.4416 -122.7  27.368  116.5  0.0236   56.7  0.5461  -63.5
 0.420  0.4427 -125.4  26.454  115.0  0.0242   56.3  0.5296  -65.1
 0.440  0.4449 -128.2  25.559  113.4  0.0248   56.0  0.5135  -66.9
 0.450  0.4463 -129.5  25.120  112.5  0.0251   55.8  0.5057  -67.8
 0.460  0.4469 -130.7  24.719  111.8  0.0254   55.7  0.4985  -68.6
 0.480  0.4485 -133.1  23.929  110.4  0.0259   55.4  0.4843  -70.2
 0.500  0.4510 -135.4  23.154  108.9  0.0265   55.1  0.4705  -71.9
 0.520  0.4514 -137.4  22.486  107.8  0.0270   54.9  0.4585  -73.2
 0.540  0.4523 -139.3  21.827  106.7  0.0276   54.8  0.4467  -74.5
 0.560  0.4537 -141.3  21.177  105.5  0.0281   54.7  0.4351  -75.9
 0.580  0.4556 -143.2  20.537  104.2  0.0287   54.5  0.4239  -77.4
 0.600  0.4581 -145.1  19.908  102.8  0.0292   54.4  0.4129  -79.0
 0.620  0.4587 -146.7  19.389  101.9  0.0297   54.4  0.4036  -80.1
 0.640  0.4596 -148.2  18.874  101.0  0.0302   54.4  0.3945  -81.3
 0.660  0.4609 -149.8  18.365  100.0  0.0308   54.3  0.3856  -82.5
 0.680  0.4625 -151.4  17.861   99.0  0.0313   54.3  0.3768  -83.8
 0.700  0.4645 -152.9  17.364   97.9  0.0318   54.3  0.3683  -85.2
 0.720  0.4649 -154.2  16.952   97.1  0.0323   54.3  0.3610  -86.3
 0.740  0.4656 -155.4  16.544   96.3  0.0328   54.3  0.3539  -87.3
 0.760  0.4665 -156.7  16.139   95.4  0.0334   54.2  0.3469  -88.5
 0.780  0.4677 -158.0  15.738   94.5  0.0339   54.2  0.3400  -89.7
 0.800  0.4690 -159.2  15.341   93.6  0.0344   54.2  0.3333  -90.9
 0.820  0.4698 -160.3  15.011   92.9  0.0349   54.2  0.3275  -91.9
 0.840  0.4707 -161.4  14.684   92.2  0.0354   54.2  0.3218  -92.9
 0.860  0.4718 -162.5  14.359   91.5  0.0360   54.2  0.3162  -94.0
 0.880  0.4731 -163.5  14.036   90.7  0.0365   54.2  0.3107  -95.1
 0.900  0.4745 -164.6  13.716   89.9  0.0370   54.2  0.3053  -96.3
 0.920  0.4752 -165.6  13.443   89.3  0.0375   54.2  0.3006  -97.3
 0.940  0.4759 -166.5  13.172   88.7  0.0380   54.2  0.2959  -98.4
 0.960  0.4769 -167.5  12.903   88.0  0.0386   54.2  0.2914  -99.4
 0.980  0.4779 -168.4  12.635   87.3  0.0391   54.2  0.2869 -100.6
 1.000  0.4791 -169.4  12.369   86.6  0.0396   54.2  0.2826 -101.7
 1.020  0.4798 -170.2  12.142   86.1  0.0401   54.2  0.2788 -102.6
 1.040  0.4806 -171.0  11.916   85.5  0.0407   54.2  0.2750 -103.5
 1.060  0.4816 -171.9  11.691   84.9  0.0412   54.3  0.2713 -104.5
 1.080  0.4826 -172.7  11.467   84.3  0.0418   54.3  0.2677 -105.5
 1.100  0.4837 -173.5  11.245   83.7  0.0423   54.3  0.2642 -106.5
 1.120  0.4844 -174.3  11.053   83.2  0.0428   54.3  0.2610 -107.5
 1.140  0.4852 -175.1  10.862   82.6  0.0434   54.2  0.2579 -108.5
 1.160  0.4861 -175.8  10.672   82.1  0.0439   54.2  0.2549 -109.6
 1.180  0.4871 -176.6  10.483   81.5  0.0445   54.1  0.2520 -110.7
 1.200  0.4882 -177.4  10.295   80.9  0.0450   54.1  0.2492 -111.8
 1.220  0.4887 -178.1  10.132   80.4  0.0456   54.1  0.2466 -112.7
 1.240  0.4892 -178.8   9.970   79.9  0.0461   54.0  0.2440 -113.6
 1.260  0.4898 -179.4   9.808   79.4  0.0467   54.0  0.2414 -114.6
 1.280  0.4905  179.9   9.647   78.9  0.0472   53.9  0.2390 -115.5
 1.300  0.4912  179.2   9.487   78.4  0.0478   53.9  0.2366 -116.5
 1.320  0.4919  178.6   9.346   77.9  0.0483   53.8  0.2345 -117.4
 1.340  0.4927  178.0   9.205   77.5  0.0489   53.8  0.2325 -118.4
 1.360  0.4936  177.3   9.065   77.0  0.0494   53.7  0.2306 -119.4
 1.380  0.4945  176.7   8.926   76.5  0.0500   53.7  0.2287 -120.4
 1.400  0.4955  176.1   8.787   76.0  0.0505   53.6  0.2269 -121.4
 1.420  0.4961  175.5   8.665   75.6  0.0511   53.5  0.2250 -122.3
 1.440  0.4967  174.9   8.544   75.2  0.0516   53.5  0.2232 -123.2
 1.460  0.4974  174.4   8.423   74.7  0.0522   53.4  0.2214 -124.1
 1.480  0.4981  173.8   8.303   74.3  0.0527   53.4  0.2197 -125.1
 1.500  0.4989  173.2   8.183   73.8  0.0533   53.3  0.2180 -126.0
 1.520  0.4994  172.7   8.075   73.4  0.0539   53.2  0.2166 -126.9
 1.540  0.5000  172.2   7.968   73.0  0.0544   53.1  0.2153 -127.8
 1.560  0.5006  171.6   7.861   72.5  0.0550   53.1  0.2140 -128.7
 1.580  0.5012  171.1   7.754   72.1  0.0555   53.0  0.2128 -129.6
 1.600  0.5019  170.6   7.648   71.6  0.0561   52.9  0.2116 -130.5
 1.620  0.5024  170.0   7.553   71.2  0.0567   52.8  0.2104 -131.4
 1.640  0.5030  169.4   7.459   70.8  0.0572   52.7  0.2092 -132.3
 1.660  0.5036  168.8   7.365   70.4  0.0578   52.6  0.2081 -133.2
 1.680  0.5043  168.2   7.272   69.9  0.0583   52.5  0.2071 -134.2
 1.700  0.5050  167.6   7.179   69.5  0.0589   52.4  0.2061 -135.1
 1.720  0.5054  167.1   7.094   69.1  0.0595   52.3  0.2050 -135.9
 1.740  0.5058  166.7   7.009   68.7  0.0600   52.2  0.2040 -136.7
 1.760  0.5062  166.2   6.924   68.3  0.0606   52.0  0.2030 -137.5
 1.780  0.5067  165.8   6.840   67.9  0.0611   51.9  0.2020 -138.4
 1.800  0.5072  165.3   6.756   67.5  0.0617   51.8  0.2011 -139.2
 1.820  0.5081  164.8   6.679   67.1  0.0622   51.7  0.2005 -140.1
 1.840  0.5090  164.3   6.602   66.8  0.0628   51.6  0.1999 -141.1
 1.860  0.5100  163.7   6.525   66.4  0.0633   51.4  0.1994 -142.0
 1.880  0.5110  163.2   6.449   66.0  0.0639   51.3  0.1990 -143.0
 1.900  0.5120  162.7   6.373   65.6  0.0644   51.2  0.1986 -143.9
 1.920  0.5119  162.2   6.306   65.2  0.0650   51.1  0.1978 -144.6
 1.940  0.5118  161.8   6.239   64.9  0.0656   50.9  0.1970 -145.4
 1.960  0.5118  161.3   6.173   64.5  0.0661   50.8  0.1962 -146.2
 1.980  0.5118  160.9   6.107   64.1  0.0667   50.6  0.1955 -146.9
 2.000  0.5118  160.4   6.041   63.7  0.0673   50.5  0.1948 -147.7
 2.020  0.5123  159.9   5.982   63.4  0.0678   50.3  0.1944 -148.5
 2.040  0.5129  159.4   5.923   63.0  0.0684   50.2  0.1940 -149.4
 2.060  0.5135  158.9   5.864   62.7  0.0689   50.1  0.1936 -150.2
 2.080  0.5142  158.5   5.805   62.3  0.0695   49.9  0.1933 -151.0
 2.100  0.5149  158.0   5.747   61.9  0.0700   49.8  0.1930 -151.9
 2.120  0.5156  157.5   5.689   61.6  0.0706   49.6  0.1928 -152.7
 2.140  0.5164  157.0   5.631   61.2  0.0711   49.5  0.1926 -153.6
 2.160  0.5172  156.5   5.573   60.8  0.0717   49.4  0.1925 -154.4
 2.180  0.5180  156.1   5.516   60.4  0.0722   49.2  0.1924 -155.3
 2.200  0.5189  155.6   5.459   60.0  0.0728   49.1  0.1923 -156.1
 2.220  0.5195  155.2   5.409   59.7  0.0733   48.9  0.1922 -156.9
 2.240  0.5201  154.7   5.360   59.4  0.0739   48.7  0.1922 -157.8
 2.260  0.5207  154.3   5.311   59.0  0.0744   48.6  0.1922 -158.6
 2.280  0.5213  153.8   5.261   58.7  0.0750   48.4  0.1922 -159.4
 2.300  0.5220  153.4   5.213   58.3  0.0755   48.2  0.1923 -160.3
 2.320  0.5227  152.9   5.164   58.0  0.0760   48.1  0.1924 -161.1
 2.340  0.5235  152.5   5.115   57.6  0.0766   47.9  0.1926 -161.9
 2.360  0.5243  152.1   5.067   57.3  0.0771   47.7  0.1928 -162.7
 2.380  0.5251  151.6   5.019   56.9  0.0777   47.6  0.1930 -163.6
 2.400  0.5259  151.2   4.971   56.5  0.0782   47.4  0.1933 -164.4
 2.420  0.5268  150.8   4.929   56.2  0.0787   47.2  0.1935 -165.2
 2.440  0.5277  150.3   4.887   55.8  0.0792   47.0  0.1937 -166.0
 2.460  0.5287  149.9   4.845   55.5  0.0798   46.9  0.1940 -166.7
 2.480  0.5297  149.5   4.804   55.2  0.0803   46.7  0.1943 -167.5
 2.500  0.5307  149.1   4.762   54.8  0.0808   46.5  0.1946 -168.3
 2.520  0.5317  148.7   4.721   54.5  0.0813   46.4  0.1950 -169.1
 2.540  0.5328  148.2   4.680   54.1  0.0818   46.2  0.1954 -169.8
 2.560  0.5339  147.8   4.639   53.7  0.0824   46.0  0.1958 -170.6
 2.580  0.5350  147.4   4.598   53.4  0.0829   45.9  0.1963 -171.3
 2.600  0.5362  147.0   4.558   53.0  0.0834   45.7  0.1968 -172.1
 2.620  0.5370  146.6   4.522   52.7  0.0839   45.5  0.1972 -172.8
 2.640  0.5377  146.2   4.486   52.4  0.0845   45.4  0.1976 -173.5
 2.660  0.5386  145.8   4.451   52.1  0.0850   45.2  0.1980 -174.2
 2.680  0.5394  145.5   4.415   51.8  0.0855   45.0  0.1985 -174.9
 2.700  0.5403  145.1   4.380   51.5  0.0860   44.9  0.1990 -175.6
 2.720  0.5411  144.7   4.345   51.1  0.0866   44.7  0.1995 -176.3
 2.740  0.5420  144.3   4.309   50.8  0.0871   44.6  0.2001 -177.0
 2.760  0.5430  143.9   4.274   50.5  0.0876   44.4  0.2006 -177.7
 2.780  0.5439  143.6   4.240   50.1  0.0882   44.3  0.2013 -178.4
 2.800  0.5449  143.2   4.205   49.8  0.0887   44.1  0.2019 -179.1
 2.820  0.5458  142.8   4.174   49.5  0.0892   43.9  0.2024 -179.8
 2.840  0.5466  142.5   4.143   49.2  0.0897   43.7  0.2029  179.6
 2.860  0.5476  142.1   4.112   48.9  0.0902   43.5  0.2035  178.9
 2.880  0.5485  141.7   4.081   48.6  0.0907   43.4  0.2041  178.3
 2.900  0.5494  141.4   4.051   48.3  0.0912   43.2  0.2047  177.6
 2.920  0.5504  141.0   4.020   47.9  0.0917   43.0  0.2054  177.0
 2.940  0.5514  140.7   3.990   47.6  0.0923   42.8  0.2060  176.3
 2.960  0.5524  140.3   3.960   47.3  0.0928   42.6  0.2067  175.7
 2.980  0.5534  140.0   3.930   46.9  0.0933   42.5  0.2075  175.0
 3.000  0.5545  139.6   3.900   46.6  0.0938   42.3  0.2082  174.4
 3.100  0.5595  137.7   3.772   45.2  0.0962   41.2  0.2120  171.3
 3.200  0.5650  135.8   3.646   43.8  0.0986   40.2  0.2164  168.3
 3.300  0.5712  134.0   3.523   42.2  0.1010   39.2  0.2213  165.4
 3.400  0.5779  132.2   3.403   40.5  0.1035   38.3  0.2268  162.6
 3.500  0.5852  130.5   3.286   38.7  0.1060   37.4  0.2328  160.0
 3.600  0.5897  128.8   3.190   37.4  0.1082   36.3  0.2377  157.6
 3.700  0.5947  127.2   3.095   35.9  0.1105   35.3  0.2430  155.3
 3.800  0.6002  125.6   3.002   34.4  0.1129   34.3  0.2487  153.0
 3.900  0.6061  124.0   2.912   32.8  0.1152   33.3  0.2547  150.9
 4.000  0.6125  122.4   2.824   31.1  0.1176   32.4  0.2611  148.9
 4.100  0.6158  121.0   2.747   29.8  0.1195   31.3  0.2659  147.0
 4.200  0.6194  119.7   2.671   28.5  0.1215   30.3  0.2710  145.3
 4.300  0.6233  118.4   2.598   27.0  0.1235   29.3  0.2763  143.5
 4.400  0.6276  117.1   2.525   25.5  0.1256   28.3  0.2819  141.9
 4.500  0.6322  115.8   2.455   23.9  0.1277   27.4  0.2877  140.3
 4.600  0.6339  114.7   2.395   22.7  0.1295   26.4  0.2912  138.8
 4.700  0.6358  113.7   2.336   21.5  0.1314   25.5  0.2949  137.4
 4.800  0.6380  112.6   2.279   20.3  0.1333   24.6  0.2988  136.0
 4.900  0.6403  111.5   2.222   18.9  0.1352   23.7  0.3029  134.6
 5.000  0.6429  110.5   2.167   17.5  0.1372   22.9  0.3071  133.3
 5.100  0.6451  109.4   2.121   16.4  0.1389   22.0  0.3110  132.0
 5.200  0.6475  108.3   2.075   15.2  0.1407   21.1  0.3150  130.6
 5.300  0.6501  107.2   2.030   13.9  0.1425   20.2  0.3192  129.4
 5.400  0.6530  106.1   1.987   12.7  0.1443   19.3  0.3235  128.1
 5.500  0.6561  105.0   1.944   11.3  0.1462   18.5  0.3280  126.9
 5.600  0.6595  103.9   1.907   10.1  0.1479   17.5  0.3325  125.6
 5.700  0.6631  102.8   1.871    8.9  0.1497   16.6  0.3371  124.3
 5.800  0.6670  101.7   1.836    7.7  0.1515   15.7  0.3419  123.0
 5.900  0.6711  100.6   1.801    6.4  0.1534   14.8  0.3469  121.8
 6.000  0.6755   99.5   1.768    5.0  0.1553   13.9  0.3520  120.6
 6.100  0.6791   98.5   1.737    3.8  0.1570   12.9  0.3559  119.3
 6.200  0.6828   97.4   1.706    2.5  0.1588   11.8  0.3600  118.0
 6.300  0.6869   96.4   1.676    1.2  0.1606   10.8  0.3642  116.7
 6.400  0.6911   95.4   1.647   -0.1  0.1625    9.9  0.3686  115.5
 6.500  0.6955   94.4   1.619   -1.5  0.1644    8.9  0.3732  114.3
 6.600  0.6981   93.4   1.593   -2.7  0.1662    7.8  0.3759  112.9
 6.800  0.7040   91.3   1.543   -5.3  0.1698    5.8  0.3820  110.3
 7.000  0.7107   89.3   1.497   -8.1  0.1737    3.8  0.3889  107.7
 7.200  0.7138   87.1   1.451  -10.7  0.1768    1.5  0.3965  105.2
 7.400  0.7180   84.9   1.408  -13.5  0.1802   -0.8  0.4048  102.8
 7.600  0.7221   82.5   1.363  -16.3  0.1827   -3.2  0.4137  100.3
 7.800  0.7262   80.0   1.315  -19.1  0.1843   -5.7  0.4234   97.8
 8.000  0.7318   77.5   1.270  -22.0  0.1862   -8.1  0.4339   95.4
 8.200  0.7365   74.8   1.220  -24.4  0.1857  -10.3  0.4450   92.6
 8.400  0.7429   72.2   1.172  -27.0  0.1854  -12.4  0.4572   90.0
 8.600  0.7524   69.7   1.128  -29.4  0.1852  -14.3  0.4721   87.5
 8.800  0.7650   67.4   1.087  -31.4  0.1849  -15.8  0.4898   85.2
 9.000  0.7789   65.1   1.048  -33.6  0.1847  -17.3  0.5082   83.1
 9.200  0.7983   63.3   1.018  -35.5  0.1851  -18.7  0.5299   81.4
 9.400  0.8185   61.5   0.989  -37.5  0.1856  -20.1  0.5521   79.8
 9.600  0.8360   60.0   0.956  -39.4  0.1861  -21.5  0.5725   78.3
 9.800  0.8506   58.7   0.920  -41.3  0.1865  -23.0  0.5911   76.8
10.000  0.8656   57.5   0.884  -43.4  0.1870  -24.5  0.6100   75.5
!
!  f       NFmin   Gammaopt  rn/50
! GHz       dB    MAG  ANG    -
 0.900      1.51  0.26 -155   0.13
 1.800      1.78  0.33 -142   0.14
 2.400      1.96  0.30 -136   0.18
 3.000      1.98  0.38 -127   0.20
 4.000      2.11  0.47 -111   0.31
 5.000      2.57  0.53  -94   0.51
 6.000      3.00  0.57  -82   0.74
!
! (c) 2016  Infineon Technologies AG, Munich
