! Infineon Technologies  Discrete & RF Semiconductors
! BFP420F
!
! VCE =  1.5 V,  IC =  25 mA
! Common Emitter S-Parameters:                            Sep 2011
# GHz  S  MA  R  50
!  f         S11            S21            S12            S22
! GHz     MAG   ANG      MAG   ANG      MAG   ANG      MAG   ANG
 0.030  0.4236   -8.9  43.566  173.2  0.0024   89.9  0.9417   -4.1
 0.040  0.4213  -11.7  43.416  171.0  0.0033   86.2  0.9413   -5.8
 0.050  0.4172  -14.3  42.760  168.7  0.0042   87.8  0.9393   -7.4
 0.060  0.4235  -18.0  42.637  167.0  0.0046   83.3  0.9349   -9.1
 0.070  0.4205  -20.9  42.311  165.1  0.0055   82.8  0.9296  -10.7
 0.080  0.4159  -22.9  41.603  163.0  0.0063   82.7  0.9236  -12.2
 0.090  0.4146  -26.2  41.250  161.3  0.0069   82.1  0.9174  -13.7
 0.100  0.4138  -29.1  40.949  159.2  0.0077   80.7  0.9099  -15.2
 0.110  0.4148  -31.5  40.083  157.7  0.0085   80.6  0.9014  -16.6
 0.120  0.4086  -34.5  39.782  155.6  0.0092   80.0  0.8931  -18.0
 0.130  0.4088  -37.0  39.010  154.0  0.0099   79.2  0.8846  -19.4
 0.140  0.4047  -39.5  38.432  152.5  0.0105   78.3  0.8756  -20.7
 0.150  0.4072  -42.2  37.937  150.9  0.0111   76.9  0.8666  -22.0
 0.200  0.4019  -54.6  35.177  143.9  0.0143   74.2  0.8195  -28.0
 0.250  0.3903  -65.4  32.433  137.6  0.0170   71.0  0.7695  -33.0
 0.300  0.3856  -75.7  30.137  132.2  0.0197   69.0  0.7246  -37.6
 0.350  0.3807  -84.7  27.835  127.4  0.0219   67.2  0.6794  -41.5
 0.400  0.3761  -92.5  25.745  123.2  0.0240   65.9  0.6390  -45.0
 0.450  0.3718  -99.6  23.989  119.4  0.0260   64.8  0.6018  -48.0
 0.500  0.3674 -106.0  22.280  116.1  0.0278   63.9  0.5661  -50.8
 0.600  0.3640 -117.5  19.432  110.3  0.0311   62.9  0.5050  -55.7
 0.700  0.3618 -126.5  17.222  105.4  0.0344   62.1  0.4569  -59.9
 0.800  0.3605 -134.2  15.335  101.1  0.0374   62.0  0.4143  -63.5
 0.900  0.3603 -140.6  13.747   97.8  0.0404   61.7  0.3785  -66.8
 1.000  0.3633 -145.9  12.498   94.7  0.0435   61.8  0.3485  -70.1
 1.100  0.3631 -151.1  11.418   91.9  0.0464   61.6  0.3219  -73.1
 1.200  0.3638 -155.4  10.425   89.3  0.0494   61.6  0.3002  -76.2
 1.300  0.3650 -159.1   9.650   87.2  0.0523   61.5  0.2808  -78.9
 1.400  0.3699 -162.5   8.982   85.2  0.0554   61.6  0.2641  -82.0
 1.500  0.3693 -166.1   8.357   82.9  0.0584   61.4  0.2478  -84.6
 1.600  0.3710 -168.6   7.768   81.3  0.0613   61.3  0.2349  -87.9
 1.700  0.3731 -171.1   7.322   79.8  0.0642   61.2  0.2222  -90.7
 1.800  0.3768 -173.4   6.930   78.3  0.0673   61.1  0.2129  -93.8
 1.900  0.3787 -176.1   6.555   76.3  0.0704   60.8  0.2041  -96.7
 2.000  0.3783 -177.9   6.158   75.0  0.0733   60.5  0.1970  -99.8
 2.200  0.3836  178.6   5.613   72.5  0.0793   60.1  0.1866 -105.4
 2.400  0.3830  174.9   5.085   69.8  0.0854   59.2  0.1793 -110.6
 2.600  0.3865  171.8   4.697   67.6  0.0913   58.7  0.1734 -115.3
 2.800  0.3877  168.7   4.355   65.1  0.0976   57.8  0.1701 -119.5
 3.000  0.3897  165.7   4.051   63.0  0.1036   57.0  0.1676 -123.5
 3.500  0.3952  159.5   3.464   57.6  0.1189   54.6  0.1636 -131.7
 4.000  0.4007  153.5   3.031   52.4  0.1341   51.9  0.1603 -138.8
 4.500  0.4079  148.4   2.700   47.4  0.1494   48.9  0.1538 -146.0
 5.000  0.4128  144.1   2.440   42.5  0.1641   45.8  0.1454 -153.9
 5.500  0.4182  139.4   2.226   37.6  0.1785   42.5  0.1355 -163.2
 6.000  0.4250  134.1   2.049   32.7  0.1925   39.1  0.1247 -175.0
 6.500  0.4377  128.5   1.896   27.8  0.2057   35.7  0.1211  170.6
 7.000  0.4521  122.9   1.761   22.9  0.2185   32.2  0.1205  155.1
 7.500  0.4742  118.6   1.642   18.2  0.2314   28.7  0.1314  139.8
 8.000  0.4995  114.7   1.533   13.4  0.2428   24.8  0.1583  124.9
 8.500  0.5295  111.1   1.428    8.7  0.2515   21.0  0.1995  111.2
 9.000  0.5585  107.8   1.333    4.7  0.2586   17.5  0.2496  100.9
 9.500  0.5869  104.7   1.249    1.0  0.2651   14.5  0.3061   94.9
10.000  0.6179  101.0   1.176   -2.2  0.2716   11.8  0.3655   91.6
!
!  f       NFmin   Gammaopt  rn/50
! GHz       dB    MAG  ANG    -
 0.450      1.66  0.23 -177   0.10
 0.900      1.68  0.25 -175   0.13
 1.900      1.81  0.32 -166   0.14
 2.400      1.87  0.32 -160   0.12
 3.500      2.10  0.32 -151   0.17
!
! (c) 2011  Infineon Technologies AG, Munich
