! Infineon Technologies  Discrete & RF Semiconductors
! BFP420
! VCE =  3.5 V,  IC =  20 mA
! Common Emitter S-Parameters:                            Jan 2016
# GHz  S  MA  R  50
!  f         S11            S21            S12            S22
! GHz     MAG   ANG      MAG   ANG      MAG   ANG      MAG   ANG
 0.010  0.5275   -1.9  41.623  178.6  0.0012   57.6  0.9337    2.0
 0.015  0.5243   -3.2  41.050  177.4  0.0014   68.6  0.9391    0.0
 0.020  0.5214   -4.5  40.495  176.2  0.0017   76.3  0.9456   -1.9
 0.025  0.5210   -5.9  40.404  175.4  0.0020   76.4  0.9454   -2.6
 0.030  0.5210   -7.2  40.321  174.6  0.0023   76.6  0.9453   -3.3
 0.035  0.5212   -8.6  40.246  173.8  0.0026   76.6  0.9454   -4.0
 0.040  0.5217   -9.9  40.178  173.0  0.0029   76.7  0.9456   -4.6
 0.045  0.5225  -11.3  40.119  172.2  0.0032   76.8  0.9459   -5.3
 0.050  0.5236  -12.6  40.067  171.4  0.0035   76.8  0.9464   -6.0
 0.055  0.5218  -13.9  39.950  170.6  0.0038   76.7  0.9443   -6.6
 0.060  0.5202  -15.2  39.840  169.9  0.0042   76.5  0.9422   -7.3
 0.065  0.5189  -16.5  39.737  169.1  0.0045   76.4  0.9404   -8.0
 0.070  0.5179  -17.8  39.641  168.4  0.0049   76.3  0.9386   -8.6
 0.075  0.5171  -19.2  39.553  167.6  0.0052   76.3  0.9369   -9.3
 0.080  0.5166  -20.5  39.471  166.8  0.0055   76.2  0.9354   -9.9
 0.085  0.5164  -21.8  39.397  166.0  0.0059   76.1  0.9340  -10.6
 0.090  0.5165  -23.1  39.329  165.3  0.0062   76.1  0.9328  -11.3
 0.095  0.5169  -24.5  39.270  164.5  0.0066   76.0  0.9316  -11.9
 0.100  0.5175  -25.8  39.217  163.7  0.0069   76.0  0.9306  -12.6
 0.105  0.5157  -27.0  39.039  163.0  0.0072   75.6  0.9272  -13.2
 0.110  0.5142  -28.2  38.867  162.2  0.0075   75.2  0.9240  -13.8
 0.115  0.5128  -29.4  38.701  161.5  0.0079   74.8  0.9208  -14.4
 0.120  0.5118  -30.6  38.542  160.8  0.0082   74.5  0.9178  -15.0
 0.125  0.5109  -31.9  38.390  160.0  0.0085   74.2  0.9148  -15.6
 0.130  0.5103  -33.1  38.244  159.3  0.0088   73.9  0.9120  -16.2
 0.135  0.5099  -34.3  38.104  158.5  0.0091   73.7  0.9092  -16.8
 0.140  0.5097  -35.5  37.972  157.7  0.0095   73.4  0.9066  -17.4
 0.145  0.5098  -36.8  37.846  157.0  0.0098   73.2  0.9040  -18.1
 0.150  0.5101  -38.0  37.727  156.2  0.0101   73.0  0.9016  -18.7
 0.155  0.5083  -39.1  37.530  155.5  0.0104   72.6  0.8975  -19.2
 0.160  0.5067  -40.3  37.337  154.9  0.0107   72.3  0.8935  -19.8
 0.165  0.5053  -41.4  37.150  154.2  0.0110   71.9  0.8896  -20.3
 0.170  0.5041  -42.5  36.968  153.5  0.0113   71.6  0.8858  -20.9
 0.175  0.5031  -43.7  36.791  152.8  0.0115   71.3  0.8820  -21.4
 0.180  0.5023  -44.9  36.619  152.1  0.0118   71.0  0.8783  -22.0
 0.185  0.5017  -46.0  36.453  151.4  0.0121   70.7  0.8747  -22.6
 0.190  0.5013  -47.2  36.292  150.7  0.0124   70.5  0.8712  -23.1
 0.195  0.5011  -48.3  36.137  150.0  0.0127   70.2  0.8678  -23.7
 0.200  0.5011  -49.5  35.988  149.3  0.0130   70.0  0.8645  -24.3
 0.220  0.4937  -53.7  35.119  146.8  0.0140   68.7  0.8475  -26.2
 0.240  0.4890  -58.1  34.318  144.2  0.0151   67.6  0.8314  -28.2
 0.260  0.4847  -62.3  33.537  141.8  0.0161   66.5  0.8148  -30.1
 0.280  0.4802  -66.3  32.761  139.5  0.0170   65.4  0.7973  -31.9
 0.300  0.4781  -70.3  32.040  137.1  0.0179   64.4  0.7807  -33.8
 0.320  0.4724  -73.9  31.233  135.1  0.0187   63.5  0.7634  -35.3
 0.340  0.4686  -77.6  30.465  133.1  0.0195   62.6  0.7467  -36.9
 0.360  0.4652  -81.1  29.707  131.1  0.0202   61.8  0.7303  -38.4
 0.380  0.4618  -84.4  28.951  129.2  0.0209   61.0  0.7140  -39.8
 0.400  0.4600  -87.7  28.229  127.2  0.0216   60.3  0.6981  -41.2
 0.420  0.4557  -90.7  27.506  125.6  0.0223   59.7  0.6826  -42.4
 0.440  0.4526  -93.8  26.806  123.9  0.0230   59.2  0.6675  -43.7
 0.450  0.4516  -95.4  26.465  123.0  0.0233   58.9  0.6600  -44.3
 0.460  0.4497  -96.8  26.127  122.3  0.0236   58.6  0.6528  -44.9
 0.480  0.4467  -99.6  25.466  120.7  0.0242   58.2  0.6386  -46.0
 0.500  0.4448 -102.4  24.824  119.1  0.0248   57.7  0.6246  -47.2
 0.520  0.4412 -104.8  24.223  117.9  0.0253   57.3  0.6118  -48.1
 0.540  0.4384 -107.2  23.635  116.6  0.0258   56.9  0.5992  -49.0
 0.560  0.4363 -109.7  23.059  115.2  0.0264   56.5  0.5868  -50.0
 0.580  0.4351 -112.1  22.496  113.8  0.0269   56.2  0.5745  -51.0
 0.600  0.4347 -114.6  21.948  112.3  0.0274   55.8  0.5624  -52.0
 0.620  0.4324 -116.6  21.449  111.3  0.0279   55.6  0.5517  -52.7
 0.640  0.4307 -118.7  20.958  110.2  0.0284   55.3  0.5412  -53.5
 0.660  0.4295 -120.7  20.475  109.0  0.0288   55.1  0.5307  -54.2
 0.680  0.4289 -122.8  20.000  107.8  0.0293   54.9  0.5204  -55.1
 0.700  0.4289 -124.9  19.534  106.6  0.0298   54.7  0.5101  -55.9
 0.720  0.4272 -126.6  19.118  105.7  0.0303   54.6  0.5012  -56.5
 0.740  0.4260 -128.4  18.706  104.8  0.0307   54.4  0.4924  -57.2
 0.760  0.4251 -130.1  18.300  103.8  0.0312   54.3  0.4837  -57.9
 0.780  0.4246 -131.8  17.900  102.8  0.0316   54.1  0.4750  -58.6
 0.800  0.4245 -133.6  17.505  101.7  0.0321   54.0  0.4664  -59.3
 0.820  0.4236 -135.1  17.162  100.9  0.0325   53.9  0.4589  -59.9
 0.840  0.4229 -136.6  16.822  100.1  0.0330   53.8  0.4515  -60.4
 0.860  0.4226 -138.2  16.486   99.3  0.0334   53.8  0.4441  -61.0
 0.880  0.4225 -139.7  16.153   98.4  0.0339   53.7  0.4367  -61.7
 0.900  0.4228 -141.2  15.824   97.5  0.0343   53.6  0.4294  -62.3
 0.920  0.4224 -142.6  15.533   96.8  0.0347   53.5  0.4229  -62.8
 0.940  0.4222 -143.9  15.244   96.1  0.0352   53.5  0.4164  -63.4
 0.960  0.4223 -145.3  14.957   95.3  0.0356   53.4  0.4099  -64.0
 0.980  0.4226 -146.6  14.674   94.5  0.0361   53.4  0.4035  -64.6
 1.000  0.4231 -148.0  14.393   93.7  0.0365   53.3  0.3971  -65.2
 1.020  0.4228 -149.1  14.144   93.1  0.0370   53.3  0.3916  -65.7
 1.040  0.4226 -150.3  13.897   92.4  0.0374   53.2  0.3861  -66.2
 1.060  0.4226 -151.4  13.652   91.7  0.0379   53.2  0.3806  -66.7
 1.080  0.4228 -152.6  13.409   91.0  0.0383   53.1  0.3752  -67.2
 1.100  0.4231 -153.7  13.168   90.3  0.0388   53.1  0.3698  -67.7
 1.120  0.4232 -154.8  12.955   89.7  0.0392   53.1  0.3647  -68.2
 1.140  0.4235 -155.8  12.743   89.1  0.0397   53.0  0.3597  -68.7
 1.160  0.4239 -156.9  12.533   88.4  0.0401   53.0  0.3547  -69.3
 1.180  0.4244 -157.9  12.324   87.8  0.0406   52.9  0.3497  -69.8
 1.200  0.4251 -159.0  12.117   87.1  0.0410   52.9  0.3448  -70.4
 1.220  0.4252 -159.9  11.933   86.6  0.0414   52.9  0.3405  -70.9
 1.240  0.4253 -160.9  11.750   86.0  0.0419   52.8  0.3362  -71.3
 1.260  0.4256 -161.8  11.568   85.4  0.0423   52.8  0.3319  -71.8
 1.280  0.4260 -162.8  11.387   84.8  0.0428   52.7  0.3277  -72.3
 1.300  0.4265 -163.7  11.208   84.2  0.0432   52.7  0.3235  -72.8
 1.320  0.4268 -164.6  11.047   83.7  0.0437   52.7  0.3196  -73.3
 1.340  0.4272 -165.5  10.887   83.2  0.0441   52.6  0.3157  -73.8
 1.360  0.4277 -166.3  10.728   82.6  0.0446   52.6  0.3119  -74.3
 1.380  0.4283 -167.2  10.570   82.1  0.0450   52.5  0.3081  -74.9
 1.400  0.4290 -168.1  10.413   81.5  0.0455   52.5  0.3043  -75.4
 1.420  0.4292 -168.9  10.274   81.0  0.0460   52.4  0.3007  -75.8
 1.440  0.4294 -169.7  10.136   80.5  0.0464   52.4  0.2972  -76.3
 1.460  0.4298 -170.5   9.998   80.0  0.0469   52.3  0.2936  -76.7
 1.480  0.4302 -171.3   9.861   79.5  0.0473   52.3  0.2901  -77.2
 1.500  0.4307 -172.1   9.725   79.0  0.0478   52.2  0.2866  -77.7
 1.520  0.4312 -172.8   9.600   78.5  0.0482   52.1  0.2835  -78.2
 1.540  0.4317 -173.5   9.475   78.1  0.0487   52.1  0.2804  -78.6
 1.560  0.4323 -174.2   9.350   77.6  0.0491   52.0  0.2774  -79.1
 1.580  0.4330 -174.9   9.227   77.1  0.0496   52.0  0.2743  -79.6
 1.600  0.4337 -175.6   9.104   76.6  0.0500   51.9  0.2713  -80.1
 1.620  0.4339 -176.4   8.994   76.2  0.0505   51.8  0.2683  -80.6
 1.640  0.4342 -177.2   8.886   75.7  0.0510   51.7  0.2654  -81.0
 1.660  0.4346 -177.9   8.777   75.3  0.0514   51.7  0.2624  -81.5
 1.680  0.4351 -178.7   8.669   74.8  0.0519   51.6  0.2595  -82.0
 1.700  0.4356 -179.5   8.562   74.3  0.0524   51.5  0.2566  -82.5
 1.720  0.4358  179.9   8.461   73.9  0.0529   51.4  0.2540  -82.9
 1.740  0.4360  179.3   8.361   73.5  0.0533   51.3  0.2514  -83.4
 1.760  0.4363  178.7   8.261   73.0  0.0538   51.3  0.2488  -83.8
 1.780  0.4366  178.1   8.161   72.6  0.0542   51.2  0.2462  -84.2
 1.800  0.4370  177.5   8.062   72.1  0.0547   51.1  0.2436  -84.7
 1.820  0.4376  176.8   7.972   71.7  0.0552   51.0  0.2410  -85.3
 1.840  0.4382  176.2   7.883   71.3  0.0556   50.9  0.2384  -85.9
 1.860  0.4389  175.5   7.794   70.9  0.0561   50.8  0.2358  -86.5
 1.880  0.4397  174.9   7.705   70.5  0.0565   50.7  0.2333  -87.1
 1.900  0.4405  174.2   7.617   70.1  0.0570   50.6  0.2308  -87.7
 1.920  0.4406  173.6   7.538   69.7  0.0575   50.5  0.2285  -88.1
 1.940  0.4407  173.1   7.460   69.3  0.0580   50.4  0.2262  -88.5
 1.960  0.4409  172.5   7.381   68.9  0.0584   50.4  0.2240  -88.9
 1.980  0.4411  172.0   7.303   68.5  0.0589   50.3  0.2217  -89.4
 2.000  0.4414  171.4   7.226   68.1  0.0594   50.2  0.2195  -89.8
 2.020  0.4418  170.8   7.156   67.7  0.0599   50.1  0.2173  -90.3
 2.040  0.4423  170.2   7.086   67.4  0.0603   49.9  0.2151  -90.8
 2.060  0.4428  169.6   7.016   67.0  0.0608   49.8  0.2129  -91.4
 2.080  0.4433  169.0   6.947   66.6  0.0613   49.7  0.2107  -91.9
 2.100  0.4439  168.4   6.878   66.2  0.0617   49.6  0.2086  -92.5
 2.120  0.4446  167.8   6.809   65.8  0.0622   49.5  0.2064  -93.0
 2.140  0.4452  167.3   6.741   65.4  0.0627   49.3  0.2043  -93.6
 2.160  0.4460  166.7   6.673   65.0  0.0632   49.2  0.2022  -94.2
 2.180  0.4468  166.1   6.605   64.5  0.0636   49.1  0.2001  -94.8
 2.200  0.4476  165.5   6.538   64.1  0.0641   49.0  0.1981  -95.4
 2.220  0.4481  165.0   6.479   63.8  0.0645   48.9  0.1961  -96.0
 2.240  0.4487  164.4   6.420   63.4  0.0650   48.7  0.1941  -96.6
 2.260  0.4494  163.9   6.362   63.1  0.0654   48.6  0.1921  -97.2
 2.280  0.4500  163.3   6.304   62.7  0.0659   48.5  0.1902  -97.8
 2.300  0.4507  162.8   6.246   62.4  0.0663   48.3  0.1883  -98.4
 2.320  0.4515  162.2   6.188   62.0  0.0668   48.2  0.1864  -99.0
 2.340  0.4523  161.7   6.131   61.7  0.0672   48.1  0.1845  -99.7
 2.360  0.4531  161.2   6.074   61.3  0.0677   47.9  0.1826 -100.3
 2.380  0.4540  160.6   6.017   60.9  0.0681   47.8  0.1808 -101.0
 2.400  0.4549  160.1   5.960   60.5  0.0686   47.7  0.1790 -101.7
 2.420  0.4558  159.6   5.910   60.2  0.0691   47.6  0.1772 -102.3
 2.440  0.4567  159.1   5.860   59.8  0.0695   47.4  0.1755 -103.0
 2.460  0.4576  158.6   5.810   59.5  0.0700   47.3  0.1738 -103.7
 2.480  0.4586  158.1   5.761   59.1  0.0704   47.1  0.1721 -104.4
 2.500  0.4596  157.6   5.712   58.7  0.0709   47.0  0.1705 -105.1
 2.520  0.4606  157.1   5.663   58.4  0.0714   46.8  0.1688 -105.8
 2.540  0.4617  156.6   5.614   58.0  0.0718   46.7  0.1672 -106.5
 2.560  0.4628  156.1   5.565   57.6  0.0723   46.6  0.1657 -107.3
 2.580  0.4639  155.6   5.517   57.2  0.0727   46.4  0.1641 -108.0
 2.600  0.4651  155.1   5.469   56.8  0.0732   46.3  0.1626 -108.8
 2.620  0.4658  154.6   5.426   56.5  0.0736   46.2  0.1611 -109.5
 2.640  0.4665  154.2   5.383   56.2  0.0741   46.0  0.1596 -110.2
 2.660  0.4672  153.7   5.341   55.9  0.0745   45.9  0.1581 -111.0
 2.680  0.4680  153.2   5.298   55.6  0.0750   45.7  0.1567 -111.7
 2.700  0.4688  152.8   5.256   55.3  0.0754   45.6  0.1553 -112.5
 2.720  0.4696  152.3   5.214   54.9  0.0759   45.4  0.1539 -113.3
 2.740  0.4705  151.9   5.172   54.6  0.0763   45.3  0.1526 -114.0
 2.760  0.4713  151.4   5.130   54.3  0.0768   45.2  0.1512 -114.8
 2.780  0.4723  151.0   5.088   53.9  0.0772   45.0  0.1500 -115.7
 2.800  0.4732  150.5   5.047   53.6  0.0777   44.9  0.1487 -116.5
 2.820  0.4742  150.1   5.010   53.3  0.0782   44.7  0.1474 -117.3
 2.840  0.4753  149.6   4.974   53.0  0.0786   44.6  0.1462 -118.1
 2.860  0.4764  149.2   4.937   52.7  0.0791   44.4  0.1450 -118.9
 2.880  0.4776  148.8   4.901   52.3  0.0795   44.2  0.1438 -119.7
 2.900  0.4787  148.3   4.864   52.0  0.0800   44.1  0.1426 -120.5
 2.920  0.4799  147.9   4.828   51.7  0.0805   43.9  0.1415 -121.3
 2.940  0.4811  147.5   4.793   51.3  0.0809   43.8  0.1404 -122.2
 2.960  0.4823  147.0   4.757   51.0  0.0814   43.6  0.1393 -123.0
 2.980  0.4836  146.6   4.721   50.7  0.0818   43.5  0.1383 -123.9
 3.000  0.4849  146.2   4.686   50.3  0.0823   43.3  0.1373 -124.8
 3.100  0.4899  144.0   4.534   48.9  0.0844   42.4  0.1324 -129.3
 3.200  0.4957  141.9   4.385   47.4  0.0866   41.5  0.1285 -134.2
 3.300  0.5021  139.9   4.239   45.8  0.0887   40.7  0.1255 -139.3
 3.400  0.5091  137.9   4.097   44.0  0.0909   39.9  0.1235 -144.6
 3.500  0.5167  135.9   3.959   42.2  0.0931   39.2  0.1227 -150.1
 3.600  0.5217  134.0   3.844   40.9  0.0952   38.2  0.1220 -155.0
 3.700  0.5273  132.2   3.731   39.4  0.0973   37.3  0.1222 -160.0
 3.800  0.5334  130.4   3.621   37.9  0.0994   36.4  0.1232 -164.8
 3.900  0.5400  128.7   3.514   36.3  0.1015   35.6  0.1252 -169.6
 4.000  0.5471  127.0   3.409   34.6  0.1037   34.8  0.1280 -174.2
 4.100  0.5510  125.5   3.317   33.3  0.1056   33.8  0.1305 -178.2
 4.200  0.5553  124.1   3.227   31.9  0.1075   32.9  0.1336  178.0
 4.300  0.5599  122.7   3.139   30.4  0.1094   31.9  0.1373  174.4
 4.400  0.5648  121.3   3.053   28.8  0.1114   31.1  0.1415  170.9
 4.500  0.5701  119.9   2.969   27.2  0.1134   30.2  0.1462  167.7
 4.600  0.5726  118.7   2.897   26.0  0.1151   29.3  0.1490  164.9
 4.700  0.5753  117.6   2.826   24.8  0.1169   28.4  0.1521  162.1
 4.800  0.5783  116.4   2.757   23.6  0.1187   27.5  0.1555  159.5
 4.900  0.5815  115.3   2.689   22.2  0.1205   26.7  0.1593  157.0
 5.000  0.5849  114.2   2.622   20.8  0.1224   25.9  0.1633  154.6
 5.100  0.5875  113.0   2.566   19.6  0.1240   25.0  0.1667  152.3
 5.200  0.5903  111.8   2.510   18.4  0.1257   24.1  0.1704  150.0
 5.300  0.5934  110.6   2.456   17.1  0.1274   23.3  0.1744  147.9
 5.400  0.5968  109.5   2.403   15.8  0.1291   22.4  0.1786  145.8
 5.500  0.6004  108.3   2.352   14.4  0.1308   21.6  0.1830  143.9
 5.600  0.6042  107.1   2.307   13.2  0.1324   20.7  0.1870  141.8
 5.700  0.6082  105.9   2.264   12.0  0.1341   19.9  0.1913  139.8
 5.800  0.6124  104.8   2.221   10.8  0.1358   19.0  0.1957  137.9
 5.900  0.6169  103.6   2.179    9.5  0.1375   18.2  0.2004  136.0
 6.000  0.6217  102.5   2.139    8.1  0.1393   17.4  0.2053  134.3
 6.100  0.6258  101.4   2.101    6.9  0.1410   16.4  0.2092  132.5
 6.200  0.6300  100.4   2.064    5.6  0.1427   15.5  0.2133  130.7
 6.300  0.6345   99.3   2.028    4.3  0.1445   14.6  0.2175  129.1
 6.400  0.6392   98.3   1.994    2.9  0.1463   13.7  0.2220  127.4
 6.500  0.6441   97.3   1.960    1.5  0.1481   12.8  0.2266  125.9
 6.600  0.6470   96.2   1.929    0.2  0.1498   11.8  0.2294  124.2
 6.800  0.6536   94.1   1.869   -2.4  0.1534    9.9  0.2357  120.8
 7.000  0.6610   92.0   1.813   -5.2  0.1572    8.1  0.2427  117.7
 7.200  0.6651   89.7   1.757   -7.8  0.1605    5.8  0.2510  114.7
 7.400  0.6702   87.5   1.705  -10.6  0.1640    3.7  0.2599  111.8
 7.600  0.6753   85.1   1.651  -13.3  0.1667    1.4  0.2700  109.0
 7.800  0.6807   82.5   1.594  -16.1  0.1688   -1.0  0.2813  106.1
 8.000  0.6874   80.0   1.541  -19.1  0.1711   -3.4  0.2932  103.4
 8.200  0.6942   77.2   1.482  -21.5  0.1713   -5.5  0.3070   99.9
 8.400  0.7026   74.4   1.426  -24.2  0.1717   -7.6  0.3218   96.8
 8.600  0.7140   71.9   1.374  -26.6  0.1720   -9.5  0.3392   93.8
 8.800  0.7281   69.4   1.326  -28.8  0.1721  -11.1  0.3592   91.1
 9.000  0.7434   67.1   1.280  -31.2  0.1724  -12.7  0.3799   88.6
 9.200  0.7643   65.2   1.244  -33.2  0.1730  -14.1  0.4034   86.6
 9.400  0.7859   63.5   1.209  -35.3  0.1736  -15.5  0.4274   84.9
 9.600  0.8051   61.9   1.169  -37.4  0.1743  -16.9  0.4497   83.4
 9.800  0.8218   60.6   1.124  -39.5  0.1751  -18.4  0.4703   82.0
10.000  0.8388   59.3   1.080  -41.8  0.1760  -19.9  0.4912   80.8
!
!  f       NFmin   Gammaopt  rn/50
! GHz       dB    MAG  ANG    -
 0.900      1.23  0.16 -154   0.13
 1.800      1.51  0.24 -144   0.13
 2.400      1.66  0.22 -141   0.15
 3.000      1.69  0.30 -132   0.16
 4.000      1.82  0.42 -115   0.23
 5.000      2.28  0.48  -96   0.37
 6.000      2.65  0.52  -86   0.56
!
! (c) 2016  Infineon Technologies AG, Munich
