! Infineon Technologies  Discrete & RF Semiconductors
! BFP405F
! VCE =  3.0 V,  IC =  5.0 mA
! Common Emitter S-Parameters:                            Nov 2015
# GHz  S  MA  R  50
!  f         S11            S21            S12            S22
! GHz     MAG   ANG      MAG   ANG      MAG   ANG      MAG   ANG
 0.030  0.8280   -1.6  14.006  177.6  0.0002   -8.4  0.9879   -0.6
 0.035  0.8275   -1.8  14.012  177.5  0.0010   87.8  0.9894   -0.7
 0.040  0.8271   -2.0  14.018  177.4  0.0020   93.5  0.9910   -0.8
 0.045  0.8268   -2.4  14.082  176.9  0.0020   58.7  0.9910   -1.0
 0.050  0.8266   -2.9  14.147  176.5  0.0026   32.7  0.9910   -1.2
 0.055  0.8271   -3.0  14.064  176.4  0.0022   52.5  0.9908   -1.2
 0.060  0.8277   -3.1  13.982  176.2  0.0022   76.0  0.9906   -1.3
 0.065  0.8281   -3.4  13.996  175.7  0.0032   50.2  0.9900   -1.5
 0.070  0.8286   -3.6  14.011  175.3  0.0046   38.2  0.9894   -1.7
 0.075  0.8281   -3.9  13.974  175.1  0.0032   74.8  0.9926   -1.8
 0.080  0.8276   -4.2  13.937  174.9  0.0038  120.9  0.9959   -1.9
 0.085  0.8271   -4.5  13.957  174.9  0.0032  109.1  0.9933   -2.0
 0.090  0.8267   -4.9  13.977  174.9  0.0027   92.3  0.9907   -2.2
 0.095  0.8286   -5.2  13.948  174.7  0.0026   97.8  0.9897   -2.4
 0.100  0.8306   -5.5  13.919  174.4  0.0026  103.5  0.9887   -2.6
 0.105  0.8295   -5.7  13.915  174.2  0.0028   92.3  0.9895   -2.7
 0.110  0.8285   -6.0  13.911  173.9  0.0030   82.6  0.9903   -2.8
 0.115  0.8277   -6.3  13.904  173.8  0.0033   75.3  0.9913   -2.9
 0.120  0.8270   -6.7  13.897  173.6  0.0036   69.2  0.9923   -2.9
 0.125  0.8264   -6.9  13.903  173.2  0.0041   91.2  0.9911   -3.1
 0.130  0.8258   -7.2  13.910  172.9  0.0051  106.5  0.9900   -3.3
 0.135  0.8254   -7.4  13.925  172.8  0.0048   98.1  0.9897   -3.3
 0.140  0.8250   -7.7  13.940  172.7  0.0047   88.9  0.9895   -3.4
 0.145  0.8239   -8.0  13.942  172.5  0.0040   79.0  0.9891   -3.5
 0.150  0.8229   -8.4  13.944  172.3  0.0035   65.6  0.9887   -3.7
 0.155  0.8225   -8.7  13.939  172.0  0.0037   67.8  0.9883   -3.8
 0.160  0.8221   -8.9  13.935  171.7  0.0039   69.7  0.9879   -4.0
 0.165  0.8217   -9.2  13.932  171.4  0.0042   71.4  0.9876   -4.1
 0.170  0.8214   -9.5  13.928  171.1  0.0044   73.0  0.9872   -4.2
 0.175  0.8211   -9.7  13.925  170.8  0.0046   74.4  0.9868   -4.3
 0.180  0.8208  -10.0  13.923  170.4  0.0048   75.7  0.9865   -4.5
 0.185  0.8205  -10.3  13.921  170.1  0.0051   76.8  0.9861   -4.6
 0.190  0.8202  -10.6  13.919  169.8  0.0053   77.9  0.9858   -4.7
 0.195  0.8199  -10.8  13.918  169.5  0.0056   78.8  0.9854   -4.9
 0.200  0.8197  -11.1  13.917  169.2  0.0058   79.7  0.9851   -5.0
 0.220  0.8178  -12.1  13.848  168.2  0.0063   79.5  0.9844   -5.5
 0.240  0.8162  -13.2  13.783  167.3  0.0068   79.4  0.9837   -6.0
 0.260  0.8138  -14.3  13.743  166.3  0.0075   79.3  0.9821   -6.5
 0.280  0.8105  -15.4  13.729  165.2  0.0082   79.4  0.9797   -7.0
 0.300  0.8076  -16.5  13.720  164.2  0.0089   79.5  0.9773   -7.5
 0.320  0.8053  -17.5  13.651  163.2  0.0096   81.5  0.9762   -8.0
 0.340  0.8032  -18.6  13.585  162.3  0.0103   83.3  0.9753   -8.5
 0.360  0.8005  -19.6  13.533  161.3  0.0112   84.1  0.9742   -8.9
 0.380  0.7972  -20.7  13.494  160.2  0.0121   84.2  0.9729   -9.4
 0.400  0.7942  -21.8  13.459  159.2  0.0130   84.2  0.9718   -9.9
 0.420  0.7910  -22.8  13.400  158.2  0.0132   83.1  0.9687  -10.4
 0.440  0.7881  -23.9  13.345  157.3  0.0134   81.9  0.9658  -10.9
 0.450  0.7868  -24.4  13.319  156.8  0.0135   81.4  0.9643  -11.1
 0.460  0.7848  -24.9  13.282  156.3  0.0137   80.5  0.9629  -11.4
 0.480  0.7810  -26.0  13.210  155.4  0.0141   78.7  0.9602  -11.9
 0.500  0.7774  -27.0  13.142  154.4  0.0145   77.1  0.9576  -12.4
 0.520  0.7727  -28.0  13.066  153.4  0.0152   77.0  0.9545  -12.8
 0.540  0.7681  -29.0  12.995  152.5  0.0159   76.9  0.9514  -13.2
 0.560  0.7639  -30.0  12.927  151.5  0.0165   76.8  0.9483  -13.7
 0.580  0.7598  -31.0  12.862  150.5  0.0172   76.8  0.9453  -14.1
 0.600  0.7560  -32.0  12.802  149.5  0.0179   76.7  0.9424  -14.5
 0.620  0.7509  -33.0  12.732  148.6  0.0184   76.3  0.9392  -14.9
 0.640  0.7459  -33.9  12.665  147.7  0.0189   75.9  0.9360  -15.3
 0.660  0.7412  -34.9  12.601  146.8  0.0193   75.5  0.9329  -15.7
 0.680  0.7368  -35.9  12.540  145.9  0.0198   75.1  0.9298  -16.1
 0.700  0.7325  -36.9  12.482  145.0  0.0203   74.8  0.9268  -16.5
 0.720  0.7274  -37.8  12.385  144.1  0.0207   74.2  0.9229  -16.9
 0.740  0.7224  -38.7  12.291  143.3  0.0211   73.5  0.9191  -17.3
 0.760  0.7176  -39.7  12.200  142.4  0.0214   72.9  0.9154  -17.7
 0.780  0.7131  -40.6  12.112  141.5  0.0218   72.4  0.9117  -18.2
 0.800  0.7087  -41.6  12.027  140.6  0.0222   71.8  0.9080  -18.6
 0.820  0.7031  -42.5  11.949  139.8  0.0228   71.7  0.9045  -19.0
 0.840  0.6977  -43.4  11.873  138.9  0.0234   71.7  0.9011  -19.4
 0.860  0.6925  -44.3  11.799  138.1  0.0240   71.6  0.8977  -19.7
 0.880  0.6874  -45.2  11.729  137.2  0.0246   71.6  0.8944  -20.1
 0.900  0.6825  -46.1  11.661  136.3  0.0252   71.5  0.8911  -20.5
 0.920  0.6772  -46.9  11.568  135.5  0.0256   71.2  0.8872  -20.9
 0.940  0.6720  -47.8  11.477  134.8  0.0260   71.0  0.8834  -21.3
 0.960  0.6670  -48.6  11.389  134.0  0.0265   70.7  0.8796  -21.6
 0.980  0.6621  -49.5  11.302  133.2  0.0269   70.4  0.8758  -22.0
 1.000  0.6574  -50.4  11.218  132.4  0.0273   70.2  0.8721  -22.4
 1.020  0.6519  -51.2  11.129  131.7  0.0276   69.9  0.8682  -22.7
 1.040  0.6465  -52.0  11.043  131.0  0.0279   69.6  0.8643  -23.0
 1.060  0.6413  -52.9  10.957  130.2  0.0281   69.3  0.8605  -23.4
 1.080  0.6362  -53.7  10.874  129.5  0.0284   69.1  0.8567  -23.7
 1.100  0.6313  -54.6  10.793  128.7  0.0287   68.8  0.8529  -24.0
 1.120  0.6258  -55.4  10.710  128.0  0.0293   68.3  0.8489  -24.3
 1.140  0.6204  -56.2  10.629  127.3  0.0299   67.9  0.8449  -24.6
 1.160  0.6152  -57.0  10.549  126.5  0.0304   67.4  0.8409  -24.8
 1.180  0.6101  -57.9  10.471  125.8  0.0310   67.0  0.8369  -25.1
 1.200  0.6051  -58.7  10.395  125.0  0.0316   66.6  0.8330  -25.4
 1.220  0.5999  -59.5  10.310  124.3  0.0319   66.5  0.8293  -25.7
 1.240  0.5948  -60.2  10.227  123.6  0.0321   66.5  0.8255  -26.0
 1.260  0.5898  -61.0  10.146  122.9  0.0324   66.4  0.8218  -26.3
 1.280  0.5850  -61.8  10.066  122.2  0.0326   66.4  0.8182  -26.6
 1.300  0.5802  -62.6   9.987  121.5  0.0329   66.3  0.8145  -26.9
 1.320  0.5756  -63.3   9.902  120.9  0.0333   66.0  0.8108  -27.2
 1.340  0.5712  -64.0   9.819  120.3  0.0337   65.8  0.8070  -27.5
 1.360  0.5668  -64.7   9.737  119.7  0.0340   65.5  0.8033  -27.7
 1.380  0.5625  -65.5   9.655  119.1  0.0344   65.2  0.7997  -28.0
 1.400  0.5583  -66.2   9.575  118.5  0.0348   65.0  0.7960  -28.3
 1.420  0.5532  -66.9   9.499  117.9  0.0351   64.8  0.7925  -28.5
 1.440  0.5483  -67.6   9.424  117.3  0.0354   64.5  0.7890  -28.8
 1.460  0.5434  -68.4   9.349  116.7  0.0357   64.3  0.7855  -29.0
 1.480  0.5386  -69.1   9.276  116.1  0.0360   64.0  0.7820  -29.3
 1.500  0.5339  -69.9   9.204  115.5  0.0363   63.8  0.7785  -29.5
 1.520  0.5296  -70.6   9.131  114.9  0.0368   63.7  0.7752  -29.7
 1.540  0.5254  -71.3   9.059  114.4  0.0373   63.7  0.7718  -29.9
 1.560  0.5212  -72.0   8.988  113.8  0.0379   63.6  0.7685  -30.2
 1.580  0.5172  -72.8   8.917  113.2  0.0384   63.6  0.7652  -30.4
 1.600  0.5132  -73.5   8.848  112.6  0.0389   63.5  0.7619  -30.6
 1.620  0.5092  -74.1   8.772  112.1  0.0391   63.2  0.7582  -30.8
 1.640  0.5053  -74.8   8.697  111.5  0.0393   62.9  0.7546  -31.0
 1.660  0.5014  -75.4   8.622  111.0  0.0395   62.7  0.7509  -31.3
 1.680  0.4976  -76.0   8.549  110.5  0.0397   62.4  0.7473  -31.5
 1.700  0.4938  -76.7   8.476  109.9  0.0399   62.1  0.7437  -31.7
 1.720  0.4894  -77.4   8.410  109.4  0.0402   62.0  0.7404  -32.0
 1.740  0.4851  -78.1   8.345  108.8  0.0406   61.9  0.7372  -32.2
 1.760  0.4809  -78.8   8.280  108.3  0.0409   61.9  0.7340  -32.5
 1.780  0.4767  -79.5   8.216  107.8  0.0413   61.8  0.7308  -32.7
 1.800  0.4726  -80.2   8.153  107.2  0.0416   61.7  0.7276  -33.0
 1.820  0.4689  -80.8   8.092  106.8  0.0418   61.7  0.7245  -33.2
 1.840  0.4653  -81.5   8.031  106.3  0.0421   61.6  0.7215  -33.4
 1.860  0.4618  -82.1   7.970  105.8  0.0423   61.6  0.7184  -33.6
 1.880  0.4583  -82.7   7.910  105.4  0.0426   61.5  0.7153  -33.8
 1.900  0.4549  -83.4   7.851  104.9  0.0428   61.5  0.7123  -34.0
 1.920  0.4514  -84.1   7.795  104.4  0.0431   61.1  0.7097  -34.3
 1.940  0.4480  -84.8   7.740  103.9  0.0435   60.8  0.7071  -34.5
 1.960  0.4447  -85.5   7.685  103.4  0.0438   60.5  0.7046  -34.8
 1.980  0.4415  -86.3   7.631  102.9  0.0442   60.1  0.7020  -35.0
 2.000  0.4383  -87.0   7.578  102.4  0.0445   59.8  0.6995  -35.3
 2.020  0.4348  -87.6   7.519  102.0  0.0448   59.8  0.6967  -35.5
 2.040  0.4314  -88.2   7.460  101.5  0.0450   59.8  0.6940  -35.7
 2.060  0.4280  -88.8   7.401  101.0  0.0453   59.9  0.6913  -35.9
 2.080  0.4247  -89.4   7.343  100.6  0.0455   59.9  0.6885  -36.1
 2.100  0.4214  -90.0   7.286  100.1  0.0458   59.9  0.6858  -36.3
 2.120  0.4182  -90.6   7.230   99.7  0.0461   59.7  0.6831  -36.5
 2.140  0.4150  -91.2   7.175   99.2  0.0464   59.6  0.6804  -36.7
 2.160  0.4119  -91.8   7.120   98.8  0.0468   59.4  0.6777  -37.0
 2.180  0.4088  -92.5   7.066   98.4  0.0471   59.3  0.6751  -37.2
 2.200  0.4058  -93.1   7.012   97.9  0.0474   59.1  0.6724  -37.4
 2.220  0.4027  -93.7   6.960   97.5  0.0477   59.1  0.6699  -37.6
 2.240  0.3996  -94.2   6.908   97.1  0.0481   59.0  0.6673  -37.7
 2.260  0.3966  -94.8   6.856   96.7  0.0484   59.0  0.6648  -37.9
 2.280  0.3936  -95.4   6.805   96.3  0.0488   58.9  0.6623  -38.0
 2.300  0.3906  -96.0   6.754   95.9  0.0491   58.9  0.6598  -38.2
 2.320  0.3880  -96.5   6.707   95.5  0.0493   58.8  0.6576  -38.4
 2.340  0.3854  -97.1   6.661   95.2  0.0496   58.7  0.6555  -38.6
 2.360  0.3829  -97.7   6.615   94.8  0.0498   58.6  0.6533  -38.7
 2.380  0.3804  -98.2   6.569   94.4  0.0501   58.5  0.6511  -38.9
 2.400  0.3779  -98.8   6.523   94.0  0.0503   58.4  0.6490  -39.1
 2.420  0.3753  -99.3   6.475   93.6  0.0505   58.3  0.6467  -39.3
 2.440  0.3727  -99.9   6.428   93.3  0.0508   58.3  0.6443  -39.4
 2.460  0.3701 -100.5   6.381   92.9  0.0510   58.2  0.6420  -39.6
 2.480  0.3676 -101.0   6.334   92.5  0.0513   58.2  0.6396  -39.7
 2.500  0.3651 -101.6   6.287   92.1  0.0515   58.1  0.6373  -39.9
 2.520  0.3625 -102.1   6.243   91.7  0.0518   58.1  0.6353  -40.1
 2.540  0.3599 -102.7   6.200   91.4  0.0520   58.1  0.6334  -40.2
 2.560  0.3573 -103.2   6.157   91.0  0.0523   58.1  0.6314  -40.4
 2.580  0.3548 -103.7   6.114   90.7  0.0525   58.1  0.6295  -40.5
 2.600  0.3523 -104.3   6.071   90.3  0.0528   58.1  0.6275  -40.7
 2.620  0.3501 -104.8   6.031   89.9  0.0531   57.9  0.6256  -40.8
 2.640  0.3480 -105.4   5.991   89.6  0.0534   57.6  0.6237  -40.9
 2.660  0.3459 -106.0   5.951   89.2  0.0538   57.4  0.6219  -41.1
 2.680  0.3438 -106.5   5.911   88.9  0.0541   57.1  0.6200  -41.2
 2.700  0.3418 -107.1   5.872   88.5  0.0544   56.9  0.6181  -41.3
 2.720  0.3397 -107.6   5.835   88.2  0.0546   57.0  0.6163  -41.5
 2.740  0.3376 -108.0   5.797   87.9  0.0548   57.0  0.6146  -41.7
 2.760  0.3355 -108.5   5.760   87.6  0.0549   57.1  0.6129  -41.8
 2.780  0.3334 -109.0   5.724   87.2  0.0551   57.1  0.6111  -42.0
 2.800  0.3314 -109.5   5.687   86.9  0.0553   57.2  0.6094  -42.2
 2.820  0.3294 -110.0   5.649   86.6  0.0555   57.2  0.6078  -42.3
 2.840  0.3275 -110.5   5.611   86.3  0.0558   57.2  0.6062  -42.5
 2.860  0.3256 -111.0   5.574   86.0  0.0560   57.1  0.6046  -42.6
 2.880  0.3237 -111.6   5.536   85.7  0.0563   57.1  0.6030  -42.8
 2.900  0.3218 -112.1   5.499   85.4  0.0565   57.1  0.6014  -42.9
 2.920  0.3197 -112.6   5.466   85.1  0.0568   57.0  0.5998  -43.0
 2.940  0.3177 -113.2   5.434   84.8  0.0570   56.9  0.5982  -43.2
 2.960  0.3157 -113.7   5.401   84.5  0.0573   56.7  0.5966  -43.3
 2.980  0.3137 -114.2   5.369   84.1  0.0575   56.6  0.5951  -43.5
 3.000  0.3118 -114.8   5.337   83.8  0.0578   56.5  0.5935  -43.6
 3.100  0.3034 -117.2   5.171   82.2  0.0591   56.5  0.5858  -44.2
 3.200  0.2937 -120.0   5.018   80.7  0.0604   55.5  0.5790  -45.0
 3.300  0.2876 -122.3   4.879   79.4  0.0618   55.4  0.5730  -45.5
 3.400  0.2781 -124.9   4.735   78.0  0.0630   55.3  0.5678  -46.2
 3.500  0.2725 -127.0   4.608   76.7  0.0642   55.0  0.5629  -46.6
 3.600  0.2650 -129.7   4.482   75.4  0.0652   55.3  0.5572  -47.1
 3.700  0.2592 -132.2   4.367   74.1  0.0672   55.4  0.5522  -47.6
 3.800  0.2526 -134.6   4.253   72.9  0.0683   54.6  0.5472  -48.1
 3.900  0.2489 -137.0   4.152   71.6  0.0698   54.5  0.5426  -48.6
 4.000  0.2442 -139.2   4.053   70.5  0.0708   54.5  0.5392  -49.1
 4.100  0.2391 -141.9   3.958   69.3  0.0714   54.3  0.5342  -49.4
 4.200  0.2331 -144.7   3.867   68.2  0.0736   53.9  0.5292  -49.9
 4.300  0.2316 -147.1   3.783   67.0  0.0749   53.1  0.5255  -50.5
 4.400  0.2268 -149.6   3.703   65.9  0.0763   53.4  0.5219  -50.8
 4.500  0.2255 -151.9   3.619   64.9  0.0775   53.5  0.5182  -51.1
 4.600  0.2214 -154.6   3.543   63.6  0.0785   53.6  0.5143  -51.6
 4.700  0.2206 -156.7   3.473   62.6  0.0800   53.2  0.5088  -51.9
 4.800  0.2183 -159.6   3.404   61.6  0.0820   52.7  0.5063  -52.4
 4.900  0.2184 -161.4   3.336   60.6  0.0828   52.4  0.5019  -52.8
 5.000  0.2155 -164.0   3.274   59.4  0.0846   52.4  0.4985  -53.3
 5.100  0.2142 -166.2   3.211   58.4  0.0864   52.0  0.4948  -53.5
 5.200  0.2135 -168.4   3.154   57.3  0.0876   51.5  0.4906  -54.0
 5.300  0.2129 -170.8   3.097   56.3  0.0890   51.4  0.4871  -54.5
 5.400  0.2124 -172.5   3.043   55.3  0.0908   51.4  0.4848  -54.8
 5.500  0.2115 -174.9   2.989   54.3  0.0920   50.8  0.4812  -55.1
 5.600  0.2105 -176.9   2.938   53.3  0.0931   50.5  0.4781  -55.5
 5.700  0.2106 -179.3   2.890   52.2  0.0949   50.2  0.4743  -55.9
 5.800  0.2102  178.8   2.844   51.3  0.0962   50.2  0.4715  -56.3
 5.900  0.2098  176.4   2.797   50.3  0.0977   49.4  0.4690  -56.6
 6.000  0.2085  174.4   2.750   49.4  0.0995   49.2  0.4662  -57.0
 6.100  0.2081  171.8   2.706   48.3  0.1008   48.9  0.4624  -57.2
 6.200  0.2087  169.7   2.662   47.4  0.1020   48.7  0.4598  -57.6
 6.300  0.2085  167.1   2.624   46.4  0.1036   48.7  0.4563  -57.9
 6.400  0.2072  165.1   2.583   45.5  0.1049   48.2  0.4537  -58.3
 6.500  0.2077  162.4   2.542   44.5  0.1064   47.8  0.4506  -58.7
 6.600  0.2075  159.9   2.506   43.6  0.1074   47.5  0.4472  -58.9
 6.800  0.2092  155.1   2.434   41.7  0.1105   47.1  0.4412  -59.4
 7.000  0.2108  150.1   2.365   39.9  0.1133   46.7  0.4345  -59.5
 7.200  0.2151  145.2   2.299   38.1  0.1169   46.2  0.4247  -60.0
 7.400  0.2224  140.8   2.240   36.5  0.1199   45.8  0.4166  -60.6
 7.600  0.2308  137.0   2.185   34.9  0.1230   45.3  0.4069  -60.8
 7.800  0.2414  133.7   2.133   33.2  0.1270   44.6  0.3949  -61.4
 8.000  0.2531  130.6   2.084   31.5  0.1304   43.8  0.3814  -62.0
 8.200  0.2684  128.1   2.041   29.9  0.1343   43.0  0.3642  -62.7
 8.400  0.2841  125.9   2.001   28.2  0.1381   42.2  0.3471  -63.6
 8.600  0.2997  124.0   1.962   26.5  0.1419   41.3  0.3278  -64.5
 8.800  0.3151  122.3   1.924   24.8  0.1455   40.4  0.3064  -65.5
 9.000  0.3307  120.7   1.888   23.0  0.1492   39.6  0.2850  -66.7
 9.200  0.3450  119.2   1.854   21.3  0.1531   38.6  0.2616  -68.5
 9.400  0.3596  117.8   1.822   19.6  0.1571   37.7  0.2385  -70.7
 9.600  0.3731  116.5   1.792   17.8  0.1612   36.7  0.2149  -73.5
 9.800  0.3856  115.2   1.763   16.0  0.1654   35.6  0.1910  -77.2
10.000  0.3984  113.9   1.736   14.2  0.1696   34.6  0.1681  -81.9
10.200  0.4103  112.1   1.706   12.4  0.1733   33.2  0.1445  -88.7
10.400  0.4225  110.3   1.678   10.5  0.1772   31.9  0.1237  -98.0
10.600  0.4340  108.3   1.649    8.5  0.1805   30.6  0.1086 -111.0
10.800  0.4449  106.1   1.617    6.4  0.1833   29.2  0.1024 -127.5
11.000  0.4564  104.0   1.588    4.3  0.1863   27.9  0.1051 -144.5
11.200  0.4653  101.8   1.550    2.5  0.1883   26.7  0.1210 -156.9
11.400  0.4749   99.6   1.514    0.6  0.1903   25.5  0.1411 -166.1
11.600  0.4817   97.9   1.478   -1.1  0.1925   24.5  0.1652 -171.2
11.800  0.4856   96.5   1.442   -2.5  0.1947   23.6  0.1914 -173.6
12.000  0.4897   95.2   1.407   -4.0  0.1970   22.8  0.2178 -175.4
!
!  f       NFmin   Gammaopt  rn/50
! GHz       dB    MAG  ANG    -
 0.450      1.29  0.38    5   0.34
 0.900      1.30  0.35   13   0.36
 1.500      1.37  0.33   18   0.31
 1.900      1.40  0.31   25   0.32
 2.400      1.56  0.29   33   0.34
 3.000      1.63  0.27   45   0.32
 3.500      1.68  0.25   54   0.31
 4.500      1.84  0.20   66   0.28
 5.500      2.06  0.12   78   0.11
!
! (c) 2015  Infineon Technologies AG, Munich
