! Infineon Technologies  Discrete & RF Semiconductors
! BFP405F
! VCE =  1.5 V,  IC =  7.0 mA
! Common Emitter S-Parameters:                            Nov 2015
# GHz  S  MA  R  50
!  f         S11            S21            S12            S22
! GHz     MAG   ANG      MAG   ANG      MAG   ANG      MAG   ANG
 0.030  0.7743   -2.1  17.552  177.7  0.0002  -89.1  0.9827   -0.9
 0.035  0.7730   -2.4  17.578  177.5  0.0005   88.4  0.9831   -1.0
 0.040  0.7718   -2.7  17.604  177.4  0.0012   88.8  0.9836   -1.1
 0.045  0.7703   -3.1  17.682  176.8  0.0010  163.2  0.9829   -1.3
 0.050  0.7688   -3.6  17.762  176.3  0.0020 -161.5  0.9822   -1.5
 0.055  0.7692   -3.9  17.677  176.1  0.0018    9.2  0.9836   -1.8
 0.060  0.7696   -4.2  17.592  175.9  0.0056   12.5  0.9851   -2.1
 0.065  0.7717   -4.6  17.601  175.3  0.0029   18.9  0.9855   -2.0
 0.070  0.7739   -4.9  17.612  174.8  0.0007   81.6  0.9860   -1.9
 0.075  0.7714   -5.2  17.566  174.6  0.0028   34.2  0.9859   -2.1
 0.080  0.7690   -5.5  17.521  174.3  0.0051   28.4  0.9859   -2.3
 0.085  0.7713   -5.8  17.556  174.2  0.0027   59.5  0.9868   -2.6
 0.090  0.7737   -6.1  17.591  174.1  0.0028  129.7  0.9878   -2.8
 0.095  0.7737   -6.5  17.548  173.8  0.0031  121.7  0.9867   -3.1
 0.100  0.7738   -6.8  17.506  173.5  0.0034  115.2  0.9857   -3.4
 0.105  0.7733   -7.2  17.506  173.1  0.0039  104.3  0.9846   -3.4
 0.110  0.7728   -7.6  17.507  172.8  0.0046   96.2  0.9836   -3.4
 0.115  0.7725   -7.9  17.497  172.6  0.0039   85.0  0.9845   -3.6
 0.120  0.7722   -8.3  17.488  172.4  0.0035   70.2  0.9855   -3.8
 0.125  0.7701   -8.6  17.490  172.0  0.0043   79.9  0.9848   -4.0
 0.130  0.7681   -8.9  17.493  171.6  0.0051   86.6  0.9841   -4.3
 0.135  0.7676   -9.3  17.513  171.4  0.0044   79.1  0.9842   -4.4
 0.140  0.7672   -9.8  17.534  171.3  0.0038   69.1  0.9843   -4.5
 0.145  0.7676  -10.1  17.531  171.0  0.0055   74.6  0.9840   -4.6
 0.150  0.7680  -10.4  17.528  170.7  0.0072   77.5  0.9837   -4.8
 0.155  0.7672  -10.7  17.518  170.3  0.0072   79.0  0.9830   -5.0
 0.160  0.7664  -11.1  17.508  169.9  0.0072   80.4  0.9824   -5.2
 0.165  0.7657  -11.4  17.499  169.6  0.0072   81.9  0.9817   -5.3
 0.170  0.7650  -11.8  17.491  169.2  0.0071   83.4  0.9811   -5.5
 0.175  0.7643  -12.1  17.483  168.8  0.0071   84.9  0.9804   -5.7
 0.180  0.7636  -12.5  17.477  168.4  0.0071   86.3  0.9798   -5.9
 0.185  0.7630  -12.8  17.471  168.0  0.0072   87.8  0.9792   -6.1
 0.190  0.7624  -13.2  17.466  167.7  0.0072   89.3  0.9786   -6.2
 0.195  0.7618  -13.5  17.462  167.3  0.0072   90.7  0.9780   -6.4
 0.200  0.7613  -13.9  17.458  166.9  0.0072   92.2  0.9774   -6.6
 0.220  0.7580  -15.2  17.344  165.8  0.0076   86.4  0.9754   -7.2
 0.240  0.7551  -16.5  17.237  164.7  0.0081   81.2  0.9734   -7.8
 0.260  0.7516  -17.9  17.153  163.4  0.0087   79.1  0.9707   -8.4
 0.280  0.7476  -19.2  17.093  162.1  0.0094   79.4  0.9673   -9.1
 0.300  0.7439  -20.5  17.043  160.8  0.0101   79.6  0.9640   -9.7
 0.320  0.7405  -21.8  16.928  159.6  0.0106   81.8  0.9615  -10.3
 0.340  0.7375  -23.1  16.821  158.4  0.0111   83.9  0.9591  -10.9
 0.360  0.7334  -24.4  16.724  157.2  0.0117   84.6  0.9563  -11.5
 0.380  0.7284  -25.6  16.637  156.0  0.0126   84.2  0.9531  -12.1
 0.400  0.7237  -26.9  16.557  154.8  0.0134   83.8  0.9500  -12.7
 0.420  0.7194  -28.2  16.445  153.7  0.0140   81.7  0.9459  -13.3
 0.440  0.7155  -29.5  16.339  152.5  0.0147   79.7  0.9419  -13.9
 0.450  0.7137  -30.1  16.289  151.9  0.0150   78.8  0.9400  -14.2
 0.460  0.7110  -30.7  16.223  151.3  0.0154   78.5  0.9374  -14.5
 0.480  0.7060  -31.9  16.094  150.2  0.0161   78.0  0.9323  -15.0
 0.500  0.7012  -33.1  15.972  149.1  0.0169   77.6  0.9273  -15.6
 0.520  0.6949  -34.3  15.836  148.0  0.0174   76.5  0.9230  -16.1
 0.540  0.6889  -35.4  15.706  147.0  0.0179   75.5  0.9188  -16.6
 0.560  0.6832  -36.6  15.581  145.9  0.0184   74.6  0.9147  -17.1
 0.580  0.6778  -37.9  15.463  144.7  0.0190   73.7  0.9106  -17.7
 0.600  0.6727  -39.1  15.350  143.6  0.0195   72.8  0.9066  -18.2
 0.620  0.6666  -40.2  15.221  142.6  0.0200   73.0  0.9014  -18.7
 0.640  0.6607  -41.2  15.096  141.6  0.0205   73.1  0.8963  -19.1
 0.660  0.6550  -42.3  14.975  140.6  0.0211   73.2  0.8912  -19.6
 0.680  0.6496  -43.5  14.859  139.6  0.0216   73.4  0.8862  -20.1
 0.700  0.6444  -44.6  14.748  138.6  0.0221   73.5  0.8812  -20.6
 0.720  0.6381  -45.6  14.594  137.7  0.0225   73.0  0.8760  -21.0
 0.740  0.6319  -46.7  14.444  136.7  0.0229   72.5  0.8709  -21.5
 0.760  0.6260  -47.8  14.298  135.8  0.0232   72.1  0.8658  -21.9
 0.780  0.6203  -48.9  14.157  134.8  0.0236   71.6  0.8608  -22.3
 0.800  0.6149  -50.0  14.019  133.8  0.0240   71.2  0.8558  -22.8
 0.820  0.6086  -51.0  13.888  132.9  0.0245   70.8  0.8508  -23.2
 0.840  0.6025  -52.0  13.760  132.0  0.0250   70.5  0.8458  -23.6
 0.860  0.5965  -53.0  13.636  131.1  0.0254   70.1  0.8409  -24.0
 0.880  0.5908  -54.0  13.515  130.2  0.0259   69.8  0.8360  -24.5
 0.900  0.5852  -55.1  13.397  129.3  0.0264   69.5  0.8312  -24.9
 0.920  0.5794  -56.0  13.257  128.5  0.0269   69.3  0.8261  -25.3
 0.940  0.5738  -56.9  13.120  127.7  0.0273   69.1  0.8211  -25.7
 0.960  0.5684  -57.9  12.986  126.8  0.0278   68.9  0.8161  -26.1
 0.980  0.5630  -58.8  12.855  126.0  0.0282   68.8  0.8112  -26.5
 1.000  0.5579  -59.8  12.726  125.1  0.0287   68.6  0.8063  -26.9
 1.020  0.5519  -60.7  12.597  124.4  0.0292   68.0  0.8014  -27.2
 1.040  0.5461  -61.6  12.470  123.6  0.0297   67.4  0.7965  -27.5
 1.060  0.5404  -62.5  12.345  122.9  0.0301   66.9  0.7917  -27.8
 1.080  0.5348  -63.4  12.222  122.1  0.0306   66.3  0.7869  -28.2
 1.100  0.5294  -64.4  12.102  121.3  0.0311   65.8  0.7821  -28.5
 1.120  0.5240  -65.3  11.980  120.6  0.0314   65.6  0.7774  -28.8
 1.140  0.5187  -66.1  11.859  119.9  0.0317   65.5  0.7727  -29.1
 1.160  0.5135  -67.0  11.741  119.2  0.0319   65.3  0.7680  -29.4
 1.180  0.5085  -68.0  11.624  118.4  0.0322   65.2  0.7633  -29.7
 1.200  0.5036  -68.9  11.509  117.7  0.0325   65.0  0.7587  -30.0
 1.220  0.4984  -69.7  11.392  117.0  0.0329   65.0  0.7542  -30.3
 1.240  0.4932  -70.5  11.277  116.3  0.0332   65.0  0.7496  -30.5
 1.260  0.4882  -71.4  11.164  115.6  0.0336   65.1  0.7451  -30.8
 1.280  0.4832  -72.2  11.052  114.9  0.0339   65.1  0.7407  -31.1
 1.300  0.4784  -73.1  10.942  114.2  0.0343   65.1  0.7362  -31.4
 1.320  0.4739  -73.9  10.831  113.6  0.0347   64.7  0.7318  -31.7
 1.340  0.4696  -74.7  10.722  113.0  0.0351   64.4  0.7275  -31.9
 1.360  0.4653  -75.5  10.613  112.4  0.0354   64.0  0.7231  -32.2
 1.380  0.4611  -76.3  10.506  111.8  0.0358   63.6  0.7188  -32.4
 1.400  0.4570  -77.1  10.400  111.2  0.0362   63.3  0.7145  -32.7
 1.420  0.4523  -77.9  10.300  110.7  0.0365   63.3  0.7106  -32.9
 1.440  0.4476  -78.7  10.201  110.1  0.0368   63.3  0.7066  -33.1
 1.460  0.4431  -79.5  10.103  109.6  0.0372   63.2  0.7027  -33.3
 1.480  0.4386  -80.3  10.006  109.0  0.0375   63.2  0.6988  -33.5
 1.500  0.4342  -81.1   9.910  108.4  0.0378   63.2  0.6949  -33.7
 1.520  0.4304  -81.9   9.815  107.9  0.0383   63.0  0.6913  -33.9
 1.540  0.4266  -82.6   9.722  107.3  0.0387   62.7  0.6876  -34.2
 1.560  0.4229  -83.4   9.629  106.8  0.0392   62.5  0.6840  -34.4
 1.580  0.4193  -84.2   9.537  106.2  0.0396   62.3  0.6804  -34.7
 1.600  0.4158  -85.0   9.446  105.6  0.0401   62.1  0.6768  -34.9
 1.620  0.4120  -85.7   9.354  105.1  0.0403   62.1  0.6729  -35.1
 1.640  0.4083  -86.3   9.263  104.6  0.0405   62.1  0.6690  -35.3
 1.660  0.4046  -87.0   9.173  104.1  0.0407   62.2  0.6651  -35.5
 1.680  0.4010  -87.7   9.083  103.6  0.0409   62.2  0.6613  -35.7
 1.700  0.3974  -88.4   8.994  103.1  0.0411   62.2  0.6574  -35.9
 1.720  0.3939  -89.1   8.913  102.6  0.0414   62.0  0.6540  -36.1
 1.740  0.3904  -89.9   8.832  102.1  0.0417   61.7  0.6506  -36.3
 1.760  0.3871  -90.6   8.752  101.6  0.0421   61.5  0.6472  -36.6
 1.780  0.3837  -91.4   8.673  101.1  0.0424   61.3  0.6439  -36.8
 1.800  0.3805  -92.2   8.594  100.6  0.0427   61.1  0.6405  -37.0
 1.820  0.3774  -92.9   8.520  100.2  0.0431   61.1  0.6371  -37.2
 1.840  0.3743  -93.6   8.447   99.7  0.0436   61.1  0.6338  -37.4
 1.860  0.3713  -94.3   8.374   99.3  0.0440   61.2  0.6304  -37.6
 1.880  0.3684  -95.0   8.301   98.9  0.0445   61.2  0.6270  -37.8
 1.900  0.3655  -95.7   8.229   98.4  0.0449   61.2  0.6237  -38.0
 1.920  0.3626  -96.5   8.161   98.0  0.0451   61.1  0.6212  -38.3
 1.940  0.3599  -97.2   8.094   97.5  0.0454   61.0  0.6187  -38.5
 1.960  0.3571  -98.0   8.028   97.0  0.0456   61.0  0.6162  -38.8
 1.980  0.3545  -98.8   7.962   96.6  0.0459   60.9  0.6138  -39.0
 2.000  0.3519  -99.6   7.896   96.1  0.0461   60.8  0.6113  -39.3
 2.020  0.3492 -100.2   7.828   95.7  0.0465   60.6  0.6085  -39.5
 2.040  0.3465 -100.9   7.760   95.3  0.0469   60.4  0.6057  -39.7
 2.060  0.3439 -101.5   7.693   94.9  0.0472   60.2  0.6029  -39.8
 2.080  0.3413 -102.1   7.626   94.4  0.0476   60.0  0.6002  -40.0
 2.100  0.3388 -102.8   7.560   94.0  0.0480   59.8  0.5974  -40.2
 2.120  0.3360 -103.5   7.496   93.6  0.0484   59.6  0.5946  -40.4
 2.140  0.3333 -104.1   7.433   93.2  0.0487   59.5  0.5919  -40.6
 2.160  0.3306 -104.8   7.371   92.8  0.0491   59.3  0.5892  -40.8
 2.180  0.3280 -105.5   7.308   92.4  0.0494   59.2  0.5864  -41.0
 2.200  0.3254 -106.2   7.246   92.0  0.0498   59.0  0.5837  -41.2
 2.220  0.3232 -106.9   7.187   91.7  0.0501   59.3  0.5813  -41.4
 2.240  0.3210 -107.5   7.129   91.3  0.0504   59.6  0.5789  -41.5
 2.260  0.3189 -108.2   7.071   90.9  0.0508   59.9  0.5765  -41.7
 2.280  0.3168 -108.9   7.013   90.6  0.0511   60.1  0.5741  -41.8
 2.300  0.3148 -109.6   6.955   90.2  0.0514   60.4  0.5717  -42.0
 2.320  0.3127 -110.2   6.902   89.8  0.0516   60.4  0.5694  -42.2
 2.340  0.3106 -110.7   6.849   89.5  0.0518   60.3  0.5672  -42.4
 2.360  0.3086 -111.3   6.797   89.1  0.0521   60.3  0.5650  -42.5
 2.380  0.3066 -111.9   6.745   88.7  0.0523   60.2  0.5627  -42.7
 2.400  0.3046 -112.5   6.693   88.3  0.0525   60.2  0.5605  -42.9
 2.420  0.3027 -113.1   6.641   88.0  0.0528   60.0  0.5585  -43.0
 2.440  0.3007 -113.7   6.589   87.6  0.0531   59.8  0.5566  -43.1
 2.460  0.2989 -114.3   6.538   87.3  0.0533   59.6  0.5546  -43.3
 2.480  0.2970 -115.0   6.486   87.0  0.0536   59.4  0.5527  -43.4
 2.500  0.2952 -115.6   6.435   86.6  0.0539   59.2  0.5507  -43.5
 2.520  0.2932 -116.1   6.387   86.3  0.0542   59.1  0.5488  -43.7
 2.540  0.2913 -116.7   6.338   86.0  0.0545   59.0  0.5468  -43.8
 2.560  0.2894 -117.3   6.290   85.7  0.0548   58.9  0.5449  -44.0
 2.580  0.2875 -117.8   6.243   85.3  0.0551   58.8  0.5430  -44.1
 2.600  0.2857 -118.4   6.195   85.0  0.0554   58.7  0.5411  -44.3
 2.620  0.2841 -119.0   6.152   84.7  0.0557   58.7  0.5392  -44.4
 2.640  0.2825 -119.6   6.108   84.4  0.0560   58.6  0.5373  -44.5
 2.660  0.2810 -120.2   6.065   84.1  0.0564   58.6  0.5354  -44.7
 2.680  0.2795 -120.9   6.023   83.7  0.0567   58.5  0.5335  -44.8
 2.700  0.2780 -121.5   5.980   83.4  0.0570   58.5  0.5316  -44.9
 2.720  0.2765 -122.0   5.940   83.1  0.0573   58.4  0.5300  -45.1
 2.740  0.2750 -122.5   5.900   82.8  0.0577   58.3  0.5285  -45.2
 2.760  0.2735 -123.0   5.860   82.5  0.0580   58.3  0.5269  -45.4
 2.780  0.2720 -123.6   5.820   82.2  0.0584   58.2  0.5254  -45.5
 2.800  0.2706 -124.1   5.780   81.9  0.0587   58.1  0.5238  -45.7
 2.820  0.2693 -124.6   5.739   81.6  0.0589   58.2  0.5224  -45.8
 2.840  0.2680 -125.2   5.698   81.4  0.0591   58.2  0.5209  -46.0
 2.860  0.2667 -125.8   5.658   81.1  0.0592   58.3  0.5195  -46.1
 2.880  0.2654 -126.3   5.617   80.8  0.0594   58.3  0.5180  -46.3
 2.900  0.2642 -126.9   5.577   80.5  0.0596   58.4  0.5166  -46.4
 2.920  0.2627 -127.4   5.542   80.2  0.0599   58.3  0.5151  -46.5
 2.940  0.2612 -128.0   5.507   80.0  0.0602   58.2  0.5135  -46.7
 2.960  0.2598 -128.6   5.472   79.7  0.0606   58.1  0.5120  -46.8
 2.980  0.2584 -129.1   5.438   79.4  0.0609   58.0  0.5104  -47.0
 3.000  0.2570 -129.7   5.403   79.1  0.0612   57.9  0.5089  -47.1
 3.100  0.2523 -132.4   5.231   77.6  0.0630   57.8  0.5027  -47.7
 3.200  0.2451 -135.4   5.065   76.3  0.0644   57.5  0.4962  -48.3
 3.300  0.2409 -137.9   4.919   75.0  0.0665   57.5  0.4907  -48.9
 3.400  0.2350 -140.8   4.770   73.7  0.0675   56.6  0.4855  -49.6
 3.500  0.2312 -142.9   4.639   72.5  0.0693   56.9  0.4813  -49.9
 3.600  0.2269 -145.5   4.507   71.3  0.0707   56.7  0.4767  -50.4
 3.700  0.2230 -148.3   4.386   70.2  0.0724   56.6  0.4720  -50.9
 3.800  0.2195 -151.0   4.270   69.0  0.0738   56.1  0.4677  -51.3
 3.900  0.2175 -153.3   4.165   67.8  0.0753   55.6  0.4640  -51.9
 4.000  0.2145 -155.5   4.062   66.8  0.0773   56.2  0.4605  -52.3
 4.100  0.2127 -158.2   3.965   65.6  0.0791   55.0  0.4558  -52.7
 4.200  0.2092 -161.0   3.871   64.6  0.0800   54.8  0.4519  -53.0
 4.300  0.2094 -163.4   3.786   63.4  0.0820   54.5  0.4478  -53.7
 4.400  0.2074 -165.9   3.702   62.4  0.0832   54.3  0.4448  -53.9
 4.500  0.2080 -167.8   3.618   61.4  0.0852   54.2  0.4412  -54.2
 4.600  0.2064 -170.6   3.540   60.3  0.0863   53.9  0.4376  -54.6
 4.700  0.2073 -172.5   3.467   59.3  0.0883   53.5  0.4330  -55.0
 4.800  0.2071 -175.1   3.400   58.3  0.0897   53.2  0.4304  -55.4
 4.900  0.2072 -176.8   3.331   57.4  0.0916   52.9  0.4261  -55.7
 5.000  0.2079 -179.0   3.266   56.3  0.0933   52.6  0.4229  -56.1
 5.100  0.2077  178.9   3.203   55.3  0.0948   52.2  0.4193  -56.5
 5.200  0.2083  176.5   3.146   54.2  0.0968   52.1  0.4154  -56.9
 5.300  0.2094  174.5   3.087   53.2  0.0983   51.6  0.4120  -57.3
 5.400  0.2093  172.7   3.034   52.3  0.0995   51.3  0.4093  -57.6
 5.500  0.2103  170.7   2.980   51.3  0.1014   51.0  0.4062  -58.0
 5.600  0.2098  168.6   2.928   50.3  0.1030   50.5  0.4031  -58.2
 5.700  0.2118  166.4   2.878   49.4  0.1050   50.4  0.3994  -58.6
 5.800  0.2125  164.7   2.832   48.4  0.1067   49.6  0.3967  -59.0
 5.900  0.2129  162.6   2.785   47.5  0.1083   49.5  0.3940  -59.4
 6.000  0.2126  160.7   2.739   46.5  0.1098   49.0  0.3914  -59.6
 6.100  0.2141  158.7   2.692   45.5  0.1113   48.5  0.3875  -59.8
 6.200  0.2143  156.7   2.649   44.6  0.1132   48.1  0.3851  -60.3
 6.300  0.2162  154.5   2.611   43.7  0.1142   48.2  0.3813  -60.6
 6.400  0.2155  152.7   2.570   42.7  0.1161   47.6  0.3788  -61.0
 6.500  0.2170  150.3   2.528   41.8  0.1180   47.2  0.3761  -61.2
 6.600  0.2181  148.3   2.492   40.9  0.1196   46.7  0.3725  -61.4
 6.800  0.2216  144.1   2.419   39.0  0.1226   46.1  0.3663  -61.8
 7.000  0.2248  139.8   2.350   37.3  0.1263   45.4  0.3586  -61.7
 7.200  0.2309  135.8   2.283   35.6  0.1293   44.8  0.3492  -62.1
 7.400  0.2390  132.2   2.223   33.9  0.1329   44.2  0.3402  -62.4
 7.600  0.2485  129.0   2.167   32.3  0.1368   43.4  0.3297  -62.5
 7.800  0.2601  126.5   2.115   30.6  0.1417   42.7  0.3178  -62.9
 8.000  0.2731  124.1   2.065   28.9  0.1444   41.7  0.3029  -63.3
 8.200  0.2885  122.2   2.021   27.3  0.1484   40.7  0.2848  -63.7
 8.400  0.3042  120.4   1.979   25.7  0.1524   39.7  0.2667  -64.2
 8.600  0.3197  118.9   1.938   24.0  0.1563   38.7  0.2466  -64.6
 8.800  0.3352  117.5   1.899   22.3  0.1602   37.8  0.2245  -65.2
 9.000  0.3508  116.3   1.861   20.5  0.1642   36.9  0.2024  -65.9
 9.200  0.3652  115.0   1.825   18.9  0.1679   35.8  0.1784  -67.2
 9.400  0.3798  113.8   1.791   17.3  0.1717   34.7  0.1546  -69.0
 9.600  0.3935  112.6   1.758   15.6  0.1756   33.6  0.1302  -71.6
 9.800  0.4062  111.3   1.728   13.8  0.1797   32.3  0.1056  -75.5
10.000  0.4191  110.2   1.699   12.0  0.1838   31.1  0.0818  -81.8
10.200  0.4307  108.5   1.668   10.2  0.1873   29.9  0.0595  -94.8
10.400  0.4427  106.8   1.639    8.4  0.1908   28.7  0.0434 -120.0
10.600  0.4539  104.9   1.608    6.6  0.1941   27.4  0.0443 -157.7
10.800  0.4646  102.7   1.576    4.7  0.1972   25.9  0.0629  177.4
11.000  0.4759  100.7   1.546    2.7  0.2004   24.5  0.0877  165.1
11.200  0.4842   98.6   1.509    1.0  0.2021   23.4  0.1136  161.1
11.400  0.4930   96.7   1.473   -0.7  0.2039   22.3  0.1398  158.6
11.600  0.4992   95.0   1.439   -2.2  0.2060   21.4  0.1650  158.8
11.800  0.5024   93.6   1.407   -3.5  0.2085   20.6  0.1893  160.5
12.000  0.5059   92.3   1.375   -4.9  0.2111   19.8  0.2136  161.8
!
!  f       NFmin   Gammaopt  rn/50
! GHz       dB    MAG  ANG    -
 0.450      1.45  0.30    6   0.34
 0.900      1.46  0.28   11   0.34
 1.500      1.52  0.26   16   0.30
 1.900      1.56  0.24   24   0.30
 2.400      1.71  0.23   32   0.32
 3.000      1.77  0.21   45   0.29
 3.500      1.82  0.19   53   0.28
 4.500      1.97  0.15   59   0.20
 5.500      2.17  0.08   66   0.07
!
! (c) 2015  Infineon Technologies AG, Munich
