! Infineon Technologies  Discrete & RF Semiconductors
! BFP420
! VCE =  2.0 V,  IC =  8.0 mA
! Common Emitter S-Parameters:                            Jan 2016
# GHz  S  MA  R  50
!  f         S11            S21            S12            S22
! GHz     MAG   ANG      MAG   ANG      MAG   ANG      MAG   ANG
 0.010  0.7513   -1.9  23.147  179.2  0.0008   76.2  0.9761    0.6
 0.015  0.7524   -2.6  22.867  178.5  0.0013   84.7  0.9785   -0.6
 0.020  0.7535   -3.2  22.591  177.8  0.0019   88.3  0.9813   -1.7
 0.025  0.7529   -3.9  22.583  177.2  0.0024   87.7  0.9810   -2.2
 0.030  0.7523   -4.7  22.577  176.6  0.0028   87.4  0.9807   -2.7
 0.035  0.7519   -5.4  22.573  176.0  0.0033   87.1  0.9805   -3.1
 0.040  0.7517   -6.1  22.572  175.4  0.0038   86.9  0.9804   -3.6
 0.045  0.7515   -6.9  22.574  174.8  0.0042   86.7  0.9803   -4.1
 0.050  0.7515   -7.6  22.578  174.2  0.0047   86.6  0.9803   -4.6
 0.055  0.7504   -8.4  22.560  173.7  0.0051   85.8  0.9792   -5.1
 0.060  0.7494   -9.3  22.543  173.1  0.0056   85.1  0.9782   -5.6
 0.065  0.7486  -10.1  22.529  172.6  0.0060   84.5  0.9772   -6.0
 0.070  0.7480  -10.9  22.516  172.0  0.0065   84.1  0.9764   -6.5
 0.075  0.7475  -11.8  22.506  171.5  0.0069   83.6  0.9755   -7.0
 0.080  0.7472  -12.6  22.498  171.0  0.0074   83.2  0.9748   -7.5
 0.085  0.7471  -13.5  22.491  170.4  0.0078   82.9  0.9741   -8.0
 0.090  0.7471  -14.3  22.487  169.9  0.0083   82.6  0.9735   -8.4
 0.095  0.7473  -15.2  22.484  169.3  0.0087   82.3  0.9730   -8.9
 0.100  0.7476  -16.0  22.484  168.8  0.0092   82.1  0.9725   -9.4
 0.105  0.7462  -16.8  22.438  168.2  0.0096   81.6  0.9708   -9.9
 0.110  0.7449  -17.6  22.395  167.7  0.0101   81.2  0.9692  -10.3
 0.115  0.7438  -18.4  22.354  167.1  0.0105   80.9  0.9676  -10.8
 0.120  0.7428  -19.2  22.314  166.6  0.0110   80.5  0.9661  -11.2
 0.125  0.7420  -20.0  22.277  166.0  0.0114   80.2  0.9647  -11.7
 0.130  0.7413  -20.8  22.242  165.5  0.0118   79.9  0.9633  -12.1
 0.135  0.7408  -21.6  22.210  164.9  0.0123   79.6  0.9620  -12.6
 0.140  0.7404  -22.4  22.179  164.3  0.0127   79.4  0.9607  -13.1
 0.145  0.7401  -23.2  22.150  163.8  0.0132   79.1  0.9595  -13.5
 0.150  0.7400  -24.0  22.124  163.2  0.0136   78.9  0.9584  -14.0
 0.155  0.7385  -24.7  22.068  162.7  0.0140   78.4  0.9562  -14.4
 0.160  0.7371  -25.5  22.013  162.2  0.0145   78.0  0.9541  -14.9
 0.165  0.7358  -26.2  21.960  161.7  0.0149   77.5  0.9520  -15.3
 0.170  0.7347  -27.0  21.909  161.1  0.0153   77.1  0.9500  -15.8
 0.175  0.7336  -27.7  21.859  160.6  0.0157   76.7  0.9480  -16.2
 0.180  0.7327  -28.5  21.812  160.1  0.0162   76.4  0.9461  -16.7
 0.185  0.7320  -29.2  21.766  159.6  0.0166   76.0  0.9443  -17.1
 0.190  0.7313  -30.0  21.722  159.1  0.0170   75.7  0.9425  -17.6
 0.195  0.7308  -30.7  21.680  158.5  0.0175   75.4  0.9408  -18.0
 0.200  0.7304  -31.5  21.640  158.0  0.0179   75.1  0.9391  -18.5
 0.220  0.7230  -34.5  21.360  155.9  0.0195   73.6  0.9294  -20.2
 0.240  0.7175  -37.6  21.108  153.8  0.0211   72.3  0.9205  -21.8
 0.260  0.7119  -40.5  20.865  151.8  0.0226   71.0  0.9107  -23.5
 0.280  0.7059  -43.4  20.623  149.9  0.0241   69.7  0.8999  -25.2
 0.300  0.7017  -46.3  20.405  147.9  0.0256   68.5  0.8898  -26.9
 0.320  0.6944  -49.1  20.111  146.1  0.0270   67.2  0.8780  -28.4
 0.340  0.6888  -51.9  19.837  144.3  0.0283   66.0  0.8668  -29.9
 0.360  0.6830  -54.6  19.553  142.5  0.0296   64.9  0.8553  -31.4
 0.380  0.6770  -57.2  19.257  140.8  0.0309   63.8  0.8433  -32.9
 0.400  0.6724  -59.9  18.979  139.0  0.0321   62.7  0.8318  -34.4
 0.420  0.6650  -62.4  18.672  137.4  0.0332   61.6  0.8195  -35.7
 0.440  0.6589  -65.0  18.380  135.7  0.0343   60.6  0.8077  -37.1
 0.450  0.6564  -66.3  18.240  134.9  0.0349   60.1  0.8020  -37.8
 0.460  0.6527  -67.5  18.084  134.1  0.0354   59.6  0.7957  -38.4
 0.480  0.6463  -70.0  17.783  132.5  0.0364   58.7  0.7835  -39.7
 0.500  0.6411  -72.5  17.496  130.9  0.0374   57.8  0.7716  -41.0
 0.520  0.6336  -74.7  17.191  129.6  0.0383   56.9  0.7594  -42.1
 0.540  0.6271  -76.9  16.895  128.2  0.0392   56.1  0.7475  -43.2
 0.560  0.6216  -79.2  16.609  126.8  0.0401   55.3  0.7359  -44.4
 0.580  0.6171  -81.5  16.334  125.3  0.0410   54.5  0.7246  -45.6
 0.600  0.6136  -83.9  16.070  123.8  0.0419   53.8  0.7136  -46.8
 0.620  0.6073  -85.9  15.790  122.6  0.0426   53.1  0.7023  -47.8
 0.640  0.6017  -88.0  15.516  121.4  0.0434   52.4  0.6912  -48.7
 0.660  0.5969  -90.0  15.250  120.2  0.0441   51.8  0.6803  -49.8
 0.680  0.5929  -92.2  14.991  118.8  0.0448   51.1  0.6696  -50.8
 0.700  0.5897  -94.3  14.740  117.5  0.0456   50.5  0.6592  -51.9
 0.720  0.5845  -96.1  14.484  116.5  0.0462   49.9  0.6490  -52.7
 0.740  0.5799  -97.9  14.233  115.4  0.0468   49.4  0.6390  -53.6
 0.760  0.5759  -99.8  13.987  114.3  0.0474   48.8  0.6291  -54.5
 0.780  0.5725 -101.7  13.747  113.2  0.0481   48.3  0.6194  -55.4
 0.800  0.5698 -103.6  13.512  112.0  0.0487   47.8  0.6099  -56.4
 0.820  0.5655 -105.3  13.290  111.1  0.0492   47.3  0.6008  -57.2
 0.840  0.5617 -107.0  13.072  110.1  0.0498   46.9  0.5919  -58.0
 0.860  0.5584 -108.7  12.858  109.1  0.0503   46.5  0.5830  -58.8
 0.880  0.5556 -110.4  12.648  108.1  0.0509   46.0  0.5743  -59.6
 0.900  0.5533 -112.2  12.442  107.0  0.0514   45.6  0.5657  -60.5
 0.920  0.5499 -113.7  12.245  106.2  0.0519   45.2  0.5575  -61.2
 0.940  0.5470 -115.3  12.052  105.3  0.0524   44.9  0.5494  -61.9
 0.960  0.5444 -116.9  11.861  104.4  0.0529   44.6  0.5414  -62.7
 0.980  0.5423 -118.5  11.673  103.5  0.0534   44.2  0.5335  -63.4
 1.000  0.5406 -120.1  11.488  102.5  0.0539   43.9  0.5257  -64.2
 1.020  0.5379 -121.5  11.312  101.7  0.0543   43.6  0.5185  -64.8
 1.040  0.5355 -122.9  11.139  101.0  0.0548   43.3  0.5114  -65.5
 1.060  0.5335 -124.3  10.967  100.2  0.0552   43.0  0.5044  -66.2
 1.080  0.5317 -125.7  10.798   99.4  0.0557   42.7  0.4975  -66.9
 1.100  0.5303 -127.1  10.631   98.5  0.0561   42.4  0.4906  -67.6
 1.120  0.5283 -128.4  10.476   97.8  0.0565   42.1  0.4839  -68.2
 1.140  0.5267 -129.7  10.324   97.0  0.0569   41.9  0.4773  -68.9
 1.160  0.5253 -131.0  10.173   96.3  0.0573   41.6  0.4707  -69.6
 1.180  0.5241 -132.4  10.023   95.5  0.0577   41.4  0.4642  -70.3
 1.200  0.5233 -133.7   9.876   94.7  0.0581   41.1  0.4578  -71.0
 1.220  0.5215 -134.9   9.739   94.1  0.0585   40.9  0.4520  -71.6
 1.240  0.5200 -136.1   9.604   93.4  0.0589   40.7  0.4463  -72.2
 1.260  0.5187 -137.3   9.469   92.7  0.0593   40.5  0.4406  -72.8
 1.280  0.5176 -138.5   9.336   92.0  0.0597   40.3  0.4349  -73.4
 1.300  0.5168 -139.7   9.205   91.3  0.0601   40.1  0.4293  -74.0
 1.320  0.5156 -140.8   9.083   90.7  0.0605   39.9  0.4240  -74.6
 1.340  0.5145 -142.0   8.962   90.1  0.0609   39.7  0.4188  -75.2
 1.360  0.5137 -143.1   8.842   89.4  0.0612   39.6  0.4136  -75.8
 1.380  0.5130 -144.3   8.723   88.8  0.0616   39.4  0.4085  -76.4
 1.400  0.5126 -145.4   8.605   88.1  0.0620   39.2  0.4034  -77.0
 1.420  0.5115 -146.4   8.499   87.5  0.0624   39.0  0.3986  -77.5
 1.440  0.5106 -147.4   8.393   87.0  0.0627   38.9  0.3938  -78.1
 1.460  0.5099 -148.5   8.288   86.4  0.0631   38.7  0.3891  -78.6
 1.480  0.5093 -149.5   8.184   85.8  0.0634   38.6  0.3844  -79.2
 1.500  0.5089 -150.5   8.081   85.2  0.0638   38.4  0.3797  -79.8
 1.520  0.5082 -151.5   7.983   84.6  0.0642   38.3  0.3754  -80.3
 1.540  0.5077 -152.4   7.886   84.1  0.0645   38.1  0.3712  -80.8
 1.560  0.5073 -153.4   7.789   83.5  0.0649   38.0  0.3670  -81.4
 1.580  0.5070 -154.3   7.694   82.9  0.0652   37.8  0.3628  -81.9
 1.600  0.5069 -155.3   7.599   82.3  0.0656   37.7  0.3587  -82.5
 1.620  0.5061 -156.3   7.513   81.8  0.0660   37.6  0.3547  -83.0
 1.640  0.5054 -157.2   7.427   81.3  0.0663   37.4  0.3507  -83.6
 1.660  0.5049 -158.2   7.343   80.7  0.0667   37.3  0.3467  -84.1
 1.680  0.5045 -159.1   7.258   80.2  0.0670   37.1  0.3428  -84.7
 1.700  0.5042 -160.1   7.175   79.6  0.0674   37.0  0.3389  -85.3
 1.720  0.5037 -160.9   7.094   79.1  0.0678   36.9  0.3354  -85.8
 1.740  0.5033 -161.7   7.014   78.6  0.0681   36.8  0.3318  -86.3
 1.760  0.5030 -162.5   6.934   78.1  0.0685   36.6  0.3283  -86.8
 1.780  0.5028 -163.3   6.855   77.6  0.0688   36.5  0.3248  -87.3
 1.800  0.5027 -164.1   6.776   77.1  0.0692   36.4  0.3214  -87.8
 1.820  0.5024 -165.0   6.705   76.6  0.0695   36.3  0.3179  -88.4
 1.840  0.5023 -165.9   6.634   76.1  0.0699   36.2  0.3145  -88.9
 1.860  0.5022 -166.7   6.563   75.6  0.0702   36.0  0.3110  -89.5
 1.880  0.5023 -167.6   6.493   75.1  0.0706   35.9  0.3077  -90.1
 1.900  0.5025 -168.5   6.424   74.6  0.0709   35.8  0.3043  -90.7
 1.920  0.5019 -169.2   6.360   74.2  0.0713   35.7  0.3013  -91.2
 1.940  0.5015 -169.9   6.296   73.7  0.0716   35.6  0.2982  -91.6
 1.960  0.5011 -170.7   6.232   73.3  0.0720   35.5  0.2952  -92.1
 1.980  0.5007 -171.4   6.169   72.9  0.0723   35.4  0.2923  -92.6
 2.000  0.5005 -172.1   6.106   72.4  0.0727   35.3  0.2893  -93.1
 2.020  0.5001 -172.9   6.049   72.0  0.0730   35.2  0.2864  -93.6
 2.040  0.4999 -173.6   5.992   71.5  0.0734   35.1  0.2835  -94.1
 2.060  0.4997 -174.4   5.935   71.1  0.0737   35.0  0.2806  -94.7
 2.080  0.4996 -175.2   5.879   70.7  0.0741   34.8  0.2777  -95.2
 2.100  0.4996 -176.0   5.823   70.2  0.0744   34.7  0.2749  -95.8
 2.120  0.4997 -176.7   5.767   69.7  0.0747   34.6  0.2721  -96.3
 2.140  0.4998 -177.5   5.712   69.3  0.0751   34.5  0.2693  -96.9
 2.160  0.5001 -178.3   5.657   68.8  0.0754   34.4  0.2666  -97.5
 2.180  0.5005 -179.0   5.603   68.3  0.0758   34.3  0.2639  -98.1
 2.200  0.5009 -179.8   5.549   67.8  0.0761   34.2  0.2612  -98.7
 2.220  0.5010  179.5   5.500   67.4  0.0764   34.1  0.2586  -99.2
 2.240  0.5011  178.9   5.452   67.0  0.0768   34.0  0.2561  -99.8
 2.260  0.5013  178.2   5.404   66.6  0.0771   33.9  0.2536 -100.4
 2.280  0.5015  177.5   5.356   66.2  0.0775   33.7  0.2511 -101.0
 2.300  0.5018  176.8   5.308   65.8  0.0778   33.6  0.2486 -101.6
 2.320  0.5022  176.2   5.261   65.4  0.0782   33.5  0.2462 -102.2
 2.340  0.5027  175.5   5.214   65.0  0.0785   33.4  0.2438 -102.8
 2.360  0.5032  174.8   5.167   64.6  0.0789   33.3  0.2414 -103.4
 2.380  0.5038  174.2   5.120   64.1  0.0792   33.2  0.2390 -104.0
 2.400  0.5045  173.5   5.074   63.7  0.0796   33.1  0.2367 -104.7
 2.420  0.5049  172.8   5.033   63.3  0.0799   33.0  0.2345 -105.3
 2.440  0.5055  172.2   4.991   62.9  0.0803   32.9  0.2323 -105.9
 2.460  0.5060  171.5   4.950   62.5  0.0806   32.8  0.2301 -106.5
 2.480  0.5067  170.9   4.909   62.1  0.0809   32.6  0.2280 -107.2
 2.500  0.5074  170.2   4.869   61.7  0.0812   32.5  0.2258 -107.8
 2.520  0.5082  169.6   4.829   61.3  0.0816   32.4  0.2237 -108.5
 2.540  0.5090  168.9   4.789   60.9  0.0819   32.3  0.2217 -109.1
 2.560  0.5099  168.3   4.749   60.5  0.0822   32.2  0.2197 -109.8
 2.580  0.5109  167.6   4.709   60.0  0.0826   32.1  0.2177 -110.5
 2.600  0.5119  167.0   4.670   59.6  0.0829   32.0  0.2157 -111.2
 2.620  0.5122  166.4   4.634   59.2  0.0832   31.9  0.2138 -111.8
 2.640  0.5126  165.9   4.598   58.9  0.0836   31.8  0.2119 -112.5
 2.660  0.5130  165.3   4.562   58.5  0.0839   31.7  0.2100 -113.1
 2.680  0.5135  164.7   4.526   58.2  0.0843   31.6  0.2082 -113.8
 2.700  0.5140  164.1   4.491   57.8  0.0846   31.5  0.2064 -114.5
 2.720  0.5146  163.6   4.456   57.4  0.0849   31.4  0.2046 -115.2
 2.740  0.5152  163.0   4.421   57.0  0.0853   31.3  0.2029 -115.9
 2.760  0.5159  162.4   4.386   56.6  0.0856   31.2  0.2011 -116.6
 2.780  0.5166  161.9   4.351   56.2  0.0860   31.1  0.1995 -117.4
 2.800  0.5174  161.3   4.317   55.8  0.0863   31.0  0.1978 -118.1
 2.820  0.5181  160.8   4.286   55.5  0.0866   30.9  0.1962 -118.8
 2.840  0.5188  160.2   4.255   55.1  0.0870   30.8  0.1946 -119.4
 2.860  0.5196  159.7   4.224   54.8  0.0873   30.6  0.1931 -120.1
 2.880  0.5204  159.2   4.194   54.4  0.0877   30.5  0.1916 -120.8
 2.900  0.5212  158.7   4.163   54.1  0.0880   30.4  0.1901 -121.5
 2.920  0.5221  158.2   4.133   53.7  0.0884   30.3  0.1886 -122.2
 2.940  0.5230  157.6   4.103   53.3  0.0887   30.2  0.1872 -123.0
 2.960  0.5240  157.1   4.073   53.0  0.0891   30.0  0.1858 -123.7
 2.980  0.5250  156.6   4.044   52.6  0.0894   29.9  0.1844 -124.4
 3.000  0.5261  156.1   4.014   52.2  0.0898   29.8  0.1831 -125.2
 3.100  0.5295  153.5   3.884   50.6  0.0914   29.2  0.1767 -129.0
 3.200  0.5340  150.9   3.758   49.0  0.0931   28.5  0.1712 -133.0
 3.300  0.5396  148.4   3.634   47.2  0.0947   27.9  0.1665 -137.3
 3.400  0.5462  145.9   3.515   45.3  0.0964   27.4  0.1628 -141.8
 3.500  0.5538  143.5   3.399   43.3  0.0981   26.8  0.1602 -146.5
 3.600  0.5576  141.3   3.300   41.8  0.0998   26.1  0.1579 -150.6
 3.700  0.5621  139.1   3.203   40.2  0.1014   25.5  0.1564 -154.8
 3.800  0.5675  137.0   3.109   38.6  0.1031   24.8  0.1558 -159.1
 3.900  0.5736  134.9   3.018   36.8  0.1048   24.2  0.1561 -163.4
 4.000  0.5805  132.9   2.930   34.9  0.1065   23.6  0.1572 -167.6
 4.100  0.5839  131.2   2.851   33.5  0.1080   22.9  0.1582 -171.3
 4.200  0.5878  129.5   2.773   32.0  0.1096   22.1  0.1598 -174.9
 4.300  0.5922  127.8   2.697   30.4  0.1111   21.4  0.1621 -178.4
 4.400  0.5971  126.1   2.624   28.8  0.1127   20.8  0.1649  178.2
 4.500  0.6025  124.5   2.553   27.0  0.1143   20.1  0.1683  174.9
 4.600  0.6043  123.2   2.491   25.8  0.1157   19.4  0.1700  172.1
 4.700  0.6064  121.8   2.429   24.4  0.1172   18.7  0.1721  169.4
 4.800  0.6089  120.5   2.369   23.1  0.1186   18.1  0.1746  166.7
 4.900  0.6117  119.2   2.311   21.6  0.1201   17.4  0.1775  164.2
 5.000  0.6148  117.9   2.254   20.1  0.1216   16.8  0.1807  161.7
 5.100  0.6170  116.6   2.205   18.9  0.1230   16.1  0.1833  159.3
 5.200  0.6194  115.3   2.157   17.6  0.1244   15.4  0.1862  157.0
 5.300  0.6222  114.0   2.111   16.3  0.1258   14.8  0.1894  154.7
 5.400  0.6254  112.7   2.065   14.9  0.1272   14.1  0.1929  152.6
 5.500  0.6288  111.4   2.021   13.4  0.1287   13.5  0.1967  150.5
 5.600  0.6322  110.1   1.982   12.2  0.1301   12.8  0.2001  148.3
 5.700  0.6358  108.8   1.944   10.9  0.1316   12.1  0.2037  146.2
 5.800  0.6398  107.6   1.908    9.6  0.1330   11.5  0.2076  144.2
 5.900  0.6441  106.3   1.872    8.2  0.1345   10.8  0.2117  142.3
 6.000  0.6487  105.1   1.837    6.8  0.1360   10.2  0.2161  140.4
 6.100  0.6524  103.9   1.805    5.5  0.1375    9.4  0.2195  138.5
 6.200  0.6564  102.7   1.773    4.2  0.1391    8.6  0.2231  136.7
 6.300  0.6607  101.6   1.743    2.9  0.1407    7.8  0.2269  134.9
 6.400  0.6653  100.4   1.713    1.5  0.1423    7.0  0.2310  133.2
 6.500  0.6701   99.3   1.685    0.0  0.1440    6.3  0.2352  131.6
 6.600  0.6727   98.2   1.658   -1.3  0.1456    5.5  0.2379  129.8
 6.800  0.6788   95.9   1.606   -4.1  0.1490    3.8  0.2438  126.4
 7.000  0.6859   93.7   1.559   -7.0  0.1525    2.3  0.2506  123.2
 7.200  0.6898   91.3   1.511   -9.7  0.1556    0.3  0.2588  120.0
 7.400  0.6949   89.0   1.467  -12.5  0.1590   -1.7  0.2677  117.0
 7.600  0.6996   86.4   1.420  -15.4  0.1616   -3.7  0.2775  113.9
 7.800  0.7042   83.7   1.371  -18.2  0.1636   -5.9  0.2884  110.7
 8.000  0.7103   81.0   1.326  -21.3  0.1658   -8.0  0.3001  107.8
 8.200  0.7157   78.2   1.275  -23.8  0.1659  -10.0  0.3128  104.1
 8.400  0.7227   75.4   1.226  -26.6  0.1662  -12.0  0.3267  100.7
 8.600  0.7328   72.7   1.182  -29.1  0.1664  -13.7  0.3434   97.5
 8.800  0.7457   70.2   1.140  -31.3  0.1664  -15.1  0.3627   94.5
 9.000  0.7601   67.7   1.100  -33.7  0.1666  -16.5  0.3829   91.9
 9.200  0.7803   65.8   1.068  -35.8  0.1672  -17.7  0.4062   89.9
 9.400  0.8014   64.0   1.038  -38.0  0.1679  -19.0  0.4300   88.0
 9.600  0.8198   62.4   1.003  -40.1  0.1687  -20.3  0.4524   86.5
 9.800  0.8354   61.0   0.964  -42.2  0.1695  -21.7  0.4734   85.1
10.000  0.8515   59.7   0.927  -44.5  0.1704  -23.0  0.4946   83.8
!
!  f       NFmin   Gammaopt  rn/50
! GHz       dB    MAG  ANG    -
 0.900      0.79  0.08   30   0.13
 1.800      1.14  0.06  171   0.12
 2.400      1.24  0.10  160   0.13
 3.000      1.32  0.17 -165   0.12
 4.000      1.46  0.32 -132   0.14
 5.000      1.85  0.39 -110   0.25
 6.000      2.30  0.46  -95   0.37
!
! (c) 2016  Infineon Technologies AG, Munich
