! Infineon Technologies  Discrete & RF Semiconductors
! BFP420
! VCE =  1.0 V,  IC =  3.0 mA
! Common Emitter S-Parameters:                            Jan 2016
# GHz  S  MA  R  50
!  f         S11            S21            S12            S22
! GHz     MAG   ANG      MAG   ANG      MAG   ANG      MAG   ANG
 0.010  0.9042   -2.6  10.126  179.4  0.0011   86.3  0.9885    0.0
 0.015  0.8980   -2.3  10.020  179.1  0.0017   86.0  0.9894   -0.7
 0.020  0.8919   -1.9   9.915  178.8  0.0023   85.8  0.9904   -1.3
 0.025  0.8913   -2.4   9.921  178.4  0.0029   86.9  0.9903   -1.6
 0.030  0.8907   -2.8   9.928  177.9  0.0036   87.7  0.9901   -1.9
 0.035  0.8901   -3.3   9.936  177.5  0.0042   88.2  0.9901   -2.2
 0.040  0.8897   -3.8   9.944  177.1  0.0048   88.6  0.9900   -2.6
 0.045  0.8893   -4.2   9.953  176.6  0.0055   88.9  0.9900   -2.9
 0.050  0.8889   -4.7   9.962  176.2  0.0061   89.1  0.9900   -3.2
 0.055  0.8886   -5.2   9.965  175.8  0.0067   88.2  0.9895   -3.5
 0.060  0.8884   -5.8   9.968  175.5  0.0073   87.4  0.9891   -3.9
 0.065  0.8883   -6.4   9.971  175.1  0.0079   86.8  0.9887   -4.2
 0.070  0.8883   -6.9   9.975  174.7  0.0085   86.2  0.9883   -4.5
 0.075  0.8883   -7.5   9.980  174.3  0.0091   85.7  0.9880   -4.8
 0.080  0.8885   -8.0   9.985  174.0  0.0097   85.3  0.9877   -5.2
 0.085  0.8887   -8.6   9.990  173.6  0.0103   84.9  0.9874   -5.5
 0.090  0.8890   -9.1   9.995  173.2  0.0109   84.6  0.9872   -5.8
 0.095  0.8893   -9.7  10.002  172.9  0.0115   84.3  0.9870   -6.2
 0.100  0.8898  -10.2  10.008  172.5  0.0121   84.0  0.9868   -6.5
 0.105  0.8892  -10.7  10.001  172.1  0.0127   83.7  0.9861   -6.8
 0.110  0.8886  -11.2   9.994  171.7  0.0133   83.3  0.9854   -7.1
 0.115  0.8881  -11.7   9.988  171.3  0.0139   83.1  0.9847   -7.5
 0.120  0.8877  -12.2   9.982  170.9  0.0145   82.8  0.9841   -7.8
 0.125  0.8873  -12.6   9.977  170.6  0.0150   82.6  0.9835   -8.1
 0.130  0.8870  -13.1   9.972  170.2  0.0156   82.3  0.9830   -8.4
 0.135  0.8867  -13.6   9.967  169.8  0.0162   82.1  0.9824   -8.7
 0.140  0.8866  -14.1   9.963  169.4  0.0168   81.9  0.9819   -9.1
 0.145  0.8864  -14.6   9.960  169.0  0.0174   81.8  0.9814   -9.4
 0.150  0.8864  -15.1   9.957  168.6  0.0180   81.6  0.9810   -9.7
 0.155  0.8857  -15.6   9.948  168.2  0.0186   81.2  0.9800  -10.0
 0.160  0.8851  -16.1   9.939  167.9  0.0192   80.9  0.9790  -10.3
 0.165  0.8845  -16.6   9.931  167.5  0.0198   80.5  0.9781  -10.7
 0.170  0.8840  -17.1   9.924  167.1  0.0204   80.2  0.9772  -11.0
 0.175  0.8836  -17.6   9.916  166.8  0.0210   79.9  0.9763  -11.3
 0.180  0.8832  -18.1   9.909  166.4  0.0216   79.7  0.9755  -11.6
 0.185  0.8829  -18.6   9.903  166.0  0.0222   79.4  0.9747  -11.9
 0.190  0.8827  -19.1   9.897  165.6  0.0228   79.2  0.9739  -12.3
 0.195  0.8825  -19.6   9.891  165.3  0.0234   78.9  0.9731  -12.6
 0.200  0.8824  -20.1   9.886  164.9  0.0240   78.7  0.9724  -12.9
 0.220  0.8783  -22.0   9.827  163.4  0.0263   77.5  0.9680  -14.2
 0.240  0.8752  -24.0   9.774  161.8  0.0286   76.5  0.9641  -15.5
 0.260  0.8720  -26.0   9.729  160.3  0.0308   75.4  0.9595  -16.7
 0.280  0.8688  -28.0   9.689  158.8  0.0330   74.3  0.9542  -18.0
 0.300  0.8666  -30.0   9.656  157.4  0.0352   73.3  0.9494  -19.2
 0.320  0.8625  -31.9   9.596  156.0  0.0373   72.1  0.9434  -20.4
 0.340  0.8594  -33.9   9.542  154.6  0.0395   71.0  0.9378  -21.6
 0.360  0.8560  -35.8   9.481  153.2  0.0416   69.9  0.9318  -22.8
 0.380  0.8522  -37.7   9.414  151.8  0.0436   68.8  0.9252  -23.9
 0.400  0.8493  -39.6   9.352  150.4  0.0457   67.8  0.9190  -25.1
 0.420  0.8440  -41.5   9.280  149.0  0.0476   66.7  0.9120  -26.3
 0.440  0.8396  -43.4   9.214  147.6  0.0496   65.8  0.9054  -27.5
 0.450  0.8378  -44.4   9.183  146.9  0.0506   65.3  0.9022  -28.1
 0.460  0.8352  -45.3   9.143  146.3  0.0515   64.8  0.8983  -28.6
 0.480  0.8307  -47.1   9.065  144.9  0.0533   63.7  0.8906  -29.7
 0.500  0.8271  -49.0   8.993  143.6  0.0552   62.8  0.8833  -30.8
 0.520  0.8210  -50.8   8.907  142.3  0.0569   61.7  0.8750  -31.8
 0.540  0.8156  -52.6   8.825  141.1  0.0586   60.7  0.8670  -32.9
 0.560  0.8111  -54.4   8.748  139.8  0.0603   59.8  0.8593  -34.0
 0.580  0.8074  -56.2   8.675  138.4  0.0620   58.9  0.8520  -35.1
 0.600  0.8046  -58.1   8.607  137.1  0.0638   58.0  0.8449  -36.2
 0.620  0.7986  -59.8   8.517  135.9  0.0652   57.1  0.8362  -37.2
 0.640  0.7932  -61.5   8.431  134.8  0.0667   56.2  0.8278  -38.1
 0.660  0.7886  -63.2   8.348  133.6  0.0682   55.3  0.8197  -39.1
 0.680  0.7847  -64.9   8.269  132.3  0.0697   54.5  0.8118  -40.2
 0.700  0.7815  -66.7   8.194  131.1  0.0712   53.7  0.8041  -41.2
 0.720  0.7759  -68.3   8.103  130.0  0.0725   52.8  0.7956  -42.1
 0.740  0.7709  -69.9   8.014  129.0  0.0738   52.0  0.7873  -43.0
 0.760  0.7665  -71.6   7.928  127.9  0.0751   51.2  0.7792  -43.9
 0.780  0.7627  -73.2   7.846  126.7  0.0764   50.4  0.7713  -44.8
 0.800  0.7596  -74.9   7.766  125.6  0.0777   49.7  0.7636  -45.8
 0.820  0.7544  -76.4   7.680  124.6  0.0788   48.9  0.7554  -46.6
 0.840  0.7497  -78.0   7.596  123.5  0.0799   48.2  0.7473  -47.5
 0.860  0.7455  -79.5   7.515  122.5  0.0811   47.4  0.7393  -48.3
 0.880  0.7419  -81.1   7.437  121.4  0.0822   46.7  0.7316  -49.2
 0.900  0.7389  -82.7   7.361  120.3  0.0834   46.0  0.7240  -50.1
 0.920  0.7339  -84.2   7.280  119.4  0.0844   45.3  0.7160  -50.9
 0.940  0.7294  -85.7   7.202  118.4  0.0854   44.6  0.7082  -51.7
 0.960  0.7255  -87.2   7.125  117.5  0.0864   44.0  0.7005  -52.5
 0.980  0.7220  -88.7   7.051  116.5  0.0874   43.3  0.6930  -53.3
 1.000  0.7191  -90.3   6.978  115.5  0.0884   42.7  0.6856  -54.2
 1.020  0.7149  -91.7   6.900  114.6  0.0892   42.1  0.6782  -54.9
 1.040  0.7111  -93.1   6.823  113.8  0.0901   41.5  0.6709  -55.6
 1.060  0.7077  -94.5   6.747  112.9  0.0909   40.9  0.6637  -56.4
 1.080  0.7047  -95.9   6.674  111.9  0.0917   40.3  0.6566  -57.1
 1.100  0.7022  -97.3   6.602  111.0  0.0926   39.7  0.6496  -57.9
 1.120  0.6982  -98.7   6.530  110.2  0.0933   39.1  0.6424  -58.6
 1.140  0.6945 -100.0   6.458  109.3  0.0941   38.5  0.6353  -59.3
 1.160  0.6913 -101.4   6.389  108.5  0.0948   37.9  0.6282  -60.0
 1.180  0.6884 -102.8   6.321  107.6  0.0955   37.4  0.6213  -60.7
 1.200  0.6860 -104.2   6.254  106.7  0.0963   36.8  0.6145  -61.5
 1.220  0.6825 -105.5   6.188  105.9  0.0969   36.3  0.6080  -62.1
 1.240  0.6794 -106.7   6.122  105.2  0.0976   35.7  0.6015  -62.8
 1.260  0.6766 -108.0   6.058  104.4  0.0983   35.2  0.5952  -63.4
 1.280  0.6742 -109.3   5.996  103.5  0.0989   34.7  0.5889  -64.1
 1.300  0.6721 -110.6   5.934  102.7  0.0996   34.2  0.5827  -64.8
 1.320  0.6691 -111.8   5.872  102.0  0.1001   33.7  0.5766  -65.4
 1.340  0.6664 -113.1   5.810  101.2  0.1007   33.2  0.5705  -66.0
 1.360  0.6641 -114.3   5.750  100.5  0.1012   32.7  0.5645  -66.7
 1.380  0.6620 -115.5   5.690   99.7  0.1017   32.3  0.5586  -67.3
 1.400  0.6603 -116.8   5.632   98.9  0.1023   31.8  0.5527  -68.0
 1.420  0.6576 -117.9   5.576   98.2  0.1028   31.4  0.5469  -68.6
 1.440  0.6552 -119.1   5.520   97.6  0.1033   30.9  0.5411  -69.2
 1.460  0.6531 -120.2   5.465   96.9  0.1038   30.5  0.5354  -69.8
 1.480  0.6512 -121.3   5.411   96.2  0.1044   30.0  0.5298  -70.4
 1.500  0.6496 -122.5   5.358   95.5  0.1049   29.6  0.5242  -71.0
 1.520  0.6473 -123.6   5.305   94.8  0.1053   29.2  0.5188  -71.5
 1.540  0.6452 -124.8   5.252   94.1  0.1056   28.8  0.5135  -72.1
 1.560  0.6434 -125.9   5.201   93.4  0.1060   28.4  0.5083  -72.6
 1.580  0.6419 -127.0   5.150   92.7  0.1064   28.0  0.5031  -73.2
 1.600  0.6406 -128.2   5.100   92.0  0.1068   27.6  0.4979  -73.8
 1.620  0.6383 -129.3   5.052   91.4  0.1072   27.2  0.4929  -74.3
 1.640  0.6362 -130.3   5.004   90.8  0.1076   26.8  0.4880  -74.9
 1.660  0.6343 -131.4   4.957   90.1  0.1080   26.5  0.4832  -75.4
 1.680  0.6326 -132.5   4.910   89.5  0.1085   26.1  0.4784  -76.0
 1.700  0.6312 -133.6   4.864   88.8  0.1089   25.7  0.4736  -76.6
 1.720  0.6295 -134.6   4.817   88.2  0.1092   25.3  0.4690  -77.1
 1.740  0.6280 -135.5   4.770   87.6  0.1095   25.0  0.4645  -77.6
 1.760  0.6266 -136.5   4.724   87.0  0.1098   24.6  0.4600  -78.1
 1.780  0.6255 -137.5   4.678   86.3  0.1102   24.3  0.4556  -78.7
 1.800  0.6245 -138.5   4.633   85.7  0.1105   23.9  0.4512  -79.2
 1.820  0.6228 -139.5   4.591   85.1  0.1108   23.6  0.4467  -79.7
 1.840  0.6213 -140.6   4.550   84.5  0.1111   23.2  0.4423  -80.3
 1.860  0.6200 -141.6   4.509   83.9  0.1114   22.9  0.4379  -80.8
 1.880  0.6190 -142.7   4.469   83.3  0.1117   22.5  0.4336  -81.4
 1.900  0.6181 -143.7   4.429   82.7  0.1120   22.2  0.4293  -82.0
 1.920  0.6166 -144.6   4.391   82.2  0.1123   21.9  0.4253  -82.4
 1.940  0.6152 -145.4   4.353   81.6  0.1125   21.6  0.4214  -82.9
 1.960  0.6140 -146.3   4.315   81.1  0.1128   21.3  0.4175  -83.4
 1.980  0.6129 -147.2   4.278   80.6  0.1130   21.0  0.4136  -83.8
 2.000  0.6120 -148.1   4.241   80.0  0.1133   20.7  0.4098  -84.3
 2.020  0.6104 -149.0   4.205   79.5  0.1135   20.4  0.4060  -84.8
 2.040  0.6090 -149.9   4.170   79.0  0.1137   20.1  0.4021  -85.2
 2.060  0.6077 -150.8   4.135   78.4  0.1139   19.8  0.3984  -85.7
 2.080  0.6066 -151.7   4.101   77.9  0.1141   19.5  0.3946  -86.2
 2.100  0.6056 -152.7   4.066   77.4  0.1144   19.2  0.3909  -86.7
 2.120  0.6048 -153.6   4.032   76.8  0.1146   18.9  0.3872  -87.2
 2.140  0.6042 -154.5   3.999   76.2  0.1148   18.7  0.3835  -87.8
 2.160  0.6037 -155.4   3.966   75.7  0.1150   18.4  0.3799  -88.3
 2.180  0.6034 -156.4   3.933   75.1  0.1153   18.1  0.3763  -88.8
 2.200  0.6032 -157.3   3.901   74.5  0.1155   17.8  0.3727  -89.4
 2.220  0.6020 -158.1   3.870   74.0  0.1157   17.5  0.3693  -89.9
 2.240  0.6010 -159.0   3.839   73.5  0.1158   17.3  0.3659  -90.4
 2.260  0.6001 -159.8   3.808   73.1  0.1160   17.0  0.3625  -90.9
 2.280  0.5994 -160.7   3.778   72.6  0.1161   16.7  0.3591  -91.4
 2.300  0.5987 -161.5   3.748   72.1  0.1163   16.4  0.3558  -91.9
 2.320  0.5983 -162.4   3.718   71.5  0.1165   16.2  0.3525  -92.4
 2.340  0.5979 -163.2   3.689   71.0  0.1167   15.9  0.3492  -92.9
 2.360  0.5977 -164.1   3.659   70.5  0.1168   15.6  0.3460  -93.5
 2.380  0.5976 -164.9   3.631   69.9  0.1170   15.4  0.3428  -94.0
 2.400  0.5976 -165.8   3.602   69.4  0.1172   15.1  0.3396  -94.6
 2.420  0.5970 -166.6   3.575   68.9  0.1173   14.9  0.3365  -95.1
 2.440  0.5965 -167.5   3.548   68.5  0.1174   14.6  0.3335  -95.6
 2.460  0.5962 -168.3   3.522   68.0  0.1175   14.4  0.3305  -96.1
 2.480  0.5960 -169.1   3.495   67.5  0.1177   14.2  0.3276  -96.6
 2.500  0.5959 -169.9   3.469   67.0  0.1178   13.9  0.3246  -97.1
 2.520  0.5959 -170.8   3.444   66.5  0.1179   13.7  0.3217  -97.7
 2.540  0.5961 -171.6   3.418   66.0  0.1180   13.5  0.3188  -98.2
 2.560  0.5964 -172.4   3.393   65.5  0.1181   13.3  0.3159  -98.8
 2.580  0.5968 -173.3   3.368   65.0  0.1183   13.0  0.3131  -99.3
 2.600  0.5973 -174.1   3.343   64.5  0.1184   12.8  0.3103  -99.9
 2.620  0.5969 -174.8   3.319   64.1  0.1185   12.6  0.3076 -100.4
 2.640  0.5965 -175.5   3.295   63.7  0.1186   12.4  0.3050 -100.9
 2.660  0.5963 -176.3   3.271   63.2  0.1187   12.2  0.3024 -101.4
 2.680  0.5961 -177.0   3.247   62.8  0.1187   12.0  0.2998 -101.9
 2.700  0.5960 -177.7   3.224   62.3  0.1188   11.8  0.2972 -102.4
 2.720  0.5960 -178.4   3.200   61.9  0.1189   11.6  0.2946 -103.0
 2.740  0.5962 -179.1   3.177   61.4  0.1190   11.4  0.2921 -103.5
 2.760  0.5964 -179.9   3.154   61.0  0.1191   11.2  0.2896 -104.1
 2.780  0.5967  179.4   3.131   60.5  0.1192   11.0  0.2871 -104.6
 2.800  0.5971  178.7   3.109   60.0  0.1193   10.8  0.2847 -105.2
 2.820  0.5971  178.0   3.088   59.6  0.1194   10.6  0.2824 -105.7
 2.840  0.5971  177.4   3.067   59.2  0.1194   10.4  0.2800 -106.2
 2.860  0.5973  176.7   3.047   58.7  0.1195   10.2  0.2777 -106.7
 2.880  0.5975  176.0   3.026   58.3  0.1196   10.0  0.2755 -107.3
 2.900  0.5978  175.3   3.006   57.9  0.1197    9.8  0.2732 -107.8
 2.920  0.5982  174.7   2.986   57.4  0.1198    9.7  0.2710 -108.3
 2.940  0.5987  174.0   2.966   57.0  0.1198    9.5  0.2688 -108.9
 2.960  0.5992  173.3   2.946   56.5  0.1199    9.3  0.2666 -109.4
 2.980  0.5999  172.7   2.926   56.1  0.1200    9.1  0.2644 -110.0
 3.000  0.6006  172.0   2.907   55.6  0.1201    8.9  0.2623 -110.6
 3.100  0.6004  168.8   2.816   53.8  0.1203    8.1  0.2524 -113.4
 3.200  0.6020  165.7   2.729   51.8  0.1206    7.3  0.2431 -116.3
 3.300  0.6054  162.5   2.644   49.8  0.1209    6.5  0.2345 -119.5
 3.400  0.6106  159.4   2.564   47.5  0.1212    5.7  0.2266 -122.9
 3.500  0.6176  156.4   2.487   45.2  0.1215    4.9  0.2197 -126.6
 3.600  0.6191  153.7   2.417   43.5  0.1217    4.3  0.2136 -129.7
 3.700  0.6219  151.0   2.349   41.6  0.1220    3.6  0.2082 -133.0
 3.800  0.6260  148.4   2.283   39.7  0.1223    3.0  0.2035 -136.5
 3.900  0.6315  145.8   2.221   37.6  0.1226    2.3  0.1996 -140.1
 4.000  0.6383  143.2   2.161   35.4  0.1229    1.7  0.1965 -143.9
 4.100  0.6401  141.1   2.102   33.8  0.1231    1.1  0.1940 -147.1
 4.200  0.6427  139.0   2.046   32.1  0.1233    0.6  0.1922 -150.4
 4.300  0.6462  137.0   1.991   30.2  0.1235    0.0  0.1910 -153.8
 4.400  0.6505  134.9   1.938   28.3  0.1238   -0.5  0.1905 -157.2
 4.500  0.6556  132.9   1.888   26.3  0.1240   -1.1  0.1906 -160.6
 4.600  0.6564  131.3   1.841   24.9  0.1242   -1.5  0.1900 -163.4
 4.700  0.6578  129.6   1.796   23.4  0.1244   -1.9  0.1898 -166.2
 4.800  0.6597  128.0   1.751   21.9  0.1246   -2.4  0.1902 -169.0
 4.900  0.6621  126.4   1.708   20.2  0.1249   -2.8  0.1909 -171.8
 5.000  0.6650  124.8   1.667   18.5  0.1251   -3.2  0.1921 -174.5
 5.100  0.6662  123.3   1.631   17.1  0.1254   -3.6  0.1928 -177.1
 5.200  0.6679  121.7   1.596   15.7  0.1256   -3.9  0.1939 -179.7
 5.300  0.6701  120.2   1.562   14.3  0.1259   -4.3  0.1954  177.7
 5.400  0.6727  118.7   1.529   12.7  0.1262   -4.6  0.1973  175.2
 5.500  0.6758  117.2   1.497   11.1  0.1265   -5.0  0.1996  172.7
 5.600  0.6783  115.7   1.468    9.7  0.1270   -5.3  0.2014  170.2
 5.700  0.6812  114.2   1.441    8.3  0.1275   -5.6  0.2036  167.8
 5.800  0.6846  112.8   1.414    6.9  0.1281   -5.8  0.2062  165.4
 5.900  0.6884  111.3   1.388    5.4  0.1286   -6.1  0.2091  163.1
 6.000  0.6926  109.9   1.363    3.8  0.1291   -6.4  0.2123  160.9
 6.100  0.6960  108.6   1.339    2.4  0.1300   -6.8  0.2148  158.7
 6.200  0.6997  107.3   1.316    1.0  0.1308   -7.2  0.2176  156.6
 6.300  0.7038  106.0   1.294   -0.5  0.1317   -7.6  0.2207  154.6
 6.400  0.7082  104.7   1.273   -2.0  0.1326   -7.9  0.2241  152.6
 6.500  0.7130  103.4   1.253   -3.6  0.1335   -8.3  0.2277  150.7
 6.600  0.7153  102.1   1.233   -5.0  0.1346   -8.7  0.2300  148.7
 6.800  0.7210   99.6   1.195   -7.9  0.1369   -9.6  0.2356  144.8
 7.000  0.7281   97.1   1.160  -11.0  0.1392  -10.4  0.2421  141.1
 7.200  0.7310   94.5   1.125  -13.8  0.1416  -11.7  0.2499  137.2
 7.400  0.7355   91.9   1.092  -16.8  0.1441  -12.9  0.2589  133.5
 7.600  0.7394   89.1   1.058  -19.8  0.1461  -14.3  0.2683  129.7
 7.800  0.7430   86.3   1.021  -22.9  0.1476  -16.0  0.2786  125.8
 8.000  0.7484   83.4   0.988  -26.1  0.1493  -17.6  0.2901  122.2
 8.200  0.7513   80.3   0.950  -28.7  0.1493  -19.1  0.3012  117.8
 8.400  0.7563   77.3   0.913  -31.5  0.1494  -20.6  0.3140  113.7
 8.600  0.7646   74.4   0.880  -34.1  0.1495  -21.8  0.3297  109.8
 8.800  0.7760   71.8   0.849  -36.5  0.1495  -22.7  0.3483  106.2
 9.000  0.7890   69.2   0.819  -39.0  0.1495  -23.6  0.3682  102.9
 9.200  0.8078   67.2   0.794  -41.1  0.1501  -24.4  0.3923  100.4
 9.400  0.8277   65.2   0.770  -43.3  0.1508  -25.2  0.4172   98.1
 9.600  0.8451   63.6   0.744  -45.5  0.1516  -26.1  0.4416   96.2
 9.800  0.8600   62.1   0.714  -47.8  0.1528  -27.0  0.4654   94.6
10.000  0.8754   60.7   0.686  -50.2  0.1539  -27.9  0.4896   93.1
!
!  f       NFmin   Gammaopt  rn/50
! GHz       dB    MAG  ANG    -
 0.900      0.57  0.35   33   0.18
 1.800      1.02  0.20   79   0.14
 2.400      1.10  0.23  104   0.14
 3.000      1.25  0.24  144   0.11
 4.000      1.46  0.33 -159   0.10
 5.000      1.90  0.39 -128   0.22
 6.000      2.46  0.48 -107   0.35
!
! (c) 2016  Infineon Technologies AG, Munich
