! Infineon Technologies  Discrete & RF Semiconductors
! BFP410
! VCE =  4.0 V,  IC =  1.5 mA
! Common Emitter S-Parameters:                            Nov 2015
# GHz  S  MA  R  50
!  f         S11            S21            S12            S22
! GHz     MAG   ANG      MAG   ANG      MAG   ANG      MAG   ANG
 0.010  0.9489    0.4   5.385  179.3  0.0005   18.2  1.0000    1.1
 0.015  0.9457    0.1   5.368  179.3  0.0008   57.8  0.9953    0.8
 0.020  0.9426   -0.3   5.351  179.2  0.0012   73.2  0.9906    0.4
 0.025  0.9422   -0.6   5.349  178.9  0.0015   76.3  0.9918    0.2
 0.030  0.9418   -0.9   5.346  178.6  0.0018   78.4  0.9929    0.0
 0.035  0.9415   -1.2   5.344  178.3  0.0021   79.9  0.9941   -0.2
 0.040  0.9412   -1.5   5.342  178.0  0.0024   81.0  0.9953   -0.3
 0.045  0.9409   -1.8   5.341  177.7  0.0027   81.9  0.9965   -0.5
 0.050  0.9406   -2.1   5.339  177.4  0.0030   82.6  0.9977   -0.7
 0.055  0.9405   -2.4   5.342  177.2  0.0033   83.0  0.9976   -0.9
 0.060  0.9405   -2.7   5.344  177.1  0.0036   83.4  0.9975   -1.0
 0.065  0.9405   -2.9   5.347  176.9  0.0038   83.7  0.9974   -1.2
 0.070  0.9405   -3.2   5.350  176.8  0.0041   84.0  0.9974   -1.3
 0.075  0.9406   -3.5   5.352  176.6  0.0044   84.2  0.9973   -1.5
 0.080  0.9406   -3.8   5.355  176.4  0.0047   84.4  0.9972   -1.7
 0.085  0.9407   -4.1   5.358  176.3  0.0050   84.6  0.9972   -1.8
 0.090  0.9408   -4.3   5.361  176.1  0.0052   84.7  0.9972   -2.0
 0.095  0.9409   -4.6   5.364  176.0  0.0055   84.9  0.9971   -2.1
 0.100  0.9411   -4.9   5.367  175.8  0.0058   85.0  0.9971   -2.3
 0.105  0.9407   -5.1   5.367  175.6  0.0061   84.9  0.9971   -2.4
 0.110  0.9403   -5.4   5.367  175.4  0.0064   84.7  0.9970   -2.5
 0.115  0.9400   -5.6   5.367  175.1  0.0067   84.6  0.9970   -2.7
 0.120  0.9396   -5.9   5.368  174.9  0.0070   84.5  0.9970   -2.8
 0.125  0.9393   -6.1   5.368  174.7  0.0073   84.4  0.9969   -2.9
 0.130  0.9390   -6.4   5.368  174.5  0.0076   84.3  0.9969   -3.0
 0.135  0.9387   -6.6   5.369  174.3  0.0079   84.2  0.9969   -3.1
 0.140  0.9384   -6.9   5.370  174.0  0.0082   84.1  0.9969   -3.3
 0.145  0.9381   -7.1   5.370  173.8  0.0085   84.1  0.9969   -3.4
 0.150  0.9379   -7.4   5.371  173.6  0.0088   84.0  0.9969   -3.5
 0.155  0.9378   -7.7   5.370  173.4  0.0091   83.9  0.9967   -3.6
 0.160  0.9377   -7.9   5.370  173.2  0.0094   83.8  0.9964   -3.8
 0.165  0.9376   -8.2   5.369  173.0  0.0097   83.7  0.9962   -3.9
 0.170  0.9375   -8.4   5.369  172.8  0.0100   83.6  0.9960   -4.0
 0.175  0.9375   -8.7   5.368  172.6  0.0103   83.5  0.9958   -4.1
 0.180  0.9374   -9.0   5.368  172.4  0.0106   83.5  0.9956   -4.3
 0.185  0.9374   -9.2   5.368  172.2  0.0109   83.4  0.9954   -4.4
 0.190  0.9374   -9.5   5.367  172.0  0.0112   83.3  0.9952   -4.5
 0.195  0.9375   -9.7   5.367  171.8  0.0115   83.3  0.9950   -4.7
 0.200  0.9375  -10.0   5.367  171.6  0.0118   83.2  0.9948   -4.8
 0.220  0.9364  -11.0   5.358  170.7  0.0130   82.7  0.9941   -5.3
 0.240  0.9355  -12.0   5.350  169.8  0.0141   82.4  0.9934   -5.8
 0.260  0.9345  -13.0   5.347  168.9  0.0153   81.9  0.9924   -6.3
 0.280  0.9332  -14.0   5.349  168.1  0.0164   81.4  0.9910   -6.8
 0.300  0.9322  -15.0   5.353  167.3  0.0176   80.9  0.9897   -7.2
 0.320  0.9310  -16.0   5.347  166.5  0.0188   80.4  0.9886   -7.7
 0.340  0.9301  -17.1   5.343  165.7  0.0200   80.0  0.9877   -8.2
 0.360  0.9289  -18.1   5.336  164.9  0.0212   79.5  0.9865   -8.7
 0.380  0.9274  -19.1   5.327  164.0  0.0223   78.9  0.9851   -9.2
 0.400  0.9262  -20.1   5.320  163.1  0.0234   78.3  0.9838   -9.6
 0.420  0.9245  -21.1   5.312  162.3  0.0246   77.8  0.9824  -10.1
 0.440  0.9232  -22.1   5.306  161.5  0.0258   77.4  0.9810  -10.6
 0.450  0.9226  -22.6   5.303  161.1  0.0264   77.2  0.9804  -10.9
 0.460  0.9217  -23.1   5.298  160.7  0.0270   76.9  0.9795  -11.1
 0.480  0.9201  -24.2   5.289  159.8  0.0281   76.4  0.9776  -11.6
 0.500  0.9189  -25.3   5.282  158.9  0.0293   75.9  0.9759  -12.1
 0.520  0.9165  -26.3   5.268  158.0  0.0304   75.3  0.9740  -12.6
 0.540  0.9143  -27.3   5.254  157.2  0.0315   74.7  0.9721  -13.1
 0.560  0.9125  -28.3   5.242  156.3  0.0326   74.1  0.9703  -13.5
 0.580  0.9109  -29.3   5.232  155.4  0.0337   73.6  0.9686  -14.0
 0.600  0.9096  -30.3   5.222  154.5  0.0348   73.1  0.9669  -14.5
 0.620  0.9068  -31.3   5.210  153.7  0.0359   72.5  0.9645  -15.0
 0.640  0.9044  -32.3   5.198  152.9  0.0371   71.9  0.9622  -15.4
 0.660  0.9022  -33.3   5.188  152.2  0.0382   71.4  0.9600  -15.9
 0.680  0.9003  -34.4   5.178  151.4  0.0394   70.9  0.9578  -16.3
 0.700  0.8987  -35.4   5.170  150.6  0.0405   70.4  0.9557  -16.8
 0.720  0.8960  -36.4   5.150  149.8  0.0416   69.8  0.9532  -17.3
 0.740  0.8936  -37.4   5.131  149.0  0.0426   69.2  0.9507  -17.7
 0.760  0.8914  -38.4   5.113  148.2  0.0437   68.7  0.9483  -18.2
 0.780  0.8895  -39.4   5.096  147.4  0.0447   68.2  0.9459  -18.6
 0.800  0.8879  -40.4   5.080  146.6  0.0458   67.7  0.9436  -19.1
 0.820  0.8848  -41.4   5.065  145.8  0.0469   67.1  0.9408  -19.6
 0.840  0.8820  -42.4   5.050  145.0  0.0479   66.5  0.9381  -20.0
 0.860  0.8795  -43.4   5.037  144.2  0.0490   65.9  0.9354  -20.5
 0.880  0.8773  -44.5   5.024  143.4  0.0500   65.4  0.9328  -20.9
 0.900  0.8753  -45.5   5.013  142.6  0.0511   64.9  0.9303  -21.4
 0.920  0.8720  -46.5   4.993  141.8  0.0521   64.3  0.9272  -21.8
 0.940  0.8690  -47.5   4.973  141.1  0.0531   63.8  0.9241  -22.2
 0.960  0.8663  -48.5   4.954  140.3  0.0541   63.3  0.9211  -22.7
 0.980  0.8638  -49.6   4.937  139.5  0.0551   62.8  0.9181  -23.1
 1.000  0.8616  -50.6   4.920  138.7  0.0561   62.3  0.9152  -23.5
 1.020  0.8584  -51.6   4.901  138.0  0.0570   61.7  0.9121  -23.9
 1.040  0.8554  -52.6   4.882  137.2  0.0580   61.2  0.9091  -24.3
 1.060  0.8527  -53.6   4.865  136.4  0.0590   60.6  0.9061  -24.8
 1.080  0.8502  -54.6   4.848  135.7  0.0599   60.1  0.9031  -25.2
 1.100  0.8480  -55.6   4.832  134.9  0.0609   59.6  0.9002  -25.6
 1.120  0.8446  -56.6   4.811  134.1  0.0618   59.0  0.8969  -26.0
 1.140  0.8414  -57.6   4.791  133.4  0.0628   58.5  0.8937  -26.5
 1.160  0.8384  -58.6   4.771  132.6  0.0637   58.0  0.8905  -26.9
 1.180  0.8357  -59.6   4.753  131.8  0.0646   57.5  0.8874  -27.4
 1.200  0.8333  -60.6   4.735  131.0  0.0656   57.0  0.8843  -27.8
 1.220  0.8299  -61.6   4.714  130.3  0.0665   56.4  0.8811  -28.2
 1.240  0.8267  -62.5   4.694  129.6  0.0673   55.9  0.8779  -28.6
 1.260  0.8238  -63.5   4.675  128.9  0.0682   55.3  0.8748  -28.9
 1.280  0.8211  -64.5   4.656  128.1  0.0691   54.8  0.8717  -29.3
 1.300  0.8187  -65.5   4.638  127.4  0.0700   54.3  0.8686  -29.7
 1.320  0.8150  -66.5   4.615  126.7  0.0708   53.8  0.8651  -30.1
 1.340  0.8116  -67.4   4.593  125.9  0.0716   53.2  0.8617  -30.5
 1.360  0.8084  -68.4   4.572  125.2  0.0724   52.7  0.8583  -30.9
 1.380  0.8054  -69.4   4.552  124.5  0.0732   52.2  0.8550  -31.3
 1.400  0.8027  -70.4   4.532  123.7  0.0740   51.7  0.8517  -31.7
 1.420  0.7994  -71.3   4.510  123.1  0.0747   51.2  0.8484  -32.1
 1.440  0.7964  -72.3   4.489  122.4  0.0755   50.7  0.8452  -32.4
 1.460  0.7935  -73.2   4.469  121.7  0.0763   50.2  0.8419  -32.8
 1.480  0.7909  -74.1   4.449  121.1  0.0770   49.8  0.8388  -33.1
 1.500  0.7885  -75.1   4.430  120.4  0.0778   49.3  0.8356  -33.5
 1.520  0.7851  -76.1   4.410  119.7  0.0785   48.8  0.8320  -33.9
 1.540  0.7820  -77.0   4.391  119.0  0.0792   48.3  0.8284  -34.2
 1.560  0.7791  -78.0   4.372  118.3  0.0799   47.8  0.8249  -34.6
 1.580  0.7764  -79.0   4.354  117.5  0.0807   47.3  0.8214  -34.9
 1.600  0.7739  -80.0   4.337  116.8  0.0814   46.8  0.8179  -35.3
 1.620  0.7704  -80.9   4.316  116.2  0.0820   46.3  0.8147  -35.6
 1.640  0.7670  -81.9   4.295  115.5  0.0827   45.9  0.8115  -36.0
 1.660  0.7639  -82.8   4.275  114.8  0.0834   45.4  0.8083  -36.3
 1.680  0.7609  -83.7   4.255  114.2  0.0840   44.9  0.8051  -36.7
 1.700  0.7582  -84.7   4.236  113.5  0.0847   44.5  0.8020  -37.0
 1.720  0.7553  -85.6   4.213  112.9  0.0853   44.0  0.7987  -37.3
 1.740  0.7525  -86.5   4.190  112.2  0.0859   43.6  0.7955  -37.7
 1.760  0.7500  -87.4   4.168  111.6  0.0865   43.2  0.7923  -38.0
 1.780  0.7477  -88.4   4.146  111.0  0.0871   42.7  0.7891  -38.4
 1.800  0.7455  -89.3   4.125  110.3  0.0877   42.3  0.7859  -38.7
 1.820  0.7422  -90.2   4.107  109.7  0.0883   41.8  0.7824  -39.0
 1.840  0.7390  -91.2   4.090  109.1  0.0889   41.4  0.7790  -39.4
 1.860  0.7361  -92.1   4.073  108.5  0.0895   40.9  0.7756  -39.7
 1.880  0.7333  -93.0   4.057  107.8  0.0902   40.4  0.7722  -40.1
 1.900  0.7308  -94.0   4.041  107.2  0.0908   40.0  0.7689  -40.4
 1.920  0.7278  -94.9   4.019  106.6  0.0913   39.6  0.7657  -40.7
 1.940  0.7249  -95.7   3.998  106.0  0.0918   39.1  0.7625  -41.0
 1.960  0.7222  -96.6   3.977  105.4  0.0923   38.7  0.7594  -41.2
 1.980  0.7197  -97.5   3.956  104.7  0.0929   38.3  0.7562  -41.5
 2.000  0.7173  -98.4   3.936  104.1  0.0934   37.9  0.7531  -41.8
 2.020  0.7137  -99.3   3.917  103.5  0.0939   37.5  0.7497  -42.1
 2.040  0.7102 -100.2   3.898  102.9  0.0943   37.0  0.7462  -42.4
 2.060  0.7069 -101.1   3.879  102.3  0.0948   36.6  0.7428  -42.7
 2.080  0.7038 -102.0   3.861  101.7  0.0953   36.2  0.7394  -43.0
 2.100  0.7008 -103.0   3.843  101.1  0.0957   35.7  0.7360  -43.3
 2.120  0.6981 -103.9   3.826  100.5  0.0962   35.3  0.7327  -43.6
 2.140  0.6955 -104.8   3.809   99.9  0.0967   34.9  0.7294  -43.9
 2.160  0.6932 -105.8   3.792   99.3  0.0972   34.5  0.7261  -44.2
 2.180  0.6910 -106.7   3.777   98.6  0.0977   34.1  0.7228  -44.5
 2.200  0.6890 -107.7   3.761   98.0  0.0982   33.7  0.7195  -44.8
 2.220  0.6856 -108.6   3.742   97.4  0.0986   33.3  0.7161  -45.1
 2.240  0.6824 -109.5   3.723   96.9  0.0990   32.9  0.7127  -45.3
 2.260  0.6793 -110.4   3.705   96.3  0.0994   32.4  0.7094  -45.6
 2.280  0.6764 -111.3   3.687   95.7  0.0998   32.0  0.7060  -45.9
 2.300  0.6737 -112.3   3.669   95.2  0.1002   31.6  0.7027  -46.2
 2.320  0.6712 -113.2   3.651   94.6  0.1006   31.2  0.6994  -46.4
 2.340  0.6688 -114.1   3.635   94.0  0.1010   30.8  0.6961  -46.7
 2.360  0.6667 -115.1   3.618   93.4  0.1014   30.4  0.6928  -47.0
 2.380  0.6647 -116.0   3.602   92.8  0.1019   30.0  0.6895  -47.3
 2.400  0.6629 -117.0   3.586   92.2  0.1023   29.6  0.6863  -47.6
 2.420  0.6598 -117.9   3.568   91.7  0.1026   29.2  0.6829  -47.9
 2.440  0.6568 -118.8   3.549   91.1  0.1029   28.8  0.6795  -48.1
 2.460  0.6540 -119.7   3.532   90.6  0.1031   28.4  0.6761  -48.4
 2.480  0.6514 -120.7   3.514   90.0  0.1034   28.0  0.6727  -48.6
 2.500  0.6489 -121.6   3.497   89.5  0.1037   27.6  0.6694  -48.9
 2.520  0.6466 -122.6   3.480   88.9  0.1040   27.2  0.6660  -49.2
 2.540  0.6445 -123.5   3.463   88.3  0.1043   26.8  0.6627  -49.5
 2.560  0.6426 -124.5   3.447   87.8  0.1047   26.5  0.6594  -49.7
 2.580  0.6409 -125.4   3.431   87.2  0.1050   26.1  0.6561  -50.0
 2.600  0.6393 -126.4   3.416   86.6  0.1053   25.7  0.6528  -50.3
 2.620  0.6365 -127.3   3.398   86.1  0.1055   25.3  0.6497  -50.5
 2.640  0.6339 -128.2   3.381   85.6  0.1057   25.0  0.6465  -50.8
 2.660  0.6314 -129.1   3.364   85.1  0.1059   24.6  0.6434  -51.1
 2.680  0.6291 -130.0   3.347   84.5  0.1062   24.3  0.6403  -51.3
 2.700  0.6270 -130.9   3.330   84.0  0.1064   23.9  0.6372  -51.6
 2.720  0.6250 -131.8   3.314   83.5  0.1066   23.6  0.6341  -51.8
 2.740  0.6231 -132.7   3.298   82.9  0.1069   23.2  0.6310  -52.1
 2.760  0.6215 -133.6   3.282   82.4  0.1071   22.9  0.6280  -52.4
 2.780  0.6199 -134.6   3.267   81.9  0.1074   22.5  0.6249  -52.6
 2.800  0.6186 -135.5   3.252   81.3  0.1076   22.2  0.6219  -52.9
 2.820  0.6165 -136.3   3.236   80.8  0.1077   21.9  0.6190  -53.1
 2.840  0.6146 -137.2   3.220   80.3  0.1079   21.5  0.6161  -53.4
 2.860  0.6128 -138.1   3.204   79.8  0.1080   21.2  0.6132  -53.6
 2.880  0.6112 -138.9   3.188   79.3  0.1082   20.9  0.6103  -53.8
 2.900  0.6096 -139.8   3.173   78.8  0.1084   20.5  0.6074  -54.1
 2.920  0.6083 -140.7   3.158   78.3  0.1085   20.2  0.6046  -54.3
 2.940  0.6070 -141.5   3.143   77.8  0.1087   19.9  0.6017  -54.6
 2.960  0.6059 -142.4   3.128   77.3  0.1089   19.6  0.5989  -54.8
 2.980  0.6050 -143.3   3.114   76.7  0.1090   19.2  0.5960  -55.0
 3.000  0.6042 -144.2   3.100   76.2  0.1092   18.9  0.5932  -55.3
 3.100  0.5934 -148.3   3.022   74.0  0.1094   17.5  0.5804  -56.3
 3.200  0.5858 -152.5   2.949   71.7  0.1097   16.0  0.5677  -57.4
 3.300  0.5814 -156.9   2.881   69.2  0.1100   14.6  0.5553  -58.5
 3.400  0.5804 -161.2   2.818   66.7  0.1104   13.2  0.5430  -59.6
 3.500  0.5828 -165.6   2.761   64.0  0.1109   11.8  0.5310  -60.8
 3.600  0.5773 -169.4   2.695   62.0  0.1109   10.7  0.5200  -61.8
 3.700  0.5744 -173.3   2.633   59.8  0.1109    9.6  0.5092  -62.9
 3.800  0.5741 -177.1   2.574   57.6  0.1110    8.5  0.4986  -64.0
 3.900  0.5765  179.0   2.520   55.2  0.1111    7.4  0.4882  -65.1
 4.000  0.5814  175.2   2.470   52.8  0.1112    6.3  0.4780  -66.3
 4.100  0.5794  172.0   2.411   50.9  0.1109    5.3  0.4682  -67.5
 4.200  0.5792  168.8   2.355   48.8  0.1107    4.4  0.4586  -68.8
 4.300  0.5808  165.6   2.302   46.7  0.1104    3.4  0.4492  -70.2
 4.400  0.5842  162.4   2.252   44.4  0.1103    2.5  0.4401  -71.5
 4.500  0.5894  159.3   2.206   42.1  0.1101    1.5  0.4313  -73.0
 4.600  0.5884  156.8   2.154   40.4  0.1096    0.8  0.4241  -74.2
 4.700  0.5885  154.3   2.105   38.6  0.1092    0.1  0.4172  -75.4
 4.800  0.5897  151.8   2.057   36.7  0.1087   -0.6  0.4104  -76.7
 4.900  0.5920  149.3   2.012   34.7  0.1083   -1.3  0.4038  -78.0
 5.000  0.5955  146.8   1.970   32.6  0.1079   -2.0  0.3975  -79.4
 5.100  0.5953  144.6   1.929   31.0  0.1073   -2.5  0.3913  -80.4
 5.200  0.5959  142.5   1.889   29.4  0.1068   -2.9  0.3852  -81.5
 5.300  0.5975  140.3   1.850   27.7  0.1062   -3.4  0.3792  -82.5
 5.400  0.5998  138.1   1.814   25.9  0.1056   -3.9  0.3734  -83.7
 5.500  0.6030  136.0   1.779   24.0  0.1051   -4.4  0.3677  -84.8
 5.600  0.6046  134.0   1.746   22.5  0.1047   -4.6  0.3614  -85.9
 5.700  0.6069  132.0   1.715   20.9  0.1043   -4.8  0.3553  -87.1
 5.800  0.6099  130.1   1.684   19.3  0.1038   -5.0  0.3493  -88.3
 5.900  0.6137  128.1   1.655   17.6  0.1034   -5.2  0.3435  -89.6
 6.000  0.6181  126.2   1.628   15.9  0.1030   -5.4  0.3378  -90.9
 6.100  0.6210  124.4   1.601   14.4  0.1031   -5.5  0.3326  -92.3
 6.200  0.6245  122.6   1.575   12.8  0.1031   -5.5  0.3277  -93.8
 6.300  0.6286  120.8   1.550   11.2  0.1032   -5.6  0.3230  -95.3
 6.400  0.6333  119.1   1.527    9.5  0.1032   -5.6  0.3185  -96.8
 6.500  0.6386  117.4   1.505    7.8  0.1033   -5.7  0.3142  -98.4
 6.600  0.6415  115.8   1.481    6.3  0.1037   -5.7  0.3101  -99.7
 6.800  0.6486  112.8   1.437    3.1  0.1046   -5.8  0.3023 -102.4
 7.000  0.6575  109.8   1.397   -0.2  0.1054   -5.8  0.2952 -105.2
 7.200  0.6622  106.7   1.356   -3.1  0.1072   -6.1  0.2849 -108.2
 7.400  0.6688  103.6   1.319   -6.3  0.1090   -6.4  0.2755 -111.5
 7.600  0.6740  100.3   1.281   -9.5  0.1108   -6.9  0.2647 -115.4
 7.800  0.6784   96.8   1.241  -12.7  0.1126   -7.7  0.2530 -120.0
 8.000  0.6854   93.3   1.206  -16.2  0.1145   -8.5  0.2431 -125.0
 8.200  0.6889   89.7   1.163  -19.0  0.1155   -9.4  0.2294 -130.3
 8.400  0.6952   86.1   1.123  -22.1  0.1166  -10.3  0.2178 -136.2
 8.600  0.7052   82.8   1.087  -25.0  0.1176  -11.0  0.2055 -142.9
 8.800  0.7183   80.0   1.054  -27.6  0.1185  -11.5  0.1932 -150.7
 9.000  0.7332   77.2   1.024  -30.4  0.1194  -12.1  0.1848 -159.3
 9.200  0.7550   75.2   0.995  -33.0  0.1207  -12.5  0.1801 -170.4
 9.400  0.7777   73.2   0.968  -35.7  0.1220  -12.9  0.1823  178.4
 9.600  0.7985   71.3   0.936  -38.4  0.1238  -13.3  0.1927  168.0
 9.800  0.8174   69.4   0.901  -41.3  0.1259  -13.8  0.2102  159.2
10.000  0.8371   67.6   0.868  -44.4  0.1280  -14.3  0.2318  151.9
10.200  0.8415   66.2   0.833  -46.5  0.1310  -15.0  0.2542  146.6
10.400  0.8465   64.9   0.799  -48.7  0.1341  -15.8  0.2785  142.1
10.600  0.8436   64.2   0.771  -50.6  0.1369  -16.9  0.3021  138.3
10.800  0.8327   64.1   0.747  -52.2  0.1397  -18.5  0.3248  135.0
11.000  0.8218   64.0   0.724  -53.8  0.1425  -20.0  0.3484  132.1
11.200  0.8118   64.2   0.716  -54.8  0.1429  -21.6  0.3634  130.4
11.400  0.8019   64.3   0.709  -55.9  0.1433  -23.1  0.3787  128.9
11.600  0.8051   63.8   0.702  -58.1  0.1441  -24.5  0.3928  128.2
11.800  0.8216   62.7   0.699  -61.5  0.1452  -25.8  0.4057  128.1
12.000  0.8384   61.7   0.698  -64.9  0.1464  -27.1  0.4185  128.0
!
!  f       NFmin   Gammaopt  rn/50
! GHz       dB    MAG  ANG    -
 0.450      0.83  0.58    8   0.37
 0.900      0.80  0.56   23   0.31
 1.800      1.07  0.45   56   0.26
 2.400      1.14  0.41   67   0.25
 5.500      2.37  0.40 -150   0.18
10.000      4.33  0.72  -58   2.98
!
! (c) 2015  Infineon Technologies AG, Munich
