! Infineon Technologies  Discrete & RF Semiconductors
! BFP405F
! VCE =  4.0 V,  IC =  3.0 mA
! Common Emitter S-Parameters:                            Nov 2015
# GHz  S  MA  R  50
!  f         S11            S21            S12            S22
! GHz     MAG   ANG      MAG   ANG      MAG   ANG      MAG   ANG
 0.030  0.8920   -1.1   9.467  177.9  0.0004  -51.1  0.9918   -0.5
 0.035  0.8905   -1.3   9.470  177.9  0.0003    8.6  0.9910   -0.6
 0.040  0.8891   -1.5   9.472  177.9  0.0005   52.3  0.9903   -0.7
 0.045  0.8896   -1.9   9.515  177.5  0.0013   24.0  0.9914   -0.8
 0.050  0.8902   -2.3   9.558  177.2  0.0022   17.8  0.9926   -0.9
 0.055  0.8922   -2.5   9.509  177.1  0.0027   41.9  0.9916   -0.9
 0.060  0.8942   -2.6   9.460  176.9  0.0035   56.8  0.9906   -1.0
 0.065  0.8931   -2.7   9.462  176.5  0.0022   52.2  0.9901   -1.0
 0.070  0.8921   -2.9   9.465  176.2  0.0009   33.8  0.9897   -1.1
 0.075  0.8907   -3.1   9.438  176.1  0.0024   39.2  0.9905   -1.4
 0.080  0.8894   -3.3   9.411  175.9  0.0039   40.5  0.9913   -1.6
 0.085  0.8904   -3.5   9.441  176.0  0.0025   57.9  0.9915   -1.8
 0.090  0.8914   -3.7   9.471  176.0  0.0017  101.2  0.9918   -1.9
 0.095  0.8920   -4.0   9.444  175.9  0.0021  118.4  0.9911   -1.9
 0.100  0.8926   -4.3   9.417  175.7  0.0027  129.1  0.9905   -2.0
 0.105  0.8921   -4.5   9.416  175.5  0.0028   97.9  0.9913   -2.1
 0.110  0.8916   -4.7   9.415  175.2  0.0035   74.3  0.9921   -2.2
 0.115  0.8918   -5.0   9.417  175.1  0.0035   78.7  0.9930   -2.2
 0.120  0.8920   -5.3   9.420  175.1  0.0036   82.9  0.9940   -2.2
 0.125  0.8901   -5.4   9.424  174.8  0.0042   84.2  0.9921   -2.4
 0.130  0.8883   -5.5   9.429  174.5  0.0049   85.1  0.9903   -2.6
 0.135  0.8888   -5.8   9.438  174.5  0.0045   83.9  0.9911   -2.7
 0.140  0.8893   -6.0   9.447  174.5  0.0041   82.5  0.9920   -2.7
 0.145  0.8891   -6.2   9.457  174.3  0.0039   78.3  0.9908   -2.8
 0.150  0.8890   -6.5   9.468  174.1  0.0038   73.7  0.9896   -2.9
 0.155  0.8889   -6.7   9.467  173.9  0.0041   74.7  0.9894   -3.0
 0.160  0.8887   -6.9   9.466  173.6  0.0044   75.6  0.9892   -3.1
 0.165  0.8886   -7.2   9.465  173.4  0.0046   76.4  0.9890   -3.2
 0.170  0.8885   -7.4   9.464  173.1  0.0049   77.1  0.9888   -3.3
 0.175  0.8884   -7.6   9.464  172.9  0.0052   77.7  0.9886   -3.4
 0.180  0.8883   -7.8   9.463  172.6  0.0055   78.3  0.9884   -3.6
 0.185  0.8882   -8.0   9.463  172.4  0.0058   78.8  0.9882   -3.7
 0.190  0.8882   -8.3   9.463  172.1  0.0060   79.2  0.9881   -3.8
 0.195  0.8881   -8.5   9.464  171.9  0.0063   79.6  0.9879   -3.9
 0.200  0.8881   -8.7   9.464  171.6  0.0066   80.0  0.9877   -4.0
 0.220  0.8867   -9.5   9.432  170.9  0.0067   80.0  0.9880   -4.4
 0.240  0.8855  -10.3   9.402  170.2  0.0068   79.9  0.9884   -4.8
 0.260  0.8839  -11.1   9.383  169.5  0.0071   82.1  0.9880   -5.2
 0.280  0.8818  -12.0   9.377  168.6  0.0077   86.2  0.9869   -5.5
 0.300  0.8799  -12.8   9.373  167.8  0.0082   89.7  0.9858   -5.8
 0.320  0.8785  -13.6   9.349  167.0  0.0089   85.8  0.9847   -6.2
 0.340  0.8772  -14.5   9.326  166.3  0.0096   82.5  0.9836   -6.7
 0.360  0.8755  -15.4   9.313  165.5  0.0104   81.3  0.9828   -7.1
 0.380  0.8732  -16.3   9.310  164.6  0.0113   81.8  0.9822   -7.4
 0.400  0.8711  -17.2   9.310  163.8  0.0121   82.2  0.9817   -7.8
 0.420  0.8695  -18.0   9.282  163.0  0.0127   82.3  0.9801   -8.2
 0.440  0.8681  -18.8   9.256  162.3  0.0134   82.4  0.9785   -8.7
 0.450  0.8674  -19.2   9.244  161.9  0.0137   82.5  0.9777   -8.9
 0.460  0.8662  -19.6   9.230  161.5  0.0138   81.6  0.9770   -9.1
 0.480  0.8639  -20.4   9.204  160.8  0.0140   79.7  0.9757   -9.5
 0.500  0.8617  -21.2   9.179  160.0  0.0142   77.9  0.9744   -9.9
 0.520  0.8584  -22.0   9.152  159.2  0.0149   78.2  0.9726  -10.3
 0.540  0.8552  -22.9   9.126  158.4  0.0156   78.4  0.9709  -10.6
 0.560  0.8523  -23.8   9.103  157.6  0.0164   78.6  0.9692  -11.0
 0.580  0.8496  -24.6   9.081  156.8  0.0171   78.8  0.9676  -11.3
 0.600  0.8470  -25.5   9.061  156.0  0.0178   79.0  0.9660  -11.7
 0.620  0.8439  -26.3   9.032  155.3  0.0183   78.8  0.9639  -12.1
 0.640  0.8410  -27.1   9.005  154.5  0.0188   78.7  0.9619  -12.5
 0.660  0.8383  -27.9   8.978  153.8  0.0194   78.6  0.9599  -12.8
 0.680  0.8357  -28.7   8.954  153.0  0.0199   78.4  0.9580  -13.2
 0.700  0.8333  -29.5   8.931  152.3  0.0204   78.3  0.9561  -13.6
 0.720  0.8295  -30.3   8.891  151.5  0.0209   77.7  0.9536  -14.0
 0.740  0.8258  -31.1   8.852  150.7  0.0214   77.1  0.9512  -14.3
 0.760  0.8223  -31.9   8.815  149.9  0.0219   76.5  0.9488  -14.7
 0.780  0.8190  -32.7   8.780  149.1  0.0224   75.9  0.9464  -15.0
 0.800  0.8158  -33.5   8.747  148.3  0.0229   75.4  0.9441  -15.4
 0.820  0.8119  -34.3   8.714  147.6  0.0235   75.0  0.9418  -15.8
 0.840  0.8082  -35.0   8.682  146.9  0.0240   74.6  0.9396  -16.1
 0.860  0.8047  -35.8   8.652  146.2  0.0246   74.2  0.9374  -16.5
 0.880  0.8013  -36.6   8.623  145.4  0.0251   73.8  0.9353  -16.8
 0.900  0.7980  -37.4   8.595  144.7  0.0257   73.5  0.9332  -17.2
 0.920  0.7940  -38.1   8.550  144.0  0.0262   73.2  0.9304  -17.6
 0.940  0.7901  -38.9   8.507  143.3  0.0266   72.8  0.9276  -17.9
 0.960  0.7864  -39.7   8.464  142.6  0.0271   72.5  0.9249  -18.3
 0.980  0.7828  -40.4   8.423  141.8  0.0275   72.2  0.9222  -18.6
 1.000  0.7793  -41.2   8.384  141.1  0.0280   71.9  0.9195  -19.0
 1.020  0.7749  -41.9   8.343  140.4  0.0286   71.6  0.9166  -19.3
 1.040  0.7706  -42.7   8.303  139.8  0.0291   71.4  0.9138  -19.6
 1.060  0.7665  -43.5   8.265  139.1  0.0297   71.1  0.9110  -20.0
 1.080  0.7625  -44.2   8.227  138.4  0.0302   70.8  0.9082  -20.3
 1.100  0.7586  -45.0   8.191  137.7  0.0308   70.6  0.9054  -20.6
 1.120  0.7542  -45.7   8.149  137.0  0.0313   70.3  0.9025  -20.9
 1.140  0.7499  -46.5   8.108  136.4  0.0318   70.0  0.8996  -21.2
 1.160  0.7457  -47.2   8.068  135.7  0.0324   69.7  0.8968  -21.5
 1.180  0.7417  -47.9   8.030  135.0  0.0329   69.5  0.8940  -21.8
 1.200  0.7378  -48.7   7.992  134.3  0.0334   69.2  0.8912  -22.1
 1.220  0.7332  -49.4   7.951  133.6  0.0337   68.6  0.8883  -22.4
 1.240  0.7287  -50.1   7.912  132.9  0.0341   68.1  0.8853  -22.7
 1.260  0.7243  -50.8   7.873  132.2  0.0344   67.5  0.8824  -23.0
 1.280  0.7200  -51.6   7.836  131.5  0.0348   67.0  0.8796  -23.3
 1.300  0.7159  -52.3   7.800  130.8  0.0351   66.5  0.8767  -23.6
 1.320  0.7117  -53.0   7.751  130.2  0.0356   66.4  0.8736  -23.9
 1.340  0.7077  -53.7   7.703  129.7  0.0361   66.2  0.8705  -24.2
 1.360  0.7037  -54.4   7.655  129.1  0.0367   66.1  0.8675  -24.4
 1.380  0.6998  -55.1   7.609  128.5  0.0372   66.0  0.8644  -24.7
 1.400  0.6961  -55.8   7.563  127.9  0.0377   65.9  0.8614  -25.0
 1.420  0.6916  -56.5   7.520  127.3  0.0381   65.7  0.8585  -25.3
 1.440  0.6872  -57.1   7.479  126.7  0.0385   65.4  0.8556  -25.5
 1.460  0.6829  -57.8   7.438  126.1  0.0390   65.2  0.8527  -25.8
 1.480  0.6787  -58.5   7.397  125.5  0.0394   65.0  0.8498  -26.0
 1.500  0.6746  -59.2   7.358  124.9  0.0398   64.8  0.8470  -26.3
 1.520  0.6703  -59.9   7.317  124.3  0.0402   64.6  0.8441  -26.6
 1.540  0.6662  -60.5   7.276  123.7  0.0406   64.4  0.8413  -26.8
 1.560  0.6621  -61.2   7.236  123.1  0.0410   64.2  0.8384  -27.1
 1.580  0.6581  -61.9   7.197  122.5  0.0414   64.1  0.8356  -27.3
 1.600  0.6542  -62.6   7.159  121.9  0.0418   63.9  0.8328  -27.6
 1.620  0.6504  -63.2   7.112  121.4  0.0422   63.5  0.8296  -27.9
 1.640  0.6466  -63.8   7.065  120.8  0.0426   63.1  0.8265  -28.1
 1.660  0.6429  -64.4   7.019  120.3  0.0430   62.7  0.8234  -28.4
 1.680  0.6392  -65.1   6.973  119.8  0.0434   62.3  0.8203  -28.6
 1.700  0.6357  -65.7   6.928  119.2  0.0438   61.9  0.8172  -28.9
 1.720  0.6314  -66.3   6.885  118.7  0.0441   61.7  0.8143  -29.2
 1.740  0.6272  -67.0   6.843  118.1  0.0444   61.5  0.8114  -29.4
 1.760  0.6231  -67.7   6.802  117.5  0.0446   61.4  0.8085  -29.7
 1.780  0.6191  -68.3   6.761  117.0  0.0449   61.2  0.8056  -29.9
 1.800  0.6151  -69.0   6.721  116.4  0.0452   61.0  0.8028  -30.2
 1.820  0.6112  -69.6   6.683  115.9  0.0457   60.8  0.7997  -30.4
 1.840  0.6075  -70.2   6.645  115.5  0.0461   60.6  0.7966  -30.7
 1.860  0.6037  -70.8   6.608  115.0  0.0466   60.4  0.7935  -30.9
 1.880  0.6001  -71.4   6.571  114.5  0.0470   60.2  0.7905  -31.2
 1.900  0.5965  -72.0   6.535  114.0  0.0475   60.0  0.7874  -31.4
 1.920  0.5927  -72.7   6.500  113.5  0.0477   59.8  0.7851  -31.7
 1.940  0.5891  -73.3   6.465  112.9  0.0479   59.6  0.7829  -32.0
 1.960  0.5855  -74.0   6.431  112.4  0.0481   59.4  0.7806  -32.2
 1.980  0.5819  -74.7   6.397  111.9  0.0483   59.2  0.7784  -32.5
 2.000  0.5785  -75.4   6.364  111.3  0.0485   59.0  0.7762  -32.8
 2.020  0.5747  -76.0   6.324  110.8  0.0488   58.9  0.7734  -33.0
 2.040  0.5710  -76.5   6.284  110.3  0.0491   58.8  0.7706  -33.2
 2.060  0.5673  -77.1   6.245  109.8  0.0494   58.8  0.7679  -33.5
 2.080  0.5637  -77.7   6.206  109.3  0.0497   58.7  0.7651  -33.7
 2.100  0.5602  -78.3   6.168  108.8  0.0500   58.6  0.7624  -33.9
 2.120  0.5564  -78.9   6.130  108.3  0.0504   58.2  0.7597  -34.1
 2.140  0.5527  -79.5   6.092  107.9  0.0509   57.8  0.7571  -34.4
 2.160  0.5490  -80.1   6.055  107.4  0.0513   57.4  0.7544  -34.6
 2.180  0.5454  -80.7   6.018  106.9  0.0518   57.0  0.7518  -34.9
 2.200  0.5419  -81.3   5.982  106.4  0.0522   56.6  0.7492  -35.1
 2.220  0.5385  -81.9   5.945  106.0  0.0525   56.6  0.7468  -35.3
 2.240  0.5352  -82.4   5.907  105.5  0.0528   56.5  0.7444  -35.5
 2.260  0.5320  -83.0   5.871  105.1  0.0530   56.5  0.7420  -35.8
 2.280  0.5287  -83.6   5.834  104.7  0.0533   56.4  0.7396  -36.0
 2.300  0.5256  -84.2   5.798  104.2  0.0536   56.4  0.7372  -36.2
 2.320  0.5224  -84.7   5.763  103.8  0.0537   56.2  0.7346  -36.4
 2.340  0.5193  -85.2   5.728  103.4  0.0538   56.0  0.7321  -36.6
 2.360  0.5162  -85.7   5.693  103.0  0.0540   55.8  0.7295  -36.8
 2.380  0.5132  -86.2   5.658  102.6  0.0541   55.6  0.7269  -37.0
 2.400  0.5102  -86.7   5.624  102.2  0.0542   55.4  0.7244  -37.2
 2.420  0.5071  -87.2   5.590  101.8  0.0545   55.5  0.7222  -37.4
 2.440  0.5041  -87.8   5.556  101.3  0.0548   55.5  0.7200  -37.5
 2.460  0.5011  -88.4   5.523  100.9  0.0551   55.6  0.7178  -37.7
 2.480  0.4981  -88.9   5.490  100.5  0.0554   55.6  0.7157  -37.8
 2.500  0.4952  -89.5   5.457  100.0  0.0557   55.7  0.7135  -38.0
 2.520  0.4919  -90.0   5.423   99.6  0.0559   55.4  0.7115  -38.2
 2.540  0.4886  -90.5   5.390   99.3  0.0562   55.1  0.7094  -38.4
 2.560  0.4854  -91.0   5.357   98.9  0.0564   54.7  0.7074  -38.6
 2.580  0.4822  -91.5   5.324   98.5  0.0567   54.4  0.7054  -38.8
 2.600  0.4791  -92.0   5.291   98.1  0.0569   54.1  0.7034  -39.0
 2.620  0.4763  -92.5   5.261   97.7  0.0573   53.9  0.7013  -39.1
 2.640  0.4735  -93.1   5.232   97.3  0.0576   53.7  0.6992  -39.3
 2.660  0.4707  -93.6   5.203   96.9  0.0580   53.6  0.6971  -39.4
 2.680  0.4680  -94.1   5.174   96.5  0.0583   53.4  0.6950  -39.6
 2.700  0.4653  -94.7   5.146   96.1  0.0587   53.2  0.6929  -39.7
 2.720  0.4626  -95.2   5.118   95.7  0.0589   53.2  0.6909  -39.9
 2.740  0.4599  -95.6   5.089   95.4  0.0590   53.2  0.6890  -40.1
 2.760  0.4572  -96.1   5.061   95.0  0.0592   53.1  0.6871  -40.3
 2.780  0.4546  -96.6   5.034   94.6  0.0593   53.1  0.6851  -40.5
 2.800  0.4520  -97.1   5.006   94.2  0.0595   53.1  0.6832  -40.7
 2.820  0.4496  -97.6   4.976   93.9  0.0597   53.1  0.6815  -40.8
 2.840  0.4473  -98.1   4.947   93.5  0.0599   53.1  0.6798  -41.0
 2.860  0.4450  -98.6   4.918   93.2  0.0601   53.0  0.6781  -41.1
 2.880  0.4427  -99.2   4.889   92.8  0.0603   53.0  0.6765  -41.3
 2.900  0.4405  -99.7   4.860   92.5  0.0605   53.0  0.6748  -41.4
 2.920  0.4380 -100.2   4.834   92.2  0.0608   52.8  0.6730  -41.6
 2.940  0.4355 -100.6   4.807   91.8  0.0610   52.6  0.6712  -41.8
 2.960  0.4330 -101.1   4.781   91.5  0.0613   52.4  0.6694  -41.9
 2.980  0.4306 -101.6   4.756   91.1  0.0615   52.2  0.6676  -42.1
 3.000  0.4282 -102.1   4.730   90.8  0.0618   52.0  0.6658  -42.3
 3.100  0.4169 -104.5   4.601   89.0  0.0632   51.8  0.6578  -43.0
 3.200  0.4037 -107.0   4.479   87.3  0.0641   50.8  0.6495  -43.8
 3.300  0.3961 -109.3   4.367   85.8  0.0650   50.8  0.6425  -44.4
 3.400  0.3832 -111.7   4.249   84.3  0.0658   50.6  0.6360  -45.2
 3.500  0.3749 -113.9   4.150   82.8  0.0672   49.7  0.6299  -45.7
 3.600  0.3643 -116.2   4.047   81.3  0.0676   50.1  0.6231  -46.3
 3.700  0.3567 -118.6   3.946   79.9  0.0697   49.3  0.6177  -46.8
 3.800  0.3478 -120.9   3.850   78.5  0.0708   48.8  0.6119  -47.3
 3.900  0.3409 -123.1   3.769   77.1  0.0712   48.9  0.6071  -47.9
 4.000  0.3327 -125.3   3.685   75.8  0.0727   48.3  0.6024  -48.4
 4.100  0.3252 -127.9   3.606   74.4  0.0731   48.5  0.5966  -48.9
 4.200  0.3179 -130.0   3.526   73.2  0.0746   48.2  0.5917  -49.4
 4.300  0.3129 -132.5   3.457   71.9  0.0755   48.0  0.5862  -49.9
 4.400  0.3051 -134.8   3.387   70.7  0.0767   47.7  0.5823  -50.3
 4.500  0.3021 -137.2   3.315   69.5  0.0777   47.5  0.5785  -50.7
 4.600  0.2953 -139.7   3.250   68.2  0.0784   46.9  0.5734  -51.2
 4.700  0.2928 -141.9   3.188   67.1  0.0795   47.0  0.5679  -51.6
 4.800  0.2879 -144.5   3.129   65.9  0.0806   46.9  0.5645  -52.1
 4.900  0.2853 -146.5   3.070   64.8  0.0818   47.0  0.5598  -52.4
 5.000  0.2801 -148.9   3.016   63.5  0.0826   46.5  0.5556  -53.0
 5.100  0.2771 -151.1   2.960   62.4  0.0841   46.5  0.5512  -53.3
 5.200  0.2735 -153.5   2.911   61.2  0.0854   46.4  0.5468  -53.8
 5.300  0.2715 -155.8   2.859   60.1  0.0864   46.3  0.5430  -54.2
 5.400  0.2689 -157.6   2.812   59.0  0.0872   46.1  0.5400  -54.6
 5.500  0.2664 -159.9   2.765   57.9  0.0886   45.9  0.5360  -55.0
 5.600  0.2632 -162.0   2.721   56.7  0.0894   45.5  0.5327  -55.4
 5.700  0.2613 -164.5   2.674   55.6  0.0904   45.0  0.5289  -55.8
 5.800  0.2600 -166.3   2.635   54.6  0.0919   44.9  0.5257  -56.3
 5.900  0.2571 -168.6   2.593   53.6  0.0930   44.8  0.5226  -56.6
 6.000  0.2546 -170.5   2.551   52.5  0.0940   45.0  0.5195  -57.0
 6.100  0.2528 -172.8   2.510   51.4  0.0948   44.9  0.5154  -57.3
 6.200  0.2510 -175.0   2.473   50.4  0.0962   44.4  0.5124  -57.8
 6.300  0.2495 -177.3   2.438   49.4  0.0976   44.1  0.5086  -58.0
 6.400  0.2466 -179.3   2.403   48.4  0.0988   43.9  0.5061  -58.5
 6.500  0.2451  177.9   2.365   47.3  0.0997   43.8  0.5027  -58.8
 6.600  0.2438  175.6   2.333   46.3  0.1005   43.7  0.4987  -59.1
 6.800  0.2423  170.3   2.267   44.3  0.1033   43.7  0.4921  -59.6
 7.000  0.2403  165.2   2.205   42.4  0.1054   43.2  0.4848  -59.9
 7.200  0.2420  159.7   2.147   40.5  0.1082   42.9  0.4751  -60.5
 7.400  0.2459  154.7   2.093   38.7  0.1112   43.0  0.4670  -61.0
 7.600  0.2517  150.0   2.042   37.0  0.1145   42.7  0.4568  -61.5
 7.800  0.2614  145.8   1.995   35.2  0.1173   42.5  0.4451  -62.2
 8.000  0.2717  141.7   1.951   33.4  0.1207   42.1  0.4320  -62.9
 8.200  0.2854  138.3   1.912   31.7  0.1242   41.4  0.4151  -63.8
 8.400  0.3000  135.1   1.876   29.8  0.1277   40.7  0.3983  -64.7
 8.600  0.3148  132.4   1.840   28.0  0.1312   40.1  0.3794  -65.8
 8.800  0.3296  130.0   1.806   26.2  0.1347   39.5  0.3584  -67.2
 9.000  0.3450  127.8   1.774   24.4  0.1382   38.9  0.3377  -68.7
 9.200  0.3585  125.8   1.744   22.6  0.1419   38.1  0.3146  -70.8
 9.400  0.3723  123.9   1.715   20.8  0.1455   37.4  0.2921  -73.2
 9.600  0.3854  122.1   1.687   19.0  0.1494   36.5  0.2691  -76.3
 9.800  0.3975  120.5   1.661   17.1  0.1536   35.6  0.2460  -80.0
10.000  0.4100  118.9   1.636   15.1  0.1577   34.7  0.2242  -84.6
10.200  0.4210  116.8   1.609   13.1  0.1613   33.5  0.2011  -90.6
10.400  0.4326  114.8   1.585   11.1  0.1650   32.3  0.1809  -98.1
10.600  0.4433  112.6   1.557    9.0  0.1684   31.0  0.1653 -107.6
10.800  0.4533  110.2   1.528    6.9  0.1715   29.7  0.1561 -119.0
11.000  0.4641  108.0   1.501    4.6  0.1746   28.5  0.1536 -131.2
11.200  0.4728  105.8   1.464    2.7  0.1765   27.3  0.1629 -141.9
11.400  0.4822  103.6   1.429    0.6  0.1786   26.2  0.1773 -151.2
11.600  0.4892  101.9   1.394   -1.1  0.1806   25.2  0.1979 -157.8
11.800  0.4935  100.4   1.357   -2.7  0.1828   24.4  0.2226 -161.9
12.000  0.4982   99.0   1.322   -4.3  0.1849   23.7  0.2482 -165.2
!
!  f       NFmin   Gammaopt  rn/50
! GHz       dB    MAG  ANG    -
 0.450      1.11  0.50    6   0.37
 0.900      1.12  0.47   14   0.41
 1.500      1.21  0.44   20   0.35
 1.900      1.25  0.42   27   0.35
 2.400      1.43  0.39   37   0.36
 3.000      1.50  0.37   47   0.33
 3.500      1.54  0.36   57   0.31
 4.500      1.72  0.30   73   0.26
 5.500      1.97  0.19   88   0.16
!
! (c) 2015  Infineon Technologies AG, Munich
