! Infineon Technologies  Discrete & RF Semiconductors
! BFP405F
! VCE =  3.5 V,  IC =  7.0 mA
! Common Emitter S-Parameters:                            Nov 2015
# GHz  S  MA  R  50
!  f         S11            S21            S12            S22
! GHz     MAG   ANG      MAG   ANG      MAG   ANG      MAG   ANG
 0.030  0.7791   -1.5  17.296  177.0  0.0006 -171.7  0.9827   -0.7
 0.035  0.7799   -1.9  17.292  176.9  0.0007  114.9  0.9844   -0.8
 0.040  0.7807   -2.2  17.288  176.8  0.0014   90.7  0.9861   -0.8
 0.045  0.7781   -2.8  17.364  176.3  0.0014    9.6  0.9872   -1.1
 0.050  0.7756   -3.5  17.441  175.9  0.0030  -17.9  0.9884   -1.3
 0.055  0.7801   -3.5  17.339  175.7  0.0021   79.7  0.9899   -1.2
 0.060  0.7846   -3.5  17.238  175.5  0.0054  113.1  0.9915   -1.2
 0.065  0.7849   -3.9  17.232  175.1  0.0045  110.0  0.9910   -1.5
 0.070  0.7852   -4.2  17.228  174.6  0.0037  105.5  0.9905   -1.8
 0.075  0.7845   -4.6  17.190  174.4  0.0033   91.5  0.9879   -1.9
 0.080  0.7839   -5.1  17.153  174.1  0.0031   74.7  0.9853   -2.0
 0.085  0.7826   -5.2  17.176  174.0  0.0021   59.4  0.9849   -2.1
 0.090  0.7813   -5.3  17.200  174.0  0.0015   26.2  0.9846   -2.3
 0.095  0.7811   -5.8  17.148  173.8  0.0018   71.7  0.9850   -2.6
 0.100  0.7809   -6.3  17.096  173.5  0.0027   95.0  0.9854   -2.8
 0.105  0.7804   -6.5  17.100  173.2  0.0036   81.4  0.9852   -2.8
 0.110  0.7799   -6.8  17.105  172.9  0.0046   73.4  0.9850   -2.8
 0.115  0.7802   -7.2  17.091  172.7  0.0036   65.4  0.9867   -2.9
 0.120  0.7806   -7.5  17.077  172.5  0.0028   52.2  0.9885   -3.0
 0.125  0.7799   -7.8  17.072  172.2  0.0028   83.6  0.9863   -3.3
 0.130  0.7792   -8.2  17.068  171.8  0.0035  108.3  0.9842   -3.6
 0.135  0.7788   -8.5  17.090  171.6  0.0036   96.5  0.9851   -3.7
 0.140  0.7784   -8.9  17.112  171.5  0.0039   85.9  0.9861   -3.8
 0.145  0.7770   -9.1  17.110  171.2  0.0039   82.9  0.9850   -3.9
 0.150  0.7756   -9.4  17.109  170.9  0.0039   80.0  0.9839   -4.0
 0.155  0.7751   -9.7  17.100  170.6  0.0041   78.9  0.9836   -4.1
 0.160  0.7747  -10.0  17.091  170.2  0.0042   78.0  0.9833   -4.3
 0.165  0.7743  -10.4  17.083  169.9  0.0044   77.1  0.9830   -4.4
 0.170  0.7739  -10.7  17.076  169.5  0.0046   76.2  0.9828   -4.5
 0.175  0.7735  -11.0  17.069  169.2  0.0047   75.5  0.9825   -4.6
 0.180  0.7732  -11.3  17.063  168.9  0.0049   74.7  0.9822   -4.8
 0.185  0.7729  -11.6  17.057  168.5  0.0051   74.1  0.9820   -4.9
 0.190  0.7726  -12.0  17.052  168.2  0.0053   73.4  0.9817   -5.0
 0.195  0.7723  -12.3  17.048  167.8  0.0054   72.9  0.9814   -5.2
 0.200  0.7721  -12.6  17.044  167.5  0.0056   72.3  0.9812   -5.3
 0.220  0.7691  -13.8  16.941  166.4  0.0064   79.8  0.9795   -5.9
 0.240  0.7665  -15.0  16.845  165.3  0.0072   85.5  0.9779   -6.4
 0.260  0.7635  -16.2  16.771  164.2  0.0079   87.4  0.9758   -7.0
 0.280  0.7601  -17.5  16.719  163.1  0.0083   86.5  0.9731   -7.5
 0.300  0.7570  -18.7  16.674  161.9  0.0087   85.7  0.9706   -8.0
 0.320  0.7532  -19.9  16.580  160.8  0.0091   83.7  0.9686   -8.5
 0.340  0.7498  -21.1  16.492  159.7  0.0095   81.9  0.9666   -9.0
 0.360  0.7460  -22.3  16.407  158.5  0.0100   80.3  0.9646   -9.6
 0.380  0.7420  -23.5  16.327  157.4  0.0107   79.1  0.9626  -10.1
 0.400  0.7382  -24.7  16.253  156.2  0.0114   78.0  0.9606  -10.6
 0.420  0.7338  -25.8  16.160  155.1  0.0118   78.0  0.9568  -11.1
 0.440  0.7296  -27.0  16.073  154.0  0.0122   78.1  0.9531  -11.6
 0.450  0.7277  -27.6  16.032  153.5  0.0124   78.1  0.9513  -11.8
 0.460  0.7251  -28.1  15.973  153.0  0.0125   78.4  0.9494  -12.1
 0.480  0.7201  -29.2  15.859  152.0  0.0126   79.1  0.9457  -12.6
 0.500  0.7154  -30.3  15.751  150.9  0.0128   79.7  0.9421  -13.1
 0.520  0.7097  -31.4  15.631  149.9  0.0134   78.8  0.9385  -13.5
 0.540  0.7042  -32.5  15.515  148.8  0.0140   77.9  0.9350  -14.0
 0.560  0.6990  -33.6  15.405  147.8  0.0146   77.1  0.9315  -14.4
 0.580  0.6941  -34.7  15.300  146.7  0.0152   76.4  0.9281  -14.9
 0.600  0.6894  -35.9  15.201  145.6  0.0158   75.7  0.9247  -15.3
 0.620  0.6835  -36.9  15.090  144.6  0.0163   75.3  0.9210  -15.7
 0.640  0.6779  -37.9  14.983  143.7  0.0168   74.9  0.9173  -16.1
 0.660  0.6725  -39.0  14.881  142.7  0.0174   74.6  0.9136  -16.5
 0.680  0.6673  -40.0  14.783  141.7  0.0179   74.2  0.9101  -16.9
 0.700  0.6623  -41.1  14.689  140.7  0.0184   73.9  0.9065  -17.3
 0.720  0.6562  -42.1  14.547  139.8  0.0188   73.7  0.9022  -17.7
 0.740  0.6502  -43.0  14.409  138.9  0.0193   73.5  0.8979  -18.1
 0.760  0.6444  -44.0  14.275  137.9  0.0197   73.3  0.8936  -18.5
 0.780  0.6389  -45.1  14.145  137.0  0.0202   73.2  0.8895  -18.9
 0.800  0.6335  -46.1  14.019  136.0  0.0206   73.0  0.8853  -19.3
 0.820  0.6277  -47.0  13.900  135.1  0.0211   73.0  0.8814  -19.7
 0.840  0.6220  -47.9  13.785  134.3  0.0216   73.0  0.8774  -20.0
 0.860  0.6166  -48.9  13.672  133.4  0.0220   73.0  0.8736  -20.4
 0.880  0.6112  -49.8  13.563  132.5  0.0225   73.0  0.8697  -20.7
 0.900  0.6061  -50.8  13.457  131.6  0.0230   73.0  0.8659  -21.1
 0.920  0.6002  -51.7  13.328  130.8  0.0234   72.2  0.8616  -21.4
 0.940  0.5944  -52.6  13.202  130.0  0.0238   71.5  0.8572  -21.8
 0.960  0.5887  -53.5  13.078  129.2  0.0242   70.8  0.8530  -22.1
 0.980  0.5832  -54.4  12.957  128.4  0.0246   70.1  0.8487  -22.5
 1.000  0.5779  -55.4  12.839  127.6  0.0250   69.4  0.8445  -22.8
 1.020  0.5722  -56.2  12.716  126.9  0.0253   69.1  0.8405  -23.1
 1.040  0.5666  -57.0  12.595  126.2  0.0255   68.9  0.8365  -23.4
 1.060  0.5611  -57.8  12.476  125.4  0.0258   68.6  0.8325  -23.8
 1.080  0.5557  -58.6  12.360  124.7  0.0260   68.3  0.8286  -24.1
 1.100  0.5505  -59.5  12.245  123.9  0.0263   68.1  0.8247  -24.4
 1.120  0.5452  -60.3  12.131  123.2  0.0266   68.0  0.8208  -24.6
 1.140  0.5401  -61.2  12.019  122.5  0.0269   67.8  0.8168  -24.9
 1.160  0.5351  -62.0  11.909  121.8  0.0273   67.7  0.8129  -25.1
 1.180  0.5302  -62.9  11.800  121.0  0.0276   67.5  0.8090  -25.4
 1.200  0.5254  -63.8  11.694  120.3  0.0279   67.4  0.8051  -25.6
 1.220  0.5198  -64.5  11.583  119.6  0.0283   67.2  0.8012  -25.9
 1.240  0.5144  -65.3  11.474  118.9  0.0286   67.0  0.7973  -26.1
 1.260  0.5090  -66.0  11.367  118.2  0.0290   66.8  0.7935  -26.4
 1.280  0.5037  -66.8  11.261  117.5  0.0293   66.6  0.7896  -26.6
 1.300  0.4985  -67.6  11.157  116.8  0.0297   66.4  0.7858  -26.9
 1.320  0.4938  -68.3  11.051  116.2  0.0300   66.3  0.7820  -27.2
 1.340  0.4892  -69.1  10.945  115.6  0.0304   66.1  0.7782  -27.4
 1.360  0.4847  -69.8  10.841  115.0  0.0307   66.0  0.7744  -27.7
 1.380  0.4803  -70.6  10.739  114.4  0.0311   65.8  0.7706  -27.9
 1.400  0.4760  -71.4  10.637  113.8  0.0314   65.7  0.7668  -28.2
 1.420  0.4713  -72.1  10.540  113.2  0.0318   65.7  0.7635  -28.4
 1.440  0.4667  -72.8  10.445  112.7  0.0322   65.7  0.7603  -28.6
 1.460  0.4622  -73.6  10.350  112.1  0.0325   65.6  0.7571  -28.8
 1.480  0.4578  -74.3  10.256  111.5  0.0329   65.6  0.7538  -29.0
 1.500  0.4534  -75.1  10.164  110.9  0.0333   65.6  0.7506  -29.2
 1.520  0.4492  -75.8  10.073  110.4  0.0336   65.5  0.7473  -29.4
 1.540  0.4452  -76.5   9.982  109.8  0.0339   65.4  0.7440  -29.6
 1.560  0.4411  -77.2   9.893  109.3  0.0341   65.3  0.7407  -29.8
 1.580  0.4372  -78.0   9.804  108.7  0.0344   65.2  0.7375  -30.0
 1.600  0.4333  -78.7   9.717  108.1  0.0347   65.1  0.7342  -30.2
 1.620  0.4296  -79.3   9.626  107.6  0.0350   64.9  0.7308  -30.4
 1.640  0.4259  -79.9   9.536  107.1  0.0352   64.7  0.7275  -30.6
 1.660  0.4223  -80.6   9.447  106.6  0.0355   64.5  0.7242  -30.8
 1.680  0.4187  -81.2   9.359  106.0  0.0357   64.3  0.7208  -31.0
 1.700  0.4152  -81.9   9.271  105.5  0.0360   64.1  0.7175  -31.2
 1.720  0.4112  -82.6   9.191  105.0  0.0363   64.0  0.7143  -31.4
 1.740  0.4072  -83.3   9.112  104.5  0.0367   63.9  0.7112  -31.6
 1.760  0.4032  -84.0   9.034  104.0  0.0370   63.9  0.7080  -31.9
 1.780  0.3994  -84.8   8.956  103.5  0.0374   63.8  0.7049  -32.1
 1.800  0.3956  -85.5   8.879  103.0  0.0377   63.7  0.7018  -32.3
 1.820  0.3923  -86.1   8.805  102.6  0.0380   63.7  0.6987  -32.5
 1.840  0.3891  -86.7   8.732  102.1  0.0383   63.8  0.6957  -32.7
 1.860  0.3859  -87.3   8.659  101.7  0.0385   63.8  0.6926  -32.8
 1.880  0.3827  -87.9   8.587  101.3  0.0388   63.9  0.6895  -33.0
 1.900  0.3796  -88.5   8.515  100.8  0.0391   63.9  0.6865  -33.2
 1.920  0.3766  -89.2   8.448  100.3  0.0393   63.7  0.6842  -33.5
 1.940  0.3736  -90.0   8.382   99.9  0.0395   63.5  0.6819  -33.7
 1.960  0.3706  -90.7   8.316   99.4  0.0397   63.2  0.6796  -34.0
 1.980  0.3678  -91.5   8.251   98.9  0.0399   63.0  0.6774  -34.2
 2.000  0.3650  -92.3   8.187   98.4  0.0401   62.8  0.6751  -34.5
 2.020  0.3621  -92.9   8.119   98.0  0.0405   62.8  0.6727  -34.7
 2.040  0.3592  -93.5   8.051   97.6  0.0409   62.8  0.6703  -34.8
 2.060  0.3563  -94.2   7.983   97.2  0.0413   62.8  0.6679  -35.0
 2.080  0.3535  -94.8   7.916   96.7  0.0417   62.8  0.6655  -35.1
 2.100  0.3508  -95.5   7.849   96.3  0.0421   62.8  0.6631  -35.3
 2.120  0.3477  -96.1   7.785   95.9  0.0424   62.8  0.6605  -35.5
 2.140  0.3446  -96.7   7.722   95.5  0.0428   62.8  0.6580  -35.7
 2.160  0.3415  -97.3   7.659   95.1  0.0431   62.9  0.6555  -35.8
 2.180  0.3385  -98.0   7.596   94.6  0.0435   62.9  0.6529  -36.0
 2.200  0.3355  -98.6   7.534   94.2  0.0438   62.9  0.6504  -36.2
 2.220  0.3330  -99.2   7.475   93.8  0.0440   62.8  0.6480  -36.4
 2.240  0.3306  -99.8   7.416   93.5  0.0442   62.8  0.6457  -36.6
 2.260  0.3282 -100.4   7.357   93.1  0.0443   62.7  0.6434  -36.7
 2.280  0.3258 -101.0   7.299   92.7  0.0445   62.7  0.6410  -36.9
 2.300  0.3235 -101.6   7.241   92.3  0.0447   62.6  0.6387  -37.1
 2.320  0.3210 -102.1   7.187   92.0  0.0451   62.5  0.6365  -37.3
 2.340  0.3186 -102.7   7.133   91.6  0.0454   62.3  0.6344  -37.5
 2.360  0.3162 -103.3   7.080   91.2  0.0458   62.2  0.6322  -37.6
 2.380  0.3138 -103.8   7.027   90.9  0.0461   62.0  0.6300  -37.8
 2.400  0.3115 -104.4   6.974   90.5  0.0465   61.9  0.6279  -38.0
 2.420  0.3093 -105.0   6.921   90.2  0.0468   61.6  0.6260  -38.1
 2.440  0.3072 -105.6   6.868   89.8  0.0470   61.3  0.6242  -38.3
 2.460  0.3051 -106.2   6.815   89.4  0.0473   61.0  0.6223  -38.4
 2.480  0.3030 -106.8   6.763   89.1  0.0475   60.7  0.6205  -38.6
 2.500  0.3010 -107.4   6.711   88.7  0.0478   60.4  0.6186  -38.7
 2.520  0.2988 -107.9   6.661   88.4  0.0480   60.5  0.6168  -38.8
 2.540  0.2967 -108.4   6.611   88.1  0.0482   60.5  0.6150  -39.0
 2.560  0.2946 -108.9   6.562   87.8  0.0485   60.6  0.6132  -39.1
 2.580  0.2925 -109.4   6.512   87.4  0.0487   60.6  0.6114  -39.3
 2.600  0.2904 -109.9   6.463   87.1  0.0489   60.7  0.6096  -39.4
 2.620  0.2885 -110.5   6.419   86.8  0.0492   60.8  0.6078  -39.5
 2.640  0.2866 -111.1   6.375   86.4  0.0495   60.9  0.6060  -39.6
 2.660  0.2848 -111.7   6.331   86.1  0.0497   61.1  0.6041  -39.8
 2.680  0.2830 -112.3   6.287   85.7  0.0500   61.2  0.6023  -39.9
 2.700  0.2812 -112.9   6.244   85.4  0.0503   61.3  0.6005  -40.0
 2.720  0.2795 -113.4   6.202   85.1  0.0506   61.1  0.5991  -40.2
 2.740  0.2778 -113.9   6.161   84.8  0.0509   60.9  0.5977  -40.3
 2.760  0.2761 -114.4   6.120   84.5  0.0513   60.6  0.5963  -40.5
 2.780  0.2744 -115.0   6.079   84.1  0.0516   60.4  0.5949  -40.6
 2.800  0.2728 -115.5   6.038   83.8  0.0519   60.2  0.5935  -40.8
 2.820  0.2711 -116.0   5.996   83.5  0.0523   60.3  0.5921  -40.9
 2.840  0.2694 -116.6   5.954   83.3  0.0526   60.3  0.5906  -41.0
 2.860  0.2677 -117.1   5.913   83.0  0.0530   60.4  0.5892  -41.2
 2.880  0.2661 -117.6   5.871   82.7  0.0533   60.4  0.5877  -41.3
 2.900  0.2645 -118.2   5.830   82.4  0.0537   60.5  0.5863  -41.4
 2.920  0.2627 -118.7   5.794   82.1  0.0540   60.4  0.5847  -41.5
 2.940  0.2610 -119.3   5.758   81.8  0.0542   60.4  0.5831  -41.7
 2.960  0.2593 -119.9   5.723   81.5  0.0545   60.3  0.5815  -41.8
 2.980  0.2576 -120.4   5.687   81.2  0.0547   60.3  0.5800  -42.0
 3.000  0.2559 -121.0   5.652   80.9  0.0550   60.2  0.5784  -42.1
 3.100  0.2502 -123.3   5.467   79.5  0.0556   60.0  0.5718  -42.7
 3.200  0.2415 -126.5   5.300   78.1  0.0571   60.0  0.5661  -43.4
 3.300  0.2367 -128.9   5.148   76.8  0.0590   59.7  0.5608  -44.0
 3.400  0.2290 -131.5   4.992   75.5  0.0600   59.7  0.5560  -44.6
 3.500  0.2251 -133.8   4.857   74.2  0.0612   59.3  0.5512  -45.1
 3.600  0.2186 -136.3   4.716   73.0  0.0623   59.0  0.5470  -45.5
 3.700  0.2140 -139.2   4.590   71.9  0.0642   59.0  0.5419  -46.0
 3.800  0.2094 -141.7   4.468   70.7  0.0658   58.8  0.5378  -46.5
 3.900  0.2060 -144.0   4.360   69.5  0.0667   58.3  0.5341  -47.0
 4.000  0.2017 -146.5   4.252   68.4  0.0686   58.6  0.5312  -47.5
 4.100  0.1994 -149.2   4.149   67.3  0.0696   57.7  0.5265  -47.9
 4.200  0.1946 -151.9   4.052   66.2  0.0715   57.6  0.5219  -48.2
 4.300  0.1947 -154.5   3.962   65.1  0.0730   57.3  0.5187  -48.8
 4.400  0.1908 -157.4   3.875   64.1  0.0741   57.6  0.5153  -49.2
 4.500  0.1903 -159.5   3.786   63.1  0.0758   56.8  0.5124  -49.5
 4.600  0.1881 -162.3   3.705   61.9  0.0774   56.8  0.5083  -49.9
 4.700  0.1886 -164.4   3.628   61.0  0.0787   57.0  0.5045  -50.2
 4.800  0.1873 -167.3   3.556   60.0  0.0803   56.4  0.5015  -50.7
 4.900  0.1869 -169.2   3.485   59.0  0.0821   56.1  0.4975  -51.1
 5.000  0.1864 -171.7   3.418   58.0  0.0834   55.8  0.4946  -51.5
 5.100  0.1858 -173.8   3.351   57.0  0.0844   55.4  0.4910  -51.9
 5.200  0.1855 -176.2   3.291   56.0  0.0862   55.1  0.4872  -52.3
 5.300  0.1860 -178.6   3.230   55.0  0.0877   54.6  0.4839  -52.7
 5.400  0.1859  179.8   3.173   54.1  0.0894   54.3  0.4819  -53.1
 5.500  0.1862  177.5   3.117   53.0  0.0915   54.4  0.4789  -53.5
 5.600  0.1857  175.1   3.062   52.1  0.0924   53.8  0.4757  -53.9
 5.700  0.1869  172.8   3.010   51.1  0.0941   53.5  0.4727  -54.2
 5.800  0.1863  170.8   2.962   50.2  0.0954   53.1  0.4697  -54.6
 5.900  0.1870  168.6   2.914   49.3  0.0971   52.9  0.4674  -55.0
 6.000  0.1865  166.4   2.864   48.3  0.0985   52.2  0.4649  -55.3
 6.100  0.1872  164.0   2.816   47.3  0.1002   52.3  0.4610  -55.5
 6.200  0.1876  161.9   2.771   46.4  0.1018   51.5  0.4587  -56.0
 6.300  0.1882  159.4   2.731   45.5  0.1029   51.5  0.4556  -56.3
 6.400  0.1876  157.4   2.687   44.6  0.1044   51.0  0.4534  -56.7
 6.500  0.1892  154.7   2.643   43.6  0.1060   50.8  0.4505  -57.0
 6.600  0.1898  152.2   2.606   42.8  0.1073   50.4  0.4470  -57.2
 6.800  0.1924  147.6   2.530   41.0  0.1105   49.9  0.4416  -57.8
 7.000  0.1946  142.8   2.457   39.2  0.1134   49.2  0.4354  -57.9
 7.200  0.2005  138.2   2.388   37.6  0.1168   48.6  0.4263  -58.4
 7.400  0.2088  134.5   2.325   36.0  0.1200   48.1  0.4182  -58.9
 7.600  0.2175  130.8   2.268   34.4  0.1239   47.5  0.4088  -59.2
 7.800  0.2281  127.9   2.215   32.8  0.1280   46.9  0.3973  -59.8
 8.000  0.2410  125.4   2.163   31.2  0.1319   46.1  0.3840  -60.3
 8.200  0.2562  123.4   2.119   29.6  0.1355   45.1  0.3672  -61.0
 8.400  0.2718  121.7   2.077   28.0  0.1392   44.2  0.3504  -61.8
 8.600  0.2874  120.2   2.037   26.4  0.1428   43.2  0.3314  -62.7
 8.800  0.3031  118.8   1.997   24.7  0.1466   42.3  0.3099  -63.7
 9.000  0.3190  117.6   1.960   22.9  0.1503   41.5  0.2886  -64.8
 9.200  0.3333  116.4   1.926   21.3  0.1544   40.4  0.2655  -66.4
 9.400  0.3478  115.4   1.893   19.6  0.1585   39.3  0.2427  -68.4
 9.600  0.3615  114.3   1.862   17.9  0.1626   38.2  0.2191  -70.9
 9.800  0.3745  113.0   1.832   16.2  0.1667   37.0  0.1949  -74.3
10.000  0.3877  111.9   1.804   14.4  0.1709   35.9  0.1716  -78.7
10.200  0.4000  110.2   1.774   12.6  0.1747   34.6  0.1472  -84.9
10.400  0.4127  108.6   1.745   10.7  0.1785   33.3  0.1253  -93.4
10.600  0.4246  106.7   1.715    8.7  0.1820   32.0  0.1082 -105.7
10.800  0.4359  104.5   1.684    6.8  0.1850   30.5  0.0990 -122.0
11.000  0.4479  102.5   1.654    4.7  0.1882   29.1  0.0990 -139.9
11.200  0.4570  100.3   1.615    2.9  0.1902   27.8  0.1133 -153.4
11.400  0.4668   98.2   1.577    1.0  0.1922   26.5  0.1324 -163.5
11.600  0.4739   96.5   1.540   -0.7  0.1944   25.4  0.1560 -169.3
11.800  0.4782   95.1   1.503   -2.1  0.1966   24.6  0.1820 -172.1
12.000  0.4827   93.8   1.467   -3.6  0.1989   23.7  0.2083 -174.2
!
!  f       NFmin   Gammaopt  rn/50
! GHz       dB    MAG  ANG    -
 0.450      1.45  0.30    6   0.34
 0.900      1.46  0.28   11   0.34
 1.500      1.52  0.26   16   0.30
 1.900      1.56  0.24   24   0.30
 2.400      1.71  0.23   32   0.32
 3.000      1.77  0.21   45   0.29
 3.500      1.82  0.19   53   0.28
 4.500      1.97  0.15   59   0.20
 5.500      2.17  0.08   66   0.07
!
! (c) 2015  Infineon Technologies AG, Munich
