! Infineon Technologies  Discrete & RF Semiconductors
! BFP410
! VCE =  0.5 V,  IC =  5.0 mA
! Common Emitter S-Parameters:                            Nov 2015
# GHz  S  MA  R  50
!  f         S11            S21            S12            S22
! GHz     MAG   ANG      MAG   ANG      MAG   ANG      MAG   ANG
 0.010  0.7979   -0.6  14.699  179.5  0.0007  121.5  0.9746    0.6
 0.015  0.8019   -1.4  14.812  178.8  0.0014   95.0  0.9758   -0.3
 0.020  0.8061   -2.2  14.926  178.2  0.0022   86.9  0.9773   -1.2
 0.025  0.8045   -2.8  14.907  177.7  0.0026   86.7  0.9772   -1.6
 0.030  0.8031   -3.4  14.888  177.2  0.0031   86.5  0.9772   -1.9
 0.035  0.8017   -3.9  14.871  176.7  0.0035   86.4  0.9773   -2.3
 0.040  0.8004   -4.5  14.855  176.2  0.0039   86.3  0.9773   -2.7
 0.045  0.7991   -5.1  14.841  175.7  0.0044   86.3  0.9774   -3.0
 0.050  0.7980   -5.7  14.827  175.2  0.0048   86.2  0.9776   -3.4
 0.055  0.7979   -6.3  14.827  174.8  0.0053   85.8  0.9771   -3.8
 0.060  0.7979   -6.9  14.828  174.5  0.0058   85.5  0.9767   -4.1
 0.065  0.7979   -7.4  14.830  174.1  0.0063   85.2  0.9762   -4.5
 0.070  0.7981   -8.0  14.832  173.8  0.0068   84.9  0.9759   -4.8
 0.075  0.7983   -8.6  14.835  173.4  0.0073   84.7  0.9755   -5.2
 0.080  0.7986   -9.2  14.838  173.0  0.0079   84.5  0.9752   -5.6
 0.085  0.7990   -9.8  14.842  172.7  0.0084   84.4  0.9750   -5.9
 0.090  0.7994  -10.3  14.846  172.3  0.0089   84.2  0.9747   -6.3
 0.095  0.8000  -10.9  14.851  172.0  0.0094   84.1  0.9745   -6.6
 0.100  0.8006  -11.5  14.857  171.6  0.0099   84.0  0.9744   -7.0
 0.105  0.7996  -12.0  14.840  171.2  0.0104   83.6  0.9735   -7.4
 0.110  0.7987  -12.6  14.824  170.7  0.0109   83.2  0.9726   -7.7
 0.115  0.7978  -13.1  14.809  170.3  0.0113   82.9  0.9717   -8.1
 0.120  0.7970  -13.6  14.795  169.9  0.0118   82.6  0.9709   -8.4
 0.125  0.7963  -14.2  14.782  169.5  0.0123   82.3  0.9701   -8.8
 0.130  0.7957  -14.7  14.769  169.0  0.0128   82.0  0.9694   -9.2
 0.135  0.7951  -15.3  14.757  168.6  0.0133   81.7  0.9687   -9.5
 0.140  0.7946  -15.8  14.746  168.2  0.0137   81.5  0.9680   -9.9
 0.145  0.7942  -16.4  14.736  167.7  0.0142   81.3  0.9674  -10.2
 0.150  0.7938  -16.9  14.727  167.3  0.0147   81.1  0.9668  -10.6
 0.155  0.7928  -17.5  14.710  166.9  0.0152   80.7  0.9655  -10.9
 0.160  0.7920  -18.0  14.694  166.5  0.0156   80.4  0.9643  -11.3
 0.165  0.7911  -18.6  14.679  166.1  0.0161   80.0  0.9631  -11.6
 0.170  0.7904  -19.1  14.664  165.7  0.0166   79.7  0.9619  -12.0
 0.175  0.7898  -19.7  14.650  165.3  0.0170   79.4  0.9608  -12.3
 0.180  0.7892  -20.2  14.637  164.8  0.0175   79.1  0.9597  -12.7
 0.185  0.7887  -20.8  14.625  164.4  0.0180   78.8  0.9587  -13.0
 0.190  0.7882  -21.4  14.613  164.0  0.0185   78.6  0.9576  -13.4
 0.195  0.7879  -21.9  14.602  163.6  0.0189   78.3  0.9566  -13.7
 0.200  0.7876  -22.5  14.592  163.2  0.0194   78.1  0.9557  -14.1
 0.220  0.7828  -24.7  14.477  161.5  0.0212   76.9  0.9501  -15.4
 0.240  0.7792  -26.9  14.375  159.9  0.0230   75.9  0.9451  -16.8
 0.260  0.7753  -29.1  14.283  158.2  0.0248   74.7  0.9392  -18.2
 0.280  0.7712  -31.3  14.200  156.6  0.0266   73.5  0.9324  -19.5
 0.300  0.7683  -33.5  14.128  155.0  0.0284   72.5  0.9261  -20.8
 0.320  0.7631  -35.6  14.014  153.5  0.0301   71.4  0.9188  -22.1
 0.340  0.7590  -37.8  13.909  152.1  0.0318   70.4  0.9119  -23.4
 0.360  0.7542  -39.9  13.792  150.5  0.0334   69.4  0.9044  -24.7
 0.380  0.7488  -42.0  13.662  149.0  0.0349   68.4  0.8962  -25.9
 0.400  0.7443  -44.1  13.543  147.4  0.0365   67.4  0.8884  -27.1
 0.420  0.7387  -46.1  13.406  146.0  0.0380   66.4  0.8800  -28.3
 0.440  0.7340  -48.2  13.277  144.6  0.0395   65.4  0.8720  -29.5
 0.450  0.7320  -49.2  13.215  143.9  0.0403   65.0  0.8682  -30.1
 0.460  0.7287  -50.2  13.145  143.2  0.0410   64.5  0.8636  -30.7
 0.480  0.7229  -52.3  13.011  141.8  0.0424   63.5  0.8545  -31.9
 0.500  0.7180  -54.4  12.885  140.3  0.0438   62.6  0.8459  -33.1
 0.520  0.7112  -56.3  12.727  139.0  0.0450   61.6  0.8362  -34.1
 0.540  0.7052  -58.2  12.575  137.6  0.0463   60.7  0.8268  -35.1
 0.560  0.6999  -60.1  12.431  136.3  0.0475   59.9  0.8176  -36.2
 0.580  0.6954  -62.0  12.294  134.8  0.0488   59.1  0.8088  -37.3
 0.600  0.6918  -64.0  12.165  133.4  0.0501   58.3  0.8002  -38.4
 0.620  0.6851  -65.8  12.017  132.3  0.0512   57.5  0.7907  -39.4
 0.640  0.6790  -67.6  11.874  131.2  0.0523   56.6  0.7813  -40.4
 0.660  0.6737  -69.4  11.735  130.0  0.0534   55.9  0.7723  -41.4
 0.680  0.6690  -71.3  11.602  128.8  0.0546   55.1  0.7635  -42.4
 0.700  0.6651  -73.2  11.473  127.6  0.0557   54.4  0.7549  -43.5
 0.720  0.6592  -74.8  11.322  126.5  0.0566   53.7  0.7456  -44.3
 0.740  0.6538  -76.5  11.176  125.4  0.0576   53.0  0.7365  -45.2
 0.760  0.6490  -78.2  11.034  124.3  0.0585   52.3  0.7276  -46.1
 0.780  0.6448  -79.9  10.896  123.2  0.0594   51.6  0.7188  -47.0
 0.800  0.6411  -81.6  10.762  122.0  0.0604   51.0  0.7102  -47.9
 0.820  0.6358  -83.2  10.629  121.0  0.0612   50.3  0.7014  -48.7
 0.840  0.6310  -84.9  10.499  120.0  0.0621   49.7  0.6928  -49.6
 0.860  0.6267  -86.6  10.373  119.0  0.0629   49.1  0.6844  -50.4
 0.880  0.6230  -88.3  10.250  117.9  0.0637   48.5  0.6760  -51.3
 0.900  0.6199  -90.0  10.131  116.8  0.0646   47.9  0.6679  -52.2
 0.920  0.6147  -91.5   9.999  115.9  0.0653   47.4  0.6594  -52.9
 0.940  0.6099  -93.1   9.869  115.0  0.0660   46.8  0.6509  -53.7
 0.960  0.6055  -94.6   9.742  114.1  0.0667   46.3  0.6426  -54.4
 0.980  0.6016  -96.2   9.618  113.1  0.0675   45.8  0.6344  -55.2
 1.000  0.5982  -97.8   9.496  112.1  0.0682   45.3  0.6263  -56.0
 1.020  0.5942  -99.2   9.379  111.3  0.0689   44.8  0.6187  -56.7
 1.040  0.5905 -100.7   9.264  110.4  0.0695   44.3  0.6111  -57.3
 1.060  0.5872 -102.1   9.152  109.5  0.0702   43.8  0.6037  -58.0
 1.080  0.5843 -103.6   9.041  108.6  0.0708   43.4  0.5964  -58.8
 1.100  0.5818 -105.1   8.933  107.7  0.0715   42.9  0.5891  -59.5
 1.120  0.5781 -106.4   8.825  106.9  0.0721   42.4  0.5819  -60.1
 1.140  0.5747 -107.8   8.719  106.1  0.0726   42.0  0.5749  -60.8
 1.160  0.5716 -109.2   8.614  105.3  0.0732   41.6  0.5679  -61.5
 1.180  0.5689 -110.6   8.511  104.5  0.0738   41.1  0.5609  -62.2
 1.200  0.5665 -112.0   8.410  103.6  0.0744   40.7  0.5541  -62.9
 1.220  0.5634 -113.3   8.310  102.9  0.0749   40.3  0.5476  -63.5
 1.240  0.5607 -114.5   8.211  102.1  0.0753   39.9  0.5411  -64.1
 1.260  0.5582 -115.8   8.113  101.4  0.0758   39.5  0.5347  -64.7
 1.280  0.5559 -117.1   8.017  100.6  0.0763   39.1  0.5284  -65.3
 1.300  0.5540 -118.4   7.922   99.8  0.0768   38.7  0.5221  -65.9
 1.320  0.5510 -119.6   7.827   99.1  0.0772   38.4  0.5159  -66.5
 1.340  0.5482 -120.8   7.733   98.5  0.0777   38.0  0.5098  -67.0
 1.360  0.5456 -122.1   7.640   97.8  0.0781   37.7  0.5038  -67.6
 1.380  0.5433 -123.3   7.548   97.0  0.0786   37.4  0.4978  -68.2
 1.400  0.5413 -124.6   7.458   96.3  0.0790   37.1  0.4918  -68.8
 1.420  0.5391 -125.7   7.379   95.7  0.0795   36.8  0.4864  -69.3
 1.440  0.5370 -126.8   7.300   95.1  0.0799   36.5  0.4811  -69.8
 1.460  0.5352 -127.9   7.222   94.5  0.0804   36.2  0.4758  -70.3
 1.480  0.5335 -129.0   7.145   93.8  0.0808   35.9  0.4706  -70.9
 1.500  0.5321 -130.1   7.069   93.2  0.0813   35.6  0.4654  -71.4
 1.520  0.5302 -131.2   6.994   92.6  0.0817   35.3  0.4603  -71.9
 1.540  0.5286 -132.4   6.919   91.9  0.0821   35.0  0.4553  -72.4
 1.560  0.5271 -133.5   6.846   91.3  0.0824   34.8  0.4503  -72.9
 1.580  0.5258 -134.6   6.774   90.6  0.0828   34.5  0.4454  -73.5
 1.600  0.5248 -135.8   6.702   89.9  0.0832   34.2  0.4405  -74.0
 1.620  0.5229 -136.8   6.635   89.3  0.0836   33.9  0.4359  -74.5
 1.640  0.5212 -137.9   6.569   88.8  0.0840   33.7  0.4314  -74.9
 1.660  0.5197 -138.9   6.503   88.2  0.0843   33.4  0.4269  -75.4
 1.680  0.5184 -139.9   6.438   87.6  0.0847   33.2  0.4224  -75.9
 1.700  0.5172 -141.0   6.374   87.0  0.0851   32.9  0.4180  -76.4
 1.720  0.5159 -142.0   6.309   86.5  0.0855   32.7  0.4139  -76.8
 1.740  0.5148 -142.9   6.244   85.9  0.0858   32.5  0.4098  -77.3
 1.760  0.5138 -143.9   6.180   85.4  0.0862   32.2  0.4058  -77.8
 1.780  0.5129 -144.8   6.116   84.8  0.0865   32.0  0.4018  -78.2
 1.800  0.5122 -145.8   6.053   84.2  0.0869   31.8  0.3978  -78.7
 1.820  0.5110 -146.8   5.997   83.7  0.0873   31.6  0.3936  -79.2
 1.840  0.5100 -147.8   5.941   83.2  0.0876   31.4  0.3895  -79.7
 1.860  0.5091 -148.8   5.886   82.6  0.0880   31.1  0.3853  -80.2
 1.880  0.5084 -149.8   5.831   82.1  0.0883   30.9  0.3813  -80.8
 1.900  0.5078 -150.8   5.777   81.5  0.0887   30.7  0.3772  -81.3
 1.920  0.5066 -151.7   5.725   81.0  0.0890   30.5  0.3736  -81.7
 1.940  0.5056 -152.5   5.673   80.5  0.0894   30.3  0.3700  -82.0
 1.960  0.5046 -153.4   5.621   80.0  0.0897   30.1  0.3664  -82.4
 1.980  0.5038 -154.3   5.570   79.5  0.0901   29.9  0.3628  -82.8
 2.000  0.5031 -155.2   5.519   79.0  0.0904   29.7  0.3593  -83.2
 2.020  0.5019 -156.1   5.470   78.5  0.0907   29.5  0.3556  -83.6
 2.040  0.5008 -157.0   5.422   78.1  0.0910   29.3  0.3520  -84.1
 2.060  0.4998 -157.9   5.375   77.6  0.0913   29.1  0.3483  -84.5
 2.080  0.4990 -158.8   5.327   77.1  0.0916   28.9  0.3447  -85.0
 2.100  0.4982 -159.7   5.280   76.6  0.0919   28.7  0.3412  -85.5
 2.120  0.4976 -160.6   5.234   76.0  0.0922   28.5  0.3376  -86.0
 2.140  0.4972 -161.5   5.188   75.5  0.0925   28.3  0.3341  -86.5
 2.160  0.4968 -162.5   5.142   75.0  0.0928   28.1  0.3305  -87.0
 2.180  0.4966 -163.4   5.097   74.5  0.0931   27.9  0.3271  -87.5
 2.200  0.4965 -164.3   5.052   73.9  0.0934   27.7  0.3236  -88.0
 2.220  0.4957 -165.1   5.011   73.5  0.0937   27.5  0.3203  -88.4
 2.240  0.4950 -165.9   4.970   73.0  0.0940   27.3  0.3169  -88.9
 2.260  0.4944 -166.8   4.929   72.6  0.0943   27.1  0.3136  -89.4
 2.280  0.4939 -167.6   4.889   72.2  0.0946   27.0  0.3104  -89.8
 2.300  0.4936 -168.4   4.849   71.7  0.0949   26.8  0.3071  -90.3
 2.320  0.4933 -169.3   4.809   71.2  0.0952   26.6  0.3039  -90.8
 2.340  0.4931 -170.1   4.770   70.8  0.0955   26.4  0.3007  -91.3
 2.360  0.4930 -170.9   4.731   70.3  0.0958   26.3  0.2975  -91.8
 2.380  0.4931 -171.8   4.692   69.8  0.0961   26.1  0.2943  -92.4
 2.400  0.4932 -172.6   4.654   69.3  0.0964   25.9  0.2912  -92.9
 2.420  0.4930 -173.4   4.618   68.9  0.0967   25.7  0.2882  -93.4
 2.440  0.4928 -174.2   4.581   68.4  0.0969   25.5  0.2852  -93.9
 2.460  0.4928 -175.1   4.545   68.0  0.0972   25.3  0.2822  -94.3
 2.480  0.4929 -175.9   4.510   67.5  0.0974   25.2  0.2793  -94.8
 2.500  0.4930 -176.7   4.474   67.1  0.0977   25.0  0.2764  -95.4
 2.520  0.4933 -177.5   4.439   66.6  0.0979   24.8  0.2735  -95.9
 2.540  0.4937 -178.4   4.405   66.2  0.0982   24.6  0.2706  -96.4
 2.560  0.4942 -179.2   4.370   65.7  0.0985   24.5  0.2677  -97.0
 2.580  0.4947 -180.0   4.336   65.2  0.0987   24.3  0.2649  -97.5
 2.600  0.4954  179.2   4.302   64.7  0.0990   24.1  0.2621  -98.1
 2.620  0.4953  178.5   4.271   64.3  0.0992   24.0  0.2595  -98.6
 2.640  0.4953  177.8   4.240   63.9  0.0995   23.8  0.2569  -99.1
 2.660  0.4954  177.1   4.209   63.5  0.0997   23.7  0.2544  -99.7
 2.680  0.4956  176.4   4.178   63.1  0.1000   23.6  0.2518 -100.2
 2.700  0.4958  175.7   4.148   62.7  0.1002   23.4  0.2493 -100.8
 2.720  0.4961  175.0   4.118   62.3  0.1005   23.3  0.2468 -101.3
 2.740  0.4964  174.3   4.088   61.9  0.1007   23.2  0.2443 -101.9
 2.760  0.4969  173.6   4.058   61.5  0.1010   23.1  0.2419 -102.5
 2.780  0.4974  172.9   4.028   61.0  0.1012   22.9  0.2395 -103.1
 2.800  0.4980  172.2   3.999   60.6  0.1015   22.8  0.2371 -103.7
 2.820  0.4983  171.5   3.971   60.2  0.1018   22.7  0.2348 -104.2
 2.840  0.4988  170.9   3.944   59.8  0.1020   22.5  0.2326 -104.8
 2.860  0.4992  170.2   3.916   59.4  0.1023   22.4  0.2304 -105.3
 2.880  0.4998  169.6   3.889   59.0  0.1025   22.2  0.2282 -105.9
 2.900  0.5004  168.9   3.862   58.6  0.1028   22.1  0.2260 -106.4
 2.920  0.5011  168.3   3.835   58.2  0.1031   22.0  0.2239 -107.0
 2.940  0.5018  167.6   3.809   57.8  0.1033   21.8  0.2217 -107.6
 2.960  0.5026  167.0   3.782   57.4  0.1036   21.7  0.2196 -108.2
 2.980  0.5035  166.3   3.756   56.9  0.1038   21.5  0.2176 -108.8
 3.000  0.5044  165.7   3.730   56.5  0.1041   21.4  0.2155 -109.4
 3.100  0.5063  162.7   3.614   54.8  0.1053   20.7  0.2062 -112.2
 3.200  0.5096  159.7   3.502   53.0  0.1065   20.1  0.1974 -115.2
 3.300  0.5143  156.8   3.393   51.1  0.1078   19.4  0.1892 -118.5
 3.400  0.5203  153.9   3.288   49.1  0.1090   18.8  0.1817 -122.0
 3.500  0.5276  151.1   3.188   46.9  0.1103   18.2  0.1749 -125.9
 3.600  0.5310  148.5   3.098   45.3  0.1116   17.6  0.1683 -129.5
 3.700  0.5355  146.0   3.010   43.6  0.1129   16.9  0.1625 -133.3
 3.800  0.5410  143.6   2.925   41.8  0.1142   16.3  0.1574 -137.4
 3.900  0.5475  141.2   2.843   39.9  0.1156   15.7  0.1533 -141.8
 4.000  0.5549  138.8   2.764   37.9  0.1169   15.1  0.1500 -146.4
 4.100  0.5584  136.8   2.691   36.4  0.1180   14.4  0.1477 -150.7
 4.200  0.5625  134.8   2.619   34.8  0.1191   13.7  0.1463 -155.0
 4.300  0.5674  132.9   2.550   33.1  0.1202   13.1  0.1458 -159.5
 4.400  0.5728  131.0   2.483   31.4  0.1213   12.4  0.1461 -163.9
 4.500  0.5789  129.1   2.419   29.5  0.1225   11.8  0.1473 -168.3
 4.600  0.5806  127.6   2.361   28.1  0.1236   11.2  0.1476 -171.5
 4.700  0.5828  126.0   2.304   26.7  0.1247   10.7  0.1484 -174.7
 4.800  0.5853  124.5   2.249   25.2  0.1258   10.1  0.1496 -177.8
 4.900  0.5883  123.0   2.196   23.6  0.1269    9.5  0.1512  179.1
 5.000  0.5917  121.5   2.144   22.0  0.1280    9.0  0.1533  176.1
 5.100  0.5937  120.1   2.099   20.7  0.1291    8.4  0.1537  173.3
 5.200  0.5961  118.7   2.054   19.3  0.1302    7.8  0.1545  170.6
 5.300  0.5988  117.3   2.011   17.9  0.1314    7.2  0.1557  167.9
 5.400  0.6018  116.0   1.969   16.4  0.1325    6.7  0.1572  165.2
 5.500  0.6052  114.6   1.929   14.8  0.1337    6.1  0.1590  162.6
 5.600  0.6086  113.2   1.892   13.5  0.1349    5.5  0.1609  159.7
 5.700  0.6124  111.8   1.856   12.1  0.1361    4.9  0.1632  156.8
 5.800  0.6165  110.4   1.821   10.7  0.1374    4.4  0.1658  154.0
 5.900  0.6210  109.0   1.787    9.2  0.1386    3.8  0.1689  151.4
 6.000  0.6258  107.7   1.755    7.7  0.1399    3.3  0.1723  148.8
 6.100  0.6296  106.4   1.724    6.4  0.1412    2.6  0.1757  146.5
 6.200  0.6338  105.2   1.694    5.0  0.1426    2.0  0.1795  144.3
 6.300  0.6382  103.9   1.665    3.6  0.1439    1.3  0.1834  142.2
 6.400  0.6430  102.7   1.637    2.2  0.1453    0.7  0.1877  140.1
 6.500  0.6480  101.5   1.610    0.7  0.1467    0.1  0.1921  138.2
 6.600  0.6513  100.3   1.584   -0.6  0.1482   -0.6  0.1943  136.2
 6.800  0.6586   98.0   1.536   -3.4  0.1514   -2.0  0.1993  132.4
 7.000  0.6670   95.8   1.491   -6.4  0.1546   -3.3  0.2051  128.8
 7.200  0.6719   93.4   1.447   -9.2  0.1577   -5.2  0.2127  124.5
 7.400  0.6779   91.0   1.406  -12.2  0.1609   -6.9  0.2213  120.6
 7.600  0.6834   88.4   1.362  -15.2  0.1635   -8.9  0.2318  116.7
 7.800  0.6887   85.5   1.316  -18.2  0.1654  -11.0  0.2443  112.9
 8.000  0.6956   82.7   1.273  -21.4  0.1676  -13.1  0.2578  109.5
 8.200  0.7007   79.7   1.225  -23.9  0.1677  -14.9  0.2705  105.8
 8.400  0.7077   76.7   1.179  -26.7  0.1680  -16.7  0.2843  102.5
 8.600  0.7181   74.0   1.138  -29.2  0.1683  -18.2  0.3000   99.2
 8.800  0.7313   71.8   1.100  -31.4  0.1686  -19.5  0.3177   95.9
 9.000  0.7457   69.6   1.064  -33.8  0.1689  -20.8  0.3364   93.0
 9.200  0.7671   67.9   1.034  -36.0  0.1695  -22.0  0.3599   90.4
 9.400  0.7891   66.4   1.005  -38.3  0.1702  -23.2  0.3841   88.2
 9.600  0.8083   64.8   0.971  -40.6  0.1708  -24.5  0.4077   86.4
 9.800  0.8248   63.2   0.932  -42.8  0.1714  -25.8  0.4305   85.0
10.000  0.8419   61.6   0.895  -45.3  0.1720  -27.1  0.4536   83.7
10.200  0.8441   60.5   0.863  -46.8  0.1730  -28.1  0.4670   82.5
10.400  0.8467   59.4   0.832  -48.4  0.1741  -29.1  0.4806   81.4
10.600  0.8420   58.8   0.808  -49.7  0.1751  -30.3  0.4898   80.6
10.800  0.8299   58.9   0.790  -50.8  0.1760  -31.7  0.4947   80.1
11.000  0.8178   59.0   0.772  -52.0  0.1770  -33.1  0.4996   79.6
11.200  0.8079   59.2   0.769  -53.0  0.1778  -34.1  0.4991   80.5
11.400  0.7981   59.5   0.767  -54.1  0.1786  -35.2  0.4987   81.4
11.600  0.8008   59.1   0.763  -56.4  0.1802  -36.7  0.5036   82.6
11.800  0.8163   58.1   0.759  -59.9  0.1827  -38.7  0.5137   83.9
12.000  0.8320   57.2   0.758  -63.5  0.1855  -40.6  0.5241   85.1
!
!  f       NFmin   Gammaopt  rn/50
! GHz       dB    MAG  ANG    -
 0.450      1.02  0.27    4   0.25
 0.900      1.00  0.24   16   0.19
 1.800      1.16  0.15   54   0.17
 2.400      1.16  0.15   52   0.20
 5.500      2.10  0.32 -125   0.21
10.000      3.40  0.67  -52   1.79
!
! (c) 2015  Infineon Technologies AG, Munich
