! Infineon Technologies  Discrete & RF Semiconductors
! BFP420
! VCE =  3.0 V,  IC =  1.0 mA
! Common Emitter S-Parameters:                            Jan 2016
# GHz  S  MA  R  50
!  f         S11            S21            S12            S22
! GHz     MAG   ANG      MAG   ANG      MAG   ANG      MAG   ANG
 0.010  0.9660   -1.5   3.654  179.4  0.0008   76.2  0.9981   -0.1
 0.015  0.9645   -1.4   3.595  179.4  0.0013   87.0  0.9977   -0.3
 0.020  0.9631   -1.2   3.536  179.4  0.0019   91.5  0.9973   -0.6
 0.025  0.9631   -1.4   3.539  179.1  0.0024   89.9  0.9973   -0.8
 0.030  0.9632   -1.7   3.541  178.8  0.0029   88.9  0.9973   -0.9
 0.035  0.9633   -1.9   3.544  178.5  0.0034   88.2  0.9974   -1.1
 0.040  0.9634   -2.1   3.547  178.2  0.0039   87.6  0.9974   -1.2
 0.045  0.9635   -2.4   3.550  177.9  0.0044   87.2  0.9974   -1.4
 0.050  0.9636   -2.6   3.553  177.6  0.0049   86.9  0.9975   -1.5
 0.055  0.9633   -2.9   3.556  177.4  0.0054   86.9  0.9974   -1.7
 0.060  0.9630   -3.3   3.558  177.1  0.0058   86.8  0.9973   -1.8
 0.065  0.9627   -3.6   3.561  176.9  0.0063   86.8  0.9972   -2.0
 0.070  0.9625   -4.0   3.564  176.7  0.0068   86.8  0.9971   -2.2
 0.075  0.9623   -4.3   3.567  176.4  0.0072   86.8  0.9970   -2.3
 0.080  0.9621   -4.6   3.570  176.2  0.0077   86.8  0.9970   -2.5
 0.085  0.9620   -5.0   3.573  176.0  0.0082   86.7  0.9969   -2.7
 0.090  0.9619   -5.3   3.576  175.8  0.0087   86.7  0.9969   -2.9
 0.095  0.9618   -5.7   3.579  175.5  0.0091   86.7  0.9968   -3.0
 0.100  0.9618   -6.0   3.582  175.3  0.0096   86.7  0.9968   -3.2
 0.105  0.9617   -6.3   3.582  175.1  0.0101   86.4  0.9966   -3.4
 0.110  0.9616   -6.6   3.582  174.8  0.0106   86.2  0.9964   -3.5
 0.115  0.9616   -6.8   3.582  174.6  0.0110   85.9  0.9962   -3.7
 0.120  0.9616   -7.1   3.582  174.3  0.0115   85.7  0.9960   -3.8
 0.125  0.9616   -7.4   3.582  174.1  0.0120   85.5  0.9959   -4.0
 0.130  0.9616   -7.7   3.582  173.9  0.0125   85.3  0.9957   -4.2
 0.135  0.9616   -8.0   3.582  173.6  0.0130   85.1  0.9955   -4.3
 0.140  0.9617   -8.2   3.582  173.4  0.0134   85.0  0.9954   -4.5
 0.145  0.9618   -8.5   3.583  173.1  0.0139   84.8  0.9952   -4.6
 0.150  0.9619   -8.8   3.583  172.9  0.0144   84.7  0.9951   -4.8
 0.155  0.9618   -9.1   3.583  172.7  0.0149   84.5  0.9948   -5.0
 0.160  0.9618   -9.4   3.582  172.4  0.0154   84.2  0.9946   -5.1
 0.165  0.9617   -9.7   3.582  172.2  0.0159   84.0  0.9943   -5.3
 0.170  0.9617  -10.0   3.581  171.9  0.0164   83.9  0.9940   -5.4
 0.175  0.9617  -10.3   3.581  171.7  0.0168   83.7  0.9938   -5.6
 0.180  0.9618  -10.5   3.581  171.5  0.0173   83.5  0.9936   -5.8
 0.185  0.9619  -10.8   3.581  171.2  0.0178   83.3  0.9933   -5.9
 0.190  0.9619  -11.1   3.581  171.0  0.0183   83.2  0.9931   -6.1
 0.195  0.9621  -11.4   3.581  170.7  0.0188   83.0  0.9929   -6.2
 0.200  0.9622  -11.7   3.581  170.5  0.0193   82.9  0.9927   -6.4
 0.220  0.9609  -12.9   3.573  169.5  0.0212   82.2  0.9914   -7.0
 0.240  0.9601  -14.0   3.567  168.4  0.0231   81.6  0.9902   -7.7
 0.260  0.9591  -15.2   3.564  167.5  0.0250   80.9  0.9889   -8.3
 0.280  0.9579  -16.3   3.564  166.6  0.0269   80.2  0.9873   -9.0
 0.300  0.9571  -17.5   3.565  165.7  0.0288   79.6  0.9858   -9.6
 0.320  0.9557  -18.7   3.562  164.7  0.0307   78.8  0.9840  -10.2
 0.340  0.9547  -19.9   3.560  163.8  0.0326   78.1  0.9823  -10.8
 0.360  0.9537  -21.1   3.554  162.8  0.0344   77.4  0.9804  -11.4
 0.380  0.9525  -22.2   3.545  161.9  0.0363   76.6  0.9784  -12.1
 0.400  0.9518  -23.4   3.537  160.9  0.0382   75.9  0.9765  -12.7
 0.420  0.9502  -24.6   3.532  159.9  0.0400   75.2  0.9742  -13.3
 0.440  0.9490  -25.8   3.528  159.0  0.0419   74.5  0.9720  -13.9
 0.450  0.9486  -26.4   3.526  158.5  0.0428   74.2  0.9710  -14.2
 0.460  0.9475  -27.0   3.521  158.0  0.0437   73.8  0.9696  -14.5
 0.480  0.9455  -28.1   3.513  157.1  0.0456   73.1  0.9670  -15.1
 0.500  0.9440  -29.3   3.505  156.1  0.0474   72.5  0.9645  -15.7
 0.520  0.9414  -30.5   3.494  155.2  0.0492   71.7  0.9616  -16.3
 0.540  0.9392  -31.6   3.484  154.2  0.0509   70.9  0.9588  -16.9
 0.560  0.9373  -32.8   3.475  153.3  0.0527   70.2  0.9561  -17.5
 0.580  0.9359  -34.0   3.466  152.3  0.0545   69.5  0.9535  -18.2
 0.600  0.9349  -35.2   3.459  151.4  0.0563   68.9  0.9510  -18.8
 0.620  0.9322  -36.4   3.448  150.5  0.0580   68.1  0.9476  -19.4
 0.640  0.9299  -37.5   3.437  149.6  0.0597   67.3  0.9444  -19.9
 0.660  0.9280  -38.7   3.428  148.7  0.0614   66.6  0.9412  -20.5
 0.680  0.9264  -39.9   3.419  147.7  0.0632   65.9  0.9382  -21.1
 0.700  0.9253  -41.1   3.411  146.8  0.0649   65.3  0.9352  -21.7
 0.720  0.9224  -42.2   3.396  145.9  0.0665   64.6  0.9316  -22.3
 0.740  0.9199  -43.4   3.381  145.0  0.0682   63.8  0.9281  -22.8
 0.760  0.9178  -44.5   3.367  144.1  0.0698   63.2  0.9247  -23.4
 0.780  0.9160  -45.7   3.354  143.2  0.0714   62.5  0.9213  -24.0
 0.800  0.9146  -46.8   3.342  142.3  0.0731   61.9  0.9181  -24.6
 0.820  0.9116  -47.9   3.328  141.4  0.0746   61.2  0.9143  -25.1
 0.840  0.9089  -49.1   3.314  140.6  0.0761   60.5  0.9106  -25.7
 0.860  0.9066  -50.2   3.301  139.7  0.0777   59.8  0.9069  -26.2
 0.880  0.9047  -51.3   3.289  138.8  0.0792   59.1  0.9034  -26.8
 0.900  0.9031  -52.5   3.278  137.9  0.0808   58.5  0.8999  -27.3
 0.920  0.8999  -53.6   3.263  137.1  0.0823   57.8  0.8959  -27.8
 0.940  0.8971  -54.8   3.249  136.2  0.0837   57.2  0.8919  -28.4
 0.960  0.8947  -55.9   3.235  135.4  0.0852   56.5  0.8881  -28.9
 0.980  0.8925  -57.0   3.222  134.6  0.0867   55.9  0.8843  -29.5
 1.000  0.8908  -58.2   3.210  133.7  0.0882   55.3  0.8806  -30.0
 1.020  0.8879  -59.3   3.194  132.9  0.0896   54.6  0.8766  -30.5
 1.040  0.8854  -60.4   3.178  132.0  0.0909   54.0  0.8727  -31.0
 1.060  0.8832  -61.5   3.164  131.2  0.0923   53.3  0.8688  -31.5
 1.080  0.8813  -62.6   3.149  130.4  0.0937   52.7  0.8650  -32.0
 1.100  0.8797  -63.7   3.136  129.5  0.0951   52.1  0.8613  -32.5
 1.120  0.8766  -64.8   3.120  128.7  0.0964   51.4  0.8570  -33.0
 1.140  0.8737  -66.0   3.105  127.8  0.0977   50.8  0.8528  -33.5
 1.160  0.8713  -67.1   3.091  127.0  0.0990   50.1  0.8486  -34.0
 1.180  0.8692  -68.2   3.077  126.2  0.1004   49.5  0.8445  -34.6
 1.200  0.8674  -69.4   3.064  125.3  0.1017   48.9  0.8405  -35.1
 1.220  0.8644  -70.5   3.047  124.5  0.1029   48.3  0.8364  -35.6
 1.240  0.8617  -71.5   3.031  123.8  0.1041   47.7  0.8323  -36.0
 1.260  0.8593  -72.6   3.016  123.0  0.1053   47.1  0.8283  -36.5
 1.280  0.8572  -73.7   3.000  122.2  0.1065   46.5  0.8244  -37.0
 1.300  0.8554  -74.8   2.986  121.4  0.1077   45.9  0.8205  -37.5
 1.320  0.8523  -75.9   2.970  120.6  0.1088   45.3  0.8163  -38.0
 1.340  0.8495  -77.0   2.955  119.9  0.1099   44.6  0.8121  -38.4
 1.360  0.8471  -78.1   2.941  119.1  0.1110   44.0  0.8080  -38.9
 1.380  0.8449  -79.2   2.926  118.3  0.1122   43.4  0.8039  -39.4
 1.400  0.8431  -80.3   2.913  117.5  0.1133   42.8  0.7999  -39.9
 1.420  0.8403  -81.3   2.898  116.8  0.1143   42.2  0.7957  -40.3
 1.440  0.8378  -82.4   2.884  116.1  0.1153   41.6  0.7916  -40.8
 1.460  0.8356  -83.4   2.870  115.4  0.1164   41.1  0.7875  -41.2
 1.480  0.8336  -84.4   2.856  114.6  0.1174   40.5  0.7834  -41.7
 1.500  0.8319  -85.5   2.843  113.9  0.1185   40.0  0.7794  -42.1
 1.520  0.8292  -86.5   2.827  113.2  0.1194   39.4  0.7752  -42.5
 1.540  0.8267  -87.6   2.812  112.4  0.1203   38.8  0.7711  -42.9
 1.560  0.8245  -88.6   2.798  111.6  0.1212   38.2  0.7670  -43.3
 1.580  0.8226  -89.6   2.784  110.9  0.1221   37.7  0.7630  -43.8
 1.600  0.8210  -90.7   2.770  110.1  0.1230   37.1  0.7590  -44.2
 1.620  0.8180  -91.7   2.755  109.4  0.1239   36.5  0.7550  -44.6
 1.640  0.8153  -92.7   2.741  108.7  0.1248   36.0  0.7510  -45.0
 1.660  0.8128  -93.7   2.727  108.0  0.1257   35.5  0.7471  -45.4
 1.680  0.8106  -94.8   2.713  107.2  0.1266   34.9  0.7432  -45.9
 1.700  0.8086  -95.8   2.700  106.5  0.1275   34.4  0.7394  -46.3
 1.720  0.8060  -96.8   2.684  105.8  0.1282   33.8  0.7355  -46.7
 1.740  0.8037  -97.8   2.668  105.1  0.1289   33.3  0.7316  -47.0
 1.760  0.8016  -98.8   2.653  104.4  0.1297   32.8  0.7278  -47.4
 1.780  0.7997  -99.8   2.638  103.7  0.1304   32.2  0.7240  -47.8
 1.800  0.7981 -100.8   2.623  103.0  0.1312   31.7  0.7202  -48.2
 1.820  0.7956 -101.8   2.610  102.3  0.1319   31.1  0.7161  -48.6
 1.840  0.7934 -102.9   2.597  101.7  0.1326   30.6  0.7121  -49.0
 1.860  0.7914 -103.9   2.584  101.0  0.1334   30.1  0.7081  -49.4
 1.880  0.7897 -105.0   2.572  100.3  0.1341   29.5  0.7042  -49.9
 1.900  0.7882 -106.0   2.560   99.6  0.1349   29.0  0.7003  -50.3
 1.920  0.7855 -106.9   2.545   99.0  0.1355   28.5  0.6967  -50.6
 1.940  0.7830 -107.8   2.530   98.3  0.1361   28.0  0.6931  -51.0
 1.960  0.7806 -108.7   2.515   97.7  0.1367   27.5  0.6895  -51.3
 1.980  0.7785 -109.7   2.501   97.1  0.1373   27.1  0.6859  -51.7
 2.000  0.7766 -110.6   2.487   96.4  0.1379   26.6  0.6824  -52.0
 2.020  0.7737 -111.5   2.473   95.8  0.1384   26.1  0.6786  -52.3
 2.040  0.7710 -112.5   2.460   95.2  0.1389   25.6  0.6749  -52.7
 2.060  0.7685 -113.5   2.447   94.5  0.1394   25.1  0.6712  -53.0
 2.080  0.7662 -114.4   2.434   93.9  0.1399   24.6  0.6675  -53.4
 2.100  0.7642 -115.4   2.422   93.2  0.1405   24.1  0.6638  -53.7
 2.120  0.7623 -116.4   2.409   92.6  0.1410   23.6  0.6601  -54.1
 2.140  0.7607 -117.3   2.398   91.9  0.1416   23.1  0.6565  -54.4
 2.160  0.7593 -118.3   2.386   91.3  0.1421   22.6  0.6529  -54.8
 2.180  0.7581 -119.3   2.375   90.6  0.1427   22.2  0.6493  -55.1
 2.200  0.7572 -120.3   2.364   89.9  0.1433   21.7  0.6458  -55.5
 2.220  0.7544 -121.2   2.350   89.3  0.1437   21.2  0.6422  -55.8
 2.240  0.7519 -122.2   2.337   88.7  0.1441   20.7  0.6386  -56.2
 2.260  0.7495 -123.1   2.324   88.1  0.1445   20.3  0.6351  -56.5
 2.280  0.7473 -124.0   2.311   87.5  0.1449   19.8  0.6315  -56.9
 2.300  0.7454 -125.0   2.299   86.9  0.1453   19.3  0.6280  -57.2
 2.320  0.7436 -125.9   2.286   86.3  0.1457   18.8  0.6245  -57.6
 2.340  0.7421 -126.9   2.274   85.7  0.1461   18.4  0.6211  -57.9
 2.360  0.7407 -127.9   2.263   85.1  0.1466   17.9  0.6176  -58.3
 2.380  0.7396 -128.8   2.251   84.4  0.1470   17.5  0.6142  -58.6
 2.400  0.7387 -129.8   2.240   83.8  0.1475   17.0  0.6108  -59.0
 2.420  0.7366 -130.7   2.228   83.2  0.1477   16.5  0.6074  -59.3
 2.440  0.7347 -131.7   2.216   82.7  0.1479   16.1  0.6040  -59.6
 2.460  0.7330 -132.6   2.204   82.1  0.1482   15.6  0.6006  -60.0
 2.480  0.7315 -133.5   2.192   81.5  0.1484   15.2  0.5972  -60.3
 2.500  0.7302 -134.5   2.181   80.9  0.1487   14.7  0.5939  -60.6
 2.520  0.7291 -135.4   2.169   80.3  0.1490   14.3  0.5906  -60.9
 2.540  0.7282 -136.4   2.158   79.7  0.1492   13.8  0.5873  -61.3
 2.560  0.7274 -137.3   2.148   79.1  0.1495   13.4  0.5840  -61.6
 2.580  0.7269 -138.2   2.137   78.5  0.1498   12.9  0.5807  -62.0
 2.600  0.7266 -139.2   2.127   77.9  0.1501   12.5  0.5775  -62.3
 2.620  0.7245 -140.1   2.115   77.4  0.1502   12.1  0.5744  -62.6
 2.640  0.7226 -140.9   2.103   76.8  0.1503   11.7  0.5713  -62.9
 2.660  0.7209 -141.8   2.091   76.3  0.1504   11.3  0.5682  -63.2
 2.680  0.7193 -142.6   2.080   75.7  0.1506   10.9  0.5651  -63.5
 2.700  0.7179 -143.5   2.069   75.2  0.1507   10.4  0.5621  -63.8
 2.720  0.7166 -144.4   2.057   74.6  0.1508   10.0  0.5590  -64.1
 2.740  0.7155 -145.3   2.047   74.0  0.1510    9.6  0.5560  -64.4
 2.760  0.7146 -146.1   2.036   73.5  0.1512    9.2  0.5530  -64.7
 2.780  0.7139 -147.0   2.025   72.9  0.1513    8.8  0.5500  -65.0
 2.800  0.7133 -147.9   2.015   72.3  0.1515    8.4  0.5470  -65.3
 2.820  0.7119 -148.7   2.004   71.8  0.1515    8.0  0.5442  -65.6
 2.840  0.7107 -149.6   1.994   71.3  0.1516    7.6  0.5413  -65.9
 2.860  0.7096 -150.4   1.984   70.7  0.1516    7.2  0.5385  -66.2
 2.880  0.7087 -151.3   1.974   70.2  0.1517    6.8  0.5357  -66.5
 2.900  0.7079 -152.1   1.964   69.7  0.1517    6.4  0.5329  -66.8
 2.920  0.7073 -153.0   1.954   69.1  0.1518    6.1  0.5301  -67.1
 2.940  0.7069 -153.8   1.945   68.6  0.1518    5.7  0.5274  -67.4
 2.960  0.7066 -154.7   1.935   68.0  0.1519    5.3  0.5246  -67.7
 2.980  0.7065 -155.5   1.926   67.5  0.1520    4.9  0.5219  -68.0
 3.000  0.7065 -156.4   1.917   66.9  0.1521    4.5  0.5192  -68.3
 3.100  0.6981 -160.4   1.866   64.6  0.1515    2.8  0.5060  -69.7
 3.200  0.6932 -164.4   1.819   62.1  0.1510    1.0  0.4931  -71.2
 3.300  0.6918 -168.5   1.775   59.5  0.1506   -0.7  0.4806  -72.7
 3.400  0.6938 -172.6   1.734   56.8  0.1504   -2.4  0.4685  -74.4
 3.500  0.6994 -176.6   1.698   54.0  0.1503   -4.2  0.4567  -76.1
 3.600  0.6955  179.9   1.655   51.9  0.1492   -5.6  0.4463  -77.6
 3.700  0.6941  176.4   1.615   49.6  0.1482   -6.9  0.4362  -79.1
 3.800  0.6954  172.9   1.577   47.3  0.1473   -8.3  0.4264  -80.7
 3.900  0.6992  169.4   1.542   44.8  0.1464   -9.8  0.4169  -82.4
 4.000  0.7056  166.0   1.510   42.2  0.1457  -11.2  0.4079  -84.2
 4.100  0.7039  163.2   1.471   40.2  0.1442  -12.4  0.4000  -85.9
 4.200  0.7039  160.3   1.435   38.1  0.1427  -13.6  0.3924  -87.6
 4.300  0.7056  157.5   1.400   35.9  0.1414  -14.8  0.3852  -89.5
 4.400  0.7091  154.7   1.368   33.5  0.1400  -16.0  0.3784  -91.3
 4.500  0.7142  151.9   1.338   31.1  0.1388  -17.3  0.3720  -93.3
 4.600  0.7128  149.7   1.306   29.4  0.1370  -18.2  0.3658  -95.0
 4.700  0.7124  147.4   1.274   27.6  0.1353  -19.0  0.3600  -96.8
 4.800  0.7131  145.2   1.244   25.7  0.1335  -19.9  0.3545  -98.6
 4.900  0.7150  142.9   1.216   23.7  0.1319  -20.9  0.3494 -100.5
 5.000  0.7179  140.7   1.189   21.6  0.1302  -21.8  0.3447 -102.4
 5.100  0.7172  138.7   1.163   20.0  0.1283  -22.4  0.3394 -104.2
 5.200  0.7175  136.6   1.138   18.3  0.1264  -22.9  0.3345 -106.0
 5.300  0.7186  134.6   1.114   16.6  0.1245  -23.5  0.3299 -107.8
 5.400  0.7206  132.6   1.091   14.8  0.1226  -24.2  0.3257 -109.7
 5.500  0.7235  130.6   1.069   12.9  0.1207  -24.8  0.3218 -111.7
 5.600  0.7248  128.7   1.049   11.4  0.1190  -25.0  0.3177 -113.7
 5.700  0.7268  126.9   1.029    9.8  0.1173  -25.2  0.3141 -115.6
 5.800  0.7296  125.0   1.011    8.2  0.1157  -25.4  0.3108 -117.7
 5.900  0.7332  123.2   0.993    6.5  0.1140  -25.6  0.3079 -119.8
 6.000  0.7375  121.4   0.976    4.7  0.1123  -25.8  0.3054 -121.9
 6.100  0.7398  119.8   0.960    3.2  0.1112  -25.8  0.3025 -124.0
 6.200  0.7427  118.1   0.944    1.6  0.1102  -25.7  0.3001 -126.1
 6.300  0.7462  116.5   0.929   -0.0  0.1091  -25.7  0.2981 -128.3
 6.400  0.7503  114.9   0.915   -1.7  0.1081  -25.6  0.2965 -130.5
 6.500  0.7550  113.3   0.902   -3.4  0.1070  -25.6  0.2953 -132.7
 6.600  0.7568  111.8   0.888   -4.9  0.1065  -25.4  0.2928 -134.9
 6.800  0.7620  108.7   0.861   -8.1  0.1056  -24.9  0.2892 -139.4
 7.000  0.7694  105.7   0.837  -11.4  0.1046  -24.5  0.2874 -144.0
 7.200  0.7716  102.6   0.811  -14.4  0.1046  -24.1  0.2840 -149.1
 7.400  0.7760   99.5   0.788  -17.5  0.1047  -23.7  0.2829 -154.2
 7.600  0.7791   96.3   0.763  -20.7  0.1049  -23.5  0.2816 -159.7
 7.800  0.7812   92.9   0.737  -23.8  0.1052  -23.5  0.2807 -165.6
 8.000  0.7860   89.6   0.713  -27.2  0.1056  -23.5  0.2827 -171.4
 8.200  0.7857   86.1   0.686  -29.9  0.1056  -23.5  0.2801 -178.0
 8.400  0.7883   82.7   0.661  -32.9  0.1057  -23.5  0.2812  175.5
 8.600  0.7945   79.5   0.638  -35.6  0.1059  -23.3  0.2848  168.4
 8.800  0.8040   76.6   0.616  -38.1  0.1064  -23.0  0.2917  161.2
 9.000  0.8156   73.7   0.596  -40.8  0.1068  -22.6  0.3031  154.3
 9.200  0.8343   71.3   0.577  -43.0  0.1081  -22.2  0.3216  147.8
 9.400  0.8543   69.1   0.559  -45.4  0.1094  -21.7  0.3438  142.1
 9.600  0.8720   67.2   0.538  -47.7  0.1113  -21.5  0.3691  137.2
 9.800  0.8871   65.5   0.516  -50.1  0.1138  -21.4  0.3969  132.9
10.000  0.9028   63.9   0.494  -52.7  0.1163  -21.3  0.4266  129.3
!
!  f       NFmin   Gammaopt  rn/50
! GHz       dB    MAG  ANG    -
 0.900      0.53  0.67   34   0.35
 1.800      1.15  0.44   77   0.27
 2.400      1.28  0.44  100   0.22
 3.000      1.61  0.45  131   0.15
 4.000      1.90  0.47 -177   0.09
 5.000      2.32  0.44 -133   0.45
 6.000      3.43  0.60 -118   0.25
!
! (c) 2016  Infineon Technologies AG, Munich
