! Infineon Technologies  Discrete & RF Semiconductors
! BFP450
! VCE =  2.5 V,  IC = 0.10 A
! Common Emitter S-Parameters:                            Nov 2015
# GHz  S  MA  R  50
!  f         S11            S21            S12            S22
! GHz     MAG   ANG      MAG   ANG      MAG   ANG      MAG   ANG
 0.030  0.2653 -141.1  80.757  162.5  0.0042   81.8  0.8268  -24.5
 0.035  0.2905 -140.4  79.529  159.8  0.0047   78.8  0.8184  -28.7
 0.040  0.3158 -139.8  78.485  157.0  0.0052   76.3  0.8145  -33.0
 0.045  0.3408 -140.3  77.011  154.3  0.0057   74.2  0.8038  -37.0
 0.050  0.3659 -140.8  75.708  151.6  0.0062   72.4  0.7972  -41.1
 0.055  0.3878 -141.8  73.948  149.4  0.0066   70.7  0.7850  -44.8
 0.060  0.4099 -142.7  72.307  147.0  0.0070   69.2  0.7762  -48.6
 0.065  0.4284 -143.3  70.534  144.7  0.0074   67.9  0.7636  -52.0
 0.070  0.4469 -143.9  68.884  142.2  0.0078   66.8  0.7539  -55.6
 0.075  0.4649 -144.7  67.213  140.3  0.0082   65.7  0.7421  -58.9
 0.080  0.4829 -145.4  65.615  138.4  0.0087   64.7  0.7328  -62.3
 0.085  0.4961 -146.6  63.881  136.6  0.0090   63.3  0.7209  -65.3
 0.090  0.5094 -147.7  62.211  134.8  0.0093   62.0  0.7109  -68.3
 0.095  0.5218 -148.7  60.623  133.2  0.0095   61.3  0.6999  -71.1
 0.100  0.5344 -149.6  59.085  131.5  0.0098   60.6  0.6906  -73.9
 0.105  0.5438 -150.5  57.623  130.0  0.0100   60.0  0.6806  -76.5
 0.110  0.5534 -151.3  56.201  128.5  0.0103   59.4  0.6720  -79.1
 0.115  0.5627 -152.3  54.746  127.2  0.0105   58.8  0.6628  -81.5
 0.120  0.5722 -153.2  53.321  125.8  0.0108   58.3  0.6548  -84.0
 0.125  0.5796 -153.9  52.013  124.6  0.0110   57.8  0.6465  -86.2
 0.130  0.5870 -154.6  50.729  123.3  0.0113   57.3  0.6392  -88.5
 0.135  0.5938 -155.5  49.522  122.2  0.0115   56.8  0.6315  -90.5
 0.140  0.6007 -156.3  48.334  121.0  0.0117   56.4  0.6247  -92.6
 0.145  0.6070 -157.0  47.168  119.9  0.0119   56.2  0.6179  -94.5
 0.150  0.6133 -157.7  46.019  118.8  0.0121   56.0  0.6119  -96.5
 0.155  0.6171 -158.3  45.054  118.1  0.0123   55.9  0.6051  -98.0
 0.160  0.6210 -158.9  44.095  117.4  0.0125   55.7  0.5988  -99.4
 0.165  0.6250 -159.5  43.144  116.7  0.0126   55.6  0.5928 -101.0
 0.170  0.6290 -160.1  42.200  115.9  0.0128   55.4  0.5873 -102.5
 0.175  0.6331 -160.7  41.264  115.1  0.0130   55.3  0.5822 -104.1
 0.180  0.6372 -161.3  40.337  114.2  0.0132   55.2  0.5776 -105.7
 0.185  0.6415 -161.8  39.420  113.3  0.0134   55.1  0.5734 -107.3
 0.190  0.6458 -162.4  38.512  112.4  0.0135   54.9  0.5697 -108.9
 0.195  0.6501 -163.0  37.615  111.4  0.0137   54.8  0.5665 -110.6
 0.200  0.6545 -163.5  36.729  110.4  0.0139   54.7  0.5637 -112.3
 0.220  0.6627 -165.2  34.162  108.3  0.0145   54.9  0.5495 -116.8
 0.240  0.6716 -166.9  31.647  105.9  0.0151   55.0  0.5388 -121.5
 0.260  0.6789 -168.4  29.458  103.8  0.0157   55.2  0.5304 -125.6
 0.280  0.6846 -169.7  27.567  102.1  0.0164   55.5  0.5228 -129.2
 0.300  0.6906 -171.0  25.705  100.1  0.0170   55.7  0.5172 -132.8
 0.320  0.6941 -172.0  24.294   98.8  0.0176   56.1  0.5121 -135.5
 0.340  0.6978 -173.1  22.896   97.4  0.0183   56.4  0.5081 -138.2
 0.360  0.7007 -174.0  21.654   96.0  0.0189   56.8  0.5049 -140.7
 0.380  0.7025 -174.9  20.564   94.8  0.0195   57.2  0.5020 -143.0
 0.400  0.7045 -175.8  19.484   93.4  0.0201   57.5  0.4999 -145.3
 0.420  0.7064 -176.6  18.616   92.4  0.0208   57.9  0.4978 -147.2
 0.440  0.7084 -177.3  17.754   91.4  0.0215   58.2  0.4963 -149.1
 0.450  0.7095 -177.7  17.326   90.8  0.0218   58.4  0.4957 -150.0
 0.460  0.7102 -178.1  16.973   90.4  0.0221   58.5  0.4951 -150.8
 0.480  0.7117 -178.8  16.268   89.5  0.0228   58.8  0.4940 -152.3
 0.500  0.7133 -179.5  15.568   88.6  0.0234   59.1  0.4934 -153.9
 0.520  0.7142  179.9  15.030   87.9  0.0241   59.3  0.4926 -155.2
 0.540  0.7152  179.3  14.494   87.2  0.0247   59.5  0.4921 -156.5
 0.560  0.7163  178.8  13.961   86.4  0.0254   59.7  0.4919 -157.8
 0.580  0.7175  178.2  13.430   85.6  0.0260   59.9  0.4919 -159.1
 0.600  0.7187  177.6  12.903   84.7  0.0267   60.1  0.4921 -160.4
 0.620  0.7193  177.1  12.515   84.2  0.0274   60.2  0.4920 -161.4
 0.640  0.7199  176.6  12.128   83.6  0.0281   60.4  0.4920 -162.4
 0.660  0.7206  176.1  11.742   83.0  0.0287   60.5  0.4922 -163.4
 0.680  0.7213  175.6  11.358   82.3  0.0294   60.6  0.4925 -164.4
 0.700  0.7221  175.1  10.975   81.6  0.0301   60.7  0.4930 -165.4
 0.720  0.7227  174.6  10.682   81.1  0.0308   60.7  0.4932 -166.3
 0.740  0.7233  174.2  10.391   80.5  0.0315   60.8  0.4935 -167.1
 0.760  0.7240  173.7  10.100   80.0  0.0321   60.8  0.4939 -168.0
 0.780  0.7247  173.3   9.810   79.3  0.0328   60.9  0.4945 -168.8
 0.800  0.7255  172.8   9.522   78.7  0.0335   60.9  0.4951 -169.7
 0.820  0.7260  172.4   9.297   78.2  0.0342   60.9  0.4955 -170.4
 0.840  0.7265  172.0   9.074   77.8  0.0349   60.9  0.4960 -171.1
 0.860  0.7270  171.5   8.850   77.3  0.0355   61.0  0.4965 -171.9
 0.880  0.7276  171.1   8.628   76.8  0.0362   61.0  0.4972 -172.6
 0.900  0.7282  170.7   8.406   76.2  0.0369   61.0  0.4979 -173.3
 0.920  0.7283  170.3   8.221   75.8  0.0376   61.0  0.4984 -174.0
 0.940  0.7285  169.9   8.037   75.3  0.0383   60.9  0.4990 -174.7
 0.960  0.7287  169.5   7.854   74.9  0.0389   60.9  0.4997 -175.3
 0.980  0.7289  169.1   7.671   74.4  0.0396   60.8  0.5004 -176.0
 1.000  0.7292  168.7   7.488   73.9  0.0403   60.8  0.5012 -176.7
 1.020  0.7296  168.3   7.344   73.5  0.0410   60.7  0.5017 -177.3
 1.040  0.7300  167.9   7.201   73.1  0.0417   60.6  0.5023 -177.9
 1.060  0.7305  167.6   7.058   72.6  0.0424   60.6  0.5029 -178.4
 1.080  0.7310  167.2   6.916   72.2  0.0431   60.5  0.5036 -179.0
 1.100  0.7315  166.8   6.774   71.7  0.0438   60.4  0.5043 -179.6
 1.120  0.7320  166.4   6.650   71.3  0.0445   60.3  0.5049  179.9
 1.140  0.7326  166.1   6.525   70.9  0.0452   60.1  0.5056  179.3
 1.160  0.7332  165.7   6.402   70.5  0.0458   60.0  0.5063  178.8
 1.180  0.7338  165.4   6.278   70.1  0.0465   59.9  0.5070  178.2
 1.200  0.7344  165.0   6.155   69.7  0.0472   59.8  0.5078  177.7
 1.220  0.7346  164.6   6.053   69.3  0.0479   59.7  0.5083  177.2
 1.240  0.7348  164.3   5.952   68.9  0.0486   59.5  0.5088  176.7
 1.260  0.7350  163.9   5.851   68.5  0.0493   59.4  0.5094  176.1
 1.280  0.7352  163.6   5.750   68.1  0.0500   59.3  0.5100  175.6
 1.300  0.7355  163.2   5.649   67.7  0.0507   59.2  0.5107  175.1
 1.320  0.7359  162.9   5.561   67.3  0.0514   59.1  0.5113  174.6
 1.340  0.7364  162.5   5.473   67.0  0.0521   58.9  0.5120  174.1
 1.360  0.7369  162.2   5.385   66.6  0.0527   58.8  0.5126  173.7
 1.380  0.7374  161.8   5.297   66.2  0.0534   58.6  0.5133  173.2
 1.400  0.7379  161.5   5.210   65.8  0.0541   58.5  0.5141  172.7
 1.420  0.7383  161.1   5.135   65.5  0.0548   58.3  0.5147  172.3
 1.440  0.7387  160.8   5.061   65.1  0.0555   58.1  0.5154  171.8
 1.460  0.7392  160.4   4.987   64.8  0.0561   57.9  0.5161  171.4
 1.480  0.7397  160.1   4.913   64.4  0.0568   57.8  0.5168  170.9
 1.500  0.7402  159.7   4.839   64.0  0.0575   57.6  0.5176  170.5
 1.520  0.7405  159.4   4.773   63.7  0.0582   57.4  0.5182  170.1
 1.540  0.7408  159.1   4.708   63.3  0.0589   57.3  0.5188  169.7
 1.560  0.7412  158.7   4.643   63.0  0.0595   57.1  0.5194  169.2
 1.580  0.7415  158.4   4.578   62.6  0.0602   57.0  0.5201  168.8
 1.600  0.7419  158.1   4.513   62.2  0.0609   56.8  0.5208  168.4
 1.620  0.7423  157.8   4.456   61.9  0.0616   56.6  0.5215  168.0
 1.640  0.7428  157.4   4.399   61.5  0.0622   56.4  0.5221  167.5
 1.660  0.7433  157.1   4.343   61.1  0.0629   56.2  0.5229  167.1
 1.680  0.7438  156.7   4.286   60.8  0.0635   56.0  0.5236  166.6
 1.700  0.7444  156.4   4.230   60.4  0.0642   55.8  0.5244  166.2
 1.720  0.7444  156.1   4.178   60.0  0.0649   55.6  0.5249  165.8
 1.740  0.7444  155.8   4.126   59.7  0.0656   55.4  0.5254  165.4
 1.760  0.7445  155.4   4.074   59.3  0.0662   55.2  0.5260  165.0
 1.780  0.7445  155.1   4.022   58.9  0.0669   55.0  0.5266  164.6
 1.800  0.7446  154.8   3.971   58.5  0.0676   54.8  0.5272  164.2
 1.820  0.7450  154.5   3.925   58.2  0.0682   54.6  0.5279  163.8
 1.840  0.7455  154.2   3.880   57.9  0.0689   54.4  0.5286  163.4
 1.860  0.7460  153.9   3.834   57.6  0.0695   54.2  0.5294  163.0
 1.880  0.7465  153.6   3.789   57.2  0.0702   54.0  0.5302  162.6
 1.900  0.7470  153.3   3.744   56.9  0.0708   53.8  0.5310  162.2
 1.920  0.7472  153.0   3.704   56.6  0.0715   53.6  0.5314  161.8
 1.940  0.7474  152.6   3.664   56.2  0.0721   53.3  0.5319  161.4
 1.960  0.7476  152.3   3.624   55.9  0.0728   53.1  0.5324  161.0
 1.980  0.7479  151.9   3.585   55.6  0.0734   52.9  0.5329  160.6
 2.000  0.7482  151.6   3.545   55.2  0.0741   52.7  0.5335  160.2
 2.020  0.7483  151.3   3.509   54.9  0.0747   52.5  0.5340  159.8
 2.040  0.7484  151.0   3.474   54.6  0.0753   52.2  0.5346  159.4
 2.060  0.7485  150.6   3.438   54.2  0.0759   52.0  0.5351  159.1
 2.080  0.7487  150.3   3.403   53.9  0.0766   51.8  0.5357  158.7
 2.100  0.7489  150.0   3.368   53.5  0.0772   51.6  0.5364  158.3
 2.120  0.7491  149.7   3.333   53.2  0.0778   51.3  0.5370  157.9
 2.140  0.7493  149.4   3.298   52.8  0.0784   51.1  0.5377  157.5
 2.160  0.7495  149.0   3.263   52.5  0.0791   50.9  0.5384  157.2
 2.180  0.7498  148.7   3.229   52.1  0.0797   50.7  0.5391  156.8
 2.200  0.7501  148.4   3.194   51.7  0.0803   50.5  0.5398  156.4
 2.220  0.7503  148.1   3.165   51.4  0.0809   50.3  0.5404  156.0
 2.240  0.7505  147.8   3.135   51.1  0.0815   50.0  0.5410  155.7
 2.260  0.7507  147.5   3.106   50.8  0.0821   49.8  0.5416  155.3
 2.280  0.7510  147.2   3.077   50.5  0.0828   49.6  0.5422  154.9
 2.300  0.7512  146.9   3.048   50.2  0.0834   49.4  0.5429  154.5
 2.320  0.7515  146.6   3.019   49.9  0.0840   49.1  0.5435  154.2
 2.340  0.7518  146.3   2.991   49.5  0.0846   48.9  0.5443  153.8
 2.360  0.7522  146.0   2.962   49.2  0.0853   48.7  0.5450  153.4
 2.380  0.7525  145.7   2.933   48.8  0.0859   48.5  0.5457  153.1
 2.400  0.7529  145.4   2.905   48.5  0.0865   48.3  0.5465  152.7
 2.420  0.7529  145.1   2.880   48.2  0.0871   48.1  0.5471  152.3
 2.440  0.7530  144.8   2.855   47.9  0.0877   47.8  0.5477  152.0
 2.460  0.7531  144.5   2.830   47.6  0.0883   47.6  0.5483  151.6
 2.480  0.7532  144.2   2.805   47.3  0.0889   47.3  0.5490  151.2
 2.500  0.7533  143.9   2.780   47.0  0.0895   47.1  0.5497  150.9
 2.520  0.7534  143.7   2.756   46.6  0.0901   46.9  0.5504  150.5
 2.540  0.7536  143.4   2.731   46.3  0.0907   46.7  0.5511  150.2
 2.560  0.7538  143.1   2.707   46.0  0.0913   46.4  0.5518  149.8
 2.580  0.7540  142.8   2.682   45.6  0.0919   46.2  0.5526  149.5
 2.600  0.7542  142.5   2.658   45.3  0.0925   46.0  0.5534  149.1
 2.620  0.7544  142.2   2.637   45.0  0.0931   45.8  0.5540  148.8
 2.640  0.7546  141.9   2.617   44.7  0.0936   45.5  0.5546  148.4
 2.660  0.7549  141.6   2.597   44.4  0.0942   45.3  0.5552  148.1
 2.680  0.7551  141.3   2.576   44.1  0.0948   45.0  0.5559  147.7
 2.700  0.7554  141.0   2.556   43.8  0.0954   44.8  0.5566  147.4
 2.720  0.7557  140.7   2.536   43.4  0.0960   44.6  0.5572  147.0
 2.740  0.7560  140.4   2.516   43.1  0.0965   44.4  0.5580  146.7
 2.760  0.7564  140.1   2.496   42.8  0.0971   44.1  0.5587  146.4
 2.780  0.7567  139.8   2.476   42.4  0.0977   43.9  0.5594  146.0
 2.800  0.7571  139.5   2.456   42.1  0.0983   43.7  0.5602  145.7
 2.820  0.7574  139.2   2.438   41.8  0.0989   43.4  0.5608  145.4
 2.840  0.7577  138.9   2.420   41.5  0.0994   43.2  0.5614  145.0
 2.860  0.7581  138.6   2.402   41.2  0.1000   43.0  0.5620  144.7
 2.880  0.7585  138.3   2.384   40.9  0.1006   42.7  0.5627  144.4
 2.900  0.7589  138.0   2.366   40.6  0.1011   42.5  0.5634  144.0
 2.920  0.7593  137.8   2.348   40.2  0.1017   42.2  0.5641  143.7
 2.940  0.7597  137.5   2.331   39.9  0.1023   42.0  0.5648  143.4
 2.960  0.7601  137.2   2.313   39.6  0.1028   41.8  0.5655  143.1
 2.980  0.7606  136.9   2.295   39.2  0.1034   41.5  0.5662  142.7
 3.000  0.7611  136.6   2.278   38.9  0.1040   41.3  0.5670  142.4
 3.100  0.7625  135.1   2.202   37.5  0.1064   39.9  0.5697  140.9
 3.200  0.7644  133.6   2.127   36.1  0.1089   38.6  0.5728  139.5
 3.300  0.7668  132.1   2.054   34.5  0.1115   37.4  0.5763  138.0
 3.400  0.7698  130.7   1.983   32.8  0.1141   36.2  0.5801  136.6
 3.500  0.7732  129.2   1.913   31.0  0.1167   35.1  0.5843  135.2
 3.600  0.7755  127.9   1.855   29.7  0.1188   33.9  0.5876  133.9
 3.700  0.7782  126.6   1.798   28.4  0.1209   32.7  0.5912  132.6
 3.800  0.7814  125.3   1.743   26.9  0.1231   31.6  0.5952  131.3
 3.900  0.7849  124.0   1.688   25.4  0.1253   30.5  0.5994  130.0
 4.000  0.7888  122.7   1.635   23.7  0.1276   29.4  0.6039  128.8
 4.100  0.7903  121.6   1.591   22.5  0.1295   28.3  0.6072  127.6
 4.200  0.7921  120.5   1.548   21.3  0.1314   27.3  0.6107  126.4
 4.300  0.7942  119.4   1.505   20.0  0.1333   26.3  0.6145  125.3
 4.400  0.7966  118.3   1.464   18.6  0.1353   25.3  0.6186  124.1
 4.500  0.7993  117.2   1.423   17.2  0.1373   24.3  0.6229  123.0
 4.600  0.8000  116.2   1.390   16.0  0.1392   23.2  0.6254  121.9
 4.700  0.8010  115.1   1.357   14.8  0.1412   22.2  0.6281  120.8
 4.800  0.8022  114.1   1.326   13.5  0.1432   21.2  0.6311  119.7
 4.900  0.8037  113.0   1.294   12.2  0.1453   20.2  0.6343  118.6
 5.000  0.8055  112.0   1.264   10.8  0.1474   19.3  0.6377  117.5
 5.100  0.8051  111.0   1.237    9.7  0.1491   18.2  0.6391  116.4
 5.200  0.8050  110.0   1.211    8.5  0.1509   17.2  0.6408  115.3
 5.300  0.8052  108.9   1.185    7.2  0.1528   16.2  0.6428  114.2
 5.400  0.8055  107.9   1.160    5.9  0.1547   15.2  0.6449  113.1
 5.500  0.8062  106.9   1.135    4.6  0.1566   14.2  0.6473  112.0
 5.600  0.8059  106.1   1.115    3.5  0.1583   13.2  0.6484  110.8
 5.700  0.8057  105.2   1.095    2.4  0.1601   12.2  0.6498  109.7
 5.800  0.8057  104.4   1.075    1.2  0.1620   11.2  0.6514  108.6
 5.900  0.8059  103.5   1.056    0.0  0.1639   10.2  0.6533  107.4
 6.000  0.8062  102.7   1.038   -1.2  0.1658    9.3  0.6555  106.3
 6.100  0.8075  101.9   1.023   -2.4  0.1675    8.2  0.6569  105.3
 6.200  0.8089  101.0   1.008   -3.6  0.1692    7.1  0.6586  104.2
 6.300  0.8105  100.2   0.993   -4.9  0.1710    6.0  0.6605  103.2
 6.400  0.8123   99.3   0.979   -6.2  0.1729    4.9  0.6625  102.2
 6.500  0.8142   98.5   0.966   -7.5  0.1748    3.9  0.6648  101.2
 6.600  0.8156   97.5   0.951   -8.8  0.1764    2.7  0.6662  100.3
 6.800  0.8192   95.5   0.924  -11.4  0.1797    0.5  0.6695   98.5
 7.000  0.8237   93.6   0.898  -14.2  0.1833   -1.7  0.6735   96.8
 7.200  0.8262   91.3   0.870  -16.8  0.1856   -4.1  0.6776   94.9
 7.400  0.8300   89.0   0.844  -19.6  0.1883   -6.5  0.6825   92.9
 7.600  0.8329   86.7   0.818  -22.3  0.1903   -8.9  0.6888   90.8
 7.800  0.8350   84.3   0.791  -24.8  0.1917  -11.2  0.6970   88.3
 8.000  0.8385   81.9   0.765  -27.5  0.1935  -13.5  0.7064   85.9
 8.200  0.8410   79.4   0.738  -29.9  0.1935  -15.9  0.7150   83.2
 8.400  0.8450   77.0   0.713  -32.4  0.1937  -18.2  0.7250   80.7
 8.600  0.8484   74.6   0.689  -34.7  0.1934  -20.5  0.7332   78.2
 8.800  0.8511   72.2   0.664  -36.8  0.1923  -22.6  0.7395   75.8
 9.000  0.8553   69.8   0.641  -39.1  0.1915  -24.8  0.7471   73.4
 9.200  0.8594   68.0   0.617  -40.8  0.1897  -26.4  0.7526   71.5
 9.400  0.8643   66.3   0.593  -42.7  0.1881  -28.0  0.7589   69.6
 9.600  0.8699   64.9   0.572  -44.3  0.1867  -29.4  0.7678   68.0
 9.800  0.8756   63.8   0.556  -45.5  0.1853  -30.7  0.7790   66.8
10.000  0.8816   62.8   0.539  -46.8  0.1840  -32.0  0.7906   65.5
10.200  0.8837   62.3   0.526  -47.7  0.1835  -32.6  0.7948   65.5
10.400  0.8858   61.8   0.513  -48.6  0.1830  -33.1  0.7991   65.5
10.600  0.8865   61.3   0.504  -49.5  0.1832  -33.7  0.8008   65.7
10.800  0.8858   60.9   0.499  -50.3  0.1839  -34.4  0.7999   66.1
11.000  0.8852   60.5   0.493  -51.1  0.1847  -35.1  0.7991   66.5
11.200  0.8811   59.8   0.488  -52.6  0.1907  -35.2  0.7871   65.9
11.400  0.8771   59.1   0.484  -54.0  0.1967  -35.3  0.7752   65.3
11.600  0.8723   58.4   0.482  -55.5  0.2021  -36.5  0.7694   64.4
11.800  0.8665   57.7   0.484  -57.0  0.2071  -38.7  0.7697   63.2
12.000  0.8609   57.1   0.485  -58.4  0.2125  -40.9  0.7704   62.0
!
!  f       NFmin   Gammaopt  rn/50
! GHz       dB    MAG  ANG    -
 0.450      2.12  0.64 -172   0.07
 0.900      2.18  0.66 -166   0.08
 1.900      2.27  0.68 -150   0.16
 2.400      2.36  0.67 -140   0.24
!
! (c) 2015  Infineon Technologies AG, Munich
