! Infineon Technologies  Discrete & RF Semiconductors
! BFP420F
!
! VCE =  0.5 V,  IC =  35 mA
! Common Emitter S-Parameters:                            Sep 2011
# GHz  S  MA  R  50
!  f         S11            S21            S12            S22
! GHz     MAG   ANG      MAG   ANG      MAG   ANG      MAG   ANG
 0.030  0.3121  -35.2  36.959  167.8  0.0059   84.5  0.5927  -15.2
 0.040  0.3202  -46.0  36.285  163.8  0.0077   80.9  0.5930  -20.5
 0.050  0.3289  -55.0  35.235  160.2  0.0094   79.4  0.5820  -25.9
 0.060  0.3476  -64.2  34.820  156.8  0.0112   74.8  0.5668  -31.1
 0.070  0.3627  -70.0  34.121  153.5  0.0131   73.2  0.5558  -35.9
 0.080  0.3741  -76.1  33.093  150.3  0.0145   72.0  0.5517  -40.5
 0.090  0.3857  -82.9  32.176  147.4  0.0159   69.9  0.5442  -44.8
 0.100  0.3979  -88.0  31.325  144.4  0.0170   67.9  0.5333  -48.5
 0.110  0.4125  -92.1  30.212  142.1  0.0181   66.9  0.5252  -52.1
 0.120  0.4244  -97.8  29.307  139.2  0.0194   65.2  0.5153  -56.4
 0.130  0.4339 -101.3  28.328  137.0  0.0206   63.9  0.5014  -60.7
 0.140  0.4436 -105.0  27.498  135.1  0.0217   62.5  0.4879  -64.2
 0.150  0.4523 -108.2  26.678  133.1  0.0225   61.6  0.4812  -67.0
 0.200  0.4965 -121.5  23.010  124.7  0.0266   57.3  0.4459  -81.6
 0.250  0.5225 -131.4  19.896  118.3  0.0296   54.9  0.4133  -92.9
 0.300  0.5430 -138.9  17.549  113.1  0.0326   53.1  0.3911 -103.2
 0.350  0.5577 -144.8  15.533  109.1  0.0350   52.2  0.3747 -111.4
 0.400  0.5682 -149.5  13.942  105.7  0.0371   51.8  0.3621 -118.1
 0.450  0.5755 -153.7  12.632  102.8  0.0393   51.4  0.3522 -124.7
 0.500  0.5805 -157.1  11.494  100.3  0.0413   51.5  0.3440 -130.0
 0.600  0.5911 -162.7   9.710   96.1  0.0450   52.0  0.3360 -139.3
 0.700  0.5981 -167.3   8.418   92.5  0.0490   52.5  0.3316 -146.5
 0.800  0.6032 -170.9   7.395   89.4  0.0528   53.1  0.3308 -152.8
 0.900  0.6053 -173.8   6.563   87.0  0.0567   53.7  0.3303 -158.0
 1.000  0.6112 -176.3   5.922   84.7  0.0607   54.3  0.3328 -162.3
 1.100  0.6128 -178.9   5.387   82.5  0.0646   54.6  0.3343 -166.2
 1.200  0.6131  178.9   4.906   80.4  0.0686   54.9  0.3378 -169.5
 1.300  0.6155  177.0   4.536   78.8  0.0727   55.0  0.3402 -172.6
 1.400  0.6207  175.2   4.214   77.1  0.0767   55.3  0.3442 -175.0
 1.500  0.6206  173.0   3.926   75.1  0.0808   55.3  0.3466 -177.6
 1.600  0.6190  171.7   3.647   73.7  0.0847   55.2  0.3506 -179.8
 1.700  0.6221  170.3   3.440   72.5  0.0887   55.2  0.3527  178.0
 1.800  0.6272  169.0   3.263   71.2  0.0930   55.2  0.3576  176.4
 1.900  0.6277  167.1   3.092   69.3  0.0972   54.9  0.3609  174.6
 2.000  0.6239  166.0   2.908   68.1  0.1011   54.7  0.3642  173.0
 2.200  0.6279  163.6   2.661   65.8  0.1091   54.3  0.3692  170.7
 2.400  0.6248  161.0   2.420   63.1  0.1176   53.3  0.3743  168.2
 2.600  0.6281  159.0   2.248   61.0  0.1256   52.7  0.3776  166.2
 2.800  0.6291  156.6   2.100   58.4  0.1342   51.6  0.3812  164.2
 3.000  0.6311  154.3   1.964   56.2  0.1422   50.7  0.3833  162.5
 3.500  0.6332  149.1   1.706   50.5  0.1629   47.8  0.3873  158.1
 4.000  0.6354  143.8   1.517   44.7  0.1830   44.3  0.3895  153.5
 4.500  0.6391  139.0   1.369   39.2  0.2026   40.6  0.3891  148.1
 5.000  0.6379  134.6   1.254   33.8  0.2207   36.7  0.3879  142.2
 5.500  0.6371  129.9   1.157   28.4  0.2376   32.7  0.3877  135.6
 6.000  0.6394  125.0   1.078   23.3  0.2535   28.7  0.3891  128.6
 6.500  0.6476  119.8   1.010   18.2  0.2679   24.6  0.3978  121.6
 7.000  0.6564  114.2   0.948   13.0  0.2811   20.3  0.4081  114.2
 7.500  0.6719  109.7   0.892    8.1  0.2926   16.1  0.4240  107.2
 8.000  0.6867  105.4   0.836    3.2  0.3005   11.7  0.4501  100.0
 8.500  0.7013  101.6   0.779   -1.0  0.3040    7.7  0.4828   92.6
 9.000  0.7143   98.4   0.730   -4.4  0.3058    4.5  0.5179   86.2
 9.500  0.7293   95.7   0.689   -7.1  0.3081    2.0  0.5559   81.9
10.000  0.7473   92.6   0.657   -9.2  0.3115   -0.2  0.5949   79.2
!
!  f       NFmin   Gammaopt  rn/50
! GHz       dB    MAG  ANG    -
 0.450      1.93  0.32 -175   0.10
 0.900      1.94  0.34 -172   0.13
 1.900      2.07  0.39 -162   0.12
 2.400      2.14  0.38 -155   0.13
 3.500      2.39  0.37 -143   0.19
!
! (c) 2011  Infineon Technologies AG, Munich
