! Infineon Technologies  Discrete & RF Semiconductors
! BFP405F
! VCE =  4.0 V,  IC =  9.0 mA
! Common Emitter S-Parameters:                            Nov 2015
# GHz  S  MA  R  50
!  f         S11            S21            S12            S22
! GHz     MAG   ANG      MAG   ANG      MAG   ANG      MAG   ANG
 0.030  0.7367   -1.6  20.056  176.6  0.0003  173.2  0.9770   -0.6
 0.035  0.7353   -2.0  20.044  176.5  0.0005   77.7  0.9780   -0.7
 0.040  0.7339   -2.4  20.033  176.3  0.0010   60.3  0.9791   -0.7
 0.045  0.7315   -2.9  20.099  175.8  0.0026    9.9  0.9793   -1.2
 0.050  0.7291   -3.4  20.166  175.4  0.0047    0.5  0.9795   -1.6
 0.055  0.7321   -3.4  20.057  175.2  0.0018  -70.2  0.9773   -1.3
 0.060  0.7351   -3.4  19.948  174.9  0.0049 -135.1  0.9751   -1.0
 0.065  0.7369   -4.0  19.940  174.4  0.0037 -119.8  0.9762   -1.2
 0.070  0.7388   -4.6  19.934  173.9  0.0030  -94.2  0.9774   -1.4
 0.075  0.7370   -5.0  19.870  173.7  0.0009  -41.1  0.9787   -1.7
 0.080  0.7353   -5.4  19.806  173.4  0.0024   48.9  0.9800   -2.0
 0.085  0.7343   -5.8  19.844  173.3  0.0044   71.3  0.9803   -2.3
 0.090  0.7334   -6.3  19.882  173.3  0.0066   79.2  0.9806   -2.5
 0.095  0.7359   -6.6  19.819  173.0  0.0047   83.5  0.9801   -2.6
 0.100  0.7384   -6.8  19.757  172.7  0.0029   93.3  0.9796   -2.8
 0.105  0.7377   -7.2  19.750  172.4  0.0028  111.9  0.9802   -2.9
 0.110  0.7370   -7.6  19.744  172.0  0.0030  129.9  0.9809   -3.0
 0.115  0.7360   -8.0  19.732  171.8  0.0027   87.4  0.9810   -3.1
 0.120  0.7350   -8.4  19.720  171.6  0.0037   54.2  0.9811   -3.2
 0.125  0.7344   -8.7  19.711  171.2  0.0039   63.6  0.9807   -3.4
 0.130  0.7339   -9.1  19.702  170.8  0.0041   72.1  0.9803   -3.7
 0.135  0.7340   -9.4  19.716  170.6  0.0046   67.8  0.9809   -3.8
 0.140  0.7342   -9.7  19.731  170.5  0.0052   64.5  0.9816   -3.8
 0.145  0.7330  -10.0  19.730  170.2  0.0040   72.2  0.9797   -4.0
 0.150  0.7319  -10.4  19.729  169.8  0.0029   86.2  0.9778   -4.2
 0.155  0.7312  -10.7  19.713  169.4  0.0031   84.3  0.9774   -4.3
 0.160  0.7305  -11.1  19.697  169.1  0.0032   82.7  0.9770   -4.5
 0.165  0.7298  -11.4  19.682  168.7  0.0034   81.2  0.9766   -4.6
 0.170  0.7292  -11.8  19.668  168.3  0.0036   79.8  0.9762   -4.8
 0.175  0.7286  -12.1  19.655  168.0  0.0038   78.6  0.9758   -4.9
 0.180  0.7280  -12.5  19.643  167.6  0.0040   77.5  0.9754   -5.1
 0.185  0.7275  -12.8  19.631  167.2  0.0041   76.5  0.9751   -5.2
 0.190  0.7270  -13.2  19.621  166.8  0.0043   75.5  0.9747   -5.4
 0.195  0.7265  -13.5  19.611  166.5  0.0045   74.7  0.9743   -5.5
 0.200  0.7260  -13.9  19.602  166.1  0.0047   73.9  0.9740   -5.7
 0.220  0.7225  -15.3  19.472  164.9  0.0053   78.3  0.9722   -6.3
 0.240  0.7194  -16.6  19.351  163.7  0.0060   81.8  0.9704   -6.8
 0.260  0.7156  -17.9  19.248  162.5  0.0064   80.9  0.9678   -7.4
 0.280  0.7112  -19.2  19.165  161.2  0.0068   76.5  0.9642   -7.9
 0.300  0.7071  -20.5  19.092  159.9  0.0071   72.5  0.9607   -8.4
 0.320  0.7026  -21.8  18.954  158.7  0.0083   74.7  0.9580   -8.9
 0.340  0.6985  -23.1  18.824  157.5  0.0094   76.4  0.9553   -9.4
 0.360  0.6942  -24.4  18.703  156.3  0.0100   76.9  0.9527  -10.0
 0.380  0.6898  -25.7  18.590  155.1  0.0101   76.6  0.9503  -10.5
 0.400  0.6858  -27.1  18.487  153.8  0.0102   76.2  0.9479  -11.1
 0.420  0.6806  -28.3  18.347  152.7  0.0107   75.0  0.9441  -11.6
 0.440  0.6757  -29.5  18.214  151.5  0.0112   74.0  0.9404  -12.1
 0.450  0.6733  -30.1  18.151  150.9  0.0115   73.5  0.9386  -12.3
 0.460  0.6705  -30.7  18.075  150.3  0.0118   73.5  0.9367  -12.5
 0.480  0.6650  -31.9  17.928  149.2  0.0124   73.6  0.9329  -13.0
 0.500  0.6599  -33.2  17.789  148.0  0.0130   73.7  0.9291  -13.5
 0.520  0.6535  -34.3  17.624  146.9  0.0134   73.9  0.9249  -13.9
 0.540  0.6473  -35.5  17.464  145.9  0.0138   74.0  0.9207  -14.4
 0.560  0.6413  -36.6  17.311  144.8  0.0143   74.1  0.9166  -14.8
 0.580  0.6357  -37.8  17.165  143.6  0.0147   74.3  0.9126  -15.3
 0.600  0.6303  -39.0  17.025  142.5  0.0151   74.4  0.9086  -15.7
 0.620  0.6240  -40.0  16.870  141.5  0.0155   74.2  0.9042  -16.1
 0.640  0.6179  -41.1  16.719  140.6  0.0159   74.1  0.8998  -16.5
 0.660  0.6120  -42.2  16.574  139.6  0.0164   74.0  0.8954  -16.9
 0.680  0.6063  -43.3  16.433  138.5  0.0168   73.8  0.8912  -17.3
 0.700  0.6009  -44.4  16.298  137.5  0.0172   73.7  0.8869  -17.7
 0.720  0.5944  -45.4  16.120  136.6  0.0176   73.0  0.8826  -18.1
 0.740  0.5881  -46.4  15.947  135.6  0.0180   72.4  0.8783  -18.4
 0.760  0.5820  -47.5  15.778  134.6  0.0184   71.8  0.8741  -18.8
 0.780  0.5760  -48.5  15.613  133.6  0.0188   71.2  0.8699  -19.1
 0.800  0.5703  -49.6  15.454  132.6  0.0192   70.6  0.8657  -19.5
 0.820  0.5642  -50.5  15.300  131.8  0.0196   70.4  0.8616  -19.8
 0.840  0.5582  -51.5  15.150  130.9  0.0201   70.1  0.8574  -20.2
 0.860  0.5524  -52.4  15.003  130.0  0.0205   69.9  0.8534  -20.5
 0.880  0.5468  -53.4  14.860  129.1  0.0210   69.7  0.8493  -20.9
 0.900  0.5413  -54.4  14.720  128.2  0.0214   69.5  0.8453  -21.2
 0.920  0.5356  -55.3  14.559  127.4  0.0216   69.5  0.8409  -21.5
 0.940  0.5301  -56.2  14.401  126.6  0.0218   69.5  0.8365  -21.8
 0.960  0.5247  -57.1  14.246  125.8  0.0219   69.5  0.8321  -22.1
 0.980  0.5194  -58.0  14.093  125.0  0.0221   69.5  0.8278  -22.5
 1.000  0.5143  -59.0  13.944  124.1  0.0223   69.5  0.8235  -22.8
 1.020  0.5083  -59.8  13.796  123.4  0.0227   69.5  0.8194  -23.1
 1.040  0.5024  -60.7  13.650  122.7  0.0231   69.5  0.8153  -23.4
 1.060  0.4966  -61.5  13.506  121.9  0.0234   69.4  0.8112  -23.6
 1.080  0.4909  -62.4  13.365  121.2  0.0238   69.4  0.8071  -23.9
 1.100  0.4853  -63.3  13.226  120.4  0.0242   69.4  0.8031  -24.2
 1.120  0.4801  -64.1  13.090  119.7  0.0245   69.1  0.7992  -24.4
 1.140  0.4750  -64.9  12.957  119.0  0.0248   68.8  0.7953  -24.6
 1.160  0.4699  -65.8  12.825  118.3  0.0251   68.5  0.7914  -24.9
 1.180  0.4650  -66.6  12.695  117.5  0.0254   68.2  0.7875  -25.1
 1.200  0.4602  -67.5  12.568  116.8  0.0257   67.9  0.7836  -25.3
 1.220  0.4549  -68.3  12.437  116.1  0.0261   67.9  0.7799  -25.5
 1.240  0.4498  -69.0  12.308  115.5  0.0265   67.9  0.7762  -25.8
 1.260  0.4447  -69.8  12.180  114.8  0.0268   68.0  0.7725  -26.0
 1.280  0.4397  -70.7  12.054  114.1  0.0272   68.0  0.7689  -26.3
 1.300  0.4348  -71.5  11.930  113.4  0.0276   68.0  0.7652  -26.5
 1.320  0.4306  -72.2  11.807  112.8  0.0279   67.8  0.7618  -26.7
 1.340  0.4265  -73.0  11.685  112.3  0.0281   67.6  0.7583  -26.9
 1.360  0.4224  -73.7  11.564  111.7  0.0284   67.4  0.7549  -27.2
 1.380  0.4184  -74.5  11.444  111.1  0.0286   67.2  0.7515  -27.4
 1.400  0.4145  -75.3  11.326  110.5  0.0289   67.0  0.7481  -27.6
 1.420  0.4099  -76.0  11.214  110.0  0.0292   67.1  0.7448  -27.8
 1.440  0.4053  -76.7  11.104  109.4  0.0294   67.2  0.7414  -28.0
 1.460  0.4009  -77.5  10.994  108.9  0.0297   67.3  0.7381  -28.1
 1.480  0.3964  -78.2  10.885  108.3  0.0299   67.4  0.7348  -28.3
 1.500  0.3921  -79.0  10.778  107.7  0.0302   67.5  0.7315  -28.5
 1.520  0.3882  -79.7  10.675  107.2  0.0306   67.3  0.7284  -28.7
 1.540  0.3844  -80.4  10.572  106.7  0.0311   67.2  0.7254  -28.9
 1.560  0.3806  -81.2  10.471  106.1  0.0315   67.0  0.7223  -29.1
 1.580  0.3769  -81.9  10.371  105.6  0.0320   66.9  0.7192  -29.3
 1.600  0.3733  -82.7  10.271  105.0  0.0324   66.7  0.7162  -29.5
 1.620  0.3700  -83.3  10.169  104.5  0.0327   66.5  0.7129  -29.7
 1.640  0.3668  -83.9  10.068  104.0  0.0329   66.2  0.7097  -29.9
 1.660  0.3636  -84.5   9.968  103.5  0.0332   66.0  0.7064  -30.0
 1.680  0.3605  -85.2   9.869  103.0  0.0334   65.8  0.7031  -30.2
 1.700  0.3574  -85.8   9.770  102.5  0.0337   65.6  0.6999  -30.4
 1.720  0.3537  -86.5   9.680  102.0  0.0339   65.5  0.6971  -30.6
 1.740  0.3501  -87.2   9.592  101.6  0.0342   65.5  0.6942  -30.8
 1.760  0.3466  -88.0   9.503  101.1  0.0344   65.4  0.6914  -31.0
 1.780  0.3431  -88.7   9.416  100.6  0.0347   65.4  0.6886  -31.2
 1.800  0.3397  -89.5   9.329  100.1  0.0349   65.3  0.6858  -31.4
 1.820  0.3369  -90.1   9.248   99.7  0.0352   65.2  0.6830  -31.6
 1.840  0.3341  -90.7   9.167   99.3  0.0356   65.2  0.6803  -31.7
 1.860  0.3314  -91.4   9.087   98.9  0.0359   65.1  0.6775  -31.9
 1.880  0.3287  -92.0   9.007   98.4  0.0363   65.1  0.6747  -32.0
 1.900  0.3260  -92.7   8.928   98.0  0.0366   65.0  0.6720  -32.2
 1.920  0.3234  -93.4   8.854   97.6  0.0370   65.1  0.6698  -32.4
 1.940  0.3208  -94.1   8.781   97.1  0.0373   65.2  0.6676  -32.7
 1.960  0.3183  -94.8   8.709   96.7  0.0377   65.4  0.6654  -32.9
 1.980  0.3158  -95.6   8.637   96.3  0.0380   65.5  0.6632  -33.2
 2.000  0.3134  -96.3   8.565   95.8  0.0384   65.6  0.6610  -33.4
 2.020  0.3107  -96.9   8.491   95.4  0.0386   65.6  0.6586  -33.6
 2.040  0.3081  -97.5   8.416   95.0  0.0388   65.7  0.6562  -33.7
 2.060  0.3055  -98.2   8.343   94.6  0.0389   65.7  0.6538  -33.9
 2.080  0.3029  -98.8   8.270   94.1  0.0391   65.8  0.6515  -34.0
 2.100  0.3004  -99.5   8.197   93.7  0.0393   65.8  0.6491  -34.2
 2.120  0.2978 -100.1   8.128   93.3  0.0396   65.6  0.6468  -34.4
 2.140  0.2952 -100.8   8.059   92.9  0.0399   65.3  0.6444  -34.6
 2.160  0.2926 -101.4   7.991   92.5  0.0403   65.1  0.6421  -34.8
 2.180  0.2901 -102.1   7.923   92.1  0.0406   64.8  0.6398  -35.0
 2.200  0.2876 -102.8   7.856   91.7  0.0409   64.6  0.6375  -35.2
 2.220  0.2854 -103.4   7.792   91.4  0.0412   64.8  0.6354  -35.3
 2.240  0.2833 -104.1   7.728   91.0  0.0415   65.0  0.6333  -35.5
 2.260  0.2812 -104.7   7.664   90.7  0.0418   65.1  0.6312  -35.6
 2.280  0.2791 -105.3   7.601   90.4  0.0421   65.3  0.6291  -35.8
 2.300  0.2771 -106.0   7.538   90.0  0.0424   65.5  0.6270  -35.9
 2.320  0.2749 -106.6   7.480   89.7  0.0427   65.2  0.6251  -36.1
 2.340  0.2728 -107.1   7.422   89.3  0.0430   64.9  0.6231  -36.2
 2.360  0.2707 -107.7   7.365   88.9  0.0432   64.6  0.6212  -36.4
 2.380  0.2686 -108.3   7.308   88.6  0.0435   64.3  0.6192  -36.5
 2.400  0.2665 -108.9   7.251   88.2  0.0438   64.0  0.6173  -36.7
 2.420  0.2647 -109.5   7.194   87.9  0.0441   64.2  0.6155  -36.8
 2.440  0.2629 -110.0   7.138   87.5  0.0445   64.5  0.6136  -37.0
 2.460  0.2612 -110.6   7.082   87.2  0.0448   64.7  0.6118  -37.1
 2.480  0.2595 -111.2   7.026   86.9  0.0452   64.9  0.6099  -37.3
 2.500  0.2578 -111.8   6.970   86.5  0.0455   65.1  0.6081  -37.4
 2.520  0.2557 -112.3   6.917   86.2  0.0457   64.9  0.6065  -37.5
 2.540  0.2536 -112.9   6.864   85.9  0.0459   64.7  0.6049  -37.6
 2.560  0.2515 -113.5   6.812   85.6  0.0462   64.4  0.6032  -37.8
 2.580  0.2495 -114.0   6.759   85.3  0.0464   64.2  0.6016  -37.9
 2.600  0.2475 -114.6   6.707   85.0  0.0466   64.0  0.6000  -38.0
 2.620  0.2462 -115.2   6.660   84.7  0.0469   64.1  0.5982  -38.1
 2.640  0.2449 -115.8   6.613   84.4  0.0473   64.2  0.5965  -38.3
 2.660  0.2437 -116.4   6.566   84.1  0.0476   64.3  0.5947  -38.4
 2.680  0.2425 -117.1   6.519   83.7  0.0480   64.4  0.5930  -38.6
 2.700  0.2413 -117.7   6.473   83.4  0.0483   64.5  0.5912  -38.7
 2.720  0.2396 -118.2   6.429   83.1  0.0486   64.3  0.5900  -38.9
 2.740  0.2379 -118.8   6.385   82.8  0.0489   64.2  0.5887  -39.0
 2.760  0.2363 -119.3   6.342   82.5  0.0491   64.0  0.5875  -39.2
 2.780  0.2346 -119.8   6.298   82.2  0.0494   63.9  0.5863  -39.3
 2.800  0.2330 -120.4   6.255   81.9  0.0497   63.7  0.5851  -39.5
 2.820  0.2317 -120.9   6.211   81.6  0.0499   63.7  0.5837  -39.6
 2.840  0.2304 -121.5   6.166   81.4  0.0501   63.7  0.5823  -39.7
 2.860  0.2292 -122.0   6.122   81.1  0.0504   63.6  0.5810  -39.8
 2.880  0.2279 -122.5   6.078   80.8  0.0506   63.6  0.5796  -39.9
 2.900  0.2267 -123.1   6.034   80.5  0.0508   63.6  0.5782  -40.0
 2.920  0.2252 -123.7   5.995   80.2  0.0512   63.5  0.5769  -40.2
 2.940  0.2238 -124.2   5.956   80.0  0.0517   63.5  0.5756  -40.3
 2.960  0.2223 -124.8   5.918   79.7  0.0521   63.4  0.5743  -40.5
 2.980  0.2209 -125.4   5.879   79.4  0.0526   63.4  0.5730  -40.6
 3.000  0.2195 -126.0   5.841   79.1  0.0530   63.3  0.5717  -40.8
 3.100  0.2146 -128.6   5.651   77.7  0.0539   62.5  0.5655  -41.3
 3.200  0.2077 -131.7   5.472   76.4  0.0551   62.6  0.5599  -42.0
 3.300  0.2050 -134.1   5.312   75.1  0.0568   62.7  0.5551  -42.6
 3.400  0.1975 -137.2   5.150   73.9  0.0585   62.1  0.5508  -43.2
 3.500  0.1936 -139.2   5.007   72.7  0.0595   61.7  0.5468  -43.7
 3.600  0.1887 -142.0   4.861   71.5  0.0609   61.8  0.5423  -44.2
 3.700  0.1853 -144.7   4.728   70.4  0.0621   61.7  0.5387  -44.6
 3.800  0.1822 -147.6   4.600   69.3  0.0639   61.3  0.5345  -45.1
 3.900  0.1797 -150.2   4.486   68.2  0.0655   60.8  0.5315  -45.6
 4.000  0.1762 -152.6   4.376   67.1  0.0665   60.9  0.5282  -46.0
 4.100  0.1746 -155.3   4.267   66.0  0.0683   60.6  0.5240  -46.5
 4.200  0.1711 -158.5   4.165   65.1  0.0699   60.5  0.5203  -46.9
 4.300  0.1719 -160.8   4.072   63.9  0.0718   60.0  0.5173  -47.4
 4.400  0.1690 -163.7   3.981   63.0  0.0731   59.6  0.5147  -47.8
 4.500  0.1696 -165.8   3.890   62.0  0.0746   59.5  0.5112  -48.1
 4.600  0.1678 -168.8   3.804   60.9  0.0763   59.0  0.5075  -48.6
 4.700  0.1682 -170.8   3.725   60.0  0.0772   59.2  0.5034  -48.9
 4.800  0.1685 -173.8   3.652   59.0  0.0796   58.7  0.5013  -49.4
 4.900  0.1688 -175.5   3.577   58.1  0.0807   58.6  0.4975  -49.7
 5.000  0.1686 -178.1   3.508   57.0  0.0821   58.0  0.4946  -50.2
 5.100  0.1687  179.7   3.438   56.1  0.0837   57.6  0.4912  -50.6
 5.200  0.1696  177.3   3.376   55.1  0.0856   57.4  0.4878  -51.0
 5.300  0.1701  175.0   3.314   54.1  0.0871   56.9  0.4849  -51.4
 5.400  0.1702  173.4   3.254   53.3  0.0886   56.4  0.4827  -51.9
 5.500  0.1714  170.8   3.196   52.3  0.0902   56.1  0.4800  -52.2
 5.600  0.1711  168.9   3.140   51.3  0.0915   55.8  0.4771  -52.5
 5.700  0.1727  166.3   3.086   50.4  0.0936   55.5  0.4738  -52.9
 5.800  0.1732  164.4   3.035   49.5  0.0952   55.2  0.4717  -53.4
 5.900  0.1740  162.1   2.985   48.6  0.0964   54.7  0.4694  -53.7
 6.000  0.1736  160.2   2.934   47.7  0.0983   54.6  0.4671  -54.0
 6.100  0.1752  158.0   2.885   46.7  0.0995   53.8  0.4640  -54.3
 6.200  0.1759  155.9   2.838   45.8  0.1012   53.5  0.4617  -54.8
 6.300  0.1772  153.6   2.796   45.0  0.1027   53.4  0.4582  -55.0
 6.400  0.1766  151.5   2.751   44.1  0.1038   52.9  0.4562  -55.5
 6.500  0.1789  148.9   2.707   43.1  0.1055   52.3  0.4534  -55.7
 6.600  0.1796  146.9   2.668   42.3  0.1069   52.2  0.4506  -56.0
 6.800  0.1831  142.2   2.589   40.5  0.1106   51.4  0.4451  -56.5
 7.000  0.1864  137.6   2.515   38.9  0.1135   50.8  0.4391  -56.7
 7.200  0.1926  133.1   2.444   37.2  0.1166   50.1  0.4307  -57.2
 7.400  0.2010  129.7   2.379   35.7  0.1199   49.6  0.4226  -57.6
 7.600  0.2106  126.6   2.320   34.2  0.1239   49.3  0.4135  -58.0
 7.800  0.2218  124.2   2.265   32.6  0.1278   48.2  0.4022  -58.6
 8.000  0.2337  121.8   2.213   31.0  0.1310   47.4  0.3892  -59.2
 8.200  0.2492  120.2   2.168   29.5  0.1351   46.4  0.3724  -59.8
 8.400  0.2649  118.8   2.125   27.9  0.1391   45.5  0.3557  -60.5
 8.600  0.2806  117.6   2.084   26.3  0.1431   44.5  0.3369  -61.4
 8.800  0.2963  116.5   2.044   24.7  0.1471   43.6  0.3160  -62.4
 9.000  0.3121  115.5   2.006   23.0  0.1510   42.7  0.2952  -63.5
 9.200  0.3267  114.5   1.971   21.4  0.1549   41.5  0.2721  -65.0
 9.400  0.3414  113.5   1.938   19.7  0.1588   40.4  0.2492  -66.9
 9.600  0.3552  112.5   1.906   18.0  0.1629   39.3  0.2256  -69.2
 9.800  0.3681  111.5   1.876   16.3  0.1671   38.2  0.2016  -72.4
10.000  0.3811  110.5   1.848   14.5  0.1713   37.1  0.1783  -76.4
10.200  0.3936  108.9   1.817   12.7  0.1751   35.7  0.1534  -82.2
10.400  0.4063  107.4   1.789   10.8  0.1789   34.4  0.1307  -90.0
10.600  0.4185  105.6   1.758    8.9  0.1825   33.0  0.1122 -101.4
10.800  0.4303  103.5   1.726    7.0  0.1857   31.5  0.1006 -116.9
11.000  0.4426  101.5   1.696    4.9  0.1891   30.1  0.0979 -134.7
11.200  0.4522   99.4   1.656    3.1  0.1910   28.8  0.1099 -149.2
11.400  0.4624   97.4   1.618    1.2  0.1930   27.5  0.1274 -160.4
11.600  0.4696   95.7   1.581   -0.5  0.1952   26.4  0.1504 -166.8
11.800  0.4737   94.3   1.543   -1.9  0.1976   25.5  0.1765 -170.0
12.000  0.4780   92.9   1.506   -3.4  0.2001   24.6  0.2030 -172.3
!
!  f       NFmin   Gammaopt  rn/50
! GHz       dB    MAG  ANG    -
 0.450      1.60  0.23    5   0.33
 0.900      1.61  0.21   11   0.35
 1.500      1.67  0.20   16   0.26
 1.900      1.70  0.18   22   0.29
 2.400      1.84  0.17   30   0.34
 3.000      1.92  0.15   43   0.31
 3.500      1.97  0.13   50   0.30
 4.500      2.13  0.10   51   0.20
 5.500      2.32  0.05   51   0.05
!
! (c) 2015  Infineon Technologies AG, Munich
