! Infineon Technologies  Discrete & RF Semiconductors
! BFP420
! VCE =  1.0 V,  IC =  9.0 mA
! Common Emitter S-Parameters:                            Jan 2016
# GHz  S  MA  R  50
!  f         S11            S21            S12            S22
! GHz     MAG   ANG      MAG   ANG      MAG   ANG      MAG   ANG
 0.010  0.7262   -2.4  25.015  179.3  0.0010  104.3  0.9650    0.3
 0.015  0.7256   -3.2  24.753  178.5  0.0016   94.6  0.9682   -1.0
 0.020  0.7251   -4.0  24.496  177.7  0.0022   90.2  0.9719   -2.3
 0.025  0.7241   -4.9  24.489  177.0  0.0028   88.0  0.9713   -2.9
 0.030  0.7232   -5.9  24.486  176.3  0.0033   86.5  0.9709   -3.5
 0.035  0.7226   -6.8  24.486  175.6  0.0039   85.5  0.9705   -4.1
 0.040  0.7222   -7.8  24.490  174.9  0.0045   84.7  0.9703   -4.8
 0.045  0.7219   -8.7  24.498  174.2  0.0050   84.1  0.9702   -5.4
 0.050  0.7219   -9.7  24.509  173.5  0.0056   83.6  0.9702   -6.0
 0.055  0.7204  -10.7  24.480  172.9  0.0061   83.2  0.9686   -6.6
 0.060  0.7190  -11.6  24.453  172.2  0.0067   82.9  0.9672   -7.2
 0.065  0.7179  -12.6  24.430  171.6  0.0072   82.6  0.9658   -7.8
 0.070  0.7170  -13.6  24.410  171.0  0.0077   82.4  0.9645   -8.4
 0.075  0.7163  -14.5  24.392  170.4  0.0082   82.1  0.9634   -9.0
 0.080  0.7158  -15.5  24.378  169.7  0.0088   82.0  0.9623   -9.6
 0.085  0.7155  -16.5  24.366  169.1  0.0093   81.8  0.9614  -10.2
 0.090  0.7154  -17.5  24.357  168.5  0.0098   81.7  0.9606  -10.8
 0.095  0.7155  -18.4  24.352  167.8  0.0104   81.5  0.9598  -11.4
 0.100  0.7158  -19.4  24.349  167.2  0.0109   81.4  0.9592  -12.0
 0.105  0.7141  -20.3  24.282  166.6  0.0114   80.7  0.9568  -12.6
 0.110  0.7125  -21.2  24.218  165.9  0.0119   80.1  0.9545  -13.2
 0.115  0.7112  -22.2  24.157  165.3  0.0124   79.5  0.9523  -13.7
 0.120  0.7100  -23.1  24.099  164.7  0.0129   79.0  0.9502  -14.3
 0.125  0.7090  -24.0  24.044  164.0  0.0134   78.5  0.9482  -14.9
 0.130  0.7082  -25.0  23.992  163.4  0.0139   78.1  0.9463  -15.5
 0.135  0.7076  -25.9  23.943  162.7  0.0145   77.7  0.9445  -16.1
 0.140  0.7072  -26.8  23.897  162.1  0.0150   77.3  0.9428  -16.7
 0.145  0.7069  -27.8  23.854  161.5  0.0155   76.9  0.9412  -17.3
 0.150  0.7069  -28.7  23.814  160.8  0.0160   76.6  0.9397  -17.9
 0.155  0.7050  -29.6  23.734  160.2  0.0165   76.1  0.9367  -18.5
 0.160  0.7034  -30.5  23.656  159.6  0.0170   75.6  0.9337  -19.0
 0.165  0.7018  -31.4  23.580  159.1  0.0175   75.1  0.9309  -19.6
 0.170  0.7005  -32.3  23.507  158.5  0.0179   74.6  0.9281  -20.1
 0.175  0.6993  -33.2  23.436  157.9  0.0184   74.2  0.9254  -20.7
 0.180  0.6983  -34.1  23.368  157.3  0.0189   73.8  0.9228  -21.3
 0.185  0.6975  -35.0  23.303  156.7  0.0194   73.4  0.9203  -21.9
 0.190  0.6969  -35.9  23.240  156.1  0.0199   73.1  0.9179  -22.4
 0.195  0.6964  -36.8  23.179  155.5  0.0204   72.7  0.9156  -23.0
 0.200  0.6961  -37.7  23.121  154.9  0.0209   72.4  0.9134  -23.6
 0.220  0.6873  -41.2  22.737  152.6  0.0226   70.7  0.9004  -25.7
 0.240  0.6810  -44.7  22.390  150.3  0.0244   69.3  0.8887  -27.8
 0.260  0.6751  -48.2  22.049  148.1  0.0261   67.8  0.8759  -29.9
 0.280  0.6691  -51.5  21.708  146.0  0.0277   66.4  0.8620  -31.9
 0.300  0.6654  -54.9  21.397  143.8  0.0293   65.1  0.8491  -34.0
 0.320  0.6578  -58.0  21.004  141.9  0.0307   63.7  0.8343  -35.8
 0.340  0.6522  -61.2  20.634  139.9  0.0322   62.4  0.8204  -37.6
 0.360  0.6465  -64.3  20.260  138.0  0.0335   61.2  0.8062  -39.4
 0.380  0.6403  -67.2  19.876  136.1  0.0348   59.9  0.7916  -41.2
 0.400  0.6359  -70.2  19.515  134.2  0.0361   58.8  0.7778  -43.0
 0.420  0.6285  -73.0  19.124  132.5  0.0373   57.8  0.7633  -44.6
 0.440  0.6227  -75.9  18.750  130.8  0.0384   56.8  0.7493  -46.2
 0.450  0.6204  -77.3  18.570  129.9  0.0390   56.3  0.7426  -47.1
 0.460  0.6173  -78.6  18.379  129.1  0.0395   55.8  0.7354  -47.8
 0.480  0.6121  -81.2  18.009  127.5  0.0405   54.8  0.7215  -49.3
 0.500  0.6082  -83.9  17.652  125.9  0.0415   53.9  0.7080  -50.9
 0.520  0.6013  -86.2  17.292  124.6  0.0423   53.1  0.6944  -52.2
 0.540  0.5955  -88.6  16.942  123.2  0.0432   52.2  0.6812  -53.5
 0.560  0.5907  -91.0  16.602  121.8  0.0441   51.5  0.6683  -54.9
 0.580  0.5870  -93.5  16.273  120.3  0.0449   50.7  0.6558  -56.3
 0.600  0.5844  -96.0  15.955  118.7  0.0458   50.0  0.6438  -57.8
 0.620  0.5791  -98.1  15.636  117.6  0.0465   49.4  0.6318  -58.9
 0.640  0.5745 -100.2  15.324  116.4  0.0472   48.7  0.6201  -60.1
 0.660  0.5707 -102.3  15.019  115.1  0.0479   48.1  0.6086  -61.3
 0.680  0.5677 -104.5  14.721  113.8  0.0486   47.6  0.5974  -62.5
 0.700  0.5656 -106.7  14.431  112.5  0.0493   47.0  0.5865  -63.8
 0.720  0.5615 -108.5  14.154  111.5  0.0499   46.5  0.5761  -64.8
 0.740  0.5579 -110.3  13.881  110.5  0.0505   46.0  0.5659  -65.8
 0.760  0.5549 -112.2  13.613  109.4  0.0511   45.6  0.5558  -66.9
 0.780  0.5525 -114.0  13.350  108.3  0.0517   45.1  0.5460  -68.0
 0.800  0.5507 -115.9  13.092  107.1  0.0523   44.7  0.5364  -69.2
 0.820  0.5478 -117.6  12.856  106.2  0.0528   44.3  0.5274  -70.1
 0.840  0.5453 -119.2  12.623  105.3  0.0533   43.9  0.5186  -71.1
 0.860  0.5433 -120.9  12.393  104.4  0.0539   43.5  0.5099  -72.0
 0.880  0.5418 -122.6  12.167  103.4  0.0544   43.2  0.5014  -73.1
 0.900  0.5407 -124.3  11.944  102.4  0.0549   42.8  0.4930  -74.1
 0.920  0.5383 -125.8  11.740  101.6  0.0554   42.5  0.4851  -75.0
 0.940  0.5362 -127.3  11.539  100.8  0.0559   42.2  0.4773  -75.9
 0.960  0.5346 -128.8  11.340   99.9  0.0563   41.9  0.4696  -76.8
 0.980  0.5333 -130.4  11.144   99.0  0.0568   41.6  0.4621  -77.8
 1.000  0.5324 -131.9  10.951   98.1  0.0573   41.3  0.4547  -78.8
 1.020  0.5307 -133.2  10.773   97.4  0.0577   41.1  0.4479  -79.6
 1.040  0.5294 -134.5  10.596   96.7  0.0581   40.8  0.4413  -80.4
 1.060  0.5283 -135.8  10.422   95.9  0.0586   40.6  0.4347  -81.2
 1.080  0.5274 -137.2  10.249   95.1  0.0590   40.3  0.4282  -82.1
 1.100  0.5269 -138.5  10.078   94.3  0.0594   40.1  0.4218  -83.0
 1.120  0.5257 -139.8   9.922   93.6  0.0598   39.9  0.4157  -83.8
 1.140  0.5248 -141.0   9.767   92.9  0.0602   39.7  0.4098  -84.7
 1.160  0.5241 -142.3   9.614   92.2  0.0607   39.5  0.4039  -85.6
 1.180  0.5237 -143.5   9.463   91.5  0.0611   39.3  0.3981  -86.5
 1.200  0.5235 -144.8   9.313   90.7  0.0615   39.1  0.3924  -87.4
 1.220  0.5226 -145.9   9.178   90.1  0.0619   38.9  0.3872  -88.1
 1.240  0.5219 -147.0   9.045   89.5  0.0623   38.8  0.3820  -88.9
 1.260  0.5213 -148.2   8.912   88.8  0.0628   38.6  0.3769  -89.6
 1.280  0.5210 -149.3   8.781   88.2  0.0632   38.5  0.3719  -90.4
 1.300  0.5209 -150.4   8.651   87.5  0.0636   38.3  0.3669  -91.2
 1.320  0.5202 -151.4   8.532   86.9  0.0640   38.2  0.3623  -92.0
 1.340  0.5197 -152.4   8.413   86.4  0.0644   38.0  0.3578  -92.7
 1.360  0.5194 -153.5   8.295   85.8  0.0647   37.9  0.3533  -93.5
 1.380  0.5192 -154.5   8.179   85.1  0.0651   37.7  0.3489  -94.4
 1.400  0.5192 -155.5   8.063   84.5  0.0655   37.6  0.3446  -95.2
 1.420  0.5187 -156.4   7.960   84.0  0.0659   37.5  0.3404  -95.9
 1.440  0.5184 -157.4   7.857   83.4  0.0663   37.4  0.3363  -96.7
 1.460  0.5182 -158.3   7.755   82.9  0.0666   37.2  0.3322  -97.4
 1.480  0.5181 -159.3   7.653   82.3  0.0670   37.1  0.3282  -98.2
 1.500  0.5182 -160.2   7.553   81.7  0.0674   37.0  0.3243  -99.0
 1.520  0.5180 -161.1   7.459   81.2  0.0678   36.9  0.3207  -99.7
 1.540  0.5180 -161.9   7.365   80.7  0.0682   36.8  0.3172 -100.4
 1.560  0.5180 -162.8   7.271   80.1  0.0685   36.6  0.3138 -101.1
 1.580  0.5182 -163.6   7.179   79.6  0.0689   36.5  0.3104 -101.8
 1.600  0.5185 -164.5   7.087   79.0  0.0693   36.4  0.3070 -102.6
 1.620  0.5181 -165.4   7.005   78.5  0.0697   36.3  0.3037 -103.3
 1.640  0.5179 -166.3   6.923   78.0  0.0701   36.2  0.3005 -104.1
 1.660  0.5178 -167.1   6.841   77.5  0.0705   36.1  0.2973 -104.8
 1.680  0.5178 -168.0   6.760   77.0  0.0709   36.0  0.2942 -105.6
 1.700  0.5179 -168.9   6.680   76.5  0.0713   35.9  0.2911 -106.4
 1.720  0.5178 -169.6   6.604   76.0  0.0717   35.8  0.2882 -107.1
 1.740  0.5178 -170.4   6.528   75.6  0.0721   35.7  0.2853 -107.7
 1.760  0.5178 -171.1   6.453   75.1  0.0724   35.6  0.2825 -108.4
 1.780  0.5180 -171.9   6.378   74.6  0.0728   35.5  0.2797 -109.1
 1.800  0.5182 -172.6   6.304   74.1  0.0732   35.4  0.2770 -109.8
 1.820  0.5183 -173.4   6.236   73.7  0.0736   35.3  0.2744 -110.6
 1.840  0.5186 -174.2   6.168   73.2  0.0740   35.2  0.2718 -111.4
 1.860  0.5189 -174.9   6.100   72.8  0.0743   35.1  0.2693 -112.2
 1.880  0.5194 -175.7   6.033   72.3  0.0747   35.0  0.2669 -113.0
 1.900  0.5199 -176.5   5.966   71.8  0.0751   34.9  0.2645 -113.9
 1.920  0.5195 -177.2   5.906   71.4  0.0755   34.8  0.2621 -114.5
 1.940  0.5192 -177.9   5.845   70.9  0.0759   34.7  0.2597 -115.2
 1.960  0.5190 -178.5   5.786   70.5  0.0763   34.6  0.2574 -115.8
 1.980  0.5188 -179.2   5.726   70.1  0.0767   34.5  0.2551 -116.5
 2.000  0.5187 -179.9   5.667   69.6  0.0771   34.4  0.2528 -117.2
 2.020  0.5186  179.4   5.613   69.2  0.0775   34.3  0.2507 -117.9
 2.040  0.5186  178.7   5.560   68.8  0.0779   34.2  0.2486 -118.7
 2.060  0.5186  178.1   5.506   68.4  0.0782   34.1  0.2465 -119.4
 2.080  0.5187  177.4   5.453   67.9  0.0786   34.0  0.2445 -120.2
 2.100  0.5189  176.7   5.401   67.5  0.0790   33.9  0.2426 -120.9
 2.120  0.5192  176.0   5.348   67.1  0.0794   33.8  0.2407 -121.7
 2.140  0.5195  175.3   5.296   66.6  0.0798   33.7  0.2388 -122.5
 2.160  0.5200  174.7   5.244   66.2  0.0801   33.6  0.2370 -123.3
 2.180  0.5204  174.0   5.193   65.7  0.0805   33.5  0.2352 -124.2
 2.200  0.5210  173.3   5.142   65.2  0.0809   33.4  0.2335 -125.0
 2.220  0.5212  172.7   5.096   64.8  0.0813   33.3  0.2318 -125.8
 2.240  0.5215  172.1   5.051   64.5  0.0817   33.2  0.2302 -126.6
 2.260  0.5219  171.4   5.005   64.1  0.0821   33.1  0.2286 -127.3
 2.280  0.5223  170.8   4.960   63.7  0.0825   32.9  0.2270 -128.2
 2.300  0.5228  170.2   4.916   63.3  0.0828   32.8  0.2255 -129.0
 2.320  0.5234  169.6   4.871   62.9  0.0832   32.7  0.2241 -129.8
 2.340  0.5240  168.9   4.827   62.5  0.0836   32.6  0.2226 -130.6
 2.360  0.5247  168.3   4.782   62.1  0.0840   32.5  0.2213 -131.5
 2.380  0.5254  167.7   4.739   61.6  0.0844   32.4  0.2200 -132.3
 2.400  0.5262  167.1   4.695   61.2  0.0848   32.3  0.2187 -133.2
 2.420  0.5268  166.5   4.656   60.8  0.0852   32.2  0.2174 -134.0
 2.440  0.5275  165.9   4.618   60.5  0.0855   32.1  0.2162 -134.8
 2.460  0.5282  165.3   4.580   60.1  0.0859   32.0  0.2150 -135.6
 2.480  0.5289  164.8   4.542   59.7  0.0863   31.8  0.2138 -136.5
 2.500  0.5298  164.2   4.504   59.3  0.0866   31.7  0.2127 -137.3
 2.520  0.5306  163.6   4.467   58.9  0.0870   31.6  0.2116 -138.1
 2.540  0.5316  163.0   4.429   58.5  0.0874   31.5  0.2106 -139.0
 2.560  0.5326  162.4   4.392   58.1  0.0878   31.4  0.2096 -139.9
 2.580  0.5336  161.9   4.356   57.6  0.0881   31.3  0.2087 -140.7
 2.600  0.5347  161.3   4.319   57.2  0.0885   31.2  0.2078 -141.6
 2.620  0.5352  160.8   4.285   56.9  0.0889   31.1  0.2069 -142.4
 2.640  0.5358  160.2   4.252   56.5  0.0893   31.0  0.2060 -143.2
 2.660  0.5364  159.7   4.218   56.2  0.0896   30.9  0.2051 -144.0
 2.680  0.5370  159.2   4.185   55.8  0.0900   30.8  0.2043 -144.8
 2.700  0.5377  158.7   4.152   55.4  0.0904   30.7  0.2035 -145.6
 2.720  0.5385  158.2   4.119   55.1  0.0908   30.6  0.2028 -146.4
 2.740  0.5393  157.6   4.086   54.7  0.0912   30.5  0.2021 -147.2
 2.760  0.5401  157.1   4.054   54.3  0.0915   30.4  0.2015 -148.0
 2.780  0.5410  156.6   4.021   53.9  0.0919   30.3  0.2009 -148.9
 2.800  0.5419  156.1   3.989   53.5  0.0923   30.2  0.2003 -149.7
 2.820  0.5427  155.6   3.960   53.2  0.0927   30.1  0.1997 -150.5
 2.840  0.5435  155.1   3.931   52.8  0.0931   30.0  0.1991 -151.3
 2.860  0.5443  154.6   3.903   52.5  0.0934   29.8  0.1986 -152.1
 2.880  0.5452  154.1   3.874   52.2  0.0938   29.7  0.1981 -152.9
 2.900  0.5461  153.6   3.846   51.8  0.0942   29.6  0.1976 -153.7
 2.920  0.5471  153.1   3.817   51.5  0.0946   29.5  0.1972 -154.5
 2.940  0.5481  152.7   3.789   51.1  0.0950   29.3  0.1968 -155.3
 2.960  0.5491  152.2   3.761   50.7  0.0953   29.2  0.1965 -156.2
 2.980  0.5502  151.7   3.734   50.4  0.0957   29.1  0.1962 -157.0
 3.000  0.5513  151.2   3.706   50.0  0.0961   29.0  0.1959 -157.8
 3.100  0.5552  148.8   3.585   48.5  0.0979   28.3  0.1947 -161.8
 3.200  0.5600  146.5   3.467   46.8  0.0997   27.6  0.1945 -165.8
 3.300  0.5657  144.2   3.352   45.1  0.1016   27.0  0.1953 -169.8
 3.400  0.5723  141.9   3.241   43.2  0.1034   26.4  0.1970 -173.8
 3.500  0.5798  139.7   3.133   41.2  0.1053   25.8  0.1996 -177.7
 3.600  0.5837  137.6   3.042   39.7  0.1071   25.1  0.2016  178.9
 3.700  0.5883  135.6   2.952   38.2  0.1089   24.3  0.2042  175.6
 3.800  0.5937  133.6   2.865   36.6  0.1107   23.6  0.2075  172.4
 3.900  0.5998  131.6   2.781   34.8  0.1125   23.0  0.2115  169.4
 4.000  0.6066  129.7   2.699   33.0  0.1144   22.3  0.2160  166.4
 4.100  0.6096  128.1   2.625   31.6  0.1160   21.5  0.2194  163.8
 4.200  0.6130  126.5   2.553   30.1  0.1176   20.7  0.2232  161.3
 4.300  0.6170  124.9   2.483   28.6  0.1192   20.0  0.2275  158.9
 4.400  0.6214  123.3   2.415   26.9  0.1208   19.2  0.2321  156.6
 4.500  0.6262  121.8   2.349   25.2  0.1225   18.5  0.2371  154.4
 4.600  0.6277  120.5   2.291   24.0  0.1240   17.8  0.2399  152.4
 4.700  0.6296  119.3   2.235   22.7  0.1256   17.1  0.2430  150.5
 4.800  0.6317  118.1   2.180   21.3  0.1271   16.4  0.2464  148.7
 4.900  0.6342  116.8   2.126   19.9  0.1287   15.7  0.2500  146.9
 5.000  0.6369  115.6   2.073   18.4  0.1303   15.1  0.2539  145.1
 5.100  0.6389  114.3   2.028   17.2  0.1317   14.4  0.2573  143.4
 5.200  0.6412  113.0   1.984   15.9  0.1332   13.7  0.2609  141.7
 5.300  0.6439  111.8   1.941   14.6  0.1347   13.0  0.2647  140.1
 5.400  0.6468  110.5   1.900   13.2  0.1362   12.3  0.2687  138.5
 5.500  0.6501  109.3   1.859   11.8  0.1377   11.6  0.2729  137.0
 5.600  0.6534  108.1   1.824   10.6  0.1392   10.9  0.2769  135.4
 5.700  0.6571  106.8   1.789    9.3  0.1408   10.2  0.2811  133.8
 5.800  0.6610  105.6   1.755    8.0  0.1423    9.5  0.2854  132.3
 5.900  0.6653  104.4   1.723    6.6  0.1439    8.8  0.2900  130.8
 6.000  0.6698  103.2   1.691    5.2  0.1455    8.1  0.2948  129.4
 6.100  0.6733  102.1   1.661    3.9  0.1471    7.2  0.2985  127.9
 6.200  0.6771  101.0   1.632    2.6  0.1487    6.4  0.3024  126.4
 6.300  0.6812   99.9   1.604    1.3  0.1503    5.6  0.3065  125.0
 6.400  0.6855   98.8   1.576   -0.1  0.1520    4.8  0.3107  123.6
 6.500  0.6900   97.7   1.550   -1.6  0.1537    4.0  0.3152  122.2
 6.600  0.6925   96.6   1.525   -2.9  0.1554    3.1  0.3180  120.7
 6.800  0.6984   94.3   1.478   -5.6  0.1588    1.4  0.3241  117.8
 7.000  0.7054   92.1   1.434   -8.5  0.1624   -0.3  0.3311  115.0
 7.200  0.7088   89.8   1.390  -11.2  0.1654   -2.4  0.3391  112.2
 7.400  0.7133   87.4   1.349  -14.0  0.1687   -4.4  0.3479  109.6
 7.600  0.7175   85.0   1.306  -16.8  0.1711   -6.5  0.3574  106.9
 7.800  0.7216   82.3   1.261  -19.7  0.1728   -8.8  0.3677  104.1
 8.000  0.7272   79.7   1.219  -22.7  0.1748  -11.0  0.3788  101.5
 8.200  0.7318   76.9   1.171  -25.2  0.1746  -13.0  0.3904   98.3
 8.400  0.7381   74.1   1.125  -27.9  0.1745  -15.0  0.4031   95.3
 8.600  0.7476   71.4   1.083  -30.3  0.1745  -16.7  0.4187   92.5
 8.800  0.7601   69.0   1.045  -32.5  0.1743  -18.1  0.4369   90.0
 9.000  0.7740   66.6   1.008  -34.8  0.1742  -19.5  0.4560   87.6
 9.200  0.7933   64.7   0.979  -36.8  0.1747  -20.7  0.4784   85.8
 9.400  0.8134   63.0   0.951  -38.9  0.1753  -22.0  0.5012   84.1
 9.600  0.8310   61.4   0.919  -41.0  0.1758  -23.3  0.5225   82.5
 9.800  0.8461   60.0   0.883  -43.0  0.1764  -24.7  0.5421   81.1
10.000  0.8616   58.7   0.849  -45.2  0.1771  -26.1  0.5621   79.8
!
!  f       NFmin   Gammaopt  rn/50
! GHz       dB    MAG  ANG    -
!
! noise parameter not available yet for this operation point!
!
! (c) 2016  Infineon Technologies AG, Munich
