! Infineon Technologies  Discrete & RF Semiconductors
! BFP410
! VCE =  1.5 V,  IC =  2.0 mA
! Common Emitter S-Parameters:                            Nov 2015
# GHz  S  MA  R  50
!  f         S11            S21            S12            S22
! GHz     MAG   ANG      MAG   ANG      MAG   ANG      MAG   ANG
 0.010  0.9217    0.0   6.920  179.4  0.0007   87.1  0.9969    0.7
 0.015  0.9202   -0.5   6.944  179.2  0.0010   87.1  0.9950    0.3
 0.020  0.9188   -1.0   6.969  179.1  0.0014   87.1  0.9931   -0.2
 0.025  0.9172   -1.3   6.964  178.8  0.0017   87.3  0.9936   -0.4
 0.030  0.9157   -1.6   6.959  178.4  0.0021   87.4  0.9940   -0.6
 0.035  0.9141   -1.9   6.955  178.1  0.0024   87.5  0.9945   -0.8
 0.040  0.9126   -2.3   6.951  177.7  0.0028   87.5  0.9950   -1.0
 0.045  0.9111   -2.6   6.947  177.4  0.0031   87.6  0.9955   -1.2
 0.050  0.9097   -2.9   6.943  177.0  0.0035   87.6  0.9960   -1.4
 0.055  0.9099   -3.2   6.946  176.8  0.0039   87.4  0.9959   -1.6
 0.060  0.9102   -3.5   6.950  176.6  0.0042   87.3  0.9957   -1.8
 0.065  0.9105   -3.8   6.953  176.4  0.0046   87.1  0.9956   -1.9
 0.070  0.9109   -4.1   6.956  176.2  0.0050   87.0  0.9955   -2.1
 0.075  0.9112   -4.5   6.960  176.0  0.0053   86.9  0.9954   -2.3
 0.080  0.9116   -4.8   6.964  175.9  0.0057   86.8  0.9953   -2.5
 0.085  0.9120   -5.1   6.967  175.7  0.0061   86.8  0.9953   -2.7
 0.090  0.9124   -5.4   6.971  175.5  0.0065   86.7  0.9952   -2.8
 0.095  0.9129   -5.7   6.975  175.3  0.0068   86.7  0.9951   -3.0
 0.100  0.9134   -6.0   6.979  175.1  0.0072   86.6  0.9951   -3.2
 0.105  0.9130   -6.3   6.978  174.8  0.0076   86.4  0.9949   -3.4
 0.110  0.9127   -6.6   6.977  174.6  0.0079   86.2  0.9947   -3.5
 0.115  0.9123   -6.9   6.976  174.3  0.0083   86.0  0.9946   -3.7
 0.120  0.9120   -7.2   6.975  174.1  0.0086   85.9  0.9944   -3.9
 0.125  0.9117   -7.4   6.974  173.8  0.0090   85.7  0.9942   -4.0
 0.130  0.9114   -7.7   6.974  173.5  0.0094   85.6  0.9941   -4.2
 0.135  0.9112   -8.0   6.973  173.3  0.0097   85.4  0.9940   -4.4
 0.140  0.9110   -8.3   6.973  173.0  0.0101   85.3  0.9938   -4.6
 0.145  0.9108   -8.6   6.973  172.8  0.0104   85.2  0.9937   -4.7
 0.150  0.9106   -8.9   6.973  172.5  0.0108   85.1  0.9936   -4.9
 0.155  0.9104   -9.2   6.972  172.3  0.0111   84.9  0.9933   -5.1
 0.160  0.9102   -9.5   6.970  172.0  0.0115   84.7  0.9929   -5.2
 0.165  0.9101   -9.8   6.969  171.8  0.0118   84.4  0.9926   -5.4
 0.170  0.9099  -10.1   6.968  171.5  0.0122   84.3  0.9923   -5.6
 0.175  0.9098  -10.4   6.967  171.3  0.0125   84.1  0.9919   -5.7
 0.180  0.9098  -10.7   6.967  171.1  0.0129   83.9  0.9916   -5.9
 0.185  0.9097  -11.0   6.966  170.8  0.0132   83.7  0.9913   -6.1
 0.190  0.9097  -11.3   6.966  170.6  0.0136   83.6  0.9911   -6.3
 0.195  0.9097  -11.6   6.965  170.3  0.0139   83.4  0.9908   -6.4
 0.200  0.9097  -11.9   6.965  170.1  0.0143   83.3  0.9905   -6.6
 0.220  0.9078  -13.1   6.948  169.1  0.0157   82.7  0.9892   -7.3
 0.240  0.9064  -14.3   6.933  168.0  0.0172   82.1  0.9880   -8.0
 0.260  0.9047  -15.5   6.924  167.0  0.0186   81.5  0.9864   -8.6
 0.280  0.9029  -16.7   6.921  166.1  0.0200   80.8  0.9844   -9.3
 0.300  0.9015  -17.9   6.920  165.1  0.0214   80.2  0.9825   -9.9
 0.320  0.8998  -19.1   6.907  164.1  0.0228   79.5  0.9805  -10.5
 0.340  0.8986  -20.4   6.895  163.2  0.0243   78.8  0.9786  -11.2
 0.360  0.8970  -21.6   6.881  162.2  0.0257   78.1  0.9764  -11.8
 0.380  0.8951  -22.7   6.864  161.2  0.0270   77.4  0.9739  -12.5
 0.400  0.8935  -23.9   6.849  160.2  0.0284   76.8  0.9715  -13.1
 0.420  0.8912  -25.1   6.828  159.2  0.0298   76.2  0.9690  -13.7
 0.440  0.8894  -26.3   6.810  158.3  0.0311   75.6  0.9666  -14.4
 0.450  0.8886  -26.9   6.801  157.8  0.0318   75.3  0.9655  -14.7
 0.460  0.8871  -27.5   6.791  157.3  0.0325   75.0  0.9640  -15.0
 0.480  0.8844  -28.8   6.774  156.3  0.0339   74.3  0.9610  -15.7
 0.500  0.8822  -30.0   6.758  155.3  0.0353   73.7  0.9582  -16.3
 0.520  0.8790  -31.2   6.729  154.3  0.0366   72.9  0.9547  -16.9
 0.540  0.8761  -32.3   6.702  153.3  0.0379   72.2  0.9514  -17.6
 0.560  0.8736  -33.5   6.677  152.3  0.0392   71.5  0.9482  -18.2
 0.580  0.8715  -34.7   6.654  151.3  0.0405   70.9  0.9451  -18.9
 0.600  0.8698  -35.9   6.633  150.3  0.0418   70.3  0.9421  -19.5
 0.620  0.8662  -37.1   6.607  149.4  0.0431   69.6  0.9384  -20.1
 0.640  0.8630  -38.2   6.582  148.6  0.0443   68.9  0.9348  -20.7
 0.660  0.8602  -39.4   6.558  147.7  0.0456   68.3  0.9312  -21.3
 0.680  0.8577  -40.6   6.536  146.8  0.0469   67.7  0.9278  -21.9
 0.700  0.8556  -41.8   6.516  145.9  0.0482   67.1  0.9245  -22.5
 0.720  0.8519  -42.9   6.481  145.0  0.0494   66.4  0.9204  -23.1
 0.740  0.8486  -44.1   6.447  144.1  0.0506   65.7  0.9163  -23.6
 0.760  0.8456  -45.3   6.414  143.2  0.0518   65.1  0.9124  -24.2
 0.780  0.8429  -46.4   6.384  142.2  0.0530   64.5  0.9086  -24.8
 0.800  0.8406  -47.6   6.355  141.3  0.0542   63.9  0.9048  -25.4
 0.820  0.8367  -48.8   6.324  140.4  0.0553   63.2  0.9004  -26.0
 0.840  0.8332  -49.9   6.295  139.6  0.0565   62.6  0.8962  -26.5
 0.860  0.8300  -51.1   6.267  138.7  0.0576   62.0  0.8920  -27.1
 0.880  0.8272  -52.3   6.240  137.8  0.0587   61.4  0.8879  -27.7
 0.900  0.8247  -53.5   6.215  136.9  0.0599   60.8  0.8839  -28.3
 0.920  0.8205  -54.6   6.178  136.1  0.0610   60.2  0.8792  -28.8
 0.940  0.8165  -55.7   6.143  135.2  0.0621   59.5  0.8745  -29.4
 0.960  0.8129  -56.9   6.109  134.3  0.0632   58.9  0.8700  -29.9
 0.980  0.8097  -58.0   6.076  133.5  0.0643   58.4  0.8655  -30.4
 1.000  0.8067  -59.2   6.045  132.6  0.0654   57.8  0.8611  -31.0
 1.020  0.8028  -60.3   6.010  131.8  0.0664   57.2  0.8565  -31.5
 1.040  0.7992  -61.5   5.977  131.0  0.0674   56.6  0.8520  -32.0
 1.060  0.7959  -62.6   5.945  130.2  0.0684   56.0  0.8476  -32.5
 1.080  0.7929  -63.7   5.914  129.3  0.0694   55.4  0.8432  -33.1
 1.100  0.7902  -64.9   5.884  128.5  0.0704   54.9  0.8389  -33.6
 1.120  0.7863  -66.0   5.849  127.7  0.0713   54.3  0.8341  -34.1
 1.140  0.7827  -67.1   5.815  126.9  0.0723   53.7  0.8294  -34.6
 1.160  0.7794  -68.2   5.782  126.1  0.0733   53.2  0.8248  -35.1
 1.180  0.7764  -69.4   5.750  125.2  0.0742   52.6  0.8202  -35.7
 1.200  0.7737  -70.5   5.720  124.4  0.0752   52.1  0.8157  -36.2
 1.220  0.7697  -71.6   5.685  123.6  0.0760   51.5  0.8110  -36.6
 1.240  0.7659  -72.7   5.650  122.9  0.0769   50.9  0.8063  -37.1
 1.260  0.7624  -73.8   5.617  122.1  0.0778   50.3  0.8017  -37.6
 1.280  0.7592  -74.9   5.585  121.3  0.0786   49.8  0.7971  -38.0
 1.300  0.7563  -76.0   5.554  120.5  0.0795   49.2  0.7926  -38.5
 1.320  0.7521  -77.1   5.516  119.8  0.0802   48.7  0.7878  -38.9
 1.340  0.7481  -78.1   5.479  119.0  0.0810   48.1  0.7831  -39.4
 1.360  0.7444  -79.2   5.443  118.3  0.0818   47.6  0.7785  -39.9
 1.380  0.7410  -80.3   5.408  117.5  0.0825   47.1  0.7739  -40.3
 1.400  0.7378  -81.4   5.374  116.7  0.0833   46.6  0.7693  -40.8
 1.420  0.7343  -82.4   5.340  116.0  0.0840   46.1  0.7648  -41.2
 1.440  0.7310  -83.4   5.307  115.4  0.0848   45.6  0.7604  -41.6
 1.460  0.7280  -84.4   5.274  114.7  0.0855   45.1  0.7560  -42.0
 1.480  0.7251  -85.4   5.242  114.0  0.0862   44.7  0.7517  -42.5
 1.500  0.7225  -86.4   5.211  113.3  0.0870   44.2  0.7474  -42.9
 1.520  0.7189  -87.5   5.179  112.6  0.0876   43.7  0.7428  -43.3
 1.540  0.7155  -88.5   5.148  111.8  0.0883   43.2  0.7382  -43.7
 1.560  0.7123  -89.6   5.118  111.1  0.0890   42.7  0.7336  -44.1
 1.580  0.7094  -90.7   5.088  110.4  0.0896   42.2  0.7291  -44.6
 1.600  0.7068  -91.8   5.060  109.6  0.0903   41.7  0.7246  -45.0
 1.620  0.7032  -92.8   5.028  109.0  0.0909   41.2  0.7205  -45.4
 1.640  0.6997  -93.7   4.997  108.3  0.0915   40.8  0.7164  -45.7
 1.660  0.6965  -94.7   4.966  107.6  0.0921   40.3  0.7123  -46.1
 1.680  0.6935  -95.7   4.936  107.0  0.0928   39.8  0.7083  -46.5
 1.700  0.6907  -96.7   4.907  106.3  0.0934   39.4  0.7043  -46.9
 1.720  0.6877  -97.7   4.873  105.7  0.0939   39.0  0.7002  -47.3
 1.740  0.6848  -98.7   4.840  105.0  0.0945   38.5  0.6961  -47.6
 1.760  0.6822  -99.7   4.807  104.4  0.0951   38.1  0.6921  -48.0
 1.780  0.6798 -100.7   4.775  103.8  0.0956   37.7  0.6881  -48.4
 1.800  0.6776 -101.7   4.743  103.1  0.0962   37.3  0.6841  -48.8
 1.820  0.6745 -102.7   4.715  102.5  0.0967   36.9  0.6799  -49.2
 1.840  0.6716 -103.7   4.688  101.9  0.0973   36.4  0.6757  -49.5
 1.860  0.6689 -104.7   4.661  101.3  0.0979   36.0  0.6716  -49.9
 1.880  0.6664 -105.7   4.635  100.6  0.0984   35.6  0.6675  -50.2
 1.900  0.6641 -106.7   4.609  100.0  0.0990   35.2  0.6634  -50.6
 1.920  0.6609 -107.6   4.579   99.4  0.0994   34.8  0.6595  -50.9
 1.940  0.6580 -108.6   4.550   98.8  0.0999   34.4  0.6557  -51.2
 1.960  0.6552 -109.5   4.521   98.2  0.1003   34.0  0.6518  -51.5
 1.980  0.6525 -110.4   4.493   97.6  0.1008   33.6  0.6480  -51.9
 2.000  0.6501 -111.4   4.465   97.0  0.1012   33.2  0.6442  -52.2
 2.020  0.6468 -112.3   4.437   96.4  0.1016   32.8  0.6402  -52.5
 2.040  0.6436 -113.3   4.410   95.8  0.1020   32.4  0.6361  -52.8
 2.060  0.6406 -114.2   4.383   95.2  0.1024   32.0  0.6321  -53.2
 2.080  0.6378 -115.2   4.357   94.6  0.1028   31.6  0.6281  -53.5
 2.100  0.6351 -116.2   4.331   94.0  0.1032   31.2  0.6242  -53.8
 2.120  0.6327 -117.1   4.306   93.4  0.1037   30.8  0.6202  -54.2
 2.140  0.6304 -118.1   4.281   92.8  0.1041   30.4  0.6163  -54.5
 2.160  0.6283 -119.1   4.257   92.2  0.1045   30.1  0.6124  -54.9
 2.180  0.6264 -120.1   4.233   91.5  0.1050   29.7  0.6085  -55.2
 2.200  0.6247 -121.1   4.210   90.9  0.1054   29.3  0.6047  -55.6
 2.220  0.6217 -122.0   4.184   90.4  0.1057   28.9  0.6008  -55.9
 2.240  0.6188 -122.9   4.159   89.8  0.1060   28.5  0.5970  -56.2
 2.260  0.6160 -123.9   4.134   89.3  0.1064   28.2  0.5932  -56.5
 2.280  0.6135 -124.8   4.109   88.7  0.1067   27.8  0.5894  -56.8
 2.300  0.6111 -125.8   4.085   88.2  0.1070   27.4  0.5856  -57.1
 2.320  0.6089 -126.7   4.061   87.6  0.1074   27.1  0.5818  -57.4
 2.340  0.6068 -127.7   4.037   87.0  0.1077   26.7  0.5781  -57.7
 2.360  0.6049 -128.6   4.014   86.5  0.1081   26.3  0.5743  -58.0
 2.380  0.6032 -129.6   3.991   85.9  0.1084   26.0  0.5706  -58.4
 2.400  0.6017 -130.6   3.969   85.3  0.1088   25.6  0.5669  -58.7
 2.420  0.5992 -131.5   3.945   84.8  0.1090   25.2  0.5631  -59.0
 2.440  0.5968 -132.5   3.921   84.3  0.1092   24.9  0.5594  -59.3
 2.460  0.5946 -133.4   3.897   83.7  0.1095   24.5  0.5557  -59.6
 2.480  0.5926 -134.4   3.874   83.2  0.1097   24.1  0.5520  -59.9
 2.500  0.5907 -135.3   3.851   82.6  0.1099   23.8  0.5483  -60.1
 2.520  0.5890 -136.3   3.828   82.1  0.1102   23.4  0.5446  -60.5
 2.540  0.5875 -137.3   3.806   81.5  0.1104   23.1  0.5409  -60.8
 2.560  0.5861 -138.2   3.784   81.0  0.1107   22.7  0.5373  -61.1
 2.580  0.5849 -139.2   3.762   80.4  0.1109   22.4  0.5336  -61.4
 2.600  0.5839 -140.2   3.741   79.8  0.1112   22.0  0.5300  -61.7
 2.620  0.5818 -141.1   3.719   79.3  0.1114   21.7  0.5266  -62.0
 2.640  0.5797 -142.0   3.697   78.8  0.1115   21.4  0.5232  -62.2
 2.660  0.5779 -142.9   3.675   78.4  0.1117   21.1  0.5199  -62.5
 2.680  0.5762 -143.8   3.654   77.9  0.1119   20.8  0.5165  -62.8
 2.700  0.5746 -144.7   3.633   77.4  0.1121   20.5  0.5132  -63.1
 2.720  0.5732 -145.6   3.612   76.9  0.1122   20.2  0.5099  -63.3
 2.740  0.5719 -146.5   3.592   76.4  0.1124   20.0  0.5066  -63.6
 2.760  0.5707 -147.4   3.572   75.8  0.1126   19.7  0.5033  -63.9
 2.780  0.5697 -148.4   3.552   75.3  0.1128   19.4  0.5000  -64.2
 2.800  0.5689 -149.3   3.532   74.8  0.1130   19.1  0.4967  -64.5
 2.820  0.5674 -150.1   3.512   74.3  0.1131   18.8  0.4936  -64.8
 2.840  0.5661 -151.0   3.492   73.9  0.1133   18.5  0.4904  -65.0
 2.860  0.5649 -151.8   3.472   73.4  0.1134   18.2  0.4873  -65.3
 2.880  0.5638 -152.7   3.453   72.9  0.1135   17.9  0.4842  -65.5
 2.900  0.5628 -153.6   3.434   72.4  0.1137   17.6  0.4811  -65.8
 2.920  0.5620 -154.4   3.415   71.9  0.1138   17.4  0.4780  -66.1
 2.940  0.5613 -155.3   3.396   71.4  0.1139   17.1  0.4750  -66.4
 2.960  0.5607 -156.2   3.378   70.9  0.1141   16.8  0.4719  -66.6
 2.980  0.5602 -157.0   3.360   70.4  0.1142   16.5  0.4688  -66.9
 3.000  0.5599 -157.9   3.342   69.9  0.1144   16.2  0.4658  -67.2
 3.100  0.5529 -161.9   3.250   67.8  0.1146   15.0  0.4524  -68.3
 3.200  0.5487 -166.0   3.162   65.7  0.1149   13.8  0.4391  -69.6
 3.300  0.5473 -170.2   3.078   63.4  0.1152   12.6  0.4261  -70.9
 3.400  0.5488 -174.3   3.000   60.9  0.1156   11.5  0.4133  -72.2
 3.500  0.5531 -178.4   2.928   58.4  0.1160   10.3  0.4007  -73.7
 3.600  0.5510  178.1   2.853   56.5  0.1161    9.4  0.3893  -74.9
 3.700  0.5509  174.6   2.781   54.4  0.1163    8.5  0.3780  -76.1
 3.800  0.5529  171.1   2.714   52.3  0.1165    7.5  0.3669  -77.5
 3.900  0.5569  167.6   2.650   50.1  0.1167    6.6  0.3560  -78.9
 4.000  0.5630  164.2   2.590   47.7  0.1170    5.7  0.3454  -80.4
 4.100  0.5630  161.3   2.525   45.9  0.1169    4.9  0.3356  -81.9
 4.200  0.5645  158.4   2.463   44.0  0.1169    4.0  0.3260  -83.5
 4.300  0.5674  155.5   2.403   42.0  0.1169    3.2  0.3167  -85.3
 4.400  0.5717  152.7   2.347   39.9  0.1169    2.3  0.3078  -87.1
 4.500  0.5774  149.9   2.294   37.7  0.1169    1.5  0.2991  -89.0
 4.600  0.5777  147.7   2.239   36.1  0.1167    0.9  0.2924  -90.5
 4.700  0.5788  145.5   2.186   34.4  0.1165    0.3  0.2858  -92.0
 4.800  0.5808  143.3   2.135   32.6  0.1164   -0.2  0.2795  -93.6
 4.900  0.5837  141.1   2.086   30.7  0.1162   -0.8  0.2734  -95.3
 5.000  0.5874  138.9   2.040   28.8  0.1161   -1.4  0.2676  -97.0
 5.100  0.5882  137.0   1.997   27.3  0.1159   -1.8  0.2619  -98.3
 5.200  0.5896  135.1   1.954   25.7  0.1158   -2.3  0.2564  -99.7
 5.300  0.5916  133.2   1.914   24.1  0.1157   -2.7  0.2510 -101.1
 5.400  0.5943  131.3   1.875   22.4  0.1155   -3.2  0.2458 -102.6
 5.500  0.5977  129.4   1.838   20.6  0.1154   -3.6  0.2407 -104.1
 5.600  0.6001  127.6   1.804   19.2  0.1154   -3.9  0.2349 -105.7
 5.700  0.6031  125.7   1.771   17.6  0.1155   -4.2  0.2292 -107.4
 5.800  0.6067  123.9   1.739   16.1  0.1155   -4.4  0.2238 -109.2
 5.900  0.6109  122.2   1.708   14.5  0.1156   -4.7  0.2186 -111.0
 6.000  0.6157  120.4   1.679   12.8  0.1156   -5.0  0.2136 -113.0
 6.100  0.6191  118.8   1.650   11.3  0.1160   -5.2  0.2091 -115.1
 6.200  0.6231  117.1   1.622    9.8  0.1164   -5.4  0.2050 -117.3
 6.300  0.6275  115.5   1.596    8.3  0.1169   -5.7  0.2011 -119.5
 6.400  0.6324  114.0   1.570    6.7  0.1173   -5.9  0.1976 -121.9
 6.500  0.6378  112.4   1.546    5.0  0.1177   -6.1  0.1944 -124.3
 6.600  0.6409  111.0   1.521    3.6  0.1185   -6.3  0.1908 -126.2
 6.800  0.6481  108.2   1.475    0.5  0.1200   -6.8  0.1843 -130.2
 7.000  0.6569  105.5   1.433   -2.7  0.1215   -7.2  0.1787 -134.4
 7.200  0.6617  102.6   1.391   -5.6  0.1237   -8.1  0.1704 -139.5
 7.400  0.6681   99.7   1.353   -8.8  0.1260   -8.9  0.1637 -145.1
 7.600  0.6736   96.6   1.313  -11.9  0.1280  -10.0  0.1572 -151.8
 7.800  0.6786   93.3   1.271  -15.1  0.1299  -11.3  0.1519 -159.7
 8.000  0.6858   90.0   1.233  -18.5  0.1318  -12.6  0.1498 -168.1
 8.200  0.6900   86.6   1.187  -21.3  0.1324  -13.8  0.1464 -177.0
 8.400  0.6967   83.2   1.144  -24.2  0.1330  -15.1  0.1466  173.9
 8.600  0.7070   80.1   1.106  -27.0  0.1337  -16.1  0.1490  164.2
 8.800  0.7203   77.4   1.071  -29.5  0.1343  -16.8  0.1545  154.1
 9.000  0.7352   74.8   1.039  -32.2  0.1349  -17.6  0.1644  145.0
 9.200  0.7572   72.9   1.009  -34.6  0.1359  -18.3  0.1814  136.1
 9.400  0.7800   71.1   0.980  -37.2  0.1369  -19.0  0.2021  128.9
 9.600  0.8004   69.3   0.948  -39.9  0.1381  -19.8  0.2263  123.5
 9.800  0.8183   67.4   0.911  -42.5  0.1396  -20.6  0.2530  119.6
10.000  0.8370   65.7   0.876  -45.4  0.1411  -21.3  0.2806  116.5
10.200  0.8406   64.4   0.842  -47.2  0.1433  -22.1  0.3032  114.2
10.400  0.8446   63.1   0.808  -49.2  0.1456  -22.9  0.3262  112.3
10.600  0.8412   62.5   0.781  -51.0  0.1476  -24.0  0.3466  110.7
10.800  0.8301   62.5   0.759  -52.3  0.1495  -25.4  0.3643  109.3
11.000  0.8189   62.5   0.737  -53.8  0.1514  -26.8  0.3822  108.1
11.200  0.8091   62.7   0.731  -54.8  0.1518  -28.1  0.3922  108.1
11.400  0.7994   62.9   0.726  -55.9  0.1522  -29.4  0.4023  108.0
11.600  0.8025   62.4   0.720  -58.1  0.1532  -30.7  0.4132  108.4
11.800  0.8186   61.3   0.716  -61.6  0.1548  -32.2  0.4251  109.2
12.000  0.8351   60.3   0.715  -65.1  0.1564  -33.6  0.4371  109.9
!
!  f       NFmin   Gammaopt  rn/50
! GHz       dB    MAG  ANG    -
 0.450      0.86  0.50    7   0.29
 0.900      0.82  0.48   21   0.27
 1.800      1.05  0.37   55   0.23
 2.400      1.09  0.36   63   0.19
 5.500      2.24  0.36 -145   0.21
10.000      3.98  0.70  -56   2.38
!
! (c) 2015  Infineon Technologies AG, Munich
