! Infineon Technologies  Discrete & RF Semiconductors
! BFP420F
!
! VCE =  2.5 V,  IC =  14 mA
! Common Emitter S-Parameters:                            Sep 2011
# GHz  S  MA  R  50
!  f         S11            S21            S12            S22
! GHz     MAG   ANG      MAG   ANG      MAG   ANG      MAG   ANG
 0.030  0.5988   -5.7  32.625  174.3  0.0023   90.4  0.9704   -3.1
 0.040  0.5984   -7.5  32.562  172.8  0.0031   89.9  0.9698   -4.2
 0.050  0.5944   -9.1  32.127  171.0  0.0039   84.9  0.9686   -5.4
 0.060  0.6005  -12.0  32.122  169.9  0.0047   83.4  0.9660   -6.5
 0.070  0.5986  -13.9  32.012  168.6  0.0054   83.8  0.9629   -7.6
 0.080  0.5901  -15.4  31.572  166.9  0.0062   83.7  0.9598   -8.7
 0.090  0.5906  -17.4  31.464  165.6  0.0070   82.2  0.9553   -9.7
 0.100  0.5867  -19.3  31.377  163.9  0.0076   82.1  0.9511  -10.7
 0.110  0.5889  -21.0  30.830  162.8  0.0084   81.7  0.9466  -11.8
 0.120  0.5849  -23.1  30.801  161.0  0.0092   80.4  0.9421  -12.9
 0.130  0.5809  -24.7  30.345  159.8  0.0099   79.8  0.9370  -13.9
 0.140  0.5789  -26.4  30.058  158.5  0.0106   79.8  0.9313  -14.8
 0.150  0.5772  -28.6  29.840  157.2  0.0112   79.1  0.9256  -15.8
 0.200  0.5650  -37.3  28.423  151.5  0.0146   75.6  0.8955  -20.4
 0.250  0.5479  -45.4  26.917  145.8  0.0175   73.2  0.8601  -24.6
 0.300  0.5331  -53.5  25.634  140.8  0.0206   70.5  0.8277  -28.4
 0.350  0.5171  -61.0  24.205  136.2  0.0232   68.3  0.7910  -31.9
 0.400  0.5010  -67.8  22.838  132.0  0.0255   66.4  0.7573  -35.0
 0.450  0.4860  -74.2  21.640  128.2  0.0277   64.8  0.7243  -37.8
 0.500  0.4725  -80.2  20.413  124.7  0.0298   63.4  0.6910  -40.4
 0.600  0.4486  -91.4  18.250  118.4  0.0333   61.1  0.6310  -45.0
 0.700  0.4298 -101.1  16.485  112.9  0.0367   59.7  0.5807  -48.8
 0.800  0.4158 -109.7  14.889  108.1  0.0395   58.7  0.5342  -52.1
 0.900  0.4032 -117.2  13.496  104.3  0.0423   57.9  0.4939  -54.9
 1.000  0.3962 -123.9  12.370  100.7  0.0450   57.5  0.4591  -57.7
 1.100  0.3880 -130.0  11.377   97.5  0.0476   57.1  0.4276  -60.1
 1.200  0.3825 -135.6  10.449   94.5  0.0501   56.9  0.4010  -62.5
 1.300  0.3783 -140.4   9.710   92.1  0.0527   56.8  0.3773  -64.6
 1.400  0.3771 -144.9   9.067   89.7  0.0552   56.8  0.3559  -66.8
 1.500  0.3736 -149.4   8.459   87.1  0.0577   56.6  0.3358  -68.7
 1.600  0.3729 -153.0   7.883   85.2  0.0602   56.5  0.3184  -70.8
 1.700  0.3718 -156.2   7.439   83.5  0.0627   56.5  0.3019  -72.8
 1.800  0.3733 -159.3   7.051   81.8  0.0653   56.5  0.2886  -74.9
 1.900  0.3729 -162.7   6.675   79.6  0.0679   56.3  0.2760  -76.8
 2.000  0.3716 -165.3   6.278   78.1  0.0704   56.1  0.2651  -79.0
 2.200  0.3737 -170.0   5.731   75.3  0.0755   56.0  0.2473  -82.9
 2.400  0.3720 -174.4   5.197   72.3  0.0807   55.5  0.2337  -86.6
 2.600  0.3739 -178.1   4.799   69.9  0.0857   55.2  0.2220  -90.1
 2.800  0.3745  178.1   4.449   67.2  0.0912   54.6  0.2139  -93.4
 3.000  0.3758  174.4   4.138   64.9  0.0964   54.2  0.2066  -96.7
 3.500  0.3808  166.8   3.537   59.3  0.1098   52.5  0.1941 -103.6
 4.000  0.3853  159.8   3.093   53.9  0.1234   50.4  0.1845 -109.7
 4.500  0.3934  153.9   2.754   48.8  0.1371   48.0  0.1731 -115.3
 5.000  0.3980  148.9   2.488   43.8  0.1505   45.4  0.1602 -120.9
 5.500  0.4036  143.6   2.270   38.8  0.1637   42.6  0.1445 -127.1
 6.000  0.4109  137.8   2.089   33.9  0.1767   39.7  0.1256 -134.7
 6.500  0.4229  131.8   1.933   29.0  0.1891   36.7  0.1086 -146.7
 7.000  0.4374  125.6   1.795   24.0  0.2014   33.6  0.0918 -161.8
 7.500  0.4595  121.1   1.676   19.3  0.2139   30.5  0.0843  176.3
 8.000  0.4849  117.0   1.567   14.5  0.2257   27.0  0.0949  149.3
 8.500  0.5147  113.1   1.463    9.8  0.2352   23.3  0.1273  124.9
 9.000  0.5443  109.7   1.369    5.6  0.2433   20.0  0.1760  109.2
 9.500  0.5737  106.5   1.286    1.8  0.2507   17.1  0.2352  101.2
10.000  0.6053  102.6   1.213   -1.7  0.2583   14.3  0.2994   97.3
!
!  f       NFmin   Gammaopt  rn/50
! GHz       dB    MAG  ANG    -
 0.450      1.34  0.08  173   0.11
 0.900      1.34  0.09  161   0.13
 1.900      1.47  0.19  177   0.19
 2.400      1.53  0.19 -180   0.12
 3.500      1.78  0.24 -164   0.17
!
! (c) 2011  Infineon Technologies AG, Munich
