! Infineon Technologies  Discrete & RF Semiconductors
! BFP405
! VCE =  1.0 V,  IC =  1.8 mA
! Common Emitter S-Parameters:                            Jan 2016
# GHz  S  MA  R  50
!  f         S11            S21            S12            S22
! GHz     MAG   ANG      MAG   ANG      MAG   ANG      MAG   ANG
 0.010  0.9266    0.8   6.182 -177.1  0.0007  -27.1  1.0000    0.7
 0.015  0.9302    0.1   6.148 -178.9  0.0003   46.0  0.9960    0.4
 0.020  0.9339   -0.5   6.120  179.2  0.0008  102.9  0.9920    0.1
 0.025  0.9329   -0.7   6.120  179.1  0.0010   98.7  0.9925   -0.1
 0.030  0.9320   -1.0   6.119  179.0  0.0013   96.1  0.9931   -0.2
 0.035  0.9311   -1.2   6.119  178.9  0.0015   94.2  0.9937   -0.4
 0.040  0.9302   -1.4   6.119  178.8  0.0017   92.9  0.9942   -0.5
 0.045  0.9293   -1.7   6.118  178.7  0.0020   91.9  0.9948   -0.7
 0.050  0.9284   -1.9   6.118  178.6  0.0022   91.1  0.9954   -0.8
 0.055  0.9285   -2.1   6.123  178.4  0.0024   90.8  0.9954   -0.9
 0.060  0.9287   -2.2   6.127  178.1  0.0026   90.6  0.9955   -1.1
 0.065  0.9288   -2.4   6.132  177.9  0.0028   90.3  0.9955   -1.2
 0.070  0.9290   -2.5   6.137  177.6  0.0030   90.1  0.9955   -1.3
 0.075  0.9291   -2.7   6.142  177.4  0.0032   90.0  0.9956   -1.5
 0.080  0.9293   -2.9   6.147  177.2  0.0034   89.8  0.9956   -1.6
 0.085  0.9294   -3.0   6.152  176.9  0.0036   89.7  0.9957   -1.7
 0.090  0.9296   -3.2   6.157  176.7  0.0038   89.6  0.9958   -1.8
 0.095  0.9298   -3.3   6.163  176.4  0.0040   89.5  0.9958   -2.0
 0.100  0.9300   -3.5   6.168  176.2  0.0042   89.4  0.9959   -2.1
 0.105  0.9296   -3.7   6.167  176.1  0.0044   89.1  0.9956   -2.2
 0.110  0.9293   -3.9   6.166  175.9  0.0046   88.8  0.9953   -2.3
 0.115  0.9290   -4.1   6.165  175.8  0.0048   88.6  0.9950   -2.4
 0.120  0.9287   -4.3   6.164  175.6  0.0050   88.3  0.9947   -2.5
 0.125  0.9284   -4.5   6.163  175.5  0.0052   88.1  0.9945   -2.6
 0.130  0.9281   -4.7   6.162  175.4  0.0055   87.9  0.9942   -2.8
 0.135  0.9278   -4.9   6.161  175.2  0.0057   87.8  0.9939   -2.9
 0.140  0.9275   -5.1   6.161  175.1  0.0059   87.6  0.9936   -3.0
 0.145  0.9272   -5.3   6.160  174.9  0.0061   87.4  0.9934   -3.1
 0.150  0.9270   -5.5   6.159  174.8  0.0063   87.3  0.9931   -3.2
 0.155  0.9266   -5.7   6.158  174.6  0.0065   87.2  0.9930   -3.3
 0.160  0.9263   -5.9   6.156  174.4  0.0067   87.0  0.9929   -3.4
 0.165  0.9260   -6.1   6.155  174.2  0.0070   86.9  0.9928   -3.6
 0.170  0.9256   -6.3   6.154  174.0  0.0072   86.8  0.9927   -3.7
 0.175  0.9253   -6.4   6.153  173.8  0.0074   86.7  0.9926   -3.8
 0.180  0.9250   -6.6   6.152  173.6  0.0076   86.6  0.9926   -3.9
 0.185  0.9247   -6.8   6.151  173.4  0.0078   86.5  0.9925   -4.0
 0.190  0.9244   -7.0   6.150  173.2  0.0081   86.4  0.9924   -4.2
 0.195  0.9242   -7.2   6.150  173.0  0.0083   86.3  0.9924   -4.3
 0.200  0.9239   -7.4   6.149  172.8  0.0085   86.2  0.9923   -4.4
 0.220  0.9235   -8.2   6.158  172.1  0.0093   85.7  0.9890   -4.8
 0.240  0.9233   -8.9   6.169  171.4  0.0102   85.3  0.9857   -5.3
 0.260  0.9229   -9.7   6.169  170.7  0.0110   85.0  0.9854   -5.7
 0.280  0.9224  -10.6   6.161  170.0  0.0119   84.7  0.9880   -6.0
 0.300  0.9221  -11.4   6.153  169.4  0.0127   84.5  0.9906   -6.4
 0.320  0.9211  -12.0   6.141  168.6  0.0135   83.9  0.9888   -6.9
 0.340  0.9203  -12.7   6.129  167.9  0.0144   83.3  0.9870   -7.4
 0.360  0.9197  -13.4   6.125  167.1  0.0152   82.9  0.9855   -7.8
 0.380  0.9194  -14.2   6.129  166.4  0.0161   82.4  0.9842   -8.2
 0.400  0.9193  -15.0   6.133  165.6  0.0169   82.0  0.9829   -8.6
 0.420  0.9177  -15.8   6.118  164.9  0.0177   81.6  0.9819   -9.0
 0.440  0.9163  -16.5   6.104  164.2  0.0186   81.2  0.9810   -9.5
 0.450  0.9156  -16.9   6.097  163.8  0.0190   81.0  0.9806   -9.7
 0.460  0.9150  -17.3   6.096  163.5  0.0194   80.8  0.9799   -9.9
 0.480  0.9139  -18.0   6.096  162.8  0.0203   80.3  0.9785  -10.4
 0.500  0.9129  -18.7   6.096  162.1  0.0212   79.9  0.9771  -10.8
 0.520  0.9109  -19.4   6.081  161.4  0.0220   79.4  0.9756  -11.2
 0.540  0.9091  -20.2   6.067  160.6  0.0229   78.9  0.9742  -11.6
 0.560  0.9074  -20.9   6.055  159.9  0.0237   78.5  0.9728  -12.1
 0.580  0.9059  -21.7   6.043  159.1  0.0246   78.1  0.9715  -12.5
 0.600  0.9045  -22.4   6.032  158.4  0.0254   77.7  0.9702  -12.9
 0.620  0.9025  -23.2   6.020  157.7  0.0262   77.2  0.9684  -13.3
 0.640  0.9006  -23.9   6.009  157.0  0.0270   76.8  0.9666  -13.7
 0.660  0.8989  -24.7   5.999  156.4  0.0279   76.4  0.9648  -14.2
 0.680  0.8973  -25.4   5.990  155.7  0.0287   76.0  0.9631  -14.6
 0.700  0.8959  -26.2   5.982  155.0  0.0295   75.6  0.9615  -15.0
 0.720  0.8935  -27.0   5.971  154.3  0.0303   75.1  0.9595  -15.4
 0.740  0.8912  -27.7   5.962  153.6  0.0311   74.7  0.9576  -15.8
 0.760  0.8891  -28.5   5.953  152.8  0.0320   74.2  0.9558  -16.3
 0.780  0.8871  -29.2   5.945  152.1  0.0328   73.8  0.9540  -16.7
 0.800  0.8853  -30.0   5.938  151.4  0.0336   73.4  0.9522  -17.1
 0.820  0.8829  -30.7   5.923  150.7  0.0344   72.9  0.9499  -17.5
 0.840  0.8806  -31.5   5.908  150.0  0.0352   72.5  0.9477  -17.9
 0.860  0.8785  -32.2   5.895  149.3  0.0360   72.1  0.9455  -18.4
 0.880  0.8765  -33.0   5.882  148.6  0.0368   71.7  0.9434  -18.8
 0.900  0.8747  -33.7   5.870  147.9  0.0376   71.3  0.9413  -19.2
 0.920  0.8719  -34.4   5.853  147.2  0.0384   70.8  0.9390  -19.6
 0.940  0.8693  -35.2   5.837  146.6  0.0392   70.4  0.9367  -20.0
 0.960  0.8668  -35.9   5.821  145.9  0.0399   69.9  0.9345  -20.4
 0.980  0.8645  -36.7   5.807  145.2  0.0407   69.5  0.9323  -20.8
 1.000  0.8623  -37.4   5.793  144.5  0.0415   69.1  0.9302  -21.2
 1.020  0.8594  -38.2   5.778  143.8  0.0423   68.6  0.9277  -21.6
 1.040  0.8567  -38.9   5.764  143.2  0.0431   68.2  0.9253  -22.0
 1.060  0.8542  -39.7   5.751  142.5  0.0438   67.7  0.9229  -22.5
 1.080  0.8518  -40.5   5.739  141.9  0.0446   67.3  0.9206  -22.9
 1.100  0.8496  -41.3   5.727  141.2  0.0454   66.9  0.9183  -23.3
 1.120  0.8464  -42.0   5.708  140.5  0.0461   66.5  0.9156  -23.7
 1.140  0.8434  -42.7   5.690  139.9  0.0469   66.0  0.9129  -24.1
 1.160  0.8404  -43.4   5.672  139.2  0.0476   65.6  0.9102  -24.4
 1.180  0.8377  -44.2   5.655  138.6  0.0484   65.2  0.9076  -24.8
 1.200  0.8350  -44.9   5.639  137.9  0.0491   64.8  0.9050  -25.2
 1.220  0.8319  -45.6   5.619  137.2  0.0498   64.4  0.9023  -25.6
 1.240  0.8290  -46.4   5.600  136.6  0.0505   63.9  0.8996  -26.0
 1.260  0.8262  -47.2   5.582  135.9  0.0513   63.5  0.8969  -26.3
 1.280  0.8236  -47.9   5.565  135.3  0.0520   63.1  0.8943  -26.7
 1.300  0.8211  -48.7   5.548  134.6  0.0527   62.7  0.8917  -27.1
 1.320  0.8178  -49.4   5.529  134.0  0.0534   62.3  0.8888  -27.5
 1.340  0.8147  -50.2   5.512  133.3  0.0541   61.8  0.8859  -27.9
 1.360  0.8117  -51.0   5.494  132.7  0.0548   61.4  0.8831  -28.2
 1.380  0.8088  -51.7   5.478  132.0  0.0555   61.0  0.8803  -28.6
 1.400  0.8061  -52.5   5.462  131.4  0.0562   60.6  0.8775  -29.0
 1.420  0.8026  -53.2   5.442  130.8  0.0569   60.2  0.8746  -29.4
 1.440  0.7992  -54.0   5.422  130.2  0.0576   59.8  0.8716  -29.7
 1.460  0.7960  -54.7   5.402  129.6  0.0582   59.4  0.8688  -30.1
 1.480  0.7929  -55.4   5.384  128.9  0.0589   59.0  0.8659  -30.4
 1.500  0.7899  -56.2   5.366  128.3  0.0596   58.6  0.8631  -30.8
 1.520  0.7864  -56.9   5.348  127.7  0.0603   58.2  0.8601  -31.2
 1.540  0.7830  -57.7   5.331  127.1  0.0609   57.8  0.8572  -31.5
 1.560  0.7798  -58.4   5.315  126.5  0.0616   57.4  0.8543  -31.9
 1.580  0.7767  -59.1   5.299  125.8  0.0622   57.0  0.8514  -32.2
 1.600  0.7737  -59.9   5.284  125.2  0.0629   56.6  0.8486  -32.6
 1.620  0.7704  -60.6   5.263  124.6  0.0635   56.2  0.8455  -32.9
 1.640  0.7673  -61.3   5.243  124.0  0.0641   55.8  0.8424  -33.3
 1.660  0.7643  -62.0   5.223  123.4  0.0648   55.4  0.8394  -33.6
 1.680  0.7614  -62.8   5.204  122.8  0.0654   55.0  0.8364  -34.0
 1.700  0.7586  -63.5   5.186  122.2  0.0660   54.6  0.8334  -34.3
 1.720  0.7548  -64.2   5.165  121.6  0.0666   54.2  0.8304  -34.6
 1.740  0.7511  -65.0   5.144  121.0  0.0672   53.8  0.8274  -35.0
 1.760  0.7476  -65.8   5.124  120.4  0.0678   53.4  0.8245  -35.3
 1.780  0.7442  -66.5   5.104  119.8  0.0684   53.0  0.8216  -35.7
 1.800  0.7409  -67.3   5.085  119.2  0.0690   52.6  0.8187  -36.0
 1.820  0.7377  -68.0   5.066  118.6  0.0696   52.2  0.8156  -36.3
 1.840  0.7346  -68.8   5.048  118.1  0.0702   51.9  0.8125  -36.6
 1.860  0.7317  -69.6   5.030  117.5  0.0707   51.5  0.8094  -37.0
 1.880  0.7289  -70.3   5.013  117.0  0.0713   51.1  0.8064  -37.3
 1.900  0.7262  -71.1   4.996  116.4  0.0719   50.8  0.8034  -37.6
 1.920  0.7226  -71.8   4.976  115.8  0.0724   50.4  0.8004  -37.9
 1.940  0.7191  -72.5   4.957  115.3  0.0730   50.0  0.7974  -38.2
 1.960  0.7157  -73.2   4.938  114.7  0.0735   49.6  0.7945  -38.6
 1.980  0.7125  -74.0   4.920  114.2  0.0741   49.3  0.7916  -38.9
 2.000  0.7093  -74.7   4.902  113.6  0.0746   48.9  0.7887  -39.2
 2.020  0.7057  -75.4   4.882  113.1  0.0751   48.5  0.7856  -39.5
 2.040  0.7021  -76.1   4.862  112.5  0.0756   48.1  0.7825  -39.8
 2.060  0.6987  -76.9   4.843  112.0  0.0761   47.8  0.7794  -40.1
 2.080  0.6954  -77.6   4.824  111.4  0.0766   47.4  0.7763  -40.4
 2.100  0.6922  -78.4   4.806  110.9  0.0771   47.0  0.7733  -40.7
 2.120  0.6891  -79.1   4.788  110.3  0.0776   46.7  0.7703  -41.0
 2.140  0.6862  -79.9   4.770  109.7  0.0781   46.3  0.7673  -41.3
 2.160  0.6834  -80.6   4.753  109.2  0.0787   46.0  0.7643  -41.6
 2.180  0.6807  -81.4   4.737  108.6  0.0792   45.6  0.7613  -41.9
 2.200  0.6781  -82.2   4.721  108.0  0.0797   45.3  0.7584  -42.2
 2.220  0.6746  -82.9   4.702  107.5  0.0802   44.9  0.7553  -42.5
 2.240  0.6713  -83.6   4.683  107.0  0.0806   44.6  0.7522  -42.8
 2.260  0.6680  -84.4   4.664  106.5  0.0811   44.2  0.7491  -43.1
 2.280  0.6649  -85.1   4.646  105.9  0.0815   43.9  0.7461  -43.4
 2.300  0.6619  -85.9   4.629  105.4  0.0820   43.5  0.7430  -43.7
 2.320  0.6590  -86.6   4.611  104.9  0.0825   43.2  0.7400  -44.0
 2.340  0.6562  -87.4   4.594  104.3  0.0830   42.8  0.7370  -44.3
 2.360  0.6535  -88.1   4.578  103.8  0.0834   42.5  0.7341  -44.6
 2.380  0.6509  -88.9   4.562  103.2  0.0839   42.1  0.7311  -44.9
 2.400  0.6485  -89.7   4.546  102.7  0.0844   41.8  0.7282  -45.2
 2.420  0.6451  -90.4   4.527  102.2  0.0848   41.5  0.7251  -45.5
 2.440  0.6419  -91.1   4.508  101.7  0.0852   41.1  0.7221  -45.7
 2.460  0.6387  -91.9   4.490  101.2  0.0857   40.8  0.7191  -46.0
 2.480  0.6356  -92.6   4.472  100.7  0.0861   40.5  0.7160  -46.3
 2.500  0.6327  -93.4   4.454  100.2  0.0865   40.2  0.7130  -46.6
 2.520  0.6299  -94.1   4.437   99.6  0.0869   39.8  0.7101  -46.9
 2.540  0.6271  -94.9   4.420   99.1  0.0874   39.5  0.7071  -47.1
 2.560  0.6245  -95.6   4.404   98.6  0.0878   39.2  0.7041  -47.4
 2.580  0.6220  -96.4   4.388   98.0  0.0883   38.9  0.7012  -47.7
 2.600  0.6196  -97.2   4.372   97.5  0.0887   38.6  0.6983  -48.0
 2.620  0.6165  -97.9   4.355   97.0  0.0891   38.3  0.6952  -48.3
 2.640  0.6135  -98.7   4.339   96.5  0.0894   37.9  0.6921  -48.6
 2.660  0.6105  -99.5   4.323   96.1  0.0898   37.6  0.6891  -48.8
 2.680  0.6077 -100.2   4.307   95.6  0.0902   37.2  0.6860  -49.1
 2.700  0.6050 -101.0   4.291   95.1  0.0906   36.9  0.6830  -49.4
 2.720  0.6025 -101.8   4.276   94.6  0.0909   36.6  0.6800  -49.7
 2.740  0.6000 -102.6   4.261   94.1  0.0913   36.3  0.6770  -50.0
 2.760  0.5977 -103.4   4.246   93.6  0.0917   35.9  0.6740  -50.3
 2.780  0.5954 -104.2   4.232   93.1  0.0921   35.6  0.6710  -50.6
 2.800  0.5933 -105.0   4.218   92.6  0.0925   35.3  0.6681  -50.9
 2.820  0.5902 -105.7   4.201   92.1  0.0928   35.0  0.6651  -51.2
 2.840  0.5872 -106.4   4.184   91.6  0.0932   34.7  0.6621  -51.4
 2.860  0.5843 -107.2   4.167   91.1  0.0935   34.3  0.6591  -51.7
 2.880  0.5815 -107.9   4.151   90.6  0.0939   34.0  0.6561  -52.0
 2.900  0.5788 -108.7   4.135   90.1  0.0942   33.7  0.6531  -52.2
 2.920  0.5762 -109.4   4.119   89.6  0.0946   33.4  0.6502  -52.5
 2.940  0.5737 -110.2   4.104   89.1  0.0949   33.1  0.6472  -52.8
 2.960  0.5713 -110.9   4.089   88.6  0.0953   32.8  0.6443  -53.0
 2.980  0.5690 -111.7   4.074   88.0  0.0956   32.5  0.6414  -53.3
 3.000  0.5668 -112.5   4.060   87.5  0.0960   32.2  0.6385  -53.6
 3.100  0.5498 -116.1   3.973   85.3  0.0972   30.7  0.6232  -54.8
 3.200  0.5350 -119.8   3.892   83.0  0.0985   29.2  0.6081  -56.0
 3.300  0.5227 -123.8   3.818   80.6  0.0999   27.8  0.5933  -57.2
 3.400  0.5130 -127.9   3.750   78.2  0.1013   26.4  0.5788  -58.6
 3.500  0.5060 -132.2   3.690   75.6  0.1028   25.0  0.5647  -60.0
 3.600  0.4922 -135.9   3.609   73.5  0.1036   23.7  0.5509  -61.1
 3.700  0.4805 -139.8   3.533   71.4  0.1044   22.4  0.5374  -62.3
 3.800  0.4713 -143.9   3.462   69.2  0.1053   21.1  0.5240  -63.5
 3.900  0.4645 -148.2   3.397   66.8  0.1062   19.8  0.5110  -64.8
 4.000  0.4603 -152.5   3.337   64.4  0.1072   18.6  0.4982  -66.2
 4.100  0.4516 -156.4   3.264   62.5  0.1077   17.4  0.4864  -67.3
 4.200  0.4450 -160.4   3.195   60.5  0.1082   16.3  0.4748  -68.4
 4.300  0.4408 -164.6   3.130   58.4  0.1088   15.1  0.4634  -69.6
 4.400  0.4389 -168.8   3.069   56.2  0.1094   14.0  0.4522  -70.9
 4.500  0.4393 -173.0   3.013   54.0  0.1101   12.9  0.4412  -72.2
 4.600  0.4370 -176.5   2.948   52.3  0.1103   12.0  0.4314  -73.2
 4.700  0.4364 -180.0   2.886   50.4  0.1106   11.0  0.4217  -74.3
 4.800  0.4374  176.5   2.828   48.5  0.1109   10.1  0.4122  -75.5
 4.900  0.4400  173.0   2.772   46.6  0.1112    9.1  0.4029  -76.7
 5.000  0.4442  169.6   2.720   44.5  0.1115    8.2  0.3937  -77.9
 5.100  0.4452  166.9   2.666   42.9  0.1116    7.4  0.3857  -78.8
 5.200  0.4472  164.1   2.614   41.3  0.1118    6.6  0.3779  -79.7
 5.300  0.4502  161.4   2.565   39.6  0.1120    5.9  0.3701  -80.7
 5.400  0.4542  158.8   2.518   37.8  0.1122    5.1  0.3624  -81.7
 5.500  0.4591  156.2   2.473   36.0  0.1124    4.3  0.3549  -82.7
 5.600  0.4598  154.0   2.430   34.5  0.1126    3.7  0.3478  -83.5
 5.700  0.4612  151.8   2.388   33.0  0.1128    3.1  0.3407  -84.4
 5.800  0.4632  149.7   2.348   31.4  0.1130    2.5  0.3337  -85.3
 5.900  0.4660  147.5   2.310   29.7  0.1133    1.9  0.3268  -86.3
 6.000  0.4693  145.4   2.274   28.0  0.1135    1.3  0.3200  -87.3
 6.100  0.4694  143.4   2.239   26.5  0.1139    0.7  0.3135  -88.2
 6.200  0.4701  141.4   2.205   25.0  0.1142    0.2  0.3070  -89.2
 6.300  0.4713  139.4   2.172   23.4  0.1146   -0.4  0.3006  -90.2
 6.400  0.4731  137.4   2.142   21.8  0.1150   -0.9  0.2944  -91.3
 6.500  0.4755  135.4   2.113   20.1  0.1154   -1.5  0.2882  -92.4
 6.600  0.4740  133.2   2.079   18.6  0.1158   -2.0  0.2819  -93.3
 6.800  0.4733  128.7   2.014   15.4  0.1167   -3.1  0.2694  -95.4
 7.000  0.4754  124.2   1.957   12.0  0.1176   -4.2  0.2574  -97.6
 7.200  0.4786  119.6   1.898    9.1  0.1187   -5.4  0.2453  -99.8
 7.400  0.4848  115.0   1.844    5.9  0.1199   -6.5  0.2336 -102.1
 7.600  0.4948  110.5   1.792    2.9  0.1210   -7.8  0.2208 -104.7
 7.800  0.5084  106.2   1.743   -0.1  0.1220   -9.1  0.2068 -107.5
 8.000  0.5247  102.1   1.698   -3.2  0.1231  -10.4  0.1935 -110.7
 8.200  0.5413   98.5   1.646   -6.0  0.1235  -11.7  0.1746 -114.0
 8.400  0.5600   95.1   1.598   -9.0  0.1239  -13.0  0.1563 -118.2
 8.600  0.5782   92.2   1.554  -11.8  0.1243  -14.1  0.1372 -123.6
 8.800  0.5954   89.7   1.513  -14.5  0.1248  -15.2  0.1180 -131.2
 9.000  0.6137   87.3   1.475  -17.4  0.1253  -16.3  0.1015 -141.5
 9.200  0.6295   84.8   1.434  -20.4  0.1256  -17.4  0.0886 -156.0
 9.400  0.6464   82.4   1.396  -23.5  0.1260  -18.5  0.0830 -173.9
 9.600  0.6586   79.6   1.352  -26.4  0.1263  -19.4  0.0868  168.1
 9.800  0.6667   76.4   1.300  -29.2  0.1267  -20.3  0.0987  153.4
10.000  0.6768   73.3   1.251  -32.2  0.1270  -21.1  0.1156  142.4
!
!  f       NFmin   Gammaopt  rn/50
! GHz       dB    MAG  ANG    -
!
! noise parameter not available yet for this operation point!
!
! (c) 2016  Infineon Technologies AG, Munich
