! Infineon Technologies  Discrete & RF Semiconductors
! BFP405
! VCE =  4.0 V,  IC =  3.5 mA
! Common Emitter S-Parameters:                            Jan 2016
# GHz  S  MA  R  50
!  f         S11            S21            S12            S22
! GHz     MAG   ANG      MAG   ANG      MAG   ANG      MAG   ANG
 0.010  0.8736   -0.1  10.622 -177.8  0.0011  -32.7  0.9928    1.0
 0.015  0.8796   -0.5  10.550 -179.8  0.0007    8.1  0.9900    0.6
 0.020  0.8856   -0.8  10.490  178.2  0.0009   61.1  0.9873    0.1
 0.025  0.8853   -1.0  10.472  178.1  0.0010   63.8  0.9878   -0.0
 0.030  0.8849   -1.3  10.455  178.0  0.0012   66.0  0.9884   -0.2
 0.035  0.8846   -1.5  10.437  177.9  0.0013   67.6  0.9889   -0.3
 0.040  0.8843   -1.7  10.420  177.7  0.0014   69.0  0.9895   -0.4
 0.045  0.8841   -2.0  10.402  177.6  0.0016   70.1  0.9900   -0.6
 0.050  0.8838   -2.2  10.385  177.5  0.0017   71.1  0.9906   -0.7
 0.055  0.8839   -2.4  10.387  177.2  0.0018   72.3  0.9906   -0.8
 0.060  0.8839   -2.7  10.390  177.0  0.0020   73.3  0.9907   -1.0
 0.065  0.8840   -2.9  10.392  176.7  0.0021   74.2  0.9907   -1.1
 0.070  0.8841   -3.2  10.395  176.5  0.0023   75.0  0.9907   -1.2
 0.075  0.8843   -3.4  10.398  176.2  0.0024   75.7  0.9908   -1.4
 0.080  0.8844   -3.6  10.401  176.0  0.0025   76.3  0.9908   -1.5
 0.085  0.8845   -3.9  10.405  175.7  0.0027   76.9  0.9909   -1.6
 0.090  0.8847   -4.1  10.408  175.5  0.0028   77.3  0.9910   -1.7
 0.095  0.8849   -4.4  10.412  175.2  0.0030   77.8  0.9910   -1.9
 0.100  0.8851   -4.6  10.416  175.0  0.0031   78.2  0.9911   -2.0
 0.105  0.8846   -4.8  10.411  174.8  0.0033   78.4  0.9909   -2.1
 0.110  0.8842   -5.0  10.406  174.7  0.0034   78.7  0.9907   -2.2
 0.115  0.8838   -5.2  10.401  174.5  0.0036   78.9  0.9904   -2.3
 0.120  0.8834   -5.4  10.396  174.3  0.0037   79.1  0.9902   -2.4
 0.125  0.8830   -5.6  10.391  174.2  0.0039   79.2  0.9900   -2.5
 0.130  0.8826   -5.9  10.386  174.0  0.0041   79.4  0.9898   -2.7
 0.135  0.8822   -6.1  10.381  173.8  0.0042   79.5  0.9896   -2.8
 0.140  0.8818   -6.3  10.377  173.6  0.0044   79.7  0.9894   -2.9
 0.145  0.8814   -6.5  10.372  173.5  0.0045   79.8  0.9892   -3.0
 0.150  0.8811   -6.7  10.368  173.3  0.0047   79.9  0.9890   -3.1
 0.155  0.8807   -6.9  10.364  173.1  0.0048   80.1  0.9889   -3.2
 0.160  0.8803   -7.2  10.360  172.8  0.0050   80.2  0.9887   -3.3
 0.165  0.8799   -7.4  10.357  172.6  0.0051   80.3  0.9886   -3.4
 0.170  0.8795   -7.7  10.354  172.4  0.0053   80.5  0.9885   -3.5
 0.175  0.8792   -7.9  10.350  172.2  0.0054   80.6  0.9884   -3.6
 0.180  0.8788   -8.1  10.347  171.9  0.0055   80.7  0.9882   -3.8
 0.185  0.8785   -8.4  10.345  171.7  0.0057   80.8  0.9881   -3.9
 0.190  0.8782   -8.6  10.342  171.5  0.0058   80.9  0.9880   -4.0
 0.195  0.8779   -8.9  10.339  171.2  0.0060   81.0  0.9879   -4.1
 0.200  0.8776   -9.1  10.337  171.0  0.0061   81.1  0.9878   -4.2
 0.220  0.8764  -10.0  10.343  170.2  0.0067   81.2  0.9847   -4.7
 0.240  0.8754  -10.9  10.351  169.3  0.0073   81.3  0.9818   -5.2
 0.260  0.8747  -11.8  10.342  168.5  0.0079   81.2  0.9812   -5.6
 0.280  0.8742  -12.7  10.314  167.8  0.0085   80.9  0.9829   -5.9
 0.300  0.8740  -13.6  10.289  167.0  0.0091   80.6  0.9847   -6.3
 0.320  0.8718  -14.5  10.259  166.1  0.0097   80.3  0.9829   -6.7
 0.340  0.8697  -15.4  10.232  165.2  0.0104   80.0  0.9811   -7.2
 0.360  0.8681  -16.3  10.216  164.4  0.0110   79.7  0.9795   -7.6
 0.380  0.8670  -17.2  10.211  163.5  0.0116   79.3  0.9781   -8.0
 0.400  0.8661  -18.2  10.209  162.6  0.0122   79.0  0.9768   -8.4
 0.420  0.8635  -19.1  10.174  161.7  0.0128   78.6  0.9756   -8.8
 0.440  0.8610  -20.0  10.141  160.8  0.0134   78.2  0.9744   -9.2
 0.450  0.8599  -20.4  10.125  160.4  0.0137   78.0  0.9738   -9.4
 0.460  0.8587  -20.8  10.117  160.0  0.0140   77.8  0.9730   -9.6
 0.480  0.8564  -21.7  10.103  159.2  0.0145   77.5  0.9713  -10.1
 0.500  0.8543  -22.6  10.090  158.4  0.0151   77.2  0.9697  -10.5
 0.520  0.8511  -23.5  10.053  157.6  0.0157   76.7  0.9679  -10.9
 0.540  0.8482  -24.4  10.018  156.7  0.0163   76.3  0.9661  -11.3
 0.560  0.8455  -25.3   9.986  155.9  0.0168   75.9  0.9644  -11.7
 0.580  0.8429  -26.2   9.955  155.1  0.0174   75.5  0.9627  -12.1
 0.600  0.8406  -27.1   9.927  154.2  0.0180   75.2  0.9611  -12.5
 0.620  0.8374  -27.9   9.892  153.4  0.0186   74.8  0.9590  -12.9
 0.640  0.8343  -28.8   9.858  152.6  0.0192   74.4  0.9569  -13.3
 0.660  0.8315  -29.7   9.827  151.8  0.0197   74.1  0.9549  -13.7
 0.680  0.8288  -30.5   9.798  151.0  0.0203   73.7  0.9529  -14.1
 0.700  0.8263  -31.4   9.770  150.2  0.0209   73.4  0.9510  -14.5
 0.720  0.8225  -32.3   9.737  149.4  0.0214   73.0  0.9487  -14.9
 0.740  0.8189  -33.2   9.706  148.6  0.0220   72.5  0.9465  -15.3
 0.760  0.8155  -34.1   9.676  147.8  0.0225   72.1  0.9443  -15.7
 0.780  0.8123  -35.0   9.649  146.9  0.0231   71.8  0.9422  -16.1
 0.800  0.8093  -35.9   9.624  146.1  0.0236   71.4  0.9401  -16.5
 0.820  0.8053  -36.7   9.582  145.3  0.0241   71.0  0.9376  -16.9
 0.840  0.8014  -37.6   9.542  144.5  0.0247   70.6  0.9351  -17.3
 0.860  0.7977  -38.4   9.504  143.7  0.0252   70.2  0.9326  -17.6
 0.880  0.7942  -39.2   9.468  142.9  0.0258   69.8  0.9302  -18.0
 0.900  0.7909  -40.1   9.434  142.1  0.0263   69.5  0.9278  -18.4
 0.920  0.7868  -40.9   9.389  141.4  0.0268   69.1  0.9252  -18.8
 0.940  0.7829  -41.8   9.346  140.6  0.0273   68.7  0.9227  -19.1
 0.960  0.7791  -42.7   9.304  139.8  0.0278   68.3  0.9203  -19.5
 0.980  0.7755  -43.5   9.264  139.1  0.0283   68.0  0.9178  -19.8
 1.000  0.7721  -44.4   9.226  138.3  0.0288   67.6  0.9154  -20.2
 1.020  0.7679  -45.2   9.184  137.6  0.0293   67.2  0.9126  -20.6
 1.040  0.7638  -46.1   9.144  136.8  0.0298   66.8  0.9099  -20.9
 1.060  0.7598  -46.9   9.105  136.1  0.0303   66.4  0.9072  -21.3
 1.080  0.7561  -47.7   9.068  135.4  0.0308   66.1  0.9045  -21.6
 1.100  0.7525  -48.6   9.032  134.6  0.0313   65.7  0.9019  -22.0
 1.120  0.7478  -49.4   8.984  133.9  0.0318   65.3  0.8989  -22.4
 1.140  0.7433  -50.3   8.938  133.2  0.0323   64.9  0.8960  -22.7
 1.160  0.7390  -51.1   8.893  132.5  0.0327   64.6  0.8930  -23.1
 1.180  0.7348  -51.9   8.849  131.7  0.0332   64.2  0.8901  -23.4
 1.200  0.7308  -52.8   8.807  131.0  0.0337   63.9  0.8873  -23.8
 1.220  0.7264  -53.6   8.760  130.3  0.0341   63.5  0.8844  -24.1
 1.240  0.7221  -54.4   8.715  129.6  0.0346   63.2  0.8815  -24.4
 1.260  0.7180  -55.2   8.670  128.9  0.0350   62.9  0.8787  -24.8
 1.280  0.7140  -56.0   8.628  128.2  0.0355   62.5  0.8759  -25.1
 1.300  0.7101  -56.8   8.586  127.5  0.0359   62.2  0.8731  -25.4
 1.320  0.7057  -57.6   8.540  126.8  0.0363   61.8  0.8701  -25.7
 1.340  0.7015  -58.5   8.495  126.2  0.0368   61.5  0.8671  -26.0
 1.360  0.6973  -59.3   8.452  125.5  0.0372   61.2  0.8641  -26.4
 1.380  0.6934  -60.1   8.409  124.8  0.0377   60.8  0.8612  -26.7
 1.400  0.6896  -61.0   8.368  124.1  0.0381   60.5  0.8583  -27.0
 1.420  0.6851  -61.8   8.320  123.5  0.0385   60.2  0.8553  -27.3
 1.440  0.6807  -62.5   8.274  122.8  0.0389   59.8  0.8523  -27.6
 1.460  0.6764  -63.3   8.228  122.1  0.0393   59.5  0.8493  -28.0
 1.480  0.6722  -64.1   8.183  121.5  0.0397   59.2  0.8463  -28.3
 1.500  0.6682  -64.9   8.140  120.8  0.0401   58.9  0.8434  -28.6
 1.520  0.6636  -65.7   8.098  120.2  0.0405   58.6  0.8404  -28.9
 1.540  0.6591  -66.5   8.057  119.5  0.0409   58.2  0.8375  -29.2
 1.560  0.6548  -67.3   8.016  118.9  0.0413   57.9  0.8345  -29.5
 1.580  0.6506  -68.2   7.977  118.3  0.0417   57.6  0.8316  -29.8
 1.600  0.6465  -69.0   7.939  117.6  0.0421   57.3  0.8287  -30.1
 1.620  0.6424  -69.7   7.893  117.0  0.0425   57.0  0.8257  -30.4
 1.640  0.6384  -70.5   7.847  116.4  0.0429   56.7  0.8227  -30.7
 1.660  0.6346  -71.3   7.802  115.8  0.0432   56.4  0.8197  -30.9
 1.680  0.6308  -72.0   7.759  115.1  0.0436   56.1  0.8167  -31.2
 1.700  0.6272  -72.8   7.716  114.5  0.0440   55.8  0.8138  -31.5
 1.720  0.6227  -73.6   7.670  113.9  0.0444   55.5  0.8109  -31.8
 1.740  0.6184  -74.4   7.626  113.3  0.0447   55.2  0.8080  -32.0
 1.760  0.6142  -75.2   7.582  112.7  0.0451   54.9  0.8051  -32.3
 1.780  0.6101  -76.0   7.539  112.0  0.0454   54.7  0.8022  -32.5
 1.800  0.6061  -76.8   7.497  111.4  0.0458   54.4  0.7994  -32.8
 1.820  0.6023  -77.5   7.456  110.9  0.0462   54.1  0.7964  -33.1
 1.840  0.5985  -78.3   7.415  110.3  0.0465   53.9  0.7935  -33.4
 1.860  0.5949  -79.1   7.375  109.7  0.0469   53.6  0.7906  -33.6
 1.880  0.5914  -79.8   7.336  109.2  0.0472   53.4  0.7877  -33.9
 1.900  0.5880  -80.6   7.297  108.6  0.0476   53.1  0.7848  -34.2
 1.920  0.5837  -81.4   7.255  108.1  0.0479   52.8  0.7819  -34.4
 1.940  0.5796  -82.1   7.214  107.5  0.0482   52.5  0.7791  -34.7
 1.960  0.5755  -82.9   7.173  106.9  0.0486   52.2  0.7762  -34.9
 1.980  0.5715  -83.7   7.133  106.4  0.0489   52.0  0.7734  -35.2
 2.000  0.5677  -84.5   7.094  105.8  0.0492   51.7  0.7706  -35.4
 2.020  0.5638  -85.2   7.054  105.3  0.0495   51.4  0.7678  -35.6
 2.040  0.5600  -86.0   7.014  104.8  0.0498   51.2  0.7649  -35.9
 2.060  0.5562  -86.7   6.975  104.2  0.0502   50.9  0.7621  -36.1
 2.080  0.5526  -87.5   6.936  103.7  0.0505   50.7  0.7593  -36.3
 2.100  0.5491  -88.3   6.898  103.2  0.0508   50.5  0.7565  -36.6
 2.120  0.5457  -89.1   6.861  102.6  0.0511   50.2  0.7538  -36.8
 2.140  0.5423  -89.9   6.824  102.1  0.0514   50.0  0.7510  -37.1
 2.160  0.5391  -90.7   6.788  101.5  0.0518   49.8  0.7483  -37.3
 2.180  0.5360  -91.5   6.753  101.0  0.0521   49.5  0.7455  -37.6
 2.200  0.5330  -92.3   6.718  100.4  0.0524   49.3  0.7428  -37.8
 2.220  0.5294  -93.0   6.681   99.9  0.0527   49.0  0.7400  -38.0
 2.240  0.5259  -93.8   6.644   99.4  0.0530   48.8  0.7372  -38.2
 2.260  0.5224  -94.6   6.608   98.9  0.0533   48.6  0.7345  -38.5
 2.280  0.5191  -95.3   6.572   98.4  0.0536   48.3  0.7317  -38.7
 2.300  0.5159  -96.1   6.537   97.9  0.0539   48.1  0.7290  -38.9
 2.320  0.5127  -96.9   6.502   97.4  0.0542   47.8  0.7262  -39.2
 2.340  0.5097  -97.7   6.468   96.9  0.0545   47.6  0.7235  -39.4
 2.360  0.5068  -98.5   6.435   96.4  0.0548   47.4  0.7208  -39.6
 2.380  0.5039  -99.4   6.402   95.8  0.0551   47.1  0.7181  -39.9
 2.400  0.5012 -100.2   6.369   95.3  0.0554   46.9  0.7154  -40.1
 2.420  0.4979 -100.9   6.334   94.8  0.0557   46.7  0.7127  -40.3
 2.440  0.4947 -101.6   6.300   94.4  0.0560   46.5  0.7101  -40.5
 2.460  0.4915 -102.4   6.265   93.9  0.0562   46.2  0.7074  -40.7
 2.480  0.4885 -103.1   6.232   93.4  0.0565   46.0  0.7048  -41.0
 2.500  0.4855 -103.9   6.199   93.0  0.0568   45.8  0.7022  -41.2
 2.520  0.4826 -104.7   6.166   92.5  0.0571   45.6  0.6996  -41.4
 2.540  0.4798 -105.4   6.133   92.0  0.0574   45.4  0.6970  -41.6
 2.560  0.4771 -106.2   6.101   91.5  0.0576   45.2  0.6944  -41.8
 2.580  0.4744 -107.0   6.070   91.0  0.0579   45.0  0.6918  -42.1
 2.600  0.4719 -107.8   6.039   90.5  0.0582   44.8  0.6892  -42.3
 2.620  0.4690 -108.6   6.008   90.1  0.0585   44.6  0.6866  -42.5
 2.640  0.4661 -109.3   5.977   89.6  0.0587   44.4  0.6840  -42.7
 2.660  0.4634 -110.1   5.947   89.2  0.0590   44.1  0.6814  -42.9
 2.680  0.4607 -110.9   5.917   88.7  0.0593   43.9  0.6788  -43.2
 2.700  0.4581 -111.7   5.888   88.3  0.0595   43.7  0.6762  -43.4
 2.720  0.4556 -112.5   5.859   87.8  0.0598   43.5  0.6737  -43.6
 2.740  0.4532 -113.3   5.830   87.3  0.0601   43.3  0.6711  -43.8
 2.760  0.4509 -114.1   5.802   86.9  0.0604   43.1  0.6686  -44.0
 2.780  0.4487 -115.0   5.774   86.4  0.0606   42.9  0.6660  -44.3
 2.800  0.4466 -115.8   5.746   85.9  0.0609   42.7  0.6635  -44.5
 2.820  0.4439 -116.5   5.717   85.5  0.0612   42.5  0.6610  -44.7
 2.840  0.4412 -117.3   5.687   85.0  0.0614   42.3  0.6584  -44.9
 2.860  0.4386 -118.0   5.659   84.6  0.0617   42.1  0.6559  -45.1
 2.880  0.4361 -118.8   5.630   84.1  0.0619   41.9  0.6534  -45.3
 2.900  0.4336 -119.6   5.602   83.7  0.0622   41.7  0.6509  -45.5
 2.920  0.4313 -120.4   5.574   83.2  0.0625   41.5  0.6483  -45.7
 2.940  0.4290 -121.2   5.547   82.7  0.0627   41.4  0.6458  -45.9
 2.960  0.4268 -122.0   5.520   82.3  0.0630   41.2  0.6434  -46.1
 2.980  0.4247 -122.8   5.493   81.8  0.0632   41.0  0.6409  -46.3
 3.000  0.4227 -123.6   5.467   81.3  0.0635   40.8  0.6384  -46.5
 3.100  0.4088 -127.3   5.331   79.4  0.0646   39.8  0.6258  -47.4
 3.200  0.3967 -131.2   5.202   77.3  0.0658   38.9  0.6134  -48.3
 3.300  0.3866 -135.3   5.079   75.2  0.0669   37.9  0.6012  -49.3
 3.400  0.3786 -139.6   4.964   72.9  0.0681   37.1  0.5892  -50.3
 3.500  0.3728 -144.1   4.857   70.6  0.0693   36.2  0.5773  -51.4
 3.600  0.3631 -148.0   4.739   68.8  0.0703   35.4  0.5661  -52.3
 3.700  0.3552 -152.1   4.627   66.8  0.0713   34.5  0.5550  -53.2
 3.800  0.3493 -156.4   4.519   64.8  0.0723   33.7  0.5441  -54.2
 3.900  0.3453 -160.8   4.418   62.7  0.0734   33.0  0.5333  -55.2
 4.000  0.3434 -165.3   4.323   60.5  0.0744   32.2  0.5227  -56.2
 4.100  0.3391 -169.3   4.223   58.8  0.0753   31.4  0.5130  -57.1
 4.200  0.3366 -173.5   4.127   57.1  0.0762   30.6  0.5035  -58.0
 4.300  0.3358 -177.6   4.035   55.3  0.0772   29.9  0.4941  -59.0
 4.400  0.3368  178.2   3.947   53.4  0.0781   29.1  0.4849  -60.0
 4.500  0.3396  174.1   3.864   51.4  0.0791   28.4  0.4758  -61.0
 4.600  0.3408  170.7   3.779   49.8  0.0800   27.7  0.4676  -61.9
 4.700  0.3432  167.4   3.696   48.2  0.0808   27.0  0.4594  -62.8
 4.800  0.3468  164.1   3.617   46.5  0.0817   26.3  0.4514  -63.7
 4.900  0.3515  160.9   3.541   44.7  0.0826   25.7  0.4435  -64.7
 5.000  0.3572  157.8   3.469   42.9  0.0835   25.0  0.4358  -65.7
 5.100  0.3606  155.4   3.400   41.5  0.0843   24.4  0.4291  -66.5
 5.200  0.3646  153.0   3.332   40.0  0.0852   23.8  0.4224  -67.2
 5.300  0.3693  150.7   3.267   38.5  0.0860   23.2  0.4158  -68.0
 5.400  0.3745  148.4   3.205   36.9  0.0868   22.6  0.4093  -68.8
 5.500  0.3803  146.2   3.145   35.2  0.0877   22.0  0.4029  -69.7
 5.600  0.3827  144.3   3.090   33.9  0.0886   21.5  0.3968  -70.4
 5.700  0.3854  142.4   3.037   32.5  0.0894   20.9  0.3907  -71.2
 5.800  0.3886  140.6   2.985   31.0  0.0903   20.4  0.3848  -71.9
 5.900  0.3922  138.8   2.935   29.5  0.0912   19.9  0.3788  -72.7
 6.000  0.3961  137.0   2.888   28.0  0.0921   19.4  0.3730  -73.5
 6.100  0.3973  135.2   2.843   26.6  0.0931   18.8  0.3672  -74.3
 6.200  0.3990  133.3   2.800   25.2  0.0942   18.2  0.3615  -75.1
 6.300  0.4010  131.5   2.758   23.8  0.0952   17.7  0.3559  -75.9
 6.400  0.4035  129.8   2.719   22.2  0.0962   17.1  0.3503  -76.7
 6.500  0.4063  128.0   2.681   20.7  0.0973   16.6  0.3448  -77.6
 6.600  0.4065  125.9   2.638   19.3  0.0983   16.0  0.3391  -78.4
 6.800  0.4086  121.6   2.556   16.3  0.1004   14.7  0.3279  -80.0
 7.000  0.4129  117.4   2.481   13.2  0.1026   13.5  0.3170  -81.7
 7.200  0.4180  113.0   2.405   10.4  0.1048   12.1  0.3062  -83.3
 7.400  0.4255  108.8   2.336    7.5  0.1071   10.8  0.2957  -84.9
 7.600  0.4367  104.7   2.269    4.7  0.1092    9.4  0.2840  -86.7
 7.800  0.4514  100.7   2.206    2.0  0.1112    7.8  0.2712  -88.5
 8.000  0.4681   97.1   2.147   -0.9  0.1133    6.3  0.2587  -90.6
 8.200  0.4864   94.1   2.085   -3.5  0.1148    4.8  0.2404  -92.4
 8.400  0.5059   91.2   2.027   -6.2  0.1165    3.3  0.2224  -94.5
 8.600  0.5252   88.7   1.974   -8.9  0.1180    1.9  0.2021  -97.0
 8.800  0.5440   86.5   1.925  -11.5  0.1196    0.5  0.1797 -100.1
 9.000  0.5635   84.5   1.881  -14.2  0.1212   -0.9  0.1580 -104.1
 9.200  0.5815   82.3   1.832  -17.0  0.1224   -2.4  0.1348 -109.5
 9.400  0.6003   80.2   1.787  -20.0  0.1237   -3.8  0.1132 -116.9
 9.600  0.6149   77.6   1.734  -22.9  0.1249   -5.2  0.0947 -128.0
 9.800  0.6259   74.6   1.672  -25.6  0.1261   -6.4  0.0817 -143.9
10.000  0.6386   71.7   1.614  -28.6  0.1273   -7.7  0.0768 -163.7
!
!  f       NFmin   Gammaopt  rn/50
! GHz       dB    MAG  ANG    -
!
! noise parameter not available yet for this operation point!
!
! (c) 2016  Infineon Technologies AG, Munich
