! Infineon Technologies  Discrete & RF Semiconductors
! BFP405
! VCE =  3.0 V,  IC =  4.5 mA
! Common Emitter S-Parameters:                            Jan 2016
# GHz  S  MA  R  50
!  f         S11            S21            S12            S22
! GHz     MAG   ANG      MAG   ANG      MAG   ANG      MAG   ANG
 0.010  0.8644    0.7  12.850 -178.0  0.0010  -57.7  0.9918    1.1
 0.015  0.8606   -0.1  12.778 -179.9  0.0003    3.4  0.9903    0.6
 0.020  0.8570   -1.0  12.720  178.2  0.0009   80.0  0.9889    0.0
 0.025  0.8563   -1.3  12.700  178.1  0.0010   82.1  0.9894   -0.2
 0.030  0.8557   -1.7  12.681  177.9  0.0010   84.0  0.9899   -0.3
 0.035  0.8551   -2.0  12.662  177.8  0.0011   85.6  0.9904   -0.5
 0.040  0.8545   -2.3  12.642  177.6  0.0012   87.1  0.9909   -0.6
 0.045  0.8539   -2.7  12.623  177.5  0.0012   88.3  0.9914   -0.8
 0.050  0.8534   -3.0  12.604  177.3  0.0013   89.5  0.9919   -0.9
 0.055  0.8533   -3.2  12.607  177.0  0.0015   88.4  0.9919   -1.0
 0.060  0.8532   -3.4  12.610  176.7  0.0016   87.5  0.9919   -1.2
 0.065  0.8531   -3.6  12.613  176.4  0.0018   86.8  0.9919   -1.3
 0.070  0.8531   -3.8  12.617  176.1  0.0020   86.2  0.9919   -1.5
 0.075  0.8530   -4.0  12.621  175.8  0.0021   85.7  0.9920   -1.6
 0.080  0.8530   -4.3  12.625  175.6  0.0023   85.2  0.9920   -1.7
 0.085  0.8529   -4.5  12.630  175.3  0.0025   84.9  0.9920   -1.9
 0.090  0.8529   -4.7  12.635  175.0  0.0027   84.5  0.9921   -2.0
 0.095  0.8529   -4.9  12.640  174.7  0.0028   84.3  0.9921   -2.2
 0.100  0.8529   -5.1  12.646  174.4  0.0030   84.0  0.9922   -2.3
 0.105  0.8526   -5.4  12.639  174.2  0.0032   84.1  0.9919   -2.4
 0.110  0.8523   -5.6  12.633  174.0  0.0034   84.3  0.9917   -2.6
 0.115  0.8520   -5.9  12.626  173.8  0.0035   84.4  0.9915   -2.7
 0.120  0.8517   -6.1  12.620  173.6  0.0037   84.5  0.9912   -2.8
 0.125  0.8514   -6.4  12.614  173.4  0.0039   84.6  0.9910   -2.9
 0.130  0.8512   -6.7  12.608  173.2  0.0041   84.6  0.9908   -3.1
 0.135  0.8510   -6.9  12.602  173.0  0.0043   84.7  0.9905   -3.2
 0.140  0.8508   -7.2  12.597  172.8  0.0044   84.8  0.9903   -3.3
 0.145  0.8506   -7.4  12.591  172.6  0.0046   84.8  0.9901   -3.5
 0.150  0.8504   -7.7  12.586  172.4  0.0048   84.9  0.9899   -3.6
 0.155  0.8500   -8.0  12.579  172.2  0.0049   84.8  0.9897   -3.7
 0.160  0.8496   -8.2  12.573  171.9  0.0051   84.8  0.9895   -3.9
 0.165  0.8492   -8.5  12.567  171.7  0.0052   84.8  0.9893   -4.0
 0.170  0.8489   -8.7  12.561  171.4  0.0054   84.7  0.9891   -4.1
 0.175  0.8485   -9.0  12.555  171.2  0.0055   84.7  0.9889   -4.2
 0.180  0.8482   -9.3  12.550  170.9  0.0056   84.6  0.9888   -4.4
 0.185  0.8479   -9.5  12.544  170.7  0.0058   84.6  0.9886   -4.5
 0.190  0.8476   -9.8  12.539  170.4  0.0059   84.6  0.9884   -4.6
 0.195  0.8474  -10.0  12.535  170.2  0.0061   84.5  0.9883   -4.8
 0.200  0.8471  -10.3  12.530  169.9  0.0062   84.5  0.9881   -4.9
 0.220  0.8454  -11.3  12.531  168.9  0.0069   83.9  0.9850   -5.4
 0.240  0.8439  -12.4  12.536  167.9  0.0076   83.5  0.9820   -5.9
 0.260  0.8425  -13.4  12.518  167.0  0.0083   83.1  0.9810   -6.4
 0.280  0.8410  -14.5  12.475  166.1  0.0088   82.7  0.9821   -6.9
 0.300  0.8398  -15.6  12.436  165.2  0.0094   82.4  0.9833   -7.3
 0.320  0.8372  -16.6  12.391  164.2  0.0100   81.8  0.9811   -7.8
 0.340  0.8348  -17.6  12.350  163.3  0.0106   81.3  0.9789   -8.3
 0.360  0.8325  -18.6  12.321  162.3  0.0112   80.8  0.9769   -8.7
 0.380  0.8302  -19.7  12.304  161.3  0.0119   80.2  0.9749   -9.2
 0.400  0.8283  -20.8  12.290  160.3  0.0125   79.7  0.9730   -9.7
 0.420  0.8253  -21.8  12.238  159.3  0.0131   79.3  0.9712  -10.1
 0.440  0.8226  -22.7  12.190  158.4  0.0137   78.9  0.9695  -10.6
 0.450  0.8213  -23.2  12.167  157.9  0.0140   78.7  0.9686  -10.8
 0.460  0.8197  -23.7  12.150  157.5  0.0143   78.4  0.9674  -11.0
 0.480  0.8167  -24.8  12.119  156.6  0.0149   77.8  0.9652  -11.5
 0.500  0.8140  -25.8  12.091  155.7  0.0155   77.3  0.9630  -12.0
 0.520  0.8100  -26.8  12.032  154.8  0.0161   76.8  0.9605  -12.5
 0.540  0.8063  -27.7  11.977  153.8  0.0167   76.3  0.9581  -12.9
 0.560  0.8027  -28.7  11.925  152.9  0.0172   75.8  0.9557  -13.4
 0.580  0.7994  -29.7  11.876  152.0  0.0178   75.4  0.9534  -13.8
 0.600  0.7964  -30.7  11.830  151.0  0.0184   75.0  0.9512  -14.3
 0.620  0.7924  -31.7  11.773  150.1  0.0190   74.5  0.9483  -14.7
 0.640  0.7886  -32.6  11.719  149.3  0.0195   74.0  0.9455  -15.2
 0.660  0.7850  -33.6  11.668  148.4  0.0201   73.6  0.9428  -15.6
 0.680  0.7816  -34.6  11.620  147.5  0.0206   73.2  0.9400  -16.1
 0.700  0.7785  -35.6  11.574  146.6  0.0212   72.8  0.9374  -16.5
 0.720  0.7738  -36.6  11.518  145.7  0.0217   72.3  0.9344  -16.9
 0.740  0.7693  -37.5  11.465  144.8  0.0223   71.8  0.9315  -17.3
 0.760  0.7650  -38.5  11.414  143.9  0.0228   71.4  0.9285  -17.8
 0.780  0.7610  -39.5  11.367  143.0  0.0234   70.9  0.9257  -18.2
 0.800  0.7572  -40.5  11.322  142.1  0.0239   70.5  0.9229  -18.6
 0.820  0.7526  -41.4  11.258  141.3  0.0244   70.1  0.9196  -19.0
 0.840  0.7482  -42.3  11.196  140.4  0.0249   69.7  0.9164  -19.4
 0.860  0.7441  -43.3  11.136  139.6  0.0254   69.3  0.9133  -19.9
 0.880  0.7401  -44.2  11.079  138.8  0.0259   68.9  0.9102  -20.3
 0.900  0.7363  -45.2  11.024  137.9  0.0264   68.5  0.9071  -20.7
 0.920  0.7313  -46.1  10.956  137.1  0.0269   68.1  0.9038  -21.1
 0.940  0.7265  -47.0  10.890  136.3  0.0274   67.7  0.9005  -21.5
 0.960  0.7218  -47.9  10.827  135.5  0.0279   67.3  0.8972  -21.8
 0.980  0.7174  -48.9  10.765  134.6  0.0284   66.9  0.8940  -22.2
 1.000  0.7131  -49.8  10.706  133.8  0.0289   66.5  0.8908  -22.6
 1.020  0.7082  -50.7  10.643  133.0  0.0293   66.1  0.8873  -23.0
 1.040  0.7035  -51.6  10.582  132.3  0.0298   65.7  0.8839  -23.4
 1.060  0.6989  -52.6  10.523  131.5  0.0302   65.3  0.8805  -23.7
 1.080  0.6946  -53.5  10.466  130.7  0.0307   65.0  0.8771  -24.1
 1.100  0.6904  -54.5  10.411  129.9  0.0311   64.6  0.8738  -24.5
 1.120  0.6852  -55.4  10.342  129.2  0.0316   64.2  0.8703  -24.9
 1.140  0.6802  -56.2  10.274  128.4  0.0320   63.8  0.8667  -25.2
 1.160  0.6753  -57.1  10.208  127.7  0.0325   63.4  0.8633  -25.6
 1.180  0.6706  -58.0  10.144  127.0  0.0329   63.1  0.8598  -25.9
 1.200  0.6660  -58.9  10.081  126.2  0.0334   62.7  0.8564  -26.3
 1.220  0.6612  -59.7  10.014  125.5  0.0338   62.4  0.8529  -26.6
 1.240  0.6566  -60.6   9.948  124.7  0.0342   62.0  0.8495  -27.0
 1.260  0.6521  -61.4   9.885  124.0  0.0347   61.7  0.8461  -27.3
 1.280  0.6478  -62.3   9.822  123.3  0.0351   61.4  0.8427  -27.7
 1.300  0.6436  -63.2   9.762  122.5  0.0355   61.1  0.8393  -28.0
 1.320  0.6386  -64.1   9.697  121.8  0.0359   60.8  0.8357  -28.3
 1.340  0.6338  -65.0   9.634  121.1  0.0363   60.4  0.8322  -28.6
 1.360  0.6291  -65.9   9.572  120.4  0.0367   60.1  0.8287  -29.0
 1.380  0.6246  -66.8   9.511  119.7  0.0371   59.8  0.8252  -29.3
 1.400  0.6202  -67.7   9.452  119.0  0.0375   59.5  0.8218  -29.6
 1.420  0.6153  -68.5   9.387  118.3  0.0379   59.2  0.8183  -29.9
 1.440  0.6106  -69.3   9.323  117.7  0.0383   58.9  0.8148  -30.2
 1.460  0.6060  -70.2   9.260  117.0  0.0386   58.6  0.8113  -30.5
 1.480  0.6015  -71.0   9.199  116.3  0.0390   58.3  0.8078  -30.8
 1.500  0.5972  -71.9   9.139  115.6  0.0394   58.0  0.8044  -31.1
 1.520  0.5925  -72.7   9.080  115.0  0.0398   57.7  0.8010  -31.4
 1.540  0.5880  -73.6   9.022  114.3  0.0401   57.3  0.7977  -31.7
 1.560  0.5835  -74.4   8.965  113.7  0.0405   57.0  0.7944  -32.0
 1.580  0.5793  -75.3   8.910  113.1  0.0408   56.7  0.7911  -32.3
 1.600  0.5751  -76.2   8.855  112.4  0.0412   56.4  0.7878  -32.6
 1.620  0.5708  -77.0   8.793  111.8  0.0415   56.1  0.7844  -32.9
 1.640  0.5667  -77.8   8.733  111.2  0.0419   55.9  0.7811  -33.2
 1.660  0.5626  -78.6   8.673  110.6  0.0422   55.6  0.7777  -33.4
 1.680  0.5587  -79.4   8.615  109.9  0.0426   55.4  0.7744  -33.7
 1.700  0.5549  -80.2   8.557  109.3  0.0429   55.1  0.7711  -34.0
 1.720  0.5504  -81.0   8.497  108.7  0.0432   54.8  0.7678  -34.3
 1.740  0.5461  -81.8   8.438  108.1  0.0436   54.6  0.7646  -34.5
 1.760  0.5419  -82.7   8.381  107.5  0.0439   54.3  0.7614  -34.8
 1.780  0.5378  -83.5   8.324  106.8  0.0443   54.1  0.7582  -35.0
 1.800  0.5338  -84.4   8.268  106.2  0.0446   53.8  0.7550  -35.3
 1.820  0.5299  -85.2   8.214  105.7  0.0449   53.6  0.7518  -35.6
 1.840  0.5261  -86.0   8.161  105.1  0.0452   53.3  0.7486  -35.8
 1.860  0.5224  -86.8   8.109  104.6  0.0456   53.1  0.7455  -36.1
 1.880  0.5189  -87.7   8.058  104.1  0.0459   52.8  0.7423  -36.3
 1.900  0.5154  -88.5   8.007  103.5  0.0462   52.6  0.7392  -36.6
 1.920  0.5114  -89.3   7.954  103.0  0.0465   52.4  0.7361  -36.8
 1.940  0.5075  -90.1   7.902  102.4  0.0468   52.1  0.7331  -37.1
 1.960  0.5036  -90.9   7.851  101.8  0.0472   51.9  0.7300  -37.3
 1.980  0.4999  -91.8   7.800  101.3  0.0475   51.6  0.7270  -37.6
 2.000  0.4963  -92.6   7.750  100.7  0.0478   51.4  0.7240  -37.8
 2.020  0.4926  -93.4   7.699  100.2  0.0481   51.2  0.7210  -38.0
 2.040  0.4889  -94.1   7.649   99.7  0.0484   51.0  0.7180  -38.2
 2.060  0.4853  -94.9   7.600   99.2  0.0487   50.7  0.7151  -38.5
 2.080  0.4819  -95.7   7.551   98.7  0.0490   50.5  0.7121  -38.7
 2.100  0.4785  -96.5   7.502   98.2  0.0492   50.3  0.7092  -38.9
 2.120  0.4752  -97.3   7.455   97.7  0.0495   50.1  0.7062  -39.2
 2.140  0.4720  -98.2   7.407   97.1  0.0498   49.9  0.7033  -39.4
 2.160  0.4690  -99.0   7.361   96.6  0.0501   49.7  0.7004  -39.6
 2.180  0.4660  -99.8   7.315   96.1  0.0504   49.5  0.6975  -39.9
 2.200  0.4631 -100.7   7.270   95.5  0.0507   49.3  0.6946  -40.1
 2.220  0.4598 -101.5   7.225   95.0  0.0510   49.1  0.6917  -40.3
 2.240  0.4566 -102.3   7.180   94.5  0.0513   48.9  0.6889  -40.5
 2.260  0.4535 -103.1   7.135   94.1  0.0516   48.7  0.6861  -40.7
 2.280  0.4504 -103.9   7.091   93.6  0.0519   48.5  0.6832  -41.0
 2.300  0.4475 -104.8   7.048   93.1  0.0521   48.3  0.6804  -41.2
 2.320  0.4447 -105.6   7.005   92.6  0.0524   48.1  0.6776  -41.4
 2.340  0.4419 -106.5   6.963   92.1  0.0527   47.9  0.6748  -41.6
 2.360  0.4393 -107.3   6.921   91.5  0.0530   47.7  0.6720  -41.8
 2.380  0.4367 -108.2   6.880   91.0  0.0533   47.5  0.6693  -42.1
 2.400  0.4343 -109.1   6.839   90.5  0.0536   47.3  0.6665  -42.3
 2.420  0.4314 -109.8   6.797   90.1  0.0539   47.1  0.6638  -42.5
 2.440  0.4286 -110.6   6.756   89.6  0.0541   46.9  0.6611  -42.7
 2.460  0.4258 -111.4   6.715   89.1  0.0544   46.7  0.6583  -42.9
 2.480  0.4231 -112.1   6.674   88.7  0.0547   46.6  0.6556  -43.1
 2.500  0.4205 -112.9   6.634   88.2  0.0549   46.4  0.6530  -43.3
 2.520  0.4180 -113.7   6.595   87.7  0.0552   46.2  0.6503  -43.5
 2.540  0.4155 -114.5   6.556   87.3  0.0555   46.0  0.6476  -43.7
 2.560  0.4132 -115.3   6.517   86.8  0.0558   45.8  0.6449  -43.9
 2.580  0.4109 -116.2   6.479   86.3  0.0560   45.7  0.6423  -44.1
 2.600  0.4087 -117.0   6.441   85.8  0.0563   45.5  0.6396  -44.3
 2.620  0.4062 -117.8   6.404   85.4  0.0566   45.3  0.6370  -44.5
 2.640  0.4037 -118.6   6.368   85.0  0.0568   45.1  0.6343  -44.7
 2.660  0.4013 -119.4   6.332   84.5  0.0571   45.0  0.6317  -44.9
 2.680  0.3990 -120.2   6.297   84.1  0.0574   44.8  0.6291  -45.1
 2.700  0.3968 -121.1   6.262   83.7  0.0576   44.6  0.6265  -45.3
 2.720  0.3947 -121.9   6.227   83.2  0.0579   44.5  0.6239  -45.5
 2.740  0.3927 -122.8   6.193   82.8  0.0582   44.3  0.6213  -45.7
 2.760  0.3907 -123.6   6.159   82.3  0.0585   44.1  0.6187  -45.9
 2.780  0.3889 -124.5   6.125   81.9  0.0587   44.0  0.6162  -46.1
 2.800  0.3871 -125.4   6.092   81.4  0.0590   43.8  0.6136  -46.3
 2.820  0.3847 -126.2   6.058   81.0  0.0593   43.6  0.6111  -46.5
 2.840  0.3824 -127.0   6.024   80.6  0.0595   43.4  0.6086  -46.7
 2.860  0.3802 -127.8   5.991   80.1  0.0598   43.3  0.6061  -46.9
 2.880  0.3781 -128.6   5.957   79.7  0.0600   43.1  0.6036  -47.1
 2.900  0.3760 -129.4   5.925   79.3  0.0603   42.9  0.6011  -47.3
 2.920  0.3740 -130.3   5.892   78.8  0.0606   42.8  0.5986  -47.5
 2.940  0.3721 -131.1   5.860   78.4  0.0608   42.6  0.5961  -47.7
 2.960  0.3703 -132.0   5.828   77.9  0.0611   42.4  0.5936  -47.9
 2.980  0.3686 -132.8   5.797   77.5  0.0613   42.3  0.5912  -48.1
 3.000  0.3669 -133.7   5.766   77.0  0.0616   42.1  0.5887  -48.3
 3.100  0.3560 -137.6   5.613   75.2  0.0628   41.2  0.5764  -49.1
 3.200  0.3469 -141.7   5.467   73.2  0.0640   40.4  0.5642  -50.0
 3.300  0.3397 -146.0   5.327   71.2  0.0652   39.6  0.5521  -50.9
 3.400  0.3344 -150.5   5.194   69.1  0.0665   38.8  0.5402  -51.9
 3.500  0.3313 -155.1   5.069   66.8  0.0677   38.1  0.5284  -52.9
 3.600  0.3245 -159.2   4.941   65.1  0.0688   37.3  0.5175  -53.8
 3.700  0.3194 -163.4   4.817   63.2  0.0699   36.5  0.5067  -54.7
 3.800  0.3162 -167.8   4.698   61.3  0.0711   35.8  0.4960  -55.6
 3.900  0.3147 -172.2   4.585   59.3  0.0722   35.1  0.4855  -56.6
 4.000  0.3152 -176.6   4.478   57.2  0.0734   34.4  0.4751  -57.6
 4.100  0.3139  179.5   4.371   55.6  0.0745   33.7  0.4657  -58.5
 4.200  0.3140  175.5   4.268   54.0  0.0755   32.9  0.4564  -59.4
 4.300  0.3156  171.6   4.168   52.2  0.0766   32.2  0.4472  -60.4
 4.400  0.3188  167.7   4.072   50.4  0.0777   31.6  0.4382  -61.4
 4.500  0.3233  163.9   3.981   48.5  0.0788   30.9  0.4293  -62.4
 4.600  0.3266  160.8   3.892   47.0  0.0798   30.2  0.4213  -63.3
 4.700  0.3308  157.8   3.806   45.5  0.0808   29.5  0.4135  -64.2
 4.800  0.3358  154.9   3.722   43.9  0.0819   28.8  0.4057  -65.1
 4.900  0.3418  152.0   3.642   42.2  0.0829   28.1  0.3980  -66.1
 5.000  0.3485  149.3   3.565   40.4  0.0840   27.5  0.3905  -67.1
 5.100  0.3527  147.2   3.493   39.1  0.0850   26.9  0.3839  -67.8
 5.200  0.3575  145.1   3.424   37.7  0.0860   26.2  0.3774  -68.6
 5.300  0.3626  143.1   3.356   36.2  0.0870   25.6  0.3710  -69.4
 5.400  0.3683  141.1   3.291   34.7  0.0880   25.0  0.3647  -70.2
 5.500  0.3743  139.2   3.228   33.1  0.0890   24.4  0.3584  -71.1
 5.600  0.3773  137.5   3.170   31.8  0.0900   23.8  0.3524  -71.8
 5.700  0.3806  135.8   3.115   30.4  0.0911   23.2  0.3465  -72.5
 5.800  0.3843  134.1   3.060   29.0  0.0921   22.7  0.3406  -73.2
 5.900  0.3882  132.5   3.008   27.6  0.0931   22.1  0.3348  -74.0
 6.000  0.3925  130.9   2.958   26.1  0.0942   21.6  0.3290  -74.8
 6.100  0.3943  129.2   2.911   24.7  0.0954   20.9  0.3233  -75.6
 6.200  0.3964  127.6   2.866   23.4  0.0966   20.3  0.3178  -76.4
 6.300  0.3988  125.9   2.823   21.9  0.0978   19.7  0.3122  -77.2
 6.400  0.4015  124.3   2.782   20.4  0.0990   19.1  0.3068  -78.1
 6.500  0.4046  122.7   2.742   18.9  0.1002   18.5  0.3014  -79.0
 6.600  0.4052  120.7   2.698   17.5  0.1014   17.8  0.2958  -79.7
 6.800  0.4080  116.6   2.613   14.7  0.1037   16.5  0.2847  -81.3
 7.000  0.4127  112.7   2.536   11.7  0.1061   15.2  0.2738  -83.0
 7.200  0.4187  108.6   2.458    9.0  0.1085   13.6  0.2630  -84.6
 7.400  0.4269  104.5   2.387    6.2  0.1110   12.1  0.2525  -86.3
 7.600  0.4385  100.7   2.318    3.4  0.1134   10.5  0.2408  -88.1
 7.800  0.4535   97.2   2.252    0.7  0.1155    8.9  0.2279  -90.0
 8.000  0.4701   93.9   2.191   -2.2  0.1178    7.3  0.2153  -92.2
 8.200  0.4887   91.1   2.127   -4.7  0.1194    5.6  0.1966  -94.0
 8.400  0.5084   88.4   2.066   -7.3  0.1210    4.0  0.1781  -96.2
 8.600  0.5278   86.2   2.011   -9.9  0.1227    2.4  0.1575  -98.9
 8.800  0.5466   84.2   1.961  -12.5  0.1242    0.9  0.1350 -102.4
 9.000  0.5661   82.3   1.914  -15.2  0.1259   -0.6  0.1131 -107.3
 9.200  0.5841   80.2   1.863  -18.0  0.1272   -2.1  0.0904 -114.7
 9.400  0.6028   78.2   1.816  -20.9  0.1285   -3.7  0.0701 -126.6
 9.600  0.6171   75.7   1.761  -23.6  0.1297   -5.1  0.0555 -146.8
 9.800  0.6278   72.8   1.696  -26.3  0.1308   -6.4  0.0518 -174.9
10.000  0.6401   70.0   1.636  -29.1  0.1320   -7.7  0.0607  159.5
!
!  f       NFmin   Gammaopt  rn/50
! GHz       dB    MAG  ANG    -
!
! noise parameter not available yet for this operation point!
!
! (c) 2016  Infineon Technologies AG, Munich
