! Infineon Technologies  Discrete & RF Semiconductors
! BFP405
! VCE =  3.0 V,  IC =  8.0 mA
! Common Emitter S-Parameters:                            Jan 2016
# GHz  S  MA  R  50
!  f         S11            S21            S12            S22
! GHz     MAG   ANG      MAG   ANG      MAG   ANG      MAG   ANG
 0.010  0.7591    0.5  19.039 -178.2  0.0011  -16.0  0.9797    1.8
 0.015  0.7671   -0.3  18.922  179.7  0.0006   10.2  0.9806    0.9
 0.020  0.7752   -1.1  18.831  177.6  0.0005   86.8  0.9817    0.1
 0.025  0.7747   -1.5  18.792  177.4  0.0007   87.2  0.9825   -0.1
 0.030  0.7742   -1.9  18.753  177.2  0.0008   87.4  0.9833   -0.3
 0.035  0.7738   -2.2  18.715  177.0  0.0010   87.6  0.9841   -0.5
 0.040  0.7734   -2.6  18.677  176.8  0.0012   87.7  0.9849   -0.6
 0.045  0.7730   -3.0  18.639  176.6  0.0013   87.7  0.9857   -0.8
 0.050  0.7727   -3.4  18.601  176.4  0.0015   87.8  0.9865   -1.0
 0.055  0.7724   -3.7  18.599  176.1  0.0017   87.7  0.9865   -1.2
 0.060  0.7720   -4.1  18.597  175.7  0.0018   87.5  0.9865   -1.4
 0.065  0.7717   -4.4  18.596  175.3  0.0020   87.4  0.9866   -1.5
 0.070  0.7715   -4.8  18.595  175.0  0.0021   87.3  0.9866   -1.7
 0.075  0.7712   -5.1  18.596  174.6  0.0023   87.3  0.9867   -1.9
 0.080  0.7710   -5.5  18.597  174.3  0.0025   87.2  0.9867   -2.1
 0.085  0.7709   -5.8  18.599  173.9  0.0026   87.1  0.9868   -2.3
 0.090  0.7707   -6.2  18.601  173.6  0.0028   87.1  0.9869   -2.4
 0.095  0.7706   -6.5  18.604  173.2  0.0029   87.0  0.9870   -2.6
 0.100  0.7705   -6.9  18.608  172.9  0.0031   87.0  0.9871   -2.8
 0.105  0.7699   -7.2  18.592  172.6  0.0032   86.6  0.9867   -3.0
 0.110  0.7693   -7.6  18.577  172.4  0.0034   86.2  0.9864   -3.1
 0.115  0.7688   -7.9  18.563  172.1  0.0035   85.8  0.9860   -3.3
 0.120  0.7682   -8.2  18.548  171.8  0.0037   85.5  0.9857   -3.4
 0.125  0.7677   -8.5  18.534  171.6  0.0038   85.2  0.9854   -3.6
 0.130  0.7673   -8.9  18.521  171.3  0.0039   84.9  0.9850   -3.8
 0.135  0.7668   -9.2  18.508  171.0  0.0041   84.7  0.9847   -3.9
 0.140  0.7664   -9.5  18.495  170.7  0.0042   84.4  0.9844   -4.1
 0.145  0.7660   -9.9  18.483  170.5  0.0044   84.2  0.9841   -4.2
 0.150  0.7656  -10.2  18.471  170.2  0.0045   84.0  0.9838   -4.4
 0.155  0.7650  -10.5  18.454  169.9  0.0046   84.0  0.9834   -4.6
 0.160  0.7644  -10.9  18.437  169.5  0.0048   84.0  0.9831   -4.7
 0.165  0.7638  -11.2  18.421  169.2  0.0049   84.0  0.9827   -4.9
 0.170  0.7633  -11.6  18.406  168.9  0.0051   84.0  0.9823   -5.0
 0.175  0.7628  -11.9  18.391  168.6  0.0052   83.9  0.9820   -5.2
 0.180  0.7623  -12.2  18.377  168.2  0.0054   83.9  0.9817   -5.4
 0.185  0.7618  -12.6  18.363  167.9  0.0055   83.9  0.9813   -5.5
 0.190  0.7614  -12.9  18.350  167.6  0.0057   83.9  0.9810   -5.7
 0.195  0.7610  -13.3  18.338  167.2  0.0058   83.9  0.9807   -5.8
 0.200  0.7606  -13.6  18.326  166.9  0.0060   83.9  0.9804   -6.0
 0.220  0.7569  -15.0  18.291  165.7  0.0066   82.8  0.9763   -6.6
 0.240  0.7536  -16.4  18.265  164.4  0.0072   81.9  0.9723   -7.3
 0.260  0.7509  -17.8  18.204  163.2  0.0078   81.3  0.9704   -7.9
 0.280  0.7488  -19.2  18.108  162.1  0.0083   80.9  0.9706   -8.4
 0.300  0.7472  -20.6  18.020  160.9  0.0089   80.5  0.9708   -8.9
 0.320  0.7437  -21.9  17.908  159.7  0.0095   79.9  0.9671   -9.5
 0.340  0.7405  -23.2  17.804  158.4  0.0100   79.4  0.9635  -10.1
 0.360  0.7369  -24.5  17.718  157.2  0.0106   78.8  0.9602  -10.7
 0.380  0.7329  -25.8  17.648  156.0  0.0111   78.1  0.9569  -11.2
 0.400  0.7293  -27.2  17.587  154.8  0.0116   77.5  0.9538  -11.8
 0.420  0.7240  -28.4  17.461  153.7  0.0122   77.0  0.9506  -12.3
 0.440  0.7190  -29.7  17.342  152.5  0.0127   76.5  0.9474  -12.8
 0.450  0.7166  -30.3  17.285  151.9  0.0130   76.3  0.9459  -13.1
 0.460  0.7144  -30.9  17.236  151.3  0.0133   76.0  0.9440  -13.4
 0.480  0.7102  -32.1  17.141  150.2  0.0138   75.4  0.9402  -13.9
 0.500  0.7064  -33.4  17.054  149.1  0.0143   74.9  0.9365  -14.4
 0.520  0.7006  -34.6  16.915  148.0  0.0148   74.3  0.9325  -14.9
 0.540  0.6952  -35.8  16.782  146.9  0.0153   73.8  0.9285  -15.4
 0.560  0.6901  -37.1  16.655  145.8  0.0158   73.2  0.9246  -15.9
 0.580  0.6853  -38.3  16.535  144.7  0.0163   72.8  0.9208  -16.4
 0.600  0.6808  -39.6  16.421  143.5  0.0168   72.3  0.9170  -16.9
 0.620  0.6748  -40.7  16.286  142.5  0.0173   71.8  0.9127  -17.4
 0.640  0.6690  -41.9  16.156  141.5  0.0177   71.4  0.9084  -17.8
 0.660  0.6635  -43.1  16.031  140.5  0.0182   70.9  0.9042  -18.3
 0.680  0.6583  -44.3  15.911  139.5  0.0186   70.5  0.9000  -18.7
 0.700  0.6534  -45.5  15.797  138.4  0.0191   70.1  0.8959  -19.2
 0.720  0.6471  -46.6  15.663  137.4  0.0195   69.7  0.8915  -19.6
 0.740  0.6410  -47.8  15.534  136.4  0.0200   69.2  0.8872  -20.1
 0.760  0.6352  -49.0  15.410  135.4  0.0204   68.8  0.8829  -20.5
 0.780  0.6297  -50.2  15.290  134.4  0.0209   68.5  0.8787  -21.0
 0.800  0.6244  -51.4  15.176  133.3  0.0213   68.1  0.8745  -21.4
 0.820  0.6184  -52.4  15.039  132.4  0.0217   67.7  0.8700  -21.8
 0.840  0.6126  -53.5  14.906  131.5  0.0221   67.3  0.8655  -22.2
 0.860  0.6070  -54.6  14.777  130.6  0.0225   66.9  0.8611  -22.6
 0.880  0.6016  -55.7  14.651  129.7  0.0229   66.6  0.8567  -23.0
 0.900  0.5965  -56.8  14.530  128.7  0.0233   66.2  0.8523  -23.4
 0.920  0.5904  -57.8  14.392  127.9  0.0237   65.8  0.8480  -23.8
 0.940  0.5846  -58.8  14.258  127.0  0.0241   65.5  0.8437  -24.1
 0.960  0.5789  -59.9  14.127  126.1  0.0244   65.1  0.8394  -24.5
 0.980  0.5734  -60.9  13.999  125.2  0.0248   64.8  0.8352  -24.9
 1.000  0.5681  -62.0  13.875  124.3  0.0252   64.5  0.8310  -25.3
 1.020  0.5623  -63.0  13.749  123.5  0.0256   64.2  0.8267  -25.6
 1.040  0.5567  -64.1  13.626  122.7  0.0260   63.9  0.8225  -26.0
 1.060  0.5513  -65.1  13.505  121.9  0.0263   63.6  0.8183  -26.3
 1.080  0.5461  -66.2  13.387  121.0  0.0267   63.3  0.8141  -26.7
 1.100  0.5411  -67.3  13.272  120.2  0.0271   63.0  0.8100  -27.0
 1.120  0.5354  -68.2  13.145  119.4  0.0274   62.7  0.8058  -27.3
 1.140  0.5298  -69.2  13.020  118.7  0.0278   62.4  0.8016  -27.6
 1.160  0.5244  -70.2  12.898  117.9  0.0281   62.1  0.7974  -27.9
 1.180  0.5191  -71.2  12.778  117.1  0.0285   61.9  0.7932  -28.3
 1.200  0.5140  -72.2  12.661  116.3  0.0288   61.6  0.7891  -28.6
 1.220  0.5088  -73.1  12.542  115.6  0.0291   61.3  0.7852  -28.9
 1.240  0.5038  -74.1  12.425  114.9  0.0295   61.1  0.7812  -29.2
 1.260  0.4989  -75.0  12.310  114.1  0.0298   60.9  0.7773  -29.4
 1.280  0.4941  -76.0  12.198  113.4  0.0302   60.6  0.7735  -29.7
 1.300  0.4895  -77.0  12.087  112.6  0.0305   60.4  0.7696  -30.0
 1.320  0.4846  -77.9  11.975  111.9  0.0308   60.2  0.7657  -30.3
 1.340  0.4798  -78.9  11.865  111.3  0.0311   59.9  0.7619  -30.6
 1.360  0.4751  -79.9  11.756  110.6  0.0314   59.7  0.7580  -30.8
 1.380  0.4706  -80.9  11.649  109.9  0.0317   59.5  0.7542  -31.1
 1.400  0.4662  -81.9  11.544  109.2  0.0320   59.3  0.7504  -31.4
 1.420  0.4615  -82.8  11.437  108.6  0.0323   59.1  0.7467  -31.6
 1.440  0.4569  -83.7  11.332  107.9  0.0326   58.9  0.7431  -31.9
 1.460  0.4525  -84.7  11.228  107.3  0.0330   58.7  0.7394  -32.1
 1.480  0.4481  -85.6  11.126  106.6  0.0333   58.5  0.7358  -32.4
 1.500  0.4439  -86.6  11.025  105.9  0.0336   58.3  0.7322  -32.6
 1.520  0.4394  -87.5  10.930  105.3  0.0339   58.1  0.7287  -32.9
 1.540  0.4350  -88.4  10.836  104.7  0.0342   57.9  0.7253  -33.1
 1.560  0.4308  -89.4  10.743  104.1  0.0345   57.7  0.7218  -33.4
 1.580  0.4266  -90.3  10.651  103.4  0.0348   57.5  0.7184  -33.6
 1.600  0.4226  -91.3  10.561  102.8  0.0351   57.3  0.7150  -33.9
 1.620  0.4189  -92.2  10.467  102.2  0.0354   57.2  0.7116  -34.1
 1.640  0.4154  -93.0  10.373  101.7  0.0357   57.0  0.7082  -34.3
 1.660  0.4119  -93.9  10.281  101.1  0.0359   56.9  0.7049  -34.6
 1.680  0.4086  -94.8  10.190  100.5  0.0362   56.7  0.7015  -34.8
 1.700  0.4053  -95.7  10.100   99.9  0.0365   56.6  0.6982  -35.0
 1.720  0.4014  -96.6  10.011   99.3  0.0368   56.4  0.6951  -35.2
 1.740  0.3976  -97.4   9.923   98.8  0.0371   56.2  0.6920  -35.4
 1.760  0.3940  -98.3   9.836   98.2  0.0373   56.1  0.6889  -35.7
 1.780  0.3904  -99.3   9.750   97.6  0.0376   55.9  0.6859  -35.9
 1.800  0.3869 -100.2   9.665   97.0  0.0379   55.7  0.6828  -36.1
 1.820  0.3835 -101.1   9.586   96.5  0.0382   55.6  0.6797  -36.3
 1.840  0.3803 -102.1   9.507   96.0  0.0385   55.4  0.6767  -36.5
 1.860  0.3771 -103.0   9.430   95.5  0.0388   55.3  0.6736  -36.7
 1.880  0.3740 -104.0   9.353   94.9  0.0391   55.1  0.6705  -36.9
 1.900  0.3711 -105.0   9.277   94.4  0.0394   55.0  0.6675  -37.1
 1.920  0.3681 -105.9   9.202   93.9  0.0397   54.8  0.6647  -37.3
 1.940  0.3651 -106.7   9.128   93.4  0.0400   54.7  0.6619  -37.5
 1.960  0.3622 -107.6   9.054   92.9  0.0402   54.5  0.6591  -37.7
 1.980  0.3594 -108.5   8.981   92.4  0.0405   54.4  0.6563  -37.9
 2.000  0.3567 -109.4   8.909   91.9  0.0408   54.2  0.6535  -38.1
 2.020  0.3538 -110.2   8.839   91.4  0.0411   54.1  0.6508  -38.3
 2.040  0.3510 -111.1   8.770   91.0  0.0413   53.9  0.6480  -38.4
 2.060  0.3483 -111.9   8.702   90.5  0.0416   53.8  0.6453  -38.6
 2.080  0.3456 -112.8   8.634   90.0  0.0419   53.7  0.6426  -38.8
 2.100  0.3430 -113.7   8.566   89.5  0.0421   53.6  0.6399  -39.0
 2.120  0.3405 -114.6   8.499   89.1  0.0424   53.5  0.6372  -39.2
 2.140  0.3381 -115.5   8.433   88.6  0.0427   53.3  0.6345  -39.3
 2.160  0.3358 -116.4   8.368   88.0  0.0430   53.2  0.6318  -39.5
 2.180  0.3335 -117.4   8.303   87.5  0.0432   53.1  0.6291  -39.7
 2.200  0.3314 -118.3   8.239   87.0  0.0435   53.0  0.6264  -39.9
 2.220  0.3291 -119.2   8.179   86.6  0.0438   52.9  0.6239  -40.1
 2.240  0.3269 -120.1   8.119   86.2  0.0441   52.7  0.6213  -40.3
 2.260  0.3247 -121.0   8.059   85.7  0.0443   52.6  0.6188  -40.5
 2.280  0.3227 -121.9   8.000   85.3  0.0446   52.5  0.6163  -40.6
 2.300  0.3207 -122.9   7.942   84.8  0.0449   52.3  0.6138  -40.8
 2.320  0.3188 -123.8   7.884   84.4  0.0452   52.2  0.6113  -41.0
 2.340  0.3170 -124.8   7.826   83.9  0.0455   52.1  0.6088  -41.2
 2.360  0.3153 -125.7   7.769   83.5  0.0457   51.9  0.6063  -41.4
 2.380  0.3137 -126.7   7.713   83.0  0.0460   51.8  0.6038  -41.6
 2.400  0.3122 -127.7   7.657   82.5  0.0463   51.7  0.6013  -41.8
 2.420  0.3103 -128.5   7.604   82.1  0.0466   51.6  0.5989  -42.0
 2.440  0.3086 -129.4   7.551   81.7  0.0469   51.4  0.5965  -42.1
 2.460  0.3068 -130.2   7.498   81.3  0.0471   51.3  0.5941  -42.3
 2.480  0.3052 -131.1   7.446   80.9  0.0474   51.2  0.5918  -42.4
 2.500  0.3036 -132.0   7.394   80.5  0.0477   51.1  0.5894  -42.6
 2.520  0.3021 -132.9   7.343   80.1  0.0480   51.0  0.5870  -42.7
 2.540  0.3007 -133.8   7.292   79.6  0.0483   50.8  0.5847  -42.9
 2.560  0.2993 -134.7   7.241   79.2  0.0485   50.7  0.5823  -43.1
 2.580  0.2980 -135.6   7.191   78.7  0.0488   50.6  0.5799  -43.2
 2.600  0.2968 -136.5   7.141   78.3  0.0491   50.5  0.5776  -43.4
 2.620  0.2953 -137.4   7.095   77.9  0.0494   50.4  0.5753  -43.6
 2.640  0.2939 -138.3   7.049   77.5  0.0497   50.2  0.5730  -43.7
 2.660  0.2926 -139.2   7.004   77.2  0.0499   50.1  0.5707  -43.9
 2.680  0.2913 -140.1   6.959   76.8  0.0502   50.0  0.5685  -44.1
 2.700  0.2901 -141.0   6.914   76.4  0.0505   49.9  0.5662  -44.3
 2.720  0.2890 -141.9   6.869   76.0  0.0508   49.8  0.5639  -44.5
 2.740  0.2880 -142.8   6.825   75.6  0.0511   49.6  0.5617  -44.6
 2.760  0.2870 -143.7   6.781   75.1  0.0513   49.5  0.5594  -44.8
 2.780  0.2861 -144.7   6.738   74.7  0.0516   49.4  0.5571  -45.0
 2.800  0.2853 -145.6   6.695   74.3  0.0519   49.3  0.5549  -45.2
 2.820  0.2841 -146.4   6.653   73.9  0.0522   49.2  0.5527  -45.4
 2.840  0.2830 -147.3   6.612   73.6  0.0525   49.0  0.5505  -45.5
 2.860  0.2819 -148.1   6.570   73.2  0.0527   48.9  0.5483  -45.7
 2.880  0.2809 -149.0   6.529   72.8  0.0530   48.8  0.5461  -45.8
 2.900  0.2799 -149.8   6.489   72.4  0.0533   48.7  0.5439  -46.0
 2.920  0.2790 -150.7   6.448   72.0  0.0536   48.6  0.5417  -46.1
 2.940  0.2782 -151.6   6.408   71.6  0.0539   48.4  0.5395  -46.3
 2.960  0.2774 -152.4   6.369   71.2  0.0541   48.3  0.5373  -46.5
 2.980  0.2767 -153.3   6.329   70.8  0.0544   48.2  0.5352  -46.6
 3.000  0.2761 -154.2   6.290   70.4  0.0547   48.1  0.5330  -46.8
 3.100  0.2711 -158.5   6.111   68.8  0.0561   47.4  0.5222  -47.6
 3.200  0.2678 -162.9   5.937   67.0  0.0575   46.7  0.5114  -48.4
 3.300  0.2660 -167.4   5.769   65.2  0.0589   46.1  0.5008  -49.2
 3.400  0.2659 -171.9   5.607   63.3  0.0603   45.5  0.4903  -50.1
 3.500  0.2674 -176.4   5.452   61.2  0.0617   44.9  0.4799  -51.0
 3.600  0.2662  179.5   5.308   59.7  0.0630   44.2  0.4702  -51.8
 3.700  0.2664  175.4   5.168   58.0  0.0644   43.5  0.4606  -52.7
 3.800  0.2679  171.4   5.032   56.3  0.0658   42.8  0.4511  -53.5
 3.900  0.2708  167.4   4.901   54.5  0.0671   42.1  0.4418  -54.4
 4.000  0.2749  163.5   4.775   52.6  0.0685   41.5  0.4325  -55.4
 4.100  0.2779  160.0   4.659   51.2  0.0698   40.7  0.4241  -56.2
 4.200  0.2820  156.5   4.546   49.6  0.0711   40.0  0.4157  -57.1
 4.300  0.2870  153.2   4.436   48.0  0.0725   39.3  0.4075  -58.0
 4.400  0.2930  150.0   4.330   46.4  0.0738   38.6  0.3993  -59.0
 4.500  0.2999  146.9   4.228   44.6  0.0752   38.0  0.3913  -60.0
 4.600  0.3056  144.5   4.132   43.3  0.0765   37.2  0.3839  -60.9
 4.700  0.3118  142.1   4.039   41.8  0.0778   36.5  0.3767  -61.8
 4.800  0.3184  139.9   3.949   40.4  0.0791   35.8  0.3695  -62.7
 4.900  0.3256  137.8   3.861   38.8  0.0804   35.1  0.3625  -63.7
 5.000  0.3332  135.7   3.776   37.2  0.0817   34.4  0.3555  -64.7
 5.100  0.3385  134.1   3.700   35.9  0.0829   33.7  0.3494  -65.4
 5.200  0.3442  132.5   3.626   34.6  0.0841   33.0  0.3434  -66.2
 5.300  0.3500  130.9   3.553   33.3  0.0854   32.3  0.3374  -67.0
 5.400  0.3562  129.4   3.483   31.9  0.0866   31.6  0.3315  -67.8
 5.500  0.3625  128.0   3.415   30.4  0.0879   31.0  0.3257  -68.7
 5.600  0.3660  126.7   3.354   29.2  0.0892   30.3  0.3201  -69.4
 5.700  0.3698  125.4   3.295   27.9  0.0905   29.6  0.3146  -70.0
 5.800  0.3737  124.1   3.237   26.6  0.0918   29.0  0.3092  -70.7
 5.900  0.3777  122.9   3.181   25.2  0.0932   28.3  0.3038  -71.4
 6.000  0.3820  121.7   3.127   23.8  0.0945   27.7  0.2984  -72.2
 6.100  0.3843  120.3   3.077   22.5  0.0958   26.9  0.2930  -73.0
 6.200  0.3869  118.8   3.030   21.2  0.0972   26.2  0.2877  -73.7
 6.300  0.3896  117.4   2.983   19.8  0.0986   25.5  0.2824  -74.6
 6.400  0.3927  116.1   2.939   18.4  0.1000   24.8  0.2772  -75.4
 6.500  0.3959  114.7   2.896   17.0  0.1014   24.1  0.2721  -76.3
 6.600  0.3973  112.9   2.849   15.7  0.1027   23.3  0.2667  -77.0
 6.800  0.4013  109.2   2.759   13.0  0.1055   21.7  0.2561  -78.5
 7.000  0.4069  105.7   2.675   10.1  0.1083   20.2  0.2457  -80.1
 7.200  0.4141  102.0   2.593    7.5  0.1110   18.4  0.2354  -81.6
 7.400  0.4230   98.3   2.518    4.7  0.1138   16.7  0.2252  -83.3
 7.600  0.4352   95.0   2.445    2.1  0.1164   14.9  0.2138  -85.0
 7.800  0.4505   91.8   2.374   -0.5  0.1188   13.1  0.2011  -86.8
 8.000  0.4671   88.9   2.309   -3.3  0.1213   11.3  0.1887  -88.9
 8.200  0.4858   86.5   2.241   -5.7  0.1230    9.5  0.1700  -90.4
 8.400  0.5052   84.3   2.176   -8.3  0.1248    7.8  0.1514  -92.4
 8.600  0.5245   82.4   2.118  -10.8  0.1266    6.0  0.1307  -94.6
 8.800  0.5433   80.8   2.064  -13.2  0.1284    4.3  0.1078  -97.6
 9.000  0.5626   79.2   2.014  -15.8  0.1302    2.7  0.0853 -102.1
 9.200  0.5807   77.3   1.960  -18.5  0.1316    1.0  0.0617 -109.8
 9.400  0.5995   75.5   1.910  -21.3  0.1330   -0.6  0.0406 -126.3
 9.600  0.6142   73.2   1.852  -24.0  0.1344   -2.1  0.0286 -164.8
 9.800  0.6256   70.4   1.785  -26.5  0.1356   -3.6  0.0363  151.0
10.000  0.6383   67.8   1.722  -29.2  0.1369   -5.0  0.0558  130.0
!
!  f       NFmin   Gammaopt  rn/50
! GHz       dB    MAG  ANG    -
 0.900      1.48  0.25    8   0.32
 1.800      1.74  0.19   10   0.30
 2.400      1.86  0.16   14   0.30
 3.000      1.88  0.12   33   0.28
 4.000      2.05  0.03   -6   0.27
 5.000      2.41  0.06 -110   0.26
!
! (c) 2016  Infineon Technologies AG, Munich
