! Infineon Technologies  Discrete & RF Semiconductors
! BFP405
! VCE =  3.0 V,  IC =  12 mA
! Common Emitter S-Parameters:                            Jan 2016
# GHz  S  MA  R  50
!  f         S11            S21            S12            S22
! GHz     MAG   ANG      MAG   ANG      MAG   ANG      MAG   ANG
 0.010  0.7024    0.6  23.706 -178.5  0.0008  -12.1  0.9662    2.4
 0.015  0.7020   -0.3  23.582  179.4  0.0005   40.5  0.9698    1.3
 0.020  0.7018   -1.3  23.489  177.3  0.0008   93.2  0.9738    0.3
 0.025  0.7011   -1.7  23.435  177.1  0.0009   92.2  0.9750    0.1
 0.030  0.7005   -2.2  23.381  176.8  0.0010   91.5  0.9761   -0.1
 0.035  0.6999   -2.6  23.327  176.6  0.0011   90.9  0.9773   -0.4
 0.040  0.6994   -3.0  23.274  176.3  0.0013   90.4  0.9785   -0.6
 0.045  0.6989   -3.5  23.221  176.1  0.0014   90.0  0.9798   -0.8
 0.050  0.6984   -3.9  23.169  175.8  0.0015   89.7  0.9810   -1.0
 0.055  0.6980   -4.3  23.163  175.4  0.0016   89.3  0.9811   -1.2
 0.060  0.6976   -4.8  23.158  175.0  0.0018   88.9  0.9812   -1.4
 0.065  0.6973   -5.2  23.154  174.6  0.0019   88.6  0.9813   -1.6
 0.070  0.6970   -5.6  23.151  174.2  0.0021   88.3  0.9814   -1.8
 0.075  0.6968   -6.0  23.150  173.8  0.0022   88.1  0.9816   -2.1
 0.080  0.6965   -6.5  23.149  173.3  0.0024   87.9  0.9817   -2.3
 0.085  0.6964   -6.9  23.150  172.9  0.0025   87.7  0.9819   -2.5
 0.090  0.6962   -7.3  23.152  172.5  0.0027   87.6  0.9821   -2.7
 0.095  0.6962   -7.8  23.156  172.1  0.0028   87.4  0.9823   -2.9
 0.100  0.6961   -8.2  23.160  171.7  0.0030   87.3  0.9825   -3.1
 0.105  0.6954   -8.6  23.134  171.4  0.0031   86.8  0.9820   -3.3
 0.110  0.6948   -9.0  23.108  171.0  0.0033   86.4  0.9816   -3.5
 0.115  0.6942   -9.4  23.083  170.7  0.0034   86.0  0.9812   -3.7
 0.120  0.6936   -9.8  23.059  170.4  0.0035   85.6  0.9807   -3.9
 0.125  0.6931  -10.2  23.035  170.1  0.0036   85.2  0.9803   -4.0
 0.130  0.6926  -10.7  23.013  169.7  0.0038   84.9  0.9799   -4.2
 0.135  0.6922  -11.1  22.991  169.4  0.0039   84.6  0.9795   -4.4
 0.140  0.6917  -11.5  22.970  169.1  0.0040   84.3  0.9791   -4.6
 0.145  0.6913  -11.9  22.950  168.7  0.0042   84.1  0.9788   -4.8
 0.150  0.6910  -12.3  22.930  168.4  0.0043   83.8  0.9784   -5.0
 0.155  0.6901  -12.7  22.900  168.0  0.0044   83.6  0.9778   -5.2
 0.160  0.6893  -13.2  22.870  167.6  0.0046   83.4  0.9772   -5.4
 0.165  0.6885  -13.6  22.842  167.3  0.0047   83.2  0.9766   -5.5
 0.170  0.6878  -14.0  22.815  166.9  0.0049   83.0  0.9760   -5.7
 0.175  0.6870  -14.5  22.788  166.5  0.0050   82.8  0.9755   -5.9
 0.180  0.6864  -14.9  22.763  166.1  0.0052   82.7  0.9749   -6.1
 0.185  0.6857  -15.4  22.739  165.7  0.0053   82.5  0.9744   -6.3
 0.190  0.6852  -15.8  22.716  165.4  0.0055   82.4  0.9738   -6.4
 0.195  0.6846  -16.3  22.693  165.0  0.0056   82.2  0.9733   -6.6
 0.200  0.6841  -16.7  22.672  164.6  0.0058   82.1  0.9728   -6.8
 0.220  0.6801  -18.3  22.584  163.1  0.0063   81.6  0.9678   -7.5
 0.240  0.6767  -20.0  22.511  161.6  0.0068   81.2  0.9629   -8.2
 0.260  0.6730  -21.6  22.394  160.2  0.0074   80.5  0.9600   -8.8
 0.280  0.6691  -23.3  22.232  158.9  0.0079   79.7  0.9590   -9.5
 0.300  0.6657  -25.0  22.083  157.5  0.0084   79.0  0.9581  -10.1
 0.320  0.6609  -26.5  21.897  156.1  0.0089   78.4  0.9534  -10.7
 0.340  0.6565  -28.0  21.726  154.6  0.0094   77.9  0.9488  -11.4
 0.360  0.6517  -29.5  21.567  153.2  0.0099   77.2  0.9442  -12.0
 0.380  0.6465  -31.1  21.421  151.8  0.0104   76.6  0.9397  -12.6
 0.400  0.6418  -32.7  21.288  150.4  0.0110   76.0  0.9353  -13.2
 0.420  0.6357  -34.2  21.081  149.1  0.0115   75.5  0.9309  -13.8
 0.440  0.6300  -35.7  20.884  147.9  0.0120   75.0  0.9265  -14.3
 0.450  0.6273  -36.5  20.790  147.2  0.0122   74.8  0.9244  -14.6
 0.460  0.6241  -37.2  20.701  146.6  0.0124   74.5  0.9219  -14.9
 0.480  0.6181  -38.6  20.529  145.4  0.0129   73.9  0.9168  -15.4
 0.500  0.6125  -40.1  20.367  144.1  0.0133   73.3  0.9119  -16.0
 0.520  0.6056  -41.4  20.142  142.9  0.0137   72.7  0.9067  -16.5
 0.540  0.5990  -42.8  19.926  141.7  0.0142   72.2  0.9017  -17.0
 0.560  0.5927  -44.2  19.719  140.5  0.0146   71.7  0.8966  -17.5
 0.580  0.5868  -45.6  19.521  139.2  0.0151   71.2  0.8917  -18.0
 0.600  0.5813  -47.1  19.333  137.9  0.0155   70.8  0.8868  -18.5
 0.620  0.5747  -48.4  19.120  136.8  0.0159   70.4  0.8816  -18.9
 0.640  0.5683  -49.7  18.913  135.8  0.0163   70.0  0.8764  -19.4
 0.660  0.5622  -51.0  18.713  134.7  0.0167   69.7  0.8712  -19.8
 0.680  0.5565  -52.4  18.520  133.5  0.0171   69.3  0.8661  -20.2
 0.700  0.5511  -53.8  18.334  132.4  0.0175   69.0  0.8611  -20.7
 0.720  0.5444  -55.0  18.128  131.4  0.0179   68.6  0.8559  -21.1
 0.740  0.5379  -56.3  17.928  130.4  0.0183   68.2  0.8507  -21.5
 0.760  0.5316  -57.6  17.734  129.3  0.0186   67.8  0.8456  -21.9
 0.780  0.5257  -58.9  17.545  128.3  0.0190   67.4  0.8405  -22.3
 0.800  0.5200  -60.2  17.363  127.2  0.0194   67.1  0.8355  -22.7
 0.820  0.5138  -61.3  17.163  126.3  0.0197   66.8  0.8305  -23.1
 0.840  0.5078  -62.5  16.967  125.3  0.0201   66.5  0.8256  -23.4
 0.860  0.5020  -63.7  16.776  124.4  0.0204   66.2  0.8206  -23.8
 0.880  0.4964  -64.9  16.590  123.4  0.0208   65.9  0.8157  -24.2
 0.900  0.4910  -66.1  16.409  122.4  0.0211   65.6  0.8109  -24.6
 0.920  0.4849  -67.2  16.218  121.6  0.0214   65.3  0.8063  -24.9
 0.940  0.4790  -68.3  16.030  120.7  0.0218   65.0  0.8017  -25.2
 0.960  0.4733  -69.5  15.846  119.8  0.0221   64.7  0.7971  -25.5
 0.980  0.4678  -70.7  15.666  118.9  0.0225   64.5  0.7925  -25.9
 1.000  0.4625  -71.9  15.490  118.0  0.0228   64.2  0.7880  -26.2
 1.020  0.4570  -73.0  15.318  117.2  0.0231   64.0  0.7835  -26.5
 1.040  0.4516  -74.1  15.148  116.4  0.0234   63.8  0.7790  -26.8
 1.060  0.4464  -75.2  14.981  115.6  0.0237   63.6  0.7746  -27.0
 1.080  0.4413  -76.4  14.818  114.8  0.0240   63.4  0.7701  -27.3
 1.100  0.4365  -77.6  14.658  113.9  0.0243   63.2  0.7657  -27.6
 1.120  0.4312  -78.6  14.491  113.2  0.0246   63.0  0.7615  -27.9
 1.140  0.4261  -79.7  14.326  112.5  0.0249   62.8  0.7574  -28.2
 1.160  0.4211  -80.8  14.164  111.7  0.0253   62.6  0.7532  -28.4
 1.180  0.4163  -81.9  14.004  111.0  0.0256   62.5  0.7491  -28.7
 1.200  0.4116  -83.0  13.846  110.2  0.0259   62.3  0.7450  -29.0
 1.220  0.4070  -84.0  13.694  109.5  0.0262   62.1  0.7411  -29.3
 1.240  0.4025  -85.0  13.544  108.8  0.0265   61.9  0.7372  -29.5
 1.260  0.3981  -86.1  13.396  108.1  0.0267   61.7  0.7333  -29.8
 1.280  0.3939  -87.1  13.250  107.4  0.0270   61.6  0.7294  -30.0
 1.300  0.3898  -88.2  13.107  106.6  0.0273   61.4  0.7255  -30.3
 1.320  0.3853  -89.2  12.967  106.0  0.0276   61.3  0.7218  -30.5
 1.340  0.3810  -90.3  12.828  105.3  0.0279   61.1  0.7181  -30.7
 1.360  0.3768  -91.4  12.691  104.7  0.0282   61.0  0.7144  -31.0
 1.380  0.3727  -92.5  12.556  104.0  0.0285   60.8  0.7108  -31.2
 1.400  0.3688  -93.6  12.423  103.3  0.0288   60.7  0.7071  -31.4
 1.420  0.3648  -94.6  12.293  102.7  0.0291   60.6  0.7036  -31.6
 1.440  0.3609  -95.6  12.164  102.1  0.0294   60.5  0.7001  -31.8
 1.460  0.3571  -96.6  12.036  101.4  0.0296   60.3  0.6967  -32.1
 1.480  0.3534  -97.6  11.910  100.8  0.0299   60.2  0.6932  -32.3
 1.500  0.3499  -98.7  11.786  100.1  0.0302   60.1  0.6898  -32.5
 1.520  0.3463  -99.7  11.670   99.5  0.0305   60.0  0.6866  -32.7
 1.540  0.3429 -100.7  11.555   99.0  0.0308   59.9  0.6833  -32.9
 1.560  0.3395 -101.7  11.442   98.4  0.0310   59.7  0.6801  -33.1
 1.580  0.3362 -102.7  11.329   97.8  0.0313   59.6  0.6769  -33.3
 1.600  0.3331 -103.8  11.218   97.2  0.0316   59.5  0.6737  -33.5
 1.620  0.3301 -104.7  11.107   96.7  0.0319   59.4  0.6706  -33.7
 1.640  0.3272 -105.6  10.997   96.2  0.0322   59.3  0.6676  -33.9
 1.660  0.3244 -106.6  10.888   95.6  0.0324   59.1  0.6646  -34.1
 1.680  0.3217 -107.5  10.780   95.1  0.0327   59.0  0.6615  -34.3
 1.700  0.3191 -108.5  10.673   94.5  0.0330   58.9  0.6585  -34.5
 1.720  0.3161 -109.5  10.570   94.0  0.0333   58.8  0.6556  -34.7
 1.740  0.3133 -110.5  10.467   93.5  0.0336   58.7  0.6528  -34.9
 1.760  0.3105 -111.6  10.365   92.9  0.0338   58.5  0.6500  -35.0
 1.780  0.3079 -112.6  10.265   92.4  0.0341   58.4  0.6471  -35.2
 1.800  0.3053 -113.7  10.165   91.8  0.0344   58.3  0.6443  -35.4
 1.820  0.3028 -114.7  10.074   91.3  0.0347   58.2  0.6415  -35.6
 1.840  0.3003 -115.7   9.983   90.9  0.0350   58.2  0.6387  -35.8
 1.860  0.2980 -116.7   9.893   90.4  0.0353   58.1  0.6359  -35.9
 1.880  0.2958 -117.7   9.804   89.9  0.0356   58.1  0.6332  -36.1
 1.900  0.2936 -118.7   9.715   89.4  0.0359   58.0  0.6304  -36.3
 1.920  0.2914 -119.7   9.629   88.9  0.0362   57.9  0.6278  -36.5
 1.940  0.2894 -120.7   9.544   88.5  0.0365   57.8  0.6252  -36.7
 1.960  0.2874 -121.7   9.460   88.0  0.0367   57.6  0.6226  -36.8
 1.980  0.2855 -122.7   9.376   87.5  0.0370   57.5  0.6201  -37.0
 2.000  0.2837 -123.7   9.293   87.0  0.0373   57.4  0.6175  -37.2
 2.020  0.2817 -124.6   9.215   86.6  0.0376   57.3  0.6151  -37.4
 2.040  0.2799 -125.6   9.137   86.2  0.0379   57.2  0.6127  -37.5
 2.060  0.2781 -126.5   9.060   85.7  0.0381   57.1  0.6103  -37.7
 2.080  0.2763 -127.5   8.984   85.3  0.0384   57.0  0.6080  -37.8
 2.100  0.2747 -128.5   8.908   84.8  0.0387   56.9  0.6056  -38.0
 2.120  0.2731 -129.4   8.832   84.4  0.0390   56.8  0.6032  -38.1
 2.140  0.2716 -130.4   8.757   83.9  0.0393   56.7  0.6009  -38.3
 2.160  0.2702 -131.5   8.683   83.5  0.0395   56.6  0.5985  -38.5
 2.180  0.2689 -132.5   8.609   83.0  0.0398   56.5  0.5961  -38.6
 2.200  0.2677 -133.5   8.536   82.5  0.0401   56.4  0.5938  -38.8
 2.220  0.2663 -134.4   8.470   82.1  0.0404   56.3  0.5915  -39.0
 2.240  0.2649 -135.4   8.404   81.7  0.0407   56.2  0.5892  -39.1
 2.260  0.2637 -136.4   8.339   81.3  0.0409   56.1  0.5869  -39.3
 2.280  0.2625 -137.3   8.274   80.9  0.0412   56.0  0.5847  -39.4
 2.300  0.2613 -138.3   8.210   80.5  0.0415   55.9  0.5824  -39.6
 2.320  0.2603 -139.3   8.146   80.1  0.0418   55.8  0.5801  -39.7
 2.340  0.2593 -140.3   8.083   79.6  0.0421   55.7  0.5779  -39.9
 2.360  0.2584 -141.3   8.020   79.2  0.0423   55.6  0.5756  -40.1
 2.380  0.2576 -142.3   7.957   78.8  0.0426   55.5  0.5733  -40.2
 2.400  0.2569 -143.3   7.895   78.3  0.0429   55.4  0.5711  -40.4
 2.420  0.2559 -144.2   7.837   77.9  0.0432   55.3  0.5690  -40.6
 2.440  0.2549 -145.1   7.779   77.5  0.0435   55.2  0.5669  -40.7
 2.460  0.2539 -146.0   7.722   77.2  0.0438   55.1  0.5648  -40.9
 2.480  0.2531 -146.9   7.665   76.8  0.0441   55.0  0.5627  -41.0
 2.500  0.2523 -147.8   7.608   76.4  0.0444   54.9  0.5606  -41.2
 2.520  0.2516 -148.8   7.552   76.0  0.0447   54.8  0.5585  -41.3
 2.540  0.2509 -149.7   7.496   75.6  0.0450   54.7  0.5564  -41.5
 2.560  0.2503 -150.6   7.441   75.1  0.0453   54.6  0.5543  -41.7
 2.580  0.2498 -151.6   7.386   74.7  0.0456   54.5  0.5523  -41.8
 2.600  0.2493 -152.5   7.331   74.3  0.0459   54.4  0.5502  -42.0
 2.620  0.2486 -153.4   7.281   74.0  0.0462   54.3  0.5481  -42.1
 2.640  0.2480 -154.3   7.232   73.6  0.0465   54.2  0.5461  -42.3
 2.660  0.2474 -155.1   7.182   73.2  0.0468   54.1  0.5440  -42.4
 2.680  0.2469 -156.0   7.133   72.9  0.0471   53.9  0.5420  -42.6
 2.700  0.2465 -156.9   7.085   72.5  0.0473   53.8  0.5399  -42.7
 2.720  0.2461 -157.8   7.036   72.1  0.0476   53.7  0.5379  -42.9
 2.740  0.2458 -158.7   6.988   71.8  0.0479   53.6  0.5358  -43.0
 2.760  0.2455 -159.6   6.941   71.4  0.0482   53.5  0.5338  -43.2
 2.780  0.2453 -160.5   6.893   71.0  0.0485   53.4  0.5317  -43.3
 2.800  0.2452 -161.4   6.846   70.6  0.0488   53.3  0.5297  -43.5
 2.820  0.2448 -162.3   6.802   70.3  0.0491   53.2  0.5277  -43.7
 2.840  0.2445 -163.1   6.758   69.9  0.0494   53.1  0.5257  -43.8
 2.860  0.2442 -164.0   6.714   69.5  0.0497   53.0  0.5237  -44.0
 2.880  0.2439 -164.9   6.670   69.2  0.0500   52.8  0.5218  -44.1
 2.900  0.2438 -165.8   6.627   68.8  0.0503   52.7  0.5198  -44.3
 2.920  0.2437 -166.7   6.584   68.4  0.0506   52.6  0.5178  -44.4
 2.940  0.2436 -167.6   6.541   68.1  0.0509   52.5  0.5159  -44.6
 2.960  0.2436 -168.4   6.499   67.7  0.0512   52.4  0.5139  -44.8
 2.980  0.2437 -169.3   6.457   67.3  0.0515   52.3  0.5120  -44.9
 3.000  0.2438 -170.2   6.415   66.9  0.0518   52.2  0.5100  -45.1
 3.100  0.2428 -174.3   6.228   65.4  0.0533   51.5  0.5001  -45.8
 3.200  0.2430 -178.5   6.045   63.8  0.0547   50.8  0.4902  -46.6
 3.300  0.2446  177.4   5.867   62.0  0.0562   50.1  0.4805  -47.4
 3.400  0.2473  173.3   5.695   60.2  0.0577   49.5  0.4708  -48.2
 3.500  0.2513  169.4   5.529   58.3  0.0592   48.9  0.4613  -49.1
 3.600  0.2530  165.6   5.381   56.9  0.0606   48.1  0.4523  -49.9
 3.700  0.2558  161.9   5.236   55.3  0.0621   47.4  0.4434  -50.7
 3.800  0.2596  158.3   5.095   53.7  0.0636   46.7  0.4345  -51.6
 3.900  0.2645  154.8   4.959   52.0  0.0650   46.0  0.4258  -52.5
 4.000  0.2703  151.4   4.827   50.2  0.0665   45.4  0.4172  -53.4
 4.100  0.2755  148.4   4.709   48.8  0.0679   44.6  0.4092  -54.2
 4.200  0.2814  145.5   4.594   47.4  0.0693   43.9  0.4013  -55.1
 4.300  0.2880  142.7   4.481   45.9  0.0708   43.2  0.3934  -56.1
 4.400  0.2952  140.0   4.372   44.3  0.0722   42.5  0.3857  -57.0
 4.500  0.3031  137.5   4.267   42.6  0.0737   41.8  0.3781  -58.0
 4.600  0.3093  135.5   4.171   41.3  0.0751   41.0  0.3711  -58.9
 4.700  0.3158  133.5   4.077   40.0  0.0765   40.2  0.3642  -59.7
 4.800  0.3227  131.7   3.985   38.5  0.0779   39.4  0.3574  -60.7
 4.900  0.3300  129.9   3.896   37.1  0.0793   38.7  0.3507  -61.6
 5.000  0.3375  128.2   3.810   35.5  0.0807   38.0  0.3441  -62.6
 5.100  0.3430  126.9   3.733   34.3  0.0820   37.2  0.3383  -63.3
 5.200  0.3487  125.6   3.658   33.0  0.0834   36.4  0.3326  -64.1
 5.300  0.3545  124.4   3.585   31.7  0.0847   35.7  0.3269  -64.9
 5.400  0.3605  123.2   3.513   30.3  0.0861   35.0  0.3213  -65.7
 5.500  0.3667  122.1   3.444   28.9  0.0875   34.3  0.3158  -66.6
 5.600  0.3702  121.0   3.383   27.7  0.0889   33.5  0.3105  -67.3
 5.700  0.3739  119.9   3.324   26.5  0.0903   32.8  0.3051  -67.9
 5.800  0.3778  118.8   3.266   25.2  0.0917   32.1  0.2999  -68.6
 5.900  0.3817  117.7   3.209   23.9  0.0931   31.4  0.2947  -69.4
 6.000  0.3858  116.7   3.155   22.5  0.0945   30.7  0.2895  -70.1
 6.100  0.3882  115.4   3.105   21.2  0.0959   29.9  0.2843  -70.9
 6.200  0.3908  114.1   3.056   19.9  0.0974   29.1  0.2791  -71.6
 6.300  0.3936  112.9   3.009   18.6  0.0988   28.4  0.2739  -72.5
 6.400  0.3965  111.6   2.964   17.2  0.1003   27.6  0.2688  -73.3
 6.500  0.3997  110.4   2.920   15.8  0.1018   26.9  0.2638  -74.2
 6.600  0.4015  108.7   2.873   14.5  0.1032   26.0  0.2586  -74.9
 6.800  0.4063  105.2   2.782   11.9  0.1061   24.4  0.2483  -76.3
 7.000  0.4125  101.9   2.698    9.1  0.1090   22.8  0.2382  -77.9
 7.200  0.4200   98.4   2.615    6.5  0.1118   20.9  0.2281  -79.4
 7.400  0.4289   95.1   2.538    3.8  0.1146   19.2  0.2182  -80.9
 7.600  0.4410   92.0   2.465    1.2  0.1173   17.3  0.2070  -82.6
 7.800  0.4561   89.0   2.393   -1.4  0.1198   15.4  0.1944  -84.4
 8.000  0.4723   86.3   2.327   -4.1  0.1224   13.5  0.1821  -86.5
 8.200  0.4908   84.1   2.258   -6.5  0.1242   11.6  0.1635  -87.8
 8.400  0.5099   82.1   2.193   -9.0  0.1261    9.8  0.1451  -89.4
 8.600  0.5289   80.4   2.134  -11.5  0.1280    8.0  0.1244  -91.3
 8.800  0.5476   78.9   2.079  -13.9  0.1298    6.3  0.1014  -93.7
 9.000  0.5666   77.5   2.029  -16.4  0.1317    4.6  0.0787  -97.4
 9.200  0.5847   75.7   1.975  -19.1  0.1331    2.9  0.0546 -104.0
 9.400  0.6034   73.9   1.925  -21.8  0.1347    1.1  0.0324 -120.1
 9.600  0.6182   71.7   1.867  -24.5  0.1361   -0.5  0.0200 -171.3
 9.800  0.6297   69.1   1.799  -26.9  0.1373   -1.9  0.0324  137.5
10.000  0.6425   66.5   1.735  -29.6  0.1386   -3.4  0.0545  120.8
!
!  f       NFmin   Gammaopt  rn/50
! GHz       dB    MAG  ANG    -
 0.900      1.77  0.15    3   0.32
 1.800      2.01  0.10  -12   0.29
 2.400      2.13  0.09  -14   0.31
 3.000      2.17  0.05   -9   0.29
 4.000      2.32  0.08  -88   0.29
 5.000      2.70  0.15  -96   0.31
!
! (c) 2016  Infineon Technologies AG, Munich
