! Infineon Technologies  Discrete & RF Semiconductors
! BFP420
! VCE =  1.0 V,  IC =  6.0 mA
! Common Emitter S-Parameters:                            Jan 2016
# GHz  S  MA  R  50
!  f         S11            S21            S12            S22
! GHz     MAG   ANG      MAG   ANG      MAG   ANG      MAG   ANG
 0.010  0.8026   -2.9  18.314  179.4  0.0009  119.5  0.9763    0.0
 0.015  0.8022   -3.0  18.131  178.8  0.0015   98.0  0.9786   -0.9
 0.020  0.8018   -3.2  17.950  178.2  0.0022   89.4  0.9812   -1.8
 0.025  0.8011   -3.9  17.953  177.6  0.0028   88.7  0.9808   -2.3
 0.030  0.8005   -4.6  17.957  177.0  0.0034   88.3  0.9804   -2.8
 0.035  0.8000   -5.2  17.963  176.4  0.0039   88.0  0.9801   -3.2
 0.040  0.7997   -5.9  17.971  175.9  0.0045   87.7  0.9799   -3.7
 0.045  0.7994   -6.6  17.981  175.3  0.0051   87.5  0.9798   -4.2
 0.050  0.7993   -7.3  17.993  174.7  0.0057   87.4  0.9797   -4.7
 0.055  0.7985   -8.1  17.985  174.2  0.0063   86.5  0.9787   -5.2
 0.060  0.7978   -8.8  17.978  173.7  0.0069   85.7  0.9778   -5.7
 0.065  0.7973   -9.6  17.972  173.1  0.0074   85.0  0.9769   -6.2
 0.070  0.7969  -10.3  17.968  172.6  0.0080   84.5  0.9762   -6.7
 0.075  0.7966  -11.1  17.965  172.1  0.0086   84.0  0.9755   -7.1
 0.080  0.7965  -11.9  17.964  171.6  0.0092   83.6  0.9748   -7.6
 0.085  0.7966  -12.6  17.965  171.1  0.0098   83.2  0.9743   -8.1
 0.090  0.7967  -13.4  17.967  170.5  0.0103   82.9  0.9738   -8.6
 0.095  0.7970  -14.1  17.970  170.0  0.0109   82.6  0.9733   -9.1
 0.100  0.7975  -14.9  17.975  169.5  0.0115   82.3  0.9730   -9.6
 0.105  0.7961  -15.6  17.945  169.0  0.0120   81.8  0.9715  -10.1
 0.110  0.7947  -16.4  17.917  168.5  0.0126   81.4  0.9700  -10.5
 0.115  0.7936  -17.1  17.890  168.0  0.0131   80.9  0.9686  -11.0
 0.120  0.7925  -17.8  17.864  167.4  0.0137   80.6  0.9672  -11.5
 0.125  0.7916  -18.6  17.840  166.9  0.0142   80.2  0.9659  -11.9
 0.130  0.7908  -19.3  17.818  166.4  0.0148   79.9  0.9647  -12.4
 0.135  0.7902  -20.1  17.796  165.9  0.0153   79.6  0.9636  -12.9
 0.140  0.7896  -20.8  17.777  165.4  0.0159   79.3  0.9625  -13.4
 0.145  0.7893  -21.6  17.759  164.8  0.0164   79.0  0.9615  -13.8
 0.150  0.7890  -22.3  17.742  164.3  0.0170   78.8  0.9605  -14.3
 0.155  0.7875  -23.0  17.703  163.8  0.0175   78.3  0.9585  -14.8
 0.160  0.7862  -23.7  17.665  163.3  0.0181   77.9  0.9565  -15.2
 0.165  0.7849  -24.5  17.629  162.8  0.0186   77.4  0.9546  -15.7
 0.170  0.7838  -25.2  17.594  162.3  0.0191   77.0  0.9528  -16.1
 0.175  0.7829  -25.9  17.560  161.8  0.0196   76.6  0.9510  -16.6
 0.180  0.7820  -26.7  17.528  161.3  0.0202   76.3  0.9493  -17.0
 0.185  0.7813  -27.4  17.497  160.8  0.0207   75.9  0.9476  -17.5
 0.190  0.7807  -28.1  17.467  160.3  0.0212   75.6  0.9460  -18.0
 0.195  0.7802  -28.9  17.439  159.8  0.0218   75.3  0.9445  -18.4
 0.200  0.7799  -29.6  17.412  159.3  0.0223   75.0  0.9430  -18.9
 0.220  0.7730  -32.4  17.213  157.3  0.0243   73.5  0.9342  -20.6
 0.240  0.7679  -35.3  17.036  155.2  0.0263   72.2  0.9262  -22.4
 0.260  0.7627  -38.1  16.865  153.3  0.0283   70.8  0.9173  -24.2
 0.280  0.7573  -40.8  16.696  151.5  0.0302   69.4  0.9074  -25.9
 0.300  0.7536  -43.6  16.545  149.6  0.0321   68.2  0.8983  -27.7
 0.320  0.7465  -46.2  16.334  147.9  0.0338   66.8  0.8873  -29.3
 0.340  0.7410  -48.9  16.139  146.1  0.0355   65.6  0.8769  -30.9
 0.360  0.7358  -51.6  15.933  144.3  0.0372   64.4  0.8661  -32.5
 0.380  0.7307  -54.1  15.717  142.6  0.0388   63.2  0.8547  -34.0
 0.400  0.7271  -56.7  15.515  140.8  0.0404   62.1  0.8440  -35.6
 0.420  0.7197  -59.1  15.288  139.2  0.0419   60.9  0.8322  -37.0
 0.440  0.7136  -61.6  15.072  137.6  0.0434   59.8  0.8210  -38.5
 0.450  0.7110  -62.8  14.969  136.8  0.0441   59.3  0.8156  -39.3
 0.460  0.7075  -64.0  14.852  136.0  0.0448   58.7  0.8095  -40.0
 0.480  0.7013  -66.4  14.625  134.5  0.0461   57.7  0.7977  -41.4
 0.500  0.6964  -68.8  14.410  132.9  0.0474   56.7  0.7863  -42.8
 0.520  0.6888  -71.0  14.177  131.5  0.0485   55.7  0.7742  -44.0
 0.540  0.6822  -73.2  13.951  130.2  0.0497   54.7  0.7624  -45.3
 0.560  0.6766  -75.4  13.734  128.7  0.0508   53.8  0.7510  -46.6
 0.580  0.6721  -77.7  13.526  127.2  0.0520   52.9  0.7400  -47.9
 0.600  0.6687  -80.0  13.328  125.7  0.0532   52.1  0.7294  -49.3
 0.620  0.6621  -82.0  13.109  124.5  0.0541   51.3  0.7180  -50.4
 0.640  0.6562  -84.0  12.896  123.3  0.0551   50.5  0.7069  -51.5
 0.660  0.6513  -86.1  12.689  122.0  0.0560   49.7  0.6961  -52.7
 0.680  0.6471  -88.2  12.489  120.7  0.0569   49.0  0.6855  -53.9
 0.700  0.6439  -90.3  12.295  119.4  0.0579   48.3  0.6753  -55.1
 0.720  0.6384  -92.1  12.092  118.3  0.0587   47.6  0.6649  -56.1
 0.740  0.6335  -93.9  11.894  117.2  0.0594   47.0  0.6547  -57.1
 0.760  0.6293  -95.7  11.699  116.1  0.0602   46.3  0.6448  -58.1
 0.780  0.6257  -97.6  11.510  114.9  0.0610   45.7  0.6350  -59.2
 0.800  0.6228  -99.5  11.326  113.7  0.0618   45.1  0.6255  -60.3
 0.820  0.6183 -101.2  11.148  112.7  0.0624   44.5  0.6161  -61.2
 0.840  0.6143 -102.9  10.973  111.8  0.0631   43.9  0.6069  -62.1
 0.860  0.6108 -104.6  10.802  110.7  0.0638   43.4  0.5979  -63.0
 0.880  0.6079 -106.3  10.634  109.7  0.0644   42.8  0.5890  -64.0
 0.900  0.6056 -108.1  10.470  108.6  0.0651   42.3  0.5803  -65.0
 0.920  0.6018 -109.7  10.311  107.8  0.0657   41.8  0.5717  -65.9
 0.940  0.5985 -111.3  10.155  106.9  0.0662   41.4  0.5633  -66.8
 0.960  0.5957 -112.9  10.001  106.0  0.0668   40.9  0.5550  -67.7
 0.980  0.5933 -114.5   9.850  105.1  0.0674   40.4  0.5469  -68.6
 1.000  0.5914 -116.1   9.701  104.1  0.0680   40.0  0.5389  -69.6
 1.020  0.5883 -117.5   9.558  103.3  0.0685   39.6  0.5314  -70.4
 1.040  0.5855 -118.9   9.417  102.5  0.0690   39.2  0.5241  -71.1
 1.060  0.5830 -120.3   9.278  101.7  0.0695   38.8  0.5168  -71.9
 1.080  0.5809 -121.7   9.140  100.9  0.0700   38.4  0.5097  -72.8
 1.100  0.5792 -123.1   9.005  100.0  0.0705   38.0  0.5026  -73.6
 1.120  0.5768 -124.4   8.877   99.2  0.0709   37.7  0.4957  -74.4
 1.140  0.5748 -125.8   8.752   98.5  0.0714   37.3  0.4888  -75.1
 1.160  0.5730 -127.2   8.627   97.7  0.0718   37.0  0.4820  -75.9
 1.180  0.5716 -128.5   8.505   96.8  0.0723   36.6  0.4754  -76.8
 1.200  0.5705 -129.9   8.384   96.0  0.0727   36.3  0.4688  -77.6
 1.220  0.5686 -131.1   8.272   95.3  0.0731   36.0  0.4628  -78.3
 1.240  0.5670 -132.3   8.160   94.7  0.0735   35.7  0.4568  -79.0
 1.260  0.5656 -133.5   8.050   94.0  0.0740   35.4  0.4509  -79.7
 1.280  0.5645 -134.8   7.942   93.2  0.0744   35.1  0.4451  -80.4
 1.300  0.5637 -136.0   7.834   92.5  0.0748   34.8  0.4394  -81.2
 1.320  0.5622 -137.2   7.733   91.9  0.0752   34.5  0.4339  -81.9
 1.340  0.5609 -138.3   7.633   91.2  0.0756   34.2  0.4285  -82.6
 1.360  0.5599 -139.5   7.533   90.6  0.0759   34.0  0.4231  -83.4
 1.380  0.5591 -140.6   7.435   89.9  0.0763   33.7  0.4178  -84.1
 1.400  0.5585 -141.8   7.338   89.2  0.0767   33.4  0.4126  -84.9
 1.420  0.5572 -142.8   7.249   88.6  0.0771   33.2  0.4076  -85.5
 1.440  0.5561 -143.9   7.162   88.0  0.0774   33.0  0.4027  -86.2
 1.460  0.5552 -144.9   7.074   87.4  0.0778   32.7  0.3978  -86.9
 1.480  0.5545 -146.0   6.988   86.8  0.0781   32.5  0.3930  -87.6
 1.500  0.5539 -147.0   6.903   86.1  0.0785   32.3  0.3882  -88.3
 1.520  0.5530 -148.0   6.821   85.5  0.0788   32.1  0.3838  -88.9
 1.540  0.5522 -149.0   6.740   84.9  0.0791   31.9  0.3794  -89.6
 1.560  0.5516 -150.0   6.660   84.3  0.0795   31.7  0.3751  -90.2
 1.580  0.5512 -151.0   6.580   83.7  0.0798   31.5  0.3708  -90.9
 1.600  0.5509 -152.0   6.501   83.1  0.0801   31.3  0.3666  -91.6
 1.620  0.5499 -153.0   6.429   82.6  0.0804   31.1  0.3625  -92.2
 1.640  0.5490 -154.0   6.359   82.1  0.0808   30.9  0.3585  -92.9
 1.660  0.5483 -154.9   6.288   81.5  0.0811   30.8  0.3545  -93.5
 1.680  0.5478 -155.9   6.218   81.0  0.0815   30.6  0.3506  -94.2
 1.700  0.5474 -156.9   6.149   80.4  0.0818   30.4  0.3467  -94.9
 1.720  0.5467 -157.7   6.081   79.9  0.0821   30.2  0.3431  -95.5
 1.740  0.5462 -158.6   6.014   79.4  0.0824   30.0  0.3395  -96.1
 1.760  0.5458 -159.4   5.948   78.9  0.0828   29.9  0.3360  -96.7
 1.780  0.5455 -160.3   5.882   78.3  0.0831   29.7  0.3325  -97.3
 1.800  0.5453 -161.1   5.816   77.8  0.0834   29.5  0.3291  -97.9
 1.820  0.5449 -162.0   5.755   77.3  0.0837   29.3  0.3256  -98.6
 1.840  0.5446 -162.9   5.695   76.8  0.0840   29.2  0.3222  -99.3
 1.860  0.5445 -163.8   5.635   76.3  0.0844   29.0  0.3188 -100.0
 1.880  0.5445 -164.7   5.576   75.7  0.0847   28.9  0.3155 -100.7
 1.900  0.5446 -165.6   5.517   75.2  0.0850   28.7  0.3122 -101.5
 1.920  0.5439 -166.4   5.463   74.7  0.0853   28.6  0.3091 -102.0
 1.940  0.5434 -167.1   5.409   74.3  0.0856   28.4  0.3061 -102.6
 1.960  0.5429 -167.9   5.356   73.8  0.0859   28.3  0.3031 -103.1
 1.980  0.5426 -168.6   5.303   73.3  0.0862   28.1  0.3001 -103.7
 2.000  0.5423 -169.4   5.250   72.8  0.0865   28.0  0.2971 -104.3
 2.020  0.5417 -170.2   5.202   72.4  0.0868   27.8  0.2943 -104.9
 2.040  0.5413 -171.0   5.153   71.9  0.0871   27.7  0.2914 -105.6
 2.060  0.5409 -171.7   5.106   71.5  0.0874   27.5  0.2887 -106.2
 2.080  0.5406 -172.5   5.058   71.0  0.0877   27.4  0.2859 -106.9
 2.100  0.5404 -173.3   5.011   70.6  0.0880   27.2  0.2833 -107.5
 2.120  0.5404 -174.1   4.964   70.1  0.0883   27.1  0.2806 -108.2
 2.140  0.5404 -174.9   4.917   69.6  0.0886   26.9  0.2780 -108.9
 2.160  0.5405 -175.6   4.871   69.1  0.0889   26.8  0.2754 -109.6
 2.180  0.5408 -176.4   4.825   68.6  0.0892   26.6  0.2729 -110.4
 2.200  0.5411 -177.2   4.780   68.1  0.0895   26.5  0.2704 -111.1
 2.220  0.5409 -177.9   4.739   67.7  0.0898   26.4  0.2680 -111.8
 2.240  0.5408 -178.6   4.697   67.3  0.0901   26.2  0.2656 -112.4
 2.260  0.5407 -179.3   4.657   66.9  0.0904   26.1  0.2632 -113.1
 2.280  0.5408  180.0   4.616   66.4  0.0907   26.0  0.2609 -113.8
 2.300  0.5409  179.2   4.576   66.0  0.0909   25.8  0.2586 -114.5
 2.320  0.5411  178.5   4.536   65.6  0.0912   25.7  0.2564 -115.2
 2.340  0.5414  177.8   4.496   65.1  0.0915   25.6  0.2542 -115.9
 2.360  0.5418  177.1   4.456   64.6  0.0918   25.5  0.2520 -116.7
 2.380  0.5423  176.4   4.417   64.2  0.0921   25.3  0.2499 -117.4
 2.400  0.5428  175.7   4.378   63.7  0.0924   25.2  0.2478 -118.2
 2.420  0.5431  175.0   4.343   63.3  0.0927   25.1  0.2458 -118.9
 2.440  0.5436  174.4   4.307   62.9  0.0929   24.9  0.2438 -119.6
 2.460  0.5440  173.7   4.272   62.5  0.0932   24.8  0.2418 -120.3
 2.480  0.5446  173.0   4.238   62.1  0.0935   24.7  0.2399 -121.1
 2.500  0.5452  172.4   4.203   61.6  0.0937   24.5  0.2380 -121.8
 2.520  0.5460  171.7   4.169   61.2  0.0940   24.4  0.2362 -122.6
 2.540  0.5467  171.1   4.135   60.8  0.0943   24.3  0.2344 -123.3
 2.560  0.5476  170.4   4.101   60.3  0.0946   24.2  0.2327 -124.1
 2.580  0.5485  169.8   4.067   59.9  0.0948   24.0  0.2310 -124.9
 2.600  0.5495  169.1   4.034   59.4  0.0951   23.9  0.2293 -125.7
 2.620  0.5497  168.5   4.003   59.0  0.0954   23.8  0.2277 -126.4
 2.640  0.5500  167.9   3.972   58.7  0.0956   23.7  0.2261 -127.1
 2.660  0.5503  167.3   3.942   58.3  0.0959   23.6  0.2245 -127.8
 2.680  0.5507  166.7   3.911   57.9  0.0962   23.5  0.2230 -128.6
 2.700  0.5512  166.1   3.881   57.5  0.0964   23.4  0.2215 -129.3
 2.720  0.5517  165.5   3.851   57.1  0.0967   23.3  0.2200 -130.1
 2.740  0.5523  164.9   3.821   56.7  0.0970   23.2  0.2186 -130.8
 2.760  0.5529  164.3   3.792   56.3  0.0973   23.1  0.2172 -131.6
 2.780  0.5536  163.7   3.762   55.9  0.0975   23.0  0.2159 -132.4
 2.800  0.5544  163.1   3.733   55.5  0.0978   22.9  0.2146 -133.2
 2.820  0.5550  162.5   3.706   55.1  0.0981   22.8  0.2133 -133.9
 2.840  0.5556  162.0   3.680   54.8  0.0984   22.7  0.2120 -134.7
 2.860  0.5563  161.4   3.653   54.4  0.0987   22.5  0.2108 -135.4
 2.880  0.5571  160.9   3.627   54.0  0.0990   22.4  0.2096 -136.2
 2.900  0.5579  160.3   3.601   53.7  0.0992   22.3  0.2084 -136.9
 2.920  0.5587  159.8   3.575   53.3  0.0995   22.2  0.2073 -137.7
 2.940  0.5596  159.2   3.549   52.9  0.0998   22.1  0.2062 -138.5
 2.960  0.5606  158.7   3.524   52.5  0.1001   21.9  0.2052 -139.3
 2.980  0.5615  158.1   3.498   52.1  0.1004   21.8  0.2042 -140.1
 3.000  0.5626  157.6   3.473   51.7  0.1007   21.7  0.2032 -140.9
 3.100  0.5654  155.0   3.361   50.1  0.1020   21.1  0.1987 -144.8
 3.200  0.5694  152.3   3.252   48.4  0.1033   20.5  0.1951 -148.8
 3.300  0.5746  149.8   3.146   46.5  0.1047   19.9  0.1926 -153.0
 3.400  0.5809  147.3   3.044   44.6  0.1060   19.4  0.1911 -157.3
 3.500  0.5883  144.8   2.945   42.5  0.1074   18.8  0.1907 -161.6
 3.600  0.5917  142.5   2.859   40.9  0.1088   18.2  0.1902 -165.3
 3.700  0.5960  140.3   2.776   39.3  0.1102   17.6  0.1905 -169.0
 3.800  0.6012  138.1   2.695   37.5  0.1116   17.0  0.1915 -172.7
 3.900  0.6073  135.9   2.616   35.7  0.1131   16.5  0.1934 -176.3
 4.000  0.6142  133.8   2.541   33.7  0.1145   15.9  0.1960 -179.9
 4.100  0.6168  132.0   2.472   32.3  0.1158   15.3  0.1980  177.1
 4.200  0.6201  130.3   2.405   30.7  0.1170   14.6  0.2005  174.1
 4.300  0.6239  128.6   2.339   29.1  0.1183   14.0  0.2036  171.3
 4.400  0.6282  126.9   2.275   27.4  0.1196   13.4  0.2071  168.5
 4.500  0.6331  125.2   2.214   25.6  0.1209   12.8  0.2111  165.8
 4.600  0.6345  123.8   2.160   24.3  0.1221   12.2  0.2132  163.5
 4.700  0.6363  122.4   2.106   23.0  0.1233   11.6  0.2157  161.2
 4.800  0.6384  121.0   2.054   21.6  0.1245   11.1  0.2184  159.0
 4.900  0.6409  119.7   2.003   20.1  0.1258   10.5  0.2215  156.9
 5.000  0.6438  118.3   1.954   18.5  0.1270   10.0  0.2249  154.8
 5.100  0.6456  117.0   1.912   17.2  0.1282    9.4  0.2277  152.8
 5.200  0.6478  115.6   1.871   15.9  0.1294    8.8  0.2308  150.9
 5.300  0.6504  114.3   1.831   14.5  0.1306    8.2  0.2342  149.0
 5.400  0.6533  113.0   1.792   13.1  0.1319    7.7  0.2378  147.2
 5.500  0.6565  111.7   1.754   11.6  0.1331    7.1  0.2416  145.4
 5.600  0.6595  110.4   1.720   10.3  0.1344    6.5  0.2452  143.5
 5.700  0.6628  109.1   1.688    9.0  0.1357    5.9  0.2490  141.8
 5.800  0.6665  107.8   1.656    7.7  0.1370    5.3  0.2530  140.0
 5.900  0.6705  106.5   1.625    6.3  0.1384    4.8  0.2573  138.3
 6.000  0.6748  105.2   1.595    4.8  0.1397    4.2  0.2618  136.7
 6.100  0.6784  104.0   1.567    3.5  0.1411    3.5  0.2653  135.0
 6.200  0.6823  102.8   1.540    2.1  0.1426    2.8  0.2690  133.4
 6.300  0.6864  101.7   1.514    0.7  0.1440    2.1  0.2729  131.8
 6.400  0.6909  100.5   1.488   -0.7  0.1455    1.5  0.2770  130.3
 6.500  0.6956   99.4   1.464   -2.2  0.1470    0.8  0.2813  128.8
 6.600  0.6981   98.2   1.440   -3.5  0.1486    0.0  0.2841  127.2
 6.800  0.7040   95.9   1.395   -6.3  0.1518   -1.5  0.2903  124.1
 7.000  0.7110   93.6   1.354   -9.2  0.1551   -2.9  0.2973  121.1
 7.200  0.7142   91.2   1.313  -11.9  0.1581   -4.8  0.3056  118.1
 7.400  0.7187   88.8   1.275  -14.8  0.1612   -6.5  0.3146  115.3
 7.600  0.7228   86.2   1.234  -17.7  0.1636   -8.5  0.3243  112.3
 7.800  0.7269   83.5   1.191  -20.6  0.1653  -10.7  0.3347  109.3
 8.000  0.7326   80.8   1.151  -23.7  0.1673  -12.8  0.3461  106.4
 8.200  0.7368   77.9   1.106  -26.2  0.1672  -14.6  0.3578  102.9
 8.400  0.7428   75.1   1.063  -29.0  0.1672  -16.5  0.3708   99.7
 8.600  0.7518   72.4   1.024  -31.5  0.1672  -18.0  0.3866   96.7
 8.800  0.7636   69.9   0.988  -33.7  0.1671  -19.3  0.4051   93.9
 9.000  0.7769   67.4   0.954  -36.1  0.1670  -20.6  0.4245   91.3
 9.200  0.7964   65.4   0.926  -38.1  0.1675  -21.8  0.4474   89.4
 9.400  0.8169   63.6   0.899  -40.2  0.1681  -22.9  0.4707   87.6
 9.600  0.8346   62.0   0.869  -42.3  0.1688  -24.1  0.4927   86.0
 9.800  0.8494   60.6   0.835  -44.4  0.1695  -25.4  0.5134   84.6
10.000  0.8646   59.3   0.802  -46.7  0.1704  -26.6  0.5344   83.3
!
!  f       NFmin   Gammaopt  rn/50
! GHz       dB    MAG  ANG    -
 0.900      0.70  0.16   29   0.14
 1.800      1.08  0.06  113   0.12
 2.400      1.17  0.11  132   0.13
 3.000      1.26  0.17  176   0.11
 4.000      1.43  0.31 -139   0.13
 5.000      1.82  0.38 -115   0.24
 6.000      2.30  0.43  -99   0.37
!
! (c) 2016  Infineon Technologies AG, Munich
