! Infineon Technologies  Discrete & RF Semiconductors
! BFP410
! VCE =  3.5 V,  IC =  2.0 mA
! Common Emitter S-Parameters:                            Nov 2015
# GHz  S  MA  R  50
!  f         S11            S21            S12            S22
! GHz     MAG   ANG      MAG   ANG      MAG   ANG      MAG   ANG
 0.010  0.9265    1.0   7.105  179.3  0.0003  -18.9  1.0000    1.1
 0.015  0.9230    0.3   7.082  179.2  0.0006   67.8  0.9951    0.7
 0.020  0.9196   -0.5   7.059  179.1  0.0012   82.3  0.9902    0.3
 0.025  0.9192   -0.8   7.055  178.8  0.0015   83.3  0.9913    0.1
 0.030  0.9189   -1.2   7.051  178.5  0.0018   84.0  0.9924   -0.1
 0.035  0.9186   -1.5   7.048  178.2  0.0021   84.4  0.9935   -0.3
 0.040  0.9184   -1.9   7.045  177.8  0.0024   84.8  0.9947   -0.5
 0.045  0.9182   -2.2   7.042  177.5  0.0027   85.1  0.9958   -0.7
 0.050  0.9180   -2.6   7.039  177.2  0.0030   85.3  0.9970   -0.9
 0.055  0.9178   -2.9   7.041  177.0  0.0033   85.2  0.9969   -1.1
 0.060  0.9176   -3.2   7.044  176.8  0.0036   85.1  0.9968   -1.3
 0.065  0.9174   -3.5   7.046  176.6  0.0039   85.1  0.9967   -1.4
 0.070  0.9173   -3.8   7.049  176.4  0.0042   85.0  0.9966   -1.6
 0.075  0.9171   -4.1   7.051  176.2  0.0045   85.0  0.9965   -1.8
 0.080  0.9170   -4.4   7.054  176.0  0.0048   84.9  0.9964   -2.0
 0.085  0.9170   -4.7   7.057  175.8  0.0051   84.9  0.9963   -2.2
 0.090  0.9169   -5.0   7.060  175.6  0.0054   84.9  0.9963   -2.3
 0.095  0.9169   -5.3   7.063  175.4  0.0057   84.8  0.9962   -2.5
 0.100  0.9169   -5.6   7.066  175.2  0.0060   84.8  0.9962   -2.7
 0.105  0.9164   -5.9   7.065  175.0  0.0063   84.8  0.9961   -2.8
 0.110  0.9160   -6.2   7.064  174.7  0.0066   84.7  0.9960   -3.0
 0.115  0.9155   -6.4   7.064  174.5  0.0069   84.7  0.9959   -3.1
 0.120  0.9151   -6.7   7.063  174.3  0.0072   84.7  0.9959   -3.2
 0.125  0.9147   -7.0   7.063  174.1  0.0074   84.6  0.9958   -3.3
 0.130  0.9144   -7.3   7.062  173.8  0.0077   84.6  0.9957   -3.5
 0.135  0.9140   -7.6   7.062  173.6  0.0080   84.6  0.9957   -3.6
 0.140  0.9137   -7.8   7.062  173.4  0.0083   84.5  0.9956   -3.7
 0.145  0.9134   -8.1   7.062  173.1  0.0086   84.5  0.9955   -3.9
 0.150  0.9131   -8.4   7.062  172.9  0.0089   84.5  0.9955   -4.0
 0.155  0.9129   -8.7   7.061  172.7  0.0092   84.3  0.9952   -4.1
 0.160  0.9127   -9.0   7.059  172.4  0.0095   84.1  0.9949   -4.3
 0.165  0.9125   -9.2   7.058  172.2  0.0098   84.0  0.9946   -4.4
 0.170  0.9124   -9.5   7.057  172.0  0.0101   83.8  0.9944   -4.6
 0.175  0.9123   -9.8   7.056  171.8  0.0104   83.6  0.9941   -4.7
 0.180  0.9122  -10.1   7.055  171.5  0.0107   83.5  0.9939   -4.9
 0.185  0.9121  -10.4   7.055  171.3  0.0110   83.4  0.9936   -5.0
 0.190  0.9120  -10.6   7.054  171.1  0.0113   83.2  0.9934   -5.2
 0.195  0.9120  -10.9   7.053  170.8  0.0116   83.1  0.9931   -5.3
 0.200  0.9120  -11.2   7.053  170.6  0.0119   83.0  0.9929   -5.5
 0.220  0.9105  -12.4   7.037  169.6  0.0131   82.4  0.9919   -6.1
 0.240  0.9094  -13.5   7.024  168.6  0.0143   81.9  0.9911   -6.7
 0.260  0.9082  -14.7   7.017  167.6  0.0155   81.4  0.9898   -7.3
 0.280  0.9069  -15.8   7.015  166.7  0.0166   80.9  0.9881   -7.8
 0.300  0.9060  -17.0   7.016  165.8  0.0178   80.4  0.9864   -8.3
 0.320  0.9041  -18.2   7.005  164.9  0.0190   79.8  0.9848   -8.9
 0.340  0.9026  -19.3   6.996  164.0  0.0201   79.2  0.9833   -9.5
 0.360  0.9010  -20.5   6.984  163.1  0.0213   78.7  0.9816  -10.1
 0.380  0.8992  -21.6   6.968  162.2  0.0224   78.1  0.9798  -10.6
 0.400  0.8978  -22.7   6.955  161.2  0.0236   77.5  0.9780  -11.1
 0.420  0.8953  -23.8   6.936  160.3  0.0248   76.9  0.9761  -11.7
 0.440  0.8931  -24.9   6.920  159.4  0.0259   76.4  0.9744  -12.2
 0.450  0.8922  -25.5   6.912  158.9  0.0265   76.1  0.9735  -12.5
 0.460  0.8910  -26.1   6.904  158.4  0.0271   75.8  0.9722  -12.8
 0.480  0.8887  -27.2   6.888  157.5  0.0282   75.2  0.9698  -13.3
 0.500  0.8869  -28.4   6.875  156.5  0.0294   74.6  0.9674  -13.9
 0.520  0.8837  -29.5   6.849  155.6  0.0305   73.9  0.9648  -14.4
 0.540  0.8809  -30.7   6.826  154.6  0.0316   73.3  0.9624  -14.9
 0.560  0.8785  -31.8   6.803  153.7  0.0326   72.7  0.9600  -15.5
 0.580  0.8764  -32.9   6.783  152.8  0.0337   72.2  0.9576  -16.0
 0.600  0.8746  -34.1   6.765  151.8  0.0348   71.7  0.9554  -16.5
 0.620  0.8713  -35.2   6.742  151.0  0.0359   71.0  0.9523  -17.0
 0.640  0.8683  -36.4   6.720  150.1  0.0369   70.4  0.9492  -17.6
 0.660  0.8656  -37.5   6.699  149.2  0.0380   69.8  0.9462  -18.1
 0.680  0.8633  -38.6   6.680  148.4  0.0391   69.2  0.9433  -18.7
 0.700  0.8614  -39.8   6.663  147.5  0.0402   68.7  0.9405  -19.2
 0.720  0.8579  -40.9   6.630  146.6  0.0412   68.1  0.9372  -19.7
 0.740  0.8548  -41.9   6.598  145.8  0.0423   67.5  0.9340  -20.2
 0.760  0.8519  -43.0   6.568  144.9  0.0433   66.9  0.9309  -20.7
 0.780  0.8494  -44.1   6.539  144.0  0.0444   66.3  0.9278  -21.2
 0.800  0.8471  -45.2   6.512  143.1  0.0454   65.8  0.9248  -21.7
 0.820  0.8432  -46.3   6.484  142.3  0.0464   65.2  0.9212  -22.2
 0.840  0.8397  -47.5   6.457  141.4  0.0473   64.6  0.9176  -22.7
 0.860  0.8365  -48.6   6.432  140.5  0.0483   64.0  0.9141  -23.2
 0.880  0.8336  -49.7   6.408  139.7  0.0493   63.4  0.9107  -23.7
 0.900  0.8311  -50.9   6.386  138.8  0.0503   62.9  0.9073  -24.2
 0.920  0.8272  -52.0   6.352  138.0  0.0512   62.3  0.9034  -24.7
 0.940  0.8236  -53.1   6.319  137.2  0.0522   61.7  0.8996  -25.1
 0.960  0.8202  -54.2   6.288  136.4  0.0531   61.2  0.8959  -25.6
 0.980  0.8172  -55.3   6.258  135.5  0.0541   60.6  0.8922  -26.1
 1.000  0.8145  -56.4   6.229  134.7  0.0550   60.1  0.8886  -26.6
 1.020  0.8104  -57.5   6.196  133.9  0.0559   59.5  0.8847  -27.1
 1.040  0.8066  -58.6   6.164  133.1  0.0567   59.0  0.8809  -27.5
 1.060  0.8031  -59.7   6.134  132.3  0.0576   58.4  0.8771  -28.0
 1.080  0.7999  -60.8   6.105  131.4  0.0585   57.9  0.8734  -28.4
 1.100  0.7970  -61.9   6.077  130.6  0.0594   57.4  0.8698  -28.9
 1.120  0.7931  -63.0   6.044  129.8  0.0602   56.9  0.8657  -29.4
 1.140  0.7896  -64.0   6.012  129.0  0.0611   56.3  0.8617  -29.8
 1.160  0.7863  -65.1   5.982  128.2  0.0619   55.8  0.8578  -30.3
 1.180  0.7832  -66.2   5.952  127.4  0.0628   55.3  0.8538  -30.7
 1.200  0.7805  -67.3   5.924  126.6  0.0636   54.8  0.8500  -31.2
 1.220  0.7765  -68.3   5.891  125.9  0.0644   54.2  0.8460  -31.6
 1.240  0.7728  -69.4   5.858  125.1  0.0651   53.7  0.8420  -32.0
 1.260  0.7693  -70.5   5.827  124.3  0.0659   53.1  0.8381  -32.4
 1.280  0.7661  -71.5   5.796  123.6  0.0667   52.6  0.8342  -32.8
 1.300  0.7632  -72.6   5.767  122.8  0.0675   52.1  0.8304  -33.2
 1.320  0.7590  -73.6   5.731  122.1  0.0682   51.6  0.8263  -33.6
 1.340  0.7551  -74.6   5.695  121.3  0.0689   51.1  0.8222  -34.0
 1.360  0.7515  -75.7   5.661  120.5  0.0696   50.6  0.8182  -34.4
 1.380  0.7481  -76.7   5.627  119.8  0.0703   50.1  0.8142  -34.9
 1.400  0.7449  -77.8   5.595  119.0  0.0710   49.6  0.8103  -35.3
 1.420  0.7414  -78.8   5.562  118.4  0.0717   49.1  0.8064  -35.7
 1.440  0.7381  -79.7   5.530  117.7  0.0723   48.7  0.8026  -36.0
 1.460  0.7351  -80.7   5.499  117.0  0.0730   48.2  0.7987  -36.4
 1.480  0.7322  -81.7   5.468  116.4  0.0736   47.7  0.7949  -36.8
 1.500  0.7296  -82.7   5.438  115.7  0.0743   47.3  0.7912  -37.2
 1.520  0.7258  -83.7   5.407  115.0  0.0749   46.8  0.7870  -37.6
 1.540  0.7223  -84.8   5.376  114.2  0.0755   46.3  0.7829  -37.9
 1.560  0.7191  -85.9   5.347  113.5  0.0761   45.8  0.7788  -38.3
 1.580  0.7161  -86.9   5.318  112.8  0.0767   45.4  0.7747  -38.7
 1.600  0.7133  -88.0   5.290  112.0  0.0773   44.9  0.7707  -39.1
 1.620  0.7096  -88.9   5.258  111.4  0.0779   44.4  0.7670  -39.4
 1.640  0.7061  -89.9   5.227  110.7  0.0784   44.0  0.7633  -39.8
 1.660  0.7027  -90.9   5.196  110.0  0.0790   43.6  0.7597  -40.1
 1.680  0.6996  -91.8   5.166  109.4  0.0795   43.1  0.7561  -40.5
 1.700  0.6967  -92.8   5.137  108.7  0.0801   42.7  0.7525  -40.8
 1.720  0.6935  -93.7   5.104  108.1  0.0806   42.3  0.7488  -41.1
 1.740  0.6905  -94.7   5.071  107.4  0.0811   41.9  0.7451  -41.5
 1.760  0.6877  -95.7   5.039  106.8  0.0816   41.5  0.7414  -41.8
 1.780  0.6850  -96.6   5.007  106.2  0.0822   41.1  0.7378  -42.2
 1.800  0.6826  -97.6   4.976  105.5  0.0827   40.7  0.7342  -42.5
 1.820  0.6792  -98.6   4.949  104.9  0.0832   40.3  0.7303  -42.8
 1.840  0.6760  -99.6   4.922  104.3  0.0837   39.8  0.7265  -43.1
 1.860  0.6730 -100.6   4.896  103.7  0.0842   39.4  0.7227  -43.4
 1.880  0.6702 -101.6   4.870  103.0  0.0847   39.0  0.7189  -43.8
 1.900  0.6676 -102.6   4.845  102.4  0.0852   38.6  0.7151  -44.1
 1.920  0.6644 -103.5   4.815  101.8  0.0856   38.2  0.7116  -44.4
 1.940  0.6615 -104.4   4.785  101.2  0.0861   37.8  0.7080  -44.7
 1.960  0.6586 -105.3   4.755  100.6  0.0865   37.4  0.7045  -44.9
 1.980  0.6560 -106.3   4.726  100.0  0.0870   37.1  0.7011  -45.2
 2.000  0.6535 -107.2   4.698   99.4  0.0874   36.7  0.6976  -45.5
 2.020  0.6499 -108.1   4.670   98.8  0.0878   36.3  0.6939  -45.8
 2.040  0.6465 -109.0   4.643   98.3  0.0881   35.9  0.6902  -46.1
 2.060  0.6432 -110.0   4.616   97.7  0.0885   35.5  0.6865  -46.4
 2.080  0.6402 -110.9   4.590   97.1  0.0889   35.1  0.6828  -46.7
 2.100  0.6373 -111.8   4.564   96.5  0.0893   34.8  0.6792  -47.0
 2.120  0.6345 -112.8   4.539   95.9  0.0897   34.4  0.6755  -47.3
 2.140  0.6320 -113.8   4.514   95.3  0.0901   34.0  0.6719  -47.6
 2.160  0.6296 -114.7   4.490   94.7  0.0905   33.6  0.6683  -47.9
 2.180  0.6274 -115.7   4.466   94.0  0.0909   33.3  0.6648  -48.2
 2.200  0.6254 -116.7   4.443   93.4  0.0913   32.9  0.6612  -48.5
 2.220  0.6222 -117.6   4.417   92.9  0.0916   32.5  0.6576  -48.8
 2.240  0.6192 -118.5   4.391   92.3  0.0919   32.2  0.6540  -49.0
 2.260  0.6163 -119.5   4.366   91.8  0.0923   31.8  0.6505  -49.3
 2.280  0.6136 -120.4   4.340   91.2  0.0926   31.5  0.6469  -49.5
 2.300  0.6110 -121.4   4.316   90.7  0.0929   31.1  0.6434  -49.8
 2.320  0.6087 -122.3   4.292   90.1  0.0932   30.8  0.6398  -50.1
 2.340  0.6065 -123.3   4.268   89.5  0.0936   30.4  0.6363  -50.4
 2.360  0.6044 -124.2   4.244   89.0  0.0939   30.1  0.6328  -50.6
 2.380  0.6026 -125.2   4.222   88.4  0.0943   29.7  0.6294  -50.9
 2.400  0.6009 -126.2   4.199   87.8  0.0946   29.4  0.6259  -51.2
 2.420  0.5981 -127.1   4.174   87.3  0.0948   29.1  0.6223  -51.5
 2.440  0.5955 -128.0   4.150   86.7  0.0951   28.7  0.6188  -51.7
 2.460  0.5931 -129.0   4.125   86.2  0.0953   28.4  0.6153  -52.0
 2.480  0.5908 -129.9   4.102   85.7  0.0955   28.0  0.6117  -52.2
 2.500  0.5887 -130.9   4.078   85.1  0.0958   27.7  0.6082  -52.5
 2.520  0.5867 -131.8   4.055   84.6  0.0960   27.3  0.6047  -52.8
 2.540  0.5849 -132.8   4.033   84.0  0.0962   27.0  0.6013  -53.1
 2.560  0.5833 -133.8   4.010   83.5  0.0965   26.7  0.5978  -53.3
 2.580  0.5818 -134.7   3.988   82.9  0.0967   26.3  0.5943  -53.6
 2.600  0.5805 -135.7   3.967   82.3  0.0970   26.0  0.5909  -53.9
 2.620  0.5782 -136.6   3.944   81.8  0.0972   25.7  0.5877  -54.1
 2.640  0.5760 -137.5   3.921   81.3  0.0974   25.4  0.5845  -54.4
 2.660  0.5740 -138.4   3.899   80.9  0.0975   25.1  0.5813  -54.6
 2.680  0.5721 -139.3   3.877   80.4  0.0977   24.8  0.5781  -54.9
 2.700  0.5703 -140.2   3.855   79.9  0.0979   24.5  0.5750  -55.1
 2.720  0.5687 -141.1   3.833   79.4  0.0981   24.2  0.5718  -55.4
 2.740  0.5672 -142.0   3.812   78.9  0.0983   23.9  0.5687  -55.6
 2.760  0.5659 -142.9   3.791   78.3  0.0985   23.6  0.5655  -55.9
 2.780  0.5647 -143.9   3.770   77.8  0.0987   23.3  0.5624  -56.1
 2.800  0.5637 -144.8   3.750   77.3  0.0989   23.0  0.5593  -56.4
 2.820  0.5620 -145.7   3.729   76.8  0.0990   22.7  0.5563  -56.6
 2.840  0.5605 -146.5   3.709   76.4  0.0992   22.4  0.5534  -56.8
 2.860  0.5590 -147.4   3.689   75.9  0.0993   22.2  0.5504  -57.1
 2.880  0.5577 -148.3   3.669   75.4  0.0994   21.9  0.5474  -57.3
 2.900  0.5566 -149.2   3.650   74.9  0.0996   21.6  0.5445  -57.5
 2.920  0.5555 -150.0   3.630   74.4  0.0997   21.3  0.5416  -57.8
 2.940  0.5546 -150.9   3.611   73.9  0.0999   21.0  0.5386  -58.0
 2.960  0.5538 -151.8   3.593   73.4  0.1000   20.8  0.5357  -58.2
 2.980  0.5532 -152.7   3.574   72.9  0.1001   20.5  0.5328  -58.5
 3.000  0.5527 -153.6   3.556   72.4  0.1003   20.2  0.5299  -58.7
 3.100  0.5445 -157.7   3.460   70.3  0.1006   19.1  0.5171  -59.7
 3.200  0.5391 -161.8   3.368   68.2  0.1010   17.9  0.5045  -60.7
 3.300  0.5366 -166.0   3.282   65.9  0.1014   16.8  0.4920  -61.8
 3.400  0.5370 -170.3   3.201   63.4  0.1019   15.7  0.4798  -62.9
 3.500  0.5404 -174.5   3.126   60.9  0.1024   14.6  0.4677  -64.1
 3.600  0.5375 -178.1   3.048   59.0  0.1026   13.7  0.4568  -65.1
 3.700  0.5366  178.3   2.973   57.0  0.1029   12.9  0.4460  -66.1
 3.800  0.5380  174.7   2.903   54.8  0.1032   12.0  0.4354  -67.2
 3.900  0.5414  171.1   2.836   52.6  0.1035   11.2  0.4249  -68.3
 4.000  0.5469  167.6   2.774   50.3  0.1038   10.3  0.4146  -69.5
 4.100  0.5467  164.6   2.706   48.5  0.1039    9.5  0.4049  -70.8
 4.200  0.5480  161.6   2.640   46.5  0.1040    8.8  0.3954  -72.1
 4.300  0.5508  158.6   2.578   44.5  0.1042    8.0  0.3862  -73.4
 4.400  0.5550  155.7   2.518   42.4  0.1043    7.3  0.3772  -74.9
 4.500  0.5607  152.8   2.463   40.2  0.1045    6.5  0.3684  -76.4
 4.600  0.5608  150.5   2.405   38.6  0.1045    6.0  0.3614  -77.6
 4.700  0.5618  148.2   2.348   36.9  0.1045    5.4  0.3545  -78.9
 4.800  0.5638  145.8   2.294   35.1  0.1045    4.9  0.3478  -80.2
 4.900  0.5666  143.6   2.242   33.2  0.1045    4.3  0.3413  -81.5
 5.000  0.5704  141.3   2.193   31.3  0.1045    3.8  0.3350  -82.9
 5.100  0.5711  139.3   2.147   29.8  0.1045    3.4  0.3290  -83.9
 5.200  0.5724  137.3   2.102   28.2  0.1044    3.0  0.3232  -85.0
 5.300  0.5745  135.3   2.059   26.5  0.1044    2.5  0.3174  -86.1
 5.400  0.5772  133.3   2.017   24.8  0.1044    2.1  0.3118  -87.3
 5.500  0.5806  131.4   1.978   23.0  0.1044    1.7  0.3063  -88.5
 5.600  0.5829  129.5   1.941   21.6  0.1045    1.5  0.3001  -89.7
 5.700  0.5857  127.7   1.906   20.1  0.1047    1.3  0.2940  -90.9
 5.800  0.5892  125.8   1.872   18.5  0.1048    1.0  0.2881  -92.1
 5.900  0.5933  124.0   1.839   17.0  0.1050    0.8  0.2823  -93.4
 6.000  0.5980  122.2   1.808   15.3  0.1051    0.6  0.2767  -94.8
 6.100  0.6015  120.5   1.777   13.8  0.1056    0.4  0.2716  -96.3
 6.200  0.6055  118.9   1.748   12.3  0.1061    0.3  0.2667  -97.9
 6.300  0.6100  117.3   1.720   10.8  0.1067    0.1  0.2619  -99.5
 6.400  0.6150  115.7   1.693    9.2  0.1072   -0.0  0.2575 -101.2
 6.500  0.6205  114.1   1.668    7.5  0.1077   -0.2  0.2532 -103.0
 6.600  0.6236  112.6   1.641    6.0  0.1086   -0.4  0.2491 -104.3
 6.800  0.6309  109.8   1.592    3.0  0.1103   -0.7  0.2413 -107.2
 7.000  0.6398  107.0   1.547   -0.3  0.1120   -1.1  0.2341 -110.2
 7.200  0.6447  104.0   1.502   -3.2  0.1144   -1.8  0.2239 -113.5
 7.400  0.6513  101.1   1.461   -6.3  0.1169   -2.5  0.2145 -117.1
 7.600  0.6569   97.9   1.418   -9.4  0.1192   -3.4  0.2041 -121.5
 7.800  0.6620   94.5   1.374  -12.7  0.1214   -4.7  0.1932 -127.0
 8.000  0.6694   91.2   1.334  -16.1  0.1237   -5.9  0.1842 -133.0
 8.200  0.6740   87.7   1.286  -18.8  0.1249   -7.2  0.1720 -139.6
 8.400  0.6811   84.3   1.241  -21.8  0.1261   -8.5  0.1624 -147.1
 8.600  0.6919   81.2   1.201  -24.5  0.1272   -9.5  0.1529 -155.9
 8.800  0.7058   78.5   1.165  -27.1  0.1281  -10.4  0.1447 -166.3
 9.000  0.7212   75.9   1.132  -29.9  0.1291  -11.2  0.1417 -177.5
 9.200  0.7435   74.0   1.100  -32.4  0.1304  -11.9  0.1446  169.5
 9.400  0.7667   72.2   1.070  -35.1  0.1316  -12.6  0.1544  157.6
 9.600  0.7877   70.3   1.035  -37.8  0.1332  -13.4  0.1718  148.0
 9.800  0.8066   68.5   0.996  -40.5  0.1351  -14.2  0.1947  140.7
10.000  0.8264   66.7   0.959  -43.5  0.1370  -14.9  0.2201  135.1
10.200  0.8311   65.4   0.922  -45.5  0.1397  -15.8  0.2431  131.3
10.400  0.8363   64.1   0.886  -47.7  0.1424  -16.6  0.2671  128.2
10.600  0.8336   63.4   0.855  -49.6  0.1450  -17.8  0.2897  125.6
10.800  0.8227   63.3   0.830  -51.1  0.1474  -19.5  0.3108  123.5
11.000  0.8117   63.3   0.805  -52.7  0.1500  -21.1  0.3323  121.6
11.200  0.8018   63.5   0.798  -53.8  0.1503  -22.7  0.3465  120.8
11.400  0.7919   63.7   0.790  -54.9  0.1507  -24.2  0.3607  120.1
11.600  0.7949   63.3   0.784  -57.2  0.1514  -25.7  0.3740  120.0
11.800  0.8110   62.2   0.779  -60.7  0.1525  -27.2  0.3865  120.3
12.000  0.8274   61.2   0.778  -64.2  0.1537  -28.6  0.3989  120.6
!
!  f       NFmin   Gammaopt  rn/50
! GHz       dB    MAG  ANG    -
 0.450      0.86  0.50    7   0.29
 0.900      0.82  0.48   21   0.27
 1.800      1.05  0.37   55   0.23
 2.400      1.09  0.36   63   0.19
 5.500      2.24  0.36 -145   0.21
10.000      3.98  0.70  -56   2.38
!
! (c) 2015  Infineon Technologies AG, Munich
