! Infineon Technologies  Discrete & RF Semiconductors
! BFP405
! VCE =  1.5 V,  IC =  1.0 mA
! Common Emitter S-Parameters:                            Jan 2016
# GHz  S  MA  R  50
!  f         S11            S21            S12            S22
! GHz     MAG   ANG      MAG   ANG      MAG   ANG      MAG   ANG
 0.010  0.9686    0.2   3.674 -177.0  0.0015  -37.0  1.0000    0.6
 0.015  0.9643   -0.1   3.658 -178.8  0.0006   -0.2  0.9976    0.4
 0.020  0.9600   -0.5   3.646  179.3  0.0009   87.2  0.9952    0.1
 0.025  0.9605   -0.6   3.646  179.2  0.0011   87.8  0.9957   -0.0
 0.030  0.9609   -0.8   3.646  179.2  0.0012   88.2  0.9962   -0.1
 0.035  0.9614   -0.9   3.645  179.1  0.0014   88.5  0.9967   -0.3
 0.040  0.9618   -1.0   3.645  179.0  0.0016   88.7  0.9973   -0.4
 0.045  0.9623   -1.2   3.645  179.0  0.0017   88.9  0.9978   -0.5
 0.050  0.9628   -1.3   3.645  178.9  0.0019   89.1  0.9983   -0.6
 0.055  0.9621   -1.4   3.648  178.7  0.0021   88.8  0.9983   -0.7
 0.060  0.9614   -1.6   3.651  178.5  0.0023   88.6  0.9984   -0.8
 0.065  0.9607   -1.7   3.654  178.3  0.0025   88.5  0.9984   -0.9
 0.070  0.9600   -1.9   3.658  178.1  0.0027   88.3  0.9985   -1.0
 0.075  0.9594   -2.0   3.661  177.9  0.0028   88.2  0.9985   -1.2
 0.080  0.9587   -2.2   3.664  177.7  0.0030   88.0  0.9986   -1.3
 0.085  0.9580   -2.3   3.668  177.5  0.0032   87.9  0.9986   -1.4
 0.090  0.9574   -2.5   3.671  177.3  0.0034   87.9  0.9987   -1.5
 0.095  0.9567   -2.6   3.674  177.1  0.0036   87.8  0.9987   -1.6
 0.100  0.9561   -2.8   3.678  176.9  0.0038   87.7  0.9988   -1.7
 0.105  0.9560   -2.9   3.678  176.8  0.0040   87.6  0.9986   -1.8
 0.110  0.9560   -3.1   3.678  176.7  0.0042   87.5  0.9983   -1.9
 0.115  0.9559   -3.2   3.677  176.6  0.0044   87.5  0.9981   -2.0
 0.120  0.9559   -3.4   3.677  176.5  0.0046   87.4  0.9979   -2.1
 0.125  0.9558   -3.5   3.677  176.4  0.0048   87.3  0.9976   -2.1
 0.130  0.9558   -3.7   3.677  176.3  0.0050   87.3  0.9974   -2.2
 0.135  0.9558   -3.8   3.676  176.2  0.0052   87.2  0.9972   -2.3
 0.140  0.9557   -4.0   3.676  176.1  0.0054   87.2  0.9969   -2.4
 0.145  0.9557   -4.1   3.676  176.0  0.0056   87.1  0.9967   -2.5
 0.150  0.9557   -4.3   3.676  175.9  0.0058   87.1  0.9965   -2.6
 0.155  0.9557   -4.5   3.676  175.7  0.0060   87.1  0.9965   -2.7
 0.160  0.9557   -4.6   3.675  175.6  0.0062   87.1  0.9964   -2.8
 0.165  0.9557   -4.8   3.675  175.4  0.0064   87.1  0.9964   -2.9
 0.170  0.9557   -4.9   3.675  175.3  0.0066   87.1  0.9964   -3.0
 0.175  0.9558   -5.1   3.675  175.1  0.0067   87.0  0.9963   -3.0
 0.180  0.9558   -5.2   3.674  174.9  0.0069   87.0  0.9963   -3.1
 0.185  0.9558   -5.4   3.674  174.8  0.0071   87.0  0.9963   -3.2
 0.190  0.9559   -5.5   3.674  174.6  0.0073   87.0  0.9962   -3.3
 0.195  0.9559   -5.7   3.674  174.5  0.0075   87.0  0.9962   -3.4
 0.200  0.9560   -5.8   3.674  174.3  0.0077   87.0  0.9962   -3.5
 0.220  0.9554   -6.3   3.680  173.7  0.0085   86.6  0.9928   -3.9
 0.240  0.9549   -6.8   3.687  173.1  0.0093   86.2  0.9895   -4.2
 0.260  0.9550   -7.4   3.689  172.5  0.0101   86.0  0.9893   -4.5
 0.280  0.9557   -8.1   3.686  172.0  0.0109   85.8  0.9923   -4.8
 0.300  0.9566   -8.8   3.683  171.5  0.0117   85.6  0.9954   -5.1
 0.320  0.9550   -9.4   3.677  170.9  0.0125   85.2  0.9938   -5.5
 0.340  0.9535   -9.9   3.672  170.3  0.0133   84.9  0.9922   -5.8
 0.360  0.9528  -10.5   3.672  169.7  0.0141   84.6  0.9910   -6.2
 0.380  0.9530  -11.1   3.676  169.0  0.0148   84.2  0.9902   -6.5
 0.400  0.9533  -11.7   3.681  168.4  0.0156   83.8  0.9894   -6.8
 0.420  0.9525  -12.3   3.675  167.8  0.0164   83.5  0.9891   -7.2
 0.440  0.9517  -12.8   3.669  167.2  0.0172   83.1  0.9888   -7.5
 0.450  0.9514  -13.1   3.666  166.9  0.0176   83.0  0.9887   -7.7
 0.460  0.9513  -13.4   3.667  166.6  0.0180   82.8  0.9882   -7.9
 0.480  0.9511  -14.0   3.669  166.1  0.0188   82.5  0.9871   -8.2
 0.500  0.9511  -14.6   3.672  165.6  0.0196   82.2  0.9861   -8.5
 0.520  0.9498  -15.2   3.667  165.0  0.0204   81.8  0.9852   -8.9
 0.540  0.9486  -15.8   3.663  164.4  0.0212   81.4  0.9843   -9.2
 0.560  0.9475  -16.4   3.659  163.8  0.0219   81.1  0.9835   -9.6
 0.580  0.9466  -17.0   3.656  163.2  0.0227   80.8  0.9827   -9.9
 0.600  0.9457  -17.6   3.653  162.6  0.0235   80.5  0.9820  -10.3
 0.620  0.9446  -18.2   3.650  162.0  0.0243   80.1  0.9809  -10.6
 0.640  0.9436  -18.8   3.646  161.5  0.0251   79.7  0.9799  -10.9
 0.660  0.9427  -19.4   3.644  160.9  0.0259   79.4  0.9789  -11.3
 0.680  0.9419  -20.0   3.641  160.4  0.0267   79.0  0.9779  -11.6
 0.700  0.9412  -20.6   3.639  159.8  0.0275   78.7  0.9770  -11.9
 0.720  0.9398  -21.2   3.636  159.2  0.0283   78.3  0.9759  -12.3
 0.740  0.9385  -21.8   3.634  158.6  0.0291   77.9  0.9748  -12.6
 0.760  0.9373  -22.4   3.632  158.1  0.0299   77.6  0.9737  -13.0
 0.780  0.9362  -23.0   3.630  157.5  0.0307   77.2  0.9727  -13.3
 0.800  0.9352  -23.6   3.629  156.9  0.0315   76.9  0.9717  -13.7
 0.820  0.9338  -24.2   3.625  156.3  0.0323   76.5  0.9703  -14.0
 0.840  0.9325  -24.8   3.622  155.7  0.0331   76.2  0.9688  -14.3
 0.860  0.9313  -25.3   3.619  155.1  0.0338   75.8  0.9675  -14.7
 0.880  0.9301  -25.9   3.616  154.5  0.0346   75.5  0.9661  -15.0
 0.900  0.9291  -26.5   3.614  153.9  0.0354   75.2  0.9648  -15.3
 0.920  0.9276  -27.1   3.609  153.3  0.0362   74.8  0.9634  -15.6
 0.940  0.9262  -27.7   3.604  152.7  0.0370   74.4  0.9620  -16.0
 0.960  0.9248  -28.3   3.600  152.2  0.0377   74.0  0.9607  -16.3
 0.980  0.9236  -28.9   3.596  151.6  0.0385   73.6  0.9594  -16.7
 1.000  0.9225  -29.5   3.593  151.0  0.0393   73.3  0.9581  -17.0
 1.020  0.9209  -30.1   3.589  150.4  0.0401   72.9  0.9566  -17.3
 1.040  0.9194  -30.7   3.584  149.9  0.0409   72.5  0.9551  -17.7
 1.060  0.9180  -31.4   3.581  149.3  0.0417   72.1  0.9537  -18.0
 1.080  0.9168  -32.0   3.577  148.8  0.0425   71.8  0.9523  -18.4
 1.100  0.9156  -32.6   3.574  148.2  0.0433   71.4  0.9509  -18.7
 1.120  0.9134  -33.2   3.568  147.6  0.0441   71.0  0.9492  -19.0
 1.140  0.9113  -33.8   3.562  147.1  0.0449   70.6  0.9475  -19.3
 1.160  0.9092  -34.4   3.556  146.5  0.0456   70.3  0.9458  -19.7
 1.180  0.9073  -35.0   3.551  146.0  0.0464   69.9  0.9441  -20.0
 1.200  0.9055  -35.6   3.546  145.4  0.0472   69.6  0.9425  -20.3
 1.220  0.9036  -36.2   3.540  144.8  0.0480   69.2  0.9408  -20.6
 1.240  0.9018  -36.8   3.534  144.3  0.0487   68.8  0.9391  -20.9
 1.260  0.9002  -37.4   3.528  143.7  0.0495   68.4  0.9374  -21.3
 1.280  0.8986  -38.0   3.523  143.2  0.0502   68.1  0.9357  -21.6
 1.300  0.8971  -38.6   3.518  142.6  0.0510   67.7  0.9341  -21.9
 1.320  0.8950  -39.2   3.513  142.0  0.0518   67.3  0.9322  -22.2
 1.340  0.8931  -39.9   3.508  141.5  0.0525   66.9  0.9303  -22.5
 1.360  0.8912  -40.5   3.503  140.9  0.0533   66.5  0.9285  -22.9
 1.380  0.8895  -41.2   3.499  140.4  0.0540   66.2  0.9267  -23.2
 1.400  0.8879  -41.8   3.495  139.8  0.0548   65.8  0.9249  -23.5
 1.420  0.8858  -42.4   3.488  139.3  0.0555   65.4  0.9229  -23.8
 1.440  0.8838  -43.0   3.480  138.7  0.0563   65.0  0.9210  -24.1
 1.460  0.8819  -43.6   3.474  138.2  0.0570   64.6  0.9191  -24.5
 1.480  0.8801  -44.2   3.467  137.6  0.0578   64.3  0.9172  -24.8
 1.500  0.8784  -44.8   3.461  137.1  0.0585   63.9  0.9153  -25.1
 1.520  0.8758  -45.4   3.456  136.6  0.0592   63.5  0.9134  -25.4
 1.540  0.8734  -46.1   3.451  136.0  0.0600   63.1  0.9115  -25.7
 1.560  0.8710  -46.7   3.447  135.5  0.0607   62.7  0.9096  -26.0
 1.580  0.8687  -47.4   3.443  134.9  0.0615   62.4  0.9077  -26.3
 1.600  0.8666  -48.0   3.439  134.4  0.0622   62.0  0.9059  -26.6
 1.620  0.8645  -48.6   3.432  133.9  0.0629   61.6  0.9039  -26.9
 1.640  0.8626  -49.2   3.424  133.3  0.0636   61.2  0.9019  -27.2
 1.660  0.8607  -49.8   3.418  132.8  0.0644   60.8  0.8999  -27.5
 1.680  0.8589  -50.4   3.411  132.2  0.0651   60.5  0.8980  -27.8
 1.700  0.8572  -51.0   3.405  131.7  0.0658   60.1  0.8961  -28.1
 1.720  0.8546  -51.7   3.397  131.1  0.0665   59.7  0.8941  -28.4
 1.740  0.8521  -52.3   3.390  130.6  0.0672   59.3  0.8920  -28.7
 1.760  0.8497  -53.0   3.382  130.0  0.0679   58.9  0.8900  -29.0
 1.780  0.8475  -53.6   3.376  129.5  0.0686   58.6  0.8881  -29.3
 1.800  0.8453  -54.3   3.369  128.9  0.0693   58.2  0.8861  -29.6
 1.820  0.8429  -54.9   3.363  128.4  0.0700   57.8  0.8839  -29.9
 1.840  0.8407  -55.5   3.357  127.9  0.0707   57.4  0.8818  -30.2
 1.860  0.8385  -56.2   3.351  127.4  0.0713   57.0  0.8797  -30.5
 1.880  0.8365  -56.8   3.346  126.9  0.0720   56.7  0.8776  -30.8
 1.900  0.8345  -57.4   3.341  126.4  0.0727   56.3  0.8755  -31.1
 1.920  0.8320  -58.0   3.334  125.9  0.0734   55.9  0.8734  -31.4
 1.940  0.8296  -58.7   3.327  125.4  0.0741   55.5  0.8713  -31.7
 1.960  0.8272  -59.3   3.320  124.8  0.0747   55.1  0.8692  -32.0
 1.980  0.8250  -60.0   3.314  124.3  0.0754   54.8  0.8672  -32.3
 2.000  0.8229  -60.6   3.308  123.8  0.0761   54.4  0.8652  -32.6
 2.020  0.8202  -61.2   3.300  123.3  0.0767   54.0  0.8629  -32.9
 2.040  0.8177  -61.8   3.293  122.8  0.0774   53.6  0.8607  -33.1
 2.060  0.8152  -62.5   3.286  122.3  0.0780   53.3  0.8585  -33.4
 2.080  0.8128  -63.1   3.279  121.8  0.0786   52.9  0.8563  -33.7
 2.100  0.8106  -63.7   3.272  121.3  0.0793   52.5  0.8541  -34.0
 2.120  0.8084  -64.3   3.266  120.8  0.0799   52.2  0.8519  -34.3
 2.140  0.8063  -65.0   3.260  120.3  0.0805   51.8  0.8498  -34.5
 2.160  0.8043  -65.6   3.254  119.7  0.0812   51.5  0.8477  -34.8
 2.180  0.8025  -66.3   3.248  119.2  0.0818   51.1  0.8456  -35.1
 2.200  0.8007  -66.9   3.243  118.7  0.0825   50.8  0.8435  -35.4
 2.220  0.7978  -67.6   3.236  118.2  0.0831   50.4  0.8412  -35.7
 2.240  0.7950  -68.2   3.229  117.7  0.0837   50.0  0.8389  -36.0
 2.260  0.7923  -68.9   3.222  117.2  0.0843   49.6  0.8366  -36.3
 2.280  0.7897  -69.5   3.216  116.7  0.0849   49.2  0.8343  -36.5
 2.300  0.7872  -70.2   3.210  116.2  0.0855   48.8  0.8320  -36.8
 2.320  0.7848  -70.9   3.204  115.7  0.0861   48.5  0.8298  -37.1
 2.340  0.7825  -71.5   3.198  115.1  0.0867   48.1  0.8276  -37.4
 2.360  0.7803  -72.2   3.193  114.6  0.0874   47.7  0.8254  -37.7
 2.380  0.7782  -72.9   3.188  114.1  0.0880   47.4  0.8232  -38.0
 2.400  0.7763  -73.6   3.183  113.6  0.0886   47.0  0.8211  -38.3
 2.420  0.7735  -74.2   3.175  113.1  0.0892   46.6  0.8187  -38.6
 2.440  0.7707  -74.9   3.168  112.6  0.0897   46.3  0.8164  -38.8
 2.460  0.7680  -75.5   3.160  112.1  0.0903   45.9  0.8141  -39.1
 2.480  0.7655  -76.2   3.153  111.6  0.0909   45.5  0.8118  -39.4
 2.500  0.7630  -76.8   3.146  111.1  0.0915   45.2  0.8095  -39.6
 2.520  0.7607  -77.5   3.140  110.6  0.0920   44.8  0.8072  -39.9
 2.540  0.7584  -78.1   3.133  110.1  0.0926   44.5  0.8050  -40.2
 2.560  0.7562  -78.8   3.127  109.5  0.0932   44.2  0.8027  -40.4
 2.580  0.7542  -79.4   3.122  109.0  0.0938   43.8  0.8005  -40.7
 2.600  0.7522  -80.1   3.116  108.5  0.0944   43.5  0.7983  -41.0
 2.620  0.7495  -80.8   3.109  108.0  0.0949   43.1  0.7958  -41.3
 2.640  0.7468  -81.4   3.103  107.6  0.0954   42.7  0.7933  -41.6
 2.660  0.7443  -82.1   3.097  107.1  0.0960   42.3  0.7909  -41.9
 2.680  0.7419  -82.8   3.091  106.6  0.0965   42.0  0.7885  -42.1
 2.700  0.7396  -83.5   3.085  106.1  0.0970   41.6  0.7860  -42.4
 2.720  0.7374  -84.2   3.079  105.6  0.0976   41.2  0.7837  -42.7
 2.740  0.7353  -84.9   3.074  105.2  0.0981   40.9  0.7813  -43.0
 2.760  0.7333  -85.6   3.069  104.7  0.0987   40.5  0.7789  -43.3
 2.780  0.7315  -86.3   3.064  104.2  0.0992   40.2  0.7766  -43.6
 2.800  0.7297  -87.0   3.059  103.7  0.0998   39.8  0.7743  -43.9
 2.820  0.7267  -87.6   3.052  103.2  0.1003   39.4  0.7718  -44.2
 2.840  0.7237  -88.3   3.044  102.7  0.1008   39.1  0.7693  -44.4
 2.860  0.7209  -89.0   3.037  102.2  0.1013   38.7  0.7668  -44.7
 2.880  0.7181  -89.6   3.031  101.7  0.1018   38.3  0.7644  -45.0
 2.900  0.7155  -90.3   3.024  101.2  0.1022   38.0  0.7619  -45.2
 2.920  0.7129  -91.0   3.018  100.7  0.1028   37.6  0.7595  -45.5
 2.940  0.7105  -91.6   3.012  100.2  0.1033   37.2  0.7571  -45.8
 2.960  0.7081  -92.3   3.006   99.6  0.1038   36.9  0.7547  -46.0
 2.980  0.7059  -93.0   3.000   99.1  0.1043   36.5  0.7524  -46.3
 3.000  0.7037  -93.7   2.995   98.6  0.1048   36.2  0.7500  -46.6
 3.100  0.6858  -97.0   2.952   96.2  0.1066   34.3  0.7363  -47.8
 3.200  0.6702 -100.4   2.915   93.8  0.1085   32.4  0.7230  -49.1
 3.300  0.6571 -104.0   2.883   91.3  0.1105   30.7  0.7100  -50.5
 3.400  0.6466 -107.7   2.857   88.7  0.1127   28.9  0.6974  -51.9
 3.500  0.6390 -111.5   2.836   86.1  0.1149   27.3  0.6853  -53.3
 3.600  0.6221 -114.9   2.789   83.8  0.1160   25.5  0.6720  -54.5
 3.700  0.6074 -118.5   2.747   81.5  0.1172   23.8  0.6591  -55.8
 3.800  0.5954 -122.3   2.709   79.1  0.1185   22.1  0.6464  -57.0
 3.900  0.5859 -126.2   2.677   76.6  0.1199   20.5  0.6341  -58.4
 4.000  0.5793 -130.2   2.649   74.1  0.1214   18.9  0.6222  -59.8
 4.100  0.5654 -133.9   2.602   71.9  0.1219   17.3  0.6103  -61.0
 4.200  0.5539 -137.7   2.558   69.7  0.1226   15.8  0.5986  -62.2
 4.300  0.5449 -141.7   2.518   67.4  0.1233   14.2  0.5873  -63.4
 4.400  0.5388 -145.8   2.483   65.0  0.1241   12.7  0.5762  -64.7
 4.500  0.5354 -150.0   2.452   62.6  0.1250   11.2  0.5654  -66.1
 4.600  0.5273 -153.6   2.406   60.6  0.1250    9.9  0.5550  -67.2
 4.700  0.5214 -157.4   2.363   58.5  0.1250    8.5  0.5448  -68.3
 4.800  0.5177 -161.2   2.323   56.4  0.1252    7.2  0.5348  -69.5
 4.900  0.5164 -165.0   2.286   54.2  0.1253    5.8  0.5250  -70.7
 5.000  0.5174 -168.9   2.253   51.9  0.1256    4.5  0.5155  -72.0
 5.100  0.5141 -172.1   2.212   50.1  0.1253    3.4  0.5070  -72.9
 5.200  0.5124 -175.3   2.173   48.3  0.1250    2.3  0.4986  -73.9
 5.300  0.5123 -178.5   2.137   46.4  0.1248    1.2  0.4903  -74.9
 5.400  0.5139  178.3   2.103   44.5  0.1246    0.0  0.4822  -75.9
 5.500  0.5170  175.1   2.071   42.5  0.1245   -1.1  0.4743  -77.0
 5.600  0.5150  172.6   2.037   40.8  0.1241   -2.0  0.4666  -77.9
 5.700  0.5141  170.0   2.005   39.1  0.1237   -2.9  0.4591  -78.8
 5.800  0.5141  167.5   1.975   37.4  0.1234   -3.8  0.4516  -79.7
 5.900  0.5152  164.9   1.947   35.6  0.1231   -4.7  0.4443  -80.7
 6.000  0.5173  162.4   1.921   33.7  0.1228   -5.6  0.4371  -81.7
 6.100  0.5154  160.1   1.894   32.1  0.1225   -6.3  0.4301  -82.7
 6.200  0.5142  157.8   1.868   30.4  0.1222   -7.1  0.4232  -83.6
 6.300  0.5140  155.4   1.844   28.6  0.1219   -7.8  0.4164  -84.7
 6.400  0.5146  153.1   1.822   26.8  0.1216   -8.6  0.4098  -85.7
 6.500  0.5160  150.8   1.801   25.0  0.1214   -9.3  0.4033  -86.8
 6.600  0.5125  148.3   1.773   23.3  0.1211  -10.0  0.3966  -87.8
 6.800  0.5084  143.3   1.722   19.9  0.1206  -11.3  0.3834  -89.8
 7.000  0.5082  138.3   1.678   16.2  0.1202  -12.6  0.3708  -91.9
 7.200  0.5075  133.1   1.629   13.1  0.1200  -13.8  0.3580  -93.9
 7.400  0.5110  128.0   1.585    9.7  0.1198  -15.0  0.3457  -96.1
 7.600  0.5180  122.9   1.543    6.5  0.1195  -16.2  0.3325  -98.3
 7.800  0.5287  117.8   1.503    3.3  0.1192  -17.5  0.3184 -100.6
 8.000  0.5434  112.9   1.468    0.0  0.1190  -18.7  0.3049 -103.1
 8.200  0.5574  108.5   1.425   -3.0  0.1182  -19.8  0.2862 -105.7
 8.400  0.5746  104.3   1.387   -6.2  0.1175  -20.9  0.2682 -108.6
 8.600  0.5918  100.7   1.351   -9.2  0.1169  -21.8  0.2487 -112.1
 8.800  0.6082   97.5   1.317  -12.2  0.1163  -22.7  0.2280 -116.5
 9.000  0.6263   94.5   1.287  -15.3  0.1158  -23.5  0.2090 -121.8
 9.200  0.6413   91.6   1.253  -18.5  0.1153  -24.2  0.1896 -128.5
 9.400  0.6578   88.7   1.223  -21.8  0.1148  -24.9  0.1735 -136.7
 9.600  0.6698   85.6   1.186  -25.0  0.1143  -25.5  0.1619 -146.4
 9.800  0.6780   82.2   1.141  -28.1  0.1140  -26.0  0.1560 -157.5
10.000  0.6885   78.8   1.099  -31.4  0.1136  -26.4  0.1563 -168.9
!
!  f       NFmin   Gammaopt  rn/50
! GHz       dB    MAG  ANG    -
 0.900      0.74  0.71   15   0.57
 1.800      1.18  0.58   32   0.51
 2.400      1.45  0.48   44   0.46
 3.000      1.56  0.48   58   0.43
 4.000      1.81  0.35   86   0.30
 5.000      2.13  0.33  122   0.21
!
! (c) 2016  Infineon Technologies AG, Munich
