! Infineon Technologies  Discrete & RF Semiconductors
! BFP420
! VCE =  4.0 V,  IC =  2.5 mA
! Common Emitter S-Parameters:                            Jan 2016
# GHz  S  MA  R  50
!  f         S11            S21            S12            S22
! GHz     MAG   ANG      MAG   ANG      MAG   ANG      MAG   ANG
 0.010  0.9260   -1.2   8.733  179.1  0.0010   61.6  0.9905    0.1
 0.015  0.9234   -1.4   8.611  179.0  0.0015   69.3  0.9908   -0.4
 0.020  0.9208   -1.7   8.490  178.9  0.0020   73.2  0.9912   -0.8
 0.025  0.9203   -2.1   8.492  178.5  0.0024   75.3  0.9912   -1.0
 0.030  0.9199   -2.5   8.495  178.2  0.0029   76.8  0.9913   -1.2
 0.035  0.9195   -2.8   8.498  177.8  0.0033   77.9  0.9914   -1.5
 0.040  0.9191   -3.2   8.501  177.4  0.0037   78.8  0.9915   -1.7
 0.045  0.9188   -3.6   8.505  177.1  0.0042   79.5  0.9916   -1.9
 0.050  0.9185   -4.0   8.509  176.7  0.0046   80.0  0.9917   -2.1
 0.055  0.9186   -4.4   8.512  176.4  0.0050   80.4  0.9915   -2.3
 0.060  0.9187   -4.8   8.515  176.1  0.0054   80.7  0.9913   -2.6
 0.065  0.9189   -5.2   8.519  175.8  0.0059   81.0  0.9911   -2.8
 0.070  0.9191   -5.6   8.522  175.5  0.0063   81.2  0.9909   -3.0
 0.075  0.9193   -6.0   8.526  175.2  0.0067   81.4  0.9908   -3.2
 0.080  0.9196   -6.4   8.530  175.0  0.0071   81.6  0.9907   -3.5
 0.085  0.9200   -6.8   8.535  174.7  0.0075   81.8  0.9906   -3.7
 0.090  0.9204   -7.2   8.539  174.4  0.0080   81.9  0.9905   -3.9
 0.095  0.9208   -7.6   8.544  174.1  0.0084   82.1  0.9904   -4.2
 0.100  0.9213   -8.0   8.549  173.8  0.0088   82.2  0.9903   -4.4
 0.105  0.9208   -8.4   8.546  173.5  0.0092   82.0  0.9899   -4.6
 0.110  0.9203   -8.8   8.543  173.2  0.0097   81.8  0.9895   -4.8
 0.115  0.9199   -9.3   8.540  172.8  0.0101   81.6  0.9891   -5.0
 0.120  0.9195   -9.7   8.538  172.5  0.0106   81.5  0.9888   -5.2
 0.125  0.9192  -10.1   8.536  172.2  0.0110   81.4  0.9884   -5.4
 0.130  0.9190  -10.5   8.534  171.9  0.0115   81.2  0.9881   -5.7
 0.135  0.9188  -10.9   8.532  171.6  0.0119   81.1  0.9878   -5.9
 0.140  0.9186  -11.4   8.531  171.2  0.0124   81.0  0.9875   -6.1
 0.145  0.9185  -11.8   8.530  170.9  0.0128   80.9  0.9872   -6.3
 0.150  0.9184  -12.2   8.529  170.6  0.0133   80.8  0.9869   -6.5
 0.155  0.9179  -12.6   8.524  170.3  0.0137   80.6  0.9864   -6.7
 0.160  0.9175  -13.0   8.519  170.0  0.0142   80.4  0.9858   -6.9
 0.165  0.9171  -13.4   8.514  169.7  0.0146   80.3  0.9853   -7.2
 0.170  0.9168  -13.8   8.510  169.4  0.0150   80.1  0.9848   -7.4
 0.175  0.9165  -14.1   8.506  169.1  0.0154   79.9  0.9844   -7.6
 0.180  0.9162  -14.5   8.502  168.8  0.0159   79.8  0.9839   -7.8
 0.185  0.9160  -14.9   8.498  168.5  0.0163   79.7  0.9835   -8.0
 0.190  0.9158  -15.3   8.494  168.2  0.0167   79.5  0.9830   -8.3
 0.195  0.9157  -15.7   8.491  167.9  0.0172   79.4  0.9826   -8.5
 0.200  0.9156  -16.1   8.488  167.6  0.0176   79.3  0.9822   -8.7
 0.220  0.9127  -17.7   8.458  166.3  0.0193   78.6  0.9799   -9.5
 0.240  0.9106  -19.4   8.433  165.0  0.0210   78.0  0.9778  -10.4
 0.260  0.9085  -21.0   8.412  163.7  0.0227   77.2  0.9752  -11.2
 0.280  0.9064  -22.6   8.394  162.6  0.0244   76.2  0.9722  -12.1
 0.300  0.9051  -24.2   8.379  161.4  0.0261   75.4  0.9695  -13.0
 0.320  0.9019  -25.8   8.349  160.2  0.0278   74.5  0.9661  -13.8
 0.340  0.8994  -27.4   8.324  159.0  0.0295   73.8  0.9630  -14.7
 0.360  0.8968  -29.0   8.292  157.8  0.0311   73.0  0.9595  -15.5
 0.380  0.8942  -30.5   8.254  156.7  0.0327   72.1  0.9555  -16.3
 0.400  0.8923  -32.1   8.219  155.5  0.0343   71.4  0.9518  -17.1
 0.420  0.8883  -33.7   8.181  154.3  0.0359   70.5  0.9478  -17.9
 0.440  0.8851  -35.3   8.147  153.1  0.0375   69.8  0.9440  -18.8
 0.450  0.8837  -36.1   8.131  152.5  0.0383   69.4  0.9422  -19.2
 0.460  0.8817  -36.9   8.107  151.9  0.0391   69.0  0.9398  -19.6
 0.480  0.8783  -38.4   8.063  150.7  0.0406   68.2  0.9351  -20.3
 0.500  0.8754  -39.9   8.022  149.5  0.0421   67.4  0.9305  -21.1
 0.520  0.8706  -41.4   7.972  148.4  0.0435   66.5  0.9253  -21.9
 0.540  0.8664  -42.9   7.924  147.3  0.0450   65.6  0.9203  -22.7
 0.560  0.8629  -44.5   7.880  146.1  0.0464   64.8  0.9155  -23.5
 0.580  0.8600  -46.0   7.839  145.0  0.0478   64.0  0.9109  -24.3
 0.600  0.8577  -47.6   7.801  143.8  0.0493   63.3  0.9064  -25.1
 0.620  0.8525  -49.1   7.747  142.7  0.0506   62.5  0.9007  -25.8
 0.640  0.8480  -50.6   7.695  141.7  0.0519   61.7  0.8952  -26.5
 0.660  0.8440  -52.1   7.646  140.6  0.0532   60.9  0.8898  -27.2
 0.680  0.8406  -53.7   7.599  139.5  0.0546   60.2  0.8846  -28.0
 0.700  0.8378  -55.2   7.556  138.4  0.0559   59.5  0.8795  -28.7
 0.720  0.8328  -56.6   7.495  137.4  0.0571   58.7  0.8737  -29.4
 0.740  0.8283  -58.0   7.436  136.4  0.0583   58.0  0.8680  -30.1
 0.760  0.8243  -59.5   7.379  135.3  0.0595   57.3  0.8624  -30.8
 0.780  0.8209  -60.9   7.325  134.3  0.0607   56.6  0.8569  -31.5
 0.800  0.8180  -62.4   7.273  133.2  0.0619   55.9  0.8516  -32.2
 0.820  0.8131  -63.8   7.214  132.2  0.0630   55.2  0.8455  -32.8
 0.840  0.8087  -65.2   7.157  131.2  0.0640   54.5  0.8396  -33.5
 0.860  0.8047  -66.6   7.103  130.2  0.0651   53.8  0.8337  -34.2
 0.880  0.8013  -68.0   7.050  129.2  0.0662   53.1  0.8280  -34.8
 0.900  0.7983  -69.4   7.000  128.2  0.0673   52.5  0.8224  -35.5
 0.920  0.7935  -70.8   6.942  127.3  0.0683   51.8  0.8164  -36.1
 0.940  0.7893  -72.2   6.886  126.4  0.0693   51.2  0.8105  -36.7
 0.960  0.7854  -73.6   6.832  125.4  0.0703   50.5  0.8047  -37.3
 0.980  0.7821  -75.0   6.779  124.5  0.0713   49.9  0.7989  -38.0
 1.000  0.7792  -76.4   6.729  123.5  0.0723   49.3  0.7933  -38.6
 1.020  0.7747  -77.7   6.671  122.6  0.0732   48.7  0.7874  -39.2
 1.040  0.7707  -79.0   6.614  121.8  0.0740   48.1  0.7817  -39.7
 1.060  0.7670  -80.3   6.559  120.9  0.0749   47.5  0.7760  -40.3
 1.080  0.7637  -81.6   6.505  120.0  0.0758   46.9  0.7703  -40.9
 1.100  0.7608  -82.9   6.453  119.1  0.0767   46.3  0.7648  -41.5
 1.120  0.7565  -84.2   6.397  118.2  0.0775   45.7  0.7589  -42.0
 1.140  0.7525  -85.5   6.343  117.4  0.0783   45.1  0.7531  -42.6
 1.160  0.7489  -86.8   6.290  116.5  0.0791   44.5  0.7473  -43.2
 1.180  0.7457  -88.1   6.239  115.6  0.0799   44.0  0.7416  -43.7
 1.200  0.7429  -89.4   6.189  114.7  0.0807   43.4  0.7360  -44.3
 1.220  0.7390  -90.6   6.135  113.9  0.0814   42.8  0.7304  -44.8
 1.240  0.7355  -91.8   6.083  113.1  0.0821   42.3  0.7249  -45.3
 1.260  0.7323  -93.1   6.031  112.3  0.0828   41.8  0.7194  -45.8
 1.280  0.7294  -94.3   5.981  111.5  0.0836   41.2  0.7140  -46.4
 1.300  0.7269  -95.6   5.932  110.7  0.0843   40.7  0.7086  -46.9
 1.320  0.7230  -96.8   5.881  109.9  0.0849   40.2  0.7031  -47.4
 1.340  0.7194  -98.0   5.830  109.1  0.0855   39.6  0.6976  -47.9
 1.360  0.7162  -99.2   5.781  108.3  0.0861   39.1  0.6922  -48.4
 1.380  0.7133 -100.5   5.733  107.5  0.0867   38.6  0.6868  -49.0
 1.400  0.7107 -101.7   5.686  106.7  0.0873   38.1  0.6815  -49.5
 1.420  0.7074 -102.8   5.639  106.0  0.0879   37.6  0.6762  -49.9
 1.440  0.7044 -104.0   5.592  105.3  0.0884   37.2  0.6710  -50.4
 1.460  0.7017 -105.1   5.547  104.6  0.0890   36.7  0.6658  -50.9
 1.480  0.6993 -106.2   5.502  103.8  0.0896   36.2  0.6606  -51.3
 1.500  0.6971 -107.4   5.458  103.1  0.0902   35.8  0.6555  -51.8
 1.520  0.6941 -108.5   5.411  102.4  0.0906   35.3  0.6505  -52.2
 1.540  0.6913 -109.6   5.365  101.7  0.0911   34.9  0.6455  -52.7
 1.560  0.6889 -110.7   5.320  100.9  0.0916   34.4  0.6405  -53.1
 1.580  0.6866 -111.9   5.276  100.2  0.0920   34.0  0.6356  -53.5
 1.600  0.6847 -113.0   5.233   99.4  0.0925   33.5  0.6307  -54.0
 1.620  0.6814 -114.1   5.191   98.8  0.0930   33.1  0.6259  -54.4
 1.640  0.6783 -115.2   5.149   98.1  0.0934   32.6  0.6212  -54.8
 1.660  0.6755 -116.3   5.108   97.5  0.0939   32.2  0.6165  -55.2
 1.680  0.6729 -117.4   5.068   96.8  0.0944   31.8  0.6118  -55.7
 1.700  0.6706 -118.5   5.028   96.1  0.0949   31.4  0.6072  -56.1
 1.720  0.6683 -119.5   4.984   95.5  0.0953   31.0  0.6027  -56.5
 1.740  0.6662 -120.5   4.941   94.8  0.0956   30.6  0.5982  -56.8
 1.760  0.6643 -121.5   4.899   94.2  0.0960   30.2  0.5937  -57.2
 1.780  0.6627 -122.6   4.857   93.5  0.0963   29.8  0.5893  -57.6
 1.800  0.6612 -123.6   4.816   92.8  0.0967   29.4  0.5849  -58.0
 1.820  0.6587 -124.6   4.778   92.2  0.0971   29.0  0.5804  -58.4
 1.840  0.6564 -125.7   4.740   91.6  0.0974   28.6  0.5758  -58.8
 1.860  0.6543 -126.7   4.703   90.9  0.0978   28.3  0.5714  -59.2
 1.880  0.6524 -127.7   4.666   90.3  0.0982   27.9  0.5669  -59.7
 1.900  0.6508 -128.8   4.630   89.6  0.0986   27.5  0.5625  -60.1
 1.920  0.6485 -129.7   4.593   89.0  0.0989   27.2  0.5585  -60.4
 1.940  0.6463 -130.7   4.557   88.5  0.0991   26.8  0.5545  -60.8
 1.960  0.6443 -131.6   4.521   87.9  0.0994   26.5  0.5505  -61.1
 1.980  0.6425 -132.5   4.485   87.3  0.0997   26.1  0.5465  -61.5
 2.000  0.6409 -133.5   4.450   86.7  0.1000   25.8  0.5426  -61.8
 2.020  0.6384 -134.4   4.416   86.2  0.1002   25.5  0.5386  -62.1
 2.040  0.6361 -135.4   4.382   85.6  0.1005   25.1  0.5345  -62.5
 2.060  0.6340 -136.4   4.349   85.1  0.1007   24.8  0.5305  -62.8
 2.080  0.6320 -137.3   4.316   84.5  0.1010   24.5  0.5266  -63.1
 2.100  0.6302 -138.3   4.284   83.9  0.1013   24.1  0.5226  -63.5
 2.120  0.6286 -139.3   4.251   83.3  0.1015   23.8  0.5187  -63.8
 2.140  0.6272 -140.2   4.220   82.7  0.1018   23.5  0.5147  -64.2
 2.160  0.6260 -141.2   4.189   82.1  0.1021   23.1  0.5108  -64.6
 2.180  0.6250 -142.2   4.158   81.5  0.1023   22.8  0.5070  -64.9
 2.200  0.6241 -143.2   4.128   80.9  0.1026   22.5  0.5031  -65.3
 2.220  0.6222 -144.1   4.097   80.4  0.1028   22.2  0.4993  -65.6
 2.240  0.6205 -145.0   4.067   79.9  0.1030   21.9  0.4956  -65.9
 2.260  0.6190 -145.9   4.037   79.4  0.1032   21.6  0.4919  -66.3
 2.280  0.6176 -146.8   4.007   78.8  0.1034   21.2  0.4882  -66.6
 2.300  0.6163 -147.7   3.978   78.3  0.1036   20.9  0.4845  -66.9
 2.320  0.6152 -148.6   3.949   77.8  0.1038   20.6  0.4808  -67.3
 2.340  0.6143 -149.5   3.920   77.2  0.1040   20.3  0.4772  -67.6
 2.360  0.6135 -150.5   3.892   76.6  0.1042   20.0  0.4735  -68.0
 2.380  0.6129 -151.4   3.864   76.1  0.1044   19.7  0.4699  -68.3
 2.400  0.6124 -152.3   3.836   75.5  0.1046   19.4  0.4663  -68.7
 2.420  0.6111 -153.2   3.809   75.0  0.1047   19.1  0.4629  -69.0
 2.440  0.6099 -154.1   3.782   74.5  0.1048   18.9  0.4595  -69.3
 2.460  0.6089 -154.9   3.755   74.0  0.1050   18.6  0.4561  -69.7
 2.480  0.6080 -155.8   3.728   73.5  0.1051   18.3  0.4527  -70.0
 2.500  0.6073 -156.7   3.702   73.0  0.1052   18.0  0.4493  -70.3
 2.520  0.6067 -157.6   3.676   72.5  0.1054   17.8  0.4459  -70.7
 2.540  0.6063 -158.5   3.651   71.9  0.1055   17.5  0.4426  -71.0
 2.560  0.6060 -159.4   3.626   71.4  0.1056   17.2  0.4393  -71.4
 2.580  0.6059 -160.3   3.601   70.9  0.1058   17.0  0.4360  -71.7
 2.600  0.6059 -161.2   3.576   70.3  0.1059   16.7  0.4327  -72.1
 2.620  0.6048 -162.0   3.551   69.8  0.1060   16.5  0.4296  -72.4
 2.640  0.6038 -162.8   3.527   69.4  0.1061   16.2  0.4265  -72.7
 2.660  0.6030 -163.6   3.502   68.9  0.1062   16.0  0.4235  -73.0
 2.680  0.6022 -164.4   3.478   68.5  0.1062   15.7  0.4204  -73.2
 2.700  0.6016 -165.2   3.454   68.0  0.1063   15.5  0.4174  -73.5
 2.720  0.6011 -166.0   3.430   67.5  0.1064   15.3  0.4143  -73.8
 2.740  0.6007 -166.8   3.407   67.0  0.1065   15.0  0.4113  -74.2
 2.760  0.6004 -167.6   3.384   66.5  0.1066   14.8  0.4083  -74.5
 2.780  0.6002 -168.4   3.361   66.0  0.1067   14.5  0.4053  -74.8
 2.800  0.6002 -169.2   3.338   65.5  0.1068   14.3  0.4023  -75.1
 2.820  0.5997 -170.0   3.317   65.1  0.1069   14.1  0.3995  -75.4
 2.840  0.5993 -170.7   3.295   64.6  0.1069   13.9  0.3967  -75.7
 2.860  0.5990 -171.5   3.274   64.2  0.1070   13.7  0.3939  -76.0
 2.880  0.5988 -172.3   3.254   63.8  0.1071   13.5  0.3911  -76.2
 2.900  0.5987 -173.0   3.233   63.3  0.1072   13.2  0.3884  -76.5
 2.920  0.5988 -173.8   3.213   62.9  0.1073   13.0  0.3856  -76.8
 2.940  0.5989 -174.6   3.192   62.4  0.1073   12.8  0.3829  -77.2
 2.960  0.5992 -175.4   3.172   61.9  0.1074   12.6  0.3801  -77.5
 2.980  0.5995 -176.1   3.153   61.5  0.1075   12.4  0.3774  -77.8
 3.000  0.6000 -176.9   3.133   61.0  0.1076   12.2  0.3747  -78.1
 3.100  0.5971  179.6   3.038   59.1  0.1077   11.3  0.3619  -79.6
 3.200  0.5964  176.1   2.947   57.0  0.1078   10.4  0.3494  -81.2
 3.300  0.5980  172.6   2.860   54.8  0.1079    9.4  0.3371  -82.9
 3.400  0.6018  169.1   2.778   52.5  0.1081    8.5  0.3252  -84.7
 3.500  0.6078  165.7   2.700   50.0  0.1083    7.6  0.3136  -86.7
 3.600  0.6081  162.7   2.625   48.2  0.1084    6.9  0.3037  -88.4
 3.700  0.6100  159.7   2.553   46.3  0.1085    6.3  0.2940  -90.1
 3.800  0.6135  156.8   2.483   44.3  0.1087    5.6  0.2846  -92.0
 3.900  0.6187  153.9   2.417   42.1  0.1088    5.0  0.2756  -94.0
 4.000  0.6254  151.0   2.355   39.9  0.1090    4.3  0.2669  -96.2
 4.100  0.6265  148.6   2.292   38.2  0.1091    3.7  0.2595  -98.2
 4.200  0.6287  146.3   2.231   36.4  0.1091    3.2  0.2524 -100.2
 4.300  0.6319  143.9   2.172   34.5  0.1092    2.6  0.2457 -102.4
 4.400  0.6362  141.6   2.116   32.5  0.1093    2.1  0.2393 -104.8
 4.500  0.6415  139.3   2.063   30.4  0.1094    1.5  0.2334 -107.2
 4.600  0.6419  137.5   2.012   28.9  0.1094    1.1  0.2280 -109.2
 4.700  0.6430  135.6   1.962   27.4  0.1095    0.7  0.2229 -111.2
 4.800  0.6448  133.8   1.914   25.8  0.1096    0.3  0.2181 -113.4
 4.900  0.6472  132.0   1.868   24.1  0.1096   -0.1  0.2136 -115.7
 5.000  0.6502  130.2   1.823   22.3  0.1097   -0.5  0.2095 -118.0
 5.100  0.6512  128.5   1.783   20.9  0.1098   -0.8  0.2053 -120.2
 5.200  0.6529  126.8   1.745   19.4  0.1099   -1.1  0.2013 -122.5
 5.300  0.6551  125.1   1.707   17.9  0.1099   -1.4  0.1977 -124.8
 5.400  0.6578  123.5   1.671   16.3  0.1100   -1.7  0.1945 -127.3
 5.500  0.6611  121.8   1.636   14.6  0.1101   -2.0  0.1916 -129.8
 5.600  0.6635  120.2   1.605   13.2  0.1104   -2.2  0.1885 -132.3
 5.700  0.6664  118.6   1.575   11.8  0.1107   -2.3  0.1858 -134.9
 5.800  0.6699  117.1   1.545   10.3  0.1110   -2.5  0.1835 -137.5
 5.900  0.6738  115.5   1.517    8.8  0.1113   -2.6  0.1815 -140.2
 6.000  0.6782  114.0   1.490    7.2  0.1116   -2.8  0.1800 -143.0
 6.100  0.6813  112.5   1.464    5.8  0.1123   -3.0  0.1781 -145.7
 6.200  0.6849  111.1   1.439    4.3  0.1131   -3.2  0.1765 -148.4
 6.300  0.6889  109.7   1.415    2.8  0.1138   -3.4  0.1754 -151.2
 6.400  0.6934  108.3   1.392    1.2  0.1146   -3.6  0.1747 -154.0
 6.500  0.6982  106.9   1.370   -0.4  0.1153   -3.8  0.1744 -156.8
 6.600  0.7006  105.6   1.348   -1.8  0.1164   -4.1  0.1731 -159.5
 6.800  0.7067  102.9   1.307   -4.8  0.1185   -4.6  0.1716 -164.9
 7.000  0.7142  100.3   1.270   -8.0  0.1206   -5.1  0.1717 -170.4
 7.200  0.7174   97.6   1.231  -10.9  0.1231   -6.0  0.1722 -176.4
 7.400  0.7222   94.8   1.195  -13.9  0.1255   -7.0  0.1746  177.8
 7.600  0.7264   92.0   1.157  -16.9  0.1277   -8.1  0.1776  171.6
 7.800  0.7303   88.9   1.117  -20.0  0.1297   -9.5  0.1818  165.2
 8.000  0.7362   85.9   1.081  -23.2  0.1317  -10.8  0.1882  159.1
 8.200  0.7391   82.7   1.040  -25.9  0.1324  -12.2  0.1933  151.7
 8.400  0.7444   79.6   1.002  -28.8  0.1332  -13.5  0.2015  144.8
 8.600  0.7530   76.6   0.967  -31.5  0.1338  -14.6  0.2130  137.9
 8.800  0.7646   73.9   0.935  -34.0  0.1344  -15.5  0.2283  131.3
 9.000  0.7780   71.2   0.904  -36.6  0.1349  -16.4  0.2463  125.5
 9.200  0.7978   69.0   0.876  -38.9  0.1359  -17.1  0.2699  120.8
 9.400  0.8187   67.0   0.850  -41.3  0.1370  -17.8  0.2949  116.9
 9.600  0.8372   65.2   0.820  -43.7  0.1384  -18.5  0.3208  113.8
 9.800  0.8531   63.7   0.788  -46.2  0.1401  -19.3  0.3470  111.4
10.000  0.8695   62.3   0.758  -48.8  0.1419  -20.1  0.3738  109.3
!
!  f       NFmin   Gammaopt  rn/50
! GHz       dB    MAG  ANG    -
 0.900      0.55  0.41   33   0.20
 1.800      1.02  0.24   78   0.16
 2.400      1.11  0.26  103   0.15
 3.000      1.28  0.27  140   0.11
 4.000      1.50  0.34 -163   0.10
 5.000      1.85  0.40 -130   0.26
 6.000      2.56  0.50 -109   0.35
!
! (c) 2016  Infineon Technologies AG, Munich
