! Infineon Technologies  Discrete & RF Semiconductors
! BFP420
! VCE =  0.5 V,  IC =  1.5 mA
! Common Emitter S-Parameters:                            Jan 2016
# GHz  S  MA  R  50
!  f         S11            S21            S12            S22
! GHz     MAG   ANG      MAG   ANG      MAG   ANG      MAG   ANG
 0.010  0.9428   -1.5   5.517  179.4  0.0009   86.4  0.9925   -0.3
 0.015  0.9419   -1.5   5.441  179.3  0.0019   86.5  0.9927   -0.7
 0.020  0.9410   -1.6   5.365  179.1  0.0030   86.5  0.9930   -1.1
 0.025  0.9412   -2.0   5.370  178.7  0.0038   87.3  0.9929   -1.4
 0.030  0.9414   -2.4   5.375  178.3  0.0046   87.8  0.9928   -1.7
 0.035  0.9417   -2.9   5.381  177.9  0.0053   88.2  0.9928   -1.9
 0.040  0.9420   -3.3   5.387  177.6  0.0061   88.4  0.9928   -2.2
 0.045  0.9424   -3.7   5.393  177.2  0.0069   88.6  0.9928   -2.5
 0.050  0.9428   -4.1   5.399  176.8  0.0077   88.8  0.9928   -2.8
 0.055  0.9422   -4.5   5.402  176.5  0.0085   88.0  0.9924   -3.1
 0.060  0.9417   -4.9   5.405  176.2  0.0092   87.4  0.9921   -3.4
 0.065  0.9412   -5.4   5.408  175.8  0.0100   86.8  0.9917   -3.7
 0.070  0.9408   -5.8   5.412  175.5  0.0108   86.3  0.9914   -4.0
 0.075  0.9405   -6.2   5.415  175.2  0.0115   85.9  0.9911   -4.2
 0.080  0.9402   -6.6   5.419  174.9  0.0123   85.6  0.9909   -4.5
 0.085  0.9399   -7.0   5.423  174.6  0.0131   85.3  0.9906   -4.8
 0.090  0.9397   -7.5   5.427  174.2  0.0139   85.0  0.9904   -5.1
 0.095  0.9395   -7.9   5.432  173.9  0.0146   84.7  0.9903   -5.4
 0.100  0.9394   -8.3   5.436  173.6  0.0154   84.5  0.9901   -5.7
 0.105  0.9390   -8.7   5.434  173.3  0.0162   84.2  0.9896   -6.0
 0.110  0.9386   -9.1   5.432  172.9  0.0170   83.9  0.9891   -6.3
 0.115  0.9383   -9.5   5.431  172.6  0.0177   83.7  0.9886   -6.5
 0.120  0.9380   -9.9   5.429  172.3  0.0185   83.4  0.9881   -6.8
 0.125  0.9378  -10.2   5.428  172.0  0.0193   83.2  0.9877   -7.1
 0.130  0.9376  -10.6   5.427  171.6  0.0201   83.0  0.9872   -7.4
 0.135  0.9374  -11.0   5.426  171.3  0.0209   82.9  0.9868   -7.7
 0.140  0.9373  -11.4   5.425  171.0  0.0216   82.7  0.9865   -7.9
 0.145  0.9372  -11.8   5.424  170.6  0.0224   82.5  0.9861   -8.2
 0.150  0.9372  -12.2   5.424  170.3  0.0232   82.4  0.9858   -8.5
 0.155  0.9367  -12.6   5.421  170.0  0.0240   82.1  0.9851   -8.8
 0.160  0.9363  -13.0   5.418  169.6  0.0247   81.8  0.9844   -9.1
 0.165  0.9360  -13.4   5.415  169.3  0.0255   81.5  0.9837   -9.3
 0.170  0.9357  -13.8   5.413  169.0  0.0263   81.2  0.9830   -9.6
 0.175  0.9354  -14.2   5.410  168.7  0.0270   81.0  0.9824   -9.9
 0.180  0.9352  -14.7   5.408  168.3  0.0278   80.7  0.9817  -10.2
 0.185  0.9350  -15.1   5.406  168.0  0.0286   80.5  0.9811  -10.5
 0.190  0.9349  -15.5   5.404  167.7  0.0294   80.3  0.9806  -10.7
 0.195  0.9348  -15.9   5.402  167.3  0.0301   80.1  0.9800  -11.0
 0.200  0.9348  -16.3   5.401  167.0  0.0309   79.9  0.9795  -11.3
 0.220  0.9322  -17.9   5.379  165.6  0.0339   78.8  0.9762  -12.4
 0.240  0.9303  -19.6   5.359  164.3  0.0368   77.8  0.9732  -13.5
 0.260  0.9284  -21.2   5.344  163.0  0.0398   76.8  0.9698  -14.6
 0.280  0.9264  -22.8   5.332  161.7  0.0427   75.7  0.9658  -15.7
 0.300  0.9251  -24.4   5.323  160.5  0.0457   74.8  0.9622  -16.8
 0.320  0.9221  -26.0   5.302  159.3  0.0486   73.7  0.9577  -17.9
 0.340  0.9199  -27.7   5.283  158.0  0.0515   72.7  0.9535  -19.0
 0.360  0.9176  -29.3   5.260  156.8  0.0543   71.7  0.9488  -20.0
 0.380  0.9152  -30.8   5.235  155.5  0.0570   70.7  0.9437  -21.0
 0.400  0.9134  -32.4   5.212  154.2  0.0598   69.8  0.9389  -22.0
 0.420  0.9098  -34.0   5.186  153.0  0.0625   68.7  0.9335  -23.1
 0.440  0.9069  -35.6   5.162  151.7  0.0653   67.8  0.9285  -24.2
 0.450  0.9057  -36.4   5.151  151.1  0.0667   67.3  0.9261  -24.7
 0.460  0.9037  -37.2   5.134  150.5  0.0680   66.8  0.9230  -25.2
 0.480  0.9003  -38.7   5.103  149.3  0.0705   65.8  0.9170  -26.2
 0.500  0.8975  -40.3   5.074  148.1  0.0731   64.9  0.9113  -27.2
 0.520  0.8929  -41.8   5.040  146.9  0.0755   63.8  0.9047  -28.2
 0.540  0.8890  -43.4   5.008  145.7  0.0780   62.8  0.8984  -29.1
 0.560  0.8858  -44.9   4.979  144.5  0.0804   61.9  0.8923  -30.1
 0.580  0.8832  -46.5   4.951  143.3  0.0829   61.0  0.8865  -31.1
 0.600  0.8813  -48.1   4.926  142.1  0.0854   60.2  0.8810  -32.1
 0.620  0.8765  -49.6   4.889  141.0  0.0876   59.2  0.8739  -33.0
 0.640  0.8722  -51.1   4.853  139.9  0.0898   58.3  0.8670  -33.9
 0.660  0.8686  -52.6   4.820  138.8  0.0920   57.4  0.8603  -34.8
 0.680  0.8655  -54.1   4.788  137.7  0.0942   56.5  0.8538  -35.8
 0.700  0.8631  -55.6   4.758  136.5  0.0965   55.7  0.8476  -36.7
 0.720  0.8583  -57.0   4.718  135.5  0.0985   54.8  0.8404  -37.6
 0.740  0.8540  -58.4   4.679  134.4  0.1005   53.9  0.8334  -38.4
 0.760  0.8503  -59.9   4.642  133.4  0.1025   53.1  0.8266  -39.3
 0.780  0.8471  -61.3   4.607  132.3  0.1045   52.3  0.8200  -40.2
 0.800  0.8445  -62.8   4.573  131.2  0.1066   51.5  0.8136  -41.1
 0.820  0.8399  -64.2   4.535  130.2  0.1083   50.6  0.8065  -41.9
 0.840  0.8359  -65.6   4.498  129.2  0.1101   49.8  0.7995  -42.7
 0.860  0.8323  -67.0   4.463  128.2  0.1119   49.0  0.7926  -43.5
 0.880  0.8293  -68.5   4.429  127.2  0.1137   48.2  0.7860  -44.4
 0.900  0.8268  -69.9   4.396  126.2  0.1155   47.5  0.7795  -45.2
 0.920  0.8224  -71.3   4.359  125.3  0.1171   46.7  0.7724  -46.0
 0.940  0.8184  -72.7   4.322  124.3  0.1187   46.0  0.7655  -46.7
 0.960  0.8150  -74.1   4.287  123.4  0.1203   45.2  0.7587  -47.5
 0.980  0.8120  -75.5   4.254  122.4  0.1219   44.5  0.7520  -48.3
 1.000  0.8095  -76.9   4.221  121.4  0.1236   43.8  0.7455  -49.1
 1.020  0.8055  -78.2   4.184  120.5  0.1250   43.1  0.7389  -49.8
 1.040  0.8019  -79.5   4.148  119.6  0.1264   42.4  0.7323  -50.5
 1.060  0.7988  -80.8   4.114  118.7  0.1278   41.7  0.7259  -51.2
 1.080  0.7960  -82.1   4.080  117.8  0.1292   41.0  0.7196  -51.9
 1.100  0.7937  -83.4   4.047  116.9  0.1307   40.3  0.7134  -52.6
 1.120  0.7899  -84.7   4.011  116.0  0.1320   39.6  0.7068  -53.3
 1.140  0.7865  -86.0   3.977  115.1  0.1332   38.9  0.7003  -54.0
 1.160  0.7835  -87.3   3.943  114.2  0.1345   38.2  0.6938  -54.8
 1.180  0.7809  -88.6   3.911  113.3  0.1359   37.6  0.6876  -55.5
 1.200  0.7787  -89.9   3.879  112.4  0.1372   36.9  0.6814  -56.3
 1.220  0.7752  -91.1   3.846  111.6  0.1383   36.3  0.6753  -56.9
 1.240  0.7720  -92.4   3.814  110.8  0.1394   35.6  0.6692  -57.5
 1.260  0.7692  -93.6   3.783  110.0  0.1405   35.0  0.6633  -58.2
 1.280  0.7668  -94.8   3.753  109.2  0.1416   34.4  0.6574  -58.8
 1.300  0.7647  -96.1   3.723  108.4  0.1427   33.8  0.6516  -59.5
 1.320  0.7612  -97.3   3.691  107.6  0.1436   33.2  0.6456  -60.1
 1.340  0.7581  -98.5   3.660  106.8  0.1446   32.5  0.6397  -60.8
 1.360  0.7553  -99.7   3.630  106.0  0.1455   31.9  0.6338  -61.4
 1.380  0.7528 -101.0   3.601  105.1  0.1465   31.3  0.6281  -62.1
 1.400  0.7507 -102.2   3.572  104.3  0.1475   30.7  0.6224  -62.8
 1.420  0.7478 -103.3   3.543  103.6  0.1484   30.1  0.6168  -63.4
 1.440  0.7452 -104.5   3.514  102.9  0.1492   29.6  0.6113  -63.9
 1.460  0.7429 -105.6   3.486  102.1  0.1501   29.0  0.6059  -64.5
 1.480  0.7408 -106.7   3.459  101.4  0.1510   28.4  0.6005  -65.1
 1.500  0.7391 -107.9   3.432  100.6  0.1519   27.9  0.5952  -65.7
 1.520  0.7365 -109.0   3.404   99.9  0.1526   27.4  0.5899  -66.3
 1.540  0.7342 -110.2   3.376   99.1  0.1533   26.8  0.5847  -66.8
 1.560  0.7322 -111.3   3.349   98.4  0.1540   26.3  0.5795  -67.4
 1.580  0.7305 -112.4   3.322   97.6  0.1547   25.7  0.5744  -68.0
 1.600  0.7291 -113.6   3.296   96.8  0.1554   25.2  0.5693  -68.6
 1.620  0.7262 -114.7   3.270   96.1  0.1561   24.7  0.5645  -69.1
 1.640  0.7237 -115.7   3.245   95.5  0.1568   24.1  0.5597  -69.7
 1.660  0.7213 -116.8   3.220   94.8  0.1575   23.6  0.5549  -70.2
 1.680  0.7192 -117.9   3.196   94.1  0.1583   23.1  0.5502  -70.7
 1.700  0.7174 -119.0   3.172   93.4  0.1590   22.6  0.5456  -71.3
 1.720  0.7152 -120.0   3.145   92.7  0.1595   22.1  0.5410  -71.8
 1.740  0.7132 -121.0   3.119   92.1  0.1600   21.6  0.5365  -72.3
 1.760  0.7114 -122.0   3.093   91.4  0.1606   21.1  0.5320  -72.8
 1.780  0.7099 -123.1   3.068   90.7  0.1611   20.6  0.5276  -73.4
 1.800  0.7086 -124.1   3.043   90.0  0.1617   20.1  0.5232  -73.9
 1.820  0.7066 -125.2   3.020   89.4  0.1622   19.6  0.5185  -74.4
 1.840  0.7049 -126.2   2.997   88.7  0.1626   19.2  0.5139  -75.0
 1.860  0.7034 -127.3   2.975   88.0  0.1631   18.7  0.5094  -75.5
 1.880  0.7022 -128.3   2.953   87.4  0.1636   18.3  0.5049  -76.1
 1.900  0.7012 -129.4   2.932   86.7  0.1641   17.8  0.5004  -76.7
 1.920  0.6991 -130.3   2.910   86.1  0.1645   17.4  0.4965  -77.1
 1.940  0.6971 -131.2   2.888   85.5  0.1649   16.9  0.4925  -77.6
 1.960  0.6953 -132.1   2.866   84.9  0.1653   16.5  0.4887  -78.1
 1.980  0.6937 -133.1   2.845   84.2  0.1658   16.0  0.4848  -78.5
 2.000  0.6923 -134.0   2.824   83.6  0.1662   15.6  0.4810  -79.0
 2.020  0.6900 -134.9   2.803   83.0  0.1665   15.2  0.4770  -79.5
 2.040  0.6879 -135.9   2.783   82.4  0.1668   14.7  0.4730  -79.9
 2.060  0.6860 -136.9   2.762   81.9  0.1671   14.3  0.4691  -80.4
 2.080  0.6843 -137.8   2.742   81.3  0.1674   13.9  0.4652  -80.9
 2.100  0.6827 -138.8   2.723   80.7  0.1677   13.4  0.4613  -81.4
 2.120  0.6814 -139.8   2.703   80.0  0.1681   13.0  0.4575  -81.9
 2.140  0.6803 -140.8   2.684   79.4  0.1684   12.6  0.4537  -82.4
 2.160  0.6794 -141.7   2.665   78.8  0.1688   12.1  0.4499  -82.9
 2.180  0.6786 -142.7   2.647   78.1  0.1691   11.7  0.4462  -83.5
 2.200  0.6781 -143.7   2.629   77.5  0.1695   11.3  0.4425  -84.0
 2.220  0.6763 -144.6   2.610   77.0  0.1697   10.9  0.4388  -84.5
 2.240  0.6747 -145.5   2.592   76.4  0.1698   10.5  0.4352  -85.0
 2.260  0.6733 -146.4   2.573   75.8  0.1700   10.1  0.4316  -85.4
 2.280  0.6720 -147.3   2.555   75.3  0.1702    9.6  0.4281  -85.9
 2.300  0.6709 -148.2   2.537   74.7  0.1704    9.2  0.4245  -86.4
 2.320  0.6700 -149.1   2.520   74.1  0.1707    8.8  0.4210  -87.0
 2.340  0.6692 -150.0   2.502   73.5  0.1709    8.4  0.4176  -87.5
 2.360  0.6687 -151.0   2.485   72.9  0.1711    8.0  0.4141  -88.0
 2.380  0.6682 -151.9   2.468   72.3  0.1714    7.6  0.4108  -88.6
 2.400  0.6680 -152.8   2.452   71.7  0.1716    7.2  0.4074  -89.1
 2.420  0.6668 -153.7   2.436   71.2  0.1716    6.8  0.4041  -89.6
 2.440  0.6658 -154.6   2.419   70.7  0.1717    6.5  0.4009  -90.0
 2.460  0.6649 -155.5   2.403   70.1  0.1717    6.1  0.3977  -90.5
 2.480  0.6642 -156.3   2.387   69.6  0.1718    5.7  0.3945  -91.0
 2.500  0.6637 -157.2   2.372   69.0  0.1719    5.3  0.3913  -91.5
 2.520  0.6633 -158.1   2.356   68.5  0.1719    5.0  0.3882  -91.9
 2.540  0.6631 -159.0   2.341   67.9  0.1720    4.6  0.3851  -92.4
 2.560  0.6630 -159.9   2.326   67.4  0.1721    4.2  0.3820  -93.0
 2.580  0.6631 -160.8   2.311   66.8  0.1722    3.9  0.3790  -93.5
 2.600  0.6634 -161.7   2.297   66.2  0.1723    3.5  0.3760  -94.0
 2.620  0.6623 -162.5   2.282   65.7  0.1723    3.2  0.3732  -94.5
 2.640  0.6614 -163.3   2.266   65.2  0.1723    2.8  0.3704  -94.9
 2.660  0.6606 -164.1   2.251   64.7  0.1722    2.5  0.3676  -95.4
 2.680  0.6599 -164.9   2.237   64.2  0.1722    2.1  0.3648  -95.9
 2.700  0.6593 -165.7   2.222   63.7  0.1722    1.8  0.3621  -96.4
 2.720  0.6589 -166.5   2.207   63.2  0.1722    1.5  0.3594  -96.9
 2.740  0.6586 -167.3   2.193   62.7  0.1722    1.1  0.3567  -97.4
 2.760  0.6584 -168.1   2.179   62.2  0.1723    0.8  0.3541  -97.9
 2.780  0.6584 -168.9   2.165   61.6  0.1723    0.4  0.3515  -98.4
 2.800  0.6585 -169.7   2.151   61.1  0.1723    0.1  0.3489  -98.9
 2.820  0.6580 -170.5   2.138   60.6  0.1722   -0.2  0.3464  -99.4
 2.840  0.6577 -171.2   2.124   60.1  0.1721   -0.5  0.3438  -99.8
 2.860  0.6574 -172.0   2.111   59.7  0.1721   -0.9  0.3413 -100.3
 2.880  0.6573 -172.7   2.098   59.2  0.1720   -1.2  0.3388 -100.8
 2.900  0.6573 -173.5   2.086   58.7  0.1719   -1.5  0.3364 -101.3
 2.920  0.6574 -174.3   2.073   58.2  0.1719   -1.8  0.3340 -101.8
 2.940  0.6576 -175.0   2.060   57.7  0.1718   -2.1  0.3316 -102.3
 2.960  0.6580 -175.8   2.048   57.1  0.1718   -2.5  0.3292 -102.8
 2.980  0.6584 -176.5   2.036   56.6  0.1717   -2.8  0.3268 -103.3
 3.000  0.6590 -177.3   2.024   56.1  0.1717   -3.1  0.3245 -103.8
 3.100  0.6559  179.2   1.964   54.0  0.1707   -4.5  0.3136 -106.2
 3.200  0.6552  175.7   1.907   51.7  0.1699   -5.9  0.3033 -108.8
 3.300  0.6569  172.3   1.853   49.4  0.1691   -7.3  0.2937 -111.5
 3.400  0.6610  168.8   1.802   46.9  0.1685   -8.7  0.2847 -114.5
 3.500  0.6675  165.4   1.755   44.2  0.1679  -10.1  0.2766 -117.6
 3.600  0.6671  162.4   1.707   42.2  0.1668  -11.2  0.2694 -120.3
 3.700  0.6684  159.5   1.661   40.2  0.1657  -12.3  0.2629 -123.2
 3.800  0.6715  156.6   1.618   38.0  0.1647  -13.4  0.2571 -126.1
 3.900  0.6763  153.7   1.576   35.7  0.1637  -14.5  0.2519 -129.3
 4.000  0.6829  150.8   1.538   33.3  0.1628  -15.6  0.2476 -132.5
 4.100  0.6834  148.4   1.497   31.5  0.1614  -16.5  0.2440 -135.3
 4.200  0.6850  146.1   1.458   29.5  0.1600  -17.5  0.2410 -138.2
 4.300  0.6878  143.7   1.421   27.5  0.1587  -18.4  0.2387 -141.1
 4.400  0.6917  141.4   1.385   25.4  0.1574  -19.4  0.2370 -144.1
 4.500  0.6968  139.1   1.352   23.1  0.1562  -20.4  0.2359 -147.1
 4.600  0.6967  137.3   1.319   21.5  0.1547  -21.0  0.2345 -149.6
 4.700  0.6974  135.4   1.287   19.9  0.1531  -21.6  0.2335 -152.2
 4.800  0.6987  133.6   1.256   18.1  0.1516  -22.3  0.2330 -154.8
 4.900  0.7008  131.8   1.226   16.3  0.1502  -22.9  0.2330 -157.4
 5.000  0.7035  130.0   1.198   14.4  0.1487  -23.6  0.2335 -160.0
 5.100  0.7040  128.3   1.172   12.9  0.1473  -24.0  0.2335 -162.5
 5.200  0.7050  126.6   1.147   11.4  0.1459  -24.5  0.2340 -164.9
 5.300  0.7067  124.9   1.123    9.7  0.1445  -25.0  0.2349 -167.4
 5.400  0.7090  123.3   1.100    8.1  0.1432  -25.4  0.2363 -169.8
 5.500  0.7119  121.6   1.078    6.3  0.1418  -25.9  0.2380 -172.2
 5.600  0.7140  120.0   1.058    4.9  0.1407  -26.1  0.2393 -174.7
 5.700  0.7166  118.4   1.038    3.4  0.1396  -26.4  0.2411 -177.1
 5.800  0.7198  116.8   1.019    1.9  0.1386  -26.6  0.2433 -179.5
 5.900  0.7235  115.2   1.000    0.3  0.1375  -26.9  0.2459  178.2
 6.000  0.7278  113.7   0.983   -1.4  0.1364  -27.1  0.2489  175.9
 6.100  0.7308  112.3   0.966   -2.9  0.1359  -27.2  0.2511  173.7
 6.200  0.7342  110.8   0.950   -4.4  0.1354  -27.4  0.2536  171.5
 6.300  0.7381  109.4   0.935   -6.0  0.1348  -27.5  0.2565  169.3
 6.400  0.7424  108.0   0.920   -7.6  0.1343  -27.7  0.2598  167.2
 6.500  0.7472  106.6   0.906   -9.3  0.1338  -27.8  0.2634  165.2
 6.600  0.7494  105.2   0.892  -10.8  0.1338  -27.9  0.2658  163.1
 6.800  0.7549  102.5   0.864  -13.8  0.1337  -28.2  0.2718  158.9
 7.000  0.7621   99.9   0.840  -17.1  0.1336  -28.4  0.2791  155.0
 7.200  0.7649   97.1   0.815  -20.0  0.1341  -28.9  0.2869  150.7
 7.400  0.7695   94.3   0.792  -23.1  0.1346  -29.4  0.2962  146.6
 7.600  0.7728   91.4   0.767  -26.2  0.1349  -30.1  0.3056  142.4
 7.800  0.7751   88.3   0.740  -29.2  0.1351  -31.0  0.3155  138.1
 8.000  0.7796   85.2   0.716  -32.5  0.1352  -31.8  0.3271  134.0
 8.200  0.7806   82.0   0.688  -35.1  0.1343  -32.5  0.3367  129.3
 8.400  0.7839   78.9   0.662  -38.0  0.1335  -33.2  0.3485  124.8
 8.600  0.7909   75.9   0.637  -40.6  0.1328  -33.7  0.3633  120.5
 8.800  0.8011   73.2   0.614  -43.0  0.1323  -33.8  0.3813  116.3
 9.000  0.8130   70.5   0.592  -45.5  0.1317  -34.0  0.4011  112.6
 9.200  0.8312   68.3   0.573  -47.6  0.1321  -34.1  0.4264  109.5
 9.400  0.8505   66.3   0.556  -49.8  0.1326  -34.2  0.4527  106.8
 9.600  0.8676   64.5   0.536  -51.9  0.1334  -34.3  0.4793  104.4
 9.800  0.8821   63.0   0.513  -54.0  0.1347  -34.6  0.5059  102.3
10.000  0.8971   61.6   0.492  -56.3  0.1359  -34.9  0.5332  100.4
!
!  f       NFmin   Gammaopt  rn/50
! GHz       dB    MAG  ANG    -
 0.900      0.52  0.55   33   0.27
 1.800      1.07  0.35   77   0.21
 2.400      1.18  0.36  101   0.18
 3.000      1.41  0.36  134   0.13
 4.000      1.68  0.40 -172   0.10
 5.000      2.08  0.44 -130   0.32
 6.000      2.89  0.57 -114   0.39
!
! (c) 2016  Infineon Technologies AG, Munich
