! Infineon Technologies  Discrete & RF Semiconductors
! BFP420F
!
! VCE =  3.0 V,  IC =  1.0 mA
! Common Emitter S-Parameters:                            Sep 2011
# GHz  S  MA  R  50
!  f         S11            S21            S12            S22
! GHz     MAG   ANG      MAG   ANG      MAG   ANG      MAG   ANG
 0.030  0.9601   -1.6   3.969  178.3  0.0028   88.9  0.9977   -1.0
 0.040  0.9570   -2.3   3.975  177.8  0.0037   88.6  0.9969   -1.2
 0.050  0.9535   -2.9   3.940  176.9  0.0044   85.7  0.9977   -1.6
 0.060  0.9578   -4.0   3.963  177.0  0.0054   87.1  0.9977   -1.9
 0.070  0.9596   -4.5   3.982  176.7  0.0063   88.0  0.9974   -2.2
 0.080  0.9532   -4.9   3.952  176.0  0.0074   86.5  0.9973   -2.5
 0.090  0.9533   -5.6   3.969  175.6  0.0082   87.8  0.9969   -2.8
 0.100  0.9534   -6.2   3.989  174.9  0.0092   87.2  0.9960   -3.1
 0.110  0.9576   -6.7   3.940  174.7  0.0101   86.1  0.9959   -3.5
 0.120  0.9532   -7.2   3.984  173.9  0.0110   86.2  0.9954   -3.7
 0.130  0.9528   -7.9   3.955  173.4  0.0120   86.0  0.9953   -4.1
 0.140  0.9554   -8.5   3.952  172.9  0.0130   85.4  0.9946   -4.4
 0.150  0.9523   -9.3   3.953  172.4  0.0139   85.3  0.9943   -4.7
 0.200  0.9527  -12.2   3.940  170.4  0.0185   83.7  0.9917   -6.3
 0.250  0.9513  -15.3   3.920  167.7  0.0228   81.8  0.9872   -7.9
 0.300  0.9457  -18.3   3.927  165.4  0.0277   80.2  0.9839   -9.4
 0.350  0.9440  -21.3   3.899  163.1  0.0321   78.7  0.9790  -11.0
 0.400  0.9391  -24.3   3.870  160.6  0.0366   76.8  0.9734  -12.5
 0.450  0.9359  -27.2   3.842  158.4  0.0411   75.2  0.9674  -13.9
 0.500  0.9315  -30.2   3.803  156.1  0.0454   73.5  0.9603  -15.4
 0.600  0.9185  -36.1   3.735  151.3  0.0538   69.9  0.9440  -18.4
 0.700  0.9084  -42.0   3.679  147.0  0.0620   66.8  0.9279  -21.2
 0.800  0.8949  -47.7   3.590  142.4  0.0695   63.5  0.9087  -24.0
 0.900  0.8798  -53.1   3.494  138.3  0.0765   60.3  0.8882  -26.5
 1.000  0.8665  -58.7   3.418  134.3  0.0832   57.3  0.8672  -29.1
 1.100  0.8512  -64.0   3.329  130.1  0.0893   54.1  0.8452  -31.6
 1.200  0.8347  -69.2   3.213  126.2  0.0947   51.3  0.8237  -33.9
 1.300  0.8206  -74.1   3.121  122.8  0.0995   48.6  0.8026  -36.1
 1.400  0.8073  -79.1   3.037  119.3  0.1041   46.0  0.7810  -38.2
 1.500  0.7900  -84.0   2.935  115.3  0.1079   43.4  0.7598  -40.2
 1.600  0.7756  -88.6   2.827  112.3  0.1114   41.0  0.7394  -42.1
 1.700  0.7624  -92.8   2.743  109.3  0.1144   38.8  0.7194  -44.0
 1.800  0.7517  -97.0   2.665  106.4  0.1171   36.8  0.7011  -45.8
 1.900  0.7390 -101.4   2.575  102.9  0.1194   34.8  0.6839  -47.5
 2.000  0.7263 -105.4   2.474  100.3  0.1212   32.8  0.6669  -49.2
 2.200  0.7106 -112.6   2.337   95.3  0.1243   29.4  0.6373  -52.3
 2.400  0.6920 -119.6   2.179   90.2  0.1264   26.2  0.6119  -55.2
 2.600  0.6788 -126.0   2.055   85.8  0.1274   23.7  0.5886  -57.9
 2.800  0.6683 -132.0   1.938   81.5  0.1281   21.3  0.5699  -60.5
 3.000  0.6586 -137.8   1.833   77.6  0.1281   19.2  0.5527  -62.8
 3.500  0.6440 -150.9   1.614   68.6  0.1265   15.3  0.5203  -68.2
 4.000  0.6354 -162.7   1.444   60.3  0.1236   12.7  0.4967  -73.1
 4.500  0.6348 -173.2   1.308   52.8  0.1201   11.5  0.4784  -77.5
 5.000  0.6340  177.5   1.194   46.0  0.1163   11.8  0.4620  -81.9
 5.500  0.6319  168.3   1.103   39.3  0.1135   13.1  0.4446  -86.4
 6.000  0.6294  159.4   1.023   33.2  0.1123   15.7  0.4242  -91.1
 6.500  0.6343  150.4   0.954   27.4  0.1130   19.0  0.4016  -96.6
 7.000  0.6408  141.5   0.893   21.7  0.1166   22.8  0.3773 -102.0
 7.500  0.6562  133.5   0.840   16.6  0.1250   26.7  0.3528 -108.9
 8.000  0.6707  126.4   0.793   11.4  0.1371   28.8  0.3250 -118.1
 8.500  0.6855  120.0   0.747    6.3  0.1506   29.3  0.2903 -130.9
 9.000  0.6993  114.9   0.704    1.9  0.1649   28.9  0.2611 -148.4
 9.500  0.7153  110.6   0.666   -2.1  0.1796   27.8  0.2588 -170.5
10.000  0.7366  106.3   0.628   -5.9  0.1946   25.9  0.2953  167.5
!
!  f       NFmin   Gammaopt  rn/50
! GHz       dB    MAG  ANG    -
 0.450      0.80  0.67   17   0.46
 0.900      0.92  0.64   37   0.43
 1.900      1.38  0.51   82   0.32
 2.400      1.57  0.51   97   0.30
 3.500      2.11  0.52  131   0.19
!
! (c) 2011  Infineon Technologies AG, Munich
