! Infineon Technologies  Discrete & RF Semiconductors
! BFP410
! VCE =  4.0 V,  IC =  0.5 mA
! Common Emitter S-Parameters:                            Nov 2015
# GHz  S  MA  R  50
!  f         S11            S21            S12            S22
! GHz     MAG   ANG      MAG   ANG      MAG   ANG      MAG   ANG
 0.010  0.9866    1.5   2.008  179.6  0.0003   37.7  1.0000    0.9
 0.015  0.9837    0.7   2.009  179.5  0.0008   79.0  0.9966    0.7
 0.020  0.9810   -0.2   2.011  179.5  0.0014   87.1  0.9933    0.5
 0.025  0.9801   -0.4   2.011  179.2  0.0017   85.6  0.9944    0.3
 0.030  0.9791   -0.7   2.010  179.0  0.0020   84.6  0.9955    0.2
 0.035  0.9782   -0.9   2.010  178.7  0.0023   83.8  0.9966    0.0
 0.040  0.9773   -1.2   2.010  178.4  0.0026   83.2  0.9977   -0.1
 0.045  0.9765   -1.4   2.010  178.2  0.0029   82.8  0.9989   -0.3
 0.050  0.9756   -1.7   2.010  177.9  0.0032   82.4  1.0000   -0.4
 0.055  0.9758   -1.9   2.011  177.8  0.0035   83.3  1.0000   -0.5
 0.060  0.9761   -2.1   2.012  177.7  0.0038   84.0  1.0000   -0.7
 0.065  0.9764   -2.3   2.013  177.6  0.0041   84.7  0.9999   -0.8
 0.070  0.9767   -2.5   2.014  177.5  0.0044   85.3  0.9999   -0.9
 0.075  0.9770   -2.7   2.015  177.3  0.0046   85.7  0.9999   -1.0
 0.080  0.9773   -2.9   2.017  177.2  0.0049   86.2  0.9999   -1.2
 0.085  0.9776   -3.1   2.018  177.1  0.0052   86.6  0.9999   -1.3
 0.090  0.9779   -3.3   2.019  177.0  0.0055   86.9  1.0000   -1.4
 0.095  0.9782   -3.5   2.020  176.9  0.0058   87.2  1.0000   -1.6
 0.100  0.9786   -3.7   2.021  176.8  0.0061   87.5  1.0000   -1.7
 0.105  0.9784   -3.9   2.021  176.6  0.0064   87.3  1.0000   -1.8
 0.110  0.9782   -4.1   2.021  176.5  0.0067   87.2  1.0000   -1.9
 0.115  0.9780   -4.2   2.022  176.3  0.0069   87.0  1.0000   -2.0
 0.120  0.9779   -4.4   2.022  176.1  0.0072   86.9  1.0000   -2.1
 0.125  0.9777   -4.6   2.022  175.9  0.0075   86.7  1.0000   -2.1
 0.130  0.9776   -4.8   2.023  175.8  0.0078   86.6  1.0000   -2.2
 0.135  0.9774   -5.0   2.023  175.6  0.0081   86.5  1.0000   -2.3
 0.140  0.9773   -5.1   2.023  175.4  0.0083   86.4  1.0000   -2.4
 0.145  0.9772   -5.3   2.024  175.3  0.0086   86.3  1.0000   -2.5
 0.150  0.9771   -5.5   2.024  175.1  0.0089   86.2  1.0000   -2.6
 0.155  0.9771   -5.7   2.024  174.9  0.0092   86.1  0.9999   -2.7
 0.160  0.9771   -5.9   2.024  174.8  0.0095   85.9  0.9997   -2.8
 0.165  0.9771   -6.1   2.024  174.6  0.0099   85.8  0.9996   -2.9
 0.170  0.9771   -6.3   2.025  174.5  0.0102   85.7  0.9994   -3.0
 0.175  0.9771   -6.5   2.025  174.3  0.0105   85.6  0.9993   -3.1
 0.180  0.9772   -6.6   2.025  174.1  0.0108   85.5  0.9992   -3.2
 0.185  0.9772   -6.8   2.025  174.0  0.0111   85.4  0.9991   -3.3
 0.190  0.9773   -7.0   2.025  173.8  0.0115   85.3  0.9989   -3.4
 0.195  0.9773   -7.2   2.026  173.7  0.0118   85.2  0.9988   -3.5
 0.200  0.9774   -7.4   2.026  173.5  0.0121   85.1  0.9987   -3.6
 0.220  0.9765   -8.2   2.024  172.7  0.0133   84.8  0.9984   -4.0
 0.240  0.9758   -8.9   2.022  172.0  0.0145   84.6  0.9982   -4.4
 0.260  0.9750   -9.7   2.022  171.3  0.0157   84.3  0.9976   -4.8
 0.280  0.9742  -10.4   2.024  170.6  0.0169   83.9  0.9966   -5.1
 0.300  0.9736  -11.2   2.027  170.0  0.0181   83.6  0.9956   -5.4
 0.320  0.9734  -12.0   2.027  169.4  0.0193   83.1  0.9950   -5.8
 0.340  0.9733  -12.8   2.028  168.7  0.0205   82.6  0.9945   -6.2
 0.360  0.9729  -13.6   2.027  168.1  0.0217   82.2  0.9938   -6.6
 0.380  0.9720  -14.3   2.025  167.4  0.0229   81.7  0.9931   -6.9
 0.400  0.9713  -15.0   2.024  166.7  0.0241   81.3  0.9924   -7.2
 0.420  0.9705  -15.8   2.024  166.0  0.0253   80.9  0.9916   -7.6
 0.440  0.9698  -16.6   2.024  165.3  0.0266   80.5  0.9909   -8.0
 0.450  0.9696  -17.0   2.024  165.0  0.0272   80.3  0.9906   -8.2
 0.460  0.9693  -17.4   2.024  164.6  0.0278   80.0  0.9900   -8.4
 0.480  0.9687  -18.2   2.024  163.9  0.0291   79.5  0.9890   -8.7
 0.500  0.9684  -19.0   2.024  163.2  0.0303   79.1  0.9879   -9.1
 0.520  0.9672  -19.7   2.021  162.5  0.0315   78.6  0.9869   -9.5
 0.540  0.9662  -20.5   2.019  161.8  0.0327   78.1  0.9860   -9.8
 0.560  0.9653  -21.2   2.016  161.1  0.0339   77.7  0.9851  -10.2
 0.580  0.9646  -22.0   2.015  160.4  0.0351   77.3  0.9842  -10.5
 0.600  0.9640  -22.7   2.013  159.7  0.0363   76.9  0.9834  -10.9
 0.620  0.9628  -23.5   2.012  159.1  0.0375   76.4  0.9820  -11.3
 0.640  0.9618  -24.3   2.012  158.4  0.0388   75.9  0.9807  -11.7
 0.660  0.9610  -25.1   2.012  157.8  0.0400   75.4  0.9794  -12.0
 0.680  0.9603  -25.9   2.012  157.1  0.0413   75.0  0.9781  -12.4
 0.700  0.9599  -26.7   2.012  156.5  0.0425   74.6  0.9769  -12.8
 0.720  0.9584  -27.5   2.008  155.8  0.0437   74.1  0.9756  -13.1
 0.740  0.9571  -28.3   2.005  155.1  0.0449   73.6  0.9743  -13.5
 0.760  0.9560  -29.0   2.002  154.5  0.0461   73.1  0.9730  -13.8
 0.780  0.9551  -29.8   1.999  153.8  0.0473   72.7  0.9718  -14.2
 0.800  0.9543  -30.6   1.996  153.1  0.0485   72.3  0.9706  -14.5
 0.820  0.9528  -31.4   1.994  152.4  0.0497   71.8  0.9690  -14.9
 0.840  0.9515  -32.2   1.993  151.7  0.0509   71.3  0.9674  -15.2
 0.860  0.9503  -33.0   1.992  151.1  0.0521   70.8  0.9659  -15.6
 0.880  0.9494  -33.8   1.991  150.4  0.0533   70.3  0.9644  -15.9
 0.900  0.9486  -34.6   1.991  149.7  0.0545   69.9  0.9629  -16.3
 0.920  0.9469  -35.4   1.987  149.1  0.0557   69.4  0.9611  -16.6
 0.940  0.9454  -36.2   1.984  148.4  0.0569   68.9  0.9594  -17.0
 0.960  0.9440  -36.9   1.981  147.8  0.0581   68.4  0.9576  -17.3
 0.980  0.9428  -37.7   1.978  147.1  0.0593   67.9  0.9560  -17.7
 1.000  0.9418  -38.5   1.975  146.5  0.0605   67.5  0.9543  -18.0
 1.020  0.9400  -39.3   1.972  145.8  0.0617   67.0  0.9526  -18.3
 1.040  0.9384  -40.1   1.969  145.2  0.0628   66.5  0.9508  -18.7
 1.060  0.9370  -40.9   1.966  144.5  0.0640   66.0  0.9492  -19.0
 1.080  0.9358  -41.7   1.963  143.9  0.0652   65.5  0.9475  -19.4
 1.100  0.9347  -42.5   1.961  143.2  0.0664   65.1  0.9459  -19.7
 1.120  0.9330  -43.3   1.957  142.5  0.0676   64.6  0.9441  -20.0
 1.140  0.9314  -44.1   1.954  141.8  0.0687   64.1  0.9422  -20.4
 1.160  0.9301  -44.9   1.951  141.2  0.0699   63.6  0.9405  -20.7
 1.180  0.9289  -45.7   1.948  140.5  0.0711   63.1  0.9387  -21.1
 1.200  0.9279  -46.5   1.946  139.8  0.0723   62.7  0.9370  -21.4
 1.220  0.9260  -47.3   1.942  139.2  0.0734   62.1  0.9352  -21.7
 1.240  0.9242  -48.1   1.939  138.5  0.0745   61.6  0.9334  -22.0
 1.260  0.9227  -48.9   1.936  137.9  0.0756   61.1  0.9316  -22.4
 1.280  0.9213  -49.7   1.933  137.2  0.0768   60.6  0.9298  -22.7
 1.300  0.9201  -50.5   1.930  136.6  0.0779   60.1  0.9281  -23.0
 1.320  0.9181  -51.3   1.926  135.9  0.0790   59.6  0.9262  -23.3
 1.340  0.9162  -52.1   1.922  135.2  0.0800   59.1  0.9242  -23.7
 1.360  0.9146  -52.9   1.918  134.6  0.0811   58.6  0.9224  -24.0
 1.380  0.9131  -53.7   1.914  133.9  0.0822   58.1  0.9205  -24.4
 1.400  0.9118  -54.5   1.911  133.2  0.0833   57.6  0.9187  -24.7
 1.420  0.9099  -55.2   1.907  132.6  0.0844   57.1  0.9167  -25.0
 1.440  0.9081  -56.0   1.902  132.0  0.0854   56.6  0.9147  -25.3
 1.460  0.9064  -56.7   1.898  131.5  0.0865   56.2  0.9127  -25.6
 1.480  0.9049  -57.5   1.895  130.9  0.0876   55.7  0.9108  -25.9
 1.500  0.9036  -58.2   1.891  130.3  0.0887   55.3  0.9089  -26.2
 1.520  0.9016  -59.0   1.887  129.6  0.0897   54.7  0.9067  -26.5
 1.540  0.8997  -59.9   1.884  128.9  0.0907   54.2  0.9045  -26.8
 1.560  0.8980  -60.7   1.881  128.3  0.0917   53.6  0.9023  -27.2
 1.580  0.8966  -61.6   1.878  127.6  0.0928   53.1  0.9002  -27.5
 1.600  0.8953  -62.4   1.876  126.9  0.0938   52.6  0.8981  -27.8
 1.620  0.8931  -63.2   1.872  126.3  0.0948   52.1  0.8962  -28.1
 1.640  0.8910  -63.9   1.868  125.7  0.0957   51.7  0.8943  -28.4
 1.660  0.8891  -64.7   1.865  125.1  0.0967   51.2  0.8924  -28.7
 1.680  0.8874  -65.5   1.861  124.5  0.0977   50.7  0.8906  -29.0
 1.700  0.8858  -66.3   1.858  123.9  0.0987   50.3  0.8888  -29.3
 1.720  0.8840  -67.1   1.853  123.3  0.0996   49.8  0.8867  -29.6
 1.740  0.8824  -67.9   1.847  122.7  0.1006   49.3  0.8847  -29.9
 1.760  0.8810  -68.7   1.842  122.1  0.1015   48.8  0.8827  -30.2
 1.780  0.8797  -69.5   1.838  121.4  0.1024   48.4  0.8807  -30.5
 1.800  0.8786  -70.3   1.833  120.8  0.1034   47.9  0.8787  -30.8
 1.820  0.8763  -71.1   1.830  120.2  0.1043   47.4  0.8765  -31.1
 1.840  0.8741  -71.9   1.828  119.6  0.1053   47.0  0.8743  -31.4
 1.860  0.8722  -72.7   1.825  119.0  0.1063   46.5  0.8722  -31.7
 1.880  0.8704  -73.6   1.823  118.4  0.1072   46.0  0.8701  -32.0
 1.900  0.8688  -74.4   1.821  117.8  0.1082   45.6  0.8680  -32.3
 1.920  0.8667  -75.2   1.816  117.2  0.1090   45.1  0.8658  -32.6
 1.940  0.8648  -76.0   1.810  116.6  0.1099   44.6  0.8637  -32.9
 1.960  0.8630  -76.7   1.805  116.1  0.1107   44.1  0.8616  -33.1
 1.980  0.8614  -77.5   1.801  115.5  0.1115   43.7  0.8595  -33.4
 2.000  0.8600  -78.3   1.796  114.9  0.1124   43.2  0.8574  -33.7
 2.020  0.8572  -79.1   1.792  114.3  0.1132   42.7  0.8550  -34.0
 2.040  0.8546  -79.9   1.788  113.7  0.1140   42.2  0.8527  -34.3
 2.060  0.8521  -80.7   1.784  113.1  0.1148   41.7  0.8504  -34.6
 2.080  0.8498  -81.5   1.780  112.5  0.1157   41.2  0.8481  -34.8
 2.100  0.8477  -82.3   1.777  111.9  0.1165   40.7  0.8458  -35.1
 2.120  0.8457  -83.1   1.774  111.3  0.1173   40.2  0.8435  -35.4
 2.140  0.8439  -83.9   1.771  110.7  0.1182   39.8  0.8413  -35.7
 2.160  0.8423  -84.8   1.768  110.0  0.1191   39.3  0.8391  -36.0
 2.180  0.8409  -85.6   1.765  109.4  0.1199   38.8  0.8369  -36.3
 2.200  0.8396  -86.4   1.763  108.8  0.1208   38.4  0.8347  -36.6
 2.220  0.8366  -87.2   1.759  108.2  0.1215   37.9  0.8323  -36.9
 2.240  0.8338  -88.0   1.754  107.6  0.1223   37.4  0.8299  -37.1
 2.260  0.8312  -88.9   1.750  107.1  0.1230   36.9  0.8275  -37.4
 2.280  0.8287  -89.7   1.746  106.5  0.1238   36.4  0.8252  -37.7
 2.300  0.8265  -90.5   1.743  105.9  0.1245   35.9  0.8229  -38.0
 2.320  0.8244  -91.4   1.739  105.3  0.1253   35.4  0.8205  -38.3
 2.340  0.8225  -92.2   1.736  104.7  0.1261   35.0  0.8183  -38.5
 2.360  0.8207  -93.1   1.733  104.1  0.1269   34.5  0.8160  -38.8
 2.380  0.8192  -93.9   1.730  103.5  0.1277   34.1  0.8137  -39.1
 2.400  0.8178  -94.8   1.727  102.9  0.1285   33.6  0.8115  -39.4
 2.420  0.8149  -95.6   1.722  102.3  0.1291   33.1  0.8089  -39.7
 2.440  0.8121  -96.5   1.717  101.7  0.1297   32.6  0.8064  -39.9
 2.460  0.8095  -97.3   1.713  101.2  0.1303   32.0  0.8039  -40.2
 2.480  0.8071  -98.2   1.708  100.6  0.1309   31.5  0.8014  -40.5
 2.500  0.8049  -99.0   1.704  100.0  0.1316   31.0  0.7989  -40.8
 2.520  0.8029  -99.9   1.700   99.4  0.1322   30.5  0.7964  -41.1
 2.540  0.8010 -100.8   1.696   98.8  0.1329   30.0  0.7939  -41.3
 2.560  0.7994 -101.6   1.692   98.2  0.1335   29.6  0.7915  -41.6
 2.580  0.7979 -102.5   1.688   97.6  0.1342   29.1  0.7891  -41.9
 2.600  0.7966 -103.4   1.685   97.0  0.1349   28.6  0.7867  -42.2
 2.620  0.7936 -104.2   1.680   96.4  0.1354   28.1  0.7842  -42.5
 2.640  0.7908 -105.1   1.675   95.9  0.1358   27.7  0.7818  -42.7
 2.660  0.7881 -105.9   1.670   95.3  0.1363   27.2  0.7794  -43.0
 2.680  0.7856 -106.8   1.665   94.7  0.1368   26.7  0.7770  -43.3
 2.700  0.7833 -107.6   1.661   94.1  0.1373   26.3  0.7746  -43.5
 2.720  0.7812 -108.5   1.657   93.6  0.1379   25.8  0.7722  -43.8
 2.740  0.7792 -109.4   1.652   93.0  0.1384   25.3  0.7699  -44.1
 2.760  0.7774 -110.2   1.648   92.4  0.1389   24.9  0.7675  -44.3
 2.780  0.7758 -111.1   1.645   91.8  0.1395   24.4  0.7652  -44.6
 2.800  0.7744 -112.0   1.641   91.2  0.1400   24.0  0.7629  -44.9
 2.820  0.7721 -112.8   1.636   90.7  0.1404   23.5  0.7605  -45.2
 2.840  0.7699 -113.6   1.632   90.1  0.1407   23.0  0.7581  -45.4
 2.860  0.7679 -114.5   1.627   89.6  0.1411   22.6  0.7558  -45.7
 2.880  0.7660 -115.3   1.623   89.0  0.1415   22.1  0.7534  -45.9
 2.900  0.7643 -116.2   1.619   88.4  0.1419   21.6  0.7511  -46.2
 2.920  0.7628 -117.0   1.615   87.9  0.1423   21.1  0.7488  -46.4
 2.940  0.7615 -117.8   1.611   87.3  0.1428   20.7  0.7465  -46.7
 2.960  0.7603 -118.7   1.607   86.7  0.1432   20.2  0.7442  -47.0
 2.980  0.7593 -119.5   1.603   86.2  0.1436   19.8  0.7419  -47.2
 3.000  0.7584 -120.4   1.600   85.6  0.1441   19.3  0.7397  -47.5
 3.100  0.7435 -124.5   1.571   83.0  0.1448   17.1  0.7284  -48.7
 3.200  0.7325 -128.7   1.546   80.4  0.1456   15.0  0.7174  -49.9
 3.300  0.7255 -133.0   1.524   77.6  0.1467   12.8  0.7067  -51.1
 3.400  0.7226 -137.3   1.506   74.8  0.1479   10.8  0.6964  -52.4
 3.500  0.7240 -141.7   1.491   71.9  0.1494    8.7  0.6864  -53.7
 3.600  0.7133 -145.7   1.464   69.5  0.1493    6.9  0.6765  -54.9
 3.700  0.7063 -149.9   1.439   66.9  0.1493    5.0  0.6669  -56.0
 3.800  0.7030 -154.1   1.418   64.3  0.1495    3.2  0.6575  -57.3
 3.900  0.7036 -158.3   1.399   61.6  0.1499    1.3  0.6485  -58.5
 4.000  0.7079 -162.5   1.384   58.9  0.1504   -0.5  0.6398  -59.8
 4.100  0.7004 -166.2   1.356   56.5  0.1495   -2.2  0.6308  -61.1
 4.200  0.6960 -170.0   1.330   54.1  0.1488   -4.0  0.6221  -62.5
 4.300  0.6947 -173.9   1.307   51.5  0.1482   -5.8  0.6139  -63.9
 4.400  0.6965 -177.7   1.287   48.9  0.1478   -7.6  0.6060  -65.4
 4.500  0.7014  178.5   1.269   46.2  0.1475   -9.4  0.5985  -66.9
 4.600  0.6966  175.5   1.242   44.1  0.1458  -10.8  0.5912  -68.2
 4.700  0.6937  172.5   1.216   42.0  0.1442  -12.3  0.5842  -69.6
 4.800  0.6927  169.5   1.192   39.7  0.1426  -13.8  0.5775  -71.0
 4.900  0.6937  166.4   1.170   37.4  0.1412  -15.3  0.5712  -72.4
 5.000  0.6966  163.4   1.150   35.0  0.1399  -16.9  0.5653  -73.9
 5.100  0.6932  160.8   1.127   33.2  0.1377  -18.0  0.5585  -75.1
 5.200  0.6913  158.2   1.105   31.2  0.1355  -19.2  0.5520  -76.3
 5.300  0.6909  155.5   1.084   29.2  0.1334  -20.4  0.5456  -77.5
 5.400  0.6919  152.9   1.065   27.1  0.1313  -21.7  0.5396  -78.7
 5.500  0.6943  150.3   1.047   25.0  0.1293  -23.0  0.5338  -80.0
 5.600  0.6932  147.9   1.029   23.3  0.1270  -23.7  0.5273  -81.2
 5.700  0.6933  145.6   1.012   21.5  0.1247  -24.4  0.5211  -82.5
 5.800  0.6947  143.2   0.995   19.7  0.1224  -25.2  0.5151  -83.8
 5.900  0.6971  140.8   0.980   17.8  0.1201  -26.0  0.5094  -85.1
 6.000  0.7008  138.5   0.966   15.9  0.1179  -26.8  0.5039  -86.4
 6.100  0.7021  136.3   0.951   14.2  0.1160  -27.2  0.4989  -87.8
 6.200  0.7044  134.2   0.937   12.5  0.1141  -27.5  0.4943  -89.3
 6.300  0.7077  132.1   0.923   10.7  0.1122  -27.9  0.4899  -90.8
 6.400  0.7120  130.0   0.911    8.9  0.1104  -28.3  0.4860  -92.3
 6.500  0.7172  127.9   0.899    7.0  0.1085  -28.7  0.4823  -93.8
 6.600  0.7190  126.1   0.885    5.4  0.1070  -28.7  0.4782  -95.2
 6.800  0.7249  122.4   0.859    1.9  0.1039  -28.7  0.4708  -98.1
 7.000  0.7336  118.8   0.837   -1.7  0.1009  -28.7  0.4647 -101.0
 7.200  0.7362  115.1   0.813   -4.8  0.0991  -28.3  0.4545 -104.1
 7.400  0.7419  111.4   0.792   -8.1  0.0972  -27.8  0.4456 -107.3
 7.600  0.7455  107.6   0.770  -11.4  0.0957  -27.4  0.4353 -110.9
 7.800  0.7474  103.6   0.747  -14.9  0.0945  -27.1  0.4242 -115.0
 8.000  0.7529   99.6   0.727  -18.5  0.0933  -26.7  0.4153 -119.3
 8.200  0.7517   95.5   0.701  -21.4  0.0921  -26.0  0.4004 -123.8
 8.400  0.7542   91.5   0.677  -24.5  0.0910  -25.3  0.3882 -128.6
 8.600  0.7610   87.9   0.656  -27.4  0.0903  -24.3  0.3745 -133.7
 8.800  0.7712   84.6   0.636  -30.1  0.0900  -23.0  0.3595 -139.4
 9.000  0.7837   81.5   0.618  -33.0  0.0898  -21.8  0.3483 -145.4
 9.200  0.8036   79.0   0.600  -35.6  0.0908  -20.4  0.3379 -152.7
 9.400  0.8249   76.7   0.583  -38.3  0.0919  -19.0  0.3333 -160.3
 9.600  0.8445   74.5   0.564  -41.0  0.0937  -17.8  0.3359 -168.3
 9.800  0.8623   72.3   0.542  -43.9  0.0963  -16.9  0.3460 -176.1
10.000  0.8813   70.2   0.521  -47.0  0.0990  -16.0  0.3622  176.6
10.200  0.8843   68.6   0.498  -48.9  0.1029  -15.8  0.3808  170.1
10.400  0.8880   67.1   0.476  -51.1  0.1068  -15.7  0.4038  164.3
10.600  0.8843   66.2   0.457  -52.8  0.1105  -16.2  0.4258  158.8
10.800  0.8726   66.1   0.441  -54.1  0.1141  -17.4  0.4467  153.5
11.000  0.8609   65.9   0.425  -55.4  0.1177  -18.5  0.4711  148.7
11.200  0.8510   66.0   0.420  -55.9  0.1187  -19.7  0.4812  145.7
11.400  0.8411   66.1   0.415  -56.4  0.1197  -20.9  0.4926  142.8
11.600  0.8446   65.5   0.412  -58.2  0.1212  -21.9  0.5045  141.0
11.800  0.8619   64.3   0.412  -61.3  0.1231  -22.5  0.5161  140.4
12.000  0.8795   63.2   0.413  -64.3  0.1250  -23.2  0.5277  139.7
!
!  f       NFmin   Gammaopt  rn/50
! GHz       dB    MAG  ANG    -
 0.450      0.91  0.80   10   0.81
 0.900      0.85  0.78   25   0.75
 1.800      1.38  0.67   59   0.64
 2.400      1.54  0.64   75   0.53
 5.500      3.38  0.54 -159   0.23
!
! (c) 2015  Infineon Technologies AG, Munich
