! Infineon Technologies  Discrete & RF Semiconductors
! BFP410
! VCE =  2.0 V,  IC =  2.0 mA
! Common Emitter S-Parameters:                            Nov 2015
# GHz  S  MA  R  50
!  f         S11            S21            S12            S22
! GHz     MAG   ANG      MAG   ANG      MAG   ANG      MAG   ANG
 0.010  0.9168    0.4   6.943  179.5  0.0005  148.6  0.9991    0.7
 0.015  0.9163   -0.2   6.957  179.3  0.0008  102.4  0.9961    0.3
 0.020  0.9159   -0.9   6.971  179.1  0.0014   87.5  0.9931   -0.1
 0.025  0.9153   -1.2   6.965  178.8  0.0017   87.7  0.9937   -0.3
 0.030  0.9147   -1.5   6.960  178.4  0.0021   87.9  0.9943   -0.5
 0.035  0.9141   -1.8   6.954  178.1  0.0024   88.0  0.9949   -0.7
 0.040  0.9136   -2.1   6.949  177.7  0.0028   88.1  0.9955   -0.8
 0.045  0.9131   -2.4   6.945  177.4  0.0031   88.1  0.9961   -1.0
 0.050  0.9126   -2.7   6.940  177.0  0.0035   88.2  0.9967   -1.2
 0.055  0.9124   -3.0   6.943  176.8  0.0038   88.0  0.9966   -1.4
 0.060  0.9123   -3.3   6.947  176.6  0.0042   87.7  0.9965   -1.6
 0.065  0.9122   -3.7   6.951  176.5  0.0045   87.6  0.9964   -1.7
 0.070  0.9121   -4.0   6.954  176.3  0.0048   87.4  0.9963   -1.9
 0.075  0.9121   -4.3   6.958  176.1  0.0051   87.3  0.9962   -2.1
 0.080  0.9121   -4.6   6.962  175.9  0.0055   87.2  0.9961   -2.3
 0.085  0.9121   -4.9   6.966  175.7  0.0058   87.1  0.9960   -2.5
 0.090  0.9121   -5.3   6.970  175.6  0.0061   87.0  0.9960   -2.6
 0.095  0.9122   -5.6   6.974  175.4  0.0065   86.9  0.9959   -2.8
 0.100  0.9123   -5.9   6.978  175.2  0.0068   86.8  0.9959   -3.0
 0.105  0.9122   -6.2   6.977  174.9  0.0071   86.6  0.9957   -3.2
 0.110  0.9121   -6.5   6.976  174.7  0.0074   86.3  0.9956   -3.3
 0.115  0.9121   -6.7   6.975  174.4  0.0078   86.1  0.9955   -3.5
 0.120  0.9120   -7.0   6.974  174.2  0.0081   86.0  0.9953   -3.6
 0.125  0.9120   -7.3   6.973  173.9  0.0084   85.8  0.9952   -3.8
 0.130  0.9120   -7.6   6.973  173.6  0.0087   85.6  0.9951   -4.0
 0.135  0.9121   -7.9   6.972  173.4  0.0090   85.5  0.9950   -4.1
 0.140  0.9121   -8.1   6.972  173.1  0.0094   85.3  0.9949   -4.3
 0.145  0.9122   -8.4   6.972  172.9  0.0097   85.2  0.9948   -4.4
 0.150  0.9123   -8.7   6.972  172.6  0.0100   85.1  0.9947   -4.6
 0.155  0.9119   -9.0   6.971  172.4  0.0103   84.9  0.9944   -4.8
 0.160  0.9116   -9.3   6.969  172.1  0.0107   84.7  0.9940   -4.9
 0.165  0.9113   -9.6   6.968  171.9  0.0110   84.6  0.9937   -5.1
 0.170  0.9110   -9.9   6.967  171.7  0.0114   84.4  0.9934   -5.2
 0.175  0.9107  -10.2   6.966  171.5  0.0117   84.3  0.9931   -5.4
 0.180  0.9105  -10.5   6.965  171.2  0.0120   84.2  0.9927   -5.6
 0.185  0.9103  -10.8   6.965  171.0  0.0124   84.0  0.9924   -5.7
 0.190  0.9101  -11.1   6.964  170.8  0.0127   83.9  0.9922   -5.9
 0.195  0.9099  -11.4   6.963  170.5  0.0131   83.8  0.9919   -6.0
 0.200  0.9098  -11.7   6.963  170.3  0.0134   83.7  0.9916   -6.2
 0.220  0.9083  -12.8   6.946  169.3  0.0147   83.0  0.9905   -6.8
 0.240  0.9071  -13.9   6.932  168.2  0.0160   82.4  0.9895   -7.5
 0.260  0.9056  -15.1   6.925  167.2  0.0174   81.7  0.9881   -8.1
 0.280  0.9038  -16.3   6.924  166.3  0.0187   81.1  0.9863   -8.7
 0.300  0.9024  -17.5   6.925  165.4  0.0200   80.5  0.9845   -9.3
 0.320  0.9007  -18.7   6.912  164.5  0.0213   79.9  0.9827   -9.9
 0.340  0.8993  -19.9   6.902  163.6  0.0226   79.3  0.9809  -10.5
 0.360  0.8978  -21.1   6.887  162.6  0.0240   78.7  0.9789  -11.1
 0.380  0.8962  -22.2   6.870  161.6  0.0253   78.0  0.9766  -11.8
 0.400  0.8949  -23.4   6.854  160.6  0.0266   77.3  0.9745  -12.4
 0.420  0.8923  -24.6   6.837  159.6  0.0279   76.7  0.9722  -13.0
 0.440  0.8902  -25.7   6.821  158.7  0.0292   76.1  0.9700  -13.6
 0.450  0.8892  -26.3   6.814  158.2  0.0298   75.8  0.9690  -13.9
 0.460  0.8879  -26.9   6.805  157.7  0.0304   75.5  0.9676  -14.2
 0.480  0.8857  -28.1   6.787  156.8  0.0317   74.8  0.9650  -14.8
 0.500  0.8839  -29.3   6.772  155.8  0.0330   74.2  0.9624  -15.4
 0.520  0.8808  -30.4   6.745  154.8  0.0342   73.4  0.9593  -16.0
 0.540  0.8780  -31.6   6.719  153.9  0.0354   72.7  0.9562  -16.6
 0.560  0.8756  -32.8   6.696  152.9  0.0366   72.1  0.9533  -17.2
 0.580  0.8736  -33.9   6.674  151.9  0.0379   71.5  0.9505  -17.8
 0.600  0.8719  -35.1   6.655  150.9  0.0391   70.9  0.9478  -18.4
 0.620  0.8684  -36.2   6.630  150.0  0.0403   70.2  0.9443  -19.0
 0.640  0.8652  -37.4   6.607  149.2  0.0415   69.6  0.9409  -19.5
 0.660  0.8624  -38.6   6.585  148.3  0.0427   69.0  0.9376  -20.1
 0.680  0.8600  -39.7   6.565  147.4  0.0439   68.4  0.9344  -20.7
 0.700  0.8579  -40.9   6.546  146.5  0.0451   67.9  0.9313  -21.3
 0.720  0.8543  -42.0   6.511  145.6  0.0462   67.2  0.9275  -21.8
 0.740  0.8510  -43.1   6.477  144.8  0.0474   66.6  0.9237  -22.4
 0.760  0.8481  -44.2   6.444  143.9  0.0485   66.0  0.9201  -22.9
 0.780  0.8455  -45.4   6.413  143.0  0.0496   65.4  0.9165  -23.5
 0.800  0.8432  -46.5   6.384  142.1  0.0508   64.8  0.9130  -24.0
 0.820  0.8394  -47.7   6.356  141.2  0.0519   64.1  0.9089  -24.5
 0.840  0.8359  -48.8   6.329  140.4  0.0530   63.5  0.9050  -25.1
 0.860  0.8328  -50.0   6.303  139.5  0.0541   62.9  0.9011  -25.6
 0.880  0.8301  -51.2   6.279  138.6  0.0552   62.4  0.8972  -26.2
 0.900  0.8277  -52.4   6.257  137.7  0.0563   61.8  0.8935  -26.7
 0.920  0.8237  -53.5   6.222  136.9  0.0573   61.2  0.8891  -27.2
 0.940  0.8200  -54.6   6.189  136.0  0.0584   60.5  0.8848  -27.7
 0.960  0.8166  -55.7   6.156  135.2  0.0594   59.9  0.8806  -28.2
 0.980  0.8135  -56.9   6.126  134.4  0.0604   59.4  0.8764  -28.8
 1.000  0.8107  -58.0   6.096  133.5  0.0615   58.8  0.8723  -29.3
 1.020  0.8068  -59.1   6.062  132.7  0.0624   58.2  0.8680  -29.8
 1.040  0.8031  -60.2   6.029  131.9  0.0634   57.6  0.8637  -30.3
 1.060  0.7997  -61.3   5.997  131.1  0.0644   57.1  0.8596  -30.8
 1.080  0.7967  -62.4   5.966  130.2  0.0653   56.5  0.8554  -31.3
 1.100  0.7939  -63.5   5.937  129.4  0.0663   56.0  0.8514  -31.8
 1.120  0.7899  -64.6   5.903  128.6  0.0672   55.4  0.8469  -32.3
 1.140  0.7862  -65.7   5.869  127.8  0.0681   54.8  0.8424  -32.8
 1.160  0.7829  -66.8   5.837  127.0  0.0690   54.3  0.8381  -33.3
 1.180  0.7798  -68.0   5.807  126.1  0.0700   53.7  0.8338  -33.8
 1.200  0.7770  -69.1   5.777  125.3  0.0709   53.2  0.8295  -34.3
 1.220  0.7730  -70.2   5.742  124.6  0.0717   52.6  0.8251  -34.7
 1.240  0.7693  -71.2   5.708  123.8  0.0725   52.1  0.8207  -35.2
 1.260  0.7658  -72.3   5.675  123.0  0.0733   51.5  0.8163  -35.6
 1.280  0.7626  -73.4   5.643  122.3  0.0742   51.0  0.8120  -36.1
 1.300  0.7597  -74.5   5.612  121.5  0.0750   50.5  0.8078  -36.5
 1.320  0.7556  -75.6   5.576  120.8  0.0757   50.0  0.8032  -36.9
 1.340  0.7517  -76.6   5.540  120.0  0.0765   49.4  0.7987  -37.4
 1.360  0.7480  -77.7   5.506  119.2  0.0773   48.9  0.7942  -37.9
 1.380  0.7447  -78.8   5.472  118.5  0.0780   48.4  0.7898  -38.3
 1.400  0.7416  -79.9   5.440  117.7  0.0788   47.9  0.7854  -38.8
 1.420  0.7381  -80.9   5.407  117.0  0.0795   47.4  0.7811  -39.2
 1.440  0.7347  -81.8   5.374  116.4  0.0802   46.9  0.7769  -39.6
 1.460  0.7316  -82.8   5.342  115.7  0.0809   46.4  0.7727  -40.0
 1.480  0.7287  -83.8   5.311  115.0  0.0816   46.0  0.7685  -40.4
 1.500  0.7260  -84.8   5.281  114.3  0.0823   45.5  0.7644  -40.8
 1.520  0.7224  -85.8   5.249  113.6  0.0829   45.0  0.7600  -41.2
 1.540  0.7190  -86.9   5.218  112.8  0.0836   44.5  0.7556  -41.6
 1.560  0.7158  -88.0   5.188  112.1  0.0843   44.0  0.7513  -42.0
 1.580  0.7129  -89.0   5.159  111.4  0.0849   43.5  0.7470  -42.4
 1.600  0.7103  -90.1   5.131  110.6  0.0856   43.0  0.7427  -42.8
 1.620  0.7067  -91.1   5.099  110.0  0.0862   42.5  0.7387  -43.2
 1.640  0.7032  -92.0   5.069  109.3  0.0868   42.1  0.7348  -43.5
 1.660  0.7000  -93.0   5.038  108.6  0.0874   41.6  0.7309  -43.9
 1.680  0.6969  -94.0   5.009  108.0  0.0880   41.1  0.7270  -44.2
 1.700  0.6941  -95.0   4.980  107.3  0.0886   40.7  0.7231  -44.6
 1.720  0.6910  -96.0   4.946  106.7  0.0891   40.3  0.7191  -45.0
 1.740  0.6881  -96.9   4.913  106.0  0.0897   39.9  0.7152  -45.3
 1.760  0.6854  -97.9   4.881  105.4  0.0902   39.5  0.7113  -45.7
 1.780  0.6829  -98.9   4.849  104.8  0.0908   39.1  0.7074  -46.0
 1.800  0.6806  -99.9   4.818  104.1  0.0913   38.7  0.7035  -46.4
 1.820  0.6773 -100.9   4.791  103.5  0.0918   38.2  0.6994  -46.8
 1.840  0.6741 -101.9   4.764  102.9  0.0924   37.8  0.6953  -47.1
 1.860  0.6712 -102.9   4.738  102.3  0.0929   37.4  0.6912  -47.5
 1.880  0.6685 -103.9   4.713  101.6  0.0934   36.9  0.6871  -47.8
 1.900  0.6660 -104.9   4.688  101.0  0.0940   36.5  0.6831  -48.2
 1.920  0.6630 -105.8   4.658  100.4  0.0945   36.1  0.6794  -48.5
 1.940  0.6603 -106.7   4.628   99.8  0.0949   35.7  0.6756  -48.8
 1.960  0.6576 -107.6   4.599   99.2  0.0954   35.3  0.6719  -49.1
 1.980  0.6552 -108.6   4.571   98.6  0.0958   35.0  0.6683  -49.5
 2.000  0.6529 -109.5   4.543   98.0  0.0963   34.6  0.6646  -49.8
 2.020  0.6494 -110.4   4.515   97.4  0.0967   34.2  0.6607  -50.1
 2.040  0.6460 -111.4   4.488   96.9  0.0971   33.8  0.6568  -50.4
 2.060  0.6429 -112.3   4.461   96.3  0.0975   33.4  0.6529  -50.7
 2.080  0.6399 -113.3   4.435   95.7  0.0979   33.0  0.6490  -51.0
 2.100  0.6371 -114.2   4.409   95.1  0.0983   32.6  0.6451  -51.3
 2.120  0.6344 -115.2   4.384   94.5  0.0987   32.2  0.6413  -51.6
 2.140  0.6320 -116.2   4.359   93.9  0.0991   31.8  0.6374  -51.9
 2.160  0.6297 -117.2   4.334   93.3  0.0995   31.5  0.6336  -52.3
 2.180  0.6277 -118.2   4.310   92.6  0.1000   31.1  0.6299  -52.6
 2.200  0.6258 -119.2   4.287   92.0  0.1004   30.7  0.6261  -52.9
 2.220  0.6228 -120.1   4.261   91.5  0.1007   30.3  0.6223  -53.2
 2.240  0.6199 -121.0   4.236   90.9  0.1010   29.9  0.6186  -53.5
 2.260  0.6172 -122.0   4.210   90.4  0.1014   29.6  0.6148  -53.8
 2.280  0.6146 -122.9   4.186   89.8  0.1017   29.2  0.6111  -54.1
 2.300  0.6122 -123.9   4.161   89.2  0.1020   28.8  0.6074  -54.4
 2.320  0.6100 -124.8   4.137   88.7  0.1024   28.5  0.6037  -54.7
 2.340  0.6080 -125.8   4.114   88.1  0.1027   28.1  0.6000  -55.0
 2.360  0.6061 -126.7   4.091   87.5  0.1031   27.7  0.5964  -55.3
 2.380  0.6044 -127.7   4.068   86.9  0.1034   27.4  0.5927  -55.6
 2.400  0.6029 -128.7   4.046   86.3  0.1038   27.0  0.5891  -55.9
 2.420  0.6003 -129.6   4.022   85.8  0.1040   26.6  0.5854  -56.2
 2.440  0.5978 -130.6   3.998   85.3  0.1042   26.3  0.5817  -56.5
 2.460  0.5956 -131.5   3.974   84.7  0.1045   25.9  0.5781  -56.7
 2.480  0.5934 -132.5   3.951   84.2  0.1047   25.6  0.5744  -57.0
 2.500  0.5915 -133.4   3.928   83.7  0.1050   25.2  0.5708  -57.3
 2.520  0.5897 -134.4   3.905   83.1  0.1052   24.9  0.5671  -57.6
 2.540  0.5881 -135.4   3.883   82.6  0.1054   24.5  0.5635  -57.9
 2.560  0.5866 -136.3   3.861   82.0  0.1057   24.2  0.5599  -58.2
 2.580  0.5853 -137.3   3.839   81.5  0.1059   23.8  0.5564  -58.5
 2.600  0.5842 -138.3   3.818   80.9  0.1062   23.5  0.5528  -58.8
 2.620  0.5819 -139.2   3.796   80.4  0.1064   23.2  0.5495  -59.1
 2.640  0.5797 -140.1   3.773   79.9  0.1066   22.9  0.5461  -59.3
 2.660  0.5777 -141.0   3.751   79.4  0.1067   22.6  0.5428  -59.6
 2.680  0.5759 -141.9   3.730   78.9  0.1069   22.3  0.5395  -59.8
 2.700  0.5741 -142.8   3.708   78.4  0.1071   22.0  0.5362  -60.1
 2.720  0.5726 -143.7   3.687   77.9  0.1073   21.7  0.5329  -60.4
 2.740  0.5711 -144.6   3.666   77.4  0.1075   21.4  0.5296  -60.7
 2.760  0.5698 -145.5   3.646   76.9  0.1077   21.1  0.5264  -60.9
 2.780  0.5687 -146.5   3.626   76.3  0.1079   20.8  0.5231  -61.2
 2.800  0.5677 -147.4   3.606   75.8  0.1081   20.5  0.5199  -61.5
 2.820  0.5662 -148.2   3.586   75.3  0.1082   20.2  0.5168  -61.7
 2.840  0.5648 -149.1   3.566   74.9  0.1084   19.9  0.5137  -62.0
 2.860  0.5635 -149.9   3.546   74.4  0.1085   19.7  0.5107  -62.2
 2.880  0.5624 -150.8   3.527   73.9  0.1086   19.4  0.5076  -62.5
 2.900  0.5614 -151.7   3.508   73.5  0.1088   19.1  0.5045  -62.7
 2.920  0.5605 -152.5   3.489   73.0  0.1089   18.8  0.5015  -63.0
 2.940  0.5597 -153.4   3.470   72.5  0.1091   18.5  0.4984  -63.2
 2.960  0.5591 -154.3   3.452   72.0  0.1092   18.3  0.4954  -63.5
 2.980  0.5586 -155.1   3.434   71.5  0.1093   18.0  0.4924  -63.7
 3.000  0.5582 -156.0   3.416   71.0  0.1095   17.7  0.4894  -64.0
 3.100  0.5506 -160.1   3.322   68.9  0.1098   16.5  0.4761  -65.1
 3.200  0.5459 -164.2   3.233   66.7  0.1101   15.3  0.4630  -66.2
 3.300  0.5441 -168.4   3.149   64.4  0.1104   14.1  0.4502  -67.4
 3.400  0.5452 -172.6   3.071   62.0  0.1108   13.0  0.4375  -68.7
 3.500  0.5493 -176.8   2.998   59.4  0.1113   11.8  0.4250  -70.0
 3.600  0.5468  179.7   2.922   57.5  0.1115   10.9  0.4136  -71.1
 3.700  0.5465  176.1   2.849   55.5  0.1117   10.0  0.4024  -72.3
 3.800  0.5482  172.6   2.779   53.4  0.1119    9.1  0.3914  -73.6
 3.900  0.5520  169.0   2.714   51.1  0.1121    8.2  0.3805  -74.9
 4.000  0.5579  165.6   2.653   48.8  0.1124    7.3  0.3699  -76.3
 4.100  0.5578  162.6   2.587   47.0  0.1124    6.5  0.3601  -77.7
 4.200  0.5592  159.7   2.524   45.0  0.1124    5.7  0.3505  -79.2
 4.300  0.5620  156.7   2.463   43.0  0.1124    4.8  0.3411  -80.7
 4.400  0.5664  153.8   2.406   40.8  0.1124    4.0  0.3320  -82.4
 4.500  0.5721  151.0   2.353   38.6  0.1125    3.2  0.3232  -84.1
 4.600  0.5723  148.8   2.297   37.0  0.1124    2.6  0.3163  -85.5
 4.700  0.5733  146.5   2.243   35.3  0.1123    2.1  0.3096  -86.9
 4.800  0.5752  144.3   2.191   33.6  0.1122    1.5  0.3031  -88.4
 4.900  0.5780  142.1   2.141   31.7  0.1121    1.0  0.2968  -89.9
 5.000  0.5816  139.9   2.094   29.8  0.1120    0.4  0.2907  -91.5
 5.100  0.5823  137.9   2.050   28.3  0.1119   -0.0  0.2849  -92.7
 5.200  0.5837  136.0   2.007   26.7  0.1118   -0.5  0.2792  -93.9
 5.300  0.5858  134.0   1.965   25.1  0.1117   -0.9  0.2737  -95.2
 5.400  0.5885  132.1   1.926   23.4  0.1116   -1.4  0.2683  -96.5
 5.500  0.5919  130.2   1.888   21.6  0.1115   -1.8  0.2630  -97.9
 5.600  0.5943  128.4   1.852   20.2  0.1116   -2.1  0.2569  -99.3
 5.700  0.5974  126.5   1.818   18.7  0.1116   -2.3  0.2510 -100.8
 5.800  0.6010  124.7   1.785   17.1  0.1117   -2.6  0.2452 -102.4
 5.900  0.6052  123.0   1.753   15.5  0.1117   -2.8  0.2397 -104.0
 6.000  0.6100  121.2   1.723   13.8  0.1118   -3.1  0.2343 -105.7
 6.100  0.6133  119.5   1.694   12.3  0.1123   -3.3  0.2295 -107.5
 6.200  0.6172  117.9   1.665   10.8  0.1127   -3.5  0.2250 -109.5
 6.300  0.6215  116.3   1.638    9.2  0.1132   -3.7  0.2207 -111.5
 6.400  0.6264  114.7   1.612    7.6  0.1136   -3.9  0.2167 -113.5
 6.500  0.6317  113.1   1.588    5.9  0.1141   -4.1  0.2130 -115.7
 6.600  0.6349  111.7   1.563    4.5  0.1149   -4.3  0.2091 -117.4
 6.800  0.6424  108.8   1.516    1.4  0.1164   -4.8  0.2020 -120.9
 7.000  0.6514  106.1   1.473   -1.8  0.1180   -5.2  0.1956 -124.7
 7.200  0.6562  103.1   1.430   -4.7  0.1203   -6.0  0.1863 -129.0
 7.400  0.6627  100.2   1.390   -7.8  0.1226   -6.7  0.1781 -133.8
 7.600  0.6682   97.1   1.349  -10.9  0.1248   -7.8  0.1696 -139.6
 7.800  0.6732   93.8   1.306  -14.2  0.1268   -9.1  0.1617 -146.8
 8.000  0.6804   90.5   1.268  -17.6  0.1288  -10.3  0.1566 -154.5
 8.200  0.6848   87.1   1.221  -20.3  0.1296  -11.6  0.1495 -163.0
 8.400  0.6916   83.7   1.178  -23.3  0.1304  -12.8  0.1460 -172.1
 8.600  0.7020   80.6   1.139  -26.0  0.1312  -13.8  0.1441  177.9
 8.800  0.7154   77.9   1.104  -28.6  0.1320  -14.6  0.1449  167.0
 9.000  0.7304   75.3   1.071  -31.3  0.1327  -15.4  0.1507  156.6
 9.200  0.7523   73.3   1.040  -33.8  0.1338  -16.1  0.1640  146.0
 9.400  0.7751   71.5   1.012  -36.3  0.1349  -16.8  0.1820  137.3
 9.600  0.7958   69.7   0.978  -39.0  0.1362  -17.5  0.2047  130.7
 9.800  0.8145   67.8   0.940  -41.7  0.1378  -18.3  0.2306  126.0
10.000  0.8340   66.1   0.904  -44.6  0.1395  -19.1  0.2579  122.2
10.200  0.8378   64.8   0.869  -46.5  0.1419  -19.9  0.2809  119.5
10.400  0.8421   63.5   0.835  -48.6  0.1443  -20.7  0.3044  117.2
10.600  0.8388   62.8   0.806  -50.4  0.1465  -21.9  0.3257  115.4
10.800  0.8275   62.8   0.783  -51.8  0.1485  -23.4  0.3447  113.8
11.000  0.8162   62.8   0.760  -53.3  0.1507  -24.8  0.3640  112.4
11.200  0.8065   63.0   0.754  -54.3  0.1510  -26.2  0.3755  112.1
11.400  0.7968   63.2   0.748  -55.4  0.1515  -27.5  0.3870  111.9
11.600  0.8000   62.8   0.742  -57.6  0.1524  -28.9  0.3988  112.2
11.800  0.8163   61.7   0.738  -61.1  0.1538  -30.4  0.4109  112.8
12.000  0.8328   60.7   0.737  -64.6  0.1553  -31.8  0.4230  113.5
!
!  f       NFmin   Gammaopt  rn/50
! GHz       dB    MAG  ANG    -
 0.450      0.86  0.50    7   0.29
 0.900      0.82  0.48   21   0.27
 1.800      1.05  0.37   55   0.23
 2.400      1.09  0.36   63   0.19
 5.500      2.24  0.36 -145   0.21
10.000      3.98  0.70  -56   2.38
!
! (c) 2015  Infineon Technologies AG, Munich
