! Infineon Technologies  Discrete & RF Semiconductors
! BFP410
! VCE =  4.5 V,  IC =  15 mA
! Common Emitter S-Parameters:                            Nov 2015
# GHz  S  MA  R  50
!  f         S11            S21            S12            S22
! GHz     MAG   ANG      MAG   ANG      MAG   ANG      MAG   ANG
 0.010  0.5611    0.7  31.423  178.4  0.0014   29.4  0.9394    3.4
 0.015  0.5603   -0.4  31.193  177.5  0.0014   37.6  0.9385    1.8
 0.020  0.5597   -1.5  30.971  176.5  0.0015   45.3  0.9384    0.2
 0.025  0.5597   -2.3  30.874  176.0  0.0017   49.1  0.9401   -0.2
 0.030  0.5599   -3.2  30.779  175.4  0.0019   52.1  0.9419   -0.6
 0.035  0.5602   -4.0  30.688  174.9  0.0020   54.6  0.9437   -1.1
 0.040  0.5606   -4.8  30.598  174.4  0.0022   56.7  0.9456   -1.5
 0.045  0.5611   -5.7  30.512  173.8  0.0024   58.5  0.9475   -1.9
 0.050  0.5617   -6.5  30.428  173.3  0.0026   60.0  0.9495   -2.3
 0.055  0.5609   -7.3  30.386  172.8  0.0028   61.5  0.9489   -2.7
 0.060  0.5602   -8.0  30.346  172.3  0.0030   62.7  0.9483   -3.1
 0.065  0.5596   -8.8  30.308  171.9  0.0032   63.8  0.9478   -3.4
 0.070  0.5591   -9.6  30.272  171.4  0.0034   64.8  0.9473   -3.8
 0.075  0.5587  -10.3  30.238  170.9  0.0036   65.6  0.9469   -4.2
 0.080  0.5584  -11.1  30.206  170.4  0.0039   66.4  0.9465   -4.6
 0.085  0.5583  -11.9  30.177  170.0  0.0041   67.0  0.9461   -5.0
 0.090  0.5582  -12.7  30.149  169.5  0.0043   67.6  0.9458   -5.3
 0.095  0.5582  -13.4  30.124  169.0  0.0045   68.2  0.9455   -5.7
 0.100  0.5583  -14.2  30.101  168.5  0.0047   68.7  0.9453   -6.1
 0.105  0.5572  -14.9  30.031  168.0  0.0049   69.0  0.9441   -6.4
 0.110  0.5562  -15.7  29.963  167.5  0.0051   69.3  0.9430   -6.7
 0.115  0.5552  -16.4  29.898  166.9  0.0054   69.6  0.9419   -7.1
 0.120  0.5544  -17.1  29.835  166.4  0.0056   69.8  0.9408   -7.4
 0.125  0.5536  -17.9  29.775  165.9  0.0058   70.1  0.9397   -7.7
 0.130  0.5530  -18.6  29.718  165.3  0.0060   70.3  0.9387   -8.0
 0.135  0.5524  -19.4  29.663  164.8  0.0062   70.5  0.9377   -8.3
 0.140  0.5520  -20.1  29.610  164.3  0.0065   70.7  0.9367   -8.7
 0.145  0.5516  -20.9  29.560  163.7  0.0067   70.8  0.9358   -9.0
 0.150  0.5513  -21.6  29.513  163.2  0.0069   71.0  0.9349   -9.3
 0.155  0.5502  -22.3  29.438  162.7  0.0071   71.0  0.9332   -9.6
 0.160  0.5492  -23.0  29.366  162.2  0.0073   71.0  0.9316   -9.9
 0.165  0.5483  -23.7  29.295  161.8  0.0075   71.0  0.9299  -10.2
 0.170  0.5474  -24.4  29.227  161.3  0.0077   71.0  0.9283  -10.5
 0.175  0.5466  -25.1  29.161  160.8  0.0079   70.9  0.9268  -10.8
 0.180  0.5460  -25.8  29.097  160.3  0.0081   70.9  0.9252  -11.1
 0.185  0.5454  -26.6  29.035  159.8  0.0083   70.9  0.9237  -11.5
 0.190  0.5449  -27.3  28.975  159.3  0.0085   70.9  0.9222  -11.8
 0.195  0.5444  -28.0  28.917  158.8  0.0087   70.9  0.9207  -12.1
 0.200  0.5441  -28.7  28.862  158.3  0.0089   70.9  0.9193  -12.4
 0.220  0.5373  -31.5  28.489  156.3  0.0097   70.6  0.9119  -13.5
 0.240  0.5319  -34.3  28.149  154.3  0.0105   70.4  0.9049  -14.7
 0.260  0.5266  -37.0  27.822  152.4  0.0113   70.0  0.8970  -15.8
 0.280  0.5216  -39.7  27.501  150.6  0.0120   69.3  0.8882  -16.9
 0.300  0.5177  -42.5  27.208  148.7  0.0127   68.8  0.8798  -18.0
 0.320  0.5116  -45.1  26.823  147.0  0.0134   68.3  0.8707  -19.0
 0.340  0.5066  -47.8  26.463  145.2  0.0141   67.8  0.8619  -20.0
 0.360  0.5012  -50.3  26.086  143.5  0.0148   67.3  0.8529  -20.9
 0.380  0.4952  -52.8  25.689  141.8  0.0155   66.8  0.8435  -21.9
 0.400  0.4902  -55.3  25.315  140.0  0.0161   66.3  0.8344  -22.8
 0.420  0.4842  -57.7  24.914  138.5  0.0167   65.8  0.8250  -23.6
 0.440  0.4791  -60.1  24.530  136.9  0.0173   65.3  0.8158  -24.5
 0.450  0.4769  -61.3  24.346  136.1  0.0176   65.1  0.8112  -24.9
 0.460  0.4736  -62.5  24.144  135.4  0.0179   64.8  0.8063  -25.3
 0.480  0.4677  -64.8  23.751  133.9  0.0185   64.4  0.7966  -26.0
 0.500  0.4625  -67.2  23.375  132.3  0.0191   63.9  0.7871  -26.8
 0.520  0.4563  -69.3  22.972  131.0  0.0196   63.5  0.7779  -27.4
 0.540  0.4507  -71.4  22.580  129.7  0.0201   63.1  0.7688  -28.1
 0.560  0.4458  -73.5  22.202  128.3  0.0207   62.7  0.7598  -28.8
 0.580  0.4414  -75.7  21.836  126.9  0.0212   62.3  0.7509  -29.5
 0.600  0.4378  -78.0  21.485  125.4  0.0217   62.0  0.7421  -30.2
 0.620  0.4323  -79.9  21.123  124.3  0.0222   61.7  0.7335  -30.8
 0.640  0.4273  -81.9  20.770  123.2  0.0227   61.4  0.7250  -31.3
 0.660  0.4228  -83.9  20.425  122.0  0.0231   61.1  0.7166  -31.9
 0.680  0.4188  -86.0  20.089  120.8  0.0236   60.8  0.7083  -32.5
 0.700  0.4154  -88.1  19.762  119.5  0.0241   60.5  0.7000  -33.1
 0.720  0.4108  -89.9  19.428  118.5  0.0245   60.3  0.6923  -33.5
 0.740  0.4065  -91.7  19.101  117.4  0.0250   60.0  0.6847  -34.0
 0.760  0.4027  -93.5  18.780  116.4  0.0254   59.8  0.6771  -34.4
 0.780  0.3993  -95.4  18.467  115.3  0.0259   59.6  0.6695  -34.9
 0.800  0.3963  -97.3  18.160  114.1  0.0263   59.4  0.6620  -35.4
 0.820  0.3927  -99.0  17.872  113.2  0.0267   59.2  0.6550  -35.8
 0.840  0.3895 -100.7  17.588  112.3  0.0271   59.0  0.6481  -36.2
 0.860  0.3866 -102.4  17.309  111.4  0.0276   58.8  0.6411  -36.6
 0.880  0.3841 -104.1  17.034  110.4  0.0280   58.6  0.6342  -37.1
 0.900  0.3819 -105.9  16.765  109.4  0.0284   58.4  0.6274  -37.5
 0.920  0.3787 -107.5  16.502  108.6  0.0288   58.3  0.6209  -37.8
 0.940  0.3758 -109.0  16.241  107.8  0.0292   58.2  0.6144  -38.2
 0.960  0.3732 -110.6  15.985  106.9  0.0295   58.0  0.6080  -38.6
 0.980  0.3709 -112.3  15.732  106.0  0.0299   57.9  0.6016  -38.9
 1.000  0.3689 -113.9  15.483  105.1  0.0303   57.8  0.5952  -39.3
 1.020  0.3666 -115.3  15.254  104.4  0.0307   57.7  0.5896  -39.6
 1.040  0.3646 -116.8  15.028  103.6  0.0311   57.6  0.5841  -39.9
 1.060  0.3627 -118.2  14.804  102.8  0.0315   57.4  0.5786  -40.2
 1.080  0.3611 -119.7  14.584  102.0  0.0319   57.3  0.5731  -40.5
 1.100  0.3598 -121.2  14.366  101.2  0.0323   57.2  0.5676  -40.8
 1.120  0.3577 -122.6  14.162  100.5  0.0327   57.1  0.5624  -41.1
 1.140  0.3558 -124.0  13.961   99.8  0.0331   57.0  0.5573  -41.4
 1.160  0.3542 -125.4  13.761   99.1  0.0334   56.9  0.5521  -41.7
 1.180  0.3527 -126.8  13.564   98.4  0.0338   56.8  0.5470  -42.0
 1.200  0.3515 -128.2  13.369   97.6  0.0342   56.7  0.5419  -42.3
 1.220  0.3502 -129.4  13.187   97.0  0.0346   56.6  0.5374  -42.6
 1.240  0.3492 -130.7  13.007   96.3  0.0350   56.5  0.5328  -42.8
 1.260  0.3482 -132.0  12.829   95.7  0.0353   56.3  0.5283  -43.1
 1.280  0.3475 -133.2  12.653   95.0  0.0357   56.2  0.5238  -43.3
 1.300  0.3469 -134.5  12.478   94.3  0.0361   56.1  0.5193  -43.6
 1.320  0.3455 -135.7  12.314   93.7  0.0365   56.0  0.5150  -43.8
 1.340  0.3443 -136.8  12.150   93.1  0.0368   56.0  0.5108  -44.1
 1.360  0.3432 -138.0  11.989   92.5  0.0372   55.9  0.5066  -44.3
 1.380  0.3422 -139.2  11.828   91.9  0.0375   55.9  0.5023  -44.6
 1.400  0.3414 -140.4  11.669   91.3  0.0379   55.8  0.4981  -44.8
 1.420  0.3405 -141.5  11.527   90.8  0.0383   55.7  0.4945  -45.0
 1.440  0.3397 -142.5  11.386   90.3  0.0387   55.7  0.4908  -45.2
 1.460  0.3390 -143.6  11.247   89.7  0.0390   55.6  0.4872  -45.3
 1.480  0.3384 -144.6  11.108   89.2  0.0394   55.6  0.4835  -45.5
 1.500  0.3380 -145.7  10.970   88.6  0.0398   55.5  0.4799  -45.7
 1.520  0.3375 -146.7  10.842   88.1  0.0402   55.4  0.4763  -45.9
 1.540  0.3371 -147.8  10.715   87.5  0.0406   55.3  0.4728  -46.1
 1.560  0.3369 -148.8  10.588   87.0  0.0409   55.1  0.4693  -46.4
 1.580  0.3367 -149.9  10.463   86.4  0.0413   55.0  0.4657  -46.6
 1.600  0.3367 -150.9  10.339   85.8  0.0417   54.9  0.4622  -46.8
 1.620  0.3359 -151.9  10.224   85.3  0.0421   54.8  0.4591  -47.0
 1.640  0.3352 -152.9  10.110   84.8  0.0425   54.7  0.4561  -47.2
 1.660  0.3346 -153.9   9.996   84.3  0.0428   54.7  0.4530  -47.3
 1.680  0.3342 -155.0   9.884   83.8  0.0432   54.6  0.4500  -47.5
 1.700  0.3338 -156.0   9.772   83.3  0.0436   54.5  0.4469  -47.7
 1.720  0.3334 -156.8   9.662   82.8  0.0440   54.4  0.4441  -47.9
 1.740  0.3331 -157.7   9.554   82.4  0.0444   54.4  0.4413  -48.1
 1.760  0.3329 -158.5   9.445   81.9  0.0447   54.3  0.4385  -48.2
 1.780  0.3328 -159.4   9.338   81.4  0.0451   54.3  0.4357  -48.4
 1.800  0.3327 -160.2   9.231   80.9  0.0455   54.2  0.4329  -48.6
 1.820  0.3325 -161.2   9.138   80.5  0.0459   54.1  0.4299  -48.8
 1.840  0.3323 -162.1   9.046   80.0  0.0463   54.0  0.4270  -49.0
 1.860  0.3322 -163.1   8.954   79.6  0.0466   53.9  0.4240  -49.2
 1.880  0.3323 -164.0   8.863   79.2  0.0470   53.8  0.4210  -49.4
 1.900  0.3324 -165.0   8.772   78.7  0.0474   53.7  0.4181  -49.6
 1.920  0.3321 -165.8   8.686   78.3  0.0478   53.6  0.4157  -49.7
 1.940  0.3319 -166.6   8.600   77.8  0.0482   53.5  0.4132  -49.8
 1.960  0.3317 -167.3   8.514   77.4  0.0485   53.5  0.4108  -50.0
 1.980  0.3316 -168.1   8.429   77.0  0.0489   53.4  0.4083  -50.1
 2.000  0.3315 -168.9   8.345   76.5  0.0493   53.3  0.4059  -50.2
 2.020  0.3312 -169.7   8.268   76.1  0.0497   53.2  0.4033  -50.4
 2.040  0.3311 -170.6   8.192   75.7  0.0501   53.1  0.4007  -50.5
 2.060  0.3309 -171.4   8.116   75.3  0.0505   53.0  0.3982  -50.7
 2.080  0.3309 -172.2   8.041   74.9  0.0509   52.8  0.3956  -50.9
 2.100  0.3309 -173.1   7.966   74.5  0.0512   52.7  0.3930  -51.0
 2.120  0.3310 -173.9   7.892   74.1  0.0516   52.6  0.3904  -51.2
 2.140  0.3312 -174.7   7.818   73.6  0.0520   52.5  0.3879  -51.4
 2.160  0.3314 -175.5   7.744   73.2  0.0524   52.4  0.3853  -51.5
 2.180  0.3317 -176.4   7.671   72.8  0.0528   52.3  0.3828  -51.7
 2.200  0.3321 -177.2   7.598   72.3  0.0532   52.2  0.3802  -51.9
 2.220  0.3323 -178.0   7.534   71.9  0.0536   52.1  0.3777  -52.1
 2.240  0.3325 -178.7   7.470   71.6  0.0540   52.0  0.3753  -52.2
 2.260  0.3328 -179.5   7.406   71.2  0.0543   51.9  0.3729  -52.4
 2.280  0.3332  179.8   7.343   70.8  0.0547   51.7  0.3704  -52.5
 2.300  0.3336  179.0   7.280   70.4  0.0551   51.6  0.3680  -52.7
 2.320  0.3341  178.3   7.218   70.0  0.0555   51.5  0.3655  -52.8
 2.340  0.3346  177.5   7.156   69.6  0.0559   51.4  0.3631  -53.0
 2.360  0.3352  176.8   7.094   69.2  0.0562   51.3  0.3607  -53.2
 2.380  0.3358  176.0   7.032   68.8  0.0566   51.2  0.3582  -53.3
 2.400  0.3365  175.3   6.971   68.4  0.0570   51.1  0.3558  -53.5
 2.420  0.3370  174.6   6.915   68.0  0.0574   51.0  0.3534  -53.7
 2.440  0.3376  173.8   6.859   67.7  0.0577   50.8  0.3510  -53.8
 2.460  0.3383  173.1   6.804   67.3  0.0581   50.7  0.3486  -54.0
 2.480  0.3390  172.4   6.749   67.0  0.0585   50.6  0.3462  -54.2
 2.500  0.3397  171.7   6.694   66.6  0.0588   50.4  0.3439  -54.3
 2.520  0.3405  170.9   6.639   66.2  0.0592   50.3  0.3415  -54.5
 2.540  0.3414  170.2   6.585   65.8  0.0596   50.2  0.3391  -54.7
 2.560  0.3423  169.5   6.531   65.4  0.0600   50.0  0.3367  -54.8
 2.580  0.3433  168.8   6.477   65.0  0.0603   49.9  0.3344  -55.0
 2.600  0.3443  168.1   6.424   64.6  0.0607   49.8  0.3320  -55.2
 2.620  0.3449  167.5   6.376   64.3  0.0611   49.7  0.3298  -55.4
 2.640  0.3455  166.8   6.329   63.9  0.0615   49.6  0.3277  -55.5
 2.660  0.3462  166.2   6.281   63.6  0.0618   49.5  0.3255  -55.7
 2.680  0.3468  165.6   6.234   63.3  0.0622   49.3  0.3234  -55.9
 2.700  0.3476  165.0   6.187   62.9  0.0626   49.2  0.3213  -56.1
 2.720  0.3484  164.3   6.140   62.6  0.0630   49.1  0.3191  -56.3
 2.740  0.3492  163.7   6.094   62.2  0.0634   49.0  0.3170  -56.4
 2.760  0.3501  163.1   6.048   61.8  0.0637   48.9  0.3149  -56.6
 2.780  0.3510  162.5   6.002   61.5  0.0641   48.8  0.3127  -56.8
 2.800  0.3519  161.9   5.956   61.1  0.0645   48.7  0.3106  -57.0
 2.820  0.3529  161.3   5.915   60.8  0.0649   48.6  0.3086  -57.2
 2.840  0.3539  160.8   5.874   60.5  0.0653   48.4  0.3067  -57.3
 2.860  0.3549  160.2   5.833   60.1  0.0656   48.3  0.3047  -57.5
 2.880  0.3560  159.6   5.793   59.8  0.0660   48.2  0.3028  -57.7
 2.900  0.3571  159.1   5.752   59.5  0.0664   48.0  0.3008  -57.8
 2.920  0.3583  158.5   5.712   59.1  0.0668   47.9  0.2989  -58.0
 2.940  0.3595  157.9   5.672   58.8  0.0672   47.8  0.2969  -58.2
 2.960  0.3607  157.4   5.633   58.4  0.0675   47.6  0.2950  -58.3
 2.980  0.3619  156.8   5.593   58.1  0.0679   47.5  0.2930  -58.5
 3.000  0.3632  156.3   5.554   57.7  0.0683   47.4  0.2911  -58.7
 3.100  0.3680  153.6   5.383   56.3  0.0701   46.6  0.2822  -59.5
 3.200  0.3736  151.0   5.216   54.7  0.0720   45.9  0.2734  -60.4
 3.300  0.3799  148.4   5.052   53.1  0.0738   45.3  0.2646  -61.4
 3.400  0.3870  146.0   4.893   51.4  0.0757   44.6  0.2559  -62.4
 3.500  0.3947  143.6   4.739   49.5  0.0776   44.0  0.2473  -63.5
 3.600  0.4002  141.4   4.609   48.1  0.0795   43.2  0.2390  -64.4
 3.700  0.4063  139.2   4.481   46.6  0.0814   42.4  0.2307  -65.5
 3.800  0.4130  137.2   4.357   45.1  0.0833   41.7  0.2226  -66.6
 3.900  0.4202  135.1   4.236   43.4  0.0852   41.0  0.2145  -67.7
 4.000  0.4279  133.2   4.119   41.7  0.0871   40.3  0.2065  -69.0
 4.100  0.4331  131.5   4.014   40.3  0.0889   39.4  0.1985  -70.5
 4.200  0.4386  129.8   3.912   38.9  0.0906   38.5  0.1906  -72.1
 4.300  0.4445  128.1   3.812   37.4  0.0924   37.7  0.1829  -73.8
 4.400  0.4508  126.6   3.715   35.8  0.0943   36.9  0.1754  -75.7
 4.500  0.4574  125.0   3.621   34.1  0.0961   36.1  0.1681  -77.8
 4.600  0.4611  123.7   3.537   32.9  0.0978   35.2  0.1625  -79.4
 4.700  0.4650  122.3   3.454   31.6  0.0995   34.4  0.1570  -81.0
 4.800  0.4692  121.0   3.373   30.2  0.1012   33.6  0.1516  -82.8
 4.900  0.4736  119.8   3.295   28.8  0.1029   32.8  0.1464  -84.7
 5.000  0.4782  118.5   3.218   27.3  0.1047   32.1  0.1414  -86.8
 5.100  0.4813  117.2   3.152   26.1  0.1063   31.2  0.1366  -88.2
 5.200  0.4846  116.0   3.087   24.8  0.1079   30.4  0.1318  -89.6
 5.300  0.4882  114.7   3.023   23.4  0.1095   29.6  0.1272  -91.2
 5.400  0.4920  113.5   2.962   22.1  0.1111   28.8  0.1226  -92.9
 5.500  0.4960  112.3   2.902   20.6  0.1128   28.0  0.1182  -94.7
 5.600  0.5003  111.1   2.848   19.4  0.1144   27.2  0.1125  -96.6
 5.700  0.5048  109.9   2.795   18.1  0.1159   26.4  0.1069  -98.6
 5.800  0.5095  108.7   2.744   16.8  0.1175   25.6  0.1014 -100.9
 5.900  0.5145  107.5   2.694   15.5  0.1192   24.8  0.0962 -103.5
 6.000  0.5196  106.4   2.646   14.1  0.1208   24.1  0.0911 -106.3
 6.100  0.5244  105.2   2.601   12.8  0.1224   23.2  0.0865 -109.4
 6.200  0.5294  104.1   2.557   11.6  0.1241   22.4  0.0822 -112.9
 6.300  0.5346  102.9   2.515   10.2  0.1258   21.6  0.0782 -116.8
 6.400  0.5401  101.8   2.474    8.8  0.1275   20.8  0.0746 -121.0
 6.500  0.5457  100.7   2.435    7.4  0.1293   20.0  0.0715 -125.7
 6.600  0.5497   99.7   2.397    6.1  0.1311   19.1  0.0679 -128.5
 6.800  0.5583   97.7   2.324    3.5  0.1347   17.5  0.0614 -135.0
 7.000  0.5675   95.7   2.257    0.7  0.1384   15.9  0.0558 -142.9
 7.200  0.5731   93.5   2.191   -1.9  0.1420   13.8  0.0494 -154.1
 7.400  0.5795   91.3   2.130   -4.7  0.1458   11.8  0.0454 -167.8
 7.600  0.5864   88.8   2.066   -7.6  0.1490    9.7  0.0452  174.5
 7.800  0.5941   86.1   2.001  -10.4  0.1519    7.4  0.0505  156.5
 8.000  0.6031   83.5   1.941  -13.5  0.1550    5.1  0.0597  143.0
 8.200  0.6123   80.5   1.872  -16.0  0.1563    3.0  0.0717  129.8
 8.400  0.6231   77.7   1.806  -18.6  0.1578    0.9  0.0864  120.7
 8.600  0.6371   75.1   1.748  -21.1  0.1591   -1.0  0.1035  112.7
 8.800  0.6538   72.9   1.695  -23.4  0.1601   -2.6  0.1234  105.6
 9.000  0.6714   70.8   1.646  -25.9  0.1612   -4.3  0.1446  100.6
 9.200  0.6955   69.3   1.601  -28.2  0.1623   -5.8  0.1706   96.5
 9.400  0.7201   68.0   1.559  -30.6  0.1635   -7.4  0.1972   93.4
 9.600  0.7426   66.5   1.510  -32.9  0.1647   -8.9  0.2233   91.5
 9.800  0.7632   65.0   1.455  -35.4  0.1659  -10.3  0.2487   90.3
10.000  0.7843   63.5   1.402  -38.0  0.1672  -11.8  0.2741   89.4
10.200  0.7905   62.3   1.353  -39.7  0.1690  -13.1  0.2904   88.5
10.400  0.7970   61.1   1.305  -41.6  0.1709  -14.4  0.3067   87.8
10.600  0.7950   60.5   1.267  -43.3  0.1728  -15.9  0.3194   87.5
10.800  0.7841   60.5   1.237  -44.7  0.1747  -17.7  0.3283   87.6
11.000  0.7733   60.5   1.208  -46.2  0.1767  -19.4  0.3373   87.7
11.200  0.7625   60.7   1.200  -47.4  0.1773  -21.1  0.3425   89.1
11.400  0.7518   61.0   1.193  -48.6  0.1781  -22.8  0.3479   90.4
11.600  0.7540   60.6   1.184  -50.9  0.1791  -24.8  0.3554   91.7
11.800  0.7692   59.7   1.176  -54.4  0.1804  -26.9  0.3651   93.2
12.000  0.7847   58.8   1.172  -58.0  0.1820  -29.0  0.3750   94.5
!
!  f       NFmin   Gammaopt  rn/50
! GHz       dB    MAG  ANG    -
 0.450      1.52  0.06 -134   0.19
 0.900      1.50  0.07 -151   0.16
 1.800      1.61  0.12 -142   0.16
 2.400      1.64  0.18 -123   0.21
 5.500      2.49  0.39 -106   0.35
10.000      3.60  0.69  -47   2.16
!
! (c) 2015  Infineon Technologies AG, Munich
