! Infineon Technologies  Discrete & RF Semiconductors
! BFP420F
!
! VCE =  2.0 V,  IC =  18 mA
! Common Emitter S-Parameters:                            Sep 2011
# GHz  S  MA  R  50
!  f         S11            S21            S12            S22
! GHz     MAG   ANG      MAG   ANG      MAG   ANG      MAG   ANG
 0.030  0.5266   -6.7  37.447  173.9  0.0023   91.2  0.9612   -3.5
 0.040  0.5258   -8.8  37.347  172.1  0.0031   88.6  0.9604   -4.8
 0.050  0.5209  -10.7  36.830  170.0  0.0041   87.5  0.9595   -6.2
 0.060  0.5224  -14.1  36.787  168.7  0.0046   83.6  0.9561   -7.5
 0.070  0.5241  -16.3  36.617  167.1  0.0055   85.5  0.9524   -8.9
 0.080  0.5213  -18.3  36.087  165.3  0.0062   83.6  0.9481  -10.1
 0.090  0.5179  -20.6  35.875  163.8  0.0070   83.9  0.9429  -11.4
 0.100  0.5152  -22.9  35.709  161.9  0.0078   83.1  0.9370  -12.6
 0.110  0.5179  -24.8  35.020  160.7  0.0085   81.0  0.9309  -13.7
 0.120  0.5118  -27.2  34.904  158.7  0.0090   81.0  0.9246  -15.0
 0.130  0.5077  -29.1  34.331  157.4  0.0098   79.4  0.9182  -16.1
 0.140  0.5066  -31.2  33.936  156.0  0.0105   78.9  0.9112  -17.2
 0.150  0.5041  -33.5  33.603  154.6  0.0112   78.6  0.9044  -18.3
 0.200  0.4954  -43.6  31.667  148.3  0.0145   74.7  0.8668  -23.6
 0.250  0.4778  -52.9  29.656  142.3  0.0173   72.1  0.8251  -28.1
 0.300  0.4647  -62.0  27.955  137.0  0.0202   69.8  0.7862  -32.3
 0.350  0.4527  -69.9  26.145  132.3  0.0226   67.7  0.7453  -36.0
 0.400  0.4388  -77.5  24.455  128.0  0.0248   66.0  0.7076  -39.2
 0.450  0.4290  -84.2  22.991  124.2  0.0269   64.6  0.6724  -42.2
 0.500  0.4186  -90.4  21.527  120.8  0.0287   63.5  0.6375  -44.8
 0.600  0.4024 -102.0  19.019  114.6  0.0322   61.7  0.5757  -49.5
 0.700  0.3911 -111.8  17.030  109.4  0.0354   60.6  0.5251  -53.4
 0.800  0.3825 -120.2  15.268  104.8  0.0383   60.0  0.4800  -56.9
 0.900  0.3750 -127.4  13.766  101.2  0.0412   59.5  0.4413  -59.8
 1.000  0.3741 -133.7  12.564   97.9  0.0440   59.5  0.4080  -62.7
 1.100  0.3691 -139.5  11.515   94.8  0.0467   59.2  0.3784  -65.3
 1.200  0.3666 -144.6  10.543   92.0  0.0495   59.1  0.3538  -68.0
 1.300  0.3659 -149.0   9.778   89.7  0.0522   59.1  0.3317  -70.2
 1.400  0.3674 -152.9   9.116   87.6  0.0549   59.1  0.3123  -72.8
 1.500  0.3656 -157.1   8.492   85.1  0.0577   58.9  0.2938  -74.9
 1.600  0.3657 -160.1   7.902   83.3  0.0604   58.8  0.2781  -77.4
 1.700  0.3667 -163.1   7.452   81.8  0.0631   58.8  0.2632  -79.7
 1.800  0.3691 -165.9   7.059   80.2  0.0659   58.8  0.2513  -82.2
 1.900  0.3700 -169.0   6.678   78.0  0.0688   58.5  0.2403  -84.5
 2.000  0.3700 -171.3   6.276   76.6  0.0714   58.3  0.2308  -86.9
 2.200  0.3731 -175.4   5.727   74.0  0.0769   58.1  0.2161  -91.6
 2.400  0.3717 -179.4   5.189   71.1  0.0826   57.4  0.2050  -95.9
 2.600  0.3750  177.2   4.793   68.8  0.0881   57.1  0.1956 -100.0
 2.800  0.3762  173.6   4.441   66.3  0.0939   56.3  0.1895 -103.7
 3.000  0.3779  170.3   4.130   64.1  0.0994   55.7  0.1842 -107.4
 3.500  0.3824  163.4   3.532   58.6  0.1137   53.7  0.1754 -115.0
 4.000  0.3881  156.8   3.089   53.3  0.1282   51.3  0.1685 -121.8
 4.500  0.3953  151.3   2.750   48.2  0.1426   48.6  0.1590 -128.2
 5.000  0.4005  146.7   2.484   43.3  0.1567   45.7  0.1478 -134.9
 5.500  0.4059  141.6   2.267   38.3  0.1704   42.7  0.1341 -142.7
 6.000  0.4135  136.2   2.086   33.5  0.1839   39.5  0.1181 -152.7
 6.500  0.4255  130.3   1.931   28.6  0.1967   36.3  0.1067 -167.3
 7.000  0.4407  124.3   1.793   23.6  0.2092   33.0  0.0975  175.4
 7.500  0.4623  119.9   1.673   18.9  0.2219   29.8  0.1001  155.8
 8.000  0.4881  116.0   1.563   14.2  0.2335   26.0  0.1208  135.2
 8.500  0.5186  112.3   1.458    9.5  0.2427   22.3  0.1589  117.2
 9.000  0.5481  109.0   1.363    5.4  0.2504   18.9  0.2090  104.8
 9.500  0.5770  105.8   1.278    1.6  0.2574   15.9  0.2672   97.9
10.000  0.6083  101.9   1.205   -1.8  0.2644   13.1  0.3291   94.4
!
!  f       NFmin   Gammaopt  rn/50
! GHz       dB    MAG  ANG    -
 0.450      1.49  0.14  179   0.11
 0.900      1.47  0.15  176   0.13
 1.900      1.60  0.24 -172   0.18
 2.400      1.67  0.25 -168   0.12
 3.500      1.90  0.27 -159   0.16
!
! (c) 2011  Infineon Technologies AG, Munich
