! Infineon Technologies  Discrete & RF Semiconductors
! BFP405F
! VCE =  1.0 V,  IC =  4.0 mA
! Common Emitter S-Parameters:                            Nov 2015
# GHz  S  MA  R  50
!  f         S11            S21            S12            S22
! GHz     MAG   ANG      MAG   ANG      MAG   ANG      MAG   ANG
 0.030  0.8503   -1.7  11.894  178.3  0.0008  157.9  0.9860   -0.8
 0.035  0.8501   -1.9  11.913  178.2  0.0016  110.0  0.9874   -1.0
 0.040  0.8500   -2.1  11.932  178.1  0.0027   97.3  0.9888   -1.1
 0.045  0.8488   -2.6  11.999  177.6  0.0039  126.0  0.9894   -1.2
 0.050  0.8477   -3.1  12.066  177.2  0.0055  139.6  0.9900   -1.3
 0.055  0.8488   -3.1  12.004  177.1  0.0035  155.3  0.9896   -1.3
 0.060  0.8499   -3.1  11.942  176.9  0.0023 -164.5  0.9892   -1.4
 0.065  0.8488   -3.5  11.953  176.4  0.0026   95.5  0.9886   -1.7
 0.070  0.8478   -4.0  11.964  175.9  0.0061   73.7  0.9881   -2.0
 0.075  0.8485   -4.2  11.943  175.7  0.0041   84.3  0.9893   -2.1
 0.080  0.8493   -4.3  11.923  175.5  0.0024  112.3  0.9905   -2.2
 0.085  0.8502   -4.7  11.948  175.5  0.0034   90.0  0.9896   -2.3
 0.090  0.8511   -5.0  11.973  175.5  0.0046   78.6  0.9888   -2.4
 0.095  0.8502   -5.1  11.939  175.3  0.0040   81.3  0.9888   -2.7
 0.100  0.8493   -5.2  11.906  175.1  0.0035   84.8  0.9888   -3.0
 0.105  0.8493   -5.7  11.922  174.8  0.0047   84.4  0.9868   -3.1
 0.110  0.8493   -6.1  11.939  174.5  0.0059   84.2  0.9849   -3.2
 0.115  0.8491   -6.4  11.927  174.4  0.0055   83.1  0.9868   -3.3
 0.120  0.8489   -6.7  11.916  174.2  0.0051   81.9  0.9888   -3.4
 0.125  0.8491   -6.9  11.916  173.8  0.0057   78.5  0.9882   -3.5
 0.130  0.8493   -7.1  11.917  173.5  0.0063   75.7  0.9876   -3.7
 0.135  0.8483   -7.4  11.947  173.4  0.0064   82.4  0.9880   -3.9
 0.140  0.8473   -7.7  11.978  173.3  0.0065   88.9  0.9884   -4.0
 0.145  0.8462   -8.0  11.975  173.1  0.0068   89.3  0.9876   -4.2
 0.150  0.8451   -8.3  11.972  172.8  0.0072   89.6  0.9868   -4.4
 0.155  0.8449   -8.6  11.970  172.5  0.0072   88.5  0.9866   -4.5
 0.160  0.8447   -8.8  11.969  172.2  0.0071   87.4  0.9863   -4.7
 0.165  0.8445   -9.1  11.968  171.9  0.0071   86.3  0.9861   -4.8
 0.170  0.8444   -9.4  11.968  171.6  0.0070   85.2  0.9859   -4.9
 0.175  0.8443   -9.6  11.967  171.3  0.0070   84.1  0.9856   -5.0
 0.180  0.8442   -9.9  11.967  171.0  0.0070   82.9  0.9854   -5.2
 0.185  0.8441  -10.2  11.968  170.7  0.0070   81.8  0.9852   -5.3
 0.190  0.8440  -10.5  11.969  170.4  0.0069   80.6  0.9850   -5.4
 0.195  0.8439  -10.7  11.970  170.1  0.0069   79.5  0.9848   -5.6
 0.200  0.8439  -11.0  11.971  169.8  0.0069   78.3  0.9846   -5.7
 0.220  0.8418  -12.1  11.914  168.9  0.0078   81.6  0.9831   -6.3
 0.240  0.8401  -13.2  11.860  168.0  0.0088   84.1  0.9817   -6.9
 0.260  0.8378  -14.2  11.825  167.0  0.0098   85.5  0.9795   -7.5
 0.280  0.8350  -15.3  11.809  165.9  0.0109   85.9  0.9767   -8.2
 0.300  0.8325  -16.4  11.798  164.9  0.0120   86.3  0.9740   -8.8
 0.320  0.8303  -17.4  11.750  163.9  0.0128   84.7  0.9727   -9.3
 0.340  0.8283  -18.5  11.705  163.0  0.0137   83.3  0.9716   -9.8
 0.360  0.8257  -19.5  11.666  162.0  0.0145   82.7  0.9699  -10.4
 0.380  0.8226  -20.6  11.632  161.0  0.0152   82.8  0.9678  -10.9
 0.400  0.8197  -21.7  11.602  160.0  0.0160   82.8  0.9657  -11.5
 0.420  0.8171  -22.7  11.562  159.0  0.0167   80.9  0.9630  -12.1
 0.440  0.8147  -23.8  11.524  158.1  0.0174   79.2  0.9603  -12.6
 0.450  0.8136  -24.3  11.507  157.6  0.0178   78.4  0.9590  -12.9
 0.460  0.8116  -24.8  11.477  157.1  0.0181   78.6  0.9574  -13.2
 0.480  0.8077  -25.8  11.418  156.2  0.0188   79.0  0.9542  -13.8
 0.500  0.8040  -26.8  11.363  155.2  0.0195   79.4  0.9511  -14.4
 0.520  0.7996  -27.8  11.304  154.3  0.0203   78.4  0.9476  -14.9
 0.540  0.7954  -28.9  11.248  153.3  0.0212   77.5  0.9442  -15.4
 0.560  0.7915  -29.9  11.196  152.3  0.0220   76.7  0.9409  -15.9
 0.580  0.7879  -31.0  11.146  151.4  0.0229   75.9  0.9377  -16.4
 0.600  0.7846  -32.1  11.100  150.4  0.0237   75.2  0.9345  -16.9
 0.620  0.7801  -33.0  11.043  149.5  0.0244   75.1  0.9308  -17.4
 0.640  0.7757  -34.0  10.989  148.7  0.0251   75.0  0.9272  -17.9
 0.660  0.7716  -34.9  10.937  147.8  0.0258   74.9  0.9237  -18.4
 0.680  0.7678  -35.9  10.888  146.9  0.0265   74.8  0.9202  -18.9
 0.700  0.7641  -36.9  10.841  146.0  0.0272   74.7  0.9168  -19.4
 0.720  0.7590  -37.9  10.764  145.1  0.0279   74.0  0.9124  -19.9
 0.740  0.7542  -38.8  10.689  144.2  0.0286   73.3  0.9081  -20.3
 0.760  0.7496  -39.8  10.617  143.3  0.0293   72.7  0.9039  -20.8
 0.780  0.7452  -40.8  10.548  142.4  0.0301   72.1  0.8997  -21.3
 0.800  0.7410  -41.8  10.481  141.5  0.0308   71.5  0.8956  -21.8
 0.820  0.7360  -42.7  10.416  140.7  0.0313   71.1  0.8913  -22.3
 0.840  0.7311  -43.6  10.353  139.8  0.0318   70.6  0.8870  -22.7
 0.860  0.7265  -44.6  10.292  139.0  0.0324   70.2  0.8828  -23.2
 0.880  0.7220  -45.5  10.233  138.2  0.0329   69.8  0.8787  -23.6
 0.900  0.7178  -46.5  10.177  137.3  0.0334   69.4  0.8746  -24.1
 0.920  0.7125  -47.4  10.102  136.5  0.0340   69.0  0.8699  -24.6
 0.940  0.7073  -48.3  10.030  135.7  0.0347   68.7  0.8652  -25.0
 0.960  0.7023  -49.2   9.959  134.9  0.0353   68.3  0.8606  -25.5
 0.980  0.6974  -50.1   9.890  134.1  0.0360   68.0  0.8560  -25.9
 1.000  0.6928  -51.0   9.823  133.3  0.0366   67.7  0.8515  -26.4
 1.020  0.6876  -51.8   9.748  132.6  0.0370   67.2  0.8470  -26.8
 1.040  0.6826  -52.7   9.675  131.9  0.0375   66.7  0.8426  -27.2
 1.060  0.6778  -53.5   9.603  131.1  0.0379   66.2  0.8382  -27.6
 1.080  0.6731  -54.4   9.533  130.4  0.0384   65.7  0.8338  -28.0
 1.100  0.6685  -55.3   9.465  129.6  0.0388   65.2  0.8295  -28.4
 1.120  0.6633  -56.1   9.395  128.9  0.0394   65.0  0.8249  -28.7
 1.140  0.6582  -57.0   9.327  128.2  0.0400   64.8  0.8203  -29.1
 1.160  0.6533  -57.8   9.260  127.5  0.0405   64.6  0.8157  -29.4
 1.180  0.6485  -58.7   9.194  126.7  0.0411   64.5  0.8112  -29.8
 1.200  0.6439  -59.6   9.130  126.0  0.0417   64.3  0.8067  -30.1
 1.220  0.6387  -60.4   9.057  125.3  0.0422   63.9  0.8021  -30.5
 1.240  0.6336  -61.2   8.985  124.6  0.0427   63.6  0.7976  -30.8
 1.260  0.6286  -62.0   8.915  123.9  0.0432   63.2  0.7931  -31.2
 1.280  0.6237  -62.9   8.846  123.1  0.0437   62.8  0.7886  -31.5
 1.300  0.6190  -63.7   8.779  122.4  0.0442   62.5  0.7842  -31.9
 1.320  0.6143  -64.5   8.709  121.8  0.0446   62.3  0.7797  -32.2
 1.340  0.6098  -65.2   8.640  121.2  0.0450   62.0  0.7752  -32.5
 1.360  0.6053  -66.0   8.572  120.6  0.0455   61.8  0.7708  -32.8
 1.380  0.6010  -66.8   8.505  119.9  0.0459   61.6  0.7664  -33.2
 1.400  0.5968  -67.6   8.439  119.3  0.0463   61.4  0.7620  -33.5
 1.420  0.5919  -68.4   8.374  118.7  0.0468   61.1  0.7578  -33.8
 1.440  0.5872  -69.1   8.311  118.1  0.0474   60.9  0.7536  -34.1
 1.460  0.5826  -69.9   8.248  117.5  0.0479   60.6  0.7495  -34.4
 1.480  0.5780  -70.7   8.186  116.9  0.0485   60.3  0.7453  -34.7
 1.500  0.5736  -71.5   8.125  116.3  0.0490   60.1  0.7412  -35.0
 1.520  0.5692  -72.2   8.062  115.7  0.0492   59.9  0.7371  -35.3
 1.540  0.5649  -72.9   8.000  115.1  0.0494   59.7  0.7331  -35.6
 1.560  0.5607  -73.7   7.938  114.5  0.0497   59.6  0.7291  -35.8
 1.580  0.5565  -74.4   7.878  113.9  0.0499   59.4  0.7251  -36.1
 1.600  0.5525  -75.2   7.818  113.3  0.0501   59.2  0.7211  -36.4
 1.620  0.5485  -75.9   7.754  112.8  0.0505   58.8  0.7170  -36.7
 1.640  0.5447  -76.6   7.690  112.2  0.0510   58.5  0.7128  -36.9
 1.660  0.5409  -77.3   7.627  111.6  0.0514   58.1  0.7087  -37.2
 1.680  0.5371  -78.0   7.565  111.1  0.0519   57.7  0.7046  -37.4
 1.700  0.5335  -78.7   7.504  110.5  0.0523   57.4  0.7005  -37.7
 1.720  0.5292  -79.4   7.446  110.0  0.0527   57.4  0.6967  -38.0
 1.740  0.5250  -80.1   7.389  109.5  0.0531   57.3  0.6929  -38.3
 1.760  0.5208  -80.9   7.332  109.0  0.0535   57.3  0.6892  -38.5
 1.780  0.5168  -81.6   7.276  108.4  0.0539   57.2  0.6854  -38.8
 1.800  0.5128  -82.4   7.221  107.9  0.0543   57.2  0.6817  -39.1
 1.820  0.5090  -83.1   7.169  107.4  0.0547   56.9  0.6781  -39.3
 1.840  0.5053  -83.7   7.118  106.9  0.0551   56.6  0.6745  -39.6
 1.860  0.5017  -84.4   7.068  106.4  0.0556   56.3  0.6710  -39.8
 1.880  0.4982  -85.1   7.018  105.9  0.0560   56.0  0.6674  -40.1
 1.900  0.4947  -85.8   6.968  105.4  0.0564   55.7  0.6639  -40.3
 1.920  0.4914  -86.5   6.918  104.9  0.0567   55.6  0.6608  -40.6
 1.940  0.4882  -87.3   6.868  104.5  0.0570   55.5  0.6578  -40.9
 1.960  0.4851  -88.0   6.819  104.0  0.0574   55.4  0.6547  -41.3
 1.980  0.4821  -88.7   6.770  103.5  0.0577   55.3  0.6517  -41.6
 2.000  0.4791  -89.5   6.722  103.0  0.0580   55.2  0.6487  -41.9
 2.020  0.4756  -90.1   6.671  102.5  0.0584   55.0  0.6453  -42.1
 2.040  0.4722  -90.8   6.620  102.1  0.0588   54.8  0.6419  -42.3
 2.060  0.4689  -91.4   6.569  101.6  0.0593   54.5  0.6385  -42.6
 2.080  0.4656  -92.0   6.519  101.1  0.0597   54.3  0.6352  -42.8
 2.100  0.4624  -92.7   6.470  100.6  0.0601   54.1  0.6318  -43.0
 2.120  0.4590  -93.3   6.421  100.2  0.0603   54.1  0.6286  -43.2
 2.140  0.4557  -94.0   6.373   99.7  0.0605   54.0  0.6254  -43.5
 2.160  0.4524  -94.6   6.325   99.2  0.0606   54.0  0.6222  -43.7
 2.180  0.4492  -95.2   6.278   98.8  0.0608   53.9  0.6191  -44.0
 2.200  0.4460  -95.9   6.231   98.3  0.0610   53.9  0.6159  -44.2
 2.220  0.4430  -96.5   6.186   97.9  0.0613   53.7  0.6130  -44.4
 2.240  0.4400  -97.2   6.141   97.5  0.0616   53.5  0.6101  -44.6
 2.260  0.4370  -97.8   6.097   97.1  0.0619   53.3  0.6072  -44.8
 2.280  0.4341  -98.4   6.053   96.7  0.0622   53.1  0.6043  -45.0
 2.300  0.4313  -99.1   6.009   96.3  0.0625   52.9  0.6014  -45.2
 2.320  0.4286  -99.6   5.968   95.9  0.0628   52.8  0.5990  -45.4
 2.340  0.4260 -100.2   5.927   95.5  0.0631   52.8  0.5965  -45.6
 2.360  0.4234 -100.8   5.886   95.1  0.0633   52.7  0.5941  -45.9
 2.380  0.4209 -101.3   5.845   94.7  0.0636   52.7  0.5917  -46.1
 2.400  0.4184 -101.9   5.805   94.3  0.0639   52.6  0.5893  -46.3
 2.420  0.4156 -102.5   5.765   93.9  0.0643   52.4  0.5869  -46.5
 2.440  0.4129 -103.1   5.725   93.5  0.0646   52.2  0.5845  -46.7
 2.460  0.4102 -103.7   5.685   93.1  0.0650   51.9  0.5821  -46.8
 2.480  0.4076 -104.4   5.645   92.7  0.0653   51.7  0.5798  -47.0
 2.500  0.4050 -105.0   5.606   92.3  0.0657   51.5  0.5774  -47.2
 2.520  0.4025 -105.5   5.566   92.0  0.0659   51.5  0.5750  -47.4
 2.540  0.4001 -106.1   5.527   91.6  0.0662   51.4  0.5726  -47.5
 2.560  0.3977 -106.7   5.488   91.3  0.0664   51.4  0.5702  -47.7
 2.580  0.3953 -107.2   5.449   90.9  0.0667   51.3  0.5678  -47.8
 2.600  0.3930 -107.8   5.410   90.6  0.0669   51.3  0.5654  -48.0
 2.620  0.3909 -108.3   5.375   90.2  0.0671   51.3  0.5634  -48.2
 2.640  0.3888 -108.9   5.341   89.9  0.0674   51.2  0.5613  -48.3
 2.660  0.3867 -109.5   5.306   89.5  0.0676   51.2  0.5593  -48.5
 2.680  0.3847 -110.0   5.272   89.2  0.0679   51.1  0.5572  -48.6
 2.700  0.3827 -110.6   5.238   88.8  0.0681   51.1  0.5552  -48.8
 2.720  0.3805 -111.1   5.205   88.5  0.0684   50.9  0.5532  -49.0
 2.740  0.3784 -111.6   5.173   88.1  0.0687   50.8  0.5513  -49.2
 2.760  0.3763 -112.1   5.141   87.8  0.0689   50.6  0.5493  -49.3
 2.780  0.3742 -112.6   5.109   87.4  0.0692   50.5  0.5473  -49.5
 2.800  0.3721 -113.1   5.077   87.1  0.0695   50.3  0.5454  -49.7
 2.820  0.3702 -113.7   5.044   86.8  0.0697   50.3  0.5435  -49.8
 2.840  0.3684 -114.2   5.012   86.5  0.0699   50.2  0.5416  -50.0
 2.860  0.3666 -114.8   4.979   86.2  0.0702   50.2  0.5398  -50.1
 2.880  0.3648 -115.4   4.947   85.8  0.0704   50.1  0.5379  -50.3
 2.900  0.3631 -116.0   4.915   85.5  0.0706   50.1  0.5360  -50.4
 2.920  0.3611 -116.5   4.886   85.2  0.0709   50.0  0.5342  -50.6
 2.940  0.3592 -117.0   4.857   84.9  0.0712   49.9  0.5325  -50.8
 2.960  0.3573 -117.5   4.829   84.6  0.0716   49.7  0.5308  -50.9
 2.980  0.3554 -118.1   4.800   84.2  0.0719   49.6  0.5290  -51.1
 3.000  0.3535 -118.6   4.772   83.9  0.0722   49.5  0.5273  -51.3
 3.100  0.3446 -121.1   4.627   82.3  0.0736   49.1  0.5188  -51.9
 3.200  0.3353 -124.0   4.492   80.8  0.0745   48.9  0.5109  -52.7
 3.300  0.3297 -126.3   4.371   79.3  0.0766   48.7  0.5042  -53.2
 3.400  0.3206 -129.1   4.246   77.9  0.0776   48.5  0.4983  -54.1
 3.500  0.3148 -131.3   4.139   76.5  0.0785   47.8  0.4927  -54.5
 3.600  0.3078 -133.8   4.028   75.2  0.0799   47.9  0.4861  -55.0
 3.700  0.3023 -136.4   3.925   73.9  0.0820   47.2  0.4802  -55.5
 3.800  0.2969 -138.8   3.827   72.6  0.0832   47.2  0.4756  -56.0
 3.900  0.2923 -141.2   3.739   71.3  0.0843   47.0  0.4698  -56.5
 4.000  0.2877 -143.5   3.651   70.1  0.0854   47.0  0.4659  -57.0
 4.100  0.2838 -146.1   3.569   68.8  0.0875   46.9  0.4597  -57.5
 4.200  0.2782 -148.6   3.487   67.7  0.0882   46.5  0.4552  -57.8
 4.300  0.2774 -150.9   3.414   66.4  0.0900   46.3  0.4501  -58.3
 4.400  0.2727 -153.5   3.342   65.3  0.0913   46.2  0.4459  -58.8
 4.500  0.2716 -155.6   3.271   64.2  0.0922   45.9  0.4420  -59.0
 4.600  0.2679 -158.2   3.202   62.9  0.0938   45.3  0.4374  -59.4
 4.700  0.2676 -160.3   3.139   61.8  0.0954   45.3  0.4318  -59.8
 4.800  0.2651 -162.9   3.080   60.7  0.0972   45.0  0.4288  -60.3
 4.900  0.2656 -164.7   3.021   59.6  0.0984   45.1  0.4230  -60.7
 5.000  0.2637 -167.2   2.965   58.5  0.0996   44.7  0.4191  -61.1
 5.100  0.2628 -169.1   2.908   57.4  0.1011   44.1  0.4145  -61.4
 5.200  0.2618 -171.3   2.858   56.3  0.1027   44.1  0.4103  -61.8
 5.300  0.2616 -173.5   2.807   55.1  0.1041   43.6  0.4063  -62.3
 5.400  0.2605 -175.1   2.760   54.1  0.1052   43.5  0.4031  -62.7
 5.500  0.2607 -177.3   2.713   53.0  0.1073   43.4  0.3991  -62.9
 5.600  0.2593 -179.1   2.668   52.0  0.1085   43.2  0.3952  -63.3
 5.700  0.2596  178.6   2.622   50.9  0.1098   42.8  0.3918  -63.7
 5.800  0.2593  176.7   2.582   49.9  0.1116   42.4  0.3879  -64.1
 5.900  0.2592  174.5   2.540   48.9  0.1124   42.0  0.3850  -64.4
 6.000  0.2583  172.5   2.499   47.9  0.1143   42.0  0.3814  -64.7
 6.100  0.2584  170.3   2.458   46.8  0.1161   41.5  0.3769  -64.9
 6.200  0.2580  168.2   2.420   45.8  0.1179   41.3  0.3745  -65.3
 6.300  0.2586  165.8   2.385   44.7  0.1190   41.1  0.3699  -65.6
 6.400  0.2574  164.0   2.350   43.7  0.1204   40.8  0.3663  -66.0
 6.500  0.2580  161.4   2.313   42.7  0.1220   40.6  0.3631  -66.2
 6.600  0.2581  159.5   2.280   41.7  0.1229   40.1  0.3588  -66.4
 6.800  0.2601  154.9   2.214   39.7  0.1263   39.6  0.3515  -66.6
 7.000  0.2614  150.4   2.153   37.8  0.1294   39.1  0.3434  -66.8
 7.200  0.2657  145.8   2.094   36.0  0.1328   38.8  0.3323  -66.9
 7.400  0.2730  141.9   2.040   34.1  0.1357   38.1  0.3223  -67.3
 7.600  0.2816  138.2   1.988   32.4  0.1394   37.7  0.3104  -67.5
 7.800  0.2922  134.8   1.941   30.6  0.1432   37.0  0.2971  -67.8
 8.000  0.3045  131.8   1.896   28.8  0.1469   36.0  0.2820  -68.3
 8.200  0.3195  129.1   1.855   27.1  0.1506   35.1  0.2629  -68.8
 8.400  0.3352  126.7   1.816   25.2  0.1543   34.3  0.2437  -69.4
 8.600  0.3507  124.6   1.778   23.4  0.1580   33.5  0.2227  -70.1
 8.800  0.3660  122.6   1.742   21.7  0.1618   32.7  0.1997  -71.0
 9.000  0.3817  120.8   1.707   19.8  0.1655   31.9  0.1767  -72.2
 9.200  0.3955  119.1   1.673   18.1  0.1691   30.9  0.1526  -74.1
 9.400  0.4095  117.5   1.641   16.3  0.1727   30.0  0.1287  -76.7
 9.600  0.4225  116.0   1.610   14.5  0.1765   29.0  0.1048  -80.9
 9.800  0.4342  114.4   1.581   12.7  0.1805   28.0  0.0814  -88.0
10.000  0.4463  112.9   1.554   10.9  0.1846   27.0  0.0602 -100.4
10.200  0.4570  111.0   1.524    9.1  0.1878   25.7  0.0464 -126.3
10.400  0.4682  109.3   1.496    7.3  0.1910   24.5  0.0468 -160.4
10.600  0.4783  107.2   1.467    5.4  0.1940   23.3  0.0630  174.6
10.800  0.4876  105.0   1.437    3.4  0.1966   22.0  0.0879  161.8
11.000  0.4976  102.8   1.409    1.4  0.1993   20.8  0.1151  154.9
11.200  0.5050  100.7   1.374   -0.3  0.2011   19.8  0.1411  153.3
11.400  0.5131   98.7   1.340   -2.0  0.2029   18.9  0.1672  152.1
11.600  0.5188   97.1   1.309   -3.5  0.2049   18.1  0.1919  152.9
11.800  0.5217   95.8   1.279   -4.8  0.2071   17.4  0.2155  155.0
12.000  0.5249   94.5   1.249   -6.1  0.2094   16.7  0.2392  156.6
!
!  f       NFmin   Gammaopt  rn/50
! GHz       dB    MAG  ANG    -
 0.450      1.20  0.44    5   0.35
 0.900      1.21  0.41   13   0.38
 1.500      1.29  0.38   19   0.33
 1.900      1.32  0.36   25   0.33
 2.400      1.49  0.34   35   0.35
 3.000      1.56  0.32   46   0.32
 3.500      1.61  0.31   55   0.29
 4.500      1.77  0.24   70   0.26
 5.500      2.00  0.15   83   0.16
!
! (c) 2015  Infineon Technologies AG, Munich
