! Infineon Technologies  Discrete & RF Semiconductors
! BFP450
! VCE =  2.5 V,  IC =  70 mA
! Common Emitter S-Parameters:                            Nov 2015
# GHz  S  MA  R  50
!  f         S11            S21            S12            S22
! GHz     MAG   ANG      MAG   ANG      MAG   ANG      MAG   ANG
 0.030  0.2036 -114.5  76.581  163.0  0.0046   80.0  0.8604  -23.5
 0.035  0.2321 -116.5  75.493  160.4  0.0052   77.5  0.8515  -27.4
 0.040  0.2609 -118.0  74.560  157.8  0.0058   75.5  0.8465  -31.3
 0.045  0.2901 -120.5  73.284  155.2  0.0063   73.3  0.8353  -35.1
 0.050  0.3197 -122.5  72.159  152.6  0.0068   71.5  0.8278  -38.9
 0.055  0.3420 -124.7  70.610  150.5  0.0074   69.7  0.8161  -42.4
 0.060  0.3648 -126.7  69.160  148.3  0.0081   68.2  0.8076  -46.0
 0.065  0.3848 -128.3  67.579  146.0  0.0085   66.4  0.7942  -49.3
 0.070  0.4051 -129.8  66.111  143.6  0.0090   64.8  0.7835  -52.7
 0.075  0.4258 -131.4  64.611  141.8  0.0094   63.8  0.7714  -55.8
 0.080  0.4469 -132.9  63.179  139.9  0.0099   62.8  0.7615  -58.9
 0.085  0.4603 -134.3  61.613  138.2  0.0103   61.9  0.7494  -61.8
 0.090  0.4739 -135.6  60.105  136.4  0.0108   61.0  0.7393  -64.7
 0.095  0.4871 -137.2  58.657  134.8  0.0111   59.9  0.7276  -67.4
 0.100  0.5007 -138.8  57.257  133.1  0.0115   58.9  0.7176  -70.2
 0.105  0.5122 -140.0  55.909  131.6  0.0117   58.1  0.7070  -72.7
 0.110  0.5240 -141.1  54.600  130.1  0.0119   57.4  0.6978  -75.2
 0.115  0.5333 -142.4  53.257  128.8  0.0122   56.8  0.6880  -77.6
 0.120  0.5428 -143.6  51.944  127.4  0.0125   56.2  0.6794  -80.0
 0.125  0.5525 -144.7  50.729  126.2  0.0128   55.4  0.6703  -82.2
 0.130  0.5624 -145.7  49.538  124.9  0.0131   54.7  0.6621  -84.4
 0.135  0.5705 -146.8  48.404  123.8  0.0133   54.4  0.6538  -86.4
 0.140  0.5788 -147.9  47.289  122.6  0.0136   54.2  0.6463  -88.5
 0.145  0.5850 -148.9  46.194  121.5  0.0138   53.7  0.6389  -90.4
 0.150  0.5913 -149.8  45.117  120.4  0.0140   53.2  0.6322  -92.3
 0.155  0.5956 -150.6  44.193  119.7  0.0142   53.0  0.6247  -93.8
 0.160  0.6001 -151.4  43.276  119.0  0.0144   52.7  0.6177  -95.2
 0.165  0.6046 -152.2  42.366  118.2  0.0145   52.5  0.6111  -96.8
 0.170  0.6093 -152.9  41.464  117.4  0.0147   52.3  0.6049  -98.3
 0.175  0.6140 -153.7  40.571  116.6  0.0149   52.1  0.5992  -99.9
 0.180  0.6189 -154.4  39.686  115.7  0.0151   51.9  0.5939 -101.5
 0.185  0.6239 -155.2  38.811  114.8  0.0153   51.7  0.5892 -103.1
 0.190  0.6290 -155.9  37.947  113.8  0.0154   51.5  0.5849 -104.8
 0.195  0.6341 -156.6  37.093  112.8  0.0156   51.3  0.5811 -106.5
 0.200  0.6394 -157.3  36.251  111.8  0.0158   51.1  0.5778 -108.2
 0.220  0.6488 -159.5  33.763  109.7  0.0164   50.9  0.5615 -112.7
 0.240  0.6592 -161.7  31.330  107.2  0.0171   50.7  0.5490 -117.5
 0.260  0.6677 -163.5  29.203  105.0  0.0177   50.7  0.5389 -121.8
 0.280  0.6741 -165.1  27.354  103.2  0.0183   50.8  0.5297 -125.4
 0.300  0.6810 -166.7  25.536  101.1  0.0189   51.0  0.5228 -129.1
 0.320  0.6847 -168.0  24.148   99.8  0.0195   51.3  0.5165 -132.0
 0.340  0.6887 -169.3  22.775   98.3  0.0200   51.6  0.5116 -134.9
 0.360  0.6920 -170.4  21.553   96.9  0.0206   51.9  0.5075 -137.6
 0.380  0.6945 -171.5  20.479   95.6  0.0212   52.3  0.5039 -139.9
 0.400  0.6972 -172.6  19.416   94.2  0.0218   52.6  0.5011 -142.3
 0.420  0.6993 -173.5  18.557   93.2  0.0224   52.9  0.4983 -144.2
 0.440  0.7017 -174.4  17.704   92.2  0.0230   53.2  0.4962 -146.2
 0.450  0.7029 -174.9  17.280   91.6  0.0233   53.3  0.4953 -147.2
 0.460  0.7038 -175.3  16.929   91.2  0.0236   53.5  0.4944 -148.0
 0.480  0.7056 -176.1  16.231   90.3  0.0242   53.8  0.4929 -149.7
 0.500  0.7075 -176.9  15.537   89.3  0.0248   54.1  0.4919 -151.4
 0.520  0.7085 -177.6  15.002   88.6  0.0254   54.4  0.4908 -152.8
 0.540  0.7096 -178.3  14.470   87.9  0.0260   54.7  0.4899 -154.1
 0.560  0.7108 -178.9  13.940   87.1  0.0267   54.9  0.4893 -155.5
 0.580  0.7121 -179.6  13.414   86.2  0.0273   55.2  0.4890 -156.8
 0.600  0.7135  179.7  12.890   85.3  0.0279   55.4  0.4890 -158.2
 0.620  0.7142  179.2  12.503   84.7  0.0285   55.6  0.4887 -159.2
 0.640  0.7149  178.6  12.118   84.1  0.0292   55.8  0.4885 -160.3
 0.660  0.7157  178.1  11.734   83.4  0.0298   56.0  0.4885 -161.3
 0.680  0.7166  177.5  11.351   82.7  0.0305   56.2  0.4887 -162.4
 0.700  0.7175  177.0  10.971   82.0  0.0311   56.4  0.4890 -163.4
 0.720  0.7180  176.5  10.679   81.5  0.0318   56.5  0.4890 -164.3
 0.740  0.7186  176.0  10.388   80.9  0.0324   56.6  0.4892 -165.2
 0.760  0.7192  175.4  10.099   80.3  0.0331   56.7  0.4895 -166.2
 0.780  0.7199  174.9   9.810   79.7  0.0337   56.8  0.4899 -167.1
 0.800  0.7207  174.4   9.523   79.0  0.0344   56.9  0.4905 -168.0
 0.820  0.7213  174.0   9.298   78.5  0.0351   57.0  0.4908 -168.7
 0.840  0.7219  173.5   9.074   78.1  0.0357   57.1  0.4912 -169.5
 0.860  0.7225  173.1   8.851   77.6  0.0364   57.1  0.4916 -170.2
 0.880  0.7232  172.6   8.628   77.1  0.0370   57.2  0.4922 -171.0
 0.900  0.7239  172.2   8.406   76.5  0.0377   57.3  0.4928 -171.7
 0.920  0.7241  171.8   8.222   76.1  0.0384   57.3  0.4932 -172.4
 0.940  0.7244  171.3   8.039   75.6  0.0390   57.3  0.4937 -173.1
 0.960  0.7247  170.9   7.856   75.1  0.0397   57.3  0.4943 -173.8
 0.980  0.7250  170.4   7.674   74.6  0.0403   57.3  0.4950 -174.5
 1.000  0.7254  170.0   7.492   74.1  0.0410   57.3  0.4957 -175.2
 1.020  0.7259  169.6   7.348   73.7  0.0417   57.3  0.4962 -175.8
 1.040  0.7264  169.2   7.205   73.3  0.0423   57.3  0.4967 -176.4
 1.060  0.7269  168.8   7.062   72.8  0.0430   57.2  0.4973 -177.0
 1.080  0.7275  168.4   6.920   72.4  0.0436   57.2  0.4980 -177.6
 1.100  0.7281  168.0   6.778   71.9  0.0443   57.2  0.4987 -178.2
 1.120  0.7286  167.6   6.653   71.5  0.0450   57.1  0.4993 -178.8
 1.140  0.7292  167.2   6.529   71.1  0.0456   57.0  0.4999 -179.4
 1.160  0.7298  166.9   6.405   70.7  0.0463   57.0  0.5005 -179.9
 1.180  0.7304  166.5   6.281   70.3  0.0469   56.9  0.5012  179.5
 1.200  0.7311  166.1   6.158   69.8  0.0476   56.8  0.5020  178.9
 1.220  0.7312  165.7   6.056   69.4  0.0483   56.7  0.5025  178.4
 1.240  0.7314  165.3   5.955   69.0  0.0490   56.6  0.5030  177.9
 1.260  0.7315  165.0   5.854   68.6  0.0496   56.5  0.5036  177.3
 1.280  0.7318  164.6   5.753   68.2  0.0503   56.4  0.5042  176.8
 1.300  0.7320  164.2   5.652   67.8  0.0510   56.3  0.5049  176.3
 1.320  0.7325  163.8   5.563   67.4  0.0517   56.2  0.5055  175.8
 1.340  0.7330  163.5   5.474   67.1  0.0523   56.1  0.5062  175.3
 1.360  0.7335  163.1   5.386   66.7  0.0530   56.1  0.5068  174.9
 1.380  0.7340  162.8   5.298   66.3  0.0536   56.0  0.5075  174.4
 1.400  0.7346  162.4   5.210   65.9  0.0543   55.9  0.5083  173.9
 1.420  0.7351  162.0   5.136   65.5  0.0550   55.8  0.5089  173.4
 1.440  0.7356  161.7   5.061   65.2  0.0556   55.6  0.5096  172.9
 1.460  0.7361  161.3   4.987   64.8  0.0563   55.5  0.5103  172.5
 1.480  0.7366  161.0   4.914   64.4  0.0569   55.3  0.5110  172.0
 1.500  0.7372  160.6   4.840   64.0  0.0576   55.2  0.5118  171.5
 1.520  0.7375  160.3   4.774   63.7  0.0583   55.0  0.5124  171.1
 1.540  0.7378  159.9   4.709   63.3  0.0589   54.9  0.5130  170.6
 1.560  0.7382  159.6   4.644   63.0  0.0596   54.7  0.5137  170.2
 1.580  0.7386  159.2   4.579   62.6  0.0602   54.6  0.5144  169.7
 1.600  0.7390  158.9   4.514   62.2  0.0609   54.4  0.5151  169.3
 1.620  0.7393  158.6   4.457   61.9  0.0616   54.2  0.5157  168.9
 1.640  0.7396  158.2   4.400   61.5  0.0622   54.1  0.5163  168.4
 1.660  0.7400  157.9   4.343   61.1  0.0629   53.9  0.5170  168.0
 1.680  0.7404  157.5   4.286   60.8  0.0635   53.8  0.5177  167.5
 1.700  0.7408  157.2   4.230   60.4  0.0642   53.6  0.5184  167.1
 1.720  0.7410  156.9   4.178   60.0  0.0649   53.4  0.5189  166.7
 1.740  0.7413  156.6   4.125   59.7  0.0655   53.2  0.5194  166.3
 1.760  0.7416  156.2   4.073   59.3  0.0662   53.0  0.5200  165.9
 1.780  0.7419  155.9   4.022   58.9  0.0668   52.9  0.5206  165.5
 1.800  0.7422  155.6   3.970   58.5  0.0675   52.7  0.5212  165.1
 1.820  0.7426  155.3   3.924   58.2  0.0681   52.5  0.5219  164.7
 1.840  0.7430  155.0   3.879   57.8  0.0688   52.4  0.5226  164.3
 1.860  0.7434  154.6   3.833   57.5  0.0694   52.2  0.5234  163.9
 1.880  0.7438  154.3   3.788   57.2  0.0701   52.1  0.5242  163.5
 1.900  0.7443  154.0   3.743   56.8  0.0707   51.9  0.5250  163.1
 1.920  0.7446  153.7   3.703   56.5  0.0713   51.7  0.5255  162.7
 1.940  0.7449  153.3   3.663   56.1  0.0720   51.4  0.5260  162.3
 1.960  0.7452  153.0   3.623   55.8  0.0726   51.2  0.5266  161.9
 1.980  0.7456  152.6   3.583   55.5  0.0733   51.0  0.5272  161.5
 2.000  0.7460  152.3   3.543   55.1  0.0739   50.8  0.5278  161.1
 2.020  0.7460  152.0   3.507   54.8  0.0745   50.6  0.5283  160.7
 2.040  0.7460  151.6   3.471   54.5  0.0751   50.4  0.5288  160.3
 2.060  0.7460  151.3   3.436   54.1  0.0757   50.2  0.5294  159.9
 2.080  0.7461  151.0   3.400   53.8  0.0763   50.0  0.5299  159.5
 2.100  0.7461  150.6   3.365   53.4  0.0769   49.8  0.5305  159.1
 2.120  0.7462  150.3   3.330   53.1  0.0775   49.6  0.5312  158.7
 2.140  0.7464  150.0   3.295   52.7  0.0782   49.4  0.5318  158.4
 2.160  0.7465  149.7   3.260   52.4  0.0788   49.2  0.5325  158.0
 2.180  0.7467  149.3   3.225   52.0  0.0794   49.0  0.5332  157.6
 2.200  0.7469  149.0   3.190   51.6  0.0800   48.8  0.5339  157.2
 2.220  0.7471  148.7   3.161   51.3  0.0806   48.6  0.5345  156.8
 2.240  0.7474  148.4   3.132   51.0  0.0812   48.4  0.5351  156.4
 2.260  0.7477  148.1   3.103   50.7  0.0818   48.1  0.5357  156.1
 2.280  0.7480  147.8   3.074   50.4  0.0824   47.9  0.5363  155.7
 2.300  0.7483  147.4   3.045   50.1  0.0830   47.7  0.5370  155.3
 2.320  0.7486  147.1   3.016   49.8  0.0836   47.5  0.5376  154.9
 2.340  0.7490  146.8   2.987   49.4  0.0843   47.3  0.5383  154.5
 2.360  0.7494  146.5   2.959   49.1  0.0849   47.1  0.5391  154.2
 2.380  0.7498  146.2   2.930   48.7  0.0855   46.9  0.5398  153.8
 2.400  0.7502  145.9   2.902   48.4  0.0861   46.7  0.5406  153.4
 2.420  0.7502  145.6   2.877   48.1  0.0867   46.5  0.5412  153.0
 2.440  0.7502  145.3   2.852   47.8  0.0873   46.3  0.5418  152.7
 2.460  0.7502  145.0   2.827   47.5  0.0878   46.0  0.5425  152.3
 2.480  0.7502  144.7   2.802   47.1  0.0884   45.8  0.5431  151.9
 2.500  0.7503  144.4   2.777   46.8  0.0890   45.6  0.5438  151.5
 2.520  0.7504  144.2   2.753   46.5  0.0896   45.4  0.5445  151.2
 2.540  0.7505  143.9   2.728   46.2  0.0901   45.2  0.5453  150.8
 2.560  0.7506  143.6   2.704   45.8  0.0907   45.0  0.5460  150.4
 2.580  0.7507  143.3   2.679   45.5  0.0913   44.8  0.5468  150.1
 2.600  0.7509  143.0   2.655   45.1  0.0919   44.6  0.5476  149.7
 2.620  0.7512  142.7   2.634   44.8  0.0925   44.4  0.5482  149.4
 2.640  0.7516  142.4   2.614   44.5  0.0930   44.1  0.5489  149.0
 2.660  0.7519  142.1   2.594   44.2  0.0936   43.9  0.5495  148.7
 2.680  0.7523  141.8   2.573   43.9  0.0942   43.7  0.5502  148.3
 2.700  0.7527  141.5   2.553   43.6  0.0948   43.5  0.5509  148.0
 2.720  0.7532  141.2   2.533   43.3  0.0954   43.2  0.5516  147.6
 2.740  0.7536  140.9   2.513   43.0  0.0959   43.0  0.5524  147.3
 2.760  0.7541  140.6   2.493   42.7  0.0965   42.8  0.5531  147.0
 2.780  0.7546  140.3   2.473   42.3  0.0971   42.6  0.5539  146.6
 2.800  0.7551  140.0   2.453   42.0  0.0977   42.4  0.5547  146.3
 2.820  0.7553  139.7   2.435   41.7  0.0983   42.2  0.5553  146.0
 2.840  0.7556  139.4   2.417   41.4  0.0988   41.9  0.5559  145.6
 2.860  0.7559  139.1   2.399   41.1  0.0994   41.7  0.5565  145.3
 2.880  0.7562  138.8   2.381   40.7  0.0999   41.4  0.5572  145.0
 2.900  0.7565  138.5   2.363   40.4  0.1005   41.2  0.5578  144.6
 2.920  0.7568  138.3   2.345   40.1  0.1010   41.0  0.5585  144.3
 2.940  0.7572  138.0   2.328   39.7  0.1016   40.8  0.5592  144.0
 2.960  0.7576  137.7   2.310   39.4  0.1022   40.5  0.5599  143.7
 2.980  0.7580  137.4   2.292   39.1  0.1027   40.3  0.5606  143.3
 3.000  0.7584  137.1   2.275   38.7  0.1033   40.1  0.5614  143.0
 3.100  0.7598  135.6   2.199   37.3  0.1057   38.8  0.5642  141.5
 3.200  0.7618  134.1   2.124   35.9  0.1082   37.5  0.5674  140.0
 3.300  0.7643  132.6   2.051   34.3  0.1107   36.3  0.5709  138.6
 3.400  0.7673  131.1   1.979   32.6  0.1132   35.2  0.5748  137.1
 3.500  0.7708  129.6   1.909   30.8  0.1158   34.1  0.5791  135.7
 3.600  0.7728  128.3   1.851   29.5  0.1179   32.9  0.5825  134.4
 3.700  0.7752  126.9   1.794   28.2  0.1200   31.8  0.5861  133.1
 3.800  0.7780  125.6   1.739   26.7  0.1221   30.7  0.5901  131.8
 3.900  0.7812  124.3   1.684   25.2  0.1244   29.6  0.5944  130.5
 4.000  0.7848  123.0   1.631   23.5  0.1266   28.6  0.5989  129.3
 4.100  0.7866  121.9   1.587   22.3  0.1284   27.5  0.6022  128.1
 4.200  0.7888  120.8   1.544   21.1  0.1303   26.5  0.6058  126.9
 4.300  0.7912  119.7   1.501   19.8  0.1322   25.5  0.6096  125.7
 4.400  0.7939  118.6   1.460   18.4  0.1342   24.5  0.6137  124.5
 4.500  0.7969  117.5   1.419   16.9  0.1362   23.6  0.6181  123.4
 4.600  0.7976  116.5   1.386   15.7  0.1381   22.6  0.6206  122.3
 4.700  0.7986  115.4   1.353   14.5  0.1401   21.6  0.6234  121.2
 4.800  0.7999  114.4   1.322   13.2  0.1421   20.6  0.6264  120.1
 4.900  0.8014  113.3   1.290   11.9  0.1441   19.6  0.6296  119.0
 5.000  0.8032  112.3   1.260   10.5  0.1462   18.7  0.6331  117.9
 5.100  0.8027  111.3   1.233    9.4  0.1479   17.6  0.6346  116.8
 5.200  0.8025  110.2   1.207    8.2  0.1497   16.6  0.6363  115.7
 5.300  0.8025  109.2   1.182    7.0  0.1515   15.6  0.6382  114.6
 5.400  0.8028  108.1   1.156    5.7  0.1534   14.6  0.6404  113.5
 5.500  0.8034  107.1   1.132    4.4  0.1553   13.6  0.6428  112.4
 5.600  0.8034  106.3   1.112    3.3  0.1571   12.6  0.6440  111.2
 5.700  0.8035  105.4   1.092    2.2  0.1589   11.7  0.6454  110.1
 5.800  0.8038  104.6   1.072    1.0  0.1608   10.7  0.6471  109.0
 5.900  0.8043  103.7   1.053   -0.2  0.1627    9.8  0.6491  107.8
 6.000  0.8049  102.9   1.035   -1.5  0.1646    8.9  0.6513  106.7
 6.100  0.8061  102.1   1.019   -2.7  0.1663    7.8  0.6528  105.7
 6.200  0.8074  101.2   1.004   -3.9  0.1680    6.7  0.6546  104.6
 6.300  0.8089  100.4   0.990   -5.2  0.1698    5.7  0.6565  103.6
 6.400  0.8106   99.5   0.976   -6.5  0.1716    4.6  0.6586  102.6
 6.500  0.8124   98.7   0.962   -7.8  0.1735    3.6  0.6610  101.6
 6.600  0.8137   97.7   0.948   -9.1  0.1751    2.4  0.6625  100.7
 6.800  0.8171   95.7   0.920  -11.8  0.1784    0.2  0.6659   98.9
 7.000  0.8215   93.7   0.895  -14.6  0.1820   -2.0  0.6699   97.2
 7.200  0.8241   91.4   0.867  -17.2  0.1843   -4.4  0.6740   95.3
 7.400  0.8279   89.2   0.841  -20.0  0.1870   -6.8  0.6790   93.3
 7.600  0.8308   86.9   0.815  -22.6  0.1890   -9.2  0.6854   91.1
 7.800  0.8329   84.5   0.788  -25.1  0.1906  -11.5  0.6937   88.6
 8.000  0.8365   82.1   0.762  -27.8  0.1924  -13.8  0.7033   86.2
 8.200  0.8390   79.6   0.735  -30.1  0.1924  -16.1  0.7120   83.5
 8.400  0.8431   77.1   0.710  -32.7  0.1926  -18.4  0.7221   81.0
 8.600  0.8467   74.7   0.686  -35.0  0.1923  -20.7  0.7304   78.5
 8.800  0.8497   72.3   0.661  -37.2  0.1912  -22.8  0.7368   76.1
 9.000  0.8542   70.0   0.638  -39.5  0.1904  -25.0  0.7444   73.7
 9.200  0.8582   68.2   0.614  -41.2  0.1887  -26.6  0.7500   71.8
 9.400  0.8630   66.4   0.590  -43.0  0.1870  -28.2  0.7565   69.9
 9.600  0.8684   65.0   0.570  -44.6  0.1856  -29.6  0.7655   68.3
 9.800  0.8739   63.9   0.553  -45.9  0.1843  -30.9  0.7768   67.1
10.000  0.8797   62.9   0.537  -47.3  0.1830  -32.2  0.7885   65.8
10.200  0.8819   62.4   0.524  -48.1  0.1825  -32.8  0.7928   65.8
10.400  0.8841   61.9   0.511  -49.0  0.1821  -33.3  0.7971   65.8
10.600  0.8851   61.4   0.501  -49.9  0.1822  -33.9  0.7989   66.0
10.800  0.8847   61.0   0.496  -50.7  0.1830  -34.6  0.7981   66.4
11.000  0.8843   60.6   0.490  -51.6  0.1837  -35.3  0.7974   66.8
11.200  0.8800   59.9   0.485  -53.0  0.1896  -35.4  0.7855   66.2
11.400  0.8758   59.2   0.481  -54.5  0.1955  -35.5  0.7738   65.6
11.600  0.8709   58.6   0.479  -55.9  0.2009  -36.7  0.7680   64.7
11.800  0.8652   57.9   0.481  -57.4  0.2060  -38.9  0.7684   63.5
12.000  0.8596   57.2   0.482  -58.8  0.2113  -41.0  0.7691   62.3
!
!  f       NFmin   Gammaopt  rn/50
! GHz       dB    MAG  ANG    -
 0.450      1.81  0.59 -172   0.06
 0.900      1.85  0.61 -167   0.07
 1.900      1.95  0.64 -151   0.13
 2.400      2.04  0.64 -142   0.18
!
! (c) 2015  Infineon Technologies AG, Munich
