! Infineon Technologies  Discrete & RF Semiconductors
! BFP420
! VCE =  4.5 V,  IC =  20 mA
! Common Emitter S-Parameters:                            Jan 2016
# GHz  S  MA  R  50
!  f         S11            S21            S12            S22
! GHz     MAG   ANG      MAG   ANG      MAG   ANG      MAG   ANG
 0.010  0.4829   -0.5  40.642  178.4  0.0023   29.2  0.8808    2.2
 0.015  0.4863   -2.3  39.973  177.2  0.0024   29.5  0.8876    0.3
 0.020  0.4901   -4.1  39.322  176.0  0.0026   29.8  0.8954   -1.6
 0.025  0.4894   -5.4  39.220  175.3  0.0028   34.8  0.8955   -2.2
 0.030  0.4889   -6.6  39.123  174.5  0.0030   39.1  0.8957   -2.8
 0.035  0.4887   -7.9  39.034  173.8  0.0032   42.9  0.8960   -3.5
 0.040  0.4887   -9.2  38.950  173.1  0.0034   46.2  0.8964   -4.1
 0.045  0.4890  -10.4  38.873  172.3  0.0037   49.1  0.8969   -4.7
 0.050  0.4895  -11.7  38.803  171.6  0.0039   51.6  0.8975   -5.3
 0.055  0.4884  -13.0  38.695  170.9  0.0042   53.4  0.8958   -5.9
 0.060  0.4875  -14.3  38.594  170.1  0.0045   54.9  0.8941   -6.5
 0.065  0.4869  -15.6  38.498  169.4  0.0047   56.3  0.8926   -7.1
 0.070  0.4865  -16.9  38.409  168.7  0.0050   57.5  0.8912   -7.7
 0.075  0.4864  -18.2  38.326  167.9  0.0053   58.6  0.8898   -8.3
 0.080  0.4865  -19.5  38.250  167.2  0.0056   59.6  0.8886   -8.9
 0.085  0.4869  -20.8  38.180  166.5  0.0059   60.4  0.8875   -9.6
 0.090  0.4876  -22.1  38.117  165.7  0.0062   61.2  0.8864  -10.2
 0.095  0.4885  -23.4  38.060  165.0  0.0065   61.9  0.8855  -10.8
 0.100  0.4896  -24.7  38.010  164.2  0.0068   62.6  0.8847  -11.4
 0.105  0.4881  -25.9  37.851  163.5  0.0071   62.9  0.8819  -12.0
 0.110  0.4868  -27.0  37.697  162.8  0.0074   63.1  0.8791  -12.5
 0.115  0.4857  -28.2  37.549  162.1  0.0077   63.3  0.8764  -13.1
 0.120  0.4848  -29.4  37.407  161.4  0.0080   63.5  0.8739  -13.6
 0.125  0.4841  -30.6  37.270  160.7  0.0082   63.7  0.8714  -14.2
 0.130  0.4836  -31.7  37.139  160.0  0.0085   63.9  0.8690  -14.8
 0.135  0.4833  -32.9  37.014  159.3  0.0088   64.1  0.8666  -15.4
 0.140  0.4832  -34.1  36.895  158.6  0.0091   64.2  0.8644  -15.9
 0.145  0.4834  -35.3  36.781  157.8  0.0094   64.4  0.8623  -16.5
 0.150  0.4837  -36.5  36.674  157.1  0.0097   64.5  0.8602  -17.1
 0.155  0.4822  -37.6  36.497  156.5  0.0100   64.4  0.8567  -17.6
 0.160  0.4808  -38.7  36.324  155.8  0.0102   64.3  0.8534  -18.1
 0.165  0.4797  -39.8  36.156  155.2  0.0105   64.2  0.8500  -18.6
 0.170  0.4787  -40.9  35.992  154.6  0.0108   64.1  0.8468  -19.1
 0.175  0.4778  -42.0  35.832  153.9  0.0110   64.1  0.8436  -19.6
 0.180  0.4772  -43.1  35.678  153.3  0.0113   64.0  0.8404  -20.1
 0.185  0.4768  -44.2  35.528  152.6  0.0116   63.9  0.8374  -20.6
 0.190  0.4765  -45.4  35.382  151.9  0.0119   63.8  0.8344  -21.1
 0.195  0.4764  -46.5  35.242  151.3  0.0121   63.8  0.8315  -21.7
 0.200  0.4765  -47.6  35.106  150.6  0.0124   63.7  0.8286  -22.2
 0.220  0.4701  -51.9  34.321  148.2  0.0134   63.1  0.8139  -24.0
 0.240  0.4664  -56.2  33.600  145.6  0.0143   62.5  0.7999  -25.8
 0.260  0.4626  -60.3  32.895  143.2  0.0152   62.0  0.7854  -27.6
 0.280  0.4584  -64.2  32.188  141.0  0.0161   61.4  0.7701  -29.3
 0.300  0.4563  -68.2  31.532  138.7  0.0170   60.9  0.7555  -31.1
 0.320  0.4515  -71.8  30.786  136.7  0.0178   60.3  0.7403  -32.5
 0.340  0.4484  -75.5  30.079  134.7  0.0185   59.7  0.7255  -34.0
 0.360  0.4456  -78.9  29.376  132.7  0.0193   59.1  0.7109  -35.4
 0.380  0.4425  -82.2  28.670  130.8  0.0200   58.5  0.6964  -36.7
 0.400  0.4410  -85.5  27.996  128.9  0.0207   58.0  0.6823  -38.0
 0.420  0.4375  -88.6  27.313  127.2  0.0213   57.5  0.6682  -39.2
 0.440  0.4352  -91.6  26.655  125.5  0.0220   57.1  0.6545  -40.4
 0.450  0.4346  -93.2  26.335  124.6  0.0223   56.9  0.6477  -41.0
 0.460  0.4329  -94.6  26.014  123.9  0.0226   56.7  0.6411  -41.5
 0.480  0.4302  -97.4  25.385  122.3  0.0232   56.3  0.6280  -42.6
 0.500  0.4286 -100.2  24.775  120.7  0.0238   56.0  0.6152  -43.7
 0.520  0.4253 -102.6  24.198  119.5  0.0243   55.7  0.6035  -44.5
 0.540  0.4229 -105.1  23.632  118.2  0.0248   55.4  0.5919  -45.4
 0.560  0.4212 -107.5  23.079  116.8  0.0254   55.1  0.5804  -46.3
 0.580  0.4202 -110.0  22.540  115.4  0.0259   54.9  0.5691  -47.2
 0.600  0.4201 -112.5  22.015  113.9  0.0264   54.6  0.5579  -48.2
 0.620  0.4180 -114.6  21.530  112.9  0.0269   54.4  0.5480  -48.9
 0.640  0.4164 -116.7  21.053  111.8  0.0274   54.3  0.5381  -49.6
 0.660  0.4154 -118.8  20.584  110.6  0.0278   54.1  0.5283  -50.3
 0.680  0.4150 -120.9  20.123  109.4  0.0283   53.9  0.5186  -51.0
 0.700  0.4151 -123.0  19.671  108.2  0.0288   53.8  0.5090  -51.8
 0.720  0.4136 -124.7  19.261  107.3  0.0293   53.7  0.5006  -52.4
 0.740  0.4125 -126.5  18.856  106.3  0.0297   53.6  0.4923  -53.0
 0.760  0.4117 -128.3  18.456  105.3  0.0302   53.6  0.4841  -53.7
 0.780  0.4114 -130.0  18.062  104.3  0.0306   53.5  0.4759  -54.3
 0.800  0.4114 -131.8  17.675  103.2  0.0311   53.4  0.4678  -55.0
 0.820  0.4105 -133.3  17.336  102.4  0.0315   53.3  0.4607  -55.5
 0.840  0.4100 -134.9  17.000  101.5  0.0319   53.2  0.4536  -56.1
 0.860  0.4097 -136.4  16.668  100.7  0.0324   53.2  0.4466  -56.6
 0.880  0.4098 -138.0  16.340   99.8  0.0328   53.1  0.4396  -57.2
 0.900  0.4101 -139.5  16.016   98.8  0.0332   53.0  0.4326  -57.8
 0.920  0.4098 -140.9  15.726   98.1  0.0336   53.0  0.4264  -58.3
 0.940  0.4097 -142.3  15.439   97.3  0.0341   53.0  0.4202  -58.8
 0.960  0.4099 -143.6  15.154   96.5  0.0345   52.9  0.4140  -59.4
 0.980  0.4103 -145.0  14.873   95.7  0.0350   52.9  0.4079  -59.9
 1.000  0.4109 -146.4  14.594   94.9  0.0354   52.9  0.4018  -60.5
 1.020  0.4106 -147.6  14.345   94.3  0.0358   52.9  0.3965  -60.9
 1.040  0.4105 -148.7  14.098   93.6  0.0363   52.9  0.3913  -61.3
 1.060  0.4106 -149.9  13.853   92.9  0.0367   52.8  0.3860  -61.8
 1.080  0.4108 -151.0  13.610   92.2  0.0372   52.8  0.3808  -62.2
 1.100  0.4112 -152.2  13.369   91.5  0.0376   52.8  0.3756  -62.7
 1.120  0.4114 -153.3  13.155   90.9  0.0380   52.8  0.3707  -63.2
 1.140  0.4117 -154.4  12.943   90.2  0.0385   52.8  0.3658  -63.7
 1.160  0.4121 -155.4  12.733   89.6  0.0389   52.7  0.3609  -64.2
 1.180  0.4127 -156.5  12.524   88.9  0.0394   52.7  0.3561  -64.7
 1.200  0.4135 -157.6  12.317   88.2  0.0398   52.7  0.3513  -65.2
 1.220  0.4136 -158.6  12.132   87.7  0.0402   52.7  0.3472  -65.6
 1.240  0.4138 -159.5  11.949   87.1  0.0407   52.7  0.3430  -66.0
 1.260  0.4141 -160.5  11.767   86.5  0.0411   52.6  0.3389  -66.5
 1.280  0.4145 -161.4  11.586   85.9  0.0416   52.6  0.3349  -66.9
 1.300  0.4151 -162.4  11.406   85.3  0.0420   52.6  0.3308  -67.4
 1.320  0.4155 -163.3  11.244   84.8  0.0424   52.6  0.3270  -67.8
 1.340  0.4160 -164.2  11.082   84.2  0.0429   52.5  0.3232  -68.3
 1.360  0.4166 -165.2  10.922   83.7  0.0433   52.5  0.3194  -68.7
 1.380  0.4174 -166.1  10.763   83.1  0.0438   52.4  0.3156  -69.2
 1.400  0.4182 -167.0  10.605   82.5  0.0442   52.4  0.3119  -69.7
 1.420  0.4183 -167.8  10.464   82.0  0.0447   52.4  0.3084  -70.1
 1.440  0.4184 -168.6  10.325   81.5  0.0451   52.3  0.3049  -70.5
 1.460  0.4187 -169.4  10.186   81.0  0.0456   52.3  0.3014  -70.9
 1.480  0.4190 -170.2  10.047   80.5  0.0460   52.2  0.2979  -71.4
 1.500  0.4194 -171.0   9.910   80.0  0.0465   52.2  0.2945  -71.8
 1.520  0.4199 -171.7   9.784   79.5  0.0469   52.1  0.2914  -72.2
 1.540  0.4205 -172.4   9.658   79.0  0.0474   52.1  0.2884  -72.6
 1.560  0.4211 -173.2   9.533   78.5  0.0478   52.0  0.2854  -73.0
 1.580  0.4218 -173.9   9.409   78.0  0.0483   52.0  0.2824  -73.5
 1.600  0.4226 -174.6   9.285   77.5  0.0487   51.9  0.2794  -73.9
 1.620  0.4230 -175.4   9.174   77.1  0.0492   51.8  0.2764  -74.3
 1.640  0.4234 -176.1   9.063   76.6  0.0496   51.8  0.2735  -74.8
 1.660  0.4239 -176.9   8.953   76.2  0.0501   51.7  0.2705  -75.2
 1.680  0.4245 -177.6   8.844   75.7  0.0505   51.7  0.2676  -75.6
 1.700  0.4252 -178.4   8.735   75.2  0.0510   51.6  0.2647  -76.1
 1.720  0.4254 -179.0   8.633   74.8  0.0515   51.5  0.2621  -76.5
 1.740  0.4257 -179.6   8.531   74.4  0.0519   51.4  0.2595  -76.8
 1.760  0.4260  179.7   8.430   73.9  0.0524   51.4  0.2570  -77.2
 1.780  0.4263  179.1   8.329   73.5  0.0528   51.3  0.2544  -77.6
 1.800  0.4267  178.5   8.229   73.0  0.0533   51.2  0.2519  -78.0
 1.820  0.4274  177.8   8.138   72.6  0.0538   51.1  0.2492  -78.5
 1.840  0.4282  177.1   8.047   72.2  0.0542   51.0  0.2465  -79.0
 1.860  0.4291  176.5   7.957   71.8  0.0547   51.0  0.2439  -79.5
 1.880  0.4300  175.8   7.867   71.3  0.0551   50.9  0.2412  -80.1
 1.900  0.4310  175.1   7.778   70.9  0.0556   50.8  0.2386  -80.6
 1.920  0.4310  174.5   7.697   70.5  0.0561   50.7  0.2363  -80.9
 1.940  0.4309  173.9   7.616   70.1  0.0565   50.6  0.2341  -81.3
 1.960  0.4310  173.4   7.536   69.7  0.0570   50.5  0.2319  -81.7
 1.980  0.4311  172.8   7.456   69.3  0.0574   50.4  0.2296  -82.0
 2.000  0.4312  172.2   7.377   68.9  0.0579   50.3  0.2274  -82.4
 2.020  0.4316  171.6   7.306   68.5  0.0584   50.2  0.2251  -82.8
 2.040  0.4320  171.0   7.235   68.2  0.0588   50.1  0.2229  -83.3
 2.060  0.4324  170.4   7.164   67.8  0.0593   50.0  0.2206  -83.8
 2.080  0.4329  169.8   7.094   67.4  0.0597   49.9  0.2184  -84.2
 2.100  0.4335  169.2   7.024   67.0  0.0602   49.8  0.2162  -84.7
 2.120  0.4341  168.6   6.954   66.6  0.0607   49.7  0.2139  -85.2
 2.140  0.4348  168.0   6.885   66.2  0.0611   49.6  0.2118  -85.7
 2.160  0.4355  167.4   6.816   65.8  0.0616   49.5  0.2096  -86.2
 2.180  0.4362  166.8   6.747   65.3  0.0620   49.4  0.2074  -86.8
 2.200  0.4370  166.2   6.679   64.9  0.0625   49.3  0.2053  -87.3
 2.220  0.4376  165.6   6.619   64.6  0.0630   49.2  0.2032  -87.8
 2.240  0.4382  165.1   6.560   64.2  0.0634   49.0  0.2011  -88.3
 2.260  0.4388  164.5   6.500   63.9  0.0639   48.9  0.1991  -88.8
 2.280  0.4395  164.0   6.441   63.5  0.0643   48.7  0.1970  -89.4
 2.300  0.4402  163.4   6.382   63.1  0.0648   48.6  0.1950  -89.9
 2.320  0.4410  162.9   6.324   62.8  0.0653   48.4  0.1930  -90.5
 2.340  0.4418  162.3   6.265   62.4  0.0657   48.3  0.1910  -91.0
 2.360  0.4427  161.8   6.207   62.0  0.0662   48.2  0.1890  -91.6
 2.380  0.4436  161.2   6.149   61.6  0.0666   48.0  0.1870  -92.2
 2.400  0.4445  160.7   6.092   61.2  0.0671   47.9  0.1851  -92.8
 2.420  0.4455  160.2   6.041   60.9  0.0675   47.8  0.1832  -93.4
 2.440  0.4465  159.7   5.990   60.5  0.0680   47.6  0.1813  -94.0
 2.460  0.4475  159.1   5.940   60.2  0.0684   47.5  0.1795  -94.6
 2.480  0.4486  158.6   5.890   59.8  0.0689   47.4  0.1776  -95.2
 2.500  0.4498  158.1   5.840   59.5  0.0693   47.2  0.1758  -95.8
 2.520  0.4509  157.6   5.790   59.1  0.0697   47.1  0.1740  -96.4
 2.540  0.4521  157.1   5.740   58.7  0.0702   47.0  0.1722  -97.1
 2.560  0.4533  156.6   5.691   58.4  0.0706   46.8  0.1704  -97.7
 2.580  0.4546  156.1   5.642   58.0  0.0711   46.7  0.1687  -98.4
 2.600  0.4559  155.6   5.593   57.6  0.0715   46.6  0.1670  -99.1
 2.620  0.4567  155.1   5.549   57.3  0.0719   46.5  0.1653  -99.7
 2.640  0.4574  154.7   5.505   57.0  0.0724   46.3  0.1637 -100.3
 2.660  0.4582  154.2   5.462   56.6  0.0728   46.2  0.1620 -101.0
 2.680  0.4591  153.8   5.418   56.3  0.0733   46.0  0.1604 -101.6
 2.700  0.4599  153.3   5.375   56.0  0.0737   45.9  0.1588 -102.3
 2.720  0.4608  152.9   5.332   55.6  0.0742   45.7  0.1572 -103.0
 2.740  0.4618  152.4   5.289   55.3  0.0746   45.6  0.1556 -103.6
 2.760  0.4627  152.0   5.247   54.9  0.0751   45.5  0.1541 -104.4
 2.780  0.4637  151.5   5.204   54.6  0.0755   45.3  0.1526 -105.1
 2.800  0.4647  151.1   5.162   54.2  0.0760   45.2  0.1511 -105.8
 2.820  0.4657  150.7   5.124   53.9  0.0764   45.0  0.1496 -106.5
 2.840  0.4667  150.2   5.087   53.6  0.0769   44.9  0.1482 -107.2
 2.860  0.4677  149.8   5.050   53.3  0.0773   44.7  0.1467 -107.9
 2.880  0.4687  149.3   5.013   52.9  0.0778   44.6  0.1453 -108.6
 2.900  0.4698  148.9   4.976   52.6  0.0782   44.4  0.1440 -109.3
 2.920  0.4709  148.4   4.939   52.3  0.0787   44.3  0.1426 -110.1
 2.940  0.4720  148.0   4.903   51.9  0.0791   44.1  0.1413 -110.8
 2.960  0.4732  147.6   4.866   51.6  0.0796   44.0  0.1399 -111.6
 2.980  0.4744  147.1   4.830   51.3  0.0800   43.8  0.1387 -112.4
 3.000  0.4756  146.7   4.794   50.9  0.0805   43.7  0.1374 -113.2
 3.100  0.4807  144.5   4.638   49.5  0.0826   42.8  0.1311 -117.3
 3.200  0.4864  142.4   4.486   48.0  0.0847   41.9  0.1256 -121.9
 3.300  0.4928  140.4   4.336   46.4  0.0869   41.1  0.1210 -126.8
 3.400  0.4998  138.4   4.191   44.6  0.0890   40.3  0.1173 -132.0
 3.500  0.5074  136.4   4.049   42.8  0.0912   39.6  0.1146 -137.6
 3.600  0.5125  134.5   3.932   41.4  0.0933   38.7  0.1123 -142.7
 3.700  0.5182  132.7   3.817   40.0  0.0953   37.8  0.1109 -148.0
 3.800  0.5244  130.9   3.705   38.5  0.0974   36.9  0.1104 -153.3
 3.900  0.5311  129.1   3.595   36.8  0.0996   36.1  0.1109 -158.6
 4.000  0.5383  127.4   3.489   35.1  0.1017   35.3  0.1124 -163.9
 4.100  0.5423  125.9   3.395   33.8  0.1035   34.3  0.1139 -168.5
 4.200  0.5467  124.4   3.304   32.4  0.1054   33.4  0.1161 -173.0
 4.300  0.5515  123.0   3.214   31.0  0.1073   32.4  0.1189 -177.2
 4.400  0.5566  121.6   3.126   29.4  0.1092   31.6  0.1224  178.7
 4.500  0.5620  120.2   3.041   27.8  0.1112   30.7  0.1265  174.9
 4.600  0.5646  119.0   2.967   26.6  0.1130   29.8  0.1288  171.6
 4.700  0.5674  117.9   2.895   25.4  0.1148   28.9  0.1316  168.5
 4.800  0.5704  116.7   2.824   24.1  0.1166   28.0  0.1347  165.5
 4.900  0.5737  115.6   2.754   22.7  0.1184   27.2  0.1382  162.6
 5.000  0.5772  114.5   2.686   21.3  0.1203   26.4  0.1420  159.9
 5.100  0.5799  113.3   2.628   20.1  0.1219   25.5  0.1452  157.2
 5.200  0.5829  112.1   2.572   18.9  0.1236   24.7  0.1487  154.6
 5.300  0.5862  110.9   2.517   17.6  0.1253   23.8  0.1525  152.2
 5.400  0.5897  109.7   2.463   16.3  0.1270   23.0  0.1566  149.8
 5.500  0.5934  108.5   2.410   14.9  0.1287   22.2  0.1609  147.6
 5.600  0.5972  107.3   2.364   13.7  0.1303   21.3  0.1648  145.3
 5.700  0.6012  106.2   2.319   12.5  0.1320   20.5  0.1689  143.1
 5.800  0.6054  105.0   2.275   11.3  0.1337   19.6  0.1733  141.0
 5.900  0.6099  103.9   2.233   10.0  0.1354   18.8  0.1779  139.0
 6.000  0.6146  102.8   2.191    8.6  0.1371   18.0  0.1827  137.1
 6.100  0.6187  101.7   2.153    7.4  0.1388   17.0  0.1865  135.1
 6.200  0.6230  100.6   2.115    6.1  0.1405   16.1  0.1905  133.2
 6.300  0.6276   99.6   2.079    4.8  0.1422   15.2  0.1947  131.4
 6.400  0.6323   98.5   2.044    3.4  0.1440   14.3  0.1991  129.7
 6.500  0.6373   97.5   2.010    2.0  0.1458   13.4  0.2037  128.0
 6.600  0.6404   96.4   1.978    0.7  0.1476   12.4  0.2065  126.2
 6.800  0.6471   94.3   1.916   -1.9  0.1512   10.6  0.2127  122.7
 7.000  0.6548   92.2   1.858   -4.7  0.1550    8.8  0.2197  119.4
 7.200  0.6587   89.9   1.801   -7.3  0.1583    6.6  0.2280  116.2
 7.400  0.6636   87.7   1.748  -10.1  0.1618    4.4  0.2370  113.3
 7.600  0.6688   85.3   1.692  -12.8  0.1646    2.2  0.2471  110.3
 7.800  0.6746   82.7   1.634  -15.7  0.1667   -0.2  0.2586  107.3
 8.000  0.6818   80.2   1.580  -18.7  0.1691   -2.6  0.2707  104.5
 8.200  0.6888   77.4   1.520  -21.1  0.1693   -4.7  0.2848  100.9
 8.400  0.6973   74.7   1.463  -23.7  0.1698   -6.8  0.2999   97.7
 8.600  0.7088   72.1   1.411  -26.1  0.1702   -8.7  0.3176   94.6
 8.800  0.7229   69.7   1.362  -28.3  0.1704  -10.3  0.3379   91.7
 9.000  0.7384   67.3   1.315  -30.7  0.1707  -11.9  0.3590   89.2
 9.200  0.7596   65.4   1.277  -32.7  0.1713  -13.3  0.3828   87.3
 9.400  0.7816   63.6   1.241  -34.9  0.1720  -14.7  0.4070   85.6
 9.600  0.8011   62.1   1.201  -37.0  0.1728  -16.1  0.4295   84.1
 9.800  0.8179   60.8   1.155  -39.2  0.1736  -17.6  0.4504   82.7
10.000  0.8352   59.6   1.111  -41.5  0.1746  -19.1  0.4715   81.5
!
!  f       NFmin   Gammaopt  rn/50
! GHz       dB    MAG  ANG    -
 0.900      1.23  0.16 -154   0.13
 1.800      1.51  0.24 -144   0.13
 2.400      1.66  0.22 -141   0.15
 3.000      1.69  0.30 -132   0.16
 4.000      1.82  0.42 -115   0.23
 5.000      2.28  0.48  -96   0.37
 6.000      2.65  0.52  -86   0.56
!
! (c) 2016  Infineon Technologies AG, Munich
