! Infineon Technologies  Discrete & RF Semiconductors
! BFP420F
!
! VCE =  2.0 V,  IC =  60 mA
! Common Emitter S-Parameters:                            Sep 2011
# GHz  S  MA  R  50
!  f         S11            S21            S12            S22
! GHz     MAG   ANG      MAG   ANG      MAG   ANG      MAG   ANG
 0.030  0.1516  -21.2  53.481  172.0  0.0023   93.8  0.8835   -3.4
 0.040  0.1520  -27.2  53.167  169.3  0.0029   89.5  0.8856   -5.5
 0.050  0.1494  -32.0  52.246  166.3  0.0034   87.4  0.8841   -7.7
 0.060  0.1599  -39.0  51.949  164.0  0.0040   84.3  0.8798   -9.7
 0.070  0.1655  -44.3  51.270  161.5  0.0046   81.4  0.8728  -11.6
 0.080  0.1691  -48.8  50.235  159.0  0.0052   81.4  0.8654  -13.4
 0.090  0.1706  -54.8  49.464  156.9  0.0057   81.8  0.8567  -15.1
 0.100  0.1750  -59.2  48.794  154.4  0.0063   80.3  0.8467  -16.8
 0.110  0.1838  -62.0  47.551  152.5  0.0068   79.2  0.8360  -18.4
 0.120  0.1873  -68.2  46.824  150.1  0.0073   78.3  0.8251  -19.9
 0.130  0.1907  -71.0  45.667  148.2  0.0079   78.9  0.8132  -21.4
 0.140  0.1976  -74.6  44.711  146.4  0.0084   77.7  0.8015  -22.8
 0.150  0.2038  -78.5  43.857  144.6  0.0090   77.5  0.7896  -24.1
 0.200  0.2318  -93.1  39.441  136.9  0.0113   74.9  0.7321  -30.0
 0.250  0.2528 -105.6  35.409  130.4  0.0134   73.1  0.6763  -34.6
 0.300  0.2755 -114.7  32.168  125.0  0.0156   71.3  0.6281  -38.4
 0.350  0.2907 -122.3  29.169  120.4  0.0175   70.2  0.5831  -41.6
 0.400  0.3045 -128.6  26.595  116.4  0.0192   69.5  0.5451  -44.2
 0.450  0.3155 -134.0  24.459  112.9  0.0209   69.1  0.5115  -46.5
 0.500  0.3228 -138.7  22.490  109.9  0.0225   68.7  0.4801  -48.4
 0.600  0.3393 -146.7  19.324  104.7  0.0256   68.4  0.4284  -51.9
 0.700  0.3503 -152.8  16.947  100.3  0.0288   68.3  0.3889  -54.8
 0.800  0.3595 -157.8  14.974   96.6  0.0318   68.3  0.3548  -57.4
 0.900  0.3655 -161.9  13.361   93.7  0.0349   68.3  0.3261  -59.6
 1.000  0.3738 -165.2  12.092   90.9  0.0380   68.4  0.3019  -62.1
 1.100  0.3783 -168.8  11.019   88.4  0.0411   68.2  0.2805  -64.3
 1.200  0.3815 -171.6  10.039   86.1  0.0442   68.0  0.2629  -66.8
 1.300  0.3857 -174.0   9.277   84.2  0.0472   67.9  0.2469  -68.8
 1.400  0.3921 -176.3   8.626   82.4  0.0503   67.8  0.2330  -71.4
 1.500  0.3939 -179.0   8.018   80.3  0.0534   67.5  0.2194  -73.4
 1.600  0.3956  179.5   7.447   78.8  0.0564   67.1  0.2081  -76.1
 1.700  0.4000  177.7   7.015   77.5  0.0594   66.9  0.1971  -78.5
 1.800  0.4036  176.0   6.639   76.1  0.0626   66.7  0.1887  -81.2
 1.900  0.4067  173.8   6.276   74.2  0.0657   66.2  0.1808  -83.7
 2.000  0.4068  172.5   5.895   73.0  0.0686   65.7  0.1744  -86.6
 2.200  0.4127  169.8   5.373   70.6  0.0746   65.1  0.1648  -91.8
 2.400  0.4122  167.1   4.866   68.0  0.0809   64.0  0.1581  -96.6
 2.600  0.4172  164.6   4.493   65.9  0.0868   63.2  0.1526 -101.2
 2.800  0.4188  162.0   4.166   63.5  0.0931   62.1  0.1497 -105.3
 3.000  0.4217  159.5   3.874   61.4  0.0990   61.1  0.1475 -109.3
 3.500  0.4275  154.1   3.312   56.2  0.1143   58.4  0.1447 -117.5
 4.000  0.4335  148.8   2.896   51.1  0.1295   55.3  0.1423 -124.5
 4.500  0.4400  144.2   2.579   46.2  0.1446   52.2  0.1364 -131.1
 5.000  0.4435  140.0   2.330   41.3  0.1592   48.9  0.1282 -138.2
 5.500  0.4480  135.7   2.125   36.4  0.1735   45.5  0.1173 -146.7
 6.000  0.4554  130.7   1.957   31.6  0.1875   42.1  0.1041 -157.9
 6.500  0.4669  125.4   1.811   26.8  0.2007   38.6  0.0961 -174.0
 7.000  0.4816  120.0   1.682   21.9  0.2137   35.0  0.0909  167.8
 7.500  0.5023  115.8   1.569   17.2  0.2267   31.5  0.0981  148.2
 8.000  0.5259  112.2   1.464   12.5  0.2383   27.6  0.1228  129.3
 8.500  0.5531  108.8   1.366    7.9  0.2474   23.8  0.1636  113.2
 9.000  0.5808  105.7   1.277    3.9  0.2551   20.3  0.2148  102.0
 9.500  0.6080  102.9   1.198    0.3  0.2622   17.2  0.2730   96.0
10.000  0.6382   99.4   1.130   -3.0  0.2695   14.3  0.3346   92.9
!
!  f       NFmin   Gammaopt  rn/50
! GHz       dB    MAG  ANG    -
!
! noise parameter not available yet for this operation point!
!
! (c) 2011  Infineon Technologies AG, Munich
