! Infineon Technologies  Discrete & RF Semiconductors
! BFP420F
!
! VCE =  0.5 V,  IC =  2.0 mA
! Common Emitter S-Parameters:                            Sep 2011
# GHz  S  MA  R  50
!  f         S11            S21            S12            S22
! GHz     MAG   ANG      MAG   ANG      MAG   ANG      MAG   ANG
 0.030  0.9160   -2.8   7.269  177.5  0.0045   89.8  0.9912   -1.9
 0.040  0.9135   -3.8   7.281  176.7  0.0059   89.1  0.9910   -2.6
 0.050  0.9069   -4.6   7.230  175.6  0.0074   85.7  0.9908   -3.2
 0.060  0.9113   -5.9   7.249  175.5  0.0090   87.6  0.9903   -3.8
 0.070  0.9151   -6.8   7.281  174.9  0.0105   86.9  0.9891   -4.4
 0.080  0.9054   -7.5   7.210  173.9  0.0119   86.9  0.9884   -5.0
 0.090  0.9061   -8.4   7.251  173.3  0.0132   85.4  0.9877   -5.7
 0.100  0.9065   -9.3   7.286  172.3  0.0148   84.7  0.9866   -6.3
 0.110  0.9084  -10.2   7.197  171.8  0.0163   84.7  0.9848   -6.9
 0.120  0.9073  -11.2   7.249  170.7  0.0178   83.9  0.9841   -7.5
 0.130  0.9072  -12.1   7.190  170.1  0.0192   83.5  0.9829   -8.2
 0.140  0.9069  -13.0   7.171  169.4  0.0206   82.8  0.9812   -8.8
 0.150  0.9039  -14.1   7.177  168.7  0.0222   82.2  0.9800   -9.4
 0.200  0.9010  -18.7   7.105  165.4  0.0293   79.5  0.9716  -12.5
 0.250  0.8948  -23.2   7.014  161.7  0.0360   76.9  0.9596  -15.4
 0.300  0.8883  -27.8   6.947  158.3  0.0434   74.3  0.9486  -18.5
 0.350  0.8797  -32.2   6.833  155.0  0.0498   71.8  0.9336  -21.3
 0.400  0.8704  -36.5   6.697  151.6  0.0561   69.3  0.9179  -24.1
 0.450  0.8612  -40.7   6.588  148.5  0.0622   66.9  0.9018  -26.8
 0.500  0.8504  -44.8   6.436  145.6  0.0679   64.6  0.8827  -29.4
 0.600  0.8258  -53.1   6.149  139.4  0.0784   60.0  0.8430  -34.4
 0.700  0.8055  -60.8   5.889  134.0  0.0881   55.9  0.8054  -39.2
 0.800  0.7822  -68.2   5.596  128.7  0.0960   52.1  0.7648  -43.4
 0.900  0.7587  -75.2   5.298  124.0  0.1029   48.6  0.7248  -47.4
 1.000  0.7404  -81.8   5.037  119.6  0.1092   45.4  0.6874  -51.2
 1.100  0.7193  -88.0   4.784  115.3  0.1142   42.4  0.6509  -54.7
 1.200  0.7013  -94.1   4.516  111.3  0.1186   39.8  0.6182  -58.0
 1.300  0.6852  -99.5   4.299  107.9  0.1223   37.4  0.5876  -60.9
 1.400  0.6725 -104.9   4.099  104.6  0.1255   35.3  0.5590  -63.8
 1.500  0.6574 -109.9   3.886  100.9  0.1280   33.3  0.5318  -66.4
 1.600  0.6443 -114.8   3.683   98.0  0.1301   31.5  0.5075  -69.1
 1.700  0.6340 -119.0   3.524   95.5  0.1320   29.9  0.4844  -71.5
 1.800  0.6264 -123.1   3.376   92.9  0.1337   28.6  0.4651  -73.9
 1.900  0.6185 -127.3   3.228   89.8  0.1352   27.2  0.4477  -76.1
 2.000  0.6100 -131.1   3.065   87.5  0.1362   25.9  0.4312  -78.5
 2.200  0.6006 -137.7   2.847   83.3  0.1379   23.9  0.4041  -82.7
 2.400  0.5885 -144.0   2.618   78.9  0.1394   22.1  0.3825  -86.6
 2.600  0.5835 -149.4   2.441   75.3  0.1401   20.9  0.3642  -90.2
 2.800  0.5792 -154.6   2.285   71.5  0.1413   19.6  0.3511  -93.7
 3.000  0.5757 -159.5   2.145   68.2  0.1417   18.8  0.3390  -96.9
 3.500  0.5735 -170.3   1.868   60.3  0.1433   17.4  0.3176 -104.2
 4.000  0.5748 -179.9   1.660   53.0  0.1452   16.6  0.3024 -110.7
 4.500  0.5810  171.4   1.498   46.1  0.1478   16.4  0.2887 -116.7
 5.000  0.5851  163.7   1.367   39.7  0.1508   16.5  0.2754 -122.9
 5.500  0.5881  156.2   1.259   33.4  0.1551   16.8  0.2604 -129.4
 6.000  0.5916  148.8   1.169   27.5  0.1606   17.2  0.2437 -137.1
 6.500  0.6002  141.3   1.090   21.8  0.1672   17.5  0.2283 -146.8
 7.000  0.6113  133.6   1.021   16.1  0.1753   17.6  0.2131 -157.4
 7.500  0.6295  127.0   0.960   10.8  0.1858   17.5  0.2050 -170.5
 8.000  0.6480  120.9   0.902    5.4  0.1974   16.4  0.2061  173.3
 8.500  0.6666  115.5   0.844    0.3  0.2078   14.6  0.2212  154.8
 9.000  0.6832  111.0   0.790   -4.1  0.2171   12.9  0.2558  137.6
 9.500  0.7017  107.2   0.742   -8.0  0.2263   11.2  0.3112  124.9
10.000  0.7232  103.3   0.698  -11.3  0.2354    9.5  0.3794  116.2
!
!  f       NFmin   Gammaopt  rn/50
! GHz       dB    MAG  ANG    -
 0.450      0.81  0.49   17   0.26
 0.900      0.87  0.48   36   0.26
 1.900      1.18  0.37   84   0.20
 2.400      1.31  0.38   97   0.20
 3.500      1.73  0.39  136   0.18
!
! (c) 2011  Infineon Technologies AG, Munich
