! Infineon Technologies  Discrete & RF Semiconductors
! BFP420
! VCE =  3.5 V,  IC =  2.5 mA
! Common Emitter S-Parameters:                            Jan 2016
# GHz  S  MA  R  50
!  f         S11            S21            S12            S22
! GHz     MAG   ANG      MAG   ANG      MAG   ANG      MAG   ANG
 0.010  0.9159   -1.6   8.690  179.2  0.0010   87.0  0.9920    0.1
 0.015  0.9163   -1.6   8.573  179.1  0.0014   83.3  0.9924   -0.4
 0.020  0.9167   -1.6   8.456  178.9  0.0018   81.3  0.9929   -0.8
 0.025  0.9166   -2.0   8.460  178.5  0.0023   82.5  0.9929   -1.0
 0.030  0.9165   -2.3   8.464  178.2  0.0028   83.2  0.9930   -1.2
 0.035  0.9164   -2.7   8.468  177.8  0.0032   83.8  0.9931   -1.5
 0.040  0.9164   -3.1   8.473  177.4  0.0037   84.2  0.9932   -1.7
 0.045  0.9164   -3.4   8.478  177.1  0.0042   84.5  0.9933   -1.9
 0.050  0.9165   -3.8   8.484  176.7  0.0047   84.7  0.9934   -2.1
 0.055  0.9160   -4.2   8.487  176.4  0.0051   84.6  0.9932   -2.3
 0.060  0.9156   -4.7   8.491  176.1  0.0056   84.5  0.9929   -2.6
 0.065  0.9153   -5.1   8.494  175.8  0.0060   84.5  0.9927   -2.8
 0.070  0.9150   -5.5   8.498  175.5  0.0065   84.4  0.9925   -3.1
 0.075  0.9148   -5.9   8.503  175.2  0.0069   84.4  0.9923   -3.3
 0.080  0.9146   -6.4   8.507  174.9  0.0073   84.3  0.9922   -3.5
 0.085  0.9144   -6.8   8.512  174.6  0.0078   84.3  0.9920   -3.8
 0.090  0.9143   -7.2   8.517  174.3  0.0082   84.3  0.9919   -4.0
 0.095  0.9143   -7.7   8.522  174.0  0.0087   84.2  0.9918   -4.3
 0.100  0.9143   -8.1   8.527  173.7  0.0091   84.2  0.9917   -4.5
 0.105  0.9139   -8.5   8.523  173.4  0.0095   83.9  0.9913   -4.7
 0.110  0.9135   -8.9   8.519  173.1  0.0100   83.7  0.9909   -4.9
 0.115  0.9132   -9.3   8.516  172.8  0.0104   83.5  0.9905   -5.2
 0.120  0.9129   -9.7   8.513  172.5  0.0109   83.3  0.9901   -5.4
 0.125  0.9127  -10.1   8.510  172.2  0.0113   83.1  0.9898   -5.6
 0.130  0.9125  -10.6   8.507  171.8  0.0117   82.9  0.9894   -5.8
 0.135  0.9124  -11.0   8.505  171.5  0.0122   82.7  0.9891   -6.0
 0.140  0.9123  -11.4   8.503  171.2  0.0126   82.6  0.9888   -6.3
 0.145  0.9123  -11.8   8.501  170.9  0.0131   82.4  0.9885   -6.5
 0.150  0.9123  -12.2   8.499  170.6  0.0135   82.3  0.9882   -6.7
 0.155  0.9120  -12.6   8.495  170.3  0.0139   82.0  0.9877   -6.9
 0.160  0.9116  -13.0   8.491  170.0  0.0144   81.8  0.9871   -7.1
 0.165  0.9114  -13.4   8.487  169.7  0.0148   81.5  0.9866   -7.4
 0.170  0.9112  -13.8   8.484  169.4  0.0153   81.3  0.9861   -7.6
 0.175  0.9110  -14.2   8.480  169.1  0.0157   81.1  0.9857   -7.8
 0.180  0.9109  -14.6   8.477  168.7  0.0162   80.9  0.9852   -8.0
 0.185  0.9108  -15.0   8.475  168.4  0.0166   80.7  0.9848   -8.2
 0.190  0.9107  -15.4   8.472  168.1  0.0171   80.5  0.9843   -8.5
 0.195  0.9108  -15.8   8.470  167.8  0.0175   80.4  0.9839   -8.7
 0.200  0.9108  -16.2   8.468  167.5  0.0180   80.2  0.9835   -8.9
 0.220  0.9076  -17.8   8.434  166.2  0.0198   79.3  0.9810   -9.8
 0.240  0.9051  -19.4   8.405  164.9  0.0215   78.5  0.9787  -10.7
 0.260  0.9028  -21.0   8.382  163.6  0.0233   77.7  0.9761  -11.5
 0.280  0.9007  -22.7   8.363  162.4  0.0250   76.9  0.9731  -12.4
 0.300  0.8994  -24.4   8.349  161.2  0.0268   76.1  0.9703  -13.3
 0.320  0.8963  -26.0   8.319  160.0  0.0285   75.1  0.9667  -14.1
 0.340  0.8938  -27.6   8.293  158.9  0.0302   74.3  0.9634  -15.0
 0.360  0.8912  -29.2   8.261  157.7  0.0318   73.4  0.9597  -15.8
 0.380  0.8884  -30.7   8.222  156.5  0.0335   72.5  0.9558  -16.7
 0.400  0.8862  -32.3   8.188  155.3  0.0351   71.7  0.9521  -17.6
 0.420  0.8826  -33.9   8.149  154.1  0.0367   70.8  0.9478  -18.4
 0.440  0.8797  -35.5   8.114  152.9  0.0384   70.0  0.9438  -19.3
 0.450  0.8785  -36.3   8.098  152.3  0.0392   69.6  0.9418  -19.7
 0.460  0.8764  -37.1   8.074  151.7  0.0400   69.2  0.9393  -20.1
 0.480  0.8728  -38.7   8.030  150.5  0.0415   68.4  0.9346  -20.9
 0.500  0.8698  -40.3   7.989  149.3  0.0430   67.6  0.9300  -21.7
 0.520  0.8650  -41.8   7.938  148.2  0.0445   66.6  0.9247  -22.5
 0.540  0.8609  -43.3   7.890  147.1  0.0459   65.8  0.9195  -23.3
 0.560  0.8574  -44.9   7.846  145.9  0.0474   64.9  0.9145  -24.1
 0.580  0.8545  -46.4   7.804  144.8  0.0489   64.1  0.9097  -24.9
 0.600  0.8522  -48.0   7.766  143.6  0.0504   63.4  0.9051  -25.7
 0.620  0.8471  -49.5   7.710  142.5  0.0517   62.5  0.8993  -26.4
 0.640  0.8425  -51.0   7.656  141.4  0.0530   61.7  0.8936  -27.2
 0.660  0.8386  -52.5   7.606  140.3  0.0544   60.9  0.8881  -27.9
 0.680  0.8352  -54.1   7.558  139.2  0.0557   60.2  0.8827  -28.6
 0.700  0.8325  -55.6   7.513  138.1  0.0571   59.5  0.8775  -29.4
 0.720  0.8275  -57.0   7.451  137.1  0.0583   58.7  0.8715  -30.1
 0.740  0.8231  -58.4   7.392  136.1  0.0596   58.0  0.8656  -30.8
 0.760  0.8192  -59.9   7.335  135.0  0.0608   57.3  0.8599  -31.5
 0.780  0.8158  -61.3   7.281  134.0  0.0620   56.6  0.8543  -32.3
 0.800  0.8129  -62.8   7.229  132.9  0.0633   55.9  0.8488  -33.0
 0.820  0.8081  -64.2   7.170  131.9  0.0644   55.2  0.8426  -33.6
 0.840  0.8037  -65.6   7.113  130.9  0.0655   54.4  0.8366  -34.3
 0.860  0.7999  -67.0   7.057  129.9  0.0666   53.7  0.8306  -35.0
 0.880  0.7965  -68.5   7.005  128.9  0.0677   53.1  0.8248  -35.6
 0.900  0.7937  -69.9   6.954  127.9  0.0688   52.4  0.8191  -36.3
 0.920  0.7890  -71.3   6.896  127.0  0.0698   51.7  0.8129  -36.9
 0.940  0.7847  -72.6   6.841  126.1  0.0708   51.0  0.8069  -37.6
 0.960  0.7808  -74.0   6.786  125.1  0.0718   50.4  0.8009  -38.3
 0.980  0.7774  -75.4   6.734  124.2  0.0728   49.7  0.7950  -38.9
 1.000  0.7745  -76.8   6.684  123.2  0.0738   49.1  0.7893  -39.6
 1.020  0.7700  -78.1   6.625  122.3  0.0747   48.5  0.7833  -40.2
 1.040  0.7659  -79.4   6.567  121.4  0.0755   47.9  0.7774  -40.7
 1.060  0.7623  -80.8   6.511  120.5  0.0764   47.3  0.7715  -41.3
 1.080  0.7590  -82.1   6.457  119.6  0.0773   46.7  0.7658  -41.9
 1.100  0.7562  -83.5   6.404  118.7  0.0782   46.1  0.7601  -42.5
 1.120  0.7520  -84.8   6.348  117.8  0.0790   45.5  0.7540  -43.1
 1.140  0.7481  -86.1   6.294  117.0  0.0798   44.9  0.7480  -43.6
 1.160  0.7447  -87.4   6.241  116.1  0.0806   44.3  0.7421  -44.2
 1.180  0.7416  -88.7   6.189  115.2  0.0815   43.7  0.7362  -44.8
 1.200  0.7389  -90.0   6.139  114.3  0.0823   43.1  0.7304  -45.4
 1.220  0.7351  -91.2   6.085  113.5  0.0830   42.6  0.7248  -45.9
 1.240  0.7316  -92.4   6.033  112.7  0.0837   42.0  0.7192  -46.5
 1.260  0.7285  -93.7   5.981  111.9  0.0844   41.5  0.7136  -47.0
 1.280  0.7257  -94.9   5.931  111.1  0.0852   41.0  0.7082  -47.5
 1.300  0.7232  -96.2   5.882  110.3  0.0859   40.5  0.7028  -48.1
 1.320  0.7194  -97.4   5.831  109.5  0.0865   40.0  0.6972  -48.6
 1.340  0.7159  -98.6   5.780  108.8  0.0871   39.4  0.6916  -49.1
 1.360  0.7127  -99.8   5.731  108.0  0.0877   38.9  0.6860  -49.6
 1.380  0.7099 -101.1   5.683  107.2  0.0884   38.4  0.6805  -50.1
 1.400  0.7074 -102.3   5.636  106.4  0.0890   37.9  0.6751  -50.6
 1.420  0.7041 -103.4   5.589  105.7  0.0896   37.4  0.6698  -51.1
 1.440  0.7010 -104.6   5.542  105.0  0.0901   36.9  0.6645  -51.5
 1.460  0.6982 -105.7   5.497  104.3  0.0907   36.4  0.6592  -52.0
 1.480  0.6957 -106.8   5.452  103.5  0.0913   36.0  0.6540  -52.5
 1.500  0.6935 -108.0   5.408  102.8  0.0919   35.5  0.6489  -53.0
 1.520  0.6906 -109.1   5.362  102.1  0.0923   35.0  0.6438  -53.4
 1.540  0.6879 -110.3   5.316  101.4  0.0928   34.6  0.6387  -53.9
 1.560  0.6855 -111.4   5.272  100.6  0.0933   34.1  0.6337  -54.4
 1.580  0.6834 -112.5   5.228   99.9  0.0937   33.7  0.6287  -54.8
 1.600  0.6816 -113.7   5.185   99.1  0.0942   33.2  0.6237  -55.3
 1.620  0.6785 -114.8   5.143   98.5  0.0947   32.8  0.6189  -55.7
 1.640  0.6756 -115.8   5.101   97.8  0.0951   32.3  0.6140  -56.1
 1.660  0.6730 -116.9   5.060   97.2  0.0956   31.9  0.6093  -56.5
 1.680  0.6706 -118.0   5.020   96.5  0.0961   31.5  0.6045  -57.0
 1.700  0.6685 -119.1   4.980   95.8  0.0966   31.1  0.5998  -57.4
 1.720  0.6660 -120.1   4.936   95.2  0.0970   30.7  0.5953  -57.8
 1.740  0.6638 -121.1   4.893   94.5  0.0973   30.3  0.5908  -58.2
 1.760  0.6617 -122.1   4.850   93.9  0.0977   29.9  0.5863  -58.6
 1.780  0.6598 -123.2   4.808   93.2  0.0980   29.5  0.5818  -59.0
 1.800  0.6582 -124.2   4.767   92.5  0.0984   29.1  0.5774  -59.4
 1.820  0.6559 -125.2   4.729   91.9  0.0988   28.7  0.5728  -59.8
 1.840  0.6537 -126.3   4.692   91.3  0.0991   28.3  0.5682  -60.2
 1.860  0.6518 -127.4   4.656   90.7  0.0995   28.0  0.5637  -60.6
 1.880  0.6502 -128.4   4.619   90.0  0.0999   27.6  0.5592  -61.1
 1.900  0.6487 -129.5   4.584   89.4  0.1003   27.2  0.5547  -61.5
 1.920  0.6464 -130.4   4.547   88.8  0.1006   26.9  0.5507  -61.8
 1.940  0.6442 -131.3   4.511   88.2  0.1009   26.5  0.5467  -62.2
 1.960  0.6423 -132.2   4.475   87.6  0.1012   26.2  0.5428  -62.5
 1.980  0.6404 -133.2   4.439   87.0  0.1015   25.8  0.5388  -62.9
 2.000  0.6388 -134.1   4.404   86.4  0.1018   25.5  0.5349  -63.2
 2.020  0.6364 -135.0   4.370   85.9  0.1020   25.2  0.5308  -63.5
 2.040  0.6342 -136.0   4.337   85.3  0.1023   24.8  0.5267  -63.9
 2.060  0.6322 -137.0   4.304   84.8  0.1025   24.5  0.5227  -64.2
 2.080  0.6303 -137.9   4.271   84.2  0.1028   24.2  0.5187  -64.6
 2.100  0.6286 -138.9   4.239   83.6  0.1031   23.8  0.5146  -64.9
 2.120  0.6271 -139.9   4.207   83.0  0.1033   23.5  0.5107  -65.3
 2.140  0.6258 -140.8   4.175   82.4  0.1036   23.2  0.5067  -65.7
 2.160  0.6247 -141.8   4.144   81.8  0.1039   22.8  0.5027  -66.0
 2.180  0.6238 -142.8   4.114   81.2  0.1041   22.5  0.4988  -66.4
 2.200  0.6230 -143.8   4.084   80.6  0.1044   22.2  0.4949  -66.8
 2.220  0.6211 -144.7   4.053   80.1  0.1046   21.9  0.4911  -67.1
 2.240  0.6194 -145.6   4.023   79.6  0.1048   21.6  0.4874  -67.5
 2.260  0.6179 -146.5   3.993   79.1  0.1050   21.3  0.4837  -67.8
 2.280  0.6165 -147.4   3.963   78.5  0.1052   20.9  0.4800  -68.2
 2.300  0.6153 -148.3   3.934   78.0  0.1054   20.6  0.4763  -68.5
 2.320  0.6142 -149.2   3.905   77.5  0.1056   20.3  0.4727  -68.9
 2.340  0.6132 -150.1   3.877   76.9  0.1058   20.0  0.4690  -69.3
 2.360  0.6125 -151.1   3.848   76.3  0.1060   19.7  0.4654  -69.6
 2.380  0.6119 -152.0   3.820   75.8  0.1062   19.4  0.4618  -70.0
 2.400  0.6114 -152.9   3.793   75.2  0.1064   19.1  0.4582  -70.4
 2.420  0.6102 -153.8   3.766   74.7  0.1065   18.8  0.4548  -70.7
 2.440  0.6092 -154.6   3.739   74.2  0.1066   18.6  0.4513  -71.0
 2.460  0.6083 -155.5   3.713   73.7  0.1067   18.3  0.4479  -71.3
 2.480  0.6075 -156.4   3.687   73.2  0.1069   18.0  0.4445  -71.7
 2.500  0.6069 -157.3   3.661   72.7  0.1070   17.7  0.4411  -72.0
 2.520  0.6064 -158.2   3.636   72.2  0.1071   17.5  0.4377  -72.3
 2.540  0.6061 -159.0   3.611   71.6  0.1072   17.2  0.4344  -72.7
 2.560  0.6059 -159.9   3.586   71.1  0.1073   16.9  0.4310  -73.0
 2.580  0.6059 -160.8   3.561   70.6  0.1075   16.7  0.4277  -73.3
 2.600  0.6060 -161.7   3.537   70.0  0.1076   16.4  0.4244  -73.7
 2.620  0.6049 -162.5   3.512   69.6  0.1077   16.2  0.4213  -74.0
 2.640  0.6040 -163.3   3.488   69.1  0.1078   15.9  0.4182  -74.3
 2.660  0.6032 -164.1   3.464   68.7  0.1079   15.7  0.4151  -74.6
 2.680  0.6025 -164.9   3.440   68.2  0.1079   15.4  0.4120  -75.0
 2.700  0.6019 -165.7   3.416   67.7  0.1080   15.2  0.4089  -75.3
 2.720  0.6014 -166.5   3.393   67.3  0.1081   15.0  0.4059  -75.6
 2.740  0.6011 -167.4   3.369   66.8  0.1082   14.7  0.4028  -76.0
 2.760  0.6009 -168.2   3.346   66.3  0.1083   14.5  0.3998  -76.3
 2.780  0.6008 -169.0   3.324   65.8  0.1084   14.2  0.3968  -76.6
 2.800  0.6008 -169.8   3.301   65.3  0.1085   14.0  0.3938  -77.0
 2.820  0.6003 -170.6   3.280   64.9  0.1086   13.8  0.3910  -77.3
 2.840  0.5999 -171.3   3.259   64.4  0.1086   13.6  0.3882  -77.6
 2.860  0.5996 -172.1   3.238   64.0  0.1087   13.3  0.3854  -77.9
 2.880  0.5994 -172.8   3.218   63.5  0.1088   13.1  0.3826  -78.2
 2.900  0.5993 -173.6   3.197   63.1  0.1088   12.9  0.3798  -78.5
 2.920  0.5994 -174.4   3.177   62.6  0.1089   12.7  0.3770  -78.8
 2.940  0.5995 -175.1   3.157   62.1  0.1090   12.5  0.3743  -79.1
 2.960  0.5997 -175.9   3.138   61.7  0.1090   12.2  0.3715  -79.4
 2.980  0.6001 -176.6   3.118   61.2  0.1091   12.0  0.3688  -79.8
 3.000  0.6005 -177.4   3.099   60.7  0.1092   11.8  0.3661  -80.1
 3.100  0.5978  179.1   3.005   58.8  0.1093   10.9  0.3534  -81.6
 3.200  0.5974  175.6   2.914   56.7  0.1094   10.0  0.3410  -83.3
 3.300  0.5992  172.1   2.828   54.6  0.1096    9.0  0.3288  -85.0
 3.400  0.6032  168.7   2.746   52.2  0.1098    8.1  0.3170  -87.0
 3.500  0.6093  165.3   2.668   49.8  0.1100    7.2  0.3056  -89.0
 3.600  0.6095  162.3   2.594   48.0  0.1101    6.5  0.2957  -90.7
 3.700  0.6114  159.3   2.523   46.1  0.1102    5.8  0.2861  -92.6
 3.800  0.6149  156.4   2.454   44.0  0.1103    5.2  0.2768  -94.6
 3.900  0.6201  153.5   2.389   41.9  0.1104    4.5  0.2679  -96.7
 4.000  0.6268  150.6   2.328   39.6  0.1106    3.8  0.2594  -99.0
 4.100  0.6279  148.2   2.266   37.9  0.1106    3.2  0.2522 -101.1
 4.200  0.6302  145.9   2.206   36.1  0.1107    2.7  0.2453 -103.2
 4.300  0.6334  143.6   2.148   34.3  0.1107    2.1  0.2388 -105.5
 4.400  0.6377  141.3   2.093   32.3  0.1108    1.6  0.2327 -108.0
 4.500  0.6430  139.0   2.040   30.2  0.1109    1.0  0.2270 -110.5
 4.600  0.6436  137.2   1.989   28.7  0.1109    0.6  0.2219 -112.6
 4.700  0.6448  135.4   1.940   27.2  0.1110    0.2  0.2170 -114.7
 4.800  0.6466  133.6   1.892   25.5  0.1110   -0.2  0.2125 -116.9
 4.900  0.6491  131.8   1.846   23.8  0.1110   -0.6  0.2083 -119.3
 5.000  0.6522  130.0   1.802   22.0  0.1111   -1.0  0.2045 -121.7
 5.100  0.6532  128.3   1.763   20.6  0.1112   -1.3  0.2006 -124.0
 5.200  0.6547  126.6   1.725   19.1  0.1112   -1.6  0.1969 -126.4
 5.300  0.6569  124.9   1.688   17.6  0.1113   -1.9  0.1937 -128.8
 5.400  0.6596  123.3   1.652   16.0  0.1113   -2.2  0.1908 -131.4
 5.500  0.6628  121.6   1.618   14.3  0.1114   -2.5  0.1883 -134.0
 5.600  0.6652  120.0   1.587   12.9  0.1117   -2.7  0.1855 -136.6
 5.700  0.6681  118.4   1.557   11.5  0.1120   -2.9  0.1831 -139.3
 5.800  0.6716  116.8   1.528   10.0  0.1123   -3.0  0.1811 -142.0
 5.900  0.6755  115.2   1.500    8.5  0.1126   -3.2  0.1795 -144.8
 6.000  0.6800  113.7   1.473    6.9  0.1129   -3.4  0.1784 -147.6
 6.100  0.6832  112.3   1.448    5.5  0.1136   -3.6  0.1769 -150.3
 6.200  0.6868  110.9   1.423    4.1  0.1144   -3.8  0.1757 -153.1
 6.300  0.6908  109.5   1.399    2.6  0.1151   -4.0  0.1750 -155.9
 6.400  0.6953  108.1   1.377    1.0  0.1159   -4.2  0.1748 -158.8
 6.500  0.7001  106.7   1.355   -0.6  0.1166   -4.4  0.1749 -161.6
 6.600  0.7025  105.4   1.333   -2.0  0.1176   -4.7  0.1739 -164.3
 6.800  0.7085  102.8   1.292   -5.0  0.1197   -5.3  0.1731 -169.7
 7.000  0.7159  100.2   1.255   -8.2  0.1218   -5.8  0.1738 -175.1
 7.200  0.7190   97.5   1.217  -11.1  0.1243   -6.7  0.1752  179.0
 7.400  0.7237   94.7   1.181  -14.1  0.1267   -7.7  0.1784  173.3
 7.600  0.7277   91.8   1.144  -17.2  0.1289   -8.8  0.1824  167.3
 7.800  0.7316   88.8   1.105  -20.2  0.1308  -10.2  0.1875  161.1
 8.000  0.7375   85.7   1.069  -23.5  0.1328  -11.6  0.1946  155.3
 8.200  0.7406   82.6   1.029  -26.1  0.1335  -12.9  0.2006  148.2
 8.400  0.7459   79.4   0.991  -29.0  0.1342  -14.2  0.2094  141.6
 8.600  0.7545   76.5   0.956  -31.7  0.1348  -15.3  0.2217  135.0
 8.800  0.7660   73.8   0.924  -34.1  0.1353  -16.2  0.2376  128.7
 9.000  0.7792   71.1   0.893  -36.8  0.1358  -17.1  0.2561  123.3
 9.200  0.7990   68.9   0.866  -39.1  0.1367  -17.8  0.2799  118.9
 9.400  0.8199   66.9   0.840  -41.4  0.1377  -18.5  0.3051  115.2
 9.600  0.8384   65.1   0.811  -43.8  0.1390  -19.2  0.3309  112.3
 9.800  0.8541   63.6   0.779  -46.3  0.1408  -20.0  0.3571  109.9
10.000  0.8704   62.2   0.748  -48.9  0.1425  -20.8  0.3837  107.9
!
!  f       NFmin   Gammaopt  rn/50
! GHz       dB    MAG  ANG    -
 0.900      0.55  0.41   33   0.20
 1.800      1.02  0.24   78   0.16
 2.400      1.11  0.26  103   0.15
 3.000      1.28  0.27  140   0.11
 4.000      1.50  0.34 -163   0.10
 5.000      1.85  0.40 -130   0.26
 6.000      2.56  0.50 -109   0.35
!
! (c) 2016  Infineon Technologies AG, Munich
