! Infineon Technologies  Discrete & RF Semiconductors
! BFP540ESD
! VCE = 0.75 V,  IC =  7.0 mA
! Common Emitter S-Parameters:                            Nov 2015
# GHz  S  MA  R  50
!  f         S11            S21            S12            S22
! GHz     MAG   ANG      MAG   ANG      MAG   ANG      MAG   ANG
 0.010  0.7484   -1.4  19.897  178.9  0.0010   95.3  0.9716   -1.6
 0.015  0.7491   -2.5  19.844  178.6  0.0014   90.3  0.9782   -1.8
 0.020  0.7501   -3.5  19.791  178.3  0.0019   87.7  0.9849   -1.9
 0.025  0.7499   -4.2  19.792  177.7  0.0025   87.8  0.9840   -2.4
 0.030  0.7497   -4.9  19.795  177.2  0.0031   87.9  0.9831   -2.9
 0.035  0.7497   -5.6  19.800  176.6  0.0036   87.9  0.9823   -3.3
 0.040  0.7498   -6.2  19.807  176.0  0.0042   88.0  0.9816   -3.8
 0.045  0.7500   -6.9  19.815  175.5  0.0048   88.0  0.9809   -4.3
 0.050  0.7503   -7.6  19.826  174.9  0.0054   88.0  0.9803   -4.8
 0.055  0.7498   -8.4  19.814  174.4  0.0059   86.9  0.9792   -5.3
 0.060  0.7494   -9.1  19.804  173.9  0.0065   85.9  0.9781   -5.8
 0.065  0.7491   -9.9  19.796  173.3  0.0070   85.1  0.9771   -6.2
 0.070  0.7490  -10.6  19.789  172.8  0.0075   84.4  0.9762   -6.7
 0.075  0.7489  -11.4  19.784  172.3  0.0080   83.8  0.9753   -7.2
 0.080  0.7491  -12.2  19.781  171.8  0.0086   83.3  0.9745   -7.7
 0.085  0.7493  -12.9  19.779  171.3  0.0091   82.8  0.9738   -8.2
 0.090  0.7497  -13.7  19.779  170.7  0.0096   82.4  0.9731   -8.6
 0.095  0.7502  -14.4  19.780  170.2  0.0102   82.0  0.9725   -9.1
 0.100  0.7509  -15.2  19.783  169.7  0.0107   81.7  0.9720   -9.6
 0.105  0.7495  -16.0  19.752  169.2  0.0112   81.6  0.9707  -10.1
 0.110  0.7482  -16.7  19.723  168.7  0.0117   81.4  0.9696  -10.6
 0.115  0.7470  -17.5  19.695  168.2  0.0123   81.3  0.9684  -11.1
 0.120  0.7460  -18.2  19.669  167.6  0.0128   81.2  0.9674  -11.5
 0.125  0.7451  -19.0  19.644  167.1  0.0133   81.1  0.9664  -12.0
 0.130  0.7443  -19.7  19.621  166.6  0.0138   81.0  0.9655  -12.5
 0.135  0.7436  -20.5  19.600  166.1  0.0143   80.9  0.9647  -13.0
 0.140  0.7431  -21.3  19.580  165.5  0.0149   80.8  0.9639  -13.5
 0.145  0.7427  -22.0  19.562  165.0  0.0154   80.8  0.9632  -14.0
 0.150  0.7425  -22.8  19.546  164.5  0.0159   80.7  0.9626  -14.5
 0.155  0.7411  -23.5  19.501  164.0  0.0164   80.2  0.9607  -15.0
 0.160  0.7398  -24.2  19.457  163.5  0.0169   79.7  0.9588  -15.4
 0.165  0.7387  -25.0  19.415  163.0  0.0174   79.2  0.9569  -15.9
 0.170  0.7376  -25.7  19.375  162.4  0.0180   78.7  0.9552  -16.4
 0.175  0.7367  -26.4  19.336  161.9  0.0185   78.3  0.9535  -16.8
 0.180  0.7359  -27.2  19.298  161.4  0.0190   77.9  0.9519  -17.3
 0.185  0.7352  -27.9  19.262  160.9  0.0195   77.5  0.9503  -17.8
 0.190  0.7347  -28.6  19.228  160.4  0.0201   77.2  0.9488  -18.2
 0.195  0.7342  -29.4  19.196  159.8  0.0206   76.8  0.9474  -18.7
 0.200  0.7339  -30.1  19.165  159.3  0.0211   76.5  0.9460  -19.2
 0.220  0.7290  -32.9  18.972  157.4  0.0230   75.1  0.9376  -21.0
 0.240  0.7260  -35.8  18.800  155.4  0.0249   73.8  0.9302  -22.9
 0.260  0.7217  -38.7  18.619  153.5  0.0268   72.5  0.9216  -24.6
 0.280  0.7164  -41.6  18.427  151.5  0.0287   70.9  0.9116  -26.4
 0.300  0.7130  -44.6  18.255  149.6  0.0306   69.6  0.9024  -28.1
 0.320  0.7053  -47.2  17.987  147.9  0.0321   68.3  0.8901  -29.7
 0.340  0.6991  -49.8  17.735  146.1  0.0336   67.1  0.8786  -31.3
 0.360  0.6944  -52.4  17.500  144.3  0.0352   66.1  0.8677  -33.0
 0.380  0.6911  -55.1  17.283  142.5  0.0367   65.1  0.8577  -34.7
 0.400  0.6894  -57.8  17.085  140.6  0.0383   64.2  0.8484  -36.5
 0.420  0.6812  -60.3  16.829  139.1  0.0397   63.1  0.8352  -38.0
 0.440  0.6744  -62.8  16.585  137.5  0.0411   62.1  0.8226  -39.5
 0.450  0.6715  -64.1  16.468  136.6  0.0419   61.6  0.8165  -40.3
 0.460  0.6689  -65.4  16.354  135.8  0.0426   61.2  0.8106  -41.0
 0.480  0.6648  -68.0  16.137  134.1  0.0440   60.3  0.7992  -42.6
 0.500  0.6621  -70.7  15.935  132.4  0.0455   59.5  0.7884  -44.3
 0.520  0.6550  -72.9  15.654  131.0  0.0467   58.5  0.7755  -45.6
 0.540  0.6489  -75.2  15.383  129.6  0.0478   57.5  0.7630  -46.9
 0.560  0.6438  -77.5  15.121  128.2  0.0490   56.6  0.7509  -48.2
 0.580  0.6397  -79.8  14.870  126.7  0.0502   55.7  0.7392  -49.6
 0.600  0.6368  -82.2  14.629  125.1  0.0514   54.9  0.7280  -51.0
 0.620  0.6311  -84.2  14.395  124.0  0.0523   54.2  0.7164  -52.1
 0.640  0.6262  -86.2  14.167  122.8  0.0533   53.5  0.7051  -53.3
 0.660  0.6221  -88.2  13.945  121.6  0.0543   52.8  0.6940  -54.5
 0.680  0.6187  -90.3  13.729  120.4  0.0552   52.2  0.6834  -55.8
 0.700  0.6162  -92.4  13.520  119.1  0.0562   51.6  0.6730  -57.1
 0.720  0.6105  -94.4  13.289  118.0  0.0569   50.8  0.6618  -58.2
 0.740  0.6055  -96.4  13.063  116.9  0.0577   50.1  0.6509  -59.3
 0.760  0.6012  -98.4  12.843  115.7  0.0585   49.3  0.6403  -60.5
 0.780  0.5977 -100.4  12.628  114.5  0.0592   48.6  0.6299  -61.7
 0.800  0.5950 -102.5  12.418  113.3  0.0600   47.9  0.6198  -63.0
 0.820  0.5905 -104.2  12.213  112.4  0.0607   47.4  0.6099  -63.9
 0.840  0.5865 -105.8  12.011  111.4  0.0613   47.0  0.6001  -64.8
 0.860  0.5830 -107.5  11.813  110.4  0.0620   46.6  0.5906  -65.8
 0.880  0.5800 -109.3  11.619  109.4  0.0627   46.1  0.5811  -66.8
 0.900  0.5776 -111.0  11.428  108.3  0.0634   45.7  0.5719  -67.8
 0.920  0.5740 -112.5  11.250  107.5  0.0640   45.3  0.5631  -68.7
 0.940  0.5708 -114.0  11.075  106.7  0.0646   44.8  0.5544  -69.6
 0.960  0.5679 -115.5  10.902  105.8  0.0652   44.4  0.5458  -70.5
 0.980  0.5655 -117.1  10.731  104.9  0.0658   44.0  0.5374  -71.5
 1.000  0.5635 -118.6  10.563  104.0  0.0664   43.6  0.5292  -72.5
 1.020  0.5607 -120.1  10.406  103.2  0.0670   43.1  0.5215  -73.4
 1.040  0.5583 -121.7  10.250  102.4  0.0675   42.7  0.5139  -74.3
 1.060  0.5563 -123.2  10.097  101.6  0.0681   42.3  0.5064  -75.3
 1.080  0.5547 -124.8   9.946  100.7  0.0687   41.8  0.4991  -76.3
 1.100  0.5535 -126.4   9.797   99.8  0.0693   41.4  0.4920  -77.3
 1.120  0.5514 -127.7   9.655   99.1  0.0698   41.1  0.4851  -78.0
 1.140  0.5495 -129.0   9.515   98.4  0.0702   40.8  0.4783  -78.6
 1.160  0.5480 -130.3   9.377   97.7  0.0707   40.5  0.4716  -79.3
 1.180  0.5468 -131.7   9.240   97.0  0.0711   40.3  0.4649  -80.1
 1.200  0.5458 -133.0   9.104   96.2  0.0716   40.0  0.4583  -80.8
 1.220  0.5446 -134.1   8.987   95.6  0.0720   39.7  0.4520  -81.5
 1.240  0.5435 -135.2   8.872   95.0  0.0725   39.3  0.4459  -82.2
 1.260  0.5427 -136.4   8.757   94.3  0.0729   39.0  0.4397  -82.9
 1.280  0.5421 -137.5   8.643   93.7  0.0734   38.7  0.4337  -83.6
 1.300  0.5417 -138.6   8.531   93.0  0.0738   38.4  0.4277  -84.4
 1.320  0.5404 -139.8   8.420   92.4  0.0742   38.2  0.4223  -85.3
 1.340  0.5393 -140.9   8.311   91.7  0.0746   38.0  0.4169  -86.2
 1.360  0.5384 -142.1   8.202   91.1  0.0750   37.9  0.4117  -87.2
 1.380  0.5378 -143.3   8.095   90.4  0.0754   37.7  0.4066  -88.2
 1.400  0.5374 -144.5   7.989   89.7  0.0758   37.5  0.4016  -89.2
 1.420  0.5365 -145.6   7.887   89.1  0.0761   37.3  0.3967  -89.7
 1.440  0.5357 -146.7   7.786   88.5  0.0765   37.0  0.3918  -90.3
 1.460  0.5352 -147.7   7.686   87.9  0.0768   36.8  0.3869  -90.8
 1.480  0.5349 -148.8   7.587   87.3  0.0772   36.5  0.3821  -91.4
 1.500  0.5347 -149.9   7.489   86.7  0.0775   36.3  0.3773  -92.0
 1.520  0.5329 -150.8   7.403   86.2  0.0779   36.1  0.3724  -92.6
 1.540  0.5313 -151.7   7.317   85.7  0.0784   35.9  0.3676  -93.2
 1.560  0.5298 -152.6   7.231   85.1  0.0788   35.8  0.3628  -93.8
 1.580  0.5285 -153.6   7.147   84.6  0.0793   35.6  0.3581  -94.4
 1.600  0.5273 -154.5   7.063   84.0  0.0797   35.4  0.3534  -95.0
 1.620  0.5273 -155.5   6.986   83.5  0.0801   35.3  0.3499  -95.9
 1.640  0.5274 -156.5   6.909   82.9  0.0804   35.1  0.3464  -96.7
 1.660  0.5277 -157.6   6.832   82.4  0.0808   35.0  0.3431  -97.6
 1.680  0.5282 -158.6   6.757   81.8  0.0811   34.8  0.3398  -98.6
 1.700  0.5288 -159.6   6.682   81.2  0.0815   34.7  0.3366  -99.5
 1.720  0.5282 -160.4   6.608   80.7  0.0819   34.5  0.3332 -100.0
 1.740  0.5278 -161.3   6.535   80.3  0.0823   34.4  0.3298 -100.4
 1.760  0.5274 -162.1   6.462   79.8  0.0826   34.2  0.3265 -100.9
 1.780  0.5272 -163.0   6.390   79.3  0.0830   34.1  0.3231 -101.4
 1.800  0.5271 -163.8   6.318   78.8  0.0834   33.9  0.3198 -101.9
 1.820  0.5268 -164.6   6.258   78.3  0.0838   33.8  0.3156 -102.5
 1.840  0.5266 -165.3   6.198   77.9  0.0841   33.8  0.3115 -103.1
 1.860  0.5265 -166.1   6.138   77.4  0.0845   33.7  0.3074 -103.7
 1.880  0.5265 -166.8   6.080   76.9  0.0848   33.7  0.3033 -104.3
 1.900  0.5266 -167.6   6.021   76.4  0.0852   33.6  0.2993 -104.9
 1.920  0.5262 -168.5   5.961   75.9  0.0855   33.4  0.2970 -105.5
 1.940  0.5260 -169.3   5.901   75.4  0.0858   33.2  0.2948 -106.1
 1.960  0.5258 -170.2   5.842   74.9  0.0862   33.1  0.2925 -106.7
 1.980  0.5258 -171.0   5.783   74.4  0.0865   32.9  0.2904 -107.4
 2.000  0.5259 -171.9   5.725   73.9  0.0868   32.7  0.2882 -108.0
 2.020  0.5257 -172.6   5.673   73.5  0.0872   32.6  0.2851 -108.5
 2.040  0.5256 -173.2   5.622   73.1  0.0876   32.5  0.2820 -109.0
 2.060  0.5255 -173.9   5.571   72.7  0.0880   32.4  0.2790 -109.6
 2.080  0.5256 -174.6   5.520   72.3  0.0884   32.3  0.2760 -110.1
 2.100  0.5257 -175.3   5.470   71.9  0.0888   32.2  0.2730 -110.6
 2.120  0.5258 -175.9   5.420   71.5  0.0892   32.1  0.2700 -111.2
 2.140  0.5261 -176.6   5.370   71.0  0.0896   32.0  0.2671 -111.8
 2.160  0.5264 -177.3   5.320   70.6  0.0900   31.9  0.2641 -112.4
 2.180  0.5267 -177.9   5.271   70.2  0.0904   31.8  0.2613 -113.0
 2.200  0.5272 -178.6   5.222   69.7  0.0908   31.7  0.2584 -113.6
 2.220  0.5272 -179.3   5.177   69.3  0.0911   31.6  0.2562 -114.1
 2.240  0.5273 -180.0   5.132   68.9  0.0914   31.5  0.2541 -114.6
 2.260  0.5275  179.3   5.088   68.5  0.0918   31.3  0.2520 -115.1
 2.280  0.5278  178.6   5.043   68.1  0.0921   31.2  0.2499 -115.7
 2.300  0.5281  177.9   4.999   67.6  0.0924   31.1  0.2478 -116.2
 2.320  0.5286  177.2   4.956   67.2  0.0927   31.0  0.2458 -116.7
 2.340  0.5291  176.6   4.912   66.8  0.0930   30.9  0.2437 -117.3
 2.360  0.5296  175.9   4.869   66.3  0.0934   30.7  0.2417 -117.8
 2.380  0.5303  175.2   4.826   65.9  0.0937   30.6  0.2398 -118.4
 2.400  0.5310  174.5   4.784   65.4  0.0940   30.5  0.2378 -119.0
 2.420  0.5312  173.8   4.746   65.0  0.0944   30.4  0.2354 -119.9
 2.440  0.5316  173.2   4.709   64.6  0.0947   30.3  0.2331 -120.7
 2.460  0.5320  172.5   4.672   64.2  0.0951   30.1  0.2308 -121.6
 2.480  0.5324  171.9   4.635   63.8  0.0954   30.0  0.2286 -122.5
 2.500  0.5329  171.2   4.598   63.4  0.0958   29.9  0.2265 -123.4
 2.520  0.5335  170.6   4.562   63.0  0.0962   29.8  0.2244 -124.4
 2.540  0.5342  169.9   4.525   62.6  0.0965   29.7  0.2223 -125.3
 2.560  0.5349  169.3   4.489   62.2  0.0969   29.5  0.2203 -126.3
 2.580  0.5357  168.6   4.454   61.7  0.0972   29.4  0.2184 -127.3
 2.600  0.5366  168.0   4.418   61.3  0.0976   29.3  0.2166 -128.3
 2.620  0.5371  167.5   4.386   60.9  0.0980   29.2  0.2146 -128.9
 2.640  0.5376  166.9   4.355   60.6  0.0984   29.2  0.2126 -129.5
 2.660  0.5382  166.4   4.324   60.2  0.0988   29.1  0.2107 -130.0
 2.680  0.5388  165.8   4.292   59.8  0.0992   29.1  0.2088 -130.6
 2.700  0.5395  165.3   4.262   59.4  0.0996   29.0  0.2068 -131.3
 2.720  0.5402  164.7   4.231   59.0  0.1001   28.9  0.2050 -131.9
 2.740  0.5410  164.2   4.200   58.6  0.1005   28.9  0.2031 -132.5
 2.760  0.5418  163.7   4.170   58.2  0.1009   28.8  0.2013 -133.2
 2.780  0.5427  163.1   4.140   57.8  0.1013   28.8  0.1995 -133.8
 2.800  0.5436  162.6   4.110   57.4  0.1017   28.7  0.1977 -134.5
 2.820  0.5440  162.0   4.082   57.0  0.1020   28.6  0.1963 -135.3
 2.840  0.5444  161.4   4.053   56.7  0.1023   28.5  0.1950 -136.1
 2.860  0.5449  160.8   4.025   56.3  0.1026   28.3  0.1937 -137.0
 2.880  0.5454  160.3   3.997   55.9  0.1029   28.2  0.1925 -137.8
 2.900  0.5460  159.7   3.970   55.5  0.1032   28.1  0.1913 -138.7
 2.920  0.5466  159.1   3.942   55.1  0.1035   28.0  0.1901 -139.5
 2.940  0.5474  158.5   3.915   54.7  0.1038   27.9  0.1890 -140.4
 2.960  0.5481  157.9   3.888   54.3  0.1041   27.7  0.1879 -141.3
 2.980  0.5489  157.4   3.861   53.9  0.1044   27.6  0.1869 -142.2
 3.000  0.5498  156.8   3.834   53.5  0.1047   27.5  0.1859 -143.1
 3.100  0.5525  154.2   3.713   51.9  0.1066   26.8  0.1821 -147.6
 3.200  0.5564  151.6   3.596   50.2  0.1085   26.2  0.1794 -152.2
 3.300  0.5614  149.0   3.482   48.3  0.1105   25.6  0.1779 -156.9
 3.400  0.5675  146.5   3.371   46.4  0.1124   25.0  0.1776 -161.7
 3.500  0.5747  144.1   3.265   44.3  0.1144   24.4  0.1786 -166.5
 3.600  0.5786  142.0   3.170   42.8  0.1157   23.8  0.1811 -171.0
 3.700  0.5832  139.9   3.078   41.2  0.1171   23.1  0.1847 -175.4
 3.800  0.5886  137.8   2.988   39.4  0.1184   22.5  0.1893 -179.5
 3.900  0.5948  135.8   2.901   37.6  0.1198   21.9  0.1949  176.5
 4.000  0.6017  133.8   2.817   35.7  0.1212   21.3  0.2013  172.8
 4.100  0.6058  131.9   2.739   34.3  0.1229   20.5  0.2058  170.0
 4.200  0.6106  130.1   2.663   32.8  0.1246   19.8  0.2108  167.4
 4.300  0.6159  128.3   2.589   31.2  0.1264   19.0  0.2162  164.9
 4.400  0.6219  126.5   2.517   29.5  0.1281   18.3  0.2220  162.5
 4.500  0.6284  124.8   2.447   27.7  0.1299   17.6  0.2282  160.2
 4.600  0.6318  123.2   2.387   26.3  0.1312   17.1  0.2315  158.2
 4.700  0.6356  121.7   2.329   24.9  0.1326   16.5  0.2351  156.2
 4.800  0.6400  120.2   2.273   23.4  0.1339   16.0  0.2389  154.3
 4.900  0.6447  118.7   2.218   21.8  0.1353   15.5  0.2430  152.5
 5.000  0.6499  117.2   2.165   20.1  0.1367   15.0  0.2473  150.7
 5.100  0.6527  115.9   2.114   18.8  0.1383   14.4  0.2491  148.8
 5.200  0.6557  114.6   2.064   17.5  0.1399   13.8  0.2511  147.0
 5.300  0.6591  113.4   2.014   16.2  0.1415   13.3  0.2534  145.1
 5.400  0.6629  112.1   1.967   14.7  0.1432   12.7  0.2560  143.4
 5.500  0.6669  110.9   1.920   13.2  0.1448   12.2  0.2588  141.6
 5.600  0.6700  109.8   1.883   12.1  0.1465   11.7  0.2603  139.8
 5.700  0.6733  108.7   1.846   10.9  0.1482   11.1  0.2620  138.1
 5.800  0.6769  107.7   1.811    9.6  0.1499   10.6  0.2639  136.4
 5.900  0.6807  106.6   1.776    8.3  0.1516   10.1  0.2661  134.7
 6.000  0.6847  105.6   1.742    7.0  0.1533    9.6  0.2685  133.0
!
!  f       NFmin   Gammaopt  rn/50
! GHz       dB    MAG  ANG    -
!
! noise parameter not available yet for this operation point!
!
! (c) 2015  Infineon Technologies AG, Munich
