! Infineon Technologies  Discrete & RF Semiconductors
! BFP540ESD
! VCE =  2.5 V,  IC =  50 mA
! Common Emitter S-Parameters:                            Nov 2015
# GHz  S  MA  R  50
!  f         S11            S21            S12            S22
! GHz     MAG   ANG      MAG   ANG      MAG   ANG      MAG   ANG
 0.010  0.2091   -5.6  51.011  178.0  0.0012  117.9  0.8916   -0.3
 0.015  0.2095   -8.5  50.767  177.3  0.0015  110.4  0.9041   -0.8
 0.020  0.2104  -11.4  50.531  176.6  0.0019  105.6  0.9167   -1.2
 0.025  0.2105  -13.9  50.502  175.6  0.0021  103.3  0.9176   -2.1
 0.030  0.2109  -16.4  50.490  174.5  0.0023  101.5  0.9187   -3.0
 0.035  0.2118  -18.9  50.494  173.5  0.0024   99.8  0.9200   -3.9
 0.040  0.2130  -21.4  50.514  172.5  0.0026   98.5  0.9215   -4.8
 0.045  0.2147  -23.8  50.551  171.4  0.0028   97.3  0.9233   -5.7
 0.050  0.2167  -26.2  50.604  170.4  0.0030   96.2  0.9253   -6.6
 0.055  0.2166  -28.6  50.390  169.5  0.0033   94.1  0.9224   -7.4
 0.060  0.2169  -31.0  50.190  168.6  0.0035   92.3  0.9198   -8.2
 0.065  0.2176  -33.4  50.002  167.6  0.0038   90.8  0.9173   -9.0
 0.070  0.2187  -35.8  49.829  166.7  0.0041   89.5  0.9150   -9.9
 0.075  0.2201  -38.1  49.668  165.7  0.0044   88.4  0.9129  -10.7
 0.080  0.2219  -40.4  49.522  164.8  0.0047   87.3  0.9109  -11.5
 0.085  0.2240  -42.7  49.389  163.8  0.0049   86.5  0.9092  -12.4
 0.090  0.2265  -44.9  49.270  162.8  0.0052   85.7  0.9077  -13.2
 0.095  0.2294  -47.1  49.166  161.9  0.0055   84.9  0.9063  -14.1
 0.100  0.2325  -49.2  49.075  160.9  0.0058   84.3  0.9052  -14.9
 0.105  0.2331  -51.2  48.788  160.1  0.0060   83.5  0.9009  -15.6
 0.110  0.2339  -53.2  48.512  159.2  0.0063   82.7  0.8968  -16.3
 0.115  0.2350  -55.1  48.246  158.3  0.0065   82.0  0.8928  -17.0
 0.120  0.2364  -57.0  47.992  157.4  0.0068   81.3  0.8889  -17.7
 0.125  0.2381  -58.9  47.750  156.6  0.0070   80.7  0.8852  -18.5
 0.130  0.2400  -60.8  47.519  155.7  0.0073   80.1  0.8816  -19.2
 0.135  0.2421  -62.7  47.299  154.8  0.0075   79.6  0.8782  -19.9
 0.140  0.2446  -64.5  47.092  153.8  0.0078   79.1  0.8749  -20.7
 0.145  0.2472  -66.3  46.896  152.9  0.0080   78.6  0.8718  -21.4
 0.150  0.2501  -68.0  46.713  152.0  0.0083   78.2  0.8688  -22.2
 0.155  0.2513  -69.7  46.369  151.2  0.0085   77.7  0.8634  -22.8
 0.160  0.2526  -71.3  46.033  150.5  0.0088   77.3  0.8581  -23.5
 0.165  0.2542  -73.0  45.705  149.7  0.0090   76.9  0.8529  -24.2
 0.170  0.2560  -74.6  45.386  148.9  0.0093   76.5  0.8479  -24.8
 0.175  0.2580  -76.2  45.076  148.1  0.0095   76.1  0.8429  -25.5
 0.180  0.2602  -77.7  44.775  147.3  0.0098   75.8  0.8381  -26.2
 0.185  0.2626  -79.3  44.483  146.4  0.0100   75.4  0.8334  -26.9
 0.190  0.2651  -80.8  44.200  145.6  0.0103   75.1  0.8288  -27.6
 0.195  0.2679  -82.3  43.927  144.8  0.0105   74.8  0.8243  -28.3
 0.200  0.2708  -83.7  43.664  143.9  0.0108   74.5  0.8200  -29.0
 0.220  0.2761  -88.9  42.304  141.2  0.0112   73.5  0.7991  -31.2
 0.240  0.2837  -93.9  41.045  138.3  0.0116   72.6  0.7794  -33.5
 0.260  0.2908  -98.6  39.796  135.6  0.0123   71.8  0.7589  -35.6
 0.280  0.2973 -103.0  38.528  133.2  0.0134   71.2  0.7372  -37.5
 0.300  0.3055 -107.2  37.335  130.6  0.0145   70.6  0.7163  -39.5
 0.320  0.3082 -110.7  36.119  128.8  0.0151   70.0  0.6965  -40.9
 0.340  0.3121 -114.1  34.941  126.9  0.0157   69.4  0.6772  -42.5
 0.360  0.3170 -117.4  33.805  124.8  0.0162   68.9  0.6583  -44.1
 0.380  0.3229 -120.5  32.716  122.6  0.0168   68.4  0.6401  -45.8
 0.400  0.3298 -123.6  31.677  120.3  0.0174   68.0  0.6224  -47.6
 0.420  0.3328 -126.3  30.728  118.9  0.0180   67.6  0.6060  -48.7
 0.440  0.3364 -128.9  29.799  117.4  0.0186   67.2  0.5898  -49.9
 0.450  0.3385 -130.2  29.343  116.6  0.0189   67.0  0.5818  -50.5
 0.460  0.3408 -131.4  28.893  115.7  0.0192   66.9  0.5738  -51.2
 0.480  0.3458 -133.9  28.010  114.0  0.0198   66.5  0.5582  -52.5
 0.500  0.3514 -136.3  27.155  112.2  0.0204   66.2  0.5429  -53.9
 0.520  0.3535 -138.1  26.379  111.1  0.0210   66.2  0.5297  -54.7
 0.540  0.3559 -139.9  25.614  109.9  0.0215   66.2  0.5166  -55.6
 0.560  0.3587 -141.7  24.860  108.7  0.0221   66.3  0.5037  -56.6
 0.580  0.3618 -143.5  24.118  107.4  0.0226   66.3  0.4909  -57.6
 0.600  0.3653 -145.2  23.390  106.0  0.0232   66.3  0.4782  -58.6
 0.620  0.3664 -146.7  22.808  105.1  0.0238   66.3  0.4679  -59.3
 0.640  0.3677 -148.2  22.233  104.1  0.0244   66.3  0.4576  -60.1
 0.660  0.3692 -149.7  21.664  103.1  0.0249   66.4  0.4475  -60.9
 0.680  0.3711 -151.1  21.103  102.0  0.0255   66.4  0.4374  -61.7
 0.700  0.3731 -152.6  20.549  100.9  0.0261   66.4  0.4274  -62.6
 0.720  0.3752 -154.0  20.056  100.1  0.0266   66.4  0.4185  -63.3
 0.740  0.3775 -155.3  19.568   99.2  0.0272   66.4  0.4097  -64.1
 0.760  0.3800 -156.7  19.084   98.3  0.0277   66.4  0.4009  -64.9
 0.780  0.3828 -158.0  18.605   97.4  0.0283   66.4  0.3923  -65.7
 0.800  0.3857 -159.3  18.131   96.4  0.0288   66.4  0.3837  -66.6
 0.820  0.3867 -160.3  17.742   95.7  0.0293   66.2  0.3767  -67.1
 0.840  0.3879 -161.4  17.356   95.1  0.0298   66.1  0.3697  -67.7
 0.860  0.3892 -162.4  16.972   94.3  0.0303   65.9  0.3627  -68.3
 0.880  0.3906 -163.4  16.591   93.6  0.0308   65.7  0.3558  -68.9
 0.900  0.3921 -164.4  16.213   92.8  0.0313   65.6  0.3489  -69.5
 0.920  0.3930 -165.4  15.891   92.2  0.0319   65.6  0.3427  -70.0
 0.940  0.3940 -166.4  15.571   91.6  0.0326   65.6  0.3365  -70.6
 0.960  0.3952 -167.4  15.253   90.9  0.0332   65.5  0.3304  -71.1
 0.980  0.3964 -168.4  14.937   90.2  0.0339   65.5  0.3243  -71.7
 1.000  0.3978 -169.4  14.623   89.5  0.0345   65.5  0.3182  -72.3
 1.020  0.3992 -170.2  14.360   89.0  0.0350   65.4  0.3130  -73.0
 1.040  0.4006 -171.0  14.099   88.4  0.0355   65.3  0.3078  -73.7
 1.060  0.4021 -171.8  13.839   87.8  0.0361   65.2  0.3027  -74.4
 1.080  0.4037 -172.6  13.581   87.2  0.0366   65.1  0.2976  -75.1
 1.100  0.4054 -173.4  13.324   86.6  0.0371   65.0  0.2926  -75.9
 1.120  0.4062 -174.1  13.096   86.1  0.0377   64.8  0.2884  -76.2
 1.140  0.4071 -174.9  12.869   85.6  0.0383   64.5  0.2842  -76.6
 1.160  0.4081 -175.6  12.643   85.1  0.0388   64.3  0.2801  -76.9
 1.180  0.4091 -176.4  12.419   84.6  0.0394   64.1  0.2759  -77.3
 1.200  0.4102 -177.1  12.195   84.0  0.0400   63.9  0.2718  -77.7
 1.220  0.4108 -177.7  12.009   83.5  0.0405   63.9  0.2677  -78.1
 1.240  0.4115 -178.3  11.825   83.1  0.0410   63.9  0.2637  -78.5
 1.260  0.4122 -178.9  11.641   82.6  0.0416   64.0  0.2596  -78.9
 1.280  0.4130 -179.5  11.457   82.1  0.0421   64.0  0.2556  -79.3
 1.300  0.4138  179.9  11.275   81.6  0.0426   64.0  0.2516  -79.7
 1.320  0.4152  179.3  11.110   81.2  0.0431   63.9  0.2481  -80.5
 1.340  0.4166  178.6  10.945   80.7  0.0437   63.7  0.2446  -81.3
 1.360  0.4181  178.0  10.781   80.3  0.0442   63.6  0.2411  -82.1
 1.380  0.4196  177.4  10.618   79.8  0.0448   63.4  0.2377  -83.0
 1.400  0.4212  176.8  10.456   79.3  0.0453   63.3  0.2344  -83.9
 1.420  0.4223  176.3  10.310   78.9  0.0459   63.2  0.2314  -84.2
 1.440  0.4234  175.7  10.165   78.5  0.0465   63.0  0.2284  -84.5
 1.460  0.4245  175.2  10.020   78.0  0.0471   62.9  0.2254  -84.8
 1.480  0.4257  174.6   9.876   77.6  0.0477   62.7  0.2224  -85.1
 1.500  0.4269  174.1   9.732   77.1  0.0483   62.6  0.2194  -85.4
 1.520  0.4265  173.5   9.610   76.7  0.0488   62.6  0.2162  -85.7
 1.540  0.4262  172.8   9.488   76.3  0.0493   62.6  0.2131  -86.1
 1.560  0.4260  172.2   9.366   75.9  0.0498   62.5  0.2099  -86.4
 1.580  0.4258  171.5   9.245   75.5  0.0503   62.5  0.2067  -86.8
 1.600  0.4256  170.9   9.125   75.1  0.0508   62.5  0.2036  -87.2
 1.620  0.4271  170.4   9.013   74.7  0.0514   62.4  0.2017  -88.0
 1.640  0.4287  169.8   8.902   74.3  0.0520   62.3  0.1999  -88.8
 1.660  0.4302  169.3   8.791   73.9  0.0526   62.1  0.1981  -89.6
 1.680  0.4318  168.8   8.681   73.4  0.0532   62.0  0.1963  -90.4
 1.700  0.4335  168.3   8.571   73.0  0.0538   61.9  0.1946  -91.2
 1.720  0.4347  167.8   8.471   72.7  0.0544   61.7  0.1927  -91.5
 1.740  0.4359  167.3   8.372   72.3  0.0549   61.6  0.1907  -91.9
 1.760  0.4371  166.9   8.273   71.9  0.0555   61.4  0.1888  -92.2
 1.780  0.4384  166.4   8.174   71.6  0.0560   61.3  0.1869  -92.5
 1.800  0.4397  165.9   8.076   71.2  0.0566   61.1  0.1850  -92.9
 1.820  0.4395  165.5   7.992   70.9  0.0573   61.0  0.1819  -93.2
 1.840  0.4394  165.1   7.907   70.5  0.0581   60.8  0.1788  -93.4
 1.860  0.4392  164.7   7.824   70.1  0.0588   60.7  0.1757  -93.7
 1.880  0.4391  164.3   7.740   69.8  0.0596   60.5  0.1727  -94.0
 1.900  0.4390  163.9   7.657   69.4  0.0603   60.4  0.1696  -94.3
 1.920  0.4400  163.4   7.575   69.1  0.0607   60.2  0.1687  -94.8
 1.940  0.4411  162.9   7.493   68.7  0.0611   60.0  0.1678  -95.4
 1.960  0.4423  162.3   7.411   68.3  0.0616   59.8  0.1669  -96.0
 1.980  0.4434  161.8   7.329   68.0  0.0620   59.6  0.1660  -96.5
 2.000  0.4446  161.3   7.248   67.6  0.0624   59.4  0.1652  -97.1
 2.020  0.4451  160.9   7.180   67.3  0.0630   59.2  0.1630  -97.4
 2.040  0.4455  160.5   7.113   67.0  0.0636   59.1  0.1609  -97.8
 2.060  0.4460  160.1   7.045   66.7  0.0642   58.9  0.1587  -98.1
 2.080  0.4465  159.7   6.978   66.4  0.0648   58.7  0.1566  -98.5
 2.100  0.4471  159.3   6.911   66.0  0.0654   58.6  0.1545  -98.9
 2.120  0.4476  158.9   6.844   65.7  0.0660   58.4  0.1523  -99.3
 2.140  0.4482  158.5   6.778   65.4  0.0666   58.2  0.1502  -99.6
 2.160  0.4488  158.1   6.712   65.0  0.0672   58.1  0.1481 -100.1
 2.180  0.4495  157.7   6.646   64.7  0.0678   57.9  0.1460 -100.5
 2.200  0.4501  157.3   6.580   64.3  0.0684   57.8  0.1439 -100.9
 2.220  0.4510  156.9   6.522   64.0  0.0689   57.7  0.1428 -101.3
 2.240  0.4520  156.4   6.464   63.7  0.0694   57.5  0.1416 -101.6
 2.260  0.4529  156.0   6.406   63.4  0.0700   57.4  0.1405 -102.0
 2.280  0.4539  155.6   6.349   63.1  0.0705   57.2  0.1394 -102.4
 2.300  0.4549  155.1   6.291   62.7  0.0710   57.1  0.1383 -102.8
 2.320  0.4560  154.7   6.234   62.4  0.0715   56.9  0.1372 -103.2
 2.340  0.4570  154.3   6.177   62.1  0.0720   56.8  0.1361 -103.6
 2.360  0.4581  153.8   6.121   61.7  0.0726   56.7  0.1350 -104.0
 2.380  0.4593  153.4   6.064   61.4  0.0731   56.5  0.1340 -104.4
 2.400  0.4604  153.0   6.008   61.0  0.0736   56.4  0.1329 -104.8
 2.420  0.4614  152.6   5.960   60.7  0.0742   56.2  0.1309 -105.7
 2.440  0.4624  152.1   5.912   60.4  0.0748   56.0  0.1289 -106.7
 2.460  0.4634  151.7   5.864   60.0  0.0753   55.8  0.1269 -107.6
 2.480  0.4645  151.3   5.816   59.7  0.0759   55.6  0.1250 -108.6
 2.500  0.4656  150.9   5.769   59.4  0.0765   55.4  0.1231 -109.7
 2.520  0.4667  150.5   5.722   59.0  0.0771   55.2  0.1213 -110.7
 2.540  0.4678  150.0   5.675   58.7  0.0777   55.0  0.1195 -111.8
 2.560  0.4690  149.6   5.628   58.3  0.0782   54.9  0.1178 -112.9
 2.580  0.4702  149.2   5.581   58.0  0.0788   54.7  0.1161 -114.1
 2.600  0.4714  148.8   5.535   57.6  0.0794   54.5  0.1144 -115.3
 2.620  0.4723  148.5   5.495   57.3  0.0800   54.3  0.1130 -115.8
 2.640  0.4733  148.1   5.454   57.0  0.0806   54.1  0.1117 -116.3
 2.660  0.4742  147.8   5.414   56.7  0.0812   53.9  0.1104 -116.8
 2.680  0.4752  147.5   5.374   56.4  0.0818   53.7  0.1090 -117.3
 2.700  0.4762  147.1   5.335   56.1  0.0824   53.5  0.1077 -117.8
 2.720  0.4772  146.8   5.295   55.8  0.0830   53.3  0.1064 -118.4
 2.740  0.4782  146.5   5.255   55.5  0.0836   53.1  0.1051 -118.9
 2.760  0.4792  146.1   5.216   55.2  0.0842   53.0  0.1038 -119.5
 2.780  0.4802  145.8   5.177   54.8  0.0848   52.8  0.1026 -120.1
 2.800  0.4813  145.5   5.138   54.5  0.0854   52.6  0.1013 -120.7
 2.820  0.4822  145.1   5.102   54.2  0.0858   52.4  0.1003 -121.7
 2.840  0.4831  144.6   5.065   53.9  0.0863   52.2  0.0994 -122.7
 2.860  0.4840  144.2   5.029   53.6  0.0867   52.0  0.0985 -123.7
 2.880  0.4850  143.7   4.993   53.3  0.0872   51.9  0.0976 -124.8
 2.900  0.4859  143.3   4.957   53.0  0.0876   51.7  0.0968 -125.8
 2.920  0.4870  142.8   4.921   52.6  0.0881   51.5  0.0960 -126.9
 2.940  0.4880  142.4   4.886   52.3  0.0885   51.3  0.0952 -128.0
 2.960  0.4891  142.0   4.850   52.0  0.0890   51.1  0.0945 -129.1
 2.980  0.4902  141.5   4.815   51.6  0.0894   51.0  0.0938 -130.3
 3.000  0.4913  141.1   4.780   51.3  0.0899   50.8  0.0931 -131.4
 3.100  0.4967  139.2   4.632   49.9  0.0926   49.7  0.0902 -138.0
 3.200  0.5027  137.4   4.486   48.4  0.0953   48.6  0.0885 -144.9
 3.300  0.5092  135.6   4.344   46.9  0.0981   47.6  0.0882 -151.9
 3.400  0.5161  133.9   4.205   45.2  0.1009   46.7  0.0892 -158.9
 3.500  0.5235  132.2   4.070   43.4  0.1037   45.8  0.0915 -165.7
 3.600  0.5288  130.6   3.953   42.1  0.1057   44.8  0.0960 -172.3
 3.700  0.5346  129.1   3.839   40.7  0.1077   43.8  0.1017 -178.3
 3.800  0.5407  127.6   3.727   39.2  0.1098   42.9  0.1083  176.4
 3.900  0.5472  126.1   3.618   37.7  0.1119   42.0  0.1158  171.8
 4.000  0.5540  124.7   3.511   36.0  0.1140   41.1  0.1239  167.7
 4.100  0.5594  123.3   3.416   34.7  0.1162   39.9  0.1302  164.8
 4.200  0.5652  121.9   3.323   33.4  0.1185   38.7  0.1368  162.1
 4.300  0.5713  120.5   3.232   32.0  0.1209   37.6  0.1437  159.7
 4.400  0.5777  119.1   3.144   30.5  0.1233   36.5  0.1508  157.6
 4.500  0.5844  117.8   3.057   28.9  0.1257   35.5  0.1581  155.6
 4.600  0.5887  116.5   2.985   27.6  0.1277   34.6  0.1627  153.5
 4.700  0.5933  115.3   2.914   26.3  0.1297   33.7  0.1675  151.6
 4.800  0.5982  114.1   2.844   25.0  0.1317   32.8  0.1725  149.7
 4.900  0.6034  112.9   2.777   23.5  0.1338   32.0  0.1776  147.9
 5.000  0.6088  111.7   2.711   22.0  0.1359   31.2  0.1829  146.3
 5.100  0.6128  110.7   2.649   20.9  0.1379   30.3  0.1859  144.4
 5.200  0.6169  109.7   2.588   19.7  0.1399   29.4  0.1890  142.5
 5.300  0.6213  108.7   2.528   18.4  0.1420   28.6  0.1924  140.6
 5.400  0.6258  107.7   2.470   17.1  0.1441   27.8  0.1960  138.9
 5.500  0.6305  106.7   2.413   15.7  0.1462   27.0  0.1997  137.2
 5.600  0.6341  105.8   2.367   14.6  0.1482   26.1  0.2020  135.3
 5.700  0.6380  104.8   2.322   13.5  0.1501   25.3  0.2045  133.5
 5.800  0.6419  103.9   2.278   12.3  0.1522   24.5  0.2072  131.8
 5.900  0.6461  103.0   2.235   11.1  0.1542   23.7  0.2101  130.1
 6.000  0.6504  102.1   2.193    9.8  0.1563   22.9  0.2132  128.4
!
!  f       NFmin   Gammaopt  rn/50
! GHz       dB    MAG  ANG    -
 0.900      1.82  0.49 -140   0.15
 1.800      1.97  0.51 -142   0.15
 2.400      2.02  0.52 -132   0.19
 3.000      2.14  0.54 -123   0.26
 4.000      2.19  0.61 -102   0.45
 5.000      2.28  0.69  -86   0.67
 6.000      2.72  0.63  -83   1.04
!
! (c) 2015  Infineon Technologies AG, Munich
