! Infineon Technologies  Discrete & RF Semiconductors
! BFP540FESD
! VCE =  1.0 V,  IC =  20 mA
! Common Emitter S-Parameters:                            Nov 2015
# GHz  S  MA  R  50
!  f         S11            S21            S12            S22
! GHz     MAG   ANG      MAG   ANG      MAG   ANG      MAG   ANG
 0.010  0.5245   -2.2  42.727  177.9  0.0012   95.5  0.9320   -3.9
 0.015  0.5225   -4.8  42.207  177.2  0.0014   96.4  0.9325   -3.3
 0.020  0.5217   -7.5  41.694  176.5  0.0016   97.0  0.9330   -2.8
 0.025  0.5220   -8.6  41.650  175.6  0.0021   94.0  0.9322   -3.7
 0.030  0.5224   -9.8  41.615  174.7  0.0026   92.2  0.9316   -4.6
 0.035  0.5231  -10.9  41.591  173.8  0.0031   91.0  0.9313   -5.5
 0.040  0.5239  -12.0  41.578  172.9  0.0037   90.2  0.9312   -6.5
 0.045  0.5250  -13.2  41.574  172.0  0.0042   89.5  0.9313   -7.4
 0.050  0.5263  -14.3  41.581  171.1  0.0047   89.0  0.9317   -8.3
 0.055  0.5233  -15.6  41.400  170.2  0.0051   87.6  0.9285   -9.1
 0.060  0.5206  -16.9  41.229  169.3  0.0055   86.3  0.9255  -10.0
 0.065  0.5182  -18.2  41.068  168.4  0.0059   85.3  0.9227  -10.9
 0.070  0.5161  -19.6  40.918  167.5  0.0063   84.4  0.9201  -11.7
 0.075  0.5142  -20.9  40.778  166.6  0.0067   83.5  0.9177  -12.6
 0.080  0.5126  -22.3  40.649  165.7  0.0071   82.8  0.9155  -13.5
 0.085  0.5114  -23.7  40.530  164.7  0.0075   82.2  0.9136  -14.3
 0.090  0.5104  -25.0  40.422  163.8  0.0079   81.6  0.9118  -15.2
 0.095  0.5097  -26.4  40.325  162.8  0.0083   81.1  0.9103  -16.1
 0.100  0.5093  -27.8  40.239  161.9  0.0087   80.6  0.9090  -17.0
 0.105  0.5064  -29.2  40.041  161.1  0.0091   79.8  0.9042  -17.8
 0.110  0.5039  -30.6  39.850  160.3  0.0095   79.1  0.8996  -18.5
 0.115  0.5016  -32.0  39.668  159.5  0.0099   78.4  0.8951  -19.3
 0.120  0.4997  -33.5  39.494  158.6  0.0103   77.7  0.8908  -20.1
 0.125  0.4981  -34.9  39.329  157.8  0.0107   77.2  0.8867  -20.9
 0.130  0.4968  -36.4  39.172  156.9  0.0111   76.6  0.8827  -21.7
 0.135  0.4958  -37.9  39.023  156.1  0.0115   76.1  0.8789  -22.5
 0.140  0.4952  -39.3  38.883  155.2  0.0119   75.6  0.8753  -23.3
 0.145  0.4949  -40.8  38.752  154.4  0.0123   75.2  0.8719  -24.1
 0.150  0.4949  -42.3  38.630  153.5  0.0127   74.8  0.8686  -24.9
 0.155  0.4923  -43.3  38.347  152.8  0.0131   74.4  0.8627  -25.6
 0.160  0.4898  -44.4  38.071  152.0  0.0135   73.9  0.8569  -26.3
 0.165  0.4875  -45.5  37.801  151.3  0.0139   73.5  0.8513  -27.0
 0.170  0.4854  -46.6  37.538  150.5  0.0143   73.2  0.8458  -27.7
 0.175  0.4834  -47.6  37.282  149.7  0.0147   72.8  0.8404  -28.4
 0.180  0.4816  -48.7  37.033  148.9  0.0152   72.5  0.8352  -29.2
 0.185  0.4800  -49.8  36.790  148.2  0.0156   72.2  0.8300  -29.9
 0.190  0.4786  -51.0  36.555  147.3  0.0160   71.9  0.8251  -30.7
 0.195  0.4774  -52.1  36.327  146.5  0.0164   71.6  0.8203  -31.4
 0.200  0.4763  -53.2  36.107  145.7  0.0168   71.3  0.8156  -32.2
 0.220  0.4663  -57.6  35.063  143.1  0.0181   70.3  0.7945  -34.7
 0.240  0.4591  -62.2  34.094  140.4  0.0194   69.5  0.7749  -37.3
 0.260  0.4520  -66.6  33.123  137.9  0.0207   68.5  0.7546  -39.7
 0.280  0.4446  -70.8  32.129  135.5  0.0220   67.3  0.7330  -41.8
 0.300  0.4397  -75.2  31.193  133.0  0.0232   66.2  0.7125  -44.1
 0.320  0.4305  -78.4  30.237  131.3  0.0241   65.5  0.6920  -45.8
 0.340  0.4227  -81.7  29.310  129.4  0.0250   64.8  0.6722  -47.5
 0.360  0.4164  -85.2  28.414  127.5  0.0259   64.2  0.6530  -49.4
 0.380  0.4116  -88.7  27.554  125.4  0.0268   63.6  0.6345  -51.3
 0.400  0.4084  -92.3  26.733  123.2  0.0277   63.1  0.6168  -53.4
 0.420  0.4024  -95.1  25.966  121.9  0.0284   62.7  0.5995  -54.8
 0.440  0.3974  -97.9  25.214  120.4  0.0291   62.4  0.5826  -56.2
 0.450  0.3953  -99.4  24.845  119.7  0.0294   62.3  0.5742  -56.9
 0.460  0.3934 -100.8  24.479  118.9  0.0297   62.1  0.5660  -57.7
 0.480  0.3904 -103.8  23.762  117.3  0.0304   61.8  0.5499  -59.3
 0.500  0.3885 -106.8  23.065  115.6  0.0311   61.5  0.5342  -61.0
 0.520  0.3845 -109.0  22.439  114.5  0.0318   61.2  0.5209  -62.0
 0.540  0.3811 -111.2  21.822  113.4  0.0325   60.9  0.5078  -63.1
 0.560  0.3782 -113.4  21.213  112.2  0.0332   60.6  0.4949  -64.2
 0.580  0.3760 -115.7  20.614  110.9  0.0339   60.4  0.4822  -65.4
 0.600  0.3743 -118.0  20.026  109.6  0.0346   60.1  0.4697  -66.7
 0.620  0.3715 -119.8  19.551  108.7  0.0353   59.9  0.4597  -67.6
 0.640  0.3691 -121.7  19.081  107.8  0.0360   59.7  0.4498  -68.6
 0.660  0.3671 -123.6  18.616  106.8  0.0367   59.5  0.4401  -69.6
 0.680  0.3655 -125.5  18.156  105.8  0.0374   59.4  0.4305  -70.7
 0.700  0.3643 -127.4  17.703  104.7  0.0381   59.2  0.4211  -71.8
 0.720  0.3631 -129.3  17.302  103.9  0.0388   59.1  0.4121  -72.8
 0.740  0.3624 -131.1  16.904  103.1  0.0395   59.0  0.4032  -73.9
 0.760  0.3620 -133.0  16.510  102.2  0.0401   58.9  0.3945  -75.0
 0.780  0.3620 -134.9  16.119  101.3  0.0408   58.8  0.3859  -76.1
 0.800  0.3624 -136.8  15.733  100.4  0.0415   58.7  0.3775  -77.3
 0.820  0.3611 -138.2  15.408   99.8  0.0421   58.7  0.3704  -78.0
 0.840  0.3600 -139.5  15.086   99.1  0.0428   58.7  0.3633  -78.8
 0.860  0.3591 -140.9  14.765   98.4  0.0434   58.8  0.3562  -79.5
 0.880  0.3584 -142.3  14.447   97.7  0.0441   58.8  0.3493  -80.4
 0.900  0.3579 -143.7  14.131   96.9  0.0447   58.8  0.3424  -81.2
 0.920  0.3570 -144.9  13.864   96.3  0.0454   59.1  0.3366  -81.9
 0.940  0.3563 -146.0  13.598   95.7  0.0461   59.3  0.3308  -82.7
 0.960  0.3557 -147.2  13.333   95.1  0.0469   59.5  0.3251  -83.5
 0.980  0.3552 -148.3  13.071   94.4  0.0476   59.8  0.3195  -84.3
 1.000  0.3549 -149.5  12.810   93.7  0.0483   60.0  0.3139  -85.1
 1.020  0.3558 -150.5  12.588   93.2  0.0490   59.7  0.3094  -86.1
 1.040  0.3567 -151.5  12.367   92.6  0.0497   59.4  0.3050  -87.1
 1.060  0.3578 -152.5  12.147   92.0  0.0503   59.1  0.3007  -88.1
 1.080  0.3590 -153.5  11.928   91.4  0.0510   58.9  0.2964  -89.1
 1.100  0.3603 -154.5  11.711   90.8  0.0517   58.6  0.2923  -90.2
 1.120  0.3605 -155.6  11.516   90.3  0.0524   58.7  0.2881  -90.9
 1.140  0.3608 -156.6  11.322   89.9  0.0530   58.8  0.2839  -91.5
 1.160  0.3612 -157.7  11.129   89.4  0.0537   58.8  0.2797  -92.2
 1.180  0.3617 -158.7  10.936   88.8  0.0543   58.9  0.2756  -93.0
 1.200  0.3624 -159.8  10.745   88.3  0.0550   59.0  0.2715  -93.7
 1.220  0.3618 -160.5  10.583   87.9  0.0556   59.0  0.2674  -94.3
 1.240  0.3612 -161.2  10.423   87.4  0.0561   59.0  0.2634  -95.0
 1.260  0.3607 -162.0  10.262   87.0  0.0567   58.9  0.2593  -95.7
 1.280  0.3603 -162.7  10.103   86.5  0.0572   58.9  0.2553  -96.4
 1.300  0.3599 -163.4   9.944   86.0  0.0578   58.9  0.2514  -97.1
 1.320  0.3607 -164.2   9.801   85.6  0.0586   58.8  0.2488  -98.1
 1.340  0.3615 -165.1   9.659   85.1  0.0593   58.8  0.2463  -99.2
 1.360  0.3624 -165.9   9.517   84.7  0.0601   58.7  0.2439 -100.2
 1.380  0.3634 -166.7   9.376   84.2  0.0608   58.7  0.2415 -101.3
 1.400  0.3644 -167.5   9.236   83.7  0.0616   58.6  0.2393 -102.4
 1.420  0.3658 -168.1   9.106   83.3  0.0621   58.6  0.2370 -103.1
 1.440  0.3673 -168.8   8.977   82.9  0.0626   58.6  0.2347 -103.9
 1.460  0.3688 -169.4   8.848   82.5  0.0632   58.7  0.2325 -104.6
 1.480  0.3704 -170.0   8.720   82.0  0.0637   58.7  0.2303 -105.4
 1.500  0.3720 -170.6   8.592   81.6  0.0642   58.7  0.2282 -106.2
 1.520  0.3717 -171.3   8.482   81.2  0.0649   58.6  0.2252 -106.9
 1.540  0.3715 -172.0   8.373   80.9  0.0656   58.5  0.2222 -107.7
 1.560  0.3713 -172.6   8.264   80.5  0.0662   58.3  0.2193 -108.5
 1.580  0.3712 -173.3   8.155   80.1  0.0669   58.2  0.2164 -109.3
 1.600  0.3711 -174.0   8.047   79.7  0.0676   58.1  0.2135 -110.1
 1.620  0.3719 -174.6   7.948   79.3  0.0682   58.1  0.2126 -111.1
 1.640  0.3728 -175.2   7.850   78.9  0.0689   58.1  0.2117 -112.1
 1.660  0.3737 -175.9   7.752   78.5  0.0695   58.2  0.2108 -113.1
 1.680  0.3746 -176.5   7.655   78.1  0.0702   58.2  0.2101 -114.1
 1.700  0.3756 -177.1   7.558   77.7  0.0708   58.2  0.2094 -115.1
 1.720  0.3761 -177.5   7.468   77.4  0.0715   58.1  0.2088 -115.7
 1.740  0.3767 -178.0   7.379   77.0  0.0722   58.0  0.2082 -116.3
 1.760  0.3773 -178.4   7.290   76.7  0.0728   57.9  0.2076 -116.9
 1.780  0.3779 -178.9   7.201   76.4  0.0735   57.8  0.2070 -117.6
 1.800  0.3785 -179.3   7.113   76.0  0.0742   57.7  0.2065 -118.2
 1.820  0.3788 -179.7   7.035   75.7  0.0749   57.6  0.2040 -118.9
 1.840  0.3791  179.9   6.957   75.4  0.0756   57.5  0.2015 -119.7
 1.860  0.3794  179.4   6.879   75.1  0.0763   57.4  0.1990 -120.5
 1.880  0.3797  179.0   6.801   74.8  0.0770   57.3  0.1966 -121.3
 1.900  0.3801  178.6   6.724   74.5  0.0777   57.2  0.1942 -122.1
 1.920  0.3807  177.9   6.651   74.2  0.0783   57.2  0.1942 -122.9
 1.940  0.3813  177.2   6.578   73.8  0.0789   57.1  0.1942 -123.7
 1.960  0.3820  176.5   6.506   73.4  0.0794   57.1  0.1942 -124.4
 1.980  0.3828  175.8   6.434   73.1  0.0800   57.0  0.1943 -125.2
 2.000  0.3836  175.1   6.362   72.7  0.0806   57.0  0.1944 -126.0
 2.020  0.3838  174.8   6.301   72.5  0.0812   56.9  0.1934 -126.6
 2.040  0.3839  174.6   6.241   72.2  0.0819   56.8  0.1925 -127.2
 2.060  0.3841  174.3   6.180   71.9  0.0825   56.7  0.1916 -127.8
 2.080  0.3843  174.1   6.120   71.7  0.0831   56.6  0.1907 -128.4
 2.100  0.3845  173.8   6.059   71.4  0.0837   56.5  0.1898 -129.0
 2.120  0.3847  173.5   5.999   71.1  0.0844   56.4  0.1890 -129.6
 2.140  0.3849  173.3   5.939   70.9  0.0850   56.4  0.1882 -130.2
 2.160  0.3851  173.0   5.879   70.6  0.0856   56.3  0.1873 -130.8
 2.180  0.3854  172.8   5.820   70.3  0.0863   56.2  0.1866 -131.5
 2.200  0.3856  172.5   5.760   70.0  0.0869   56.1  0.1858 -132.1
 2.220  0.3862  172.0   5.708   69.7  0.0875   56.0  0.1859 -132.6
 2.240  0.3867  171.5   5.656   69.5  0.0882   56.0  0.1860 -133.2
 2.260  0.3874  171.0   5.604   69.2  0.0888   55.9  0.1861 -133.7
 2.280  0.3880  170.5   5.553   68.9  0.0895   55.8  0.1863 -134.3
 2.300  0.3887  170.0   5.501   68.6  0.0901   55.8  0.1864 -134.8
 2.320  0.3894  169.5   5.450   68.3  0.0907   55.7  0.1866 -135.4
 2.340  0.3901  169.0   5.399   68.0  0.0914   55.7  0.1868 -135.9
 2.360  0.3909  168.5   5.348   67.7  0.0920   55.6  0.1870 -136.4
 2.380  0.3917  168.0   5.297   67.4  0.0927   55.6  0.1873 -137.0
 2.400  0.3925  167.5   5.246   67.1  0.0933   55.5  0.1875 -137.5
 2.420  0.3929  167.3   5.203   66.9  0.0940   55.4  0.1872 -138.2
 2.440  0.3934  167.1   5.160   66.6  0.0947   55.3  0.1868 -138.9
 2.460  0.3938  166.8   5.118   66.4  0.0953   55.2  0.1866 -139.7
 2.480  0.3943  166.6   5.075   66.1  0.0960   55.0  0.1863 -140.4
 2.500  0.3947  166.4   5.033   65.9  0.0967   54.9  0.1861 -141.1
 2.520  0.3952  166.2   4.990   65.6  0.0974   54.8  0.1859 -141.9
 2.540  0.3957  166.0   4.948   65.3  0.0981   54.7  0.1857 -142.6
 2.560  0.3961  165.7   4.906   65.1  0.0987   54.6  0.1856 -143.3
 2.580  0.3966  165.5   4.864   64.8  0.0994   54.5  0.1855 -144.1
 2.600  0.3971  165.3   4.822   64.5  0.1001   54.4  0.1854 -144.8
 2.620  0.3970  165.0   4.786   64.3  0.1008   54.3  0.1851 -145.1
 2.640  0.3969  164.7   4.750   64.0  0.1016   54.2  0.1847 -145.4
 2.660  0.3969  164.4   4.715   63.8  0.1023   54.1  0.1844 -145.7
 2.680  0.3968  164.1   4.679   63.5  0.1031   54.0  0.1841 -146.1
 2.700  0.3968  163.9   4.643   63.3  0.1038   53.9  0.1838 -146.4
 2.720  0.3967  163.6   4.608   63.0  0.1046   53.8  0.1835 -146.7
 2.740  0.3967  163.3   4.573   62.8  0.1053   53.8  0.1832 -147.0
 2.760  0.3967  163.0   4.537   62.5  0.1061   53.7  0.1829 -147.4
 2.780  0.3967  162.7   4.502   62.3  0.1068   53.6  0.1826 -147.7
 2.800  0.3967  162.4   4.467   62.0  0.1076   53.5  0.1823 -148.0
 2.820  0.3969  162.1   4.436   61.8  0.1082   53.4  0.1826 -148.4
 2.840  0.3970  161.9   4.404   61.5  0.1087   53.3  0.1829 -148.7
 2.860  0.3972  161.6   4.373   61.3  0.1093   53.3  0.1832 -149.1
 2.880  0.3974  161.3   4.342   61.0  0.1099   53.2  0.1835 -149.5
 2.900  0.3976  161.0   4.310   60.7  0.1104   53.1  0.1838 -149.8
 2.920  0.3979  160.8   4.279   60.5  0.1110   53.0  0.1841 -150.2
 2.940  0.3981  160.5   4.248   60.2  0.1116   52.9  0.1844 -150.5
 2.960  0.3983  160.2   4.217   60.0  0.1122   52.9  0.1847 -150.9
 2.980  0.3986  160.0   4.187   59.7  0.1127   52.8  0.1851 -151.2
 3.000  0.3988  159.7   4.156   59.4  0.1133   52.7  0.1854 -151.6
 3.100  0.3988  158.5   4.031   58.4  0.1165   51.9  0.1850 -153.2
 3.200  0.3989  157.4   3.907   57.3  0.1197   51.2  0.1848 -154.8
 3.300  0.3993  156.2   3.785   56.1  0.1229   50.6  0.1847 -156.3
 3.400  0.3998  155.1   3.664   54.9  0.1261   49.9  0.1847 -157.9
 3.500  0.4004  153.9   3.545   53.6  0.1294   49.3  0.1849 -159.5
 3.600  0.4006  153.3   3.457   52.6  0.1329   48.8  0.1837 -161.0
 3.700  0.4008  152.7   3.370   51.5  0.1363   48.3  0.1827 -162.6
 3.800  0.4011  152.1   3.284   50.4  0.1398   47.8  0.1818 -164.2
 3.900  0.4014  151.5   3.199   49.2  0.1433   47.3  0.1811 -165.8
 4.000  0.4018  150.9   3.116   48.0  0.1468   46.9  0.1805 -167.4
 4.100  0.4011  150.0   3.045   47.0  0.1501   46.0  0.1795 -169.0
 4.200  0.4006  149.0   2.976   45.9  0.1534   45.1  0.1787 -170.5
 4.300  0.4002  148.1   2.907   44.8  0.1568   44.3  0.1781 -172.1
 4.400  0.3998  147.1   2.840   43.6  0.1602   43.5  0.1775 -173.7
 4.500  0.3996  146.2   2.774   42.4  0.1636   42.7  0.1771 -175.3
 4.600  0.4004  145.4   2.721   41.3  0.1670   41.9  0.1759 -176.8
 4.700  0.4013  144.6   2.669   40.2  0.1704   41.1  0.1748 -178.3
 4.800  0.4022  143.8   2.618   39.0  0.1739   40.4  0.1738 -179.9
 4.900  0.4033  143.0   2.568   37.8  0.1774   39.7  0.1729  178.6
 5.000  0.4044  142.2   2.519   36.5  0.1809   39.0  0.1722  177.0
 5.100  0.4022  140.8   2.471   35.4  0.1841   38.1  0.1730  175.1
 5.200  0.4003  139.5   2.425   34.3  0.1874   37.2  0.1740  173.2
 5.300  0.3986  138.1   2.379   33.2  0.1907   36.3  0.1752  171.3
 5.400  0.3971  136.7   2.334   32.0  0.1941   35.5  0.1766  169.5
 5.500  0.3959  135.3   2.290   30.8  0.1975   34.7  0.1782  167.7
 5.600  0.3962  134.2   2.254   29.7  0.2007   33.8  0.1778  166.0
 5.700  0.3966  133.0   2.219   28.7  0.2040   33.0  0.1776  164.3
 5.800  0.3972  131.9   2.185   27.5  0.2073   32.2  0.1775  162.5
 5.900  0.3980  130.7   2.151   26.4  0.2106   31.4  0.1776  160.8
 6.000  0.3989  129.6   2.119   25.2  0.2140   30.7  0.1779  159.1
!
!  f       NFmin   Gammaopt  rn/50
! GHz       dB    MAG  ANG    -
!
! noise parameter not available yet for this operation point!
!
! (c) 2015  Infineon Technologies AG, Munich
