! Infineon Technologies  Discrete & RF Semiconductors
! BFP540
! VCE =  4.5 V,  IC =  15 mA
! Common Emitter S-Parameters:                            Nov 2015
# GHz  S  MA  R  50
!  f         S11            S21            S12            S22
! GHz     MAG   ANG      MAG   ANG      MAG   ANG      MAG   ANG
 0.010  0.5561   -1.1  33.107  177.6  0.0018   28.1  0.9256   -1.2
 0.015  0.5563   -2.3  32.775  177.3  0.0019   31.0  0.9344   -1.4
 0.020  0.5568   -3.5  32.445  176.9  0.0020   33.6  0.9432   -1.6
 0.025  0.5576   -4.4  32.427  176.3  0.0022   40.3  0.9423   -2.1
 0.030  0.5586   -5.2  32.413  175.6  0.0025   45.7  0.9414   -2.6
 0.035  0.5597   -6.1  32.404  175.0  0.0028   50.0  0.9406   -3.0
 0.040  0.5609   -7.0  32.398  174.4  0.0031   53.5  0.9399   -3.5
 0.045  0.5622   -7.8  32.396  173.7  0.0034   56.4  0.9392   -4.0
 0.050  0.5637   -8.7  32.398  173.1  0.0037   58.8  0.9386   -4.5
 0.055  0.5631   -9.6  32.331  172.5  0.0040   60.3  0.9375   -5.0
 0.060  0.5626  -10.6  32.268  171.9  0.0043   61.6  0.9364   -5.5
 0.065  0.5623  -11.5  32.208  171.4  0.0046   62.8  0.9354   -5.9
 0.070  0.5622  -12.4  32.152  170.8  0.0049   63.8  0.9345   -6.4
 0.075  0.5621  -13.4  32.099  170.2  0.0052   64.7  0.9336   -6.9
 0.080  0.5623  -14.3  32.049  169.6  0.0055   65.5  0.9328   -7.4
 0.085  0.5626  -15.2  32.003  169.0  0.0058   66.2  0.9321   -7.9
 0.090  0.5630  -16.1  31.960  168.4  0.0061   66.8  0.9314   -8.3
 0.095  0.5636  -17.1  31.921  167.8  0.0064   67.4  0.9308   -8.8
 0.100  0.5643  -18.0  31.885  167.2  0.0067   67.9  0.9303   -9.3
 0.105  0.5627  -18.9  31.808  166.6  0.0070   68.6  0.9286   -9.8
 0.110  0.5612  -19.8  31.735  166.0  0.0073   69.2  0.9270  -10.2
 0.115  0.5599  -20.7  31.665  165.5  0.0076   69.8  0.9254  -10.7
 0.120  0.5587  -21.6  31.598  164.9  0.0079   70.3  0.9239  -11.1
 0.125  0.5577  -22.5  31.535  164.3  0.0082   70.8  0.9225  -11.6
 0.130  0.5568  -23.4  31.475  163.7  0.0085   71.3  0.9211  -12.0
 0.135  0.5560  -24.3  31.418  163.1  0.0088   71.7  0.9197  -12.5
 0.140  0.5554  -25.2  31.364  162.5  0.0091   72.1  0.9185  -13.0
 0.145  0.5549  -26.1  31.315  161.9  0.0094   72.5  0.9173  -13.4
 0.150  0.5545  -27.0  31.268  161.3  0.0097   72.8  0.9161  -13.9
 0.155  0.5531  -27.9  31.161  160.7  0.0100   72.3  0.9137  -14.3
 0.160  0.5518  -28.7  31.056  160.2  0.0103   71.9  0.9114  -14.8
 0.165  0.5507  -29.6  30.955  159.6  0.0106   71.5  0.9091  -15.2
 0.170  0.5496  -30.4  30.856  159.1  0.0109   71.1  0.9069  -15.7
 0.175  0.5487  -31.3  30.760  158.5  0.0112   70.8  0.9047  -16.1
 0.180  0.5479  -32.2  30.668  157.9  0.0116   70.4  0.9026  -16.6
 0.185  0.5473  -33.1  30.579  157.3  0.0119   70.1  0.9005  -17.0
 0.190  0.5468  -33.9  30.492  156.8  0.0122   69.8  0.8985  -17.5
 0.195  0.5464  -34.8  30.409  156.2  0.0125   69.5  0.8966  -17.9
 0.200  0.5461  -35.7  30.329  155.6  0.0128   69.2  0.8947  -18.4
 0.220  0.5413  -39.0  29.893  153.4  0.0138   69.4  0.8847  -20.1
 0.240  0.5384  -42.4  29.501  151.2  0.0148   69.5  0.8755  -21.7
 0.260  0.5348  -45.7  29.083  149.1  0.0158   68.9  0.8652  -23.4
 0.280  0.5301  -48.9  28.633  147.0  0.0169   67.7  0.8536  -24.9
 0.300  0.5272  -52.2  28.222  144.9  0.0180   66.6  0.8427  -26.5
 0.320  0.5197  -55.1  27.684  143.1  0.0189   66.0  0.8297  -27.8
 0.340  0.5135  -58.1  27.173  141.3  0.0198   65.4  0.8171  -29.2
 0.360  0.5088  -61.1  26.691  139.4  0.0206   64.9  0.8050  -30.6
 0.380  0.5055  -64.2  26.240  137.4  0.0215   64.4  0.7934  -32.1
 0.400  0.5037  -67.3  25.820  135.4  0.0224   64.0  0.7824  -33.6
 0.420  0.4972  -70.0  25.326  133.9  0.0232   63.5  0.7689  -34.8
 0.440  0.4918  -72.7  24.851  132.3  0.0239   63.1  0.7558  -36.0
 0.450  0.4896  -74.1  24.621  131.4  0.0243   62.9  0.7494  -36.6
 0.460  0.4876  -75.5  24.397  130.6  0.0247   62.7  0.7430  -37.3
 0.480  0.4846  -78.3  23.963  128.9  0.0254   62.3  0.7306  -38.6
 0.500  0.4827  -81.2  23.552  127.1  0.0262   61.9  0.7186  -39.9
 0.520  0.4775  -83.5  23.058  125.8  0.0269   61.2  0.7063  -40.8
 0.540  0.4731  -85.9  22.577  124.4  0.0275   60.6  0.6942  -41.8
 0.560  0.4695  -88.3  22.109  123.0  0.0282   60.0  0.6823  -42.8
 0.580  0.4667  -90.7  21.656  121.5  0.0288   59.4  0.6706  -43.8
 0.600  0.4648  -93.2  21.217  120.0  0.0295   58.9  0.6591  -44.9
 0.620  0.4606  -95.2  20.818  118.9  0.0302   58.5  0.6482  -45.7
 0.640  0.4570  -97.3  20.426  117.8  0.0309   58.2  0.6374  -46.6
 0.660  0.4539  -99.4  20.043  116.6  0.0315   57.8  0.6268  -47.5
 0.680  0.4515 -101.5  19.668  115.4  0.0322   57.5  0.6164  -48.4
 0.700  0.4497 -103.6  19.303  114.1  0.0329   57.2  0.6061  -49.4
 0.720  0.4462 -105.6  18.925  113.1  0.0334   56.9  0.5958  -50.2
 0.740  0.4433 -107.7  18.554  112.0  0.0340   56.6  0.5856  -51.0
 0.760  0.4410 -109.7  18.189  110.9  0.0345   56.3  0.5756  -51.8
 0.780  0.4393 -111.8  17.831  109.8  0.0351   56.1  0.5657  -52.7
 0.800  0.4381 -113.9  17.480  108.6  0.0356   55.8  0.5559  -53.6
 0.820  0.4355 -115.5  17.159  107.7  0.0361   55.6  0.5473  -54.2
 0.840  0.4333 -117.1  16.842  106.9  0.0367   55.5  0.5389  -54.8
 0.860  0.4314 -118.7  16.530  105.9  0.0372   55.3  0.5304  -55.5
 0.880  0.4299 -120.3  16.222  105.0  0.0378   55.2  0.5221  -56.1
 0.900  0.4287 -121.9  15.918  104.0  0.0383   55.0  0.5138  -56.8
 0.920  0.4261 -123.4  15.643  103.2  0.0387   54.8  0.5060  -57.3
 0.940  0.4238 -125.0  15.370  102.4  0.0391   54.6  0.4982  -57.9
 0.960  0.4218 -126.5  15.100  101.6  0.0394   54.4  0.4905  -58.5
 0.980  0.4201 -128.1  14.834  100.8  0.0398   54.3  0.4829  -59.1
 1.000  0.4188 -129.7  14.571   99.9  0.0402   54.1  0.4753  -59.7
 1.020  0.4176 -131.1  14.336   99.2  0.0407   54.0  0.4684  -60.3
 1.040  0.4167 -132.6  14.103   98.5  0.0412   54.0  0.4616  -61.0
 1.060  0.4160 -134.1  13.873   97.8  0.0418   53.9  0.4549  -61.6
 1.080  0.4156 -135.5  13.645   97.0  0.0423   53.9  0.4482  -62.3
 1.100  0.4155 -137.0  13.419   96.2  0.0428   53.8  0.4416  -63.0
 1.120  0.4147 -138.3  13.211   95.6  0.0432   53.7  0.4357  -63.4
 1.140  0.4141 -139.6  13.005   95.0  0.0436   53.6  0.4299  -63.7
 1.160  0.4137 -140.9  12.801   94.3  0.0439   53.5  0.4241  -64.1
 1.180  0.4135 -142.2  12.598   93.7  0.0443   53.4  0.4183  -64.5
 1.200  0.4135 -143.5  12.397   93.0  0.0447   53.3  0.4125  -64.9
 1.220  0.4127 -144.5  12.224   92.5  0.0453   53.1  0.4072  -65.3
 1.240  0.4120 -145.4  12.051   91.9  0.0459   52.8  0.4020  -65.6
 1.260  0.4115 -146.4  11.880   91.3  0.0464   52.6  0.3968  -66.0
 1.280  0.4110 -147.3  11.710   90.7  0.0470   52.4  0.3916  -66.4
 1.300  0.4107 -148.3  11.542   90.1  0.0476   52.2  0.3864  -66.8
 1.320  0.4105 -149.4  11.385   89.6  0.0480   52.1  0.3813  -67.4
 1.340  0.4105 -150.6  11.229   89.0  0.0484   52.1  0.3762  -68.1
 1.360  0.4107 -151.7  11.074   88.4  0.0488   52.0  0.3711  -68.7
 1.380  0.4110 -152.9  10.920   87.8  0.0492   52.0  0.3661  -69.4
 1.400  0.4115 -154.0  10.767   87.2  0.0496   51.9  0.3612  -70.1
 1.420  0.4115 -155.0  10.625   86.7  0.0500   51.8  0.3570  -70.3
 1.440  0.4117 -156.0  10.484   86.2  0.0505   51.8  0.3529  -70.6
 1.460  0.4120 -157.0  10.344   85.6  0.0509   51.7  0.3488  -70.9
 1.480  0.4124 -158.0  10.204   85.1  0.0514   51.7  0.3446  -71.1
 1.500  0.4129 -159.0  10.066   84.5  0.0518   51.6  0.3405  -71.4
 1.520  0.4117 -159.8   9.944   84.1  0.0523   51.5  0.3363  -71.7
 1.540  0.4106 -160.7   9.823   83.6  0.0527   51.4  0.3321  -71.9
 1.560  0.4096 -161.5   9.702   83.2  0.0532   51.3  0.3279  -72.2
 1.580  0.4086 -162.4   9.582   82.7  0.0536   51.2  0.3238  -72.5
 1.600  0.4078 -163.2   9.462   82.2  0.0541   51.1  0.3196  -72.8
 1.620  0.4090 -164.1   9.353   81.7  0.0546   51.1  0.3163  -73.4
 1.640  0.4103 -165.0   9.245   81.2  0.0550   51.2  0.3131  -74.0
 1.660  0.4118 -165.9   9.137   80.7  0.0555   51.2  0.3098  -74.6
 1.680  0.4133 -166.7   9.030   80.2  0.0559   51.3  0.3067  -75.2
 1.700  0.4149 -167.6   8.924   79.7  0.0564   51.3  0.3035  -75.8
 1.720  0.4145 -168.4   8.822   79.3  0.0568   51.2  0.3005  -76.0
 1.740  0.4142 -169.2   8.721   78.9  0.0573   51.1  0.2976  -76.3
 1.760  0.4139 -170.1   8.620   78.4  0.0577   50.9  0.2947  -76.6
 1.780  0.4138 -170.9   8.520   78.0  0.0582   50.8  0.2917  -76.8
 1.800  0.4137 -171.7   8.420   77.5  0.0586   50.7  0.2888  -77.1
 1.820  0.4134 -172.3   8.336   77.1  0.0591   50.6  0.2852  -77.3
 1.840  0.4131 -173.0   8.252   76.7  0.0596   50.5  0.2816  -77.4
 1.860  0.4129 -173.6   8.168   76.3  0.0601   50.3  0.2781  -77.6
 1.880  0.4128 -174.3   8.085   75.9  0.0606   50.2  0.2745  -77.7
 1.900  0.4127 -174.9   8.002   75.5  0.0611   50.1  0.2709  -77.9
 1.920  0.4133 -175.7   7.920   75.1  0.0615   50.0  0.2687  -78.3
 1.940  0.4139 -176.4   7.839   74.6  0.0619   49.9  0.2666  -78.7
 1.960  0.4146 -177.2   7.758   74.2  0.0624   49.8  0.2644  -79.1
 1.980  0.4154 -177.9   7.678   73.8  0.0628   49.7  0.2623  -79.6
 2.000  0.4163 -178.7   7.598   73.3  0.0632   49.6  0.2602  -80.0
 2.020  0.4164 -179.3   7.528   73.0  0.0637   49.5  0.2575  -80.2
 2.040  0.4165 -179.9   7.459   72.6  0.0641   49.4  0.2547  -80.4
 2.060  0.4167  179.5   7.389   72.3  0.0646   49.3  0.2520  -80.6
 2.080  0.4170  178.8   7.320   71.9  0.0651   49.2  0.2492  -80.8
 2.100  0.4173  178.2   7.251   71.6  0.0655   49.1  0.2465  -81.0
 2.120  0.4176  177.6   7.183   71.2  0.0660   49.0  0.2438  -81.2
 2.140  0.4180  177.0   7.115   70.9  0.0665   48.9  0.2411  -81.4
 2.160  0.4184  176.4   7.047   70.5  0.0670   48.8  0.2383  -81.6
 2.180  0.4189  175.8   6.979   70.1  0.0674   48.7  0.2356  -81.9
 2.200  0.4194  175.2   6.912   69.7  0.0679   48.6  0.2329  -82.1
 2.220  0.4199  174.6   6.852   69.3  0.0683   48.5  0.2311  -82.3
 2.240  0.4204  173.9   6.792   69.0  0.0688   48.4  0.2293  -82.6
 2.260  0.4210  173.3   6.733   68.6  0.0692   48.3  0.2275  -82.8
 2.280  0.4216  172.7   6.674   68.3  0.0697   48.2  0.2258  -83.1
 2.300  0.4223  172.1   6.615   67.9  0.0701   48.1  0.2240  -83.3
 2.320  0.4231  171.5   6.556   67.5  0.0705   48.0  0.2222  -83.6
 2.340  0.4239  170.8   6.498   67.1  0.0710   47.9  0.2205  -83.8
 2.360  0.4247  170.2   6.440   66.7  0.0714   47.8  0.2187  -84.1
 2.380  0.4256  169.6   6.382   66.3  0.0719   47.7  0.2170  -84.3
 2.400  0.4265  169.0   6.325   65.9  0.0723   47.6  0.2152  -84.6
 2.420  0.4272  168.4   6.275   65.6  0.0728   47.5  0.2123  -85.1
 2.440  0.4280  167.8   6.225   65.2  0.0732   47.4  0.2095  -85.5
 2.460  0.4288  167.1   6.176   64.9  0.0737   47.3  0.2067  -86.0
 2.480  0.4297  166.5   6.127   64.5  0.0741   47.2  0.2038  -86.5
 2.500  0.4306  165.9   6.078   64.1  0.0746   47.1  0.2010  -87.1
 2.520  0.4316  165.3   6.029   63.8  0.0751   47.0  0.1983  -87.6
 2.540  0.4326  164.7   5.981   63.4  0.0755   46.9  0.1955  -88.2
 2.560  0.4336  164.1   5.933   63.0  0.0760   46.8  0.1927  -88.7
 2.580  0.4347  163.5   5.885   62.6  0.0764   46.7  0.1900  -89.3
 2.600  0.4359  162.9   5.837   62.2  0.0769   46.6  0.1873  -89.9
 2.620  0.4366  162.4   5.796   61.9  0.0774   46.5  0.1854  -90.1
 2.640  0.4373  162.0   5.754   61.6  0.0780   46.4  0.1835  -90.3
 2.660  0.4381  161.5   5.713   61.3  0.0785   46.3  0.1816  -90.5
 2.680  0.4389  161.0   5.672   60.9  0.0791   46.2  0.1797  -90.7
 2.700  0.4397  160.6   5.632   60.6  0.0796   46.1  0.1778  -90.9
 2.720  0.4405  160.1   5.591   60.3  0.0801   46.0  0.1759  -91.2
 2.740  0.4414  159.7   5.551   59.9  0.0807   45.9  0.1740  -91.4
 2.760  0.4423  159.2   5.511   59.6  0.0812   45.8  0.1721  -91.6
 2.780  0.4432  158.8   5.471   59.3  0.0818   45.7  0.1702  -91.9
 2.800  0.4442  158.3   5.431   58.9  0.0823   45.6  0.1683  -92.1
 2.820  0.4448  157.8   5.393   58.6  0.0827   45.5  0.1664  -92.6
 2.840  0.4454  157.2   5.355   58.2  0.0831   45.3  0.1646  -93.0
 2.860  0.4461  156.7   5.317   57.9  0.0835   45.2  0.1627  -93.5
 2.880  0.4468  156.1   5.279   57.6  0.0839   45.1  0.1609  -94.0
 2.900  0.4476  155.6   5.242   57.2  0.0842   44.9  0.1590  -94.5
 2.920  0.4483  155.0   5.204   56.9  0.0846   44.8  0.1572  -95.0
 2.940  0.4492  154.5   5.167   56.5  0.0850   44.7  0.1554  -95.5
 2.960  0.4500  154.0   5.130   56.1  0.0854   44.6  0.1536  -96.1
 2.980  0.4510  153.4   5.093   55.8  0.0858   44.4  0.1519  -96.6
 3.000  0.4519  152.9   5.057   55.4  0.0862   44.3  0.1501  -97.2
 3.100  0.4567  150.5   4.902   53.9  0.0885   43.4  0.1416 -100.4
 3.200  0.4623  148.1   4.751   52.4  0.0908   42.6  0.1335 -104.0
 3.300  0.4687  145.8   4.604   50.7  0.0931   41.8  0.1260 -108.0
 3.400  0.4758  143.6   4.461   48.9  0.0954   41.0  0.1193 -112.5
 3.500  0.4836  141.4   4.322   47.0  0.0978   40.3  0.1133 -117.5
 3.600  0.4887  139.4   4.200   45.6  0.0997   39.5  0.1086 -123.5
 3.700  0.4944  137.5   4.080   44.1  0.1016   38.8  0.1052 -129.9
 3.800  0.5006  135.6   3.963   42.6  0.1036   38.1  0.1033 -136.7
 3.900  0.5073  133.8   3.849   40.9  0.1055   37.4  0.1028 -143.7
 4.000  0.5146  132.0   3.739   39.2  0.1075   36.7  0.1038 -150.6
 4.100  0.5202  130.3   3.639   37.9  0.1094   35.7  0.1053 -155.8
 4.200  0.5262  128.6   3.541   36.5  0.1114   34.8  0.1077 -160.8
 4.300  0.5327  126.9   3.445   35.0  0.1134   33.9  0.1109 -165.6
 4.400  0.5396  125.3   3.352   33.4  0.1154   33.0  0.1148 -170.0
 4.500  0.5470  123.7   3.261   31.8  0.1175   32.2  0.1193 -174.2
 4.600  0.5515  122.3   3.185   30.5  0.1194   31.4  0.1218 -177.7
 4.700  0.5564  120.9   3.110   29.1  0.1214   30.7  0.1248  178.9
 4.800  0.5615  119.6   3.037   27.7  0.1233   30.0  0.1281  175.8
 4.900  0.5670  118.3   2.967   26.2  0.1253   29.3  0.1318  172.7
 5.000  0.5727  117.0   2.898   24.6  0.1273   28.6  0.1359  169.9
 5.100  0.5766  115.8   2.832   23.4  0.1292   27.8  0.1375  167.1
 5.200  0.5808  114.6   2.767   22.1  0.1312   27.1  0.1394  164.3
 5.300  0.5852  113.4   2.703   20.8  0.1331   26.3  0.1417  161.7
 5.400  0.5898  112.2   2.641   19.4  0.1351   25.6  0.1442  159.1
 5.500  0.5947  111.1   2.580   18.0  0.1371   24.9  0.1470  156.6
 5.600  0.5988  110.1   2.531   16.9  0.1390   24.2  0.1480  154.0
 5.700  0.6031  109.1   2.483   15.7  0.1410   23.5  0.1493  151.5
 5.800  0.6076  108.1   2.436   14.5  0.1429   22.9  0.1510  149.0
 5.900  0.6123  107.1   2.391   13.3  0.1449   22.2  0.1528  146.6
 6.000  0.6172  106.1   2.346   12.0  0.1469   21.6  0.1550  144.2
!
!  f       NFmin   Gammaopt  rn/50
! GHz       dB    MAG  ANG    -
 0.900      1.03  0.22 -135   0.11
 1.800      1.20  0.25 -147   0.10
 2.400      1.21  0.25 -139   0.10
 3.000      1.32  0.29 -136   0.11
 4.000      1.40  0.41 -108   0.20
 5.000      1.57  0.50  -90   0.30
 6.000      1.83  0.54  -91   0.52
!
! (c) 2015  Infineon Technologies AG, Munich
