! Infineon Technologies  Discrete & RF Semiconductors
! BFP540FESD
! VCE =  2.5 V,  IC =  35 mA
! Common Emitter S-Parameters:                            Nov 2015
# GHz  S  MA  R  50
!  f         S11            S21            S12            S22
! GHz     MAG   ANG      MAG   ANG      MAG   ANG      MAG   ANG
 0.010  0.3512   -2.4  54.974  177.2  0.0009  110.0  0.9132   -2.9
 0.015  0.3504   -5.4  54.230  176.5  0.0010  110.1  0.9200   -2.4
 0.020  0.3506   -8.5  53.494  175.8  0.0012  110.2  0.9268   -1.9
 0.025  0.3510   -9.8  53.393  174.8  0.0016  104.2  0.9256   -2.8
 0.030  0.3515  -11.2  53.307  173.8  0.0019  100.5  0.9247   -3.7
 0.035  0.3522  -12.5  53.238  172.8  0.0023   98.0  0.9239   -4.6
 0.040  0.3532  -13.9  53.185  171.8  0.0027   96.2  0.9235   -5.6
 0.045  0.3543  -15.2  53.148  170.8  0.0031   94.8  0.9232   -6.5
 0.050  0.3556  -16.5  53.128  169.8  0.0035   93.8  0.9232   -7.4
 0.055  0.3534  -18.0  52.839  168.8  0.0038   92.1  0.9201   -8.2
 0.060  0.3514  -19.5  52.564  167.9  0.0040   90.7  0.9173   -9.1
 0.065  0.3496  -21.0  52.305  166.9  0.0043   89.4  0.9146   -9.9
 0.070  0.3481  -22.6  52.061  165.9  0.0046   88.3  0.9122  -10.8
 0.075  0.3469  -24.1  51.833  164.9  0.0048   87.3  0.9099  -11.6
 0.080  0.3459  -25.7  51.620  163.9  0.0051   86.4  0.9078  -12.5
 0.085  0.3452  -27.3  51.424  162.9  0.0054   85.6  0.9060  -13.3
 0.090  0.3447  -28.8  51.244  161.9  0.0057   84.9  0.9043  -14.2
 0.095  0.3445  -30.4  51.080  160.8  0.0059   84.2  0.9028  -15.0
 0.100  0.3446  -32.0  50.933  159.8  0.0062   83.6  0.9016  -15.9
 0.105  0.3424  -33.6  50.607  159.0  0.0065   82.7  0.8961  -16.6
 0.110  0.3406  -35.2  50.291  158.1  0.0069   81.8  0.8907  -17.3
 0.115  0.3390  -36.9  49.988  157.2  0.0072   81.0  0.8854  -18.1
 0.120  0.3377  -38.6  49.695  156.4  0.0075   80.3  0.8803  -18.8
 0.125  0.3366  -40.2  49.415  155.5  0.0078   79.7  0.8754  -19.5
 0.130  0.3359  -41.9  49.146  154.6  0.0082   79.1  0.8706  -20.3
 0.135  0.3355  -43.6  48.890  153.7  0.0085   78.5  0.8659  -21.1
 0.140  0.3353  -45.3  48.645  152.8  0.0088   78.0  0.8614  -21.8
 0.145  0.3355  -47.0  48.414  151.8  0.0092   77.5  0.8571  -22.6
 0.150  0.3359  -48.7  48.195  150.9  0.0095   77.1  0.8529  -23.4
 0.155  0.3343  -49.9  47.781  150.1  0.0097   76.9  0.8467  -24.0
 0.160  0.3328  -51.1  47.375  149.4  0.0100   76.7  0.8407  -24.6
 0.165  0.3315  -52.3  46.978  148.6  0.0102   76.6  0.8347  -25.3
 0.170  0.3303  -53.5  46.590  147.8  0.0105   76.4  0.8288  -25.9
 0.175  0.3293  -54.8  46.211  147.0  0.0107   76.3  0.8231  -26.5
 0.180  0.3284  -56.0  45.842  146.1  0.0110   76.1  0.8174  -27.2
 0.185  0.3277  -57.2  45.482  145.3  0.0112   76.0  0.8119  -27.9
 0.190  0.3272  -58.5  45.133  144.4  0.0115   75.8  0.8064  -28.5
 0.195  0.3267  -59.7  44.793  143.6  0.0117   75.7  0.8011  -29.2
 0.200  0.3265  -61.0  44.464  142.7  0.0120   75.6  0.7959  -29.9
 0.220  0.3193  -65.8  42.979  140.2  0.0130   75.0  0.7729  -32.1
 0.240  0.3144  -70.8  41.586  137.4  0.0140   74.4  0.7511  -34.4
 0.260  0.3102  -75.5  40.224  134.9  0.0148   73.5  0.7294  -36.4
 0.280  0.3063  -80.1  38.869  132.5  0.0154   72.1  0.7074  -38.1
 0.300  0.3043  -84.7  37.588  129.9  0.0160   70.9  0.6860  -39.9
 0.320  0.2989  -88.0  36.331  128.3  0.0168   70.5  0.6663  -41.1
 0.340  0.2947  -91.5  35.106  126.5  0.0175   70.1  0.6470  -42.5
 0.360  0.2915  -95.0  33.915  124.7  0.0183   69.8  0.6280  -43.8
 0.380  0.2894  -98.7  32.764  122.6  0.0190   69.5  0.6094  -45.3
 0.400  0.2885 -102.3  31.655  120.5  0.0198   69.2  0.5912  -46.9
 0.420  0.2855 -105.1  30.700  119.2  0.0206   69.1  0.5748  -47.8
 0.440  0.2833 -108.0  29.762  117.9  0.0214   68.9  0.5586  -48.8
 0.450  0.2824 -109.5  29.299  117.1  0.0218   68.9  0.5506  -49.4
 0.460  0.2817 -110.9  28.841  116.4  0.0222   68.8  0.5426  -49.9
 0.480  0.2810 -113.9  27.941  114.8  0.0230   68.7  0.5267  -51.0
 0.500  0.2809 -116.8  27.062  113.2  0.0238   68.6  0.5111  -52.2
 0.520  0.2793 -118.9  26.295  112.2  0.0244   68.5  0.4992  -52.8
 0.540  0.2781 -121.0  25.536  111.2  0.0250   68.3  0.4873  -53.5
 0.560  0.2773 -123.1  24.785  110.1  0.0255   68.2  0.4755  -54.2
 0.580  0.2768 -125.2  24.044  108.9  0.0261   68.1  0.4638  -54.9
 0.600  0.2767 -127.3  23.314  107.7  0.0267   68.0  0.4521  -55.7
 0.620  0.2755 -129.1  22.745  106.9  0.0273   67.8  0.4430  -56.3
 0.640  0.2746 -130.9  22.182  106.0  0.0279   67.7  0.4340  -56.8
 0.660  0.2739 -132.7  21.623  105.1  0.0285   67.6  0.4250  -57.4
 0.680  0.2735 -134.5  21.071  104.1  0.0291   67.4  0.4161  -58.0
 0.700  0.2734 -136.3  20.525  103.1  0.0297   67.3  0.4072  -58.7
 0.720  0.2737 -138.1  20.054  102.4  0.0304   67.5  0.3989  -59.3
 0.740  0.2743 -140.0  19.586  101.6  0.0311   67.6  0.3906  -59.9
 0.760  0.2752 -141.8  19.122  100.8  0.0317   67.8  0.3824  -60.6
 0.780  0.2764 -143.6  18.661  100.0  0.0324   68.0  0.3743  -61.3
 0.800  0.2778 -145.4  18.205   99.1  0.0331   68.1  0.3662  -62.0
 0.820  0.2775 -146.6  17.826   98.5  0.0337   68.0  0.3598  -62.4
 0.840  0.2773 -147.8  17.448   97.8  0.0343   68.0  0.3534  -62.8
 0.860  0.2772 -149.1  17.073   97.1  0.0350   67.9  0.3471  -63.2
 0.880  0.2772 -150.3  16.701   96.4  0.0356   67.9  0.3407  -63.6
 0.900  0.2774 -151.5  16.331   95.7  0.0362   67.8  0.3344  -64.1
 0.920  0.2769 -152.5  16.017   95.2  0.0369   67.7  0.3292  -64.5
 0.940  0.2765 -153.5  15.704   94.6  0.0377   67.6  0.3240  -64.9
 0.960  0.2762 -154.5  15.393   94.0  0.0384   67.6  0.3189  -65.3
 0.980  0.2760 -155.5  15.083   93.4  0.0392   67.5  0.3137  -65.7
 1.000  0.2758 -156.5  14.775   92.8  0.0399   67.4  0.3086  -66.1
 1.020  0.2776 -157.5  14.518   92.3  0.0405   67.4  0.3042  -66.7
 1.040  0.2796 -158.5  14.262   91.8  0.0411   67.3  0.2998  -67.4
 1.060  0.2816 -159.5  14.007   91.2  0.0416   67.3  0.2955  -68.1
 1.080  0.2836 -160.4  13.754   90.7  0.0422   67.2  0.2912  -68.8
 1.100  0.2858 -161.4  13.502   90.1  0.0428   67.2  0.2869  -69.5
 1.120  0.2866 -162.4  13.273   89.7  0.0435   67.2  0.2829  -69.9
 1.140  0.2875 -163.3  13.046   89.2  0.0442   67.3  0.2789  -70.2
 1.160  0.2885 -164.3  12.819   88.7  0.0448   67.3  0.2749  -70.6
 1.180  0.2896 -165.3  12.593   88.2  0.0455   67.4  0.2710  -71.0
 1.200  0.2907 -166.2  12.368   87.7  0.0462   67.4  0.2670  -71.4
 1.220  0.2904 -166.8  12.181   87.3  0.0469   67.3  0.2633  -71.7
 1.240  0.2902 -167.4  11.994   86.9  0.0476   67.2  0.2596  -72.0
 1.260  0.2899 -168.1  11.808   86.5  0.0484   67.1  0.2559  -72.3
 1.280  0.2898 -168.7  11.623   86.0  0.0491   67.0  0.2523  -72.6
 1.300  0.2896 -169.3  11.438   85.6  0.0498   66.9  0.2486  -72.9
 1.320  0.2910 -170.0  11.274   85.2  0.0504   66.8  0.2455  -73.6
 1.340  0.2924 -170.6  11.111   84.7  0.0510   66.6  0.2424  -74.4
 1.360  0.2939 -171.3  10.948   84.3  0.0515   66.5  0.2394  -75.1
 1.380  0.2954 -172.0  10.786   83.8  0.0521   66.3  0.2364  -75.9
 1.400  0.2969 -172.6  10.625   83.3  0.0527   66.2  0.2335  -76.7
 1.420  0.2987 -173.2  10.479   82.9  0.0533   66.2  0.2310  -77.2
 1.440  0.3006 -173.7  10.333   82.6  0.0540   66.2  0.2286  -77.7
 1.460  0.3025 -174.2  10.188   82.2  0.0546   66.1  0.2261  -78.2
 1.480  0.3044 -174.8  10.043   81.8  0.0553   66.1  0.2237  -78.7
 1.500  0.3063 -175.3   9.899   81.4  0.0559   66.1  0.2213  -79.2
 1.520  0.3058 -175.9   9.772   81.1  0.0566   66.0  0.2182  -79.6
 1.540  0.3054 -176.5   9.646   80.7  0.0573   65.9  0.2151  -80.0
 1.560  0.3049 -177.2   9.520   80.3  0.0579   65.8  0.2120  -80.4
 1.580  0.3045 -177.8   9.394   80.0  0.0586   65.7  0.2090  -80.8
 1.600  0.3042 -178.4   9.269   79.6  0.0593   65.6  0.2059  -81.2
 1.620  0.3057 -179.0   9.155   79.2  0.0599   65.4  0.2042  -82.0
 1.640  0.3072 -179.7   9.041   78.9  0.0605   65.3  0.2024  -82.9
 1.660  0.3087  179.7   8.928   78.5  0.0612   65.1  0.2008  -83.7
 1.680  0.3103  179.1   8.815   78.1  0.0618   65.0  0.1992  -84.6
 1.700  0.3119  178.5   8.702   77.7  0.0624   64.8  0.1976  -85.5
 1.720  0.3120  178.1   8.600   77.4  0.0630   64.7  0.1965  -86.0
 1.740  0.3122  177.7   8.498   77.1  0.0637   64.7  0.1954  -86.5
 1.760  0.3123  177.3   8.396   76.8  0.0643   64.6  0.1943  -87.0
 1.780  0.3125  176.9   8.295   76.4  0.0650   64.6  0.1933  -87.5
 1.800  0.3127  176.5   8.194   76.1  0.0656   64.5  0.1922  -88.0
 1.820  0.3136  176.2   8.104   75.8  0.0663   64.4  0.1894  -88.3
 1.840  0.3145  175.9   8.014   75.5  0.0670   64.3  0.1867  -88.7
 1.860  0.3154  175.5   7.924   75.2  0.0677   64.1  0.1840  -89.0
 1.880  0.3164  175.2   7.834   74.9  0.0684   64.0  0.1812  -89.4
 1.900  0.3173  174.9   7.745   74.6  0.0691   63.9  0.1785  -89.8
 1.920  0.3182  174.2   7.662   74.3  0.0697   63.8  0.1777  -90.6
 1.940  0.3191  173.5   7.578   74.0  0.0702   63.7  0.1770  -91.4
 1.960  0.3201  172.8   7.495   73.7  0.0708   63.7  0.1763  -92.2
 1.980  0.3211  172.2   7.413   73.3  0.0713   63.6  0.1756  -93.0
 2.000  0.3222  171.5   7.330   73.0  0.0719   63.5  0.1750  -93.8
 2.020  0.3223  171.3   7.260   72.8  0.0725   63.3  0.1737  -94.2
 2.040  0.3224  171.1   7.189   72.5  0.0732   63.2  0.1723  -94.6
 2.060  0.3225  170.8   7.119   72.2  0.0738   63.0  0.1710  -95.0
 2.080  0.3225  170.6   7.049   72.0  0.0745   62.8  0.1697  -95.5
 2.100  0.3226  170.4   6.980   71.7  0.0751   62.7  0.1684  -95.9
 2.120  0.3227  170.2   6.910   71.4  0.0758   62.5  0.1671  -96.4
 2.140  0.3229  170.0   6.840   71.2  0.0764   62.4  0.1658  -96.8
 2.160  0.3230  169.7   6.771   70.9  0.0771   62.2  0.1645  -97.3
 2.180  0.3231  169.5   6.702   70.6  0.0777   62.0  0.1633  -97.7
 2.200  0.3232  169.3   6.633   70.3  0.0784   61.9  0.1620  -98.2
 2.220  0.3241  168.8   6.573   70.1  0.0790   61.8  0.1617  -98.8
 2.240  0.3249  168.3   6.514   69.8  0.0796   61.7  0.1614  -99.3
 2.260  0.3258  167.8   6.455   69.5  0.0802   61.6  0.1611  -99.9
 2.280  0.3268  167.3   6.395   69.3  0.0808   61.6  0.1608 -100.5
 2.300  0.3277  166.9   6.336   69.0  0.0814   61.5  0.1606 -101.1
 2.320  0.3287  166.4   6.277   68.7  0.0820   61.4  0.1604 -101.7
 2.340  0.3297  165.9   6.218   68.5  0.0826   61.3  0.1601 -102.2
 2.360  0.3307  165.4   6.160   68.2  0.0832   61.3  0.1599 -102.8
 2.380  0.3317  165.0   6.101   67.9  0.0838   61.2  0.1598 -103.4
 2.400  0.3328  164.5   6.043   67.6  0.0844   61.1  0.1596 -104.0
 2.420  0.3333  164.3   5.994   67.4  0.0850   61.0  0.1585 -104.7
 2.440  0.3337  164.2   5.944   67.1  0.0856   60.9  0.1574 -105.4
 2.460  0.3342  164.0   5.895   66.9  0.0863   60.8  0.1563 -106.1
 2.480  0.3347  163.8   5.846   66.6  0.0869   60.7  0.1553 -106.8
 2.500  0.3352  163.6   5.798   66.4  0.0875   60.6  0.1543 -107.5
 2.520  0.3356  163.5   5.749   66.1  0.0881   60.5  0.1533 -108.3
 2.540  0.3361  163.3   5.700   65.8  0.0887   60.4  0.1523 -109.0
 2.560  0.3366  163.1   5.652   65.6  0.0894   60.3  0.1514 -109.8
 2.580  0.3371  163.0   5.603   65.3  0.0900   60.2  0.1505 -110.5
 2.600  0.3376  162.8   5.555   65.0  0.0906   60.1  0.1496 -111.3
 2.620  0.3377  162.5   5.513   64.8  0.0913   60.0  0.1492 -111.6
 2.640  0.3379  162.2   5.471   64.5  0.0920   59.8  0.1489 -111.9
 2.660  0.3380  161.9   5.430   64.3  0.0927   59.7  0.1485 -112.2
 2.680  0.3382  161.6   5.388   64.1  0.0934   59.5  0.1482 -112.4
 2.700  0.3383  161.3   5.346   63.8  0.0940   59.4  0.1478 -112.7
 2.720  0.3385  161.1   5.305   63.6  0.0947   59.2  0.1475 -113.0
 2.740  0.3387  160.8   5.264   63.4  0.0954   59.1  0.1471 -113.3
 2.760  0.3389  160.5   5.222   63.1  0.0961   59.0  0.1468 -113.6
 2.780  0.3391  160.2   5.181   62.9  0.0968   58.8  0.1464 -113.9
 2.800  0.3393  159.9   5.140   62.6  0.0975   58.7  0.1461 -114.2
 2.820  0.3395  159.7   5.103   62.4  0.0981   58.6  0.1461 -114.6
 2.840  0.3397  159.4   5.067   62.1  0.0986   58.5  0.1461 -115.0
 2.860  0.3400  159.2   5.031   61.9  0.0992   58.4  0.1462 -115.5
 2.880  0.3402  159.0   4.994   61.6  0.0998   58.3  0.1462 -115.9
 2.900  0.3404  158.7   4.958   61.4  0.1003   58.2  0.1463 -116.3
 2.920  0.3407  158.5   4.922   61.1  0.1009   58.1  0.1463 -116.7
 2.940  0.3409  158.3   4.886   60.9  0.1015   58.1  0.1464 -117.1
 2.960  0.3412  158.1   4.850   60.6  0.1021   58.0  0.1464 -117.6
 2.980  0.3414  157.8   4.815   60.4  0.1026   57.9  0.1465 -118.0
 3.000  0.3417  157.6   4.779   60.1  0.1032   57.8  0.1466 -118.4
 3.100  0.3419  156.5   4.633   59.1  0.1062   57.0  0.1455 -120.0
 3.200  0.3423  155.4   4.489   58.0  0.1093   56.2  0.1445 -121.6
 3.300  0.3428  154.4   4.346   56.9  0.1123   55.5  0.1437 -123.3
 3.400  0.3434  153.3   4.206   55.7  0.1154   54.8  0.1429 -124.9
 3.500  0.3441  152.2   4.067   54.4  0.1185   54.2  0.1423 -126.6
 3.600  0.3439  151.7   3.964   53.4  0.1218   53.6  0.1407 -128.1
 3.700  0.3437  151.2   3.862   52.4  0.1251   53.1  0.1392 -129.5
 3.800  0.3435  150.8   3.761   51.4  0.1284   52.6  0.1377 -131.1
 3.900  0.3433  150.3   3.662   50.3  0.1317   52.1  0.1364 -132.6
 4.000  0.3432  149.8   3.564   49.1  0.1350   51.6  0.1352 -134.2
 4.100  0.3430  148.9   3.482   48.1  0.1380   50.7  0.1337 -135.7
 4.200  0.3428  148.1   3.401   47.1  0.1411   49.8  0.1322 -137.1
 4.300  0.3428  147.2   3.321   46.0  0.1442   48.9  0.1309 -138.7
 4.400  0.3428  146.4   3.242   44.8  0.1473   48.1  0.1297 -140.2
 4.500  0.3429  145.5   3.165   43.6  0.1505   47.3  0.1285 -141.8
 4.600  0.3434  144.8   3.103   42.6  0.1538   46.5  0.1268 -143.1
 4.700  0.3439  144.1   3.042   41.5  0.1571   45.7  0.1251 -144.5
 4.800  0.3444  143.4   2.982   40.4  0.1604   44.9  0.1235 -145.8
 4.900  0.3450  142.7   2.924   39.3  0.1637   44.2  0.1220 -147.3
 5.000  0.3457  142.0   2.866   38.1  0.1671   43.5  0.1206 -148.7
 5.100  0.3437  140.7   2.811   37.1  0.1702   42.6  0.1199 -151.2
 5.200  0.3419  139.4   2.757   36.0  0.1734   41.7  0.1193 -153.7
 5.300  0.3403  138.0   2.704   34.9  0.1766   40.8  0.1191 -156.3
 5.400  0.3388  136.7   2.653   33.7  0.1799   40.0  0.1190 -158.8
 5.500  0.3376  135.3   2.602   32.5  0.1832   39.2  0.1192 -161.4
 5.600  0.3381  134.2   2.560   31.5  0.1863   38.3  0.1178 -163.4
 5.700  0.3386  133.1   2.519   30.5  0.1895   37.4  0.1165 -165.5
 5.800  0.3393  132.0   2.479   29.4  0.1927   36.5  0.1154 -167.6
 5.900  0.3402  131.0   2.440   28.3  0.1959   35.7  0.1144 -169.7
 6.000  0.3411  129.9   2.402   27.2  0.1992   34.9  0.1136 -171.9
!
!  f       NFmin   Gammaopt  rn/50
! GHz       dB    MAG  ANG    -
!
! noise parameter not available yet for this operation point!
!
! (c) 2015  Infineon Technologies AG, Munich
