! Infineon Technologies  Discrete & RF Semiconductors
! BFP520
! VCE =  0.5 V,  IC =  5.0 mA
! Common Emitter S-Parameters:                            Oct 2015
# GHz  S  MA  R  50
!  f         S11            S21            S12            S22
! GHz     MAG   ANG      MAG   ANG      MAG   ANG      MAG   ANG
 0.030  0.8651   -2.0  14.149  178.2  0.0020   88.2  0.9666   -1.4
 0.040  0.8657   -2.8  14.143  177.3  0.0028   88.4  0.9671   -1.8
 0.050  0.8721   -3.3  14.062  176.6  0.0036   90.0  0.9672   -2.4
 0.060  0.8656   -3.8  14.061  176.2  0.0041   85.6  0.9677   -2.9
 0.070  0.8631   -4.8  14.177  175.5  0.0049   88.0  0.9677   -3.4
 0.080  0.8636   -5.3  14.122  175.3  0.0056   87.8  0.9680   -3.9
 0.090  0.8625   -6.1  14.133  174.7  0.0063   87.1  0.9675   -4.4
 0.100  0.8648   -6.8  14.057  174.1  0.0070   86.1  0.9670   -4.9
 0.110  0.8623   -7.5  14.086  173.6  0.0076   86.3  0.9669   -5.4
 0.120  0.8628   -8.2  14.105  172.9  0.0083   85.3  0.9664   -5.9
 0.130  0.8625   -8.7  14.092  172.4  0.0090   85.4  0.9657   -6.4
 0.140  0.8643   -9.5  14.115  171.7  0.0097   85.0  0.9651   -6.9
 0.150  0.8598  -10.3  14.063  170.9  0.0104   84.5  0.9643   -7.4
 0.200  0.8568  -13.6  14.033  168.1  0.0138   82.7  0.9599   -9.9
 0.250  0.8494  -17.0  13.949  165.1  0.0172   80.9  0.9544  -12.4
 0.300  0.8454  -20.3  13.829  162.3  0.0205   79.0  0.9470  -14.9
 0.350  0.8387  -23.6  13.699  159.3  0.0238   77.2  0.9385  -17.3
 0.400  0.8294  -27.0  13.552  156.4  0.0269   75.4  0.9288  -19.7
 0.450  0.8198  -30.2  13.387  153.6  0.0301   73.6  0.9186  -22.1
 0.500  0.8103  -33.4  13.208  150.9  0.0331   72.0  0.9068  -24.4
 0.600  0.7889  -39.7  12.851  145.4  0.0389   68.7  0.8811  -28.9
 0.700  0.7639  -46.0  12.427  140.2  0.0445   65.5  0.8527  -33.4
 0.800  0.7388  -52.0  11.968  135.2  0.0495   62.4  0.8228  -37.5
 0.900  0.7140  -58.0  11.550  130.6  0.0541   59.6  0.7921  -41.5
 1.000  0.6876  -63.8  11.097  126.1  0.0584   57.0  0.7612  -45.3
 1.100  0.6627  -69.4  10.645  121.8  0.0624   54.6  0.7304  -48.9
 1.200  0.6382  -74.9  10.214  117.7  0.0660   52.3  0.7002  -52.3
 1.300  0.6151  -80.3   9.798  113.9  0.0694   50.2  0.6707  -55.6
 1.400  0.5922  -85.6   9.384  110.3  0.0725   48.2  0.6414  -58.7
 1.500  0.5706  -90.8   9.001  106.8  0.0755   46.4  0.6148  -61.7
 1.600  0.5486  -96.0   8.627  103.4  0.0781   44.6  0.5872  -64.6
 1.700  0.5313 -100.9   8.279  100.3  0.0807   43.0  0.5631  -67.4
 1.800  0.5146 -105.8   7.951   97.3  0.0832   41.5  0.5387  -70.1
 1.900  0.4984 -110.7   7.644   94.5  0.0855   40.1  0.5158  -72.7
 2.000  0.4838 -115.4   7.352   91.6  0.0877   38.7  0.4939  -75.3
 2.100  0.4690 -120.1   7.072   89.1  0.0897   37.4  0.4730  -77.7
 2.200  0.4575 -125.1   6.808   86.3  0.0918   36.2  0.4530  -80.3
 2.300  0.4457 -129.6   6.566   83.9  0.0937   35.1  0.4337  -82.6
 2.400  0.4369 -134.4   6.336   81.3  0.0956   34.0  0.4151  -85.2
 2.500  0.4274 -138.9   6.116   79.1  0.0974   32.8  0.3974  -87.5
 2.600  0.4207 -143.6   5.905   76.7  0.0992   31.8  0.3803  -90.1
 2.700  0.4133 -147.9   5.709   74.5  0.1009   30.7  0.3638  -92.5
 2.800  0.4084 -152.3   5.522   72.2  0.1026   29.7  0.3480  -95.2
 2.900  0.4036 -156.7   5.347   70.2  0.1043   28.7  0.3329  -97.8
 3.000  0.4011 -161.1   5.180   68.0  0.1059   27.8  0.3185 -100.6
 3.100  0.3960 -165.1   5.025   66.2  0.1074   26.8  0.3052 -103.1
 3.200  0.3930 -169.2   4.874   64.4  0.1089   25.8  0.2925 -105.9
 3.300  0.3920 -173.4   4.730   62.4  0.1104   24.9  0.2806 -108.9
 3.400  0.3932 -177.6   4.591   60.3  0.1119   24.0  0.2694 -112.1
 3.500  0.3964  178.3   4.459   58.1  0.1135   23.1  0.2593 -115.7
 3.600  0.3959  174.6   4.335   56.5  0.1147   22.2  0.2494 -118.8
 3.700  0.3970  170.9   4.215   54.7  0.1160   21.3  0.2402 -122.1
 3.800  0.3998  167.3   4.099   52.9  0.1173   20.5  0.2320 -125.8
 3.900  0.4042  163.7   3.987   51.0  0.1186   19.6  0.2248 -129.6
 4.000  0.4101  160.2   3.880   49.0  0.1199   18.8  0.2186 -133.7
 4.100  0.4126  157.2   3.780   47.5  0.1210   18.0  0.2124 -137.2
 4.200  0.4162  154.2   3.682   45.9  0.1221   17.2  0.2071 -140.9
 4.300  0.4210  151.3   3.588   44.2  0.1232   16.4  0.2026 -144.7
 4.400  0.4268  148.5   3.496   42.4  0.1244   15.6  0.1991 -148.7
 4.500  0.4336  145.7   3.409   40.6  0.1255   14.9  0.1966 -152.9
 4.600  0.4370  143.3   3.328   39.2  0.1265   14.2  0.1927 -156.3
 4.700  0.4412  140.8   3.249   37.7  0.1276   13.5  0.1894 -159.8
 4.800  0.4461  138.5   3.173   36.2  0.1286   12.8  0.1869 -163.5
 4.900  0.4518  136.2   3.099   34.5  0.1297   12.1  0.1852 -167.2
 5.000  0.4581  134.0   3.027   32.8  0.1308   11.4  0.1843 -171.0
 5.100  0.4612  132.0   2.962   31.6  0.1319   10.7  0.1820 -174.0
 5.200  0.4647  130.1   2.898   30.2  0.1330   10.0  0.1802 -177.1
 5.300  0.4688  128.3   2.835   28.8  0.1342    9.4  0.1790  179.7
 5.400  0.4733  126.5   2.775   27.3  0.1354    8.7  0.1783  176.5
 5.500  0.4783  124.7   2.716   25.8  0.1366    8.1  0.1782  173.3
 5.600  0.4806  123.1   2.664   24.5  0.1377    7.4  0.1779  170.5
 5.700  0.4833  121.6   2.613   23.2  0.1389    6.6  0.1780  167.7
 5.800  0.4863  120.1   2.563   21.8  0.1402    5.9  0.1786  164.9
 5.900  0.4896  118.6   2.515   20.4  0.1414    5.3  0.1796  162.1
 6.000  0.4932  117.2   2.469   18.9  0.1427    4.6  0.1810  159.4
 6.100  0.4958  115.7   2.425   17.6  0.1438    3.8  0.1822  156.7
 6.200  0.4988  114.3   2.382   16.3  0.1449    3.1  0.1837  154.1
 6.300  0.5020  112.9   2.340   15.0  0.1461    2.3  0.1856  151.5
 6.400  0.5055  111.5   2.300   13.6  0.1473    1.6  0.1879  149.0
 6.500  0.5093  110.1   2.262   12.2  0.1485    0.8  0.1905  146.5
 6.600  0.5120  108.5   2.224   10.9  0.1496    0.1  0.1924  144.0
 6.700  0.5151  106.9   2.187    9.6  0.1507   -0.7  0.1946  141.6
 6.800  0.5185  105.4   2.151    8.3  0.1518   -1.4  0.1972  139.3
 6.900  0.5223  103.8   2.117    6.9  0.1529   -2.1  0.2001  137.0
 7.000  0.5265  102.3   2.083    5.5  0.1541   -2.8  0.2033  134.8
 7.100  0.5304  100.7   2.051    4.2  0.1552   -3.7  0.2065  132.6
 7.200  0.5348   99.1   2.020    2.9  0.1563   -4.5  0.2101  130.4
 7.300  0.5396   97.5   1.990    1.6  0.1574   -5.3  0.2139  128.3
 7.400  0.5448   96.0   1.961    0.2  0.1586   -6.1  0.2180  126.2
 7.500  0.5504   94.4   1.933   -1.2  0.1598   -6.9  0.2224  124.3
 7.600  0.5559   92.8   1.902   -2.5  0.1606   -7.8  0.2267  121.9
 7.700  0.5618   91.2   1.873   -3.9  0.1615   -8.7  0.2314  119.6
 7.800  0.5681   89.6   1.845   -5.3  0.1625   -9.5  0.2364  117.5
 7.900  0.5749   88.1   1.818   -6.8  0.1634  -10.4  0.2418  115.4
 8.000  0.5821   86.5   1.792   -8.3  0.1644  -11.3  0.2475  113.4
 8.500  0.6159   79.0   1.643  -15.1  0.1668  -16.0  0.2810  102.3
 9.000  0.6536   72.6   1.498  -21.4  0.1664  -20.3  0.3286   93.1
 9.500  0.6935   67.4   1.365  -26.4  0.1649  -23.5  0.3815   87.0
10.000  0.7228   63.3   1.253  -30.7  0.1645  -25.5  0.4259   83.6
10.500  0.7394   60.2   1.170  -33.7  0.1669  -26.7  0.4509   81.9
11.000  0.7469   59.2   1.147  -36.6  0.1756  -28.5  0.4671   82.3
11.500  0.7660   58.8   1.143  -42.4  0.1854  -32.8  0.4889   82.9
12.000  0.7762   56.5   1.086  -49.2  0.1882  -37.6  0.5061   81.6
12.500  0.7591   53.4   1.023  -54.1  0.1907  -41.1  0.4967   78.2
13.000  0.7285   51.4   0.984  -58.6  0.1951  -45.1  0.4736   75.7
13.500  0.7311   49.8   0.971  -64.8  0.2005  -49.8  0.4769   75.0
14.000  0.7577   45.1   0.910  -72.8  0.1977  -56.3  0.4975   71.4
14.500  0.7588   39.3   0.812  -76.5  0.1892  -58.7  0.4969   63.6
15.000  0.7444   35.5   0.787  -77.7  0.1936  -60.1  0.4916   56.6
!
!  f       NFmin   Gammaopt  rn/50
! GHz       dB    MAG  ANG    -
 0.450      1.20  0.47    3   0.32
 0.900      1.18  0.45   10   0.34
 1.900      1.41  0.39   21   0.29
 2.400      1.45  0.35   34   0.28
 3.500      1.40  0.32   56   0.26
!
! (c) 2015  Infineon Technologies AG, Munich
