! Infineon Technologies  Discrete & RF Semiconductors
! BFP540ESD
! VCE =  1.0 V,  IC =  9.0 mA
! Common Emitter S-Parameters:                            Nov 2015
# GHz  S  MA  R  50
!  f         S11            S21            S12            S22
! GHz     MAG   ANG      MAG   ANG      MAG   ANG      MAG   ANG
 0.010  0.6968   -1.5  23.972  178.7  0.0009   83.9  0.9682   -1.6
 0.015  0.6975   -2.7  23.880  178.4  0.0016   85.6  0.9809   -1.9
 0.020  0.6985   -3.8  23.788  178.0  0.0024   86.2  0.9936   -2.1
 0.025  0.6983   -4.5  23.794  177.4  0.0028   85.1  0.9910   -2.6
 0.030  0.6981   -5.3  23.803  176.8  0.0032   84.3  0.9885   -3.1
 0.035  0.6981   -6.1  23.814  176.2  0.0036   83.7  0.9861   -3.6
 0.040  0.6982   -6.8  23.828  175.6  0.0041   83.2  0.9838   -4.1
 0.045  0.6985   -7.6  23.845  175.0  0.0045   82.8  0.9815   -4.6
 0.050  0.6988   -8.3  23.864  174.4  0.0049   82.5  0.9793   -5.1
 0.055  0.6979   -9.1  23.836  173.8  0.0053   82.2  0.9779   -5.6
 0.060  0.6971  -10.0  23.809  173.3  0.0058   82.0  0.9766   -6.1
 0.065  0.6964  -10.8  23.786  172.7  0.0062   81.8  0.9754   -6.6
 0.070  0.6959  -11.7  23.764  172.1  0.0067   81.7  0.9743   -7.1
 0.075  0.6956  -12.5  23.745  171.6  0.0071   81.5  0.9732   -7.6
 0.080  0.6954  -13.4  23.728  171.0  0.0076   81.4  0.9722   -8.1
 0.085  0.6954  -14.2  23.714  170.4  0.0080   81.3  0.9713   -8.7
 0.090  0.6955  -15.1  23.702  169.8  0.0085   81.2  0.9704   -9.2
 0.095  0.6958  -15.9  23.692  169.3  0.0089   81.1  0.9697   -9.7
 0.100  0.6962  -16.8  23.685  168.7  0.0094   81.0  0.9690  -10.2
 0.105  0.6948  -17.6  23.645  168.2  0.0098   80.9  0.9675  -10.7
 0.110  0.6935  -18.4  23.608  167.6  0.0103   80.9  0.9661  -11.2
 0.115  0.6923  -19.2  23.572  167.1  0.0107   80.8  0.9647  -11.7
 0.120  0.6913  -20.1  23.539  166.5  0.0112   80.8  0.9634  -12.2
 0.125  0.6904  -20.9  23.507  166.0  0.0116   80.7  0.9622  -12.7
 0.130  0.6896  -21.7  23.478  165.4  0.0120   80.7  0.9611  -13.2
 0.135  0.6890  -22.5  23.451  164.9  0.0125   80.6  0.9600  -13.8
 0.140  0.6886  -23.3  23.427  164.3  0.0129   80.6  0.9590  -14.3
 0.145  0.6883  -24.2  23.404  163.8  0.0134   80.5  0.9581  -14.8
 0.150  0.6881  -25.0  23.384  163.2  0.0138   80.5  0.9573  -15.3
 0.155  0.6866  -25.8  23.318  162.7  0.0143   79.9  0.9550  -15.8
 0.160  0.6852  -26.6  23.255  162.1  0.0148   79.3  0.9527  -16.3
 0.165  0.6839  -27.4  23.193  161.6  0.0153   78.7  0.9506  -16.8
 0.170  0.6828  -28.2  23.134  161.0  0.0158   78.2  0.9485  -17.3
 0.175  0.6818  -29.0  23.076  160.5  0.0163   77.7  0.9464  -17.8
 0.180  0.6809  -29.8  23.021  159.9  0.0168   77.3  0.9445  -18.3
 0.185  0.6802  -30.6  22.968  159.4  0.0173   76.8  0.9426  -18.8
 0.190  0.6796  -31.5  22.917  158.8  0.0178   76.4  0.9408  -19.3
 0.195  0.6792  -32.3  22.869  158.3  0.0183   76.1  0.9391  -19.8
 0.200  0.6789  -33.1  22.822  157.7  0.0188   75.7  0.9374  -20.3
 0.220  0.6742  -36.2  22.555  155.6  0.0204   74.6  0.9277  -22.2
 0.240  0.6714  -39.2  22.319  153.5  0.0221   73.7  0.9189  -24.0
 0.260  0.6672  -42.3  22.060  151.4  0.0237   72.6  0.9089  -25.9
 0.280  0.6615  -45.4  21.773  149.4  0.0254   71.4  0.8974  -27.7
 0.300  0.6577  -48.5  21.515  147.3  0.0270   70.3  0.8869  -29.5
 0.320  0.6496  -51.3  21.158  145.6  0.0283   68.9  0.8734  -31.1
 0.340  0.6430  -54.1  20.820  143.8  0.0295   67.6  0.8607  -32.8
 0.360  0.6380  -57.0  20.505  141.9  0.0308   66.4  0.8487  -34.5
 0.380  0.6347  -59.9  20.211  140.0  0.0321   65.3  0.8375  -36.3
 0.400  0.6330  -62.8  19.941  138.0  0.0334   64.3  0.8271  -38.1
 0.420  0.6247  -65.4  19.595  136.4  0.0347   63.2  0.8129  -39.5
 0.440  0.6177  -68.1  19.265  134.8  0.0360   62.1  0.7992  -41.0
 0.450  0.6147  -69.4  19.105  133.9  0.0366   61.6  0.7925  -41.8
 0.460  0.6121  -70.8  18.950  133.1  0.0373   61.1  0.7860  -42.6
 0.480  0.6079  -73.6  18.654  131.3  0.0386   60.2  0.7734  -44.2
 0.500  0.6052  -76.4  18.375  129.5  0.0399   59.3  0.7615  -45.8
 0.520  0.5986  -78.6  18.021  128.2  0.0408   58.5  0.7480  -47.0
 0.540  0.5929  -80.9  17.677  126.8  0.0417   57.7  0.7350  -48.3
 0.560  0.5881  -83.3  17.344  125.3  0.0426   57.0  0.7222  -49.6
 0.580  0.5844  -85.6  17.023  123.9  0.0435   56.3  0.7099  -51.0
 0.600  0.5816  -88.0  16.713  122.3  0.0444   55.6  0.6980  -52.4
 0.620  0.5768  -90.0  16.422  121.2  0.0451   55.0  0.6859  -53.5
 0.640  0.5727  -92.0  16.137  120.0  0.0458   54.3  0.6742  -54.6
 0.660  0.5693  -94.1  15.858  118.8  0.0465   53.7  0.6626  -55.8
 0.680  0.5667  -96.2  15.587  117.6  0.0473   53.2  0.6514  -57.0
 0.700  0.5648  -98.3  15.324  116.3  0.0480   52.6  0.6405  -58.3
 0.720  0.5595 -100.4  15.037  115.2  0.0488   52.0  0.6293  -59.4
 0.740  0.5549 -102.5  14.755  114.1  0.0496   51.3  0.6184  -60.5
 0.760  0.5511 -104.6  14.480  113.0  0.0504   50.7  0.6077  -61.6
 0.780  0.5481 -106.7  14.210  111.7  0.0512   50.2  0.5972  -62.8
 0.800  0.5458 -108.9  13.947  110.5  0.0520   49.6  0.5870  -64.0
 0.820  0.5421 -110.5  13.702  109.6  0.0525   49.3  0.5774  -64.9
 0.840  0.5388 -112.1  13.461  108.7  0.0531   48.9  0.5679  -65.7
 0.860  0.5359 -113.7  13.223  107.8  0.0536   48.6  0.5585  -66.7
 0.880  0.5334 -115.3  12.989  106.8  0.0542   48.3  0.5493  -67.6
 0.900  0.5314 -117.0  12.759  105.8  0.0547   48.0  0.5403  -68.6
 0.920  0.5281 -118.5  12.548  105.0  0.0553   47.6  0.5315  -69.4
 0.940  0.5252 -120.1  12.340  104.2  0.0558   47.1  0.5228  -70.3
 0.960  0.5226 -121.6  12.134  103.3  0.0564   46.7  0.5142  -71.2
 0.980  0.5205 -123.2  11.931  102.4  0.0569   46.3  0.5057  -72.1
 1.000  0.5187 -124.8  11.731  101.5  0.0575   45.9  0.4974  -73.0
 1.020  0.5168 -126.2  11.551  100.8  0.0579   45.7  0.4898  -73.9
 1.040  0.5151 -127.7  11.374  100.0  0.0584   45.5  0.4824  -74.8
 1.060  0.5139 -129.2  11.198   99.2  0.0588   45.2  0.4751  -75.7
 1.080  0.5129 -130.6  11.024   98.4  0.0593   45.0  0.4679  -76.7
 1.100  0.5123 -132.1  10.853   97.6  0.0597   44.8  0.4608  -77.7
 1.120  0.5107 -133.4  10.690   96.9  0.0603   44.4  0.4542  -78.3
 1.140  0.5094 -134.7  10.528   96.3  0.0609   44.1  0.4477  -79.0
 1.160  0.5083 -136.0  10.368   95.6  0.0616   43.8  0.4413  -79.6
 1.180  0.5075 -137.3  10.210   94.8  0.0622   43.4  0.4349  -80.3
 1.200  0.5070 -138.6  10.053   94.1  0.0628   43.1  0.4286  -81.0
 1.220  0.5060 -139.7   9.918   93.5  0.0631   43.0  0.4226  -81.6
 1.240  0.5051 -140.7   9.783   92.9  0.0635   43.0  0.4167  -82.3
 1.260  0.5044 -141.8   9.650   92.3  0.0638   42.9  0.4108  -82.9
 1.280  0.5039 -142.8   9.518   91.7  0.0642   42.9  0.4050  -83.6
 1.300  0.5036 -143.9   9.387   91.1  0.0645   42.8  0.3992  -84.3
 1.320  0.5027 -145.0   9.262   90.5  0.0649   42.5  0.3940  -85.2
 1.340  0.5020 -146.2   9.138   89.9  0.0653   42.3  0.3889  -86.1
 1.360  0.5014 -147.3   9.015   89.3  0.0658   42.0  0.3839  -87.0
 1.380  0.5011 -148.5   8.894   88.7  0.0662   41.8  0.3790  -87.9
 1.400  0.5010 -149.6   8.773   88.0  0.0666   41.5  0.3742  -88.9
 1.420  0.5004 -150.6   8.658   87.5  0.0670   41.4  0.3695  -89.4
 1.440  0.5000 -151.7   8.544   86.9  0.0674   41.4  0.3648  -89.9
 1.460  0.4998 -152.7   8.431   86.3  0.0677   41.3  0.3601  -90.4
 1.480  0.4997 -153.8   8.318   85.7  0.0681   41.3  0.3554  -91.0
 1.500  0.4998 -154.8   8.207   85.1  0.0685   41.2  0.3508  -91.5
 1.520  0.4984 -155.7   8.109   84.6  0.0689   41.0  0.3461  -92.1
 1.540  0.4971 -156.5   8.012   84.1  0.0693   40.8  0.3414  -92.7
 1.560  0.4960 -157.4   7.916   83.6  0.0698   40.6  0.3368  -93.3
 1.580  0.4949 -158.3   7.820   83.0  0.0702   40.4  0.3322  -93.9
 1.600  0.4940 -159.2   7.725   82.5  0.0706   40.2  0.3277  -94.5
 1.620  0.4946 -160.2   7.638   82.0  0.0711   40.0  0.3246  -95.3
 1.640  0.4953 -161.1   7.552   81.5  0.0717   39.9  0.3215  -96.1
 1.660  0.4961 -162.1   7.466   80.9  0.0722   39.7  0.3186  -97.0
 1.680  0.4971 -163.0   7.381   80.4  0.0728   39.6  0.3156  -97.8
 1.700  0.4982 -164.0   7.297   79.8  0.0733   39.4  0.3128  -98.7
 1.720  0.4980 -164.8   7.215   79.4  0.0735   39.4  0.3095  -99.2
 1.740  0.4979 -165.6   7.134   78.9  0.0737   39.4  0.3063  -99.6
 1.760  0.4978 -166.4   7.053   78.5  0.0739   39.4  0.3031 -100.1
 1.780  0.4979 -167.2   6.972   78.1  0.0741   39.4  0.2999 -100.6
 1.800  0.4981 -168.0   6.892   77.6  0.0743   39.4  0.2967 -101.1
 1.820  0.4977 -168.7   6.824   77.2  0.0749   39.3  0.2926 -101.6
 1.840  0.4974 -169.4   6.757   76.7  0.0755   39.1  0.2885 -102.2
 1.860  0.4971 -170.2   6.690   76.2  0.0760   39.0  0.2845 -102.7
 1.880  0.4970 -170.9   6.624   75.8  0.0766   38.8  0.2805 -103.3
 1.900  0.4969 -171.6   6.558   75.3  0.0772   38.7  0.2765 -103.9
 1.920  0.4967 -172.4   6.491   74.9  0.0775   38.5  0.2744 -104.5
 1.940  0.4967 -173.2   6.424   74.4  0.0778   38.4  0.2723 -105.1
 1.960  0.4967 -174.0   6.358   73.9  0.0782   38.2  0.2703 -105.7
 1.980  0.4969 -174.8   6.292   73.5  0.0785   38.1  0.2683 -106.3
 2.000  0.4971 -175.6   6.227   73.0  0.0788   37.9  0.2663 -106.9
 2.020  0.4971 -176.2   6.171   72.6  0.0793   37.8  0.2633 -107.4
 2.040  0.4971 -176.9   6.115   72.3  0.0797   37.8  0.2604 -107.9
 2.060  0.4972 -177.5   6.059   71.9  0.0802   37.7  0.2575 -108.4
 2.080  0.4973 -178.2   6.003   71.5  0.0806   37.7  0.2546 -108.9
 2.100  0.4975 -178.8   5.948   71.1  0.0811   37.6  0.2517 -109.4
 2.120  0.4978 -179.4   5.893   70.7  0.0816   37.5  0.2489 -110.0
 2.140  0.4981  179.9   5.838   70.3  0.0820   37.5  0.2460 -110.5
 2.160  0.4985  179.3   5.784   69.9  0.0825   37.4  0.2432 -111.1
 2.180  0.4990  178.6   5.730   69.4  0.0829   37.4  0.2405 -111.7
 2.200  0.4995  178.0   5.676   69.0  0.0834   37.3  0.2377 -112.3
 2.220  0.4997  177.3   5.627   68.6  0.0837   37.2  0.2357 -112.8
 2.240  0.4999  176.7   5.577   68.2  0.0841   37.1  0.2338 -113.2
 2.260  0.5002  176.0   5.529   67.8  0.0844   37.0  0.2319 -113.7
 2.280  0.5005  175.3   5.480   67.4  0.0848   36.8  0.2300 -114.2
 2.300  0.5010  174.7   5.432   67.0  0.0851   36.7  0.2281 -114.7
 2.320  0.5015  174.0   5.383   66.6  0.0854   36.6  0.2262 -115.2
 2.340  0.5020  173.4   5.336   66.2  0.0858   36.5  0.2244 -115.7
 2.360  0.5026  172.7   5.288   65.8  0.0861   36.4  0.2225 -116.2
 2.380  0.5033  172.1   5.241   65.3  0.0865   36.3  0.2207 -116.8
 2.400  0.5041  171.4   5.194   64.9  0.0868   36.2  0.2189 -117.3
 2.420  0.5045  170.8   5.153   64.5  0.0872   36.1  0.2166 -118.2
 2.440  0.5050  170.1   5.112   64.2  0.0877   36.0  0.2143 -119.0
 2.460  0.5056  169.5   5.071   63.8  0.0881   35.8  0.2121 -120.0
 2.480  0.5062  168.9   5.030   63.4  0.0886   35.7  0.2099 -120.9
 2.500  0.5069  168.3   4.990   63.0  0.0890   35.6  0.2078 -121.8
 2.520  0.5076  167.7   4.950   62.6  0.0895   35.5  0.2058 -122.8
 2.540  0.5084  167.0   4.910   62.2  0.0899   35.3  0.2038 -123.8
 2.560  0.5093  166.4   4.871   61.8  0.0904   35.2  0.2019 -124.7
 2.580  0.5102  165.8   4.831   61.4  0.0908   35.1  0.2000 -125.8
 2.600  0.5112  165.2   4.792   61.0  0.0913   35.0  0.1982 -126.8
 2.620  0.5119  164.7   4.758   60.7  0.0918   34.9  0.1963 -127.3
 2.640  0.5127  164.2   4.724   60.3  0.0924   34.8  0.1944 -127.9
 2.660  0.5135  163.7   4.690   59.9  0.0929   34.8  0.1925 -128.5
 2.680  0.5144  163.2   4.656   59.6  0.0934   34.7  0.1907 -129.1
 2.700  0.5153  162.7   4.623   59.2  0.0939   34.6  0.1888 -129.7
 2.720  0.5162  162.2   4.589   58.8  0.0945   34.5  0.1870 -130.3
 2.740  0.5172  161.7   4.556   58.5  0.0950   34.4  0.1852 -130.9
 2.760  0.5182  161.2   4.523   58.1  0.0955   34.4  0.1835 -131.5
 2.780  0.5192  160.7   4.491   57.7  0.0961   34.3  0.1817 -132.1
 2.800  0.5203  160.2   4.458   57.3  0.0966   34.2  0.1800 -132.8
 2.820  0.5207  159.6   4.427   56.9  0.0969   34.1  0.1787 -133.6
 2.840  0.5212  159.1   4.396   56.6  0.0972   34.0  0.1774 -134.5
 2.860  0.5218  158.5   4.365   56.2  0.0975   33.9  0.1762 -135.3
 2.880  0.5223  157.9   4.334   55.8  0.0978   33.8  0.1750 -136.2
 2.900  0.5230  157.4   4.303   55.5  0.0981   33.6  0.1738 -137.1
 2.920  0.5237  156.8   4.273   55.1  0.0984   33.5  0.1727 -137.9
 2.940  0.5244  156.3   4.242   54.7  0.0987   33.4  0.1717 -138.8
 2.960  0.5252  155.7   4.212   54.3  0.0990   33.3  0.1706 -139.8
 2.980  0.5260  155.2   4.183   53.9  0.0993   33.2  0.1696 -140.7
 3.000  0.5269  154.6   4.153   53.5  0.0996   33.1  0.1687 -141.6
 3.100  0.5303  152.0   4.023   51.9  0.1017   32.3  0.1651 -146.3
 3.200  0.5347  149.5   3.895   50.3  0.1039   31.6  0.1627 -151.2
 3.300  0.5402  147.1   3.772   48.5  0.1061   30.9  0.1615 -156.1
 3.400  0.5466  144.7   3.652   46.6  0.1083   30.2  0.1615 -161.1
 3.500  0.5540  142.3   3.536   44.6  0.1105   29.6  0.1628 -166.1
 3.600  0.5583  140.3   3.434   43.1  0.1121   28.9  0.1656 -170.8
 3.700  0.5633  138.3   3.334   41.6  0.1138   28.2  0.1695 -175.4
 3.800  0.5689  136.3   3.237   39.9  0.1154   27.6  0.1744 -179.7
 3.900  0.5753  134.4   3.142   38.2  0.1171   26.9  0.1802  176.2
 4.000  0.5822  132.5   3.051   36.3  0.1188   26.3  0.1869  172.4
 4.100  0.5868  130.7   2.967   34.9  0.1207   25.4  0.1917  169.6
 4.200  0.5919  129.0   2.885   33.4  0.1226   24.6  0.1969  166.8
 4.300  0.5976  127.2   2.805   31.9  0.1245   23.8  0.2025  164.3
 4.400  0.6038  125.6   2.727   30.2  0.1265   23.0  0.2085  161.9
 4.500  0.6105  123.9   2.651   28.5  0.1285   22.2  0.2149  159.6
 4.600  0.6143  122.4   2.587   27.2  0.1301   21.5  0.2184  157.5
 4.700  0.6185  120.9   2.524   25.8  0.1317   20.9  0.2221  155.6
 4.800  0.6231  119.4   2.464   24.3  0.1334   20.3  0.2262  153.6
 4.900  0.6281  117.9   2.404   22.7  0.1350   19.7  0.2304  151.8
 5.000  0.6335  116.5   2.347   21.1  0.1367   19.1  0.2349  150.0
 5.100  0.6366  115.3   2.292   19.9  0.1384   18.4  0.2369  148.1
 5.200  0.6399  114.0   2.237   18.6  0.1402   17.8  0.2391  146.2
 5.300  0.6436  112.8   2.184   17.3  0.1420   17.2  0.2416  144.4
 5.400  0.6476  111.6   2.132   15.9  0.1438   16.6  0.2443  142.6
 5.500  0.6518  110.4   2.082   14.4  0.1456   16.0  0.2473  140.8
 5.600  0.6552  109.4   2.042   13.3  0.1473   15.4  0.2489  139.0
 5.700  0.6588  108.3   2.002   12.1  0.1490   14.8  0.2508  137.2
 5.800  0.6626  107.3   1.964   10.8  0.1507   14.2  0.2529  135.4
 5.900  0.6667  106.3   1.926    9.5  0.1524   13.6  0.2553  133.7
 6.000  0.6709  105.3   1.890    8.2  0.1541   13.0  0.2579  132.0
!
!  f       NFmin   Gammaopt  rn/50
! GHz       dB    MAG  ANG    -
 0.900      0.83  0.08 -128   0.11
 1.800      1.03  0.14 -161   0.10
 2.400      1.04  0.14 -156   0.10
 3.000      1.16  0.21 -156   0.10
 4.000      1.29  0.34 -115   0.15
 5.000      1.48  0.45  -92   0.27
 6.000      1.72  0.53  -95   0.50
!
! (c) 2015  Infineon Technologies AG, Munich
