! Infineon Technologies  Discrete & RF Semiconductors
! BFP540ESD
! VCE =  4.0 V,  IC =  15 mA
! Common Emitter S-Parameters:                            Nov 2015
# GHz  S  MA  R  50
!  f         S11            S21            S12            S22
! GHz     MAG   ANG      MAG   ANG      MAG   ANG      MAG   ANG
 0.010  0.5654   -1.1  33.325  177.7  0.0013   44.8  0.9454   -1.3
 0.015  0.5696   -2.5  33.244  177.3  0.0014   54.3  0.9520   -1.5
 0.020  0.5742   -3.8  33.164  176.9  0.0016   62.0  0.9586   -1.6
 0.025  0.5735   -4.6  33.076  176.3  0.0019   66.1  0.9585   -2.1
 0.030  0.5729   -5.5  32.993  175.6  0.0023   69.0  0.9585   -2.6
 0.035  0.5724   -6.3  32.913  175.0  0.0026   71.1  0.9586   -3.2
 0.040  0.5721   -7.2  32.837  174.4  0.0029   72.8  0.9588   -3.7
 0.045  0.5719   -8.0  32.766  173.7  0.0033   74.1  0.9590   -4.2
 0.050  0.5718   -8.9  32.698  173.1  0.0036   75.2  0.9593   -4.7
 0.055  0.5712   -9.8  32.639  172.5  0.0039   75.1  0.9581   -5.2
 0.060  0.5708  -10.8  32.584  171.9  0.0042   75.0  0.9570   -5.7
 0.065  0.5705  -11.8  32.533  171.3  0.0045   74.9  0.9560   -6.2
 0.070  0.5704  -12.7  32.485  170.7  0.0048   74.8  0.9551   -6.7
 0.075  0.5704  -13.7  32.440  170.1  0.0051   74.7  0.9542   -7.2
 0.080  0.5706  -14.6  32.399  169.5  0.0055   74.7  0.9534   -7.7
 0.085  0.5710  -15.6  32.362  168.9  0.0058   74.6  0.9527   -8.2
 0.090  0.5715  -16.5  32.328  168.3  0.0061   74.6  0.9520   -8.7
 0.095  0.5722  -17.5  32.298  167.7  0.0064   74.5  0.9514   -9.2
 0.100  0.5730  -18.4  32.271  167.1  0.0067   74.5  0.9509   -9.7
 0.105  0.5713  -19.3  32.183  166.5  0.0070   74.5  0.9490  -10.2
 0.110  0.5697  -20.2  32.099  165.9  0.0073   74.4  0.9471  -10.6
 0.115  0.5683  -21.1  32.018  165.3  0.0075   74.4  0.9453  -11.1
 0.120  0.5670  -22.0  31.940  164.7  0.0078   74.4  0.9435  -11.6
 0.125  0.5659  -22.9  31.866  164.1  0.0081   74.4  0.9419  -12.0
 0.130  0.5649  -23.8  31.795  163.5  0.0084   74.4  0.9402  -12.5
 0.135  0.5641  -24.7  31.728  162.9  0.0087   74.3  0.9387  -13.0
 0.140  0.5634  -25.7  31.664  162.3  0.0089   74.3  0.9372  -13.4
 0.145  0.5628  -26.6  31.604  161.7  0.0092   74.3  0.9358  -13.9
 0.150  0.5624  -27.5  31.548  161.1  0.0095   74.3  0.9344  -14.4
 0.155  0.5609  -28.4  31.438  160.5  0.0098   74.2  0.9318  -14.8
 0.160  0.5596  -29.2  31.332  160.0  0.0102   74.1  0.9293  -15.3
 0.165  0.5584  -30.1  31.228  159.4  0.0105   74.0  0.9269  -15.8
 0.170  0.5573  -30.9  31.128  158.8  0.0109   73.9  0.9245  -16.2
 0.175  0.5564  -31.8  31.030  158.2  0.0112   73.8  0.9222  -16.7
 0.180  0.5556  -32.7  30.936  157.7  0.0116   73.8  0.9199  -17.1
 0.185  0.5549  -33.6  30.845  157.1  0.0119   73.7  0.9177  -17.6
 0.190  0.5543  -34.4  30.758  156.5  0.0123   73.6  0.9156  -18.1
 0.195  0.5539  -35.3  30.673  155.9  0.0126   73.6  0.9135  -18.5
 0.200  0.5536  -36.2  30.592  155.3  0.0130   73.5  0.9115  -19.0
 0.220  0.5486  -39.5  30.129  153.1  0.0140   72.7  0.9010  -20.7
 0.240  0.5455  -42.8  29.711  150.9  0.0150   71.9  0.8913  -22.4
 0.260  0.5413  -46.1  29.281  148.7  0.0161   71.4  0.8801  -24.1
 0.280  0.5362  -49.4  28.829  146.6  0.0174   71.1  0.8674  -25.7
 0.300  0.5328  -52.8  28.417  144.5  0.0187   70.8  0.8554  -27.3
 0.320  0.5255  -55.7  27.858  142.7  0.0194   69.4  0.8419  -28.7
 0.340  0.5197  -58.8  27.326  140.9  0.0202   68.0  0.8289  -30.1
 0.360  0.5154  -61.8  26.824  139.0  0.0209   66.8  0.8164  -31.6
 0.380  0.5125  -65.0  26.354  137.0  0.0216   65.7  0.8045  -33.1
 0.400  0.5112  -68.1  25.916  134.9  0.0224   64.6  0.7932  -34.7
 0.420  0.5042  -70.8  25.410  133.3  0.0233   64.1  0.7790  -35.9
 0.440  0.4983  -73.5  24.923  131.7  0.0242   63.6  0.7652  -37.1
 0.450  0.4958  -74.9  24.687  130.9  0.0246   63.3  0.7585  -37.8
 0.460  0.4936  -76.3  24.456  130.1  0.0250   63.1  0.7518  -38.4
 0.480  0.4901  -79.2  24.012  128.3  0.0259   62.7  0.7387  -39.7
 0.500  0.4878  -82.1  23.590  126.5  0.0268   62.3  0.7261  -41.1
 0.520  0.4821  -84.4  23.091  125.2  0.0275   61.8  0.7132  -42.1
 0.540  0.4773  -86.8  22.604  123.8  0.0282   61.4  0.7005  -43.1
 0.560  0.4733  -89.2  22.130  122.4  0.0288   60.9  0.6880  -44.1
 0.580  0.4701  -91.6  21.670  120.9  0.0295   60.5  0.6758  -45.2
 0.600  0.4678  -94.1  21.226  119.4  0.0302   60.1  0.6638  -46.3
 0.620  0.4635  -96.1  20.819  118.3  0.0308   59.7  0.6526  -47.1
 0.640  0.4599  -98.1  20.421  117.2  0.0314   59.3  0.6415  -48.0
 0.660  0.4567 -100.1  20.030  116.0  0.0319   58.9  0.6306  -48.9
 0.680  0.4542 -102.2  19.648  114.8  0.0325   58.5  0.6199  -49.8
 0.700  0.4523 -104.3  19.276  113.5  0.0331   58.1  0.6093  -50.8
 0.720  0.4489 -106.3  18.895  112.5  0.0337   57.7  0.5989  -51.6
 0.740  0.4461 -108.4  18.520  111.5  0.0343   57.3  0.5886  -52.5
 0.760  0.4439 -110.5  18.151  110.4  0.0348   56.9  0.5784  -53.3
 0.780  0.4422 -112.6  17.789  109.3  0.0354   56.5  0.5684  -54.3
 0.800  0.4412 -114.7  17.434  108.1  0.0360   56.1  0.5585  -55.2
 0.820  0.4386 -116.3  17.113  107.2  0.0365   55.7  0.5497  -55.8
 0.840  0.4363 -117.9  16.795  106.4  0.0369   55.4  0.5409  -56.4
 0.860  0.4344 -119.6  16.482  105.4  0.0374   55.0  0.5323  -57.1
 0.880  0.4328 -121.2  16.173  104.5  0.0378   54.6  0.5236  -57.7
 0.900  0.4316 -122.9  15.869  103.5  0.0383   54.3  0.5151  -58.4
 0.920  0.4292 -124.4  15.591  102.8  0.0389   54.4  0.5071  -59.0
 0.940  0.4271 -125.9  15.317  102.0  0.0395   54.4  0.4991  -59.5
 0.960  0.4252 -127.4  15.045  101.2  0.0400   54.5  0.4912  -60.1
 0.980  0.4237 -129.0  14.776  100.4  0.0406   54.5  0.4834  -60.8
 1.000  0.4225 -130.5  14.510   99.5  0.0412   54.6  0.4756  -61.4
 1.020  0.4212 -132.0  14.275   98.8  0.0416   54.4  0.4686  -62.0
 1.040  0.4201 -133.4  14.042   98.1  0.0420   54.1  0.4616  -62.7
 1.060  0.4193 -134.9  13.811   97.3  0.0424   53.9  0.4547  -63.3
 1.080  0.4188 -136.4  13.583   96.5  0.0428   53.6  0.4478  -64.0
 1.100  0.4186 -137.9  13.358   95.7  0.0432   53.4  0.4410  -64.7
 1.120  0.4179 -139.1  13.149   95.1  0.0436   53.4  0.4351  -65.1
 1.140  0.4173 -140.3  12.942   94.5  0.0441   53.4  0.4293  -65.5
 1.160  0.4170 -141.6  12.737   93.8  0.0445   53.4  0.4235  -65.9
 1.180  0.4168 -142.8  12.533   93.2  0.0450   53.4  0.4177  -66.3
 1.200  0.4168 -144.0  12.331   92.5  0.0454   53.4  0.4119  -66.7
 1.220  0.4161 -145.0  12.159   92.0  0.0459   53.1  0.4065  -67.1
 1.240  0.4156 -146.0  11.987   91.4  0.0465   52.8  0.4010  -67.5
 1.260  0.4152 -147.0  11.817   90.9  0.0470   52.5  0.3956  -67.9
 1.280  0.4149 -148.0  11.648   90.3  0.0476   52.3  0.3903  -68.4
 1.300  0.4147 -149.0  11.480   89.7  0.0481   52.0  0.3849  -68.8
 1.320  0.4146 -150.1  11.323   89.2  0.0486   52.1  0.3797  -69.4
 1.340  0.4146 -151.3  11.167   88.6  0.0490   52.1  0.3746  -70.1
 1.360  0.4149 -152.4  11.012   88.0  0.0495   52.2  0.3695  -70.7
 1.380  0.4153 -153.6  10.858   87.4  0.0499   52.2  0.3645  -71.4
 1.400  0.4158 -154.7  10.706   86.8  0.0504   52.3  0.3595  -72.1
 1.420  0.4158 -155.6  10.563   86.3  0.0508   52.1  0.3553  -72.4
 1.440  0.4159 -156.5  10.421   85.8  0.0512   51.9  0.3511  -72.6
 1.460  0.4161 -157.5  10.280   85.3  0.0517   51.7  0.3469  -72.9
 1.480  0.4164 -158.4  10.140   84.7  0.0521   51.5  0.3427  -73.2
 1.500  0.4168 -159.3  10.001   84.2  0.0525   51.3  0.3385  -73.5
 1.520  0.4157 -160.2   9.879   83.7  0.0529   51.3  0.3343  -73.8
 1.540  0.4147 -161.0   9.758   83.3  0.0533   51.3  0.3301  -74.1
 1.560  0.4139 -161.9   9.638   82.8  0.0537   51.2  0.3259  -74.4
 1.580  0.4131 -162.8   9.518   82.3  0.0541   51.2  0.3217  -74.7
 1.600  0.4124 -163.7   9.399   81.8  0.0545   51.2  0.3175  -75.0
 1.620  0.4132 -164.6   9.291   81.3  0.0550   51.1  0.3142  -75.6
 1.640  0.4141 -165.6   9.184   80.8  0.0554   51.0  0.3109  -76.2
 1.660  0.4151 -166.5   9.078   80.3  0.0559   51.0  0.3077  -76.8
 1.680  0.4163 -167.4   8.972   79.8  0.0563   50.9  0.3045  -77.5
 1.700  0.4175 -168.3   8.867   79.3  0.0568   50.8  0.3013  -78.1
 1.720  0.4175 -169.1   8.766   78.9  0.0573   50.7  0.2984  -78.3
 1.740  0.4175 -169.8   8.666   78.5  0.0578   50.7  0.2955  -78.6
 1.760  0.4176 -170.6   8.566   78.1  0.0582   50.6  0.2926  -78.9
 1.780  0.4178 -171.3   8.466   77.6  0.0587   50.6  0.2898  -79.1
 1.800  0.4180 -172.1   8.367   77.2  0.0592   50.5  0.2869  -79.4
 1.820  0.4177 -172.8   8.282   76.8  0.0597   50.4  0.2832  -79.6
 1.840  0.4174 -173.4   8.198   76.4  0.0603   50.3  0.2794  -79.8
 1.860  0.4172 -174.1   8.114   76.0  0.0608   50.3  0.2757  -80.0
 1.880  0.4170 -174.7   8.031   75.6  0.0614   50.2  0.2720  -80.2
 1.900  0.4169 -175.4   7.948   75.2  0.0619   50.1  0.2683  -80.4
 1.920  0.4174 -176.2   7.867   74.8  0.0623   50.0  0.2662  -80.8
 1.940  0.4181 -177.0   7.785   74.3  0.0627   49.9  0.2642  -81.3
 1.960  0.4188 -177.7   7.705   73.9  0.0630   49.7  0.2622  -81.7
 1.980  0.4195 -178.5   7.625   73.5  0.0634   49.6  0.2602  -82.1
 2.000  0.4204 -179.3   7.545   73.0  0.0638   49.5  0.2582  -82.6
 2.020  0.4205 -179.9   7.475   72.7  0.0643   49.4  0.2554  -82.8
 2.040  0.4207  179.5   7.406   72.3  0.0648   49.3  0.2526  -83.0
 2.060  0.4209  179.0   7.337   72.0  0.0653   49.2  0.2498  -83.2
 2.080  0.4211  178.4   7.268   71.6  0.0658   49.1  0.2470  -83.5
 2.100  0.4214  177.8   7.200   71.3  0.0663   49.0  0.2442  -83.7
 2.120  0.4217  177.2   7.132   70.9  0.0668   48.9  0.2414  -83.9
 2.140  0.4221  176.6   7.064   70.6  0.0673   48.9  0.2386  -84.2
 2.160  0.4225  176.1   6.996   70.2  0.0678   48.8  0.2358  -84.4
 2.180  0.4230  175.5   6.929   69.8  0.0683   48.7  0.2330  -84.6
 2.200  0.4235  174.9   6.862   69.4  0.0688   48.6  0.2302  -84.9
 2.220  0.4239  174.3   6.802   69.0  0.0692   48.5  0.2284  -85.1
 2.240  0.4244  173.6   6.743   68.7  0.0696   48.3  0.2265  -85.4
 2.260  0.4250  173.0   6.683   68.3  0.0700   48.2  0.2247  -85.6
 2.280  0.4256  172.4   6.624   68.0  0.0704   48.1  0.2229  -85.9
 2.300  0.4263  171.7   6.565   67.6  0.0708   48.0  0.2210  -86.1
 2.320  0.4270  171.1   6.507   67.2  0.0713   47.9  0.2192  -86.4
 2.340  0.4277  170.5   6.449   66.8  0.0717   47.7  0.2174  -86.7
 2.360  0.4285  169.8   6.391   66.4  0.0721   47.6  0.2156  -86.9
 2.380  0.4294  169.2   6.333   66.0  0.0725   47.5  0.2138  -87.2
 2.400  0.4303  168.6   6.276   65.6  0.0729   47.4  0.2120  -87.5
 2.420  0.4310  168.0   6.227   65.3  0.0734   47.3  0.2092  -88.0
 2.440  0.4318  167.4   6.178   64.9  0.0740   47.2  0.2064  -88.5
 2.460  0.4326  166.8   6.129   64.6  0.0745   47.1  0.2036  -89.0
 2.480  0.4335  166.2   6.080   64.2  0.0750   47.0  0.2009  -89.6
 2.500  0.4345  165.6   6.032   63.8  0.0755   46.9  0.1982  -90.2
 2.520  0.4354  165.0   5.984   63.5  0.0761   46.8  0.1954  -90.7
 2.540  0.4365  164.4   5.936   63.1  0.0766   46.7  0.1927  -91.3
 2.560  0.4375  163.8   5.888   62.7  0.0771   46.6  0.1901  -91.9
 2.580  0.4386  163.2   5.841   62.3  0.0777   46.5  0.1874  -92.6
 2.600  0.4398  162.6   5.794   61.9  0.0782   46.4  0.1848  -93.2
 2.620  0.4406  162.1   5.753   61.6  0.0787   46.3  0.1829  -93.4
 2.640  0.4414  161.7   5.712   61.3  0.0792   46.2  0.1810  -93.7
 2.660  0.4422  161.2   5.671   61.0  0.0797   46.1  0.1791  -93.9
 2.680  0.4430  160.8   5.630   60.6  0.0802   46.1  0.1772  -94.1
 2.700  0.4439  160.3   5.589   60.3  0.0806   46.0  0.1753  -94.4
 2.720  0.4448  159.9   5.549   60.0  0.0811   45.9  0.1734  -94.6
 2.740  0.4457  159.4   5.509   59.6  0.0816   45.8  0.1715  -94.9
 2.760  0.4467  159.0   5.468   59.3  0.0821   45.8  0.1696  -95.2
 2.780  0.4477  158.5   5.429   59.0  0.0826   45.7  0.1677  -95.4
 2.800  0.4487  158.1   5.389   58.6  0.0831   45.6  0.1658  -95.7
 2.820  0.4492  157.5   5.351   58.3  0.0835   45.5  0.1639  -96.2
 2.840  0.4498  157.0   5.314   57.9  0.0839   45.3  0.1620  -96.7
 2.860  0.4505  156.4   5.276   57.6  0.0843   45.2  0.1602  -97.2
 2.880  0.4511  155.9   5.239   57.3  0.0847   45.0  0.1583  -97.8
 2.900  0.4518  155.3   5.202   56.9  0.0851   44.9  0.1565  -98.3
 2.920  0.4526  154.8   5.165   56.6  0.0855   44.7  0.1546  -98.9
 2.940  0.4534  154.2   5.129   56.2  0.0859   44.6  0.1528  -99.5
 2.960  0.4542  153.7   5.092   55.8  0.0863   44.5  0.1510 -100.1
 2.980  0.4551  153.1   5.056   55.5  0.0867   44.3  0.1493 -100.7
 3.000  0.4560  152.6   5.020   55.1  0.0871   44.2  0.1475 -101.3
 3.100  0.4606  150.2   4.866   53.6  0.0894   43.3  0.1392 -104.8
 3.200  0.4660  147.8   4.715   52.1  0.0917   42.5  0.1316 -108.7
 3.300  0.4722  145.5   4.567   50.4  0.0941   41.7  0.1246 -113.1
 3.400  0.4791  143.2   4.424   48.6  0.0964   41.0  0.1184 -117.9
 3.500  0.4868  141.0   4.286   46.7  0.0988   40.3  0.1132 -123.3
 3.600  0.4923  139.1   4.165   45.3  0.1007   39.5  0.1095 -129.5
 3.700  0.4983  137.2   4.046   43.8  0.1026   38.7  0.1071 -136.1
 3.800  0.5048  135.3   3.930   42.3  0.1045   37.9  0.1062 -142.8
 3.900  0.5119  133.5   3.817   40.6  0.1064   37.2  0.1068 -149.6
 4.000  0.5194  131.8   3.708   38.9  0.1084   36.5  0.1088 -156.2
 4.100  0.5246  130.1   3.609   37.6  0.1104   35.5  0.1109 -161.1
 4.200  0.5303  128.4   3.512   36.2  0.1125   34.5  0.1138 -165.8
 4.300  0.5364  126.8   3.417   34.7  0.1146   33.6  0.1174 -170.2
 4.400  0.5429  125.2   3.324   33.1  0.1167   32.7  0.1217 -174.4
 4.500  0.5499  123.6   3.234   31.5  0.1189   31.8  0.1266 -178.2
 4.600  0.5546  122.2   3.158   30.2  0.1207   31.0  0.1294  178.6
 4.700  0.5596  120.8   3.084   28.8  0.1226   30.3  0.1326  175.5
 4.800  0.5649  119.4   3.011   27.4  0.1245   29.5  0.1361  172.6
 4.900  0.5706  118.1   2.940   25.9  0.1264   28.8  0.1400  169.8
 5.000  0.5765  116.8   2.872   24.3  0.1283   28.1  0.1442  167.2
 5.100  0.5804  115.6   2.806   23.1  0.1303   27.4  0.1460  164.5
 5.200  0.5845  114.4   2.741   21.9  0.1322   26.6  0.1481  161.8
 5.300  0.5889  113.2   2.678   20.6  0.1342   25.9  0.1505  159.3
 5.400  0.5935  112.0   2.616   19.2  0.1363   25.3  0.1531  156.8
 5.500  0.5984  110.9   2.555   17.8  0.1383   24.6  0.1561  154.4
 5.600  0.6025  109.9   2.507   16.7  0.1401   23.9  0.1572  152.0
 5.700  0.6067  108.9   2.459   15.5  0.1420   23.2  0.1585  149.6
 5.800  0.6111  108.0   2.413   14.3  0.1438   22.5  0.1602  147.2
 5.900  0.6157  107.0   2.367   13.1  0.1457   21.8  0.1621  144.9
 6.000  0.6205  106.1   2.323   11.8  0.1476   21.2  0.1642  142.7
!
!  f       NFmin   Gammaopt  rn/50
! GHz       dB    MAG  ANG    -
 0.900      1.03  0.22 -135   0.11
 1.800      1.20  0.25 -147   0.10
 2.400      1.21  0.25 -139   0.10
 3.000      1.32  0.29 -136   0.11
 4.000      1.40  0.41 -108   0.20
 5.000      1.57  0.50  -90   0.30
 6.000      1.83  0.54  -91   0.52
!
! (c) 2015  Infineon Technologies AG, Munich
