! Infineon Technologies  Discrete & RF Semiconductors
! BFP540FESD
! VCE =  4.5 V,  IC =  30 mA
! Common Emitter S-Parameters:                            Nov 2015
# GHz  S  MA  R  50
!  f         S11            S21            S12            S22
! GHz     MAG   ANG      MAG   ANG      MAG   ANG      MAG   ANG
 0.010  0.3559    0.1  50.248  176.5  0.0021   24.4  0.8349   -2.5
 0.015  0.3540   -2.7  49.110  176.0  0.0022   24.7  0.8397   -1.8
 0.020  0.3529   -5.5  47.976  175.4  0.0023   24.9  0.8447   -1.2
 0.025  0.3553   -6.7  47.930  174.6  0.0025   31.8  0.8444   -1.9
 0.030  0.3579   -7.8  47.894  173.7  0.0027   37.7  0.8442   -2.7
 0.035  0.3606   -9.0  47.868  172.9  0.0029   42.8  0.8442   -3.4
 0.040  0.3634  -10.1  47.853  172.1  0.0032   47.1  0.8443   -4.1
 0.045  0.3664  -11.2  47.847  171.2  0.0034   50.7  0.8446   -4.9
 0.050  0.3695  -12.3  47.852  170.4  0.0037   53.8  0.8450   -5.6
 0.055  0.3676  -13.5  47.620  169.6  0.0039   54.5  0.8430   -6.3
 0.060  0.3658  -14.8  47.397  168.8  0.0042   55.2  0.8412   -7.0
 0.065  0.3642  -16.0  47.184  167.9  0.0044   55.7  0.8395   -7.6
 0.070  0.3628  -17.3  46.982  167.1  0.0047   56.3  0.8379   -8.3
 0.075  0.3616  -18.6  46.790  166.2  0.0049   56.7  0.8364   -9.0
 0.080  0.3606  -19.8  46.608  165.4  0.0051   57.1  0.8350   -9.7
 0.085  0.3597  -21.1  46.436  164.5  0.0054   57.5  0.8338  -10.4
 0.090  0.3590  -22.4  46.275  163.7  0.0056   57.9  0.8327  -11.1
 0.095  0.3585  -23.7  46.125  162.8  0.0059   58.2  0.8317  -11.8
 0.100  0.3582  -25.0  45.985  161.9  0.0061   58.5  0.8308  -12.5
 0.105  0.3564  -26.4  45.761  161.2  0.0063   59.6  0.8273  -13.1
 0.110  0.3548  -27.8  45.546  160.4  0.0066   60.6  0.8239  -13.7
 0.115  0.3534  -29.2  45.338  159.6  0.0068   61.6  0.8205  -14.3
 0.120  0.3522  -30.7  45.138  158.9  0.0071   62.5  0.8173  -14.8
 0.125  0.3513  -32.1  44.947  158.1  0.0073   63.3  0.8141  -15.4
 0.130  0.3506  -33.6  44.764  157.3  0.0076   64.1  0.8110  -16.0
 0.135  0.3501  -35.0  44.589  156.5  0.0078   64.8  0.8080  -16.7
 0.140  0.3498  -36.5  44.423  155.7  0.0081   65.5  0.8051  -17.3
 0.145  0.3498  -37.9  44.266  154.9  0.0083   66.1  0.8023  -17.9
 0.150  0.3500  -39.4  44.117  154.1  0.0086   66.7  0.7996  -18.5
 0.155  0.3482  -40.4  43.809  153.4  0.0089   66.6  0.7952  -19.0
 0.160  0.3466  -41.4  43.508  152.7  0.0092   66.6  0.7909  -19.5
 0.165  0.3450  -42.4  43.214  152.0  0.0094   66.5  0.7866  -20.1
 0.170  0.3436  -43.4  42.926  151.2  0.0097   66.4  0.7824  -20.6
 0.175  0.3423  -44.5  42.646  150.5  0.0100   66.4  0.7782  -21.1
 0.180  0.3410  -45.5  42.373  149.7  0.0103   66.3  0.7742  -21.7
 0.185  0.3399  -46.5  42.108  149.0  0.0106   66.2  0.7702  -22.2
 0.190  0.3389  -47.6  41.850  148.2  0.0108   66.2  0.7662  -22.8
 0.195  0.3381  -48.6  41.600  147.4  0.0111   66.1  0.7624  -23.3
 0.200  0.3373  -49.7  41.358  146.6  0.0114   66.1  0.7586  -23.9
 0.220  0.3310  -53.8  40.222  144.2  0.0120   65.5  0.7424  -25.7
 0.240  0.3265  -58.1  39.160  141.7  0.0126   65.0  0.7270  -27.6
 0.260  0.3215  -62.4  38.102  139.3  0.0134   64.4  0.7107  -29.3
 0.280  0.3162  -66.9  37.036  137.0  0.0145   63.9  0.6932  -30.8
 0.300  0.3128  -71.4  36.035  134.5  0.0155   63.4  0.6763  -32.4
 0.320  0.3064  -74.4  34.971  132.8  0.0162   63.8  0.6602  -33.5
 0.340  0.3009  -77.6  33.939  131.0  0.0169   64.2  0.6444  -34.7
 0.360  0.2964  -80.9  32.942  129.1  0.0176   64.5  0.6288  -35.9
 0.380  0.2928  -84.3  31.983  127.1  0.0183   64.8  0.6136  -37.2
 0.400  0.2903  -87.7  31.066  125.0  0.0190   65.1  0.5987  -38.6
 0.420  0.2862  -90.5  30.217  123.7  0.0198   64.8  0.5846  -39.4
 0.440  0.2827  -93.3  29.385  122.3  0.0205   64.4  0.5706  -40.3
 0.450  0.2812  -94.8  28.976  121.6  0.0209   64.3  0.5637  -40.7
 0.460  0.2800  -96.2  28.571  120.8  0.0213   64.1  0.5568  -41.2
 0.480  0.2780  -99.2  27.778  119.3  0.0220   63.9  0.5431  -42.1
 0.500  0.2767 -102.2  27.006  117.6  0.0228   63.6  0.5295  -43.1
 0.520  0.2739 -104.5  26.292  116.5  0.0234   63.9  0.5187  -43.7
 0.540  0.2716 -106.9  25.588  115.4  0.0239   64.1  0.5080  -44.3
 0.560  0.2698 -109.2  24.894  114.2  0.0245   64.4  0.4974  -44.9
 0.580  0.2684 -111.7  24.212  112.9  0.0250   64.6  0.4868  -45.5
 0.600  0.2675 -114.1  23.542  111.6  0.0256   64.8  0.4763  -46.2
 0.620  0.2650 -116.0  23.001  110.7  0.0262   64.8  0.4679  -46.7
 0.640  0.2627 -117.9  22.465  109.8  0.0268   64.8  0.4596  -47.1
 0.660  0.2608 -119.9  21.935  108.9  0.0274   64.9  0.4513  -47.6
 0.680  0.2591 -121.9  21.412  107.9  0.0280   64.9  0.4430  -48.2
 0.700  0.2578 -123.9  20.895  106.8  0.0286   64.9  0.4348  -48.7
 0.720  0.2571 -125.9  20.439  106.0  0.0293   64.9  0.4269  -49.2
 0.740  0.2568 -127.8  19.988  105.2  0.0299   64.9  0.4191  -49.7
 0.760  0.2567 -129.8  19.540  104.4  0.0306   64.8  0.4113  -50.3
 0.780  0.2570 -131.7  19.097  103.5  0.0312   64.8  0.4035  -50.8
 0.800  0.2575 -133.7  18.658  102.6  0.0319   64.8  0.3958  -51.4
 0.820  0.2569 -135.1  18.284  101.9  0.0325   64.9  0.3898  -51.7
 0.840  0.2565 -136.5  17.912  101.2  0.0332   65.0  0.3839  -52.0
 0.860  0.2563 -137.9  17.544  100.5  0.0338   65.1  0.3779  -52.3
 0.880  0.2562 -139.3  17.178   99.7  0.0345   65.2  0.3720  -52.7
 0.900  0.2562 -140.7  16.816   98.9  0.0351   65.3  0.3661  -53.0
 0.920  0.2555 -142.0  16.502   98.3  0.0357   65.4  0.3611  -53.3
 0.940  0.2550 -143.2  16.190   97.8  0.0363   65.4  0.3562  -53.6
 0.960  0.2545 -144.5  15.880   97.2  0.0368   65.5  0.3513  -53.9
 0.980  0.2542 -145.7  15.572   96.5  0.0374   65.5  0.3463  -54.2
 1.000  0.2540 -147.0  15.265   95.9  0.0380   65.6  0.3414  -54.5
 1.020  0.2554 -148.1  15.006   95.4  0.0385   65.5  0.3369  -55.0
 1.040  0.2568 -149.1  14.749   94.8  0.0390   65.5  0.3323  -55.4
 1.060  0.2584 -150.2  14.494   94.2  0.0396   65.4  0.3278  -55.9
 1.080  0.2600 -151.2  14.240   93.6  0.0401   65.4  0.3234  -56.4
 1.100  0.2617 -152.2  13.987   93.0  0.0406   65.3  0.3189  -56.9
 1.120  0.2620 -153.4  13.756   92.5  0.0412   65.2  0.3150  -57.2
 1.140  0.2624 -154.7  13.527   92.0  0.0418   65.1  0.3110  -57.4
 1.160  0.2630 -155.9  13.298   91.5  0.0425   65.1  0.3071  -57.7
 1.180  0.2636 -157.1  13.070   91.0  0.0431   65.0  0.3032  -58.0
 1.200  0.2644 -158.3  12.844   90.4  0.0437   64.9  0.2993  -58.3
 1.220  0.2637 -158.9  12.653   90.0  0.0443   64.9  0.2959  -58.5
 1.240  0.2630 -159.6  12.464   89.5  0.0449   65.0  0.2925  -58.6
 1.260  0.2623 -160.2  12.275   89.1  0.0455   65.0  0.2891  -58.8
 1.280  0.2617 -160.9  12.086   88.6  0.0461   65.1  0.2857  -59.0
 1.300  0.2611 -161.5  11.899   88.1  0.0467   65.1  0.2823  -59.2
 1.320  0.2622 -162.4  11.735   87.7  0.0474   65.1  0.2789  -59.8
 1.340  0.2634 -163.2  11.571   87.2  0.0481   65.1  0.2755  -60.3
 1.360  0.2647 -164.1  11.408   86.8  0.0487   65.1  0.2721  -60.9
 1.380  0.2660 -165.0  11.245   86.3  0.0494   65.1  0.2688  -61.5
 1.400  0.2674 -165.8  11.084   85.8  0.0501   65.1  0.2655  -62.1
 1.420  0.2695 -166.5  10.934   85.4  0.0507   65.0  0.2629  -62.4
 1.440  0.2716 -167.2  10.784   85.0  0.0512   64.9  0.2603  -62.7
 1.460  0.2738 -167.9  10.634   84.6  0.0518   64.9  0.2577  -63.0
 1.480  0.2760 -168.5  10.485   84.2  0.0523   64.8  0.2552  -63.4
 1.500  0.2783 -169.2  10.337   83.8  0.0529   64.7  0.2526  -63.7
 1.520  0.2778 -169.9  10.206   83.4  0.0535   64.7  0.2495  -63.9
 1.540  0.2773 -170.6  10.075   83.0  0.0541   64.6  0.2463  -64.1
 1.560  0.2768 -171.4   9.944   82.6  0.0546   64.6  0.2432  -64.3
 1.580  0.2765 -172.1   9.814   82.2  0.0552   64.5  0.2400  -64.6
 1.600  0.2761 -172.8   9.685   81.8  0.0558   64.5  0.2369  -64.8
 1.620  0.2770 -173.5   9.570   81.4  0.0565   64.3  0.2347  -65.5
 1.640  0.2780 -174.1   9.455   81.1  0.0572   64.0  0.2326  -66.1
 1.660  0.2790 -174.8   9.341   80.7  0.0579   63.8  0.2304  -66.8
 1.680  0.2801 -175.4   9.227   80.3  0.0586   63.6  0.2284  -67.5
 1.700  0.2812 -176.1   9.113   79.9  0.0593   63.4  0.2263  -68.2
 1.720  0.2821 -176.6   9.007   79.6  0.0598   63.4  0.2249  -68.6
 1.740  0.2829 -177.1   8.902   79.2  0.0603   63.4  0.2236  -69.0
 1.760  0.2838 -177.5   8.796   78.9  0.0609   63.5  0.2222  -69.4
 1.780  0.2848 -178.0   8.692   78.6  0.0614   63.5  0.2209  -69.8
 1.800  0.2857 -178.5   8.587   78.2  0.0619   63.5  0.2196  -70.2
 1.820  0.2866 -178.9   8.494   77.9  0.0625   63.5  0.2170  -70.3
 1.840  0.2876 -179.3   8.401   77.6  0.0632   63.4  0.2144  -70.5
 1.860  0.2885 -179.7   8.308   77.3  0.0638   63.4  0.2118  -70.6
 1.880  0.2895  179.9   8.215   76.9  0.0645   63.3  0.2092  -70.8
 1.900  0.2905  179.5   8.123   76.6  0.0651   63.3  0.2066  -70.9
 1.920  0.2910  178.8   8.037   76.3  0.0656   63.1  0.2053  -71.5
 1.940  0.2916  178.1   7.951   75.9  0.0661   63.0  0.2040  -72.2
 1.960  0.2923  177.3   7.866   75.6  0.0666   62.8  0.2027  -72.8
 1.980  0.2930  176.6   7.781   75.3  0.0671   62.7  0.2015  -73.4
 2.000  0.2937  175.9   7.696   74.9  0.0676   62.5  0.2003  -74.1
 2.020  0.2939  175.6   7.622   74.6  0.0682   62.4  0.1988  -74.4
 2.040  0.2941  175.4   7.549   74.4  0.0689   62.3  0.1973  -74.6
 2.060  0.2943  175.1   7.475   74.1  0.0695   62.2  0.1958  -74.9
 2.080  0.2945  174.8   7.402   73.8  0.0702   62.1  0.1943  -75.2
 2.100  0.2947  174.5   7.329   73.5  0.0708   62.0  0.1928  -75.5
 2.120  0.2949  174.3   7.256   73.2  0.0715   61.9  0.1914  -75.8
 2.140  0.2952  174.0   7.183   72.9  0.0721   61.9  0.1899  -76.1
 2.160  0.2954  173.7   7.110   72.6  0.0728   61.8  0.1884  -76.4
 2.180  0.2957  173.5   7.038   72.3  0.0734   61.7  0.1870  -76.7
 2.200  0.2959  173.2   6.966   72.0  0.0741   61.6  0.1855  -77.0
 2.220  0.2967  172.7   6.904   71.7  0.0746   61.5  0.1848  -77.5
 2.240  0.2976  172.1   6.842   71.5  0.0752   61.4  0.1841  -78.0
 2.260  0.2985  171.6   6.780   71.2  0.0757   61.3  0.1834  -78.4
 2.280  0.2994  171.1   6.719   70.9  0.0763   61.2  0.1827  -78.9
 2.300  0.3003  170.6   6.658   70.7  0.0768   61.1  0.1820  -79.4
 2.320  0.3013  170.0   6.596   70.4  0.0774   61.0  0.1813  -79.9
 2.340  0.3023  169.5   6.535   70.1  0.0779   61.0  0.1807  -80.4
 2.360  0.3033  169.0   6.474   69.8  0.0785   60.9  0.1800  -80.9
 2.380  0.3043  168.5   6.414   69.5  0.0790   60.8  0.1794  -81.4
 2.400  0.3054  168.0   6.353   69.2  0.0796   60.7  0.1788  -81.9
 2.420  0.3058  167.8   6.301   68.9  0.0802   60.6  0.1773  -82.4
 2.440  0.3062  167.6   6.250   68.7  0.0808   60.4  0.1759  -82.9
 2.460  0.3066  167.4   6.198   68.4  0.0814   60.3  0.1744  -83.3
 2.480  0.3070  167.2   6.147   68.2  0.0820   60.2  0.1730  -83.8
 2.500  0.3074  167.0   6.095   67.9  0.0826   60.1  0.1716  -84.3
 2.520  0.3078  166.9   6.044   67.6  0.0833   60.0  0.1702  -84.9
 2.540  0.3082  166.7   5.993   67.4  0.0839   59.8  0.1688  -85.4
 2.560  0.3087  166.5   5.942   67.1  0.0845   59.7  0.1674  -85.9
 2.580  0.3091  166.3   5.892   66.8  0.0851   59.6  0.1660  -86.5
 2.600  0.3095  166.1   5.841   66.5  0.0857   59.5  0.1647  -87.0
 2.620  0.3097  165.8   5.797   66.3  0.0863   59.4  0.1642  -87.2
 2.640  0.3098  165.5   5.753   66.0  0.0870   59.3  0.1638  -87.5
 2.660  0.3100  165.1   5.709   65.8  0.0876   59.2  0.1633  -87.7
 2.680  0.3102  164.8   5.665   65.6  0.0883   59.1  0.1628  -87.9
 2.700  0.3104  164.5   5.622   65.3  0.0889   59.0  0.1624  -88.2
 2.720  0.3106  164.2   5.578   65.1  0.0896   58.9  0.1619  -88.4
 2.740  0.3109  163.9   5.535   64.9  0.0902   58.9  0.1614  -88.7
 2.760  0.3111  163.5   5.491   64.6  0.0909   58.8  0.1610  -88.9
 2.780  0.3113  163.2   5.448   64.4  0.0915   58.7  0.1605  -89.2
 2.800  0.3116  162.9   5.405   64.1  0.0922   58.6  0.1601  -89.4
 2.820  0.3118  162.6   5.367   63.9  0.0927   58.5  0.1598  -89.8
 2.840  0.3121  162.4   5.329   63.6  0.0932   58.4  0.1596  -90.2
 2.860  0.3123  162.1   5.291   63.4  0.0937   58.3  0.1593  -90.5
 2.880  0.3126  161.9   5.253   63.1  0.0942   58.2  0.1591  -90.9
 2.900  0.3129  161.6   5.216   62.8  0.0947   58.1  0.1589  -91.3
 2.920  0.3131  161.3   5.178   62.6  0.0952   58.0  0.1586  -91.7
 2.940  0.3134  161.1   5.141   62.3  0.0957   58.0  0.1584  -92.0
 2.960  0.3137  160.8   5.103   62.1  0.0962   57.9  0.1582  -92.4
 2.980  0.3140  160.6   5.066   61.8  0.0967   57.8  0.1580  -92.8
 3.000  0.3143  160.3   5.029   61.5  0.0972   57.7  0.1578  -93.2
 3.100  0.3147  159.2   4.875   60.5  0.1001   56.9  0.1563  -94.6
 3.200  0.3152  158.1   4.723   59.4  0.1031   56.2  0.1549  -96.0
 3.300  0.3158  157.0   4.572   58.2  0.1060   55.5  0.1535  -97.4
 3.400  0.3165  156.0   4.423   57.0  0.1090   54.8  0.1523  -98.9
 3.500  0.3173  154.9   4.277   55.7  0.1120   54.2  0.1512 -100.4
 3.600  0.3175  154.4   4.168   54.7  0.1151   53.7  0.1491 -101.5
 3.700  0.3177  153.8   4.060   53.7  0.1183   53.2  0.1470 -102.7
 3.800  0.3180  153.3   3.953   52.6  0.1214   52.7  0.1450 -103.8
 3.900  0.3183  152.7   3.848   51.5  0.1245   52.3  0.1430 -105.1
 4.000  0.3186  152.2   3.744   50.3  0.1277   51.9  0.1411 -106.3
 4.100  0.3181  151.3   3.657   49.3  0.1305   51.0  0.1392 -107.4
 4.200  0.3177  150.4   3.572   48.3  0.1333   50.2  0.1374 -108.6
 4.300  0.3173  149.6   3.488   47.2  0.1362   49.4  0.1357 -109.7
 4.400  0.3170  148.7   3.405   46.1  0.1391   48.6  0.1340 -111.0
 4.500  0.3168  147.8   3.323   44.9  0.1420   47.9  0.1324 -112.2
 4.600  0.3177  147.1   3.258   43.9  0.1452   47.1  0.1306 -113.1
 4.700  0.3187  146.3   3.194   42.8  0.1484   46.4  0.1288 -114.1
 4.800  0.3198  145.6   3.132   41.7  0.1516   45.6  0.1271 -115.1
 4.900  0.3209  144.8   3.070   40.5  0.1549   45.0  0.1254 -116.1
 5.000  0.3220  144.1   3.010   39.3  0.1582   44.3  0.1237 -117.2
 5.100  0.3198  142.8   2.952   38.3  0.1613   43.4  0.1215 -119.4
 5.200  0.3178  141.4   2.895   37.2  0.1644   42.6  0.1194 -121.6
 5.300  0.3160  140.0   2.839   36.1  0.1675   41.7  0.1175 -123.9
 5.400  0.3144  138.6   2.785   35.0  0.1707   41.0  0.1159 -126.3
 5.500  0.3130  137.2   2.731   33.8  0.1739   40.2  0.1144 -128.8
 5.600  0.3135  136.1   2.687   32.8  0.1768   39.3  0.1119 -130.3
 5.700  0.3141  135.0   2.644   31.8  0.1798   38.5  0.1095 -131.8
 5.800  0.3149  133.9   2.601   30.7  0.1828   37.7  0.1072 -133.4
 5.900  0.3157  132.9   2.560   29.6  0.1858   36.9  0.1050 -135.1
 6.000  0.3167  131.8   2.519   28.5  0.1889   36.2  0.1029 -136.8
!
!  f       NFmin   Gammaopt  rn/50
! GHz       dB    MAG  ANG    -
!
! noise parameter not available yet for this operation point!
!
! (c) 2015  Infineon Technologies AG, Munich
