! Infineon Technologies  Discrete & RF Semiconductors
! BFP540FESD
! VCE =  2.0 V,  IC =  15 mA
! Common Emitter S-Parameters:                            Nov 2015
# GHz  S  MA  R  50
!  f         S11            S21            S12            S22
! GHz     MAG   ANG      MAG   ANG      MAG   ANG      MAG   ANG
 0.010  0.6205   -1.2  36.880  177.8  0.0008  110.4  0.9626   -3.7
 0.015  0.6182   -3.4  36.414  177.3  0.0012   98.1  0.9611   -3.0
 0.020  0.6169   -5.7  35.951  176.8  0.0017   92.3  0.9598   -2.2
 0.025  0.6176   -6.5  35.911  176.1  0.0020   91.3  0.9596   -2.9
 0.030  0.6185   -7.2  35.876  175.4  0.0024   90.6  0.9595   -3.5
 0.035  0.6194   -8.0  35.847  174.7  0.0027   90.0  0.9596   -4.2
 0.040  0.6205   -8.8  35.824  173.9  0.0031   89.6  0.9598   -4.8
 0.045  0.6216   -9.5  35.806  173.2  0.0034   89.3  0.9601   -5.5
 0.050  0.6229  -10.3  35.794  172.5  0.0038   89.0  0.9605   -6.1
 0.055  0.6207  -11.3  35.681  171.8  0.0042   87.9  0.9586   -6.7
 0.060  0.6186  -12.3  35.574  171.0  0.0047   87.0  0.9568   -7.4
 0.065  0.6168  -13.2  35.472  170.3  0.0051   86.2  0.9551   -8.0
 0.070  0.6151  -14.2  35.377  169.5  0.0056   85.6  0.9535   -8.6
 0.075  0.6136  -15.2  35.287  168.8  0.0060   85.0  0.9521   -9.3
 0.080  0.6123  -16.2  35.204  168.0  0.0064   84.6  0.9507   -9.9
 0.085  0.6112  -17.3  35.127  167.3  0.0069   84.2  0.9495  -10.6
 0.090  0.6103  -18.3  35.056  166.5  0.0073   83.8  0.9484  -11.2
 0.095  0.6095  -19.3  34.991  165.8  0.0078   83.5  0.9475  -11.9
 0.100  0.6090  -20.3  34.932  165.0  0.0082   83.2  0.9466  -12.5
 0.105  0.6063  -21.4  34.821  164.3  0.0086   82.5  0.9433  -13.1
 0.110  0.6038  -22.4  34.715  163.6  0.0090   81.9  0.9400  -13.7
 0.115  0.6016  -23.5  34.614  162.9  0.0094   81.3  0.9369  -14.3
 0.120  0.5995  -24.6  34.519  162.2  0.0098   80.7  0.9339  -14.9
 0.125  0.5977  -25.7  34.428  161.5  0.0101   80.2  0.9309  -15.5
 0.130  0.5961  -26.8  34.343  160.8  0.0105   79.8  0.9281  -16.1
 0.135  0.5947  -27.9  34.264  160.1  0.0109   79.3  0.9254  -16.7
 0.140  0.5935  -29.1  34.189  159.3  0.0113   78.9  0.9227  -17.3
 0.145  0.5926  -30.2  34.120  158.6  0.0117   78.5  0.9202  -17.9
 0.150  0.5919  -31.3  34.057  157.9  0.0121   78.2  0.9178  -18.5
 0.155  0.5896  -32.1  33.873  157.2  0.0125   77.8  0.9136  -19.0
 0.160  0.5874  -33.0  33.694  156.6  0.0128   77.3  0.9094  -19.6
 0.165  0.5854  -33.9  33.519  155.9  0.0132   76.9  0.9054  -20.1
 0.170  0.5835  -34.7  33.349  155.2  0.0135   76.6  0.9014  -20.7
 0.175  0.5817  -35.6  33.184  154.5  0.0139   76.2  0.8975  -21.2
 0.180  0.5801  -36.5  33.023  153.8  0.0143   75.9  0.8937  -21.8
 0.185  0.5786  -37.3  32.868  153.1  0.0146   75.6  0.8900  -22.4
 0.190  0.5772  -38.2  32.717  152.4  0.0150   75.3  0.8864  -22.9
 0.195  0.5760  -39.1  32.572  151.7  0.0153   75.0  0.8828  -23.5
 0.200  0.5749  -40.0  32.431  151.0  0.0157   74.7  0.8794  -24.1
 0.220  0.5633  -43.4  31.741  148.7  0.0169   73.1  0.8633  -26.1
 0.240  0.5537  -47.0  31.103  146.3  0.0180   71.7  0.8483  -28.2
 0.260  0.5437  -50.5  30.452  144.0  0.0192   70.6  0.8321  -30.1
 0.280  0.5331  -54.1  29.783  141.7  0.0204   69.8  0.8142  -31.9
 0.300  0.5246  -57.8  29.163  139.3  0.0216   69.0  0.7971  -33.7
 0.320  0.5137  -60.5  28.430  137.6  0.0225   67.9  0.7795  -35.1
 0.340  0.5040  -63.4  27.725  135.7  0.0235   66.9  0.7624  -36.6
 0.360  0.4956  -66.3  27.049  133.8  0.0244   66.0  0.7458  -38.1
 0.380  0.4885  -69.4  26.406  131.8  0.0253   65.1  0.7298  -39.7
 0.400  0.4829  -72.5  25.796  129.7  0.0263   64.3  0.7144  -41.4
 0.420  0.4730  -75.0  25.172  128.3  0.0272   63.7  0.6979  -42.5
 0.440  0.4641  -77.5  24.564  126.8  0.0281   63.2  0.6818  -43.7
 0.450  0.4599  -78.8  24.267  126.0  0.0285   62.9  0.6738  -44.4
 0.460  0.4561  -80.1  23.974  125.2  0.0289   62.6  0.6659  -45.0
 0.480  0.4491  -82.9  23.402  123.6  0.0298   62.2  0.6504  -46.3
 0.500  0.4431  -85.7  22.850  121.9  0.0307   61.7  0.6352  -47.7
 0.520  0.4360  -87.9  22.295  120.7  0.0315   61.2  0.6218  -48.6
 0.540  0.4296  -90.2  21.749  119.5  0.0322   60.7  0.6086  -49.5
 0.560  0.4238  -92.5  21.213  118.3  0.0330   60.3  0.5955  -50.4
 0.580  0.4188  -94.9  20.689  116.9  0.0337   59.8  0.5826  -51.4
 0.600  0.4145  -97.3  20.176  115.5  0.0345   59.4  0.5699  -52.4
 0.620  0.4092  -99.1  19.746  114.5  0.0351   59.4  0.5591  -53.1
 0.640  0.4043 -100.9  19.321  113.6  0.0357   59.4  0.5485  -53.9
 0.660  0.3997 -102.7  18.902  112.5  0.0362   59.5  0.5379  -54.7
 0.680  0.3957 -104.6  18.490  111.4  0.0368   59.5  0.5274  -55.5
 0.700  0.3920 -106.5  18.085  110.3  0.0374   59.5  0.5171  -56.4
 0.720  0.3881 -108.5  17.710  109.4  0.0380   59.2  0.5070  -57.1
 0.740  0.3846 -110.5  17.340  108.5  0.0387   59.0  0.4969  -57.9
 0.760  0.3816 -112.5  16.974  107.5  0.0393   58.7  0.4870  -58.7
 0.780  0.3791 -114.6  16.613  106.5  0.0400   58.4  0.4771  -59.5
 0.800  0.3771 -116.7  16.258  105.5  0.0406   58.2  0.4674  -60.4
 0.820  0.3739 -118.2  15.940  104.8  0.0412   58.0  0.4596  -60.9
 0.840  0.3709 -119.7  15.624  104.0  0.0418   57.8  0.4519  -61.5
 0.860  0.3681 -121.3  15.311  103.2  0.0423   57.6  0.4442  -62.0
 0.880  0.3657 -122.8  15.001  102.4  0.0429   57.4  0.4365  -62.6
 0.900  0.3635 -124.4  14.695  101.5  0.0435   57.2  0.4289  -63.2
 0.920  0.3611 -125.7  14.432  100.9  0.0441   57.3  0.4220  -63.7
 0.940  0.3589 -127.1  14.171  100.2  0.0447   57.4  0.4151  -64.2
 0.960  0.3569 -128.5  13.912   99.5  0.0452   57.4  0.4083  -64.7
 0.980  0.3551 -129.9  13.655   98.8  0.0458   57.5  0.4015  -65.2
 1.000  0.3535 -131.3  13.400   98.1  0.0464   57.6  0.3947  -65.8
 1.020  0.3524 -132.6  13.177   97.5  0.0470   57.5  0.3890  -66.5
 1.040  0.3515 -134.0  12.956   96.9  0.0475   57.4  0.3834  -67.2
 1.060  0.3508 -135.3  12.736   96.2  0.0481   57.3  0.3778  -67.9
 1.080  0.3503 -136.7  12.518   95.6  0.0486   57.2  0.3723  -68.6
 1.100  0.3500 -138.0  12.302   94.9  0.0492   57.1  0.3669  -69.4
 1.120  0.3489 -139.2  12.103   94.4  0.0497   57.1  0.3617  -69.8
 1.140  0.3480 -140.4  11.905   93.8  0.0502   57.1  0.3565  -70.2
 1.160  0.3473 -141.6  11.709   93.3  0.0508   57.2  0.3513  -70.7
 1.180  0.3467 -142.9  11.513   92.7  0.0513   57.2  0.3461  -71.1
 1.200  0.3463 -144.1  11.319   92.1  0.0518   57.2  0.3410  -71.6
 1.220  0.3457 -144.9  11.153   91.6  0.0524   57.2  0.3363  -72.0
 1.240  0.3451 -145.8  10.988   91.1  0.0529   57.2  0.3315  -72.3
 1.260  0.3446 -146.6  10.824   90.6  0.0535   57.2  0.3268  -72.7
 1.280  0.3442 -147.5  10.661   90.1  0.0540   57.2  0.3221  -73.1
 1.300  0.3439 -148.3  10.498   89.6  0.0546   57.2  0.3174  -73.5
 1.320  0.3436 -149.3  10.356   89.1  0.0552   57.1  0.3134  -74.2
 1.340  0.3434 -150.3  10.215   88.6  0.0558   57.0  0.3095  -74.9
 1.360  0.3433 -151.4  10.074   88.1  0.0563   56.9  0.3056  -75.6
 1.380  0.3434 -152.4   9.934   87.6  0.0569   56.8  0.3018  -76.3
 1.400  0.3435 -153.4   9.795   87.1  0.0575   56.7  0.2980  -77.1
 1.420  0.3447 -154.3   9.661   86.7  0.0581   56.7  0.2946  -77.6
 1.440  0.3460 -155.2   9.527   86.2  0.0587   56.7  0.2912  -78.0
 1.460  0.3473 -156.1   9.394   85.8  0.0594   56.7  0.2878  -78.5
 1.480  0.3488 -156.9   9.261   85.3  0.0600   56.7  0.2844  -79.0
 1.500  0.3503 -157.8   9.129   84.8  0.0606   56.7  0.2811  -79.5
 1.520  0.3492 -158.6   9.015   84.4  0.0611   56.7  0.2773  -79.9
 1.540  0.3481 -159.3   8.901   84.0  0.0617   56.7  0.2735  -80.3
 1.560  0.3471 -160.1   8.787   83.6  0.0622   56.7  0.2697  -80.8
 1.580  0.3462 -160.8   8.674   83.2  0.0628   56.7  0.2659  -81.2
 1.600  0.3453 -161.6   8.561   82.8  0.0633   56.7  0.2622  -81.7
 1.620  0.3458 -162.4   8.459   82.4  0.0639   56.6  0.2598  -82.4
 1.640  0.3463 -163.3   8.358   82.0  0.0644   56.5  0.2575  -83.2
 1.660  0.3469 -164.1   8.257   81.6  0.0650   56.3  0.2552  -83.9
 1.680  0.3476 -165.0   8.157   81.1  0.0655   56.2  0.2529  -84.7
 1.700  0.3484 -165.8   8.057   80.7  0.0661   56.1  0.2507  -85.5
 1.720  0.3486 -166.4   7.963   80.3  0.0667   56.1  0.2490  -85.9
 1.740  0.3488 -166.9   7.869   80.0  0.0672   56.1  0.2474  -86.4
 1.760  0.3490 -167.5   7.775   79.6  0.0678   56.0  0.2458  -86.9
 1.780  0.3493 -168.0   7.682   79.2  0.0683   56.0  0.2442  -87.3
 1.800  0.3496 -168.6   7.589   78.8  0.0689   56.0  0.2426  -87.8
 1.820  0.3503 -169.1   7.507   78.5  0.0696   56.0  0.2393  -88.2
 1.840  0.3511 -169.6   7.426   78.1  0.0703   56.0  0.2361  -88.5
 1.860  0.3519 -170.1   7.345   77.8  0.0709   56.0  0.2328  -88.9
 1.880  0.3527 -170.6   7.264   77.5  0.0716   56.0  0.2296  -89.3
 1.900  0.3536 -171.1   7.183   77.1  0.0723   56.0  0.2264  -89.7
 1.920  0.3535 -171.9   7.106   76.8  0.0728   55.9  0.2251  -90.4
 1.940  0.3534 -172.7   7.029   76.4  0.0733   55.8  0.2238  -91.1
 1.960  0.3534 -173.6   6.953   76.0  0.0737   55.6  0.2226  -91.8
 1.980  0.3535 -174.4   6.877   75.7  0.0742   55.5  0.2214  -92.5
 2.000  0.3536 -175.2   6.801   75.3  0.0747   55.4  0.2202  -93.2
 2.020  0.3536 -175.6   6.736   75.0  0.0752   55.4  0.2185  -93.6
 2.040  0.3536 -175.9   6.671   74.7  0.0758   55.3  0.2167  -94.0
 2.060  0.3537 -176.3   6.606   74.5  0.0763   55.3  0.2150  -94.4
 2.080  0.3538 -176.6   6.542   74.2  0.0769   55.2  0.2133  -94.8
 2.100  0.3538 -177.0   6.477   73.9  0.0774   55.2  0.2116  -95.2
 2.120  0.3539 -177.4   6.413   73.6  0.0779   55.2  0.2099  -95.6
 2.140  0.3540 -177.7   6.349   73.3  0.0785   55.1  0.2082  -96.1
 2.160  0.3541 -178.1   6.285   72.9  0.0790   55.1  0.2065  -96.5
 2.180  0.3543 -178.4   6.221   72.6  0.0796   55.0  0.2048  -96.9
 2.200  0.3544 -178.8   6.158   72.3  0.0801   55.0  0.2032  -97.4
 2.220  0.3548 -179.4   6.103   72.0  0.0807   54.9  0.2025  -97.9
 2.240  0.3552 -180.0   6.048   71.7  0.0812   54.9  0.2018  -98.4
 2.260  0.3557  179.4   5.993   71.5  0.0818   54.8  0.2011  -98.8
 2.280  0.3562  178.8   5.938   71.2  0.0824   54.8  0.2004  -99.3
 2.300  0.3568  178.2   5.883   70.9  0.0829   54.7  0.1997  -99.8
 2.320  0.3574  177.6   5.828   70.6  0.0835   54.7  0.1991 -100.3
 2.340  0.3580  177.0   5.774   70.3  0.0841   54.6  0.1984 -100.8
 2.360  0.3587  176.5   5.720   69.9  0.0847   54.6  0.1978 -101.3
 2.380  0.3594  175.9   5.666   69.6  0.0852   54.5  0.1972 -101.8
 2.400  0.3601  175.3   5.612   69.3  0.0858   54.5  0.1966 -102.3
 2.420  0.3605  175.0   5.566   69.0  0.0863   54.4  0.1952 -102.9
 2.440  0.3609  174.7   5.521   68.8  0.0869   54.3  0.1939 -103.6
 2.460  0.3613  174.5   5.475   68.5  0.0874   54.2  0.1926 -104.2
 2.480  0.3617  174.2   5.430   68.2  0.0880   54.1  0.1913 -104.8
 2.500  0.3621  173.9   5.385   68.0  0.0885   54.0  0.1900 -105.5
 2.520  0.3625  173.6   5.340   67.7  0.0891   53.9  0.1887 -106.2
 2.540  0.3629  173.3   5.295   67.4  0.0896   53.8  0.1875 -106.8
 2.560  0.3634  173.1   5.250   67.1  0.0902   53.7  0.1863 -107.5
 2.580  0.3638  172.8   5.206   66.8  0.0907   53.6  0.1851 -108.2
 2.600  0.3643  172.5   5.161   66.5  0.0913   53.5  0.1840 -108.9
 2.620  0.3643  172.1   5.122   66.3  0.0920   53.4  0.1834 -109.2
 2.640  0.3644  171.8   5.084   66.0  0.0927   53.4  0.1828 -109.4
 2.660  0.3644  171.4   5.045   65.8  0.0934   53.3  0.1822 -109.7
 2.680  0.3645  171.1   5.007   65.5  0.0941   53.2  0.1816 -110.0
 2.700  0.3646  170.7   4.969   65.2  0.0947   53.2  0.1810 -110.2
 2.720  0.3647  170.4   4.931   65.0  0.0954   53.1  0.1804 -110.5
 2.740  0.3648  170.0   4.893   64.7  0.0961   53.1  0.1798 -110.8
 2.760  0.3649  169.7   4.855   64.5  0.0968   53.0  0.1792 -111.0
 2.780  0.3650  169.3   4.817   64.2  0.0975   53.0  0.1787 -111.3
 2.800  0.3652  169.0   4.779   63.9  0.0982   52.9  0.1781 -111.6
 2.820  0.3653  168.7   4.745   63.6  0.0987   52.8  0.1778 -112.0
 2.840  0.3654  168.4   4.711   63.4  0.0991   52.7  0.1776 -112.4
 2.860  0.3655  168.1   4.677   63.1  0.0996   52.7  0.1773 -112.8
 2.880  0.3656  167.8   4.643   62.9  0.1001   52.6  0.1770 -113.1
 2.900  0.3658  167.4   4.610   62.6  0.1005   52.5  0.1768 -113.5
 2.920  0.3659  167.1   4.576   62.3  0.1010   52.4  0.1766 -113.9
 2.940  0.3661  166.8   4.543   62.1  0.1015   52.3  0.1763 -114.3
 2.960  0.3662  166.5   4.509   61.8  0.1020   52.3  0.1761 -114.7
 2.980  0.3664  166.2   4.476   61.5  0.1024   52.2  0.1759 -115.1
 3.000  0.3666  165.9   4.443   61.2  0.1029   52.1  0.1757 -115.5
 3.100  0.3667  164.6   4.308   60.1  0.1058   51.5  0.1739 -117.0
 3.200  0.3670  163.2   4.175   59.0  0.1087   50.9  0.1722 -118.6
 3.300  0.3674  161.9   4.044   57.8  0.1116   50.3  0.1706 -120.2
 3.400  0.3681  160.5   3.914   56.6  0.1146   49.8  0.1692 -121.8
 3.500  0.3690  159.2   3.787   55.2  0.1175   49.3  0.1679 -123.5
 3.600  0.3692  158.5   3.691   54.2  0.1206   48.9  0.1657 -124.9
 3.700  0.3695  157.7   3.597   53.1  0.1238   48.5  0.1635 -126.3
 3.800  0.3698  157.0   3.504   52.0  0.1269   48.2  0.1615 -127.8
 3.900  0.3702  156.2   3.412   50.8  0.1301   47.8  0.1595 -129.3
 4.000  0.3706  155.5   3.322   49.6  0.1332   47.5  0.1577 -130.8
 4.100  0.3700  154.5   3.246   48.6  0.1361   46.7  0.1557 -132.2
 4.200  0.3694  153.6   3.171   47.5  0.1390   45.9  0.1538 -133.6
 4.300  0.3690  152.6   3.097   46.3  0.1419   45.1  0.1520 -135.0
 4.400  0.3687  151.7   3.025   45.1  0.1448   44.4  0.1503 -136.5
 4.500  0.3685  150.7   2.954   43.9  0.1478   43.7  0.1487 -138.0
 4.600  0.3696  149.8   2.897   42.8  0.1510   43.0  0.1467 -139.3
 4.700  0.3709  148.9   2.841   41.7  0.1543   42.3  0.1448 -140.7
 4.800  0.3722  148.0   2.787   40.6  0.1576   41.6  0.1430 -142.0
 4.900  0.3736  147.2   2.733   39.4  0.1609   41.0  0.1412 -143.5
 5.000  0.3751  146.3   2.681   38.1  0.1642   40.4  0.1396 -144.9
 5.100  0.3726  144.9   2.630   37.0  0.1673   39.6  0.1383 -147.3
 5.200  0.3703  143.4   2.580   35.9  0.1705   38.8  0.1372 -149.6
 5.300  0.3683  141.9   2.531   34.8  0.1737   38.0  0.1363 -152.1
 5.400  0.3665  140.4   2.483   33.6  0.1769   37.2  0.1357 -154.5
 5.500  0.3650  138.9   2.436   32.3  0.1802   36.5  0.1354 -157.0
 5.600  0.3652  137.8   2.397   31.3  0.1832   35.7  0.1335 -158.9
 5.700  0.3655  136.6   2.360   30.2  0.1861   34.9  0.1318 -160.9
 5.800  0.3660  135.5   2.322   29.2  0.1892   34.2  0.1302 -162.9
 5.900  0.3666  134.3   2.286   28.0  0.1922   33.5  0.1288 -164.9
 6.000  0.3674  133.2   2.251   26.9  0.1953   32.8  0.1276 -167.0
!
!  f       NFmin   Gammaopt  rn/50
! GHz       dB    MAG  ANG    -
!
! noise parameter not available yet for this operation point!
!
! (c) 2015  Infineon Technologies AG, Munich
