! Infineon Technologies  Discrete & RF Semiconductors
! BFP540ESD
! VCE =  1.5 V,  IC =  30 mA
! Common Emitter S-Parameters:                            Nov 2015
# GHz  S  MA  R  50
!  f         S11            S21            S12            S22
! GHz     MAG   ANG      MAG   ANG      MAG   ANG      MAG   ANG
 0.010  0.3601   -3.4  45.492  178.1  0.0010  119.1  0.9250   -1.2
 0.015  0.3596   -5.4  45.198  177.5  0.0011   90.4  0.9373   -1.7
 0.020  0.3595   -7.5  44.909  176.8  0.0014   70.4  0.9497   -2.2
 0.025  0.3594   -9.2  44.924  175.9  0.0017   72.5  0.9485   -3.0
 0.030  0.3595  -10.9  44.951  174.9  0.0019   74.0  0.9474   -3.8
 0.035  0.3600  -12.5  44.990  174.0  0.0022   75.1  0.9465   -4.6
 0.040  0.3607  -14.2  45.041  173.1  0.0025   76.0  0.9459   -5.5
 0.045  0.3618  -15.9  45.104  172.1  0.0027   76.7  0.9454   -6.3
 0.050  0.3632  -17.5  45.179  171.2  0.0030   77.3  0.9451   -7.1
 0.055  0.3622  -19.1  45.020  170.4  0.0034   78.9  0.9425   -7.9
 0.060  0.3614  -20.7  44.870  169.5  0.0038   80.3  0.9400   -8.7
 0.065  0.3610  -22.4  44.731  168.6  0.0041   81.3  0.9378   -9.4
 0.070  0.3608  -24.0  44.602  167.8  0.0045   82.2  0.9357  -10.2
 0.075  0.3609  -25.6  44.483  166.9  0.0049   83.0  0.9337  -11.0
 0.080  0.3613  -27.3  44.374  166.0  0.0053   83.6  0.9320  -11.8
 0.085  0.3620  -28.9  44.275  165.2  0.0057   84.2  0.9304  -12.6
 0.090  0.3630  -30.5  44.187  164.3  0.0060   84.7  0.9290  -13.4
 0.095  0.3643  -32.1  44.110  163.4  0.0064   85.1  0.9278  -14.2
 0.100  0.3659  -33.7  44.043  162.5  0.0068   85.5  0.9268  -15.0
 0.105  0.3646  -35.3  43.829  161.7  0.0071   84.4  0.9228  -15.7
 0.110  0.3637  -36.8  43.623  160.9  0.0074   83.5  0.9189  -16.4
 0.115  0.3630  -38.4  43.426  160.1  0.0077   82.6  0.9152  -17.2
 0.120  0.3625  -40.0  43.237  159.3  0.0080   81.7  0.9116  -17.9
 0.125  0.3624  -41.5  43.058  158.4  0.0083   81.0  0.9082  -18.6
 0.130  0.3625  -43.1  42.888  157.6  0.0086   80.2  0.9049  -19.4
 0.135  0.3629  -44.7  42.726  156.8  0.0089   79.6  0.9018  -20.1
 0.140  0.3635  -46.3  42.575  155.9  0.0092   78.9  0.8989  -20.9
 0.145  0.3645  -47.8  42.432  155.1  0.0095   78.3  0.8960  -21.6
 0.150  0.3657  -49.4  42.299  154.2  0.0098   77.8  0.8934  -22.4
 0.155  0.3650  -50.7  42.032  153.5  0.0101   77.2  0.8885  -23.0
 0.160  0.3645  -52.1  41.772  152.8  0.0104   76.6  0.8837  -23.7
 0.165  0.3642  -53.5  41.518  152.0  0.0107   76.0  0.8790  -24.4
 0.170  0.3641  -54.8  41.272  151.3  0.0110   75.5  0.8744  -25.0
 0.175  0.3642  -56.2  41.032  150.5  0.0113   75.0  0.8699  -25.7
 0.180  0.3645  -57.5  40.800  149.7  0.0116   74.6  0.8656  -26.4
 0.185  0.3650  -58.9  40.575  149.0  0.0119   74.1  0.8614  -27.1
 0.190  0.3658  -60.2  40.358  148.2  0.0122   73.7  0.8573  -27.8
 0.195  0.3667  -61.6  40.148  147.4  0.0125   73.3  0.8533  -28.5
 0.200  0.3678  -62.9  39.946  146.6  0.0128   72.9  0.8495  -29.2
 0.220  0.3671  -67.9  38.876  144.0  0.0137   72.0  0.8300  -31.6
 0.240  0.3692  -72.8  37.890  141.2  0.0146   71.2  0.8119  -34.0
 0.260  0.3708  -77.5  36.891  138.6  0.0155   70.4  0.7930  -36.3
 0.280  0.3715  -82.0  35.857  136.2  0.0164   69.5  0.7728  -38.4
 0.300  0.3744  -86.4  34.892  133.6  0.0174   68.8  0.7536  -40.6
 0.320  0.3724  -90.0  33.849  131.8  0.0182   68.0  0.7336  -42.2
 0.340  0.3718  -93.7  32.843  129.8  0.0191   67.3  0.7142  -44.0
 0.360  0.3728  -97.3  31.878  127.7  0.0199   66.6  0.6955  -45.8
 0.380  0.3753 -100.9  30.957  125.5  0.0208   66.0  0.6776  -47.7
 0.400  0.3792 -104.5  30.084  123.2  0.0216   65.4  0.6604  -49.7
 0.420  0.3787 -107.5  29.241  121.7  0.0222   64.8  0.6434  -51.1
 0.440  0.3792 -110.6  28.419  120.2  0.0228   64.2  0.6268  -52.5
 0.450  0.3798 -112.1  28.016  119.3  0.0230   64.0  0.6187  -53.3
 0.460  0.3807 -113.6  27.619  118.5  0.0233   63.7  0.6107  -54.0
 0.480  0.3834 -116.6  26.844  116.8  0.0239   63.2  0.5949  -55.6
 0.500  0.3870 -119.5  26.095  114.9  0.0245   62.7  0.5797  -57.3
 0.520  0.3867 -121.7  25.381  113.7  0.0251   62.2  0.5657  -58.4
 0.540  0.3871 -124.0  24.677  112.5  0.0257   61.8  0.5519  -59.5
 0.560  0.3880 -126.2  23.986  111.2  0.0264   61.4  0.5383  -60.7
 0.580  0.3895 -128.4  23.307  109.9  0.0270   61.0  0.5250  -62.0
 0.600  0.3916 -130.6  22.643  108.4  0.0276   60.6  0.5119  -63.3
 0.620  0.3916 -132.4  22.101  107.4  0.0282   60.7  0.5006  -64.2
 0.640  0.3920 -134.2  21.567  106.4  0.0289   60.8  0.4895  -65.2
 0.660  0.3928 -136.0  21.039  105.3  0.0295   60.9  0.4785  -66.3
 0.680  0.3940 -137.8  20.519  104.2  0.0302   61.0  0.4677  -67.4
 0.700  0.3956 -139.6  20.008  103.0  0.0308   61.1  0.4571  -68.5
 0.720  0.3962 -141.2  19.540  102.2  0.0313   61.0  0.4476  -69.4
 0.740  0.3971 -142.9  19.076  101.3  0.0318   60.9  0.4382  -70.4
 0.760  0.3984 -144.5  18.617  100.4  0.0324   60.9  0.4289  -71.4
 0.780  0.3999 -146.1  18.164   99.4  0.0329   60.8  0.4198  -72.5
 0.800  0.4018 -147.7  17.715   98.4  0.0334   60.7  0.4108  -73.6
 0.820  0.4025 -149.0  17.341   97.7  0.0340   60.5  0.4032  -74.3
 0.840  0.4033 -150.2  16.970   96.9  0.0346   60.3  0.3956  -75.1
 0.860  0.4044 -151.4  16.602   96.2  0.0351   60.1  0.3881  -75.9
 0.880  0.4056 -152.7  16.237   95.4  0.0357   60.0  0.3806  -76.7
 0.900  0.4070 -153.9  15.876   94.5  0.0363   59.8  0.3733  -77.6
 0.920  0.4069 -155.1  15.565   93.9  0.0368   59.7  0.3664  -78.3
 0.940  0.4071 -156.2  15.257   93.2  0.0373   59.6  0.3596  -79.1
 0.960  0.4073 -157.4  14.951   92.5  0.0378   59.6  0.3528  -79.9
 0.980  0.4078 -158.5  14.647   91.8  0.0383   59.5  0.3461  -80.7
 1.000  0.4084 -159.7  14.345   91.0  0.0388   59.4  0.3395  -81.5
 1.020  0.4093 -160.8  14.089   90.4  0.0393   59.4  0.3340  -82.3
 1.040  0.4104 -161.8  13.835   89.8  0.0399   59.4  0.3286  -83.2
 1.060  0.4117 -162.8  13.582   89.2  0.0404   59.3  0.3233  -84.1
 1.080  0.4130 -163.9  13.331   88.6  0.0410   59.3  0.3181  -85.0
 1.100  0.4145 -164.9  13.081   87.9  0.0415   59.3  0.3129  -86.0
 1.120  0.4155 -165.8  12.863   87.4  0.0422   59.3  0.3082  -86.5
 1.140  0.4166 -166.7  12.645   86.9  0.0428   59.2  0.3036  -87.1
 1.160  0.4178 -167.6  12.429   86.3  0.0435   59.2  0.2990  -87.7
 1.180  0.4191 -168.5  12.214   85.8  0.0441   59.1  0.2944  -88.3
 1.200  0.4205 -169.4  12.000   85.2  0.0448   59.1  0.2899  -88.9
 1.220  0.4204 -170.1  11.819   84.7  0.0453   59.0  0.2854  -89.5
 1.240  0.4204 -170.7  11.638   84.2  0.0458   58.9  0.2809  -90.0
 1.260  0.4204 -171.4  11.459   83.7  0.0464   58.8  0.2765  -90.6
 1.280  0.4205 -172.0  11.280   83.2  0.0469   58.7  0.2721  -91.3
 1.300  0.4206 -172.7  11.102   82.7  0.0474   58.6  0.2677  -91.9
 1.320  0.4217 -173.5  10.940   82.2  0.0479   58.5  0.2642  -92.9
 1.340  0.4229 -174.4  10.778   81.8  0.0485   58.4  0.2608  -93.9
 1.360  0.4242 -175.2  10.617   81.3  0.0490   58.2  0.2575  -94.9
 1.380  0.4256 -176.0  10.457   80.8  0.0496   58.1  0.2543  -95.9
 1.400  0.4271 -176.8  10.298   80.3  0.0501   58.0  0.2511  -97.0
 1.420  0.4280 -177.4  10.155   79.9  0.0506   57.9  0.2479  -97.5
 1.440  0.4289 -178.1  10.013   79.5  0.0511   57.7  0.2448  -98.0
 1.460  0.4299 -178.7   9.871   79.0  0.0515   57.6  0.2417  -98.5
 1.480  0.4309 -179.4   9.730   78.6  0.0520   57.4  0.2386  -99.0
 1.500  0.4320 -180.0   9.590   78.1  0.0525   57.3  0.2355  -99.5
 1.520  0.4315  179.3   9.470   77.7  0.0531   57.3  0.2321 -100.1
 1.540  0.4311  178.7   9.350   77.3  0.0537   57.2  0.2287 -100.6
 1.560  0.4307  178.0   9.230   76.8  0.0543   57.2  0.2253 -101.2
 1.580  0.4304  177.4   9.111   76.4  0.0549   57.1  0.2220 -101.9
 1.600  0.4301  176.7   8.993   75.9  0.0555   57.1  0.2187 -102.5
 1.620  0.4318  176.1   8.883   75.5  0.0561   57.0  0.2170 -103.4
 1.640  0.4335  175.5   8.774   75.1  0.0567   56.9  0.2153 -104.3
 1.660  0.4353  174.9   8.665   74.7  0.0572   56.8  0.2137 -105.2
 1.680  0.4371  174.3   8.557   74.2  0.0578   56.7  0.2122 -106.2
 1.700  0.4390  173.7   8.449   73.8  0.0584   56.6  0.2107 -107.1
 1.720  0.4396  173.1   8.352   73.4  0.0590   56.5  0.2086 -107.6
 1.740  0.4402  172.6   8.255   73.1  0.0596   56.4  0.2066 -108.1
 1.760  0.4409  172.0   8.158   72.7  0.0601   56.3  0.2046 -108.6
 1.780  0.4416  171.5   8.062   72.3  0.0607   56.2  0.2026 -109.1
 1.800  0.4424  170.9   7.966   71.9  0.0613   56.1  0.2006 -109.6
 1.820  0.4424  170.4   7.882   71.5  0.0620   56.0  0.1974 -110.1
 1.840  0.4425  170.0   7.797   71.2  0.0626   55.9  0.1942 -110.7
 1.860  0.4426  169.5   7.714   70.8  0.0633   55.8  0.1911 -111.3
 1.880  0.4427  169.1   7.630   70.4  0.0639   55.7  0.1879 -111.9
 1.900  0.4428  168.6   7.547   70.0  0.0646   55.6  0.1848 -112.5
 1.920  0.4437  168.0   7.467   69.6  0.0651   55.4  0.1840 -113.1
 1.940  0.4446  167.4   7.387   69.3  0.0656   55.2  0.1831 -113.7
 1.960  0.4456  166.9   7.307   68.9  0.0660   54.9  0.1823 -114.3
 1.980  0.4466  166.3   7.228   68.5  0.0665   54.7  0.1816 -115.0
 2.000  0.4477  165.7   7.149   68.1  0.0670   54.5  0.1808 -115.6
 2.020  0.4483  165.2   7.082   67.8  0.0676   54.4  0.1787 -116.2
 2.040  0.4489  164.8   7.016   67.5  0.0682   54.3  0.1766 -116.7
 2.060  0.4495  164.3   6.949   67.2  0.0688   54.1  0.1745 -117.3
 2.080  0.4501  163.9   6.883   66.9  0.0694   54.0  0.1725 -117.9
 2.100  0.4508  163.4   6.817   66.5  0.0700   53.9  0.1704 -118.6
 2.120  0.4515  163.0   6.751   66.2  0.0706   53.8  0.1684 -119.2
 2.140  0.4522  162.5   6.686   65.9  0.0712   53.7  0.1664 -119.9
 2.160  0.4530  162.1   6.621   65.5  0.0718   53.6  0.1645 -120.5
 2.180  0.4538  161.6   6.556   65.2  0.0724   53.5  0.1625 -121.2
 2.200  0.4546  161.2   6.491   64.8  0.0730   53.4  0.1606 -121.9
 2.220  0.4553  160.7   6.434   64.5  0.0735   53.2  0.1595 -122.4
 2.240  0.4561  160.2   6.377   64.2  0.0741   53.1  0.1583 -123.0
 2.260  0.4569  159.8   6.320   63.8  0.0746   52.9  0.1572 -123.5
 2.280  0.4577  159.3   6.263   63.5  0.0751   52.7  0.1561 -124.0
 2.300  0.4586  158.8   6.207   63.2  0.0756   52.6  0.1550 -124.6
 2.320  0.4595  158.4   6.151   62.8  0.0762   52.4  0.1539 -125.2
 2.340  0.4604  157.9   6.095   62.5  0.0767   52.3  0.1529 -125.7
 2.360  0.4614  157.4   6.039   62.1  0.0772   52.1  0.1518 -126.3
 2.380  0.4624  157.0   5.983   61.8  0.0778   52.0  0.1508 -126.9
 2.400  0.4634  156.5   5.928   61.4  0.0783   51.8  0.1498 -127.5
 2.420  0.4643  156.0   5.880   61.1  0.0789   51.7  0.1484 -128.6
 2.440  0.4653  155.5   5.832   60.7  0.0794   51.5  0.1470 -129.7
 2.460  0.4663  155.1   5.784   60.4  0.0800   51.4  0.1457 -130.9
 2.480  0.4674  154.6   5.736   60.1  0.0805   51.2  0.1444 -132.1
 2.500  0.4685  154.1   5.689   59.7  0.0811   51.1  0.1432 -133.3
 2.520  0.4696  153.7   5.642   59.4  0.0817   50.9  0.1421 -134.5
 2.540  0.4707  153.2   5.595   59.0  0.0822   50.8  0.1410 -135.7
 2.560  0.4719  152.7   5.548   58.6  0.0828   50.7  0.1400 -136.9
 2.580  0.4731  152.3   5.501   58.3  0.0833   50.5  0.1391 -138.2
 2.600  0.4743  151.8   5.455   57.9  0.0839   50.4  0.1382 -139.5
 2.620  0.4752  151.4   5.415   57.6  0.0845   50.2  0.1370 -140.2
 2.640  0.4762  151.1   5.375   57.3  0.0851   50.0  0.1358 -140.9
 2.660  0.4772  150.7   5.336   57.0  0.0857   49.8  0.1346 -141.6
 2.680  0.4782  150.3   5.296   56.7  0.0863   49.6  0.1335 -142.3
 2.700  0.4792  150.0   5.257   56.4  0.0869   49.4  0.1324 -143.0
 2.720  0.4803  149.6   5.218   56.0  0.0875   49.2  0.1313 -143.8
 2.740  0.4813  149.3   5.179   55.7  0.0882   49.0  0.1302 -144.5
 2.760  0.4824  148.9   5.140   55.4  0.0888   48.9  0.1291 -145.3
 2.780  0.4835  148.6   5.101   55.0  0.0894   48.7  0.1281 -146.1
 2.800  0.4846  148.2   5.063   54.7  0.0900   48.5  0.1271 -146.9
 2.820  0.4854  147.7   5.027   54.4  0.0905   48.4  0.1268 -147.9
 2.840  0.4861  147.3   4.991   54.1  0.0910   48.2  0.1264 -149.0
 2.860  0.4870  146.8   4.955   53.8  0.0915   48.1  0.1262 -150.0
 2.880  0.4878  146.4   4.920   53.4  0.0920   47.9  0.1260 -151.0
 2.900  0.4887  145.9   4.884   53.1  0.0924   47.8  0.1258 -152.1
 2.920  0.4896  145.5   4.849   52.8  0.0929   47.6  0.1256 -153.1
 2.940  0.4905  145.0   4.814   52.4  0.0934   47.5  0.1255 -154.2
 2.960  0.4915  144.6   4.779   52.1  0.0939   47.4  0.1255 -155.2
 2.980  0.4925  144.1   4.745   51.8  0.0944   47.2  0.1255 -156.3
 3.000  0.4935  143.7   4.710   51.4  0.0949   47.1  0.1255 -157.3
 3.100  0.4988  141.7   4.563   50.0  0.0975   46.0  0.1260 -162.7
 3.200  0.5048  139.7   4.418   48.5  0.1000   44.9  0.1276 -168.1
 3.300  0.5113  137.8   4.277   46.9  0.1027   43.9  0.1303 -173.3
 3.400  0.5184  135.9   4.139   45.2  0.1053   43.0  0.1340 -178.2
 3.500  0.5260  134.1   4.005   43.4  0.1080   42.1  0.1386  177.2
 3.600  0.5313  132.4   3.890   42.1  0.1102   41.1  0.1450  172.8
 3.700  0.5371  130.7   3.776   40.7  0.1123   40.1  0.1521  168.8
 3.800  0.5433  129.1   3.665   39.2  0.1146   39.1  0.1599  165.2
 3.900  0.5499  127.5   3.557   37.6  0.1168   38.2  0.1682  161.9
 4.000  0.5569  126.0   3.452   35.9  0.1191   37.3  0.1771  159.0
 4.100  0.5623  124.5   3.358   34.6  0.1213   36.1  0.1837  156.8
 4.200  0.5681  123.1   3.265   33.3  0.1235   34.9  0.1905  154.7
 4.300  0.5742  121.6   3.175   31.8  0.1257   33.8  0.1976  152.8
 4.400  0.5807  120.3   3.086   30.3  0.1280   32.7  0.2048  151.0
 4.500  0.5875  118.9   3.000   28.7  0.1304   31.7  0.2123  149.3
 4.600  0.5918  117.6   2.928   27.5  0.1323   30.8  0.2167  147.5
 4.700  0.5963  116.3   2.858   26.1  0.1342   30.0  0.2214  145.8
 4.800  0.6012  115.1   2.790   24.8  0.1361   29.2  0.2262  144.2
 4.900  0.6063  113.8   2.723   23.3  0.1381   28.4  0.2312  142.6
 5.000  0.6117  112.6   2.658   21.8  0.1401   27.6  0.2364  141.1
 5.100  0.6155  111.5   2.596   20.7  0.1421   26.7  0.2391  139.4
 5.200  0.6196  110.4   2.536   19.5  0.1442   25.8  0.2420  137.7
 5.300  0.6238  109.4   2.477   18.2  0.1463   25.0  0.2452  136.1
 5.400  0.6283  108.3   2.419   16.9  0.1484   24.2  0.2485  134.5
 5.500  0.6330  107.3   2.362   15.5  0.1506   23.4  0.2520  132.9
 5.600  0.6366  106.4   2.317   14.4  0.1526   22.6  0.2541  131.2
 5.700  0.6404  105.4   2.272   13.3  0.1546   21.7  0.2565  129.6
 5.800  0.6443  104.5   2.229   12.2  0.1566   20.9  0.2590  127.9
 5.900  0.6484  103.6   2.187   11.0  0.1587   20.2  0.2618  126.4
 6.000  0.6527  102.7   2.145    9.7  0.1608   19.4  0.2647  124.8
!
!  f       NFmin   Gammaopt  rn/50
! GHz       dB    MAG  ANG    -
 0.900      1.41  0.38 -138   0.12
 1.800      1.56  0.40 -142   0.12
 2.400      1.58  0.41 -133   0.14
 3.000      1.70  0.43 -126   0.17
 4.000      1.76  0.52 -104   0.29
 5.000      1.88  0.59  -87   0.46
 6.000      2.22  0.57  -86   0.68
!
! (c) 2015  Infineon Technologies AG, Munich
