! Infineon Technologies  Discrete & RF Semiconductors
! BFP540FESD
! VCE =  4.0 V,  IC =  3.0 mA
! Common Emitter S-Parameters:                            Nov 2015
# GHz  S  MA  R  50
!  f         S11            S21            S12            S22
! GHz     MAG   ANG      MAG   ANG      MAG   ANG      MAG   ANG
 0.010  0.9226    0.0  10.484  178.9  0.0010   50.3  0.9925   -3.3
 0.015  0.9160   -1.5  10.321  178.8  0.0015   67.6  0.9894   -2.2
 0.020  0.9101   -3.0  10.159  178.7  0.0021   75.8  0.9866   -1.0
 0.025  0.9124   -3.2  10.167  178.4  0.0025   78.9  0.9870   -1.2
 0.030  0.9147   -3.3  10.176  178.1  0.0030   81.1  0.9874   -1.4
 0.035  0.9171   -3.5  10.185  177.8  0.0034   82.7  0.9878   -1.7
 0.040  0.9194   -3.7  10.194  177.5  0.0038   84.0  0.9883   -1.9
 0.045  0.9217   -3.8  10.203  177.2  0.0043   85.0  0.9887   -2.1
 0.050  0.9241   -4.0  10.213  176.9  0.0047   85.8  0.9892   -2.3
 0.055  0.9233   -4.4  10.210  176.6  0.0051   84.9  0.9889   -2.5
 0.060  0.9226   -4.8  10.207  176.2  0.0055   84.1  0.9886   -2.7
 0.065  0.9220   -5.2  10.205  175.9  0.0059   83.4  0.9883   -3.0
 0.070  0.9214   -5.6  10.203  175.6  0.0063   82.8  0.9880   -3.2
 0.075  0.9208   -6.0  10.201  175.3  0.0067   82.2  0.9878   -3.4
 0.080  0.9203   -6.5  10.200  174.9  0.0071   81.8  0.9875   -3.6
 0.085  0.9198   -6.9  10.199  174.6  0.0075   81.3  0.9873   -3.8
 0.090  0.9194   -7.3  10.198  174.3  0.0079   81.0  0.9871   -4.1
 0.095  0.9190   -7.7  10.198  173.9  0.0083   80.6  0.9869   -4.3
 0.100  0.9187   -8.1  10.198  173.6  0.0087   80.3  0.9867   -4.5
 0.105  0.9176   -8.6  10.197  173.3  0.0091   80.5  0.9863   -4.7
 0.110  0.9165   -9.1  10.197  173.0  0.0096   80.7  0.9858   -5.0
 0.115  0.9155   -9.6  10.197  172.7  0.0100   80.8  0.9854   -5.2
 0.120  0.9146  -10.2  10.197  172.4  0.0104   81.0  0.9850   -5.4
 0.125  0.9138  -10.7  10.198  172.0  0.0108   81.1  0.9847   -5.6
 0.130  0.9130  -11.2  10.199  171.7  0.0113   81.3  0.9843   -5.9
 0.135  0.9123  -11.7  10.200  171.4  0.0117   81.4  0.9839   -6.1
 0.140  0.9117  -12.3  10.201  171.1  0.0121   81.5  0.9836   -6.3
 0.145  0.9112  -12.8  10.203  170.8  0.0126   81.6  0.9833   -6.6
 0.150  0.9107  -13.3  10.205  170.5  0.0130   81.7  0.9830   -6.8
 0.155  0.9104  -13.6  10.191  170.1  0.0134   81.4  0.9823   -7.0
 0.160  0.9100  -14.0  10.177  169.8  0.0138   81.2  0.9816   -7.2
 0.165  0.9098  -14.3  10.164  169.4  0.0143   81.0  0.9809   -7.5
 0.170  0.9095  -14.7  10.151  169.1  0.0147   80.8  0.9803   -7.7
 0.175  0.9093  -15.0  10.139  168.7  0.0151   80.6  0.9796   -7.9
 0.180  0.9092  -15.4  10.127  168.4  0.0155   80.4  0.9790   -8.1
 0.185  0.9090  -15.7  10.115  168.0  0.0159   80.2  0.9784   -8.3
 0.190  0.9089  -16.1  10.104  167.6  0.0164   80.0  0.9778   -8.6
 0.195  0.9088  -16.4  10.093  167.3  0.0168   79.9  0.9772   -8.8
 0.200  0.9088  -16.8  10.083  166.9  0.0172   79.7  0.9766   -9.0
 0.220  0.9042  -18.5  10.049  165.7  0.0190   78.8  0.9739   -9.9
 0.240  0.9005  -20.2  10.019  164.5  0.0208   78.0  0.9714  -10.8
 0.260  0.8968  -22.0   9.986  163.2  0.0225   77.2  0.9682  -11.6
 0.280  0.8931  -23.7   9.951  161.9  0.0242   76.4  0.9644  -12.5
 0.300  0.8903  -25.5   9.922  160.5  0.0259   75.7  0.9608  -13.3
 0.320  0.8856  -27.1   9.864  159.3  0.0275   74.8  0.9562  -14.1
 0.340  0.8816  -28.7   9.811  158.1  0.0291   74.0  0.9519  -15.0
 0.360  0.8783  -30.3   9.763  156.8  0.0307   73.2  0.9477  -15.8
 0.380  0.8757  -31.9   9.719  155.6  0.0323   72.6  0.9437  -16.6
 0.400  0.8738  -33.5   9.680  154.3  0.0339   72.0  0.9400  -17.5
 0.420  0.8670  -35.1   9.620  153.1  0.0353   71.0  0.9342  -18.3
 0.440  0.8608  -36.7   9.565  151.9  0.0367   70.0  0.9286  -19.1
 0.450  0.8580  -37.5   9.539  151.2  0.0374   69.5  0.9259  -19.5
 0.460  0.8554  -38.3   9.514  150.6  0.0381   69.1  0.9232  -19.9
 0.480  0.8506  -39.9   9.468  149.4  0.0396   68.3  0.9179  -20.8
 0.500  0.8465  -41.6   9.426  148.1  0.0410   67.5  0.9129  -21.6
 0.520  0.8397  -43.2   9.341  147.0  0.0424   66.7  0.9065  -22.3
 0.540  0.8335  -44.8   9.260  145.8  0.0437   65.9  0.9002  -23.0
 0.560  0.8279  -46.4   9.183  144.6  0.0451   65.2  0.8940  -23.7
 0.580  0.8231  -48.0   9.109  143.4  0.0465   64.5  0.8880  -24.5
 0.600  0.8189  -49.7   9.040  142.2  0.0479   63.9  0.8821  -25.2
 0.620  0.8129  -51.0   8.965  141.2  0.0491   63.0  0.8759  -25.9
 0.640  0.8074  -52.4   8.892  140.2  0.0503   62.2  0.8698  -26.5
 0.660  0.8024  -53.7   8.822  139.2  0.0515   61.5  0.8639  -27.2
 0.680  0.7977  -55.1   8.755  138.2  0.0527   60.7  0.8580  -27.9
 0.700  0.7936  -56.5   8.691  137.2  0.0539   60.0  0.8523  -28.6
 0.720  0.7861  -58.0   8.617  136.2  0.0549   59.2  0.8453  -29.3
 0.740  0.7792  -59.6   8.545  135.1  0.0560   58.5  0.8384  -30.0
 0.760  0.7729  -61.2   8.477  134.0  0.0571   57.8  0.8316  -30.7
 0.780  0.7673  -62.9   8.411  132.9  0.0581   57.1  0.8250  -31.4
 0.800  0.7622  -64.5   8.349  131.8  0.0592   56.5  0.8185  -32.1
 0.820  0.7558  -65.8   8.267  130.8  0.0600   55.9  0.8118  -32.6
 0.840  0.7497  -67.1   8.187  129.9  0.0607   55.3  0.8052  -33.2
 0.860  0.7441  -68.5   8.109  128.9  0.0615   54.7  0.7986  -33.8
 0.880  0.7389  -69.8   8.034  127.8  0.0623   54.1  0.7921  -34.3
 0.900  0.7341  -71.2   7.962  126.8  0.0631   53.5  0.7857  -34.9
 0.920  0.7288  -72.4   7.885  126.0  0.0640   53.0  0.7795  -35.4
 0.940  0.7238  -73.7   7.810  125.1  0.0649   52.5  0.7734  -36.0
 0.960  0.7192  -75.0   7.736  124.3  0.0658   52.0  0.7674  -36.6
 0.980  0.7150  -76.3   7.664  123.4  0.0668   51.5  0.7614  -37.1
 1.000  0.7111  -77.6   7.594  122.5  0.0677   51.0  0.7555  -37.7
 1.020  0.7056  -79.0   7.522  121.7  0.0685   50.4  0.7493  -38.2
 1.040  0.7005  -80.3   7.451  120.8  0.0694   49.8  0.7432  -38.8
 1.060  0.6958  -81.7   7.383  120.0  0.0702   49.3  0.7371  -39.4
 1.080  0.6915  -83.2   7.315  119.1  0.0710   48.7  0.7311  -39.9
 1.100  0.6877  -84.6   7.250  118.2  0.0719   48.2  0.7252  -40.5
 1.120  0.6823  -85.8   7.172  117.4  0.0724   47.7  0.7189  -40.9
 1.140  0.6773  -87.1   7.095  116.7  0.0729   47.1  0.7127  -41.4
 1.160  0.6726  -88.3   7.020  115.9  0.0734   46.6  0.7065  -41.8
 1.180  0.6682  -89.6   6.946  115.0  0.0739   46.1  0.7003  -42.2
 1.200  0.6641  -90.9   6.874  114.2  0.0744   45.6  0.6942  -42.7
 1.220  0.6600  -91.9   6.808  113.5  0.0750   45.2  0.6886  -43.1
 1.240  0.6561  -92.9   6.742  112.9  0.0756   44.9  0.6831  -43.4
 1.260  0.6524  -94.0   6.677  112.2  0.0761   44.5  0.6776  -43.8
 1.280  0.6489  -95.0   6.614  111.5  0.0767   44.1  0.6721  -44.2
 1.300  0.6457  -96.1   6.551  110.8  0.0773   43.8  0.6667  -44.6
 1.320  0.6417  -97.3   6.491  110.1  0.0779   43.4  0.6610  -45.1
 1.340  0.6380  -98.4   6.431  109.4  0.0784   43.0  0.6554  -45.6
 1.360  0.6346  -99.6   6.373  108.6  0.0790   42.6  0.6498  -46.1
 1.380  0.6314 -100.8   6.316  107.9  0.0795   42.3  0.6443  -46.7
 1.400  0.6285 -102.0   6.260  107.1  0.0801   41.9  0.6388  -47.2
 1.420  0.6250 -103.2   6.199  106.4  0.0804   41.5  0.6338  -47.5
 1.440  0.6217 -104.4   6.140  105.7  0.0808   41.2  0.6288  -47.9
 1.460  0.6188 -105.6   6.081  105.0  0.0811   40.8  0.6238  -48.3
 1.480  0.6161 -106.9   6.024  104.2  0.0815   40.5  0.6188  -48.6
 1.500  0.6137 -108.1   5.967  103.5  0.0818   40.1  0.6139  -49.0
 1.520  0.6095 -109.0   5.907  102.9  0.0822   39.9  0.6092  -49.3
 1.540  0.6055 -109.9   5.847  102.4  0.0826   39.7  0.6045  -49.6
 1.560  0.6016 -110.8   5.788  101.8  0.0831   39.4  0.5998  -49.9
 1.580  0.5979 -111.7   5.729  101.2  0.0835   39.2  0.5951  -50.3
 1.600  0.5943 -112.6   5.671  100.6  0.0839   39.0  0.5905  -50.6
 1.620  0.5919 -113.7   5.624  100.0  0.0842   38.7  0.5857  -51.0
 1.640  0.5896 -114.8   5.578   99.4  0.0846   38.4  0.5809  -51.5
 1.660  0.5876 -115.9   5.532   98.8  0.0849   38.0  0.5762  -52.0
 1.680  0.5859 -117.0   5.487   98.1  0.0853   37.7  0.5715  -52.4
 1.700  0.5843 -118.1   5.443   97.5  0.0856   37.4  0.5669  -52.9
 1.720  0.5813 -119.0   5.390   96.9  0.0858   37.1  0.5633  -53.2
 1.740  0.5785 -119.9   5.338   96.3  0.0860   36.8  0.5597  -53.5
 1.760  0.5759 -120.8   5.286   95.7  0.0863   36.5  0.5562  -53.8
 1.780  0.5734 -121.8   5.235   95.0  0.0865   36.2  0.5526  -54.2
 1.800  0.5710 -122.7   5.185   94.4  0.0867   35.9  0.5491  -54.5
 1.820  0.5696 -123.5   5.139   94.0  0.0869   35.8  0.5448  -54.7
 1.840  0.5684 -124.3   5.094   93.5  0.0871   35.7  0.5406  -55.0
 1.860  0.5672 -125.2   5.048   93.0  0.0874   35.7  0.5364  -55.2
 1.880  0.5662 -126.0   5.004   92.6  0.0876   35.6  0.5321  -55.5
 1.900  0.5653 -126.8   4.959   92.1  0.0878   35.5  0.5279  -55.7
 1.920  0.5618 -127.8   4.919   91.5  0.0880   35.2  0.5244  -56.1
 1.940  0.5585 -128.7   4.879   91.0  0.0882   34.9  0.5210  -56.4
 1.960  0.5553 -129.7   4.840   90.4  0.0885   34.5  0.5176  -56.8
 1.980  0.5523 -130.7   4.801   89.8  0.0887   34.2  0.5142  -57.1
 2.000  0.5494 -131.7   4.763   89.2  0.0889   33.9  0.5108  -57.5
 2.020  0.5480 -132.4   4.721   88.8  0.0891   33.8  0.5078  -57.7
 2.040  0.5467 -133.1   4.679   88.4  0.0893   33.7  0.5048  -57.9
 2.060  0.5454 -133.7   4.638   87.9  0.0896   33.6  0.5019  -58.2
 2.080  0.5443 -134.4   4.596   87.5  0.0898   33.5  0.4989  -58.4
 2.100  0.5432 -135.1   4.555   87.1  0.0900   33.3  0.4960  -58.6
 2.120  0.5422 -135.8   4.515   86.6  0.0902   33.2  0.4930  -58.8
 2.140  0.5412 -136.5   4.474   86.1  0.0904   33.1  0.4901  -59.1
 2.160  0.5404 -137.2   4.434   85.7  0.0907   33.0  0.4871  -59.3
 2.180  0.5396 -137.9   4.394   85.2  0.0909   32.9  0.4842  -59.6
 2.200  0.5389 -138.6   4.355   84.7  0.0911   32.8  0.4813  -59.8
 2.220  0.5372 -139.4   4.319   84.3  0.0912   32.7  0.4790  -60.1
 2.240  0.5355 -140.1   4.283   83.9  0.0914   32.5  0.4767  -60.4
 2.260  0.5340 -140.9   4.247   83.4  0.0915   32.4  0.4744  -60.6
 2.280  0.5325 -141.6   4.212   83.0  0.0916   32.2  0.4721  -60.9
 2.300  0.5311 -142.4   4.177   82.5  0.0917   32.1  0.4698  -61.2
 2.320  0.5299 -143.2   4.142   82.1  0.0919   32.0  0.4675  -61.5
 2.340  0.5287 -144.0   4.107   81.6  0.0920   31.8  0.4653  -61.8
 2.360  0.5276 -144.7   4.073   81.2  0.0921   31.7  0.4630  -62.1
 2.380  0.5267 -145.5   4.039   80.7  0.0923   31.5  0.4608  -62.4
 2.400  0.5258 -146.3   4.005   80.2  0.0924   31.4  0.4586  -62.7
 2.420  0.5253 -146.9   3.975   79.8  0.0926   31.3  0.4558  -63.0
 2.440  0.5249 -147.5   3.946   79.5  0.0928   31.2  0.4531  -63.3
 2.460  0.5245 -148.1   3.917   79.1  0.0930   31.2  0.4504  -63.6
 2.480  0.5242 -148.7   3.887   78.7  0.0932   31.1  0.4477  -63.9
 2.500  0.5239 -149.2   3.858   78.4  0.0933   31.0  0.4449  -64.2
 2.520  0.5237 -149.8   3.830   78.0  0.0935   30.9  0.4423  -64.5
 2.540  0.5235 -150.4   3.801   77.6  0.0937   30.8  0.4396  -64.8
 2.560  0.5234 -151.0   3.772   77.2  0.0939   30.8  0.4369  -65.1
 2.580  0.5234 -151.6   3.744   76.8  0.0941   30.7  0.4342  -65.4
 2.600  0.5234 -152.2   3.716   76.4  0.0943   30.6  0.4316  -65.7
 2.620  0.5223 -152.8   3.690   76.1  0.0945   30.6  0.4302  -65.9
 2.640  0.5212 -153.3   3.664   75.7  0.0948   30.6  0.4288  -66.1
 2.660  0.5201 -153.9   3.638   75.4  0.0950   30.6  0.4274  -66.2
 2.680  0.5191 -154.5   3.612   75.0  0.0952   30.6  0.4259  -66.4
 2.700  0.5182 -155.0   3.587   74.7  0.0954   30.5  0.4245  -66.6
 2.720  0.5173 -155.6   3.561   74.3  0.0957   30.5  0.4231  -66.8
 2.740  0.5165 -156.2   3.536   73.9  0.0959   30.5  0.4218  -66.9
 2.760  0.5157 -156.7   3.511   73.6  0.0961   30.5  0.4204  -67.1
 2.780  0.5150 -157.3   3.486   73.2  0.0964   30.5  0.4190  -67.3
 2.800  0.5143 -157.9   3.461   72.8  0.0966   30.5  0.4176  -67.5
 2.820  0.5138 -158.4   3.438   72.4  0.0967   30.4  0.4161  -67.7
 2.840  0.5134 -158.9   3.415   72.1  0.0968   30.4  0.4147  -67.9
 2.860  0.5130 -159.5   3.392   71.7  0.0969   30.3  0.4132  -68.1
 2.880  0.5127 -160.0   3.370   71.3  0.0970   30.3  0.4117  -68.3
 2.900  0.5124 -160.5   3.348   70.9  0.0970   30.2  0.4103  -68.5
 2.920  0.5121 -161.0   3.325   70.5  0.0971   30.1  0.4088  -68.7
 2.940  0.5119 -161.5   3.303   70.1  0.0972   30.1  0.4074  -69.0
 2.960  0.5117 -162.1   3.281   69.7  0.0973   30.0  0.4060  -69.2
 2.980  0.5116 -162.6   3.260   69.3  0.0974   30.0  0.4045  -69.4
 3.000  0.5115 -163.1   3.238   68.9  0.0975   29.9  0.4031  -69.6
 3.100  0.5083 -165.3   3.143   67.5  0.0983   29.7  0.3979  -70.5
 3.200  0.5059 -167.6   3.049   66.1  0.0991   29.5  0.3928  -71.5
 3.300  0.5042 -169.8   2.958   64.5  0.0999   29.3  0.3878  -72.5
 3.400  0.5034 -172.1   2.869   62.9  0.1007   29.1  0.3829  -73.5
 3.500  0.5033 -174.4   2.782   61.1  0.1015   28.9  0.3782  -74.6
 3.600  0.5030 -176.0   2.713   59.8  0.1027   29.1  0.3742  -75.4
 3.700  0.5031 -177.6   2.646   58.5  0.1039   29.4  0.3703  -76.2
 3.800  0.5036 -179.3   2.580   57.1  0.1050   29.6  0.3665  -77.0
 3.900  0.5045  179.1   2.515   55.6  0.1062   29.8  0.3628  -77.8
 4.000  0.5058  177.5   2.453   54.0  0.1074   30.0  0.3591  -78.7
 4.100  0.5042  175.9   2.399   52.8  0.1086   29.8  0.3554  -79.6
 4.200  0.5031  174.2   2.347   51.5  0.1098   29.6  0.3518  -80.4
 4.300  0.5023  172.5   2.296   50.1  0.1111   29.4  0.3483  -81.3
 4.400  0.5020  170.9   2.246   48.7  0.1123   29.2  0.3449  -82.3
 4.500  0.5021  169.2   2.198   47.2  0.1135   29.0  0.3416  -83.2
 4.600  0.5021  167.7   2.157   46.0  0.1153   29.1  0.3385  -84.1
 4.700  0.5025  166.2   2.118   44.7  0.1170   29.1  0.3354  -85.0
 4.800  0.5032  164.7   2.079   43.3  0.1188   29.2  0.3324  -85.9
 4.900  0.5043  163.2   2.042   41.9  0.1205   29.2  0.3295  -86.8
 5.000  0.5057  161.7   2.006   40.5  0.1223   29.3  0.3267  -87.7
 5.100  0.5014  160.0   1.970   39.3  0.1242   29.1  0.3221  -88.9
 5.200  0.4975  158.3   1.934   38.0  0.1260   28.9  0.3176  -90.1
 5.300  0.4940  156.6   1.900   36.6  0.1279   28.7  0.3133  -91.4
 5.400  0.4910  154.8   1.866   35.2  0.1297   28.6  0.3091  -92.7
 5.500  0.4885  153.0   1.834   33.8  0.1316   28.4  0.3051  -94.0
 5.600  0.4879  151.4   1.807   32.7  0.1335   28.2  0.3010  -94.9
 5.700  0.4877  149.8   1.780   31.5  0.1354   28.0  0.2970  -95.8
 5.800  0.4878  148.3   1.754   30.3  0.1374   27.8  0.2931  -96.7
 5.900  0.4883  146.7   1.729   29.1  0.1393   27.6  0.2893  -97.7
 6.000  0.4892  145.1   1.705   27.8  0.1412   27.4  0.2855  -98.7
!
!  f       NFmin   Gammaopt  rn/50
! GHz       dB    MAG  ANG    -
!
! noise parameter not available yet for this operation point!
!
! (c) 2015  Infineon Technologies AG, Munich
