! Infineon Technologies  Discrete & RF Semiconductors
! BFP540ESD
! VCE =  2.0 V,  IC =  3.0 mA
! Common Emitter S-Parameters:                            Nov 2015
# GHz  S  MA  R  50
!  f         S11            S21            S12            S22
! GHz     MAG   ANG      MAG   ANG      MAG   ANG      MAG   ANG
 0.010  0.8804   -0.7   9.923  179.2  0.0006   76.1  0.9854   -1.2
 0.015  0.8829   -1.4   9.907  179.2  0.0010   85.3  0.9927   -1.1
 0.020  0.8856   -2.0   9.892  179.1  0.0015   88.9  1.0000   -1.1
 0.025  0.8852   -2.4   9.890  178.7  0.0020   87.8  0.9991   -1.3
 0.030  0.8848   -2.8   9.888  178.3  0.0025   87.1  0.9982   -1.6
 0.035  0.8845   -3.1   9.887  178.0  0.0030   86.7  0.9973   -1.8
 0.040  0.8842   -3.5   9.886  177.6  0.0036   86.4  0.9965   -2.0
 0.045  0.8839   -3.9   9.885  177.2  0.0041   86.2  0.9956   -2.3
 0.050  0.8837   -4.3   9.885  176.8  0.0046   86.0  0.9948   -2.5
 0.055  0.8839   -4.7   9.887  176.5  0.0050   85.8  0.9944   -2.7
 0.060  0.8842   -5.2   9.888  176.2  0.0055   85.7  0.9941   -3.0
 0.065  0.8846   -5.6   9.891  175.9  0.0059   85.5  0.9937   -3.2
 0.070  0.8850   -6.1   9.893  175.6  0.0064   85.4  0.9934   -3.5
 0.075  0.8854   -6.5   9.896  175.2  0.0068   85.3  0.9931   -3.7
 0.080  0.8859   -6.9   9.899  174.9  0.0072   85.3  0.9929   -3.9
 0.085  0.8864   -7.4   9.902  174.6  0.0077   85.2  0.9926   -4.2
 0.090  0.8870   -7.8   9.906  174.3  0.0081   85.1  0.9923   -4.4
 0.095  0.8877   -8.3   9.910  174.0  0.0086   85.1  0.9921   -4.7
 0.100  0.8884   -8.7   9.914  173.7  0.0090   85.0  0.9919   -4.9
 0.105  0.8874   -9.1   9.910  173.4  0.0095   84.7  0.9916   -5.1
 0.110  0.8864   -9.6   9.906  173.1  0.0099   84.5  0.9913   -5.4
 0.115  0.8854  -10.0   9.903  172.7  0.0104   84.3  0.9911   -5.6
 0.120  0.8846  -10.4   9.900  172.4  0.0108   84.0  0.9908   -5.9
 0.125  0.8837  -10.8   9.897  172.1  0.0113   83.9  0.9906   -6.1
 0.130  0.8829  -11.3   9.895  171.8  0.0118   83.7  0.9904   -6.3
 0.135  0.8822  -11.7   9.893  171.5  0.0122   83.5  0.9902   -6.6
 0.140  0.8815  -12.1   9.891  171.1  0.0127   83.4  0.9900   -6.8
 0.145  0.8809  -12.6   9.889  170.8  0.0131   83.2  0.9898   -7.1
 0.150  0.8803  -13.0   9.888  170.5  0.0136   83.1  0.9897   -7.3
 0.155  0.8795  -13.4   9.877  170.2  0.0140   83.1  0.9890   -7.5
 0.160  0.8788  -13.9   9.867  169.8  0.0145   83.0  0.9884   -7.8
 0.165  0.8781  -14.3   9.857  169.5  0.0149   83.0  0.9878   -8.0
 0.170  0.8774  -14.8   9.847  169.1  0.0154   83.0  0.9872   -8.3
 0.175  0.8769  -15.2   9.838  168.8  0.0158   82.9  0.9866   -8.5
 0.180  0.8763  -15.6   9.829  168.5  0.0162   82.9  0.9861   -8.8
 0.185  0.8758  -16.1   9.821  168.1  0.0167   82.9  0.9855   -9.0
 0.190  0.8754  -16.5   9.812  167.8  0.0171   82.8  0.9850   -9.3
 0.195  0.8750  -17.0   9.805  167.4  0.0176   82.8  0.9845   -9.5
 0.200  0.8747  -17.4   9.797  167.1  0.0180   82.8  0.9840   -9.8
 0.220  0.8741  -19.1   9.771  165.8  0.0198   81.3  0.9817  -10.8
 0.240  0.8742  -20.8   9.751  164.5  0.0216   80.0  0.9797  -11.7
 0.260  0.8728  -22.6   9.722  163.2  0.0234   79.1  0.9768  -12.7
 0.280  0.8697  -24.3   9.687  161.9  0.0252   78.6  0.9731  -13.6
 0.300  0.8674  -26.1   9.657  160.6  0.0270   78.2  0.9697  -14.6
 0.320  0.8639  -27.8   9.606  159.4  0.0287   76.8  0.9654  -15.5
 0.340  0.8612  -29.4   9.560  158.1  0.0304   75.6  0.9613  -16.5
 0.360  0.8592  -31.1   9.518  156.9  0.0322   74.5  0.9575  -17.5
 0.380  0.8580  -32.8   9.481  155.6  0.0339   73.5  0.9540  -18.4
 0.400  0.8575  -34.5   9.449  154.3  0.0357   72.6  0.9508  -19.4
 0.420  0.8521  -36.2   9.398  153.0  0.0374   71.7  0.9452  -20.3
 0.440  0.8475  -37.9   9.351  151.8  0.0390   70.9  0.9398  -21.2
 0.450  0.8455  -38.8   9.329  151.1  0.0399   70.6  0.9373  -21.7
 0.460  0.8436  -39.7   9.309  150.5  0.0407   70.2  0.9347  -22.2
 0.480  0.8406  -41.4   9.272  149.2  0.0424   69.5  0.9299  -23.1
 0.500  0.8383  -43.2   9.239  147.9  0.0441   68.9  0.9253  -24.1
 0.520  0.8333  -44.8   9.161  146.7  0.0456   68.0  0.9190  -24.9
 0.540  0.8289  -46.5   9.088  145.6  0.0470   67.1  0.9129  -25.8
 0.560  0.8252  -48.1   9.018  144.4  0.0485   66.3  0.9070  -26.6
 0.580  0.8223  -49.8   8.952  143.1  0.0500   65.5  0.9014  -27.5
 0.600  0.8200  -51.5   8.890  141.9  0.0515   64.8  0.8959  -28.4
 0.620  0.8152  -53.0   8.825  140.9  0.0529   64.0  0.8892  -29.2
 0.640  0.8109  -54.5   8.762  139.9  0.0544   63.2  0.8827  -30.0
 0.660  0.8072  -56.0   8.703  138.8  0.0558   62.4  0.8764  -30.9
 0.680  0.8041  -57.6   8.646  137.8  0.0572   61.7  0.8703  -31.7
 0.700  0.8016  -59.1   8.592  136.7  0.0587   61.0  0.8644  -32.6
 0.720  0.7958  -60.8   8.517  135.6  0.0600   60.1  0.8570  -33.4
 0.740  0.7907  -62.4   8.445  134.5  0.0613   59.2  0.8499  -34.2
 0.760  0.7862  -64.1   8.377  133.3  0.0627   58.3  0.8429  -35.1
 0.780  0.7825  -65.9   8.312  132.2  0.0640   57.5  0.8360  -35.9
 0.800  0.7795  -67.6   8.250  131.0  0.0654   56.7  0.8294  -36.8
 0.820  0.7745  -69.0   8.172  130.0  0.0664   56.0  0.8223  -37.5
 0.840  0.7700  -70.5   8.096  129.0  0.0674   55.3  0.8154  -38.2
 0.860  0.7660  -71.9   8.023  128.0  0.0684   54.7  0.8086  -38.9
 0.880  0.7625  -73.4   7.953  127.0  0.0694   54.0  0.8019  -39.6
 0.900  0.7595  -74.9   7.885  125.9  0.0704   53.4  0.7953  -40.3
 0.920  0.7547  -76.2   7.811  125.1  0.0715   52.7  0.7883  -41.0
 0.940  0.7504  -77.6   7.740  124.2  0.0726   52.0  0.7813  -41.6
 0.960  0.7464  -79.0   7.670  123.3  0.0737   51.4  0.7745  -42.3
 0.980  0.7429  -80.4   7.601  122.4  0.0749   50.7  0.7678  -43.0
 1.000  0.7399  -81.8   7.535  121.5  0.0760   50.1  0.7612  -43.7
 1.020  0.7348  -83.3   7.466  120.6  0.0769   49.4  0.7542  -44.4
 1.040  0.7303  -84.7   7.398  119.7  0.0777   48.7  0.7472  -45.1
 1.060  0.7262  -86.3   7.333  118.7  0.0786   48.0  0.7404  -45.9
 1.080  0.7227  -87.8   7.269  117.8  0.0795   47.3  0.7337  -46.6
 1.100  0.7196  -89.3   7.208  116.8  0.0804   46.6  0.7272  -47.4
 1.120  0.7155  -90.6   7.135  116.0  0.0811   45.9  0.7208  -47.9
 1.140  0.7118  -91.9   7.063  115.2  0.0817   45.2  0.7144  -48.5
 1.160  0.7085  -93.3   6.992  114.4  0.0824   44.6  0.7080  -49.0
 1.180  0.7056  -94.6   6.923  113.6  0.0831   43.9  0.7018  -49.5
 1.200  0.7031  -96.0   6.856  112.7  0.0838   43.3  0.6956  -50.1
 1.220  0.7004  -97.1   6.795  112.0  0.0845   42.8  0.6896  -50.6
 1.240  0.6979  -98.3   6.735  111.3  0.0853   42.3  0.6838  -51.1
 1.260  0.6958  -99.5   6.676  110.6  0.0860   41.8  0.6779  -51.6
 1.280  0.6939 -100.6   6.618  109.8  0.0867   41.3  0.6721  -52.2
 1.300  0.6923 -101.8   6.561  109.1  0.0875   40.8  0.6664  -52.7
 1.320  0.6883 -103.1   6.502  108.4  0.0881   40.3  0.6600  -53.3
 1.340  0.6847 -104.4   6.444  107.6  0.0887   39.7  0.6538  -54.0
 1.360  0.6814 -105.7   6.387  106.9  0.0893   39.2  0.6476  -54.6
 1.380  0.6785 -107.0   6.331  106.1  0.0899   38.7  0.6415  -55.3
 1.400  0.6759 -108.3   6.276  105.3  0.0905   38.2  0.6355  -56.0
 1.420  0.6726 -109.6   6.218  104.5  0.0909   37.7  0.6298  -56.4
 1.440  0.6697 -110.8   6.161  103.8  0.0914   37.2  0.6242  -56.8
 1.460  0.6670 -112.1   6.105  103.0  0.0918   36.7  0.6186  -57.2
 1.480  0.6647 -113.4   6.050  102.2  0.0922   36.2  0.6130  -57.6
 1.500  0.6628 -114.7   5.997  101.4  0.0927   35.7  0.6075  -58.0
 1.520  0.6590 -115.6   5.939  100.8  0.0932   35.3  0.6023  -58.4
 1.540  0.6553 -116.6   5.882  100.2  0.0936   35.0  0.5972  -58.8
 1.560  0.6518 -117.5   5.826   99.6  0.0941   34.6  0.5921  -59.2
 1.580  0.6485 -118.5   5.770   98.9  0.0946   34.3  0.5870  -59.7
 1.600  0.6454 -119.5   5.715   98.3  0.0951   33.9  0.5820  -60.1
 1.620  0.6434 -120.7   5.671   97.6  0.0954   33.4  0.5768  -60.7
 1.640  0.6417 -122.0   5.628   96.9  0.0957   33.0  0.5716  -61.3
 1.660  0.6403 -123.3   5.586   96.2  0.0960   32.5  0.5665  -61.9
 1.680  0.6392 -124.5   5.545   95.5  0.0963   32.1  0.5614  -62.5
 1.700  0.6384 -125.8   5.505   94.8  0.0966   31.6  0.5564  -63.1
 1.720  0.6360 -126.8   5.455   94.2  0.0969   31.2  0.5519  -63.4
 1.740  0.6338 -127.9   5.406   93.6  0.0972   30.8  0.5475  -63.7
 1.760  0.6319 -129.0   5.358   92.9  0.0975   30.5  0.5430  -64.0
 1.780  0.6301 -130.0   5.310   92.3  0.0978   30.1  0.5386  -64.4
 1.800  0.6286 -131.1   5.263   91.6  0.0981   29.7  0.5342  -64.7
 1.820  0.6268 -132.0   5.223   91.1  0.0984   29.4  0.5293  -65.0
 1.840  0.6252 -132.9   5.183   90.6  0.0988   29.1  0.5245  -65.4
 1.860  0.6237 -133.8   5.144   90.1  0.0991   28.8  0.5197  -65.7
 1.880  0.6224 -134.7   5.105   89.5  0.0995   28.5  0.5149  -66.0
 1.900  0.6212 -135.6   5.067   89.0  0.0998   28.2  0.5101  -66.4
 1.920  0.6186 -136.7   5.027   88.4  0.1001   27.9  0.5064  -66.8
 1.940  0.6162 -137.7   4.989   87.7  0.1004   27.6  0.5027  -67.2
 1.960  0.6140 -138.8   4.950   87.1  0.1008   27.4  0.4990  -67.6
 1.980  0.6120 -139.9   4.913   86.4  0.1011   27.1  0.4954  -68.0
 2.000  0.6103 -141.0   4.876   85.7  0.1014   26.8  0.4918  -68.4
 2.020  0.6085 -141.9   4.837   85.2  0.1016   26.5  0.4879  -68.7
 2.040  0.6068 -142.7   4.798   84.7  0.1017   26.3  0.4839  -68.9
 2.060  0.6053 -143.6   4.760   84.3  0.1019   26.0  0.4800  -69.2
 2.080  0.6039 -144.4   4.722   83.8  0.1021   25.7  0.4761  -69.5
 2.100  0.6027 -145.3   4.684   83.3  0.1022   25.5  0.4722  -69.7
 2.120  0.6015 -146.2   4.647   82.7  0.1024   25.2  0.4683  -70.0
 2.140  0.6006 -147.1   4.610   82.2  0.1026   25.0  0.4644  -70.3
 2.160  0.5997 -147.9   4.574   81.7  0.1027   24.7  0.4606  -70.6
 2.180  0.5990 -148.8   4.538   81.1  0.1029   24.5  0.4567  -70.9
 2.200  0.5985 -149.7   4.502   80.6  0.1031   24.2  0.4529  -71.2
 2.220  0.5970 -150.6   4.467   80.1  0.1032   23.9  0.4499  -71.5
 2.240  0.5956 -151.5   4.432   79.6  0.1033   23.7  0.4470  -71.7
 2.260  0.5944 -152.3   4.398   79.1  0.1035   23.4  0.4440  -72.0
 2.280  0.5933 -153.2   4.364   78.6  0.1036   23.1  0.4411  -72.3
 2.300  0.5924 -154.1   4.330   78.1  0.1037   22.8  0.4381  -72.6
 2.320  0.5916 -155.0   4.297   77.6  0.1039   22.6  0.4352  -72.8
 2.340  0.5909 -155.9   4.264   77.0  0.1040   22.3  0.4323  -73.1
 2.360  0.5904 -156.8   4.231   76.5  0.1041   22.0  0.4294  -73.4
 2.380  0.5900 -157.7   4.199   76.0  0.1043   21.8  0.4265  -73.7
 2.400  0.5898 -158.6   4.167   75.4  0.1044   21.5  0.4236  -74.0
 2.420  0.5889 -159.4   4.138   74.9  0.1045   21.3  0.4195  -74.4
 2.440  0.5881 -160.2   4.110   74.5  0.1046   21.1  0.4154  -74.8
 2.460  0.5875 -161.1   4.081   74.0  0.1047   20.8  0.4113  -75.2
 2.480  0.5870 -161.9   4.053   73.5  0.1049   20.6  0.4073  -75.6
 2.500  0.5866 -162.7   4.026   73.0  0.1050   20.4  0.4032  -76.0
 2.520  0.5863 -163.6   3.998   72.5  0.1051   20.2  0.3992  -76.5
 2.540  0.5861 -164.4   3.971   72.0  0.1052   20.0  0.3952  -76.9
 2.560  0.5861 -165.2   3.945   71.5  0.1053   19.7  0.3913  -77.4
 2.580  0.5862 -166.1   3.918   71.0  0.1055   19.5  0.3873  -77.8
 2.600  0.5864 -166.9   3.892   70.5  0.1056   19.3  0.3834  -78.3
 2.620  0.5858 -167.6   3.868   70.1  0.1057   19.2  0.3807  -78.5
 2.640  0.5852 -168.4   3.844   69.6  0.1059   19.0  0.3780  -78.7
 2.660  0.5848 -169.1   3.820   69.2  0.1060   18.9  0.3753  -79.0
 2.680  0.5845 -169.9   3.796   68.8  0.1062   18.8  0.3726  -79.2
 2.700  0.5842 -170.6   3.773   68.3  0.1063   18.6  0.3699  -79.4
 2.720  0.5841 -171.4   3.750   67.9  0.1065   18.5  0.3672  -79.6
 2.740  0.5841 -172.1   3.727   67.4  0.1066   18.4  0.3645  -79.9
 2.760  0.5842 -172.9   3.705   66.9  0.1068   18.3  0.3618  -80.1
 2.780  0.5843 -173.6   3.682   66.5  0.1069   18.1  0.3592  -80.4
 2.800  0.5846 -174.4   3.660   66.0  0.1071   18.0  0.3565  -80.6
 2.820  0.5839 -175.1   3.636   65.5  0.1071   17.8  0.3535  -80.9
 2.840  0.5832 -175.9   3.613   65.1  0.1071   17.6  0.3504  -81.2
 2.860  0.5827 -176.6   3.590   64.6  0.1071   17.4  0.3474  -81.4
 2.880  0.5823 -177.4   3.567   64.2  0.1072   17.2  0.3444  -81.7
 2.900  0.5820 -178.1   3.544   63.7  0.1072   17.0  0.3414  -82.0
 2.920  0.5817 -178.9   3.522   63.2  0.1072   16.9  0.3384  -82.3
 2.940  0.5816 -179.6   3.500   62.7  0.1072   16.7  0.3354  -82.6
 2.960  0.5816  179.6   3.478   62.2  0.1073   16.5  0.3324  -83.0
 2.980  0.5816  178.9   3.456   61.7  0.1073   16.3  0.3295  -83.3
 3.000  0.5818  178.1   3.435   61.2  0.1073   16.1  0.3265  -83.6
 3.100  0.5800  174.7   3.334   59.3  0.1078   15.4  0.3141  -85.4
 3.200  0.5803  171.4   3.237   57.2  0.1083   14.7  0.3020  -87.3
 3.300  0.5825  168.0   3.144   55.0  0.1088   14.0  0.2902  -89.3
 3.400  0.5867  164.7   3.056   52.7  0.1093   13.4  0.2789  -91.6
 3.500  0.5929  161.4   2.973   50.3  0.1099   12.7  0.2680  -94.0
 3.600  0.5942  158.6   2.890   48.5  0.1099   12.2  0.2583  -96.5
 3.700  0.5969  155.9   2.809   46.7  0.1099   11.7  0.2492  -99.3
 3.800  0.6009  153.1   2.732   44.7  0.1099   11.3  0.2407 -102.2
 3.900  0.6063  150.4   2.658   42.6  0.1099   10.8  0.2328 -105.4
 4.000  0.6130  147.8   2.588   40.4  0.1099   10.3  0.2257 -108.7
 4.100  0.6153  145.4   2.518   38.8  0.1103    9.9  0.2208 -111.6
 4.200  0.6186  143.1   2.450   37.0  0.1108    9.5  0.2164 -114.6
 4.300  0.6229  140.7   2.384   35.2  0.1112    9.2  0.2127 -117.7
 4.400  0.6283  138.4   2.321   33.2  0.1117    8.8  0.2097 -121.0
 4.500  0.6346  136.2   2.261   31.2  0.1121    8.4  0.2073 -124.3
 4.600  0.6374  134.3   2.207   29.6  0.1125    8.3  0.2049 -127.0
 4.700  0.6409  132.4   2.155   28.0  0.1129    8.1  0.2030 -129.7
 4.800  0.6451  130.5   2.105   26.2  0.1134    8.0  0.2016 -132.5
 4.900  0.6500  128.7   2.057   24.4  0.1138    7.8  0.2006 -135.3
 5.000  0.6555  126.9   2.011   22.5  0.1142    7.7  0.2001 -138.1
 5.100  0.6575  125.3   1.964   21.1  0.1151    7.7  0.1978 -140.6
 5.200  0.6599  123.8   1.918   19.6  0.1160    7.7  0.1959 -143.1
 5.300  0.6628  122.2   1.873   18.1  0.1168    7.7  0.1944 -145.7
 5.400  0.6662  120.7   1.830   16.5  0.1177    7.7  0.1933 -148.3
 5.500  0.6701  119.2   1.788   14.8  0.1186    7.7  0.1926 -150.9
 5.600  0.6733  117.9   1.753   13.5  0.1195    7.6  0.1906 -153.3
 5.700  0.6768  116.6   1.719   12.2  0.1205    7.5  0.1890 -155.7
 5.800  0.6807  115.3   1.685   10.8  0.1214    7.4  0.1877 -158.1
 5.900  0.6849  114.0   1.653    9.3  0.1224    7.3  0.1867 -160.6
 6.000  0.6894  112.8   1.622    7.8  0.1233    7.2  0.1861 -163.1
!
!  f       NFmin   Gammaopt  rn/50
! GHz       dB    MAG  ANG    -
 0.900      0.63  0.27   45   0.15
 1.800      0.89  0.21   92   0.13
 2.400      0.92  0.26  109   0.10
 3.000      1.12  0.29  144   0.09
 4.000      1.37  0.29 -141   0.15
 5.000      1.69  0.42 -108   0.35
 6.000      1.90  0.55 -106   0.52
!
! (c) 2015  Infineon Technologies AG, Munich
