! Infineon Technologies  Discrete & RF Semiconductors
! BFP520
! VCE =  2.0 V,  IC =  8.0 mA
! Common Emitter S-Parameters:                            Oct 2015
# GHz  S  MA  R  50
!  f         S11            S21            S12            S22
! GHz     MAG   ANG      MAG   ANG      MAG   ANG      MAG   ANG
 0.030  0.8052   -1.9  20.096  177.5  0.0013   73.5  0.9668   -0.9
 0.040  0.8086   -2.4  20.040  176.6  0.0018   78.1  0.9681   -1.3
 0.050  0.8074   -2.9  19.895  175.9  0.0023   80.5  0.9691   -1.7
 0.060  0.8085   -3.7  19.865  175.5  0.0025   81.6  0.9697   -2.1
 0.070  0.8051   -4.3  19.994  174.8  0.0032   79.9  0.9703   -2.6
 0.080  0.8064   -5.2  19.894  174.6  0.0033   81.9  0.9704   -3.0
 0.090  0.8076   -5.8  19.893  173.9  0.0038   84.3  0.9705   -3.4
 0.100  0.8074   -6.5  19.764  173.3  0.0043   83.3  0.9700   -3.9
 0.110  0.8068   -7.1  19.787  172.8  0.0047   82.5  0.9702   -4.3
 0.120  0.8075   -7.6  19.803  172.2  0.0050   82.8  0.9698   -4.8
 0.130  0.8048   -8.1  19.761  171.6  0.0055   82.0  0.9693   -5.2
 0.140  0.8053   -8.9  19.784  171.0  0.0058   81.9  0.9689   -5.6
 0.150  0.8025   -9.5  19.700  170.2  0.0064   82.4  0.9682   -6.0
 0.200  0.7988  -12.7  19.610  167.4  0.0084   81.5  0.9643   -8.1
 0.250  0.7928  -15.8  19.446  164.4  0.0105   80.7  0.9594  -10.2
 0.300  0.7872  -18.9  19.244  161.5  0.0126   79.3  0.9527  -12.2
 0.350  0.7789  -22.0  19.036  158.6  0.0145   78.2  0.9448  -14.3
 0.400  0.7696  -25.1  18.795  155.7  0.0165   76.9  0.9361  -16.2
 0.450  0.7591  -28.0  18.539  152.8  0.0184   75.7  0.9264  -18.2
 0.500  0.7482  -31.0  18.262  150.2  0.0203   74.6  0.9155  -20.1
 0.600  0.7249  -36.9  17.714  144.7  0.0239   72.2  0.8920  -23.7
 0.700  0.6996  -42.6  17.083  139.5  0.0273   69.8  0.8664  -27.3
 0.800  0.6736  -48.0  16.415  134.6  0.0305   67.5  0.8395  -30.5
 0.900  0.6465  -53.4  15.793  130.0  0.0336   65.5  0.8118  -33.6
 1.000  0.6191  -58.5  15.142  125.6  0.0365   63.7  0.7838  -36.6
 1.100  0.5927  -63.5  14.492  121.4  0.0392   61.9  0.7564  -39.3
 1.200  0.5670  -68.3  13.874  117.4  0.0417   60.3  0.7291  -41.9
 1.300  0.5421  -73.1  13.281  113.7  0.0442   58.8  0.7028  -44.4
 1.400  0.5184  -77.8  12.697  110.2  0.0466   57.4  0.6765  -46.7
 1.500  0.4952  -82.5  12.160  106.8  0.0488   56.1  0.6525  -48.9
 1.600  0.4725  -87.0  11.637  103.6  0.0510   54.9  0.6279  -51.0
 1.700  0.4534  -91.4  11.149  100.6  0.0531   53.8  0.6058  -53.0
 1.800  0.4355  -95.8  10.689   97.7  0.0551   52.8  0.5839  -54.9
 1.900  0.4165 -100.2  10.262   95.0  0.0572   51.7  0.5632  -56.7
 2.000  0.4005 -104.5   9.862   92.3  0.0592   50.8  0.5430  -58.5
 2.100  0.3845 -108.8   9.479   89.9  0.0611   49.9  0.5240  -60.1
 2.200  0.3709 -113.4   9.113   87.3  0.0631   49.0  0.5055  -61.8
 2.300  0.3576 -117.6   8.782   85.0  0.0650   48.1  0.4877  -63.4
 2.400  0.3464 -122.2   8.465   82.5  0.0669   47.3  0.4702  -65.0
 2.500  0.3347 -126.7   8.164   80.4  0.0687   46.5  0.4536  -66.5
 2.600  0.3253 -131.4   7.876   78.2  0.0706   45.7  0.4373  -68.1
 2.700  0.3163 -135.7   7.613   76.2  0.0724   44.8  0.4214  -69.6
 2.800  0.3092 -140.2   7.360   74.0  0.0743   44.0  0.4058  -71.3
 2.900  0.3028 -144.6   7.126   72.1  0.0761   43.2  0.3910  -72.8
 3.000  0.2982 -149.2   6.901   70.1  0.0780   42.4  0.3764  -74.5
 3.100  0.2921 -153.6   6.697   68.5  0.0798   41.5  0.3628  -76.0
 3.200  0.2878 -158.1   6.498   66.7  0.0815   40.6  0.3493  -77.6
 3.300  0.2853 -162.7   6.306   64.9  0.0833   39.8  0.3362  -79.4
 3.400  0.2846 -167.3   6.121   62.9  0.0852   39.0  0.3235  -81.3
 3.500  0.2859 -172.0   5.944   60.8  0.0870   38.2  0.3111  -83.3
 3.600  0.2847 -176.2   5.783   59.3  0.0886   37.3  0.2990  -85.1
 3.700  0.2852  179.5   5.626   57.7  0.0902   36.4  0.2873  -87.1
 3.800  0.2872  175.3   5.474   56.0  0.0919   35.6  0.2759  -89.2
 3.900  0.2907  171.1   5.327   54.2  0.0936   34.8  0.2650  -91.5
 4.000  0.2958  167.1   5.185   52.3  0.0953   34.0  0.2545  -94.0
 4.100  0.2987  163.6   5.055   50.9  0.0968   33.1  0.2445  -96.1
 4.200  0.3028  160.2   4.929   49.4  0.0983   32.3  0.2349  -98.4
 4.300  0.3078  156.9   4.805   47.8  0.0998   31.4  0.2257 -100.9
 4.400  0.3139  153.8   4.686   46.1  0.1014   30.6  0.2169 -103.5
 4.500  0.3209  150.7   4.571   44.4  0.1030   29.9  0.2087 -106.4
 4.600  0.3250  148.0   4.465   43.0  0.1044   29.1  0.2004 -108.6
 4.700  0.3298  145.3   4.362   41.6  0.1058   28.3  0.1924 -111.0
 4.800  0.3353  142.7   4.262   40.1  0.1072   27.5  0.1848 -113.6
 4.900  0.3414  140.2   4.164   38.6  0.1087   26.7  0.1776 -116.4
 5.000  0.3482  137.8   4.070   37.0  0.1102   26.0  0.1709 -119.4
 5.100  0.3521  135.7   3.983   35.7  0.1116   25.2  0.1644 -121.5
 5.200  0.3565  133.6   3.898   34.4  0.1131   24.5  0.1582 -123.8
 5.300  0.3613  131.6   3.815   33.1  0.1145   23.7  0.1522 -126.3
 5.400  0.3665  129.7   3.735   31.6  0.1160   23.0  0.1465 -129.0
 5.500  0.3722  127.8   3.657   30.2  0.1175   22.3  0.1412 -131.9
 5.600  0.3751  126.2   3.586   29.0  0.1190   21.4  0.1365 -134.5
 5.700  0.3782  124.7   3.518   27.7  0.1205   20.6  0.1322 -137.3
 5.800  0.3816  123.1   3.451   26.4  0.1220   19.9  0.1281 -140.2
 5.900  0.3853  121.7   3.386   25.0  0.1235   19.1  0.1245 -143.4
 6.000  0.3892  120.2   3.323   23.6  0.1250   18.4  0.1212 -146.7
 6.100  0.3923  118.7   3.265   22.4  0.1265   17.5  0.1179 -150.1
 6.200  0.3957  117.2   3.209   21.1  0.1279   16.7  0.1151 -153.7
 6.300  0.3994  115.7   3.154   19.8  0.1294   15.8  0.1128 -157.4
 6.400  0.4033  114.3   3.101   18.5  0.1309   15.0  0.1109 -161.3
 6.500  0.4074  112.9   3.049   17.1  0.1324   14.2  0.1096 -165.3
 6.600  0.4108  111.3   2.999   15.9  0.1337   13.4  0.1075 -169.2
 6.700  0.4146  109.6   2.950   14.7  0.1350   12.5  0.1058 -173.2
 6.800  0.4187  108.0   2.903   13.4  0.1364   11.7  0.1048 -177.4
 6.900  0.4231  106.5   2.857   12.1  0.1378   10.9  0.1042  178.4
 7.000  0.4279  104.9   2.813   10.7  0.1392   10.1  0.1043  174.1
 7.100  0.4324  103.2   2.770    9.5  0.1405    9.2  0.1043  169.9
 7.200  0.4373  101.6   2.729    8.2  0.1418    8.3  0.1048  165.6
 7.300  0.4426  100.0   2.688    7.0  0.1432    7.4  0.1059  161.5
 7.400  0.4482   98.4   2.650    5.6  0.1445    6.6  0.1076  157.4
 7.500  0.4542   96.8   2.612    4.3  0.1460    5.7  0.1097  153.5
 7.600  0.4603   95.2   2.573    3.0  0.1471    4.8  0.1117  148.9
 7.700  0.4669   93.5   2.535    1.7  0.1483    3.8  0.1144  144.6
 7.800  0.4738   91.9   2.498    0.3  0.1495    2.9  0.1177  140.5
 7.900  0.4811   90.4   2.463   -1.1  0.1508    2.0  0.1216  136.6
 8.000  0.4887   88.9   2.430   -2.5  0.1521    1.1  0.1260  133.0
 8.500  0.5280   81.4   2.238   -9.2  0.1563   -3.8  0.1563  114.2
 9.000  0.5734   75.0   2.053  -15.3  0.1582   -8.5  0.2079  100.8
 9.500  0.6224   70.1   1.882  -20.5  0.1586  -12.3  0.2690   92.8
10.000  0.6607   65.7   1.734  -25.1  0.1596  -15.1  0.3220   88.7
10.500  0.6851   62.4   1.618  -28.6  0.1626  -17.0  0.3545   86.6
11.000  0.6934   61.2   1.578  -31.7  0.1712  -19.3  0.3734   87.1
11.500  0.7108   61.1   1.565  -37.5  0.1807  -23.8  0.3956   88.4
12.000  0.7237   59.0   1.490  -44.3  0.1842  -28.9  0.4156   87.4
12.500  0.7113   55.7   1.404  -49.5  0.1873  -32.8  0.4095   83.9
13.000  0.6802   53.5   1.342  -54.3  0.1915  -37.1  0.3873   81.1
13.500  0.6805   52.1   1.318  -60.2  0.1965  -41.9  0.3899   80.9
14.000  0.7098   47.6   1.241  -68.1  0.1947  -48.2  0.4113   77.3
14.500  0.7177   41.5   1.113  -72.2  0.1876  -50.9  0.4140   68.4
15.000  0.7059   37.4   1.074  -73.8  0.1922  -52.8  0.4112   60.2
!
!  f       NFmin   Gammaopt  rn/50
! GHz       dB    MAG  ANG    -
 0.450      1.42  0.36    1   0.29
 0.900      1.40  0.34    8   0.32
 1.900      1.59  0.30   17   0.26
 2.400      1.61  0.26   29   0.27
 3.500      1.56  0.24   52   0.26
!
! (c) 2015  Infineon Technologies AG, Munich
