! Infineon Technologies  Discrete & RF Semiconductors
! BFP540ESD
! VCE =  1.0 V,  IC =  5.0 mA
! Common Emitter S-Parameters:                            Nov 2015
# GHz  S  MA  R  50
!  f         S11            S21            S12            S22
! GHz     MAG   ANG      MAG   ANG      MAG   ANG      MAG   ANG
 0.010  0.8103   -1.1  15.303  179.1  0.0011   83.9  0.9789   -1.4
 0.015  0.8131   -1.9  15.271  178.9  0.0015   90.3  0.9840   -1.5
 0.020  0.8160   -2.7  15.239  178.6  0.0020   93.8  0.9891   -1.5
 0.025  0.8152   -3.2  15.238  178.1  0.0026   90.9  0.9889   -1.9
 0.030  0.8145   -3.8  15.238  177.7  0.0032   89.1  0.9887   -2.2
 0.035  0.8139   -4.3  15.239  177.2  0.0037   87.9  0.9886   -2.6
 0.040  0.8134   -4.9  15.241  176.7  0.0043   86.9  0.9885   -3.0
 0.045  0.8129   -5.4  15.244  176.3  0.0049   86.2  0.9885   -3.3
 0.050  0.8125   -6.0  15.248  175.8  0.0055   85.7  0.9885   -3.7
 0.055  0.8121   -6.6  15.242  175.4  0.0060   85.4  0.9877   -4.1
 0.060  0.8118   -7.2  15.237  174.9  0.0065   85.1  0.9870   -4.4
 0.065  0.8116   -7.8  15.232  174.5  0.0069   84.9  0.9864   -4.8
 0.070  0.8115   -8.4  15.229  174.1  0.0074   84.7  0.9857   -5.2
 0.075  0.8114   -9.0  15.226  173.7  0.0079   84.5  0.9851   -5.5
 0.080  0.8115   -9.6  15.225  173.2  0.0084   84.4  0.9846   -5.9
 0.085  0.8116  -10.2  15.224  172.8  0.0089   84.2  0.9841   -6.3
 0.090  0.8119  -10.8  15.224  172.4  0.0093   84.1  0.9836   -6.7
 0.095  0.8122  -11.4  15.224  171.9  0.0098   84.0  0.9832   -7.0
 0.100  0.8126  -12.0  15.226  171.5  0.0103   83.9  0.9828   -7.4
 0.105  0.8116  -12.6  15.214  171.1  0.0108   83.6  0.9821   -7.8
 0.110  0.8107  -13.2  15.203  170.7  0.0113   83.3  0.9814   -8.1
 0.115  0.8099  -13.8  15.193  170.2  0.0118   83.0  0.9807   -8.5
 0.120  0.8092  -14.4  15.184  169.8  0.0123   82.7  0.9801   -8.9
 0.125  0.8086  -15.0  15.175  169.4  0.0127   82.5  0.9795   -9.2
 0.130  0.8081  -15.6  15.168  169.0  0.0132   82.2  0.9789   -9.6
 0.135  0.8076  -16.2  15.161  168.6  0.0137   82.0  0.9785  -10.0
 0.140  0.8072  -16.8  15.155  168.1  0.0142   81.8  0.9780  -10.4
 0.145  0.8070  -17.4  15.149  167.7  0.0147   81.7  0.9776  -10.7
 0.150  0.8068  -18.0  15.145  167.3  0.0152   81.5  0.9772  -11.1
 0.155  0.8059  -18.6  15.120  166.9  0.0157   81.3  0.9759  -11.5
 0.160  0.8052  -19.2  15.097  166.4  0.0163   81.2  0.9747  -11.8
 0.165  0.8045  -19.7  15.074  166.0  0.0168   81.1  0.9736  -12.2
 0.170  0.8039  -20.3  15.052  165.6  0.0173   80.9  0.9724  -12.6
 0.175  0.8033  -20.9  15.031  165.1  0.0178   80.8  0.9713  -12.9
 0.180  0.8029  -21.5  15.011  164.7  0.0184   80.7  0.9703  -13.3
 0.185  0.8025  -22.1  14.991  164.2  0.0189   80.6  0.9693  -13.7
 0.190  0.8022  -22.6  14.973  163.8  0.0194   80.5  0.9683  -14.1
 0.195  0.8020  -23.2  14.956  163.3  0.0200   80.4  0.9674  -14.4
 0.200  0.8019  -23.8  14.939  162.9  0.0205   80.3  0.9665  -14.8
 0.220  0.7976  -26.1  14.850  161.3  0.0223   78.5  0.9613  -16.2
 0.240  0.7947  -28.5  14.773  159.6  0.0242   77.0  0.9567  -17.7
 0.260  0.7912  -30.8  14.682  158.0  0.0261   75.8  0.9509  -19.1
 0.280  0.7871  -33.2  14.576  156.3  0.0280   74.9  0.9440  -20.5
 0.300  0.7842  -35.5  14.483  154.6  0.0300   74.1  0.9376  -21.9
 0.320  0.7780  -37.7  14.338  153.1  0.0317   72.6  0.9291  -23.2
 0.340  0.7729  -39.9  14.203  151.5  0.0335   71.2  0.9210  -24.6
 0.360  0.7690  -42.2  14.080  149.9  0.0352   70.0  0.9136  -26.0
 0.380  0.7663  -44.4  13.967  148.3  0.0370   68.9  0.9066  -27.4
 0.400  0.7648  -46.7  13.866  146.6  0.0388   67.9  0.9002  -28.8
 0.420  0.7577  -48.9  13.721  145.2  0.0403   66.8  0.8902  -30.0
 0.440  0.7517  -51.1  13.585  143.7  0.0418   65.8  0.8806  -31.3
 0.450  0.7491  -52.2  13.521  142.9  0.0426   65.3  0.8759  -32.0
 0.460  0.7468  -53.3  13.459  142.2  0.0433   64.8  0.8714  -32.6
 0.480  0.7431  -55.6  13.342  140.7  0.0449   63.9  0.8627  -33.9
 0.500  0.7406  -57.9  13.234  139.1  0.0464   63.1  0.8545  -35.3
 0.520  0.7333  -59.9  13.055  137.8  0.0479   62.1  0.8441  -36.4
 0.540  0.7269  -61.9  12.883  136.4  0.0493   61.1  0.8341  -37.5
 0.560  0.7215  -64.0  12.719  135.0  0.0508   60.2  0.8244  -38.7
 0.580  0.7169  -66.1  12.562  133.6  0.0523   59.4  0.8150  -39.9
 0.600  0.7134  -68.2  12.414  132.1  0.0538   58.6  0.8060  -41.1
 0.620  0.7076  -70.0  12.261  131.0  0.0549   57.9  0.7959  -42.1
 0.640  0.7026  -71.8  12.112  129.9  0.0560   57.2  0.7860  -43.2
 0.660  0.6983  -73.7  11.968  128.7  0.0571   56.5  0.7764  -44.3
 0.680  0.6947  -75.5  11.830  127.5  0.0583   55.9  0.7671  -45.4
 0.700  0.6918  -77.4  11.696  126.3  0.0594   55.3  0.7581  -46.5
 0.720  0.6852  -79.3  11.536  125.2  0.0603   54.3  0.7478  -47.5
 0.740  0.6793  -81.2  11.382  124.0  0.0613   53.3  0.7378  -48.5
 0.760  0.6743  -83.2  11.232  122.8  0.0622   52.3  0.7280  -49.6
 0.780  0.6700  -85.2  11.087  121.6  0.0632   51.4  0.7185  -50.7
 0.800  0.6666  -87.2  10.947  120.3  0.0642   50.5  0.7092  -51.8
 0.820  0.6615  -88.8  10.795  119.3  0.0650   49.9  0.7000  -52.6
 0.840  0.6568  -90.4  10.647  118.3  0.0658   49.3  0.6909  -53.5
 0.860  0.6527  -92.0  10.502  117.3  0.0666   48.7  0.6819  -54.3
 0.880  0.6491  -93.6  10.361  116.2  0.0674   48.2  0.6731  -55.2
 0.900  0.6461  -95.3  10.223  115.1  0.0682   47.6  0.6645  -56.1
 0.920  0.6414  -96.8  10.087  114.2  0.0690   47.0  0.6557  -56.9
 0.940  0.6371  -98.3   9.953  113.4  0.0698   46.4  0.6470  -57.7
 0.960  0.6333  -99.9   9.821  112.5  0.0706   45.8  0.6384  -58.5
 0.980  0.6300 -101.4   9.692  111.5  0.0714   45.3  0.6300  -59.3
 1.000  0.6271 -103.0   9.566  110.6  0.0722   44.7  0.6217  -60.2
 1.020  0.6228 -104.5   9.443  109.7  0.0728   44.1  0.6136  -61.0
 1.040  0.6189 -106.1   9.321  108.9  0.0734   43.6  0.6056  -61.9
 1.060  0.6155 -107.6   9.202  108.0  0.0740   43.1  0.5977  -62.8
 1.080  0.6126 -109.2   9.085  107.0  0.0746   42.5  0.5900  -63.7
 1.100  0.6101 -110.8   8.971  106.1  0.0752   42.0  0.5824  -64.6
 1.120  0.6069 -112.2   8.854  105.4  0.0757   41.5  0.5752  -65.2
 1.140  0.6041 -113.5   8.738  104.6  0.0761   41.1  0.5680  -65.8
 1.160  0.6017 -114.9   8.624  103.9  0.0766   40.7  0.5610  -66.4
 1.180  0.5996 -116.3   8.512  103.1  0.0770   40.2  0.5539  -67.0
 1.200  0.5978 -117.7   8.401  102.3  0.0775   39.8  0.5470  -67.7
 1.220  0.5956 -118.9   8.305  101.6  0.0781   39.4  0.5405  -68.3
 1.240  0.5937 -120.0   8.209  100.9  0.0787   39.1  0.5340  -68.9
 1.260  0.5921 -121.2   8.115  100.2  0.0792   38.8  0.5275  -69.6
 1.280  0.5907 -122.4   8.023   99.5  0.0798   38.4  0.5212  -70.2
 1.300  0.5895 -123.6   7.931   98.8  0.0804   38.1  0.5149  -70.9
 1.320  0.5872 -124.9   7.839   98.1  0.0808   37.7  0.5086  -71.7
 1.340  0.5851 -126.1   7.747   97.4  0.0812   37.3  0.5024  -72.4
 1.360  0.5833 -127.4   7.657   96.7  0.0816   36.9  0.4963  -73.2
 1.380  0.5819 -128.7   7.569   96.0  0.0821   36.5  0.4903  -74.1
 1.400  0.5807 -130.0   7.481   95.2  0.0825   36.1  0.4844  -74.9
 1.420  0.5788 -131.2   7.394   94.6  0.0828   35.8  0.4788  -75.4
 1.440  0.5771 -132.4   7.307   93.9  0.0830   35.6  0.4732  -75.8
 1.460  0.5757 -133.6   7.221   93.3  0.0833   35.3  0.4676  -76.3
 1.480  0.5746 -134.8   7.137   92.6  0.0835   35.1  0.4621  -76.8
 1.500  0.5737 -136.0   7.053   91.9  0.0838   34.8  0.4566  -77.3
 1.520  0.5709 -137.0   6.975   91.3  0.0844   34.5  0.4513  -77.8
 1.540  0.5683 -137.9   6.897   90.8  0.0850   34.2  0.4461  -78.3
 1.560  0.5659 -138.9   6.820   90.2  0.0855   33.9  0.4409  -78.8
 1.580  0.5636 -139.9   6.744   89.6  0.0861   33.6  0.4358  -79.4
 1.600  0.5615 -140.9   6.669   89.0  0.0867   33.3  0.4307  -79.9
 1.620  0.5607 -142.1   6.603   88.4  0.0869   33.0  0.4261  -80.6
 1.640  0.5601 -143.2   6.539   87.8  0.0870   32.7  0.4216  -81.3
 1.660  0.5597 -144.4   6.475   87.2  0.0872   32.5  0.4172  -82.1
 1.680  0.5595 -145.5   6.411   86.5  0.0873   32.2  0.4128  -82.8
 1.700  0.5596 -146.7   6.349   85.9  0.0875   31.9  0.4085  -83.6
 1.720  0.5584 -147.6   6.282   85.4  0.0878   31.7  0.4045  -84.0
 1.740  0.5573 -148.5   6.216   84.9  0.0881   31.5  0.4004  -84.4
 1.760  0.5564 -149.5   6.151   84.3  0.0884   31.4  0.3964  -84.8
 1.780  0.5556 -150.4   6.085   83.8  0.0887   31.2  0.3925  -85.2
 1.800  0.5550 -151.3   6.021   83.2  0.0890   31.0  0.3885  -85.6
 1.820  0.5539 -152.1   5.967   82.7  0.0894   30.8  0.3838  -86.0
 1.840  0.5530 -152.9   5.914   82.2  0.0898   30.6  0.3792  -86.4
 1.860  0.5521 -153.7   5.861   81.7  0.0902   30.5  0.3746  -86.9
 1.880  0.5513 -154.5   5.808   81.2  0.0906   30.3  0.3700  -87.3
 1.900  0.5507 -155.3   5.756   80.7  0.0910   30.1  0.3654  -87.8
 1.920  0.5497 -156.3   5.702   80.2  0.0912   29.9  0.3623  -88.3
 1.940  0.5488 -157.3   5.648   79.6  0.0914   29.6  0.3593  -88.8
 1.960  0.5481 -158.4   5.595   79.1  0.0916   29.4  0.3563  -89.3
 1.980  0.5476 -159.4   5.542   78.5  0.0918   29.1  0.3533  -89.8
 2.000  0.5472 -160.4   5.490   77.9  0.0920   28.9  0.3503  -90.3
 2.020  0.5465 -161.2   5.442   77.5  0.0923   28.8  0.3467  -90.7
 2.040  0.5458 -161.9   5.395   77.1  0.0927   28.6  0.3431  -91.1
 2.060  0.5453 -162.7   5.348   76.6  0.0930   28.5  0.3395  -91.4
 2.080  0.5448 -163.4   5.301   76.2  0.0933   28.4  0.3359  -91.8
 2.100  0.5445 -164.2   5.255   75.7  0.0936   28.2  0.3323  -92.2
 2.120  0.5442 -165.0   5.209   75.3  0.0940   28.1  0.3288  -92.7
 2.140  0.5440 -165.7   5.163   74.8  0.0943   28.0  0.3253  -93.1
 2.160  0.5440 -166.5   5.118   74.4  0.0946   27.9  0.3218  -93.5
 2.180  0.5440 -167.2   5.073   73.9  0.0950   27.7  0.3183  -93.9
 2.200  0.5441 -168.0   5.028   73.4  0.0953   27.6  0.3148  -94.4
 2.220  0.5436 -168.8   4.986   73.0  0.0955   27.4  0.3122  -94.8
 2.240  0.5432 -169.5   4.944   72.5  0.0957   27.3  0.3095  -95.1
 2.260  0.5429 -170.3   4.903   72.1  0.0959   27.1  0.3069  -95.5
 2.280  0.5428 -171.1   4.862   71.7  0.0961   27.0  0.3043  -95.9
 2.300  0.5427 -171.8   4.821   71.2  0.0963   26.8  0.3018  -96.3
 2.320  0.5427 -172.6   4.780   70.7  0.0966   26.6  0.2992  -96.7
 2.340  0.5428 -173.4   4.740   70.3  0.0968   26.5  0.2967  -97.1
 2.360  0.5430 -174.2   4.700   69.8  0.0970   26.3  0.2941  -97.5
 2.380  0.5433 -174.9   4.660   69.3  0.0972   26.2  0.2916  -98.0
 2.400  0.5437 -175.7   4.621   68.8  0.0974   26.0  0.2891  -98.4
 2.420  0.5436 -176.4   4.586   68.4  0.0976   25.9  0.2858  -99.0
 2.440  0.5435 -177.2   4.551   68.0  0.0979   25.8  0.2826  -99.7
 2.460  0.5436 -177.9   4.516   67.5  0.0981   25.6  0.2794 -100.3
 2.480  0.5437 -178.6   4.482   67.1  0.0984   25.5  0.2762 -101.0
 2.500  0.5439 -179.4   4.448   66.7  0.0986   25.4  0.2731 -101.7
 2.520  0.5443  179.9   4.414   66.2  0.0989   25.3  0.2700 -102.4
 2.540  0.5447  179.2   4.380   65.8  0.0991   25.2  0.2669 -103.1
 2.560  0.5452  178.5   4.347   65.3  0.0994   25.0  0.2639 -103.8
 2.580  0.5457  177.7   4.314   64.9  0.0996   24.9  0.2609 -104.5
 2.600  0.5464  177.0   4.281   64.4  0.0999   24.8  0.2580 -105.3
 2.620  0.5465  176.4   4.252   64.0  0.1002   24.7  0.2555 -105.7
 2.640  0.5467  175.7   4.222   63.6  0.1005   24.6  0.2530 -106.1
 2.660  0.5469  175.1   4.193   63.2  0.1009   24.5  0.2505 -106.4
 2.680  0.5472  174.5   4.164   62.8  0.1012   24.4  0.2481 -106.8
 2.700  0.5476  173.8   4.136   62.4  0.1015   24.3  0.2456 -107.2
 2.720  0.5480  173.2   4.107   62.0  0.1018   24.3  0.2431 -107.7
 2.740  0.5485  172.6   4.079   61.6  0.1021   24.2  0.2407 -108.1
 2.760  0.5491  172.0   4.051   61.2  0.1025   24.1  0.2383 -108.5
 2.780  0.5497  171.3   4.024   60.7  0.1028   24.0  0.2359 -109.0
 2.800  0.5504  170.7   3.996   60.3  0.1031   23.9  0.2335 -109.4
 2.820  0.5505  170.1   3.969   59.9  0.1033   23.8  0.2312 -110.0
 2.840  0.5508  169.4   3.942   59.5  0.1034   23.7  0.2288 -110.5
 2.860  0.5511  168.8   3.915   59.1  0.1036   23.6  0.2265 -111.1
 2.880  0.5514  168.1   3.889   58.7  0.1037   23.5  0.2242 -111.7
 2.900  0.5518  167.5   3.862   58.3  0.1039   23.3  0.2220 -112.3
 2.920  0.5523  166.8   3.836   57.8  0.1041   23.2  0.2198 -112.9
 2.940  0.5529  166.2   3.810   57.4  0.1042   23.1  0.2176 -113.5
 2.960  0.5535  165.6   3.785   57.0  0.1044   23.0  0.2154 -114.2
 2.980  0.5542  164.9   3.759   56.5  0.1045   22.9  0.2132 -114.8
 3.000  0.5550  164.3   3.734   56.1  0.1047   22.8  0.2111 -115.5
 3.100  0.5564  161.4   3.619   54.4  0.1061   22.2  0.2023 -118.9
 3.200  0.5593  158.5   3.507   52.5  0.1075   21.6  0.1944 -122.7
 3.300  0.5635  155.6   3.398   50.6  0.1089   21.0  0.1873 -126.7
 3.400  0.5691  152.8   3.294   48.5  0.1104   20.5  0.1813 -131.1
 3.500  0.5761  150.1   3.195   46.3  0.1118   19.9  0.1763 -135.7
 3.600  0.5791  147.7   3.103   44.7  0.1128   19.4  0.1730 -140.4
 3.700  0.5831  145.4   3.014   43.0  0.1138   18.9  0.1709 -145.2
 3.800  0.5880  143.1   2.928   41.2  0.1148   18.4  0.1700 -150.1
 3.900  0.5939  140.8   2.845   39.2  0.1158   17.9  0.1704 -155.0
 4.000  0.6007  138.6   2.765   37.2  0.1168   17.4  0.1720 -159.9
 4.100  0.6044  136.6   2.689   35.7  0.1180   16.8  0.1735 -163.6
 4.200  0.6088  134.6   2.614   34.1  0.1193   16.2  0.1757 -167.1
 4.300  0.6139  132.6   2.542   32.4  0.1205   15.6  0.1785 -170.6
 4.400  0.6198  130.7   2.472   30.7  0.1218   15.0  0.1820 -174.0
 4.500  0.6263  128.8   2.405   28.8  0.1231   14.4  0.1861 -177.2
 4.600  0.6293  127.1   2.347   27.4  0.1242   14.0  0.1880 -179.9
 4.700  0.6329  125.5   2.290   25.8  0.1253   13.6  0.1904  177.6
 4.800  0.6369  123.8   2.235   24.2  0.1264   13.2  0.1931  175.0
 4.900  0.6415  122.2   2.181   22.6  0.1275   12.9  0.1962  172.6
 5.000  0.6466  120.6   2.130   20.8  0.1286   12.5  0.1996  170.2
 5.100  0.6494  119.2   2.080   19.5  0.1300   12.1  0.2007  167.9
 5.200  0.6526  117.8   2.030   18.2  0.1314   11.7  0.2021  165.6
 5.300  0.6562  116.5   1.982   16.7  0.1328   11.3  0.2038  163.4
 5.400  0.6601  115.1   1.935   15.3  0.1342   11.0  0.2059  161.2
 5.500  0.6644  113.8   1.890   13.7  0.1356   10.6  0.2082  159.0
 5.600  0.6676  112.7   1.853   12.5  0.1371   10.2  0.2091  156.9
 5.700  0.6710  111.5   1.817   11.3  0.1387    9.8  0.2103  154.8
 5.800  0.6747  110.4   1.782   10.0  0.1402    9.4  0.2118  152.7
 5.900  0.6786  109.3   1.748    8.6  0.1417    9.0  0.2136  150.6
 6.000  0.6828  108.2   1.715    7.2  0.1433    8.6  0.2156  148.6
!
!  f       NFmin   Gammaopt  rn/50
! GHz       dB    MAG  ANG    -
 0.900      0.69  0.10   42   0.12
 1.800      0.92  0.10  123   0.11
 2.400      0.94  0.12  135   0.10
 3.000      1.10  0.20  165   0.09
 4.000      1.26  0.29 -127   0.15
 5.000      1.53  0.41 -101   0.32
 6.000      1.74  0.53 -100   0.46
!
! (c) 2015  Infineon Technologies AG, Munich
