! Infineon Technologies  Discrete & RF Semiconductors
! BFP540FESD
! VCE =  1.5 V,  IC =  6.0 mA
! Common Emitter S-Parameters:                            Nov 2015
# GHz  S  MA  R  50
!  f         S11            S21            S12            S22
! GHz     MAG   ANG      MAG   ANG      MAG   ANG      MAG   ANG
 0.010  0.8215   -0.6  18.918  178.7  0.0011   89.3  0.9862   -3.6
 0.015  0.8138   -2.2  18.590  178.5  0.0017   87.5  0.9833   -2.6
 0.020  0.8068   -3.8  18.262  178.3  0.0023   86.7  0.9806   -1.6
 0.025  0.8095   -4.2  18.292  177.8  0.0027   87.4  0.9806   -2.0
 0.030  0.8123   -4.6  18.324  177.3  0.0032   87.9  0.9806   -2.4
 0.035  0.8151   -5.0  18.357  176.8  0.0036   88.3  0.9807   -2.9
 0.040  0.8180   -5.4  18.391  176.4  0.0041   88.6  0.9809   -3.3
 0.045  0.8209   -5.8  18.426  175.9  0.0045   88.8  0.9811   -3.7
 0.050  0.8238   -6.2  18.463  175.4  0.0050   89.0  0.9813   -4.1
 0.055  0.8224   -6.8  18.444  174.9  0.0055   88.1  0.9805   -4.5
 0.060  0.8211   -7.5  18.426  174.4  0.0060   87.3  0.9797   -4.9
 0.065  0.8199   -8.1  18.409  173.9  0.0066   86.6  0.9790   -5.3
 0.070  0.8188   -8.7  18.394  173.4  0.0071   86.1  0.9783   -5.7
 0.075  0.8178   -9.4  18.380  172.9  0.0076   85.6  0.9777   -6.1
 0.080  0.8169  -10.0  18.368  172.4  0.0081   85.2  0.9771   -6.6
 0.085  0.8161  -10.7  18.357  171.9  0.0086   84.8  0.9766   -7.0
 0.090  0.8154  -11.3  18.347  171.4  0.0092   84.5  0.9761   -7.4
 0.095  0.8148  -12.0  18.339  170.9  0.0097   84.2  0.9757   -7.8
 0.100  0.8143  -12.6  18.332  170.4  0.0102   83.9  0.9753   -8.2
 0.105  0.8127  -13.3  18.318  169.9  0.0107   83.4  0.9740   -8.6
 0.110  0.8111  -14.1  18.305  169.4  0.0111   82.9  0.9728   -9.0
 0.115  0.8098  -14.8  18.293  169.0  0.0116   82.5  0.9716   -9.4
 0.120  0.8085  -15.5  18.283  168.5  0.0121   82.1  0.9704   -9.8
 0.125  0.8074  -16.3  18.274  168.0  0.0125   81.7  0.9693  -10.2
 0.130  0.8064  -17.0  18.266  167.5  0.0130   81.4  0.9683  -10.6
 0.135  0.8056  -17.8  18.260  167.0  0.0135   81.0  0.9672  -11.0
 0.140  0.8049  -18.5  18.255  166.6  0.0140   80.7  0.9663  -11.4
 0.145  0.8043  -19.3  18.251  166.1  0.0144   80.5  0.9654  -11.8
 0.150  0.8039  -20.0  18.248  165.6  0.0149   80.2  0.9645  -12.2
 0.155  0.8026  -20.6  18.201  165.1  0.0154   79.9  0.9626  -12.6
 0.160  0.8014  -21.1  18.156  164.6  0.0158   79.6  0.9607  -13.0
 0.165  0.8002  -21.7  18.112  164.1  0.0163   79.3  0.9589  -13.4
 0.170  0.7992  -22.3  18.069  163.6  0.0168   79.0  0.9571  -13.8
 0.175  0.7982  -22.8  18.027  163.1  0.0172   78.8  0.9554  -14.2
 0.180  0.7973  -23.4  17.987  162.6  0.0177   78.5  0.9537  -14.6
 0.185  0.7964  -24.0  17.949  162.1  0.0182   78.3  0.9520  -15.0
 0.190  0.7957  -24.6  17.911  161.6  0.0187   78.1  0.9504  -15.4
 0.195  0.7950  -25.1  17.875  161.1  0.0191   77.9  0.9489  -15.8
 0.200  0.7944  -25.7  17.841  160.6  0.0196   77.7  0.9474  -16.2
 0.220  0.7864  -28.1  17.679  158.9  0.0213   76.4  0.9401  -17.7
 0.240  0.7798  -30.6  17.534  157.1  0.0230   75.2  0.9335  -19.2
 0.260  0.7730  -33.0  17.378  155.3  0.0249   74.1  0.9255  -20.7
 0.280  0.7659  -35.5  17.213  153.4  0.0269   72.9  0.9158  -22.1
 0.300  0.7603  -38.1  17.066  151.5  0.0289   71.9  0.9068  -23.6
 0.320  0.7509  -40.3  16.839  149.9  0.0305   70.4  0.8958  -24.9
 0.340  0.7426  -42.5  16.625  148.3  0.0321   69.1  0.8854  -26.2
 0.360  0.7355  -44.8  16.425  146.6  0.0337   68.0  0.8754  -27.6
 0.380  0.7295  -47.1  16.239  144.9  0.0353   66.9  0.8659  -29.0
 0.400  0.7248  -49.5  16.067  143.2  0.0369   65.9  0.8569  -30.4
 0.420  0.7141  -51.6  15.840  141.8  0.0380   64.9  0.8447  -31.6
 0.440  0.7043  -53.7  15.623  140.3  0.0392   64.0  0.8328  -32.7
 0.450  0.6998  -54.8  15.519  139.5  0.0398   63.6  0.8270  -33.3
 0.460  0.6955  -55.9  15.417  138.8  0.0404   63.2  0.8213  -34.0
 0.480  0.6878  -58.2  15.222  137.2  0.0415   62.4  0.8101  -35.2
 0.500  0.6812  -60.5  15.039  135.6  0.0427   61.6  0.7994  -36.5
 0.520  0.6723  -62.4  14.790  134.3  0.0438   60.7  0.7878  -37.5
 0.540  0.6641  -64.4  14.549  133.0  0.0449   59.9  0.7765  -38.5
 0.560  0.6567  -66.4  14.315  131.7  0.0460   59.1  0.7654  -39.5
 0.580  0.6501  -68.4  14.090  130.2  0.0472   58.3  0.7545  -40.5
 0.600  0.6444  -70.5  13.874  128.8  0.0483   57.6  0.7439  -41.6
 0.620  0.6368  -72.1  13.668  127.7  0.0492   57.0  0.7334  -42.4
 0.640  0.6298  -73.8  13.466  126.7  0.0500   56.5  0.7231  -43.3
 0.660  0.6232  -75.4  13.270  125.5  0.0509   56.0  0.7130  -44.2
 0.680  0.6172  -77.2  13.079  124.4  0.0518   55.5  0.7031  -45.1
 0.700  0.6118  -78.9  12.893  123.2  0.0527   55.0  0.6933  -46.1
 0.720  0.6037  -80.7  12.694  122.1  0.0536   54.4  0.6828  -47.0
 0.740  0.5963  -82.6  12.500  121.1  0.0544   53.9  0.6724  -47.9
 0.760  0.5896  -84.5  12.310  119.9  0.0553   53.3  0.6622  -48.8
 0.780  0.5835  -86.5  12.126  118.8  0.0561   52.8  0.6522  -49.7
 0.800  0.5781  -88.5  11.946  117.6  0.0570   52.3  0.6424  -50.7
 0.820  0.5720  -90.0  11.763  116.7  0.0576   51.8  0.6333  -51.3
 0.840  0.5662  -91.5  11.584  115.8  0.0581   51.4  0.6243  -52.0
 0.860  0.5609  -93.0  11.407  114.9  0.0587   50.9  0.6154  -52.7
 0.880  0.5559  -94.6  11.233  113.9  0.0593   50.4  0.6065  -53.4
 0.900  0.5514  -96.2  11.063  112.9  0.0599   50.0  0.5978  -54.1
 0.920  0.5462  -97.6  10.900  112.1  0.0606   49.7  0.5899  -54.7
 0.940  0.5414  -98.9  10.739  111.3  0.0613   49.3  0.5821  -55.4
 0.960  0.5369 -100.3  10.580  110.5  0.0619   49.0  0.5743  -56.0
 0.980  0.5327 -101.8  10.423  109.6  0.0626   48.7  0.5667  -56.7
 1.000  0.5288 -103.2  10.269  108.7  0.0633   48.4  0.5591  -57.4
 1.020  0.5247 -104.6  10.127  107.9  0.0639   48.1  0.5517  -58.1
 1.040  0.5210 -106.1   9.986  107.2  0.0645   47.7  0.5445  -58.7
 1.060  0.5175 -107.5   9.848  106.4  0.0651   47.4  0.5373  -59.4
 1.080  0.5144 -109.0   9.711  105.5  0.0657   47.1  0.5301  -60.2
 1.100  0.5117 -110.5   9.577  104.7  0.0663   46.8  0.5231  -60.9
 1.120  0.5082 -111.8   9.440  104.0  0.0667   46.6  0.5163  -61.4
 1.140  0.5050 -113.1   9.304  103.4  0.0672   46.3  0.5096  -61.9
 1.160  0.5020 -114.4   9.169  102.7  0.0676   46.1  0.5029  -62.5
 1.180  0.4993 -115.8   9.036  101.9  0.0681   45.8  0.4963  -63.0
 1.200  0.4969 -117.1   8.904  101.2  0.0685   45.6  0.4897  -63.6
 1.220  0.4940 -118.1   8.790  100.6  0.0689   45.4  0.4835  -64.0
 1.240  0.4912 -119.1   8.678  100.0  0.0694   45.3  0.4774  -64.4
 1.260  0.4886 -120.1   8.566   99.4  0.0698   45.1  0.4713  -64.9
 1.280  0.4861 -121.2   8.456   98.8  0.0703   45.0  0.4652  -65.3
 1.300  0.4838 -122.2   8.346   98.1  0.0707   44.8  0.4591  -65.8
 1.320  0.4816 -123.4   8.243   97.5  0.0711   44.6  0.4536  -66.4
 1.340  0.4796 -124.6   8.141   96.9  0.0715   44.3  0.4481  -67.1
 1.360  0.4778 -125.8   8.040   96.3  0.0720   44.1  0.4427  -67.8
 1.380  0.4763 -127.0   7.939   95.7  0.0724   43.8  0.4374  -68.5
 1.400  0.4749 -128.2   7.840   95.0  0.0728   43.6  0.4321  -69.2
 1.420  0.4736 -129.3   7.742   94.4  0.0732   43.5  0.4274  -69.6
 1.440  0.4724 -130.4   7.644   93.9  0.0736   43.5  0.4227  -70.1
 1.460  0.4715 -131.5   7.548   93.3  0.0740   43.4  0.4180  -70.5
 1.480  0.4707 -132.7   7.452   92.7  0.0744   43.4  0.4134  -70.9
 1.500  0.4701 -133.8   7.357   92.1  0.0748   43.3  0.4088  -71.4
 1.520  0.4678 -134.7   7.271   91.6  0.0752   43.2  0.4039  -71.8
 1.540  0.4657 -135.6   7.185   91.1  0.0757   43.0  0.3990  -72.2
 1.560  0.4637 -136.5   7.100   90.6  0.0761   42.9  0.3941  -72.7
 1.580  0.4618 -137.5   7.015   90.1  0.0766   42.7  0.3892  -73.1
 1.600  0.4600 -138.4   6.931   89.6  0.0770   42.6  0.3844  -73.6
 1.620  0.4587 -139.4   6.856   89.1  0.0774   42.5  0.3806  -74.2
 1.640  0.4575 -140.3   6.781   88.6  0.0778   42.4  0.3768  -74.8
 1.660  0.4565 -141.3   6.707   88.0  0.0783   42.2  0.3730  -75.5
 1.680  0.4556 -142.3   6.633   87.5  0.0787   42.1  0.3693  -76.1
 1.700  0.4548 -143.3   6.560   86.9  0.0791   42.0  0.3657  -76.8
 1.720  0.4537 -144.1   6.487   86.5  0.0794   41.9  0.3629  -77.2
 1.740  0.4527 -144.9   6.414   86.0  0.0797   41.8  0.3601  -77.6
 1.760  0.4517 -145.6   6.341   85.6  0.0801   41.8  0.3574  -78.0
 1.780  0.4509 -146.4   6.269   85.1  0.0804   41.7  0.3546  -78.4
 1.800  0.4501 -147.2   6.197   84.6  0.0807   41.6  0.3519  -78.8
 1.820  0.4501 -147.9   6.134   84.2  0.0811   41.6  0.3478  -79.1
 1.840  0.4502 -148.6   6.072   83.8  0.0815   41.6  0.3437  -79.4
 1.860  0.4504 -149.3   6.010   83.4  0.0820   41.5  0.3397  -79.7
 1.880  0.4506 -150.0   5.948   83.0  0.0824   41.5  0.3356  -80.1
 1.900  0.4509 -150.7   5.886   82.6  0.0828   41.5  0.3316  -80.4
 1.920  0.4494 -151.6   5.828   82.2  0.0831   41.5  0.3290  -80.9
 1.940  0.4481 -152.5   5.770   81.7  0.0835   41.4  0.3264  -81.5
 1.960  0.4468 -153.4   5.713   81.2  0.0838   41.4  0.3239  -82.1
 1.980  0.4457 -154.4   5.656   80.8  0.0842   41.3  0.3214  -82.6
 2.000  0.4447 -155.3   5.600   80.3  0.0845   41.3  0.3189  -83.2
 2.020  0.4442 -155.8   5.547   80.0  0.0849   41.3  0.3164  -83.5
 2.040  0.4438 -156.4   5.495   79.6  0.0852   41.2  0.3140  -83.8
 2.060  0.4434 -156.9   5.442   79.3  0.0856   41.2  0.3115  -84.2
 2.080  0.4430 -157.5   5.390   78.9  0.0860   41.1  0.3091  -84.5
 2.100  0.4427 -158.0   5.338   78.5  0.0863   41.1  0.3066  -84.8
 2.120  0.4424 -158.5   5.287   78.2  0.0867   41.1  0.3042  -85.2
 2.140  0.4421 -159.1   5.235   77.8  0.0871   41.0  0.3018  -85.5
 2.160  0.4419 -159.6   5.184   77.4  0.0875   41.0  0.2994  -85.9
 2.180  0.4417 -160.2   5.133   77.0  0.0878   40.9  0.2970  -86.2
 2.200  0.4416 -160.7   5.082   76.6  0.0882   40.9  0.2946  -86.6
 2.220  0.4410 -161.4   5.037   76.3  0.0885   40.9  0.2931  -87.0
 2.240  0.4404 -162.1   4.993   75.9  0.0889   40.8  0.2916  -87.4
 2.260  0.4399 -162.8   4.948   75.6  0.0892   40.8  0.2901  -87.8
 2.280  0.4395 -163.4   4.904   75.2  0.0896   40.7  0.2886  -88.2
 2.300  0.4391 -164.1   4.860   74.9  0.0899   40.7  0.2872  -88.6
 2.320  0.4388 -164.8   4.816   74.5  0.0902   40.7  0.2857  -89.1
 2.340  0.4385 -165.5   4.772   74.1  0.0906   40.6  0.2843  -89.5
 2.360  0.4384 -166.2   4.728   73.8  0.0909   40.6  0.2829  -89.9
 2.380  0.4383 -166.9   4.685   73.4  0.0913   40.5  0.2815  -90.4
 2.400  0.4382 -167.6   4.642   73.0  0.0916   40.5  0.2801  -90.8
 2.420  0.4385 -168.0   4.605   72.7  0.0920   40.5  0.2780  -91.3
 2.440  0.4388 -168.5   4.568   72.4  0.0924   40.5  0.2759  -91.7
 2.460  0.4392 -168.9   4.532   72.1  0.0928   40.4  0.2739  -92.2
 2.480  0.4395 -169.4   4.495   71.7  0.0932   40.4  0.2718  -92.7
 2.500  0.4399 -169.8   4.459   71.4  0.0935   40.4  0.2698  -93.2
 2.520  0.4403 -170.3   4.422   71.1  0.0939   40.4  0.2678  -93.7
 2.540  0.4408 -170.7   4.386   70.7  0.0943   40.4  0.2658  -94.2
 2.560  0.4413 -171.1   4.350   70.4  0.0947   40.3  0.2639  -94.7
 2.580  0.4418 -171.6   4.315   70.1  0.0951   40.3  0.2619  -95.3
 2.600  0.4423 -172.0   4.279   69.7  0.0955   40.3  0.2600  -95.8
 2.620  0.4419 -172.5   4.248   69.4  0.0960   40.3  0.2589  -96.0
 2.640  0.4416 -172.9   4.216   69.2  0.0965   40.3  0.2579  -96.2
 2.660  0.4413 -173.4   4.185   68.9  0.0970   40.4  0.2568  -96.5
 2.680  0.4410 -173.8   4.154   68.6  0.0975   40.4  0.2558  -96.7
 2.700  0.4407 -174.3   4.123   68.3  0.0980   40.4  0.2547  -96.9
 2.720  0.4405 -174.8   4.092   68.0  0.0986   40.4  0.2537  -97.2
 2.740  0.4403 -175.2   4.061   67.7  0.0991   40.4  0.2526  -97.4
 2.760  0.4402 -175.7   4.030   67.4  0.0996   40.5  0.2516  -97.6
 2.780  0.4400 -176.1   4.000   67.1  0.1001   40.5  0.2505  -97.9
 2.800  0.4399 -176.6   3.969   66.8  0.1006   40.5  0.2495  -98.1
 2.820  0.4400 -177.0   3.941   66.5  0.1009   40.4  0.2487  -98.4
 2.840  0.4400 -177.4   3.914   66.2  0.1013   40.4  0.2479  -98.7
 2.860  0.4402 -177.8   3.887   65.9  0.1016   40.3  0.2471  -99.0
 2.880  0.4403 -178.2   3.860   65.6  0.1020   40.3  0.2463  -99.4
 2.900  0.4404 -178.6   3.833   65.3  0.1023   40.2  0.2455  -99.7
 2.920  0.4406 -179.0   3.806   64.9  0.1027   40.1  0.2447 -100.0
 2.940  0.4408 -179.4   3.779   64.6  0.1030   40.1  0.2440 -100.3
 2.960  0.4410 -179.8   3.752   64.3  0.1034   40.0  0.2432 -100.6
 2.980  0.4412  179.8   3.725   63.9  0.1037   40.0  0.2424 -101.0
 3.000  0.4415  179.4   3.699   63.6  0.1041   39.9  0.2417 -101.3
 3.100  0.4404  177.6   3.588   62.4  0.1062   39.7  0.2382 -102.6
 3.200  0.4398  175.9   3.479   61.1  0.1083   39.5  0.2349 -104.0
 3.300  0.4395  174.1   3.372   59.8  0.1104   39.3  0.2317 -105.4
 3.400  0.4397  172.4   3.266   58.3  0.1125   39.1  0.2286 -106.9
 3.500  0.4403  170.6   3.163   56.8  0.1146   38.9  0.2257 -108.4
 3.600  0.4409  169.5   3.085   55.7  0.1170   38.8  0.2225 -109.6
 3.700  0.4416  168.3   3.007   54.5  0.1194   38.7  0.2194 -110.7
 3.800  0.4426  167.2   2.931   53.3  0.1219   38.7  0.2164 -112.0
 3.900  0.4436  166.1   2.857   52.0  0.1243   38.6  0.2135 -113.2
 4.000  0.4449  165.0   2.784   50.6  0.1267   38.5  0.2107 -114.5
 4.100  0.4441  163.7   2.722   49.5  0.1291   38.0  0.2078 -115.7
 4.200  0.4436  162.4   2.661   48.2  0.1315   37.5  0.2049 -117.0
 4.300  0.4432  161.0   2.601   47.0  0.1339   37.0  0.2022 -118.2
 4.400  0.4431  159.7   2.543   45.7  0.1364   36.5  0.1995 -119.6
 4.500  0.4433  158.4   2.486   44.3  0.1388   36.1  0.1970 -120.9
 4.600  0.4441  157.2   2.439   43.2  0.1415   35.7  0.1943 -122.1
 4.700  0.4450  156.1   2.394   42.0  0.1442   35.3  0.1917 -123.3
 4.800  0.4462  154.9   2.349   40.7  0.1469   35.0  0.1891 -124.5
 4.900  0.4475  153.7   2.305   39.4  0.1497   34.6  0.1867 -125.8
 5.000  0.4490  152.6   2.263   38.1  0.1524   34.3  0.1843 -127.1
 5.100  0.4458  151.1   2.221   36.9  0.1552   33.7  0.1816 -129.1
 5.200  0.4429  149.5   2.180   35.7  0.1579   33.0  0.1791 -131.1
 5.300  0.4403  148.0   2.140   34.5  0.1607   32.4  0.1768 -133.1
 5.400  0.4380  146.4   2.101   33.2  0.1636   31.9  0.1747 -135.2
 5.500  0.4361  144.8   2.063   31.8  0.1664   31.3  0.1729 -137.4
 5.600  0.4361  143.4   2.031   30.7  0.1692   30.7  0.1700 -138.9
 5.700  0.4364  142.0   2.001   29.6  0.1720   30.2  0.1672 -140.5
 5.800  0.4369  140.6   1.971   28.4  0.1748   29.6  0.1646 -142.2
 5.900  0.4377  139.2   1.941   27.2  0.1776   29.1  0.1621 -143.9
 6.000  0.4387  137.8   1.913   26.0  0.1804   28.6  0.1597 -145.6
!
!  f       NFmin   Gammaopt  rn/50
! GHz       dB    MAG  ANG    -
!
! noise parameter not available yet for this operation point!
!
! (c) 2015  Infineon Technologies AG, Munich
