! Infineon Technologies  Discrete & RF Semiconductors
! BFP540FESD
! VCE =  4.0 V,  IC =  25 mA
! Common Emitter S-Parameters:                            Nov 2015
# GHz  S  MA  R  50
!  f         S11            S21            S12            S22
! GHz     MAG   ANG      MAG   ANG      MAG   ANG      MAG   ANG
 0.010  0.4445   -0.7  47.874  176.8  0.0013   33.8  0.8983   -3.0
 0.015  0.4440   -3.1  47.000  176.3  0.0016   45.7  0.9021   -2.3
 0.020  0.4444   -5.6  46.131  175.7  0.0019   53.8  0.9060   -1.7
 0.025  0.4457   -6.6  46.043  174.9  0.0021   57.7  0.9052   -2.4
 0.030  0.4471   -7.6  45.964  174.1  0.0023   60.9  0.9046   -3.1
 0.035  0.4486   -8.6  45.895  173.3  0.0026   63.5  0.9042   -3.8
 0.040  0.4503   -9.6  45.834  172.4  0.0028   65.6  0.9038   -4.6
 0.045  0.4521  -10.6  45.783  171.6  0.0031   67.4  0.9036   -5.3
 0.050  0.4540  -11.6  45.742  170.8  0.0033   69.0  0.9036   -6.0
 0.055  0.4520  -12.8  45.533  170.0  0.0036   69.8  0.9015   -6.7
 0.060  0.4502  -13.9  45.333  169.2  0.0040   70.5  0.8995   -7.3
 0.065  0.4486  -15.1  45.142  168.3  0.0043   71.0  0.8976   -8.0
 0.070  0.4472  -16.3  44.961  167.5  0.0046   71.5  0.8959   -8.7
 0.075  0.4459  -17.5  44.789  166.7  0.0049   71.9  0.8943   -9.4
 0.080  0.4449  -18.7  44.627  165.8  0.0053   72.3  0.8928  -10.1
 0.085  0.4441  -19.9  44.475  165.0  0.0056   72.6  0.8914  -10.7
 0.090  0.4434  -21.1  44.333  164.1  0.0059   72.9  0.8902  -11.4
 0.095  0.4430  -22.3  44.200  163.3  0.0063   73.2  0.8891  -12.1
 0.100  0.4427  -23.5  44.078  162.4  0.0066   73.4  0.8881  -12.8
 0.105  0.4404  -24.7  43.877  161.7  0.0069   73.1  0.8843  -13.4
 0.110  0.4382  -26.0  43.684  160.9  0.0072   72.9  0.8806  -14.0
 0.115  0.4363  -27.3  43.498  160.2  0.0074   72.7  0.8770  -14.6
 0.120  0.4346  -28.6  43.320  159.4  0.0077   72.5  0.8735  -15.1
 0.125  0.4331  -29.8  43.149  158.6  0.0080   72.3  0.8701  -15.7
 0.130  0.4319  -31.1  42.986  157.9  0.0083   72.1  0.8667  -16.3
 0.135  0.4308  -32.5  42.831  157.1  0.0086   71.9  0.8635  -17.0
 0.140  0.4300  -33.8  42.684  156.3  0.0088   71.8  0.8604  -17.6
 0.145  0.4295  -35.1  42.546  155.5  0.0091   71.6  0.8573  -18.2
 0.150  0.4291  -36.4  42.415  154.7  0.0094   71.5  0.8544  -18.8
 0.155  0.4269  -37.4  42.131  154.0  0.0097   71.1  0.8498  -19.3
 0.160  0.4249  -38.4  41.852  153.3  0.0100   70.7  0.8453  -19.9
 0.165  0.4229  -39.3  41.581  152.6  0.0103   70.3  0.8408  -20.4
 0.170  0.4211  -40.3  41.315  151.9  0.0106   69.9  0.8364  -20.9
 0.175  0.4195  -41.4  41.056  151.2  0.0109   69.6  0.8321  -21.5
 0.180  0.4179  -42.4  40.804  150.4  0.0113   69.2  0.8279  -22.0
 0.185  0.4165  -43.4  40.558  149.7  0.0116   68.9  0.8238  -22.6
 0.190  0.4152  -44.4  40.320  148.9  0.0119   68.6  0.8197  -23.2
 0.195  0.4141  -45.5  40.088  148.2  0.0122   68.4  0.8157  -23.7
 0.200  0.4131  -46.5  39.864  147.4  0.0125   68.1  0.8118  -24.3
 0.220  0.4033  -50.2  38.804  145.0  0.0133   68.1  0.7940  -26.2
 0.240  0.3952  -54.0  37.818  142.4  0.0142   68.1  0.7771  -28.1
 0.260  0.3877  -57.9  36.836  140.0  0.0150   67.8  0.7598  -29.9
 0.280  0.3808  -62.0  35.842  137.7  0.0158   67.2  0.7419  -31.4
 0.300  0.3758  -66.1  34.908  135.3  0.0166   66.7  0.7245  -33.1
 0.320  0.3674  -69.0  33.906  133.6  0.0175   66.5  0.7072  -34.3
 0.340  0.3600  -72.0  32.935  131.8  0.0184   66.3  0.6902  -35.5
 0.360  0.3537  -75.1  31.998  129.9  0.0192   66.1  0.6735  -36.8
 0.380  0.3484  -78.4  31.098  127.9  0.0201   65.9  0.6572  -38.2
 0.400  0.3443  -81.7  30.238  125.8  0.0210   65.8  0.6413  -39.6
 0.420  0.3378  -84.4  29.428  124.5  0.0216   65.7  0.6261  -40.5
 0.440  0.3320  -87.2  28.635  123.0  0.0222   65.6  0.6111  -41.4
 0.450  0.3295  -88.6  28.246  122.3  0.0225   65.5  0.6037  -41.9
 0.460  0.3271  -90.1  27.861  121.5  0.0228   65.5  0.5963  -42.4
 0.480  0.3231  -93.1  27.107  120.0  0.0234   65.4  0.5817  -43.4
 0.500  0.3199  -96.1  26.374  118.3  0.0240   65.3  0.5672  -44.5
 0.520  0.3160  -98.3  25.686  117.2  0.0246   65.1  0.5554  -45.1
 0.540  0.3126 -100.6  25.008  116.1  0.0252   64.9  0.5436  -45.8
 0.560  0.3097 -102.9  24.340  114.9  0.0258   64.7  0.5319  -46.5
 0.580  0.3073 -105.2  23.683  113.6  0.0264   64.6  0.5203  -47.2
 0.600  0.3054 -107.6  23.038  112.3  0.0270   64.4  0.5088  -47.9
 0.620  0.3017 -109.5  22.513  111.4  0.0276   64.2  0.4996  -48.4
 0.640  0.2983 -111.4  21.994  110.5  0.0281   64.1  0.4905  -49.0
 0.660  0.2953 -113.4  21.481  109.5  0.0287   63.9  0.4814  -49.5
 0.680  0.2927 -115.4  20.974  108.5  0.0292   63.7  0.4723  -50.1
 0.700  0.2904 -117.5  20.475  107.4  0.0298   63.6  0.4633  -50.7
 0.720  0.2887 -119.5  20.029  106.6  0.0305   63.6  0.4548  -51.2
 0.740  0.2873 -121.5  19.588  105.8  0.0312   63.7  0.4464  -51.8
 0.760  0.2863 -123.5  19.151  104.9  0.0318   63.7  0.4380  -52.4
 0.780  0.2857 -125.6  18.718  104.0  0.0325   63.8  0.4296  -53.0
 0.800  0.2854 -127.6  18.291  103.0  0.0332   63.8  0.4213  -53.6
 0.820  0.2840 -129.1  17.927  102.3  0.0338   63.8  0.4147  -53.9
 0.840  0.2828 -130.6  17.565  101.6  0.0343   63.8  0.4081  -54.2
 0.860  0.2819 -132.1  17.206  100.9  0.0349   63.9  0.4015  -54.6
 0.880  0.2811 -133.7  16.849  100.2  0.0354   63.9  0.3950  -54.9
 0.900  0.2805 -135.2  16.496   99.4  0.0360   63.9  0.3884  -55.3
 0.920  0.2792 -136.4  16.192   98.8  0.0365   63.9  0.3829  -55.6
 0.940  0.2780 -137.5  15.889   98.2  0.0371   63.9  0.3773  -56.0
 0.960  0.2769 -138.7  15.589   97.6  0.0376   63.8  0.3718  -56.3
 0.980  0.2759 -139.9  15.290   96.9  0.0382   63.8  0.3663  -56.7
 1.000  0.2751 -141.1  14.994   96.2  0.0387   63.8  0.3608  -57.1
 1.020  0.2754 -142.4  14.741   95.7  0.0394   63.7  0.3559  -57.6
 1.040  0.2759 -143.7  14.490   95.1  0.0401   63.6  0.3510  -58.1
 1.060  0.2765 -145.0  14.240   94.5  0.0407   63.6  0.3462  -58.6
 1.080  0.2773 -146.2  13.992   93.9  0.0414   63.5  0.3414  -59.1
 1.100  0.2782 -147.5  13.745   93.3  0.0421   63.4  0.3366  -59.6
 1.120  0.2783 -148.7  13.519   92.8  0.0427   63.5  0.3323  -59.9
 1.140  0.2785 -149.9  13.294   92.3  0.0433   63.6  0.3280  -60.2
 1.160  0.2788 -151.1  13.070   91.7  0.0438   63.7  0.3237  -60.5
 1.180  0.2792 -152.3  12.847   91.2  0.0444   63.8  0.3195  -60.8
 1.200  0.2798 -153.5  12.626   90.6  0.0450   63.9  0.3152  -61.1
 1.220  0.2793 -154.2  12.439   90.2  0.0456   63.9  0.3113  -61.3
 1.240  0.2788 -154.9  12.253   89.7  0.0462   63.9  0.3074  -61.5
 1.260  0.2784 -155.7  12.068   89.3  0.0469   63.9  0.3035  -61.7
 1.280  0.2780 -156.4  11.884   88.8  0.0475   63.9  0.2996  -61.9
 1.300  0.2777 -157.1  11.700   88.3  0.0481   63.9  0.2957  -62.1
 1.320  0.2785 -158.1  11.536   87.9  0.0486   63.8  0.2922  -62.7
 1.340  0.2794 -159.0  11.373   87.4  0.0492   63.8  0.2888  -63.2
 1.360  0.2804 -159.9  11.211   87.0  0.0497   63.7  0.2854  -63.8
 1.380  0.2815 -160.9  11.049   86.5  0.0503   63.7  0.2820  -64.4
 1.400  0.2826 -161.8  10.888   86.0  0.0508   63.6  0.2786  -65.0
 1.420  0.2843 -162.6  10.741   85.6  0.0515   63.5  0.2756  -65.3
 1.440  0.2860 -163.3  10.594   85.2  0.0522   63.4  0.2726  -65.7
 1.460  0.2878 -164.1  10.448   84.8  0.0528   63.4  0.2697  -66.1
 1.480  0.2897 -164.9  10.302   84.3  0.0535   63.3  0.2667  -66.4
 1.500  0.2916 -165.6  10.157   83.9  0.0542   63.2  0.2638  -66.8
 1.520  0.2911 -166.3  10.028   83.5  0.0548   63.1  0.2606  -67.0
 1.540  0.2907 -167.0   9.900   83.1  0.0554   63.1  0.2575  -67.3
 1.560  0.2904 -167.8   9.773   82.7  0.0561   63.0  0.2543  -67.6
 1.580  0.2901 -168.5   9.646   82.3  0.0567   63.0  0.2511  -67.8
 1.600  0.2898 -169.2   9.519   81.9  0.0573   62.9  0.2480  -68.1
 1.620  0.2907 -169.9   9.406   81.5  0.0579   62.9  0.2457  -68.7
 1.640  0.2916 -170.7   9.293   81.2  0.0585   62.9  0.2434  -69.4
 1.660  0.2926 -171.4   9.181   80.8  0.0591   62.8  0.2412  -70.0
 1.680  0.2936 -172.1   9.069   80.4  0.0597   62.8  0.2390  -70.7
 1.700  0.2947 -172.8   8.958   80.0  0.0603   62.8  0.2368  -71.4
 1.720  0.2950 -173.3   8.854   79.7  0.0608   62.7  0.2353  -71.8
 1.740  0.2954 -173.8   8.750   79.3  0.0613   62.6  0.2338  -72.2
 1.760  0.2958 -174.4   8.646   78.9  0.0618   62.4  0.2324  -72.6
 1.780  0.2962 -174.9   8.543   78.6  0.0623   62.3  0.2309  -73.0
 1.800  0.2966 -175.4   8.440   78.2  0.0628   62.2  0.2295  -73.4
 1.820  0.2972 -175.8   8.348   77.9  0.0635   62.2  0.2266  -73.6
 1.840  0.2979 -176.2   8.257   77.6  0.0641   62.1  0.2238  -73.7
 1.860  0.2985 -176.5   8.165   77.3  0.0648   62.1  0.2209  -73.9
 1.880  0.2992 -176.9   8.074   77.0  0.0654   62.0  0.2181  -74.0
 1.900  0.2999 -177.3   7.983   76.7  0.0661   62.0  0.2152  -74.2
 1.920  0.3004 -178.1   7.898   76.4  0.0667   61.9  0.2138  -74.8
 1.940  0.3010 -179.0   7.814   76.0  0.0672   61.8  0.2125  -75.5
 1.960  0.3017 -179.8   7.729   75.6  0.0678   61.6  0.2112  -76.1
 1.980  0.3024  179.4   7.646   75.3  0.0683   61.5  0.2099  -76.7
 2.000  0.3032  178.6   7.562   74.9  0.0689   61.4  0.2086  -77.4
 2.020  0.3035  178.3   7.490   74.6  0.0695   61.3  0.2070  -77.7
 2.040  0.3038  178.0   7.417   74.4  0.0701   61.3  0.2055  -78.0
 2.060  0.3041  177.8   7.345   74.1  0.0707   61.2  0.2040  -78.3
 2.080  0.3044  177.5   7.273   73.8  0.0713   61.1  0.2024  -78.5
 2.100  0.3047  177.2   7.202   73.5  0.0719   61.0  0.2009  -78.8
 2.120  0.3050  176.9   7.130   73.2  0.0726   61.0  0.1994  -79.1
 2.140  0.3053  176.6   7.059   72.9  0.0732   60.9  0.1978  -79.5
 2.160  0.3056  176.4   6.988   72.6  0.0738   60.8  0.1963  -79.8
 2.180  0.3060  176.1   6.917   72.3  0.0744   60.8  0.1948  -80.1
 2.200  0.3063  175.8   6.846   72.0  0.0750   60.7  0.1933  -80.4
 2.220  0.3069  175.2   6.785   71.7  0.0755   60.6  0.1925  -80.9
 2.240  0.3074  174.7   6.724   71.5  0.0761   60.5  0.1917  -81.3
 2.260  0.3081  174.1   6.663   71.2  0.0766   60.4  0.1909  -81.8
 2.280  0.3087  173.5   6.603   70.9  0.0772   60.3  0.1901  -82.3
 2.300  0.3094  173.0   6.542   70.7  0.0777   60.2  0.1894  -82.8
 2.320  0.3101  172.4   6.482   70.4  0.0782   60.1  0.1886  -83.2
 2.340  0.3108  171.9   6.422   70.1  0.0788   60.0  0.1879  -83.7
 2.360  0.3116  171.3   6.362   69.8  0.0793   59.9  0.1872  -84.2
 2.380  0.3124  170.7   6.302   69.5  0.0799   59.8  0.1865  -84.7
 2.400  0.3132  170.2   6.242   69.2  0.0804   59.7  0.1858  -85.2
 2.420  0.3137  170.0   6.191   68.9  0.0810   59.6  0.1843  -85.7
 2.440  0.3142  169.8   6.140   68.7  0.0816   59.5  0.1829  -86.2
 2.460  0.3148  169.5   6.090   68.4  0.0822   59.4  0.1814  -86.7
 2.480  0.3153  169.3   6.039   68.2  0.0828   59.3  0.1800  -87.2
 2.500  0.3158  169.1   5.989   67.9  0.0833   59.2  0.1786  -87.7
 2.520  0.3164  168.9   5.939   67.6  0.0839   59.1  0.1772  -88.3
 2.540  0.3169  168.7   5.888   67.4  0.0845   59.1  0.1758  -88.8
 2.560  0.3175  168.4   5.839   67.1  0.0851   59.0  0.1744  -89.4
 2.580  0.3180  168.2   5.789   66.8  0.0857   58.9  0.1730  -89.9
 2.600  0.3186  168.0   5.739   66.5  0.0863   58.8  0.1717  -90.5
 2.620  0.3186  167.7   5.696   66.3  0.0870   58.7  0.1712  -90.7
 2.640  0.3186  167.4   5.653   66.0  0.0877   58.6  0.1706  -90.9
 2.660  0.3187  167.0   5.610   65.8  0.0883   58.5  0.1701  -91.2
 2.680  0.3187  166.7   5.567   65.5  0.0890   58.4  0.1695  -91.4
 2.700  0.3188  166.4   5.524   65.3  0.0897   58.3  0.1690  -91.6
 2.720  0.3188  166.1   5.481   65.0  0.0904   58.2  0.1685  -91.9
 2.740  0.3189  165.8   5.438   64.8  0.0911   58.1  0.1680  -92.1
 2.760  0.3190  165.4   5.396   64.5  0.0917   58.0  0.1674  -92.3
 2.780  0.3191  165.1   5.353   64.3  0.0924   57.9  0.1669  -92.6
 2.800  0.3192  164.8   5.311   64.0  0.0931   57.8  0.1664  -92.8
 2.820  0.3195  164.5   5.273   63.8  0.0936   57.7  0.1661  -93.2
 2.840  0.3197  164.3   5.236   63.5  0.0941   57.6  0.1658  -93.6
 2.860  0.3200  164.0   5.198   63.3  0.0946   57.5  0.1655  -93.9
 2.880  0.3203  163.7   5.161   63.0  0.0951   57.4  0.1653  -94.3
 2.900  0.3206  163.4   5.123   62.7  0.0956   57.3  0.1650  -94.7
 2.920  0.3209  163.2   5.086   62.5  0.0962   57.2  0.1648  -95.1
 2.940  0.3212  162.9   5.049   62.2  0.0967   57.2  0.1645  -95.4
 2.960  0.3215  162.6   5.012   62.0  0.0972   57.1  0.1643  -95.8
 2.980  0.3218  162.4   4.975   61.7  0.0977   57.0  0.1640  -96.2
 3.000  0.3221  162.1   4.938   61.4  0.0982   56.9  0.1638  -96.6
 3.100  0.3225  160.9   4.787   60.4  0.1010   56.1  0.1620  -98.0
 3.200  0.3230  159.8   4.638   59.3  0.1039   55.4  0.1604  -99.4
 3.300  0.3237  158.6   4.490   58.1  0.1067   54.8  0.1588 -100.8
 3.400  0.3245  157.4   4.344   56.9  0.1096   54.1  0.1574 -102.3
 3.500  0.3254  156.3   4.201   55.6  0.1125   53.5  0.1560 -103.8
 3.600  0.3255  155.7   4.094   54.6  0.1155   53.0  0.1539 -104.9
 3.700  0.3255  155.1   3.988   53.6  0.1186   52.6  0.1518 -106.1
 3.800  0.3257  154.6   3.884   52.5  0.1217   52.1  0.1498 -107.3
 3.900  0.3258  154.0   3.781   51.4  0.1247   51.7  0.1479 -108.5
 4.000  0.3260  153.4   3.680   50.2  0.1278   51.3  0.1460 -109.8
 4.100  0.3254  152.5   3.595   49.2  0.1307   50.4  0.1440 -110.9
 4.200  0.3249  151.6   3.510   48.2  0.1336   49.6  0.1421 -112.1
 4.300  0.3245  150.6   3.427   47.1  0.1366   48.7  0.1402 -113.3
 4.400  0.3242  149.7   3.345   45.9  0.1396   48.0  0.1384 -114.5
 4.500  0.3240  148.8   3.265   44.7  0.1426   47.2  0.1366 -115.8
 4.600  0.3251  148.0   3.201   43.7  0.1457   46.5  0.1347 -116.8
 4.700  0.3262  147.3   3.139   42.6  0.1489   45.8  0.1327 -117.8
 4.800  0.3273  146.6   3.077   41.5  0.1520   45.1  0.1309 -118.9
 4.900  0.3285  145.8   3.017   40.3  0.1552   44.4  0.1291 -120.0
 5.000  0.3298  145.1   2.958   39.1  0.1584   43.8  0.1273 -121.1
 5.100  0.3278  143.7   2.901   38.1  0.1615   42.9  0.1251 -123.3
 5.200  0.3261  142.3   2.846   37.0  0.1646   42.0  0.1231 -125.5
 5.300  0.3245  140.9   2.791   35.9  0.1678   41.2  0.1213 -127.9
 5.400  0.3231  139.5   2.737   34.7  0.1710   40.4  0.1197 -130.2
 5.500  0.3219  138.1   2.685   33.5  0.1742   39.6  0.1183 -132.7
 5.600  0.3219  136.9   2.642   32.5  0.1772   38.8  0.1159 -134.2
 5.700  0.3221  135.8   2.600   31.5  0.1803   38.0  0.1135 -135.9
 5.800  0.3223  134.6   2.558   30.4  0.1834   37.2  0.1112 -137.5
 5.900  0.3228  133.5   2.518   29.3  0.1865   36.4  0.1091 -139.3
 6.000  0.3233  132.3   2.478   28.2  0.1897   35.7  0.1070 -141.1
!
!  f       NFmin   Gammaopt  rn/50
! GHz       dB    MAG  ANG    -
!
! noise parameter not available yet for this operation point!
!
! (c) 2015  Infineon Technologies AG, Munich
