! Infineon Technologies  Discrete & RF Semiconductors
! BFP540FESD
! VCE = 0.75 V,  IC =  3.0 mA
! Common Emitter S-Parameters:                            Nov 2015
# GHz  S  MA  R  50
!  f         S11            S21            S12            S22
! GHz     MAG   ANG      MAG   ANG      MAG   ANG      MAG   ANG
 0.010  0.9067   -0.2  10.363  179.1  0.0011   92.9  0.9918   -3.5
 0.015  0.8995   -1.7  10.209  179.0  0.0018   94.4  0.9957   -2.4
 0.020  0.8930   -3.3  10.056  178.8  0.0026   95.0  1.0000   -1.4
 0.025  0.8955   -3.5  10.071  178.4  0.0032   92.3  0.9978   -1.7
 0.030  0.8980   -3.8  10.087  178.1  0.0038   90.5  0.9956   -2.0
 0.035  0.9005   -4.0  10.103  177.7  0.0044   89.2  0.9935   -2.3
 0.040  0.9031   -4.2  10.120  177.3  0.0051   88.2  0.9913   -2.7
 0.045  0.9056   -4.5  10.137  177.0  0.0057   87.4  0.9893   -3.0
 0.050  0.9082   -4.7  10.154  176.6  0.0063   86.8  0.9872   -3.3
 0.055  0.9075   -5.2  10.151  176.2  0.0069   86.4  0.9869   -3.6
 0.060  0.9068   -5.7  10.149  175.8  0.0076   86.1  0.9866   -3.9
 0.065  0.9062   -6.2  10.147  175.5  0.0082   85.9  0.9864   -4.3
 0.070  0.9057   -6.7  10.146  175.1  0.0089   85.7  0.9862   -4.6
 0.075  0.9052   -7.1  10.145  174.7  0.0095   85.5  0.9860   -4.9
 0.080  0.9048   -7.6  10.144  174.3  0.0101   85.3  0.9859   -5.2
 0.085  0.9045   -8.1  10.144  173.9  0.0108   85.2  0.9858   -5.5
 0.090  0.9042   -8.6  10.145  173.6  0.0114   85.0  0.9857   -5.9
 0.095  0.9040   -9.1  10.146  173.2  0.0121   84.9  0.9856   -6.2
 0.100  0.9039   -9.6  10.147  172.8  0.0127   84.8  0.9856   -6.5
 0.105  0.9026  -10.2  10.145  172.4  0.0133   84.4  0.9847   -6.8
 0.110  0.9014  -10.8  10.144  172.1  0.0139   84.0  0.9838   -7.1
 0.115  0.9003  -11.4  10.143  171.7  0.0145   83.7  0.9829   -7.5
 0.120  0.8993  -12.0  10.142  171.3  0.0151   83.4  0.9821   -7.8
 0.125  0.8984  -12.6  10.142  170.9  0.0157   83.1  0.9813   -8.1
 0.130  0.8976  -13.2  10.143  170.6  0.0164   82.9  0.9805   -8.4
 0.135  0.8969  -13.8  10.143  170.2  0.0170   82.6  0.9797   -8.7
 0.140  0.8963  -14.4  10.144  169.8  0.0176   82.4  0.9790   -9.1
 0.145  0.8958  -15.0  10.146  169.5  0.0182   82.2  0.9784   -9.4
 0.150  0.8954  -15.6  10.148  169.1  0.0188   82.0  0.9777   -9.7
 0.155  0.8947  -16.0  10.131  168.7  0.0195   81.7  0.9766  -10.0
 0.160  0.8940  -16.4  10.114  168.3  0.0202   81.4  0.9755  -10.3
 0.165  0.8933  -16.9  10.098  167.9  0.0209   81.1  0.9744  -10.7
 0.170  0.8927  -17.3  10.083  167.4  0.0216   80.9  0.9733  -11.0
 0.175  0.8922  -17.7  10.068  167.0  0.0223   80.7  0.9723  -11.3
 0.180  0.8917  -18.1  10.053  166.6  0.0230   80.5  0.9713  -11.6
 0.185  0.8913  -18.5  10.039  166.2  0.0237   80.2  0.9704  -11.9
 0.190  0.8909  -19.0  10.026  165.7  0.0244   80.1  0.9695  -12.3
 0.195  0.8905  -19.4  10.013  165.3  0.0251   79.9  0.9686  -12.6
 0.200  0.8902  -19.8  10.001  164.9  0.0258   79.7  0.9677  -12.9
 0.220  0.8855  -21.8   9.959  163.5  0.0280   78.6  0.9636  -14.2
 0.240  0.8818  -23.8   9.923  162.2  0.0303   77.7  0.9599  -15.5
 0.260  0.8778  -25.8   9.877  160.7  0.0327   76.4  0.9551  -16.8
 0.280  0.8733  -27.8   9.824  159.2  0.0352   74.9  0.9490  -17.9
 0.300  0.8700  -29.9   9.777  157.6  0.0378   73.6  0.9433  -19.1
 0.320  0.8639  -31.7   9.700  156.2  0.0399   72.3  0.9362  -20.3
 0.340  0.8588  -33.6   9.629  154.8  0.0421   71.1  0.9294  -21.5
 0.360  0.8546  -35.5   9.563  153.4  0.0443   70.0  0.9231  -22.7
 0.380  0.8513  -37.4   9.503  152.0  0.0465   69.1  0.9171  -23.9
 0.400  0.8489  -39.3   9.450  150.5  0.0487   68.2  0.9116  -25.1
 0.420  0.8409  -41.1   9.369  149.2  0.0506   67.1  0.9030  -26.2
 0.440  0.8338  -43.0   9.294  147.8  0.0526   66.1  0.8947  -27.3
 0.450  0.8305  -43.9   9.258  147.2  0.0536   65.6  0.8906  -27.9
 0.460  0.8275  -44.9   9.223  146.5  0.0545   65.2  0.8867  -28.5
 0.480  0.8222  -46.8   9.158  145.1  0.0565   64.3  0.8791  -29.6
 0.500  0.8178  -48.7   9.098  143.7  0.0585   63.5  0.8719  -30.8
 0.520  0.8103  -50.4   8.994  142.5  0.0601   62.5  0.8629  -31.8
 0.540  0.8035  -52.1   8.894  141.2  0.0617   61.5  0.8541  -32.7
 0.560  0.7975  -53.9   8.798  139.9  0.0634   60.5  0.8456  -33.7
 0.580  0.7923  -55.7   8.707  138.6  0.0650   59.6  0.8373  -34.8
 0.600  0.7878  -57.5   8.620  137.3  0.0667   58.8  0.8293  -35.8
 0.620  0.7811  -59.0   8.531  136.2  0.0682   57.9  0.8206  -36.7
 0.640  0.7749  -60.5   8.445  135.2  0.0696   57.1  0.8121  -37.7
 0.660  0.7693  -62.1   8.362  134.1  0.0711   56.3  0.8039  -38.6
 0.680  0.7643  -63.6   8.282  132.9  0.0726   55.5  0.7959  -39.6
 0.700  0.7598  -65.2   8.205  131.8  0.0741   54.8  0.7881  -40.6
 0.720  0.7522  -66.9   8.115  130.7  0.0755   54.0  0.7788  -41.5
 0.740  0.7453  -68.7   8.027  129.6  0.0768   53.2  0.7697  -42.4
 0.760  0.7391  -70.5   7.943  128.5  0.0782   52.4  0.7608  -43.4
 0.780  0.7336  -72.3   7.862  127.4  0.0796   51.7  0.7522  -44.3
 0.800  0.7289  -74.1   7.784  126.2  0.0810   51.0  0.7437  -45.3
 0.820  0.7227  -75.5   7.690  125.2  0.0820   50.3  0.7352  -46.0
 0.840  0.7169  -77.0   7.598  124.2  0.0829   49.7  0.7268  -46.8
 0.860  0.7116  -78.4   7.509  123.2  0.0839   49.0  0.7185  -47.5
 0.880  0.7068  -79.9   7.422  122.2  0.0849   48.4  0.7103  -48.3
 0.900  0.7024  -81.4   7.338  121.1  0.0859   47.8  0.7023  -49.1
 0.920  0.6972  -82.7   7.254  120.3  0.0868   47.3  0.6945  -49.8
 0.940  0.6924  -84.1   7.171  119.4  0.0877   46.7  0.6867  -50.5
 0.960  0.6880  -85.4   7.090  118.5  0.0886   46.2  0.6791  -51.3
 0.980  0.6840  -86.8   7.011  117.6  0.0895   45.7  0.6716  -52.0
 1.000  0.6804  -88.2   6.933  116.7  0.0904   45.2  0.6642  -52.8
 1.020  0.6752  -89.6   6.855  115.9  0.0913   44.6  0.6567  -53.5
 1.040  0.6704  -91.0   6.779  115.0  0.0921   44.0  0.6493  -54.3
 1.060  0.6660  -92.5   6.704  114.1  0.0930   43.4  0.6420  -55.0
 1.080  0.6620  -93.9   6.631  113.2  0.0939   42.8  0.6348  -55.8
 1.100  0.6585  -95.4   6.559  112.3  0.0948   42.2  0.6278  -56.6
 1.120  0.6543  -96.7   6.480  111.6  0.0953   41.7  0.6205  -57.2
 1.140  0.6505  -98.0   6.401  110.8  0.0959   41.2  0.6133  -57.8
 1.160  0.6469  -99.3   6.324  110.0  0.0964   40.7  0.6062  -58.4
 1.180  0.6437 -100.6   6.249  109.2  0.0969   40.2  0.5992  -59.1
 1.200  0.6409 -101.9   6.174  108.4  0.0975   39.7  0.5922  -59.7
 1.220  0.6372 -103.0   6.107  107.7  0.0982   39.2  0.5858  -60.2
 1.240  0.6336 -104.0   6.041  107.1  0.0988   38.8  0.5794  -60.8
 1.260  0.6303 -105.1   5.976  106.4  0.0995   38.4  0.5730  -61.3
 1.280  0.6272 -106.2   5.911  105.7  0.1002   37.9  0.5667  -61.9
 1.300  0.6244 -107.3   5.848  105.0  0.1009   37.5  0.5605  -62.5
 1.320  0.6214 -108.5   5.786  104.3  0.1013   37.1  0.5544  -63.2
 1.340  0.6186 -109.7   5.725  103.6  0.1018   36.8  0.5483  -63.9
 1.360  0.6161 -110.9   5.664  102.9  0.1022   36.4  0.5423  -64.6
 1.380  0.6139 -112.1   5.605  102.2  0.1027   36.1  0.5364  -65.3
 1.400  0.6120 -113.3   5.546  101.4  0.1031   35.7  0.5306  -66.1
 1.420  0.6092 -114.5   5.486  100.7  0.1035   35.4  0.5251  -66.6
 1.440  0.6066 -115.7   5.426  100.1  0.1039   35.1  0.5197  -67.1
 1.460  0.6044 -116.9   5.367   99.4  0.1043   34.7  0.5143  -67.6
 1.480  0.6023 -118.1   5.309   98.7  0.1047   34.4  0.5089  -68.1
 1.500  0.6006 -119.3   5.252   98.0  0.1051   34.1  0.5036  -68.6
 1.520  0.5974 -120.2   5.195   97.4  0.1056   33.9  0.4983  -69.1
 1.540  0.5944 -121.2   5.139   96.9  0.1061   33.7  0.4930  -69.6
 1.560  0.5915 -122.1   5.083   96.3  0.1066   33.5  0.4878  -70.1
 1.580  0.5888 -123.0   5.028   95.7  0.1071   33.3  0.4826  -70.6
 1.600  0.5863 -124.0   4.973   95.1  0.1076   33.1  0.4774  -71.1
 1.620  0.5840 -125.0   4.926   94.5  0.1078   32.8  0.4725  -71.7
 1.640  0.5818 -126.1   4.879   93.9  0.1080   32.5  0.4677  -72.3
 1.660  0.5799 -127.1   4.833   93.3  0.1083   32.2  0.4630  -73.0
 1.680  0.5782 -128.1   4.788   92.7  0.1085   31.9  0.4583  -73.6
 1.700  0.5766 -129.2   4.743   92.1  0.1087   31.6  0.4537  -74.3
 1.720  0.5748 -130.1   4.694   91.6  0.1089   31.4  0.4502  -74.7
 1.740  0.5732 -130.9   4.646   91.0  0.1091   31.1  0.4468  -75.1
 1.760  0.5716 -131.8   4.598   90.5  0.1092   30.9  0.4434  -75.5
 1.780  0.5702 -132.7   4.550   89.9  0.1094   30.6  0.4400  -76.0
 1.800  0.5690 -133.6   4.503   89.3  0.1096   30.4  0.4366  -76.4
 1.820  0.5684 -134.4   4.461   88.9  0.1099   30.2  0.4320  -76.8
 1.840  0.5680 -135.2   4.419   88.4  0.1102   30.0  0.4274  -77.2
 1.860  0.5676 -135.9   4.377   87.9  0.1105   29.8  0.4228  -77.6
 1.880  0.5673 -136.7   4.336   87.5  0.1108   29.6  0.4182  -78.1
 1.900  0.5672 -137.5   4.295   87.0  0.1111   29.4  0.4137  -78.5
 1.920  0.5645 -138.5   4.257   86.5  0.1112   29.2  0.4105  -79.0
 1.940  0.5620 -139.4   4.219   85.9  0.1114   29.0  0.4073  -79.5
 1.960  0.5597 -140.4   4.182   85.3  0.1115   28.8  0.4041  -80.0
 1.980  0.5575 -141.4   4.145   84.8  0.1117   28.6  0.4010  -80.6
 2.000  0.5555 -142.4   4.108   84.2  0.1118   28.4  0.3979  -81.1
 2.020  0.5547 -143.0   4.071   83.8  0.1120   28.3  0.3950  -81.4
 2.040  0.5539 -143.6   4.034   83.4  0.1122   28.2  0.3921  -81.8
 2.060  0.5533 -144.2   3.997   83.0  0.1124   28.0  0.3892  -82.1
 2.080  0.5526 -144.9   3.961   82.6  0.1126   27.9  0.3863  -82.5
 2.100  0.5521 -145.5   3.925   82.1  0.1128   27.8  0.3834  -82.8
 2.120  0.5516 -146.1   3.889   81.7  0.1131   27.7  0.3806  -83.2
 2.140  0.5512 -146.7   3.853   81.3  0.1133   27.6  0.3777  -83.6
 2.160  0.5508 -147.4   3.817   80.8  0.1135   27.4  0.3749  -83.9
 2.180  0.5505 -148.0   3.782   80.4  0.1137   27.3  0.3721  -84.3
 2.200  0.5503 -148.6   3.747   79.9  0.1139   27.2  0.3693  -84.7
 2.220  0.5491 -149.3   3.715   79.5  0.1140   27.1  0.3673  -85.1
 2.240  0.5479 -150.0   3.683   79.1  0.1142   26.9  0.3653  -85.5
 2.260  0.5468 -150.8   3.651   78.7  0.1143   26.8  0.3634  -85.9
 2.280  0.5458 -151.5   3.620   78.3  0.1145   26.7  0.3615  -86.3
 2.300  0.5449 -152.2   3.588   77.8  0.1146   26.5  0.3596  -86.7
 2.320  0.5441 -153.0   3.557   77.4  0.1148   26.4  0.3577  -87.2
 2.340  0.5434 -153.7   3.526   77.0  0.1149   26.3  0.3558  -87.6
 2.360  0.5428 -154.4   3.496   76.5  0.1151   26.2  0.3539  -88.0
 2.380  0.5422 -155.2   3.465   76.1  0.1152   26.0  0.3521  -88.5
 2.400  0.5418 -155.9   3.435   75.6  0.1154   25.9  0.3503  -88.9
 2.420  0.5417 -156.4   3.409   75.3  0.1156   25.8  0.3479  -89.4
 2.440  0.5416 -156.9   3.383   74.9  0.1158   25.8  0.3454  -89.8
 2.460  0.5416 -157.5   3.357   74.6  0.1159   25.7  0.3430  -90.3
 2.480  0.5417 -158.0   3.331   74.2  0.1161   25.7  0.3407  -90.8
 2.500  0.5417 -158.5   3.305   73.9  0.1163   25.6  0.3383  -91.3
 2.520  0.5419 -159.0   3.280   73.5  0.1165   25.5  0.3360  -91.8
 2.540  0.5420 -159.5   3.254   73.1  0.1167   25.5  0.3337  -92.3
 2.560  0.5422 -160.1   3.229   72.8  0.1168   25.4  0.3314  -92.8
 2.580  0.5425 -160.6   3.204   72.4  0.1170   25.4  0.3292  -93.4
 2.600  0.5428 -161.1   3.179   72.0  0.1172   25.3  0.3270  -93.9
 2.620  0.5420 -161.6   3.157   71.7  0.1174   25.3  0.3257  -94.1
 2.640  0.5413 -162.1   3.135   71.4  0.1176   25.2  0.3243  -94.4
 2.660  0.5406 -162.6   3.113   71.0  0.1178   25.2  0.3230  -94.6
 2.680  0.5400 -163.2   3.091   70.7  0.1180   25.1  0.3217  -94.8
 2.700  0.5394 -163.7   3.069   70.4  0.1181   25.1  0.3204  -95.1
 2.720  0.5388 -164.2   3.047   70.0  0.1183   25.1  0.3191  -95.3
 2.740  0.5383 -164.7   3.026   69.7  0.1185   25.0  0.3178  -95.6
 2.760  0.5379 -165.3   3.005   69.3  0.1187   25.0  0.3165  -95.8
 2.780  0.5375 -165.8   2.983   69.0  0.1189   24.9  0.3152  -96.1
 2.800  0.5371 -166.3   2.962   68.6  0.1191   24.9  0.3139  -96.3
 2.820  0.5370 -166.8   2.942   68.3  0.1193   24.8  0.3128  -96.6
 2.840  0.5370 -167.3   2.922   67.9  0.1194   24.8  0.3117  -96.9
 2.860  0.5370 -167.7   2.903   67.5  0.1196   24.7  0.3106  -97.2
 2.880  0.5371 -168.2   2.883   67.2  0.1198   24.7  0.3096  -97.5
 2.900  0.5372 -168.7   2.864   66.8  0.1199   24.6  0.3085  -97.8
 2.920  0.5373 -169.2   2.845   66.4  0.1201   24.6  0.3074  -98.1
 2.940  0.5375 -169.7   2.826   66.1  0.1203   24.5  0.3064  -98.4
 2.960  0.5377 -170.1   2.807   65.7  0.1205   24.5  0.3053  -98.8
 2.980  0.5379 -170.6   2.788   65.3  0.1206   24.4  0.3043  -99.1
 3.000  0.5382 -171.1   2.769   64.9  0.1208   24.4  0.3033  -99.4
 3.100  0.5360 -173.1   2.688   63.5  0.1217   24.2  0.2989 -100.7
 3.200  0.5345 -175.2   2.609   62.1  0.1226   24.1  0.2947 -102.1
 3.300  0.5336 -177.2   2.531   60.6  0.1234   23.9  0.2907 -103.5
 3.400  0.5335 -179.3   2.456   58.9  0.1243   23.8  0.2869 -105.0
 3.500  0.5340  178.7   2.382   57.2  0.1252   23.6  0.2832 -106.5
 3.600  0.5345  177.3   2.325   55.9  0.1266   23.7  0.2797 -107.7
 3.700  0.5353  175.8   2.269   54.6  0.1280   23.8  0.2763 -108.9
 3.800  0.5365  174.4   2.215   53.2  0.1295   24.0  0.2730 -110.1
 3.900  0.5380  173.0   2.162   51.7  0.1309   24.1  0.2698 -111.4
 4.000  0.5398  171.6   2.110   50.2  0.1323   24.2  0.2668 -112.7
 4.100  0.5388  170.0   2.065   48.9  0.1339   23.9  0.2635 -114.0
 4.200  0.5382  168.4   2.021   47.6  0.1355   23.7  0.2603 -115.2
 4.300  0.5380  166.9   1.977   46.2  0.1371   23.5  0.2572 -116.6
 4.400  0.5382  165.3   1.936   44.8  0.1387   23.2  0.2543 -117.9
 4.500  0.5388  163.7   1.895   43.3  0.1403   23.0  0.2515 -119.3
 4.600  0.5393  162.3   1.861   42.0  0.1421   22.9  0.2486 -120.6
 4.700  0.5401  160.9   1.828   40.7  0.1439   22.8  0.2458 -121.9
 4.800  0.5413  159.5   1.797   39.4  0.1457   22.8  0.2431 -123.2
 4.900  0.5427  158.1   1.766   38.0  0.1475   22.7  0.2406 -124.6
 5.000  0.5445  156.7   1.736   36.5  0.1493   22.6  0.2382 -126.0
 5.100  0.5407  155.1   1.705   35.3  0.1514   22.3  0.2352 -127.8
 5.200  0.5374  153.4   1.675   34.0  0.1535   22.1  0.2324 -129.7
 5.300  0.5345  151.8   1.646   32.6  0.1557   21.9  0.2299 -131.6
 5.400  0.5321  150.1   1.617   31.2  0.1578   21.6  0.2276 -133.6
 5.500  0.5301  148.4   1.590   29.8  0.1599   21.4  0.2256 -135.6
 5.600  0.5299  146.9   1.567   28.6  0.1621   21.1  0.2225 -137.2
 5.700  0.5300  145.4   1.545   27.4  0.1643   20.9  0.2195 -138.8
 5.800  0.5305  143.8   1.524   26.2  0.1665   20.6  0.2168 -140.4
 5.900  0.5314  142.3   1.504   24.9  0.1687   20.3  0.2142 -142.1
 6.000  0.5326  140.8   1.484   23.6  0.1709   20.1  0.2118 -143.8
!
!  f       NFmin   Gammaopt  rn/50
! GHz       dB    MAG  ANG    -
!
! noise parameter not available yet for this operation point!
!
! (c) 2015  Infineon Technologies AG, Munich
