! Infineon Technologies  Discrete & RF Semiconductors
! BFP540FESD
! VCE =  2.0 V,  IC =  80 mA
! Common Emitter S-Parameters:                            Nov 2015
# GHz  S  MA  R  50
!  f         S11            S21            S12            S22
! GHz     MAG   ANG      MAG   ANG      MAG   ANG      MAG   ANG
 0.010  0.0466  -54.2  49.838  177.7  0.0017  114.7  0.7007   -1.1
 0.015  0.0547  -64.2  49.050  176.6  0.0019  109.4  0.7082   -0.9
 0.020  0.0641  -71.4  48.281  175.4  0.0022  105.3  0.7158   -0.8
 0.025  0.0714  -77.0  48.264  174.0  0.0025  101.3  0.7163   -2.1
 0.030  0.0792  -81.5  48.274  172.7  0.0027   98.2  0.7171   -3.4
 0.035  0.0874  -85.2  48.311  171.3  0.0030   95.6  0.7183   -4.7
 0.040  0.0959  -88.2  48.375  170.0  0.0033   93.4  0.7199   -6.0
 0.045  0.1046  -90.8  48.466  168.6  0.0036   91.6  0.7219   -7.3
 0.050  0.1135  -92.9  48.583  167.3  0.0039   90.1  0.7242   -8.6
 0.055  0.1204  -95.9  48.151  166.1  0.0042   89.2  0.7201   -9.7
 0.060  0.1276  -98.6  47.742  164.8  0.0044   88.4  0.7163  -10.8
 0.065  0.1351 -101.0  47.355  163.6  0.0047   87.7  0.7127  -11.9
 0.070  0.1428 -103.1  46.992  162.3  0.0049   87.0  0.7095  -13.1
 0.075  0.1506 -105.0  46.653  161.0  0.0052   86.5  0.7065  -14.2
 0.080  0.1586 -106.8  46.339  159.7  0.0055   86.0  0.7038  -15.4
 0.085  0.1668 -108.3  46.049  158.3  0.0057   85.5  0.7014  -16.6
 0.090  0.1750 -109.7  45.786  157.0  0.0060   85.1  0.6992  -17.7
 0.095  0.1834 -111.0  45.548  155.6  0.0062   84.7  0.6974  -18.9
 0.100  0.1918 -112.2  45.336  154.2  0.0065   84.3  0.6959  -20.1
 0.105  0.1986 -113.9  44.869  153.2  0.0067   83.1  0.6893  -20.9
 0.110  0.2056 -115.4  44.417  152.2  0.0070   81.9  0.6829  -21.8
 0.115  0.2128 -116.9  43.978  151.1  0.0073   80.9  0.6766  -22.6
 0.120  0.2201 -118.2  43.555  150.1  0.0075   79.9  0.6704  -23.5
 0.125  0.2275 -119.5  43.146  149.0  0.0078   78.9  0.6644  -24.4
 0.130  0.2349 -120.7  42.754  147.9  0.0080   78.1  0.6586  -25.3
 0.135  0.2425 -121.8  42.377  146.8  0.0083   77.3  0.6530  -26.2
 0.140  0.2502 -122.9  42.017  145.6  0.0086   76.5  0.6475  -27.2
 0.145  0.2580 -123.9  41.674  144.5  0.0088   75.8  0.6422  -28.1
 0.150  0.2658 -124.8  41.348  143.3  0.0091   75.1  0.6371  -29.1
 0.155  0.2696 -125.8  40.843  142.5  0.0093   75.0  0.6303  -29.7
 0.160  0.2735 -126.7  40.347  141.7  0.0096   75.0  0.6235  -30.4
 0.165  0.2774 -127.7  39.860  140.8  0.0098   74.9  0.6169  -31.1
 0.170  0.2814 -128.6  39.381  139.9  0.0101   74.9  0.6103  -31.8
 0.175  0.2855 -129.5  38.912  139.0  0.0103   74.8  0.6038  -32.5
 0.180  0.2896 -130.3  38.453  138.1  0.0106   74.8  0.5974  -33.2
 0.185  0.2938 -131.1  38.004  137.2  0.0108   74.7  0.5911  -33.9
 0.190  0.2981 -132.0  37.566  136.2  0.0111   74.7  0.5849  -34.7
 0.195  0.3024 -132.7  37.138  135.2  0.0113   74.6  0.5788  -35.4
 0.200  0.3068 -133.5  36.722  134.2  0.0116   74.6  0.5728  -36.2
 0.220  0.3192 -137.1  35.008  131.6  0.0124   73.5  0.5499  -38.3
 0.240  0.3327 -140.4  33.375  128.7  0.0132   72.6  0.5278  -40.7
 0.260  0.3454 -143.2  31.864  126.0  0.0139   71.9  0.5070  -42.6
 0.280  0.3569 -145.6  30.444  123.7  0.0146   71.4  0.4871  -44.0
 0.300  0.3689 -147.8  29.080  121.1  0.0153   71.0  0.4675  -45.5
 0.320  0.3745 -149.8  27.917  119.6  0.0160   70.8  0.4517  -46.5
 0.340  0.3805 -151.7  26.775  118.0  0.0167   70.7  0.4361  -47.6
 0.360  0.3869 -153.6  25.656  116.2  0.0173   70.5  0.4206  -48.8
 0.380  0.3937 -155.4  24.563  114.3  0.0180   70.4  0.4053  -50.1
 0.400  0.4009 -157.1  23.501  112.2  0.0187   70.3  0.3903  -51.5
 0.420  0.4041 -158.4  22.690  111.1  0.0193   70.3  0.3783  -52.2
 0.440  0.4075 -159.6  21.888  109.9  0.0199   70.3  0.3664  -53.0
 0.450  0.4093 -160.3  21.491  109.3  0.0202   70.4  0.3604  -53.4
 0.460  0.4111 -160.9  21.097  108.6  0.0205   70.4  0.3545  -53.8
 0.480  0.4148 -162.1  20.316  107.3  0.0211   70.4  0.3427  -54.7
 0.500  0.4188 -163.3  19.548  105.8  0.0217   70.4  0.3310  -55.6
 0.520  0.4214 -164.3  18.945  104.9  0.0224   70.2  0.3227  -56.0
 0.540  0.4242 -165.3  18.346  104.0  0.0231   70.1  0.3145  -56.5
 0.560  0.4271 -166.3  17.752  103.1  0.0238   69.9  0.3063  -57.0
 0.580  0.4302 -167.2  17.163  102.0  0.0245   69.7  0.2981  -57.5
 0.600  0.4333 -168.2  16.581  100.9  0.0252   69.6  0.2899  -58.0
 0.620  0.4346 -169.1  16.145  100.2  0.0260   70.0  0.2840  -58.4
 0.640  0.4360 -169.9  15.712   99.4  0.0268   70.4  0.2781  -58.8
 0.660  0.4375 -170.7  15.282   98.6  0.0277   70.8  0.2722  -59.3
 0.680  0.4391 -171.6  14.855   97.7  0.0285   71.2  0.2663  -59.7
 0.700  0.4408 -172.4  14.432   96.8  0.0293   71.5  0.2605  -60.2
 0.720  0.4433 -173.2  14.080   96.2  0.0299   71.3  0.2550  -60.8
 0.740  0.4459 -173.9  13.730   95.5  0.0305   71.1  0.2496  -61.4
 0.760  0.4486 -174.6  13.381   94.8  0.0310   70.9  0.2442  -62.1
 0.780  0.4513 -175.4  13.035   94.1  0.0316   70.8  0.2388  -62.8
 0.800  0.4541 -176.1  12.691   93.3  0.0322   70.6  0.2335  -63.5
 0.820  0.4547 -176.7  12.416   92.8  0.0330   70.6  0.2296  -63.8
 0.840  0.4554 -177.2  12.143   92.2  0.0338   70.5  0.2257  -64.1
 0.860  0.4561 -177.8  11.871   91.6  0.0347   70.5  0.2218  -64.4
 0.880  0.4569 -178.3  11.600   91.0  0.0355   70.4  0.2179  -64.7
 0.900  0.4577 -178.9  11.330   90.4  0.0363   70.4  0.2140  -65.0
 0.920  0.4584 -179.5  11.106   89.9  0.0369   70.3  0.2105  -65.4
 0.940  0.4591  180.0  10.882   89.4  0.0374   70.2  0.2070  -65.8
 0.960  0.4599  179.4  10.660   88.8  0.0380   70.2  0.2035  -66.2
 0.980  0.4607  178.9  10.438   88.3  0.0385   70.1  0.2001  -66.7
 1.000  0.4616  178.3  10.218   87.7  0.0391   70.0  0.1966  -67.1
 1.020  0.4633  177.8  10.032   87.3  0.0397   69.9  0.1938  -67.8
 1.040  0.4650  177.3   9.847   86.8  0.0403   69.8  0.1911  -68.5
 1.060  0.4668  176.8   9.663   86.3  0.0409   69.8  0.1883  -69.3
 1.080  0.4686  176.4   9.479   85.8  0.0415   69.7  0.1857  -70.0
 1.100  0.4704  175.9   9.296   85.3  0.0421   69.6  0.1830  -70.8
 1.120  0.4716  175.5   9.137   84.9  0.0429   69.6  0.1806  -71.2
 1.140  0.4728  175.0   8.979   84.5  0.0436   69.7  0.1783  -71.6
 1.160  0.4741  174.6   8.822   84.0  0.0444   69.7  0.1760  -72.0
 1.180  0.4754  174.1   8.665   83.6  0.0451   69.8  0.1736  -72.5
 1.200  0.4767  173.7   8.508   83.1  0.0459   69.8  0.1713  -72.9
 1.220  0.4769  173.3   8.376   82.7  0.0466   69.6  0.1687  -73.2
 1.240  0.4770  172.9   8.245   82.3  0.0473   69.5  0.1662  -73.5
 1.260  0.4772  172.6   8.114   81.9  0.0480   69.3  0.1637  -73.8
 1.280  0.4775  172.2   7.984   81.5  0.0487   69.2  0.1611  -74.2
 1.300  0.4777  171.8   7.854   81.1  0.0494   69.0  0.1586  -74.5
 1.320  0.4788  171.4   7.739   80.7  0.0501   68.9  0.1565  -75.4
 1.340  0.4799  171.0   7.624   80.3  0.0508   68.7  0.1545  -76.4
 1.360  0.4810  170.6   7.510   79.9  0.0514   68.6  0.1525  -77.4
 1.380  0.4821  170.2   7.396   79.4  0.0521   68.4  0.1505  -78.4
 1.400  0.4833  169.8   7.283   79.0  0.0528   68.3  0.1486  -79.5
 1.420  0.4850  169.6   7.179   78.7  0.0534   68.2  0.1473  -80.1
 1.440  0.4868  169.3   7.076   78.3  0.0541   68.2  0.1460  -80.7
 1.460  0.4886  169.1   6.973   78.0  0.0547   68.1  0.1447  -81.3
 1.480  0.4903  168.8   6.870   77.6  0.0554   68.1  0.1434  -82.0
 1.500  0.4921  168.6   6.768   77.2  0.0560   68.0  0.1422  -82.6
 1.520  0.4921  168.2   6.682   76.9  0.0566   67.9  0.1400  -83.1
 1.540  0.4921  167.8   6.595   76.5  0.0573   67.8  0.1378  -83.5
 1.560  0.4921  167.4   6.509   76.2  0.0579   67.8  0.1356  -84.0
 1.580  0.4922  167.0   6.424   75.9  0.0586   67.7  0.1335  -84.5
 1.600  0.4923  166.6   6.338   75.5  0.0592   67.6  0.1313  -85.0
 1.620  0.4932  166.2   6.259   75.2  0.0599   67.4  0.1306  -86.2
 1.640  0.4941  165.9   6.181   74.8  0.0606   67.3  0.1299  -87.4
 1.660  0.4951  165.5   6.103   74.4  0.0614   67.1  0.1293  -88.6
 1.680  0.4960  165.2   6.025   74.1  0.0621   67.0  0.1287  -89.8
 1.700  0.4970  164.8   5.947   73.7  0.0628   66.8  0.1282  -91.0
 1.720  0.4974  164.6   5.877   73.4  0.0635   66.7  0.1280  -91.7
 1.740  0.4979  164.4   5.807   73.1  0.0642   66.6  0.1278  -92.3
 1.760  0.4984  164.1   5.737   72.8  0.0648   66.5  0.1276  -93.0
 1.780  0.4988  163.9   5.667   72.5  0.0655   66.4  0.1274  -93.6
 1.800  0.4993  163.7   5.597   72.2  0.0662   66.3  0.1273  -94.3
 1.820  0.4999  163.5   5.535   71.9  0.0670   66.2  0.1252  -94.7
 1.840  0.5005  163.3   5.474   71.6  0.0677   66.1  0.1232  -95.1
 1.860  0.5011  163.1   5.412   71.3  0.0685   65.9  0.1212  -95.6
 1.880  0.5018  162.9   5.351   71.0  0.0692   65.8  0.1191  -96.0
 1.900  0.5024  162.7   5.290   70.7  0.0700   65.7  0.1171  -96.5
 1.920  0.5031  162.2   5.232   70.4  0.0705   65.6  0.1173  -97.6
 1.940  0.5039  161.8   5.175   70.1  0.0710   65.5  0.1175  -98.6
 1.960  0.5047  161.3   5.117   69.8  0.0714   65.3  0.1177  -99.7
 1.980  0.5055  160.9   5.060   69.4  0.0719   65.2  0.1180 -100.7
 2.000  0.5064  160.4   5.003   69.1  0.0724   65.1  0.1183 -101.8
 2.020  0.5063  160.2   4.955   68.9  0.0731   65.0  0.1175 -102.4
 2.040  0.5063  160.0   4.907   68.6  0.0738   64.8  0.1168 -103.0
 2.060  0.5062  159.9   4.860   68.4  0.0744   64.7  0.1160 -103.6
 2.080  0.5062  159.7   4.812   68.1  0.0751   64.6  0.1153 -104.1
 2.100  0.5061  159.5   4.765   67.9  0.0758   64.5  0.1146 -104.8
 2.120  0.5061  159.3   4.717   67.6  0.0765   64.4  0.1139 -105.4
 2.140  0.5061  159.1   4.670   67.3  0.0772   64.2  0.1132 -106.0
 2.160  0.5060  159.0   4.623   67.1  0.0778   64.1  0.1125 -106.6
 2.180  0.5060  158.8   4.576   66.8  0.0785   64.0  0.1119 -107.3
 2.200  0.5060  158.6   4.529   66.5  0.0792   63.9  0.1112 -107.9
 2.220  0.5069  158.3   4.488   66.3  0.0798   63.8  0.1116 -108.6
 2.240  0.5077  158.0   4.448   66.0  0.0804   63.7  0.1120 -109.2
 2.260  0.5086  157.7   4.408   65.7  0.0810   63.6  0.1124 -109.9
 2.280  0.5095  157.3   4.367   65.5  0.0816   63.5  0.1129 -110.5
 2.300  0.5105  157.0   4.327   65.2  0.0822   63.4  0.1133 -111.2
 2.320  0.5114  156.7   4.287   64.9  0.0828   63.3  0.1138 -111.8
 2.340  0.5124  156.4   4.247   64.7  0.0834   63.2  0.1143 -112.4
 2.360  0.5133  156.1   4.207   64.4  0.0840   63.1  0.1148 -113.1
 2.380  0.5143  155.8   4.168   64.1  0.0846   63.0  0.1153 -113.7
 2.400  0.5153  155.5   4.128   63.8  0.0852   62.9  0.1158 -114.3
 2.420  0.5155  155.3   4.095   63.6  0.0859   62.8  0.1153 -115.2
 2.440  0.5158  155.2   4.062   63.3  0.0865   62.6  0.1148 -116.1
 2.460  0.5160  155.0   4.029   63.1  0.0872   62.5  0.1143 -117.0
 2.480  0.5163  154.9   3.996   62.8  0.0878   62.3  0.1138 -118.0
 2.500  0.5165  154.7   3.963   62.6  0.0885   62.2  0.1134 -118.9
 2.520  0.5168  154.5   3.930   62.3  0.0892   62.0  0.1130 -119.9
 2.540  0.5170  154.4   3.898   62.0  0.0898   61.9  0.1127 -120.8
 2.560  0.5173  154.2   3.865   61.8  0.0905   61.8  0.1124 -121.8
 2.580  0.5175  154.1   3.832   61.5  0.0911   61.6  0.1121 -122.7
 2.600  0.5178  153.9   3.800   61.2  0.0918   61.5  0.1118 -123.7
 2.620  0.5179  153.7   3.772   61.0  0.0925   61.4  0.1119 -124.0
 2.640  0.5179  153.5   3.744   60.7  0.0932   61.2  0.1121 -124.2
 2.660  0.5180  153.3   3.716   60.5  0.0939   61.1  0.1123 -124.5
 2.680  0.5181  153.1   3.688   60.3  0.0946   61.0  0.1124 -124.8
 2.700  0.5182  152.8   3.660   60.0  0.0953   60.9  0.1126 -125.1
 2.720  0.5183  152.6   3.632   59.8  0.0960   60.8  0.1127 -125.3
 2.740  0.5184  152.4   3.604   59.6  0.0967   60.6  0.1129 -125.6
 2.760  0.5185  152.2   3.576   59.3  0.0974   60.5  0.1131 -125.9
 2.780  0.5187  152.0   3.549   59.1  0.0981   60.4  0.1132 -126.1
 2.800  0.5188  151.8   3.521   58.8  0.0988   60.3  0.1134 -126.4
 2.820  0.5190  151.6   3.496   58.6  0.0994   60.2  0.1138 -126.8
 2.840  0.5193  151.4   3.472   58.3  0.1000   60.0  0.1142 -127.3
 2.860  0.5195  151.2   3.447   58.1  0.1006   59.9  0.1146 -127.7
 2.880  0.5197  151.0   3.423   57.8  0.1012   59.8  0.1150 -128.2
 2.900  0.5200  150.8   3.398   57.5  0.1018   59.6  0.1154 -128.6
 2.920  0.5202  150.7   3.374   57.3  0.1025   59.5  0.1158 -129.0
 2.940  0.5205  150.5   3.349   57.0  0.1031   59.4  0.1163 -129.4
 2.960  0.5208  150.3   3.325   56.8  0.1037   59.2  0.1167 -129.9
 2.980  0.5210  150.1   3.301   56.5  0.1043   59.1  0.1172 -130.3
 3.000  0.5213  149.9   3.277   56.2  0.1049   59.0  0.1176 -130.7
 3.100  0.5211  148.9   3.179   55.2  0.1080   58.2  0.1183 -132.4
 3.200  0.5211  148.0   3.083   54.1  0.1111   57.4  0.1190 -134.0
 3.300  0.5212  147.0   2.987   52.9  0.1143   56.7  0.1199 -135.6
 3.400  0.5215  146.1   2.893   51.7  0.1174   56.0  0.1209 -137.2
 3.500  0.5219  145.1   2.800   50.4  0.1206   55.4  0.1219 -138.8
 3.600  0.5219  144.5   2.731   49.4  0.1240   54.8  0.1215 -140.4
 3.700  0.5219  143.9   2.662   48.3  0.1274   54.2  0.1212 -142.0
 3.800  0.5220  143.2   2.595   47.2  0.1308   53.7  0.1210 -143.6
 3.900  0.5221  142.6   2.528   46.0  0.1343   53.2  0.1209 -145.3
 4.000  0.5223  142.0   2.463   44.8  0.1377   52.7  0.1209 -146.9
 4.100  0.5215  141.1   2.408   43.8  0.1407   51.7  0.1203 -148.5
 4.200  0.5208  140.2   2.353   42.7  0.1438   50.8  0.1198 -150.0
 4.300  0.5202  139.3   2.300   41.5  0.1470   49.9  0.1194 -151.6
 4.400  0.5198  138.4   2.247   40.3  0.1501   49.1  0.1190 -153.2
 4.500  0.5195  137.5   2.196   39.1  0.1533   48.3  0.1188 -154.8
 4.600  0.5195  136.6   2.155   38.0  0.1568   47.4  0.1179 -156.3
 4.700  0.5196  135.8   2.115   36.9  0.1604   46.6  0.1172 -157.7
 4.800  0.5199  134.9   2.076   35.7  0.1639   45.8  0.1165 -159.2
 4.900  0.5202  134.1   2.037   34.5  0.1676   45.0  0.1158 -160.8
 5.000  0.5207  133.2   2.000   33.2  0.1712   44.3  0.1153 -162.3
 5.100  0.5184  132.0   1.962   32.1  0.1744   43.4  0.1159 -164.8
 5.200  0.5164  130.8   1.926   31.0  0.1776   42.4  0.1167 -167.3
 5.300  0.5145  129.6   1.890   29.8  0.1809   41.6  0.1177 -169.8
 5.400  0.5129  128.3   1.854   28.6  0.1842   40.7  0.1190 -172.2
 5.500  0.5116  127.1   1.820   27.3  0.1876   39.9  0.1204 -174.6
 5.600  0.5116  126.0   1.792   26.2  0.1909   38.9  0.1199 -176.8
 5.700  0.5118  124.8   1.766   25.2  0.1942   38.0  0.1197 -179.0
 5.800  0.5121  123.7   1.739   24.0  0.1976   37.1  0.1196  178.8
 5.900  0.5127  122.5   1.714   22.9  0.2010   36.2  0.1196  176.6
 6.000  0.5135  121.4   1.689   21.7  0.2045   35.4  0.1199  174.4
!
!  f       NFmin   Gammaopt  rn/50
! GHz       dB    MAG  ANG    -
!
! noise parameter not available yet for this operation point!
!
! (c) 2015  Infineon Technologies AG, Munich
