! Infineon Technologies  Discrete & RF Semiconductors
! BFP540FESD
! VCE =  2.0 V,  IC =  60 mA
! Common Emitter S-Parameters:                            Nov 2015
# GHz  S  MA  R  50
!  f         S11            S21            S12            S22
! GHz     MAG   ANG      MAG   ANG      MAG   ANG      MAG   ANG
 0.010  0.1577  -10.0  57.573  177.6  0.0014  134.8  0.8263   -1.7
 0.015  0.1572  -14.9  56.813  176.7  0.0014  121.3  0.8320   -1.4
 0.020  0.1578  -19.8  56.068  175.8  0.0014  107.7  0.8378   -1.1
 0.025  0.1588  -23.0  56.032  174.6  0.0018  101.3  0.8390   -2.3
 0.030  0.1602  -26.1  56.020  173.4  0.0022   97.3  0.8406   -3.4
 0.035  0.1621  -29.1  56.033  172.2  0.0027   94.6  0.8425   -4.6
 0.040  0.1644  -32.1  56.071  171.0  0.0031   92.6  0.8448   -5.7
 0.045  0.1672  -35.0  56.133  169.8  0.0036   91.1  0.8474   -6.9
 0.050  0.1704  -37.8  56.220  168.6  0.0040   90.0  0.8503   -8.0
 0.055  0.1700  -40.7  55.816  167.5  0.0042   89.3  0.8464   -9.0
 0.060  0.1700  -43.6  55.434  166.3  0.0044   88.7  0.8428  -10.0
 0.065  0.1705  -46.6  55.075  165.1  0.0047   88.1  0.8394  -11.0
 0.070  0.1714  -49.4  54.740  164.0  0.0049   87.6  0.8364  -12.1
 0.075  0.1727  -52.3  54.427  162.8  0.0051   87.1  0.8336  -13.1
 0.080  0.1745  -55.1  54.139  161.6  0.0053   86.6  0.8310  -14.2
 0.085  0.1767  -57.8  53.875  160.3  0.0055   86.2  0.8288  -15.2
 0.090  0.1793  -60.5  53.636  159.1  0.0058   85.9  0.8268  -16.3
 0.095  0.1822  -63.1  53.423  157.9  0.0060   85.5  0.8251  -17.3
 0.100  0.1855  -65.6  53.234  156.6  0.0062   85.2  0.8237  -18.4
 0.105  0.1872  -68.2  52.772  155.7  0.0065   84.1  0.8171  -19.2
 0.110  0.1893  -70.7  52.325  154.7  0.0068   83.1  0.8108  -20.0
 0.115  0.1917  -73.1  51.893  153.7  0.0071   82.1  0.8045  -20.8
 0.120  0.1945  -75.5  51.476  152.7  0.0073   81.2  0.7985  -21.7
 0.125  0.1976  -77.9  51.075  151.7  0.0076   80.4  0.7926  -22.5
 0.130  0.2011  -80.1  50.691  150.7  0.0079   79.7  0.7868  -23.4
 0.135  0.2048  -82.3  50.323  149.6  0.0082   79.0  0.7813  -24.2
 0.140  0.2088  -84.4  49.972  148.6  0.0085   78.4  0.7760  -25.1
 0.145  0.2131  -86.4  49.638  147.5  0.0088   77.8  0.7708  -26.0
 0.150  0.2176  -88.3  49.322  146.4  0.0091   77.2  0.7658  -26.9
 0.155  0.2185  -89.8  48.792  145.6  0.0093   76.9  0.7587  -27.6
 0.160  0.2196  -91.4  48.271  144.8  0.0095   76.6  0.7516  -28.2
 0.165  0.2209  -92.9  47.761  143.9  0.0097   76.3  0.7447  -28.9
 0.170  0.2223  -94.4  47.262  143.1  0.0099   76.1  0.7379  -29.6
 0.175  0.2239  -95.9  46.773  142.2  0.0101   75.8  0.7312  -30.3
 0.180  0.2256  -97.3  46.296  141.3  0.0103   75.6  0.7246  -31.1
 0.185  0.2274  -98.8  45.831  140.4  0.0105   75.3  0.7181  -31.8
 0.190  0.2294 -100.2  45.377  139.4  0.0107   75.1  0.7117  -32.6
 0.195  0.2315 -101.5  44.936  138.5  0.0109   74.9  0.7055  -33.3
 0.200  0.2338 -102.9  44.507  137.5  0.0111   74.7  0.6994  -34.1
 0.220  0.2392 -108.1  42.659  134.9  0.0119   74.4  0.6745  -36.3
 0.240  0.2464 -113.0  40.909  132.0  0.0127   74.1  0.6507  -38.7
 0.260  0.2539 -117.3  39.256  129.4  0.0135   73.3  0.6276  -40.7
 0.280  0.2613 -121.2  37.667  127.0  0.0142   72.1  0.6048  -42.3
 0.300  0.2698 -124.9  36.146  124.5  0.0150   71.0  0.5825  -44.1
 0.320  0.2721 -127.9  34.780  122.9  0.0157   71.1  0.5636  -45.2
 0.340  0.2752 -130.8  33.442  121.3  0.0165   71.1  0.5449  -46.4
 0.360  0.2790 -133.7  32.136  119.4  0.0172   71.2  0.5265  -47.7
 0.380  0.2834 -136.5  30.865  117.4  0.0180   71.2  0.5083  -49.1
 0.400  0.2885 -139.2  29.634  115.3  0.0187   71.3  0.4905  -50.6
 0.420  0.2908 -141.2  28.655  114.1  0.0194   71.2  0.4760  -51.4
 0.440  0.2935 -143.2  27.690  112.9  0.0200   71.1  0.4616  -52.3
 0.450  0.2950 -144.2  27.212  112.2  0.0203   71.0  0.4545  -52.8
 0.460  0.2965 -145.2  26.739  111.5  0.0207   71.0  0.4473  -53.3
 0.480  0.2999 -147.1  25.803  110.1  0.0213   70.9  0.4332  -54.3
 0.500  0.3036 -149.0  24.886  108.5  0.0220   70.8  0.4192  -55.4
 0.520  0.3053 -150.4  24.140  107.6  0.0227   70.9  0.4088  -55.9
 0.540  0.3073 -151.9  23.399  106.7  0.0233   71.0  0.3985  -56.5
 0.560  0.3094 -153.3  22.666  105.6  0.0240   71.1  0.3882  -57.1
 0.580  0.3117 -154.6  21.940  104.6  0.0246   71.2  0.3780  -57.7
 0.600  0.3142 -156.0  21.223  103.4  0.0253   71.3  0.3678  -58.4
 0.620  0.3150 -157.2  20.676  102.6  0.0260   71.2  0.3602  -58.9
 0.640  0.3160 -158.3  20.132  101.9  0.0267   71.0  0.3526  -59.4
 0.660  0.3171 -159.4  19.593  101.0  0.0274   70.9  0.3451  -59.9
 0.680  0.3183 -160.6  19.058  100.1  0.0281   70.8  0.3376  -60.5
 0.700  0.3196 -161.7  18.528   99.2  0.0288   70.7  0.3301  -61.1
 0.720  0.3219 -162.8  18.085   98.5  0.0294   70.7  0.3232  -61.7
 0.740  0.3242 -163.8  17.645   97.8  0.0300   70.7  0.3164  -62.3
 0.760  0.3267 -164.9  17.208   97.1  0.0307   70.8  0.3096  -63.0
 0.780  0.3293 -165.9  16.774   96.3  0.0313   70.8  0.3029  -63.7
 0.800  0.3320 -166.9  16.343   95.5  0.0319   70.8  0.2962  -64.4
 0.820  0.3328 -167.7  15.990   94.9  0.0327   70.8  0.2911  -64.8
 0.840  0.3336 -168.6  15.638   94.3  0.0335   70.8  0.2860  -65.2
 0.860  0.3346 -169.4  15.289   93.7  0.0343   70.8  0.2810  -65.6
 0.880  0.3355 -170.2  14.941   93.1  0.0351   70.8  0.2759  -66.0
 0.900  0.3366 -171.0  14.595   92.4  0.0359   70.8  0.2709  -66.4
 0.920  0.3373 -171.7  14.310   91.9  0.0365   70.6  0.2666  -66.8
 0.940  0.3380 -172.3  14.025   91.4  0.0372   70.4  0.2623  -67.2
 0.960  0.3387 -173.0  13.742   90.8  0.0378   70.2  0.2580  -67.6
 0.980  0.3396 -173.6  13.460   90.3  0.0385   70.1  0.2538  -68.1
 1.000  0.3404 -174.3  13.180   89.7  0.0391   69.9  0.2495  -68.5
 1.020  0.3421 -174.9  12.944   89.2  0.0397   69.9  0.2458  -69.1
 1.040  0.3438 -175.5  12.709   88.8  0.0404   69.9  0.2422  -69.8
 1.060  0.3456 -176.1  12.475   88.3  0.0410   69.9  0.2385  -70.5
 1.080  0.3474 -176.6  12.242   87.7  0.0417   69.9  0.2350  -71.2
 1.100  0.3492 -177.2  12.010   87.2  0.0423   69.9  0.2314  -71.9
 1.120  0.3509 -177.9  11.807   86.8  0.0430   69.8  0.2283  -72.3
 1.140  0.3526 -178.5  11.604   86.4  0.0437   69.8  0.2253  -72.7
 1.160  0.3544 -179.2  11.403   85.9  0.0444   69.7  0.2222  -73.2
 1.180  0.3562 -179.9  11.201   85.5  0.0451   69.7  0.2192  -73.6
 1.200  0.3581  179.5  11.001   85.0  0.0458   69.6  0.2162  -74.1
 1.220  0.3577  179.1  10.831   84.6  0.0465   69.6  0.2131  -74.4
 1.240  0.3574  178.7  10.661   84.2  0.0472   69.6  0.2099  -74.6
 1.260  0.3571  178.4  10.492   83.8  0.0478   69.5  0.2068  -74.9
 1.280  0.3568  178.0  10.324   83.3  0.0485   69.5  0.2037  -75.2
 1.300  0.3565  177.6  10.156   82.9  0.0492   69.5  0.2006  -75.5
 1.320  0.3580  177.1  10.008   82.5  0.0498   69.4  0.1982  -76.4
 1.340  0.3595  176.6   9.861   82.1  0.0504   69.3  0.1958  -77.3
 1.360  0.3611  176.1   9.714   81.7  0.0510   69.1  0.1935  -78.2
 1.380  0.3627  175.6   9.567   81.3  0.0516   69.0  0.1912  -79.1
 1.400  0.3643  175.1   9.421   80.9  0.0522   68.9  0.1890  -80.1
 1.420  0.3661  174.8   9.289   80.5  0.0529   68.8  0.1870  -80.6
 1.440  0.3679  174.5   9.157   80.2  0.0537   68.7  0.1850  -81.2
 1.460  0.3697  174.1   9.026   79.8  0.0544   68.6  0.1830  -81.7
 1.480  0.3715  173.8   8.895   79.4  0.0552   68.5  0.1810  -82.3
 1.500  0.3733  173.5   8.764   79.0  0.0559   68.4  0.1791  -82.9
 1.520  0.3733  173.0   8.651   78.7  0.0566   68.3  0.1765  -83.3
 1.540  0.3733  172.5   8.539   78.3  0.0573   68.3  0.1739  -83.7
 1.560  0.3734  172.1   8.427   78.0  0.0581   68.2  0.1714  -84.2
 1.580  0.3735  171.6   8.315   77.7  0.0588   68.2  0.1688  -84.6
 1.600  0.3736  171.1   8.204   77.3  0.0595   68.1  0.1663  -85.1
 1.620  0.3747  170.7   8.102   77.0  0.0601   67.9  0.1652  -86.1
 1.640  0.3757  170.3   8.001   76.6  0.0607   67.7  0.1641  -87.1
 1.660  0.3768  169.9   7.899   76.2  0.0614   67.5  0.1630  -88.1
 1.680  0.3780  169.5   7.799   75.9  0.0620   67.4  0.1620  -89.2
 1.700  0.3791  169.1   7.698   75.5  0.0626   67.2  0.1611  -90.2
 1.720  0.3798  168.8   7.607   75.2  0.0633   67.0  0.1604  -90.8
 1.740  0.3804  168.5   7.516   74.9  0.0640   66.8  0.1598  -91.4
 1.760  0.3811  168.3   7.426   74.6  0.0646   66.6  0.1592  -92.0
 1.780  0.3818  168.0   7.335   74.3  0.0653   66.4  0.1586  -92.6
 1.800  0.3825  167.7   7.245   74.0  0.0660   66.2  0.1580  -93.2
 1.820  0.3833  167.5   7.165   73.7  0.0667   66.2  0.1556  -93.6
 1.840  0.3841  167.2   7.085   73.4  0.0674   66.2  0.1532  -94.0
 1.860  0.3849  167.0   7.006   73.1  0.0682   66.1  0.1508  -94.5
 1.880  0.3857  166.7   6.926   72.8  0.0689   66.1  0.1485  -94.9
 1.900  0.3865  166.5   6.847   72.5  0.0696   66.1  0.1461  -95.4
 1.920  0.3876  166.0   6.772   72.2  0.0701   65.9  0.1458  -96.3
 1.940  0.3887  165.5   6.697   71.9  0.0707   65.6  0.1455  -97.2
 1.960  0.3898  165.0   6.623   71.6  0.0712   65.4  0.1453  -98.2
 1.980  0.3910  164.5   6.548   71.2  0.0718   65.2  0.1451  -99.1
 2.000  0.3922  164.0   6.474   70.9  0.0723   65.0  0.1449 -100.0
 2.020  0.3922  163.8   6.412   70.7  0.0730   64.9  0.1439 -100.5
 2.040  0.3922  163.6   6.350   70.4  0.0737   64.8  0.1430 -101.0
 2.060  0.3922  163.4   6.288   70.2  0.0744   64.6  0.1420 -101.6
 2.080  0.3922  163.2   6.226   69.9  0.0751   64.5  0.1411 -102.1
 2.100  0.3922  163.0   6.165   69.7  0.0757   64.4  0.1402 -102.7
 2.120  0.3922  162.9   6.103   69.4  0.0764   64.3  0.1393 -103.2
 2.140  0.3922  162.7   6.042   69.1  0.0771   64.2  0.1384 -103.8
 2.160  0.3922  162.5   5.981   68.9  0.0778   64.1  0.1375 -104.3
 2.180  0.3923  162.3   5.920   68.6  0.0785   64.0  0.1367 -104.9
 2.200  0.3923  162.1   5.859   68.3  0.0792   63.9  0.1358 -105.5
 2.220  0.3932  161.7   5.806   68.1  0.0798   63.8  0.1358 -106.1
 2.240  0.3941  161.3   5.754   67.8  0.0803   63.7  0.1358 -106.7
 2.260  0.3951  161.0   5.701   67.5  0.0809   63.6  0.1359 -107.4
 2.280  0.3960  160.6   5.649   67.3  0.0814   63.5  0.1359 -108.0
 2.300  0.3970  160.2   5.596   67.0  0.0820   63.4  0.1360 -108.6
 2.320  0.3980  159.9   5.544   66.7  0.0826   63.3  0.1361 -109.2
 2.340  0.3990  159.5   5.492   66.5  0.0831   63.2  0.1362 -109.8
 2.360  0.4000  159.1   5.440   66.2  0.0837   63.1  0.1363 -110.5
 2.380  0.4010  158.8   5.389   65.9  0.0842   63.0  0.1364 -111.1
 2.400  0.4021  158.4   5.337   65.6  0.0848   62.9  0.1366 -111.7
 2.420  0.4023  158.3   5.294   65.4  0.0855   62.8  0.1358 -112.5
 2.440  0.4026  158.1   5.250   65.1  0.0861   62.6  0.1351 -113.3
 2.460  0.4029  158.0   5.207   64.9  0.0868   62.5  0.1344 -114.1
 2.480  0.4031  157.8   5.164   64.6  0.0874   62.4  0.1337 -114.9
 2.500  0.4034  157.7   5.121   64.4  0.0881   62.3  0.1331 -115.8
 2.520  0.4036  157.6   5.078   64.2  0.0888   62.2  0.1324 -116.6
 2.540  0.4039  157.4   5.035   63.9  0.0894   62.0  0.1318 -117.4
 2.560  0.4042  157.3   4.992   63.6  0.0901   61.9  0.1313 -118.3
 2.580  0.4044  157.1   4.950   63.4  0.0907   61.8  0.1307 -119.1
 2.600  0.4047  157.0   4.907   63.1  0.0914   61.7  0.1302 -120.0
 2.620  0.4049  156.8   4.870   62.9  0.0922   61.5  0.1301 -120.3
 2.640  0.4050  156.6   4.834   62.7  0.0929   61.4  0.1300 -120.6
 2.660  0.4052  156.3   4.797   62.4  0.0937   61.3  0.1300 -120.9
 2.680  0.4054  156.1   4.760   62.2  0.0945   61.1  0.1299 -121.2
 2.700  0.4056  155.9   4.724   62.0  0.0952   61.0  0.1298 -121.4
 2.720  0.4058  155.7   4.688   61.8  0.0960   60.8  0.1297 -121.7
 2.740  0.4060  155.5   4.651   61.5  0.0968   60.7  0.1297 -122.0
 2.760  0.4062  155.2   4.615   61.3  0.0976   60.6  0.1296 -122.3
 2.780  0.4064  155.0   4.579   61.0  0.0983   60.4  0.1296 -122.6
 2.800  0.4066  154.8   4.543   60.8  0.0991   60.3  0.1295 -122.9
 2.820  0.4067  154.6   4.511   60.6  0.0996   60.2  0.1297 -123.3
 2.840  0.4068  154.4   4.479   60.3  0.1002   60.0  0.1299 -123.8
 2.860  0.4069  154.2   4.446   60.1  0.1007   59.9  0.1302 -124.2
 2.880  0.4071  154.0   4.414   59.8  0.1013   59.8  0.1304 -124.6
 2.900  0.4072  153.7   4.382   59.6  0.1018   59.7  0.1307 -125.0
 2.920  0.4073  153.5   4.351   59.3  0.1023   59.6  0.1309 -125.4
 2.940  0.4075  153.3   4.319   59.1  0.1029   59.4  0.1312 -125.9
 2.960  0.4076  153.1   4.287   58.8  0.1034   59.3  0.1314 -126.3
 2.980  0.4077  152.9   4.256   58.6  0.1040   59.2  0.1317 -126.7
 3.000  0.4079  152.7   4.224   58.3  0.1045   59.1  0.1320 -127.1
 3.100  0.4082  151.7   4.096   57.3  0.1076   58.2  0.1319 -128.8
 3.200  0.4086  150.8   3.969   56.2  0.1108   57.4  0.1319 -130.5
 3.300  0.4091  149.8   3.844   55.1  0.1139   56.6  0.1320 -132.2
 3.400  0.4098  148.9   3.720   53.9  0.1171   55.8  0.1322 -133.9
 3.500  0.4105  147.9   3.598   52.6  0.1203   55.1  0.1326 -135.6
 3.600  0.4102  147.4   3.508   51.6  0.1237   54.5  0.1314 -137.1
 3.700  0.4100  146.9   3.418   50.6  0.1271   53.9  0.1304 -138.7
 3.800  0.4098  146.4   3.330   49.5  0.1305   53.4  0.1294 -140.3
 3.900  0.4096  145.9   3.243   48.4  0.1340   52.9  0.1286 -141.9
 4.000  0.4095  145.4   3.157   47.2  0.1374   52.4  0.1278 -143.5
 4.100  0.4089  144.6   3.084   46.2  0.1404   51.4  0.1269 -145.0
 4.200  0.4083  143.8   3.013   45.2  0.1435   50.5  0.1261 -146.6
 4.300  0.4078  142.9   2.942   44.1  0.1467   49.6  0.1254 -148.2
 4.400  0.4074  142.1   2.873   42.9  0.1498   48.7  0.1247 -149.8
 4.500  0.4071  141.3   2.805   41.7  0.1530   47.9  0.1242 -151.4
 4.600  0.4076  140.6   2.751   40.6  0.1564   47.1  0.1229 -152.8
 4.700  0.4083  139.8   2.699   39.6  0.1598   46.2  0.1217 -154.2
 4.800  0.4089  139.1   2.647   38.4  0.1632   45.5  0.1205 -155.7
 4.900  0.4097  138.3   2.596   37.2  0.1667   44.7  0.1195 -157.2
 5.000  0.4105  137.6   2.547   36.0  0.1702   44.0  0.1185 -158.7
 5.100  0.4085  136.3   2.498   35.0  0.1733   43.0  0.1185 -161.2
 5.200  0.4068  135.0   2.451   33.9  0.1765   42.1  0.1188 -163.8
 5.300  0.4053  133.7   2.404   32.8  0.1797   41.2  0.1193 -166.3
 5.400  0.4039  132.4   2.358   31.6  0.1829   40.3  0.1200 -168.7
 5.500  0.4028  131.1   2.313   30.4  0.1862   39.5  0.1209 -171.2
 5.600  0.4030  130.0   2.277   29.4  0.1896   38.6  0.1200 -173.3
 5.700  0.4034  128.9   2.241   28.3  0.1930   37.8  0.1192 -175.5
 5.800  0.4039  127.8   2.206   27.2  0.1964   37.0  0.1186 -177.6
 5.900  0.4045  126.7   2.172   26.1  0.1999   36.2  0.1182 -179.8
 6.000  0.4053  125.6   2.139   24.9  0.2034   35.4  0.1179  178.0
!
!  f       NFmin   Gammaopt  rn/50
! GHz       dB    MAG  ANG    -
!
! noise parameter not available yet for this operation point!
!
! (c) 2015  Infineon Technologies AG, Munich
