! Infineon Technologies  Discrete & RF Semiconductors
! BFP520
! VCE =  2.0 V,  IC =  25 mA
! Common Emitter S-Parameters:                            Oct 2015
# GHz  S  MA  R  50
!  f         S11            S21            S12            S22
! GHz     MAG   ANG      MAG   ANG      MAG   ANG      MAG   ANG
 0.030  0.5742   -2.9  34.291  177.1  0.0016  100.1  0.9202    0.1
 0.040  0.5750   -3.8  34.223  175.9  0.0018   96.4  0.9260   -0.6
 0.050  0.5723   -4.0  33.994  174.9  0.0021   87.1  0.9303   -1.3
 0.060  0.5753   -5.6  33.963  174.3  0.0024   90.8  0.9338   -1.9
 0.070  0.5713   -6.8  34.137  173.2  0.0028   90.3  0.9361   -2.6
 0.080  0.5715   -7.8  33.982  172.6  0.0032   89.6  0.9381   -3.3
 0.090  0.5708   -8.7  33.950  171.7  0.0036   89.1  0.9389   -4.0
 0.100  0.5720   -9.7  33.738  170.8  0.0039   88.3  0.9396   -4.6
 0.110  0.5723  -10.7  33.743  169.9  0.0042   86.9  0.9400   -5.3
 0.120  0.5690  -11.7  33.731  169.0  0.0046   86.2  0.9399   -6.0
 0.130  0.5686  -12.5  33.636  168.1  0.0050   85.2  0.9394   -6.6
 0.140  0.5663  -13.5  33.626  167.1  0.0052   84.7  0.9389   -7.3
 0.150  0.5636  -14.5  33.442  166.1  0.0057   84.6  0.9377   -7.9
 0.200  0.5556  -19.1  32.996  161.8  0.0074   82.1  0.9303  -11.0
 0.250  0.5442  -23.8  32.376  157.5  0.0091   80.9  0.9187  -14.1
 0.300  0.5341  -28.3  31.615  153.3  0.0107   79.1  0.9038  -16.9
 0.350  0.5215  -32.7  30.820  149.3  0.0123   77.5  0.8864  -19.6
 0.400  0.5064  -36.7  29.933  145.5  0.0138   75.8  0.8678  -22.1
 0.450  0.4923  -40.9  29.038  141.8  0.0152   74.7  0.8483  -24.5
 0.500  0.4769  -44.7  28.116  138.4  0.0167   73.6  0.8275  -26.8
 0.600  0.4474  -52.3  26.318  131.8  0.0193   71.6  0.7859  -30.9
 0.700  0.4179  -59.2  24.536  126.0  0.0219   69.9  0.7451  -34.6
 0.800  0.3905  -65.9  22.848  120.6  0.0242   68.4  0.7067  -37.7
 0.900  0.3655  -72.1  21.335  115.9  0.0265   67.4  0.6705  -40.6
 1.000  0.3411  -78.2  19.912  111.6  0.0287   66.4  0.6370  -43.1
 1.100  0.3206  -83.9  18.609  107.6  0.0309   65.6  0.6063  -45.4
 1.200  0.3014  -89.6  17.442  103.9  0.0330   64.8  0.5778  -47.6
 1.300  0.2854  -95.2  16.379  100.5  0.0351   64.1  0.5518  -49.6
 1.400  0.2705 -100.7  15.396   97.4  0.0372   63.5  0.5269  -51.4
 1.500  0.2564 -106.4  14.536   94.4  0.0394   62.8  0.5052  -53.2
 1.600  0.2444 -111.9  13.729   91.7  0.0415   62.2  0.4834  -54.8
 1.700  0.2341 -117.2  13.002   89.0  0.0435   61.5  0.4647  -56.4
 1.800  0.2272 -122.5  12.342   86.6  0.0457   60.9  0.4463  -58.0
 1.900  0.2191 -128.0  11.742   84.3  0.0478   60.3  0.4293  -59.5
 2.000  0.2122 -133.1  11.189   82.0  0.0500   59.6  0.4130  -60.9
 2.100  0.2067 -138.6  10.688   80.0  0.0521   58.9  0.3978  -62.3
 2.200  0.2032 -144.3  10.202   77.8  0.0543   58.2  0.3829  -63.8
 2.300  0.1999 -149.4   9.781   75.9  0.0564   57.5  0.3687  -65.1
 2.400  0.1983 -154.7   9.373   73.8  0.0586   56.8  0.3547  -66.6
 2.500  0.1969 -159.7   9.004   72.0  0.0607   56.0  0.3415  -67.9
 2.600  0.1971 -164.8   8.645   70.1  0.0629   55.3  0.3285  -69.4
 2.700  0.1972 -169.3   8.329   68.4  0.0650   54.4  0.3158  -70.8
 2.800  0.1985 -173.8   8.021   66.6  0.0672   53.7  0.3033  -72.4
 2.900  0.2009 -178.3   7.745   65.0  0.0694   52.8  0.2915  -73.9
 3.000  0.2044  177.4   7.476   63.3  0.0716   52.0  0.2799  -75.6
 3.100  0.2071  173.2   7.245   61.9  0.0736   51.0  0.2689  -77.2
 3.200  0.2109  169.2   7.019   60.4  0.0758   50.1  0.2581  -79.0
 3.300  0.2156  165.4   6.798   58.8  0.0779   49.2  0.2476  -80.9
 3.400  0.2212  161.7   6.582   57.1  0.0800   48.3  0.2374  -83.0
 3.500  0.2278  158.3   6.372   55.3  0.0822   47.5  0.2275  -85.3
 3.600  0.2333  154.8   6.196   54.0  0.0841   46.5  0.2177  -87.4
 3.700  0.2397  151.6   6.023   52.6  0.0861   45.5  0.2082  -89.8
 3.800  0.2467  148.5   5.853   51.1  0.0881   44.6  0.1991  -92.5
 3.900  0.2545  145.6   5.688   49.5  0.0901   43.7  0.1905  -95.3
 4.000  0.2629  142.8   5.527   47.9  0.0922   42.8  0.1824  -98.5
 4.100  0.2697  140.3   5.387   46.6  0.0940   41.8  0.1744 -101.3
 4.200  0.2769  138.0   5.250   45.3  0.0959   40.9  0.1669 -104.4
 4.300  0.2846  135.8   5.116   43.9  0.0977   39.9  0.1600 -107.8
 4.400  0.2927  133.6   4.985   42.4  0.0997   39.0  0.1536 -111.4
 4.500  0.3012  131.6   4.857   40.8  0.1016   38.2  0.1480 -115.4
 4.600  0.3075  129.7   4.745   39.6  0.1033   37.2  0.1416 -118.6
 4.700  0.3142  127.7   4.635   38.3  0.1051   36.3  0.1358 -122.1
 4.800  0.3212  125.9   4.528   37.0  0.1069   35.4  0.1305 -125.9
 4.900  0.3285  124.2   4.423   35.6  0.1087   34.5  0.1258 -130.0
 5.000  0.3362  122.5   4.321   34.1  0.1105   33.7  0.1218 -134.3
 5.100  0.3411  121.0   4.230   33.0  0.1122   32.8  0.1172 -137.6
 5.200  0.3463  119.5   4.140   31.8  0.1140   31.8  0.1131 -141.2
 5.300  0.3517  118.1   4.052   30.6  0.1157   31.0  0.1094 -145.0
 5.400  0.3574  116.8   3.967   29.3  0.1175   30.1  0.1063 -149.0
 5.500  0.3632  115.4   3.883   27.9  0.1194   29.3  0.1037 -153.3
 5.600  0.3662  114.3   3.809   26.8  0.1211   28.3  0.1014 -157.1
 5.700  0.3694  113.1   3.737   25.6  0.1228   27.4  0.0995 -161.0
 5.800  0.3727  112.0   3.666   24.4  0.1246   26.5  0.0982 -165.1
 5.900  0.3762  110.8   3.597   23.1  0.1264   25.6  0.0974 -169.3
 6.000  0.3798  109.7   3.530   21.8  0.1282   24.7  0.0971 -173.6
 6.100  0.3834  108.6   3.468   20.7  0.1298   23.7  0.0969 -177.7
 6.200  0.3872  107.4   3.408   19.5  0.1314   22.7  0.0973  178.1
 6.300  0.3911  106.3   3.350   18.3  0.1331   21.8  0.0981  174.0
 6.400  0.3951  105.2   3.293   17.1  0.1348   20.8  0.0995  170.0
 6.500  0.3993  104.2   3.237   15.8  0.1366   19.9  0.1013  166.1
 6.600  0.4033  102.8   3.184   14.6  0.1381   19.0  0.1024  162.1
 6.700  0.4076  101.4   3.133   13.4  0.1396   18.0  0.1040  158.3
 6.800  0.4121  100.1   3.082   12.2  0.1412   17.1  0.1060  154.6
 6.900  0.4169   98.8   3.033   11.0  0.1428   16.2  0.1085  151.0
 7.000  0.4218   97.5   2.986    9.7  0.1444   15.3  0.1114  147.6
 7.100  0.4269   96.0   2.940    8.5  0.1458   14.3  0.1143  144.1
 7.200  0.4322   94.6   2.896    7.3  0.1473   13.3  0.1177  140.8
 7.300  0.4378   93.2   2.853    6.1  0.1488   12.3  0.1214  137.7
 7.400  0.4436   91.8   2.812    4.9  0.1504   11.3  0.1255  134.8
 7.500  0.4497   90.5   2.771    3.6  0.1520   10.4  0.1298  132.0
 7.600  0.4561   89.0   2.729    2.3  0.1532    9.3  0.1344  128.7
 7.700  0.4628   87.6   2.689    1.1  0.1545    8.3  0.1394  125.6
 7.800  0.4698   86.3   2.650   -0.2  0.1558    7.2  0.1449  122.8
 7.900  0.4770   84.9   2.612   -1.6  0.1572    6.2  0.1506  120.1
 8.000  0.4845   83.6   2.576   -3.0  0.1586    5.2  0.1566  117.6
 8.500  0.5243   77.0   2.369   -9.3  0.1632   -0.2  0.1940  104.4
 9.000  0.5699   71.6   2.174  -15.2  0.1652   -5.2  0.2488   94.5
 9.500  0.6201   67.2   1.991  -20.1  0.1657   -9.2  0.3108   88.1
10.000  0.6586   63.3   1.834  -24.4  0.1668  -12.3  0.3635   84.5
10.500  0.6843   60.2   1.715  -27.6  0.1701  -14.4  0.3945   82.3
11.000  0.6920   59.1   1.679  -30.5  0.1796  -16.9  0.4109   82.6
11.500  0.7065   59.0   1.667  -36.3  0.1897  -21.8  0.4307   83.6
12.000  0.7195   57.1   1.586  -42.9  0.1933  -27.1  0.4499   82.4
12.500  0.7071   53.9   1.495  -47.9  0.1963  -31.2  0.4424   78.6
13.000  0.6762   51.7   1.434  -52.5  0.2007  -35.8  0.4171   75.7
13.500  0.6752   50.3   1.409  -58.5  0.2059  -40.8  0.4175   75.6
14.000  0.7046   46.1   1.325  -66.3  0.2035  -47.4  0.4406   72.2
14.500  0.7146   40.1   1.188  -70.2  0.1956  -50.2  0.4451   63.5
15.000  0.7030   36.0   1.151  -71.6  0.2002  -52.1  0.4409   55.6
!
!  f       NFmin   Gammaopt  rn/50
! GHz       dB    MAG  ANG    -
 0.450      2.26  0.05  -41   0.28
 0.900      2.24  0.05  -56   0.30
 1.900      2.41  0.06  -76   0.30
 2.400      2.41  0.09  -92   0.29
 3.500      2.36  0.10  -92   0.31
!
! (c) 2015  Infineon Technologies AG, Munich
