! Infineon Technologies  Discrete & RF Semiconductors
! BFP540FESD
! VCE =  4.5 V,  IC =  6.0 mA
! Common Emitter S-Parameters:                            Nov 2015
# GHz  S  MA  R  50
!  f         S11            S21            S12            S22
! GHz     MAG   ANG      MAG   ANG      MAG   ANG      MAG   ANG
 0.010  0.8430   -0.3  19.232  178.2  0.0022   25.0  0.9654   -3.4
 0.015  0.8360   -1.9  18.867  178.1  0.0024   32.3  0.9695   -2.4
 0.020  0.8296   -3.5  18.502  177.9  0.0027   38.2  0.9738   -1.4
 0.025  0.8321   -3.8  18.515  177.5  0.0030   43.3  0.9718   -1.7
 0.030  0.8346   -4.2  18.528  177.0  0.0032   47.5  0.9698   -2.0
 0.035  0.8371   -4.5  18.543  176.6  0.0035   51.0  0.9678   -2.3
 0.040  0.8396   -4.8  18.558  176.2  0.0039   53.9  0.9658   -2.6
 0.045  0.8422   -5.2  18.575  175.7  0.0042   56.4  0.9639   -2.9
 0.050  0.8448   -5.5  18.593  175.3  0.0045   58.6  0.9620   -3.2
 0.055  0.8436   -6.1  18.568  174.9  0.0049   60.8  0.9614   -3.5
 0.060  0.8424   -6.6  18.544  174.4  0.0052   62.8  0.9608   -3.9
 0.065  0.8413   -7.2  18.521  174.0  0.0056   64.4  0.9603   -4.2
 0.070  0.8403   -7.8  18.500  173.5  0.0060   65.9  0.9598   -4.5
 0.075  0.8394   -8.4  18.479  173.1  0.0064   67.2  0.9593   -4.8
 0.080  0.8386   -9.0  18.460  172.6  0.0067   68.3  0.9589   -5.2
 0.085  0.8379   -9.5  18.442  172.2  0.0071   69.3  0.9584   -5.5
 0.090  0.8372  -10.1  18.425  171.7  0.0075   70.2  0.9581   -5.8
 0.095  0.8367  -10.7  18.409  171.3  0.0079   71.1  0.9577   -6.2
 0.100  0.8362  -11.3  18.394  170.8  0.0083   71.8  0.9574   -6.5
 0.105  0.8348  -12.0  18.383  170.4  0.0087   71.8  0.9564   -6.8
 0.110  0.8336  -12.6  18.374  169.9  0.0091   71.7  0.9555   -7.1
 0.115  0.8324  -13.3  18.365  169.5  0.0094   71.7  0.9546   -7.4
 0.120  0.8314  -14.0  18.357  169.1  0.0098   71.7  0.9537   -7.7
 0.125  0.8304  -14.6  18.351  168.7  0.0102   71.6  0.9528   -8.0
 0.130  0.8296  -15.3  18.345  168.2  0.0106   71.6  0.9520   -8.4
 0.135  0.8289  -16.0  18.340  167.8  0.0110   71.6  0.9512   -8.7
 0.140  0.8283  -16.7  18.337  167.4  0.0113   71.5  0.9504   -9.0
 0.145  0.8279  -17.3  18.334  166.9  0.0117   71.5  0.9496   -9.3
 0.150  0.8275  -18.0  18.333  166.5  0.0121   71.5  0.9489   -9.6
 0.155  0.8263  -18.5  18.289  166.0  0.0125   71.6  0.9474   -9.9
 0.160  0.8252  -19.0  18.246  165.6  0.0129   71.6  0.9460  -10.2
 0.165  0.8242  -19.5  18.205  165.1  0.0133   71.7  0.9445  -10.6
 0.170  0.8232  -19.9  18.165  164.6  0.0137   71.8  0.9431  -10.9
 0.175  0.8222  -20.4  18.126  164.2  0.0141   71.8  0.9418  -11.2
 0.180  0.8214  -20.9  18.088  163.7  0.0145   71.9  0.9404  -11.5
 0.185  0.8206  -21.4  18.051  163.2  0.0149   72.0  0.9391  -11.8
 0.190  0.8198  -21.9  18.016  162.8  0.0153   72.0  0.9379  -12.2
 0.195  0.8191  -22.4  17.982  162.3  0.0157   72.1  0.9366  -12.5
 0.200  0.8185  -22.9  17.949  161.8  0.0161   72.1  0.9354  -12.8
 0.220  0.8115  -25.1  17.811  160.2  0.0175   71.1  0.9295  -14.0
 0.240  0.8056  -27.4  17.688  158.6  0.0189   70.3  0.9240  -15.3
 0.260  0.7991  -29.6  17.553  157.0  0.0204   69.8  0.9176  -16.5
 0.280  0.7918  -31.9  17.409  155.2  0.0219   69.7  0.9102  -17.6
 0.300  0.7858  -34.2  17.281  153.5  0.0235   69.6  0.9032  -18.7
 0.320  0.7769  -36.2  17.079  152.0  0.0248   68.6  0.8945  -19.7
 0.340  0.7689  -38.2  16.889  150.5  0.0261   67.7  0.8861  -20.8
 0.360  0.7619  -40.3  16.711  148.9  0.0274   66.9  0.8781  -21.9
 0.380  0.7559  -42.4  16.545  147.3  0.0287   66.2  0.8703  -23.0
 0.400  0.7510  -44.5  16.393  145.7  0.0300   65.5  0.8629  -24.1
 0.420  0.7410  -46.4  16.192  144.3  0.0311   64.7  0.8530  -25.0
 0.440  0.7319  -48.4  16.001  142.9  0.0322   64.0  0.8434  -26.0
 0.450  0.7277  -49.4  15.909  142.2  0.0327   63.6  0.8386  -26.5
 0.460  0.7237  -50.4  15.819  141.4  0.0333   63.3  0.8340  -27.0
 0.480  0.7164  -52.5  15.649  139.9  0.0344   62.6  0.8248  -28.0
 0.500  0.7101  -54.6  15.489  138.4  0.0355   62.0  0.8159  -29.0
 0.520  0.7008  -56.4  15.259  137.2  0.0365   61.2  0.8064  -29.8
 0.540  0.6921  -58.2  15.036  135.9  0.0375   60.4  0.7970  -30.6
 0.560  0.6841  -60.1  14.821  134.6  0.0385   59.7  0.7878  -31.4
 0.580  0.6769  -62.0  14.614  133.2  0.0395   59.0  0.7787  -32.2
 0.600  0.6705  -63.9  14.416  131.8  0.0405   58.3  0.7698  -33.1
 0.620  0.6623  -65.4  14.223  130.8  0.0413   57.9  0.7611  -33.8
 0.640  0.6546  -67.0  14.035  129.7  0.0422   57.5  0.7525  -34.5
 0.660  0.6474  -68.6  13.852  128.6  0.0430   57.2  0.7440  -35.2
 0.680  0.6407  -70.2  13.674  127.5  0.0439   56.8  0.7356  -35.9
 0.700  0.6346  -71.9  13.501  126.4  0.0447   56.5  0.7273  -36.6
 0.720  0.6260  -73.6  13.309  125.3  0.0453   55.8  0.7181  -37.3
 0.740  0.6181  -75.4  13.123  124.3  0.0460   55.2  0.7090  -38.0
 0.760  0.6107  -77.2  12.941  123.1  0.0466   54.6  0.7001  -38.7
 0.780  0.6040  -79.1  12.764  122.0  0.0472   54.0  0.6912  -39.4
 0.800  0.5979  -81.0  12.592  120.8  0.0479   53.4  0.6825  -40.2
 0.820  0.5911  -82.4  12.412  119.9  0.0486   53.0  0.6745  -40.7
 0.840  0.5847  -83.8  12.235  119.0  0.0493   52.7  0.6665  -41.2
 0.860  0.5786  -85.3  12.062  118.0  0.0499   52.4  0.6585  -41.7
 0.880  0.5730  -86.8  11.892  117.0  0.0506   52.0  0.6506  -42.3
 0.900  0.5677  -88.3  11.726  116.0  0.0513   51.7  0.6428  -42.8
 0.920  0.5619  -89.6  11.567  115.2  0.0519   51.4  0.6357  -43.3
 0.940  0.5564  -90.9  11.411  114.4  0.0525   51.0  0.6287  -43.8
 0.960  0.5512  -92.2  11.257  113.5  0.0530   50.7  0.6217  -44.3
 0.980  0.5462  -93.5  11.105  112.7  0.0536   50.4  0.6147  -44.8
 1.000  0.5416  -94.9  10.956  111.8  0.0542   50.1  0.6078  -45.3
 1.020  0.5367  -96.3  10.813  111.0  0.0547   49.9  0.6011  -45.8
 1.040  0.5321  -97.7  10.671  110.3  0.0553   49.6  0.5945  -46.3
 1.060  0.5278  -99.2  10.532  109.5  0.0558   49.4  0.5879  -46.9
 1.080  0.5239 -100.7  10.394  108.6  0.0564   49.1  0.5814  -47.4
 1.100  0.5203 -102.2  10.259  107.8  0.0569   48.9  0.5749  -48.0
 1.120  0.5159 -103.5  10.120  107.1  0.0573   48.6  0.5687  -48.4
 1.140  0.5117 -104.8   9.983  106.4  0.0576   48.3  0.5624  -48.7
 1.160  0.5079 -106.2   9.847  105.7  0.0580   48.0  0.5562  -49.1
 1.180  0.5043 -107.5   9.713  105.0  0.0583   47.7  0.5500  -49.5
 1.200  0.5010 -108.9   9.581  104.2  0.0587   47.4  0.5439  -49.9
 1.220  0.4976 -109.9   9.463  103.6  0.0592   47.3  0.5386  -50.2
 1.240  0.4944 -110.9   9.345  103.0  0.0596   47.1  0.5332  -50.5
 1.260  0.4913 -111.9   9.229  102.4  0.0601   47.0  0.5279  -50.8
 1.280  0.4884 -113.0   9.114  101.8  0.0605   46.8  0.5226  -51.1
 1.300  0.4856 -114.0   9.000  101.1  0.0610   46.7  0.5173  -51.4
 1.320  0.4823 -115.2   8.895  100.5  0.0614   46.5  0.5119  -51.9
 1.340  0.4793 -116.4   8.791   99.9  0.0619   46.4  0.5065  -52.4
 1.360  0.4764 -117.6   8.688   99.2  0.0623   46.2  0.5012  -52.9
 1.380  0.4738 -118.8   8.586   98.6  0.0628   46.1  0.4959  -53.4
 1.400  0.4714 -120.0   8.485   97.9  0.0632   45.9  0.4907  -53.9
 1.420  0.4697 -121.2   8.384   97.3  0.0636   45.8  0.4861  -54.2
 1.440  0.4682 -122.3   8.284   96.7  0.0641   45.7  0.4815  -54.5
 1.460  0.4669 -123.5   8.185   96.1  0.0645   45.6  0.4770  -54.8
 1.480  0.4658 -124.7   8.087   95.5  0.0650   45.5  0.4724  -55.1
 1.500  0.4649 -125.9   7.990   94.8  0.0654   45.4  0.4679  -55.4
 1.520  0.4619 -126.8   7.898   94.3  0.0658   45.3  0.4635  -55.7
 1.540  0.4590 -127.6   7.807   93.8  0.0662   45.2  0.4592  -55.9
 1.560  0.4562 -128.5   7.717   93.3  0.0666   45.2  0.4548  -56.2
 1.580  0.4535 -129.4   7.627   92.8  0.0670   45.1  0.4505  -56.5
 1.600  0.4509 -130.3   7.538   92.3  0.0674   45.0  0.4462  -56.8
 1.620  0.4491 -131.4   7.461   91.8  0.0677   44.8  0.4421  -57.2
 1.640  0.4474 -132.4   7.384   91.3  0.0681   44.6  0.4380  -57.7
 1.660  0.4459 -133.5   7.308   90.7  0.0684   44.5  0.4340  -58.2
 1.680  0.4446 -134.6   7.233   90.2  0.0688   44.3  0.4300  -58.6
 1.700  0.4434 -135.7   7.158   89.6  0.0691   44.1  0.4260  -59.1
 1.720  0.4421 -136.5   7.080   89.1  0.0694   44.1  0.4232  -59.4
 1.740  0.4410 -137.3   7.002   88.6  0.0697   44.1  0.4204  -59.6
 1.760  0.4399 -138.1   6.924   88.1  0.0699   44.1  0.4176  -59.9
 1.780  0.4389 -138.9   6.847   87.6  0.0702   44.1  0.4148  -60.2
 1.800  0.4380 -139.7   6.771   87.1  0.0705   44.1  0.4120  -60.5
 1.820  0.4372 -140.5   6.704   86.7  0.0709   44.1  0.4083  -60.7
 1.840  0.4364 -141.2   6.636   86.3  0.0713   44.0  0.4045  -60.9
 1.860  0.4357 -142.0   6.570   85.9  0.0718   44.0  0.4008  -61.0
 1.880  0.4351 -142.7   6.503   85.5  0.0722   43.9  0.3970  -61.2
 1.900  0.4346 -143.5   6.437   85.1  0.0726   43.9  0.3933  -61.4
 1.920  0.4328 -144.5   6.376   84.6  0.0729   43.8  0.3905  -61.8
 1.940  0.4312 -145.4   6.315   84.2  0.0732   43.6  0.3877  -62.1
 1.960  0.4297 -146.4   6.255   83.7  0.0735   43.5  0.3850  -62.5
 1.980  0.4283 -147.4   6.195   83.2  0.0738   43.3  0.3822  -62.9
 2.000  0.4270 -148.4   6.136   82.7  0.0741   43.2  0.3795  -63.3
 2.020  0.4263 -149.0   6.079   82.4  0.0745   43.2  0.3770  -63.5
 2.040  0.4256 -149.5   6.022   82.0  0.0748   43.1  0.3746  -63.7
 2.060  0.4250 -150.1   5.965   81.6  0.0752   43.1  0.3721  -63.9
 2.080  0.4244 -150.7   5.908   81.3  0.0756   43.1  0.3697  -64.1
 2.100  0.4239 -151.2   5.852   80.9  0.0759   43.0  0.3672  -64.4
 2.120  0.4234 -151.8   5.796   80.5  0.0763   43.0  0.3648  -64.6
 2.140  0.4229 -152.4   5.740   80.1  0.0767   43.0  0.3624  -64.8
 2.160  0.4225 -152.9   5.684   79.7  0.0771   43.0  0.3599  -65.0
 2.180  0.4221 -153.5   5.629   79.3  0.0774   42.9  0.3575  -65.3
 2.200  0.4218 -154.1   5.574   78.9  0.0778   42.9  0.3551  -65.5
 2.220  0.4210 -154.8   5.525   78.5  0.0781   42.9  0.3533  -65.8
 2.240  0.4202 -155.6   5.477   78.2  0.0785   42.9  0.3516  -66.1
 2.260  0.4195 -156.3   5.429   77.8  0.0788   42.8  0.3498  -66.3
 2.280  0.4188 -157.0   5.381   77.5  0.0791   42.8  0.3481  -66.6
 2.300  0.4183 -157.8   5.333   77.1  0.0794   42.8  0.3464  -66.9
 2.320  0.4178 -158.5   5.286   76.7  0.0798   42.8  0.3447  -67.2
 2.340  0.4174 -159.3   5.238   76.3  0.0801   42.8  0.3430  -67.5
 2.360  0.4170 -160.0   5.191   75.9  0.0804   42.7  0.3413  -67.8
 2.380  0.4167 -160.8   5.145   75.5  0.0808   42.7  0.3396  -68.1
 2.400  0.4165 -161.5   5.098   75.1  0.0811   42.7  0.3379  -68.4
 2.420  0.4166 -162.0   5.058   74.8  0.0814   42.7  0.3356  -68.7
 2.440  0.4166 -162.5   5.018   74.5  0.0818   42.6  0.3333  -69.0
 2.460  0.4167 -163.0   4.979   74.2  0.0821   42.6  0.3310  -69.3
 2.480  0.4169 -163.5   4.939   73.8  0.0825   42.6  0.3288  -69.6
 2.500  0.4171 -164.0   4.900   73.5  0.0828   42.5  0.3265  -69.9
 2.520  0.4173 -164.4   4.861   73.2  0.0831   42.5  0.3243  -70.3
 2.540  0.4175 -164.9   4.822   72.8  0.0835   42.5  0.3220  -70.6
 2.560  0.4178 -165.4   4.783   72.5  0.0838   42.5  0.3198  -70.9
 2.580  0.4181 -165.9   4.744   72.2  0.0842   42.4  0.3176  -71.3
 2.600  0.4184 -166.4   4.706   71.8  0.0845   42.4  0.3154  -71.6
 2.620  0.4178 -166.9   4.671   71.5  0.0850   42.4  0.3143  -71.8
 2.640  0.4173 -167.4   4.637   71.2  0.0854   42.4  0.3133  -71.9
 2.660  0.4168 -167.9   4.602   70.9  0.0859   42.4  0.3123  -72.1
 2.680  0.4163 -168.3   4.568   70.6  0.0863   42.4  0.3112  -72.3
 2.700  0.4159 -168.8   4.534   70.3  0.0868   42.5  0.3102  -72.4
 2.720  0.4155 -169.3   4.500   70.0  0.0873   42.5  0.3091  -72.6
 2.740  0.4151 -169.8   4.466   69.7  0.0877   42.5  0.3081  -72.8
 2.760  0.4147 -170.3   4.432   69.4  0.0882   42.5  0.3071  -73.0
 2.780  0.4144 -170.8   4.398   69.0  0.0886   42.5  0.3060  -73.1
 2.800  0.4141 -171.3   4.365   68.7  0.0891   42.5  0.3050  -73.3
 2.820  0.4140 -171.7   4.335   68.4  0.0894   42.5  0.3040  -73.5
 2.840  0.4140 -172.2   4.304   68.1  0.0898   42.4  0.3030  -73.7
 2.860  0.4139 -172.6   4.274   67.8  0.0901   42.4  0.3020  -74.0
 2.880  0.4139 -173.0   4.244   67.4  0.0904   42.3  0.3010  -74.2
 2.900  0.4139 -173.5   4.214   67.1  0.0907   42.3  0.3000  -74.4
 2.920  0.4139 -173.9   4.185   66.8  0.0911   42.3  0.2991  -74.7
 2.940  0.4140 -174.3   4.155   66.4  0.0914   42.2  0.2981  -74.9
 2.960  0.4141 -174.7   4.125   66.1  0.0917   42.2  0.2971  -75.1
 2.980  0.4142 -175.2   4.096   65.8  0.0921   42.1  0.2962  -75.4
 3.000  0.4143 -175.6   4.067   65.4  0.0924   42.1  0.2952  -75.6
 3.100  0.4128 -177.5   3.944   64.2  0.0942   41.9  0.2912  -76.6
 3.200  0.4118 -179.4   3.823   62.9  0.0960   41.7  0.2873  -77.6
 3.300  0.4113  178.7   3.704   61.6  0.0979   41.5  0.2835  -78.6
 3.400  0.4112  176.7   3.587   60.1  0.0997   41.3  0.2798  -79.7
 3.500  0.4116  174.8   3.473   58.6  0.1015   41.1  0.2762  -80.8
 3.600  0.4119  173.6   3.386   57.5  0.1036   41.1  0.2729  -81.6
 3.700  0.4124  172.3   3.300   56.3  0.1058   41.1  0.2697  -82.4
 3.800  0.4130  171.1   3.215   55.0  0.1079   41.0  0.2666  -83.3
 3.900  0.4139  169.9   3.132   53.7  0.1101   41.0  0.2635  -84.1
 4.000  0.4149  168.7   3.051   52.3  0.1122   41.0  0.2605  -85.0
 4.100  0.4140  167.3   2.982   51.2  0.1144   40.5  0.2575  -85.8
 4.200  0.4133  166.0   2.914   50.0  0.1166   40.1  0.2546  -86.7
 4.300  0.4128  164.6   2.847   48.8  0.1188   39.7  0.2518  -87.6
 4.400  0.4126  163.2   2.782   47.5  0.1210   39.3  0.2490  -88.5
 4.500  0.4126  161.8   2.718   46.1  0.1232   38.9  0.2463  -89.4
 4.600  0.4132  160.6   2.666   45.0  0.1257   38.6  0.2435  -90.2
 4.700  0.4140  159.3   2.616   43.8  0.1283   38.3  0.2408  -91.1
 4.800  0.4149  158.1   2.566   42.5  0.1308   38.0  0.2382  -91.9
 4.900  0.4161  156.9   2.518   41.2  0.1334   37.8  0.2356  -92.8
 5.000  0.4174  155.7   2.471   39.9  0.1359   37.5  0.2330  -93.7
 5.100  0.4140  154.1   2.425   38.8  0.1384   36.9  0.2290  -95.0
 5.200  0.4109  152.5   2.380   37.6  0.1410   36.4  0.2252  -96.4
 5.300  0.4081  150.9   2.336   36.4  0.1435   35.8  0.2215  -97.8
 5.400  0.4057  149.3   2.294   35.1  0.1461   35.3  0.2179  -99.3
 5.500  0.4036  147.6   2.252   33.8  0.1487   34.8  0.2145 -100.8
 5.600  0.4038  146.2   2.217   32.7  0.1512   34.3  0.2110 -101.7
 5.700  0.4043  144.7   2.183   31.6  0.1538   33.8  0.2075 -102.6
 5.800  0.4050  143.3   2.149   30.4  0.1563   33.3  0.2041 -103.5
 5.900  0.4059  141.9   2.117   29.2  0.1589   32.8  0.2008 -104.5
 6.000  0.4071  140.5   2.085   28.0  0.1615   32.4  0.1975 -105.5
!
!  f       NFmin   Gammaopt  rn/50
! GHz       dB    MAG  ANG    -
!
! noise parameter not available yet for this operation point!
!
! (c) 2015  Infineon Technologies AG, Munich
