! Infineon Technologies  Discrete & RF Semiconductors
! BFP540FESD
! VCE =  2.5 V,  IC =  9.0 mA
! Common Emitter S-Parameters:                            Nov 2015
# GHz  S  MA  R  50
!  f         S11            S21            S12            S22
! GHz     MAG   ANG      MAG   ANG      MAG   ANG      MAG   ANG
 0.010  0.7489   -0.7  26.110  178.2  0.0007   83.4  0.9794   -3.6
 0.015  0.7426   -2.4  25.620  177.9  0.0012   85.0  0.9817   -2.7
 0.020  0.7370   -4.2  25.130  177.6  0.0017   85.7  0.9842   -1.8
 0.025  0.7392   -4.7  25.161  177.0  0.0021   86.2  0.9827   -2.3
 0.030  0.7415   -5.3  25.194  176.5  0.0025   86.6  0.9812   -2.7
 0.035  0.7438   -5.8  25.230  175.9  0.0029   86.8  0.9798   -3.2
 0.040  0.7462   -6.3  25.269  175.3  0.0034   87.0  0.9784   -3.7
 0.045  0.7487   -6.9  25.310  174.8  0.0038   87.2  0.9771   -4.1
 0.050  0.7512   -7.4  25.353  174.2  0.0042   87.3  0.9759   -4.6
 0.055  0.7496   -8.1  25.305  173.6  0.0046   86.5  0.9748   -5.1
 0.060  0.7480   -8.9  25.260  173.1  0.0050   85.8  0.9737   -5.5
 0.065  0.7467   -9.6  25.218  172.5  0.0055   85.2  0.9727   -6.0
 0.070  0.7454  -10.3  25.178  171.9  0.0059   84.7  0.9717   -6.4
 0.075  0.7442  -11.1  25.140  171.3  0.0063   84.2  0.9709   -6.9
 0.080  0.7432  -11.8  25.105  170.7  0.0067   83.8  0.9700   -7.4
 0.085  0.7423  -12.6  25.073  170.2  0.0071   83.5  0.9693   -7.8
 0.090  0.7416  -13.3  25.043  169.6  0.0076   83.2  0.9686   -8.3
 0.095  0.7409  -14.1  25.016  169.0  0.0080   82.9  0.9680   -8.7
 0.100  0.7404  -14.8  24.992  168.4  0.0084   82.7  0.9674   -9.2
 0.105  0.7383  -15.6  24.954  167.9  0.0088   82.5  0.9656   -9.6
 0.110  0.7364  -16.4  24.919  167.3  0.0092   82.3  0.9638  -10.1
 0.115  0.7346  -17.3  24.886  166.8  0.0096   82.2  0.9620  -10.5
 0.120  0.7330  -18.1  24.855  166.2  0.0100   82.0  0.9604  -11.0
 0.125  0.7315  -18.9  24.826  165.7  0.0104   81.9  0.9588  -11.4
 0.130  0.7302  -19.7  24.800  165.1  0.0109   81.7  0.9572  -11.9
 0.135  0.7290  -20.6  24.776  164.6  0.0113   81.6  0.9557  -12.3
 0.140  0.7280  -21.4  24.754  164.0  0.0117   81.5  0.9543  -12.8
 0.145  0.7272  -22.3  24.735  163.5  0.0121   81.4  0.9529  -13.2
 0.150  0.7265  -23.1  24.718  162.9  0.0125   81.3  0.9516  -13.7
 0.155  0.7249  -23.8  24.634  162.4  0.0129   80.8  0.9491  -14.1
 0.160  0.7234  -24.4  24.553  161.8  0.0133   80.3  0.9466  -14.5
 0.165  0.7220  -25.1  24.474  161.3  0.0136   79.8  0.9441  -15.0
 0.170  0.7207  -25.8  24.397  160.7  0.0140   79.4  0.9418  -15.4
 0.175  0.7195  -26.4  24.322  160.1  0.0144   79.0  0.9394  -15.8
 0.180  0.7184  -27.1  24.250  159.6  0.0148   78.6  0.9372  -16.3
 0.185  0.7173  -27.8  24.180  159.0  0.0152   78.2  0.9349  -16.7
 0.190  0.7164  -28.4  24.112  158.4  0.0155   77.9  0.9328  -17.1
 0.195  0.7156  -29.1  24.047  157.9  0.0159   77.5  0.9307  -17.6
 0.200  0.7149  -29.8  23.984  157.3  0.0163   77.2  0.9286  -18.0
 0.220  0.7052  -32.5  23.668  155.3  0.0180   75.4  0.9182  -19.6
 0.240  0.6972  -35.3  23.381  153.3  0.0197   73.9  0.9085  -21.3
 0.260  0.6888  -38.1  23.081  151.3  0.0212   72.7  0.8978  -22.8
 0.280  0.6799  -40.9  22.765  149.3  0.0225   71.7  0.8859  -24.4
 0.300  0.6728  -43.8  22.479  147.2  0.0239   70.8  0.8747  -25.9
 0.320  0.6615  -46.1  22.087  145.5  0.0251   69.8  0.8613  -27.2
 0.340  0.6514  -48.6  21.714  143.8  0.0262   68.8  0.8484  -28.5
 0.360  0.6424  -51.0  21.361  142.0  0.0274   68.0  0.8359  -29.9
 0.380  0.6347  -53.6  21.030  140.2  0.0286   67.2  0.8240  -31.3
 0.400  0.6283  -56.2  20.721  138.3  0.0298   66.5  0.8125  -32.7
 0.420  0.6174  -58.4  20.348  136.8  0.0307   65.4  0.7986  -33.8
 0.440  0.6075  -60.6  19.988  135.3  0.0317   64.4  0.7850  -35.0
 0.450  0.6029  -61.8  19.813  134.6  0.0322   64.0  0.7783  -35.6
 0.460  0.5985  -63.0  19.642  133.8  0.0327   63.5  0.7717  -36.2
 0.480  0.5905  -65.3  19.312  132.2  0.0336   62.6  0.7588  -37.4
 0.500  0.5836  -67.8  18.997  130.5  0.0346   61.8  0.7462  -38.7
 0.520  0.5741  -69.8  18.625  129.3  0.0355   61.1  0.7338  -39.6
 0.540  0.5653  -71.8  18.262  128.0  0.0364   60.4  0.7216  -40.4
 0.560  0.5573  -73.9  17.909  126.6  0.0373   59.8  0.7096  -41.4
 0.580  0.5501  -76.1  17.565  125.2  0.0382   59.2  0.6977  -42.3
 0.600  0.5436  -78.3  17.233  123.8  0.0391   58.6  0.6861  -43.3
 0.620  0.5362  -80.0  16.930  122.8  0.0398   58.2  0.6754  -44.1
 0.640  0.5293  -81.7  16.633  121.7  0.0405   57.9  0.6649  -44.8
 0.660  0.5229  -83.5  16.343  120.6  0.0413   57.5  0.6545  -45.6
 0.680  0.5170  -85.3  16.058  119.4  0.0420   57.2  0.6442  -46.4
 0.700  0.5117  -87.2  15.781  118.2  0.0427   56.9  0.6340  -47.3
 0.720  0.5044  -89.1  15.503  117.2  0.0433   56.5  0.6235  -48.0
 0.740  0.4977  -91.1  15.230  116.2  0.0438   56.2  0.6131  -48.8
 0.760  0.4916  -93.1  14.963  115.1  0.0444   55.8  0.6028  -49.6
 0.780  0.4862  -95.1  14.700  114.0  0.0449   55.4  0.5926  -50.4
 0.800  0.4813  -97.2  14.443  112.9  0.0455   55.1  0.5826  -51.3
 0.820  0.4761  -98.6  14.194  112.1  0.0461   54.7  0.5740  -51.8
 0.840  0.4712 -100.1  13.948  111.2  0.0468   54.4  0.5654  -52.4
 0.860  0.4666 -101.6  13.706  110.3  0.0474   54.1  0.5569  -52.9
 0.880  0.4623 -103.1  13.467  109.4  0.0481   53.7  0.5484  -53.5
 0.900  0.4584 -104.7  13.232  108.4  0.0487   53.4  0.5400  -54.1
 0.920  0.4540 -106.0  13.019  107.7  0.0493   53.3  0.5325  -54.6
 0.940  0.4499 -107.4  12.808  106.9  0.0499   53.2  0.5250  -55.2
 0.960  0.4460 -108.8  12.600  106.1  0.0504   53.1  0.5176  -55.7
 0.980  0.4424 -110.2  12.394  105.3  0.0510   53.0  0.5102  -56.3
 1.000  0.4391 -111.6  12.190  104.5  0.0516   52.9  0.5029  -56.9
 1.020  0.4359 -113.0  12.005  103.8  0.0521   52.7  0.4961  -57.5
 1.040  0.4331 -114.5  11.822  103.1  0.0525   52.5  0.4895  -58.1
 1.060  0.4305 -115.9  11.640  102.4  0.0530   52.3  0.4828  -58.7
 1.080  0.4281 -117.4  11.461  101.7  0.0534   52.1  0.4762  -59.3
 1.100  0.4261 -118.9  11.283  100.9  0.0539   51.9  0.4697  -60.0
 1.120  0.4232 -120.3  11.114  100.3  0.0544   51.7  0.4635  -60.4
 1.140  0.4206 -121.7  10.947   99.6  0.0550   51.5  0.4574  -60.8
 1.160  0.4182 -123.1  10.781   99.0  0.0555   51.3  0.4513  -61.2
 1.180  0.4161 -124.5  10.616   98.3  0.0561   51.1  0.4452  -61.7
 1.200  0.4142 -125.9  10.453   97.6  0.0566   50.9  0.4391  -62.1
 1.220  0.4120 -126.8  10.311   97.1  0.0571   50.8  0.4337  -62.4
 1.240  0.4099 -127.7  10.170   96.6  0.0575   50.7  0.4283  -62.7
 1.260  0.4079 -128.6  10.029   96.0  0.0580   50.6  0.4230  -63.0
 1.280  0.4061 -129.6   9.890   95.5  0.0584   50.5  0.4176  -63.4
 1.300  0.4043 -130.5   9.751   94.9  0.0589   50.4  0.4123  -63.7
 1.320  0.4028 -131.6   9.625   94.3  0.0594   50.4  0.4073  -64.3
 1.340  0.4015 -132.8   9.500   93.7  0.0599   50.4  0.4024  -64.9
 1.360  0.4003 -133.9   9.375   93.1  0.0603   50.5  0.3975  -65.5
 1.380  0.3993 -135.0   9.252   92.5  0.0608   50.5  0.3926  -66.1
 1.400  0.3985 -136.2   9.130   91.9  0.0613   50.5  0.3878  -66.8
 1.420  0.3982 -137.3   9.011   91.4  0.0618   50.4  0.3835  -67.2
 1.440  0.3981 -138.4   8.893   90.9  0.0622   50.2  0.3792  -67.6
 1.460  0.3981 -139.5   8.776   90.4  0.0627   50.1  0.3750  -68.0
 1.480  0.3983 -140.6   8.659   89.8  0.0631   49.9  0.3707  -68.4
 1.500  0.3986 -141.7   8.543   89.3  0.0636   49.8  0.3665  -68.8
 1.520  0.3966 -142.5   8.439   88.9  0.0640   49.8  0.3621  -69.1
 1.540  0.3947 -143.4   8.336   88.4  0.0645   49.9  0.3578  -69.4
 1.560  0.3929 -144.2   8.234   88.0  0.0649   49.9  0.3534  -69.7
 1.580  0.3912 -145.0   8.132   87.5  0.0654   50.0  0.3491  -70.1
 1.600  0.3896 -145.9   8.030   87.0  0.0658   50.0  0.3448  -70.4
 1.620  0.3893 -146.9   7.939   86.5  0.0663   49.9  0.3414  -71.0
 1.640  0.3891 -147.8   7.848   86.1  0.0669   49.8  0.3380  -71.6
 1.660  0.3890 -148.8   7.758   85.6  0.0674   49.7  0.3347  -72.2
 1.680  0.3891 -149.7   7.668   85.1  0.0680   49.6  0.3314  -72.8
 1.700  0.3892 -150.7   7.579   84.6  0.0685   49.5  0.3282  -73.4
 1.720  0.3885 -151.5   7.492   84.2  0.0689   49.5  0.3258  -73.8
 1.740  0.3879 -152.2   7.406   83.8  0.0694   49.5  0.3235  -74.1
 1.760  0.3874 -153.0   7.320   83.3  0.0698   49.6  0.3211  -74.5
 1.780  0.3869 -153.7   7.235   82.9  0.0703   49.6  0.3188  -74.9
 1.800  0.3865 -154.5   7.150   82.4  0.0707   49.6  0.3165  -75.3
 1.820  0.3865 -155.1   7.075   82.1  0.0712   49.6  0.3128  -75.5
 1.840  0.3866 -155.8   7.000   81.7  0.0716   49.6  0.3091  -75.8
 1.860  0.3867 -156.4   6.925   81.3  0.0721   49.6  0.3054  -76.1
 1.880  0.3869 -157.1   6.850   81.0  0.0725   49.6  0.3017  -76.3
 1.900  0.3871 -157.7   6.776   80.6  0.0730   49.6  0.2980  -76.6
 1.920  0.3866 -158.6   6.708   80.2  0.0734   49.5  0.2958  -77.1
 1.940  0.3862 -159.5   6.640   79.8  0.0739   49.4  0.2936  -77.6
 1.960  0.3858 -160.5   6.573   79.4  0.0743   49.4  0.2914  -78.1
 1.980  0.3856 -161.4   6.506   78.9  0.0748   49.3  0.2892  -78.7
 2.000  0.3855 -162.3   6.439   78.5  0.0752   49.2  0.2871  -79.2
 2.020  0.3852 -162.8   6.378   78.2  0.0757   49.1  0.2849  -79.5
 2.040  0.3849 -163.2   6.317   77.9  0.0762   49.1  0.2828  -79.8
 2.060  0.3846 -163.7   6.256   77.5  0.0766   49.0  0.2807  -80.1
 2.080  0.3843 -164.1   6.195   77.2  0.0771   49.0  0.2785  -80.3
 2.100  0.3841 -164.6   6.135   76.9  0.0776   48.9  0.2764  -80.6
 2.120  0.3839 -165.1   6.075   76.5  0.0781   48.9  0.2743  -80.9
 2.140  0.3837 -165.5   6.015   76.2  0.0786   48.8  0.2722  -81.3
 2.160  0.3835 -166.0   5.955   75.8  0.0790   48.8  0.2701  -81.6
 2.180  0.3834 -166.4   5.895   75.5  0.0795   48.7  0.2680  -81.9
 2.200  0.3833 -166.9   5.836   75.1  0.0800   48.7  0.2659  -82.2
 2.220  0.3832 -167.6   5.784   74.8  0.0804   48.7  0.2645  -82.6
 2.240  0.3831 -168.3   5.732   74.5  0.0808   48.6  0.2632  -83.0
 2.260  0.3831 -168.9   5.680   74.1  0.0812   48.6  0.2618  -83.4
 2.280  0.3831 -169.6   5.629   73.8  0.0816   48.6  0.2605  -83.8
 2.300  0.3832 -170.3   5.578   73.5  0.0820   48.5  0.2592  -84.2
 2.320  0.3834 -171.0   5.526   73.1  0.0825   48.5  0.2579  -84.6
 2.340  0.3836 -171.7   5.476   72.8  0.0829   48.5  0.2566  -85.0
 2.360  0.3838 -172.3   5.425   72.4  0.0833   48.5  0.2553  -85.4
 2.380  0.3841 -173.0   5.374   72.1  0.0837   48.4  0.2540  -85.9
 2.400  0.3845 -173.7   5.324   71.7  0.0841   48.4  0.2528  -86.3
 2.420  0.3849 -174.1   5.281   71.4  0.0846   48.4  0.2509  -86.7
 2.440  0.3853 -174.5   5.239   71.1  0.0851   48.3  0.2490  -87.2
 2.460  0.3857 -174.8   5.197   70.9  0.0856   48.3  0.2471  -87.6
 2.480  0.3861 -175.2   5.154   70.6  0.0861   48.3  0.2452  -88.1
 2.500  0.3865 -175.6   5.112   70.3  0.0865   48.2  0.2434  -88.6
 2.520  0.3870 -176.0   5.070   70.0  0.0870   48.2  0.2416  -89.0
 2.540  0.3875 -176.4   5.029   69.7  0.0875   48.2  0.2397  -89.5
 2.560  0.3880 -176.7   4.987   69.3  0.0880   48.2  0.2379  -90.0
 2.580  0.3885 -177.1   4.945   69.0  0.0885   48.1  0.2362  -90.5
 2.600  0.3890 -177.5   4.904   68.7  0.0890   48.1  0.2344  -91.0
 2.620  0.3887 -177.9   4.867   68.4  0.0895   48.1  0.2335  -91.2
 2.640  0.3885 -178.3   4.831   68.2  0.0901   48.0  0.2326  -91.4
 2.660  0.3883 -178.8   4.794   67.9  0.0906   48.0  0.2317  -91.6
 2.680  0.3881 -179.2   4.758   67.6  0.0912   47.9  0.2308  -91.8
 2.700  0.3879 -179.6   4.722   67.4  0.0917   47.9  0.2299  -92.0
 2.720  0.3878  180.0   4.685   67.1  0.0922   47.9  0.2290  -92.2
 2.740  0.3877  179.6   4.649   66.8  0.0928   47.8  0.2281  -92.5
 2.760  0.3876  179.1   4.613   66.5  0.0933   47.8  0.2272  -92.7
 2.780  0.3875  178.7   4.578   66.2  0.0939   47.7  0.2263  -92.9
 2.800  0.3874  178.3   4.542   65.9  0.0944   47.7  0.2254  -93.1
 2.820  0.3875  177.9   4.510   65.6  0.0948   47.7  0.2247  -93.4
 2.840  0.3876  177.6   4.478   65.3  0.0952   47.6  0.2241  -93.7
 2.860  0.3878  177.2   4.446   65.0  0.0957   47.6  0.2234  -94.0
 2.880  0.3879  176.8   4.415   64.8  0.0961   47.5  0.2228  -94.4
 2.900  0.3881  176.4   4.383   64.5  0.0965   47.5  0.2221  -94.7
 2.920  0.3883  176.1   4.352   64.2  0.0969   47.5  0.2215  -95.0
 2.940  0.3885  175.7   4.320   63.8  0.0973   47.4  0.2208  -95.3
 2.960  0.3887  175.3   4.289   63.5  0.0978   47.4  0.2202  -95.6
 2.980  0.3889  175.0   4.258   63.2  0.0982   47.3  0.2196  -96.0
 3.000  0.3892  174.6   4.227   62.9  0.0986   47.3  0.2190  -96.3
 3.100  0.3887  173.0   4.099   61.8  0.1011   46.9  0.2160  -97.6
 3.200  0.3886  171.4   3.973   60.6  0.1036   46.4  0.2132  -98.9
 3.300  0.3887  169.9   3.849   59.4  0.1061   46.0  0.2104 -100.3
 3.400  0.3892  168.3   3.726   58.0  0.1086   45.7  0.2078 -101.7
 3.500  0.3899  166.7   3.606   56.6  0.1111   45.3  0.2053 -103.1
 3.600  0.3904  165.7   3.515   55.5  0.1138   45.1  0.2023 -104.2
 3.700  0.3910  164.7   3.425   54.4  0.1165   44.9  0.1993 -105.2
 3.800  0.3917  163.7   3.337   53.2  0.1193   44.7  0.1964 -106.4
 3.900  0.3925  162.8   3.250   51.9  0.1220   44.5  0.1935 -107.5
 4.000  0.3934  161.8   3.165   50.6  0.1247   44.3  0.1908 -108.7
 4.100  0.3928  160.6   3.093   49.5  0.1273   43.7  0.1881 -109.8
 4.200  0.3923  159.4   3.022   48.4  0.1300   43.0  0.1856 -111.0
 4.300  0.3920  158.2   2.952   47.2  0.1326   42.4  0.1831 -112.1
 4.400  0.3919  157.0   2.884   46.0  0.1353   41.9  0.1806 -113.4
 4.500  0.3919  155.8   2.817   44.7  0.1380   41.3  0.1783 -114.6
 4.600  0.3926  154.8   2.763   43.6  0.1409   40.7  0.1758 -115.6
 4.700  0.3934  153.7   2.710   42.4  0.1438   40.2  0.1733 -116.7
 4.800  0.3944  152.7   2.659   41.2  0.1467   39.6  0.1709 -117.8
 4.900  0.3955  151.7   2.608   40.0  0.1496   39.1  0.1686 -118.9
 5.000  0.3967  150.7   2.559   38.7  0.1525   38.6  0.1663 -120.1
 5.100  0.3941  149.2   2.511   37.6  0.1554   37.9  0.1634 -122.0
 5.200  0.3918  147.7   2.464   36.5  0.1583   37.2  0.1608 -124.0
 5.300  0.3897  146.2   2.418   35.3  0.1612   36.5  0.1583 -126.0
 5.400  0.3879  144.7   2.373   34.1  0.1641   35.9  0.1560 -128.1
 5.500  0.3864  143.2   2.329   32.8  0.1671   35.3  0.1540 -130.3
 5.600  0.3865  141.9   2.292   31.7  0.1700   34.6  0.1510 -131.7
 5.700  0.3868  140.6   2.256   30.6  0.1730   34.0  0.1481 -133.2
 5.800  0.3873  139.3   2.221   29.5  0.1760   33.4  0.1453 -134.7
 5.900  0.3880  138.0   2.187   28.3  0.1790   32.8  0.1427 -136.3
 6.000  0.3889  136.7   2.154   27.1  0.1820   32.2  0.1401 -138.0
!
!  f       NFmin   Gammaopt  rn/50
! GHz       dB    MAG  ANG    -
!
! noise parameter not available yet for this operation point!
!
! (c) 2015  Infineon Technologies AG, Munich
