! Infineon Technologies  Discrete & RF Semiconductors
! BFP520
! VCE =  2.0 V,  IC =  30 mA
! Common Emitter S-Parameters:                            Oct 2015
# GHz  S  MA  R  50
!  f         S11            S21            S12            S22
! GHz     MAG   ANG      MAG   ANG      MAG   ANG      MAG   ANG
 0.030  0.5253   -3.1  35.628  177.2  0.0016  108.3  0.9091    0.5
 0.040  0.5246   -4.3  35.587  176.0  0.0019  102.3  0.9163   -0.2
 0.050  0.5233   -4.9  35.390  175.0  0.0024   99.6  0.9221   -0.9
 0.060  0.5221   -6.2  35.358  174.3  0.0026   95.8  0.9257   -1.6
 0.070  0.5210   -7.1  35.545  173.2  0.0028   92.6  0.9289   -2.4
 0.080  0.5214   -8.4  35.405  172.6  0.0032   90.1  0.9313   -3.1
 0.090  0.5197   -9.6  35.373  171.6  0.0035   87.9  0.9322   -3.8
 0.100  0.5201  -10.4  35.163  170.6  0.0038   88.0  0.9335   -4.5
 0.110  0.5197  -11.7  35.172  169.7  0.0042   86.9  0.9340   -5.3
 0.120  0.5170  -12.7  35.159  168.7  0.0045   86.3  0.9342   -5.9
 0.130  0.5162  -13.5  35.060  167.8  0.0049   85.6  0.9338   -6.6
 0.140  0.5160  -14.6  35.051  166.7  0.0053   85.6  0.9333   -7.3
 0.150  0.5115  -15.4  34.860  165.7  0.0056   83.9  0.9323   -7.9
 0.200  0.5039  -20.8  34.361  161.2  0.0072   82.8  0.9242  -11.2
 0.250  0.4930  -25.5  33.663  156.6  0.0088   80.8  0.9120  -14.4
 0.300  0.4813  -30.2  32.812  152.3  0.0104   79.1  0.8959  -17.3
 0.350  0.4690  -34.9  31.908  148.2  0.0119   77.5  0.8773  -20.0
 0.400  0.4549  -39.3  30.920  144.2  0.0133   76.1  0.8573  -22.7
 0.450  0.4409  -43.5  29.918  140.4  0.0148   74.8  0.8365  -25.1
 0.500  0.4263  -47.5  28.894  137.0  0.0161   73.8  0.8147  -27.3
 0.600  0.3979  -55.4  26.915  130.3  0.0186   71.9  0.7713  -31.4
 0.700  0.3702  -62.8  24.980  124.4  0.0210   70.4  0.7294  -35.0
 0.800  0.3448  -69.7  23.182  119.1  0.0233   69.2  0.6903  -38.0
 0.900  0.3226  -76.3  21.571  114.4  0.0256   68.1  0.6543  -40.7
 1.000  0.3012  -82.7  20.079  110.1  0.0277   67.3  0.6209  -43.2
 1.100  0.2832  -88.7  18.720  106.1  0.0299   66.5  0.5906  -45.4
 1.200  0.2668  -94.7  17.507  102.5  0.0320   65.9  0.5629  -47.4
 1.300  0.2534 -100.8  16.413   99.2  0.0341   65.3  0.5374  -49.3
 1.400  0.2406 -106.5  15.410   96.1  0.0362   64.6  0.5134  -51.0
 1.500  0.2294 -112.4  14.525   93.2  0.0383   64.0  0.4922  -52.7
 1.600  0.2198 -118.5  13.707   90.5  0.0404   63.4  0.4712  -54.3
 1.700  0.2125 -123.9  12.970   87.9  0.0426   62.8  0.4531  -55.8
 1.800  0.2065 -129.4  12.296   85.6  0.0447   62.2  0.4353  -57.3
 1.900  0.2013 -135.2  11.696   83.3  0.0469   61.5  0.4189  -58.7
 2.000  0.1968 -140.6  11.137   81.0  0.0490   60.9  0.4031  -60.1
 2.100  0.1930 -146.0  10.634   79.0  0.0512   60.2  0.3884  -61.4
 2.200  0.1911 -151.6  10.145   76.9  0.0533   59.5  0.3739  -62.9
 2.300  0.1900 -156.7   9.724   75.0  0.0555   58.8  0.3602  -64.2
 2.400  0.1905 -161.9   9.314   73.0  0.0577   58.1  0.3466  -65.6
 2.500  0.1905 -166.9   8.945   71.2  0.0598   57.2  0.3339  -66.9
 2.600  0.1919 -171.9   8.585   69.3  0.0620   56.5  0.3213  -68.3
 2.700  0.1936 -176.3   8.270   67.7  0.0642   55.6  0.3090  -69.7
 2.800  0.1964  179.5   7.963   65.9  0.0664   54.8  0.2969  -71.2
 2.900  0.1997  175.3   7.686   64.3  0.0686   53.9  0.2854  -72.7
 3.000  0.2040  171.3   7.416   62.6  0.0708   53.1  0.2740  -74.3
 3.100  0.2078  167.4   7.187   61.2  0.0729   52.1  0.2632  -75.9
 3.200  0.2125  163.7   6.962   59.8  0.0750   51.1  0.2527  -77.6
 3.300  0.2180  160.1   6.743   58.2  0.0771   50.2  0.2423  -79.5
 3.400  0.2243  156.7   6.529   56.5  0.0793   49.4  0.2323  -81.5
 3.500  0.2314  153.5   6.320   54.7  0.0814   48.6  0.2225  -83.8
 3.600  0.2376  150.4   6.145   53.4  0.0834   47.5  0.2129  -85.9
 3.700  0.2444  147.4   5.973   52.1  0.0854   46.5  0.2035  -88.3
 3.800  0.2519  144.5   5.804   50.6  0.0874   45.6  0.1945  -90.8
 3.900  0.2600  141.9   5.640   49.0  0.0895   44.7  0.1860  -93.6
 4.000  0.2685  139.4   5.480   47.4  0.0915   43.8  0.1780  -96.7
 4.100  0.2755  137.1   5.341   46.2  0.0934   42.8  0.1700  -99.5
 4.200  0.2828  134.9   5.205   44.8  0.0952   41.8  0.1625 -102.6
 4.300  0.2905  132.9   5.072   43.4  0.0971   40.9  0.1556 -106.0
 4.400  0.2986  130.9   4.942   42.0  0.0990   40.0  0.1492 -109.6
 4.500  0.3070  129.1   4.816   40.4  0.1010   39.1  0.1434 -113.6
 4.600  0.3135  127.2   4.705   39.2  0.1027   38.1  0.1371 -116.8
 4.700  0.3203  125.4   4.596   38.0  0.1045   37.2  0.1312 -120.2
 4.800  0.3274  123.8   4.489   36.6  0.1063   36.3  0.1259 -124.0
 4.900  0.3347  122.1   4.385   35.2  0.1081   35.4  0.1211 -128.1
 5.000  0.3424  120.6   4.284   33.8  0.1100   34.6  0.1171 -132.6
 5.100  0.3473  119.2   4.193   32.7  0.1117   33.6  0.1125 -135.9
 5.200  0.3524  117.7   4.104   31.5  0.1134   32.7  0.1084 -139.5
 5.300  0.3578  116.4   4.017   30.2  0.1152   31.8  0.1047 -143.3
 5.400  0.3633  115.1   3.932   29.0  0.1171   30.9  0.1016 -147.4
 5.500  0.3690  113.8   3.850   27.6  0.1189   30.1  0.0989 -151.8
 5.600  0.3721  112.6   3.776   26.5  0.1206   29.1  0.0966 -155.7
 5.700  0.3754  111.5   3.705   25.3  0.1224   28.2  0.0948 -159.7
 5.800  0.3788  110.4   3.635   24.1  0.1241   27.2  0.0934 -163.9
 5.900  0.3824  109.3   3.567   22.8  0.1260   26.3  0.0925 -168.2
 6.000  0.3861  108.3   3.500   21.5  0.1278   25.5  0.0922 -172.6
 6.100  0.3895  107.2   3.439   20.4  0.1294   24.5  0.0921 -176.9
 6.200  0.3931  106.1   3.379   19.2  0.1311   23.5  0.0924  178.8
 6.300  0.3969  105.0   3.321   18.0  0.1327   22.5  0.0933  174.5
 6.400  0.4008  104.0   3.265   16.7  0.1345   21.6  0.0946  170.4
 6.500  0.4048  103.0   3.210   15.4  0.1362   20.7  0.0965  166.4
 6.600  0.4088  101.6   3.157   14.3  0.1377   19.7  0.0976  162.3
 6.700  0.4130  100.3   3.106   13.2  0.1392   18.7  0.0993  158.3
 6.800  0.4175   99.0   3.056   12.0  0.1408   17.8  0.1014  154.5
 6.900  0.4221   97.8   3.008   10.7  0.1424   16.9  0.1039  150.9
 7.000  0.4270   96.6   2.961    9.5  0.1441   16.0  0.1068  147.4
 7.100  0.4321   95.1   2.916    8.3  0.1455   14.9  0.1098  143.8
 7.200  0.4375   93.7   2.872    7.1  0.1470   13.9  0.1132  140.5
 7.300  0.4431   92.3   2.830    5.9  0.1485   12.9  0.1170  137.3
 7.400  0.4490   90.9   2.789    4.6  0.1501   12.0  0.1211  134.4
 7.500  0.4552   89.6   2.750    3.3  0.1517   11.0  0.1255  131.6
 7.600  0.4616   88.2   2.708    2.1  0.1529    9.9  0.1302  128.3
 7.700  0.4684   86.8   2.667    0.8  0.1542    8.9  0.1353  125.2
 7.800  0.4753   85.5   2.628   -0.5  0.1555    7.9  0.1407  122.3
 7.900  0.4826   84.2   2.590   -1.8  0.1569    6.9  0.1465  119.6
 8.000  0.4901   82.9   2.554   -3.2  0.1584    5.9  0.1525  117.2
 8.500  0.5290   76.4   2.350   -9.6  0.1630    0.5  0.1902  103.9
 9.000  0.5740   71.1   2.155  -15.4  0.1650   -4.6  0.2451   94.2
 9.500  0.6240   66.8   1.975  -20.3  0.1656   -8.6  0.3073   87.9
10.000  0.6626   63.0   1.820  -24.5  0.1668  -11.7  0.3602   84.4
10.500  0.6874   59.9   1.701  -27.7  0.1702  -13.8  0.3913   82.3
11.000  0.6951   58.7   1.666  -30.7  0.1797  -16.4  0.4078   82.6
11.500  0.7105   58.6   1.655  -36.4  0.1899  -21.3  0.4277   83.6
12.000  0.7222   56.8   1.575  -43.0  0.1935  -26.6  0.4469   82.5
12.500  0.7106   53.6   1.485  -48.0  0.1966  -30.7  0.4398   78.7
13.000  0.6795   51.4   1.424  -52.7  0.2011  -35.3  0.4147   75.8
13.500  0.6782   50.0   1.400  -58.6  0.2063  -40.4  0.4150   75.7
14.000  0.7079   45.8   1.316  -66.4  0.2038  -47.0  0.4382   72.3
14.500  0.7175   39.9   1.180  -70.3  0.1959  -49.7  0.4427   63.6
15.000  0.7060   35.8   1.143  -71.8  0.2007  -51.7  0.4389   55.7
!
!  f       NFmin   Gammaopt  rn/50
! GHz       dB    MAG  ANG    -
 0.450      2.47  0.05 -117   0.28
 0.900      2.46  0.06 -118   0.32
 1.900      2.61  0.11 -111   0.30
 2.400      2.62  0.13 -109   0.30
 3.500      2.57  0.15 -102   0.33
!
! (c) 2015  Infineon Technologies AG, Munich
