! Infineon Technologies  Discrete & RF Semiconductors
! BFP620F
! VCE =  2.0 V,  IC =  23 mA
! Common Emitter S-Parameters:                            Dec 2014
# GHz  S  MA  R  50
!  f         S11            S21            S12            S22
! GHz     MAG   ANG      MAG   ANG      MAG   ANG      MAG   ANG
 0.030  0.7356   -4.7  47.528  175.5  0.0020   72.0  0.9594   -2.8
 0.040  0.7372   -6.2  47.424  174.0  0.0035   79.4  0.9625   -4.0
 0.050  0.7375   -8.1  47.379  172.7  0.0049   72.1  0.9649   -5.4
 0.060  0.7345   -9.6  47.218  171.5  0.0041   72.4  0.9613   -6.7
 0.070  0.7327  -11.2  47.077  170.0  0.0057   85.6  0.9609   -8.0
 0.080  0.7319  -12.7  46.931  168.5  0.0057   85.7  0.9589   -9.2
 0.090  0.7258  -14.2  46.668  167.2  0.0063   74.2  0.9541  -10.5
 0.100  0.7230  -15.9  46.404  165.9  0.0071   77.9  0.9510  -11.7
 0.110  0.7187  -17.4  46.127  164.4  0.0069   80.7  0.9483  -12.9
 0.120  0.7156  -19.0  45.813  163.1  0.0080   76.8  0.9434  -14.2
 0.130  0.7111  -20.5  45.563  161.9  0.0085   76.4  0.9374  -15.3
 0.140  0.7072  -22.0  45.218  160.6  0.0093   78.0  0.9308  -16.6
 0.150  0.7035  -23.5  44.957  159.4  0.0101   75.3  0.9265  -17.6
 0.200  0.6790  -30.7  43.161  153.4  0.0128   76.4  0.8928  -23.2
 0.250  0.6512  -37.5  41.256  147.7  0.0160   72.6  0.8551  -28.2
 0.300  0.6229  -43.8  39.251  142.5  0.0184   70.3  0.8137  -32.8
 0.350  0.5922  -49.9  37.126  137.8  0.0209   69.4  0.7710  -36.9
 0.400  0.5615  -55.5  35.174  133.5  0.0228   68.1  0.7285  -40.6
 0.450  0.5358  -60.5  33.219  129.6  0.0251   66.3  0.6913  -44.0
 0.500  0.5072  -65.4  31.368  126.1  0.0270   65.4  0.6529  -47.0
 0.600  0.4590  -74.5  28.041  119.9  0.0305   64.1  0.5826  -52.1
 0.700  0.4185  -82.3  25.183  114.8  0.0337   63.0  0.5231  -56.4
 0.800  0.3845  -89.5  22.719  110.6  0.0368   62.7  0.4704  -59.9
 0.900  0.3553  -96.1  20.654  106.9  0.0399   62.4  0.4255  -62.8
 1.000  0.3325 -102.4  18.889  103.7  0.0427   62.1  0.3871  -65.4
 1.100  0.3113 -108.1  17.351  100.9  0.0457   61.9  0.3519  -67.8
 1.200  0.2965 -113.7  16.056   98.4  0.0485   62.1  0.3229  -69.8
 1.300  0.2818 -118.9  14.907   96.2  0.0513   61.8  0.2951  -71.8
 1.400  0.2722 -123.9  13.922   94.2  0.0541   61.7  0.2726  -73.6
 1.500  0.2616 -128.7  13.036   92.3  0.0571   61.5  0.2512  -75.4
 1.600  0.2555 -133.4  12.259   90.5  0.0599   61.4  0.2339  -77.5
 1.700  0.2481 -137.7  11.563   88.9  0.0631   61.4  0.2169  -79.2
 1.800  0.2443 -141.8  10.950   87.3  0.0659   61.2  0.2041  -81.4
 1.900  0.2403 -145.7  10.390   85.9  0.0687   60.9  0.1918  -83.4
 2.000  0.2372 -149.5   9.884   84.5  0.0717   60.6  0.1825  -85.7
 2.100  0.2360 -153.0   9.423   83.1  0.0749   60.1  0.1798  -88.9
 2.200  0.2338 -156.2   9.003   81.8  0.0778   59.9  0.1720  -90.8
 2.300  0.2324 -159.5   8.620   80.6  0.0807   59.7  0.1648  -92.7
 2.400  0.2314 -162.3   8.269   79.4  0.0835   59.3  0.1588  -94.6
 2.500  0.2304 -165.2   7.946   78.2  0.0863   58.9  0.1536  -96.3
 2.600  0.2295 -167.9   7.646   77.0  0.0892   58.5  0.1487  -98.2
 2.700  0.2291 -170.3   7.369   76.0  0.0922   58.1  0.1449  -99.6
 2.800  0.2277 -172.8   7.109   74.9  0.0952   57.8  0.1414 -101.3
 2.900  0.2279 -175.0   6.867   73.8  0.0982   57.4  0.1386 -102.9
 3.000  0.2271 -177.4   6.648   72.7  0.1009   56.8  0.1363 -104.6
 3.100  0.2274 -179.3   6.434   71.8  0.1040   56.4  0.1335 -105.7
 3.200  0.2261  178.4   6.237   70.7  0.1069   56.0  0.1312 -107.0
 3.300  0.2266  176.5   6.054   69.7  0.1098   55.6  0.1295 -108.0
 3.400  0.2257  174.4   5.881   68.7  0.1127   55.0  0.1276 -109.4
 3.500  0.2257  172.5   5.719   67.7  0.1155   54.5  0.1254 -110.2
 3.600  0.2254  170.5   5.562   66.8  0.1185   54.0  0.1235 -111.3
 3.700  0.2256  168.8   5.419   65.8  0.1215   53.5  0.1217 -112.2
 3.800  0.2254  166.8   5.277   64.8  0.1242   53.1  0.1198 -113.1
 3.900  0.2260  165.1   5.148   63.9  0.1274   52.5  0.1173 -114.0
 4.000  0.2259  163.4   5.021   63.0  0.1301   51.9  0.1147 -114.9
 4.100  0.2268  161.8   4.906   62.0  0.1331   51.4  0.1122 -115.8
 4.200  0.2277  160.1   4.794   61.1  0.1360   50.8  0.1092 -117.1
 4.300  0.2287  158.7   4.690   60.1  0.1390   50.3  0.1066 -118.0
 4.400  0.2298  157.1   4.587   59.2  0.1418   49.8  0.1037 -119.1
 4.500  0.2310  155.8   4.488   58.3  0.1449   49.2  0.1006 -120.3
 4.600  0.2328  154.3   4.396   57.4  0.1477   48.6  0.0974 -121.7
 4.700  0.2341  153.1   4.310   56.4  0.1505   48.0  0.0947 -123.3
 4.800  0.2365  151.7   4.223   55.5  0.1534   47.4  0.0914 -124.7
 4.900  0.2382  150.7   4.141   54.6  0.1565   46.7  0.0879 -126.5
 5.000  0.2404  149.4   4.064   53.6  0.1592   46.1  0.0855 -128.4
 5.100  0.2422  148.3   3.989   52.7  0.1623   45.6  0.0824 -129.8
 5.200  0.2449  147.4   3.916   51.8  0.1650   44.9  0.0794 -131.9
 5.300  0.2468  146.4   3.846   50.9  0.1678   44.2  0.0770 -133.9
 5.400  0.2498  145.4   3.778   49.9  0.1706   43.5  0.0749 -136.2
 5.500  0.2520  144.5   3.712   49.0  0.1733   42.9  0.0721 -138.5
 5.600  0.2552  143.5   3.649   48.1  0.1762   42.2  0.0699 -141.4
 5.700  0.2575  142.6   3.587   47.1  0.1788   41.6  0.0677 -143.9
 5.800  0.2599  141.5   3.528   46.1  0.1815   40.9  0.0657 -146.4
 5.900  0.2627  140.6   3.471   45.2  0.1841   40.2  0.0634 -150.0
 6.000  0.2651  139.5   3.413   44.3  0.1868   39.5  0.0618 -152.8
 6.100  0.2679  138.5   3.358   43.4  0.1895   38.8  0.0595 -156.0
 6.200  0.2705  137.5   3.303   42.4  0.1919   38.1  0.0572 -160.2
 6.300  0.2733  136.1   3.250   41.5  0.1942   37.5  0.0553 -165.0
 6.400  0.2762  135.0   3.200   40.5  0.1968   36.8  0.0540 -169.6
 6.500  0.2788  133.7   3.149   39.6  0.1993   36.1  0.0514 -175.1
 6.600  0.2814  132.5   3.096   38.7  0.2016   35.4  0.0504  178.7
 6.700  0.2839  131.1   3.049   37.8  0.2039   34.8  0.0487  172.6
 6.800  0.2867  129.7   3.001   36.8  0.2062   34.1  0.0475  166.3
 6.900  0.2900  128.3   2.955   36.0  0.2085   33.5  0.0466  158.7
 7.000  0.2934  126.9   2.908   35.0  0.2109   32.8  0.0466  150.9
 7.100  0.2968  125.7   2.865   34.2  0.2132   32.2  0.0475  142.4
 7.200  0.3003  124.4   2.822   33.3  0.2156   31.6  0.0493  134.3
 7.300  0.3046  123.2   2.781   32.5  0.2180   30.9  0.0528  126.9
 7.400  0.3091  122.0   2.741   31.6  0.2204   30.3  0.0571  120.6
 7.500  0.3145  121.1   2.704   30.8  0.2229   29.7  0.0626  114.8
 7.600  0.3200  120.1   2.667   30.0  0.2255   29.0  0.0685  109.9
 7.700  0.3263  119.3   2.631   29.2  0.2279   28.4  0.0762  106.0
 7.800  0.3326  118.4   2.595   28.4  0.2303   27.7  0.0841  102.8
 7.900  0.3404  117.7   2.561   27.5  0.2326   26.9  0.0934   99.9
 8.000  0.3482  117.0   2.527   26.6  0.2350   26.1  0.1029   97.5
!
!  f       NFmin   Gammaopt  rn/50
! GHz       dB    MAG  ANG    -
 0.450      0.94  0.04    2   0.20
 0.900      0.98  0.02    6   0.17
 1.500      1.00  0.01   -9   0.15
 1.800      1.02  0.01  -17   0.16
 1.900      1.02  0.00   51   0.16
 2.400      1.05  0.03 -153   0.15
 3.500      1.13  0.06 -161   0.15
 5.500      1.28  0.17  234   0.11
 6.000      1.32  0.16  256   0.14
!
! (c) 2014  Infineon Technologies AG, Munich
