! Infineon Technologies  Discrete & RF Semiconductors
! BFP640FESD
! VCE =  4.0 V,  IC =  4.0 mA
! Common Emitter S-Parameters:                            Jan 2016
# GHz  S  MA  R  50
!  f         S11            S21            S12            S22
! GHz     MAG   ANG      MAG   ANG      MAG   ANG      MAG   ANG
 0.010  0.9485   -0.4  12.903  179.3  0.0006   20.3  0.9889    0.5
 0.015  0.9492   -0.8  12.872  179.2  0.0008   49.3  0.9913   -0.1
 0.020  0.9499   -1.1  12.841  179.0  0.0011   64.7  0.9938   -0.7
 0.025  0.9495   -1.4  12.835  178.8  0.0013   67.8  0.9938   -0.9
 0.030  0.9490   -1.7  12.828  178.5  0.0016   69.9  0.9938   -1.0
 0.035  0.9486   -2.0  12.823  178.3  0.0018   71.4  0.9939   -1.2
 0.040  0.9483   -2.3  12.817  178.1  0.0021   72.6  0.9939   -1.3
 0.045  0.9479   -2.6  12.811  177.8  0.0023   73.6  0.9939   -1.5
 0.050  0.9476   -2.9  12.806  177.6  0.0026   74.3  0.9940   -1.6
 0.055  0.9476   -3.2  12.816  177.4  0.0028   75.2  0.9939   -1.8
 0.060  0.9475   -3.5  12.826  177.3  0.0030   75.9  0.9938   -2.0
 0.065  0.9475   -3.8  12.836  177.1  0.0033   76.6  0.9938   -2.1
 0.070  0.9475   -4.1  12.846  177.0  0.0035   77.2  0.9937   -2.3
 0.075  0.9476   -4.4  12.856  176.8  0.0037   77.7  0.9937   -2.5
 0.080  0.9477   -4.6  12.866  176.6  0.0039   78.1  0.9936   -2.7
 0.085  0.9478   -4.9  12.876  176.5  0.0041   78.5  0.9936   -2.9
 0.090  0.9479   -5.2  12.887  176.3  0.0044   78.9  0.9936   -3.0
 0.095  0.9480   -5.5  12.897  176.2  0.0046   79.2  0.9936   -3.2
 0.100  0.9482   -5.8  12.908  176.0  0.0048   79.5  0.9936   -3.4
 0.105  0.9477   -6.1  12.908  175.8  0.0050   79.5  0.9934   -3.6
 0.110  0.9472   -6.4  12.908  175.5  0.0053   79.6  0.9932   -3.7
 0.115  0.9468   -6.7  12.909  175.3  0.0055   79.6  0.9929   -3.9
 0.120  0.9464   -7.0  12.910  175.1  0.0058   79.6  0.9927   -4.1
 0.125  0.9460   -7.3  12.910  174.8  0.0060   79.7  0.9925   -4.2
 0.130  0.9456   -7.6  12.912  174.6  0.0062   79.7  0.9924   -4.4
 0.135  0.9453   -7.9  12.913  174.4  0.0065   79.7  0.9922   -4.6
 0.140  0.9450   -8.2  12.914  174.2  0.0067   79.8  0.9920   -4.8
 0.145  0.9447   -8.5  12.916  173.9  0.0070   79.8  0.9919   -4.9
 0.150  0.9444   -8.8  12.918  173.7  0.0072   79.8  0.9917   -5.1
 0.155  0.9443   -9.1  12.917  173.5  0.0074   79.8  0.9914   -5.3
 0.160  0.9442   -9.4  12.916  173.3  0.0077   79.8  0.9911   -5.4
 0.165  0.9441   -9.7  12.916  173.1  0.0079   79.8  0.9908   -5.6
 0.170  0.9441  -10.0  12.915  172.9  0.0082   79.8  0.9906   -5.8
 0.175  0.9440  -10.2  12.915  172.7  0.0084   79.8  0.9903   -5.9
 0.180  0.9440  -10.5  12.915  172.4  0.0086   79.8  0.9900   -6.1
 0.185  0.9441  -10.8  12.915  172.2  0.0089   79.8  0.9898   -6.3
 0.190  0.9441  -11.1  12.915  172.0  0.0091   79.8  0.9896   -6.5
 0.195  0.9442  -11.4  12.915  171.8  0.0094   79.8  0.9893   -6.6
 0.200  0.9443  -11.7  12.916  171.6  0.0096   79.8  0.9891   -6.8
 0.220  0.9430  -12.9  12.891  170.6  0.0106   79.6  0.9878   -7.5
 0.240  0.9420  -14.0  12.869  169.7  0.0115   79.4  0.9866   -8.2
 0.260  0.9409  -15.2  12.857  168.8  0.0124   79.0  0.9851   -8.8
 0.280  0.9395  -16.3  12.853  168.0  0.0133   78.5  0.9834   -9.5
 0.300  0.9384  -17.4  12.852  167.2  0.0142   78.0  0.9819  -10.2
 0.320  0.9368  -18.6  12.831  166.4  0.0152   77.4  0.9799  -10.9
 0.340  0.9355  -19.7  12.813  165.5  0.0161   76.9  0.9780  -11.6
 0.360  0.9341  -20.9  12.790  164.7  0.0171   76.4  0.9759  -12.2
 0.380  0.9325  -22.0  12.763  163.8  0.0180   75.9  0.9736  -12.9
 0.400  0.9313  -23.2  12.738  162.9  0.0189   75.4  0.9715  -13.5
 0.420  0.9293  -24.3  12.707  162.1  0.0198   74.8  0.9690  -14.1
 0.440  0.9277  -25.4  12.679  161.2  0.0207   74.2  0.9667  -14.8
 0.450  0.9270  -26.0  12.666  160.8  0.0211   73.9  0.9656  -15.1
 0.460  0.9256  -26.6  12.647  160.4  0.0216   73.6  0.9641  -15.4
 0.480  0.9231  -27.7  12.612  159.5  0.0225   73.1  0.9612  -16.1
 0.500  0.9210  -28.9  12.579  158.6  0.0234   72.6  0.9584  -16.8
 0.520  0.9180  -30.0  12.536  157.7  0.0242   71.9  0.9551  -17.4
 0.540  0.9154  -31.1  12.497  156.9  0.0251   71.3  0.9519  -18.1
 0.560  0.9130  -32.2  12.460  156.0  0.0259   70.7  0.9489  -18.7
 0.580  0.9111  -33.4  12.426  155.1  0.0268   70.1  0.9459  -19.4
 0.600  0.9095  -34.5  12.395  154.2  0.0276   69.6  0.9431  -20.0
 0.620  0.9064  -35.6  12.347  153.4  0.0284   69.0  0.9395  -20.6
 0.640  0.9035  -36.7  12.301  152.6  0.0292   68.3  0.9360  -21.2
 0.660  0.9011  -37.8  12.258  151.8  0.0300   67.8  0.9326  -21.8
 0.680  0.8989  -38.9  12.217  151.0  0.0308   67.2  0.9293  -22.5
 0.700  0.8971  -40.0  12.179  150.2  0.0316   66.7  0.9261  -23.1
 0.720  0.8938  -41.1  12.119  149.4  0.0324   66.1  0.9220  -23.7
 0.740  0.8909  -42.1  12.061  148.6  0.0331   65.5  0.9181  -24.3
 0.760  0.8882  -43.2  12.006  147.8  0.0339   64.9  0.9143  -24.9
 0.780  0.8859  -44.3  11.953  147.0  0.0346   64.4  0.9105  -25.6
 0.800  0.8839  -45.4  11.902  146.2  0.0354   63.9  0.9069  -26.2
 0.820  0.8803  -46.4  11.845  145.4  0.0361   63.3  0.9028  -26.8
 0.840  0.8771  -47.5  11.790  144.7  0.0368   62.7  0.8987  -27.3
 0.860  0.8741  -48.6  11.738  143.9  0.0375   62.2  0.8948  -27.9
 0.880  0.8715  -49.6  11.687  143.1  0.0383   61.6  0.8910  -28.5
 0.900  0.8691  -50.7  11.639  142.3  0.0390   61.1  0.8872  -29.1
 0.920  0.8655  -51.7  11.577  141.6  0.0397   60.5  0.8827  -29.7
 0.940  0.8621  -52.8  11.518  140.8  0.0403   60.0  0.8783  -30.2
 0.960  0.8591  -53.8  11.460  140.1  0.0410   59.4  0.8740  -30.8
 0.980  0.8563  -54.8  11.404  139.4  0.0416   58.9  0.8697  -31.4
 1.000  0.8538  -55.9  11.350  138.6  0.0423   58.4  0.8656  -32.0
 1.020  0.8504  -56.9  11.286  137.9  0.0429   57.9  0.8611  -32.5
 1.040  0.8472  -57.8  11.224  137.1  0.0435   57.3  0.8566  -33.1
 1.060  0.8442  -58.8  11.164  136.4  0.0441   56.8  0.8522  -33.7
 1.080  0.8415  -59.8  11.106  135.7  0.0447   56.3  0.8479  -34.2
 1.100  0.8391  -60.8  11.050  134.9  0.0453   55.8  0.8437  -34.8
 1.120  0.8355  -61.8  10.985  134.2  0.0459   55.3  0.8392  -35.3
 1.140  0.8322  -62.8  10.922  133.4  0.0465   54.8  0.8347  -35.9
 1.160  0.8291  -63.8  10.861  132.7  0.0470   54.3  0.8303  -36.4
 1.180  0.8263  -64.8  10.802  132.0  0.0476   53.9  0.8260  -36.9
 1.200  0.8237  -65.8  10.744  131.2  0.0482   53.4  0.8217  -37.5
 1.220  0.8202  -66.7  10.680  130.5  0.0487   52.9  0.8173  -38.0
 1.240  0.8169  -67.7  10.618  129.9  0.0492   52.4  0.8129  -38.5
 1.260  0.8138  -68.7  10.557  129.2  0.0497   51.9  0.8086  -39.0
 1.280  0.8109  -69.6  10.498  128.5  0.0502   51.5  0.8044  -39.6
 1.300  0.8083  -70.6  10.440  127.8  0.0507   51.0  0.8002  -40.1
 1.320  0.8046  -71.5  10.372  127.1  0.0511   50.5  0.7955  -40.6
 1.340  0.8011  -72.5  10.305  126.5  0.0516   50.1  0.7908  -41.1
 1.360  0.7978  -73.4  10.239  125.8  0.0520   49.6  0.7862  -41.6
 1.380  0.7947  -74.3  10.175  125.1  0.0525   49.1  0.7816  -42.1
 1.400  0.7919  -75.3  10.113  124.4  0.0529   48.7  0.7771  -42.6
 1.420  0.7889  -76.1  10.049  123.8  0.0533   48.3  0.7729  -43.1
 1.440  0.7860  -76.9   9.986  123.2  0.0537   47.9  0.7687  -43.5
 1.460  0.7833  -77.7   9.924  122.6  0.0542   47.5  0.7646  -44.0
 1.480  0.7808  -78.6   9.863  122.0  0.0546   47.1  0.7605  -44.4
 1.500  0.7784  -79.4   9.803  121.4  0.0550   46.7  0.7565  -44.9
 1.520  0.7753  -80.3   9.743  120.8  0.0554   46.3  0.7522  -45.4
 1.540  0.7724  -81.2   9.684  120.1  0.0557   45.8  0.7480  -45.8
 1.560  0.7696  -82.1   9.627  119.5  0.0561   45.4  0.7438  -46.3
 1.580  0.7671  -83.0   9.570  118.9  0.0564   45.0  0.7397  -46.8
 1.600  0.7647  -83.9   9.515  118.2  0.0568   44.6  0.7356  -47.3
 1.620  0.7617  -84.7   9.451  117.7  0.0571   44.2  0.7316  -47.7
 1.640  0.7588  -85.4   9.388  117.1  0.0575   43.9  0.7277  -48.1
 1.660  0.7561  -86.2   9.326  116.5  0.0578   43.5  0.7238  -48.5
 1.680  0.7535  -87.0   9.265  116.0  0.0582   43.2  0.7199  -49.0
 1.700  0.7510  -87.8   9.205  115.4  0.0585   42.8  0.7161  -49.4
 1.720  0.7485  -88.6   9.139  114.9  0.0588   42.5  0.7124  -49.8
 1.740  0.7461  -89.3   9.075  114.3  0.0591   42.2  0.7087  -50.2
 1.760  0.7439  -90.1   9.011  113.8  0.0593   41.8  0.7051  -50.6
 1.780  0.7418  -90.8   8.947  113.3  0.0596   41.5  0.7015  -51.1
 1.800  0.7398  -91.6   8.885  112.7  0.0599   41.2  0.6979  -51.5
 1.820  0.7373  -92.4   8.830  112.2  0.0602   40.9  0.6941  -51.9
 1.840  0.7349  -93.1   8.775  111.7  0.0605   40.5  0.6904  -52.4
 1.860  0.7326  -93.9   8.721  111.2  0.0607   40.2  0.6867  -52.8
 1.880  0.7305  -94.7   8.668  110.6  0.0610   39.8  0.6831  -53.3
 1.900  0.7285  -95.5   8.616  110.1  0.0613   39.5  0.6795  -53.7
 1.920  0.7259  -96.2   8.557  109.6  0.0615   39.2  0.6762  -54.1
 1.940  0.7235  -96.8   8.499  109.1  0.0617   38.9  0.6729  -54.4
 1.960  0.7211  -97.5   8.442  108.6  0.0620   38.7  0.6696  -54.8
 1.980  0.7188  -98.1   8.385  108.1  0.0622   38.4  0.6664  -55.1
 2.000  0.7166  -98.8   8.329  107.6  0.0624   38.1  0.6632  -55.5
 2.020  0.7141  -99.5   8.276  107.1  0.0626   37.8  0.6599  -55.9
 2.040  0.7117 -100.1   8.224  106.6  0.0628   37.5  0.6566  -56.2
 2.060  0.7094 -100.8   8.172  106.2  0.0630   37.2  0.6533  -56.6
 2.080  0.7072 -101.5   8.121  105.7  0.0632   37.0  0.6500  -57.0
 2.100  0.7051 -102.2   8.070  105.2  0.0634   36.7  0.6468  -57.4
 2.120  0.7031 -102.9   8.020  104.7  0.0636   36.4  0.6436  -57.8
 2.140  0.7012 -103.6   7.971  104.2  0.0638   36.1  0.6405  -58.2
 2.160  0.6994 -104.3   7.922  103.7  0.0640   35.8  0.6374  -58.6
 2.180  0.6977 -105.0   7.874  103.1  0.0642   35.6  0.6343  -59.0
 2.200  0.6961 -105.7   7.827  102.6  0.0644   35.3  0.6312  -59.4
 2.220  0.6939 -106.3   7.778  102.2  0.0646   35.0  0.6282  -59.7
 2.240  0.6918 -107.0   7.729  101.7  0.0647   34.8  0.6253  -60.1
 2.260  0.6897 -107.6   7.681  101.3  0.0649   34.5  0.6224  -60.4
 2.280  0.6878 -108.3   7.633  100.9  0.0651   34.3  0.6195  -60.8
 2.300  0.6859 -108.9   7.586  100.4  0.0652   34.0  0.6166  -61.2
 2.320  0.6841 -109.6   7.539  100.0  0.0654   33.8  0.6138  -61.5
 2.340  0.6824 -110.2   7.492   99.5  0.0656   33.5  0.6110  -61.9
 2.360  0.6808 -110.9   7.446   99.0  0.0658   33.3  0.6082  -62.3
 2.380  0.6793 -111.5   7.401   98.6  0.0659   33.0  0.6054  -62.6
 2.400  0.6779 -112.2   7.356   98.1  0.0661   32.8  0.6027  -63.0
 2.420  0.6760 -112.8   7.310   97.7  0.0662   32.6  0.6000  -63.3
 2.440  0.6741 -113.4   7.265   97.3  0.0664   32.4  0.5973  -63.7
 2.460  0.6724 -114.1   7.220   96.9  0.0665   32.1  0.5946  -64.0
 2.480  0.6707 -114.7   7.175   96.5  0.0666   31.9  0.5919  -64.4
 2.500  0.6691 -115.3   7.131   96.1  0.0667   31.7  0.5893  -64.8
 2.520  0.6676 -115.9   7.087   95.6  0.0669   31.5  0.5866  -65.1
 2.540  0.6661 -116.6   7.044   95.2  0.0670   31.3  0.5840  -65.5
 2.560  0.6648 -117.2   7.001   94.8  0.0671   31.0  0.5815  -65.9
 2.580  0.6635 -117.9   6.958   94.3  0.0673   30.8  0.5789  -66.2
 2.600  0.6623 -118.5   6.916   93.9  0.0674   30.6  0.5764  -66.6
 2.620  0.6606 -119.0   6.873   93.5  0.0675   30.4  0.5740  -66.9
 2.640  0.6589 -119.6   6.831   93.2  0.0676   30.2  0.5716  -67.3
 2.660  0.6574 -120.2   6.789   92.8  0.0676   30.1  0.5692  -67.6
 2.680  0.6558 -120.7   6.747   92.4  0.0677   29.9  0.5669  -67.9
 2.700  0.6544 -121.3   6.705   92.0  0.0678   29.7  0.5646  -68.3
 2.720  0.6530 -121.8   6.664   91.6  0.0679   29.5  0.5622  -68.6
 2.740  0.6516 -122.4   6.623   91.2  0.0680   29.3  0.5599  -69.0
 2.760  0.6504 -123.0   6.582   90.8  0.0680   29.2  0.5577  -69.3
 2.780  0.6491 -123.5   6.542   90.4  0.0681   29.0  0.5554  -69.6
 2.800  0.6480 -124.1   6.502   90.0  0.0682   28.8  0.5532  -70.0
 2.820  0.6468 -124.6   6.464   89.6  0.0683   28.6  0.5513  -70.3
 2.840  0.6456 -125.1   6.426   89.3  0.0683   28.5  0.5494  -70.6
 2.860  0.6444 -125.6   6.389   88.9  0.0684   28.3  0.5475  -70.9
 2.880  0.6433 -126.2   6.352   88.6  0.0684   28.1  0.5456  -71.2
 2.900  0.6423 -126.7   6.315   88.2  0.0685   27.9  0.5437  -71.5
 2.920  0.6413 -127.2   6.278   87.8  0.0686   27.8  0.5419  -71.8
 2.940  0.6404 -127.7   6.242   87.5  0.0686   27.6  0.5400  -72.1
 2.960  0.6395 -128.2   6.205   87.1  0.0687   27.4  0.5382  -72.4
 2.980  0.6387 -128.8   6.170   86.7  0.0687   27.3  0.5364  -72.7
 3.000  0.6379 -129.3   6.134   86.3  0.0688   27.1  0.5346  -73.0
 3.100  0.6321 -131.6   5.972   84.8  0.0690   26.6  0.5272  -74.2
 3.200  0.6273 -133.9   5.813   83.3  0.0692   26.0  0.5201  -75.3
 3.300  0.6235 -136.2   5.659   81.7  0.0694   25.5  0.5131  -76.6
 3.400  0.6208 -138.5   5.510   80.0  0.0696   24.9  0.5064  -77.8
 3.500  0.6191 -140.9   5.366   78.2  0.0698   24.4  0.5000  -79.1
 3.600  0.6163 -142.9   5.244   76.9  0.0700   24.1  0.4946  -80.0
 3.700  0.6141 -144.8   5.124   75.5  0.0702   23.8  0.4894  -81.0
 3.800  0.6128 -146.8   5.008   74.1  0.0704   23.6  0.4843  -81.9
 3.900  0.6121 -148.8   4.895   72.6  0.0706   23.3  0.4793  -82.9
 4.000  0.6122 -150.8   4.785   71.0  0.0708   23.0  0.4745  -83.9
 4.100  0.6111 -152.7   4.684   69.7  0.0710   22.8  0.4694  -85.0
 4.200  0.6106 -154.6   4.586   68.3  0.0713   22.5  0.4645  -86.1
 4.300  0.6109 -156.6   4.491   66.9  0.0715   22.3  0.4597  -87.2
 4.400  0.6118 -158.5   4.399   65.4  0.0718   22.0  0.4551  -88.3
 4.500  0.6134 -160.4   4.310   63.8  0.0720   21.8  0.4507  -89.5
 4.600  0.6125 -162.1   4.220   62.6  0.0721   21.6  0.4458  -90.6
 4.700  0.6121 -163.8   4.132   61.2  0.0721   21.4  0.4411  -91.6
 4.800  0.6123 -165.5   4.047   59.9  0.0722   21.2  0.4365  -92.7
 4.900  0.6130 -167.2   3.964   58.5  0.0722   21.0  0.4321  -93.9
 5.000  0.6143 -168.9   3.883   57.0  0.0723   20.8  0.4279  -95.0
 5.100  0.6116 -170.2   3.809   55.9  0.0725   21.1  0.4240  -95.8
 5.200  0.6092 -171.6   3.736   54.8  0.0727   21.3  0.4202  -96.6
 5.300  0.6072 -172.9   3.665   53.6  0.0728   21.6  0.4164  -97.4
 5.400  0.6055 -174.2   3.595   52.4  0.0730   21.8  0.4128  -98.2
 5.500  0.6041 -175.6   3.527   51.1  0.0732   22.1  0.4092  -99.0
 5.600  0.6033 -177.1   3.475   50.0  0.0737   22.0  0.4046 -100.1
 5.700  0.6030 -178.7   3.425   48.8  0.0742   21.9  0.4002 -101.1
 5.800  0.6030  179.8   3.376   47.6  0.0746   21.7  0.3959 -102.2
 5.900  0.6035  178.2   3.329   46.4  0.0751   21.6  0.3918 -103.4
 6.000  0.6045  176.7   3.283   45.1  0.0756   21.5  0.3878 -104.5
 6.100  0.6032  175.0   3.233   43.9  0.0759   21.5  0.3828 -105.6
 6.200  0.6023  173.3   3.184   42.7  0.0762   21.5  0.3779 -106.8
 6.300  0.6020  171.7   3.137   41.4  0.0764   21.4  0.3733 -108.0
 6.400  0.6023  170.0   3.092   40.1  0.0767   21.4  0.3687 -109.2
 6.500  0.6030  168.3   3.048   38.8  0.0770   21.4  0.3644 -110.5
 6.600  0.6033  166.7   3.000   37.7  0.0772   21.6  0.3590 -111.4
 6.800  0.6053  163.7   2.909   35.3  0.0777   22.0  0.3486 -113.2
 7.000  0.6090  160.6   2.823   32.7  0.0781   22.4  0.3385 -115.1
 7.200  0.6120  157.8   2.738   30.6  0.0792   23.2  0.3263 -116.8
 7.400  0.6165  155.1   2.657   28.3  0.0804   24.0  0.3143 -118.6
 7.600  0.6235  152.3   2.585   26.0  0.0822   24.6  0.3021 -121.3
 7.800  0.6329  149.7   2.522   23.6  0.0847   25.0  0.2901 -125.0
 8.000  0.6436  147.1   2.463   21.1  0.0871   25.3  0.2794 -128.9
 8.200  0.6501  144.6   2.389   18.7  0.0895   24.8  0.2687 -134.5
 8.400  0.6578  142.1   2.320   16.1  0.0920   24.3  0.2607 -140.6
 8.600  0.6631  139.9   2.251   13.6  0.0941   23.7  0.2533 -147.0
 8.800  0.6658  137.8   2.182   11.4  0.0958   23.1  0.2468 -154.0
 9.000  0.6694  135.7   2.116    9.0  0.0976   22.4  0.2441 -161.3
 9.200  0.6739  133.9   2.053    7.3  0.0992   21.7  0.2455 -168.9
 9.400  0.6791  132.2   1.992    5.5  0.1009   21.0  0.2511 -176.3
 9.600  0.6882  130.1   1.937    3.5  0.1023   20.4  0.2620  176.2
 9.800  0.7015  127.9   1.889    1.3  0.1034   19.9  0.2788  168.8
10.000  0.7159  125.7   1.844   -1.1  0.1046   19.4  0.2997  162.4
!
!  f       NFmin   Gammaopt  rn/50
! GHz       dB    MAG  ANG    -
 0.450      0.49  0.60    7   0.15
 2.400      0.72  0.32   55   0.13
 5.500      1.03  0.42  148   0.08
10.000      1.94  0.53 -123   0.27
!
! (c) 2016  Infineon Technologies AG, Munich
