! Infineon Technologies  Discrete & RF Semiconductors
! BFP640
! VCE =  3.0 V,  IC =  45 mA
! Common Emitter S-Parameters:                            Apr 2013
# GHz  S  MA  R  50
!  f         S11            S21            S12            S22
! GHz     MAG   ANG      MAG   ANG      MAG   ANG      MAG   ANG
 0.030  0.4073   -8.3  60.758  174.8  0.0017   64.5  0.9605   -1.9
 0.040  0.4069  -10.9  60.868  173.2  0.0024   93.2  0.9635   -3.3
 0.050  0.4124  -14.0  61.476  171.6  0.0031   86.9  0.9661   -5.0
 0.060  0.4150  -16.8  61.568  169.6  0.0040   91.7  0.9676   -6.5
 0.070  0.4113  -19.7  61.386  167.9  0.0039   99.5  0.9647   -7.9
 0.080  0.4078  -22.4  61.132  166.1  0.0029   89.3  0.9600   -9.1
 0.090  0.4058  -25.3  60.579  164.3  0.0040   79.3  0.9549  -10.7
 0.100  0.4064  -27.9  60.172  162.7  0.0043   73.3  0.9496  -12.0
 0.110  0.4030  -31.3  59.663  161.0  0.0046   78.5  0.9442  -13.4
 0.120  0.4002  -34.0  59.129  159.3  0.0055   79.5  0.9354  -14.6
 0.130  0.3970  -36.7  58.544  157.7  0.0059   80.7  0.9280  -16.1
 0.140  0.3974  -39.2  58.161  156.1  0.0059   77.4  0.9205  -17.2
 0.150  0.3958  -41.8  57.874  154.6  0.0060   75.7  0.9101  -18.4
 0.200  0.3885  -53.6  55.150  147.0  0.0082   74.7  0.8642  -23.8
 0.250  0.3768  -64.3  52.204  140.3  0.0098   74.3  0.8145  -28.2
 0.300  0.3650  -73.8  48.955  134.4  0.0108   71.6  0.7627  -32.1
 0.350  0.3533  -82.8  45.551  129.1  0.0126   70.0  0.7160  -35.5
 0.400  0.3427  -90.0  42.883  124.6  0.0138   68.0  0.6694  -38.1
 0.450  0.3341  -97.1  39.935  120.5  0.0149   69.0  0.6326  -40.3
 0.500  0.3232 -103.2  37.465  117.1  0.0160   66.6  0.5922  -42.2
 0.600  0.3080 -114.6  32.971  111.1  0.0183   65.9  0.5281  -45.0
 0.700  0.2965 -124.8  29.167  106.2  0.0205   66.0  0.4756  -46.9
 0.800  0.2894 -132.9  26.169  102.1  0.0226   65.8  0.4319  -48.2
 0.900  0.2839 -140.8  23.631   98.6  0.0249   65.1  0.3948  -49.0
 1.000  0.2811 -147.6  21.493   95.6  0.0268   64.8  0.3640  -49.6
 1.100  0.2790 -153.9  19.690   92.8  0.0290   64.4  0.3379  -49.8
 1.200  0.2780 -159.4  18.170   90.3  0.0312   63.6  0.3167  -49.9
 1.300  0.2772 -164.3  16.859   88.1  0.0334   63.7  0.2982  -49.9
 1.400  0.2786 -169.0  15.709   86.0  0.0353   63.0  0.2829  -49.7
 1.500  0.2787 -173.3  14.718   84.0  0.0374   62.4  0.2684  -49.3
 1.600  0.2802 -177.1  13.853   82.1  0.0397   62.0  0.2568  -49.3
 1.700  0.2830  179.1  13.056   80.2  0.0417   61.2  0.2450  -48.7
 1.800  0.2853  175.8  12.360   78.5  0.0439   60.5  0.2353  -48.6
 1.900  0.2892  172.5  11.727   76.8  0.0460   60.1  0.2252  -48.3
 2.000  0.2918  169.5  11.166   75.2  0.0479   59.3  0.2168  -48.3
 2.100  0.2966  167.1  10.633   73.6  0.0501   58.5  0.2081  -48.7
 2.200  0.2990  164.4  10.173   71.9  0.0520   57.7  0.2010  -48.5
 2.300  0.3027  161.7   9.734   70.4  0.0543   57.1  0.1940  -48.2
 2.400  0.3061  159.1   9.336   68.9  0.0565   56.2  0.1876  -48.0
 2.500  0.3103  156.7   8.962   67.4  0.0584   55.6  0.1809  -47.6
 2.600  0.3139  154.3   8.623   65.9  0.0604   54.9  0.1737  -47.3
 2.700  0.3180  152.1   8.315   64.5  0.0625   54.0  0.1674  -46.9
 2.800  0.3226  149.9   8.018   63.0  0.0646   53.2  0.1605  -46.8
 2.900  0.3276  147.9   7.744   61.6  0.0668   52.4  0.1538  -46.7
 3.000  0.3330  145.7   7.479   60.2  0.0687   51.5  0.1462  -46.8
 3.100  0.3376  143.8   7.252   58.8  0.0708   50.7  0.1398  -46.8
 3.200  0.3437  141.8   7.018   57.4  0.0729   49.7  0.1326  -47.2
 3.300  0.3492  139.9   6.808   56.0  0.0748   48.7  0.1262  -47.5
 3.400  0.3566  137.9   6.600   54.6  0.0767   48.0  0.1187  -48.0
 3.500  0.3615  136.1   6.413   53.3  0.0787   47.0  0.1121  -47.9
 3.600  0.3687  134.3   6.230   51.9  0.0805   46.3  0.1045  -48.3
 3.700  0.3745  132.7   6.063   50.6  0.0824   45.2  0.0970  -48.3
 3.800  0.3817  131.0   5.895   49.2  0.0844   44.4  0.0894  -48.8
 3.900  0.3886  129.3   5.739   47.9  0.0863   43.5  0.0816  -49.2
 4.000  0.3955  127.8   5.591   46.6  0.0882   42.6  0.0742  -49.8
 4.100  0.4014  126.3   5.450   45.3  0.0900   41.6  0.0667  -50.6
 4.200  0.4091  124.8   5.312   44.0  0.0917   40.6  0.0597  -51.5
 4.300  0.4151  123.3   5.184   42.6  0.0936   39.7  0.0527  -52.6
 4.400  0.4230  122.1   5.053   41.4  0.0953   38.9  0.0466  -53.0
 4.500  0.4281  120.7   4.938   40.1  0.0969   38.0  0.0401  -53.6
 4.600  0.4349  119.6   4.829   38.8  0.0988   37.2  0.0339  -53.9
 4.700  0.4406  118.4   4.713   37.7  0.1006   36.2  0.0279  -52.9
 4.800  0.4468  117.3   4.613   36.4  0.1023   35.4  0.0221  -51.4
 4.900  0.4515  116.2   4.510   35.1  0.1038   34.6  0.0171  -47.0
 5.000  0.4578  115.2   4.414   33.9  0.1056   33.7  0.0122  -39.2
 5.100  0.4617  114.1   4.325   32.7  0.1073   32.8  0.0083  -22.8
 5.200  0.4667  113.1   4.235   31.5  0.1089   32.0  0.0067   11.8
 5.300  0.4706  112.1   4.149   30.3  0.1106   31.1  0.0081   46.9
 5.400  0.4751  111.2   4.063   29.1  0.1124   30.2  0.0115   63.5
 5.500  0.4782  110.2   3.987   27.9  0.1139   29.4  0.0160   71.6
 5.600  0.4816  109.3   3.911   26.8  0.1159   28.6  0.0199   75.4
 5.700  0.4839  108.4   3.841   25.6  0.1173   27.8  0.0248   77.2
 5.800  0.4881  107.4   3.770   24.4  0.1190   26.9  0.0291   79.2
 5.900  0.4911  106.7   3.703   23.3  0.1208   26.0  0.0336   79.9
 6.000  0.4941  105.8   3.641   22.1  0.1226   25.2  0.0379   81.4
 6.100  0.4989  105.1   3.584   21.0  0.1244   24.3  0.0419   82.1
 6.200  0.5005  104.1   3.526   19.8  0.1261   23.3  0.0463   83.6
 6.300  0.5062  103.2   3.467   18.6  0.1278   22.4  0.0510   84.1
 6.400  0.5083  102.2   3.417   17.4  0.1296   21.4  0.0555   85.1
 6.500  0.5128  101.1   3.366   16.1  0.1312   20.4  0.0604   85.6
 6.600  0.5164  100.1   3.309   14.9  0.1328   19.5  0.0651   86.0
 6.700  0.5209   99.0   3.262   13.7  0.1344   18.5  0.0697   86.1
 6.800  0.5255   97.8   3.206   12.4  0.1359   17.6  0.0745   86.4
 6.900  0.5296   96.7   3.162   11.2  0.1374   16.6  0.0796   86.3
 7.000  0.5335   95.5   3.114    9.9  0.1392   15.5  0.0840   87.0
 7.100  0.5379   94.4   3.072    8.7  0.1406   14.6  0.0891   87.1
 7.200  0.5426   93.1   3.023    7.5  0.1421   13.5  0.0936   87.4
 7.300  0.5471   92.0   2.981    6.2  0.1434   12.6  0.0989   87.1
 7.400  0.5521   90.7   2.934    4.9  0.1450   11.6  0.1040   86.9
 7.500  0.5575   89.5   2.892    3.6  0.1462   10.5  0.1100   86.2
 7.600  0.5627   88.2   2.849    2.3  0.1474    9.5  0.1160   86.3
 7.700  0.5692   87.1   2.807    1.1  0.1487    8.4  0.1222   85.6
 7.800  0.5753   85.8   2.762   -0.2  0.1499    7.5  0.1283   84.8
 7.900  0.5821   84.7   2.720   -1.5  0.1510    6.4  0.1362   84.0
 8.000  0.5884   83.5   2.679   -2.8  0.1520    5.4  0.1428   83.3
 8.500  0.6251   77.8   2.471   -9.1  0.1562    0.3  0.1860   78.2
 9.000  0.6635   72.6   2.265  -14.8  0.1588   -4.5  0.2400   74.4
 9.500  0.7019   68.1   2.071  -19.8  0.1597   -8.5  0.2960   72.0
10.000  0.7346   64.8   1.914  -23.9  0.1609  -11.8  0.3434   71.5
!
!  f       NFmin   Gammaopt  rn/50
! GHz       dB    MAG  ANG    -
 0.450      1.34  0.29 -171   0.08
 0.900      1.35  0.32 -158   0.09
 1.500      1.36  0.35 -145   0.12
 1.900      1.39  0.36  222   0.14
 2.400      1.47  0.38 -126   0.16
 3.500      1.60  0.42 -109   0.20
 5.500      1.85  0.45  -92   0.34
10.000      2.45  0.65  -47   0.99
!
! (c) 2013  Infineon Technologies AG, Munich
