! Infineon Technologies  Discrete & RF Semiconductors
! BFP620
! VCE =  2.3 V,  IC =  8.0 mA
! Common Emitter S-Parameters:                            Nov 2015
# GHz  S  MA  R  50
!  f         S11            S21            S12            S22
! GHz     MAG   ANG      MAG   ANG      MAG   ANG      MAG   ANG
 0.030  0.8690   -2.7  23.184  177.6  0.0026   55.7  0.9732   -1.8
 0.035  0.8667   -3.2  23.232  177.3  0.0029   58.2  0.9734   -2.1
 0.040  0.8644   -3.8  23.280  177.0  0.0032   60.2  0.9737   -2.4
 0.045  0.8655   -4.1  23.258  176.2  0.0035   62.7  0.9739   -2.8
 0.050  0.8667   -4.4  23.241  175.3  0.0039   64.7  0.9742   -3.1
 0.055  0.8681   -5.0  23.223  175.2  0.0042   66.7  0.9742   -3.5
 0.060  0.8695   -5.5  23.205  175.0  0.0046   68.4  0.9743   -3.8
 0.065  0.8687   -6.0  23.243  174.9  0.0049   70.0  0.9742   -4.1
 0.070  0.8680   -6.5  23.282  174.8  0.0053   71.3  0.9742   -4.4
 0.075  0.8663   -6.9  23.227  174.4  0.0056   71.9  0.9739   -4.7
 0.080  0.8646   -7.3  23.174  173.9  0.0059   72.5  0.9737   -5.1
 0.085  0.8639   -7.8  23.202  173.5  0.0062   73.0  0.9732   -5.4
 0.090  0.8633   -8.4  23.231  173.1  0.0066   73.5  0.9728   -5.8
 0.095  0.8644   -8.8  23.200  172.7  0.0069   73.2  0.9723   -6.1
 0.100  0.8656   -9.2  23.170  172.2  0.0073   73.0  0.9719   -6.5
 0.105  0.8628   -9.7  23.207  171.8  0.0077   73.7  0.9714   -6.8
 0.110  0.8601  -10.2  23.245  171.4  0.0081   74.3  0.9709   -7.2
 0.115  0.8617  -10.7  23.206  171.2  0.0084   74.8  0.9704   -7.5
 0.120  0.8634  -11.2  23.168  170.9  0.0088   75.3  0.9699   -7.8
 0.125  0.8619  -11.6  23.142  170.6  0.0091   75.0  0.9693   -8.1
 0.130  0.8604  -12.1  23.116  170.2  0.0094   74.8  0.9688   -8.5
 0.135  0.8592  -12.5  23.089  169.9  0.0098   75.2  0.9681   -8.8
 0.140  0.8581  -13.0  23.063  169.5  0.0102   75.6  0.9674   -9.1
 0.145  0.8583  -13.5  23.055  169.2  0.0105   75.3  0.9667   -9.4
 0.150  0.8586  -14.0  23.048  168.8  0.0109   75.0  0.9661   -9.8
 0.155  0.8579  -14.4  23.021  168.4  0.0112   75.0  0.9651  -10.1
 0.160  0.8573  -14.9  22.994  168.1  0.0116   75.0  0.9641  -10.4
 0.165  0.8567  -15.3  22.969  167.7  0.0119   75.0  0.9632  -10.8
 0.170  0.8561  -15.8  22.944  167.4  0.0123   75.0  0.9623  -11.1
 0.175  0.8556  -16.2  22.921  167.0  0.0126   75.1  0.9614  -11.4
 0.180  0.8552  -16.7  22.898  166.6  0.0130   75.1  0.9606  -11.7
 0.185  0.8548  -17.1  22.876  166.3  0.0133   75.1  0.9598  -12.0
 0.190  0.8545  -17.6  22.855  165.9  0.0137   75.1  0.9590  -12.4
 0.195  0.8542  -18.0  22.835  165.6  0.0140   75.1  0.9582  -12.7
 0.200  0.8540  -18.5  22.816  165.2  0.0144   75.1  0.9575  -13.0
 0.220  0.8489  -20.3  22.696  163.7  0.0158   74.6  0.9528  -14.3
 0.240  0.8448  -22.2  22.592  162.2  0.0171   74.1  0.9486  -15.6
 0.260  0.8406  -24.0  22.484  160.8  0.0185   73.6  0.9439  -16.9
 0.280  0.8365  -25.8  22.374  159.4  0.0198   73.1  0.9385  -18.1
 0.300  0.8332  -27.7  22.277  157.9  0.0212   72.6  0.9336  -19.4
 0.320  0.8278  -29.5  22.124  156.5  0.0225   71.9  0.9271  -20.6
 0.340  0.8233  -31.3  21.983  155.1  0.0238   71.2  0.9209  -21.8
 0.360  0.8182  -33.1  21.831  153.7  0.0250   70.5  0.9143  -23.0
 0.380  0.8126  -34.8  21.665  152.3  0.0263   69.8  0.9071  -24.2
 0.400  0.8078  -36.6  21.513  150.9  0.0276   69.1  0.9004  -25.5
 0.420  0.8013  -38.3  21.316  149.6  0.0288   68.4  0.8929  -26.7
 0.440  0.7956  -40.0  21.131  148.3  0.0300   67.7  0.8859  -27.9
 0.450  0.7930  -40.9  21.042  147.6  0.0306   67.4  0.8825  -28.5
 0.460  0.7894  -41.7  20.942  147.0  0.0312   67.0  0.8783  -29.0
 0.480  0.7827  -43.5  20.750  145.6  0.0323   66.3  0.8701  -30.2
 0.500  0.7768  -45.2  20.569  144.3  0.0335   65.6  0.8623  -31.3
 0.520  0.7689  -46.8  20.356  143.1  0.0345   64.8  0.8534  -32.3
 0.540  0.7616  -48.4  20.151  142.0  0.0356   64.1  0.8447  -33.4
 0.560  0.7549  -50.0  19.955  140.8  0.0367   63.4  0.8363  -34.4
 0.580  0.7488  -51.7  19.768  139.5  0.0377   62.7  0.8282  -35.5
 0.600  0.7434  -53.4  19.590  138.3  0.0388   62.1  0.8204  -36.6
 0.620  0.7353  -54.9  19.371  137.2  0.0397   61.4  0.8109  -37.6
 0.640  0.7277  -56.5  19.159  136.1  0.0407   60.7  0.8016  -38.5
 0.660  0.7207  -58.0  18.955  135.0  0.0416   60.1  0.7926  -39.5
 0.680  0.7142  -59.7  18.758  133.8  0.0426   59.5  0.7838  -40.6
 0.700  0.7083  -61.3  18.569  132.6  0.0435   58.9  0.7753  -41.6
 0.720  0.7010  -62.7  18.346  131.6  0.0444   58.3  0.7662  -42.4
 0.740  0.6940  -64.1  18.128  130.6  0.0452   57.7  0.7573  -43.3
 0.760  0.6876  -65.6  17.917  129.6  0.0461   57.1  0.7486  -44.2
 0.780  0.6815  -67.1  17.711  128.5  0.0469   56.5  0.7401  -45.1
 0.800  0.6760  -68.6  17.512  127.4  0.0478   56.0  0.7317  -46.0
 0.820  0.6687  -70.0  17.306  126.5  0.0485   55.4  0.7228  -46.8
 0.840  0.6618  -71.4  17.105  125.6  0.0493   54.9  0.7140  -47.6
 0.860  0.6552  -72.8  16.908  124.6  0.0500   54.4  0.7053  -48.5
 0.880  0.6491  -74.2  16.715  123.7  0.0508   53.9  0.6968  -49.3
 0.900  0.6434  -75.7  16.528  122.7  0.0515   53.4  0.6885  -50.2
 0.920  0.6367  -77.0  16.339  121.9  0.0522   52.9  0.6804  -50.9
 0.940  0.6303  -78.3  16.153  121.1  0.0528   52.4  0.6724  -51.6
 0.960  0.6242  -79.6  15.970  120.2  0.0535   52.0  0.6645  -52.3
 0.980  0.6185  -81.0  15.791  119.4  0.0542   51.5  0.6568  -53.0
 1.000  0.6132  -82.4  15.616  118.5  0.0549   51.1  0.6491  -53.8
 1.020  0.6072  -83.6  15.435  117.7  0.0555   50.7  0.6414  -54.5
 1.040  0.6016  -84.9  15.257  116.9  0.0561   50.2  0.6338  -55.2
 1.060  0.5962  -86.1  15.082  116.1  0.0568   49.8  0.6263  -55.8
 1.080  0.5911  -87.4  14.910  115.3  0.0574   49.4  0.6189  -56.6
 1.100  0.5863  -88.7  14.741  114.4  0.0580   49.0  0.6116  -57.3
 1.120  0.5805  -89.9  14.578  113.7  0.0586   48.6  0.6043  -57.9
 1.140  0.5749  -91.1  14.417  113.0  0.0591   48.3  0.5972  -58.5
 1.160  0.5696  -92.3  14.258  112.2  0.0597   47.9  0.5900  -59.1
 1.180  0.5646  -93.5  14.102  111.5  0.0602   47.5  0.5830  -59.7
 1.200  0.5598  -94.8  13.948  110.7  0.0608   47.2  0.5760  -60.4
 1.220  0.5555  -95.9  13.797  110.1  0.0613   46.9  0.5696  -61.0
 1.240  0.5515  -97.0  13.648  109.4  0.0619   46.6  0.5633  -61.5
 1.260  0.5476  -98.2  13.501  108.8  0.0624   46.3  0.5570  -62.1
 1.280  0.5440  -99.3  13.356  108.1  0.0630   46.0  0.5508  -62.7
 1.300  0.5406 -100.5  13.212  107.4  0.0635   45.7  0.5446  -63.3
 1.320  0.5364 -101.6  13.082  106.8  0.0640   45.4  0.5384  -63.9
 1.340  0.5323 -102.7  12.954  106.2  0.0645   45.0  0.5322  -64.4
 1.360  0.5285 -103.9  12.828  105.5  0.0650   44.7  0.5261  -65.0
 1.380  0.5249 -105.0  12.703  104.9  0.0655   44.4  0.5200  -65.6
 1.400  0.5215 -106.2  12.580  104.2  0.0660   44.1  0.5140  -66.2
 1.420  0.5172 -107.3  12.453  103.6  0.0665   43.8  0.5084  -66.7
 1.440  0.5130 -108.3  12.327  103.0  0.0669   43.5  0.5028  -67.2
 1.460  0.5091 -109.4  12.202  102.4  0.0674   43.2  0.4972  -67.8
 1.480  0.5053 -110.6  12.079  101.7  0.0678   43.0  0.4917  -68.3
 1.500  0.5017 -111.7  11.958  101.1  0.0683   42.7  0.4863  -68.9
 1.520  0.4982 -112.8  11.842  100.5  0.0687   42.5  0.4808  -69.4
 1.540  0.4949 -113.9  11.728  100.0  0.0692   42.2  0.4753  -69.9
 1.560  0.4917 -115.0  11.614   99.4  0.0696   42.0  0.4699  -70.4
 1.580  0.4888 -116.1  11.502   98.8  0.0701   41.7  0.4645  -71.0
 1.600  0.4860 -117.2  11.391   98.2  0.0705   41.5  0.4591  -71.5
 1.620  0.4825 -118.3  11.286   97.7  0.0710   41.3  0.4542  -72.0
 1.640  0.4791 -119.3  11.181   97.1  0.0714   41.1  0.4493  -72.5
 1.660  0.4759 -120.4  11.078   96.6  0.0719   40.8  0.4445  -73.0
 1.680  0.4729 -121.5  10.975   96.0  0.0723   40.6  0.4397  -73.6
 1.700  0.4701 -122.6  10.874   95.4  0.0728   40.4  0.4349  -74.1
 1.720  0.4674 -123.6  10.777   94.9  0.0732   40.1  0.4298  -74.6
 1.740  0.4649 -124.6  10.681   94.3  0.0736   39.9  0.4247  -75.1
 1.760  0.4625 -125.6  10.586   93.8  0.0740   39.6  0.4197  -75.6
 1.780  0.4603 -126.6  10.492   93.3  0.0744   39.4  0.4147  -76.1
 1.800  0.4582 -127.6  10.399   92.7  0.0748   39.1  0.4097  -76.6
 1.820  0.4555 -128.6  10.308   92.2  0.0752   38.9  0.4053  -77.1
 1.840  0.4529 -129.6  10.217   91.7  0.0756   38.7  0.4009  -77.5
 1.860  0.4504 -130.6  10.127   91.2  0.0759   38.5  0.3966  -78.0
 1.880  0.4482 -131.7  10.038   90.6  0.0763   38.3  0.3923  -78.5
 1.900  0.4460 -132.7   9.950   90.1  0.0767   38.1  0.3880  -79.0
 1.920  0.4436 -133.7   9.865   89.6  0.0771   37.9  0.3836  -79.5
 1.940  0.4413 -134.7   9.782   89.2  0.0775   37.7  0.3793  -80.0
 1.960  0.4392 -135.7   9.698   88.7  0.0779   37.5  0.3750  -80.5
 1.980  0.4372 -136.7   9.616   88.2  0.0783   37.3  0.3707  -81.0
 2.000  0.4353 -137.7   9.534   87.7  0.0787   37.1  0.3664  -81.5
 2.020  0.4332 -138.6   9.456   87.3  0.0791   36.9  0.3624  -81.9
 2.040  0.4313 -139.5   9.378   86.9  0.0794   36.7  0.3585  -82.3
 2.060  0.4294 -140.5   9.301   86.4  0.0798   36.5  0.3546  -82.8
 2.080  0.4277 -141.4   9.224   86.0  0.0802   36.4  0.3507  -83.2
 2.100  0.4261 -142.4   9.148   85.5  0.0805   36.2  0.3468  -83.7
 2.120  0.4246 -143.3   9.072   85.1  0.0809   36.0  0.3430  -84.1
 2.140  0.4232 -144.3   8.997   84.6  0.0813   35.8  0.3391  -84.6
 2.160  0.4220 -145.2   8.923   84.2  0.0817   35.6  0.3353  -85.1
 2.180  0.4208 -146.2   8.849   83.7  0.0820   35.5  0.3316  -85.6
 2.200  0.4198 -147.2   8.776   83.2  0.0824   35.3  0.3278  -86.1
 2.220  0.4182 -148.1   8.708   82.8  0.0827   35.1  0.3244  -86.5
 2.240  0.4168 -149.0   8.640   82.4  0.0831   34.9  0.3210  -87.0
 2.260  0.4154 -149.8   8.573   82.0  0.0834   34.8  0.3176  -87.4
 2.280  0.4142 -150.7   8.506   81.5  0.0838   34.6  0.3143  -87.9
 2.300  0.4130 -151.6   8.439   81.1  0.0841   34.4  0.3109  -88.4
 2.320  0.4120 -152.5   8.373   80.6  0.0845   34.3  0.3076  -88.9
 2.340  0.4110 -153.5   8.308   80.2  0.0848   34.1  0.3043  -89.4
 2.360  0.4102 -154.4   8.243   79.7  0.0852   33.9  0.3011  -89.9
 2.380  0.4094 -155.3   8.179   79.3  0.0855   33.8  0.2978  -90.4
 2.400  0.4088 -156.2   8.115   78.8  0.0859   33.6  0.2946  -90.9
 2.420  0.4077 -157.0   8.058   78.4  0.0863   33.4  0.2916  -91.3
 2.440  0.4066 -157.9   8.001   78.0  0.0866   33.3  0.2887  -91.8
 2.460  0.4056 -158.7   7.944   77.6  0.0870   33.1  0.2857  -92.2
 2.480  0.4047 -159.6   7.888   77.2  0.0873   32.9  0.2828  -92.7
 2.500  0.4040 -160.5   7.832   76.8  0.0877   32.8  0.2799  -93.2
 2.520  0.4033 -161.3   7.777   76.4  0.0881   32.6  0.2770  -93.7
 2.540  0.4027 -162.2   7.722   76.0  0.0884   32.5  0.2742  -94.2
 2.560  0.4021 -163.1   7.667   75.6  0.0888   32.3  0.2713  -94.7
 2.580  0.4017 -163.9   7.613   75.1  0.0891   32.2  0.2685  -95.2
 2.600  0.4014 -164.8   7.559   74.7  0.0895   32.0  0.2657  -95.7
 2.620  0.4005 -165.6   7.507   74.3  0.0898   31.8  0.2629  -96.2
 2.640  0.3998 -166.4   7.455   73.9  0.0902   31.7  0.2601  -96.7
 2.660  0.3991 -167.2   7.404   73.6  0.0905   31.5  0.2573  -97.1
 2.680  0.3985 -168.1   7.353   73.2  0.0909   31.3  0.2546  -97.6
 2.700  0.3979 -168.9   7.302   72.8  0.0912   31.2  0.2518  -98.2
 2.720  0.3975 -169.7   7.252   72.4  0.0915   31.0  0.2491  -98.7
 2.740  0.3971 -170.5   7.202   72.0  0.0919   30.9  0.2464  -99.2
 2.760  0.3968 -171.3   7.152   71.5  0.0922   30.7  0.2438  -99.8
 2.780  0.3966 -172.2   7.103   71.1  0.0926   30.6  0.2411 -100.3
 2.800  0.3965 -173.0   7.054   70.7  0.0929   30.4  0.2385 -100.9
 2.820  0.3961 -173.8   7.008   70.3  0.0932   30.2  0.2360 -101.4
 2.840  0.3958 -174.5   6.962   70.0  0.0936   30.1  0.2335 -101.9
 2.860  0.3955 -175.3   6.916   69.6  0.0939   29.9  0.2310 -102.4
 2.880  0.3954 -176.1   6.870   69.2  0.0943   29.8  0.2285 -103.0
 2.900  0.3953 -176.8   6.825   68.9  0.0946   29.6  0.2260 -103.5
 2.920  0.3952 -177.6   6.780   68.5  0.0949   29.5  0.2236 -104.1
 2.940  0.3953 -178.4   6.736   68.1  0.0953   29.3  0.2212 -104.6
 2.960  0.3954 -179.2   6.692   67.7  0.0956   29.2  0.2188 -105.2
 2.980  0.3955 -179.9   6.648   67.3  0.0960   29.0  0.2164 -105.8
 3.000  0.3958  179.3   6.604   66.9  0.0963   28.9  0.2141 -106.4
 3.100  0.3953  175.8   6.408   65.3  0.0979   28.1  0.2032 -109.2
 3.200  0.3962  172.4   6.217   63.7  0.0996   27.3  0.1928 -112.4
 3.300  0.3986  168.9   6.031   61.9  0.1013   26.5  0.1830 -115.9
 3.400  0.4024  165.5   5.852   60.1  0.1030   25.7  0.1740 -119.7
 3.500  0.4076  162.2   5.679   58.1  0.1047   25.0  0.1659 -124.0
 3.600  0.4117  159.3   5.524   56.6  0.1062   24.2  0.1586 -128.2
 3.700  0.4168  156.4   5.374   55.1  0.1077   23.4  0.1521 -132.7
 3.800  0.4230  153.6   5.227   53.5  0.1093   22.6  0.1467 -137.6
 3.900  0.4301  150.9   5.085   51.7  0.1108   21.8  0.1425 -142.8
 4.000  0.4382  148.3   4.948   49.9  0.1124   21.1  0.1395 -148.3
 4.100  0.4434  146.0   4.826   48.5  0.1138   20.3  0.1372 -153.1
 4.200  0.4493  143.8   4.707   47.0  0.1151   19.5  0.1359 -158.1
 4.300  0.4559  141.7   4.591   45.5  0.1165   18.8  0.1356 -163.2
 4.400  0.4630  139.6   4.479   43.9  0.1180   18.0  0.1364 -168.2
 4.500  0.4708  137.6   4.370   42.2  0.1194   17.3  0.1382 -173.1
 4.600  0.4737  135.7   4.272   40.9  0.1207   16.5  0.1375 -177.1
 4.700  0.4772  133.8   4.176   39.5  0.1221   15.8  0.1374  179.0
 4.800  0.4812  131.9   4.083   38.0  0.1234   15.0  0.1380  175.0
 4.900  0.4856  130.1   3.993   36.5  0.1248   14.3  0.1393  171.1
 5.000  0.4906  128.3   3.906   34.9  0.1262   13.6  0.1412  167.3
 5.100  0.4920  126.4   3.823   33.6  0.1275   12.8  0.1410  163.7
 5.200  0.4939  124.6   3.741   32.3  0.1289   12.1  0.1414  160.1
 5.300  0.4962  122.8   3.662   30.9  0.1302   11.3  0.1423  156.5
 5.400  0.4991  121.0   3.585   29.4  0.1316   10.6  0.1438  153.0
 5.500  0.5025  119.2   3.511   27.9  0.1330    9.9  0.1458  149.6
 5.600  0.5052  117.6   3.442   26.7  0.1343    9.2  0.1476  146.3
 5.700  0.5083  116.1   3.375   25.4  0.1357    8.4  0.1498  143.2
 5.800  0.5117  114.6   3.309   24.1  0.1371    7.7  0.1526  140.1
 5.900  0.5155  113.1   3.246   22.7  0.1385    7.0  0.1557  137.1
 6.000  0.5197  111.6   3.184   21.3  0.1399    6.3  0.1592  134.3
 6.100  0.5246  110.4   3.130   20.1  0.1413    5.5  0.1629  132.1
 6.200  0.5296  109.3   3.078   18.9  0.1427    4.7  0.1668  130.0
 6.300  0.5349  108.2   3.027   17.6  0.1441    3.9  0.1710  127.9
 6.400  0.5404  107.1   2.977   16.3  0.1456    3.1  0.1754  126.0
 6.500  0.5461  106.0   2.929   15.0  0.1471    2.4  0.1799  124.2
 6.600  0.5503  105.0   2.884   13.8  0.1485    1.5  0.1834  122.5
 6.800  0.5591  103.0   2.798   11.2  0.1513   -0.2  0.1909  119.3
 7.000  0.5686  101.1   2.718    8.4  0.1543   -1.8  0.1989  116.4
 7.200  0.5758   98.7   2.637    5.8  0.1566   -3.8  0.2079  113.1
 7.400  0.5840   96.3   2.562    3.0  0.1591   -5.8  0.2176  110.1
 7.600  0.5926   93.7   2.486    0.1  0.1612   -7.7  0.2283  106.8
 7.800  0.6023   90.7   2.409   -2.7  0.1630   -9.7  0.2404  103.3
 8.000  0.6136   87.8   2.338   -5.7  0.1649  -11.7  0.2533  100.1
 8.200  0.6230   84.2   2.253   -8.3  0.1656  -13.8  0.2681   96.3
 8.400  0.6348   80.8   2.174  -11.1  0.1665  -15.8  0.2839   92.9
 8.600  0.6478   77.4   2.095  -13.8  0.1670  -17.8  0.3017   89.5
 8.800  0.6622   74.1   2.016  -16.4  0.1672  -19.7  0.3215   86.1
 9.000  0.6787   70.9   1.942  -19.1  0.1675  -21.6  0.3423   83.1
 9.200  0.6955   68.6   1.863  -21.1  0.1666  -23.1  0.3646   80.4
 9.400  0.7135   66.4   1.787  -23.2  0.1659  -24.7  0.3875   78.1
 9.600  0.7306   64.9   1.722  -25.1  0.1654  -26.0  0.4080   76.4
 9.800  0.7463   64.1   1.668  -26.7  0.1650  -26.9  0.4258   75.3
10.000  0.7622   63.4   1.615  -28.3  0.1647  -27.9  0.4437   74.3
10.200  0.7701   63.5   1.578  -29.7  0.1654  -28.8  0.4525   74.3
10.400  0.7780   63.6   1.542  -31.1  0.1662  -29.7  0.4612   74.2
10.600  0.7820   63.6   1.513  -32.8  0.1677  -30.6  0.4667   74.3
10.800  0.7819   63.3   1.491  -34.5  0.1699  -31.5  0.4688   74.5
11.000  0.7818   63.0   1.470  -36.3  0.1721  -32.4  0.4710   74.7
11.200  0.7757   61.2   1.438  -38.7  0.1744  -34.1  0.4705   73.9
11.400  0.7704   59.4   1.409  -41.2  0.1767  -35.7  0.4701   73.2
11.600  0.7631   57.3   1.376  -43.4  0.1777  -37.4  0.4716   72.2
11.800  0.7543   54.8   1.337  -45.4  0.1773  -39.3  0.4751   70.9
12.000  0.7470   52.2   1.300  -47.5  0.1771  -41.1  0.4789   69.6
!
!  f       NFmin   Gammaopt  rn/50
! GHz       dB    MAG  ANG    -
 0.450      0.69  0.31    2   0.13
 0.900      0.70  0.25    7  -0.06
 1.900      0.72  0.15   26  -0.14
 2.400      0.77  0.08   46   0.11
 3.500      0.83  0.03 -168   0.12
 5.500      1.17  0.07 -122   0.14
10.000      1.72  0.60  -53   0.74
!
! (c) 2015  Infineon Technologies AG, Munich
