! Infineon Technologies  Discrete & RF Semiconductors
! BFP640FESD
! VCE =  3.0 V,  IC =  4.0 mA
! Common Emitter S-Parameters:                            Jan 2016
# GHz  S  MA  R  50
!  f         S11            S21            S12            S22
! GHz     MAG   ANG      MAG   ANG      MAG   ANG      MAG   ANG
 0.010  0.9490   -0.2  12.891  179.5  0.0005   46.7  0.9926    0.5
 0.015  0.9476   -0.7  12.862  179.4  0.0007   78.0  0.9950   -0.1
 0.020  0.9462   -1.2  12.833  179.2  0.0011   91.7  0.9975   -0.7
 0.025  0.9468   -1.5  12.830  179.0  0.0013   91.7  0.9976   -0.9
 0.030  0.9474   -1.8  12.827  178.7  0.0016   91.8  0.9977   -1.0
 0.035  0.9480   -2.1  12.824  178.5  0.0018   91.8  0.9978   -1.2
 0.040  0.9486   -2.3  12.822  178.2  0.0020   91.8  0.9979   -1.4
 0.045  0.9493   -2.6  12.820  178.0  0.0023   91.8  0.9980   -1.5
 0.050  0.9500   -2.9  12.818  177.7  0.0025   91.8  0.9981   -1.7
 0.055  0.9492   -3.2  12.827  177.5  0.0027   90.6  0.9980   -1.9
 0.060  0.9484   -3.5  12.836  177.3  0.0030   89.6  0.9978   -2.1
 0.065  0.9477   -3.8  12.845  177.2  0.0032   88.7  0.9977   -2.2
 0.070  0.9469   -4.1  12.854  177.0  0.0035   88.0  0.9976   -2.4
 0.075  0.9462   -4.3  12.864  176.8  0.0037   87.4  0.9975   -2.6
 0.080  0.9456   -4.6  12.873  176.6  0.0039   86.8  0.9974   -2.8
 0.085  0.9449   -4.9  12.883  176.4  0.0042   86.3  0.9974   -3.0
 0.090  0.9443   -5.2  12.893  176.3  0.0044   85.9  0.9973   -3.1
 0.095  0.9437   -5.5  12.903  176.1  0.0047   85.5  0.9972   -3.3
 0.100  0.9431   -5.8  12.913  175.9  0.0049   85.1  0.9972   -3.5
 0.105  0.9428   -6.1  12.913  175.7  0.0051   85.0  0.9970   -3.7
 0.110  0.9426   -6.4  12.914  175.5  0.0054   84.9  0.9968   -3.8
 0.115  0.9424   -6.7  12.915  175.2  0.0056   84.8  0.9966   -4.0
 0.120  0.9422   -7.0  12.916  175.0  0.0059   84.7  0.9964   -4.2
 0.125  0.9421   -7.3  12.917  174.8  0.0061   84.6  0.9962   -4.3
 0.130  0.9420   -7.7  12.918  174.6  0.0064   84.5  0.9960   -4.5
 0.135  0.9419   -8.0  12.919  174.4  0.0066   84.5  0.9958   -4.7
 0.140  0.9418   -8.3  12.921  174.1  0.0069   84.4  0.9957   -4.9
 0.145  0.9418   -8.6  12.923  173.9  0.0071   84.4  0.9955   -5.0
 0.150  0.9418   -8.9  12.925  173.7  0.0074   84.3  0.9954   -5.2
 0.155  0.9416   -9.2  12.925  173.5  0.0076   84.1  0.9951   -5.4
 0.160  0.9413   -9.5  12.925  173.3  0.0079   83.9  0.9948   -5.6
 0.165  0.9412   -9.8  12.925  173.1  0.0081   83.8  0.9945   -5.7
 0.170  0.9410  -10.1  12.925  172.9  0.0084   83.6  0.9942   -5.9
 0.175  0.9408  -10.3  12.925  172.6  0.0086   83.4  0.9940   -6.1
 0.180  0.9407  -10.6  12.926  172.4  0.0088   83.3  0.9937   -6.3
 0.185  0.9406  -10.9  12.927  172.2  0.0091   83.2  0.9935   -6.5
 0.190  0.9406  -11.2  12.928  172.0  0.0093   83.0  0.9932   -6.6
 0.195  0.9405  -11.5  12.929  171.8  0.0096   82.9  0.9930   -6.8
 0.200  0.9405  -11.8  12.930  171.6  0.0098   82.8  0.9928   -7.0
 0.220  0.9395  -12.9  12.901  170.6  0.0108   82.2  0.9914   -7.7
 0.240  0.9389  -14.0  12.876  169.7  0.0117   81.7  0.9902   -8.4
 0.260  0.9379  -15.2  12.861  168.8  0.0127   81.2  0.9886   -9.0
 0.280  0.9366  -16.4  12.855  167.9  0.0137   80.6  0.9867   -9.7
 0.300  0.9357  -17.6  12.852  167.1  0.0147   80.1  0.9850  -10.4
 0.320  0.9339  -18.8  12.834  166.3  0.0157   79.3  0.9830  -11.1
 0.340  0.9325  -19.9  12.819  165.4  0.0166   78.6  0.9811  -11.8
 0.360  0.9310  -21.1  12.796  164.6  0.0176   78.0  0.9790  -12.5
 0.380  0.9294  -22.2  12.765  163.7  0.0185   77.4  0.9766  -13.2
 0.400  0.9281  -23.3  12.738  162.8  0.0194   76.8  0.9744  -13.9
 0.420  0.9259  -24.5  12.703  161.9  0.0203   76.1  0.9719  -14.5
 0.440  0.9241  -25.6  12.671  161.0  0.0212   75.5  0.9695  -15.2
 0.450  0.9233  -26.2  12.656  160.6  0.0217   75.2  0.9683  -15.5
 0.460  0.9221  -26.8  12.640  160.2  0.0222   74.9  0.9668  -15.8
 0.480  0.9200  -27.9  12.611  159.3  0.0231   74.2  0.9639  -16.5
 0.500  0.9183  -29.1  12.584  158.4  0.0240   73.6  0.9611  -17.2
 0.520  0.9153  -30.2  12.539  157.6  0.0249   72.9  0.9576  -17.9
 0.540  0.9126  -31.3  12.498  156.7  0.0258   72.2  0.9543  -18.5
 0.560  0.9102  -32.4  12.459  155.8  0.0266   71.6  0.9511  -19.2
 0.580  0.9082  -33.6  12.422  155.0  0.0275   71.0  0.9480  -19.8
 0.600  0.9066  -34.7  12.389  154.1  0.0284   70.4  0.9450  -20.5
 0.620  0.9034  -35.8  12.340  153.3  0.0292   69.7  0.9412  -21.1
 0.640  0.9005  -36.9  12.293  152.5  0.0300   69.1  0.9376  -21.8
 0.660  0.8979  -38.0  12.248  151.7  0.0308   68.4  0.9340  -22.4
 0.680  0.8957  -39.2  12.206  150.9  0.0317   67.9  0.9306  -23.1
 0.700  0.8939  -40.3  12.166  150.1  0.0325   67.3  0.9273  -23.7
 0.720  0.8906  -41.4  12.104  149.3  0.0333   66.7  0.9232  -24.3
 0.740  0.8875  -42.4  12.045  148.5  0.0340   66.1  0.9191  -25.0
 0.760  0.8848  -43.5  11.988  147.7  0.0348   65.5  0.9152  -25.6
 0.780  0.8824  -44.6  11.934  146.8  0.0356   64.9  0.9114  -26.2
 0.800  0.8803  -45.7  11.882  146.0  0.0364   64.4  0.9077  -26.9
 0.820  0.8768  -46.7  11.826  145.2  0.0371   63.8  0.9035  -27.5
 0.840  0.8736  -47.8  11.772  144.5  0.0379   63.1  0.8993  -28.0
 0.860  0.8706  -48.9  11.721  143.7  0.0386   62.5  0.8952  -28.6
 0.880  0.8680  -49.9  11.671  142.9  0.0394   62.0  0.8913  -29.2
 0.900  0.8657  -51.0  11.624  142.1  0.0401   61.4  0.8874  -29.8
 0.920  0.8622  -52.0  11.559  141.4  0.0408   60.8  0.8827  -30.4
 0.940  0.8589  -53.1  11.497  140.6  0.0414   60.3  0.8782  -31.0
 0.960  0.8559  -54.1  11.436  139.8  0.0421   59.7  0.8737  -31.6
 0.980  0.8532  -55.1  11.378  139.1  0.0428   59.2  0.8694  -32.2
 1.000  0.8508  -56.2  11.321  138.3  0.0435   58.7  0.8651  -32.8
 1.020  0.8472  -57.2  11.258  137.6  0.0441   58.2  0.8605  -33.3
 1.040  0.8438  -58.2  11.197  136.8  0.0447   57.6  0.8559  -33.9
 1.060  0.8408  -59.2  11.138  136.1  0.0453   57.1  0.8515  -34.5
 1.080  0.8379  -60.3  11.081  135.4  0.0460   56.6  0.8471  -35.0
 1.100  0.8354  -61.3  11.026  134.6  0.0466   56.1  0.8428  -35.6
 1.120  0.8318  -62.3  10.963  133.9  0.0472   55.6  0.8381  -36.1
 1.140  0.8284  -63.3  10.901  133.2  0.0477   55.1  0.8336  -36.7
 1.160  0.8253  -64.3  10.841  132.5  0.0483   54.6  0.8291  -37.3
 1.180  0.8224  -65.3  10.783  131.7  0.0489   54.1  0.8246  -37.8
 1.200  0.8198  -66.3  10.727  131.0  0.0495   53.6  0.8203  -38.4
 1.220  0.8163  -67.2  10.659  130.3  0.0500   53.1  0.8157  -38.9
 1.240  0.8131  -68.2  10.593  129.7  0.0505   52.6  0.8111  -39.5
 1.260  0.8101  -69.1  10.528  129.0  0.0510   52.1  0.8066  -40.0
 1.280  0.8073  -70.0  10.464  128.3  0.0515   51.6  0.8022  -40.5
 1.300  0.8047  -71.0  10.402  127.6  0.0520   51.1  0.7979  -41.1
 1.320  0.8011  -71.9  10.335  126.9  0.0525   50.6  0.7931  -41.6
 1.340  0.7977  -72.9  10.270  126.3  0.0529   50.2  0.7884  -42.1
 1.360  0.7945  -73.8  10.206  125.6  0.0534   49.7  0.7838  -42.6
 1.380  0.7915  -74.7  10.143  124.9  0.0538   49.2  0.7792  -43.1
 1.400  0.7887  -75.7  10.082  124.2  0.0543   48.8  0.7747  -43.6
 1.420  0.7858  -76.5  10.016  123.6  0.0547   48.4  0.7704  -44.1
 1.440  0.7830  -77.3   9.950  123.0  0.0551   48.0  0.7661  -44.5
 1.460  0.7804  -78.1   9.886  122.4  0.0556   47.6  0.7618  -45.0
 1.480  0.7780  -79.0   9.823  121.8  0.0560   47.2  0.7576  -45.5
 1.500  0.7757  -79.8   9.761  121.2  0.0564   46.8  0.7535  -46.0
 1.520  0.7725  -80.7   9.701  120.6  0.0568   46.3  0.7491  -46.5
 1.540  0.7695  -81.6   9.642  119.9  0.0571   45.9  0.7448  -46.9
 1.560  0.7667  -82.5   9.584  119.3  0.0575   45.5  0.7405  -47.4
 1.580  0.7641  -83.4   9.527  118.7  0.0579   45.0  0.7363  -47.9
 1.600  0.7617  -84.3   9.472  118.0  0.0583   44.6  0.7321  -48.4
 1.620  0.7586  -85.1   9.410  117.4  0.0586   44.2  0.7281  -48.8
 1.640  0.7557  -85.9   9.349  116.9  0.0589   43.9  0.7242  -49.3
 1.660  0.7530  -86.7   9.289  116.3  0.0593   43.5  0.7203  -49.7
 1.680  0.7504  -87.5   9.229  115.7  0.0596   43.2  0.7165  -50.2
 1.700  0.7479  -88.3   9.171  115.1  0.0599   42.8  0.7127  -50.6
 1.720  0.7453  -89.0   9.102  114.6  0.0602   42.5  0.7089  -51.0
 1.740  0.7428  -89.8   9.034  114.0  0.0605   42.1  0.7051  -51.4
 1.760  0.7405  -90.5   8.967  113.5  0.0607   41.8  0.7013  -51.8
 1.780  0.7383  -91.3   8.901  113.0  0.0610   41.4  0.6976  -52.3
 1.800  0.7362  -92.0   8.835  112.4  0.0613   41.1  0.6939  -52.7
 1.820  0.7338  -92.8   8.783  111.9  0.0616   40.8  0.6901  -53.1
 1.840  0.7315  -93.5   8.731  111.4  0.0619   40.5  0.6863  -53.6
 1.860  0.7293  -94.3   8.680  110.9  0.0622   40.1  0.6826  -54.0
 1.880  0.7273  -95.1   8.630  110.3  0.0625   39.8  0.6789  -54.5
 1.900  0.7254  -95.9   8.580  109.8  0.0628   39.5  0.6752  -54.9
 1.920  0.7228  -96.6   8.521  109.3  0.0630   39.2  0.6718  -55.3
 1.940  0.7203  -97.2   8.462  108.8  0.0633   38.9  0.6685  -55.6
 1.960  0.7179  -97.9   8.405  108.3  0.0635   38.6  0.6652  -56.0
 1.980  0.7156  -98.6   8.348  107.8  0.0638   38.3  0.6619  -56.4
 2.000  0.7134  -99.3   8.291  107.3  0.0640   38.0  0.6586  -56.8
 2.020  0.7110 -100.0   8.238  106.8  0.0642   37.7  0.6552  -57.2
 2.040  0.7088 -100.6   8.186  106.4  0.0644   37.4  0.6519  -57.6
 2.060  0.7066 -101.3   8.134  105.9  0.0646   37.1  0.6486  -58.0
 2.080  0.7045 -102.0   8.083  105.4  0.0648   36.9  0.6453  -58.4
 2.100  0.7025 -102.7   8.032  104.9  0.0650   36.6  0.6421  -58.7
 2.120  0.7007 -103.4   7.982  104.4  0.0652   36.3  0.6389  -59.2
 2.140  0.6989 -104.1   7.933  103.9  0.0654   36.0  0.6357  -59.6
 2.160  0.6972 -104.8   7.884  103.4  0.0656   35.7  0.6326  -60.0
 2.180  0.6957 -105.5   7.836  102.9  0.0658   35.5  0.6295  -60.4
 2.200  0.6942 -106.2   7.788  102.4  0.0660   35.2  0.6264  -60.8
 2.220  0.6919 -106.8   7.739  102.0  0.0662   34.9  0.6234  -61.2
 2.240  0.6897 -107.5   7.690  101.5  0.0663   34.7  0.6205  -61.5
 2.260  0.6876 -108.1   7.642  101.1  0.0665   34.4  0.6176  -61.9
 2.280  0.6855 -108.7   7.594  100.7  0.0667   34.2  0.6147  -62.2
 2.300  0.6836 -109.4   7.546  100.2  0.0669   33.9  0.6118  -62.6
 2.320  0.6817 -110.0   7.499   99.8  0.0671   33.7  0.6089  -63.0
 2.340  0.6799 -110.6   7.453   99.3  0.0672   33.4  0.6061  -63.4
 2.360  0.6782 -111.3   7.407   98.8  0.0674   33.2  0.6033  -63.7
 2.380  0.6766 -111.9   7.361   98.4  0.0676   32.9  0.6005  -64.1
 2.400  0.6751 -112.6   7.316   97.9  0.0678   32.7  0.5978  -64.5
 2.420  0.6732 -113.2   7.270   97.5  0.0679   32.5  0.5950  -64.9
 2.440  0.6714 -113.8   7.224   97.1  0.0680   32.2  0.5923  -65.2
 2.460  0.6697 -114.4   7.179   96.7  0.0681   32.0  0.5895  -65.6
 2.480  0.6681 -115.0   7.134   96.3  0.0683   31.8  0.5868  -65.9
 2.500  0.6665 -115.7   7.090   95.9  0.0684   31.5  0.5841  -66.3
 2.520  0.6650 -116.3   7.046   95.4  0.0685   31.3  0.5815  -66.7
 2.540  0.6636 -116.9   7.002   95.0  0.0686   31.1  0.5789  -67.1
 2.560  0.6623 -117.5   6.958   94.6  0.0688   30.9  0.5762  -67.4
 2.580  0.6611 -118.2   6.916   94.1  0.0689   30.6  0.5737  -67.8
 2.600  0.6599 -118.8   6.873   93.7  0.0690   30.4  0.5711  -68.2
 2.620  0.6581 -119.4   6.831   93.3  0.0691   30.2  0.5687  -68.5
 2.640  0.6564 -119.9   6.789   93.0  0.0692   30.0  0.5663  -68.9
 2.660  0.6547 -120.5   6.747   92.6  0.0692   29.9  0.5639  -69.2
 2.680  0.6531 -121.1   6.705   92.2  0.0693   29.7  0.5616  -69.5
 2.700  0.6516 -121.7   6.664   91.8  0.0694   29.5  0.5593  -69.9
 2.720  0.6502 -122.2   6.623   91.4  0.0695   29.3  0.5569  -70.2
 2.740  0.6488 -122.8   6.583   91.0  0.0696   29.1  0.5547  -70.6
 2.760  0.6474 -123.4   6.542   90.6  0.0696   29.0  0.5524  -70.9
 2.780  0.6462 -124.0   6.503   90.2  0.0697   28.8  0.5501  -71.2
 2.800  0.6450 -124.6   6.463   89.8  0.0698   28.6  0.5479  -71.6
 2.820  0.6439 -125.1   6.426   89.5  0.0699   28.4  0.5460  -71.9
 2.840  0.6428 -125.6   6.388   89.1  0.0699   28.3  0.5440  -72.2
 2.860  0.6418 -126.1   6.352   88.8  0.0700   28.1  0.5421  -72.5
 2.880  0.6408 -126.7   6.315   88.4  0.0701   27.9  0.5402  -72.8
 2.900  0.6399 -127.2   6.278   88.1  0.0701   27.7  0.5383  -73.1
 2.920  0.6390 -127.7   6.242   87.7  0.0702   27.6  0.5364  -73.4
 2.940  0.6382 -128.2   6.206   87.3  0.0703   27.4  0.5346  -73.7
 2.960  0.6375 -128.7   6.171   87.0  0.0704   27.2  0.5327  -74.0
 2.980  0.6368 -129.3   6.135   86.6  0.0704   27.1  0.5309  -74.3
 3.000  0.6361 -129.8   6.100   86.2  0.0705   26.9  0.5291  -74.6
 3.100  0.6304 -132.0   5.937   84.8  0.0707   26.3  0.5216  -75.8
 3.200  0.6256 -134.3   5.779   83.2  0.0709   25.8  0.5144  -77.0
 3.300  0.6219 -136.6   5.625   81.6  0.0711   25.2  0.5074  -78.3
 3.400  0.6192 -139.0   5.475   79.9  0.0713   24.7  0.5006  -79.6
 3.500  0.6175 -141.3   5.331   78.1  0.0715   24.1  0.4941  -80.9
 3.600  0.6147 -143.2   5.209   76.8  0.0717   23.8  0.4887  -81.8
 3.700  0.6127 -145.2   5.091   75.4  0.0719   23.5  0.4835  -82.8
 3.800  0.6114 -147.2   4.975   74.0  0.0721   23.2  0.4784  -83.8
 3.900  0.6108 -149.1   4.863   72.5  0.0723   22.9  0.4735  -84.8
 4.000  0.6109 -151.1   4.754   70.9  0.0725   22.6  0.4687  -85.8
 4.100  0.6098 -153.0   4.655   69.6  0.0727   22.3  0.4635  -86.9
 4.200  0.6093 -155.0   4.558   68.2  0.0730   22.1  0.4586  -88.0
 4.300  0.6096 -156.9   4.464   66.8  0.0732   21.8  0.4538  -89.1
 4.400  0.6105 -158.9   4.373   65.3  0.0735   21.6  0.4491  -90.3
 4.500  0.6122 -160.8   4.285   63.7  0.0737   21.3  0.4447  -91.5
 4.600  0.6115 -162.5   4.195   62.5  0.0738   21.1  0.4398  -92.6
 4.700  0.6113 -164.2   4.107   61.2  0.0739   20.9  0.4350  -93.7
 4.800  0.6117 -165.8   4.021   59.8  0.0739   20.6  0.4304  -94.8
 4.900  0.6126 -167.5   3.938   58.4  0.0740   20.4  0.4260  -95.9
 5.000  0.6140 -169.2   3.857   56.9  0.0741   20.2  0.4217  -97.1
 5.100  0.6111 -170.5   3.783   55.8  0.0742   20.4  0.4178  -97.9
 5.200  0.6086 -171.9   3.711   54.6  0.0744   20.7  0.4139  -98.7
 5.300  0.6064 -173.3   3.641   53.4  0.0745   20.9  0.4102  -99.5
 5.400  0.6046 -174.6   3.572   52.2  0.0747   21.2  0.4065 -100.3
 5.500  0.6031 -176.0   3.505   50.9  0.0748   21.4  0.4029 -101.1
 5.600  0.6025 -177.5   3.453   49.8  0.0753   21.3  0.3983 -102.2
 5.700  0.6024 -179.1   3.403   48.6  0.0758   21.1  0.3939 -103.3
 5.800  0.6026  179.4   3.355   47.4  0.0763   21.0  0.3896 -104.4
 5.900  0.6033  177.8   3.308   46.2  0.0768   20.8  0.3855 -105.6
 6.000  0.6045  176.3   3.262   44.9  0.0773   20.7  0.3815 -106.8
 6.100  0.6033  174.7   3.212   43.7  0.0776   20.7  0.3765 -108.0
 6.200  0.6026  173.0   3.164   42.5  0.0779   20.7  0.3716 -109.2
 6.300  0.6024  171.4   3.117   41.2  0.0781   20.6  0.3669 -110.4
 6.400  0.6026  169.7   3.072   39.9  0.0784   20.6  0.3623 -111.7
 6.500  0.6034  168.1   3.028   38.6  0.0787   20.6  0.3580 -113.0
 6.600  0.6037  166.5   2.981   37.5  0.0789   20.8  0.3527 -113.9
 6.800  0.6055  163.4   2.891   35.1  0.0793   21.1  0.3422 -115.8
 7.000  0.6092  160.3   2.806   32.5  0.0797   21.4  0.3322 -117.8
 7.200  0.6122  157.6   2.721   30.4  0.0808   22.2  0.3198 -119.6
 7.400  0.6166  154.8   2.640   28.2  0.0819   23.0  0.3077 -121.6
 7.600  0.6235  152.1   2.568   25.8  0.0837   23.5  0.2955 -124.4
 7.800  0.6330  149.4   2.505   23.4  0.0862   23.8  0.2839 -128.2
 8.000  0.6439  146.8   2.446   20.9  0.0886   24.1  0.2736 -132.3
 8.200  0.6506  144.3   2.372   18.5  0.0910   23.6  0.2636 -138.1
 8.400  0.6584  141.9   2.302   15.9  0.0933   23.1  0.2564 -144.3
 8.600  0.6639  139.7   2.233   13.4  0.0953   22.5  0.2500 -150.9
 8.800  0.6668  137.6   2.164   11.2  0.0970   21.9  0.2448 -158.0
 9.000  0.6705  135.5   2.099    8.8  0.0987   21.2  0.2435 -165.3
 9.200  0.6748  133.7   2.036    7.1  0.1003   20.5  0.2463 -172.9
 9.400  0.6798  131.9   1.976    5.3  0.1018   19.9  0.2533  179.7
 9.600  0.6890  129.9   1.920    3.3  0.1031   19.3  0.2656  172.4
 9.800  0.7025  127.6   1.871    1.1  0.1042   18.8  0.2836  165.4
10.000  0.7171  125.5   1.825   -1.3  0.1053   18.2  0.3052  159.3
!
!  f       NFmin   Gammaopt  rn/50
! GHz       dB    MAG  ANG    -
 0.450      0.49  0.60    7   0.15
 2.400      0.72  0.32   55   0.13
 5.500      1.03  0.42  148   0.08
10.000      1.94  0.53 -123   0.27
!
! (c) 2016  Infineon Technologies AG, Munich
