! Infineon Technologies  Discrete & RF Semiconductors
! BFP650
! VCE =  3.0 V,  IC = 0.15 A
! Common Emitter S-Parameters:                            Jan 2016
# GHz  S  MA  R  50
!  f         S11            S21            S12            S22
! GHz     MAG   ANG      MAG   ANG      MAG   ANG      MAG   ANG
 0.030  0.2210 -142.8  88.946  167.4  0.0032   58.5  0.6369  -16.7
 0.035  0.2388 -142.9  88.414  165.1  0.0034   69.3  0.6322  -19.6
 0.040  0.2567 -142.9  88.025  162.8  0.0037   78.7  0.6291  -22.6
 0.045  0.2780 -142.4  86.667  160.7  0.0054   63.5  0.6329  -26.2
 0.050  0.2994 -142.0  85.432  158.5  0.0073   55.8  0.6391  -29.7
 0.055  0.3151 -141.0  84.824  156.7  0.0079   66.6  0.6354  -32.6
 0.060  0.3308 -140.1  84.305  154.8  0.0087   75.7  0.6334  -35.5
 0.065  0.3424 -141.9  82.867  152.8  0.0072   72.9  0.6157  -38.3
 0.070  0.3543 -143.6  81.529  150.8  0.0057   68.5  0.5996  -41.2
 0.075  0.3670 -144.2  80.212  148.9  0.0057   64.7  0.5930  -43.9
 0.080  0.3797 -144.7  78.983  147.0  0.0057   60.8  0.5877  -46.6
 0.085  0.3910 -145.0  77.553  145.4  0.0059   63.9  0.5786  -49.0
 0.090  0.4023 -145.3  76.184  143.8  0.0061   66.8  0.5706  -51.5
 0.095  0.4113 -146.4  74.839  142.2  0.0060   60.8  0.5632  -53.8
 0.100  0.4204 -147.4  73.557  140.5  0.0059   54.6  0.5567  -56.1
 0.105  0.4352 -147.8  72.114  139.0  0.0068   68.1  0.5509  -59.2
 0.110  0.4500 -148.2  70.720  137.5  0.0080   78.1  0.5467  -62.3
 0.115  0.4521 -149.1  69.266  136.2  0.0073   65.0  0.5370  -63.7
 0.120  0.4543 -149.9  67.850  134.8  0.0071   50.2  0.5277  -65.2
 0.125  0.4638 -150.5  66.553  133.5  0.0070   52.7  0.5216  -67.5
 0.130  0.4733 -151.0  65.291  132.2  0.0070   55.2  0.5164  -69.9
 0.135  0.4812 -151.7  64.095  131.1  0.0077   59.7  0.5081  -71.7
 0.140  0.4891 -152.4  62.923  130.0  0.0084   63.4  0.5004  -73.6
 0.145  0.4958 -152.9  61.693  128.9  0.0082   61.1  0.4954  -75.4
 0.150  0.5026 -153.4  60.487  127.7  0.0081   58.8  0.4910  -77.3
 0.155  0.5070 -154.0  59.403  126.9  0.0084   59.6  0.4845  -78.8
 0.160  0.5114 -154.7  58.330  126.1  0.0087   60.3  0.4783  -80.3
 0.165  0.5159 -155.3  57.268  125.3  0.0090   61.0  0.4725  -81.8
 0.170  0.5205 -155.9  56.219  124.5  0.0093   61.6  0.4670  -83.4
 0.175  0.5251 -156.5  55.183  123.6  0.0096   62.2  0.4619  -85.0
 0.180  0.5298 -157.1  54.160  122.7  0.0099   62.8  0.4571  -86.7
 0.185  0.5345 -157.7  53.152  121.7  0.0102   63.3  0.4527  -88.4
 0.190  0.5393 -158.3  52.159  120.7  0.0105   63.8  0.4488  -90.1
 0.195  0.5441 -158.8  51.183  119.7  0.0108   64.3  0.4452  -91.8
 0.200  0.5490 -159.4  50.224  118.6  0.0111   64.7  0.4421  -93.6
 0.220  0.5603 -161.2  46.988  116.2  0.0119   64.2  0.4259  -98.4
 0.240  0.5721 -162.9  43.844  113.5  0.0126   63.8  0.4129 -103.5
 0.260  0.5815 -164.4  41.085  111.2  0.0131   63.7  0.4018 -108.1
 0.280  0.5885 -165.8  38.660  109.3  0.0134   63.9  0.3913 -112.0
 0.300  0.5958 -167.2  36.280  107.2  0.0136   64.1  0.3828 -116.1
 0.320  0.6003 -168.3  34.374  105.8  0.0140   64.5  0.3755 -119.3
 0.340  0.6050 -169.4  32.493  104.2  0.0145   64.8  0.3694 -122.6
 0.360  0.6094 -170.5  30.826  102.7  0.0151   64.7  0.3641 -125.6
 0.380  0.6133 -171.4  29.364  101.5  0.0158   64.2  0.3592 -128.4
 0.400  0.6173 -172.4  27.917  100.1  0.0166   63.8  0.3552 -131.2
 0.420  0.6202 -173.2  26.735   99.1  0.0169   65.0  0.3517 -133.5
 0.440  0.6233 -174.1  25.562   98.0  0.0172   66.2  0.3488 -135.9
 0.450  0.6249 -174.5  24.979   97.4  0.0174   66.8  0.3476 -137.1
 0.460  0.6256 -174.9  24.493   97.0  0.0179   66.6  0.3461 -138.1
 0.480  0.6271 -175.7  23.525   96.1  0.0188   66.4  0.3433 -140.1
 0.500  0.6288 -176.5  22.564   95.1  0.0198   66.1  0.3410 -142.2
 0.520  0.6306 -177.1  21.815   94.5  0.0204   66.1  0.3391 -143.9
 0.540  0.6325 -177.8  21.069   93.8  0.0209   66.0  0.3375 -145.6
 0.560  0.6344 -178.4  20.326   93.0  0.0215   66.0  0.3362 -147.3
 0.580  0.6365 -179.1  19.587   92.3  0.0220   65.9  0.3353 -149.1
 0.600  0.6386 -179.7  18.852   91.4  0.0226   65.9  0.3346 -150.8
 0.620  0.6392  179.7  18.311   90.9  0.0233   66.1  0.3336 -152.1
 0.640  0.6399  179.2  17.772   90.3  0.0240   66.2  0.3328 -153.5
 0.660  0.6407  178.6  17.234   89.7  0.0247   66.3  0.3322 -154.9
 0.680  0.6415  178.1  16.698   89.1  0.0254   66.5  0.3318 -156.2
 0.700  0.6424  177.5  16.165   88.4  0.0261   66.6  0.3316 -157.6
 0.720  0.6434  177.0  15.761   87.9  0.0266   66.5  0.3311 -158.7
 0.740  0.6445  176.5  15.358   87.4  0.0272   66.4  0.3308 -159.9
 0.760  0.6456  176.0  14.956   86.9  0.0277   66.3  0.3305 -161.0
 0.780  0.6467  175.5  14.556   86.3  0.0283   66.2  0.3305 -162.2
 0.800  0.6479  175.0  14.157   85.7  0.0288   66.1  0.3305 -163.3
 0.820  0.6485  174.6  13.838   85.3  0.0294   66.0  0.3301 -164.3
 0.840  0.6492  174.1  13.520   84.9  0.0300   65.8  0.3297 -165.3
 0.860  0.6499  173.7  13.203   84.4  0.0307   65.7  0.3295 -166.2
 0.880  0.6506  173.2  12.887   84.0  0.0313   65.6  0.3293 -167.2
 0.900  0.6514  172.8  12.571   83.5  0.0319   65.5  0.3293 -168.2
 0.920  0.6521  172.4  12.320   83.1  0.0325   65.4  0.3294 -169.0
 0.940  0.6529  171.9  12.069   82.7  0.0331   65.3  0.3297 -169.8
 0.960  0.6537  171.5  11.819   82.2  0.0337   65.2  0.3299 -170.7
 0.980  0.6546  171.0  11.570   81.8  0.0343   65.1  0.3303 -171.5
 1.000  0.6555  170.6  11.322   81.3  0.0349   65.0  0.3307 -172.3
 1.020  0.6558  170.2  11.115   80.9  0.0355   64.8  0.3309 -173.1
 1.040  0.6562  169.8  10.909   80.6  0.0362   64.6  0.3311 -173.8
 1.060  0.6566  169.4  10.703   80.2  0.0368   64.4  0.3314 -174.6
 1.080  0.6570  169.0  10.497   79.8  0.0375   64.3  0.3318 -175.3
 1.100  0.6575  168.6  10.292   79.4  0.0381   64.1  0.3322 -176.1
 1.120  0.6582  168.2  10.120   79.0  0.0387   64.1  0.3325 -176.8
 1.140  0.6590  167.8   9.949   78.6  0.0393   64.0  0.3329 -177.5
 1.160  0.6598  167.5   9.778   78.2  0.0400   64.0  0.3333 -178.1
 1.180  0.6606  167.1   9.608   77.7  0.0406   63.9  0.3337 -178.8
 1.200  0.6614  166.7   9.438   77.3  0.0412   63.9  0.3342 -179.5
 1.220  0.6619  166.3   9.291   77.0  0.0418   63.7  0.3343  179.9
 1.240  0.6624  165.9   9.144   76.6  0.0423   63.4  0.3345  179.3
 1.260  0.6629  165.6   8.997   76.3  0.0429   63.2  0.3346  178.8
 1.280  0.6634  165.2   8.851   75.9  0.0434   63.0  0.3349  178.2
 1.300  0.6640  164.8   8.705   75.5  0.0440   62.8  0.3351  177.6
 1.320  0.6646  164.4   8.582   75.2  0.0446   62.5  0.3356  177.0
 1.340  0.6653  164.0   8.459   74.8  0.0452   62.3  0.3362  176.4
 1.360  0.6660  163.7   8.336   74.5  0.0458   62.0  0.3368  175.8
 1.380  0.6667  163.3   8.214   74.1  0.0464   61.7  0.3375  175.2
 1.400  0.6674  162.9   8.092   73.7  0.0470   61.5  0.3382  174.6
 1.420  0.6679  162.5   7.984   73.3  0.0476   61.3  0.3386  174.1
 1.440  0.6684  162.2   7.875   73.0  0.0482   61.0  0.3390  173.6
 1.460  0.6689  161.8   7.768   72.6  0.0487   60.8  0.3394  173.2
 1.480  0.6694  161.5   7.660   72.2  0.0493   60.6  0.3398  172.7
 1.500  0.6700  161.1   7.553   71.8  0.0499   60.4  0.3403  172.2
 1.520  0.6706  160.8   7.457   71.5  0.0505   60.3  0.3407  171.7
 1.540  0.6713  160.4   7.362   71.1  0.0511   60.2  0.3410  171.2
 1.560  0.6720  160.1   7.267   70.8  0.0518   60.2  0.3414  170.8
 1.580  0.6727  159.7   7.172   70.5  0.0524   60.1  0.3419  170.3
 1.600  0.6734  159.4   7.077   70.1  0.0530   60.0  0.3423  169.8
 1.620  0.6739  159.0   6.992   69.8  0.0536   59.9  0.3428  169.3
 1.640  0.6744  158.7   6.907   69.4  0.0542   59.8  0.3432  168.8
 1.660  0.6749  158.3   6.822   69.1  0.0549   59.7  0.3437  168.4
 1.680  0.6754  158.0   6.737   68.8  0.0555   59.6  0.3443  167.9
 1.700  0.6760  157.6   6.653   68.4  0.0561   59.5  0.3448  167.4
 1.720  0.6765  157.2   6.578   68.1  0.0567   59.1  0.3454  166.9
 1.740  0.6770  156.9   6.503   67.7  0.0573   58.7  0.3460  166.4
 1.760  0.6775  156.5   6.429   67.3  0.0580   58.3  0.3466  165.9
 1.780  0.6780  156.2   6.355   67.0  0.0586   57.9  0.3473  165.4
 1.800  0.6786  155.8   6.281   66.6  0.0592   57.5  0.3480  164.9
 1.820  0.6787  155.5   6.211   66.3  0.0598   57.3  0.3483  164.5
 1.840  0.6787  155.1   6.141   65.9  0.0603   57.2  0.3485  164.1
 1.860  0.6788  154.8   6.071   65.6  0.0609   57.0  0.3488  163.7
 1.880  0.6790  154.4   6.001   65.3  0.0614   56.9  0.3492  163.3
 1.900  0.6791  154.1   5.932   64.9  0.0620   56.7  0.3495  162.9
 1.920  0.6797  153.8   5.871   64.6  0.0625   56.5  0.3499  162.5
 1.940  0.6803  153.4   5.811   64.2  0.0630   56.3  0.3503  162.0
 1.960  0.6809  153.1   5.751   63.9  0.0635   56.2  0.3507  161.6
 1.980  0.6815  152.7   5.691   63.6  0.0640   56.0  0.3511  161.1
 2.000  0.6822  152.4   5.631   63.2  0.0645   55.8  0.3516  160.7
 2.020  0.6827  152.1   5.578   62.9  0.0650   55.6  0.3521  160.3
 2.040  0.6833  151.8   5.525   62.6  0.0656   55.3  0.3526  159.9
 2.060  0.6839  151.5   5.473   62.4  0.0661   55.1  0.3531  159.5
 2.080  0.6845  151.2   5.420   62.1  0.0667   54.9  0.3536  159.1
 2.100  0.6851  150.9   5.368   61.8  0.0672   54.7  0.3542  158.7
 2.120  0.6858  150.6   5.316   61.5  0.0678   54.4  0.3548  158.3
 2.140  0.6864  150.3   5.264   61.2  0.0683   54.2  0.3553  158.0
 2.160  0.6871  150.0   5.212   60.8  0.0689   54.0  0.3559  157.6
 2.180  0.6878  149.7   5.161   60.5  0.0694   53.8  0.3566  157.2
 2.200  0.6885  149.4   5.109   60.2  0.0700   53.6  0.3572  156.8
 2.220  0.6889  149.1   5.064   59.9  0.0705   53.3  0.3577  156.4
 2.240  0.6893  148.8   5.019   59.6  0.0710   53.0  0.3583  156.0
 2.260  0.6897  148.4   4.974   59.3  0.0715   52.7  0.3588  155.6
 2.280  0.6901  148.1   4.930   59.0  0.0720   52.5  0.3594  155.2
 2.300  0.6906  147.8   4.885   58.6  0.0725   52.2  0.3600  154.8
 2.320  0.6911  147.5   4.841   58.3  0.0730   51.9  0.3606  154.4
 2.340  0.6916  147.2   4.797   58.0  0.0736   51.7  0.3612  154.1
 2.360  0.6921  146.8   4.753   57.6  0.0741   51.4  0.3619  153.7
 2.380  0.6926  146.5   4.710   57.3  0.0746   51.2  0.3625  153.3
 2.400  0.6932  146.2   4.666   56.9  0.0751   50.9  0.3632  152.9
 2.420  0.6937  145.9   4.628   56.6  0.0757   50.7  0.3639  152.5
 2.440  0.6942  145.6   4.590   56.3  0.0762   50.5  0.3646  152.1
 2.460  0.6947  145.3   4.553   56.0  0.0768   50.3  0.3654  151.8
 2.480  0.6952  145.0   4.515   55.7  0.0773   50.1  0.3661  151.4
 2.500  0.6958  144.6   4.478   55.4  0.0779   50.0  0.3669  151.0
 2.520  0.6964  144.3   4.441   55.0  0.0785   49.8  0.3677  150.7
 2.540  0.6970  144.0   4.403   54.7  0.0790   49.6  0.3685  150.3
 2.560  0.6976  143.7   4.366   54.4  0.0796   49.4  0.3693  149.9
 2.580  0.6982  143.4   4.330   54.0  0.0801   49.3  0.3702  149.6
 2.600  0.6989  143.1   4.293   53.7  0.0807   49.1  0.3710  149.2
 2.620  0.6993  142.8   4.260   53.4  0.0813   48.8  0.3717  148.8
 2.640  0.6997  142.5   4.228   53.1  0.0818   48.6  0.3725  148.4
 2.660  0.7001  142.2   4.195   52.8  0.0824   48.3  0.3733  148.1
 2.680  0.7005  141.9   4.163   52.5  0.0830   48.1  0.3741  147.7
 2.700  0.7010  141.6   4.130   52.2  0.0836   47.9  0.3749  147.3
 2.720  0.7015  141.3   4.098   51.9  0.0842   47.6  0.3757  147.0
 2.740  0.7020  141.0   4.066   51.6  0.0847   47.4  0.3765  146.6
 2.760  0.7025  140.7   4.034   51.3  0.0853   47.2  0.3774  146.2
 2.780  0.7030  140.4   4.003   50.9  0.0859   46.9  0.3782  145.9
 2.800  0.7036  140.1   3.971   50.6  0.0865   46.7  0.3791  145.5
 2.820  0.7041  139.8   3.943   50.3  0.0870   46.5  0.3799  145.2
 2.840  0.7046  139.5   3.915   50.0  0.0874   46.2  0.3806  144.9
 2.860  0.7051  139.3   3.887   49.7  0.0879   46.0  0.3814  144.6
 2.880  0.7057  139.0   3.859   49.5  0.0884   45.8  0.3822  144.2
 2.900  0.7062  138.7   3.831   49.2  0.0888   45.6  0.3830  143.9
 2.920  0.7068  138.4   3.804   48.9  0.0893   45.4  0.3838  143.6
 2.940  0.7074  138.1   3.776   48.5  0.0898   45.1  0.3847  143.3
 2.960  0.7080  137.9   3.749   48.2  0.0902   44.9  0.3855  143.0
 2.980  0.7087  137.6   3.721   47.9  0.0907   44.7  0.3863  142.7
 3.000  0.7093  137.3   3.694   47.6  0.0912   44.5  0.3872  142.4
 3.100  0.7116  135.8   3.575   46.3  0.0935   43.2  0.3916  140.9
 3.200  0.7144  134.3   3.459   44.9  0.0959   42.0  0.3963  139.4
 3.300  0.7177  132.9   3.345   43.3  0.0983   40.9  0.4012  137.9
 3.400  0.7214  131.4   3.233   41.7  0.1007   39.8  0.4065  136.5
 3.500  0.7256  130.0   3.124   40.0  0.1032   38.8  0.4119  135.1
 3.600  0.7288  128.6   3.032   38.7  0.1051   37.6  0.4172  133.8
 3.700  0.7324  127.2   2.942   37.3  0.1070   36.4  0.4227  132.4
 3.800  0.7365  125.8   2.854   35.8  0.1090   35.3  0.4285  131.2
 3.900  0.7410  124.4   2.768   34.3  0.1110   34.2  0.4344  129.9
 4.000  0.7460  123.0   2.684   32.6  0.1131   33.1  0.4406  128.7
 4.100  0.7490  121.8   2.611   31.4  0.1148   32.0  0.4455  127.5
 4.200  0.7523  120.6   2.539   30.1  0.1165   30.8  0.4505  126.4
 4.300  0.7560  119.4   2.469   28.8  0.1183   29.8  0.4557  125.3
 4.400  0.7599  118.3   2.400   27.3  0.1201   28.7  0.4611  124.2
 4.500  0.7642  117.1   2.333   25.8  0.1219   27.7  0.4666  123.2
 4.600  0.7662  116.0   2.277   24.7  0.1237   26.7  0.4701  122.1
 4.700  0.7686  115.0   2.222   23.5  0.1256   25.8  0.4737  121.1
 4.800  0.7711  114.0   2.168   22.3  0.1274   24.9  0.4775  120.0
 4.900  0.7739  112.9   2.116   21.0  0.1294   24.0  0.4814  119.0
 5.000  0.7770  111.9   2.064   19.6  0.1313   23.1  0.4855  118.0
 5.100  0.7775  110.9   2.020   18.5  0.1330   22.1  0.4879  116.8
 5.200  0.7783  109.9   1.977   17.3  0.1347   21.1  0.4905  115.6
 5.300  0.7793  108.8   1.934   16.1  0.1365   20.2  0.4933  114.5
 5.400  0.7805  107.8   1.893   14.8  0.1383   19.3  0.4963  113.3
 5.500  0.7820  106.8   1.852   13.5  0.1401   18.4  0.4995  112.2
 5.600  0.7823  105.9   1.816   12.4  0.1418   17.3  0.5021  111.0
 5.700  0.7828  105.1   1.782   11.2  0.1436   16.3  0.5050  109.8
 5.800  0.7834  104.2   1.748   10.0  0.1454   15.3  0.5080  108.6
 5.900  0.7842  103.4   1.714    8.8  0.1473   14.3  0.5113  107.5
 6.000  0.7852  102.5   1.682    7.5  0.1492   13.3  0.5148  106.3
 6.100  0.7874  101.6   1.655    6.4  0.1510   12.2  0.5181  105.3
 6.200  0.7898  100.8   1.629    5.2  0.1528   11.1  0.5216  104.3
 6.300  0.7923   99.9   1.603    4.0  0.1547   10.1  0.5252  103.3
 6.400  0.7951   99.0   1.578    2.7  0.1566    9.1  0.5290  102.3
 6.500  0.7980   98.2   1.554    1.4  0.1586    8.1  0.5330  101.3
 6.600  0.8000   97.2   1.529    0.2  0.1599    6.9  0.5360  100.4
 6.800  0.8049   95.1   1.481   -2.4  0.1628    4.6  0.5423   98.7
 7.000  0.8107   93.1   1.437   -5.2  0.1660    2.4  0.5491   97.0
 7.200  0.8143   90.7   1.388   -7.9  0.1680   -0.0  0.5559   94.9
 7.400  0.8192   88.4   1.342  -10.7  0.1703   -2.4  0.5635   92.9
 7.600  0.8238   85.9   1.295  -13.4  0.1720   -4.6  0.5714   90.6
 7.800  0.8283   83.4   1.248  -16.1  0.1730   -6.8  0.5802   88.1
 8.000  0.8343   80.9   1.204  -18.9  0.1742   -8.9  0.5900   85.6
 8.200  0.8385   78.4   1.158  -21.2  0.1745  -11.1  0.6001   83.1
 8.400  0.8443   75.9   1.115  -23.7  0.1750  -13.2  0.6112   80.8
 8.600  0.8497   73.6   1.073  -26.0  0.1753  -15.3  0.6228   78.4
 8.800  0.8545   71.3   1.032  -28.1  0.1753  -17.2  0.6348   76.1
 9.000  0.8606   69.1   0.993  -30.4  0.1755  -19.2  0.6477   73.9
 9.200  0.8669   67.4   0.954  -32.2  0.1744  -20.9  0.6602   71.8
 9.400  0.8741   65.6   0.916  -34.1  0.1735  -22.6  0.6735   69.8
 9.600  0.8814   64.2   0.883  -35.7  0.1727  -23.9  0.6856   68.3
 9.800  0.8885   63.0   0.853  -37.1  0.1719  -25.0  0.6961   67.3
10.000  0.8961   61.9   0.824  -38.5  0.1712  -26.1  0.7067   66.3
!
!  f       NFmin   Gammaopt  rn/50
! GHz       dB    MAG  ANG    -
 0.450      1.88  0.66 -171   0.06
 0.900      1.91  0.67 -164   0.07
 1.900      2.19  0.70 -149   0.14
 2.400      2.45  0.69 -139   0.22
 3.500      2.88  0.69 -118   0.56
!
! (c) 2016  Infineon Technologies AG, Munich
