! Infineon Technologies  Discrete & RF Semiconductors
! BFP650
! VCE =  3.0 V,  IC = 0.11 A
! Common Emitter S-Parameters:                            Jan 2016
# GHz  S  MA  R  50
!  f         S11            S21            S12            S22
! GHz     MAG   ANG      MAG   ANG      MAG   ANG      MAG   ANG
 0.030  0.1678  -80.7 117.237  166.1  0.0027  100.7  0.9096  -16.5
 0.035  0.1870  -86.4 116.370  163.7  0.0032   87.4  0.9083  -19.4
 0.040  0.2076  -91.0 115.715  161.2  0.0038   78.0  0.9095  -22.4
 0.045  0.2226  -96.7 113.682  158.9  0.0031   71.4  0.8938  -25.6
 0.050  0.2395 -101.7 111.840  156.5  0.0024   60.9  0.8809  -28.9
 0.055  0.2659 -103.0 110.800  154.6  0.0051   72.4  0.8832  -31.9
 0.060  0.2925 -104.1 109.888  152.6  0.0078   75.9  0.8878  -34.8
 0.065  0.2997 -108.7 107.703  150.6  0.0070   65.6  0.8597  -37.7
 0.070  0.3087 -113.0 105.656  148.5  0.0065   53.1  0.8339  -40.8
 0.075  0.3251 -115.4 103.731  146.6  0.0071   56.8  0.8247  -43.3
 0.080  0.3420 -117.6 101.920  144.7  0.0078   59.8  0.8170  -45.8
 0.085  0.3511 -118.6  99.865  143.1  0.0074   64.2  0.8031  -48.0
 0.090  0.3604 -119.6  97.887  141.5  0.0070   69.2  0.7904  -50.2
 0.095  0.3683 -121.8  95.984  139.8  0.0067   66.2  0.7804  -52.3
 0.100  0.3767 -124.0  94.170  138.0  0.0065   62.9  0.7714  -54.5
 0.105  0.3906 -125.9  92.148  136.6  0.0072   66.6  0.7583  -57.0
 0.110  0.4049 -127.6  90.186  135.1  0.0080   69.6  0.7467  -59.6
 0.115  0.4127 -129.6  88.119  133.8  0.0089   72.6  0.7293  -61.8
 0.120  0.4210 -131.6  86.101  132.4  0.0099   75.1  0.7131  -64.1
 0.125  0.4252 -132.8  84.317  131.1  0.0096   68.5  0.7021  -65.7
 0.130  0.4296 -134.0  82.576  129.8  0.0095   61.7  0.6917  -67.3
 0.135  0.4378 -135.2  80.919  128.7  0.0091   63.4  0.6819  -69.0
 0.140  0.4462 -136.3  79.291  127.6  0.0088   65.3  0.6727  -70.8
 0.145  0.4517 -137.5  77.620  126.5  0.0093   66.9  0.6605  -72.5
 0.150  0.4573 -138.6  75.977  125.4  0.0099   68.3  0.6490  -74.3
 0.155  0.4609 -139.6  74.540  124.7  0.0100   67.4  0.6391  -75.6
 0.160  0.4647 -140.6  73.115  123.9  0.0101   66.5  0.6296  -77.0
 0.165  0.4686 -141.6  71.705  123.1  0.0102   65.7  0.6204  -78.3
 0.170  0.4726 -142.6  70.308  122.3  0.0104   64.8  0.6116  -79.8
 0.175  0.4768 -143.6  68.928  121.4  0.0105   64.0  0.6032  -81.2
 0.180  0.4811 -144.5  67.563  120.5  0.0106   63.2  0.5952  -82.8
 0.185  0.4856 -145.4  66.216  119.6  0.0107   62.4  0.5877  -84.3
 0.190  0.4901 -146.3  64.888  118.6  0.0108   61.7  0.5806  -85.9
 0.195  0.4948 -147.2  63.579  117.6  0.0110   60.9  0.5739  -87.5
 0.200  0.4996 -148.1  62.291  116.5  0.0111   60.2  0.5677  -89.2
 0.220  0.5089 -150.9  58.133  114.2  0.0116   59.6  0.5406  -93.5
 0.240  0.5193 -153.5  54.078  111.6  0.0121   59.1  0.5169  -98.3
 0.260  0.5277 -155.8  50.542  109.4  0.0127   59.1  0.4972 -102.6
 0.280  0.5339 -157.8  47.464  107.6  0.0136   59.5  0.4800 -106.4
 0.300  0.5407 -159.7  44.438  105.6  0.0145   59.8  0.4651 -110.4
 0.320  0.5454 -161.2  42.050  104.2  0.0151   60.3  0.4530 -113.5
 0.340  0.5505 -162.7  39.688  102.7  0.0156   60.7  0.4423 -116.8
 0.360  0.5549 -164.1  37.604  101.3  0.0162   61.2  0.4325 -119.8
 0.380  0.5585 -165.4  35.786  100.1  0.0167   61.6  0.4231 -122.6
 0.400  0.5624 -166.7  33.985   98.8  0.0172   62.1  0.4147 -125.4
 0.420  0.5647 -167.7  32.525   97.9  0.0176   62.2  0.4082 -127.7
 0.440  0.5673 -168.8  31.074   96.8  0.0181   62.3  0.4024 -130.1
 0.450  0.5686 -169.3  30.353   96.3  0.0183   62.4  0.3997 -131.3
 0.460  0.5695 -169.8  29.754   95.9  0.0187   62.6  0.3972 -132.3
 0.480  0.5713 -170.8  28.560   95.0  0.0194   62.8  0.3925 -134.4
 0.500  0.5734 -171.8  27.374   94.1  0.0202   63.1  0.3884 -136.6
 0.520  0.5749 -172.6  26.456   93.5  0.0209   63.3  0.3847 -138.3
 0.540  0.5764 -173.4  25.541   92.8  0.0216   63.5  0.3814 -140.1
 0.560  0.5781 -174.2  24.630   92.2  0.0222   63.7  0.3784 -141.9
 0.580  0.5799 -174.9  23.722   91.4  0.0229   63.8  0.3758 -143.7
 0.600  0.5818 -175.7  22.819   90.6  0.0236   64.0  0.3736 -145.6
 0.620  0.5826 -176.4  22.158   90.1  0.0242   64.0  0.3713 -147.0
 0.640  0.5834 -177.0  21.499   89.5  0.0248   64.0  0.3691 -148.4
 0.660  0.5844 -177.7  20.842   89.0  0.0255   64.0  0.3673 -149.9
 0.680  0.5854 -178.3  20.187   88.4  0.0261   64.0  0.3656 -151.3
 0.700  0.5865 -179.0  19.535   87.7  0.0267   64.0  0.3642 -152.8
 0.720  0.5874 -179.6  19.043   87.3  0.0273   63.9  0.3631 -154.0
 0.740  0.5884  179.8  18.551   86.8  0.0279   63.9  0.3621 -155.2
 0.760  0.5894  179.3  18.061   86.3  0.0285   63.8  0.3613 -156.4
 0.780  0.5905  178.7  17.573   85.8  0.0291   63.8  0.3607 -157.7
 0.800  0.5917  178.1  17.086   85.2  0.0297   63.7  0.3602 -158.9
 0.820  0.5923  177.6  16.698   84.8  0.0302   63.7  0.3591 -159.9
 0.840  0.5930  177.1  16.310   84.4  0.0308   63.7  0.3581 -161.0
 0.860  0.5937  176.6  15.924   84.0  0.0313   63.6  0.3573 -162.0
 0.880  0.5944  176.1  15.538   83.6  0.0319   63.6  0.3565 -163.1
 0.900  0.5952  175.6  15.153   83.1  0.0324   63.6  0.3559 -164.1
 0.920  0.5960  175.1  14.849   82.7  0.0331   63.5  0.3556 -165.0
 0.940  0.5968  174.6  14.545   82.3  0.0337   63.5  0.3554 -165.9
 0.960  0.5977  174.2  14.242   81.9  0.0344   63.4  0.3553 -166.7
 0.980  0.5986  173.7  13.940   81.5  0.0350   63.4  0.3553 -167.6
 1.000  0.5996  173.2  13.639   81.0  0.0357   63.3  0.3553 -168.5
 1.020  0.6000  172.8  13.388   80.7  0.0364   63.1  0.3552 -169.3
 1.040  0.6005  172.4  13.137   80.3  0.0371   63.0  0.3552 -170.1
 1.060  0.6010  171.9  12.886   80.0  0.0379   62.8  0.3553 -171.0
 1.080  0.6015  171.5  12.636   79.6  0.0386   62.6  0.3555 -171.8
 1.100  0.6021  171.1  12.387   79.2  0.0393   62.5  0.3557 -172.6
 1.120  0.6027  170.7  12.179   78.8  0.0398   62.5  0.3556 -173.3
 1.140  0.6033  170.2  11.972   78.4  0.0403   62.6  0.3556 -174.1
 1.160  0.6040  169.8  11.765   78.0  0.0408   62.6  0.3556 -174.8
 1.180  0.6047  169.3  11.559   77.6  0.0413   62.7  0.3557 -175.6
 1.200  0.6054  168.9  11.354   77.2  0.0418   62.7  0.3559 -176.3
 1.220  0.6059  168.5  11.176   76.9  0.0425   62.4  0.3560 -176.9
 1.240  0.6065  168.1  10.999   76.6  0.0431   62.1  0.3561 -177.5
 1.260  0.6071  167.8  10.822   76.2  0.0438   61.8  0.3563 -178.1
 1.280  0.6077  167.4  10.645   75.9  0.0444   61.5  0.3565 -178.7
 1.300  0.6084  167.0  10.469   75.5  0.0451   61.2  0.3567 -179.3
 1.320  0.6090  166.6  10.320   75.2  0.0457   61.1  0.3571 -179.9
 1.340  0.6096  166.2  10.171   74.8  0.0463   61.0  0.3575  179.4
 1.360  0.6102  165.8  10.023   74.5  0.0469   60.8  0.3579  178.8
 1.380  0.6109  165.4   9.875   74.1  0.0475   60.7  0.3585  178.1
 1.400  0.6116  165.0   9.728   73.7  0.0481   60.6  0.3590  177.5
 1.420  0.6123  164.6   9.597   73.4  0.0487   60.3  0.3593  177.0
 1.440  0.6131  164.2   9.467   73.0  0.0492   60.1  0.3596  176.4
 1.460  0.6139  163.9   9.337   72.7  0.0498   59.8  0.3600  175.9
 1.480  0.6147  163.5   9.207   72.4  0.0503   59.5  0.3604  175.3
 1.500  0.6155  163.1   9.078   72.0  0.0509   59.3  0.3608  174.8
 1.520  0.6161  162.7   8.963   71.7  0.0515   59.2  0.3609  174.3
 1.540  0.6166  162.4   8.849   71.3  0.0520   59.1  0.3611  173.8
 1.560  0.6172  162.0   8.734   71.0  0.0526   58.9  0.3613  173.3
 1.580  0.6179  161.7   8.621   70.7  0.0531   58.8  0.3615  172.8
 1.600  0.6185  161.3   8.507   70.3  0.0537   58.7  0.3618  172.3
 1.620  0.6189  160.9   8.404   70.0  0.0544   58.4  0.3622  171.8
 1.640  0.6193  160.5   8.302   69.7  0.0551   58.2  0.3627  171.2
 1.660  0.6198  160.2   8.200   69.4  0.0557   57.9  0.3631  170.7
 1.680  0.6203  159.8   8.098   69.0  0.0564   57.6  0.3637  170.1
 1.700  0.6208  159.4   7.996   68.7  0.0571   57.4  0.3642  169.6
 1.720  0.6216  159.0   7.906   68.4  0.0576   57.2  0.3647  169.1
 1.740  0.6223  158.7   7.816   68.0  0.0581   57.1  0.3653  168.6
 1.760  0.6231  158.3   7.727   67.7  0.0585   56.9  0.3659  168.2
 1.780  0.6240  158.0   7.638   67.4  0.0590   56.8  0.3665  167.7
 1.800  0.6248  157.6   7.549   67.0  0.0595   56.6  0.3671  167.2
 1.820  0.6249  157.3   7.465   66.7  0.0602   56.4  0.3673  166.8
 1.840  0.6250  156.9   7.381   66.4  0.0609   56.3  0.3675  166.3
 1.860  0.6252  156.6   7.298   66.1  0.0615   56.1  0.3678  165.9
 1.880  0.6253  156.2   7.214   65.7  0.0622   56.0  0.3680  165.4
 1.900  0.6255  155.9   7.131   65.4  0.0629   55.8  0.3683  165.0
 1.920  0.6262  155.5   7.058   65.1  0.0634   55.6  0.3686  164.5
 1.940  0.6269  155.2   6.985   64.7  0.0640   55.3  0.3690  164.1
 1.960  0.6276  154.8   6.912   64.4  0.0645   55.1  0.3694  163.6
 1.980  0.6283  154.5   6.839   64.1  0.0651   54.9  0.3698  163.2
 2.000  0.6291  154.1   6.767   63.7  0.0656   54.7  0.3702  162.7
 2.020  0.6297  153.8   6.704   63.4  0.0661   54.5  0.3707  162.3
 2.040  0.6304  153.5   6.641   63.2  0.0667   54.2  0.3713  161.9
 2.060  0.6310  153.2   6.578   62.9  0.0672   54.0  0.3718  161.5
 2.080  0.6317  152.9   6.515   62.6  0.0678   53.7  0.3724  161.0
 2.100  0.6324  152.6   6.452   62.3  0.0683   53.5  0.3730  160.6
 2.120  0.6331  152.3   6.389   62.0  0.0689   53.3  0.3736  160.2
 2.140  0.6338  152.0   6.327   61.7  0.0694   53.1  0.3743  159.8
 2.160  0.6346  151.7   6.265   61.4  0.0700   52.8  0.3749  159.4
 2.180  0.6353  151.4   6.203   61.1  0.0705   52.6  0.3756  159.0
 2.200  0.6361  151.1   6.141   60.8  0.0711   52.4  0.3763  158.6
 2.220  0.6365  150.8   6.087   60.5  0.0717   52.2  0.3768  158.2
 2.240  0.6370  150.5   6.033   60.2  0.0723   51.9  0.3774  157.7
 2.260  0.6374  150.1   5.980   59.9  0.0729   51.7  0.3779  157.3
 2.280  0.6379  149.8   5.926   59.6  0.0735   51.5  0.3785  156.9
 2.300  0.6384  149.5   5.873   59.3  0.0741   51.3  0.3791  156.5
 2.320  0.6389  149.2   5.820   58.9  0.0747   51.0  0.3798  156.1
 2.340  0.6395  148.9   5.767   58.6  0.0753   50.8  0.3804  155.6
 2.360  0.6400  148.5   5.715   58.3  0.0759   50.6  0.3811  155.2
 2.380  0.6406  148.2   5.662   57.9  0.0765   50.4  0.3818  154.8
 2.400  0.6412  147.9   5.610   57.6  0.0771   50.2  0.3825  154.4
 2.420  0.6417  147.6   5.565   57.3  0.0776   50.0  0.3831  154.0
 2.440  0.6423  147.3   5.519   57.0  0.0781   49.8  0.3838  153.6
 2.460  0.6429  146.9   5.474   56.7  0.0786   49.6  0.3844  153.3
 2.480  0.6435  146.6   5.429   56.4  0.0791   49.4  0.3851  152.9
 2.500  0.6441  146.3   5.384   56.1  0.0796   49.2  0.3858  152.5
 2.520  0.6447  146.0   5.339   55.8  0.0801   49.0  0.3865  152.2
 2.540  0.6454  145.7   5.295   55.5  0.0807   48.8  0.3872  151.8
 2.560  0.6461  145.3   5.250   55.2  0.0812   48.6  0.3880  151.4
 2.580  0.6468  145.0   5.206   54.8  0.0817   48.4  0.3887  151.1
 2.600  0.6475  144.7   5.162   54.5  0.0822   48.2  0.3895  150.7
 2.620  0.6479  144.4   5.123   54.2  0.0827   48.0  0.3901  150.3
 2.640  0.6483  144.1   5.083   53.9  0.0832   47.8  0.3908  149.9
 2.660  0.6488  143.8   5.044   53.6  0.0837   47.5  0.3915  149.6
 2.680  0.6492  143.5   5.005   53.4  0.0843   47.3  0.3921  149.2
 2.700  0.6497  143.2   4.966   53.1  0.0848   47.1  0.3928  148.8
 2.720  0.6502  142.9   4.928   52.8  0.0853   46.9  0.3936  148.5
 2.740  0.6507  142.6   4.889   52.4  0.0858   46.7  0.3943  148.1
 2.760  0.6513  142.3   4.850   52.1  0.0864   46.5  0.3950  147.7
 2.780  0.6518  142.0   4.812   51.8  0.0869   46.3  0.3958  147.4
 2.800  0.6524  141.7   4.774   51.5  0.0874   46.1  0.3966  147.0
 2.820  0.6530  141.4   4.740   51.2  0.0879   45.9  0.3974  146.7
 2.840  0.6537  141.1   4.707   51.0  0.0885   45.6  0.3982  146.3
 2.860  0.6543  140.8   4.673   50.7  0.0890   45.4  0.3989  146.0
 2.880  0.6550  140.5   4.640   50.4  0.0895   45.2  0.3998  145.7
 2.900  0.6557  140.2   4.607   50.1  0.0901   45.0  0.4006  145.3
 2.920  0.6564  140.0   4.574   49.8  0.0906   44.7  0.4014  145.0
 2.940  0.6571  139.7   4.541   49.5  0.0912   44.5  0.4023  144.7
 2.960  0.6579  139.4   4.508   49.2  0.0917   44.3  0.4031  144.3
 2.980  0.6586  139.1   4.476   48.9  0.0923   44.1  0.4040  144.0
 3.000  0.6594  138.8   4.443   48.6  0.0928   43.9  0.4049  143.7
 3.100  0.6623  137.3   4.300   47.3  0.0950   42.7  0.4093  142.1
 3.200  0.6657  135.8   4.160   45.9  0.0973   41.5  0.4141  140.6
 3.300  0.6696  134.3   4.023   44.4  0.0996   40.3  0.4191  139.1
 3.400  0.6739  132.8   3.888   42.8  0.1019   39.2  0.4244  137.6
 3.500  0.6786  131.4   3.757   41.1  0.1043   38.2  0.4300  136.2
 3.600  0.6826  130.0   3.647   39.8  0.1062   36.9  0.4353  134.8
 3.700  0.6871  128.6   3.538   38.4  0.1082   35.7  0.4408  133.4
 3.800  0.6919  127.2   3.432   37.0  0.1102   34.5  0.4466  132.1
 3.900  0.6972  125.8   3.328   35.4  0.1123   33.3  0.4526  130.8
 4.000  0.7028  124.5   3.227   33.8  0.1144   32.2  0.4588  129.5
 4.100  0.7065  123.3   3.139   32.6  0.1162   31.1  0.4637  128.3
 4.200  0.7105  122.1   3.053   31.3  0.1180   30.1  0.4688  127.1
 4.300  0.7149  120.9   2.969   30.0  0.1199   29.0  0.4740  126.0
 4.400  0.7195  119.7   2.886   28.6  0.1218   28.1  0.4795  124.9
 4.500  0.7245  118.5   2.805   27.1  0.1237   27.1  0.4851  123.8
 4.600  0.7269  117.4   2.737   26.0  0.1254   26.1  0.4887  122.7
 4.700  0.7296  116.4   2.671   24.8  0.1272   25.1  0.4925  121.6
 4.800  0.7325  115.3   2.606   23.6  0.1290   24.1  0.4964  120.5
 4.900  0.7357  114.2   2.542   22.3  0.1309   23.1  0.5005  119.4
 5.000  0.7391  113.2   2.479   21.0  0.1328   22.2  0.5048  118.4
 5.100  0.7400  112.2   2.425   19.9  0.1346   21.2  0.5070  117.2
 5.200  0.7412  111.1   2.373   18.8  0.1364   20.2  0.5094  116.0
 5.300  0.7427  110.1   2.321   17.6  0.1382   19.3  0.5121  114.8
 5.400  0.7443  109.1   2.270   16.3  0.1401   18.4  0.5150  113.6
 5.500  0.7462  108.1   2.221   15.0  0.1420   17.5  0.5181  112.4
 5.600  0.7469  107.2   2.178   13.9  0.1437   16.5  0.5205  111.2
 5.700  0.7479  106.3   2.136   12.8  0.1454   15.4  0.5232  109.9
 5.800  0.7490  105.5   2.094   11.6  0.1471   14.4  0.5261  108.7
 5.900  0.7502  104.6   2.054   10.4  0.1490   13.5  0.5293  107.5
 6.000  0.7517  103.7   2.014    9.1  0.1508   12.5  0.5327  106.3
 6.100  0.7541  102.8   1.981    8.0  0.1524   11.4  0.5358  105.3
 6.200  0.7566  102.0   1.949    6.8  0.1541   10.3  0.5391  104.3
 6.300  0.7593  101.1   1.917    5.6  0.1559    9.3  0.5426  103.3
 6.400  0.7622  100.2   1.887    4.3  0.1577    8.3  0.5462  102.3
 6.500  0.7652   99.4   1.857    3.0  0.1595    7.3  0.5500  101.3
 6.600  0.7676   98.4   1.827    1.8  0.1610    6.1  0.5529  100.4
 6.800  0.7732   96.3   1.768   -0.8  0.1641    3.8  0.5592   98.7
 7.000  0.7798   94.3   1.714   -3.6  0.1675    1.6  0.5660   97.0
 7.200  0.7844   91.9   1.655   -6.3  0.1694   -0.8  0.5727   94.9
 7.400  0.7904   89.6   1.599   -9.1  0.1715   -3.2  0.5801   92.8
 7.600  0.7959   87.1   1.543  -11.8  0.1731   -5.5  0.5881   90.5
 7.800  0.8011   84.6   1.486  -14.4  0.1741   -7.7  0.5969   87.9
 8.000  0.8079   82.1   1.432  -17.2  0.1753   -9.8  0.6069   85.4
 8.200  0.8132   79.6   1.377  -19.5  0.1755  -12.0  0.6166   82.9
 8.400  0.8202   77.0   1.325  -22.0  0.1759  -14.2  0.6274   80.5
 8.600  0.8267   74.6   1.275  -24.3  0.1761  -16.3  0.6388   78.1
 8.800  0.8327   72.3   1.225  -26.4  0.1761  -18.2  0.6507   75.8
 9.000  0.8400   70.0   1.177  -28.7  0.1763  -20.1  0.6637   73.5
 9.200  0.8476   68.3   1.131  -30.5  0.1752  -21.7  0.6758   71.4
 9.400  0.8559   66.5   1.085  -32.4  0.1742  -23.3  0.6887   69.5
 9.600  0.8642   65.1   1.045  -34.0  0.1733  -24.6  0.7003   68.0
 9.800  0.8720   63.9   1.008  -35.4  0.1725  -25.7  0.7103   66.9
10.000  0.8802   62.7   0.972  -36.8  0.1717  -26.7  0.7205   65.9
!
!  f       NFmin   Gammaopt  rn/50
! GHz       dB    MAG  ANG    -
 0.450      1.51  0.58 -171   0.06
 0.900      1.53  0.59 -164   0.07
 1.900      1.69  0.61 -149   0.10
 2.400      1.78  0.59 -141   0.14
 3.500      1.97  0.60 -118   0.26
!
! (c) 2016  Infineon Technologies AG, Munich
