! Infineon Technologies  Discrete & RF Semiconductors
! BFP620F
! VCE =  2.0 V,  IC =  15 mA
! Common Emitter S-Parameters:                            Dec 2014
# GHz  S  MA  R  50
!  f         S11            S21            S12            S22
! GHz     MAG   ANG      MAG   ANG      MAG   ANG      MAG   ANG
 0.030  0.8304   -3.6  35.751  176.2  0.0031   71.9  0.9725   -2.4
 0.040  0.8287   -4.9  35.708  175.1  0.0030   69.4  0.9727   -3.5
 0.050  0.8255   -6.4  35.737  174.0  0.0037   62.9  0.9722   -4.6
 0.060  0.8261   -7.4  35.637  173.2  0.0045   83.7  0.9719   -5.4
 0.070  0.8234   -8.6  35.554  172.0  0.0049   77.0  0.9697   -6.3
 0.080  0.8239   -9.9  35.530  170.8  0.0056   85.8  0.9698   -7.4
 0.090  0.8216  -11.2  35.382  169.8  0.0062   85.1  0.9692   -8.4
 0.100  0.8182  -12.4  35.236  168.7  0.0075   78.7  0.9657   -9.3
 0.110  0.8159  -13.6  35.123  167.6  0.0080   74.6  0.9635  -10.3
 0.120  0.8142  -14.9  34.944  166.5  0.0085   78.3  0.9610  -11.3
 0.130  0.8108  -16.1  34.824  165.5  0.0095   75.4  0.9571  -12.2
 0.140  0.8085  -17.3  34.661  164.5  0.0102   77.8  0.9532  -13.3
 0.150  0.8053  -18.5  34.550  163.5  0.0110   79.2  0.9493  -14.1
 0.200  0.7873  -24.4  33.645  158.5  0.0142   76.0  0.9280  -18.6
 0.250  0.7665  -30.1  32.696  153.6  0.0175   74.3  0.9026  -22.9
 0.300  0.7433  -35.6  31.630  149.1  0.0202   71.8  0.8733  -27.0
 0.350  0.7177  -40.8  30.415  144.9  0.0232   70.4  0.8411  -30.8
 0.400  0.6908  -45.9  29.322  140.8  0.0256   68.9  0.8067  -34.3
 0.450  0.6658  -50.5  28.108  137.1  0.0282   66.9  0.7763  -37.5
 0.500  0.6389  -55.1  26.946  133.6  0.0303   65.6  0.7422  -40.6
 0.600  0.5870  -63.6  24.685  127.2  0.0345   63.5  0.6774  -45.9
 0.700  0.5418  -71.2  22.619  121.8  0.0381   61.6  0.6187  -50.5
 0.800  0.5007  -78.1  20.715  117.1  0.0415   60.5  0.5648  -54.3
 0.900  0.4642  -84.5  19.058  113.0  0.0446   59.4  0.5167  -57.7
 1.000  0.4329  -90.6  17.599  109.5  0.0473   58.6  0.4741  -60.6
 1.100  0.4047  -96.0  16.286  106.3  0.0503   58.0  0.4350  -63.2
 1.200  0.3824 -101.5  15.156  103.5  0.0530   57.9  0.4015  -65.5
 1.300  0.3611 -106.5  14.143  100.9  0.0558   57.4  0.3700  -67.5
 1.400  0.3451 -111.4  13.258   98.6  0.0584   57.2  0.3438  -69.5
 1.500  0.3288 -116.0  12.454   96.4  0.0610   57.0  0.3188  -71.3
 1.600  0.3170 -120.6  11.744   94.4  0.0638   56.9  0.2980  -73.3
 1.700  0.3049 -124.9  11.101   92.5  0.0664   56.8  0.2782  -75.0
 1.800  0.2967 -129.1  10.531   90.8  0.0692   56.6  0.2623  -77.0
 1.900  0.2881 -133.0  10.008   89.1  0.0718   56.4  0.2477  -78.8
 2.000  0.2818 -136.8   9.534   87.6  0.0745   56.2  0.2358  -80.8
 2.100  0.2771 -140.6   9.097   86.0  0.0773   55.9  0.2302  -83.8
 2.200  0.2721 -143.9   8.703   84.6  0.0800   55.6  0.2198  -85.5
 2.300  0.2678 -147.4   8.336   83.2  0.0829   55.3  0.2109  -87.1
 2.400  0.2644 -150.4   8.006   81.8  0.0855   55.0  0.2030  -88.7
 2.500  0.2613 -153.5   7.698   80.6  0.0881   54.7  0.1958  -90.3
 2.600  0.2582 -156.5   7.410   79.4  0.0908   54.5  0.1893  -91.9
 2.700  0.2562 -159.1   7.146   78.2  0.0935   54.3  0.1840  -93.2
 2.800  0.2535 -161.8   6.899   77.0  0.0962   53.9  0.1789  -94.7
 2.900  0.2522 -164.3   6.665   75.9  0.0989   53.5  0.1747  -96.2
 3.000  0.2499 -166.9   6.455   74.7  0.1018   53.1  0.1709  -97.5
 3.100  0.2490 -169.1   6.250   73.6  0.1046   52.9  0.1671  -98.6
 3.200  0.2467 -171.5   6.061   72.5  0.1074   52.5  0.1636  -99.8
 3.300  0.2462 -173.5   5.883   71.4  0.1101   52.1  0.1611 -100.7
 3.400  0.2445 -175.7   5.719   70.3  0.1127   51.7  0.1580 -102.0
 3.500  0.2437 -177.7   5.561   69.3  0.1155   51.2  0.1550 -102.8
 3.600  0.2425 -179.8   5.410   68.3  0.1183   50.9  0.1520 -103.8
 3.700  0.2423  178.2   5.272   67.3  0.1210   50.4  0.1494 -104.6
 3.800  0.2411  176.0   5.136   66.3  0.1240   50.1  0.1468 -105.4
 3.900  0.2411  174.2   5.012   65.3  0.1267   49.6  0.1438 -106.3
 4.000  0.2406  172.2   4.889   64.3  0.1294   49.1  0.1401 -106.9
 4.100  0.2411  170.4   4.777   63.3  0.1321   48.6  0.1370 -107.8
 4.200  0.2416  168.5   4.670   62.3  0.1350   48.2  0.1335 -108.7
 4.300  0.2423  166.9   4.567   61.3  0.1378   47.6  0.1304 -109.5
 4.400  0.2432  165.1   4.468   60.4  0.1404   47.1  0.1269 -110.3
 4.500  0.2440  163.6   4.374   59.4  0.1432   46.6  0.1232 -111.3
 4.600  0.2456  161.9   4.284   58.4  0.1460   46.1  0.1192 -112.3
 4.700  0.2466  160.4   4.200   57.4  0.1489   45.5  0.1160 -113.5
 4.800  0.2488  158.9   4.117   56.5  0.1516   45.0  0.1120 -114.5
 4.900  0.2504  157.6   4.037   55.6  0.1543   44.4  0.1081 -115.8
 5.000  0.2527  156.2   3.963   54.5  0.1571   43.8  0.1048 -117.4
 5.100  0.2543  154.8   3.890   53.6  0.1600   43.3  0.1013 -118.2
 5.200  0.2569  153.7   3.820   52.7  0.1626   42.7  0.0976 -119.6
 5.300  0.2585  152.5   3.752   51.7  0.1654   42.1  0.0945 -121.1
 5.400  0.2616  151.3   3.686   50.7  0.1681   41.5  0.0918 -122.9
 5.500  0.2640  150.1   3.621   49.8  0.1707   40.9  0.0883 -124.4
 5.600  0.2669  149.0   3.560   48.8  0.1734   40.3  0.0851 -126.6
 5.700  0.2691  147.9   3.501   47.8  0.1761   39.7  0.0823 -128.5
 5.800  0.2716  146.7   3.444   46.8  0.1788   39.0  0.0794 -130.2
 5.900  0.2743  145.5   3.388   45.9  0.1812   38.4  0.0760 -132.9
 6.000  0.2768  144.3   3.332   44.9  0.1837   37.7  0.0736 -134.9
 6.100  0.2794  143.1   3.279   44.0  0.1862   37.0  0.0701 -137.2
 6.200  0.2817  141.9   3.226   43.0  0.1886   36.5  0.0667 -140.0
 6.300  0.2846  140.5   3.175   42.0  0.1911   35.8  0.0636 -143.5
 6.400  0.2873  139.2   3.126   41.0  0.1934   35.1  0.0607 -147.1
 6.500  0.2896  137.8   3.076   40.1  0.1958   34.5  0.0562 -150.9
 6.600  0.2922  136.5   3.026   39.2  0.1980   33.9  0.0532 -155.9
 6.700  0.2944  134.9   2.980   38.2  0.2002   33.3  0.0494 -160.7
 6.800  0.2969  133.4   2.934   37.3  0.2025   32.6  0.0460 -166.3
 6.900  0.3000  131.9   2.889   36.4  0.2047   32.0  0.0423 -173.5
 7.000  0.3033  130.5   2.844   35.4  0.2069   31.4  0.0392  178.1
 7.100  0.3065  129.1   2.802   34.6  0.2092   30.8  0.0370  168.3
 7.200  0.3098  127.7   2.760   33.7  0.2115   30.3  0.0360  157.5
 7.300  0.3140  126.4   2.720   32.8  0.2139   29.7  0.0370  145.7
 7.400  0.3183  125.1   2.680   32.0  0.2163   29.1  0.0394  135.0
 7.500  0.3236  124.0   2.644   31.1  0.2187   28.5  0.0435  125.3
 7.600  0.3290  123.0   2.608   30.3  0.2212   27.9  0.0486  117.4
 7.700  0.3353  122.0   2.573   29.5  0.2235   27.2  0.0557  111.3
 7.800  0.3416  121.0   2.539   28.6  0.2259   26.6  0.0634  106.6
 7.900  0.3491  120.1   2.506   27.7  0.2283   25.8  0.0724  102.5
 8.000  0.3567  119.3   2.473   26.8  0.2306   25.1  0.0817   99.3
!
!  f       NFmin   Gammaopt  rn/50
! GHz       dB    MAG  ANG    -
 0.450      0.71  0.15    6   0.20
 0.900      0.77  0.14   18   0.18
 1.500      0.82  0.13   20   0.13
 1.800      0.85  0.13   21   0.11
 1.900      0.86  0.09   36   0.14
 2.400      0.90  0.08   52   0.12
 3.500      0.98  0.06   85   0.13
 5.500      1.13  0.11  208   0.08
 6.000      1.17  0.11  235   0.13
!
! (c) 2014  Infineon Technologies AG, Munich
