! Infineon Technologies  Discrete & RF Semiconductors
! BFP620
! VCE =  2.0 V,  IC =  6.0 mA
! Common Emitter S-Parameters:                            Nov 2015
# GHz  S  MA  R  50
!  f         S11            S21            S12            S22
! GHz     MAG   ANG      MAG   ANG      MAG   ANG      MAG   ANG
 0.030  0.9071   -2.4  18.179  178.0  0.0024   74.2  0.9903   -1.6
 0.035  0.9062   -2.8  18.220  177.7  0.0028   77.2  0.9903   -1.9
 0.040  0.9054   -3.2  18.262  177.5  0.0032   79.4  0.9903   -2.2
 0.045  0.9045   -3.5  18.252  176.7  0.0035   80.4  0.9905   -2.5
 0.050  0.9036   -3.9  18.246  175.8  0.0039   81.3  0.9907   -2.7
 0.055  0.9053   -4.4  18.234  175.8  0.0043   80.2  0.9907   -3.0
 0.060  0.9070   -4.9  18.223  175.7  0.0047   79.3  0.9907   -3.3
 0.065  0.9069   -5.3  18.256  175.6  0.0051   80.4  0.9906   -3.6
 0.070  0.9068   -5.7  18.290  175.6  0.0055   81.3  0.9906   -3.9
 0.075  0.9064   -6.0  18.251  175.2  0.0059   81.1  0.9904   -4.2
 0.080  0.9061   -6.4  18.213  174.7  0.0064   80.9  0.9903   -4.5
 0.085  0.9054   -6.8  18.239  174.3  0.0067   81.5  0.9899   -4.8
 0.090  0.9048   -7.3  18.265  174.0  0.0070   82.1  0.9895   -5.1
 0.095  0.9049   -7.7  18.246  173.6  0.0073   81.8  0.9892   -5.3
 0.100  0.9051   -8.1  18.227  173.2  0.0077   81.5  0.9890   -5.6
 0.105  0.9034   -8.5  18.260  172.8  0.0081   81.6  0.9885   -5.9
 0.110  0.9018   -9.0  18.294  172.5  0.0085   81.6  0.9881   -6.2
 0.115  0.9030   -9.4  18.268  172.4  0.0089   81.5  0.9879   -6.5
 0.120  0.9042   -9.8  18.242  172.2  0.0093   81.5  0.9877   -6.8
 0.125  0.9033  -10.2  18.225  171.9  0.0097   81.7  0.9872   -7.1
 0.130  0.9025  -10.6  18.209  171.5  0.0102   81.9  0.9867   -7.4
 0.135  0.9012  -10.9  18.194  171.2  0.0105   81.5  0.9862   -7.6
 0.140  0.8999  -11.3  18.179  170.9  0.0108   81.1  0.9857   -7.9
 0.145  0.9003  -11.8  18.176  170.6  0.0112   81.2  0.9852   -8.2
 0.150  0.9007  -12.3  18.173  170.3  0.0116   81.3  0.9848   -8.5
 0.155  0.9001  -12.7  18.158  170.0  0.0120   81.1  0.9841   -8.8
 0.160  0.8996  -13.1  18.143  169.7  0.0124   80.9  0.9833   -9.1
 0.165  0.8991  -13.5  18.129  169.4  0.0128   80.8  0.9826   -9.4
 0.170  0.8986  -13.9  18.115  169.1  0.0132   80.6  0.9820   -9.7
 0.175  0.8982  -14.2  18.102  168.8  0.0135   80.5  0.9813   -9.9
 0.180  0.8978  -14.6  18.089  168.4  0.0139   80.4  0.9807  -10.2
 0.185  0.8975  -15.0  18.077  168.1  0.0143   80.2  0.9801  -10.5
 0.190  0.8972  -15.4  18.066  167.8  0.0147   80.1  0.9796  -10.8
 0.195  0.8969  -15.8  18.055  167.5  0.0151   80.0  0.9790  -11.1
 0.200  0.8967  -16.2  18.044  167.2  0.0155   79.9  0.9785  -11.4
 0.220  0.8933  -17.8  17.976  165.9  0.0170   79.1  0.9751  -12.5
 0.240  0.8906  -19.3  17.917  164.6  0.0185   78.5  0.9721  -13.6
 0.260  0.8875  -20.9  17.860  163.3  0.0201   77.8  0.9685  -14.8
 0.280  0.8840  -22.6  17.803  162.0  0.0216   77.0  0.9644  -15.9
 0.300  0.8813  -24.3  17.756  160.7  0.0231   76.4  0.9607  -17.0
 0.320  0.8772  -25.9  17.670  159.5  0.0245   75.5  0.9558  -18.1
 0.340  0.8738  -27.5  17.593  158.2  0.0260   74.7  0.9512  -19.2
 0.360  0.8699  -29.1  17.506  157.0  0.0274   73.9  0.9461  -20.2
 0.380  0.8656  -30.6  17.411  155.7  0.0289   73.2  0.9406  -21.3
 0.400  0.8619  -32.2  17.324  154.4  0.0303   72.5  0.9354  -22.4
 0.420  0.8568  -33.7  17.205  153.2  0.0317   71.6  0.9295  -23.5
 0.440  0.8524  -35.3  17.093  152.0  0.0331   70.9  0.9240  -24.6
 0.450  0.8504  -36.1  17.040  151.4  0.0338   70.5  0.9213  -25.1
 0.460  0.8475  -36.9  16.979  150.8  0.0345   70.1  0.9179  -25.6
 0.480  0.8421  -38.4  16.862  149.6  0.0358   69.3  0.9114  -26.6
 0.500  0.8373  -40.0  16.753  148.4  0.0371   68.6  0.9052  -27.7
 0.520  0.8307  -41.5  16.620  147.3  0.0383   67.8  0.8978  -28.7
 0.540  0.8247  -42.9  16.492  146.2  0.0396   67.0  0.8908  -29.7
 0.560  0.8192  -44.4  16.371  145.1  0.0409   66.2  0.8839  -30.7
 0.580  0.8142  -46.0  16.256  144.0  0.0421   65.6  0.8774  -31.7
 0.600  0.8099  -47.5  16.148  142.8  0.0434   64.9  0.8711  -32.7
 0.620  0.8027  -48.9  16.004  141.7  0.0445   64.1  0.8630  -33.6
 0.640  0.7960  -50.4  15.867  140.7  0.0457   63.3  0.8551  -34.5
 0.660  0.7899  -51.9  15.734  139.6  0.0468   62.6  0.8475  -35.5
 0.680  0.7843  -53.4  15.608  138.4  0.0479   61.9  0.8401  -36.4
 0.700  0.7792  -54.9  15.488  137.3  0.0491   61.2  0.8329  -37.4
 0.720  0.7726  -56.2  15.336  136.4  0.0501   60.5  0.8249  -38.2
 0.740  0.7664  -57.6  15.189  135.4  0.0511   59.8  0.8170  -39.1
 0.760  0.7606  -58.9  15.046  134.4  0.0521   59.2  0.8093  -39.9
 0.780  0.7552  -60.3  14.907  133.4  0.0532   58.6  0.8018  -40.8
 0.800  0.7503  -61.7  14.773  132.4  0.0542   58.0  0.7945  -41.7
 0.820  0.7436  -63.0  14.629  131.5  0.0551   57.4  0.7863  -42.5
 0.840  0.7372  -64.4  14.489  130.6  0.0560   56.7  0.7783  -43.3
 0.860  0.7313  -65.7  14.353  129.6  0.0569   56.1  0.7705  -44.1
 0.880  0.7258  -67.1  14.221  128.7  0.0579   55.6  0.7628  -44.9
 0.900  0.7207  -68.5  14.093  127.7  0.0588   55.0  0.7553  -45.8
 0.920  0.7142  -69.7  13.957  126.9  0.0596   54.4  0.7478  -46.5
 0.940  0.7081  -71.0  13.823  126.1  0.0604   53.8  0.7404  -47.2
 0.960  0.7023  -72.2  13.692  125.2  0.0612   53.3  0.7332  -47.9
 0.980  0.6969  -73.5  13.565  124.4  0.0621   52.7  0.7260  -48.7
 1.000  0.6918  -74.8  13.440  123.5  0.0629   52.2  0.7190  -49.4
 1.020  0.6859  -76.0  13.308  122.7  0.0636   51.7  0.7116  -50.1
 1.040  0.6802  -77.2  13.179  121.9  0.0644   51.2  0.7043  -50.8
 1.060  0.6749  -78.5  13.052  121.0  0.0652   50.7  0.6971  -51.5
 1.080  0.6699  -79.7  12.929  120.2  0.0659   50.2  0.6901  -52.3
 1.100  0.6652  -81.0  12.808  119.3  0.0667   49.7  0.6831  -53.0
 1.120  0.6593  -82.1  12.684  118.6  0.0674   49.2  0.6761  -53.6
 1.140  0.6536  -83.3  12.563  117.8  0.0680   48.8  0.6691  -54.2
 1.160  0.6482  -84.5  12.444  117.1  0.0687   48.3  0.6622  -54.9
 1.180  0.6431  -85.7  12.327  116.3  0.0694   47.8  0.6554  -55.5
 1.200  0.6383  -86.9  12.212  115.5  0.0701   47.4  0.6487  -56.2
 1.220  0.6338  -88.0  12.096  114.9  0.0707   47.0  0.6423  -56.8
 1.240  0.6295  -89.1  11.982  114.2  0.0713   46.6  0.6360  -57.4
 1.260  0.6254  -90.2  11.869  113.6  0.0719   46.2  0.6298  -58.0
 1.280  0.6216  -91.3  11.758  112.9  0.0726   45.8  0.6236  -58.7
 1.300  0.6180  -92.4  11.649  112.2  0.0732   45.4  0.6175  -59.3
 1.320  0.6135  -93.5  11.550  111.5  0.0738   45.0  0.6112  -59.9
 1.340  0.6092  -94.6  11.453  110.9  0.0744   44.6  0.6049  -60.5
 1.360  0.6051  -95.8  11.357  110.2  0.0750   44.2  0.5988  -61.1
 1.380  0.6013  -96.9  11.263  109.5  0.0756   43.8  0.5926  -61.7
 1.400  0.5977  -98.1  11.170  108.8  0.0762   43.4  0.5866  -62.3
 1.420  0.5930  -99.1  11.068  108.2  0.0767   43.0  0.5808  -62.9
 1.440  0.5885 -100.2  10.967  107.5  0.0773   42.7  0.5751  -63.4
 1.460  0.5842 -101.3  10.867  106.9  0.0778   42.3  0.5695  -64.0
 1.480  0.5801 -102.4  10.769  106.2  0.0784   42.0  0.5639  -64.6
 1.500  0.5762 -103.5  10.673  105.5  0.0789   41.6  0.5584  -65.2
 1.520  0.5723 -104.6  10.581  104.9  0.0794   41.3  0.5526  -65.7
 1.540  0.5687 -105.7  10.491  104.3  0.0799   40.9  0.5468  -66.2
 1.560  0.5652 -106.8  10.401  103.7  0.0804   40.6  0.5410  -66.8
 1.580  0.5619 -107.9  10.313  103.1  0.0809   40.3  0.5353  -67.3
 1.600  0.5589 -109.0  10.226  102.5  0.0814   40.0  0.5297  -67.9
 1.620  0.5549 -110.1  10.141  101.9  0.0819   39.7  0.5246  -68.4
 1.640  0.5511 -111.1  10.056  101.3  0.0824   39.4  0.5195  -68.9
 1.660  0.5475 -112.2   9.973  100.7  0.0829   39.1  0.5145  -69.5
 1.680  0.5440 -113.3   9.891  100.1  0.0834   38.8  0.5095  -70.0
 1.700  0.5408 -114.4   9.810   99.5  0.0839   38.5  0.5046  -70.6
 1.720  0.5376 -115.4   9.729   99.0  0.0843   38.2  0.4992  -71.1
 1.740  0.5346 -116.3   9.650   98.4  0.0847   37.9  0.4938  -71.6
 1.760  0.5317 -117.3   9.571   97.8  0.0852   37.5  0.4885  -72.1
 1.780  0.5290 -118.3   9.493   97.3  0.0856   37.2  0.4832  -72.7
 1.800  0.5264 -119.3   9.416   96.7  0.0860   36.9  0.4780  -73.2
 1.820  0.5232 -120.3   9.340   96.2  0.0864   36.6  0.4732  -73.7
 1.840  0.5202 -121.3   9.266   95.6  0.0868   36.3  0.4685  -74.2
 1.860  0.5174 -122.4   9.192   95.0  0.0873   36.1  0.4637  -74.7
 1.880  0.5147 -123.4   9.119   94.5  0.0877   35.8  0.4590  -75.2
 1.900  0.5122 -124.5   9.047   93.9  0.0881   35.5  0.4544  -75.7
 1.920  0.5093 -125.5   8.975   93.4  0.0885   35.2  0.4497  -76.2
 1.940  0.5066 -126.4   8.904   92.9  0.0889   35.0  0.4450  -76.7
 1.960  0.5040 -127.4   8.834   92.4  0.0893   34.7  0.4403  -77.2
 1.980  0.5016 -128.4   8.765   91.8  0.0897   34.5  0.4357  -77.8
 2.000  0.4993 -129.4   8.696   91.3  0.0901   34.2  0.4311  -78.3
 2.020  0.4967 -130.3   8.629   90.9  0.0905   34.0  0.4268  -78.7
 2.040  0.4942 -131.3   8.562   90.4  0.0908   33.7  0.4224  -79.2
 2.060  0.4918 -132.2   8.495   89.9  0.0912   33.5  0.4181  -79.6
 2.080  0.4896 -133.1   8.429   89.5  0.0915   33.3  0.4139  -80.1
 2.100  0.4875 -134.1   8.364   89.0  0.0919   33.0  0.4096  -80.5
 2.120  0.4856 -135.1   8.300   88.5  0.0922   32.8  0.4054  -81.0
 2.140  0.4838 -136.0   8.235   88.0  0.0926   32.6  0.4012  -81.5
 2.160  0.4821 -137.0   8.172   87.5  0.0930   32.3  0.3970  -82.0
 2.180  0.4806 -138.0   8.109   87.0  0.0933   32.1  0.3929  -82.5
 2.200  0.4792 -139.0   8.047   86.5  0.0937   31.9  0.3888  -83.0
 2.220  0.4770 -139.9   7.987   86.1  0.0940   31.7  0.3850  -83.4
 2.240  0.4749 -140.8   7.928   85.6  0.0943   31.4  0.3812  -83.9
 2.260  0.4730 -141.7   7.869   85.1  0.0947   31.2  0.3775  -84.3
 2.280  0.4711 -142.6   7.810   84.7  0.0950   31.0  0.3737  -84.8
 2.300  0.4694 -143.5   7.752   84.2  0.0953   30.8  0.3700  -85.3
 2.320  0.4678 -144.4   7.695   83.7  0.0957   30.6  0.3663  -85.8
 2.340  0.4663 -145.4   7.638   83.2  0.0960   30.3  0.3627  -86.3
 2.360  0.4649 -146.3   7.582   82.7  0.0963   30.1  0.3591  -86.8
 2.380  0.4637 -147.3   7.526   82.2  0.0967   29.9  0.3555  -87.3
 2.400  0.4626 -148.2   7.471   81.7  0.0970   29.7  0.3519  -87.8
 2.420  0.4611 -149.0   7.421   81.3  0.0973   29.5  0.3485  -88.2
 2.440  0.4596 -149.9   7.370   80.9  0.0977   29.3  0.3451  -88.7
 2.460  0.4583 -150.7   7.321   80.4  0.0980   29.1  0.3418  -89.2
 2.480  0.4570 -151.6   7.272   80.0  0.0983   28.9  0.3384  -89.6
 2.500  0.4559 -152.4   7.223   79.6  0.0986   28.7  0.3351  -90.1
 2.520  0.4548 -153.3   7.174   79.1  0.0990   28.5  0.3319  -90.6
 2.540  0.4539 -154.2   7.126   78.7  0.0993   28.3  0.3286  -91.1
 2.560  0.4531 -155.1   7.079   78.2  0.0996   28.1  0.3254  -91.6
 2.580  0.4523 -155.9   7.032   77.8  0.1000   27.9  0.3222  -92.2
 2.600  0.4517 -156.8   6.985   77.3  0.1003   27.7  0.3190  -92.7
 2.620  0.4504 -157.6   6.939   76.9  0.1006   27.5  0.3158  -93.2
 2.640  0.4491 -158.5   6.893   76.5  0.1009   27.3  0.3127  -93.6
 2.660  0.4480 -159.3   6.848   76.1  0.1012   27.1  0.3096  -94.1
 2.680  0.4470 -160.2   6.803   75.7  0.1015   26.9  0.3065  -94.6
 2.700  0.4460 -161.1   6.758   75.3  0.1018   26.7  0.3034  -95.1
 2.720  0.4452 -161.9   6.714   74.8  0.1021   26.5  0.3004  -95.6
 2.740  0.4445 -162.8   6.670   74.4  0.1025   26.3  0.2973  -96.1
 2.760  0.4438 -163.7   6.626   74.0  0.1028   26.1  0.2943  -96.6
 2.780  0.4433 -164.5   6.583   73.5  0.1031   25.9  0.2914  -97.2
 2.800  0.4429 -165.4   6.540   73.1  0.1034   25.7  0.2884  -97.7
 2.820  0.4420 -166.2   6.498   72.7  0.1037   25.5  0.2855  -98.2
 2.840  0.4412 -167.0   6.456   72.3  0.1040   25.4  0.2826  -98.7
 2.860  0.4405 -167.8   6.415   71.9  0.1043   25.2  0.2798  -99.2
 2.880  0.4399 -168.6   6.374   71.5  0.1045   25.0  0.2769  -99.7
 2.900  0.4394 -169.4   6.333   71.1  0.1048   24.8  0.2741 -100.2
 2.920  0.4390 -170.2   6.292   70.7  0.1051   24.7  0.2713 -100.7
 2.940  0.4386 -171.1   6.252   70.3  0.1054   24.5  0.2686 -101.2
 2.960  0.4384 -171.9   6.213   69.9  0.1057   24.3  0.2658 -101.8
 2.980  0.4382 -172.7   6.173   69.4  0.1060   24.2  0.2631 -102.3
 3.000  0.4381 -173.5   6.134   69.0  0.1063   24.0  0.2604 -102.9
 3.100  0.4354 -177.2   5.954   67.4  0.1077   23.1  0.2476 -105.5
 3.200  0.4344  179.2   5.780   65.6  0.1091   22.2  0.2354 -108.3
 3.300  0.4352  175.5   5.611   63.8  0.1105   21.4  0.2238 -111.4
 3.400  0.4379  171.8   5.448   61.8  0.1120   20.5  0.2130 -114.9
 3.500  0.4423  168.2   5.292   59.7  0.1135   19.7  0.2030 -118.7
 3.600  0.4449  165.1   5.149   58.1  0.1147   18.8  0.1937 -122.3
 3.700  0.4488  162.0   5.009   56.5  0.1159   18.0  0.1853 -126.2
 3.800  0.4540  158.9   4.875   54.7  0.1172   17.1  0.1777 -130.5
 3.900  0.4604  156.0   4.745   52.9  0.1185   16.3  0.1713 -135.1
 4.000  0.4680  153.1   4.620   50.9  0.1198   15.5  0.1661 -140.1
 4.100  0.4724  150.6   4.506   49.5  0.1209   14.7  0.1616 -144.4
 4.200  0.4776  148.2   4.396   47.9  0.1219   13.9  0.1580 -148.9
 4.300  0.4837  145.9   4.288   46.3  0.1230   13.2  0.1555 -153.6
 4.400  0.4905  143.6   4.184   44.7  0.1242   12.4  0.1541 -158.4
 4.500  0.4981  141.4   4.084   42.9  0.1253   11.7  0.1537 -163.3
 4.600  0.5002  139.4   3.992   41.5  0.1263   11.0  0.1512 -167.1
 4.700  0.5030  137.3   3.902   40.1  0.1274   10.3  0.1493 -171.0
 4.800  0.5064  135.3   3.815   38.5  0.1285    9.6  0.1482 -175.0
 4.900  0.5104  133.3   3.730   37.0  0.1296    8.9  0.1478 -179.1
 5.000  0.5150  131.4   3.649   35.3  0.1307    8.2  0.1481  176.9
 5.100  0.5158  129.5   3.571   33.9  0.1318    7.5  0.1464  173.3
 5.200  0.5173  127.5   3.495   32.5  0.1328    6.8  0.1454  169.6
 5.300  0.5193  125.6   3.421   31.0  0.1339    6.1  0.1449  165.9
 5.400  0.5219  123.7   3.350   29.5  0.1351    5.4  0.1450  162.2
 5.500  0.5251  121.8   3.281   27.9  0.1362    4.7  0.1458  158.5
 5.600  0.5274  120.2   3.216   26.7  0.1373    4.0  0.1464  155.0
 5.700  0.5302  118.5   3.153   25.4  0.1385    3.3  0.1476  151.6
 5.800  0.5334  116.9   3.091   24.0  0.1397    2.7  0.1492  148.2
 5.900  0.5370  115.4   3.031   22.6  0.1409    2.0  0.1514  144.9
 6.000  0.5410  113.8   2.973   21.2  0.1421    1.4  0.1541  141.7
 6.100  0.5456  112.5   2.922   20.0  0.1433    0.7  0.1572  139.2
 6.200  0.5504  111.3   2.873   18.7  0.1445   -0.1  0.1607  136.7
 6.300  0.5556  110.1   2.824   17.4  0.1457   -0.8  0.1644  134.4
 6.400  0.5609  108.9   2.778   16.0  0.1469   -1.5  0.1684  132.2
 6.500  0.5665  107.7   2.733   14.6  0.1482   -2.2  0.1726  130.1
 6.600  0.5707  106.6   2.692   13.3  0.1494   -3.0  0.1758  128.2
 6.800  0.5796  104.5   2.613   10.7  0.1519   -4.6  0.1826  124.5
 7.000  0.5893  102.4   2.540    7.9  0.1545   -6.2  0.1902  121.1
 7.200  0.5959   99.9   2.464    5.2  0.1565   -8.1  0.1986  117.4
 7.400  0.6036   97.4   2.393    2.3  0.1587   -9.9  0.2078  114.0
 7.600  0.6118   94.6   2.322   -0.6  0.1606  -11.8  0.2179  110.3
 7.800  0.6209   91.6   2.250   -3.4  0.1620  -13.6  0.2294  106.3
 8.000  0.6318   88.6   2.184   -6.5  0.1636  -15.5  0.2419  102.8
 8.200  0.6401   85.0   2.105   -9.2  0.1641  -17.5  0.2561   98.7
 8.400  0.6509   81.4   2.030  -12.1  0.1648  -19.4  0.2714   95.0
 8.600  0.6631   78.0   1.957  -14.8  0.1651  -21.3  0.2886   91.3
 8.800  0.6767   74.6   1.883  -17.4  0.1651  -23.2  0.3079   87.7
 9.000  0.6925   71.3   1.814  -20.2  0.1652  -25.0  0.3282   84.5
 9.200  0.7083   68.9   1.740  -22.2  0.1642  -26.4  0.3501   81.7
 9.400  0.7253   66.7   1.668  -24.4  0.1633  -27.9  0.3728   79.3
 9.600  0.7418   65.2   1.607  -26.3  0.1626  -29.0  0.3931   77.6
 9.800  0.7570   64.4   1.557  -27.9  0.1622  -29.9  0.4107   76.5
10.000  0.7724   63.6   1.507  -29.5  0.1617  -30.8  0.4285   75.5
10.200  0.7799   63.7   1.473  -30.9  0.1624  -31.6  0.4374   75.5
10.400  0.7874   63.8   1.440  -32.4  0.1630  -32.4  0.4463   75.5
10.600  0.7910   63.8   1.413  -34.1  0.1644  -33.3  0.4519   75.6
10.800  0.7907   63.5   1.392  -35.9  0.1665  -34.1  0.4542   75.9
11.000  0.7904   63.2   1.372  -37.7  0.1686  -35.0  0.4565   76.2
11.200  0.7841   61.4   1.342  -40.1  0.1707  -36.5  0.4560   75.5
11.400  0.7787   59.6   1.315  -42.7  0.1729  -38.1  0.4556   74.8
11.600  0.7711   57.5   1.284  -45.0  0.1738  -39.7  0.4571   73.7
11.800  0.7620   55.0   1.247  -47.0  0.1733  -41.5  0.4607   72.5
12.000  0.7544   52.4   1.211  -49.1  0.1730  -43.3  0.4645   71.2
!
!  f       NFmin   Gammaopt  rn/50
! GHz       dB    MAG  ANG    -
 0.450      0.65  0.40    4   0.14
 0.900      0.68  0.35   10   0.05
 1.900      0.70  0.22   32   0.01
 2.400      0.73  0.17   55   0.11
 3.500      0.81  0.07   98   0.12
 5.500      1.18  0.10 -162   0.13
10.000      1.80  0.60  -55   0.76
!
! (c) 2015  Infineon Technologies AG, Munich
