! Infineon Technologies  Discrete & RF Semiconductors
! BFP640
! VCE =  4.0 V,  IC =  4.0 mA
! Common Emitter S-Parameters:                            Apr 2013
# GHz  S  MA  R  50
!  f         S11            S21            S12            S22
! GHz     MAG   ANG      MAG   ANG      MAG   ANG      MAG   ANG
 0.030  0.9497   -1.7  12.022  177.9  0.0008   84.2  0.9938   -1.0
 0.040  0.9516   -2.2  11.901  177.5  0.0028   75.8  0.9943   -1.2
 0.050  0.9518   -2.7  11.989  177.4  0.0025   81.6  0.9942   -1.6
 0.060  0.9502   -3.4  12.030  176.6  0.0032   69.0  0.9948   -1.9
 0.070  0.9503   -4.0  11.988  176.3  0.0039   79.4  0.9958   -2.2
 0.080  0.9499   -4.5  12.081  175.8  0.0048   79.9  0.9938   -2.5
 0.090  0.9488   -5.1  12.008  175.3  0.0055   79.9  0.9949   -2.9
 0.100  0.9474   -5.6  12.057  175.0  0.0058   81.9  0.9937   -3.2
 0.110  0.9479   -6.3  12.003  174.5  0.0056   83.8  0.9943   -3.5
 0.120  0.9479   -6.8  12.036  174.0  0.0062   83.4  0.9938   -3.8
 0.130  0.9479   -7.3  11.982  173.5  0.0075   85.0  0.9928   -4.2
 0.140  0.9466   -7.9  12.031  173.1  0.0072   81.9  0.9924   -4.5
 0.150  0.9470   -8.5  11.993  172.7  0.0084   84.0  0.9918   -4.8
 0.200  0.9443  -11.3  11.957  170.3  0.0113   80.3  0.9890   -6.4
 0.250  0.9409  -14.1  11.824  168.0  0.0142   81.9  0.9857   -7.9
 0.300  0.9379  -17.0  11.785  165.6  0.0169   81.1  0.9806   -9.6
 0.350  0.9329  -19.8  11.692  163.3  0.0198   78.9  0.9757  -11.2
 0.400  0.9266  -22.7  11.723  160.9  0.0222   77.9  0.9686  -12.8
 0.450  0.9214  -25.4  11.554  158.6  0.0248   76.0  0.9640  -14.3
 0.500  0.9137  -28.2  11.467  156.4  0.0275   75.0  0.9551  -15.8
 0.600  0.8980  -33.8  11.243  151.9  0.0329   71.4  0.9367  -18.9
 0.700  0.8803  -39.3  10.997  147.7  0.0381   68.1  0.9176  -21.8
 0.800  0.8574  -45.2  10.919  143.3  0.0430   65.4  0.8949  -24.6
 0.900  0.8376  -50.4  10.579  139.4  0.0476   62.3  0.8710  -27.2
 1.000  0.8146  -55.7  10.303  135.5  0.0518   59.4  0.8464  -29.8
 1.100  0.7911  -61.0  10.030  131.6  0.0555   56.6  0.8190  -32.2
 1.200  0.7674  -66.0   9.730  128.0  0.0591   54.1  0.7946  -34.4
 1.300  0.7441  -71.1   9.453  124.5  0.0622   51.6  0.7700  -36.4
 1.400  0.7248  -75.7   9.124  121.4  0.0655   49.3  0.7475  -38.2
 1.500  0.7017  -80.6   8.888  118.1  0.0681   47.3  0.7232  -39.9
 1.600  0.6774  -86.0   8.728  114.7  0.0707   45.1  0.6996  -41.7
 1.700  0.6599  -90.4   8.424  112.0  0.0730   43.3  0.6782  -43.1
 1.800  0.6413  -95.2   8.191  109.0  0.0754   41.3  0.6571  -44.7
 1.900  0.6257  -99.7   7.949  106.4  0.0773   39.6  0.6352  -46.1
 2.000  0.6077 -104.5   7.755  103.5  0.0793   38.2  0.6153  -47.6
 2.100  0.5949 -109.1   7.514  100.8  0.0810   36.3  0.5946  -49.0
 2.200  0.5799 -113.5   7.311   98.1  0.0831   34.6  0.5782  -50.2
 2.300  0.5679 -117.8   7.087   95.7  0.0842   33.3  0.5593  -51.2
 2.400  0.5553 -122.1   6.890   93.4  0.0857   32.0  0.5430  -52.3
 2.500  0.5433 -126.6   6.708   90.9  0.0868   30.8  0.5241  -53.4
 2.600  0.5323 -130.9   6.533   88.6  0.0882   29.6  0.5083  -54.2
 2.700  0.5229 -135.2   6.365   86.3  0.0896   28.4  0.4921  -55.1
 2.800  0.5152 -139.4   6.186   84.1  0.0908   27.2  0.4781  -55.9
 2.900  0.5078 -143.7   6.036   81.8  0.0919   26.2  0.4620  -56.9
 3.000  0.5006 -147.8   5.878   79.7  0.0931   25.0  0.4468  -57.9
 3.100  0.4923 -152.4   5.760   77.4  0.0940   24.1  0.4328  -58.7
 3.200  0.4889 -156.3   5.599   75.4  0.0951   23.0  0.4186  -59.7
 3.300  0.4846 -160.5   5.475   73.2  0.0962   21.9  0.4052  -60.6
 3.400  0.4817 -164.6   5.337   71.3  0.0968   21.0  0.3905  -61.6
 3.500  0.4781 -168.8   5.222   69.2  0.0978   20.1  0.3779  -62.3
 3.600  0.4771 -172.6   5.089   67.3  0.0985   19.1  0.3647  -63.2
 3.700  0.4766 -176.5   4.974   65.3  0.0995   18.2  0.3529  -64.0
 3.800  0.4778  180.0   4.847   63.4  0.1002   17.4  0.3405  -64.9
 3.900  0.4771  176.3   4.745   61.5  0.1008   16.7  0.3269  -65.9
 4.000  0.4784  172.7   4.634   59.6  0.1016   15.7  0.3165  -66.8
 4.100  0.4796  169.4   4.527   57.8  0.1021   15.1  0.3047  -67.8
 4.200  0.4829  166.2   4.419   56.0  0.1029   14.0  0.2967  -68.7
 4.300  0.4850  163.1   4.321   54.2  0.1033   13.3  0.2855  -69.6
 4.400  0.4895  160.1   4.223   52.5  0.1040   12.6  0.2769  -70.4
 4.500  0.4910  157.2   4.133   50.7  0.1043   12.1  0.2663  -71.3
 4.600  0.4957  154.4   4.046   49.0  0.1047   11.4  0.2588  -71.9
 4.700  0.4991  152.0   3.947   47.5  0.1055   10.6  0.2514  -72.5
 4.800  0.5035  149.4   3.870   45.8  0.1060   10.0  0.2432  -73.3
 4.900  0.5057  146.9   3.794   44.1  0.1063    9.5  0.2352  -73.8
 5.000  0.5105  144.8   3.711   42.6  0.1070    8.8  0.2284  -74.4
 5.100  0.5134  142.5   3.637   41.0  0.1076    8.2  0.2230  -74.9
 5.200  0.5180  140.6   3.558   39.6  0.1079    7.7  0.2164  -75.3
 5.300  0.5201  138.5   3.490   38.0  0.1086    7.0  0.2105  -75.7
 5.400  0.5237  136.7   3.421   36.6  0.1091    6.8  0.2035  -76.0
 5.500  0.5255  134.7   3.361   35.1  0.1096    6.2  0.1980  -76.2
 5.600  0.5288  133.1   3.295   33.7  0.1101    5.7  0.1926  -76.5
 5.700  0.5304  131.4   3.235   32.3  0.1107    5.2  0.1881  -76.5
 5.800  0.5338  129.7   3.175   30.8  0.1115    4.7  0.1822  -76.8
 5.900  0.5366  128.2   3.122   29.5  0.1122    4.2  0.1774  -77.1
 6.000  0.5388  126.5   3.073   28.0  0.1130    3.9  0.1705  -77.5
 6.100  0.5433  125.2   3.023   26.7  0.1140    3.2  0.1674  -77.9
 6.200  0.5446  123.6   2.976   25.4  0.1147    2.8  0.1612  -78.5
 6.300  0.5490  122.1   2.929   23.9  0.1156    2.1  0.1562  -79.0
 6.400  0.5507  120.4   2.891   22.5  0.1164    1.7  0.1496  -79.7
 6.500  0.5547  118.7   2.847   21.1  0.1172    1.0  0.1449  -80.2
 6.600  0.5577  117.2   2.797   19.6  0.1179    0.5  0.1401  -80.8
 6.700  0.5616  115.6   2.761   18.3  0.1187   -0.1  0.1347  -81.4
 6.800  0.5648  113.9   2.717   16.9  0.1196   -0.8  0.1290  -82.0
 6.900  0.5680  112.3   2.684   15.5  0.1204   -1.3  0.1231  -82.6
 7.000  0.5712  110.6   2.643   14.0  0.1213   -1.9  0.1181  -83.7
 7.100  0.5755  108.9   2.608   12.6  0.1219   -2.6  0.1134  -84.6
 7.200  0.5795  107.4   2.565   11.2  0.1229   -3.2  0.1085  -85.6
 7.300  0.5834  105.8   2.533    9.8  0.1235   -3.9  0.1033  -86.2
 7.400  0.5872  104.1   2.496    8.4  0.1243   -4.3  0.0975  -87.0
 7.500  0.5922  102.3   2.465    6.9  0.1250   -5.1  0.0914  -87.3
 7.600  0.5969  100.6   2.427    5.4  0.1258   -5.7  0.0857  -88.5
 7.700  0.6032   99.1   2.391    4.0  0.1264   -6.6  0.0804  -88.5
 7.800  0.6081   97.3   2.356    2.6  0.1271   -7.2  0.0750  -88.8
 7.900  0.6143   95.8   2.324    1.2  0.1278   -7.7  0.0660  -88.5
 8.000  0.6197   94.1   2.291   -0.3  0.1283   -8.5  0.0605  -88.8
 8.500  0.6530   86.4   2.122   -7.3  0.1305  -11.9  0.0224  -72.0
 9.000  0.6869   79.6   1.953  -13.7  0.1321  -15.0  0.0330   66.6
 9.500  0.7202   73.9   1.796  -19.5  0.1330  -17.8  0.0886   78.2
10.000  0.7484   69.8   1.669  -24.6  0.1340  -19.9  0.1401   83.8
!
!  f       NFmin   Gammaopt  rn/50
! GHz       dB    MAG  ANG    -
 0.450      0.54  0.50   12   0.12
 0.900      0.55  0.50   22   0.12
 1.500      0.60  0.44   35   0.12
 1.900      0.65  0.39   51   0.12
 2.400      0.70  0.36   59   0.11
 3.500      0.85  0.30   87   0.11
 5.500      1.13  0.30 -163   0.12
10.000      1.90  0.64  -65   0.47
!
! (c) 2013  Infineon Technologies AG, Munich
