! Infineon Technologies  Discrete & RF Semiconductors
! BFP620
! VCE =  1.5 V,  IC =  1.0 mA
! Common Emitter S-Parameters:                            Nov 2015
# GHz  S  MA  R  50
!  f         S11            S21            S12            S22
! GHz     MAG   ANG      MAG   ANG      MAG   ANG      MAG   ANG
 0.030  0.9877   -1.2   3.516  179.1  0.0027   89.1  0.9993   -0.7
 0.035  0.9858   -1.4   3.543  179.0  0.0032   88.8  0.9992   -0.8
 0.040  0.9839   -1.7   3.570  178.9  0.0037   88.5  0.9992   -0.9
 0.045  0.9858   -1.7   3.562  178.3  0.0041   88.5  0.9991   -1.0
 0.050  0.9877   -1.7   3.555  177.6  0.0046   88.5  0.9991   -1.1
 0.055  0.9862   -1.9   3.553  177.6  0.0050   88.0  0.9992   -1.3
 0.060  0.9848   -2.2   3.552  177.7  0.0055   87.5  0.9994   -1.4
 0.065  0.9864   -2.4   3.559  177.9  0.0059   88.0  0.9993   -1.5
 0.070  0.9880   -2.6   3.567  178.0  0.0063   88.5  0.9993   -1.6
 0.075  0.9871   -2.9   3.561  177.7  0.0068   88.5  0.9993   -1.7
 0.080  0.9863   -3.3   3.555  177.4  0.0073   88.5  0.9993   -1.9
 0.085  0.9856   -3.4   3.561  177.2  0.0077   88.2  0.9991   -2.0
 0.090  0.9850   -3.5   3.567  177.1  0.0082   87.9  0.9990   -2.1
 0.095  0.9868   -3.7   3.566  176.8  0.0086   88.1  0.9989   -2.2
 0.100  0.9886   -3.9   3.565  176.5  0.0091   88.2  0.9989   -2.4
 0.105  0.9870   -4.1   3.574  176.3  0.0095   87.6  0.9988   -2.5
 0.110  0.9855   -4.3   3.583  176.2  0.0099   87.1  0.9987   -2.6
 0.115  0.9858   -4.6   3.578  176.2  0.0104   87.2  0.9986   -2.7
 0.120  0.9861   -4.8   3.573  176.2  0.0109   87.3  0.9985   -2.8
 0.125  0.9858   -4.9   3.574  176.0  0.0114   87.1  0.9984   -2.9
 0.130  0.9856   -5.1   3.575  175.8  0.0119   87.0  0.9983   -3.1
 0.135  0.9853   -5.2   3.574  175.7  0.0124   87.0  0.9981   -3.2
 0.140  0.9851   -5.4   3.574  175.5  0.0128   87.0  0.9979   -3.3
 0.145  0.9853   -5.7   3.574  175.3  0.0132   86.9  0.9978   -3.4
 0.150  0.9856   -6.0   3.574  175.2  0.0136   86.8  0.9977   -3.5
 0.155  0.9855   -6.2   3.574  175.0  0.0141   86.7  0.9975   -3.6
 0.160  0.9854   -6.4   3.574  174.9  0.0145   86.5  0.9974   -3.7
 0.165  0.9852   -6.6   3.573  174.7  0.0150   86.4  0.9972   -3.8
 0.170  0.9852   -6.8   3.573  174.6  0.0155   86.3  0.9971   -3.9
 0.175  0.9851   -6.9   3.573  174.4  0.0159   86.2  0.9970   -4.0
 0.180  0.9850   -7.1   3.573  174.2  0.0164   86.1  0.9968   -4.2
 0.185  0.9849   -7.3   3.573  174.1  0.0169   86.0  0.9967   -4.3
 0.190  0.9849   -7.5   3.573  173.9  0.0174   86.0  0.9966   -4.4
 0.195  0.9848   -7.7   3.573  173.8  0.0178   85.9  0.9964   -4.5
 0.200  0.9848   -7.9   3.573  173.6  0.0183   85.8  0.9963   -4.6
 0.220  0.9841   -8.7   3.573  172.9  0.0202   85.2  0.9956   -5.1
 0.240  0.9835   -9.4   3.573  172.2  0.0221   84.7  0.9949   -5.6
 0.260  0.9832  -10.2   3.573  171.6  0.0239   84.2  0.9942   -6.0
 0.280  0.9831  -11.1   3.573  170.9  0.0258   83.7  0.9933   -6.5
 0.300  0.9832  -11.9   3.574  170.2  0.0276   83.3  0.9926   -7.0
 0.320  0.9821  -12.7   3.576  169.6  0.0295   82.7  0.9916   -7.4
 0.340  0.9813  -13.5   3.579  168.9  0.0314   82.1  0.9906   -7.9
 0.360  0.9806  -14.3   3.579  168.3  0.0332   81.6  0.9894   -8.3
 0.380  0.9802  -15.1   3.576  167.6  0.0351   81.1  0.9882   -8.8
 0.400  0.9799  -15.9   3.574  166.9  0.0370   80.6  0.9870   -9.3
 0.420  0.9788  -16.7   3.568  166.2  0.0389   80.0  0.9859   -9.8
 0.440  0.9779  -17.5   3.563  165.5  0.0408   79.5  0.9849  -10.3
 0.450  0.9775  -17.9   3.561  165.2  0.0417   79.3  0.9844  -10.5
 0.460  0.9769  -18.3   3.560  164.9  0.0426   79.0  0.9837  -10.7
 0.480  0.9758  -19.1   3.559  164.2  0.0445   78.4  0.9822  -11.2
 0.500  0.9749  -19.9   3.558  163.5  0.0464   77.9  0.9808  -11.6
 0.520  0.9734  -20.7   3.553  162.8  0.0483   77.3  0.9792  -12.0
 0.540  0.9721  -21.5   3.548  162.2  0.0501   76.7  0.9776  -12.5
 0.560  0.9709  -22.3   3.544  161.5  0.0520   76.2  0.9761  -12.9
 0.580  0.9700  -23.1   3.540  160.9  0.0539   75.7  0.9747  -13.4
 0.600  0.9692  -23.9   3.537  160.2  0.0558   75.2  0.9733  -13.8
 0.620  0.9674  -24.7   3.532  159.5  0.0576   74.6  0.9714  -14.2
 0.640  0.9657  -25.5   3.528  158.8  0.0594   74.0  0.9695  -14.7
 0.660  0.9643  -26.4   3.524  158.2  0.0612   73.4  0.9677  -15.1
 0.680  0.9630  -27.2   3.521  157.5  0.0631   72.9  0.9659  -15.6
 0.700  0.9620  -28.0   3.518  156.8  0.0649   72.4  0.9642  -16.0
 0.720  0.9602  -28.8   3.511  156.1  0.0667   71.8  0.9621  -16.4
 0.740  0.9587  -29.6   3.505  155.5  0.0684   71.1  0.9602  -16.9
 0.760  0.9573  -30.4   3.500  154.8  0.0702   70.6  0.9582  -17.3
 0.780  0.9561  -31.2   3.495  154.2  0.0720   70.0  0.9563  -17.8
 0.800  0.9551  -32.0   3.490  153.5  0.0738   69.5  0.9545  -18.2
 0.820  0.9530  -32.8   3.481  152.9  0.0755   68.9  0.9522  -18.6
 0.840  0.9511  -33.6   3.473  152.3  0.0773   68.3  0.9500  -19.0
 0.860  0.9493  -34.4   3.465  151.6  0.0790   67.8  0.9479  -19.5
 0.880  0.9478  -35.2   3.457  151.0  0.0807   67.3  0.9458  -19.9
 0.900  0.9464  -36.0   3.450  150.4  0.0825   66.8  0.9437  -20.3
 0.920  0.9443  -36.8   3.443  149.8  0.0842   66.2  0.9415  -20.7
 0.940  0.9424  -37.6   3.436  149.1  0.0859   65.7  0.9394  -21.1
 0.960  0.9407  -38.4   3.429  148.5  0.0876   65.1  0.9373  -21.6
 0.980  0.9392  -39.2   3.423  147.8  0.0893   64.6  0.9353  -22.0
 1.000  0.9378  -40.0   3.417  147.2  0.0910   64.1  0.9333  -22.4
 1.020  0.9357  -40.8   3.409  146.6  0.0926   63.5  0.9309  -22.8
 1.040  0.9337  -41.6   3.402  145.9  0.0943   63.0  0.9286  -23.2
 1.060  0.9319  -42.3   3.395  145.3  0.0960   62.4  0.9263  -23.6
 1.080  0.9303  -43.1   3.388  144.6  0.0976   61.9  0.9241  -24.0
 1.100  0.9289  -43.9   3.382  144.0  0.0993   61.4  0.9219  -24.4
 1.120  0.9265  -44.7   3.374  143.4  0.1009   60.8  0.9194  -24.8
 1.140  0.9243  -45.5   3.366  142.8  0.1024   60.3  0.9170  -25.2
 1.160  0.9222  -46.3   3.359  142.2  0.1040   59.7  0.9146  -25.6
 1.180  0.9204  -47.1   3.352  141.6  0.1056   59.2  0.9123  -26.0
 1.200  0.9187  -47.9   3.346  141.0  0.1072   58.7  0.9100  -26.4
 1.220  0.9167  -48.7   3.337  140.4  0.1087   58.2  0.9077  -26.8
 1.240  0.9149  -49.4   3.329  139.9  0.1103   57.7  0.9054  -27.2
 1.260  0.9133  -50.2   3.320  139.3  0.1119   57.2  0.9032  -27.6
 1.280  0.9118  -50.9   3.313  138.8  0.1134   56.8  0.9010  -28.0
 1.300  0.9105  -51.7   3.305  138.2  0.1150   56.3  0.8989  -28.4
 1.320  0.9085  -52.5   3.299  137.6  0.1165   55.8  0.8965  -28.8
 1.340  0.9067  -53.3   3.294  137.0  0.1181   55.2  0.8941  -29.2
 1.360  0.9051  -54.1   3.288  136.5  0.1196   54.7  0.8917  -29.5
 1.380  0.9037  -54.9   3.284  135.9  0.1211   54.2  0.8894  -29.9
 1.400  0.9024  -55.7   3.279  135.3  0.1227   53.7  0.8871  -30.3
 1.420  0.8998  -56.5   3.272  134.7  0.1241   53.2  0.8845  -30.7
 1.440  0.8974  -57.2   3.266  134.1  0.1256   52.7  0.8820  -31.1
 1.460  0.8952  -58.0   3.259  133.5  0.1271   52.2  0.8795  -31.5
 1.480  0.8931  -58.8   3.253  132.9  0.1285   51.7  0.8770  -31.9
 1.500  0.8912  -59.6   3.248  132.3  0.1300   51.2  0.8746  -32.3
 1.520  0.8890  -60.4   3.242  131.7  0.1314   50.7  0.8718  -32.7
 1.540  0.8870  -61.3   3.237  131.1  0.1328   50.2  0.8690  -33.1
 1.560  0.8852  -62.1   3.232  130.6  0.1342   49.7  0.8663  -33.5
 1.580  0.8836  -63.0   3.227  130.0  0.1356   49.3  0.8636  -33.9
 1.600  0.8822  -63.8   3.223  129.4  0.1370   48.8  0.8610  -34.3
 1.620  0.8797  -64.6   3.216  128.8  0.1385   48.3  0.8586  -34.7
 1.640  0.8773  -65.3   3.210  128.2  0.1399   47.8  0.8563  -35.0
 1.660  0.8751  -66.1   3.203  127.7  0.1414   47.3  0.8539  -35.4
 1.680  0.8731  -66.9   3.198  127.1  0.1429   46.9  0.8517  -35.7
 1.700  0.8712  -67.7   3.192  126.5  0.1444   46.4  0.8494  -36.1
 1.720  0.8687  -68.5   3.185  125.9  0.1457   45.8  0.8463  -36.5
 1.740  0.8665  -69.3   3.179  125.3  0.1470   45.3  0.8432  -36.9
 1.760  0.8644  -70.1   3.173  124.8  0.1483   44.8  0.8402  -37.3
 1.780  0.8624  -71.0   3.167  124.2  0.1496   44.2  0.8372  -37.7
 1.800  0.8607  -71.8   3.162  123.6  0.1509   43.7  0.8343  -38.1
 1.820  0.8584  -72.6   3.155  123.0  0.1521   43.2  0.8314  -38.5
 1.840  0.8563  -73.4   3.148  122.4  0.1534   42.7  0.8286  -38.9
 1.860  0.8544  -74.2   3.142  121.9  0.1546   42.2  0.8259  -39.2
 1.880  0.8526  -75.1   3.136  121.3  0.1559   41.8  0.8231  -39.6
 1.900  0.8510  -75.9   3.130  120.7  0.1572   41.3  0.8204  -40.0
 1.920  0.8482  -76.7   3.124  120.1  0.1584   40.8  0.8172  -40.4
 1.940  0.8456  -77.5   3.118  119.5  0.1596   40.3  0.8141  -40.8
 1.960  0.8432  -78.3   3.112  119.0  0.1608   39.8  0.8110  -41.2
 1.980  0.8409  -79.2   3.107  118.4  0.1621   39.3  0.8079  -41.6
 2.000  0.8388  -80.0   3.102  117.8  0.1633   38.8  0.8049  -42.0
 2.020  0.8357  -80.8   3.093  117.3  0.1643   38.3  0.8016  -42.3
 2.040  0.8328  -81.6   3.084  116.7  0.1653   37.8  0.7983  -42.7
 2.060  0.8301  -82.4   3.076  116.2  0.1664   37.3  0.7950  -43.0
 2.080  0.8275  -83.3   3.067  115.6  0.1674   36.8  0.7917  -43.4
 2.100  0.8251  -84.1   3.059  115.0  0.1685   36.3  0.7885  -43.8
 2.120  0.8229  -84.9   3.052  114.5  0.1695   35.8  0.7853  -44.1
 2.140  0.8208  -85.8   3.044  113.9  0.1706   35.4  0.7822  -44.5
 2.160  0.8189  -86.6   3.037  113.3  0.1717   34.9  0.7790  -44.9
 2.180  0.8172  -87.5   3.030  112.8  0.1728   34.5  0.7760  -45.2
 2.200  0.8157  -88.3   3.024  112.2  0.1739   34.0  0.7729  -45.6
 2.220  0.8129  -89.1   3.015  111.6  0.1748   33.5  0.7698  -45.9
 2.240  0.8102  -89.9   3.006  111.1  0.1758   33.0  0.7668  -46.3
 2.260  0.8076  -90.7   2.997  110.5  0.1767   32.5  0.7638  -46.7
 2.280  0.8053  -91.5   2.988  109.9  0.1777   32.1  0.7608  -47.0
 2.300  0.8031  -92.3   2.980  109.3  0.1786   31.6  0.7579  -47.4
 2.320  0.8011  -93.2   2.972  108.8  0.1796   31.1  0.7550  -47.7
 2.340  0.7992  -94.0   2.965  108.2  0.1806   30.7  0.7521  -48.1
 2.360  0.7975  -94.8   2.958  107.6  0.1816   30.2  0.7492  -48.5
 2.380  0.7960  -95.7   2.951  107.0  0.1827   29.7  0.7464  -48.8
 2.400  0.7946  -96.5   2.944  106.4  0.1837   29.3  0.7436  -49.2
 2.420  0.7918  -97.3   2.936  105.9  0.1845   28.8  0.7404  -49.5
 2.440  0.7892  -98.1   2.929  105.3  0.1854   28.4  0.7372  -49.9
 2.460  0.7867  -98.9   2.922  104.8  0.1862   27.9  0.7341  -50.2
 2.480  0.7844  -99.8   2.915  104.3  0.1871   27.4  0.7309  -50.6
 2.500  0.7822 -100.6   2.908  103.7  0.1880   27.0  0.7278  -51.0
 2.520  0.7803 -101.4   2.902  103.2  0.1889   26.5  0.7248  -51.3
 2.540  0.7784 -102.3   2.896  102.6  0.1898   26.1  0.7217  -51.7
 2.560  0.7768 -103.1   2.890  102.1  0.1907   25.7  0.7187  -52.1
 2.580  0.7753 -104.0   2.884  101.6  0.1917   25.2  0.7157  -52.4
 2.600  0.7740 -104.8   2.879  101.0  0.1926   24.8  0.7128  -52.8
 2.620  0.7712 -105.6   2.870  100.5  0.1933   24.3  0.7097  -53.1
 2.640  0.7686 -106.5   2.862   99.9  0.1941   23.9  0.7066  -53.4
 2.660  0.7661 -107.3   2.854   99.4  0.1948   23.4  0.7035  -53.8
 2.680  0.7638 -108.1   2.846   98.8  0.1956   23.0  0.7004  -54.1
 2.700  0.7617 -109.0   2.838   98.3  0.1963   22.5  0.6974  -54.4
 2.720  0.7597 -109.8   2.831   97.7  0.1971   22.1  0.6944  -54.7
 2.740  0.7579 -110.7   2.824   97.2  0.1979   21.6  0.6914  -55.1
 2.760  0.7562 -111.6   2.817   96.6  0.1987   21.2  0.6885  -55.4
 2.780  0.7548 -112.4   2.810   96.1  0.1996   20.7  0.6855  -55.8
 2.800  0.7535 -113.3   2.804   95.5  0.2004   20.3  0.6826  -56.1
 2.820  0.7508 -114.1   2.795   95.0  0.2010   19.9  0.6794  -56.4
 2.840  0.7482 -115.0   2.787   94.4  0.2016   19.4  0.6762  -56.8
 2.860  0.7458 -115.8   2.778   93.9  0.2022   19.0  0.6730  -57.1
 2.880  0.7435 -116.6   2.770   93.3  0.2028   18.5  0.6698  -57.4
 2.900  0.7414 -117.5   2.762   92.8  0.2034   18.1  0.6667  -57.8
 2.920  0.7395 -118.3   2.755   92.2  0.2040   17.7  0.6636  -58.1
 2.940  0.7377 -119.2   2.747   91.7  0.2047   17.3  0.6605  -58.4
 2.960  0.7361 -120.1   2.740   91.1  0.2053   16.8  0.6574  -58.8
 2.980  0.7347 -120.9   2.734   90.6  0.2060   16.4  0.6544  -59.1
 3.000  0.7334 -121.8   2.727   90.0  0.2067   16.0  0.6514  -59.5
 3.100  0.7173 -125.8   2.676   87.6  0.2086   13.8  0.6345  -61.0
 3.200  0.7049 -130.0   2.631   85.0  0.2107   11.7  0.6182  -62.6
 3.300  0.6963 -134.3   2.590   82.4  0.2132    9.6  0.6023  -64.3
 3.400  0.6918 -138.7   2.555   79.8  0.2159    7.5  0.5870  -66.1
 3.500  0.6913 -143.1   2.526   77.0  0.2189    5.5  0.5723  -68.0
 3.600  0.6802 -147.2   2.477   74.7  0.2194    3.5  0.5560  -69.5
 3.700  0.6725 -151.3   2.432   72.3  0.2202    1.4  0.5402  -71.1
 3.800  0.6686 -155.6   2.391   69.9  0.2212   -0.6  0.5247  -72.8
 3.900  0.6683 -159.8   2.354   67.3  0.2225   -2.5  0.5098  -74.6
 4.000  0.6717 -164.1   2.323   64.7  0.2241   -4.5  0.4954  -76.5
 4.100  0.6654 -167.7   2.277   62.6  0.2234   -6.3  0.4817  -77.9
 4.200  0.6618 -171.4   2.235   60.3  0.2228   -8.1  0.4683  -79.4
 4.300  0.6610 -175.1   2.196   58.0  0.2225   -9.9  0.4552  -81.0
 4.400  0.6629 -178.8   2.160   55.7  0.2224  -11.8  0.4425  -82.7
 4.500  0.6676  177.5   2.129   53.2  0.2226  -13.6  0.4302  -84.5
 4.600  0.6634  174.6   2.087   51.2  0.2211  -15.1  0.4203  -85.6
 4.700  0.6610  171.6   2.048   49.1  0.2198  -16.7  0.4105  -86.8
 4.800  0.6603  168.6   2.012   46.9  0.2186  -18.2  0.4009  -88.0
 4.900  0.6614  165.7   1.979   44.7  0.2176  -19.8  0.3916  -89.3
 5.000  0.6643  162.7   1.949   42.4  0.2167  -21.4  0.3824  -90.7
 5.100  0.6600  160.0   1.910   40.5  0.2150  -22.7  0.3737  -91.7
 5.200  0.6572  157.3   1.873   38.6  0.2135  -24.0  0.3650  -92.7
 5.300  0.6558  154.6   1.838   36.6  0.2120  -25.3  0.3565  -93.8
 5.400  0.6559  151.9   1.806   34.5  0.2107  -26.6  0.3481  -94.9
 5.500  0.6575  149.2   1.776   32.4  0.2095  -28.0  0.3399  -96.1
 5.600  0.6558  146.8   1.743   30.7  0.2078  -29.1  0.3321  -97.2
 5.700  0.6552  144.4   1.711   29.0  0.2061  -30.3  0.3244  -98.4
 5.800  0.6558  142.0   1.681   27.2  0.2046  -31.4  0.3169  -99.6
 5.900  0.6576  139.6   1.653   25.4  0.2031  -32.6  0.3095 -100.9
 6.000  0.6605  137.2   1.626   23.5  0.2017  -33.8  0.3023 -102.3
 6.100  0.6626  135.2   1.600   21.9  0.2000  -34.8  0.2960 -103.8
 6.200  0.6655  133.2   1.575   20.3  0.1983  -35.9  0.2900 -105.3
 6.300  0.6692  131.3   1.551   18.7  0.1968  -36.9  0.2842 -106.9
 6.400  0.6737  129.3   1.529   17.0  0.1952  -38.0  0.2786 -108.6
 6.500  0.6789  127.4   1.508   15.2  0.1938  -39.1  0.2732 -110.3
 6.600  0.6817  125.7   1.487   13.7  0.1922  -40.1  0.2686 -111.9
 6.800  0.6890  122.4   1.447   10.5  0.1891  -42.1  0.2600 -115.2
 7.000  0.6986  119.2   1.412    7.1  0.1863  -44.1  0.2523 -118.8
 7.200  0.7016  115.6   1.376    3.8  0.1829  -46.0  0.2419 -122.4
 7.400  0.7072  112.1   1.345    0.4  0.1797  -48.1  0.2325 -126.2
 7.600  0.7119  108.4   1.312   -3.0  0.1762  -49.9  0.2222 -130.3
 7.800  0.7163  104.5   1.278   -6.5  0.1724  -51.7  0.2110 -134.6
 8.000  0.7240  100.7   1.248  -10.1  0.1688  -53.5  0.2012 -139.3
 8.200  0.7261   96.4   1.208  -13.5  0.1645  -55.1  0.1879 -144.7
 8.400  0.7322   92.1   1.173  -17.0  0.1604  -56.7  0.1765 -150.8
 8.600  0.7393   87.9   1.135  -20.4  0.1563  -58.2  0.1651 -158.2
 8.800  0.7472   83.8   1.093  -23.6  0.1522  -59.6  0.1550 -167.2
 9.000  0.7589   79.8   1.054  -27.0  0.1481  -61.0  0.1492 -177.2
 9.200  0.7700   76.8   1.013  -29.5  0.1436  -61.9  0.1496  171.1
 9.400  0.7832   73.8   0.974  -32.2  0.1391  -62.8  0.1560  159.9
 9.600  0.7966   71.8   0.940  -34.6  0.1350  -63.4  0.1706  150.6
 9.800  0.8091   70.5   0.911  -36.7  0.1312  -63.5  0.1915  143.6
10.000  0.8220   69.3   0.883  -38.9  0.1274  -63.6  0.2147  138.0
10.200  0.8287   69.3   0.862  -40.8  0.1248  -63.4  0.2379  135.2
10.400  0.8354   69.2   0.842  -42.9  0.1222  -63.3  0.2616  133.0
10.600  0.8386   69.1   0.825  -45.1  0.1203  -63.0  0.2824  131.6
10.800  0.8384   68.8   0.810  -47.4  0.1190  -62.7  0.3000  131.0
11.000  0.8381   68.5   0.796  -49.9  0.1178  -62.3  0.3177  130.4
11.200  0.8315   66.8   0.773  -52.7  0.1173  -62.3  0.3267  129.0
11.400  0.8256   65.0   0.751  -55.7  0.1168  -62.2  0.3359  127.6
11.600  0.8176   62.8   0.727  -58.2  0.1159  -62.3  0.3448  125.7
11.800  0.8080   60.2   0.701  -60.4  0.1146  -62.5  0.3538  123.3
12.000  0.8002   57.5   0.676  -62.8  0.1132  -62.7  0.3633  121.0
!
!  f       NFmin   Gammaopt  rn/50
! GHz       dB    MAG  ANG    -
 0.450      0.71  0.84    7   0.43
 0.900      0.78  0.75   17   0.40
 1.900      0.93  0.58   46   0.34
 2.400      1.03  0.51   65   0.32
 3.500      1.09  0.34   87   0.23
 5.500      1.99  0.35  174   0.18
10.000      3.07  0.71  -63   1.84
!
! (c) 2015  Infineon Technologies AG, Munich
