! Infineon Technologies  Discrete & RF Semiconductors
! BFP640
! VCE =  2.5 V,  IC =  15 mA
! Common Emitter S-Parameters:                            Apr 2013
# GHz  S  MA  R  50
!  f         S11            S21            S12            S22
! GHz     MAG   ANG      MAG   ANG      MAG   ANG      MAG   ANG
 0.030  0.7886   -3.4  36.908  176.2  0.0018   87.3  0.9922   -1.9
 0.040  0.7877   -4.7  36.864  175.3  0.0020   97.3  0.9930   -2.7
 0.050  0.7881   -5.9  37.061  174.5  0.0033   82.7  0.9934   -3.6
 0.060  0.7868   -7.2  37.006  173.3  0.0035  108.6  0.9950   -4.2
 0.070  0.7837   -8.5  36.924  172.4  0.0032   91.9  0.9919   -5.1
 0.080  0.7830   -9.7  36.800  171.4  0.0043   83.2  0.9908   -5.9
 0.090  0.7816  -11.0  36.602  170.5  0.0056   83.1  0.9891   -6.7
 0.100  0.7812  -12.1  36.492  169.6  0.0049   83.6  0.9883   -7.4
 0.110  0.7781  -13.4  36.503  168.5  0.0057   86.2  0.9869   -8.3
 0.120  0.7773  -14.6  36.372  167.5  0.0067   79.5  0.9834   -9.0
 0.130  0.7755  -15.8  36.281  166.5  0.0063   80.4  0.9814   -9.8
 0.140  0.7732  -17.0  36.063  165.6  0.0074   81.7  0.9788  -10.6
 0.150  0.7720  -18.3  36.015  164.7  0.0077   81.0  0.9754  -11.3
 0.200  0.7593  -24.2  35.238  159.9  0.0103   78.0  0.9585  -15.0
 0.250  0.7437  -29.9  34.448  155.3  0.0126   79.3  0.9374  -18.5
 0.300  0.7252  -35.8  33.546  150.8  0.0151   74.4  0.9130  -21.9
 0.350  0.7065  -41.1  32.458  146.7  0.0170   71.5  0.8882  -25.1
 0.400  0.6841  -46.7  31.500  142.5  0.0193   69.6  0.8585  -28.1
 0.450  0.6642  -51.6  30.297  138.8  0.0212   67.8  0.8323  -30.8
 0.500  0.6408  -56.8  29.273  135.2  0.0229   66.5  0.8010  -33.4
 0.600  0.5962  -66.3  27.092  128.5  0.0259   63.1  0.7412  -37.9
 0.700  0.5548  -75.0  25.035  122.7  0.0293   60.1  0.6876  -41.7
 0.800  0.5168  -83.4  23.125  117.6  0.0317   58.5  0.6358  -44.8
 0.900  0.4839  -91.0  21.413  113.0  0.0339   56.5  0.5888  -47.5
 1.000  0.4542  -98.3  19.852  109.0  0.0360   55.1  0.5460  -49.8
 1.100  0.4294 -105.0  18.452  105.4  0.0382   54.0  0.5084  -51.6
 1.200  0.4073 -111.4  17.216  102.1  0.0401   53.1  0.4770  -53.1
 1.300  0.3896 -117.4  16.106   99.1  0.0420   52.3  0.4469  -54.3
 1.400  0.3746 -123.2  15.144   96.4  0.0439   51.7  0.4223  -55.4
 1.500  0.3596 -129.0  14.284   93.7  0.0457   51.0  0.3974  -56.2
 1.600  0.3502 -134.2  13.508   91.3  0.0475   50.3  0.3778  -57.1
 1.700  0.3412 -139.6  12.802   89.0  0.0493   49.9  0.3580  -57.6
 1.800  0.3346 -144.6  12.166   86.8  0.0511   49.2  0.3402  -58.4
 1.900  0.3299 -149.4  11.600   84.7  0.0531   48.5  0.3240  -58.9
 2.000  0.3260 -154.0  11.071   82.7  0.0549   48.0  0.3090  -59.7
 2.100  0.3250 -158.3  10.568   80.7  0.0567   47.4  0.2954  -60.4
 2.200  0.3220 -162.6  10.130   78.8  0.0584   46.9  0.2822  -60.8
 2.300  0.3207 -166.8   9.716   76.9  0.0604   46.4  0.2699  -61.1
 2.400  0.3191 -170.8   9.338   75.2  0.0620   45.9  0.2587  -61.6
 2.500  0.3194 -174.6   8.984   73.4  0.0640   45.2  0.2476  -61.8
 2.600  0.3200 -178.4   8.655   71.7  0.0657   44.7  0.2367  -62.2
 2.700  0.3217  178.2   8.346   70.1  0.0677   44.0  0.2259  -62.3
 2.800  0.3234  174.6   8.066   68.3  0.0692   43.2  0.2156  -62.8
 2.900  0.3262  171.4   7.799   66.7  0.0712   42.8  0.2052  -63.3
 3.000  0.3287  168.1   7.548   65.1  0.0732   42.0  0.1952  -64.0
 3.100  0.3325  165.1   7.309   63.5  0.0749   41.4  0.1860  -64.6
 3.200  0.3363  162.1   7.086   62.0  0.0768   40.7  0.1766  -65.5
 3.300  0.3408  159.1   6.881   60.3  0.0785   40.0  0.1676  -66.4
 3.400  0.3461  156.2   6.679   58.8  0.0804   39.2  0.1585  -67.5
 3.500  0.3508  153.5   6.488   57.3  0.0821   38.5  0.1494  -68.3
 3.600  0.3567  150.9   6.306   55.9  0.0839   37.6  0.1407  -69.6
 3.700  0.3626  148.4   6.137   54.4  0.0856   37.0  0.1314  -70.7
 3.800  0.3690  145.9   5.973   52.9  0.0872   36.2  0.1224  -72.2
 3.900  0.3747  143.5   5.817   51.4  0.0890   35.5  0.1134  -73.8
 4.000  0.3815  141.3   5.666   50.0  0.0908   34.8  0.1052  -76.0
 4.100  0.3875  139.2   5.522   48.6  0.0923   34.0  0.0970  -78.1
 4.200  0.3948  137.0   5.384   47.1  0.0940   33.1  0.0899  -80.9
 4.300  0.4005  135.0   5.254   45.7  0.0956   32.5  0.0824  -83.5
 4.400  0.4081  133.2   5.129   44.3  0.0972   31.6  0.0758  -86.0
 4.500  0.4134  131.4   5.007   43.0  0.0987   30.8  0.0691  -89.1
 4.600  0.4208  129.8   4.892   41.6  0.1003   30.0  0.0632  -92.3
 4.700  0.4258  128.1   4.779   40.3  0.1018   29.3  0.0569  -95.8
 4.800  0.4328  126.6   4.676   38.9  0.1036   28.5  0.0508  -99.8
 4.900  0.4375  125.1   4.573   37.6  0.1050   27.8  0.0455 -103.7
 5.000  0.4438  123.8   4.474   36.4  0.1065   27.0  0.0406 -108.3
 5.100  0.4480  122.4   4.380   35.1  0.1080   26.3  0.0358 -113.6
 5.200  0.4531  121.2   4.291   33.8  0.1096   25.5  0.0312 -119.0
 5.300  0.4572  119.8   4.203   32.5  0.1112   24.7  0.0268 -127.1
 5.400  0.4616  118.7   4.119   31.3  0.1126   24.0  0.0227 -134.5
 5.500  0.4651  117.4   4.039   30.0  0.1143   23.3  0.0190 -147.3
 5.600  0.4688  116.4   3.961   28.8  0.1156   22.5  0.0165 -160.2
 5.700  0.4713  115.2   3.888   27.6  0.1172   21.8  0.0148  178.1
 5.800  0.4754  114.0   3.817   26.3  0.1187   21.0  0.0154  159.5
 5.900  0.4785  113.1   3.752   25.2  0.1205   20.3  0.0175  142.2
 6.000  0.4818  112.0   3.688   23.9  0.1221   19.6  0.0209  131.4
 6.100  0.4870  111.1   3.628   22.8  0.1239   18.7  0.0245  123.9
 6.200  0.4885  110.0   3.568   21.6  0.1255   17.9  0.0292  118.5
 6.300  0.4938  108.9   3.512   20.3  0.1269   17.0  0.0337  114.0
 6.400  0.4967  107.7   3.458   19.1  0.1286   16.2  0.0388  111.4
 6.500  0.5016  106.4   3.404   17.8  0.1304   15.2  0.0438  108.6
 6.600  0.5048  105.2   3.350   16.4  0.1318   14.3  0.0485  106.7
 6.700  0.5095  104.0   3.301   15.2  0.1333   13.5  0.0540  104.5
 6.800  0.5136  102.7   3.248   14.0  0.1346   12.6  0.0587  103.1
 6.900  0.5181  101.5   3.201   12.7  0.1362   11.7  0.0643  101.5
 7.000  0.5220  100.1   3.153   11.4  0.1378   10.7  0.0689  101.2
 7.100  0.5270   98.9   3.108   10.2  0.1390    9.8  0.0748  100.2
 7.200  0.5311   97.5   3.061    8.9  0.1404    8.9  0.0794   99.6
 7.300  0.5357   96.2   3.019    7.5  0.1417    8.0  0.0850   98.3
 7.400  0.5404   94.9   2.973    6.3  0.1432    7.0  0.0902   97.4
 7.500  0.5463   93.5   2.929    4.9  0.1444    6.1  0.0967   95.8
 7.600  0.5516   92.1   2.885    3.6  0.1456    5.1  0.1029   95.1
 7.700  0.5583   90.9   2.842    2.3  0.1468    4.1  0.1089   93.7
 7.800  0.5643   89.5   2.800    1.0  0.1480    3.1  0.1153   92.4
 7.900  0.5712   88.2   2.756   -0.3  0.1489    2.2  0.1234   90.9
 8.000  0.5777   86.9   2.715   -1.6  0.1499    1.2  0.1303   89.8
 8.500  0.6158   80.6   2.503   -8.1  0.1540   -3.7  0.1735   82.5
 9.000  0.6547   74.9   2.295  -14.0  0.1561   -8.3  0.2278   77.3
 9.500  0.6936   70.1   2.100  -19.1  0.1570  -12.1  0.2846   74.1
10.000  0.7268   66.5   1.938  -23.4  0.1579  -15.2  0.3330   73.2
!
!  f       NFmin   Gammaopt  rn/50
! GHz       dB    MAG  ANG    -
 0.450      0.75  0.16    7   0.02
 0.900      0.77  0.15   15   0.02
 1.500      0.79  0.12   26   0.04
 1.900      0.79  0.09   43   0.04
 2.400      0.82  0.13 -116   0.05
 3.500      0.95  0.19 -105   0.07
 5.500      1.16  0.22 -100   0.12
10.000      1.69  0.57  -57   0.42
!
! (c) 2013  Infineon Technologies AG, Munich
