! Infineon Technologies  Discrete & RF Semiconductors
! BFP620F
! VCE =  1.8 V,  IC =  19 mA
! Common Emitter S-Parameters:                            Dec 2014
# GHz  S  MA  R  50
!  f         S11            S21            S12            S22
! GHz     MAG   ANG      MAG   ANG      MAG   ANG      MAG   ANG
 0.030  0.7902   -4.3  42.318  175.7  0.0029   90.2  0.9762   -2.8
 0.040  0.7886   -6.0  42.277  174.3  0.0026   76.7  0.9769   -4.3
 0.050  0.7887   -7.6  42.223  173.1  0.0039   77.5  0.9777   -5.5
 0.060  0.7870   -9.1  42.123  172.0  0.0043   86.5  0.9758   -6.4
 0.070  0.7862  -10.6  42.023  170.6  0.0066   85.5  0.9761   -7.9
 0.080  0.7838  -12.0  41.886  169.3  0.0056   83.8  0.9724   -9.0
 0.090  0.7793  -13.4  41.689  168.0  0.0063   78.6  0.9702  -10.2
 0.100  0.7761  -15.0  41.494  166.8  0.0080   84.1  0.9673  -11.4
 0.110  0.7734  -16.4  41.245  165.5  0.0084   79.1  0.9634  -12.6
 0.120  0.7696  -17.9  41.013  164.3  0.0091   79.5  0.9599  -13.8
 0.130  0.7658  -19.4  40.845  163.1  0.0099   79.4  0.9543  -14.9
 0.140  0.7620  -20.8  40.549  161.9  0.0100   82.1  0.9481  -16.2
 0.150  0.7584  -22.2  40.382  160.7  0.0112   79.6  0.9441  -17.2
 0.200  0.7358  -29.1  38.950  155.0  0.0149   75.4  0.9139  -22.6
 0.250  0.7089  -35.7  37.447  149.5  0.0179   73.9  0.8789  -27.6
 0.300  0.6820  -41.9  35.829  144.6  0.0208   72.4  0.8411  -32.3
 0.350  0.6518  -47.8  34.069  140.0  0.0230   69.4  0.8008  -36.5
 0.400  0.6211  -53.5  32.501  135.7  0.0257   68.0  0.7596  -40.4
 0.450  0.5948  -58.5  30.804  131.8  0.0277   66.2  0.7233  -43.9
 0.500  0.5656  -63.5  29.231  128.3  0.0303   64.9  0.6850  -47.1
 0.600  0.5143  -72.7  26.315  121.9  0.0335   62.7  0.6135  -52.8
 0.700  0.4710  -80.6  23.771  116.7  0.0373   61.8  0.5526  -57.5
 0.800  0.4346  -87.9  21.526  112.3  0.0403   61.0  0.4984  -61.5
 0.900  0.4025  -94.6  19.631  108.5  0.0433   60.0  0.4512  -65.0
 1.000  0.3773 -100.9  17.993  105.2  0.0463   59.9  0.4106  -68.0
 1.100  0.3535 -106.7  16.565  102.2  0.0493   59.7  0.3734  -70.9
 1.200  0.3369 -112.3  15.352   99.7  0.0521   59.4  0.3427  -73.4
 1.300  0.3203 -117.5  14.269   97.3  0.0549   59.1  0.3136  -75.8
 1.400  0.3092 -122.5  13.334   95.2  0.0578   59.0  0.2896  -78.1
 1.500  0.2973 -127.2  12.499   93.2  0.0607   58.9  0.2670  -80.4
 1.600  0.2895 -131.8  11.758   91.4  0.0635   59.0  0.2487  -82.8
 1.700  0.2813 -136.1  11.096   89.7  0.0664   58.8  0.2311  -85.1
 1.800  0.2763 -140.2  10.514   88.0  0.0696   58.5  0.2174  -87.7
 1.900  0.2714 -144.0   9.976   86.5  0.0723   58.4  0.2048  -90.1
 2.000  0.2675 -147.8   9.495   85.1  0.0753   58.1  0.1951  -92.8
 2.100  0.2657 -151.3   9.053   83.7  0.0782   57.6  0.1926  -96.1
 2.200  0.2631 -154.5   8.654   82.3  0.0812   57.5  0.1843  -98.3
 2.300  0.2612 -157.7   8.283   81.0  0.0840   57.2  0.1770 -100.5
 2.400  0.2596 -160.5   7.951   79.7  0.0869   56.9  0.1707 -102.7
 2.500  0.2581 -163.4   7.641   78.6  0.0901   56.6  0.1652 -104.7
 2.600  0.2565 -166.0   7.352   77.4  0.0929   56.2  0.1604 -106.8
 2.700  0.2559 -168.5   7.086   76.3  0.0957   55.9  0.1563 -108.5
 2.800  0.2544 -170.9   6.837   75.2  0.0986   55.6  0.1527 -110.3
 2.900  0.2542 -173.2   6.605   74.1  0.1015   55.2  0.1498 -112.3
 3.000  0.2532 -175.6   6.396   72.9  0.1046   54.7  0.1476 -114.0
 3.100  0.2530 -177.4   6.191   71.9  0.1073   54.4  0.1443 -115.3
 3.200  0.2518 -179.7   6.002   70.8  0.1104   54.0  0.1422 -116.9
 3.300  0.2519  178.4   5.825   69.8  0.1133   53.5  0.1401 -118.1
 3.400  0.2508  176.3   5.660   68.7  0.1162   53.0  0.1381 -119.6
 3.500  0.2509  174.5   5.503   67.8  0.1190   52.6  0.1355 -120.8
 3.600  0.2501  172.4   5.353   66.8  0.1222   52.2  0.1336 -122.1
 3.700  0.2504  170.7   5.216   65.8  0.1250   51.6  0.1315 -123.2
 3.800  0.2497  168.7   5.079   64.8  0.1280   51.1  0.1294 -124.2
 3.900  0.2504  167.0   4.957   63.8  0.1309   50.7  0.1267 -125.4
 4.000  0.2501  165.3   4.834   62.9  0.1338   50.1  0.1237 -126.7
 4.100  0.2511  163.7   4.723   61.9  0.1370   49.6  0.1211 -127.9
 4.200  0.2520  162.0   4.616   60.9  0.1396   49.0  0.1181 -129.4
 4.300  0.2527  160.6   4.516   60.0  0.1429   48.5  0.1156 -130.7
 4.400  0.2541  158.9   4.417   59.0  0.1457   48.0  0.1125 -132.2
 4.500  0.2551  157.6   4.323   58.1  0.1486   47.4  0.1094 -133.7
 4.600  0.2569  156.1   4.233   57.1  0.1516   46.8  0.1062 -135.6
 4.700  0.2581  154.8   4.151   56.1  0.1546   46.2  0.1036 -137.4
 4.800  0.2604  153.5   4.067   55.2  0.1575   45.6  0.1006 -139.5
 4.900  0.2623  152.3   3.988   54.3  0.1605   45.0  0.0972 -141.7
 5.000  0.2646  151.1   3.915   53.3  0.1632   44.4  0.0953 -143.9
 5.100  0.2664  149.9   3.843   52.4  0.1660   43.8  0.0922 -145.7
 5.200  0.2689  148.9   3.773   51.4  0.1691   43.1  0.0895 -148.2
 5.300  0.2710  147.8   3.704   50.5  0.1719   42.5  0.0874 -150.6
 5.400  0.2739  146.8   3.641   49.5  0.1747   41.9  0.0858 -153.3
 5.500  0.2763  145.8   3.576   48.6  0.1776   41.2  0.0835 -156.1
 5.600  0.2795  144.8   3.515   47.6  0.1803   40.5  0.0818 -158.9
 5.700  0.2817  143.8   3.456   46.7  0.1831   39.9  0.0803 -161.8
 5.800  0.2843  142.7   3.399   45.7  0.1858   39.2  0.0787 -164.5
 5.900  0.2871  141.7   3.343   44.7  0.1887   38.6  0.0773 -168.2
 6.000  0.2894  140.6   3.288   43.8  0.1910   37.9  0.0763 -171.2
 6.100  0.2921  139.4   3.234   42.8  0.1936   37.1  0.0747 -174.6
 6.200  0.2947  138.4   3.182   41.8  0.1962   36.5  0.0731 -178.5
 6.300  0.2976  137.1   3.131   40.9  0.1986   35.8  0.0726  177.4
 6.400  0.3005  135.9   3.082   39.9  0.2012   35.1  0.0721  173.6
 6.500  0.3029  134.6   3.033   38.9  0.2035   34.4  0.0706  168.8
 6.600  0.3056  133.3   2.982   38.0  0.2058   33.8  0.0706  164.2
 6.700  0.3080  131.9   2.936   37.1  0.2081   33.1  0.0701  159.3
 6.800  0.3105  130.5   2.890   36.1  0.2105   32.4  0.0700  154.4
 6.900  0.3138  129.1   2.845   35.2  0.2128   31.8  0.0701  148.8
 7.000  0.3172  127.7   2.800   34.3  0.2151   31.1  0.0708  143.2
 7.100  0.3205  126.4   2.758   33.5  0.2175   30.5  0.0723  137.4
 7.200  0.3240  125.1   2.717   32.6  0.2200   29.9  0.0745  131.8
 7.300  0.3284  123.9   2.678   31.7  0.2223   29.3  0.0781  126.5
 7.400  0.3329  122.7   2.639   30.9  0.2246   28.7  0.0822  121.7
 7.500  0.3382  121.7   2.602   30.0  0.2271   28.0  0.0874  117.1
 7.600  0.3436  120.7   2.566   29.2  0.2296   27.3  0.0932  113.0
 7.700  0.3498  119.8   2.531   28.4  0.2320   26.7  0.1006  109.5
 7.800  0.3561  118.9   2.496   27.5  0.2344   26.0  0.1084  106.5
 7.900  0.3638  118.1   2.463   26.6  0.2366   25.3  0.1174  103.5
 8.000  0.3715  117.4   2.430   25.7  0.2390   24.5  0.1266  101.0
!
!  f       NFmin   Gammaopt  rn/50
! GHz       dB    MAG  ANG    -
 0.450      0.81  0.06    3   0.21
 0.900      0.87  0.06   11   0.18
 1.500      0.92  0.06   12   0.14
 1.800      0.94  0.05   14   0.14
 1.900      0.95  0.03   31   0.16
 2.400      0.98  0.02   68   0.15
 3.500      1.06  0.03  160   0.14
 5.500      1.20  0.14  227   0.10
 6.000      1.23  0.14  248   0.14
!
! (c) 2014  Infineon Technologies AG, Munich
