! Infineon Technologies  Discrete & RF Semiconductors
! BFP650
! VCE =  2.5 V,  IC =  30 mA
! Common Emitter S-Parameters:                            Jan 2016
# GHz  S  MA  R  50
!  f         S11            S21            S12            S22
! GHz     MAG   ANG      MAG   ANG      MAG   ANG      MAG   ANG
 0.030  0.6151  -17.1  70.829  170.4  0.0038   89.4  0.9742  -10.8
 0.035  0.6131  -20.0  70.753  168.9  0.0044   83.0  0.9726  -12.9
 0.040  0.6127  -22.9  70.729  167.3  0.0051   78.3  0.9723  -15.0
 0.045  0.6098  -25.6  70.053  165.7  0.0061   83.9  0.9671  -16.7
 0.050  0.6082  -28.3  69.435  164.0  0.0071   88.0  0.9628  -18.5
 0.055  0.6117  -31.0  69.310  162.8  0.0077   86.6  0.9610  -20.4
 0.060  0.6166  -33.6  69.216  161.6  0.0084   85.4  0.9602  -22.3
 0.065  0.6129  -36.5  68.578  160.2  0.0092   81.0  0.9496  -24.1
 0.070  0.6109  -39.5  67.984  158.7  0.0101   77.4  0.9400  -26.0
 0.075  0.6133  -42.2  67.420  157.3  0.0109   75.1  0.9325  -27.8
 0.080  0.6170  -44.8  66.896  155.9  0.0118   73.2  0.9260  -29.6
 0.085  0.6165  -47.1  66.173  154.8  0.0123   73.4  0.9165  -31.4
 0.090  0.6170  -49.5  65.475  153.7  0.0129   73.6  0.9080  -33.2
 0.095  0.6128  -51.7  64.934  152.3  0.0124   69.4  0.9012  -34.5
 0.100  0.6095  -53.9  64.434  150.8  0.0120   64.8  0.8950  -35.9
 0.105  0.6115  -56.4  63.718  149.6  0.0125   66.3  0.8878  -37.7
 0.110  0.6146  -58.8  63.033  148.3  0.0130   67.7  0.8816  -39.6
 0.115  0.6132  -61.1  62.142  147.2  0.0134   69.0  0.8711  -41.2
 0.120  0.6127  -63.4  61.277  146.0  0.0138   70.2  0.8613  -42.9
 0.125  0.6101  -65.5  60.579  144.8  0.0148   66.7  0.8509  -44.3
 0.130  0.6084  -67.6  59.907  143.6  0.0159   63.7  0.8411  -45.8
 0.135  0.6079  -69.6  59.255  142.6  0.0163   63.4  0.8323  -47.0
 0.140  0.6081  -71.6  58.622  141.6  0.0167   63.2  0.8238  -48.3
 0.145  0.6084  -73.5  57.871  140.6  0.0170   62.8  0.8152  -49.7
 0.150  0.6094  -75.3  57.137  139.6  0.0173   62.5  0.8071  -51.1
 0.155  0.6066  -77.0  56.392  138.8  0.0175   61.8  0.7974  -52.3
 0.160  0.6043  -78.7  55.660  137.9  0.0178   61.1  0.7880  -53.5
 0.165  0.6025  -80.4  54.940  137.0  0.0180   60.4  0.7789  -54.7
 0.170  0.6013  -82.1  54.234  136.1  0.0183   59.8  0.7703  -56.0
 0.175  0.6006  -83.9  53.541  135.2  0.0185   59.1  0.7620  -57.3
 0.180  0.6005  -85.6  52.863  134.2  0.0188   58.5  0.7541  -58.6
 0.185  0.6009  -87.3  52.200  133.3  0.0190   57.9  0.7466  -59.9
 0.190  0.6019  -89.1  51.552  132.3  0.0193   57.3  0.7395  -61.3
 0.195  0.6034  -90.8  50.920  131.3  0.0195   56.8  0.7329  -62.7
 0.200  0.6055  -92.5  50.305  130.2  0.0198   56.2  0.7267  -64.1
 0.220  0.6009  -97.9  47.777  127.5  0.0208   55.2  0.6962  -68.2
 0.240  0.6017 -103.4  45.370  124.4  0.0219   54.2  0.6695  -72.6
 0.260  0.6022 -108.2  43.141  121.8  0.0228   52.9  0.6445  -76.6
 0.280  0.6007 -112.5  41.035  119.5  0.0236   51.3  0.6199  -80.3
 0.300  0.6025 -116.8  38.999  117.0  0.0244   49.8  0.5980  -84.2
 0.320  0.5998 -120.3  37.209  115.2  0.0254   49.5  0.5770  -87.3
 0.340  0.5992 -123.8  35.461  113.2  0.0265   49.1  0.5579  -90.6
 0.360  0.5992 -126.9  33.879  111.4  0.0272   48.7  0.5408  -93.7
 0.380  0.5990 -129.8  32.447  109.8  0.0275   48.0  0.5250  -96.5
 0.400  0.6004 -132.7  31.042  108.1  0.0278   47.3  0.5106  -99.5
 0.420  0.5996 -135.1  29.839  106.8  0.0283   46.7  0.4976 -102.0
 0.440  0.5999 -137.5  28.653  105.4  0.0288   46.2  0.4856 -104.6
 0.450  0.6004 -138.7  28.066  104.7  0.0290   45.9  0.4800 -106.0
 0.460  0.5999 -139.7  27.554  104.2  0.0293   45.8  0.4745 -107.1
 0.480  0.5993 -141.8  26.538  103.0  0.0300   45.7  0.4641 -109.5
 0.500  0.5996 -143.8  25.533  101.8  0.0306   45.5  0.4546 -112.0
 0.520  0.5990 -145.5  24.721  101.0  0.0311   45.4  0.4458 -113.9
 0.540  0.5989 -147.2  23.915  100.1  0.0315   45.3  0.4376 -115.9
 0.560  0.5993 -148.8  23.115   99.1  0.0320   45.3  0.4299 -118.0
 0.580  0.6002 -150.5  22.322   98.1  0.0324   45.2  0.4228 -120.2
 0.600  0.6017 -152.2  21.536   97.0  0.0329   45.1  0.4163 -122.4
 0.620  0.6010 -153.5  20.935   96.3  0.0333   45.2  0.4105 -124.1
 0.640  0.6005 -154.8  20.337   95.6  0.0337   45.2  0.4050 -125.7
 0.660  0.6004 -156.2  19.743   94.8  0.0341   45.3  0.3999 -127.5
 0.680  0.6007 -157.5  19.153   94.0  0.0345   45.3  0.3952 -129.3
 0.700  0.6012 -158.8  18.567   93.1  0.0349   45.4  0.3909 -131.1
 0.720  0.6011 -159.9  18.111   92.5  0.0353   45.5  0.3869 -132.6
 0.740  0.6012 -161.0  17.656   91.9  0.0357   45.6  0.3833 -134.1
 0.760  0.6015 -162.0  17.204   91.3  0.0361   45.8  0.3798 -135.6
 0.780  0.6021 -163.1  16.754   90.6  0.0365   45.9  0.3767 -137.1
 0.800  0.6028 -164.2  16.306   89.9  0.0369   46.0  0.3738 -138.7
 0.820  0.6028 -165.1  15.943   89.4  0.0375   45.8  0.3707 -140.0
 0.840  0.6029 -166.0  15.581   88.9  0.0382   45.6  0.3678 -141.4
 0.860  0.6032 -166.8  15.221   88.4  0.0388   45.4  0.3651 -142.7
 0.880  0.6036 -167.7  14.862   87.8  0.0395   45.2  0.3626 -144.1
 0.900  0.6041 -168.6  14.504   87.2  0.0401   45.0  0.3603 -145.5
 0.920  0.6045 -169.4  14.216   86.7  0.0406   45.2  0.3585 -146.6
 0.940  0.6050 -170.2  13.928   86.3  0.0411   45.4  0.3569 -147.8
 0.960  0.6056 -171.1  13.642   85.8  0.0416   45.6  0.3554 -148.9
 0.980  0.6064 -171.9  13.357   85.2  0.0421   45.7  0.3540 -150.0
 1.000  0.6073 -172.7  13.073   84.7  0.0426   45.9  0.3528 -151.2
 1.020  0.6074 -173.4  12.834   84.3  0.0431   46.0  0.3515 -152.3
 1.040  0.6076 -174.1  12.597   83.8  0.0436   46.1  0.3504 -153.3
 1.060  0.6079 -174.7  12.360   83.4  0.0440   46.2  0.3494 -154.4
 1.080  0.6083 -175.4  12.123   82.9  0.0445   46.3  0.3485 -155.5
 1.100  0.6088 -176.1  11.888   82.4  0.0450   46.4  0.3477 -156.6
 1.120  0.6094 -176.8  11.691   82.0  0.0455   46.3  0.3467 -157.6
 1.140  0.6100 -177.4  11.494   81.6  0.0460   46.2  0.3457 -158.5
 1.160  0.6107 -178.1  11.299   81.1  0.0466   46.0  0.3449 -159.5
 1.180  0.6115 -178.7  11.103   80.7  0.0471   45.9  0.3441 -160.5
 1.200  0.6124 -179.4  10.909   80.2  0.0476   45.8  0.3435 -161.5
 1.220  0.6126 -180.0  10.739   79.8  0.0481   45.9  0.3429 -162.3
 1.240  0.6129  179.4  10.569   79.4  0.0485   45.9  0.3423 -163.1
 1.260  0.6132  178.9  10.400   79.0  0.0490   46.0  0.3418 -164.0
 1.280  0.6136  178.3  10.231   78.5  0.0494   46.0  0.3414 -164.8
 1.300  0.6140  177.7  10.063   78.1  0.0499   46.1  0.3410 -165.6
 1.320  0.6144  177.1   9.921   77.7  0.0504   46.1  0.3406 -166.4
 1.340  0.6149  176.6   9.780   77.3  0.0510   46.1  0.3403 -167.3
 1.360  0.6154  176.0   9.639   76.9  0.0515   46.1  0.3401 -168.1
 1.380  0.6160  175.5   9.498   76.5  0.0521   46.1  0.3400 -169.0
 1.400  0.6166  174.9   9.358   76.1  0.0526   46.1  0.3399 -169.8
 1.420  0.6172  174.4   9.233   75.7  0.0531   46.0  0.3398 -170.5
 1.440  0.6178  173.9   9.108   75.4  0.0537   45.9  0.3397 -171.2
 1.460  0.6185  173.3   8.983   75.0  0.0542   45.7  0.3397 -172.0
 1.480  0.6192  172.8   8.859   74.6  0.0548   45.6  0.3398 -172.7
 1.500  0.6200  172.3   8.735   74.2  0.0553   45.5  0.3399 -173.4
 1.520  0.6205  171.8   8.624   73.8  0.0557   45.4  0.3396 -174.1
 1.540  0.6209  171.3   8.514   73.5  0.0562   45.3  0.3394 -174.7
 1.560  0.6215  170.9   8.404   73.1  0.0566   45.2  0.3393 -175.4
 1.580  0.6221  170.4   8.295   72.7  0.0571   45.1  0.3392 -176.0
 1.600  0.6227  169.9   8.186   72.3  0.0575   45.0  0.3391 -176.7
 1.620  0.6230  169.4   8.088   72.0  0.0580   45.0  0.3392 -177.4
 1.640  0.6233  168.9   7.990   71.6  0.0585   44.9  0.3393 -178.1
 1.660  0.6237  168.5   7.892   71.3  0.0590   44.9  0.3394 -178.8
 1.680  0.6241  168.0   7.794   71.0  0.0595   44.8  0.3396 -179.5
 1.700  0.6246  167.5   7.697   70.6  0.0600   44.8  0.3399  179.8
 1.720  0.6252  167.0   7.610   70.2  0.0605   44.7  0.3401  179.2
 1.740  0.6257  166.5   7.523   69.9  0.0610   44.6  0.3404  178.5
 1.760  0.6264  166.1   7.437   69.5  0.0615   44.6  0.3407  177.9
 1.780  0.6271  165.6   7.351   69.1  0.0620   44.5  0.3410  177.2
 1.800  0.6278  165.1   7.265   68.7  0.0625   44.4  0.3414  176.6
 1.820  0.6280  164.7   7.185   68.4  0.0630   44.3  0.3413  176.1
 1.840  0.6283  164.2   7.105   68.0  0.0634   44.2  0.3413  175.5
 1.860  0.6286  163.8   7.025   67.6  0.0639   44.0  0.3413  175.0
 1.880  0.6289  163.3   6.945   67.3  0.0643   43.9  0.3413  174.4
 1.900  0.6293  162.9   6.866   66.9  0.0648   43.8  0.3414  173.9
 1.920  0.6300  162.5   6.796   66.6  0.0654   43.7  0.3417  173.3
 1.940  0.6307  162.1   6.726   66.2  0.0660   43.6  0.3421  172.8
 1.960  0.6314  161.6   6.657   65.9  0.0667   43.4  0.3425  172.2
 1.980  0.6322  161.2   6.588   65.6  0.0673   43.3  0.3429  171.7
 2.000  0.6330  160.8   6.519   65.2  0.0679   43.2  0.3434  171.1
 2.020  0.6335  160.4   6.458   64.9  0.0683   43.2  0.3436  170.6
 2.040  0.6340  160.0   6.396   64.6  0.0688   43.1  0.3439  170.1
 2.060  0.6346  159.6   6.335   64.3  0.0692   43.1  0.3442  169.6
 2.080  0.6352  159.2   6.274   64.0  0.0697   43.0  0.3445  169.0
 2.100  0.6358  158.8   6.214   63.7  0.0701   43.0  0.3448  168.5
 2.120  0.6364  158.5   6.153   63.4  0.0705   43.0  0.3452  168.0
 2.140  0.6371  158.1   6.093   63.0  0.0710   42.9  0.3456  167.5
 2.160  0.6378  157.7   6.033   62.7  0.0714   42.9  0.3460  167.0
 2.180  0.6385  157.3   5.973   62.3  0.0719   42.8  0.3464  166.5
 2.200  0.6393  156.9   5.913   62.0  0.0723   42.8  0.3469  166.0
 2.220  0.6396  156.5   5.861   61.7  0.0728   42.6  0.3473  165.5
 2.240  0.6399  156.1   5.809   61.4  0.0733   42.4  0.3477  164.9
 2.260  0.6403  155.8   5.758   61.0  0.0738   42.2  0.3482  164.4
 2.280  0.6406  155.4   5.706   60.7  0.0743   42.0  0.3487  163.9
 2.300  0.6410  155.0   5.655   60.4  0.0748   41.8  0.3492  163.4
 2.320  0.6415  154.6   5.604   60.0  0.0753   41.6  0.3497  162.9
 2.340  0.6419  154.2   5.553   59.7  0.0758   41.4  0.3503  162.3
 2.360  0.6424  153.9   5.503   59.3  0.0763   41.2  0.3509  161.8
 2.380  0.6430  153.5   5.452   59.0  0.0768   41.0  0.3515  161.3
 2.400  0.6435  153.1   5.402   58.6  0.0773   40.8  0.3522  160.8
 2.420  0.6441  152.7   5.358   58.3  0.0778   40.6  0.3527  160.4
 2.440  0.6447  152.4   5.315   58.0  0.0782   40.5  0.3533  159.9
 2.460  0.6453  152.0   5.271   57.7  0.0787   40.3  0.3538  159.5
 2.480  0.6460  151.7   5.228   57.4  0.0791   40.2  0.3544  159.0
 2.500  0.6466  151.3   5.184   57.1  0.0796   40.0  0.3550  158.6
 2.520  0.6473  150.9   5.141   56.7  0.0801   39.9  0.3557  158.1
 2.540  0.6481  150.6   5.099   56.4  0.0805   39.7  0.3563  157.7
 2.560  0.6488  150.2   5.056   56.1  0.0810   39.6  0.3570  157.3
 2.580  0.6496  149.9   5.013   55.7  0.0814   39.4  0.3577  156.8
 2.600  0.6504  149.5   4.971   55.4  0.0819   39.3  0.3584  156.4
 2.620  0.6507  149.1   4.933   55.1  0.0824   39.1  0.3589  156.0
 2.640  0.6509  148.8   4.895   54.8  0.0829   39.0  0.3594  155.5
 2.660  0.6513  148.4   4.857   54.5  0.0834   38.8  0.3600  155.1
 2.680  0.6516  148.1   4.820   54.2  0.0839   38.6  0.3606  154.7
 2.700  0.6519  147.7   4.782   53.9  0.0843   38.5  0.3612  154.3
 2.720  0.6523  147.4   4.745   53.6  0.0848   38.3  0.3618  153.9
 2.740  0.6527  147.0   4.708   53.3  0.0853   38.2  0.3624  153.4
 2.760  0.6532  146.7   4.671   53.0  0.0858   38.0  0.3630  153.0
 2.780  0.6536  146.3   4.634   52.6  0.0863   37.9  0.3637  152.6
 2.800  0.6541  146.0   4.597   52.3  0.0868   37.7  0.3644  152.2
 2.820  0.6547  145.7   4.565   52.0  0.0873   37.5  0.3651  151.8
 2.840  0.6554  145.3   4.532   51.7  0.0877   37.3  0.3658  151.4
 2.860  0.6561  145.0   4.500   51.4  0.0882   37.2  0.3666  151.0
 2.880  0.6568  144.7   4.468   51.1  0.0887   37.0  0.3674  150.7
 2.900  0.6575  144.3   4.436   50.8  0.0891   36.8  0.3681  150.3
 2.920  0.6582  144.0   4.405   50.4  0.0896   36.7  0.3689  149.9
 2.940  0.6590  143.7   4.373   50.1  0.0901   36.5  0.3698  149.5
 2.960  0.6598  143.4   4.341   49.8  0.0906   36.3  0.3706  149.1
 2.980  0.6606  143.0   4.310   49.4  0.0910   36.2  0.3714  148.8
 3.000  0.6614  142.7   4.279   49.1  0.0915   36.0  0.3723  148.4
 3.100  0.6639  141.0   4.142   47.8  0.0936   35.0  0.3765  146.6
 3.200  0.6670  139.4   4.008   46.3  0.0957   34.0  0.3810  144.8
 3.300  0.6706  137.7   3.877   44.8  0.0979   33.1  0.3859  143.0
 3.400  0.6748  136.1   3.748   43.2  0.1001   32.2  0.3912  141.3
 3.500  0.6795  134.5   3.623   41.4  0.1023   31.4  0.3968  139.7
 3.600  0.6832  132.9   3.517   40.1  0.1042   30.3  0.4020  138.1
 3.700  0.6874  131.4   3.412   38.7  0.1061   29.3  0.4075  136.6
 3.800  0.6920  129.9   3.310   37.2  0.1081   28.4  0.4133  135.1
 3.900  0.6972  128.4   3.210   35.6  0.1101   27.4  0.4194  133.7
 4.000  0.7028  126.9   3.113   33.9  0.1121   26.5  0.4257  132.3
 4.100  0.7063  125.6   3.029   32.7  0.1137   25.6  0.4306  131.0
 4.200  0.7102  124.3   2.946   31.4  0.1154   24.7  0.4356  129.8
 4.300  0.7144  123.1   2.865   30.0  0.1171   23.8  0.4409  128.6
 4.400  0.7190  121.8   2.785   28.5  0.1188   22.9  0.4463  127.4
 4.500  0.7239  120.6   2.708   27.0  0.1206   22.1  0.4520  126.2
 4.600  0.7262  119.4   2.643   25.9  0.1221   21.2  0.4553  125.0
 4.700  0.7288  118.3   2.579   24.7  0.1237   20.4  0.4589  123.8
 4.800  0.7317  117.2   2.516   23.4  0.1253   19.5  0.4626  122.6
 4.900  0.7348  116.0   2.454   22.1  0.1269   18.7  0.4666  121.4
 5.000  0.7383  114.9   2.394   20.7  0.1285   17.9  0.4707  120.3
 5.100  0.7391  113.8   2.342   19.6  0.1302   17.0  0.4728  119.1
 5.200  0.7401  112.8   2.292   18.4  0.1319   16.2  0.4752  117.8
 5.300  0.7414  111.7   2.242   17.1  0.1336   15.3  0.4777  116.6
 5.400  0.7430  110.7   2.193   15.9  0.1353   14.5  0.4805  115.4
 5.500  0.7448  109.6   2.146   14.5  0.1371   13.7  0.4835  114.2
 5.600  0.7456  108.7   2.104   13.4  0.1388   12.8  0.4862  112.9
 5.700  0.7465  107.8   2.063   12.2  0.1406   11.9  0.4892  111.6
 5.800  0.7476  106.9   2.023   11.0  0.1423   11.0  0.4924  110.4
 5.900  0.7489  106.0   1.984    9.8  0.1442   10.1  0.4958  109.1
 6.000  0.7504  105.1   1.946    8.5  0.1460    9.3  0.4995  107.9
 6.100  0.7527  104.2   1.914    7.3  0.1476    8.3  0.5026  106.9
 6.200  0.7551  103.3   1.883    6.1  0.1493    7.3  0.5059  105.9
 6.300  0.7578  102.4   1.853    4.8  0.1510    6.4  0.5094  104.9
 6.400  0.7606  101.5   1.824    3.5  0.1528    5.4  0.5130  103.9
 6.500  0.7636  100.6   1.796    2.2  0.1546    4.5  0.5167  102.9
 6.600  0.7660   99.5   1.767    0.9  0.1560    3.4  0.5198  102.0
 6.800  0.7715   97.5   1.711   -1.7  0.1590    1.1  0.5264  100.2
 7.000  0.7781   95.4   1.659   -4.5  0.1623   -1.0  0.5335   98.5
 7.200  0.7826   92.9   1.602   -7.2  0.1641   -3.2  0.5404   96.3
 7.400  0.7884   90.5   1.548  -10.0  0.1661   -5.4  0.5481   94.2
 7.600  0.7939   88.0   1.495  -12.8  0.1677   -7.6  0.5562   91.9
 7.800  0.7992   85.4   1.440  -15.4  0.1688   -9.7  0.5652   89.3
 8.000  0.8060   82.9   1.389  -18.3  0.1702  -11.8  0.5752   86.8
 8.200  0.8111   80.3   1.336  -20.6  0.1704  -13.9  0.5854   84.2
 8.400  0.8179   77.8   1.285  -23.2  0.1707  -16.0  0.5967   81.7
 8.600  0.8245   75.3   1.237  -25.5  0.1709  -17.9  0.6086   79.3
 8.800  0.8306   73.0   1.189  -27.7  0.1710  -19.8  0.6211   76.9
 9.000  0.8381   70.7   1.143  -30.1  0.1712  -21.7  0.6345   74.7
 9.200  0.8451   68.9   1.098  -31.9  0.1703  -23.2  0.6471   72.6
 9.400  0.8529   67.2   1.054  -33.9  0.1695  -24.8  0.6606   70.6
 9.600  0.8609   65.7   1.015  -35.7  0.1688  -26.1  0.6728   69.1
 9.800  0.8689   64.5   0.980  -37.0  0.1681  -27.2  0.6835   68.1
10.000  0.8772   63.3   0.945  -38.5  0.1675  -28.3  0.6943   67.1
!
!  f       NFmin   Gammaopt  rn/50
! GHz       dB    MAG  ANG    -
 0.450      0.77  0.08  132   2.09
 0.900      0.79  0.30 -172   0.08
 1.900      0.94  0.34 -160   0.06
 2.400      1.01  0.35 -148   0.07
 3.500      1.23  0.38 -125   0.12
!
! (c) 2016  Infineon Technologies AG, Munich
