! Infineon Technologies  Discrete & RF Semiconductors
! BFP650
! VCE =  4.0 V,  IC =  30 mA
! Common Emitter S-Parameters:                            Jan 2016
# GHz  S  MA  R  50
!  f         S11            S21            S12            S22
! GHz     MAG   ANG      MAG   ANG      MAG   ANG      MAG   ANG
 0.030  0.5527  -16.1  67.346  170.6  0.0039   64.8  0.8950   -9.9
 0.035  0.5507  -19.0  67.265  169.2  0.0044   62.1  0.8936  -11.8
 0.040  0.5502  -21.9  67.224  167.8  0.0049   59.9  0.8932  -13.7
 0.045  0.5523  -24.9  66.609  166.4  0.0071   61.8  0.8928  -15.4
 0.050  0.5559  -27.8  66.036  164.9  0.0094   62.8  0.8932  -17.2
 0.055  0.5556  -30.1  65.949  163.8  0.0083   66.6  0.8873  -18.7
 0.060  0.5562  -32.3  65.886  162.7  0.0072   71.5  0.8820  -20.2
 0.065  0.5517  -35.2  65.347  161.4  0.0083   62.9  0.8706  -22.1
 0.070  0.5487  -38.2  64.845  160.0  0.0095   56.4  0.8601  -24.0
 0.075  0.5531  -40.6  64.384  158.7  0.0102   62.2  0.8587  -25.5
 0.080  0.5584  -42.9  63.957  157.4  0.0110   67.3  0.8578  -27.0
 0.085  0.5600  -45.0  63.345  156.4  0.0102   67.9  0.8512  -28.4
 0.090  0.5623  -47.0  62.754  155.3  0.0094   68.6  0.8451  -29.9
 0.095  0.5592  -49.8  62.306  154.0  0.0109   65.3  0.8379  -31.6
 0.100  0.5575  -52.6  61.893  152.6  0.0125   62.9  0.8315  -33.4
 0.105  0.5568  -54.7  61.289  151.4  0.0130   61.5  0.8233  -34.9
 0.110  0.5568  -56.9  60.711  150.2  0.0135   60.3  0.8157  -36.5
 0.115  0.5560  -59.0  59.939  149.1  0.0139   60.0  0.8073  -37.9
 0.120  0.5559  -61.1  59.190  148.0  0.0144   59.8  0.7995  -39.4
 0.125  0.5573  -63.3  58.595  146.9  0.0145   60.4  0.7932  -40.9
 0.130  0.5595  -65.4  58.024  145.7  0.0146   60.9  0.7875  -42.4
 0.135  0.5618  -67.4  57.453  144.8  0.0147   58.5  0.7823  -43.6
 0.140  0.5647  -69.3  56.897  143.8  0.0148   56.1  0.7775  -44.8
 0.145  0.5637  -71.2  56.244  142.8  0.0155   57.0  0.7687  -46.2
 0.150  0.5634  -73.2  55.608  141.8  0.0162   57.9  0.7603  -47.6
 0.155  0.5617  -74.9  54.944  141.0  0.0165   57.5  0.7519  -48.7
 0.160  0.5605  -76.6  54.292  140.1  0.0168   57.0  0.7437  -49.9
 0.165  0.5598  -78.3  53.652  139.2  0.0171   56.6  0.7359  -51.1
 0.170  0.5596  -80.0  53.025  138.3  0.0174   56.2  0.7284  -52.3
 0.175  0.5599  -81.7  52.412  137.4  0.0177   55.8  0.7212  -53.5
 0.180  0.5607  -83.5  51.812  136.5  0.0180   55.5  0.7144  -54.8
 0.185  0.5620  -85.2  51.227  135.5  0.0183   55.1  0.7080  -56.1
 0.190  0.5638  -86.9  50.656  134.5  0.0186   54.8  0.7019  -57.4
 0.195  0.5661  -88.5  50.101  133.5  0.0189   54.4  0.6961  -58.7
 0.200  0.5689  -90.2  49.561  132.5  0.0192   54.1  0.6908  -60.1
 0.220  0.5666  -95.7  47.234  129.8  0.0202   52.6  0.6625  -64.0
 0.240  0.5695 -101.1  45.028  126.7  0.0213   51.2  0.6375  -68.3
 0.260  0.5717 -106.0  42.958  124.0  0.0222   50.5  0.6141  -72.2
 0.280  0.5720 -110.3  40.973  121.7  0.0229   50.2  0.5913  -75.9
 0.300  0.5756 -114.6  39.061  119.2  0.0236   50.0  0.5712  -79.9
 0.320  0.5743 -118.2  37.345  117.3  0.0244   49.3  0.5519  -82.9
 0.340  0.5753 -121.8  35.672  115.3  0.0252   48.7  0.5342  -86.2
 0.360  0.5765 -125.0  34.146  113.4  0.0259   47.9  0.5179  -89.3
 0.380  0.5773 -127.9  32.751  111.8  0.0264   46.9  0.5024  -92.1
 0.400  0.5796 -130.8  31.385  110.0  0.0269   46.0  0.4882  -95.1
 0.420  0.5795 -133.4  30.199  108.6  0.0275   46.0  0.4752  -97.5
 0.440  0.5805 -135.9  29.030  107.2  0.0282   46.1  0.4632 -100.1
 0.450  0.5815 -137.2  28.454  106.4  0.0285   46.1  0.4575 -101.4
 0.460  0.5811 -138.2  27.946  105.8  0.0287   46.1  0.4522 -102.5
 0.480  0.5809 -140.3  26.940  104.6  0.0292   46.1  0.4422 -104.9
 0.500  0.5815 -142.4  25.947  103.3  0.0297   46.1  0.4329 -107.4
 0.520  0.5813 -144.1  25.132  102.4  0.0302   45.9  0.4241 -109.3
 0.540  0.5815 -145.8  24.324  101.5  0.0307   45.7  0.4159 -111.4
 0.560  0.5823 -147.5  23.522  100.5  0.0311   45.5  0.4082 -113.5
 0.580  0.5836 -149.2  22.728   99.4  0.0316   45.3  0.4010 -115.6
 0.600  0.5854 -150.9  21.942   98.3  0.0321   45.1  0.3945 -117.9
 0.620  0.5850 -152.2  21.337   97.6  0.0326   45.2  0.3885 -119.6
 0.640  0.5849 -153.6  20.735   96.8  0.0330   45.3  0.3828 -121.4
 0.660  0.5852 -154.9  20.137   96.0  0.0335   45.3  0.3776 -123.2
 0.680  0.5857 -156.3  19.543   95.2  0.0339   45.4  0.3727 -125.1
 0.700  0.5866 -157.6  18.954   94.3  0.0344   45.5  0.3682 -127.0
 0.720  0.5867 -158.7  18.491   93.7  0.0349   45.5  0.3640 -128.5
 0.740  0.5870 -159.8  18.030   93.1  0.0353   45.6  0.3600 -130.0
 0.760  0.5875 -160.9  17.572   92.4  0.0358   45.6  0.3563 -131.6
 0.780  0.5882 -162.0  17.116   91.7  0.0362   45.7  0.3529 -133.2
 0.800  0.5892 -163.1  16.662   91.0  0.0367   45.7  0.3497 -134.8
 0.820  0.5893 -164.0  16.292   90.5  0.0371   45.7  0.3464 -136.2
 0.840  0.5895 -164.9  15.922   90.0  0.0375   45.6  0.3433 -137.5
 0.860  0.5899 -165.9  15.555   89.4  0.0380   45.6  0.3404 -138.9
 0.880  0.5904 -166.8  15.188   88.8  0.0384   45.5  0.3377 -140.4
 0.900  0.5911 -167.7  14.824   88.2  0.0388   45.5  0.3352 -141.8
 0.920  0.5915 -168.5  14.531   87.7  0.0395   45.8  0.3332 -143.0
 0.940  0.5920 -169.3  14.239   87.2  0.0402   46.0  0.3312 -144.2
 0.960  0.5926 -170.2  13.948   86.6  0.0408   46.3  0.3295 -145.4
 0.980  0.5933 -171.0  13.658   86.1  0.0415   46.6  0.3279 -146.6
 1.000  0.5942 -171.8  13.370   85.5  0.0422   46.8  0.3264 -147.8
 1.020  0.5944 -172.5  13.126   85.1  0.0426   46.7  0.3252 -148.9
 1.040  0.5947 -173.2  12.884   84.6  0.0430   46.6  0.3241 -150.1
 1.060  0.5951 -174.0  12.642   84.2  0.0435   46.4  0.3231 -151.2
 1.080  0.5956 -174.7  12.400   83.7  0.0439   46.3  0.3223 -152.3
 1.100  0.5962 -175.4  12.160   83.2  0.0443   46.2  0.3216 -153.5
 1.120  0.5966 -176.1  11.958   82.8  0.0447   46.2  0.3204 -154.5
 1.140  0.5970 -176.8  11.757   82.3  0.0451   46.3  0.3193 -155.5
 1.160  0.5975 -177.4  11.557   81.9  0.0456   46.3  0.3182 -156.5
 1.180  0.5981 -178.1  11.358   81.4  0.0460   46.4  0.3173 -157.6
 1.200  0.5988 -178.8  11.159   80.9  0.0464   46.4  0.3165 -158.6
 1.220  0.5991 -179.4  10.985   80.5  0.0469   46.5  0.3157 -159.5
 1.240  0.5994 -180.0  10.812   80.1  0.0474   46.6  0.3149 -160.4
 1.260  0.5998  179.5  10.639   79.7  0.0480   46.6  0.3143 -161.3
 1.280  0.6003  178.9  10.467   79.2  0.0485   46.7  0.3137 -162.2
 1.300  0.6008  178.3  10.296   78.8  0.0490   46.8  0.3132 -163.1
 1.320  0.6012  177.7  10.151   78.4  0.0494   46.7  0.3128 -164.0
 1.340  0.6016  177.1  10.006   78.0  0.0498   46.6  0.3124 -164.8
 1.360  0.6021  176.6   9.861   77.6  0.0503   46.5  0.3121 -165.7
 1.380  0.6027  176.0   9.717   77.2  0.0507   46.4  0.3119 -166.5
 1.400  0.6033  175.4   9.574   76.8  0.0511   46.3  0.3117 -167.4
 1.420  0.6040  174.9   9.446   76.4  0.0518   46.2  0.3115 -168.1
 1.440  0.6048  174.4   9.318   76.0  0.0524   46.2  0.3114 -168.8
 1.460  0.6057  173.8   9.191   75.6  0.0531   46.1  0.3113 -169.6
 1.480  0.6066  173.3   9.064   75.2  0.0537   46.1  0.3112 -170.3
 1.500  0.6075  172.8   8.938   74.8  0.0544   46.0  0.3112 -171.0
 1.520  0.6078  172.3   8.825   74.4  0.0548   46.0  0.3109 -171.7
 1.540  0.6081  171.8   8.712   74.1  0.0553   46.0  0.3106 -172.5
 1.560  0.6085  171.4   8.600   73.7  0.0557   46.1  0.3103 -173.2
 1.580  0.6089  170.9   8.488   73.3  0.0562   46.1  0.3101 -174.0
 1.600  0.6093  170.4   8.376   72.9  0.0566   46.1  0.3100 -174.7
 1.620  0.6097  169.9   8.276   72.6  0.0572   45.9  0.3100 -175.4
 1.640  0.6102  169.4   8.177   72.2  0.0578   45.8  0.3101 -176.2
 1.660  0.6107  168.8   8.077   71.8  0.0584   45.6  0.3102 -176.9
 1.680  0.6113  168.3   7.979   71.5  0.0590   45.5  0.3104 -177.7
 1.700  0.6119  167.8   7.880   71.1  0.0596   45.3  0.3106 -178.4
 1.720  0.6125  167.3   7.791   70.7  0.0601   45.3  0.3108 -179.1
 1.740  0.6131  166.9   7.702   70.4  0.0606   45.3  0.3110 -179.7
 1.760  0.6138  166.4   7.614   70.0  0.0610   45.2  0.3113  179.6
 1.780  0.6145  166.0   7.526   69.6  0.0615   45.2  0.3116  179.0
 1.800  0.6153  165.5   7.438   69.2  0.0620   45.2  0.3120  178.3
 1.820  0.6155  165.1   7.356   68.9  0.0625   45.2  0.3120  177.7
 1.840  0.6158  164.7   7.274   68.5  0.0629   45.3  0.3120  177.2
 1.860  0.6160  164.2   7.192   68.2  0.0634   45.3  0.3121  176.6
 1.880  0.6164  163.8   7.111   67.9  0.0638   45.4  0.3122  176.1
 1.900  0.6167  163.4   7.030   67.5  0.0643   45.4  0.3123  175.5
 1.920  0.6171  163.0   6.959   67.2  0.0647   45.1  0.3125  174.9
 1.940  0.6176  162.5   6.888   66.8  0.0650   44.7  0.3128  174.4
 1.960  0.6181  162.1   6.817   66.4  0.0654   44.4  0.3131  173.8
 1.980  0.6186  161.6   6.746   66.1  0.0657   44.0  0.3134  173.3
 2.000  0.6192  161.2   6.676   65.7  0.0661   43.7  0.3137  172.7
 2.020  0.6198  160.8   6.613   65.4  0.0666   43.6  0.3139  172.1
 2.040  0.6204  160.4   6.550   65.1  0.0672   43.5  0.3142  171.6
 2.060  0.6211  160.0   6.487   64.8  0.0677   43.4  0.3144  171.0
 2.080  0.6218  159.6   6.425   64.5  0.0683   43.4  0.3148  170.5
 2.100  0.6225  159.2   6.363   64.2  0.0688   43.3  0.3151  169.9
 2.120  0.6232  158.8   6.301   63.9  0.0694   43.2  0.3155  169.4
 2.140  0.6240  158.5   6.239   63.6  0.0699   43.1  0.3158  168.8
 2.160  0.6248  158.1   6.177   63.3  0.0705   43.1  0.3163  168.3
 2.180  0.6256  157.7   6.115   62.9  0.0710   43.0  0.3167  167.7
 2.200  0.6265  157.3   6.054   62.6  0.0716   42.9  0.3172  167.2
 2.220  0.6269  156.9   6.001   62.3  0.0721   42.8  0.3175  166.7
 2.240  0.6273  156.5   5.948   61.9  0.0726   42.6  0.3179  166.2
 2.260  0.6277  156.2   5.896   61.6  0.0730   42.5  0.3183  165.7
 2.280  0.6282  155.8   5.843   61.3  0.0735   42.3  0.3187  165.2
 2.300  0.6287  155.4   5.791   60.9  0.0740   42.2  0.3191  164.7
 2.320  0.6292  155.0   5.739   60.6  0.0745   42.0  0.3195  164.2
 2.340  0.6297  154.6   5.688   60.2  0.0750   41.9  0.3200  163.7
 2.360  0.6303  154.3   5.636   59.9  0.0754   41.8  0.3205  163.2
 2.380  0.6309  153.9   5.585   59.5  0.0759   41.6  0.3211  162.7
 2.400  0.6315  153.5   5.534   59.1  0.0764   41.5  0.3216  162.2
 2.420  0.6320  153.1   5.489   58.8  0.0770   41.3  0.3222  161.7
 2.440  0.6325  152.8   5.445   58.5  0.0775   41.1  0.3228  161.2
 2.460  0.6331  152.4   5.400   58.2  0.0781   40.9  0.3235  160.7
 2.480  0.6337  152.0   5.356   57.9  0.0786   40.7  0.3242  160.2
 2.500  0.6343  151.6   5.311   57.6  0.0792   40.6  0.3249  159.7
 2.520  0.6349  151.3   5.267   57.2  0.0798   40.4  0.3256  159.2
 2.540  0.6356  150.9   5.224   56.9  0.0803   40.2  0.3263  158.7
 2.560  0.6362  150.5   5.180   56.6  0.0809   40.0  0.3271  158.3
 2.580  0.6370  150.2   5.136   56.2  0.0814   39.9  0.3279  157.8
 2.600  0.6377  149.8   5.093   55.9  0.0820   39.7  0.3287  157.3
 2.620  0.6381  149.5   5.054   55.6  0.0824   39.5  0.3292  156.9
 2.640  0.6385  149.1   5.016   55.3  0.0828   39.4  0.3297  156.4
 2.660  0.6390  148.8   4.978   55.0  0.0831   39.2  0.3303  156.0
 2.680  0.6395  148.4   4.939   54.7  0.0835   39.0  0.3308  155.6
 2.700  0.6400  148.1   4.901   54.4  0.0839   38.9  0.3314  155.1
 2.720  0.6405  147.8   4.863   54.1  0.0843   38.7  0.3320  154.7
 2.740  0.6410  147.4   4.825   53.8  0.0847   38.6  0.3326  154.3
 2.760  0.6416  147.1   4.788   53.5  0.0850   38.4  0.3333  153.8
 2.780  0.6422  146.7   4.750   53.1  0.0854   38.3  0.3339  153.4
 2.800  0.6428  146.4   4.713   52.8  0.0858   38.1  0.3346  153.0
 2.820  0.6434  146.1   4.680   52.5  0.0863   37.9  0.3353  152.6
 2.840  0.6439  145.7   4.647   52.2  0.0868   37.7  0.3361  152.2
 2.860  0.6446  145.4   4.614   51.9  0.0873   37.6  0.3369  151.8
 2.880  0.6452  145.1   4.581   51.6  0.0878   37.4  0.3377  151.4
 2.900  0.6458  144.7   4.548   51.3  0.0882   37.2  0.3385  151.0
 2.920  0.6465  144.4   4.516   50.9  0.0887   37.1  0.3393  150.6
 2.940  0.6472  144.1   4.483   50.6  0.0892   36.9  0.3401  150.3
 2.960  0.6479  143.8   4.451   50.3  0.0897   36.7  0.3410  149.9
 2.980  0.6486  143.4   4.419   49.9  0.0902   36.6  0.3418  149.5
 3.000  0.6494  143.1   4.387   49.6  0.0907   36.4  0.3427  149.1
 3.100  0.6522  141.4   4.248   48.3  0.0929   35.4  0.3470  147.2
 3.200  0.6555  139.8   4.111   46.8  0.0951   34.5  0.3516  145.4
 3.300  0.6593  138.1   3.977   45.3  0.0973   33.6  0.3565  143.7
 3.400  0.6637  136.5   3.846   43.7  0.0996   32.7  0.3618  142.0
 3.500  0.6686  134.9   3.718   41.9  0.1019   31.9  0.3674  140.3
 3.600  0.6725  133.4   3.610   40.6  0.1036   30.9  0.3729  138.7
 3.700  0.6769  131.8   3.503   39.2  0.1054   29.9  0.3787  137.2
 3.800  0.6817  130.3   3.399   37.7  0.1072   28.9  0.3847  135.7
 3.900  0.6870  128.9   3.298   36.1  0.1090   28.0  0.3910  134.3
 4.000  0.6928  127.4   3.199   34.4  0.1109   27.1  0.3975  132.9
 4.100  0.6964  126.1   3.113   33.2  0.1126   26.1  0.4025  131.6
 4.200  0.7004  124.8   3.028   31.9  0.1144   25.1  0.4077  130.3
 4.300  0.7047  123.5   2.945   30.5  0.1161   24.2  0.4130  129.0
 4.400  0.7094  122.2   2.864   29.0  0.1180   23.3  0.4186  127.8
 4.500  0.7145  120.9   2.785   27.5  0.1198   22.4  0.4244  126.6
 4.600  0.7169  119.8   2.718   26.3  0.1214   21.5  0.4279  125.4
 4.700  0.7196  118.6   2.653   25.1  0.1230   20.7  0.4315  124.2
 4.800  0.7226  117.5   2.588   23.8  0.1246   19.9  0.4354  123.1
 4.900  0.7259  116.4   2.525   22.5  0.1262   19.1  0.4394  121.9
 5.000  0.7294  115.3   2.464   21.1  0.1279   18.3  0.4436  120.8
 5.100  0.7304  114.2   2.411   19.9  0.1296   17.4  0.4460  119.5
 5.200  0.7317  113.1   2.359   18.7  0.1313   16.6  0.4486  118.3
 5.300  0.7332  112.0   2.308   17.5  0.1331   15.7  0.4515  117.0
 5.400  0.7350  111.0   2.258   16.2  0.1349   14.9  0.4545  115.8
 5.500  0.7371  109.9   2.209   14.8  0.1367   14.1  0.4578  114.6
 5.600  0.7378  109.0   2.166   13.7  0.1383   13.2  0.4605  113.3
 5.700  0.7387  108.1   2.125   12.5  0.1399   12.2  0.4634  112.0
 5.800  0.7398  107.1   2.084   11.3  0.1415   11.3  0.4665  110.8
 5.900  0.7411  106.2   2.044   10.0  0.1432   10.5  0.4699  109.5
 6.000  0.7426  105.3   2.005    8.7  0.1449    9.6  0.4735  108.3
 6.100  0.7451  104.4   1.972    7.5  0.1466    8.6  0.4769  107.3
 6.200  0.7478  103.5   1.941    6.3  0.1484    7.6  0.4805  106.3
 6.300  0.7507  102.6   1.910    5.1  0.1502    6.6  0.4843  105.3
 6.400  0.7537  101.8   1.880    3.8  0.1521    5.6  0.4882  104.3
 6.500  0.7569  100.9   1.851    2.5  0.1540    4.7  0.4922  103.3
 6.600  0.7594   99.8   1.821    1.2  0.1553    3.6  0.4955  102.4
 6.800  0.7651   97.8   1.763   -1.4  0.1582    1.4  0.5023  100.6
 7.000  0.7719   95.7   1.710   -4.2  0.1612   -0.7  0.5097   98.9
 7.200  0.7766   93.3   1.651   -6.9  0.1631   -2.9  0.5170   96.7
 7.400  0.7826   90.9   1.596   -9.8  0.1652   -5.1  0.5251   94.6
 7.600  0.7883   88.4   1.541  -12.6  0.1669   -7.3  0.5336   92.3
 7.800  0.7939   85.8   1.485  -15.2  0.1682   -9.5  0.5428   89.7
 8.000  0.8011   83.2   1.433  -18.1  0.1697  -11.6  0.5531   87.2
 8.200  0.8065   80.6   1.378  -20.5  0.1699  -13.6  0.5639   84.6
 8.400  0.8135   78.1   1.326  -23.0  0.1703  -15.6  0.5758   82.2
 8.600  0.8203   75.6   1.276  -25.4  0.1706  -17.5  0.5881   79.8
 8.800  0.8267   73.2   1.227  -27.6  0.1708  -19.4  0.6010   77.4
 9.000  0.8345   70.9   1.180  -30.0  0.1712  -21.3  0.6149   75.1
 9.200  0.8418   69.1   1.134  -31.9  0.1703  -22.9  0.6282   73.0
 9.400  0.8500   67.3   1.089  -33.9  0.1696  -24.6  0.6423   71.0
 9.600  0.8583   65.8   1.048  -35.7  0.1689  -25.9  0.6553   69.5
 9.800  0.8664   64.6   1.012  -37.1  0.1680  -27.0  0.6667   68.5
10.000  0.8749   63.5   0.976  -38.6  0.1672  -28.0  0.6783   67.5
!
!  f       NFmin   Gammaopt  rn/50
! GHz       dB    MAG  ANG    -
 0.450      0.77  0.08  132   2.09
 0.900      0.79  0.30 -172   0.08
 1.900      0.94  0.34 -160   0.06
 2.400      1.01  0.35 -148   0.07
 3.500      1.23  0.38 -125   0.12
!
! (c) 2016  Infineon Technologies AG, Munich
