! Infineon Technologies  Discrete & RF Semiconductors
! BFP640F
! VCE =  2.5 V,  IC =  45 mA
! Common Emitter S-Parameters:                            Apr 2013
# GHz  S  MA  R  50
!  f         S11            S21            S12            S22
! GHz     MAG   ANG      MAG   ANG      MAG   ANG      MAG   ANG
 0.030  0.3601   -9.4  57.937  175.2  0.0019   78.1  0.9574   -1.8
 0.040  0.3592  -12.1  58.188  173.4  0.0025   83.9  0.9599   -3.3
 0.050  0.3627  -15.3  59.258  171.4  0.0023   86.8  0.9615   -5.0
 0.060  0.3589  -18.0  59.182  169.0  0.0024   82.5  0.9568   -6.6
 0.070  0.3574  -20.7  59.092  167.0  0.0026   71.4  0.9539   -7.9
 0.080  0.3574  -23.9  58.774  165.0  0.0042   88.5  0.9521   -9.4
 0.090  0.3521  -26.8  58.136  163.0  0.0048   77.1  0.9462  -10.9
 0.100  0.3523  -29.3  57.569  161.1  0.0040   83.3  0.9396  -12.1
 0.110  0.3471  -32.4  56.945  159.2  0.0053   80.8  0.9318  -13.5
 0.120  0.3459  -35.2  56.396  157.4  0.0051   84.6  0.9229  -14.8
 0.130  0.3413  -37.9  55.719  155.6  0.0053   82.4  0.9121  -16.0
 0.140  0.3397  -40.1  55.229  153.9  0.0059   82.0  0.9023  -17.1
 0.150  0.3365  -42.8  54.794  152.1  0.0062   78.8  0.8915  -18.2
 0.200  0.3246  -53.7  51.616  144.1  0.0084   77.7  0.8387  -23.1
 0.250  0.3090  -62.9  48.356  137.3  0.0096   79.1  0.7837  -26.7
 0.300  0.2940  -71.0  44.981  131.4  0.0114   78.1  0.7321  -29.7
 0.350  0.2793  -78.6  41.499  126.5  0.0126   75.3  0.6864  -32.0
 0.400  0.2641  -84.5  38.706  122.3  0.0141   75.2  0.6402  -33.6
 0.450  0.2532  -89.8  35.916  118.6  0.0158   75.1  0.6069  -34.9
 0.500  0.2404  -94.7  33.492  115.5  0.0167   74.0  0.5723  -36.0
 0.600  0.2212 -103.5  29.350  110.3  0.0193   75.1  0.5167  -37.3
 0.700  0.2066 -111.9  25.854  106.1  0.0226   75.2  0.4734  -37.9
 0.800  0.1961 -119.1  23.094  102.6  0.0250   74.5  0.4375  -38.2
 0.900  0.1874 -125.8  20.831   99.8  0.0278   74.8  0.4075  -38.2
 1.000  0.1818 -132.1  18.912   97.4  0.0305   74.4  0.3825  -38.1
 1.100  0.1776 -138.0  17.319   95.2  0.0333   74.4  0.3606  -37.7
 1.200  0.1751 -143.6  15.927   93.2  0.0359   74.0  0.3435  -37.4
 1.300  0.1728 -148.3  14.772   91.5  0.0387   73.6  0.3276  -36.9
 1.400  0.1724 -152.7  13.767   89.9  0.0415   73.5  0.3152  -36.6
 1.500  0.1711 -157.0  12.884   88.4  0.0441   73.1  0.3029  -36.1
 1.600  0.1719 -160.7  12.111   87.0  0.0468   72.6  0.2931  -35.9
 1.700  0.1737 -164.6  11.403   85.7  0.0497   72.4  0.2836  -35.5
 1.800  0.1742 -167.6  10.792   84.5  0.0523   71.8  0.2760  -35.6
 1.900  0.1757 -170.6  10.244   83.3  0.0549   71.5  0.2683  -35.3
 2.000  0.1765 -173.3   9.754   82.1  0.0576   71.0  0.2622  -35.5
 2.100  0.1820 -175.6   9.291   80.9  0.0604   70.4  0.2544  -36.2
 2.200  0.1834 -178.1   8.876   79.8  0.0631   70.2  0.2499  -36.3
 2.300  0.1847  179.7   8.487   78.8  0.0657   69.5  0.2454  -36.4
 2.400  0.1858  177.3   8.145   77.7  0.0683   68.9  0.2419  -36.6
 2.500  0.1861  175.2   7.833   76.7  0.0709   68.6  0.2385  -36.8
 2.600  0.1874  173.0   7.531   75.8  0.0735   68.0  0.2356  -37.1
 2.700  0.1880  171.1   7.260   74.8  0.0762   67.6  0.2335  -37.2
 2.800  0.1897  169.0   6.997   73.8  0.0787   66.9  0.2315  -37.8
 2.900  0.1899  167.5   6.766   72.8  0.0812   66.6  0.2302  -38.1
 3.000  0.1908  165.4   6.544   71.9  0.0838   66.0  0.2282  -38.6
 3.100  0.1911  163.8   6.339   71.0  0.0865   65.5  0.2276  -39.0
 3.200  0.1922  162.1   6.139   70.1  0.0892   64.9  0.2266  -39.5
 3.300  0.1919  160.6   5.963   69.2  0.0917   64.4  0.2267  -40.1
 3.400  0.1929  158.9   5.791   68.3  0.0945   63.9  0.2258  -40.6
 3.500  0.1927  157.6   5.631   67.4  0.0970   63.4  0.2260  -41.0
 3.600  0.1937  155.9   5.477   66.6  0.0995   62.8  0.2262  -41.4
 3.700  0.1940  154.7   5.331   65.7  0.1021   62.3  0.2261  -41.8
 3.800  0.1951  153.1   5.195   64.8  0.1047   61.7  0.2258  -42.2
 3.900  0.1952  152.0   5.071   64.0  0.1074   61.3  0.2260  -42.6
 4.000  0.1965  150.6   4.943   63.1  0.1098   60.7  0.2253  -43.0
 4.100  0.1968  149.6   4.829   62.3  0.1122   60.2  0.2249  -43.3
 4.200  0.1994  148.1   4.712   61.4  0.1150   59.6  0.2241  -43.7
 4.300  0.1999  147.2   4.612   60.6  0.1176   59.0  0.2232  -44.1
 4.400  0.2025  146.2   4.510   59.8  0.1202   58.5  0.2226  -44.5
 4.500  0.2023  145.2   4.420   59.0  0.1226   58.0  0.2217  -44.7
 4.600  0.2055  144.2   4.326   58.1  0.1252   57.3  0.2205  -45.0
 4.700  0.2073  143.3   4.232   57.3  0.1279   56.9  0.2191  -45.2
 4.800  0.2092  142.4   4.154   56.4  0.1303   56.2  0.2174  -45.5
 4.900  0.2101  141.6   4.076   55.6  0.1329   55.7  0.2158  -45.7
 5.000  0.2126  140.7   3.997   54.8  0.1353   55.1  0.2146  -45.9
 5.100  0.2142  139.8   3.922   53.9  0.1380   54.6  0.2133  -46.2
 5.200  0.2161  138.9   3.850   53.1  0.1404   54.0  0.2118  -46.2
 5.300  0.2174  138.1   3.782   52.3  0.1429   53.4  0.2102  -46.4
 5.400  0.2192  137.3   3.717   51.5  0.1456   52.8  0.2093  -46.5
 5.500  0.2209  136.5   3.654   50.6  0.1481   52.3  0.2074  -46.8
 5.600  0.2227  135.7   3.591   49.8  0.1506   51.7  0.2065  -46.8
 5.700  0.2241  134.8   3.529   48.9  0.1530   51.1  0.2045  -46.9
 5.800  0.2256  133.8   3.474   48.0  0.1556   50.5  0.2040  -47.1
 5.900  0.2269  133.1   3.416   47.2  0.1580   49.9  0.2024  -47.0
 6.000  0.2275  132.0   3.367   46.4  0.1605   49.3  0.2016  -47.1
 6.100  0.2315  131.1   3.308   45.5  0.1629   48.6  0.1998  -47.1
 6.200  0.2305  130.1   3.258   44.7  0.1653   48.0  0.1987  -47.3
 6.300  0.2339  129.0   3.206   43.8  0.1675   47.4  0.1975  -47.2
 6.400  0.2334  128.2   3.161   43.1  0.1699   46.8  0.1952  -47.2
 6.500  0.2365  126.7   3.109   42.2  0.1724   46.3  0.1935  -47.1
 6.600  0.2390  125.7   3.057   41.3  0.1745   45.7  0.1915  -47.0
 6.700  0.2407  124.5   3.015   40.5  0.1768   45.1  0.1898  -46.8
 6.800  0.2430  123.4   2.967   39.7  0.1791   44.5  0.1883  -46.6
 6.900  0.2453  122.3   2.928   38.9  0.1815   44.0  0.1862  -46.1
 7.000  0.2476  121.1   2.882   38.1  0.1840   43.4  0.1840  -45.8
 7.100  0.2516  120.2   2.841   37.4  0.1862   42.8  0.1810  -45.2
 7.200  0.2548  119.3   2.799   36.7  0.1886   42.4  0.1785  -45.0
 7.300  0.2585  118.4   2.762   35.9  0.1911   41.7  0.1757  -44.4
 7.400  0.2619  117.7   2.725   35.1  0.1932   41.2  0.1726  -43.8
 7.500  0.2673  117.1   2.689   34.4  0.1956   40.7  0.1680  -43.2
 7.600  0.2721  116.4   2.656   33.7  0.1983   40.0  0.1638  -42.5
 7.700  0.2789  116.1   2.623   32.9  0.2009   39.4  0.1586  -41.4
 7.800  0.2853  115.5   2.590   32.2  0.2033   38.8  0.1527  -40.5
 7.900  0.2920  115.2   2.562   31.5  0.2056   38.2  0.1468  -39.1
 8.000  0.2996  114.8   2.530   30.7  0.2080   37.6  0.1403  -37.6
 8.500  0.3434  113.6   2.388   26.8  0.2189   34.4  0.1077  -22.7
 9.000  0.3886  112.3   2.256   23.1  0.2293   31.5  0.0912    5.8
 9.500  0.4298  110.4   2.142   19.5  0.2399   28.6  0.1027   36.4
10.000  0.4668  108.2   2.041   15.8  0.2507   25.6  0.1294   58.6
!
!  f       NFmin   Gammaopt  rn/50
! GHz       dB    MAG  ANG    -
!
! noise parameter not available yet for this operation point!
!
! (c) 2013  Infineon Technologies AG, Munich
