! Infineon Technologies  Discrete & RF Semiconductors
! BFP650
! VCE =  1.0 V,  IC =  90 mA
! Common Emitter S-Parameters:                            Jan 2016
# GHz  S  MA  R  50
!  f         S11            S21            S12            S22
! GHz     MAG   ANG      MAG   ANG      MAG   ANG      MAG   ANG
 0.030  0.2008 -101.6  77.647  165.6  0.0043   50.8  0.6456  -25.9
 0.035  0.2269 -105.0  77.498  163.1  0.0050   56.9  0.6437  -29.9
 0.040  0.2537 -107.7  77.496  160.6  0.0057   61.5  0.6451  -34.0
 0.045  0.2750 -110.7  76.509  158.1  0.0057   71.2  0.6376  -38.0
 0.050  0.2970 -113.3  75.673  155.5  0.0059   80.6  0.6333  -42.1
 0.055  0.3288 -115.4  75.218  153.2  0.0072   69.2  0.6292  -46.4
 0.060  0.3610 -117.2  74.885  150.9  0.0086   61.4  0.6286  -50.7
 0.065  0.3747 -120.3  73.555  148.6  0.0074   54.0  0.6109  -54.4
 0.070  0.3894 -123.2  72.343  146.3  0.0064   44.0  0.5958  -58.3
 0.075  0.4152 -124.5  71.012  144.1  0.0084   54.8  0.5954  -61.7
 0.080  0.4412 -125.7  69.786  141.9  0.0105   61.3  0.5970  -65.1
 0.085  0.4540 -127.3  68.266  140.2  0.0098   62.4  0.5897  -68.2
 0.090  0.4672 -128.8  66.810  138.4  0.0092   63.7  0.5842  -71.3
 0.095  0.4803 -130.9  65.355  136.7  0.0095   61.8  0.5780  -74.3
 0.100  0.4941 -132.9  63.960  134.9  0.0099   60.1  0.5733  -77.3
 0.105  0.5050 -134.6  62.540  133.4  0.0104   57.1  0.5668  -80.1
 0.110  0.5163 -136.2  61.166  131.8  0.0109   54.3  0.5617  -83.0
 0.115  0.5261 -137.4  59.752  130.5  0.0108   55.7  0.5558  -85.7
 0.120  0.5362 -138.6  58.372  129.1  0.0107   57.2  0.5511  -88.4
 0.125  0.5449 -140.0  57.212  127.8  0.0110   54.6  0.5448  -90.7
 0.130  0.5540 -141.3  56.082  126.5  0.0114   52.2  0.5394  -93.0
 0.135  0.5612 -142.3  55.030  125.4  0.0115   51.9  0.5343  -94.9
 0.140  0.5686 -143.3  54.001  124.2  0.0117   51.7  0.5298  -96.9
 0.145  0.5762 -144.3  52.950  123.1  0.0116   50.4  0.5257  -99.0
 0.150  0.5840 -145.3  51.918  122.0  0.0115   49.1  0.5224 -101.1
 0.155  0.5876 -146.2  50.955  121.3  0.0118   49.5  0.5177 -102.6
 0.160  0.5913 -147.2  50.002  120.5  0.0120   50.0  0.5133 -104.2
 0.165  0.5952 -148.1  49.058  119.7  0.0123   50.4  0.5093 -105.7
 0.170  0.5992 -149.0  48.123  118.8  0.0126   50.8  0.5057 -107.3
 0.175  0.6034 -149.9  47.200  118.0  0.0128   51.1  0.5025 -109.0
 0.180  0.6077 -150.7  46.287  117.1  0.0131   51.5  0.4998 -110.6
 0.185  0.6122 -151.6  45.387  116.1  0.0134   51.8  0.4974 -112.3
 0.190  0.6168 -152.4  44.499  115.2  0.0137   52.2  0.4954 -113.9
 0.195  0.6215 -153.3  43.624  114.2  0.0139   52.5  0.4939 -115.6
 0.200  0.6264 -154.1  42.764  113.1  0.0142   52.8  0.4928 -117.3
 0.220  0.6350 -156.5  39.916  110.9  0.0145   53.2  0.4843 -121.8
 0.240  0.6447 -158.9  37.135  108.4  0.0148   53.5  0.4788 -126.4
 0.260  0.6524 -160.9  34.711  106.2  0.0154   53.8  0.4740 -130.5
 0.280  0.6576 -162.7  32.602  104.6  0.0163   53.9  0.4688 -134.0
 0.300  0.6634 -164.4  30.525  102.7  0.0171   54.0  0.4653 -137.6
 0.320  0.6667 -165.8  28.908  101.5  0.0178   54.6  0.4621 -140.3
 0.340  0.6703 -167.1  27.307  100.1  0.0185   55.1  0.4599 -142.9
 0.360  0.6735 -168.4  25.890   98.8  0.0189   55.3  0.4581 -145.4
 0.380  0.6760 -169.5  24.651   97.7  0.0192   55.2  0.4565 -147.6
 0.400  0.6788 -170.7  23.421   96.5  0.0195   55.0  0.4555 -149.8
 0.420  0.6807 -171.7  22.416   95.6  0.0203   55.8  0.4541 -151.6
 0.440  0.6828 -172.7  21.417   94.6  0.0212   56.6  0.4532 -153.5
 0.450  0.6839 -173.2  20.920   94.1  0.0216   56.9  0.4529 -154.4
 0.460  0.6844 -173.6  20.512   93.7  0.0218   57.0  0.4527 -155.2
 0.480  0.6855 -174.5  19.698   92.9  0.0223   57.2  0.4526 -156.7
 0.500  0.6867 -175.3  18.889   92.0  0.0227   57.4  0.4529 -158.3
 0.520  0.6878 -176.0  18.261   91.4  0.0235   57.5  0.4523 -159.6
 0.540  0.6890 -176.7  17.635   90.8  0.0242   57.5  0.4519 -160.9
 0.560  0.6902 -177.4  17.012   90.2  0.0250   57.6  0.4517 -162.1
 0.580  0.6916 -178.1  16.391   89.5  0.0257   57.6  0.4518 -163.4
 0.600  0.6931 -178.8  15.772   88.7  0.0265   57.7  0.4521 -164.7
 0.620  0.6934 -179.4  15.317   88.2  0.0271   57.9  0.4517 -165.7
 0.640  0.6937  180.0  14.863   87.7  0.0278   58.2  0.4515 -166.7
 0.660  0.6941  179.3  14.410   87.1  0.0284   58.4  0.4514 -167.7
 0.680  0.6946  178.7  13.959   86.5  0.0291   58.6  0.4515 -168.7
 0.700  0.6952  178.1  13.509   85.9  0.0297   58.8  0.4517 -169.7
 0.720  0.6960  177.6  13.172   85.5  0.0303   58.9  0.4521 -170.6
 0.740  0.6969  177.1  12.837   85.0  0.0309   59.1  0.4525 -171.4
 0.760  0.6979  176.5  12.502   84.5  0.0315   59.2  0.4531 -172.3
 0.780  0.6989  176.0  12.168   84.0  0.0321   59.3  0.4537 -173.1
 0.800  0.7000  175.5  11.835   83.4  0.0327   59.4  0.4545 -174.0
 0.820  0.7004  175.0  11.567   83.0  0.0333   59.3  0.4544 -174.7
 0.840  0.7009  174.5  11.300   82.6  0.0340   59.2  0.4545 -175.5
 0.860  0.7014  174.1  11.033   82.2  0.0346   59.1  0.4546 -176.2
 0.880  0.7020  173.6  10.767   81.8  0.0353   59.0  0.4547 -177.0
 0.900  0.7026  173.1  10.502   81.3  0.0359   58.9  0.4550 -177.7
 0.920  0.7031  172.7  10.291   80.9  0.0366   59.1  0.4554 -178.3
 0.940  0.7036  172.2  10.081   80.5  0.0372   59.2  0.4558 -178.9
 0.960  0.7042  171.8   9.871   80.1  0.0379   59.4  0.4563 -179.6
 0.980  0.7048  171.3   9.662   79.7  0.0385   59.6  0.4568  179.8
 1.000  0.7054  170.9   9.453   79.2  0.0392   59.7  0.4574  179.2
 1.020  0.7058  170.5   9.279   78.8  0.0398   59.4  0.4579  178.6
 1.040  0.7063  170.1   9.105   78.5  0.0404   59.1  0.4584  178.0
 1.060  0.7068  169.6   8.932   78.1  0.0411   58.8  0.4590  177.4
 1.080  0.7073  169.2   8.759   77.7  0.0417   58.6  0.4596  176.8
 1.100  0.7079  168.8   8.586   77.3  0.0423   58.3  0.4603  176.2
 1.120  0.7085  168.4   8.442   76.9  0.0429   58.3  0.4605  175.7
 1.140  0.7091  168.0   8.299   76.5  0.0436   58.4  0.4608  175.1
 1.160  0.7097  167.5   8.156   76.1  0.0442   58.4  0.4611  174.6
 1.180  0.7104  167.1   8.014   75.7  0.0449   58.5  0.4615  174.0
 1.200  0.7111  166.7   7.872   75.3  0.0455   58.5  0.4619  173.5
 1.220  0.7114  166.3   7.749   75.0  0.0462   58.3  0.4623  173.0
 1.240  0.7118  165.9   7.626   74.6  0.0468   58.1  0.4627  172.5
 1.260  0.7121  165.6   7.503   74.3  0.0475   57.9  0.4632  172.1
 1.280  0.7126  165.2   7.381   73.9  0.0481   57.8  0.4637  171.6
 1.300  0.7130  164.8   7.259   73.5  0.0488   57.6  0.4642  171.1
 1.320  0.7134  164.4   7.155   73.2  0.0494   57.5  0.4648  170.6
 1.340  0.7139  164.0   7.052   72.8  0.0500   57.4  0.4653  170.1
 1.360  0.7143  163.6   6.949   72.5  0.0506   57.3  0.4660  169.7
 1.380  0.7149  163.2   6.846   72.1  0.0512   57.2  0.4666  169.2
 1.400  0.7154  162.8   6.744   71.7  0.0518   57.1  0.4673  168.7
 1.420  0.7161  162.4   6.652   71.3  0.0525   56.9  0.4678  168.3
 1.440  0.7169  162.1   6.561   71.0  0.0532   56.8  0.4682  167.9
 1.460  0.7177  161.7   6.470   70.6  0.0540   56.6  0.4687  167.5
 1.480  0.7185  161.4   6.379   70.2  0.0547   56.5  0.4693  167.1
 1.500  0.7193  161.0   6.288   69.8  0.0554   56.3  0.4698  166.7
 1.520  0.7196  160.6   6.208   69.5  0.0560   56.1  0.4700  166.3
 1.540  0.7199  160.3   6.129   69.1  0.0566   55.8  0.4702  165.8
 1.560  0.7203  159.9   6.049   68.8  0.0571   55.6  0.4704  165.4
 1.580  0.7207  159.6   5.970   68.5  0.0577   55.3  0.4707  164.9
 1.600  0.7211  159.2   5.891   68.1  0.0583   55.1  0.4710  164.5
 1.620  0.7216  158.8   5.819   67.8  0.0590   54.9  0.4717  164.1
 1.640  0.7221  158.5   5.748   67.4  0.0596   54.8  0.4724  163.7
 1.660  0.7226  158.1   5.676   67.1  0.0603   54.6  0.4731  163.3
 1.680  0.7231  157.8   5.605   66.8  0.0609   54.5  0.4738  162.9
 1.700  0.7237  157.4   5.534   66.4  0.0616   54.3  0.4746  162.5
 1.720  0.7240  157.0   5.471   66.1  0.0622   54.2  0.4751  162.1
 1.740  0.7243  156.7   5.408   65.7  0.0629   54.1  0.4756  161.7
 1.760  0.7247  156.3   5.345   65.3  0.0635   54.0  0.4761  161.2
 1.780  0.7251  156.0   5.282   65.0  0.0642   53.9  0.4767  160.8
 1.800  0.7255  155.6   5.220   64.6  0.0648   53.8  0.4773  160.4
 1.820  0.7255  155.2   5.160   64.3  0.0655   53.6  0.4775  160.0
 1.840  0.7256  154.9   5.101   63.9  0.0662   53.3  0.4778  159.6
 1.860  0.7257  154.5   5.042   63.6  0.0668   53.1  0.4780  159.3
 1.880  0.7258  154.2   4.983   63.3  0.0675   52.9  0.4783  158.9
 1.900  0.7259  153.8   4.924   62.9  0.0682   52.7  0.4786  158.5
 1.920  0.7264  153.5   4.873   62.6  0.0687   52.4  0.4791  158.1
 1.940  0.7270  153.1   4.823   62.2  0.0691   52.0  0.4796  157.7
 1.960  0.7276  152.8   4.772   61.9  0.0696   51.7  0.4802  157.4
 1.980  0.7282  152.4   4.722   61.6  0.0700   51.4  0.4807  157.0
 2.000  0.7289  152.1   4.672   61.2  0.0705   51.1  0.4813  156.6
 2.020  0.7294  151.8   4.628   60.9  0.0711   50.9  0.4818  156.2
 2.040  0.7300  151.5   4.584   60.6  0.0716   50.8  0.4823  155.9
 2.060  0.7306  151.2   4.540   60.4  0.0722   50.6  0.4828  155.5
 2.080  0.7312  150.9   4.496   60.1  0.0727   50.5  0.4833  155.2
 2.100  0.7318  150.5   4.452   59.8  0.0733   50.3  0.4839  154.8
 2.120  0.7324  150.2   4.409   59.5  0.0739   50.2  0.4844  154.4
 2.140  0.7331  149.9   4.365   59.2  0.0744   50.0  0.4850  154.1
 2.160  0.7338  149.6   4.322   58.8  0.0750   49.9  0.4856  153.7
 2.180  0.7345  149.3   4.279   58.5  0.0755   49.7  0.4863  153.4
 2.200  0.7352  149.0   4.236   58.2  0.0761   49.6  0.4869  153.0
 2.220  0.7354  148.7   4.198   57.9  0.0767   49.4  0.4873  152.6
 2.240  0.7356  148.3   4.161   57.6  0.0773   49.2  0.4877  152.3
 2.260  0.7358  148.0   4.123   57.2  0.0779   49.0  0.4882  151.9
 2.280  0.7361  147.7   4.086   56.9  0.0785   48.8  0.4887  151.5
 2.300  0.7364  147.3   4.049   56.6  0.0791   48.6  0.4891  151.1
 2.320  0.7367  147.0   4.012   56.2  0.0797   48.4  0.4897  150.8
 2.340  0.7370  146.7   3.975   55.9  0.0804   48.2  0.4902  150.4
 2.360  0.7374  146.4   3.938   55.5  0.0810   48.1  0.4907  150.0
 2.380  0.7378  146.0   3.901   55.2  0.0816   47.9  0.4913  149.7
 2.400  0.7382  145.7   3.865   54.8  0.0822   47.7  0.4919  149.3
 2.420  0.7386  145.4   3.833   54.5  0.0828   47.4  0.4925  149.0
 2.440  0.7390  145.1   3.801   54.2  0.0833   47.2  0.4932  148.6
 2.460  0.7395  144.8   3.770   53.9  0.0839   46.9  0.4938  148.3
 2.480  0.7399  144.5   3.738   53.6  0.0844   46.7  0.4945  147.9
 2.500  0.7404  144.1   3.707   53.3  0.0850   46.4  0.4952  147.6
 2.520  0.7409  143.8   3.675   52.9  0.0855   46.2  0.4959  147.2
 2.540  0.7415  143.5   3.644   52.6  0.0861   45.9  0.4966  146.9
 2.560  0.7420  143.2   3.613   52.3  0.0867   45.7  0.4974  146.6
 2.580  0.7426  142.9   3.582   51.9  0.0872   45.4  0.4981  146.2
 2.600  0.7432  142.6   3.551   51.6  0.0878   45.2  0.4989  145.9
 2.620  0.7435  142.3   3.523   51.3  0.0883   45.0  0.4995  145.6
 2.640  0.7438  142.0   3.496   51.0  0.0888   44.7  0.5002  145.2
 2.660  0.7441  141.7   3.468   50.7  0.0893   44.5  0.5008  144.9
 2.680  0.7444  141.4   3.441   50.4  0.0898   44.3  0.5015  144.5
 2.700  0.7447  141.1   3.414   50.1  0.0903   44.1  0.5022  144.2
 2.720  0.7451  140.8   3.387   49.8  0.0908   43.9  0.5029  143.8
 2.740  0.7455  140.5   3.360   49.5  0.0913   43.6  0.5036  143.5
 2.760  0.7459  140.2   3.333   49.2  0.0918   43.4  0.5044  143.2
 2.780  0.7463  139.9   3.306   48.8  0.0923   43.2  0.5051  142.8
 2.800  0.7468  139.6   3.279   48.5  0.0928   43.0  0.5059  142.5
 2.820  0.7472  139.3   3.255   48.2  0.0934   42.8  0.5066  142.2
 2.840  0.7477  139.0   3.232   47.9  0.0940   42.6  0.5073  141.9
 2.860  0.7481  138.7   3.209   47.6  0.0946   42.4  0.5081  141.6
 2.880  0.7486  138.4   3.185   47.4  0.0953   42.2  0.5088  141.2
 2.900  0.7491  138.1   3.162   47.1  0.0959   42.0  0.5096  140.9
 2.920  0.7497  137.8   3.139   46.8  0.0965   41.8  0.5103  140.6
 2.940  0.7502  137.5   3.116   46.4  0.0971   41.6  0.5111  140.3
 2.960  0.7508  137.2   3.093   46.1  0.0978   41.5  0.5119  140.0
 2.980  0.7514  136.9   3.070   45.8  0.0984   41.3  0.5128  139.7
 3.000  0.7520  136.6   3.047   45.5  0.0990   41.1  0.5136  139.4
 3.100  0.7538  135.1   2.948   44.2  0.1012   39.7  0.5170  137.9
 3.200  0.7562  133.6   2.851   42.7  0.1035   38.4  0.5208  136.5
 3.300  0.7590  132.1   2.755   41.2  0.1059   37.2  0.5249  135.1
 3.400  0.7624  130.7   2.662   39.6  0.1083   35.9  0.5294  133.7
 3.500  0.7662  129.2   2.571   37.8  0.1107   34.8  0.5341  132.3
 3.600  0.7688  127.8   2.494   36.5  0.1127   33.6  0.5383  131.0
 3.700  0.7718  126.3   2.419   35.1  0.1148   32.4  0.5429  129.6
 3.800  0.7754  124.9   2.345   33.6  0.1169   31.2  0.5477  128.3
 3.900  0.7794  123.5   2.272   32.1  0.1190   30.1  0.5527  127.1
 4.000  0.7839  122.1   2.202   30.4  0.1212   29.0  0.5581  125.8
 4.100  0.7863  120.9   2.142   29.2  0.1227   27.9  0.5620  124.7
 4.200  0.7891  119.7   2.082   28.0  0.1242   26.9  0.5661  123.6
 4.300  0.7922  118.5   2.024   26.7  0.1258   25.9  0.5704  122.4
 4.400  0.7956  117.4   1.967   25.3  0.1274   24.9  0.5750  121.4
 4.500  0.7994  116.2   1.911   23.8  0.1290   23.9  0.5797  120.3
 4.600  0.8008  115.1   1.865   22.7  0.1309   22.9  0.5821  119.2
 4.700  0.8024  114.1   1.820   21.6  0.1328   21.9  0.5848  118.1
 4.800  0.8043  113.0   1.775   20.4  0.1347   21.0  0.5876  117.1
 4.900  0.8065  111.9   1.732   19.1  0.1367   20.1  0.5907  116.0
 5.000  0.8090  110.9   1.689   17.8  0.1387   19.2  0.5939  115.0
 5.100  0.8090  109.9   1.653   16.7  0.1403   18.2  0.5954  113.8
 5.200  0.8093  108.9   1.617   15.6  0.1420   17.2  0.5972  112.7
 5.300  0.8099  107.9   1.582   14.4  0.1437   16.3  0.5992  111.6
 5.400  0.8107  106.9   1.548   13.1  0.1455   15.3  0.6014  110.4
 5.500  0.8117  105.9   1.515   11.8  0.1473   14.4  0.6039  109.3
 5.600  0.8117  105.0   1.486   10.7  0.1489   13.4  0.6059  108.1
 5.700  0.8119  104.1   1.458    9.6  0.1506   12.4  0.6081  107.0
 5.800  0.8123  103.3   1.430    8.4  0.1524   11.4  0.6107  105.8
 5.900  0.8128  102.4   1.403    7.2  0.1542   10.4  0.6134  104.6
 6.000  0.8136  101.5   1.377    5.9  0.1560    9.5  0.6164  103.5
 6.100  0.8155  100.6   1.355    4.8  0.1577    8.4  0.6188  102.5
 6.200  0.8175   99.7   1.334    3.6  0.1594    7.3  0.6215  101.5
 6.300  0.8198   98.8   1.313    2.4  0.1612    6.2  0.6243  100.5
 6.400  0.8223   98.0   1.293    1.1  0.1631    5.2  0.6273   99.5
 6.500  0.8249   97.1   1.274   -0.2  0.1650    4.2  0.6305   98.5
 6.600  0.8266   96.1   1.254   -1.4  0.1664    3.0  0.6328   97.6
 6.800  0.8308   94.0   1.214   -4.0  0.1695    0.8  0.6379   95.8
 7.000  0.8361   92.0   1.178   -6.8  0.1728   -1.4  0.6436   94.1
 7.200  0.8389   89.6   1.138   -9.4  0.1742   -3.8  0.6488   92.0
 7.400  0.8432   87.3   1.100  -12.1  0.1760   -6.2  0.6549   89.9
 7.600  0.8469   84.9   1.062  -14.8  0.1774   -8.5  0.6611   87.6
 7.800  0.8502   82.4   1.023  -17.3  0.1784  -10.7  0.6678   85.1
 8.000  0.8550   79.9   0.987  -20.0  0.1796  -12.8  0.6758   82.7
 8.200  0.8581   77.4   0.950  -22.3  0.1794  -14.9  0.6833   80.3
 8.400  0.8628   74.9   0.914  -24.7  0.1795  -17.0  0.6919   78.0
 8.600  0.8672   72.6   0.880  -26.9  0.1793  -19.1  0.7011   75.6
 8.800  0.8711   70.3   0.847  -28.9  0.1789  -21.0  0.7107   73.4
 9.000  0.8764   68.1   0.815  -31.1  0.1787  -22.9  0.7213   71.2
 9.200  0.8814   66.4   0.784  -32.8  0.1774  -24.5  0.7307   69.2
 9.400  0.8871   64.7   0.753  -34.6  0.1762  -26.1  0.7410   67.3
 9.600  0.8933   63.3   0.726  -36.2  0.1751  -27.4  0.7504   65.8
 9.800  0.8995   62.2   0.702  -37.3  0.1742  -28.3  0.7584   64.8
10.000  0.9061   61.1   0.679  -38.6  0.1734  -29.2  0.7666   63.9
!
!  f       NFmin   Gammaopt  rn/50
! GHz       dB    MAG  ANG    -
 0.450      1.34  0.53 -171   0.06
 0.900      1.36  0.54 -165   0.07
 1.900      1.50  0.57 -150   0.09
 2.400      1.59  0.56 -141   0.12
 3.500      1.78  0.56 -118   0.22
!
! (c) 2016  Infineon Technologies AG, Munich
