! Infineon Technologies  Discrete & RF Semiconductors
! BFP620F
! VCE =  0.8 V,  IC =  35 mA
! Common Emitter S-Parameters:                            Dec 2014
# GHz  S  MA  R  50
!  f         S11            S21            S12            S22
! GHz     MAG   ANG      MAG   ANG      MAG   ANG      MAG   ANG
 0.030  0.5830  -11.5  50.027  174.3  0.0031   89.4  0.9474   -5.8
 0.040  0.5824  -15.0  51.248  172.2  0.0043   90.1  0.9481   -8.4
 0.050  0.5888  -18.2  52.754  169.9  0.0058   98.3  0.9492  -10.8
 0.060  0.5923  -22.0  53.912  167.4  0.0067   80.6  0.9438  -13.4
 0.070  0.5908  -25.0  54.346  164.8  0.0068   82.2  0.9388  -15.8
 0.080  0.5929  -28.5  54.089  162.3  0.0083   84.9  0.9359  -18.6
 0.090  0.5868  -32.0  53.211  160.1  0.0096   77.7  0.9281  -20.9
 0.100  0.5826  -35.3  52.102  158.0  0.0094   76.0  0.9202  -23.3
 0.110  0.5758  -38.7  50.993  155.9  0.0111   77.2  0.9112  -25.8
 0.120  0.5705  -42.0  50.151  153.9  0.0117   71.8  0.9000  -28.2
 0.130  0.5646  -45.2  49.719  152.1  0.0129   73.8  0.8860  -30.5
 0.140  0.5602  -48.1  49.446  150.2  0.0139   73.6  0.8719  -32.7
 0.150  0.5565  -50.6  49.418  148.4  0.0144   72.5  0.8591  -34.7
 0.200  0.5351  -63.1  46.321  139.9  0.0182   68.5  0.7925  -44.4
 0.250  0.5063  -73.4  43.186  133.0  0.0211   65.6  0.7249  -52.9
 0.300  0.4818  -82.4  39.731  127.3  0.0238   63.0  0.6632  -60.4
 0.350  0.4609  -91.0  36.182  122.5  0.0261   62.3  0.6078  -66.8
 0.400  0.4408  -98.1  33.349  118.6  0.0284   60.4  0.5574  -72.7
 0.450  0.4254 -104.2  30.722  115.0  0.0302   60.4  0.5171  -77.8
 0.500  0.4107 -110.2  28.335  112.0  0.0322   60.2  0.4792  -82.7
 0.600  0.3904 -120.6  24.470  107.0  0.0357   60.2  0.4176  -91.3
 0.700  0.3763 -129.0  21.425  102.9  0.0394   60.0  0.3725  -99.1
 0.800  0.3680 -136.1  18.999   99.6  0.0429   60.3  0.3360 -106.1
 0.900  0.3603 -142.3  17.043   96.7  0.0463   60.6  0.3082 -112.7
 1.000  0.3578 -147.7  15.433   94.2  0.0500   60.7  0.2859 -118.8
 1.100  0.3537 -152.5  14.076   92.0  0.0536   61.0  0.2687 -125.0
 1.200  0.3539 -156.7  12.947   90.1  0.0573   61.3  0.2553 -130.5
 1.300  0.3525 -160.5  11.967   88.3  0.0608   61.2  0.2445 -136.1
 1.400  0.3541 -163.9  11.134   86.6  0.0645   61.3  0.2372 -141.2
 1.500  0.3538 -167.1  10.393   85.1  0.0683   61.2  0.2317 -146.2
 1.600  0.3563 -170.0   9.747   83.6  0.0719   61.0  0.2290 -150.6
 1.700  0.3567 -172.7   9.173   82.2  0.0756   61.0  0.2269 -154.9
 1.800  0.3596 -175.2   8.672   80.8  0.0794   60.7  0.2270 -158.5
 1.900  0.3606 -177.4   8.217   79.6  0.0830   60.5  0.2276 -161.8
 2.000  0.3628 -179.6   7.807   78.3  0.0867   60.1  0.2292 -164.7
 2.100  0.3656  178.3   7.431   77.1  0.0905   59.5  0.2354 -166.2
 2.200  0.3664  176.4   7.095   75.9  0.0940   59.1  0.2360 -168.5
 2.300  0.3682  174.5   6.784   74.8  0.0978   58.7  0.2369 -170.7
 2.400  0.3695  172.7   6.506   73.6  0.1015   58.2  0.2380 -172.8
 2.500  0.3711  171.0   6.248   72.6  0.1051   57.9  0.2394 -174.6
 2.600  0.3725  169.3   6.011   71.5  0.1088   57.3  0.2400 -176.4
 2.700  0.3734  167.7   5.791   70.5  0.1125   56.9  0.2410 -177.9
 2.800  0.3739  166.2   5.586   69.5  0.1161   56.5  0.2419 -179.3
 2.900  0.3752  164.7   5.395   68.4  0.1197   55.8  0.2432  179.3
 3.000  0.3757  163.2   5.221   67.4  0.1234   55.3  0.2443  178.1
 3.100  0.3767  161.9   5.051   66.4  0.1272   54.8  0.2443  176.8
 3.200  0.3767  160.4   4.896   65.4  0.1309   54.2  0.2449  175.7
 3.300  0.3776  159.2   4.752   64.4  0.1344   53.6  0.2451  174.5
 3.400  0.3776  157.7   4.618   63.4  0.1383   53.0  0.2457  173.4
 3.500  0.3783  156.5   4.488   62.5  0.1416   52.4  0.2455  172.2
 3.600  0.3785  155.1   4.366   61.5  0.1454   51.8  0.2458  171.1
 3.700  0.3789  153.9   4.253   60.5  0.1489   51.1  0.2456  169.9
 3.800  0.3794  152.5   4.142   59.5  0.1526   50.6  0.2454  168.8
 3.900  0.3804  151.4   4.042   58.6  0.1560   49.8  0.2450  167.5
 4.000  0.3806  150.1   3.943   57.6  0.1595   49.1  0.2444  166.2
 4.100  0.3819  149.0   3.852   56.6  0.1633   48.6  0.2444  164.8
 4.200  0.3830  147.8   3.763   55.7  0.1668   47.9  0.2445  163.3
 4.300  0.3843  146.8   3.682   54.7  0.1702   47.2  0.2443  161.9
 4.400  0.3858  145.6   3.601   53.8  0.1740   46.5  0.2443  160.5
 4.500  0.3868  144.6   3.525   52.8  0.1775   45.7  0.2442  158.9
 4.600  0.3887  143.5   3.451   51.8  0.1810   45.1  0.2446  157.4
 4.700  0.3899  142.6   3.384   50.8  0.1845   44.3  0.2451  155.8
 4.800  0.3925  141.6   3.316   49.9  0.1878   43.6  0.2457  154.3
 4.900  0.3942  140.7   3.252   48.9  0.1913   42.9  0.2463  152.5
 5.000  0.3967  139.7   3.191   47.9  0.1949   42.1  0.2475  151.0
 5.100  0.3983  138.8   3.132   46.9  0.1982   41.3  0.2474  149.4
 5.200  0.4010  138.0   3.074   45.9  0.2015   40.6  0.2483  147.8
 5.300  0.4030  137.1   3.019   44.9  0.2048   39.8  0.2493  146.4
 5.400  0.4058  136.3   2.965   43.9  0.2082   39.0  0.2509  144.9
 5.500  0.4080  135.5   2.912   42.9  0.2112   38.2  0.2518  143.3
 5.600  0.4111  134.7   2.860   42.0  0.2145   37.4  0.2534  141.9
 5.700  0.4134  133.8   2.811   41.0  0.2176   36.7  0.2547  140.4
 5.800  0.4159  132.9   2.764   39.9  0.2206   35.8  0.2557  138.9
 5.900  0.4184  132.0   2.718   38.9  0.2237   35.1  0.2578  137.2
 6.000  0.4210  131.1   2.671   37.9  0.2265   34.2  0.2590  135.9
 6.100  0.4233  130.1   2.626   37.0  0.2295   33.4  0.2603  134.3
 6.200  0.4259  129.2   2.582   35.9  0.2323   32.6  0.2621  132.5
 6.300  0.4287  128.0   2.539   34.9  0.2349   31.8  0.2645  130.9
 6.400  0.4312  127.1   2.498   33.9  0.2375   31.0  0.2665  129.3
 6.500  0.4336  125.9   2.456   32.9  0.2400   30.2  0.2683  127.5
 6.600  0.4362  124.9   2.413   32.0  0.2425   29.4  0.2709  125.8
 6.700  0.4384  123.6   2.374   31.0  0.2449   28.6  0.2727  123.9
 6.800  0.4408  122.4   2.336   30.1  0.2472   27.9  0.2749  122.1
 6.900  0.4437  121.2   2.298   29.1  0.2497   27.1  0.2773  120.1
 7.000  0.4467  120.1   2.260   28.2  0.2523   26.3  0.2801  118.2
 7.100  0.4499  119.0   2.225   27.3  0.2546   25.6  0.2833  116.2
 7.200  0.4532  117.9   2.190   26.4  0.2570   24.9  0.2868  114.2
 7.300  0.4574  116.8   2.157   25.5  0.2593   24.2  0.2913  112.3
 7.400  0.4617  115.8   2.124   24.6  0.2617   23.4  0.2960  110.4
 7.500  0.4669  114.8   2.093   23.7  0.2642   22.6  0.3015  108.5
 7.600  0.4722  113.9   2.062   22.9  0.2667   21.9  0.3073  106.6
 7.700  0.4778  113.1   2.032   22.0  0.2688   21.1  0.3144  104.8
 7.800  0.4835  112.2   2.001   21.1  0.2709   20.3  0.3218  103.1
 7.900  0.4906  111.4   1.972   20.2  0.2729   19.5  0.3301  101.4
 8.000  0.4979  110.6   1.944   19.3  0.2749   18.6  0.3388   99.7
!
!  f       NFmin   Gammaopt  rn/50
! GHz       dB    MAG  ANG    -
 0.450      1.25  0.11 -173   0.16
 0.900      1.28  0.11 -172   0.13
 1.500      1.29  0.16 -150   0.12
 1.800      1.30  0.16 -150   0.13
 1.900      1.30  0.16 -149   0.13
 2.400      1.32  0.17  215   0.15
 3.500      1.38  0.18  220   0.18
 5.500      1.52  0.24  245   0.15
 6.000      1.56  0.25  260   0.17
!
! (c) 2014  Infineon Technologies AG, Munich
