! Infineon Technologies  Discrete & RF Semiconductors
! BFP640F
! VCE =  1.5 V,  IC =  25 mA
! Common Emitter S-Parameters:                            Apr 2013
# GHz  S  MA  R  50
!  f         S11            S21            S12            S22
! GHz     MAG   ANG      MAG   ANG      MAG   ANG      MAG   ANG
 0.030  0.6238   -5.6  51.478  175.8  0.0015   97.0  0.9827   -2.3
 0.040  0.6232   -7.2  51.643  174.2  0.0024   96.9  0.9840   -3.5
 0.050  0.6226   -9.0  52.184  172.6  0.0032   94.9  0.9857   -4.8
 0.060  0.6187  -10.7  51.994  170.8  0.0024   96.4  0.9812   -5.9
 0.070  0.6181  -12.4  51.850  169.3  0.0031   85.0  0.9804   -7.0
 0.080  0.6136  -14.1  51.698  167.7  0.0041   76.4  0.9766   -8.2
 0.090  0.6141  -16.0  51.322  166.2  0.0051   90.0  0.9738   -9.5
 0.100  0.6103  -17.8  51.065  164.7  0.0043   91.8  0.9717  -10.5
 0.110  0.6056  -19.5  50.703  163.1  0.0051   79.1  0.9659  -11.6
 0.120  0.5999  -21.3  50.352  161.6  0.0065   84.4  0.9587  -12.7
 0.130  0.5972  -22.9  49.849  160.1  0.0071   77.1  0.9527  -13.8
 0.140  0.5925  -24.5  49.496  158.8  0.0069   85.0  0.9462  -14.8
 0.150  0.5877  -26.1  49.232  157.4  0.0079   82.4  0.9390  -15.8
 0.200  0.5636  -33.8  47.073  150.7  0.0096   78.6  0.9014  -20.5
 0.250  0.5358  -40.6  44.596  144.7  0.0117   74.3  0.8574  -24.4
 0.300  0.5066  -47.1  42.072  139.3  0.0137   73.8  0.8136  -27.9
 0.350  0.4797  -53.0  39.402  134.5  0.0158   73.8  0.7697  -31.0
 0.400  0.4503  -58.6  37.055  130.1  0.0173   72.4  0.7277  -33.4
 0.450  0.4262  -63.4  34.741  126.3  0.0191   71.3  0.6900  -35.6
 0.500  0.4008  -68.2  32.625  122.8  0.0206   70.7  0.6540  -37.3
 0.600  0.3589  -76.9  28.864  116.9  0.0234   70.2  0.5900  -40.1
 0.700  0.3254  -84.4  25.703  112.2  0.0263   69.6  0.5355  -42.0
 0.800  0.2956  -91.6  23.074  108.1  0.0290   68.6  0.4910  -43.3
 0.900  0.2726  -98.0  20.892  104.8  0.0318   69.1  0.4516  -44.2
 1.000  0.2538 -104.2  19.027  102.0  0.0344   68.8  0.4188  -44.8
 1.100  0.2379 -110.0  17.460   99.4  0.0373   68.5  0.3903  -45.1
 1.200  0.2247 -115.5  16.109   97.1  0.0399   68.6  0.3671  -45.3
 1.300  0.2133 -121.0  14.946   95.1  0.0424   68.4  0.3462  -45.2
 1.400  0.2055 -126.0  13.939   93.3  0.0451   68.3  0.3284  -45.2
 1.500  0.1976 -130.9  13.048   91.6  0.0478   68.3  0.3122  -45.0
 1.600  0.1930 -135.6  12.276   90.0  0.0505   67.9  0.2993  -45.0
 1.700  0.1888 -140.0  11.583   88.5  0.0533   67.7  0.2860  -44.7
 1.800  0.1855 -144.1  10.956   87.1  0.0560   67.3  0.2759  -44.9
 1.900  0.1835 -147.9  10.403   85.8  0.0586   67.1  0.2652  -44.8
 2.000  0.1816 -151.7   9.902   84.5  0.0613   66.7  0.2570  -45.1
 2.100  0.1841 -155.3   9.441   83.2  0.0641   66.3  0.2478  -45.9
 2.200  0.1828 -158.5   9.025   82.0  0.0666   66.1  0.2415  -46.0
 2.300  0.1818 -161.7   8.633   80.9  0.0696   65.5  0.2354  -46.0
 2.400  0.1815 -164.5   8.283   79.8  0.0720   65.4  0.2301  -46.4
 2.500  0.1802 -167.5   7.959   78.7  0.0747   64.7  0.2260  -46.4
 2.600  0.1796 -170.2   7.659   77.6  0.0775   64.4  0.2220  -46.7
 2.700  0.1795 -172.8   7.382   76.6  0.0801   64.1  0.2188  -46.8
 2.800  0.1788 -175.4   7.126   75.5  0.0827   63.7  0.2157  -47.2
 2.900  0.1788 -177.5   6.882   74.5  0.0854   63.2  0.2136  -47.5
 3.000  0.1784 -179.8   6.660   73.6  0.0881   62.8  0.2108  -48.0
 3.100  0.1781  177.9   6.448   72.6  0.0908   62.4  0.2094  -48.2
 3.200  0.1778  175.8   6.250   71.6  0.0935   61.9  0.2080  -48.8
 3.300  0.1776  173.9   6.067   70.7  0.0959   61.5  0.2076  -49.1
 3.400  0.1780  171.8   5.894   69.8  0.0986   61.0  0.2061  -49.6
 3.500  0.1777  170.0   5.731   68.9  0.1014   60.4  0.2057  -49.9
 3.600  0.1775  168.0   5.576   68.0  0.1040   59.9  0.2051  -50.1
 3.700  0.1773  166.4   5.429   67.1  0.1066   59.5  0.2048  -50.5
 3.800  0.1780  164.5   5.294   66.2  0.1095   59.0  0.2040  -50.8
 3.900  0.1785  163.1   5.163   65.3  0.1120   58.5  0.2035  -51.2
 4.000  0.1793  161.4   5.036   64.4  0.1146   58.1  0.2026  -51.4
 4.100  0.1796  160.0   4.918   63.5  0.1173   57.5  0.2014  -51.6
 4.200  0.1813  158.3   4.806   62.7  0.1198   57.0  0.2001  -51.9
 4.300  0.1823  157.0   4.700   61.8  0.1225   56.5  0.1988  -52.2
 4.400  0.1845  155.7   4.598   60.9  0.1251   56.0  0.1975  -52.5
 4.500  0.1851  154.5   4.502   60.1  0.1277   55.4  0.1962  -52.6
 4.600  0.1877  153.2   4.410   59.2  0.1304   54.9  0.1947  -52.8
 4.700  0.1889  152.2   4.319   58.4  0.1331   54.3  0.1926  -53.0
 4.800  0.1916  151.0   4.236   57.5  0.1356   53.8  0.1906  -53.2
 4.900  0.1928  150.0   4.154   56.6  0.1383   53.3  0.1885  -53.3
 5.000  0.1950  148.9   4.075   55.8  0.1409   52.7  0.1866  -53.5
 5.100  0.1967  147.8   4.000   54.9  0.1435   52.1  0.1852  -53.6
 5.200  0.1985  146.7   3.929   54.1  0.1461   51.6  0.1829  -53.5
 5.300  0.2002  145.7   3.857   53.2  0.1485   51.0  0.1809  -53.7
 5.400  0.2023  144.8   3.790   52.4  0.1513   50.5  0.1795  -53.6
 5.500  0.2040  143.8   3.727   51.5  0.1539   49.9  0.1774  -53.9
 5.600  0.2058  142.8   3.663   50.7  0.1566   49.3  0.1761  -53.6
 5.700  0.2071  141.8   3.602   49.8  0.1590   48.7  0.1737  -53.8
 5.800  0.2088  140.7   3.545   48.9  0.1615   48.1  0.1729  -53.7
 5.900  0.2102  139.8   3.486   48.0  0.1641   47.6  0.1709  -53.4
 6.000  0.2113  138.6   3.433   47.1  0.1666   46.9  0.1694  -53.5
 6.100  0.2142  137.6   3.379   46.3  0.1691   46.3  0.1672  -53.4
 6.200  0.2140  136.4   3.324   45.5  0.1715   45.7  0.1660  -53.5
 6.300  0.2171  135.2   3.273   44.5  0.1740   45.1  0.1641  -53.1
 6.400  0.2179  134.3   3.222   43.7  0.1764   44.5  0.1616  -53.0
 6.500  0.2203  132.6   3.172   42.9  0.1788   43.9  0.1595  -52.7
 6.600  0.2222  131.6   3.123   42.0  0.1809   43.4  0.1572  -52.4
 6.700  0.2244  130.2   3.076   41.2  0.1834   42.8  0.1553  -52.0
 6.800  0.2268  129.0   3.030   40.4  0.1860   42.2  0.1531  -51.5
 6.900  0.2299  127.7   2.986   39.5  0.1883   41.7  0.1507  -50.7
 7.000  0.2316  126.5   2.942   38.7  0.1906   41.1  0.1483  -50.0
 7.100  0.2357  125.4   2.899   37.9  0.1930   40.5  0.1449  -49.2
 7.200  0.2388  124.3   2.858   37.2  0.1954   40.0  0.1420  -48.6
 7.300  0.2431  123.4   2.820   36.4  0.1980   39.4  0.1387  -47.7
 7.400  0.2467  122.6   2.781   35.7  0.2003   38.9  0.1352  -46.7
 7.500  0.2526  121.9   2.744   34.9  0.2027   38.3  0.1304  -45.6
 7.600  0.2575  121.0   2.711   34.1  0.2053   37.7  0.1257  -44.5
 7.700  0.2646  120.6   2.677   33.4  0.2079   37.1  0.1203  -42.8
 7.800  0.2713  119.9   2.644   32.6  0.2104   36.5  0.1143  -41.2
 7.900  0.2791  119.5   2.612   31.8  0.2126   35.9  0.1082  -38.7
 8.000  0.2866  119.0   2.581   31.0  0.2151   35.2  0.1016  -36.2
 8.500  0.3332  117.2   2.434   27.1  0.2263   32.0  0.0746   -9.1
 9.000  0.3802  115.3   2.297   23.3  0.2362   29.0  0.0821   31.8
 9.500  0.4229  112.9   2.176   19.6  0.2464   26.1  0.1176   56.0
10.000  0.4617  110.2   2.067   15.9  0.2570   23.1  0.1577   69.9
!
!  f       NFmin   Gammaopt  rn/50
! GHz       dB    MAG  ANG    -
 0.450      0.90  0.15 -174   0.06
 0.900      0.92  0.16 -169   0.06
 1.500      0.95  0.16 -163   0.07
 1.900      0.98  0.17 -157   0.08
 2.400      1.01  0.18 -149   0.08
 3.500      1.09  0.19 -139   0.10
 5.500      1.27  0.22 -122   0.13
10.000      1.73  0.43  -86   0.42
!
! (c) 2013  Infineon Technologies AG, Munich
