! Infineon Technologies  Discrete & RF Semiconductors
! BFP620
! VCE =  1.5 V,  IC =  2.0 mA
! Common Emitter S-Parameters:                            Nov 2015
# GHz  S  MA  R  50
!  f         S11            S21            S12            S22
! GHz     MAG   ANG      MAG   ANG      MAG   ANG      MAG   ANG
 0.030  0.9744   -1.5   6.634  178.9  0.0026   86.2  0.9986   -1.0
 0.035  0.9728   -1.8   6.648  178.7  0.0031   87.5  0.9986   -1.1
 0.040  0.9713   -2.1   6.663  178.6  0.0036   88.5  0.9986   -1.3
 0.045  0.9700   -2.2   6.662  177.9  0.0040   88.3  0.9987   -1.5
 0.050  0.9688   -2.4   6.661  177.2  0.0044   88.1  0.9988   -1.6
 0.055  0.9722   -2.7   6.659  177.2  0.0049   87.8  0.9989   -1.8
 0.060  0.9756   -2.9   6.658  177.3  0.0055   87.6  0.9990   -1.9
 0.065  0.9741   -3.2   6.672  177.4  0.0059   88.5  0.9989   -2.0
 0.070  0.9727   -3.6   6.686  177.5  0.0064   89.3  0.9988   -2.2
 0.075  0.9718   -3.7   6.672  177.2  0.0069   88.7  0.9987   -2.3
 0.080  0.9709   -3.9   6.658  176.8  0.0074   88.1  0.9987   -2.5
 0.085  0.9718   -4.2   6.669  176.6  0.0078   87.7  0.9985   -2.7
 0.090  0.9727   -4.5   6.681  176.4  0.0082   87.4  0.9984   -2.9
 0.095  0.9734   -4.7   6.679  176.1  0.0087   87.2  0.9982   -3.0
 0.100  0.9741   -4.9   6.677  175.8  0.0092   87.0  0.9981   -3.2
 0.105  0.9718   -5.2   6.694  175.6  0.0096   87.1  0.9980   -3.4
 0.110  0.9696   -5.5   6.712  175.4  0.0100   87.2  0.9979   -3.6
 0.115  0.9709   -5.8   6.700  175.4  0.0104   86.8  0.9978   -3.7
 0.120  0.9723   -6.0   6.689  175.3  0.0109   86.5  0.9978   -3.8
 0.125  0.9710   -6.2   6.690  175.1  0.0113   86.4  0.9977   -4.0
 0.130  0.9697   -6.4   6.692  174.9  0.0118   86.4  0.9976   -4.2
 0.135  0.9695   -6.6   6.689  174.7  0.0122   86.2  0.9973   -4.3
 0.140  0.9694   -6.9   6.686  174.5  0.0127   86.1  0.9970   -4.5
 0.145  0.9701   -7.2   6.687  174.3  0.0132   86.0  0.9969   -4.6
 0.150  0.9709   -7.5   6.688  174.1  0.0137   85.9  0.9968   -4.8
 0.155  0.9708   -7.7   6.687  173.9  0.0142   85.7  0.9965   -5.0
 0.160  0.9706   -8.0   6.685  173.7  0.0146   85.6  0.9963   -5.1
 0.165  0.9705   -8.2   6.684  173.5  0.0151   85.4  0.9961   -5.3
 0.170  0.9704   -8.5   6.683  173.3  0.0155   85.3  0.9958   -5.4
 0.175  0.9704   -8.7   6.681  173.1  0.0160   85.2  0.9956   -5.6
 0.180  0.9703   -9.0   6.680  172.9  0.0165   85.0  0.9954   -5.8
 0.185  0.9703   -9.2   6.679  172.7  0.0169   84.9  0.9952   -5.9
 0.190  0.9703   -9.5   6.679  172.5  0.0174   84.8  0.9950   -6.1
 0.195  0.9703   -9.7   6.678  172.3  0.0178   84.7  0.9948   -6.2
 0.200  0.9703  -10.0   6.677  172.1  0.0183   84.6  0.9946   -6.4
 0.220  0.9684  -11.0   6.672  171.3  0.0201   84.0  0.9935   -7.0
 0.240  0.9668  -11.9   6.667  170.4  0.0220   83.4  0.9926   -7.7
 0.260  0.9657  -12.9   6.665  169.6  0.0238   82.9  0.9915   -8.3
 0.280  0.9650  -13.9   6.664  168.8  0.0256   82.2  0.9901   -9.0
 0.300  0.9646  -14.9   6.664  168.0  0.0274   81.7  0.9889   -9.6
 0.320  0.9637  -15.9   6.660  167.2  0.0292   81.0  0.9872  -10.2
 0.340  0.9632  -17.0   6.657  166.4  0.0311   80.4  0.9857  -10.9
 0.360  0.9622  -18.0   6.652  165.6  0.0329   79.7  0.9840  -11.5
 0.380  0.9610  -19.1   6.644  164.8  0.0348   79.1  0.9820  -12.1
 0.400  0.9600  -20.1   6.637  164.0  0.0366   78.5  0.9802  -12.7
 0.420  0.9580  -21.1   6.619  163.2  0.0384   77.9  0.9782  -13.3
 0.440  0.9563  -22.0   6.603  162.3  0.0403   77.4  0.9764  -14.0
 0.450  0.9555  -22.5   6.595  161.9  0.0412   77.1  0.9755  -14.3
 0.460  0.9545  -23.0   6.590  161.5  0.0421   76.7  0.9743  -14.6
 0.480  0.9526  -24.0   6.581  160.7  0.0439   76.0  0.9719  -15.3
 0.500  0.9510  -25.0   6.573  159.9  0.0457   75.4  0.9696  -15.9
 0.520  0.9485  -26.0   6.555  159.1  0.0475   74.7  0.9669  -16.5
 0.540  0.9464  -27.0   6.538  158.4  0.0493   74.0  0.9643  -17.1
 0.560  0.9445  -28.0   6.522  157.6  0.0511   73.3  0.9618  -17.8
 0.580  0.9429  -29.0   6.507  156.8  0.0529   72.8  0.9594  -18.4
 0.600  0.9416  -30.0   6.494  156.0  0.0547   72.2  0.9571  -19.0
 0.620  0.9385  -31.0   6.477  155.2  0.0564   71.5  0.9538  -19.6
 0.640  0.9358  -32.0   6.461  154.4  0.0581   70.8  0.9506  -20.2
 0.660  0.9333  -33.0   6.446  153.6  0.0598   70.2  0.9475  -20.8
 0.680  0.9312  -34.1   6.432  152.8  0.0616   69.6  0.9446  -21.4
 0.700  0.9293  -35.1   6.420  152.0  0.0633   69.0  0.9417  -22.0
 0.720  0.9264  -36.1   6.396  151.2  0.0649   68.3  0.9382  -22.6
 0.740  0.9237  -37.1   6.374  150.5  0.0666   67.6  0.9349  -23.1
 0.760  0.9214  -38.1   6.352  149.7  0.0683   67.0  0.9316  -23.7
 0.780  0.9193  -39.1   6.332  148.9  0.0699   66.4  0.9284  -24.3
 0.800  0.9175  -40.1   6.313  148.1  0.0716   65.8  0.9253  -24.9
 0.820  0.9141  -41.0   6.288  147.4  0.0732   65.1  0.9215  -25.5
 0.840  0.9110  -42.0   6.264  146.6  0.0747   64.5  0.9177  -26.0
 0.860  0.9081  -43.0   6.241  145.9  0.0763   63.9  0.9141  -26.6
 0.880  0.9055  -43.9   6.219  145.2  0.0779   63.3  0.9106  -27.2
 0.900  0.9031  -44.9   6.198  144.4  0.0795   62.7  0.9071  -27.8
 0.920  0.8996  -45.9   6.174  143.7  0.0810   62.1  0.9034  -28.3
 0.940  0.8963  -46.8   6.151  143.0  0.0825   61.4  0.8998  -28.9
 0.960  0.8933  -47.8   6.128  142.3  0.0840   60.8  0.8963  -29.4
 0.980  0.8905  -48.8   6.107  141.5  0.0855   60.3  0.8929  -30.0
 1.000  0.8880  -49.8   6.087  140.8  0.0870   59.7  0.8895  -30.5
 1.020  0.8846  -50.7   6.062  140.1  0.0884   59.1  0.8856  -31.0
 1.040  0.8815  -51.7   6.037  139.4  0.0898   58.5  0.8818  -31.6
 1.060  0.8786  -52.6   6.013  138.7  0.0912   57.9  0.8780  -32.1
 1.080  0.8760  -53.5   5.991  137.9  0.0927   57.3  0.8744  -32.7
 1.100  0.8736  -54.5   5.969  137.2  0.0941   56.8  0.8708  -33.2
 1.120  0.8699  -55.4   5.944  136.5  0.0954   56.2  0.8667  -33.7
 1.140  0.8664  -56.4   5.920  135.8  0.0967   55.6  0.8626  -34.2
 1.160  0.8632  -57.4   5.897  135.1  0.0980   55.0  0.8586  -34.7
 1.180  0.8602  -58.3   5.875  134.4  0.0994   54.4  0.8547  -35.3
 1.200  0.8575  -59.3   5.854  133.7  0.1007   53.9  0.8509  -35.8
 1.220  0.8544  -60.2   5.829  133.1  0.1020   53.4  0.8471  -36.3
 1.240  0.8516  -61.1   5.805  132.5  0.1033   52.9  0.8433  -36.8
 1.260  0.8489  -62.0   5.782  131.9  0.1046   52.4  0.8396  -37.3
 1.280  0.8464  -62.9   5.759  131.2  0.1059   51.9  0.8360  -37.8
 1.300  0.8442  -63.8   5.737  130.6  0.1072   51.4  0.8324  -38.3
 1.320  0.8411  -64.7   5.716  130.0  0.1084   50.8  0.8284  -38.8
 1.340  0.8381  -65.7   5.695  129.3  0.1097   50.2  0.8244  -39.3
 1.360  0.8355  -66.7   5.675  128.7  0.1109   49.7  0.8206  -39.8
 1.380  0.8330  -67.6   5.656  128.0  0.1122   49.1  0.8167  -40.4
 1.400  0.8308  -68.6   5.637  127.4  0.1135   48.6  0.8130  -40.9
 1.420  0.8271  -69.5   5.614  126.8  0.1146   48.1  0.8089  -41.4
 1.440  0.8236  -70.4   5.591  126.1  0.1158   47.5  0.8049  -41.9
 1.460  0.8204  -71.3   5.569  125.4  0.1169   47.0  0.8010  -42.4
 1.480  0.8173  -72.2   5.548  124.8  0.1180   46.5  0.7971  -42.9
 1.500  0.8144  -73.1   5.527  124.1  0.1192   46.0  0.7933  -43.4
 1.520  0.8110  -74.0   5.506  123.5  0.1203   45.5  0.7890  -43.9
 1.540  0.8078  -75.0   5.486  122.9  0.1213   45.0  0.7847  -44.3
 1.560  0.8049  -76.0   5.467  122.3  0.1224   44.5  0.7805  -44.8
 1.580  0.8022  -76.9   5.448  121.6  0.1235   44.1  0.7764  -45.3
 1.600  0.7997  -77.9   5.430  121.0  0.1246   43.6  0.7723  -45.8
 1.620  0.7962  -78.8   5.408  120.4  0.1257   43.1  0.7685  -46.3
 1.640  0.7929  -79.8   5.386  119.8  0.1268   42.6  0.7647  -46.7
 1.660  0.7898  -80.7   5.365  119.2  0.1279   42.1  0.7610  -47.2
 1.680  0.7870  -81.6   5.345  118.5  0.1290   41.7  0.7573  -47.6
 1.700  0.7843  -82.6   5.325  117.9  0.1301   41.2  0.7537  -48.1
 1.720  0.7811  -83.5   5.303  117.3  0.1310   40.7  0.7492  -48.6
 1.740  0.7781  -84.4   5.282  116.6  0.1320   40.1  0.7447  -49.0
 1.760  0.7753  -85.3   5.262  116.0  0.1329   39.6  0.7403  -49.5
 1.780  0.7727  -86.2   5.242  115.3  0.1339   39.1  0.7359  -50.0
 1.800  0.7703  -87.1   5.223  114.7  0.1349   38.6  0.7316  -50.5
 1.820  0.7669  -88.0   5.201  114.1  0.1358   38.1  0.7275  -50.9
 1.840  0.7637  -89.0   5.179  113.5  0.1367   37.7  0.7235  -51.4
 1.860  0.7607  -89.9   5.158  112.9  0.1376   37.2  0.7196  -51.9
 1.880  0.7579  -90.8   5.138  112.3  0.1385   36.7  0.7157  -52.3
 1.900  0.7553  -91.8   5.118  111.7  0.1394   36.3  0.7118  -52.8
 1.920  0.7519  -92.7   5.096  111.1  0.1402   35.8  0.7073  -53.3
 1.940  0.7486  -93.6   5.076  110.5  0.1410   35.3  0.7028  -53.7
 1.960  0.7455  -94.5   5.055  109.9  0.1418   34.8  0.6984  -54.2
 1.980  0.7427  -95.5   5.035  109.3  0.1427   34.3  0.6940  -54.7
 2.000  0.7400  -96.4   5.016  108.7  0.1435   33.8  0.6897  -55.2
 2.020  0.7364  -97.3   4.992  108.2  0.1442   33.3  0.6853  -55.6
 2.040  0.7330  -98.2   4.968  107.6  0.1448   32.9  0.6809  -56.0
 2.060  0.7297  -99.1   4.945  107.0  0.1455   32.4  0.6766  -56.4
 2.080  0.7266 -100.0   4.922  106.5  0.1462   32.0  0.6723  -56.8
 2.100  0.7237 -100.9   4.899  105.9  0.1469   31.5  0.6680  -57.2
 2.120  0.7210 -101.8   4.878  105.3  0.1476   31.1  0.6638  -57.7
 2.140  0.7185 -102.7   4.856  104.8  0.1483   30.7  0.6596  -58.1
 2.160  0.7161 -103.6   4.835  104.2  0.1490   30.2  0.6554  -58.5
 2.180  0.7140 -104.6   4.815  103.6  0.1498   29.8  0.6513  -59.0
 2.200  0.7120 -105.5   4.795  103.0  0.1505   29.4  0.6472  -59.4
 2.220  0.7087 -106.4   4.772  102.5  0.1511   29.0  0.6432  -59.8
 2.240  0.7055 -107.2   4.749  101.9  0.1517   28.5  0.6391  -60.2
 2.260  0.7025 -108.1   4.726  101.3  0.1522   28.1  0.6352  -60.6
 2.280  0.6997 -109.0   4.704  100.8  0.1528   27.7  0.6312  -61.1
 2.300  0.6970 -109.9   4.682  100.2  0.1534   27.3  0.6273  -61.5
 2.320  0.6946 -110.8   4.661   99.6  0.1541   26.8  0.6234  -61.9
 2.340  0.6923 -111.7   4.640   99.1  0.1547   26.4  0.6196  -62.4
 2.360  0.6901 -112.7   4.620   98.5  0.1553   26.0  0.6158  -62.8
 2.380  0.6882 -113.6   4.600   97.9  0.1560   25.6  0.6120  -63.2
 2.400  0.6864 -114.5   4.581   97.3  0.1566   25.2  0.6083  -63.7
 2.420  0.6835 -115.4   4.561   96.8  0.1571   24.8  0.6044  -64.1
 2.440  0.6807 -116.2   4.541   96.3  0.1576   24.4  0.6004  -64.5
 2.460  0.6781 -117.1   4.521   95.7  0.1581   24.0  0.5966  -64.9
 2.480  0.6756 -118.0   4.502   95.2  0.1587   23.6  0.5927  -65.3
 2.500  0.6733 -118.9   4.484   94.7  0.1592   23.2  0.5889  -65.7
 2.520  0.6712 -119.8   4.465   94.1  0.1597   22.8  0.5851  -66.1
 2.540  0.6692 -120.7   4.447   93.6  0.1603   22.4  0.5813  -66.5
 2.560  0.6674 -121.6   4.430   93.0  0.1609   22.0  0.5776  -66.9
 2.580  0.6658 -122.5   4.413   92.5  0.1614   21.6  0.5739  -67.4
 2.600  0.6643 -123.4   4.396   91.9  0.1620   21.2  0.5702  -67.8
 2.620  0.6617 -124.3   4.375   91.4  0.1624   20.8  0.5664  -68.2
 2.640  0.6592 -125.1   4.355   90.9  0.1628   20.4  0.5627  -68.5
 2.660  0.6569 -126.0   4.335   90.4  0.1633   20.0  0.5590  -68.9
 2.680  0.6547 -126.9   4.316   89.9  0.1637   19.6  0.5553  -69.3
 2.700  0.6527 -127.8   4.297   89.4  0.1642   19.2  0.5516  -69.7
 2.720  0.6508 -128.7   4.278   88.8  0.1646   18.8  0.5480  -70.1
 2.740  0.6491 -129.6   4.259   88.3  0.1651   18.4  0.5444  -70.5
 2.760  0.6476 -130.5   4.241   87.8  0.1655   18.1  0.5408  -70.9
 2.780  0.6462 -131.4   4.223   87.2  0.1660   17.7  0.5372  -71.3
 2.800  0.6450 -132.3   4.206   86.7  0.1665   17.3  0.5337  -71.7
 2.820  0.6424 -133.2   4.186   86.2  0.1668   16.9  0.5299  -72.1
 2.840  0.6399 -134.0   4.167   85.7  0.1671   16.6  0.5261  -72.4
 2.860  0.6375 -134.9   4.148   85.2  0.1674   16.2  0.5224  -72.8
 2.880  0.6353 -135.8   4.129   84.7  0.1677   15.8  0.5187  -73.2
 2.900  0.6333 -136.6   4.110   84.2  0.1680   15.5  0.5150  -73.6
 2.920  0.6314 -137.5   4.092   83.6  0.1683   15.1  0.5113  -74.0
 2.940  0.6296 -138.4   4.074   83.1  0.1687   14.8  0.5076  -74.4
 2.960  0.6280 -139.3   4.057   82.6  0.1690   14.4  0.5040  -74.8
 2.980  0.6266 -140.2   4.040   82.0  0.1694   14.1  0.5004  -75.2
 3.000  0.6253 -141.1   4.023   81.5  0.1697   13.7  0.4968  -75.6
 3.100  0.6126 -145.2   3.925   79.3  0.1706   12.0  0.4787  -77.3
 3.200  0.6031 -149.4   3.832   77.1  0.1717   10.2  0.4610  -79.2
 3.300  0.5970 -153.7   3.746   74.7  0.1729    8.5  0.4439  -81.3
 3.400  0.5943 -158.1   3.666   72.2  0.1743    6.8  0.4274  -83.4
 3.500  0.5951 -162.5   3.594   69.6  0.1758    5.2  0.4115  -85.8
 3.600  0.5889 -166.4   3.508   67.6  0.1759    3.7  0.3952  -87.7
 3.700  0.5855 -170.3   3.427   65.5  0.1761    2.1  0.3794  -89.7
 3.800  0.5848 -174.3   3.351   63.2  0.1765    0.6  0.3641  -91.9
 3.900  0.5870 -178.3   3.280   60.9  0.1770   -0.9  0.3493  -94.2
 4.000  0.5920  177.8   3.215   58.5  0.1776   -2.4  0.3352  -96.8
 4.100  0.5903  174.6   3.141   56.7  0.1771   -3.7  0.3224  -98.8
 4.200  0.5904  171.4   3.071   54.7  0.1767   -5.0  0.3100 -100.9
 4.300  0.5924  168.2   3.004   52.7  0.1764   -6.3  0.2981 -103.2
 4.400  0.5962  165.0   2.942   50.6  0.1761   -7.7  0.2866 -105.6
 4.500  0.6018  161.9   2.883   48.4  0.1760   -9.0  0.2758 -108.3
 4.600  0.6001  159.3   2.821   46.7  0.1753  -10.1  0.2663 -110.0
 4.700  0.5997  156.6   2.761   44.9  0.1746  -11.1  0.2570 -111.8
 4.800  0.6005  154.0   2.704   43.0  0.1740  -12.2  0.2480 -113.7
 4.900  0.6026  151.4   2.651   41.0  0.1734  -13.3  0.2393 -115.8
 5.000  0.6059  148.8   2.600   39.0  0.1729  -14.4  0.2309 -118.0
 5.100  0.6039  146.4   2.545   37.4  0.1722  -15.3  0.2225 -119.6
 5.200  0.6029  144.0   2.492   35.7  0.1716  -16.2  0.2142 -121.2
 5.300  0.6029  141.7   2.441   33.9  0.1710  -17.1  0.2061 -123.0
 5.400  0.6041  139.3   2.393   32.0  0.1704  -18.1  0.1983 -125.0
 5.500  0.6062  136.9   2.347   30.1  0.1699  -19.0  0.1907 -127.1
 5.600  0.6064  134.8   2.301   28.6  0.1693  -19.8  0.1835 -129.1
 5.700  0.6073  132.7   2.256   27.1  0.1687  -20.5  0.1765 -131.3
 5.800  0.6091  130.6   2.213   25.5  0.1682  -21.3  0.1699 -133.7
 5.900  0.6117  128.6   2.172   23.9  0.1677  -22.1  0.1635 -136.2
 6.000  0.6151  126.5   2.133   22.2  0.1672  -22.9  0.1575 -139.0
 6.100  0.6184  124.8   2.097   20.8  0.1667  -23.6  0.1529 -141.8
 6.200  0.6222  123.2   2.063   19.3  0.1662  -24.3  0.1486 -144.8
 6.300  0.6265  121.5   2.030   17.8  0.1658  -25.0  0.1448 -147.9
 6.400  0.6313  119.9   1.998   16.3  0.1654  -25.7  0.1415 -151.2
 6.500  0.6366  118.3   1.968   14.7  0.1650  -26.4  0.1386 -154.7
 6.600  0.6400  116.9   1.939   13.3  0.1647  -27.1  0.1359 -157.7
 6.800  0.6480  114.0   1.884   10.3  0.1641  -28.6  0.1318 -163.9
 7.000  0.6576  111.3   1.834    7.2  0.1636  -30.0  0.1293 -170.5
 7.200  0.6622  108.2   1.783    4.2  0.1628  -31.5  0.1254 -177.6
 7.400  0.6688  105.1   1.738    1.0  0.1621  -33.1  0.1236  174.9
 7.600  0.6749  101.8   1.690   -2.2  0.1612  -34.6  0.1223  167.0
 7.800  0.6810   98.3   1.641   -5.4  0.1602  -36.0  0.1218  158.6
 8.000  0.6897   94.8   1.597   -8.8  0.1592  -37.5  0.1240  150.3
 8.200  0.6943   90.7   1.542  -11.9  0.1575  -39.0  0.1272  140.9
 8.400  0.7023   86.8   1.492  -15.2  0.1559  -40.4  0.1336  132.1
 8.600  0.7114   82.9   1.440  -18.3  0.1543  -41.8  0.1434  123.6
 8.800  0.7214   79.1   1.386  -21.2  0.1526  -43.2  0.1566  115.7
 9.000  0.7345   75.5   1.335  -24.3  0.1510  -44.5  0.1724  109.2
 9.200  0.7474   72.8   1.282  -26.6  0.1487  -45.4  0.1932  103.7
 9.400  0.7619   70.2   1.231  -29.0  0.1464  -46.4  0.2153   99.4
 9.600  0.7762   68.4   1.187  -31.2  0.1445  -47.1  0.2374   96.7
 9.800  0.7894   67.3   1.150  -33.0  0.1428  -47.4  0.2586   95.3
10.000  0.8029   66.3   1.114  -35.0  0.1411  -47.8  0.2800   94.1
10.200  0.8094   66.3   1.088  -36.7  0.1405  -48.0  0.2950   94.5
10.400  0.8159   66.4   1.064  -38.5  0.1399  -48.3  0.3101   94.9
10.600  0.8188   66.3   1.043  -40.4  0.1399  -48.5  0.3215   95.6
10.800  0.8181   66.0   1.026  -42.5  0.1406  -48.8  0.3294   96.5
11.000  0.8174   65.8   1.011  -44.7  0.1413  -49.1  0.3374   97.3
11.200  0.8103   64.1   0.985  -47.4  0.1423  -49.9  0.3407   96.8
11.400  0.8039   62.3   0.962  -50.2  0.1434  -50.8  0.3440   96.3
11.600  0.7958   60.1   0.936  -52.7  0.1435  -51.8  0.3487   95.3
11.800  0.7866   57.6   0.906  -54.8  0.1428  -52.9  0.3548   93.9
12.000  0.7789   55.0   0.877  -57.1  0.1421  -54.0  0.3611   92.5
!
!  f       NFmin   Gammaopt  rn/50
! GHz       dB    MAG  ANG    -
 0.450      0.64  0.73    6   0.25
 0.900      0.68  0.65   14   0.24
 1.900      0.77  0.45   43   0.20
 2.400      0.88  0.39   62   0.19
 3.500      0.92  0.28   86   0.16
 5.500      1.51  0.26  176   0.13
10.000      2.39  0.65  -60   1.15
!
! (c) 2015  Infineon Technologies AG, Munich
