! Infineon Technologies  Discrete & RF Semiconductors
! BFP640
! VCE =  4.0 V,  IC =  18 mA
! Common Emitter S-Parameters:                            Apr 2013
# GHz  S  MA  R  50
!  f         S11            S21            S12            S22
! GHz     MAG   ANG      MAG   ANG      MAG   ANG      MAG   ANG
 0.030  0.7331   -3.6  41.267  175.5  0.0017   53.1  0.9728   -1.9
 0.040  0.7329   -4.9  41.116  174.6  0.0022   67.8  0.9740   -2.7
 0.050  0.7315   -6.3  41.357  173.8  0.0031   70.8  0.9747   -3.6
 0.060  0.7310   -7.7  41.136  172.6  0.0032   78.3  0.9730   -4.3
 0.070  0.7295   -9.0  41.001  171.7  0.0040   68.2  0.9725   -5.1
 0.080  0.7295  -10.3  40.777  170.6  0.0041   78.1  0.9712   -6.0
 0.090  0.7281  -11.7  40.612  169.6  0.0048   82.2  0.9709   -6.9
 0.100  0.7253  -12.9  40.519  168.7  0.0052   70.3  0.9679   -7.6
 0.110  0.7235  -14.4  40.540  167.6  0.0053   81.9  0.9663   -8.6
 0.120  0.7211  -15.6  40.356  166.5  0.0062   78.3  0.9632   -9.2
 0.130  0.7210  -16.9  40.149  165.5  0.0061   75.2  0.9604  -10.1
 0.140  0.7186  -18.2  39.908  164.6  0.0068   79.7  0.9581  -10.8
 0.150  0.7167  -19.5  39.810  163.6  0.0072   77.9  0.9537  -11.7
 0.200  0.7034  -25.9  38.901  158.5  0.0093   77.6  0.9359  -15.4
 0.250  0.6843  -32.2  37.996  153.6  0.0110   74.2  0.9122  -19.0
 0.300  0.6670  -38.1  36.717  149.0  0.0136   72.9  0.8862  -22.3
 0.350  0.6463  -43.9  35.446  144.6  0.0158   69.2  0.8585  -25.5
 0.400  0.6252  -49.5  34.124  140.5  0.0175   68.8  0.8281  -28.3
 0.450  0.6028  -54.8  32.818  136.5  0.0192   66.5  0.7996  -31.0
 0.500  0.5803  -60.1  31.490  132.9  0.0206   65.0  0.7681  -33.5
 0.600  0.5362  -70.0  28.949  126.2  0.0238   62.1  0.7098  -37.6
 0.700  0.4969  -78.8  26.529  120.5  0.0262   60.4  0.6545  -41.1
 0.800  0.4613  -87.3  24.361  115.4  0.0287   58.6  0.6053  -43.9
 0.900  0.4303  -95.3  22.475  110.9  0.0306   57.6  0.5588  -46.2
 1.000  0.4060 -102.4  20.718  107.1  0.0329   56.4  0.5197  -48.1
 1.100  0.3828 -109.4  19.221  103.5  0.0350   55.5  0.4844  -49.5
 1.200  0.3647 -115.8  17.875  100.4  0.0368   55.0  0.4537  -50.7
 1.300  0.3485 -122.0  16.701   97.5  0.0386   54.0  0.4270  -51.6
 1.400  0.3353 -128.0  15.678   94.8  0.0405   53.8  0.4032  -52.4
 1.500  0.3243 -133.5  14.755   92.4  0.0424   53.1  0.3822  -52.8
 1.600  0.3161 -139.0  13.935   90.0  0.0442   52.7  0.3639  -53.4
 1.700  0.3090 -144.3  13.197   87.8  0.0460   51.9  0.3450  -53.6
 1.800  0.3041 -149.2  12.528   85.7  0.0479   51.4  0.3302  -54.2
 1.900  0.3012 -154.0  11.935   83.7  0.0497   51.1  0.3147  -54.4
 2.000  0.2987 -158.4  11.373   81.8  0.0517   50.4  0.3022  -55.0
 2.100  0.2988 -162.8  10.864   79.8  0.0536   49.7  0.2892  -55.4
 2.200  0.2970 -167.0  10.403   78.0  0.0553   49.3  0.2775  -55.7
 2.300  0.2961 -171.2   9.979   76.2  0.0571   48.9  0.2665  -55.8
 2.400  0.2961 -175.0   9.586   74.5  0.0592   48.3  0.2567  -55.9
 2.500  0.2971 -178.8   9.218   72.8  0.0610   47.5  0.2472  -55.9
 2.600  0.2987  177.8   8.873   71.2  0.0625   47.1  0.2370  -56.1
 2.700  0.3007  174.2   8.562   69.5  0.0645   46.6  0.2276  -56.1
 2.800  0.3028  170.9   8.270   67.8  0.0665   45.9  0.2180  -56.3
 2.900  0.3065  167.8   7.995   66.3  0.0682   45.0  0.2092  -56.6
 3.000  0.3098  164.7   7.735   64.7  0.0700   44.6  0.1995  -57.0
 3.100  0.3139  161.8   7.492   63.2  0.0719   43.9  0.1913  -57.4
 3.200  0.3180  158.7   7.266   61.7  0.0739   43.2  0.1825  -58.0
 3.300  0.3232  156.0   7.051   60.1  0.0755   42.4  0.1747  -58.6
 3.400  0.3286  153.2   6.846   58.7  0.0775   41.7  0.1658  -59.4
 3.500  0.3340  150.7   6.647   57.2  0.0791   40.8  0.1578  -59.9
 3.600  0.3400  148.1   6.464   55.8  0.0808   40.1  0.1492  -60.7
 3.700  0.3462  145.8   6.290   54.3  0.0828   39.3  0.1403  -61.4
 3.800  0.3525  143.3   6.126   52.8  0.0846   38.6  0.1317  -62.3
 3.900  0.3588  141.1   5.965   51.4  0.0862   37.9  0.1233  -63.3
 4.000  0.3660  139.0   5.809   50.0  0.0879   37.0  0.1150  -64.7
 4.100  0.3717  136.9   5.664   48.6  0.0895   36.2  0.1070  -66.0
 4.200  0.3793  134.9   5.523   47.3  0.0911   35.4  0.0995  -67.7
 4.300  0.3852  133.0   5.392   45.8  0.0928   34.6  0.0923  -69.3
 4.400  0.3931  131.3   5.261   44.5  0.0944   33.8  0.0855  -70.8
 4.500  0.3984  129.6   5.139   43.2  0.0960   33.0  0.0788  -72.4
 4.600  0.4058  128.1   5.021   41.8  0.0975   32.2  0.0723  -74.1
 4.700  0.4111  126.5   4.907   40.6  0.0991   31.6  0.0656  -75.5
 4.800  0.4182  125.1   4.801   39.2  0.1008   30.7  0.0597  -77.2
 4.900  0.4231  123.6   4.694   37.9  0.1023   30.0  0.0538  -78.4
 5.000  0.4293  122.4   4.597   36.7  0.1040   29.2  0.0481  -79.8
 5.100  0.4339  121.0   4.500   35.4  0.1055   28.4  0.0428  -81.2
 5.200  0.4388  119.8   4.411   34.1  0.1070   27.7  0.0376  -81.6
 5.300  0.4431  118.6   4.319   32.9  0.1086   26.9  0.0324  -82.4
 5.400  0.4476  117.5   4.234   31.7  0.1101   26.1  0.0277  -81.9
 5.500  0.4512  116.3   4.151   30.4  0.1116   25.3  0.0224  -81.0
 5.600  0.4547  115.2   4.074   29.2  0.1131   24.6  0.0178  -78.9
 5.700  0.4573  114.2   3.998   28.0  0.1148   23.9  0.0124  -72.9
 5.800  0.4614  113.0   3.927   26.8  0.1163   23.1  0.0083  -63.8
 5.900  0.4648  112.2   3.858   25.6  0.1180   22.4  0.0046  -35.5
 6.000  0.4680  111.0   3.794   24.4  0.1196   21.5  0.0039   30.1
 6.100  0.4729  110.2   3.732   23.2  0.1215   20.8  0.0074   65.4
 6.200  0.4747  109.1   3.672   22.1  0.1230   19.9  0.0113   77.9
 6.300  0.4802  108.1   3.614   20.8  0.1247   19.1  0.0162   82.3
 6.400  0.4828  107.0   3.559   19.6  0.1263   18.1  0.0207   85.9
 6.500  0.4878  105.7   3.504   18.3  0.1280   17.2  0.0259   87.4
 6.600  0.4910  104.5   3.449   17.0  0.1296   16.3  0.0310   88.8
 6.700  0.4958  103.3   3.398   15.8  0.1310   15.5  0.0358   88.4
 6.800  0.4998  102.1   3.345   14.6  0.1324   14.6  0.0406   89.2
 6.900  0.5044  100.9   3.294   13.3  0.1338   13.6  0.0459   89.3
 7.000  0.5084   99.5   3.248   12.0  0.1355   12.7  0.0507   90.4
 7.100  0.5134   98.3   3.200   10.7  0.1368   11.8  0.0560   90.5
 7.200  0.5175   97.0   3.153    9.5  0.1382   10.9  0.0609   90.9
 7.300  0.5224   95.8   3.109    8.2  0.1395    9.8  0.0661   90.5
 7.400  0.5270   94.4   3.063    6.9  0.1411    8.9  0.0711   90.2
 7.500  0.5330   93.1   3.018    5.6  0.1422    7.9  0.0774   89.2
 7.600  0.5383   91.7   2.974    4.3  0.1434    6.9  0.0836   89.2
 7.700  0.5450   90.5   2.931    3.0  0.1447    6.0  0.0896   88.2
 7.800  0.5512   89.1   2.886    1.7  0.1458    5.0  0.0960   87.3
 7.900  0.5583   87.9   2.842    0.4  0.1469    4.0  0.1037   86.2
 8.000  0.5649   86.6   2.799   -0.9  0.1478    3.1  0.1109   85.5
 8.500  0.6033   80.5   2.584   -7.3  0.1521   -1.8  0.1544   79.5
 9.000  0.6431   74.9   2.373  -13.2  0.1547   -6.4  0.2090   75.5
 9.500  0.6832   70.2   2.175  -18.3  0.1557  -10.3  0.2664   73.1
10.000  0.7177   66.6   2.009  -22.6  0.1569  -13.5  0.3149   72.7
!
!  f       NFmin   Gammaopt  rn/50
! GHz       dB    MAG  ANG    -
!
! noise parameter not available yet for this operation point!
!
! (c) 2013  Infineon Technologies AG, Munich
