! Infineon Technologies  Discrete & RF Semiconductors
! BFP640
! VCE =  4.0 V,  IC =  10 mA
! Common Emitter S-Parameters:                            Apr 2013
# GHz  S  MA  R  50
!  f         S11            S21            S12            S22
! GHz     MAG   ANG      MAG   ANG      MAG   ANG      MAG   ANG
 0.030  0.8530   -2.7  26.535  176.7  0.0012   62.8  0.9832   -1.5
 0.040  0.8530   -3.6  26.469  176.0  0.0018   65.5  0.9833   -2.0
 0.050  0.8530   -4.5  26.708  175.5  0.0027   86.1  0.9830   -2.7
 0.060  0.8505   -5.4  26.668  174.5  0.0030   85.0  0.9835   -3.1
 0.070  0.8518   -6.4  26.570  173.9  0.0044   77.7  0.9831   -3.8
 0.080  0.8499   -7.3  26.496  173.1  0.0045   78.9  0.9824   -4.3
 0.090  0.8502   -8.2  26.338  172.4  0.0045   76.5  0.9825   -4.9
 0.100  0.8484   -9.2  26.369  171.7  0.0050   79.0  0.9821   -5.5
 0.110  0.8467  -10.2  26.376  170.9  0.0059   78.9  0.9803   -6.1
 0.120  0.8452  -11.1  26.387  170.1  0.0066   73.0  0.9786   -6.6
 0.130  0.8457  -12.0  26.228  169.4  0.0068   74.8  0.9769   -7.2
 0.140  0.8446  -12.9  26.154  168.7  0.0068   77.7  0.9761   -7.8
 0.150  0.8438  -13.8  26.033  168.0  0.0079   83.2  0.9738   -8.4
 0.200  0.8360  -18.5  25.768  164.3  0.0104   77.8  0.9652  -11.1
 0.250  0.8254  -23.0  25.483  160.5  0.0129   75.6  0.9537  -13.7
 0.300  0.8143  -27.5  25.046  156.9  0.0155   74.6  0.9397  -16.3
 0.350  0.8008  -31.9  24.569  153.4  0.0178   72.9  0.9242  -19.0
 0.400  0.7867  -36.2  24.081  150.0  0.0201   71.2  0.9049  -21.5
 0.450  0.7706  -40.5  23.535  146.7  0.0223   70.0  0.8886  -23.8
 0.500  0.7537  -44.6  22.994  143.6  0.0242   67.9  0.8671  -26.1
 0.600  0.7153  -53.0  21.943  137.3  0.0282   64.8  0.8245  -30.2
 0.700  0.6794  -60.6  20.730  131.8  0.0314   61.7  0.7793  -34.1
 0.800  0.6398  -68.4  19.660  126.5  0.0349   58.9  0.7376  -37.2
 0.900  0.6052  -75.5  18.560  121.8  0.0375   56.5  0.6941  -40.2
 1.000  0.5737  -82.0  17.444  117.6  0.0401   54.4  0.6544  -42.7
 1.100  0.5424  -88.5  16.456  113.6  0.0421   52.6  0.6163  -44.9
 1.200  0.5171  -94.3  15.488  110.1  0.0442   51.0  0.5828  -46.8
 1.300  0.4905 -100.2  14.661  106.7  0.0464   49.6  0.5540  -48.2
 1.400  0.4690 -105.9  13.901  103.5  0.0483   48.2  0.5255  -49.7
 1.500  0.4488 -111.3  13.198  100.7  0.0501   47.2  0.4998  -50.8
 1.600  0.4310 -116.8  12.577   97.8  0.0518   46.5  0.4775  -51.9
 1.700  0.4168 -122.0  11.977   95.3  0.0536   45.7  0.4543  -52.8
 1.800  0.4040 -127.1  11.436   92.8  0.0553   44.4  0.4352  -53.8
 1.900  0.3944 -132.0  10.944   90.5  0.0566   44.0  0.4141  -54.5
 2.000  0.3858 -136.7  10.477   88.3  0.0582   43.2  0.3982  -55.4
 2.100  0.3796 -141.4  10.039   86.0  0.0600   42.5  0.3811  -56.2
 2.200  0.3722 -145.9   9.645   83.9  0.0615   41.8  0.3672  -56.8
 2.300  0.3657 -150.6   9.286   81.8  0.0633   41.2  0.3527  -57.3
 2.400  0.3614 -154.7   8.934   79.9  0.0646   40.6  0.3390  -57.8
 2.500  0.3575 -159.1   8.616   77.9  0.0661   40.1  0.3261  -58.2
 2.600  0.3559 -163.0   8.306   76.1  0.0677   39.3  0.3132  -58.6
 2.700  0.3533 -167.3   8.032   74.2  0.0694   38.7  0.3019  -58.9
 2.800  0.3525 -171.2   7.771   72.4  0.0708   38.1  0.2896  -59.4
 2.900  0.3522 -175.1   7.530   70.5  0.0724   37.6  0.2785  -59.9
 3.000  0.3526 -178.8   7.292   68.9  0.0740   37.1  0.2658  -60.5
 3.100  0.3538  177.6   7.070   67.1  0.0756   36.3  0.2568  -61.1
 3.200  0.3556  174.0   6.866   65.4  0.0773   35.7  0.2455  -61.8
 3.300  0.3581  170.6   6.670   63.7  0.0788   35.0  0.2361  -62.5
 3.400  0.3618  167.2   6.481   62.1  0.0802   34.4  0.2248  -63.3
 3.500  0.3654  164.2   6.298   60.5  0.0818   33.7  0.2157  -63.8
 3.600  0.3695  161.0   6.127   58.9  0.0832   33.1  0.2055  -64.7
 3.700  0.3741  158.0   5.965   57.3  0.0847   32.4  0.1963  -65.4
 3.800  0.3789  155.0   5.815   55.7  0.0863   31.7  0.1862  -66.4
 3.900  0.3840  152.3   5.666   54.1  0.0876   31.0  0.1764  -67.3
 4.000  0.3903  149.8   5.515   52.7  0.0891   30.5  0.1673  -68.6
 4.100  0.3949  147.1   5.381   51.1  0.0906   29.6  0.1588  -69.7
 4.200  0.4017  144.7   5.248   49.6  0.0921   29.0  0.1509  -71.1
 4.300  0.4065  142.2   5.128   48.1  0.0933   28.2  0.1429  -72.3
 4.400  0.4140  140.1   5.003   46.6  0.0947   27.7  0.1349  -73.4
 4.500  0.4185  138.0   4.887   45.2  0.0961   26.9  0.1278  -74.5
 4.600  0.4258  136.1   4.776   43.8  0.0973   26.2  0.1215  -75.7
 4.700  0.4306  134.2   4.666   42.4  0.0987   25.6  0.1141  -76.7
 4.800  0.4369  132.4   4.567   41.0  0.1001   24.8  0.1076  -77.9
 4.900  0.4418  130.7   4.464   39.6  0.1014   24.2  0.1010  -78.6
 5.000  0.4476  129.1   4.371   38.3  0.1028   23.6  0.0949  -79.4
 5.100  0.4521  127.5   4.279   36.9  0.1041   22.8  0.0899  -80.2
 5.200  0.4568  126.0   4.195   35.6  0.1054   22.2  0.0841  -80.5
 5.300  0.4607  124.5   4.108   34.3  0.1065   21.5  0.0784  -80.9
 5.400  0.4651  123.1   4.027   33.0  0.1081   21.0  0.0730  -81.0
 5.500  0.4685  121.8   3.947   31.7  0.1094   20.2  0.0678  -80.8
 5.600  0.4720  120.5   3.875   30.4  0.1106   19.6  0.0631  -80.5
 5.700  0.4746  119.3   3.799   29.2  0.1122   18.9  0.0577  -79.7
 5.800  0.4785  117.9   3.734   27.9  0.1135   18.2  0.0531  -79.2
 5.900  0.4818  116.9   3.667   26.7  0.1150   17.7  0.0480  -78.3
 6.000  0.4845  115.6   3.611   25.4  0.1164   17.0  0.0429  -77.8
 6.100  0.4899  114.7   3.548   24.2  0.1180   16.2  0.0386  -77.4
 6.200  0.4914  113.4   3.492   23.0  0.1194   15.4  0.0339  -77.6
 6.300  0.4967  112.2   3.437   21.7  0.1211   14.8  0.0282  -76.4
 6.400  0.4991  110.9   3.386   20.4  0.1224   13.9  0.0234  -76.5
 6.500  0.5039  109.6   3.332   19.1  0.1238   13.1  0.0188  -74.9
 6.600  0.5072  108.3   3.281   17.7  0.1252   12.3  0.0134  -72.3
 6.700  0.5116  107.0   3.232   16.5  0.1265   11.5  0.0087  -65.3
 6.800  0.5154  105.5   3.184   15.2  0.1280   10.7  0.0037  -40.7
 6.900  0.5200  104.2   3.137   13.9  0.1293    9.9  0.0036   48.8
 7.000  0.5235  102.7   3.091   12.5  0.1307    9.0  0.0076   81.9
 7.100  0.5287  101.4   3.045   11.3  0.1320    8.2  0.0122   87.8
 7.200  0.5327  100.0   3.001   10.0  0.1332    7.3  0.0174   90.8
 7.300  0.5372   98.7   2.959    8.6  0.1345    6.5  0.0228   90.4
 7.400  0.5415   97.2   2.917    7.3  0.1358    5.6  0.0283   90.7
 7.500  0.5474   95.8   2.874    6.0  0.1368    4.7  0.0342   89.1
 7.600  0.5524   94.3   2.833    4.6  0.1381    3.9  0.0401   89.8
 7.700  0.5593   93.0   2.790    3.3  0.1392    2.9  0.0459   88.2
 7.800  0.5652   91.5   2.748    2.0  0.1403    2.0  0.0527   87.2
 7.900  0.5718   90.2   2.709    0.6  0.1412    1.1  0.0603   85.7
 8.000  0.5783   88.8   2.667   -0.7  0.1421    0.3  0.0672   84.9
 8.500  0.6158   82.2   2.463   -7.3  0.1461   -4.3  0.1097   78.5
 9.000  0.6540   76.2   2.265  -13.3  0.1485   -8.6  0.1640   75.1
 9.500  0.6923   71.3   2.077  -18.6  0.1497  -12.2  0.2217   73.5
10.000  0.7251   67.6   1.921  -23.1  0.1509  -15.2  0.2698   73.9
!
!  f       NFmin   Gammaopt  rn/50
! GHz       dB    MAG  ANG    -
 0.450      0.64  0.26   10   0.04
 0.900      0.66  0.25   17   0.05
 1.500      0.67  0.22   29   0.06
 1.900      0.70  0.18   48   0.07
 2.400      0.74  0.16   59   0.07
 3.500      0.87  0.13   71   0.09
 5.500      1.09  0.21 -128   0.10
10.000      1.66  0.58  -60   0.40
!
! (c) 2013  Infineon Technologies AG, Munich
