! Infineon Technologies  Discrete & RF Semiconductors
! BFP620F
! VCE =  0.8 V,  IC =  55 mA
! Common Emitter S-Parameters:                            Dec 2014
# GHz  S  MA  R  50
!  f         S11            S21            S12            S22
! GHz     MAG   ANG      MAG   ANG      MAG   ANG      MAG   ANG
 0.030  0.3291  -19.5  41.850  174.2  0.0037   91.9  0.8925   -6.6
 0.040  0.3349  -24.9  42.998  172.5  0.0041   83.9  0.8949  -10.1
 0.050  0.3480  -29.9  45.031  169.8  0.0053   82.5  0.8954  -13.3
 0.060  0.3590  -35.1  46.260  167.1  0.0062   83.6  0.8908  -16.4
 0.070  0.3658  -40.5  46.685  163.6  0.0079   83.4  0.8870  -19.6
 0.080  0.3711  -45.6  46.332  160.4  0.0079   78.7  0.8819  -22.7
 0.090  0.3747  -50.9  45.337  157.7  0.0088   82.0  0.8766  -26.0
 0.100  0.3745  -55.9  44.130  155.2  0.0104   78.5  0.8669  -29.2
 0.110  0.3779  -60.5  42.935  152.9  0.0104   74.2  0.8540  -32.4
 0.120  0.3812  -65.3  42.068  150.9  0.0113   75.0  0.8368  -35.5
 0.130  0.3855  -69.3  41.758  149.1  0.0121   73.1  0.8178  -38.5
 0.140  0.3903  -72.8  41.719  147.2  0.0132   72.7  0.7978  -41.1
 0.150  0.3961  -76.1  41.886  145.3  0.0142   69.7  0.7816  -43.4
 0.200  0.4159  -91.3  39.504  135.6  0.0170   65.9  0.7055  -54.8
 0.250  0.4179 -103.4  37.696  128.3  0.0196   64.4  0.6299  -64.3
 0.300  0.4169 -112.6  35.372  121.8  0.0218   62.9  0.5693  -72.5
 0.350  0.4153 -120.5  32.326  116.9  0.0238   63.1  0.5203  -79.8
 0.400  0.4038 -126.7  30.554  113.0  0.0258   62.3  0.4695  -86.3
 0.450  0.3988 -131.2  28.366  109.4  0.0277   63.3  0.4400  -91.6
 0.500  0.3908 -136.0  26.279  106.8  0.0299   62.7  0.4080  -97.3
 0.600  0.3837 -143.6  22.855  102.3  0.0335   63.1  0.3601 -106.8
 0.700  0.3799 -149.9  19.987   98.7  0.0371   63.8  0.3285 -115.1
 0.800  0.3789 -155.0  17.752   95.8  0.0410   64.0  0.3035 -122.6
 0.900  0.3773 -159.5  15.910   93.3  0.0449   64.5  0.2856 -129.6
 1.000  0.3788 -163.3  14.416   91.1  0.0489   64.6  0.2723 -135.9
 1.100  0.3786 -166.9  13.138   89.2  0.0526   64.7  0.2631 -142.0
 1.200  0.3816 -169.8  12.084   87.4  0.0566   64.8  0.2565 -147.2
 1.300  0.3826 -172.7  11.167   85.8  0.0605   64.6  0.2517 -152.5
 1.400  0.3859 -175.2  10.387   84.3  0.0646   64.4  0.2492 -157.1
 1.500  0.3872 -177.6   9.694   82.8  0.0683   64.3  0.2483 -161.4
 1.600  0.3907 -179.8   9.094   81.5  0.0724   64.0  0.2492 -165.1
 1.700  0.3923  178.1   8.555   80.2  0.0763   63.8  0.2503 -168.6
 1.800  0.3953  176.2   8.085   78.9  0.0802   63.3  0.2527 -171.4
 1.900  0.3973  174.3   7.663   77.7  0.0840   62.9  0.2554 -174.1
 2.000  0.3997  172.5   7.279   76.5  0.0883   62.5  0.2584 -176.4
 2.100  0.4030  170.9   6.929   75.4  0.0920   61.9  0.2638 -177.2
 2.200  0.4043  169.3   6.614   74.2  0.0958   61.4  0.2658 -179.1
 2.300  0.4066  167.8   6.326   73.2  0.0998   60.9  0.2677  179.1
 2.400  0.4081  166.4   6.067   72.0  0.1036   60.3  0.2692  177.5
 2.500  0.4101  164.9   5.829   71.0  0.1075   59.8  0.2711  176.0
 2.600  0.4111  163.5   5.604   70.0  0.1111   59.2  0.2726  174.6
 2.700  0.4125  162.2   5.401   69.0  0.1151   58.7  0.2737  173.4
 2.800  0.4131  160.8   5.211   68.0  0.1190   58.1  0.2748  172.2
 2.900  0.4145  159.5   5.032   67.0  0.1229   57.4  0.2762  171.1
 3.000  0.4152  158.1   4.870   65.9  0.1268   56.8  0.2778  170.1
 3.100  0.4162  157.1   4.713   65.0  0.1305   56.2  0.2777  169.0
 3.200  0.4162  155.7   4.567   64.0  0.1344   55.5  0.2786  168.0
 3.300  0.4173  154.7   4.432   63.0  0.1381   54.9  0.2787  167.0
 3.400  0.4172  153.3   4.308   62.0  0.1417   54.2  0.2800  166.0
 3.500  0.4181  152.2   4.188   61.1  0.1458   53.6  0.2796  164.9
 3.600  0.4181  151.0   4.074   60.1  0.1496   52.9  0.2800  164.0
 3.700  0.4189  149.9   3.970   59.1  0.1530   52.2  0.2799  162.9
 3.800  0.4189  148.6   3.865   58.1  0.1570   51.5  0.2798  161.8
 3.900  0.4200  147.5   3.771   57.2  0.1607   50.7  0.2796  160.7
 4.000  0.4201  146.4   3.679   56.3  0.1644   50.0  0.2794  159.5
 4.100  0.4213  145.3   3.594   55.2  0.1680   49.3  0.2794  158.2
 4.200  0.4224  144.2   3.512   54.3  0.1717   48.6  0.2799  156.9
 4.300  0.4235  143.3   3.436   53.3  0.1755   47.8  0.2800  155.6
 4.400  0.4250  142.2   3.361   52.4  0.1791   47.1  0.2802  154.3
 4.500  0.4259  141.3   3.289   51.4  0.1827   46.3  0.2803  152.9
 4.600  0.4280  140.3   3.222   50.5  0.1864   45.6  0.2808  151.4
 4.700  0.4291  139.4   3.159   49.4  0.1898   44.8  0.2817  149.9
 4.800  0.4314  138.5   3.095   48.5  0.1935   44.0  0.2825  148.5
 4.900  0.4332  137.6   3.035   47.6  0.1971   43.2  0.2833  146.9
 5.000  0.4354  136.7   2.979   46.5  0.2006   42.4  0.2846  145.5
 5.100  0.4371  135.8   2.923   45.5  0.2040   41.6  0.2849  144.1
 5.200  0.4396  135.1   2.869   44.6  0.2074   40.8  0.2860  142.6
 5.300  0.4412  134.2   2.818   43.5  0.2108   40.0  0.2872  141.2
 5.400  0.4441  133.4   2.767   42.5  0.2141   39.2  0.2886  139.9
 5.500  0.4459  132.6   2.717   41.6  0.2173   38.4  0.2899  138.4
 5.600  0.4490  131.8   2.670   40.6  0.2205   37.5  0.2915  137.1
 5.700  0.4511  131.0   2.624   39.6  0.2239   36.7  0.2929  135.7
 5.800  0.4532  130.1   2.579   38.5  0.2268   35.8  0.2942  134.3
 5.900  0.4557  129.3   2.536   37.5  0.2300   35.0  0.2962  132.8
 6.000  0.4580  128.3   2.492   36.5  0.2330   34.1  0.2976  131.5
 6.100  0.4605  127.4   2.451   35.6  0.2360   33.3  0.2989  130.1
 6.200  0.4625  126.5   2.409   34.5  0.2385   32.4  0.3006  128.4
 6.300  0.4651  125.4   2.369   33.5  0.2412   31.6  0.3030  127.0
 6.400  0.4675  124.4   2.330   32.5  0.2438   30.8  0.3052  125.5
 6.500  0.4699  123.3   2.291   31.5  0.2464   30.0  0.3070  123.7
 6.600  0.4720  122.3   2.250   30.6  0.2489   29.1  0.3096  122.2
 6.700  0.4741  121.1   2.214   29.6  0.2513   28.3  0.3115  120.4
 6.800  0.4764  120.0   2.178   28.6  0.2537   27.6  0.3138  118.8
 6.900  0.4793  118.9   2.142   27.7  0.2560   26.8  0.3162  116.9
 7.000  0.4824  117.7   2.107   26.8  0.2584   26.0  0.3189  115.1
 7.100  0.4853  116.7   2.074   25.9  0.2608   25.2  0.3221  113.3
 7.200  0.4884  115.6   2.042   25.0  0.2633   24.5  0.3257  111.4
 7.300  0.4922  114.6   2.010   24.1  0.2655   23.7  0.3300  109.6
 7.400  0.4963  113.5   1.979   23.2  0.2678   22.9  0.3346  107.9
 7.500  0.5011  112.6   1.950   22.3  0.2701   22.1  0.3401  106.1
 7.600  0.5061  111.8   1.921   21.4  0.2725   21.3  0.3459  104.4
 7.700  0.5115  110.9   1.892   20.6  0.2746   20.6  0.3528  102.7
 7.800  0.5169  110.1   1.864   19.7  0.2768   19.8  0.3600  101.1
 7.900  0.5238  109.3   1.837   18.8  0.2787   18.9  0.3681   99.5
 8.000  0.5308  108.5   1.810   17.9  0.2806   18.0  0.3766   97.9
!
!  f       NFmin   Gammaopt  rn/50
! GHz       dB    MAG  ANG    -
!
! noise parameter not available yet for this operation point!
!
! (c) 2014  Infineon Technologies AG, Munich
