! Infineon Technologies  Discrete & RF Semiconductors
! BFP640ESD
! VCE =  2.5 V,  IC =  10 mA
! Common Emitter S-Parameters:                            Jan 2016
# GHz  S  MA  R  50
!  f         S11            S21            S12            S22
! GHz     MAG   ANG      MAG   ANG      MAG   ANG      MAG   ANG
 0.010  0.8491   -2.1  28.464 -179.8  0.0004  175.2  0.9791    1.7
 0.015  0.8489   -2.1  28.400  179.5  0.0005  109.8  0.9871    0.4
 0.020  0.8487   -2.2  28.341  178.7  0.0010   88.5  0.9956   -0.8
 0.025  0.8487   -2.7  28.318  178.2  0.0012   87.8  0.9954   -1.2
 0.030  0.8487   -3.1  28.298  177.6  0.0015   87.3  0.9953   -1.5
 0.035  0.8487   -3.6  28.280  177.1  0.0017   86.9  0.9952   -1.9
 0.040  0.8488   -4.0  28.265  176.6  0.0020   86.7  0.9952   -2.3
 0.045  0.8490   -4.5  28.252  176.0  0.0022   86.5  0.9952   -2.6
 0.050  0.8492   -4.9  28.241  175.5  0.0025   86.3  0.9952   -3.0
 0.055  0.8485   -5.4  28.242  175.1  0.0027   86.0  0.9947   -3.3
 0.060  0.8478   -5.9  28.243  174.8  0.0030   85.7  0.9942   -3.6
 0.065  0.8472   -6.4  28.246  174.4  0.0032   85.5  0.9937   -3.9
 0.070  0.8467   -6.9  28.250  174.1  0.0035   85.3  0.9933   -4.2
 0.075  0.8462   -7.4  28.255  173.7  0.0037   85.2  0.9929   -4.5
 0.080  0.8458   -7.9  28.261  173.3  0.0039   85.0  0.9925   -4.8
 0.085  0.8455   -8.4  28.268  173.0  0.0042   84.9  0.9921   -5.1
 0.090  0.8452   -8.9  28.277  172.6  0.0044   84.8  0.9918   -5.4
 0.095  0.8450   -9.4  28.286  172.3  0.0047   84.7  0.9915   -5.7
 0.100  0.8449   -9.9  28.297  171.9  0.0049   84.6  0.9912   -6.0
 0.105  0.8439  -10.4  28.267  171.5  0.0051   84.2  0.9903   -6.3
 0.110  0.8429  -10.9  28.239  171.0  0.0054   83.8  0.9893   -6.6
 0.115  0.8420  -11.3  28.212  170.6  0.0056   83.4  0.9884   -6.9
 0.120  0.8411  -11.8  28.186  170.2  0.0059   83.1  0.9876   -7.2
 0.125  0.8403  -12.3  28.163  169.8  0.0061   82.7  0.9867   -7.5
 0.130  0.8396  -12.8  28.141  169.3  0.0063   82.5  0.9859   -7.9
 0.135  0.8389  -13.3  28.120  168.9  0.0066   82.2  0.9852   -8.2
 0.140  0.8383  -13.7  28.101  168.5  0.0068   81.9  0.9844   -8.5
 0.145  0.8377  -14.2  28.084  168.0  0.0071   81.7  0.9837   -8.8
 0.150  0.8372  -14.7  28.068  167.6  0.0073   81.5  0.9830   -9.1
 0.155  0.8360  -15.2  28.031  167.2  0.0075   81.2  0.9818   -9.4
 0.160  0.8349  -15.7  27.995  166.8  0.0078   81.0  0.9806   -9.7
 0.165  0.8338  -16.1  27.960  166.4  0.0080   80.7  0.9795  -10.0
 0.170  0.8328  -16.6  27.927  166.0  0.0083   80.5  0.9783  -10.3
 0.175  0.8319  -17.1  27.895  165.6  0.0085   80.2  0.9772  -10.5
 0.180  0.8310  -17.6  27.864  165.2  0.0087   80.0  0.9762  -10.8
 0.185  0.8301  -18.0  27.835  164.8  0.0090   79.8  0.9751  -11.1
 0.190  0.8294  -18.5  27.807  164.4  0.0092   79.6  0.9741  -11.4
 0.195  0.8287  -19.0  27.781  164.0  0.0095   79.5  0.9731  -11.7
 0.200  0.8280  -19.5  27.756  163.6  0.0097   79.3  0.9721  -12.0
 0.220  0.8220  -21.4  27.535  162.0  0.0106   78.2  0.9663  -13.1
 0.240  0.8168  -23.2  27.336  160.3  0.0115   77.3  0.9608  -14.2
 0.260  0.8114  -25.1  27.155  158.7  0.0123   76.4  0.9549  -15.4
 0.280  0.8055  -27.0  26.988  157.2  0.0132   75.6  0.9484  -16.5
 0.300  0.8006  -28.9  26.841  155.7  0.0140   74.9  0.9424  -17.6
 0.320  0.7937  -30.7  26.605  154.3  0.0148   73.9  0.9350  -18.7
 0.340  0.7875  -32.5  26.386  152.8  0.0157   73.0  0.9279  -19.8
 0.360  0.7811  -34.2  26.151  151.4  0.0165   72.1  0.9204  -20.8
 0.380  0.7743  -36.0  25.900  149.9  0.0173   71.3  0.9125  -21.8
 0.400  0.7682  -37.7  25.666  148.4  0.0181   70.5  0.9048  -22.8
 0.420  0.7602  -39.4  25.404  147.1  0.0188   69.7  0.8967  -23.7
 0.440  0.7530  -41.1  25.156  145.7  0.0195   69.0  0.8888  -24.7
 0.450  0.7496  -42.0  25.038  145.0  0.0199   68.7  0.8850  -25.2
 0.460  0.7457  -42.8  24.901  144.3  0.0202   68.3  0.8806  -25.7
 0.480  0.7383  -44.5  24.636  143.0  0.0209   67.5  0.8721  -26.6
 0.500  0.7316  -46.2  24.386  141.6  0.0216   66.8  0.8638  -27.5
 0.520  0.7232  -47.7  24.093  140.4  0.0222   66.0  0.8547  -28.3
 0.540  0.7153  -49.3  23.812  139.1  0.0228   65.3  0.8458  -29.1
 0.560  0.7080  -50.9  23.542  137.8  0.0235   64.7  0.8371  -29.9
 0.580  0.7013  -52.5  23.284  136.5  0.0241   64.0  0.8285  -30.7
 0.600  0.6951  -54.2  23.038  135.2  0.0247   63.4  0.8201  -31.5
 0.620  0.6867  -55.6  22.760  134.1  0.0253   62.8  0.8116  -32.2
 0.640  0.6788  -57.1  22.490  133.0  0.0258   62.2  0.8032  -33.0
 0.660  0.6713  -58.5  22.229  131.9  0.0264   61.6  0.7950  -33.7
 0.680  0.6643  -60.1  21.976  130.8  0.0269   61.1  0.7869  -34.5
 0.700  0.6577  -61.6  21.732  129.6  0.0275   60.6  0.7790  -35.3
 0.720  0.6502  -62.9  21.453  128.6  0.0280   60.1  0.7707  -35.9
 0.740  0.6431  -64.2  21.181  127.6  0.0285   59.6  0.7625  -36.6
 0.760  0.6363  -65.6  20.916  126.6  0.0290   59.1  0.7543  -37.2
 0.780  0.6299  -67.0  20.658  125.5  0.0295   58.6  0.7463  -37.9
 0.800  0.6239  -68.4  20.407  124.4  0.0300   58.2  0.7384  -38.6
 0.820  0.6168  -69.7  20.162  123.5  0.0304   57.8  0.7308  -39.2
 0.840  0.6101  -71.0  19.922  122.5  0.0309   57.4  0.7233  -39.8
 0.860  0.6037  -72.4  19.688  121.6  0.0313   57.0  0.7159  -40.4
 0.880  0.5977  -73.8  19.459  120.6  0.0318   56.6  0.7086  -41.0
 0.900  0.5920  -75.2  19.236  119.6  0.0322   56.2  0.7013  -41.6
 0.920  0.5855  -76.4  18.999  118.8  0.0326   55.8  0.6939  -42.1
 0.940  0.5792  -77.6  18.766  117.9  0.0330   55.5  0.6865  -42.6
 0.960  0.5732  -78.9  18.537  117.0  0.0334   55.2  0.6792  -43.2
 0.980  0.5675  -80.2  18.313  116.1  0.0338   54.8  0.6720  -43.7
 1.000  0.5621  -81.5  18.093  115.2  0.0342   54.5  0.6648  -44.3
 1.020  0.5563  -82.7  17.878  114.4  0.0346   54.2  0.6583  -44.7
 1.040  0.5507  -83.8  17.666  113.7  0.0350   53.9  0.6518  -45.2
 1.060  0.5454  -85.0  17.457  112.9  0.0353   53.6  0.6454  -45.7
 1.080  0.5403  -86.3  17.252  112.0  0.0357   53.4  0.6390  -46.1
 1.100  0.5355  -87.5  17.050  111.2  0.0361   53.1  0.6327  -46.6
 1.120  0.5302  -88.6  16.853  110.5  0.0364   52.9  0.6266  -47.0
 1.140  0.5252  -89.7  16.659  109.7  0.0368   52.6  0.6205  -47.5
 1.160  0.5203  -90.9  16.468  108.9  0.0371   52.4  0.6145  -48.0
 1.180  0.5156  -92.0  16.280  108.1  0.0375   52.1  0.6085  -48.4
 1.200  0.5112  -93.2  16.095  107.3  0.0378   51.9  0.6026  -48.9
 1.220  0.5067  -94.2  15.914  106.6  0.0381   51.7  0.5971  -49.3
 1.240  0.5023  -95.3  15.734  105.9  0.0384   51.5  0.5916  -49.7
 1.260  0.4982  -96.4  15.558  105.2  0.0388   51.3  0.5861  -50.1
 1.280  0.4942  -97.5  15.383  104.5  0.0391   51.1  0.5807  -50.5
 1.300  0.4904  -98.6  15.211  103.8  0.0394   50.9  0.5753  -50.9
 1.320  0.4861  -99.6  15.040  103.2  0.0397   50.7  0.5701  -51.3
 1.340  0.4819 -100.7  14.870  102.5  0.0400   50.6  0.5649  -51.6
 1.360  0.4779 -101.7  14.703  101.8  0.0404   50.4  0.5598  -52.0
 1.380  0.4741 -102.8  14.538  101.1  0.0407   50.3  0.5547  -52.4
 1.400  0.4704 -103.9  14.375  100.4  0.0410   50.1  0.5496  -52.8
 1.420  0.4670 -104.8  14.227   99.8  0.0413   50.0  0.5451  -53.1
 1.440  0.4638 -105.8  14.080   99.3  0.0416   49.9  0.5406  -53.4
 1.460  0.4606 -106.7  13.935   98.7  0.0420   49.7  0.5362  -53.7
 1.480  0.4577 -107.7  13.791   98.1  0.0423   49.6  0.5317  -54.0
 1.500  0.4548 -108.7  13.649   97.5  0.0426   49.5  0.5273  -54.3
 1.520  0.4518 -109.7  13.511   96.9  0.0429   49.3  0.5231  -54.6
 1.540  0.4489 -110.6  13.374   96.3  0.0432   49.2  0.5190  -55.0
 1.560  0.4461 -111.6  13.239   95.7  0.0434   49.0  0.5149  -55.3
 1.580  0.4435 -112.6  13.105   95.1  0.0437   48.9  0.5108  -55.6
 1.600  0.4410 -113.6  12.973   94.5  0.0440   48.7  0.5067  -56.0
 1.620  0.4379 -114.5  12.849   94.0  0.0443   48.6  0.5029  -56.3
 1.640  0.4349 -115.4  12.725   93.4  0.0446   48.5  0.4991  -56.6
 1.660  0.4320 -116.3  12.603   92.9  0.0449   48.5  0.4953  -56.9
 1.680  0.4293 -117.3  12.483   92.3  0.0452   48.4  0.4915  -57.2
 1.700  0.4266 -118.2  12.363   91.7  0.0455   48.3  0.4877  -57.5
 1.720  0.4245 -119.1  12.241   91.2  0.0458   48.2  0.4844  -57.8
 1.740  0.4224 -119.9  12.120   90.7  0.0461   48.1  0.4810  -58.0
 1.760  0.4205 -120.8  11.999   90.2  0.0464   48.0  0.4777  -58.3
 1.780  0.4186 -121.7  11.880   89.6  0.0467   47.9  0.4744  -58.6
 1.800  0.4169 -122.6  11.762   89.1  0.0470   47.8  0.4711  -58.9
 1.820  0.4146 -123.5  11.659   88.6  0.0473   47.7  0.4676  -59.2
 1.840  0.4124 -124.4  11.556   88.1  0.0476   47.7  0.4641  -59.5
 1.860  0.4103 -125.3  11.455   87.6  0.0479   47.6  0.4606  -59.8
 1.880  0.4084 -126.3  11.354   87.1  0.0482   47.6  0.4572  -60.2
 1.900  0.4065 -127.2  11.254   86.6  0.0485   47.5  0.4537  -60.5
 1.920  0.4045 -127.9  11.155   86.1  0.0488   47.4  0.4507  -60.7
 1.940  0.4026 -128.7  11.057   85.7  0.0491   47.3  0.4478  -60.9
 1.960  0.4008 -129.5  10.959   85.2  0.0494   47.3  0.4449  -61.2
 1.980  0.3990 -130.2  10.863   84.7  0.0497   47.2  0.4419  -61.4
 2.000  0.3973 -131.0  10.767   84.2  0.0500   47.1  0.4390  -61.6
 2.020  0.3955 -131.8  10.678   83.8  0.0503   47.0  0.4359  -61.9
 2.040  0.3938 -132.7  10.590   83.3  0.0506   46.9  0.4329  -62.2
 2.060  0.3921 -133.5  10.503   82.8  0.0509   46.9  0.4299  -62.5
 2.080  0.3906 -134.4  10.416   82.4  0.0512   46.8  0.4269  -62.7
 2.100  0.3891 -135.2  10.330   81.9  0.0515   46.7  0.4239  -63.0
 2.120  0.3877 -136.1  10.245   81.4  0.0518   46.6  0.4209  -63.3
 2.140  0.3864 -137.0  10.160   80.9  0.0521   46.5  0.4179  -63.7
 2.160  0.3852 -137.8  10.076   80.4  0.0524   46.5  0.4149  -64.0
 2.180  0.3841 -138.7   9.993   79.9  0.0527   46.4  0.4119  -64.3
 2.200  0.3831 -139.6   9.911   79.4  0.0530   46.3  0.4090  -64.6
 2.220  0.3818 -140.4   9.835   79.0  0.0533   46.2  0.4062  -64.9
 2.240  0.3806 -141.2   9.759   78.6  0.0537   46.1  0.4034  -65.2
 2.260  0.3794 -142.0   9.684   78.2  0.0540   46.0  0.4006  -65.5
 2.280  0.3784 -142.8   9.610   77.7  0.0543   46.0  0.3978  -65.7
 2.300  0.3774 -143.6   9.536   77.3  0.0546   45.9  0.3950  -66.0
 2.320  0.3765 -144.5   9.463   76.8  0.0550   45.8  0.3922  -66.3
 2.340  0.3756 -145.3   9.390   76.4  0.0553   45.7  0.3895  -66.7
 2.360  0.3749 -146.1   9.318   75.9  0.0556   45.7  0.3868  -67.0
 2.380  0.3742 -147.0   9.246   75.5  0.0560   45.6  0.3840  -67.3
 2.400  0.3736 -147.8   9.175   75.0  0.0563   45.5  0.3813  -67.6
 2.420  0.3729 -148.6   9.107   74.6  0.0566   45.4  0.3786  -67.9
 2.440  0.3723 -149.4   9.040   74.2  0.0569   45.3  0.3760  -68.2
 2.460  0.3717 -150.3   8.974   73.8  0.0572   45.2  0.3733  -68.5
 2.480  0.3713 -151.1   8.907   73.4  0.0575   45.1  0.3707  -68.9
 2.500  0.3709 -151.9   8.842   72.9  0.0578   45.0  0.3681  -69.2
 2.520  0.3706 -152.8   8.777   72.5  0.0582   44.9  0.3655  -69.5
 2.540  0.3703 -153.6   8.712   72.1  0.0585   44.9  0.3629  -69.9
 2.560  0.3702 -154.4   8.648   71.6  0.0588   44.8  0.3603  -70.2
 2.580  0.3701 -155.3   8.584   71.2  0.0591   44.7  0.3578  -70.5
 2.600  0.3701 -156.1   8.521   70.7  0.0594   44.6  0.3552  -70.9
 2.620  0.3697 -156.8   8.462   70.3  0.0597   44.5  0.3528  -71.2
 2.640  0.3693 -157.6   8.404   70.0  0.0600   44.5  0.3505  -71.5
 2.660  0.3689 -158.3   8.346   69.6  0.0604   44.4  0.3481  -71.8
 2.680  0.3687 -159.1   8.289   69.2  0.0607   44.4  0.3458  -72.2
 2.700  0.3685 -159.8   8.232   68.8  0.0610   44.3  0.3435  -72.5
 2.720  0.3683 -160.5   8.175   68.4  0.0613   44.2  0.3411  -72.8
 2.740  0.3683 -161.3   8.119   68.0  0.0616   44.2  0.3388  -73.2
 2.760  0.3682 -162.0   8.063   67.6  0.0620   44.1  0.3365  -73.5
 2.780  0.3683 -162.8   8.007   67.2  0.0623   44.1  0.3343  -73.8
 2.800  0.3684 -163.5   7.952   66.8  0.0626   44.0  0.3320  -74.2
 2.820  0.3684 -164.2   7.901   66.4  0.0629   43.9  0.3299  -74.5
 2.840  0.3684 -164.9   7.850   66.1  0.0633   43.8  0.3278  -74.8
 2.860  0.3685 -165.5   7.800   65.7  0.0636   43.7  0.3257  -75.2
 2.880  0.3686 -166.2   7.750   65.3  0.0639   43.6  0.3237  -75.5
 2.900  0.3687 -166.9   7.700   65.0  0.0642   43.5  0.3216  -75.8
 2.920  0.3690 -167.6   7.650   64.6  0.0646   43.4  0.3196  -76.2
 2.940  0.3693 -168.3   7.601   64.2  0.0649   43.3  0.3175  -76.5
 2.960  0.3696 -168.9   7.552   63.8  0.0652   43.2  0.3155  -76.9
 2.980  0.3700 -169.6   7.504   63.4  0.0656   43.1  0.3135  -77.2
 3.000  0.3704 -170.3   7.456   63.0  0.0659   43.0  0.3115  -77.6
 3.100  0.3703 -173.6   7.238   61.4  0.0676   42.4  0.3021  -79.3
 3.200  0.3714 -176.8   7.026   59.6  0.0693   41.9  0.2930  -81.2
 3.300  0.3736  180.0   6.821   57.8  0.0710   41.4  0.2843  -83.1
 3.400  0.3770  176.8   6.623   55.8  0.0727   41.0  0.2758  -85.2
 3.500  0.3816  173.7   6.434   53.7  0.0744   40.5  0.2678  -87.4
 3.600  0.3839  170.8   6.264   52.1  0.0762   39.9  0.2593  -89.5
 3.700  0.3872  167.9   6.099   50.5  0.0780   39.3  0.2512  -91.8
 3.800  0.3914  165.1   5.939   48.7  0.0798   38.7  0.2435  -94.2
 3.900  0.3966  162.3   5.785   46.9  0.0817   38.1  0.2362  -96.8
 4.000  0.4027  159.6   5.638   44.9  0.0835   37.6  0.2295  -99.5
 4.100  0.4071  157.1   5.494   43.4  0.0852   36.8  0.2224 -102.4
 4.200  0.4123  154.6   5.355   41.7  0.0869   36.0  0.2159 -105.5
 4.300  0.4182  152.2   5.220   40.0  0.0887   35.3  0.2100 -108.8
 4.400  0.4248  149.9   5.091   38.2  0.0904   34.6  0.2049 -112.3
 4.500  0.4321  147.6   4.966   36.3  0.0922   33.9  0.2006 -115.9
 4.600  0.4363  145.8   4.847   34.9  0.0938   33.2  0.1963 -118.7
 4.700  0.4409  144.0   4.731   33.4  0.0954   32.4  0.1925 -121.5
 4.800  0.4460  142.3   4.618   31.9  0.0971   31.7  0.1891 -124.5
 4.900  0.4514  140.6   4.509   30.3  0.0987   31.1  0.1863 -127.6
 5.000  0.4572  139.0   4.403   28.6  0.1004   30.4  0.1841 -130.8
 5.100  0.4608  137.5   4.310   27.3  0.1020   29.6  0.1807 -133.5
 5.200  0.4647  136.1   4.220   25.9  0.1036   28.9  0.1778 -136.3
 5.300  0.4689  134.7   4.132   24.5  0.1053   28.2  0.1753 -139.1
 5.400  0.4734  133.3   4.047   23.0  0.1069   27.5  0.1732 -142.1
 5.500  0.4781  131.9   3.964   21.5  0.1086   26.8  0.1716 -145.1
 5.600  0.4823  130.5   3.891   20.2  0.1103   26.0  0.1691 -148.5
 5.700  0.4867  129.2   3.820   18.8  0.1121   25.3  0.1673 -151.9
 5.800  0.4914  127.9   3.751   17.4  0.1138   24.6  0.1661 -155.5
 5.900  0.4964  126.6   3.685   15.9  0.1156   23.9  0.1655 -159.0
 6.000  0.5016  125.3   3.621   14.4  0.1174   23.2  0.1655 -162.6
 6.100  0.5057  123.9   3.560   13.0  0.1193   22.3  0.1661 -165.9
 6.200  0.5101  122.6   3.501   11.6  0.1212   21.5  0.1672 -169.3
 6.300  0.5148  121.3   3.445   10.2  0.1231   20.7  0.1689 -172.5
 6.400  0.5198  120.0   3.391    8.7  0.1250   19.9  0.1711 -175.7
 6.500  0.5250  118.7   3.339    7.1  0.1270   19.1  0.1738 -178.8
 6.600  0.5280  117.2   3.286    5.7  0.1289   18.2  0.1740  178.6
 6.800  0.5350  114.3   3.186    2.8  0.1329   16.4  0.1755  173.5
 7.000  0.5434  111.5   3.095   -0.3  0.1369   14.8  0.1784  168.5
 7.200  0.5509  108.4   3.002   -3.2  0.1408   12.6  0.1827  162.4
 7.400  0.5598  105.5   2.916   -6.3  0.1448   10.6  0.1890  156.5
 7.600  0.5705  102.4   2.826   -9.4  0.1483    8.4  0.1977  150.4
 7.800  0.5831   99.2   2.731  -12.5  0.1514    6.0  0.2095  144.1
 8.000  0.5973   96.2   2.644  -15.8  0.1547    3.8  0.2235  138.6
 8.200  0.6089   93.2   2.548  -18.4  0.1564    1.7  0.2356  132.4
 8.400  0.6221   90.4   2.459  -21.3  0.1583   -0.4  0.2501  126.9
 8.600  0.6372   87.7   2.378  -24.0  0.1601   -2.3  0.2662  121.4
 8.800  0.6538   85.3   2.304  -26.6  0.1619   -4.1  0.2842  116.1
 9.000  0.6715   83.0   2.236  -29.3  0.1638   -5.9  0.3045  111.4
 9.200  0.6962   80.6   2.175  -31.9  0.1655   -7.7  0.3309  107.1
 9.400  0.7219   78.4   2.119  -34.6  0.1673   -9.5  0.3589  103.5
 9.600  0.7452   76.1   2.049  -37.4  0.1689  -11.4  0.3874  100.5
 9.800  0.7662   73.7   1.966  -40.3  0.1702  -13.4  0.4160   98.1
10.000  0.7886   71.4   1.888  -43.5  0.1717  -15.3  0.4453   96.0
!
!  f       NFmin   Gammaopt  rn/50
! GHz       dB    MAG  ANG    -
 0.450      0.68  0.19    6   0.11
 0.900      0.70  0.18   20   0.10
 1.900      0.72  0.13   35   0.10
 2.400      0.75  0.09   56   0.10
 5.500      1.03  0.31 -133   0.10
10.000      1.78  0.59  -80   0.70
!
! (c) 2016  Infineon Technologies AG, Munich
