! Infineon Technologies  Discrete & RF Semiconductors
! BFP640ESD
! VCE =  1.0 V,  IC =  4.0 mA
! Common Emitter S-Parameters:                            Jan 2016
# GHz  S  MA  R  50
!  f         S11            S21            S12            S22
! GHz     MAG   ANG      MAG   ANG      MAG   ANG      MAG   ANG
 0.010  0.9431   -1.4  12.781 -179.8  0.0005   91.7  0.9887    0.4
 0.015  0.9429   -1.4  12.759  179.9  0.0009   89.2  0.9941   -0.2
 0.020  0.9428   -1.5  12.738  179.6  0.0013   88.3  0.9996   -0.7
 0.025  0.9434   -1.8  12.739  179.2  0.0016   88.8  0.9992   -1.0
 0.030  0.9440   -2.1  12.741  178.8  0.0019   89.2  0.9988   -1.2
 0.035  0.9447   -2.5  12.743  178.4  0.0022   89.4  0.9985   -1.5
 0.040  0.9454   -2.8  12.746  178.0  0.0026   89.6  0.9981   -1.8
 0.045  0.9461   -3.1  12.749  177.6  0.0029   89.8  0.9978   -2.0
 0.050  0.9468   -3.4  12.753  177.2  0.0032   89.9  0.9975   -2.3
 0.055  0.9461   -3.7  12.760  177.0  0.0035   89.0  0.9973   -2.5
 0.060  0.9454   -4.1  12.767  176.7  0.0038   88.3  0.9970   -2.7
 0.065  0.9447   -4.4  12.775  176.5  0.0042   87.6  0.9968   -2.9
 0.070  0.9440   -4.7  12.783  176.2  0.0045   87.1  0.9966   -3.1
 0.075  0.9434   -5.0  12.791  176.0  0.0048   86.6  0.9964   -3.3
 0.080  0.9428   -5.4  12.799  175.8  0.0051   86.2  0.9962   -3.5
 0.085  0.9423   -5.7  12.807  175.5  0.0054   85.9  0.9960   -3.7
 0.090  0.9417   -6.0  12.816  175.3  0.0058   85.5  0.9959   -3.9
 0.095  0.9413   -6.4  12.825  175.0  0.0061   85.3  0.9957   -4.1
 0.100  0.9408   -6.7  12.834  174.8  0.0064   85.0  0.9956   -4.3
 0.105  0.9405   -7.0  12.831  174.5  0.0067   84.8  0.9953   -4.5
 0.110  0.9403   -7.3  12.829  174.2  0.0070   84.7  0.9949   -4.8
 0.115  0.9400   -7.7  12.826  173.9  0.0074   84.6  0.9946   -5.0
 0.120  0.9398   -8.0  12.824  173.6  0.0077   84.5  0.9943   -5.2
 0.125  0.9397   -8.3  12.823  173.4  0.0080   84.3  0.9940   -5.4
 0.130  0.9395   -8.6  12.822  173.1  0.0083   84.2  0.9938   -5.7
 0.135  0.9394   -8.9  12.821  172.8  0.0086   84.1  0.9935   -5.9
 0.140  0.9394   -9.3  12.820  172.5  0.0090   84.1  0.9933   -6.1
 0.145  0.9393   -9.6  12.820  172.2  0.0093   84.0  0.9931   -6.4
 0.150  0.9393   -9.9  12.820  171.9  0.0096   83.9  0.9929   -6.6
 0.155  0.9387  -10.2  12.816  171.6  0.0099   83.7  0.9924   -6.8
 0.160  0.9381  -10.5  12.812  171.4  0.0103   83.4  0.9920   -7.0
 0.165  0.9375  -10.8  12.809  171.1  0.0106   83.2  0.9915   -7.2
 0.170  0.9370  -11.1  12.806  170.9  0.0109   83.0  0.9911   -7.4
 0.175  0.9365  -11.4  12.803  170.6  0.0112   82.8  0.9906   -7.6
 0.180  0.9360  -11.8  12.801  170.3  0.0116   82.6  0.9902   -7.9
 0.185  0.9356  -12.1  12.798  170.1  0.0119   82.5  0.9898   -8.1
 0.190  0.9352  -12.4  12.796  169.8  0.0122   82.3  0.9894   -8.3
 0.195  0.9348  -12.7  12.795  169.6  0.0126   82.1  0.9891   -8.5
 0.200  0.9344  -13.0  12.793  169.3  0.0129   82.0  0.9887   -8.7
 0.220  0.9319  -14.3  12.752  168.1  0.0142   81.2  0.9863   -9.5
 0.240  0.9299  -15.6  12.716  167.0  0.0155   80.5  0.9841  -10.4
 0.260  0.9279  -16.9  12.690  165.9  0.0167   79.7  0.9817  -11.2
 0.280  0.9258  -18.2  12.674  164.8  0.0179   78.9  0.9791  -12.1
 0.300  0.9241  -19.5  12.662  163.8  0.0191   78.1  0.9767  -13.0
 0.320  0.9210  -20.8  12.624  162.8  0.0203   77.3  0.9737  -13.8
 0.340  0.9183  -22.1  12.590  161.7  0.0215   76.5  0.9708  -14.7
 0.360  0.9155  -23.3  12.550  160.6  0.0227   75.8  0.9676  -15.5
 0.380  0.9125  -24.6  12.505  159.5  0.0239   74.9  0.9638  -16.4
 0.400  0.9100  -25.9  12.464  158.4  0.0251   74.2  0.9603  -17.2
 0.420  0.9064  -27.1  12.415  157.4  0.0263   73.5  0.9566  -18.0
 0.440  0.9033  -28.4  12.370  156.4  0.0274   72.8  0.9531  -18.8
 0.450  0.9019  -29.0  12.349  155.9  0.0280   72.5  0.9514  -19.2
 0.460  0.8998  -29.6  12.322  155.4  0.0286   72.1  0.9492  -19.6
 0.480  0.8960  -30.9  12.272  154.3  0.0297   71.3  0.9450  -20.5
 0.500  0.8926  -32.2  12.226  153.2  0.0308   70.6  0.9410  -21.3
 0.520  0.8881  -33.4  12.160  152.2  0.0318   69.8  0.9360  -22.1
 0.540  0.8840  -34.6  12.099  151.2  0.0329   69.0  0.9312  -22.8
 0.560  0.8804  -35.9  12.041  150.1  0.0340   68.3  0.9265  -23.6
 0.580  0.8771  -37.1  11.988  149.1  0.0350   67.6  0.9220  -24.4
 0.600  0.8743  -38.4  11.938  148.0  0.0361   67.0  0.9177  -25.2
 0.620  0.8693  -39.6  11.874  147.1  0.0371   66.2  0.9127  -25.9
 0.640  0.8646  -40.7  11.812  146.1  0.0381   65.5  0.9078  -26.7
 0.660  0.8604  -41.9  11.754  145.2  0.0391   64.9  0.9030  -27.4
 0.680  0.8564  -43.1  11.699  144.3  0.0401   64.2  0.8984  -28.1
 0.700  0.8529  -44.3  11.647  143.3  0.0411   63.6  0.8940  -28.9
 0.720  0.8479  -45.5  11.568  142.4  0.0420   62.9  0.8885  -29.6
 0.740  0.8432  -46.6  11.493  141.5  0.0429   62.2  0.8832  -30.3
 0.760  0.8389  -47.8  11.421  140.5  0.0438   61.6  0.8780  -31.0
 0.780  0.8350  -49.0  11.351  139.6  0.0448   61.0  0.8730  -31.8
 0.800  0.8314  -50.2  11.285  138.6  0.0457   60.4  0.8681  -32.5
 0.820  0.8263  -51.3  11.215  137.7  0.0465   59.7  0.8626  -33.2
 0.840  0.8215  -52.5  11.147  136.8  0.0474   59.1  0.8573  -33.9
 0.860  0.8171  -53.6  11.082  135.9  0.0483   58.4  0.8521  -34.6
 0.880  0.8130  -54.8  11.020  135.0  0.0491   57.8  0.8470  -35.3
 0.900  0.8092  -56.0  10.961  134.1  0.0500   57.2  0.8421  -36.0
 0.920  0.8040  -57.1  10.886  133.3  0.0508   56.6  0.8363  -36.7
 0.940  0.7991  -58.2  10.813  132.4  0.0515   56.0  0.8306  -37.3
 0.960  0.7945  -59.3  10.742  131.6  0.0523   55.5  0.8250  -38.0
 0.980  0.7902  -60.4  10.674  130.7  0.0531   54.9  0.8195  -38.7
 1.000  0.7862  -61.5  10.609  129.8  0.0539   54.4  0.8142  -39.4
 1.020  0.7813  -62.6  10.535  129.0  0.0546   53.8  0.8087  -40.0
 1.040  0.7766  -63.7  10.463  128.2  0.0553   53.3  0.8032  -40.6
 1.060  0.7722  -64.8  10.393  127.4  0.0560   52.7  0.7978  -41.2
 1.080  0.7681  -65.9  10.325  126.5  0.0567   52.2  0.7926  -41.9
 1.100  0.7643  -67.0  10.259  125.7  0.0574   51.7  0.7874  -42.5
 1.120  0.7594  -68.1  10.187  124.9  0.0580   51.2  0.7818  -43.1
 1.140  0.7548  -69.1  10.117  124.1  0.0587   50.6  0.7764  -43.7
 1.160  0.7504  -70.2  10.049  123.3  0.0593   50.1  0.7710  -44.3
 1.180  0.7463  -71.3   9.984  122.4  0.0600   49.6  0.7657  -45.0
 1.200  0.7425  -72.4   9.920  121.6  0.0606   49.1  0.7605  -45.6
 1.220  0.7377  -73.4   9.849  120.9  0.0612   48.6  0.7551  -46.2
 1.240  0.7332  -74.4   9.780  120.1  0.0617   48.1  0.7497  -46.7
 1.260  0.7289  -75.5   9.713  119.4  0.0623   47.6  0.7444  -47.3
 1.280  0.7249  -76.5   9.648  118.6  0.0629   47.2  0.7392  -47.9
 1.300  0.7211  -77.6   9.584  117.8  0.0635   46.7  0.7341  -48.5
 1.320  0.7164  -78.6   9.510  117.1  0.0640   46.2  0.7287  -49.0
 1.340  0.7118  -79.6   9.437  116.3  0.0645   45.8  0.7234  -49.6
 1.360  0.7075  -80.6   9.367  115.6  0.0650   45.4  0.7181  -50.1
 1.380  0.7034  -81.7   9.297  114.8  0.0655   44.9  0.7129  -50.6
 1.400  0.6996  -82.7   9.230  114.0  0.0660   44.5  0.7078  -51.2
 1.420  0.6956  -83.6   9.165  113.4  0.0665   44.1  0.7029  -51.7
 1.440  0.6918  -84.6   9.102  112.7  0.0670   43.7  0.6980  -52.2
 1.460  0.6881  -85.5   9.039  112.0  0.0674   43.3  0.6932  -52.7
 1.480  0.6847  -86.4   8.978  111.4  0.0679   42.9  0.6885  -53.3
 1.500  0.6814  -87.4   8.918  110.7  0.0684   42.5  0.6838  -53.8
 1.520  0.6774  -88.4   8.855  110.0  0.0688   42.1  0.6790  -54.3
 1.540  0.6735  -89.4   8.794  109.3  0.0693   41.7  0.6743  -54.8
 1.560  0.6699  -90.4   8.734  108.6  0.0697   41.3  0.6696  -55.3
 1.580  0.6665  -91.4   8.675  107.8  0.0702   40.9  0.6650  -55.8
 1.600  0.6633  -92.4   8.618  107.1  0.0706   40.5  0.6604  -56.3
 1.620  0.6595  -93.3   8.557  106.5  0.0710   40.2  0.6558  -56.8
 1.640  0.6559  -94.2   8.498  105.8  0.0714   39.8  0.6513  -57.2
 1.660  0.6524  -95.1   8.439  105.2  0.0717   39.5  0.6469  -57.7
 1.680  0.6491  -96.1   8.381  104.6  0.0721   39.1  0.6425  -58.2
 1.700  0.6460  -97.0   8.325  103.9  0.0725   38.8  0.6381  -58.7
 1.720  0.6427  -97.9   8.262  103.3  0.0729   38.5  0.6339  -59.1
 1.740  0.6396  -98.7   8.200  102.7  0.0732   38.2  0.6297  -59.6
 1.760  0.6366  -99.6   8.139  102.1  0.0736   37.8  0.6255  -60.0
 1.780  0.6338 -100.5   8.079  101.5  0.0739   37.5  0.6214  -60.4
 1.800  0.6311 -101.4   8.020  100.9  0.0743   37.2  0.6173  -60.9
 1.820  0.6277 -102.3   7.968  100.3  0.0746   36.9  0.6129  -61.4
 1.840  0.6245 -103.3   7.917   99.7  0.0750   36.6  0.6085  -61.8
 1.860  0.6214 -104.2   7.866   99.1  0.0753   36.2  0.6042  -62.3
 1.880  0.6185 -105.1   7.817   98.5  0.0757   35.9  0.5999  -62.8
 1.900  0.6158 -106.1   7.768   97.9  0.0760   35.6  0.5957  -63.3
 1.920  0.6128 -106.9   7.714   97.3  0.0763   35.3  0.5918  -63.7
 1.940  0.6100 -107.7   7.661   96.8  0.0766   35.0  0.5880  -64.1
 1.960  0.6073 -108.5   7.608   96.2  0.0770   34.8  0.5842  -64.5
 1.980  0.6047 -109.4   7.557   95.6  0.0773   34.5  0.5804  -64.9
 2.000  0.6022 -110.2   7.506   95.0  0.0776   34.2  0.5767  -65.3
 2.020  0.5990 -111.1   7.456   94.5  0.0779   33.9  0.5726  -65.7
 2.040  0.5960 -111.9   7.407   93.9  0.0781   33.6  0.5686  -66.1
 2.060  0.5931 -112.8   7.358   93.4  0.0784   33.4  0.5646  -66.6
 2.080  0.5903 -113.7   7.311   92.8  0.0787   33.1  0.5606  -67.0
 2.100  0.5877 -114.6   7.264   92.2  0.0789   32.8  0.5567  -67.4
 2.120  0.5852 -115.4   7.217   91.7  0.0792   32.6  0.5528  -67.9
 2.140  0.5829 -116.4   7.171   91.1  0.0795   32.3  0.5489  -68.3
 2.160  0.5807 -117.3   7.127   90.5  0.0797   32.0  0.5451  -68.8
 2.180  0.5787 -118.2   7.082   89.9  0.0800   31.8  0.5413  -69.2
 2.200  0.5768 -119.1   7.039   89.3  0.0803   31.5  0.5375  -69.7
 2.220  0.5741 -119.9   6.994   88.8  0.0806   31.2  0.5337  -70.1
 2.240  0.5716 -120.7   6.949   88.3  0.0808   31.0  0.5299  -70.5
 2.260  0.5691 -121.6   6.904   87.8  0.0811   30.7  0.5261  -71.0
 2.280  0.5668 -122.4   6.861   87.2  0.0813   30.5  0.5224  -71.4
 2.300  0.5646 -123.3   6.817   86.7  0.0816   30.2  0.5187  -71.8
 2.320  0.5625 -124.1   6.775   86.1  0.0818   30.0  0.5150  -72.3
 2.340  0.5606 -125.0   6.733   85.6  0.0821   29.7  0.5113  -72.7
 2.360  0.5588 -125.9   6.692   85.0  0.0824   29.5  0.5077  -73.2
 2.380  0.5571 -126.7   6.651   84.5  0.0826   29.2  0.5041  -73.6
 2.400  0.5555 -127.6   6.611   83.9  0.0829   29.0  0.5006  -74.1
 2.420  0.5533 -128.4   6.569   83.4  0.0831   28.8  0.4970  -74.5
 2.440  0.5513 -129.3   6.527   82.9  0.0833   28.6  0.4934  -74.9
 2.460  0.5494 -130.2   6.486   82.4  0.0835   28.3  0.4899  -75.4
 2.480  0.5476 -131.0   6.446   81.9  0.0837   28.1  0.4863  -75.8
 2.500  0.5459 -131.9   6.405   81.4  0.0839   27.9  0.4828  -76.2
 2.520  0.5443 -132.8   6.366   80.9  0.0841   27.7  0.4794  -76.7
 2.540  0.5429 -133.6   6.327   80.3  0.0843   27.4  0.4759  -77.1
 2.560  0.5416 -134.5   6.288   79.8  0.0845   27.2  0.4725  -77.6
 2.580  0.5404 -135.4   6.250   79.2  0.0847   27.0  0.4691  -78.0
 2.600  0.5394 -136.3   6.213   78.7  0.0849   26.8  0.4658  -78.5
 2.620  0.5377 -137.1   6.175   78.2  0.0851   26.6  0.4626  -78.9
 2.640  0.5360 -137.8   6.137   77.8  0.0853   26.4  0.4594  -79.3
 2.660  0.5345 -138.6   6.099   77.3  0.0854   26.2  0.4562  -79.8
 2.680  0.5330 -139.4   6.062   76.8  0.0856   26.0  0.4530  -80.2
 2.700  0.5317 -140.2   6.026   76.4  0.0858   25.8  0.4499  -80.6
 2.720  0.5304 -141.0   5.989   75.9  0.0860   25.7  0.4468  -81.1
 2.740  0.5293 -141.8   5.954   75.4  0.0862   25.5  0.4437  -81.5
 2.760  0.5283 -142.6   5.918   74.9  0.0863   25.3  0.4407  -82.0
 2.780  0.5273 -143.4   5.883   74.4  0.0865   25.1  0.4377  -82.4
 2.800  0.5265 -144.2   5.849   73.9  0.0867   24.9  0.4347  -82.9
 2.820  0.5253 -144.9   5.815   73.5  0.0869   24.7  0.4319  -83.3
 2.840  0.5241 -145.7   5.782   73.0  0.0870   24.6  0.4290  -83.7
 2.860  0.5231 -146.5   5.748   72.5  0.0872   24.4  0.4262  -84.1
 2.880  0.5221 -147.2   5.716   72.1  0.0874   24.2  0.4235  -84.6
 2.900  0.5213 -148.0   5.683   71.6  0.0875   24.0  0.4207  -85.0
 2.920  0.5205 -148.7   5.651   71.1  0.0877   23.9  0.4180  -85.4
 2.940  0.5198 -149.5   5.620   70.7  0.0879   23.7  0.4153  -85.9
 2.960  0.5192 -150.3   5.588   70.2  0.0881   23.5  0.4126  -86.3
 2.980  0.5187 -151.0   5.557   69.7  0.0882   23.4  0.4099  -86.7
 3.000  0.5183 -151.8   5.527   69.2  0.0884   23.2  0.4073  -87.2
 3.100  0.5121 -155.4   5.374   67.2  0.0892   22.5  0.3947  -89.2
 3.200  0.5080 -159.0   5.228   65.1  0.0900   21.8  0.3825  -91.3
 3.300  0.5059 -162.6   5.089   62.9  0.0908   21.1  0.3710  -93.6
 3.400  0.5059 -166.3   4.959   60.6  0.0916   20.4  0.3601  -96.0
 3.500  0.5080 -170.0   4.837   58.1  0.0924   19.7  0.3498  -98.6
 3.600  0.5054 -173.4   4.713   56.2  0.0932   19.1  0.3392 -100.9
 3.700  0.5045 -176.7   4.595   54.2  0.0941   18.5  0.3291 -103.4
 3.800  0.5053  179.9   4.482   52.1  0.0949   17.9  0.3197 -106.0
 3.900  0.5080  176.5   4.376   49.9  0.0957   17.4  0.3110 -108.8
 4.000  0.5123  173.2   4.276   47.6  0.0966   16.8  0.3031 -111.7
 4.100  0.5128  170.3   4.166   45.8  0.0973   16.2  0.2951 -114.5
 4.200  0.5146  167.3   4.061   43.9  0.0981   15.6  0.2879 -117.5
 4.300  0.5177  164.4   3.960   41.9  0.0988   15.0  0.2815 -120.6
 4.400  0.5221  161.6   3.864   39.8  0.0996   14.4  0.2759 -123.8
 4.500  0.5278  158.8   3.774   37.6  0.1004   13.8  0.2713 -127.2
 4.600  0.5294  156.6   3.680   36.0  0.1010   13.4  0.2665 -129.7
 4.700  0.5317  154.4   3.590   34.3  0.1017   12.9  0.2623 -132.4
 4.800  0.5348  152.3   3.502   32.6  0.1024   12.5  0.2586 -135.1
 4.900  0.5386  150.2   3.418   30.7  0.1030   12.1  0.2556 -137.9
 5.000  0.5432  148.1   3.338   28.8  0.1037   11.7  0.2531 -140.7
 5.100  0.5451  146.3   3.265   27.3  0.1045   11.3  0.2495 -143.1
 5.200  0.5476  144.5   3.195   25.8  0.1054   11.0  0.2463 -145.6
 5.300  0.5505  142.8   3.127   24.2  0.1062   10.6  0.2436 -148.2
 5.400  0.5540  141.0   3.061   22.5  0.1071   10.2  0.2415 -150.8
 5.500  0.5580  139.3   2.998   20.8  0.1079    9.9  0.2398 -153.5
 5.600  0.5608  137.6   2.941   19.3  0.1090    9.5  0.2375 -156.4
 5.700  0.5641  136.0   2.887   17.8  0.1101    9.2  0.2359 -159.4
 5.800  0.5679  134.4   2.834   16.2  0.1112    8.8  0.2349 -162.4
 5.900  0.5721  132.8   2.784   14.6  0.1123    8.4  0.2345 -165.4
 6.000  0.5767  131.2   2.736   12.9  0.1134    8.1  0.2348 -168.4
 6.100  0.5798  129.6   2.689   11.4  0.1148    7.6  0.2354 -171.2
 6.200  0.5833  128.1   2.644    9.9  0.1163    7.2  0.2365 -174.0
 6.300  0.5873  126.6   2.600    8.3  0.1177    6.7  0.2381 -176.7
 6.400  0.5916  125.1   2.559    6.6  0.1191    6.3  0.2404 -179.4
 6.500  0.5964  123.6   2.520    4.9  0.1206    5.9  0.2431  177.9
 6.600  0.5986  122.0   2.479    3.4  0.1222    5.3  0.2434  175.5
 6.800  0.6045  118.7   2.401    0.2  0.1254    4.2  0.2451  170.9
 7.000  0.6123  115.6   2.332   -3.2  0.1286    3.1  0.2485  166.3
 7.200  0.6184  112.2   2.259   -6.3  0.1320    1.5  0.2525  160.8
 7.400  0.6266  108.8   2.193   -9.7  0.1355    0.0  0.2587  155.5
 7.600  0.6356  105.4   2.123  -13.0  0.1386   -1.7  0.2668  150.0
 7.800  0.6456  101.9   2.047  -16.3  0.1412   -3.6  0.2772  144.3
 8.000  0.6579   98.5   1.979  -19.9  0.1440   -5.4  0.2902  139.1
 8.200  0.6658   95.3   1.902  -22.7  0.1454   -7.1  0.2999  133.6
 8.400  0.6757   92.1   1.830  -25.8  0.1470   -8.7  0.3123  128.5
 8.600  0.6880   89.3   1.765  -28.7  0.1486  -10.2  0.3265  123.4
 8.800  0.7021   86.7   1.707  -31.3  0.1503  -11.6  0.3430  118.4
 9.000  0.7177   84.2   1.652  -34.2  0.1520  -13.0  0.3618  113.9
 9.200  0.7398   81.7   1.603  -36.9  0.1537  -14.5  0.3872  109.7
 9.400  0.7631   79.3   1.558  -39.7  0.1555  -15.9  0.4143  106.1
 9.600  0.7842   76.9   1.503  -42.6  0.1570  -17.5  0.4423  103.0
 9.800  0.8032   74.4   1.437  -45.6  0.1585  -19.2  0.4706  100.4
10.000  0.8236   72.0   1.375  -48.8  0.1600  -20.9  0.4997   98.1
!
!  f       NFmin   Gammaopt  rn/50
! GHz       dB    MAG  ANG    -
 0.450      0.56  0.48   10   0.14
 0.900      0.59  0.46   23   0.14
 1.900      0.68  0.36   48   0.13
 2.400      0.72  0.32   65   0.12
 5.500      1.15  0.36 -147   0.14
10.000      2.27  0.65  -83   0.98
!
! (c) 2016  Infineon Technologies AG, Munich
