! Infineon Technologies  Discrete & RF Semiconductors
! BFP620
! VCE =  1.0 V,  IC =  30 mA
! Common Emitter S-Parameters:                            Nov 2015
# GHz  S  MA  R  50
!  f         S11            S21            S12            S22
! GHz     MAG   ANG      MAG   ANG      MAG   ANG      MAG   ANG
 0.030  0.5656   -9.3  59.909  174.9  0.0028   90.3  0.9623   -5.0
 0.035  0.5636  -10.9  60.031  174.0  0.0032   89.0  0.9636   -6.1
 0.040  0.5621  -12.6  60.168  173.1  0.0037   88.1  0.9653   -7.2
 0.045  0.5597  -13.8  60.017  171.7  0.0042   87.5  0.9658   -8.4
 0.050  0.5575  -15.0  59.902  170.3  0.0047   87.1  0.9667   -9.5
 0.055  0.5575  -16.6  59.787  169.5  0.0050   85.7  0.9657  -10.6
 0.060  0.5579  -18.2  59.683  168.7  0.0054   84.5  0.9651  -11.8
 0.065  0.5590  -19.9  59.672  168.0  0.0058   83.7  0.9637  -12.9
 0.070  0.5606  -21.6  59.671  167.2  0.0063   83.0  0.9626  -14.1
 0.075  0.5555  -22.9  59.350  166.2  0.0067   82.3  0.9603  -15.2
 0.080  0.5508  -24.3  59.047  165.2  0.0072   81.7  0.9583  -16.3
 0.085  0.5509  -25.9  58.911  164.2  0.0075   80.9  0.9554  -17.4
 0.090  0.5515  -27.4  58.795  163.1  0.0079   80.1  0.9528  -18.5
 0.095  0.5495  -28.7  58.507  162.1  0.0082   79.7  0.9495  -19.6
 0.100  0.5479  -30.1  58.237  161.1  0.0086   79.4  0.9466  -20.7
 0.105  0.5445  -31.6  58.046  160.2  0.0090   78.4  0.9426  -21.7
 0.110  0.5415  -33.1  57.871  159.2  0.0095   77.5  0.9389  -22.8
 0.115  0.5420  -34.6  57.583  158.5  0.0099   77.3  0.9349  -23.8
 0.120  0.5429  -36.1  57.304  157.7  0.0103   77.2  0.9312  -24.9
 0.125  0.5415  -37.4  56.973  156.8  0.0106   76.6  0.9266  -25.9
 0.130  0.5403  -38.7  56.656  155.9  0.0110   76.0  0.9224  -27.0
 0.135  0.5371  -40.0  56.310  155.1  0.0114   75.4  0.9176  -28.0
 0.140  0.5342  -41.4  55.976  154.2  0.0118   74.9  0.9130  -29.0
 0.145  0.5340  -42.8  55.656  153.4  0.0121   74.5  0.9080  -30.0
 0.150  0.5341  -44.3  55.348  152.5  0.0124   74.1  0.9033  -31.0
 0.155  0.5310  -45.5  54.948  151.8  0.0127   73.5  0.8968  -31.9
 0.160  0.5281  -46.7  54.558  151.0  0.0131   73.0  0.8906  -32.8
 0.165  0.5255  -47.9  54.177  150.3  0.0134   72.5  0.8846  -33.7
 0.170  0.5231  -49.1  53.805  149.5  0.0137   72.0  0.8788  -34.6
 0.175  0.5209  -50.4  53.444  148.7  0.0140   71.5  0.8732  -35.5
 0.180  0.5190  -51.6  53.092  147.9  0.0144   71.1  0.8678  -36.4
 0.185  0.5174  -52.9  52.750  147.1  0.0147   70.7  0.8627  -37.4
 0.190  0.5160  -54.2  52.418  146.3  0.0150   70.3  0.8578  -38.3
 0.195  0.5148  -55.4  52.097  145.5  0.0154   69.9  0.8532  -39.3
 0.200  0.5139  -56.7  51.787  144.7  0.0157   69.5  0.8488  -40.3
 0.220  0.5032  -61.2  50.175  142.0  0.0168   68.1  0.8239  -43.5
 0.240  0.4957  -65.9  48.680  139.2  0.0179   66.9  0.8017  -46.9
 0.260  0.4882  -70.3  47.207  136.6  0.0190   65.7  0.7793  -50.1
 0.280  0.4801  -74.4  45.722  134.2  0.0200   64.5  0.7560  -53.0
 0.300  0.4746  -78.7  44.322  131.6  0.0210   63.4  0.7347  -56.1
 0.320  0.4675  -82.5  42.894  129.6  0.0219   62.5  0.7123  -58.7
 0.340  0.4625  -86.3  41.523  127.4  0.0228   61.6  0.6915  -61.5
 0.360  0.4574  -89.9  40.211  125.4  0.0236   60.9  0.6715  -64.0
 0.380  0.4516  -93.2  38.939  123.6  0.0243   60.2  0.6518  -66.4
 0.400  0.4474  -96.5  37.708  121.7  0.0251   59.6  0.6333  -68.9
 0.420  0.4417  -99.5  36.539  120.2  0.0258   59.1  0.6154  -71.0
 0.440  0.4372 -102.5  35.396  118.6  0.0265   58.6  0.5984  -73.3
 0.450  0.4354 -104.0  34.835  117.8  0.0268   58.4  0.5903  -74.5
 0.460  0.4328 -105.3  34.313  117.1  0.0271   58.2  0.5822  -75.5
 0.480  0.4283 -108.0  33.284  115.7  0.0278   57.7  0.5667  -77.5
 0.500  0.4248 -110.8  32.276  114.2  0.0285   57.3  0.5518  -79.6
 0.520  0.4207 -113.1  31.404  113.1  0.0291   57.0  0.5381  -81.2
 0.540  0.4173 -115.4  30.542  112.0  0.0297   56.8  0.5249  -83.0
 0.560  0.4145 -117.7  29.693  110.9  0.0304   56.6  0.5122  -84.8
 0.580  0.4125 -120.1  28.857  109.6  0.0310   56.3  0.5000  -86.7
 0.600  0.4112 -122.5  28.036  108.3  0.0316   56.1  0.4884  -88.7
 0.620  0.4083 -124.4  27.337  107.4  0.0322   56.0  0.4775  -90.1
 0.640  0.4058 -126.3  26.644  106.5  0.0328   55.9  0.4668  -91.7
 0.660  0.4037 -128.3  25.958  105.6  0.0333   55.8  0.4566  -93.2
 0.680  0.4022 -130.2  25.280  104.6  0.0339   55.7  0.4466  -94.9
 0.700  0.4011 -132.2  24.610  103.5  0.0345   55.6  0.4371  -96.6
 0.720  0.3993 -133.8  24.055  102.8  0.0351   55.5  0.4287  -97.9
 0.740  0.3978 -135.5  23.504  102.0  0.0356   55.4  0.4206  -99.3
 0.760  0.3967 -137.1  22.958  101.2  0.0362   55.3  0.4127 -100.8
 0.780  0.3959 -138.7  22.417  100.3  0.0367   55.2  0.4050 -102.2
 0.800  0.3954 -140.4  21.881   99.4  0.0373   55.1  0.3977 -103.8
 0.820  0.3941 -141.8  21.429   98.8  0.0379   55.0  0.3910 -105.0
 0.840  0.3930 -143.2  20.979   98.1  0.0385   55.0  0.3845 -106.3
 0.860  0.3922 -144.6  20.533   97.4  0.0390   54.9  0.3782 -107.6
 0.880  0.3916 -146.1  20.090   96.7  0.0396   54.9  0.3722 -109.0
 0.900  0.3912 -147.5  19.650   95.9  0.0402   54.8  0.3663 -110.4
 0.920  0.3905 -148.7  19.287   95.3  0.0408   54.8  0.3610 -111.5
 0.940  0.3900 -149.9  18.925   94.8  0.0414   54.7  0.3559 -112.7
 0.960  0.3896 -151.0  18.566   94.2  0.0419   54.7  0.3510 -113.8
 0.980  0.3894 -152.2  18.208   93.5  0.0425   54.6  0.3462 -115.1
 1.000  0.3894 -153.4  17.853   92.9  0.0431   54.6  0.3415 -116.3
 1.020  0.3889 -154.5  17.541   92.4  0.0437   54.5  0.3373 -117.4
 1.040  0.3886 -155.6  17.231   91.8  0.0443   54.5  0.3333 -118.6
 1.060  0.3884 -156.7  16.922   91.2  0.0448   54.4  0.3294 -119.8
 1.080  0.3884 -157.8  16.615   90.6  0.0454   54.4  0.3257 -121.0
 1.100  0.3885 -158.9  16.310   90.0  0.0460   54.3  0.3221 -122.2
 1.120  0.3882 -159.9  16.048   89.5  0.0466   54.2  0.3185 -123.2
 1.140  0.3881 -160.9  15.788   89.0  0.0472   54.2  0.3150 -124.3
 1.160  0.3880 -161.8  15.529   88.6  0.0477   54.1  0.3116 -125.4
 1.180  0.3881 -162.8  15.271   88.0  0.0483   54.1  0.3084 -126.5
 1.200  0.3883 -163.8  15.014   87.5  0.0489   54.0  0.3052 -127.6
 1.220  0.3883 -164.6  14.793   87.1  0.0495   53.9  0.3026 -128.6
 1.240  0.3884 -165.4  14.572   86.6  0.0501   53.9  0.3001 -129.6
 1.260  0.3886 -166.3  14.353   86.2  0.0507   53.8  0.2977 -130.6
 1.280  0.3889 -167.1  14.134   85.7  0.0513   53.8  0.2954 -131.6
 1.300  0.3892 -167.9  13.917   85.2  0.0519   53.7  0.2932 -132.6
 1.320  0.3895 -168.7  13.728   84.8  0.0525   53.6  0.2909 -133.6
 1.340  0.3899 -169.5  13.540   84.3  0.0531   53.5  0.2887 -134.6
 1.360  0.3903 -170.4  13.353   83.9  0.0537   53.3  0.2866 -135.6
 1.380  0.3909 -171.2  13.166   83.4  0.0543   53.2  0.2846 -136.7
 1.400  0.3915 -172.0  12.981   82.9  0.0549   53.1  0.2827 -137.7
 1.420  0.3912 -172.8  12.810   82.5  0.0555   53.0  0.2811 -138.6
 1.440  0.3910 -173.6  12.639   82.1  0.0561   52.9  0.2795 -139.5
 1.460  0.3908 -174.5  12.469   81.6  0.0566   52.8  0.2780 -140.4
 1.480  0.3908 -175.3  12.300   81.2  0.0572   52.7  0.2766 -141.4
 1.500  0.3908 -176.1  12.132   80.7  0.0578   52.6  0.2752 -142.3
 1.520  0.3913 -176.8  11.980   80.3  0.0584   52.5  0.2736 -143.2
 1.540  0.3919 -177.5  11.828   79.9  0.0590   52.4  0.2721 -144.2
 1.560  0.3925 -178.3  11.676   79.5  0.0595   52.2  0.2707 -145.2
 1.580  0.3932 -179.0  11.526   79.0  0.0601   52.1  0.2694 -146.1
 1.600  0.3939 -179.7  11.376   78.6  0.0607   52.0  0.2681 -147.1
 1.620  0.3944  179.6  11.244   78.2  0.0613   51.9  0.2672 -147.9
 1.640  0.3950  178.9  11.112   77.9  0.0619   51.8  0.2664 -148.8
 1.660  0.3956  178.3  10.980   77.5  0.0625   51.7  0.2656 -149.6
 1.680  0.3963  177.6  10.849   77.1  0.0631   51.6  0.2649 -150.5
 1.700  0.3970  176.9  10.719   76.7  0.0637   51.5  0.2643 -151.3
 1.720  0.3972  176.3  10.602   76.3  0.0643   51.3  0.2633 -152.2
 1.740  0.3975  175.6  10.485   76.0  0.0649   51.2  0.2623 -153.2
 1.760  0.3979  175.0  10.369   75.6  0.0655   51.0  0.2614 -154.2
 1.780  0.3983  174.3  10.253   75.2  0.0661   50.9  0.2606 -155.1
 1.800  0.3987  173.7  10.138   74.8  0.0667   50.7  0.2599 -156.1
 1.820  0.3992  173.1  10.028   74.4  0.0673   50.6  0.2593 -156.9
 1.840  0.3997  172.5   9.919   74.0  0.0678   50.4  0.2587 -157.7
 1.860  0.4002  171.8   9.811   73.6  0.0684   50.3  0.2582 -158.5
 1.880  0.4008  171.2   9.703   73.2  0.0689   50.1  0.2578 -159.3
 1.900  0.4015  170.6   9.595   72.8  0.0695   50.0  0.2574 -160.1
 1.920  0.4022  170.0   9.498   72.5  0.0701   49.8  0.2570 -160.9
 1.940  0.4029  169.4   9.401   72.1  0.0707   49.7  0.2568 -161.8
 1.960  0.4036  168.8   9.305   71.7  0.0712   49.5  0.2565 -162.6
 1.980  0.4045  168.2   9.209   71.4  0.0718   49.4  0.2563 -163.5
 2.000  0.4053  167.6   9.114   71.0  0.0724   49.2  0.2562 -164.3
 2.020  0.4060  167.1   9.030   70.7  0.0730   49.0  0.2560 -165.1
 2.040  0.4066  166.5   8.945   70.4  0.0736   48.9  0.2559 -165.8
 2.060  0.4074  166.0   8.862   70.1  0.0741   48.7  0.2559 -166.6
 2.080  0.4081  165.4   8.778   69.8  0.0747   48.6  0.2559 -167.3
 2.100  0.4089  164.9   8.695   69.5  0.0753   48.4  0.2559 -168.1
 2.120  0.4098  164.3   8.612   69.2  0.0759   48.3  0.2560 -168.9
 2.140  0.4107  163.8   8.529   68.8  0.0765   48.1  0.2561 -169.6
 2.160  0.4116  163.3   8.446   68.5  0.0770   48.0  0.2562 -170.4
 2.180  0.4125  162.7   8.364   68.1  0.0776   47.8  0.2564 -171.1
 2.200  0.4135  162.2   8.282   67.8  0.0782   47.7  0.2567 -171.9
 2.220  0.4140  161.7   8.209   67.5  0.0788   47.5  0.2567 -172.6
 2.240  0.4146  161.2   8.137   67.1  0.0793   47.3  0.2567 -173.3
 2.260  0.4152  160.7   8.064   66.8  0.0799   47.1  0.2568 -174.0
 2.280  0.4158  160.1   7.992   66.5  0.0804   46.9  0.2569 -174.7
 2.300  0.4164  159.6   7.921   66.1  0.0810   46.8  0.2570 -175.4
 2.320  0.4171  159.1   7.849   65.8  0.0816   46.6  0.2572 -176.1
 2.340  0.4178  158.6   7.778   65.4  0.0821   46.4  0.2574 -176.8
 2.360  0.4186  158.1   7.708   65.1  0.0827   46.2  0.2577 -177.5
 2.380  0.4194  157.6   7.637   64.7  0.0832   46.1  0.2580 -178.2
 2.400  0.4202  157.1   7.567   64.3  0.0838   45.9  0.2583 -178.9
 2.420  0.4208  156.6   7.507   64.0  0.0844   45.7  0.2586 -179.5
 2.440  0.4215  156.1   7.447   63.7  0.0849   45.5  0.2590  179.9
 2.460  0.4221  155.7   7.388   63.4  0.0855   45.4  0.2594  179.2
 2.480  0.4229  155.2   7.328   63.0  0.0861   45.2  0.2598  178.6
 2.500  0.4236  154.7   7.269   62.7  0.0866   45.0  0.2603  178.0
 2.520  0.4244  154.3   7.210   62.4  0.0872   44.9  0.2608  177.4
 2.540  0.4252  153.8   7.151   62.0  0.0878   44.7  0.2613  176.8
 2.560  0.4260  153.3   7.093   61.7  0.0884   44.5  0.2618  176.2
 2.580  0.4268  152.9   7.035   61.4  0.0889   44.4  0.2624  175.6
 2.600  0.4277  152.4   6.977   61.0  0.0895   44.2  0.2630  175.0
 2.620  0.4284  152.0   6.924   60.7  0.0900   44.0  0.2634  174.4
 2.640  0.4291  151.5   6.871   60.4  0.0906   43.8  0.2639  173.8
 2.660  0.4299  151.1   6.818   60.1  0.0911   43.6  0.2643  173.2
 2.680  0.4307  150.6   6.765   59.8  0.0917   43.4  0.2648  172.6
 2.700  0.4315  150.2   6.713   59.5  0.0922   43.2  0.2654  172.0
 2.720  0.4323  149.7   6.661   59.2  0.0928   43.0  0.2660  171.4
 2.740  0.4332  149.3   6.609   58.9  0.0933   42.8  0.2665  170.8
 2.760  0.4341  148.9   6.557   58.6  0.0939   42.6  0.2672  170.2
 2.780  0.4350  148.4   6.505   58.2  0.0944   42.4  0.2678  169.6
 2.800  0.4359  148.0   6.454   57.9  0.0950   42.2  0.2685  169.0
 2.820  0.4367  147.6   6.408   57.6  0.0955   42.0  0.2691  168.4
 2.840  0.4375  147.1   6.361   57.3  0.0961   41.8  0.2696  167.9
 2.860  0.4383  146.7   6.315   57.0  0.0966   41.6  0.2702  167.4
 2.880  0.4392  146.3   6.269   56.7  0.0971   41.4  0.2708  166.8
 2.900  0.4401  145.8   6.224   56.4  0.0976   41.2  0.2715  166.3
 2.920  0.4410  145.4   6.178   56.1  0.0982   41.0  0.2722  165.7
 2.940  0.4419  145.0   6.133   55.8  0.0987   40.8  0.2729  165.2
 2.960  0.4429  144.5   6.088   55.5  0.0992   40.7  0.2736  164.7
 2.980  0.4439  144.1   6.043   55.1  0.0998   40.5  0.2743  164.1
 3.000  0.4449  143.7   5.998   54.8  0.1003   40.3  0.2751  163.6
 3.100  0.4495  141.7   5.808   53.5  0.1028   39.2  0.2792  161.0
 3.200  0.4546  139.7   5.621   52.1  0.1054   38.1  0.2838  158.5
 3.300  0.4603  137.7   5.438   50.6  0.1079   37.1  0.2889  156.1
 3.400  0.4664  135.8   5.259   49.0  0.1106   36.1  0.2946  153.7
 3.500  0.4731  134.0   5.084   47.3  0.1132   35.2  0.3007  151.5
 3.600  0.4800  132.3   4.937   46.0  0.1154   34.1  0.3066  149.4
 3.700  0.4873  130.7   4.793   44.7  0.1176   33.0  0.3129  147.4
 3.800  0.4950  129.1   4.651   43.3  0.1199   32.0  0.3196  145.5
 3.900  0.5030  127.6   4.512   41.8  0.1222   31.0  0.3267  143.7
 4.000  0.5114  126.1   4.377   40.2  0.1246   30.0  0.3340  141.9
 4.100  0.5178  124.8   4.263   39.0  0.1266   28.9  0.3403  140.3
 4.200  0.5245  123.4   4.151   37.8  0.1286   27.9  0.3468  138.8
 4.300  0.5315  122.2   4.041   36.5  0.1307   26.9  0.3535  137.4
 4.400  0.5387  120.9   3.933   35.1  0.1328   25.9  0.3605  135.9
 4.500  0.5462  119.7   3.828   33.6  0.1349   25.0  0.3677  134.6
 4.600  0.5496  118.4   3.739   32.4  0.1368   24.0  0.3718  133.1
 4.700  0.5533  117.0   3.651   31.2  0.1388   23.0  0.3762  131.6
 4.800  0.5573  115.7   3.565   29.9  0.1408   22.0  0.3808  130.2
 4.900  0.5616  114.5   3.480   28.6  0.1429   21.1  0.3856  128.8
 5.000  0.5662  113.2   3.398   27.2  0.1450   20.2  0.3907  127.4
 5.100  0.5680  111.8   3.324   26.0  0.1468   19.1  0.3937  125.8
 5.200  0.5701  110.4   3.252   24.8  0.1487   18.1  0.3969  124.3
 5.300  0.5725  109.0   3.181   23.6  0.1506   17.1  0.4005  122.8
 5.400  0.5753  107.7   3.112   22.3  0.1526   16.1  0.4043  121.3
 5.500  0.5784  106.3   3.045   20.9  0.1546   15.2  0.4084  119.8
 5.600  0.5812  105.1   2.984   19.8  0.1563   14.2  0.4118  118.3
 5.700  0.5842  103.9   2.924   18.6  0.1581   13.2  0.4155  116.8
 5.800  0.5874  102.8   2.865   17.4  0.1600   12.3  0.4195  115.4
 5.900  0.5909  101.6   2.807   16.2  0.1619   11.3  0.4237  114.0
 6.000  0.5946  100.5   2.751   14.9  0.1638   10.4  0.4282  112.6
 6.100  0.5990   99.6   2.703   13.8  0.1655    9.4  0.4321  111.5
 6.200  0.6035   98.7   2.657   12.7  0.1672    8.3  0.4361  110.4
 6.300  0.6082   97.8   2.611   11.5  0.1690    7.3  0.4403  109.3
 6.400  0.6130   97.0   2.567   10.3  0.1709    6.4  0.4446  108.2
 6.500  0.6180   96.1   2.524    9.0  0.1728    5.4  0.4491  107.2
 6.600  0.6220   95.3   2.484    7.8  0.1744    4.3  0.4525  106.1
 6.800  0.6304   93.7   2.406    5.3  0.1778    2.2  0.4598  104.1
 7.000  0.6392   92.2   2.334    2.7  0.1815    0.1  0.4676  102.1
 7.200  0.6460   90.1   2.258    0.1  0.1840   -2.3  0.4761   99.9
 7.400  0.6537   88.0   2.187   -2.6  0.1868   -4.7  0.4853   97.8
 7.600  0.6618   85.6   2.116   -5.3  0.1890   -7.0  0.4953   95.5
 7.800  0.6709   83.0   2.042   -7.9  0.1905   -9.4  0.5066   92.9
 8.000  0.6814   80.4   1.973  -10.8  0.1924  -11.7  0.5188   90.5
 8.200  0.6899   77.2   1.895  -13.2  0.1924  -14.1  0.5313   87.7
 8.400  0.7005   74.1   1.820  -15.8  0.1928  -16.4  0.5449   85.0
 8.600  0.7118   71.1   1.748  -18.2  0.1926  -18.7  0.5595   82.3
 8.800  0.7237   68.2   1.678  -20.5  0.1919  -20.8  0.5752   79.5
 9.000  0.7375   65.4   1.610  -22.9  0.1915  -23.0  0.5921   76.9
 9.200  0.7514   63.3   1.540  -24.7  0.1897  -24.5  0.6086   74.6
 9.400  0.7663   61.4   1.471  -26.6  0.1881  -26.1  0.6259   72.5
 9.600  0.7807   60.1   1.414  -28.2  0.1869  -27.4  0.6411   70.9
 9.800  0.7941   59.5   1.368  -29.3  0.1860  -28.3  0.6536   69.7
10.000  0.8075   58.9   1.323  -30.6  0.1852  -29.2  0.6664   68.5
10.200  0.8141   59.0   1.293  -31.6  0.1860  -30.0  0.6719   68.1
10.400  0.8208   59.1   1.264  -32.7  0.1869  -30.9  0.6774   67.8
10.600  0.8240   59.1   1.241  -34.0  0.1886  -31.8  0.6809   67.5
10.800  0.8238   58.8   1.223  -35.4  0.1913  -32.8  0.6822   67.4
11.000  0.8237   58.6   1.206  -36.9  0.1941  -33.8  0.6835   67.3
11.200  0.8175   56.9   1.183  -39.0  0.1967  -35.6  0.6826   66.4
11.400  0.8120   55.2   1.162  -41.3  0.1995  -37.4  0.6818   65.5
11.600  0.8041   53.1   1.137  -43.2  0.2005  -39.3  0.6824   64.4
11.800  0.7943   50.8   1.108  -44.9  0.1997  -41.2  0.6845   63.1
12.000  0.7858   48.4   1.080  -46.7  0.1992  -43.2  0.6870   61.8
!
!  f       NFmin   Gammaopt  rn/50
! GHz       dB    MAG  ANG    -
 0.450      1.15  0.14 -158   0.10
 0.900      1.15  0.17 -148   0.10
 1.900      1.16  0.21 -139   0.11
 2.400      1.18  0.22 -136   0.11
 3.500      1.23  0.30  -99   0.17
 5.500      1.48  0.33  -84   0.22
10.000      1.86  0.62  -46   0.90
!
! (c) 2015  Infineon Technologies AG, Munich
