! Infineon Technologies  Discrete & RF Semiconductors
! BFP620F
! VCE =  1.3 V,  IC =  37 mA
! Common Emitter S-Parameters:                            Dec 2014
# GHz  S  MA  R  50
!  f         S11            S21            S12            S22
! GHz     MAG   ANG      MAG   ANG      MAG   ANG      MAG   ANG
 0.030  0.6257   -8.6  61.978  174.4  0.0021   77.3  0.9595   -4.2
 0.040  0.6228  -11.0  61.958  172.2  0.0036   82.6  0.9632   -6.3
 0.050  0.6180  -13.7  61.833  170.2  0.0042   86.6  0.9629   -8.4
 0.060  0.6183  -16.4  61.561  168.4  0.0062   80.3  0.9625  -10.5
 0.070  0.6134  -18.5  61.193  166.3  0.0068   89.9  0.9593  -12.5
 0.080  0.6089  -20.9  60.764  164.3  0.0060   84.4  0.9535  -14.4
 0.090  0.6044  -23.5  60.189  162.3  0.0069   85.1  0.9485  -16.5
 0.100  0.5986  -25.9  59.545  160.5  0.0071   80.3  0.9416  -18.4
 0.110  0.5926  -28.5  58.852  158.5  0.0086   80.4  0.9323  -20.5
 0.120  0.5860  -31.0  58.156  156.7  0.0094   79.1  0.9226  -22.4
 0.130  0.5793  -33.3  57.532  155.0  0.0106   77.1  0.9114  -24.1
 0.140  0.5740  -35.6  56.745  153.3  0.0110   74.2  0.9011  -26.1
 0.150  0.5676  -37.8  56.142  151.7  0.0113   76.6  0.8897  -27.7
 0.200  0.5360  -48.4  52.120  144.0  0.0151   73.1  0.8302  -35.8
 0.250  0.5020  -57.8  48.171  137.3  0.0174   71.3  0.7681  -42.7
 0.300  0.4721  -66.5  44.366  131.6  0.0200   67.8  0.7083  -48.9
 0.350  0.4438  -74.3  40.748  126.7  0.0220   66.4  0.6516  -54.0
 0.400  0.4186  -81.5  37.596  122.4  0.0240   65.4  0.6003  -58.7
 0.450  0.3985  -87.6  34.738  118.7  0.0259   64.8  0.5568  -62.9
 0.500  0.3784  -93.5  32.169  115.5  0.0279   64.5  0.5161  -66.6
 0.600  0.3494 -104.2  27.889  110.1  0.0315   64.0  0.4465  -73.1
 0.700  0.3273 -113.1  24.523  105.7  0.0348   64.2  0.3917  -78.8
 0.800  0.3127 -121.0  21.784  102.2  0.0380   64.3  0.3469  -83.7
 0.900  0.2997 -127.9  19.566   99.2  0.0414   64.1  0.3098  -88.5
 1.000  0.2927 -134.2  17.744   96.5  0.0447   64.3  0.2790  -92.9
 1.100  0.2854 -139.9  16.191   94.2  0.0479   64.5  0.2526  -97.6
 1.200  0.2828 -144.9  14.910   92.2  0.0513   64.3  0.2318 -101.7
 1.300  0.2789 -149.5  13.786   90.3  0.0547   64.1  0.2122 -106.3
 1.400  0.2791 -153.6  12.831   88.6  0.0582   64.2  0.1972 -110.7
 1.500  0.2772 -157.6  11.984   87.0  0.0616   63.9  0.1838 -115.5
 1.600  0.2784 -161.2  11.244   85.5  0.0651   63.7  0.1748 -120.0
 1.700  0.2778 -164.5  10.586   84.1  0.0683   63.5  0.1659 -124.7
 1.800  0.2796 -167.5  10.008   82.7  0.0718   63.3  0.1608 -129.2
 1.900  0.2802 -170.3   9.482   81.4  0.0752   62.9  0.1567 -133.4
 2.000  0.2816 -172.9   9.011   80.2  0.0788   62.6  0.1546 -137.3
 2.100  0.2844 -175.4   8.584   79.0  0.0821   62.0  0.1595 -139.9
 2.200  0.2852 -177.6   8.195   77.8  0.0854   61.5  0.1576 -143.1
 2.300  0.2871 -179.9   7.838   76.7  0.0887   61.2  0.1562 -146.1
 2.400  0.2881  178.1   7.518   75.5  0.0921   60.8  0.1554 -148.7
 2.500  0.2892  176.1   7.220   74.5  0.0957   60.2  0.1549 -151.3
 2.600  0.2900  174.1   6.943   73.4  0.0990   59.7  0.1545 -153.7
 2.700  0.2914  172.4   6.689   72.4  0.1023   59.3  0.1542 -155.6
 2.800  0.2915  170.5   6.452   71.4  0.1061   58.8  0.1541 -157.6
 2.900  0.2926  168.8   6.231   70.4  0.1092   58.2  0.1547 -159.3
 3.000  0.2933  167.1   6.030   69.3  0.1125   57.7  0.1553 -161.0
 3.100  0.2942  165.7   5.834   68.4  0.1160   57.2  0.1546 -162.6
 3.200  0.2942  164.0   5.654   67.4  0.1194   56.6  0.1549 -164.0
 3.300  0.2951  162.6   5.487   66.4  0.1229   56.0  0.1548 -165.2
 3.400  0.2951  161.0   5.331   65.4  0.1260   55.4  0.1551 -166.7
 3.500  0.2958  159.6   5.181   64.6  0.1295   54.8  0.1542 -168.0
 3.600  0.2958  158.1   5.040   63.6  0.1327   54.2  0.1539 -169.4
 3.700  0.2966  156.8   4.909   62.6  0.1360   53.6  0.1534 -170.6
 3.800  0.2971  155.3   4.781   61.7  0.1396   53.0  0.1528 -172.0
 3.900  0.2979  154.0   4.664   60.7  0.1427   52.4  0.1522 -173.4
 4.000  0.2981  152.6   4.548   59.8  0.1460   51.8  0.1508 -175.1
 4.100  0.2995  151.4   4.444   58.8  0.1492   51.1  0.1501 -176.6
 4.200  0.3006  150.1   4.342   57.9  0.1526   50.4  0.1492 -178.6
 4.300  0.3017  149.0   4.247   57.0  0.1560   49.8  0.1485  179.7
 4.400  0.3034  147.8   4.154   56.1  0.1594   49.1  0.1478  178.0
 4.500  0.3044  146.8   4.065   55.2  0.1625   48.4  0.1468  176.2
 4.600  0.3064  145.6   3.980   54.2  0.1657   47.8  0.1464  174.1
 4.700  0.3076  144.7   3.902   53.3  0.1691   47.1  0.1463  172.2
 4.800  0.3104  143.6   3.823   52.4  0.1723   46.4  0.1462  170.1
 4.900  0.3121  142.8   3.748   51.5  0.1755   45.7  0.1457  167.9
 5.000  0.3145  141.8   3.679   50.4  0.1787   45.0  0.1462  165.9
 5.100  0.3162  140.9   3.610   49.5  0.1820   44.3  0.1456  164.0
 5.200  0.3189  140.1   3.544   48.6  0.1852   43.5  0.1461  161.9
 5.300  0.3207  139.3   3.480   47.6  0.1882   42.8  0.1464  160.0
 5.400  0.3237  138.5   3.418   46.6  0.1913   42.0  0.1474  158.2
 5.500  0.3262  137.7   3.357   45.7  0.1944   41.3  0.1478  156.1
 5.600  0.3294  136.9   3.298   44.8  0.1975   40.6  0.1489  154.2
 5.700  0.3315  136.1   3.242   43.8  0.2004   39.8  0.1498  152.3
 5.800  0.3340  135.2   3.188   42.8  0.2034   39.1  0.1506  150.4
 5.900  0.3368  134.3   3.135   41.9  0.2063   38.2  0.1521  148.3
 6.000  0.3394  133.4   3.081   40.9  0.2091   37.5  0.1531  146.6
 6.100  0.3421  132.4   3.031   40.0  0.2119   36.8  0.1541  144.5
 6.200  0.3447  131.5   2.980   39.0  0.2146   36.0  0.1556  142.3
 6.300  0.3477  130.4   2.931   38.0  0.2170   35.2  0.1576  140.1
 6.400  0.3506  129.4   2.884   37.0  0.2198   34.4  0.1596  138.2
 6.500  0.3532  128.3   2.837   36.1  0.2223   33.7  0.1609  135.6
 6.600  0.3559  127.2   2.789   35.2  0.2247   32.9  0.1636  133.4
 6.700  0.3584  125.9   2.744   34.3  0.2271   32.2  0.1653  131.0
 6.800  0.3612  124.7   2.701   33.3  0.2296   31.4  0.1673  128.6
 6.900  0.3645  123.5   2.657   32.4  0.2320   30.7  0.1697  126.0
 7.000  0.3680  122.3   2.614   31.5  0.2345   30.0  0.1724  123.4
 7.100  0.3713  121.2   2.574   30.6  0.2369   29.3  0.1756  120.7
 7.200  0.3749  120.0   2.535   29.7  0.2394   28.6  0.1793  118.1
 7.300  0.3793  119.0   2.497   28.9  0.2418   27.9  0.1838  115.6
 7.400  0.3839  117.9   2.460   28.0  0.2442   27.2  0.1886  113.2
 7.500  0.3891  117.0   2.424   27.2  0.2467   26.5  0.1944  110.9
 7.600  0.3943  116.1   2.389   26.4  0.2493   25.7  0.2006  108.6
 7.700  0.4006  115.3   2.355   25.5  0.2516   25.0  0.2081  106.5
 7.800  0.4069  114.5   2.322   24.7  0.2541   24.2  0.2159  104.6
 7.900  0.4145  113.8   2.289   23.8  0.2562   23.4  0.2246  102.6
 8.000  0.4221  113.1   2.257   22.9  0.2585   22.6  0.2336  100.7
!
!  f       NFmin   Gammaopt  rn/50
! GHz       dB    MAG  ANG    -
 0.450      1.29  0.13 -172   0.16
 0.900      1.32  0.13 -172   0.13
 1.500      1.33  0.17 -151   0.11
 1.800      1.34  0.18 -151   0.12
 1.900      1.35  0.18 -150   0.12
 2.400      1.37  0.19  215   0.14
 3.500      1.43  0.19  219   0.18
 5.500      1.57  0.25  245   0.16
 6.000      1.61  0.26  261   0.18
!
! (c) 2014  Infineon Technologies AG, Munich
