! Infineon Technologies  Discrete & RF Semiconductors
! BFP620F
! VCE =  2.0 V,  IC =  3.0 mA
! Common Emitter S-Parameters:                            Dec 2014
# GHz  S  MA  R  50
!  f         S11            S21            S12            S22
! GHz     MAG   ANG      MAG   ANG      MAG   ANG      MAG   ANG
 0.030  0.9726   -1.4   9.314  178.3  0.0028   83.2  0.9972   -1.1
 0.040  0.9732   -1.9   9.212  177.8  0.0033   85.1  0.9966   -1.5
 0.050  0.9721   -2.6   9.278  177.5  0.0038   64.1  0.9969   -1.6
 0.060  0.9734   -3.1   9.252  177.4  0.0053   80.8  0.9984   -2.1
 0.070  0.9724   -3.5   9.238  176.8  0.0053   78.4  0.9961   -2.4
 0.080  0.9732   -4.1   9.286  176.4  0.0071   91.8  0.9956   -2.8
 0.090  0.9713   -4.5   9.265  176.0  0.0071   81.7  0.9956   -3.1
 0.100  0.9708   -5.1   9.253  175.6  0.0082   83.6  0.9961   -3.4
 0.110  0.9705   -5.6   9.274  175.1  0.0084   82.5  0.9954   -3.8
 0.120  0.9703   -6.1   9.251  174.7  0.0099   86.8  0.9956   -4.1
 0.130  0.9705   -6.6   9.252  174.3  0.0103   83.3  0.9951   -4.5
 0.140  0.9704   -7.1   9.237  173.9  0.0107   85.5  0.9940   -4.9
 0.150  0.9698   -7.6   9.237  173.5  0.0110   86.3  0.9938   -5.2
 0.200  0.9670  -10.1   9.200  171.3  0.0157   84.7  0.9913   -6.9
 0.250  0.9642  -12.6   9.182  169.1  0.0196   82.3  0.9874   -8.6
 0.300  0.9611  -15.1   9.130  167.0  0.0241   81.9  0.9833  -10.4
 0.350  0.9559  -17.7   9.103  164.8  0.0274   80.3  0.9780  -12.1
 0.400  0.9509  -20.2   9.041  162.7  0.0316   78.7  0.9707  -13.8
 0.450  0.9454  -22.7   9.001  160.6  0.0353   77.4  0.9652  -15.5
 0.500  0.9389  -25.1   8.921  158.6  0.0391   76.0  0.9575  -17.2
 0.600  0.9225  -30.1   8.762  154.4  0.0465   73.1  0.9378  -20.5
 0.700  0.9066  -35.0   8.655  150.5  0.0538   70.4  0.9185  -23.7
 0.800  0.8876  -39.9   8.469  146.6  0.0603   67.8  0.8951  -26.7
 0.900  0.8671  -44.5   8.278  142.9  0.0668   65.0  0.8703  -29.7
 1.000  0.8456  -49.1   8.067  139.4  0.0726   62.3  0.8442  -32.5
 1.100  0.8231  -53.5   7.843  135.9  0.0782   59.9  0.8167  -35.2
 1.200  0.8016  -57.9   7.624  132.7  0.0832   57.6  0.7894  -37.8
 1.300  0.7778  -62.2   7.428  129.4  0.0877   55.5  0.7616  -40.1
 1.400  0.7563  -66.5   7.229  126.4  0.0919   53.5  0.7360  -42.3
 1.500  0.7328  -70.6   7.032  123.4  0.0958   51.5  0.7086  -44.4
 1.600  0.7102  -74.8   6.855  120.5  0.0993   49.8  0.6836  -46.5
 1.700  0.6887  -78.6   6.634  117.8  0.1025   48.2  0.6595  -48.4
 1.800  0.6688  -82.4   6.448  115.1  0.1054   46.5  0.6373  -50.5
 1.900  0.6499  -86.0   6.246  112.7  0.1083   45.2  0.6156  -52.3
 2.000  0.6314  -89.6   6.064  110.3  0.1110   43.9  0.5968  -54.1
 2.100  0.6152  -93.2   5.886  107.9  0.1142   42.4  0.5812  -56.5
 2.200  0.5987  -96.6   5.720  105.6  0.1164   41.3  0.5636  -58.1
 2.300  0.5834  -99.9   5.547  103.5  0.1184   40.1  0.5464  -59.6
 2.400  0.5686 -103.2   5.401  101.3  0.1208   38.9  0.5322  -61.1
 2.500  0.5554 -106.2   5.240   99.4  0.1227   38.0  0.5168  -62.5
 2.600  0.5428 -109.2   5.097   97.5  0.1243   37.0  0.5029  -63.9
 2.700  0.5313 -112.2   4.959   95.7  0.1258   36.3  0.4890  -65.1
 2.800  0.5193 -115.0   4.832   93.9  0.1273   35.6  0.4771  -66.4
 2.900  0.5099 -117.9   4.702   92.1  0.1290   34.8  0.4662  -67.6
 3.000  0.4981 -120.9   4.600   90.3  0.1308   34.1  0.4561  -68.7
 3.100  0.4901 -123.4   4.475   88.7  0.1321   33.5  0.4451  -69.7
 3.200  0.4803 -126.1   4.370   87.0  0.1335   32.8  0.4362  -70.7
 3.300  0.4734 -128.7   4.265   85.5  0.1349   32.3  0.4274  -71.7
 3.400  0.4647 -131.3   4.171   83.9  0.1365   31.6  0.4194  -72.7
 3.500  0.4588 -133.7   4.068   82.4  0.1375   31.1  0.4107  -73.5
 3.600  0.4511 -136.3   3.979   80.9  0.1389   30.7  0.4024  -74.4
 3.700  0.4455 -138.6   3.891   79.5  0.1405   30.1  0.3954  -75.1
 3.800  0.4381 -141.1   3.809   78.0  0.1416   29.6  0.3887  -75.8
 3.900  0.4337 -143.5   3.730   76.6  0.1432   29.2  0.3819  -76.5
 4.000  0.4281 -145.8   3.649   75.3  0.1443   28.7  0.3743  -77.1
 4.100  0.4243 -148.1   3.576   73.8  0.1456   28.4  0.3669  -77.8
 4.200  0.4201 -150.5   3.504   72.5  0.1469   27.9  0.3603  -78.3
 4.300  0.4165 -152.7   3.441   71.2  0.1484   27.5  0.3535  -78.9
 4.400  0.4128 -155.1   3.377   69.9  0.1497   27.0  0.3473  -79.4
 4.500  0.4112 -157.2   3.311   68.6  0.1510   26.7  0.3411  -80.0
 4.600  0.4088 -159.5   3.249   67.3  0.1523   26.4  0.3331  -80.5
 4.700  0.4069 -161.6   3.195   66.0  0.1538   25.9  0.3280  -81.1
 4.800  0.4054 -163.9   3.139   64.8  0.1551   25.7  0.3212  -81.7
 4.900  0.4046 -165.9   3.085   63.6  0.1564   25.3  0.3142  -82.2
 5.000  0.4037 -168.1   3.036   62.3  0.1578   24.9  0.3084  -82.9
 5.100  0.4030 -170.0   2.984   61.1  0.1591   24.6  0.3028  -83.3
 5.200  0.4031 -172.1   2.939   59.9  0.1605   24.1  0.2972  -83.8
 5.300  0.4024 -174.0   2.893   58.6  0.1620   23.7  0.2917  -84.3
 5.400  0.4031 -176.0   2.848   57.4  0.1633   23.4  0.2868  -84.9
 5.500  0.4037 -177.8   2.801   56.2  0.1647   23.1  0.2805  -85.5
 5.600  0.4046 -179.7   2.760   55.0  0.1660   22.7  0.2746  -86.1
 5.700  0.4052  178.5   2.716   53.9  0.1674   22.2  0.2697  -86.6
 5.800  0.4052  176.3   2.681   52.6  0.1688   21.9  0.2648  -87.1
 5.900  0.4058  174.4   2.642   51.4  0.1700   21.5  0.2592  -87.7
 6.000  0.4064  172.5   2.602   50.3  0.1713   21.1  0.2546  -88.3
 6.100  0.4069  170.6   2.564   49.2  0.1724   20.7  0.2490  -88.6
 6.200  0.4070  168.6   2.529   47.9  0.1739   20.3  0.2429  -89.1
 6.300  0.4071  166.5   2.495   46.7  0.1749   19.9  0.2376  -89.6
 6.400  0.4082  164.7   2.458   45.6  0.1761   19.6  0.2318  -90.1
 6.500  0.4088  162.7   2.423   44.4  0.1773   19.3  0.2248  -90.3
 6.600  0.4085  160.7   2.388   43.3  0.1784   18.8  0.2192  -90.7
 6.700  0.4083  158.7   2.355   42.1  0.1795   18.5  0.2131  -90.8
 6.800  0.4086  156.7   2.322   41.0  0.1805   18.1  0.2070  -90.9
 6.900  0.4092  154.6   2.289   39.9  0.1816   17.8  0.2004  -90.8
 7.000  0.4104  152.6   2.257   38.8  0.1827   17.5  0.1939  -90.6
 7.100  0.4116  150.7   2.226   37.7  0.1840   17.3  0.1867  -90.4
 7.200  0.4133  148.8   2.196   36.7  0.1853   17.0  0.1795  -90.2
 7.300  0.4156  146.9   2.166   35.6  0.1866   16.8  0.1717  -90.0
 7.400  0.4183  145.0   2.137   34.6  0.1879   16.6  0.1639  -89.9
 7.500  0.4218  143.2   2.109   33.6  0.1894   16.2  0.1566  -89.6
 7.600  0.4258  141.5   2.083   32.6  0.1908   15.9  0.1492  -89.3
 7.700  0.4301  139.8   2.058   31.6  0.1924   15.6  0.1403  -89.2
 7.800  0.4348  138.0   2.034   30.6  0.1940   15.3  0.1315  -89.2
 7.900  0.4413  136.5   2.008   29.6  0.1957   14.9  0.1215  -89.2
 8.000  0.4481  134.9   1.982   28.5  0.1973   14.5  0.1115  -89.2
!
!  f       NFmin   Gammaopt  rn/50
! GHz       dB    MAG  ANG    -
 0.450      0.51  0.54   10   0.30
 0.900      0.60  0.52   20   0.26
 1.500      0.69  0.47   29   0.25
 1.800      0.73  0.45   32   0.25
 1.900      0.74  0.40   43   0.26
 2.400      0.81  0.37   57   0.24
 3.500      0.96  0.35   80   0.18
 5.500      1.20  0.23  149   0.15
 6.000      1.26  0.19  163   0.29
!
! (c) 2014  Infineon Technologies AG, Munich
