! Infineon Technologies  Discrete & RF Semiconductors
! BFP620
! VCE =  2.0 V,  IC =  25 mA
! Common Emitter S-Parameters:                            Nov 2015
# GHz  S  MA  R  50
!  f         S11            S21            S12            S22
! GHz     MAG   ANG      MAG   ANG      MAG   ANG      MAG   ANG
 0.030  0.6096   -5.7  53.236  175.7  0.0021   76.4  0.9531   -3.0
 0.035  0.6084   -6.7  53.311  175.0  0.0024   75.9  0.9545   -3.8
 0.040  0.6074   -7.8  53.393  174.3  0.0028   75.5  0.9561   -4.5
 0.045  0.6047   -8.6  53.280  173.2  0.0030   76.9  0.9567   -5.2
 0.050  0.6022   -9.4  53.188  172.0  0.0032   78.2  0.9575   -5.9
 0.055  0.6032  -10.5  53.103  171.5  0.0037   77.3  0.9576   -6.7
 0.060  0.6045  -11.6  53.022  171.0  0.0042   76.7  0.9579   -7.5
 0.065  0.6052  -12.8  53.055  170.5  0.0045   77.1  0.9573   -8.2
 0.070  0.6061  -13.9  53.093  170.0  0.0048   77.4  0.9569   -8.9
 0.075  0.6032  -14.6  52.868  169.2  0.0050   77.5  0.9556   -9.6
 0.080  0.6004  -15.4  52.654  168.4  0.0053   77.6  0.9545  -10.4
 0.085  0.6000  -16.4  52.601  167.6  0.0056   77.9  0.9531  -11.1
 0.090  0.5999  -17.5  52.559  166.8  0.0059   78.1  0.9519  -11.8
 0.095  0.5987  -18.4  52.408  166.0  0.0062   78.2  0.9500  -12.5
 0.100  0.5976  -19.4  52.268  165.2  0.0065   78.2  0.9482  -13.3
 0.105  0.5938  -20.3  52.199  164.5  0.0068   77.7  0.9460  -14.0
 0.110  0.5902  -21.3  52.137  163.8  0.0071   77.2  0.9439  -14.7
 0.115  0.5919  -22.3  51.958  163.3  0.0075   76.9  0.9414  -15.4
 0.120  0.5937  -23.3  51.783  162.7  0.0079   76.6  0.9390  -16.1
 0.125  0.5917  -24.2  51.604  162.0  0.0081   76.5  0.9364  -16.7
 0.130  0.5899  -25.2  51.432  161.3  0.0084   76.5  0.9340  -17.4
 0.135  0.5874  -26.0  51.249  160.6  0.0086   75.8  0.9313  -18.1
 0.140  0.5850  -26.9  51.074  159.9  0.0089   75.2  0.9287  -18.8
 0.145  0.5844  -27.9  50.900  159.3  0.0092   75.1  0.9257  -19.4
 0.150  0.5840  -29.0  50.732  158.6  0.0095   75.1  0.9228  -20.1
 0.155  0.5818  -29.8  50.502  158.0  0.0098   74.8  0.9188  -20.7
 0.160  0.5797  -30.7  50.279  157.4  0.0101   74.6  0.9150  -21.3
 0.165  0.5778  -31.6  50.061  156.7  0.0103   74.4  0.9113  -22.0
 0.170  0.5760  -32.4  49.850  156.1  0.0106   74.1  0.9077  -22.6
 0.175  0.5743  -33.3  49.644  155.5  0.0109   73.9  0.9041  -23.2
 0.180  0.5727  -34.2  49.445  154.8  0.0112   73.7  0.9007  -23.9
 0.185  0.5713  -35.0  49.252  154.2  0.0115   73.5  0.8975  -24.5
 0.190  0.5700  -35.9  49.065  153.5  0.0117   73.3  0.8943  -25.2
 0.195  0.5689  -36.8  48.885  152.9  0.0120   73.2  0.8912  -25.8
 0.200  0.5679  -37.7  48.711  152.2  0.0123   73.0  0.8883  -26.5
 0.220  0.5572  -41.0  47.728  149.8  0.0133   71.8  0.8714  -28.8
 0.240  0.5484  -44.4  46.830  147.4  0.0143   70.8  0.8561  -31.3
 0.260  0.5397  -47.8  45.903  145.0  0.0153   69.8  0.8399  -33.5
 0.280  0.5306  -51.0  44.928  142.8  0.0162   68.9  0.8225  -35.7
 0.300  0.5234  -54.4  44.024  140.5  0.0172   68.1  0.8063  -37.9
 0.320  0.5136  -57.4  43.014  138.6  0.0181   67.2  0.7881  -39.8
 0.340  0.5053  -60.6  42.054  136.5  0.0190   66.5  0.7708  -41.9
 0.360  0.4972  -63.6  41.096  134.6  0.0198   65.7  0.7536  -43.8
 0.380  0.4890  -66.3  40.128  132.7  0.0205   65.0  0.7363  -45.5
 0.400  0.4820  -69.2  39.205  130.8  0.0213   64.4  0.7197  -47.4
 0.420  0.4732  -71.7  38.247  129.2  0.0220   63.8  0.7029  -49.0
 0.440  0.4653  -74.4  37.320  127.6  0.0227   63.2  0.6868  -50.7
 0.450  0.4618  -75.7  36.868  126.7  0.0231   62.9  0.6789  -51.6
 0.460  0.4576  -76.9  36.422  126.0  0.0234   62.7  0.6709  -52.3
 0.480  0.4499  -79.4  35.548  124.5  0.0241   62.2  0.6553  -53.8
 0.500  0.4430  -82.0  34.700  122.9  0.0248   61.8  0.6401  -55.3
 0.520  0.4354  -84.2  33.903  121.7  0.0254   61.4  0.6255  -56.5
 0.540  0.4284  -86.4  33.121  120.5  0.0260   61.0  0.6112  -57.8
 0.560  0.4221  -88.7  32.354  119.2  0.0267   60.6  0.5972  -59.2
 0.580  0.4165  -91.1  31.605  117.9  0.0273   60.2  0.5836  -60.6
 0.600  0.4116  -93.5  30.873  116.5  0.0279   59.9  0.5704  -62.1
 0.620  0.4055  -95.4  30.193  115.5  0.0285   59.6  0.5578  -63.1
 0.640  0.3999  -97.4  29.522  114.5  0.0290   59.3  0.5454  -64.2
 0.660  0.3948  -99.5  28.860  113.4  0.0296   59.1  0.5332  -65.3
 0.680  0.3903 -101.6  28.210  112.3  0.0301   58.8  0.5212  -66.5
 0.700  0.3862 -103.7  27.571  111.1  0.0307   58.6  0.5094  -67.7
 0.720  0.3817 -105.4  27.005  110.2  0.0312   58.4  0.4989  -68.6
 0.740  0.3776 -107.2  26.446  109.3  0.0317   58.2  0.4886  -69.5
 0.760  0.3738 -108.9  25.893  108.4  0.0323   58.0  0.4784  -70.5
 0.780  0.3703 -110.8  25.348  107.4  0.0328   57.9  0.4683  -71.5
 0.800  0.3673 -112.6  24.810  106.4  0.0333   57.7  0.4584  -72.6
 0.820  0.3636 -114.2  24.335  105.7  0.0338   57.6  0.4494  -73.4
 0.840  0.3602 -115.8  23.864  105.0  0.0343   57.5  0.4406  -74.3
 0.860  0.3570 -117.5  23.396  104.2  0.0349   57.4  0.4318  -75.1
 0.880  0.3542 -119.2  22.933  103.4  0.0354   57.3  0.4231  -76.0
 0.900  0.3517 -120.9  22.475  102.6  0.0359   57.2  0.4146  -77.0
 0.920  0.3489 -122.3  22.084  101.9  0.0364   57.1  0.4072  -77.7
 0.940  0.3464 -123.8  21.695  101.3  0.0369   56.9  0.3998  -78.5
 0.960  0.3441 -125.2  21.310  100.6  0.0375   56.8  0.3925  -79.3
 0.980  0.3420 -126.7  20.928   99.9  0.0380   56.7  0.3852  -80.1
 1.000  0.3401 -128.2  20.549   99.1  0.0385   56.6  0.3781  -80.9
 1.020  0.3378 -129.5  20.208   98.5  0.0390   56.5  0.3717  -81.6
 1.040  0.3358 -130.8  19.869   97.9  0.0395   56.4  0.3654  -82.3
 1.060  0.3339 -132.1  19.532   97.2  0.0401   56.2  0.3591  -83.1
 1.080  0.3321 -133.5  19.198   96.6  0.0406   56.1  0.3529  -83.9
 1.100  0.3306 -134.8  18.867   95.9  0.0411   56.0  0.3468  -84.7
 1.120  0.3287 -136.0  18.578   95.4  0.0416   55.9  0.3410  -85.3
 1.140  0.3270 -137.3  18.291   94.8  0.0421   55.8  0.3353  -86.0
 1.160  0.3254 -138.5  18.005   94.3  0.0426   55.8  0.3297  -86.7
 1.180  0.3240 -139.8  17.721   93.7  0.0431   55.7  0.3241  -87.4
 1.200  0.3228 -141.1  17.439   93.1  0.0436   55.6  0.3185  -88.1
 1.220  0.3219 -142.2  17.190   92.6  0.0441   55.5  0.3138  -88.7
 1.240  0.3211 -143.2  16.943   92.1  0.0446   55.4  0.3092  -89.4
 1.260  0.3204 -144.3  16.697   91.6  0.0452   55.4  0.3046  -90.0
 1.280  0.3198 -145.3  16.452   91.1  0.0457   55.3  0.3001  -90.7
 1.300  0.3193 -146.4  16.209   90.6  0.0462   55.2  0.2956  -91.4
 1.320  0.3185 -147.5  15.997   90.1  0.0467   55.1  0.2913  -92.1
 1.340  0.3179 -148.5  15.787   89.7  0.0472   55.0  0.2870  -92.7
 1.360  0.3173 -149.6  15.577   89.2  0.0478   54.8  0.2827  -93.4
 1.380  0.3169 -150.7  15.368   88.7  0.0483   54.7  0.2785  -94.2
 1.400  0.3166 -151.8  15.161   88.2  0.0488   54.6  0.2743  -94.9
 1.420  0.3156 -152.8  14.968   87.7  0.0493   54.5  0.2707  -95.5
 1.440  0.3146 -153.8  14.776   87.3  0.0498   54.4  0.2671  -96.2
 1.460  0.3138 -154.8  14.584   86.8  0.0503   54.2  0.2635  -96.9
 1.480  0.3130 -155.9  14.394   86.3  0.0508   54.1  0.2600  -97.6
 1.500  0.3124 -156.9  14.205   85.8  0.0513   54.0  0.2565  -98.3
 1.520  0.3122 -157.9  14.034   85.4  0.0518   53.9  0.2529  -98.9
 1.540  0.3120 -158.9  13.863   85.0  0.0523   53.8  0.2494  -99.6
 1.560  0.3120 -159.8  13.693   84.5  0.0528   53.7  0.2459 -100.3
 1.580  0.3121 -160.8  13.524   84.1  0.0533   53.6  0.2424 -101.0
 1.600  0.3122 -161.8  13.356   83.6  0.0538   53.5  0.2390 -101.7
 1.620  0.3120 -162.7  13.205   83.2  0.0543   53.4  0.2362 -102.4
 1.640  0.3118 -163.6  13.054   82.8  0.0548   53.3  0.2334 -103.1
 1.660  0.3117 -164.6  12.904   82.4  0.0554   53.2  0.2307 -103.8
 1.680  0.3117 -165.5  12.755   82.0  0.0559   53.1  0.2280 -104.5
 1.700  0.3118 -166.4  12.606   81.6  0.0564   53.0  0.2253 -105.2
 1.720  0.3115 -167.2  12.473   81.2  0.0569   52.8  0.2223 -105.9
 1.740  0.3113 -168.1  12.340   80.8  0.0574   52.7  0.2193 -106.7
 1.760  0.3111 -168.9  12.208   80.4  0.0580   52.5  0.2163 -107.5
 1.780  0.3110 -169.8  12.076   80.0  0.0585   52.4  0.2134 -108.3
 1.800  0.3110 -170.6  11.945   79.6  0.0590   52.2  0.2105 -109.1
 1.820  0.3111 -171.4  11.820   79.2  0.0595   52.1  0.2081 -109.8
 1.840  0.3112 -172.2  11.696   78.8  0.0600   51.9  0.2058 -110.5
 1.860  0.3113 -173.1  11.572   78.4  0.0605   51.8  0.2034 -111.2
 1.880  0.3116 -173.9  11.449   78.0  0.0610   51.6  0.2012 -111.9
 1.900  0.3119 -174.7  11.326   77.6  0.0615   51.5  0.1989 -112.7
 1.920  0.3120 -175.5  11.215   77.2  0.0620   51.4  0.1966 -113.5
 1.940  0.3121 -176.3  11.105   76.9  0.0625   51.2  0.1943 -114.3
 1.960  0.3123 -177.1  10.995   76.5  0.0630   51.1  0.1921 -115.1
 1.980  0.3126 -177.9  10.885   76.1  0.0635   50.9  0.1899 -115.9
 2.000  0.3129 -178.7  10.776   75.7  0.0640   50.8  0.1878 -116.8
 2.020  0.3132 -179.4  10.679   75.4  0.0645   50.7  0.1859 -117.6
 2.040  0.3136  179.9  10.581   75.1  0.0650   50.5  0.1839 -118.3
 2.060  0.3139  179.1  10.485   74.7  0.0655   50.4  0.1821 -119.1
 2.080  0.3144  178.4  10.388   74.4  0.0660   50.3  0.1802 -120.0
 2.100  0.3149  177.7  10.292   74.1  0.0665   50.1  0.1784 -120.8
 2.120  0.3154  177.0  10.196   73.7  0.0671   50.0  0.1767 -121.6
 2.140  0.3160  176.3  10.101   73.4  0.0676   49.9  0.1749 -122.5
 2.160  0.3167  175.6  10.006   73.0  0.0681   49.7  0.1732 -123.4
 2.180  0.3174  174.9   9.911   72.7  0.0686   49.6  0.1716 -124.3
 2.200  0.3181  174.2   9.817   72.3  0.0691   49.5  0.1700 -125.2
 2.220  0.3185  173.6   9.733   72.0  0.0696   49.3  0.1685 -126.0
 2.240  0.3189  172.9   9.649   71.6  0.0701   49.2  0.1670 -126.8
 2.260  0.3193  172.3   9.565   71.3  0.0706   49.0  0.1656 -127.6
 2.280  0.3198  171.7   9.482   71.0  0.0711   48.8  0.1642 -128.5
 2.300  0.3203  171.0   9.399   70.6  0.0715   48.7  0.1628 -129.3
 2.320  0.3209  170.4   9.316   70.3  0.0720   48.5  0.1615 -130.2
 2.340  0.3215  169.8   9.234   69.9  0.0725   48.4  0.1602 -131.1
 2.360  0.3221  169.1   9.152   69.6  0.0730   48.2  0.1590 -132.0
 2.380  0.3228  168.5   9.070   69.2  0.0735   48.1  0.1578 -132.9
 2.400  0.3235  167.9   8.989   68.8  0.0740   47.9  0.1566 -133.8
 2.420  0.3240  167.3   8.920   68.5  0.0745   47.7  0.1555 -134.7
 2.440  0.3245  166.7   8.851   68.2  0.0750   47.6  0.1545 -135.5
 2.460  0.3251  166.1   8.782   67.9  0.0755   47.4  0.1535 -136.4
 2.480  0.3257  165.5   8.714   67.5  0.0760   47.2  0.1526 -137.3
 2.500  0.3263  164.9   8.645   67.2  0.0765   47.1  0.1517 -138.2
 2.520  0.3270  164.3   8.578   66.9  0.0771   46.9  0.1508 -139.1
 2.540  0.3277  163.7   8.510   66.5  0.0776   46.8  0.1500 -140.0
 2.560  0.3284  163.2   8.443   66.2  0.0781   46.6  0.1492 -140.9
 2.580  0.3292  162.6   8.376   65.9  0.0786   46.5  0.1484 -141.9
 2.600  0.3300  162.0   8.309   65.5  0.0791   46.3  0.1477 -142.8
 2.620  0.3306  161.5   8.248   65.2  0.0796   46.1  0.1469 -143.7
 2.640  0.3312  160.9   8.187   64.9  0.0801   45.9  0.1461 -144.6
 2.660  0.3318  160.4   8.126   64.6  0.0806   45.7  0.1453 -145.6
 2.680  0.3325  159.8   8.066   64.3  0.0811   45.6  0.1446 -146.5
 2.700  0.3332  159.3   8.005   64.0  0.0815   45.4  0.1440 -147.4
 2.720  0.3340  158.7   7.945   63.6  0.0820   45.2  0.1433 -148.4
 2.740  0.3347  158.2   7.886   63.3  0.0825   45.0  0.1427 -149.4
 2.760  0.3355  157.7   7.826   63.0  0.0830   44.8  0.1422 -150.3
 2.780  0.3363  157.1   7.767   62.6  0.0835   44.7  0.1417 -151.3
 2.800  0.3372  156.6   7.708   62.3  0.0840   44.5  0.1412 -152.3
 2.820  0.3380  156.1   7.654   62.0  0.0845   44.3  0.1407 -153.2
 2.840  0.3387  155.5   7.601   61.7  0.0849   44.1  0.1402 -154.2
 2.860  0.3395  155.0   7.548   61.4  0.0854   44.0  0.1398 -155.1
 2.880  0.3404  154.5   7.495   61.2  0.0859   43.8  0.1395 -156.1
 2.900  0.3412  154.0   7.442   60.9  0.0863   43.6  0.1391 -157.0
 2.920  0.3421  153.4   7.389   60.6  0.0868   43.5  0.1388 -158.0
 2.940  0.3431  152.9   7.337   60.2  0.0873   43.3  0.1385 -159.0
 2.960  0.3440  152.4   7.285   59.9  0.0878   43.1  0.1383 -159.9
 2.980  0.3450  151.9   7.233   59.6  0.0882   43.0  0.1381 -160.9
 3.000  0.3460  151.4   7.181   59.3  0.0887   42.8  0.1380 -161.9
 3.100  0.3506  149.0   6.961   58.0  0.0910   41.7  0.1379 -166.6
 3.200  0.3558  146.6   6.745   56.6  0.0933   40.7  0.1388 -171.3
 3.300  0.3616  144.3   6.533   55.1  0.0957   39.8  0.1406 -175.9
 3.400  0.3680  142.0   6.325   53.6  0.0981   38.9  0.1432  179.7
 3.500  0.3749  139.9   6.123   51.9  0.1005   38.0  0.1467  175.4
 3.600  0.3821  138.0   5.953   50.6  0.1026   37.0  0.1508  171.4
 3.700  0.3897  136.2   5.786   49.3  0.1047   36.0  0.1556  167.7
 3.800  0.3977  134.5   5.622   47.9  0.1069   35.0  0.1610  164.2
 3.900  0.4060  132.8   5.462   46.4  0.1091   34.1  0.1670  160.9
 4.000  0.4147  131.2   5.306   44.8  0.1113   33.2  0.1735  157.9
 4.100  0.4218  129.7   5.174   43.6  0.1132   32.2  0.1796  155.3
 4.200  0.4293  128.3   5.044   42.3  0.1152   31.2  0.1860  152.9
 4.300  0.4370  126.9   4.917   41.0  0.1171   30.3  0.1927  150.6
 4.400  0.4449  125.5   4.793   39.6  0.1192   29.4  0.1997  148.5
 4.500  0.4531  124.2   4.672   38.1  0.1212   28.5  0.2070  146.5
 4.600  0.4572  122.8   4.566   36.9  0.1231   27.5  0.2112  144.3
 4.700  0.4616  121.4   4.463   35.7  0.1249   26.5  0.2156  142.3
 4.800  0.4662  120.0   4.362   34.4  0.1269   25.6  0.2203  140.3
 4.900  0.4711  118.6   4.263   33.0  0.1288   24.7  0.2253  138.4
 5.000  0.4763  117.3   4.166   31.6  0.1308   23.8  0.2305  136.6
 5.100  0.4787  115.8   4.078   30.4  0.1326   22.8  0.2336  134.5
 5.200  0.4815  114.3   3.991   29.2  0.1344   21.8  0.2371  132.5
 5.300  0.4846  112.8   3.907   27.9  0.1362   20.9  0.2408  130.5
 5.400  0.4880  111.3   3.824   26.6  0.1381   20.0  0.2448  128.6
 5.500  0.4917  109.9   3.744   25.2  0.1400   19.1  0.2491  126.8
 5.600  0.4951  108.6   3.671   24.1  0.1417   18.1  0.2529  124.9
 5.700  0.4987  107.4   3.599   22.9  0.1435   17.1  0.2570  123.1
 5.800  0.5026  106.1   3.529   21.7  0.1453   16.2  0.2613  121.3
 5.900  0.5067  104.9   3.460   20.4  0.1472   15.3  0.2659  119.6
 6.000  0.5110  103.7   3.393   19.1  0.1491   14.4  0.2707  118.0
 6.100  0.5158  102.8   3.335   18.0  0.1508   13.4  0.2751  116.7
 6.200  0.5207  101.9   3.279   16.9  0.1526   12.4  0.2797  115.5
 6.300  0.5258  101.1   3.224   15.7  0.1544   11.5  0.2844  114.3
 6.400  0.5309  100.2   3.170   14.5  0.1562   10.5  0.2893  113.1
 6.500  0.5362   99.4   3.118   13.2  0.1581    9.6  0.2942  112.0
 6.600  0.5406   98.6   3.070   12.0  0.1597    8.5  0.2980  110.9
 6.800  0.5498   97.0   2.977    9.6  0.1630    6.5  0.3060  108.7
 7.000  0.5594   95.5   2.890    7.0  0.1666    4.5  0.3144  106.6
 7.200  0.5671   93.4   2.801    4.4  0.1693    2.2  0.3239  104.3
 7.400  0.5755   91.4   2.719    1.7  0.1723   -0.0  0.3339  102.1
 7.600  0.5848   89.0   2.635   -1.0  0.1748   -2.3  0.3452   99.7
 7.800  0.5955   86.4   2.548   -3.6  0.1767   -4.6  0.3580   96.9
 8.000  0.6074   83.8   2.468   -6.5  0.1790   -6.9  0.3715   94.4
 8.200  0.6182   80.5   2.375   -9.0  0.1797   -9.2  0.3865   91.4
 8.400  0.6310   77.3   2.288  -11.7  0.1807  -11.6  0.4026   88.6
 8.600  0.6449   74.1   2.203  -14.2  0.1812  -13.8  0.4201   85.7
 8.800  0.6598   71.0   2.118  -16.6  0.1812  -15.9  0.4394   82.9
 9.000  0.6766   68.1   2.038  -19.1  0.1815  -18.1  0.4597   80.2
 9.200  0.6939   66.0   1.953  -21.0  0.1803  -19.8  0.4807   77.8
 9.400  0.7121   64.0   1.870  -23.0  0.1793  -21.5  0.5024   75.5
 9.600  0.7295   62.7   1.801  -24.8  0.1786  -22.8  0.5217   73.8
 9.800  0.7456   62.0   1.743  -26.1  0.1781  -23.9  0.5381   72.6
10.000  0.7618   61.4   1.686  -27.6  0.1777  -25.0  0.5547   71.4
10.200  0.7697   61.6   1.647  -28.8  0.1785  -25.9  0.5623   71.1
10.400  0.7776   61.7   1.609  -30.1  0.1794  -26.8  0.5700   70.8
10.600  0.7818   61.7   1.578  -31.5  0.1811  -27.9  0.5748   70.6
10.800  0.7821   61.4   1.555  -33.1  0.1837  -28.9  0.5768   70.5
11.000  0.7824   61.1   1.533  -34.7  0.1863  -30.0  0.5788   70.5
11.200  0.7766   59.3   1.502  -37.0  0.1888  -31.8  0.5781   69.6
11.400  0.7715   57.5   1.473  -39.3  0.1915  -33.6  0.5776   68.7
11.600  0.7644   55.4   1.439  -41.4  0.1926  -35.5  0.5789   67.6
11.800  0.7556   52.9   1.400  -43.2  0.1921  -37.5  0.5822   66.3
12.000  0.7483   50.4   1.363  -45.1  0.1918  -39.5  0.5858   65.0
!
!  f       NFmin   Gammaopt  rn/50
! GHz       dB    MAG  ANG    -
 0.450      1.05  0.07 -148   0.10
 0.900      1.05  0.13 -147   0.10
 1.900      1.06  0.16 -140   0.10
 2.400      1.09  0.18 -135   0.11
 3.500      1.13  0.26  -96   0.15
 5.500      1.38  0.31  -84   0.20
10.000      1.78  0.61  -46   0.85
!
! (c) 2015  Infineon Technologies AG, Munich
