! Infineon Technologies  Discrete & RF Semiconductors
! BFP650
! VCE =  1.0 V,  IC = 0.10 A
! Common Emitter S-Parameters:                            Jan 2016
# GHz  S  MA  R  50
!  f         S11            S21            S12            S22
! GHz     MAG   ANG      MAG   ANG      MAG   ANG      MAG   ANG
 0.030  0.2266 -141.8  50.480  167.2  0.0054   53.8  0.1757  -43.2
 0.035  0.2491 -140.9  50.104  165.1  0.0047   61.3  0.1823  -50.7
 0.040  0.2717 -140.1  49.796  163.0  0.0042   71.0  0.1918  -57.5
 0.045  0.2930 -140.3  49.022  161.0  0.0028   54.9  0.2000  -63.5
 0.050  0.3144 -140.5  48.310  158.9  0.0020   19.3  0.2102  -68.9
 0.055  0.3307 -139.0  47.945  157.0  0.0038   77.8  0.2220  -72.4
 0.060  0.3471 -137.7  47.636  155.0  0.0067   92.6  0.2346  -75.5
 0.065  0.3717 -139.1  46.931  153.0  0.0063   59.7  0.2420  -81.9
 0.070  0.3964 -140.3  46.287  150.9  0.0079   32.3  0.2522  -87.9
 0.075  0.4125 -140.7  45.570  149.0  0.0081   37.8  0.2600  -90.7
 0.080  0.4286 -141.0  44.906  147.0  0.0084   43.0  0.2683  -93.4
 0.085  0.4449 -141.8  44.096  145.4  0.0094   42.2  0.2750  -97.0
 0.090  0.4613 -142.5  43.323  143.7  0.0104   41.6  0.2827 -100.5
 0.095  0.4758 -143.1  42.582  142.1  0.0097   47.2  0.2918 -102.4
 0.100  0.4903 -143.6  41.874  140.5  0.0092   53.6  0.3011 -104.1
 0.105  0.5021 -144.4  41.102  139.1  0.0088   52.1  0.3100 -106.6
 0.110  0.5140 -145.1  40.356  137.6  0.0085   50.4  0.3194 -108.9
 0.115  0.5266 -145.9  39.552  136.3  0.0095   54.0  0.3238 -111.7
 0.120  0.5393 -146.7  38.769  134.9  0.0105   56.9  0.3289 -114.4
 0.125  0.5492 -147.6  38.072  133.6  0.0106   57.2  0.3346 -116.4
 0.130  0.5593 -148.5  37.394  132.3  0.0108   57.5  0.3408 -118.4
 0.135  0.5672 -149.1  36.771  131.2  0.0112   51.1  0.3442 -119.9
 0.140  0.5752 -149.7  36.162  130.0  0.0117   45.1  0.3479 -121.3
 0.145  0.5840 -150.4  35.509  128.9  0.0117   48.6  0.3514 -123.2
 0.150  0.5928 -151.1  34.870  127.8  0.0117   52.0  0.3552 -125.0
 0.155  0.5985 -151.8  34.265  127.0  0.0119   51.8  0.3576 -126.4
 0.160  0.6042 -152.5  33.667  126.2  0.0121   51.6  0.3603 -127.7
 0.165  0.6100 -153.2  33.076  125.3  0.0123   51.4  0.3631 -129.0
 0.170  0.6160 -153.9  32.492  124.5  0.0125   51.2  0.3661 -130.3
 0.175  0.6220 -154.6  31.916  123.6  0.0126   51.0  0.3693 -131.6
 0.180  0.6281 -155.2  31.348  122.6  0.0128   50.8  0.3727 -132.8
 0.185  0.6342 -155.9  30.790  121.6  0.0130   50.6  0.3762 -134.1
 0.190  0.6405 -156.5  30.240  120.6  0.0132   50.4  0.3800 -135.3
 0.195  0.6468 -157.1  29.700  119.6  0.0134   50.3  0.3839 -136.4
 0.200  0.6532 -157.7  29.171  118.5  0.0136   50.1  0.3879 -137.6
 0.220  0.6665 -159.8  27.351  116.1  0.0142   51.8  0.3948 -141.2
 0.240  0.6807 -161.7  25.585  113.4  0.0148   53.4  0.4032 -144.7
 0.260  0.6922 -163.5  24.025  111.0  0.0154   54.2  0.4099 -147.7
 0.280  0.7007 -165.1  22.640  109.1  0.0161   54.4  0.4145 -150.3
 0.300  0.7098 -166.6  21.284  107.0  0.0168   54.6  0.4200 -152.8
 0.320  0.7151 -167.9  20.190  105.5  0.0174   55.2  0.4230 -154.9
 0.340  0.7207 -169.1  19.111  103.9  0.0179   55.7  0.4265 -157.0
 0.360  0.7255 -170.2  18.154  102.4  0.0185   56.0  0.4295 -158.8
 0.380  0.7296 -171.3  17.313  101.2  0.0190   56.0  0.4318 -160.4
 0.400  0.7340 -172.4  16.481   99.8  0.0195   56.0  0.4344 -162.0
 0.420  0.7367 -173.3  15.793   98.8  0.0203   56.5  0.4360 -163.4
 0.440  0.7397 -174.2  15.111   97.7  0.0210   57.0  0.4379 -164.7
 0.450  0.7412 -174.7  14.772   97.1  0.0214   57.2  0.4389 -165.4
 0.460  0.7421 -175.1  14.488   96.7  0.0217   57.6  0.4396 -166.0
 0.480  0.7439 -175.9  13.922   95.7  0.0223   58.3  0.4413 -167.1
 0.500  0.7459 -176.7  13.360   94.7  0.0229   59.0  0.4431 -168.3
 0.520  0.7474 -177.4  12.923   94.0  0.0235   58.7  0.4440 -169.3
 0.540  0.7490 -178.1  12.488   93.3  0.0241   58.4  0.4451 -170.3
 0.560  0.7507 -178.7  12.055   92.6  0.0246   58.2  0.4462 -171.3
 0.580  0.7525 -179.4  11.624   91.8  0.0252   57.9  0.4476 -172.2
 0.600  0.7544  179.9  11.196   90.9  0.0258   57.7  0.4490 -173.2
 0.620  0.7548  179.3  10.876   90.3  0.0266   58.0  0.4498 -174.0
 0.640  0.7553  178.7  10.557   89.7  0.0274   58.4  0.4507 -174.8
 0.660  0.7558  178.1  10.239   89.1  0.0283   58.7  0.4517 -175.6
 0.680  0.7565  177.5   9.923   88.4  0.0291   58.9  0.4528 -176.3
 0.700  0.7572  176.9   9.608   87.7  0.0299   59.2  0.4540 -177.1
 0.720  0.7580  176.4   9.371   87.2  0.0305   59.4  0.4548 -177.8
 0.740  0.7589  175.9   9.134   86.7  0.0312   59.6  0.4557 -178.5
 0.760  0.7598  175.3   8.898   86.1  0.0318   59.8  0.4566 -179.1
 0.780  0.7608  174.8   8.663   85.5  0.0325   60.0  0.4576 -179.8
 0.800  0.7619  174.3   8.429   84.9  0.0331   60.2  0.4587  179.5
 0.820  0.7623  173.8   8.240   84.5  0.0337   60.1  0.4591  178.9
 0.840  0.7628  173.4   8.051   84.0  0.0343   60.1  0.4595  178.3
 0.860  0.7634  172.9   7.863   83.5  0.0349   60.0  0.4599  177.8
 0.880  0.7640  172.5   7.676   83.0  0.0355   60.0  0.4604  177.2
 0.900  0.7646  172.0   7.489   82.5  0.0361   59.9  0.4610  176.6
 0.920  0.7653  171.6   7.340   82.1  0.0368   59.6  0.4618  176.1
 0.940  0.7660  171.1   7.191   81.6  0.0375   59.4  0.4626  175.5
 0.960  0.7667  170.7   7.042   81.2  0.0381   59.1  0.4635  175.0
 0.980  0.7675  170.2   6.894   80.7  0.0388   58.8  0.4644  174.4
 1.000  0.7684  169.8   6.747   80.2  0.0395   58.6  0.4653  173.9
 1.020  0.7688  169.4   6.623   79.8  0.0401   58.6  0.4659  173.4
 1.040  0.7692  169.0   6.499   79.4  0.0407   58.6  0.4665  172.9
 1.060  0.7696  168.5   6.376   79.0  0.0413   58.6  0.4671  172.4
 1.080  0.7701  168.1   6.253   78.6  0.0419   58.6  0.4678  171.9
 1.100  0.7706  167.7   6.130   78.1  0.0425   58.6  0.4685  171.4
 1.120  0.7712  167.3   6.029   77.7  0.0433   58.5  0.4691  170.9
 1.140  0.7718  166.9   5.927   77.3  0.0440   58.5  0.4697  170.4
 1.160  0.7725  166.5   5.827   76.8  0.0448   58.4  0.4704  170.0
 1.180  0.7732  166.1   5.726   76.4  0.0455   58.4  0.4711  169.5
 1.200  0.7739  165.7   5.626   75.9  0.0463   58.3  0.4718  169.0
 1.220  0.7742  165.3   5.538   75.5  0.0469   58.1  0.4722  168.6
 1.240  0.7746  164.9   5.450   75.1  0.0475   58.0  0.4725  168.2
 1.260  0.7750  164.5   5.363   74.7  0.0481   57.8  0.4729  167.8
 1.280  0.7754  164.1   5.276   74.3  0.0487   57.7  0.4734  167.4
 1.300  0.7759  163.7   5.189   73.9  0.0493   57.5  0.4738  167.0
 1.320  0.7762  163.3   5.116   73.5  0.0498   57.4  0.4743  166.6
 1.340  0.7766  162.9   5.042   73.1  0.0504   57.3  0.4748  166.2
 1.360  0.7769  162.6   4.969   72.7  0.0509   57.2  0.4753  165.7
 1.380  0.7774  162.2   4.897   72.3  0.0515   57.1  0.4759  165.3
 1.400  0.7778  161.8   4.824   71.9  0.0520   57.0  0.4765  164.9
 1.420  0.7784  161.4   4.759   71.5  0.0527   56.8  0.4771  164.5
 1.440  0.7790  161.0   4.694   71.1  0.0534   56.6  0.4778  164.1
 1.460  0.7796  160.7   4.630   70.7  0.0542   56.4  0.4785  163.8
 1.480  0.7803  160.3   4.565   70.3  0.0549   56.2  0.4792  163.4
 1.500  0.7810  159.9   4.501   69.9  0.0556   56.0  0.4799  163.0
 1.520  0.7812  159.5   4.443   69.5  0.0563   55.8  0.4803  162.6
 1.540  0.7814  159.2   4.385   69.2  0.0570   55.7  0.4806  162.2
 1.560  0.7816  158.8   4.327   68.8  0.0576   55.5  0.4810  161.9
 1.580  0.7819  158.5   4.269   68.4  0.0583   55.4  0.4815  161.5
 1.600  0.7822  158.1   4.212   68.0  0.0590   55.2  0.4819  161.1
 1.620  0.7828  157.7   4.162   67.7  0.0596   55.1  0.4825  160.7
 1.640  0.7834  157.4   4.113   67.3  0.0601   55.0  0.4831  160.3
 1.660  0.7840  157.0   4.063   67.0  0.0607   54.8  0.4837  160.0
 1.680  0.7847  156.7   4.014   66.7  0.0612   54.7  0.4843  159.6
 1.700  0.7854  156.3   3.965   66.3  0.0618   54.6  0.4850  159.2
 1.720  0.7857  155.9   3.919   65.9  0.0624   54.3  0.4856  158.8
 1.740  0.7861  155.5   3.873   65.5  0.0630   54.1  0.4863  158.4
 1.760  0.7864  155.2   3.828   65.1  0.0635   53.8  0.4869  158.1
 1.780  0.7869  154.8   3.782   64.7  0.0641   53.6  0.4876  157.7
 1.800  0.7873  154.4   3.737   64.3  0.0647   53.3  0.4883  157.3
 1.820  0.7871  154.0   3.694   64.0  0.0654   53.2  0.4886  156.9
 1.840  0.7869  153.7   3.652   63.6  0.0661   53.0  0.4889  156.6
 1.860  0.7868  153.3   3.609   63.2  0.0667   52.9  0.4892  156.2
 1.880  0.7867  153.0   3.567   62.9  0.0674   52.7  0.4895  155.9
 1.900  0.7866  152.6   3.525   62.5  0.0681   52.6  0.4899  155.5
 1.920  0.7870  152.2   3.488   62.2  0.0688   52.3  0.4901  155.1
 1.940  0.7875  151.9   3.451   61.8  0.0694   52.1  0.4904  154.8
 1.960  0.7879  151.5   3.415   61.5  0.0701   51.8  0.4907  154.4
 1.980  0.7885  151.2   3.378   61.2  0.0707   51.6  0.4910  154.1
 2.000  0.7890  150.8   3.342   60.8  0.0714   51.3  0.4913  153.7
 2.020  0.7894  150.5   3.311   60.5  0.0719   51.1  0.4918  153.4
 2.040  0.7899  150.2   3.279   60.2  0.0725   50.9  0.4924  153.0
 2.060  0.7903  149.9   3.248   59.9  0.0730   50.7  0.4930  152.7
 2.080  0.7908  149.6   3.217   59.6  0.0735   50.5  0.4936  152.3
 2.100  0.7913  149.3   3.186   59.3  0.0740   50.3  0.4942  152.0
 2.120  0.7919  149.0   3.155   59.0  0.0746   50.1  0.4948  151.6
 2.140  0.7924  148.7   3.125   58.6  0.0751   49.9  0.4955  151.3
 2.160  0.7930  148.4   3.094   58.3  0.0756   49.7  0.4961  151.0
 2.180  0.7936  148.1   3.063   57.9  0.0762   49.5  0.4968  150.6
 2.200  0.7942  147.8   3.033   57.6  0.0767   49.3  0.4975  150.3
 2.220  0.7942  147.5   3.006   57.3  0.0772   49.1  0.4979  149.9
 2.240  0.7943  147.1   2.980   56.9  0.0778   48.8  0.4984  149.6
 2.260  0.7944  146.8   2.953   56.6  0.0783   48.6  0.4988  149.2
 2.280  0.7945  146.5   2.927   56.3  0.0788   48.4  0.4993  148.9
 2.300  0.7947  146.1   2.900   55.9  0.0793   48.2  0.4998  148.5
 2.320  0.7948  145.8   2.874   55.6  0.0799   47.9  0.5003  148.2
 2.340  0.7950  145.5   2.848   55.2  0.0804   47.7  0.5009  147.8
 2.360  0.7953  145.2   2.822   54.9  0.0809   47.5  0.5014  147.5
 2.380  0.7955  144.8   2.796   54.5  0.0815   47.3  0.5020  147.1
 2.400  0.7958  144.5   2.770   54.1  0.0820   47.1  0.5026  146.8
 2.420  0.7960  144.2   2.747   53.8  0.0826   46.9  0.5032  146.5
 2.440  0.7963  143.9   2.724   53.5  0.0832   46.6  0.5038  146.1
 2.460  0.7966  143.6   2.701   53.2  0.0838   46.4  0.5044  145.8
 2.480  0.7969  143.3   2.679   52.8  0.0844   46.2  0.5050  145.4
 2.500  0.7973  142.9   2.656   52.5  0.0850   46.0  0.5056  145.1
 2.520  0.7976  142.6   2.633   52.2  0.0856   45.7  0.5063  144.7
 2.540  0.7980  142.3   2.611   51.8  0.0863   45.5  0.5070  144.4
 2.560  0.7984  142.0   2.588   51.5  0.0869   45.3  0.5077  144.1
 2.580  0.7988  141.7   2.566   51.2  0.0875   45.1  0.5084  143.7
 2.600  0.7993  141.4   2.544   50.8  0.0881   44.9  0.5091  143.4
 2.620  0.7995  141.1   2.524   50.5  0.0886   44.7  0.5098  143.1
 2.640  0.7998  140.8   2.505   50.2  0.0891   44.5  0.5104  142.8
 2.660  0.8000  140.5   2.486   49.9  0.0896   44.3  0.5111  142.5
 2.680  0.8003  140.2   2.466   49.6  0.0902   44.1  0.5118  142.1
 2.700  0.8006  139.8   2.447   49.3  0.0907   43.9  0.5126  141.8
 2.720  0.8009  139.5   2.428   48.9  0.0912   43.7  0.5133  141.5
 2.740  0.8013  139.2   2.409   48.6  0.0917   43.5  0.5141  141.2
 2.760  0.8017  138.9   2.390   48.3  0.0923   43.3  0.5148  140.9
 2.780  0.8021  138.6   2.371   47.9  0.0928   43.1  0.5156  140.6
 2.800  0.8025  138.3   2.352   47.6  0.0933   42.9  0.5164  140.3
 2.820  0.8028  138.0   2.335   47.3  0.0938   42.6  0.5170  140.0
 2.840  0.8031  137.7   2.318   47.0  0.0943   42.3  0.5175  139.7
 2.860  0.8035  137.4   2.302   46.7  0.0949   42.0  0.5181  139.4
 2.880  0.8039  137.1   2.285   46.4  0.0954   41.7  0.5187  139.1
 2.900  0.8043  136.8   2.269   46.1  0.0959   41.5  0.5193  138.8
 2.920  0.8047  136.5   2.252   45.7  0.0965   41.2  0.5199  138.5
 2.940  0.8051  136.2   2.236   45.4  0.0970   40.9  0.5206  138.2
 2.960  0.8056  135.9   2.219   45.1  0.0975   40.6  0.5212  137.9
 2.980  0.8061  135.6   2.203   44.7  0.0981   40.4  0.5219  137.6
 3.000  0.8066  135.3   2.187   44.4  0.0986   40.1  0.5226  137.3
 3.100  0.8075  133.8   2.117   43.0  0.1009   38.9  0.5259  135.9
 3.200  0.8090  132.3   2.047   41.6  0.1033   37.7  0.5295  134.4
 3.300  0.8110  130.8   1.980   40.0  0.1057   36.6  0.5334  133.0
 3.400  0.8136  129.3   1.913   38.4  0.1082   35.6  0.5377  131.7
 3.500  0.8167  127.8   1.849   36.6  0.1107   34.6  0.5422  130.3
 3.600  0.8184  126.4   1.794   35.3  0.1127   33.3  0.5462  129.0
 3.700  0.8205  125.0   1.739   33.8  0.1147   32.1  0.5505  127.7
 3.800  0.8232  123.6   1.686   32.3  0.1168   30.9  0.5551  126.5
 3.900  0.8264  122.2   1.634   30.7  0.1189   29.7  0.5599  125.2
 4.000  0.8300  120.8   1.584   29.0  0.1211   28.6  0.5650  124.0
 4.100  0.8316  119.6   1.541   27.8  0.1227   27.5  0.5683  122.9
 4.200  0.8336  118.4   1.500   26.5  0.1243   26.4  0.5718  121.8
 4.300  0.8359  117.2   1.459   25.2  0.1259   25.4  0.5755  120.8
 4.400  0.8386  116.0   1.418   23.8  0.1276   24.4  0.5794  119.7
 4.500  0.8417  114.8   1.379   22.3  0.1293   23.4  0.5835  118.7
 4.600  0.8424  113.8   1.347   21.2  0.1309   22.4  0.5858  117.7
 4.700  0.8434  112.7   1.315   20.0  0.1326   21.5  0.5883  116.6
 4.800  0.8447  111.7   1.284   18.8  0.1342   20.6  0.5910  115.6
 4.900  0.8463  110.6   1.254   17.5  0.1360   19.7  0.5939  114.6
 5.000  0.8481  109.6   1.224   16.2  0.1377   18.8  0.5970  113.6
 5.100  0.8477  108.6   1.199   15.1  0.1395   17.8  0.5983  112.5
 5.200  0.8476  107.6   1.174   13.9  0.1413   16.9  0.5998  111.4
 5.300  0.8477  106.5   1.150   12.8  0.1432   16.0  0.6015  110.3
 5.400  0.8481  105.5   1.126   11.5  0.1451   15.1  0.6034  109.3
 5.500  0.8488  104.5   1.103   10.2  0.1471   14.2  0.6055  108.2
 5.600  0.8483  103.6   1.083    9.1  0.1487   13.2  0.6074  107.0
 5.700  0.8479  102.8   1.064    8.0  0.1504   12.3  0.6095  105.9
 5.800  0.8478  101.9   1.045    6.9  0.1521   11.3  0.6119  104.7
 5.900  0.8479  101.1   1.026    5.7  0.1539   10.4  0.6146  103.5
 6.000  0.8481  100.2   1.008    4.5  0.1557    9.5  0.6175  102.4
 6.100  0.8496   99.3   0.993    3.3  0.1574    8.4  0.6200  101.4
 6.200  0.8513   98.4   0.979    2.2  0.1591    7.3  0.6226  100.4
 6.300  0.8533   97.5   0.965    0.9  0.1609    6.2  0.6254   99.4
 6.400  0.8554   96.7   0.951   -0.3  0.1628    5.2  0.6284   98.5
 6.500  0.8577   95.8   0.938   -1.6  0.1647    4.2  0.6316   97.5
 6.600  0.8590   94.8   0.924   -2.8  0.1660    3.0  0.6337   96.6
 6.800  0.8623   92.7   0.897   -5.4  0.1689    0.7  0.6384   94.8
 7.000  0.8667   90.7   0.872   -8.2  0.1721   -1.6  0.6437   93.1
 7.200  0.8686   88.3   0.843  -10.8  0.1735   -4.0  0.6485   91.0
 7.400  0.8719   86.0   0.817  -13.6  0.1752   -6.3  0.6541   88.9
 7.600  0.8744   83.6   0.790  -16.2  0.1766   -8.6  0.6599   86.7
 7.800  0.8763   81.1   0.764  -18.7  0.1775  -10.8  0.6662   84.3
 8.000  0.8799   78.6   0.739  -21.4  0.1787  -12.9  0.6737   81.9
 8.200  0.8818   76.1   0.713  -23.6  0.1787  -15.0  0.6809   79.5
 8.400  0.8853   73.7   0.687  -26.0  0.1789  -17.1  0.6891   77.2
 8.600  0.8885   71.4   0.663  -28.1  0.1788  -19.1  0.6979   75.0
 8.800  0.8912   69.2   0.639  -30.0  0.1784  -21.0  0.7071   72.8
 9.000  0.8952   67.0   0.616  -32.1  0.1781  -22.9  0.7173   70.6
 9.200  0.8991   65.3   0.594  -33.8  0.1768  -24.4  0.7267   68.6
 9.400  0.9038   63.7   0.573  -35.6  0.1756  -26.0  0.7370   66.7
 9.600  0.9090   62.4   0.553  -37.0  0.1746  -27.3  0.7462   65.3
 9.800  0.9145   61.3   0.536  -38.1  0.1736  -28.2  0.7540   64.4
10.000  0.9203   60.2   0.519  -39.3  0.1727  -29.1  0.7619   63.5
!
!  f       NFmin   Gammaopt  rn/50
! GHz       dB    MAG  ANG    -
 0.450      1.42  0.56 -171   0.06
 0.900      1.44  0.58 -164   0.06
 1.900      1.59  0.59 -150   0.09
 2.400      1.69  0.57 -141   0.13
 3.500      1.87  0.58 -118   0.25
!
! (c) 2016  Infineon Technologies AG, Munich
