! Infineon Technologies  Discrete & RF Semiconductors
! BFP650
! VCE =  3.0 V,  IC =  15 mA
! Common Emitter S-Parameters:                            Jan 2016
# GHz  S  MA  R  50
!  f         S11            S21            S12            S22
! GHz     MAG   ANG      MAG   ANG      MAG   ANG      MAG   ANG
 0.030  0.7928  -10.0  42.696  173.3  0.0047   71.0  0.9838   -7.0
 0.035  0.7908  -11.7  42.770  172.2  0.0057   77.0  0.9845   -8.2
 0.040  0.7896  -13.5  42.858  171.2  0.0068   81.1  0.9857   -9.4
 0.045  0.7830  -15.2  42.606  170.1  0.0059   87.2  0.9791  -10.5
 0.050  0.7770  -16.9  42.372  168.9  0.0050   95.4  0.9728  -11.6
 0.055  0.7802  -18.4  42.442  168.2  0.0058   84.4  0.9725  -12.7
 0.060  0.7839  -19.9  42.518  167.5  0.0068   76.3  0.9725  -13.9
 0.065  0.7819  -21.7  42.341  166.5  0.0080   74.2  0.9677  -15.1
 0.070  0.7807  -23.5  42.179  165.4  0.0093   72.7  0.9634  -16.4
 0.075  0.7817  -25.2  42.025  164.5  0.0102   75.5  0.9633  -17.4
 0.080  0.7833  -26.8  41.883  163.5  0.0112   77.8  0.9634  -18.4
 0.085  0.7804  -28.2  41.624  162.8  0.0117   73.0  0.9568  -19.5
 0.090  0.7780  -29.7  41.372  162.0  0.0122   68.6  0.9506  -20.7
 0.095  0.7776  -31.6  41.277  160.9  0.0131   70.4  0.9474  -21.7
 0.100  0.7780  -33.4  41.198  159.8  0.0141   72.0  0.9446  -22.8
 0.105  0.7772  -34.8  40.987  158.9  0.0145   73.4  0.9421  -24.0
 0.110  0.7769  -36.3  40.787  157.9  0.0149   74.8  0.9401  -25.3
 0.115  0.7739  -37.7  40.439  157.1  0.0155   71.6  0.9341  -26.3
 0.120  0.7714  -39.2  40.099  156.2  0.0161   68.6  0.9285  -27.4
 0.125  0.7686  -40.8  39.873  155.2  0.0173   68.2  0.9229  -28.5
 0.130  0.7664  -42.5  39.660  154.2  0.0186   67.8  0.9176  -29.6
 0.135  0.7654  -44.0  39.467  153.4  0.0190   68.3  0.9122  -30.5
 0.140  0.7650  -45.5  39.282  152.6  0.0195   68.8  0.9070  -31.5
 0.145  0.7647  -46.9  39.002  151.8  0.0196   68.5  0.9018  -32.5
 0.150  0.7648  -48.4  38.730  151.0  0.0197   68.2  0.8970  -33.6
 0.155  0.7609  -49.7  38.440  150.2  0.0203   67.2  0.8905  -34.5
 0.160  0.7574  -51.1  38.157  149.5  0.0210   66.3  0.8842  -35.4
 0.165  0.7544  -52.5  37.881  148.7  0.0217   65.4  0.8782  -36.4
 0.170  0.7518  -53.9  37.613  147.9  0.0223   64.6  0.8724  -37.3
 0.175  0.7497  -55.3  37.352  147.0  0.0230   63.8  0.8668  -38.3
 0.180  0.7479  -56.7  37.099  146.2  0.0237   63.1  0.8615  -39.3
 0.185  0.7467  -58.1  36.854  145.4  0.0243   62.4  0.8564  -40.3
 0.190  0.7459  -59.5  36.616  144.5  0.0250   61.7  0.8516  -41.3
 0.195  0.7455  -60.9  36.387  143.7  0.0257   61.1  0.8471  -42.3
 0.200  0.7456  -62.3  36.166  142.8  0.0264   60.5  0.8428  -43.3
 0.220  0.7343  -67.2  35.012  140.1  0.0281   59.1  0.8165  -46.7
 0.240  0.7285  -72.2  33.942  137.2  0.0299   57.9  0.7933  -50.3
 0.260  0.7224  -76.8  32.869  134.6  0.0314   55.9  0.7705  -53.6
 0.280  0.7147  -81.1  31.766  132.2  0.0327   53.0  0.7471  -56.7
 0.300  0.7110  -85.4  30.722  129.6  0.0341   50.4  0.7260  -59.9
 0.320  0.7027  -89.3  29.673  127.5  0.0350   50.3  0.7043  -62.7
 0.340  0.6977  -93.3  28.665  125.3  0.0359   50.2  0.6843  -65.6
 0.360  0.6930  -97.0  27.715  123.2  0.0368   49.4  0.6650  -68.3
 0.380  0.6878 -100.3  26.808  121.4  0.0378   47.7  0.6458  -70.8
 0.400  0.6849 -103.7  25.929  119.5  0.0389   46.2  0.6280  -73.5
 0.420  0.6795 -106.7  25.109  117.9  0.0396   45.4  0.6105  -75.8
 0.440  0.6760 -109.7  24.310  116.2  0.0403   44.7  0.5940  -78.2
 0.450  0.6750 -111.2  23.919  115.3  0.0406   44.3  0.5861  -79.4
 0.460  0.6723 -112.5  23.549  114.6  0.0410   43.9  0.5784  -80.4
 0.480  0.6680 -115.1  22.818  113.2  0.0417   43.1  0.5634  -82.6
 0.500  0.6650 -117.7  22.103  111.7  0.0425   42.3  0.5494  -84.9
 0.520  0.6606 -119.9  21.478  110.6  0.0431   41.8  0.5358  -86.7
 0.540  0.6571 -122.1  20.862  109.5  0.0436   41.3  0.5228  -88.5
 0.560  0.6547 -124.4  20.253  108.3  0.0442   40.8  0.5103  -90.4
 0.580  0.6532 -126.6  19.655  107.0  0.0448   40.3  0.4984  -92.5
 0.600  0.6528 -128.9  19.066  105.7  0.0454   39.8  0.4872  -94.6
 0.620  0.6495 -130.7  18.580  104.8  0.0459   39.4  0.4769  -96.2
 0.640  0.6468 -132.4  18.098  103.9  0.0465   38.9  0.4669  -97.9
 0.660  0.6447 -134.2  17.622  102.9  0.0470   38.5  0.4574  -99.6
 0.680  0.6432 -136.0  17.150  101.9  0.0476   38.1  0.4483 -101.4
 0.700  0.6424 -137.8  16.685  100.8  0.0481   37.7  0.4397 -103.3
 0.720  0.6405 -139.3  16.301  100.1  0.0485   37.6  0.4318 -104.8
 0.740  0.6391 -140.8  15.921   99.3  0.0488   37.5  0.4241 -106.3
 0.760  0.6381 -142.3  15.543   98.5  0.0492   37.3  0.4167 -107.8
 0.780  0.6375 -143.8  15.169   97.6  0.0495   37.2  0.4097 -109.4
 0.800  0.6374 -145.3  14.798   96.7  0.0499   37.1  0.4030 -111.1
 0.820  0.6359 -146.5  14.485   96.1  0.0503   36.6  0.3964 -112.4
 0.840  0.6347 -147.8  14.173   95.4  0.0506   36.2  0.3901 -113.8
 0.860  0.6337 -149.0  13.863   94.7  0.0510   35.8  0.3840 -115.3
 0.880  0.6331 -150.3  13.556   94.0  0.0513   35.3  0.3782 -116.8
 0.900  0.6328 -151.5  13.251   93.2  0.0517   34.9  0.3726 -118.3
 0.920  0.6321 -152.6  12.999   92.6  0.0521   35.0  0.3681 -119.5
 0.940  0.6316 -153.7  12.749   92.0  0.0525   35.1  0.3637 -120.8
 0.960  0.6314 -154.9  12.500   91.4  0.0529   35.2  0.3596 -122.1
 0.980  0.6314 -156.0  12.253   90.8  0.0533   35.3  0.3556 -123.4
 1.000  0.6316 -157.1  12.007   90.1  0.0537   35.4  0.3518 -124.8
 1.020  0.6308 -158.1  11.795   89.6  0.0541   35.2  0.3479 -126.0
 1.040  0.6303 -159.0  11.584   89.0  0.0544   34.9  0.3442 -127.3
 1.060  0.6299 -160.0  11.374   88.5  0.0548   34.7  0.3407 -128.6
 1.080  0.6296 -160.9  11.166   87.9  0.0551   34.4  0.3373 -129.9
 1.100  0.6296 -161.9  10.958   87.3  0.0555   34.2  0.3341 -131.2
 1.120  0.6295 -162.8  10.781   86.8  0.0558   34.3  0.3311 -132.3
 1.140  0.6295 -163.6  10.606   86.3  0.0561   34.3  0.3283 -133.3
 1.160  0.6297 -164.5  10.431   85.7  0.0563   34.4  0.3255 -134.4
 1.180  0.6300 -165.3  10.257   85.2  0.0566   34.4  0.3229 -135.6
 1.200  0.6305 -166.2  10.084   84.6  0.0569   34.5  0.3204 -136.7
 1.220  0.6303 -167.0   9.931   84.1  0.0573   34.4  0.3181 -137.8
 1.240  0.6303 -167.8   9.778   83.7  0.0576   34.4  0.3159 -138.8
 1.260  0.6304 -168.6   9.627   83.2  0.0580   34.3  0.3138 -139.9
 1.280  0.6306 -169.4   9.475   82.7  0.0583   34.3  0.3119 -141.0
 1.300  0.6309 -170.2   9.325   82.2  0.0587   34.2  0.3100 -142.1
 1.320  0.6309 -170.9   9.196   81.8  0.0591   34.1  0.3081 -143.2
 1.340  0.6310 -171.7   9.068   81.3  0.0596   34.0  0.3063 -144.2
 1.360  0.6312 -172.4   8.940   80.9  0.0600   33.9  0.3046 -145.3
 1.380  0.6316 -173.2   8.813   80.4  0.0605   33.8  0.3031 -146.4
 1.400  0.6320 -173.9   8.687   79.9  0.0609   33.7  0.3016 -147.5
 1.420  0.6323 -174.6   8.573   79.5  0.0613   33.7  0.3003 -148.4
 1.440  0.6328 -175.3   8.460   79.0  0.0617   33.7  0.2991 -149.2
 1.460  0.6333 -175.9   8.348   78.6  0.0620   33.7  0.2980 -150.1
 1.480  0.6339 -176.6   8.235   78.1  0.0624   33.7  0.2969 -151.0
 1.500  0.6346 -177.3   8.124   77.6  0.0628   33.7  0.2959 -151.9
 1.520  0.6347 -177.9   8.024   77.2  0.0631   33.6  0.2945 -152.8
 1.540  0.6348 -178.5   7.924   76.8  0.0633   33.5  0.2932 -153.7
 1.560  0.6350 -179.2   7.825   76.4  0.0636   33.5  0.2920 -154.6
 1.580  0.6353 -179.8   7.726   75.9  0.0638   33.4  0.2908 -155.5
 1.600  0.6357  179.6   7.628   75.5  0.0641   33.3  0.2897 -156.4
 1.620  0.6359  179.0   7.537   75.1  0.0646   33.2  0.2888 -157.3
 1.640  0.6362  178.4   7.447   74.7  0.0651   33.2  0.2880 -158.2
 1.660  0.6366  177.7   7.358   74.3  0.0657   33.1  0.2872 -159.1
 1.680  0.6371  177.1   7.268   73.9  0.0662   33.1  0.2865 -160.0
 1.700  0.6376  176.5   7.179   73.5  0.0667   33.0  0.2859 -160.9
 1.720  0.6379  175.9   7.099   73.1  0.0671   32.8  0.2852 -161.7
 1.740  0.6383  175.3   7.020   72.7  0.0674   32.7  0.2845 -162.6
 1.760  0.6387  174.8   6.941   72.3  0.0678   32.5  0.2839 -163.4
 1.780  0.6392  174.2   6.863   71.8  0.0681   32.4  0.2833 -164.3
 1.800  0.6398  173.6   6.785   71.4  0.0685   32.2  0.2828 -165.1
 1.820  0.6399  173.1   6.711   71.0  0.0689   32.2  0.2822 -165.8
 1.840  0.6400  172.6   6.638   70.6  0.0692   32.2  0.2817 -166.5
 1.860  0.6401  172.0   6.564   70.2  0.0696   32.3  0.2812 -167.3
 1.880  0.6403  171.5   6.492   69.8  0.0699   32.3  0.2807 -168.0
 1.900  0.6406  171.0   6.419   69.4  0.0703   32.3  0.2803 -168.7
 1.920  0.6410  170.5   6.355   69.0  0.0706   32.3  0.2800 -169.5
 1.940  0.6415  169.9   6.291   68.7  0.0710   32.2  0.2797 -170.2
 1.960  0.6420  169.4   6.227   68.3  0.0713   32.2  0.2794 -171.0
 1.980  0.6426  168.8   6.164   67.9  0.0717   32.1  0.2792 -171.7
 2.000  0.6432  168.3   6.101   67.5  0.0720   32.1  0.2791 -172.5
 2.020  0.6435  167.8   6.044   67.2  0.0723   32.0  0.2789 -173.2
 2.040  0.6438  167.4   5.987   66.9  0.0727   31.9  0.2787 -173.9
 2.060  0.6442  166.9   5.930   66.5  0.0730   31.8  0.2785 -174.6
 2.080  0.6447  166.5   5.873   66.2  0.0734   31.7  0.2784 -175.3
 2.100  0.6451  166.0   5.817   65.8  0.0737   31.6  0.2783 -176.0
 2.120  0.6456  165.5   5.761   65.5  0.0740   31.5  0.2783 -176.7
 2.140  0.6462  165.1   5.705   65.1  0.0744   31.4  0.2783 -177.4
 2.160  0.6468  164.6   5.649   64.8  0.0747   31.3  0.2784 -178.1
 2.180  0.6474  164.2   5.593   64.4  0.0751   31.2  0.2785 -178.8
 2.200  0.6481  163.7   5.538   64.0  0.0754   31.1  0.2786 -179.5
 2.220  0.6484  163.2   5.490   63.7  0.0758   31.1  0.2785  179.8
 2.240  0.6486  162.8   5.441   63.3  0.0762   31.0  0.2785  179.2
 2.260  0.6490  162.3   5.394   63.0  0.0766   31.0  0.2785  178.5
 2.280  0.6494  161.9   5.346   62.6  0.0770   30.9  0.2785  177.9
 2.300  0.6498  161.4   5.298   62.2  0.0774   30.9  0.2786  177.2
 2.320  0.6502  160.9   5.251   61.9  0.0778   30.9  0.2786  176.6
 2.340  0.6507  160.5   5.204   61.5  0.0782   30.8  0.2788  175.9
 2.360  0.6513  160.0   5.157   61.1  0.0786   30.8  0.2790  175.3
 2.380  0.6519  159.6   5.110   60.7  0.0790   30.7  0.2792  174.6
 2.400  0.6525  159.1   5.064   60.3  0.0794   30.7  0.2794  174.0
 2.420  0.6529  158.7   5.023   60.0  0.0798   30.5  0.2797  173.4
 2.440  0.6533  158.3   4.983   59.6  0.0802   30.4  0.2799  172.8
 2.460  0.6538  157.9   4.943   59.3  0.0807   30.2  0.2803  172.2
 2.480  0.6543  157.5   4.903   59.0  0.0811   30.0  0.2806  171.6
 2.500  0.6548  157.0   4.863   58.6  0.0815   29.9  0.2810  171.0
 2.520  0.6553  156.6   4.823   58.3  0.0819   29.7  0.2814  170.4
 2.540  0.6559  156.2   4.783   57.9  0.0823   29.6  0.2818  169.9
 2.560  0.6566  155.8   4.744   57.5  0.0828   29.4  0.2823  169.3
 2.580  0.6572  155.4   4.705   57.2  0.0832   29.3  0.2828  168.7
 2.600  0.6579  155.0   4.666   56.8  0.0836   29.1  0.2833  168.1
 2.620  0.6582  154.6   4.631   56.5  0.0839   29.0  0.2837  167.5
 2.640  0.6586  154.2   4.596   56.2  0.0842   28.9  0.2841  167.0
 2.660  0.6590  153.8   4.561   55.8  0.0845   28.8  0.2845  166.4
 2.680  0.6595  153.4   4.526   55.5  0.0848   28.7  0.2850  165.9
 2.700  0.6599  153.0   4.491   55.2  0.0851   28.6  0.2855  165.3
 2.720  0.6605  152.6   4.456   54.8  0.0855   28.6  0.2860  164.8
 2.740  0.6610  152.2   4.422   54.5  0.0858   28.5  0.2865  164.2
 2.760  0.6616  151.8   4.388   54.1  0.0861   28.4  0.2871  163.7
 2.780  0.6622  151.4   4.354   53.8  0.0864   28.3  0.2877  163.1
 2.800  0.6628  151.0   4.320   53.4  0.0867   28.2  0.2883  162.6
 2.820  0.6633  150.6   4.290   53.1  0.0871   28.1  0.2888  162.1
 2.840  0.6638  150.2   4.260   52.8  0.0875   28.0  0.2894  161.6
 2.860  0.6643  149.9   4.229   52.5  0.0879   27.9  0.2900  161.1
 2.880  0.6649  149.5   4.200   52.1  0.0883   27.8  0.2906  160.6
 2.900  0.6655  149.1   4.170   51.8  0.0887   27.7  0.2912  160.1
 2.920  0.6661  148.7   4.140   51.5  0.0891   27.6  0.2918  159.6
 2.940  0.6668  148.3   4.111   51.1  0.0895   27.5  0.2925  159.1
 2.960  0.6674  148.0   4.081   50.8  0.0899   27.4  0.2932  158.7
 2.980  0.6682  147.6   4.052   50.5  0.0903   27.3  0.2939  158.2
 3.000  0.6689  147.2   4.023   50.1  0.0907   27.2  0.2946  157.7
 3.100  0.6709  145.3   3.895   48.7  0.0925   26.5  0.2984  155.4
 3.200  0.6737  143.5   3.770   47.1  0.0942   25.8  0.3026  153.2
 3.300  0.6771  141.7   3.647   45.5  0.0960   25.1  0.3073  151.1
 3.400  0.6812  139.9   3.528   43.8  0.0978   24.4  0.3124  149.0
 3.500  0.6860  138.1   3.412   41.9  0.0996   23.8  0.3179  147.0
 3.600  0.6892  136.4   3.313   40.5  0.1012   23.1  0.3229  145.1
 3.700  0.6931  134.8   3.216   39.0  0.1028   22.3  0.3282  143.2
 3.800  0.6975  133.1   3.121   37.4  0.1044   21.6  0.3339  141.4
 3.900  0.7025  131.5   3.029   35.8  0.1060   21.0  0.3399  139.7
 4.000  0.7080  129.9   2.939   34.0  0.1077   20.3  0.3462  138.0
 4.100  0.7112  128.5   2.860   32.7  0.1091   19.5  0.3509  136.5
 4.200  0.7148  127.1   2.782   31.3  0.1105   18.8  0.3559  135.1
 4.300  0.7188  125.7   2.706   29.9  0.1119   18.1  0.3611  133.7
 4.400  0.7232  124.3   2.632   28.3  0.1133   17.4  0.3665  132.3
 4.500  0.7281  122.9   2.560   26.7  0.1148   16.7  0.3721  131.0
 4.600  0.7302  121.7   2.499   25.5  0.1162   15.9  0.3756  129.7
 4.700  0.7326  120.5   2.439   24.3  0.1176   15.2  0.3793  128.4
 4.800  0.7353  119.3   2.380   22.9  0.1190   14.4  0.3832  127.1
 4.900  0.7383  118.1   2.323   21.6  0.1204   13.7  0.3873  125.9
 5.000  0.7417  116.9   2.267   20.1  0.1219   13.0  0.3915  124.7
 5.100  0.7424  115.8   2.218   18.9  0.1233   12.3  0.3938  123.4
 5.200  0.7435  114.7   2.170   17.6  0.1248   11.6  0.3963  122.1
 5.300  0.7448  113.6   2.123   16.3  0.1263   10.9  0.3991  120.8
 5.400  0.7464  112.5   2.077   14.9  0.1278   10.2  0.4020  119.5
 5.500  0.7482  111.4   2.032   13.5  0.1293    9.6  0.4051  118.3
 5.600  0.7488  110.4   1.993   12.4  0.1308    8.8  0.4079  117.0
 5.700  0.7496  109.5   1.954   11.2  0.1324    8.1  0.4109  115.6
 5.800  0.7507  108.5   1.916    9.9  0.1339    7.3  0.4141  114.3
 5.900  0.7519  107.6   1.880    8.6  0.1355    6.6  0.4176  113.1
 6.000  0.7534  106.6   1.844    7.3  0.1371    5.9  0.4212  111.8
 6.100  0.7557  105.7   1.814    6.1  0.1387    5.0  0.4249  110.7
 6.200  0.7582  104.7   1.785    4.8  0.1403    4.2  0.4287  109.7
 6.300  0.7609  103.8   1.757    3.5  0.1420    3.3  0.4327  108.6
 6.400  0.7637  102.9   1.730    2.2  0.1437    2.5  0.4368  107.6
 6.500  0.7668  102.0   1.704    0.8  0.1454    1.7  0.4410  106.6
 6.600  0.7692  100.9   1.677   -0.5  0.1468    0.7  0.4446  105.7
 6.800  0.7748   98.7   1.624   -3.2  0.1496   -1.2  0.4520  103.9
 7.000  0.7815   96.6   1.576   -6.1  0.1526   -3.1  0.4599  102.2
 7.200  0.7857   94.1   1.522   -8.9  0.1546   -5.3  0.4675  100.0
 7.400  0.7914   91.7   1.472  -11.8  0.1567   -7.4  0.4757   97.8
 7.600  0.7967   89.2   1.422  -14.7  0.1585   -9.3  0.4845   95.4
 7.800  0.8018   86.5   1.371  -17.4  0.1597  -11.2  0.4942   92.7
 8.000  0.8086   83.9   1.324  -20.4  0.1611  -13.0  0.5049   90.1
 8.200  0.8135   81.3   1.274  -22.9  0.1617  -15.0  0.5162   87.5
 8.400  0.8202   78.7   1.227  -25.5  0.1625  -16.9  0.5286   84.9
 8.600  0.8265   76.2   1.181  -28.0  0.1630  -18.8  0.5418   82.4
 8.800  0.8323   73.8   1.135  -30.2  0.1631  -20.6  0.5557   80.0
 9.000  0.8396   71.4   1.092  -32.7  0.1633  -22.4  0.5705   77.7
 9.200  0.8467   69.6   1.049  -34.7  0.1626  -24.0  0.5851   75.6
 9.400  0.8546   67.8   1.007  -36.8  0.1620  -25.6  0.6005   73.6
 9.600  0.8627   66.3   0.970  -38.6  0.1614  -26.9  0.6146   72.1
 9.800  0.8705   65.1   0.936  -40.1  0.1607  -27.8  0.6270   71.0
10.000  0.8787   63.9   0.903  -41.7  0.1600  -28.8  0.6396   70.0
!
!  f       NFmin   Gammaopt  rn/50
! GHz       dB    MAG  ANG    -
 0.450      0.62  0.09   77   0.63
 0.900      0.63  0.13  149   0.30
 1.900      0.82  0.25  177   0.05
 2.400      0.90  0.27 -167   0.07
 3.500      1.20  0.32 -133   0.12
!
! (c) 2016  Infineon Technologies AG, Munich
