! Infineon Technologies  Discrete & RF Semiconductors
! BFP620F
! VCE =  2.3 V,  IC =  30 mA
! Common Emitter S-Parameters:                            Dec 2014
# GHz  S  MA  R  50
!  f         S11            S21            S12            S22
! GHz     MAG   ANG      MAG   ANG      MAG   ANG      MAG   ANG
 0.030  0.6353   -5.0  54.114  175.1  0.0029   53.7  0.9220   -2.4
 0.040  0.6345   -6.6  53.952  173.5  0.0027   65.1  0.9226   -3.8
 0.050  0.6334   -8.4  53.871  172.1  0.0035   69.4  0.9279   -5.1
 0.060  0.6342  -10.3  53.664  170.8  0.0041   59.2  0.9242   -6.5
 0.070  0.6332  -11.8  53.455  169.2  0.0044   69.2  0.9232   -7.8
 0.080  0.6300  -13.6  53.254  167.6  0.0051   67.6  0.9197   -9.2
 0.090  0.6266  -15.3  52.921  166.1  0.0056   72.3  0.9174  -10.5
 0.100  0.6231  -16.9  52.585  164.7  0.0061   71.3  0.9147  -11.7
 0.110  0.6175  -18.5  52.230  163.2  0.0071   65.4  0.9093  -13.0
 0.120  0.6138  -20.2  51.814  161.8  0.0072   67.0  0.9043  -14.3
 0.130  0.6098  -21.8  51.467  160.5  0.0078   70.5  0.8990  -15.5
 0.140  0.6064  -23.4  50.986  159.1  0.0083   70.6  0.8917  -16.8
 0.150  0.6030  -24.9  50.651  157.8  0.0086   73.9  0.8860  -17.9
 0.200  0.5792  -32.5  48.292  151.4  0.0114   72.0  0.8501  -23.4
 0.250  0.5527  -39.4  45.836  145.4  0.0140   69.9  0.8100  -28.3
 0.300  0.5256  -45.9  43.288  140.1  0.0161   67.9  0.7666  -32.8
 0.350  0.4966  -52.1  40.688  135.4  0.0182   67.8  0.7237  -36.6
 0.400  0.4694  -57.7  38.289  131.0  0.0199   67.1  0.6817  -40.0
 0.450  0.4465  -62.6  35.983  127.2  0.0217   67.0  0.6444  -43.1
 0.500  0.4206  -67.6  33.813  123.7  0.0234   66.1  0.6072  -45.7
 0.600  0.3782  -76.5  29.982  117.7  0.0266   65.9  0.5403  -50.1
 0.700  0.3434  -84.3  26.780  112.7  0.0297   65.7  0.4845  -53.7
 0.800  0.3154  -91.4  24.065  108.7  0.0329   65.4  0.4360  -56.4
 0.900  0.2910  -97.9  21.800  105.2  0.0358   65.3  0.3949  -58.8
 1.000  0.2721 -104.3  19.892  102.2  0.0385   65.2  0.3595  -60.7
 1.100  0.2549 -110.0  18.245   99.5  0.0417   65.0  0.3278  -62.5
 1.200  0.2430 -115.7  16.855   97.2  0.0445   65.3  0.3013  -63.8
 1.300  0.2312 -121.0  15.636   95.1  0.0474   64.9  0.2760  -65.1
 1.400  0.2239 -126.2  14.587   93.1  0.0503   64.8  0.2557  -66.3
 1.500  0.2157 -131.0  13.653   91.4  0.0534   64.8  0.2362  -67.4
 1.600  0.2113 -135.9  12.829   89.7  0.0562   64.5  0.2203  -68.8
 1.700  0.2061 -140.3  12.096   88.1  0.0589   64.3  0.2049  -70.0
 1.800  0.2035 -144.6  11.452   86.6  0.0620   64.1  0.1926  -71.5
 1.900  0.2006 -148.5  10.860   85.3  0.0649   63.8  0.1811  -72.8
 2.000  0.1987 -152.3  10.331   83.9  0.0677   63.5  0.1724  -74.6
 2.100  0.1990 -156.1   9.848   82.6  0.0710   62.9  0.1698  -77.6
 2.200  0.1976 -159.2   9.406   81.4  0.0736   62.7  0.1624  -79.1
 2.300  0.1971 -162.6   9.004   80.2  0.0765   62.4  0.1557  -80.4
 2.400  0.1966 -165.4   8.640   79.0  0.0794   61.9  0.1499  -81.9
 2.500  0.1966 -168.3   8.300   77.9  0.0824   61.4  0.1449  -83.2
 2.600  0.1962 -171.0   7.986   76.8  0.0851   61.1  0.1406  -84.6
 2.700  0.1962 -173.5   7.694   75.8  0.0882   60.6  0.1370  -85.6
 2.800  0.1955 -176.0   7.423   74.7  0.0910   60.2  0.1339  -87.0
 2.900  0.1962 -178.2   7.171   73.7  0.0938   59.6  0.1312  -88.2
 3.000  0.1958  179.3   6.939   72.6  0.0967   59.2  0.1289  -89.6
 3.100  0.1959  177.4   6.715   71.7  0.0996   58.7  0.1265  -90.4
 3.200  0.1954  175.1   6.509   70.7  0.1027   58.3  0.1249  -91.5
 3.300  0.1959  173.3   6.316   69.7  0.1054   57.8  0.1233  -92.3
 3.400  0.1955  171.1   6.138   68.7  0.1083   57.4  0.1216  -93.3
 3.500  0.1957  169.3   5.965   67.8  0.1111   56.7  0.1199  -93.9
 3.600  0.1957  167.2   5.804   66.8  0.1141   56.2  0.1182  -94.8
 3.700  0.1960  165.5   5.653   65.9  0.1168   55.7  0.1167  -95.4
 3.800  0.1961  163.5   5.505   65.0  0.1198   55.1  0.1155  -96.0
 3.900  0.1968  161.9   5.371   64.1  0.1227   54.7  0.1136  -96.6
 4.000  0.1967  160.1   5.238   63.2  0.1253   54.1  0.1111  -97.0
 4.100  0.1979  158.5   5.117   62.2  0.1283   53.5  0.1091  -97.5
 4.200  0.1991  156.7   5.000   61.3  0.1313   52.9  0.1061  -98.3
 4.300  0.1998  155.5   4.889   60.4  0.1341   52.4  0.1040  -98.8
 4.400  0.2013  153.9   4.782   59.5  0.1370   51.7  0.1014  -99.3
 4.500  0.2023  152.7   4.680   58.6  0.1397   51.1  0.0986  -99.9
 4.600  0.2044  151.3   4.583   57.7  0.1426   50.5  0.0954 -100.6
 4.700  0.2055  150.1   4.493   56.8  0.1454   49.9  0.0929 -101.4
 4.800  0.2079  148.8   4.402   55.9  0.1481   49.5  0.0898 -102.2
 4.900  0.2098  147.9   4.317   55.1  0.1511   48.7  0.0864 -102.9
 5.000  0.2120  146.7   4.237   54.1  0.1540   48.1  0.0837 -104.4
 5.100  0.2137  145.6   4.158   53.2  0.1567   47.5  0.0809 -104.5
 5.200  0.2163  144.9   4.083   52.3  0.1596   46.8  0.0776 -105.6
 5.300  0.2182  143.9   4.008   51.4  0.1622   46.2  0.0751 -106.8
 5.400  0.2211  143.0   3.939   50.5  0.1651   45.5  0.0727 -108.3
 5.500  0.2234  142.1   3.869   49.6  0.1679   44.9  0.0697 -109.5
 5.600  0.2264  141.3   3.803   48.7  0.1705   44.2  0.0667 -111.2
 5.700  0.2286  140.4   3.739   47.8  0.1732   43.5  0.0643 -112.6
 5.800  0.2311  139.5   3.678   46.8  0.1758   42.8  0.0617 -113.9
 5.900  0.2338  138.6   3.618   45.9  0.1784   42.1  0.0583 -116.1
 6.000  0.2362  137.6   3.558   45.0  0.1811   41.5  0.0561 -117.7
 6.100  0.2388  136.6   3.500   44.1  0.1837   40.8  0.0529 -119.5
 6.200  0.2416  135.7   3.444   43.2  0.1860   40.0  0.0495 -121.7
 6.300  0.2445  134.4   3.389   42.2  0.1885   39.4  0.0461 -124.9
 6.400  0.2472  133.4   3.336   41.3  0.1911   38.7  0.0433 -128.1
 6.500  0.2497  132.1   3.284   40.4  0.1933   38.0  0.0386 -131.1
 6.600  0.2526  130.9   3.230   39.5  0.1956   37.4  0.0348 -136.4
 6.700  0.2553  129.5   3.180   38.6  0.1979   36.7  0.0307 -141.1
 6.800  0.2581  128.2   3.131   37.7  0.2003   36.1  0.0268 -147.1
 6.900  0.2614  126.8   3.082   36.9  0.2026   35.4  0.0222 -155.9
 7.000  0.2648  125.5   3.034   36.0  0.2050   34.8  0.0184 -168.8
 7.100  0.2683  124.2   2.989   35.2  0.2074   34.2  0.0157  171.8
 7.200  0.2719  123.0   2.945   34.3  0.2098   33.6  0.0153  148.2
 7.300  0.2763  121.9   2.903   33.5  0.2122   33.0  0.0182  126.5
 7.400  0.2808  120.7   2.862   32.7  0.2146   32.4  0.0230  112.2
 7.500  0.2861  119.8   2.823   31.9  0.2171   31.7  0.0293  102.9
 7.600  0.2915  119.0   2.784   31.1  0.2197   31.0  0.0361   97.0
 7.700  0.2978  118.2   2.747   30.3  0.2220   30.4  0.0443   93.5
 7.800  0.3041  117.5   2.710   29.5  0.2244   29.7  0.0525   91.2
 7.900  0.3117  116.8   2.675   28.6  0.2268   29.0  0.0621   89.2
 8.000  0.3193  116.2   2.641   27.8  0.2293   28.2  0.0717   87.8
!
!  f       NFmin   Gammaopt  rn/50
! GHz       dB    MAG  ANG    -
 0.450      1.13  0.05 -172   0.18
 0.900      1.16  0.05 -171   0.14
 1.500      1.18  0.12 -148   0.15
 1.800      1.19  0.12 -147   0.16
 1.900      1.19  0.12 -146   0.16
 2.400      1.21  0.12 -146   0.17
 3.500      1.27  0.14 -141   0.18
 5.500      1.42  0.21  241   0.13
 6.000      1.47  0.22  260   0.16
!
! (c) 2014  Infineon Technologies AG, Munich
