! Infineon Technologies  Discrete & RF Semiconductors
! BFP640
! VCE =  3.5 V,  IC =  8.0 mA
! Common Emitter S-Parameters:                            Apr 2013
# GHz  S  MA  R  50
!  f         S11            S21            S12            S22
! GHz     MAG   ANG      MAG   ANG      MAG   ANG      MAG   ANG
 0.030  0.8873   -2.4  22.131  177.1  0.0015   96.2  0.9911   -1.4
 0.040  0.8880   -3.2  22.079  176.5  0.0022   71.1  0.9933   -1.9
 0.050  0.8851   -3.8  22.339  176.1  0.0020  125.3  0.9912   -2.4
 0.060  0.8881   -4.9  22.150  175.2  0.0038   94.9  0.9933   -2.8
 0.070  0.8854   -5.7  22.191  174.6  0.0032   72.5  0.9917   -3.4
 0.080  0.8874   -6.4  22.126  173.9  0.0043   96.9  0.9933   -3.8
 0.090  0.8836   -7.3  22.178  173.3  0.0046   80.4  0.9916   -4.4
 0.100  0.8836   -8.2  22.102  172.7  0.0057   87.1  0.9913   -4.9
 0.110  0.8818   -9.1  22.160  171.9  0.0057   78.5  0.9901   -5.4
 0.120  0.8826   -9.8  21.998  171.3  0.0059   83.3  0.9897   -5.9
 0.130  0.8819  -10.7  21.978  170.6  0.0071   82.2  0.9881   -6.4
 0.140  0.8808  -11.5  21.880  170.0  0.0074   82.3  0.9871   -6.9
 0.150  0.8797  -12.3  21.965  169.4  0.0082   86.0  0.9856   -7.4
 0.200  0.8736  -16.3  21.694  166.0  0.0108   81.4  0.9788   -9.9
 0.250  0.8653  -20.4  21.529  162.6  0.0134   81.9  0.9699  -12.2
 0.300  0.8580  -24.4  21.097  159.5  0.0162   79.2  0.9591  -14.6
 0.350  0.8463  -28.3  20.858  156.2  0.0185   75.2  0.9475  -17.0
 0.400  0.8342  -32.3  20.551  153.1  0.0208   73.1  0.9311  -19.4
 0.450  0.8203  -36.3  20.283  149.9  0.0233   72.7  0.9186  -21.5
 0.500  0.8061  -40.1  19.869  147.0  0.0257   70.1  0.8995  -23.7
 0.600  0.7757  -47.5  19.022  141.3  0.0300   66.7  0.8640  -27.6
 0.700  0.7424  -54.8  18.225  136.0  0.0341   63.3  0.8255  -31.4
 0.800  0.7051  -62.2  17.522  130.7  0.0376   60.2  0.7855  -34.7
 0.900  0.6721  -68.9  16.690  126.1  0.0408   57.5  0.7463  -37.7
 1.000  0.6426  -75.0  15.773  122.0  0.0438   55.3  0.7083  -40.4
 1.100  0.6104  -81.3  15.012  117.9  0.0463   52.8  0.6720  -42.8
 1.200  0.5812  -87.3  14.275  114.1  0.0484   50.8  0.6367  -45.0
 1.300  0.5550  -92.9  13.562  110.7  0.0508   49.3  0.6066  -46.7
 1.400  0.5310  -98.4  12.933  107.4  0.0529   47.7  0.5789  -48.3
 1.500  0.5106 -103.5  12.304  104.5  0.0546   46.3  0.5522  -49.6
 1.600  0.4881 -109.3  11.816  101.4  0.0565   45.2  0.5272  -51.0
 1.700  0.4708 -114.4  11.298   98.7  0.0582   44.0  0.5032  -52.1
 1.800  0.4583 -119.1  10.793   96.2  0.0599   42.9  0.4835  -53.3
 1.900  0.4446 -124.2  10.368   93.7  0.0616   42.0  0.4621  -54.2
 2.000  0.4338 -128.9   9.951   91.3  0.0630   40.9  0.4431  -55.3
 2.100  0.4239 -133.9   9.576   88.8  0.0646   40.1  0.4244  -56.4
 2.200  0.4152 -138.3   9.208   86.6  0.0661   39.2  0.4082  -57.2
 2.300  0.4067 -142.8   8.871   84.4  0.0679   38.3  0.3935  -57.8
 2.400  0.4012 -147.0   8.542   82.4  0.0691   37.7  0.3783  -58.5
 2.500  0.3950 -151.4   8.253   80.4  0.0705   37.1  0.3643  -59.0
 2.600  0.3896 -155.8   7.978   78.3  0.0719   36.4  0.3484  -59.6
 2.700  0.3863 -159.9   7.722   76.4  0.0735   35.6  0.3361  -60.1
 2.800  0.3831 -164.1   7.477   74.4  0.0746   34.9  0.3225  -60.7
 2.900  0.3828 -167.8   7.238   72.7  0.0763   34.3  0.3113  -61.3
 3.000  0.3807 -171.9   7.024   70.8  0.0777   33.7  0.2980  -62.1
 3.100  0.3804 -175.8   6.822   68.9  0.0790   33.1  0.2860  -62.7
 3.200  0.3805 -179.7   6.628   67.2  0.0806   32.3  0.2745  -63.6
 3.300  0.3828  177.0   6.435   65.4  0.0821   31.8  0.2639  -64.3
 3.400  0.3845  173.2   6.260   63.7  0.0835   31.0  0.2532  -65.2
 3.500  0.3871  169.9   6.087   62.0  0.0848   30.3  0.2425  -65.9
 3.600  0.3896  166.4   5.932   60.3  0.0860   29.6  0.2316  -66.8
 3.700  0.3936  163.4   5.773   58.7  0.0874   29.0  0.2202  -67.6
 3.800  0.3977  160.2   5.626   57.0  0.0888   28.2  0.2105  -68.6
 3.900  0.4019  157.3   5.482   55.4  0.0903   27.6  0.2010  -69.6
 4.000  0.4072  154.4   5.343   53.8  0.0914   27.0  0.1908  -70.8
 4.100  0.4113  151.6   5.214   52.2  0.0926   26.2  0.1818  -71.9
 4.200  0.4176  149.0   5.084   50.6  0.0938   25.7  0.1723  -73.3
 4.300  0.4223  146.5   4.963   49.1  0.0951   24.9  0.1645  -74.5
 4.400  0.4292  144.2   4.845   47.6  0.0965   24.2  0.1564  -75.6
 4.500  0.4334  141.9   4.733   46.1  0.0975   23.6  0.1494  -76.7
 4.600  0.4401  139.7   4.628   44.6  0.0988   23.0  0.1418  -77.9
 4.700  0.4443  137.7   4.523   43.2  0.0999   22.4  0.1341  -78.8
 4.800  0.4511  135.9   4.421   41.7  0.1012   21.7  0.1273  -79.8
 4.900  0.4552  134.0   4.326   40.3  0.1023   21.0  0.1209  -80.6
 5.000  0.4606  132.2   4.238   38.9  0.1036   20.4  0.1151  -81.4
 5.100  0.4649  130.5   4.148   37.5  0.1048   19.9  0.1083  -82.2
 5.200  0.4693  128.9   4.064   36.2  0.1060   19.1  0.1031  -82.7
 5.300  0.4735  127.3   3.977   34.8  0.1072   18.6  0.0970  -83.2
 5.400  0.4776  125.8   3.900   33.5  0.1086   17.8  0.0925  -83.3
 5.500  0.4809  124.3   3.825   32.1  0.1096   17.3  0.0863  -83.4
 5.600  0.4841  122.9   3.755   30.9  0.1107   16.8  0.0818  -83.5
 5.700  0.4864  121.6   3.683   29.6  0.1120   16.2  0.0750  -83.3
 5.800  0.4905  120.2   3.618   28.3  0.1133   15.5  0.0708  -83.2
 5.900  0.4937  119.1   3.552   27.0  0.1147   15.0  0.0653  -83.0
 6.000  0.4965  117.7   3.495   25.7  0.1160   14.2  0.0611  -83.2
 6.100  0.5013  116.6   3.440   24.5  0.1175   13.7  0.0553  -83.6
 6.200  0.5032  115.4   3.382   23.3  0.1189   13.0  0.0507  -84.2
 6.300  0.5082  114.1   3.330   21.9  0.1203   12.2  0.0452  -84.6
 6.400  0.5107  112.8   3.278   20.6  0.1216   11.5  0.0407  -85.5
 6.500  0.5154  111.3   3.230   19.3  0.1233   10.7  0.0347  -86.5
 6.600  0.5183  110.0   3.180   17.9  0.1243    9.9  0.0296  -87.5
 6.700  0.5231  108.7   3.131   16.6  0.1256    9.2  0.0245  -88.2
 6.800  0.5267  107.1   3.083   15.3  0.1269    8.3  0.0199  -89.8
 6.900  0.5310  105.8   3.037   14.0  0.1281    7.6  0.0141  -92.5
 7.000  0.5343  104.2   2.997   12.6  0.1294    6.8  0.0095 -102.6
 7.100  0.5392  102.9   2.952   11.3  0.1307    6.0  0.0043 -132.5
 7.200  0.5432  101.4   2.910   10.0  0.1319    5.2  0.0037  158.4
 7.300  0.5478  100.1   2.866    8.7  0.1331    4.4  0.0080  116.2
 7.400  0.5520   98.5   2.826    7.3  0.1341    3.5  0.0120  107.7
 7.500  0.5580   97.1   2.785    5.9  0.1353    2.7  0.0184   99.2
 7.600  0.5625   95.5   2.746    4.6  0.1363    1.8  0.0240   98.0
 7.700  0.5694   94.1   2.704    3.2  0.1374    0.9  0.0303   94.5
 7.800  0.5753   92.6   2.663    1.9  0.1387    0.1  0.0370   91.8
 7.900  0.5820   91.2   2.624    0.5  0.1392   -0.8  0.0436   89.4
 8.000  0.5882   89.8   2.585   -0.8  0.1402   -1.6  0.0511   88.0
 8.500  0.6245   83.0   2.388   -7.5  0.1440   -5.9  0.0943   79.6
 9.000  0.6619   76.8   2.195  -13.6  0.1463  -10.0  0.1475   75.8
 9.500  0.6992   71.7   2.013  -19.0  0.1474  -13.6  0.2046   74.4
10.000  0.7308   67.9   1.862  -23.6  0.1483  -16.4  0.2532   75.1
!
!  f       NFmin   Gammaopt  rn/50
! GHz       dB    MAG  ANG    -
 0.450      0.60  0.33   11   0.07
 0.900      0.61  0.32   18   0.07
 1.500      0.64  0.29   30   0.07
 1.900      0.67  0.23   49   0.08
 2.400      0.72  0.21   58   0.08
 3.500      0.84  0.17   76   0.09
 5.500      1.07  0.23 -139   0.10
10.000      1.69  0.60  -62   0.41
!
! (c) 2013  Infineon Technologies AG, Munich
