! Infineon Technologies  Discrete & RF Semiconductors
! BFP640
! VCE =  3.5 V,  IC =  32 mA
! Common Emitter S-Parameters:                            Apr 2013
# GHz  S  MA  R  50
!  f         S11            S21            S12            S22
! GHz     MAG   ANG      MAG   ANG      MAG   ANG      MAG   ANG
 0.030  0.5762   -5.1  59.000  174.7  0.0021   60.0  0.9777   -1.9
 0.040  0.5737   -7.0  58.761  173.4  0.0018   85.8  0.9779   -3.2
 0.050  0.5708   -8.6  58.739  172.2  0.0024  112.3  0.9782   -4.4
 0.060  0.5717  -11.3  58.540  170.5  0.0029   52.8  0.9753   -5.9
 0.070  0.5710  -13.1  58.396  169.2  0.0036   87.5  0.9781   -6.9
 0.080  0.5681  -14.8  58.067  167.8  0.0030   71.9  0.9731   -8.0
 0.090  0.5655  -16.7  57.706  166.4  0.0038   69.3  0.9700   -9.2
 0.100  0.5659  -18.8  57.376  165.0  0.0044   89.1  0.9682  -10.4
 0.110  0.5624  -20.7  57.198  163.5  0.0045   85.1  0.9640  -11.6
 0.120  0.5581  -22.6  56.821  162.2  0.0054   79.5  0.9579  -12.5
 0.130  0.5550  -24.4  56.470  160.8  0.0058   77.3  0.9527  -13.7
 0.140  0.5529  -26.2  56.010  159.4  0.0068   76.0  0.9476  -14.7
 0.150  0.5494  -28.1  55.703  158.1  0.0069   78.2  0.9405  -15.8
 0.200  0.5321  -36.8  53.355  151.6  0.0085   74.4  0.9060  -20.6
 0.250  0.5099  -45.3  50.891  145.5  0.0103   71.3  0.8653  -24.9
 0.300  0.4877  -53.1  48.105  140.0  0.0119   70.9  0.8229  -28.8
 0.350  0.4642  -60.5  45.375  135.0  0.0136   69.8  0.7812  -32.2
 0.400  0.4441  -67.4  42.747  130.4  0.0155   68.4  0.7410  -35.1
 0.450  0.4228  -73.7  40.191  126.3  0.0162   66.4  0.7019  -37.6
 0.500  0.4044  -79.8  37.791  122.7  0.0177   66.1  0.6644  -39.8
 0.600  0.3706  -91.2  33.549  116.2  0.0198   65.4  0.5980  -43.3
 0.700  0.3435 -101.3  29.959  110.9  0.0220   63.7  0.5410  -45.9
 0.800  0.3240 -110.3  26.930  106.5  0.0243   62.5  0.4936  -47.9
 0.900  0.3068 -118.8  24.430  102.6  0.0265   62.4  0.4514  -49.3
 1.000  0.2949 -126.5  22.271   99.3  0.0285   61.8  0.4163  -50.4
 1.100  0.2843 -133.8  20.455   96.2  0.0305   61.4  0.3862  -51.1
 1.200  0.2770 -140.2  18.893   93.6  0.0327   60.8  0.3611  -51.6
 1.300  0.2714 -146.2  17.530   91.1  0.0345   60.4  0.3394  -51.9
 1.400  0.2678 -151.8  16.370   88.8  0.0367   60.0  0.3208  -52.1
 1.500  0.2644 -157.0  15.343   86.7  0.0387   59.4  0.3038  -52.0
 1.600  0.2636 -161.9  14.442   84.7  0.0408   58.9  0.2898  -52.2
 1.700  0.2631 -166.5  13.632   82.7  0.0428   58.5  0.2754  -51.9
 1.800  0.2638 -170.8  12.908   80.9  0.0448   57.9  0.2639  -52.1
 1.900  0.2655 -174.9  12.268   79.1  0.0468   57.4  0.2519  -51.9
 2.000  0.2669 -178.7  11.673   77.4  0.0489   56.8  0.2419  -52.2
 2.100  0.2706  178.1  11.126   75.7  0.0510   56.0  0.2318  -52.5
 2.200  0.2724  174.8  10.642   74.0  0.0529   55.5  0.2232  -52.5
 2.300  0.2753  171.4  10.192   72.4  0.0552   54.5  0.2149  -52.3
 2.400  0.2779  168.5   9.779   70.9  0.0568   54.1  0.2071  -52.3
 2.500  0.2810  165.3   9.394   69.3  0.0590   53.4  0.1993  -52.1
 2.600  0.2845  162.5   9.040   67.8  0.0611   52.7  0.1911  -52.0
 2.700  0.2884  159.8   8.713   66.3  0.0630   51.9  0.1838  -51.6
 2.800  0.2923  157.2   8.407   64.8  0.0650   51.2  0.1759  -51.8
 2.900  0.2971  154.8   8.119   63.4  0.0671   50.5  0.1686  -51.9
 3.000  0.3019  152.2   7.853   61.9  0.0690   49.7  0.1603  -52.0
 3.100  0.3072  150.0   7.603   60.5  0.0712   48.8  0.1533  -52.3
 3.200  0.3127  147.6   7.368   59.1  0.0730   48.0  0.1456  -52.9
 3.300  0.3183  145.4   7.146   57.7  0.0752   47.1  0.1387  -53.4
 3.400  0.3254  143.1   6.937   56.3  0.0769   46.2  0.1307  -54.1
 3.500  0.3310  141.1   6.736   54.9  0.0789   45.5  0.1235  -54.3
 3.600  0.3377  139.0   6.546   53.5  0.0809   44.6  0.1154  -55.1
 3.700  0.3442  137.2   6.368   52.2  0.0827   43.7  0.1076  -55.7
 3.800  0.3510  135.2   6.198   50.8  0.0847   42.9  0.0995  -56.4
 3.900  0.3577  133.4   6.035   49.4  0.0865   41.9  0.0917  -57.2
 4.000  0.3651  131.6   5.878   48.1  0.0882   41.2  0.0836  -58.8
 4.100  0.3713  129.9   5.729   46.8  0.0900   40.3  0.0760  -60.2
 4.200  0.3794  128.3   5.586   45.5  0.0919   39.4  0.0689  -62.0
 4.300  0.3852  126.7   5.451   44.1  0.0935   38.6  0.0620  -63.8
 4.400  0.3931  125.3   5.320   42.8  0.0952   37.7  0.0554  -65.2
 4.500  0.3989  123.8   5.196   41.6  0.0971   36.9  0.0486  -67.3
 4.600  0.4061  122.6   5.078   40.3  0.0987   35.9  0.0427  -69.5
 4.700  0.4115  121.2   4.961   39.1  0.1004   35.1  0.0363  -71.2
 4.800  0.4185  120.1   4.853   37.8  0.1022   34.2  0.0303  -73.8
 4.900  0.4234  118.8   4.747   36.5  0.1038   33.4  0.0244  -75.5
 5.000  0.4295  117.8   4.647   35.3  0.1055   32.5  0.0193  -78.1
 5.100  0.4341  116.6   4.550   34.1  0.1072   31.6  0.0141  -81.0
 5.200  0.4390  115.6   4.458   32.9  0.1090   30.8  0.0092  -81.9
 5.300  0.4433  114.5   4.367   31.6  0.1105   30.0  0.0040  -89.2
 5.400  0.4477  113.5   4.281   30.5  0.1121   29.1  0.0006   99.1
 5.500  0.4513  112.5   4.198   29.3  0.1138   28.3  0.0058   93.1
 5.600  0.4549  111.6   4.118   28.1  0.1154   27.5  0.0101   91.5
 5.700  0.4575  110.6   4.042   26.9  0.1170   26.8  0.0156   88.8
 5.800  0.4617  109.6   3.970   25.7  0.1188   25.9  0.0199   88.9
 5.900  0.4647  108.8   3.901   24.6  0.1206   25.1  0.0247   88.0
 6.000  0.4679  107.8   3.835   23.4  0.1221   24.1  0.0293   88.7
 6.100  0.4728  107.1   3.773   22.3  0.1241   23.3  0.0336   88.8
 6.200  0.4745  106.2   3.712   21.1  0.1256   22.4  0.0381   89.8
 6.300  0.4801  105.2   3.653   19.9  0.1274   21.5  0.0432   90.1
 6.400  0.4827  104.2   3.597   18.7  0.1291   20.5  0.0479   90.7
 6.500  0.4877  103.0   3.542   17.4  0.1309   19.5  0.0528   90.5
 6.600  0.4911  101.9   3.486   16.1  0.1324   18.7  0.0577   90.6
 6.700  0.4957  100.8   3.435   15.0  0.1340   17.6  0.0626   90.4
 6.800  0.5000   99.6   3.380   13.7  0.1356   16.6  0.0672   90.4
 6.900  0.5047   98.5   3.330   12.5  0.1371   15.7  0.0727   90.2
 7.000  0.5086   97.2   3.282   11.2  0.1388   14.7  0.0773   90.7
 7.100  0.5135   96.0   3.233   10.0  0.1402   13.8  0.0826   90.6
 7.200  0.5181   94.8   3.186    8.8  0.1417   12.8  0.0873   90.7
 7.300  0.5228   93.6   3.141    7.5  0.1430   11.8  0.0927   90.3
 7.400  0.5274   92.3   3.094    6.2  0.1444   10.8  0.0977   90.0
 7.500  0.5333   91.1   3.049    4.9  0.1459    9.7  0.1041   89.1
 7.600  0.5386   89.8   3.003    3.6  0.1469    8.8  0.1101   89.0
 7.700  0.5456   88.6   2.958    2.4  0.1484    7.7  0.1162   88.1
 7.800  0.5516   87.3   2.914    1.1  0.1494    6.7  0.1227   87.3
 7.900  0.5589   86.2   2.869   -0.2  0.1504    5.7  0.1306   86.3
 8.000  0.5653   84.9   2.826   -1.5  0.1517    4.7  0.1376   85.6
 8.500  0.6040   79.1   2.607   -7.8  0.1560   -0.4  0.1813   79.9
 9.000  0.6441   73.8   2.392  -13.6  0.1584   -5.2  0.2360   75.6
 9.500  0.6845   69.2   2.190  -18.6  0.1594   -9.2  0.2932   72.9
10.000  0.7193   65.8   2.022  -22.8  0.1605  -12.4  0.3417   72.2
!
!  f       NFmin   Gammaopt  rn/50
! GHz       dB    MAG  ANG    -
!
! noise parameter not available yet for this operation point!
!
! (c) 2013  Infineon Technologies AG, Munich
