! Infineon Technologies  Discrete & RF Semiconductors
! BFP650
! VCE =  2.5 V,  IC =  50 mA
! Common Emitter S-Parameters:                            Jan 2016
# GHz  S  MA  R  50
!  f         S11            S21            S12            S22
! GHz     MAG   ANG      MAG   ANG      MAG   ANG      MAG   ANG
 0.030  0.4356  -26.2  94.166  168.1  0.0040   84.0  0.9607  -14.3
 0.035  0.4372  -30.5  93.764  166.2  0.0049   83.3  0.9589  -16.6
 0.040  0.4413  -34.8  93.470  164.2  0.0059   82.9  0.9587  -19.0
 0.045  0.4393  -39.5  92.247  162.2  0.0062   73.1  0.9511  -21.5
 0.050  0.4403  -44.3  91.136  160.2  0.0066   64.4  0.9453  -24.0
 0.055  0.4446  -47.4  90.612  158.7  0.0061   77.8  0.9361  -25.9
 0.060  0.4502  -50.4  90.155  157.1  0.0059   92.9  0.9279  -27.9
 0.065  0.4557  -54.5  88.912  155.3  0.0075   84.7  0.9168  -30.7
 0.070  0.4635  -58.4  87.756  153.5  0.0092   79.5  0.9079  -33.6
 0.075  0.4661  -61.7  86.621  151.9  0.0093   77.4  0.8987  -35.6
 0.080  0.4703  -64.9  85.557  150.2  0.0094   75.3  0.8905  -37.6
 0.085  0.4732  -67.8  84.247  148.9  0.0093   73.9  0.8761  -39.6
 0.090  0.4772  -70.6  82.984  147.5  0.0092   72.5  0.8628  -41.6
 0.095  0.4770  -74.1  81.826  145.9  0.0105   68.5  0.8514  -43.8
 0.100  0.4786  -77.5  80.736  144.2  0.0118   65.3  0.8413  -46.1
 0.105  0.4824  -80.2  79.435  142.8  0.0118   66.2  0.8311  -48.0
 0.110  0.4872  -82.9  78.181  141.4  0.0119   67.0  0.8218  -50.0
 0.115  0.4901  -85.1  76.738  140.2  0.0118   65.5  0.8099  -51.7
 0.120  0.4937  -87.2  75.332  138.9  0.0117   64.0  0.7988  -53.5
 0.125  0.4951  -89.7  74.105  137.6  0.0124   61.7  0.7868  -55.3
 0.130  0.4975  -92.1  72.916  136.3  0.0131   59.6  0.7756  -57.1
 0.135  0.5005  -94.3  71.775  135.2  0.0135   61.4  0.7645  -58.5
 0.140  0.5043  -96.5  70.661  134.1  0.0139   63.0  0.7538  -60.0
 0.145  0.5069  -98.4  69.447  133.1  0.0142   61.6  0.7441  -61.6
 0.150  0.5100 -100.3  68.256  132.0  0.0146   60.3  0.7350  -63.2
 0.155  0.5102 -102.0  67.141  131.2  0.0146   60.0  0.7245  -64.5
 0.160  0.5108 -103.6  66.039  130.4  0.0147   59.6  0.7145  -65.8
 0.165  0.5119 -105.3  64.951  129.5  0.0147   59.3  0.7048  -67.1
 0.170  0.5134 -107.0  63.878  128.6  0.0148   58.9  0.6954  -68.5
 0.175  0.5153 -108.6  62.821  127.7  0.0148   58.6  0.6865  -69.9
 0.180  0.5177 -110.3  61.780  126.8  0.0148   58.2  0.6781  -71.4
 0.185  0.5205 -111.9  60.756  125.8  0.0149   57.9  0.6700  -72.8
 0.190  0.5236 -113.5  59.751  124.8  0.0149   57.6  0.6625  -74.4
 0.195  0.5272 -115.0  58.764  123.8  0.0150   57.2  0.6554  -75.9
 0.200  0.5312 -116.6  57.798  122.7  0.0150   56.9  0.6488  -77.5
 0.220  0.5352 -121.4  54.337  120.2  0.0161   56.4  0.6188  -81.9
 0.240  0.5430 -126.2  50.997  117.3  0.0172   56.0  0.5928  -86.7
 0.260  0.5489 -130.2  48.013  114.8  0.0180   54.5  0.5696  -90.9
 0.280  0.5519 -133.7  45.319  112.8  0.0185   52.0  0.5476  -94.6
 0.300  0.5568 -137.1  42.688  110.5  0.0191   49.7  0.5280  -98.6
 0.320  0.5591 -139.9  40.525  108.9  0.0196   50.7  0.5114 -101.8
 0.340  0.5627 -142.6  38.397  107.2  0.0201   51.6  0.4966 -105.3
 0.360  0.5657 -145.1  36.501  105.6  0.0207   52.0  0.4834 -108.4
 0.380  0.5679 -147.3  34.820  104.2  0.0214   51.9  0.4713 -111.2
 0.400  0.5708 -149.5  33.162  102.7  0.0221   51.8  0.4604 -114.1
 0.420  0.5719 -151.3  31.790  101.6  0.0229   51.4  0.4502 -116.5
 0.440  0.5736 -153.2  30.431  100.4  0.0236   51.1  0.4408 -119.1
 0.450  0.5747 -154.1  29.757   99.8  0.0240   50.9  0.4365 -120.4
 0.460  0.5753 -154.9  29.186   99.3  0.0240   51.2  0.4330 -121.5
 0.480  0.5767 -156.4  28.051   98.4  0.0241   51.9  0.4266 -123.8
 0.500  0.5786 -158.0  26.924   97.3  0.0242   52.5  0.4208 -126.2
 0.520  0.5793 -159.2  26.036   96.6  0.0248   52.6  0.4149 -128.0
 0.540  0.5802 -160.5  25.153   95.8  0.0254   52.7  0.4094 -129.9
 0.560  0.5814 -161.7  24.275   95.0  0.0260   52.8  0.4044 -131.9
 0.580  0.5829 -162.9  23.401   94.1  0.0266   52.8  0.3998 -133.9
 0.600  0.5846 -164.1  22.534   93.2  0.0272   52.9  0.3958 -135.9
 0.620  0.5850 -165.1  21.889   92.6  0.0278   53.0  0.3923 -137.4
 0.640  0.5856 -166.1  21.247   92.0  0.0284   53.0  0.3890 -139.0
 0.660  0.5864 -167.1  20.607   91.3  0.0289   53.1  0.3861 -140.6
 0.680  0.5874 -168.1  19.971   90.6  0.0295   53.1  0.3834 -142.3
 0.700  0.5885 -169.1  19.337   89.9  0.0301   53.2  0.3811 -143.9
 0.720  0.5890 -169.9  18.853   89.4  0.0307   53.4  0.3788 -145.3
 0.740  0.5896 -170.7  18.371   88.9  0.0313   53.7  0.3766 -146.6
 0.760  0.5903 -171.6  17.890   88.3  0.0320   53.9  0.3747 -148.0
 0.780  0.5911 -172.4  17.411   87.7  0.0326   54.1  0.3731 -149.4
 0.800  0.5921 -173.2  16.934   87.1  0.0332   54.3  0.3716 -150.8
 0.820  0.5926 -173.9  16.551   86.7  0.0337   54.3  0.3698 -152.0
 0.840  0.5932 -174.6  16.169   86.2  0.0342   54.3  0.3682 -153.1
 0.860  0.5939 -175.3  15.788   85.7  0.0347   54.3  0.3667 -154.3
 0.880  0.5946 -176.0  15.408   85.2  0.0352   54.3  0.3654 -155.5
 0.900  0.5955 -176.7  15.029   84.7  0.0357   54.3  0.3642 -156.7
 0.920  0.5961 -177.4  14.727   84.3  0.0363   54.2  0.3634 -157.7
 0.940  0.5968 -178.0  14.427   83.8  0.0368   54.1  0.3628 -158.7
 0.960  0.5976 -178.7  14.127   83.4  0.0374   54.0  0.3622 -159.7
 0.980  0.5985 -179.3  13.828   82.9  0.0379   53.9  0.3618 -160.7
 1.000  0.5994  180.0  13.530   82.4  0.0385   53.8  0.3615 -161.7
 1.020  0.5997  179.4  13.281   82.0  0.0391   53.8  0.3610 -162.6
 1.040  0.6000  178.9  13.032   81.6  0.0397   53.8  0.3606 -163.5
 1.060  0.6004  178.3  12.784   81.2  0.0403   53.9  0.3603 -164.5
 1.080  0.6009  177.8  12.537   80.8  0.0409   53.9  0.3601 -165.4
 1.100  0.6014  177.2  12.290   80.4  0.0415   53.9  0.3600 -166.3
 1.120  0.6022  176.7  12.084   80.0  0.0420   53.9  0.3596 -167.1
 1.140  0.6030  176.1  11.879   79.6  0.0426   53.9  0.3593 -168.0
 1.160  0.6038  175.6  11.674   79.2  0.0431   53.9  0.3591 -168.8
 1.180  0.6047  175.0  11.470   78.7  0.0437   53.9  0.3590 -169.7
 1.200  0.6057  174.5  11.267   78.3  0.0442   53.9  0.3589 -170.5
 1.220  0.6060  174.0  11.091   78.0  0.0448   53.9  0.3587 -171.2
 1.240  0.6063  173.5  10.915   77.6  0.0453   53.9  0.3586 -171.9
 1.260  0.6067  173.1  10.740   77.3  0.0459   53.9  0.3585 -172.7
 1.280  0.6071  172.6  10.565   76.9  0.0464   53.9  0.3585 -173.4
 1.300  0.6076  172.1  10.390   76.5  0.0470   53.9  0.3585 -174.1
 1.320  0.6082  171.6  10.242   76.1  0.0475   53.8  0.3586 -174.8
 1.340  0.6088  171.1  10.094   75.8  0.0480   53.6  0.3588 -175.5
 1.360  0.6095  170.7   9.946   75.4  0.0485   53.5  0.3590 -176.2
 1.380  0.6102  170.2   9.799   75.0  0.0490   53.3  0.3593 -176.9
 1.400  0.6109  169.7   9.653   74.6  0.0495   53.2  0.3596 -177.6
 1.420  0.6117  169.3   9.523   74.3  0.0501   53.2  0.3598 -178.2
 1.440  0.6125  168.9   9.394   73.9  0.0507   53.1  0.3600 -178.8
 1.460  0.6134  168.4   9.265   73.6  0.0514   53.1  0.3602 -179.4
 1.480  0.6143  168.0   9.136   73.2  0.0520   53.0  0.3605  180.0
 1.500  0.6152  167.6   9.008   72.8  0.0526   53.0  0.3608  179.4
 1.520  0.6156  167.2   8.894   72.5  0.0533   52.9  0.3608  178.8
 1.540  0.6159  166.8   8.780   72.1  0.0539   52.8  0.3608  178.2
 1.560  0.6164  166.3   8.666   71.8  0.0546   52.6  0.3608  177.6
 1.580  0.6168  165.9   8.553   71.5  0.0552   52.5  0.3609  177.0
 1.600  0.6173  165.5   8.440   71.1  0.0559   52.4  0.3610  176.4
 1.620  0.6178  165.1   8.338   70.8  0.0564   52.2  0.3614  175.8
 1.640  0.6183  164.6   8.237   70.4  0.0569   51.9  0.3619  175.2
 1.660  0.6188  164.2   8.136   70.1  0.0573   51.7  0.3624  174.7
 1.680  0.6194  163.7   8.035   69.8  0.0578   51.5  0.3630  174.1
 1.700  0.6200  163.3   7.935   69.4  0.0583   51.3  0.3636  173.5
 1.720  0.6206  162.9   7.845   69.1  0.0588   51.2  0.3639  173.0
 1.740  0.6211  162.5   7.755   68.7  0.0593   51.2  0.3642  172.5
 1.760  0.6218  162.0   7.666   68.3  0.0598   51.1  0.3646  171.9
 1.780  0.6224  161.6   7.577   68.0  0.0603   51.1  0.3650  171.4
 1.800  0.6231  161.2   7.488   67.6  0.0608   51.0  0.3654  170.9
 1.820  0.6235  160.8   7.404   67.3  0.0613   50.8  0.3656  170.4
 1.840  0.6239  160.4   7.321   66.9  0.0619   50.6  0.3659  169.9
 1.860  0.6243  160.1   7.238   66.6  0.0624   50.4  0.3662  169.5
 1.880  0.6248  159.7   7.155   66.3  0.0630   50.2  0.3665  169.0
 1.900  0.6253  159.3   7.073   65.9  0.0635   50.0  0.3669  168.5
 1.920  0.6259  158.9   7.001   65.6  0.0642   49.9  0.3672  168.0
 1.940  0.6266  158.5   6.929   65.3  0.0648   49.7  0.3675  167.5
 1.960  0.6272  158.1   6.857   65.0  0.0655   49.6  0.3678  167.0
 1.980  0.6280  157.7   6.785   64.6  0.0661   49.4  0.3681  166.5
 2.000  0.6287  157.3   6.714   64.3  0.0668   49.3  0.3685  166.0
 2.020  0.6293  157.0   6.651   64.0  0.0673   49.1  0.3689  165.5
 2.040  0.6299  156.6   6.588   63.7  0.0678   48.9  0.3693  165.1
 2.060  0.6305  156.3   6.525   63.5  0.0684   48.8  0.3697  164.6
 2.080  0.6311  155.9   6.462   63.2  0.0689   48.6  0.3702  164.1
 2.100  0.6318  155.6   6.399   62.9  0.0694   48.4  0.3707  163.7
 2.120  0.6325  155.3   6.337   62.6  0.0699   48.2  0.3712  163.2
 2.140  0.6332  154.9   6.275   62.3  0.0704   48.1  0.3717  162.8
 2.160  0.6339  154.6   6.213   61.9  0.0710   47.9  0.3723  162.3
 2.180  0.6346  154.2   6.151   61.6  0.0715   47.8  0.3729  161.9
 2.200  0.6354  153.9   6.089   61.3  0.0720   47.6  0.3735  161.4
 2.220  0.6358  153.5   6.035   61.0  0.0725   47.5  0.3739  160.9
 2.240  0.6362  153.2   5.982   60.7  0.0731   47.3  0.3744  160.5
 2.260  0.6366  152.8   5.929   60.4  0.0736   47.2  0.3749  160.0
 2.280  0.6371  152.5   5.876   60.1  0.0742   47.0  0.3754  159.6
 2.300  0.6375  152.1   5.823   59.7  0.0747   46.9  0.3759  159.1
 2.320  0.6380  151.7   5.770   59.4  0.0753   46.7  0.3765  158.7
 2.340  0.6386  151.4   5.717   59.1  0.0758   46.6  0.3770  158.2
 2.360  0.6391  151.0   5.665   58.7  0.0764   46.5  0.3776  157.8
 2.380  0.6397  150.7   5.613   58.4  0.0769   46.3  0.3783  157.3
 2.400  0.6403  150.3   5.561   58.0  0.0775   46.2  0.3789  156.9
 2.420  0.6408  150.0   5.516   57.7  0.0780   46.0  0.3796  156.5
 2.440  0.6413  149.6   5.471   57.4  0.0785   45.8  0.3802  156.1
 2.460  0.6419  149.3   5.426   57.1  0.0790   45.6  0.3809  155.7
 2.480  0.6424  149.0   5.381   56.8  0.0795   45.4  0.3817  155.2
 2.500  0.6430  148.6   5.336   56.5  0.0800   45.2  0.3824  154.8
 2.520  0.6436  148.3   5.292   56.2  0.0805   45.0  0.3832  154.4
 2.540  0.6443  148.0   5.247   55.9  0.0810   44.8  0.3839  154.0
 2.560  0.6449  147.7   5.203   55.6  0.0815   44.6  0.3847  153.6
 2.580  0.6456  147.3   5.159   55.2  0.0820   44.4  0.3856  153.2
 2.600  0.6463  147.0   5.115   54.9  0.0825   44.2  0.3864  152.8
 2.620  0.6468  146.7   5.076   54.6  0.0830   43.9  0.3871  152.4
 2.640  0.6473  146.4   5.037   54.3  0.0835   43.7  0.3877  152.0
 2.660  0.6478  146.0   4.999   54.0  0.0840   43.5  0.3884  151.6
 2.680  0.6484  145.7   4.960   53.7  0.0845   43.2  0.3891  151.2
 2.700  0.6489  145.4   4.922   53.4  0.0850   43.0  0.3899  150.8
 2.720  0.6495  145.1   4.883   53.1  0.0855   42.7  0.3906  150.4
 2.740  0.6501  144.8   4.845   52.8  0.0860   42.5  0.3914  150.1
 2.760  0.6508  144.4   4.807   52.5  0.0865   42.3  0.3922  149.7
 2.780  0.6514  144.1   4.770   52.1  0.0870   42.0  0.3930  149.3
 2.800  0.6521  143.8   4.732   51.8  0.0875   41.8  0.3938  148.9
 2.820  0.6526  143.5   4.698   51.5  0.0880   41.6  0.3945  148.5
 2.840  0.6532  143.2   4.665   51.2  0.0885   41.4  0.3951  148.2
 2.860  0.6537  142.9   4.632   50.9  0.0890   41.2  0.3958  147.8
 2.880  0.6543  142.6   4.599   50.7  0.0895   41.1  0.3965  147.5
 2.900  0.6549  142.2   4.565   50.4  0.0900   40.9  0.3973  147.1
 2.920  0.6555  141.9   4.532   50.1  0.0905   40.7  0.3980  146.8
 2.940  0.6562  141.6   4.500   49.7  0.0910   40.5  0.3988  146.4
 2.960  0.6568  141.3   4.467   49.4  0.0915   40.3  0.3995  146.1
 2.980  0.6575  141.0   4.434   49.1  0.0920   40.2  0.4003  145.7
 3.000  0.6582  140.7   4.402   48.8  0.0925   40.0  0.4011  145.4
 3.100  0.6609  139.1   4.261   47.5  0.0946   38.8  0.4054  143.8
 3.200  0.6642  137.5   4.123   46.1  0.0967   37.6  0.4099  142.2
 3.300  0.6679  136.0   3.987   44.6  0.0989   36.5  0.4148  140.6
 3.400  0.6722  134.4   3.854   43.0  0.1011   35.4  0.4200  139.1
 3.500  0.6769  132.9   3.724   41.3  0.1034   34.4  0.4255  137.6
 3.600  0.6808  131.4   3.614   40.0  0.1053   33.3  0.4308  136.1
 3.700  0.6851  130.0   3.507   38.6  0.1073   32.2  0.4364  134.6
 3.800  0.6899  128.5   3.401   37.1  0.1093   31.2  0.4423  133.2
 3.900  0.6951  127.1   3.298   35.6  0.1113   30.2  0.4484  131.8
 4.000  0.7007  125.7   3.198   33.9  0.1134   29.3  0.4548  130.5
 4.100  0.7043  124.4   3.111   32.7  0.1152   28.3  0.4596  129.3
 4.200  0.7082  123.2   3.026   31.4  0.1171   27.3  0.4647  128.1
 4.300  0.7124  121.9   2.942   30.1  0.1189   26.4  0.4699  126.9
 4.400  0.7170  120.7   2.860   28.7  0.1209   25.5  0.4753  125.8
 4.500  0.7219  119.5   2.780   27.2  0.1228   24.6  0.4809  124.7
 4.600  0.7244  118.4   2.713   26.1  0.1244   23.7  0.4842  123.5
 4.700  0.7271  117.3   2.647   24.9  0.1261   22.7  0.4877  122.4
 4.800  0.7302  116.2   2.582   23.7  0.1277   21.8  0.4914  121.2
 4.900  0.7334  115.1   2.519   22.4  0.1295   21.0  0.4953  120.1
 5.000  0.7370  114.0   2.457   21.0  0.1312   20.1  0.4994  119.0
 5.100  0.7378  113.0   2.404   19.9  0.1330   19.2  0.5016  117.8
 5.200  0.7389  111.9   2.352   18.7  0.1347   18.2  0.5040  116.6
 5.300  0.7402  110.9   2.301   17.5  0.1366   17.3  0.5067  115.4
 5.400  0.7418  109.8   2.251   16.2  0.1384   16.5  0.5095  114.2
 5.500  0.7436  108.8   2.202   14.9  0.1403   15.6  0.5126  113.0
 5.600  0.7443  107.9   2.159   13.8  0.1419   14.6  0.5149  111.7
 5.700  0.7453  107.0   2.117   12.7  0.1435   13.6  0.5175  110.5
 5.800  0.7464  106.2   2.076   11.5  0.1452   12.6  0.5204  109.2
 5.900  0.7476  105.3   2.036   10.3  0.1469   11.6  0.5235  108.0
 6.000  0.7491  104.4   1.997    9.0  0.1487   10.7  0.5268  106.8
 6.100  0.7515  103.5   1.964    7.8  0.1504    9.7  0.5300  105.8
 6.200  0.7540  102.6   1.932    6.6  0.1522    8.6  0.5333  104.8
 6.300  0.7567  101.7   1.901    5.4  0.1541    7.6  0.5368  103.8
 6.400  0.7596  100.9   1.871    4.1  0.1560    6.7  0.5405  102.8
 6.500  0.7627  100.0   1.842    2.8  0.1579    5.7  0.5443  101.8
 6.600  0.7651   98.9   1.812    1.6  0.1593    4.6  0.5473  100.9
 6.800  0.7708   96.9   1.755   -1.0  0.1623    2.4  0.5538   99.1
 7.000  0.7775   94.8   1.701   -3.8  0.1656    0.3  0.5607   97.4
 7.200  0.7820   92.4   1.642   -6.4  0.1675   -2.1  0.5672   95.3
 7.400  0.7879   90.1   1.586   -9.2  0.1697   -4.5  0.5745   93.2
 7.600  0.7932   87.6   1.531  -11.9  0.1713   -6.7  0.5823   90.9
 7.800  0.7983   85.0   1.475  -14.6  0.1724   -8.9  0.5910   88.3
 8.000  0.8050   82.5   1.422  -17.4  0.1737  -11.1  0.6008   85.8
 8.200  0.8104   79.9   1.367  -19.7  0.1740  -13.1  0.6106   83.3
 8.400  0.8174   77.4   1.315  -22.2  0.1745  -15.2  0.6215   80.9
 8.600  0.8240   74.9   1.265  -24.5  0.1747  -17.2  0.6330   78.5
 8.800  0.8301   72.6   1.216  -26.7  0.1745  -19.2  0.6452   76.2
 9.000  0.8375   70.3   1.169  -29.0  0.1746  -21.2  0.6583   73.9
 9.200  0.8449   68.6   1.122  -30.8  0.1737  -22.8  0.6703   71.8
 9.400  0.8531   66.8   1.077  -32.8  0.1729  -24.4  0.6832   69.8
 9.600  0.8613   65.4   1.037  -34.4  0.1719  -25.7  0.6950   68.3
 9.800  0.8692   64.2   1.001  -35.8  0.1708  -26.7  0.7052   67.3
10.000  0.8775   63.0   0.966  -37.2  0.1697  -27.8  0.7156   66.3
!
!  f       NFmin   Gammaopt  rn/50
! GHz       dB    MAG  ANG    -
 0.450      0.97  0.20 -177   0.49
 0.900      0.99  0.42 -167   0.06
 1.900      1.12  0.45 -153   0.06
 2.400      1.20  0.43 -143   0.08
 3.500      1.43  0.46 -120   0.13
!
! (c) 2016  Infineon Technologies AG, Munich
