! Infineon Technologies  Discrete & RF Semiconductors
! BFP650
! VCE =  2.5 V,  IC = 0.10 A
! Common Emitter S-Parameters:                            Jan 2016
# GHz  S  MA  R  50
!  f         S11            S21            S12            S22
! GHz     MAG   ANG      MAG   ANG      MAG   ANG      MAG   ANG
 0.030  0.1976  -66.2 117.202  166.0  0.0044   76.5  0.9312  -16.2
 0.035  0.2126  -74.3 116.365  163.6  0.0041   70.8  0.9211  -19.7
 0.040  0.2312  -81.3 115.741  161.1  0.0039   64.3  0.9146  -23.3
 0.045  0.2477  -86.9 113.708  158.7  0.0050   55.3  0.9048  -26.8
 0.050  0.2663  -91.7 111.883  156.2  0.0062   49.6  0.8983  -30.3
 0.055  0.2781  -94.6 110.733  154.3  0.0054   68.2  0.8877  -32.5
 0.060  0.2905  -97.2 109.704  152.4  0.0053   90.2  0.8785  -34.8
 0.065  0.3065 -100.8 107.569  150.3  0.0061   83.5  0.8656  -38.0
 0.070  0.3236 -104.1 105.578  148.2  0.0070   78.5  0.8554  -41.3
 0.075  0.3389 -107.3 103.605  146.3  0.0077   74.0  0.8400  -43.9
 0.080  0.3551 -110.3 101.745  144.4  0.0084   70.2  0.8264  -46.6
 0.085  0.3651 -112.8  99.630  142.8  0.0086   69.1  0.8083  -49.1
 0.090  0.3757 -115.1  97.592  141.2  0.0088   68.0  0.7918  -51.7
 0.095  0.3848 -117.3  95.664  139.5  0.0083   68.2  0.7827  -53.7
 0.100  0.3944 -119.4  93.826  137.7  0.0078   68.5  0.7745  -55.7
 0.105  0.4044 -121.6  91.789  136.2  0.0081   68.3  0.7614  -58.2
 0.110  0.4150 -123.7  89.814  134.7  0.0085   68.1  0.7498  -60.7
 0.115  0.4187 -125.1  87.736  133.4  0.0083   61.8  0.7352  -62.4
 0.120  0.4227 -126.5  85.703  132.1  0.0083   55.3  0.7212  -64.2
 0.125  0.4321 -128.4  83.903  130.8  0.0089   59.6  0.7080  -66.4
 0.130  0.4419 -130.2  82.146  129.5  0.0096   63.3  0.6958  -68.7
 0.135  0.4467 -131.4  80.479  128.4  0.0098   59.7  0.6852  -70.1
 0.140  0.4517 -132.6  78.841  127.3  0.0100   56.3  0.6750  -71.6
 0.145  0.4589 -134.0  77.171  126.2  0.0101   59.2  0.6643  -73.5
 0.150  0.4664 -135.4  75.529  125.1  0.0102   62.1  0.6543  -75.4
 0.155  0.4697 -136.5  74.093  124.4  0.0104   61.9  0.6441  -76.7
 0.160  0.4732 -137.6  72.670  123.6  0.0105   61.8  0.6343  -78.1
 0.165  0.4769 -138.7  71.260  122.8  0.0107   61.6  0.6248  -79.5
 0.170  0.4808 -139.8  69.864  122.0  0.0108   61.4  0.6158  -80.9
 0.175  0.4848 -140.8  68.483  121.1  0.0110   61.3  0.6071  -82.4
 0.180  0.4890 -141.9  67.117  120.2  0.0112   61.1  0.5988  -83.9
 0.185  0.4933 -142.9  65.769  119.3  0.0113   61.0  0.5910  -85.5
 0.190  0.4978 -143.9  64.439  118.4  0.0115   60.9  0.5836  -87.1
 0.195  0.5024 -144.8  63.128  117.3  0.0116   60.7  0.5767  -88.7
 0.200  0.5072 -145.8  61.837  116.3  0.0118   60.6  0.5703  -90.4
 0.220  0.5163 -148.7  57.694  114.0  0.0121   60.8  0.5444  -94.8
 0.240  0.5267 -151.5  53.658  111.4  0.0124   61.0  0.5219  -99.6
 0.260  0.5348 -153.9  50.141  109.1  0.0131   60.3  0.5025 -103.9
 0.280  0.5401 -156.1  47.080  107.4  0.0140   58.8  0.4850 -107.7
 0.300  0.5462 -158.2  44.069  105.4  0.0150   57.5  0.4697 -111.7
 0.320  0.5510 -159.9  41.698  104.0  0.0153   59.3  0.4579 -114.9
 0.340  0.5563 -161.5  39.354  102.5  0.0156   61.1  0.4476 -118.3
 0.360  0.5606 -163.0  37.285  101.2  0.0161   61.9  0.4384 -121.3
 0.380  0.5638 -164.3  35.480  100.0  0.0170   61.6  0.4298 -123.9
 0.400  0.5673 -165.6  33.692   98.7  0.0179   61.4  0.4221 -126.7
 0.420  0.5697 -166.8  32.244   97.7  0.0185   61.6  0.4153 -129.0
 0.440  0.5724 -167.9  30.806   96.7  0.0192   61.7  0.4092 -131.4
 0.450  0.5738 -168.5  30.091   96.1  0.0195   61.8  0.4064 -132.6
 0.460  0.5745 -169.0  29.498   95.7  0.0198   61.9  0.4040 -133.6
 0.480  0.5761 -169.9  28.315   94.8  0.0205   62.2  0.3996 -135.7
 0.500  0.5778 -170.9  27.140   93.9  0.0211   62.5  0.3957 -137.9
 0.520  0.5791 -171.7  26.229   93.3  0.0216   62.5  0.3923 -139.6
 0.540  0.5806 -172.6  25.322   92.6  0.0221   62.5  0.3892 -141.3
 0.560  0.5821 -173.4  24.418   92.0  0.0225   62.6  0.3865 -143.0
 0.580  0.5838 -174.2  23.518   91.2  0.0230   62.6  0.3841 -144.8
 0.600  0.5856 -175.0  22.622   90.4  0.0235   62.6  0.3821 -146.6
 0.620  0.5865 -175.7  21.965   89.9  0.0241   62.5  0.3800 -148.0
 0.640  0.5874 -176.4  21.310   89.3  0.0247   62.5  0.3781 -149.4
 0.660  0.5885 -177.0  20.658   88.8  0.0254   62.4  0.3765 -150.8
 0.680  0.5896 -177.7  20.007   88.2  0.0260   62.4  0.3751 -152.3
 0.700  0.5908 -178.4  19.359   87.5  0.0266   62.3  0.3739 -153.7
 0.720  0.5917 -179.0  18.872   87.1  0.0273   62.5  0.3728 -154.9
 0.740  0.5928 -179.6  18.386   86.6  0.0279   62.7  0.3719 -156.1
 0.760  0.5938  179.8  17.901   86.1  0.0286   62.9  0.3711 -157.3
 0.780  0.5950  179.2  17.417   85.6  0.0292   63.1  0.3705 -158.6
 0.800  0.5962  178.6  16.935   85.1  0.0299   63.3  0.3701 -159.8
 0.820  0.5967  178.1  16.550   84.7  0.0306   63.3  0.3691 -160.8
 0.840  0.5972  177.6  16.165   84.3  0.0313   63.3  0.3683 -161.8
 0.860  0.5977  177.1  15.782   83.9  0.0321   63.4  0.3676 -162.8
 0.880  0.5983  176.6  15.399   83.5  0.0328   63.4  0.3670 -163.9
 0.900  0.5990  176.1  15.017   83.0  0.0335   63.4  0.3665 -164.9
 0.920  0.5998  175.6  14.715   82.6  0.0341   63.3  0.3663 -165.7
 0.940  0.6006  175.1  14.414   82.2  0.0347   63.1  0.3662 -166.6
 0.960  0.6015  174.6  14.113   81.8  0.0352   63.0  0.3662 -167.4
 0.980  0.6024  174.1  13.813   81.4  0.0358   62.9  0.3663 -168.3
 1.000  0.6034  173.6  13.514   80.9  0.0364   62.8  0.3664 -169.1
 1.020  0.6039  173.2  13.265   80.5  0.0369   62.5  0.3663 -169.9
 1.040  0.6045  172.7  13.016   80.2  0.0374   62.3  0.3664 -170.8
 1.060  0.6051  172.3  12.767   79.8  0.0379   62.1  0.3665 -171.6
 1.080  0.6057  171.8  12.519   79.4  0.0384   61.8  0.3666 -172.5
 1.100  0.6064  171.4  12.272   79.0  0.0389   61.6  0.3669 -173.3
 1.120  0.6072  171.0  12.067   78.6  0.0396   61.6  0.3669 -174.0
 1.140  0.6079  170.6  11.862   78.3  0.0402   61.5  0.3669 -174.7
 1.160  0.6088  170.1  11.657   77.9  0.0409   61.5  0.3670 -175.3
 1.180  0.6096  169.7  11.453   77.5  0.0415   61.4  0.3671 -176.0
 1.200  0.6105  169.3  11.250   77.1  0.0422   61.4  0.3673 -176.7
 1.220  0.6109  168.9  11.073   76.8  0.0428   61.2  0.3674 -177.3
 1.240  0.6113  168.5  10.896   76.4  0.0435   61.0  0.3676 -178.0
 1.260  0.6117  168.1  10.720   76.1  0.0441   60.8  0.3678 -178.6
 1.280  0.6121  167.7  10.544   75.7  0.0448   60.6  0.3681 -179.3
 1.300  0.6126  167.3  10.369   75.3  0.0454   60.4  0.3684 -179.9
 1.320  0.6132  166.9  10.222   75.0  0.0460   60.2  0.3686  179.5
 1.340  0.6138  166.5  10.075   74.6  0.0466   60.0  0.3689  178.9
 1.360  0.6145  166.0   9.928   74.3  0.0472   59.8  0.3692  178.3
 1.380  0.6152  165.6   9.782   74.0  0.0478   59.7  0.3695  177.7
 1.400  0.6159  165.2   9.636   73.6  0.0484   59.5  0.3699  177.1
 1.420  0.6166  164.8   9.506   73.3  0.0490   59.3  0.3703  176.6
 1.440  0.6174  164.5   9.377   72.9  0.0496   59.1  0.3707  176.0
 1.460  0.6182  164.1   9.248   72.6  0.0501   58.9  0.3711  175.5
 1.480  0.6190  163.8   9.119   72.2  0.0507   58.7  0.3716  174.9
 1.500  0.6198  163.4   8.991   71.8  0.0513   58.5  0.3721  174.4
 1.520  0.6202  163.0   8.877   71.5  0.0519   58.4  0.3722  173.9
 1.540  0.6207  162.7   8.762   71.1  0.0524   58.3  0.3724  173.4
 1.560  0.6212  162.3   8.649   70.8  0.0530   58.2  0.3725  172.8
 1.580  0.6217  162.0   8.535   70.5  0.0535   58.1  0.3728  172.3
 1.600  0.6222  161.6   8.422   70.1  0.0541   58.0  0.3730  171.8
 1.620  0.6228  161.2   8.321   69.8  0.0547   57.8  0.3735  171.3
 1.640  0.6234  160.8   8.220   69.5  0.0554   57.5  0.3740  170.8
 1.660  0.6241  160.5   8.119   69.2  0.0560   57.3  0.3745  170.3
 1.680  0.6248  160.1   8.018   68.9  0.0567   57.1  0.3750  169.8
 1.700  0.6255  159.7   7.918   68.6  0.0573   56.9  0.3756  169.3
 1.720  0.6260  159.3   7.828   68.3  0.0580   56.8  0.3762  168.8
 1.740  0.6265  159.0   7.738   67.9  0.0586   56.7  0.3768  168.3
 1.760  0.6270  158.6   7.649   67.6  0.0593   56.6  0.3775  167.8
 1.780  0.6275  158.3   7.560   67.3  0.0599   56.5  0.3782  167.3
 1.800  0.6281  157.9   7.471   66.9  0.0606   56.4  0.3789  166.8
 1.820  0.6283  157.5   7.387   66.6  0.0612   56.3  0.3791  166.4
 1.840  0.6285  157.1   7.304   66.2  0.0618   56.2  0.3793  166.0
 1.860  0.6288  156.8   7.221   65.9  0.0625   56.1  0.3796  165.5
 1.880  0.6291  156.4   7.138   65.6  0.0631   56.0  0.3798  165.1
 1.900  0.6294  156.0   7.056   65.2  0.0637   55.9  0.3801  164.7
 1.920  0.6300  155.7   6.984   64.9  0.0641   55.6  0.3805  164.2
 1.940  0.6306  155.3   6.912   64.6  0.0645   55.2  0.3809  163.8
 1.960  0.6312  155.0   6.841   64.3  0.0648   54.9  0.3813  163.3
 1.980  0.6318  154.6   6.769   63.9  0.0652   54.6  0.3818  162.9
 2.000  0.6325  154.3   6.698   63.6  0.0656   54.3  0.3823  162.4
 2.020  0.6332  154.0   6.635   63.3  0.0662   54.0  0.3828  162.0
 2.040  0.6339  153.7   6.572   63.1  0.0668   53.8  0.3833  161.6
 2.060  0.6346  153.4   6.510   62.8  0.0673   53.5  0.3839  161.2
 2.080  0.6353  153.1   6.447   62.5  0.0679   53.3  0.3844  160.8
 2.100  0.6361  152.7   6.385   62.2  0.0685   53.0  0.3850  160.4
 2.120  0.6368  152.4   6.323   61.9  0.0691   52.8  0.3856  160.0
 2.140  0.6376  152.1   6.261   61.6  0.0696   52.6  0.3862  159.6
 2.160  0.6384  151.8   6.199   61.3  0.0702   52.3  0.3869  159.2
 2.180  0.6393  151.5   6.137   61.0  0.0708   52.1  0.3875  158.8
 2.200  0.6401  151.2   6.076   60.7  0.0714   51.9  0.3882  158.4
 2.220  0.6405  150.9   6.023   60.4  0.0720   51.7  0.3886  158.0
 2.240  0.6409  150.5   5.970   60.1  0.0726   51.5  0.3891  157.5
 2.260  0.6414  150.2   5.917   59.8  0.0732   51.3  0.3896  157.1
 2.280  0.6418  149.9   5.864   59.5  0.0738   51.1  0.3901  156.7
 2.300  0.6423  149.5   5.811   59.2  0.0744   51.0  0.3906  156.2
 2.320  0.6428  149.2   5.759   58.8  0.0751   50.8  0.3912  155.8
 2.340  0.6434  148.9   5.707   58.5  0.0757   50.6  0.3917  155.4
 2.360  0.6439  148.6   5.655   58.2  0.0763   50.4  0.3923  155.0
 2.380  0.6445  148.2   5.603   57.8  0.0769   50.3  0.3930  154.5
 2.400  0.6451  147.9   5.551   57.5  0.0775   50.1  0.3936  154.1
 2.420  0.6457  147.6   5.506   57.2  0.0780   49.8  0.3943  153.7
 2.440  0.6463  147.3   5.461   56.9  0.0784   49.5  0.3949  153.3
 2.460  0.6469  147.0   5.416   56.6  0.0789   49.3  0.3956  153.0
 2.480  0.6476  146.7   5.371   56.3  0.0794   49.0  0.3964  152.6
 2.500  0.6482  146.3   5.326   56.0  0.0799   48.7  0.3971  152.2
 2.520  0.6489  146.0   5.282   55.7  0.0804   48.4  0.3978  151.9
 2.540  0.6496  145.7   5.237   55.4  0.0808   48.2  0.3986  151.5
 2.560  0.6503  145.4   5.193   55.1  0.0813   47.9  0.3994  151.1
 2.580  0.6510  145.1   5.149   54.7  0.0818   47.7  0.4002  150.8
 2.600  0.6518  144.8   5.105   54.4  0.0823   47.4  0.4010  150.4
 2.620  0.6522  144.5   5.066   54.1  0.0829   47.2  0.4017  150.0
 2.640  0.6526  144.2   5.027   53.8  0.0835   47.0  0.4023  149.7
 2.660  0.6531  143.9   4.988   53.5  0.0841   46.8  0.4030  149.3
 2.680  0.6535  143.6   4.950   53.3  0.0846   46.6  0.4037  148.9
 2.700  0.6540  143.3   4.911   53.0  0.0852   46.5  0.4045  148.6
 2.720  0.6545  143.0   4.873   52.7  0.0858   46.3  0.4052  148.2
 2.740  0.6550  142.7   4.835   52.3  0.0864   46.1  0.4059  147.9
 2.760  0.6555  142.4   4.797   52.0  0.0870   45.9  0.4067  147.5
 2.780  0.6560  142.1   4.759   51.7  0.0876   45.8  0.4075  147.2
 2.800  0.6566  141.8   4.721   51.4  0.0882   45.6  0.4083  146.8
 2.820  0.6572  141.5   4.687   51.1  0.0887   45.3  0.4090  146.5
 2.840  0.6578  141.2   4.654   50.8  0.0892   45.1  0.4098  146.1
 2.860  0.6584  140.9   4.621   50.5  0.0897   44.9  0.4106  145.8
 2.880  0.6590  140.6   4.588   50.3  0.0902   44.6  0.4113  145.5
 2.900  0.6597  140.3   4.554   50.0  0.0907   44.4  0.4121  145.1
 2.920  0.6603  140.0   4.521   49.7  0.0912   44.1  0.4129  144.8
 2.940  0.6610  139.7   4.489   49.3  0.0917   43.9  0.4138  144.5
 2.960  0.6617  139.4   4.456   49.0  0.0922   43.7  0.4146  144.1
 2.980  0.6625  139.1   4.423   48.7  0.0927   43.4  0.4154  143.8
 3.000  0.6632  138.8   4.391   48.4  0.0932   43.2  0.4163  143.5
 3.100  0.6660  137.3   4.250   47.1  0.0955   42.0  0.4206  141.9
 3.200  0.6693  135.8   4.112   45.7  0.0978   40.8  0.4251  140.4
 3.300  0.6731  134.4   3.976   44.3  0.1002   39.7  0.4300  138.9
 3.400  0.6772  132.9   3.843   42.7  0.1026   38.6  0.4352  137.4
 3.500  0.6818  131.5   3.713   41.0  0.1051   37.6  0.4406  136.0
 3.600  0.6857  130.1   3.604   39.7  0.1070   36.4  0.4458  134.6
 3.700  0.6900  128.6   3.497   38.3  0.1089   35.2  0.4514  133.3
 3.800  0.6948  127.2   3.392   36.9  0.1109   34.0  0.4571  131.9
 3.900  0.6999  125.9   3.289   35.3  0.1129   32.9  0.4631  130.7
 4.000  0.7055  124.5   3.189   33.7  0.1150   31.8  0.4693  129.4
 4.100  0.7092  123.3   3.102   32.5  0.1168   30.7  0.4742  128.2
 4.200  0.7132  122.1   3.017   31.2  0.1186   29.6  0.4793  127.0
 4.300  0.7175  120.9   2.933   29.9  0.1204   28.6  0.4846  125.9
 4.400  0.7222  119.7   2.850   28.5  0.1223   27.6  0.4901  124.8
 4.500  0.7271  118.5   2.770   27.0  0.1242   26.6  0.4958  123.7
 4.600  0.7296  117.4   2.703   25.9  0.1259   25.6  0.4991  122.5
 4.700  0.7323  116.4   2.638   24.7  0.1276   24.6  0.5026  121.4
 4.800  0.7352  115.3   2.573   23.5  0.1293   23.6  0.5063  120.3
 4.900  0.7384  114.2   2.510   22.2  0.1311   22.7  0.5101  119.2
 5.000  0.7419  113.2   2.448   20.9  0.1329   21.8  0.5142  118.1
 5.100  0.7427  112.2   2.395   19.8  0.1347   20.9  0.5165  116.9
 5.200  0.7438  111.1   2.343   18.7  0.1365   19.9  0.5190  115.7
 5.300  0.7452  110.1   2.292   17.5  0.1383   19.0  0.5217  114.6
 5.400  0.7468  109.0   2.242   16.2  0.1402   18.2  0.5246  113.4
 5.500  0.7486  108.0   2.193   14.9  0.1421   17.3  0.5277  112.3
 5.600  0.7493  107.1   2.150   13.8  0.1438   16.3  0.5301  111.1
 5.700  0.7502  106.3   2.108   12.7  0.1455   15.2  0.5327  109.8
 5.800  0.7513  105.4   2.067   11.5  0.1473   14.2  0.5356  108.6
 5.900  0.7525  104.6   2.027   10.3  0.1491   13.3  0.5387  107.4
 6.000  0.7539  103.7   1.988    9.0  0.1510   12.3  0.5421  106.2
 6.100  0.7563  102.8   1.956    7.9  0.1527   11.2  0.5451  105.2
 6.200  0.7589  102.0   1.924    6.7  0.1544   10.1  0.5484  104.2
 6.300  0.7617  101.1   1.894    5.5  0.1562    9.1  0.5517  103.2
 6.400  0.7646  100.2   1.864    4.2  0.1580    8.1  0.5553  102.2
 6.500  0.7677   99.4   1.835    2.9  0.1599    7.1  0.5590  101.2
 6.600  0.7699   98.4   1.805    1.7  0.1613    5.9  0.5620  100.3
 6.800  0.7752   96.3   1.746   -0.9  0.1644    3.6  0.5683   98.5
 7.000  0.7814   94.3   1.692   -3.6  0.1678    1.3  0.5751   96.8
 7.200  0.7862   91.9   1.634   -6.3  0.1696   -1.1  0.5814   94.7
 7.400  0.7924   89.6   1.579   -9.1  0.1717   -3.4  0.5885   92.6
 7.600  0.7979   87.1   1.524  -11.8  0.1734   -5.7  0.5963   90.3
 7.800  0.8030   84.6   1.467  -14.4  0.1745   -8.0  0.6051   87.8
 8.000  0.8096   82.1   1.414  -17.2  0.1759  -10.2  0.6151   85.3
 8.200  0.8148   79.5   1.360  -19.5  0.1761  -12.3  0.6244   82.8
 8.400  0.8216   77.0   1.308  -22.0  0.1765  -14.4  0.6349   80.4
 8.600  0.8282   74.5   1.258  -24.3  0.1767  -16.4  0.6459   78.0
 8.800  0.8343   72.3   1.209  -26.4  0.1767  -18.4  0.6576   75.7
 9.000  0.8417   70.0   1.162  -28.6  0.1769  -20.4  0.6703   73.4
 9.200  0.8485   68.2   1.115  -30.4  0.1756  -22.0  0.6823   71.3
 9.400  0.8562   66.5   1.070  -32.4  0.1744  -23.6  0.6951   69.4
 9.600  0.8643   65.0   1.030  -34.0  0.1735  -24.9  0.7066   67.9
 9.800  0.8725   63.8   0.994  -35.3  0.1727  -26.0  0.7164   66.8
10.000  0.8810   62.7   0.959  -36.7  0.1720  -27.1  0.7264   65.8
!
!  f       NFmin   Gammaopt  rn/50
! GHz       dB    MAG  ANG    -
 0.450      1.42  0.56 -171   0.06
 0.900      1.44  0.58 -164   0.06
 1.900      1.59  0.59 -150   0.09
 2.400      1.69  0.57 -141   0.13
 3.500      1.87  0.58 -118   0.25
!
! (c) 2016  Infineon Technologies AG, Munich
