! Infineon Technologies  Discrete & RF Semiconductors
! BFP620F
! VCE =  0.8 V,  IC =  33 mA
! Common Emitter S-Parameters:                            Dec 2014
# GHz  S  MA  R  50
!  f         S11            S21            S12            S22
! GHz     MAG   ANG      MAG   ANG      MAG   ANG      MAG   ANG
 0.030  0.6104  -10.7  50.041  174.4  0.0039   89.2  0.9517   -5.6
 0.040  0.6085  -14.3  51.233  172.2  0.0041   87.7  0.9523   -8.3
 0.050  0.6164  -17.3  52.792  169.9  0.0055   90.1  0.9531  -10.5
 0.060  0.6184  -20.8  53.662  167.6  0.0071   85.3  0.9515  -13.0
 0.070  0.6157  -23.6  54.024  165.1  0.0065   83.9  0.9438  -15.4
 0.080  0.6165  -27.3  53.782  162.7  0.0090   78.5  0.9386  -18.1
 0.090  0.6108  -30.4  52.944  160.5  0.0094   82.9  0.9343  -20.4
 0.100  0.6060  -33.6  51.887  158.5  0.0101   78.8  0.9256  -22.6
 0.110  0.5988  -36.8  50.844  156.4  0.0112   80.6  0.9164  -25.2
 0.120  0.5924  -40.0  50.037  154.5  0.0124   77.0  0.9040  -27.3
 0.130  0.5866  -42.9  49.603  152.6  0.0132   75.5  0.8913  -29.5
 0.140  0.5818  -45.7  49.309  150.8  0.0136   76.6  0.8779  -31.8
 0.150  0.5773  -48.2  49.224  149.0  0.0145   72.2  0.8670  -33.8
 0.200  0.5546  -60.2  46.089  140.8  0.0185   68.5  0.8018  -43.3
 0.250  0.5230  -70.4  42.885  134.0  0.0214   66.0  0.7362  -51.6
 0.300  0.4974  -79.3  39.469  128.3  0.0241   63.6  0.6753  -59.0
 0.350  0.4741  -88.0  36.013  123.5  0.0265   61.9  0.6196  -65.3
 0.400  0.4521  -95.2  33.208  119.5  0.0286   60.6  0.5686  -71.1
 0.450  0.4362 -101.3  30.634  115.9  0.0307   60.5  0.5281  -76.3
 0.500  0.4197 -107.4  28.282  112.8  0.0328   59.6  0.4900  -81.1
 0.600  0.3971 -117.9  24.455  107.7  0.0363   60.1  0.4268  -89.6
 0.700  0.3814 -126.5  21.430  103.5  0.0397   59.7  0.3804  -97.4
 0.800  0.3716 -133.8  19.023  100.1  0.0433   60.1  0.3427 -104.2
 0.900  0.3626 -140.1  17.063   97.2  0.0466   60.0  0.3134 -110.8
 1.000  0.3592 -145.6  15.461   94.7  0.0505   60.2  0.2902 -116.8
 1.100  0.3547 -150.6  14.106   92.4  0.0539   60.3  0.2716 -123.0
 1.200  0.3542 -154.9  12.975   90.4  0.0575   60.6  0.2577 -128.5
 1.300  0.3522 -158.9  11.997   88.6  0.0611   60.6  0.2460 -134.1
 1.400  0.3537 -162.3  11.161   86.9  0.0648   60.7  0.2378 -139.2
 1.500  0.3529 -165.6  10.421   85.4  0.0683   60.7  0.2318 -144.2
 1.600  0.3552 -168.6   9.775   83.8  0.0722   60.5  0.2287 -148.7
 1.700  0.3555 -171.5   9.199   82.4  0.0757   60.4  0.2259 -153.1
 1.800  0.3579 -173.9   8.698   81.1  0.0793   60.1  0.2260 -156.8
 1.900  0.3587 -176.2   8.239   79.8  0.0833   60.0  0.2263 -160.3
 2.000  0.3609 -178.6   7.830   78.6  0.0868   59.6  0.2277 -163.1
 2.100  0.3635  179.3   7.453   77.3  0.0905   59.2  0.2332 -164.7
 2.200  0.3648  177.3   7.116   76.1  0.0940   58.7  0.2340 -167.1
 2.300  0.3663  175.4   6.805   75.0  0.0976   58.3  0.2349 -169.4
 2.400  0.3676  173.6   6.528   73.8  0.1014   57.8  0.2356 -171.5
 2.500  0.3690  171.8   6.270   72.8  0.1050   57.5  0.2371 -173.4
 2.600  0.3697  170.1   6.029   71.7  0.1088   56.9  0.2377 -175.2
 2.700  0.3710  168.6   5.809   70.7  0.1123   56.6  0.2385 -176.6
 2.800  0.3716  166.9   5.603   69.7  0.1157   56.1  0.2394 -178.2
 2.900  0.3728  165.5   5.412   68.6  0.1194   55.5  0.2404 -179.6
 3.000  0.3734  163.9   5.238   67.5  0.1231   55.0  0.2417  179.2
 3.100  0.3741  162.6   5.067   66.6  0.1268   54.5  0.2418  177.9
 3.200  0.3743  161.1   4.913   65.6  0.1306   53.9  0.2422  176.6
 3.300  0.3752  159.8   4.766   64.6  0.1340   53.3  0.2424  175.5
 3.400  0.3751  158.3   4.632   63.5  0.1377   52.8  0.2431  174.3
 3.500  0.3757  157.1   4.502   62.6  0.1414   52.1  0.2427  173.2
 3.600  0.3760  155.7   4.381   61.6  0.1449   51.6  0.2429  172.0
 3.700  0.3767  154.4   4.267   60.6  0.1484   51.0  0.2427  170.8
 3.800  0.3768  153.1   4.156   59.7  0.1520   50.3  0.2424  169.7
 3.900  0.3778  151.9   4.055   58.7  0.1559   49.7  0.2422  168.4
 4.000  0.3782  150.6   3.955   57.8  0.1593   49.0  0.2418  167.0
 4.100  0.3794  149.5   3.864   56.7  0.1629   48.4  0.2413  165.6
 4.200  0.3806  148.3   3.776   55.8  0.1664   47.7  0.2413  164.1
 4.300  0.3815  147.2   3.694   54.8  0.1699   47.0  0.2413  162.7
 4.400  0.3832  146.1   3.613   53.9  0.1735   46.3  0.2412  161.2
 4.500  0.3842  145.1   3.536   52.9  0.1770   45.6  0.2409  159.7
 4.600  0.3863  144.0   3.462   52.0  0.1804   44.9  0.2413  158.1
 4.700  0.3875  143.0   3.396   50.9  0.1839   44.1  0.2418  156.5
 4.800  0.3901  142.0   3.327   50.0  0.1873   43.5  0.2426  154.9
 4.900  0.3919  141.2   3.262   49.1  0.1907   42.7  0.2430  153.2
 5.000  0.3943  140.1   3.201   48.0  0.1942   42.0  0.2441  151.7
 5.100  0.3961  139.2   3.143   47.0  0.1977   41.2  0.2440  150.1
 5.200  0.3987  138.4   3.085   46.1  0.2010   40.4  0.2451  148.5
 5.300  0.4005  137.5   3.029   45.0  0.2042   39.7  0.2462  147.0
 5.400  0.4036  136.6   2.975   44.0  0.2076   38.9  0.2474  145.5
 5.500  0.4057  135.8   2.922   43.1  0.2106   38.1  0.2483  143.9
 5.600  0.4089  135.0   2.870   42.1  0.2139   37.4  0.2499  142.4
 5.700  0.4109  134.2   2.821   41.1  0.2169   36.6  0.2511  140.9
 5.800  0.4135  133.2   2.774   40.0  0.2200   35.8  0.2522  139.4
 5.900  0.4162  132.3   2.727   39.1  0.2230   35.0  0.2542  137.8
 6.000  0.4184  131.4   2.680   38.1  0.2260   34.2  0.2554  136.4
 6.100  0.4212  130.4   2.636   37.1  0.2288   33.3  0.2567  134.8
 6.200  0.4235  129.5   2.591   36.1  0.2316   32.5  0.2586  133.1
 6.300  0.4264  128.4   2.548   35.0  0.2342   31.7  0.2608  131.4
 6.400  0.4289  127.4   2.506   34.0  0.2367   30.9  0.2628  129.8
 6.500  0.4315  126.2   2.465   33.0  0.2395   30.1  0.2645  127.9
 6.600  0.4338  125.1   2.422   32.1  0.2418   29.3  0.2671  126.2
 6.700  0.4361  123.9   2.383   31.1  0.2442   28.6  0.2691  124.3
 6.800  0.4386  122.7   2.344   30.2  0.2466   27.8  0.2714  122.5
 6.900  0.4415  121.6   2.306   29.2  0.2491   27.0  0.2738  120.5
 7.000  0.4446  120.4   2.268   28.3  0.2516   26.3  0.2765  118.5
 7.100  0.4478  119.2   2.233   27.4  0.2539   25.5  0.2796  116.5
 7.200  0.4512  118.1   2.198   26.5  0.2562   24.8  0.2831  114.5
 7.300  0.4553  117.1   2.165   25.6  0.2586   24.1  0.2874  112.5
 7.400  0.4596  116.0   2.131   24.7  0.2609   23.4  0.2921  110.6
 7.500  0.4647  115.1   2.100   23.8  0.2634   22.6  0.2976  108.7
 7.600  0.4699  114.2   2.070   23.0  0.2659   21.9  0.3034  106.8
 7.700  0.4756  113.3   2.039   22.1  0.2680   21.1  0.3106  105.1
 7.800  0.4815  112.4   2.009   21.2  0.2702   20.3  0.3180  103.4
 7.900  0.4886  111.6   1.980   20.3  0.2722   19.5  0.3263  101.6
 8.000  0.4958  110.9   1.951   19.4  0.2743   18.6  0.3348   99.9
!
!  f       NFmin   Gammaopt  rn/50
! GHz       dB    MAG  ANG    -
 0.450      1.20  0.08 -172   0.17
 0.900      1.23  0.09 -171   0.13
 1.500      1.24  0.14 -149   0.13
 1.800      1.25  0.14 -148   0.14
 1.900      1.26  0.15 -148   0.14
 2.400      1.28  0.15  215   0.16
 3.500      1.34  0.16 -140   0.18
 5.500      1.49  0.23  243   0.14
 6.000      1.53  0.24  260   0.17
!
! (c) 2014  Infineon Technologies AG, Munich
