! Infineon Technologies  Discrete & RF Semiconductors
! BFP640
! VCE =  1.5 V,  IC =  35 mA
! Common Emitter S-Parameters:                            Apr 2013
# GHz  S  MA  R  50
!  f         S11            S21            S12            S22
! GHz     MAG   ANG      MAG   ANG      MAG   ANG      MAG   ANG
 0.030  0.4249   -9.5  47.347  175.5  0.0017   91.3  0.9473   -2.7
 0.040  0.4281  -12.8  47.715  174.0  0.0027   69.0  0.9522   -4.3
 0.050  0.4305  -15.8  48.715  172.4  0.0014   68.5  0.9466   -5.8
 0.060  0.4347  -18.7  48.971  170.3  0.0025   85.1  0.9476   -7.1
 0.070  0.4389  -22.3  49.143  168.5  0.0050   76.1  0.9484   -8.8
 0.080  0.4364  -25.1  48.869  166.6  0.0042   76.2  0.9447  -10.0
 0.090  0.4387  -28.4  48.493  164.8  0.0051   85.3  0.9437  -11.5
 0.100  0.4355  -31.3  47.902  163.1  0.0046   79.8  0.9381  -12.9
 0.110  0.4326  -34.6  47.454  161.4  0.0057   81.6  0.9312  -14.4
 0.120  0.4286  -37.9  46.820  159.7  0.0066   79.3  0.9225  -15.8
 0.130  0.4297  -40.7  46.523  158.2  0.0069   76.7  0.9150  -17.1
 0.140  0.4297  -43.5  46.273  156.7  0.0074   77.1  0.9062  -18.4
 0.150  0.4313  -46.0  46.327  155.2  0.0074   78.4  0.8973  -19.6
 0.200  0.4299  -59.3  44.315  147.4  0.0098   75.1  0.8516  -25.4
 0.250  0.4260  -70.2  42.583  140.8  0.0113   68.8  0.7989  -30.2
 0.300  0.4204  -80.5  40.200  134.7  0.0131   68.2  0.7491  -34.4
 0.350  0.4156  -89.4  37.645  129.4  0.0147   67.8  0.7028  -38.4
 0.400  0.4058  -96.7  35.951  124.9  0.0163   65.3  0.6520  -41.1
 0.450  0.4014 -103.2  33.827  120.6  0.0176   63.7  0.6172  -43.7
 0.500  0.3907 -109.4  31.935  117.2  0.0189   63.5  0.5737  -46.1
 0.600  0.3773 -120.3  28.494  111.0  0.0211   61.1  0.5062  -49.4
 0.700  0.3659 -129.3  25.482  106.1  0.0234   61.1  0.4537  -51.9
 0.800  0.3576 -136.8  23.072  101.9  0.0252   61.3  0.4088  -53.7
 0.900  0.3501 -143.6  21.031   98.3  0.0276   60.4  0.3691  -55.1
 1.000  0.3467 -150.1  19.169   95.2  0.0296   60.5  0.3380  -56.2
 1.100  0.3425 -155.7  17.659   92.4  0.0319   60.1  0.3097  -56.8
 1.200  0.3392 -160.6  16.379   90.0  0.0340   60.0  0.2884  -57.4
 1.300  0.3388 -165.5  15.188   87.6  0.0362   59.5  0.2682  -57.6
 1.400  0.3383 -169.6  14.215   85.4  0.0384   59.0  0.2516  -57.7
 1.500  0.3389 -173.9  13.306   83.4  0.0405   58.8  0.2361  -57.6
 1.600  0.3390 -177.4  12.569   81.4  0.0427   58.2  0.2232  -57.8
 1.700  0.3403  179.1  11.877   79.6  0.0448   57.7  0.2100  -57.6
 1.800  0.3437  175.6  11.212   77.7  0.0471   56.9  0.1995  -57.9
 1.900  0.3452  172.8  10.690   76.0  0.0493   56.6  0.1883  -57.7
 2.000  0.3482  169.8  10.164   74.3  0.0515   55.9  0.1795  -58.1
 2.100  0.3510  167.5   9.710   72.7  0.0535   55.3  0.1701  -58.6
 2.200  0.3543  164.7   9.266   71.0  0.0555   54.5  0.1621  -58.7
 2.300  0.3577  162.1   8.873   69.4  0.0579   54.0  0.1535  -58.2
 2.400  0.3611  159.6   8.501   67.9  0.0600   53.4  0.1465  -58.5
 2.500  0.3645  157.2   8.171   66.3  0.0620   52.5  0.1392  -57.9
 2.600  0.3672  154.9   7.872   64.8  0.0641   51.7  0.1315  -58.0
 2.700  0.3719  152.6   7.578   63.3  0.0662   51.0  0.1237  -57.3
 2.800  0.3755  150.4   7.317   61.7  0.0686   50.1  0.1160  -57.4
 2.900  0.3820  148.3   7.046   60.2  0.0706   49.3  0.1086  -57.4
 3.000  0.3854  146.3   6.823   58.9  0.0728   48.5  0.1005  -57.9
 3.100  0.3908  144.2   6.601   57.4  0.0750   47.8  0.0935  -58.1
 3.200  0.3958  142.2   6.402   56.0  0.0767   46.8  0.0856  -58.9
 3.300  0.4026  140.3   6.190   54.5  0.0790   45.9  0.0788  -59.6
 3.400  0.4081  138.4   6.018   53.1  0.0810   45.0  0.0710  -60.8
 3.500  0.4138  136.5   5.835   51.7  0.0827   44.1  0.0640  -61.5
 3.600  0.4192  134.8   5.683   50.4  0.0847   43.3  0.0559  -62.5
 3.700  0.4263  133.0   5.515   49.0  0.0867   42.4  0.0483  -63.7
 3.800  0.4323  131.3   5.365   47.6  0.0886   41.5  0.0402  -65.7
 3.900  0.4392  129.6   5.218   46.2  0.0907   40.6  0.0324  -68.6
 4.000  0.4454  128.0   5.086   44.9  0.0925   39.7  0.0255  -75.7
 4.100  0.4513  126.5   4.951   43.5  0.0944   38.9  0.0183  -84.2
 4.200  0.4588  125.0   4.825   42.2  0.0961   38.0  0.0130 -102.7
 4.300  0.4651  123.4   4.698   40.8  0.0979   37.1  0.0093 -134.8
 4.400  0.4721  122.2   4.586   39.6  0.0998   36.1  0.0102 -173.5
 4.500  0.4770  120.8   4.476   38.3  0.1014   35.3  0.0142  161.2
 4.600  0.4837  119.6   4.374   37.0  0.1033   34.4  0.0192  148.8
 4.700  0.4880  118.4   4.275   35.8  0.1050   33.6  0.0245  139.8
 4.800  0.4955  117.2   4.169   34.4  0.1066   32.6  0.0299  134.0
 4.900  0.4991  116.0   4.082   33.2  0.1084   31.7  0.0350  130.1
 5.000  0.5040  115.1   4.003   32.1  0.1101   31.0  0.0398  126.0
 5.100  0.5088  113.9   3.911   30.8  0.1118   30.1  0.0445  123.1
 5.200  0.5132  112.9   3.832   29.6  0.1135   29.3  0.0488  119.4
 5.300  0.5174  111.8   3.745   28.3  0.1153   28.4  0.0535  117.3
 5.400  0.5208  110.9   3.675   27.2  0.1169   27.5  0.0575  114.4
 5.500  0.5239  109.9   3.604   26.0  0.1186   26.7  0.0623  112.2
 5.600  0.5267  109.0   3.539   24.8  0.1201   25.8  0.0659  109.7
 5.700  0.5294  108.0   3.469   23.6  0.1219   25.1  0.0709  107.2
 5.800  0.5333  107.0   3.403   22.4  0.1237   24.2  0.0749  105.4
 5.900  0.5364  106.3   3.342   21.3  0.1256   23.3  0.0794  104.0
 6.000  0.5391  105.3   3.288   20.1  0.1271   22.6  0.0840  102.5
 6.100  0.5433  104.6   3.236   18.9  0.1290   21.5  0.0884  101.5
 6.200  0.5459  103.5   3.175   17.7  0.1307   20.6  0.0932  100.4
 6.300  0.5502  102.6   3.129   16.5  0.1325   19.7  0.0979   99.5
 6.400  0.5528  101.6   3.078   15.3  0.1342   18.7  0.1029   98.8
 6.500  0.5575  100.4   3.031   14.0  0.1359   17.7  0.1082   97.9
 6.600  0.5599   99.4   2.985   12.7  0.1375   16.8  0.1128   97.1
 6.700  0.5658   98.2   2.932   11.5  0.1390   15.8  0.1178   96.3
 6.800  0.5686   97.1   2.891   10.3  0.1407   14.8  0.1226   95.5
 6.900  0.5731   96.0   2.845    9.1  0.1423   13.8  0.1283   94.8
 7.000  0.5760   94.8   2.810    7.8  0.1437   12.9  0.1329   94.5
 7.100  0.5814   93.6   2.763    6.5  0.1453   11.8  0.1382   93.9
 7.200  0.5853   92.4   2.722    5.3  0.1466   10.8  0.1428   93.3
 7.300  0.5903   91.2   2.677    3.9  0.1480    9.8  0.1484   92.6
 7.400  0.5942   89.9   2.640    2.7  0.1494    8.8  0.1534   91.8
 7.500  0.5997   88.7   2.599    1.3  0.1508    7.8  0.1598   90.9
 7.600  0.6039   87.4   2.564    0.1  0.1519    6.7  0.1657   90.3
 7.700  0.6113   86.3   2.518   -1.2  0.1532    5.7  0.1719   89.2
 7.800  0.6166   84.9   2.479   -2.5  0.1543    4.6  0.1781   88.3
 7.900  0.6231   83.8   2.440   -3.8  0.1553    3.6  0.1857   87.1
 8.000  0.6284   82.6   2.407   -5.1  0.1563    2.6  0.1928   86.3
 8.500  0.6633   76.8   2.209  -11.5  0.1600   -2.6  0.2350   80.1
 9.000  0.6986   71.4   2.016  -17.2  0.1620   -7.3  0.2867   75.2
 9.500  0.7326   67.0   1.843  -22.0  0.1624  -11.2  0.3406   72.0
10.000  0.7619   63.7   1.698  -26.0  0.1631  -14.3  0.3852   70.8
!
!  f       NFmin   Gammaopt  rn/50
! GHz       dB    MAG  ANG    -
 0.450      1.16  0.22 -170   0.04
 0.900      1.17  0.23 -159   0.07
 1.500      1.18  0.26 -144   0.08
 1.900      1.18  0.27  224   0.10
 2.400      1.23  0.29 -122   0.11
 3.500      1.36  0.34 -105   0.15
 5.500      1.57  0.38  -91   0.23
10.000      2.02  0.62  -50   0.64
!
! (c) 2013  Infineon Technologies AG, Munich
