! Infineon Technologies  Discrete & RF Semiconductors
! BFP640ESD
! VCE =  1.0 V,  IC =  30 mA
! Common Emitter S-Parameters:                            Jan 2016
# GHz  S  MA  R  50
!  f         S11            S21            S12            S22
! GHz     MAG   ANG      MAG   ANG      MAG   ANG      MAG   ANG
 0.010  0.5236   -4.0  52.199 -179.0  0.0013  116.5  0.9025    4.1
 0.015  0.5366   -5.4  54.705  179.2  0.0012  100.3  0.9219    1.2
 0.020  0.5498   -6.7  57.260  177.6  0.0013   84.1  0.9435   -1.6
 0.025  0.5487   -8.0  57.253  176.6  0.0016   84.0  0.9437   -2.5
 0.030  0.5479   -9.4  57.265  175.6  0.0019   83.9  0.9441   -3.3
 0.035  0.5475  -10.7  57.294  174.5  0.0022   83.9  0.9447   -4.2
 0.040  0.5473  -12.0  57.342  173.5  0.0025   83.9  0.9455   -5.0
 0.045  0.5474  -13.4  57.407  172.5  0.0028   83.8  0.9466   -5.9
 0.050  0.5478  -14.7  57.491  171.5  0.0031   83.8  0.9478   -6.7
 0.055  0.5452  -16.1  57.354  170.6  0.0034   82.8  0.9450   -7.5
 0.060  0.5429  -17.4  57.230  169.7  0.0036   82.0  0.9424   -8.2
 0.065  0.5410  -18.8  57.121  168.8  0.0039   81.2  0.9399   -9.0
 0.070  0.5393  -20.2  57.025  167.9  0.0042   80.6  0.9376   -9.7
 0.075  0.5380  -21.6  56.944  167.0  0.0044   80.0  0.9355  -10.5
 0.080  0.5369  -23.0  56.877  166.1  0.0047   79.5  0.9335  -11.3
 0.085  0.5363  -24.4  56.823  165.2  0.0050   79.1  0.9317  -12.1
 0.090  0.5359  -25.8  56.784  164.3  0.0053   78.7  0.9301  -12.8
 0.095  0.5358  -27.2  56.760  163.4  0.0055   78.3  0.9287  -13.6
 0.100  0.5361  -28.6  56.749  162.5  0.0058   78.0  0.9274  -14.4
 0.105  0.5330  -29.9  56.399  161.7  0.0060   77.4  0.9226  -15.1
 0.110  0.5301  -31.2  56.061  160.8  0.0063   76.9  0.9180  -15.8
 0.115  0.5275  -32.5  55.736  160.0  0.0065   76.3  0.9135  -16.5
 0.120  0.5251  -33.8  55.422  159.1  0.0068   75.9  0.9091  -17.2
 0.125  0.5231  -35.1  55.121  158.3  0.0070   75.4  0.9049  -17.9
 0.130  0.5213  -36.4  54.833  157.4  0.0072   75.0  0.9008  -18.6
 0.135  0.5198  -37.7  54.558  156.5  0.0075   74.6  0.8968  -19.4
 0.140  0.5186  -39.1  54.296  155.6  0.0077   74.3  0.8930  -20.1
 0.145  0.5176  -40.4  54.047  154.7  0.0080   73.9  0.8894  -20.9
 0.150  0.5170  -41.8  53.812  153.8  0.0082   73.6  0.8859  -21.6
 0.155  0.5144  -42.9  53.494  153.1  0.0084   73.2  0.8804  -22.2
 0.160  0.5120  -44.1  53.185  152.4  0.0086   72.8  0.8751  -22.7
 0.165  0.5099  -45.2  52.884  151.7  0.0089   72.4  0.8698  -23.3
 0.170  0.5079  -46.4  52.591  150.9  0.0091   72.0  0.8646  -23.9
 0.175  0.5062  -47.6  52.307  150.2  0.0093   71.6  0.8595  -24.5
 0.180  0.5046  -48.7  52.032  149.5  0.0095   71.3  0.8545  -25.1
 0.185  0.5033  -49.9  51.766  148.7  0.0097   71.0  0.8496  -25.7
 0.190  0.5022  -51.1  51.508  147.9  0.0100   70.7  0.8448  -26.3
 0.195  0.5013  -52.3  51.260  147.2  0.0102   70.4  0.8401  -27.0
 0.200  0.5006  -53.5  51.021  146.4  0.0104   70.1  0.8355  -27.6
 0.220  0.4907  -57.5  49.618  143.8  0.0112   68.7  0.8138  -29.6
 0.240  0.4832  -61.7  48.324  141.0  0.0119   67.5  0.7931  -31.7
 0.260  0.4759  -65.7  47.029  138.5  0.0126   66.4  0.7725  -33.7
 0.280  0.4682  -69.6  45.703  136.2  0.0133   65.5  0.7516  -35.4
 0.300  0.4627  -73.6  44.456  133.7  0.0140   64.7  0.7314  -37.3
 0.320  0.4548  -76.9  43.214  131.8  0.0146   64.0  0.7110  -38.8
 0.340  0.4485  -80.4  42.022  129.8  0.0152   63.4  0.6911  -40.4
 0.360  0.4425  -83.5  40.868  127.9  0.0158   62.8  0.6721  -41.8
 0.380  0.4366  -86.5  39.743  126.1  0.0163   62.2  0.6539  -43.0
 0.400  0.4318  -89.5  38.660  124.2  0.0169   61.6  0.6361  -44.3
 0.420  0.4262  -92.3  37.575  122.7  0.0174   61.2  0.6198  -45.4
 0.440  0.4216  -95.1  36.517  121.1  0.0179   60.8  0.6037  -46.5
 0.450  0.4197  -96.6  35.999  120.3  0.0181   60.6  0.5958  -47.1
 0.460  0.4169  -97.9  35.515  119.6  0.0183   60.4  0.5881  -47.6
 0.480  0.4118 -100.5  34.563  118.2  0.0188   60.1  0.5729  -48.6
 0.500  0.4076 -103.1  33.634  116.7  0.0193   59.8  0.5579  -49.6
 0.520  0.4030 -105.2  32.802  115.6  0.0197   59.6  0.5450  -50.3
 0.540  0.3989 -107.3  31.983  114.4  0.0201   59.5  0.5322  -50.9
 0.560  0.3954 -109.5  31.177  113.2  0.0206   59.3  0.5194  -51.7
 0.580  0.3925 -111.7  30.387  111.9  0.0210   59.1  0.5068  -52.4
 0.600  0.3901 -113.9  29.612  110.6  0.0214   59.0  0.4942  -53.2
 0.620  0.3867 -115.8  28.930  109.7  0.0218   58.9  0.4841  -53.8
 0.640  0.3838 -117.7  28.256  108.8  0.0222   58.8  0.4740  -54.4
 0.660  0.3812 -119.6  27.589  107.8  0.0227   58.8  0.4639  -55.0
 0.680  0.3792 -121.5  26.931  106.8  0.0231   58.7  0.4539  -55.6
 0.700  0.3775 -123.5  26.282  105.7  0.0235   58.6  0.4440  -56.3
 0.720  0.3753 -125.1  25.723  104.9  0.0239   58.6  0.4357  -56.7
 0.740  0.3735 -126.6  25.169  104.1  0.0243   58.5  0.4274  -57.2
 0.760  0.3718 -128.2  24.620  103.2  0.0247   58.5  0.4192  -57.7
 0.780  0.3705 -129.8  24.077  102.3  0.0251   58.4  0.4110  -58.2
 0.800  0.3695 -131.4  23.540  101.4  0.0255   58.4  0.4028  -58.7
 0.820  0.3680 -132.8  23.092  100.7  0.0259   58.4  0.3960  -59.1
 0.840  0.3668 -134.2  22.647  100.0  0.0263   58.4  0.3892  -59.5
 0.860  0.3658 -135.6  22.206   99.2  0.0267   58.4  0.3825  -60.0
 0.880  0.3650 -137.1  21.769   98.4  0.0271   58.4  0.3757  -60.4
 0.900  0.3644 -138.5  21.336   97.6  0.0275   58.4  0.3690  -60.9
 0.920  0.3632 -139.7  20.949   97.0  0.0279   58.4  0.3630  -61.3
 0.940  0.3622 -141.0  20.564   96.3  0.0283   58.4  0.3571  -61.6
 0.960  0.3614 -142.3  20.182   95.6  0.0287   58.4  0.3512  -62.0
 0.980  0.3608 -143.5  19.803   94.9  0.0291   58.4  0.3453  -62.4
 1.000  0.3603 -144.8  19.427   94.2  0.0295   58.4  0.3394  -62.8
 1.020  0.3598 -145.9  19.105   93.7  0.0299   58.4  0.3347  -63.1
 1.040  0.3593 -146.9  18.784   93.1  0.0303   58.4  0.3300  -63.4
 1.060  0.3590 -148.0  18.465   92.5  0.0308   58.5  0.3253  -63.7
 1.080  0.3589 -149.0  18.149   91.9  0.0312   58.5  0.3206  -64.1
 1.100  0.3588 -150.1  17.834   91.3  0.0316   58.5  0.3159  -64.4
 1.120  0.3585 -151.1  17.558   90.8  0.0320   58.5  0.3116  -64.7
 1.140  0.3583 -152.1  17.284   90.2  0.0324   58.5  0.3074  -65.1
 1.160  0.3582 -153.2  17.012   89.6  0.0329   58.5  0.3031  -65.4
 1.180  0.3583 -154.2  16.742   89.0  0.0333   58.5  0.2989  -65.8
 1.200  0.3584 -155.2  16.473   88.4  0.0337   58.5  0.2947  -66.2
 1.220  0.3583 -156.1  16.233   87.9  0.0341   58.5  0.2912  -66.5
 1.240  0.3583 -157.0  15.994   87.4  0.0345   58.4  0.2877  -66.8
 1.260  0.3584 -157.8  15.757   86.9  0.0350   58.4  0.2842  -67.1
 1.280  0.3586 -158.7  15.521   86.4  0.0354   58.3  0.2807  -67.4
 1.300  0.3589 -159.6  15.286   85.8  0.0358   58.3  0.2772  -67.7
 1.320  0.3589 -160.4  15.073   85.3  0.0362   58.3  0.2739  -68.0
 1.340  0.3590 -161.2  14.861   84.9  0.0366   58.3  0.2707  -68.3
 1.360  0.3592 -162.1  14.650   84.4  0.0371   58.3  0.2675  -68.6
 1.380  0.3595 -162.9  14.440   83.9  0.0375   58.3  0.2642  -69.0
 1.400  0.3598 -163.7  14.231   83.4  0.0379   58.3  0.2610  -69.3
 1.420  0.3597 -164.4  14.051   83.0  0.0383   58.3  0.2583  -69.5
 1.440  0.3596 -165.1  13.873   82.5  0.0388   58.3  0.2556  -69.8
 1.460  0.3595 -165.8  13.695   82.1  0.0392   58.2  0.2529  -70.1
 1.480  0.3595 -166.5  13.518   81.6  0.0397   58.2  0.2502  -70.3
 1.500  0.3596 -167.2  13.342   81.1  0.0401   58.2  0.2475  -70.6
 1.520  0.3601 -167.9  13.181   80.7  0.0405   58.1  0.2451  -70.9
 1.540  0.3607 -168.6  13.020   80.3  0.0410   58.1  0.2428  -71.3
 1.560  0.3613 -169.3  12.860   79.8  0.0414   58.0  0.2405  -71.6
 1.580  0.3620 -170.0  12.700   79.4  0.0419   58.0  0.2381  -71.9
 1.600  0.3627 -170.7  12.542   78.9  0.0423   57.9  0.2358  -72.3
 1.620  0.3628 -171.4  12.401   78.5  0.0427   57.8  0.2336  -72.6
 1.640  0.3629 -172.1  12.260   78.1  0.0432   57.7  0.2313  -72.8
 1.660  0.3631 -172.7  12.120   77.6  0.0436   57.7  0.2291  -73.1
 1.680  0.3633 -173.4  11.981   77.2  0.0441   57.6  0.2269  -73.4
 1.700  0.3636 -174.1  11.842   76.7  0.0445   57.5  0.2247  -73.7
 1.720  0.3640 -174.7  11.708   76.3  0.0449   57.4  0.2229  -74.0
 1.740  0.3643 -175.2  11.574   75.9  0.0453   57.4  0.2211  -74.2
 1.760  0.3648 -175.8  11.441   75.5  0.0458   57.3  0.2193  -74.5
 1.780  0.3652 -176.3  11.308   75.1  0.0462   57.3  0.2176  -74.8
 1.800  0.3657 -176.9  11.176   74.7  0.0466   57.2  0.2158  -75.1
 1.820  0.3663 -177.5  11.061   74.3  0.0471   57.1  0.2137  -75.5
 1.840  0.3669 -178.2  10.947   74.0  0.0476   57.0  0.2116  -76.0
 1.860  0.3676 -178.8  10.833   73.6  0.0480   57.0  0.2095  -76.4
 1.880  0.3683 -179.5  10.719   73.2  0.0485   56.9  0.2075  -76.8
 1.900  0.3691  179.9  10.606   72.8  0.0490   56.8  0.2054  -77.3
 1.920  0.3691  179.4  10.502   72.4  0.0494   56.7  0.2038  -77.5
 1.940  0.3691  178.9  10.399   72.1  0.0499   56.6  0.2021  -77.7
 1.960  0.3691  178.5  10.296   71.7  0.0503   56.6  0.2005  -77.9
 1.980  0.3691  178.0  10.193   71.3  0.0508   56.5  0.1988  -78.2
 2.000  0.3692  177.5  10.091   70.9  0.0512   56.4  0.1972  -78.4
 2.020  0.3698  176.9   9.997   70.5  0.0516   56.3  0.1954  -78.8
 2.040  0.3704  176.4   9.904   70.2  0.0521   56.1  0.1936  -79.2
 2.060  0.3710  175.8   9.811   69.8  0.0525   56.0  0.1918  -79.6
 2.080  0.3717  175.2   9.718   69.4  0.0530   55.9  0.1901  -80.0
 2.100  0.3724  174.7   9.626   69.0  0.0534   55.8  0.1883  -80.4
 2.120  0.3732  174.1   9.534   68.7  0.0539   55.7  0.1866  -80.8
 2.140  0.3739  173.6   9.443   68.2  0.0543   55.5  0.1848  -81.3
 2.160  0.3748  173.0   9.352   67.8  0.0548   55.4  0.1831  -81.7
 2.180  0.3756  172.4   9.262   67.4  0.0552   55.3  0.1814  -82.1
 2.200  0.3765  171.9   9.172   67.0  0.0557   55.2  0.1797  -82.6
 2.220  0.3772  171.4   9.095   66.7  0.0562   55.1  0.1780  -83.1
 2.240  0.3780  170.9   9.018   66.3  0.0566   54.9  0.1762  -83.5
 2.260  0.3788  170.4   8.942   66.0  0.0571   54.8  0.1745  -84.0
 2.280  0.3796  170.0   8.866   65.7  0.0575   54.7  0.1728  -84.5
 2.300  0.3805  169.5   8.790   65.3  0.0580   54.5  0.1711  -85.0
 2.320  0.3813  169.0   8.714   65.0  0.0585   54.4  0.1695  -85.5
 2.340  0.3822  168.5   8.639   64.6  0.0589   54.3  0.1678  -86.1
 2.360  0.3832  168.0   8.565   64.2  0.0594   54.1  0.1661  -86.6
 2.380  0.3841  167.6   8.490   63.9  0.0598   54.0  0.1645  -87.1
 2.400  0.3851  167.1   8.416   63.5  0.0603   53.9  0.1629  -87.7
 2.420  0.3861  166.6   8.349   63.2  0.0607   53.8  0.1613  -88.3
 2.440  0.3872  166.1   8.282   62.8  0.0612   53.6  0.1597  -88.9
 2.460  0.3882  165.6   8.215   62.5  0.0616   53.5  0.1581  -89.5
 2.480  0.3893  165.1   8.148   62.1  0.0621   53.3  0.1566  -90.1
 2.500  0.3905  164.7   8.082   61.8  0.0625   53.2  0.1551  -90.7
 2.520  0.3916  164.2   8.016   61.4  0.0630   53.0  0.1536  -91.3
 2.540  0.3928  163.7   7.951   61.0  0.0634   52.9  0.1521  -92.0
 2.560  0.3940  163.2   7.885   60.7  0.0639   52.8  0.1506  -92.6
 2.580  0.3952  162.8   7.821   60.3  0.0643   52.6  0.1491  -93.3
 2.600  0.3965  162.3   7.756   59.9  0.0648   52.5  0.1477  -94.0
 2.620  0.3974  161.9   7.699   59.6  0.0653   52.4  0.1464  -94.7
 2.640  0.3984  161.5   7.642   59.3  0.0657   52.2  0.1451  -95.3
 2.660  0.3993  161.0   7.586   59.0  0.0662   52.1  0.1438  -96.0
 2.680  0.4003  160.6   7.529   58.6  0.0667   51.9  0.1425  -96.7
 2.700  0.4013  160.2   7.473   58.3  0.0671   51.8  0.1413  -97.4
 2.720  0.4023  159.8   7.418   58.0  0.0676   51.6  0.1401  -98.2
 2.740  0.4034  159.4   7.362   57.6  0.0681   51.5  0.1389  -98.9
 2.760  0.4044  159.0   7.307   57.3  0.0686   51.4  0.1377  -99.7
 2.780  0.4055  158.6   7.252   57.0  0.0690   51.2  0.1365 -100.4
 2.800  0.4066  158.2   7.197   56.6  0.0695   51.1  0.1354 -101.2
 2.820  0.4077  157.8   7.147   56.3  0.0700   50.9  0.1343 -101.9
 2.840  0.4088  157.4   7.098   56.0  0.0704   50.8  0.1333 -102.7
 2.860  0.4099  157.0   7.048   55.7  0.0709   50.6  0.1323 -103.4
 2.880  0.4110  156.6   6.999   55.3  0.0713   50.4  0.1313 -104.2
 2.900  0.4122  156.2   6.950   55.0  0.0718   50.3  0.1303 -105.0
 2.920  0.4134  155.8   6.901   54.7  0.0723   50.1  0.1293 -105.7
 2.940  0.4146  155.4   6.853   54.3  0.0727   50.0  0.1284 -106.5
 2.960  0.4158  155.0   6.805   54.0  0.0732   49.8  0.1275 -107.3
 2.980  0.4170  154.6   6.757   53.7  0.0736   49.7  0.1266 -108.2
 3.000  0.4183  154.2   6.709   53.3  0.0741   49.5  0.1258 -109.0
 3.100  0.4233  152.2   6.503   51.9  0.0763   48.5  0.1214 -113.2
 3.200  0.4288  150.2   6.300   50.4  0.0786   47.6  0.1178 -117.7
 3.300  0.4347  148.3   6.103   48.8  0.0808   46.7  0.1149 -122.4
 3.400  0.4412  146.4   5.911   47.0  0.0831   45.9  0.1128 -127.3
 3.500  0.4481  144.6   5.724   45.2  0.0854   45.1  0.1116 -132.4
 3.600  0.4534  142.6   5.564   43.8  0.0876   44.1  0.1099 -137.8
 3.700  0.4591  140.7   5.407   42.3  0.0898   43.1  0.1092 -143.3
 3.800  0.4654  138.9   5.255   40.7  0.0921   42.1  0.1094 -148.8
 3.900  0.4722  137.1   5.107   39.0  0.0944   41.2  0.1107 -154.2
 4.000  0.4794  135.3   4.963   37.2  0.0967   40.4  0.1130 -159.5
 4.100  0.4852  133.7   4.831   35.8  0.0987   39.3  0.1158 -164.9
 4.200  0.4914  132.1   4.701   34.4  0.1006   38.3  0.1195 -170.0
 4.300  0.4980  130.6   4.575   32.9  0.1027   37.3  0.1242 -174.7
 4.400  0.5049  129.1   4.452   31.3  0.1047   36.3  0.1296 -179.1
 4.500  0.5121  127.7   4.333   29.6  0.1068   35.4  0.1357  176.9
 4.600  0.5163  126.5   4.228   28.4  0.1087   34.4  0.1392  173.7
 4.700  0.5208  125.4   4.125   27.1  0.1106   33.5  0.1431  170.6
 4.800  0.5255  124.2   4.024   25.7  0.1125   32.5  0.1474  167.8
 4.900  0.5303  123.1   3.926   24.3  0.1144   31.7  0.1520  165.0
 5.000  0.5354  122.0   3.830   22.8  0.1164   30.8  0.1570  162.5
 5.100  0.5390  121.0   3.749   21.6  0.1182   29.8  0.1599  159.9
 5.200  0.5427  120.0   3.670   20.4  0.1201   28.9  0.1632  157.3
 5.300  0.5466  119.0   3.593   19.1  0.1220   28.0  0.1667  154.9
 5.400  0.5507  118.0   3.518   17.7  0.1239   27.1  0.1706  152.5
 5.500  0.5549  117.0   3.445   16.3  0.1259   26.3  0.1747  150.3
 5.600  0.5591  115.9   3.380   15.1  0.1278   25.3  0.1791  147.8
 5.700  0.5635  114.9   3.317   13.8  0.1297   24.3  0.1838  145.3
 5.800  0.5680  113.9   3.255   12.4  0.1317   23.4  0.1889  143.0
 5.900  0.5728  112.9   3.196   11.0  0.1337   22.5  0.1942  140.9
 6.000  0.5777  111.9   3.138    9.6  0.1357   21.6  0.1998  138.8
 6.100  0.5818  110.8   3.084    8.3  0.1376   20.5  0.2050  137.0
 6.200  0.5862  109.7   3.031    7.0  0.1396   19.5  0.2103  135.4
 6.300  0.5907  108.6   2.980    5.6  0.1416   18.5  0.2158  133.8
 6.400  0.5954  107.5   2.930    4.2  0.1436   17.5  0.2215  132.2
 6.500  0.6004  106.5   2.883    2.7  0.1457   16.6  0.2273  130.8
 6.600  0.6033  105.2   2.836    1.4  0.1476   15.5  0.2305  129.1
 6.800  0.6100  102.7   2.747   -1.4  0.1516   13.3  0.2375  125.8
 7.000  0.6178  100.2   2.665   -4.3  0.1558   11.3  0.2453  122.7
 7.200  0.6245   97.5   2.579   -7.1  0.1593    8.9  0.2560  119.0
 7.400  0.6325   94.9   2.500  -10.1  0.1631    6.5  0.2677  115.7
 7.600  0.6417   92.2   2.417  -13.1  0.1661    4.1  0.2813  112.3
 7.800  0.6522   89.5   2.329  -16.0  0.1685    1.6  0.2970  108.9
 8.000  0.6641   86.8   2.248  -19.1  0.1711   -0.9  0.3136  105.9
 8.200  0.6740   84.3   2.163  -21.5  0.1720   -3.0  0.3285  102.4
 8.400  0.6852   81.8   2.082  -24.1  0.1732   -5.2  0.3446   99.2
 8.600  0.6982   79.5   2.010  -26.6  0.1745   -7.1  0.3623   96.0
 8.800  0.7129   77.4   1.945  -28.9  0.1757   -8.9  0.3818   92.8
 9.000  0.7284   75.4   1.884  -31.3  0.1771  -10.6  0.4024   90.0
 9.200  0.7507   73.4   1.833  -33.6  0.1784  -12.5  0.4283   87.5
 9.400  0.7739   71.4   1.786  -36.1  0.1798  -14.3  0.4549   85.3
 9.600  0.7941   69.4   1.725  -38.6  0.1808  -16.2  0.4806   83.4
 9.800  0.8117   67.2   1.653  -41.2  0.1813  -18.2  0.5054   81.8
10.000  0.8304   65.1   1.584  -44.0  0.1821  -20.2  0.5306   80.3
!
!  f       NFmin   Gammaopt  rn/50
! GHz       dB    MAG  ANG    -
 0.450      1.09  0.19 -166   0.09
 0.900      1.10  0.19 -163   0.09
 1.900      1.11  0.23 -136   0.12
 2.400      1.13  0.25 -130   0.12
 5.500      1.34  0.43 -104   0.18
10.000      1.91  0.59  -74   0.79
!
! (c) 2016  Infineon Technologies AG, Munich
