! Infineon Technologies  Discrete & RF Semiconductors
! BFP620F
! VCE =  0.5 V,  IC =  23 mA
! Common Emitter S-Parameters:                            Dec 2014
# GHz  S  MA  R  50
!  f         S11            S21            S12            S22
! GHz     MAG   ANG      MAG   ANG      MAG   ANG      MAG   ANG
 0.030  0.6539  -11.6  33.225  174.8  0.0043   84.9  0.9531   -6.8
 0.040  0.6483  -15.2  34.230  173.2  0.0055   86.1  0.9496   -9.4
 0.050  0.6570  -18.6  35.599  170.9  0.0064   75.1  0.9475  -11.9
 0.060  0.6588  -21.7  36.754  168.9  0.0080   79.4  0.9437  -14.0
 0.070  0.6616  -25.0  37.282  166.2  0.0096   77.1  0.9409  -16.5
 0.080  0.6623  -28.5  37.138  163.7  0.0108   80.3  0.9371  -18.9
 0.090  0.6584  -31.8  36.465  161.5  0.0123   80.3  0.9320  -21.5
 0.100  0.6515  -35.1  35.602  159.6  0.0142   78.0  0.9249  -23.9
 0.110  0.6462  -38.4  34.729  157.6  0.0150   75.5  0.9180  -26.5
 0.120  0.6401  -41.7  34.087  155.9  0.0163   75.1  0.9075  -28.9
 0.130  0.6349  -44.8  33.866  154.3  0.0168   73.8  0.8940  -31.4
 0.140  0.6319  -47.7  33.888  152.6  0.0184   71.8  0.8806  -33.6
 0.150  0.6293  -50.4  34.118  151.0  0.0191   71.0  0.8692  -35.5
 0.200  0.6188  -63.3  32.679  142.5  0.0240   66.2  0.8125  -45.7
 0.250  0.5957  -74.5  31.593  135.6  0.0281   63.2  0.7499  -54.7
 0.300  0.5779  -83.9  30.040  129.4  0.0318   59.4  0.6938  -62.8
 0.350  0.5589  -92.6  27.596  124.4  0.0343   57.5  0.6458  -70.0
 0.400  0.5374  -99.2  26.367  120.3  0.0368   55.8  0.5913  -76.7
 0.450  0.5246 -104.8  24.672  116.5  0.0392   54.8  0.5581  -82.3
 0.500  0.5076 -110.6  22.980  113.5  0.0412   54.3  0.5204  -88.2
 0.600  0.4837 -120.1  20.232  108.3  0.0448   52.8  0.4620  -97.8
 0.700  0.4664 -128.6  17.844  103.9  0.0486   52.6  0.4206 -106.4
 0.800  0.4550 -135.5  15.941  100.4  0.0520   52.7  0.3863 -114.1
 0.900  0.4444 -141.6  14.367   97.4  0.0553   53.0  0.3609 -121.2
 1.000  0.4397 -147.0  13.051   94.8  0.0590   53.3  0.3414 -127.6
 1.100  0.4339 -151.7  11.931   92.5  0.0625   53.6  0.3263 -133.9
 1.200  0.4325 -155.9  10.997   90.4  0.0660   53.9  0.3153 -139.3
 1.300  0.4297 -159.7  10.174   88.5  0.0693   54.2  0.3065 -144.7
 1.400  0.4307 -163.1   9.479   86.7  0.0731   54.3  0.3010 -149.4
 1.500  0.4290 -166.3   8.855   85.1  0.0766   54.5  0.2970 -153.9
 1.600  0.4306 -169.2   8.312   83.5  0.0802   54.4  0.2959 -157.9
 1.700  0.4303 -172.0   7.824   82.0  0.0840   54.5  0.2949 -161.7
 1.800  0.4321 -174.4   7.398   80.6  0.0879   54.3  0.2960 -164.9
 1.900  0.4330 -176.7   7.014   79.3  0.0914   54.4  0.2975 -167.9
 2.000  0.4345 -178.9   6.667   77.9  0.0952   54.0  0.2998 -170.4
 2.100  0.4368  179.1   6.347   76.7  0.0988   53.7  0.3048 -172.0
 2.200  0.4373  177.1   6.062   75.4  0.1025   53.4  0.3060 -174.1
 2.300  0.4390  175.2   5.799   74.2  0.1061   53.2  0.3072 -176.1
 2.400  0.4397  173.4   5.563   73.0  0.1097   52.9  0.3083 -178.0
 2.500  0.4410  171.7   5.345   71.9  0.1133   52.5  0.3097 -179.8
 2.600  0.4417  169.9   5.141   70.8  0.1173   52.2  0.3108  178.6
 2.700  0.4427  168.4   4.955   69.7  0.1211   51.8  0.3117  177.2
 2.800  0.4427  166.8   4.782   68.6  0.1247   51.4  0.3125  175.7
 2.900  0.4438  165.3   4.620   67.6  0.1285   51.0  0.3136  174.4
 3.000  0.4444  163.8   4.472   66.4  0.1322   50.5  0.3149  173.2
 3.100  0.4450  162.5   4.327   65.4  0.1358   50.0  0.3151  171.9
 3.200  0.4449  161.0   4.196   64.4  0.1398   49.6  0.3154  170.8
 3.300  0.4457  159.7   4.072   63.3  0.1434   49.1  0.3156  169.7
 3.400  0.4454  158.3   3.959   62.3  0.1472   48.5  0.3163  168.5
 3.500  0.4460  157.0   3.850   61.3  0.1510   48.0  0.3159  167.3
 3.600  0.4462  155.6   3.745   60.2  0.1546   47.5  0.3162  166.1
 3.700  0.4469  154.4   3.650   59.2  0.1583   46.8  0.3160  164.9
 3.800  0.4469  153.0   3.556   58.2  0.1620   46.2  0.3158  163.8
 3.900  0.4479  151.8   3.470   57.2  0.1657   45.7  0.3156  162.5
 4.000  0.4479  150.6   3.386   56.2  0.1693   45.0  0.3151  161.2
 4.100  0.4493  149.4   3.309   55.1  0.1730   44.3  0.3150  159.9
 4.200  0.4502  148.2   3.234   54.1  0.1765   43.8  0.3149  158.5
 4.300  0.4514  147.1   3.164   53.1  0.1802   43.1  0.3150  157.1
 4.400  0.4527  145.9   3.096   52.1  0.1839   42.4  0.3151  155.7
 4.500  0.4537  144.9   3.031   51.1  0.1876   41.8  0.3148  154.3
 4.600  0.4557  143.8   2.968   50.1  0.1912   41.0  0.3155  152.7
 4.700  0.4571  142.8   2.912   49.0  0.1945   40.3  0.3160  151.3
 4.800  0.4593  141.7   2.853   48.1  0.1983   39.6  0.3167  149.8
 4.900  0.4611  140.8   2.798   47.1  0.2017   38.9  0.3171  148.2
 5.000  0.4636  139.8   2.747   46.0  0.2052   38.2  0.3184  146.7
 5.100  0.4656  138.8   2.696   44.9  0.2086   37.4  0.3186  145.3
 5.200  0.4680  137.9   2.648   44.0  0.2120   36.7  0.3197  143.8
 5.300  0.4698  137.0   2.600   42.9  0.2154   35.9  0.3206  142.4
 5.400  0.4726  136.0   2.554   41.8  0.2186   35.2  0.3220  141.0
 5.500  0.4745  135.2   2.508   40.8  0.2217   34.4  0.3229  139.5
 5.600  0.4777  134.2   2.465   39.8  0.2252   33.6  0.3245  138.1
 5.700  0.4795  133.3   2.422   38.8  0.2282   32.8  0.3258  136.7
 5.800  0.4817  132.4   2.382   37.7  0.2313   32.0  0.3267  135.2
 5.900  0.4842  131.4   2.342   36.7  0.2344   31.2  0.3288  133.7
 6.000  0.4865  130.4   2.303   35.6  0.2373   30.4  0.3298  132.4
 6.100  0.4890  129.4   2.264   34.6  0.2401   29.5  0.3310  130.9
 6.200  0.4910  128.4   2.226   33.5  0.2428   28.8  0.3327  129.3
 6.300  0.4935  127.3   2.188   32.5  0.2453   28.0  0.3348  127.7
 6.400  0.4956  126.2   2.153   31.4  0.2479   27.2  0.3365  126.2
 6.500  0.4978  125.1   2.118   30.4  0.2504   26.4  0.3385  124.5
 6.600  0.4999  123.9   2.081   29.5  0.2526   25.6  0.3405  122.9
 6.700  0.5018  122.7   2.047   28.5  0.2550   24.8  0.3423  121.2
 6.800  0.5040  121.5   2.014   27.5  0.2575   24.0  0.3443  119.5
 6.900  0.5065  120.3   1.981   26.5  0.2597   23.3  0.3464  117.7
 7.000  0.5091  119.1   1.948   25.5  0.2619   22.5  0.3489  115.9
 7.100  0.5119  118.0   1.918   24.6  0.2642   21.8  0.3518  114.0
 7.200  0.5150  116.9   1.888   23.7  0.2666   21.1  0.3550  112.2
 7.300  0.5187  115.8   1.859   22.8  0.2688   20.3  0.3591  110.4
 7.400  0.5227  114.7   1.831   21.8  0.2711   19.6  0.3635  108.7
 7.500  0.5274  113.7   1.804   21.0  0.2734   18.8  0.3686  106.9
 7.600  0.5322  112.8   1.777   20.1  0.2757   18.1  0.3740  105.1
 7.700  0.5374  111.8   1.751   19.2  0.2777   17.3  0.3806  103.5
 7.800  0.5427  110.9   1.725   18.3  0.2797   16.5  0.3875  101.8
 7.900  0.5493  110.1   1.699   17.4  0.2815   15.7  0.3953  100.1
 8.000  0.5560  109.2   1.674   16.4  0.2833   14.8  0.4034   98.5
!
!  f       NFmin   Gammaopt  rn/50
! GHz       dB    MAG  ANG    -
 0.450      0.94  0.04    2   0.20
 0.900      0.98  0.02    6   0.17
 1.500      1.00  0.01   -9   0.15
 1.800      1.02  0.01  -17   0.16
 1.900      1.02  0.00   51   0.16
 2.400      1.05  0.03 -153   0.15
 3.500      1.13  0.06 -161   0.15
 5.500      1.28  0.17  234   0.11
 6.000      1.32  0.16  256   0.14
!
! (c) 2014  Infineon Technologies AG, Munich
