! Infineon Technologies  Discrete & RF Semiconductors
! BFP640F
! VCE =  4.0 V,  IC =  20 mA
! Common Emitter S-Parameters:                            Apr 2013
# GHz  S  MA  R  50
!  f         S11            S21            S12            S22
! GHz     MAG   ANG      MAG   ANG      MAG   ANG      MAG   ANG
 0.030  0.6904   -3.6  44.283  175.7  0.0014   46.8  0.9697   -1.9
 0.040  0.6898   -4.9  44.165  174.6  0.0025   67.1  0.9713   -2.6
 0.050  0.6868   -6.3  44.512  173.4  0.0029   88.2  0.9718   -3.5
 0.060  0.6850   -7.6  44.195  171.9  0.0032   67.0  0.9702   -4.6
 0.070  0.6837   -9.0  44.026  170.8  0.0037   67.9  0.9684   -5.3
 0.080  0.6807  -10.3  43.916  169.6  0.0038   71.9  0.9669   -6.1
 0.090  0.6819  -11.5  43.699  168.4  0.0042   81.5  0.9654   -7.1
 0.100  0.6785  -12.9  43.594  167.2  0.0047   74.2  0.9617   -7.8
 0.110  0.6756  -14.1  43.390  166.0  0.0052   70.1  0.9596   -8.6
 0.120  0.6729  -15.6  43.204  164.8  0.0054   71.5  0.9554   -9.5
 0.130  0.6700  -16.8  42.827  163.6  0.0064   76.3  0.9507  -10.3
 0.140  0.6674  -18.0  42.635  162.5  0.0071   75.4  0.9475  -11.1
 0.150  0.6630  -19.3  42.453  161.4  0.0069   74.5  0.9421  -11.9
 0.200  0.6442  -25.5  41.155  155.7  0.0088   76.6  0.9183  -15.5
 0.250  0.6206  -31.2  39.584  150.5  0.0111   74.7  0.8889  -18.8
 0.300  0.5965  -36.7  37.894  145.5  0.0131   73.7  0.8578  -21.8
 0.350  0.5706  -41.8  36.105  141.0  0.0147   72.7  0.8248  -24.5
 0.400  0.5427  -46.7  34.451  136.7  0.0164   71.7  0.7913  -26.7
 0.450  0.5167  -51.1  32.738  132.9  0.0179   70.9  0.7607  -28.8
 0.500  0.4914  -55.3  31.093  129.4  0.0194   69.5  0.7292  -30.6
 0.600  0.4430  -63.1  28.052  123.2  0.0225   69.8  0.6717  -33.4
 0.700  0.4027  -69.9  25.325  118.1  0.0251   68.4  0.6200  -35.6
 0.800  0.3644  -76.4  23.015  113.6  0.0278   68.1  0.5765  -37.1
 0.900  0.3334  -82.1  21.003  109.9  0.0304   67.7  0.5367  -38.2
 1.000  0.3080  -87.4  19.228  106.7  0.0328   67.5  0.5030  -39.0
 1.100  0.2835  -92.7  17.741  103.8  0.0352   67.0  0.4731  -39.5
 1.200  0.2637  -97.5  16.415  101.3  0.0378   67.0  0.4481  -39.8
 1.300  0.2454 -102.3  15.281   99.0  0.0402   67.1  0.4260  -39.9
 1.400  0.2317 -106.9  14.283   96.9  0.0425   66.9  0.4070  -40.0
 1.500  0.2186 -111.3  13.394   95.1  0.0449   66.6  0.3897  -39.9
 1.600  0.2074 -115.9  12.623   93.3  0.0474   66.3  0.3755  -40.0
 1.700  0.1988 -120.2  11.923   91.7  0.0498   66.1  0.3613  -39.8
 1.800  0.1909 -124.5  11.285   90.2  0.0523   66.1  0.3502  -39.9
 1.900  0.1846 -128.4  10.727   88.8  0.0547   65.9  0.3387  -39.8
 2.000  0.1787 -132.5  10.218   87.4  0.0573   65.4  0.3300  -40.1
 2.100  0.1775 -136.9   9.754   85.9  0.0595   65.2  0.3196  -40.7
 2.200  0.1733 -140.5   9.330   84.7  0.0619   64.8  0.3129  -40.8
 2.300  0.1694 -144.1   8.929   83.4  0.0644   64.6  0.3062  -40.9
 2.400  0.1671 -147.4   8.570   82.3  0.0668   64.5  0.3001  -41.0
 2.500  0.1632 -150.8   8.240   81.1  0.0691   64.0  0.2957  -41.1
 2.600  0.1608 -154.1   7.931   80.0  0.0715   63.5  0.2910  -41.3
 2.700  0.1584 -157.3   7.649   78.9  0.0741   63.3  0.2879  -41.4
 2.800  0.1561 -160.3   7.381   77.8  0.0764   62.8  0.2844  -41.7
 2.900  0.1549 -162.9   7.131   76.8  0.0788   62.7  0.2820  -41.9
 3.000  0.1531 -165.8   6.903   75.8  0.0812   62.2  0.2789  -42.2
 3.100  0.1513 -168.5   6.685   74.8  0.0834   61.7  0.2775  -42.6
 3.200  0.1501 -171.1   6.483   73.8  0.0859   61.3  0.2757  -42.9
 3.300  0.1492 -173.2   6.291   72.8  0.0882   61.0  0.2749  -43.3
 3.400  0.1486 -176.0   6.112   71.9  0.0907   60.6  0.2734  -43.6
 3.500  0.1475 -178.0   5.942   71.0  0.0932   60.1  0.2730  -43.9
 3.600  0.1467  179.4   5.783   70.1  0.0953   59.8  0.2724  -44.2
 3.700  0.1458  177.5   5.630   69.2  0.0977   59.3  0.2719  -44.5
 3.800  0.1457  174.9   5.492   68.2  0.1003   58.9  0.2713  -44.8
 3.900  0.1459  173.2   5.354   67.3  0.1027   58.5  0.2707  -45.1
 4.000  0.1462  170.9   5.224   66.4  0.1051   58.1  0.2698  -45.3
 4.100  0.1462  169.2   5.103   65.6  0.1074   57.6  0.2688  -45.6
 4.200  0.1472  167.0   4.987   64.7  0.1099   57.2  0.2675  -45.9
 4.300  0.1478  165.3   4.878   63.8  0.1122   56.6  0.2664  -46.2
 4.400  0.1502  163.6   4.770   63.0  0.1148   56.3  0.2650  -46.5
 4.500  0.1504  162.0   4.671   62.1  0.1169   55.7  0.2642  -46.7
 4.600  0.1529  160.3   4.578   61.2  0.1196   55.3  0.2626  -47.0
 4.700  0.1539  159.0   4.484   60.4  0.1219   54.8  0.2611  -47.1
 4.800  0.1562  157.4   4.398   59.5  0.1242   54.3  0.2591  -47.4
 4.900  0.1575  156.1   4.312   58.7  0.1266   53.8  0.2573  -47.6
 5.000  0.1594  154.6   4.232   57.8  0.1289   53.3  0.2557  -47.8
 5.100  0.1610  153.4   4.154   57.0  0.1315   52.8  0.2544  -48.0
 5.200  0.1625  152.0   4.080   56.1  0.1339   52.3  0.2525  -48.0
 5.300  0.1640  150.8   4.006   55.3  0.1361   51.9  0.2508  -48.3
 5.400  0.1662  149.6   3.937   54.4  0.1386   51.3  0.2498  -48.4
 5.500  0.1677  148.4   3.871   53.6  0.1409   50.8  0.2481  -48.7
 5.600  0.1692  147.1   3.806   52.7  0.1432   50.3  0.2470  -48.7
 5.700  0.1704  146.0   3.743   51.9  0.1456   49.7  0.2447  -48.9
 5.800  0.1720  144.6   3.683   51.0  0.1479   49.2  0.2441  -49.0
 5.900  0.1736  143.6   3.622   50.2  0.1504   48.7  0.2424  -49.0
 6.000  0.1744  142.2   3.568   49.3  0.1525   48.1  0.2413  -49.2
 6.100  0.1771  141.0   3.512   48.5  0.1549   47.6  0.2396  -49.2
 6.200  0.1768  139.6   3.455   47.6  0.1569   47.1  0.2385  -49.4
 6.300  0.1799  138.2   3.401   46.7  0.1594   46.5  0.2368  -49.4
 6.400  0.1806  137.1   3.350   45.9  0.1615   46.0  0.2347  -49.5
 6.500  0.1827  135.1   3.299   45.1  0.1638   45.4  0.2330  -49.5
 6.600  0.1844  134.0   3.248   44.2  0.1659   44.9  0.2309  -49.5
 6.700  0.1867  132.4   3.200   43.4  0.1681   44.4  0.2291  -49.4
 6.800  0.1888  131.0   3.151   42.6  0.1704   43.8  0.2271  -49.3
 6.900  0.1917  129.5   3.106   41.8  0.1727   43.3  0.2252  -49.0
 7.000  0.1934  128.0   3.062   41.0  0.1749   42.8  0.2229  -48.7
 7.100  0.1972  126.8   3.018   40.3  0.1770   42.4  0.2199  -48.5
 7.200  0.2002  125.6   2.975   39.6  0.1793   41.9  0.2171  -48.4
 7.300  0.2045  124.6   2.935   38.8  0.1817   41.4  0.2143  -48.1
 7.400  0.2077  123.7   2.896   38.0  0.1841   40.9  0.2110  -47.8
 7.500  0.2134  122.9   2.859   37.3  0.1864   40.4  0.2062  -47.5
 7.600  0.2180  121.9   2.825   36.6  0.1888   39.9  0.2017  -47.1
 7.700  0.2249  121.6   2.791   35.8  0.1915   39.3  0.1964  -46.5
 7.800  0.2314  120.9   2.757   35.1  0.1937   38.7  0.1903  -46.1
 7.900  0.2390  120.5   2.726   34.4  0.1959   38.2  0.1840  -45.3
 8.000  0.2464  120.0   2.695   33.6  0.1983   37.6  0.1769  -44.7
 8.500  0.2917  118.5   2.549   29.7  0.2095   34.7  0.1374  -36.4
 9.000  0.3387  116.9   2.415   26.0  0.2199   31.8  0.1024  -18.1
 9.500  0.3818  114.8   2.298   22.3  0.2306   29.0  0.0874   12.0
10.000  0.4214  112.3   2.192   18.5  0.2417   26.1  0.0955   45.4
!
!  f       NFmin   Gammaopt  rn/50
! GHz       dB    MAG  ANG    -
 0.450      0.82  0.01   19   0.06
 0.900      0.82  0.01   55   0.06
 1.500      0.85  0.01   87   0.07
 1.900      0.87  0.02  120   0.07
 2.400      0.90  0.03  140   0.08
 3.500      0.98  0.05  171   0.09
 5.500      1.16  0.18 -132   0.12
10.000      1.64  0.41  -89   0.39
!
! (c) 2013  Infineon Technologies AG, Munich
