! Infineon Technologies  Discrete & RF Semiconductors
! BFP620F
! VCE =  1.0 V,  IC =  25 mA
! Common Emitter S-Parameters:                            Dec 2014
# GHz  S  MA  R  50
!  f         S11            S21            S12            S22
! GHz     MAG   ANG      MAG   ANG      MAG   ANG      MAG   ANG
 0.030  0.7340   -7.3  50.383  174.7  0.0026  100.1  0.9694   -4.6
 0.040  0.7336   -9.6  50.412  172.9  0.0044   86.6  0.9727   -6.5
 0.050  0.7270  -12.0  50.396  171.1  0.0034   74.8  0.9682   -8.5
 0.060  0.7263  -14.3  50.203  169.5  0.0061   76.4  0.9689  -10.3
 0.070  0.7242  -16.4  49.952  167.7  0.0076   85.6  0.9675  -12.1
 0.080  0.7219  -18.7  49.700  165.8  0.0084   89.2  0.9641  -14.1
 0.090  0.7161  -20.8  49.286  164.1  0.0085   85.3  0.9595  -15.8
 0.100  0.7108  -23.1  48.825  162.4  0.0094   81.9  0.9510  -17.6
 0.110  0.7053  -25.3  48.370  160.7  0.0108   76.4  0.9448  -19.4
 0.120  0.7002  -27.6  47.884  159.0  0.0114   75.6  0.9383  -21.2
 0.130  0.6934  -29.8  47.479  157.5  0.0119   78.2  0.9287  -23.0
 0.140  0.6881  -31.9  46.976  155.9  0.0134   75.4  0.9193  -24.7
 0.150  0.6823  -33.9  46.594  154.5  0.0142   76.2  0.9109  -26.3
 0.200  0.6509  -43.8  43.872  147.4  0.0176   73.5  0.8606  -34.2
 0.250  0.6160  -52.7  41.145  141.0  0.0214   69.9  0.8062  -41.2
 0.300  0.5833  -61.0  38.403  135.4  0.0242   65.4  0.7521  -47.7
 0.350  0.5524  -68.7  35.644  130.5  0.0267   64.7  0.6997  -53.2
 0.400  0.5227  -75.8  33.232  126.0  0.0293   62.9  0.6497  -58.3
 0.450  0.4983  -81.8  30.942  122.2  0.0312   61.7  0.6075  -63.0
 0.500  0.4736  -87.8  28.845  118.8  0.0335   60.8  0.5657  -67.1
 0.600  0.4357  -98.5  25.254  113.0  0.0369   59.5  0.4945  -74.6
 0.700  0.4068 -107.5  22.351  108.4  0.0406   58.9  0.4379  -81.2
 0.800  0.3855 -115.5  19.952  104.6  0.0440   59.0  0.3905  -87.0
 0.900  0.3677 -122.5  17.982  101.3  0.0472   58.7  0.3518  -92.5
 1.000  0.3560 -129.0  16.351   98.4  0.0504   58.9  0.3196  -97.6
 1.100  0.3451 -134.7  14.952   95.9  0.0536   58.7  0.2919 -102.9
 1.200  0.3393 -140.0  13.784   93.7  0.0571   58.8  0.2703 -107.6
 1.300  0.3330 -144.7  12.761   91.7  0.0603   59.0  0.2502 -112.6
 1.400  0.3308 -149.1  11.888   89.8  0.0636   59.0  0.2354 -117.4
 1.500  0.3272 -153.1  11.107   88.1  0.0670   58.9  0.2223 -122.3
 1.600  0.3268 -156.9  10.430   86.4  0.0703   58.8  0.2133 -127.0
 1.700  0.3248 -160.4   9.824   84.9  0.0736   58.8  0.2048 -131.6
 1.800  0.3255 -163.4   9.293   83.5  0.0772   58.7  0.2002 -135.9
 1.900  0.3251 -166.4   8.807   82.1  0.0804   58.5  0.1966 -140.0
 2.000  0.3258 -169.2   8.372   80.8  0.0840   58.2  0.1950 -143.6
 2.100  0.3277 -171.8   7.975   79.5  0.0875   57.7  0.1993 -146.2
 2.200  0.3277 -174.1   7.615   78.2  0.0909   57.3  0.1979 -149.2
 2.300  0.3287 -176.5   7.285   77.0  0.0942   57.0  0.1966 -152.0
 2.400  0.3294 -178.6   6.987   75.8  0.0975   56.8  0.1959 -154.6
 2.500  0.3302  179.3   6.713   74.7  0.1008   56.3  0.1956 -157.1
 2.600  0.3307  177.3   6.456   73.6  0.1043   55.9  0.1953 -159.3
 2.700  0.3314  175.4   6.221   72.6  0.1077   55.7  0.1949 -161.3
 2.800  0.3312  173.6   6.001   71.5  0.1111   55.2  0.1950 -163.1
 2.900  0.3323  171.8   5.797   70.4  0.1145   54.7  0.1952 -164.9
 3.000  0.3324  170.0   5.610   69.3  0.1179   54.3  0.1960 -166.5
 3.100  0.3333  168.5   5.429   68.3  0.1214   53.8  0.1953 -168.1
 3.200  0.3327  166.7   5.262   67.3  0.1248   53.3  0.1955 -169.6
 3.300  0.3338  165.3   5.107   66.3  0.1281   52.8  0.1951 -170.9
 3.400  0.3334  163.7   4.962   65.3  0.1317   52.2  0.1951 -172.5
 3.500  0.3341  162.3   4.823   64.3  0.1353   51.7  0.1945 -173.8
 3.600  0.3340  160.7   4.692   63.3  0.1384   51.1  0.1944 -175.1
 3.700  0.3349  159.3   4.572   62.3  0.1419   50.6  0.1937 -176.6
 3.800  0.3348  157.8   4.452   61.3  0.1450   50.1  0.1929 -177.9
 3.900  0.3360  156.4   4.344   60.4  0.1485   49.4  0.1922 -179.4
 4.000  0.3362  155.1   4.237   59.4  0.1520   48.8  0.1913  178.9
 4.100  0.3373  153.8   4.139   58.4  0.1553   48.2  0.1904  177.4
 4.200  0.3385  152.4   4.045   57.5  0.1586   47.6  0.1899  175.7
 4.300  0.3394  151.3   3.957   56.5  0.1622   47.0  0.1892  174.1
 4.400  0.3411  150.1   3.871   55.5  0.1655   46.3  0.1885  172.5
 4.500  0.3422  149.0   3.788   54.6  0.1686   45.7  0.1879  170.7
 4.600  0.3442  147.8   3.710   53.6  0.1720   45.0  0.1876  168.8
 4.700  0.3456  146.7   3.637   52.6  0.1753   44.3  0.1874  167.0
 4.800  0.3481  145.6   3.564   51.7  0.1785   43.7  0.1875  165.1
 4.900  0.3498  144.7   3.494   50.7  0.1819   43.0  0.1873  163.1
 5.000  0.3524  143.6   3.430   49.7  0.1851   42.2  0.1879  161.4
 5.100  0.3542  142.6   3.366   48.7  0.1884   41.6  0.1875  159.5
 5.200  0.3569  141.8   3.304   47.8  0.1916   40.9  0.1880  157.6
 5.300  0.3588  140.8   3.244   46.8  0.1947   40.1  0.1886  155.9
 5.400  0.3620  140.0   3.187   45.8  0.1979   39.3  0.1896  154.2
 5.500  0.3643  139.1   3.130   44.8  0.2010   38.7  0.1902  152.3
 5.600  0.3675  138.2   3.075   43.8  0.2041   37.9  0.1913  150.6
 5.700  0.3697  137.3   3.024   42.8  0.2071   37.2  0.1923  148.8
 5.800  0.3722  136.3   2.973   41.8  0.2101   36.4  0.1932  147.1
 5.900  0.3751  135.4   2.923   40.8  0.2129   35.6  0.1950  145.2
 6.000  0.3775  134.4   2.874   39.8  0.2159   34.9  0.1959  143.6
 6.100  0.3803  133.4   2.826   38.9  0.2185   34.2  0.1969  141.7
 6.200  0.3829  132.4   2.779   37.8  0.2213   33.3  0.1984  139.7
 6.300  0.3857  131.2   2.733   36.9  0.2239   32.6  0.2004  137.7
 6.400  0.3883  130.2   2.689   35.8  0.2264   31.8  0.2024  135.9
 6.500  0.3909  129.0   2.645   34.9  0.2291   31.1  0.2038  133.6
 6.600  0.3935  127.9   2.600   33.9  0.2314   30.3  0.2064  131.6
 6.700  0.3959  126.6   2.558   33.0  0.2338   29.6  0.2081  129.5
 6.800  0.3986  125.3   2.517   32.0  0.2363   28.9  0.2102  127.3
 6.900  0.4016  124.1   2.477   31.1  0.2386   28.1  0.2123  125.0
 7.000  0.4048  122.9   2.436   30.1  0.2411   27.4  0.2149  122.7
 7.100  0.4082  121.7   2.399   29.2  0.2434   26.7  0.2180  120.3
 7.200  0.4117  120.6   2.362   28.3  0.2458   26.0  0.2214  118.0
 7.300  0.4158  119.4   2.326   27.5  0.2482   25.3  0.2259  115.7
 7.400  0.4201  118.3   2.291   26.6  0.2505   24.7  0.2306  113.5
 7.500  0.4253  117.4   2.258   25.7  0.2530   23.9  0.2363  111.3
 7.600  0.4307  116.5   2.226   24.9  0.2555   23.2  0.2422  109.2
 7.700  0.4367  115.6   2.193   24.0  0.2578   22.4  0.2494  107.2
 7.800  0.4428  114.7   2.161   23.1  0.2601   21.7  0.2568  105.3
 7.900  0.4502  113.9   2.131   22.2  0.2623   20.9  0.2654  103.3
 8.000  0.4578  113.1   2.101   21.3  0.2645   20.0  0.2742  101.5
!
!  f       NFmin   Gammaopt  rn/50
! GHz       dB    MAG  ANG    -
 0.450      1.00  0.01   10   0.20
 0.900      1.04  0.01   11   0.16
 1.500      1.06  0.02 -150   0.16
 1.800      1.07  0.03 -150   0.16
 1.900      1.07  0.04 -150   0.15
 2.400      1.10  0.06 -147   0.16
 3.500      1.17  0.10 -145   0.16
 5.500      1.32  0.18  236   0.12
 6.000      1.36  0.18  258   0.15
!
! (c) 2014  Infineon Technologies AG, Munich
