! Infineon Technologies  Discrete & RF Semiconductors
! BFP640F
! VCE =  3.0 V,  IC =  4.0 mA
! Common Emitter S-Parameters:                            Apr 2013
# GHz  S  MA  R  50
!  f         S11            S21            S12            S22
! GHz     MAG   ANG      MAG   ANG      MAG   ANG      MAG   ANG
 0.030  0.9431   -1.7  12.297  178.4  0.0012   66.6  0.9979   -0.9
 0.040  0.9436   -2.2  12.196  177.9  0.0027   91.9  0.9982   -1.2
 0.050  0.9431   -2.9  12.418  177.6  0.0022   94.2  0.9987   -1.5
 0.060  0.9413   -3.4  12.347  176.8  0.0027  102.5  0.9981   -1.8
 0.070  0.9418   -3.9  12.344  176.4  0.0051   90.1  0.9983   -2.3
 0.080  0.9404   -4.4  12.356  175.9  0.0040   88.1  0.9977   -2.5
 0.090  0.9411   -5.0  12.356  175.4  0.0051   91.5  0.9976   -2.9
 0.100  0.9404   -5.6  12.395  175.0  0.0058   86.5  0.9958   -3.2
 0.110  0.9402   -6.2  12.405  174.4  0.0064   89.0  0.9963   -3.6
 0.120  0.9387   -6.7  12.399  173.9  0.0065   92.9  0.9962   -3.9
 0.130  0.9387   -7.3  12.324  173.4  0.0077   88.4  0.9945   -4.2
 0.140  0.9386   -7.8  12.315  173.0  0.0079   88.7  0.9950   -4.5
 0.150  0.9372   -8.3  12.314  172.6  0.0085   86.9  0.9940   -4.9
 0.200  0.9347  -11.1  12.264  170.1  0.0112   85.4  0.9911   -6.5
 0.250  0.9302  -13.9  12.199  167.7  0.0144   83.9  0.9862   -8.1
 0.300  0.9256  -16.5  12.058  165.3  0.0169   81.9  0.9809   -9.7
 0.350  0.9187  -19.3  11.967  162.9  0.0199   81.2  0.9747  -11.2
 0.400  0.9114  -22.1  11.888  160.5  0.0223   80.0  0.9658  -12.8
 0.450  0.9041  -24.7  11.783  158.2  0.0250   78.7  0.9593  -14.3
 0.500  0.8947  -27.4  11.657  156.0  0.0278   76.9  0.9492  -15.8
 0.600  0.8748  -32.7  11.392  151.5  0.0329   74.4  0.9278  -18.7
 0.700  0.8530  -37.8  11.074  147.4  0.0381   71.6  0.9039  -21.5
 0.800  0.8251  -43.2  10.907  143.0  0.0429   68.9  0.8795  -24.1
 0.900  0.7991  -48.1  10.578  139.1  0.0472   66.5  0.8517  -26.5
 1.000  0.7736  -52.7  10.173  135.5  0.0513   64.2  0.8237  -28.8
 1.100  0.7448  -57.3   9.856  131.8  0.0548   61.9  0.7952  -30.9
 1.200  0.7175  -61.7   9.491  128.4  0.0581   59.8  0.7673  -32.8
 1.300  0.6891  -66.1   9.185  125.2  0.0614   58.0  0.7418  -34.4
 1.400  0.6643  -70.2   8.850  122.2  0.0642   56.5  0.7159  -36.0
 1.500  0.6394  -74.0   8.517  119.4  0.0668   54.9  0.6909  -37.3
 1.600  0.6106  -78.4   8.301  116.4  0.0691   53.5  0.6691  -38.6
 1.700  0.5890  -82.0   7.995  113.9  0.0714   52.4  0.6455  -39.8
 1.800  0.5689  -85.6   7.700  111.5  0.0734   51.2  0.6264  -41.0
 1.900  0.5497  -89.1   7.432  109.3  0.0753   50.2  0.6050  -42.0
 2.000  0.5320  -92.5   7.183  107.1  0.0774   49.3  0.5885  -43.0
 2.100  0.5151  -96.4   6.963  104.6  0.0793   48.3  0.5705  -44.2
 2.200  0.4994  -99.5   6.728  102.6  0.0813   47.5  0.5562  -45.0
 2.300  0.4835 -102.7   6.506  100.7  0.0824   46.7  0.5414  -45.7
 2.400  0.4716 -105.5   6.280   98.9  0.0842   46.2  0.5275  -46.6
 2.500  0.4569 -108.5   6.095   97.0  0.0860   45.6  0.5158  -47.1
 2.600  0.4450 -111.4   5.906   95.4  0.0872   45.1  0.5043  -47.8
 2.700  0.4319 -114.3   5.742   93.6  0.0887   44.7  0.4954  -48.2
 2.800  0.4211 -117.0   5.573   91.9  0.0900   44.2  0.4852  -48.8
 2.900  0.4115 -119.7   5.413   90.4  0.0915   43.8  0.4775  -49.3
 3.000  0.4024 -122.3   5.262   88.9  0.0930   43.4  0.4679  -49.9
 3.100  0.3912 -125.1   5.134   87.3  0.0943   43.1  0.4624  -50.3
 3.200  0.3828 -127.6   4.998   85.8  0.0958   42.8  0.4550  -50.8
 3.300  0.3767 -129.9   4.865   84.5  0.0972   42.5  0.4500  -51.3
 3.400  0.3689 -132.6   4.744   83.1  0.0988   42.4  0.4430  -51.7
 3.500  0.3630 -134.8   4.627   81.8  0.1001   42.1  0.4389  -52.0
 3.600  0.3549 -137.3   4.522   80.4  0.1015   41.8  0.4342  -52.3
 3.700  0.3499 -139.5   4.415   79.2  0.1029   41.6  0.4304  -52.7
 3.800  0.3442 -142.0   4.318   77.9  0.1044   41.3  0.4258  -53.0
 3.900  0.3402 -144.2   4.220   76.7  0.1058   41.2  0.4215  -53.3
 4.000  0.3361 -146.6   4.123   75.4  0.1075   41.0  0.4171  -53.5
 4.100  0.3312 -148.8   4.045   74.2  0.1089   40.8  0.4137  -53.8
 4.200  0.3281 -151.2   3.958   73.0  0.1104   40.6  0.4096  -54.1
 4.300  0.3248 -153.4   3.882   71.8  0.1119   40.4  0.4058  -54.4
 4.400  0.3237 -155.6   3.797   70.7  0.1133   40.1  0.4012  -54.6
 4.500  0.3205 -157.7   3.728   69.6  0.1149   39.9  0.3980  -54.8
 4.600  0.3187 -160.1   3.663   68.4  0.1165   39.7  0.3954  -55.1
 4.700  0.3171 -162.1   3.593   67.3  0.1179   39.6  0.3908  -55.3
 4.800  0.3163 -164.3   3.528   66.1  0.1197   39.2  0.3872  -55.6
 4.900  0.3154 -166.2   3.464   65.0  0.1212   39.0  0.3831  -55.9
 5.000  0.3136 -168.5   3.407   63.9  0.1227   38.9  0.3798  -56.1
 5.100  0.3132 -170.3   3.349   62.8  0.1241   38.5  0.3772  -56.3
 5.200  0.3123 -172.3   3.293   61.8  0.1258   38.3  0.3735  -56.4
 5.300  0.3124 -174.1   3.234   60.7  0.1273   38.1  0.3701  -56.7
 5.400  0.3122 -176.1   3.183   59.6  0.1290   38.0  0.3671  -56.8
 5.500  0.3120 -177.8   3.132   58.5  0.1305   37.8  0.3643  -57.1
 5.600  0.3109 -179.8   3.087   57.5  0.1322   37.5  0.3621  -57.2
 5.700  0.3106  178.5   3.036   56.4  0.1338   37.2  0.3586  -57.4
 5.800  0.3100  176.5   2.993   55.3  0.1355   36.9  0.3568  -57.6
 5.900  0.3110  174.8   2.941   54.4  0.1371   36.8  0.3532  -57.7
 6.000  0.3095  172.8   2.903   53.3  0.1386   36.4  0.3507  -57.9
 6.100  0.3101  170.9   2.862   52.3  0.1403   36.1  0.3482  -58.1
 6.200  0.3084  169.1   2.819   51.2  0.1419   35.9  0.3463  -58.3
 6.300  0.3098  167.0   2.775   50.2  0.1435   35.6  0.3424  -58.3
 6.400  0.3092  165.3   2.736   49.2  0.1451   35.3  0.3398  -58.5
 6.500  0.3084  163.0   2.698   48.2  0.1463   35.0  0.3373  -58.6
 6.600  0.3088  161.2   2.659   47.1  0.1479   34.8  0.3337  -58.8
 6.700  0.3093  159.2   2.620   46.2  0.1495   34.5  0.3314  -58.8
 6.800  0.3098  157.2   2.582   45.3  0.1512   34.3  0.3276  -58.8
 6.900  0.3112  155.3   2.548   44.3  0.1529   34.0  0.3248  -58.7
 7.000  0.3108  153.2   2.515   43.3  0.1544   33.8  0.3214  -58.7
 7.100  0.3131  151.3   2.480   42.4  0.1562   33.5  0.3179  -58.6
 7.200  0.3145  149.4   2.448   41.5  0.1579   33.4  0.3141  -58.6
 7.300  0.3181  147.7   2.413   40.6  0.1597   33.1  0.3105  -58.6
 7.400  0.3200  145.9   2.385   39.7  0.1616   32.9  0.3061  -58.5
 7.500  0.3250  144.3   2.354   38.9  0.1633   32.7  0.3010  -58.5
 7.600  0.3278  142.4   2.331   37.9  0.1653   32.3  0.2962  -58.5
 7.700  0.3340  140.9   2.303   37.1  0.1674   32.0  0.2906  -58.5
 7.800  0.3402  139.4   2.274   36.2  0.1693   31.7  0.2836  -58.5
 7.900  0.3466  137.9   2.250   35.3  0.1714   31.4  0.2769  -58.4
 8.000  0.3532  136.5   2.225   34.4  0.1733   31.1  0.2693  -58.4
 8.500  0.3930  130.3   2.111   30.0  0.1825   29.1  0.2259  -57.6
 9.000  0.4330  125.6   2.006   25.7  0.1915   27.3  0.1745  -55.7
 9.500  0.4695  121.5   1.913   21.4  0.2017   25.4  0.1200  -52.6
10.000  0.5013  117.7   1.833   17.1  0.2120   23.2  0.0626  -49.2
!
!  f       NFmin   Gammaopt  rn/50
! GHz       dB    MAG  ANG    -
 0.450      0.49  0.47    8   0.17
 0.900      0.54  0.47   21   0.17
 1.500      0.58  0.47   31   0.17
 1.900      0.61  0.44   44   0.17
 2.400      0.67  0.40   59   0.17
 3.500      0.76  0.30   79   0.18
 5.500      1.02  0.24  148   0.19
10.000      1.80  0.46 -106   0.37
!
! (c) 2013  Infineon Technologies AG, Munich
