! Infineon Technologies  Discrete & RF Semiconductors
! BFP640ESD
! VCE =  3.0 V,  IC =  16 mA
! Common Emitter S-Parameters:                            Jan 2016
# GHz  S  MA  R  50
!  f         S11            S21            S12            S22
! GHz     MAG   ANG      MAG   ANG      MAG   ANG      MAG   ANG
 0.010  0.7650   -2.1  40.852  179.9  0.0006   94.7  0.9660    2.9
 0.015  0.7610   -2.4  40.736  178.8  0.0008   91.6  0.9773    0.9
 0.020  0.7571   -2.8  40.636  177.7  0.0010   89.7  0.9897   -1.1
 0.025  0.7570   -3.4  40.578  177.1  0.0012   88.0  0.9897   -1.5
 0.030  0.7569   -4.0  40.525  176.5  0.0014   86.9  0.9898   -1.9
 0.035  0.7570   -4.7  40.475  176.0  0.0016   86.0  0.9899   -2.4
 0.040  0.7571   -5.3  40.430  175.4  0.0019   85.3  0.9901   -2.8
 0.045  0.7574   -5.9  40.389  174.8  0.0021   84.8  0.9903   -3.2
 0.050  0.7577   -6.5  40.352  174.2  0.0023   84.4  0.9906   -3.6
 0.055  0.7566   -7.1  40.323  173.7  0.0025   83.9  0.9897   -4.0
 0.060  0.7555   -7.7  40.296  173.2  0.0028   83.5  0.9889   -4.4
 0.065  0.7546   -8.4  40.273  172.8  0.0030   83.2  0.9881   -4.8
 0.070  0.7537   -9.0  40.252  172.3  0.0032   82.9  0.9873   -5.2
 0.075  0.7530   -9.6  40.234  171.8  0.0034   82.6  0.9866   -5.6
 0.080  0.7523  -10.3  40.218  171.3  0.0037   82.4  0.9860   -6.0
 0.085  0.7517  -10.9  40.206  170.8  0.0039   82.2  0.9854   -6.4
 0.090  0.7512  -11.5  40.197  170.4  0.0041   82.0  0.9849   -6.8
 0.095  0.7508  -12.2  40.190  169.9  0.0044   81.8  0.9844   -7.2
 0.100  0.7505  -12.8  40.186  169.4  0.0046   81.7  0.9839   -7.6
 0.105  0.7490  -13.4  40.107  168.9  0.0048   81.5  0.9823   -8.0
 0.110  0.7476  -14.0  40.031  168.3  0.0050   81.3  0.9807   -8.4
 0.115  0.7463  -14.7  39.959  167.8  0.0052   81.2  0.9792   -8.8
 0.120  0.7451  -15.3  39.891  167.3  0.0054   81.0  0.9777   -9.1
 0.125  0.7440  -15.9  39.826  166.7  0.0056   80.9  0.9762   -9.5
 0.130  0.7429  -16.6  39.764  166.2  0.0059   80.7  0.9748   -9.9
 0.135  0.7420  -17.2  39.706  165.6  0.0061   80.6  0.9735  -10.3
 0.140  0.7411  -17.8  39.652  165.1  0.0063   80.5  0.9722  -10.7
 0.145  0.7404  -18.5  39.601  164.5  0.0065   80.4  0.9709  -11.1
 0.150  0.7397  -19.1  39.554  164.0  0.0067   80.3  0.9697  -11.5
 0.155  0.7379  -19.7  39.459  163.5  0.0069   79.9  0.9676  -11.9
 0.160  0.7361  -20.3  39.367  163.0  0.0071   79.6  0.9656  -12.2
 0.165  0.7344  -20.9  39.277  162.5  0.0073   79.2  0.9636  -12.6
 0.170  0.7328  -21.5  39.191  162.0  0.0075   78.9  0.9616  -12.9
 0.175  0.7312  -22.1  39.107  161.5  0.0077   78.6  0.9597  -13.3
 0.180  0.7298  -22.7  39.027  161.0  0.0080   78.3  0.9578  -13.6
 0.185  0.7284  -23.3  38.949  160.5  0.0082   78.0  0.9560  -14.0
 0.190  0.7271  -23.9  38.875  160.0  0.0084   77.8  0.9542  -14.4
 0.195  0.7259  -24.5  38.803  159.5  0.0086   77.5  0.9524  -14.7
 0.200  0.7248  -25.1  38.735  159.0  0.0088   77.3  0.9507  -15.1
 0.220  0.7156  -27.5  38.237  157.0  0.0096   76.1  0.9411  -16.4
 0.240  0.7076  -29.9  37.786  155.0  0.0104   75.1  0.9320  -17.7
 0.260  0.6999  -32.2  37.349  153.1  0.0112   74.2  0.9223  -19.0
 0.280  0.6923  -34.4  36.919  151.3  0.0119   73.4  0.9120  -20.4
 0.300  0.6857  -36.7  36.526  149.5  0.0126   72.6  0.9022  -21.7
 0.320  0.6758  -38.9  36.008  147.8  0.0133   71.6  0.8910  -22.9
 0.340  0.6670  -41.2  35.522  146.1  0.0140   70.7  0.8802  -24.1
 0.360  0.6583  -43.3  35.016  144.4  0.0146   69.9  0.8690  -25.2
 0.380  0.6494  -45.3  34.489  142.7  0.0153   69.1  0.8575  -26.3
 0.400  0.6413  -47.4  33.991  141.0  0.0159   68.4  0.8463  -27.4
 0.420  0.6319  -49.4  33.453  139.6  0.0165   67.7  0.8350  -28.3
 0.440  0.6233  -51.4  32.937  138.1  0.0171   67.0  0.8239  -29.3
 0.450  0.6193  -52.4  32.687  137.3  0.0174   66.7  0.8184  -29.8
 0.460  0.6144  -53.3  32.421  136.6  0.0177   66.3  0.8126  -30.3
 0.480  0.6050  -55.2  31.905  135.1  0.0182   65.7  0.8011  -31.2
 0.500  0.5964  -57.2  31.410  133.6  0.0187   65.0  0.7899  -32.2
 0.520  0.5870  -58.9  30.876  132.3  0.0192   64.4  0.7787  -32.9
 0.540  0.5781  -60.6  30.358  131.0  0.0197   63.9  0.7677  -33.7
 0.560  0.5698  -62.3  29.856  129.7  0.0202   63.4  0.7568  -34.4
 0.580  0.5620  -64.1  29.372  128.3  0.0207   62.9  0.7460  -35.2
 0.600  0.5548  -66.0  28.906  126.8  0.0212   62.4  0.7354  -36.0
 0.620  0.5462  -67.6  28.435  125.8  0.0216   62.0  0.7256  -36.6
 0.640  0.5381  -69.2  27.973  124.7  0.0220   61.6  0.7158  -37.3
 0.660  0.5304  -70.8  27.522  123.5  0.0225   61.2  0.7061  -37.9
 0.680  0.5232  -72.5  27.081  122.4  0.0229   60.9  0.6966  -38.6
 0.700  0.5164  -74.3  26.652  121.2  0.0233   60.5  0.6871  -39.3
 0.720  0.5092  -75.7  26.215  120.2  0.0237   60.2  0.6782  -39.8
 0.740  0.5023  -77.1  25.786  119.3  0.0241   59.9  0.6693  -40.4
 0.760  0.4957  -78.6  25.364  118.2  0.0245   59.6  0.6605  -40.9
 0.780  0.4895  -80.1  24.951  117.2  0.0249   59.3  0.6518  -41.5
 0.800  0.4836  -81.6  24.546  116.1  0.0253   59.0  0.6431  -42.1
 0.820  0.4772  -82.9  24.173  115.2  0.0257   58.8  0.6354  -42.6
 0.840  0.4711  -84.3  23.805  114.3  0.0261   58.5  0.6276  -43.0
 0.860  0.4652  -85.8  23.443  113.4  0.0264   58.3  0.6200  -43.5
 0.880  0.4597  -87.2  23.088  112.5  0.0268   58.1  0.6124  -44.0
 0.900  0.4544  -88.7  22.739  111.5  0.0272   57.9  0.6048  -44.5
 0.920  0.4488  -90.0  22.398  110.7  0.0275   57.7  0.5976  -44.9
 0.940  0.4435  -91.2  22.062  109.9  0.0279   57.6  0.5903  -45.3
 0.960  0.4383  -92.6  21.729  109.1  0.0282   57.4  0.5832  -45.7
 0.980  0.4334  -93.9  21.402  108.3  0.0286   57.3  0.5760  -46.2
 1.000  0.4288  -95.3  21.079  107.4  0.0289   57.1  0.5689  -46.6
 1.020  0.4242  -96.5  20.780  106.7  0.0292   57.0  0.5628  -46.9
 1.040  0.4198  -97.7  20.485  106.0  0.0296   56.9  0.5568  -47.3
 1.060  0.4155  -98.9  20.192  105.2  0.0299   56.7  0.5508  -47.7
 1.080  0.4115 -100.1  19.903  104.5  0.0303   56.6  0.5448  -48.0
 1.100  0.4076 -101.4  19.618  103.7  0.0306   56.5  0.5388  -48.4
 1.120  0.4037 -102.6  19.355  103.0  0.0309   56.4  0.5333  -48.7
 1.140  0.3999 -103.7  19.096  102.4  0.0313   56.3  0.5277  -49.1
 1.160  0.3963 -104.9  18.838  101.7  0.0316   56.2  0.5222  -49.5
 1.180  0.3929 -106.2  18.584  100.9  0.0320   56.1  0.5168  -49.8
 1.200  0.3897 -107.4  18.333  100.2  0.0323   56.0  0.5113  -50.2
 1.220  0.3864 -108.5  18.097   99.6  0.0326   55.9  0.5065  -50.5
 1.240  0.3833 -109.5  17.863   99.0  0.0329   55.8  0.5017  -50.7
 1.260  0.3803 -110.6  17.632   98.3  0.0333   55.8  0.4969  -51.0
 1.280  0.3774 -111.8  17.402   97.7  0.0336   55.7  0.4922  -51.3
 1.300  0.3747 -112.9  17.175   97.0  0.0339   55.6  0.4874  -51.6
 1.320  0.3718 -113.9  16.958   96.4  0.0342   55.6  0.4829  -51.9
 1.340  0.3690 -115.0  16.744   95.8  0.0345   55.5  0.4784  -52.1
 1.360  0.3663 -116.1  16.530   95.2  0.0349   55.5  0.4740  -52.4
 1.380  0.3638 -117.2  16.319   94.6  0.0352   55.4  0.4695  -52.7
 1.400  0.3614 -118.3  16.110   94.0  0.0355   55.4  0.4651  -53.0
 1.420  0.3591 -119.2  15.925   93.5  0.0358   55.4  0.4613  -53.2
 1.440  0.3569 -120.1  15.741   93.0  0.0362   55.3  0.4576  -53.5
 1.460  0.3548 -121.1  15.559   92.5  0.0365   55.3  0.4539  -53.7
 1.480  0.3528 -122.0  15.378   91.9  0.0369   55.2  0.4501  -54.0
 1.500  0.3509 -123.0  15.198   91.4  0.0372   55.2  0.4464  -54.2
 1.520  0.3490 -124.0  15.030   90.9  0.0375   55.1  0.4430  -54.5
 1.540  0.3472 -124.9  14.863   90.4  0.0379   55.1  0.4395  -54.7
 1.560  0.3455 -125.9  14.698   89.8  0.0382   55.0  0.4361  -55.0
 1.580  0.3439 -126.9  14.534   89.3  0.0386   55.0  0.4327  -55.2
 1.600  0.3424 -127.9  14.371   88.7  0.0389   54.9  0.4293  -55.5
 1.620  0.3405 -128.8  14.220   88.2  0.0392   54.9  0.4262  -55.7
 1.640  0.3388 -129.7  14.071   87.7  0.0395   54.8  0.4231  -55.9
 1.660  0.3370 -130.6  13.922   87.2  0.0399   54.8  0.4200  -56.2
 1.680  0.3354 -131.5  13.774   86.7  0.0402   54.7  0.4169  -56.4
 1.700  0.3339 -132.4  13.628   86.2  0.0405   54.7  0.4138  -56.6
 1.720  0.3326 -133.2  13.484   85.7  0.0408   54.7  0.4111  -56.8
 1.740  0.3313 -134.1  13.340   85.3  0.0412   54.6  0.4084  -57.0
 1.760  0.3301 -134.9  13.197   84.8  0.0415   54.6  0.4057  -57.3
 1.780  0.3290 -135.7  13.056   84.3  0.0419   54.5  0.4031  -57.5
 1.800  0.3280 -136.6  12.915   83.8  0.0422   54.5  0.4004  -57.7
 1.820  0.3268 -137.5  12.793   83.4  0.0426   54.4  0.3975  -58.0
 1.840  0.3257 -138.5  12.672   82.9  0.0429   54.4  0.3947  -58.2
 1.860  0.3247 -139.4  12.551   82.5  0.0433   54.3  0.3918  -58.5
 1.880  0.3237 -140.3  12.431   82.1  0.0436   54.3  0.3889  -58.8
 1.900  0.3229 -141.3  12.312   81.6  0.0440   54.2  0.3861  -59.1
 1.920  0.3219 -142.0  12.196   81.2  0.0444   54.2  0.3838  -59.3
 1.940  0.3209 -142.7  12.081   80.7  0.0447   54.1  0.3815  -59.4
 1.960  0.3200 -143.4  11.967   80.3  0.0451   54.1  0.3792  -59.6
 1.980  0.3192 -144.2  11.854   79.9  0.0454   54.0  0.3769  -59.7
 2.000  0.3184 -144.9  11.741   79.4  0.0458   54.0  0.3746  -59.9
 2.020  0.3176 -145.7  11.639   79.0  0.0462   53.9  0.3721  -60.1
 2.040  0.3168 -146.5  11.538   78.6  0.0465   53.9  0.3696  -60.4
 2.060  0.3161 -147.4  11.437   78.2  0.0469   53.8  0.3671  -60.6
 2.080  0.3154 -148.2  11.337   77.8  0.0472   53.7  0.3647  -60.9
 2.100  0.3148 -149.0  11.237   77.3  0.0476   53.6  0.3622  -61.2
 2.120  0.3143 -149.8  11.138   76.9  0.0480   53.6  0.3597  -61.4
 2.140  0.3139 -150.7  11.040   76.5  0.0483   53.5  0.3573  -61.7
 2.160  0.3135 -151.5  10.942   76.0  0.0487   53.4  0.3549  -62.0
 2.180  0.3132 -152.4  10.845   75.6  0.0490   53.4  0.3524  -62.2
 2.200  0.3129 -153.2  10.749   75.1  0.0494   53.3  0.3500  -62.5
 2.220  0.3125 -154.0  10.663   74.7  0.0498   53.2  0.3477  -62.8
 2.240  0.3121 -154.8  10.578   74.4  0.0501   53.2  0.3453  -63.0
 2.260  0.3118 -155.5  10.493   74.0  0.0505   53.1  0.3430  -63.3
 2.280  0.3116 -156.3  10.409   73.6  0.0509   53.0  0.3407  -63.5
 2.300  0.3114 -157.1  10.325   73.2  0.0512   52.9  0.3384  -63.8
 2.320  0.3113 -157.9  10.241   72.8  0.0516   52.9  0.3360  -64.1
 2.340  0.3112 -158.7  10.158   72.4  0.0520   52.8  0.3338  -64.4
 2.360  0.3112 -159.4  10.075   72.0  0.0524   52.7  0.3315  -64.6
 2.380  0.3113 -160.2   9.993   71.6  0.0527   52.7  0.3292  -64.9
 2.400  0.3114 -161.0   9.912   71.2  0.0531   52.6  0.3269  -65.2
 2.420  0.3114 -161.8   9.836   70.8  0.0535   52.5  0.3246  -65.5
 2.440  0.3115 -162.5   9.761   70.5  0.0538   52.4  0.3224  -65.8
 2.460  0.3117 -163.3   9.685   70.1  0.0542   52.3  0.3201  -66.1
 2.480  0.3119 -164.0   9.611   69.7  0.0546   52.2  0.3179  -66.4
 2.500  0.3121 -164.8   9.536   69.3  0.0549   52.1  0.3156  -66.7
 2.520  0.3124 -165.5   9.463   68.9  0.0553   52.0  0.3134  -67.1
 2.540  0.3128 -166.3   9.389   68.5  0.0557   51.9  0.3112  -67.4
 2.560  0.3132 -167.0   9.316   68.1  0.0561   51.8  0.3090  -67.7
 2.580  0.3137 -167.8   9.244   67.7  0.0564   51.7  0.3068  -68.1
 2.600  0.3142 -168.5   9.172   67.3  0.0568   51.6  0.3046  -68.4
 2.620  0.3145 -169.2   9.107   67.0  0.0572   51.5  0.3026  -68.7
 2.640  0.3148 -169.8   9.042   66.6  0.0576   51.4  0.3006  -69.0
 2.660  0.3152 -170.5   8.978   66.3  0.0579   51.3  0.2986  -69.3
 2.680  0.3156 -171.1   8.914   65.9  0.0583   51.2  0.2966  -69.7
 2.700  0.3160 -171.8   8.850   65.6  0.0587   51.1  0.2946  -70.0
 2.720  0.3165 -172.4   8.787   65.2  0.0591   51.0  0.2926  -70.3
 2.740  0.3170 -173.1   8.724   64.8  0.0595   51.0  0.2906  -70.7
 2.760  0.3176 -173.7   8.661   64.5  0.0598   50.9  0.2887  -71.0
 2.780  0.3182 -174.4   8.599   64.1  0.0602   50.8  0.2867  -71.3
 2.800  0.3188 -175.0   8.537   63.7  0.0606   50.7  0.2848  -71.7
 2.820  0.3192 -175.6   8.481   63.4  0.0610   50.6  0.2830  -72.0
 2.840  0.3197 -176.3   8.425   63.0  0.0614   50.4  0.2813  -72.3
 2.860  0.3202 -176.9   8.369   62.7  0.0618   50.3  0.2795  -72.7
 2.880  0.3208 -177.5   8.314   62.4  0.0622   50.2  0.2778  -73.0
 2.900  0.3214 -178.2   8.259   62.0  0.0625   50.1  0.2760  -73.3
 2.920  0.3221 -178.8   8.204   61.7  0.0629   50.0  0.2743  -73.7
 2.940  0.3227 -179.4   8.149   61.3  0.0633   49.8  0.2726  -74.0
 2.960  0.3235  179.9   8.095   60.9  0.0637   49.7  0.2709  -74.4
 2.980  0.3242  179.3   8.041   60.6  0.0641   49.6  0.2692  -74.7
 3.000  0.3250  178.7   7.988   60.2  0.0645   49.5  0.2675  -75.1
 3.100  0.3276  175.7   7.751   58.7  0.0664   48.8  0.2592  -76.9
 3.200  0.3311  172.8   7.520   57.1  0.0684   48.2  0.2512  -78.7
 3.300  0.3354  170.0   7.295   55.4  0.0704   47.5  0.2434  -80.7
 3.400  0.3405  167.3   7.077   53.5  0.0723   47.0  0.2360  -82.8
 3.500  0.3463  164.6   6.867   51.6  0.0743   46.4  0.2289  -85.1
 3.600  0.3505  162.0   6.684   50.1  0.0763   45.6  0.2211  -87.4
 3.700  0.3554  159.4   6.505   48.5  0.0783   44.8  0.2137  -89.8
 3.800  0.3610  156.9   6.332   46.9  0.0804   44.0  0.2067  -92.4
 3.900  0.3673  154.4   6.165   45.1  0.0824   43.3  0.2001  -95.2
 4.000  0.3742  152.1   6.003   43.3  0.0845   42.6  0.1941  -98.2
 4.100  0.3799  149.9   5.850   41.9  0.0864   41.6  0.1875 -101.5
 4.200  0.3862  147.8   5.702   40.3  0.0882   40.7  0.1816 -105.0
 4.300  0.3930  145.7   5.557   38.7  0.0901   39.8  0.1764 -108.7
 4.400  0.4003  143.7   5.417   37.1  0.0921   39.0  0.1720 -112.6
 4.500  0.4081  141.8   5.282   35.3  0.0940   38.2  0.1684 -116.7
 4.600  0.4130  140.2   5.157   34.0  0.0958   37.3  0.1646 -119.8
 4.700  0.4183  138.6   5.034   32.6  0.0976   36.5  0.1613 -123.1
 4.800  0.4238  137.1   4.915   31.2  0.0994   35.6  0.1586 -126.5
 4.900  0.4297  135.6   4.799   29.7  0.1012   34.9  0.1565 -130.0
 5.000  0.4358  134.2   4.686   28.1  0.1031   34.1  0.1549 -133.6
 5.100  0.4399  132.9   4.589   26.8  0.1049   33.2  0.1521 -136.6
 5.200  0.4441  131.6   4.494   25.5  0.1066   32.3  0.1497 -139.7
 5.300  0.4487  130.3   4.401   24.1  0.1084   31.5  0.1478 -143.0
 5.400  0.4534  129.1   4.311   22.7  0.1103   30.7  0.1464 -146.3
 5.500  0.4583  127.9   4.224   21.2  0.1121   29.9  0.1455 -149.6
 5.600  0.4629  126.7   4.146   19.9  0.1139   29.0  0.1438 -153.4
 5.700  0.4677  125.5   4.070   18.6  0.1157   28.2  0.1427 -157.3
 5.800  0.4727  124.3   3.997   17.3  0.1175   27.4  0.1424 -161.3
 5.900  0.4779  123.1   3.926   15.9  0.1194   26.6  0.1426 -165.2
 6.000  0.4833  122.0   3.857   14.4  0.1213   25.8  0.1436 -169.1
 6.100  0.4877  120.7   3.793   13.1  0.1232   24.8  0.1450 -172.6
 6.200  0.4924  119.5   3.730   11.7  0.1252   23.9  0.1469 -176.1
 6.300  0.4973  118.3   3.670   10.3  0.1272   23.0  0.1493 -179.4
 6.400  0.5025  117.1   3.612    8.9  0.1292   22.1  0.1522  177.4
 6.500  0.5078  115.9   3.557    7.4  0.1313   21.2  0.1556  174.3
 6.600  0.5110  114.5   3.501    6.0  0.1332   20.2  0.1564  171.7
 6.800  0.5184  111.8   3.396    3.2  0.1373   18.3  0.1590  166.5
 7.000  0.5269  109.1   3.299    0.2  0.1414   16.5  0.1628  161.5
 7.200  0.5344  106.2   3.200   -2.6  0.1452   14.2  0.1686  155.4
 7.400  0.5433  103.4   3.108   -5.6  0.1493   12.0  0.1762  149.7
 7.600  0.5542  100.5   3.013   -8.5  0.1528    9.7  0.1865  143.8
 7.800  0.5674   97.5   2.912  -11.6  0.1558    7.3  0.1999  137.9
 8.000  0.5821   94.7   2.820  -14.8  0.1591    4.9  0.2152  132.7
 8.200  0.5949   91.8   2.719  -17.4  0.1607    2.7  0.2289  126.8
 8.400  0.6091   89.0   2.623  -20.1  0.1626    0.6  0.2447  121.6
 8.600  0.6250   86.5   2.538  -22.8  0.1644   -1.4  0.2621  116.5
 8.800  0.6423   84.1   2.462  -25.3  0.1661   -3.3  0.2813  111.5
 9.000  0.6607   81.9   2.390  -27.9  0.1680   -5.1  0.3025  107.1
 9.200  0.6857   79.6   2.326  -30.4  0.1696   -7.0  0.3295  103.1
 9.400  0.7117   77.5   2.267  -33.1  0.1714   -8.8  0.3579   99.8
 9.600  0.7353   75.3   2.194  -35.8  0.1728  -10.7  0.3864   97.1
 9.800  0.7570   72.9   2.107  -38.6  0.1740  -12.8  0.4148   94.8
10.000  0.7798   70.7   2.025  -41.7  0.1754  -14.8  0.4437   92.9
!
!  f       NFmin   Gammaopt  rn/50
! GHz       dB    MAG  ANG    -
 0.450      0.81  0.03   -4   0.09
 0.900      0.83  0.01  -11   0.09
 1.900      0.84  0.01  -88   0.12
 2.400      0.85  0.03 -106   0.11
 5.500      1.11  0.34 -116   0.13
10.000      1.73  0.58  -77   0.67
!
! (c) 2016  Infineon Technologies AG, Munich
