! Infineon Technologies  Discrete & RF Semiconductors
! BFP640
! VCE =  1.0 V,  IC =  42 mA
! Common Emitter S-Parameters:                            Apr 2013
# GHz  S  MA  R  50
!  f         S11            S21            S12            S22
! GHz     MAG   ANG      MAG   ANG      MAG   ANG      MAG   ANG
 0.030  0.1089  -42.8  17.916  174.6  0.0038   34.4  0.2347   -2.8
 0.040  0.1225  -53.5  17.670  172.7  0.0052   29.7  0.2365   -5.1
 0.050  0.1411  -60.9  17.690  171.0  0.0057   41.3  0.2373   -6.7
 0.060  0.1552  -67.0  17.542  168.9  0.0047   37.1  0.2354   -8.0
 0.070  0.1734  -73.6  17.393  167.0  0.0060   50.1  0.2350   -9.6
 0.080  0.1893  -79.4  17.214  165.2  0.0068   43.7  0.2325  -10.9
 0.090  0.2068  -83.2  17.114  163.4  0.0068   49.6  0.2300  -12.7
 0.100  0.2246  -87.3  17.010  161.6  0.0073   51.5  0.2291  -14.2
 0.110  0.2427  -91.0  16.918  159.7  0.0085   50.4  0.2258  -15.6
 0.120  0.2599  -94.6  16.674  157.9  0.0084   49.4  0.2257  -16.9
 0.130  0.2769  -97.7  16.456  156.2  0.0085   54.8  0.2223  -18.3
 0.140  0.2925 -100.5  16.157  154.5  0.0095   56.1  0.2209  -19.4
 0.150  0.3088 -103.1  15.993  152.9  0.0096   51.6  0.2167  -21.0
 0.200  0.3804 -114.1  14.930  145.1  0.0121   54.3  0.2040  -27.2
 0.250  0.4399 -123.1  13.752  138.4  0.0143   55.6  0.1898  -32.0
 0.300  0.4868 -130.6  12.664  132.4  0.0161   54.0  0.1761  -36.3
 0.350  0.5256 -137.1  11.675  127.2  0.0178   54.8  0.1612  -40.3
 0.400  0.5569 -142.5  10.742  122.5  0.0193   53.5  0.1485  -43.5
 0.450  0.5803 -147.3   9.993  118.4  0.0209   53.3  0.1360  -46.2
 0.500  0.5994 -151.4   9.296  114.9  0.0222   53.6  0.1250  -48.4
 0.600  0.6297 -158.8   8.059  108.6  0.0247   53.0  0.1060  -52.3
 0.700  0.6496 -164.8   7.112  103.5  0.0273   54.0  0.0886  -54.7
 0.800  0.6647 -169.8   6.371   99.1  0.0295   53.7  0.0739  -56.9
 0.900  0.6764 -174.3   5.740   95.3  0.0320   54.0  0.0604  -58.3
 1.000  0.6863 -178.2   5.213   91.9  0.0343   54.1  0.0499  -60.3
 1.100  0.6939  178.1   4.746   88.8  0.0367   54.0  0.0394  -60.9
 1.200  0.6995  174.9   4.387   86.0  0.0390   53.8  0.0311  -63.0
 1.300  0.7045  171.8   4.064   83.4  0.0414   53.6  0.0236  -62.8
 1.400  0.7097  169.0   3.796   80.9  0.0438   53.5  0.0170  -63.8
 1.500  0.7136  166.2   3.549   78.5  0.0462   53.1  0.0109  -54.6
 1.600  0.7185  163.6   3.332   76.2  0.0484   52.7  0.0052  -46.1
 1.700  0.7226  161.1   3.139   74.0  0.0510   52.1  0.0038   54.2
 1.800  0.7257  158.7   2.972   71.8  0.0533   51.6  0.0076   86.1
 1.900  0.7300  156.4   2.818   69.8  0.0558   51.1  0.0144   94.0
 2.000  0.7325  154.0   2.677   67.7  0.0582   50.3  0.0191   98.1
 2.100  0.7342  152.2   2.533   65.8  0.0603   49.8  0.0226  103.1
 2.200  0.7356  150.1   2.424   63.9  0.0626   49.2  0.0273  101.9
 2.300  0.7389  147.9   2.316   62.0  0.0648   48.5  0.0322  100.8
 2.400  0.7405  146.0   2.231   60.2  0.0673   47.7  0.0370  100.4
 2.500  0.7434  143.9   2.132   58.4  0.0696   47.0  0.0428   98.7
 2.600  0.7454  141.9   2.050   56.6  0.0718   46.4  0.0485   98.7
 2.700  0.7489  140.0   1.965   54.8  0.0741   45.5  0.0542   97.5
 2.800  0.7506  138.1   1.897   53.1  0.0762   44.6  0.0599   97.9
 2.900  0.7529  136.3   1.831   51.4  0.0783   43.9  0.0654   97.4
 3.000  0.7551  134.5   1.769   49.7  0.0804   43.1  0.0715   98.3
 3.100  0.7582  132.7   1.705   48.1  0.0826   42.1  0.0772   98.2
 3.200  0.7612  130.9   1.649   46.4  0.0848   41.2  0.0825   98.8
 3.300  0.7630  129.1   1.603   44.8  0.0868   40.2  0.0876   98.7
 3.400  0.7670  127.4   1.549   43.2  0.0886   39.4  0.0931   99.1
 3.500  0.7691  125.7   1.503   41.6  0.0908   38.4  0.0987   98.8
 3.600  0.7729  124.1   1.453   40.1  0.0924   37.5  0.1046   99.1
 3.700  0.7754  122.5   1.413   38.6  0.0944   36.6  0.1100   98.9
 3.800  0.7788  120.9   1.372   37.1  0.0963   35.8  0.1157   99.0
 3.900  0.7804  119.4   1.336   35.6  0.0981   34.8  0.1212   99.2
 4.000  0.7835  117.9   1.301   34.2  0.1000   34.0  0.1266   99.7
 4.100  0.7860  116.4   1.261   32.6  0.1015   33.2  0.1317   99.8
 4.200  0.7889  115.0   1.231   31.3  0.1032   32.2  0.1362  100.1
 4.300  0.7908  113.7   1.199   29.9  0.1050   31.4  0.1401  100.1
 4.400  0.7936  112.4   1.173   28.5  0.1067   30.6  0.1442  100.0
 4.500  0.7955  111.1   1.142   27.2  0.1083   29.7  0.1485  100.0
 4.600  0.7989  109.9   1.114   25.8  0.1101   29.0  0.1524   99.8
 4.700  0.7998  108.8   1.088   24.6  0.1116   28.1  0.1562   99.5
 4.800  0.8023  107.7   1.066   23.3  0.1132   27.2  0.1595   99.2
 4.900  0.8030  106.5   1.043   22.0  0.1149   26.4  0.1634   98.7
 5.000  0.8064  105.5   1.017   20.8  0.1166   25.6  0.1670   98.3
 5.100  0.8063  104.4   0.998   19.5  0.1182   24.8  0.1700   97.7
 5.200  0.8088  103.4   0.978   18.3  0.1198   24.1  0.1731   97.0
 5.300  0.8077  102.4   0.962   17.1  0.1215   23.2  0.1762   96.4
 5.400  0.8097  101.4   0.942   15.9  0.1232   22.4  0.1794   95.4
 5.500  0.8095  100.4   0.925   14.7  0.1247   21.6  0.1829   94.7
 5.600  0.8113   99.5   0.905   13.5  0.1265   20.8  0.1861   93.9
 5.700  0.8108   98.6   0.892   12.3  0.1280   20.1  0.1896   93.0
 5.800  0.8122   97.6   0.876   11.1  0.1298   19.2  0.1931   92.2
 5.900  0.8126   96.8   0.866   10.0  0.1317   18.4  0.1970   91.4
 6.000  0.8137   95.7   0.850    8.7  0.1334   17.5  0.2009   90.7
 6.100  0.8154   94.9   0.837    7.6  0.1351   16.6  0.2051   90.1
 6.200  0.8156   93.8   0.825    6.3  0.1367   15.6  0.2083   89.3
 6.300  0.8175   92.9   0.814    5.1  0.1385   14.6  0.2130   88.6
 6.400  0.8182   91.8   0.801    3.9  0.1402   13.7  0.2167   88.0
 6.500  0.8209   90.7   0.789    2.6  0.1418   12.7  0.2213   87.3
 6.600  0.8214   89.6   0.777    1.3  0.1432   11.8  0.2251   86.7
 6.700  0.8233   88.6   0.769    0.1  0.1447   10.9  0.2290   86.0
 6.800  0.8250   87.4   0.757   -1.1  0.1462    9.8  0.2332   85.3
 6.900  0.8268   86.3   0.747   -2.4  0.1476    8.9  0.2379   84.7
 7.000  0.8281   85.0   0.734   -3.7  0.1490    7.8  0.2424   84.2
 7.100  0.8305   83.9   0.725   -4.9  0.1502    6.9  0.2462   83.6
 7.200  0.8321   82.7   0.715   -6.2  0.1515    5.8  0.2501   83.0
 7.300  0.8339   81.6   0.708   -7.5  0.1526    4.8  0.2544   82.2
 7.400  0.8353   80.3   0.696   -8.7  0.1539    3.9  0.2587   81.6
 7.500  0.8378   79.1   0.687  -10.0  0.1551    2.8  0.2637   80.7
 7.600  0.8400   77.8   0.674  -11.3  0.1558    1.7  0.2687   80.0
 7.700  0.8428   76.7   0.665  -12.5  0.1569    0.7  0.2735   79.1
 7.800  0.8443   75.4   0.658  -13.7  0.1579   -0.3  0.2784   78.2
 7.900  0.8474   74.3   0.646  -15.0  0.1584   -1.3  0.2844   77.2
 8.000  0.8495   73.0   0.638  -16.2  0.1593   -2.3  0.2900   76.4
 8.500  0.8620   67.4   0.588  -22.0  0.1617   -7.1  0.3230   71.4
 9.000  0.8723   62.4   0.540  -26.9  0.1621  -11.4  0.3627   67.5
 9.500  0.8829   58.4   0.499  -30.7  0.1617  -14.7  0.4031   65.1
10.000  0.8921   55.6   0.467  -33.7  0.1622  -17.1  0.4356   64.8
!
!  f       NFmin   Gammaopt  rn/50
! GHz       dB    MAG  ANG    -
!
! noise parameter not available yet for this operation point!
!
! (c) 2013  Infineon Technologies AG, Munich
