! Infineon Technologies  Discrete & RF Semiconductors
! BFP640F
! VCE =  3.5 V,  IC =  30 mA
! Common Emitter S-Parameters:                            Apr 2013
# GHz  S  MA  R  50
!  f         S11            S21            S12            S22
! GHz     MAG   ANG      MAG   ANG      MAG   ANG      MAG   ANG
 0.030  0.5768   -4.8  57.027  175.1  0.0015   63.3  0.9789   -1.9
 0.040  0.5757   -6.4  56.878  173.7  0.0020   71.5  0.9799   -3.1
 0.050  0.5684   -8.3  57.160  172.1  0.0012   62.9  0.9766   -4.4
 0.060  0.5698  -10.0  56.746  170.3  0.0032   60.1  0.9771   -5.6
 0.070  0.5686  -11.3  56.568  168.8  0.0028   96.2  0.9770   -6.4
 0.080  0.5651  -13.3  56.316  167.3  0.0046   79.2  0.9727   -7.7
 0.090  0.5636  -14.7  55.962  165.8  0.0040   84.9  0.9707   -8.7
 0.100  0.5611  -16.4  55.644  164.4  0.0044   86.3  0.9655   -9.8
 0.110  0.5570  -18.1  55.321  162.8  0.0050   86.5  0.9601  -10.8
 0.120  0.5529  -19.7  54.914  161.3  0.0046   86.9  0.9549  -12.0
 0.130  0.5485  -21.2  54.395  159.9  0.0059   85.2  0.9479  -12.8
 0.140  0.5454  -22.7  53.941  158.5  0.0059   76.8  0.9421  -13.8
 0.150  0.5400  -24.3  53.582  157.0  0.0064   81.7  0.9346  -14.8
 0.200  0.5163  -31.6  51.019  150.3  0.0085   79.0  0.8967  -19.0
 0.250  0.4888  -38.3  48.167  144.2  0.0102   76.3  0.8541  -22.6
 0.300  0.4616  -44.5  45.226  138.7  0.0115   75.7  0.8128  -25.7
 0.350  0.4340  -50.1  42.320  133.9  0.0134   75.0  0.7706  -28.4
 0.400  0.4073  -55.4  39.654  129.5  0.0151   73.7  0.7311  -30.5
 0.450  0.3828  -60.0  37.097  125.7  0.0163   73.1  0.6944  -32.2
 0.500  0.3598  -64.4  34.737  122.3  0.0178   73.6  0.6609  -33.6
 0.600  0.3207  -72.4  30.629  116.4  0.0207   73.4  0.6022  -35.8
 0.700  0.2878  -79.6  27.216  111.7  0.0235   72.0  0.5520  -37.2
 0.800  0.2601  -86.4  24.380  107.8  0.0257   71.3  0.5104  -38.1
 0.900  0.2371  -92.5  22.044  104.5  0.0284   71.8  0.4744  -38.7
 1.000  0.2196  -98.3  20.053  101.7  0.0310   71.7  0.4451  -39.0
 1.100  0.2026 -104.2  18.389   99.2  0.0338   71.4  0.4188  -39.0
 1.200  0.1899 -109.6  16.954   97.0  0.0362   71.5  0.3973  -38.9
 1.300  0.1787 -115.0  15.725   95.0  0.0389   71.1  0.3780  -38.7
 1.400  0.1703 -120.2  14.656   93.2  0.0413   70.9  0.3622  -38.6
 1.500  0.1624 -125.1  13.719   91.6  0.0440   70.6  0.3480  -38.2
 1.600  0.1568 -130.2  12.897   90.0  0.0463   70.3  0.3358  -38.2
 1.700  0.1522 -134.9  12.167   88.6  0.0490   70.1  0.3241  -37.8
 1.800  0.1489 -139.4  11.507   87.3  0.0515   69.7  0.3150  -37.9
 1.900  0.1461 -143.8  10.924   86.0  0.0542   69.3  0.3057  -37.7
 2.000  0.1443 -147.9  10.397   84.7  0.0567   69.2  0.2979  -37.8
 2.100  0.1465 -151.9   9.914   83.4  0.0593   68.5  0.2890  -38.5
 2.200  0.1451 -155.5   9.478   82.3  0.0618   68.2  0.2836  -38.5
 2.300  0.1441 -159.1   9.063   81.2  0.0644   67.8  0.2779  -38.5
 2.400  0.1435 -162.3   8.698   80.1  0.0670   67.3  0.2736  -38.7
 2.500  0.1421 -165.6   8.358   79.0  0.0695   66.9  0.2698  -38.8
 2.600  0.1419 -168.7   8.042   78.0  0.0718   66.5  0.2660  -39.1
 2.700  0.1413 -171.5   7.750   77.0  0.0745   66.0  0.2634  -39.2
 2.800  0.1406 -174.5   7.479   76.0  0.0770   65.7  0.2606  -39.5
 2.900  0.1407 -176.7   7.223   75.0  0.0796   65.1  0.2589  -39.8
 3.000  0.1404 -179.4   6.993   74.1  0.0820   64.5  0.2565  -40.3
 3.100  0.1400  178.1   6.769   73.1  0.0844   64.2  0.2555  -40.5
 3.200  0.1397  175.7   6.561   72.2  0.0867   63.7  0.2541  -41.0
 3.300  0.1396  173.7   6.368   71.3  0.0894   63.3  0.2541  -41.4
 3.400  0.1399  171.1   6.184   70.4  0.0920   62.8  0.2531  -41.8
 3.500  0.1396  169.3   6.010   69.5  0.0944   62.4  0.2528  -42.2
 3.600  0.1400  166.9   5.849   68.6  0.0969   61.8  0.2526  -42.5
 3.700  0.1395  165.3   5.694   67.8  0.0995   61.4  0.2527  -42.9
 3.800  0.1401  163.0   5.553   66.9  0.1019   60.9  0.2521  -43.2
 3.900  0.1407  161.5   5.414   66.0  0.1042   60.3  0.2520  -43.6
 4.000  0.1413  159.6   5.282   65.2  0.1067   59.9  0.2512  -43.9
 4.100  0.1420  158.2   5.157   64.3  0.1092   59.4  0.2503  -44.2
 4.200  0.1434  156.4   5.040   63.5  0.1117   58.9  0.2496  -44.5
 4.300  0.1444  155.1   4.929   62.6  0.1140   58.4  0.2486  -44.9
 4.400  0.1466  153.7   4.821   61.8  0.1168   57.8  0.2477  -45.2
 4.500  0.1472  152.3   4.720   61.0  0.1190   57.3  0.2468  -45.4
 4.600  0.1499  151.0   4.624   60.1  0.1218   56.8  0.2456  -45.7
 4.700  0.1513  150.0   4.529   59.4  0.1240   56.3  0.2439  -45.9
 4.800  0.1536  148.7   4.442   58.5  0.1266   55.8  0.2424  -46.2
 4.900  0.1548  147.7   4.355   57.7  0.1292   55.2  0.2408  -46.4
 5.000  0.1570  146.6   4.273   56.8  0.1315   54.6  0.2392  -46.6
 5.100  0.1585  145.6   4.195   56.0  0.1341   54.1  0.2380  -46.9
 5.200  0.1603  144.4   4.119   55.2  0.1364   53.6  0.2363  -46.8
 5.300  0.1619  143.5   4.045   54.4  0.1389   53.1  0.2348  -47.2
 5.400  0.1641  142.5   3.974   53.5  0.1414   52.5  0.2337  -47.2
 5.500  0.1657  141.6   3.908   52.7  0.1440   51.9  0.2320  -47.6
 5.600  0.1673  140.5   3.841   51.9  0.1461   51.4  0.2311  -47.6
 5.700  0.1684  139.5   3.777   51.1  0.1485   50.8  0.2288  -47.7
 5.800  0.1702  138.4   3.717   50.2  0.1510   50.3  0.2283  -47.9
 5.900  0.1716  137.6   3.656   49.4  0.1534   49.7  0.2269  -47.9
 6.000  0.1726  136.3   3.600   48.5  0.1558   49.1  0.2257  -48.0
 6.100  0.1754  135.3   3.543   47.7  0.1582   48.6  0.2241  -48.1
 6.200  0.1752  134.0   3.486   46.9  0.1605   47.9  0.2231  -48.3
 6.300  0.1783  132.8   3.432   46.0  0.1629   47.3  0.2216  -48.3
 6.400  0.1789  131.9   3.379   45.2  0.1652   46.9  0.2195  -48.3
 6.500  0.1814  130.1   3.327   44.4  0.1674   46.3  0.2177  -48.3
 6.600  0.1833  129.1   3.276   43.5  0.1695   45.7  0.2155  -48.3
 6.700  0.1855  127.6   3.227   42.7  0.1718   45.1  0.2140  -48.2
 6.800  0.1878  126.4   3.178   42.0  0.1741   44.6  0.2122  -48.0
 6.900  0.1909  125.2   3.133   41.2  0.1765   44.1  0.2103  -47.7
 7.000  0.1926  123.8   3.087   40.4  0.1786   43.5  0.2081  -47.5
 7.100  0.1965  122.8   3.043   39.6  0.1810   43.0  0.2050  -47.1
 7.200  0.1996  121.7   3.000   38.9  0.1832   42.5  0.2023  -46.9
 7.300  0.2037  120.9   2.959   38.2  0.1857   42.0  0.1995  -46.6
 7.400  0.2072  120.0   2.920   37.4  0.1881   41.5  0.1963  -46.2
 7.500  0.2127  119.5   2.881   36.8  0.1905   41.0  0.1916  -45.8
 7.600  0.2176  118.7   2.848   36.0  0.1929   40.3  0.1870  -45.4
 7.700  0.2241  118.5   2.813   35.3  0.1955   39.8  0.1819  -44.7
 7.800  0.2306  118.0   2.779   34.6  0.1979   39.2  0.1757  -44.2
 7.900  0.2381  117.8   2.746   33.8  0.2001   38.6  0.1695  -43.2
 8.000  0.2455  117.4   2.716   33.0  0.2025   38.0  0.1625  -42.2
 8.500  0.2910  116.6   2.567   29.2  0.2138   34.9  0.1247  -31.9
 9.000  0.3382  115.4   2.431   25.5  0.2243   32.0  0.0954   -9.3
 9.500  0.3818  113.5   2.311   21.9  0.2351   29.2  0.0914   23.1
10.000  0.4216  111.2   2.202   18.1  0.2462   26.2  0.1089   52.1
!
!  f       NFmin   Gammaopt  rn/50
! GHz       dB    MAG  ANG    -
 0.450      1.02  0.21 -173   0.07
 0.900      1.03  0.22 -168   0.07
 1.500      1.05  0.23 -162   0.08
 1.900      1.08  0.24 -156   0.08
 2.400      1.11  0.24 -146   0.09
 3.500      1.19  0.25 -137   0.10
 5.500      1.38  0.26 -119   0.14
10.000      1.83  0.45  -83   0.47
!
! (c) 2013  Infineon Technologies AG, Munich
