! Infineon Technologies  Discrete & RF Semiconductors
! BFP620F
! VCE =  1.0 V,  IC =  28 mA
! Common Emitter S-Parameters:                            Dec 2014
# GHz  S  MA  R  50
!  f         S11            S21            S12            S22
! GHz     MAG   ANG      MAG   ANG      MAG   ANG      MAG   ANG
 0.030  0.7052   -7.9  53.474  174.5  0.0036   88.6  0.9676   -4.6
 0.040  0.7010  -10.5  53.628  172.5  0.0037   89.2  0.9677   -6.8
 0.050  0.6995  -12.9  53.613  170.6  0.0054   91.6  0.9693   -8.7
 0.060  0.6962  -15.5  53.432  168.9  0.0059   80.9  0.9652  -10.8
 0.070  0.6899  -17.5  53.196  166.9  0.0057   84.5  0.9608  -12.6
 0.080  0.6890  -20.1  52.859  165.0  0.0070   83.0  0.9570  -14.7
 0.090  0.6838  -22.8  52.370  163.2  0.0096   84.8  0.9520  -17.0
 0.100  0.6785  -25.1  51.860  161.4  0.0100   82.8  0.9452  -18.7
 0.110  0.6729  -27.6  51.263  159.5  0.0100   83.8  0.9391  -20.7
 0.120  0.6661  -29.9  50.707  157.8  0.0116   78.5  0.9294  -22.5
 0.130  0.6605  -32.3  50.242  156.2  0.0121   77.3  0.9198  -24.4
 0.140  0.6545  -34.5  49.636  154.5  0.0127   77.3  0.9097  -26.3
 0.150  0.6481  -36.6  49.178  153.0  0.0135   75.2  0.8997  -27.9
 0.200  0.6169  -46.9  46.035  145.7  0.0173   71.2  0.8452  -36.1
 0.250  0.5808  -56.3  42.897  139.1  0.0207   68.1  0.7872  -43.4
 0.300  0.5490  -64.9  39.807  133.4  0.0239   66.2  0.7308  -50.0
 0.350  0.5188  -72.8  36.754  128.5  0.0259   64.1  0.6759  -55.6
 0.400  0.4908  -80.0  34.112  124.2  0.0283   63.5  0.6258  -60.7
 0.450  0.4681  -86.1  31.643  120.4  0.0302   61.5  0.5830  -65.4
 0.500  0.4457  -92.2  29.405  117.1  0.0322   60.9  0.5423  -69.7
 0.600  0.4120 -102.9  25.628  111.5  0.0358   60.1  0.4718  -77.2
 0.700  0.3864 -111.9  22.603  106.9  0.0393   59.8  0.4173  -83.8
 0.800  0.3683 -119.8  20.132  103.3  0.0427   59.7  0.3718  -89.7
 0.900  0.3533 -126.7  18.120  100.1  0.0460   59.8  0.3350  -95.4
 1.000  0.3440 -133.1  16.449   97.3  0.0495   60.0  0.3046 -100.6
 1.100  0.3350 -138.6  15.028   94.9  0.0529   60.1  0.2789 -106.0
 1.200  0.3308 -143.7  13.845   92.8  0.0561   60.1  0.2585 -110.8
 1.300  0.3259 -148.4  12.808   90.8  0.0594   60.3  0.2403 -116.1
 1.400  0.3250 -152.5  11.930   89.0  0.0629   60.2  0.2266 -121.0
 1.500  0.3224 -156.4  11.146   87.4  0.0663   60.0  0.2151 -126.0
 1.600  0.3227 -160.0  10.458   85.8  0.0697   60.1  0.2073 -130.7
 1.700  0.3214 -163.3   9.848   84.3  0.0731   60.0  0.2000 -135.5
 1.800  0.3226 -166.3   9.313   82.9  0.0767   59.7  0.1967 -139.7
 1.900  0.3227 -169.1   8.825   81.5  0.0801   59.6  0.1936 -143.8
 2.000  0.3239 -171.8   8.389   80.2  0.0836   59.4  0.1927 -147.3
 2.100  0.3263 -174.2   7.988   78.9  0.0869   58.8  0.1976 -149.6
 2.200  0.3268 -176.5   7.629   77.7  0.0904   58.4  0.1966 -152.6
 2.300  0.3280 -178.6   7.296   76.6  0.0939   58.1  0.1959 -155.3
 2.400  0.3289  179.2   6.999   75.4  0.0975   57.8  0.1958 -157.9
 2.500  0.3298  177.3   6.721   74.3  0.1009   57.2  0.1956 -160.2
 2.600  0.3305  175.3   6.465   73.2  0.1042   56.8  0.1957 -162.3
 2.700  0.3314  173.5   6.229   72.2  0.1078   56.4  0.1958 -164.2
 2.800  0.3315  171.7   6.009   71.1  0.1110   56.0  0.1960 -166.0
 2.900  0.3325  170.1   5.802   70.1  0.1144   55.5  0.1966 -167.7
 3.000  0.3330  168.2   5.617   69.0  0.1182   55.0  0.1973 -169.2
 3.100  0.3340  166.8   5.435   68.0  0.1215   54.5  0.1966 -170.8
 3.200  0.3336  165.1   5.268   67.0  0.1249   54.0  0.1971 -172.1
 3.300  0.3346  163.8   5.113   66.0  0.1282   53.5  0.1969 -173.4
 3.400  0.3344  162.2   4.968   65.0  0.1319   52.9  0.1972 -174.9
 3.500  0.3349  160.8   4.827   64.1  0.1353   52.3  0.1966 -176.2
 3.600  0.3350  159.2   4.698   63.0  0.1386   51.7  0.1965 -177.6
 3.700  0.3358  157.9   4.577   62.0  0.1421   51.2  0.1960 -178.9
 3.800  0.3359  156.4   4.456   61.1  0.1457   50.6  0.1955  179.8
 3.900  0.3370  155.1   4.348   60.1  0.1489   50.0  0.1948  178.4
 4.000  0.3370  153.8   4.241   59.2  0.1524   49.4  0.1940  176.9
 4.100  0.3382  152.5   4.143   58.2  0.1558   48.7  0.1930  175.4
 4.200  0.3396  151.2   4.048   57.2  0.1593   48.2  0.1927  173.6
 4.300  0.3406  150.1   3.961   56.3  0.1626   47.5  0.1922  172.2
 4.400  0.3422  148.9   3.874   55.3  0.1660   46.9  0.1919  170.5
 4.500  0.3431  147.9   3.791   54.4  0.1691   46.2  0.1911  168.7
 4.600  0.3454  146.7   3.713   53.4  0.1727   45.5  0.1910  166.9
 4.700  0.3466  145.6   3.639   52.4  0.1759   44.8  0.1910  165.1
 4.800  0.3494  144.6   3.567   51.5  0.1793   44.1  0.1911  163.3
 4.900  0.3510  143.7   3.497   50.5  0.1826   43.4  0.1912  161.3
 5.000  0.3535  142.6   3.432   49.5  0.1860   42.7  0.1920  159.6
 5.100  0.3553  141.7   3.369   48.5  0.1892   42.0  0.1915  157.8
 5.200  0.3579  140.9   3.306   47.6  0.1925   41.2  0.1921  155.9
 5.300  0.3599  139.9   3.247   46.6  0.1956   40.5  0.1928  154.3
 5.400  0.3630  139.1   3.190   45.6  0.1988   39.8  0.1941  152.6
 5.500  0.3652  138.2   3.132   44.6  0.2020   39.0  0.1946  150.8
 5.600  0.3685  137.3   3.077   43.7  0.2050   38.3  0.1960  149.1
 5.700  0.3706  136.5   3.025   42.7  0.2078   37.5  0.1968  147.4
 5.800  0.3732  135.5   2.975   41.6  0.2109   36.7  0.1977  145.7
 5.900  0.3760  134.6   2.925   40.7  0.2138   36.0  0.1997  143.8
 6.000  0.3785  133.7   2.875   39.7  0.2167   35.2  0.2008  142.3
 6.100  0.3814  132.7   2.828   38.7  0.2196   34.4  0.2017  140.5
 6.200  0.3838  131.7   2.780   37.7  0.2223   33.6  0.2033  138.5
 6.300  0.3867  130.6   2.734   36.7  0.2248   32.9  0.2056  136.6
 6.400  0.3893  129.5   2.690   35.7  0.2276   32.1  0.2076  134.8
 6.500  0.3919  128.4   2.646   34.7  0.2301   31.3  0.2091  132.6
 6.600  0.3945  127.3   2.600   33.8  0.2325   30.6  0.2116  130.7
 6.700  0.3969  126.0   2.559   32.9  0.2349   29.8  0.2134  128.5
 6.800  0.3995  124.8   2.518   31.9  0.2374   29.1  0.2155  126.4
 6.900  0.4026  123.5   2.477   31.0  0.2398   28.3  0.2179  124.1
 7.000  0.4058  122.3   2.436   30.0  0.2422   27.6  0.2206  121.9
 7.100  0.4092  121.2   2.399   29.1  0.2446   26.9  0.2237  119.5
 7.200  0.4127  120.0   2.362   28.2  0.2471   26.2  0.2271  117.3
 7.300  0.4170  118.9   2.326   27.4  0.2494   25.5  0.2315  115.1
 7.400  0.4214  117.9   2.291   26.5  0.2518   24.8  0.2363  112.9
 7.500  0.4266  116.9   2.258   25.6  0.2542   24.1  0.2418  110.8
 7.600  0.4319  116.0   2.226   24.8  0.2567   23.4  0.2477  108.7
 7.700  0.4379  115.1   2.193   23.9  0.2590   22.6  0.2550  106.7
 7.800  0.4440  114.3   2.161   23.0  0.2613   21.8  0.2626  104.9
 7.900  0.4513  113.5   2.131   22.1  0.2633   21.0  0.2712  103.0
 8.000  0.4587  112.7   2.100   21.2  0.2655   20.2  0.2801  101.1
!
!  f       NFmin   Gammaopt  rn/50
! GHz       dB    MAG  ANG    -
 0.450      1.08  0.03 -173   0.19
 0.900      1.11  0.04 -171   0.15
 1.500      1.12  0.08 -149   0.15
 1.800      1.14  0.08 -147   0.17
 1.900      1.14  0.08 -146   0.15
 2.400      1.16  0.09 -146   0.17
 3.500      1.23  0.12 -142   0.17
 5.500      1.38  0.20  239   0.13
 6.000      1.42  0.20  259   0.15
!
! (c) 2014  Infineon Technologies AG, Munich
