! Infineon Technologies  Discrete & RF Semiconductors
! BFP620F
! VCE =  1.8 V,  IC =  75 mA
! Common Emitter S-Parameters:                            Dec 2014
# GHz  S  MA  R  50
!  f         S11            S21            S12            S22
! GHz     MAG   ANG      MAG   ANG      MAG   ANG      MAG   ANG
 0.030  0.3680  -13.5  75.020  174.8  0.0021   76.3  0.9297   -1.6
 0.040  0.3607  -16.3  75.430  172.3  0.0030   97.0  0.9387   -4.1
 0.050  0.3542  -19.9  75.770  169.8  0.0021   73.5  0.9394   -6.7
 0.060  0.3586  -23.2  75.589  167.6  0.0051   80.0  0.9484   -9.1
 0.070  0.3500  -25.3  75.185  165.1  0.0041   80.1  0.9414  -11.2
 0.080  0.3510  -28.5  74.617  162.6  0.0054   86.4  0.9406  -13.7
 0.090  0.3446  -31.6  73.718  160.4  0.0058   83.0  0.9325  -15.9
 0.100  0.3411  -34.7  72.743  158.2  0.0067   85.9  0.9234  -18.1
 0.110  0.3373  -37.6  71.686  155.9  0.0066   76.7  0.9150  -20.0
 0.120  0.3328  -40.8  70.590  153.9  0.0072   84.7  0.9024  -22.2
 0.130  0.3291  -43.6  69.608  151.9  0.0077   80.4  0.8909  -24.1
 0.140  0.3257  -46.0  68.450  150.0  0.0082   81.8  0.8761  -26.0
 0.150  0.3216  -48.5  67.494  148.2  0.0085   76.7  0.8635  -27.7
 0.200  0.3047  -60.7  61.526  139.9  0.0110   75.6  0.7905  -35.5
 0.250  0.2863  -71.2  55.859  132.9  0.0126   75.2  0.7198  -41.8
 0.300  0.2716  -80.5  50.633  127.2  0.0147   74.1  0.6552  -47.2
 0.350  0.2599  -89.0  45.947  122.4  0.0161   72.4  0.5969  -51.3
 0.400  0.2496  -96.6  41.951  118.3  0.0182   72.5  0.5453  -54.9
 0.450  0.2421 -103.0  38.456  114.9  0.0198   73.0  0.5028  -58.0
 0.500  0.2334 -109.0  35.373  111.9  0.0216   72.1  0.4640  -60.6
 0.600  0.2251 -120.0  30.393  106.9  0.0247   72.1  0.3982  -64.9
 0.700  0.2189 -128.4  26.552  103.0  0.0280   72.4  0.3481  -68.6
 0.800  0.2168 -136.0  23.496   99.8  0.0314   72.1  0.3067  -71.5
 0.900  0.2140 -142.3  21.037   97.1  0.0348   72.2  0.2721  -74.3
 1.000  0.2154 -148.0  19.041   94.7  0.0380   72.0  0.2436  -76.7
 1.100  0.2144 -153.0  17.349   92.6  0.0416   71.7  0.2180  -79.2
 1.200  0.2174 -157.3  15.954   90.7  0.0447   71.4  0.1973  -81.5
 1.300  0.2180 -161.5  14.744   89.1  0.0482   71.2  0.1775  -84.0
 1.400  0.2213 -164.9  13.710   87.5  0.0514   70.7  0.1618  -86.5
 1.500  0.2228 -168.3  12.800   86.0  0.0547   70.4  0.1469  -89.3
 1.600  0.2264 -171.3  12.005   84.6  0.0581   70.0  0.1357  -92.4
 1.700  0.2283 -174.2  11.301   83.3  0.0615   69.4  0.1244  -95.5
 1.800  0.2316 -176.7  10.685   82.0  0.0647   68.9  0.1168  -99.1
 1.900  0.2338 -179.0  10.121   80.9  0.0681   68.5  0.1096 -102.9
 2.000  0.2367  178.6   9.620   79.7  0.0713   68.0  0.1052 -106.5
 2.100  0.2404  176.4   9.160   78.5  0.0744   67.4  0.1081 -110.5
 2.200  0.2420  174.5   8.747   77.4  0.0778   66.8  0.1043 -113.5
 2.300  0.2446  172.6   8.365   76.4  0.0811   66.1  0.1014 -116.5
 2.400  0.2463  170.8   8.022   75.3  0.0843   65.6  0.0993 -119.5
 2.500  0.2483  169.1   7.702   74.3  0.0875   64.9  0.0973 -122.1
 2.600  0.2498  167.3   7.408   73.3  0.0906   64.4  0.0958 -124.8
 2.700  0.2513  165.7   7.136   72.3  0.0939   63.7  0.0947 -126.8
 2.800  0.2524  164.1   6.883   71.4  0.0972   63.2  0.0941 -129.0
 2.900  0.2541  162.7   6.645   70.4  0.1006   62.7  0.0938 -131.0
 3.000  0.2548  160.9   6.430   69.4  0.1036   62.0  0.0938 -132.9
 3.100  0.2560  159.8   6.220   68.5  0.1068   61.4  0.0929 -134.2
 3.200  0.2565  158.2   6.031   67.5  0.1102   60.6  0.0930 -135.9
 3.300  0.2575  157.0   5.850   66.6  0.1133   60.0  0.0925 -136.8
 3.400  0.2577  155.4   5.683   65.6  0.1164   59.4  0.0925 -138.7
 3.500  0.2589  154.2   5.524   64.8  0.1196   58.8  0.0916 -139.5
 3.600  0.2592  152.8   5.372   63.9  0.1227   58.2  0.0911 -141.0
 3.700  0.2600  151.6   5.232   62.9  0.1259   57.5  0.0904 -142.0
 3.800  0.2603  150.2   5.093   62.0  0.1289   56.8  0.0897 -143.2
 3.900  0.2614  149.0   4.969   61.2  0.1321   56.1  0.0884 -144.6
 4.000  0.2620  147.7   4.846   60.3  0.1353   55.5  0.0869 -146.0
 4.100  0.2635  146.5   4.733   59.3  0.1384   54.8  0.0854 -147.4
 4.200  0.2645  145.4   4.624   58.5  0.1414   54.2  0.0838 -149.4
 4.300  0.2656  144.4   4.522   57.6  0.1446   53.5  0.0825 -151.2
 4.400  0.2672  143.2   4.423   56.7  0.1478   52.8  0.0808 -153.0
 4.500  0.2682  142.3   4.327   55.8  0.1508   52.1  0.0792 -155.1
 4.600  0.2703  141.3   4.237   54.9  0.1538   51.5  0.0774 -157.7
 4.700  0.2715  140.4   4.153   54.0  0.1570   50.8  0.0763 -160.0
 4.800  0.2740  139.5   4.070   53.1  0.1601   50.1  0.0749 -163.0
 4.900  0.2757  138.8   3.989   52.3  0.1632   49.3  0.0732 -166.0
 5.000  0.2779  137.8   3.915   51.3  0.1662   48.6  0.0726 -168.9
 5.100  0.2796  137.0   3.842   50.4  0.1693   47.9  0.0710 -171.4
 5.200  0.2821  136.4   3.771   49.5  0.1722   47.2  0.0702 -174.7
 5.300  0.2838  135.6   3.702   48.6  0.1753   46.4  0.0698 -177.7
 5.400  0.2866  135.0   3.637   47.6  0.1781   45.7  0.0697  179.5
 5.500  0.2887  134.3   3.571   46.8  0.1811   44.9  0.0693  176.4
 5.600  0.2918  133.6   3.510   45.8  0.1839   44.2  0.0695  173.4
 5.700  0.2940  132.9   3.451   44.9  0.1867   43.4  0.0697  170.3
 5.800  0.2965  132.1   3.393   44.0  0.1895   42.7  0.0696  167.4
 5.900  0.2989  131.4   3.337   43.1  0.1924   41.9  0.0702  163.8
 6.000  0.3013  130.6   3.281   42.1  0.1952   41.2  0.0707  161.1
 6.100  0.3039  129.7   3.226   41.3  0.1979   40.4  0.0709  157.9
 6.200  0.3066  128.9   3.174   40.3  0.2005   39.6  0.0717  154.2
 6.300  0.3093  127.9   3.121   39.4  0.2030   38.9  0.0733  150.6
 6.400  0.3121  127.0   3.072   38.4  0.2056   38.1  0.0746  147.4
 6.500  0.3147  125.9   3.022   37.5  0.2080   37.4  0.0756  143.1
 6.600  0.3176  124.9   2.971   36.6  0.2106   36.6  0.0778  139.5
 6.700  0.3202  123.7   2.925   35.7  0.2129   35.9  0.0794  135.5
 6.800  0.3229  122.5   2.879   34.8  0.2153   35.2  0.0813  131.7
 6.900  0.3263  121.4   2.833   33.9  0.2177   34.5  0.0837  127.4
 7.000  0.3298  120.2   2.788   33.1  0.2202   33.8  0.0864  123.4
 7.100  0.3333  119.1   2.746   32.2  0.2225   33.1  0.0899  119.3
 7.200  0.3369  118.1   2.704   31.4  0.2248   32.5  0.0938  115.5
 7.300  0.3412  117.1   2.664   30.5  0.2273   31.8  0.0989  111.9
 7.400  0.3456  116.1   2.625   29.7  0.2298   31.1  0.1043  108.7
 7.500  0.3509  115.3   2.588   28.9  0.2323   30.4  0.1106  105.7
 7.600  0.3563  114.5   2.552   28.1  0.2349   29.6  0.1171  103.1
 7.700  0.3623  113.8   2.517   27.3  0.2373   28.9  0.1251  100.8
 7.800  0.3683  113.1   2.482   26.5  0.2398   28.2  0.1332   98.8
 7.900  0.3759  112.5   2.448   25.6  0.2420   27.4  0.1425   96.7
 8.000  0.3835  111.9   2.415   24.8  0.2444   26.6  0.1520   95.0
!
!  f       NFmin   Gammaopt  rn/50
! GHz       dB    MAG  ANG    -
!
! noise parameter not available yet for this operation point!
!
! (c) 2014  Infineon Technologies AG, Munich
