! Infineon Technologies  Discrete & RF Semiconductors
! BFP620F
! VCE =  1.8 V,  IC =  8.0 mA
! Common Emitter S-Parameters:                            Dec 2014
# GHz  S  MA  R  50
!  f         S11            S21            S12            S22
! GHz     MAG   ANG      MAG   ANG      MAG   ANG      MAG   ANG
 0.030  0.9170   -2.6  21.936  177.2  0.0025   74.5  0.9909   -2.0
 0.040  0.9167   -3.5  21.912  176.4  0.0032   86.9  0.9916   -2.7
 0.050  0.9155   -4.4  21.952  175.8  0.0036   98.7  0.9912   -3.3
 0.060  0.9141   -5.4  21.937  175.2  0.0046   61.2  0.9907   -4.0
 0.070  0.9151   -6.2  21.951  174.3  0.0065   93.3  0.9903   -4.7
 0.080  0.9146   -7.2  21.930  173.5  0.0059   88.5  0.9892   -5.4
 0.090  0.9126   -8.1  21.890  172.8  0.0079   86.5  0.9886   -6.1
 0.100  0.9110   -8.9  21.871  172.0  0.0078   80.9  0.9877   -6.7
 0.110  0.9097   -9.8  21.803  171.2  0.0085   81.1  0.9866   -7.4
 0.120  0.9081  -10.7  21.738  170.4  0.0099   82.6  0.9857   -8.1
 0.130  0.9067  -11.6  21.738  169.7  0.0106   82.8  0.9833   -8.8
 0.140  0.9064  -12.5  21.652  169.0  0.0112   83.5  0.9816   -9.5
 0.150  0.9044  -13.4  21.640  168.3  0.0123   83.4  0.9799  -10.2
 0.200  0.8948  -17.7  21.364  164.6  0.0162   79.6  0.9692  -13.5
 0.250  0.8831  -22.0  21.059  160.8  0.0202   78.7  0.9559  -16.8
 0.300  0.8707  -26.2  20.714  157.4  0.0241   75.7  0.9402  -20.1
 0.350  0.8545  -30.3  20.262  154.0  0.0273   74.5  0.9222  -23.1
 0.400  0.8375  -34.5  19.925  150.6  0.0307   73.1  0.9005  -26.1
 0.450  0.8207  -38.4  19.449  147.4  0.0340   70.6  0.8815  -29.0
 0.500  0.8022  -42.2  18.961  144.4  0.0371   68.8  0.8573  -31.9
 0.600  0.7611  -49.8  18.024  138.5  0.0427   65.7  0.8079  -37.0
 0.700  0.7223  -56.8  17.054  133.2  0.0479   62.5  0.7603  -41.8
 0.800  0.6826  -63.4  16.073  128.3  0.0523   60.0  0.7112  -46.0
 0.900  0.6441  -69.6  15.152  123.9  0.0565   58.0  0.6646  -49.8
 1.000  0.6096  -75.5  14.260  119.9  0.0600   56.3  0.6213  -53.1
 1.100  0.5749  -81.0  13.441  116.2  0.0633   54.6  0.5792  -56.3
 1.200  0.5465  -86.3  12.683  112.9  0.0664   53.5  0.5421  -59.0
 1.300  0.5179  -91.2  11.973  109.8  0.0692   52.3  0.5059  -61.6
 1.400  0.4950  -96.0  11.334  107.0  0.0718   51.5  0.4745  -64.0
 1.500  0.4711 -100.6  10.745  104.4  0.0743   50.7  0.4448  -66.1
 1.600  0.4523 -105.1  10.203  102.0  0.0768   50.2  0.4189  -68.4
 1.700  0.4335 -109.4   9.702   99.7  0.0791   49.7  0.3946  -70.4
 1.800  0.4191 -113.4   9.252   97.5  0.0814   49.1  0.3741  -72.5
 1.900  0.4047 -117.3   8.831   95.6  0.0840   48.7  0.3554  -74.4
 2.000  0.3920 -121.2   8.446   93.6  0.0864   48.3  0.3393  -76.5
 2.100  0.3820 -125.0   8.087   91.8  0.0889   47.6  0.3294  -79.2
 2.200  0.3729 -128.3   7.755   90.1  0.0913   47.4  0.3150  -81.1
 2.300  0.3641 -131.8   7.448   88.4  0.0933   47.1  0.3023  -82.7
 2.400  0.3564 -134.9   7.166   86.8  0.0958   46.6  0.2913  -84.4
 2.500  0.3495 -138.1   6.906   85.3  0.0981   46.4  0.2813  -86.0
 2.600  0.3430 -141.2   6.661   83.8  0.1004   46.2  0.2715  -87.5
 2.700  0.3375 -144.0   6.434   82.4  0.1026   45.9  0.2631  -88.9
 2.800  0.3323 -146.8   6.218   81.1  0.1048   45.6  0.2554  -90.3
 2.900  0.3281 -149.5   6.017   79.8  0.1071   45.4  0.2486  -91.8
 3.000  0.3234 -152.2   5.834   78.4  0.1097   45.1  0.2423  -93.2
 3.100  0.3197 -154.7   5.655   77.1  0.1120   44.8  0.2363  -94.3
 3.200  0.3157 -157.2   5.491   75.9  0.1144   44.5  0.2309  -95.5
 3.300  0.3136 -159.5   5.335   74.7  0.1168   44.3  0.2260  -96.5
 3.400  0.3101 -161.8   5.189   73.4  0.1191   43.9  0.2209  -97.8
 3.500  0.3077 -164.1   5.050   72.3  0.1215   43.7  0.2158  -98.7
 3.600  0.3047 -166.3   4.918   71.1  0.1239   43.4  0.2117  -99.6
 3.700  0.3028 -168.5   4.796   70.0  0.1263   43.1  0.2072 -100.5
 3.800  0.3005 -170.7   4.676   68.8  0.1287   42.6  0.2031 -101.4
 3.900  0.2996 -172.7   4.565   67.7  0.1315   42.3  0.1985 -102.3
 4.000  0.2979 -174.7   4.454   66.6  0.1338   42.0  0.1932 -103.1
 4.100  0.2974 -176.7   4.356   65.5  0.1362   41.5  0.1891 -103.8
 4.200  0.2969 -178.7   4.259   64.4  0.1387   41.2  0.1838 -104.8
 4.300  0.2965  179.4   4.170   63.3  0.1412   40.8  0.1798 -105.6
 4.400  0.2971  177.5   4.080   62.3  0.1437   40.4  0.1749 -106.4
 4.500  0.2971  175.6   3.995   61.2  0.1461   40.1  0.1700 -107.3
 4.600  0.2978  173.6   3.916   60.2  0.1484   39.6  0.1652 -108.2
 4.700  0.2983  171.9   3.840   59.0  0.1511   39.2  0.1607 -109.2
 4.800  0.2999  170.1   3.766   58.0  0.1537   38.7  0.1559 -110.2
 4.900  0.3013  168.5   3.694   57.0  0.1560   38.3  0.1507 -111.3
 5.000  0.3031  166.8   3.627   55.9  0.1586   37.8  0.1467 -112.6
 5.100  0.3041  165.2   3.563   54.9  0.1611   37.4  0.1421 -113.4
 5.200  0.3064  163.6   3.500   53.8  0.1636   36.9  0.1376 -114.5
 5.300  0.3079  162.2   3.437   52.8  0.1661   36.4  0.1335 -115.8
 5.400  0.3107  160.6   3.379   51.7  0.1686   35.9  0.1298 -117.2
 5.500  0.3126  159.3   3.321   50.7  0.1710   35.3  0.1249 -118.5
 5.600  0.3155  157.8   3.266   49.7  0.1734   34.8  0.1214 -119.9
 5.700  0.3174  156.4   3.213   48.7  0.1757   34.3  0.1173 -121.4
 5.800  0.3193  154.8   3.162   47.6  0.1781   33.7  0.1137 -122.7
 5.900  0.3220  153.5   3.111   46.6  0.1804   33.1  0.1091 -124.6
 6.000  0.3241  152.0   3.061   45.5  0.1829   32.6  0.1059 -126.1
 6.100  0.3261  150.6   3.013   44.6  0.1852   32.1  0.1015 -127.6
 6.200  0.3282  149.1   2.966   43.5  0.1873   31.5  0.0970 -129.6
 6.300  0.3306  147.6   2.918   42.5  0.1894   30.9  0.0925 -131.9
 6.400  0.3329  146.0   2.874   41.4  0.1918   30.3  0.0885 -134.3
 6.500  0.3348  144.5   2.830   40.4  0.1937   29.7  0.0829 -136.2
 6.600  0.3366  142.9   2.784   39.4  0.1958   29.2  0.0781 -139.3
 6.700  0.3384  141.2   2.742   38.4  0.1978   28.7  0.0729 -142.0
 6.800  0.3405  139.6   2.700   37.4  0.1999   28.1  0.0679 -145.0
 6.900  0.3431  137.9   2.659   36.4  0.2020   27.6  0.0620 -148.6
 7.000  0.3459  136.3   2.619   35.4  0.2040   27.0  0.0563 -152.9
 7.100  0.3486  134.7   2.580   34.5  0.2062   26.5  0.0506 -158.6
 7.200  0.3516  133.2   2.542   33.6  0.2083   26.1  0.0455 -165.5
 7.300  0.3554  131.7   2.506   32.7  0.2105   25.5  0.0413 -174.6
 7.400  0.3595  130.3   2.470   31.7  0.2127   25.0  0.0384  174.7
 7.500  0.3644  129.0   2.437   30.9  0.2149   24.5  0.0370  162.0
 7.600  0.3696  127.7   2.404   30.0  0.2171   23.9  0.0376  149.0
 7.700  0.3755  126.5   2.372   29.1  0.2194   23.4  0.0413  136.4
 7.800  0.3816  125.3   2.340   28.2  0.2217   22.8  0.0468  126.3
 7.900  0.3890  124.2   2.309   27.3  0.2238   22.1  0.0541  117.8
 8.000  0.3965  123.1   2.280   26.3  0.2260   21.5  0.0623  111.4
!
!  f       NFmin   Gammaopt  rn/50
! GHz       dB    MAG  ANG    -
 0.450      0.56  0.34    9   0.24
 0.900      0.63  0.30   19   0.21
 1.500      0.69  0.28   22   0.17
 1.800      0.72  0.26   25   0.16
 1.900      0.73  0.21   39   0.18
 2.400      0.78  0.19   54   0.16
 3.500      0.89  0.18   74   0.13
 5.500      1.07  0.13  168   0.11
 6.000      1.11  0.10  192   0.19
!
! (c) 2014  Infineon Technologies AG, Munich
