! Infineon Technologies  Discrete & RF Semiconductors
! BFP650
! VCE =  2.0 V,  IC =  65 mA
! Common Emitter S-Parameters:                            Jan 2016
# GHz  S  MA  R  50
!  f         S11            S21            S12            S22
! GHz     MAG   ANG      MAG   ANG      MAG   ANG      MAG   ANG
 0.030  0.3362  -37.2 105.952  166.8  0.0025   88.3  0.9479  -16.1
 0.035  0.3427  -42.2 105.306  164.6  0.0042   84.8  0.9462  -18.7
 0.040  0.3517  -46.9 104.822  162.3  0.0059   83.3  0.9465  -21.4
 0.045  0.3540  -52.9 103.176  160.1  0.0059   73.1  0.9349  -24.7
 0.050  0.3601  -58.8 101.682  157.9  0.0061   63.3  0.9265  -28.0
 0.055  0.3702  -63.6 100.843  156.1  0.0071   57.4  0.9154  -30.9
 0.060  0.3827  -68.1 100.103  154.3  0.0082   53.1  0.9067  -33.8
 0.065  0.3893  -72.2  98.404  152.4  0.0089   60.2  0.8934  -36.3
 0.070  0.3979  -76.1  96.814  150.5  0.0097   66.2  0.8818  -38.8
 0.075  0.4037  -79.3  95.257  148.7  0.0095   64.8  0.8685  -40.9
 0.080  0.4108  -82.4  93.800  146.8  0.0093   63.4  0.8565  -43.1
 0.085  0.4188  -85.1  92.102  145.4  0.0094   66.6  0.8433  -45.4
 0.090  0.4276  -87.7  90.462  143.9  0.0095   69.8  0.8315  -47.7
 0.095  0.4289  -90.5  88.925  142.2  0.0088   63.9  0.8211  -49.5
 0.100  0.4313  -93.3  87.467  140.5  0.0083   57.2  0.8115  -51.4
 0.105  0.4418  -96.6  85.761  139.1  0.0095   64.2  0.7999  -54.1
 0.110  0.4537  -99.8  84.109  137.6  0.0109   69.6  0.7900  -56.8
 0.115  0.4563 -101.8  82.335  136.3  0.0108   64.5  0.7755  -58.5
 0.120  0.4594 -103.8  80.604  135.0  0.0107   59.4  0.7618  -60.3
 0.125  0.4665 -106.0  79.064  133.7  0.0104   60.4  0.7515  -62.2
 0.130  0.4742 -108.2  77.565  132.4  0.0101   61.4  0.7421  -64.2
 0.135  0.4781 -110.4  76.148  131.3  0.0106   62.6  0.7291  -65.9
 0.140  0.4828 -112.6  74.759  130.2  0.0111   63.7  0.7167  -67.7
 0.145  0.4861 -114.2  73.302  129.1  0.0115   63.0  0.7058  -69.3
 0.150  0.4898 -115.8  71.873  128.0  0.0120   62.3  0.6954  -70.9
 0.155  0.4915 -117.3  70.585  127.2  0.0123   61.8  0.6853  -72.2
 0.160  0.4936 -118.8  69.309  126.4  0.0127   61.2  0.6755  -73.6
 0.165  0.4960 -120.3  68.048  125.6  0.0130   60.7  0.6661  -75.0
 0.170  0.4987 -121.8  66.801  124.8  0.0134   60.3  0.6571  -76.4
 0.175  0.5017 -123.2  65.570  123.9  0.0137   59.8  0.6486  -77.9
 0.180  0.5051 -124.7  64.355  123.0  0.0140   59.4  0.6404  -79.4
 0.185  0.5088 -126.1  63.157  122.0  0.0144   59.0  0.6328  -80.9
 0.190  0.5127 -127.5  61.978  121.0  0.0147   58.6  0.6256  -82.5
 0.195  0.5170 -128.9  60.818  120.0  0.0151   58.3  0.6189  -84.1
 0.200  0.5216 -130.2  59.678  118.9  0.0154   57.9  0.6127  -85.8
 0.220  0.5279 -134.2  55.845  116.5  0.0157   55.8  0.5837  -90.3
 0.240  0.5367 -138.2  52.123  113.8  0.0159   53.7  0.5586  -95.2
 0.260  0.5438 -141.6  48.850  111.4  0.0164   52.7  0.5374  -99.6
 0.280  0.5484 -144.5  45.966  109.5  0.0171   52.7  0.5186 -103.4
 0.300  0.5543 -147.3  43.139  107.4  0.0178   52.7  0.5021 -107.4
 0.320  0.5577 -149.6  40.870  106.0  0.0182   52.9  0.4888 -110.6
 0.340  0.5620 -151.8  38.630  104.4  0.0187   53.1  0.4771 -113.9
 0.360  0.5661 -153.8  36.647  102.9  0.0193   53.5  0.4666 -117.0
 0.380  0.5698 -155.6  34.909  101.7  0.0202   54.1  0.4567 -119.8
 0.400  0.5741 -157.4  33.189  100.3  0.0211   54.6  0.4480 -122.7
 0.420  0.5757 -158.9  31.782   99.3  0.0212   54.8  0.4399 -125.0
 0.440  0.5776 -160.4  30.386   98.2  0.0213   55.1  0.4325 -127.5
 0.450  0.5787 -161.1  29.693   97.6  0.0214   55.2  0.4291 -128.7
 0.460  0.5791 -161.8  29.113   97.2  0.0217   55.4  0.4264 -129.8
 0.480  0.5802 -163.1  27.959   96.3  0.0222   55.8  0.4214 -132.0
 0.500  0.5816 -164.4  26.813   95.3  0.0228   56.2  0.4171 -134.2
 0.520  0.5827 -165.4  25.919   94.6  0.0234   56.0  0.4125 -136.0
 0.540  0.5839 -166.5  25.029   93.9  0.0240   55.8  0.4084 -137.8
 0.560  0.5854 -167.5  24.142   93.2  0.0246   55.6  0.4046 -139.6
 0.580  0.5870 -168.5  23.261   92.4  0.0252   55.5  0.4013 -141.5
 0.600  0.5888 -169.5  22.384   91.5  0.0258   55.3  0.3984 -143.4
 0.620  0.5894 -170.3  21.739   91.0  0.0264   55.8  0.3959 -144.8
 0.640  0.5901 -171.2  21.096   90.4  0.0270   56.2  0.3936 -146.3
 0.660  0.5910 -172.0  20.455   89.8  0.0275   56.6  0.3916 -147.7
 0.680  0.5920 -172.9  19.817   89.1  0.0281   57.0  0.3898 -149.2
 0.700  0.5931 -173.7  19.181   88.4  0.0287   57.4  0.3883 -150.7
 0.720  0.5938 -174.4  18.698   87.9  0.0293   57.5  0.3869 -151.9
 0.740  0.5945 -175.1  18.217   87.4  0.0299   57.7  0.3857 -153.2
 0.760  0.5953 -175.9  17.737   86.9  0.0305   57.8  0.3847 -154.5
 0.780  0.5963 -176.6  17.258   86.4  0.0311   57.9  0.3838 -155.7
 0.800  0.5973 -177.3  16.781   85.8  0.0317   58.0  0.3832 -157.0
 0.820  0.5979 -177.9  16.401   85.4  0.0323   58.1  0.3817 -158.1
 0.840  0.5986 -178.5  16.021   85.0  0.0329   58.1  0.3804 -159.1
 0.860  0.5993 -179.2  15.642   84.5  0.0334   58.2  0.3792 -160.2
 0.880  0.6001 -179.8  15.265   84.1  0.0340   58.2  0.3781 -161.3
 0.900  0.6010  179.6  14.888   83.6  0.0346   58.3  0.3772 -162.4
 0.920  0.6018  179.0  14.588   83.2  0.0351   58.1  0.3769 -163.3
 0.940  0.6027  178.5  14.288   82.8  0.0356   57.9  0.3767 -164.2
 0.960  0.6036  177.9  13.990   82.3  0.0361   57.7  0.3766 -165.0
 0.980  0.6046  177.4  13.692   81.9  0.0366   57.6  0.3765 -165.9
 1.000  0.6056  176.8  13.395   81.4  0.0371   57.4  0.3766 -166.8
 1.020  0.6059  176.3  13.148   81.0  0.0378   57.4  0.3765 -167.7
 1.040  0.6063  175.8  12.901   80.7  0.0386   57.4  0.3764 -168.6
 1.060  0.6068  175.3  12.654   80.3  0.0393   57.4  0.3765 -169.4
 1.080  0.6073  174.8  12.408   79.9  0.0401   57.4  0.3766 -170.3
 1.100  0.6078  174.3  12.163   79.5  0.0408   57.4  0.3768 -171.2
 1.120  0.6085  173.8  11.959   79.1  0.0414   57.4  0.3767 -171.9
 1.140  0.6092  173.3  11.757   78.7  0.0419   57.4  0.3766 -172.6
 1.160  0.6100  172.9  11.554   78.3  0.0425   57.3  0.3766 -173.4
 1.180  0.6108  172.4  11.352   77.9  0.0430   57.3  0.3766 -174.1
 1.200  0.6117  171.9  11.151   77.5  0.0436   57.3  0.3767 -174.8
 1.220  0.6121  171.4  10.975   77.2  0.0442   57.1  0.3768 -175.5
 1.240  0.6125  171.0  10.800   76.8  0.0447   56.9  0.3769 -176.1
 1.260  0.6129  170.5  10.625   76.5  0.0453   56.7  0.3771 -176.8
 1.280  0.6134  170.1  10.451   76.1  0.0458   56.5  0.3774 -177.4
 1.300  0.6139  169.6  10.277   75.7  0.0464   56.3  0.3777 -178.1
 1.320  0.6144  169.2  10.131   75.4  0.0470   56.1  0.3779 -178.7
 1.340  0.6149  168.8   9.985   75.0  0.0476   56.0  0.3782 -179.4
 1.360  0.6155  168.3   9.839   74.7  0.0481   55.8  0.3786  180.0
 1.380  0.6161  167.9   9.694   74.3  0.0487   55.7  0.3790  179.3
 1.400  0.6167  167.5   9.549   73.9  0.0493   55.5  0.3794  178.7
 1.420  0.6175  167.1   9.420   73.6  0.0500   55.5  0.3797  178.2
 1.440  0.6183  166.7   9.292   73.2  0.0506   55.5  0.3800  177.6
 1.460  0.6192  166.3   9.165   72.9  0.0513   55.4  0.3804  177.1
 1.480  0.6201  165.9   9.037   72.5  0.0519   55.4  0.3808  176.5
 1.500  0.6210  165.5   8.910   72.1  0.0526   55.4  0.3812  176.0
 1.520  0.6214  165.1   8.797   71.8  0.0531   55.2  0.3813  175.5
 1.540  0.6217  164.7   8.683   71.4  0.0536   55.0  0.3814  174.9
 1.560  0.6222  164.3   8.571   71.1  0.0542   54.8  0.3815  174.4
 1.580  0.6226  163.9   8.458   70.8  0.0547   54.7  0.3817  173.8
 1.600  0.6231  163.5   8.346   70.4  0.0552   54.5  0.3819  173.3
 1.620  0.6236  163.1   8.245   70.1  0.0558   54.3  0.3822  172.8
 1.640  0.6240  162.7   8.145   69.8  0.0565   54.1  0.3826  172.2
 1.660  0.6246  162.2   8.045   69.5  0.0571   53.9  0.3829  171.7
 1.680  0.6251  161.8   7.945   69.1  0.0578   53.7  0.3834  171.1
 1.700  0.6257  161.4   7.845   68.8  0.0584   53.5  0.3838  170.6
 1.720  0.6264  161.0   7.755   68.5  0.0589   53.4  0.3843  170.1
 1.740  0.6271  160.6   7.666   68.1  0.0594   53.3  0.3849  169.6
 1.760  0.6279  160.3   7.577   67.7  0.0599   53.2  0.3855  169.1
 1.780  0.6287  159.9   7.488   67.4  0.0604   53.1  0.3861  168.6
 1.800  0.6295  159.5   7.400   67.0  0.0609   53.0  0.3867  168.1
 1.820  0.6297  159.1   7.318   66.7  0.0615   52.8  0.3870  167.7
 1.840  0.6299  158.8   7.235   66.4  0.0620   52.6  0.3872  167.3
 1.860  0.6301  158.4   7.153   66.1  0.0626   52.5  0.3875  166.8
 1.880  0.6303  158.1   7.072   65.7  0.0631   52.3  0.3879  166.4
 1.900  0.6306  157.7   6.990   65.4  0.0637   52.1  0.3882  166.0
 1.920  0.6313  157.3   6.919   65.1  0.0643   52.0  0.3885  165.5
 1.940  0.6320  156.9   6.848   64.7  0.0649   51.8  0.3888  165.0
 1.960  0.6328  156.6   6.777   64.4  0.0656   51.7  0.3891  164.5
 1.980  0.6336  156.2   6.706   64.1  0.0662   51.5  0.3895  164.0
 2.000  0.6344  155.8   6.636   63.7  0.0668   51.4  0.3899  163.5
 2.020  0.6350  155.5   6.573   63.4  0.0674   51.2  0.3904  163.1
 2.040  0.6357  155.1   6.511   63.2  0.0680   51.0  0.3909  162.7
 2.060  0.6363  154.8   6.449   62.9  0.0686   50.8  0.3914  162.2
 2.080  0.6370  154.5   6.387   62.6  0.0692   50.6  0.3920  161.8
 2.100  0.6377  154.1   6.325   62.3  0.0697   50.5  0.3925  161.4
 2.120  0.6385  153.8   6.263   62.0  0.0703   50.3  0.3931  161.0
 2.140  0.6392  153.5   6.202   61.7  0.0709   50.1  0.3937  160.5
 2.160  0.6400  153.2   6.140   61.4  0.0715   49.9  0.3944  160.1
 2.180  0.6408  152.8   6.079   61.1  0.0721   49.8  0.3950  159.7
 2.200  0.6416  152.5   6.018   60.8  0.0727   49.6  0.3957  159.3
 2.220  0.6419  152.2   5.965   60.5  0.0732   49.3  0.3962  158.9
 2.240  0.6423  151.8   5.912   60.2  0.0738   49.0  0.3967  158.4
 2.260  0.6427  151.5   5.859   59.9  0.0743   48.8  0.3972  158.0
 2.280  0.6431  151.1   5.807   59.6  0.0748   48.5  0.3978  157.6
 2.300  0.6435  150.8   5.754   59.3  0.0754   48.3  0.3983  157.1
 2.320  0.6440  150.5   5.702   59.0  0.0759   48.0  0.3989  156.7
 2.340  0.6444  150.1   5.650   58.6  0.0765   47.7  0.3995  156.3
 2.360  0.6449  149.8   5.598   58.3  0.0770   47.5  0.4002  155.8
 2.380  0.6455  149.4   5.546   57.9  0.0776   47.2  0.4008  155.4
 2.400  0.6460  149.1   5.495   57.6  0.0781   47.0  0.4015  155.0
 2.420  0.6465  148.8   5.450   57.3  0.0786   46.9  0.4022  154.6
 2.440  0.6471  148.4   5.405   57.0  0.0791   46.7  0.4028  154.2
 2.460  0.6477  148.1   5.361   56.7  0.0797   46.6  0.4035  153.8
 2.480  0.6483  147.8   5.316   56.4  0.0802   46.4  0.4042  153.5
 2.500  0.6489  147.4   5.272   56.1  0.0807   46.3  0.4050  153.1
 2.520  0.6495  147.1   5.228   55.8  0.0812   46.1  0.4057  152.7
 2.540  0.6502  146.8   5.184   55.5  0.0817   46.0  0.4065  152.3
 2.560  0.6509  146.5   5.140   55.2  0.0823   45.9  0.4073  151.9
 2.580  0.6516  146.1   5.096   54.8  0.0828   45.7  0.4081  151.6
 2.600  0.6523  145.8   5.053   54.5  0.0833   45.6  0.4089  151.2
 2.620  0.6527  145.5   5.015   54.2  0.0838   45.3  0.4096  150.8
 2.640  0.6532  145.2   4.976   53.9  0.0842   45.1  0.4102  150.4
 2.660  0.6537  144.9   4.938   53.6  0.0847   44.9  0.4109  150.1
 2.680  0.6542  144.6   4.900   53.3  0.0852   44.6  0.4116  149.7
 2.700  0.6547  144.2   4.862   53.0  0.0857   44.4  0.4123  149.3
 2.720  0.6553  143.9   4.824   52.7  0.0862   44.1  0.4131  149.0
 2.740  0.6558  143.6   4.787   52.4  0.0866   43.9  0.4138  148.6
 2.760  0.6564  143.3   4.749   52.1  0.0871   43.7  0.4146  148.2
 2.780  0.6570  143.0   4.712   51.7  0.0876   43.4  0.4154  147.9
 2.800  0.6576  142.7   4.675   51.4  0.0881   43.2  0.4162  147.5
 2.820  0.6582  142.4   4.642   51.1  0.0886   43.0  0.4169  147.1
 2.840  0.6589  142.1   4.608   50.8  0.0892   42.8  0.4175  146.8
 2.860  0.6595  141.8   4.575   50.5  0.0897   42.5  0.4182  146.4
 2.880  0.6602  141.5   4.542   50.3  0.0902   42.3  0.4189  146.1
 2.900  0.6609  141.2   4.509   50.0  0.0907   42.1  0.4197  145.7
 2.920  0.6616  140.9   4.477   49.7  0.0913   41.9  0.4204  145.4
 2.940  0.6624  140.6   4.444   49.3  0.0918   41.7  0.4211  145.0
 2.960  0.6631  140.3   4.412   49.0  0.0923   41.5  0.4219  144.7
 2.980  0.6639  140.0   4.379   48.7  0.0929   41.3  0.4227  144.3
 3.000  0.6647  139.7   4.347   48.4  0.0934   41.1  0.4235  144.0
 3.100  0.6674  138.1   4.208   47.1  0.0957   40.0  0.4278  142.4
 3.200  0.6706  136.6   4.071   45.7  0.0981   38.9  0.4324  140.9
 3.300  0.6742  135.1   3.936   44.3  0.1004   37.8  0.4373  139.4
 3.400  0.6783  133.6   3.805   42.7  0.1029   36.8  0.4424  137.9
 3.500  0.6829  132.1   3.676   41.0  0.1053   35.9  0.4479  136.5
 3.600  0.6867  130.6   3.567   39.7  0.1073   34.7  0.4531  135.1
 3.700  0.6909  129.2   3.461   38.3  0.1093   33.4  0.4585  133.6
 3.800  0.6955  127.8   3.356   36.8  0.1114   32.3  0.4642  132.3
 3.900  0.7005  126.4   3.254   35.3  0.1135   31.2  0.4702  130.9
 4.000  0.7060  125.0   3.154   33.6  0.1157   30.1  0.4764  129.6
 4.100  0.7097  123.8   3.068   32.4  0.1174   29.1  0.4810  128.4
 4.200  0.7137  122.5   2.984   31.2  0.1191   28.1  0.4858  127.3
 4.300  0.7180  121.3   2.901   29.9  0.1208   27.1  0.4908  126.1
 4.400  0.7227  120.1   2.820   28.5  0.1226   26.1  0.4960  125.0
 4.500  0.7277  118.9   2.741   27.0  0.1244   25.2  0.5014  123.9
 4.600  0.7300  117.8   2.675   25.9  0.1261   24.3  0.5048  122.7
 4.700  0.7326  116.7   2.610   24.7  0.1277   23.3  0.5084  121.6
 4.800  0.7354  115.6   2.545   23.5  0.1295   22.4  0.5122  120.5
 4.900  0.7385  114.6   2.483   22.2  0.1312   21.6  0.5161  119.4
 5.000  0.7418  113.5   2.421   20.9  0.1330   20.7  0.5203  118.3
 5.100  0.7426  112.5   2.369   19.8  0.1348   19.7  0.5223  117.1
 5.200  0.7437  111.4   2.318   18.6  0.1366   18.7  0.5246  115.9
 5.300  0.7450  110.4   2.267   17.4  0.1384   17.7  0.5271  114.7
 5.400  0.7466  109.3   2.218   16.1  0.1403   16.8  0.5298  113.5
 5.500  0.7484  108.3   2.170   14.8  0.1422   15.9  0.5328  112.3
 5.600  0.7491  107.4   2.128   13.7  0.1439   14.9  0.5353  111.1
 5.700  0.7499  106.5   2.086   12.6  0.1456   13.9  0.5381  109.8
 5.800  0.7510  105.7   2.046   11.5  0.1474   13.0  0.5412  108.6
 5.900  0.7522  104.8   2.006   10.3  0.1492   12.0  0.5445  107.4
 6.000  0.7536  103.9   1.967    9.0  0.1510   11.1  0.5480  106.2
 6.100  0.7559  103.0   1.935    7.8  0.1526   10.0  0.5509  105.2
 6.200  0.7584  102.2   1.904    6.6  0.1542    9.0  0.5539  104.2
 6.300  0.7611  101.3   1.873    5.4  0.1559    8.0  0.5571  103.2
 6.400  0.7640  100.4   1.844    4.1  0.1576    7.0  0.5605  102.2
 6.500  0.7670   99.6   1.815    2.8  0.1594    6.0  0.5640  101.2
 6.600  0.7693   98.5   1.785    1.6  0.1609    4.8  0.5668  100.3
 6.800  0.7746   96.5   1.728   -1.0  0.1642    2.5  0.5730   98.5
 7.000  0.7810   94.4   1.674   -3.8  0.1678    0.3  0.5796   96.8
 7.200  0.7857   92.0   1.616   -6.4  0.1695   -2.0  0.5863   94.7
 7.400  0.7917   89.7   1.562   -9.2  0.1715   -4.3  0.5937   92.6
 7.600  0.7972   87.2   1.507  -11.9  0.1731   -6.5  0.6014   90.3
 7.800  0.8023   84.7   1.451  -14.5  0.1743   -8.7  0.6097   87.7
 8.000  0.8090   82.2   1.398  -17.3  0.1757  -10.9  0.6192   85.2
 8.200  0.8141   79.6   1.345  -19.6  0.1758  -13.1  0.6286   82.7
 8.400  0.8208   77.1   1.294  -22.1  0.1762  -15.2  0.6392   80.4
 8.600  0.8273   74.6   1.244  -24.4  0.1764  -17.3  0.6503   78.0
 8.800  0.8332   72.4   1.196  -26.5  0.1762  -19.3  0.6619   75.7
 9.000  0.8405   70.1   1.149  -28.8  0.1763  -21.3  0.6745   73.4
 9.200  0.8475   68.3   1.104  -30.6  0.1752  -22.9  0.6860   71.3
 9.400  0.8553   66.6   1.060  -32.5  0.1742  -24.5  0.6984   69.4
 9.600  0.8634   65.1   1.020  -34.1  0.1732  -25.8  0.7096   67.9
 9.800  0.8715   63.9   0.985  -35.4  0.1722  -26.9  0.7193   66.8
10.000  0.8799   62.8   0.950  -36.8  0.1712  -28.0  0.7292   65.8
!
!  f       NFmin   Gammaopt  rn/50
! GHz       dB    MAG  ANG    -
 0.450      1.11  0.47 -171   0.06
 0.900      1.13  0.48 -166   0.06
 1.900      1.27  0.50 -151   0.07
 2.400      1.35  0.48 -142   0.09
 3.500      1.56  0.50 -118   0.16
!
! (c) 2016  Infineon Technologies AG, Munich
