! Infineon Technologies  Discrete & RF Semiconductors
! BFP640FESD
! VCE =  4.0 V,  IC =  50 mA
! Common Emitter S-Parameters:                            Jan 2016
# GHz  S  MA  R  50
!  f         S11            S21            S12            S22
! GHz     MAG   ANG      MAG   ANG      MAG   ANG      MAG   ANG
 0.010  0.3683   -5.1  73.756 -179.7  0.0009   92.8  0.8596    7.3
 0.015  0.3715   -5.4  73.936  178.6  0.0010   77.5  0.8816    3.8
 0.020  0.3748   -5.6  74.181  176.9  0.0012   66.1  0.9067    0.4
 0.025  0.3744   -7.2  74.112  176.2  0.0014   66.5  0.9098   -0.4
 0.030  0.3744   -8.7  74.053  175.6  0.0015   66.8  0.9131   -1.2
 0.035  0.3746  -10.3  74.003  174.9  0.0017   67.0  0.9166   -1.9
 0.040  0.3751  -11.9  73.964  174.2  0.0019   67.2  0.9202   -2.7
 0.045  0.3758  -13.4  73.935  173.6  0.0020   67.4  0.9240   -3.4
 0.050  0.3769  -15.0  73.916  172.9  0.0022   67.5  0.9280   -4.2
 0.055  0.3754  -16.5  73.799  172.2  0.0023   67.6  0.9263   -4.9
 0.060  0.3743  -18.1  73.694  171.5  0.0025   67.7  0.9248   -5.6
 0.065  0.3733  -19.7  73.600  170.8  0.0026   67.7  0.9234   -6.3
 0.070  0.3727  -21.3  73.517  170.0  0.0028   67.8  0.9221   -7.0
 0.075  0.3724  -22.8  73.446  169.3  0.0029   67.9  0.9210   -7.7
 0.080  0.3723  -24.4  73.387  168.6  0.0030   67.9  0.9200   -8.4
 0.085  0.3725  -26.0  73.340  167.9  0.0032   68.0  0.9192   -9.2
 0.090  0.3730  -27.6  73.304  167.1  0.0033   68.0  0.9185   -9.9
 0.095  0.3738  -29.1  73.279  166.4  0.0035   68.1  0.9179  -10.6
 0.100  0.3749  -30.7  73.267  165.7  0.0036   68.1  0.9175  -11.3
 0.105  0.3740  -32.1  72.981  165.0  0.0037   68.0  0.9140  -11.9
 0.110  0.3733  -33.5  72.707  164.3  0.0039   67.9  0.9107  -12.5
 0.115  0.3728  -35.0  72.445  163.5  0.0040   67.9  0.9074  -13.1
 0.120  0.3725  -36.4  72.194  162.8  0.0042   67.8  0.9042  -13.7
 0.125  0.3725  -37.8  71.956  162.1  0.0043   67.8  0.9012  -14.3
 0.130  0.3727  -39.2  71.729  161.3  0.0044   67.7  0.8982  -14.9
 0.135  0.3732  -40.7  71.515  160.6  0.0046   67.6  0.8953  -15.5
 0.140  0.3739  -42.1  71.312  159.8  0.0047   67.6  0.8926  -16.1
 0.145  0.3748  -43.5  71.122  159.1  0.0049   67.5  0.8899  -16.8
 0.150  0.3759  -44.9  70.945  158.3  0.0050   67.5  0.8874  -17.4
 0.155  0.3756  -46.2  70.600  157.7  0.0051   67.4  0.8832  -17.9
 0.160  0.3756  -47.5  70.264  157.0  0.0053   67.3  0.8791  -18.4
 0.165  0.3757  -48.7  69.936  156.4  0.0054   67.2  0.8750  -19.0
 0.170  0.3760  -50.0  69.617  155.7  0.0056   67.1  0.8710  -19.5
 0.175  0.3765  -51.3  69.308  155.1  0.0057   67.0  0.8671  -20.0
 0.180  0.3772  -52.6  69.008  154.4  0.0059   67.0  0.8633  -20.6
 0.185  0.3780  -53.8  68.717  153.7  0.0060   66.9  0.8595  -21.1
 0.190  0.3791  -55.1  68.435  153.1  0.0062   66.8  0.8558  -21.7
 0.195  0.3803  -56.4  68.163  152.4  0.0063   66.8  0.8522  -22.2
 0.200  0.3817  -57.6  67.901  151.7  0.0065   66.7  0.8487  -22.8
 0.220  0.3801  -62.2  66.310  149.3  0.0069   66.0  0.8312  -24.6
 0.240  0.3809  -66.8  64.845  146.7  0.0074   65.4  0.8146  -26.4
 0.260  0.3819  -71.2  63.416  144.4  0.0078   64.7  0.7975  -28.2
 0.280  0.3829  -75.3  61.986  142.3  0.0083   64.1  0.7798  -29.8
 0.300  0.3859  -79.4  60.642  140.1  0.0087   63.5  0.7627  -31.5
 0.320  0.3860  -83.1  59.139  138.2  0.0091   63.0  0.7454  -32.9
 0.340  0.3877  -86.7  57.704  136.2  0.0094   62.5  0.7286  -34.3
 0.360  0.3892  -90.1  56.292  134.4  0.0098   62.1  0.7121  -35.7
 0.380  0.3904  -93.3  54.887  132.6  0.0101   61.7  0.6957  -36.9
 0.400  0.3927  -96.4  53.535  130.8  0.0105   61.3  0.6797  -38.1
 0.420  0.3936  -99.3  52.190  129.3  0.0108   61.0  0.6646  -39.1
 0.440  0.3954 -102.1  50.883  127.7  0.0111   60.7  0.6497  -40.2
 0.450  0.3967 -103.5  50.245  126.9  0.0113   60.5  0.6423  -40.7
 0.460  0.3968 -104.8  49.626  126.2  0.0114   60.4  0.6352  -41.2
 0.480  0.3975 -107.3  48.407  124.9  0.0117   60.1  0.6211  -42.1
 0.500  0.3991 -109.9  47.219  123.4  0.0120   59.9  0.6072  -43.1
 0.520  0.3994 -112.0  46.110  122.3  0.0123   59.8  0.5948  -43.8
 0.540  0.4002 -114.1  45.020  121.1  0.0126   59.7  0.5825  -44.4
 0.560  0.4015 -116.2  43.949  119.9  0.0128   59.6  0.5702  -45.2
 0.580  0.4034 -118.3  42.898  118.6  0.0131   59.5  0.5581  -45.9
 0.600  0.4058 -120.3  41.870  117.3  0.0134   59.4  0.5460  -46.7
 0.620  0.4062 -122.0  40.955  116.4  0.0136   59.4  0.5358  -47.2
 0.640  0.4069 -123.8  40.051  115.5  0.0139   59.4  0.5257  -47.8
 0.660  0.4081 -125.5  39.157  114.5  0.0141   59.4  0.5156  -48.4
 0.680  0.4095 -127.2  38.276  113.5  0.0144   59.4  0.5056  -49.0
 0.700  0.4114 -128.9  37.407  112.4  0.0146   59.4  0.4956  -49.6
 0.720  0.4119 -130.3  36.639  111.6  0.0148   59.4  0.4872  -50.0
 0.740  0.4126 -131.6  35.878  110.8  0.0151   59.5  0.4788  -50.5
 0.760  0.4136 -132.9  35.124  110.0  0.0153   59.5  0.4704  -51.0
 0.780  0.4148 -134.3  34.378  109.1  0.0156   59.6  0.4621  -51.5
 0.800  0.4162 -135.6  33.640  108.2  0.0158   59.6  0.4538  -52.0
 0.820  0.4168 -136.7  33.007  107.5  0.0160   59.7  0.4468  -52.4
 0.840  0.4176 -137.9  32.379  106.8  0.0162   59.8  0.4398  -52.7
 0.860  0.4185 -139.0  31.756  106.1  0.0165   59.8  0.4328  -53.1
 0.880  0.4196 -140.2  31.139  105.3  0.0167   59.9  0.4258  -53.5
 0.900  0.4209 -141.3  30.527  104.5  0.0169   60.0  0.4189  -53.9
 0.920  0.4216 -142.3  29.984  103.9  0.0171   60.1  0.4128  -54.3
 0.940  0.4224 -143.3  29.445  103.3  0.0174   60.2  0.4067  -54.6
 0.960  0.4233 -144.3  28.909  102.7  0.0176   60.2  0.4007  -55.0
 0.980  0.4244 -145.3  28.376  102.0  0.0179   60.3  0.3946  -55.4
 1.000  0.4256 -146.3  27.848  101.3  0.0181   60.4  0.3886  -55.8
 1.020  0.4264 -147.1  27.389  100.8  0.0183   60.5  0.3836  -56.1
 1.040  0.4274 -148.0  26.932  100.2  0.0186   60.6  0.3785  -56.4
 1.060  0.4284 -148.8  26.478   99.7  0.0188   60.8  0.3735  -56.7
 1.080  0.4295 -149.6  26.027   99.1  0.0191   60.9  0.3685  -57.1
 1.100  0.4307 -150.4  25.578   98.5  0.0193   61.0  0.3635  -57.4
 1.120  0.4314 -151.1  25.183   98.0  0.0195   61.1  0.3591  -57.7
 1.140  0.4322 -151.9  24.790   97.5  0.0197   61.2  0.3546  -58.1
 1.160  0.4331 -152.6  24.399   97.0  0.0200   61.4  0.3502  -58.4
 1.180  0.4341 -153.4  24.010   96.5  0.0202   61.5  0.3458  -58.7
 1.200  0.4351 -154.1  23.623   95.9  0.0204   61.6  0.3414  -59.1
 1.220  0.4359 -154.7  23.280   95.5  0.0206   61.7  0.3377  -59.4
 1.240  0.4368 -155.4  22.939   95.0  0.0209   61.8  0.3340  -59.7
 1.260  0.4377 -156.0  22.599   94.6  0.0211   61.8  0.3303  -60.0
 1.280  0.4387 -156.7  22.260   94.1  0.0214   61.9  0.3266  -60.3
 1.300  0.4397 -157.3  21.923   93.6  0.0216   62.0  0.3229  -60.6
 1.320  0.4404 -157.9  21.617   93.2  0.0218   62.1  0.3195  -60.9
 1.340  0.4411 -158.5  21.312   92.8  0.0221   62.2  0.3160  -61.2
 1.360  0.4418 -159.0  21.008   92.4  0.0223   62.2  0.3126  -61.5
 1.380  0.4426 -159.6  20.705   91.9  0.0226   62.3  0.3092  -61.9
 1.400  0.4435 -160.2  20.403   91.5  0.0228   62.4  0.3058  -62.2
 1.420  0.4440 -160.7  20.143   91.1  0.0231   62.5  0.3031  -62.5
 1.440  0.4445 -161.1  19.884   90.8  0.0233   62.6  0.3003  -62.7
 1.460  0.4450 -161.6  19.626   90.4  0.0236   62.7  0.2976  -63.0
 1.480  0.4455 -162.0  19.369   90.0  0.0238   62.8  0.2949  -63.3
 1.500  0.4461 -162.5  19.113   89.6  0.0241   62.9  0.2922  -63.6
 1.520  0.4470 -162.9  18.880   89.2  0.0243   63.0  0.2897  -63.9
 1.540  0.4479 -163.4  18.649   88.9  0.0246   63.0  0.2872  -64.3
 1.560  0.4488 -163.8  18.418   88.5  0.0248   63.1  0.2847  -64.6
 1.580  0.4498 -164.3  18.187   88.1  0.0251   63.1  0.2823  -64.9
 1.600  0.4508 -164.7  17.958   87.7  0.0253   63.2  0.2798  -65.3
 1.620  0.4511 -165.2  17.751   87.4  0.0255   63.3  0.2777  -65.6
 1.640  0.4514 -165.6  17.544   87.0  0.0258   63.3  0.2755  -65.8
 1.660  0.4517 -166.1  17.338   86.6  0.0260   63.4  0.2734  -66.1
 1.680  0.4520 -166.5  17.133   86.3  0.0263   63.4  0.2713  -66.4
 1.700  0.4524 -167.0  16.928   85.9  0.0265   63.5  0.2692  -66.7
 1.720  0.4530 -167.3  16.734   85.6  0.0268   63.6  0.2674  -67.0
 1.740  0.4537 -167.7  16.540   85.3  0.0270   63.7  0.2657  -67.3
 1.760  0.4544 -168.0  16.346   85.0  0.0273   63.7  0.2639  -67.6
 1.780  0.4551 -168.4  16.153   84.6  0.0275   63.8  0.2621  -67.9
 1.800  0.4558 -168.7  15.961   84.3  0.0278   63.9  0.2604  -68.2
 1.820  0.4564 -169.1  15.795   84.0  0.0281   63.9  0.2586  -68.6
 1.840  0.4570 -169.5  15.629   83.7  0.0283   63.9  0.2569  -68.9
 1.860  0.4576 -169.9  15.463   83.4  0.0286   64.0  0.2551  -69.3
 1.880  0.4582 -170.3  15.298   83.0  0.0288   64.0  0.2534  -69.7
 1.900  0.4589 -170.7  15.134   82.7  0.0291   64.0  0.2517  -70.1
 1.920  0.4590 -171.0  14.983   82.4  0.0294   64.0  0.2504  -70.4
 1.940  0.4590 -171.3  14.831   82.2  0.0296   64.0  0.2490  -70.6
 1.960  0.4591 -171.6  14.681   81.9  0.0299   64.1  0.2477  -70.9
 1.980  0.4592 -171.9  14.530   81.6  0.0301   64.1  0.2464  -71.1
 2.000  0.4593 -172.2  14.380   81.3  0.0304   64.1  0.2451  -71.4
 2.020  0.4595 -172.5  14.246   81.0  0.0307   64.1  0.2438  -71.7
 2.040  0.4598 -172.9  14.113   80.7  0.0309   64.1  0.2425  -72.1
 2.060  0.4601 -173.2  13.980   80.5  0.0312   64.1  0.2413  -72.4
 2.080  0.4604 -173.6  13.847   80.2  0.0314   64.1  0.2400  -72.8
 2.100  0.4607 -173.9  13.714   79.9  0.0317   64.2  0.2388  -73.1
 2.120  0.4610 -174.2  13.582   79.6  0.0320   64.2  0.2376  -73.5
 2.140  0.4614 -174.6  13.451   79.3  0.0322   64.2  0.2363  -73.8
 2.160  0.4617 -174.9  13.319   78.9  0.0325   64.2  0.2351  -74.2
 2.180  0.4621 -175.3  13.188   78.6  0.0327   64.2  0.2339  -74.5
 2.200  0.4625 -175.6  13.058   78.3  0.0330   64.2  0.2327  -74.9
 2.220  0.4629 -175.9  12.946   78.1  0.0333   64.2  0.2317  -75.2
 2.240  0.4633 -176.2  12.834   77.8  0.0335   64.2  0.2306  -75.6
 2.260  0.4637 -176.5  12.723   77.5  0.0338   64.2  0.2296  -75.9
 2.280  0.4641 -176.8  12.612   77.3  0.0341   64.2  0.2286  -76.3
 2.300  0.4645 -177.2  12.501   77.0  0.0343   64.1  0.2276  -76.7
 2.320  0.4650 -177.5  12.390   76.7  0.0346   64.1  0.2266  -77.0
 2.340  0.4654 -177.8  12.279   76.5  0.0349   64.1  0.2256  -77.4
 2.360  0.4659 -178.1  12.169   76.2  0.0352   64.1  0.2246  -77.8
 2.380  0.4664 -178.4  12.060   75.9  0.0354   64.1  0.2237  -78.1
 2.400  0.4669 -178.7  11.950   75.6  0.0357   64.1  0.2227  -78.5
 2.420  0.4675 -179.0  11.854   75.4  0.0360   64.1  0.2219  -78.9
 2.440  0.4681 -179.3  11.757   75.1  0.0362   64.1  0.2211  -79.3
 2.460  0.4687 -179.6  11.661   74.9  0.0365   64.0  0.2203  -79.7
 2.480  0.4693 -179.9  11.565   74.6  0.0367   64.0  0.2195  -80.1
 2.500  0.4699  179.8  11.470   74.4  0.0370   64.0  0.2187  -80.5
 2.520  0.4706  179.5  11.374   74.2  0.0373   64.0  0.2179  -80.9
 2.540  0.4712  179.2  11.279   73.9  0.0375   64.0  0.2172  -81.3
 2.560  0.4719  178.9  11.184   73.6  0.0378   63.9  0.2164  -81.8
 2.580  0.4726  178.6  11.089   73.4  0.0380   63.9  0.2157  -82.2
 2.600  0.4733  178.3  10.995   73.1  0.0383   63.9  0.2150  -82.6
 2.620  0.4737  178.0  10.911   72.9  0.0386   63.9  0.2145  -83.0
 2.640  0.4740  177.8  10.828   72.7  0.0388   63.9  0.2139  -83.4
 2.660  0.4744  177.5  10.745   72.4  0.0391   63.8  0.2134  -83.8
 2.680  0.4748  177.3  10.661   72.2  0.0393   63.8  0.2129  -84.1
 2.700  0.4752  177.0  10.578   72.0  0.0396   63.8  0.2124  -84.5
 2.720  0.4756  176.7  10.496   71.8  0.0399   63.8  0.2119  -84.9
 2.740  0.4760  176.5  10.413   71.5  0.0401   63.8  0.2115  -85.3
 2.760  0.4764  176.2  10.330   71.3  0.0404   63.7  0.2110  -85.7
 2.780  0.4769  176.0  10.248   71.0  0.0406   63.7  0.2105  -86.1
 2.800  0.4773  175.7  10.166   70.8  0.0409   63.7  0.2101  -86.5
 2.820  0.4777  175.5  10.095   70.6  0.0412   63.6  0.2098  -86.8
 2.840  0.4781  175.2  10.025   70.4  0.0414   63.6  0.2095  -87.2
 2.860  0.4786  175.0   9.954   70.1  0.0417   63.5  0.2092  -87.5
 2.880  0.4790  174.7   9.884   69.9  0.0420   63.5  0.2089  -87.8
 2.900  0.4794  174.5   9.814   69.7  0.0422   63.4  0.2087  -88.2
 2.920  0.4799  174.3   9.744   69.5  0.0425   63.4  0.2084  -88.5
 2.940  0.4804  174.0   9.674   69.2  0.0428   63.3  0.2081  -88.9
 2.960  0.4808  173.8   9.605   69.0  0.0431   63.3  0.2079  -89.2
 2.980  0.4813  173.5   9.535   68.7  0.0433   63.2  0.2076  -89.6
 3.000  0.4818  173.3   9.466   68.5  0.0436   63.2  0.2074  -89.9
 3.100  0.4833  172.2   9.183   67.6  0.0450   63.0  0.2066  -91.2
 3.200  0.4850  171.0   8.903   66.7  0.0463   62.8  0.2060  -92.5
 3.300  0.4868  169.9   8.625   65.6  0.0477   62.6  0.2055  -93.8
 3.400  0.4889  168.8   8.351   64.6  0.0490   62.4  0.2050  -95.1
 3.500  0.4911  167.7   8.079   63.4  0.0504   62.2  0.2047  -96.4
 3.600  0.4919  166.7   7.872   62.5  0.0518   61.9  0.2039  -97.2
 3.700  0.4928  165.7   7.667   61.5  0.0533   61.6  0.2031  -98.0
 3.800  0.4938  164.7   7.464   60.5  0.0547   61.3  0.2024  -98.8
 3.900  0.4950  163.7   7.264   59.4  0.0562   61.1  0.2017  -99.7
 4.000  0.4964  162.7   7.066   58.3  0.0576   60.8  0.2011 -100.5
 4.100  0.4983  161.8   6.900   57.4  0.0590   60.3  0.1995 -101.7
 4.200  0.5003  160.9   6.736   56.4  0.0605   59.9  0.1981 -102.9
 4.300  0.5024  160.0   6.574   55.3  0.0619   59.4  0.1967 -104.1
 4.400  0.5047  159.1   6.414   54.2  0.0634   59.0  0.1954 -105.3
 4.500  0.5071  158.2   6.257   53.1  0.0648   58.6  0.1942 -106.6
 4.600  0.5085  157.4   6.118   52.2  0.0661   58.1  0.1923 -107.8
 4.700  0.5100  156.5   5.980   51.3  0.0674   57.7  0.1904 -109.0
 4.800  0.5116  155.7   5.844   50.3  0.0687   57.3  0.1886 -110.2
 4.900  0.5134  154.9   5.710   49.3  0.0701   56.9  0.1869 -111.4
 5.000  0.5152  154.1   5.578   48.2  0.0714   56.5  0.1853 -112.7
 5.100  0.5136  153.4   5.467   47.4  0.0731   56.1  0.1844 -113.1
 5.200  0.5122  152.7   5.356   46.7  0.0748   55.8  0.1834 -113.5
 5.300  0.5108  152.0   5.247   45.8  0.0764   55.4  0.1825 -113.9
 5.400  0.5094  151.3   5.139   45.0  0.0781   55.1  0.1816 -114.4
 5.500  0.5082  150.6   5.032   44.1  0.0798   54.8  0.1807 -114.8
 5.600  0.5096  149.6   4.952   43.2  0.0812   54.0  0.1788 -116.2
 5.700  0.5112  148.7   4.874   42.2  0.0827   53.3  0.1771 -117.6
 5.800  0.5129  147.7   4.797   41.3  0.0841   52.6  0.1754 -119.0
 5.900  0.5147  146.7   4.721   40.2  0.0856   52.0  0.1738 -120.4
 6.000  0.5167  145.8   4.647   39.2  0.0871   51.3  0.1724 -121.9
 6.100  0.5183  144.7   4.570   38.3  0.0884   50.7  0.1699 -123.6
 6.200  0.5201  143.5   4.495   37.3  0.0897   50.0  0.1676 -125.4
 6.300  0.5221  142.4   4.421   36.3  0.0910   49.4  0.1655 -127.2
 6.400  0.5243  141.3   4.348   35.3  0.0923   48.9  0.1635 -129.0
 6.500  0.5267  140.2   4.277   34.2  0.0936   48.3  0.1617 -130.9
 6.600  0.5289  139.2   4.207   33.3  0.0948   47.8  0.1577 -132.3
 6.800  0.5338  137.2   4.070   31.4  0.0972   46.8  0.1501 -135.3
 7.000  0.5394  135.2   3.938   29.3  0.0997   45.9  0.1429 -138.7
 7.200  0.5441  133.5   3.816   27.6  0.1026   45.0  0.1323 -141.9
 7.400  0.5493  131.9   3.697   25.8  0.1054   44.2  0.1221 -145.7
 7.600  0.5573  130.4   3.589   23.9  0.1086   43.1  0.1135 -151.6
 7.800  0.5680  128.9   3.491   21.9  0.1119   41.8  0.1075 -160.0
 8.000  0.5790  127.5   3.397   19.9  0.1153   40.6  0.1040 -169.1
 8.200  0.5887  126.1   3.291   18.0  0.1179   38.9  0.1073  179.4
 8.400  0.5988  124.8   3.189   15.9  0.1206   37.4  0.1147  169.0
 8.600  0.6073  123.6   3.090   14.0  0.1229   35.8  0.1244  159.0
 8.800  0.6144  122.4   2.993   12.2  0.1247   34.3  0.1368  149.8
 9.000  0.6218  121.2   2.899   10.4  0.1266   32.9  0.1522  142.2
 9.200  0.6306  119.9   2.818    9.2  0.1283   31.5  0.1715  135.8
 9.400  0.6397  118.7   2.739    8.0  0.1301   30.2  0.1924  130.7
 9.600  0.6531  117.2   2.667    6.4  0.1316   28.9  0.2173  126.8
 9.800  0.6711  115.5   2.603    4.5  0.1329   27.7  0.2455  123.9
10.000  0.6896  113.8   2.542    2.6  0.1342   26.5  0.2743  121.6
!
!  f       NFmin   Gammaopt  rn/50
! GHz       dB    MAG  ANG    -
 0.450      1.40  0.33 -171   0.09
 2.400      1.49  0.36 -152   0.11
 5.500      1.92  0.39 -139   0.16
10.000      2.79  0.55  -95   0.74
!
! (c) 2016  Infineon Technologies AG, Munich
