! Infineon Technologies  Discrete & RF Semiconductors
! BFP640
! VCE =  2.0 V,  IC =  40 mA
! Common Emitter S-Parameters:                            Apr 2013
# GHz  S  MA  R  50
!  f         S11            S21            S12            S22
! GHz     MAG   ANG      MAG   ANG      MAG   ANG      MAG   ANG
 0.030  0.3947   -9.5  52.172  175.2  0.0016  108.4  0.9459   -2.3
 0.040  0.3983  -12.9  52.431  173.7  0.0019   69.8  0.9515   -4.0
 0.050  0.4046  -15.7  53.286  172.2  0.0026   89.0  0.9509   -5.5
 0.060  0.4065  -19.2  53.551  170.0  0.0035   63.8  0.9508   -7.1
 0.070  0.4087  -21.8  53.516  168.2  0.0038  108.1  0.9524   -8.2
 0.080  0.4056  -25.4  53.329  166.3  0.0045   76.3  0.9454   -9.8
 0.090  0.4053  -28.5  52.765  164.5  0.0038   82.0  0.9427  -11.2
 0.100  0.4033  -31.6  52.278  162.8  0.0049   79.5  0.9384  -12.7
 0.110  0.4009  -35.1  51.718  161.0  0.0048   81.0  0.9315  -14.1
 0.120  0.3989  -38.2  51.223  159.4  0.0057   85.2  0.9226  -15.5
 0.130  0.3988  -41.0  50.795  157.8  0.0058   76.4  0.9146  -16.9
 0.140  0.3993  -43.7  50.561  156.3  0.0065   76.7  0.9067  -18.1
 0.150  0.3996  -46.4  50.395  154.7  0.0072   80.1  0.8962  -19.3
 0.200  0.3988  -59.5  48.115  146.9  0.0088   73.9  0.8506  -24.9
 0.250  0.3927  -71.0  45.801  140.2  0.0105   71.2  0.7967  -29.5
 0.300  0.3879  -80.8  43.252  134.1  0.0123   69.8  0.7464  -33.5
 0.350  0.3820  -90.1  40.315  128.9  0.0136   68.7  0.6999  -37.1
 0.400  0.3735  -97.1  38.395  124.3  0.0149   67.6  0.6500  -39.7
 0.450  0.3689 -104.3  35.803  120.1  0.0162   65.9  0.6148  -42.0
 0.500  0.3593 -110.3  33.794  116.7  0.0172   65.3  0.5720  -44.2
 0.600  0.3470 -121.1  29.986  110.6  0.0195   63.9  0.5081  -47.1
 0.700  0.3380 -130.5  26.675  105.7  0.0216   63.8  0.4561  -49.2
 0.800  0.3307 -138.0  24.078  101.6  0.0237   62.9  0.4129  -50.6
 0.900  0.3260 -145.4  21.803   98.0  0.0262   63.0  0.3752  -51.6
 1.000  0.3225 -151.4  19.920   95.0  0.0281   62.6  0.3450  -52.3
 1.100  0.3202 -157.2  18.297   92.3  0.0303   62.4  0.3188  -52.7
 1.200  0.3181 -162.1  16.933   89.8  0.0324   62.0  0.2973  -52.9
 1.300  0.3180 -166.9  15.706   87.5  0.0345   61.4  0.2787  -52.9
 1.400  0.3196 -171.3  14.636   85.3  0.0366   61.1  0.2630  -52.8
 1.500  0.3187 -175.1  13.753   83.4  0.0388   60.5  0.2486  -52.5
 1.600  0.3199 -178.8  12.961   81.4  0.0409   59.9  0.2366  -52.5
 1.700  0.3227  177.6  12.211   79.6  0.0431   59.8  0.2240  -51.9
 1.800  0.3246  174.5  11.573   77.8  0.0453   58.8  0.2145  -52.1
 1.900  0.3279  171.5  10.996   76.1  0.0475   58.3  0.2040  -51.7
 2.000  0.3295  168.7  10.493   74.5  0.0497   57.6  0.1956  -51.9
 2.100  0.3348  166.2   9.975   72.8  0.0516   56.8  0.1868  -52.2
 2.200  0.3369  163.6   9.544   71.2  0.0538   56.3  0.1794  -52.0
 2.300  0.3417  160.9   9.112   69.6  0.0556   55.6  0.1716  -51.6
 2.400  0.3438  158.5   8.758   68.1  0.0582   54.8  0.1655  -51.5
 2.500  0.3479  156.1   8.407   66.5  0.0602   54.2  0.1585  -51.2
 2.600  0.3507  153.9   8.100   65.1  0.0622   53.2  0.1511  -50.7
 2.700  0.3556  151.6   7.800   63.6  0.0643   52.5  0.1443  -50.3
 2.800  0.3602  149.4   7.518   62.0  0.0664   51.6  0.1370  -49.9
 2.900  0.3649  147.5   7.260   60.6  0.0685   50.8  0.1302  -49.9
 3.000  0.3699  145.4   7.017   59.2  0.0703   50.1  0.1227  -50.0
 3.100  0.3742  143.5   6.799   57.8  0.0726   49.2  0.1158  -50.0
 3.200  0.3812  141.5   6.568   56.4  0.0746   48.3  0.1085  -50.4
 3.300  0.3854  139.6   6.384   54.9  0.0768   47.4  0.1018  -50.7
 3.400  0.3926  137.7   6.188   53.6  0.0786   46.6  0.0944  -51.2
 3.500  0.3968  135.9   6.023   52.2  0.0807   45.5  0.0875  -51.3
 3.600  0.4046  134.1   5.840   50.8  0.0825   44.7  0.0800  -51.4
 3.700  0.4103  132.4   5.683   49.5  0.0845   43.9  0.0722  -51.4
 3.800  0.4182  130.7   5.514   48.1  0.0863   43.2  0.0647  -51.8
 3.900  0.4236  129.1   5.376   46.8  0.0881   42.1  0.0569  -52.6
 4.000  0.4297  127.6   5.241   45.4  0.0901   41.2  0.0492  -53.5
 4.100  0.4364  126.0   5.100   44.1  0.0920   40.3  0.0418  -54.2
 4.200  0.4436  124.5   4.971   42.8  0.0937   39.3  0.0350  -55.8
 4.300  0.4498  123.0   4.843   41.4  0.0954   38.5  0.0280  -57.6
 4.400  0.4567  121.8   4.730   40.2  0.0973   37.7  0.0218  -59.1
 4.500  0.4615  120.4   4.621   38.9  0.0990   36.6  0.0153  -61.9
 4.600  0.4684  119.3   4.514   37.6  0.1007   35.9  0.0092  -64.0
 4.700  0.4742  118.0   4.399   36.4  0.1024   35.1  0.0036  -59.9
 4.800  0.4800  116.9   4.309   35.1  0.1043   34.1  0.0025  123.3
 4.900  0.4833  115.8   4.222   33.9  0.1059   33.3  0.0080  114.6
 5.000  0.4903  114.8   4.124   32.7  0.1076   32.4  0.0131  112.5
 5.100  0.4938  113.7   4.040   31.4  0.1092   31.5  0.0178  109.5
 5.200  0.4995  112.7   3.946   30.2  0.1111   30.6  0.0224  107.1
 5.300  0.5023  111.7   3.873   29.0  0.1127   29.8  0.0273  105.2
 5.400  0.5068  110.7   3.793   27.8  0.1143   29.0  0.0318  103.2
 5.500  0.5089  109.7   3.728   26.7  0.1160   28.2  0.0366  101.0
 5.600  0.5131  108.8   3.650   25.5  0.1175   27.3  0.0406   99.3
 5.700  0.5148  108.0   3.585   24.3  0.1194   26.5  0.0457   97.1
 5.800  0.5198  106.9   3.511   23.1  0.1210   25.6  0.0500   95.8
 5.900  0.5218  106.2   3.456   22.0  0.1230   24.7  0.0545   94.8
 6.000  0.5249  105.2   3.396   20.8  0.1245   24.0  0.0591   94.4
 6.100  0.5296  104.5   3.340   19.6  0.1264   23.0  0.0634   93.4
 6.200  0.5314  103.5   3.285   18.5  0.1282   22.1  0.0681   93.3
 6.300  0.5363  102.6   3.233   17.2  0.1300   21.2  0.0728   92.7
 6.400  0.5383  101.6   3.189   16.0  0.1317   20.2  0.0778   92.8
 6.500  0.5431  100.5   3.137   14.7  0.1333   19.2  0.0827   92.2
 6.600  0.5470   99.4   3.079   13.4  0.1349   18.2  0.0873   91.8
 6.700  0.5509   98.3   3.039   12.3  0.1365   17.3  0.0923   91.3
 6.800  0.5551   97.1   2.988   11.0  0.1380   16.2  0.0968   91.0
 6.900  0.5583   96.1   2.951    9.9  0.1396   15.3  0.1024   90.7
 7.000  0.5630   94.8   2.901    8.5  0.1411   14.4  0.1070   90.7
 7.100  0.5674   93.7   2.861    7.3  0.1427   13.3  0.1121   90.4
 7.200  0.5723   92.4   2.810    6.0  0.1441   12.3  0.1168   90.2
 7.300  0.5761   91.3   2.776    4.7  0.1454   11.3  0.1223   89.7
 7.400  0.5810   90.0   2.731    3.5  0.1470   10.3  0.1271   89.3
 7.500  0.5854   88.9   2.697    2.2  0.1481    9.2  0.1334   88.3
 7.600  0.5911   87.5   2.650    0.9  0.1494    8.2  0.1394   88.0
 7.700  0.5980   86.4   2.607   -0.5  0.1506    7.2  0.1454   87.1
 7.800  0.6032   85.1   2.569   -1.7  0.1517    6.1  0.1516   86.3
 7.900  0.6099   84.0   2.529   -3.0  0.1529    5.0  0.1596   85.3
 8.000  0.6153   82.8   2.493   -4.3  0.1539    4.1  0.1663   84.5
 8.500  0.6507   77.0   2.294  -10.6  0.1579   -1.0  0.2087   78.9
 9.000  0.6872   71.7   2.095  -16.4  0.1600   -5.8  0.2614   74.5
 9.500  0.7227   67.3   1.916  -21.2  0.1607   -9.7  0.3161   71.8
10.000  0.7525   64.0   1.772  -25.3  0.1617  -12.8  0.3622   71.0
!
!  f       NFmin   Gammaopt  rn/50
! GHz       dB    MAG  ANG    -
 0.450      1.25  0.25 -170   0.05
 0.900      1.25  0.28 -159   0.07
 1.500      1.26  0.31 -145   0.09
 1.900      1.29  0.32  222   0.12
 2.400      1.34  0.33 -124   0.14
 3.500      1.46  0.38 -107   0.17
 5.500      1.67  0.42  -91   0.26
10.000      2.15  0.63  -49   0.74
!
! (c) 2013  Infineon Technologies AG, Munich
