! Infineon Technologies  Discrete & RF Semiconductors
! BFP640
! VCE =  3.5 V,  IC =  10 mA
! Common Emitter S-Parameters:                            Apr 2013
# GHz  S  MA  R  50
!  f         S11            S21            S12            S22
! GHz     MAG   ANG      MAG   ANG      MAG   ANG      MAG   ANG
 0.030  0.8576   -2.6  26.650  176.7  0.0020   70.0  0.9911   -1.5
 0.040  0.8570   -3.5  26.596  176.0  0.0024   90.5  0.9912   -2.1
 0.050  0.8569   -4.5  26.753  175.5  0.0032   85.6  0.9929   -2.7
 0.060  0.8563   -5.5  26.742  174.5  0.0037   83.4  0.9909   -3.3
 0.070  0.8565   -6.6  26.673  173.9  0.0044   85.8  0.9921   -3.9
 0.080  0.8527   -7.4  26.719  173.1  0.0051   86.9  0.9903   -4.5
 0.090  0.8531   -8.4  26.552  172.4  0.0051   77.5  0.9888   -5.0
 0.100  0.8516   -9.2  26.559  171.7  0.0051   81.9  0.9881   -5.6
 0.110  0.8509  -10.3  26.448  170.9  0.0062   79.3  0.9879   -6.2
 0.120  0.8492  -11.2  26.455  170.1  0.0066   86.8  0.9859   -6.8
 0.130  0.8499  -12.1  26.320  169.4  0.0073   84.7  0.9839   -7.4
 0.140  0.8474  -13.0  26.360  168.6  0.0075   82.5  0.9830   -7.9
 0.150  0.8469  -14.0  26.257  167.9  0.0083   82.2  0.9817   -8.5
 0.200  0.8394  -18.6  25.916  164.2  0.0108   80.2  0.9723  -11.3
 0.250  0.8294  -23.1  25.529  160.4  0.0131   77.2  0.9605  -14.0
 0.300  0.8169  -27.6  25.110  156.9  0.0153   76.5  0.9457  -16.7
 0.350  0.8036  -32.1  24.652  153.2  0.0179   74.4  0.9295  -19.4
 0.400  0.7875  -36.6  24.246  149.7  0.0201   72.8  0.9100  -21.9
 0.450  0.7725  -40.8  23.663  146.4  0.0227   70.2  0.8932  -24.3
 0.500  0.7556  -44.9  23.041  143.4  0.0247   69.1  0.8715  -26.5
 0.600  0.7180  -53.2  21.949  137.1  0.0284   65.3  0.8273  -30.8
 0.700  0.6813  -61.0  20.745  131.6  0.0319   61.7  0.7819  -34.7
 0.800  0.6406  -68.8  19.707  126.2  0.0352   59.3  0.7389  -37.9
 0.900  0.6073  -75.8  18.544  121.6  0.0379   56.6  0.6947  -40.9
 1.000  0.5752  -82.4  17.443  117.4  0.0406   54.8  0.6546  -43.4
 1.100  0.5426  -89.0  16.478  113.3  0.0427   52.6  0.6153  -45.7
 1.200  0.5162  -94.9  15.519  109.7  0.0448   51.1  0.5821  -47.6
 1.300  0.4906 -100.8  14.669  106.4  0.0469   49.7  0.5518  -49.1
 1.400  0.4708 -106.2  13.881  103.4  0.0486   48.5  0.5239  -50.6
 1.500  0.4499 -111.7  13.184  100.5  0.0507   47.6  0.4979  -51.7
 1.600  0.4314 -117.4  12.578   97.6  0.0524   46.5  0.4747  -52.8
 1.700  0.4186 -122.3  11.961   95.1  0.0540   45.6  0.4519  -53.7
 1.800  0.4057 -127.5  11.420   92.6  0.0557   44.7  0.4325  -54.7
 1.900  0.3958 -132.4  10.932   90.3  0.0573   44.0  0.4114  -55.5
 2.000  0.3862 -137.4  10.476   88.0  0.0589   43.2  0.3952  -56.4
 2.100  0.3805 -142.0  10.035   85.8  0.0605   42.6  0.3776  -57.3
 2.200  0.3738 -146.4   9.632   83.7  0.0621   41.7  0.3641  -58.0
 2.300  0.3680 -150.9   9.265   81.6  0.0639   41.2  0.3488  -58.4
 2.400  0.3635 -155.0   8.918   79.7  0.0654   40.5  0.3357  -59.0
 2.500  0.3591 -159.6   8.606   77.7  0.0670   40.2  0.3215  -59.4
 2.600  0.3567 -163.6   8.300   75.8  0.0686   39.5  0.3090  -59.9
 2.700  0.3548 -167.7   8.023   74.0  0.0700   38.9  0.2971  -60.2
 2.800  0.3544 -171.4   7.755   72.2  0.0717   38.1  0.2853  -60.7
 2.900  0.3544 -175.3   7.511   70.4  0.0731   37.5  0.2738  -61.3
 3.000  0.3550 -179.1   7.277   68.7  0.0747   36.9  0.2614  -61.9
 3.100  0.3560  177.2   7.060   66.9  0.0763   36.3  0.2519  -62.5
 3.200  0.3578  173.8   6.847   65.3  0.0779   35.6  0.2405  -63.3
 3.300  0.3605  170.4   6.656   63.5  0.0795   35.1  0.2310  -64.0
 3.400  0.3639  166.9   6.467   61.9  0.0810   34.4  0.2196  -64.9
 3.500  0.3674  163.8   6.289   60.3  0.0825   33.6  0.2105  -65.5
 3.600  0.3718  160.7   6.118   58.7  0.0841   33.1  0.2000  -66.5
 3.700  0.3766  157.8   5.953   57.1  0.0855   32.2  0.1911  -67.3
 3.800  0.3816  154.9   5.799   55.5  0.0870   31.6  0.1807  -68.3
 3.900  0.3860  152.0   5.654   53.9  0.0885   31.0  0.1710  -69.4
 4.000  0.3922  149.5   5.506   52.4  0.0898   30.2  0.1619  -70.7
 4.100  0.3971  146.9   5.371   50.9  0.0913   29.5  0.1528  -71.9
 4.200  0.4041  144.6   5.233   49.4  0.0927   28.9  0.1450  -73.4
 4.300  0.4089  142.1   5.112   47.9  0.0942   28.1  0.1371  -74.8
 4.400  0.4165  140.0   4.988   46.5  0.0957   27.4  0.1297  -76.1
 4.500  0.4208  137.8   4.876   45.0  0.0967   26.8  0.1223  -77.4
 4.600  0.4281  135.9   4.764   43.5  0.0984   26.1  0.1151  -78.8
 4.700  0.4330  134.1   4.651   42.3  0.0996   25.4  0.1081  -79.9
 4.800  0.4396  132.3   4.553   40.8  0.1010   24.7  0.1020  -81.2
 4.900  0.4438  130.5   4.454   39.4  0.1023   24.1  0.0954  -82.2
 5.000  0.4501  129.0   4.360   38.1  0.1038   23.4  0.0889  -83.4
 5.100  0.4544  127.4   4.266   36.7  0.1051   22.7  0.0835  -84.3
 5.200  0.4593  125.9   4.180   35.4  0.1063   22.0  0.0779  -84.9
 5.300  0.4630  124.4   4.094   34.1  0.1076   21.3  0.0728  -85.6
 5.400  0.4674  123.1   4.015   32.8  0.1090   20.7  0.0671  -85.8
 5.500  0.4706  121.7   3.936   31.5  0.1104   20.1  0.0617  -85.9
 5.600  0.4742  120.4   3.862   30.2  0.1116   19.4  0.0564  -86.0
 5.700  0.4768  119.2   3.788   29.0  0.1130   18.7  0.0510  -85.4
 5.800  0.4807  117.8   3.721   27.7  0.1143   18.1  0.0461  -85.2
 5.900  0.4840  116.8   3.655   26.5  0.1159   17.4  0.0415  -84.8
 6.000  0.4867  115.5   3.598   25.2  0.1175   16.8  0.0362  -85.1
 6.100  0.4921  114.6   3.536   24.0  0.1190   16.0  0.0314  -85.3
 6.200  0.4939  113.3   3.481   22.8  0.1203   15.2  0.0268  -86.8
 6.300  0.4990  112.1   3.425   21.5  0.1218   14.5  0.0215  -87.4
 6.400  0.5013  110.8   3.376   20.2  0.1234   13.7  0.0163  -89.9
 6.500  0.5061  109.5   3.322   18.9  0.1248   12.9  0.0108  -93.3
 6.600  0.5094  108.2   3.268   17.5  0.1263   12.1  0.0059 -101.9
 6.700  0.5139  106.9   3.222   16.3  0.1276   11.3  0.0018 -139.5
 6.800  0.5178  105.5   3.171   15.0  0.1290   10.4  0.0046  113.9
 6.900  0.5220  104.2   3.126   13.7  0.1303    9.7  0.0099  101.9
 7.000  0.5258  102.7   3.080   12.3  0.1319    8.8  0.0156  102.1
 7.100  0.5307  101.4   3.035   11.1  0.1331    7.9  0.0204  100.5
 7.200  0.5347  100.0   2.989    9.8  0.1344    7.1  0.0255   99.9
 7.300  0.5395   98.6   2.949    8.4  0.1355    6.1  0.0305   98.0
 7.400  0.5437   97.1   2.906    7.1  0.1368    5.4  0.0358   96.7
 7.500  0.5495   95.7   2.863    5.8  0.1380    4.4  0.0420   94.4
 7.600  0.5548   94.2   2.821    4.4  0.1391    3.6  0.0485   93.9
 7.700  0.5616   92.9   2.779    3.1  0.1401    2.6  0.0542   92.1
 7.800  0.5675   91.4   2.737    1.8  0.1413    1.7  0.0604   90.4
 7.900  0.5742   90.1   2.698    0.4  0.1422    0.8  0.0681   88.7
 8.000  0.5806   88.7   2.656   -0.9  0.1432   -0.1  0.0754   87.6
 8.500  0.6179   82.1   2.452   -7.5  0.1472   -4.6  0.1184   80.1
 9.000  0.6561   76.2   2.253  -13.5  0.1494   -8.9  0.1722   76.0
 9.500  0.6942   71.2   2.065  -18.8  0.1505  -12.6  0.2295   74.0
10.000  0.7269   67.5   1.910  -23.3  0.1515  -15.5  0.2779   74.1
!
!  f       NFmin   Gammaopt  rn/50
! GHz       dB    MAG  ANG    -
 0.450      0.64  0.26   10   0.04
 0.900      0.66  0.25   17   0.05
 1.500      0.67  0.22   29   0.06
 1.900      0.70  0.18   48   0.07
 2.400      0.74  0.16   59   0.07
 3.500      0.87  0.13   71   0.09
 5.500      1.09  0.21 -128   0.10
10.000      1.66  0.58  -60   0.40
!
! (c) 2013  Infineon Technologies AG, Munich
