! Infineon Technologies  Discrete & RF Semiconductors
! BFP620F
! VCE =  1.8 V,  IC =  55 mA
! Common Emitter S-Parameters:                            Dec 2014
# GHz  S  MA  R  50
!  f         S11            S21            S12            S22
! GHz     MAG   ANG      MAG   ANG      MAG   ANG      MAG   ANG
 0.030  0.4820   -9.1  71.529  174.6  0.0024   94.4  0.9461   -2.5
 0.040  0.4783  -11.6  71.545  172.3  0.0029   97.1  0.9527   -4.7
 0.050  0.4730  -14.3  71.460  170.1  0.0023  107.2  0.9539   -6.9
 0.060  0.4719  -17.0  71.153  168.1  0.0032   78.1  0.9525   -8.9
 0.070  0.4717  -19.8  70.756  165.9  0.0055   77.8  0.9533  -11.3
 0.080  0.4693  -22.2  70.223  163.7  0.0057   89.3  0.9496  -13.2
 0.090  0.4629  -24.7  69.474  161.6  0.0062   84.8  0.9433  -15.3
 0.100  0.4573  -27.3  68.685  159.7  0.0069   86.9  0.9355  -17.2
 0.110  0.4520  -29.6  67.826  157.6  0.0070   80.6  0.9270  -19.1
 0.120  0.4469  -32.2  66.933  155.7  0.0076   79.9  0.9166  -20.9
 0.130  0.4423  -34.6  66.132  153.9  0.0080   79.6  0.9060  -22.7
 0.140  0.4373  -36.8  65.142  152.1  0.0087   78.7  0.8938  -24.5
 0.150  0.4328  -39.0  64.338  150.5  0.0093   77.1  0.8820  -26.1
 0.200  0.4068  -49.6  59.272  142.5  0.0116   75.7  0.8172  -33.6
 0.250  0.3798  -59.0  54.377  135.7  0.0137   72.9  0.7523  -39.8
 0.300  0.3554  -67.4  49.738  129.9  0.0157   71.8  0.6904  -45.1
 0.350  0.3339  -75.2  45.452  125.1  0.0174   71.3  0.6331  -49.4
 0.400  0.3150  -82.2  41.739  120.9  0.0194   70.7  0.5817  -53.1
 0.450  0.2997  -88.4  38.426  117.3  0.0211   70.6  0.5384  -56.5
 0.500  0.2843  -94.1  35.482  114.2  0.0227   69.9  0.4981  -59.2
 0.600  0.2631 -104.9  30.642  108.9  0.0260   69.6  0.4301  -63.9
 0.700  0.2469 -113.8  26.859  104.8  0.0291   69.9  0.3771  -67.7
 0.800  0.2366 -121.7  23.811  101.4  0.0324   69.8  0.3331  -70.9
 0.900  0.2279 -128.8  21.365   98.5  0.0358   69.7  0.2966  -73.8
 1.000  0.2235 -135.2  19.348   96.0  0.0392   69.9  0.2657  -76.3
 1.100  0.2187 -140.9  17.651   93.8  0.0422   69.3  0.2387  -79.1
 1.200  0.2180 -146.1  16.239   91.8  0.0457   69.6  0.2166  -81.4
 1.300  0.2160 -150.9  15.014   90.1  0.0488   69.2  0.1952  -84.0
 1.400  0.2173 -155.1  13.967   88.4  0.0523   69.0  0.1786  -86.5
 1.500  0.2166 -159.2  13.042   86.9  0.0554   68.6  0.1625  -89.3
 1.600  0.2191 -162.8  12.236   85.5  0.0587   68.1  0.1507  -92.2
 1.700  0.2190 -166.2  11.517   84.1  0.0621   67.9  0.1386  -95.3
 1.800  0.2218 -169.3  10.890   82.8  0.0652   67.6  0.1301  -98.8
 1.900  0.2231 -172.0  10.318   81.6  0.0686   66.9  0.1222 -102.1
 2.000  0.2251 -174.8   9.807   80.4  0.0718   66.7  0.1175 -105.8
 2.100  0.2285 -177.3   9.340   79.2  0.0752   65.9  0.1198 -109.5
 2.200  0.2297 -179.4   8.918   78.1  0.0782   65.4  0.1156 -112.5
 2.300  0.2316  178.2   8.528   77.0  0.0814   64.8  0.1121 -115.3
 2.400  0.2330  176.1   8.180   75.9  0.0847   64.4  0.1092 -118.2
 2.500  0.2348  174.0   7.855   74.9  0.0880   63.7  0.1072 -120.7
 2.600  0.2359  172.1   7.554   73.9  0.0911   63.3  0.1052 -123.3
 2.700  0.2371  170.3   7.277   72.9  0.0944   62.7  0.1039 -125.4
 2.800  0.2378  168.4   7.019   71.9  0.0975   62.3  0.1027 -127.5
 2.900  0.2393  166.8   6.778   70.9  0.1008   61.5  0.1024 -129.5
 3.000  0.2400  165.0   6.559   69.9  0.1039   60.9  0.1023 -131.3
 3.100  0.2411  163.6   6.344   69.0  0.1072   60.3  0.1009 -132.8
 3.200  0.2413  161.9   6.149   68.1  0.1103   59.8  0.1007 -134.4
 3.300  0.2424  160.6   5.966   67.2  0.1133   59.1  0.1002 -135.6
 3.400  0.2424  158.9   5.796   66.2  0.1165   58.5  0.1000 -137.1
 3.500  0.2431  157.5   5.633   65.3  0.1197   57.9  0.0991 -138.3
 3.600  0.2437  156.0   5.480   64.4  0.1229   57.4  0.0983 -139.7
 3.700  0.2444  154.6   5.336   63.5  0.1260   56.7  0.0975 -140.8
 3.800  0.2447  153.1   5.196   62.6  0.1292   56.1  0.0968 -141.8
 3.900  0.2457  151.8   5.069   61.7  0.1323   55.5  0.0953 -143.2
 4.000  0.2462  150.5   4.943   60.8  0.1354   54.8  0.0936 -144.7
 4.100  0.2474  149.2   4.828   59.8  0.1384   54.2  0.0923 -146.1
 4.200  0.2488  148.0   4.717   59.0  0.1417   53.5  0.0906 -148.1
 4.300  0.2496  147.0   4.613   58.1  0.1446   52.9  0.0889 -149.6
 4.400  0.2514  145.7   4.512   57.2  0.1480   52.2  0.0872 -151.6
 4.500  0.2525  144.7   4.414   56.3  0.1509   51.5  0.0853 -153.6
 4.600  0.2545  143.6   4.323   55.4  0.1539   50.9  0.0835 -156.1
 4.700  0.2557  142.7   4.238   54.5  0.1571   50.1  0.0823 -158.3
 4.800  0.2582  141.7   4.153   53.6  0.1603   49.5  0.0806 -161.1
 4.900  0.2598  140.9   4.070   52.8  0.1633   48.8  0.0789 -163.9
 5.000  0.2622  139.9   3.995   51.8  0.1663   48.0  0.0783 -166.7
 5.100  0.2639  139.1   3.920   50.9  0.1693   47.4  0.0765 -169.3
 5.200  0.2665  138.5   3.849   50.0  0.1724   46.6  0.0755 -172.4
 5.300  0.2683  137.7   3.779   49.1  0.1753   45.9  0.0747 -175.0
 5.400  0.2711  137.0   3.711   48.1  0.1782   45.2  0.0748 -177.9
 5.500  0.2734  136.3   3.645   47.3  0.1811   44.4  0.0740  179.1
 5.600  0.2767  135.5   3.582   46.3  0.1841   43.7  0.0742  175.9
 5.700  0.2786  134.8   3.521   45.4  0.1869   43.0  0.0741  173.1
 5.800  0.2811  134.0   3.463   44.4  0.1897   42.2  0.0742  170.4
 5.900  0.2839  133.3   3.406   43.6  0.1925   41.5  0.0744  166.8
 6.000  0.2863  132.4   3.348   42.6  0.1952   40.7  0.0747  164.3
 6.100  0.2889  131.6   3.293   41.8  0.1980   40.0  0.0749  161.1
 6.200  0.2915  130.7   3.239   40.8  0.2008   39.2  0.0754  157.5
 6.300  0.2945  129.6   3.186   39.8  0.2031   38.5  0.0768  153.9
 6.400  0.2974  128.6   3.136   38.9  0.2057   37.7  0.0780  150.7
 6.500  0.3001  127.6   3.086   38.0  0.2083   37.0  0.0786  146.5
 6.600  0.3028  126.5   3.033   37.1  0.2105   36.2  0.0808  142.9
 6.700  0.3055  125.3   2.986   36.2  0.2130   35.5  0.0821  138.9
 6.800  0.3083  124.0   2.939   35.3  0.2155   34.8  0.0838  135.1
 6.900  0.3117  122.8   2.892   34.4  0.2179   34.1  0.0859  130.8
 7.000  0.3152  121.7   2.846   33.5  0.2203   33.4  0.0884  126.7
 7.100  0.3187  120.6   2.803   32.7  0.2227   32.8  0.0916  122.5
 7.200  0.3223  119.5   2.761   31.8  0.2252   32.1  0.0952  118.6
 7.300  0.3267  118.4   2.721   31.0  0.2276   31.4  0.1000  114.9
 7.400  0.3312  117.4   2.680   30.2  0.2301   30.7  0.1051  111.6
 7.500  0.3367  116.6   2.643   29.4  0.2326   30.0  0.1112  108.5
 7.600  0.3422  115.8   2.606   28.6  0.2352   29.3  0.1176  105.7
 7.700  0.3484  115.1   2.570   27.8  0.2376   28.6  0.1254  103.2
 7.800  0.3547  114.4   2.535   27.0  0.2401   27.9  0.1335  101.0
 7.900  0.3623  113.7   2.500   26.1  0.2424   27.1  0.1427   98.9
 8.000  0.3700  113.2   2.467   25.2  0.2447   26.3  0.1521   97.0
!
!  f       NFmin   Gammaopt  rn/50
! GHz       dB    MAG  ANG    -
!
! noise parameter not available yet for this operation point!
!
! (c) 2014  Infineon Technologies AG, Munich
