! Infineon Technologies  Discrete & RF Semiconductors
! BFP650
! VCE =  1.0 V,  IC =  25 mA
! Common Emitter S-Parameters:                            Jan 2016
# GHz  S  MA  R  50
!  f         S11            S21            S12            S22
! GHz     MAG   ANG      MAG   ANG      MAG   ANG      MAG   ANG
 0.030  0.6743  -17.3  63.158  170.2  0.0066   90.1  0.9714  -12.4
 0.035  0.6723  -20.4  63.089  168.6  0.0072   88.8  0.9712  -14.5
 0.040  0.6724  -23.6  63.070  167.0  0.0079   87.8  0.9723  -16.5
 0.045  0.6689  -26.7  62.455  165.3  0.0084   79.7  0.9676  -18.7
 0.050  0.6673  -29.8  61.895  163.6  0.0091   72.7  0.9644  -21.0
 0.055  0.6706  -32.6  61.758  162.4  0.0108   72.8  0.9624  -23.1
 0.060  0.6755  -35.4  61.650  161.1  0.0125   72.8  0.9617  -25.2
 0.065  0.6675  -38.0  61.050  159.6  0.0120   69.4  0.9464  -27.1
 0.070  0.6609  -40.7  60.495  158.0  0.0116   65.7  0.9322  -29.0
 0.075  0.6650  -43.3  59.986  156.6  0.0122   69.2  0.9280  -30.8
 0.080  0.6704  -45.8  59.512  155.2  0.0128   72.3  0.9247  -32.7
 0.085  0.6674  -48.5  58.825  154.1  0.0147   66.2  0.9106  -34.7
 0.090  0.6658  -51.2  58.161  152.9  0.0168   61.6  0.8977  -36.8
 0.095  0.6677  -53.3  57.659  151.4  0.0151   64.1  0.8988  -38.4
 0.100  0.6704  -55.3  57.197  149.9  0.0135   67.3  0.9007  -40.0
 0.105  0.6683  -58.1  56.508  148.7  0.0156   68.5  0.8906  -42.2
 0.110  0.6678  -60.9  55.845  147.4  0.0177   69.4  0.8818  -44.4
 0.115  0.6645  -63.0  55.030  146.2  0.0186   66.9  0.8685  -46.0
 0.120  0.6621  -65.1  54.239  145.0  0.0195   64.7  0.8560  -47.7
 0.125  0.6615  -67.2  53.585  143.8  0.0195   62.3  0.8491  -49.3
 0.130  0.6618  -69.3  52.955  142.6  0.0195   59.8  0.8429  -50.9
 0.135  0.6631  -71.4  52.339  141.6  0.0190   59.4  0.8357  -52.3
 0.140  0.6652  -73.5  51.741  140.5  0.0186   59.0  0.8291  -53.8
 0.145  0.6625  -75.4  51.055  139.5  0.0206   59.7  0.8186  -55.3
 0.150  0.6605  -77.4  50.384  138.5  0.0226   60.2  0.8086  -56.8
 0.155  0.6573  -79.1  49.705  137.7  0.0229   59.3  0.7992  -58.1
 0.160  0.6548  -80.8  49.036  136.8  0.0231   58.4  0.7902  -59.5
 0.165  0.6528  -82.5  48.379  135.9  0.0234   57.5  0.7816  -60.8
 0.170  0.6513  -84.2  47.733  135.0  0.0237   56.6  0.7735  -62.2
 0.175  0.6505  -85.9  47.099  134.1  0.0239   55.8  0.7659  -63.7
 0.180  0.6502  -87.6  46.478  133.2  0.0242   55.0  0.7588  -65.1
 0.185  0.6506  -89.4  45.870  132.2  0.0245   54.2  0.7522  -66.6
 0.190  0.6515  -91.1  45.276  131.2  0.0248   53.4  0.7460  -68.1
 0.195  0.6530  -92.8  44.696  130.2  0.0251   52.6  0.7405  -69.6
 0.200  0.6551  -94.5  44.131  129.1  0.0254   51.9  0.7354  -71.2
 0.220  0.6496 -100.0  41.844  126.4  0.0267   50.0  0.7053  -75.7
 0.240  0.6501 -105.5  39.663  123.3  0.0279   48.3  0.6800  -80.5
 0.260  0.6499 -110.3  37.657  120.7  0.0290   47.1  0.6571  -85.0
 0.280  0.6473 -114.5  35.775  118.5  0.0297   46.5  0.6352  -88.9
 0.300  0.6482 -118.8  33.953  116.0  0.0305   45.8  0.6165  -93.1
 0.320  0.6455 -122.2  32.372  114.2  0.0314   44.8  0.5987  -96.4
 0.340  0.6450 -125.6  30.826  112.3  0.0323   43.8  0.5830 -100.0
 0.360  0.6448 -128.7  29.431  110.5  0.0329   43.1  0.5688 -103.2
 0.380  0.6445 -131.6  28.170  109.0  0.0333   42.8  0.5554 -106.3
 0.400  0.6458 -134.4  26.932  107.3  0.0337   42.4  0.5437 -109.4
 0.420  0.6443 -136.8  25.879  106.0  0.0343   41.8  0.5319 -112.0
 0.440  0.6439 -139.2  24.839  104.6  0.0350   41.3  0.5212 -114.7
 0.450  0.6441 -140.4  24.325  103.9  0.0353   41.0  0.5163 -116.1
 0.460  0.6436 -141.4  23.879  103.4  0.0356   40.9  0.5120 -117.3
 0.480  0.6432 -143.4  22.994  102.2  0.0361   40.6  0.5040 -119.6
 0.500  0.6435 -145.4  22.119  101.0  0.0366   40.4  0.4969 -122.1
 0.520  0.6425 -147.0  21.414  100.2  0.0369   40.4  0.4898 -124.0
 0.540  0.6420 -148.7  20.713   99.3  0.0372   40.5  0.4832 -126.0
 0.560  0.6420 -150.3  20.018   98.4  0.0375   40.5  0.4773 -128.1
 0.580  0.6425 -152.0  19.328   97.4  0.0378   40.6  0.4720 -130.2
 0.600  0.6436 -153.6  18.645   96.3  0.0381   40.6  0.4673 -132.3
 0.620  0.6429 -154.9  18.125   95.6  0.0386   40.5  0.4627 -133.9
 0.640  0.6425 -156.2  17.608   94.9  0.0390   40.4  0.4585 -135.6
 0.660  0.6425 -157.4  17.093   94.2  0.0395   40.3  0.4547 -137.3
 0.680  0.6427 -158.7  16.581   93.4  0.0399   40.2  0.4514 -139.0
 0.700  0.6433 -160.0  16.073   92.6  0.0404   40.1  0.4484 -140.8
 0.720  0.6432 -161.0  15.680   92.0  0.0409   40.2  0.4454 -142.2
 0.740  0.6432 -162.1  15.289   91.4  0.0415   40.3  0.4426 -143.6
 0.760  0.6435 -163.1  14.899   90.8  0.0420   40.4  0.4402 -145.1
 0.780  0.6440 -164.2  14.511   90.1  0.0426   40.5  0.4380 -146.5
 0.800  0.6447 -165.2  14.126   89.4  0.0431   40.6  0.4361 -148.0
 0.820  0.6446 -166.1  13.811   88.9  0.0436   40.7  0.4337 -149.2
 0.840  0.6447 -167.0  13.497   88.4  0.0441   40.7  0.4316 -150.4
 0.860  0.6449 -167.9  13.185   87.9  0.0446   40.8  0.4296 -151.6
 0.880  0.6453 -168.8  12.873   87.3  0.0451   40.8  0.4278 -152.9
 0.900  0.6458 -169.7  12.563   86.7  0.0456   40.9  0.4262 -154.1
 0.920  0.6461 -170.5  12.314   86.2  0.0460   40.9  0.4251 -155.2
 0.940  0.6465 -171.3  12.067   85.7  0.0464   40.9  0.4240 -156.2
 0.960  0.6471 -172.0  11.820   85.2  0.0469   40.9  0.4232 -157.3
 0.980  0.6477 -172.8  11.575   84.7  0.0473   40.9  0.4225 -158.3
 1.000  0.6485 -173.6  11.330   84.1  0.0477   40.9  0.4219 -159.4
 1.020  0.6486 -174.3  11.124   83.7  0.0483   40.9  0.4211 -160.4
 1.040  0.6488 -175.0  10.918   83.2  0.0489   40.9  0.4205 -161.3
 1.060  0.6491 -175.7  10.713   82.8  0.0495   40.9  0.4199 -162.3
 1.080  0.6495 -176.4  10.509   82.3  0.0501   40.9  0.4195 -163.2
 1.100  0.6500 -177.1  10.305   81.8  0.0507   40.9  0.4192 -164.2
 1.120  0.6503 -177.7  10.135   81.4  0.0512   41.0  0.4187 -165.0
 1.140  0.6508 -178.4   9.965   80.9  0.0516   41.1  0.4182 -165.9
 1.160  0.6513 -179.0   9.796   80.5  0.0521   41.1  0.4179 -166.7
 1.180  0.6518 -179.7   9.628   80.0  0.0525   41.2  0.4176 -167.6
 1.200  0.6525  179.7   9.460   79.5  0.0530   41.3  0.4174 -168.4
 1.220  0.6528  179.1   9.313   79.1  0.0534   41.2  0.4170 -169.2
 1.240  0.6531  178.5   9.166   78.7  0.0538   41.2  0.4167 -169.9
 1.260  0.6535  178.0   9.020   78.3  0.0543   41.1  0.4164 -170.7
 1.280  0.6540  177.4   8.874   77.9  0.0547   41.1  0.4162 -171.4
 1.300  0.6545  176.8   8.729   77.5  0.0551   41.0  0.4161 -172.2
 1.320  0.6549  176.2   8.606   77.1  0.0557   41.0  0.4159 -172.9
 1.340  0.6553  175.7   8.482   76.7  0.0563   40.9  0.4158 -173.7
 1.360  0.6558  175.1   8.360   76.3  0.0568   40.9  0.4158 -174.4
 1.380  0.6563  174.6   8.238   75.8  0.0574   40.8  0.4158 -175.2
 1.400  0.6569  174.0   8.116   75.4  0.0580   40.8  0.4159 -175.9
 1.420  0.6575  173.5   8.007   75.0  0.0585   40.9  0.4162 -176.5
 1.440  0.6581  173.0   7.899   74.6  0.0590   41.0  0.4166 -177.1
 1.460  0.6588  172.5   7.791   74.2  0.0595   41.0  0.4170 -177.8
 1.480  0.6595  172.0   7.683   73.8  0.0600   41.1  0.4174 -178.4
 1.500  0.6603  171.5   7.576   73.4  0.0605   41.2  0.4179 -179.0
 1.520  0.6607  171.0   7.480   73.0  0.0610   41.1  0.4177 -179.6
 1.540  0.6611  170.5   7.385   72.7  0.0616   40.9  0.4175  179.8
 1.560  0.6616  170.1   7.290   72.3  0.0621   40.8  0.4173  179.2
 1.580  0.6621  169.6   7.195   71.9  0.0627   40.6  0.4172  178.6
 1.600  0.6627  169.1   7.101   71.5  0.0632   40.5  0.4172  178.0
 1.620  0.6631  168.6   7.016   71.2  0.0636   40.5  0.4174  177.4
 1.640  0.6635  168.1   6.931   70.8  0.0641   40.5  0.4177  176.8
 1.660  0.6640  167.6   6.846   70.4  0.0645   40.5  0.4180  176.1
 1.680  0.6645  167.1   6.762   70.1  0.0650   40.5  0.4183  175.5
 1.700  0.6651  166.6   6.678   69.7  0.0654   40.5  0.4187  174.9
 1.720  0.6656  166.1   6.602   69.3  0.0659   40.5  0.4190  174.3
 1.740  0.6661  165.7   6.526   69.0  0.0664   40.4  0.4193  173.8
 1.760  0.6666  165.2   6.451   68.6  0.0668   40.4  0.4196  173.2
 1.780  0.6672  164.8   6.376   68.2  0.0673   40.3  0.4200  172.7
 1.800  0.6678  164.3   6.301   67.8  0.0678   40.3  0.4204  172.1
 1.820  0.6679  163.9   6.230   67.5  0.0683   40.1  0.4205  171.6
 1.840  0.6681  163.4   6.160   67.1  0.0688   39.9  0.4207  171.1
 1.860  0.6683  163.0   6.090   66.7  0.0694   39.7  0.4209  170.7
 1.880  0.6685  162.5   6.020   66.4  0.0699   39.5  0.4211  170.2
 1.900  0.6688  162.1   5.950   66.0  0.0704   39.3  0.4214  169.7
 1.920  0.6693  161.7   5.889   65.7  0.0709   39.2  0.4217  169.2
 1.940  0.6699  161.2   5.829   65.3  0.0714   39.1  0.4220  168.7
 1.960  0.6705  160.8   5.769   64.9  0.0718   38.9  0.4224  168.1
 1.980  0.6711  160.3   5.709   64.6  0.0723   38.8  0.4228  167.6
 2.000  0.6718  159.9   5.649   64.2  0.0728   38.7  0.4232  167.1
 2.020  0.6723  159.5   5.595   63.9  0.0733   38.6  0.4235  166.6
 2.040  0.6728  159.1   5.542   63.6  0.0738   38.6  0.4238  166.2
 2.060  0.6733  158.8   5.489   63.3  0.0743   38.5  0.4242  165.7
 2.080  0.6739  158.4   5.436   63.0  0.0748   38.4  0.4246  165.2
 2.100  0.6745  158.0   5.383   62.7  0.0752   38.3  0.4250  164.8
 2.120  0.6751  157.6   5.330   62.4  0.0757   38.3  0.4254  164.3
 2.140  0.6758  157.2   5.278   62.0  0.0762   38.2  0.4259  163.9
 2.160  0.6764  156.9   5.225   61.7  0.0767   38.1  0.4263  163.4
 2.180  0.6772  156.5   5.173   61.3  0.0772   38.1  0.4269  163.0
 2.200  0.6779  156.1   5.121   61.0  0.0777   38.0  0.4274  162.5
 2.220  0.6782  155.7   5.076   60.7  0.0782   37.9  0.4278  162.0
 2.240  0.6786  155.3   5.031   60.3  0.0788   37.7  0.4282  161.6
 2.260  0.6789  155.0   4.987   60.0  0.0793   37.6  0.4286  161.1
 2.280  0.6793  154.6   4.942   59.7  0.0799   37.5  0.4291  160.6
 2.300  0.6798  154.2   4.898   59.3  0.0804   37.3  0.4296  160.2
 2.320  0.6802  153.8   4.854   59.0  0.0810   37.2  0.4301  159.7
 2.340  0.6807  153.4   4.810   58.6  0.0815   37.1  0.4307  159.3
 2.360  0.6813  153.1   4.766   58.3  0.0821   36.9  0.4313  158.8
 2.380  0.6818  152.7   4.722   57.9  0.0826   36.8  0.4319  158.4
 2.400  0.6824  152.3   4.679   57.5  0.0832   36.7  0.4325  157.9
 2.420  0.6828  151.9   4.641   57.2  0.0837   36.5  0.4330  157.5
 2.440  0.6833  151.6   4.602   56.9  0.0842   36.3  0.4336  157.1
 2.460  0.6837  151.2   4.564   56.6  0.0848   36.1  0.4341  156.6
 2.480  0.6842  150.8   4.526   56.2  0.0853   36.0  0.4347  156.2
 2.500  0.6847  150.4   4.489   55.9  0.0858   35.8  0.4353  155.8
 2.520  0.6853  150.1   4.451   55.6  0.0863   35.6  0.4359  155.4
 2.540  0.6859  149.7   4.414   55.2  0.0868   35.4  0.4366  154.9
 2.560  0.6865  149.3   4.376   54.9  0.0874   35.2  0.4373  154.5
 2.580  0.6871  149.0   4.339   54.6  0.0879   35.1  0.4380  154.1
 2.600  0.6878  148.6   4.302   54.2  0.0884   34.9  0.4387  153.7
 2.620  0.6882  148.2   4.269   53.9  0.0888   34.8  0.4393  153.3
 2.640  0.6886  147.9   4.236   53.6  0.0892   34.7  0.4398  152.9
 2.660  0.6890  147.5   4.203   53.3  0.0896   34.6  0.4405  152.5
 2.680  0.6894  147.2   4.170   52.9  0.0900   34.5  0.4411  152.1
 2.700  0.6899  146.8   4.138   52.6  0.0904   34.4  0.4417  151.7
 2.720  0.6904  146.5   4.105   52.3  0.0909   34.3  0.4424  151.3
 2.740  0.6909  146.1   4.073   51.9  0.0913   34.2  0.4431  150.9
 2.760  0.6914  145.8   4.041   51.6  0.0917   34.1  0.4438  150.5
 2.780  0.6920  145.4   4.009   51.3  0.0921   34.0  0.4445  150.1
 2.800  0.6926  145.1   3.977   50.9  0.0925   33.9  0.4453  149.7
 2.820  0.6931  144.8   3.949   50.6  0.0930   33.7  0.4460  149.3
 2.840  0.6935  144.4   3.920   50.3  0.0935   33.5  0.4466  149.0
 2.860  0.6940  144.1   3.892   50.0  0.0940   33.3  0.4474  148.6
 2.880  0.6946  143.8   3.864   49.7  0.0944   33.1  0.4481  148.2
 2.900  0.6951  143.4   3.836   49.4  0.0949   32.9  0.4488  147.8
 2.920  0.6957  143.1   3.808   49.1  0.0954   32.7  0.4496  147.5
 2.940  0.6963  142.8   3.780   48.8  0.0959   32.5  0.4504  147.1
 2.960  0.6969  142.5   3.752   48.5  0.0964   32.4  0.4512  146.7
 2.980  0.6975  142.1   3.724   48.1  0.0969   32.2  0.4520  146.4
 3.000  0.6982  141.8   3.697   47.8  0.0974   32.0  0.4528  146.0
 3.100  0.7004  140.1   3.578   46.4  0.0996   31.1  0.4565  144.3
 3.200  0.7033  138.5   3.460   45.0  0.1019   30.2  0.4606  142.6
 3.300  0.7067  136.8   3.346   43.4  0.1042   29.3  0.4651  140.9
 3.400  0.7107  135.2   3.233   41.8  0.1065   28.5  0.4700  139.3
 3.500  0.7152  133.6   3.124   40.0  0.1088   27.7  0.4752  137.7
 3.600  0.7184  132.0   3.031   38.7  0.1105   26.7  0.4799  136.2
 3.700  0.7221  130.5   2.940   37.2  0.1123   25.6  0.4848  134.7
 3.800  0.7263  129.0   2.851   35.7  0.1140   24.7  0.4902  133.2
 3.900  0.7310  127.5   2.764   34.1  0.1159   23.7  0.4958  131.8
 4.000  0.7362  126.0   2.679   32.4  0.1177   22.8  0.5017  130.4
 4.100  0.7390  124.7   2.606   31.2  0.1193   21.9  0.5060  129.1
 4.200  0.7422  123.4   2.534   29.9  0.1209   21.0  0.5106  127.9
 4.300  0.7458  122.1   2.463   28.5  0.1226   20.1  0.5154  126.7
 4.400  0.7498  120.9   2.394   27.0  0.1243   19.2  0.5204  125.5
 4.500  0.7541  119.6   2.326   25.5  0.1260   18.4  0.5257  124.3
 4.600  0.7560  118.4   2.270   24.4  0.1276   17.6  0.5284  123.1
 4.700  0.7582  117.3   2.214   23.2  0.1291   16.8  0.5314  122.0
 4.800  0.7606  116.2   2.160   21.9  0.1307   16.1  0.5345  120.8
 4.900  0.7634  115.0   2.106   20.6  0.1324   15.3  0.5379  119.7
 5.000  0.7665  113.9   2.054   19.2  0.1340   14.6  0.5415  118.6
 5.100  0.7669  112.8   2.010   18.1  0.1356   13.7  0.5433  117.4
 5.200  0.7676  111.8   1.966   16.9  0.1372   12.9  0.5453  116.2
 5.300  0.7685  110.7   1.923   15.6  0.1389   12.0  0.5475  115.0
 5.400  0.7697  109.7   1.882   14.4  0.1406   11.2  0.5500  113.8
 5.500  0.7712  108.6   1.841   13.0  0.1423   10.4  0.5527  112.6
 5.600  0.7716  107.7   1.805   11.9  0.1439    9.5  0.5549  111.3
 5.700  0.7721  106.8   1.770   10.8  0.1456    8.5  0.5573  110.1
 5.800  0.7729  105.9   1.736    9.6  0.1472    7.6  0.5600  108.8
 5.900  0.7739  105.0   1.703    8.4  0.1489    6.8  0.5629  107.6
 6.000  0.7750  104.1   1.670    7.1  0.1507    5.9  0.5661  106.4
 6.100  0.7771  103.2   1.643    5.9  0.1524    4.9  0.5689  105.4
 6.200  0.7795  102.3   1.616    4.7  0.1542    4.0  0.5720  104.3
 6.300  0.7820  101.4   1.591    3.4  0.1560    3.1  0.5752  103.3
 6.400  0.7847  100.5   1.566    2.1  0.1579    2.2  0.5785  102.3
 6.500  0.7876   99.6   1.542    0.8  0.1598    1.3  0.5821  101.3
 6.600  0.7897   98.5   1.517   -0.5  0.1611    0.2  0.5849  100.4
 6.800  0.7948   96.4   1.469   -3.1  0.1639   -1.9  0.5908   98.6
 7.000  0.8009   94.3   1.425   -5.9  0.1669   -4.0  0.5974   96.8
 7.200  0.8048   91.9   1.376   -8.6  0.1685   -6.3  0.6035   94.7
 7.400  0.8100   89.5   1.330  -11.5  0.1705   -8.5  0.6104   92.6
 7.600  0.8147   87.0   1.284  -14.2  0.1719  -10.7  0.6174   90.3
 7.800  0.8189   84.4   1.236  -16.8  0.1728  -12.8  0.6250   87.7
 8.000  0.8247   81.9   1.192  -19.6  0.1740  -14.9  0.6339   85.2
 8.200  0.8289   79.3   1.146  -21.9  0.1742  -16.9  0.6426   82.7
 8.400  0.8348   76.8   1.103  -24.4  0.1745  -19.0  0.6526   80.2
 8.600  0.8405   74.3   1.061  -26.7  0.1746  -20.9  0.6630   77.8
 8.800  0.8457   72.1   1.020  -28.8  0.1743  -22.8  0.6739   75.5
 9.000  0.8523   69.8   0.981  -31.1  0.1742  -24.6  0.6859   73.2
 9.200  0.8584   68.0   0.942  -32.9  0.1729  -26.1  0.6966   71.2
 9.400  0.8653   66.3   0.904  -34.8  0.1718  -27.7  0.7082   69.2
 9.600  0.8725   64.8   0.871  -36.4  0.1709  -29.0  0.7188   67.7
 9.800  0.8798   63.6   0.842  -37.8  0.1702  -29.9  0.7280   66.6
10.000  0.8874   62.5   0.813  -39.2  0.1695  -30.8  0.7374   65.6
!
!  f       NFmin   Gammaopt  rn/50
! GHz       dB    MAG  ANG    -
 0.450      0.71  0.07  109   2.20
 0.900      0.73  0.24 -178   0.13
 1.900      0.89  0.31 -164   0.05
 2.400      0.97  0.32 -150   0.06
 3.500      1.21  0.37 -125   0.13
!
! (c) 2016  Infineon Technologies AG, Munich
