! Infineon Technologies  Discrete & RF Semiconductors
! BFP640F
! VCE =  3.0 V,  IC =  35 mA
! Common Emitter S-Parameters:                            Apr 2013
# GHz  S  MA  R  50
!  f         S11            S21            S12            S22
! GHz     MAG   ANG      MAG   ANG      MAG   ANG      MAG   ANG
 0.030  0.5209   -5.4  61.760  175.0  0.0017   96.0  0.9787   -1.8
 0.040  0.5176   -7.3  61.667  173.4  0.0014  107.0  0.9779   -3.2
 0.050  0.5189   -9.2  61.972  171.7  0.0029   93.4  0.9832   -4.4
 0.060  0.5123  -11.4  61.584  169.7  0.0025   55.2  0.9763   -6.0
 0.070  0.5151  -13.1  61.378  168.0  0.0038   95.9  0.9806   -7.1
 0.080  0.5105  -14.7  61.009  166.4  0.0034   90.2  0.9747   -8.3
 0.090  0.5074  -16.6  60.580  164.7  0.0039   82.5  0.9692   -9.5
 0.100  0.5049  -18.6  60.156  163.1  0.0050   92.7  0.9635  -10.8
 0.110  0.4994  -20.3  59.796  161.4  0.0050   76.1  0.9578  -11.8
 0.120  0.4955  -22.2  59.303  159.8  0.0054   82.7  0.9505  -13.0
 0.130  0.4905  -23.8  58.678  158.2  0.0066   81.6  0.9429  -13.9
 0.140  0.4874  -25.5  58.055  156.7  0.0064   80.3  0.9364  -15.0
 0.150  0.4823  -27.3  57.579  155.2  0.0064   82.9  0.9275  -16.1
 0.200  0.4575  -35.2  54.383  148.0  0.0080   79.5  0.8841  -20.6
 0.250  0.4287  -42.4  50.939  141.6  0.0095   76.1  0.8355  -24.3
 0.300  0.4023  -48.8  47.443  136.0  0.0115   73.6  0.7888  -27.4
 0.350  0.3770  -54.5  44.055  131.1  0.0131   74.0  0.7453  -29.9
 0.400  0.3528  -60.3  40.973  126.8  0.0145   74.3  0.7027  -32.0
 0.450  0.3310  -64.9  38.105  123.0  0.0159   74.8  0.6668  -33.6
 0.500  0.3099  -69.5  35.534  119.7  0.0175   74.6  0.6315  -34.8
 0.600  0.2752  -78.1  31.105  114.0  0.0201   74.1  0.5727  -36.8
 0.700  0.2475  -85.6  27.489  109.5  0.0227   73.2  0.5243  -37.9
 0.800  0.2252  -92.6  24.533  105.8  0.0256   73.1  0.4840  -38.6
 0.900  0.2062  -99.3  22.126  102.7  0.0281   73.1  0.4502  -39.0
 1.000  0.1921 -105.5  20.089  100.0  0.0309   73.0  0.4218  -39.0
 1.100  0.1792 -111.8  18.394   97.6  0.0335   72.7  0.3970  -39.0
 1.200  0.1701 -117.4  16.942   95.6  0.0360   72.6  0.3770  -38.8
 1.300  0.1616 -123.2  15.698   93.7  0.0387   72.6  0.3587  -38.5
 1.400  0.1556 -128.7  14.621   92.0  0.0415   72.0  0.3441  -38.3
 1.500  0.1501 -133.8  13.676   90.4  0.0440   71.8  0.3305  -37.9
 1.600  0.1473 -138.8  12.854   88.9  0.0465   71.7  0.3191  -37.7
 1.700  0.1448 -143.5  12.121   87.5  0.0494   71.0  0.3086  -37.3
 1.800  0.1430 -147.9  11.457   86.2  0.0518   71.0  0.2994  -37.4
 1.900  0.1420 -152.2  10.877   85.0  0.0544   70.4  0.2908  -37.2
 2.000  0.1412 -156.0  10.345   83.8  0.0571   70.2  0.2837  -37.4
 2.100  0.1453 -159.7   9.866   82.6  0.0597   69.6  0.2754  -38.1
 2.200  0.1447 -163.0   9.431   81.4  0.0624   69.1  0.2702  -38.1
 2.300  0.1444 -166.4   9.015   80.3  0.0648   68.5  0.2650  -38.1
 2.400  0.1447 -169.4   8.651   79.3  0.0675   68.2  0.2606  -38.3
 2.500  0.1443 -172.4   8.311   78.3  0.0700   67.8  0.2572  -38.4
 2.600  0.1443 -175.0   7.996   77.3  0.0726   67.3  0.2536  -38.7
 2.700  0.1447 -177.8   7.706   76.3  0.0752   66.8  0.2511  -38.8
 2.800  0.1446  179.6   7.435   75.3  0.0777   66.2  0.2487  -39.2
 2.900  0.1453  177.4   7.184   74.3  0.0803   65.9  0.2471  -39.5
 3.000  0.1453  174.8   6.949   73.4  0.0828   65.3  0.2450  -40.0
 3.100  0.1453  172.7   6.728   72.5  0.0855   64.8  0.2439  -40.2
 3.200  0.1454  170.3   6.521   71.6  0.0879   64.3  0.2428  -40.8
 3.300  0.1454  168.5   6.329   70.6  0.0904   63.9  0.2429  -41.2
 3.400  0.1463  166.2   6.147   69.8  0.0930   63.3  0.2419  -41.6
 3.500  0.1459  164.4   5.975   68.9  0.0956   62.9  0.2418  -42.0
 3.600  0.1464  162.5   5.811   68.0  0.0978   62.3  0.2416  -42.4
 3.700  0.1463  161.0   5.659   67.2  0.1005   61.9  0.2416  -42.8
 3.800  0.1473  158.9   5.516   66.3  0.1030   61.3  0.2414  -43.2
 3.900  0.1478  157.6   5.379   65.5  0.1056   60.9  0.2412  -43.5
 4.000  0.1486  155.7   5.249   64.6  0.1081   60.3  0.2406  -43.8
 4.100  0.1493  154.6   5.124   63.8  0.1106   59.8  0.2397  -44.1
 4.200  0.1509  152.8   5.008   63.0  0.1131   59.2  0.2390  -44.5
 4.300  0.1518  151.6   4.897   62.1  0.1158   58.7  0.2382  -44.9
 4.400  0.1539  150.3   4.790   61.3  0.1181   58.1  0.2373  -45.2
 4.500  0.1548  149.3   4.689   60.5  0.1208   57.7  0.2362  -45.4
 4.600  0.1576  148.1   4.593   59.6  0.1232   57.2  0.2350  -45.7
 4.700  0.1589  147.1   4.499   58.8  0.1259   56.5  0.2336  -45.9
 4.800  0.1613  146.0   4.412   58.0  0.1283   56.1  0.2319  -46.2
 4.900  0.1625  145.1   4.326   57.2  0.1308   55.5  0.2303  -46.4
 5.000  0.1646  144.1   4.244   56.3  0.1333   54.9  0.2289  -46.6
 5.100  0.1663  143.1   4.166   55.5  0.1357   54.4  0.2276  -46.9
 5.200  0.1681  142.0   4.091   54.7  0.1382   53.8  0.2260  -46.9
 5.300  0.1696  141.2   4.018   53.9  0.1408   53.3  0.2244  -47.2
 5.400  0.1717  140.4   3.947   53.1  0.1433   52.7  0.2235  -47.3
 5.500  0.1732  139.4   3.881   52.2  0.1456   52.2  0.2215  -47.6
 5.600  0.1749  138.5   3.815   51.4  0.1483   51.6  0.2207  -47.5
 5.700  0.1760  137.6   3.752   50.6  0.1507   51.0  0.2185  -47.7
 5.800  0.1779  136.5   3.691   49.7  0.1530   50.4  0.2179  -47.9
 5.900  0.1792  135.7   3.631   48.9  0.1554   49.8  0.2164  -47.8
 6.000  0.1804  134.5   3.575   48.0  0.1580   49.3  0.2154  -48.0
 6.100  0.1831  133.7   3.519   47.2  0.1604   48.6  0.2139  -48.0
 6.200  0.1830  132.4   3.462   46.4  0.1626   48.0  0.2128  -48.2
 6.300  0.1861  131.3   3.408   45.5  0.1649   47.5  0.2113  -48.2
 6.400  0.1867  130.5   3.355   44.7  0.1672   46.9  0.2091  -48.2
 6.500  0.1892  128.8   3.304   43.9  0.1696   46.2  0.2072  -48.1
 6.600  0.1910  127.7   3.252   43.0  0.1717   45.7  0.2053  -48.1
 6.700  0.1934  126.3   3.204   42.2  0.1742   45.2  0.2036  -48.0
 6.800  0.1958  125.2   3.155   41.5  0.1765   44.6  0.2019  -47.8
 6.900  0.1985  124.0   3.110   40.7  0.1787   44.1  0.1998  -47.4
 7.000  0.2005  122.8   3.065   39.9  0.1811   43.5  0.1978  -47.1
 7.100  0.2043  121.8   3.020   39.2  0.1834   43.0  0.1946  -46.6
 7.200  0.2074  120.7   2.978   38.5  0.1856   42.5  0.1920  -46.5
 7.300  0.2116  119.9   2.937   37.7  0.1881   41.9  0.1892  -46.1
 7.400  0.2151  119.1   2.898   37.0  0.1904   41.4  0.1859  -45.7
 7.500  0.2207  118.7   2.860   36.3  0.1930   40.9  0.1812  -45.1
 7.600  0.2254  117.9   2.826   35.5  0.1954   40.3  0.1768  -44.7
 7.700  0.2321  117.7   2.791   34.8  0.1981   39.7  0.1715  -43.9
 7.800  0.2385  117.2   2.758   34.1  0.2004   39.1  0.1654  -43.1
 7.900  0.2461  117.0   2.725   33.3  0.2028   38.5  0.1592  -42.0
 8.000  0.2534  116.7   2.694   32.5  0.2050   37.9  0.1522  -40.9
 8.500  0.2988  115.8   2.546   28.7  0.2164   34.8  0.1158  -28.7
 9.000  0.3459  114.7   2.408   25.0  0.2268   31.8  0.0912   -3.0
 9.500  0.3892  112.9   2.289   21.4  0.2375   29.0  0.0947   29.9
10.000  0.4291  110.6   2.180   17.7  0.2486   25.9  0.1175   55.9
!
!  f       NFmin   Gammaopt  rn/50
! GHz       dB    MAG  ANG    -
!
! noise parameter not available yet for this operation point!
!
! (c) 2013  Infineon Technologies AG, Munich
