! Infineon Technologies  Discrete & RF Semiconductors
! BFP620F
! VCE =  1.0 V,  IC =  45 mA
! Common Emitter S-Parameters:                            Dec 2014
# GHz  S  MA  R  50
!  f         S11            S21            S12            S22
! GHz     MAG   ANG      MAG   ANG      MAG   ANG      MAG   ANG
 0.030  0.5112  -12.5  58.597  174.1  0.0023   92.0  0.9377   -5.2
 0.040  0.5138  -16.1  59.811  171.8  0.0035   84.6  0.9421   -7.8
 0.050  0.5172  -20.1  61.375  169.3  0.0044   70.1  0.9425  -10.5
 0.060  0.5217  -22.9  62.224  166.9  0.0053   85.7  0.9408  -12.8
 0.070  0.5195  -26.4  62.508  164.2  0.0065   77.8  0.9357  -15.5
 0.080  0.5203  -29.9  62.149  161.7  0.0077   82.3  0.9314  -18.1
 0.090  0.5143  -33.4  61.172  159.4  0.0086   80.0  0.9226  -20.6
 0.100  0.5105  -36.9  59.993  157.1  0.0086   82.5  0.9148  -23.0
 0.110  0.5031  -40.4  58.800  154.9  0.0096   77.6  0.9041  -25.4
 0.120  0.4980  -43.9  57.802  152.9  0.0100   77.1  0.8923  -27.7
 0.130  0.4930  -46.9  57.216  150.9  0.0113   74.4  0.8780  -29.9
 0.140  0.4892  -49.7  56.693  149.0  0.0113   78.6  0.8630  -32.2
 0.150  0.4857  -52.2  56.375  147.1  0.0126   73.6  0.8502  -34.2
 0.200  0.4642  -64.7  52.094  138.7  0.0160   69.3  0.7781  -43.8
 0.250  0.4371  -75.1  47.749  131.9  0.0186   66.8  0.7087  -51.9
 0.300  0.4160  -84.4  43.492  126.3  0.0206   66.4  0.6443  -58.9
 0.350  0.3965  -93.1  39.454  121.5  0.0230   65.0  0.5866  -64.9
 0.400  0.3797 -100.5  36.120  117.5  0.0245   64.5  0.5352  -70.3
 0.450  0.3678 -106.6  33.167  114.1  0.0268   64.2  0.4950  -75.1
 0.500  0.3556 -112.7  30.508  111.1  0.0285   63.7  0.4572  -79.5
 0.600  0.3402 -122.9  26.242  106.2  0.0322   63.9  0.3952  -87.3
 0.700  0.3296 -131.2  22.932  102.2  0.0356   63.9  0.3489  -94.4
 0.800  0.3240 -138.3  20.300   99.0  0.0392   64.4  0.3117 -100.8
 0.900  0.3186 -144.3  18.180   96.2  0.0427   64.4  0.2827 -107.0
 1.000  0.3174 -149.6  16.455   93.8  0.0465   64.6  0.2592 -112.8
 1.100  0.3149 -154.3  14.995   91.7  0.0500   64.6  0.2404 -118.8
 1.200  0.3164 -158.3  13.788   89.8  0.0537   64.5  0.2262 -124.1
 1.300  0.3158 -162.2  12.740   88.1  0.0574   64.7  0.2136 -129.9
 1.400  0.3182 -165.4  11.847   86.4  0.0611   64.6  0.2052 -135.1
 1.500  0.3188 -168.6  11.059   85.0  0.0647   64.4  0.1987 -140.3
 1.600  0.3218 -171.4  10.370   83.5  0.0684   64.2  0.1950 -145.0
 1.700  0.3227 -174.1   9.758   82.2  0.0720   63.7  0.1920 -149.6
 1.800  0.3254 -176.4   9.224   80.8  0.0760   63.5  0.1914 -153.6
 1.900  0.3273 -178.7   8.738   79.6  0.0793   63.1  0.1915 -157.3
 2.000  0.3295  179.1   8.301   78.5  0.0832   62.7  0.1928 -160.3
 2.100  0.3330  177.1   7.902   77.2  0.0867   62.3  0.1987 -161.9
 2.200  0.3341  175.2   7.543   76.1  0.0902   61.8  0.1994 -164.4
 2.300  0.3361  173.3   7.215   75.0  0.0940   61.3  0.2001 -166.7
 2.400  0.3378  171.7   6.918   73.9  0.0974   60.8  0.2011 -168.9
 2.500  0.3396  169.9   6.645   72.8  0.1011   60.2  0.2023 -170.8
 2.600  0.3406  168.3   6.390   71.8  0.1046   59.7  0.2032 -172.7
 2.700  0.3420  166.8   6.156   70.8  0.1083   59.2  0.2040 -174.2
 2.800  0.3425  165.2   5.938   69.8  0.1120   58.6  0.2046 -175.8
 2.900  0.3440  163.8   5.733   68.8  0.1156   58.1  0.2058 -177.1
 3.000  0.3446  162.2   5.549   67.7  0.1192   57.4  0.2071 -178.4
 3.100  0.3455  161.0   5.368   66.8  0.1227   56.8  0.2071 -179.7
 3.200  0.3457  159.5   5.204   65.8  0.1263   56.3  0.2078  179.1
 3.300  0.3468  158.3   5.049   64.9  0.1300   55.6  0.2077  178.0
 3.400  0.3467  156.8   4.906   63.8  0.1336   54.9  0.2086  176.9
 3.500  0.3476  155.6   4.768   62.9  0.1369   54.4  0.2082  175.7
 3.600  0.3477  154.2   4.638   62.0  0.1408   53.8  0.2084  174.6
 3.700  0.3486  153.1   4.518   61.0  0.1442   53.1  0.2084  173.4
 3.800  0.3489  151.7   4.400   60.0  0.1479   52.5  0.2082  172.3
 3.900  0.3498  150.6   4.293   59.1  0.1514   51.8  0.2078  171.0
 4.000  0.3501  149.3   4.186   58.2  0.1547   51.1  0.2073  169.6
 4.100  0.3513  148.2   4.090   57.2  0.1580   50.5  0.2068  168.3
 4.200  0.3525  147.0   3.996   56.3  0.1617   49.7  0.2071  166.7
 4.300  0.3535  146.0   3.909   55.4  0.1652   49.0  0.2067  165.2
 4.400  0.3552  144.9   3.822   54.4  0.1688   48.3  0.2067  163.7
 4.500  0.3561  144.0   3.741   53.5  0.1721   47.6  0.2065  162.2
 4.600  0.3583  142.9   3.663   52.6  0.1755   46.9  0.2068  160.5
 4.700  0.3596  141.9   3.592   51.5  0.1790   46.1  0.2071  158.9
 4.800  0.3621  141.0   3.520   50.6  0.1825   45.5  0.2077  157.1
 4.900  0.3640  140.2   3.450   49.7  0.1858   44.7  0.2081  155.3
 5.000  0.3662  139.2   3.386   48.7  0.1892   43.9  0.2092  153.8
 5.100  0.3680  138.3   3.323   47.7  0.1925   43.2  0.2091  152.1
 5.200  0.3706  137.6   3.263   46.8  0.1958   42.4  0.2101  150.4
 5.300  0.3725  136.8   3.203   45.8  0.1992   41.6  0.2110  148.9
 5.400  0.3754  136.0   3.146   44.8  0.2023   40.8  0.2124  147.4
 5.500  0.3776  135.2   3.089   43.9  0.2056   40.1  0.2133  145.7
 5.600  0.3807  134.4   3.035   42.9  0.2086   39.2  0.2148  144.1
 5.700  0.3828  133.6   2.983   41.9  0.2116   38.5  0.2161  142.6
 5.800  0.3854  132.7   2.933   40.9  0.2147   37.7  0.2173  141.0
 5.900  0.3882  131.9   2.883   40.0  0.2176   36.8  0.2193  139.3
 6.000  0.3905  131.0   2.834   39.0  0.2208   36.0  0.2203  137.9
 6.100  0.3933  130.1   2.787   38.0  0.2236   35.2  0.2218  136.2
 6.200  0.3956  129.2   2.740   37.0  0.2264   34.4  0.2236  134.4
 6.300  0.3985  128.1   2.694   36.0  0.2290   33.6  0.2259  132.7
 6.400  0.4012  127.1   2.650   35.0  0.2317   32.8  0.2281  131.0
 6.500  0.4038  126.0   2.607   34.0  0.2341   32.0  0.2297  129.0
 6.600  0.4062  124.9   2.561   33.1  0.2366   31.2  0.2325  127.2
 6.700  0.4087  123.7   2.520   32.2  0.2391   30.4  0.2345  125.3
 6.800  0.4113  122.5   2.480   31.2  0.2415   29.7  0.2368  123.3
 6.900  0.4145  121.4   2.440   30.3  0.2440   28.9  0.2393  121.2
 7.000  0.4179  120.2   2.400   29.4  0.2464   28.2  0.2421  119.1
 7.100  0.4211  119.1   2.362   28.5  0.2488   27.5  0.2455  117.0
 7.200  0.4244  118.0   2.326   27.6  0.2512   26.7  0.2491  114.9
 7.300  0.4288  117.0   2.290   26.7  0.2536   26.0  0.2537  112.8
 7.400  0.4332  115.9   2.255   25.8  0.2561   25.3  0.2586  110.9
 7.500  0.4383  115.1   2.223   25.0  0.2585   24.5  0.2642  108.9
 7.600  0.4435  114.2   2.190   24.1  0.2609   23.7  0.2702  106.9
 7.700  0.4493  113.3   2.158   23.3  0.2632   23.0  0.2776  105.1
 7.800  0.4553  112.5   2.126   22.4  0.2656   22.2  0.2852  103.4
 7.900  0.4627  111.8   2.096   21.5  0.2676   21.3  0.2938  101.6
 8.000  0.4702  111.0   2.066   20.6  0.2697   20.5  0.3026   99.8
!
!  f       NFmin   Gammaopt  rn/50
! GHz       dB    MAG  ANG    -
 0.450      1.45  0.18 -172   0.16
 0.900      1.48  0.18 -172   0.14
 1.500      1.49  0.23 -153   0.10
 1.800      1.50  0.23 -152   0.10
 1.900      1.50  0.23 -151   0.11
 2.400      1.52  0.24  213   0.12
 3.500      1.58  0.24  220   0.15
 5.500      1.72  0.29  248   0.19
 6.000      1.76  0.29  261   0.24
!
! (c) 2014  Infineon Technologies AG, Munich
