! Infineon Technologies  Discrete & RF Semiconductors
! BFP620F
! VCE =  2.0 V,  IC =  35 mA
! Common Emitter S-Parameters:                            Dec 2014
# GHz  S  MA  R  50
!  f         S11            S21            S12            S22
! GHz     MAG   ANG      MAG   ANG      MAG   ANG      MAG   ANG
 0.030  0.6178   -6.0  59.562  174.9  0.0020   87.6  0.9503   -2.8
 0.040  0.6196   -7.8  59.458  173.1  0.0032   85.4  0.9560   -4.4
 0.050  0.6199  -10.0  59.371  171.4  0.0039   89.5  0.9585   -6.0
 0.060  0.6152  -11.8  59.158  169.8  0.0024   83.7  0.9525   -7.5
 0.070  0.6159  -14.0  58.895  168.0  0.0048   86.7  0.9555   -9.3
 0.080  0.6113  -16.1  58.584  166.3  0.0060   76.7  0.9501  -11.0
 0.090  0.6076  -17.9  58.159  164.6  0.0060   79.5  0.9473  -12.5
 0.100  0.6018  -19.8  57.682  163.0  0.0069   77.7  0.9411  -13.9
 0.110  0.5976  -21.7  57.159  161.3  0.0071   78.2  0.9360  -15.5
 0.120  0.5920  -23.7  56.636  159.8  0.0081   79.0  0.9292  -16.9
 0.130  0.5865  -25.4  56.172  158.3  0.0085   81.6  0.9206  -18.4
 0.140  0.5838  -27.2  55.557  156.8  0.0090   76.3  0.9137  -19.8
 0.150  0.5782  -28.9  55.109  155.3  0.0084   75.7  0.9050  -21.1
 0.200  0.5517  -37.5  51.980  148.4  0.0119   72.8  0.8582  -27.5
 0.250  0.5217  -45.3  48.829  142.0  0.0145   72.5  0.8082  -33.0
 0.300  0.4923  -52.4  45.607  136.5  0.0163   71.1  0.7562  -37.9
 0.350  0.4624  -59.1  42.432  131.6  0.0185   69.7  0.7056  -42.1
 0.400  0.4342  -65.2  39.589  127.2  0.0204   68.8  0.6579  -45.7
 0.450  0.4124  -70.6  36.910  123.4  0.0224   68.4  0.6170  -49.0
 0.500  0.3873  -75.8  34.447  120.0  0.0241   67.7  0.5768  -51.7
 0.600  0.3491  -85.4  30.213  114.2  0.0273   66.1  0.5064  -56.5
 0.700  0.3180  -93.5  26.781  109.5  0.0304   66.9  0.4489  -60.4
 0.800  0.2942 -101.2  23.924  105.7  0.0336   66.6  0.4009  -63.4
 0.900  0.2738 -107.9  21.582  102.5  0.0366   66.3  0.3597  -66.1
 1.000  0.2595 -114.5  19.628   99.6  0.0395   66.3  0.3251  -68.3
 1.100  0.2460 -120.5  17.956   97.1  0.0427   66.3  0.2938  -70.5
 1.200  0.2377 -126.2  16.557   95.0  0.0457   66.2  0.2685  -72.3
 1.300  0.2289 -131.5  15.336   93.0  0.0488   66.0  0.2442  -74.2
 1.400  0.2249 -136.5  14.289   91.2  0.0519   65.7  0.2245  -76.0
 1.500  0.2193 -141.2  13.360   89.5  0.0549   65.7  0.2057  -77.8
 1.600  0.2175 -145.8  12.544   87.9  0.0579   65.5  0.1911  -79.8
 1.700  0.2142 -150.1  11.817   86.4  0.0609   65.3  0.1763  -81.8
 1.800  0.2138 -153.9  11.181   85.0  0.0642   64.9  0.1653  -84.1
 1.900  0.2126 -157.4  10.600   83.7  0.0674   64.6  0.1549  -86.3
 2.000  0.2123 -160.9  10.079   82.4  0.0703   64.1  0.1474  -88.7
 2.100  0.2136 -164.2   9.602   81.1  0.0735   63.6  0.1471  -92.4
 2.200  0.2135 -167.0   9.171   79.9  0.0765   63.2  0.1407  -94.6
 2.300  0.2139 -170.0   8.774   78.8  0.0797   63.1  0.1348  -96.7
 2.400  0.2144 -172.5   8.419   77.6  0.0825   62.3  0.1301  -98.6
 2.500  0.2150 -175.0   8.085   76.6  0.0858   62.0  0.1259 -100.8
 2.600  0.2151 -177.4   7.775   75.5  0.0886   61.5  0.1226 -102.7
 2.700  0.2156 -179.6   7.493   74.5  0.0918   61.1  0.1198 -104.4
 2.800  0.2156  178.1   7.228   73.5  0.0948   60.6  0.1175 -106.1
 2.900  0.2164  176.1   6.980   72.5  0.0978   59.9  0.1154 -107.8
 3.000  0.2166  173.8   6.754   71.4  0.1009   59.5  0.1142 -109.6
 3.100  0.2171  172.2   6.535   70.5  0.1038   59.0  0.1121 -110.7
 3.200  0.2169  170.0   6.335   69.5  0.1070   58.5  0.1108 -112.2
 3.300  0.2180  168.5   6.148   68.6  0.1098   58.0  0.1097 -113.2
 3.400  0.2174  166.5   5.972   67.6  0.1128   57.4  0.1086 -114.7
 3.500  0.2181  164.8   5.804   66.7  0.1157   56.9  0.1069 -115.6
 3.600  0.2181  163.0   5.646   65.7  0.1189   56.3  0.1055 -116.8
 3.700  0.2185  161.4   5.500   64.8  0.1220   55.8  0.1043 -117.7
 3.800  0.2189  159.7   5.356   63.9  0.1248   55.1  0.1029 -118.6
 3.900  0.2196  158.2   5.226   63.0  0.1277   54.6  0.1011 -119.5
 4.000  0.2199  156.5   5.095   62.1  0.1307   53.9  0.0986 -120.6
 4.100  0.2212  155.1   4.976   61.1  0.1338   53.3  0.0967 -121.6
 4.200  0.2221  153.6   4.863   60.2  0.1368   52.8  0.0941 -123.1
 4.300  0.2232  152.5   4.757   59.3  0.1397   52.1  0.0921 -124.2
 4.400  0.2246  151.0   4.652   58.5  0.1428   51.6  0.0894 -125.4
 4.500  0.2258  149.9   4.551   57.5  0.1459   50.9  0.0871 -126.8
 4.600  0.2279  148.6   4.458   56.7  0.1488   50.3  0.0843 -128.4
 4.700  0.2290  147.5   4.369   55.7  0.1517   49.6  0.0817 -130.2
 4.800  0.2314  146.4   4.282   54.9  0.1547   49.0  0.0791 -132.2
 4.900  0.2333  145.5   4.198   54.0  0.1578   48.4  0.0762 -134.2
 5.000  0.2356  144.4   4.120   53.0  0.1605   47.6  0.0743 -136.6
 5.100  0.2374  143.4   4.043   52.1  0.1635   47.0  0.0715 -138.2
 5.200  0.2399  142.7   3.970   51.2  0.1665   46.3  0.0690 -140.7
 5.300  0.2416  141.7   3.898   50.3  0.1694   45.7  0.0672 -143.1
 5.400  0.2446  140.9   3.829   49.3  0.1722   45.0  0.0657 -145.9
 5.500  0.2470  140.2   3.762   48.5  0.1750   44.3  0.0636 -148.7
 5.600  0.2502  139.3   3.697   47.6  0.1778   43.6  0.0619 -152.0
 5.700  0.2523  138.5   3.634   46.6  0.1804   42.9  0.0603 -155.1
 5.800  0.2550  137.7   3.575   45.7  0.1834   42.1  0.0589 -158.1
 5.900  0.2576  136.8   3.516   44.8  0.1860   41.5  0.0573 -162.2
 6.000  0.2600  135.9   3.457   43.9  0.1887   40.7  0.0564 -165.3
 6.100  0.2628  134.9   3.401   43.0  0.1914   40.1  0.0547 -169.2
 6.200  0.2655  134.0   3.346   42.0  0.1940   39.3  0.0534 -174.1
 6.300  0.2684  132.8   3.291   41.1  0.1964   38.6  0.0527 -179.1
 6.400  0.2714  131.8   3.240   40.1  0.1989   37.9  0.0525  176.2
 6.500  0.2740  130.6   3.188   39.2  0.2012   37.2  0.0510  170.4
 6.600  0.2767  129.5   3.135   38.3  0.2038   36.5  0.0513  164.6
 6.700  0.2793  128.1   3.086   37.4  0.2060   35.8  0.0510  158.6
 6.800  0.2821  126.8   3.038   36.5  0.2084   35.2  0.0513  152.5
 6.900  0.2855  125.5   2.991   35.7  0.2108   34.5  0.0518  145.6
 7.000  0.2891  124.3   2.944   34.8  0.2133   33.8  0.0530  138.9
 7.100  0.2926  123.1   2.900   33.9  0.2156   33.1  0.0551  131.9
 7.200  0.2962  121.9   2.857   33.1  0.2180   32.5  0.0581  125.5
 7.300  0.3006  120.8   2.815   32.3  0.2205   31.9  0.0624  119.8
 7.400  0.3051  119.7   2.774   31.4  0.2230   31.2  0.0673  114.8
 7.500  0.3105  118.9   2.736   30.6  0.2254   30.5  0.0732  110.3
 7.600  0.3160  118.0   2.699   29.8  0.2280   29.9  0.0795  106.4
 7.700  0.3223  117.2   2.662   29.0  0.2304   29.2  0.0874  103.3
 7.800  0.3285  116.5   2.625   28.2  0.2328   28.5  0.0955  100.7
 7.900  0.3362  115.8   2.590   27.4  0.2352   27.7  0.1048   98.2
 8.000  0.3439  115.2   2.556   26.5  0.2377   26.9  0.1142   96.1
!
!  f       NFmin   Gammaopt  rn/50
! GHz       dB    MAG  ANG    -
 0.450      1.25  0.11 -173   0.16
 0.900      1.28  0.11 -172   0.13
 1.500      1.29  0.16 -150   0.12
 1.800      1.30  0.16 -150   0.13
 1.900      1.30  0.16 -149   0.13
 2.400      1.32  0.17  215   0.15
 3.500      1.38  0.18  220   0.18
 5.500      1.52  0.24  245   0.15
 6.000      1.56  0.25  260   0.17
!
! (c) 2014  Infineon Technologies AG, Munich
