! Infineon Technologies  Discrete & RF Semiconductors
! BFP640F
! VCE =  1.5 V,  IC =  22 mA
! Common Emitter S-Parameters:                            Apr 2013
# GHz  S  MA  R  50
!  f         S11            S21            S12            S22
! GHz     MAG   ANG      MAG   ANG      MAG   ANG      MAG   ANG
 0.030  0.6708   -4.9  48.226  176.0  0.0015   97.5  0.9856   -2.2
 0.040  0.6690   -6.5  48.281  174.6  0.0020   89.3  0.9871   -3.4
 0.050  0.6637   -8.3  48.683  173.1  0.0016   45.5  0.9837   -4.7
 0.060  0.6629   -9.7  48.454  171.4  0.0019   75.6  0.9821   -5.6
 0.070  0.6627  -11.1  48.345  170.0  0.0042   90.7  0.9852   -6.6
 0.080  0.6607  -12.8  48.169  168.6  0.0041   93.5  0.9813   -7.7
 0.090  0.6588  -14.3  47.853  167.2  0.0049   88.9  0.9771   -8.8
 0.100  0.6554  -15.9  47.585  165.8  0.0053   91.1  0.9755   -9.9
 0.110  0.6511  -17.6  47.391  164.4  0.0059   83.7  0.9699  -10.9
 0.120  0.6470  -19.0  47.108  162.9  0.0063   78.7  0.9650  -11.9
 0.130  0.6433  -20.8  46.769  161.6  0.0060   84.4  0.9595  -12.9
 0.140  0.6397  -22.1  46.393  160.3  0.0075   79.5  0.9543  -13.8
 0.150  0.6348  -23.6  46.165  159.0  0.0078   80.9  0.9480  -14.8
 0.200  0.6118  -30.6  44.290  152.7  0.0102   79.1  0.9140  -19.3
 0.250  0.5854  -37.2  42.197  146.9  0.0124   76.4  0.8749  -23.2
 0.300  0.5558  -43.5  40.081  141.6  0.0145   76.8  0.8347  -26.7
 0.350  0.5277  -49.2  37.772  136.9  0.0162   72.8  0.7938  -29.7
 0.400  0.4977  -54.6  35.718  132.5  0.0179   72.5  0.7531  -32.3
 0.450  0.4737  -59.3  33.597  128.7  0.0195   71.2  0.7171  -34.5
 0.500  0.4460  -64.1  31.698  125.2  0.0211   70.2  0.6807  -36.4
 0.600  0.4005  -72.6  28.241  119.1  0.0243   69.1  0.6159  -39.5
 0.700  0.3621  -80.1  25.282  114.2  0.0272   68.6  0.5610  -41.6
 0.800  0.3295  -87.0  22.764  110.0  0.0299   68.0  0.5141  -43.2
 0.900  0.3032  -93.3  20.665  106.5  0.0324   67.8  0.4732  -44.4
 1.000  0.2807  -99.3  18.862  103.5  0.0354   67.3  0.4391  -45.1
 1.100  0.2616 -105.0  17.333  100.8  0.0379   67.5  0.4088  -45.6
 1.200  0.2457 -110.4  16.014   98.5  0.0405   67.5  0.3845  -45.9
 1.300  0.2326 -115.6  14.874   96.4  0.0432   67.4  0.3617  -46.0
 1.400  0.2226 -120.5  13.876   94.5  0.0457   66.8  0.3430  -46.1
 1.500  0.2127 -125.3  13.005   92.7  0.0485   66.7  0.3259  -45.9
 1.600  0.2061 -129.9  12.234   91.0  0.0512   66.8  0.3118  -46.1
 1.700  0.2003 -134.3  11.549   89.5  0.0539   66.5  0.2977  -45.8
 1.800  0.1957 -138.5  10.927   88.0  0.0564   66.3  0.2866  -46.1
 1.900  0.1921 -142.5  10.381   86.7  0.0589   66.0  0.2756  -46.0
 2.000  0.1890 -146.4   9.887   85.3  0.0617   65.8  0.2669  -46.3
 2.100  0.1905 -150.0   9.423   84.0  0.0644   65.3  0.2573  -47.2
 2.200  0.1884 -153.5   9.009   82.8  0.0670   65.0  0.2506  -47.3
 2.300  0.1868 -156.7   8.620   81.6  0.0698   64.7  0.2435  -47.3
 2.400  0.1852 -159.8   8.275   80.4  0.0724   64.4  0.2382  -47.6
 2.500  0.1835 -162.8   7.951   79.3  0.0750   64.0  0.2335  -47.7
 2.600  0.1824 -165.7   7.653   78.2  0.0777   63.4  0.2296  -48.0
 2.700  0.1818 -168.3   7.375   77.2  0.0800   63.2  0.2257  -48.1
 2.800  0.1805 -171.0   7.119   76.1  0.0829   62.7  0.2224  -48.4
 2.900  0.1803 -173.3   6.879   75.1  0.0856   62.4  0.2199  -48.7
 3.000  0.1793 -175.7   6.658   74.1  0.0880   62.0  0.2172  -49.2
 3.100  0.1788 -178.0   6.446   73.1  0.0908   61.5  0.2154  -49.4
 3.200  0.1782  179.9   6.248   72.2  0.0934   61.1  0.2137  -49.9
 3.300  0.1777  177.9   6.066   71.2  0.0959   60.7  0.2132  -50.3
 3.400  0.1777  175.5   5.892   70.3  0.0985   60.1  0.2116  -50.7
 3.500  0.1770  173.6   5.728   69.3  0.1013   59.8  0.2111  -51.0
 3.600  0.1771  171.6   5.574   68.4  0.1038   59.3  0.2104  -51.2
 3.700  0.1765  169.9   5.428   67.5  0.1065   58.9  0.2098  -51.5
 3.800  0.1770  167.9   5.293   66.6  0.1092   58.3  0.2088  -51.7
 3.900  0.1775  166.4   5.161   65.7  0.1119   57.9  0.2081  -52.1
 4.000  0.1779  164.4   5.036   64.8  0.1143   57.3  0.2072  -52.3
 4.100  0.1786  163.2   4.919   63.9  0.1170   56.9  0.2058  -52.6
 4.200  0.1798  161.3   4.806   63.1  0.1196   56.4  0.2047  -52.9
 4.300  0.1806  160.1   4.701   62.2  0.1224   55.9  0.2029  -53.2
 4.400  0.1830  158.6   4.599   61.3  0.1251   55.4  0.2017  -53.4
 4.500  0.1837  157.2   4.502   60.5  0.1274   54.9  0.2002  -53.5
 4.600  0.1865  155.9   4.411   59.5  0.1302   54.4  0.1984  -53.8
 4.700  0.1875  154.8   4.321   58.7  0.1328   53.8  0.1967  -53.9
 4.800  0.1899  153.4   4.237   57.8  0.1354   53.3  0.1942  -54.1
 4.900  0.1911  152.4   4.155   57.0  0.1380   52.7  0.1924  -54.3
 5.000  0.1933  151.2   4.077   56.1  0.1407   52.2  0.1904  -54.3
 5.100  0.1952  150.0   4.003   55.2  0.1431   51.7  0.1886  -54.5
 5.200  0.1968  149.0   3.930   54.4  0.1456   51.1  0.1865  -54.3
 5.300  0.1985  147.8   3.860   53.5  0.1482   50.6  0.1844  -54.5
 5.400  0.2006  146.8   3.792   52.7  0.1508   50.1  0.1830  -54.5
 5.500  0.2022  145.7   3.728   51.8  0.1533   49.4  0.1810  -54.8
 5.600  0.2038  144.8   3.665   51.0  0.1561   48.9  0.1794  -54.6
 5.700  0.2052  143.7   3.604   50.1  0.1585   48.3  0.1769  -54.6
 5.800  0.2068  142.6   3.546   49.2  0.1609   47.7  0.1757  -54.6
 5.900  0.2085  141.6   3.488   48.3  0.1637   47.2  0.1741  -54.3
 6.000  0.2093  140.3   3.435   47.4  0.1663   46.6  0.1725  -54.3
 6.100  0.2124  139.3   3.381   46.6  0.1687   46.0  0.1703  -54.3
 6.200  0.2122  138.1   3.327   45.7  0.1711   45.4  0.1688  -54.3
 6.300  0.2155  136.8   3.274   44.8  0.1734   44.8  0.1670  -54.0
 6.400  0.2161  135.8   3.224   44.0  0.1758   44.2  0.1644  -53.9
 6.500  0.2184  134.1   3.175   43.1  0.1782   43.6  0.1621  -53.6
 6.600  0.2201  133.1   3.126   42.2  0.1807   43.1  0.1597  -53.3
 6.700  0.2225  131.6   3.079   41.4  0.1829   42.5  0.1577  -52.9
 6.800  0.2248  130.4   3.032   40.6  0.1853   41.9  0.1555  -52.4
 6.900  0.2278  129.0   2.989   39.8  0.1876   41.3  0.1532  -51.7
 7.000  0.2296  127.8   2.945   38.9  0.1899   40.8  0.1506  -51.0
 7.100  0.2336  126.7   2.902   38.2  0.1924   40.3  0.1471  -50.1
 7.200  0.2368  125.6   2.861   37.4  0.1947   39.8  0.1440  -49.7
 7.300  0.2410  124.5   2.822   36.6  0.1972   39.2  0.1410  -48.8
 7.400  0.2448  123.7   2.784   35.9  0.1996   38.6  0.1373  -47.8
 7.500  0.2506  122.9   2.747   35.1  0.2020   38.1  0.1325  -46.8
 7.600  0.2557  122.1   2.714   34.3  0.2047   37.5  0.1277  -45.7
 7.700  0.2626  121.7   2.680   33.6  0.2074   36.9  0.1222  -44.1
 7.800  0.2694  120.9   2.647   32.8  0.2097   36.2  0.1160  -42.5
 7.900  0.2772  120.5   2.615   32.0  0.2121   35.6  0.1097  -40.2
 8.000  0.2847  119.8   2.585   31.2  0.2144   35.0  0.1031  -37.8
 8.500  0.3314  117.9   2.437   27.3  0.2255   31.8  0.0744  -11.5
 9.000  0.3787  115.9   2.300   23.4  0.2355   28.8  0.0798   30.4
 9.500  0.4215  113.4   2.179   19.8  0.2457   25.9  0.1145   55.7
10.000  0.4602  110.6   2.071   16.0  0.2561   23.0  0.1548   69.9
!
!  f       NFmin   Gammaopt  rn/50
! GHz       dB    MAG  ANG    -
!
! noise parameter not available yet for this operation point!
!
! (c) 2013  Infineon Technologies AG, Munich
