! Infineon Technologies  Discrete & RF Semiconductors
! BFP650
! VCE =  3.0 V,  IC =  10 mA
! Common Emitter S-Parameters:                            Jan 2016
# GHz  S  MA  R  50
!  f         S11            S21            S12            S22
! GHz     MAG   ANG      MAG   ANG      MAG   ANG      MAG   ANG
 0.030  0.8623   -7.5  30.550  174.7  0.0052   84.4  0.9921   -5.2
 0.035  0.8589   -8.9  30.637  173.8  0.0050   79.8  0.9906   -6.1
 0.040  0.8561  -10.4  30.730  173.0  0.0049   74.9  0.9893   -7.1
 0.045  0.8532  -11.6  30.590  172.1  0.0052   84.8  0.9876   -7.9
 0.050  0.8506  -12.8  30.459  171.1  0.0056   93.4  0.9861   -8.8
 0.055  0.8533  -13.9  30.539  170.6  0.0079   87.8  0.9859   -9.6
 0.060  0.8563  -15.0  30.622  170.1  0.0102   84.8  0.9860  -10.5
 0.065  0.8581  -16.5  30.552  169.3  0.0117   89.4  0.9850  -11.3
 0.070  0.8604  -18.0  30.489  168.4  0.0132   93.0  0.9843  -12.2
 0.075  0.8588  -19.2  30.420  167.6  0.0128   88.2  0.9812  -13.0
 0.080  0.8577  -20.5  30.356  166.8  0.0124   83.0  0.9782  -13.8
 0.085  0.8559  -21.7  30.209  166.3  0.0133   81.3  0.9755  -14.7
 0.090  0.8545  -22.9  30.064  165.7  0.0143   79.8  0.9730  -15.7
 0.095  0.8538  -24.2  30.068  164.8  0.0144   79.3  0.9695  -16.5
 0.100  0.8535  -25.5  30.080  163.9  0.0145   78.9  0.9662  -17.3
 0.105  0.8511  -26.7  29.979  163.2  0.0157   76.4  0.9626  -18.2
 0.110  0.8491  -27.9  29.883  162.4  0.0170   74.3  0.9592  -19.2
 0.115  0.8462  -29.1  29.686  161.6  0.0176   74.7  0.9569  -20.0
 0.120  0.8437  -30.3  29.494  160.8  0.0183   75.1  0.9547  -20.8
 0.125  0.8425  -31.5  29.393  160.1  0.0190   74.9  0.9513  -21.7
 0.130  0.8418  -32.8  29.297  159.3  0.0197   74.7  0.9481  -22.7
 0.135  0.8410  -34.0  29.224  158.7  0.0209   73.4  0.9441  -23.3
 0.140  0.8406  -35.2  29.155  158.0  0.0221   72.2  0.9403  -23.9
 0.145  0.8389  -36.4  29.011  157.3  0.0221   71.6  0.9370  -24.7
 0.150  0.8376  -37.6  28.872  156.6  0.0221   71.1  0.9339  -25.6
 0.155  0.8347  -38.7  28.728  155.9  0.0227   70.7  0.9294  -26.4
 0.160  0.8322  -39.8  28.588  155.2  0.0232   70.3  0.9251  -27.1
 0.165  0.8299  -41.0  28.453  154.5  0.0238   69.9  0.9209  -27.9
 0.170  0.8280  -42.1  28.321  153.8  0.0244   69.5  0.9169  -28.6
 0.175  0.8264  -43.3  28.194  153.1  0.0249   69.2  0.9130  -29.4
 0.180  0.8252  -44.4  28.072  152.4  0.0255   68.9  0.9094  -30.2
 0.185  0.8243  -45.5  27.953  151.7  0.0261   68.6  0.9059  -31.0
 0.190  0.8237  -46.7  27.839  151.0  0.0267   68.3  0.9025  -31.8
 0.195  0.8234  -47.8  27.730  150.2  0.0272   68.0  0.8994  -32.6
 0.200  0.8235  -49.0  27.625  149.5  0.0278   67.7  0.8964  -33.4
 0.220  0.8127  -53.3  27.014  146.9  0.0304   64.8  0.8763  -36.3
 0.240  0.8065  -57.6  26.459  144.3  0.0331   62.3  0.8585  -39.3
 0.260  0.7998  -61.7  25.869  141.8  0.0352   60.3  0.8404  -42.2
 0.280  0.7917  -65.6  25.229  139.6  0.0368   58.6  0.8214  -44.8
 0.300  0.7874  -69.6  24.629  137.2  0.0385   57.0  0.8042  -47.5
 0.320  0.7781  -73.3  23.987  135.1  0.0400   55.4  0.7844  -49.9
 0.340  0.7721  -77.0  23.378  132.9  0.0414   54.0  0.7662  -52.5
 0.360  0.7659  -80.5  22.784  130.9  0.0428   52.6  0.7479  -54.9
 0.380  0.7587  -83.7  22.196  129.0  0.0440   51.3  0.7295  -57.1
 0.400  0.7541  -87.0  21.633  127.0  0.0453   50.0  0.7121  -59.4
 0.420  0.7470  -90.0  21.073  125.3  0.0468   48.7  0.6946  -61.4
 0.440  0.7419  -93.1  20.531  123.6  0.0483   47.5  0.6780  -63.6
 0.450  0.7402  -94.6  20.267  122.7  0.0491   46.9  0.6701  -64.7
 0.460  0.7365  -95.9  20.001  122.0  0.0496   46.4  0.6620  -65.7
 0.480  0.7304  -98.6  19.479  120.4  0.0506   45.4  0.6462  -67.6
 0.500  0.7259 -101.4  18.972  118.8  0.0516   44.5  0.6313  -69.7
 0.520  0.7192 -103.7  18.499  117.6  0.0523   43.6  0.6161  -71.3
 0.540  0.7137 -106.1  18.035  116.3  0.0530   42.6  0.6015  -73.0
 0.560  0.7094 -108.5  17.580  115.0  0.0537   41.7  0.5874  -74.7
 0.580  0.7064 -111.0  17.135  113.6  0.0545   40.9  0.5738  -76.6
 0.600  0.7047 -113.4  16.701  112.1  0.0552   40.0  0.5609  -78.5
 0.620  0.6996 -115.4  16.316  111.1  0.0559   39.4  0.5486  -79.9
 0.640  0.6953 -117.3  15.936  110.1  0.0565   38.9  0.5366  -81.4
 0.660  0.6919 -119.3  15.561  109.0  0.0572   38.3  0.5250  -83.0
 0.680  0.6893 -121.4  15.193  107.8  0.0579   37.8  0.5138  -84.6
 0.700  0.6876 -123.4  14.831  106.6  0.0586   37.3  0.5030  -86.3
 0.720  0.6842 -125.1  14.514  105.7  0.0590   36.7  0.4929  -87.6
 0.740  0.6814 -126.8  14.201  104.8  0.0594   36.1  0.4831  -89.0
 0.760  0.6791 -128.5  13.891  103.9  0.0598   35.5  0.4736  -90.4
 0.780  0.6775 -130.2  13.585  102.9  0.0602   35.0  0.4645  -91.9
 0.800  0.6765 -131.9  13.283  101.9  0.0606   34.4  0.4556  -93.5
 0.820  0.6736 -133.3  13.018  101.2  0.0611   34.0  0.4470  -94.7
 0.840  0.6712 -134.8  12.756  100.4  0.0616   33.7  0.4387  -95.9
 0.860  0.6691 -136.2  12.496   99.7  0.0622   33.3  0.4305  -97.2
 0.880  0.6675 -137.6  12.238   98.8  0.0627   32.9  0.4226  -98.5
 0.900  0.6663 -139.1  11.983   98.0  0.0632   32.6  0.4149  -99.9
 0.920  0.6647 -140.4  11.766   97.4  0.0636   32.3  0.4083 -101.0
 0.940  0.6633 -141.6  11.552   96.7  0.0640   32.0  0.4019 -102.2
 0.960  0.6624 -142.9  11.338   96.0  0.0643   31.7  0.3957 -103.4
 0.980  0.6617 -144.2  11.127   95.3  0.0647   31.4  0.3896 -104.7
 1.000  0.6614 -145.5  10.917   94.5  0.0651   31.1  0.3838 -106.0
 1.020  0.6600 -146.6  10.733   93.9  0.0654   30.8  0.3781 -107.1
 1.040  0.6589 -147.7  10.551   93.3  0.0658   30.6  0.3726 -108.3
 1.060  0.6581 -148.9  10.369   92.6  0.0661   30.3  0.3673 -109.5
 1.080  0.6575 -150.0  10.190   92.0  0.0665   30.1  0.3621 -110.7
 1.100  0.6571 -151.1  10.011   91.3  0.0668   29.8  0.3571 -112.0
 1.120  0.6564 -152.1   9.856   90.7  0.0670   29.6  0.3524 -113.0
 1.140  0.6559 -153.2   9.702   90.2  0.0672   29.4  0.3479 -114.1
 1.160  0.6556 -154.2   9.549   89.6  0.0673   29.3  0.3435 -115.2
 1.180  0.6555 -155.3   9.398   88.9  0.0675   29.1  0.3392 -116.3
 1.200  0.6557 -156.3   9.247   88.3  0.0677   28.9  0.3350 -117.4
 1.220  0.6549 -157.2   9.111   87.8  0.0680   28.7  0.3311 -118.4
 1.240  0.6542 -158.1   8.975   87.3  0.0683   28.4  0.3273 -119.4
 1.260  0.6537 -159.0   8.841   86.7  0.0686   28.2  0.3236 -120.5
 1.280  0.6533 -159.9   8.707   86.2  0.0689   27.9  0.3200 -121.6
 1.300  0.6531 -160.8   8.574   85.6  0.0692   27.7  0.3165 -122.7
 1.320  0.6528 -161.7   8.459   85.1  0.0694   27.6  0.3133 -123.7
 1.340  0.6526 -162.6   8.345   84.6  0.0697   27.5  0.3101 -124.8
 1.360  0.6526 -163.4   8.231   84.0  0.0699   27.5  0.3071 -125.8
 1.380  0.6527 -164.3   8.118   83.5  0.0702   27.4  0.3041 -126.9
 1.400  0.6530 -165.2   8.006   82.9  0.0704   27.3  0.3013 -128.0
 1.420  0.6530 -166.0   7.904   82.4  0.0708   27.2  0.2988 -128.9
 1.440  0.6532 -166.7   7.802   82.0  0.0713   27.0  0.2963 -129.9
 1.460  0.6534 -167.5   7.701   81.5  0.0717   26.9  0.2939 -130.8
 1.480  0.6538 -168.2   7.601   81.0  0.0722   26.7  0.2916 -131.8
 1.500  0.6543 -169.0   7.501   80.5  0.0726   26.6  0.2894 -132.8
 1.520  0.6541 -169.8   7.411   80.0  0.0728   26.4  0.2871 -133.7
 1.540  0.6541 -170.5   7.322   79.6  0.0731   26.3  0.2848 -134.6
 1.560  0.6541 -171.3   7.234   79.1  0.0733   26.1  0.2826 -135.5
 1.580  0.6543 -172.0   7.146   78.6  0.0736   26.0  0.2805 -136.5
 1.600  0.6546 -172.8   7.058   78.1  0.0738   25.8  0.2784 -137.4
 1.620  0.6543 -173.5   6.976   77.7  0.0740   25.7  0.2763 -138.3
 1.640  0.6542 -174.2   6.894   77.3  0.0742   25.6  0.2742 -139.2
 1.660  0.6541 -174.8   6.813   76.8  0.0744   25.5  0.2722 -140.2
 1.680  0.6541 -175.5   6.732   76.4  0.0746   25.4  0.2703 -141.1
 1.700  0.6542 -176.2   6.652   75.9  0.0748   25.3  0.2684 -142.1
 1.720  0.6543 -176.9   6.580   75.5  0.0750   25.3  0.2668 -143.0
 1.740  0.6545 -177.6   6.508   75.0  0.0752   25.3  0.2653 -143.9
 1.760  0.6547 -178.3   6.436   74.6  0.0754   25.4  0.2639 -144.8
 1.780  0.6551 -179.0   6.365   74.1  0.0756   25.4  0.2625 -145.7
 1.800  0.6556 -179.7   6.294   73.6  0.0758   25.4  0.2612 -146.6
 1.820  0.6556  179.7   6.227   73.2  0.0762   25.2  0.2599 -147.4
 1.840  0.6557  179.1   6.160   72.8  0.0766   25.1  0.2586 -148.3
 1.860  0.6559  178.5   6.093   72.4  0.0770   24.9  0.2574 -149.2
 1.880  0.6562  177.9   6.027   71.9  0.0774   24.8  0.2562 -150.0
 1.900  0.6565  177.3   5.961   71.5  0.0778   24.6  0.2551 -150.9
 1.920  0.6567  176.7   5.902   71.1  0.0781   24.5  0.2539 -151.7
 1.940  0.6569  176.1   5.844   70.7  0.0783   24.4  0.2528 -152.6
 1.960  0.6572  175.5   5.785   70.3  0.0786   24.4  0.2517 -153.5
 1.980  0.6576  174.9   5.728   69.8  0.0788   24.3  0.2507 -154.3
 2.000  0.6581  174.3   5.670   69.4  0.0791   24.2  0.2497 -155.2
 2.020  0.6583  173.8   5.617   69.0  0.0794   24.1  0.2488 -156.0
 2.040  0.6585  173.2   5.565   68.7  0.0797   24.0  0.2479 -156.8
 2.060  0.6588  172.7   5.513   68.3  0.0801   23.9  0.2471 -157.6
 2.080  0.6591  172.2   5.461   67.9  0.0804   23.8  0.2464 -158.3
 2.100  0.6595  171.6   5.409   67.5  0.0807   23.7  0.2457 -159.1
 2.120  0.6599  171.1   5.357   67.1  0.0810   23.7  0.2450 -159.9
 2.140  0.6604  170.6   5.306   66.7  0.0813   23.6  0.2444 -160.8
 2.160  0.6610  170.1   5.255   66.3  0.0817   23.5  0.2438 -161.6
 2.180  0.6616  169.5   5.204   65.9  0.0820   23.4  0.2433 -162.4
 2.200  0.6623  169.0   5.154   65.5  0.0823   23.3  0.2428 -163.2
 2.220  0.6624  168.5   5.110   65.1  0.0825   23.2  0.2422 -164.0
 2.240  0.6626  168.0   5.065   64.8  0.0827   23.1  0.2416 -164.7
 2.260  0.6628  167.5   5.021   64.4  0.0829   23.0  0.2411 -165.5
 2.280  0.6631  167.0   4.977   64.0  0.0831   22.9  0.2406 -166.3
 2.300  0.6634  166.5   4.934   63.6  0.0833   22.7  0.2402 -167.1
 2.320  0.6637  166.0   4.890   63.2  0.0835   22.6  0.2398 -167.8
 2.340  0.6641  165.5   4.847   62.8  0.0837   22.5  0.2395 -168.6
 2.360  0.6646  165.0   4.804   62.4  0.0839   22.4  0.2392 -169.4
 2.380  0.6651  164.5   4.761   62.0  0.0841   22.3  0.2389 -170.2
 2.400  0.6657  164.0   4.719   61.6  0.0843   22.2  0.2387 -171.0
 2.420  0.6659  163.5   4.681   61.3  0.0846   22.1  0.2385 -171.7
 2.440  0.6662  163.1   4.644   60.9  0.0849   22.0  0.2384 -172.5
 2.460  0.6666  162.6   4.607   60.6  0.0851   21.9  0.2382 -173.2
 2.480  0.6670  162.1   4.570   60.2  0.0854   21.8  0.2382 -173.9
 2.500  0.6674  161.6   4.533   59.8  0.0857   21.7  0.2381 -174.6
 2.520  0.6679  161.2   4.496   59.5  0.0860   21.7  0.2381 -175.4
 2.540  0.6684  160.7   4.459   59.1  0.0863   21.6  0.2382 -176.1
 2.560  0.6689  160.2   4.423   58.7  0.0865   21.5  0.2382 -176.8
 2.580  0.6695  159.8   4.387   58.3  0.0868   21.4  0.2383 -177.6
 2.600  0.6702  159.3   4.351   57.9  0.0871   21.3  0.2385 -178.3
 2.620  0.6705  158.9   4.318   57.6  0.0874   21.2  0.2384 -179.0
 2.640  0.6708  158.4   4.286   57.2  0.0878   21.1  0.2384 -179.7
 2.660  0.6712  158.0   4.254   56.9  0.0881   21.0  0.2384  179.6
 2.680  0.6716  157.5   4.222   56.5  0.0885   20.9  0.2385  178.9
 2.700  0.6721  157.1   4.190   56.2  0.0888   20.8  0.2386  178.2
 2.720  0.6725  156.7   4.158   55.8  0.0891   20.8  0.2387  177.6
 2.740  0.6731  156.2   4.127   55.4  0.0895   20.7  0.2388  176.9
 2.760  0.6736  155.8   4.095   55.1  0.0898   20.6  0.2390  176.2
 2.780  0.6743  155.3   4.064   54.7  0.0902   20.5  0.2392  175.5
 2.800  0.6749  154.9   4.033   54.3  0.0905   20.4  0.2395  174.8
 2.820  0.6753  154.5   4.005   54.0  0.0907   20.3  0.2398  174.2
 2.840  0.6757  154.1   3.977   53.6  0.0909   20.3  0.2402  173.6
 2.860  0.6761  153.7   3.949   53.3  0.0911   20.2  0.2406  173.0
 2.880  0.6765  153.3   3.921   53.0  0.0913   20.2  0.2410  172.4
 2.900  0.6770  152.9   3.894   52.6  0.0915   20.1  0.2415  171.8
 2.920  0.6776  152.5   3.866   52.3  0.0918   20.0  0.2419  171.2
 2.940  0.6781  152.1   3.839   51.9  0.0920   20.0  0.2424  170.6
 2.960  0.6787  151.7   3.812   51.5  0.0922   19.9  0.2430  170.0
 2.980  0.6793  151.3   3.785   51.2  0.0924   19.9  0.2435  169.4
 3.000  0.6800  150.9   3.758   50.8  0.0926   19.8  0.2441  168.8
 3.100  0.6815  148.9   3.639   49.3  0.0940   19.2  0.2467  166.0
 3.200  0.6839  146.9   3.523   47.7  0.0955   18.6  0.2498  163.2
 3.300  0.6871  144.9   3.410   46.0  0.0970   18.1  0.2536  160.5
 3.400  0.6911  142.9   3.300   44.2  0.0984   17.5  0.2578  157.9
 3.500  0.6959  141.0   3.194   42.3  0.0999   17.0  0.2626  155.4
 3.600  0.6987  139.2   3.101   40.8  0.1011   16.4  0.2671  153.1
 3.700  0.7022  137.4   3.011   39.3  0.1023   15.8  0.2720  150.9
 3.800  0.7063  135.6   2.923   37.6  0.1035   15.2  0.2773  148.8
 3.900  0.7112  133.8   2.838   35.9  0.1048   14.6  0.2830  146.8
 4.000  0.7167  132.1   2.755   34.0  0.1060   14.0  0.2890  144.8
 4.100  0.7195  130.6   2.681   32.6  0.1071   13.4  0.2937  143.1
 4.200  0.7228  129.1   2.609   31.2  0.1081   12.8  0.2987  141.5
 4.300  0.7266  127.7   2.539   29.7  0.1092   12.2  0.3040  139.9
 4.400  0.7309  126.2   2.470   28.1  0.1103   11.6  0.3094  138.4
 4.500  0.7356  124.8   2.404   26.4  0.1114   11.0  0.3151  136.9
 4.600  0.7374  123.5   2.346   25.1  0.1125   10.5  0.3185  135.5
 4.700  0.7396  122.3   2.290   23.8  0.1137   10.0  0.3220  134.1
 4.800  0.7421  121.1   2.235   22.4  0.1149    9.5  0.3258  132.7
 4.900  0.7449  119.8   2.181   20.9  0.1160    9.0  0.3297  131.4
 5.000  0.7481  118.6   2.129   19.4  0.1172    8.5  0.3338  130.1
 5.100  0.7487  117.4   2.083   18.2  0.1185    7.9  0.3362  128.7
 5.200  0.7497  116.3   2.038   16.9  0.1198    7.3  0.3388  127.3
 5.300  0.7509  115.1   1.994   15.5  0.1212    6.7  0.3415  125.9
 5.400  0.7524  114.0   1.951   14.1  0.1225    6.2  0.3445  124.5
 5.500  0.7543  112.8   1.909   12.6  0.1239    5.6  0.3477  123.2
 5.600  0.7548  111.8   1.872   11.4  0.1252    5.0  0.3508  121.8
 5.700  0.7556  110.8   1.836   10.2  0.1265    4.4  0.3541  120.4
 5.800  0.7566  109.8   1.801    8.9  0.1278    3.8  0.3576  119.1
 5.900  0.7578  108.8   1.766    7.5  0.1291    3.3  0.3612  117.8
 6.000  0.7593  107.8   1.733    6.1  0.1304    2.7  0.3651  116.5
 6.100  0.7616  106.8   1.705    4.8  0.1320    1.9  0.3692  115.4
 6.200  0.7641  105.9   1.678    3.5  0.1336    1.2  0.3734  114.3
 6.300  0.7668  105.0   1.652    2.2  0.1352    0.4  0.3777  113.2
 6.400  0.7697  104.0   1.626    0.8  0.1368   -0.3  0.3822  112.1
 6.500  0.7728  103.1   1.602   -0.6  0.1385   -1.0  0.3868  111.1
 6.600  0.7751  102.0   1.576   -1.9  0.1397   -1.9  0.3907  110.1
 6.800  0.7805   99.7   1.528   -4.7  0.1422   -3.7  0.3987  108.3
 7.000  0.7871   97.5   1.483   -7.7  0.1449   -5.5  0.4071  106.5
 7.200  0.7912   95.0   1.433  -10.5  0.1468   -7.3  0.4152  104.2
 7.400  0.7968   92.5   1.387  -13.5  0.1488   -9.1  0.4238  102.1
 7.600  0.8020   90.0   1.340  -16.4  0.1506  -10.9  0.4332   99.6
 7.800  0.8069   87.3   1.293  -19.3  0.1521  -12.7  0.4435   96.8
 8.000  0.8135   84.7   1.249  -22.3  0.1538  -14.5  0.4549   94.1
 8.200  0.8179   82.0   1.201  -24.8  0.1543  -16.3  0.4672   91.3
 8.400  0.8241   79.3   1.156  -27.6  0.1549  -18.0  0.4806   88.7
 8.600  0.8303   76.8   1.113  -30.1  0.1555  -19.7  0.4946   86.1
 8.800  0.8361   74.4   1.071  -32.5  0.1559  -21.4  0.5094   83.5
 9.000  0.8434   72.0   1.031  -35.0  0.1565  -23.0  0.5251   81.1
 9.200  0.8501   70.1   0.990  -37.0  0.1559  -24.5  0.5413   78.9
 9.400  0.8577   68.3   0.950  -39.2  0.1553  -26.0  0.5582   76.8
 9.600  0.8655   66.8   0.915  -41.2  0.1549  -27.2  0.5740   75.3
 9.800  0.8731   65.5   0.882  -42.8  0.1546  -28.2  0.5884   74.3
10.000  0.8812   64.3   0.851  -44.5  0.1543  -29.2  0.6030   73.3
!
!  f       NFmin   Gammaopt  rn/50
! GHz       dB    MAG  ANG    -
 0.450      0.58  0.09   70   0.61
 0.900      0.59  0.12  117   0.40
 1.900      0.80  0.26  160   0.06
 2.400      0.90  0.27  172   0.06
 3.500      1.22  0.31 -137   0.22
!
! (c) 2016  Infineon Technologies AG, Munich
