! Infineon Technologies  Discrete & RF Semiconductors
! BFP640ESD
! VCE =  2.0 V,  IC =  1.0 mA
! Common Emitter S-Parameters:                            Jan 2016
# GHz  S  MA  R  50
!  f         S11            S21            S12            S22
! GHz     MAG   ANG      MAG   ANG      MAG   ANG      MAG   ANG
 0.010  0.9829   -1.1   3.483 -179.9  0.0002 -151.8  0.9942    0.0
 0.015  0.9846   -1.0   3.462 -179.9  0.0005  100.7  0.9971   -0.2
 0.020  0.9864   -1.0   3.441  180.0  0.0010   89.7  1.0000   -0.3
 0.025  0.9864   -1.2   3.443  179.7  0.0013   89.6  0.9998   -0.5
 0.030  0.9864   -1.3   3.444  179.4  0.0016   89.5  0.9996   -0.6
 0.035  0.9864   -1.5   3.446  179.1  0.0019   89.5  0.9994   -0.8
 0.040  0.9864   -1.7   3.448  178.8  0.0022   89.4  0.9992   -1.0
 0.045  0.9865   -1.8   3.450  178.5  0.0025   89.4  0.9990   -1.1
 0.050  0.9865   -2.0   3.452  178.2  0.0028   89.4  0.9988   -1.3
 0.055  0.9864   -2.2   3.454  178.1  0.0031   88.9  0.9988   -1.4
 0.060  0.9863   -2.4   3.456  178.0  0.0033   88.5  0.9987   -1.5
 0.065  0.9861   -2.6   3.458  177.8  0.0036   88.1  0.9987   -1.6
 0.070  0.9860   -2.8   3.460  177.7  0.0039   87.8  0.9986   -1.7
 0.075  0.9860   -2.9   3.462  177.6  0.0041   87.5  0.9986   -1.8
 0.080  0.9859   -3.1   3.464  177.5  0.0044   87.3  0.9986   -1.9
 0.085  0.9858   -3.3   3.467  177.4  0.0047   87.1  0.9986   -2.0
 0.090  0.9858   -3.5   3.469  177.2  0.0050   86.9  0.9985   -2.1
 0.095  0.9857   -3.7   3.471  177.1  0.0052   86.7  0.9985   -2.2
 0.100  0.9857   -3.9   3.473  177.0  0.0055   86.6  0.9985   -2.3
 0.105  0.9857   -4.1   3.474  176.8  0.0058   86.5  0.9984   -2.4
 0.110  0.9857   -4.3   3.475  176.6  0.0061   86.4  0.9983   -2.5
 0.115  0.9857   -4.4   3.476  176.5  0.0063   86.4  0.9982   -2.7
 0.120  0.9857   -4.6   3.477  176.3  0.0066   86.3  0.9981   -2.8
 0.125  0.9857   -4.8   3.478  176.1  0.0069   86.2  0.9980   -2.9
 0.130  0.9857   -5.0   3.479  175.9  0.0072   86.2  0.9980   -3.0
 0.135  0.9857   -5.2   3.480  175.7  0.0075   86.1  0.9979   -3.1
 0.140  0.9858   -5.3   3.481  175.6  0.0077   86.1  0.9978   -3.3
 0.145  0.9858   -5.5   3.482  175.4  0.0080   86.0  0.9978   -3.4
 0.150  0.9859   -5.7   3.483  175.2  0.0083   86.0  0.9977   -3.5
 0.155  0.9857   -5.9   3.483  175.0  0.0086   85.9  0.9976   -3.6
 0.160  0.9856   -6.1   3.483  174.9  0.0088   85.8  0.9975   -3.7
 0.165  0.9855   -6.3   3.484  174.7  0.0091   85.6  0.9975   -3.8
 0.170  0.9853   -6.5   3.484  174.6  0.0094   85.5  0.9974   -3.9
 0.175  0.9852   -6.6   3.484  174.4  0.0096   85.4  0.9973   -4.0
 0.180  0.9851   -6.8   3.484  174.2  0.0099   85.3  0.9972   -4.2
 0.185  0.9850   -7.0   3.485  174.1  0.0102   85.2  0.9972   -4.3
 0.190  0.9849   -7.2   3.485  173.9  0.0105   85.2  0.9971   -4.4
 0.195  0.9849   -7.4   3.486  173.8  0.0107   85.1  0.9971   -4.5
 0.200  0.9848   -7.6   3.486  173.6  0.0110   85.0  0.9970   -4.6
 0.220  0.9849   -8.4   3.482  172.8  0.0121   84.4  0.9963   -5.0
 0.240  0.9851   -9.2   3.478  172.1  0.0132   83.8  0.9956   -5.5
 0.260  0.9850  -10.0   3.479  171.4  0.0143   83.3  0.9950   -5.9
 0.280  0.9845  -10.7   3.484  170.7  0.0154   82.7  0.9946   -6.4
 0.300  0.9841  -11.5   3.489  170.1  0.0165   82.2  0.9942   -6.9
 0.320  0.9829  -12.3   3.489  169.5  0.0176   81.7  0.9934   -7.4
 0.340  0.9819  -13.0   3.490  168.8  0.0187   81.2  0.9926   -7.9
 0.360  0.9812  -13.8   3.489  168.2  0.0198   80.7  0.9918   -8.3
 0.380  0.9806  -14.5   3.486  167.5  0.0209   80.1  0.9909   -8.8
 0.400  0.9802  -15.3   3.483  166.8  0.0219   79.5  0.9901   -9.2
 0.420  0.9793  -16.1   3.482  166.1  0.0230   79.0  0.9891   -9.6
 0.440  0.9787  -16.9   3.482  165.4  0.0241   78.6  0.9882  -10.1
 0.450  0.9784  -17.3   3.482  165.1  0.0247   78.4  0.9878  -10.3
 0.460  0.9779  -17.7   3.481  164.8  0.0252   78.1  0.9873  -10.5
 0.480  0.9769  -18.4   3.480  164.1  0.0263   77.5  0.9863  -11.0
 0.500  0.9761  -19.2   3.479  163.4  0.0274   77.0  0.9854  -11.5
 0.520  0.9750  -20.0   3.475  162.7  0.0285   76.4  0.9840  -11.9
 0.540  0.9740  -20.8   3.471  162.0  0.0295   75.8  0.9827  -12.4
 0.560  0.9732  -21.5   3.467  161.2  0.0306   75.3  0.9815  -12.8
 0.580  0.9726  -22.3   3.464  160.5  0.0316   74.8  0.9803  -13.3
 0.600  0.9722  -23.1   3.462  159.8  0.0327   74.3  0.9792  -13.7
 0.620  0.9708  -23.9   3.460  159.2  0.0337   73.7  0.9779  -14.2
 0.640  0.9696  -24.7   3.458  158.5  0.0348   73.2  0.9767  -14.6
 0.660  0.9685  -25.4   3.457  157.9  0.0358   72.6  0.9755  -15.1
 0.680  0.9677  -26.2   3.456  157.2  0.0369   72.2  0.9744  -15.5
 0.700  0.9670  -27.0   3.456  156.6  0.0379   71.7  0.9733  -16.0
 0.720  0.9655  -27.8   3.449  155.9  0.0389   71.1  0.9717  -16.4
 0.740  0.9641  -28.5   3.443  155.2  0.0399   70.5  0.9702  -16.9
 0.760  0.9629  -29.3   3.438  154.6  0.0409   70.0  0.9687  -17.3
 0.780  0.9619  -30.0   3.433  153.9  0.0420   69.5  0.9673  -17.8
 0.800  0.9610  -30.8   3.428  153.2  0.0430   69.0  0.9659  -18.2
 0.820  0.9593  -31.6   3.424  152.5  0.0440   68.4  0.9643  -18.6
 0.840  0.9579  -32.4   3.421  151.9  0.0450   67.9  0.9628  -19.1
 0.860  0.9566  -33.1   3.418  151.2  0.0460   67.4  0.9614  -19.5
 0.880  0.9554  -33.9   3.416  150.6  0.0470   66.9  0.9600  -20.0
 0.900  0.9545  -34.7   3.414  149.9  0.0480   66.4  0.9587  -20.4
 0.920  0.9527  -35.5   3.408  149.2  0.0490   65.8  0.9568  -20.9
 0.940  0.9512  -36.3   3.402  148.6  0.0499   65.3  0.9550  -21.3
 0.960  0.9498  -37.0   3.396  147.9  0.0509   64.8  0.9532  -21.8
 0.980  0.9485  -37.8   3.391  147.3  0.0519   64.3  0.9515  -22.2
 1.000  0.9475  -38.6   3.387  146.6  0.0529   63.8  0.9499  -22.7
 1.020  0.9457  -39.4   3.381  146.0  0.0538   63.3  0.9480  -23.1
 1.040  0.9441  -40.2   3.375  145.3  0.0548   62.7  0.9462  -23.6
 1.060  0.9427  -40.9   3.370  144.7  0.0557   62.2  0.9445  -24.0
 1.080  0.9415  -41.7   3.365  144.0  0.0567   61.8  0.9427  -24.5
 1.100  0.9404  -42.5   3.361  143.4  0.0576   61.3  0.9411  -24.9
 1.120  0.9386  -43.3   3.354  142.7  0.0585   60.8  0.9391  -25.3
 1.140  0.9370  -44.1   3.348  142.0  0.0594   60.3  0.9371  -25.8
 1.160  0.9355  -44.8   3.343  141.4  0.0603   59.8  0.9352  -26.2
 1.180  0.9342  -45.6   3.338  140.7  0.0613   59.3  0.9333  -26.7
 1.200  0.9331  -46.4   3.333  140.0  0.0622   58.8  0.9315  -27.1
 1.220  0.9310  -47.2   3.326  139.4  0.0630   58.3  0.9294  -27.5
 1.240  0.9291  -48.0   3.319  138.7  0.0639   57.7  0.9274  -27.9
 1.260  0.9274  -48.7   3.313  138.1  0.0648   57.2  0.9254  -28.4
 1.280  0.9258  -49.5   3.307  137.4  0.0656   56.7  0.9235  -28.8
 1.300  0.9244  -50.3   3.302  136.8  0.0665   56.2  0.9216  -29.2
 1.320  0.9221  -51.1   3.294  136.1  0.0673   55.7  0.9193  -29.6
 1.340  0.9199  -51.9   3.287  135.4  0.0681   55.1  0.9170  -30.1
 1.360  0.9180  -52.7   3.280  134.8  0.0689   54.6  0.9148  -30.5
 1.380  0.9162  -53.5   3.274  134.1  0.0698   54.1  0.9126  -31.0
 1.400  0.9146  -54.3   3.268  133.4  0.0706   53.6  0.9105  -31.4
 1.420  0.9127  -55.0   3.260  132.8  0.0714   53.1  0.9083  -31.8
 1.440  0.9110  -55.8   3.252  132.2  0.0722   52.6  0.9061  -32.2
 1.460  0.9094  -56.5   3.245  131.7  0.0730   52.2  0.9040  -32.7
 1.480  0.9080  -57.3   3.238  131.1  0.0738   51.7  0.9019  -33.1
 1.500  0.9067  -58.0   3.231  130.5  0.0746   51.3  0.8999  -33.5
 1.520  0.9046  -58.8   3.225  129.8  0.0753   50.7  0.8977  -33.9
 1.540  0.9027  -59.6   3.219  129.1  0.0761   50.2  0.8955  -34.3
 1.560  0.9010  -60.3   3.214  128.5  0.0768   49.6  0.8933  -34.8
 1.580  0.8994  -61.1   3.209  127.8  0.0775   49.1  0.8912  -35.2
 1.600  0.8980  -61.9   3.205  127.1  0.0783   48.6  0.8892  -35.6
 1.620  0.8957  -62.7   3.197  126.5  0.0790   48.1  0.8868  -36.0
 1.640  0.8935  -63.4   3.189  125.9  0.0797   47.7  0.8844  -36.4
 1.660  0.8914  -64.2   3.181  125.3  0.0804   47.3  0.8821  -36.8
 1.680  0.8896  -65.0   3.174  124.7  0.0811   46.8  0.8798  -37.2
 1.700  0.8879  -65.8   3.167  124.1  0.0818   46.4  0.8776  -37.6
 1.720  0.8859  -66.5   3.157  123.5  0.0824   45.9  0.8754  -38.0
 1.740  0.8840  -67.3   3.147  122.9  0.0831   45.5  0.8732  -38.4
 1.760  0.8822  -68.0   3.138  122.3  0.0837   45.0  0.8711  -38.8
 1.780  0.8806  -68.8   3.129  121.7  0.0843   44.5  0.8690  -39.2
 1.800  0.8792  -69.5   3.120  121.1  0.0850   44.1  0.8670  -39.6
 1.820  0.8770  -70.3   3.115  120.5  0.0857   43.6  0.8645  -40.0
 1.840  0.8749  -71.1   3.110  119.9  0.0863   43.2  0.8621  -40.4
 1.860  0.8730  -71.9   3.106  119.3  0.0870   42.7  0.8597  -40.8
 1.880  0.8713  -72.7   3.102  118.7  0.0877   42.2  0.8573  -41.2
 1.900  0.8697  -73.5   3.098  118.1  0.0884   41.8  0.8550  -41.6
 1.920  0.8675  -74.2   3.088  117.5  0.0889   41.3  0.8526  -42.0
 1.940  0.8655  -74.9   3.079  117.0  0.0895   40.9  0.8503  -42.4
 1.960  0.8636  -75.7   3.069  116.4  0.0901   40.5  0.8480  -42.7
 1.980  0.8619  -76.4   3.061  115.8  0.0906   40.0  0.8458  -43.1
 2.000  0.8603  -77.1   3.052  115.2  0.0912   39.6  0.8436  -43.5
 2.020  0.8577  -77.9   3.044  114.6  0.0917   39.1  0.8409  -43.9
 2.040  0.8552  -78.6   3.036  114.0  0.0922   38.7  0.8383  -44.3
 2.060  0.8529  -79.4   3.029  113.4  0.0928   38.2  0.8357  -44.7
 2.080  0.8507  -80.2   3.022  112.8  0.0933   37.8  0.8331  -45.1
 2.100  0.8487  -81.0   3.015  112.2  0.0938   37.3  0.8306  -45.5
 2.120  0.8469  -81.8   3.008  111.6  0.0944   36.9  0.8281  -45.9
 2.140  0.8452  -82.6   3.002  111.0  0.0949   36.5  0.8257  -46.3
 2.160  0.8437  -83.4   2.997  110.4  0.0955   36.0  0.8233  -46.7
 2.180  0.8424  -84.2   2.991  109.8  0.0960   35.6  0.8209  -47.1
 2.200  0.8412  -85.0   2.986  109.2  0.0966   35.2  0.8186  -47.5
 2.220  0.8384  -85.8   2.978  108.6  0.0971   34.7  0.8159  -47.9
 2.240  0.8358  -86.5   2.970  108.0  0.0975   34.3  0.8132  -48.3
 2.260  0.8333  -87.3   2.962  107.5  0.0980   33.8  0.8106  -48.6
 2.280  0.8310  -88.1   2.954  106.9  0.0985   33.4  0.8080  -49.0
 2.300  0.8288  -88.9   2.947  106.3  0.0990   32.9  0.8054  -49.4
 2.320  0.8267  -89.6   2.940  105.7  0.0995   32.5  0.8029  -49.8
 2.340  0.8249  -90.4   2.934  105.1  0.1000   32.1  0.8004  -50.2
 2.360  0.8232  -91.2   2.927  104.5  0.1005   31.6  0.7979  -50.6
 2.380  0.8216  -92.0   2.922  103.9  0.1010   31.2  0.7955  -51.0
 2.400  0.8202  -92.8   2.916  103.3  0.1015   30.8  0.7931  -51.4
 2.420  0.8176  -93.6   2.907  102.7  0.1018   30.3  0.7902  -51.8
 2.440  0.8151  -94.4   2.899  102.1  0.1022   29.9  0.7874  -52.2
 2.460  0.8128  -95.2   2.890  101.6  0.1025   29.4  0.7846  -52.6
 2.480  0.8106  -96.0   2.882  101.0  0.1029   29.0  0.7819  -53.0
 2.500  0.8086  -96.8   2.875  100.4  0.1033   28.6  0.7792  -53.4
 2.520  0.8068  -97.6   2.867   99.8  0.1036   28.1  0.7765  -53.8
 2.540  0.8051  -98.4   2.860   99.2  0.1040   27.7  0.7738  -54.2
 2.560  0.8036  -99.3   2.854   98.6  0.1044   27.3  0.7713  -54.7
 2.580  0.8023 -100.1   2.847   98.0  0.1048   26.8  0.7687  -55.1
 2.600  0.8011 -100.9   2.841   97.4  0.1052   26.4  0.7662  -55.5
 2.620  0.7985 -101.7   2.832   96.8  0.1055   26.0  0.7634  -55.9
 2.640  0.7961 -102.4   2.823   96.3  0.1057   25.6  0.7606  -56.3
 2.660  0.7938 -103.2   2.814   95.7  0.1060   25.2  0.7579  -56.7
 2.680  0.7917 -104.0   2.805   95.2  0.1063   24.8  0.7552  -57.1
 2.700  0.7897 -104.8   2.797   94.6  0.1065   24.4  0.7525  -57.5
 2.720  0.7878 -105.5   2.789   94.0  0.1068   24.0  0.7499  -57.9
 2.740  0.7861 -106.3   2.781   93.4  0.1071   23.6  0.7473  -58.3
 2.760  0.7846 -107.1   2.774   92.9  0.1074   23.2  0.7447  -58.7
 2.780  0.7832 -107.9   2.767   92.3  0.1077   22.8  0.7422  -59.1
 2.800  0.7819 -108.7   2.760   91.7  0.1080   22.4  0.7397  -59.5
 2.820  0.7798 -109.4   2.751   91.2  0.1082   22.0  0.7371  -59.9
 2.840  0.7779 -110.2   2.742   90.6  0.1084   21.6  0.7345  -60.2
 2.860  0.7761 -110.9   2.734   90.1  0.1085   21.2  0.7320  -60.6
 2.880  0.7745 -111.7   2.726   89.5  0.1087   20.8  0.7294  -61.0
 2.900  0.7729 -112.5   2.718   89.0  0.1089   20.4  0.7270  -61.4
 2.920  0.7716 -113.2   2.710   88.4  0.1091   20.0  0.7245  -61.7
 2.940  0.7703 -114.0   2.703   87.9  0.1093   19.6  0.7221  -62.1
 2.960  0.7692 -114.8   2.696   87.3  0.1096   19.2  0.7197  -62.5
 2.980  0.7682 -115.5   2.689   86.8  0.1098   18.8  0.7173  -62.9
 3.000  0.7674 -116.3   2.682   86.2  0.1100   18.4  0.7150  -63.3
 3.100  0.7544 -120.0   2.634   83.6  0.1102   16.6  0.7019  -65.1
 3.200  0.7445 -123.7   2.591   81.0  0.1105   14.9  0.6894  -67.0
 3.300  0.7380 -127.6   2.553   78.3  0.1108   13.1  0.6778  -68.9
 3.400  0.7348 -131.5   2.522   75.5  0.1113   11.4  0.6669  -70.9
 3.500  0.7351 -135.4   2.497   72.6  0.1119    9.7  0.6569  -73.0
 3.600  0.7248 -139.1   2.452   70.1  0.1115    8.3  0.6451  -74.8
 3.700  0.7175 -142.9   2.411   67.6  0.1112    6.8  0.6339  -76.8
 3.800  0.7135 -146.7   2.376   65.0  0.1109    5.3  0.6235  -78.7
 3.900  0.7126 -150.5   2.345   62.3  0.1107    3.9  0.6139  -80.8
 4.000  0.7150 -154.4   2.320   59.5  0.1106    2.4  0.6051  -82.9
 4.100  0.7071 -158.0   2.270   57.1  0.1096    1.1  0.5944  -85.0
 4.200  0.7021 -161.6   2.225   54.6  0.1087   -0.1  0.5844  -87.2
 4.300  0.7000 -165.3   2.184   51.9  0.1078   -1.4  0.5754  -89.5
 4.400  0.7007 -169.0   2.148   49.2  0.1070   -2.8  0.5673  -91.8
 4.500  0.7044 -172.7   2.117   46.4  0.1062   -4.1  0.5602  -94.2
 4.600  0.6998 -175.6   2.067   44.3  0.1046   -4.9  0.5519  -96.2
 4.700  0.6970 -178.6   2.021   42.1  0.1031   -5.7  0.5442  -98.3
 4.800  0.6961  178.4   1.977   39.8  0.1016   -6.5  0.5373 -100.5
 4.900  0.6971  175.5   1.937   37.4  0.1001   -7.3  0.5312 -102.7
 5.000  0.6999  172.5   1.900   34.9  0.0986   -8.2  0.5259 -104.9
 5.100  0.6973  170.0   1.859   33.0  0.0971   -8.4  0.5185 -106.8
 5.200  0.6960  167.5   1.821   31.1  0.0956   -8.7  0.5117 -108.7
 5.300  0.6960  165.1   1.784   29.0  0.0940   -8.9  0.5055 -110.7
 5.400  0.6973  162.6   1.750   26.9  0.0925   -9.1  0.4999 -112.7
 5.500  0.6999  160.1   1.719   24.7  0.0910   -9.4  0.4950 -114.8
 5.600  0.6994  157.9   1.687   22.9  0.0900   -9.1  0.4886 -116.9
 5.700  0.6999  155.8   1.658   21.1  0.0889   -8.7  0.4829 -119.1
 5.800  0.7014  153.6   1.630   19.2  0.0879   -8.4  0.4779 -121.3
 5.900  0.7039  151.5   1.603   17.2  0.0868   -8.1  0.4736 -123.6
 6.000  0.7073  149.4   1.579   15.2  0.0858   -7.7  0.4701 -125.9
 6.100  0.7082  147.4   1.553   13.4  0.0856   -7.0  0.4663 -128.2
 6.200  0.7100  145.4   1.529   11.5  0.0855   -6.4  0.4633 -130.5
 6.300  0.7126  143.4   1.506    9.6  0.0853   -5.7  0.4611 -132.9
 6.400  0.7161  141.4   1.485    7.6  0.0852   -5.1  0.4597 -135.3
 6.500  0.7205  139.4   1.466    5.6  0.0851   -4.4  0.4591 -137.7
 6.600  0.7211  137.4   1.442    3.8  0.0857   -3.7  0.4559 -139.9
 6.800  0.7251  133.4   1.398    0.1  0.0870   -2.2  0.4516 -144.4
 7.000  0.7325  129.4   1.361   -3.8  0.0884   -0.8  0.4502 -149.0
 7.200  0.7347  125.2   1.318   -7.4  0.0915   -0.0  0.4441 -154.2
 7.400  0.7408  121.0   1.281  -11.1  0.0947    0.7  0.4418 -159.5
 7.600  0.7462  116.9   1.240  -14.9  0.0982    0.9  0.4395 -165.1
 7.800  0.7510  112.6   1.195  -18.7  0.1019    0.7  0.4382 -171.3
 8.000  0.7600  108.4   1.156  -22.8  0.1056    0.4  0.4420 -177.4
 8.200  0.7617  104.6   1.108  -26.0  0.1088   -0.3  0.4388  176.6
 8.400  0.7667  100.8   1.064  -29.5  0.1121   -1.0  0.4404  170.6
 8.600  0.7748   97.3   1.024  -32.7  0.1154   -1.7  0.4432  164.4
 8.800  0.7850   94.2   0.987  -35.8  0.1190   -2.5  0.4477  158.1
 9.000  0.7975   91.2   0.954  -39.0  0.1225   -3.3  0.4575  152.0
 9.200  0.8178   88.2   0.921  -41.9  0.1261   -4.4  0.4733  145.7
 9.400  0.8401   85.4   0.891  -45.0  0.1298   -5.4  0.4944  139.8
 9.600  0.8599   82.6   0.855  -48.1  0.1335   -6.7  0.5198  134.5
 9.800  0.8774   79.6   0.813  -51.3  0.1373   -8.4  0.5486  129.8
10.000  0.8971   76.8   0.773  -54.9  0.1412   -9.9  0.5809  125.5
!
!  f       NFmin   Gammaopt  rn/50
! GHz       dB    MAG  ANG    -
 0.450      0.63  0.83   11   0.40
 0.900      0.70  0.75   24   0.39
 1.900      0.92  0.61   55   0.31
 2.400      1.10  0.54   74   0.29
 5.500      1.99  0.47 -156   0.25
!
! (c) 2016  Infineon Technologies AG, Munich
