! Infineon Technologies  Discrete & RF Semiconductors
! BFP640F
! VCE =  2.5 V,  IC =  2.0 mA
! Common Emitter S-Parameters:                            Apr 2013
# GHz  S  MA  R  50
!  f         S11            S21            S12            S22
! GHz     MAG   ANG      MAG   ANG      MAG   ANG      MAG   ANG
 0.030  0.9733   -1.3   6.652  178.9  0.0024   89.5  0.9991   -0.6
 0.040  0.9734   -1.7   6.447  178.6  0.0025   95.0  0.9992   -0.9
 0.050  0.9729   -2.1   6.565  178.4  0.0024  118.1  0.9981   -1.1
 0.060  0.9713   -2.5   6.546  177.7  0.0038   92.2  0.9994   -1.4
 0.070  0.9720   -2.9   6.585  177.4  0.0039   98.6  1.0000   -1.6
 0.080  0.9718   -3.4   6.578  177.1  0.0048   85.3  0.9994   -1.8
 0.090  0.9724   -3.7   6.585  176.8  0.0042   85.5  0.9988   -2.0
 0.100  0.9718   -4.2   6.567  176.5  0.0055   89.1  0.9985   -2.3
 0.110  0.9708   -4.6   6.612  176.1  0.0072   90.1  0.9989   -2.5
 0.120  0.9715   -5.0   6.611  175.7  0.0071   91.9  0.9976   -2.8
 0.130  0.9708   -5.5   6.642  175.3  0.0077   87.3  0.9969   -3.0
 0.140  0.9701   -5.9   6.611  175.1  0.0077   84.4  0.9973   -3.2
 0.150  0.9698   -6.3   6.631  174.8  0.0089   86.6  0.9972   -3.5
 0.200  0.9692   -8.4   6.579  173.0  0.0119   85.4  0.9957   -4.6
 0.250  0.9663  -10.4   6.573  171.2  0.0147   86.0  0.9931   -5.7
 0.300  0.9650  -12.5   6.556  169.4  0.0177   85.1  0.9906   -6.9
 0.350  0.9624  -14.6   6.546  167.6  0.0211   83.5  0.9876   -8.0
 0.400  0.9590  -16.7   6.540  165.9  0.0238   82.3  0.9833   -9.1
 0.450  0.9555  -18.7   6.458  164.2  0.0270   81.8  0.9801  -10.1
 0.500  0.9512  -20.8   6.454  162.4  0.0298   80.5  0.9749  -11.3
 0.600  0.9413  -25.0   6.369  159.0  0.0358   78.0  0.9636  -13.5
 0.700  0.9300  -29.1   6.329  155.6  0.0417   75.2  0.9516  -15.6
 0.800  0.9164  -33.2   6.247  152.3  0.0475   72.9  0.9372  -17.7
 0.900  0.9022  -37.3   6.173  149.0  0.0528   70.5  0.9215  -19.8
 1.000  0.8860  -41.3   6.078  145.8  0.0581   67.9  0.9054  -21.7
 1.100  0.8686  -45.3   5.964  142.6  0.0630   65.6  0.8873  -23.6
 1.200  0.8502  -49.1   5.854  139.5  0.0679   63.3  0.8703  -25.3
 1.300  0.8332  -52.8   5.704  136.7  0.0721   61.0  0.8512  -27.0
 1.400  0.8154  -56.5   5.591  133.9  0.0761   58.9  0.8330  -28.6
 1.500  0.7960  -60.2   5.485  131.1  0.0797   57.0  0.8140  -30.2
 1.600  0.7770  -64.0   5.395  128.4  0.0835   54.9  0.7964  -31.7
 1.700  0.7578  -67.5   5.288  125.6  0.0864   53.2  0.7786  -33.0
 1.800  0.7408  -70.9   5.161  123.2  0.0896   51.4  0.7612  -34.5
 1.900  0.7244  -74.3   5.042  120.8  0.0922   49.8  0.7441  -35.8
 2.000  0.7074  -77.7   4.948  118.4  0.0953   48.3  0.7292  -37.0
 2.100  0.6930  -81.3   4.837  116.0  0.0977   46.6  0.7124  -38.5
 2.200  0.6774  -84.5   4.734  113.6  0.0997   45.1  0.6984  -39.6
 2.300  0.6634  -87.4   4.597  111.6  0.1018   43.7  0.6824  -40.7
 2.400  0.6485  -90.4   4.494  109.4  0.1034   42.6  0.6702  -41.8
 2.500  0.6351  -93.3   4.385  107.4  0.1053   41.5  0.6573  -42.6
 2.600  0.6198  -96.4   4.305  105.4  0.1070   40.3  0.6464  -43.5
 2.700  0.6082  -99.1   4.196  103.5  0.1083   39.2  0.6340  -44.3
 2.800  0.5957 -101.9   4.107  101.5  0.1096   38.4  0.6234  -45.2
 2.900  0.5855 -104.6   4.006   99.8  0.1109   37.6  0.6128  -46.1
 3.000  0.5735 -107.3   3.925   98.0  0.1121   36.6  0.6037  -46.8
 3.100  0.5602 -110.2   3.861   96.0  0.1132   36.0  0.5953  -47.4
 3.200  0.5509 -112.7   3.770   94.4  0.1142   35.2  0.5868  -48.2
 3.300  0.5416 -115.2   3.696   92.7  0.1153   34.5  0.5791  -48.9
 3.400  0.5325 -117.8   3.616   91.1  0.1165   33.9  0.5716  -49.5
 3.500  0.5232 -120.4   3.554   89.5  0.1172   33.2  0.5657  -50.1
 3.600  0.5151 -122.8   3.478   88.0  0.1182   32.6  0.5594  -50.5
 3.700  0.5071 -125.2   3.414   86.5  0.1191   32.0  0.5534  -51.1
 3.800  0.5015 -127.5   3.340   85.0  0.1199   31.6  0.5465  -51.6
 3.900  0.4946 -129.9   3.282   83.5  0.1208   31.1  0.5411  -52.1
 4.000  0.4860 -132.6   3.230   82.0  0.1219   30.6  0.5365  -52.5
 4.100  0.4821 -134.7   3.167   80.6  0.1227   30.1  0.5303  -53.0
 4.200  0.4753 -137.2   3.113   79.2  0.1235   29.7  0.5252  -53.4
 4.300  0.4723 -139.4   3.051   77.9  0.1239   29.5  0.5184  -53.9
 4.400  0.4675 -141.9   3.003   76.5  0.1249   29.0  0.5142  -54.3
 4.500  0.4633 -144.1   2.952   75.2  0.1254   28.7  0.5089  -54.6
 4.600  0.4591 -146.6   2.909   73.7  0.1265   28.3  0.5045  -55.0
 4.700  0.4558 -148.7   2.858   72.5  0.1272   27.9  0.4997  -55.4
 4.800  0.4530 -151.1   2.814   71.2  0.1277   27.6  0.4938  -55.8
 4.900  0.4490 -153.3   2.776   69.8  0.1285   27.3  0.4898  -56.2
 5.000  0.4468 -155.5   2.729   68.6  0.1293   27.1  0.4856  -56.5
 5.100  0.4439 -157.6   2.691   67.3  0.1299   26.8  0.4817  -56.8
 5.200  0.4431 -159.6   2.641   66.1  0.1306   26.6  0.4764  -57.1
 5.300  0.4399 -161.7   2.607   64.8  0.1313   26.4  0.4724  -57.5
 5.400  0.4394 -163.7   2.564   63.6  0.1321   26.2  0.4685  -57.8
 5.500  0.4356 -165.8   2.536   62.3  0.1328   25.9  0.4658  -58.2
 5.600  0.4349 -167.7   2.494   61.2  0.1333   25.7  0.4622  -58.4
 5.700  0.4323 -169.6   2.462   59.9  0.1343   25.4  0.4580  -58.7
 5.800  0.4324 -171.5   2.422   58.7  0.1348   25.3  0.4542  -59.1
 5.900  0.4305 -173.5   2.391   57.6  0.1358   25.1  0.4510  -59.3
 6.000  0.4287 -175.4   2.358   56.4  0.1363   25.0  0.4473  -59.6
 6.100  0.4269 -177.5   2.333   55.2  0.1370   24.7  0.4450  -59.9
 6.200  0.4252 -179.1   2.296   54.1  0.1377   24.7  0.4404  -60.2
 6.300  0.4237  178.6   2.267   52.8  0.1386   24.5  0.4375  -60.4
 6.400  0.4226  176.7   2.237   51.8  0.1393   24.4  0.4334  -60.7
 6.500  0.4200  174.4   2.210   50.6  0.1399   24.2  0.4304  -60.9
 6.600  0.4199  172.4   2.177   49.4  0.1407   24.0  0.4267  -61.2
 6.700  0.4181  170.2   2.150   48.3  0.1413   24.0  0.4226  -61.3
 6.800  0.4178  168.2   2.120   47.3  0.1421   23.9  0.4193  -61.5
 6.900  0.4166  165.9   2.097   46.2  0.1428   23.9  0.4158  -61.6
 7.000  0.4159  163.9   2.069   45.1  0.1433   23.8  0.4123  -61.7
 7.100  0.4163  161.7   2.044   44.1  0.1444   23.8  0.4077  -61.8
 7.200  0.4175  159.8   2.015   43.1  0.1453   23.9  0.4031  -62.0
 7.300  0.4189  157.7   1.992   42.0  0.1463   23.9  0.3989  -62.1
 7.400  0.4201  155.8   1.967   41.0  0.1475   23.9  0.3944  -62.2
 7.500  0.4225  153.7   1.949   40.1  0.1485   23.8  0.3898  -62.4
 7.600  0.4252  151.8   1.927   39.0  0.1497   23.8  0.3844  -62.6
 7.700  0.4309  150.0   1.902   38.1  0.1512   23.8  0.3774  -62.7
 7.800  0.4343  148.0   1.885   37.1  0.1524   23.7  0.3717  -63.0
 7.900  0.4398  146.2   1.864   36.1  0.1538   23.7  0.3642  -63.2
 8.000  0.4440  144.3   1.849   35.1  0.1548   23.5  0.3584  -63.5
 8.500  0.4783  136.5   1.757   30.2  0.1616   22.8  0.3145  -65.1
 9.000  0.5122  130.4   1.670   25.5  0.1689   22.3  0.2619  -67.4
 9.500  0.5414  125.3   1.602   20.8  0.1770   21.6  0.2066  -72.3
10.000  0.5675  120.8   1.542   16.1  0.1864   20.4  0.1499  -83.1
!
!  f       NFmin   Gammaopt  rn/50
! GHz       dB    MAG  ANG    -
 0.450      0.46  0.63   10   0.28
 0.900      0.57  0.59   22   0.27
 1.500      0.67  0.58   31   0.27
 1.900      0.72  0.54   46   0.26
 2.400      0.80  0.51   62   0.26
 3.500      0.94  0.43   82   0.25
 5.500      1.26  0.36  145   0.24
10.000      2.23  0.53 -110   0.45
!
! (c) 2013  Infineon Technologies AG, Munich
