! Infineon Technologies  Discrete & RF Semiconductors
! BFP620F
! VCE =  1.5 V,  IC =  70 mA
! Common Emitter S-Parameters:                            Dec 2014
# GHz  S  MA  R  50
!  f         S11            S21            S12            S22
! GHz     MAG   ANG      MAG   ANG      MAG   ANG      MAG   ANG
 0.030  0.3732  -14.4  70.915  174.6  0.0025  106.6  0.9216   -2.4
 0.040  0.3727  -17.8  71.774  172.0  0.0033   95.5  0.9336   -5.1
 0.050  0.3736  -21.1  72.851  169.5  0.0039  101.4  0.9386   -7.6
 0.060  0.3762  -24.9  73.122  167.0  0.0052   90.0  0.9422  -10.3
 0.070  0.3714  -28.1  73.004  164.4  0.0050   86.0  0.9371  -12.9
 0.080  0.3726  -31.6  72.476  161.8  0.0062   92.3  0.9352  -15.4
 0.090  0.3656  -34.9  71.474  159.5  0.0061   84.7  0.9242  -17.9
 0.100  0.3594  -38.7  70.332  157.2  0.0078   81.6  0.9127  -20.2
 0.110  0.3568  -42.1  69.126  154.9  0.0072   83.9  0.9044  -22.5
 0.120  0.3535  -45.5  68.003  152.8  0.0077   80.6  0.8922  -24.6
 0.130  0.3489  -48.4  67.104  150.8  0.0087   79.9  0.8776  -26.7
 0.140  0.3466  -51.3  66.107  148.8  0.0085   80.7  0.8625  -28.8
 0.150  0.3438  -53.7  65.299  147.0  0.0096   78.9  0.8499  -30.6
 0.200  0.3273  -66.6  59.476  138.5  0.0120   75.8  0.7742  -39.2
 0.250  0.3094  -77.3  53.917  131.6  0.0140   72.7  0.7018  -46.1
 0.300  0.2956  -86.9  48.793  125.9  0.0163   71.9  0.6357  -52.1
 0.350  0.2843  -95.6  44.161  121.2  0.0179   70.7  0.5766  -56.7
 0.400  0.2746 -103.1  40.255  117.2  0.0197   71.0  0.5249  -60.9
 0.450  0.2678 -109.3  36.879  113.8  0.0216   70.7  0.4827  -64.6
 0.500  0.2605 -115.3  33.876  110.9  0.0235   70.3  0.4446  -67.8
 0.600  0.2535 -125.7  29.066  106.0  0.0265   70.8  0.3795  -73.2
 0.700  0.2486 -133.8  25.366  102.1  0.0303   70.3  0.3310  -78.1
 0.800  0.2472 -140.8  22.432   99.0  0.0335   70.6  0.2906  -82.3
 0.900  0.2456 -146.8  20.083   96.3  0.0370   70.4  0.2580  -86.4
 1.000  0.2470 -151.9  18.164   94.0  0.0404   70.5  0.2307  -90.2
 1.100  0.2467 -156.6  16.549   91.9  0.0439   70.3  0.2072  -94.4
 1.200  0.2496 -160.6  15.213   90.1  0.0474   70.0  0.1885  -98.2
 1.300  0.2505 -164.3  14.056   88.4  0.0510   69.7  0.1707 -102.5
 1.400  0.2542 -167.5  13.071   86.8  0.0547   69.3  0.1571 -106.7
 1.500  0.2555 -170.6  12.200   85.4  0.0579   68.9  0.1452 -111.4
 1.600  0.2594 -173.4  11.442   84.0  0.0614   68.6  0.1368 -116.1
 1.700  0.2614 -176.0  10.769   82.7  0.0647   68.2  0.1286 -120.9
 1.800  0.2646 -178.4  10.179   81.4  0.0684   67.9  0.1241 -125.7
 1.900  0.2669  179.5   9.642   80.2  0.0717   67.3  0.1202 -130.3
 2.000  0.2698  177.2   9.163   79.0  0.0752   66.8  0.1187 -134.4
 2.100  0.2734  175.3   8.724   77.9  0.0787   66.2  0.1240 -137.0
 2.200  0.2752  173.4   8.328   76.8  0.0818   65.6  0.1227 -140.5
 2.300  0.2776  171.6   7.964   75.7  0.0856   65.1  0.1216 -143.5
 2.400  0.2793  169.9   7.637   74.6  0.0890   64.3  0.1210 -146.4
 2.500  0.2812  168.2   7.335   73.6  0.0922   63.8  0.1210 -148.9
 2.600  0.2828  166.5   7.053   72.6  0.0956   63.3  0.1211 -151.5
 2.700  0.2842  165.1   6.796   71.6  0.0989   62.7  0.1209 -153.4
 2.800  0.2851  163.5   6.554   70.7  0.1024   62.1  0.1213 -155.2
 2.900  0.2867  162.1   6.328   69.7  0.1058   61.4  0.1220 -156.9
 3.000  0.2875  160.5   6.123   68.7  0.1092   60.8  0.1227 -158.6
 3.100  0.2889  159.4   5.923   67.8  0.1125   60.3  0.1225 -160.1
 3.200  0.2891  157.8   5.740   66.8  0.1157   59.6  0.1230 -161.4
 3.300  0.2901  156.7   5.569   65.9  0.1191   59.0  0.1227 -162.5
 3.400  0.2902  155.3   5.412   64.9  0.1224   58.2  0.1233 -163.8
 3.500  0.2913  154.0   5.259   64.0  0.1258   57.6  0.1226 -165.1
 3.600  0.2914  152.6   5.114   63.1  0.1291   56.9  0.1225 -166.4
 3.700  0.2924  151.5   4.982   62.2  0.1324   56.3  0.1220 -167.7
 3.800  0.2928  150.1   4.851   61.2  0.1356   55.7  0.1216 -168.8
 3.900  0.2940  149.0   4.732   60.3  0.1390   54.9  0.1208 -170.2
 4.000  0.2944  147.7   4.615   59.5  0.1423   54.3  0.1200 -172.0
 4.100  0.2957  146.6   4.508   58.5  0.1455   53.6  0.1189 -173.6
 4.200  0.2968  145.5   4.404   57.6  0.1487   52.9  0.1182 -175.6
 4.300  0.2978  144.5   4.307   56.7  0.1518   52.2  0.1175 -177.2
 4.400  0.2995  143.4   4.212   55.8  0.1553   51.5  0.1167 -179.2
 4.500  0.3006  142.5   4.122   54.9  0.1584   50.8  0.1160  178.9
 4.600  0.3028  141.4   4.036   54.0  0.1618   50.1  0.1154  176.6
 4.700  0.3039  140.6   3.956   53.0  0.1649   49.4  0.1151  174.6
 4.800  0.3064  139.7   3.876   52.2  0.1681   48.7  0.1150  172.3
 4.900  0.3079  138.9   3.800   51.3  0.1713   47.9  0.1146  170.0
 5.000  0.3103  138.0   3.729   50.3  0.1745   47.2  0.1151  167.8
 5.100  0.3119  137.2   3.660   49.4  0.1777   46.5  0.1144  165.7
 5.200  0.3145  136.5   3.593   48.5  0.1808   45.7  0.1148  163.3
 5.300  0.3162  135.7   3.527   47.5  0.1839   45.0  0.1152  161.3
 5.400  0.3192  135.0   3.464   46.6  0.1870   44.2  0.1162  159.3
 5.500  0.3213  134.3   3.402   45.7  0.1898   43.5  0.1166  157.0
 5.600  0.3245  133.6   3.343   44.8  0.1931   42.7  0.1178  154.9
 5.700  0.3267  132.9   3.286   43.8  0.1960   41.9  0.1187  152.9
 5.800  0.3290  132.1   3.231   42.8  0.1987   41.1  0.1195  150.8
 5.900  0.3315  131.4   3.177   41.9  0.2018   40.3  0.1208  148.4
 6.000  0.3341  130.5   3.123   41.0  0.2044   39.5  0.1220  146.6
 6.100  0.3368  129.6   3.071   40.1  0.2073   38.7  0.1230  144.3
 6.200  0.3392  128.8   3.021   39.1  0.2098   38.0  0.1246  141.9
 6.300  0.3421  127.8   2.971   38.1  0.2126   37.2  0.1266  139.5
 6.400  0.3449  126.8   2.923   37.2  0.2150   36.4  0.1285  137.4
 6.500  0.3476  125.7   2.875   36.2  0.2175   35.6  0.1302  134.6
 6.600  0.3504  124.7   2.826   35.3  0.2202   34.9  0.1329  132.2
 6.700  0.3528  123.5   2.781   34.4  0.2225   34.1  0.1349  129.5
 6.800  0.3555  122.3   2.737   33.5  0.2249   33.4  0.1371  126.9
 6.900  0.3588  121.2   2.693   32.6  0.2274   32.6  0.1396  124.0
 7.000  0.3623  120.1   2.650   31.7  0.2300   31.9  0.1425  121.2
 7.100  0.3657  119.0   2.610   30.9  0.2324   31.2  0.1460  118.3
 7.200  0.3693  117.9   2.570   30.0  0.2348   30.5  0.1498  115.6
 7.300  0.3736  116.9   2.531   29.2  0.2372   29.8  0.1547  112.9
 7.400  0.3780  115.9   2.494   28.3  0.2396   29.1  0.1599  110.4
 7.500  0.3832  115.1   2.458   27.5  0.2421   28.4  0.1660  108.0
 7.600  0.3885  114.3   2.423   26.7  0.2447   27.6  0.1724  105.7
 7.700  0.3946  113.5   2.389   25.9  0.2470   26.9  0.1801  103.6
 7.800  0.4008  112.8   2.355   25.0  0.2494   26.1  0.1880  101.7
 7.900  0.4083  112.1   2.322   24.2  0.2516   25.3  0.1970   99.8
 8.000  0.4159  111.5   2.290   23.3  0.2539   24.5  0.2063   98.0
!
!  f       NFmin   Gammaopt  rn/50
! GHz       dB    MAG  ANG    -
!
! noise parameter not available yet for this operation point!
!
! (c) 2014  Infineon Technologies AG, Munich
