! Infineon Technologies  Discrete & RF Semiconductors
! BFP750
! VCE =  2.5 V,  IC =  40 mA
! Common Emitter S-Parameters:                            Jan 2016
# GHz  S  MA  R  50
!  f         S11            S21            S12            S22
! GHz     MAG   ANG      MAG   ANG      MAG   ANG      MAG   ANG
 0.030  0.7082  -13.4  62.199  173.2  0.0042   83.5  0.9831   -8.9
 0.035  0.7089  -15.5  62.095  172.1  0.0048   82.6  0.9819  -10.5
 0.040  0.7106  -17.6  62.017  170.9  0.0055   81.9  0.9814  -12.1
 0.045  0.7096  -20.0  62.005  169.6  0.0063   80.8  0.9801  -13.7
 0.050  0.7098  -22.4  62.024  168.3  0.0071   80.0  0.9796  -15.3
 0.055  0.7094  -24.6  61.797  167.4  0.0076   79.5  0.9767  -16.8
 0.060  0.7100  -26.8  61.586  166.4  0.0082   79.1  0.9745  -18.4
 0.065  0.7088  -29.0  61.280  165.2  0.0088   77.5  0.9707  -20.0
 0.070  0.7086  -31.3  61.000  164.0  0.0095   76.1  0.9677  -21.6
 0.075  0.7105  -33.4  60.765  163.1  0.0101   75.2  0.9641  -23.1
 0.080  0.7133  -35.4  60.546  162.1  0.0107   74.4  0.9612  -24.7
 0.085  0.7121  -37.3  60.121  161.0  0.0112   73.5  0.9569  -26.2
 0.090  0.7116  -39.2  59.718  159.9  0.0118   72.7  0.9532  -27.7
 0.095  0.7112  -41.3  59.389  158.9  0.0124   71.6  0.9484  -29.1
 0.100  0.7117  -43.3  59.079  157.9  0.0130   70.6  0.9442  -30.6
 0.105  0.7115  -45.1  58.675  156.9  0.0135   69.6  0.9393  -32.0
 0.110  0.7120  -46.9  58.288  155.9  0.0141   68.6  0.9350  -33.5
 0.115  0.7115  -48.8  57.882  154.9  0.0146   67.9  0.9300  -34.9
 0.120  0.7117  -50.7  57.493  153.9  0.0152   67.2  0.9255  -36.4
 0.125  0.7131  -52.6  57.072  153.0  0.0157   66.3  0.9202  -37.8
 0.130  0.7153  -54.5  56.665  152.1  0.0162   65.4  0.9154  -39.2
 0.135  0.7136  -56.3  56.252  151.2  0.0167   64.5  0.9097  -40.5
 0.140  0.7126  -58.1  55.854  150.2  0.0172   63.7  0.9046  -41.9
 0.145  0.7138  -59.9  55.467  149.2  0.0177   63.1  0.8990  -43.2
 0.150  0.7157  -61.7  55.096  148.2  0.0182   62.5  0.8938  -44.6
 0.155  0.7133  -63.3  54.586  147.4  0.0186   61.7  0.8864  -45.8
 0.160  0.7115  -64.9  54.087  146.6  0.0190   60.8  0.8794  -46.9
 0.165  0.7102  -66.6  53.598  145.8  0.0194   60.1  0.8728  -48.1
 0.170  0.7095  -68.2  53.120  145.0  0.0198   59.3  0.8666  -49.4
 0.175  0.7094  -69.9  52.652  144.2  0.0202   58.6  0.8607  -50.6
 0.180  0.7099  -71.5  52.197  143.3  0.0206   57.9  0.8553  -51.9
 0.185  0.7110  -73.1  51.752  142.5  0.0210   57.2  0.8503  -53.1
 0.190  0.7126  -74.8  51.320  141.6  0.0215   56.6  0.8457  -54.4
 0.195  0.7148  -76.4  50.900  140.7  0.0219   56.0  0.8415  -55.7
 0.200  0.7176  -78.0  50.492  139.8  0.0223   55.4  0.8378  -57.0
 0.220  0.7138  -83.2  48.648  137.2  0.0236   52.9  0.8126  -61.3
 0.240  0.7157  -88.3  46.915  134.3  0.0248   50.6  0.7921  -65.8
 0.260  0.7171  -93.2  45.224  131.7  0.0260   48.6  0.7721  -70.0
 0.280  0.7172  -97.9  43.540  129.2  0.0269   46.7  0.7514  -73.9
 0.300  0.7220 -102.6  41.940  126.6  0.0279   44.9  0.7344  -78.0
 0.320  0.7196 -106.4  40.402  124.7  0.0286   43.3  0.7155  -81.3
 0.340  0.7202 -110.1  38.912  122.7  0.0294   41.7  0.6991  -84.8
 0.360  0.7209 -113.6  37.518  120.7  0.0301   40.3  0.6837  -88.1
 0.380  0.7209 -116.9  36.209  118.9  0.0306   39.0  0.6688  -91.2
 0.400  0.7233 -120.1  34.939  117.0  0.0312   37.8  0.6559  -94.4
 0.420  0.7224 -122.9  33.778  115.5  0.0317   36.7  0.6427  -97.1
 0.440  0.7232 -125.6  32.641  113.9  0.0322   35.7  0.6310  -99.9
 0.450  0.7242 -127.0  32.083  113.1  0.0325   35.2  0.6258 -101.4
 0.460  0.7239 -128.2  31.573  112.5  0.0327   34.8  0.6201 -102.6
 0.480  0.7244 -130.6  30.566  111.1  0.0330   33.9  0.6097 -105.1
 0.500  0.7261 -133.0  29.576  109.7  0.0334   33.1  0.6004 -107.7
 0.520  0.7248 -134.9  28.734  108.7  0.0337   32.4  0.5911 -109.7
 0.540  0.7244 -136.9  27.902  107.6  0.0340   31.7  0.5825 -111.8
 0.560  0.7247 -138.8  27.081  106.5  0.0343   31.1  0.5748 -114.0
 0.580  0.7260 -140.8  26.270  105.3  0.0346   30.4  0.5678 -116.2
 0.600  0.7280 -142.7  25.472  104.0  0.0349   29.8  0.5618 -118.5
 0.620  0.7274 -144.3  24.825  103.2  0.0351   29.3  0.5555 -120.2
 0.640  0.7273 -145.9  24.183  102.3  0.0353   28.9  0.5496 -122.0
 0.660  0.7278 -147.4  23.548  101.4  0.0356   28.4  0.5443 -123.8
 0.680  0.7289 -149.0  22.918  100.4  0.0358   27.9  0.5396 -125.6
 0.700  0.7305 -150.6  22.296   99.4  0.0360   27.5  0.5354 -127.5
 0.720  0.7302 -151.9  21.785   98.7  0.0362   27.2  0.5310 -129.0
 0.740  0.7302 -153.2  21.277   97.9  0.0364   26.8  0.5269 -130.5
 0.760  0.7307 -154.4  20.774   97.1  0.0366   26.5  0.5232 -132.0
 0.780  0.7315 -155.7  20.275   96.2  0.0368   26.1  0.5199 -133.5
 0.800  0.7326 -157.0  19.781   95.3  0.0370   25.8  0.5169 -135.1
 0.820  0.7327 -158.1  19.370   94.7  0.0372   25.5  0.5139 -136.4
 0.840  0.7330 -159.1  18.962   94.0  0.0373   25.3  0.5111 -137.7
 0.860  0.7335 -160.2  18.556   93.3  0.0375   25.0  0.5085 -139.0
 0.880  0.7343 -161.2  18.152   92.6  0.0376   24.8  0.5063 -140.3
 0.900  0.7354 -162.3  17.752   91.9  0.0378   24.5  0.5043 -141.6
 0.920  0.7355 -163.2  17.410   91.3  0.0379   24.3  0.5021 -142.7
 0.940  0.7357 -164.2  17.069   90.7  0.0381   24.1  0.5000 -143.9
 0.960  0.7362 -165.1  16.731   90.1  0.0382   24.0  0.4982 -145.1
 0.980  0.7368 -166.1  16.395   89.4  0.0384   23.8  0.4966 -146.2
 1.000  0.7377 -167.0  16.061   88.7  0.0385   23.6  0.4952 -147.4
 1.020  0.7379 -167.8  15.786   88.2  0.0387   23.4  0.4937 -148.4
 1.040  0.7382 -168.6  15.513   87.6  0.0388   23.3  0.4923 -149.4
 1.060  0.7387 -169.5  15.241   87.0  0.0390   23.1  0.4910 -150.4
 1.080  0.7394 -170.3  14.971   86.4  0.0391   23.0  0.4899 -151.4
 1.100  0.7402 -171.1  14.703   85.8  0.0393   22.8  0.4890 -152.4
 1.120  0.7405 -171.9  14.461   85.3  0.0394   22.7  0.4880 -153.3
 1.140  0.7410 -172.7  14.220   84.8  0.0396   22.6  0.4871 -154.2
 1.160  0.7416 -173.4  13.980   84.2  0.0397   22.4  0.4863 -155.2
 1.180  0.7423 -174.2  13.741   83.7  0.0399   22.3  0.4856 -156.1
 1.200  0.7432 -175.0  13.504   83.1  0.0400   22.2  0.4851 -157.0
 1.220  0.7433 -175.7  13.302   82.6  0.0401   22.1  0.4843 -157.8
 1.240  0.7436 -176.4  13.101   82.1  0.0402   22.0  0.4836 -158.6
 1.260  0.7439 -177.0  12.902   81.6  0.0404   21.9  0.4830 -159.4
 1.280  0.7444 -177.7  12.703   81.1  0.0405   21.8  0.4824 -160.2
 1.300  0.7449 -178.4  12.505   80.6  0.0406   21.7  0.4820 -161.0
 1.320  0.7452 -179.0  12.325   80.1  0.0407   21.6  0.4815 -161.7
 1.340  0.7455 -179.7  12.147   79.6  0.0409   21.5  0.4811 -162.5
 1.360  0.7459  179.7  11.969   79.1  0.0410   21.5  0.4808 -163.2
 1.380  0.7465  179.0  11.792   78.6  0.0412   21.4  0.4806 -164.0
 1.400  0.7471  178.4  11.616   78.1  0.0413   21.3  0.4804 -164.7
 1.420  0.7477  177.8  11.465   77.7  0.0414   21.2  0.4801 -165.4
 1.440  0.7484  177.2  11.314   77.2  0.0416   21.2  0.4798 -166.1
 1.460  0.7491  176.7  11.164   76.8  0.0417   21.1  0.4796 -166.7
 1.480  0.7500  176.1  11.015   76.3  0.0419   21.1  0.4795 -167.4
 1.500  0.7509  175.5  10.867   75.8  0.0420   21.0  0.4794 -168.1
 1.520  0.7510  175.0  10.730   75.4  0.0421   20.9  0.4792 -168.7
 1.540  0.7512  174.4  10.594   75.0  0.0423   20.8  0.4791 -169.3
 1.560  0.7515  173.9  10.458   74.5  0.0424   20.8  0.4790 -170.0
 1.580  0.7518  173.3  10.323   74.1  0.0426   20.7  0.4790 -170.6
 1.600  0.7522  172.8  10.189   73.6  0.0427   20.6  0.4790 -171.2
 1.620  0.7525  172.3  10.069   73.2  0.0428   20.5  0.4789 -171.8
 1.640  0.7529  171.7   9.950   72.8  0.0430   20.5  0.4788 -172.4
 1.660  0.7533  171.2   9.831   72.3  0.0431   20.4  0.4788 -173.0
 1.680  0.7538  170.6   9.713   71.9  0.0433   20.4  0.4788 -173.6
 1.700  0.7544  170.1   9.595   71.4  0.0434   20.3  0.4789 -174.2
 1.720  0.7548  169.6   9.484   71.0  0.0435   20.2  0.4788 -174.7
 1.740  0.7552  169.1   9.374   70.6  0.0437   20.2  0.4787 -175.3
 1.760  0.7557  168.7   9.265   70.1  0.0438   20.1  0.4787 -175.8
 1.780  0.7563  168.2   9.155   69.7  0.0440   20.1  0.4787 -176.4
 1.800  0.7569  167.7   9.047   69.2  0.0441   20.0  0.4788 -176.9
 1.820  0.7572  167.2   8.948   68.8  0.0442   19.9  0.4789 -177.5
 1.840  0.7575  166.7   8.849   68.4  0.0444   19.9  0.4790 -178.0
 1.860  0.7579  166.2   8.750   68.0  0.0445   19.8  0.4791 -178.6
 1.880  0.7584  165.7   8.652   67.5  0.0447   19.8  0.4793 -179.1
 1.900  0.7589  165.2   8.555   67.1  0.0448   19.7  0.4796 -179.7
 1.920  0.7591  164.7   8.467   66.7  0.0449   19.6  0.4795  179.8
 1.940  0.7594  164.3   8.380   66.3  0.0451   19.5  0.4795  179.3
 1.960  0.7598  163.8   8.293   65.9  0.0452   19.5  0.4796  178.8
 1.980  0.7602  163.4   8.206   65.5  0.0454   19.4  0.4796  178.3
 2.000  0.7606  162.9   8.120   65.1  0.0455   19.3  0.4797  177.8
 2.020  0.7606  162.4   8.041   64.7  0.0456   19.2  0.4797  177.3
 2.040  0.7607  162.0   7.963   64.3  0.0458   19.2  0.4798  176.8
 2.060  0.7609  161.5   7.884   64.0  0.0459   19.1  0.4799  176.3
 2.080  0.7610  161.1   7.807   63.6  0.0460   19.0  0.4800  175.8
 2.100  0.7613  160.6   7.729   63.2  0.0461   18.9  0.4802  175.3
 2.120  0.7615  160.2   7.652   62.7  0.0463   18.9  0.4804  174.9
 2.140  0.7619  159.7   7.575   62.3  0.0464   18.8  0.4806  174.4
 2.160  0.7622  159.3   7.499   61.9  0.0465   18.7  0.4809  173.9
 2.180  0.7626  158.8   7.423   61.4  0.0467   18.7  0.4812  173.4
 2.200  0.7631  158.4   7.348   61.0  0.0468   18.6  0.4815  172.9
 2.220  0.7632  158.0   7.281   60.7  0.0469   18.5  0.4816  172.4
 2.240  0.7633  157.6   7.214   60.3  0.0471   18.5  0.4817  172.0
 2.260  0.7635  157.1   7.148   59.9  0.0472   18.4  0.4819  171.5
 2.280  0.7637  156.7   7.082   59.6  0.0474   18.3  0.4821  171.0
 2.300  0.7640  156.3   7.016   59.2  0.0475   18.2  0.4823  170.5
 2.320  0.7643  155.9   6.950   58.8  0.0476   18.2  0.4826  170.1
 2.340  0.7646  155.5   6.885   58.4  0.0478   18.1  0.4829  169.6
 2.360  0.7650  155.0   6.820   58.0  0.0479   18.0  0.4832  169.1
 2.380  0.7654  154.6   6.755   57.6  0.0481   18.0  0.4836  168.7
 2.400  0.7659  154.2   6.691   57.2  0.0482   17.9  0.4840  168.2
 2.420  0.7658  153.8   6.633   56.9  0.0483   17.8  0.4843  167.8
 2.440  0.7658  153.4   6.575   56.5  0.0485   17.8  0.4846  167.3
 2.460  0.7658  153.0   6.518   56.2  0.0486   17.7  0.4849  166.9
 2.480  0.7659  152.6   6.461   55.8  0.0487   17.7  0.4853  166.4
 2.500  0.7660  152.2   6.404   55.4  0.0488   17.6  0.4856  166.0
 2.520  0.7661  151.9   6.347   55.1  0.0490   17.5  0.4861  165.6
 2.540  0.7662  151.5   6.291   54.7  0.0491   17.5  0.4865  165.1
 2.560  0.7664  151.1   6.234   54.3  0.0492   17.4  0.4870  164.7
 2.580  0.7666  150.7   6.179   53.9  0.0494   17.4  0.4875  164.2
 2.600  0.7669  150.3   6.123   53.5  0.0495   17.3  0.4880  163.8
 2.620  0.7671  149.9   6.075   53.2  0.0496   17.2  0.4884  163.4
 2.640  0.7673  149.6   6.027   52.8  0.0498   17.2  0.4887  163.0
 2.660  0.7676  149.2   5.979   52.5  0.0499   17.1  0.4891  162.6
 2.680  0.7678  148.8   5.932   52.2  0.0501   17.0  0.4896  162.2
 2.700  0.7681  148.4   5.884   51.8  0.0502   16.9  0.4900  161.8
 2.720  0.7685  148.1   5.837   51.5  0.0503   16.9  0.4905  161.4
 2.740  0.7689  147.7   5.790   51.1  0.0505   16.8  0.4910  161.0
 2.760  0.7693  147.3   5.744   50.7  0.0506   16.7  0.4915  160.6
 2.780  0.7697  147.0   5.697   50.4  0.0508   16.7  0.4920  160.2
 2.800  0.7702  146.6   5.651   50.0  0.0509   16.6  0.4926  159.8
 2.820  0.7705  146.2   5.608   49.7  0.0510   16.5  0.4930  159.4
 2.840  0.7708  145.9   5.566   49.3  0.0512   16.4  0.4935  159.0
 2.860  0.7712  145.5   5.524   49.0  0.0513   16.4  0.4940  158.7
 2.880  0.7716  145.2   5.481   48.7  0.0515   16.3  0.4945  158.3
 2.900  0.7720  144.8   5.439   48.3  0.0516   16.2  0.4950  157.9
 2.920  0.7724  144.4   5.398   48.0  0.0517   16.1  0.4956  157.5
 2.940  0.7729  144.1   5.356   47.6  0.0519   16.0  0.4962  157.1
 2.960  0.7734  143.7   5.315   47.2  0.0520   16.0  0.4967  156.8
 2.980  0.7739  143.4   5.274   46.9  0.0522   15.9  0.4974  156.4
 3.000  0.7745  143.0   5.233   46.5  0.0523   15.8  0.4980  156.0
 3.100  0.7756  141.2   5.053   45.0  0.0530   15.3  0.5007  154.3
 3.200  0.7774  139.4   4.876   43.4  0.0536   14.8  0.5039  152.6
 3.300  0.7800  137.6   4.704   41.7  0.0543   14.3  0.5075  150.9
 3.400  0.7834  135.9   4.536   39.9  0.0550   13.9  0.5115  149.3
 3.500  0.7875  134.1   4.373   37.9  0.0557   13.4  0.5159  147.7
 3.600  0.7897  132.5   4.234   36.5  0.0563   12.9  0.5199  146.2
 3.700  0.7925  131.0   4.098   35.0  0.0568   12.4  0.5242  144.8
 3.800  0.7959  129.4   3.965   33.4  0.0574   11.9  0.5289  143.4
 3.900  0.7998  127.9   3.835   31.6  0.0579   11.4  0.5338  142.0
 4.000  0.8043  126.4   3.709   29.8  0.0585   10.9  0.5391  140.6
 4.100  0.8060  125.1   3.600   28.5  0.0591   10.4  0.5433  139.4
 4.200  0.8081  123.9   3.494   27.1  0.0596   10.0  0.5477  138.2
 4.300  0.8105  122.7   3.389   25.7  0.0602    9.5  0.5523  137.1
 4.400  0.8134  121.4   3.287   24.1  0.0607    9.0  0.5571  135.9
 4.500  0.8166  120.2   3.187   22.5  0.0613    8.6  0.5622  134.8
 4.600  0.8172  119.1   3.104   21.2  0.0619    8.1  0.5646  133.8
 4.700  0.8181  118.0   3.022   19.9  0.0625    7.6  0.5671  132.7
 4.800  0.8194  116.8   2.942   18.5  0.0631    7.1  0.5699  131.7
 4.900  0.8209  115.7   2.863   17.1  0.0638    6.7  0.5728  130.7
 5.000  0.8228  114.6   2.787   15.5  0.0644    6.2  0.5759  129.7
 5.100  0.8222  113.5   2.718   14.3  0.0650    5.6  0.5766  128.5
 5.200  0.8220  112.3   2.650   12.9  0.0655    5.0  0.5775  127.3
 5.300  0.8221  111.2   2.584   11.6  0.0661    4.4  0.5786  126.1
 5.400  0.8225  110.0   2.519   10.1  0.0667    3.9  0.5801  125.0
 5.500  0.8232  108.9   2.456    8.6  0.0673    3.3  0.5817  123.8
 5.600  0.8232  108.0   2.401    7.5  0.0679    2.8  0.5827  122.5
 5.700  0.8233  107.1   2.348    6.3  0.0685    2.3  0.5840  121.3
 5.800  0.8237  106.1   2.295    5.1  0.0691    1.8  0.5856  120.1
 5.900  0.8243  105.2   2.243    3.8  0.0697    1.3  0.5875  118.8
 6.000  0.8251  104.3   2.193    2.5  0.0703    0.8  0.5896  117.6
 6.100  0.8270  103.4   2.153    1.3  0.0710    0.1  0.5921  116.6
 6.200  0.8291  102.5   2.113    0.1  0.0717   -0.6  0.5948  115.6
 6.300  0.8314  101.6   2.075   -1.2  0.0724   -1.2  0.5976  114.6
 6.400  0.8339  100.8   2.038   -2.5  0.0731   -1.9  0.6006  113.7
 6.500  0.8366   99.9   2.002   -3.9  0.0738   -2.5  0.6038  112.7
 6.600  0.8386   98.9   1.967   -5.3  0.0745   -3.3  0.6069  111.9
 6.800  0.8435   96.8   1.899   -8.1  0.0760   -4.9  0.6135  110.2
 7.000  0.8495   94.8   1.837  -11.2  0.0775   -6.5  0.6206  108.6
 7.200  0.8533   92.4   1.766  -14.1  0.0784   -8.5  0.6285  106.6
 7.400  0.8585   90.1   1.701  -17.3  0.0794  -10.4  0.6371  104.6
 7.600  0.8625   87.7   1.633  -20.3  0.0801  -12.3  0.6461  102.3
 7.800  0.8657   85.2   1.562  -23.1  0.0806  -14.1  0.6560   99.8
 8.000  0.8704   82.7   1.495  -26.1  0.0811  -15.9  0.6670   97.4
 8.200  0.8725   80.2   1.429  -28.6  0.0810  -17.7  0.6741   94.8
 8.400  0.8762   77.8   1.365  -31.4  0.0810  -19.5  0.6826   92.2
 8.600  0.8793   75.4   1.305  -34.0  0.0808  -21.3  0.6892   89.5
 8.800  0.8815   73.0   1.246  -36.3  0.0803  -23.1  0.6940   86.8
 9.000  0.8853   70.7   1.189  -38.9  0.0800  -24.9  0.7003   84.2
 9.200  0.8898   68.7   1.133  -40.9  0.0791  -26.2  0.7078   81.9
 9.400  0.8953   66.8   1.078  -43.1  0.0783  -27.6  0.7163   79.7
 9.600  0.9018   65.2   1.030  -45.0  0.0775  -28.8  0.7289   77.9
 9.800  0.9090   64.1   0.989  -46.5  0.0768  -29.7  0.7450   76.5
10.000  0.9165   63.0   0.949  -48.1  0.0761  -30.7  0.7615   75.1
!
!  f       NFmin   Gammaopt  rn/50
! GHz       dB    MAG  ANG    -
 0.450      0.94  0.16 -166   0.41
 0.900      0.96  0.20 -161   0.20
 1.500      0.98  0.29 -157   0.08
 1.900      0.99  0.31 -152   0.07
 2.400      1.00  0.32 -145   0.08
 3.500      1.23  0.35 -131   0.09
!
! (c) 2016  Infineon Technologies AG, Munich
