! Infineon Technologies  Discrete & RF Semiconductors
! BFP720ESD
! VCE =  2.0 V,  IC =  20 mA
! Common Emitter S-Parameters:                            Jan 2016
# GHz  S  MA  R  50
!  f         S11            S21            S12            S22
! GHz     MAG   ANG      MAG   ANG      MAG   ANG      MAG   ANG
 0.010  0.7415   -0.8  42.119 -179.9  0.0008  129.5  0.9561    3.9
 0.015  0.7453   -1.5  42.066  179.1  0.0007  111.7  0.9672    1.9
 0.020  0.7492   -2.1  42.028  178.0  0.0007   91.3  0.9795   -0.1
 0.025  0.7479   -2.6  42.008  177.6  0.0009   89.8  0.9809   -0.5
 0.030  0.7467   -3.2  41.990  177.1  0.0010   88.7  0.9823   -0.8
 0.035  0.7455   -3.7  41.975  176.7  0.0012   88.0  0.9837   -1.2
 0.040  0.7444   -4.2  41.962  176.2  0.0014   87.4  0.9852   -1.6
 0.045  0.7434   -4.8  41.952  175.8  0.0015   87.0  0.9867   -1.9
 0.050  0.7424   -5.3  41.945  175.3  0.0017   86.6  0.9883   -2.3
 0.055  0.7418   -5.9  41.932  174.9  0.0019   86.1  0.9880   -2.6
 0.060  0.7412   -6.5  41.922  174.4  0.0020   85.6  0.9877   -3.0
 0.065  0.7408   -7.0  41.914  174.0  0.0022   85.2  0.9875   -3.3
 0.070  0.7404   -7.6  41.908  173.6  0.0023   84.9  0.9873   -3.7
 0.075  0.7401   -8.2  41.905  173.2  0.0025   84.6  0.9871   -4.0
 0.080  0.7398   -8.8  41.904  172.7  0.0027   84.4  0.9870   -4.4
 0.085  0.7396   -9.4  41.906  172.3  0.0028   84.1  0.9869   -4.7
 0.090  0.7396   -9.9  41.909  171.9  0.0030   83.9  0.9869   -5.1
 0.095  0.7395  -10.5  41.915  171.4  0.0031   83.8  0.9869   -5.4
 0.100  0.7396  -11.1  41.924  171.0  0.0033   83.6  0.9869   -5.8
 0.105  0.7388  -11.6  41.844  170.5  0.0035   83.4  0.9859   -6.1
 0.110  0.7380  -12.2  41.767  170.1  0.0036   83.2  0.9849   -6.4
 0.115  0.7373  -12.7  41.693  169.6  0.0038   83.1  0.9839   -6.8
 0.120  0.7367  -13.3  41.621  169.2  0.0039   82.9  0.9829   -7.1
 0.125  0.7361  -13.8  41.552  168.7  0.0041   82.8  0.9820   -7.4
 0.130  0.7356  -14.3  41.486  168.3  0.0043   82.6  0.9811   -7.7
 0.135  0.7351  -14.9  41.422  167.8  0.0044   82.5  0.9803   -8.0
 0.140  0.7348  -15.4  41.361  167.3  0.0046   82.4  0.9795   -8.4
 0.145  0.7344  -16.0  41.303  166.9  0.0047   82.3  0.9787   -8.7
 0.150  0.7342  -16.5  41.247  166.4  0.0049   82.2  0.9779   -9.0
 0.155  0.7329  -17.0  41.158  166.0  0.0050   81.8  0.9765   -9.3
 0.160  0.7316  -17.5  41.071  165.6  0.0052   81.3  0.9751   -9.6
 0.165  0.7305  -18.0  40.987  165.2  0.0053   80.9  0.9737   -9.9
 0.170  0.7293  -18.6  40.904  164.7  0.0055   80.6  0.9723  -10.2
 0.175  0.7282  -19.1  40.824  164.3  0.0056   80.2  0.9710  -10.5
 0.180  0.7272  -19.6  40.746  163.9  0.0058   79.9  0.9697  -10.8
 0.185  0.7263  -20.1  40.670  163.5  0.0059   79.6  0.9684  -11.1
 0.190  0.7254  -20.6  40.597  163.1  0.0061   79.3  0.9672  -11.4
 0.195  0.7246  -21.2  40.525  162.6  0.0062   79.0  0.9660  -11.7
 0.200  0.7238  -21.7  40.456  162.2  0.0064   78.7  0.9648  -12.0
 0.220  0.7187  -23.7  39.983  160.6  0.0070   77.7  0.9586  -13.1
 0.240  0.7145  -25.7  39.543  158.9  0.0076   76.9  0.9529  -14.2
 0.260  0.7101  -27.7  39.137  157.4  0.0082   75.8  0.9466  -15.3
 0.280  0.7055  -29.6  38.761  155.9  0.0087   74.6  0.9397  -16.4
 0.300  0.7017  -31.6  38.410  154.4  0.0093   73.6  0.9332  -17.5
 0.320  0.6965  -33.5  37.972  153.1  0.0099   72.7  0.9259  -18.5
 0.340  0.6920  -35.5  37.555  151.7  0.0104   72.0  0.9190  -19.6
 0.360  0.6877  -37.4  37.129  150.4  0.0110   71.1  0.9118  -20.6
 0.380  0.6834  -39.2  36.692  149.0  0.0115   70.2  0.9043  -21.5
 0.400  0.6798  -41.0  36.275  147.7  0.0120   69.4  0.8970  -22.4
 0.420  0.6744  -42.8  35.848  146.5  0.0125   68.6  0.8896  -23.3
 0.440  0.6696  -44.6  35.438  145.2  0.0130   67.8  0.8825  -24.2
 0.450  0.6675  -45.5  35.239  144.6  0.0133   67.4  0.8790  -24.6
 0.460  0.6647  -46.4  35.031  144.0  0.0135   67.0  0.8751  -25.1
 0.480  0.6597  -48.2  34.626  142.9  0.0140   66.2  0.8676  -26.0
 0.500  0.6553  -50.0  34.235  141.7  0.0145   65.4  0.8603  -26.9
 0.520  0.6499  -51.7  33.822  140.6  0.0149   64.6  0.8525  -27.7
 0.540  0.6450  -53.3  33.422  139.5  0.0153   63.8  0.8449  -28.5
 0.560  0.6407  -55.0  33.034  138.4  0.0158   63.0  0.8374  -29.3
 0.580  0.6370  -56.8  32.660  137.2  0.0162   62.3  0.8300  -30.1
 0.600  0.6338  -58.5  32.300  136.0  0.0166   61.6  0.8229  -30.9
 0.620  0.6286  -60.1  31.930  135.1  0.0170   60.9  0.8155  -31.6
 0.640  0.6240  -61.7  31.569  134.1  0.0174   60.2  0.8082  -32.4
 0.660  0.6198  -63.4  31.216  133.2  0.0178   59.5  0.8011  -33.1
 0.680  0.6161  -65.0  30.872  132.2  0.0182   58.9  0.7941  -33.9
 0.700  0.6130  -66.7  30.538  131.2  0.0186   58.3  0.7873  -34.7
 0.720  0.6087  -68.2  30.181  130.3  0.0189   57.7  0.7801  -35.3
 0.740  0.6047  -69.6  29.832  129.4  0.0193   57.1  0.7730  -36.0
 0.760  0.6012  -71.1  29.491  128.4  0.0196   56.5  0.7661  -36.6
 0.780  0.5981  -72.7  29.158  127.5  0.0200   55.9  0.7592  -37.3
 0.800  0.5954  -74.2  28.833  126.5  0.0203   55.4  0.7524  -38.0
 0.820  0.5913  -75.7  28.524  125.7  0.0206   54.8  0.7457  -38.6
 0.840  0.5876  -77.2  28.221  124.8  0.0209   54.2  0.7391  -39.2
 0.860  0.5844  -78.7  27.925  124.0  0.0213   53.7  0.7326  -39.9
 0.880  0.5815  -80.2  27.635  123.1  0.0216   53.1  0.7261  -40.5
 0.900  0.5791  -81.8  27.351  122.2  0.0219   52.6  0.7198  -41.2
 0.920  0.5753  -83.1  27.049  121.4  0.0222   52.1  0.7132  -41.8
 0.940  0.5719  -84.5  26.752  120.6  0.0224   51.6  0.7066  -42.4
 0.960  0.5688  -85.9  26.461  119.8  0.0227   51.1  0.7002  -43.0
 0.980  0.5660  -87.3  26.175  119.0  0.0229   50.7  0.6938  -43.6
 1.000  0.5636  -88.7  25.895  118.1  0.0232   50.2  0.6875  -44.2
 1.020  0.5605  -90.0  25.623  117.4  0.0234   49.7  0.6815  -44.7
 1.040  0.5578  -91.3  25.354  116.7  0.0237   49.3  0.6756  -45.3
 1.060  0.5553  -92.6  25.090  115.9  0.0239   48.8  0.6698  -45.8
 1.080  0.5531  -94.0  24.830  115.2  0.0242   48.3  0.6640  -46.3
 1.100  0.5512  -95.3  24.574  114.4  0.0244   47.9  0.6583  -46.9
 1.120  0.5485  -96.6  24.324  113.7  0.0246   47.5  0.6526  -47.4
 1.140  0.5460  -97.8  24.077  113.0  0.0248   47.1  0.6470  -47.9
 1.160  0.5438  -99.1  23.834  112.2  0.0251   46.7  0.6415  -48.4
 1.180  0.5419 -100.4  23.595  111.5  0.0253   46.4  0.6360  -49.0
 1.200  0.5403 -101.7  23.361  110.7  0.0255   46.0  0.6305  -49.5
 1.220  0.5380 -102.9  23.126  110.0  0.0257   45.6  0.6254  -50.0
 1.240  0.5359 -104.0  22.895  109.4  0.0259   45.2  0.6203  -50.4
 1.260  0.5340 -105.2  22.667  108.7  0.0261   44.8  0.6152  -50.9
 1.280  0.5324 -106.4  22.442  108.0  0.0263   44.5  0.6102  -51.4
 1.300  0.5310 -107.6  22.220  107.3  0.0265   44.1  0.6052  -51.9
 1.320  0.5287 -108.7  21.997  106.7  0.0267   43.8  0.6002  -52.3
 1.340  0.5267 -109.9  21.777  106.1  0.0268   43.5  0.5953  -52.8
 1.360  0.5248 -111.0  21.560  105.4  0.0270   43.2  0.5904  -53.2
 1.380  0.5231 -112.1  21.345  104.8  0.0271   42.9  0.5855  -53.6
 1.400  0.5217 -113.3  21.133  104.1  0.0273   42.6  0.5807  -54.1
 1.420  0.5201 -114.3  20.939  103.5  0.0275   42.3  0.5764  -54.5
 1.440  0.5186 -115.3  20.747  102.9  0.0276   42.0  0.5722  -54.9
 1.460  0.5172 -116.3  20.557  102.3  0.0278   41.8  0.5680  -55.3
 1.480  0.5161 -117.4  20.370  101.7  0.0279   41.5  0.5638  -55.7
 1.500  0.5151 -118.4  20.185  101.1  0.0281   41.2  0.5596  -56.1
 1.520  0.5137 -119.4  20.003  100.5  0.0282   40.9  0.5555  -56.5
 1.540  0.5125 -120.5  19.823   99.9  0.0284   40.7  0.5515  -56.9
 1.560  0.5114 -121.5  19.644   99.3  0.0285   40.4  0.5475  -57.3
 1.580  0.5105 -122.6  19.469   98.7  0.0287   40.2  0.5435  -57.8
 1.600  0.5098 -123.6  19.295   98.1  0.0288   39.9  0.5395  -58.2
 1.620  0.5082 -124.5  19.128   97.6  0.0289   39.7  0.5358  -58.6
 1.640  0.5067 -125.5  18.964   97.0  0.0290   39.5  0.5322  -58.9
 1.660  0.5054 -126.5  18.801   96.4  0.0292   39.2  0.5286  -59.3
 1.680  0.5042 -127.4  18.639   95.9  0.0293   39.0  0.5250  -59.6
 1.700  0.5031 -128.4  18.480   95.3  0.0294   38.8  0.5214  -60.0
 1.720  0.5021 -129.3  18.315   94.8  0.0295   38.6  0.5180  -60.4
 1.740  0.5012 -130.2  18.151   94.3  0.0297   38.4  0.5147  -60.7
 1.760  0.5004 -131.0  17.988   93.8  0.0298   38.2  0.5113  -61.1
 1.780  0.4997 -131.9  17.827   93.2  0.0300   38.0  0.5080  -61.4
 1.800  0.4992 -132.8  17.668   92.7  0.0301   37.8  0.5047  -61.8
 1.820  0.4980 -133.7  17.527   92.2  0.0302   37.6  0.5013  -62.2
 1.840  0.4969 -134.6  17.387   91.7  0.0303   37.4  0.4979  -62.5
 1.860  0.4959 -135.5  17.249   91.2  0.0305   37.3  0.4946  -62.9
 1.880  0.4951 -136.5  17.112   90.6  0.0306   37.1  0.4912  -63.3
 1.900  0.4944 -137.4  16.977   90.1  0.0307   36.9  0.4879  -63.7
 1.920  0.4933 -138.2  16.841   89.6  0.0308   36.7  0.4850  -64.0
 1.940  0.4924 -139.0  16.707   89.1  0.0309   36.6  0.4821  -64.2
 1.960  0.4915 -139.8  16.574   88.6  0.0310   36.4  0.4792  -64.5
 1.980  0.4908 -140.6  16.442   88.1  0.0311   36.3  0.4764  -64.8
 2.000  0.4901 -141.4  16.311   87.6  0.0312   36.1  0.4735  -65.1
 2.020  0.4890 -142.2  16.186   87.1  0.0313   35.9  0.4705  -65.4
 2.040  0.4880 -143.1  16.063   86.7  0.0314   35.8  0.4675  -65.8
 2.060  0.4871 -143.9  15.940   86.2  0.0315   35.6  0.4646  -66.1
 2.080  0.4863 -144.7  15.819   85.7  0.0316   35.5  0.4617  -66.4
 2.100  0.4856 -145.6  15.699   85.2  0.0317   35.3  0.4587  -66.8
 2.120  0.4850 -146.4  15.580   84.7  0.0318   35.2  0.4558  -67.1
 2.140  0.4845 -147.3  15.462   84.2  0.0319   35.0  0.4529  -67.5
 2.160  0.4841 -148.1  15.345   83.7  0.0320   34.9  0.4501  -67.9
 2.180  0.4839 -149.0  15.230   83.1  0.0321   34.7  0.4472  -68.2
 2.200  0.4837 -149.8  15.116   82.6  0.0322   34.6  0.4444  -68.6
 2.220  0.4829 -150.6  15.006   82.2  0.0323   34.5  0.4417  -68.9
 2.240  0.4821 -151.3  14.898   81.7  0.0324   34.3  0.4389  -69.2
 2.260  0.4815 -152.1  14.790   81.3  0.0325   34.2  0.4362  -69.6
 2.280  0.4810 -152.9  14.683   80.8  0.0326   34.1  0.4335  -69.9
 2.300  0.4805 -153.7  14.577   80.4  0.0327   33.9  0.4309  -70.2
 2.320  0.4801 -154.5  14.472   79.9  0.0328   33.8  0.4282  -70.6
 2.340  0.4798 -155.2  14.368   79.5  0.0329   33.7  0.4255  -70.9
 2.360  0.4796 -156.0  14.265   79.0  0.0330   33.6  0.4229  -71.3
 2.380  0.4795 -156.8  14.163   78.5  0.0331   33.4  0.4203  -71.6
 2.400  0.4795 -157.6  14.062   78.0  0.0332   33.3  0.4177  -72.0
 2.420  0.4791 -158.4  13.964   77.6  0.0333   33.2  0.4151  -72.3
 2.440  0.4787 -159.1  13.867   77.1  0.0334   33.1  0.4126  -72.7
 2.460  0.4784 -159.9  13.771   76.7  0.0334   33.0  0.4100  -73.0
 2.480  0.4783 -160.7  13.676   76.3  0.0335   32.9  0.4075  -73.4
 2.500  0.4782 -161.4  13.582   75.8  0.0336   32.7  0.4050  -73.7
 2.520  0.4782 -162.2  13.488   75.4  0.0337   32.6  0.4024  -74.1
 2.540  0.4782 -163.0  13.395   74.9  0.0338   32.5  0.4000  -74.5
 2.560  0.4784 -163.8  13.303   74.5  0.0338   32.4  0.3975  -74.8
 2.580  0.4787 -164.5  13.212   74.0  0.0339   32.3  0.3950  -75.2
 2.600  0.4790 -165.3  13.122   73.5  0.0340   32.2  0.3926  -75.6
 2.620  0.4787 -166.0  13.035   73.1  0.0341   32.1  0.3904  -75.9
 2.640  0.4786 -166.7  12.949   72.7  0.0341   32.1  0.3882  -76.3
 2.660  0.4785 -167.4  12.864   72.3  0.0342   32.0  0.3860  -76.6
 2.680  0.4784 -168.1  12.779   71.9  0.0343   32.0  0.3838  -77.0
 2.700  0.4784 -168.8  12.694   71.5  0.0343   31.9  0.3817  -77.3
 2.720  0.4785 -169.4  12.611   71.0  0.0344   31.8  0.3795  -77.7
 2.740  0.4787 -170.1  12.528   70.6  0.0345   31.8  0.3774  -78.1
 2.760  0.4789 -170.8  12.446   70.2  0.0346   31.7  0.3753  -78.4
 2.780  0.4792 -171.5  12.365   69.7  0.0346   31.7  0.3732  -78.8
 2.800  0.4796 -172.2  12.284   69.3  0.0347   31.6  0.3711  -79.2
 2.820  0.4798 -172.8  12.207   68.9  0.0348   31.5  0.3692  -79.5
 2.840  0.4800 -173.5  12.131   68.5  0.0349   31.5  0.3673  -79.9
 2.860  0.4803 -174.1  12.056   68.2  0.0350   31.4  0.3654  -80.2
 2.880  0.4807 -174.7  11.981   67.8  0.0351   31.3  0.3635  -80.6
 2.900  0.4811 -175.4  11.906   67.4  0.0351   31.2  0.3617  -80.9
 2.920  0.4815 -176.0  11.832   67.0  0.0352   31.2  0.3598  -81.3
 2.940  0.4821 -176.6  11.759   66.6  0.0353   31.1  0.3580  -81.6
 2.960  0.4827 -177.3  11.686   66.1  0.0354   31.0  0.3562  -82.0
 2.980  0.4833 -177.9  11.614   65.7  0.0355   31.0  0.3544  -82.3
 3.000  0.4840 -178.5  11.543   65.3  0.0356   30.9  0.3526  -82.7
 3.100  0.4849  178.6  11.210   63.6  0.0360   30.7  0.3447  -84.4
 3.200  0.4870  175.8  10.888   61.8  0.0365   30.5  0.3371  -86.3
 3.300  0.4903  173.0  10.578   59.8  0.0369   30.3  0.3299  -88.2
 3.400  0.4948  170.2  10.281   57.8  0.0374   30.2  0.3230  -90.1
 3.500  0.5004  167.5   9.997   55.6  0.0378   30.0  0.3166  -92.2
 3.600  0.5034  165.0   9.737   53.9  0.0383   29.8  0.3105  -94.3
 3.700  0.5072  162.6   9.486   52.2  0.0388   29.7  0.3048  -96.4
 3.800  0.5120  160.2   9.244   50.4  0.0393   29.5  0.2995  -98.6
 3.900  0.5176  157.9   9.012   48.4  0.0398   29.4  0.2947 -100.9
 4.000  0.5241  155.6   8.791   46.4  0.0403   29.2  0.2904 -103.3
 4.100  0.5277  153.6   8.571   44.8  0.0409   28.9  0.2864 -105.9
 4.200  0.5320  151.7   8.358   43.1  0.0414   28.7  0.2830 -108.6
 4.300  0.5369  149.7   8.152   41.3  0.0420   28.5  0.2803 -111.3
 4.400  0.5424  147.8   7.956   39.4  0.0425   28.2  0.2781 -114.1
 4.500  0.5484  146.0   7.768   37.4  0.0431   28.0  0.2767 -116.9
 4.600  0.5506  144.5   7.583   35.9  0.0436   27.8  0.2756 -119.2
 4.700  0.5531  143.0   7.403   34.4  0.0442   27.6  0.2749 -121.5
 4.800  0.5561  141.5   7.228   32.7  0.0447   27.4  0.2747 -123.9
 4.900  0.5593  140.0   7.060   31.0  0.0453   27.2  0.2750 -126.2
 5.000  0.5630  138.6   6.899   29.2  0.0458   27.0  0.2757 -128.5
 5.100  0.5647  137.2   6.752   27.8  0.0464   26.8  0.2751 -130.5
 5.200  0.5668  135.8   6.610   26.3  0.0470   26.6  0.2748 -132.6
 5.300  0.5692  134.4   6.472   24.7  0.0476   26.4  0.2749 -134.6
 5.400  0.5719  133.1   6.339   23.1  0.0482   26.2  0.2753 -136.7
 5.500  0.5749  131.7   6.212   21.4  0.0488   26.0  0.2761 -138.7
 5.600  0.5782  130.3   6.093   20.0  0.0495   25.8  0.2757 -141.1
 5.700  0.5819  129.0   5.978   18.5  0.0502   25.6  0.2757 -143.4
 5.800  0.5859  127.7   5.866   17.0  0.0510   25.4  0.2762 -145.8
 5.900  0.5901  126.4   5.759   15.4  0.0517   25.3  0.2772 -148.2
 6.000  0.5947  125.1   5.657   13.8  0.0524   25.1  0.2786 -150.5
 6.100  0.5992  123.9   5.556   12.3  0.0533   24.7  0.2804 -153.0
 6.200  0.6040  122.6   5.460   10.8  0.0542   24.3  0.2827 -155.4
 6.300  0.6090  121.4   5.367    9.2  0.0552   23.9  0.2855 -157.8
 6.400  0.6143  120.3   5.278    7.6  0.0561   23.6  0.2888 -160.1
 6.500  0.6199  119.1   5.194    5.9  0.0570   23.2  0.2926 -162.4
 6.600  0.6238  118.0   5.109    4.5  0.0580   22.7  0.2939 -164.5
 6.800  0.6324  115.8   4.949    1.4  0.0600   21.8  0.2978 -168.5
 7.000  0.6419  113.6   4.803   -1.8  0.0621   21.0  0.3030 -172.4
 7.200  0.6478  111.3   4.664   -4.9  0.0644   19.5  0.3078 -176.9
 7.400  0.6547  109.0   4.539   -8.1  0.0667   18.2  0.3144  178.7
 7.600  0.6615  106.4   4.404  -11.5  0.0689   16.4  0.3227  174.0
 7.800  0.6688  103.5   4.260  -15.0  0.0709   14.4  0.3333  169.0
 8.000  0.6779  100.6   4.133  -18.8  0.0730   12.4  0.3462  164.4
 8.200  0.6836   97.3   3.969  -22.0  0.0741   10.4  0.3557  159.3
 8.400  0.6915   94.0   3.819  -25.4  0.0752    8.5  0.3680  154.5
 8.600  0.7029   90.9   3.679  -28.6  0.0762    6.7  0.3810  149.4
 8.800  0.7176   88.0   3.545  -31.7  0.0770    5.0  0.3954  144.2
 9.000  0.7341   85.2   3.423  -35.0  0.0778    3.4  0.4129  139.4
 9.200  0.7594   82.7   3.302  -37.8  0.0786    2.0  0.4349  134.2
 9.400  0.7860   80.4   3.190  -40.9  0.0795    0.6  0.4601  129.5
 9.600  0.8113   78.3   3.061  -44.0  0.0804   -0.9  0.4886  125.4
 9.800  0.8351   76.3   2.917  -47.2  0.0814   -2.6  0.5198  121.7
10.000  0.8598   74.5   2.782  -50.7  0.0825   -4.2  0.5530  118.4
!
!  f       NFmin   Gammaopt  rn/50
! GHz       dB    MAG  ANG    -
 0.450      0.95  0.04   -8   0.11
 0.900      0.97  0.03  -30   0.12
 1.900      0.99  0.04  -77   0.14
 2.400      1.00  0.06  -94   0.15
 5.500      1.16  0.21 -108   0.13
10.000      1.52  0.52  -86   0.45
!
! (c) 2016  Infineon Technologies AG, Munich
