! Infineon Technologies  Discrete & RF Semiconductors
! BFP740
! VCE =  1.0 V,  IC =  1.0 mA
! Common Emitter S-Parameters:                            Jan 2016
# GHz  S  MA  R  50
!  f         S11            S21            S12            S22
! GHz     MAG   ANG      MAG   ANG      MAG   ANG      MAG   ANG
 0.030  0.9893   -0.9   3.773  178.7  0.0019   83.3  0.9996   -0.7
 0.035  0.9894   -1.1   3.670  178.5  0.0021   86.4  0.9998   -0.8
 0.040  0.9896   -1.3   3.567  178.3  0.0024   88.9  1.0000   -0.9
 0.045  0.9906   -1.5   3.576  178.3  0.0032   84.7  0.9991   -1.1
 0.050  0.9917   -1.6   3.585  178.3  0.0041   82.2  0.9983   -1.3
 0.055  0.9908   -1.7   3.583  178.0  0.0037   79.6  0.9978   -1.4
 0.060  0.9900   -1.9   3.581  177.7  0.0034   76.4  0.9973   -1.5
 0.065  0.9901   -2.1   3.572  177.6  0.0035   86.1  0.9986   -1.6
 0.070  0.9902   -2.3   3.563  177.5  0.0037   95.1  1.0000   -1.7
 0.075  0.9899   -2.4   3.569  177.3  0.0047   92.3  1.0000   -1.8
 0.080  0.9896   -2.6   3.576  177.1  0.0057   90.5  1.0000   -1.9
 0.085  0.9898   -2.8   3.573  177.0  0.0056   85.8  0.9998   -2.0
 0.090  0.9900   -2.9   3.571  176.9  0.0056   81.0  0.9996   -2.2
 0.095  0.9888   -3.0   3.587  176.7  0.0059   83.4  0.9994   -2.3
 0.100  0.9876   -3.2   3.604  176.6  0.0063   85.6  0.9993   -2.4
 0.105  0.9880   -3.4   3.607  176.4  0.0066   87.2  0.9995   -2.6
 0.110  0.9885   -3.6   3.610  176.3  0.0069   88.6  0.9997   -2.7
 0.115  0.9884   -3.7   3.616  176.1  0.0075   88.8  0.9992   -2.8
 0.120  0.9883   -3.9   3.622  175.9  0.0081   89.0  0.9987   -2.9
 0.125  0.9888   -4.1   3.608  175.8  0.0083   87.7  0.9988   -3.1
 0.130  0.9893   -4.2   3.594  175.7  0.0085   86.5  0.9990   -3.2
 0.135  0.9888   -4.3   3.600  175.5  0.0090   85.9  0.9987   -3.3
 0.140  0.9883   -4.5   3.606  175.4  0.0096   85.3  0.9985   -3.4
 0.145  0.9884   -4.7   3.603  175.3  0.0095   86.7  0.9985   -3.6
 0.150  0.9885   -4.8   3.600  175.1  0.0095   88.1  0.9985   -3.7
 0.155  0.9883   -5.0   3.601  174.9  0.0099   87.7  0.9984   -3.8
 0.160  0.9882   -5.1   3.602  174.8  0.0102   87.4  0.9984   -3.9
 0.165  0.9880   -5.3   3.603  174.6  0.0106   87.1  0.9983   -4.0
 0.170  0.9879   -5.4   3.604  174.5  0.0109   86.8  0.9982   -4.1
 0.175  0.9878   -5.6   3.605  174.3  0.0113   86.5  0.9982   -4.2
 0.180  0.9876   -5.8   3.606  174.2  0.0117   86.2  0.9981   -4.4
 0.185  0.9875   -5.9   3.607  174.0  0.0120   86.0  0.9980   -4.5
 0.190  0.9874   -6.1   3.608  173.9  0.0124   85.7  0.9980   -4.6
 0.195  0.9873   -6.2   3.609  173.7  0.0127   85.5  0.9979   -4.7
 0.200  0.9872   -6.4   3.610  173.6  0.0131   85.3  0.9979   -4.8
 0.220  0.9867   -7.0   3.608  173.0  0.0145   85.4  0.9974   -5.3
 0.240  0.9863   -7.7   3.606  172.5  0.0158   85.5  0.9971   -5.8
 0.260  0.9860   -8.3   3.600  171.9  0.0171   85.0  0.9966   -6.2
 0.280  0.9859   -9.0   3.590  171.4  0.0183   84.0  0.9959   -6.7
 0.300  0.9860   -9.6   3.581  170.8  0.0195   83.1  0.9954   -7.2
 0.320  0.9855  -10.2   3.578  170.2  0.0209   82.1  0.9951   -7.7
 0.340  0.9851  -10.9   3.575  169.7  0.0223   81.2  0.9948   -8.2
 0.360  0.9845  -11.5   3.576  169.1  0.0237   80.7  0.9942   -8.7
 0.380  0.9839  -12.2   3.579  168.5  0.0250   80.5  0.9932   -9.2
 0.400  0.9834  -12.8   3.583  167.9  0.0263   80.4  0.9923   -9.6
 0.420  0.9829  -13.4   3.578  167.3  0.0275   79.8  0.9925  -10.1
 0.440  0.9825  -14.1   3.572  166.7  0.0288   79.2  0.9927  -10.6
 0.450  0.9823  -14.4   3.570  166.4  0.0294   78.9  0.9929  -10.8
 0.460  0.9819  -14.7   3.572  166.1  0.0301   78.6  0.9923  -11.1
 0.480  0.9812  -15.4   3.576  165.6  0.0316   78.1  0.9913  -11.6
 0.500  0.9807  -16.0   3.580  165.0  0.0330   77.7  0.9903  -12.1
 0.520  0.9797  -16.6   3.578  164.4  0.0343   77.1  0.9894  -12.6
 0.540  0.9788  -17.3   3.577  163.8  0.0356   76.5  0.9886  -13.1
 0.560  0.9780  -17.9   3.576  163.2  0.0368   76.0  0.9878  -13.5
 0.580  0.9773  -18.6   3.576  162.6  0.0381   75.5  0.9871  -14.0
 0.600  0.9768  -19.2   3.576  162.0  0.0394   75.0  0.9865  -14.5
 0.620  0.9759  -19.8   3.568  161.5  0.0406   74.4  0.9856  -15.0
 0.640  0.9752  -20.5   3.561  160.9  0.0419   73.8  0.9847  -15.5
 0.660  0.9745  -21.1   3.554  160.4  0.0431   73.3  0.9840  -15.9
 0.680  0.9740  -21.8   3.547  159.8  0.0444   72.8  0.9832  -16.4
 0.700  0.9736  -22.4   3.541  159.3  0.0456   72.3  0.9826  -16.9
 0.720  0.9725  -23.1   3.547  158.7  0.0469   71.8  0.9815  -17.4
 0.740  0.9716  -23.7   3.554  158.1  0.0483   71.3  0.9804  -17.9
 0.760  0.9708  -24.4   3.561  157.6  0.0496   70.9  0.9794  -18.3
 0.780  0.9701  -25.0   3.568  157.0  0.0510   70.5  0.9785  -18.8
 0.800  0.9695  -25.7   3.576  156.4  0.0523   70.1  0.9776  -19.3
 0.820  0.9682  -26.4   3.574  155.8  0.0535   69.5  0.9763  -19.8
 0.840  0.9670  -27.0   3.572  155.2  0.0548   68.9  0.9751  -20.3
 0.860  0.9660  -27.7   3.571  154.7  0.0561   68.3  0.9740  -20.8
 0.880  0.9651  -28.3   3.570  154.1  0.0573   67.7  0.9729  -21.3
 0.900  0.9643  -29.0   3.569  153.5  0.0586   67.2  0.9719  -21.8
 0.920  0.9631  -29.6   3.560  152.9  0.0598   66.7  0.9705  -22.3
 0.940  0.9620  -30.3   3.551  152.3  0.0610   66.1  0.9693  -22.8
 0.960  0.9611  -30.9   3.542  151.8  0.0622   65.6  0.9680  -23.2
 0.980  0.9602  -31.6   3.534  151.2  0.0635   65.2  0.9669  -23.7
 1.000  0.9595  -32.2   3.526  150.6  0.0647   64.7  0.9658  -24.2
 1.020  0.9580  -32.9   3.525  150.0  0.0659   64.1  0.9643  -24.7
 1.040  0.9567  -33.5   3.525  149.4  0.0671   63.6  0.9629  -25.2
 1.060  0.9555  -34.2   3.525  148.8  0.0683   63.1  0.9616  -25.6
 1.080  0.9544  -34.8   3.526  148.2  0.0696   62.6  0.9603  -26.1
 1.100  0.9534  -35.5   3.527  147.6  0.0708   62.1  0.9591  -26.6
 1.120  0.9519  -36.1   3.520  147.0  0.0720   61.5  0.9576  -27.1
 1.140  0.9506  -36.8   3.513  146.4  0.0732   61.0  0.9561  -27.6
 1.160  0.9493  -37.4   3.507  145.8  0.0744   60.5  0.9548  -28.0
 1.180  0.9482  -38.1   3.501  145.2  0.0757   60.0  0.9534  -28.5
 1.200  0.9472  -38.7   3.496  144.6  0.0769   59.5  0.9522  -29.0
 1.220  0.9456  -39.4   3.496  144.0  0.0780   59.0  0.9507  -29.5
 1.240  0.9442  -40.0   3.496  143.5  0.0791   58.4  0.9492  -30.0
 1.260  0.9429  -40.7   3.496  142.9  0.0802   57.9  0.9478  -30.4
 1.280  0.9417  -41.3   3.497  142.4  0.0814   57.4  0.9465  -30.9
 1.300  0.9406  -42.0   3.498  141.8  0.0825   56.9  0.9452  -31.4
 1.320  0.9393  -42.6   3.489  141.3  0.0836   56.4  0.9435  -31.9
 1.340  0.9380  -43.3   3.480  140.7  0.0846   55.9  0.9419  -32.4
 1.360  0.9369  -43.9   3.471  140.2  0.0857   55.4  0.9404  -32.8
 1.380  0.9360  -44.6   3.463  139.6  0.0868   54.9  0.9389  -33.3
 1.400  0.9351  -45.2   3.455  139.1  0.0879   54.4  0.9375  -33.8
 1.420  0.9335  -45.8   3.448  138.6  0.0890   53.9  0.9358  -34.3
 1.440  0.9320  -46.5   3.442  138.0  0.0901   53.4  0.9341  -34.8
 1.460  0.9306  -47.1   3.435  137.5  0.0912   53.0  0.9325  -35.2
 1.480  0.9293  -47.8   3.430  136.9  0.0923   52.5  0.9310  -35.7
 1.500  0.9282  -48.4   3.424  136.4  0.0934   52.1  0.9295  -36.2
 1.520  0.9267  -49.1   3.428  135.8  0.0945   51.6  0.9279  -36.7
 1.540  0.9254  -49.8   3.431  135.3  0.0955   51.1  0.9263  -37.1
 1.560  0.9242  -50.4   3.436  134.7  0.0966   50.6  0.9248  -37.6
 1.580  0.9231  -51.1   3.440  134.2  0.0977   50.2  0.9233  -38.0
 1.600  0.9222  -51.8   3.445  133.6  0.0988   49.7  0.9219  -38.5
 1.620  0.9205  -52.4   3.438  133.0  0.0998   49.2  0.9199  -39.0
 1.640  0.9189  -53.1   3.432  132.5  0.1009   48.7  0.9180  -39.5
 1.660  0.9175  -53.7   3.426  131.9  0.1019   48.2  0.9161  -40.0
 1.680  0.9161  -54.4   3.420  131.4  0.1029   47.7  0.9143  -40.5
 1.700  0.9149  -55.0   3.415  130.8  0.1040   47.2  0.9126  -41.0
 1.720  0.9134  -55.7   3.410  130.3  0.1050   46.7  0.9111  -41.5
 1.740  0.9121  -56.3   3.405  129.7  0.1061   46.3  0.9097  -42.0
 1.760  0.9109  -57.0   3.401  129.2  0.1072   45.8  0.9083  -42.4
 1.780  0.9098  -57.6   3.397  128.6  0.1082   45.3  0.9070  -42.9
 1.800  0.9088  -58.3   3.393  128.1  0.1093   44.9  0.9058  -43.4
 1.820  0.9075  -58.9   3.385  127.6  0.1103   44.4  0.9037  -43.9
 1.840  0.9063  -59.6   3.377  127.1  0.1112   43.9  0.9016  -44.4
 1.860  0.9053  -60.2   3.370  126.5  0.1122   43.4  0.8996  -44.8
 1.880  0.9043  -60.9   3.363  126.0  0.1132   43.0  0.8977  -45.3
 1.900  0.9035  -61.5   3.356  125.5  0.1142   42.5  0.8958  -45.8
 1.920  0.9020  -62.2   3.351  125.0  0.1152   42.0  0.8942  -46.3
 1.940  0.9007  -62.9   3.347  124.4  0.1162   41.5  0.8927  -46.8
 1.960  0.8995  -63.5   3.343  123.9  0.1172   41.0  0.8912  -47.2
 1.980  0.8984  -64.2   3.339  123.3  0.1182   40.6  0.8898  -47.7
 2.000  0.8974  -64.9   3.335  122.8  0.1192   40.1  0.8885  -48.2
 2.020  0.8960  -65.6   3.334  122.2  0.1201   39.6  0.8863  -48.7
 2.040  0.8947  -66.3   3.333  121.6  0.1210   39.0  0.8842  -49.3
 2.060  0.8936  -67.1   3.332  121.1  0.1220   38.5  0.8822  -49.8
 2.080  0.8926  -67.8   3.332  120.5  0.1229   38.0  0.8803  -50.4
 2.100  0.8918  -68.5   3.332  119.9  0.1239   37.5  0.8784  -50.9
 2.120  0.8902  -69.2   3.327  119.3  0.1248   37.0  0.8765  -51.4
 2.140  0.8887  -69.8   3.322  118.8  0.1257   36.5  0.8746  -51.8
 2.160  0.8873  -70.5   3.317  118.2  0.1266   36.0  0.8728  -52.3
 2.180  0.8860  -71.1   3.313  117.7  0.1276   35.6  0.8710  -52.7
 2.200  0.8849  -71.8   3.309  117.1  0.1285   35.1  0.8693  -53.2
 2.220  0.8832  -72.5   3.304  116.5  0.1294   34.6  0.8670  -53.7
 2.240  0.8816  -73.2   3.300  116.0  0.1302   34.1  0.8648  -54.2
 2.260  0.8801  -73.8   3.295  115.4  0.1311   33.6  0.8626  -54.8
 2.280  0.8788  -74.5   3.292  114.9  0.1320   33.1  0.8605  -55.3
 2.300  0.8776  -75.2   3.288  114.3  0.1329   32.6  0.8585  -55.8
 2.320  0.8762  -75.8   3.277  113.8  0.1337   32.1  0.8567  -56.3
 2.340  0.8748  -76.4   3.265  113.3  0.1346   31.7  0.8550  -56.8
 2.360  0.8736  -77.1   3.254  112.8  0.1354   31.2  0.8533  -57.2
 2.380  0.8724  -77.7   3.244  112.3  0.1362   30.7  0.8517  -57.7
 2.400  0.8714  -78.3   3.233  111.8  0.1371   30.3  0.8502  -58.2
 2.420  0.8698  -79.0   3.228  111.3  0.1379   29.8  0.8480  -58.7
 2.440  0.8684  -79.7   3.223  110.7  0.1387   29.3  0.8458  -59.1
 2.460  0.8670  -80.3   3.219  110.2  0.1395   28.8  0.8437  -59.6
 2.480  0.8658  -81.0   3.215  109.6  0.1404   28.4  0.8416  -60.0
 2.500  0.8647  -81.7   3.211  109.1  0.1412   27.9  0.8396  -60.5
 2.520  0.8630  -82.4   3.205  108.6  0.1420   27.4  0.8371  -61.0
 2.540  0.8615  -83.1   3.200  108.1  0.1428   27.0  0.8346  -61.5
 2.560  0.8601  -83.7   3.195  107.5  0.1436   26.5  0.8323  -62.0
 2.580  0.8588  -84.4   3.190  107.0  0.1444   26.0  0.8300  -62.5
 2.600  0.8576  -85.1   3.185  106.5  0.1452   25.6  0.8277  -63.0
 2.620  0.8558  -85.8   3.183  105.9  0.1459   25.1  0.8253  -63.5
 2.640  0.8541  -86.5   3.182  105.4  0.1466   24.7  0.8230  -64.0
 2.660  0.8526  -87.3   3.181  104.8  0.1473   24.2  0.8207  -64.4
 2.680  0.8512  -88.0   3.180  104.3  0.1480   23.8  0.8185  -64.9
 2.700  0.8499  -88.7   3.180  103.7  0.1487   23.3  0.8164  -65.4
 2.720  0.8483  -89.4   3.172  103.2  0.1494   22.8  0.8135  -65.9
 2.740  0.8468  -90.0   3.165  102.6  0.1501   22.3  0.8106  -66.5
 2.760  0.8454  -90.7   3.158  102.1  0.1508   21.8  0.8078  -67.0
 2.780  0.8442  -91.3   3.151  101.5  0.1515   21.4  0.8051  -67.6
 2.800  0.8430  -92.0   3.145  101.0  0.1522   20.9  0.8025  -68.1
 2.820  0.8413  -92.7   3.141  100.5  0.1529   20.4  0.8004  -68.6
 2.840  0.8398  -93.4   3.137   99.9  0.1536   19.9  0.7984  -69.1
 2.860  0.8384  -94.2   3.134   99.4  0.1543   19.4  0.7964  -69.6
 2.880  0.8371  -94.9   3.131   98.8  0.1551   19.0  0.7945  -70.1
 2.900  0.8360  -95.6   3.128   98.3  0.1558   18.5  0.7927  -70.6
 2.920  0.8343  -96.2   3.118   97.8  0.1564   18.0  0.7900  -71.1
 2.940  0.8328  -96.9   3.108   97.2  0.1571   17.5  0.7874  -71.6
 2.960  0.8313  -97.5   3.099   96.7  0.1577   17.0  0.7848  -72.1
 2.980  0.8300  -98.2   3.090   96.1  0.1584   16.6  0.7823  -72.7
 3.000  0.8287  -98.8   3.081   95.6  0.1591   16.1  0.7799  -73.2
 3.100  0.8194 -102.6   3.086   92.7  0.1622   13.8  0.7691  -75.7
 3.200  0.8116 -106.1   3.054   89.9  0.1647   11.4  0.7550  -78.6
 3.300  0.8051 -109.7   3.025   87.2  0.1677    9.0  0.7437  -81.2
 3.400  0.7968 -113.3   2.991   84.5  0.1696    6.5  0.7301  -84.1
 3.500  0.7906 -116.8   2.963   81.8  0.1722    4.2  0.7198  -86.5
 3.600  0.7821 -120.5   2.934   79.0  0.1739    1.9  0.7065  -89.3
 3.700  0.7745 -124.0   2.903   76.3  0.1758   -0.5  0.6945  -92.0
 3.800  0.7679 -127.7   2.872   73.5  0.1767   -3.0  0.6808  -95.0
 3.900  0.7610 -131.2   2.834   70.8  0.1780   -5.3  0.6702  -97.8
 4.000  0.7546 -134.7   2.786   68.1  0.1792   -7.7  0.6604 -100.5
 4.100  0.7480 -138.4   2.765   65.4  0.1795  -10.0  0.6488 -103.3
 4.200  0.7423 -141.8   2.713   62.7  0.1799  -12.3  0.6382 -106.0
 4.300  0.7370 -145.3   2.679   60.0  0.1796  -14.5  0.6270 -108.7
 4.400  0.7334 -148.5   2.620   57.5  0.1794  -16.7  0.6178 -111.3
 4.500  0.7279 -151.9   2.586   54.9  0.1791  -18.9  0.6097 -113.8
 4.600  0.7246 -155.4   2.556   52.3  0.1790  -21.1  0.6018 -116.3
 4.700  0.7202 -158.4   2.505   49.9  0.1777  -23.1  0.5909 -118.9
 4.800  0.7176 -161.6   2.466   47.3  0.1768  -25.2  0.5837 -121.3
 4.900  0.7146 -164.6   2.422   44.9  0.1759  -27.1  0.5774 -123.6
 5.000  0.7122 -167.7   2.385   42.6  0.1747  -29.1  0.5699 -126.1
 5.100  0.7099 -170.5   2.342   40.2  0.1735  -31.1  0.5647 -128.3
 5.200  0.7084 -173.2   2.300   38.0  0.1716  -32.8  0.5569 -130.8
 5.300  0.7063 -175.8   2.250   35.6  0.1703  -34.8  0.5519 -133.0
 5.400  0.7053 -178.5   2.212   33.5  0.1687  -36.5  0.5459 -135.3
 5.500  0.7031  179.1   2.170   31.3  0.1673  -38.3  0.5419 -137.5
 5.600  0.7017  176.6   2.142   29.2  0.1656  -40.0  0.5367 -139.8
 5.700  0.6996  174.6   2.098   27.1  0.1638  -41.6  0.5319 -142.0
 5.800  0.6985  172.2   2.067   24.9  0.1619  -43.3  0.5269 -144.4
 5.900  0.6991  170.3   2.021   23.0  0.1600  -44.8  0.5238 -146.7
 6.000  0.6984  168.2   1.994   20.9  0.1587  -46.3  0.5207 -149.1
 6.100  0.6985  166.0   1.967   18.9  0.1566  -47.9  0.5177 -151.5
 6.200  0.6981  164.1   1.939   17.0  0.1551  -49.5  0.5154 -153.9
 6.300  0.6987  162.2   1.899   14.9  0.1534  -51.0  0.5126 -156.4
 6.400  0.6984  160.1   1.876   12.9  0.1520  -52.5  0.5120 -158.7
 6.500  0.6985  158.0   1.852   10.9  0.1503  -54.1  0.5102 -161.3
 6.600  0.6980  156.0   1.821    8.8  0.1478  -55.5  0.5073 -163.9
 6.800  0.6990  152.1   1.760    4.9  0.1442  -58.4  0.5053 -168.7
 7.000  0.6995  148.1   1.712    0.9  0.1407  -61.4  0.5058 -173.6
 7.200  0.7017  144.1   1.661   -3.0  0.1364  -64.2  0.5052 -178.5
 7.400  0.7038  140.1   1.609   -7.0  0.1326  -67.0  0.5064  176.9
 7.600  0.7073  135.8   1.565  -11.0  0.1287  -69.9  0.5090  172.3
 7.800  0.7127  131.6   1.510  -15.1  0.1245  -72.7  0.5098  167.7
 8.000  0.7180  127.4   1.462  -19.2  0.1200  -75.6  0.5129  163.0
 8.200  0.7215  123.1   1.407  -23.1  0.1149  -78.1  0.5136  157.8
 8.400  0.7291  118.9   1.358  -27.4  0.1099  -80.9  0.5185  152.6
 8.600  0.7362  114.8   1.306  -31.4  0.1048  -83.4  0.5246  147.3
 8.800  0.7424  111.0   1.249  -35.3  0.0993  -85.6  0.5325  141.9
 9.000  0.7520  107.2   1.198  -39.5  0.0940  -88.1  0.5449  136.7
 9.200  0.7588  103.9   1.134  -42.8  0.0883  -89.6  0.5566  131.8
 9.400  0.7680  100.8   1.075  -46.5  0.0826  -91.3  0.5722  127.1
 9.600  0.7773   98.0   1.020  -49.8  0.0773  -92.6  0.5895  123.0
 9.800  0.7858   95.7   0.966  -52.7  0.0722  -93.2  0.6073  119.5
10.000  0.7956   93.4   0.916  -55.9  0.0672  -94.0  0.6272  116.3
!
!  f       NFmin   Gammaopt  rn/50
! GHz       dB    MAG  ANG    -
 0.450      0.50  0.62   13   0.41
 0.900      0.58  0.64   21   0.39
 1.500      0.71  0.61   32   0.38
 1.900      0.76  0.58   45   0.37
 2.400      0.81  0.58   52   0.35
 3.500      0.96  0.55   78   0.32
 5.500      1.37  0.40  148   0.29
10.000      2.28  0.63  -92   0.39
!
! (c) 2016  Infineon Technologies AG, Munich
