! Infineon Technologies  Discrete & RF Semiconductors
! BFP740F
! VCE =  2.0 V,  IC =  12 mA
! Common Emitter S-Parameters:                            Oct 2012
# GHz  S  MA  R  50
!  f         S11            S21            S12            S22
! GHz     MAG   ANG      MAG   ANG      MAG   ANG      MAG   ANG
 0.030  0.8736   -2.9  31.030  177.0  0.0015   82.8  0.9946   -1.7
 0.040  0.8731   -3.9  31.059  176.2  0.0017   81.5  0.9948   -2.4
 0.050  0.8717   -4.8  31.260  175.6  0.0029   87.0  0.9953   -3.1
 0.060  0.8713   -5.8  31.102  174.9  0.0033   92.4  0.9951   -3.7
 0.070  0.8708   -6.8  31.044  174.1  0.0038   77.9  0.9933   -4.4
 0.080  0.8704   -7.7  30.973  173.4  0.0036   85.3  0.9930   -5.0
 0.090  0.8690   -8.7  30.823  172.6  0.0054   87.0  0.9927   -5.7
 0.100  0.8684   -9.7  30.797  171.9  0.0050   84.4  0.9918   -6.4
 0.110  0.8675  -10.6  30.596  171.2  0.0060   85.0  0.9897   -7.0
 0.120  0.8666  -11.6  30.528  170.5  0.0062   84.3  0.9884   -7.6
 0.130  0.8663  -12.5  30.342  169.8  0.0066   83.5  0.9865   -8.3
 0.140  0.8645  -13.4  30.249  169.2  0.0075   81.7  0.9847   -8.9
 0.150  0.8638  -14.4  30.161  168.5  0.0078   81.5  0.9832   -9.5
 0.200  0.8589  -19.0  29.581  165.4  0.0101   80.3  0.9750  -12.6
 0.250  0.8529  -23.5  29.067  162.5  0.0126   77.3  0.9639  -15.5
 0.300  0.8468  -27.9  28.551  159.8  0.0151   75.8  0.9533  -18.4
 0.350  0.8410  -32.3  28.014  157.2  0.0174   73.0  0.9411  -21.3
 0.400  0.8350  -36.7  27.613  154.6  0.0195   70.6  0.9272  -24.0
 0.450  0.8291  -40.9  27.124  152.1  0.0216   68.1  0.9150  -26.7
 0.500  0.8230  -45.1  26.636  149.8  0.0237   66.1  0.8993  -29.4
 0.600  0.8096  -53.3  25.737  145.0  0.0276   61.9  0.8672  -34.7
 0.700  0.7967  -61.1  24.772  140.5  0.0311   58.0  0.8349  -39.6
 0.800  0.7829  -68.7  23.859  136.0  0.0342   54.0  0.8000  -44.4
 0.900  0.7695  -75.9  22.892  131.9  0.0369   50.6  0.7645  -48.9
 1.000  0.7567  -82.5  21.881  128.0  0.0393   47.5  0.7302  -53.2
 1.100  0.7438  -88.9  20.953  124.3  0.0413   44.4  0.6954  -57.3
 1.200  0.7322  -94.8  20.011  120.8  0.0430   41.8  0.6642  -61.1
 1.300  0.7209 -100.5  19.151  117.5  0.0446   39.3  0.6331  -64.8
 1.400  0.7119 -105.6  18.299  114.5  0.0458   36.8  0.6065  -68.1
 1.500  0.7024 -110.6  17.524  111.6  0.0468   34.9  0.5795  -71.4
 1.600  0.6957 -115.4  16.800  108.8  0.0479   33.0  0.5570  -74.6
 1.700  0.6889 -119.6  16.078  106.3  0.0485   31.4  0.5341  -77.6
 1.800  0.6853 -123.6  15.429  103.9  0.0495   29.8  0.5158  -80.7
 1.900  0.6802 -127.3  14.805  101.6  0.0500   28.3  0.4971  -83.5
 2.000  0.6764 -130.9  14.235   99.4  0.0507   27.0  0.4822  -86.3
 2.100  0.6741 -134.5  13.668   97.1  0.0509   25.5  0.4670  -89.5
 2.200  0.6705 -137.6  13.146   95.1  0.0514   24.3  0.4547  -91.9
 2.300  0.6674 -140.5  12.660   93.2  0.0516   23.2  0.4423  -94.4
 2.400  0.6644 -143.2  12.191   91.4  0.0521   22.3  0.4328  -96.6
 2.500  0.6620 -145.8  11.768   89.7  0.0521   21.5  0.4228  -98.8
 2.600  0.6598 -148.2  11.363   88.0  0.0525   20.5  0.4147 -100.9
 2.700  0.6579 -150.7  10.998   86.3  0.0526   19.8  0.4066 -102.9
 2.800  0.6565 -152.9  10.639   84.8  0.0529   19.2  0.4005 -104.8
 2.900  0.6550 -155.1  10.307   83.2  0.0529   18.5  0.3941 -106.7
 3.000  0.6538 -157.1   9.993   81.7  0.0532   17.7  0.3885 -108.5
 3.100  0.6524 -159.1   9.698   80.2  0.0533   17.2  0.3838 -110.2
 3.200  0.6511 -161.0   9.421   78.8  0.0533   16.7  0.3792 -111.7
 3.300  0.6506 -162.8   9.151   77.5  0.0534   16.1  0.3751 -113.2
 3.400  0.6501 -164.7   8.906   76.0  0.0535   15.6  0.3713 -114.7
 3.500  0.6494 -166.3   8.659   74.8  0.0537   15.2  0.3672 -116.0
 3.600  0.6490 -168.0   8.439   73.4  0.0538   14.7  0.3640 -117.2
 3.700  0.6489 -169.6   8.228   72.1  0.0537   14.4  0.3595 -118.5
 3.800  0.6488 -171.2   8.018   70.8  0.0540   14.0  0.3561 -119.7
 3.900  0.6491 -172.7   7.827   69.5  0.0541   13.6  0.3524 -120.9
 4.000  0.6485 -174.3   7.634   68.2  0.0542   13.1  0.3489 -122.2
 4.100  0.6495 -175.7   7.461   67.0  0.0542   12.9  0.3454 -123.4
 4.200  0.6495 -177.1   7.288   65.8  0.0544   12.5  0.3422 -124.6
 4.300  0.6504 -178.6   7.126   64.5  0.0544   12.3  0.3383 -125.8
 4.400  0.6509 -179.9   6.966   63.3  0.0544   12.0  0.3355 -127.0
 4.500  0.6517  178.6   6.819   62.1  0.0545   11.7  0.3323 -128.1
 4.600  0.6528  177.1   6.674   60.9  0.0545   11.4  0.3287 -129.2
 4.700  0.6537  175.8   6.532   59.8  0.0547   11.2  0.3257 -130.5
 4.800  0.6552  174.4   6.400   58.6  0.0547   10.9  0.3230 -131.6
 4.900  0.6560  173.1   6.267   57.4  0.0548   10.7  0.3197 -132.9
 5.000  0.6574  171.8   6.145   56.3  0.0548   10.5  0.3167 -134.1
 5.100  0.6589  170.5   6.025   55.1  0.0548   10.3  0.3139 -135.4
 5.200  0.6596  169.3   5.914   54.0  0.0548   10.0  0.3114 -136.5
 5.300  0.6606  168.0   5.802   52.8  0.0549    9.8  0.3085 -137.8
 5.400  0.6618  166.8   5.696   51.7  0.0550    9.6  0.3062 -139.0
 5.500  0.6625  165.7   5.591   50.6  0.0548    9.4  0.3039 -140.2
 5.600  0.6631  164.5   5.490   49.5  0.0550    9.2  0.3012 -141.1
 5.700  0.6637  163.3   5.394   48.3  0.0550    9.1  0.2980 -142.7
 5.800  0.6643  162.0   5.302   47.2  0.0551    8.8  0.2966 -143.8
 5.900  0.6650  160.8   5.212   46.1  0.0549    8.6  0.2933 -145.0
 6.000  0.6657  159.6   5.122   44.9  0.0549    8.5  0.2903 -146.3
 6.100  0.6663  158.4   5.034   43.7  0.0549    8.3  0.2877 -147.7
 6.200  0.6665  157.0   4.955   42.5  0.0547    8.3  0.2849 -148.9
 6.300  0.6661  155.9   4.865   41.5  0.0547    8.2  0.2818 -150.2
 6.400  0.6655  154.6   4.787   40.3  0.0546    8.2  0.2792 -151.4
 6.500  0.6654  153.2   4.703   39.2  0.0545    8.2  0.2756 -152.6
 6.600  0.6650  151.9   4.626   38.1  0.0544    8.3  0.2723 -153.9
 6.700  0.6642  150.6   4.543   37.0  0.0543    8.3  0.2685 -155.2
 6.800  0.6644  149.3   4.471   35.9  0.0543    8.5  0.2648 -156.4
 6.900  0.6634  148.0   4.394   34.8  0.0543    8.6  0.2608 -157.7
 7.000  0.6637  146.7   4.322   33.7  0.0543    8.9  0.2567 -159.1
 7.100  0.6634  145.5   4.251   32.6  0.0545    9.3  0.2524 -160.7
 7.200  0.6641  144.2   4.184   31.6  0.0547    9.4  0.2497 -162.2
 7.300  0.6649  143.0   4.113   30.5  0.0549    9.8  0.2464 -163.9
 7.400  0.6668  141.8   4.053   29.4  0.0554    9.8  0.2439 -165.7
 7.500  0.6685  140.7   3.990   28.4  0.0559   10.1  0.2419 -167.6
 7.600  0.6710  139.4   3.928   27.3  0.0563   10.0  0.2400 -169.6
 7.700  0.6738  138.4   3.865   26.4  0.0568   10.0  0.2378 -172.0
 7.800  0.6778  137.0   3.810   25.2  0.0572    9.9  0.2375 -174.6
 7.900  0.6811  136.1   3.749   24.2  0.0577    9.9  0.2365 -177.2
 8.000  0.6863  134.8   3.692   23.1  0.0580    9.4  0.2368 -180.0
 8.500  0.7119  130.0   3.413   17.7  0.0596    8.2  0.2473  165.1
 9.000  0.7367  126.1   3.151   12.6  0.0603    6.8  0.2763  150.8
 9.500  0.7566  123.5   2.907    7.7  0.0606    5.7  0.3212  139.7
10.000  0.7738  120.4   2.680    3.0  0.0607    4.9  0.3750  131.9
!
!  f       NFmin   Gammaopt  rn/50
! GHz       dB    MAG  ANG    -
 0.450      0.48  0.16    5   0.24
 0.900      0.53  0.17   13   0.13
 1.500      0.60  0.18   23   0.06
 1.900      0.64  0.17   33   0.05
 2.400      0.69  0.17   47   0.05
 3.500      0.80  0.14   69   0.13
 5.500      0.99  0.09  140   0.21
10.000      1.39  0.38 -115   0.11
!
! (c) 2012  Infineon Technologies AG, Munich
