! Infineon Technologies  Discrete & RF Semiconductors
! BFP720
! VCE =  1.7 V,  IC =  9.0 mA
! Common Emitter S-Parameters:                            Aug 2012
# GHz  S  MA  R  50
!  f         S11            S21            S12            S22
! GHz     MAG   ANG      MAG   ANG      MAG   ANG      MAG   ANG
 0.010  0.8835    0.2  22.970 -179.8  0.0007  -26.3  0.9765    1.3
 0.020  0.8899   -1.2  22.995  178.5  0.0008   81.6  0.9956   -0.6
 0.030  0.8883   -1.8  23.083  178.0  0.0012   90.5  0.9956   -1.1
 0.040  0.8868   -2.4  23.172  177.5  0.0017   95.0  0.9956   -1.5
 0.050  0.8853   -3.0  23.263  177.0  0.0021   97.5  0.9957   -1.9
 0.060  0.8853   -3.7  23.234  176.5  0.0024   94.7  0.9957   -2.4
 0.070  0.8853   -4.3  23.207  176.0  0.0028   92.5  0.9957   -2.8
 0.080  0.8855   -5.0  23.181  175.5  0.0032   90.9  0.9958   -3.3
 0.090  0.8858   -5.6  23.157  175.0  0.0036   89.6  0.9959   -3.8
 0.100  0.8862   -6.3  23.135  174.5  0.0039   88.6  0.9961   -4.2
 0.110  0.8853   -6.9  23.111  174.0  0.0043   87.4  0.9955   -4.6
 0.120  0.8845   -7.5  23.088  173.5  0.0047   86.4  0.9949   -5.0
 0.130  0.8838   -8.1  23.068  172.9  0.0051   85.5  0.9944   -5.5
 0.140  0.8832   -8.8  23.049  172.4  0.0054   84.8  0.9939   -5.9
 0.150  0.8827   -9.4  23.033  171.8  0.0058   84.1  0.9934   -6.3
 0.200  0.8788  -12.4  22.793  169.3  0.0076   82.7  0.9893   -8.4
 0.250  0.8731  -15.5  22.639  166.8  0.0096   81.7  0.9841  -10.5
 0.300  0.8679  -18.6  22.386  164.5  0.0114   79.6  0.9773  -12.5
 0.350  0.8623  -21.6  22.165  162.2  0.0132   78.0  0.9712  -14.6
 0.400  0.8563  -24.7  21.980  160.0  0.0150   76.1  0.9628  -16.6
 0.450  0.8492  -27.6  21.738  157.7  0.0168   74.3  0.9556  -18.5
 0.500  0.8422  -30.6  21.509  155.6  0.0186   72.4  0.9468  -20.5
 0.600  0.8276  -36.6  21.109  151.4  0.0220   69.4  0.9269  -24.3
 0.700  0.8119  -42.6  20.661  147.4  0.0252   66.0  0.9071  -28.2
 0.800  0.7937  -48.9  20.339  143.3  0.0283   62.9  0.8856  -32.0
 0.900  0.7779  -54.8  19.845  139.5  0.0312   59.9  0.8611  -35.6
 1.000  0.7603  -60.7  19.364  135.6  0.0338   56.8  0.8357  -39.2
 1.100  0.7430  -66.5  18.882  131.8  0.0363   53.8  0.8094  -42.7
 1.200  0.7251  -72.3  18.395  128.1  0.0385   51.1  0.7832  -46.1
 1.300  0.7079  -78.0  17.898  124.5  0.0406   48.5  0.7561  -49.4
 1.400  0.6915  -83.5  17.382  121.0  0.0424   45.9  0.7291  -52.4
 1.500  0.6754  -89.0  16.894  117.6  0.0441   43.5  0.7023  -55.4
 1.600  0.6591  -94.5  16.447  114.1  0.0456   41.2  0.6765  -58.3
 1.700  0.6452  -99.5  15.919  111.0  0.0468   39.1  0.6506  -61.0
 1.800  0.6330 -104.2  15.415  107.9  0.0480   37.0  0.6270  -63.6
 1.900  0.6214 -108.8  14.922  105.0  0.0490   35.1  0.6050  -66.1
 2.000  0.6121 -113.1  14.447  102.3  0.0500   33.4  0.5834  -68.5
 2.100  0.6019 -117.1  13.984   99.7  0.0507   31.8  0.5633  -70.6
 2.200  0.5947 -121.2  13.550   97.0  0.0515   30.2  0.5440  -72.9
 2.300  0.5873 -124.8  13.126   94.6  0.0521   28.7  0.5267  -75.0
 2.400  0.5822 -128.5  12.725   92.0  0.0528   27.2  0.5102  -77.2
 2.500  0.5755 -131.9  12.352   89.8  0.0533   26.0  0.4948  -79.1
 2.600  0.5709 -135.4  11.998   87.4  0.0538   24.7  0.4800  -81.1
 2.700  0.5662 -138.6  11.657   85.3  0.0543   23.5  0.4663  -83.0
 2.800  0.5633 -142.0  11.333   83.0  0.0547   22.4  0.4533  -85.0
 2.900  0.5585 -145.0  11.025   81.0  0.0551   21.4  0.4408  -86.8
 3.000  0.5553 -148.1  10.732   78.8  0.0554   20.4  0.4287  -88.7
 3.100  0.5493 -151.2  10.452   77.0  0.0557   19.5  0.4166  -90.4
 3.200  0.5449 -154.3  10.184   75.1  0.0559   18.5  0.4048  -92.3
 3.300  0.5421 -157.4   9.927   73.1  0.0562   17.6  0.3934  -94.2
 3.400  0.5410 -160.6   9.683   71.0  0.0565   16.7  0.3826  -96.2
 3.500  0.5416 -163.8   9.453   68.7  0.0568   15.8  0.3722  -98.4
 3.600  0.5376 -166.9   9.223   67.0  0.0570   15.1  0.3611 -100.3
 3.700  0.5353 -170.0   9.002   65.2  0.0571   14.4  0.3505 -102.4
 3.800  0.5345 -173.2   8.790   63.3  0.0573   13.6  0.3403 -104.7
 3.900  0.5354 -176.3   8.588   61.3  0.0575   12.9  0.3307 -107.0
 4.000  0.5379 -179.4   8.397   59.2  0.0577   12.2  0.3217 -109.6
 4.100  0.5370  177.7   8.199   57.6  0.0578   11.5  0.3117 -112.1
 4.200  0.5375  174.8   8.009   55.9  0.0579   10.9  0.3023 -114.8
 4.300  0.5393  172.0   7.826   54.1  0.0580   10.2  0.2936 -117.6
 4.400  0.5424  169.2   7.652   52.2  0.0581    9.5  0.2857 -120.7
 4.500  0.5468  166.4   7.486   50.2  0.0582    8.9  0.2786 -123.9
 4.600  0.5485  164.0   7.311   48.6  0.0582    8.4  0.2715 -126.8
 4.700  0.5513  161.6   7.142   47.0  0.0582    7.8  0.2652 -130.0
 4.800  0.5549  159.2   6.979   45.3  0.0582    7.3  0.2598 -133.2
 4.900  0.5595  156.9   6.822   43.5  0.0582    6.8  0.2552 -136.6
 5.000  0.5650  154.7   6.673   41.7  0.0582    6.2  0.2515 -140.1
 5.100  0.5678  152.8   6.526   40.3  0.0582    5.8  0.2490 -142.8
 5.200  0.5711  151.0   6.382   38.8  0.0581    5.5  0.2471 -145.6
 5.300  0.5749  149.2   6.244   37.3  0.0581    5.1  0.2457 -148.4
 5.400  0.5793  147.5   6.110   35.7  0.0581    4.7  0.2449 -151.2
 5.500  0.5843  145.8   5.981   34.0  0.0580    4.3  0.2447 -154.0
 5.600  0.5865  144.4   5.860   32.7  0.0580    4.1  0.2455 -155.7
 5.700  0.5891  143.0   5.744   31.3  0.0579    3.9  0.2466 -157.5
 5.800  0.5921  141.7   5.630   29.9  0.0579    3.6  0.2478 -159.2
 5.900  0.5953  140.4   5.520   28.4  0.0579    3.4  0.2493 -160.9
 6.000  0.5988  139.1   5.414   26.9  0.0578    3.2  0.2510 -162.6
 6.100  0.5989  137.9   5.315   25.6  0.0579    3.1  0.2517 -163.4
 6.200  0.5991  136.8   5.218   24.3  0.0580    3.1  0.2523 -164.1
 6.300  0.5996  135.6   5.124   23.0  0.0580    3.0  0.2530 -164.8
 6.400  0.6003  134.5   5.034   21.6  0.0581    3.0  0.2538 -165.6
 6.500  0.6013  133.4   4.946   20.2  0.0582    2.9  0.2546 -166.3
 6.600  0.5998  132.3   4.866   18.9  0.0585    3.0  0.2528 -166.6
 6.700  0.5985  131.2   4.788   17.7  0.0588    3.0  0.2509 -166.8
 6.800  0.5974  130.2   4.712   16.4  0.0591    3.1  0.2491 -167.1
 6.900  0.5965  129.1   4.639   15.1  0.0594    3.1  0.2473 -167.4
 7.000  0.5958  128.0   4.568   13.7  0.0597    3.2  0.2455 -167.7
 7.100  0.5956  126.8   4.507   12.4  0.0603    3.0  0.2430 -170.8
 7.200  0.5957  125.5   4.448   11.1  0.0609    2.8  0.2412 -173.9
 7.300  0.5960  124.3   4.392    9.8  0.0615    2.7  0.2401 -177.1
 7.400  0.5966  123.1   4.338    8.4  0.0621    2.5  0.2398  179.7
 7.500  0.5975  121.8   4.287    7.0  0.0627    2.4  0.2402  176.4
 7.600  0.5996  120.2   4.231    5.5  0.0633    1.9  0.2389  174.1
 7.700  0.6021  118.6   4.178    4.0  0.0639    1.5  0.2380  171.7
 7.800  0.6051  117.0   4.128    2.5  0.0644    1.0  0.2375  169.3
 7.900  0.6086  115.4   4.081    1.0  0.0650    0.6  0.2374  166.9
 8.000  0.6125  113.8   4.037   -0.6  0.0656    0.2  0.2377  164.5
 8.500  0.6378  104.7   3.736   -8.7  0.0675   -2.1  0.2484  148.5
 9.000  0.6718   96.4   3.430  -16.2  0.0696   -4.3  0.2855  133.7
 9.500  0.7153   89.6   3.136  -23.4  0.0713   -7.2  0.3411  122.4
10.000  0.7567   83.6   2.838  -30.3  0.0715  -10.0  0.4026  113.5
10.500  0.7789   79.5   2.553  -35.3  0.0719  -11.4  0.4533  107.4
11.000  0.7929   78.0   2.374  -39.1  0.0739  -12.5  0.4923  104.1
11.500  0.8236   77.6   2.262  -44.3  0.0767  -14.9  0.5345  102.4
12.000  0.8511   75.9   2.124  -50.9  0.0777  -18.2  0.5753  100.1
!
!  f       NFmin   Gammaopt  rn/50
! GHz       dB    MAG  ANG    -
 0.450      0.50  0.31    1   0.20
 1.800      0.56  0.29   20   0.12
 2.400      0.62  0.24   42   0.27
 5.500      0.76  0.12   33   0.15
10.000      0.95  0.40  -81   0.22
!
! (c) 2012  Infineon Technologies AG, Munich
