! Infineon Technologies  Discrete & RF Semiconductors
! BFP760
! VCE =  2.0 V,  IC =  30 mA
! Common Emitter S-Parameters:                            Nov 2012
# GHz  S  MA  R  50
!  f         S11            S21            S12            S22
! GHz     MAG   ANG      MAG   ANG      MAG   ANG      MAG   ANG
 0.030  0.7025   -8.8  64.176  174.8  0.0022   75.8  0.9823   -5.1
 0.040  0.7006  -11.4  64.043  173.1  0.0033   85.2  0.9814   -7.0
 0.050  0.6951  -14.2  64.335  170.5  0.0034   85.1  0.9782   -8.9
 0.060  0.6972  -17.0  63.823  168.9  0.0049   90.4  0.9765  -10.7
 0.070  0.6933  -20.0  63.545  167.0  0.0060   80.9  0.9725  -12.8
 0.080  0.6896  -22.5  62.945  165.4  0.0059   78.9  0.9647  -14.5
 0.090  0.6861  -25.2  62.431  163.6  0.0069   73.9  0.9584  -16.4
 0.100  0.6843  -27.9  61.800  161.9  0.0075   78.2  0.9529  -18.3
 0.110  0.6809  -30.6  61.154  160.3  0.0083   78.0  0.9444  -20.1
 0.120  0.6776  -33.2  60.523  158.7  0.0087   77.4  0.9360  -21.8
 0.130  0.6740  -35.6  59.808  157.1  0.0096   75.8  0.9272  -23.4
 0.140  0.6707  -38.1  59.146  155.7  0.0102   72.3  0.9177  -25.1
 0.150  0.6661  -40.7  58.493  154.1  0.0105   73.2  0.9079  -26.7
 0.200  0.6504  -52.3  54.775  147.4  0.0136   68.8  0.8586  -34.2
 0.250  0.6353  -62.5  51.153  141.5  0.0162   64.2  0.8082  -40.9
 0.300  0.6222  -72.0  47.616  136.4  0.0185   60.3  0.7624  -46.8
 0.350  0.6135  -80.4  44.315  132.0  0.0205   57.2  0.7183  -52.2
 0.400  0.6069  -88.1  41.473  128.1  0.0222   54.6  0.6784  -57.2
 0.450  0.6044  -94.7  38.796  124.7  0.0238   52.1  0.6439  -61.8
 0.500  0.6003 -101.1  36.447  121.5  0.0252   50.1  0.6106  -66.2
 0.600  0.6003 -111.9  32.401  116.1  0.0277   46.5  0.5556  -74.0
 0.700  0.6012 -121.0  29.082  111.5  0.0296   43.6  0.5099  -81.3
 0.800  0.6053 -128.8  26.318  107.6  0.0312   41.4  0.4721  -88.0
 0.900  0.6083 -135.5  24.007  104.0  0.0327   39.4  0.4400  -94.3
 1.000  0.6125 -141.4  22.036  100.8  0.0339   37.9  0.4142 -100.0
 1.100  0.6159 -146.6  20.341   97.9  0.0349   36.6  0.3921 -105.6
 1.200  0.6205 -151.2  18.882   95.3  0.0359   35.6  0.3747 -110.6
 1.300  0.6238 -155.5  17.605   92.8  0.0368   34.8  0.3593 -115.6
 1.400  0.6282 -159.2  16.480   90.5  0.0376   34.0  0.3477 -120.0
 1.500  0.6318 -162.8  15.489   88.3  0.0384   33.4  0.3367 -124.5
 1.600  0.6363 -166.0  14.620   86.2  0.0392   32.9  0.3293 -128.5
 1.700  0.6401 -169.0  13.822   84.2  0.0399   32.6  0.3213 -132.5
 1.800  0.6445 -171.9  13.109   82.2  0.0407   32.2  0.3170 -136.4
 1.900  0.6479 -174.5  12.456   80.3  0.0414   31.9  0.3118 -140.2
 2.000  0.6521 -177.1  11.872   78.4  0.0420   31.4  0.3092 -143.8
 2.100  0.6550 -179.4  11.291   76.6  0.0426   31.4  0.3069 -147.0
 2.200  0.6577  178.3  10.782   74.9  0.0431   30.9  0.3050 -150.2
 2.300  0.6605  176.2  10.321   73.2  0.0440   31.0  0.3025 -153.3
 2.400  0.6638  174.1   9.896   71.5  0.0444   30.7  0.3019 -156.4
 2.500  0.6669  172.0   9.500   69.9  0.0452   30.5  0.3009 -159.3
 2.600  0.6694  170.0   9.123   68.3  0.0457   30.4  0.3005 -162.2
 2.700  0.6720  168.1   8.775   66.7  0.0464   30.2  0.3007 -165.1
 2.800  0.6750  166.3   8.448   65.2  0.0471   30.1  0.3016 -167.8
 2.900  0.6785  164.5   8.141   63.6  0.0478   29.7  0.3032 -170.5
 3.000  0.6815  162.7   7.856   62.0  0.0483   29.7  0.3058 -173.1
 3.100  0.6850  161.0   7.583   60.6  0.0489   29.6  0.3087 -175.5
 3.200  0.6884  159.3   7.327   59.1  0.0495   29.3  0.3113 -177.7
 3.300  0.6916  157.7   7.080   57.7  0.0501   29.2  0.3146  179.9
 3.400  0.6950  156.1   6.848   56.2  0.0508   29.0  0.3184  177.9
 3.500  0.6986  154.6   6.630   54.9  0.0513   28.8  0.3221  175.8
 3.600  0.7021  153.0   6.419   53.5  0.0520   28.5  0.3264  173.8
 3.700  0.7057  151.5   6.221   52.1  0.0525   28.3  0.3308  171.9
 3.800  0.7087  150.0   6.024   50.8  0.0531   28.3  0.3356  170.1
 3.900  0.7120  148.7   5.844   49.5  0.0537   28.0  0.3401  168.4
 4.000  0.7152  147.3   5.669   48.2  0.0542   27.9  0.3451  166.8
 4.100  0.7189  146.0   5.509   46.9  0.0547   27.6  0.3501  165.4
 4.200  0.7219  144.9   5.349   45.7  0.0552   27.5  0.3545  163.9
 4.300  0.7249  143.7   5.197   44.5  0.0558   27.3  0.3593  162.6
 4.400  0.7281  142.6   5.054   43.3  0.0564   27.3  0.3637  161.4
 4.500  0.7309  141.5   4.920   42.1  0.0570   27.0  0.3682  160.2
 4.600  0.7342  140.5   4.790   40.9  0.0576   26.9  0.3719  159.1
 4.700  0.7367  139.6   4.667   39.8  0.0580   26.7  0.3763  158.0
 4.800  0.7395  138.6   4.547   38.7  0.0586   26.6  0.3799  156.9
 4.900  0.7420  137.8   4.435   37.6  0.0591   26.4  0.3837  155.8
 5.000  0.7446  136.9   4.328   36.5  0.0597   26.2  0.3871  154.8
 5.100  0.7468  136.1   4.226   35.4  0.0603   26.0  0.3908  153.8
 5.200  0.7490  135.3   4.130   34.3  0.0609   25.9  0.3937  152.8
 5.300  0.7509  134.5   4.034   33.2  0.0614   25.7  0.3969  151.8
 5.400  0.7526  133.7   3.943   32.1  0.0621   25.5  0.4003  150.8
 5.500  0.7536  133.0   3.854   31.1  0.0626   25.4  0.4025  149.9
 5.600  0.7544  132.4   3.769   30.1  0.0633   25.3  0.4048  148.9
 5.700  0.7559  131.6   3.694   29.0  0.0639   25.1  0.4085  147.9
 5.800  0.7570  130.9   3.616   27.9  0.0646   24.8  0.4106  146.9
 5.900  0.7585  130.3   3.543   26.9  0.0653   24.7  0.4138  145.9
 6.000  0.7602  129.5   3.474   25.8  0.0659   24.5  0.4171  144.9
 6.100  0.7621  129.0   3.408   24.8  0.0668   24.2  0.4208  144.1
 6.200  0.7632  128.1   3.342   23.7  0.0675   23.9  0.4233  143.2
 6.300  0.7658  127.5   3.280   22.7  0.0683   23.6  0.4271  142.3
 6.400  0.7674  126.6   3.219   21.5  0.0689   23.2  0.4306  141.3
 6.500  0.7695  125.8   3.159   20.4  0.0697   22.8  0.4343  140.5
 6.600  0.7721  124.9   3.105   19.3  0.0704   22.4  0.4375  139.6
 6.700  0.7739  124.2   3.047   18.4  0.0710   22.1  0.4413  138.7
 6.800  0.7749  123.3   2.992   17.2  0.0716   21.6  0.4445  137.8
 6.900  0.7777  122.3   2.939   16.1  0.0724   21.3  0.4488  136.9
 7.000  0.7797  121.4   2.892   15.0  0.0730   20.8  0.4523  136.1
 7.100  0.7821  120.5   2.842   13.9  0.0737   20.2  0.4575  135.3
 7.200  0.7847  119.5   2.795   12.7  0.0745   19.7  0.4614  134.5
 7.300  0.7866  118.6   2.746   11.6  0.0750   19.3  0.4656  133.6
 7.400  0.7892  117.5   2.700   10.4  0.0756   18.6  0.4699  132.7
 7.500  0.7929  116.6   2.655    9.2  0.0762   18.1  0.4747  131.8
 7.600  0.7957  115.6   2.609    8.0  0.0768   17.4  0.4795  130.8
 7.700  0.7985  114.6   2.565    6.8  0.0774   16.9  0.4843  129.9
 7.800  0.8023  113.6   2.517    5.6  0.0777   16.3  0.4900  128.8
 7.900  0.8058  112.6   2.474    4.3  0.0782   15.6  0.4953  127.8
 8.000  0.8100  111.6   2.425    3.1  0.0785   14.9  0.5015  126.7
 8.500  0.8302  106.6   2.188   -3.0  0.0793   11.6  0.5324  121.0
 9.000  0.8481  102.3   1.949   -8.4  0.0786    8.9  0.5696  115.9
 9.500  0.8647   99.0   1.732  -12.4  0.0774    7.5  0.6049  112.1
10.000  0.8780   97.1   1.556  -15.1  0.0771    7.1  0.6364  110.5
!
!  f       NFmin   Gammaopt  rn/50
! GHz       dB    MAG  ANG    -
 0.900      0.75  0.17 -168   0.10
 1.800      0.80  0.19 -157   0.06
 2.400      0.85  0.19 -148   0.08
 3.500      0.96  0.20 -140   0.10
 5.500      1.18  0.27  -99   0.30
 8.000      1.48  0.39  -73   0.42
!
! (c) 2012  Infineon Technologies AG, Munich
