! Infineon Technologies  Discrete & RF Semiconductors
! BFP720F
! VCE =  1.5 V,  IC =  4.0 mA
! Common Emitter S-Parameters:                            Jan 2016
# GHz  S  MA  R  50
!  f         S11            S21            S12            S22
! GHz     MAG   ANG      MAG   ANG      MAG   ANG      MAG   ANG
 0.010  0.9504    0.1  11.985  179.6  0.0005   11.3  0.9908   -0.1
 0.015  0.9512   -0.3  11.873  178.8  0.0005   66.4  0.9954   -0.7
 0.020  0.9520   -0.7  11.763  177.9  0.0008   97.2  1.0000   -1.2
 0.025  0.9517   -0.9  11.787  177.9  0.0010   95.1  0.9995   -1.2
 0.030  0.9514   -1.1  11.811  178.0  0.0012   93.6  0.9991   -1.3
 0.035  0.9511   -1.3  11.835  178.0  0.0014   92.6  0.9986   -1.3
 0.040  0.9508   -1.6  11.859  178.0  0.0016   91.9  0.9981   -1.3
 0.045  0.9505   -1.8  11.883  178.1  0.0018   91.3  0.9977   -1.4
 0.050  0.9503   -2.0  11.907  178.1  0.0020   90.8  0.9972   -1.4
 0.055  0.9502   -2.2  11.907  177.9  0.0022   90.3  0.9972   -1.5
 0.060  0.9501   -2.4  11.907  177.8  0.0024   89.9  0.9972   -1.7
 0.065  0.9501   -2.5  11.907  177.6  0.0026   89.6  0.9973   -1.8
 0.070  0.9500   -2.7  11.907  177.5  0.0028   89.3  0.9973   -1.9
 0.075  0.9500   -2.9  11.907  177.3  0.0030   89.1  0.9973   -2.1
 0.080  0.9499   -3.1  11.908  177.2  0.0033   88.8  0.9974   -2.2
 0.085  0.9499   -3.3  11.908  177.0  0.0035   88.6  0.9974   -2.3
 0.090  0.9499   -3.4  11.909  176.9  0.0037   88.5  0.9975   -2.4
 0.095  0.9499   -3.6  11.909  176.7  0.0039   88.3  0.9975   -2.6
 0.100  0.9499   -3.8  11.910  176.6  0.0041   88.2  0.9976   -2.7
 0.105  0.9497   -4.0  11.909  176.4  0.0043   88.0  0.9975   -2.8
 0.110  0.9495   -4.2  11.907  176.3  0.0045   87.8  0.9975   -3.0
 0.115  0.9493   -4.4  11.906  176.1  0.0047   87.7  0.9974   -3.1
 0.120  0.9491   -4.6  11.905  176.0  0.0049   87.5  0.9974   -3.3
 0.125  0.9489   -4.7  11.904  175.8  0.0051   87.4  0.9973   -3.4
 0.130  0.9488   -4.9  11.903  175.6  0.0054   87.3  0.9973   -3.5
 0.135  0.9486   -5.1  11.903  175.5  0.0056   87.2  0.9973   -3.7
 0.140  0.9485   -5.3  11.902  175.3  0.0058   87.1  0.9972   -3.8
 0.145  0.9483   -5.5  11.901  175.2  0.0060   87.0  0.9972   -4.0
 0.150  0.9482   -5.7  11.901  175.0  0.0062   86.9  0.9972   -4.1
 0.155  0.9480   -5.9  11.895  174.8  0.0064   86.7  0.9969   -4.2
 0.160  0.9478   -6.1  11.889  174.7  0.0066   86.6  0.9967   -4.4
 0.165  0.9476   -6.3  11.883  174.5  0.0068   86.4  0.9964   -4.5
 0.170  0.9475   -6.5  11.877  174.4  0.0070   86.2  0.9961   -4.7
 0.175  0.9473   -6.6  11.872  174.2  0.0072   86.1  0.9959   -4.8
 0.180  0.9472   -6.8  11.866  174.0  0.0074   86.0  0.9956   -4.9
 0.185  0.9470   -7.0  11.861  173.9  0.0076   85.8  0.9954   -5.1
 0.190  0.9469   -7.2  11.855  173.7  0.0078   85.7  0.9952   -5.2
 0.195  0.9468   -7.4  11.850  173.6  0.0080   85.6  0.9949   -5.4
 0.200  0.9467   -7.6  11.845  173.4  0.0082   85.5  0.9947   -5.5
 0.220  0.9458   -8.4  11.848  172.8  0.0090   85.0  0.9945   -6.0
 0.240  0.9451   -9.1  11.852  172.2  0.0098   84.6  0.9943   -6.5
 0.260  0.9444   -9.9  11.841  171.6  0.0106   84.1  0.9933   -7.1
 0.280  0.9438  -10.6  11.817  171.1  0.0115   83.4  0.9913   -7.7
 0.300  0.9433  -11.4  11.794  170.5  0.0123   82.9  0.9895   -8.3
 0.320  0.9424  -12.2  11.783  169.9  0.0131   82.3  0.9892   -8.8
 0.340  0.9416  -12.9  11.773  169.3  0.0139   81.8  0.9889   -9.3
 0.360  0.9406  -13.7  11.768  168.7  0.0147   81.3  0.9881   -9.9
 0.380  0.9395  -14.5  11.766  168.1  0.0155   80.8  0.9869  -10.5
 0.400  0.9385  -15.3  11.766  167.5  0.0163   80.3  0.9857  -11.1
 0.420  0.9372  -16.0  11.735  166.9  0.0171   79.7  0.9848  -11.6
 0.440  0.9361  -16.7  11.706  166.3  0.0179   79.2  0.9839  -12.1
 0.450  0.9356  -17.1  11.692  166.0  0.0183   79.0  0.9835  -12.4
 0.460  0.9350  -17.5  11.689  165.7  0.0187   78.7  0.9828  -12.7
 0.480  0.9340  -18.2  11.685  165.2  0.0195   78.3  0.9815  -13.2
 0.500  0.9331  -19.0  11.681  164.7  0.0203   77.8  0.9803  -13.7
 0.520  0.9315  -19.8  11.668  164.1  0.0211   77.2  0.9786  -14.3
 0.540  0.9301  -20.6  11.656  163.5  0.0219   76.6  0.9770  -14.9
 0.560  0.9288  -21.3  11.645  162.9  0.0227   76.1  0.9754  -15.4
 0.580  0.9277  -22.1  11.636  162.3  0.0235   75.6  0.9740  -16.0
 0.600  0.9268  -22.9  11.628  161.7  0.0243   75.1  0.9727  -16.6
 0.620  0.9250  -23.7  11.608  161.1  0.0251   74.5  0.9711  -17.1
 0.640  0.9234  -24.4  11.588  160.6  0.0259   74.0  0.9696  -17.7
 0.660  0.9219  -25.2  11.570  160.0  0.0267   73.4  0.9682  -18.2
 0.680  0.9206  -25.9  11.553  159.5  0.0275   73.0  0.9668  -18.8
 0.700  0.9194  -26.7  11.537  158.9  0.0283   72.5  0.9656  -19.3
 0.720  0.9174  -27.5  11.540  158.3  0.0291   71.9  0.9635  -19.8
 0.740  0.9155  -28.3  11.545  157.7  0.0298   71.4  0.9616  -20.4
 0.760  0.9139  -29.1  11.551  157.1  0.0306   70.9  0.9597  -20.9
 0.780  0.9124  -29.9  11.558  156.5  0.0313   70.4  0.9579  -21.5
 0.800  0.9111  -30.7  11.567  155.9  0.0321   69.9  0.9562  -22.0
 0.820  0.9089  -31.5  11.545  155.3  0.0328   69.4  0.9539  -22.5
 0.840  0.9068  -32.3  11.524  154.7  0.0336   68.8  0.9516  -23.1
 0.860  0.9050  -33.0  11.505  154.1  0.0343   68.3  0.9495  -23.6
 0.880  0.9032  -33.8  11.487  153.5  0.0351   67.9  0.9474  -24.2
 0.900  0.9017  -34.6  11.470  152.9  0.0358   67.4  0.9454  -24.7
 0.920  0.8996  -35.4  11.448  152.3  0.0365   66.8  0.9429  -25.3
 0.940  0.8976  -36.1  11.427  151.8  0.0373   66.3  0.9404  -25.8
 0.960  0.8958  -36.9  11.407  151.2  0.0380   65.8  0.9381  -26.4
 0.980  0.8941  -37.6  11.389  150.7  0.0388   65.3  0.9358  -26.9
 1.000  0.8926  -38.4  11.371  150.1  0.0395   64.8  0.9336  -27.5
 1.020  0.8903  -39.2  11.341  149.5  0.0402   64.2  0.9309  -28.0
 1.040  0.8881  -39.9  11.312  148.9  0.0409   63.7  0.9284  -28.6
 1.060  0.8861  -40.7  11.284  148.4  0.0416   63.2  0.9259  -29.1
 1.080  0.8842  -41.4  11.257  147.8  0.0423   62.7  0.9234  -29.7
 1.100  0.8825  -42.2  11.232  147.2  0.0430   62.2  0.9211  -30.2
 1.120  0.8800  -43.0  11.209  146.6  0.0437   61.7  0.9182  -30.7
 1.140  0.8777  -43.7  11.187  146.0  0.0443   61.2  0.9155  -31.3
 1.160  0.8756  -44.5  11.166  145.5  0.0450   60.7  0.9128  -31.8
 1.180  0.8736  -45.3  11.147  144.9  0.0457   60.2  0.9101  -32.4
 1.200  0.8718  -46.1  11.128  144.3  0.0464   59.7  0.9076  -32.9
 1.220  0.8692  -46.9  11.100  143.7  0.0470   59.2  0.9046  -33.4
 1.240  0.8668  -47.6  11.072  143.1  0.0477   58.7  0.9016  -34.0
 1.260  0.8645  -48.4  11.046  142.6  0.0483   58.2  0.8988  -34.5
 1.280  0.8624  -49.2  11.021  142.0  0.0490   57.7  0.8960  -35.1
 1.300  0.8605  -50.0  10.997  141.4  0.0496   57.2  0.8933  -35.6
 1.320  0.8580  -50.8  10.966  140.8  0.0502   56.7  0.8902  -36.1
 1.340  0.8556  -51.5  10.936  140.3  0.0508   56.2  0.8871  -36.6
 1.360  0.8534  -52.3  10.907  139.7  0.0514   55.7  0.8841  -37.1
 1.380  0.8514  -53.0  10.880  139.2  0.0521   55.3  0.8812  -37.7
 1.400  0.8495  -53.8  10.853  138.6  0.0527   54.8  0.8784  -38.2
 1.420  0.8469  -54.6  10.825  138.1  0.0533   54.3  0.8750  -38.7
 1.440  0.8444  -55.3  10.799  137.5  0.0538   53.8  0.8717  -39.3
 1.460  0.8421  -56.1  10.773  137.0  0.0544   53.3  0.8684  -39.8
 1.480  0.8400  -56.9  10.748  136.4  0.0550   52.8  0.8653  -40.4
 1.500  0.8380  -57.7  10.724  135.9  0.0556   52.3  0.8622  -40.9
 1.520  0.8353  -58.5  10.710  135.3  0.0561   51.8  0.8590  -41.4
 1.540  0.8327  -59.3  10.696  134.7  0.0567   51.4  0.8559  -41.9
 1.560  0.8303  -60.1  10.684  134.1  0.0572   50.9  0.8528  -42.4
 1.580  0.8280  -60.9  10.674  133.5  0.0578   50.4  0.8498  -42.9
 1.600  0.8259  -61.7  10.664  132.9  0.0583   50.0  0.8469  -43.4
 1.620  0.8230  -62.5  10.627  132.3  0.0588   49.5  0.8434  -43.9
 1.640  0.8203  -63.2  10.591  131.8  0.0593   49.0  0.8399  -44.4
 1.660  0.8177  -64.0  10.555  131.2  0.0598   48.5  0.8366  -44.9
 1.680  0.8152  -64.7  10.521  130.7  0.0604   48.0  0.8332  -45.5
 1.700  0.8129  -65.5  10.488  130.1  0.0609   47.5  0.8300  -46.0
 1.720  0.8105  -66.2  10.449  129.6  0.0614   47.0  0.8269  -46.5
 1.740  0.8083  -66.9  10.410  129.0  0.0618   46.6  0.8239  -47.0
 1.760  0.8062  -67.6  10.372  128.5  0.0623   46.1  0.8209  -47.5
 1.780  0.8042  -68.3  10.336  127.9  0.0628   45.6  0.8180  -48.0
 1.800  0.8023  -69.0  10.300  127.4  0.0633   45.2  0.8152  -48.5
 1.820  0.7995  -69.7  10.261  126.9  0.0637   44.7  0.8118  -49.0
 1.840  0.7968  -70.4  10.223  126.3  0.0641   44.3  0.8084  -49.4
 1.860  0.7942  -71.1  10.186  125.8  0.0645   43.8  0.8051  -49.9
 1.880  0.7917  -71.9  10.150  125.2  0.0650   43.3  0.8018  -50.4
 1.900  0.7894  -72.6  10.115  124.7  0.0654   42.9  0.7986  -50.9
 1.920  0.7871  -73.3  10.078  124.2  0.0658   42.5  0.7954  -51.3
 1.940  0.7849  -73.9  10.042  123.7  0.0662   42.0  0.7922  -51.8
 1.960  0.7828  -74.6  10.006  123.2  0.0666   41.6  0.7890  -52.2
 1.980  0.7809  -75.3   9.972  122.6  0.0671   41.2  0.7859  -52.7
 2.000  0.7790  -76.0   9.938  122.1  0.0675   40.8  0.7829  -53.1
 2.020  0.7766  -76.6   9.895  121.6  0.0678   40.4  0.7797  -53.5
 2.040  0.7743  -77.3   9.853  121.1  0.0682   39.9  0.7765  -54.0
 2.060  0.7721  -77.9   9.812  120.6  0.0685   39.5  0.7733  -54.4
 2.080  0.7700  -78.6   9.771  120.1  0.0689   39.0  0.7702  -54.9
 2.100  0.7680  -79.3   9.731  119.7  0.0692   38.6  0.7672  -55.4
 2.120  0.7661  -79.9   9.692  119.1  0.0696   38.2  0.7642  -55.8
 2.140  0.7643  -80.6   9.654  118.6  0.0699   37.7  0.7612  -56.3
 2.160  0.7626  -81.3   9.616  118.1  0.0703   37.3  0.7583  -56.8
 2.180  0.7610  -81.9   9.579  117.6  0.0706   36.9  0.7555  -57.2
 2.200  0.7595  -82.6   9.543  117.1  0.0710   36.5  0.7527  -57.7
 2.220  0.7572  -83.2   9.499  116.6  0.0713   36.1  0.7498  -58.1
 2.240  0.7551  -83.8   9.455  116.2  0.0716   35.7  0.7468  -58.5
 2.260  0.7530  -84.4   9.411  115.7  0.0719   35.3  0.7440  -58.9
 2.280  0.7510  -85.0   9.369  115.3  0.0722   34.9  0.7411  -59.3
 2.300  0.7490  -85.6   9.327  114.8  0.0725   34.5  0.7383  -59.7
 2.320  0.7472  -86.2   9.285  114.3  0.0728   34.1  0.7356  -60.1
 2.340  0.7454  -86.8   9.244  113.9  0.0731   33.7  0.7328  -60.5
 2.360  0.7437  -87.4   9.204  113.4  0.0734   33.4  0.7302  -61.0
 2.380  0.7421  -88.0   9.165  112.9  0.0737   33.0  0.7275  -61.4
 2.400  0.7406  -88.6   9.126  112.4  0.0740   32.6  0.7249  -61.8
 2.420  0.7386  -89.2   9.086  112.0  0.0742   32.2  0.7221  -62.2
 2.440  0.7367  -89.7   9.046  111.5  0.0744   31.9  0.7193  -62.5
 2.460  0.7349  -90.3   9.007  111.1  0.0747   31.5  0.7166  -62.9
 2.480  0.7332  -90.9   8.969  110.6  0.0749   31.1  0.7139  -63.2
 2.500  0.7315  -91.5   8.931  110.2  0.0751   30.8  0.7112  -63.6
 2.520  0.7299  -92.0   8.894  109.7  0.0753   30.4  0.7086  -64.0
 2.540  0.7284  -92.6   8.857  109.3  0.0756   30.1  0.7060  -64.4
 2.560  0.7270  -93.2   8.821  108.8  0.0758   29.7  0.7034  -64.7
 2.580  0.7256  -93.8   8.785  108.4  0.0761   29.4  0.7008  -65.1
 2.600  0.7243  -94.4   8.750  107.9  0.0763   29.0  0.6983  -65.5
 2.620  0.7226  -94.9   8.711  107.5  0.0765   28.7  0.6957  -65.8
 2.640  0.7209  -95.4   8.672  107.1  0.0766   28.3  0.6930  -66.1
 2.660  0.7193  -95.9   8.634  106.7  0.0768   28.0  0.6904  -66.5
 2.680  0.7178  -96.5   8.596  106.3  0.0770   27.7  0.6879  -66.8
 2.700  0.7163  -97.0   8.559  105.8  0.0772   27.4  0.6853  -67.1
 2.720  0.7148  -97.5   8.522  105.4  0.0774   27.1  0.6828  -67.5
 2.740  0.7135  -98.0   8.485  105.0  0.0775   26.7  0.6803  -67.8
 2.760  0.7121  -98.5   8.449  104.6  0.0777   26.4  0.6778  -68.1
 2.780  0.7109  -99.1   8.414  104.1  0.0779   26.1  0.6753  -68.5
 2.800  0.7097  -99.6   8.379  103.7  0.0781   25.8  0.6729  -68.8
 2.820  0.7083 -100.1   8.344  103.3  0.0783   25.5  0.6708  -69.1
 2.840  0.7069 -100.6   8.309  102.9  0.0784   25.2  0.6687  -69.4
 2.860  0.7056 -101.1   8.275  102.5  0.0786   24.9  0.6667  -69.7
 2.880  0.7044 -101.7   8.241  102.1  0.0788   24.6  0.6646  -70.0
 2.900  0.7032 -102.2   8.208  101.7  0.0789   24.3  0.6626  -70.3
 2.920  0.7020 -102.7   8.175  101.3  0.0791   24.0  0.6606  -70.6
 2.940  0.7010 -103.2   8.142  100.9  0.0793   23.7  0.6586  -71.0
 2.960  0.7000 -103.7   8.110  100.4  0.0794   23.4  0.6567  -71.3
 2.980  0.6990 -104.3   8.078  100.0  0.0796   23.1  0.6547  -71.6
 3.000  0.6981 -104.8   8.047   99.6  0.0798   22.8  0.6528  -71.9
 3.100  0.6910 -106.8   7.875   97.9  0.0803   21.4  0.6429  -73.1
 3.200  0.6848 -108.8   7.710   96.1  0.0808   20.1  0.6332  -74.3
 3.300  0.6795 -110.9   7.553   94.3  0.0813   18.7  0.6239  -75.5
 3.400  0.6750 -113.0   7.404   92.4  0.0820   17.4  0.6148  -76.8
 3.500  0.6715 -115.1   7.264   90.4  0.0826   16.1  0.6061  -78.1
 3.600  0.6664 -116.8   7.121   88.9  0.0829   14.9  0.5980  -79.0
 3.700  0.6619 -118.5   6.983   87.3  0.0832   13.8  0.5901  -79.9
 3.800  0.6580 -120.2   6.850   85.7  0.0835   12.7  0.5824  -80.8
 3.900  0.6547 -121.9   6.724   84.0  0.0839   11.5  0.5748  -81.7
 4.000  0.6520 -123.7   6.603   82.2  0.0843   10.4  0.5673  -82.7
 4.100  0.6490 -125.1   6.487   80.8  0.0845    9.4  0.5609  -83.4
 4.200  0.6464 -126.5   6.374   79.4  0.0847    8.5  0.5545  -84.2
 4.300  0.6442 -128.0   6.266   77.9  0.0849    7.5  0.5483  -85.0
 4.400  0.6425 -129.4   6.162   76.3  0.0852    6.5  0.5421  -85.8
 4.500  0.6411 -130.9   6.063   74.7  0.0855    5.6  0.5361  -86.6
 4.600  0.6381 -132.2   5.968   73.4  0.0856    4.7  0.5301  -87.4
 4.700  0.6354 -133.5   5.877   72.0  0.0858    3.7  0.5241  -88.1
 4.800  0.6330 -134.8   5.789   70.6  0.0859    2.8  0.5183  -88.9
 4.900  0.6310 -136.2   5.705   69.1  0.0861    1.9  0.5125  -89.8
 5.000  0.6293 -137.5   5.625   67.6  0.0863    1.0  0.5069  -90.6
 5.100  0.6254 -138.7   5.543   66.3  0.0864    0.1  0.5012  -91.4
 5.200  0.6218 -140.0   5.465   64.9  0.0864   -0.7  0.4955  -92.1
 5.300  0.6184 -141.2   5.390   63.5  0.0865   -1.6  0.4900  -92.9
 5.400  0.6154 -142.5   5.318   62.0  0.0867   -2.4  0.4845  -93.8
 5.500  0.6127 -143.8   5.250   60.5  0.0868   -3.3  0.4792  -94.6
 5.600  0.6097 -145.1   5.182   59.2  0.0868   -4.1  0.4748  -95.5
 5.700  0.6070 -146.4   5.116   57.8  0.0869   -4.9  0.4705  -96.4
 5.800  0.6047 -147.7   5.054   56.4  0.0869   -5.7  0.4664  -97.4
 5.900  0.6026 -149.0   4.994   55.0  0.0870   -6.5  0.4624  -98.3
 6.000  0.6009 -150.3   4.938   53.5  0.0871   -7.3  0.4585  -99.3
 6.100  0.5964 -152.1   4.878   52.1  0.0870   -8.1  0.4530 -100.5
 6.200  0.5926 -153.8   4.822   50.7  0.0869   -9.0  0.4476 -101.7
 6.300  0.5892 -155.6   4.768   49.3  0.0869   -9.8  0.4425 -102.9
 6.400  0.5865 -157.5   4.717   47.8  0.0868  -10.7  0.4376 -104.2
 6.500  0.5844 -159.3   4.670   46.3  0.0868  -11.5  0.4329 -105.5
 6.600  0.5687 -165.1   4.610   44.9  0.0866  -12.3  0.4259 -106.9
 6.800  0.5557 -177.2   4.499   41.9  0.0863  -14.0  0.4127 -109.9
 7.000  0.5682  170.6   4.401   38.8  0.0860  -15.7  0.4006 -113.0
 7.200  0.5617  166.1   4.285   35.9  0.0854  -17.3  0.3839 -116.8
 7.400  0.5587  161.5   4.181   32.9  0.0848  -18.9  0.3690 -120.8
 7.600  0.5583  156.7   4.079   29.8  0.0841  -20.5  0.3536 -125.4
 7.800  0.5608  151.8   3.978   26.8  0.0833  -22.1  0.3383 -130.6
 8.000  0.5673  147.0   3.888   23.6  0.0826  -23.8  0.3260 -136.3
 8.200  0.5743  141.8   3.767   20.5  0.0813  -25.4  0.3111 -143.9
 8.400  0.5859  136.7   3.658   17.2  0.0800  -27.1  0.3022 -152.1
 8.600  0.5977  132.1   3.538   14.1  0.0784  -28.6  0.2953 -161.0
 8.800  0.6089  127.8   3.404   11.2  0.0765  -29.9  0.2920 -170.8
 9.000  0.6234  123.6   3.280    8.0  0.0746  -31.3  0.2973  179.5
 9.200  0.6367  120.5   3.155    5.6  0.0728  -32.1  0.3017  173.0
 9.400  0.6518  117.6   3.036    3.0  0.0711  -32.9  0.3098  166.7
 9.600  0.6674  115.1   2.923    0.5  0.0694  -33.6  0.3217  161.0
 9.800  0.6830  113.1   2.814   -1.9  0.0677  -34.2  0.3368  156.0
10.000  0.6994  111.1   2.710   -4.4  0.0660  -34.8  0.3542  151.4
!
!  f       NFmin   Gammaopt  rn/50
! GHz       dB    MAG  ANG    -
 0.450      0.41  0.54    3   0.21
 0.900      0.44  0.54   10   0.19
 1.800      0.49  0.50   21   0.17
 2.400      0.53  0.48   29   0.15
 5.500      0.73  0.40   74   0.10
10.000      1.03  0.26 -115   0.14
!
! (c) 2016  Infineon Technologies AG, Munich
