! Infineon Technologies  Discrete & RF Semiconductors
! BFP720F
! VCE =  2.0 V,  IC =  13 mA
! Common Emitter S-Parameters:                            Jan 2016
# GHz  S  MA  R  50
!  f         S11            S21            S12            S22
! GHz     MAG   ANG      MAG   ANG      MAG   ANG      MAG   ANG
 0.010  0.8303   -0.3  29.849  179.5  0.0007  -19.1  0.9699    1.3
 0.015  0.8331   -0.8  29.765  178.4  0.0004   54.7  0.9813    0.1
 0.020  0.8360   -1.3  29.691  177.3  0.0009  103.0  0.9931   -1.1
 0.025  0.8353   -1.7  29.723  177.2  0.0010  100.8  0.9932   -1.3
 0.030  0.8346   -2.1  29.754  177.1  0.0012   99.0  0.9933   -1.4
 0.035  0.8339   -2.5  29.786  176.9  0.0013   97.6  0.9934   -1.6
 0.040  0.8333   -3.0  29.818  176.8  0.0014   96.5  0.9935   -1.7
 0.045  0.8327   -3.4  29.850  176.7  0.0016   95.6  0.9936   -1.9
 0.050  0.8322   -3.8  29.882  176.6  0.0017   94.8  0.9937   -2.0
 0.055  0.8320   -4.1  29.861  176.3  0.0019   93.3  0.9936   -2.2
 0.060  0.8318   -4.5  29.840  176.0  0.0021   92.0  0.9936   -2.5
 0.065  0.8316   -4.8  29.820  175.7  0.0022   91.0  0.9936   -2.7
 0.070  0.8315   -5.2  29.801  175.4  0.0024   90.1  0.9936   -3.0
 0.075  0.8314   -5.5  29.783  175.1  0.0026   89.3  0.9936   -3.2
 0.080  0.8313   -5.9  29.766  174.8  0.0028   88.6  0.9936   -3.4
 0.085  0.8313   -6.2  29.750  174.5  0.0030   88.0  0.9937   -3.7
 0.090  0.8313   -6.6  29.734  174.2  0.0031   87.5  0.9937   -3.9
 0.095  0.8313   -6.9  29.719  173.9  0.0033   87.0  0.9938   -4.2
 0.100  0.8314   -7.3  29.705  173.6  0.0035   86.6  0.9939   -4.4
 0.105  0.8308   -7.7  29.665  173.3  0.0037   86.3  0.9935   -4.6
 0.110  0.8303   -8.1  29.626  173.0  0.0039   86.0  0.9930   -4.9
 0.115  0.8298   -8.4  29.588  172.8  0.0040   85.7  0.9926   -5.1
 0.120  0.8293   -8.8  29.550  172.5  0.0042   85.5  0.9922   -5.3
 0.125  0.8289   -9.2  29.513  172.2  0.0044   85.3  0.9919   -5.5
 0.130  0.8285   -9.6  29.477  171.9  0.0046   85.1  0.9915   -5.8
 0.135  0.8281  -10.0  29.441  171.6  0.0048   84.9  0.9911   -6.0
 0.140  0.8278  -10.3  29.407  171.4  0.0049   84.7  0.9908   -6.2
 0.145  0.8275  -10.7  29.372  171.1  0.0051   84.6  0.9905   -6.5
 0.150  0.8273  -11.1  29.339  170.8  0.0053   84.4  0.9902   -6.7
 0.155  0.8269  -11.5  29.295  170.5  0.0055   84.1  0.9894   -6.9
 0.160  0.8265  -11.8  29.252  170.3  0.0056   83.8  0.9887   -7.1
 0.165  0.8261  -12.2  29.209  170.0  0.0058   83.6  0.9879   -7.4
 0.170  0.8258  -12.5  29.167  169.8  0.0059   83.3  0.9872   -7.6
 0.175  0.8255  -12.9  29.125  169.5  0.0061   83.1  0.9865   -7.8
 0.180  0.8253  -13.3  29.084  169.2  0.0063   82.9  0.9858   -8.0
 0.185  0.8251  -13.6  29.044  169.0  0.0064   82.7  0.9851   -8.2
 0.190  0.8249  -14.0  29.004  168.7  0.0066   82.5  0.9845   -8.5
 0.195  0.8247  -14.3  28.965  168.5  0.0067   82.3  0.9838   -8.7
 0.200  0.8246  -14.7  28.926  168.2  0.0069   82.1  0.9832   -8.9
 0.220  0.8222  -16.2  28.807  167.2  0.0076   81.2  0.9810   -9.7
 0.240  0.8203  -17.7  28.698  166.1  0.0083   80.5  0.9789  -10.6
 0.260  0.8184  -19.1  28.566  165.2  0.0090   79.7  0.9758  -11.5
 0.280  0.8162  -20.5  28.409  164.3  0.0097   78.9  0.9715  -12.4
 0.300  0.8146  -21.9  28.259  163.4  0.0103   78.1  0.9675  -13.3
 0.320  0.8123  -23.3  28.112  162.4  0.0110   77.4  0.9647  -14.1
 0.340  0.8106  -24.8  27.973  161.5  0.0117   76.7  0.9621  -15.0
 0.360  0.8084  -26.2  27.847  160.5  0.0123   75.9  0.9588  -15.8
 0.380  0.8059  -27.7  27.734  159.6  0.0130   75.1  0.9548  -16.7
 0.400  0.8039  -29.1  27.627  158.7  0.0136   74.3  0.9510  -17.6
 0.420  0.8009  -30.5  27.475  157.8  0.0142   73.6  0.9472  -18.4
 0.440  0.7983  -31.8  27.330  156.9  0.0148   72.9  0.9436  -19.1
 0.450  0.7972  -32.5  27.260  156.4  0.0151   72.6  0.9419  -19.5
 0.460  0.7959  -33.2  27.192  156.0  0.0154   72.2  0.9396  -19.9
 0.480  0.7935  -34.6  27.060  155.2  0.0161   71.5  0.9352  -20.7
 0.500  0.7917  -36.0  26.934  154.4  0.0167   70.8  0.9309  -21.5
 0.520  0.7879  -37.4  26.804  153.5  0.0173   69.9  0.9258  -22.3
 0.540  0.7845  -38.8  26.681  152.7  0.0179   69.1  0.9209  -23.2
 0.560  0.7817  -40.3  26.564  151.8  0.0184   68.4  0.9162  -24.0
 0.580  0.7793  -41.7  26.453  150.9  0.0190   67.7  0.9117  -24.8
 0.600  0.7775  -43.2  26.348  150.0  0.0196   67.0  0.9074  -25.7
 0.620  0.7736  -44.5  26.187  149.2  0.0202   66.2  0.9023  -26.4
 0.640  0.7701  -45.8  26.031  148.3  0.0207   65.5  0.8973  -27.2
 0.660  0.7670  -47.1  25.882  147.4  0.0213   64.8  0.8925  -27.9
 0.680  0.7644  -48.5  25.738  146.6  0.0218   64.1  0.8878  -28.6
 0.700  0.7621  -49.8  25.600  145.7  0.0224   63.5  0.8833  -29.4
 0.720  0.7581  -51.2  25.471  144.9  0.0229   62.8  0.8776  -30.1
 0.740  0.7545  -52.6  25.346  144.1  0.0234   62.1  0.8720  -30.9
 0.760  0.7513  -54.0  25.227  143.3  0.0239   61.4  0.8666  -31.6
 0.780  0.7486  -55.4  25.113  142.4  0.0244   60.7  0.8613  -32.3
 0.800  0.7464  -56.8  25.004  141.6  0.0249   60.1  0.8562  -33.1
 0.820  0.7426  -58.1  24.839  140.8  0.0253   59.4  0.8502  -33.8
 0.840  0.7391  -59.3  24.679  140.0  0.0258   58.8  0.8444  -34.5
 0.860  0.7360  -60.6  24.523  139.2  0.0262   58.2  0.8386  -35.2
 0.880  0.7333  -61.9  24.373  138.4  0.0267   57.6  0.8331  -36.0
 0.900  0.7309  -63.2  24.227  137.6  0.0271   57.0  0.8276  -36.7
 0.920  0.7273  -64.4  24.065  136.9  0.0275   56.3  0.8215  -37.4
 0.940  0.7241  -65.7  23.908  136.1  0.0279   55.7  0.8155  -38.0
 0.960  0.7211  -67.0  23.755  135.3  0.0284   55.1  0.8097  -38.7
 0.980  0.7186  -68.2  23.606  134.6  0.0288   54.5  0.8039  -39.4
 1.000  0.7164  -69.5  23.461  133.8  0.0292   53.9  0.7983  -40.1
 1.020  0.7129  -70.7  23.297  133.1  0.0296   53.3  0.7923  -40.7
 1.040  0.7096  -71.9  23.137  132.4  0.0300   52.7  0.7865  -41.4
 1.060  0.7067  -73.1  22.981  131.6  0.0303   52.2  0.7807  -42.0
 1.080  0.7042  -74.4  22.829  130.9  0.0307   51.6  0.7751  -42.6
 1.100  0.7019  -75.6  22.681  130.1  0.0311   51.1  0.7695  -43.3
 1.120  0.6984  -76.8  22.526  129.4  0.0314   50.5  0.7635  -43.9
 1.140  0.6952  -78.0  22.375  128.7  0.0317   50.0  0.7576  -44.5
 1.160  0.6923  -79.2  22.226  128.0  0.0321   49.4  0.7518  -45.1
 1.180  0.6898  -80.4  22.081  127.3  0.0324   48.9  0.7461  -45.8
 1.200  0.6875  -81.6  21.940  126.6  0.0327   48.4  0.7405  -46.4
 1.220  0.6841  -82.7  21.784  125.9  0.0330   47.9  0.7346  -47.0
 1.240  0.6811  -83.9  21.631  125.3  0.0333   47.4  0.7289  -47.6
 1.260  0.6783  -85.1  21.481  124.6  0.0336   46.9  0.7232  -48.2
 1.280  0.6757  -86.2  21.334  123.9  0.0339   46.4  0.7175  -48.8
 1.300  0.6735  -87.4  21.190  123.2  0.0342   45.9  0.7120  -49.4
 1.320  0.6707  -88.5  21.036  122.6  0.0345   45.4  0.7065  -49.9
 1.340  0.6681  -89.6  20.885  121.9  0.0348   44.9  0.7012  -50.5
 1.360  0.6657  -90.7  20.737  121.2  0.0350   44.4  0.6958  -51.1
 1.380  0.6636  -91.8  20.592  120.6  0.0353   44.0  0.6906  -51.6
 1.400  0.6618  -92.9  20.449  119.9  0.0356   43.5  0.6854  -52.2
 1.420  0.6590  -94.0  20.300  119.3  0.0358   43.0  0.6798  -52.7
 1.440  0.6563  -95.0  20.153  118.7  0.0360   42.6  0.6743  -53.3
 1.460  0.6540  -96.1  20.008  118.1  0.0363   42.2  0.6688  -53.8
 1.480  0.6518  -97.2  19.866  117.4  0.0365   41.7  0.6634  -54.3
 1.500  0.6499  -98.3  19.726  116.8  0.0367   41.3  0.6580  -54.9
 1.520  0.6476  -99.3  19.588  116.2  0.0369   40.9  0.6530  -55.4
 1.540  0.6454 -100.3  19.452  115.6  0.0371   40.5  0.6481  -55.9
 1.560  0.6435 -101.3  19.318  115.0  0.0373   40.1  0.6432  -56.4
 1.580  0.6417 -102.4  19.187  114.3  0.0375   39.7  0.6384  -56.9
 1.600  0.6402 -103.4  19.058  113.7  0.0377   39.3  0.6336  -57.4
 1.620  0.6380 -104.3  18.914  113.2  0.0379   38.9  0.6285  -57.9
 1.640  0.6360 -105.3  18.771  112.6  0.0381   38.5  0.6234  -58.3
 1.660  0.6341 -106.3  18.631  112.0  0.0382   38.1  0.6183  -58.8
 1.680  0.6325 -107.2  18.492  111.5  0.0384   37.7  0.6134  -59.3
 1.700  0.6310 -108.2  18.355  110.9  0.0386   37.3  0.6084  -59.8
 1.720  0.6293 -109.1  18.216  110.4  0.0387   36.9  0.6040  -60.2
 1.740  0.6277 -109.9  18.079  109.8  0.0389   36.6  0.5997  -60.7
 1.760  0.6263 -110.8  17.943  109.3  0.0390   36.2  0.5954  -61.2
 1.780  0.6250 -111.7  17.809  108.8  0.0392   35.9  0.5912  -61.6
 1.800  0.6239 -112.6  17.677  108.2  0.0393   35.5  0.5870  -62.1
 1.820  0.6221 -113.5  17.545  107.7  0.0394   35.2  0.5826  -62.5
 1.840  0.6204 -114.3  17.415  107.2  0.0396   34.9  0.5782  -63.0
 1.860  0.6188 -115.2  17.286  106.7  0.0397   34.5  0.5738  -63.4
 1.880  0.6174 -116.0  17.158  106.1  0.0399   34.2  0.5695  -63.8
 1.900  0.6161 -116.9  17.032  105.6  0.0400   33.9  0.5652  -64.3
 1.920  0.6149 -117.7  16.910  105.1  0.0401   33.6  0.5613  -64.7
 1.940  0.6138 -118.4  16.790  104.6  0.0402   33.3  0.5575  -65.0
 1.960  0.6128 -119.2  16.671  104.1  0.0404   33.0  0.5537  -65.4
 1.980  0.6119 -119.9  16.553  103.6  0.0405   32.7  0.5499  -65.8
 2.000  0.6111 -120.7  16.436  103.1  0.0406   32.4  0.5461  -66.2
 2.020  0.6100 -121.4  16.317  102.7  0.0407   32.1  0.5426  -66.6
 2.040  0.6089 -122.1  16.198  102.3  0.0408   31.9  0.5390  -66.9
 2.060  0.6079 -122.8  16.080  101.8  0.0409   31.6  0.5355  -67.3
 2.080  0.6071 -123.5  15.964  101.4  0.0409   31.3  0.5321  -67.7
 2.100  0.6063 -124.2  15.848  100.9  0.0410   31.0  0.5286  -68.0
 2.120  0.6056 -124.9  15.733  100.5  0.0411   30.8  0.5252  -68.4
 2.140  0.6050 -125.7  15.619  100.0  0.0412   30.5  0.5218  -68.8
 2.160  0.6045 -126.4  15.506   99.6  0.0413   30.2  0.5184  -69.2
 2.180  0.6041 -127.1  15.395   99.1  0.0414   30.0  0.5150  -69.6
 2.200  0.6038 -127.8  15.284   98.6  0.0415   29.7  0.5117  -70.0
 2.220  0.6029 -128.4  15.176   98.2  0.0416   29.5  0.5087  -70.3
 2.240  0.6022 -129.0  15.068   97.8  0.0416   29.2  0.5056  -70.6
 2.260  0.6014 -129.6  14.962   97.4  0.0417   29.0  0.5026  -71.0
 2.280  0.6008 -130.2  14.856   97.0  0.0418   28.8  0.4997  -71.3
 2.300  0.6002 -130.8  14.751   96.6  0.0418   28.5  0.4967  -71.6
 2.320  0.5997 -131.4  14.646   96.2  0.0419   28.3  0.4937  -72.0
 2.340  0.5992 -132.1  14.543   95.7  0.0420   28.1  0.4908  -72.3
 2.360  0.5989 -132.7  14.440   95.3  0.0421   27.9  0.4879  -72.7
 2.380  0.5985 -133.3  14.338   94.8  0.0421   27.6  0.4850  -73.0
 2.400  0.5983 -133.9  14.237   94.4  0.0422   27.4  0.4821  -73.4
 2.420  0.5977 -134.4  14.142   94.0  0.0422   27.2  0.4795  -73.7
 2.440  0.5972 -135.0  14.047   93.6  0.0423   27.0  0.4770  -73.9
 2.460  0.5967 -135.5  13.953   93.3  0.0423   26.8  0.4745  -74.2
 2.480  0.5962 -136.1  13.859   92.9  0.0424   26.6  0.4719  -74.5
 2.500  0.5958 -136.6  13.767   92.5  0.0424   26.4  0.4694  -74.8
 2.520  0.5955 -137.1  13.674   92.1  0.0424   26.2  0.4669  -75.0
 2.540  0.5952 -137.7  13.583   91.7  0.0425   26.0  0.4644  -75.3
 2.560  0.5950 -138.2  13.492   91.2  0.0425   25.8  0.4619  -75.6
 2.580  0.5948 -138.8  13.402   90.8  0.0426   25.6  0.4595  -75.9
 2.600  0.5947 -139.3  13.313   90.4  0.0426   25.4  0.4570  -76.2
 2.620  0.5941 -139.7  13.226   90.1  0.0426   25.3  0.4549  -76.4
 2.640  0.5935 -140.2  13.139   89.7  0.0427   25.1  0.4527  -76.6
 2.660  0.5930 -140.6  13.052   89.4  0.0427   25.0  0.4506  -76.9
 2.680  0.5924 -141.1  12.966   89.1  0.0428   24.9  0.4485  -77.1
 2.700  0.5920 -141.5  12.880   88.7  0.0428   24.7  0.4464  -77.3
 2.720  0.5915 -141.9  12.795   88.4  0.0428   24.6  0.4443  -77.6
 2.740  0.5911 -142.4  12.711   88.0  0.0429   24.5  0.4422  -77.8
 2.760  0.5907 -142.8  12.627   87.6  0.0429   24.4  0.4401  -78.0
 2.780  0.5904 -143.3  12.543   87.3  0.0430   24.2  0.4381  -78.3
 2.800  0.5901 -143.7  12.460   86.9  0.0430   24.1  0.4360  -78.5
 2.820  0.5900 -144.1  12.386   86.6  0.0430   24.0  0.4344  -78.7
 2.840  0.5899 -144.5  12.311   86.3  0.0431   23.9  0.4328  -79.0
 2.860  0.5898 -144.9  12.238   86.0  0.0431   23.7  0.4312  -79.2
 2.880  0.5898 -145.3  12.164   85.6  0.0432   23.6  0.4296  -79.4
 2.900  0.5898 -145.8  12.091   85.3  0.0432   23.5  0.4281  -79.7
 2.920  0.5898 -146.2  12.019   85.0  0.0433   23.4  0.4265  -79.9
 2.940  0.5899 -146.6  11.947   84.6  0.0433   23.3  0.4249  -80.2
 2.960  0.5899 -147.0  11.875   84.3  0.0434   23.1  0.4234  -80.4
 2.980  0.5901 -147.4  11.804   83.9  0.0434   23.0  0.4218  -80.7
 3.000  0.5902 -147.8  11.733   83.6  0.0435   22.9  0.4203  -80.9
 3.100  0.5889 -149.3  11.412   82.3  0.0437   22.4  0.4138  -81.6
 3.200  0.5879 -150.8  11.098   80.8  0.0438   21.8  0.4073  -82.4
 3.300  0.5874 -152.2  10.792   79.4  0.0440   21.3  0.4009  -83.2
 3.400  0.5873 -153.7  10.493   77.8  0.0442   20.8  0.3946  -84.0
 3.500  0.5875 -155.2  10.202   76.1  0.0444   20.3  0.3884  -84.8
 3.600  0.5863 -156.3   9.958   74.9  0.0446   20.0  0.3834  -85.3
 3.700  0.5854 -157.5   9.718   73.6  0.0448   19.7  0.3785  -85.8
 3.800  0.5847 -158.6   9.484   72.3  0.0449   19.3  0.3736  -86.3
 3.900  0.5842 -159.8   9.255   70.9  0.0451   19.0  0.3687  -86.8
 4.000  0.5840 -160.9   9.032   69.4  0.0453   18.7  0.3638  -87.3
 4.100  0.5837 -161.8   8.843   68.2  0.0455   18.5  0.3600  -87.7
 4.200  0.5835 -162.7   8.657   67.0  0.0457   18.2  0.3562  -88.1
 4.300  0.5834 -163.7   8.476   65.7  0.0459   18.0  0.3524  -88.5
 4.400  0.5835 -164.6   8.299   64.4  0.0461   17.7  0.3486  -88.9
 4.500  0.5838 -165.5   8.127   63.0  0.0463   17.5  0.3449  -89.3
 4.600  0.5770 -169.4   7.976   61.9  0.0466   17.3  0.3414  -89.8
 4.700  0.5730 -173.4   7.828   60.7  0.0468   17.1  0.3379  -90.2
 4.800  0.5717 -177.4   7.684   59.5  0.0471   16.9  0.3344  -90.7
 4.900  0.5733  178.6   7.543   58.2  0.0473   16.7  0.3309  -91.2
 5.000  0.5777  174.6   7.406   56.9  0.0476   16.5  0.3275  -91.7
 5.100  0.5762  173.3   7.282   55.8  0.0479   16.3  0.3242  -92.2
 5.200  0.5750  171.9   7.160   54.6  0.0482   16.1  0.3209  -92.7
 5.300  0.5741  170.6   7.042   53.4  0.0484   15.9  0.3177  -93.2
 5.400  0.5735  169.2   6.927   52.1  0.0487   15.7  0.3145  -93.8
 5.500  0.5732  167.9   6.815   50.8  0.0490   15.5  0.3113  -94.3
 5.600  0.5717  166.5   6.711   49.6  0.0493   15.3  0.3091  -95.0
 5.700  0.5705  165.2   6.610   48.4  0.0496   15.1  0.3069  -95.7
 5.800  0.5697  163.8   6.512   47.2  0.0500   14.8  0.3047  -96.4
 5.900  0.5691  162.5   6.418   45.9  0.0503   14.6  0.3026  -97.1
 6.000  0.5689  161.1   6.326   44.6  0.0506   14.4  0.3006  -97.8
 6.100  0.5671  159.5   6.233   43.4  0.0509   14.1  0.2975  -98.8
 6.200  0.5656  158.0   6.143   42.1  0.0512   13.8  0.2946  -99.7
 6.300  0.5647  156.4   6.057   40.8  0.0516   13.5  0.2917 -100.7
 6.400  0.5641  154.8   5.973   39.5  0.0519   13.3  0.2889 -101.8
 6.500  0.5640  153.2   5.893   38.1  0.0522   13.0  0.2862 -102.8
 6.600  0.5622  151.5   5.805   36.9  0.0525   12.7  0.2819 -104.1
 6.800  0.5601  148.1   5.637   34.3  0.0531   12.1  0.2738 -106.7
 7.000  0.5600  144.6   5.482   31.5  0.0537   11.5  0.2663 -109.5
 7.200  0.5610  140.7   5.319   29.0  0.0543   10.9  0.2548 -113.1
 7.400  0.5646  136.9   5.167   26.4  0.0548   10.2  0.2445 -117.1
 7.600  0.5704  133.0   5.018   23.7  0.0554    9.5  0.2335 -121.8
 7.800  0.5786  129.2   4.873   21.0  0.0559    8.7  0.2225 -127.3
 8.000  0.5893  125.5   4.739   18.2  0.0565    7.9  0.2137 -133.4
 8.200  0.6019  121.6   4.579   15.6  0.0567    7.0  0.2034 -142.3
 8.400  0.6171  118.0   4.429   12.8  0.0570    6.1  0.1986 -152.0
 8.600  0.6323  114.7   4.273   10.2  0.0571    5.4  0.1962 -162.8
 8.800  0.6472  111.7   4.109    7.7  0.0572    4.8  0.1983 -174.6
 9.000  0.6637  108.8   3.953    5.1  0.0572    4.2  0.2085  174.3
 9.200  0.6789  106.8   3.808    3.1  0.0573    3.7  0.2195  166.4
 9.400  0.6950  104.8   3.667    0.9  0.0574    3.2  0.2342  159.3
 9.600  0.7114  103.2   3.535   -1.1  0.0575    2.7  0.2522  153.2
 9.800  0.7278  101.9   3.410   -3.1  0.0576    2.2  0.2726  148.2
10.000  0.7446  100.6   3.289   -5.3  0.0576    1.7  0.2949  143.8
!
!  f       NFmin   Gammaopt  rn/50
! GHz       dB    MAG  ANG    -
 0.450      0.64  0.27    2   0.64
 0.900      0.67  0.23    8   0.14
 1.800      0.70  0.21   11   0.15
 2.400      0.72  0.18   18   0.13
 5.500      0.88  0.15   30   0.08
10.000      1.04  0.30  -88   0.19
!
! (c) 2016  Infineon Technologies AG, Munich
