! Infineon Technologies  Discrete & RF Semiconductors
! BFP740F
! VCE =  2.0 V,  IC =  22 mA
! Common Emitter S-Parameters:                            Oct 2012
# GHz  S  MA  R  50
!  f         S11            S21            S12            S22
! GHz     MAG   ANG      MAG   ANG      MAG   ANG      MAG   ANG
 0.030  0.7648   -4.4  48.103  176.1  0.0013   83.5  0.9864   -2.1
 0.040  0.7642   -5.9  48.075  175.0  0.0019   88.2  0.9885   -3.0
 0.050  0.7627   -7.3  48.157  174.0  0.0024   87.1  0.9884   -4.0
 0.060  0.7612   -8.7  47.965  172.9  0.0025   88.7  0.9868   -5.0
 0.070  0.7602  -10.2  47.796  171.7  0.0034   76.6  0.9860   -6.0
 0.080  0.7592  -11.6  47.543  170.7  0.0040   76.8  0.9845   -6.9
 0.090  0.7585  -13.0  47.283  169.6  0.0044   79.2  0.9832   -7.8
 0.100  0.7579  -14.4  47.028  168.5  0.0046   83.3  0.9814   -8.8
 0.110  0.7563  -15.8  46.668  167.6  0.0054   84.7  0.9780   -9.7
 0.120  0.7547  -17.3  46.402  166.6  0.0060   80.7  0.9754  -10.6
 0.130  0.7533  -18.6  46.034  165.6  0.0060   84.1  0.9717  -11.4
 0.140  0.7520  -20.0  45.739  164.8  0.0066   81.0  0.9682  -12.3
 0.150  0.7503  -21.4  45.507  163.8  0.0072   78.6  0.9649  -13.1
 0.200  0.7438  -28.0  43.928  159.7  0.0092   76.4  0.9473  -17.1
 0.250  0.7364  -34.4  42.558  156.1  0.0116   73.4  0.9276  -20.9
 0.300  0.7306  -40.5  41.145  152.7  0.0137   71.7  0.9075  -24.6
 0.350  0.7248  -46.5  39.862  149.5  0.0157   68.5  0.8862  -28.2
 0.400  0.7199  -52.4  38.718  146.5  0.0175   65.6  0.8638  -31.5
 0.450  0.7155  -57.9  37.580  143.5  0.0193   63.2  0.8430  -34.8
 0.500  0.7113  -63.3  36.426  140.8  0.0209   60.5  0.8192  -38.0
 0.600  0.7018  -73.7  34.354  135.4  0.0236   55.9  0.7730  -44.0
 0.700  0.6947  -82.9  32.263  130.5  0.0262   52.0  0.7276  -49.6
 0.800  0.6880  -91.6  30.340  126.0  0.0284   48.3  0.6833  -54.8
 0.900  0.6816  -99.4  28.535  121.8  0.0300   45.2  0.6403  -59.6
 1.000  0.6766 -106.5  26.809  118.0  0.0314   42.2  0.6020  -64.1
 1.100  0.6713 -112.9  25.234  114.4  0.0325   39.8  0.5646  -68.3
 1.200  0.6677 -118.7  23.768  111.2  0.0336   37.7  0.5331  -72.1
 1.300  0.6640 -124.0  22.437  108.2  0.0343   35.7  0.5023  -75.9
 1.400  0.6620 -128.8  21.211  105.5  0.0351   34.2  0.4775  -79.3
 1.500  0.6593 -133.2  20.100  103.0  0.0357   32.8  0.4528  -82.6
 1.600  0.6586 -137.2  19.085  100.6  0.0362   31.5  0.4330  -85.8
 1.700  0.6575 -141.0  18.149   98.3  0.0367   30.3  0.4135  -88.8
 1.800  0.6584 -144.4  17.298   96.2  0.0371   29.5  0.3982  -92.0
 1.900  0.6580 -147.6  16.516   94.2  0.0375   28.5  0.3833  -94.8
 2.000  0.6585 -150.5  15.790   92.3  0.0378   27.9  0.3713  -97.7
 2.100  0.6596 -153.4  15.087   90.3  0.0381   26.9  0.3615 -100.8
 2.200  0.6593 -155.8  14.452   88.6  0.0383   26.4  0.3520 -103.3
 2.300  0.6589 -158.3  13.871   86.9  0.0387   25.9  0.3436 -105.6
 2.400  0.6588 -160.4  13.321   85.4  0.0389   25.6  0.3369 -107.9
 2.500  0.6586 -162.6  12.823   83.9  0.0391   25.3  0.3304 -110.0
 2.600  0.6586 -164.5  12.358   82.4  0.0394   24.8  0.3252 -112.0
 2.700  0.6585 -166.5  11.924   80.9  0.0395   24.5  0.3199 -113.9
 2.800  0.6585 -168.2  11.514   79.6  0.0398   24.3  0.3164 -115.7
 2.900  0.6589 -170.0  11.131   78.1  0.0400   24.0  0.3124 -117.5
 3.000  0.6589 -171.6  10.781   76.8  0.0403   23.9  0.3096 -119.2
 3.100  0.6587 -173.2  10.443   75.5  0.0406   23.6  0.3071 -120.8
 3.200  0.6589 -174.8  10.128   74.2  0.0407   23.5  0.3046 -122.1
 3.300  0.6592 -176.3   9.829   73.0  0.0411   23.5  0.3025 -123.5
 3.400  0.6595 -177.7   9.548   71.7  0.0411   23.2  0.3006 -124.8
 3.500  0.6597 -179.1   9.278   70.5  0.0414   23.1  0.2985 -125.9
 3.600  0.6598  179.5   9.029   69.3  0.0417   23.2  0.2965 -127.0
 3.700  0.6603  178.1   8.795   68.1  0.0420   23.1  0.2938 -128.1
 3.800  0.6606  176.7   8.562   66.9  0.0422   23.1  0.2917 -129.3
 3.900  0.6614  175.4   8.351   65.8  0.0424   23.0  0.2896 -130.3
 4.000  0.6612  174.0   8.136   64.6  0.0427   23.0  0.2875 -131.5
 4.100  0.6628  172.7   7.948   63.5  0.0430   22.9  0.2852 -132.5
 4.200  0.6628  171.5   7.754   62.4  0.0432   22.8  0.2829 -133.7
 4.300  0.6639  170.2   7.577   61.2  0.0434   22.9  0.2809 -134.8
 4.400  0.6645  169.0   7.400   60.1  0.0438   22.8  0.2790 -135.9
 4.500  0.6656  167.7   7.238   59.0  0.0440   22.9  0.2770 -136.9
 4.600  0.6668  166.5   7.080   57.9  0.0443   22.9  0.2745 -138.0
 4.700  0.6677  165.4   6.926   56.8  0.0446   22.7  0.2728 -139.2
 4.800  0.6694  164.2   6.781   55.7  0.0448   22.8  0.2709 -140.3
 4.900  0.6701  163.1   6.637   54.6  0.0451   22.7  0.2688 -141.4
 5.000  0.6716  162.0   6.503   53.6  0.0455   22.7  0.2667 -142.6
 5.100  0.6731  160.9   6.374   52.5  0.0458   22.7  0.2650 -143.9
 5.200  0.6739  159.9   6.253   51.4  0.0459   22.6  0.2633 -145.0
 5.300  0.6748  158.8   6.134   50.3  0.0463   22.6  0.2614 -146.2
 5.400  0.6760  157.8   6.017   49.3  0.0465   22.5  0.2597 -147.4
 5.500  0.6768  156.8   5.905   48.2  0.0468   22.4  0.2586 -148.5
 5.600  0.6771  155.8   5.794   47.2  0.0471   22.4  0.2563 -149.4
 5.700  0.6782  154.7   5.692   46.1  0.0474   22.4  0.2544 -151.0
 5.800  0.6787  153.6   5.593   45.0  0.0477   22.3  0.2535 -152.1
 5.900  0.6794  152.6   5.494   44.0  0.0479   22.3  0.2511 -153.3
 6.000  0.6803  151.5   5.399   42.9  0.0482   22.3  0.2490 -154.6
 6.100  0.6806  150.4   5.303   41.8  0.0484   22.2  0.2472 -156.0
 6.200  0.6810  149.3   5.217   40.6  0.0487   22.2  0.2453 -157.1
 6.300  0.6806  148.2   5.121   39.7  0.0489   22.2  0.2429 -158.5
 6.400  0.6801  147.1   5.036   38.5  0.0491   22.3  0.2409 -159.7
 6.500  0.6801  145.9   4.946   37.5  0.0493   22.4  0.2382 -160.9
 6.600  0.6796  144.7   4.862   36.4  0.0496   22.5  0.2356 -162.2
 6.700  0.6789  143.5   4.774   35.4  0.0499   22.6  0.2327 -163.5
 6.800  0.6791  142.3   4.695   34.3  0.0502   22.8  0.2297 -164.8
 6.900  0.6784  141.1   4.614   33.3  0.0506   23.0  0.2264 -166.2
 7.000  0.6785  140.0   4.537   32.2  0.0510   23.2  0.2231 -167.6
 7.100  0.6782  138.9   4.460   31.2  0.0516   23.5  0.2200 -169.3
 7.200  0.6790  137.7   4.387   30.2  0.0521   23.6  0.2181 -170.9
 7.300  0.6799  136.6   4.312   29.2  0.0528   23.7  0.2159 -172.6
 7.400  0.6816  135.5   4.246   28.2  0.0535   23.6  0.2143 -174.6
 7.500  0.6836  134.6   4.180   27.3  0.0542   23.8  0.2135 -176.6
 7.600  0.6861  133.4   4.114   26.2  0.0550   23.4  0.2128 -178.7
 7.700  0.6886  132.5   4.047   25.3  0.0557   23.3  0.2121  178.8
 7.800  0.6928  131.3   3.987   24.1  0.0564   22.9  0.2129  176.2
 7.900  0.6959  130.5   3.923   23.2  0.0570   22.7  0.2134  173.6
 8.000  0.7011  129.4   3.862   22.2  0.0575   22.2  0.2152  170.7
 8.500  0.7269  125.3   3.567   17.1  0.0600   20.1  0.2339  155.9
 9.000  0.7521  122.0   3.291   12.3  0.0615   18.1  0.2695  142.6
 9.500  0.7730  119.8   3.036    7.7  0.0625   16.4  0.3182  132.8
10.000  0.7914  117.0   2.801    3.2  0.0633   15.1  0.3732  126.1
!
!  f       NFmin   Gammaopt  rn/50
! GHz       dB    MAG  ANG    -
!
! noise parameter not available yet for this operation point!
!
! (c) 2012  Infineon Technologies AG, Munich
