! Infineon Technologies  Discrete & RF Semiconductors
! BFP720
! VCE =  3.0 V,  IC =  4.0 mA
! Common Emitter S-Parameters:                            Aug 2012
# GHz  S  MA  R  50
!  f         S11            S21            S12            S22
! GHz     MAG   ANG      MAG   ANG      MAG   ANG      MAG   ANG
 0.010  0.9489    0.1  11.944 -180.0  0.0011  -16.5  0.9882    0.7
 0.020  0.9508   -0.7  11.836  178.7  0.0007   86.7  0.9980   -0.5
 0.030  0.9505   -1.1  11.881  178.4  0.0012   90.5  0.9976   -0.7
 0.040  0.9502   -1.5  11.926  178.1  0.0016   92.2  0.9972   -1.0
 0.050  0.9500   -1.8  11.972  177.8  0.0020   93.2  0.9968   -1.3
 0.060  0.9500   -2.2  11.961  177.5  0.0023   90.3  0.9969   -1.6
 0.070  0.9500   -2.7  11.951  177.3  0.0027   88.2  0.9970   -1.9
 0.080  0.9500   -3.1  11.941  177.0  0.0030   86.5  0.9971   -2.2
 0.090  0.9501   -3.5  11.932  176.7  0.0033   85.2  0.9973   -2.4
 0.100  0.9502   -3.9  11.922  176.4  0.0036   84.1  0.9974   -2.7
 0.110  0.9499   -4.2  11.926  176.1  0.0040   84.6  0.9974   -3.0
 0.120  0.9497   -4.6  11.929  175.8  0.0044   85.1  0.9973   -3.3
 0.130  0.9495   -5.0  11.933  175.4  0.0047   85.5  0.9973   -3.5
 0.140  0.9494   -5.4  11.937  175.1  0.0051   85.8  0.9973   -3.8
 0.150  0.9493   -5.8  11.942  174.8  0.0054   86.1  0.9973   -4.1
 0.200  0.9478   -7.6  11.885  173.1  0.0072   84.3  0.9959   -5.4
 0.250  0.9462   -9.6  11.888  171.5  0.0090   83.5  0.9947   -6.7
 0.300  0.9429  -11.5  11.825  169.9  0.0109   82.3  0.9919   -8.1
 0.350  0.9406  -13.4  11.801  168.4  0.0127   81.2  0.9901   -9.5
 0.400  0.9380  -15.4  11.795  166.8  0.0144   80.0  0.9867  -10.9
 0.450  0.9348  -17.3  11.718  165.2  0.0163   78.7  0.9846  -12.2
 0.500  0.9319  -19.2  11.711  163.7  0.0181   77.4  0.9817  -13.6
 0.600  0.9255  -23.1  11.642  160.7  0.0216   75.1  0.9739  -16.3
 0.700  0.9180  -27.0  11.576  157.7  0.0251   72.5  0.9667  -19.1
 0.800  0.9087  -31.2  11.619  154.7  0.0286   70.1  0.9589  -21.8
 0.900  0.8999  -35.2  11.527  151.6  0.0319   67.5  0.9486  -24.6
 1.000  0.8902  -39.3  11.448  148.6  0.0353   65.0  0.9371  -27.4
 1.100  0.8794  -43.3  11.342  145.5  0.0385   62.3  0.9247  -30.1
 1.200  0.8685  -47.4  11.251  142.4  0.0416   59.8  0.9117  -32.8
 1.300  0.8568  -51.5  11.147  139.4  0.0446   57.2  0.8973  -35.6
 1.400  0.8450  -55.5  11.013  136.3  0.0474   54.7  0.8815  -38.1
 1.500  0.8327  -59.7  10.909  133.3  0.0500   52.3  0.8653  -40.7
 1.600  0.8183  -64.0  10.884  130.0  0.0525   49.7  0.8489  -43.3
 1.700  0.8045  -68.1  10.715  127.0  0.0548   47.3  0.8313  -45.9
 1.800  0.7927  -71.9  10.550  124.1  0.0570   44.9  0.8149  -48.3
 1.900  0.7792  -75.7  10.371  121.1  0.0590   42.6  0.7984  -50.7
 2.000  0.7681  -79.4  10.189  118.3  0.0609   40.4  0.7817  -53.1
 2.100  0.7554  -82.9  10.001  115.7  0.0625   38.2  0.7647  -55.2
 2.200  0.7456  -86.6   9.835  112.9  0.0642   36.1  0.7489  -57.5
 2.300  0.7346  -89.9   9.639  110.4  0.0655   34.0  0.7336  -59.6
 2.400  0.7262  -93.3   9.462  107.7  0.0669   32.0  0.7195  -61.8
 2.500  0.7151  -96.6   9.287  105.2  0.0681   30.1  0.7044  -63.8
 2.600  0.7064 -100.0   9.129  102.6  0.0693   28.3  0.6902  -65.8
 2.700  0.6970 -103.2   8.957  100.3  0.0703   26.5  0.6762  -67.8
 2.800  0.6897 -106.5   8.801   97.9  0.0713   24.8  0.6630  -69.8
 2.900  0.6796 -109.6   8.639   95.5  0.0721   23.1  0.6498  -71.7
 3.000  0.6716 -112.8   8.493   93.1  0.0730   21.4  0.6375  -73.7
 3.100  0.6591 -116.0   8.332   91.0  0.0734   19.8  0.6230  -75.5
 3.200  0.6487 -119.2   8.182   88.8  0.0739   18.3  0.6092  -77.4
 3.300  0.6405 -122.6   8.046   86.5  0.0744   16.7  0.5961  -79.3
 3.400  0.6345 -126.0   7.923   84.1  0.0750   15.2  0.5837  -81.4
 3.500  0.6309 -129.5   7.814   81.6  0.0756   13.6  0.5721  -83.5
 3.600  0.6200 -132.8   7.664   79.6  0.0758   12.2  0.5581  -85.4
 3.700  0.6113 -136.2   7.525   77.5  0.0760   10.8  0.5447  -87.4
 3.800  0.6048 -139.7   7.397   75.3  0.0762    9.4  0.5321  -89.6
 3.900  0.6006 -143.3   7.279   73.0  0.0765    8.0  0.5202  -91.8
 4.000  0.5987 -146.8   7.174   70.7  0.0768    6.6  0.5091  -94.1
 4.100  0.5905 -150.3   7.034   68.7  0.0767    5.3  0.4951  -96.3
 4.200  0.5845 -153.9   6.902   66.7  0.0766    4.1  0.4819  -98.6
 4.300  0.5808 -157.5   6.780   64.6  0.0766    2.8  0.4695 -101.0
 4.400  0.5795 -161.2   6.667   62.4  0.0765    1.5  0.4580 -103.5
 4.500  0.5805 -164.8   6.564   60.2  0.0766    0.2  0.4475 -106.2
 4.600  0.5756 -168.1   6.428   58.3  0.0762   -0.9  0.4357 -108.6
 4.700  0.5724 -171.3   6.299   56.3  0.0758   -2.0  0.4248 -111.1
 4.800  0.5711 -174.6   6.178   54.3  0.0754   -3.2  0.4147 -113.7
 4.900  0.5717 -177.9   6.064   52.1  0.0751   -4.3  0.4055 -116.5
 5.000  0.5742  178.9   5.960   49.9  0.0747   -5.5  0.3973 -119.3
 5.100  0.5742  176.7   5.834   48.3  0.0741   -6.4  0.3902 -121.5
 5.200  0.5750  174.6   5.714   46.5  0.0735   -7.3  0.3837 -123.8
 5.300  0.5767  172.4   5.600   44.7  0.0729   -8.2  0.3778 -126.1
 5.400  0.5792  170.3   5.491   42.8  0.0723   -9.1  0.3725 -128.5
 5.500  0.5824  168.2   5.389   40.8  0.0718  -10.1  0.3679 -130.9
 5.600  0.5827  166.3   5.283   39.3  0.0710  -10.7  0.3654 -132.6
 5.700  0.5836  164.4   5.182   37.7  0.0703  -11.4  0.3632 -134.2
 5.800  0.5852  162.5   5.084   36.0  0.0696  -12.1  0.3613 -135.9
 5.900  0.5874  160.6   4.991   34.3  0.0689  -12.8  0.3597 -137.6
 6.000  0.5902  158.7   4.902   32.5  0.0682  -13.5  0.3584 -139.3
 6.100  0.5892  157.2   4.813   31.0  0.0675  -13.8  0.3573 -140.2
 6.200  0.5886  155.7   4.727   29.5  0.0667  -14.1  0.3563 -141.1
 6.300  0.5884  154.2   4.644   28.0  0.0660  -14.5  0.3554 -142.1
 6.400  0.5887  152.6   4.565   26.4  0.0653  -14.8  0.3545 -143.0
 6.500  0.5894  151.1   4.490   24.7  0.0646  -15.2  0.3538 -143.9
 6.600  0.5874  149.8   4.416   23.4  0.0641  -15.3  0.3512 -144.3
 6.700  0.5857  148.5   4.346   22.0  0.0636  -15.3  0.3486 -144.7
 6.800  0.5843  147.1   4.277   20.5  0.0631  -15.4  0.3460 -145.2
 6.900  0.5833  145.8   4.212   19.0  0.0625  -15.4  0.3434 -145.6
 7.000  0.5825  144.4   4.150   17.5  0.0620  -15.5  0.3409 -146.1
 7.100  0.5817  143.0   4.095   16.1  0.0619  -15.5  0.3374 -146.7
 7.200  0.5812  141.5   4.043   14.7  0.0617  -15.4  0.3341 -147.4
 7.300  0.5810  140.0   3.993   13.3  0.0616  -15.4  0.3307 -148.2
 7.400  0.5813  138.6   3.946   11.8  0.0615  -15.4  0.3274 -148.9
 7.500  0.5820  137.1   3.901   10.3  0.0613  -15.4  0.3242 -149.6
 7.600  0.5827  135.2   3.855    8.7  0.0613  -15.6  0.3203 -151.4
 7.700  0.5842  133.3   3.812    7.1  0.0613  -15.8  0.3166 -153.2
 7.800  0.5862  131.4   3.772    5.5  0.0612  -15.9  0.3133 -155.0
 7.900  0.5890  129.5   3.734    3.9  0.0612  -16.1  0.3103 -156.9
 8.000  0.5923  127.6   3.700    2.2  0.0612  -16.3  0.3077 -158.8
 8.500  0.6119  116.9   3.453   -6.6  0.0602  -16.8  0.3065  173.2
 9.000  0.6419  106.9   3.188  -15.1  0.0603  -16.5  0.3225  157.2
 9.500  0.6851   98.7   2.923  -23.3  0.0612  -17.1  0.3643  142.7
10.000  0.7281   91.5   2.644  -31.2  0.0611  -18.3  0.4192  130.8
10.500  0.7524   86.6   2.362  -37.3  0.0612  -18.0  0.4707  122.2
11.000  0.7701   84.6   2.170  -41.7  0.0628  -17.7  0.5143  117.0
11.500  0.8050   83.8   2.052  -47.3  0.0655  -18.5  0.5620  113.8
12.000  0.8361   81.9   1.921  -54.2  0.0671  -20.8  0.6081  110.3
!
!  f       NFmin   Gammaopt  rn/50
! GHz       dB    MAG  ANG    -
 0.450      0.37  0.56    4   0.21
 1.800      0.49  0.52   27   0.15
 2.400      0.52  0.39   66   0.20
 5.500      0.72  0.26   73   0.11
10.000      1.02  0.41  -96   0.21
!
! (c) 2012  Infineon Technologies AG, Munich
