! Infineon Technologies  Discrete & RF Semiconductors
! BFP720F
! VCE =  3.5 V,  IC =  0.5 mA
! Common Emitter S-Parameters:                            Jan 2016
# GHz  S  MA  R  50
!  f         S11            S21            S12            S22
! GHz     MAG   ANG      MAG   ANG      MAG   ANG      MAG   ANG
 0.010  0.9945   -0.1   2.108  179.7  0.0007  -16.3  1.0000   -0.5
 0.015  0.9946   -0.2   2.044  179.0  0.0004   38.2  1.0000   -0.7
 0.020  0.9948   -0.3   1.981  178.3  0.0007   92.7  1.0000   -0.9
 0.025  0.9947   -0.4   1.977  178.4  0.0009   90.5  0.9997   -0.9
 0.030  0.9945   -0.5   1.973  178.5  0.0010   89.0  0.9993   -0.9
 0.035  0.9944   -0.6   1.968  178.6  0.0012   88.0  0.9990   -0.9
 0.040  0.9943   -0.8   1.964  178.7  0.0014   87.1  0.9987   -0.8
 0.045  0.9941   -0.9   1.960  178.8  0.0015   86.5  0.9983   -0.8
 0.050  0.9940   -1.0   1.956  178.9  0.0017   86.0  0.9980   -0.8
 0.055  0.9940   -1.1   1.956  178.8  0.0019   86.6  0.9981   -0.9
 0.060  0.9941   -1.2   1.956  178.8  0.0021   87.1  0.9982   -0.9
 0.065  0.9941   -1.2   1.956  178.7  0.0023   87.5  0.9983   -1.0
 0.070  0.9942   -1.3   1.956  178.6  0.0025   87.8  0.9984   -1.0
 0.075  0.9942   -1.4   1.956  178.6  0.0026   88.1  0.9985   -1.1
 0.080  0.9943   -1.5   1.956  178.5  0.0028   88.4  0.9986   -1.2
 0.085  0.9943   -1.6   1.956  178.4  0.0030   88.6  0.9988   -1.2
 0.090  0.9944   -1.6   1.956  178.3  0.0032   88.8  0.9989   -1.3
 0.095  0.9944   -1.7   1.956  178.3  0.0034   88.9  0.9990   -1.3
 0.100  0.9945   -1.8   1.956  178.2  0.0036   89.1  0.9991   -1.4
 0.105  0.9944   -1.9   1.957  178.1  0.0038   88.8  0.9991   -1.5
 0.110  0.9942   -2.0   1.957  178.0  0.0039   88.6  0.9991   -1.5
 0.115  0.9941   -2.1   1.958  178.0  0.0041   88.4  0.9992   -1.6
 0.120  0.9940   -2.2   1.959  177.9  0.0043   88.2  0.9992   -1.7
 0.125  0.9939   -2.2   1.959  177.8  0.0044   88.0  0.9992   -1.8
 0.130  0.9938   -2.3   1.960  177.7  0.0046   87.8  0.9993   -1.8
 0.135  0.9936   -2.4   1.961  177.6  0.0048   87.6  0.9993   -1.9
 0.140  0.9935   -2.5   1.962  177.6  0.0050   87.5  0.9993   -2.0
 0.145  0.9934   -2.6   1.962  177.5  0.0051   87.3  0.9994   -2.0
 0.150  0.9933   -2.7   1.963  177.4  0.0053   87.2  0.9994   -2.1
 0.155  0.9933   -2.8   1.963  177.3  0.0055   87.2  0.9992   -2.2
 0.160  0.9932   -2.9   1.962  177.2  0.0057   87.2  0.9991   -2.2
 0.165  0.9932   -2.9   1.962  177.1  0.0059   87.2  0.9989   -2.3
 0.170  0.9932   -3.0   1.962  177.0  0.0061   87.2  0.9988   -2.4
 0.175  0.9932   -3.1   1.961  177.0  0.0062   87.2  0.9986   -2.4
 0.180  0.9932   -3.2   1.961  176.9  0.0064   87.2  0.9985   -2.5
 0.185  0.9931   -3.3   1.961  176.8  0.0066   87.2  0.9983   -2.6
 0.190  0.9931   -3.3   1.961  176.7  0.0068   87.2  0.9982   -2.7
 0.195  0.9931   -3.4   1.960  176.6  0.0070   87.2  0.9980   -2.7
 0.200  0.9931   -3.5   1.960  176.5  0.0072   87.2  0.9979   -2.8
 0.220  0.9927   -3.9   1.963  176.1  0.0079   86.7  0.9983   -3.1
 0.240  0.9924   -4.3   1.966  175.8  0.0086   86.4  0.9987   -3.4
 0.260  0.9922   -4.7   1.967  175.4  0.0093   86.1  0.9983   -3.7
 0.280  0.9922   -5.0   1.965  175.1  0.0100   85.9  0.9970   -4.0
 0.300  0.9921   -5.3   1.963  174.8  0.0107   85.7  0.9958   -4.3
 0.320  0.9920   -5.7   1.964  174.4  0.0114   85.3  0.9962   -4.6
 0.340  0.9920   -6.0   1.965  174.1  0.0121   85.0  0.9967   -4.9
 0.360  0.9919   -6.4   1.968  173.7  0.0129   84.7  0.9968   -5.2
 0.380  0.9918   -6.8   1.973  173.4  0.0136   84.4  0.9966   -5.5
 0.400  0.9917   -7.2   1.978  173.0  0.0143   84.1  0.9964   -5.8
 0.420  0.9913   -7.6   1.971  172.6  0.0150   83.8  0.9961   -6.1
 0.440  0.9910   -7.9   1.964  172.2  0.0157   83.6  0.9958   -6.4
 0.450  0.9908   -8.1   1.960  172.0  0.0161   83.5  0.9957   -6.5
 0.460  0.9907   -8.3   1.963  171.9  0.0165   83.3  0.9956   -6.6
 0.480  0.9906   -8.6   1.969  171.6  0.0172   83.1  0.9954   -6.9
 0.500  0.9905   -9.0   1.975  171.3  0.0179   82.8  0.9953   -7.1
 0.520  0.9902   -9.4   1.976  170.9  0.0186   82.4  0.9949   -7.4
 0.540  0.9899   -9.7   1.978  170.5  0.0193   82.1  0.9946   -7.7
 0.560  0.9896  -10.1   1.979  170.2  0.0201   81.8  0.9943   -8.0
 0.580  0.9894  -10.4   1.980  169.8  0.0208   81.5  0.9940   -8.3
 0.600  0.9892  -10.8   1.982  169.4  0.0215   81.2  0.9938   -8.6
 0.620  0.9887  -11.2   1.982  169.1  0.0222   80.8  0.9937   -8.9
 0.640  0.9882  -11.5   1.982  168.7  0.0229   80.5  0.9936   -9.2
 0.660  0.9878  -11.9   1.982  168.4  0.0237   80.2  0.9935   -9.4
 0.680  0.9874  -12.2   1.982  168.0  0.0244   79.9  0.9934   -9.7
 0.700  0.9871  -12.6   1.982  167.7  0.0251   79.6  0.9934  -10.0
 0.720  0.9868  -13.0   1.984  167.3  0.0258   79.3  0.9930  -10.3
 0.740  0.9864  -13.4   1.987  167.0  0.0266   78.9  0.9927  -10.6
 0.760  0.9862  -13.7   1.989  166.6  0.0273   78.7  0.9924  -10.9
 0.780  0.9860  -14.1   1.991  166.3  0.0281   78.4  0.9921  -11.2
 0.800  0.9858  -14.5   1.994  165.9  0.0288   78.1  0.9918  -11.5
 0.820  0.9853  -14.9   1.996  165.5  0.0295   77.7  0.9914  -11.8
 0.840  0.9848  -15.2   1.998  165.2  0.0302   77.4  0.9910  -12.1
 0.860  0.9844  -15.6   2.000  164.8  0.0310   77.1  0.9906  -12.3
 0.880  0.9840  -15.9   2.002  164.5  0.0317   76.8  0.9903  -12.6
 0.900  0.9837  -16.3   2.004  164.1  0.0324   76.5  0.9900  -12.9
 0.920  0.9832  -16.7   2.005  163.7  0.0331   76.1  0.9895  -13.2
 0.940  0.9827  -17.1   2.006  163.3  0.0339   75.8  0.9890  -13.5
 0.960  0.9823  -17.5   2.007  163.0  0.0346   75.4  0.9885  -13.8
 0.980  0.9819  -17.9   2.009  162.6  0.0354   75.1  0.9880  -14.1
 1.000  0.9816  -18.3   2.010  162.2  0.0361   74.8  0.9876  -14.4
 1.020  0.9810  -18.7   2.012  161.8  0.0368   74.5  0.9872  -14.7
 1.040  0.9805  -19.1   2.013  161.4  0.0376   74.1  0.9868  -15.0
 1.060  0.9800  -19.4   2.015  161.0  0.0383   73.8  0.9864  -15.3
 1.080  0.9795  -19.8   2.017  160.6  0.0391   73.5  0.9860  -15.6
 1.100  0.9791  -20.2   2.019  160.2  0.0398   73.2  0.9857  -15.9
 1.120  0.9785  -20.6   2.020  159.8  0.0405   72.8  0.9851  -16.2
 1.140  0.9779  -21.0   2.021  159.5  0.0412   72.5  0.9846  -16.5
 1.160  0.9773  -21.3   2.022  159.1  0.0420   72.1  0.9841  -16.8
 1.180  0.9768  -21.7   2.023  158.8  0.0427   71.8  0.9836  -17.1
 1.200  0.9763  -22.1   2.024  158.4  0.0434   71.5  0.9832  -17.4
 1.220  0.9757  -22.5   2.025  158.0  0.0441   71.1  0.9827  -17.7
 1.240  0.9752  -22.9   2.026  157.6  0.0449   70.8  0.9822  -18.0
 1.260  0.9748  -23.3   2.027  157.1  0.0456   70.4  0.9817  -18.3
 1.280  0.9744  -23.7   2.029  156.7  0.0464   70.1  0.9812  -18.6
 1.300  0.9740  -24.1   2.030  156.3  0.0471   69.8  0.9808  -18.9
 1.320  0.9733  -24.5   2.030  155.9  0.0478   69.4  0.9801  -19.2
 1.340  0.9726  -24.9   2.030  155.5  0.0485   69.1  0.9795  -19.5
 1.360  0.9720  -25.2   2.030  155.2  0.0493   68.8  0.9788  -19.9
 1.380  0.9714  -25.6   2.031  154.8  0.0500   68.4  0.9783  -20.2
 1.400  0.9709  -26.0   2.031  154.4  0.0507   68.1  0.9777  -20.5
 1.420  0.9701  -26.4   2.032  154.0  0.0514   67.7  0.9770  -20.8
 1.440  0.9694  -26.8   2.033  153.6  0.0521   67.4  0.9762  -21.1
 1.460  0.9688  -27.2   2.034  153.2  0.0529   67.0  0.9756  -21.5
 1.480  0.9682  -27.6   2.035  152.8  0.0536   66.6  0.9749  -21.8
 1.500  0.9676  -28.0   2.036  152.4  0.0543   66.3  0.9743  -22.1
 1.520  0.9669  -28.4   2.038  152.0  0.0550   65.9  0.9736  -22.4
 1.540  0.9663  -28.8   2.041  151.6  0.0557   65.6  0.9730  -22.7
 1.560  0.9657  -29.2   2.043  151.1  0.0564   65.3  0.9724  -23.0
 1.580  0.9652  -29.6   2.046  150.7  0.0571   64.9  0.9718  -23.3
 1.600  0.9647  -30.0   2.049  150.3  0.0578   64.6  0.9713  -23.6
 1.620  0.9638  -30.4   2.052  149.9  0.0585   64.2  0.9706  -23.9
 1.640  0.9630  -30.8   2.054  149.4  0.0592   63.8  0.9698  -24.2
 1.660  0.9622  -31.2   2.057  149.0  0.0600   63.4  0.9692  -24.6
 1.680  0.9614  -31.6   2.060  148.5  0.0607   63.1  0.9685  -24.9
 1.700  0.9607  -32.0   2.063  148.1  0.0614   62.7  0.9679  -25.2
 1.720  0.9600  -32.4   2.062  147.7  0.0621   62.3  0.9673  -25.5
 1.740  0.9594  -32.8   2.060  147.3  0.0628   62.0  0.9667  -25.8
 1.760  0.9588  -33.2   2.059  146.9  0.0635   61.6  0.9661  -26.1
 1.780  0.9583  -33.6   2.058  146.5  0.0642   61.2  0.9655  -26.4
 1.800  0.9578  -34.0   2.057  146.1  0.0649   60.9  0.9650  -26.7
 1.820  0.9568  -34.4   2.056  145.7  0.0656   60.5  0.9642  -27.0
 1.840  0.9559  -34.8   2.055  145.3  0.0663   60.2  0.9634  -27.3
 1.860  0.9550  -35.2   2.054  144.8  0.0669   59.8  0.9626  -27.7
 1.880  0.9542  -35.6   2.054  144.4  0.0676   59.4  0.9619  -28.0
 1.900  0.9534  -36.0   2.053  144.0  0.0683   59.1  0.9612  -28.3
 1.920  0.9528  -36.4   2.052  143.6  0.0690   58.7  0.9604  -28.6
 1.940  0.9523  -36.8   2.052  143.2  0.0696   58.4  0.9596  -28.9
 1.960  0.9518  -37.1   2.051  142.7  0.0703   58.0  0.9588  -29.2
 1.980  0.9513  -37.5   2.051  142.3  0.0709   57.6  0.9580  -29.5
 2.000  0.9509  -37.9   2.051  141.9  0.0716   57.3  0.9573  -29.8
 2.020  0.9500  -38.3   2.050  141.5  0.0722   56.9  0.9565  -30.1
 2.040  0.9491  -38.7   2.049  141.1  0.0729   56.5  0.9557  -30.4
 2.060  0.9482  -39.1   2.048  140.7  0.0735   56.1  0.9550  -30.8
 2.080  0.9474  -39.5   2.047  140.3  0.0742   55.7  0.9543  -31.1
 2.100  0.9467  -39.8   2.046  139.9  0.0748   55.3  0.9536  -31.4
 2.120  0.9459  -40.2   2.046  139.4  0.0755   54.9  0.9529  -31.7
 2.140  0.9453  -40.6   2.045  139.0  0.0761   54.6  0.9523  -32.0
 2.160  0.9446  -41.0   2.045  138.6  0.0768   54.2  0.9517  -32.4
 2.180  0.9440  -41.4   2.044  138.2  0.0774   53.9  0.9511  -32.7
 2.200  0.9435  -41.8   2.044  137.8  0.0781   53.5  0.9506  -33.0
 2.220  0.9427  -42.2   2.041  137.4  0.0787   53.1  0.9498  -33.3
 2.240  0.9418  -42.6   2.039  137.0  0.0793   52.7  0.9490  -33.6
 2.260  0.9411  -42.9   2.036  136.6  0.0799   52.4  0.9483  -33.9
 2.280  0.9404  -43.3   2.033  136.1  0.0805   52.0  0.9475  -34.2
 2.300  0.9397  -43.7   2.031  135.7  0.0811   51.6  0.9468  -34.5
 2.320  0.9390  -44.1   2.029  135.3  0.0817   51.3  0.9461  -34.8
 2.340  0.9384  -44.5   2.027  134.9  0.0823   50.9  0.9455  -35.1
 2.360  0.9379  -44.8   2.025  134.4  0.0830   50.6  0.9449  -35.4
 2.380  0.9374  -45.2   2.023  134.0  0.0836   50.2  0.9443  -35.7
 2.400  0.9369  -45.6   2.021  133.6  0.0842   49.9  0.9437  -36.0
 2.420  0.9360  -46.0   2.019  133.2  0.0847   49.5  0.9429  -36.3
 2.440  0.9352  -46.3   2.016  132.8  0.0853   49.1  0.9421  -36.6
 2.460  0.9344  -46.7   2.014  132.4  0.0858   48.8  0.9413  -36.9
 2.480  0.9336  -47.1   2.012  132.0  0.0864   48.4  0.9406  -37.2
 2.500  0.9329  -47.4   2.010  131.6  0.0870   48.0  0.9398  -37.4
 2.520  0.9322  -47.8   2.008  131.2  0.0875   47.7  0.9392  -37.7
 2.540  0.9316  -48.2   2.006  130.8  0.0881   47.3  0.9385  -38.0
 2.560  0.9310  -48.6   2.004  130.4  0.0887   47.0  0.9378  -38.3
 2.580  0.9304  -48.9   2.003  130.0  0.0892   46.6  0.9372  -38.6
 2.600  0.9299  -49.3   2.001  129.6  0.0898   46.3  0.9366  -38.9
 2.620  0.9291  -49.7   1.999  129.2  0.0903   45.9  0.9357  -39.2
 2.640  0.9283  -50.0   1.996  128.8  0.0908   45.6  0.9348  -39.5
 2.660  0.9276  -50.4   1.994  128.4  0.0913   45.2  0.9339  -39.7
 2.680  0.9269  -50.8   1.992  128.0  0.0918   44.9  0.9331  -40.0
 2.700  0.9262  -51.1   1.990  127.6  0.0924   44.5  0.9322  -40.3
 2.720  0.9256  -51.5   1.988  127.2  0.0929   44.2  0.9314  -40.6
 2.740  0.9250  -51.9   1.987  126.8  0.0934   43.8  0.9306  -40.9
 2.760  0.9245  -52.3   1.985  126.4  0.0939   43.5  0.9299  -41.1
 2.780  0.9240  -52.6   1.983  126.0  0.0945   43.1  0.9291  -41.4
 2.800  0.9235  -53.0   1.982  125.6  0.0950   42.8  0.9284  -41.7
 2.820  0.9228  -53.4   1.979  125.2  0.0955   42.5  0.9277  -42.0
 2.840  0.9222  -53.7   1.976  124.8  0.0960   42.1  0.9271  -42.2
 2.860  0.9216  -54.1   1.972  124.5  0.0965   41.8  0.9265  -42.5
 2.880  0.9211  -54.4   1.969  124.1  0.0970   41.4  0.9259  -42.8
 2.900  0.9205  -54.8   1.966  123.7  0.0975   41.1  0.9253  -43.0
 2.920  0.9201  -55.2   1.964  123.3  0.0980   40.8  0.9248  -43.3
 2.940  0.9196  -55.5   1.961  123.0  0.0985   40.5  0.9243  -43.6
 2.960  0.9192  -55.9   1.958  122.6  0.0991   40.1  0.9238  -43.9
 2.980  0.9188  -56.2   1.956  122.2  0.0996   39.8  0.9233  -44.1
 3.000  0.9185  -56.6   1.953  121.8  0.1001   39.5  0.9228  -44.4
 3.100  0.9139  -58.2   1.937  119.9  0.1020   37.7  0.9184  -45.6
 3.200  0.9100  -59.8   1.923  118.0  0.1041   36.0  0.9144  -46.8
 3.300  0.9068  -61.5   1.911  116.1  0.1062   34.3  0.9109  -48.0
 3.400  0.9044  -63.1   1.901  114.2  0.1084   32.7  0.9077  -49.2
 3.500  0.9028  -64.8   1.894  112.2  0.1107   31.2  0.9049  -50.4
 3.600  0.8987  -66.3   1.875  110.5  0.1123   29.6  0.9011  -51.4
 3.700  0.8952  -67.8   1.857  108.8  0.1140   28.1  0.8975  -52.3
 3.800  0.8924  -69.3   1.841  107.1  0.1158   26.6  0.8942  -53.3
 3.900  0.8901  -70.8   1.827  105.3  0.1177   25.1  0.8912  -54.3
 4.000  0.8885  -72.3   1.814  103.5  0.1196   23.7  0.8884  -55.3
 4.100  0.8854  -73.6   1.799  101.9  0.1209   22.3  0.8851  -56.1
 4.200  0.8828  -75.0   1.785  100.3  0.1223   20.8  0.8820  -57.0
 4.300  0.8806  -76.4   1.773   98.7  0.1238   19.5  0.8790  -57.9
 4.400  0.8790  -77.7   1.762   97.1  0.1254   18.1  0.8763  -58.7
 4.500  0.8779  -79.1   1.752   95.4  0.1270   16.8  0.8738  -59.6
 4.600  0.8748  -80.4   1.741   93.9  0.1281   15.4  0.8701  -60.5
 4.700  0.8722  -81.7   1.731   92.3  0.1294   14.0  0.8666  -61.4
 4.800  0.8700  -83.0   1.723   90.8  0.1307   12.6  0.8633  -62.3
 4.900  0.8683  -84.4   1.716   89.2  0.1321   11.2  0.8603  -63.2
 5.000  0.8670  -85.7   1.710   87.6  0.1335    9.9  0.8574  -64.1
 5.100  0.8629  -86.9   1.699   86.1  0.1345    8.6  0.8536  -64.9
 5.200  0.8592  -88.2   1.688   84.5  0.1356    7.2  0.8500  -65.8
 5.300  0.8559  -89.4   1.679   83.0  0.1368    5.9  0.8466  -66.7
 5.400  0.8530  -90.6   1.671   81.4  0.1381    4.7  0.8433  -67.5
 5.500  0.8505  -91.9   1.665   79.8  0.1394    3.4  0.8403  -68.4
 5.600  0.8473  -93.1   1.656   78.3  0.1402    2.1  0.8368  -69.3
 5.700  0.8444  -94.3   1.648   76.8  0.1411    0.8  0.8335  -70.3
 5.800  0.8419  -95.5   1.642   75.3  0.1421   -0.5  0.8304  -71.3
 5.900  0.8398  -96.8   1.636   73.7  0.1431   -1.8  0.8276  -72.2
 6.000  0.8381  -98.0   1.632   72.2  0.1442   -3.0  0.8250  -73.2
 6.100  0.8329  -99.5   1.629   70.6  0.1451   -4.4  0.8207  -74.4
 6.200  0.8282 -101.0   1.627   69.0  0.1460   -5.7  0.8168  -75.6
 6.300  0.8242 -102.6   1.626   67.5  0.1471   -7.1  0.8133  -76.8
 6.400  0.8207 -104.1   1.627   65.9  0.1482   -8.4  0.8101  -78.0
 6.500  0.8179 -105.7   1.629   64.3  0.1494   -9.7  0.8073  -79.2
 6.600  0.8096 -107.5   1.624   62.6  0.1500  -11.2  0.8009  -80.6
 6.800  0.7954 -111.3   1.617   59.2  0.1516  -14.1  0.7895  -83.3
 7.000  0.7849 -115.2   1.616   55.8  0.1536  -17.0  0.7800  -86.2
 7.200  0.7641 -119.9   1.604   52.3  0.1540  -20.0  0.7609  -89.6
 7.400  0.7487 -124.9   1.598   48.7  0.1549  -23.0  0.7446  -93.1
 7.600  0.7323 -130.3   1.591   45.1  0.1556  -26.1  0.7278  -96.8
 7.800  0.7167 -136.4   1.585   41.4  0.1563  -29.3  0.7110 -100.8
 8.000  0.7095 -142.7   1.585   37.7  0.1574  -32.4  0.6977 -104.9
 8.200  0.6917 -150.5   1.570   33.5  0.1565  -36.1  0.6762 -110.4
 8.400  0.6875 -158.7   1.564   29.2  0.1563  -39.8  0.6612 -116.1
 8.600  0.6827 -167.2   1.545   24.9  0.1546  -43.5  0.6433 -122.4
 8.800  0.6800 -176.3   1.513   20.3  0.1516  -47.5  0.6240 -129.3
 9.000  0.6945  174.7   1.491   15.6  0.1494  -51.6  0.6143 -136.5
 9.200  0.6928  169.2   1.441   11.5  0.1444  -55.1  0.5944 -143.5
 9.400  0.6974  163.7   1.398    7.1  0.1399  -58.8  0.5838 -150.9
 9.600  0.7052  158.7   1.353    3.0  0.1349  -62.3  0.5776 -158.1
 9.800  0.7146  154.2   1.304   -0.9  0.1291  -65.4  0.5750 -165.2
10.000  0.7284  149.8   1.261   -5.1  0.1238  -68.9  0.5811 -172.2
!
!  f       NFmin   Gammaopt  rn/50
! GHz       dB    MAG  ANG    -
 0.450      0.54  0.90    6   0.96
 0.900      0.77  0.88   13   1.01
 2.400      1.03  0.86   32   0.70
 5.500      1.54  0.73   97   0.46
!
! (c) 2016  Infineon Technologies AG, Munich
