! Infineon Technologies  Discrete & RF Semiconductors
! BFP780
! VCE =  5.0 V,  IC =  50 mA
! Common Emitter S-Parameters:                            Jul 2015
# GHz  S  MA  R  50
!  f         S11            S21            S12            S22
! GHz     MAG   ANG      MAG   ANG      MAG   ANG      MAG   ANG
 0.030  0.4419  -30.8  67.105  168.5  0.0053   60.9  0.8929  -15.3
 0.040  0.4513  -40.2  66.081  164.7  0.0059   65.3  0.8768  -20.5
 0.050  0.4696  -48.9  65.020  160.8  0.0086   63.5  0.8727  -25.4
 0.060  0.4842  -57.0  63.741  157.5  0.0079   61.8  0.8502  -30.1
 0.070  0.4965  -64.7  62.288  154.0  0.0091   53.7  0.8355  -34.7
 0.080  0.5176  -72.0  60.766  150.7  0.0119   55.1  0.8204  -39.5
 0.090  0.5340  -78.3  59.075  147.7  0.0123   56.1  0.8034  -43.7
 0.100  0.5483  -84.2  57.376  144.8  0.0141   49.0  0.7820  -47.7
 0.110  0.5646  -89.7  55.642  141.9  0.0148   53.2  0.7638  -52.1
 0.120  0.5798  -94.6  53.950  139.3  0.0154   49.6  0.7469  -55.7
 0.130  0.5940  -99.2  52.303  136.9  0.0157   46.5  0.7284  -59.3
 0.140  0.6057 -103.3  50.568  134.5  0.0165   47.0  0.7090  -62.8
 0.150  0.6176 -107.1  49.001  132.4  0.0175   43.1  0.6944  -66.0
 0.200  0.6661 -122.4  41.721  123.1  0.0200   37.5  0.6205  -80.4
 0.250  0.6957 -133.4  35.913  116.0  0.0217   32.6  0.5665  -92.1
 0.300  0.7160 -141.6  31.208  110.3  0.0229   29.6  0.5232 -101.9
 0.350  0.7306 -148.0  27.501  105.8  0.0234   27.1  0.4917 -110.0
 0.400  0.7413 -153.1  24.504  102.0  0.0238   26.0  0.4683 -116.8
 0.450  0.7477 -157.2  22.070   98.7  0.0246   24.2  0.4515 -122.6
 0.500  0.7527 -160.8  20.040   95.8  0.0249   23.0  0.4365 -127.7
 0.600  0.7620 -166.6  16.892   90.9  0.0255   21.6  0.4184 -136.2
 0.700  0.7651 -171.2  14.562   86.6  0.0257   21.2  0.4054 -142.9
 0.800  0.7714 -175.0  12.792   83.0  0.0265   20.7  0.4006 -148.2
 0.900  0.7737 -178.4  11.388   79.6  0.0268   20.7  0.3958 -152.9
 1.000  0.7783  178.6  10.261   76.4  0.0272   20.1  0.3968 -156.7
 1.100  0.7788  176.0   9.315   73.4  0.0279   20.6  0.3962 -160.3
 1.200  0.7838  173.5   8.547   70.6  0.0282   21.1  0.4002 -163.0
 1.300  0.7841  171.2   7.876   67.8  0.0286   21.1  0.4014 -165.8
 1.400  0.7874  169.1   7.303   65.1  0.0291   21.3  0.4066 -168.1
 1.500  0.7877  167.1   6.801   62.6  0.0295   22.0  0.4100 -170.3
 1.600  0.7917  165.0   6.369   59.9  0.0300   21.7  0.4161 -172.4
 1.700  0.7918  163.1   5.977   57.4  0.0306   22.1  0.4211 -174.4
 1.800  0.7930  161.2   5.619   54.8  0.0310   22.4  0.4276 -176.3
 1.900  0.7946  159.5   5.304   52.5  0.0314   22.6  0.4336 -178.0
 2.000  0.7988  157.7   5.035   50.0  0.0322   22.5  0.4408 -179.7
 2.100  0.7995  156.1   4.764   47.6  0.0323   22.7  0.4433  179.3
 2.200  0.7995  154.4   4.524   45.2  0.0328   23.2  0.4490  177.6
 2.300  0.8014  152.8   4.310   42.9  0.0334   23.2  0.4539  175.9
 2.400  0.8044  151.2   4.118   40.5  0.0339   23.8  0.4602  174.3
 2.500  0.8060  149.5   3.937   38.1  0.0345   23.8  0.4664  172.7
 2.600  0.8070  147.7   3.757   35.7  0.0351   23.9  0.4725  171.0
 2.700  0.8071  146.2   3.594   33.5  0.0356   24.0  0.4786  169.4
 2.800  0.8098  144.6   3.446   31.2  0.0362   24.2  0.4855  167.7
 2.900  0.8114  143.0   3.303   28.9  0.0369   24.2  0.4934  166.1
 3.000  0.8135  141.4   3.170   26.5  0.0377   24.3  0.5008  164.4
 3.100  0.8148  139.9   3.042   24.4  0.0382   24.3  0.5084  162.8
 3.200  0.8160  138.5   2.922   22.2  0.0389   24.2  0.5158  161.2
 3.300  0.8173  137.0   2.808   20.0  0.0396   24.2  0.5238  159.8
 3.400  0.8196  135.5   2.702   17.8  0.0401   24.2  0.5319  158.3
 3.500  0.8211  134.1   2.603   15.9  0.0408   24.3  0.5398  156.9
 3.600  0.8221  132.5   2.503   13.7  0.0416   24.4  0.5477  155.3
 3.700  0.8239  131.2   2.416   11.6  0.0423   24.0  0.5549  154.0
 3.800  0.8255  129.7   2.325    9.6  0.0430   24.0  0.5631  152.4
 3.900  0.8280  128.5   2.246    7.6  0.0436   24.0  0.5711  151.1
 4.000  0.8299  127.1   2.166    5.7  0.0444   23.6  0.5789  149.7
 4.100  0.8323  125.8   2.095    3.6  0.0453   23.5  0.5869  148.5
 4.200  0.8345  124.5   2.023    1.7  0.0460   23.0  0.5949  147.0
 4.300  0.8364  123.2   1.957   -0.2  0.0469   22.8  0.6029  145.9
 4.400  0.8392  122.1   1.893   -2.1  0.0478   22.7  0.6104  144.6
 4.500  0.8415  120.8   1.834   -4.0  0.0485   22.3  0.6177  143.4
 4.600  0.8442  119.6   1.775   -5.8  0.0492   21.9  0.6251  142.1
 4.700  0.8456  118.4   1.720   -7.7  0.0501   21.6  0.6318  140.9
 4.800  0.8482  117.4   1.666   -9.5  0.0509   21.4  0.6388  139.7
 4.900  0.8496  116.4   1.615  -11.2  0.0517   20.9  0.6445  138.4
 5.000  0.8516  115.2   1.567  -13.0  0.0526   20.4  0.6514  137.2
 5.100  0.8537  114.4   1.521  -14.8  0.0536   20.0  0.6568  135.9
 5.200  0.8546  113.3   1.477  -16.5  0.0541   19.6  0.6629  134.8
 5.300  0.8560  112.4   1.433  -18.3  0.0550   18.9  0.6680  133.5
 5.400  0.8571  111.4   1.392  -20.0  0.0559   18.6  0.6735  132.4
 5.500  0.8573  110.6   1.351  -21.6  0.0566   18.1  0.6776  131.1
 5.600  0.8581  109.8   1.314  -23.2  0.0576   17.8  0.6830  129.9
 5.700  0.8574  108.9   1.280  -24.9  0.0585   17.2  0.6878  128.7
 5.800  0.8585  108.0   1.245  -26.5  0.0595   16.7  0.6927  127.4
 5.900  0.8578  107.2   1.213  -28.1  0.0605   16.1  0.6974  126.2
 6.000  0.8585  106.1   1.180  -29.7  0.0615   15.4  0.7025  124.9
!
!  f       NFmin   Gammaopt  rn/50
! GHz       dB    MAG  ANG    -
 0.450      1.39  0.42 -177   0.07
 0.900      1.42  0.40 -172   0.08
 1.500      1.49  0.47 -163   0.08
 1.800      1.66  0.48 -159   0.09
 2.400      1.79  0.49 -150   0.12
 3.000      2.06  0.53 -140   0.17
 3.500      2.54  0.67 -126   0.26
!
! (c) 2015  Infineon Technologies AG, Munich
