! Infineon Technologies  Discrete & RF Semiconductors
! BFP720F
! VCE =  2.5 V,  IC =  13 mA
! Common Emitter S-Parameters:                            Jan 2016
# GHz  S  MA  R  50
!  f         S11            S21            S12            S22
! GHz     MAG   ANG      MAG   ANG      MAG   ANG      MAG   ANG
 0.010  0.8277   -0.2  29.874  179.2  0.0007  -33.8  0.9712    1.4
 0.015  0.8314   -0.8  29.755  178.1  0.0003   31.4  0.9825    0.1
 0.020  0.8351   -1.3  29.647  177.0  0.0007   96.6  0.9942   -1.1
 0.025  0.8347   -1.7  29.673  176.9  0.0009   91.7  0.9942   -1.3
 0.030  0.8344   -2.1  29.698  176.8  0.0011   88.4  0.9942   -1.4
 0.035  0.8341   -2.4  29.724  176.7  0.0012   86.1  0.9942   -1.6
 0.040  0.8338   -2.8  29.750  176.7  0.0014   84.4  0.9942   -1.7
 0.045  0.8336   -3.2  29.776  176.6  0.0016   83.0  0.9943   -1.9
 0.050  0.8334   -3.6  29.802  176.5  0.0018   82.0  0.9943   -2.0
 0.055  0.8331   -4.0  29.778  176.2  0.0019   82.5  0.9943   -2.2
 0.060  0.8329   -4.3  29.754  175.9  0.0021   83.0  0.9942   -2.4
 0.065  0.8327   -4.7  29.732  175.7  0.0022   83.4  0.9942   -2.7
 0.070  0.8325   -5.0  29.709  175.4  0.0024   83.8  0.9942   -2.9
 0.075  0.8323   -5.4  29.688  175.1  0.0025   84.1  0.9942   -3.1
 0.080  0.8322   -5.8  29.667  174.8  0.0027   84.3  0.9942   -3.3
 0.085  0.8321   -6.1  29.648  174.5  0.0028   84.6  0.9943   -3.5
 0.090  0.8321   -6.5  29.628  174.3  0.0030   84.8  0.9943   -3.8
 0.095  0.8321   -6.8  29.610  174.0  0.0031   85.0  0.9944   -4.0
 0.100  0.8321   -7.2  29.592  173.7  0.0033   85.2  0.9945   -4.2
 0.105  0.8316   -7.6  29.552  173.4  0.0035   85.1  0.9941   -4.4
 0.110  0.8311   -7.9  29.514  173.1  0.0036   85.0  0.9936   -4.7
 0.115  0.8306   -8.3  29.475  172.9  0.0038   84.9  0.9932   -4.9
 0.120  0.8302   -8.6  29.438  172.6  0.0040   84.8  0.9928   -5.1
 0.125  0.8298   -9.0  29.401  172.3  0.0041   84.8  0.9925   -5.3
 0.130  0.8294   -9.4  29.365  172.0  0.0043   84.7  0.9921   -5.6
 0.135  0.8291   -9.7  29.330  171.7  0.0045   84.7  0.9917   -5.8
 0.140  0.8288  -10.1  29.295  171.5  0.0047   84.6  0.9914   -6.0
 0.145  0.8285  -10.4  29.261  171.2  0.0048   84.5  0.9911   -6.3
 0.150  0.8283  -10.8  29.228  170.9  0.0050   84.5  0.9908   -6.5
 0.155  0.8278  -11.1  29.186  170.6  0.0052   84.3  0.9901   -6.7
 0.160  0.8274  -11.5  29.144  170.4  0.0054   84.0  0.9894   -6.9
 0.165  0.8270  -11.8  29.102  170.1  0.0055   83.8  0.9887   -7.1
 0.170  0.8266  -12.2  29.062  169.9  0.0057   83.6  0.9881   -7.3
 0.175  0.8263  -12.5  29.022  169.6  0.0059   83.4  0.9874   -7.5
 0.180  0.8259  -12.9  28.982  169.3  0.0061   83.2  0.9868   -7.8
 0.185  0.8257  -13.2  28.943  169.1  0.0063   83.1  0.9862   -8.0
 0.190  0.8254  -13.6  28.905  168.8  0.0064   82.9  0.9856   -8.2
 0.195  0.8252  -13.9  28.867  168.6  0.0066   82.7  0.9850   -8.4
 0.200  0.8250  -14.3  28.830  168.3  0.0068   82.6  0.9844   -8.6
 0.220  0.8229  -15.7  28.717  167.3  0.0074   81.7  0.9821   -9.4
 0.240  0.8213  -17.1  28.612  166.4  0.0081   80.9  0.9801  -10.3
 0.260  0.8195  -18.5  28.486  165.4  0.0087   80.0  0.9770  -11.1
 0.280  0.8174  -20.0  28.337  164.5  0.0094   79.2  0.9729  -12.0
 0.300  0.8158  -21.4  28.195  163.6  0.0100   78.5  0.9691  -12.8
 0.320  0.8135  -22.8  28.050  162.7  0.0106   77.8  0.9664  -13.6
 0.340  0.8117  -24.2  27.913  161.8  0.0112   77.1  0.9639  -14.5
 0.360  0.8096  -25.6  27.789  160.8  0.0118   76.3  0.9607  -15.3
 0.380  0.8072  -27.0  27.679  159.9  0.0125   75.5  0.9568  -16.2
 0.400  0.8053  -28.4  27.576  159.0  0.0131   74.7  0.9532  -17.0
 0.420  0.8023  -29.8  27.432  158.1  0.0137   73.9  0.9496  -17.8
 0.440  0.7997  -31.1  27.295  157.2  0.0143   73.2  0.9462  -18.5
 0.450  0.7986  -31.8  27.229  156.8  0.0146   72.9  0.9445  -18.9
 0.460  0.7973  -32.5  27.165  156.4  0.0149   72.5  0.9423  -19.3
 0.480  0.7950  -33.8  27.041  155.6  0.0155   71.8  0.9381  -20.1
 0.500  0.7932  -35.2  26.922  154.8  0.0161   71.1  0.9341  -20.9
 0.520  0.7895  -36.6  26.794  153.9  0.0167   70.3  0.9292  -21.7
 0.540  0.7863  -38.0  26.672  153.1  0.0173   69.5  0.9244  -22.4
 0.560  0.7835  -39.4  26.556  152.2  0.0178   68.7  0.9198  -23.2
 0.580  0.7812  -40.8  26.447  151.3  0.0184   68.0  0.9154  -24.0
 0.600  0.7794  -42.2  26.344  150.4  0.0190   67.4  0.9112  -24.8
 0.620  0.7756  -43.5  26.190  149.6  0.0195   66.6  0.9063  -25.5
 0.640  0.7722  -44.8  26.042  148.8  0.0200   65.9  0.9015  -26.3
 0.660  0.7692  -46.1  25.898  148.0  0.0206   65.3  0.8969  -27.0
 0.680  0.7666  -47.5  25.760  147.1  0.0211   64.6  0.8924  -27.7
 0.700  0.7644  -48.8  25.628  146.3  0.0216   64.0  0.8881  -28.5
 0.720  0.7604  -50.1  25.504  145.5  0.0221   63.3  0.8825  -29.2
 0.740  0.7568  -51.5  25.385  144.7  0.0226   62.6  0.8771  -29.9
 0.760  0.7536  -52.8  25.271  143.9  0.0231   61.9  0.8718  -30.6
 0.780  0.7509  -54.2  25.162  143.0  0.0236   61.3  0.8667  -31.4
 0.800  0.7486  -55.6  25.059  142.2  0.0241   60.7  0.8617  -32.1
 0.820  0.7447  -56.9  24.897  141.4  0.0245   60.0  0.8559  -32.8
 0.840  0.7413  -58.1  24.740  140.6  0.0250   59.4  0.8502  -33.4
 0.860  0.7381  -59.4  24.587  139.8  0.0254   58.8  0.8447  -34.1
 0.880  0.7354  -60.7  24.440  139.0  0.0259   58.2  0.8392  -34.8
 0.900  0.7330  -62.0  24.297  138.2  0.0263   57.6  0.8339  -35.5
 0.920  0.7294  -63.2  24.140  137.5  0.0267   56.9  0.8280  -36.1
 0.940  0.7262  -64.4  23.988  136.7  0.0271   56.3  0.8222  -36.8
 0.960  0.7233  -65.7  23.840  135.9  0.0275   55.7  0.8165  -37.5
 0.980  0.7208  -66.9  23.696  135.2  0.0279   55.1  0.8110  -38.1
 1.000  0.7186  -68.2  23.556  134.4  0.0283   54.5  0.8055  -38.8
 1.020  0.7151  -69.4  23.396  133.7  0.0287   53.9  0.7997  -39.4
 1.040  0.7118  -70.6  23.240  133.0  0.0291   53.3  0.7940  -40.1
 1.060  0.7089  -71.8  23.088  132.3  0.0294   52.8  0.7883  -40.7
 1.080  0.7063  -73.0  22.939  131.5  0.0298   52.2  0.7828  -41.3
 1.100  0.7040  -74.2  22.794  130.8  0.0302   51.7  0.7774  -42.0
 1.120  0.7005  -75.4  22.642  130.1  0.0305   51.1  0.7716  -42.6
 1.140  0.6972  -76.6  22.494  129.4  0.0308   50.6  0.7658  -43.2
 1.160  0.6943  -77.8  22.349  128.7  0.0312   50.0  0.7601  -43.8
 1.180  0.6917  -79.0  22.208  127.9  0.0315   49.5  0.7545  -44.4
 1.200  0.6894  -80.2  22.070  127.2  0.0318   49.0  0.7490  -45.0
 1.220  0.6861  -81.3  21.916  126.5  0.0321   48.5  0.7432  -45.6
 1.240  0.6830  -82.5  21.765  125.9  0.0324   48.0  0.7375  -46.1
 1.260  0.6802  -83.6  21.617  125.2  0.0327   47.5  0.7319  -46.7
 1.280  0.6777  -84.7  21.472  124.5  0.0330   47.0  0.7264  -47.3
 1.300  0.6754  -85.9  21.330  123.8  0.0333   46.5  0.7209  -47.9
 1.320  0.6725  -87.0  21.180  123.2  0.0336   46.0  0.7155  -48.4
 1.340  0.6699  -88.0  21.032  122.5  0.0338   45.6  0.7102  -49.0
 1.360  0.6675  -89.1  20.887  121.9  0.0341   45.1  0.7050  -49.5
 1.380  0.6654  -90.2  20.745  121.3  0.0343   44.6  0.6998  -50.0
 1.400  0.6635  -91.3  20.605  120.6  0.0346   44.2  0.6947  -50.6
 1.420  0.6606  -92.4  20.457  120.0  0.0348   43.7  0.6892  -51.1
 1.440  0.6579  -93.4  20.311  119.3  0.0350   43.3  0.6837  -51.7
 1.460  0.6554  -94.5  20.167  118.7  0.0353   42.8  0.6783  -52.2
 1.480  0.6532  -95.6  20.026  118.1  0.0355   42.3  0.6729  -52.7
 1.500  0.6512  -96.7  19.888  117.4  0.0357   41.9  0.6676  -53.3
 1.520  0.6487  -97.7  19.753  116.8  0.0359   41.5  0.6627  -53.8
 1.540  0.6465  -98.7  19.619  116.2  0.0361   41.1  0.6578  -54.2
 1.560  0.6444  -99.7  19.488  115.6  0.0363   40.7  0.6529  -54.7
 1.580  0.6425 -100.8  19.359  115.0  0.0365   40.4  0.6481  -55.2
 1.600  0.6409 -101.8  19.232  114.4  0.0367   40.0  0.6434  -55.7
 1.620  0.6386 -102.7  19.088  113.8  0.0369   39.6  0.6383  -56.2
 1.640  0.6366 -103.7  18.947  113.3  0.0371   39.2  0.6333  -56.6
 1.660  0.6347 -104.7  18.807  112.7  0.0372   38.8  0.6283  -57.1
 1.680  0.6329 -105.6  18.669  112.1  0.0374   38.4  0.6234  -57.6
 1.700  0.6314 -106.6  18.533  111.5  0.0376   38.0  0.6185  -58.1
 1.720  0.6297 -107.5  18.395  111.0  0.0378   37.6  0.6141  -58.5
 1.740  0.6282 -108.3  18.259  110.4  0.0379   37.3  0.6098  -59.0
 1.760  0.6268 -109.2  18.124  109.9  0.0381   36.9  0.6056  -59.4
 1.780  0.6256 -110.1  17.991  109.4  0.0382   36.6  0.6013  -59.8
 1.800  0.6245 -111.0  17.859  108.8  0.0384   36.2  0.5971  -60.3
 1.820  0.6225 -111.9  17.728  108.3  0.0385   35.9  0.5927  -60.7
 1.840  0.6207 -112.7  17.597  107.8  0.0387   35.6  0.5884  -61.1
 1.860  0.6190 -113.6  17.469  107.3  0.0388   35.2  0.5840  -61.5
 1.880  0.6174 -114.4  17.342  106.7  0.0390   34.9  0.5798  -62.0
 1.900  0.6160 -115.3  17.216  106.2  0.0391   34.6  0.5755  -62.4
 1.920  0.6147 -116.1  17.094  105.7  0.0392   34.3  0.5716  -62.8
 1.940  0.6136 -116.8  16.974  105.3  0.0393   34.0  0.5677  -63.1
 1.960  0.6125 -117.6  16.854  104.8  0.0394   33.7  0.5638  -63.5
 1.980  0.6115 -118.3  16.736  104.3  0.0395   33.4  0.5600  -63.9
 2.000  0.6107 -119.1  16.619  103.8  0.0396   33.1  0.5562  -64.3
 2.020  0.6095 -119.8  16.499  103.4  0.0397   32.8  0.5527  -64.6
 2.040  0.6083 -120.5  16.381  102.9  0.0398   32.5  0.5492  -65.0
 2.060  0.6073 -121.2  16.263  102.5  0.0399   32.2  0.5457  -65.4
 2.080  0.6064 -122.0  16.146  102.0  0.0400   32.0  0.5423  -65.7
 2.100  0.6055 -122.7  16.031  101.5  0.0401   31.7  0.5388  -66.1
 2.120  0.6047 -123.4  15.916  101.1  0.0402   31.4  0.5354  -66.5
 2.140  0.6041 -124.1  15.803  100.6  0.0403   31.1  0.5320  -66.8
 2.160  0.6035 -124.8  15.690  100.1  0.0404   30.8  0.5287  -67.2
 2.180  0.6031 -125.6  15.579   99.6  0.0405   30.6  0.5253  -67.6
 2.200  0.6027 -126.3  15.469   99.1  0.0406   30.3  0.5220  -68.0
 2.220  0.6018 -126.9  15.361   98.7  0.0407   30.1  0.5190  -68.3
 2.240  0.6010 -127.5  15.253   98.3  0.0407   29.8  0.5159  -68.6
 2.260  0.6002 -128.1  15.146   97.9  0.0408   29.6  0.5129  -68.9
 2.280  0.5996 -128.7  15.040   97.5  0.0409   29.4  0.5099  -69.2
 2.300  0.5990 -129.3  14.934   97.1  0.0409   29.1  0.5069  -69.6
 2.320  0.5984 -129.9  14.830   96.7  0.0410   28.9  0.5039  -69.9
 2.340  0.5979 -130.6  14.726   96.3  0.0411   28.7  0.5010  -70.2
 2.360  0.5975 -131.2  14.623   95.9  0.0412   28.5  0.4980  -70.5
 2.380  0.5972 -131.8  14.520   95.4  0.0412   28.2  0.4951  -70.9
 2.400  0.5969 -132.4  14.419   95.0  0.0413   28.0  0.4922  -71.2
 2.420  0.5962 -132.9  14.323   94.6  0.0413   27.8  0.4896  -71.5
 2.440  0.5956 -133.5  14.228   94.2  0.0414   27.6  0.4871  -71.7
 2.460  0.5951 -134.0  14.133   93.9  0.0414   27.4  0.4845  -72.0
 2.480  0.5946 -134.6  14.039   93.5  0.0415   27.2  0.4820  -72.2
 2.500  0.5942 -135.1  13.946   93.1  0.0415   27.0  0.4794  -72.5
 2.520  0.5938 -135.7  13.853   92.7  0.0415   26.8  0.4769  -72.8
 2.540  0.5935 -136.2  13.761   92.3  0.0416   26.6  0.4744  -73.1
 2.560  0.5932 -136.8  13.670   91.8  0.0416   26.4  0.4719  -73.3
 2.580  0.5930 -137.3  13.580   91.4  0.0417   26.2  0.4694  -73.6
 2.600  0.5928 -137.9  13.490   91.0  0.0417   26.0  0.4669  -73.9
 2.620  0.5922 -138.3  13.403   90.7  0.0417   25.9  0.4648  -74.1
 2.640  0.5916 -138.8  13.316   90.3  0.0418   25.7  0.4626  -74.3
 2.660  0.5911 -139.2  13.229   90.0  0.0418   25.6  0.4605  -74.5
 2.680  0.5905 -139.7  13.143   89.7  0.0419   25.5  0.4584  -74.8
 2.700  0.5901 -140.1  13.057   89.3  0.0419   25.3  0.4563  -75.0
 2.720  0.5896 -140.5  12.972   89.0  0.0419   25.2  0.4542  -75.2
 2.740  0.5892 -141.0  12.888   88.6  0.0420   25.1  0.4521  -75.4
 2.760  0.5888 -141.4  12.804   88.2  0.0420   25.0  0.4500  -75.6
 2.780  0.5885 -141.9  12.720   87.9  0.0421   24.8  0.4479  -75.9
 2.800  0.5882 -142.3  12.637   87.5  0.0421   24.7  0.4458  -76.1
 2.820  0.5880 -142.7  12.562   87.2  0.0421   24.6  0.4442  -76.3
 2.840  0.5879 -143.1  12.487   86.9  0.0422   24.4  0.4425  -76.5
 2.860  0.5878 -143.6  12.413   86.5  0.0422   24.3  0.4409  -76.8
 2.880  0.5878 -144.0  12.339   86.2  0.0423   24.2  0.4393  -77.0
 2.900  0.5878 -144.4  12.266   85.9  0.0423   24.0  0.4377  -77.2
 2.920  0.5878 -144.8  12.193   85.5  0.0424   23.9  0.4361  -77.5
 2.940  0.5878 -145.2  12.120   85.2  0.0424   23.8  0.4345  -77.7
 2.960  0.5879 -145.7  12.048   84.8  0.0425   23.7  0.4329  -77.9
 2.980  0.5880 -146.1  11.976   84.5  0.0425   23.5  0.4314  -78.2
 3.000  0.5881 -146.5  11.905   84.1  0.0426   23.4  0.4298  -78.4
 3.100  0.5866 -148.0  11.581   82.8  0.0428   22.9  0.4232  -79.1
 3.200  0.5855 -149.5  11.263   81.3  0.0430   22.4  0.4167  -79.8
 3.300  0.5848 -151.0  10.953   79.9  0.0431   21.9  0.4103  -80.6
 3.400  0.5845 -152.5  10.651   78.3  0.0433   21.4  0.4040  -81.4
 3.500  0.5846 -154.0  10.357   76.6  0.0435   20.9  0.3977  -82.2
 3.600  0.5834 -155.2  10.109   75.4  0.0437   20.6  0.3927  -82.7
 3.700  0.5825 -156.3   9.866   74.1  0.0438   20.2  0.3877  -83.1
 3.800  0.5818 -157.5   9.628   72.7  0.0440   19.9  0.3828  -83.6
 3.900  0.5813 -158.6   9.396   71.3  0.0441   19.5  0.3779  -84.1
 4.000  0.5811 -159.8   9.170   69.8  0.0443   19.2  0.3730  -84.6
 4.100  0.5806 -160.7   8.979   68.6  0.0445   19.0  0.3692  -85.0
 4.200  0.5804 -161.7   8.792   67.4  0.0447   18.8  0.3655  -85.4
 4.300  0.5802 -162.6   8.609   66.2  0.0449   18.5  0.3617  -85.8
 4.400  0.5802 -163.6   8.431   64.9  0.0451   18.3  0.3580  -86.2
 4.500  0.5804 -164.5   8.257   63.5  0.0453   18.1  0.3543  -86.6
 4.600  0.5735 -168.4   8.103   62.4  0.0456   17.9  0.3508  -87.0
 4.700  0.5694 -172.4   7.953   61.2  0.0458   17.7  0.3473  -87.5
 4.800  0.5681 -176.5   7.806   59.9  0.0461   17.5  0.3439  -87.9
 4.900  0.5696  179.5   7.663   58.6  0.0463   17.3  0.3404  -88.3
 5.000  0.5739  175.5   7.524   57.3  0.0466   17.1  0.3370  -88.8
 5.100  0.5724  174.2   7.398   56.2  0.0469   16.9  0.3337  -89.3
 5.200  0.5711  172.8   7.275   55.0  0.0471   16.7  0.3304  -89.8
 5.300  0.5702  171.5   7.156   53.8  0.0474   16.6  0.3272  -90.3
 5.400  0.5696  170.1   7.040   52.5  0.0476   16.4  0.3240  -90.8
 5.500  0.5693  168.8   6.927   51.2  0.0479   16.2  0.3208  -91.3
 5.600  0.5677  167.4   6.822   50.0  0.0482   16.0  0.3186  -91.9
 5.700  0.5665  166.1   6.720   48.8  0.0485   15.8  0.3164  -92.6
 5.800  0.5656  164.7   6.621   47.6  0.0489   15.6  0.3143  -93.3
 5.900  0.5650  163.3   6.525   46.3  0.0492   15.4  0.3122  -93.9
 6.000  0.5648  161.9   6.432   45.0  0.0495   15.2  0.3101  -94.6
 6.100  0.5629  160.3   6.339   43.8  0.0498   14.9  0.3071  -95.5
 6.200  0.5614  158.8   6.248   42.5  0.0501   14.7  0.3041  -96.5
 6.300  0.5604  157.2   6.160   41.3  0.0504   14.4  0.3013  -97.5
 6.400  0.5598  155.6   6.076   40.0  0.0507   14.2  0.2985  -98.5
 6.500  0.5596  154.0   5.995   38.6  0.0510   13.9  0.2958  -99.5
 6.600  0.5578  152.3   5.906   37.4  0.0513   13.6  0.2915 -100.7
 6.800  0.5556  148.9   5.738   34.8  0.0520   13.0  0.2833 -103.2
 7.000  0.5555  145.4   5.582   32.0  0.0526   12.5  0.2757 -105.8
 7.200  0.5563  141.5   5.417   29.5  0.0532   11.8  0.2641 -109.3
 7.400  0.5597  137.6   5.263   26.8  0.0538   11.2  0.2535 -113.0
 7.600  0.5655  133.7   5.114   24.1  0.0544   10.5  0.2421 -117.4
 7.800  0.5737  129.9   4.968   21.5  0.0549    9.8  0.2305 -122.7
 8.000  0.5843  126.2   4.833   18.7  0.0554    9.1  0.2210 -128.4
 8.200  0.5970  122.3   4.672   16.1  0.0557    8.2  0.2094 -136.9
 8.400  0.6123  118.7   4.522   13.3  0.0560    7.3  0.2028 -146.2
 8.600  0.6276  115.3   4.365   10.6  0.0562    6.6  0.1975 -156.5
 8.800  0.6426  112.2   4.200    8.2  0.0563    6.1  0.1950 -167.9
 9.000  0.6593  109.3   4.043    5.5  0.0564    5.5  0.2002 -179.1
 9.200  0.6749  107.3   3.896    3.5  0.0566    5.0  0.2116  172.1
 9.400  0.6912  105.3   3.754    1.3  0.0567    4.5  0.2274  164.4
 9.600  0.7078  103.7   3.620   -0.8  0.0568    4.0  0.2456  157.9
 9.800  0.7244  102.4   3.493   -2.9  0.0569    3.5  0.2653  152.3
10.000  0.7414  101.1   3.371   -5.0  0.0570    3.0  0.2872  147.6
!
!  f       NFmin   Gammaopt  rn/50
! GHz       dB    MAG  ANG    -
 0.450      0.64  0.27    2   0.64
 0.900      0.67  0.23    8   0.14
 1.800      0.70  0.21   11   0.15
 2.400      0.72  0.18   18   0.13
 5.500      0.88  0.15   30   0.08
10.000      1.04  0.30  -88   0.19
!
! (c) 2016  Infineon Technologies AG, Munich
