! Infineon Technologies  Discrete & RF Semiconductors
! BFP740FESD
! VCE =  4.0 V,  IC =  8.0 mA
! Common Emitter S-Parameters:                            Jan 2016
# GHz  S  MA  R  50
!  f         S11            S21            S12            S22
! GHz     MAG   ANG      MAG   ANG      MAG   ANG      MAG   ANG
 0.010  0.9116   -0.5  23.057  179.1  0.0008    3.0  0.9779    1.1
 0.015  0.9064   -1.0  23.014  178.8  0.0009   31.0  0.9824    0.1
 0.020  0.9012   -1.5  22.972  178.5  0.0012   49.3  0.9871   -0.9
 0.025  0.9005   -1.9  22.951  178.2  0.0014   56.4  0.9872   -1.1
 0.030  0.8999   -2.3  22.931  177.9  0.0016   61.8  0.9873   -1.4
 0.035  0.8994   -2.6  22.911  177.7  0.0018   65.9  0.9875   -1.6
 0.040  0.8988   -3.0  22.892  177.4  0.0020   69.1  0.9876   -1.8
 0.045  0.8983   -3.4  22.873  177.1  0.0023   71.7  0.9878   -2.1
 0.050  0.8979   -3.8  22.855  176.8  0.0025   73.8  0.9880   -2.3
 0.055  0.8978   -4.2  22.862  176.6  0.0027   74.5  0.9878   -2.6
 0.060  0.8978   -4.6  22.869  176.4  0.0029   75.1  0.9877   -2.8
 0.065  0.8978   -4.9  22.877  176.1  0.0032   75.7  0.9875   -3.1
 0.070  0.8979   -5.3  22.885  175.9  0.0034   76.1  0.9874   -3.3
 0.075  0.8980   -5.7  22.893  175.7  0.0036   76.5  0.9873   -3.6
 0.080  0.8981   -6.1  22.901  175.5  0.0038   76.9  0.9873   -3.9
 0.085  0.8983   -6.5  22.910  175.3  0.0040   77.2  0.9872   -4.1
 0.090  0.8985   -6.8  22.920  175.0  0.0043   77.5  0.9872   -4.4
 0.095  0.8987   -7.2  22.929  174.8  0.0045   77.8  0.9872   -4.6
 0.100  0.8990   -7.6  22.939  174.6  0.0047   78.0  0.9872   -4.9
 0.105  0.8984   -8.0  22.931  174.3  0.0049   78.0  0.9867   -5.1
 0.110  0.8978   -8.4  22.924  174.0  0.0052   78.0  0.9863   -5.4
 0.115  0.8972   -8.8  22.917  173.8  0.0054   78.0  0.9859   -5.6
 0.120  0.8967   -9.2  22.910  173.5  0.0057   78.1  0.9855   -5.9
 0.125  0.8963   -9.5  22.905  173.2  0.0059   78.1  0.9851   -6.1
 0.130  0.8959   -9.9  22.899  172.9  0.0062   78.1  0.9848   -6.4
 0.135  0.8955  -10.3  22.895  172.6  0.0064   78.1  0.9844   -6.6
 0.140  0.8951  -10.7  22.891  172.4  0.0067   78.1  0.9841   -6.9
 0.145  0.8949  -11.1  22.887  172.1  0.0069   78.1  0.9838   -7.1
 0.150  0.8946  -11.5  22.884  171.8  0.0072   78.1  0.9835   -7.4
 0.155  0.8944  -11.9  22.869  171.5  0.0074   78.0  0.9829   -7.6
 0.160  0.8941  -12.2  22.855  171.3  0.0076   77.9  0.9824   -7.9
 0.165  0.8940  -12.6  22.842  171.0  0.0079   77.8  0.9818   -8.1
 0.170  0.8938  -12.9  22.828  170.8  0.0081   77.8  0.9813   -8.4
 0.175  0.8937  -13.3  22.816  170.5  0.0083   77.7  0.9808   -8.6
 0.180  0.8936  -13.7  22.803  170.2  0.0085   77.6  0.9803   -8.9
 0.185  0.8936  -14.0  22.792  170.0  0.0087   77.6  0.9798   -9.1
 0.190  0.8936  -14.4  22.780  169.7  0.0090   77.5  0.9794   -9.4
 0.195  0.8936  -14.7  22.769  169.5  0.0092   77.5  0.9789   -9.6
 0.200  0.8937  -15.1  22.759  169.2  0.0094   77.4  0.9785   -9.9
 0.220  0.8909  -16.5  22.661  168.0  0.0103   76.9  0.9759  -10.9
 0.240  0.8886  -18.0  22.572  166.9  0.0112   76.4  0.9736  -11.9
 0.260  0.8864  -19.4  22.503  165.8  0.0122   75.8  0.9709  -12.9
 0.280  0.8844  -20.9  22.451  164.9  0.0131   75.1  0.9677  -13.8
 0.300  0.8829  -22.4  22.405  163.9  0.0140   74.5  0.9648  -14.7
 0.320  0.8800  -23.8  22.303  162.9  0.0148   73.8  0.9613  -15.7
 0.340  0.8777  -25.3  22.208  161.9  0.0157   73.1  0.9580  -16.6
 0.360  0.8754  -26.7  22.109  160.9  0.0165   72.4  0.9544  -17.6
 0.380  0.8731  -28.2  22.007  159.9  0.0174   71.7  0.9504  -18.5
 0.400  0.8714  -29.6  21.911  158.9  0.0183   71.1  0.9466  -19.4
 0.420  0.8684  -31.0  21.800  157.9  0.0191   70.3  0.9426  -20.3
 0.440  0.8659  -32.4  21.696  156.9  0.0199   69.6  0.9389  -21.2
 0.450  0.8649  -33.1  21.647  156.4  0.0203   69.3  0.9371  -21.7
 0.460  0.8633  -33.8  21.588  155.9  0.0207   68.9  0.9348  -22.2
 0.480  0.8604  -35.2  21.474  155.0  0.0216   68.2  0.9303  -23.1
 0.500  0.8581  -36.6  21.366  154.0  0.0224   67.5  0.9260  -24.0
 0.520  0.8542  -37.9  21.237  153.1  0.0232   66.7  0.9209  -24.8
 0.540  0.8508  -39.3  21.114  152.2  0.0239   66.0  0.9159  -25.7
 0.560  0.8479  -40.7  20.997  151.2  0.0247   65.3  0.9111  -26.5
 0.580  0.8455  -42.0  20.885  150.3  0.0254   64.6  0.9066  -27.3
 0.600  0.8435  -43.4  20.779  149.3  0.0262   64.0  0.9022  -28.2
 0.620  0.8397  -44.7  20.650  148.5  0.0269   63.2  0.8969  -29.0
 0.640  0.8363  -46.0  20.526  147.6  0.0276   62.5  0.8919  -29.9
 0.660  0.8333  -47.3  20.406  146.8  0.0283   61.8  0.8870  -30.8
 0.680  0.8308  -48.7  20.290  145.9  0.0291   61.1  0.8824  -31.6
 0.700  0.8288  -50.0  20.180  145.0  0.0298   60.5  0.8779  -32.5
 0.720  0.8253  -51.2  20.031  144.2  0.0304   59.8  0.8723  -33.3
 0.740  0.8221  -52.4  19.885  143.4  0.0311   59.1  0.8668  -34.1
 0.760  0.8193  -53.6  19.744  142.6  0.0317   58.5  0.8616  -34.9
 0.780  0.8169  -54.9  19.606  141.7  0.0324   57.9  0.8564  -35.7
 0.800  0.8149  -56.1  19.473  140.9  0.0330   57.3  0.8515  -36.5
 0.820  0.8112  -57.3  19.347  140.1  0.0336   56.6  0.8460  -37.3
 0.840  0.8079  -58.6  19.225  139.3  0.0342   55.9  0.8406  -38.0
 0.860  0.8049  -59.9  19.107  138.5  0.0348   55.3  0.8354  -38.8
 0.880  0.8024  -61.1  18.992  137.6  0.0354   54.6  0.8304  -39.6
 0.900  0.8002  -62.4  18.882  136.8  0.0360   54.0  0.8255  -40.4
 0.920  0.7968  -63.5  18.744  136.1  0.0366   53.4  0.8198  -41.1
 0.940  0.7937  -64.7  18.610  135.4  0.0371   52.7  0.8142  -41.9
 0.960  0.7909  -65.9  18.478  134.6  0.0377   52.1  0.8087  -42.6
 0.980  0.7885  -67.0  18.349  133.9  0.0382   51.6  0.8034  -43.4
 1.000  0.7864  -68.2  18.224  133.1  0.0388   51.0  0.7982  -44.2
 1.020  0.7830  -69.3  18.090  132.4  0.0393   50.4  0.7927  -44.9
 1.040  0.7800  -70.4  17.959  131.7  0.0397   49.8  0.7873  -45.6
 1.060  0.7772  -71.5  17.831  130.9  0.0402   49.2  0.7821  -46.3
 1.080  0.7748  -72.7  17.706  130.2  0.0407   48.7  0.7770  -47.1
 1.100  0.7726  -73.8  17.584  129.4  0.0412   48.1  0.7720  -47.8
 1.120  0.7695  -74.9  17.454  128.7  0.0416   47.5  0.7665  -48.5
 1.140  0.7667  -76.0  17.327  128.0  0.0421   46.9  0.7612  -49.2
 1.160  0.7642  -77.1  17.202  127.3  0.0425   46.4  0.7560  -49.9
 1.180  0.7620  -78.2  17.080  126.5  0.0430   45.8  0.7509  -50.7
 1.200  0.7600  -79.3  16.961  125.8  0.0434   45.3  0.7459  -51.4
 1.220  0.7572  -80.3  16.833  125.2  0.0438   44.7  0.7407  -52.0
 1.240  0.7546  -81.4  16.707  124.5  0.0442   44.2  0.7356  -52.7
 1.260  0.7523  -82.4  16.584  123.8  0.0446   43.7  0.7305  -53.4
 1.280  0.7502  -83.4  16.462  123.2  0.0450   43.1  0.7256  -54.0
 1.300  0.7484  -84.5  16.343  122.5  0.0454   42.6  0.7208  -54.7
 1.320  0.7453  -85.5  16.217  121.9  0.0457   42.1  0.7156  -55.3
 1.340  0.7424  -86.5  16.093  121.2  0.0460   41.6  0.7105  -56.0
 1.360  0.7397  -87.5  15.971  120.6  0.0464   41.1  0.7055  -56.7
 1.380  0.7372  -88.5  15.851  119.9  0.0467   40.7  0.7005  -57.3
 1.400  0.7350  -89.5  15.733  119.2  0.0470   40.2  0.6957  -58.0
 1.420  0.7328  -90.4  15.614  118.7  0.0473   39.7  0.6911  -58.6
 1.440  0.7307  -91.2  15.497  118.1  0.0476   39.3  0.6866  -59.2
 1.460  0.7288  -92.1  15.382  117.5  0.0480   38.8  0.6822  -59.8
 1.480  0.7271  -93.0  15.268  117.0  0.0483   38.3  0.6778  -60.4
 1.500  0.7255  -93.9  15.155  116.4  0.0486   37.9  0.6735  -61.0
 1.520  0.7233  -94.8  15.041  115.8  0.0488   37.4  0.6689  -61.6
 1.540  0.7213  -95.7  14.929  115.2  0.0491   37.0  0.6644  -62.2
 1.560  0.7195  -96.6  14.819  114.6  0.0493   36.5  0.6600  -62.8
 1.580  0.7179  -97.5  14.710  114.0  0.0496   36.1  0.6556  -63.4
 1.600  0.7164  -98.4  14.603  113.4  0.0498   35.6  0.6513  -64.0
 1.620  0.7141  -99.2  14.497  112.9  0.0500   35.2  0.6474  -64.5
 1.640  0.7119 -100.0  14.392  112.3  0.0503   34.8  0.6435  -65.1
 1.660  0.7098 -100.8  14.288  111.8  0.0505   34.4  0.6397  -65.7
 1.680  0.7079 -101.7  14.185  111.3  0.0508   34.0  0.6359  -66.2
 1.700  0.7062 -102.5  14.084  110.7  0.0510   33.6  0.6322  -66.8
 1.720  0.7044 -103.3  13.971  110.2  0.0512   33.3  0.6285  -67.3
 1.740  0.7028 -104.0  13.859  109.7  0.0514   32.9  0.6248  -67.8
 1.760  0.7012 -104.8  13.749  109.2  0.0515   32.6  0.6212  -68.3
 1.780  0.6999 -105.6  13.639  108.6  0.0517   32.2  0.6176  -68.9
 1.800  0.6986 -106.4  13.531  108.1  0.0519   31.9  0.6141  -69.4
 1.820  0.6969 -107.2  13.439  107.6  0.0521   31.5  0.6106  -69.9
 1.840  0.6953 -107.9  13.349  107.1  0.0523   31.1  0.6071  -70.5
 1.860  0.6938 -108.7  13.259  106.6  0.0525   30.8  0.6037  -71.1
 1.880  0.6924 -109.5  13.171  106.1  0.0527   30.4  0.6004  -71.6
 1.900  0.6912 -110.3  13.083  105.6  0.0529   30.0  0.5971  -72.2
 1.920  0.6896 -110.9  12.985  105.2  0.0530   29.7  0.5939  -72.7
 1.940  0.6880 -111.5  12.887  104.7  0.0532   29.4  0.5908  -73.1
 1.960  0.6865 -112.2  12.790  104.2  0.0533   29.0  0.5877  -73.6
 1.980  0.6851 -112.8  12.694  103.8  0.0535   28.7  0.5847  -74.1
 2.000  0.6838 -113.4  12.599  103.3  0.0536   28.4  0.5817  -74.6
 2.020  0.6821 -114.1  12.513  102.9  0.0537   28.1  0.5787  -75.1
 2.040  0.6806 -114.7  12.427  102.4  0.0538   27.8  0.5757  -75.6
 2.060  0.6791 -115.4  12.342  102.0  0.0539   27.5  0.5727  -76.0
 2.080  0.6777 -116.1  12.258  101.5  0.0540   27.1  0.5698  -76.5
 2.100  0.6764 -116.8  12.175  101.1  0.0541   26.8  0.5670  -77.0
 2.120  0.6752 -117.5  12.092  100.6  0.0542   26.5  0.5641  -77.5
 2.140  0.6741 -118.1  12.010  100.1  0.0544   26.2  0.5614  -78.0
 2.160  0.6731 -118.8  11.929   99.7  0.0545   25.9  0.5586  -78.6
 2.180  0.6722 -119.5  11.849   99.2  0.0546   25.6  0.5559  -79.1
 2.200  0.6714 -120.2  11.770   98.7  0.0547   25.3  0.5533  -79.6
 2.220  0.6699 -120.8  11.691   98.3  0.0548   25.0  0.5507  -80.1
 2.240  0.6684 -121.4  11.613   97.9  0.0549   24.7  0.5482  -80.5
 2.260  0.6670 -122.1  11.536   97.5  0.0550   24.4  0.5457  -81.0
 2.280  0.6657 -122.7  11.459   97.0  0.0551   24.2  0.5432  -81.4
 2.300  0.6644 -123.3  11.383   96.6  0.0552   23.9  0.5408  -81.9
 2.320  0.6633 -124.0  11.307   96.2  0.0553   23.6  0.5384  -82.4
 2.340  0.6622 -124.6  11.233   95.8  0.0555   23.3  0.5360  -82.8
 2.360  0.6612 -125.2  11.158   95.3  0.0556   23.1  0.5337  -83.3
 2.380  0.6603 -125.9  11.085   94.9  0.0557   22.8  0.5314  -83.8
 2.400  0.6595 -126.5  11.012   94.4  0.0558   22.5  0.5292  -84.3
 2.420  0.6583 -127.1  10.940   94.0  0.0558   22.2  0.5270  -84.7
 2.440  0.6571 -127.6  10.869   93.7  0.0559   22.0  0.5248  -85.2
 2.460  0.6560 -128.2  10.798   93.3  0.0559   21.7  0.5226  -85.6
 2.480  0.6549 -128.8  10.727   92.9  0.0560   21.5  0.5205  -86.1
 2.500  0.6540 -129.4  10.657   92.5  0.0560   21.2  0.5184  -86.5
 2.520  0.6531 -130.0  10.588   92.1  0.0561   21.0  0.5163  -87.0
 2.540  0.6522 -130.5  10.519   91.7  0.0561   20.7  0.5142  -87.4
 2.560  0.6514 -131.1  10.450   91.3  0.0562   20.5  0.5122  -87.9
 2.580  0.6507 -131.7  10.382   90.9  0.0562   20.2  0.5102  -88.3
 2.600  0.6501 -132.3  10.315   90.5  0.0563   20.0  0.5083  -88.8
 2.620  0.6490 -132.8  10.249   90.2  0.0563   19.8  0.5065  -89.2
 2.640  0.6480 -133.3  10.183   89.8  0.0564   19.6  0.5048  -89.6
 2.660  0.6470 -133.8  10.118   89.4  0.0564   19.3  0.5031  -90.0
 2.680  0.6461 -134.4  10.053   89.1  0.0564   19.1  0.5014  -90.4
 2.700  0.6452 -134.9   9.989   88.7  0.0564   18.9  0.4997  -90.8
 2.720  0.6444 -135.4   9.925   88.3  0.0565   18.7  0.4981  -91.2
 2.740  0.6436 -135.9   9.861   88.0  0.0565   18.5  0.4965  -91.6
 2.760  0.6429 -136.4   9.798   87.6  0.0565   18.2  0.4949  -92.1
 2.780  0.6422 -137.0   9.735   87.2  0.0566   18.0  0.4933  -92.5
 2.800  0.6416 -137.5   9.673   86.8  0.0566   17.8  0.4918  -92.9
 2.820  0.6410 -137.9   9.615   86.5  0.0566   17.6  0.4904  -93.3
 2.840  0.6405 -138.4   9.558   86.1  0.0566   17.4  0.4891  -93.6
 2.860  0.6400 -138.8   9.500   85.8  0.0566   17.2  0.4877  -94.0
 2.880  0.6396 -139.3   9.444   85.5  0.0566   17.0  0.4864  -94.3
 2.900  0.6392 -139.7   9.387   85.1  0.0566   16.8  0.4851  -94.7
 2.920  0.6388 -140.2   9.331   84.8  0.0567   16.7  0.4838  -95.0
 2.940  0.6385 -140.6   9.275   84.4  0.0567   16.5  0.4826  -95.4
 2.960  0.6382 -141.1   9.220   84.0  0.0567   16.3  0.4813  -95.8
 2.980  0.6380 -141.5   9.165   83.7  0.0567   16.1  0.4801  -96.1
 3.000  0.6378 -142.0   9.110   83.3  0.0567   15.9  0.4789  -96.5
 3.100  0.6346 -144.0   8.866   81.9  0.0567   15.2  0.4741  -97.9
 3.200  0.6322 -146.0   8.628   80.5  0.0566   14.4  0.4696  -99.3
 3.300  0.6306 -148.0   8.395   79.0  0.0566   13.7  0.4654 -100.8
 3.400  0.6297 -150.0   8.168   77.4  0.0566   12.9  0.4615 -102.3
 3.500  0.6296 -152.0   7.948   75.7  0.0566   12.2  0.4579 -103.8
 3.600  0.6288 -153.7   7.767   74.4  0.0566   11.7  0.4547 -104.9
 3.700  0.6286 -155.4   7.589   73.1  0.0565   11.2  0.4517 -106.1
 3.800  0.6289 -157.0   7.416   71.6  0.0565   10.7  0.4489 -107.2
 3.900  0.6298 -158.7   7.248   70.2  0.0565   10.2  0.4463 -108.4
 4.000  0.6312 -160.4   7.085   68.6  0.0565    9.7  0.4439 -109.6
 4.100  0.6318 -162.0   6.935   67.3  0.0564    9.2  0.4409 -110.9
 4.200  0.6328 -163.6   6.789   65.9  0.0564    8.7  0.4382 -112.3
 4.300  0.6344 -165.2   6.647   64.5  0.0563    8.1  0.4357 -113.6
 4.400  0.6364 -166.7   6.508   63.0  0.0563    7.6  0.4335 -115.0
 4.500  0.6389 -168.3   6.375   61.5  0.0562    7.1  0.4315 -116.4
 4.600  0.6394 -169.7   6.241   60.3  0.0560    6.7  0.4291 -117.6
 4.700  0.6402 -171.0   6.111   59.0  0.0559    6.3  0.4268 -118.9
 4.800  0.6414 -172.4   5.984   57.6  0.0557    5.9  0.4248 -120.1
 4.900  0.6429 -173.8   5.860   56.2  0.0556    5.5  0.4229 -121.4
 5.000  0.6448 -175.1   5.740   54.7  0.0554    5.1  0.4213 -122.7
 5.100  0.6439 -176.3   5.631   53.5  0.0552    4.8  0.4190 -123.8
 5.200  0.6432 -177.6   5.524   52.3  0.0550    4.5  0.4169 -124.9
 5.300  0.6429 -178.8   5.420   51.1  0.0548    4.2  0.4149 -126.0
 5.400  0.6428  179.9   5.319   49.8  0.0546    3.9  0.4131 -127.2
 5.500  0.6431  178.7   5.220   48.4  0.0544    3.6  0.4114 -128.3
 5.600  0.6421  177.3   5.137   47.2  0.0542    3.3  0.4086 -129.6
 5.700  0.6415  175.9   5.056   46.0  0.0540    3.1  0.4059 -130.9
 5.800  0.6412  174.6   4.977   44.7  0.0538    2.8  0.4035 -132.2
 5.900  0.6413  173.2   4.901   43.4  0.0536    2.6  0.4013 -133.5
 6.000  0.6418  171.8   4.828   42.1  0.0534    2.3  0.3993 -134.9
 6.100  0.6409  170.4   4.750   40.9  0.0531    2.1  0.3965 -136.3
 6.200  0.6403  168.9   4.674   39.6  0.0528    2.0  0.3939 -137.8
 6.300  0.6402  167.5   4.601   38.3  0.0525    1.8  0.3916 -139.3
 6.400  0.6405  166.0   4.530   36.9  0.0522    1.7  0.3896 -140.8
 6.500  0.6412  164.6   4.462   35.5  0.0519    1.5  0.3878 -142.3
 6.600  0.6413  163.3   4.387   34.3  0.0514    1.6  0.3841 -143.5
 6.800  0.6424  160.6   4.244   31.9  0.0505    1.9  0.3773 -146.0
 7.000  0.6449  158.0   4.109   29.3  0.0496    2.2  0.3712 -148.5
 7.200  0.6477  155.7   3.979   27.1  0.0492    3.5  0.3629 -151.1
 7.400  0.6515  153.4   3.855   24.7  0.0488    4.7  0.3554 -153.7
 7.600  0.6579  151.1   3.743   22.2  0.0490    5.9  0.3500 -157.2
 7.800  0.6669  148.8   3.642   19.7  0.0498    6.9  0.3477 -161.4
 8.000  0.6770  146.6   3.549   17.0  0.0507    7.8  0.3472 -165.6
 8.200  0.6827  144.4   3.433   14.4  0.0515    7.6  0.3495 -170.9
 8.400  0.6895  142.2   3.324   11.6  0.0524    7.5  0.3546 -176.1
 8.600  0.6936  140.2   3.214    8.9  0.0529    7.2  0.3602  178.7
 8.800  0.6948  138.4   3.099    6.5  0.0531    6.9  0.3664  173.3
 9.000  0.6967  136.6   2.991    3.8  0.0533    6.6  0.3757  168.2
 9.200  0.6996  135.1   2.886    2.1  0.0535    6.4  0.3869  163.1
 9.400  0.7030  133.7   2.784    0.2  0.0536    6.3  0.4011  158.4
 9.600  0.7104  132.0   2.690   -1.9  0.0537    6.3  0.4198  153.9
 9.800  0.7219  130.0   2.606   -4.3  0.0538    6.4  0.4428  150.0
10.000  0.7343  128.1   2.527   -6.9  0.0539    6.5  0.4678  146.4
!
!  f       NFmin   Gammaopt  rn/50
! GHz       dB    MAG  ANG    -
 0.450      0.56  0.32    6   0.10
 2.400      0.64  0.21   46   0.10
 5.500      0.82  0.33  134   0.08
10.000      1.44  0.40 -138   0.12
!
! (c) 2016  Infineon Technologies AG, Munich
