! Infineon Technologies  Discrete & RF Semiconductors
! BFP780
! VCE =  4.0 V,  IC =  95 mA
! Common Emitter S-Parameters:                            Jul 2015
# GHz  S  MA  R  50
!  f         S11            S21            S12            S22
! GHz     MAG   ANG      MAG   ANG      MAG   ANG      MAG   ANG
 0.030  0.3367  -45.9  81.217  166.4  0.0048   80.7  0.9549  -18.6
 0.040  0.3666  -57.8  79.496  162.0  0.0062   72.7  0.9392  -24.9
 0.050  0.3982  -68.5  77.680  157.5  0.0076   67.0  0.9246  -31.0
 0.060  0.4333  -77.0  75.536  153.6  0.0093   71.3  0.9035  -36.4
 0.070  0.4544  -85.6  73.132  149.7  0.0091   56.5  0.8743  -42.0
 0.080  0.4862  -92.4  70.710  146.1  0.0107   59.6  0.8534  -47.2
 0.090  0.5137  -98.5  68.097  142.7  0.0112   59.5  0.8297  -52.2
 0.100  0.5368 -103.9  65.575  139.7  0.0117   54.5  0.8057  -56.6
 0.110  0.5588 -108.9  63.045  136.7  0.0125   51.3  0.7827  -61.3
 0.120  0.5793 -113.3  60.635  134.0  0.0132   48.6  0.7610  -65.4
 0.130  0.5964 -117.3  58.322  131.5  0.0144   49.2  0.7372  -69.2
 0.140  0.6133 -120.9  56.002  129.2  0.0146   44.7  0.7177  -73.1
 0.150  0.6270 -124.1  53.920  127.1  0.0150   44.3  0.6997  -76.5
 0.200  0.6817 -136.8  44.720  118.1  0.0169   39.1  0.6220  -91.6
 0.250  0.7129 -145.7  37.853  111.5  0.0180   34.9  0.5704 -103.5
 0.300  0.7325 -152.3  32.499  106.3  0.0188   31.6  0.5309 -113.1
 0.350  0.7470 -157.4  28.416  102.2  0.0193   29.6  0.5035 -121.0
 0.400  0.7572 -161.4  25.181   98.8  0.0200   28.2  0.4851 -127.5
 0.450  0.7630 -164.7  22.594   95.9  0.0203   27.4  0.4704 -132.9
 0.500  0.7674 -167.7  20.457   93.3  0.0207   26.3  0.4587 -137.7
 0.600  0.7760 -172.3  17.174   88.9  0.0212   26.1  0.4452 -145.5
 0.700  0.7787 -176.3  14.769   85.0  0.0220   26.2  0.4352 -151.6
 0.800  0.7845 -179.5  12.957   81.7  0.0227   26.7  0.4324 -156.5
 0.900  0.7863  177.6  11.522   78.5  0.0232   27.1  0.4290 -160.7
 1.000  0.7906  175.0  10.374   75.6  0.0239   27.2  0.4312 -164.2
 1.100  0.7906  172.6   9.413   72.8  0.0247   28.2  0.4308 -167.4
 1.200  0.7956  170.5   8.635   70.1  0.0253   28.5  0.4348 -169.9
 1.300  0.7954  168.3   7.954   67.5  0.0261   29.2  0.4364 -172.5
 1.400  0.7984  166.4   7.376   64.9  0.0268   29.5  0.4410 -174.6
 1.500  0.7987  164.5   6.868   62.6  0.0276   29.8  0.4440 -176.8
 1.600  0.8025  162.6   6.431   60.0  0.0284   30.4  0.4497 -178.7
 1.700  0.8023  160.8   6.036   57.6  0.0292   30.3  0.4540  179.4
 1.800  0.8031  159.0   5.676   55.1  0.0300   30.7  0.4599  177.6
 1.900  0.8048  157.4   5.358   52.9  0.0306   30.3  0.4653  176.0
 2.000  0.8084  155.7   5.085   50.6  0.0316   30.7  0.4714  174.4
 2.100  0.8091  154.1   4.814   48.2  0.0320   30.9  0.4725  173.3
 2.200  0.8091  152.5   4.573   45.9  0.0328   30.2  0.4774  171.8
 2.300  0.8104  151.0   4.357   43.7  0.0337   30.3  0.4814  170.2
 2.400  0.8133  149.4   4.164   41.4  0.0344   30.5  0.4869  168.6
 2.500  0.8144  147.8   3.980   39.1  0.0352   30.6  0.4920  167.0
 2.600  0.8151  146.1   3.800   36.8  0.0360   30.3  0.4973  165.4
 2.700  0.8153  144.6   3.636   34.6  0.0366   30.2  0.5023  163.9
 2.800  0.8176  143.0   3.487   32.4  0.0376   30.2  0.5085  162.3
 2.900  0.8191  141.4   3.343   30.2  0.0384   29.9  0.5154  160.8
 3.000  0.8209  139.9   3.210   27.9  0.0391   29.4  0.5217  159.2
 3.100  0.8222  138.5   3.081   25.9  0.0398   29.2  0.5284  157.7
 3.200  0.8230  137.0   2.961   23.7  0.0407   28.9  0.5349  156.2
 3.300  0.8238  135.5   2.846   21.7  0.0415   28.8  0.5421  154.9
 3.400  0.8258  134.1   2.741   19.6  0.0423   28.4  0.5490  153.4
 3.500  0.8274  132.8   2.642   17.6  0.0431   28.0  0.5559  152.1
 3.600  0.8282  131.2   2.542   15.6  0.0441   27.4  0.5627  150.6
 3.700  0.8298  129.9   2.455   13.5  0.0446   27.3  0.5693  149.4
 3.800  0.8310  128.4   2.363   11.6  0.0454   27.0  0.5764  147.9
 3.900  0.8328  127.2   2.284    9.7  0.0463   26.5  0.5834  146.7
 4.000  0.8348  125.9   2.205    7.8  0.0470   26.3  0.5901  145.4
 4.100  0.8368  124.6   2.134    5.9  0.0477   25.9  0.5970  144.3
 4.200  0.8390  123.3   2.063    4.0  0.0486   25.4  0.6041  142.9
 4.300  0.8406  122.0   1.997    2.1  0.0494   24.9  0.6113  141.9
 4.400  0.8430  120.9   1.933    0.4  0.0503   24.3  0.6179  140.7
 4.500  0.8448  119.6   1.875   -1.5  0.0510   23.6  0.6243  139.5
 4.600  0.8478  118.5   1.816   -3.3  0.0518   23.2  0.6310  138.4
 4.700  0.8487  117.4   1.760   -5.2  0.0526   22.8  0.6365  137.2
 4.800  0.8510  116.3   1.707   -6.9  0.0534   22.2  0.6432  136.1
 4.900  0.8523  115.4   1.656   -8.5  0.0541   21.9  0.6479  134.9
 5.000  0.8543  114.2   1.608  -10.3  0.0549   21.2  0.6540  133.8
 5.100  0.8559  113.4   1.563  -12.0  0.0558   20.7  0.6586  132.6
 5.200  0.8563  112.3   1.518  -13.7  0.0567   20.0  0.6642  131.5
 5.300  0.8574  111.4   1.474  -15.5  0.0574   19.4  0.6685  130.3
 5.400  0.8584  110.4   1.434  -17.1  0.0582   18.9  0.6734  129.2
 5.500  0.8582  109.7   1.393  -18.7  0.0590   18.3  0.6769  128.0
 5.600  0.8590  108.9   1.357  -20.2  0.0598   17.7  0.6818  126.9
 5.700  0.8583  108.0   1.322  -21.9  0.0608   17.1  0.6859  125.7
 5.800  0.8591  107.1   1.288  -23.5  0.0616   16.5  0.6902  124.6
 5.900  0.8582  106.3   1.256  -25.0  0.0626   15.9  0.6946  123.5
 6.000  0.8587  105.3   1.223  -26.6  0.0634   15.0  0.6991  122.2
!
!  f       NFmin   Gammaopt  rn/50
! GHz       dB    MAG  ANG    -
!
! noise parameter not available yet for this operation point!
!
! (c) 2015  Infineon Technologies AG, Munich
