! Infineon Technologies  Discrete & RF Semiconductors
! BFP720ESD
! VCE =  4.0 V,  IC =  2.0 mA
! Common Emitter S-Parameters:                            Jan 2016
# GHz  S  MA  R  50
!  f         S11            S21            S12            S22
! GHz     MAG   ANG      MAG   ANG      MAG   ANG      MAG   ANG
 0.010  0.9684    0.2   6.614  179.1  0.0005    3.3  0.9997    0.6
 0.015  0.9753   -0.1   6.559  179.1  0.0006   49.8  0.9975    0.2
 0.020  0.9822   -0.3   6.504  179.1  0.0009   73.6  0.9953   -0.2
 0.025  0.9814   -0.5   6.504  178.9  0.0010   76.7  0.9959   -0.3
 0.030  0.9806   -0.6   6.504  178.8  0.0012   79.1  0.9964   -0.4
 0.035  0.9798   -0.8   6.504  178.6  0.0013   81.0  0.9970   -0.6
 0.040  0.9790   -1.0   6.504  178.5  0.0014   82.5  0.9976   -0.7
 0.045  0.9783   -1.1   6.505  178.3  0.0016   83.8  0.9981   -0.8
 0.050  0.9775   -1.3   6.505  178.2  0.0017   84.9  0.9987   -0.9
 0.055  0.9773   -1.5   6.509  178.1  0.0019   84.8  0.9987   -1.0
 0.060  0.9771   -1.6   6.513  178.0  0.0020   84.8  0.9987   -1.2
 0.065  0.9769   -1.8   6.518  177.9  0.0022   84.7  0.9987   -1.3
 0.070  0.9767   -2.0   6.522  177.8  0.0024   84.7  0.9987   -1.4
 0.075  0.9765   -2.1   6.526  177.6  0.0025   84.6  0.9987   -1.6
 0.080  0.9763   -2.3   6.531  177.5  0.0027   84.6  0.9988   -1.7
 0.085  0.9761   -2.5   6.535  177.4  0.0029   84.6  0.9988   -1.8
 0.090  0.9760   -2.7   6.539  177.3  0.0031   84.5  0.9988   -1.9
 0.095  0.9758   -2.8   6.544  177.2  0.0032   84.5  0.9989   -2.1
 0.100  0.9757   -3.0   6.548  177.1  0.0034   84.5  0.9989   -2.2
 0.105  0.9757   -3.2   6.548  176.9  0.0036   84.3  0.9989   -2.3
 0.110  0.9757   -3.3   6.548  176.8  0.0037   84.2  0.9989   -2.4
 0.115  0.9758   -3.5   6.548  176.6  0.0039   84.0  0.9988   -2.5
 0.120  0.9758   -3.6   6.549  176.5  0.0041   83.9  0.9988   -2.6
 0.125  0.9759   -3.8   6.549  176.3  0.0042   83.8  0.9988   -2.7
 0.130  0.9759   -3.9   6.549  176.2  0.0044   83.7  0.9988   -2.9
 0.135  0.9760   -4.1   6.550  176.0  0.0046   83.6  0.9988   -3.0
 0.140  0.9760   -4.2   6.550  175.9  0.0048   83.5  0.9988   -3.1
 0.145  0.9761   -4.4   6.550  175.7  0.0049   83.4  0.9988   -3.2
 0.150  0.9762   -4.5   6.551  175.6  0.0051   83.3  0.9988   -3.3
 0.155  0.9761   -4.7   6.551  175.5  0.0053   83.3  0.9987   -3.4
 0.160  0.9760   -4.8   6.552  175.3  0.0054   83.3  0.9986   -3.5
 0.165  0.9759   -5.0   6.552  175.2  0.0056   83.3  0.9985   -3.7
 0.170  0.9758   -5.1   6.553  175.0  0.0058   83.3  0.9984   -3.8
 0.175  0.9758   -5.3   6.554  174.9  0.0059   83.3  0.9983   -3.9
 0.180  0.9757   -5.5   6.554  174.8  0.0061   83.3  0.9983   -4.0
 0.185  0.9756   -5.6   6.555  174.6  0.0063   83.3  0.9982   -4.1
 0.190  0.9756   -5.8   6.555  174.5  0.0065   83.3  0.9981   -4.3
 0.195  0.9755   -5.9   6.556  174.3  0.0066   83.3  0.9981   -4.4
 0.200  0.9755   -6.1   6.557  174.2  0.0068   83.3  0.9980   -4.5
 0.220  0.9752   -6.7   6.548  173.5  0.0075   82.9  0.9977   -4.9
 0.240  0.9750   -7.4   6.540  172.8  0.0082   82.6  0.9974   -5.4
 0.260  0.9745   -8.0   6.538  172.2  0.0088   82.4  0.9970   -5.8
 0.280  0.9737   -8.6   6.543  171.7  0.0095   82.1  0.9965   -6.3
 0.300  0.9729   -9.2   6.549  171.2  0.0102   81.9  0.9960   -6.7
 0.320  0.9730   -9.8   6.549  170.6  0.0109   81.4  0.9955   -7.2
 0.340  0.9732  -10.5   6.549  170.1  0.0116   80.9  0.9950   -7.7
 0.360  0.9731  -11.1   6.546  169.5  0.0122   80.4  0.9945   -8.1
 0.380  0.9727  -11.7   6.539  168.9  0.0129   79.9  0.9939   -8.6
 0.400  0.9724  -12.3   6.533  168.3  0.0136   79.4  0.9933   -9.0
 0.420  0.9712  -12.9   6.530  167.7  0.0142   79.0  0.9927   -9.4
 0.440  0.9702  -13.5   6.528  167.2  0.0149   78.7  0.9921   -9.9
 0.450  0.9697  -13.8   6.527  166.9  0.0152   78.5  0.9918  -10.1
 0.460  0.9691  -14.1   6.525  166.6  0.0155   78.2  0.9914  -10.3
 0.480  0.9681  -14.8   6.520  166.0  0.0162   77.7  0.9907  -10.8
 0.500  0.9672  -15.4   6.517  165.4  0.0169   77.2  0.9901  -11.2
 0.520  0.9664  -16.0   6.510  164.8  0.0176   76.7  0.9893  -11.6
 0.540  0.9656  -16.6   6.504  164.2  0.0182   76.2  0.9886  -12.1
 0.560  0.9650  -17.3   6.499  163.6  0.0189   75.7  0.9879  -12.5
 0.580  0.9645  -17.9   6.495  163.0  0.0195   75.3  0.9873  -13.0
 0.600  0.9641  -18.5   6.491  162.4  0.0202   74.9  0.9867  -13.4
 0.620  0.9629  -19.1   6.488  161.9  0.0209   74.4  0.9857  -13.9
 0.640  0.9618  -19.7   6.485  161.3  0.0215   73.9  0.9848  -14.3
 0.660  0.9609  -20.4   6.483  160.8  0.0222   73.4  0.9839  -14.8
 0.680  0.9600  -21.0   6.481  160.2  0.0228   73.0  0.9831  -15.2
 0.700  0.9593  -21.6   6.480  159.7  0.0235   72.6  0.9824  -15.7
 0.720  0.9580  -22.2   6.469  159.1  0.0241   72.1  0.9812  -16.1
 0.740  0.9568  -22.8   6.458  158.6  0.0248   71.6  0.9801  -16.6
 0.760  0.9557  -23.5   6.448  158.0  0.0254   71.2  0.9791  -17.0
 0.780  0.9548  -24.1   6.439  157.5  0.0261   70.7  0.9781  -17.5
 0.800  0.9539  -24.7   6.430  156.9  0.0267   70.3  0.9772  -17.9
 0.820  0.9526  -25.3   6.425  156.3  0.0273   69.8  0.9762  -18.4
 0.840  0.9515  -26.0   6.421  155.8  0.0280   69.2  0.9753  -18.8
 0.860  0.9504  -26.6   6.418  155.2  0.0286   68.7  0.9744  -19.3
 0.880  0.9495  -27.3   6.415  154.7  0.0293   68.3  0.9736  -19.7
 0.900  0.9487  -27.9   6.413  154.1  0.0299   67.8  0.9728  -20.2
 0.920  0.9473  -28.5   6.403  153.5  0.0305   67.3  0.9715  -20.6
 0.940  0.9460  -29.1   6.394  153.0  0.0311   66.9  0.9703  -21.1
 0.960  0.9448  -29.8   6.386  152.4  0.0318   66.4  0.9691  -21.5
 0.980  0.9438  -30.4   6.378  151.9  0.0324   66.0  0.9680  -22.0
 1.000  0.9428  -31.0   6.371  151.3  0.0330   65.6  0.9670  -22.4
 1.020  0.9415  -31.6   6.363  150.8  0.0336   65.1  0.9657  -22.8
 1.040  0.9402  -32.2   6.356  150.2  0.0342   64.6  0.9644  -23.3
 1.060  0.9391  -32.9   6.350  149.7  0.0348   64.1  0.9632  -23.7
 1.080  0.9381  -33.5   6.343  149.1  0.0354   63.6  0.9621  -24.2
 1.100  0.9372  -34.1   6.338  148.6  0.0360   63.2  0.9610  -24.6
 1.120  0.9357  -34.7   6.331  148.0  0.0366   62.7  0.9597  -25.1
 1.140  0.9344  -35.3   6.324  147.4  0.0372   62.2  0.9584  -25.5
 1.160  0.9332  -36.0   6.317  146.9  0.0378   61.8  0.9572  -26.0
 1.180  0.9320  -36.6   6.312  146.3  0.0384   61.3  0.9560  -26.4
 1.200  0.9310  -37.2   6.307  145.7  0.0390   60.9  0.9549  -26.9
 1.220  0.9296  -37.8   6.298  145.2  0.0396   60.4  0.9535  -27.3
 1.240  0.9283  -38.5   6.289  144.6  0.0402   59.9  0.9523  -27.8
 1.260  0.9271  -39.1   6.281  144.1  0.0407   59.4  0.9510  -28.2
 1.280  0.9260  -39.8   6.274  143.5  0.0413   59.0  0.9498  -28.7
 1.300  0.9251  -40.4   6.267  143.0  0.0419   58.5  0.9487  -29.1
 1.320  0.9232  -41.0   6.257  142.4  0.0425   58.0  0.9471  -29.6
 1.340  0.9215  -41.7   6.248  141.8  0.0430   57.5  0.9456  -30.0
 1.360  0.9198  -42.3   6.240  141.3  0.0436   57.1  0.9442  -30.5
 1.380  0.9183  -43.0   6.232  140.7  0.0441   56.6  0.9428  -30.9
 1.400  0.9169  -43.6   6.225  140.1  0.0447   56.2  0.9415  -31.4
 1.420  0.9154  -44.2   6.214  139.6  0.0452   55.7  0.9400  -31.8
 1.440  0.9139  -44.8   6.204  139.1  0.0458   55.3  0.9386  -32.2
 1.460  0.9126  -45.4   6.195  138.6  0.0463   54.8  0.9373  -32.7
 1.480  0.9113  -46.0   6.186  138.1  0.0469   54.4  0.9360  -33.1
 1.500  0.9102  -46.6   6.177  137.6  0.0474   54.0  0.9347  -33.5
 1.520  0.9086  -47.2   6.170  137.0  0.0479   53.5  0.9330  -34.0
 1.540  0.9071  -47.9   6.164  136.4  0.0484   53.0  0.9314  -34.4
 1.560  0.9057  -48.5   6.159  135.9  0.0489   52.5  0.9298  -34.9
 1.580  0.9044  -49.2   6.154  135.3  0.0494   52.0  0.9283  -35.3
 1.600  0.9032  -49.8   6.150  134.7  0.0499   51.5  0.9269  -35.8
 1.620  0.9017  -50.4   6.140  134.2  0.0504   51.1  0.9254  -36.2
 1.640  0.9002  -51.0   6.131  133.7  0.0509   50.6  0.9239  -36.6
 1.660  0.8989  -51.7   6.123  133.1  0.0514   50.2  0.9225  -37.1
 1.680  0.8977  -52.3   6.115  132.6  0.0519   49.8  0.9211  -37.5
 1.700  0.8966  -52.9   6.107  132.1  0.0524   49.4  0.9198  -37.9
 1.720  0.8948  -53.5   6.094  131.6  0.0529   49.0  0.9182  -38.3
 1.740  0.8932  -54.1   6.081  131.0  0.0534   48.5  0.9166  -38.8
 1.760  0.8916  -54.8   6.069  130.5  0.0538   48.1  0.9151  -39.2
 1.780  0.8902  -55.4   6.057  129.9  0.0543   47.7  0.9137  -39.7
 1.800  0.8888  -56.0   6.046  129.4  0.0548   47.3  0.9123  -40.1
 1.820  0.8870  -56.6   6.040  128.9  0.0553   46.8  0.9105  -40.5
 1.840  0.8853  -57.2   6.035  128.4  0.0558   46.4  0.9088  -41.0
 1.860  0.8837  -57.9   6.030  127.9  0.0562   46.0  0.9071  -41.4
 1.880  0.8822  -58.5   6.025  127.4  0.0567   45.5  0.9055  -41.9
 1.900  0.8808  -59.1   6.021  126.9  0.0572   45.1  0.9039  -42.3
 1.920  0.8790  -59.7   6.008  126.4  0.0576   44.6  0.9022  -42.7
 1.940  0.8774  -60.3   5.996  125.8  0.0580   44.2  0.9005  -43.1
 1.960  0.8758  -60.9   5.984  125.3  0.0584   43.8  0.8988  -43.6
 1.980  0.8743  -61.5   5.973  124.7  0.0589   43.3  0.8972  -44.0
 2.000  0.8729  -62.1   5.962  124.2  0.0593   42.9  0.8957  -44.4
 2.020  0.8707  -62.7   5.953  123.7  0.0597   42.4  0.8937  -44.8
 2.040  0.8687  -63.3   5.944  123.2  0.0602   42.0  0.8917  -45.3
 2.060  0.8667  -64.0   5.936  122.6  0.0606   41.5  0.8898  -45.7
 2.080  0.8649  -64.6   5.928  122.1  0.0610   41.1  0.8879  -46.1
 2.100  0.8631  -65.2   5.921  121.6  0.0615   40.7  0.8860  -46.6
 2.120  0.8615  -65.9   5.915  121.0  0.0619   40.2  0.8843  -47.0
 2.140  0.8600  -66.5   5.908  120.5  0.0623   39.8  0.8825  -47.5
 2.160  0.8585  -67.1   5.903  120.0  0.0628   39.4  0.8809  -47.9
 2.180  0.8572  -67.8   5.898  119.4  0.0632   39.0  0.8793  -48.4
 2.200  0.8560  -68.4   5.893  118.9  0.0637   38.6  0.8777  -48.8
 2.220  0.8535  -69.0   5.883  118.4  0.0641   38.1  0.8755  -49.2
 2.240  0.8511  -69.7   5.874  117.9  0.0645   37.7  0.8733  -49.7
 2.260  0.8488  -70.3   5.865  117.3  0.0649   37.2  0.8712  -50.1
 2.280  0.8466  -71.0   5.856  116.8  0.0653   36.8  0.8691  -50.5
 2.300  0.8445  -71.6   5.848  116.3  0.0657   36.3  0.8671  -51.0
 2.320  0.8426  -72.3   5.841  115.7  0.0661   35.9  0.8651  -51.4
 2.340  0.8407  -72.9   5.834  115.2  0.0665   35.5  0.8632  -51.9
 2.360  0.8390  -73.6   5.827  114.7  0.0669   35.0  0.8613  -52.3
 2.380  0.8373  -74.2   5.821  114.1  0.0673   34.6  0.8595  -52.8
 2.400  0.8358  -74.9   5.816  113.6  0.0677   34.2  0.8577  -53.2
 2.420  0.8333  -75.6   5.804  113.1  0.0680   33.7  0.8552  -53.6
 2.440  0.8309  -76.2   5.793  112.5  0.0683   33.3  0.8528  -54.1
 2.460  0.8286  -76.9   5.782  112.0  0.0687   32.8  0.8504  -54.6
 2.480  0.8264  -77.6   5.772  111.5  0.0690   32.3  0.8481  -55.0
 2.500  0.8243  -78.3   5.763  110.9  0.0693   31.9  0.8459  -55.5
 2.520  0.8224  -78.9   5.753  110.4  0.0697   31.4  0.8437  -55.9
 2.540  0.8206  -79.6   5.745  109.8  0.0700   31.0  0.8415  -56.4
 2.560  0.8189  -80.3   5.737  109.3  0.0704   30.6  0.8394  -56.9
 2.580  0.8173  -81.0   5.729  108.7  0.0707   30.1  0.8374  -57.3
 2.600  0.8158  -81.7   5.722  108.2  0.0711   29.7  0.8354  -57.8
 2.620  0.8130  -82.4   5.710  107.7  0.0714   29.3  0.8329  -58.2
 2.640  0.8103  -83.0   5.698  107.2  0.0716   28.8  0.8304  -58.7
 2.660  0.8078  -83.7   5.686  106.6  0.0719   28.4  0.8280  -59.1
 2.680  0.8053  -84.3   5.675  106.1  0.0722   27.9  0.8257  -59.6
 2.700  0.8030  -85.0   5.665  105.6  0.0725   27.5  0.8234  -60.0
 2.720  0.8007  -85.7   5.655  105.0  0.0728   27.1  0.8211  -60.5
 2.740  0.7986  -86.4   5.645  104.5  0.0731   26.7  0.8189  -60.9
 2.760  0.7966  -87.0   5.636  104.0  0.0734   26.2  0.8168  -61.4
 2.780  0.7947  -87.7   5.628  103.4  0.0737   25.8  0.8146  -61.8
 2.800  0.7929  -88.4   5.620  102.9  0.0740   25.4  0.8126  -62.3
 2.820  0.7905  -89.1   5.608  102.4  0.0742   24.9  0.8101  -62.7
 2.840  0.7882  -89.7   5.596  101.9  0.0744   24.5  0.8077  -63.2
 2.860  0.7859  -90.4   5.584  101.3  0.0747   24.1  0.8053  -63.6
 2.880  0.7838  -91.0   5.573  100.8  0.0749   23.6  0.8030  -64.1
 2.900  0.7818  -91.7   5.563  100.3  0.0751   23.2  0.8007  -64.5
 2.920  0.7799  -92.4   5.553   99.7  0.0754   22.7  0.7984  -65.0
 2.940  0.7781  -93.1   5.544   99.2  0.0756   22.3  0.7963  -65.4
 2.960  0.7764  -93.7   5.535   98.7  0.0759   21.9  0.7941  -65.9
 2.980  0.7749  -94.4   5.526   98.1  0.0761   21.4  0.7920  -66.3
 3.000  0.7734  -95.1   5.518   97.6  0.0764   21.0  0.7900  -66.8
 3.100  0.7588  -98.3   5.437   95.1  0.0769   18.9  0.7771  -68.9
 3.200  0.7466 -101.6   5.366   92.5  0.0775   16.9  0.7653  -71.0
 3.300  0.7370 -105.1   5.307   89.9  0.0782   14.8  0.7546  -73.2
 3.400  0.7301 -108.5   5.258   87.2  0.0790   12.8  0.7451  -75.5
 3.500  0.7260 -112.1   5.222   84.5  0.0799   10.9  0.7367  -77.8
 3.600  0.7144 -115.4   5.145   82.1  0.0800    9.0  0.7253  -79.9
 3.700  0.7052 -118.8   5.078   79.7  0.0802    7.1  0.7150  -82.1
 3.800  0.6986 -122.3   5.020   77.2  0.0805    5.3  0.7057  -84.3
 3.900  0.6946 -125.8   4.972   74.6  0.0809    3.4  0.6975  -86.6
 4.000  0.6933 -129.4   4.934   72.0  0.0813    1.6  0.6905  -89.0
 4.100  0.6840 -132.7   4.849   69.6  0.0809   -0.2  0.6801  -91.4
 4.200  0.6770 -136.1   4.772   67.1  0.0806   -2.0  0.6708  -93.8
 4.300  0.6725 -139.6   4.705   64.5  0.0803   -3.9  0.6628  -96.3
 4.400  0.6705 -143.1   4.648   61.8  0.0802   -5.7  0.6561  -98.8
 4.500  0.6710 -146.6   4.601   59.1  0.0801   -7.6  0.6507 -101.4
 4.600  0.6637 -149.5   4.508   56.9  0.0790   -9.2  0.6423 -103.5
 4.700  0.6581 -152.5   4.421   54.5  0.0780  -10.8  0.6348 -105.7
 4.800  0.6544 -155.6   4.343   52.1  0.0771  -12.4  0.6283 -107.9
 4.900  0.6526 -158.6   4.272   49.6  0.0762  -14.1  0.6227 -110.2
 5.000  0.6526 -161.7   4.210   47.0  0.0754  -15.8  0.6181 -112.5
 5.100  0.6467 -164.4   4.125   45.0  0.0740  -17.0  0.6108 -114.4
 5.200  0.6423 -167.1   4.046   42.9  0.0727  -18.2  0.6041 -116.3
 5.300  0.6392 -169.8   3.973   40.7  0.0714  -19.4  0.5982 -118.3
 5.400  0.6377 -172.5   3.905   38.4  0.0701  -20.7  0.5929 -120.3
 5.500  0.6376 -175.3   3.844   36.1  0.0689  -22.1  0.5884 -122.3
 5.600  0.6338 -177.8   3.774   34.2  0.0675  -22.9  0.5827 -124.3
 5.700  0.6311  179.7   3.708   32.1  0.0660  -23.6  0.5777 -126.3
 5.800  0.6297  177.2   3.648   30.1  0.0646  -24.5  0.5734 -128.3
 5.900  0.6294  174.7   3.592   27.9  0.0632  -25.3  0.5698 -130.4
 6.000  0.6304  172.2   3.541   25.7  0.0618  -26.2  0.5670 -132.5
 6.100  0.6302  170.0   3.481   23.8  0.0606  -26.5  0.5644 -134.6
 6.200  0.6309  167.8   3.425   21.9  0.0594  -26.8  0.5626 -136.6
 6.300  0.6326  165.7   3.374   19.9  0.0582  -27.2  0.5615 -138.7
 6.400  0.6351  163.5   3.326   17.8  0.0570  -27.5  0.5612 -140.8
 6.500  0.6385  161.4   3.283   15.7  0.0558  -27.9  0.5616 -142.9
 6.600  0.6396  159.5   3.228   13.9  0.0547  -27.8  0.5599 -144.9
 6.800  0.6441  155.6   3.129   10.0  0.0526  -27.5  0.5586 -148.9
 7.000  0.6514  151.8   3.045    5.9  0.0504  -27.2  0.5600 -152.9
 7.200  0.6549  148.1   2.962    2.2  0.0491  -26.2  0.5583 -157.4
 7.400  0.6611  144.4   2.891   -1.7  0.0478  -25.1  0.5600 -161.9
 7.600  0.6653  140.4   2.814   -5.8  0.0467  -23.9  0.5613 -166.7
 7.800  0.6685  136.1   2.731  -10.1  0.0459  -22.7  0.5632 -171.9
 8.000  0.6754  131.8   2.664  -14.6  0.0452  -21.5  0.5696 -177.0
 8.200  0.6729  127.1   2.556  -18.6  0.0447  -19.8  0.5674  178.0
 8.400  0.6750  122.3   2.462  -23.0  0.0442  -18.2  0.5694  173.1
 8.600  0.6810  117.8   2.370  -27.1  0.0442  -16.4  0.5723  168.0
 8.800  0.6907  113.4   2.275  -31.1  0.0447  -14.5  0.5764  163.0
 9.000  0.7043  109.1   2.191  -35.3  0.0453  -12.7  0.5849  158.0
 9.200  0.7271  105.3   2.098  -38.7  0.0463  -11.3  0.5988  152.7
 9.400  0.7529  101.7   2.014  -42.4  0.0474  -10.0  0.6175  147.7
 9.600  0.7795   98.5   1.921  -46.2  0.0489   -9.1  0.6414  142.9
 9.800  0.8062   95.6   1.819  -50.0  0.0508   -8.7  0.6702  138.4
10.000  0.8349   92.9   1.726  -54.3  0.0528   -8.2  0.7027  134.3
!
!  f       NFmin   Gammaopt  rn/50
! GHz       dB    MAG  ANG    -
 0.450      0.53  0.70    6   0.25
 0.900      0.56  0.68   14   0.24
 1.900      0.65  0.62   37   0.22
 2.400      0.73  0.59   45   0.21
 5.500      1.15  0.34  129   0.11
10.000      2.25  0.63 -104   0.60
!
! (c) 2016  Infineon Technologies AG, Munich
