! Infineon Technologies  Discrete & RF Semiconductors
! BFP760
! VCE =  1.5 V,  IC =  8.0 mA
! Common Emitter S-Parameters:                            Nov 2012
# GHz  S  MA  R  50
!  f         S11            S21            S12            S22
! GHz     MAG   ANG      MAG   ANG      MAG   ANG      MAG   ANG
 0.030  0.9230   -3.6  23.446  177.5  0.0026   81.6  0.9975   -2.7
 0.040  0.9220   -4.7  23.493  176.7  0.0034   83.6  0.9968   -3.5
 0.050  0.9190   -5.8  23.833  175.2  0.0039   82.9  0.9941   -4.3
 0.060  0.9200   -7.0  23.679  174.5  0.0051   91.0  0.9944   -5.1
 0.070  0.9191   -8.1  23.713  173.6  0.0065   86.4  0.9937   -6.0
 0.080  0.9180   -9.3  23.608  172.9  0.0078   86.1  0.9936   -6.8
 0.090  0.9164  -10.4  23.592  172.0  0.0085   83.9  0.9921   -7.7
 0.100  0.9159  -11.6  23.515  171.1  0.0090   83.7  0.9912   -8.6
 0.110  0.9145  -12.7  23.440  170.3  0.0101   83.2  0.9891   -9.4
 0.120  0.9126  -13.9  23.345  169.5  0.0110   83.9  0.9873  -10.3
 0.130  0.9117  -15.0  23.258  168.7  0.0118   81.2  0.9855  -11.1
 0.140  0.9101  -16.1  23.167  167.9  0.0126   81.4  0.9830  -12.0
 0.150  0.9081  -17.3  23.141  167.1  0.0135   80.3  0.9809  -12.8
 0.200  0.8997  -22.8  22.709  163.2  0.0183   77.0  0.9683  -16.9
 0.250  0.8895  -28.2  22.317  159.5  0.0218   74.9  0.9528  -20.9
 0.300  0.8786  -33.5  21.875  155.9  0.0260   70.7  0.9374  -24.7
 0.350  0.8670  -38.7  21.335  152.5  0.0297   67.8  0.9198  -28.5
 0.400  0.8557  -43.9  20.941  149.3  0.0332   65.2  0.8979  -32.1
 0.450  0.8444  -48.6  20.378  146.2  0.0369   62.4  0.8812  -35.5
 0.500  0.8331  -53.5  19.914  143.3  0.0399   60.2  0.8584  -39.0
 0.600  0.8112  -62.7  18.912  137.7  0.0457   55.2  0.8169  -45.5
 0.700  0.7908  -71.5  17.962  132.4  0.0507   51.0  0.7769  -51.6
 0.800  0.7715  -79.9  17.072  127.5  0.0551   46.8  0.7375  -57.4
 0.900  0.7552  -87.4  16.141  123.2  0.0587   43.3  0.6983  -62.9
 1.000  0.7398  -94.6  15.275  119.0  0.0618   40.0  0.6632  -68.0
 1.100  0.7259 -101.2  14.465  115.2  0.0644   36.9  0.6294  -72.9
 1.200  0.7143 -107.5  13.722  111.6  0.0666   34.2  0.5999  -77.4
 1.300  0.7039 -113.4  13.032  108.2  0.0685   31.7  0.5718  -81.8
 1.400  0.6963 -118.9  12.389  105.0  0.0701   29.4  0.5479  -85.9
 1.500  0.6892 -124.1  11.806  102.0  0.0715   27.3  0.5245  -90.0
 1.600  0.6845 -129.1  11.292   99.2  0.0727   25.5  0.5056  -93.9
 1.700  0.6805 -133.7  10.780   96.5  0.0737   23.7  0.4855  -97.7
 1.800  0.6788 -138.0  10.315   93.9  0.0748   22.0  0.4706 -101.6
 1.900  0.6765 -142.1   9.875   91.4  0.0755   20.4  0.4542 -105.3
 2.000  0.6753 -146.1   9.486   88.9  0.0761   18.9  0.4415 -109.0
 2.100  0.6737 -149.8   9.072   86.5  0.0765   17.3  0.4286 -112.6
 2.200  0.6720 -153.4   8.716   84.2  0.0769   16.1  0.4171 -116.0
 2.300  0.6710 -156.7   8.379   82.1  0.0772   14.8  0.4059 -119.4
 2.400  0.6711 -160.0   8.072   79.9  0.0775   13.6  0.3968 -122.7
 2.500  0.6711 -163.1   7.773   77.8  0.0776   12.6  0.3879 -126.0
 2.600  0.6709 -166.2   7.497   75.8  0.0777   11.4  0.3794 -129.4
 2.700  0.6709 -169.1   7.233   73.8  0.0779   10.4  0.3721 -132.7
 2.800  0.6717 -172.0   6.989   71.8  0.0779    9.5  0.3660 -135.9
 2.900  0.6726 -174.7   6.748   69.9  0.0779    8.6  0.3607 -139.3
 3.000  0.6739 -177.4   6.533   67.9  0.0778    7.7  0.3566 -142.6
 3.100  0.6751 -180.0   6.319   66.1  0.0776    6.8  0.3532 -145.7
 3.200  0.6764  177.6   6.116   64.3  0.0775    6.1  0.3503 -148.6
 3.300  0.6780  175.2   5.920   62.5  0.0774    5.3  0.3481 -151.8
 3.400  0.6798  172.8   5.736   60.7  0.0771    4.6  0.3469 -154.6
 3.500  0.6821  170.7   5.560   59.1  0.0769    3.9  0.3458 -157.5
 3.600  0.6841  168.4   5.392   57.3  0.0765    3.3  0.3457 -160.3
 3.700  0.6861  166.4   5.229   55.7  0.0762    2.7  0.3459 -163.1
 3.800  0.6880  164.3   5.069   54.0  0.0760    2.2  0.3470 -165.7
 3.900  0.6903  162.5   4.922   52.5  0.0755    1.6  0.3481 -168.2
 4.000  0.6924  160.6   4.778   50.9  0.0751    1.0  0.3499 -170.5
 4.100  0.6953  158.8   4.643   49.4  0.0747    0.7  0.3524 -172.7
 4.200  0.6976  157.2   4.511   47.9  0.0744    0.2  0.3542 -174.8
 4.300  0.6996  155.6   4.382   46.5  0.0740   -0.1  0.3570 -176.8
 4.400  0.7024  154.0   4.264   45.0  0.0736   -0.5  0.3594 -178.6
 4.500  0.7047  152.6   4.150   43.6  0.0733   -0.7  0.3622  179.5
 4.600  0.7076  151.2   4.041   42.2  0.0730   -1.0  0.3644  177.9
 4.700  0.7098  149.9   3.936   40.9  0.0726   -1.2  0.3672  176.2
 4.800  0.7123  148.6   3.836   39.6  0.0721   -1.5  0.3697  174.8
 4.900  0.7145  147.5   3.741   38.2  0.0719   -1.6  0.3726  173.2
 5.000  0.7171  146.3   3.649   37.0  0.0715   -1.8  0.3750  171.9
 5.100  0.7191  145.2   3.563   35.7  0.0712   -2.0  0.3778  170.4
 5.200  0.7214  144.2   3.481   34.4  0.0710   -2.1  0.3799  169.2
 5.300  0.7231  143.2   3.399   33.1  0.0707   -2.2  0.3823  167.8
 5.400  0.7249  142.1   3.323   31.9  0.0705   -2.3  0.3850  166.5
 5.500  0.7257  141.2   3.246   30.6  0.0701   -2.3  0.3866  165.3
 5.600  0.7268  140.3   3.175   29.5  0.0699   -2.3  0.3884  164.0
 5.700  0.7281  139.4   3.109   28.3  0.0697   -2.3  0.3917  162.7
 5.800  0.7291  138.5   3.044   27.1  0.0695   -2.3  0.3935  161.5
 5.900  0.7305  137.7   2.981   25.9  0.0695   -2.2  0.3965  160.2
 6.000  0.7323  136.8   2.922   24.7  0.0694   -2.1  0.3993  159.0
 6.100  0.7342  136.1   2.867   23.5  0.0694   -2.0  0.4032  157.9
 6.200  0.7352  135.1   2.810   22.2  0.0696   -2.1  0.4055  156.8
 6.300  0.7376  134.2   2.757   21.1  0.0696   -2.1  0.4094  155.6
 6.400  0.7391  133.3   2.705   19.8  0.0696   -2.2  0.4127  154.4
 6.500  0.7413  132.3   2.654   18.6  0.0697   -2.2  0.4164  153.4
 6.600  0.7437  131.3   2.607   17.3  0.0697   -2.4  0.4197  152.2
 6.700  0.7454  130.5   2.558   16.3  0.0699   -2.3  0.4234  151.1
 6.800  0.7462  129.4   2.511   15.0  0.0699   -2.4  0.4268  150.0
 6.900  0.7492  128.4   2.465   13.7  0.0699   -2.5  0.4313  148.9
 7.000  0.7511  127.3   2.425   12.5  0.0701   -2.7  0.4348  147.9
 7.100  0.7536  126.3   2.382   11.3  0.0703   -2.6  0.4404  146.8
 7.200  0.7562  125.2   2.342   10.0  0.0703   -2.9  0.4444  145.8
 7.300  0.7582  124.2   2.300    8.8  0.0704   -2.9  0.4488  144.7
 7.400  0.7612  123.0   2.262    7.4  0.0706   -3.2  0.4533  143.6
 7.500  0.7650  121.9   2.224    6.1  0.0707   -3.3  0.4583  142.5
 7.600  0.7680  120.8   2.185    4.8  0.0709   -3.6  0.4630  141.3
 7.700  0.7711  119.7   2.147    3.6  0.0710   -3.8  0.4678  140.2
 7.800  0.7750  118.5   2.107    2.2  0.0710   -4.1  0.4735  138.8
 7.900  0.7785  117.5   2.070    0.8  0.0711   -4.4  0.4788  137.6
 8.000  0.7829  116.3   2.029   -0.5  0.0710   -4.7  0.4850  136.3
 8.500  0.8038  110.7   1.830   -7.3  0.0704   -6.2  0.5156  129.6
 9.000  0.8220  105.9   1.626  -13.3  0.0688   -7.2  0.5532  123.5
 9.500  0.8391  102.3   1.438  -18.0  0.0671   -7.0  0.5907  119.0
10.000  0.8537  100.1   1.283  -21.4  0.0663   -6.0  0.6261  116.8
!
!  f       NFmin   Gammaopt  rn/50
! GHz       dB    MAG  ANG    -
 0.900      0.46  0.29   26   0.10
 1.800      0.52  0.23   54   0.09
 2.400      0.57  0.18   81   0.09
 3.500      0.75  0.16  119   0.08
 5.500      0.95  0.30 -146   0.08
 8.000      1.43  0.42  -98   0.24
!
! (c) 2012  Infineon Technologies AG, Munich
