! Infineon Technologies  Discrete & RF Semiconductors
! BFP780
! VCE =  5.0 V,  IC =  42 mA
! Common Emitter S-Parameters:                            Jul 2015
# GHz  S  MA  R  50
!  f         S11            S21            S12            S22
! GHz     MAG   ANG      MAG   ANG      MAG   ANG      MAG   ANG
 0.030  0.4911  -27.6  63.594  168.9  0.0053   65.9  0.8960  -14.6
 0.040  0.5011  -36.3  62.679  165.3  0.0066   59.2  0.8854  -19.7
 0.050  0.5063  -44.6  61.757  161.5  0.0071   59.0  0.8737  -24.4
 0.060  0.5242  -52.2  60.614  158.2  0.0092   62.6  0.8600  -28.9
 0.070  0.5336  -59.4  59.339  154.8  0.0110   56.4  0.8456  -33.5
 0.080  0.5492  -66.1  57.975  151.6  0.0115   57.9  0.8300  -37.6
 0.090  0.5613  -72.8  56.451  148.6  0.0139   54.8  0.8097  -42.0
 0.100  0.5744  -78.4  54.927  145.8  0.0143   52.3  0.7941  -45.8
 0.110  0.5868  -83.9  53.340  143.0  0.0154   53.1  0.7752  -50.0
 0.120  0.5991  -88.9  51.818  140.4  0.0163   49.0  0.7576  -53.5
 0.130  0.6104  -93.5  50.320  138.0  0.0172   47.2  0.7385  -56.9
 0.140  0.6211  -97.9  48.723  135.6  0.0181   48.9  0.7205  -60.3
 0.150  0.6310 -101.8  47.278  133.5  0.0183   45.2  0.7053  -63.5
 0.200  0.6735 -117.8  40.494  124.2  0.0215   37.5  0.6304  -77.7
 0.250  0.6992 -129.3  34.990  116.9  0.0230   33.5  0.5749  -89.3
 0.300  0.7175 -138.1  30.494  111.2  0.0239   30.1  0.5296  -99.0
 0.350  0.7305 -144.9  26.911  106.5  0.0250   27.0  0.4961 -107.1
 0.400  0.7410 -150.3  24.020  102.6  0.0257   25.2  0.4716 -113.9
 0.450  0.7472 -154.7  21.654   99.3  0.0261   23.8  0.4527 -119.8
 0.500  0.7513 -158.5  19.681   96.3  0.0265   22.4  0.4365 -124.9
 0.600  0.7604 -164.7  16.600   91.3  0.0270   20.4  0.4162 -133.5
 0.700  0.7630 -169.6  14.318   86.9  0.0278   19.3  0.4025 -140.3
 0.800  0.7691 -173.5  12.580   83.2  0.0281   18.7  0.3967 -145.8
 0.900  0.7714 -177.1  11.204   79.7  0.0283   18.5  0.3909 -150.6
 1.000  0.7760  179.8  10.096   76.5  0.0289   18.5  0.3918 -154.5
 1.100  0.7762  177.1   9.164   73.5  0.0291   18.2  0.3907 -158.1
 1.200  0.7817  174.5   8.411   70.6  0.0294   18.1  0.3947 -161.0
 1.300  0.7819  172.2   7.751   67.8  0.0299   18.7  0.3960 -163.8
 1.400  0.7850  170.0   7.186   65.0  0.0301   18.6  0.4010 -166.2
 1.500  0.7851  167.9   6.690   62.5  0.0306   19.0  0.4043 -168.5
 1.600  0.7896  165.8   6.267   59.8  0.0309   18.8  0.4108 -170.6
 1.700  0.7895  163.8   5.880   57.2  0.0312   19.3  0.4159 -172.7
 1.800  0.7910  161.9   5.529   54.6  0.0318   19.8  0.4225 -174.5
 1.900  0.7923  160.2   5.217   52.3  0.0322   19.7  0.4288 -176.3
 2.000  0.7968  158.4   4.954   49.8  0.0327   19.6  0.4361 -178.0
 2.100  0.7973  156.7   4.687   47.3  0.0327   20.3  0.4390 -179.1
 2.200  0.7979  155.0   4.451   44.9  0.0332   20.1  0.4448  179.2
 2.300  0.7993  153.4   4.239   42.6  0.0336   20.4  0.4500  177.5
 2.400  0.8025  151.7   4.050   40.1  0.0342   21.0  0.4563  175.9
 2.500  0.8042  150.0   3.871   37.7  0.0346   21.0  0.4627  174.2
 2.600  0.8051  148.3   3.694   35.3  0.0350   21.4  0.4692  172.5
 2.700  0.8056  146.7   3.534   33.1  0.0356   21.7  0.4757  170.8
 2.800  0.8084  145.1   3.387   30.7  0.0359   21.7  0.4830  169.1
 2.900  0.8098  143.5   3.246   28.4  0.0367   21.7  0.4909  167.5
 3.000  0.8120  141.8   3.115   26.0  0.0372   22.0  0.4985  165.8
 3.100  0.8132  140.4   2.988   23.9  0.0377   22.5  0.5064  164.2
 3.200  0.8147  138.9   2.871   21.6  0.0382   22.5  0.5140  162.6
 3.300  0.8159  137.4   2.758   19.5  0.0390   22.6  0.5224  161.1
 3.400  0.8180  135.9   2.653   17.3  0.0395   22.6  0.5304  159.5
 3.500  0.8199  134.5   2.556   15.2  0.0402   22.6  0.5387  158.1
 3.600  0.8212  132.9   2.458   13.1  0.0408   22.6  0.5466  156.5
 3.700  0.8231  131.6   2.372   11.0  0.0415   22.5  0.5544  155.1
 3.800  0.8243  130.1   2.281    8.9  0.0423   22.5  0.5627  153.5
 3.900  0.8269  128.9   2.203    7.0  0.0430   22.4  0.5709  152.2
 4.000  0.8291  127.5   2.125    5.0  0.0436   22.2  0.5790  150.7
 4.100  0.8316  126.1   2.055    2.9  0.0444   22.4  0.5870  149.5
 4.200  0.8338  124.8   1.983    1.0  0.0452   22.3  0.5951  148.0
 4.300  0.8356  123.5   1.918   -1.0  0.0459   22.0  0.6035  146.9
 4.400  0.8388  122.4   1.855   -2.8  0.0470   21.8  0.6112  145.5
 4.500  0.8408  121.1   1.796   -4.7  0.0476   21.5  0.6186  144.3
 4.600  0.8438  120.0   1.738   -6.6  0.0483   21.4  0.6265  143.0
 4.700  0.8452  118.8   1.684   -8.5  0.0492   20.9  0.6328  141.7
 4.800  0.8478  117.7   1.630  -10.3  0.0500   20.7  0.6404  140.5
 4.900  0.8494  116.7   1.580  -12.0  0.0508   20.4  0.6463  139.3
 5.000  0.8512  115.5   1.532  -13.8  0.0515   19.9  0.6533  138.0
 5.100  0.8535  114.7   1.487  -15.6  0.0526   19.5  0.6587  136.7
 5.200  0.8545  113.5   1.443  -17.4  0.0533   19.0  0.6650  135.5
 5.300  0.8557  112.6   1.400  -19.1  0.0541   18.6  0.6702  134.2
 5.400  0.8570  111.7   1.360  -20.9  0.0551   18.3  0.6758  133.1
 5.500  0.8571  110.8   1.320  -22.4  0.0558   17.8  0.6803  131.8
 5.600  0.8581  110.1   1.283  -24.1  0.0567   17.4  0.6857  130.5
 5.700  0.8574  109.1   1.249  -25.7  0.0576   16.8  0.6904  129.3
 5.800  0.8586  108.2   1.215  -27.4  0.0587   16.5  0.6955  128.0
 5.900  0.8578  107.4   1.183  -28.9  0.0597   15.9  0.7004  126.8
 6.000  0.8588  106.4   1.151  -30.6  0.0608   15.2  0.7056  125.4
!
!  f       NFmin   Gammaopt  rn/50
! GHz       dB    MAG  ANG    -
!
! noise parameter not available yet for this operation point!
!
! (c) 2015  Infineon Technologies AG, Munich
