! Infineon Technologies  Discrete & RF Semiconductors
! BFP720
! VCE =  4.0 V,  IC =  6.0 mA
! Common Emitter S-Parameters:                            Aug 2012
# GHz  S  MA  R  50
!  f         S11            S21            S12            S22
! GHz     MAG   ANG      MAG   ANG      MAG   ANG      MAG   ANG
 0.010  0.9208    0.3  16.519  179.5  0.0011    4.1  0.9783    1.0
 0.020  0.9240   -0.8  16.411  178.2  0.0010   55.5  0.9920   -0.5
 0.030  0.9234   -1.3  16.459  177.9  0.0013   58.6  0.9919   -0.8
 0.040  0.9229   -1.9  16.508  177.6  0.0017   60.5  0.9919   -1.2
 0.050  0.9225   -2.4  16.557  177.2  0.0020   61.8  0.9919   -1.5
 0.060  0.9224   -2.8  16.535  176.9  0.0023   67.0  0.9919   -1.8
 0.070  0.9222   -3.3  16.513  176.6  0.0026   71.0  0.9919   -2.2
 0.080  0.9222   -3.7  16.492  176.3  0.0029   74.2  0.9920   -2.5
 0.090  0.9221   -4.2  16.471  175.9  0.0032   76.8  0.9921   -2.8
 0.100  0.9222   -4.7  16.451  175.6  0.0035   78.8  0.9923   -3.2
 0.110  0.9218   -5.1  16.447  175.2  0.0039   79.1  0.9919   -3.5
 0.120  0.9215   -5.6  16.445  174.8  0.0042   79.3  0.9916   -3.8
 0.130  0.9213   -6.1  16.443  174.4  0.0045   79.4  0.9914   -4.1
 0.140  0.9211   -6.5  16.441  174.0  0.0049   79.6  0.9911   -4.4
 0.150  0.9210   -7.0  16.441  173.6  0.0052   79.7  0.9909   -4.7
 0.200  0.9189   -9.3  16.325  171.7  0.0070   79.5  0.9888   -6.2
 0.250  0.9153  -11.7  16.279  169.7  0.0087   79.4  0.9863   -7.8
 0.300  0.9120  -14.0  16.167  167.9  0.0104   78.8  0.9826   -9.3
 0.350  0.9085  -16.3  16.086  166.1  0.0121   77.6  0.9797  -10.9
 0.400  0.9048  -18.6  16.036  164.3  0.0138   76.6  0.9747  -12.5
 0.450  0.9004  -20.9  15.912  162.5  0.0155   75.4  0.9711  -14.0
 0.500  0.8957  -23.2  15.836  160.8  0.0171   74.1  0.9660  -15.5
 0.600  0.8863  -27.9  15.677  157.3  0.0204   71.7  0.9546  -18.6
 0.700  0.8755  -32.6  15.508  153.9  0.0236   69.1  0.9434  -21.7
 0.800  0.8623  -37.5  15.480  150.4  0.0268   66.5  0.9312  -24.7
 0.900  0.8505  -42.3  15.258  147.0  0.0298   63.8  0.9157  -27.7
 1.000  0.8375  -47.1  15.058  143.7  0.0326   61.1  0.8995  -30.8
 1.100  0.8238  -51.7  14.826  140.3  0.0354   58.4  0.8821  -33.7
 1.200  0.8093  -56.5  14.607  136.9  0.0380   55.9  0.8640  -36.6
 1.300  0.7947  -61.3  14.384  133.6  0.0404   53.3  0.8446  -39.4
 1.400  0.7797  -65.9  14.122  130.3  0.0427   50.8  0.8243  -42.1
 1.500  0.7648  -70.6  13.890  127.1  0.0447   48.4  0.8034  -44.8
 1.600  0.7472  -75.7  13.742  123.6  0.0467   45.9  0.7832  -47.4
 1.700  0.7324  -80.1  13.433  120.5  0.0484   43.6  0.7616  -50.0
 1.800  0.7192  -84.4  13.132  117.4  0.0500   41.3  0.7417  -52.4
 1.900  0.7052  -88.5  12.825  114.5  0.0514   39.2  0.7222  -54.7
 2.000  0.6939  -92.6  12.522  111.7  0.0528   37.2  0.7033  -57.0
 2.100  0.6810  -96.4  12.218  109.0  0.0539   35.2  0.6845  -59.0
 2.200  0.6713 -100.3  11.941  106.2  0.0550   33.3  0.6666  -61.2
 2.300  0.6608 -103.8  11.642  103.7  0.0559   31.5  0.6498  -63.2
 2.400  0.6529 -107.4  11.365  101.1  0.0568   29.7  0.6337  -65.3
 2.500  0.6426 -110.9  11.097   98.7  0.0576   28.1  0.6182  -67.1
 2.600  0.6347 -114.4  10.850   96.1  0.0584   26.6  0.6033  -69.0
 2.700  0.6266 -117.7  10.599   93.8  0.0589   25.1  0.5891  -70.8
 2.800  0.6207 -121.1  10.365   91.4  0.0596   23.6  0.5756  -72.7
 2.900  0.6122 -124.3  10.130   89.2  0.0601   22.2  0.5624  -74.4
 3.000  0.6056 -127.6   9.910   86.9  0.0606   20.9  0.5497  -76.3
 3.100  0.5955 -130.8   9.687   84.9  0.0608   19.7  0.5362  -77.9
 3.200  0.5873 -134.0   9.477   82.8  0.0611   18.4  0.5232  -79.6
 3.300  0.5811 -137.4   9.280   80.7  0.0614   17.2  0.5106  -81.4
 3.400  0.5768 -140.8   9.096   78.4  0.0617   16.0  0.4986  -83.2
 3.500  0.5746 -144.2   8.928   76.1  0.0621   14.7  0.4872  -85.2
 3.600  0.5668 -147.5   8.734   74.2  0.0622   13.7  0.4744  -87.0
 3.700  0.5608 -150.9   8.550   72.2  0.0623   12.6  0.4622  -88.8
 3.800  0.5569 -154.3   8.377   70.1  0.0624   11.6  0.4504  -90.8
 3.900  0.5549 -157.8   8.215   68.0  0.0625   10.6  0.4392  -92.9
 4.000  0.5550 -161.3   8.065   65.7  0.0627    9.5  0.4286  -95.0
 4.100  0.5501 -164.7   7.892   63.9  0.0626    8.6  0.4163  -97.1
 4.200  0.5471 -168.1   7.727   62.1  0.0626    7.7  0.4046  -99.3
 4.300  0.5461 -171.5   7.572   60.1  0.0625    6.8  0.3934 -101.6
 4.400  0.5470 -174.9   7.425   58.1  0.0625    5.9  0.3830 -104.1
 4.500  0.5499 -178.4   7.288   55.9  0.0625    5.0  0.3733 -106.7
 4.600  0.5493  179.0   7.129   54.2  0.0623    4.2  0.3633 -109.1
 4.700  0.5500  176.4   6.976   52.4  0.0620    3.4  0.3539 -111.6
 4.800  0.5517  173.8   6.830   50.5  0.0618    2.7  0.3452 -114.2
 4.900  0.5546  171.2   6.692   48.6  0.0616    1.9  0.3373 -116.9
 5.000  0.5587  168.6   6.562   46.6  0.0615    1.1  0.3302 -119.8
 5.100  0.5597  166.4   6.422   45.0  0.0611    0.6  0.3246 -122.1
 5.200  0.5617  164.2   6.287   43.4  0.0608    0.0  0.3194 -124.4
 5.300  0.5644  162.1   6.157   41.7  0.0605   -0.5  0.3148 -126.8
 5.400  0.5679  159.9   6.032   40.0  0.0602   -1.1  0.3107 -129.2
 5.500  0.5722  157.8   5.913   38.1  0.0598   -1.7  0.3073 -131.8
 5.600  0.5737  156.2   5.797   36.7  0.0595   -2.0  0.3058 -133.5
 5.700  0.5756  154.5   5.684   35.2  0.0591   -2.3  0.3047 -135.2
 5.800  0.5780  152.9   5.575   33.7  0.0587   -2.7  0.3038 -136.9
 5.900  0.5809  151.3   5.470   32.1  0.0584   -3.0  0.3032 -138.6
 6.000  0.5842  149.7   5.370   30.4  0.0580   -3.3  0.3029 -140.3
 6.100  0.5840  148.3   5.272   29.0  0.0577   -3.4  0.3026 -141.2
 6.200  0.5840  147.0   5.178   27.6  0.0575   -3.5  0.3025 -142.1
 6.300  0.5844  145.6   5.087   26.2  0.0572   -3.5  0.3023 -142.9
 6.400  0.5851  144.3   4.999   24.6  0.0569   -3.6  0.3023 -143.8
 6.500  0.5861  143.0   4.915   23.1  0.0566   -3.6  0.3023 -144.7
 6.600  0.5844  141.8   4.835   21.8  0.0566   -3.5  0.3004 -145.0
 6.700  0.5830  140.6   4.758   20.5  0.0565   -3.3  0.2984 -145.4
 6.800  0.5819  139.4   4.683   19.1  0.0564   -3.2  0.2965 -145.7
 6.900  0.5810  138.2   4.611   17.7  0.0564   -3.0  0.2946 -146.0
 7.000  0.5803  136.9   4.542   16.2  0.0563   -2.8  0.2927 -146.4
 7.100  0.5798  135.6   4.482   14.9  0.0566   -2.8  0.2899 -147.0
 7.200  0.5796  134.2   4.424   13.5  0.0569   -2.7  0.2871 -147.6
 7.300  0.5797  132.9   4.369   12.2  0.0572   -2.6  0.2844 -148.3
 7.400  0.5802  131.5   4.317   10.7  0.0575   -2.5  0.2817 -148.9
 7.500  0.5809  130.2   4.267    9.3  0.0578   -2.5  0.2791 -149.6
 7.600  0.5824  128.4   4.215    7.8  0.0582   -2.6  0.2758 -151.4
 7.700  0.5844  126.6   4.167    6.2  0.0586   -2.8  0.2728 -153.2
 7.800  0.5869  124.9   4.121    4.7  0.0590   -2.9  0.2701 -155.0
 7.900  0.5900  123.1   4.079    3.1  0.0594   -3.1  0.2676 -156.9
 8.000  0.5936  121.4   4.040    1.5  0.0597   -3.2  0.2655 -158.8
 8.500  0.6165  111.5   3.762   -6.9  0.0610   -4.2  0.2663  172.5
 9.000  0.6494  102.4   3.473  -15.0  0.0631   -5.0  0.2870  155.5
 9.500  0.6944   94.9   3.190  -22.8  0.0652   -6.9  0.3331  140.7
10.000  0.7385   88.3   2.893  -30.4  0.0660   -9.3  0.3916  128.8
10.500  0.7631   83.7   2.595  -36.2  0.0667  -10.2  0.4452  120.5
11.000  0.7796   81.9   2.395  -40.5  0.0689  -10.9  0.4896  115.6
11.500  0.8132   81.2   2.273  -45.9  0.0720  -12.8  0.5375  112.7
12.000  0.8435   79.4   2.133  -52.8  0.0736  -15.9  0.5839  109.5
!
!  f       NFmin   Gammaopt  rn/50
! GHz       dB    MAG  ANG    -
 0.450      0.43  0.44    3   0.13
 1.800      0.51  0.42   24   0.13
 2.400      0.55  0.30   55   0.23
 5.500      0.69  0.20   58   0.14
10.000      0.95  0.39  -89   0.21
!
! (c) 2012  Infineon Technologies AG, Munich
