! Infineon Technologies  Discrete & RF Semiconductors
! BFP720F
! VCE =  0.5 V,  IC =  1.5 mA
! Common Emitter S-Parameters:                            Jan 2016
# GHz  S  MA  R  50
!  f         S11            S21            S12            S22
! GHz     MAG   ANG      MAG   ANG      MAG   ANG      MAG   ANG
 0.010  0.9752    0.0   5.197  179.8  0.0004   10.4  0.9970   -0.5
 0.015  0.9786   -0.3   5.074  179.0  0.0007   73.6  0.9985   -0.8
 0.020  0.9821   -0.5   4.951  178.2  0.0013   89.5  1.0000   -1.1
 0.025  0.9820   -0.7   4.959  178.3  0.0016   90.0  0.9996   -1.1
 0.030  0.9818   -0.8   4.968  178.3  0.0019   90.3  0.9992   -1.2
 0.035  0.9817   -1.0   4.976  178.4  0.0022   90.5  0.9988   -1.2
 0.040  0.9816   -1.2   4.984  178.5  0.0026   90.7  0.9984   -1.2
 0.045  0.9815   -1.3   4.993  178.5  0.0029   90.8  0.9980   -1.3
 0.050  0.9814   -1.5   5.001  178.6  0.0032   90.9  0.9976   -1.3
 0.055  0.9814   -1.6   5.002  178.5  0.0035   90.4  0.9976   -1.4
 0.060  0.9814   -1.8   5.004  178.4  0.0038   90.0  0.9977   -1.5
 0.065  0.9814   -1.9   5.005  178.2  0.0041   89.6  0.9977   -1.6
 0.070  0.9815   -2.0   5.007  178.1  0.0044   89.3  0.9978   -1.7
 0.075  0.9815   -2.2   5.008  178.0  0.0047   89.0  0.9979   -1.9
 0.080  0.9815   -2.3   5.010  177.9  0.0051   88.8  0.9979   -2.0
 0.085  0.9816   -2.4   5.011  177.8  0.0054   88.6  0.9980   -2.1
 0.090  0.9816   -2.5   5.013  177.6  0.0057   88.4  0.9981   -2.2
 0.095  0.9816   -2.7   5.014  177.5  0.0060   88.2  0.9981   -2.3
 0.100  0.9817   -2.8   5.016  177.4  0.0063   88.1  0.9982   -2.4
 0.105  0.9816   -2.9   5.017  177.3  0.0066   88.0  0.9982   -2.5
 0.110  0.9814   -3.1   5.019  177.2  0.0069   87.9  0.9981   -2.6
 0.115  0.9813   -3.2   5.020  177.0  0.0073   87.7  0.9981   -2.8
 0.120  0.9812   -3.4   5.021  176.9  0.0076   87.6  0.9981   -2.9
 0.125  0.9811   -3.5   5.023  176.8  0.0079   87.6  0.9981   -3.0
 0.130  0.9810   -3.6   5.024  176.7  0.0082   87.5  0.9981   -3.1
 0.135  0.9809   -3.8   5.026  176.6  0.0085   87.4  0.9981   -3.2
 0.140  0.9808   -3.9   5.027  176.4  0.0089   87.3  0.9981   -3.4
 0.145  0.9807   -4.1   5.029  176.3  0.0092   87.3  0.9981   -3.5
 0.150  0.9806   -4.2   5.030  176.2  0.0095   87.2  0.9981   -3.6
 0.155  0.9804   -4.3   5.029  176.1  0.0098   87.1  0.9979   -3.7
 0.160  0.9802   -4.5   5.028  176.0  0.0101   87.0  0.9977   -3.8
 0.165  0.9801   -4.6   5.027  175.8  0.0104   86.8  0.9975   -3.9
 0.170  0.9799   -4.8   5.027  175.7  0.0107   86.7  0.9973   -4.0
 0.175  0.9797   -4.9   5.026  175.6  0.0110   86.6  0.9972   -4.1
 0.180  0.9796   -5.0   5.025  175.5  0.0113   86.5  0.9970   -4.3
 0.185  0.9794   -5.2   5.024  175.4  0.0116   86.4  0.9968   -4.4
 0.190  0.9793   -5.3   5.023  175.2  0.0119   86.4  0.9966   -4.5
 0.195  0.9791   -5.5   5.023  175.1  0.0122   86.3  0.9965   -4.6
 0.200  0.9790   -5.6   5.022  175.0  0.0125   86.2  0.9963   -4.7
 0.220  0.9784   -6.2   5.030  174.5  0.0137   85.7  0.9963   -5.2
 0.240  0.9778   -6.8   5.038  174.0  0.0150   85.2  0.9964   -5.7
 0.260  0.9774   -7.4   5.040  173.5  0.0162   84.7  0.9958   -6.2
 0.280  0.9770   -7.9   5.037  173.0  0.0175   84.2  0.9944   -6.7
 0.300  0.9768   -8.5   5.034  172.5  0.0188   83.8  0.9931   -7.2
 0.320  0.9765   -9.1   5.036  172.0  0.0200   83.4  0.9932   -7.7
 0.340  0.9763   -9.6   5.039  171.5  0.0213   83.0  0.9934   -8.2
 0.360  0.9758  -10.2   5.044  171.0  0.0225   82.5  0.9931   -8.7
 0.380  0.9752  -10.8   5.052  170.5  0.0238   82.0  0.9923   -9.2
 0.400  0.9746  -11.4   5.061  170.0  0.0251   81.6  0.9916   -9.7
 0.420  0.9738  -12.0   5.046  169.5  0.0263   81.2  0.9911  -10.1
 0.440  0.9730  -12.5   5.031  169.0  0.0276   80.8  0.9907  -10.6
 0.450  0.9727  -12.8   5.024  168.7  0.0282   80.6  0.9905  -10.8
 0.460  0.9724  -13.1   5.029  168.5  0.0288   80.4  0.9901  -11.0
 0.480  0.9720  -13.6   5.040  168.0  0.0300   79.9  0.9895  -11.5
 0.500  0.9716  -14.2   5.051  167.6  0.0312   79.5  0.9889  -12.0
 0.520  0.9706  -14.8   5.051  167.1  0.0325   79.0  0.9879  -12.5
 0.540  0.9698  -15.4   5.051  166.6  0.0338   78.5  0.9870  -13.0
 0.560  0.9690  -16.0   5.051  166.0  0.0350   78.1  0.9861  -13.5
 0.580  0.9683  -16.6   5.052  165.5  0.0363   77.7  0.9853  -14.0
 0.600  0.9678  -17.2   5.053  165.0  0.0376   77.3  0.9846  -14.5
 0.620  0.9667  -17.8   5.049  164.5  0.0389   76.7  0.9838  -15.0
 0.640  0.9656  -18.4   5.045  164.0  0.0402   76.2  0.9831  -15.5
 0.660  0.9647  -18.9   5.042  163.6  0.0416   75.7  0.9824  -16.0
 0.680  0.9638  -19.5   5.039  163.1  0.0429   75.2  0.9818  -16.5
 0.700  0.9631  -20.1   5.036  162.6  0.0442   74.8  0.9813  -17.0
 0.720  0.9619  -20.7   5.042  162.1  0.0454   74.3  0.9801  -17.5
 0.740  0.9609  -21.3   5.048  161.6  0.0465   73.9  0.9790  -18.0
 0.760  0.9600  -21.9   5.055  161.2  0.0477   73.5  0.9780  -18.4
 0.780  0.9591  -22.5   5.062  160.7  0.0488   73.1  0.9770  -18.9
 0.800  0.9584  -23.1   5.069  160.2  0.0500   72.7  0.9761  -19.4
 0.820  0.9570  -23.7   5.067  159.7  0.0512   72.2  0.9747  -19.9
 0.840  0.9557  -24.3   5.066  159.1  0.0524   71.7  0.9734  -20.4
 0.860  0.9545  -24.9   5.065  158.6  0.0536   71.3  0.9721  -20.8
 0.880  0.9535  -25.5   5.064  158.0  0.0548   70.8  0.9709  -21.3
 0.900  0.9525  -26.1   5.064  157.5  0.0560   70.4  0.9698  -21.8
 0.920  0.9511  -26.7   5.061  157.0  0.0573   69.9  0.9683  -22.3
 0.940  0.9499  -27.3   5.059  156.5  0.0585   69.3  0.9668  -22.8
 0.960  0.9487  -27.9   5.057  156.0  0.0598   68.8  0.9655  -23.4
 0.980  0.9477  -28.5   5.055  155.5  0.0611   68.4  0.9642  -23.9
 1.000  0.9467  -29.1   5.054  155.0  0.0624   67.9  0.9630  -24.4
 1.020  0.9451  -29.7   5.048  154.5  0.0636   67.4  0.9614  -24.9
 1.040  0.9436  -30.3   5.043  154.0  0.0648   66.9  0.9599  -25.4
 1.060  0.9422  -30.8   5.038  153.4  0.0660   66.4  0.9585  -25.9
 1.080  0.9409  -31.4   5.034  152.9  0.0672   65.9  0.9571  -26.4
 1.100  0.9397  -32.0   5.030  152.4  0.0684   65.5  0.9558  -26.9
 1.120  0.9381  -32.6   5.027  151.9  0.0695   65.0  0.9541  -27.4
 1.140  0.9366  -33.2   5.025  151.4  0.0706   64.6  0.9524  -27.9
 1.160  0.9352  -33.9   5.023  150.9  0.0717   64.1  0.9509  -28.3
 1.180  0.9340  -34.5   5.022  150.4  0.0728   63.7  0.9493  -28.8
 1.200  0.9328  -35.1   5.021  149.9  0.0739   63.3  0.9479  -29.3
 1.220  0.9311  -35.7   5.015  149.4  0.0750   62.8  0.9460  -29.8
 1.240  0.9294  -36.3   5.009  148.9  0.0762   62.3  0.9442  -30.3
 1.260  0.9279  -36.9   5.004  148.3  0.0774   61.8  0.9424  -30.8
 1.280  0.9264  -37.5   4.999  147.8  0.0785   61.4  0.9407  -31.3
 1.300  0.9251  -38.1   4.994  147.3  0.0797   60.9  0.9391  -31.8
 1.320  0.9233  -38.7   4.986  146.8  0.0808   60.4  0.9370  -32.3
 1.340  0.9216  -39.3   4.978  146.3  0.0820   59.9  0.9349  -32.8
 1.360  0.9201  -39.9   4.970  145.7  0.0831   59.4  0.9330  -33.4
 1.380  0.9186  -40.5   4.963  145.2  0.0842   59.0  0.9311  -33.9
 1.400  0.9172  -41.1   4.956  144.7  0.0854   58.5  0.9293  -34.4
 1.420  0.9154  -41.7   4.951  144.2  0.0864   58.0  0.9272  -34.9
 1.440  0.9137  -42.3   4.945  143.7  0.0874   57.6  0.9251  -35.4
 1.460  0.9121  -43.0   4.941  143.3  0.0884   57.1  0.9231  -35.9
 1.480  0.9106  -43.6   4.936  142.8  0.0895   56.7  0.9212  -36.4
 1.500  0.9092  -44.2   4.932  142.3  0.0905   56.3  0.9194  -36.9
 1.520  0.9073  -44.8   4.931  141.8  0.0915   55.8  0.9174  -37.4
 1.540  0.9055  -45.4   4.930  141.3  0.0925   55.4  0.9154  -37.8
 1.560  0.9038  -46.1   4.930  140.7  0.0935   54.9  0.9135  -38.3
 1.580  0.9023  -46.7   4.930  140.2  0.0945   54.4  0.9116  -38.7
 1.600  0.9008  -47.3   4.931  139.7  0.0955   54.0  0.9098  -39.2
 1.620  0.8984  -47.9   4.923  139.1  0.0966   53.5  0.9073  -39.8
 1.640  0.8962  -48.5   4.915  138.6  0.0977   53.0  0.9050  -40.3
 1.660  0.8940  -49.2   4.908  138.0  0.0988   52.5  0.9027  -40.9
 1.680  0.8919  -49.8   4.901  137.5  0.0999   52.0  0.9005  -41.4
 1.700  0.8900  -50.4   4.895  136.9  0.1010   51.5  0.8984  -42.0
 1.720  0.8882  -51.0   4.885  136.4  0.1019   51.0  0.8963  -42.5
 1.740  0.8866  -51.6   4.875  135.9  0.1029   50.5  0.8943  -43.0
 1.760  0.8850  -52.1   4.865  135.4  0.1039   50.0  0.8924  -43.4
 1.780  0.8835  -52.7   4.856  134.9  0.1048   49.6  0.8905  -43.9
 1.800  0.8821  -53.3   4.847  134.4  0.1058   49.1  0.8887  -44.4
 1.820  0.8799  -53.9   4.835  133.9  0.1066   48.6  0.8864  -44.9
 1.840  0.8779  -54.5   4.824  133.4  0.1075   48.2  0.8842  -45.3
 1.860  0.8759  -55.0   4.813  132.9  0.1083   47.8  0.8820  -45.8
 1.880  0.8740  -55.6   4.803  132.4  0.1091   47.3  0.8799  -46.2
 1.900  0.8722  -56.2   4.793  131.9  0.1100   46.9  0.8778  -46.7
 1.920  0.8703  -56.8   4.783  131.4  0.1109   46.4  0.8756  -47.1
 1.940  0.8685  -57.4   4.773  130.9  0.1118   46.0  0.8734  -47.6
 1.960  0.8668  -57.9   4.763  130.3  0.1127   45.6  0.8712  -48.0
 1.980  0.8651  -58.5   4.754  129.8  0.1136   45.1  0.8691  -48.5
 2.000  0.8636  -59.1   4.745  129.3  0.1145   44.7  0.8671  -48.9
 2.020  0.8615  -59.6   4.731  128.8  0.1153   44.2  0.8646  -49.4
 2.040  0.8595  -60.2   4.718  128.4  0.1160   43.8  0.8622  -49.8
 2.060  0.8576  -60.7   4.705  127.9  0.1168   43.3  0.8599  -50.3
 2.080  0.8558  -61.3   4.692  127.4  0.1176   42.8  0.8576  -50.8
 2.100  0.8540  -61.8   4.679  126.9  0.1184   42.4  0.8553  -51.3
 2.120  0.8523  -62.4   4.667  126.5  0.1192   41.9  0.8532  -51.8
 2.140  0.8507  -62.9   4.655  126.0  0.1200   41.5  0.8511  -52.2
 2.160  0.8492  -63.5   4.644  125.5  0.1208   41.1  0.8490  -52.7
 2.180  0.8478  -64.0   4.633  125.0  0.1216   40.6  0.8470  -53.2
 2.200  0.8464  -64.6   4.622  124.5  0.1224   40.2  0.8451  -53.7
 2.220  0.8443  -65.1   4.606  124.0  0.1231   39.7  0.8429  -54.1
 2.240  0.8423  -65.6   4.591  123.6  0.1238   39.3  0.8406  -54.6
 2.260  0.8403  -66.2   4.576  123.1  0.1245   38.8  0.8385  -55.0
 2.280  0.8384  -66.7   4.562  122.6  0.1252   38.4  0.8364  -55.4
 2.300  0.8366  -67.2   4.548  122.1  0.1259   37.9  0.8343  -55.9
 2.320  0.8348  -67.8   4.534  121.7  0.1266   37.5  0.8323  -56.3
 2.340  0.8331  -68.3   4.520  121.2  0.1273   37.1  0.8304  -56.8
 2.360  0.8315  -68.8   4.507  120.7  0.1280   36.6  0.8285  -57.2
 2.380  0.8300  -69.4   4.494  120.2  0.1288   36.2  0.8266  -57.7
 2.400  0.8285  -69.9   4.481  119.7  0.1295   35.8  0.8248  -58.1
 2.420  0.8267  -70.4   4.467  119.3  0.1301   35.4  0.8226  -58.5
 2.440  0.8251  -70.9   4.453  118.8  0.1306   35.0  0.8205  -58.9
 2.460  0.8234  -71.4   4.439  118.4  0.1312   34.6  0.8183  -59.2
 2.480  0.8219  -71.9   4.426  117.9  0.1317   34.2  0.8163  -59.6
 2.500  0.8204  -72.4   4.413  117.5  0.1323   33.8  0.8142  -60.0
 2.520  0.8190  -72.9   4.400  117.0  0.1329   33.4  0.8122  -60.4
 2.540  0.8176  -73.5   4.387  116.6  0.1335   33.0  0.8103  -60.8
 2.560  0.8163  -74.0   4.375  116.1  0.1341   32.6  0.8083  -61.2
 2.580  0.8151  -74.5   4.363  115.7  0.1347   32.2  0.8064  -61.6
 2.600  0.8139  -75.0   4.351  115.2  0.1353   31.8  0.8046  -62.0
 2.620  0.8122  -75.5   4.336  114.8  0.1358   31.4  0.8022  -62.4
 2.640  0.8106  -75.9   4.322  114.3  0.1363   31.0  0.7999  -62.7
 2.660  0.8090  -76.4   4.308  113.9  0.1368   30.6  0.7975  -63.1
 2.680  0.8075  -76.9   4.294  113.5  0.1373   30.2  0.7953  -63.5
 2.700  0.8060  -77.3   4.281  113.0  0.1378   29.9  0.7930  -63.9
 2.720  0.8046  -77.8   4.268  112.6  0.1383   29.5  0.7908  -64.3
 2.740  0.8032  -78.3   4.255  112.1  0.1388   29.1  0.7886  -64.6
 2.760  0.8019  -78.7   4.242  111.7  0.1393   28.7  0.7865  -65.0
 2.780  0.8007  -79.2   4.229  111.3  0.1399   28.4  0.7844  -65.4
 2.800  0.7995  -79.7   4.217  110.8  0.1404   28.0  0.7823  -65.8
 2.820  0.7981  -80.2   4.204  110.4  0.1409   27.6  0.7808  -66.1
 2.840  0.7967  -80.6   4.191  110.0  0.1414   27.3  0.7793  -66.5
 2.860  0.7954  -81.1   4.178  109.6  0.1419   27.0  0.7778  -66.8
 2.880  0.7941  -81.6   4.165  109.2  0.1424   26.6  0.7764  -67.1
 2.900  0.7929  -82.0   4.153  108.8  0.1429   26.3  0.7750  -67.4
 2.920  0.7918  -82.5   4.141  108.4  0.1434   25.9  0.7736  -67.8
 2.940  0.7907  -83.0   4.129  108.0  0.1439   25.6  0.7722  -68.1
 2.960  0.7896  -83.4   4.117  107.5  0.1444   25.3  0.7709  -68.4
 2.980  0.7886  -83.9   4.105  107.1  0.1450   24.9  0.7696  -68.8
 3.000  0.7877  -84.4   4.094  106.7  0.1455   24.6  0.7683  -69.1
 3.100  0.7797  -86.3   4.024  104.8  0.1470   22.8  0.7586  -70.5
 3.200  0.7727  -88.3   3.958  102.9  0.1486   21.1  0.7494  -72.0
 3.300  0.7666  -90.3   3.897  100.9  0.1504   19.4  0.7407  -73.5
 3.400  0.7614  -92.3   3.841   98.9  0.1523   17.7  0.7325  -75.0
 3.500  0.7572  -94.4   3.790   96.8  0.1543   16.1  0.7249  -76.6
 3.600  0.7512  -96.1   3.728   95.1  0.1555   14.6  0.7174  -77.7
 3.700  0.7458  -97.8   3.670   93.4  0.1568   13.1  0.7103  -78.8
 3.800  0.7411  -99.5   3.615   91.7  0.1582   11.6  0.7034  -80.0
 3.900  0.7370 -101.2   3.563   89.9  0.1597   10.1  0.6967  -81.1
 4.000  0.7337 -103.0   3.515   88.0  0.1613    8.7  0.6904  -82.3
 4.100  0.7296 -104.5   3.463   86.5  0.1622    7.3  0.6840  -83.3
 4.200  0.7261 -106.0   3.414   84.9  0.1632    6.0  0.6777  -84.3
 4.300  0.7230 -107.5   3.367   83.3  0.1643    4.6  0.6717  -85.3
 4.400  0.7205 -109.1   3.323   81.6  0.1654    3.3  0.6659  -86.3
 4.500  0.7185 -110.6   3.282   79.9  0.1667    2.0  0.6603  -87.4
 4.600  0.7144 -112.0   3.240   78.4  0.1674    0.6  0.6539  -88.4
 4.700  0.7108 -113.4   3.200   76.9  0.1681   -0.7  0.6478  -89.5
 4.800  0.7077 -114.9   3.162   75.3  0.1690   -2.1  0.6418  -90.6
 4.900  0.7050 -116.3   3.127   73.7  0.1700   -3.4  0.6362  -91.7
 5.000  0.7027 -117.8   3.095   72.0  0.1710   -4.7  0.6307  -92.8
 5.100  0.6978 -119.1   3.057   70.5  0.1716   -6.0  0.6244  -93.8
 5.200  0.6933 -120.5   3.022   69.0  0.1722   -7.3  0.6184  -94.8
 5.300  0.6891 -121.8   2.989   67.4  0.1729   -8.5  0.6125  -95.8
 5.400  0.6854 -123.2   2.958   65.8  0.1737   -9.8  0.6068  -96.8
 5.500  0.6820 -124.6   2.929   64.2  0.1746  -11.0  0.6013  -97.9
 5.600  0.6779 -125.9   2.897   62.7  0.1749  -12.3  0.5962  -99.0
 5.700  0.6743 -127.3   2.867   61.2  0.1754  -13.5  0.5914 -100.2
 5.800  0.6710 -128.6   2.840   59.7  0.1759  -14.8  0.5868 -101.4
 5.900  0.6680 -130.0   2.814   58.2  0.1765  -16.1  0.5825 -102.6
 6.000  0.6655 -131.4   2.790   56.6  0.1772  -17.3  0.5784 -103.8
 6.100  0.6594 -133.2   2.764   55.1  0.1774  -18.6  0.5718 -105.3
 6.200  0.6539 -135.0   2.739   53.5  0.1776  -19.9  0.5655 -106.7
 6.300  0.6491 -136.9   2.717   51.9  0.1780  -21.2  0.5597 -108.3
 6.400  0.6450 -138.8   2.697   50.3  0.1785  -22.5  0.5542 -109.8
 6.500  0.6416 -140.7   2.679   48.6  0.1790  -23.8  0.5492 -111.4
 6.600  0.6330 -142.9   2.650   47.0  0.1788  -25.1  0.5406 -113.1
 6.800  0.6185 -147.3   2.599   43.7  0.1787  -27.8  0.5248 -116.5
 7.000  0.6079 -152.0   2.556   40.3  0.1790  -30.5  0.5110 -120.2
 7.200  0.5808 -164.0   2.497   37.0  0.1780  -33.2  0.4908 -124.4
 7.400  0.5807 -176.5   2.446   33.6  0.1774  -35.9  0.4735 -129.0
 7.600  0.5870  174.7   2.396   30.3  0.1765  -38.7  0.4564 -134.0
 7.800  0.5830  169.3   2.346   26.8  0.1753  -41.6  0.4399 -139.5
 8.000  0.5842  163.9   2.305   23.3  0.1745  -44.5  0.4278 -145.4
 8.200  0.5826  158.0   2.238   19.8  0.1714  -47.5  0.4109 -153.0
 8.400  0.5872  152.1   2.180   16.0  0.1687  -50.6  0.4017 -161.1
 8.600  0.5926  146.6   2.111   12.5  0.1651  -53.6  0.3947 -169.5
 8.800  0.5978  141.4   2.030    9.1  0.1605  -56.4  0.3908 -178.4
 9.000  0.6079  136.3   1.957    5.4  0.1563  -59.4  0.3963  172.7
 9.200  0.6174  132.4   1.879    2.6  0.1511  -61.6  0.3983  167.3
 9.400  0.6296  128.7   1.806   -0.4  0.1461  -63.9  0.4038  161.9
 9.600  0.6432  125.5   1.736   -3.2  0.1412  -66.0  0.4132  157.1
 9.800  0.6572  122.9   1.666   -5.9  0.1363  -68.0  0.4255  152.8
10.000  0.6725  120.4   1.600   -8.7  0.1315  -70.1  0.4401  148.8
!
!  f       NFmin   Gammaopt  rn/50
! GHz       dB    MAG  ANG    -
 0.450      0.44  0.75    5   0.37
 0.900      0.55  0.75   12   0.34
 1.800      0.57  0.74   25   0.28
 2.400      0.59  0.74   31   0.27
 5.500      0.96  0.53   91   0.17
10.000      1.49  0.36 -141   0.14
!
! (c) 2016  Infineon Technologies AG, Munich
