! Infineon Technologies  Discrete & RF Semiconductors
! BFP740
! VCE =  2.0 V,  IC =  22 mA
! Common Emitter S-Parameters:                            Jan 2016
# GHz  S  MA  R  50
!  f         S11            S21            S12            S22
! GHz     MAG   ANG      MAG   ANG      MAG   ANG      MAG   ANG
 0.030  0.7742   -3.7  45.878  174.9  0.0017  110.0  0.9853   -1.9
 0.035  0.7746   -4.4  45.776  174.2  0.0020  100.5  0.9868   -2.4
 0.040  0.7750   -5.0  45.681  173.4  0.0023   93.5  0.9883   -2.8
 0.045  0.7732   -5.7  45.649  172.8  0.0020   73.8  0.9860   -3.4
 0.050  0.7715   -6.5  45.623  172.1  0.0020   50.9  0.9839   -4.1
 0.055  0.7724   -7.0  45.440  171.3  0.0025   82.7  0.9846   -4.4
 0.060  0.7733   -7.5  45.267  170.4  0.0034  100.8  0.9854   -4.7
 0.065  0.7730   -8.1  45.031  169.8  0.0038   97.3  0.9854   -5.1
 0.070  0.7728   -8.8  44.801  169.1  0.0043   94.5  0.9854   -5.6
 0.075  0.7702   -9.4  44.607  168.4  0.0040   88.3  0.9825   -6.0
 0.080  0.7676  -10.0  44.419  167.7  0.0038   81.2  0.9796   -6.5
 0.085  0.7665  -10.6  44.135  167.1  0.0044   83.6  0.9791   -6.9
 0.090  0.7654  -11.3  43.856  166.5  0.0050   85.4  0.9787   -7.4
 0.095  0.7640  -11.9  43.675  166.0  0.0050   87.1  0.9770   -7.8
 0.100  0.7627  -12.5  43.499  165.4  0.0050   88.8  0.9753   -8.2
 0.105  0.7620  -13.1  43.271  164.8  0.0053   82.6  0.9733   -8.6
 0.110  0.7613  -13.7  43.048  164.2  0.0056   77.0  0.9714   -9.0
 0.115  0.7598  -14.2  42.806  163.7  0.0057   79.4  0.9693   -9.3
 0.120  0.7583  -14.8  42.568  163.1  0.0059   81.7  0.9672   -9.7
 0.125  0.7581  -15.3  42.261  162.6  0.0058   83.3  0.9652  -10.1
 0.130  0.7579  -15.9  41.958  162.1  0.0057   85.0  0.9632  -10.5
 0.135  0.7564  -16.5  41.732  161.6  0.0060   81.7  0.9613  -10.8
 0.140  0.7549  -17.1  41.509  161.1  0.0064   78.7  0.9595  -11.2
 0.145  0.7539  -17.6  41.307  160.7  0.0065   79.4  0.9574  -11.6
 0.150  0.7529  -18.2  41.108  160.2  0.0066   80.1  0.9554  -12.0
 0.155  0.7515  -18.7  40.891  159.8  0.0069   79.7  0.9534  -12.3
 0.160  0.7502  -19.3  40.675  159.4  0.0071   79.3  0.9514  -12.7
 0.165  0.7490  -19.8  40.461  159.0  0.0074   79.0  0.9495  -13.0
 0.170  0.7478  -20.3  40.250  158.6  0.0076   78.7  0.9476  -13.3
 0.175  0.7467  -20.9  40.040  158.2  0.0079   78.4  0.9457  -13.7
 0.180  0.7457  -21.4  39.833  157.8  0.0082   78.1  0.9439  -14.0
 0.185  0.7447  -22.0  39.627  157.4  0.0084   77.8  0.9421  -14.4
 0.190  0.7438  -22.5  39.424  157.0  0.0087   77.6  0.9403  -14.7
 0.195  0.7430  -23.1  39.223  156.5  0.0089   77.3  0.9386  -15.1
 0.200  0.7422  -23.6  39.024  156.1  0.0092   77.1  0.9369  -15.4
 0.220  0.7374  -25.7  38.284  154.8  0.0101   76.6  0.9290  -16.6
 0.240  0.7335  -27.8  37.564  153.5  0.0110   76.1  0.9215  -17.8
 0.260  0.7298  -29.9  36.888  152.2  0.0120   75.2  0.9141  -19.0
 0.280  0.7261  -31.9  36.251  151.0  0.0130   74.0  0.9068  -20.2
 0.300  0.7234  -34.0  35.631  149.8  0.0140   72.9  0.8999  -21.4
 0.320  0.7199  -35.9  35.076  148.7  0.0146   72.4  0.8927  -22.6
 0.340  0.7173  -37.9  34.534  147.7  0.0151   72.0  0.8859  -23.8
 0.360  0.7140  -39.9  34.044  146.6  0.0159   71.0  0.8787  -25.0
 0.380  0.7101  -41.8  33.608  145.5  0.0168   69.6  0.8711  -26.1
 0.400  0.7070  -43.8  33.183  144.4  0.0178   68.4  0.8638  -27.2
 0.420  0.7034  -45.7  32.764  143.4  0.0186   67.3  0.8568  -28.3
 0.440  0.7005  -47.6  32.355  142.4  0.0193   66.3  0.8501  -29.4
 0.450  0.6994  -48.5  32.154  141.9  0.0197   65.8  0.8469  -30.0
 0.460  0.6976  -49.4  31.958  141.4  0.0201   65.4  0.8431  -30.5
 0.480  0.6945  -51.3  31.573  140.4  0.0208   64.7  0.8358  -31.6
 0.500  0.6922  -53.2  31.197  139.4  0.0215   64.0  0.8288  -32.7
 0.520  0.6878  -55.0  30.836  138.5  0.0222   63.3  0.8209  -33.7
 0.540  0.6842  -56.8  30.484  137.5  0.0228   62.7  0.8132  -34.7
 0.560  0.6812  -58.7  30.140  136.6  0.0235   62.0  0.8057  -35.7
 0.580  0.6789  -60.5  29.804  135.6  0.0241   61.5  0.7985  -36.7
 0.600  0.6774  -62.4  29.478  134.6  0.0248   60.9  0.7916  -37.8
 0.620  0.6737  -64.1  29.144  133.7  0.0254   60.0  0.7838  -38.7
 0.640  0.6706  -65.8  28.817  132.9  0.0260   59.1  0.7762  -39.7
 0.660  0.6681  -67.5  28.497  132.0  0.0266   58.3  0.7688  -40.7
 0.680  0.6662  -69.2  28.184  131.0  0.0272   57.5  0.7616  -41.7
 0.700  0.6649  -70.9  27.878  130.1  0.0278   56.7  0.7547  -42.7
 0.720  0.6613  -72.6  27.581  129.2  0.0283   55.9  0.7469  -43.6
 0.740  0.6582  -74.2  27.290  128.4  0.0288   55.1  0.7392  -44.5
 0.760  0.6556  -75.9  27.006  127.5  0.0293   54.3  0.7318  -45.5
 0.780  0.6537  -77.6  26.728  126.5  0.0298   53.5  0.7245  -46.4
 0.800  0.6523  -79.3  26.458  125.6  0.0303   52.8  0.7175  -47.4
 0.820  0.6492  -80.8  26.179  124.8  0.0308   52.1  0.7099  -48.3
 0.840  0.6467  -82.4  25.905  124.0  0.0313   51.5  0.7024  -49.1
 0.860  0.6446  -84.0  25.637  123.2  0.0318   50.8  0.6951  -50.0
 0.880  0.6429  -85.5  25.374  122.4  0.0323   50.2  0.6879  -51.0
 0.900  0.6418  -87.1  25.116  121.5  0.0328   49.6  0.6810  -51.9
 0.920  0.6393  -88.5  24.843  120.8  0.0332   49.1  0.6739  -52.7
 0.940  0.6371  -90.0  24.575  120.0  0.0335   48.6  0.6670  -53.5
 0.960  0.6354  -91.4  24.312  119.2  0.0339   48.1  0.6602  -54.4
 0.980  0.6340  -92.8  24.052  118.4  0.0342   47.6  0.6535  -55.2
 1.000  0.6331  -94.3  23.798  117.6  0.0346   47.1  0.6470  -56.1
 1.020  0.6304  -95.7  23.553  116.9  0.0349   46.5  0.6399  -56.9
 1.040  0.6281  -97.1  23.312  116.1  0.0353   45.9  0.6329  -57.6
 1.060  0.6262  -98.5  23.075  115.4  0.0356   45.4  0.6260  -58.4
 1.080  0.6247  -99.9  22.842  114.6  0.0360   44.8  0.6193  -59.3
 1.100  0.6235 -101.3  22.613  113.8  0.0363   44.3  0.6127  -60.1
 1.120  0.6214 -102.6  22.381  113.1  0.0366   43.8  0.6065  -60.8
 1.140  0.6196 -103.8  22.151  112.4  0.0370   43.2  0.6004  -61.6
 1.160  0.6181 -105.1  21.925  111.7  0.0373   42.7  0.5944  -62.3
 1.180  0.6169 -106.4  21.702  111.0  0.0377   42.2  0.5885  -63.1
 1.200  0.6160 -107.7  21.483  110.3  0.0380   41.7  0.5827  -63.9
 1.220  0.6141 -108.9  21.271  109.6  0.0383   41.3  0.5768  -64.6
 1.240  0.6124 -110.2  21.063  109.0  0.0385   40.9  0.5709  -65.2
 1.260  0.6111 -111.4  20.857  108.3  0.0388   40.5  0.5651  -65.9
 1.280  0.6100 -112.7  20.654  107.6  0.0390   40.1  0.5594  -66.6
 1.300  0.6092 -113.9  20.454  106.9  0.0393   39.7  0.5538  -67.3
 1.320  0.6080 -115.0  20.259  106.3  0.0395   39.3  0.5486  -68.0
 1.340  0.6070 -116.1  20.066  105.7  0.0398   38.9  0.5435  -68.6
 1.360  0.6063 -117.3  19.875  105.1  0.0400   38.5  0.5385  -69.3
 1.380  0.6058 -118.4  19.687  104.4  0.0403   38.1  0.5336  -70.0
 1.400  0.6055 -119.5  19.501  103.8  0.0405   37.7  0.5287  -70.7
 1.420  0.6041 -120.6  19.319  103.2  0.0407   37.3  0.5236  -71.3
 1.440  0.6029 -121.6  19.138  102.6  0.0410   37.0  0.5185  -71.9
 1.460  0.6019 -122.7  18.960  102.0  0.0412   36.6  0.5135  -72.5
 1.480  0.6011 -123.7  18.784  101.4  0.0415   36.3  0.5086  -73.2
 1.500  0.6005 -124.8  18.610  100.8  0.0417   35.9  0.5037  -73.8
 1.520  0.5997 -125.9  18.447  100.2  0.0419   35.6  0.4990  -74.4
 1.540  0.5990 -126.9  18.286   99.6  0.0421   35.3  0.4943  -75.1
 1.560  0.5986 -128.0  18.128   99.0  0.0422   34.9  0.4897  -75.7
 1.580  0.5984 -129.0  17.971   98.4  0.0424   34.6  0.4852  -76.4
 1.600  0.5984 -130.1  17.816   97.8  0.0426   34.3  0.4807  -77.1
 1.620  0.5978 -131.1  17.660   97.3  0.0428   34.0  0.4761  -77.7
 1.640  0.5973 -132.0  17.505   96.7  0.0430   33.7  0.4715  -78.3
 1.660  0.5970 -133.0  17.351   96.2  0.0432   33.3  0.4669  -78.9
 1.680  0.5969 -133.9  17.199   95.7  0.0434   33.0  0.4624  -79.5
 1.700  0.5969 -134.9  17.049   95.1  0.0436   32.7  0.4580  -80.1
 1.720  0.5964 -135.8  16.903   94.6  0.0438   32.4  0.4541  -80.7
 1.740  0.5961 -136.8  16.759   94.0  0.0440   32.2  0.4502  -81.3
 1.760  0.5959 -137.7  16.617   93.5  0.0441   31.9  0.4464  -81.9
 1.780  0.5959 -138.7  16.476   93.0  0.0443   31.7  0.4427  -82.6
 1.800  0.5960 -139.6  16.336   92.4  0.0445   31.4  0.4390  -83.2
 1.820  0.5958 -140.5  16.205   91.9  0.0447   31.1  0.4348  -83.8
 1.840  0.5958 -141.4  16.075   91.4  0.0448   30.9  0.4307  -84.4
 1.860  0.5959 -142.2  15.946   90.9  0.0450   30.6  0.4266  -85.0
 1.880  0.5961 -143.1  15.819   90.3  0.0451   30.4  0.4226  -85.6
 1.900  0.5965 -144.0  15.693   89.8  0.0453   30.1  0.4186  -86.2
 1.920  0.5962 -144.9  15.567   89.3  0.0454   29.8  0.4152  -86.8
 1.940  0.5961 -145.7  15.443   88.8  0.0455   29.6  0.4119  -87.4
 1.960  0.5960 -146.6  15.320   88.3  0.0456   29.3  0.4086  -88.0
 1.980  0.5962 -147.4  15.198   87.7  0.0457   29.1  0.4053  -88.7
 2.000  0.5964 -148.3  15.077   87.2  0.0458   28.8  0.4021  -89.3
 2.020  0.5963 -149.1  14.952   86.7  0.0459   28.5  0.3985  -89.9
 2.040  0.5964 -149.9  14.828   86.2  0.0461   28.2  0.3950  -90.5
 2.060  0.5965 -150.7  14.705   85.7  0.0462   28.0  0.3915  -91.1
 2.080  0.5968 -151.5  14.583   85.2  0.0464   27.7  0.3880  -91.8
 2.100  0.5972 -152.3  14.462   84.7  0.0465   27.4  0.3846  -92.4
 2.120  0.5969 -153.1  14.351   84.2  0.0466   27.2  0.3816  -92.9
 2.140  0.5966 -153.8  14.241   83.7  0.0468   27.0  0.3786  -93.5
 2.160  0.5965 -154.6  14.132   83.2  0.0469   26.8  0.3757  -94.1
 2.180  0.5965 -155.3  14.024   82.7  0.0471   26.6  0.3728  -94.6
 2.200  0.5966 -156.1  13.917   82.2  0.0472   26.4  0.3699  -95.2
 2.220  0.5965 -156.9  13.812   81.8  0.0473   26.2  0.3668  -95.7
 2.240  0.5965 -157.6  13.708   81.3  0.0474   26.0  0.3637  -96.3
 2.260  0.5966 -158.4  13.604   80.8  0.0476   25.8  0.3606  -96.9
 2.280  0.5968 -159.1  13.502   80.4  0.0477   25.6  0.3576  -97.4
 2.300  0.5971 -159.9  13.400   79.9  0.0478   25.4  0.3546  -98.0
 2.320  0.5971 -160.6  13.302   79.5  0.0479   25.2  0.3520  -98.6
 2.340  0.5972 -161.2  13.205   79.1  0.0480   24.9  0.3495  -99.1
 2.360  0.5973 -161.9  13.108   78.7  0.0480   24.7  0.3469  -99.7
 2.380  0.5976 -162.5  13.012   78.2  0.0481   24.4  0.3444 -100.3
 2.400  0.5979 -163.2  12.917   77.8  0.0482   24.2  0.3420 -100.9
 2.420  0.5979 -163.9  12.825   77.4  0.0483   24.0  0.3390 -101.4
 2.440  0.5980 -164.6  12.734   76.9  0.0484   23.9  0.3361 -102.0
 2.460  0.5982 -165.3  12.643   76.4  0.0485   23.7  0.3332 -102.6
 2.480  0.5984 -166.0  12.554   76.0  0.0486   23.6  0.3303 -103.1
 2.500  0.5988 -166.7  12.465   75.5  0.0487   23.4  0.3275 -103.7
 2.520  0.5988 -167.4  12.378   75.1  0.0488   23.2  0.3249 -104.3
 2.540  0.5989 -168.1  12.291   74.6  0.0489   23.0  0.3222 -104.9
 2.560  0.5991 -168.7  12.205   74.2  0.0490   22.9  0.3197 -105.5
 2.580  0.5994 -169.4  12.120   73.8  0.0491   22.7  0.3171 -106.1
 2.600  0.5998 -170.1  12.036   73.3  0.0492   22.5  0.3146 -106.7
 2.620  0.5999 -170.8  11.955   72.9  0.0493   22.4  0.3120 -107.3
 2.640  0.6002 -171.4  11.874   72.5  0.0494   22.3  0.3095 -107.8
 2.660  0.6005 -172.1  11.795   72.1  0.0495   22.2  0.3069 -108.4
 2.680  0.6008 -172.7  11.716   71.6  0.0496   22.1  0.3045 -109.0
 2.700  0.6013 -173.4  11.637   71.2  0.0497   22.0  0.3020 -109.6
 2.720  0.6014 -174.0  11.559   70.8  0.0498   21.8  0.2997 -110.2
 2.740  0.6015 -174.6  11.481   70.4  0.0499   21.6  0.2975 -110.9
 2.760  0.6018 -175.2  11.404   70.0  0.0500   21.5  0.2953 -111.5
 2.780  0.6020 -175.8  11.328   69.5  0.0501   21.3  0.2932 -112.1
 2.800  0.6024 -176.4  11.252   69.1  0.0502   21.1  0.2911 -112.8
 2.820  0.6028 -177.0  11.179   68.7  0.0503   20.9  0.2890 -113.4
 2.840  0.6032 -177.6  11.107   68.3  0.0504   20.8  0.2870 -114.1
 2.860  0.6038 -178.2  11.035   67.9  0.0505   20.6  0.2851 -114.7
 2.880  0.6043 -178.8  10.964   67.4  0.0506   20.5  0.2831 -115.3
 2.900  0.6050 -179.4  10.893   67.0  0.0507   20.3  0.2812 -116.0
 2.920  0.6051 -180.0  10.822   66.6  0.0508   20.1  0.2792 -116.7
 2.940  0.6053  179.5  10.751   66.3  0.0509   20.0  0.2772 -117.4
 2.960  0.6055  178.9  10.681   65.9  0.0510   19.8  0.2753 -118.1
 2.980  0.6058  178.4  10.611   65.5  0.0511   19.7  0.2734 -118.8
 3.000  0.6062  177.8  10.542   65.1  0.0512   19.5  0.2715 -119.5
 3.100  0.6090  174.9  10.220   63.0  0.0514   19.1  0.2631 -122.8
 3.200  0.6112  172.3   9.910   61.1  0.0519   18.4  0.2562 -126.4
 3.300  0.6140  169.6   9.614   59.1  0.0524   17.5  0.2504 -129.9
 3.400  0.6173  167.0   9.328   57.3  0.0526   16.8  0.2445 -133.6
 3.500  0.6198  164.5   9.055   55.4  0.0531   16.4  0.2389 -137.1
 3.600  0.6231  162.1   8.793   53.5  0.0532   15.7  0.2346 -140.9
 3.700  0.6265  159.7   8.549   51.7  0.0539   15.1  0.2312 -144.7
 3.800  0.6302  157.4   8.310   49.9  0.0542   14.4  0.2284 -148.4
 3.900  0.6330  155.2   8.080   48.1  0.0544   13.7  0.2267 -152.2
 4.000  0.6366  153.1   7.856   46.4  0.0548   13.2  0.2262 -155.8
 4.100  0.6398  150.9   7.644   44.7  0.0551   12.7  0.2255 -159.4
 4.200  0.6440  148.9   7.439   43.0  0.0553   12.2  0.2267 -162.6
 4.300  0.6468  147.0   7.245   41.3  0.0558   11.8  0.2271 -165.8
 4.400  0.6513  145.2   7.056   39.7  0.0561   11.4  0.2280 -168.8
 4.500  0.6536  143.4   6.875   38.1  0.0562   11.0  0.2290 -171.8
 4.600  0.6585  141.7   6.705   36.4  0.0566   10.6  0.2302 -174.6
 4.700  0.6605  140.1   6.535   35.0  0.0568   10.1  0.2312 -177.3
 4.800  0.6651  138.6   6.381   33.4  0.0571    9.7  0.2328 -179.9
 4.900  0.6671  137.1   6.227   31.8  0.0574    9.2  0.2340  177.6
 5.000  0.6710  135.7   6.084   30.4  0.0576    9.1  0.2352  175.2
 5.100  0.6728  134.3   5.941   28.9  0.0581    8.5  0.2368  172.9
 5.200  0.6757  133.0   5.811   27.4  0.0585    8.3  0.2378  170.7
 5.300  0.6771  131.6   5.678   26.0  0.0588    7.8  0.2393  168.5
 5.400  0.6798  130.5   5.557   24.6  0.0591    7.6  0.2401  166.4
 5.500  0.6809  129.2   5.438   23.1  0.0595    7.3  0.2415  164.2
 5.600  0.6830  128.1   5.326   21.7  0.0599    6.9  0.2426  162.2
 5.700  0.6836  127.0   5.218   20.4  0.0604    6.6  0.2440  160.1
 5.800  0.6857  125.8   5.115   18.9  0.0608    6.4  0.2460  158.1
 5.900  0.6875  124.9   5.018   17.6  0.0615    5.8  0.2479  156.2
 6.000  0.6893  123.8   4.927   16.2  0.0618    5.8  0.2505  154.2
 6.100  0.6927  122.8   4.838   14.8  0.0627    5.4  0.2534  152.4
 6.200  0.6934  121.7   4.753   13.5  0.0630    4.9  0.2568  150.6
 6.300  0.6969  120.6   4.669   12.0  0.0638    4.3  0.2600  148.8
 6.400  0.6985  119.5   4.593   10.6  0.0642    3.9  0.2640  147.0
 6.500  0.7018  118.2   4.515    9.1  0.0649    3.4  0.2679  145.2
 6.600  0.7032  117.1   4.436    7.7  0.0654    2.8  0.2716  143.5
 6.800  0.7083  114.6   4.290    4.8  0.0665    1.7  0.2793  140.1
 7.000  0.7133  112.0   4.154    1.8  0.0676    0.6  0.2886  137.0
 7.200  0.7193  109.4   4.022   -1.1  0.0688   -0.6  0.2979  134.0
 7.400  0.7247  106.8   3.895   -4.0  0.0698   -1.9  0.3074  130.9
 7.600  0.7319  103.9   3.770   -7.1  0.0708   -3.4  0.3179  127.6
 7.800  0.7404  101.1   3.646  -10.2  0.0717   -4.8  0.3279  124.3
 8.000  0.7494   98.3   3.523  -13.3  0.0725   -6.3  0.3396  120.7
 8.200  0.7578   95.5   3.390  -16.2  0.0730   -7.8  0.3515  116.7
 8.400  0.7680   92.7   3.266  -19.4  0.0735   -9.4  0.3651  113.0
 8.600  0.7775   90.1   3.141  -22.4  0.0739  -10.8  0.3806  109.2
 8.800  0.7864   87.5   3.013  -25.2  0.0741  -12.3  0.3981  105.6
 9.000  0.7968   85.0   2.892  -28.2  0.0743  -13.7  0.4172  102.2
 9.200  0.8050   82.8   2.767  -30.5  0.0740  -14.9  0.4364   99.2
 9.400  0.8143   80.7   2.646  -33.0  0.0738  -16.2  0.4566   96.5
 9.600  0.8230   78.8   2.535  -35.4  0.0736  -17.2  0.4762   94.3
 9.800  0.8306   77.2   2.430  -37.4  0.0734  -18.0  0.4947   92.7
10.000  0.8389   75.7   2.329  -39.6  0.0732  -18.8  0.5136   91.2
!
!  f       NFmin   Gammaopt  rn/50
! GHz       dB    MAG  ANG    -
!
! noise parameter not available yet for this operation point!
!
! (c) 2016  Infineon Technologies AG, Munich
