! Infineon Technologies  Discrete & RF Semiconductors
! BFP720F
! VCE =  3.5 V,  IC =  9.0 mA
! Common Emitter S-Parameters:                            Jan 2016
# GHz  S  MA  R  50
!  f         S11            S21            S12            S22
! GHz     MAG   ANG      MAG   ANG      MAG   ANG      MAG   ANG
 0.010  0.8799   -0.2  22.841  178.8  0.0005  -13.8  0.9775    0.7
 0.015  0.8820   -0.6  22.686  177.9  0.0005   47.9  0.9860   -0.3
 0.020  0.8841   -1.0  22.538  176.9  0.0008   81.3  0.9948   -1.2
 0.025  0.8839   -1.3  22.560  176.9  0.0009   80.6  0.9946   -1.3
 0.030  0.8837   -1.6  22.582  176.9  0.0011   80.2  0.9943   -1.4
 0.035  0.8836   -1.9  22.604  176.9  0.0012   79.8  0.9941   -1.4
 0.040  0.8835   -2.3  22.626  176.9  0.0013   79.5  0.9939   -1.5
 0.045  0.8834   -2.6  22.648  176.9  0.0015   79.2  0.9936   -1.6
 0.050  0.8833   -2.9  22.670  176.9  0.0016   79.0  0.9934   -1.7
 0.055  0.8831   -3.2  22.656  176.7  0.0018   79.6  0.9934   -1.9
 0.060  0.8829   -3.4  22.642  176.5  0.0019   80.1  0.9934   -2.0
 0.065  0.8828   -3.7  22.629  176.3  0.0021   80.5  0.9934   -2.2
 0.070  0.8827   -4.0  22.616  176.1  0.0023   80.9  0.9934   -2.4
 0.075  0.8826   -4.2  22.603  175.9  0.0024   81.2  0.9934   -2.6
 0.080  0.8825   -4.5  22.590  175.6  0.0026   81.4  0.9935   -2.7
 0.085  0.8824   -4.8  22.578  175.4  0.0028   81.6  0.9935   -2.9
 0.090  0.8823   -5.1  22.566  175.2  0.0030   81.9  0.9936   -3.1
 0.095  0.8823   -5.3  22.554  175.0  0.0031   82.0  0.9936   -3.2
 0.100  0.8823   -5.6  22.543  174.8  0.0033   82.2  0.9937   -3.4
 0.105  0.8819   -5.9  22.523  174.6  0.0035   82.4  0.9934   -3.6
 0.110  0.8816   -6.2  22.503  174.4  0.0036   82.6  0.9932   -3.8
 0.115  0.8813   -6.4  22.483  174.1  0.0038   82.7  0.9930   -3.9
 0.120  0.8810   -6.7  22.464  173.9  0.0040   82.9  0.9927   -4.1
 0.125  0.8807   -7.0  22.445  173.7  0.0041   83.0  0.9925   -4.3
 0.130  0.8804   -7.3  22.427  173.5  0.0043   83.1  0.9923   -4.5
 0.135  0.8802   -7.6  22.409  173.3  0.0045   83.2  0.9921   -4.7
 0.140  0.8800   -7.8  22.391  173.0  0.0047   83.3  0.9919   -4.8
 0.145  0.8798   -8.1  22.373  172.8  0.0048   83.4  0.9918   -5.0
 0.150  0.8796   -8.4  22.356  172.6  0.0050   83.5  0.9916   -5.2
 0.155  0.8793   -8.7  22.333  172.4  0.0052   83.4  0.9911   -5.4
 0.160  0.8789   -9.0  22.309  172.2  0.0053   83.3  0.9906   -5.6
 0.165  0.8786   -9.2  22.287  172.0  0.0055   83.2  0.9902   -5.7
 0.170  0.8783   -9.5  22.264  171.8  0.0057   83.1  0.9897   -5.9
 0.175  0.8781   -9.8  22.242  171.6  0.0058   83.0  0.9893   -6.1
 0.180  0.8778  -10.1  22.220  171.3  0.0060   82.9  0.9888   -6.3
 0.185  0.8776  -10.4  22.198  171.1  0.0062   82.8  0.9884   -6.5
 0.190  0.8774  -10.6  22.177  170.9  0.0064   82.7  0.9880   -6.6
 0.195  0.8773  -10.9  22.156  170.7  0.0065   82.7  0.9876   -6.8
 0.200  0.8771  -11.2  22.135  170.5  0.0067   82.6  0.9872   -7.0
 0.220  0.8756  -12.3  22.085  169.7  0.0073   81.7  0.9860   -7.6
 0.240  0.8745  -13.4  22.040  168.8  0.0080   81.0  0.9849   -8.3
 0.260  0.8733  -14.6  21.979  168.0  0.0086   80.4  0.9829   -9.0
 0.280  0.8720  -15.7  21.901  167.3  0.0093   79.8  0.9801   -9.7
 0.300  0.8711  -16.8  21.827  166.6  0.0099   79.3  0.9775  -10.4
 0.320  0.8691  -17.9  21.755  165.8  0.0105   78.6  0.9759  -11.1
 0.340  0.8674  -19.0  21.687  165.1  0.0112   78.1  0.9744  -11.8
 0.360  0.8657  -20.2  21.629  164.3  0.0118   77.5  0.9724  -12.5
 0.380  0.8639  -21.3  21.581  163.5  0.0125   76.9  0.9700  -13.2
 0.400  0.8624  -22.4  21.537  162.7  0.0131   76.3  0.9677  -13.9
 0.420  0.8602  -23.5  21.454  161.9  0.0137   75.7  0.9654  -14.5
 0.440  0.8582  -24.6  21.375  161.2  0.0144   75.2  0.9632  -15.2
 0.450  0.8574  -25.1  21.337  160.8  0.0147   74.9  0.9621  -15.5
 0.460  0.8564  -25.6  21.309  160.5  0.0150   74.6  0.9607  -15.8
 0.480  0.8547  -26.7  21.254  159.8  0.0156   74.0  0.9580  -16.5
 0.500  0.8533  -27.8  21.202  159.1  0.0162   73.4  0.9554  -17.2
 0.520  0.8504  -28.9  21.137  158.3  0.0168   72.7  0.9520  -17.9
 0.540  0.8478  -30.1  21.077  157.6  0.0174   72.0  0.9488  -18.5
 0.560  0.8455  -31.2  21.019  156.8  0.0181   71.4  0.9456  -19.2
 0.580  0.8436  -32.3  20.966  156.1  0.0187   70.8  0.9427  -19.9
 0.600  0.8420  -33.5  20.916  155.3  0.0193   70.3  0.9398  -20.6
 0.620  0.8390  -34.5  20.836  154.6  0.0199   69.6  0.9365  -21.2
 0.640  0.8362  -35.6  20.759  153.9  0.0204   69.0  0.9333  -21.9
 0.660  0.8337  -36.7  20.685  153.2  0.0210   68.3  0.9302  -22.5
 0.680  0.8315  -37.7  20.614  152.4  0.0215   67.8  0.9272  -23.2
 0.700  0.8296  -38.8  20.547  151.7  0.0221   67.2  0.9244  -23.8
 0.720  0.8261  -39.9  20.501  150.9  0.0227   66.6  0.9205  -24.4
 0.740  0.8230  -41.1  20.458  150.2  0.0232   66.0  0.9166  -25.0
 0.760  0.8202  -42.3  20.419  149.4  0.0238   65.4  0.9129  -25.6
 0.780  0.8178  -43.4  20.384  148.7  0.0243   64.8  0.9093  -26.3
 0.800  0.8157  -44.6  20.352  147.9  0.0249   64.3  0.9058  -26.9
 0.820  0.8123  -45.6  20.260  147.2  0.0254   63.7  0.9016  -27.5
 0.840  0.8092  -46.7  20.171  146.5  0.0259   63.1  0.8975  -28.1
 0.860  0.8064  -47.8  20.085  145.8  0.0265   62.5  0.8935  -28.7
 0.880  0.8039  -48.8  20.002  145.1  0.0270   61.9  0.8896  -29.4
 0.900  0.8016  -49.9  19.922  144.4  0.0275   61.4  0.8858  -30.0
 0.920  0.7984  -50.9  19.833  143.7  0.0280   60.8  0.8812  -30.6
 0.940  0.7955  -52.0  19.746  143.0  0.0285   60.2  0.8768  -31.2
 0.960  0.7929  -53.1  19.663  142.3  0.0289   59.6  0.8724  -31.8
 0.980  0.7905  -54.1  19.582  141.6  0.0294   59.0  0.8682  -32.5
 1.000  0.7884  -55.2  19.505  140.9  0.0299   58.5  0.8640  -33.1
 1.020  0.7851  -56.2  19.408  140.2  0.0303   57.9  0.8594  -33.7
 1.040  0.7821  -57.2  19.314  139.6  0.0308   57.3  0.8550  -34.2
 1.060  0.7793  -58.2  19.222  138.9  0.0312   56.8  0.8506  -34.8
 1.080  0.7767  -59.3  19.133  138.2  0.0317   56.2  0.8463  -35.4
 1.100  0.7744  -60.3  19.047  137.5  0.0321   55.7  0.8421  -36.0
 1.120  0.7709  -61.3  18.958  136.9  0.0325   55.1  0.8374  -36.6
 1.140  0.7677  -62.4  18.872  136.2  0.0329   54.6  0.8328  -37.1
 1.160  0.7647  -63.4  18.787  135.5  0.0334   54.0  0.8282  -37.7
 1.180  0.7620  -64.4  18.706  134.9  0.0338   53.5  0.8238  -38.3
 1.200  0.7595  -65.5  18.627  134.2  0.0342   53.0  0.8194  -38.9
 1.220  0.7561  -66.5  18.533  133.6  0.0346   52.5  0.8146  -39.4
 1.240  0.7529  -67.5  18.441  132.9  0.0350   51.9  0.8100  -40.0
 1.260  0.7499  -68.5  18.351  132.2  0.0353   51.4  0.8054  -40.6
 1.280  0.7472  -69.6  18.264  131.6  0.0357   50.9  0.8008  -41.1
 1.300  0.7447  -70.6  18.180  130.9  0.0361   50.4  0.7964  -41.7
 1.320  0.7416  -71.6  18.085  130.3  0.0364   49.9  0.7918  -42.2
 1.340  0.7387  -72.5  17.992  129.6  0.0368   49.4  0.7872  -42.7
 1.360  0.7360  -73.5  17.901  129.0  0.0371   48.9  0.7827  -43.2
 1.380  0.7335  -74.5  17.813  128.4  0.0375   48.5  0.7783  -43.8
 1.400  0.7313  -75.5  17.727  127.7  0.0378   48.0  0.7739  -44.3
 1.420  0.7280  -76.5  17.633  127.1  0.0381   47.5  0.7690  -44.8
 1.440  0.7250  -77.5  17.542  126.5  0.0384   47.0  0.7642  -45.4
 1.460  0.7221  -78.5  17.452  125.9  0.0388   46.5  0.7595  -45.9
 1.480  0.7195  -79.5  17.364  125.2  0.0391   46.1  0.7548  -46.4
 1.500  0.7171  -80.5  17.279  124.6  0.0394   45.6  0.7502  -47.0
 1.520  0.7139  -81.5  17.199  124.0  0.0397   45.1  0.7457  -47.5
 1.540  0.7109  -82.5  17.120  123.3  0.0400   44.7  0.7413  -47.9
 1.560  0.7082  -83.5  17.044  122.7  0.0402   44.3  0.7370  -48.4
 1.580  0.7056  -84.5  16.970  122.1  0.0405   43.8  0.7327  -48.9
 1.600  0.7033  -85.5  16.898  121.4  0.0408   43.4  0.7284  -49.4
 1.620  0.7005  -86.4  16.797  120.8  0.0411   42.9  0.7237  -49.9
 1.640  0.6979  -87.3  16.697  120.3  0.0413   42.5  0.7190  -50.3
 1.660  0.6955  -88.2  16.599  119.7  0.0416   42.1  0.7144  -50.8
 1.680  0.6933  -89.1  16.503  119.1  0.0418   41.6  0.7099  -51.3
 1.700  0.6912  -90.0  16.408  118.5  0.0421   41.2  0.7054  -51.8
 1.720  0.6888  -90.8  16.308  118.0  0.0423   40.8  0.7013  -52.2
 1.740  0.6866  -91.7  16.209  117.4  0.0425   40.4  0.6972  -52.7
 1.760  0.6846  -92.5  16.111  116.9  0.0428   40.0  0.6931  -53.2
 1.780  0.6827  -93.4  16.015  116.4  0.0430   39.6  0.6891  -53.6
 1.800  0.6809  -94.2  15.920  115.8  0.0432   39.2  0.6852  -54.1
 1.820  0.6782  -95.0  15.822  115.3  0.0434   38.8  0.6809  -54.5
 1.840  0.6757  -95.9  15.726  114.7  0.0436   38.4  0.6767  -55.0
 1.860  0.6734  -96.8  15.632  114.1  0.0438   38.0  0.6725  -55.4
 1.880  0.6712  -97.6  15.539  113.6  0.0440   37.6  0.6684  -55.8
 1.900  0.6691  -98.5  15.447  113.0  0.0442   37.2  0.6643  -56.3
 1.920  0.6672  -99.2  15.357  112.5  0.0444   36.8  0.6604  -56.7
 1.940  0.6654 -100.0  15.267  112.0  0.0446   36.5  0.6566  -57.1
 1.960  0.6638 -100.7  15.179  111.5  0.0447   36.1  0.6528  -57.5
 1.980  0.6622 -101.5  15.092  111.0  0.0449   35.8  0.6490  -57.9
 2.000  0.6608 -102.2  15.006  110.5  0.0451   35.4  0.6453  -58.3
 2.020  0.6588 -102.9  14.912  110.0  0.0452   35.1  0.6417  -58.7
 2.040  0.6570 -103.7  14.819  109.6  0.0454   34.7  0.6381  -59.0
 2.060  0.6552 -104.4  14.727  109.1  0.0455   34.4  0.6345  -59.4
 2.080  0.6535 -105.1  14.637  108.6  0.0456   34.1  0.6310  -59.8
 2.100  0.6520 -105.9  14.547  108.1  0.0458   33.7  0.6275  -60.1
 2.120  0.6505 -106.6  14.458  107.6  0.0459   33.4  0.6240  -60.5
 2.140  0.6492 -107.3  14.370  107.1  0.0461   33.1  0.6205  -60.9
 2.160  0.6480 -108.1  14.284  106.6  0.0462   32.7  0.6171  -61.3
 2.180  0.6469 -108.8  14.198  106.1  0.0464   32.4  0.6137  -61.7
 2.200  0.6459 -109.6  14.114  105.6  0.0465   32.1  0.6103  -62.1
 2.220  0.6443 -110.2  14.026  105.2  0.0466   31.8  0.6071  -62.4
 2.240  0.6428 -110.9  13.940  104.7  0.0467   31.5  0.6039  -62.8
 2.260  0.6414 -111.5  13.854  104.3  0.0468   31.2  0.6008  -63.1
 2.280  0.6400 -112.2  13.768  103.9  0.0469   30.8  0.5976  -63.5
 2.300  0.6388 -112.8  13.684  103.4  0.0470   30.5  0.5945  -63.8
 2.320  0.6376 -113.5  13.600  103.0  0.0471   30.2  0.5914  -64.2
 2.340  0.6365 -114.1  13.518  102.5  0.0473   29.9  0.5884  -64.5
 2.360  0.6355 -114.8  13.436  102.0  0.0474   29.6  0.5853  -64.9
 2.380  0.6345 -115.4  13.355  101.6  0.0475   29.3  0.5823  -65.2
 2.400  0.6337 -116.1  13.275  101.1  0.0476   29.0  0.5793  -65.6
 2.420  0.6324 -116.7  13.196  100.7  0.0477   28.7  0.5765  -65.9
 2.440  0.6312 -117.3  13.117  100.3  0.0477   28.5  0.5737  -66.2
 2.460  0.6301 -117.9  13.039   99.9  0.0478   28.2  0.5710  -66.4
 2.480  0.6290 -118.4  12.962   99.4  0.0479   28.0  0.5682  -66.7
 2.500  0.6280 -119.0  12.886   99.0  0.0479   27.7  0.5655  -67.0
 2.520  0.6271 -119.6  12.810   98.6  0.0480   27.4  0.5627  -67.3
 2.540  0.6262 -120.2  12.735   98.1  0.0481   27.2  0.5600  -67.6
 2.560  0.6254 -120.8  12.661   97.7  0.0482   26.9  0.5573  -67.9
 2.580  0.6247 -121.4  12.588   97.3  0.0482   26.7  0.5547  -68.2
 2.600  0.6240 -122.0  12.515   96.8  0.0483   26.4  0.5520  -68.5
 2.620  0.6229 -122.5  12.441   96.4  0.0483   26.2  0.5496  -68.7
 2.640  0.6218 -123.0  12.367   96.1  0.0484   26.0  0.5472  -69.0
 2.660  0.6207 -123.5  12.294   95.7  0.0484   25.8  0.5448  -69.2
 2.680  0.6197 -124.0  12.221   95.3  0.0485   25.6  0.5424  -69.5
 2.700  0.6188 -124.5  12.149   95.0  0.0485   25.3  0.5400  -69.7
 2.720  0.6179 -125.0  12.077   94.6  0.0486   25.1  0.5376  -70.0
 2.740  0.6170 -125.5  12.006   94.2  0.0486   24.9  0.5352  -70.2
 2.760  0.6162 -126.0  11.935   93.8  0.0487   24.7  0.5329  -70.5
 2.780  0.6154 -126.5  11.865   93.4  0.0487   24.5  0.5305  -70.7
 2.800  0.6147 -127.0  11.796   93.0  0.0488   24.3  0.5282  -71.0
 2.820  0.6140 -127.5  11.732   92.7  0.0489   24.1  0.5263  -71.2
 2.840  0.6134 -128.0  11.668   92.3  0.0489   23.9  0.5244  -71.5
 2.860  0.6128 -128.4  11.605   92.0  0.0490   23.8  0.5226  -71.7
 2.880  0.6123 -128.9  11.542   91.6  0.0491   23.6  0.5207  -71.9
 2.900  0.6118 -129.4  11.480   91.2  0.0491   23.4  0.5189  -72.2
 2.920  0.6114 -129.9  11.418   90.9  0.0492   23.2  0.5171  -72.4
 2.940  0.6110 -130.4  11.356   90.5  0.0493   23.0  0.5152  -72.7
 2.960  0.6106 -130.8  11.296   90.2  0.0494   22.9  0.5134  -72.9
 2.980  0.6103 -131.3  11.235   89.8  0.0494   22.7  0.5116  -73.2
 3.000  0.6100 -131.8  11.175   89.4  0.0495   22.5  0.5098  -73.4
 3.100  0.6066 -133.6  10.888   87.9  0.0496   21.7  0.5018  -74.2
 3.200  0.6038 -135.4  10.609   86.4  0.0498   20.9  0.4939  -75.0
 3.300  0.6016 -137.2  10.338   84.7  0.0500   20.1  0.4861  -75.9
 3.400  0.6000 -139.0  10.076   83.0  0.0501   19.3  0.4785  -76.8
 3.500  0.5990 -140.8   9.823   81.2  0.0503   18.5  0.4709  -77.7
 3.600  0.5966 -142.2   9.598   79.9  0.0504   17.9  0.4648  -78.2
 3.700  0.5945 -143.6   9.378   78.5  0.0505   17.3  0.4588  -78.8
 3.800  0.5928 -145.0   9.164   77.0  0.0506   16.7  0.4528  -79.4
 3.900  0.5914 -146.4   8.956   75.5  0.0508   16.1  0.4468  -80.0
 4.000  0.5904 -147.8   8.755   73.9  0.0509   15.5  0.4409  -80.6
 4.100  0.5892 -148.9   8.579   72.7  0.0510   15.1  0.4363  -81.0
 4.200  0.5883 -150.1   8.408   71.4  0.0511   14.6  0.4317  -81.5
 4.300  0.5876 -151.2   8.241   70.0  0.0513   14.2  0.4271  -82.0
 4.400  0.5871 -152.4   8.078   68.6  0.0514   13.7  0.4225  -82.4
 4.500  0.5869 -153.5   7.921   67.2  0.0515   13.3  0.4180  -82.9
 4.600  0.5854 -154.5   7.779   66.0  0.0516   12.9  0.4137  -83.4
 4.700  0.5841 -155.5   7.641   64.8  0.0518   12.5  0.4095  -83.9
 4.800  0.5829 -156.5   7.507   63.5  0.0519   12.2  0.4053  -84.4
 4.900  0.5820 -157.6   7.376   62.2  0.0521   11.8  0.4011  -84.9
 5.000  0.5812 -158.6   7.250   60.8  0.0522   11.4  0.3970  -85.4
 5.100  0.5718 -163.1   7.133   59.6  0.0523   11.1  0.3930  -85.9
 5.200  0.5660 -167.7   7.019   58.4  0.0525   10.8  0.3891  -86.4
 5.300  0.5639 -172.4   6.909   57.1  0.0526   10.4  0.3851  -87.0
 5.400  0.5656 -177.1   6.802   55.8  0.0528   10.1  0.3813  -87.5
 5.500  0.5711  178.3   6.699   54.4  0.0529    9.8  0.3774  -88.1
 5.600  0.5690  176.8   6.601   53.2  0.0531    9.5  0.3745  -88.8
 5.700  0.5672  175.4   6.506   51.9  0.0533    9.2  0.3717  -89.4
 5.800  0.5658  173.9   6.414   50.7  0.0534    8.8  0.3690  -90.1
 5.900  0.5648  172.4   6.326   49.4  0.0536    8.5  0.3663  -90.8
 6.000  0.5642  170.9   6.241   48.0  0.0538    8.2  0.3636  -91.5
 6.100  0.5616  169.2   6.155   46.7  0.0540    7.9  0.3599  -92.4
 6.200  0.5596  167.6   6.072   45.5  0.0541    7.6  0.3563  -93.4
 6.300  0.5580  165.9   5.992   44.1  0.0543    7.2  0.3527  -94.4
 6.400  0.5568  164.2   5.915   42.8  0.0544    6.9  0.3493  -95.4
 6.500  0.5562  162.5   5.842   41.4  0.0546    6.6  0.3460  -96.4
 6.600  0.5535  160.7   5.759   40.1  0.0547    6.3  0.3410  -97.6
 6.800  0.5498  157.0   5.604   37.4  0.0550    5.6  0.3315 -100.0
 7.000  0.5483  153.3   5.461   34.5  0.0552    4.9  0.3226 -102.5
 7.200  0.5472  149.2   5.306   31.9  0.0555    4.3  0.3095 -105.7
 7.400  0.5490  145.0   5.162   29.1  0.0558    3.6  0.2976 -109.2
 7.600  0.5532  140.9   5.023   26.4  0.0560    2.9  0.2847 -113.3
 7.800  0.5600  136.7   4.887   23.7  0.0562    2.2  0.2713 -118.0
 8.000  0.5698  132.6   4.762   20.8  0.0564    1.5  0.2600 -123.2
 8.200  0.5814  128.3   4.610   18.1  0.0564    0.7  0.2458 -130.7
 8.400  0.5962  124.2   4.469   15.1  0.0564   -0.1  0.2363 -138.9
 8.600  0.6111  120.4   4.320   12.4  0.0563   -0.7  0.2273 -148.1
 8.800  0.6257  117.0   4.161    9.7  0.0560   -1.2  0.2205 -158.4
 9.000  0.6424  113.8   4.011    6.9  0.0558   -1.7  0.2212 -169.1
 9.200  0.6580  111.5   3.866    4.7  0.0557   -2.1  0.2283 -177.6
 9.400  0.6746  109.3   3.727    2.4  0.0556   -2.4  0.2401  174.5
 9.600  0.6914  107.4   3.595    0.2  0.0554   -2.8  0.2548  167.5
 9.800  0.7081  105.8   3.469   -2.0  0.0553   -3.1  0.2717  161.4
10.000  0.7252  104.3   3.348   -4.3  0.0551   -3.4  0.2913  156.0
!
!  f       NFmin   Gammaopt  rn/50
! GHz       dB    MAG  ANG    -
 0.450      0.52  0.33    4   0.18
 0.900      0.55  0.31    9   0.15
 1.800      0.60  0.29   15   0.14
 2.400      0.63  0.26   25   0.14
 5.500      0.77  0.25   48   0.08
10.000      0.99  0.27  -94   0.17
!
! (c) 2016  Infineon Technologies AG, Munich
