! Infineon Technologies  Discrete & RF Semiconductors
! BFP750
! VCE =  3.0 V,  IC =  90 mA
! Common Emitter S-Parameters:                            Jan 2016
# GHz  S  MA  R  50
!  f         S11            S21            S12            S22
! GHz     MAG   ANG      MAG   ANG      MAG   ANG      MAG   ANG
 0.030  0.5071  -20.3  76.493  172.2  0.0039   82.9  0.9566  -10.2
 0.035  0.5087  -23.5  76.321  170.8  0.0044   81.2  0.9560  -12.2
 0.040  0.5118  -26.7  76.195  169.4  0.0050   79.9  0.9565  -14.2
 0.045  0.5122  -30.0  76.059  167.8  0.0055   79.0  0.9545  -16.2
 0.050  0.5144  -33.3  75.983  166.2  0.0061   78.2  0.9537  -18.2
 0.055  0.5165  -36.4  75.565  165.0  0.0066   77.1  0.9500  -20.1
 0.060  0.5201  -39.5  75.180  163.8  0.0072   76.2  0.9475  -22.1
 0.065  0.5237  -42.6  74.676  162.4  0.0077   74.4  0.9426  -24.0
 0.070  0.5289  -45.7  74.219  160.9  0.0082   72.9  0.9387  -25.9
 0.075  0.5337  -48.5  73.768  159.8  0.0087   72.0  0.9338  -27.8
 0.080  0.5397  -51.2  73.344  158.7  0.0093   71.3  0.9300  -29.7
 0.085  0.5418  -53.9  72.656  157.4  0.0097   70.0  0.9239  -31.5
 0.090  0.5451  -56.5  72.006  156.1  0.0102   68.9  0.9188  -33.4
 0.095  0.5478  -59.2  71.418  154.9  0.0107   67.8  0.9124  -35.1
 0.100  0.5516  -61.8  70.862  153.7  0.0113   66.8  0.9069  -36.9
 0.105  0.5555  -64.0  70.202  152.6  0.0117   66.0  0.9005  -38.6
 0.110  0.5602  -66.2  69.570  151.4  0.0121   65.2  0.8948  -40.3
 0.115  0.5627  -68.7  68.876  150.3  0.0125   63.9  0.8880  -42.0
 0.120  0.5663  -71.1  68.209  149.1  0.0129   62.7  0.8819  -43.7
 0.125  0.5716  -73.2  67.525  148.1  0.0133   62.1  0.8748  -45.3
 0.130  0.5777  -75.2  66.863  147.0  0.0137   61.5  0.8685  -47.0
 0.135  0.5810  -77.5  66.177  146.0  0.0141   60.6  0.8613  -48.6
 0.140  0.5852  -79.7  65.514  144.9  0.0145   59.8  0.8548  -50.2
 0.145  0.5881  -81.8  64.849  143.8  0.0148   58.9  0.8477  -51.7
 0.150  0.5917  -83.8  64.207  142.7  0.0151   58.1  0.8412  -53.2
 0.155  0.5927  -85.6  63.440  141.9  0.0154   57.3  0.8325  -54.5
 0.160  0.5943  -87.4  62.685  141.1  0.0157   56.5  0.8242  -55.8
 0.165  0.5965  -89.1  61.944  140.2  0.0160   55.8  0.8163  -57.1
 0.170  0.5992  -90.9  61.217  139.3  0.0163   55.1  0.8089  -58.5
 0.175  0.6025  -92.6  60.504  138.5  0.0166   54.4  0.8020  -59.9
 0.180  0.6064  -94.3  59.806  137.6  0.0169   53.7  0.7955  -61.3
 0.185  0.6107  -96.0  59.124  136.6  0.0172   53.1  0.7896  -62.8
 0.190  0.6156  -97.7  58.457  135.7  0.0176   52.5  0.7841  -64.2
 0.195  0.6210  -99.3  57.807  134.7  0.0179   51.9  0.7792  -65.7
 0.200  0.6269 -100.9  57.174  133.7  0.0182   51.3  0.7748  -67.2
 0.220  0.6332 -106.1  54.601  131.1  0.0190   49.0  0.7475  -71.7
 0.240  0.6445 -111.1  52.153  128.2  0.0198   46.9  0.7252  -76.6
 0.260  0.6547 -115.7  49.836  125.6  0.0205   45.0  0.7045  -81.0
 0.280  0.6628 -119.9  47.606  123.2  0.0212   43.4  0.6839  -85.0
 0.300  0.6744 -124.0  45.467  120.6  0.0219   41.8  0.6668  -89.3
 0.320  0.6779 -127.2  43.562  118.8  0.0224   40.6  0.6491  -92.7
 0.340  0.6835 -130.4  41.701  116.9  0.0229   39.4  0.6338  -96.3
 0.360  0.6886 -133.4  39.988  115.1  0.0233   38.3  0.6199  -99.7
 0.380  0.6928 -136.1  38.410  113.4  0.0236   37.4  0.6068 -102.7
 0.400  0.6986 -138.8  36.867  111.6  0.0240   36.5  0.5955 -105.9
 0.420  0.7013 -141.1  35.525  110.3  0.0243   35.8  0.5844 -108.6
 0.440  0.7050 -143.3  34.204  108.9  0.0246   35.1  0.5746 -111.4
 0.450  0.7073 -144.4  33.552  108.1  0.0248   34.7  0.5702 -112.8
 0.460  0.7083 -145.3  32.975  107.5  0.0249   34.4  0.5656 -114.0
 0.480  0.7110 -147.2  31.832  106.3  0.0252   33.9  0.5572 -116.3
 0.500  0.7144 -149.1  30.704  105.0  0.0255   33.3  0.5498 -118.8
 0.520  0.7157 -150.7  29.780  104.1  0.0257   32.9  0.5426 -120.8
 0.540  0.7174 -152.2  28.864  103.2  0.0259   32.5  0.5360 -122.8
 0.560  0.7197 -153.8  27.956  102.1  0.0261   32.1  0.5301 -124.8
 0.580  0.7226 -155.3  27.058  101.1  0.0263   31.8  0.5249 -127.0
 0.600  0.7259 -156.8  26.170   99.9  0.0265   31.4  0.5204 -129.1
 0.620  0.7267 -158.0  25.477   99.2  0.0267   31.2  0.5158 -130.7
 0.640  0.7277 -159.3  24.789   98.4  0.0269   31.0  0.5116 -132.3
 0.660  0.7292 -160.5  24.106   97.5  0.0271   30.7  0.5078 -134.0
 0.680  0.7309 -161.7  23.428   96.6  0.0273   30.5  0.5044 -135.7
 0.700  0.7330 -162.9  22.756   95.7  0.0275   30.3  0.5015 -137.4
 0.720  0.7337 -163.9  22.216   95.0  0.0277   30.2  0.4984 -138.8
 0.740  0.7346 -164.9  21.679   94.3  0.0279   30.0  0.4956 -140.2
 0.760  0.7358 -165.9  21.146   93.6  0.0280   29.9  0.4931 -141.6
 0.780  0.7372 -166.9  20.616   92.8  0.0282   29.7  0.4908 -143.0
 0.800  0.7388 -167.9  20.090   92.0  0.0284   29.6  0.4889 -144.4
 0.820  0.7396 -168.7  19.664   91.5  0.0286   29.5  0.4869 -145.6
 0.840  0.7406 -169.6  19.239   90.9  0.0288   29.5  0.4852 -146.7
 0.860  0.7417 -170.4  18.817   90.3  0.0289   29.4  0.4836 -147.9
 0.880  0.7430 -171.3  18.397   89.7  0.0291   29.4  0.4822 -149.1
 0.900  0.7444 -172.1  17.979   89.0  0.0293   29.3  0.4811 -150.3
 0.920  0.7448 -172.9  17.623   88.4  0.0295   29.3  0.4797 -151.3
 0.940  0.7454 -173.7  17.269   87.9  0.0296   29.2  0.4785 -152.3
 0.960  0.7461 -174.4  16.917   87.3  0.0298   29.2  0.4774 -153.3
 0.980  0.7470 -175.2  16.567   86.7  0.0299   29.1  0.4765 -154.4
 1.000  0.7480 -176.0  16.219   86.0  0.0301   29.1  0.4757 -155.4
 1.020  0.7486 -176.7  15.937   85.5  0.0303   29.1  0.4748 -156.3
 1.040  0.7493 -177.3  15.657   85.0  0.0305   29.1  0.4740 -157.2
 1.060  0.7501 -178.0  15.378   84.5  0.0306   29.0  0.4733 -158.1
 1.080  0.7510 -178.6  15.100   84.0  0.0308   29.0  0.4727 -159.0
 1.100  0.7520 -179.3  14.823   83.4  0.0310   29.0  0.4723 -159.9
 1.120  0.7525 -179.9  14.574   82.9  0.0312   29.0  0.4718 -160.7
 1.140  0.7531  179.5  14.327   82.5  0.0313   29.0  0.4714 -161.5
 1.160  0.7538  178.8  14.081   82.0  0.0315   29.0  0.4711 -162.3
 1.180  0.7546  178.2  13.835   81.4  0.0316   29.0  0.4708 -163.1
 1.200  0.7555  177.6  13.591   80.9  0.0318   29.0  0.4707 -163.9
 1.220  0.7560  177.0  13.386   80.4  0.0320   29.0  0.4703 -164.6
 1.240  0.7565  176.5  13.181   80.0  0.0322   29.0  0.4700 -165.3
 1.260  0.7571  175.9  12.978   79.5  0.0323   29.0  0.4697 -166.1
 1.280  0.7578  175.4  12.776   79.0  0.0325   29.0  0.4695 -166.8
 1.300  0.7585  174.8  12.574   78.5  0.0327   29.0  0.4694 -167.5
 1.320  0.7589  174.3  12.391   78.1  0.0329   29.0  0.4693 -168.2
 1.340  0.7593  173.7  12.209   77.6  0.0331   29.0  0.4692 -168.8
 1.360  0.7599  173.2  12.028   77.2  0.0332   29.0  0.4692 -169.5
 1.380  0.7604  172.6  11.848   76.7  0.0334   29.0  0.4692 -170.1
 1.400  0.7611  172.1  11.668   76.2  0.0336   29.0  0.4693 -170.8
 1.420  0.7616  171.6  11.514   75.8  0.0338   29.0  0.4692 -171.4
 1.440  0.7622  171.1  11.360   75.4  0.0340   29.0  0.4692 -172.0
 1.460  0.7628  170.6  11.208   74.9  0.0341   29.0  0.4693 -172.6
 1.480  0.7635  170.1  11.055   74.5  0.0343   29.0  0.4694 -173.2
 1.500  0.7643  169.6  10.904   74.0  0.0345   29.0  0.4695 -173.8
 1.520  0.7647  169.1  10.766   73.6  0.0347   29.0  0.4695 -174.4
 1.540  0.7652  168.7  10.628   73.2  0.0349   29.0  0.4696 -174.9
 1.560  0.7658  168.2  10.491   72.8  0.0350   29.0  0.4697 -175.5
 1.580  0.7664  167.8  10.354   72.3  0.0352   29.0  0.4699 -176.0
 1.600  0.7670  167.3  10.218   71.9  0.0354   29.0  0.4701 -176.6
 1.620  0.7674  166.8  10.097   71.5  0.0356   29.0  0.4702 -177.1
 1.640  0.7679  166.3   9.976   71.1  0.0358   29.0  0.4703 -177.6
 1.660  0.7685  165.9   9.856   70.7  0.0359   28.9  0.4705 -178.2
 1.680  0.7691  165.4   9.736   70.2  0.0361   28.9  0.4707 -178.7
 1.700  0.7697  164.9   9.617   69.8  0.0363   28.9  0.4709 -179.2
 1.720  0.7701  164.5   9.505   69.4  0.0365   28.9  0.4710 -179.7
 1.740  0.7705  164.1   9.394   69.0  0.0367   28.9  0.4711  179.8
 1.760  0.7709  163.6   9.283   68.6  0.0369   28.8  0.4712  179.3
 1.780  0.7714  163.2   9.173   68.1  0.0371   28.8  0.4714  178.8
 1.800  0.7719  162.8   9.063   67.7  0.0373   28.8  0.4716  178.3
 1.820  0.7722  162.4   8.963   67.3  0.0375   28.8  0.4718  177.8
 1.840  0.7725  162.0   8.863   67.0  0.0377   28.7  0.4721  177.3
 1.860  0.7728  161.5   8.763   66.6  0.0378   28.7  0.4724  176.9
 1.880  0.7732  161.1   8.664   66.2  0.0380   28.6  0.4727  176.4
 1.900  0.7736  160.7   8.565   65.8  0.0382   28.6  0.4731  175.9
 1.920  0.7739  160.3   8.477   65.4  0.0384   28.6  0.4732  175.4
 1.940  0.7742  159.9   8.390   65.0  0.0386   28.5  0.4733  175.0
 1.960  0.7746  159.4   8.303   64.6  0.0388   28.5  0.4734  174.5
 1.980  0.7750  159.0   8.216   64.2  0.0390   28.4  0.4736  174.1
 2.000  0.7754  158.6   8.130   63.8  0.0392   28.4  0.4738  173.6
 2.020  0.7755  158.2   8.050   63.4  0.0394   28.3  0.4740  173.1
 2.040  0.7757  157.8   7.971   63.1  0.0396   28.3  0.4741  172.7
 2.060  0.7759  157.4   7.892   62.7  0.0397   28.2  0.4744  172.2
 2.080  0.7761  157.0   7.814   62.3  0.0399   28.2  0.4746  171.8
 2.100  0.7764  156.5   7.735   61.9  0.0401   28.1  0.4749  171.3
 2.120  0.7767  156.1   7.657   61.5  0.0403   28.0  0.4752  170.9
 2.140  0.7770  155.7   7.580   61.1  0.0405   28.0  0.4755  170.4
 2.160  0.7774  155.3   7.503   60.7  0.0406   27.9  0.4759  170.0
 2.180  0.7778  154.9   7.426   60.2  0.0408   27.9  0.4763  169.5
 2.200  0.7783  154.5   7.350   59.8  0.0410   27.8  0.4767  169.1
 2.220  0.7784  154.1   7.283   59.5  0.0412   27.7  0.4769  168.7
 2.240  0.7785  153.7   7.215   59.1  0.0414   27.7  0.4772  168.2
 2.260  0.7786  153.4   7.149   58.8  0.0415   27.6  0.4774  167.8
 2.280  0.7788  153.0   7.082   58.4  0.0417   27.6  0.4777  167.4
 2.300  0.7790  152.6   7.016   58.1  0.0419   27.5  0.4781  166.9
 2.320  0.7793  152.2   6.949   57.7  0.0421   27.4  0.4784  166.5
 2.340  0.7796  151.8   6.884   57.4  0.0423   27.4  0.4788  166.1
 2.360  0.7799  151.5   6.818   57.0  0.0424   27.3  0.4792  165.7
 2.380  0.7802  151.1   6.753   56.6  0.0426   27.3  0.4796  165.2
 2.400  0.7806  150.7   6.688   56.2  0.0428   27.2  0.4801  164.8
 2.420  0.7806  150.3   6.630   55.9  0.0430   27.1  0.4805  164.4
 2.440  0.7807  150.0   6.572   55.5  0.0432   27.1  0.4809  164.0
 2.460  0.7807  149.6   6.514   55.2  0.0434   27.0  0.4813  163.6
 2.480  0.7808  149.3   6.457   54.8  0.0436   26.9  0.4817  163.2
 2.500  0.7810  148.9   6.399   54.5  0.0437   26.8  0.4822  162.7
 2.520  0.7811  148.5   6.342   54.1  0.0439   26.8  0.4827  162.3
 2.540  0.7813  148.2   6.286   53.7  0.0441   26.7  0.4832  161.9
 2.560  0.7816  147.8   6.229   53.4  0.0443   26.6  0.4837  161.5
 2.580  0.7818  147.5   6.173   53.0  0.0445   26.6  0.4843  161.1
 2.600  0.7821  147.1   6.117   52.6  0.0447   26.5  0.4849  160.7
 2.620  0.7823  146.8   6.069   52.3  0.0449   26.4  0.4853  160.3
 2.640  0.7826  146.4   6.021   52.0  0.0451   26.3  0.4858  160.0
 2.660  0.7829  146.1   5.973   51.6  0.0452   26.3  0.4862  159.6
 2.680  0.7832  145.7   5.925   51.3  0.0454   26.2  0.4867  159.2
 2.700  0.7836  145.4   5.878   51.0  0.0456   26.1  0.4872  158.8
 2.720  0.7839  145.1   5.831   50.6  0.0458   26.0  0.4878  158.5
 2.740  0.7843  144.7   5.784   50.3  0.0460   25.9  0.4883  158.1
 2.760  0.7848  144.4   5.737   49.9  0.0461   25.9  0.4889  157.7
 2.780  0.7852  144.0   5.690   49.6  0.0463   25.8  0.4895  157.4
 2.800  0.7857  143.7   5.644   49.2  0.0465   25.7  0.4901  157.0
 2.820  0.7860  143.4   5.601   48.9  0.0467   25.6  0.4906  156.6
 2.840  0.7863  143.0   5.559   48.6  0.0469   25.5  0.4911  156.3
 2.860  0.7867  142.7   5.517   48.2  0.0471   25.4  0.4916  155.9
 2.880  0.7871  142.3   5.475   47.9  0.0473   25.3  0.4921  155.6
 2.900  0.7875  142.0   5.433   47.6  0.0474   25.2  0.4927  155.2
 2.920  0.7879  141.7   5.391   47.2  0.0476   25.2  0.4932  154.9
 2.940  0.7884  141.3   5.350   46.9  0.0478   25.1  0.4938  154.5
 2.960  0.7889  141.0   5.309   46.5  0.0480   25.0  0.4944  154.2
 2.980  0.7894  140.6   5.268   46.2  0.0482   24.9  0.4951  153.8
 3.000  0.7900  140.3   5.227   45.8  0.0484   24.8  0.4957  153.5
 3.100  0.7912  138.6   5.047   44.3  0.0493   24.2  0.4987  151.9
 3.200  0.7931  136.9   4.870   42.8  0.0501   23.6  0.5021  150.3
 3.300  0.7956  135.2   4.698   41.1  0.0510   23.0  0.5059  148.7
 3.400  0.7989  133.6   4.529   39.3  0.0519   22.4  0.5101  147.2
 3.500  0.8028  131.9   4.366   37.3  0.0528   21.9  0.5146  145.7
 3.600  0.8050  130.4   4.227   35.9  0.0535   21.2  0.5188  144.3
 3.700  0.8077  128.9   4.091   34.4  0.0543   20.6  0.5233  142.9
 3.800  0.8109  127.5   3.958   32.9  0.0551   20.0  0.5281  141.6
 3.900  0.8147  126.0   3.828   31.2  0.0558   19.4  0.5332  140.3
 4.000  0.8190  124.6   3.701   29.4  0.0566   18.8  0.5385  139.0
 4.100  0.8208  123.4   3.593   28.1  0.0573   18.2  0.5428  137.9
 4.200  0.8230  122.2   3.486   26.8  0.0580   17.6  0.5474  136.7
 4.300  0.8255  121.0   3.382   25.4  0.0587   17.0  0.5522  135.6
 4.400  0.8284  119.9   3.280   23.9  0.0594   16.5  0.5571  134.6
 4.500  0.8316  118.7   3.180   22.3  0.0601   15.9  0.5623  133.5
 4.600  0.8321  117.6   3.097   21.1  0.0608   15.3  0.5648  132.5
 4.700  0.8329  116.5   3.015   19.8  0.0616   14.7  0.5675  131.5
 4.800  0.8340  115.5   2.935   18.4  0.0623   14.1  0.5704  130.5
 4.900  0.8353  114.4   2.857   16.9  0.0630   13.5  0.5734  129.5
 5.000  0.8370  113.3   2.781   15.4  0.0638   12.9  0.5766  128.5
 5.100  0.8363  112.2   2.712   14.2  0.0645   12.2  0.5774  127.4
 5.200  0.8359  111.1   2.645   12.9  0.0652   11.5  0.5784  126.2
 5.300  0.8358  110.0   2.579   11.6  0.0659   10.8  0.5796  125.1
 5.400  0.8361  108.9   2.514   10.2  0.0666   10.2  0.5811  123.9
 5.500  0.8366  107.8   2.451    8.7  0.0673    9.5  0.5828  122.8
 5.600  0.8366  106.9   2.397    7.6  0.0680    8.9  0.5839  121.6
 5.700  0.8368  106.0   2.343    6.4  0.0687    8.2  0.5854  120.3
 5.800  0.8372  105.0   2.291    5.1  0.0694    7.6  0.5870  119.1
 5.900  0.8378  104.1   2.239    3.9  0.0702    7.0  0.5890  117.9
 6.000  0.8386  103.2   2.189    2.5  0.0709    6.4  0.5912  116.7
 6.100  0.8405  102.3   2.149    1.3  0.0717    5.6  0.5937  115.7
 6.200  0.8425  101.5   2.110    0.2  0.0724    4.8  0.5964  114.8
 6.300  0.8448  100.6   2.072   -1.1  0.0732    4.1  0.5993  113.8
 6.400  0.8472   99.8   2.035   -2.4  0.0740    3.3  0.6023  112.8
 6.500  0.8498   98.9   1.999   -3.7  0.0748    2.6  0.6055  111.9
 6.600  0.8518   97.9   1.964   -5.0  0.0755    1.7  0.6085  111.1
 6.800  0.8567   95.9   1.897   -7.9  0.0771   -0.1  0.6149  109.4
 7.000  0.8626   93.9   1.835  -10.9  0.0787   -1.8  0.6218  107.8
 7.200  0.8661   91.6   1.764  -13.8  0.0797   -4.0  0.6296  105.8
 7.400  0.8711   89.2   1.698  -16.9  0.0808   -6.1  0.6382  103.9
 7.600  0.8749   86.9   1.630  -19.9  0.0816   -8.1  0.6473  101.6
 7.800  0.8776   84.4   1.559  -22.7  0.0821  -10.1  0.6573   99.2
 8.000  0.8820   81.9   1.492  -25.7  0.0827  -12.0  0.6684   96.8
 8.200  0.8840   79.5   1.426  -28.2  0.0826  -13.9  0.6755   94.2
 8.400  0.8875   77.2   1.363  -30.9  0.0827  -15.8  0.6841   91.6
 8.600  0.8903   74.8   1.303  -33.4  0.0825  -17.8  0.6907   88.9
 8.800  0.8924   72.4   1.244  -35.7  0.0820  -19.7  0.6955   86.2
 9.000  0.8960   70.1   1.188  -38.3  0.0817  -21.6  0.7018   83.6
 9.200  0.9000   68.2   1.131  -40.3  0.0808  -23.0  0.7093   81.4
 9.400  0.9051   66.2   1.076  -42.4  0.0800  -24.5  0.7178   79.2
 9.600  0.9113   64.7   1.028  -44.3  0.0792  -25.7  0.7302   77.4
 9.800  0.9182   63.6   0.988  -45.7  0.0786  -26.7  0.7462   76.0
10.000  0.9254   62.5   0.948  -47.3  0.0779  -27.7  0.7627   74.6
!
!  f       NFmin   Gammaopt  rn/50
! GHz       dB    MAG  ANG    -
 0.450      1.47  0.31 -169   0.33
 0.900      1.48  0.40 -164   0.16
 1.500      1.49  0.49 -154   0.09
 1.900      1.49  0.50 -149   0.10
 2.400      1.50  0.50 -142   0.12
 3.500      1.74  0.51 -125   0.17
!
! (c) 2016  Infineon Technologies AG, Munich
