! Infineon Technologies  Discrete & RF Semiconductors
! BFP720
! VCE =  0.7 V,  IC =  0.5 mA
! Common Emitter S-Parameters:                            Aug 2012
# GHz  S  MA  R  50
!  f         S11            S21            S12            S22
! GHz     MAG   ANG      MAG   ANG      MAG   ANG      MAG   ANG
 0.010  0.9943   -0.1   2.089 -179.6  0.0005  -32.9  0.9969    0.1
 0.020  0.9925   -0.4   1.984  179.4  0.0012   92.0  0.9999   -0.3
 0.030  0.9927   -0.6   1.976  179.1  0.0018   90.0  0.9995   -0.6
 0.040  0.9930   -0.8   1.968  178.9  0.0024   88.9  0.9991   -0.8
 0.050  0.9932   -1.0   1.960  178.7  0.0029   88.2  0.9987   -1.0
 0.060  0.9934   -1.2   1.959  178.5  0.0035   89.0  0.9988   -1.2
 0.070  0.9936   -1.4   1.957  178.4  0.0040   89.5  0.9990   -1.4
 0.080  0.9938   -1.7   1.956  178.2  0.0046   89.9  0.9991   -1.6
 0.090  0.9940   -1.9   1.955  178.1  0.0051   90.2  0.9993   -1.8
 0.100  0.9943   -2.1   1.953  177.9  0.0057   90.5  0.9995   -2.0
 0.110  0.9940   -2.3   1.955  177.7  0.0062   89.7  0.9994   -2.1
 0.120  0.9937   -2.5   1.957  177.5  0.0067   89.0  0.9994   -2.3
 0.130  0.9934   -2.7   1.960  177.3  0.0073   88.4  0.9994   -2.5
 0.140  0.9932   -2.9   1.962  177.1  0.0078   87.8  0.9993   -2.6
 0.150  0.9929   -3.2   1.964  176.9  0.0083   87.4  0.9993   -2.8
 0.200  0.9926   -4.2   1.957  175.9  0.0111   86.4  0.9990   -3.8
 0.250  0.9923   -5.2   1.964  174.8  0.0139   86.3  0.9991   -4.6
 0.300  0.9914   -6.3   1.960  173.8  0.0167   85.2  0.9979   -5.6
 0.350  0.9910   -7.4   1.964  172.9  0.0195   84.4  0.9979   -6.6
 0.400  0.9908   -8.5   1.975  171.8  0.0223   83.3  0.9973   -7.6
 0.450  0.9902   -9.5   1.961  170.7  0.0251   82.6  0.9966   -8.6
 0.500  0.9890  -10.6   1.976  169.7  0.0279   81.7  0.9962   -9.5
 0.600  0.9879  -12.8   1.982  167.6  0.0336   79.8  0.9939  -11.4
 0.700  0.9862  -15.0   1.989  165.5  0.0394   77.9  0.9928  -13.4
 0.800  0.9844  -17.3   2.001  163.5  0.0451   76.1  0.9921  -15.4
 0.900  0.9824  -19.6   2.013  161.4  0.0509   74.2  0.9893  -17.3
 1.000  0.9802  -21.9   2.025  159.1  0.0567   72.2  0.9866  -19.4
 1.100  0.9767  -24.2   2.038  156.8  0.0626   70.2  0.9840  -21.4
 1.200  0.9745  -26.6   2.050  154.5  0.0684   68.2  0.9808  -23.4
 1.300  0.9712  -29.1   2.058  152.1  0.0743   66.1  0.9773  -25.5
 1.400  0.9670  -31.5   2.061  149.7  0.0800   64.1  0.9724  -27.5
 1.500  0.9636  -33.9   2.070  147.4  0.0858   62.0  0.9678  -29.5
 1.600  0.9598  -36.4   2.087  144.8  0.0914   59.8  0.9632  -31.5
 1.700  0.9544  -39.0   2.099  142.2  0.0971   57.6  0.9579  -33.7
 1.800  0.9502  -41.4   2.099  139.7  0.1027   55.4  0.9530  -35.7
 1.900  0.9453  -43.8   2.097  137.3  0.1081   53.3  0.9482  -37.8
 2.000  0.9415  -46.3   2.093  134.8  0.1134   51.1  0.9425  -39.8
 2.100  0.9355  -48.6   2.090  132.3  0.1185   48.8  0.9365  -41.8
 2.200  0.9311  -51.0   2.091  129.9  0.1238   46.7  0.9316  -43.9
 2.300  0.9262  -53.4   2.081  127.5  0.1286   44.5  0.9261  -45.9
 2.400  0.9228  -55.7   2.076  125.1  0.1336   42.5  0.9218  -47.9
 2.500  0.9173  -58.0   2.067  122.7  0.1383   40.3  0.9156  -49.9
 2.600  0.9133  -60.4   2.063  120.4  0.1431   38.3  0.9105  -51.9
 2.700  0.9081  -62.7   2.055  118.0  0.1476   36.1  0.9042  -53.9
 2.800  0.9044  -65.1   2.050  115.7  0.1522   34.1  0.8992  -56.1
 2.900  0.8990  -67.3   2.039  113.5  0.1565   32.0  0.8935  -58.0
 3.000  0.8950  -69.7   2.032  111.2  0.1610   30.0  0.8890  -60.0
 3.100  0.8860  -72.1   2.023  108.8  0.1646   27.7  0.8796  -62.1
 3.200  0.8786  -74.6   2.017  106.5  0.1683   25.5  0.8714  -64.3
 3.300  0.8729  -77.1   2.015  104.1  0.1724   23.4  0.8645  -66.4
 3.400  0.8688  -79.6   2.016  101.8  0.1766   21.3  0.8588  -68.7
 3.500  0.8665  -82.2   2.021   99.4  0.1811   19.4  0.8545  -70.9
 3.600  0.8558  -84.9   2.009   97.1  0.1841   17.1  0.8436  -73.1
 3.700  0.8471  -87.6   2.001   94.7  0.1874   14.9  0.8340  -75.4
 3.800  0.8403  -90.4   1.997   92.3  0.1910   12.8  0.8258  -77.8
 3.900  0.8356  -93.2   1.996   89.9  0.1948   10.8  0.8191  -80.2
 4.000  0.8329  -96.1   1.998   87.5  0.1989    8.8  0.8137  -82.6
 4.100  0.8206  -99.2   1.984   85.1  0.2011    6.5  0.8000  -85.1
 4.200  0.8106 -102.3   1.974   82.6  0.2036    4.2  0.7878  -87.7
 4.300  0.8032 -105.5   1.967   80.1  0.2064    2.0  0.7772  -90.3
 4.400  0.7983 -108.7   1.964   77.6  0.2095   -0.2  0.7684  -93.0
 4.500  0.7959 -112.0   1.965   75.1  0.2129   -2.3  0.7613  -95.8
 4.600  0.7830 -115.2   1.945   72.5  0.2136   -4.7  0.7468  -98.5
 4.700  0.7725 -118.5   1.929   70.0  0.2146   -7.1  0.7340 -101.3
 4.800  0.7646 -121.8   1.916   67.3  0.2160   -9.4  0.7230 -104.1
 4.900  0.7594 -125.3   1.908   64.7  0.2177  -11.8  0.7138 -107.0
 5.000  0.7569 -128.7   1.904   62.0  0.2198  -14.1  0.7066 -110.0
 5.100  0.7476 -131.4   1.873   59.6  0.2192  -16.3  0.6965 -112.4
 5.200  0.7400 -134.2   1.846   57.1  0.2189  -18.6  0.6877 -114.8
 5.300  0.7342 -137.0   1.823   54.6  0.2190  -20.9  0.6801 -117.2
 5.400  0.7302 -139.8   1.803   52.0  0.2195  -23.1  0.6737 -119.7
 5.500  0.7280 -142.7   1.787   49.4  0.2202  -25.4  0.6687 -122.2
 5.600  0.7244 -144.8   1.756   47.2  0.2184  -27.4  0.6631 -124.1
 5.700  0.7216 -146.8   1.728   45.0  0.2168  -29.5  0.6582 -126.0
 5.800  0.7199 -148.9   1.703   42.7  0.2155  -31.6  0.6541 -127.9
 5.900  0.7190 -151.0   1.680   40.4  0.2145  -33.7  0.6507 -129.8
 6.000  0.7192 -153.1   1.661   38.0  0.2138  -35.8  0.6481 -131.8
 6.100  0.7166 -154.6   1.634   36.0  0.2113  -37.6  0.6446 -133.1
 6.200  0.7145 -156.1   1.609   33.9  0.2091  -39.4  0.6414 -134.4
 6.300  0.7128 -157.7   1.586   31.8  0.2070  -41.3  0.6386 -135.7
 6.400  0.7117 -159.2   1.566   29.6  0.2052  -43.2  0.6361 -137.0
 6.500  0.7111 -160.7   1.547   27.4  0.2036  -45.1  0.6339 -138.4
 6.600  0.7066 -161.8   1.523   25.6  0.2010  -46.7  0.6284 -139.3
 6.700  0.7024 -163.0   1.500   23.8  0.1985  -48.2  0.6231 -140.2
 6.800  0.6984 -164.1   1.479   21.9  0.1961  -49.8  0.6180 -141.2
 6.900  0.6947 -165.2   1.459   20.0  0.1939  -51.4  0.6130 -142.2
 7.000  0.6913 -166.4   1.441   18.0  0.1919  -53.1  0.6083 -143.2
 7.100  0.6845 -170.1   1.423   16.3  0.1902  -54.5  0.6024 -144.2
 7.200  0.6806 -173.9   1.407   14.6  0.1886  -55.9  0.5968 -145.3
 7.300  0.6797 -177.6   1.392   12.8  0.1871  -57.4  0.5914 -146.3
 7.400  0.6818  178.6   1.379   11.0  0.1858  -58.9  0.5862 -147.4
 7.500  0.6867  174.8   1.367    9.1  0.1845  -60.4  0.5812 -148.5
 7.600  0.6828  172.5   1.354    7.2  0.1830  -62.0  0.5749 -150.4
 7.700  0.6799  170.2   1.344    5.3  0.1816  -63.7  0.5692 -152.2
 7.800  0.6782  167.9   1.334    3.3  0.1803  -65.5  0.5642 -154.2
 7.900  0.6776  165.5   1.327    1.3  0.1792  -67.2  0.5597 -156.1
 8.000  0.6781  163.2   1.320   -0.7  0.1783  -69.0  0.5560 -158.1
 8.500  0.6719  149.7   1.250  -11.8  0.1657  -79.0  0.5502  174.9
 9.000  0.6787  136.2   1.155  -22.9  0.1477  -88.2  0.5498  160.7
 9.500  0.7066  123.9   1.049  -33.4  0.1287  -95.9  0.5722  147.1
10.000  0.7404  113.4   0.932  -43.4  0.1102 -102.8  0.6112  135.4
10.500  0.7660  105.9   0.808  -50.9  0.0915 -107.1  0.6492  126.0
11.000  0.7893  101.7   0.720  -55.7  0.0774 -108.8  0.6838  119.7
11.500  0.8303   99.1   0.667  -61.2  0.0668 -110.3  0.7267  115.1
12.000  0.8658   95.8   0.614  -68.2  0.0567 -111.7  0.7667  110.4
!
!  f       NFmin   Gammaopt  rn/50
! GHz       dB    MAG  ANG    -
 0.450      0.59  0.89    6   0.89
 1.800      0.89  0.79   32   0.77
 2.400      1.02  0.74   86   0.57
 5.500      1.58  0.61  109   0.26
10.000      2.85  0.65 -124   0.44
!
! (c) 2012  Infineon Technologies AG, Munich
