! Infineon Technologies  Discrete & RF Semiconductors
! BFP720F
! VCE =  0.7 V,  IC =  9.0 mA
! Common Emitter S-Parameters:                            Jan 2016
# GHz  S  MA  R  50
!  f         S11            S21            S12            S22
! GHz     MAG   ANG      MAG   ANG      MAG   ANG      MAG   ANG
 0.010  0.8687   -0.6  22.168  179.7  0.0007  -26.0  0.9756    0.5
 0.015  0.8758   -1.1  22.301  178.7  0.0006   52.7  0.9843   -0.5
 0.020  0.8829   -1.5  22.440  177.7  0.0012   87.6  0.9932   -1.5
 0.025  0.8825   -1.9  22.483  177.6  0.0014   86.9  0.9929   -1.7
 0.030  0.8821   -2.3  22.526  177.5  0.0017   86.5  0.9926   -1.8
 0.035  0.8818   -2.7  22.570  177.3  0.0019   86.1  0.9924   -2.0
 0.040  0.8815   -3.1  22.613  177.2  0.0021   85.8  0.9921   -2.2
 0.045  0.8812   -3.5  22.656  177.1  0.0024   85.6  0.9918   -2.3
 0.050  0.8810   -3.9  22.700  177.0  0.0026   85.4  0.9916   -2.5
 0.055  0.8807   -4.3  22.698  176.7  0.0029   85.5  0.9915   -2.7
 0.060  0.8804   -4.6  22.696  176.4  0.0032   85.5  0.9914   -3.0
 0.065  0.8801   -5.0  22.696  176.1  0.0034   85.5  0.9914   -3.2
 0.070  0.8799   -5.3  22.695  175.8  0.0037   85.6  0.9914   -3.5
 0.075  0.8797   -5.7  22.696  175.5  0.0040   85.6  0.9914   -3.7
 0.080  0.8796   -6.1  22.697  175.2  0.0043   85.6  0.9914   -4.0
 0.085  0.8794   -6.4  22.698  174.9  0.0046   85.6  0.9914   -4.3
 0.090  0.8794   -6.8  22.701  174.6  0.0048   85.7  0.9914   -4.5
 0.095  0.8793   -7.1  22.703  174.3  0.0051   85.7  0.9915   -4.8
 0.100  0.8793   -7.5  22.707  174.0  0.0054   85.7  0.9916   -5.0
 0.105  0.8785   -7.9  22.678  173.7  0.0057   85.4  0.9911   -5.3
 0.110  0.8778   -8.3  22.649  173.4  0.0059   85.2  0.9907   -5.5
 0.115  0.8771   -8.6  22.621  173.1  0.0062   85.0  0.9903   -5.8
 0.120  0.8765   -9.0  22.593  172.8  0.0064   84.8  0.9899   -6.1
 0.125  0.8759   -9.4  22.566  172.6  0.0067   84.6  0.9895   -6.3
 0.130  0.8753   -9.8  22.539  172.3  0.0070   84.4  0.9891   -6.6
 0.135  0.8748  -10.2  22.513  172.0  0.0072   84.2  0.9888   -6.9
 0.140  0.8743  -10.5  22.488  171.7  0.0075   84.1  0.9885   -7.2
 0.145  0.8738  -10.9  22.463  171.4  0.0077   83.9  0.9882   -7.4
 0.150  0.8734  -11.3  22.439  171.1  0.0080   83.8  0.9879   -7.7
 0.155  0.8730  -11.6  22.414  170.9  0.0083   83.6  0.9872   -7.9
 0.160  0.8726  -12.0  22.390  170.6  0.0085   83.3  0.9866   -8.2
 0.165  0.8723  -12.3  22.366  170.4  0.0088   83.1  0.9860   -8.4
 0.170  0.8720  -12.7  22.342  170.1  0.0090   82.9  0.9854   -8.7
 0.175  0.8717  -13.0  22.319  169.9  0.0093   82.7  0.9848   -8.9
 0.180  0.8714  -13.4  22.296  169.6  0.0096   82.5  0.9843   -9.2
 0.185  0.8712  -13.7  22.274  169.4  0.0098   82.4  0.9837   -9.4
 0.190  0.8711  -14.1  22.252  169.1  0.0101   82.2  0.9832   -9.7
 0.195  0.8709  -14.4  22.231  168.9  0.0103   82.0  0.9827   -9.9
 0.200  0.8708  -14.8  22.210  168.6  0.0106   81.9  0.9822  -10.2
 0.220  0.8681  -16.2  22.131  167.6  0.0116   80.9  0.9799  -11.2
 0.240  0.8660  -17.7  22.059  166.5  0.0127   80.1  0.9780  -12.2
 0.260  0.8643  -19.1  21.981  165.5  0.0137   79.2  0.9749  -13.2
 0.280  0.8628  -20.5  21.895  164.6  0.0148   78.4  0.9709  -14.3
 0.300  0.8618  -21.9  21.815  163.7  0.0158   77.6  0.9671  -15.3
 0.320  0.8587  -23.3  21.700  162.7  0.0168   76.8  0.9647  -16.3
 0.340  0.8562  -24.8  21.590  161.8  0.0177   76.1  0.9626  -17.3
 0.360  0.8535  -26.2  21.494  160.8  0.0187   75.3  0.9594  -18.3
 0.380  0.8507  -27.7  21.409  159.9  0.0197   74.5  0.9552  -19.4
 0.400  0.8484  -29.2  21.330  159.0  0.0207   73.7  0.9513  -20.4
 0.420  0.8463  -30.4  21.256  158.2  0.0217   72.9  0.9478  -21.3
 0.440  0.8445  -31.6  21.186  157.3  0.0226   72.1  0.9446  -22.2
 0.450  0.8438  -32.2  21.153  156.9  0.0231   71.8  0.9431  -22.7
 0.460  0.8418  -33.0  21.084  156.5  0.0236   71.4  0.9409  -23.2
 0.480  0.8382  -34.5  20.948  155.6  0.0245   70.6  0.9368  -24.1
 0.500  0.8352  -36.0  20.818  154.7  0.0254   69.9  0.9329  -25.1
 0.520  0.8317  -37.3  20.734  153.9  0.0263   69.0  0.9276  -26.1
 0.540  0.8286  -38.7  20.655  153.0  0.0272   68.2  0.9227  -27.0
 0.560  0.8261  -40.1  20.581  152.1  0.0281   67.4  0.9179  -28.0
 0.580  0.8239  -41.4  20.511  151.3  0.0291   66.7  0.9135  -29.0
 0.600  0.8223  -42.8  20.446  150.4  0.0300   66.0  0.9093  -30.0
 0.620  0.8183  -44.1  20.325  149.6  0.0308   65.2  0.9041  -30.9
 0.640  0.8147  -45.4  20.209  148.7  0.0317   64.4  0.8990  -31.8
 0.660  0.8115  -46.8  20.097  147.8  0.0325   63.6  0.8943  -32.7
 0.680  0.8088  -48.1  19.990  147.0  0.0333   62.9  0.8897  -33.7
 0.700  0.8066  -49.5  19.887  146.1  0.0342   62.2  0.8854  -34.6
 0.720  0.8029  -50.8  19.807  145.3  0.0349   61.5  0.8798  -35.5
 0.740  0.7997  -52.2  19.731  144.5  0.0357   60.8  0.8745  -36.3
 0.760  0.7969  -53.5  19.659  143.7  0.0364   60.1  0.8693  -37.2
 0.780  0.7945  -54.8  19.592  142.8  0.0372   59.4  0.8643  -38.1
 0.800  0.7926  -56.2  19.528  142.0  0.0379   58.8  0.8596  -39.0
 0.820  0.7887  -57.4  19.406  141.2  0.0386   58.0  0.8534  -39.9
 0.840  0.7851  -58.7  19.287  140.5  0.0393   57.3  0.8475  -40.7
 0.860  0.7820  -60.0  19.172  139.7  0.0400   56.6  0.8417  -41.6
 0.880  0.7792  -61.2  19.061  138.9  0.0408   56.0  0.8362  -42.5
 0.900  0.7768  -62.5  18.953  138.1  0.0415   55.3  0.8308  -43.4
 0.920  0.7730  -63.7  18.829  137.3  0.0421   54.6  0.8245  -44.2
 0.940  0.7696  -65.0  18.709  136.6  0.0428   53.9  0.8184  -45.1
 0.960  0.7666  -66.3  18.592  135.8  0.0435   53.2  0.8125  -45.9
 0.980  0.7639  -67.5  18.478  135.0  0.0441   52.5  0.8067  -46.8
 1.000  0.7616  -68.8  18.368  134.2  0.0448   51.9  0.8012  -47.7
 1.020  0.7579  -70.0  18.244  133.5  0.0454   51.3  0.7952  -48.5
 1.040  0.7546  -71.2  18.122  132.8  0.0459   50.7  0.7893  -49.3
 1.060  0.7516  -72.4  18.004  132.1  0.0465   50.1  0.7836  -50.1
 1.080  0.7489  -73.6  17.888  131.3  0.0471   49.5  0.7781  -51.0
 1.100  0.7466  -74.8  17.775  130.6  0.0477   48.9  0.7727  -51.8
 1.120  0.7431  -75.9  17.665  129.9  0.0482   48.3  0.7667  -52.6
 1.140  0.7400  -77.1  17.558  129.2  0.0487   47.7  0.7608  -53.3
 1.160  0.7371  -78.3  17.453  128.5  0.0492   47.1  0.7551  -54.1
 1.180  0.7346  -79.4  17.351  127.8  0.0497   46.6  0.7495  -54.9
 1.200  0.7323  -80.6  17.251  127.1  0.0502   46.0  0.7441  -55.7
 1.220  0.7290  -81.7  17.136  126.4  0.0507   45.4  0.7381  -56.5
 1.240  0.7259  -82.8  17.023  125.7  0.0511   44.8  0.7322  -57.2
 1.260  0.7231  -83.9  16.913  125.0  0.0516   44.3  0.7265  -58.0
 1.280  0.7206  -85.1  16.806  124.3  0.0520   43.7  0.7209  -58.8
 1.300  0.7184  -86.2  16.701  123.6  0.0525   43.2  0.7154  -59.6
 1.320  0.7155  -87.3  16.587  123.0  0.0529   42.7  0.7097  -60.3
 1.340  0.7128  -88.3  16.476  122.3  0.0533   42.1  0.7042  -61.0
 1.360  0.7104  -89.4  16.366  121.7  0.0537   41.6  0.6987  -61.7
 1.380  0.7083  -90.5  16.258  121.1  0.0541   41.1  0.6934  -62.5
 1.400  0.7064  -91.6  16.153  120.4  0.0545   40.6  0.6882  -63.2
 1.420  0.7033  -92.7  16.040  119.8  0.0549   40.1  0.6826  -63.9
 1.440  0.7005  -93.8  15.929  119.1  0.0552   39.6  0.6771  -64.6
 1.460  0.6979  -94.9  15.820  118.5  0.0556   39.1  0.6717  -65.3
 1.480  0.6956  -96.0  15.713  117.9  0.0559   38.6  0.6664  -66.1
 1.500  0.6936  -97.1  15.608  117.2  0.0563   38.1  0.6612  -66.8
 1.520  0.6911  -98.1  15.506  116.6  0.0566   37.7  0.6561  -67.4
 1.540  0.6887  -99.1  15.406  116.0  0.0569   37.2  0.6511  -68.1
 1.560  0.6866 -100.1  15.307  115.4  0.0572   36.8  0.6462  -68.8
 1.580  0.6848 -101.2  15.211  114.7  0.0575   36.3  0.6414  -69.4
 1.600  0.6831 -102.2  15.116  114.1  0.0578   35.9  0.6367  -70.1
 1.620  0.6805 -103.2  14.999  113.5  0.0581   35.4  0.6314  -70.8
 1.640  0.6782 -104.1  14.883  113.0  0.0583   35.0  0.6263  -71.4
 1.660  0.6760 -105.1  14.769  112.4  0.0586   34.5  0.6212  -72.1
 1.680  0.6741 -106.1  14.657  111.8  0.0589   34.1  0.6162  -72.8
 1.700  0.6723 -107.1  14.546  111.2  0.0592   33.6  0.6113  -73.5
 1.720  0.6703 -108.0  14.437  110.7  0.0594   33.2  0.6070  -74.1
 1.740  0.6685 -108.8  14.329  110.1  0.0597   32.8  0.6028  -74.7
 1.760  0.6669 -109.7  14.223  109.6  0.0599   32.4  0.5986  -75.3
 1.780  0.6654 -110.6  14.118  109.1  0.0602   32.0  0.5945  -76.0
 1.800  0.6641 -111.5  14.014  108.5  0.0604   31.6  0.5905  -76.6
 1.820  0.6621 -112.3  13.915  108.0  0.0606   31.2  0.5861  -77.2
 1.840  0.6602 -113.2  13.817  107.5  0.0608   30.8  0.5817  -77.8
 1.860  0.6585 -114.0  13.720  107.0  0.0609   30.5  0.5774  -78.4
 1.880  0.6569 -114.9  13.625  106.4  0.0611   30.1  0.5732  -79.0
 1.900  0.6554 -115.7  13.530  105.9  0.0613   29.7  0.5690  -79.6
 1.920  0.6539 -116.4  13.436  105.4  0.0615   29.3  0.5651  -80.1
 1.940  0.6525 -117.2  13.342  104.9  0.0617   29.0  0.5612  -80.7
 1.960  0.6512 -117.9  13.250  104.4  0.0618   28.6  0.5574  -81.3
 1.980  0.6501 -118.7  13.158  103.9  0.0620   28.3  0.5537  -81.8
 2.000  0.6490 -119.4  13.068  103.4  0.0622   27.9  0.5500  -82.4
 2.020  0.6477 -120.1  12.973  103.0  0.0623   27.6  0.5464  -82.9
 2.040  0.6464 -120.8  12.879  102.5  0.0625   27.2  0.5429  -83.4
 2.060  0.6453 -121.5  12.786  102.1  0.0626   26.9  0.5394  -83.9
 2.080  0.6442 -122.3  12.694  101.6  0.0627   26.6  0.5360  -84.4
 2.100  0.6433 -123.0  12.602  101.2  0.0629   26.3  0.5326  -85.0
 2.120  0.6424 -123.7  12.511  100.7  0.0630   26.0  0.5293  -85.5
 2.140  0.6417 -124.4  12.421  100.3  0.0632   25.6  0.5260  -86.0
 2.160  0.6411 -125.1  12.332   99.8  0.0633   25.3  0.5227  -86.6
 2.180  0.6405 -125.9  12.243   99.3  0.0635   25.0  0.5195  -87.1
 2.200  0.6401 -126.6  12.156   98.8  0.0636   24.7  0.5164  -87.7
 2.220  0.6390 -127.2  12.070   98.4  0.0637   24.4  0.5134  -88.2
 2.240  0.6380 -127.8  11.984   98.0  0.0638   24.1  0.5104  -88.6
 2.260  0.6371 -128.4  11.899   97.6  0.0639   23.8  0.5075  -89.1
 2.280  0.6362 -129.0  11.814   97.2  0.0640   23.5  0.5045  -89.6
 2.300  0.6354 -129.6  11.730   96.8  0.0641   23.2  0.5017  -90.0
 2.320  0.6347 -130.2  11.647   96.4  0.0642   22.9  0.4988  -90.5
 2.340  0.6340 -130.9  11.564   95.9  0.0643   22.7  0.4960  -91.0
 2.360  0.6334 -131.5  11.482   95.5  0.0644   22.4  0.4932  -91.5
 2.380  0.6329 -132.1  11.401   95.0  0.0645   22.1  0.4905  -92.0
 2.400  0.6325 -132.7  11.320   94.6  0.0646   21.8  0.4878  -92.5
 2.420  0.6317 -133.2  11.246   94.2  0.0647   21.6  0.4852  -92.9
 2.440  0.6311 -133.8  11.172   93.8  0.0647   21.3  0.4827  -93.3
 2.460  0.6304 -134.3  11.099   93.5  0.0648   21.1  0.4802  -93.7
 2.480  0.6298 -134.8  11.026   93.1  0.0648   20.8  0.4777  -94.1
 2.500  0.6293 -135.4  10.954   92.7  0.0649   20.6  0.4753  -94.5
 2.520  0.6288 -135.9  10.882   92.3  0.0649   20.4  0.4729  -95.0
 2.540  0.6284 -136.5  10.811   91.9  0.0650   20.1  0.4704  -95.4
 2.560  0.6281 -137.0  10.740   91.4  0.0651   19.9  0.4681  -95.8
 2.580  0.6277 -137.6  10.670   91.0  0.0651   19.6  0.4657  -96.3
 2.600  0.6275 -138.1  10.601   90.6  0.0652   19.4  0.4634  -96.7
 2.620  0.6268 -138.5  10.533   90.3  0.0652   19.2  0.4612  -97.0
 2.640  0.6262 -139.0  10.466   89.9  0.0653   19.0  0.4591  -97.4
 2.660  0.6256 -139.4  10.399   89.6  0.0653   18.8  0.4569  -97.7
 2.680  0.6250 -139.9  10.332   89.3  0.0654   18.6  0.4548  -98.1
 2.700  0.6245 -140.3  10.266   88.9  0.0654   18.4  0.4527  -98.4
 2.720  0.6240 -140.8  10.200   88.6  0.0655   18.3  0.4506  -98.8
 2.740  0.6235 -141.2  10.134   88.2  0.0655   18.1  0.4485  -99.1
 2.760  0.6231 -141.7  10.069   87.8  0.0656   17.9  0.4465  -99.5
 2.780  0.6227 -142.1  10.004   87.5  0.0656   17.7  0.4444  -99.8
 2.800  0.6224 -142.6   9.940   87.1  0.0657   17.5  0.4424 -100.2
 2.820  0.6222 -143.0   9.881   86.8  0.0658   17.3  0.4408 -100.5
 2.840  0.6220 -143.4   9.823   86.5  0.0658   17.1  0.4392 -100.9
 2.860  0.6219 -143.9   9.765   86.1  0.0659   17.0  0.4376 -101.2
 2.880  0.6218 -144.3   9.708   85.8  0.0659   16.8  0.4360 -101.5
 2.900  0.6217 -144.7   9.650   85.5  0.0660   16.6  0.4344 -101.9
 2.920  0.6216 -145.1   9.593   85.1  0.0661   16.4  0.4329 -102.2
 2.940  0.6216 -145.5   9.537   84.8  0.0661   16.2  0.4313 -102.6
 2.960  0.6217 -146.0   9.480   84.4  0.0662   16.1  0.4298 -102.9
 2.980  0.6217 -146.4   9.425   84.1  0.0662   15.9  0.4283 -103.2
 3.000  0.6218 -146.8   9.369   83.7  0.0663   15.7  0.4268 -103.6
 3.100  0.6199 -148.3   9.114   82.3  0.0665   14.9  0.4197 -104.7
 3.200  0.6184 -149.8   8.865   80.9  0.0667   14.1  0.4128 -105.9
 3.300  0.6174 -151.3   8.622   79.4  0.0669   13.3  0.4060 -107.1
 3.400  0.6168 -152.9   8.385   77.8  0.0671   12.6  0.3995 -108.4
 3.500  0.6166 -154.4   8.155   76.1  0.0673   11.8  0.3931 -109.7
 3.600  0.6152 -155.6   7.962   74.9  0.0675   11.2  0.3872 -110.5
 3.700  0.6141 -156.7   7.773   73.6  0.0676   10.6  0.3815 -111.4
 3.800  0.6132 -157.9   7.588   72.3  0.0678   10.0  0.3758 -112.3
 3.900  0.6126 -159.1   7.408   70.9  0.0680    9.4  0.3702 -113.2
 4.000  0.6122 -160.3   7.232   69.4  0.0682    8.8  0.3647 -114.2
 4.100  0.6119 -161.3   7.083   68.2  0.0684    8.3  0.3601 -115.0
 4.200  0.6117 -162.3   6.938   67.0  0.0686    7.8  0.3555 -115.7
 4.300  0.6117 -163.2   6.795   65.7  0.0688    7.2  0.3511 -116.5
 4.400  0.6119 -164.2   6.657   64.3  0.0690    6.7  0.3466 -117.4
 4.500  0.6123 -165.2   6.522   62.9  0.0692    6.2  0.3423 -118.2
 4.600  0.6051 -169.1   6.401   61.7  0.0694    5.7  0.3381 -119.0
 4.700  0.6007 -173.2   6.283   60.5  0.0696    5.2  0.3340 -119.9
 4.800  0.5994 -177.2   6.167   59.3  0.0698    4.7  0.3300 -120.7
 4.900  0.6011  178.7   6.055   58.0  0.0701    4.2  0.3260 -121.6
 5.000  0.6058  174.7   5.946   56.6  0.0703    3.7  0.3221 -122.5
 5.100  0.6042  173.3   5.846   55.4  0.0705    3.2  0.3182 -123.4
 5.200  0.6030  171.9   5.748   54.2  0.0707    2.7  0.3145 -124.3
 5.300  0.6021  170.5   5.653   52.9  0.0709    2.3  0.3108 -125.2
 5.400  0.6016  169.1   5.560   51.6  0.0712    1.8  0.3071 -126.1
 5.500  0.6015  167.7   5.471   50.3  0.0714    1.3  0.3036 -127.1
 5.600  0.5999  166.3   5.387   49.1  0.0716    0.8  0.3013 -128.1
 5.700  0.5987  164.9   5.306   47.9  0.0718    0.3  0.2990 -129.1
 5.800  0.5979  163.5   5.227   46.6  0.0720   -0.3  0.2969 -130.2
 5.900  0.5974  162.0   5.150   45.3  0.0723   -0.8  0.2948 -131.2
 6.000  0.5973  160.6   5.077   43.9  0.0725   -1.3  0.2929 -132.3
 6.100  0.5954  159.0   5.000   42.6  0.0727   -1.8  0.2897 -133.8
 6.200  0.5940  157.4   4.925   41.3  0.0728   -2.4  0.2867 -135.3
 6.300  0.5931  155.8   4.854   40.0  0.0730   -2.9  0.2840 -136.8
 6.400  0.5927  154.1   4.784   38.6  0.0732   -3.5  0.2814 -138.3
 6.500  0.5927  152.5   4.718   37.2  0.0734   -4.0  0.2790 -139.9
 6.600  0.5906  150.7   4.644   35.9  0.0735   -4.6  0.2748 -141.8
 6.800  0.5882  147.2   4.504   33.2  0.0736   -5.7  0.2674 -145.6
 7.000  0.5881  143.6   4.375   30.4  0.0738   -6.8  0.2612 -149.7
 7.200  0.5885  139.7   4.238   27.8  0.0738   -7.9  0.2530 -155.0
 7.400  0.5918  135.7   4.110   25.1  0.0739   -9.0  0.2470 -160.5
 7.600  0.5973  131.8   3.985   22.4  0.0738  -10.2  0.2398 -169.4
 7.800  0.6053  127.9   3.861   19.7  0.0738  -11.4  0.2379  178.0
 8.000  0.6160  124.1   3.746   16.8  0.0737  -12.6  0.2473  165.9
 8.200  0.6275  120.2   3.606   14.2  0.0731  -13.8  0.2521  158.9
 8.400  0.6418  116.4   3.474   11.3  0.0725  -15.1  0.2604  152.3
 8.600  0.6557  113.0   3.339    8.7  0.0717  -16.1  0.2711  146.0
 8.800  0.6685  109.9   3.198    6.4  0.0707  -16.9  0.2841  140.1
 9.000  0.6832  107.0   3.062    3.8  0.0697  -17.7  0.2998  134.7
 9.200  0.6963  104.9   2.941    2.0  0.0689  -18.1  0.3166  130.4
 9.400  0.7103  103.0   2.823   -0.0  0.0681  -18.6  0.3350  126.6
 9.600  0.7245  101.3   2.713   -1.9  0.0673  -19.0  0.3544  123.5
 9.800  0.7387  100.0   2.610   -3.7  0.0666  -19.4  0.3743  121.0
10.000  0.7532   98.8   2.510   -5.6  0.0658  -19.8  0.3949  118.7
!
!  f       NFmin   Gammaopt  rn/50
! GHz       dB    MAG  ANG    -
 0.450      0.52  0.33    4   0.18
 0.900      0.55  0.31    9   0.15
 1.800      0.60  0.29   15   0.14
 2.400      0.63  0.26   25   0.14
 5.500      0.77  0.25   48   0.08
10.000      0.99  0.27  -94   0.17
!
! (c) 2016  Infineon Technologies AG, Munich
