! Infineon Technologies  Discrete & RF Semiconductors
! BFP740FESD
! VCE =  2.0 V,  IC =  8.0 mA
! Common Emitter S-Parameters:                            Jan 2016
# GHz  S  MA  R  50
!  f         S11            S21            S12            S22
! GHz     MAG   ANG      MAG   ANG      MAG   ANG      MAG   ANG
 0.010  0.8960    0.0  23.186  179.8  0.0007  101.3  0.9835    1.0
 0.015  0.9020   -0.8  23.155  179.4  0.0009   96.8  0.9897   -0.0
 0.020  0.9082   -1.5  23.125  178.9  0.0011   93.9  0.9962   -1.0
 0.025  0.9078   -1.9  23.120  178.6  0.0013   92.1  0.9963   -1.3
 0.030  0.9074   -2.3  23.116  178.3  0.0016   90.8  0.9964   -1.5
 0.035  0.9071   -2.7  23.113  178.0  0.0018   89.9  0.9966   -1.8
 0.040  0.9068   -3.2  23.110  177.6  0.0021   89.2  0.9968   -2.1
 0.045  0.9066   -3.6  23.108  177.3  0.0023   88.6  0.9970   -2.3
 0.050  0.9064   -4.0  23.107  177.0  0.0026   88.2  0.9972   -2.6
 0.055  0.9058   -4.4  23.116  176.8  0.0028   87.9  0.9970   -2.9
 0.060  0.9052   -4.8  23.125  176.5  0.0031   87.7  0.9967   -3.1
 0.065  0.9046   -5.1  23.134  176.3  0.0033   87.5  0.9965   -3.4
 0.070  0.9041   -5.5  23.144  176.0  0.0036   87.3  0.9964   -3.7
 0.075  0.9037   -5.9  23.154  175.8  0.0038   87.1  0.9962   -3.9
 0.080  0.9032   -6.3  23.165  175.6  0.0041   87.0  0.9961   -4.2
 0.085  0.9028   -6.7  23.176  175.3  0.0043   86.9  0.9960   -4.5
 0.090  0.9025   -7.0  23.187  175.1  0.0046   86.8  0.9959   -4.8
 0.095  0.9022   -7.4  23.199  174.8  0.0048   86.7  0.9958   -5.0
 0.100  0.9019   -7.8  23.211  174.6  0.0051   86.6  0.9958   -5.3
 0.105  0.9015   -8.2  23.203  174.3  0.0054   86.1  0.9953   -5.6
 0.110  0.9011   -8.6  23.196  174.0  0.0056   85.7  0.9948   -5.8
 0.115  0.9007   -9.0  23.189  173.7  0.0059   85.3  0.9944   -6.1
 0.120  0.9004   -9.4  23.183  173.4  0.0061   84.9  0.9940   -6.4
 0.125  0.9002   -9.8  23.177  173.2  0.0064   84.6  0.9936   -6.6
 0.130  0.9000  -10.3  23.172  172.9  0.0067   84.2  0.9932   -6.9
 0.135  0.8998  -10.7  23.168  172.6  0.0069   84.0  0.9928   -7.2
 0.140  0.8997  -11.1  23.164  172.3  0.0072   83.7  0.9925   -7.5
 0.145  0.8996  -11.5  23.161  172.0  0.0074   83.4  0.9922   -7.7
 0.150  0.8996  -11.9  23.158  171.7  0.0077   83.2  0.9919   -8.0
 0.155  0.8991  -12.3  23.145  171.4  0.0079   83.0  0.9913   -8.3
 0.160  0.8986  -12.6  23.132  171.1  0.0082   82.8  0.9907   -8.5
 0.165  0.8982  -13.0  23.120  170.9  0.0084   82.6  0.9901   -8.8
 0.170  0.8978  -13.3  23.109  170.6  0.0087   82.4  0.9895   -9.1
 0.175  0.8974  -13.7  23.098  170.3  0.0089   82.2  0.9890   -9.3
 0.180  0.8971  -14.1  23.088  170.0  0.0091   82.0  0.9885   -9.6
 0.185  0.8968  -14.4  23.078  169.7  0.0094   81.8  0.9880   -9.9
 0.190  0.8965  -14.8  23.069  169.5  0.0096   81.7  0.9875  -10.2
 0.195  0.8963  -15.1  23.060  169.2  0.0099   81.5  0.9870  -10.4
 0.200  0.8961  -15.5  23.052  168.9  0.0101   81.4  0.9866  -10.7
 0.220  0.8941  -17.1  22.936  167.7  0.0111   80.4  0.9838  -11.7
 0.240  0.8927  -18.6  22.829  166.5  0.0120   79.6  0.9812  -12.8
 0.260  0.8909  -20.2  22.748  165.4  0.0130   78.6  0.9783  -13.8
 0.280  0.8886  -21.7  22.688  164.4  0.0140   77.6  0.9748  -14.9
 0.300  0.8869  -23.2  22.635  163.4  0.0150   76.7  0.9717  -15.9
 0.320  0.8835  -24.7  22.534  162.4  0.0159   75.8  0.9678  -16.9
 0.340  0.8808  -26.2  22.441  161.3  0.0168   75.1  0.9642  -17.9
 0.360  0.8783  -27.6  22.336  160.3  0.0178   74.2  0.9603  -18.9
 0.380  0.8761  -29.1  22.220  159.2  0.0187   73.3  0.9560  -19.9
 0.400  0.8745  -30.6  22.112  158.2  0.0196   72.5  0.9520  -20.9
 0.420  0.8712  -32.0  21.989  157.2  0.0205   71.6  0.9476  -21.9
 0.440  0.8685  -33.4  21.873  156.2  0.0214   70.8  0.9435  -22.8
 0.450  0.8673  -34.1  21.818  155.7  0.0218   70.4  0.9415  -23.3
 0.460  0.8655  -34.8  21.757  155.2  0.0222   70.0  0.9389  -23.8
 0.480  0.8622  -36.3  21.640  154.2  0.0231   69.2  0.9340  -24.8
 0.500  0.8595  -37.7  21.529  153.2  0.0240   68.4  0.9294  -25.8
 0.520  0.8557  -39.1  21.389  152.3  0.0248   67.5  0.9239  -26.7
 0.540  0.8523  -40.5  21.255  151.3  0.0256   66.7  0.9186  -27.6
 0.560  0.8495  -41.9  21.126  150.4  0.0264   65.9  0.9135  -28.5
 0.580  0.8472  -43.3  21.004  149.4  0.0272   65.1  0.9086  -29.4
 0.600  0.8454  -44.7  20.888  148.4  0.0280   64.4  0.9040  -30.3
 0.620  0.8412  -46.0  20.748  147.5  0.0287   63.6  0.8983  -31.2
 0.640  0.8374  -47.4  20.613  146.7  0.0295   62.8  0.8928  -32.1
 0.660  0.8341  -48.7  20.483  145.8  0.0303   62.1  0.8875  -33.0
 0.680  0.8313  -50.1  20.357  144.9  0.0310   61.4  0.8824  -34.0
 0.700  0.8290  -51.5  20.237  144.0  0.0318   60.7  0.8776  -34.9
 0.720  0.8253  -52.7  20.084  143.2  0.0325   59.9  0.8717  -35.7
 0.740  0.8220  -54.0  19.935  142.4  0.0331   59.2  0.8660  -36.5
 0.760  0.8191  -55.3  19.791  141.5  0.0338   58.5  0.8605  -37.4
 0.780  0.8166  -56.5  19.651  140.7  0.0345   57.8  0.8551  -38.2
 0.800  0.8145  -57.8  19.515  139.8  0.0352   57.2  0.8500  -39.1
 0.820  0.8106  -59.0  19.373  139.0  0.0358   56.5  0.8441  -39.9
 0.840  0.8070  -60.3  19.236  138.2  0.0365   55.8  0.8383  -40.7
 0.860  0.8039  -61.5  19.102  137.4  0.0371   55.2  0.8328  -41.6
 0.880  0.8011  -62.7  18.972  136.5  0.0378   54.5  0.8274  -42.4
 0.900  0.7987  -64.0  18.846  135.7  0.0384   53.9  0.8222  -43.3
 0.920  0.7951  -65.2  18.706  135.0  0.0389   53.2  0.8162  -44.1
 0.940  0.7919  -66.4  18.569  134.2  0.0395   52.5  0.8103  -44.9
 0.960  0.7890  -67.6  18.435  133.5  0.0401   51.9  0.8046  -45.7
 0.980  0.7865  -68.8  18.304  132.7  0.0406   51.2  0.7991  -46.6
 1.000  0.7843  -70.0  18.177  131.9  0.0412   50.6  0.7937  -47.4
 1.020  0.7808  -71.1  18.038  131.2  0.0417   50.0  0.7879  -48.1
 1.040  0.7777  -72.3  17.901  130.5  0.0422   49.4  0.7823  -48.9
 1.060  0.7748  -73.5  17.767  129.7  0.0427   48.8  0.7768  -49.6
 1.080  0.7723  -74.6  17.637  129.0  0.0432   48.2  0.7714  -50.4
 1.100  0.7701  -75.8  17.509  128.2  0.0437   47.6  0.7662  -51.2
 1.120  0.7669  -76.9  17.374  127.5  0.0442   47.0  0.7606  -51.9
 1.140  0.7639  -78.0  17.241  126.8  0.0446   46.4  0.7550  -52.7
 1.160  0.7612  -79.1  17.111  126.1  0.0451   45.9  0.7497  -53.4
 1.180  0.7588  -80.2  16.984  125.3  0.0455   45.3  0.7444  -54.2
 1.200  0.7567  -81.3  16.859  124.6  0.0460   44.8  0.7393  -55.0
 1.220  0.7539  -82.3  16.727  124.0  0.0464   44.2  0.7339  -55.7
 1.240  0.7513  -83.3  16.596  123.3  0.0468   43.7  0.7287  -56.4
 1.260  0.7489  -84.3  16.468  122.7  0.0472   43.1  0.7236  -57.1
 1.280  0.7468  -85.4  16.343  122.0  0.0476   42.5  0.7185  -57.8
 1.300  0.7449  -86.4  16.219  121.3  0.0480   42.0  0.7136  -58.5
 1.320  0.7419  -87.4  16.084  120.7  0.0483   41.5  0.7082  -59.2
 1.340  0.7390  -88.4  15.951  120.0  0.0486   41.0  0.7028  -59.9
 1.360  0.7364  -89.4  15.820  119.4  0.0489   40.5  0.6976  -60.6
 1.380  0.7340  -90.4  15.692  118.7  0.0493   40.0  0.6925  -61.3
 1.400  0.7319  -91.4  15.565  118.0  0.0496   39.5  0.6875  -62.0
 1.420  0.7295  -92.3  15.447  117.5  0.0499   39.0  0.6829  -62.6
 1.440  0.7273  -93.1  15.331  116.9  0.0502   38.6  0.6783  -63.3
 1.460  0.7253  -94.0  15.216  116.3  0.0506   38.1  0.6739  -63.9
 1.480  0.7235  -94.9  15.103  115.8  0.0509   37.6  0.6695  -64.5
 1.500  0.7218  -95.8  14.991  115.2  0.0512   37.2  0.6652  -65.2
 1.520  0.7195  -96.7  14.875  114.6  0.0515   36.7  0.6606  -65.8
 1.540  0.7175  -97.7  14.761  114.0  0.0517   36.3  0.6560  -66.5
 1.560  0.7156  -98.6  14.648  113.4  0.0520   35.8  0.6516  -67.1
 1.580  0.7139  -99.6  14.537  112.7  0.0522   35.4  0.6472  -67.7
 1.600  0.7124 -100.5  14.428  112.1  0.0525   34.9  0.6429  -68.4
 1.620  0.7101 -101.3  14.316  111.6  0.0527   34.5  0.6389  -69.0
 1.640  0.7079 -102.1  14.205  111.0  0.0529   34.1  0.6349  -69.6
 1.660  0.7059 -102.9  14.095  110.5  0.0532   33.7  0.6310  -70.2
 1.680  0.7040 -103.8  13.987  110.0  0.0534   33.3  0.6272  -70.8
 1.700  0.7023 -104.6  13.880  109.4  0.0536   32.9  0.6234  -71.4
 1.720  0.7005 -105.4  13.768  108.9  0.0538   32.5  0.6197  -71.9
 1.740  0.6989 -106.1  13.656  108.4  0.0540   32.1  0.6160  -72.5
 1.760  0.6973 -106.9  13.546  107.9  0.0541   31.8  0.6124  -73.1
 1.780  0.6959 -107.6  13.436  107.4  0.0543   31.4  0.6088  -73.6
 1.800  0.6946 -108.4  13.328  106.9  0.0545   31.0  0.6053  -74.2
 1.820  0.6930 -109.2  13.234  106.4  0.0547   30.6  0.6018  -74.8
 1.840  0.6915 -109.9  13.141  105.9  0.0549   30.3  0.5983  -75.3
 1.860  0.6901 -110.7  13.050  105.4  0.0550   29.9  0.5949  -75.9
 1.880  0.6888 -111.4  12.959  104.9  0.0552   29.6  0.5915  -76.5
 1.900  0.6877 -112.2  12.869  104.4  0.0554   29.2  0.5882  -77.1
 1.920  0.6859 -112.9  12.772  104.0  0.0556   28.9  0.5851  -77.6
 1.940  0.6842 -113.5  12.677  103.5  0.0557   28.6  0.5821  -78.1
 1.960  0.6826 -114.2  12.582  103.0  0.0559   28.2  0.5791  -78.6
 1.980  0.6811 -114.8  12.487  102.6  0.0560   27.9  0.5762  -79.1
 2.000  0.6797 -115.5  12.394  102.1  0.0562   27.6  0.5733  -79.6
 2.020  0.6780 -116.2  12.306  101.7  0.0563   27.3  0.5703  -80.1
 2.040  0.6764 -116.8  12.219  101.2  0.0564   27.0  0.5673  -80.6
 2.060  0.6748 -117.5  12.133  100.8  0.0565   26.7  0.5644  -81.1
 2.080  0.6734 -118.1  12.047  100.3  0.0567   26.3  0.5615  -81.7
 2.100  0.6720 -118.8  11.962   99.9  0.0568   26.0  0.5587  -82.2
 2.120  0.6708 -119.5  11.878   99.4  0.0569   25.7  0.5559  -82.7
 2.140  0.6696 -120.2  11.795   98.9  0.0570   25.4  0.5532  -83.3
 2.160  0.6686 -120.8  11.713   98.5  0.0571   25.1  0.5505  -83.8
 2.180  0.6676 -121.5  11.631   98.0  0.0573   24.8  0.5479  -84.3
 2.200  0.6667 -122.2  11.550   97.5  0.0574   24.5  0.5453  -84.9
 2.220  0.6653 -122.8  11.471   97.1  0.0575   24.2  0.5428  -85.4
 2.240  0.6639 -123.4  11.392   96.7  0.0576   23.9  0.5403  -85.9
 2.260  0.6627 -124.0  11.314   96.3  0.0577   23.7  0.5379  -86.4
 2.280  0.6615 -124.6  11.237   95.9  0.0577   23.4  0.5355  -86.8
 2.300  0.6603 -125.2  11.160   95.5  0.0578   23.1  0.5331  -87.3
 2.320  0.6593 -125.8  11.084   95.0  0.0579   22.8  0.5308  -87.8
 2.340  0.6583 -126.4  11.008   94.6  0.0580   22.5  0.5285  -88.4
 2.360  0.6574 -127.0  10.933   94.2  0.0581   22.3  0.5263  -88.9
 2.380  0.6566 -127.6  10.859   93.7  0.0582   22.0  0.5241  -89.4
 2.400  0.6558 -128.2  10.785   93.3  0.0583   21.7  0.5219  -89.9
 2.420  0.6545 -128.8  10.714   92.9  0.0583   21.4  0.5197  -90.4
 2.440  0.6533 -129.4  10.643   92.6  0.0584   21.2  0.5176  -90.8
 2.460  0.6522 -130.0  10.572   92.2  0.0584   20.9  0.5155  -91.3
 2.480  0.6511 -130.5  10.502   91.8  0.0585   20.7  0.5135  -91.7
 2.500  0.6501 -131.1  10.432   91.4  0.0585   20.4  0.5115  -92.2
 2.520  0.6492 -131.7  10.363   91.0  0.0586   20.1  0.5095  -92.7
 2.540  0.6483 -132.3  10.295   90.6  0.0586   19.9  0.5075  -93.2
 2.560  0.6475 -132.9  10.227   90.2  0.0587   19.6  0.5056  -93.6
 2.580  0.6468 -133.5  10.159   89.8  0.0587   19.4  0.5037  -94.1
 2.600  0.6461 -134.1  10.092   89.4  0.0588   19.1  0.5019  -94.6
 2.620  0.6451 -134.6  10.027   89.1  0.0588   18.9  0.5002  -95.0
 2.640  0.6441 -135.1   9.962   88.7  0.0588   18.7  0.4985  -95.5
 2.660  0.6432 -135.6   9.897   88.3  0.0589   18.5  0.4969  -95.9
 2.680  0.6424 -136.1   9.833   88.0  0.0589   18.3  0.4953  -96.3
 2.700  0.6416 -136.6   9.769   87.6  0.0589   18.0  0.4937  -96.8
 2.720  0.6408 -137.1   9.706   87.2  0.0589   17.8  0.4921  -97.2
 2.740  0.6401 -137.7   9.643   86.9  0.0589   17.6  0.4906  -97.7
 2.760  0.6395 -138.2   9.581   86.5  0.0590   17.4  0.4891  -98.1
 2.780  0.6389 -138.7   9.519   86.1  0.0590   17.2  0.4876  -98.5
 2.800  0.6383 -139.2   9.457   85.7  0.0590   17.0  0.4862  -99.0
 2.820  0.6377 -139.6   9.400   85.4  0.0590   16.8  0.4849  -99.4
 2.840  0.6371 -140.1   9.342   85.1  0.0590   16.6  0.4837  -99.7
 2.860  0.6365 -140.5   9.286   84.7  0.0591   16.4  0.4825 -100.1
 2.880  0.6360 -141.0   9.229   84.4  0.0591   16.2  0.4812 -100.5
 2.900  0.6356 -141.4   9.173   84.1  0.0591   16.0  0.4800 -100.8
 2.920  0.6351 -141.9   9.117   83.7  0.0591   15.9  0.4789 -101.2
 2.940  0.6347 -142.3   9.062   83.4  0.0591   15.7  0.4777 -101.6
 2.960  0.6344 -142.8   9.006   83.0  0.0592   15.5  0.4766 -101.9
 2.980  0.6341 -143.2   8.952   82.7  0.0592   15.3  0.4755 -102.3
 3.000  0.6338 -143.7   8.897   82.3  0.0592   15.1  0.4744 -102.7
 3.100  0.6309 -145.6   8.656   80.9  0.0592   14.4  0.4698 -104.2
 3.200  0.6288 -147.6   8.421   79.5  0.0591   13.6  0.4656 -105.7
 3.300  0.6274 -149.5   8.190   78.0  0.0591   12.9  0.4617 -107.2
 3.400  0.6267 -151.4   7.966   76.4  0.0591   12.1  0.4581 -108.7
 3.500  0.6267 -153.4   7.749   74.7  0.0591   11.4  0.4548 -110.3
 3.600  0.6261 -155.1   7.572   73.4  0.0591   10.9  0.4517 -111.5
 3.700  0.6261 -156.7   7.399   72.1  0.0590   10.3  0.4489 -112.7
 3.800  0.6266 -158.4   7.230   70.7  0.0590    9.8  0.4462 -113.9
 3.900  0.6276 -160.0   7.066   69.2  0.0590    9.2  0.4437 -115.1
 4.000  0.6292 -161.7   6.906   67.7  0.0590    8.7  0.4414 -116.3
 4.100  0.6297 -163.3   6.758   66.4  0.0590    8.2  0.4385 -117.7
 4.200  0.6308 -164.8   6.614   65.0  0.0589    7.7  0.4359 -119.1
 4.300  0.6322 -166.4   6.474   63.6  0.0589    7.2  0.4335 -120.5
 4.400  0.6342 -168.0   6.338   62.1  0.0588    6.7  0.4314 -122.0
 4.500  0.6366 -169.5   6.206   60.6  0.0588    6.2  0.4296 -123.4
 4.600  0.6371 -170.8   6.075   59.4  0.0586    5.8  0.4272 -124.7
 4.700  0.6380 -172.2   5.946   58.1  0.0584    5.4  0.4249 -126.0
 4.800  0.6392 -173.5   5.821   56.8  0.0583    4.9  0.4229 -127.3
 4.900  0.6408 -174.9   5.699   55.4  0.0581    4.5  0.4212 -128.6
 5.000  0.6427 -176.2   5.580   53.9  0.0579    4.1  0.4196 -129.9
 5.100  0.6419 -177.4   5.473   52.7  0.0577    3.8  0.4173 -131.0
 5.200  0.6413 -178.6   5.369   51.5  0.0575    3.5  0.4151 -132.2
 5.300  0.6410 -179.9   5.267   50.3  0.0573    3.1  0.4131 -133.3
 5.400  0.6411  178.9   5.168   49.0  0.0571    2.8  0.4113 -134.5
 5.500  0.6414  177.7   5.072   47.6  0.0569    2.5  0.4096 -135.7
 5.600  0.6405  176.3   4.990   46.4  0.0567    2.2  0.4070 -137.0
 5.700  0.6400  175.0   4.910   45.2  0.0565    1.9  0.4046 -138.4
 5.800  0.6398  173.6   4.833   44.0  0.0564    1.6  0.4024 -139.8
 5.900  0.6400  172.3   4.758   42.7  0.0562    1.3  0.4005 -141.2
 6.000  0.6405  170.9   4.685   41.4  0.0560    1.0  0.3988 -142.6
 6.100  0.6396  169.5   4.608   40.1  0.0557    0.8  0.3962 -144.1
 6.200  0.6391  168.0   4.533   38.8  0.0554    0.6  0.3939 -145.6
 6.300  0.6390  166.6   4.461   37.5  0.0550    0.4  0.3918 -147.1
 6.400  0.6394  165.1   4.391   36.1  0.0547    0.2  0.3901 -148.7
 6.500  0.6401  163.7   4.324   34.7  0.0544    0.0  0.3886 -150.2
 6.600  0.6403  162.4   4.251   33.5  0.0539    0.1  0.3850 -151.5
 6.800  0.6417  159.8   4.111   31.1  0.0530    0.3  0.3783 -154.1
 7.000  0.6444  157.2   3.978   28.5  0.0520    0.5  0.3724 -156.8
 7.200  0.6474  154.9   3.851   26.3  0.0516    1.6  0.3645 -159.6
 7.400  0.6514  152.6   3.731   23.9  0.0512    2.7  0.3574 -162.4
 7.600  0.6580  150.3   3.620   21.4  0.0514    3.7  0.3529 -166.0
 7.800  0.6672  148.0   3.519   18.8  0.0521    4.5  0.3519 -170.3
 8.000  0.6774  145.8   3.426   16.1  0.0529    5.3  0.3528 -174.6
 8.200  0.6832  143.6   3.311   13.5  0.0536    5.1  0.3570 -179.7
 8.400  0.6900  141.5   3.204   10.8  0.0543    4.8  0.3639  175.3
 8.600  0.6940  139.5   3.094    8.1  0.0548    4.5  0.3710  170.3
 8.800  0.6950  137.8   2.979    5.7  0.0549    4.2  0.3786  165.2
 9.000  0.6966  136.0   2.871    3.0  0.0550    3.8  0.3890  160.3
 9.200  0.6994  134.5   2.768    1.3  0.0550    3.6  0.4017  155.7
 9.400  0.7027  133.0   2.667   -0.5  0.0551    3.5  0.4168  151.3
 9.600  0.7100  131.3   2.575   -2.6  0.0551    3.4  0.4364  147.4
 9.800  0.7215  129.4   2.492   -4.9  0.0551    3.5  0.4602  143.9
10.000  0.7339  127.5   2.414   -7.3  0.0551    3.6  0.4856  140.7
!
!  f       NFmin   Gammaopt  rn/50
! GHz       dB    MAG  ANG    -
 0.450      0.56  0.32    6   0.10
 2.400      0.64  0.21   46   0.10
 5.500      0.82  0.33  134   0.08
10.000      1.44  0.40 -138   0.12
!
! (c) 2016  Infineon Technologies AG, Munich
