! Infineon Technologies  Discrete & RF Semiconductors
! BFP740FESD
! VCE =  2.5 V,  IC =  35 mA
! Common Emitter S-Parameters:                            Jan 2016
# GHz  S  MA  R  50
!  f         S11            S21            S12            S22
! GHz     MAG   ANG      MAG   ANG      MAG   ANG      MAG   ANG
 0.010  0.5734   -1.2  60.712 -179.5  0.0010  113.1  0.9217    4.8
 0.015  0.5782   -2.9  61.028  179.1  0.0011  107.3  0.9408    2.0
 0.020  0.5835   -4.6  61.380  177.7  0.0012  102.5  0.9620   -0.7
 0.025  0.5821   -5.6  61.351  177.1  0.0014   99.2  0.9639   -1.3
 0.030  0.5809   -6.6  61.329  176.5  0.0016   96.6  0.9659   -1.9
 0.035  0.5799   -7.6  61.314  175.9  0.0017   94.6  0.9680   -2.6
 0.040  0.5791   -8.6  61.306  175.3  0.0019   93.0  0.9703   -3.2
 0.045  0.5784   -9.6  61.304  174.7  0.0021   91.6  0.9726   -3.8
 0.050  0.5779  -10.6  61.309  174.1  0.0023   90.5  0.9751   -4.4
 0.055  0.5769  -11.7  61.247  173.5  0.0025   88.9  0.9739   -5.0
 0.060  0.5761  -12.9  61.191  172.9  0.0027   87.6  0.9729   -5.6
 0.065  0.5755  -14.0  61.143  172.3  0.0029   86.4  0.9720   -6.3
 0.070  0.5752  -15.1  61.101  171.7  0.0031   85.4  0.9712   -6.9
 0.075  0.5751  -16.2  61.065  171.1  0.0033   84.5  0.9705   -7.5
 0.080  0.5752  -17.4  61.037  170.5  0.0035   83.7  0.9699   -8.1
 0.085  0.5755  -18.5  61.015  169.9  0.0037   83.0  0.9694   -8.7
 0.090  0.5761  -19.6  60.999  169.3  0.0039   82.4  0.9691   -9.4
 0.095  0.5769  -20.8  60.991  168.7  0.0041   81.8  0.9688  -10.0
 0.100  0.5779  -21.9  60.989  168.1  0.0043   81.3  0.9687  -10.6
 0.105  0.5767  -22.9  60.802  167.5  0.0045   80.7  0.9661  -11.2
 0.110  0.5756  -24.0  60.623  166.9  0.0047   80.1  0.9637  -11.7
 0.115  0.5748  -25.0  60.451  166.2  0.0049   79.6  0.9613  -12.3
 0.120  0.5741  -26.0  60.285  165.6  0.0051   79.1  0.9590  -12.8
 0.125  0.5737  -27.1  60.128  165.0  0.0052   78.6  0.9568  -13.4
 0.130  0.5734  -28.1  59.977  164.4  0.0054   78.2  0.9547  -14.0
 0.135  0.5733  -29.2  59.834  163.7  0.0056   77.8  0.9527  -14.6
 0.140  0.5734  -30.2  59.698  163.1  0.0058   77.5  0.9508  -15.1
 0.145  0.5737  -31.3  59.569  162.4  0.0060   77.1  0.9490  -15.7
 0.150  0.5742  -32.3  59.448  161.8  0.0062   76.8  0.9473  -16.3
 0.155  0.5731  -33.2  59.228  161.3  0.0064   76.3  0.9441  -16.8
 0.160  0.5722  -34.2  59.014  160.7  0.0066   75.9  0.9410  -17.3
 0.165  0.5714  -35.1  58.804  160.2  0.0067   75.5  0.9379  -17.8
 0.170  0.5708  -36.1  58.600  159.6  0.0069   75.1  0.9350  -18.3
 0.175  0.5704  -37.0  58.401  159.1  0.0071   74.8  0.9321  -18.9
 0.180  0.5701  -38.0  58.208  158.5  0.0073   74.4  0.9293  -19.4
 0.185  0.5700  -38.9  58.020  158.0  0.0075   74.1  0.9265  -19.9
 0.190  0.5700  -39.9  57.837  157.4  0.0076   73.8  0.9239  -20.4
 0.195  0.5702  -40.8  57.660  156.9  0.0078   73.5  0.9213  -21.0
 0.200  0.5705  -41.8  57.489  156.3  0.0080   73.2  0.9188  -21.5
 0.220  0.5668  -45.4  56.425  154.2  0.0087   71.4  0.9052  -23.3
 0.240  0.5654  -49.1  55.441  152.0  0.0094   70.0  0.8926  -25.2
 0.260  0.5638  -52.6  54.487  150.0  0.0101   68.7  0.8794  -27.1
 0.280  0.5619  -55.9  53.543  148.2  0.0107   67.5  0.8653  -28.8
 0.300  0.5619  -59.3  52.655  146.3  0.0113   66.5  0.8521  -30.6
 0.320  0.5599  -62.4  51.640  144.7  0.0119   65.2  0.8377  -32.2
 0.340  0.5595  -65.5  50.669  143.0  0.0124   64.0  0.8240  -33.8
 0.360  0.5588  -68.5  49.708  141.4  0.0130   63.0  0.8103  -35.3
 0.380  0.5575  -71.2  48.748  139.8  0.0135   62.0  0.7966  -36.7
 0.400  0.5576  -74.0  47.825  138.2  0.0140   61.1  0.7833  -38.1
 0.420  0.5571  -76.6  46.878  136.8  0.0144   60.1  0.7701  -39.4
 0.440  0.5578  -79.3  45.958  135.4  0.0149   59.2  0.7574  -40.8
 0.450  0.5586  -80.6  45.509  134.7  0.0151   58.7  0.7512  -41.5
 0.460  0.5579  -81.8  45.067  134.1  0.0153   58.2  0.7447  -42.1
 0.480  0.5572  -84.3  44.200  132.8  0.0158   57.3  0.7320  -43.4
 0.500  0.5576  -86.8  43.355  131.5  0.0162   56.5  0.7197  -44.7
 0.520  0.5568  -88.9  42.538  130.4  0.0166   55.7  0.7076  -45.7
 0.540  0.5568  -91.1  41.737  129.3  0.0170   54.9  0.6958  -46.8
 0.560  0.5575  -93.2  40.953  128.2  0.0173   54.2  0.6842  -47.9
 0.580  0.5590  -95.3  40.186  126.9  0.0177   53.5  0.6729  -49.1
 0.600  0.5613  -97.4  39.437  125.7  0.0181   52.8  0.6619  -50.3
 0.620  0.5611  -99.2  38.738  124.8  0.0184   52.2  0.6515  -51.3
 0.640  0.5615 -101.1  38.049  123.9  0.0187   51.5  0.6413  -52.2
 0.660  0.5625 -102.9  37.370  122.9  0.0191   50.9  0.6313  -53.3
 0.680  0.5641 -104.8  36.702  121.9  0.0194   50.4  0.6215  -54.3
 0.700  0.5662 -106.6  36.045  120.9  0.0197   49.8  0.6119  -55.4
 0.720  0.5666 -108.2  35.433  120.1  0.0200   49.3  0.6028  -56.2
 0.740  0.5675 -109.7  34.829  119.3  0.0202   48.7  0.5938  -57.1
 0.760  0.5687 -111.3  34.232  118.4  0.0205   48.2  0.5850  -58.0
 0.780  0.5704 -112.9  33.643  117.5  0.0207   47.7  0.5763  -58.9
 0.800  0.5725 -114.4  33.062  116.6  0.0210   47.2  0.5677  -59.8
 0.820  0.5732 -115.8  32.549  115.9  0.0212   46.7  0.5597  -60.6
 0.840  0.5742 -117.1  32.041  115.2  0.0215   46.2  0.5518  -61.4
 0.860  0.5755 -118.5  31.539  114.4  0.0217   45.7  0.5440  -62.3
 0.880  0.5771 -119.9  31.042  113.6  0.0220   45.3  0.5364  -63.2
 0.900  0.5791 -121.2  30.551  112.8  0.0222   44.8  0.5289  -64.1
 0.920  0.5798 -122.4  30.091  112.2  0.0224   44.4  0.5217  -64.9
 0.940  0.5807 -123.7  29.635  111.5  0.0226   44.1  0.5145  -65.6
 0.960  0.5818 -124.9  29.182  110.8  0.0228   43.7  0.5075  -66.4
 0.980  0.5833 -126.1  28.735  110.1  0.0230   43.3  0.5005  -67.3
 1.000  0.5850 -127.3  28.291  109.4  0.0232   43.0  0.4937  -68.1
 1.020  0.5860 -128.3  27.891  108.8  0.0234   42.7  0.4876  -68.8
 1.040  0.5872 -129.4  27.494  108.2  0.0236   42.3  0.4815  -69.5
 1.060  0.5886 -130.4  27.100  107.6  0.0237   42.0  0.4755  -70.2
 1.080  0.5902 -131.5  26.709  107.0  0.0239   41.7  0.4695  -70.9
 1.100  0.5920 -132.5  26.322  106.3  0.0241   41.4  0.4637  -71.7
 1.120  0.5928 -133.5  25.968  105.8  0.0242   41.1  0.4581  -72.4
 1.140  0.5939 -134.4  25.617  105.2  0.0244   40.8  0.4526  -73.1
 1.160  0.5950 -135.4  25.269  104.6  0.0245   40.5  0.4472  -73.9
 1.180  0.5964 -136.3  24.923  104.0  0.0247   40.2  0.4419  -74.6
 1.200  0.5979 -137.3  24.580  103.4  0.0248   39.9  0.4366  -75.4
 1.220  0.5988 -138.1  24.267  102.9  0.0249   39.7  0.4319  -76.0
 1.240  0.5998 -139.0  23.955  102.4  0.0251   39.4  0.4272  -76.6
 1.260  0.6009 -139.8  23.646  101.9  0.0252   39.2  0.4226  -77.3
 1.280  0.6022 -140.7  23.338  101.3  0.0254   38.9  0.4181  -77.9
 1.300  0.6036 -141.5  23.033  100.8  0.0255   38.7  0.4136  -78.6
 1.320  0.6043 -142.3  22.745  100.3  0.0256   38.5  0.4093  -79.2
 1.340  0.6052 -143.0  22.460   99.8  0.0257   38.3  0.4050  -79.9
 1.360  0.6062 -143.8  22.175   99.3  0.0258   38.1  0.4008  -80.5
 1.380  0.6072 -144.5  21.893   98.8  0.0259   37.9  0.3966  -81.2
 1.400  0.6084 -145.3  21.612   98.3  0.0260   37.7  0.3925  -81.9
 1.420  0.6089 -145.9  21.367   97.9  0.0261   37.5  0.3889  -82.5
 1.440  0.6095 -146.5  21.124   97.5  0.0262   37.4  0.3854  -83.0
 1.460  0.6102 -147.2  20.881   97.0  0.0264   37.2  0.3819  -83.6
 1.480  0.6110 -147.8  20.640   96.6  0.0265   37.1  0.3785  -84.2
 1.500  0.6118 -148.4  20.400   96.1  0.0266   36.9  0.3751  -84.8
 1.520  0.6128 -149.0  20.174   95.7  0.0267   36.8  0.3720  -85.4
 1.540  0.6139 -149.7  19.950   95.2  0.0268   36.6  0.3690  -86.0
 1.560  0.6151 -150.3  19.726   94.8  0.0269   36.5  0.3660  -86.6
 1.580  0.6163 -151.0  19.504   94.4  0.0270   36.3  0.3630  -87.2
 1.600  0.6176 -151.6  19.283   93.9  0.0271   36.2  0.3601  -87.8
 1.620  0.6179 -152.2  19.083   93.5  0.0272   36.1  0.3574  -88.3
 1.640  0.6183 -152.8  18.884   93.1  0.0273   36.0  0.3547  -88.9
 1.660  0.6188 -153.3  18.686   92.7  0.0273   35.8  0.3521  -89.5
 1.680  0.6193 -153.9  18.489   92.3  0.0274   35.7  0.3495  -90.0
 1.700  0.6199 -154.5  18.293   91.9  0.0275   35.6  0.3469  -90.6
 1.720  0.6204 -155.0  18.099   91.5  0.0276   35.5  0.3447  -91.1
 1.740  0.6210 -155.4  17.907   91.2  0.0277   35.4  0.3425  -91.6
 1.760  0.6216 -155.9  17.715   90.8  0.0278   35.4  0.3403  -92.1
 1.780  0.6223 -156.3  17.523   90.4  0.0279   35.3  0.3382  -92.6
 1.800  0.6230 -156.8  17.333   90.0  0.0280   35.2  0.3361  -93.1
 1.820  0.6235 -157.3  17.169   89.6  0.0281   35.1  0.3340  -93.6
 1.840  0.6240 -157.8  17.005   89.3  0.0282   35.0  0.3320  -94.2
 1.860  0.6245 -158.4  16.842   88.9  0.0282   34.9  0.3300  -94.8
 1.880  0.6251 -158.9  16.679   88.5  0.0283   34.8  0.3280  -95.3
 1.900  0.6258 -159.4  16.518   88.1  0.0284   34.7  0.3261  -95.9
 1.920  0.6260 -159.8  16.365   87.8  0.0285   34.7  0.3244  -96.3
 1.940  0.6262 -160.2  16.213   87.4  0.0286   34.6  0.3228  -96.7
 1.960  0.6265 -160.6  16.061   87.1  0.0286   34.6  0.3211  -97.1
 1.980  0.6268 -161.0  15.910   86.8  0.0287   34.5  0.3195  -97.6
 2.000  0.6271 -161.4  15.759   86.4  0.0288   34.5  0.3179  -98.0
 2.020  0.6272 -161.8  15.622   86.1  0.0289   34.4  0.3165  -98.5
 2.040  0.6274 -162.3  15.485   85.8  0.0289   34.4  0.3150  -98.9
 2.060  0.6276 -162.7  15.349   85.4  0.0290   34.3  0.3136  -99.4
 2.080  0.6278 -163.1  15.214   85.1  0.0291   34.3  0.3123  -99.9
 2.100  0.6281 -163.6  15.079   84.8  0.0291   34.2  0.3109 -100.4
 2.120  0.6284 -164.0  14.944   84.4  0.0292   34.2  0.3096 -100.9
 2.140  0.6288 -164.4  14.810   84.1  0.0293   34.1  0.3083 -101.4
 2.160  0.6291 -164.8  14.677   83.7  0.0294   34.1  0.3070 -101.9
 2.180  0.6296 -165.3  14.544   83.4  0.0294   34.0  0.3057 -102.4
 2.200  0.6300 -165.7  14.412   83.0  0.0295   34.0  0.3045 -102.9
 2.220  0.6302 -166.1  14.296   82.7  0.0296   34.0  0.3035 -103.3
 2.240  0.6304 -166.5  14.181   82.4  0.0296   33.9  0.3024 -103.8
 2.260  0.6306 -166.8  14.066   82.1  0.0297   33.9  0.3014 -104.2
 2.280  0.6309 -167.2  13.952   81.8  0.0298   33.9  0.3005 -104.7
 2.300  0.6312 -167.6  13.838   81.5  0.0298   33.8  0.2995 -105.2
 2.320  0.6315 -168.0  13.725   81.1  0.0299   33.8  0.2986 -105.6
 2.340  0.6318 -168.4  13.611   80.8  0.0300   33.8  0.2976 -106.1
 2.360  0.6322 -168.7  13.499   80.5  0.0301   33.8  0.2967 -106.6
 2.380  0.6326 -169.1  13.387   80.1  0.0301   33.7  0.2959 -107.0
 2.400  0.6330 -169.5  13.275   79.8  0.0302   33.7  0.2950 -107.5
 2.420  0.6333 -169.9  13.173   79.5  0.0303   33.7  0.2943 -107.9
 2.440  0.6337 -170.2  13.072   79.2  0.0303   33.7  0.2936 -108.4
 2.460  0.6341 -170.6  12.971   78.9  0.0304   33.6  0.2930 -108.8
 2.480  0.6345 -170.9  12.871   78.7  0.0305   33.6  0.2924 -109.2
 2.500  0.6350 -171.3  12.771   78.4  0.0305   33.6  0.2917 -109.7
 2.520  0.6355 -171.7  12.671   78.1  0.0306   33.6  0.2911 -110.1
 2.540  0.6360 -172.0  12.571   77.7  0.0307   33.6  0.2905 -110.6
 2.560  0.6365 -172.4  12.472   77.4  0.0308   33.5  0.2900 -111.0
 2.580  0.6370 -172.7  12.373   77.1  0.0308   33.5  0.2894 -111.5
 2.600  0.6376 -173.1  12.275   76.8  0.0309   33.5  0.2889 -111.9
 2.620  0.6376 -173.4  12.186   76.5  0.0310   33.5  0.2885 -112.3
 2.640  0.6377 -173.7  12.097   76.3  0.0310   33.5  0.2882 -112.7
 2.660  0.6378 -174.0  12.009   76.0  0.0311   33.5  0.2879 -113.0
 2.680  0.6379 -174.3  11.920   75.8  0.0311   33.5  0.2875 -113.4
 2.700  0.6380 -174.7  11.832   75.5  0.0312   33.5  0.2872 -113.8
 2.720  0.6382 -175.0  11.744   75.2  0.0313   33.5  0.2869 -114.2
 2.740  0.6383 -175.3  11.657   75.0  0.0313   33.5  0.2867 -114.6
 2.760  0.6385 -175.6  11.570   74.7  0.0314   33.5  0.2864 -114.9
 2.780  0.6387 -175.9  11.483   74.4  0.0314   33.5  0.2861 -115.3
 2.800  0.6389 -176.2  11.396   74.1  0.0315   33.5  0.2859 -115.7
 2.820  0.6393 -176.5  11.320   73.9  0.0316   33.5  0.2858 -116.0
 2.840  0.6398 -176.7  11.245   73.6  0.0316   33.5  0.2857 -116.3
 2.860  0.6403 -177.0  11.170   73.4  0.0317   33.6  0.2856 -116.6
 2.880  0.6407 -177.2  11.095   73.1  0.0318   33.6  0.2856 -116.9
 2.900  0.6412 -177.5  11.020   72.8  0.0318   33.6  0.2855 -117.2
 2.920  0.6417 -177.8  10.946   72.6  0.0319   33.6  0.2854 -117.6
 2.940  0.6423 -178.0  10.871   72.3  0.0320   33.6  0.2854 -117.9
 2.960  0.6428 -178.3  10.797   72.0  0.0321   33.7  0.2854 -118.2
 2.980  0.6433 -178.5  10.724   71.8  0.0321   33.7  0.2853 -118.5
 3.000  0.6439 -178.8  10.650   71.5  0.0322   33.7  0.2853 -118.8
 3.100  0.6446  180.0  10.344   70.4  0.0325   33.8  0.2854 -119.9
 3.200  0.6456  178.7  10.042   69.3  0.0329   34.0  0.2856 -121.1
 3.300  0.6470  177.5   9.744   68.1  0.0332   34.1  0.2860 -122.2
 3.400  0.6486  176.2   9.450   66.8  0.0336   34.3  0.2864 -123.4
 3.500  0.6505  175.0   9.162   65.4  0.0339   34.4  0.2870 -124.5
 3.600  0.6515  173.9   8.938   64.3  0.0344   34.6  0.2869 -125.4
 3.700  0.6527  172.8   8.717   63.2  0.0348   34.7  0.2868 -126.2
 3.800  0.6541  171.7   8.500   62.0  0.0353   34.9  0.2868 -127.1
 3.900  0.6558  170.7   8.286   60.8  0.0357   35.0  0.2869 -127.9
 4.000  0.6577  169.6   8.077   59.5  0.0362   35.2  0.2870 -128.8
 4.100  0.6591  168.5   7.892   58.4  0.0367   35.2  0.2869 -129.9
 4.200  0.6607  167.5   7.710   57.2  0.0371   35.3  0.2870 -131.1
 4.300  0.6626  166.5   7.531   56.0  0.0376   35.3  0.2871 -132.2
 4.400  0.6646  165.4   7.355   54.7  0.0380   35.4  0.2874 -133.4
 4.500  0.6669  164.4   7.184   53.4  0.0385   35.4  0.2878 -134.5
 4.600  0.6679  163.6   7.025   52.4  0.0390   35.4  0.2879 -135.6
 4.700  0.6690  162.7   6.869   51.3  0.0394   35.5  0.2881 -136.7
 4.800  0.6703  161.9   6.715   50.2  0.0399   35.5  0.2884 -137.8
 4.900  0.6717  161.0   6.563   49.0  0.0403   35.6  0.2889 -138.9
 5.000  0.6733  160.2   6.415   47.8  0.0408   35.6  0.2894 -140.0
 5.100  0.6727  159.3   6.289   46.8  0.0413   35.6  0.2892 -140.9
 5.200  0.6722  158.4   6.165   45.8  0.0418   35.5  0.2891 -141.9
 5.300  0.6719  157.6   6.042   44.7  0.0422   35.5  0.2890 -142.8
 5.400  0.6717  156.7   5.923   43.6  0.0427   35.4  0.2891 -143.8
 5.500  0.6717  155.8   5.805   42.4  0.0432   35.4  0.2892 -144.7
 5.600  0.6717  154.8   5.708   41.4  0.0437   35.3  0.2885 -146.0
 5.700  0.6719  153.8   5.613   40.3  0.0442   35.2  0.2880 -147.2
 5.800  0.6723  152.7   5.521   39.2  0.0447   35.1  0.2876 -148.5
 5.900  0.6729  151.7   5.430   38.0  0.0452   35.0  0.2874 -149.7
 6.000  0.6737  150.7   5.342   36.8  0.0457   34.9  0.2873 -151.0
 6.100  0.6740  149.6   5.250   35.7  0.0462   34.8  0.2868 -152.5
 6.200  0.6746  148.5   5.161   34.5  0.0466   34.7  0.2865 -154.0
 6.300  0.6754  147.3   5.073   33.3  0.0471   34.6  0.2863 -155.5
 6.400  0.6765  146.2   4.988   32.1  0.0475   34.5  0.2864 -157.0
 6.500  0.6779  145.1   4.905   30.8  0.0480   34.4  0.2867 -158.5
 6.600  0.6787  144.1   4.820   29.7  0.0484   34.5  0.2847 -159.8
 6.800  0.6809  142.0   4.656   27.5  0.0493   34.7  0.2813 -162.5
 7.000  0.6840  140.0   4.499   25.1  0.0501   34.9  0.2784 -165.2
 7.200  0.6869  138.3   4.352   23.1  0.0517   35.3  0.2729 -168.2
 7.400  0.6904  136.6   4.210   21.0  0.0532   35.6  0.2682 -171.3
 7.600  0.6967  134.9   4.079   18.8  0.0551   35.5  0.2666 -175.2
 7.800  0.7057  133.3   3.961   16.5  0.0572   34.8  0.2687 -179.7
 8.000  0.7153  131.7   3.849   14.1  0.0594   34.2  0.2725  175.9
 8.200  0.7209  130.1   3.717   11.8  0.0609   32.7  0.2811  170.6
 8.400  0.7270  128.5   3.591    9.3  0.0625   31.3  0.2919  165.6
 8.600  0.7311  127.1   3.466    7.0  0.0637   29.9  0.3031  160.6
 8.800  0.7331  125.8   3.340    4.9  0.0644   28.7  0.3150  155.5
 9.000  0.7354  124.5   3.218    2.6  0.0652   27.4  0.3292  150.8
 9.200  0.7400  123.4   3.110    1.2  0.0658   26.3  0.3460  146.4
 9.400  0.7449  122.3   3.003   -0.4  0.0664   25.3  0.3645  142.5
 9.600  0.7542  121.0   2.906   -2.2  0.0669   24.4  0.3872  139.0
 9.800  0.7683  119.4   2.820   -4.3  0.0674   23.6  0.4137  136.0
10.000  0.7830  117.8   2.738   -6.6  0.0679   22.8  0.4412  133.3
!
!  f       NFmin   Gammaopt  rn/50
! GHz       dB    MAG  ANG    -
 0.450      1.06  0.21 -171   0.08
 2.400      1.10  0.22 -158   0.09
 5.500      1.26  0.25 -159   0.10
10.000      1.79  0.43 -113   0.25
!
! (c) 2016  Infineon Technologies AG, Munich
