! Infineon Technologies  Discrete & RF Semiconductors
! BFP720
! VCE =  1.5 V,  IC =  17 mA
! Common Emitter S-Parameters:                            Aug 2012
# GHz  S  MA  R  50
!  f         S11            S21            S12            S22
! GHz     MAG   ANG      MAG   ANG      MAG   ANG      MAG   ANG
 0.010  0.7520   -0.3  34.276 -179.8  0.0004  -57.1  0.9550    2.4
 0.020  0.7664   -2.1  35.071  178.3  0.0010   95.9  0.9849   -0.5
 0.030  0.7650   -3.1  35.163  177.4  0.0014   94.9  0.9864   -1.2
 0.040  0.7638   -4.2  35.262  176.6  0.0018   94.4  0.9881   -1.9
 0.050  0.7629   -5.3  35.369  175.8  0.0023   94.1  0.9899   -2.5
 0.060  0.7621   -6.4  35.339  175.0  0.0026   91.4  0.9895   -3.2
 0.070  0.7616   -7.5  35.316  174.2  0.0029   89.4  0.9893   -3.9
 0.080  0.7614   -8.5  35.300  173.4  0.0032   87.7  0.9892   -4.5
 0.090  0.7614   -9.6  35.291  172.6  0.0036   86.4  0.9892   -5.2
 0.100  0.7617  -10.7  35.289  171.8  0.0039   85.3  0.9894   -5.9
 0.110  0.7595  -11.8  35.167  171.0  0.0043   84.5  0.9876   -6.5
 0.120  0.7576  -12.8  35.052  170.2  0.0047   83.8  0.9860   -7.1
 0.130  0.7560  -13.9  34.944  169.3  0.0050   83.2  0.9845   -7.7
 0.140  0.7546  -15.0  34.844  168.5  0.0054   82.7  0.9832   -8.3
 0.150  0.7535  -16.1  34.751  167.7  0.0058   82.2  0.9819   -8.9
 0.200  0.7479  -21.0  34.277  163.9  0.0075   79.6  0.9715  -11.9
 0.250  0.7390  -26.0  33.731  160.3  0.0095   77.2  0.9592  -14.8
 0.300  0.7320  -30.6  33.140  157.0  0.0112   75.1  0.9440  -17.5
 0.350  0.7212  -35.4  32.328  153.9  0.0129   73.2  0.9301  -20.2
 0.400  0.7118  -40.0  31.743  150.9  0.0146   70.8  0.9124  -22.9
 0.450  0.7044  -44.1  31.169  148.1  0.0161   68.9  0.8971  -25.3
 0.500  0.6930  -48.9  30.390  145.3  0.0177   66.9  0.8796  -27.7
 0.600  0.6745  -57.3  29.256  140.2  0.0205   63.0  0.8427  -32.4
 0.700  0.6553  -65.8  27.916  135.2  0.0231   59.4  0.8073  -36.9
 0.800  0.6386  -73.9  26.787  130.7  0.0254   56.1  0.7713  -41.0
 0.900  0.6233  -81.6  25.617  126.3  0.0274   53.1  0.7341  -45.0
 1.000  0.6077  -89.3  24.437  122.1  0.0293   50.3  0.6978  -48.8
 1.100  0.5936  -96.5  23.356  118.1  0.0308   47.5  0.6622  -52.3
 1.200  0.5813 -103.2  22.339  114.5  0.0322   45.2  0.6288  -55.5
 1.300  0.5714 -109.8  21.329  110.9  0.0335   43.0  0.5963  -58.6
 1.400  0.5626 -115.8  20.367  107.5  0.0345   41.0  0.5660  -61.5
 1.500  0.5548 -121.6  19.468  104.3  0.0355   39.2  0.5370  -64.2
 1.600  0.5489 -127.0  18.631  101.3  0.0363   37.6  0.5107  -66.7
 1.700  0.5434 -132.1  17.803   98.4  0.0371   36.2  0.4855  -69.2
 1.800  0.5397 -136.6  17.043   95.7  0.0378   34.9  0.4632  -71.4
 1.900  0.5370 -140.8  16.349   93.1  0.0384   33.7  0.4426  -73.6
 2.000  0.5355 -144.8  15.680   90.7  0.0389   32.7  0.4236  -75.7
 2.100  0.5334 -148.4  15.066   88.5  0.0394   31.7  0.4065  -77.5
 2.200  0.5334 -151.9  14.477   86.0  0.0399   30.8  0.3898  -79.5
 2.300  0.5328 -155.0  13.940   84.0  0.0404   30.1  0.3758  -81.2
 2.400  0.5338 -158.1  13.422   81.7  0.0409   29.4  0.3622  -83.2
 2.500  0.5332 -160.9  12.965   79.8  0.0413   28.7  0.3503  -84.8
 2.600  0.5340 -163.7  12.525   77.7  0.0418   28.0  0.3387  -86.6
 2.700  0.5344 -166.4  12.117   75.8  0.0422   27.4  0.3282  -88.3
 2.800  0.5361 -169.1  11.723   73.8  0.0426   26.8  0.3181  -90.1
 2.900  0.5360 -171.6  11.361   72.0  0.0430   26.4  0.3089  -91.7
 3.000  0.5368 -174.1  11.012   70.1  0.0434   26.0  0.3000  -93.4
 3.100  0.5348 -176.8  10.699   68.5  0.0439   25.5  0.2912  -95.0
 3.200  0.5340 -179.6  10.394   66.8  0.0443   25.1  0.2827  -96.8
 3.300  0.5344  177.6  10.099   65.0  0.0447   24.6  0.2744  -98.6
 3.400  0.5362  174.8   9.815   63.1  0.0451   24.2  0.2664 -100.5
 3.500  0.5392  172.0   9.542   61.1  0.0455   23.8  0.2587 -102.5
 3.600  0.5395  169.6   9.293   59.6  0.0460   23.4  0.2507 -104.6
 3.700  0.5408  167.2   9.052   58.0  0.0464   23.0  0.2430 -106.8
 3.800  0.5431  164.8   8.817   56.2  0.0468   22.7  0.2357 -109.1
 3.900  0.5462  162.4   8.591   54.4  0.0472   22.3  0.2288 -111.5
 4.000  0.5504  160.1   8.374   52.5  0.0476   21.9  0.2223 -114.2
 4.100  0.5529  157.9   8.168   51.1  0.0480   21.6  0.2153 -117.0
 4.200  0.5563  155.7   7.967   49.5  0.0484   21.2  0.2088 -120.1
 4.300  0.5604  153.6   7.772   47.9  0.0488   20.8  0.2030 -123.4
 4.400  0.5653  151.5   7.584   46.2  0.0492   20.5  0.1978 -126.8
 4.500  0.5710  149.4   7.403   44.4  0.0496   20.1  0.1935 -130.4
 4.600  0.5747  147.6   7.226   43.0  0.0500   19.8  0.1895 -134.0
 4.700  0.5790  145.8   7.053   41.6  0.0503   19.4  0.1863 -137.8
 4.800  0.5839  144.0   6.886   40.0  0.0507   19.1  0.1839 -141.7
 4.900  0.5893  142.2   6.724   38.4  0.0510   18.7  0.1824 -145.6
 5.000  0.5953  140.5   6.567   36.8  0.0514   18.4  0.1818 -149.6
 5.100  0.5992  139.1   6.421   35.5  0.0517   18.1  0.1821 -152.7
 5.200  0.6034  137.8   6.279   34.2  0.0521   17.9  0.1830 -155.9
 5.300  0.6079  136.4   6.141   32.8  0.0524   17.6  0.1844 -158.9
 5.400  0.6127  135.1   6.006   31.3  0.0528   17.3  0.1863 -161.9
 5.500  0.6179  133.8   5.875   29.8  0.0531   17.1  0.1887 -164.9
 5.600  0.6207  132.8   5.758   28.6  0.0535   16.9  0.1916 -166.7
 5.700  0.6236  131.7   5.643   27.3  0.0538   16.7  0.1946 -168.4
 5.800  0.6268  130.7   5.532   26.0  0.0542   16.5  0.1977 -170.0
 5.900  0.6302  129.7   5.423   24.7  0.0545   16.3  0.2010 -171.6
 6.000  0.6337  128.7   5.317   23.2  0.0549   16.1  0.2045 -173.2
 6.100  0.6341  127.7   5.221   22.0  0.0554   16.0  0.2057 -174.9
 6.200  0.6346  126.8   5.127   20.8  0.0559   15.9  0.2070 -176.6
 6.300  0.6353  125.8   5.035   19.5  0.0563   15.8  0.2085 -178.2
 6.400  0.6361  124.9   4.945   18.2  0.0568   15.7  0.2102 -179.9
 6.500  0.6371  123.9   4.859   16.9  0.0573   15.6  0.2121  178.5
 6.600  0.6358  123.0   4.781   15.7  0.0580   15.4  0.2114  177.6
 6.700  0.6347  122.1   4.704   14.5  0.0587   15.3  0.2108  176.7
 6.800  0.6337  121.1   4.630   13.3  0.0594   15.2  0.2102  175.7
 6.900  0.6329  120.2   4.559   12.0  0.0601   15.0  0.2097  174.8
 7.000  0.6323  119.2   4.489   10.7  0.0608   14.9  0.2092  173.9
 7.100  0.6323  118.1   4.429    9.5  0.0617   14.5  0.2083  172.5
 7.200  0.6325  117.0   4.370    8.2  0.0626   14.1  0.2074  171.2
 7.300  0.6330  115.8   4.314    6.9  0.0635   13.7  0.2067  169.8
 7.400  0.6337  114.7   4.260    5.5  0.0644   13.3  0.2060  168.4
 7.500  0.6346  113.6   4.208    4.2  0.0654   13.0  0.2055  167.1
 7.600  0.6370  112.1   4.151    2.7  0.0662   12.3  0.2056  164.6
 7.700  0.6398  110.7   4.097    1.3  0.0670   11.6  0.2061  162.1
 7.800  0.6431  109.2   4.046   -0.2  0.0678   10.9  0.2069  159.7
 7.900  0.6467  107.8   3.997   -1.7  0.0686   10.2  0.2081  157.2
 8.000  0.6507  106.4   3.951   -3.3  0.0695    9.6  0.2097  154.8
 8.500  0.6767   98.2   3.642  -11.0  0.0723    6.0  0.2300  138.9
 9.000  0.7102   90.7   3.334  -18.2  0.0749    2.8  0.2749  125.4
 9.500  0.7522   84.6   3.041  -25.0  0.0768   -1.0  0.3349  115.6
10.000  0.7910   79.3   2.749  -31.4  0.0771   -4.5  0.3983  107.9
10.500  0.8108   75.5   2.477  -36.1  0.0776   -6.4  0.4495  102.5
11.000  0.8227   74.3   2.313  -39.5  0.0799   -8.2  0.4873   99.7
11.500  0.8518   73.9   2.210  -44.6  0.0829  -11.1  0.5279   98.5
12.000  0.8770   72.4   2.075  -51.0  0.0837  -14.9  0.5671   96.6
!
!  f       NFmin   Gammaopt  rn/50
! GHz       dB    MAG  ANG    -
 0.450      0.67  0.19    1   0.39
 1.800      0.74  0.20   11   0.14
 2.400      0.79  0.19   17   0.43
 5.500      1.01  0.11  -46   0.18
10.000      1.18  0.45  -73   0.29
!
! (c) 2012  Infineon Technologies AG, Munich
