! Infineon Technologies  Discrete & RF Semiconductors
! BFP720
! VCE =  1.5 V,  IC =  1.5 mA
! Common Emitter S-Parameters:                            Aug 2012
# GHz  S  MA  R  50
!  f         S11            S21            S12            S22
! GHz     MAG   ANG      MAG   ANG      MAG   ANG      MAG   ANG
 0.010  0.9788    0.2   5.156 -179.7  0.0006  -55.3  0.9951    0.2
 0.020  0.9823   -0.5   4.976  179.2  0.0007  101.6  0.9996   -0.4
 0.030  0.9818   -0.8   4.992  179.0  0.0012   93.9  0.9993   -0.6
 0.040  0.9813   -1.1   5.008  178.7  0.0018   90.7  0.9990   -0.9
 0.050  0.9808   -1.3   5.024  178.5  0.0023   89.0  0.9988   -1.1
 0.060  0.9811   -1.6   5.022  178.3  0.0027   88.1  0.9988   -1.3
 0.070  0.9814   -1.8   5.019  178.1  0.0031   87.4  0.9988   -1.5
 0.080  0.9818   -2.1   5.017  177.9  0.0035   86.9  0.9988   -1.7
 0.090  0.9822   -2.4   5.015  177.8  0.0039   86.5  0.9988   -1.9
 0.100  0.9826   -2.6   5.013  177.6  0.0043   86.2  0.9989   -2.1
 0.110  0.9824   -2.9   5.018  177.3  0.0048   86.6  0.9989   -2.3
 0.120  0.9823   -3.1   5.024  177.1  0.0052   86.9  0.9989   -2.5
 0.130  0.9822   -3.4   5.029  176.9  0.0056   87.2  0.9989   -2.8
 0.140  0.9821   -3.6   5.035  176.6  0.0061   87.4  0.9989   -3.0
 0.150  0.9820   -3.9   5.041  176.4  0.0065   87.6  0.9990   -3.2
 0.200  0.9808   -5.2   5.028  175.3  0.0086   86.7  0.9983   -4.2
 0.250  0.9799   -6.5   5.047  174.1  0.0108   85.4  0.9980   -5.2
 0.300  0.9788   -7.8   5.036  172.9  0.0130   84.4  0.9970   -6.3
 0.350  0.9776   -9.2   5.048  171.8  0.0151   83.5  0.9964   -7.4
 0.400  0.9771  -10.5   5.073  170.7  0.0173   82.5  0.9950   -8.5
 0.450  0.9757  -11.8   5.043  169.4  0.0195   81.4  0.9947   -9.6
 0.500  0.9741  -13.2   5.073  168.3  0.0217   80.6  0.9935  -10.6
 0.600  0.9719  -15.9   5.080  165.9  0.0260   78.6  0.9900  -12.8
 0.700  0.9687  -18.6   5.087  163.7  0.0304   76.5  0.9877  -15.1
 0.800  0.9647  -21.5   5.127  161.4  0.0349   74.6  0.9854  -17.3
 0.900  0.9612  -24.3   5.141  159.0  0.0392   72.4  0.9808  -19.5
 1.000  0.9569  -27.2   5.154  156.5  0.0436   70.2  0.9760  -21.8
 1.100  0.9515  -30.1   5.159  154.0  0.0480   68.0  0.9712  -24.1
 1.200  0.9466  -33.0   5.168  151.4  0.0522   65.8  0.9656  -26.3
 1.300  0.9411  -36.0   5.170  148.9  0.0566   63.5  0.9593  -28.7
 1.400  0.9346  -39.0   5.152  146.4  0.0608   61.4  0.9515  -30.9
 1.500  0.9286  -42.0   5.153  143.9  0.0648   59.1  0.9433  -33.2
 1.600  0.9215  -45.1   5.183  141.1  0.0688   56.8  0.9357  -35.4
 1.700  0.9124  -48.1   5.168  138.4  0.0728   54.4  0.9268  -37.8
 1.800  0.9058  -51.1   5.144  135.8  0.0766   52.1  0.9183  -40.1
 1.900  0.8980  -54.0   5.112  133.2  0.0802   49.9  0.9097  -42.3
 2.000  0.8909  -56.9   5.076  130.6  0.0837   47.6  0.9004  -44.5
 2.100  0.8822  -59.7   5.036  128.1  0.0870   45.2  0.8903  -46.7
 2.200  0.8756  -62.6   5.005  125.5  0.0904   43.1  0.8815  -48.9
 2.300  0.8675  -65.3   4.956  123.1  0.0934   40.8  0.8723  -51.0
 2.400  0.8615  -68.1   4.917  120.6  0.0965   38.7  0.8645  -53.2
 2.500  0.8534  -70.8   4.873  118.2  0.0993   36.6  0.8543  -55.2
 2.600  0.8473  -73.5   4.838  115.8  0.1021   34.5  0.8453  -57.3
 2.700  0.8396  -76.2   4.792  113.5  0.1046   32.4  0.8352  -59.5
 2.800  0.8339  -79.0   4.754  111.1  0.1073   30.4  0.8263  -61.6
 2.900  0.8256  -81.7   4.709  108.9  0.1096   28.3  0.8171  -63.7
 3.000  0.8191  -84.4   4.673  106.5  0.1120   26.4  0.8090  -65.8
 3.100  0.8070  -87.2   4.626  104.3  0.1137   24.2  0.7963  -67.8
 3.200  0.7968  -90.0   4.588  101.9  0.1155   22.2  0.7847  -70.0
 3.300  0.7887  -92.9   4.557   99.6  0.1175   20.1  0.7742  -72.2
 3.400  0.7826  -95.9   4.533   97.2  0.1197   18.2  0.7649  -74.4
 3.500  0.7787  -98.9   4.518   94.8  0.1219   16.3  0.7569  -76.7
 3.600  0.7658 -102.0   4.468   92.5  0.1231   14.2  0.7431  -78.9
 3.700  0.7551 -105.1   4.424   90.2  0.1244   12.2  0.7305  -81.2
 3.800  0.7467 -108.3   4.389   87.9  0.1258   10.3  0.7190  -83.6
 3.900  0.7406 -111.5   4.360   85.5  0.1274    8.3  0.7089  -86.1
 4.000  0.7370 -114.8   4.340   83.1  0.1292    6.5  0.7000  -88.6
 4.100  0.7238 -118.2   4.284   80.8  0.1297    4.5  0.6845  -91.0
 4.200  0.7132 -121.6   4.236   78.5  0.1304    2.5  0.6702  -93.5
 4.300  0.7052 -125.2   4.195   76.1  0.1312    0.5  0.6573  -96.1
 4.400  0.7000 -128.8   4.161   73.7  0.1322   -1.4  0.6458  -98.9
 4.500  0.6976 -132.5   4.134   71.2  0.1333   -3.3  0.6358 -101.7
 4.600  0.6857 -135.8   4.070   68.9  0.1329   -5.3  0.6210 -104.2
 4.700  0.6763 -139.3   4.012   66.6  0.1327   -7.2  0.6074 -106.9
 4.800  0.6695 -142.9   3.962   64.1  0.1327   -9.2  0.5952 -109.7
 4.900  0.6653 -146.5   3.918   61.7  0.1328  -11.1  0.5845 -112.6
 5.000  0.6638 -150.2   3.882   59.1  0.1330  -13.1  0.5753 -115.5
 5.100  0.6568 -152.9   3.809   57.1  0.1320  -14.8  0.5652 -117.8
 5.200  0.6513 -155.6   3.741   54.9  0.1311  -16.6  0.5561 -120.1
 5.300  0.6474 -158.4   3.678   52.7  0.1303  -18.4  0.5479 -122.5
 5.400  0.6449 -161.2   3.621   50.4  0.1297  -20.2  0.5407 -125.0
 5.500  0.6440 -164.0   3.570   48.1  0.1292  -22.1  0.5345 -127.5
 5.600  0.6421 -165.9   3.504   46.2  0.1277  -23.6  0.5294 -129.2
 5.700  0.6409 -167.8   3.442   44.3  0.1263  -25.1  0.5249 -130.9
 5.800  0.6405 -169.7   3.383   42.3  0.1249  -26.7  0.5208 -132.7
 5.900  0.6407 -171.6   3.329   40.2  0.1237  -28.3  0.5173 -134.5
 6.000  0.6417 -173.5   3.279   38.1  0.1226  -30.0  0.5143 -136.3
 6.100  0.6374 -175.9   3.222   36.4  0.1208  -31.2  0.5111 -137.4
 6.200  0.6341 -178.2   3.169   34.6  0.1191  -32.5  0.5081 -138.5
 6.300  0.6320  179.4   3.118   32.8  0.1175  -33.7  0.5054 -139.7
 6.400  0.6309  177.0   3.071   30.9  0.1159  -35.1  0.5028 -140.8
 6.500  0.6310  174.6   3.027   28.9  0.1144  -36.5  0.5004 -141.9
 6.600  0.6278  173.0   2.978   27.4  0.1127  -37.4  0.4960 -142.6
 6.700  0.6252  171.3   2.932   25.8  0.1111  -38.4  0.4916 -143.3
 6.800  0.6231  169.6   2.888   24.1  0.1095  -39.4  0.4873 -144.0
 6.900  0.6216  168.0   2.846   22.4  0.1080  -40.4  0.4831 -144.7
 7.000  0.6205  166.3   2.807   20.6  0.1064  -41.5  0.4790 -145.4
 7.100  0.6183  164.5   2.771   19.1  0.1053  -42.3  0.4739 -146.3
 7.200  0.6167  162.8   2.738   17.5  0.1041  -43.2  0.4690 -147.2
 7.300  0.6156  161.0   2.707   15.9  0.1029  -44.1  0.4642 -148.1
 7.400  0.6151  159.2   2.677   14.3  0.1018  -45.0  0.4596 -149.1
 7.500  0.6153  157.5   2.650   12.6  0.1007  -45.9  0.4550 -150.0
 7.600  0.6133  155.2   2.623   10.9  0.0996  -46.9  0.4495 -151.8
 7.700  0.6124  153.0   2.597    9.1  0.0984  -47.9  0.4444 -153.6
 7.800  0.6123  150.8   2.575    7.3  0.0973  -48.9  0.4397 -155.5
 7.900  0.6132  148.5   2.554    5.5  0.0963  -50.0  0.4356 -157.4
 8.000  0.6150  146.3   2.537    3.6  0.0953  -51.1  0.4319 -159.4
 8.500  0.6210  133.6   2.383   -6.4  0.0868  -56.6  0.4262  173.5
 9.000  0.6394  121.4   2.199  -16.1  0.0772  -59.9  0.4317  158.8
 9.500  0.6752  111.0   2.008  -25.4  0.0691  -61.6  0.4622  145.1
10.000  0.7132  102.2   1.804  -34.3  0.0616  -62.4  0.5076  133.4
10.500  0.7384   96.2   1.591  -41.2  0.0548  -60.5  0.5524  124.6
11.000  0.7600   93.3   1.441  -45.9  0.0510  -56.6  0.5923  118.9
11.500  0.7988   91.8   1.349  -51.6  0.0495  -53.2  0.6382  114.9
12.000  0.8328   89.3   1.255  -58.8  0.0484  -51.2  0.6816  110.8
!
!  f       NFmin   Gammaopt  rn/50
! GHz       dB    MAG  ANG    -
 0.450      0.43  0.72    5   0.33
 1.800      0.58  0.67   30   0.28
 2.400      0.68  0.58   79   0.20
 5.500      0.99  0.47   92   0.09
10.000      1.51  0.50 -113   0.24
!
! (c) 2012  Infineon Technologies AG, Munich
