! Infineon Technologies  Discrete & RF Semiconductors
! BFP740ESD
! VCE =  2.5 V,  IC =  10 mA
! Common Emitter S-Parameters:                            Jan 2016
# GHz  S  MA  R  50
!  f         S11            S21            S12            S22
! GHz     MAG   ANG      MAG   ANG      MAG   ANG      MAG   ANG
 0.010  0.9010   -1.0  28.251  179.7  0.0004   85.6  0.9837    1.7
 0.015  0.8965   -1.4  28.032  179.1  0.0007   88.2  0.9892    0.3
 0.020  0.8921   -1.9  27.816  178.4  0.0010   89.3  0.9952   -1.1
 0.025  0.8919   -2.3  27.807  178.0  0.0012   88.9  0.9953   -1.4
 0.030  0.8917   -2.8  27.800  177.6  0.0015   88.6  0.9954   -1.7
 0.035  0.8916   -3.2  27.793  177.2  0.0017   88.4  0.9955   -2.0
 0.040  0.8916   -3.6  27.789  176.8  0.0019   88.2  0.9956   -2.3
 0.045  0.8916   -4.1  27.785  176.4  0.0022   88.1  0.9958   -2.6
 0.050  0.8916   -4.5  27.783  176.0  0.0024   88.0  0.9960   -2.9
 0.055  0.8912   -5.0  27.780  175.6  0.0026   87.5  0.9956   -3.2
 0.060  0.8908   -5.4  27.778  175.3  0.0029   87.1  0.9952   -3.5
 0.065  0.8905   -5.9  27.777  174.9  0.0031   86.7  0.9948   -3.8
 0.070  0.8902   -6.4  27.777  174.6  0.0034   86.4  0.9945   -4.1
 0.075  0.8901   -6.8  27.779  174.2  0.0036   86.1  0.9941   -4.4
 0.080  0.8899   -7.3  27.781  173.9  0.0039   85.9  0.9939   -4.8
 0.085  0.8899   -7.8  27.784  173.5  0.0041   85.7  0.9936   -5.1
 0.090  0.8898   -8.3  27.788  173.2  0.0044   85.5  0.9934   -5.4
 0.095  0.8899   -8.7  27.794  172.8  0.0046   85.3  0.9932   -5.7
 0.100  0.8900   -9.2  27.800  172.5  0.0049   85.2  0.9930   -6.0
 0.105  0.8890   -9.6  27.766  172.1  0.0051   84.8  0.9922   -6.3
 0.110  0.8880  -10.1  27.734  171.7  0.0054   84.4  0.9915   -6.6
 0.115  0.8871  -10.5  27.703  171.4  0.0056   84.0  0.9908   -6.9
 0.120  0.8862  -11.0  27.673  171.0  0.0059   83.7  0.9901   -7.2
 0.125  0.8853  -11.4  27.644  170.6  0.0061   83.4  0.9894   -7.5
 0.130  0.8846  -11.8  27.616  170.2  0.0063   83.1  0.9888   -7.8
 0.135  0.8839  -12.3  27.590  169.8  0.0066   82.9  0.9882   -8.1
 0.140  0.8832  -12.7  27.565  169.5  0.0068   82.6  0.9876   -8.4
 0.145  0.8826  -13.2  27.541  169.1  0.0071   82.4  0.9870   -8.7
 0.150  0.8820  -13.6  27.518  168.7  0.0073   82.2  0.9865   -9.0
 0.155  0.8811  -14.0  27.480  168.4  0.0075   81.9  0.9855   -9.3
 0.160  0.8803  -14.5  27.444  168.0  0.0078   81.6  0.9845   -9.6
 0.165  0.8796  -14.9  27.408  167.7  0.0080   81.3  0.9836   -9.9
 0.170  0.8789  -15.4  27.373  167.4  0.0083   81.0  0.9827  -10.2
 0.175  0.8783  -15.8  27.339  167.0  0.0085   80.8  0.9818  -10.5
 0.180  0.8777  -16.2  27.307  166.7  0.0087   80.5  0.9810  -10.8
 0.185  0.8771  -16.7  27.275  166.3  0.0090   80.3  0.9801  -11.1
 0.190  0.8766  -17.1  27.244  166.0  0.0092   80.1  0.9793  -11.4
 0.195  0.8762  -17.6  27.214  165.6  0.0095   79.9  0.9785  -11.7
 0.200  0.8758  -18.0  27.185  165.3  0.0097   79.7  0.9778  -12.0
 0.220  0.8707  -19.7  26.968  163.9  0.0106   78.6  0.9732  -13.1
 0.240  0.8664  -21.4  26.768  162.4  0.0115   77.7  0.9689  -14.2
 0.260  0.8625  -23.0  26.592  161.1  0.0124   76.7  0.9644  -15.4
 0.280  0.8590  -24.7  26.438  159.9  0.0133   75.7  0.9597  -16.5
 0.300  0.8563  -26.4  26.296  158.6  0.0142   74.8  0.9553  -17.6
 0.320  0.8518  -28.1  26.091  157.4  0.0151   73.8  0.9498  -18.7
 0.340  0.8480  -29.8  25.897  156.2  0.0160   72.8  0.9447  -19.8
 0.360  0.8440  -31.4  25.698  155.0  0.0168   71.9  0.9393  -20.8
 0.380  0.8397  -32.9  25.494  153.8  0.0177   71.0  0.9336  -21.9
 0.400  0.8360  -34.5  25.302  152.6  0.0185   70.1  0.9282  -22.9
 0.420  0.8310  -36.1  25.094  151.5  0.0193   69.2  0.9224  -23.9
 0.440  0.8267  -37.8  24.896  150.3  0.0202   68.3  0.9169  -24.9
 0.450  0.8248  -38.6  24.801  149.7  0.0206   67.9  0.9142  -25.4
 0.460  0.8223  -39.4  24.695  149.1  0.0210   67.4  0.9110  -25.9
 0.480  0.8178  -40.9  24.491  148.0  0.0217   66.6  0.9048  -26.9
 0.500  0.8139  -42.5  24.296  146.9  0.0225   65.8  0.8988  -27.9
 0.520  0.8083  -44.0  24.083  145.9  0.0232   64.9  0.8920  -28.8
 0.540  0.8033  -45.5  23.878  144.8  0.0239   64.0  0.8855  -29.7
 0.560  0.7989  -47.0  23.681  143.7  0.0246   63.2  0.8792  -30.7
 0.580  0.7950  -48.5  23.493  142.6  0.0254   62.4  0.8732  -31.6
 0.600  0.7917  -50.1  23.314  141.5  0.0261   61.7  0.8674  -32.6
 0.620  0.7863  -51.5  23.112  140.6  0.0267   60.9  0.8607  -33.5
 0.640  0.7814  -53.0  22.916  139.6  0.0274   60.1  0.8543  -34.4
 0.660  0.7770  -54.4  22.727  138.7  0.0281   59.3  0.8480  -35.3
 0.680  0.7732  -55.9  22.544  137.7  0.0287   58.6  0.8420  -36.2
 0.700  0.7698  -57.4  22.368  136.7  0.0294   57.9  0.8362  -37.1
 0.720  0.7649  -58.7  22.159  135.8  0.0300   57.1  0.8295  -37.9
 0.740  0.7604  -60.1  21.955  134.9  0.0305   56.4  0.8229  -38.8
 0.760  0.7564  -61.5  21.757  134.0  0.0311   55.7  0.8166  -39.6
 0.780  0.7528  -62.9  21.565  133.1  0.0317   55.0  0.8104  -40.5
 0.800  0.7497  -64.3  21.378  132.1  0.0323   54.3  0.8044  -41.4
 0.820  0.7448  -65.7  21.195  131.2  0.0328   53.6  0.7979  -42.2
 0.840  0.7403  -67.1  21.017  130.3  0.0334   52.9  0.7915  -43.0
 0.860  0.7363  -68.5  20.845  129.4  0.0339   52.3  0.7853  -43.8
 0.880  0.7327  -69.9  20.677  128.5  0.0345   51.6  0.7792  -44.7
 0.900  0.7296  -71.3  20.515  127.6  0.0350   51.0  0.7733  -45.5
 0.920  0.7249  -72.6  20.331  126.8  0.0355   50.3  0.7667  -46.3
 0.940  0.7207  -73.9  20.152  126.0  0.0359   49.7  0.7603  -47.1
 0.960  0.7167  -75.2  19.976  125.1  0.0364   49.1  0.7540  -47.9
 0.980  0.7132  -76.5  19.805  124.3  0.0368   48.5  0.7478  -48.7
 1.000  0.7100  -77.8  19.639  123.4  0.0373   47.9  0.7418  -49.5
 1.020  0.7058  -79.0  19.463  122.6  0.0377   47.3  0.7357  -50.2
 1.040  0.7020  -80.3  19.291  121.9  0.0381   46.7  0.7297  -50.9
 1.060  0.6985  -81.5  19.122  121.1  0.0385   46.1  0.7238  -51.6
 1.080  0.6954  -82.8  18.957  120.3  0.0390   45.6  0.7180  -52.4
 1.100  0.6926  -84.1  18.796  119.5  0.0394   45.0  0.7124  -53.1
 1.120  0.6886  -85.3  18.631  118.7  0.0398   44.4  0.7063  -53.8
 1.140  0.6850  -86.5  18.470  118.0  0.0401   43.9  0.7004  -54.5
 1.160  0.6816  -87.7  18.312  117.2  0.0405   43.3  0.6945  -55.3
 1.180  0.6785  -89.0  18.158  116.4  0.0409   42.8  0.6888  -56.0
 1.200  0.6758  -90.2  18.007  115.6  0.0413   42.3  0.6832  -56.8
 1.220  0.6722  -91.3  17.850  114.9  0.0416   41.8  0.6775  -57.4
 1.240  0.6689  -92.5  17.695  114.2  0.0419   41.2  0.6720  -58.1
 1.260  0.6659  -93.6  17.543  113.4  0.0422   40.7  0.6665  -58.7
 1.280  0.6631  -94.8  17.395  112.7  0.0426   40.2  0.6611  -59.4
 1.300  0.6606  -96.0  17.249  111.9  0.0429   39.7  0.6558  -60.1
 1.320  0.6572  -97.1  17.095  111.2  0.0432   39.2  0.6503  -60.7
 1.340  0.6540  -98.2  16.943  110.5  0.0434   38.8  0.6449  -61.4
 1.360  0.6511  -99.4  16.794  109.8  0.0437   38.3  0.6396  -62.0
 1.380  0.6484 -100.5  16.648  109.1  0.0439   37.8  0.6344  -62.7
 1.400  0.6460 -101.7  16.504  108.4  0.0442   37.4  0.6293  -63.4
 1.420  0.6432 -102.7  16.369  107.8  0.0445   37.0  0.6243  -64.0
 1.440  0.6406 -103.7  16.236  107.2  0.0447   36.5  0.6195  -64.6
 1.460  0.6382 -104.7  16.104  106.6  0.0450   36.1  0.6146  -65.2
 1.480  0.6360 -105.7  15.975  105.9  0.0452   35.7  0.6099  -65.8
 1.500  0.6340 -106.7  15.847  105.3  0.0455   35.3  0.6052  -66.4
 1.520  0.6315 -107.7  15.715  104.7  0.0457   34.9  0.6005  -67.0
 1.540  0.6292 -108.8  15.585  104.0  0.0459   34.5  0.5959  -67.5
 1.560  0.6272 -109.9  15.457  103.4  0.0462   34.1  0.5913  -68.1
 1.580  0.6253 -110.9  15.332  102.7  0.0464   33.7  0.5868  -68.7
 1.600  0.6237 -112.0  15.208  102.0  0.0466   33.3  0.5824  -69.3
 1.620  0.6211 -113.0  15.088  101.4  0.0468   32.9  0.5780  -69.8
 1.640  0.6186 -113.9  14.970  100.8  0.0470   32.5  0.5737  -70.4
 1.660  0.6164 -114.9  14.853  100.2  0.0472   32.2  0.5694  -71.0
 1.680  0.6143 -115.9  14.738   99.6  0.0474   31.8  0.5652  -71.5
 1.700  0.6124 -116.9  14.625   99.0  0.0476   31.4  0.5610  -72.1
 1.720  0.6105 -117.8  14.502   98.4  0.0478   31.1  0.5570  -72.6
 1.740  0.6088 -118.7  14.380   97.9  0.0479   30.7  0.5531  -73.2
 1.760  0.6072 -119.6  14.260   97.3  0.0481   30.4  0.5492  -73.7
 1.780  0.6058 -120.6  14.141   96.7  0.0482   30.0  0.5453  -74.2
 1.800  0.6046 -121.5  14.024   96.1  0.0484   29.7  0.5415  -74.8
 1.820  0.6026 -122.4  13.920   95.5  0.0486   29.4  0.5375  -75.4
 1.840  0.6008 -123.4  13.817   95.0  0.0487   29.1  0.5335  -75.9
 1.860  0.5992 -124.4  13.716   94.4  0.0489   28.7  0.5295  -76.5
 1.880  0.5977 -125.3  13.616   93.8  0.0490   28.4  0.5256  -77.1
 1.900  0.5964 -126.3  13.517   93.2  0.0492   28.1  0.5218  -77.7
 1.920  0.5946 -127.1  13.415   92.7  0.0493   27.8  0.5182  -78.1
 1.940  0.5930 -127.9  13.314   92.2  0.0495   27.5  0.5145  -78.6
 1.960  0.5914 -128.7  13.214   91.7  0.0496   27.2  0.5110  -79.1
 1.980  0.5900 -129.6  13.115   91.1  0.0498   26.9  0.5074  -79.5
 2.000  0.5887 -130.4  13.017   90.6  0.0499   26.6  0.5039  -80.0
 2.020  0.5869 -131.3  12.922   90.1  0.0500   26.3  0.5002  -80.5
 2.040  0.5852 -132.1  12.828   89.6  0.0501   26.0  0.4966  -81.0
 2.060  0.5836 -133.0  12.736   89.1  0.0502   25.7  0.4930  -81.5
 2.080  0.5822 -133.9  12.644   88.5  0.0503   25.5  0.4894  -82.1
 2.100  0.5809 -134.8  12.554   88.0  0.0504   25.2  0.4859  -82.6
 2.120  0.5798 -135.6  12.464   87.5  0.0505   24.9  0.4824  -83.1
 2.140  0.5788 -136.5  12.376   86.9  0.0507   24.6  0.4790  -83.7
 2.160  0.5779 -137.4  12.289   86.3  0.0508   24.4  0.4756  -84.3
 2.180  0.5772 -138.3  12.203   85.8  0.0509   24.1  0.4723  -84.8
 2.200  0.5766 -139.2  12.118   85.2  0.0510   23.8  0.4690  -85.4
 2.220  0.5752 -140.0  12.033   84.7  0.0511   23.5  0.4657  -85.9
 2.240  0.5739 -140.8  11.950   84.3  0.0512   23.3  0.4624  -86.4
 2.260  0.5727 -141.6  11.867   83.8  0.0513   23.0  0.4591  -86.9
 2.280  0.5717 -142.4  11.785   83.3  0.0513   22.8  0.4559  -87.4
 2.300  0.5707 -143.2  11.703   82.8  0.0514   22.5  0.4528  -88.0
 2.320  0.5699 -144.0  11.623   82.3  0.0515   22.3  0.4496  -88.5
 2.340  0.5691 -144.8  11.544   81.8  0.0516   22.0  0.4465  -89.0
 2.360  0.5685 -145.6  11.465   81.3  0.0517   21.8  0.4435  -89.6
 2.380  0.5680 -146.4  11.388   80.7  0.0518   21.5  0.4405  -90.1
 2.400  0.5676 -147.2  11.311   80.2  0.0519   21.3  0.4375  -90.7
 2.420  0.5667 -148.0  11.234   79.7  0.0519   21.1  0.4345  -91.2
 2.440  0.5660 -148.8  11.159   79.3  0.0520   20.8  0.4315  -91.7
 2.460  0.5654 -149.6  11.083   78.8  0.0520   20.6  0.4286  -92.2
 2.480  0.5648 -150.4  11.009   78.3  0.0521   20.4  0.4257  -92.8
 2.500  0.5644 -151.2  10.936   77.8  0.0521   20.1  0.4228  -93.3
 2.520  0.5641 -152.0  10.863   77.3  0.0522   19.9  0.4199  -93.9
 2.540  0.5639 -152.8  10.791   76.8  0.0522   19.7  0.4172  -94.4
 2.560  0.5638 -153.6  10.720   76.3  0.0523   19.5  0.4144  -95.0
 2.580  0.5639 -154.4  10.649   75.8  0.0523   19.2  0.4117  -95.5
 2.600  0.5640 -155.2  10.580   75.3  0.0524   19.0  0.4090  -96.1
 2.620  0.5632 -155.9  10.511   74.9  0.0524   18.8  0.4064  -96.6
 2.640  0.5624 -156.6  10.442   74.4  0.0525   18.7  0.4039  -97.1
 2.660  0.5618 -157.3  10.374   74.0  0.0525   18.5  0.4014  -97.6
 2.680  0.5612 -158.0  10.307   73.6  0.0526   18.3  0.3990  -98.1
 2.700  0.5607 -158.7  10.240   73.1  0.0526   18.1  0.3965  -98.6
 2.720  0.5603 -159.4  10.174   72.7  0.0527   18.0  0.3941  -99.1
 2.740  0.5600 -160.1  10.108   72.2  0.0527   17.8  0.3918  -99.7
 2.760  0.5597 -160.8  10.044   71.7  0.0528   17.6  0.3895 -100.2
 2.780  0.5596 -161.5   9.979   71.3  0.0528   17.5  0.3872 -100.8
 2.800  0.5595 -162.2   9.916   70.8  0.0529   17.3  0.3849 -101.3
 2.820  0.5592 -162.8   9.855   70.4  0.0529   17.1  0.3828 -101.8
 2.840  0.5590 -163.5   9.795   70.0  0.0530   17.0  0.3807 -102.3
 2.860  0.5588 -164.1   9.735   69.6  0.0530   16.8  0.3787 -102.8
 2.880  0.5587 -164.8   9.676   69.1  0.0531   16.6  0.3767 -103.3
 2.900  0.5587 -165.5   9.617   68.7  0.0531   16.4  0.3747 -103.8
 2.920  0.5588 -166.1   9.559   68.3  0.0531   16.3  0.3727 -104.4
 2.940  0.5589 -166.8   9.501   67.8  0.0532   16.1  0.3708 -104.9
 2.960  0.5591 -167.4   9.444   67.4  0.0532   15.9  0.3689 -105.4
 2.980  0.5594 -168.1   9.388   67.0  0.0533   15.8  0.3670 -106.0
 3.000  0.5597 -168.7   9.332   66.5  0.0533   15.6  0.3652 -106.5
 3.100  0.5577 -171.8   9.064   64.6  0.0534   14.9  0.3565 -108.9
 3.200  0.5572 -174.8   8.806   62.6  0.0536   14.3  0.3485 -111.5
 3.300  0.5584 -177.9   8.560   60.5  0.0537   13.6  0.3413 -114.1
 3.400  0.5612  179.0   8.326   58.3  0.0538   13.0  0.3348 -116.9
 3.500  0.5655  176.0   8.106   55.9  0.0540   12.3  0.3291 -119.8
 3.600  0.5656  173.3   7.891   54.1  0.0541   11.8  0.3232 -122.5
 3.700  0.5669  170.5   7.684   52.2  0.0543   11.3  0.3179 -125.2
 3.800  0.5696  167.8   7.486   50.2  0.0544   10.8  0.3135 -128.1
 3.900  0.5735  165.1   7.298   48.1  0.0546   10.3  0.3098 -131.0
 4.000  0.5786  162.5   7.120   45.9  0.0547    9.8  0.3070 -134.0
 4.100  0.5803  160.2   6.930   44.2  0.0548    9.4  0.3044 -136.9
 4.200  0.5830  157.9   6.747   42.4  0.0548    9.0  0.3025 -139.8
 4.300  0.5866  155.6   6.572   40.4  0.0549    8.5  0.3014 -142.7
 4.400  0.5912  153.3   6.404   38.4  0.0549    8.1  0.3011 -145.7
 4.500  0.5966  151.1   6.244   36.3  0.0550    7.7  0.3016 -148.6
 4.600  0.5983  149.4   6.086   34.8  0.0550    7.5  0.3012 -150.8
 4.700  0.6006  147.7   5.932   33.2  0.0551    7.3  0.3013 -153.1
 4.800  0.6033  146.1   5.782   31.5  0.0551    7.2  0.3018 -155.3
 4.900  0.6066  144.4   5.638   29.8  0.0552    7.0  0.3028 -157.6
 5.000  0.6103  142.8   5.500   27.9  0.0552    6.8  0.3042 -159.8
 5.100  0.6121  141.4   5.377   26.5  0.0553    6.7  0.3043 -161.9
 5.200  0.6143  140.0   5.258   24.9  0.0555    6.7  0.3047 -163.9
 5.300  0.6168  138.6   5.142   23.4  0.0556    6.6  0.3056 -166.0
 5.400  0.6197  137.3   5.031   21.7  0.0558    6.6  0.3068 -168.0
 5.500  0.6230  135.9   4.924   20.0  0.0559    6.5  0.3084 -170.0
 5.600  0.6256  134.6   4.828   18.6  0.0563    6.5  0.3098 -172.2
 5.700  0.6285  133.3   4.735   17.1  0.0566    6.5  0.3117 -174.5
 5.800  0.6317  132.1   4.645   15.6  0.0570    6.6  0.3140 -176.6
 5.900  0.6352  130.8   4.559   14.0  0.0573    6.6  0.3168 -178.8
 6.000  0.6390  129.6   4.476   12.3  0.0577    6.6  0.3200  179.1
 6.100  0.6422  128.3   4.396   10.8  0.0583    6.5  0.3234  177.2
 6.200  0.6458  127.0   4.319    9.3  0.0589    6.3  0.3272  175.3
 6.300  0.6497  125.8   4.246    7.7  0.0596    6.2  0.3314  173.5
 6.400  0.6539  124.5   4.176    6.0  0.0602    6.0  0.3358  171.7
 6.500  0.6584  123.3   4.109    4.3  0.0608    5.9  0.3406  170.0
 6.600  0.6609  121.9   4.039    2.8  0.0615    5.6  0.3431  168.3
 6.800  0.6671  119.2   3.908   -0.5  0.0630    5.1  0.3491  164.9
 7.000  0.6747  116.5   3.790   -3.9  0.0644    4.6  0.3563  161.6
 7.200  0.6804  113.5   3.665   -7.1  0.0660    3.6  0.3640  157.5
 7.400  0.6880  110.6   3.552  -10.5  0.0677    2.7  0.3735  153.7
 7.600  0.6956  107.6   3.432  -13.9  0.0691    1.5  0.3840  149.6
 7.800  0.7037  104.5   3.302  -17.4  0.0703    0.0  0.3959  145.3
 8.000  0.7139  101.4   3.185  -21.1  0.0716   -1.4  0.4098  141.3
 8.200  0.7196   98.5   3.051  -24.1  0.0722   -2.7  0.4192  137.1
 8.400  0.7271   95.7   2.925  -27.3  0.0729   -3.9  0.4308  133.1
 8.600  0.7375   93.1   2.811  -30.4  0.0735   -5.0  0.4443  129.1
 8.800  0.7503   90.8   2.707  -33.2  0.0743   -6.0  0.4601  125.0
 9.000  0.7644   88.5   2.610  -36.3  0.0750   -6.9  0.4780  121.2
 9.200  0.7862   86.2   2.521  -39.1  0.0758   -8.0  0.5032  117.5
 9.400  0.8093   84.0   2.439  -42.0  0.0766   -9.0  0.5303  114.1
 9.600  0.8301   81.8   2.341  -45.1  0.0774  -10.2  0.5590  111.2
 9.800  0.8491   79.4   2.229  -48.3  0.0783  -11.6  0.5888  108.6
10.000  0.8694   77.2   2.124  -51.8  0.0792  -13.0  0.6197  106.3
!
!  f       NFmin   Gammaopt  rn/50
! GHz       dB    MAG  ANG    -
 0.450      0.60  0.20    3   0.08
 0.900      0.63  0.19   13   0.10
 1.900      0.65  0.18   17   0.10
 2.400      0.70  0.12   37   0.11
 5.500      0.90  0.24 -138   0.14
10.000      1.66  0.57  -90   0.48
!
! (c) 2016  Infineon Technologies AG, Munich
