! Infineon Technologies  Discrete & RF Semiconductors
! BFP720
! VCE =  1.5 V,  IC =  5.0 mA
! Common Emitter S-Parameters:                            Aug 2012
# GHz  S  MA  R  50
!  f         S11            S21            S12            S22
! GHz     MAG   ANG      MAG   ANG      MAG   ANG      MAG   ANG
 0.010  0.9360    0.2  14.177 -179.8  0.0008  -49.8  0.9866    0.7
 0.020  0.9404   -0.8  14.107  178.8  0.0009   95.7  0.9980   -0.6
 0.030  0.9399   -1.2  14.169  178.5  0.0013   94.1  0.9978   -0.9
 0.040  0.9395   -1.7  14.232  178.1  0.0017   93.3  0.9975   -1.3
 0.050  0.9391   -2.2  14.295  177.7  0.0021   92.8  0.9974   -1.6
 0.060  0.9389   -2.7  14.285  177.4  0.0025   90.6  0.9974   -2.0
 0.070  0.9388   -3.1  14.276  177.0  0.0029   89.1  0.9975   -2.3
 0.080  0.9387   -3.6  14.268  176.7  0.0033   87.9  0.9976   -2.6
 0.090  0.9387   -4.0  14.260  176.4  0.0037   86.9  0.9977   -3.0
 0.100  0.9388   -4.5  14.252  176.0  0.0041   86.2  0.9979   -3.3
 0.110  0.9384   -4.9  14.252  175.6  0.0045   86.0  0.9976   -3.6
 0.120  0.9380   -5.4  14.253  175.2  0.0050   85.8  0.9974   -4.0
 0.130  0.9377   -5.8  14.254  174.8  0.0054   85.7  0.9971   -4.3
 0.140  0.9374   -6.3  14.256  174.4  0.0059   85.6  0.9970   -4.6
 0.150  0.9372   -6.7  14.259  174.0  0.0063   85.5  0.9968   -4.9
 0.200  0.9350   -9.0  14.168  172.1  0.0084   83.9  0.9944   -6.6
 0.250  0.9334  -11.2  14.147  170.2  0.0105   82.9  0.9926   -8.2
 0.300  0.9292  -13.4  14.057  168.4  0.0126   81.5  0.9890   -9.8
 0.350  0.9258  -15.6  14.005  166.7  0.0146   80.5  0.9864  -11.5
 0.400  0.9224  -17.9  13.969  165.0  0.0167   78.9  0.9818  -13.1
 0.450  0.9191  -20.1  13.876  163.2  0.0187   77.4  0.9784  -14.8
 0.500  0.9145  -22.3  13.820  161.5  0.0208   76.3  0.9740  -16.4
 0.600  0.9056  -26.8  13.700  158.1  0.0247   73.3  0.9633  -19.6
 0.700  0.8966  -31.4  13.577  154.8  0.0288   70.5  0.9530  -22.9
 0.800  0.8850  -36.2  13.565  151.4  0.0326   67.7  0.9414  -26.2
 0.900  0.8738  -40.7  13.397  148.1  0.0363   64.9  0.9270  -29.5
 1.000  0.8616  -45.4  13.249  144.7  0.0399   62.0  0.9113  -32.7
 1.100  0.8491  -49.9  13.076  141.4  0.0433   59.1  0.8947  -36.0
 1.200  0.8352  -54.6  12.907  138.0  0.0466   56.4  0.8771  -39.2
 1.300  0.8216  -59.3  12.735  134.7  0.0497   53.6  0.8584  -42.4
 1.400  0.8076  -63.8  12.525  131.5  0.0526   51.0  0.8383  -45.3
 1.500  0.7934  -68.4  12.346  128.3  0.0552   48.4  0.8178  -48.4
 1.600  0.7770  -73.3  12.230  124.8  0.0577   45.8  0.7975  -51.3
 1.700  0.7622  -77.7  11.976  121.7  0.0600   43.3  0.7759  -54.2
 1.800  0.7494  -81.9  11.733  118.6  0.0621   40.9  0.7559  -57.0
 1.900  0.7348  -86.1  11.479  115.6  0.0640   38.6  0.7361  -59.7
 2.000  0.7237  -90.1  11.222  112.7  0.0657   36.4  0.7167  -62.3
 2.100  0.7104  -93.9  10.963  110.0  0.0671   34.2  0.6972  -64.7
 2.200  0.7003  -97.8  10.730  107.2  0.0687   32.1  0.6790  -67.2
 2.300  0.6896 -101.3  10.469  104.7  0.0699   30.1  0.6618  -69.6
 2.400  0.6815 -104.9  10.230  102.0  0.0712   28.2  0.6457  -72.1
 2.500  0.6709 -108.4  10.001   99.5  0.0721   26.4  0.6294  -74.2
 2.600  0.6628 -111.9   9.791   96.9  0.0732   24.6  0.6140  -76.5
 2.700  0.6542 -115.2   9.570   94.6  0.0740   22.9  0.5991  -78.7
 2.800  0.6478 -118.6   9.365   92.2  0.0749   21.2  0.5851  -81.0
 2.900  0.6387 -121.9   9.160   89.9  0.0756   19.7  0.5712  -83.1
 3.000  0.6318 -125.2   8.970   87.5  0.0763   18.1  0.5581  -85.3
 3.100  0.6211 -128.4   8.772   85.5  0.0766   16.7  0.5434  -87.2
 3.200  0.6124 -131.7   8.585   83.3  0.0770   15.2  0.5293  -89.3
 3.300  0.6058 -135.1   8.412   81.1  0.0774   13.7  0.5160  -91.5
 3.400  0.6013 -138.6   8.251   78.7  0.0779   12.3  0.5035  -93.8
 3.500  0.5991 -142.1   8.105   76.3  0.0784   10.8  0.4918  -96.2
 3.600  0.5903 -145.4   7.929   74.4  0.0785    9.6  0.4780  -98.4
 3.700  0.5836 -148.8   7.762   72.4  0.0786    8.3  0.4648 -100.7
 3.800  0.5790 -152.3   7.606   70.2  0.0788    7.0  0.4525 -103.1
 3.900  0.5766 -155.8   7.461   68.0  0.0790    5.7  0.4411 -105.7
 4.000  0.5764 -159.4   7.327   65.7  0.0792    4.4  0.4305 -108.4
 4.100  0.5705 -162.8   7.168   63.9  0.0790    3.3  0.4176 -110.9
 4.200  0.5667 -166.3   7.017   61.9  0.0789    2.1  0.4056 -113.6
 4.300  0.5650 -169.8   6.875   59.9  0.0789    1.0  0.3945 -116.5
 4.400  0.5654 -173.3   6.741   57.8  0.0788   -0.2  0.3845 -119.5
 4.500  0.5679 -176.8   6.617   55.6  0.0788   -1.4  0.3756 -122.7
 4.600  0.5666 -179.5   6.468   53.9  0.0784   -2.4  0.3658 -125.5
 4.700  0.5665  177.8   6.326   52.0  0.0780   -3.4  0.3569 -128.5
 4.800  0.5677  175.1   6.191   50.1  0.0777   -4.4  0.3490 -131.5
 4.900  0.5701  172.4   6.062   48.1  0.0773   -5.4  0.3422 -134.8
 5.000  0.5737  169.8   5.942   46.0  0.0770   -6.5  0.3365 -138.1
 5.100  0.5741  167.5   5.811   44.4  0.0765   -7.3  0.3316 -140.6
 5.200  0.5753  165.2   5.685   42.8  0.0759   -8.1  0.3274 -143.1
 5.300  0.5774  163.0   5.564   41.1  0.0754   -8.9  0.3238 -145.7
 5.400  0.5803  160.8   5.448   39.3  0.0749   -9.7  0.3210 -148.4
 5.500  0.5842  158.6   5.337   37.5  0.0744  -10.5  0.3188 -151.1
 5.600  0.5851  156.9   5.229   36.0  0.0738  -11.1  0.3179 -152.8
 5.700  0.5865  155.2   5.123   34.5  0.0732  -11.7  0.3173 -154.5
 5.800  0.5884  153.5   5.022   33.0  0.0726  -12.3  0.3169 -156.2
 5.900  0.5909  151.8   4.924   31.4  0.0720  -12.9  0.3169 -157.9
 6.000  0.5938  150.2   4.831   29.7  0.0714  -13.5  0.3171 -159.6
 6.100  0.5931  148.8   4.742   28.3  0.0709  -13.8  0.3165 -160.4
 6.200  0.5929  147.4   4.655   26.9  0.0704  -14.1  0.3160 -161.2
 6.300  0.5929  146.1   4.572   25.5  0.0698  -14.4  0.3156 -162.1
 6.400  0.5933  144.7   4.491   23.9  0.0693  -14.7  0.3152 -162.9
 6.500  0.5940  143.3   4.414   22.4  0.0688  -15.0  0.3149 -163.7
 6.600  0.5922  142.1   4.342   21.1  0.0684  -15.1  0.3122 -164.1
 6.700  0.5906  140.9   4.271   19.8  0.0681  -15.2  0.3095 -164.5
 6.800  0.5892  139.6   4.204   18.4  0.0678  -15.3  0.3068 -164.9
 6.900  0.5882  138.4   4.138   17.0  0.0675  -15.5  0.3041 -165.3
 7.000  0.5874  137.2   4.076   15.5  0.0672  -15.6  0.3015 -165.8
 7.100  0.5868  135.8   4.021   14.2  0.0672  -15.7  0.2980 -168.9
 7.200  0.5866  134.4   3.969   12.8  0.0673  -15.8  0.2955 -172.2
 7.300  0.5867  133.0   3.919   11.4  0.0673  -16.0  0.2940 -175.5
 7.400  0.5871  131.6   3.871   10.0  0.0674  -16.1  0.2934 -178.8
 7.500  0.5879  130.2   3.826    8.5  0.0674  -16.3  0.2938  177.9
 7.600  0.5894  128.4   3.777    7.0  0.0675  -16.7  0.2915  175.6
 7.700  0.5914  126.6   3.732    5.4  0.0675  -17.0  0.2897  173.3
 7.800  0.5940  124.8   3.689    3.8  0.0676  -17.4  0.2883  170.9
 7.900  0.5971  123.0   3.649    2.2  0.0677  -17.8  0.2874  168.6
 8.000  0.6009  121.3   3.612    0.5  0.0677  -18.1  0.2871  166.2
 8.500  0.6225  111.0   3.347   -8.0  0.0668  -19.9  0.2914  150.9
 9.000  0.6533  101.7   3.071  -16.0  0.0665  -20.7  0.3218  136.3
 9.500  0.6951   94.0   2.803  -23.6  0.0666  -22.1  0.3717  124.6
10.000  0.7352   87.5   2.531  -30.8  0.0657  -23.7  0.4282  115.5
10.500  0.7572   83.0   2.267  -36.2  0.0650  -23.8  0.4762  109.1
11.000  0.7724   81.4   2.098  -40.2  0.0661  -23.7  0.5145  105.6
11.500  0.8047   80.8   1.992  -45.5  0.0682  -24.8  0.5568  103.6
12.000  0.8333   79.1   1.867  -52.2  0.0690  -27.2  0.5968  101.1
!
!  f       NFmin   Gammaopt  rn/50
! GHz       dB    MAG  ANG    -
 0.450      0.39  0.49    4   0.18
 1.800      0.49  0.47   25   0.14
 2.400      0.53  0.34   60   0.19
 5.500      0.68  0.22   65   0.13
10.000      0.97  0.40  -93   0.22
!
! (c) 2012  Infineon Technologies AG, Munich
