! Infineon Technologies  Discrete & RF Semiconductors
! BFP720
! VCE =  2.0 V,  IC =  17 mA
! Common Emitter S-Parameters:                            Aug 2012
# GHz  S  MA  R  50
!  f         S11            S21            S12            S22
! GHz     MAG   ANG      MAG   ANG      MAG   ANG      MAG   ANG
 0.010  0.7794   -0.1  35.772 -179.9  0.0005   10.6  0.9551    2.6
 0.020  0.7804   -1.7  36.056  178.1  0.0008  105.6  0.9870   -0.5
 0.030  0.7792   -2.7  36.136  177.3  0.0011   94.9  0.9884   -1.1
 0.040  0.7782   -3.6  36.221  176.6  0.0015   89.1  0.9900   -1.7
 0.050  0.7774   -4.6  36.312  175.9  0.0018   85.5  0.9916   -2.3
 0.060  0.7766   -5.5  36.245  175.2  0.0022   85.0  0.9914   -2.9
 0.070  0.7759   -6.5  36.184  174.4  0.0025   84.6  0.9913   -3.6
 0.080  0.7755   -7.5  36.128  173.7  0.0029   84.3  0.9913   -4.2
 0.090  0.7754   -8.5  36.079  173.0  0.0033   84.0  0.9914   -4.8
 0.100  0.7754   -9.5  36.036  172.2  0.0036   83.8  0.9916   -5.4
 0.110  0.7738  -10.4  35.938  171.5  0.0040   83.5  0.9902   -6.0
 0.120  0.7724  -11.4  35.847  170.7  0.0043   83.2  0.9888   -6.6
 0.130  0.7711  -12.3  35.762  169.9  0.0046   82.9  0.9876   -7.1
 0.140  0.7701  -13.2  35.683  169.2  0.0050   82.7  0.9864   -7.7
 0.150  0.7693  -14.1  35.612  168.4  0.0053   82.5  0.9853   -8.3
 0.200  0.7623  -18.6  35.000  164.9  0.0070   80.7  0.9754  -11.0
 0.250  0.7538  -23.2  34.437  161.5  0.0087   78.6  0.9645  -13.7
 0.300  0.7451  -27.5  33.768  158.3  0.0103   76.3  0.9513  -16.2
 0.350  0.7355  -31.9  33.055  155.4  0.0119   74.1  0.9378  -18.7
 0.400  0.7260  -36.2  32.453  152.5  0.0133   72.2  0.9221  -21.1
 0.450  0.7162  -40.3  31.792  149.7  0.0148   70.2  0.9082  -23.5
 0.500  0.7061  -44.6  31.115  147.1  0.0162   68.0  0.8920  -25.7
 0.600  0.6860  -52.8  29.938  142.0  0.0189   64.5  0.8584  -30.1
 0.700  0.6659  -60.8  28.687  137.2  0.0214   61.1  0.8250  -34.3
 0.800  0.6465  -68.8  27.554  132.6  0.0236   57.8  0.7911  -38.2
 0.900  0.6295  -76.3  26.385  128.3  0.0255   54.8  0.7560  -41.9
 1.000  0.6120  -83.7  25.246  124.2  0.0273   52.0  0.7214  -45.5
 1.100  0.5964  -90.8  24.174  120.2  0.0289   49.3  0.6873  -48.8
 1.200  0.5824  -97.6  23.137  116.5  0.0303   47.0  0.6549  -51.9
 1.300  0.5702 -104.2  22.139  112.9  0.0314   44.8  0.6234  -54.8
 1.400  0.5595 -110.3  21.162  109.5  0.0325   42.8  0.5936  -57.5
 1.500  0.5501 -116.2  20.261  106.2  0.0335   41.1  0.5650  -60.0
 1.600  0.5424 -121.7  19.412  103.1  0.0343   39.4  0.5388  -62.3
 1.700  0.5359 -126.9  18.576  100.2  0.0351   38.0  0.5138  -64.6
 1.800  0.5310 -131.5  17.807   97.4  0.0358   36.7  0.4912  -66.7
 1.900  0.5270 -136.0  17.084   94.8  0.0364   35.4  0.4706  -68.7
 2.000  0.5245 -140.1  16.408   92.4  0.0369   34.3  0.4514  -70.6
 2.100  0.5215 -143.7  15.775   90.1  0.0374   33.4  0.4342  -72.3
 2.200  0.5206 -147.4  15.168   87.6  0.0380   32.5  0.4174  -74.1
 2.300  0.5191 -150.6  14.615   85.6  0.0385   31.8  0.4031  -75.7
 2.400  0.5192 -153.8  14.083   83.3  0.0389   31.0  0.3892  -77.4
 2.500  0.5181 -156.8  13.607   81.3  0.0394   30.4  0.3768  -78.9
 2.600  0.5183 -159.7  13.149   79.2  0.0398   29.8  0.3648  -80.4
 2.700  0.5185 -162.5  12.727   77.3  0.0402   29.2  0.3541  -81.9
 2.800  0.5198 -165.2  12.319   75.3  0.0407   28.6  0.3437  -83.6
 2.900  0.5193 -167.8  11.944   73.5  0.0410   28.1  0.3343  -85.0
 3.000  0.5199 -170.4  11.581   71.6  0.0414   27.7  0.3250  -86.6
 3.100  0.5175 -173.3  11.255   70.0  0.0418   27.3  0.3160  -88.0
 3.200  0.5163 -176.2  10.940   68.3  0.0423   26.8  0.3073  -89.5
 3.300  0.5165 -179.1  10.634   66.4  0.0427   26.4  0.2987  -91.1
 3.400  0.5180  178.1  10.340   64.5  0.0431   26.0  0.2904  -92.8
 3.500  0.5208  175.2  10.058   62.5  0.0435   25.6  0.2824  -94.6
 3.600  0.5208  172.7   9.799   61.0  0.0439   25.3  0.2740  -96.3
 3.700  0.5219  170.2   9.548   59.3  0.0443   24.9  0.2659  -98.2
 3.800  0.5239  167.8   9.305   57.6  0.0447   24.6  0.2581 -100.2
 3.900  0.5269  165.3   9.071   55.8  0.0452   24.2  0.2506 -102.4
 4.000  0.5308  162.9   8.846   53.9  0.0456   23.9  0.2436 -104.6
 4.100  0.5333  160.6   8.631   52.4  0.0460   23.5  0.2357 -107.1
 4.200  0.5365  158.4   8.422   50.9  0.0464   23.2  0.2284 -109.8
 4.300  0.5406  156.1   8.220   49.2  0.0468   22.8  0.2216 -112.6
 4.400  0.5455  154.0   8.025   47.5  0.0472   22.5  0.2153 -115.6
 4.500  0.5512  151.8   7.837   45.7  0.0476   22.2  0.2097 -118.8
 4.600  0.5550  149.9   7.652   44.3  0.0480   21.8  0.2044 -122.0
 4.700  0.5594  148.1   7.472   42.9  0.0483   21.5  0.1997 -125.4
 4.800  0.5644  146.2   7.297   41.3  0.0487   21.2  0.1957 -128.9
 4.900  0.5700  144.4   7.128   39.7  0.0491   20.9  0.1925 -132.6
 5.000  0.5761  142.7   6.965   38.0  0.0494   20.6  0.1902 -136.4
 5.100  0.5801  141.2   6.813   36.7  0.0498   20.4  0.1890 -139.5
 5.200  0.5844  139.8   6.664   35.4  0.0502   20.1  0.1884 -142.6
 5.300  0.5891  138.4   6.520   34.0  0.0505   19.9  0.1884 -145.7
 5.400  0.5942  137.1   6.379   32.5  0.0509   19.7  0.1889 -148.8
 5.500  0.5996  135.7   6.243   31.0  0.0513   19.4  0.1900 -151.9
 5.600  0.6025  134.7   6.119   29.7  0.0516   19.2  0.1920 -153.9
 5.700  0.6056  133.6   5.999   28.4  0.0520   19.1  0.1942 -155.8
 5.800  0.6090  132.5   5.882   27.1  0.0524   18.9  0.1966 -157.7
 5.900  0.6125  131.4   5.767   25.7  0.0528   18.7  0.1993 -159.5
 6.000  0.6163  130.4   5.657   24.3  0.0531   18.5  0.2021 -161.3
 6.100  0.6167  129.4   5.555   23.1  0.0536   18.4  0.2038 -162.0
 6.200  0.6174  128.5   5.455   21.9  0.0541   18.3  0.2054 -162.8
 6.300  0.6181  127.5   5.358   20.6  0.0546   18.2  0.2071 -163.5
 6.400  0.6191  126.6   5.263   19.3  0.0551   18.1  0.2088 -164.2
 6.500  0.6202  125.6   5.172   17.9  0.0556   18.1  0.2106 -164.9
 6.600  0.6190  124.7   5.089   16.7  0.0563   18.0  0.2096 -165.1
 6.700  0.6179  123.7   5.009   15.5  0.0570   17.8  0.2086 -165.2
 6.800  0.6170  122.8   4.930   14.3  0.0577   17.7  0.2077 -165.4
 6.900  0.6163  121.8   4.855   13.0  0.0584   17.6  0.2067 -165.6
 7.000  0.6158  120.8   4.781   11.7  0.0591   17.5  0.2057 -165.8
 7.100  0.6157  119.7   4.717   10.4  0.0600   17.2  0.2039 -168.9
 7.200  0.6159  118.6   4.655    9.2  0.0609   16.8  0.2027 -172.0
 7.300  0.6162  117.4   4.596    7.9  0.0619   16.4  0.2021 -175.1
 7.400  0.6169  116.3   4.538    6.5  0.0628   16.1  0.2021 -178.2
 7.500  0.6177  115.2   4.484    5.1  0.0638   15.7  0.2027  178.6
 7.600  0.6201  113.7   4.425    3.7  0.0646   15.1  0.2019  176.2
 7.700  0.6230  112.3   4.369    2.3  0.0654   14.4  0.2015  173.8
 7.800  0.6262  110.8   4.316    0.8  0.0663   13.7  0.2015  171.3
 7.900  0.6298  109.4   4.266   -0.7  0.0672   13.1  0.2018  168.9
 8.000  0.6339  107.9   4.218   -2.2  0.0680   12.5  0.2025  166.5
 8.500  0.6605   99.7   3.898  -10.0  0.0712    9.1  0.2164  149.5
 9.000  0.6955   92.2   3.580  -17.3  0.0743    5.8  0.2574  134.0
 9.500  0.7394   86.0   3.276  -24.3  0.0766    1.9  0.3170  122.4
10.000  0.7814   80.6   2.968  -30.9  0.0772   -1.8  0.3820  113.5
10.500  0.8030   76.7   2.675  -35.7  0.0779   -3.9  0.4359  107.3
11.000  0.8159   75.3   2.493  -39.4  0.0803   -5.8  0.4764  104.0
11.500  0.8459   75.0   2.380  -44.5  0.0834   -8.9  0.5195  102.5
12.000  0.8727   73.4   2.237  -51.0  0.0844  -12.7  0.5616  100.3
!
!  f       NFmin   Gammaopt  rn/50
! GHz       dB    MAG  ANG    -
 0.450      0.67  0.19    1   0.39
 1.800      0.74  0.20   11   0.14
 2.400      0.79  0.19   17   0.43
 5.500      1.01  0.11  -46   0.18
10.000      1.18  0.45  -73   0.29
!
! (c) 2012  Infineon Technologies AG, Munich
