! Infineon Technologies  Discrete & RF Semiconductors
! BFP720
! VCE =  0.5 V,  IC =  15 mA
! Common Emitter S-Parameters:                            Aug 2012
# GHz  S  MA  R  50
!  f         S11            S21            S12            S22
! GHz     MAG   ANG      MAG   ANG      MAG   ANG      MAG   ANG
 0.010  0.4946   -3.1  14.515  178.7  0.0067    7.6  0.4668    0.2
 0.020  0.4978   -5.0  14.944  178.7  0.0074   14.5  0.4780   -2.2
 0.030  0.4978   -7.3  14.954  177.6  0.0077   20.0  0.4798   -3.4
 0.040  0.4987   -9.7  14.970  176.5  0.0081   25.2  0.4817   -4.6
 0.050  0.5004  -12.0  14.991  175.4  0.0085   29.8  0.4838   -5.8
 0.060  0.4992  -14.6  14.963  174.3  0.0091   33.5  0.4827   -7.0
 0.070  0.4990  -17.2  14.942  173.1  0.0097   36.8  0.4818   -8.2
 0.080  0.4998  -19.8  14.926  172.0  0.0103   39.7  0.4810   -9.4
 0.090  0.5017  -22.4  14.917  170.8  0.0110   42.2  0.4805  -10.6
 0.100  0.5046  -24.9  14.913  169.7  0.0117   44.4  0.4802  -11.8
 0.110  0.5034  -27.3  14.839  168.6  0.0124   45.8  0.4777  -12.9
 0.120  0.5032  -29.7  14.771  167.5  0.0132   47.0  0.4754  -14.1
 0.130  0.5038  -32.1  14.707  166.4  0.0139   48.0  0.4734  -15.3
 0.140  0.5054  -34.5  14.649  165.3  0.0147   49.0  0.4715  -16.4
 0.150  0.5077  -36.9  14.597  164.2  0.0155   49.8  0.4698  -17.6
 0.200  0.5178  -48.2  14.341  158.5  0.0194   51.2  0.4610  -23.8
 0.250  0.5259  -58.8  13.946  153.8  0.0229   51.0  0.4462  -29.0
 0.300  0.5364  -68.6  13.505  148.7  0.0264   49.5  0.4306  -34.1
 0.350  0.5464  -77.5  13.037  144.4  0.0296   47.9  0.4167  -39.8
 0.400  0.5589  -86.1  12.511  140.2  0.0325   45.5  0.3936  -44.1
 0.450  0.5693  -93.6  12.124  136.0  0.0350   43.7  0.3821  -48.7
 0.500  0.5815 -100.4  11.702  132.6  0.0373   41.5  0.3618  -53.1
 0.600  0.6038 -113.1  10.821  125.3  0.0411   37.6  0.3282  -61.3
 0.700  0.6197 -123.6   9.982  119.4  0.0442   34.0  0.2995  -69.2
 0.800  0.6355 -131.2   9.682  114.3  0.0465   30.9  0.2738  -76.3
 0.900  0.6492 -139.5   8.969  109.1  0.0483   28.1  0.2497  -83.1
 1.000  0.6592 -146.7   8.284  104.8  0.0498   25.7  0.2284  -89.8
 1.100  0.6699 -153.0   7.702  100.6  0.0510   23.5  0.2096  -96.4
 1.200  0.6790 -158.6   7.180   97.1  0.0519   21.7  0.1940 -102.9
 1.300  0.6863 -163.6   6.736   93.7  0.0526   20.0  0.1810 -109.2
 1.400  0.6923 -167.7   6.336   90.6  0.0532   18.6  0.1713 -115.1
 1.500  0.6980 -171.7   5.947   87.7  0.0537   17.3  0.1624 -121.1
 1.600  0.7015 -174.6   5.777   85.1  0.0542   16.2  0.1561 -126.9
 1.700  0.7063 -177.9   5.443   82.5  0.0545   15.2  0.1508 -132.6
 1.800  0.7107  179.3   5.138   80.1  0.0548   14.3  0.1477 -137.8
 1.900  0.7228  178.9   4.855   77.9  0.0551   13.5  0.1453 -142.8
 2.000  0.7262  176.2   4.614   75.7  0.0555   12.7  0.1442 -147.6
 2.100  0.7284  173.8   4.404   73.8  0.0557   12.1  0.1436 -151.5
 2.200  0.7320  171.4   4.200   71.6  0.0560   11.5  0.1436 -155.5
 2.300  0.7340  169.1   4.028   69.7  0.0562   11.0  0.1442 -158.9
 2.400  0.7372  166.9   3.861   67.7  0.0565   10.4  0.1452 -162.3
 2.500  0.7390  164.8   3.711   65.8  0.0567    9.9  0.1462 -165.2
 2.600  0.7418  162.7   3.565   63.9  0.0570    9.4  0.1476 -168.0
 2.700  0.7433  160.8   3.433   62.1  0.0573    9.0  0.1489 -170.8
 2.800  0.7457  158.9   3.305   60.2  0.0575    8.5  0.1506 -173.6
 2.900  0.7465  157.0   3.196   58.6  0.0578    8.1  0.1520 -176.2
 3.000  0.7480  155.1   3.090   56.8  0.0580    7.7  0.1538 -178.8
 3.100  0.7478  153.3   2.997   55.2  0.0583    7.3  0.1545  178.4
 3.200  0.7485  151.4   2.906   53.6  0.0585    6.9  0.1555  175.5
 3.300  0.7499  149.5   2.818   51.9  0.0587    6.5  0.1569  172.7
 3.400  0.7521  147.7   2.733   50.0  0.0590    6.1  0.1587  170.0
 3.500  0.7551  145.8   2.651   48.0  0.0592    5.7  0.1608  167.3
 3.600  0.7555  144.0   2.574   46.6  0.0595    5.3  0.1631  164.6
 3.700  0.7566  142.2   2.500   45.0  0.0597    4.9  0.1659  161.8
 3.800  0.7584  140.4   2.428   43.4  0.0599    4.6  0.1689  159.2
 3.900  0.7610  138.6   2.358   41.6  0.0602    4.2  0.1723  156.7
 4.000  0.7643  136.9   2.290   39.8  0.0604    3.8  0.1761  154.3
 4.100  0.7655  135.2   2.227   38.4  0.0606    3.5  0.1806  151.9
 4.200  0.7673  133.6   2.165   36.9  0.0608    3.1  0.1854  149.6
 4.300  0.7697  132.0   2.105   35.3  0.0610    2.7  0.1906  147.4
 4.400  0.7727  130.4   2.047   33.7  0.0611    2.4  0.1959  145.3
 4.500  0.7764  128.8   1.990   32.0  0.0613    2.0  0.2016  143.4
 4.600  0.7778  127.5   1.940   30.7  0.0614    1.7  0.2075  141.7
 4.700  0.7797  126.2   1.890   29.3  0.0616    1.4  0.2136  140.2
 4.800  0.7820  124.9   1.841   27.9  0.0617    1.1  0.2199  138.7
 4.900  0.7847  123.6   1.794   26.5  0.0618    0.9  0.2262  137.4
 5.000  0.7878  122.4   1.748   24.9  0.0619    0.6  0.2327  136.1
 5.100  0.7897  121.4   1.707   23.7  0.0621    0.4  0.2385  135.1
 5.200  0.7918  120.4   1.667   22.5  0.0622    0.1  0.2443  134.2
 5.300  0.7942  119.4   1.628   21.3  0.0624   -0.1  0.2502  133.4
 5.400  0.7968  118.4   1.589   19.9  0.0626   -0.3  0.2561  132.5
 5.500  0.7996  117.5   1.552   18.5  0.0627   -0.5  0.2621  131.7
 5.600  0.8007  116.7   1.520   17.4  0.0630   -0.6  0.2662  131.2
 5.700  0.8020  115.9   1.488   16.2  0.0632   -0.8  0.2703  130.7
 5.800  0.8035  115.1   1.458   15.0  0.0634   -1.0  0.2744  130.3
 5.900  0.8051  114.3   1.428   13.8  0.0636   -1.1  0.2785  129.8
 6.000  0.8069  113.5   1.398   12.4  0.0639   -1.3  0.2826  129.4
 6.100  0.8061  112.7   1.374   11.3  0.0642   -1.4  0.2842  128.9
 6.200  0.8054  111.9   1.351   10.2  0.0646   -1.5  0.2857  128.4
 6.300  0.8049  111.1   1.328    9.0  0.0650   -1.5  0.2873  128.0
 6.400  0.8046  110.3   1.305    7.7  0.0654   -1.6  0.2890  127.5
 6.500  0.8044  109.5   1.283    6.5  0.0657   -1.7  0.2906  127.1
 6.600  0.8027  108.6   1.262    5.3  0.0664   -1.9  0.2906  126.2
 6.700  0.8012  107.7   1.242    4.2  0.0670   -2.1  0.2907  125.4
 6.800  0.7999  106.9   1.222    3.0  0.0676   -2.3  0.2908  124.6
 6.900  0.7988  106.0   1.202    1.7  0.0683   -2.4  0.2910  123.8
 7.000  0.7978  105.1   1.184    0.4  0.0689   -2.6  0.2912  123.0
 7.100  0.7975  104.0   1.167   -0.8  0.0697   -3.1  0.2922  121.6
 7.200  0.7975  102.9   1.150   -2.1  0.0705   -3.6  0.2932  120.3
 7.300  0.7978  101.8   1.135   -3.5  0.0713   -4.1  0.2944  119.0
 7.400  0.7984  100.7   1.120   -4.8  0.0721   -4.6  0.2958  117.7
 7.500  0.7993   99.6   1.105   -6.3  0.0730   -5.1  0.2973  116.4
 7.600  0.8004   98.2   1.088   -7.7  0.0735   -5.9  0.3008  114.5
 7.700  0.8020   96.8   1.072   -9.2  0.0740   -6.7  0.3046  112.6
 7.800  0.8041   95.3   1.057  -10.7  0.0745   -7.5  0.3088  110.8
 7.900  0.8067   93.9   1.043  -12.2  0.0750   -8.3  0.3132  109.1
 8.000  0.8097   92.5   1.029  -13.8  0.0756   -9.1  0.3179  107.4
 8.500  0.8226   85.0   0.932  -21.3  0.0761  -12.6  0.3525   98.2
 9.000  0.8394   78.3   0.839  -27.7  0.0765  -15.4  0.3973   91.6
 9.500  0.8602   73.0   0.755  -33.4  0.0765  -18.2  0.4460   86.9
10.000  0.8771   68.7   0.678  -38.2  0.0754  -20.5  0.4924   83.4
10.500  0.8816   66.1   0.614  -41.2  0.0752  -21.3  0.5276   81.0
11.000  0.8872   65.5   0.580  -43.6  0.0772  -22.4  0.5532   80.1
11.500  0.9102   65.2   0.558  -48.0  0.0796  -25.0  0.5816   79.8
12.000  0.9239   63.7   0.524  -53.5  0.0795  -28.3  0.6064   78.9
!
!  f       NFmin   Gammaopt  rn/50
! GHz       dB    MAG  ANG    -
 0.450      0.63  0.22    1   0.43
 1.800      0.70  0.22   14   0.13
 2.400      0.75  0.20   22   0.38
 5.500      0.93  0.10  -30   0.18
10.000      1.11  0.44  -74   0.27
!
! (c) 2012  Infineon Technologies AG, Munich
