! Infineon Technologies  Discrete & RF Semiconductors
! BFP720F
! VCE =  3.0 V,  IC =  0.5 mA
! Common Emitter S-Parameters:                            Jan 2016
# GHz  S  MA  R  50
!  f         S11            S21            S12            S22
! GHz     MAG   ANG      MAG   ANG      MAG   ANG      MAG   ANG
 0.010  0.9904   -0.1   2.113  179.7  0.0009  -36.3  1.0000   -0.5
 0.015  0.9923   -0.2   2.048  179.0  0.0004   21.8  1.0000   -0.7
 0.020  0.9942   -0.3   1.984  178.3  0.0008   94.7  1.0000   -0.9
 0.025  0.9941   -0.4   1.979  178.4  0.0009   94.6  0.9997   -0.9
 0.030  0.9941   -0.5   1.975  178.5  0.0011   94.4  0.9994   -0.9
 0.035  0.9940   -0.6   1.970  178.6  0.0012   94.4  0.9991   -0.9
 0.040  0.9940   -0.8   1.965  178.8  0.0014   94.3  0.9989   -0.8
 0.045  0.9939   -0.9   1.961  178.9  0.0015   94.2  0.9986   -0.8
 0.050  0.9939   -1.0   1.956  179.0  0.0017   94.2  0.9983   -0.8
 0.055  0.9939   -1.1   1.956  178.9  0.0019   93.0  0.9984   -0.9
 0.060  0.9938   -1.1   1.956  178.8  0.0021   92.1  0.9985   -0.9
 0.065  0.9938   -1.2   1.956  178.8  0.0023   91.3  0.9986   -1.0
 0.070  0.9938   -1.3   1.956  178.7  0.0025   90.6  0.9986   -1.0
 0.075  0.9937   -1.3   1.956  178.6  0.0026   90.1  0.9987   -1.1
 0.080  0.9937   -1.4   1.957  178.5  0.0028   89.6  0.9988   -1.2
 0.085  0.9937   -1.5   1.957  178.4  0.0030   89.1  0.9989   -1.2
 0.090  0.9936   -1.6   1.957  178.4  0.0032   88.7  0.9990   -1.3
 0.095  0.9936   -1.6   1.957  178.3  0.0034   88.4  0.9991   -1.3
 0.100  0.9936   -1.7   1.957  178.2  0.0036   88.1  0.9992   -1.4
 0.105  0.9935   -1.8   1.958  178.1  0.0038   88.1  0.9992   -1.5
 0.110  0.9934   -1.9   1.958  178.0  0.0040   88.1  0.9992   -1.5
 0.115  0.9934   -2.0   1.959  178.0  0.0041   88.1  0.9992   -1.6
 0.120  0.9933   -2.1   1.960  177.9  0.0043   88.0  0.9993   -1.7
 0.125  0.9932   -2.1   1.960  177.8  0.0045   88.0  0.9993   -1.8
 0.130  0.9932   -2.2   1.961  177.7  0.0047   88.0  0.9993   -1.8
 0.135  0.9931   -2.3   1.962  177.6  0.0049   88.0  0.9993   -1.9
 0.140  0.9930   -2.4   1.963  177.6  0.0050   88.0  0.9993   -2.0
 0.145  0.9930   -2.5   1.963  177.5  0.0052   88.0  0.9994   -2.0
 0.150  0.9929   -2.6   1.964  177.4  0.0054   88.0  0.9994   -2.1
 0.155  0.9928   -2.7   1.964  177.3  0.0056   87.9  0.9993   -2.2
 0.160  0.9928   -2.8   1.963  177.2  0.0058   87.8  0.9991   -2.2
 0.165  0.9927   -2.9   1.963  177.1  0.0059   87.7  0.9990   -2.3
 0.170  0.9926   -3.0   1.962  177.0  0.0061   87.6  0.9988   -2.4
 0.175  0.9926   -3.1   1.962  177.0  0.0063   87.5  0.9987   -2.4
 0.180  0.9925   -3.2   1.962  176.9  0.0065   87.5  0.9985   -2.5
 0.185  0.9924   -3.3   1.961  176.8  0.0067   87.4  0.9984   -2.6
 0.190  0.9924   -3.4   1.961  176.7  0.0068   87.3  0.9983   -2.7
 0.195  0.9923   -3.5   1.960  176.6  0.0070   87.3  0.9981   -2.7
 0.200  0.9923   -3.6   1.960  176.5  0.0072   87.2  0.9980   -2.8
 0.220  0.9922   -3.9   1.964  176.1  0.0079   86.9  0.9984   -3.1
 0.240  0.9920   -4.2   1.967  175.8  0.0086   86.7  0.9988   -3.4
 0.260  0.9920   -4.6   1.968  175.4  0.0094   86.4  0.9983   -3.7
 0.280  0.9920   -4.9   1.966  175.1  0.0101   86.1  0.9971   -4.0
 0.300  0.9921   -5.3   1.964  174.7  0.0109   85.8  0.9958   -4.3
 0.320  0.9918   -5.7   1.965  174.4  0.0116   85.5  0.9962   -4.6
 0.340  0.9915   -6.1   1.966  174.1  0.0123   85.2  0.9967   -4.9
 0.360  0.9914   -6.5   1.969  173.7  0.0131   84.9  0.9968   -5.2
 0.380  0.9913   -6.8   1.974  173.4  0.0138   84.6  0.9965   -5.5
 0.400  0.9913   -7.2   1.978  173.0  0.0145   84.3  0.9963   -5.8
 0.420  0.9909   -7.6   1.971  172.6  0.0153   84.0  0.9960   -6.1
 0.440  0.9905   -7.9   1.964  172.2  0.0160   83.7  0.9958   -6.4
 0.450  0.9903   -8.1   1.960  172.0  0.0164   83.6  0.9957   -6.5
 0.460  0.9902   -8.3   1.963  171.9  0.0168   83.4  0.9956   -6.6
 0.480  0.9900   -8.6   1.970  171.6  0.0175   83.1  0.9955   -6.9
 0.500  0.9898   -9.0   1.976  171.3  0.0182   82.8  0.9954   -7.2
 0.520  0.9895   -9.4   1.977  170.9  0.0189   82.5  0.9950   -7.5
 0.540  0.9892   -9.8   1.978  170.5  0.0197   82.1  0.9947   -7.8
 0.560  0.9889  -10.1   1.979  170.2  0.0204   81.8  0.9944   -8.1
 0.580  0.9888  -10.5   1.981  169.8  0.0212   81.6  0.9941   -8.4
 0.600  0.9886  -10.9   1.982  169.4  0.0219   81.3  0.9939   -8.7
 0.620  0.9882  -11.3   1.982  169.0  0.0226   80.9  0.9938   -9.0
 0.640  0.9878  -11.6   1.982  168.7  0.0233   80.6  0.9936   -9.3
 0.660  0.9875  -12.0   1.982  168.3  0.0241   80.3  0.9935   -9.5
 0.680  0.9872  -12.3   1.982  168.0  0.0248   80.0  0.9935   -9.8
 0.700  0.9869  -12.7   1.982  167.6  0.0255   79.7  0.9934  -10.1
 0.720  0.9865  -13.1   1.984  167.3  0.0263   79.3  0.9930  -10.4
 0.740  0.9862  -13.4   1.987  166.9  0.0270   79.0  0.9927  -10.7
 0.760  0.9859  -13.8   1.989  166.6  0.0278   78.7  0.9924  -11.0
 0.780  0.9857  -14.1   1.991  166.2  0.0285   78.4  0.9921  -11.3
 0.800  0.9855  -14.5   1.994  165.9  0.0293   78.1  0.9918  -11.6
 0.820  0.9850  -14.9   1.996  165.5  0.0300   77.7  0.9914  -11.9
 0.840  0.9845  -15.3   1.998  165.1  0.0308   77.4  0.9910  -12.2
 0.860  0.9840  -15.6   2.000  164.8  0.0315   77.1  0.9907  -12.4
 0.880  0.9836  -16.0   2.002  164.4  0.0323   76.8  0.9904  -12.7
 0.900  0.9832  -16.4   2.004  164.0  0.0330   76.5  0.9901  -13.0
 0.920  0.9827  -16.8   2.005  163.6  0.0337   76.1  0.9896  -13.3
 0.940  0.9823  -17.2   2.006  163.2  0.0345   75.8  0.9891  -13.6
 0.960  0.9819  -17.5   2.007  162.9  0.0352   75.4  0.9886  -13.9
 0.980  0.9815  -17.9   2.009  162.5  0.0360   75.1  0.9881  -14.2
 1.000  0.9812  -18.3   2.010  162.1  0.0367   74.8  0.9877  -14.5
 1.020  0.9806  -18.7   2.011  161.7  0.0374   74.4  0.9872  -14.8
 1.040  0.9800  -19.1   2.013  161.3  0.0382   74.1  0.9868  -15.1
 1.060  0.9795  -19.4   2.015  161.0  0.0389   73.7  0.9864  -15.4
 1.080  0.9790  -19.8   2.016  160.6  0.0397   73.4  0.9860  -15.7
 1.100  0.9785  -20.2   2.018  160.2  0.0404   73.1  0.9856  -16.0
 1.120  0.9779  -20.6   2.019  159.8  0.0411   72.8  0.9851  -16.3
 1.140  0.9773  -21.0   2.020  159.4  0.0419   72.4  0.9846  -16.6
 1.160  0.9768  -21.4   2.021  159.1  0.0426   72.1  0.9841  -16.9
 1.180  0.9763  -21.8   2.023  158.7  0.0434   71.8  0.9836  -17.2
 1.200  0.9759  -22.2   2.024  158.3  0.0441   71.5  0.9832  -17.5
 1.220  0.9753  -22.6   2.025  157.9  0.0448   71.1  0.9826  -17.8
 1.240  0.9747  -23.0   2.026  157.5  0.0456   70.7  0.9821  -18.1
 1.260  0.9741  -23.3   2.027  157.1  0.0463   70.4  0.9815  -18.5
 1.280  0.9736  -23.7   2.028  156.7  0.0471   70.0  0.9811  -18.8
 1.300  0.9731  -24.1   2.029  156.3  0.0478   69.7  0.9806  -19.1
 1.320  0.9724  -24.5   2.029  155.9  0.0485   69.3  0.9799  -19.4
 1.340  0.9718  -24.9   2.029  155.5  0.0493   69.0  0.9793  -19.7
 1.360  0.9712  -25.3   2.029  155.1  0.0500   68.6  0.9787  -20.0
 1.380  0.9707  -25.7   2.030  154.7  0.0508   68.3  0.9781  -20.3
 1.400  0.9702  -26.1   2.030  154.3  0.0515   68.0  0.9775  -20.6
 1.420  0.9695  -26.5   2.031  153.9  0.0522   67.6  0.9768  -20.9
 1.440  0.9688  -26.9   2.032  153.5  0.0530   67.2  0.9760  -21.2
 1.460  0.9682  -27.2   2.033  153.1  0.0537   66.9  0.9754  -21.6
 1.480  0.9676  -27.6   2.035  152.7  0.0545   66.5  0.9747  -21.9
 1.500  0.9670  -28.0   2.036  152.3  0.0552   66.2  0.9741  -22.2
 1.520  0.9663  -28.4   2.038  151.9  0.0559   65.8  0.9734  -22.5
 1.540  0.9657  -28.8   2.040  151.5  0.0566   65.5  0.9728  -22.8
 1.560  0.9651  -29.2   2.042  151.0  0.0573   65.2  0.9721  -23.2
 1.580  0.9645  -29.6   2.045  150.6  0.0580   64.8  0.9716  -23.5
 1.600  0.9640  -30.0   2.047  150.2  0.0587   64.5  0.9710  -23.8
 1.620  0.9631  -30.4   2.050  149.8  0.0594   64.1  0.9703  -24.1
 1.640  0.9623  -30.8   2.053  149.3  0.0602   63.7  0.9695  -24.4
 1.660  0.9615  -31.3   2.056  148.9  0.0609   63.3  0.9689  -24.8
 1.680  0.9608  -31.7   2.059  148.4  0.0617   63.0  0.9682  -25.1
 1.700  0.9601  -32.1   2.062  148.0  0.0624   62.6  0.9676  -25.4
 1.720  0.9594  -32.5   2.061  147.6  0.0631   62.2  0.9670  -25.7
 1.740  0.9587  -32.9   2.059  147.2  0.0638   61.9  0.9663  -26.0
 1.760  0.9581  -33.2   2.058  146.8  0.0645   61.5  0.9658  -26.4
 1.780  0.9575  -33.6   2.057  146.4  0.0652   61.1  0.9652  -26.7
 1.800  0.9569  -34.0   2.056  146.0  0.0659   60.8  0.9647  -27.0
 1.820  0.9559  -34.4   2.055  145.6  0.0666   60.4  0.9639  -27.3
 1.840  0.9550  -34.8   2.054  145.2  0.0673   60.0  0.9631  -27.6
 1.860  0.9541  -35.2   2.053  144.7  0.0680   59.6  0.9623  -28.0
 1.880  0.9533  -35.6   2.053  144.3  0.0687   59.3  0.9616  -28.3
 1.900  0.9525  -36.0   2.052  143.9  0.0694   58.9  0.9609  -28.6
 1.920  0.9519  -36.4   2.051  143.5  0.0701   58.5  0.9600  -28.9
 1.940  0.9513  -36.8   2.050  143.1  0.0707   58.2  0.9592  -29.2
 1.960  0.9507  -37.2   2.049  142.6  0.0714   57.9  0.9584  -29.5
 1.980  0.9502  -37.6   2.049  142.2  0.0720   57.5  0.9576  -29.8
 2.000  0.9498  -38.0   2.048  141.8  0.0727   57.2  0.9568  -30.1
 2.020  0.9489  -38.4   2.047  141.4  0.0733   56.8  0.9560  -30.4
 2.040  0.9481  -38.8   2.046  141.0  0.0740   56.4  0.9552  -30.7
 2.060  0.9473  -39.2   2.045  140.5  0.0746   56.0  0.9545  -31.1
 2.080  0.9465  -39.6   2.044  140.1  0.0753   55.6  0.9538  -31.4
 2.100  0.9458  -39.9   2.044  139.7  0.0760   55.2  0.9531  -31.7
 2.120  0.9451  -40.3   2.043  139.3  0.0766   54.8  0.9524  -32.0
 2.140  0.9445  -40.7   2.043  138.9  0.0773   54.5  0.9518  -32.3
 2.160  0.9439  -41.1   2.042  138.4  0.0780   54.1  0.9512  -32.7
 2.180  0.9434  -41.5   2.042  138.0  0.0786   53.8  0.9506  -33.0
 2.200  0.9429  -41.9   2.042  137.6  0.0793   53.4  0.9501  -33.3
 2.220  0.9420  -42.3   2.039  137.2  0.0799   53.0  0.9493  -33.6
 2.240  0.9411  -42.7   2.036  136.8  0.0805   52.6  0.9485  -33.9
 2.260  0.9403  -43.0   2.033  136.4  0.0811   52.3  0.9477  -34.2
 2.280  0.9395  -43.4   2.031  136.0  0.0817   51.9  0.9470  -34.5
 2.300  0.9388  -43.8   2.028  135.6  0.0824   51.5  0.9463  -34.8
 2.320  0.9381  -44.2   2.026  135.2  0.0830   51.2  0.9456  -35.1
 2.340  0.9374  -44.6   2.023  134.7  0.0836   50.8  0.9449  -35.4
 2.360  0.9368  -44.9   2.021  134.3  0.0842   50.5  0.9443  -35.7
 2.380  0.9362  -45.3   2.019  133.9  0.0849   50.1  0.9437  -36.0
 2.400  0.9357  -45.7   2.017  133.5  0.0855   49.8  0.9431  -36.3
 2.420  0.9349  -46.1   2.015  133.1  0.0861   49.4  0.9423  -36.6
 2.440  0.9341  -46.4   2.013  132.7  0.0866   49.0  0.9415  -36.9
 2.460  0.9333  -46.8   2.011  132.3  0.0872   48.6  0.9407  -37.2
 2.480  0.9326  -47.2   2.009  131.9  0.0877   48.3  0.9400  -37.5
 2.500  0.9319  -47.5   2.007  131.5  0.0883   47.9  0.9392  -37.7
 2.520  0.9313  -47.9   2.005  131.0  0.0889   47.5  0.9386  -38.0
 2.540  0.9307  -48.3   2.003  130.6  0.0895   47.2  0.9379  -38.3
 2.560  0.9301  -48.7   2.002  130.2  0.0900   46.8  0.9372  -38.6
 2.580  0.9296  -49.0   2.000  129.8  0.0906   46.4  0.9366  -38.9
 2.600  0.9291  -49.4   1.999  129.4  0.0912   46.1  0.9360  -39.2
 2.620  0.9283  -49.8   1.997  129.0  0.0917   45.7  0.9351  -39.5
 2.640  0.9276  -50.1   1.994  128.6  0.0922   45.4  0.9341  -39.8
 2.660  0.9268  -50.5   1.992  128.2  0.0928   45.0  0.9332  -40.0
 2.680  0.9262  -50.9   1.990  127.8  0.0933   44.7  0.9324  -40.3
 2.700  0.9255  -51.2   1.988  127.5  0.0938   44.3  0.9315  -40.6
 2.720  0.9249  -51.6   1.986  127.1  0.0943   44.0  0.9307  -40.9
 2.740  0.9244  -52.0   1.985  126.7  0.0949   43.6  0.9299  -41.2
 2.760  0.9238  -52.4   1.983  126.3  0.0954   43.3  0.9291  -41.4
 2.780  0.9233  -52.7   1.981  125.9  0.0960   42.9  0.9283  -41.7
 2.800  0.9229  -53.1   1.980  125.5  0.0965   42.6  0.9276  -42.0
 2.820  0.9222  -53.5   1.977  125.1  0.0970   42.3  0.9269  -42.3
 2.840  0.9216  -53.8   1.974  124.7  0.0975   41.9  0.9263  -42.6
 2.860  0.9210  -54.2   1.970  124.4  0.0980   41.6  0.9257  -42.8
 2.880  0.9205  -54.5   1.967  124.0  0.0985   41.2  0.9251  -43.1
 2.900  0.9200  -54.9   1.964  123.6  0.0990   40.9  0.9245  -43.4
 2.920  0.9195  -55.3   1.962  123.2  0.0995   40.6  0.9239  -43.7
 2.940  0.9191  -55.6   1.959  122.9  0.1000   40.3  0.9234  -44.0
 2.960  0.9187  -56.0   1.956  122.5  0.1006   39.9  0.9229  -44.2
 2.980  0.9183  -56.3   1.954  122.1  0.1011   39.6  0.9224  -44.5
 3.000  0.9180  -56.7   1.951  121.7  0.1016   39.3  0.9219  -44.8
 3.100  0.9132  -58.3   1.935  119.8  0.1036   37.5  0.9175  -46.0
 3.200  0.9092  -59.9   1.920  117.9  0.1057   35.8  0.9135  -47.2
 3.300  0.9059  -61.6   1.908  116.0  0.1079   34.1  0.9098  -48.4
 3.400  0.9033  -63.2   1.899  114.0  0.1101   32.5  0.9066  -49.6
 3.500  0.9015  -64.9   1.891  112.0  0.1125   31.0  0.9038  -50.8
 3.600  0.8974  -66.4   1.872  110.3  0.1141   29.4  0.8999  -51.8
 3.700  0.8939  -67.9   1.854  108.6  0.1158   27.8  0.8963  -52.7
 3.800  0.8911  -69.4   1.838  106.9  0.1176   26.3  0.8930  -53.7
 3.900  0.8888  -70.9   1.824  105.1  0.1195   24.8  0.8899  -54.7
 4.000  0.8872  -72.4   1.811  103.3  0.1214   23.4  0.8871  -55.7
 4.100  0.8841  -73.8   1.796  101.7  0.1228   22.0  0.8837  -56.6
 4.200  0.8815  -75.1   1.782  100.1  0.1242   20.5  0.8806  -57.4
 4.300  0.8794  -76.5   1.769   98.4  0.1257   19.2  0.8776  -58.3
 4.400  0.8778  -77.9   1.758   96.8  0.1273   17.8  0.8748  -59.2
 4.500  0.8767  -79.3   1.749   95.1  0.1290   16.5  0.8723  -60.1
 4.600  0.8736  -80.6   1.738   93.6  0.1301   15.1  0.8685  -61.0
 4.700  0.8710  -81.9   1.728   92.1  0.1314   13.7  0.8650  -61.9
 4.800  0.8688  -83.2   1.719   90.5  0.1327   12.3  0.8616  -62.8
 4.900  0.8671  -84.6   1.712   89.0  0.1340   10.9  0.8585  -63.7
 5.000  0.8658  -85.9   1.706   87.4  0.1355    9.6  0.8556  -64.6
 5.100  0.8617  -87.1   1.694   85.9  0.1366    8.3  0.8518  -65.4
 5.200  0.8580  -88.3   1.684   84.3  0.1377    6.9  0.8481  -66.3
 5.300  0.8547  -89.5   1.675   82.7  0.1389    5.6  0.8446  -67.2
 5.400  0.8518  -90.8   1.667   81.1  0.1402    4.4  0.8414  -68.0
 5.500  0.8493  -92.0   1.661   79.5  0.1416    3.1  0.8383  -68.9
 5.600  0.8460  -93.2   1.652   78.0  0.1424    1.8  0.8347  -69.9
 5.700  0.8430  -94.4   1.644   76.5  0.1433    0.5  0.8313  -70.8
 5.800  0.8404  -95.6   1.638   75.0  0.1443   -0.8  0.8281  -71.8
 5.900  0.8382  -96.9   1.632   73.4  0.1453   -2.1  0.8253  -72.8
 6.000  0.8364  -98.1   1.628   71.9  0.1464   -3.3  0.8226  -73.8
 6.100  0.8312  -99.6   1.625   70.3  0.1473   -4.7  0.8183  -75.0
 6.200  0.8265 -101.2   1.623   68.8  0.1482   -6.0  0.8143  -76.2
 6.300  0.8225 -102.7   1.622   67.2  0.1493   -7.4  0.8107  -77.4
 6.400  0.8191 -104.3   1.622   65.7  0.1504   -8.7  0.8075  -78.6
 6.500  0.8163 -105.9   1.624   64.1  0.1516  -10.0  0.8046  -79.8
 6.600  0.8080 -107.7   1.618   62.4  0.1522  -11.5  0.7981  -81.2
 6.800  0.7939 -111.5   1.612   59.0  0.1538  -14.4  0.7865  -84.0
 7.000  0.7833 -115.4   1.611   55.5  0.1558  -17.3  0.7769  -86.9
 7.200  0.7624 -120.1   1.598   52.0  0.1563  -20.4  0.7577  -90.3
 7.400  0.7470 -125.1   1.591   48.4  0.1572  -23.4  0.7412  -93.8
 7.600  0.7306 -130.5   1.584   44.8  0.1580  -26.5  0.7242  -97.5
 7.800  0.7151 -136.6   1.578   41.0  0.1586  -29.7  0.7073 -101.6
 8.000  0.7079 -142.9   1.578   37.3  0.1598  -32.8  0.6941 -105.8
 8.200  0.6902 -150.8   1.563   33.1  0.1589  -36.5  0.6726 -111.3
 8.400  0.6860 -158.9   1.556   28.9  0.1587  -40.2  0.6575 -117.0
 8.600  0.6813 -167.4   1.537   24.6  0.1570  -43.9  0.6396 -123.3
 8.800  0.6787 -176.5   1.505   20.0  0.1539  -47.9  0.6202 -130.3
 9.000  0.6931  174.5   1.483   15.3  0.1516  -52.1  0.6106 -137.6
 9.200  0.6916  169.0   1.432   11.2  0.1465  -55.6  0.5908 -144.6
 9.400  0.6964  163.5   1.389    6.8  0.1419  -59.3  0.5805 -152.0
 9.600  0.7042  158.5   1.344    2.7  0.1368  -62.7  0.5746 -159.3
 9.800  0.7134  154.0   1.295   -1.2  0.1310  -65.8  0.5723 -166.3
10.000  0.7270  149.6   1.252   -5.4  0.1256  -69.3  0.5786 -173.3
!
!  f       NFmin   Gammaopt  rn/50
! GHz       dB    MAG  ANG    -
 0.450      0.54  0.90    6   0.96
 0.900      0.77  0.88   13   1.01
 2.400      1.03  0.86   32   0.70
 5.500      1.54  0.73   97   0.46
!
! (c) 2016  Infineon Technologies AG, Munich
