! Infineon Technologies  Discrete & RF Semiconductors
! BFP750
! VCE =  2.5 V,  IC =  50 mA
! Common Emitter S-Parameters:                            Jan 2016
# GHz  S  MA  R  50
!  f         S11            S21            S12            S22
! GHz     MAG   ANG      MAG   ANG      MAG   ANG      MAG   ANG
 0.030  0.6638  -15.1  67.631  172.8  0.0040   83.7  0.9789   -9.5
 0.035  0.6631  -17.4  67.504  171.6  0.0047   82.9  0.9778  -11.2
 0.040  0.6636  -19.8  67.409  170.3  0.0054   82.3  0.9775  -12.9
 0.045  0.6622  -22.3  67.345  168.9  0.0059   80.3  0.9754  -14.7
 0.050  0.6620  -24.8  67.321  167.5  0.0064   78.7  0.9742  -16.5
 0.055  0.6622  -27.3  67.036  166.5  0.0071   78.3  0.9712  -18.1
 0.060  0.6637  -29.8  66.771  165.5  0.0078   78.0  0.9691  -19.8
 0.065  0.6637  -32.2  66.398  164.2  0.0084   76.1  0.9650  -21.5
 0.070  0.6648  -34.6  66.059  162.9  0.0091   74.4  0.9617  -23.2
 0.075  0.6672  -36.9  65.760  161.9  0.0097   73.8  0.9578  -24.9
 0.080  0.6707  -39.2  65.481  160.9  0.0103   73.2  0.9547  -26.6
 0.085  0.6695  -41.4  64.965  159.8  0.0108   72.3  0.9498  -28.2
 0.090  0.6693  -43.7  64.476  158.6  0.0114   71.4  0.9457  -29.8
 0.095  0.6702  -45.9  64.066  157.5  0.0120   70.4  0.9404  -31.4
 0.100  0.6720  -48.1  63.680  156.4  0.0126   69.5  0.9358  -33.0
 0.105  0.6730  -50.1  63.194  155.4  0.0131   68.5  0.9304  -34.5
 0.110  0.6747  -52.0  62.730  154.3  0.0136   67.5  0.9256  -36.1
 0.115  0.6738  -54.1  62.229  153.3  0.0141   66.5  0.9199  -37.6
 0.120  0.6739  -56.2  61.749  152.2  0.0146   65.6  0.9148  -39.1
 0.125  0.6766  -58.1  61.239  151.3  0.0151   64.9  0.9089  -40.6
 0.130  0.6801  -59.9  60.745  150.3  0.0156   64.2  0.9036  -42.1
 0.135  0.6791  -61.9  60.242  149.3  0.0160   63.3  0.8975  -43.5
 0.140  0.6789  -63.9  59.757  148.3  0.0165   62.5  0.8919  -45.0
 0.145  0.6796  -65.9  59.274  147.3  0.0169   61.6  0.8857  -46.4
 0.150  0.6811  -67.9  58.809  146.3  0.0174   60.8  0.8801  -47.8
 0.155  0.6795  -69.6  58.207  145.5  0.0178   60.0  0.8721  -49.0
 0.160  0.6785  -71.3  57.617  144.7  0.0181   59.2  0.8646  -50.3
 0.165  0.6781  -72.9  57.038  143.9  0.0185   58.4  0.8574  -51.5
 0.170  0.6783  -74.6  56.471  143.0  0.0188   57.7  0.8507  -52.8
 0.175  0.6790  -76.3  55.917  142.2  0.0192   57.0  0.8444  -54.1
 0.180  0.6804  -78.0  55.376  141.3  0.0196   56.3  0.8386  -55.4
 0.185  0.6823  -79.7  54.848  140.4  0.0200   55.7  0.8332  -56.8
 0.190  0.6848  -81.3  54.334  139.5  0.0203   55.1  0.8282  -58.1
 0.195  0.6879  -83.0  53.834  138.5  0.0207   54.5  0.8238  -59.5
 0.200  0.6915  -84.6  53.348  137.6  0.0211   53.9  0.8198  -60.9
 0.220  0.6904  -89.9  51.234  135.0  0.0222   51.4  0.7937  -65.3
 0.240  0.6953  -95.2  49.238  132.1  0.0233   49.2  0.7726  -70.0
 0.260  0.6989 -100.1  47.310  129.5  0.0243   47.2  0.7523  -74.3
 0.280  0.7003 -104.7  45.413  127.0  0.0252   45.4  0.7315  -78.2
 0.300  0.7063 -109.3  43.604  124.4  0.0261   43.7  0.7144  -82.4
 0.320  0.7056 -112.9  41.912  122.5  0.0267   42.1  0.6956  -85.8
 0.340  0.7078 -116.6  40.268  120.5  0.0274   40.6  0.6795  -89.4
 0.360  0.7098 -119.9  38.745  118.6  0.0279   39.3  0.6647  -92.8
 0.380  0.7112 -123.0  37.326  116.8  0.0284   38.1  0.6504  -95.8
 0.400  0.7147 -126.1  35.945  114.9  0.0289   37.0  0.6380  -99.0
 0.420  0.7147 -128.7  34.707  113.5  0.0293   36.1  0.6256 -101.7
 0.440  0.7163 -131.4  33.491  112.0  0.0298   35.1  0.6146 -104.6
 0.450  0.7176 -132.7  32.892  111.2  0.0300   34.7  0.6097 -106.0
 0.460  0.7179 -133.8  32.351  110.6  0.0302   34.3  0.6044 -107.2
 0.480  0.7193 -136.1  31.281  109.3  0.0305   33.5  0.5948 -109.7
 0.500  0.7218 -138.3  30.228  107.9  0.0308   32.7  0.5862 -112.2
 0.520  0.7213 -140.1  29.349  106.9  0.0311   32.1  0.5777 -114.2
 0.540  0.7215 -142.0  28.479  105.9  0.0313   31.6  0.5699 -116.3
 0.560  0.7224 -143.8  27.619  104.8  0.0316   31.0  0.5629 -118.5
 0.580  0.7241 -145.6  26.770  103.6  0.0318   30.4  0.5567 -120.7
 0.600  0.7265 -147.4  25.932  102.4  0.0321   29.9  0.5513 -122.9
 0.620  0.7262 -148.9  25.261  101.6  0.0323   29.5  0.5456 -124.6
 0.640  0.7264 -150.3  24.595  100.8  0.0325   29.1  0.5405 -126.3
 0.660  0.7271 -151.8  23.934   99.9  0.0328   28.7  0.5358 -128.0
 0.680  0.7283 -153.2  23.279   99.0  0.0330   28.4  0.5316 -129.8
 0.700  0.7299 -154.7  22.631   98.0  0.0332   28.0  0.5279 -131.6
 0.720  0.7300 -155.9  22.104   97.3  0.0334   27.7  0.5240 -133.0
 0.740  0.7304 -157.1  21.581   96.5  0.0335   27.4  0.5205 -134.5
 0.760  0.7312 -158.3  21.062   95.7  0.0337   27.2  0.5173 -136.0
 0.780  0.7322 -159.5  20.547   94.9  0.0338   26.9  0.5144 -137.5
 0.800  0.7336 -160.7  20.037   94.0  0.0340   26.6  0.5119 -139.0
 0.820  0.7339 -161.7  19.617   93.4  0.0342   26.4  0.5093 -140.2
 0.840  0.7345 -162.7  19.200   92.8  0.0344   26.3  0.5069 -141.5
 0.860  0.7352 -163.6  18.785   92.2  0.0345   26.1  0.5048 -142.7
 0.880  0.7362 -164.6  18.372   91.5  0.0347   26.0  0.5029 -144.0
 0.900  0.7374 -165.6  17.962   90.8  0.0349   25.8  0.5013 -145.3
 0.920  0.7376 -166.5  17.612   90.2  0.0350   25.6  0.4994 -146.4
 0.940  0.7379 -167.4  17.264   89.6  0.0352   25.5  0.4977 -147.5
 0.960  0.7384 -168.3  16.917   89.0  0.0353   25.3  0.4962 -148.6
 0.980  0.7391 -169.2  16.573   88.4  0.0355   25.2  0.4949 -149.7
 1.000  0.7400 -170.1  16.231   87.7  0.0356   25.0  0.4937 -150.8
 1.020  0.7404 -170.9  15.951   87.2  0.0358   24.9  0.4924 -151.8
 1.040  0.7409 -171.6  15.672   86.6  0.0359   24.8  0.4913 -152.7
 1.060  0.7415 -172.4  15.395   86.1  0.0361   24.7  0.4903 -153.7
 1.080  0.7423 -173.1  15.119   85.5  0.0362   24.6  0.4895 -154.6
 1.100  0.7432 -173.9  14.845   84.9  0.0364   24.5  0.4888 -155.6
 1.120  0.7436 -174.6  14.599   84.4  0.0366   24.4  0.4880 -156.5
 1.140  0.7440 -175.3  14.354   83.9  0.0367   24.3  0.4873 -157.4
 1.160  0.7446 -176.1  14.110   83.4  0.0369   24.3  0.4867 -158.2
 1.180  0.7454 -176.8  13.867   82.9  0.0370   24.2  0.4862 -159.1
 1.200  0.7462 -177.5  13.626   82.3  0.0372   24.1  0.4859 -160.0
 1.220  0.7465 -178.2  13.421   81.8  0.0373   24.0  0.4853 -160.8
 1.240  0.7468 -178.8  13.218   81.3  0.0375   24.0  0.4847 -161.5
 1.260  0.7473 -179.5  13.015   80.8  0.0376   23.9  0.4843 -162.3
 1.280  0.7478  179.9  12.814   80.3  0.0378   23.9  0.4839 -163.0
 1.300  0.7485  179.2  12.613   79.8  0.0379   23.8  0.4836 -163.8
 1.320  0.7490  178.6  12.432   79.3  0.0380   23.8  0.4833 -164.5
 1.340  0.7495  178.0  12.251   78.9  0.0382   23.7  0.4830 -165.2
 1.360  0.7501  177.4  12.071   78.4  0.0383   23.7  0.4828 -165.9
 1.380  0.7508  176.8  11.892   77.9  0.0385   23.6  0.4827 -166.6
 1.400  0.7516  176.2  11.714   77.4  0.0386   23.6  0.4826 -167.3
 1.420  0.7519  175.7  11.561   77.0  0.0388   23.5  0.4824 -168.0
 1.440  0.7523  175.1  11.408   76.6  0.0389   23.5  0.4822 -168.6
 1.460  0.7528  174.6  11.256   76.1  0.0391   23.4  0.4821 -169.3
 1.480  0.7533  174.0  11.105   75.7  0.0392   23.4  0.4821 -169.9
 1.500  0.7539  173.5  10.954   75.2  0.0394   23.3  0.4821 -170.6
 1.520  0.7542  173.0  10.815   74.8  0.0396   23.3  0.4820 -171.2
 1.540  0.7546  172.5  10.677   74.4  0.0397   23.2  0.4820 -171.8
 1.560  0.7550  171.9  10.540   73.9  0.0399   23.2  0.4820 -172.3
 1.580  0.7555  171.4  10.403   73.5  0.0400   23.1  0.4821 -172.9
 1.600  0.7561  170.9  10.267   73.0  0.0402   23.1  0.4822 -173.5
 1.620  0.7565  170.4  10.146   72.6  0.0404   23.1  0.4821 -174.1
 1.640  0.7570  169.9  10.025   72.2  0.0405   23.0  0.4821 -174.7
 1.660  0.7575  169.3   9.905   71.7  0.0407   23.0  0.4822 -175.2
 1.680  0.7581  168.8   9.786   71.3  0.0408   22.9  0.4823 -175.8
 1.700  0.7588  168.3   9.667   70.8  0.0410   22.9  0.4824 -176.4
 1.720  0.7591  167.8   9.555   70.4  0.0411   22.8  0.4824 -176.9
 1.740  0.7595  167.4   9.443   70.0  0.0413   22.8  0.4824 -177.5
 1.760  0.7599  166.9   9.332   69.6  0.0414   22.7  0.4824 -178.0
 1.780  0.7603  166.5   9.222   69.1  0.0416   22.7  0.4825 -178.6
 1.800  0.7608  166.0   9.112   68.7  0.0417   22.6  0.4826 -179.1
 1.820  0.7611  165.5   9.012   68.3  0.0419   22.6  0.4828 -179.6
 1.840  0.7614  165.0   8.912   67.9  0.0420   22.5  0.4830  179.9
 1.860  0.7617  164.6   8.813   67.5  0.0422   22.5  0.4832  179.3
 1.880  0.7621  164.1   8.714   67.0  0.0423   22.4  0.4835  178.8
 1.900  0.7626  163.6   8.616   66.6  0.0425   22.4  0.4838  178.3
 1.920  0.7629  163.2   8.527   66.2  0.0427   22.3  0.4838  177.8
 1.940  0.7633  162.7   8.439   65.8  0.0428   22.3  0.4839  177.3
 1.960  0.7637  162.3   8.351   65.4  0.0430   22.2  0.4839  176.9
 1.980  0.7642  161.8   8.264   65.0  0.0431   22.2  0.4841  176.4
 2.000  0.7647  161.4   8.177   64.6  0.0433   22.1  0.4842  175.9
 2.020  0.7647  161.0   8.097   64.2  0.0434   22.0  0.4843  175.4
 2.040  0.7648  160.5   8.018   63.9  0.0436   22.0  0.4844  175.0
 2.060  0.7649  160.1   7.939   63.5  0.0437   21.9  0.4845  174.5
 2.080  0.7650  159.6   7.861   63.1  0.0439   21.9  0.4847  174.0
 2.100  0.7652  159.2   7.783   62.7  0.0440   21.8  0.4849  173.5
 2.120  0.7655  158.8   7.705   62.3  0.0442   21.7  0.4851  173.1
 2.140  0.7658  158.3   7.628   61.9  0.0443   21.7  0.4854  172.6
 2.160  0.7661  157.9   7.551   61.5  0.0445   21.6  0.4857  172.1
 2.180  0.7665  157.4   7.474   61.0  0.0446   21.6  0.4860  171.7
 2.200  0.7669  157.0   7.398   60.6  0.0448   21.5  0.4864  171.2
 2.220  0.7670  156.6   7.330   60.3  0.0450   21.4  0.4866  170.7
 2.240  0.7672  156.2   7.262   59.9  0.0451   21.4  0.4867  170.3
 2.260  0.7673  155.8   7.195   59.6  0.0453   21.3  0.4870  169.8
 2.280  0.7676  155.4   7.128   59.2  0.0454   21.2  0.4872  169.4
 2.300  0.7678  155.0   7.061   58.8  0.0456   21.1  0.4875  168.9
 2.320  0.7681  154.6   6.994   58.5  0.0458   21.1  0.4878  168.4
 2.340  0.7685  154.2   6.928   58.1  0.0459   21.0  0.4882  168.0
 2.360  0.7688  153.8   6.862   57.7  0.0461   20.9  0.4885  167.5
 2.380  0.7693  153.4   6.796   57.3  0.0462   20.9  0.4890  167.1
 2.400  0.7697  153.0   6.731   56.9  0.0464   20.8  0.4894  166.6
 2.420  0.7697  152.6   6.673   56.6  0.0465   20.7  0.4897  166.2
 2.440  0.7697  152.2   6.615   56.2  0.0467   20.7  0.4900  165.8
 2.460  0.7698  151.9   6.557   55.9  0.0468   20.6  0.4904  165.3
 2.480  0.7699  151.5   6.500   55.5  0.0470   20.6  0.4907  164.9
 2.500  0.7700  151.1   6.442   55.2  0.0471   20.5  0.4911  164.5
 2.520  0.7701  150.7   6.385   54.8  0.0472   20.4  0.4915  164.1
 2.540  0.7703  150.3   6.329   54.4  0.0474   20.4  0.4920  163.7
 2.560  0.7705  150.0   6.272   54.1  0.0475   20.3  0.4925  163.2
 2.580  0.7708  149.6   6.216   53.7  0.0477   20.3  0.4930  162.8
 2.600  0.7711  149.2   6.160   53.3  0.0478   20.2  0.4935  162.4
 2.620  0.7713  148.8   6.111   53.0  0.0480   20.1  0.4939  162.0
 2.640  0.7716  148.5   6.063   52.6  0.0481   20.1  0.4943  161.6
 2.660  0.7719  148.1   6.015   52.3  0.0483   20.0  0.4947  161.2
 2.680  0.7723  147.8   5.967   52.0  0.0484   20.0  0.4951  160.8
 2.700  0.7726  147.4   5.919   51.6  0.0486   19.9  0.4956  160.4
 2.720  0.7730  147.0   5.872   51.3  0.0488   19.8  0.4961  160.1
 2.740  0.7734  146.7   5.824   50.9  0.0489   19.8  0.4966  159.7
 2.760  0.7739  146.3   5.777   50.5  0.0491   19.7  0.4972  159.3
 2.780  0.7744  146.0   5.731   50.2  0.0492   19.7  0.4977  158.9
 2.800  0.7749  145.6   5.684   49.8  0.0494   19.6  0.4983  158.5
 2.820  0.7752  145.2   5.641   49.5  0.0496   19.5  0.4987  158.1
 2.840  0.7755  144.9   5.598   49.1  0.0497   19.4  0.4992  157.8
 2.860  0.7758  144.5   5.556   48.8  0.0499   19.4  0.4997  157.4
 2.880  0.7762  144.2   5.514   48.5  0.0500   19.3  0.5002  157.0
 2.900  0.7766  143.8   5.471   48.1  0.0502   19.2  0.5007  156.6
 2.920  0.7770  143.4   5.430   47.8  0.0504   19.1  0.5012  156.3
 2.940  0.7774  143.1   5.388   47.4  0.0505   19.0  0.5018  155.9
 2.960  0.7779  142.7   5.346   47.0  0.0507   19.0  0.5024  155.5
 2.980  0.7785  142.4   5.305   46.7  0.0508   18.9  0.5030  155.2
 3.000  0.7790  142.0   5.264   46.3  0.0510   18.8  0.5036  154.8
 3.100  0.7800  140.2   5.083   44.8  0.0517   18.3  0.5064  153.1
 3.200  0.7818  138.5   4.905   43.2  0.0525   17.7  0.5096  151.5
 3.300  0.7843  136.7   4.731   41.5  0.0532   17.2  0.5132  149.9
 3.400  0.7875  135.0   4.562   39.7  0.0540   16.7  0.5173  148.3
 3.500  0.7914  133.3   4.398   37.7  0.0547   16.2  0.5217  146.7
 3.600  0.7936  131.8   4.258   36.3  0.0553   15.6  0.5258  145.3
 3.700  0.7963  130.3   4.120   34.8  0.0560   15.1  0.5302  143.9
 3.800  0.7996  128.8   3.986   33.2  0.0566   14.5  0.5349  142.5
 3.900  0.8034  127.3   3.855   31.5  0.0573   14.0  0.5399  141.1
 4.000  0.8078  125.8   3.727   29.7  0.0579   13.5  0.5452  139.8
 4.100  0.8096  124.5   3.618   28.4  0.0585   13.0  0.5494  138.6
 4.200  0.8119  123.3   3.512   27.1  0.0591   12.5  0.5538  137.4
 4.300  0.8145  122.1   3.407   25.6  0.0597   12.0  0.5584  136.3
 4.400  0.8174  120.8   3.305   24.1  0.0604   11.5  0.5633  135.1
 4.500  0.8208  119.6   3.205   22.5  0.0610   11.0  0.5684  134.0
 4.600  0.8215  118.5   3.121   21.3  0.0616   10.5  0.5708  133.0
 4.700  0.8224  117.4   3.039   20.0  0.0623    9.9  0.5734  132.0
 4.800  0.8237  116.3   2.958   18.6  0.0630    9.4  0.5761  131.0
 4.900  0.8253  115.2   2.879   17.1  0.0636    8.9  0.5790  130.0
 5.000  0.8272  114.1   2.802   15.6  0.0643    8.4  0.5821  129.0
 5.100  0.8264  113.0   2.732   14.4  0.0649    7.8  0.5827  127.8
 5.200  0.8260  111.9   2.664   13.1  0.0655    7.1  0.5836  126.7
 5.300  0.8259  110.7   2.597   11.7  0.0661    6.5  0.5847  125.5
 5.400  0.8261  109.6   2.532   10.3  0.0668    5.9  0.5861  124.4
 5.500  0.8266  108.5   2.468    8.8  0.0674    5.3  0.5877  123.2
 5.600  0.8267  107.6   2.413    7.7  0.0680    4.7  0.5887  121.9
 5.700  0.8269  106.7   2.360    6.5  0.0687    4.2  0.5899  120.7
 5.800  0.8274  105.7   2.307    5.2  0.0693    3.7  0.5915  119.5
 5.900  0.8281  104.8   2.255    4.0  0.0699    3.1  0.5933  118.2
 6.000  0.8290  103.9   2.205    2.6  0.0706    2.6  0.5954  117.0
 6.100  0.8308  103.0   2.165    1.4  0.0713    1.9  0.5979  116.0
 6.200  0.8328  102.2   2.125    0.2  0.0720    1.2  0.6005  115.0
 6.300  0.8350  101.3   2.087   -1.0  0.0728    0.5  0.6033  114.0
 6.400  0.8373  100.5   2.049   -2.3  0.0735   -0.2  0.6063  113.1
 6.500  0.8399   99.6   2.013   -3.7  0.0743   -0.9  0.6095  112.1
 6.600  0.8420   98.6   1.978   -5.0  0.0750   -1.8  0.6125  111.3
 6.800  0.8471   96.5   1.910   -7.8  0.0765   -3.4  0.6190  109.6
 7.000  0.8533   94.5   1.848  -10.8  0.0781   -5.0  0.6259  108.0
 7.200  0.8567   92.1   1.777  -13.7  0.0790   -7.0  0.6337  106.0
 7.400  0.8615   89.8   1.710  -16.8  0.0801   -9.0  0.6423  104.1
 7.600  0.8656   87.4   1.642  -19.8  0.0808  -11.0  0.6513  101.8
 7.800  0.8689   84.9   1.571  -22.6  0.0812  -12.9  0.6610   99.3
 8.000  0.8739   82.4   1.504  -25.7  0.0817  -14.8  0.6720   96.9
 8.200  0.8759   80.0   1.437  -28.2  0.0817  -16.6  0.6790   94.3
 8.400  0.8795   77.6   1.374  -30.9  0.0817  -18.5  0.6874   91.7
 8.600  0.8823   75.2   1.313  -33.5  0.0815  -20.3  0.6938   89.0
 8.800  0.8844   72.8   1.253  -35.8  0.0811  -22.1  0.6984   86.4
 9.000  0.8880   70.5   1.196  -38.4  0.0807  -23.9  0.7045   83.7
 9.200  0.8924   68.5   1.139  -40.4  0.0798  -25.3  0.7118   81.5
 9.400  0.8978   66.6   1.084  -42.5  0.0790  -26.7  0.7201   79.3
 9.600  0.9043   65.1   1.036  -44.4  0.0782  -27.9  0.7325   77.5
 9.800  0.9115   64.0   0.995  -45.8  0.0775  -28.8  0.7484   76.1
10.000  0.9189   62.9   0.955  -47.4  0.0768  -29.8  0.7648   74.7
!
!  f       NFmin   Gammaopt  rn/50
! GHz       dB    MAG  ANG    -
 0.450      1.04  0.18 -167   0.47
 0.900      1.06  0.23 -161   0.24
 1.500      1.08  0.34 -155   0.09
 1.900      1.09  0.36 -150   0.08
 2.400      1.10  0.37 -143   0.09
 3.500      1.33  0.38 -128   0.10
!
! (c) 2016  Infineon Technologies AG, Munich
