! Infineon Technologies  Discrete & RF Semiconductors
! BFP740F
! VCE =  4.0 V,  IC =  4.0 mA
! Common Emitter S-Parameters:                            Oct 2012
# GHz  S  MA  R  50
!  f         S11            S21            S12            S22
! GHz     MAG   ANG      MAG   ANG      MAG   ANG      MAG   ANG
 0.030  0.9608   -1.5  12.302  177.9  0.0015   78.2  0.9952   -1.0
 0.040  0.9613   -2.1  12.298  177.6  0.0019   74.4  0.9947   -1.3
 0.050  0.9600   -2.5  12.410  177.4  0.0017   87.2  0.9943   -1.7
 0.060  0.9593   -3.0  12.363  177.1  0.0030   81.5  0.9954   -1.9
 0.070  0.9598   -3.5  12.394  176.7  0.0034   71.4  0.9948   -2.3
 0.080  0.9608   -4.0  12.354  176.4  0.0039   85.0  0.9946   -2.6
 0.090  0.9596   -4.5  12.370  175.9  0.0041   78.3  0.9951   -3.0
 0.100  0.9595   -5.0  12.360  175.6  0.0049   79.3  0.9942   -3.3
 0.110  0.9594   -5.5  12.323  175.2  0.0060   80.0  0.9940   -3.6
 0.120  0.9586   -6.0  12.336  174.8  0.0061   83.4  0.9937   -4.0
 0.130  0.9588   -6.5  12.242  174.4  0.0064   83.4  0.9930   -4.3
 0.140  0.9585   -7.0  12.266  174.1  0.0071   81.6  0.9927   -4.7
 0.150  0.9589   -7.5  12.210  173.7  0.0074   82.2  0.9923   -5.0
 0.200  0.9565  -10.0  12.171  171.9  0.0102   81.0  0.9905   -6.6
 0.250  0.9545  -12.4  12.097  170.2  0.0125   81.0  0.9879   -8.2
 0.300  0.9521  -14.8  12.057  168.4  0.0150   79.2  0.9853   -9.9
 0.350  0.9497  -17.3  12.006  166.8  0.0177   78.3  0.9821  -11.5
 0.400  0.9474  -19.8  11.988  165.1  0.0200   76.5  0.9774  -13.1
 0.450  0.9450  -22.1  11.889  163.4  0.0226   75.3  0.9744  -14.7
 0.500  0.9419  -24.6  11.865  161.8  0.0248   73.9  0.9692  -16.3
 0.600  0.9350  -29.4  11.727  158.4  0.0297   71.1  0.9588  -19.5
 0.700  0.9279  -34.1  11.610  155.2  0.0342   68.2  0.9473  -22.7
 0.800  0.9187  -39.0  11.554  151.8  0.0387   65.2  0.9336  -25.8
 0.900  0.9093  -43.7  11.392  148.5  0.0429   62.4  0.9185  -28.9
 1.000  0.8995  -48.3  11.171  145.3  0.0469   59.4  0.9023  -32.0
 1.100  0.8883  -52.8  10.982  142.1  0.0507   56.4  0.8844  -35.0
 1.200  0.8767  -57.2  10.754  138.9  0.0541   53.7  0.8667  -38.0
 1.300  0.8649  -61.6  10.573  135.8  0.0574   51.1  0.8477  -40.8
 1.400  0.8542  -65.8  10.330  132.9  0.0603   48.5  0.8297  -43.5
 1.500  0.8417  -70.1  10.158  130.0  0.0630   46.1  0.8102  -46.3
 1.600  0.8293  -74.6  10.044  126.9  0.0655   43.7  0.7924  -48.9
 1.700  0.8181  -78.3   9.765  124.2  0.0680   41.4  0.7749  -51.5
 1.800  0.8093  -82.2   9.545  121.6  0.0700   39.2  0.7578  -54.2
 1.900  0.7995  -85.7   9.282  119.2  0.0721   37.1  0.7414  -56.6
 2.000  0.7904  -89.4   9.083  116.6  0.0739   35.0  0.7255  -59.1
 2.100  0.7823  -93.3   8.865  113.9  0.0756   32.7  0.7099  -61.8
 2.200  0.7731  -96.6   8.650  111.5  0.0769   30.7  0.6948  -64.2
 2.300  0.7647  -99.9   8.432  109.3  0.0782   29.0  0.6812  -66.3
 2.400  0.7564 -102.9   8.211  107.1  0.0794   27.0  0.6689  -68.5
 2.500  0.7488 -105.9   7.997  104.9  0.0805   25.5  0.6567  -70.5
 2.600  0.7421 -108.9   7.810  102.9  0.0812   23.8  0.6441  -72.6
 2.700  0.7353 -111.7   7.623  100.8  0.0821   22.4  0.6334  -74.4
 2.800  0.7295 -114.6   7.452   98.9  0.0826   20.9  0.6225  -76.3
 2.900  0.7234 -117.3   7.273   96.9  0.0834   19.4  0.6138  -78.1
 3.000  0.7183 -119.9   7.112   95.0  0.0839   18.0  0.6040  -79.9
 3.100  0.7123 -122.6   6.964   93.1  0.0845   16.7  0.5965  -81.6
 3.200  0.7071 -125.2   6.818   91.2  0.0847   15.4  0.5872  -83.3
 3.300  0.7038 -127.4   6.649   89.6  0.0853   14.1  0.5811  -84.8
 3.400  0.7002 -129.8   6.509   87.8  0.0854   12.8  0.5727  -86.4
 3.500  0.6967 -131.9   6.352   86.3  0.0858   11.7  0.5669  -87.8
 3.600  0.6934 -134.2   6.223   84.6  0.0859   10.5  0.5601  -89.1
 3.700  0.6910 -136.3   6.090   83.0  0.0861    9.4  0.5538  -90.4
 3.800  0.6884 -138.5   5.970   81.4  0.0862    8.4  0.5468  -91.8
 3.900  0.6867 -140.5   5.847   79.8  0.0864    7.3  0.5419  -93.0
 4.000  0.6835 -142.7   5.729   78.2  0.0864    6.1  0.5349  -94.4
 4.100  0.6830 -144.5   5.614   76.8  0.0866    5.2  0.5300  -95.5
 4.200  0.6805 -146.6   5.505   75.3  0.0864    4.3  0.5235  -96.8
 4.300  0.6796 -148.5   5.399   73.8  0.0864    3.3  0.5179  -98.0
 4.400  0.6780 -150.5   5.299   72.3  0.0862    2.3  0.5123  -99.3
 4.500  0.6776 -152.3   5.200   70.8  0.0863    1.4  0.5078 -100.4
 4.600  0.6765 -154.3   5.114   69.4  0.0860    0.5  0.5014 -101.6
 4.700  0.6762 -156.0   5.014   68.0  0.0861   -0.4  0.4969 -102.8
 4.800  0.6763 -157.9   4.931   66.5  0.0857   -1.3  0.4917 -104.0
 4.900  0.6758 -159.6   4.837   65.1  0.0856   -2.2  0.4874 -105.1
 5.000  0.6754 -161.4   4.761   63.7  0.0852   -3.0  0.4815 -106.3
 5.100  0.6765 -162.9   4.671   62.4  0.0852   -3.9  0.4777 -107.4
 5.200  0.6758 -164.6   4.598   61.0  0.0848   -4.6  0.4727 -108.7
 5.300  0.6759 -166.1   4.518   59.6  0.0846   -5.6  0.4689 -109.8
 5.400  0.6761 -167.7   4.446   58.4  0.0841   -6.3  0.4641 -111.0
 5.500  0.6764 -169.1   4.371   57.0  0.0839   -7.1  0.4609 -112.1
 5.600  0.6761 -170.7   4.303   55.7  0.0835   -7.9  0.4563 -113.1
 5.700  0.6759 -172.1   4.233   54.4  0.0832   -8.7  0.4516 -114.4
 5.800  0.6757 -173.7   4.172   53.0  0.0827   -9.4  0.4480 -115.6
 5.900  0.6758 -175.1   4.105   51.7  0.0822  -10.2  0.4438 -116.6
 6.000  0.6755 -176.7   4.045   50.4  0.0816  -10.9  0.4389 -117.8
 6.100  0.6754 -178.1   3.981   49.0  0.0812  -11.7  0.4352 -119.0
 6.200  0.6748 -179.7   3.932   47.7  0.0805  -12.4  0.4304 -120.2
 6.300  0.6737  178.9   3.861   46.5  0.0799  -13.3  0.4262 -121.3
 6.400  0.6724  177.3   3.809   45.1  0.0790  -13.8  0.4216 -122.5
 6.500  0.6715  175.6   3.747   43.9  0.0784  -14.6  0.4167 -123.5
 6.600  0.6699  174.0   3.695   42.5  0.0777  -15.1  0.4121 -124.6
 6.700  0.6684  172.4   3.630   41.3  0.0769  -15.7  0.4069 -125.6
 6.800  0.6676  170.7   3.585   39.9  0.0760  -16.2  0.4014 -126.8
 6.900  0.6662  169.2   3.524   38.7  0.0752  -16.7  0.3967 -127.7
 7.000  0.6654  167.5   3.476   37.4  0.0743  -17.0  0.3905 -128.8
 7.100  0.6644  166.0   3.421   36.2  0.0735  -17.3  0.3850 -129.9
 7.200  0.6642  164.3   3.375   34.9  0.0726  -17.5  0.3796 -131.2
 7.300  0.6644  162.7   3.322   33.7  0.0721  -17.7  0.3749 -132.4
 7.400  0.6654  161.1   3.279   32.4  0.0714  -17.8  0.3695 -133.8
 7.500  0.6665  159.6   3.232   31.2  0.0709  -17.9  0.3652 -135.2
 7.600  0.6681  157.9   3.188   29.9  0.0704  -18.0  0.3604 -136.8
 7.700  0.6702  156.5   3.140   28.8  0.0701  -18.3  0.3549 -138.5
 7.800  0.6733  154.7   3.102   27.4  0.0696  -18.3  0.3502 -140.5
 7.900  0.6758  153.4   3.053   26.2  0.0693  -18.6  0.3459 -142.4
 8.000  0.6800  151.6   3.013   25.0  0.0690  -18.9  0.3410 -144.7
 8.500  0.7019  144.9   2.801   18.7  0.0670  -20.4  0.3248 -157.4
 9.000  0.7232  139.3   2.602   12.5  0.0645  -21.7  0.3240 -172.2
 9.500  0.7395  135.3   2.406    6.5  0.0616  -22.9  0.3478  173.4
10.000  0.7534  131.3   2.221    0.6  0.0583  -23.3  0.3902  160.6
!
!  f       NFmin   Gammaopt  rn/50
! GHz       dB    MAG  ANG    -
 0.450      0.36  0.43    8   0.21
 0.900      0.42  0.43   14   0.18
 1.500      0.50  0.42   25   0.15
 1.900      0.56  0.41   34   0.14
 2.400      0.63  0.38   43   0.14
 3.500      0.79  0.35   66   0.13
 5.500      1.07  0.25  111   0.22
10.000      1.64  0.44 -130   0.08
!
! (c) 2012  Infineon Technologies AG, Munich
