! Infineon Technologies  Discrete & RF Semiconductors
! BFP740
! VCE =  2.5 V,  IC =  3.0 mA
! Common Emitter S-Parameters:                            Jan 2016
# GHz  S  MA  R  50
!  f         S11            S21            S12            S22
! GHz     MAG   ANG      MAG   ANG      MAG   ANG      MAG   ANG
 0.030  0.9697   -1.3   9.670  178.0  0.0021   78.8  0.9994   -0.9
 0.035  0.9697   -1.6   9.589  177.8  0.0019   79.0  0.9994   -1.0
 0.040  0.9698   -1.8   9.508  177.5  0.0018   79.3  0.9994   -1.2
 0.045  0.9706   -2.0   9.580  177.4  0.0026   72.2  0.9995   -1.5
 0.050  0.9714   -2.2   9.652  177.4  0.0035   68.5  0.9996   -1.7
 0.055  0.9703   -2.4   9.639  177.1  0.0029   91.9  0.9990   -1.7
 0.060  0.9692   -2.6   9.627  176.7  0.0029  120.5  0.9985   -1.8
 0.065  0.9696   -2.9   9.609  176.5  0.0035  108.6  0.9988   -2.0
 0.070  0.9701   -3.1   9.592  176.3  0.0043  100.6  0.9992   -2.2
 0.075  0.9696   -3.3   9.576  176.1  0.0039   94.8  0.9987   -2.3
 0.080  0.9691   -3.5   9.561  175.8  0.0036   87.9  0.9983   -2.5
 0.085  0.9685   -3.7   9.555  175.6  0.0041   88.8  0.9984   -2.6
 0.090  0.9679   -4.0   9.550  175.4  0.0046   89.5  0.9985   -2.7
 0.095  0.9674   -4.2   9.557  175.2  0.0045   90.7  0.9982   -2.9
 0.100  0.9670   -4.4   9.564  175.1  0.0045   92.0  0.9979   -3.1
 0.105  0.9669   -4.6   9.588  174.8  0.0054   91.3  0.9977   -3.3
 0.110  0.9669   -4.9   9.612  174.5  0.0064   90.8  0.9975   -3.5
 0.115  0.9665   -5.1   9.592  174.3  0.0065   88.5  0.9972   -3.6
 0.120  0.9662   -5.3   9.573  174.1  0.0067   86.4  0.9970   -3.7
 0.125  0.9664   -5.5   9.558  173.9  0.0070   85.2  0.9969   -3.8
 0.130  0.9666   -5.7   9.544  173.7  0.0074   84.2  0.9969   -4.0
 0.135  0.9660   -5.9   9.506  173.6  0.0072   84.3  0.9968   -4.1
 0.140  0.9655   -6.2   9.469  173.4  0.0071   84.5  0.9968   -4.3
 0.145  0.9657   -6.4   9.475  173.2  0.0075   85.9  0.9964   -4.4
 0.150  0.9660   -6.6   9.482  173.0  0.0080   87.2  0.9961   -4.6
 0.155  0.9657   -6.8   9.473  172.8  0.0083   86.9  0.9958   -4.7
 0.160  0.9654   -7.0   9.465  172.6  0.0085   86.6  0.9956   -4.9
 0.165  0.9651   -7.2   9.456  172.4  0.0088   86.4  0.9953   -5.0
 0.170  0.9648   -7.4   9.448  172.2  0.0090   86.1  0.9951   -5.2
 0.175  0.9645   -7.6   9.439  172.1  0.0093   85.9  0.9949   -5.3
 0.180  0.9642   -7.9   9.431  171.9  0.0096   85.7  0.9946   -5.5
 0.185  0.9640   -8.1   9.423  171.7  0.0098   85.5  0.9944   -5.6
 0.190  0.9637   -8.3   9.415  171.5  0.0101   85.3  0.9942   -5.8
 0.195  0.9635   -8.5   9.407  171.3  0.0103   85.1  0.9940   -5.9
 0.200  0.9633   -8.7   9.399  171.1  0.0106   84.9  0.9938   -6.1
 0.220  0.9622   -9.6   9.369  170.4  0.0118   83.7  0.9929   -6.7
 0.240  0.9613  -10.5   9.341  169.7  0.0129   82.6  0.9921   -7.3
 0.260  0.9604  -11.3   9.310  169.0  0.0140   82.2  0.9910   -7.9
 0.280  0.9596  -12.2   9.276  168.3  0.0149   82.2  0.9898   -8.5
 0.300  0.9590  -13.0   9.243  167.6  0.0158   82.2  0.9886   -9.1
 0.320  0.9580  -13.8   9.202  167.0  0.0168   81.2  0.9877   -9.7
 0.340  0.9573  -14.7   9.162  166.3  0.0178   80.3  0.9870  -10.2
 0.360  0.9564  -15.5   9.139  165.7  0.0188   79.6  0.9857  -10.8
 0.380  0.9552  -16.4   9.131  165.0  0.0198   79.1  0.9840  -11.4
 0.400  0.9543  -17.2   9.124  164.3  0.0208   78.7  0.9824  -12.0
 0.420  0.9532  -18.0   9.087  163.7  0.0218   77.9  0.9819  -12.6
 0.440  0.9524  -18.8   9.051  163.0  0.0228   77.2  0.9815  -13.1
 0.450  0.9520  -19.2   9.033  162.7  0.0233   76.9  0.9813  -13.4
 0.460  0.9513  -19.6   9.040  162.4  0.0238   76.5  0.9804  -13.7
 0.480  0.9500  -20.5   9.055  161.7  0.0247   75.8  0.9786  -14.4
 0.500  0.9489  -21.4   9.072  161.0  0.0257   75.2  0.9769  -15.0
 0.520  0.9471  -22.2   9.045  160.3  0.0267   74.6  0.9750  -15.6
 0.540  0.9456  -23.1   9.019  159.7  0.0277   74.0  0.9732  -16.2
 0.560  0.9442  -23.9   8.994  159.0  0.0287   73.4  0.9716  -16.7
 0.580  0.9431  -24.8   8.970  158.4  0.0297   72.9  0.9700  -17.3
 0.600  0.9421  -25.6   8.948  157.7  0.0307   72.4  0.9685  -17.9
 0.620  0.9402  -26.4   8.928  157.1  0.0317   71.8  0.9667  -18.5
 0.640  0.9385  -27.3   8.908  156.5  0.0326   71.3  0.9651  -19.0
 0.660  0.9371  -28.1   8.890  155.8  0.0336   70.8  0.9635  -19.6
 0.680  0.9358  -29.0   8.872  155.2  0.0345   70.3  0.9620  -20.1
 0.700  0.9347  -29.8   8.856  154.6  0.0355   69.8  0.9606  -20.7
 0.720  0.9327  -30.7   8.853  153.9  0.0365   69.1  0.9583  -21.3
 0.740  0.9309  -31.6   8.851  153.2  0.0374   68.5  0.9561  -21.9
 0.760  0.9294  -32.4   8.850  152.6  0.0384   67.8  0.9540  -22.5
 0.780  0.9280  -33.3   8.850  151.9  0.0393   67.3  0.9520  -23.1
 0.800  0.9269  -34.2   8.852  151.2  0.0403   66.7  0.9501  -23.7
 0.820  0.9248  -35.0   8.835  150.6  0.0413   66.1  0.9477  -24.3
 0.840  0.9229  -35.9   8.819  149.9  0.0422   65.5  0.9455  -24.8
 0.860  0.9213  -36.7   8.804  149.3  0.0432   64.9  0.9433  -25.4
 0.880  0.9198  -37.6   8.790  148.6  0.0441   64.4  0.9412  -25.9
 0.900  0.9185  -38.4   8.777  148.0  0.0451   63.9  0.9392  -26.5
 0.920  0.9163  -39.2   8.753  147.4  0.0459   63.3  0.9367  -27.1
 0.940  0.9143  -40.1   8.729  146.7  0.0468   62.6  0.9343  -27.7
 0.960  0.9125  -40.9   8.707  146.1  0.0476   62.0  0.9320  -28.2
 0.980  0.9108  -41.8   8.686  145.4  0.0484   61.5  0.9298  -28.8
 1.000  0.9094  -42.6   8.666  144.8  0.0493   60.9  0.9277  -29.4
 1.020  0.9071  -43.4   8.632  144.2  0.0502   60.3  0.9250  -30.0
 1.040  0.9050  -44.2   8.600  143.5  0.0511   59.8  0.9223  -30.5
 1.060  0.9031  -45.0   8.568  142.9  0.0520   59.2  0.9198  -31.1
 1.080  0.9013  -45.8   8.537  142.2  0.0529   58.7  0.9173  -31.6
 1.100  0.8997  -46.6   8.508  141.6  0.0538   58.2  0.9149  -32.2
 1.120  0.8972  -47.4   8.489  140.9  0.0545   57.6  0.9121  -32.8
 1.140  0.8949  -48.3   8.470  140.3  0.0553   57.0  0.9094  -33.3
 1.160  0.8928  -49.1   8.453  139.6  0.0561   56.4  0.9068  -33.9
 1.180  0.8909  -50.0   8.437  139.0  0.0568   55.8  0.9042  -34.4
 1.200  0.8892  -50.8   8.422  138.3  0.0576   55.2  0.9018  -35.0
 1.220  0.8868  -51.6   8.395  137.7  0.0584   54.7  0.8988  -35.6
 1.240  0.8846  -52.4   8.370  137.1  0.0592   54.2  0.8959  -36.1
 1.260  0.8825  -53.2   8.345  136.5  0.0600   53.7  0.8931  -36.7
 1.280  0.8807  -54.1   8.322  135.8  0.0608   53.2  0.8904  -37.2
 1.300  0.8790  -54.9   8.299  135.2  0.0616   52.7  0.8878  -37.8
 1.320  0.8769  -55.7   8.275  134.6  0.0623   52.2  0.8851  -38.3
 1.340  0.8749  -56.5   8.253  134.0  0.0630   51.7  0.8824  -38.9
 1.360  0.8731  -57.3   8.231  133.4  0.0637   51.2  0.8799  -39.4
 1.380  0.8715  -58.1   8.210  132.8  0.0644   50.7  0.8774  -40.0
 1.400  0.8701  -58.9   8.190  132.2  0.0651   50.2  0.8750  -40.5
 1.420  0.8676  -59.7   8.168  131.6  0.0658   49.7  0.8719  -41.0
 1.440  0.8654  -60.5   8.147  131.0  0.0665   49.1  0.8689  -41.5
 1.460  0.8633  -61.3   8.127  130.5  0.0672   48.6  0.8659  -42.0
 1.480  0.8613  -62.2   8.108  129.9  0.0680   48.1  0.8630  -42.6
 1.500  0.8596  -63.0   8.089  129.3  0.0687   47.6  0.8602  -43.1
 1.520  0.8573  -63.9   8.075  128.7  0.0693   47.1  0.8572  -43.6
 1.540  0.8552  -64.7   8.062  128.1  0.0700   46.5  0.8543  -44.2
 1.560  0.8533  -65.6   8.050  127.4  0.0707   46.0  0.8515  -44.7
 1.580  0.8515  -66.4   8.039  126.8  0.0713   45.5  0.8488  -45.3
 1.600  0.8500  -67.3   8.029  126.2  0.0720   45.0  0.8461  -45.8
 1.620  0.8475  -68.1   8.007  125.6  0.0726   44.5  0.8431  -46.3
 1.640  0.8452  -68.9   7.986  125.0  0.0733   44.1  0.8401  -46.8
 1.660  0.8431  -69.7   7.965  124.4  0.0739   43.6  0.8373  -47.3
 1.680  0.8411  -70.6   7.946  123.8  0.0746   43.1  0.8344  -47.9
 1.700  0.8393  -71.4   7.927  123.2  0.0752   42.7  0.8317  -48.4
 1.720  0.8372  -72.2   7.900  122.6  0.0758   42.2  0.8287  -48.9
 1.740  0.8353  -73.0   7.874  122.1  0.0764   41.7  0.8258  -49.5
 1.760  0.8336  -73.8   7.849  121.5  0.0770   41.2  0.8229  -50.0
 1.780  0.8320  -74.6   7.825  121.0  0.0777   40.7  0.8201  -50.6
 1.800  0.8306  -75.4   7.801  120.4  0.0783   40.2  0.8174  -51.1
 1.820  0.8288  -76.2   7.774  119.9  0.0788   39.7  0.8145  -51.6
 1.840  0.8271  -77.0   7.747  119.3  0.0794   39.3  0.8117  -52.1
 1.860  0.8256  -77.7   7.721  118.8  0.0800   38.8  0.8089  -52.6
 1.880  0.8243  -78.5   7.696  118.2  0.0805   38.3  0.8062  -53.1
 1.900  0.8231  -79.3   7.671  117.7  0.0811   37.9  0.8036  -53.6
 1.920  0.8211  -80.1   7.646  117.1  0.0817   37.4  0.8005  -54.2
 1.940  0.8192  -80.9   7.623  116.6  0.0823   37.0  0.7974  -54.7
 1.960  0.8175  -81.7   7.600  116.0  0.0829   36.6  0.7944  -55.3
 1.980  0.8159  -82.5   7.577  115.4  0.0835   36.1  0.7915  -55.8
 2.000  0.8145  -83.3   7.556  114.8  0.0841   35.7  0.7887  -56.4
 2.020  0.8126  -84.1   7.532  114.2  0.0846   35.1  0.7854  -56.9
 2.040  0.8109  -85.0   7.508  113.6  0.0850   34.6  0.7822  -57.5
 2.060  0.8094  -85.8   7.486  113.0  0.0855   34.1  0.7790  -58.0
 2.080  0.8080  -86.7   7.464  112.4  0.0860   33.5  0.7759  -58.6
 2.100  0.8068  -87.5   7.443  111.8  0.0865   33.0  0.7729  -59.1
 2.120  0.8045  -88.3   7.425  111.2  0.0869   32.5  0.7695  -59.6
 2.140  0.8023  -89.1   7.408  110.6  0.0874   32.1  0.7662  -60.2
 2.160  0.8002  -89.9   7.391  110.0  0.0878   31.6  0.7629  -60.7
 2.180  0.7984  -90.8   7.376  109.4  0.0882   31.2  0.7597  -61.3
 2.200  0.7967  -91.6   7.361  108.8  0.0887   30.7  0.7566  -61.8
 2.220  0.7947  -92.4   7.333  108.3  0.0892   30.2  0.7535  -62.3
 2.240  0.7929  -93.2   7.305  107.7  0.0897   29.8  0.7505  -62.7
 2.260  0.7913  -93.9   7.278  107.2  0.0902   29.3  0.7475  -63.2
 2.280  0.7898  -94.7   7.252  106.6  0.0907   28.8  0.7446  -63.7
 2.300  0.7884  -95.5   7.226  106.1  0.0912   28.4  0.7417  -64.2
 2.320  0.7865  -96.3   7.201  105.6  0.0916   27.9  0.7388  -64.7
 2.340  0.7847  -97.0   7.176  105.0  0.0919   27.5  0.7360  -65.2
 2.360  0.7831  -97.8   7.152  104.5  0.0923   27.0  0.7332  -65.7
 2.380  0.7816  -98.5   7.129  103.9  0.0927   26.6  0.7305  -66.3
 2.400  0.7803  -99.3   7.106  103.4  0.0931   26.1  0.7279  -66.8
 2.420  0.7787 -100.0   7.074  102.9  0.0935   25.7  0.7248  -67.3
 2.440  0.7772 -100.7   7.042  102.4  0.0939   25.3  0.7218  -67.7
 2.460  0.7758 -101.5   7.011  101.9  0.0943   24.9  0.7188  -68.2
 2.480  0.7745 -102.2   6.980  101.4  0.0948   24.5  0.7159  -68.7
 2.500  0.7734 -102.9   6.950  100.9  0.0952   24.1  0.7130  -69.2
 2.520  0.7713 -103.7   6.932  100.3  0.0955   23.7  0.7095  -69.7
 2.540  0.7693 -104.5   6.914   99.8  0.0958   23.2  0.7061  -70.2
 2.560  0.7675 -105.3   6.898   99.2  0.0961   22.8  0.7028  -70.7
 2.580  0.7659 -106.2   6.881   98.7  0.0965   22.3  0.6995  -71.2
 2.600  0.7644 -107.0   6.866   98.1  0.0968   21.9  0.6962  -71.7
 2.620  0.7627 -107.8   6.840   97.6  0.0971   21.5  0.6928  -72.2
 2.640  0.7611 -108.5   6.815   97.1  0.0974   21.1  0.6894  -72.7
 2.660  0.7596 -109.3   6.791   96.6  0.0977   20.6  0.6861  -73.2
 2.680  0.7583 -110.0   6.766   96.0  0.0980   20.2  0.6829  -73.8
 2.700  0.7571 -110.8   6.743   95.5  0.0983   19.8  0.6797  -74.3
 2.720  0.7550 -111.6   6.726   94.9  0.0986   19.4  0.6763  -74.8
 2.740  0.7530 -112.4   6.710   94.3  0.0988   19.0  0.6729  -75.3
 2.760  0.7512 -113.2   6.694   93.8  0.0991   18.5  0.6695  -75.8
 2.780  0.7495 -114.1   6.679   93.2  0.0994   18.1  0.6662  -76.3
 2.800  0.7480 -114.9   6.665   92.6  0.0997   17.7  0.6630  -76.8
 2.820  0.7465 -115.7   6.640   92.1  0.0999   17.3  0.6599  -77.3
 2.840  0.7451 -116.4   6.615   91.6  0.1002   16.8  0.6569  -77.9
 2.860  0.7439 -117.2   6.591   91.1  0.1005   16.4  0.6540  -78.4
 2.880  0.7428 -117.9   6.568   90.6  0.1007   15.9  0.6511  -79.0
 2.900  0.7418 -118.7   6.545   90.1  0.1010   15.5  0.6483  -79.5
 2.920  0.7398 -119.5   6.522   89.6  0.1014   15.1  0.6453  -80.0
 2.940  0.7380 -120.2   6.499   89.0  0.1017   14.7  0.6424  -80.5
 2.960  0.7363 -121.0   6.477   88.5  0.1021   14.4  0.6396  -81.0
 2.980  0.7347 -121.7   6.456   87.9  0.1024   14.0  0.6368  -81.5
 3.000  0.7333 -122.5   6.435   87.4  0.1028   13.6  0.6340  -82.0
 3.100  0.7249 -126.7   6.359   84.6  0.1035   11.6  0.6169  -84.8
 3.200  0.7176 -130.5   6.250   82.0  0.1044    9.6  0.6032  -87.4
 3.300  0.7119 -134.4   6.148   79.4  0.1052    7.6  0.5882  -90.1
 3.400  0.7061 -138.0   6.020   76.9  0.1060    5.6  0.5752  -92.7
 3.500  0.7009 -141.8   5.918   74.4  0.1063    3.7  0.5605  -95.5
 3.600  0.6951 -145.5   5.799   71.9  0.1069    1.8  0.5472  -98.1
 3.700  0.6897 -149.3   5.712   69.3  0.1068   -0.1  0.5318 -101.0
 3.800  0.6857 -152.9   5.594   66.9  0.1071   -2.0  0.5199 -103.7
 3.900  0.6816 -156.2   5.473   64.5  0.1072   -3.8  0.5085 -106.5
 4.000  0.6777 -159.9   5.370   62.1  0.1071   -5.5  0.4972 -109.3
 4.100  0.6749 -163.1   5.255   59.7  0.1067   -7.3  0.4860 -112.1
 4.200  0.6713 -166.8   5.163   57.3  0.1062   -8.9  0.4760 -114.8
 4.300  0.6690 -169.9   5.047   55.0  0.1057  -10.5  0.4664 -117.4
 4.400  0.6680 -173.2   4.947   52.8  0.1053  -12.0  0.4586 -119.9
 4.500  0.6662 -175.9   4.825   50.6  0.1046  -13.6  0.4502 -122.5
 4.600  0.6662 -179.1   4.736   48.4  0.1037  -15.1  0.4415 -125.1
 4.700  0.6640  178.1   4.640   46.3  0.1031  -16.4  0.4346 -127.4
 4.800  0.6646  175.4   4.543   44.1  0.1021  -17.8  0.4275 -129.9
 4.900  0.6638  172.8   4.447   42.0  0.1014  -19.2  0.4216 -132.1
 5.000  0.6643  170.4   4.351   40.1  0.1006  -20.4  0.4165 -134.4
 5.100  0.6636  167.9   4.271   38.0  0.0995  -21.6  0.4100 -136.8
 5.200  0.6646  165.7   4.179   36.2  0.0988  -22.8  0.4057 -138.9
 5.300  0.6639  163.4   4.096   34.1  0.0977  -23.9  0.4004 -141.2
 5.400  0.6649  161.5   4.002   32.4  0.0970  -25.1  0.3970 -143.2
 5.500  0.6638  159.4   3.926   30.5  0.0961  -26.1  0.3918 -145.5
 5.600  0.6647  157.6   3.847   28.7  0.0948  -27.1  0.3881 -147.7
 5.700  0.6636  155.6   3.783   26.9  0.0936  -28.0  0.3833 -150.0
 5.800  0.6644  153.8   3.708   25.0  0.0928  -29.0  0.3806 -152.2
 5.900  0.6654  152.1   3.644   23.4  0.0919  -29.9  0.3780 -154.3
 6.000  0.6657  150.5   3.569   21.6  0.0911  -30.7  0.3763 -156.6
 6.100  0.6677  148.6   3.524   19.8  0.0904  -31.3  0.3741 -159.0
 6.200  0.6680  147.1   3.460   18.2  0.0895  -32.3  0.3727 -161.4
 6.300  0.6696  145.4   3.403   16.3  0.0889  -33.1  0.3722 -163.7
 6.400  0.6704  143.8   3.343   14.6  0.0879  -33.8  0.3714 -166.2
 6.500  0.6717  141.9   3.293   12.8  0.0869  -34.5  0.3700 -168.8
 6.600  0.6723  140.2   3.241   11.0  0.0862  -35.4  0.3704 -171.1
 6.800  0.6752  136.8   3.134    7.6  0.0849  -37.0  0.3713 -175.7
 7.000  0.6778  133.4   3.038    4.0  0.0832  -38.4  0.3732  179.5
 7.200  0.6813  129.9   2.949    0.5  0.0815  -39.6  0.3755  175.0
 7.400  0.6854  126.5   2.856   -3.0  0.0799  -41.0  0.3791  170.7
 7.600  0.6908  122.7   2.771   -6.7  0.0782  -42.3  0.3828  166.1
 7.800  0.6978  118.9   2.692  -10.3  0.0767  -43.5  0.3861  161.5
 8.000  0.7053  115.2   2.602  -14.0  0.0750  -44.8  0.3906  156.8
 8.200  0.7116  111.5   2.506  -17.5  0.0732  -45.7  0.3941  151.5
 8.400  0.7208  107.9   2.421  -21.3  0.0714  -46.6  0.4009  146.4
 8.600  0.7295  104.4   2.330  -24.9  0.0696  -47.5  0.4101  141.2
 8.800  0.7374  101.1   2.233  -28.4  0.0678  -48.2  0.4219  135.9
 9.000  0.7478   97.8   2.145  -32.2  0.0660  -49.0  0.4372  130.9
 9.200  0.7553   95.0   2.046  -35.2  0.0641  -49.3  0.4532  126.2
 9.400  0.7646   92.2   1.952  -38.4  0.0622  -49.6  0.4719  121.9
 9.600  0.7737   89.9   1.863  -41.5  0.0606  -49.6  0.4916  118.3
 9.800  0.7819   87.9   1.776  -44.1  0.0591  -49.2  0.5116  115.2
10.000  0.7910   86.0   1.694  -47.1  0.0577  -48.7  0.5330  112.3
!
!  f       NFmin   Gammaopt  rn/50
! GHz       dB    MAG  ANG    -
!
! noise parameter not available yet for this operation point!
!
! (c) 2016  Infineon Technologies AG, Munich
