! Infineon Technologies  Discrete & RF Semiconductors
! BFP740
! VCE =  1.0 V,  IC =  45 mA
! Common Emitter S-Parameters:                            Jan 2016
# GHz  S  MA  R  50
!  f         S11            S21            S12            S22
! GHz     MAG   ANG      MAG   ANG      MAG   ANG      MAG   ANG
 0.030  0.1093 -150.4  12.171  174.0  0.0063   19.9  0.2180   -1.2
 0.035  0.1153 -147.3  12.144  173.0  0.0063   22.1  0.2183   -2.0
 0.040  0.1216 -144.5  12.120  172.0  0.0064   24.3  0.2187   -2.7
 0.045  0.1296 -142.4  12.083  171.1  0.0066   21.0  0.2182   -3.2
 0.050  0.1377 -140.5  12.048  170.2  0.0068   17.9  0.2178   -3.8
 0.055  0.1434 -138.2  12.010  169.1  0.0076   26.6  0.2188   -4.4
 0.060  0.1494 -136.1  11.977  168.0  0.0086   33.4  0.2199   -5.0
 0.065  0.1579 -134.9  11.927  167.1  0.0085   33.3  0.2202   -5.5
 0.070  0.1665 -133.9  11.879  166.2  0.0085   33.1  0.2205   -5.9
 0.075  0.1745 -133.2  11.822  165.3  0.0086   36.7  0.2211   -6.4
 0.080  0.1825 -132.5  11.769  164.3  0.0087   40.2  0.2217   -6.8
 0.085  0.1903 -131.6  11.712  163.4  0.0090   40.9  0.2214   -7.5
 0.090  0.1982 -130.8  11.657  162.5  0.0094   41.6  0.2211   -8.3
 0.095  0.2061 -130.4  11.603  161.6  0.0097   39.4  0.2209   -8.7
 0.100  0.2141 -130.0  11.551  160.7  0.0100   37.3  0.2207   -9.1
 0.105  0.2232 -129.7  11.491  159.8  0.0099   39.8  0.2209   -9.8
 0.110  0.2323 -129.4  11.433  158.9  0.0099   42.3  0.2211  -10.4
 0.115  0.2410 -129.3  11.365  158.1  0.0101   44.2  0.2206  -10.8
 0.120  0.2498 -129.3  11.299  157.2  0.0104   46.0  0.2202  -11.3
 0.125  0.2578 -129.2  11.229  156.4  0.0105   44.3  0.2197  -11.9
 0.130  0.2659 -129.2  11.162  155.6  0.0107   42.6  0.2193  -12.6
 0.135  0.2739 -129.3  11.087  154.8  0.0115   43.8  0.2193  -13.3
 0.140  0.2819 -129.4  11.015  153.9  0.0124   44.9  0.2193  -13.9
 0.145  0.2900 -129.7  10.948  153.2  0.0124   45.4  0.2185  -14.5
 0.150  0.2982 -129.9  10.882  152.4  0.0125   45.9  0.2177  -15.1
 0.155  0.3056 -130.2  10.804  151.7  0.0127   46.0  0.2171  -15.7
 0.160  0.3130 -130.5  10.727  151.0  0.0130   46.2  0.2165  -16.2
 0.165  0.3205 -130.8  10.652  150.3  0.0132   46.3  0.2159  -16.8
 0.170  0.3279 -131.1  10.579  149.6  0.0135   46.4  0.2153  -17.3
 0.175  0.3354 -131.3  10.507  148.9  0.0137   46.6  0.2147  -17.9
 0.180  0.3428 -131.6  10.437  148.2  0.0140   46.7  0.2142  -18.5
 0.185  0.3503 -131.8  10.369  147.5  0.0142   46.8  0.2137  -19.1
 0.190  0.3577 -132.1  10.302  146.7  0.0145   46.9  0.2132  -19.6
 0.195  0.3652 -132.3  10.237  146.0  0.0147   47.0  0.2127  -20.2
 0.200  0.3727 -132.5  10.174  145.2  0.0150   47.1  0.2123  -20.8
 0.220  0.3984 -134.0   9.879  142.8  0.0161   47.0  0.2093  -22.8
 0.240  0.4243 -135.4   9.603  140.2  0.0172   46.9  0.2067  -24.8
 0.260  0.4482 -136.9   9.331  137.8  0.0181   46.0  0.2034  -26.8
 0.280  0.4700 -138.5   9.058  135.6  0.0189   44.3  0.1996  -28.7
 0.300  0.4922 -140.0   8.801  133.2  0.0198   42.8  0.1960  -30.8
 0.320  0.5108 -141.7   8.551  131.3  0.0206   42.2  0.1917  -32.5
 0.340  0.5298 -143.3   8.310  129.3  0.0215   41.7  0.1877  -34.4
 0.360  0.5472 -144.8   8.077  127.4  0.0222   41.2  0.1837  -36.1
 0.380  0.5631 -146.3   7.850  125.6  0.0229   40.5  0.1798  -37.6
 0.400  0.5793 -147.7   7.630  123.7  0.0236   39.9  0.1761  -39.3
 0.420  0.5919 -149.1   7.423  122.2  0.0240   39.0  0.1725  -40.7
 0.440  0.6047 -150.4   7.221  120.5  0.0243   38.1  0.1691  -42.2
 0.450  0.6113 -151.0   7.123  119.7  0.0245   37.7  0.1674  -43.0
 0.460  0.6166 -151.7   7.029  119.0  0.0248   37.5  0.1654  -43.6
 0.480  0.6273 -153.0   6.844  117.6  0.0253   37.0  0.1615  -44.8
 0.500  0.6384 -154.2   6.663  116.1  0.0259   36.6  0.1576  -46.1
 0.520  0.6464 -155.4   6.498  115.0  0.0263   35.8  0.1541  -47.2
 0.540  0.6547 -156.6   6.335  113.8  0.0267   35.0  0.1506  -48.3
 0.560  0.6632 -157.7   6.176  112.5  0.0271   34.2  0.1472  -49.5
 0.580  0.6720 -158.8   6.019  111.2  0.0275   33.4  0.1439  -50.7
 0.600  0.6811 -159.9   5.866  109.8  0.0279   32.7  0.1406  -52.0
 0.620  0.6868 -160.9   5.733  108.8  0.0282   32.3  0.1376  -52.8
 0.640  0.6926 -161.9   5.603  107.8  0.0284   31.9  0.1346  -53.7
 0.660  0.6987 -162.9   5.474  106.7  0.0287   31.5  0.1317  -54.6
 0.680  0.7050 -163.9   5.347  105.6  0.0289   31.2  0.1288  -55.5
 0.700  0.7115 -164.8   5.222  104.4  0.0292   30.8  0.1259  -56.5
 0.720  0.7160 -165.7   5.112  103.5  0.0294   30.4  0.1233  -57.3
 0.740  0.7206 -166.6   5.004  102.6  0.0297   30.0  0.1207  -58.2
 0.760  0.7254 -167.4   4.897  101.7  0.0299   29.6  0.1182  -59.1
 0.780  0.7304 -168.3   4.791  100.7  0.0302   29.2  0.1157  -60.0
 0.800  0.7355 -169.1   4.687   99.7  0.0304   28.8  0.1132  -61.0
 0.820  0.7387 -169.9   4.598   98.9  0.0306   28.4  0.1109  -61.7
 0.840  0.7419 -170.6   4.509   98.1  0.0308   28.1  0.1086  -62.4
 0.860  0.7453 -171.3   4.422   97.3  0.0309   27.7  0.1064  -63.2
 0.880  0.7489 -172.1   4.335   96.4  0.0311   27.4  0.1041  -64.0
 0.900  0.7525 -172.8   4.250   95.5  0.0313   27.0  0.1019  -64.8
 0.920  0.7552 -173.5   4.174   94.8  0.0315   26.8  0.1001  -65.7
 0.940  0.7580 -174.2   4.098   94.1  0.0316   26.6  0.0983  -66.6
 0.960  0.7610 -174.9   4.024   93.4  0.0318   26.5  0.0966  -67.5
 0.980  0.7640 -175.6   3.949   92.6  0.0319   26.3  0.0949  -68.5
 1.000  0.7672 -176.3   3.876   91.8  0.0321   26.1  0.0932  -69.5
 1.020  0.7691 -176.9   3.812   91.1  0.0322   25.8  0.0916  -70.2
 1.040  0.7710 -177.5   3.748   90.5  0.0323   25.4  0.0900  -71.0
 1.060  0.7731 -178.2   3.684   89.8  0.0325   25.1  0.0884  -71.8
 1.080  0.7753 -178.8   3.621   89.0  0.0326   24.7  0.0868  -72.6
 1.100  0.7775 -179.4   3.559   88.3  0.0327   24.4  0.0852  -73.4
 1.120  0.7791 -180.0   3.504   87.7  0.0328   24.3  0.0841  -74.3
 1.140  0.7808  179.5   3.450   87.1  0.0329   24.2  0.0831  -75.2
 1.160  0.7825  178.9   3.396   86.4  0.0330   24.2  0.0821  -76.1
 1.180  0.7843  178.4   3.342   85.8  0.0331   24.1  0.0811  -77.0
 1.200  0.7862  177.8   3.289   85.1  0.0332   24.0  0.0801  -78.0
 1.220  0.7875  177.3   3.241   84.5  0.0333   23.9  0.0790  -78.8
 1.240  0.7889  176.7   3.194   84.0  0.0334   23.9  0.0779  -79.5
 1.260  0.7904  176.2   3.146   83.4  0.0335   23.8  0.0768  -80.3
 1.280  0.7919  175.6   3.099   82.7  0.0336   23.8  0.0757  -81.2
 1.300  0.7935  175.1   3.053   82.1  0.0337   23.7  0.0747  -82.0
 1.320  0.7948  174.6   3.013   81.6  0.0338   23.6  0.0741  -82.9
 1.340  0.7962  174.1   2.973   81.0  0.0339   23.5  0.0735  -83.7
 1.360  0.7977  173.7   2.933   80.5  0.0340   23.4  0.0729  -84.6
 1.380  0.7991  173.2   2.894   79.9  0.0341   23.3  0.0723  -85.5
 1.400  0.8007  172.7   2.855   79.3  0.0342   23.2  0.0718  -86.4
 1.420  0.8016  172.2   2.818   78.8  0.0343   23.1  0.0709  -87.1
 1.440  0.8025  171.7   2.782   78.3  0.0345   23.0  0.0700  -87.9
 1.460  0.8035  171.3   2.746   77.7  0.0346   23.0  0.0691  -88.7
 1.480  0.8045  170.8   2.710   77.2  0.0348   22.9  0.0683  -89.5
 1.500  0.8056  170.3   2.674   76.6  0.0349   22.8  0.0674  -90.3
 1.520  0.8067  169.8   2.642   76.1  0.0350   22.7  0.0669  -91.2
 1.540  0.8078  169.4   2.610   75.6  0.0351   22.6  0.0663  -92.1
 1.560  0.8090  168.9   2.578   75.0  0.0352   22.6  0.0658  -93.0
 1.580  0.8103  168.5   2.546   74.5  0.0353   22.5  0.0654  -94.0
 1.600  0.8116  168.0   2.515   73.9  0.0354   22.4  0.0649  -94.9
 1.620  0.8124  167.6   2.486   73.4  0.0355   22.4  0.0642  -95.7
 1.640  0.8132  167.1   2.458   72.9  0.0355   22.4  0.0634  -96.5
 1.660  0.8140  166.7   2.430   72.4  0.0356   22.3  0.0627  -97.4
 1.680  0.8149  166.2   2.402   71.9  0.0356   22.3  0.0620  -98.2
 1.700  0.8159  165.8   2.374   71.4  0.0357   22.3  0.0613  -99.1
 1.720  0.8167  165.4   2.348   70.9  0.0358   22.2  0.0610 -100.2
 1.740  0.8175  165.0   2.322   70.4  0.0359   22.0  0.0607 -101.3
 1.760  0.8183  164.5   2.296   69.9  0.0361   21.9  0.0604 -102.4
 1.780  0.8193  164.1   2.270   69.4  0.0362   21.7  0.0601 -103.5
 1.800  0.8202  163.7   2.245   68.9  0.0363   21.6  0.0599 -104.6
 1.820  0.8209  163.3   2.222   68.4  0.0364   21.6  0.0594 -105.7
 1.840  0.8217  162.9   2.199   68.0  0.0365   21.6  0.0589 -106.8
 1.860  0.8225  162.4   2.177   67.5  0.0365   21.7  0.0585 -107.9
 1.880  0.8233  162.0   2.154   67.0  0.0366   21.7  0.0580 -109.0
 1.900  0.8242  161.6   2.132   66.5  0.0367   21.7  0.0576 -110.2
 1.920  0.8248  161.2   2.110   66.0  0.0367   21.7  0.0575 -111.3
 1.940  0.8253  160.8   2.088   65.6  0.0368   21.7  0.0574 -112.5
 1.960  0.8260  160.3   2.067   65.1  0.0368   21.6  0.0573 -113.6
 1.980  0.8267  159.9   2.045   64.6  0.0369   21.6  0.0572 -114.8
 2.000  0.8274  159.5   2.024   64.1  0.0369   21.6  0.0572 -115.9
 2.020  0.8273  159.2   2.004   63.7  0.0370   21.6  0.0576 -116.8
 2.040  0.8273  158.9   1.984   63.2  0.0372   21.5  0.0580 -117.7
 2.060  0.8273  158.5   1.964   62.8  0.0373   21.5  0.0584 -118.6
 2.080  0.8273  158.2   1.944   62.4  0.0375   21.4  0.0588 -119.5
 2.100  0.8273  157.9   1.924   61.9  0.0376   21.4  0.0592 -120.4
 2.120  0.8275  157.5   1.906   61.5  0.0377   21.3  0.0591 -121.4
 2.140  0.8278  157.2   1.888   61.0  0.0378   21.2  0.0591 -122.5
 2.160  0.8281  156.8   1.871   60.5  0.0380   21.2  0.0591 -123.5
 2.180  0.8284  156.5   1.853   60.1  0.0381   21.1  0.0591 -124.6
 2.200  0.8288  156.1   1.836   59.6  0.0382   21.0  0.0591 -125.6
 2.220  0.8292  155.7   1.820   59.2  0.0383   21.0  0.0591 -126.6
 2.240  0.8297  155.3   1.804   58.8  0.0383   21.0  0.0591 -127.5
 2.260  0.8303  155.0   1.788   58.4  0.0384   21.1  0.0592 -128.5
 2.280  0.8308  154.6   1.773   57.9  0.0384   21.1  0.0592 -129.4
 2.300  0.8314  154.2   1.757   57.5  0.0385   21.1  0.0593 -130.4
 2.320  0.8318  153.8   1.742   57.1  0.0386   21.1  0.0594 -131.4
 2.340  0.8323  153.5   1.727   56.6  0.0387   21.1  0.0594 -132.5
 2.360  0.8327  153.1   1.713   56.2  0.0389   21.1  0.0595 -133.5
 2.380  0.8333  152.8   1.698   55.8  0.0390   21.1  0.0597 -134.6
 2.400  0.8338  152.4   1.684   55.3  0.0391   21.1  0.0598 -135.6
 2.420  0.8341  152.0   1.670   54.9  0.0392   21.1  0.0598 -136.6
 2.440  0.8345  151.7   1.656   54.5  0.0392   21.1  0.0597 -137.7
 2.460  0.8349  151.3   1.642   54.1  0.0393   21.0  0.0597 -138.7
 2.480  0.8353  151.0   1.629   53.6  0.0393   21.0  0.0598 -139.8
 2.500  0.8358  150.6   1.615   53.2  0.0394   21.0  0.0598 -140.8
 2.520  0.8359  150.3   1.602   52.8  0.0395   21.0  0.0600 -141.9
 2.540  0.8361  149.9   1.589   52.4  0.0397   21.0  0.0602 -143.1
 2.560  0.8363  149.6   1.576   52.0  0.0398   21.0  0.0604 -144.2
 2.580  0.8365  149.2   1.563   51.5  0.0400   21.0  0.0606 -145.3
 2.600  0.8368  148.9   1.550   51.1  0.0401   21.0  0.0609 -146.4
 2.620  0.8373  148.6   1.538   50.7  0.0402   21.0  0.0611 -147.5
 2.640  0.8378  148.2   1.527   50.3  0.0403   21.1  0.0613 -148.6
 2.660  0.8383  147.9   1.515   49.9  0.0403   21.1  0.0616 -149.7
 2.680  0.8388  147.5   1.503   49.4  0.0404   21.2  0.0618 -150.8
 2.700  0.8394  147.2   1.492   49.0  0.0405   21.2  0.0621 -151.9
 2.720  0.8396  146.9   1.481   48.6  0.0407   21.2  0.0625 -153.0
 2.740  0.8399  146.5   1.469   48.2  0.0408   21.1  0.0629 -154.1
 2.760  0.8402  146.2   1.458   47.8  0.0410   21.1  0.0634 -155.2
 2.780  0.8405  145.8   1.447   47.3  0.0411   21.0  0.0639 -156.3
 2.800  0.8408  145.5   1.436   46.9  0.0413   21.0  0.0644 -157.4
 2.820  0.8411  145.2   1.426   46.5  0.0413   21.0  0.0650 -158.5
 2.840  0.8414  144.8   1.415   46.1  0.0414   21.0  0.0656 -159.7
 2.860  0.8418  144.5   1.405   45.7  0.0414   20.9  0.0662 -160.8
 2.880  0.8422  144.1   1.395   45.3  0.0415   20.9  0.0668 -161.8
 2.900  0.8426  143.8   1.385   44.9  0.0415   20.9  0.0675 -162.9
 2.920  0.8429  143.5   1.375   44.5  0.0417   20.9  0.0683 -164.0
 2.940  0.8432  143.2   1.365   44.2  0.0418   20.9  0.0691 -165.0
 2.960  0.8435  142.8   1.355   43.8  0.0420   20.9  0.0699 -166.0
 2.980  0.8438  142.5   1.346   43.4  0.0421   20.9  0.0707 -167.0
 3.000  0.8442  142.2   1.336   43.0  0.0423   20.9  0.0716 -168.0
 3.100  0.8460  140.6   1.289   40.9  0.0428   20.8  0.0759 -172.4
 3.200  0.8474  139.0   1.246   39.1  0.0433   20.6  0.0809 -176.1
 3.300  0.8487  137.4   1.205   37.0  0.0438   20.3  0.0857 -179.7
 3.400  0.8510  135.9   1.166   35.2  0.0445   20.3  0.0915  177.3
 3.500  0.8524  134.3   1.129   33.2  0.0450   19.8  0.0965  174.1
 3.600  0.8545  132.8   1.094   31.4  0.0454   19.9  0.1029  171.4
 3.700  0.8560  131.3   1.060   29.6  0.0461   19.1  0.1089  168.7
 3.800  0.8579  129.9   1.030   27.8  0.0469   19.2  0.1155  166.4
 3.900  0.8585  128.5   0.999   26.0  0.0474   19.1  0.1226  164.2
 4.000  0.8604  127.2   0.969   24.2  0.0478   18.8  0.1300  162.6
 4.100  0.8615  125.8   0.941   22.5  0.0486   18.7  0.1373  161.0
 4.200  0.8635  124.5   0.915   20.8  0.0489   18.4  0.1441  159.7
 4.300  0.8644  123.2   0.890   19.0  0.0496   18.3  0.1513  158.4
 4.400  0.8665  122.1   0.865   17.4  0.0502   17.8  0.1577  157.3
 4.500  0.8669  120.9   0.842   15.8  0.0508   17.7  0.1644  156.1
 4.600  0.8692  119.8   0.820   14.1  0.0514   17.5  0.1707  155.1
 4.700  0.8693  118.7   0.799   12.6  0.0519   17.2  0.1767  153.8
 4.800  0.8711  117.7   0.779   11.0  0.0527   16.9  0.1831  152.8
 4.900  0.8712  116.6   0.759    9.4  0.0531   16.7  0.1890  151.6
 5.000  0.8731  115.8   0.741    7.9  0.0538   16.3  0.1946  150.6
 5.100  0.8729  114.7   0.723    6.4  0.0545   16.2  0.2000  149.4
 5.200  0.8744  113.8   0.708    4.9  0.0552   15.8  0.2056  148.3
 5.300  0.8732  112.9   0.691    3.4  0.0557   15.5  0.2109  147.1
 5.400  0.8745  112.0   0.676    2.0  0.0565   15.3  0.2158  145.8
 5.500  0.8737  111.1   0.660    0.5  0.0573   15.0  0.2213  144.5
 5.600  0.8744  110.3   0.647   -0.9  0.0581   14.7  0.2263  143.2
 5.700  0.8739  109.5   0.633   -2.3  0.0589   14.4  0.2316  141.9
 5.800  0.8746  108.5   0.621   -3.8  0.0596   13.9  0.2370  140.6
 5.900  0.8751  107.8   0.608   -5.2  0.0605   13.7  0.2429  139.2
 6.000  0.8754  106.8   0.597   -6.7  0.0613   13.3  0.2490  137.9
 6.100  0.8768  106.1   0.586   -8.1  0.0623   12.5  0.2547  136.6
 6.200  0.8764  105.1   0.575   -9.5  0.0631   12.2  0.2609  135.3
 6.300  0.8779  104.2   0.564  -11.0  0.0641   11.4  0.2670  133.9
 6.400  0.8779  103.2   0.554  -12.4  0.0650   10.8  0.2736  132.6
 6.500  0.8799  102.2   0.544  -14.0  0.0658   10.1  0.2797  131.3
 6.600  0.8797  101.2   0.534  -15.4  0.0666    9.5  0.2856  130.0
 6.800  0.8820   99.0   0.515  -18.3  0.0681    8.1  0.2980  127.5
 7.000  0.8836   96.8   0.497  -21.3  0.0698    6.6  0.3114  125.0
 7.200  0.8865   94.5   0.479  -24.2  0.0713    5.0  0.3237  122.6
 7.400  0.8883   92.3   0.462  -27.2  0.0728    3.5  0.3362  120.0
 7.600  0.8916   89.7   0.445  -30.2  0.0739    1.7  0.3495  117.3
 7.800  0.8947   87.2   0.428  -33.1  0.0751   -0.1  0.3621  114.4
 8.000  0.8981   84.8   0.412  -36.1  0.0761   -1.8  0.3761  111.4
 8.200  0.9000   82.4   0.394  -38.7  0.0768   -3.6  0.3903  107.9
 8.400  0.9035   80.0   0.377  -41.6  0.0776   -5.4  0.4059  104.7
 8.600  0.9063   77.7   0.361  -44.2  0.0781   -7.2  0.4228  101.5
 8.800  0.9083   75.6   0.345  -46.5  0.0782   -8.9  0.4412   98.4
 9.000  0.9115   73.5   0.329  -49.1  0.0785  -10.6  0.4608   95.5
 9.200  0.9131   71.8   0.314  -50.9  0.0782  -11.9  0.4800   93.0
 9.400  0.9156   70.1   0.298  -52.8  0.0780  -13.2  0.5001   90.7
 9.600  0.9181   68.6   0.285  -54.6  0.0778  -14.4  0.5194   88.9
 9.800  0.9204   67.4   0.272  -56.0  0.0777  -15.3  0.5377   87.5
10.000  0.9231   66.2   0.260  -57.5  0.0776  -16.3  0.5563   86.2
!
!  f       NFmin   Gammaopt  rn/50
! GHz       dB    MAG  ANG    -
!
! noise parameter not available yet for this operation point!
!
! (c) 2016  Infineon Technologies AG, Munich
