! Infineon Technologies  Discrete & RF Semiconductors
! BFP720F
! VCE =  1.0 V,  IC =  25 mA
! Common Emitter S-Parameters:                            Jan 2016
# GHz  S  MA  R  50
!  f         S11            S21            S12            S22
! GHz     MAG   ANG      MAG   ANG      MAG   ANG      MAG   ANG
 0.010  0.2301   -6.2  13.056  178.0  0.0062    7.2  0.4292    0.8
 0.015  0.2318   -7.4  13.081  177.5  0.0063   10.5  0.4326   -0.3
 0.020  0.2337   -8.6  13.106  177.0  0.0064   13.7  0.4361   -1.3
 0.025  0.2332  -11.0  13.076  176.6  0.0065   15.2  0.4362   -1.6
 0.030  0.2331  -13.4  13.046  176.1  0.0066   16.6  0.4364   -1.8
 0.035  0.2333  -15.7  13.017  175.7  0.0067   18.0  0.4365   -2.1
 0.040  0.2340  -18.1  12.989  175.2  0.0069   19.3  0.4367   -2.3
 0.045  0.2351  -20.5  12.962  174.8  0.0070   20.6  0.4368   -2.6
 0.050  0.2366  -22.8  12.936  174.3  0.0071   21.8  0.4370   -2.8
 0.055  0.2374  -25.0  12.906  173.7  0.0072   23.1  0.4368   -3.1
 0.060  0.2386  -27.1  12.877  173.1  0.0074   24.4  0.4366   -3.4
 0.065  0.2402  -29.3  12.850  172.5  0.0075   25.6  0.4363   -3.7
 0.070  0.2420  -31.4  12.824  171.9  0.0077   26.8  0.4361   -4.0
 0.075  0.2442  -33.5  12.800  171.3  0.0079   27.9  0.4360   -4.2
 0.080  0.2467  -35.5  12.777  170.7  0.0080   29.0  0.4358   -4.5
 0.085  0.2495  -37.5  12.755  170.1  0.0082   30.0  0.4356   -4.8
 0.090  0.2526  -39.5  12.735  169.5  0.0084   31.0  0.4355   -5.1
 0.095  0.2559  -41.4  12.716  168.9  0.0085   32.0  0.4353   -5.4
 0.100  0.2596  -43.2  12.699  168.3  0.0087   32.9  0.4352   -5.7
 0.105  0.2618  -45.1  12.658  167.7  0.0089   33.7  0.4346   -6.0
 0.110  0.2643  -46.9  12.618  167.1  0.0091   34.4  0.4341   -6.3
 0.115  0.2670  -48.8  12.580  166.5  0.0093   35.1  0.4336   -6.6
 0.120  0.2700  -50.5  12.543  165.9  0.0094   35.7  0.4330   -6.9
 0.125  0.2732  -52.3  12.507  165.3  0.0096   36.4  0.4325   -7.1
 0.130  0.2767  -54.0  12.472  164.7  0.0098   37.0  0.4320   -7.4
 0.135  0.2805  -55.6  12.440  164.1  0.0100   37.6  0.4315   -7.7
 0.140  0.2844  -57.2  12.408  163.5  0.0102   38.1  0.4310   -8.0
 0.145  0.2886  -58.8  12.378  162.9  0.0104   38.7  0.4306   -8.3
 0.150  0.2930  -60.3  12.349  162.3  0.0106   39.2  0.4301   -8.6
 0.155  0.2961  -61.8  12.298  161.8  0.0108   39.5  0.4293   -8.9
 0.160  0.2994  -63.3  12.249  161.2  0.0110   39.9  0.4285   -9.2
 0.165  0.3029  -64.8  12.201  160.7  0.0112   40.2  0.4277   -9.5
 0.170  0.3066  -66.2  12.153  160.1  0.0114   40.5  0.4269   -9.7
 0.175  0.3105  -67.6  12.107  159.6  0.0116   40.8  0.4261  -10.0
 0.180  0.3146  -68.9  12.062  159.0  0.0118   41.1  0.4253  -10.3
 0.185  0.3188  -70.3  12.018  158.5  0.0120   41.4  0.4246  -10.6
 0.190  0.3232  -71.5  11.975  157.9  0.0122   41.7  0.4239  -10.9
 0.195  0.3278  -72.8  11.934  157.4  0.0124   41.9  0.4231  -11.2
 0.200  0.3325  -74.0  11.893  156.8  0.0126   42.2  0.4224  -11.5
 0.220  0.3467  -78.9  11.676  154.8  0.0134   42.4  0.4190  -12.5
 0.240  0.3631  -83.3  11.473  152.8  0.0143   42.6  0.4158  -13.6
 0.260  0.3787  -87.5  11.265  150.8  0.0151   42.6  0.4118  -14.6
 0.280  0.3934  -91.4  11.048  148.9  0.0158   42.5  0.4070  -15.6
 0.300  0.4098  -95.0  10.844  147.0  0.0165   42.4  0.4023  -16.6
 0.320  0.4234  -98.4  10.657  145.2  0.0172   42.0  0.3980  -17.4
 0.340  0.4383 -101.6  10.479  143.4  0.0179   41.6  0.3938  -18.3
 0.360  0.4522 -104.6  10.265  141.7  0.0185   41.1  0.3894  -19.1
 0.380  0.4648 -107.6  10.012  140.0  0.0192   40.6  0.3849  -20.0
 0.400  0.4787 -110.4   9.768  138.3  0.0198   40.1  0.3805  -20.9
 0.420  0.4894 -112.9   9.600  136.9  0.0204   39.5  0.3758  -21.6
 0.440  0.5010 -115.3   9.438  135.4  0.0209   39.0  0.3712  -22.3
 0.450  0.5071 -116.4   9.359  134.6  0.0212   38.7  0.3689  -22.6
 0.460  0.5119 -117.6   9.257  133.9  0.0214   38.4  0.3668  -22.9
 0.480  0.5220 -119.8   9.056  132.5  0.0219   37.8  0.3625  -23.4
 0.500  0.5330 -122.0   8.861  131.0  0.0224   37.2  0.3583  -24.0
 0.520  0.5404 -124.1   8.678  129.8  0.0228   36.5  0.3536  -24.5
 0.540  0.5484 -126.1   8.499  128.6  0.0232   35.9  0.3489  -25.1
 0.560  0.5572 -128.1   8.323  127.3  0.0236   35.3  0.3442  -25.6
 0.580  0.5665 -130.0   8.152  126.0  0.0240   34.7  0.3396  -26.2
 0.600  0.5765 -131.8   7.986  124.6  0.0244   34.1  0.3350  -26.8
 0.620  0.5824 -133.4   7.838  123.6  0.0247   33.6  0.3314  -27.1
 0.640  0.5887 -135.0   7.692  122.5  0.0250   33.0  0.3278  -27.5
 0.660  0.5955 -136.5   7.550  121.4  0.0253   32.5  0.3242  -27.8
 0.680  0.6027 -138.0   7.410  120.3  0.0256   32.0  0.3206  -28.1
 0.700  0.6103 -139.5   7.273  119.1  0.0259   31.5  0.3170  -28.5
 0.720  0.6151 -140.8   7.155  118.2  0.0261   31.0  0.3134  -28.8
 0.740  0.6202 -142.1   7.040  117.3  0.0264   30.6  0.3099  -29.1
 0.760  0.6255 -143.3   6.926  116.3  0.0266   30.1  0.3064  -29.4
 0.780  0.6312 -144.6   6.814  115.3  0.0269   29.6  0.3028  -29.8
 0.800  0.6372 -145.8   6.704  114.3  0.0271   29.2  0.2993  -30.1
 0.820  0.6409 -147.0   6.586  113.5  0.0273   28.8  0.2964  -30.3
 0.840  0.6448 -148.1   6.469  112.7  0.0275   28.4  0.2935  -30.5
 0.860  0.6490 -149.3   6.353  111.8  0.0277   28.0  0.2906  -30.7
 0.880  0.6535 -150.4   6.239  110.9  0.0279   27.6  0.2878  -31.0
 0.900  0.6582 -151.5   6.127  110.0  0.0281   27.2  0.2849  -31.2
 0.920  0.6613 -152.5   6.028  109.3  0.0282   26.9  0.2821  -31.4
 0.940  0.6647 -153.5   5.930  108.6  0.0284   26.5  0.2794  -31.7
 0.960  0.6682 -154.4   5.832  107.8  0.0285   26.2  0.2766  -31.9
 0.980  0.6719 -155.4   5.736  107.0  0.0287   25.8  0.2739  -32.2
 1.000  0.6758 -156.3   5.641  106.2  0.0288   25.5  0.2711  -32.4
 1.020  0.6784 -157.2   5.553  105.5  0.0289   25.2  0.2690  -32.6
 1.040  0.6811 -158.0   5.466  104.9  0.0290   24.9  0.2668  -32.8
 1.060  0.6839 -158.8   5.380  104.2  0.0292   24.7  0.2647  -32.9
 1.080  0.6869 -159.7   5.295  103.4  0.0293   24.4  0.2625  -33.1
 1.100  0.6901 -160.5   5.210  102.7  0.0294   24.1  0.2604  -33.3
 1.120  0.6924 -161.3   5.134  102.1  0.0295   23.9  0.2584  -33.5
 1.140  0.6949 -162.0   5.059  101.5  0.0296   23.6  0.2564  -33.7
 1.160  0.6975 -162.7   4.984  100.9  0.0296   23.4  0.2543  -33.9
 1.180  0.7002 -163.5   4.910  100.3  0.0297   23.1  0.2523  -34.1
 1.200  0.7030 -164.2   4.836   99.6  0.0298   22.9  0.2503  -34.3
 1.220  0.7048 -164.9   4.771   99.1  0.0299   22.7  0.2485  -34.5
 1.240  0.7067 -165.6   4.707   98.5  0.0300   22.5  0.2467  -34.7
 1.260  0.7088 -166.3   4.643   97.9  0.0300   22.3  0.2449  -35.0
 1.280  0.7109 -166.9   4.579   97.3  0.0301   22.1  0.2431  -35.2
 1.300  0.7131 -167.6   4.516   96.7  0.0302   21.9  0.2413  -35.4
 1.320  0.7149 -168.2   4.458   96.2  0.0303   21.7  0.2398  -35.6
 1.340  0.7167 -168.8   4.400   95.7  0.0303   21.6  0.2382  -35.8
 1.360  0.7186 -169.3   4.342   95.2  0.0304   21.4  0.2367  -36.1
 1.380  0.7206 -169.9   4.285   94.6  0.0304   21.3  0.2351  -36.3
 1.400  0.7227 -170.5   4.228   94.1  0.0305   21.1  0.2336  -36.5
 1.420  0.7242 -171.1   4.175   93.6  0.0305   21.0  0.2322  -36.7
 1.440  0.7257 -171.6   4.121   93.1  0.0306   20.8  0.2307  -36.9
 1.460  0.7273 -172.2   4.069   92.6  0.0306   20.7  0.2293  -37.2
 1.480  0.7290 -172.7   4.016   92.1  0.0307   20.5  0.2279  -37.4
 1.500  0.7307 -173.3   3.964   91.6  0.0307   20.4  0.2265  -37.6
 1.520  0.7322 -173.7   3.920   91.2  0.0307   20.3  0.2255  -37.8
 1.540  0.7336 -174.2   3.876   90.7  0.0308   20.2  0.2244  -38.1
 1.560  0.7352 -174.6   3.832   90.3  0.0308   20.1  0.2234  -38.3
 1.580  0.7368 -175.1   3.788   89.8  0.0309   20.0  0.2223  -38.6
 1.600  0.7384 -175.5   3.745   89.3  0.0309   19.9  0.2213  -38.8
 1.620  0.7396 -175.9   3.702   88.9  0.0309   19.8  0.2200  -39.1
 1.640  0.7409 -176.4   3.660   88.5  0.0310   19.7  0.2188  -39.3
 1.660  0.7422 -176.8   3.618   88.0  0.0310   19.5  0.2175  -39.6
 1.680  0.7435 -177.3   3.576   87.6  0.0311   19.4  0.2163  -39.8
 1.700  0.7449 -177.7   3.534   87.1  0.0311   19.3  0.2150  -40.1
 1.720  0.7462 -178.1   3.496   86.7  0.0311   19.2  0.2141  -40.4
 1.740  0.7476 -178.4   3.457   86.3  0.0312   19.2  0.2132  -40.7
 1.760  0.7490 -178.8   3.419   85.9  0.0312   19.1  0.2123  -41.0
 1.780  0.7504 -179.1   3.382   85.4  0.0313   19.1  0.2115  -41.3
 1.800  0.7518 -179.5   3.344   85.0  0.0313   19.0  0.2106  -41.6
 1.820  0.7556 -179.8   3.309   84.6  0.0313   18.9  0.2097  -41.9
 1.840  0.7595  179.9   3.274   84.3  0.0313   18.9  0.2089  -42.2
 1.860  0.7633  179.6   3.239   83.9  0.0314   18.8  0.2080  -42.4
 1.880  0.7672  179.3   3.204   83.5  0.0314   18.8  0.2071  -42.7
 1.900  0.7711  179.0   3.169   83.1  0.0314   18.7  0.2063  -43.0
 1.920  0.7720  178.6   3.139   82.7  0.0314   18.7  0.2056  -43.3
 1.940  0.7728  178.3   3.108   82.4  0.0314   18.6  0.2050  -43.6
 1.960  0.7738  177.9   3.078   82.0  0.0315   18.6  0.2043  -44.0
 1.980  0.7747  177.6   3.048   81.6  0.0315   18.5  0.2036  -44.3
 2.000  0.7757  177.2   3.018   81.2  0.0315   18.5  0.2030  -44.6
 2.020  0.7764  176.8   2.991   80.9  0.0315   18.5  0.2024  -44.9
 2.040  0.7770  176.5   2.963   80.5  0.0316   18.4  0.2019  -45.2
 2.060  0.7778  176.1   2.936   80.2  0.0316   18.4  0.2013  -45.6
 2.080  0.7785  175.8   2.909   79.8  0.0316   18.4  0.2008  -45.9
 2.100  0.7793  175.4   2.882   79.5  0.0316   18.3  0.2003  -46.2
 2.120  0.7801  175.1   2.855   79.1  0.0317   18.3  0.1997  -46.6
 2.140  0.7809  174.7   2.828   78.8  0.0317   18.3  0.1992  -46.9
 2.160  0.7818  174.4   2.801   78.4  0.0317   18.3  0.1987  -47.2
 2.180  0.7827  174.0   2.774   78.0  0.0318   18.2  0.1982  -47.6
 2.200  0.7836  173.7   2.748   77.6  0.0318   18.2  0.1977  -47.9
 2.220  0.7841  173.4   2.725   77.3  0.0318   18.2  0.1974  -48.2
 2.240  0.7845  173.1   2.702   77.0  0.0318   18.2  0.1970  -48.6
 2.260  0.7851  172.8   2.679   76.7  0.0318   18.2  0.1967  -48.9
 2.280  0.7856  172.5   2.656   76.4  0.0318   18.2  0.1964  -49.3
 2.300  0.7861  172.2   2.633   76.1  0.0319   18.2  0.1961  -49.6
 2.320  0.7867  171.9   2.611   75.7  0.0319   18.2  0.1958  -50.0
 2.340  0.7873  171.6   2.588   75.4  0.0319   18.2  0.1955  -50.3
 2.360  0.7879  171.3   2.566   75.1  0.0319   18.2  0.1952  -50.7
 2.380  0.7885  171.0   2.543   74.7  0.0319   18.2  0.1949  -51.0
 2.400  0.7892  170.7   2.521   74.4  0.0319   18.2  0.1946  -51.4
 2.420  0.7896  170.4   2.501   74.1  0.0319   18.2  0.1945  -51.7
 2.440  0.7901  170.2   2.481   73.8  0.0319   18.2  0.1943  -52.1
 2.460  0.7906  169.9   2.462   73.5  0.0320   18.3  0.1942  -52.4
 2.480  0.7910  169.7   2.442   73.2  0.0320   18.3  0.1941  -52.8
 2.500  0.7915  169.4   2.423   72.9  0.0320   18.3  0.1940  -53.1
 2.520  0.7921  169.1   2.403   72.5  0.0320   18.3  0.1939  -53.4
 2.540  0.7926  168.9   2.384   72.2  0.0320   18.3  0.1938  -53.8
 2.560  0.7931  168.6   2.364   71.9  0.0321   18.4  0.1937  -54.1
 2.580  0.7937  168.4   2.345   71.5  0.0321   18.4  0.1937  -54.5
 2.600  0.7943  168.1   2.326   71.2  0.0321   18.4  0.1936  -54.8
 2.620  0.7946  167.9   2.309   70.9  0.0321   18.5  0.1936  -55.1
 2.640  0.7948  167.6   2.292   70.7  0.0321   18.5  0.1937  -55.4
 2.660  0.7951  167.4   2.275   70.4  0.0322   18.6  0.1937  -55.8
 2.680  0.7955  167.1   2.258   70.1  0.0322   18.6  0.1938  -56.1
 2.700  0.7958  166.9   2.241   69.8  0.0322   18.7  0.1938  -56.4
 2.720  0.7961  166.7   2.224   69.5  0.0322   18.8  0.1939  -56.7
 2.740  0.7965  166.4   2.207   69.2  0.0322   18.8  0.1940  -57.0
 2.760  0.7968  166.2   2.190   68.9  0.0323   18.9  0.1940  -57.4
 2.780  0.7972  165.9   2.174   68.6  0.0323   18.9  0.1941  -57.7
 2.800  0.7976  165.7   2.157   68.3  0.0323   19.0  0.1942  -58.0
 2.820  0.7980  165.5   2.143   68.0  0.0323   19.1  0.1944  -58.3
 2.840  0.7983  165.2   2.128   67.8  0.0324   19.1  0.1945  -58.7
 2.860  0.7987  165.0   2.114   67.5  0.0324   19.2  0.1947  -59.0
 2.880  0.7991  164.8   2.100   67.2  0.0325   19.2  0.1949  -59.4
 2.900  0.7995  164.5   2.085   66.9  0.0325   19.3  0.1951  -59.7
 2.920  0.8000  164.3   2.071   66.7  0.0326   19.3  0.1953  -60.0
 2.940  0.8004  164.1   2.057   66.4  0.0326   19.4  0.1955  -60.4
 2.960  0.8009  163.9   2.043   66.1  0.0327   19.4  0.1957  -60.7
 2.980  0.8013  163.6   2.029   65.8  0.0327   19.5  0.1960  -61.1
 3.000  0.8018  163.4   2.015   65.5  0.0328   19.5  0.1962  -61.4
 3.100  0.8022  162.4   1.956   64.3  0.0330   19.7  0.1977  -62.7
 3.200  0.8029  161.4   1.897   63.1  0.0332   20.0  0.1993  -64.1
 3.300  0.8038  160.3   1.840   61.8  0.0334   20.2  0.2010  -65.4
 3.400  0.8050  159.3   1.783   60.4  0.0336   20.5  0.2028  -66.6
 3.500  0.8064  158.3   1.728   58.9  0.0338   20.7  0.2047  -67.9
 3.600  0.8067  157.4   1.684   57.8  0.0341   21.0  0.2062  -68.8
 3.700  0.8071  156.4   1.641   56.6  0.0344   21.3  0.2077  -69.7
 3.800  0.8078  155.5   1.599   55.4  0.0346   21.6  0.2093  -70.6
 3.900  0.8088  154.5   1.557   54.1  0.0349   21.8  0.2109  -71.5
 4.000  0.8099  153.6   1.516   52.7  0.0352   22.1  0.2126  -72.4
 4.100  0.8097  152.7   1.482   51.6  0.0356   22.4  0.2136  -73.2
 4.200  0.8097  151.7   1.449   50.4  0.0359   22.6  0.2146  -74.0
 4.300  0.8100  150.8   1.417   49.2  0.0363   22.9  0.2157  -74.8
 4.400  0.8104  149.8   1.385   47.9  0.0366   23.2  0.2168  -75.6
 4.500  0.8111  148.9   1.354   46.6  0.0370   23.4  0.2180  -76.4
 4.600  0.8105  147.9   1.327   45.5  0.0374   23.6  0.2182  -77.2
 4.700  0.8102  147.0   1.301   44.3  0.0379   23.8  0.2185  -78.1
 4.800  0.8101  146.0   1.276   43.1  0.0383   24.0  0.2188  -78.9
 4.900  0.8102  145.1   1.251   41.8  0.0388   24.1  0.2192  -79.8
 5.000  0.8106  144.1   1.227   40.5  0.0392   24.3  0.2196  -80.6
 5.100  0.8095  143.1   1.205   39.4  0.0397   24.4  0.2193  -81.5
 5.200  0.8086  142.0   1.183   38.2  0.0402   24.5  0.2190  -82.4
 5.300  0.8081  141.0   1.162   37.0  0.0407   24.6  0.2188  -83.3
 5.400  0.8077  139.9   1.142   35.7  0.0412   24.7  0.2187  -84.2
 5.500  0.8077  138.9   1.122   34.4  0.0417   24.8  0.2186  -85.1
 5.600  0.8066  137.7   1.104   33.2  0.0423   24.7  0.2184  -86.2
 5.700  0.8058  136.6   1.086   32.0  0.0428   24.7  0.2182  -87.3
 5.800  0.8053  135.4   1.069   30.7  0.0434   24.6  0.2182  -88.3
 5.900  0.8052  134.3   1.052   29.4  0.0439   24.6  0.2182  -89.4
 6.000  0.8054  133.1   1.036   28.0  0.0445   24.5  0.2183  -90.5
 6.100  0.8036  131.8   1.019   26.7  0.0451   24.3  0.2170  -91.8
 6.200  0.8022  130.4   1.003   25.4  0.0457   24.1  0.2159  -93.0
 6.300  0.8013  129.1   0.987   24.1  0.0462   23.9  0.2148  -94.3
 6.400  0.8008  127.7   0.972   22.7  0.0468   23.7  0.2138  -95.6
 6.500  0.8008  126.4   0.957   21.3  0.0474   23.5  0.2130  -96.9
 6.600  0.7985  125.0   0.941   20.1  0.0479   23.2  0.2106  -98.4
 6.800  0.7954  122.1   0.909   17.5  0.0490   22.8  0.2062 -101.5
 7.000  0.7944  119.2   0.880   14.7  0.0501   22.3  0.2024 -104.7
 7.200  0.7946  116.2   0.850   12.2  0.0512   21.6  0.1939 -109.0
 7.400  0.7970  113.1   0.822    9.6  0.0523   20.9  0.1866 -113.6
 7.600  0.8005  110.1   0.794    7.0  0.0533   20.1  0.1783 -119.0
 7.800  0.8053  107.1   0.768    4.4  0.0542   19.3  0.1698 -125.5
 8.000  0.8122  104.1   0.743    1.7  0.0552   18.4  0.1636 -132.5
 8.200  0.8175  101.3   0.714   -0.6  0.0558   17.4  0.1567 -142.9
 8.400  0.8248   98.5   0.686   -3.2  0.0565   16.5  0.1553 -153.8
 8.600  0.8314   96.1   0.659   -5.5  0.0570   15.7  0.1574 -166.0
 8.800  0.8365   94.0   0.631   -7.5  0.0575   15.1  0.1652 -178.9
 9.000  0.8427   92.0   0.604   -9.8  0.0579   14.5  0.1803  169.9
 9.200  0.8494   90.8   0.581  -11.4  0.0585   13.9  0.1969  161.8
 9.400  0.8565   89.6   0.559  -13.2  0.0590   13.2  0.2168  155.0
 9.600  0.8644   88.6   0.538  -14.9  0.0595   12.6  0.2394  149.5
 9.800  0.8728   87.9   0.519  -16.5  0.0600   11.9  0.2640  145.0
10.000  0.8813   87.2   0.500  -18.2  0.0604   11.3  0.2899  141.3
!
!  f       NFmin   Gammaopt  rn/50
! GHz       dB    MAG  ANG    -
!
! noise parameter not available yet for this operation point!
!
! (c) 2016  Infineon Technologies AG, Munich
