! Infineon Technologies  Discrete & RF Semiconductors
! BFP780
! VCE =  1.0 V,  IC =  70 mA
! Common Emitter S-Parameters:                            Jul 2015
# GHz  S  MA  R  50
!  f         S11            S21            S12            S22
! GHz     MAG   ANG      MAG   ANG      MAG   ANG      MAG   ANG
 0.030  0.5100  -76.1  68.844  153.8  0.0101   70.1  0.9438  -36.6
 0.040  0.5599  -86.5  67.782  147.9  0.0117   60.6  0.9145  -48.0
 0.050  0.5982  -94.5  65.977  142.5  0.0140   56.1  0.8909  -58.0
 0.060  0.6394 -101.9  63.023  138.0  0.0161   51.4  0.8608  -67.1
 0.070  0.6660 -108.9  59.383  133.6  0.0168   50.9  0.8395  -74.8
 0.080  0.6930 -115.5  55.694  129.6  0.0187   47.4  0.8197  -82.5
 0.090  0.7115 -121.2  52.107  126.2  0.0196   42.3  0.7987  -89.3
 0.100  0.7272 -125.9  48.948  123.4  0.0203   37.8  0.7816  -95.1
 0.110  0.7405 -130.0  46.169  120.7  0.0214   38.7  0.7669 -101.2
 0.120  0.7513 -133.5  43.717  118.5  0.0219   35.6  0.7532 -105.9
 0.130  0.7607 -136.5  41.486  116.6  0.0226   32.9  0.7405 -110.3
 0.140  0.7680 -139.3  39.367  114.7  0.0223   31.8  0.7293 -114.5
 0.150  0.7748 -141.9  37.472  113.0  0.0236   30.5  0.7219 -118.0
 0.200  0.7988 -151.6  29.680  106.2  0.0243   25.0  0.6926 -132.3
 0.250  0.8088 -158.3  24.475  101.4  0.0251   23.3  0.6777 -142.0
 0.300  0.8153 -163.3  20.644   97.7  0.0259   20.9  0.6660 -149.2
 0.350  0.8203 -167.1  17.847   94.8  0.0262   19.8  0.6601 -154.7
 0.400  0.8243 -170.0  15.707   92.4  0.0268   19.4  0.6567 -159.0
 0.450  0.8253 -172.6  14.005   90.2  0.0269   18.9  0.6533 -162.5
 0.500  0.8259 -174.9  12.637   88.3  0.0274   19.2  0.6503 -165.6
 0.600  0.8293 -178.6  10.554   85.0  0.0280   19.2  0.6485 -170.6
 0.700  0.8282  178.2   9.039   81.9  0.0286   19.2  0.6459 -174.6
 0.800  0.8313  175.5   7.918   79.3  0.0293   19.5  0.6466 -177.8
 0.900  0.8308  173.0   7.030   76.7  0.0300   20.3  0.6458  179.2
 1.000  0.8340  170.8   6.325   74.3  0.0306   20.8  0.6488  176.8
 1.100  0.8324  168.6   5.734   72.0  0.0315   21.3  0.6491  174.3
 1.200  0.8365  166.6   5.261   69.7  0.0323   21.7  0.6523  172.3
 1.300  0.8353  164.7   4.848   67.5  0.0332   22.0  0.6533  170.2
 1.400  0.8374  162.9   4.497   65.3  0.0340   22.4  0.6567  168.4
 1.500  0.8365  161.2   4.189   63.2  0.0348   22.4  0.6584  166.5
 1.600  0.8394  159.4   3.923   61.0  0.0358   22.3  0.6623  164.8
 1.700  0.8383  157.6   3.685   58.8  0.0367   22.3  0.6651  163.0
 1.800  0.8386  155.9   3.466   56.7  0.0375   22.6  0.6686  161.4
 1.900  0.8385  154.4   3.273   54.7  0.0383   22.5  0.6718  159.8
 2.000  0.8418  152.7   3.110   52.6  0.0391   22.1  0.6751  158.2
 2.100  0.8413  151.1   2.946   50.6  0.0398   21.9  0.6697  157.0
 2.200  0.8404  149.5   2.801   48.5  0.0404   21.7  0.6715  155.4
 2.300  0.8407  148.1   2.671   46.6  0.0413   21.5  0.6730  153.9
 2.400  0.8430  146.5   2.554   44.5  0.0421   21.2  0.6748  152.3
 2.500  0.8437  144.9   2.445   42.4  0.0429   20.9  0.6773  150.8
 2.600  0.8433  143.2   2.335   40.4  0.0437   20.4  0.6789  149.2
 2.700  0.8423  141.8   2.236   38.4  0.0444   20.0  0.6805  147.7
 2.800  0.8439  140.2   2.148   36.5  0.0450   19.5  0.6830  146.2
 2.900  0.8438  138.7   2.061   34.5  0.0457   19.2  0.6865  144.7
 3.000  0.8447  137.1   1.980   32.5  0.0463   18.8  0.6889  143.2
 3.100  0.8449  135.7   1.903   30.7  0.0473   18.5  0.6917  141.8
 3.200  0.8452  134.3   1.832   28.8  0.0478   18.1  0.6944  140.4
 3.300  0.8450  132.9   1.764   27.0  0.0484   17.7  0.6973  139.2
 3.400  0.8460  131.4   1.701   25.1  0.0492   17.2  0.7002  137.8
 3.500  0.8464  130.2   1.643   23.5  0.0499   16.6  0.7029  136.6
 3.600  0.8461  128.6   1.584   21.6  0.0505   16.2  0.7060  135.3
 3.700  0.8474  127.3   1.533   19.9  0.0511   15.6  0.7084  134.1
 3.800  0.8473  125.9   1.479   18.2  0.0515   15.2  0.7116  132.8
 3.900  0.8483  124.7   1.434   16.5  0.0522   14.8  0.7144  131.7
 4.000  0.8493  123.4   1.388   14.9  0.0525   14.5  0.7174  130.5
 4.100  0.8505  122.1   1.346   13.2  0.0534   13.7  0.7200  129.5
 4.200  0.8517  120.9   1.304   11.5  0.0539   13.4  0.7234  128.4
 4.300  0.8527  119.6   1.266    9.9  0.0545   12.7  0.7266  127.4
 4.400  0.8542  118.5   1.230    8.3  0.0553   12.4  0.7296  126.4
 4.500  0.8554  117.3   1.196    6.7  0.0556   11.9  0.7321  125.4
 4.600  0.8571  116.2   1.162    5.2  0.0564   11.4  0.7348  124.3
 4.700  0.8576  115.1   1.130    3.5  0.0569   10.9  0.7368  123.3
 4.800  0.8589  114.1   1.099    2.0  0.0574   10.3  0.7398  122.3
 4.900  0.8596  113.2   1.070    0.5  0.0579    9.9  0.7410  121.3
 5.000  0.8604  112.1   1.042   -1.0  0.0585    9.3  0.7434  120.3
 5.100  0.8617  111.3   1.016   -2.6  0.0591    8.8  0.7449  119.2
 5.200  0.8616  110.2   0.990   -4.1  0.0596    8.3  0.7471  118.3
 5.300  0.8620  109.3   0.965   -5.6  0.0603    7.7  0.7481  117.3
 5.400  0.8623  108.4   0.943   -7.1  0.0609    7.2  0.7502  116.3
 5.500  0.8616  107.6   0.919   -8.4  0.0613    6.7  0.7504  115.3
 5.600  0.8616  106.9   0.898   -9.9  0.0618    6.2  0.7524  114.3
 5.700  0.8600  106.0   0.878  -11.3  0.0626    5.7  0.7535  113.3
 5.800  0.8603  105.2   0.858  -12.8  0.0633    5.1  0.7551  112.3
 5.900  0.8587  104.4   0.840  -14.1  0.0640    4.5  0.7569  111.3
 6.000  0.8589  103.4   0.822  -15.6  0.0645    3.8  0.7586  110.1
!
!  f       NFmin   Gammaopt  rn/50
! GHz       dB    MAG  ANG    -
 0.450      1.66  0.46  179   0.07
 0.900      1.71  0.49 -169   0.08
 1.500      1.77  0.51 -160   0.09
 1.800      1.94  0.52 -154   0.10
 2.400      2.06  0.53 -146   0.15
 3.000      2.34  0.54 -137   0.21
 3.500      2.82  0.58 -123   0.32
!
! (c) 2015  Infineon Technologies AG, Munich
