! Infineon Technologies  Discrete & RF Semiconductors
! BFP760
! VCE =  3.0 V,  IC =  12 mA
! Common Emitter S-Parameters:                            Nov 2012
# GHz  S  MA  R  50
!  f         S11            S21            S12            S22
! GHz     MAG   ANG      MAG   ANG      MAG   ANG      MAG   ANG
 0.030  0.8794   -4.4  32.905  176.6  0.0024   82.9  0.9944   -3.2
 0.040  0.8794   -5.8  32.911  175.7  0.0034   86.5  0.9940   -4.2
 0.050  0.8775   -7.3  33.264  174.1  0.0047   74.1  0.9932   -5.1
 0.060  0.8769   -8.7  33.091  173.3  0.0054   88.9  0.9923   -6.0
 0.070  0.8748  -10.1  33.011  172.2  0.0062   85.0  0.9903   -7.1
 0.080  0.8721  -11.5  32.896  171.3  0.0065   78.7  0.9882   -8.1
 0.090  0.8721  -12.9  32.784  170.2  0.0073   81.5  0.9860   -9.1
 0.100  0.8699  -14.3  32.680  169.2  0.0081   82.5  0.9840  -10.1
 0.110  0.8670  -15.7  32.497  168.2  0.0088   80.1  0.9814  -11.1
 0.120  0.8661  -17.1  32.372  167.3  0.0097   79.9  0.9791  -12.1
 0.130  0.8644  -18.5  32.195  166.3  0.0102   78.9  0.9757  -13.1
 0.140  0.8621  -19.8  32.036  165.4  0.0112   77.7  0.9715  -14.1
 0.150  0.8595  -21.3  31.990  164.4  0.0117   78.7  0.9686  -15.0
 0.200  0.8488  -28.0  31.107  160.0  0.0155   74.0  0.9499  -19.8
 0.250  0.8349  -34.5  30.353  155.7  0.0190   70.7  0.9271  -24.3
 0.300  0.8211  -40.7  29.410  151.6  0.0224   68.2  0.9047  -28.5
 0.350  0.8070  -46.8  28.469  147.9  0.0254   64.8  0.8801  -32.6
 0.400  0.7939  -52.7  27.622  144.3  0.0282   62.3  0.8524  -36.5
 0.450  0.7811  -58.2  26.682  141.0  0.0310   59.1  0.8293  -40.2
 0.500  0.7695  -63.6  25.798  137.9  0.0334   57.0  0.8022  -43.9
 0.600  0.7471  -74.0  24.137  132.0  0.0377   52.6  0.7525  -50.5
 0.700  0.7286  -83.2  22.529  126.8  0.0414   48.5  0.7063  -56.7
 0.800  0.7126  -92.1  21.085  122.0  0.0445   44.6  0.6628  -62.5
 0.900  0.6991  -99.9  19.732  117.8  0.0470   41.5  0.6214  -68.0
 1.000  0.6882 -107.0  18.482  113.8  0.0491   38.6  0.5855  -73.0
 1.100  0.6783 -113.7  17.360  110.2  0.0510   36.1  0.5514  -77.8
 1.200  0.6713 -119.8  16.339  106.8  0.0525   33.8  0.5228  -82.2
 1.300  0.6648 -125.5  15.417  103.6  0.0537   31.9  0.4955  -86.6
 1.400  0.6611 -130.7  14.570  100.7  0.0549   30.1  0.4733  -90.5
 1.500  0.6575 -135.6  13.817   98.0  0.0558   28.4  0.4514  -94.5
 1.600  0.6562 -140.1  13.140   95.4  0.0567   27.0  0.4339  -98.3
 1.700  0.6548 -144.4  12.504   92.8  0.0576   25.7  0.4161 -102.0
 1.800  0.6558 -148.3  11.922   90.4  0.0582   24.3  0.4023 -105.9
 1.900  0.6555 -152.1  11.389   88.2  0.0588   23.3  0.3883 -109.5
 2.000  0.6566 -155.7  10.900   85.9  0.0593   22.0  0.3770 -113.2
 2.100  0.6566 -159.1  10.410   83.6  0.0596   21.1  0.3663 -116.7
 2.200  0.6570 -162.3   9.974   81.6  0.0600   20.2  0.3566 -120.0
 2.300  0.6577 -165.3   9.579   79.6  0.0602   19.4  0.3469 -123.4
 2.400  0.6590 -168.2   9.206   77.6  0.0606   18.7  0.3397 -126.6
 2.500  0.6603 -171.1   8.862   75.6  0.0609   17.9  0.3320 -129.9
 2.600  0.6613 -173.9   8.530   73.8  0.0611   17.1  0.3253 -133.2
 2.700  0.6627 -176.5   8.225   71.9  0.0613   16.6  0.3195 -136.5
 2.800  0.6645 -179.0   7.936   70.1  0.0615   16.0  0.3149 -139.7
 2.900  0.6663  178.5   7.659   68.3  0.0616   15.4  0.3110 -143.0
 3.000  0.6686  176.2   7.406   66.5  0.0619   14.9  0.3084 -146.3
 3.100  0.6707  173.9   7.158   64.9  0.0621   14.4  0.3066 -149.4
 3.200  0.6730  171.8   6.925   63.2  0.0621   13.9  0.3049 -152.3
 3.300  0.6754  169.6   6.702   61.5  0.0621   13.4  0.3040 -155.3
 3.400  0.6780  167.5   6.488   59.9  0.0623   13.2  0.3039 -158.2
 3.500  0.6808  165.5   6.290   58.3  0.0623   12.8  0.3042 -161.0
 3.600  0.6835  163.5   6.096   56.7  0.0624   12.3  0.3052 -163.7
 3.700  0.6864  161.6   5.914   55.1  0.0623   12.1  0.3064 -166.5
 3.800  0.6889  159.8   5.730   53.6  0.0625   11.7  0.3086 -169.0
 3.900  0.6915  158.1   5.564   52.1  0.0624   11.4  0.3107 -171.4
 4.000  0.6943  156.4   5.400   50.7  0.0624   11.2  0.3135 -173.7
 4.100  0.6978  154.7   5.251   49.2  0.0624   11.0  0.3168 -175.8
 4.200  0.7002  153.3   5.099   47.8  0.0624   10.8  0.3195 -177.8
 4.300  0.7030  151.8   4.958   46.5  0.0624   10.7  0.3229 -179.8
 4.400  0.7060  150.4   4.822   45.1  0.0625   10.5  0.3261  178.6
 4.500  0.7086  149.1   4.696   43.8  0.0625   10.4  0.3295  176.9
 4.600  0.7117  147.8   4.572   42.5  0.0626   10.3  0.3322  175.3
 4.700  0.7140  146.6   4.456   41.2  0.0626   10.2  0.3357  173.7
 4.800  0.7166  145.5   4.341   40.0  0.0626   10.2  0.3386  172.3
 4.900  0.7192  144.4   4.236   38.7  0.0626   10.1  0.3419  170.9
 5.000  0.7217  143.4   4.132   37.5  0.0629   10.1  0.3446  169.6
 5.100  0.7241  142.4   4.037   36.3  0.0629   10.0  0.3478  168.2
 5.200  0.7264  141.4   3.944   35.1  0.0630   10.0  0.3504  167.0
 5.300  0.7282  140.4   3.854   33.9  0.0630   10.0  0.3530  165.7
 5.400  0.7299  139.5   3.767   32.7  0.0633    9.9  0.3560  164.4
 5.500  0.7310  138.6   3.683   31.5  0.0633   10.1  0.3581  163.3
 5.600  0.7320  137.9   3.601   30.4  0.0635   10.1  0.3599  162.1
 5.700  0.7334  137.0   3.530   29.2  0.0637   10.1  0.3634  160.8
 5.800  0.7344  136.2   3.455   28.1  0.0640   10.2  0.3655  159.7
 5.900  0.7361  135.4   3.386   26.9  0.0643   10.3  0.3685  158.4
 6.000  0.7378  134.6   3.319   25.8  0.0645   10.2  0.3716  157.3
 6.100  0.7397  133.9   3.258   24.6  0.0650   10.4  0.3754  156.2
 6.200  0.7408  133.0   3.194   23.4  0.0654   10.3  0.3780  155.1
 6.300  0.7434  132.2   3.136   22.3  0.0658   10.3  0.3820  154.1
 6.400  0.7449  131.3   3.077   21.1  0.0662   10.1  0.3855  152.9
 6.500  0.7472  130.3   3.020   19.9  0.0666   10.0  0.3892  151.9
 6.600  0.7497  129.4   2.968   18.7  0.0669    9.9  0.3927  150.8
 6.700  0.7515  128.6   2.913   17.7  0.0673    9.8  0.3963  149.8
 6.800  0.7525  127.6   2.861   16.5  0.0677    9.6  0.4000  148.7
 6.900  0.7557  126.5   2.811   15.3  0.0681    9.4  0.4045  147.7
 7.000  0.7572  125.6   2.764   14.0  0.0685    9.2  0.4081  146.7
 7.100  0.7599  124.6   2.718   12.9  0.0690    9.0  0.4137  145.7
 7.200  0.7625  123.5   2.672   11.6  0.0694    8.8  0.4179  144.8
 7.300  0.7647  122.5   2.626   10.5  0.0698    8.5  0.4224  143.7
 7.400  0.7675  121.4   2.582    9.1  0.0702    8.2  0.4268  142.6
 7.500  0.7712  120.4   2.540    7.9  0.0706    7.9  0.4319  141.6
 7.600  0.7743  119.3   2.496    6.6  0.0710    7.5  0.4367  140.4
 7.700  0.7775  118.2   2.454    5.4  0.0714    7.2  0.4417  139.3
 7.800  0.7813  117.1   2.408    4.0  0.0717    6.8  0.4476  138.0
 7.900  0.7850  116.1   2.369    2.7  0.0720    6.4  0.4531  136.8
 8.000  0.7893  114.9   2.321    1.4  0.0721    5.9  0.4593  135.6
 8.500  0.8105  109.6   2.099   -5.2  0.0726    3.7  0.4914  129.1
 9.000  0.8293  104.9   1.870  -11.1  0.0719    2.0  0.5308  123.2
 9.500  0.8469  101.3   1.659  -15.7  0.0707    1.4  0.5700  118.7
10.000  0.8613   99.3   1.485  -19.0  0.0704    1.7  0.6067  116.6
!
!  f       NFmin   Gammaopt  rn/50
! GHz       dB    MAG  ANG    -
!
! noise parameter not available yet for this operation point!
!
! (c) 2012  Infineon Technologies AG, Munich
