! Infineon Technologies  Discrete & RF Semiconductors
! BFP780
! VCE =  5.0 V,  IC = 0.11 A
! Common Emitter S-Parameters:                            Jul 2015
# GHz  S  MA  R  50
!  f         S11            S21            S12            S22
! GHz     MAG   ANG      MAG   ANG      MAG   ANG      MAG   ANG
 0.030  0.2607  -54.6  77.969  167.2  0.0040   62.5  0.9306  -17.5
 0.040  0.2906  -66.4  76.483  163.0  0.0050   72.8  0.9116  -23.2
 0.050  0.3276  -76.5  74.934  158.6  0.0061   70.9  0.8982  -28.7
 0.060  0.3699  -85.1  73.066  154.8  0.0081   55.6  0.8753  -34.3
 0.070  0.4006  -92.1  71.001  151.1  0.0087   56.6  0.8561  -39.3
 0.080  0.4310  -98.5  68.813  147.6  0.0092   50.7  0.8330  -44.1
 0.090  0.4619 -103.9  66.489  144.3  0.0102   55.5  0.8136  -48.9
 0.100  0.4905 -108.7  64.199  141.3  0.0111   52.6  0.7909  -53.1
 0.110  0.5169 -113.3  61.892  138.4  0.0117   55.4  0.7686  -57.7
 0.120  0.5398 -117.2  59.674  135.7  0.0121   47.1  0.7492  -61.5
 0.130  0.5604 -120.8  57.544  133.2  0.0130   47.3  0.7265  -65.3
 0.140  0.5799 -124.2  55.368  130.9  0.0132   45.6  0.7062  -68.9
 0.150  0.5959 -127.1  53.427  128.7  0.0140   45.2  0.6894  -72.3
 0.200  0.6589 -138.8  44.661  119.7  0.0159   39.9  0.6113  -87.1
 0.250  0.6956 -147.2  37.993  112.8  0.0167   35.2  0.5578  -98.8
 0.300  0.7194 -153.4  32.733  107.5  0.0177   32.7  0.5161 -108.5
 0.350  0.7363 -158.3  28.679  103.3  0.0183   30.8  0.4869 -116.4
 0.400  0.7484 -162.2  25.459   99.8  0.0183   29.5  0.4658 -123.0
 0.450  0.7556 -165.4  22.867   96.7  0.0191   29.0  0.4510 -128.5
 0.500  0.7612 -168.2  20.728   94.0  0.0194   28.2  0.4380 -133.4
 0.600  0.7710 -172.8  17.421   89.4  0.0202   28.4  0.4226 -141.4
 0.700  0.7747 -176.6  14.991   85.4  0.0211   28.6  0.4118 -147.7
 0.800  0.7815 -179.7  13.158   82.0  0.0215   28.4  0.4083 -152.8
 0.900  0.7835  177.4  11.703   78.7  0.0222   28.8  0.4044 -157.2
 1.000  0.7883  174.8  10.539   75.7  0.0229   29.0  0.4063 -160.7
 1.100  0.7885  172.4   9.561   72.8  0.0236   30.1  0.4061 -164.1
 1.200  0.7939  170.3   8.772   70.1  0.0244   30.7  0.4101 -166.7
 1.300  0.7941  168.2   8.081   67.5  0.0251   31.3  0.4119 -169.3
 1.400  0.7973  166.3   7.493   64.8  0.0259   31.2  0.4168 -171.5
 1.500  0.7972  164.5   6.976   62.4  0.0266   31.7  0.4200 -173.7
 1.600  0.8018  162.6   6.533   59.8  0.0274   31.7  0.4261 -175.6
 1.700  0.8016  160.7   6.130   57.3  0.0281   32.2  0.4308 -177.6
 1.800  0.8027  159.0   5.763   54.9  0.0290   32.3  0.4372 -179.3
 1.900  0.8039  157.4   5.440   52.6  0.0297   32.6  0.4431  179.0
 2.000  0.8082  155.7   5.164   50.2  0.0308   32.8  0.4499  177.4
 2.100  0.8087  154.1   4.888   47.8  0.0311   32.8  0.4517  176.4
 2.200  0.8088  152.5   4.641   45.5  0.0321   32.5  0.4571  174.8
 2.300  0.8104  151.0   4.422   43.3  0.0327   32.7  0.4620  173.1
 2.400  0.8136  149.4   4.225   40.9  0.0335   32.8  0.4678  171.6
 2.500  0.8147  147.8   4.038   38.5  0.0345   32.4  0.4734  170.0
 2.600  0.8155  146.1   3.855   36.2  0.0351   32.6  0.4793  168.3
 2.700  0.8154  144.6   3.687   34.0  0.0362   32.2  0.4850  166.8
 2.800  0.8180  143.0   3.535   31.8  0.0370   32.2  0.4916  165.2
 2.900  0.8192  141.5   3.389   29.5  0.0377   31.7  0.4993  163.6
 3.000  0.8215  139.9   3.253   27.2  0.0386   31.8  0.5063  162.0
 3.100  0.8227  138.5   3.121   25.1  0.0395   31.6  0.5136  160.4
 3.200  0.8241  137.0   3.000   23.0  0.0404   31.1  0.5205  158.9
 3.300  0.8250  135.6   2.883   20.8  0.0412   31.0  0.5281  157.5
 3.400  0.8268  134.1   2.775   18.7  0.0421   30.3  0.5356  156.0
 3.500  0.8285  132.8   2.674   16.8  0.0427   30.1  0.5432  154.6
 3.600  0.8292  131.2   2.572   14.7  0.0435   29.5  0.5507  153.1
 3.700  0.8314  129.9   2.483   12.6  0.0444   29.2  0.5577  151.8
 3.800  0.8321  128.5   2.390   10.6  0.0452   29.0  0.5654  150.3
 3.900  0.8343  127.2   2.309    8.7  0.0459   28.4  0.5728  149.0
 4.000  0.8364  125.9   2.229    6.8  0.0469   28.2  0.5804  147.7
 4.100  0.8380  124.6   2.156    4.8  0.0478   27.4  0.5877  146.5
 4.200  0.8405  123.3   2.083    3.0  0.0487   27.2  0.5954  145.1
 4.300  0.8422  122.0   2.016    1.0  0.0493   26.3  0.6028  144.0
 4.400  0.8447  120.9   1.951   -0.7  0.0503   26.0  0.6104  142.8
 4.500  0.8464  119.6   1.891   -2.6  0.0512   25.6  0.6171  141.6
 4.600  0.8493  118.5   1.830   -4.4  0.0520   25.0  0.6242  140.4
 4.700  0.8504  117.4   1.774   -6.3  0.0528   24.6  0.6302  139.2
 4.800  0.8527  116.3   1.719   -8.0  0.0537   23.8  0.6371  138.0
 4.900  0.8538  115.4   1.667   -9.7  0.0545   23.4  0.6425  136.8
 5.000  0.8556  114.2   1.619  -11.5  0.0551   22.6  0.6489  135.6
 5.100  0.8576  113.4   1.572  -13.3  0.0561   22.1  0.6540  134.4
 5.200  0.8583  112.3   1.527  -15.0  0.0569   21.5  0.6598  133.3
 5.300  0.8592  111.4   1.482  -16.7  0.0577   20.8  0.6646  132.0
 5.400  0.8604  110.4   1.441  -18.4  0.0584   20.3  0.6699  130.9
 5.500  0.8603  109.6   1.399  -20.0  0.0592   19.7  0.6735  129.7
 5.600  0.8606  108.8   1.362  -21.6  0.0602   19.0  0.6787  128.5
 5.700  0.8599  107.9   1.327  -23.2  0.0611   18.6  0.6831  127.3
 5.800  0.8607  107.0   1.291  -24.8  0.0619   17.9  0.6879  126.1
 5.900  0.8597  106.3   1.259  -26.4  0.0630   17.1  0.6924  125.0
 6.000  0.8603  105.2   1.226  -28.0  0.0640   16.2  0.6971  123.6
!
!  f       NFmin   Gammaopt  rn/50
! GHz       dB    MAG  ANG    -
!
! noise parameter not available yet for this operation point!
!
! (c) 2015  Infineon Technologies AG, Munich
