! Infineon Technologies  Discrete & RF Semiconductors
! BFP740
! VCE =  2.5 V,  IC =  42 mA
! Common Emitter S-Parameters:                            Jan 2016
# GHz  S  MA  R  50
!  f         S11            S21            S12            S22
! GHz     MAG   ANG      MAG   ANG      MAG   ANG      MAG   ANG
 0.030  0.4606   -7.1  43.866  174.5  0.0021   58.1  0.8918   -1.8
 0.035  0.4596   -8.2  43.825  173.6  0.0021   68.8  0.8923   -2.4
 0.040  0.4588   -9.3  43.795  172.7  0.0021   79.5  0.8928   -3.0
 0.045  0.4646  -10.4  44.164  171.8  0.0026   80.6  0.8941   -3.7
 0.050  0.4706  -11.5  44.542  171.0  0.0031   81.4  0.8956   -4.3
 0.055  0.4698  -12.5  44.411  169.9  0.0029   79.6  0.8932   -4.8
 0.060  0.4692  -13.5  44.297  168.8  0.0027   77.6  0.8908   -5.4
 0.065  0.4680  -15.0  44.100  167.9  0.0036   73.2  0.8909   -6.0
 0.070  0.4672  -16.5  43.916  166.9  0.0045   70.6  0.8911   -6.6
 0.075  0.4674  -17.5  43.646  166.0  0.0042   75.4  0.8878   -7.1
 0.080  0.4678  -18.4  43.388  165.0  0.0039   80.9  0.8845   -7.7
 0.085  0.4665  -19.6  43.039  164.2  0.0044   77.8  0.8836   -8.2
 0.090  0.4655  -20.8  42.699  163.4  0.0049   75.3  0.8828   -8.8
 0.095  0.4665  -21.8  42.431  162.7  0.0047   75.6  0.8803   -9.3
 0.100  0.4676  -22.8  42.170  161.9  0.0046   75.9  0.8779   -9.8
 0.105  0.4668  -23.9  41.886  161.1  0.0048   73.4  0.8771  -10.3
 0.110  0.4661  -25.1  41.610  160.3  0.0051   71.1  0.8763  -10.8
 0.115  0.4658  -26.1  41.332  159.6  0.0056   72.6  0.8720  -11.3
 0.120  0.4657  -27.2  41.060  158.9  0.0062   73.8  0.8677  -11.8
 0.125  0.4655  -28.2  40.743  158.3  0.0064   76.0  0.8652  -12.2
 0.130  0.4654  -29.3  40.430  157.7  0.0066   78.0  0.8628  -12.7
 0.135  0.4659  -30.3  40.195  157.1  0.0065   76.1  0.8585  -13.1
 0.140  0.4666  -31.3  39.966  156.4  0.0065   74.1  0.8543  -13.5
 0.145  0.4667  -32.4  39.745  155.8  0.0068   75.3  0.8521  -13.9
 0.150  0.4670  -33.4  39.528  155.2  0.0071   76.4  0.8500  -14.4
 0.155  0.4671  -34.4  39.285  154.7  0.0073   75.7  0.8472  -14.8
 0.160  0.4674  -35.3  39.046  154.2  0.0075   75.1  0.8445  -15.1
 0.165  0.4678  -36.3  38.810  153.6  0.0077   74.5  0.8418  -15.5
 0.170  0.4683  -37.3  38.578  153.1  0.0079   73.9  0.8391  -15.9
 0.175  0.4689  -38.2  38.349  152.5  0.0081   73.4  0.8365  -16.3
 0.180  0.4697  -39.2  38.123  152.0  0.0084   72.9  0.8339  -16.7
 0.185  0.4707  -40.2  37.901  151.4  0.0086   72.4  0.8313  -17.0
 0.190  0.4717  -41.1  37.683  150.9  0.0088   72.0  0.8288  -17.4
 0.195  0.4729  -42.1  37.469  150.3  0.0090   71.5  0.8263  -17.8
 0.200  0.4742  -43.0  37.258  149.7  0.0092   71.1  0.8239  -18.2
 0.220  0.4761  -46.4  36.510  148.0  0.0100   70.6  0.8143  -19.5
 0.240  0.4798  -49.8  35.793  146.3  0.0109   70.1  0.8051  -20.9
 0.260  0.4830  -53.1  35.078  144.7  0.0116   69.5  0.7951  -22.2
 0.280  0.4857  -56.4  34.357  143.1  0.0123   68.8  0.7841  -23.5
 0.300  0.4899  -59.6  33.662  141.5  0.0129   68.2  0.7736  -24.8
 0.320  0.4919  -62.7  32.971  140.1  0.0137   66.3  0.7645  -26.1
 0.340  0.4953  -65.8  32.299  138.7  0.0146   64.7  0.7559  -27.4
 0.360  0.4985  -68.7  31.711  137.4  0.0153   63.5  0.7454  -28.6
 0.380  0.5014  -71.6  31.202  136.1  0.0160   62.7  0.7329  -29.7
 0.400  0.5056  -74.4  30.709  134.8  0.0166   62.0  0.7207  -30.8
 0.420  0.5086  -76.9  30.200  133.6  0.0172   61.1  0.7145  -31.9
 0.440  0.5125  -79.5  29.705  132.4  0.0178   60.2  0.7086  -33.0
 0.450  0.5149  -80.7  29.462  131.8  0.0181   59.8  0.7057  -33.6
 0.460  0.5158  -82.0  29.227  131.3  0.0184   59.2  0.7000  -34.1
 0.480  0.5183  -84.4  28.765  130.1  0.0189   58.1  0.6889  -35.2
 0.500  0.5217  -86.9  28.315  129.0  0.0195   57.1  0.6780  -36.3
 0.520  0.5233  -89.1  27.910  128.0  0.0200   56.2  0.6687  -37.2
 0.540  0.5256  -91.3  27.514  127.0  0.0206   55.4  0.6596  -38.1
 0.560  0.5288  -93.5  27.126  125.9  0.0211   54.6  0.6506  -39.1
 0.580  0.5326  -95.6  26.749  124.8  0.0217   53.9  0.6419  -40.1
 0.600  0.5372  -97.7  26.381  123.7  0.0222   53.2  0.6333  -41.1
 0.620  0.5383  -99.7  25.964  122.8  0.0227   52.6  0.6249  -41.9
 0.640  0.5401 -101.8  25.553  121.8  0.0232   52.0  0.6167  -42.8
 0.660  0.5426 -103.8  25.150  120.9  0.0236   51.5  0.6086  -43.6
 0.680  0.5457 -105.7  24.755  119.8  0.0241   50.9  0.6007  -44.5
 0.700  0.5495 -107.7  24.367  118.8  0.0246   50.4  0.5929  -45.4
 0.720  0.5512 -109.4  24.053  118.0  0.0249   49.6  0.5845  -46.1
 0.740  0.5534 -111.0  23.744  117.1  0.0252   48.8  0.5762  -46.9
 0.760  0.5560 -112.7  23.440  116.2  0.0255   48.0  0.5681  -47.6
 0.780  0.5591 -114.3  23.142  115.3  0.0258   47.2  0.5600  -48.4
 0.800  0.5626 -115.9  22.850  114.4  0.0261   46.5  0.5520  -49.2
 0.820  0.5639 -117.4  22.551  113.6  0.0264   46.0  0.5449  -49.9
 0.840  0.5655 -119.0  22.257  112.8  0.0267   45.4  0.5378  -50.6
 0.860  0.5676 -120.5  21.968  111.9  0.0271   44.9  0.5309  -51.4
 0.880  0.5700 -122.0  21.684  111.1  0.0274   44.4  0.5240  -52.1
 0.900  0.5729 -123.5  21.404  110.2  0.0277   43.9  0.5172  -52.9
 0.920  0.5742 -124.9  21.101  109.5  0.0279   43.4  0.5102  -53.5
 0.940  0.5758 -126.4  20.801  108.7  0.0282   42.9  0.5033  -54.1
 0.960  0.5778 -127.8  20.504  108.0  0.0284   42.4  0.4964  -54.8
 0.980  0.5802 -129.2  20.212  107.2  0.0287   41.9  0.4896  -55.4
 1.000  0.5829 -130.6  19.923  106.4  0.0289   41.4  0.4828  -56.1
 1.020  0.5838 -131.9  19.675  105.7  0.0291   40.9  0.4765  -56.6
 1.040  0.5850 -133.1  19.430  105.1  0.0293   40.4  0.4703  -57.2
 1.060  0.5864 -134.3  19.187  104.4  0.0296   39.9  0.4641  -57.8
 1.080  0.5881 -135.6  18.948  103.6  0.0298   39.4  0.4580  -58.4
 1.100  0.5901 -136.8  18.711  102.9  0.0300   38.9  0.4519  -59.0
 1.120  0.5912 -138.0  18.465  102.3  0.0302   38.7  0.4466  -59.5
 1.140  0.5924 -139.1  18.221  101.6  0.0304   38.4  0.4413  -60.0
 1.160  0.5940 -140.3  17.980  100.9  0.0306   38.2  0.4360  -60.5
 1.180  0.5958 -141.5  17.741  100.2  0.0308   37.9  0.4308  -61.1
 1.200  0.5978 -142.6  17.505   99.5  0.0310   37.7  0.4256  -61.6
 1.220  0.5986 -143.6  17.310   98.9  0.0312   37.4  0.4208  -62.1
 1.240  0.5996 -144.6  17.117   98.3  0.0313   37.0  0.4160  -62.5
 1.260  0.6008 -145.6  16.925   97.7  0.0315   36.7  0.4112  -63.0
 1.280  0.6021 -146.5  16.736   97.1  0.0316   36.3  0.4064  -63.5
 1.300  0.6036 -147.5  16.548   96.5  0.0318   36.0  0.4017  -64.0
 1.320  0.6046 -148.4  16.372   95.9  0.0320   35.7  0.3979  -64.5
 1.340  0.6058 -149.3  16.198   95.4  0.0322   35.4  0.3941  -65.0
 1.360  0.6071 -150.2  16.025   94.8  0.0323   35.2  0.3903  -65.5
 1.380  0.6086 -151.1  15.854   94.2  0.0325   34.9  0.3866  -66.0
 1.400  0.6102 -152.0  15.685   93.6  0.0327   34.6  0.3829  -66.5
 1.420  0.6108 -152.9  15.516   93.1  0.0328   34.4  0.3785  -66.8
 1.440  0.6116 -153.8  15.349   92.6  0.0330   34.2  0.3741  -67.2
 1.460  0.6125 -154.6  15.182   92.0  0.0331   33.9  0.3698  -67.6
 1.480  0.6136 -155.5  15.017   91.5  0.0333   33.7  0.3654  -67.9
 1.500  0.6148 -156.4  14.854   90.9  0.0334   33.5  0.3611  -68.3
 1.520  0.6157 -157.2  14.716   90.4  0.0335   33.2  0.3575  -68.7
 1.540  0.6167 -157.9  14.579   89.9  0.0336   33.0  0.3539  -69.1
 1.560  0.6178 -158.7  14.443   89.3  0.0338   32.7  0.3504  -69.5
 1.580  0.6190 -159.4  14.309   88.8  0.0339   32.5  0.3468  -70.0
 1.600  0.6203 -160.2  14.176   88.2  0.0340   32.2  0.3433  -70.4
 1.620  0.6211 -161.0  14.033   87.7  0.0341   32.0  0.3400  -70.8
 1.640  0.6220 -161.8  13.891   87.2  0.0343   31.9  0.3367  -71.3
 1.660  0.6230 -162.5  13.750   86.7  0.0344   31.7  0.3334  -71.7
 1.680  0.6241 -163.3  13.610   86.2  0.0346   31.6  0.3301  -72.1
 1.700  0.6253 -164.1  13.471   85.7  0.0347   31.4  0.3269  -72.6
 1.720  0.6261 -164.8  13.346   85.2  0.0348   31.3  0.3238  -73.0
 1.740  0.6271 -165.5  13.222   84.8  0.0349   31.1  0.3207  -73.4
 1.760  0.6281 -166.2  13.099   84.3  0.0350   31.0  0.3177  -73.8
 1.780  0.6292 -166.9  12.977   83.8  0.0351   30.8  0.3146  -74.2
 1.800  0.6304 -167.6  12.856   83.3  0.0352   30.7  0.3116  -74.6
 1.820  0.6313 -168.3  12.739   82.8  0.0353   30.6  0.3086  -75.0
 1.840  0.6322 -169.0  12.623   82.4  0.0354   30.6  0.3056  -75.4
 1.860  0.6333 -169.7  12.507   81.9  0.0356   30.5  0.3026  -75.8
 1.880  0.6345 -170.4  12.393   81.4  0.0357   30.5  0.2996  -76.2
 1.900  0.6357 -171.1  12.279   80.9  0.0358   30.4  0.2967  -76.6
 1.920  0.6366 -171.8  12.161   80.4  0.0359   30.2  0.2940  -77.0
 1.940  0.6375 -172.5  12.044   80.0  0.0360   30.0  0.2913  -77.3
 1.960  0.6386 -173.1  11.927   79.5  0.0361   29.8  0.2886  -77.7
 1.980  0.6397 -173.8  11.812   79.0  0.0362   29.6  0.2860  -78.1
 2.000  0.6409 -174.5  11.697   78.5  0.0363   29.4  0.2833  -78.5
 2.020  0.6415 -175.1  11.595   78.1  0.0364   29.2  0.2811  -78.9
 2.040  0.6421 -175.6  11.495   77.6  0.0364   29.1  0.2790  -79.4
 2.060  0.6428 -176.2  11.394   77.2  0.0365   28.9  0.2769  -79.9
 2.080  0.6435 -176.7  11.295   76.8  0.0365   28.8  0.2748  -80.3
 2.100  0.6443 -177.3  11.196   76.3  0.0366   28.6  0.2727  -80.8
 2.120  0.6447 -177.9  11.101   75.9  0.0367   28.5  0.2705  -81.2
 2.140  0.6453 -178.5  11.006   75.4  0.0369   28.4  0.2683  -81.5
 2.160  0.6458 -179.0  10.912   75.0  0.0370   28.2  0.2661  -81.9
 2.180  0.6465 -179.6  10.819   74.6  0.0372   28.1  0.2640  -82.3
 2.200  0.6472  179.8  10.726   74.1  0.0373   28.0  0.2618  -82.7
 2.220  0.6475  179.3  10.655   73.7  0.0374   27.9  0.2597  -83.1
 2.240  0.6479  178.8  10.584   73.3  0.0375   27.8  0.2577  -83.5
 2.260  0.6484  178.2  10.513   72.9  0.0377   27.8  0.2556  -83.9
 2.280  0.6489  177.7  10.443   72.5  0.0378   27.7  0.2536  -84.4
 2.300  0.6494  177.2  10.374   72.1  0.0379   27.6  0.2516  -84.8
 2.320  0.6502  176.7  10.281   71.7  0.0379   27.5  0.2497  -85.2
 2.340  0.6510  176.1  10.189   71.3  0.0379   27.4  0.2478  -85.5
 2.360  0.6519  175.6  10.098   70.9  0.0380   27.3  0.2459  -85.9
 2.380  0.6529  175.0  10.006   70.4  0.0380   27.2  0.2440  -86.3
 2.400  0.6539  174.5   9.916   70.0  0.0380   27.1  0.2421  -86.7
 2.420  0.6543  174.0   9.844   69.6  0.0382   27.1  0.2400  -87.0
 2.440  0.6548  173.5   9.773   69.2  0.0383   27.0  0.2378  -87.3
 2.460  0.6553  172.9   9.702   68.8  0.0385   27.0  0.2357  -87.6
 2.480  0.6559  172.4   9.631   68.4  0.0386   26.9  0.2336  -88.0
 2.500  0.6565  171.9   9.561   68.0  0.0388   26.9  0.2315  -88.3
 2.520  0.6572  171.4   9.476   67.6  0.0389   26.8  0.2296  -88.7
 2.540  0.6580  170.8   9.392   67.2  0.0390   26.6  0.2277  -89.1
 2.560  0.6589  170.3   9.308   66.8  0.0390   26.5  0.2258  -89.5
 2.580  0.6598  169.7   9.225   66.3  0.0391   26.3  0.2240  -90.0
 2.600  0.6608  169.2   9.142   65.9  0.0392   26.2  0.2221  -90.4
 2.620  0.6612  168.8   9.088   65.5  0.0393   26.1  0.2202  -90.8
 2.640  0.6616  168.3   9.035   65.2  0.0394   26.1  0.2183  -91.2
 2.660  0.6621  167.9   8.982   64.8  0.0395   26.0  0.2164  -91.6
 2.680  0.6626  167.4   8.929   64.4  0.0396   26.0  0.2146  -92.0
 2.700  0.6631  167.0   8.877   64.0  0.0397   25.9  0.2127  -92.4
 2.720  0.6636  166.5   8.813   63.6  0.0398   25.9  0.2110  -93.0
 2.740  0.6641  166.0   8.750   63.2  0.0398   25.8  0.2094  -93.5
 2.760  0.6647  165.6   8.687   62.8  0.0399   25.8  0.2077  -94.1
 2.780  0.6653  165.1   8.624   62.4  0.0399   25.7  0.2061  -94.7
 2.800  0.6660  164.6   8.562   62.0  0.0400   25.7  0.2045  -95.3
 2.820  0.6664  164.2   8.512   61.6  0.0401   25.6  0.2029  -95.7
 2.840  0.6669  163.8   8.462   61.3  0.0402   25.6  0.2013  -96.2
 2.860  0.6675  163.3   8.412   60.9  0.0404   25.5  0.1997  -96.6
 2.880  0.6680  162.9   8.363   60.6  0.0405   25.5  0.1981  -97.0
 2.900  0.6686  162.5   8.314   60.2  0.0406   25.4  0.1965  -97.5
 2.920  0.6692  162.0   8.252   59.8  0.0407   25.4  0.1950  -98.1
 2.940  0.6699  161.6   8.191   59.5  0.0408   25.3  0.1934  -98.6
 2.960  0.6706  161.1   8.130   59.1  0.0409   25.3  0.1919  -99.2
 2.980  0.6713  160.7   8.069   58.7  0.0410   25.2  0.1905  -99.8
 3.000  0.6721  160.2   8.009   58.3  0.0411   25.2  0.1890 -100.4
 3.100  0.6759  158.0   7.748   56.4  0.0417   24.6  0.1821 -103.0
 3.200  0.6784  156.0   7.529   54.7  0.0424   24.5  0.1769 -106.7
 3.300  0.6818  153.9   7.290   52.8  0.0428   24.0  0.1710 -109.4
 3.400  0.6856  151.9   7.071   51.0  0.0433   23.6  0.1664 -113.1
 3.500  0.6895  149.8   6.823   49.2  0.0438   23.3  0.1612 -115.8
 3.600  0.6931  147.9   6.639   47.5  0.0442   23.2  0.1579 -119.9
 3.700  0.6965  146.1   6.442   45.8  0.0447   22.6  0.1539 -123.6
 3.800  0.6994  144.4   6.300   44.1  0.0451   22.3  0.1519 -128.1
 3.900  0.7026  142.6   6.112   42.4  0.0458   22.2  0.1497 -131.8
 4.000  0.7081  140.7   5.888   40.7  0.0462   21.7  0.1493 -135.8
 4.100  0.7099  139.1   5.764   39.0  0.0466   21.5  0.1490 -139.9
 4.200  0.7145  137.4   5.595   37.4  0.0472   21.2  0.1502 -143.8
 4.300  0.7156  136.0   5.493   35.9  0.0477   20.9  0.1514 -147.5
 4.400  0.7213  134.5   5.314   34.2  0.0482   20.5  0.1524 -150.8
 4.500  0.7228  133.1   5.191   32.7  0.0487   20.2  0.1537 -154.0
 4.600  0.7274  131.7   5.051   31.1  0.0491   20.0  0.1558 -157.2
 4.700  0.7294  130.4   4.927   29.7  0.0497   19.8  0.1581 -160.7
 4.800  0.7328  129.2   4.823   28.1  0.0503   19.3  0.1601 -163.3
 4.900  0.7355  127.8   4.677   26.6  0.0506   19.2  0.1616 -165.8
 5.000  0.7387  126.8   4.584   25.2  0.0513   18.9  0.1645 -168.8
 5.100  0.7403  125.5   4.471   23.7  0.0518   18.4  0.1665 -171.2
 5.200  0.7421  124.5   4.402   22.4  0.0525   18.1  0.1693 -174.2
 5.300  0.7435  123.4   4.283   20.8  0.0529   18.0  0.1711 -176.4
 5.400  0.7455  122.4   4.199   19.5  0.0535   17.6  0.1731 -178.8
 5.500  0.7473  121.3   4.078   18.0  0.0541   17.4  0.1749  179.1
 5.600  0.7484  120.4   4.016   16.7  0.0549   17.2  0.1774  176.6
 5.700  0.7491  119.4   3.926   15.3  0.0554   17.0  0.1796  174.3
 5.800  0.7501  118.5   3.882   13.9  0.0563   16.6  0.1827  171.8
 5.900  0.7524  117.6   3.785   12.6  0.0571   16.3  0.1854  169.8
 6.000  0.7535  116.6   3.726   11.1  0.0577   16.0  0.1890  167.6
 6.100  0.7570  115.7   3.644    9.7  0.0587   15.7  0.1927  165.4
 6.200  0.7569  114.8   3.606    8.4  0.0594   15.0  0.1966  163.4
 6.300  0.7606  113.8   3.522    6.9  0.0602   14.4  0.2007  161.2
 6.400  0.7616  112.7   3.470    5.5  0.0609   14.0  0.2048  159.4
 6.500  0.7649  111.6   3.403    4.0  0.0618   13.5  0.2095  157.3
 6.600  0.7659  110.5   3.352    2.5  0.0626   12.8  0.2147  155.0
 6.800  0.7709  108.2   3.238   -0.4  0.0641   11.5  0.2237  151.4
 7.000  0.7757  105.8   3.125   -3.4  0.0656   10.4  0.2343  147.8
 7.200  0.7804  103.5   3.040   -6.3  0.0671    8.9  0.2454  144.2
 7.400  0.7856  101.0   2.936   -9.4  0.0685    7.6  0.2556  140.9
 7.600  0.7921   98.3   2.833  -12.5  0.0698    6.0  0.2674  137.3
 7.800  0.7995   95.6   2.736  -15.6  0.0713    4.4  0.2785  133.6
 8.000  0.8077   93.0   2.626  -18.8  0.0724    2.7  0.2909  129.7
 8.200  0.8143   90.4   2.529  -21.7  0.0732    1.0  0.3039  125.2
 8.400  0.8225   87.9   2.439  -24.9  0.0741   -0.6  0.3186  121.0
 8.600  0.8300   85.4   2.349  -27.9  0.0748   -2.3  0.3355  116.9
 8.800  0.8367   83.0   2.258  -30.7  0.0753   -4.0  0.3547  112.8
 9.000  0.8448   80.7   2.173  -33.7  0.0758   -5.7  0.3755  109.1
 9.200  0.8513   78.7   2.072  -36.1  0.0759   -7.1  0.3968  105.7
 9.400  0.8589   76.7   1.976  -38.7  0.0760   -8.4  0.4194  102.7
 9.600  0.8660   75.0   1.887  -41.1  0.0761   -9.6  0.4416  100.3
 9.800  0.8723   73.5   1.804  -43.1  0.0762  -10.7  0.4630   98.5
10.000  0.8792   72.1   1.723  -45.4  0.0763  -11.8  0.4849   96.8
!
!  f       NFmin   Gammaopt  rn/50
! GHz       dB    MAG  ANG    -
!
! noise parameter not available yet for this operation point!
!
! (c) 2016  Infineon Technologies AG, Munich
