! Infineon Technologies  Discrete & RF Semiconductors
! BFP720ESD
! VCE =  2.0 V,  IC =  1.0 mA
! Common Emitter S-Parameters:                            Jan 2016
# GHz  S  MA  R  50
!  f         S11            S21            S12            S22
! GHz     MAG   ANG      MAG   ANG      MAG   ANG      MAG   ANG
 0.010  0.9917    0.0   3.453  179.3  0.0007 -105.3  1.0000    0.3
 0.015  0.9912   -0.2   3.434  179.4  0.0001  126.7  0.9993    0.1
 0.020  0.9907   -0.5   3.415  179.6  0.0009   88.9  0.9987   -0.2
 0.025  0.9898   -0.6   3.416  179.4  0.0010   87.2  0.9989   -0.3
 0.030  0.9889   -0.7   3.416  179.2  0.0012   86.0  0.9990   -0.4
 0.035  0.9879   -0.8   3.417  179.0  0.0013   85.0  0.9992   -0.6
 0.040  0.9870   -0.9   3.418  178.9  0.0015   84.2  0.9994   -0.7
 0.045  0.9861   -1.0   3.418  178.7  0.0016   83.5  0.9995   -0.8
 0.050  0.9852   -1.1   3.419  178.5  0.0018   83.0  0.9997   -0.9
 0.055  0.9852   -1.2   3.422  178.4  0.0020   83.7  0.9997   -1.0
 0.060  0.9853   -1.4   3.424  178.3  0.0022   84.3  0.9997   -1.1
 0.065  0.9853   -1.5   3.427  178.3  0.0024   84.8  0.9997   -1.2
 0.070  0.9854   -1.7   3.430  178.2  0.0026   85.3  0.9997   -1.3
 0.075  0.9855   -1.8   3.432  178.1  0.0027   85.6  0.9997   -1.5
 0.080  0.9855   -1.9   3.435  178.0  0.0029   85.9  0.9997   -1.6
 0.085  0.9856   -2.1   3.438  177.9  0.0031   86.2  0.9997   -1.7
 0.090  0.9857   -2.2   3.441  177.9  0.0033   86.5  0.9998   -1.8
 0.095  0.9858   -2.4   3.443  177.8  0.0035   86.7  0.9998   -1.9
 0.100  0.9859   -2.5   3.446  177.7  0.0037   86.9  0.9998   -2.0
 0.105  0.9861   -2.6   3.446  177.6  0.0039   86.9  0.9998   -2.1
 0.110  0.9863   -2.8   3.447  177.4  0.0041   86.9  0.9997   -2.2
 0.115  0.9865   -2.9   3.447  177.3  0.0042   86.9  0.9997   -2.3
 0.120  0.9867   -3.0   3.447  177.1  0.0044   86.9  0.9997   -2.4
 0.125  0.9869   -3.2   3.448  177.0  0.0046   86.8  0.9997   -2.5
 0.130  0.9871   -3.3   3.448  176.9  0.0048   86.8  0.9996   -2.6
 0.135  0.9873   -3.4   3.449  176.7  0.0050   86.8  0.9996   -2.7
 0.140  0.9875   -3.5   3.449  176.6  0.0051   86.8  0.9996   -2.8
 0.145  0.9878   -3.7   3.450  176.4  0.0053   86.8  0.9996   -2.9
 0.150  0.9880   -3.8   3.450  176.3  0.0055   86.8  0.9996   -3.0
 0.155  0.9878   -3.9   3.451  176.2  0.0057   86.7  0.9996   -3.1
 0.160  0.9876   -4.1   3.452  176.1  0.0059   86.6  0.9995   -3.2
 0.165  0.9875   -4.2   3.453  175.9  0.0060   86.4  0.9995   -3.3
 0.170  0.9873   -4.3   3.453  175.8  0.0062   86.3  0.9994   -3.4
 0.175  0.9871   -4.4   3.454  175.7  0.0064   86.2  0.9994   -3.5
 0.180  0.9870   -4.6   3.455  175.6  0.0066   86.1  0.9994   -3.7
 0.185  0.9868   -4.7   3.456  175.5  0.0068   86.0  0.9994   -3.8
 0.190  0.9867   -4.8   3.457  175.3  0.0069   86.0  0.9993   -3.9
 0.195  0.9865   -5.0   3.458  175.2  0.0071   85.9  0.9993   -4.0
 0.200  0.9864   -5.1   3.459  175.1  0.0073   85.8  0.9993   -4.1
 0.220  0.9864   -5.6   3.455  174.5  0.0081   85.2  0.9991   -4.5
 0.240  0.9864   -6.1   3.452  173.9  0.0088   84.7  0.9990   -4.9
 0.260  0.9863   -6.6   3.452  173.4  0.0096   84.3  0.9988   -5.3
 0.280  0.9861   -7.1   3.456  172.9  0.0103   83.9  0.9986   -5.7
 0.300  0.9859   -7.6   3.461  172.5  0.0110   83.6  0.9984   -6.1
 0.320  0.9856   -8.1   3.464  172.0  0.0118   83.0  0.9981   -6.5
 0.340  0.9853   -8.6   3.468  171.5  0.0125   82.5  0.9978   -7.0
 0.360  0.9851   -9.1   3.468  171.0  0.0133   82.1  0.9975   -7.4
 0.380  0.9850   -9.6   3.464  170.5  0.0140   81.7  0.9970   -7.7
 0.400  0.9849  -10.1   3.461  169.9  0.0147   81.3  0.9966   -8.1
 0.420  0.9844  -10.6   3.461  169.4  0.0154   80.8  0.9962   -8.5
 0.440  0.9839  -11.1   3.462  168.9  0.0161   80.4  0.9959   -9.0
 0.450  0.9837  -11.4   3.462  168.7  0.0165   80.2  0.9958   -9.2
 0.460  0.9835  -11.7   3.463  168.4  0.0169   80.0  0.9956   -9.4
 0.480  0.9832  -12.2   3.465  167.9  0.0176   79.5  0.9952   -9.8
 0.500  0.9830  -12.7   3.468  167.3  0.0184   79.1  0.9949  -10.2
 0.520  0.9824  -13.2   3.465  166.8  0.0191   78.6  0.9944  -10.6
 0.540  0.9819  -13.7   3.463  166.2  0.0198   78.1  0.9940  -11.0
 0.560  0.9814  -14.3   3.460  165.7  0.0205   77.6  0.9936  -11.4
 0.580  0.9811  -14.8   3.459  165.1  0.0212   77.2  0.9932  -11.8
 0.600  0.9808  -15.3   3.457  164.6  0.0219   76.8  0.9929  -12.2
 0.620  0.9801  -15.8   3.458  164.1  0.0226   76.3  0.9923  -12.6
 0.640  0.9794  -16.3   3.459  163.6  0.0234   75.8  0.9918  -13.0
 0.660  0.9788  -16.9   3.460  163.2  0.0241   75.4  0.9913  -13.5
 0.680  0.9783  -17.4   3.462  162.7  0.0249   75.0  0.9909  -13.9
 0.700  0.9779  -17.9   3.464  162.2  0.0256   74.6  0.9905  -14.3
 0.720  0.9772  -18.4   3.461  161.7  0.0263   74.1  0.9898  -14.7
 0.740  0.9765  -18.9   3.458  161.2  0.0270   73.7  0.9892  -15.1
 0.760  0.9759  -19.4   3.455  160.6  0.0277   73.2  0.9886  -15.6
 0.780  0.9754  -19.9   3.453  160.1  0.0284   72.8  0.9881  -16.0
 0.800  0.9749  -20.4   3.451  159.6  0.0291   72.4  0.9876  -16.4
 0.820  0.9742  -20.9   3.450  159.1  0.0298   71.9  0.9870  -16.8
 0.840  0.9736  -21.5   3.450  158.6  0.0305   71.4  0.9864  -17.2
 0.860  0.9730  -22.0   3.450  158.1  0.0313   71.0  0.9859  -17.7
 0.880  0.9726  -22.6   3.450  157.6  0.0320   70.5  0.9855  -18.1
 0.900  0.9722  -23.1   3.450  157.1  0.0327   70.1  0.9851  -18.5
 0.920  0.9714  -23.6   3.447  156.6  0.0334   69.6  0.9844  -18.9
 0.940  0.9706  -24.1   3.445  156.1  0.0341   69.2  0.9837  -19.3
 0.960  0.9700  -24.7   3.443  155.6  0.0348   68.8  0.9830  -19.8
 0.980  0.9694  -25.2   3.441  155.1  0.0355   68.4  0.9824  -20.2
 1.000  0.9689  -25.7   3.440  154.6  0.0362   68.0  0.9819  -20.6
 1.020  0.9680  -26.2   3.439  154.1  0.0369   67.5  0.9811  -21.0
 1.040  0.9672  -26.7   3.438  153.6  0.0376   67.0  0.9804  -21.4
 1.060  0.9665  -27.3   3.437  153.1  0.0383   66.6  0.9797  -21.8
 1.080  0.9659  -27.8   3.436  152.6  0.0390   66.1  0.9790  -22.2
 1.100  0.9653  -28.3   3.436  152.1  0.0397   65.7  0.9784  -22.6
 1.120  0.9644  -28.8   3.434  151.6  0.0404   65.3  0.9776  -23.0
 1.140  0.9636  -29.4   3.432  151.1  0.0411   64.8  0.9769  -23.4
 1.160  0.9628  -29.9   3.431  150.5  0.0417   64.4  0.9762  -23.9
 1.180  0.9622  -30.5   3.430  150.0  0.0424   64.0  0.9756  -24.3
 1.200  0.9616  -31.0   3.429  149.5  0.0431   63.6  0.9750  -24.7
 1.220  0.9609  -31.5   3.427  149.0  0.0438   63.1  0.9741  -25.1
 1.240  0.9603  -32.0   3.425  148.5  0.0445   62.6  0.9733  -25.6
 1.260  0.9597  -32.6   3.423  147.9  0.0451   62.1  0.9725  -26.0
 1.280  0.9593  -33.1   3.422  147.4  0.0458   61.7  0.9718  -26.5
 1.300  0.9589  -33.6   3.421  146.9  0.0465   61.2  0.9712  -26.9
 1.320  0.9577  -34.1   3.417  146.4  0.0471   60.7  0.9702  -27.3
 1.340  0.9566  -34.7   3.414  145.9  0.0478   60.3  0.9693  -27.7
 1.360  0.9556  -35.2   3.411  145.3  0.0484   59.8  0.9685  -28.2
 1.380  0.9546  -35.8   3.408  144.8  0.0491   59.4  0.9677  -28.6
 1.400  0.9538  -36.3   3.405  144.3  0.0497   59.0  0.9669  -29.0
 1.420  0.9528  -36.8   3.402  143.8  0.0503   58.6  0.9660  -29.4
 1.440  0.9518  -37.3   3.400  143.4  0.0510   58.1  0.9652  -29.8
 1.460  0.9509  -37.9   3.398  142.9  0.0516   57.7  0.9644  -30.2
 1.480  0.9501  -38.4   3.396  142.5  0.0523   57.3  0.9637  -30.6
 1.500  0.9494  -38.9   3.394  142.0  0.0529   56.9  0.9630  -31.0
 1.520  0.9484  -39.5   3.393  141.4  0.0535   56.4  0.9620  -31.4
 1.540  0.9476  -40.0   3.393  140.9  0.0542   55.9  0.9610  -31.9
 1.560  0.9468  -40.6   3.393  140.3  0.0548   55.4  0.9601  -32.3
 1.580  0.9461  -41.1   3.393  139.8  0.0555   55.0  0.9592  -32.8
 1.600  0.9455  -41.7   3.394  139.2  0.0561   54.5  0.9584  -33.2
 1.620  0.9447  -42.2   3.391  138.7  0.0567   54.1  0.9574  -33.6
 1.640  0.9440  -42.7   3.388  138.2  0.0573   53.6  0.9565  -34.0
 1.660  0.9434  -43.2   3.385  137.8  0.0579   53.2  0.9556  -34.4
 1.680  0.9428  -43.7   3.382  137.3  0.0585   52.8  0.9548  -34.8
 1.700  0.9423  -44.2   3.380  136.8  0.0591   52.4  0.9540  -35.2
 1.720  0.9411  -44.7   3.376  136.3  0.0597   52.0  0.9531  -35.6
 1.740  0.9400  -45.3   3.372  135.8  0.0603   51.5  0.9522  -36.0
 1.760  0.9390  -45.8   3.369  135.4  0.0608   51.1  0.9513  -36.5
 1.780  0.9381  -46.4   3.366  134.9  0.0614   50.7  0.9505  -36.9
 1.800  0.9372  -46.9   3.363  134.4  0.0620   50.3  0.9498  -37.3
 1.820  0.9361  -47.4   3.363  133.9  0.0626   49.9  0.9487  -37.7
 1.840  0.9351  -48.0   3.363  133.4  0.0633   49.4  0.9476  -38.2
 1.860  0.9342  -48.5   3.364  133.0  0.0639   49.0  0.9466  -38.6
 1.880  0.9334  -49.1   3.365  132.5  0.0646   48.6  0.9457  -39.1
 1.900  0.9326  -49.6   3.366  132.0  0.0652   48.2  0.9448  -39.5
 1.920  0.9315  -50.1   3.362  131.5  0.0657   47.7  0.9437  -39.9
 1.940  0.9305  -50.6   3.358  131.0  0.0663   47.3  0.9426  -40.3
 1.960  0.9296  -51.1   3.355  130.5  0.0668   46.9  0.9416  -40.7
 1.980  0.9287  -51.6   3.352  130.0  0.0674   46.4  0.9406  -41.1
 2.000  0.9279  -52.1   3.349  129.5  0.0679   46.0  0.9397  -41.5
 2.020  0.9264  -52.7   3.347  129.0  0.0685   45.5  0.9383  -41.9
 2.040  0.9251  -53.2   3.346  128.5  0.0690   45.1  0.9370  -42.4
 2.060  0.9238  -53.8   3.345  128.0  0.0696   44.7  0.9357  -42.8
 2.080  0.9226  -54.3   3.344  127.5  0.0701   44.2  0.9345  -43.2
 2.100  0.9214  -54.9   3.343  127.0  0.0707   43.8  0.9333  -43.6
 2.120  0.9204  -55.4   3.343  126.5  0.0713   43.4  0.9322  -44.1
 2.140  0.9195  -56.0   3.343  126.0  0.0719   43.0  0.9312  -44.5
 2.160  0.9186  -56.6   3.343  125.5  0.0724   42.6  0.9302  -44.9
 2.180  0.9179  -57.1   3.343  125.0  0.0730   42.2  0.9292  -45.4
 2.200  0.9172  -57.7   3.344  124.5  0.0736   41.8  0.9283  -45.8
 2.220  0.9155  -58.3   3.342  124.0  0.0741   41.3  0.9268  -46.2
 2.240  0.9138  -58.8   3.340  123.5  0.0747   40.9  0.9253  -46.7
 2.260  0.9123  -59.4   3.338  123.0  0.0752   40.4  0.9239  -47.1
 2.280  0.9108  -59.9   3.336  122.5  0.0758   40.0  0.9225  -47.5
 2.300  0.9095  -60.5   3.335  122.0  0.0763   39.5  0.9212  -48.0
 2.320  0.9082  -61.0   3.334  121.4  0.0769   39.1  0.9199  -48.4
 2.340  0.9070  -61.6   3.334  120.9  0.0775   38.7  0.9187  -48.9
 2.360  0.9059  -62.2   3.333  120.4  0.0780   38.2  0.9175  -49.3
 2.380  0.9048  -62.7   3.333  119.9  0.0786   37.8  0.9164  -49.8
 2.400  0.9039  -63.3   3.333  119.4  0.0792   37.4  0.9154  -50.2
 2.420  0.9020  -63.9   3.330  118.9  0.0797   36.9  0.9136  -50.6
 2.440  0.9001  -64.5   3.328  118.4  0.0802   36.4  0.9119  -51.1
 2.460  0.8984  -65.1   3.326  117.8  0.0807   35.9  0.9102  -51.5
 2.480  0.8967  -65.7   3.324  117.3  0.0812   35.4  0.9085  -52.0
 2.500  0.8952  -66.3   3.323  116.8  0.0817   35.0  0.9070  -52.4
 2.520  0.8937  -66.9   3.321  116.3  0.0822   34.5  0.9054  -52.9
 2.540  0.8924  -67.5   3.320  115.8  0.0827   34.0  0.9040  -53.3
 2.560  0.8911  -68.1   3.320  115.2  0.0832   33.6  0.9025  -53.8
 2.580  0.8900  -68.7   3.319  114.7  0.0838   33.1  0.9012  -54.2
 2.600  0.8889  -69.3   3.319  114.2  0.0843   32.7  0.8999  -54.7
 2.620  0.8868  -69.9   3.316  113.7  0.0847   32.2  0.8981  -55.2
 2.640  0.8848  -70.5   3.313  113.2  0.0852   31.8  0.8963  -55.6
 2.660  0.8829  -71.1   3.310  112.6  0.0856   31.3  0.8945  -56.1
 2.680  0.8811  -71.7   3.307  112.1  0.0860   30.8  0.8929  -56.5
 2.700  0.8794  -72.3   3.305  111.6  0.0865   30.4  0.8912  -57.0
 2.720  0.8778  -72.9   3.303  111.1  0.0869   29.9  0.8897  -57.4
 2.740  0.8763  -73.5   3.301  110.6  0.0874   29.5  0.8882  -57.9
 2.760  0.8749  -74.1   3.300  110.0  0.0879   29.1  0.8867  -58.4
 2.780  0.8736  -74.7   3.299  109.5  0.0883   28.6  0.8853  -58.8
 2.800  0.8724  -75.3   3.298  109.0  0.0888   28.2  0.8840  -59.3
 2.820  0.8705  -75.9   3.295  108.5  0.0892   27.7  0.8821  -59.8
 2.840  0.8686  -76.5   3.291  107.9  0.0896   27.2  0.8803  -60.2
 2.860  0.8668  -77.1   3.288  107.4  0.0900   26.7  0.8785  -60.7
 2.880  0.8652  -77.7   3.286  106.9  0.0904   26.3  0.8768  -61.1
 2.900  0.8636  -78.3   3.283  106.4  0.0908   25.8  0.8752  -61.6
 2.920  0.8621  -78.9   3.281  105.8  0.0912   25.3  0.8736  -62.0
 2.940  0.8608  -79.5   3.280  105.3  0.0916   24.9  0.8721  -62.5
 2.960  0.8595  -80.1   3.278  104.8  0.0920   24.4  0.8706  -63.0
 2.980  0.8583  -80.7   3.277  104.2  0.0925   24.0  0.8692  -63.4
 3.000  0.8572  -81.3   3.276  103.7  0.0929   23.5  0.8678  -63.9
 3.100  0.8444  -84.3   3.244  101.1  0.0941   21.1  0.8570  -66.1
 3.200  0.8339  -87.3   3.219   98.5  0.0954   18.8  0.8474  -68.4
 3.300  0.8259  -90.4   3.200   95.9  0.0968   16.6  0.8393  -70.7
 3.400  0.8203  -93.6   3.189   93.2  0.0985   14.4  0.8325  -73.0
 3.500  0.8173  -96.8   3.184   90.5  0.1002   12.3  0.8271  -75.4
 3.600  0.8062  -99.9   3.154   88.0  0.1009   10.1  0.8173  -77.7
 3.700  0.7975 -103.1   3.129   85.4  0.1017    7.9  0.8087  -80.0
 3.800  0.7913 -106.3   3.111   82.8  0.1026    5.7  0.8015  -82.4
 3.900  0.7876 -109.6   3.100   80.2  0.1038    3.6  0.7958  -84.8
 4.000  0.7866 -112.9   3.095   77.6  0.1050    1.5  0.7914  -87.2
 4.100  0.7765 -116.2   3.054   75.0  0.1049   -0.8  0.7814  -89.7
 4.200  0.7689 -119.5   3.019   72.2  0.1050   -3.1  0.7730  -92.3
 4.300  0.7640 -122.9   2.992   69.5  0.1053   -5.4  0.7662  -95.0
 4.400  0.7619 -126.4   2.971   66.6  0.1057   -7.7  0.7610  -97.7
 4.500  0.7625 -129.8   2.958   63.8  0.1063  -10.0  0.7576 -100.4
 4.600  0.7533 -132.8   2.905   61.3  0.1051  -12.1  0.7485 -102.8
 4.700  0.7463 -135.9   2.858   58.7  0.1041  -14.2  0.7407 -105.2
 4.800  0.7415 -139.0   2.817   56.0  0.1032  -16.4  0.7342 -107.7
 4.900  0.7390 -142.2   2.782   53.3  0.1025  -18.7  0.7292 -110.2
 5.000  0.7387 -145.4   2.754   50.5  0.1019  -20.9  0.7255 -112.7
 5.100  0.7305 -148.2   2.702   48.2  0.1001  -22.7  0.7170 -114.7
 5.200  0.7241 -151.0   2.654   45.9  0.0985  -24.5  0.7094 -116.8
 5.300  0.7195 -153.9   2.611   43.5  0.0969  -26.4  0.7028 -118.9
 5.400  0.7167 -156.8   2.572   41.0  0.0954  -28.4  0.6972 -121.1
 5.500  0.7157 -159.7   2.539   38.4  0.0941  -30.4  0.6926 -123.3
 5.600  0.7094 -162.4   2.495   36.3  0.0921  -31.8  0.6859 -125.4
 5.700  0.7048 -165.1   2.454   34.1  0.0902  -33.3  0.6802 -127.6
 5.800  0.7018 -167.9   2.417   31.8  0.0884  -34.9  0.6755 -129.8
 5.900  0.7004 -170.7   2.384   29.5  0.0866  -36.5  0.6717 -132.0
 6.000  0.7007 -173.5   2.355   27.1  0.0849  -38.2  0.6690 -134.2
 6.100  0.6983 -176.0   2.315   25.0  0.0830  -39.3  0.6654 -136.4
 6.200  0.6973 -178.5   2.278   22.9  0.0810  -40.4  0.6628 -138.6
 6.300  0.6975  179.0   2.245   20.6  0.0792  -41.6  0.6611 -140.9
 6.400  0.6991  176.6   2.214   18.3  0.0773  -42.9  0.6606 -143.1
 6.500  0.7020  174.1   2.188   16.0  0.0755  -44.2  0.6610 -145.4
 6.600  0.7018  171.9   2.151   14.0  0.0735  -45.0  0.6586 -147.5
 6.800  0.7043  167.6   2.084    9.9  0.0696  -46.6  0.6564 -151.8
 7.000  0.7108  163.4   2.029    5.5  0.0657  -48.4  0.6579 -156.0
 7.200  0.7123  159.2   1.974    1.6  0.0622  -49.2  0.6547 -160.8
 7.400  0.7176  155.1   1.930   -2.6  0.0588  -50.1  0.6561 -165.5
 7.600  0.7201  150.7   1.878   -6.9  0.0554  -50.8  0.6563 -170.6
 7.800  0.7209  145.9   1.822  -11.6  0.0521  -51.1  0.6562 -175.9
 8.000  0.7266  141.2   1.778  -16.5  0.0487  -51.5  0.6618  178.8
 8.200  0.7200  136.1   1.701  -20.9  0.0453  -50.1  0.6560  173.9
 8.400  0.7191  131.0   1.636  -25.6  0.0419  -48.5  0.6552  168.9
 8.600  0.7216  126.0   1.570  -30.0  0.0393  -45.8  0.6556  163.9
 8.800  0.7271  121.1   1.501  -34.1  0.0375  -41.9  0.6572  159.0
 9.000  0.7376  116.4   1.441  -38.5  0.0359  -37.7  0.6635  154.2
 9.200  0.7573  112.0   1.375  -42.0  0.0356  -33.5  0.6759  149.1
 9.400  0.7812  107.9   1.314  -45.9  0.0355  -29.2  0.6934  144.2
 9.600  0.8064  104.1   1.248  -49.8  0.0363  -25.3  0.7158  139.5
 9.800  0.8323  100.7   1.176  -53.7  0.0379  -22.1  0.7431  134.9
10.000  0.8610   97.5   1.110  -58.1  0.0397  -19.2  0.7748  130.7
!
!  f       NFmin   Gammaopt  rn/50
! GHz       dB    MAG  ANG    -
 0.450      0.56  0.81    6   0.42
 0.900      0.59  0.81   16   0.40
 1.900      0.79  0.70   38   0.38
 2.400      0.92  0.68   50   0.39
 5.500      1.52  0.49  133   0.12
10.000      3.38  0.70 -109   0.85
!
! (c) 2016  Infineon Technologies AG, Munich
