! Infineon Technologies  Discrete & RF Semiconductors
! BFP740FESD
! VCE =  3.0 V,  IC =  4.0 mA
! Common Emitter S-Parameters:                            Jan 2016
# GHz  S  MA  R  50
!  f         S11            S21            S12            S22
! GHz     MAG   ANG      MAG   ANG      MAG   ANG      MAG   ANG
 0.010  0.9557   -0.1  12.656  179.5  0.0001  -54.0  0.9932    0.4
 0.015  0.9558   -0.6  12.638  179.4  0.0006   93.8  0.9956   -0.2
 0.020  0.9560   -1.1  12.620  179.2  0.0012   96.3  0.9980   -0.7
 0.025  0.9557   -1.4  12.618  179.0  0.0014   94.7  0.9980   -0.9
 0.030  0.9554   -1.6  12.616  178.7  0.0016   93.4  0.9980   -1.1
 0.035  0.9551   -1.9  12.615  178.5  0.0017   92.4  0.9981   -1.3
 0.040  0.9549   -2.2  12.614  178.3  0.0019   91.6  0.9981   -1.4
 0.045  0.9546   -2.4  12.613  178.0  0.0021   91.0  0.9981   -1.6
 0.050  0.9544   -2.7  12.612  177.8  0.0023   90.4  0.9982   -1.8
 0.055  0.9542   -2.9  12.619  177.6  0.0026   89.8  0.9981   -2.0
 0.060  0.9540   -3.2  12.627  177.5  0.0028   89.3  0.9980   -2.2
 0.065  0.9538   -3.4  12.634  177.3  0.0031   88.9  0.9980   -2.3
 0.070  0.9536   -3.7  12.642  177.2  0.0034   88.5  0.9979   -2.5
 0.075  0.9534   -3.9  12.649  177.0  0.0036   88.2  0.9979   -2.7
 0.080  0.9533   -4.1  12.657  176.9  0.0039   88.0  0.9978   -2.9
 0.085  0.9532   -4.4  12.665  176.7  0.0042   87.7  0.9978   -3.1
 0.090  0.9531   -4.6  12.673  176.6  0.0045   87.5  0.9978   -3.2
 0.095  0.9530   -4.9  12.681  176.4  0.0047   87.4  0.9978   -3.4
 0.100  0.9529   -5.1  12.689  176.3  0.0050   87.2  0.9978   -3.6
 0.105  0.9527   -5.4  12.689  176.1  0.0052   86.8  0.9976   -3.8
 0.110  0.9525   -5.7  12.690  175.9  0.0055   86.5  0.9974   -4.0
 0.115  0.9523   -5.9  12.691  175.7  0.0057   86.1  0.9973   -4.1
 0.120  0.9521   -6.2  12.692  175.5  0.0060   85.8  0.9971   -4.3
 0.125  0.9520   -6.5  12.693  175.2  0.0062   85.6  0.9970   -4.5
 0.130  0.9519   -6.8  12.694  175.0  0.0065   85.3  0.9968   -4.7
 0.135  0.9518   -7.1  12.696  174.8  0.0067   85.1  0.9967   -4.9
 0.140  0.9518   -7.3  12.697  174.6  0.0070   84.9  0.9966   -5.0
 0.145  0.9517   -7.6  12.699  174.4  0.0072   84.7  0.9965   -5.2
 0.150  0.9517   -7.9  12.701  174.2  0.0075   84.5  0.9964   -5.4
 0.155  0.9515   -8.1  12.700  174.0  0.0077   84.3  0.9961   -5.6
 0.160  0.9514   -8.4  12.700  173.8  0.0080   84.2  0.9959   -5.8
 0.165  0.9513   -8.6  12.700  173.6  0.0082   84.0  0.9956   -5.9
 0.170  0.9512   -8.9  12.699  173.4  0.0085   83.8  0.9954   -6.1
 0.175  0.9511   -9.1  12.699  173.3  0.0087   83.7  0.9952   -6.3
 0.180  0.9511   -9.4  12.699  173.1  0.0089   83.6  0.9950   -6.5
 0.185  0.9510   -9.6  12.700  172.9  0.0092   83.4  0.9948   -6.7
 0.190  0.9510   -9.9  12.700  172.7  0.0094   83.3  0.9946   -6.8
 0.195  0.9510  -10.1  12.700  172.5  0.0097   83.2  0.9944   -7.0
 0.200  0.9510  -10.4  12.701  172.3  0.0099   83.1  0.9942   -7.2
 0.220  0.9498  -11.4  12.671  171.4  0.0109   82.6  0.9931   -7.9
 0.240  0.9489  -12.4  12.644  170.5  0.0119   82.1  0.9921   -8.6
 0.260  0.9479  -13.4  12.629  169.7  0.0129   81.5  0.9909   -9.4
 0.280  0.9469  -14.5  12.626  169.0  0.0139   80.7  0.9895  -10.1
 0.300  0.9463  -15.6  12.624  168.3  0.0149   80.0  0.9882  -10.8
 0.320  0.9445  -16.6  12.607  167.5  0.0159   79.3  0.9865  -11.5
 0.340  0.9430  -17.6  12.592  166.8  0.0169   78.7  0.9850  -12.2
 0.360  0.9416  -18.6  12.569  166.0  0.0179   78.0  0.9833  -13.0
 0.380  0.9403  -19.6  12.539  165.3  0.0188   77.3  0.9815  -13.7
 0.400  0.9392  -20.6  12.511  164.5  0.0198   76.7  0.9799  -14.4
 0.420  0.9382  -21.6  12.483  163.7  0.0207   76.1  0.9780  -15.1
 0.440  0.9376  -22.7  12.458  162.9  0.0216   75.5  0.9762  -15.8
 0.450  0.9374  -23.2  12.446  162.5  0.0221   75.2  0.9754  -16.1
 0.460  0.9361  -23.7  12.433  162.1  0.0226   74.8  0.9742  -16.5
 0.480  0.9338  -24.7  12.407  161.4  0.0235   74.1  0.9719  -17.2
 0.500  0.9317  -25.7  12.384  160.6  0.0245   73.5  0.9698  -17.9
 0.520  0.9295  -26.7  12.347  159.8  0.0254   72.8  0.9671  -18.6
 0.540  0.9276  -27.7  12.312  159.1  0.0263   72.1  0.9646  -19.2
 0.560  0.9260  -28.7  12.279  158.3  0.0273   71.5  0.9623  -19.9
 0.580  0.9247  -29.7  12.249  157.5  0.0282   70.9  0.9600  -20.6
 0.600  0.9236  -30.7  12.221  156.7  0.0291   70.4  0.9579  -21.3
 0.620  0.9212  -31.7  12.185  156.0  0.0300   69.7  0.9550  -22.0
 0.640  0.9191  -32.7  12.151  155.3  0.0308   69.0  0.9522  -22.7
 0.660  0.9173  -33.7  12.119  154.6  0.0317   68.4  0.9496  -23.4
 0.680  0.9158  -34.7  12.089  153.9  0.0326   67.8  0.9471  -24.1
 0.700  0.9145  -35.7  12.060  153.2  0.0335   67.2  0.9448  -24.8
 0.720  0.9121  -36.7  12.012  152.5  0.0343   66.5  0.9417  -25.5
 0.740  0.9100  -37.6  11.966  151.8  0.0352   65.9  0.9386  -26.1
 0.760  0.9081  -38.6  11.921  151.1  0.0360   65.3  0.9357  -26.8
 0.780  0.9065  -39.5  11.879  150.3  0.0369   64.7  0.9330  -27.4
 0.800  0.9051  -40.5  11.838  149.6  0.0377   64.1  0.9303  -28.1
 0.820  0.9025  -41.4  11.794  148.9  0.0385   63.4  0.9270  -28.8
 0.840  0.9001  -42.4  11.752  148.2  0.0393   62.8  0.9238  -29.4
 0.860  0.8979  -43.3  11.712  147.5  0.0401   62.2  0.9207  -30.1
 0.880  0.8960  -44.3  11.673  146.8  0.0409   61.6  0.9177  -30.7
 0.900  0.8943  -45.2  11.636  146.1  0.0417   61.0  0.9149  -31.4
 0.920  0.8916  -46.1  11.591  145.4  0.0425   60.4  0.9113  -32.1
 0.940  0.8892  -47.1  11.548  144.8  0.0432   59.7  0.9078  -32.7
 0.960  0.8870  -48.1  11.506  144.1  0.0440   59.1  0.9044  -33.4
 0.980  0.8850  -49.0  11.466  143.4  0.0447   58.6  0.9011  -34.0
 1.000  0.8833  -50.0  11.427  142.7  0.0455   58.0  0.8980  -34.7
 1.020  0.8807  -50.9  11.379  142.0  0.0462   57.4  0.8943  -35.3
 1.040  0.8783  -51.8  11.333  141.4  0.0469   56.8  0.8907  -36.0
 1.060  0.8761  -52.7  11.289  140.7  0.0476   56.2  0.8873  -36.6
 1.080  0.8741  -53.7  11.246  140.0  0.0484   55.6  0.8839  -37.3
 1.100  0.8724  -54.6  11.205  139.3  0.0491   55.1  0.8807  -37.9
 1.120  0.8696  -55.5  11.156  138.6  0.0498   54.5  0.8770  -38.5
 1.140  0.8669  -56.4  11.110  138.0  0.0504   53.9  0.8734  -39.2
 1.160  0.8645  -57.3  11.064  137.3  0.0511   53.3  0.8699  -39.9
 1.180  0.8624  -58.3  11.020  136.6  0.0518   52.7  0.8665  -40.5
 1.200  0.8604  -59.2  10.978  135.9  0.0525   52.2  0.8633  -41.2
 1.220  0.8577  -60.1  10.926  135.3  0.0531   51.6  0.8596  -41.8
 1.240  0.8553  -60.9  10.876  134.6  0.0537   51.0  0.8559  -42.4
 1.260  0.8530  -61.8  10.826  134.0  0.0543   50.5  0.8524  -43.0
 1.280  0.8509  -62.6  10.778  133.4  0.0550   49.9  0.8490  -43.6
 1.300  0.8490  -63.5  10.732  132.7  0.0556   49.4  0.8456  -44.2
 1.320  0.8459  -64.4  10.677  132.1  0.0561   48.8  0.8416  -44.8
 1.340  0.8431  -65.2  10.623  131.4  0.0567   48.2  0.8376  -45.4
 1.360  0.8404  -66.1  10.570  130.8  0.0572   47.7  0.8338  -46.0
 1.380  0.8380  -67.0  10.519  130.2  0.0577   47.1  0.8300  -46.7
 1.400  0.8357  -67.9  10.469  129.5  0.0583   46.6  0.8264  -47.3
 1.420  0.8333  -68.7  10.418  128.9  0.0588   46.1  0.8228  -47.9
 1.440  0.8310  -69.4  10.368  128.4  0.0593   45.6  0.8192  -48.4
 1.460  0.8289  -70.2  10.319  127.8  0.0598   45.1  0.8158  -49.0
 1.480  0.8269  -71.0  10.271  127.2  0.0604   44.6  0.8124  -49.6
 1.500  0.8251  -71.8  10.224  126.6  0.0609   44.1  0.8091  -50.2
 1.520  0.8226  -72.7  10.174  126.0  0.0613   43.6  0.8053  -50.8
 1.540  0.8202  -73.5  10.126  125.3  0.0618   43.0  0.8016  -51.3
 1.560  0.8180  -74.4  10.079  124.7  0.0623   42.5  0.7979  -51.9
 1.580  0.8160  -75.2  10.033  124.1  0.0627   42.0  0.7944  -52.5
 1.600  0.8142  -76.1   9.988  123.4  0.0632   41.5  0.7909  -53.1
 1.620  0.8114  -76.8   9.934  122.9  0.0636   41.0  0.7875  -53.6
 1.640  0.8087  -77.6   9.880  122.3  0.0640   40.5  0.7841  -54.2
 1.660  0.8062  -78.3   9.828  121.7  0.0644   40.0  0.7808  -54.7
 1.680  0.8038  -79.1   9.777  121.2  0.0649   39.6  0.7776  -55.3
 1.700  0.8015  -79.8   9.726  120.6  0.0653   39.1  0.7744  -55.8
 1.720  0.7993  -80.5   9.669  120.1  0.0657   38.7  0.7711  -56.3
 1.740  0.7973  -81.3   9.612  119.5  0.0660   38.2  0.7679  -56.9
 1.760  0.7954  -82.0   9.556  119.0  0.0664   37.8  0.7647  -57.4
 1.780  0.7936  -82.8   9.501  118.5  0.0667   37.3  0.7616  -58.0
 1.800  0.7920  -83.5   9.447  117.9  0.0671   36.9  0.7586  -58.5
 1.820  0.7899  -84.2   9.401  117.4  0.0675   36.4  0.7554  -59.0
 1.840  0.7878  -84.9   9.356  116.9  0.0678   36.0  0.7522  -59.6
 1.860  0.7859  -85.6   9.312  116.4  0.0682   35.5  0.7491  -60.1
 1.880  0.7842  -86.4   9.269  115.8  0.0685   35.1  0.7461  -60.7
 1.900  0.7825  -87.1   9.226  115.3  0.0689   34.6  0.7431  -61.2
 1.920  0.7803  -87.8   9.174  114.8  0.0692   34.2  0.7402  -61.7
 1.940  0.7781  -88.4   9.123  114.3  0.0695   33.8  0.7373  -62.1
 1.960  0.7761  -89.1   9.072  113.8  0.0698   33.4  0.7344  -62.6
 1.980  0.7741  -89.7   9.022  113.2  0.0701   33.0  0.7316  -63.1
 2.000  0.7723  -90.4   8.973  112.7  0.0704   32.6  0.7289  -63.6
 2.020  0.7699  -91.0   8.924  112.2  0.0706   32.2  0.7258  -64.1
 2.040  0.7676  -91.7   8.876  111.7  0.0709   31.8  0.7228  -64.6
 2.060  0.7654  -92.3   8.829  111.3  0.0711   31.3  0.7199  -65.1
 2.080  0.7633  -93.0   8.782  110.8  0.0714   30.9  0.7169  -65.6
 2.100  0.7613  -93.7   8.736  110.3  0.0716   30.5  0.7141  -66.1
 2.120  0.7594  -94.3   8.690  109.8  0.0719   30.1  0.7113  -66.6
 2.140  0.7577  -95.0   8.645  109.3  0.0721   29.7  0.7086  -67.1
 2.160  0.7560  -95.7   8.601  108.7  0.0724   29.3  0.7059  -67.6
 2.180  0.7544  -96.3   8.558  108.2  0.0726   28.9  0.7033  -68.2
 2.200  0.7529  -97.0   8.515  107.7  0.0729   28.5  0.7007  -68.7
 2.220  0.7508  -97.6   8.469  107.3  0.0731   28.1  0.6980  -69.2
 2.240  0.7488  -98.3   8.423  106.8  0.0733   27.7  0.6953  -69.6
 2.260  0.7469  -98.9   8.378  106.3  0.0736   27.4  0.6927  -70.1
 2.280  0.7451  -99.5   8.334  105.9  0.0738   27.0  0.6901  -70.6
 2.300  0.7433 -100.2   8.290  105.4  0.0740   26.6  0.6876  -71.1
 2.320  0.7417 -100.8   8.247  104.9  0.0742   26.3  0.6851  -71.5
 2.340  0.7402 -101.5   8.204  104.5  0.0745   25.9  0.6827  -72.0
 2.360  0.7387 -102.1   8.162  104.0  0.0747   25.5  0.6803  -72.5
 2.380  0.7374 -102.7   8.120  103.5  0.0750   25.2  0.6780  -73.0
 2.400  0.7361 -103.4   8.079  103.0  0.0752   24.8  0.6757  -73.5
 2.420  0.7342 -104.0   8.035  102.6  0.0753   24.4  0.6732  -74.0
 2.440  0.7324 -104.6   7.992  102.1  0.0755   24.1  0.6707  -74.4
 2.460  0.7307 -105.2   7.949  101.7  0.0756   23.7  0.6682  -74.9
 2.480  0.7291 -105.8   7.906  101.3  0.0758   23.3  0.6658  -75.3
 2.500  0.7275 -106.4   7.864  100.8  0.0759   23.0  0.6635  -75.8
 2.520  0.7260 -107.0   7.823  100.4  0.0761   22.6  0.6612  -76.3
 2.540  0.7247 -107.6   7.782   99.9  0.0762   22.3  0.6589  -76.8
 2.560  0.7234 -108.3   7.741   99.4  0.0764   21.9  0.6567  -77.2
 2.580  0.7221 -108.9   7.701   99.0  0.0765   21.6  0.6545  -77.7
 2.600  0.7210 -109.5   7.662   98.5  0.0767   21.2  0.6524  -78.2
 2.620  0.7192 -110.0   7.619   98.1  0.0768   20.9  0.6502  -78.6
 2.640  0.7174 -110.6   7.577   97.7  0.0769   20.6  0.6481  -79.0
 2.660  0.7157 -111.1   7.535   97.3  0.0769   20.2  0.6460  -79.4
 2.680  0.7141 -111.7   7.494   96.9  0.0770   19.9  0.6440  -79.8
 2.700  0.7125 -112.2   7.453   96.5  0.0771   19.6  0.6420  -80.3
 2.720  0.7110 -112.8   7.412   96.0  0.0772   19.3  0.6400  -80.7
 2.740  0.7095 -113.3   7.372   95.6  0.0773   19.0  0.6380  -81.1
 2.760  0.7082 -113.9   7.332   95.2  0.0774   18.6  0.6361  -81.5
 2.780  0.7068 -114.4   7.293   94.7  0.0775   18.3  0.6342  -82.0
 2.800  0.7056 -115.0   7.254   94.3  0.0776   18.0  0.6324  -82.4
 2.820  0.7043 -115.5   7.216   93.9  0.0777   17.7  0.6307  -82.8
 2.840  0.7031 -116.0   7.179   93.6  0.0777   17.4  0.6290  -83.2
 2.860  0.7020 -116.5   7.141   93.2  0.0778   17.1  0.6273  -83.5
 2.880  0.7009 -117.0   7.104   92.8  0.0779   16.8  0.6257  -83.9
 2.900  0.6998 -117.5   7.068   92.4  0.0779   16.5  0.6240  -84.3
 2.920  0.6988 -118.0   7.032   92.0  0.0780   16.2  0.6225  -84.7
 2.940  0.6979 -118.6   6.996   91.6  0.0781   15.9  0.6209  -85.1
 2.960  0.6970 -119.1   6.960   91.2  0.0781   15.6  0.6194  -85.5
 2.980  0.6962 -119.6   6.925   90.8  0.0782   15.3  0.6179  -85.9
 3.000  0.6954 -120.1   6.890   90.4  0.0783   15.0  0.6164  -86.3
 3.100  0.6895 -122.3   6.720   88.8  0.0783   13.8  0.6097  -87.8
 3.200  0.6846 -124.5   6.555   87.2  0.0783   12.5  0.6035  -89.4
 3.300  0.6807 -126.7   6.395   85.4  0.0784   11.3  0.5977  -91.0
 3.400  0.6778 -128.9   6.242   83.6  0.0785   10.0  0.5924  -92.6
 3.500  0.6760 -131.2   6.096   81.7  0.0786    8.8  0.5876  -94.3
 3.600  0.6735 -133.1   5.969   80.3  0.0785    7.8  0.5833  -95.6
 3.700  0.6718 -135.1   5.846   78.8  0.0785    6.8  0.5792  -96.8
 3.800  0.6709 -137.0   5.727   77.2  0.0785    5.8  0.5754  -98.1
 3.900  0.6707 -139.0   5.612   75.6  0.0785    4.8  0.5720  -99.5
 4.000  0.6713 -140.9   5.502   73.9  0.0785    3.8  0.5688 -100.8
 4.100  0.6703 -142.8   5.394   72.4  0.0784    2.8  0.5647 -102.2
 4.200  0.6700 -144.7   5.290   70.9  0.0782    1.9  0.5610 -103.7
 4.300  0.6704 -146.6   5.190   69.3  0.0781    0.9  0.5577 -105.2
 4.400  0.6716 -148.5   5.094   67.6  0.0781   -0.0  0.5547 -106.7
 4.500  0.6735 -150.4   5.002   65.9  0.0780   -1.0  0.5521 -108.2
 4.600  0.6729 -152.1   4.902   64.5  0.0776   -1.9  0.5484 -109.6
 4.700  0.6728 -153.8   4.805   63.0  0.0772   -2.8  0.5451 -111.0
 4.800  0.6733 -155.4   4.711   61.5  0.0768   -3.7  0.5421 -112.4
 4.900  0.6744 -157.1   4.621   59.9  0.0764   -4.7  0.5394 -113.8
 5.000  0.6761 -158.8   4.535   58.2  0.0761   -5.6  0.5370 -115.2
 5.100  0.6742 -160.2   4.452   56.9  0.0756   -6.4  0.5334 -116.4
 5.200  0.6726 -161.7   4.372   55.5  0.0751   -7.2  0.5301 -117.7
 5.300  0.6715 -163.1   4.294   54.2  0.0746   -8.0  0.5270 -118.9
 5.400  0.6708 -164.6   4.219   52.7  0.0741   -8.8  0.5242 -120.2
 5.500  0.6706 -166.0   4.147   51.2  0.0736   -9.6  0.5216 -121.5
 5.600  0.6686 -167.5   4.084   49.9  0.0731  -10.3  0.5177 -122.8
 5.700  0.6671 -169.0   4.023   48.6  0.0725  -11.0  0.5140 -124.2
 5.800  0.6660 -170.5   3.964   47.2  0.0720  -11.7  0.5106 -125.6
 5.900  0.6654 -172.0   3.907   45.8  0.0715  -12.5  0.5076 -127.0
 6.000  0.6652 -173.5   3.853   44.4  0.0710  -13.2  0.5048 -128.4
 6.100  0.6633 -175.0   3.793   43.0  0.0702  -13.9  0.5008 -129.9
 6.200  0.6618 -176.6   3.735   41.6  0.0694  -14.6  0.4972 -131.3
 6.300  0.6609 -178.2   3.679   40.2  0.0687  -15.3  0.4939 -132.8
 6.400  0.6605 -179.7   3.626   38.7  0.0679  -16.0  0.4909 -134.4
 6.500  0.6605  178.7   3.575   37.2  0.0672  -16.7  0.4883 -135.9
 6.600  0.6596  177.2   3.517   35.9  0.0661  -17.1  0.4839 -137.1
 6.800  0.6593  174.2   3.406   33.1  0.0640  -18.0  0.4759 -139.6
 7.000  0.6607  171.2   3.304   30.2  0.0619  -18.9  0.4688 -142.2
 7.200  0.6624  168.4   3.202   27.8  0.0598  -18.7  0.4598 -144.8
 7.400  0.6657  165.7   3.106   25.2  0.0577  -18.5  0.4517 -147.4
 7.600  0.6714  162.9   3.018   22.5  0.0562  -18.0  0.4454 -150.8
 7.800  0.6797  160.1   2.940   19.7  0.0553  -17.3  0.4417 -154.9
 8.000  0.6896  157.4   2.869   16.7  0.0544  -16.5  0.4402 -159.0
 8.200  0.6939  154.7   2.777   13.8  0.0539  -16.4  0.4394 -164.1
 8.400  0.6997  152.1   2.692   10.8  0.0534  -16.3  0.4420 -169.2
 8.600  0.7027  149.7   2.602    7.9  0.0526  -16.3  0.4446 -174.3
 8.800  0.7025  147.6   2.506    5.1  0.0517  -16.2  0.4474 -179.4
 9.000  0.7033  145.4   2.417    2.1  0.0507  -16.2  0.4537  175.5
 9.200  0.7045  143.7   2.326    0.1  0.0498  -15.7  0.4609  170.5
 9.400  0.7064  142.0   2.238   -2.1  0.0489  -15.2  0.4715  165.6
 9.600  0.7121  140.0   2.157   -4.5  0.0480  -14.6  0.4870  161.0
 9.800  0.7217  137.9   2.084   -7.1  0.0472  -13.7  0.5071  156.8
10.000  0.7324  135.8   2.015   -9.8  0.0464  -12.8  0.5297  152.9
!
!  f       NFmin   Gammaopt  rn/50
! GHz       dB    MAG  ANG    -
 0.450      0.46  0.63    6   0.14
 2.400      0.64  0.36   45   0.14
 5.500      0.85  0.44  128   0.09
10.000      1.65  0.47 -141   0.15
!
! (c) 2016  Infineon Technologies AG, Munich
