! Infineon Technologies  Discrete & RF Semiconductors
! BFP740F
! VCE =  1.5 V,  IC =  15 mA
! Common Emitter S-Parameters:                            Oct 2012
# GHz  S  MA  R  50
!  f         S11            S21            S12            S22
! GHz     MAG   ANG      MAG   ANG      MAG   ANG      MAG   ANG
 0.030  0.8401   -3.6  36.912  176.8  0.0012   83.0  0.9911   -2.0
 0.040  0.8397   -4.7  36.937  175.8  0.0022   95.8  0.9919   -2.7
 0.050  0.8396   -5.7  37.111  175.0  0.0036   90.3  0.9932   -3.6
 0.060  0.8370   -6.9  36.965  174.2  0.0032  102.2  0.9924   -4.2
 0.070  0.8376   -8.1  36.853  173.2  0.0036   87.0  0.9917   -5.2
 0.080  0.8366   -9.3  36.750  172.4  0.0045   85.3  0.9898   -6.0
 0.090  0.8345  -10.5  36.566  171.4  0.0052   82.3  0.9883   -6.8
 0.100  0.8345  -11.6  36.466  170.6  0.0051   88.5  0.9877   -7.6
 0.110  0.8337  -12.7  36.223  169.8  0.0055   83.2  0.9858   -8.3
 0.120  0.8313  -13.9  36.085  169.0  0.0067   85.3  0.9829   -9.1
 0.130  0.8306  -14.9  35.854  168.2  0.0069   81.9  0.9811   -9.8
 0.140  0.8290  -16.1  35.702  167.4  0.0073   82.0  0.9788  -10.6
 0.150  0.8280  -17.2  35.568  166.6  0.0078   83.8  0.9763  -11.3
 0.200  0.8216  -22.6  34.686  163.1  0.0102   78.8  0.9644  -14.8
 0.250  0.8150  -27.9  33.897  159.9  0.0130   76.3  0.9502  -18.2
 0.300  0.8077  -33.0  33.102  156.8  0.0152   73.9  0.9355  -21.6
 0.350  0.8010  -38.1  32.310  153.9  0.0176   71.3  0.9197  -24.8
 0.400  0.7951  -43.1  31.664  151.2  0.0197   68.4  0.9021  -27.9
 0.450  0.7886  -47.9  30.975  148.4  0.0218   65.6  0.8862  -31.0
 0.500  0.7825  -52.6  30.225  145.9  0.0238   63.4  0.8669  -34.1
 0.600  0.7693  -61.9  28.940  140.7  0.0272   58.9  0.8282  -39.9
 0.700  0.7574  -70.4  27.551  136.0  0.0305   54.8  0.7898  -45.3
 0.800  0.7452  -78.6  26.262  131.4  0.0332   51.2  0.7499  -50.5
 0.900  0.7336  -86.1  24.966  127.2  0.0356   47.6  0.7103  -55.4
 1.000  0.7231  -93.1  23.683  123.3  0.0375   44.4  0.6734  -60.0
 1.100  0.7125  -99.7  22.490  119.6  0.0393   41.6  0.6369  -64.3
 1.200  0.7040 -105.6  21.338  116.2  0.0407   39.0  0.6049  -68.3
 1.300  0.6956 -111.2  20.281  113.0  0.0418   36.8  0.5737  -72.2
 1.400  0.6895 -116.3  19.278  110.1  0.0429   34.8  0.5474  -75.8
 1.500  0.6827 -121.1  18.360  107.4  0.0437   32.9  0.5214  -79.2
 1.600  0.6786 -125.6  17.513  104.8  0.0445   31.3  0.5001  -82.5
 1.700  0.6742 -129.6  16.703  102.4  0.0451   29.8  0.4788  -85.7
 1.800  0.6726 -133.4  15.976  100.1  0.0458   28.4  0.4618  -89.0
 1.900  0.6697 -136.9  15.287   98.0  0.0461   27.3  0.4450  -91.9
 2.000  0.6677 -140.3  14.653   95.9  0.0467   26.1  0.4317  -94.9
 2.100  0.6672 -143.6  14.034   93.7  0.0469   25.0  0.4192  -98.1
 2.200  0.6651 -146.4  13.465   91.9  0.0471   24.0  0.4087 -100.7
 2.300  0.6632 -149.1  12.947   90.1  0.0475   23.2  0.3983 -103.2
 2.400  0.6616 -151.5  12.445   88.4  0.0478   22.5  0.3904 -105.6
 2.500  0.6603 -154.0  12.001   86.7  0.0480   21.8  0.3820 -107.9
 2.600  0.6593 -156.2  11.574   85.2  0.0481   20.9  0.3760 -109.9
 2.700  0.6582 -158.4  11.184   83.6  0.0483   20.5  0.3691 -112.0
 2.800  0.6576 -160.4  10.811   82.1  0.0486   20.0  0.3645 -113.9
 2.900  0.6569 -162.4  10.457   80.7  0.0488   19.5  0.3593 -115.8
 3.000  0.6563 -164.2  10.137   79.2  0.0490   19.1  0.3554 -117.6
 3.100  0.6554 -166.0   9.825   77.9  0.0491   18.6  0.3519 -119.3
 3.200  0.6550 -167.8   9.537   76.5  0.0492   18.3  0.3484 -120.8
 3.300  0.6549 -169.5   9.260   75.2  0.0493   17.9  0.3453 -122.3
 3.400  0.6548 -171.1   9.003   73.8  0.0495   17.5  0.3425 -123.7
 3.500  0.6546 -172.6   8.751   72.6  0.0497   17.2  0.3393 -125.0
 3.600  0.6543 -174.1   8.520   71.3  0.0499   16.9  0.3369 -126.3
 3.700  0.6548 -175.7   8.305   70.1  0.0499   16.6  0.3332 -127.5
 3.800  0.6550 -177.1   8.089   68.8  0.0502   16.5  0.3305 -128.8
 3.900  0.6556 -178.4   7.893   67.6  0.0503   16.2  0.3275 -129.9
 4.000  0.6553 -179.9   7.694   66.4  0.0504   16.1  0.3249 -131.2
 4.100  0.6564  178.7   7.518   65.2  0.0506   15.8  0.3218 -132.4
 4.200  0.6565  177.3   7.338   64.0  0.0507   15.5  0.3190 -133.6
 4.300  0.6576  175.9   7.174   62.8  0.0508   15.4  0.3160 -134.8
 4.400  0.6580  174.5   7.008   61.7  0.0510   15.2  0.3138 -136.0
 4.500  0.6590  173.2   6.859   60.5  0.0511   15.0  0.3110 -137.2
 4.600  0.6603  171.8   6.710   59.4  0.0513   14.8  0.3080 -138.3
 4.700  0.6611  170.6   6.566   58.2  0.0514   14.7  0.3057 -139.6
 4.800  0.6629  169.3   6.431   57.1  0.0515   14.5  0.3033 -140.8
 4.900  0.6636  168.1   6.296   56.0  0.0517   14.4  0.3006 -142.0
 5.000  0.6650  166.9   6.171   54.9  0.0519   14.3  0.2981 -143.3
 5.100  0.6666  165.7   6.049   53.7  0.0519   14.1  0.2960 -144.6
 5.200  0.6674  164.6   5.936   52.6  0.0521   13.9  0.2938 -145.8
 5.300  0.6684  163.4   5.823   51.5  0.0523   13.8  0.2914 -147.1
 5.400  0.6696  162.3   5.714   50.5  0.0525   13.7  0.2895 -148.3
 5.500  0.6704  161.2   5.609   49.3  0.0526   13.5  0.2877 -149.5
 5.600  0.6708  160.1   5.504   48.3  0.0527   13.4  0.2853 -150.5
 5.700  0.6718  158.9   5.408   47.2  0.0527   13.4  0.2828 -152.1
 5.800  0.6724  157.8   5.314   46.0  0.0529   13.2  0.2816 -153.3
 5.900  0.6732  156.7   5.222   44.9  0.0529   13.0  0.2787 -154.5
 6.000  0.6738  155.5   5.131   43.8  0.0530   12.9  0.2762 -155.8
 6.100  0.6743  154.4   5.041   42.7  0.0532   12.8  0.2743 -157.3
 6.200  0.6746  153.1   4.961   41.5  0.0532   12.8  0.2719 -158.6
 6.300  0.6742  152.0   4.869   40.5  0.0532   12.7  0.2691 -159.9
 6.400  0.6737  150.8   4.789   39.4  0.0532   12.8  0.2669 -161.2
 6.500  0.6737  149.5   4.705   38.3  0.0533   12.7  0.2638 -162.5
 6.600  0.6732  148.3   4.626   37.2  0.0534   12.9  0.2609 -163.8
 6.700  0.6726  147.0   4.542   36.1  0.0534   13.0  0.2577 -165.2
 6.800  0.6727  145.7   4.468   35.0  0.0536   13.1  0.2543 -166.6
 6.900  0.6720  144.5   4.391   33.9  0.0537   13.4  0.2507 -168.0
 7.000  0.6723  143.3   4.318   32.8  0.0540   13.6  0.2471 -169.4
 7.100  0.6720  142.1   4.245   31.8  0.0543   13.9  0.2437 -171.2
 7.200  0.6727  140.8   4.177   30.8  0.0547   14.2  0.2416 -172.8
 7.300  0.6737  139.7   4.106   29.7  0.0551   14.3  0.2391 -174.5
 7.400  0.6755  138.6   4.044   28.7  0.0556   14.3  0.2372 -176.5
 7.500  0.6773  137.5   3.980   27.7  0.0562   14.5  0.2363 -178.5
 7.600  0.6798  136.3   3.917   26.6  0.0567   14.3  0.2353  179.5
 7.700  0.6824  135.3   3.853   25.7  0.0573   14.3  0.2344  177.2
 7.800  0.6866  134.0   3.797   24.5  0.0579   14.0  0.2350  174.6
 7.900  0.6898  133.1   3.736   23.6  0.0584   13.8  0.2355  172.1
 8.000  0.6950  132.0   3.677   22.5  0.0589   13.4  0.2370  169.4
 8.500  0.7205  127.5   3.395   17.3  0.0607   11.7  0.2546  155.2
 9.000  0.7451  123.8   3.129   12.3  0.0617   10.1  0.2891  142.3
 9.500  0.7651  121.5   2.883    7.6  0.0622    8.8  0.3363  132.7
10.000  0.7825  118.5   2.656    3.1  0.0624    7.8  0.3899  126.0
!
!  f       NFmin   Gammaopt  rn/50
! GHz       dB    MAG  ANG    -
 0.450      0.53  0.10    7   0.57
 0.900      0.59  0.10   17   0.24
 1.500      0.65  0.10   30   0.04
 1.900      0.70  0.10   43   0.03
 2.400      0.74  0.10   60   0.03
 3.500      0.85  0.09   78   0.13
 5.500      1.03  0.07  170   0.18
10.000      1.40  0.38 -111   0.12
!
! (c) 2012  Infineon Technologies AG, Munich
