! Infineon Technologies  Discrete & RF Semiconductors
! BFP780
! VCE =  5.0 V,  IC =  37 mA
! Common Emitter S-Parameters:                            Jul 2015
# GHz  S  MA  R  50
!  f         S11            S21            S12            S22
! GHz     MAG   ANG      MAG   ANG      MAG   ANG      MAG   ANG
 0.030  0.5300  -25.7  60.788  169.2  0.0049   59.5  0.9023  -14.2
 0.040  0.5350  -33.6  59.966  165.7  0.0065   63.6  0.8910  -18.9
 0.050  0.5443  -41.3  59.169  162.0  0.0091   64.9  0.8860  -23.4
 0.060  0.5579  -48.9  58.131  158.8  0.0110   61.2  0.8695  -28.0
 0.070  0.5603  -55.9  56.959  155.5  0.0112   53.2  0.8507  -32.2
 0.080  0.5759  -62.3  55.739  152.3  0.0123   61.8  0.8407  -36.4
 0.090  0.5849  -68.5  54.340  149.4  0.0131   57.1  0.8219  -40.4
 0.100  0.5957  -74.3  52.948  146.6  0.0151   55.7  0.8023  -44.3
 0.110  0.6064  -79.7  51.489  143.8  0.0157   52.5  0.7843  -48.3
 0.120  0.6160  -84.8  50.081  141.3  0.0167   51.3  0.7670  -51.7
 0.130  0.6254  -89.5  48.691  138.9  0.0174   49.3  0.7481  -55.1
 0.140  0.6341  -93.7  47.211  136.5  0.0186   47.3  0.7306  -58.4
 0.150  0.6427  -97.8  45.857  134.4  0.0192   44.4  0.7158  -61.5
 0.200  0.6805 -114.2  39.457  125.0  0.0219   37.5  0.6403  -75.5
 0.250  0.7029 -126.2  34.207  117.7  0.0241   33.9  0.5830  -86.9
 0.300  0.7196 -135.3  29.885  111.9  0.0253   29.9  0.5356  -96.6
 0.350  0.7319 -142.5  26.421  107.1  0.0264   27.1  0.5001 -104.6
 0.400  0.7406 -148.0  23.596  103.2  0.0271   25.3  0.4742 -111.4
 0.450  0.7471 -152.7  21.293   99.8  0.0276   23.4  0.4544 -117.3
 0.500  0.7507 -156.7  19.365   96.8  0.0279   22.2  0.4368 -122.5
 0.600  0.7590 -163.1  16.346   91.6  0.0287   19.7  0.4154 -131.2
 0.700  0.7619 -168.2  14.110   87.2  0.0289   18.4  0.4000 -138.1
 0.800  0.7675 -172.4  12.401   83.4  0.0294   17.2  0.3932 -143.7
 0.900  0.7695 -176.0  11.044   79.9  0.0298   17.1  0.3870 -148.5
 1.000  0.7745 -179.2   9.955   76.6  0.0299   16.6  0.3876 -152.6
 1.100  0.7748  178.0   9.037   73.5  0.0303   16.4  0.3865 -156.2
 1.200  0.7798  175.4   8.294   70.6  0.0306   16.6  0.3902 -159.2
 1.300  0.7800  172.9   7.642   67.8  0.0309   16.3  0.3914 -162.0
 1.400  0.7834  170.7   7.086   65.0  0.0312   16.9  0.3966 -164.4
 1.500  0.7836  168.6   6.597   62.4  0.0315   16.8  0.3999 -166.8
 1.600  0.7880  166.5   6.178   59.7  0.0319   16.9  0.4063 -168.9
 1.700  0.7882  164.5   5.797   57.1  0.0321   17.0  0.4115 -171.0
 1.800  0.7893  162.5   5.451   54.4  0.0325   17.4  0.4184 -173.0
 1.900  0.7907  160.8   5.144   52.1  0.0326   17.3  0.4247 -174.8
 2.000  0.7950  158.9   4.883   49.6  0.0331   17.7  0.4325 -176.5
 2.100  0.7955  157.2   4.620   47.1  0.0332   17.7  0.4356 -177.7
 2.200  0.7963  155.4   4.387   44.6  0.0335   17.9  0.4418 -179.3
 2.300  0.7981  153.9   4.178   42.3  0.0338   18.0  0.4469  178.9
 2.400  0.8009  152.2   3.991   39.8  0.0343   18.5  0.4538  177.3
 2.500  0.8029  150.5   3.814   37.4  0.0348   19.0  0.4601  175.6
 2.600  0.8038  148.7   3.639   35.0  0.0350   19.2  0.4667  173.8
 2.700  0.8042  147.1   3.481   32.7  0.0355   19.3  0.4732  172.1
 2.800  0.8071  145.5   3.335   30.3  0.0358   19.7  0.4806  170.4
 2.900  0.8085  143.8   3.197   28.0  0.0365   19.9  0.4890  168.8
 3.000  0.8106  142.2   3.068   25.6  0.0367   20.4  0.4969  167.0
 3.100  0.8120  140.8   2.942   23.4  0.0375   20.4  0.5049  165.4
 3.200  0.8136  139.3   2.826   21.2  0.0380   20.7  0.5127  163.7
 3.300  0.8148  137.7   2.715   19.0  0.0385   20.9  0.5213  162.2
 3.400  0.8171  136.2   2.610   16.8  0.0391   21.3  0.5296  160.6
 3.500  0.8190  134.9   2.515   14.7  0.0398   21.2  0.5379  159.1
 3.600  0.8201  133.3   2.418   12.5  0.0402   21.1  0.5461  157.5
 3.700  0.8224  131.9   2.332   10.4  0.0411   21.7  0.5544  156.1
 3.800  0.8235  130.4   2.242    8.3  0.0417   21.4  0.5628  154.5
 3.900  0.8262  129.2   2.166    6.4  0.0425   21.5  0.5711  153.1
 4.000  0.8284  127.8   2.088    4.4  0.0431   21.5  0.5792  151.6
 4.100  0.8309  126.4   2.019    2.3  0.0437   21.4  0.5876  150.4
 4.200  0.8330  125.1   1.948    0.4  0.0445   21.4  0.5960  148.9
 4.300  0.8354  123.8   1.884   -1.6  0.0453   21.3  0.6043  147.7
 4.400  0.8384  122.7   1.822   -3.5  0.0461   21.0  0.6123  146.4
 4.500  0.8402  121.4   1.763   -5.4  0.0469   21.0  0.6200  145.1
 4.600  0.8434  120.2   1.706   -7.2  0.0478   20.6  0.6277  143.8
 4.700  0.8448  119.0   1.652   -9.2  0.0485   20.4  0.6345  142.5
 4.800  0.8475  117.9   1.600  -11.0  0.0492   20.2  0.6421  141.2
 4.900  0.8494  117.0   1.549  -12.7  0.0500   19.9  0.6481  139.9
 5.000  0.8511  115.8   1.502  -14.6  0.0510   19.4  0.6552  138.7
 5.100  0.8534  114.9   1.458  -16.3  0.0518   19.1  0.6610  137.4
 5.200  0.8545  113.8   1.414  -18.1  0.0527   18.9  0.6673  136.1
 5.300  0.8558  112.9   1.372  -19.9  0.0534   18.3  0.6726  134.8
 5.400  0.8573  111.9   1.332  -21.6  0.0544   18.0  0.6783  133.6
 5.500  0.8575  111.1   1.292  -23.2  0.0552   17.6  0.6825  132.4
 5.600  0.8581  110.3   1.256  -24.8  0.0562   17.3  0.6882  131.1
 5.700  0.8574  109.3   1.222  -26.5  0.0569   16.7  0.6930  129.8
 5.800  0.8586  108.4   1.189  -28.1  0.0580   16.3  0.6981  128.6
 5.900  0.8579  107.6   1.157  -29.7  0.0591   15.7  0.7032  127.3
 6.000  0.8587  106.6   1.125  -31.3  0.0601   14.9  0.7082  125.9
!
!  f       NFmin   Gammaopt  rn/50
! GHz       dB    MAG  ANG    -
!
! noise parameter not available yet for this operation point!
!
! (c) 2015  Infineon Technologies AG, Munich
