! Infineon Technologies  Discrete & RF Semiconductors
! BFP740FESD
! VCE =  2.5 V,  IC =  15 mA
! Common Emitter S-Parameters:                            Jan 2016
# GHz  S  MA  R  50
!  f         S11            S21            S12            S22
! GHz     MAG   ANG      MAG   ANG      MAG   ANG      MAG   ANG
 0.010  0.8086   -0.5  37.881  179.8  0.0003  175.0  0.9726    1.9
 0.015  0.8128   -1.4  37.843  179.0  0.0005  100.4  0.9816    0.4
 0.020  0.8173   -2.3  37.813  178.2  0.0009   81.6  0.9913   -1.1
 0.025  0.8172   -2.9  37.784  177.8  0.0011   82.8  0.9916   -1.5
 0.030  0.8172   -3.4  37.757  177.4  0.0014   83.6  0.9920   -1.9
 0.035  0.8173   -4.0  37.732  177.1  0.0016   84.1  0.9924   -2.3
 0.040  0.8175   -4.6  37.708  176.7  0.0018   84.5  0.9928   -2.6
 0.045  0.8178   -5.1  37.686  176.3  0.0021   84.8  0.9933   -3.0
 0.050  0.8181   -5.7  37.666  175.9  0.0023   85.1  0.9938   -3.4
 0.055  0.8173   -6.3  37.665  175.5  0.0025   84.9  0.9933   -3.8
 0.060  0.8166   -6.8  37.666  175.2  0.0028   84.7  0.9929   -4.2
 0.065  0.8160   -7.4  37.669  174.8  0.0030   84.5  0.9925   -4.5
 0.070  0.8154   -8.0  37.672  174.5  0.0033   84.4  0.9922   -4.9
 0.075  0.8149   -8.5  37.677  174.1  0.0035   84.2  0.9919   -5.3
 0.080  0.8146   -9.1  37.684  173.8  0.0037   84.1  0.9917   -5.7
 0.085  0.8142   -9.7  37.692  173.4  0.0040   84.0  0.9915   -6.1
 0.090  0.8140  -10.3  37.701  173.1  0.0042   83.9  0.9913   -6.4
 0.095  0.8139  -10.8  37.712  172.7  0.0045   83.9  0.9912   -6.8
 0.100  0.8138  -11.4  37.724  172.4  0.0047   83.8  0.9911   -7.2
 0.105  0.8130  -12.0  37.681  172.0  0.0049   83.4  0.9901   -7.6
 0.110  0.8122  -12.6  37.639  171.6  0.0052   83.0  0.9891   -8.0
 0.115  0.8115  -13.2  37.599  171.2  0.0054   82.7  0.9881   -8.3
 0.120  0.8109  -13.8  37.562  170.8  0.0056   82.4  0.9872   -8.7
 0.125  0.8104  -14.3  37.526  170.4  0.0058   82.1  0.9863   -9.1
 0.130  0.8100  -14.9  37.492  169.9  0.0061   81.9  0.9855   -9.5
 0.135  0.8097  -15.5  37.460  169.5  0.0063   81.6  0.9847   -9.9
 0.140  0.8094  -16.1  37.430  169.1  0.0065   81.4  0.9840  -10.2
 0.145  0.8093  -16.7  37.402  168.7  0.0068   81.2  0.9833  -10.6
 0.150  0.8092  -17.3  37.376  168.3  0.0070   81.0  0.9826  -11.0
 0.155  0.8083  -17.8  37.320  167.9  0.0072   80.7  0.9813  -11.3
 0.160  0.8075  -18.4  37.266  167.5  0.0075   80.4  0.9800  -11.7
 0.165  0.8068  -18.9  37.213  167.2  0.0077   80.1  0.9787  -12.0
 0.170  0.8061  -19.5  37.162  166.8  0.0079   79.8  0.9775  -12.4
 0.175  0.8056  -20.0  37.113  166.4  0.0081   79.5  0.9763  -12.7
 0.180  0.8051  -20.6  37.065  166.0  0.0084   79.3  0.9752  -13.1
 0.185  0.8046  -21.1  37.019  165.7  0.0086   79.0  0.9741  -13.4
 0.190  0.8043  -21.7  36.974  165.3  0.0088   78.8  0.9730  -13.8
 0.195  0.8040  -22.2  36.931  164.9  0.0091   78.6  0.9720  -14.1
 0.200  0.8038  -22.8  36.890  164.5  0.0093   78.4  0.9710  -14.5
 0.220  0.7994  -24.9  36.567  163.0  0.0101   77.1  0.9649  -15.9
 0.240  0.7962  -27.1  36.271  161.4  0.0110   76.0  0.9594  -17.3
 0.260  0.7929  -29.3  36.000  159.9  0.0118   74.9  0.9533  -18.7
 0.280  0.7894  -31.4  35.748  158.6  0.0127   73.7  0.9466  -20.0
 0.300  0.7871  -33.6  35.515  157.3  0.0135   72.7  0.9404  -21.3
 0.320  0.7827  -35.6  35.182  156.0  0.0143   71.6  0.9329  -22.6
 0.340  0.7793  -37.7  34.868  154.7  0.0151   70.6  0.9258  -23.9
 0.360  0.7757  -39.7  34.545  153.4  0.0159   69.6  0.9185  -25.2
 0.380  0.7717  -41.7  34.212  152.0  0.0166   68.6  0.9107  -26.4
 0.400  0.7687  -43.7  33.898  150.7  0.0174   67.7  0.9033  -27.6
 0.420  0.7642  -45.6  33.543  149.5  0.0181   66.7  0.8954  -28.8
 0.440  0.7605  -47.5  33.203  148.3  0.0188   65.8  0.8878  -30.0
 0.450  0.7590  -48.4  33.038  147.7  0.0191   65.4  0.8842  -30.6
 0.460  0.7566  -49.3  32.860  147.1  0.0195   64.9  0.8799  -31.2
 0.480  0.7525  -51.3  32.514  145.9  0.0202   64.0  0.8715  -32.3
 0.500  0.7492  -53.2  32.183  144.7  0.0209   63.2  0.8635  -33.5
 0.520  0.7443  -54.9  31.821  143.6  0.0215   62.2  0.8546  -34.5
 0.540  0.7402  -56.7  31.471  142.6  0.0221   61.3  0.8460  -35.6
 0.560  0.7367  -58.5  31.132  141.5  0.0227   60.5  0.8378  -36.7
 0.580  0.7340  -60.3  30.804  140.3  0.0233   59.7  0.8298  -37.8
 0.600  0.7320  -62.1  30.489  139.2  0.0239   58.9  0.8221  -38.9
 0.620  0.7276  -63.7  30.145  138.3  0.0244   58.1  0.8137  -39.9
 0.640  0.7237  -65.4  29.809  137.3  0.0250   57.3  0.8055  -40.9
 0.660  0.7205  -67.0  29.480  136.4  0.0255   56.5  0.7976  -41.9
 0.680  0.7178  -68.7  29.161  135.4  0.0261   55.8  0.7899  -42.9
 0.700  0.7158  -70.4  28.850  134.4  0.0266   55.1  0.7825  -44.0
 0.720  0.7122  -71.9  28.513  133.5  0.0271   54.4  0.7742  -44.9
 0.740  0.7091  -73.4  28.182  132.6  0.0275   53.7  0.7662  -45.8
 0.760  0.7065  -75.0  27.859  131.7  0.0280   53.0  0.7583  -46.8
 0.780  0.7044  -76.5  27.543  130.8  0.0285   52.3  0.7506  -47.7
 0.800  0.7028  -78.1  27.235  129.8  0.0290   51.7  0.7432  -48.7
 0.820  0.6996  -79.5  26.938  129.0  0.0294   51.0  0.7355  -49.5
 0.840  0.6968  -80.9  26.645  128.2  0.0298   50.3  0.7280  -50.4
 0.860  0.6944  -82.4  26.358  127.4  0.0302   49.7  0.7207  -51.3
 0.880  0.6925  -83.8  26.077  126.6  0.0306   49.0  0.7135  -52.2
 0.900  0.6910  -85.3  25.801  125.7  0.0310   48.4  0.7065  -53.1
 0.920  0.6880  -86.6  25.512  125.0  0.0314   47.8  0.6991  -53.9
 0.940  0.6854  -88.0  25.227  124.2  0.0317   47.2  0.6919  -54.8
 0.960  0.6831  -89.4  24.947  123.4  0.0321   46.7  0.6848  -55.6
 0.980  0.6813  -90.7  24.672  122.6  0.0324   46.1  0.6779  -56.5
 1.000  0.6798  -92.1  24.401  121.8  0.0328   45.6  0.6711  -57.4
 1.020  0.6774  -93.3  24.136  121.1  0.0331   45.0  0.6643  -58.1
 1.040  0.6754  -94.5  23.875  120.4  0.0334   44.5  0.6577  -58.9
 1.060  0.6736  -95.7  23.618  119.7  0.0338   43.9  0.6512  -59.7
 1.080  0.6721  -97.0  23.365  119.0  0.0341   43.4  0.6448  -60.5
 1.100  0.6710  -98.2  23.115  118.2  0.0344   42.9  0.6385  -61.3
 1.120  0.6690  -99.4  22.869  117.5  0.0347   42.4  0.6322  -62.0
 1.140  0.6672 -100.5  22.626  116.9  0.0349   42.0  0.6259  -62.8
 1.160  0.6658 -101.7  22.386  116.2  0.0352   41.5  0.6198  -63.6
 1.180  0.6646 -102.9  22.149  115.5  0.0354   41.0  0.6138  -64.4
 1.200  0.6637 -104.1  21.916  114.8  0.0357   40.6  0.6079  -65.2
 1.220  0.6620 -105.2  21.687  114.2  0.0359   40.1  0.6022  -65.9
 1.240  0.6606 -106.2  21.460  113.6  0.0362   39.7  0.5965  -66.6
 1.260  0.6594 -107.3  21.236  113.0  0.0364   39.2  0.5910  -67.3
 1.280  0.6584 -108.3  21.014  112.3  0.0367   38.7  0.5855  -68.1
 1.300  0.6576 -109.4  20.795  111.7  0.0369   38.3  0.5802  -68.8
 1.320  0.6559 -110.4  20.576  111.1  0.0371   37.9  0.5747  -69.5
 1.340  0.6544 -111.4  20.359  110.5  0.0373   37.5  0.5693  -70.1
 1.360  0.6531 -112.4  20.145  109.9  0.0374   37.1  0.5640  -70.8
 1.380  0.6520 -113.4  19.932  109.3  0.0376   36.8  0.5588  -71.5
 1.400  0.6511 -114.4  19.722  108.7  0.0378   36.4  0.5536  -72.2
 1.420  0.6498 -115.3  19.531  108.2  0.0380   36.1  0.5490  -72.8
 1.440  0.6487 -116.2  19.342  107.7  0.0382   35.7  0.5445  -73.4
 1.460  0.6477 -117.0  19.154  107.2  0.0383   35.4  0.5401  -74.0
 1.480  0.6469 -117.9  18.968  106.6  0.0385   35.0  0.5357  -74.7
 1.500  0.6462 -118.8  18.784  106.1  0.0387   34.7  0.5314  -75.3
 1.520  0.6453 -119.7  18.604  105.6  0.0388   34.4  0.5270  -75.9
 1.540  0.6446 -120.5  18.426  105.1  0.0389   34.0  0.5227  -76.5
 1.560  0.6441 -121.4  18.249  104.5  0.0391   33.7  0.5185  -77.2
 1.580  0.6437 -122.2  18.073  104.0  0.0392   33.3  0.5143  -77.8
 1.600  0.6434 -123.1  17.900  103.4  0.0393   33.0  0.5102  -78.5
 1.620  0.6421 -123.9  17.736  102.9  0.0394   32.7  0.5065  -79.1
 1.640  0.6409 -124.7  17.574  102.5  0.0396   32.4  0.5028  -79.6
 1.660  0.6399 -125.4  17.412  102.0  0.0397   32.1  0.4992  -80.2
 1.680  0.6389 -126.2  17.252  101.5  0.0399   31.8  0.4957  -80.8
 1.700  0.6381 -127.0  17.093  101.0  0.0400   31.5  0.4922  -81.4
 1.720  0.6375 -127.7  16.930  100.6  0.0401   31.3  0.4889  -81.9
 1.740  0.6370 -128.4  16.768  100.1  0.0402   31.1  0.4857  -82.5
 1.760  0.6366 -129.0  16.607   99.6  0.0403   30.8  0.4825  -83.0
 1.780  0.6362 -129.7  16.447   99.2  0.0404   30.6  0.4793  -83.5
 1.800  0.6360 -130.4  16.288   98.7  0.0405   30.4  0.4762  -84.1
 1.820  0.6354 -131.1  16.151   98.3  0.0406   30.1  0.4731  -84.7
 1.840  0.6349 -131.8  16.015   97.8  0.0407   29.9  0.4700  -85.3
 1.860  0.6346 -132.6  15.880   97.4  0.0408   29.6  0.4670  -85.9
 1.880  0.6343 -133.3  15.745   97.0  0.0409   29.4  0.4640  -86.5
 1.900  0.6341 -134.0  15.612   96.5  0.0410   29.1  0.4611  -87.1
 1.920  0.6331 -134.6  15.478   96.1  0.0411   28.9  0.4585  -87.5
 1.940  0.6322 -135.1  15.345   95.7  0.0412   28.7  0.4559  -88.0
 1.960  0.6313 -135.7  15.213   95.3  0.0413   28.5  0.4533  -88.5
 1.980  0.6305 -136.2  15.081   94.9  0.0414   28.3  0.4507  -88.9
 2.000  0.6297 -136.8  14.950   94.5  0.0415   28.1  0.4482  -89.4
 2.020  0.6290 -137.4  14.830   94.1  0.0416   27.9  0.4458  -89.9
 2.040  0.6284 -138.0  14.712   93.7  0.0416   27.7  0.4434  -90.4
 2.060  0.6279 -138.6  14.594   93.3  0.0417   27.5  0.4410  -90.9
 2.080  0.6274 -139.2  14.476   92.9  0.0417   27.3  0.4387  -91.4
 2.100  0.6270 -139.8  14.359   92.5  0.0418   27.1  0.4364  -91.9
 2.120  0.6267 -140.4  14.243   92.1  0.0419   26.9  0.4341  -92.5
 2.140  0.6264 -141.0  14.128   91.7  0.0419   26.7  0.4319  -93.0
 2.160  0.6262 -141.6  14.014   91.3  0.0420   26.5  0.4297  -93.5
 2.180  0.6261 -142.2  13.900   90.8  0.0420   26.3  0.4276  -94.1
 2.200  0.6260 -142.8  13.787   90.4  0.0421   26.1  0.4255  -94.6
 2.220  0.6254 -143.3  13.683   90.1  0.0422   25.9  0.4236  -95.1
 2.240  0.6249 -143.9  13.579   89.7  0.0422   25.8  0.4217  -95.5
 2.260  0.6244 -144.4  13.476   89.3  0.0423   25.6  0.4199  -96.0
 2.280  0.6240 -144.9  13.373   89.0  0.0423   25.5  0.4180  -96.4
 2.300  0.6236 -145.4  13.271   88.6  0.0424   25.3  0.4162  -96.9
 2.320  0.6233 -146.0  13.170   88.2  0.0425   25.1  0.4145  -97.4
 2.340  0.6230 -146.5  13.069   87.9  0.0425   25.0  0.4127  -97.8
 2.360  0.6228 -147.0  12.968   87.5  0.0426   24.8  0.4110  -98.3
 2.380  0.6226 -147.6  12.868   87.1  0.0426   24.7  0.4094  -98.8
 2.400  0.6225 -148.1  12.769   86.7  0.0427   24.5  0.4077  -99.3
 2.420  0.6220 -148.6  12.677   86.4  0.0427   24.4  0.4062  -99.8
 2.440  0.6216 -149.1  12.586   86.1  0.0428   24.2  0.4047 -100.2
 2.460  0.6213 -149.6  12.495   85.7  0.0428   24.1  0.4032 -100.7
 2.480  0.6209 -150.1  12.404   85.4  0.0429   23.9  0.4018 -101.1
 2.500  0.6207 -150.6  12.314   85.1  0.0429   23.8  0.4004 -101.6
 2.520  0.6204 -151.1  12.224   84.7  0.0429   23.7  0.3990 -102.1
 2.540  0.6203 -151.6  12.134   84.4  0.0430   23.5  0.3976 -102.6
 2.560  0.6201 -152.1  12.045   84.0  0.0430   23.4  0.3963 -103.0
 2.580  0.6200 -152.6  11.957   83.7  0.0431   23.2  0.3950 -103.5
 2.600  0.6200 -153.1  11.869   83.3  0.0431   23.1  0.3937 -104.0
 2.620  0.6196 -153.5  11.787   83.0  0.0431   23.0  0.3926 -104.4
 2.640  0.6193 -154.0  11.705   82.7  0.0431   22.9  0.3915 -104.8
 2.660  0.6189 -154.4  11.623   82.4  0.0432   22.8  0.3904 -105.2
 2.680  0.6187 -154.8  11.542   82.1  0.0432   22.7  0.3893 -105.6
 2.700  0.6184 -155.2  11.461   81.8  0.0432   22.5  0.3883 -106.0
 2.720  0.6182 -155.7  11.380   81.4  0.0432   22.4  0.3873 -106.4
 2.740  0.6180 -156.1  11.300   81.1  0.0432   22.3  0.3863 -106.8
 2.760  0.6179 -156.5  11.220   80.8  0.0433   22.2  0.3853 -107.3
 2.780  0.6178 -157.0  11.140   80.4  0.0433   22.1  0.3843 -107.7
 2.800  0.6177 -157.4  11.061   80.1  0.0433   22.0  0.3834 -108.1
 2.820  0.6176 -157.8  10.990   79.8  0.0433   21.9  0.3827 -108.4
 2.840  0.6176 -158.2  10.919   79.5  0.0434   21.8  0.3819 -108.8
 2.860  0.6176 -158.5  10.848   79.2  0.0434   21.7  0.3812 -109.1
 2.880  0.6177 -158.9  10.778   78.9  0.0434   21.6  0.3805 -109.5
 2.900  0.6177 -159.3  10.707   78.6  0.0434   21.5  0.3798 -109.8
 2.920  0.6178 -159.7  10.637   78.3  0.0435   21.5  0.3791 -110.2
 2.940  0.6179 -160.1  10.568   78.0  0.0435   21.4  0.3785 -110.5
 2.960  0.6180 -160.4  10.499   77.7  0.0435   21.3  0.3778 -110.9
 2.980  0.6182 -160.8  10.430   77.4  0.0436   21.2  0.3772 -111.2
 3.000  0.6184 -161.2  10.361   77.1  0.0436   21.1  0.3766 -111.6
 3.100  0.6176 -162.8  10.071   75.9  0.0437   20.9  0.3742 -112.9
 3.200  0.6173 -164.4   9.785   74.7  0.0438   20.6  0.3719 -114.3
 3.300  0.6175 -166.1   9.504   73.3  0.0439   20.4  0.3699 -115.6
 3.400  0.6182 -167.7   9.228   71.9  0.0440   20.1  0.3681 -117.0
 3.500  0.6194 -169.3   8.959   70.4  0.0441   19.9  0.3665 -118.4
 3.600  0.6198 -170.7   8.746   69.2  0.0443   19.8  0.3646 -119.4
 3.700  0.6206 -172.0   8.538   68.0  0.0445   19.7  0.3629 -120.5
 3.800  0.6218 -173.4   8.333   66.7  0.0446   19.5  0.3613 -121.6
 3.900  0.6233 -174.8   8.133   65.4  0.0448   19.4  0.3598 -122.6
 4.000  0.6251 -176.1   7.937   64.0  0.0450   19.3  0.3584 -123.7
 4.100  0.6262 -177.4   7.761   62.8  0.0452   19.2  0.3568 -125.0
 4.200  0.6277 -178.7   7.588   61.6  0.0454   19.0  0.3553 -126.2
 4.300  0.6295  180.0   7.418   60.3  0.0455   18.9  0.3541 -127.5
 4.400  0.6316  178.7   7.253   58.9  0.0457   18.7  0.3530 -128.8
 4.500  0.6340  177.4   7.092   57.5  0.0459   18.6  0.3521 -130.1
 4.600  0.6351  176.3   6.939   56.4  0.0460   18.5  0.3508 -131.3
 4.700  0.6365  175.1   6.788   55.2  0.0461   18.4  0.3497 -132.5
 4.800  0.6381  174.0   6.640   53.9  0.0463   18.4  0.3487 -133.7
 4.900  0.6400  172.9   6.496   52.7  0.0464   18.3  0.3479 -134.9
 5.000  0.6421  171.8   6.355   51.3  0.0465   18.2  0.3472 -136.1
 5.100  0.6414  170.7   6.232   50.2  0.0466   18.2  0.3458 -137.1
 5.200  0.6409  169.7   6.111   49.2  0.0468   18.2  0.3446 -138.2
 5.300  0.6407  168.6   5.992   48.0  0.0469   18.1  0.3435 -139.3
 5.400  0.6406  167.6   5.876   46.8  0.0471   18.1  0.3425 -140.3
 5.500  0.6408  166.5   5.762   45.6  0.0472   18.1  0.3416 -141.4
 5.600  0.6405  165.3   5.667   44.5  0.0474   18.0  0.3399 -142.7
 5.700  0.6405  164.1   5.575   43.4  0.0476   18.0  0.3383 -144.0
 5.800  0.6407  163.0   5.484   42.2  0.0477   17.9  0.3370 -145.3
 5.900  0.6412  161.8   5.396   41.0  0.0479   17.9  0.3358 -146.7
 6.000  0.6420  160.6   5.311   39.7  0.0481   17.8  0.3348 -148.0
 6.100  0.6419  159.3   5.222   38.5  0.0482   17.8  0.3332 -149.5
 6.200  0.6420  158.0   5.136   37.3  0.0483   17.8  0.3318 -151.0
 6.300  0.6425  156.8   5.052   36.1  0.0485   17.7  0.3307 -152.5
 6.400  0.6434  155.5   4.970   34.8  0.0486   17.7  0.3298 -154.0
 6.500  0.6445  154.2   4.891   33.5  0.0487   17.7  0.3291 -155.5
 6.600  0.6451  153.0   4.808   32.4  0.0487   18.0  0.3262 -156.8
 6.800  0.6470  150.7   4.646   30.1  0.0488   18.5  0.3208 -159.5
 7.000  0.6500  148.4   4.493   27.6  0.0489   19.0  0.3161 -162.2
 7.200  0.6531  146.4   4.348   25.5  0.0497   20.0  0.3092 -165.1
 7.400  0.6570  144.4   4.209   23.3  0.0505   20.9  0.3030 -168.1
 7.600  0.6636  142.4   4.082   21.0  0.0517   21.5  0.2999 -171.8
 7.800  0.6728  140.5   3.967   18.6  0.0534   21.6  0.3003 -176.2
 8.000  0.6828  138.7   3.859   16.1  0.0550   21.7  0.3025  179.5
 8.200  0.6892  136.8   3.729   13.7  0.0563   20.8  0.3091  174.3
 8.400  0.6963  135.0   3.606   11.1  0.0576   19.9  0.3182  169.4
 8.600  0.7009  133.3   3.482    8.6  0.0585   19.1  0.3276  164.3
 8.800  0.7028  131.8   3.356    6.3  0.0590   18.2  0.3376  159.3
 9.000  0.7052  130.2   3.235    3.9  0.0596   17.3  0.3501  154.5
 9.200  0.7093  128.9   3.124    2.4  0.0601   16.7  0.3651  150.0
 9.400  0.7137  127.6   3.015    0.8  0.0606   16.0  0.3822  145.9
 9.600  0.7221  126.1   2.915   -1.2  0.0610   15.5  0.4035  142.2
 9.800  0.7348  124.3   2.827   -3.4  0.0613   15.0  0.4289  139.0
10.000  0.7482  122.6   2.743   -5.7  0.0616   14.6  0.4554  136.1
!
!  f       NFmin   Gammaopt  rn/50
! GHz       dB    MAG  ANG    -
 0.450      0.70  0.10   -3   0.09
 2.400      0.74  0.04   45   0.10
 5.500      0.90  0.24  150   0.08
10.000      1.43  0.37 -126   0.15
!
! (c) 2016  Infineon Technologies AG, Munich
