! Infineon Technologies  Discrete & RF Semiconductors
! BFP740FESD
! VCE =  4.0 V,  IC =  15 mA
! Common Emitter S-Parameters:                            Jan 2016
# GHz  S  MA  R  50
!  f         S11            S21            S12            S22
! GHz     MAG   ANG      MAG   ANG      MAG   ANG      MAG   ANG
 0.010  0.8031    0.0  37.544  179.1  0.0009   26.9  0.9576    2.2
 0.015  0.8038   -1.1  37.399  178.5  0.0010   38.7  0.9663    0.6
 0.020  0.8047   -2.2  37.259  177.8  0.0012   47.5  0.9757   -1.0
 0.025  0.8049   -2.7  37.208  177.5  0.0014   53.8  0.9761   -1.4
 0.030  0.8051   -3.3  37.158  177.1  0.0016   58.6  0.9766   -1.7
 0.035  0.8054   -3.8  37.109  176.8  0.0018   62.2  0.9770   -2.1
 0.040  0.8058   -4.3  37.062  176.4  0.0020   65.0  0.9776   -2.4
 0.045  0.8062   -4.9  37.016  176.1  0.0023   67.3  0.9781   -2.8
 0.050  0.8067   -5.4  36.972  175.7  0.0025   69.2  0.9787   -3.1
 0.055  0.8056   -6.0  36.963  175.4  0.0027   70.2  0.9783   -3.5
 0.060  0.8045   -6.5  36.956  175.0  0.0029   71.2  0.9779   -3.8
 0.065  0.8035   -7.1  36.949  174.7  0.0031   71.9  0.9775   -4.2
 0.070  0.8026   -7.7  36.944  174.4  0.0033   72.6  0.9772   -4.6
 0.075  0.8018   -8.2  36.940  174.1  0.0035   73.3  0.9769   -4.9
 0.080  0.8010   -8.8  36.937  173.7  0.0037   73.8  0.9767   -5.3
 0.085  0.8003   -9.4  36.936  173.4  0.0039   74.3  0.9765   -5.7
 0.090  0.7997  -10.0  36.936  173.1  0.0041   74.7  0.9764   -6.1
 0.095  0.7992  -10.5  36.937  172.7  0.0043   75.1  0.9763   -6.4
 0.100  0.7988  -11.1  36.939  172.4  0.0045   75.5  0.9762   -6.8
 0.105  0.7981  -11.7  36.900  172.0  0.0047   75.5  0.9753   -7.1
 0.110  0.7975  -12.2  36.863  171.6  0.0049   75.4  0.9744   -7.5
 0.115  0.7970  -12.8  36.827  171.3  0.0052   75.4  0.9735   -7.8
 0.120  0.7965  -13.3  36.793  170.9  0.0054   75.4  0.9727   -8.2
 0.125  0.7961  -13.9  36.761  170.5  0.0056   75.4  0.9719   -8.5
 0.130  0.7958  -14.5  36.730  170.1  0.0058   75.4  0.9712   -8.9
 0.135  0.7956  -15.0  36.701  169.7  0.0060   75.3  0.9705   -9.2
 0.140  0.7954  -15.6  36.673  169.4  0.0063   75.3  0.9698   -9.6
 0.145  0.7953  -16.1  36.647  169.0  0.0065   75.3  0.9692   -9.9
 0.150  0.7953  -16.7  36.623  168.6  0.0067   75.3  0.9686  -10.3
 0.155  0.7946  -17.2  36.573  168.2  0.0069   75.2  0.9674  -10.6
 0.160  0.7940  -17.8  36.525  167.9  0.0071   75.0  0.9662  -11.0
 0.165  0.7934  -18.3  36.478  167.5  0.0073   74.9  0.9650  -11.3
 0.170  0.7929  -18.8  36.433  167.2  0.0075   74.8  0.9639  -11.7
 0.175  0.7925  -19.3  36.389  166.8  0.0077   74.7  0.9628  -12.0
 0.180  0.7921  -19.9  36.346  166.5  0.0080   74.6  0.9618  -12.3
 0.185  0.7919  -20.4  36.305  166.1  0.0082   74.5  0.9608  -12.7
 0.190  0.7916  -20.9  36.265  165.7  0.0084   74.4  0.9598  -13.0
 0.195  0.7915  -21.5  36.227  165.4  0.0086   74.3  0.9588  -13.4
 0.200  0.7914  -22.0  36.190  165.0  0.0088   74.2  0.9579  -13.7
 0.220  0.7869  -24.1  35.883  163.5  0.0096   73.5  0.9524  -15.0
 0.240  0.7835  -26.2  35.601  162.0  0.0105   72.9  0.9474  -16.3
 0.260  0.7802  -28.3  35.350  160.5  0.0113   72.1  0.9418  -17.6
 0.280  0.7769  -30.4  35.125  159.2  0.0121   71.3  0.9357  -18.8
 0.300  0.7746  -32.5  34.918  157.9  0.0129   70.5  0.9299  -20.1
 0.320  0.7707  -34.5  34.618  156.6  0.0136   69.7  0.9231  -21.3
 0.340  0.7678  -36.5  34.336  155.4  0.0143   68.9  0.9166  -22.6
 0.360  0.7647  -38.5  34.035  154.1  0.0151   68.1  0.9098  -23.8
 0.380  0.7612  -40.4  33.715  152.9  0.0158   67.2  0.9025  -24.9
 0.400  0.7587  -42.4  33.411  151.6  0.0166   66.4  0.8956  -26.1
 0.420  0.7547  -44.3  33.085  150.4  0.0173   65.5  0.8882  -27.2
 0.440  0.7514  -46.2  32.773  149.2  0.0180   64.7  0.8812  -28.4
 0.450  0.7501  -47.1  32.622  148.6  0.0183   64.3  0.8778  -29.0
 0.460  0.7478  -48.0  32.458  148.0  0.0186   63.9  0.8738  -29.5
 0.480  0.7439  -49.9  32.141  146.9  0.0193   63.1  0.8661  -30.6
 0.500  0.7407  -51.8  31.837  145.7  0.0199   62.3  0.8587  -31.7
 0.520  0.7362  -53.5  31.493  144.6  0.0205   61.4  0.8503  -32.7
 0.540  0.7323  -55.2  31.159  143.6  0.0211   60.6  0.8422  -33.7
 0.560  0.7291  -57.0  30.837  142.5  0.0217   59.8  0.8344  -34.8
 0.580  0.7265  -58.7  30.527  141.3  0.0223   59.1  0.8269  -35.8
 0.600  0.7247  -60.5  30.228  140.2  0.0229   58.4  0.8196  -36.9
 0.620  0.7205  -62.1  29.906  139.3  0.0234   57.6  0.8116  -37.8
 0.640  0.7169  -63.8  29.592  138.4  0.0240   56.9  0.8039  -38.8
 0.660  0.7138  -65.4  29.285  137.4  0.0245   56.2  0.7964  -39.7
 0.680  0.7114  -67.1  28.986  136.5  0.0251   55.5  0.7891  -40.7
 0.700  0.7096  -68.8  28.696  135.5  0.0256   54.9  0.7820  -41.7
 0.720  0.7062  -70.3  28.372  134.6  0.0261   54.2  0.7742  -42.6
 0.740  0.7033  -71.8  28.055  133.8  0.0265   53.5  0.7666  -43.4
 0.760  0.7008  -73.3  27.744  132.9  0.0270   52.9  0.7591  -44.3
 0.780  0.6989  -74.8  27.440  131.9  0.0274   52.2  0.7519  -45.3
 0.800  0.6974  -76.3  27.144  131.0  0.0279   51.6  0.7448  -46.2
 0.820  0.6941  -77.7  26.857  130.2  0.0283   50.9  0.7374  -47.0
 0.840  0.6912  -79.1  26.575  129.4  0.0287   50.3  0.7302  -47.9
 0.860  0.6887  -80.6  26.298  128.5  0.0291   49.7  0.7231  -48.7
 0.880  0.6867  -82.0  26.028  127.7  0.0295   49.1  0.7161  -49.6
 0.900  0.6851  -83.5  25.763  126.8  0.0299   48.5  0.7094  -50.5
 0.920  0.6824  -84.8  25.487  126.1  0.0303   47.9  0.7022  -51.3
 0.940  0.6801  -86.2  25.215  125.3  0.0306   47.4  0.6951  -52.1
 0.960  0.6782  -87.5  24.947  124.6  0.0310   46.8  0.6881  -52.9
 0.980  0.6766  -88.8  24.684  123.8  0.0313   46.3  0.6813  -53.7
 1.000  0.6754  -90.2  24.425  123.0  0.0317   45.8  0.6746  -54.6
 1.020  0.6731  -91.4  24.170  122.3  0.0320   45.3  0.6681  -55.3
 1.040  0.6712  -92.7  23.918  121.6  0.0323   44.7  0.6617  -56.0
 1.060  0.6696  -94.0  23.670  120.9  0.0327   44.2  0.6554  -56.8
 1.080  0.6683  -95.2  23.426  120.2  0.0330   43.7  0.6492  -57.5
 1.100  0.6673  -96.5  23.186  119.4  0.0333   43.2  0.6431  -58.3
 1.120  0.6652  -97.6  22.944  118.7  0.0336   42.7  0.6369  -59.0
 1.140  0.6634  -98.8  22.706  118.0  0.0338   42.2  0.6307  -59.7
 1.160  0.6618  -99.9  22.470  117.3  0.0341   41.7  0.6247  -60.5
 1.180  0.6605 -101.1  22.238  116.6  0.0343   41.3  0.6188  -61.2
 1.200  0.6595 -102.2  22.010  115.9  0.0346   40.8  0.6130  -62.0
 1.220  0.6579 -103.3  21.786  115.3  0.0348   40.4  0.6074  -62.7
 1.240  0.6565 -104.3  21.565  114.7  0.0351   39.9  0.6018  -63.3
 1.260  0.6554 -105.4  21.345  114.1  0.0353   39.5  0.5963  -64.0
 1.280  0.6545 -106.5  21.129  113.4  0.0356   39.1  0.5909  -64.7
 1.300  0.6538 -107.6  20.915  112.8  0.0358   38.7  0.5856  -65.4
 1.320  0.6521 -108.6  20.700  112.2  0.0360   38.3  0.5801  -66.1
 1.340  0.6506 -109.6  20.488  111.6  0.0362   37.9  0.5748  -66.7
 1.360  0.6493 -110.6  20.277  111.0  0.0363   37.5  0.5695  -67.4
 1.380  0.6483 -111.7  20.069  110.4  0.0365   37.2  0.5642  -68.1
 1.400  0.6474 -112.7  19.863  109.8  0.0367   36.8  0.5591  -68.8
 1.420  0.6464 -113.5  19.677  109.3  0.0369   36.5  0.5545  -69.4
 1.440  0.6455 -114.4  19.492  108.8  0.0371   36.1  0.5500  -70.0
 1.460  0.6447 -115.2  19.309  108.3  0.0373   35.8  0.5455  -70.6
 1.480  0.6441 -116.1  19.128  107.7  0.0375   35.4  0.5411  -71.2
 1.500  0.6436 -116.9  18.948  107.2  0.0377   35.1  0.5368  -71.8
 1.520  0.6427 -117.8  18.770  106.7  0.0378   34.8  0.5325  -72.4
 1.540  0.6419 -118.7  18.593  106.2  0.0379   34.4  0.5282  -73.0
 1.560  0.6413 -119.6  18.417  105.6  0.0381   34.1  0.5240  -73.6
 1.580  0.6408 -120.5  18.244  105.1  0.0382   33.7  0.5199  -74.2
 1.600  0.6405 -121.4  18.072  104.5  0.0383   33.4  0.5158  -74.8
 1.620  0.6393 -122.2  17.909  104.0  0.0384   33.1  0.5120  -75.3
 1.640  0.6382 -123.0  17.746  103.5  0.0386   32.8  0.5083  -75.9
 1.660  0.6372 -123.7  17.586  103.0  0.0387   32.5  0.5046  -76.5
 1.680  0.6363 -124.5  17.426  102.5  0.0389   32.2  0.5009  -77.0
 1.700  0.6356 -125.3  17.268  102.0  0.0390   31.9  0.4973  -77.6
 1.720  0.6351 -126.0  17.107  101.6  0.0391   31.7  0.4940  -78.1
 1.740  0.6346 -126.7  16.947  101.1  0.0392   31.5  0.4907  -78.6
 1.760  0.6342 -127.4  16.788  100.6  0.0393   31.2  0.4874  -79.1
 1.780  0.6340 -128.1  16.630  100.2  0.0394   31.0  0.4842  -79.7
 1.800  0.6338 -128.8  16.473   99.7  0.0395   30.8  0.4810  -80.2
 1.820  0.6330 -129.5  16.336   99.3  0.0396   30.5  0.4779  -80.7
 1.840  0.6323 -130.2  16.199   98.8  0.0397   30.3  0.4747  -81.3
 1.860  0.6316 -131.0  16.064   98.4  0.0399   30.0  0.4717  -81.9
 1.880  0.6311 -131.7  15.929   98.0  0.0400   29.8  0.4687  -82.4
 1.900  0.6307 -132.4  15.796   97.5  0.0401   29.5  0.4657  -83.0
 1.920  0.6300 -133.0  15.663   97.1  0.0402   29.3  0.4630  -83.4
 1.940  0.6294 -133.6  15.530   96.7  0.0402   29.1  0.4603  -83.9
 1.960  0.6289 -134.1  15.398   96.3  0.0403   28.9  0.4577  -84.3
 1.980  0.6284 -134.7  15.267   95.9  0.0403   28.7  0.4551  -84.7
 2.000  0.6280 -135.3  15.137   95.5  0.0404   28.5  0.4525  -85.2
 2.020  0.6272 -135.9  15.017   95.1  0.0405   28.3  0.4500  -85.7
 2.040  0.6265 -136.5  14.898   94.7  0.0406   28.1  0.4476  -86.2
 2.060  0.6259 -137.1  14.780   94.3  0.0406   27.9  0.4452  -86.6
 2.080  0.6253 -137.7  14.663   93.9  0.0407   27.7  0.4428  -87.1
 2.100  0.6248 -138.3  14.546   93.5  0.0408   27.5  0.4405  -87.6
 2.120  0.6244 -138.9  14.430   93.1  0.0409   27.3  0.4382  -88.1
 2.140  0.6240 -139.6  14.315   92.6  0.0410   27.1  0.4359  -88.6
 2.160  0.6238 -140.2  14.200   92.2  0.0410   26.9  0.4337  -89.2
 2.180  0.6235 -140.8  14.087   91.8  0.0411   26.7  0.4315  -89.7
 2.200  0.6234 -141.4  13.974   91.3  0.0412   26.5  0.4293  -90.2
 2.220  0.6228 -141.9  13.870   91.0  0.0413   26.3  0.4273  -90.6
 2.240  0.6223 -142.5  13.766   90.6  0.0413   26.2  0.4253  -91.1
 2.260  0.6218 -143.0  13.663   90.2  0.0414   26.0  0.4233  -91.5
 2.280  0.6213 -143.5  13.561   89.9  0.0414   25.9  0.4214  -92.0
 2.300  0.6209 -144.0  13.458   89.5  0.0415   25.7  0.4195  -92.4
 2.320  0.6206 -144.6  13.357   89.1  0.0416   25.5  0.4176  -92.9
 2.340  0.6203 -145.1  13.256   88.8  0.0416   25.4  0.4157  -93.4
 2.360  0.6201 -145.6  13.156   88.4  0.0417   25.2  0.4139  -93.8
 2.380  0.6199 -146.2  13.056   88.0  0.0417   25.1  0.4121  -94.3
 2.400  0.6198 -146.7  12.957   87.6  0.0418   24.9  0.4103  -94.8
 2.420  0.6194 -147.2  12.864   87.3  0.0418   24.7  0.4087  -95.2
 2.440  0.6190 -147.7  12.772   86.9  0.0419   24.6  0.4071  -95.7
 2.460  0.6186 -148.3  12.681   86.6  0.0419   24.4  0.4056  -96.1
 2.480  0.6183 -148.8  12.589   86.3  0.0419   24.3  0.4040  -96.6
 2.500  0.6181 -149.3  12.499   85.9  0.0419   24.1  0.4025  -97.0
 2.520  0.6179 -149.8  12.408   85.6  0.0420   24.0  0.4011  -97.5
 2.540  0.6178 -150.3  12.319   85.2  0.0420   23.8  0.3996  -97.9
 2.560  0.6177 -150.9  12.229   84.8  0.0420   23.7  0.3982  -98.4
 2.580  0.6177 -151.4  12.140   84.5  0.0421   23.5  0.3968  -98.8
 2.600  0.6177 -151.9  12.052   84.1  0.0421   23.4  0.3954  -99.3
 2.620  0.6173 -152.3  11.969   83.8  0.0421   23.3  0.3942  -99.7
 2.640  0.6170 -152.7  11.886   83.5  0.0422   23.2  0.3930 -100.1
 2.660  0.6166 -153.2  11.804   83.2  0.0422   23.1  0.3919 -100.5
 2.680  0.6163 -153.6  11.722   82.9  0.0422   23.0  0.3907 -100.9
 2.700  0.6161 -154.0  11.640   82.6  0.0422   22.9  0.3896 -101.3
 2.720  0.6159 -154.4  11.559   82.2  0.0423   22.8  0.3885 -101.7
 2.740  0.6157 -154.8  11.478   81.9  0.0423   22.7  0.3874 -102.1
 2.760  0.6155 -155.3  11.398   81.6  0.0423   22.6  0.3864 -102.6
 2.780  0.6154 -155.7  11.318   81.2  0.0424   22.5  0.3853 -103.0
 2.800  0.6153 -156.1  11.238   80.9  0.0424   22.4  0.3843 -103.4
 2.820  0.6153 -156.5  11.166   80.6  0.0424   22.3  0.3835 -103.7
 2.840  0.6153 -156.9  11.095   80.3  0.0424   22.2  0.3827 -104.1
 2.860  0.6153 -157.3  11.024   80.0  0.0425   22.1  0.3819 -104.4
 2.880  0.6154 -157.7  10.953   79.7  0.0425   22.0  0.3811 -104.7
 2.900  0.6155 -158.1  10.882   79.4  0.0425   21.9  0.3804 -105.1
 2.920  0.6156 -158.5  10.812   79.1  0.0425   21.9  0.3796 -105.4
 2.940  0.6158 -158.9  10.742   78.8  0.0425   21.8  0.3789 -105.8
 2.960  0.6159 -159.3  10.672   78.5  0.0426   21.7  0.3782 -106.1
 2.980  0.6162 -159.7  10.603   78.2  0.0426   21.6  0.3775 -106.5
 3.000  0.6164 -160.1  10.534   77.9  0.0426   21.5  0.3768 -106.8
 3.100  0.6155 -161.7  10.240   76.7  0.0427   21.2  0.3742 -108.1
 3.200  0.6150 -163.4   9.951   75.4  0.0428   21.0  0.3717 -109.4
 3.300  0.6151 -165.0   9.668   74.1  0.0430   20.7  0.3695 -110.8
 3.400  0.6157 -166.7   9.390   72.6  0.0431   20.5  0.3674 -112.1
 3.500  0.6168 -168.3   9.118   71.1  0.0432   20.2  0.3656 -113.5
 3.600  0.6172 -169.7   8.902   69.9  0.0434   20.1  0.3638 -114.5
 3.700  0.6180 -171.1   8.689   68.7  0.0435   20.0  0.3620 -115.5
 3.800  0.6191 -172.5   8.481   67.4  0.0437   19.9  0.3604 -116.5
 3.900  0.6206 -173.8   8.278   66.0  0.0438   19.8  0.3589 -117.6
 4.000  0.6224 -175.2   8.079   64.6  0.0440   19.7  0.3575 -118.6
 4.100  0.6236 -176.5   7.900   63.4  0.0442   19.6  0.3558 -119.9
 4.200  0.6252 -177.9   7.725   62.2  0.0443   19.5  0.3543 -121.1
 4.300  0.6270 -179.2   7.553   60.9  0.0445   19.3  0.3529 -122.4
 4.400  0.6293  179.5   7.385   59.5  0.0446   19.2  0.3517 -123.7
 4.500  0.6318  178.2   7.222   58.1  0.0448   19.1  0.3507 -125.0
 4.600  0.6327  177.1   7.066   57.0  0.0449   19.0  0.3493 -126.1
 4.700  0.6339  175.9   6.914   55.8  0.0451   18.9  0.3481 -127.3
 4.800  0.6353  174.8   6.764   54.6  0.0452   18.9  0.3470 -128.5
 4.900  0.6369  173.7   6.617   53.3  0.0454   18.8  0.3461 -129.6
 5.000  0.6388  172.6   6.474   52.0  0.0455   18.7  0.3453 -130.8
 5.100  0.6383  171.5   6.350   50.9  0.0456   18.7  0.3439 -131.8
 5.200  0.6380  170.5   6.228   49.8  0.0457   18.7  0.3427 -132.9
 5.300  0.6379  169.4   6.108   48.7  0.0459   18.7  0.3415 -133.9
 5.400  0.6380  168.4   5.991   47.5  0.0460   18.7  0.3405 -134.9
 5.500  0.6384  167.3   5.877   46.2  0.0461   18.7  0.3396 -136.0
 5.600  0.6381  166.1   5.781   45.1  0.0463   18.6  0.3378 -137.3
 5.700  0.6382  164.9   5.687   44.0  0.0465   18.6  0.3361 -138.6
 5.800  0.6385  163.6   5.596   42.8  0.0466   18.5  0.3346 -139.9
 5.900  0.6391  162.4   5.506   41.6  0.0468   18.5  0.3333 -141.2
 6.000  0.6400  161.2   5.420   40.3  0.0470   18.4  0.3321 -142.5
 6.100  0.6398  159.9   5.330   39.1  0.0471   18.4  0.3303 -144.0
 6.200  0.6399  158.6   5.242   37.9  0.0472   18.4  0.3288 -145.4
 6.300  0.6404  157.4   5.157   36.7  0.0473   18.5  0.3274 -146.9
 6.400  0.6411  156.1   5.074   35.4  0.0474   18.5  0.3263 -148.4
 6.500  0.6422  154.8   4.994   34.1  0.0475   18.5  0.3254 -149.9
 6.600  0.6428  153.6   4.910   33.0  0.0476   18.8  0.3224 -151.1
 6.800  0.6449  151.2   4.747   30.7  0.0477   19.3  0.3168 -153.7
 7.000  0.6480  148.9   4.592   28.2  0.0478   19.9  0.3118 -156.3
 7.200  0.6506  146.9   4.445   26.1  0.0485   21.0  0.3045 -159.0
 7.400  0.6540  145.0   4.303   24.0  0.0493   22.0  0.2978 -161.8
 7.600  0.6604  143.0   4.174   21.6  0.0505   22.6  0.2939 -165.5
 7.800  0.6699  141.1   4.058   19.2  0.0522   22.8  0.2933 -169.9
 8.000  0.6801  139.2   3.950   16.7  0.0539   23.0  0.2945 -174.3
 8.200  0.6863  137.3   3.819   14.3  0.0552   22.1  0.2999 -179.7
 8.400  0.6932  135.5   3.696   11.7  0.0565   21.3  0.3078  175.2
 8.600  0.6978  133.8   3.571    9.2  0.0575   20.5  0.3162  169.9
 8.800  0.7001  132.3   3.444    6.9  0.0581   19.6  0.3253  164.5
 9.000  0.7029  130.7   3.323    4.5  0.0588   18.7  0.3371  159.5
 9.200  0.7070  129.4   3.211    2.9  0.0593   18.1  0.3515  154.7
 9.400  0.7114  128.1   3.102    1.3  0.0598   17.4  0.3681  150.3
 9.600  0.7201  126.6   3.002   -0.7  0.0602   16.9  0.3891  146.3
 9.800  0.7332  124.8   2.912   -2.9  0.0605   16.4  0.4142  142.7
10.000  0.7470  123.1   2.827   -5.3  0.0609   15.9  0.4407  139.6
!
!  f       NFmin   Gammaopt  rn/50
! GHz       dB    MAG  ANG    -
 0.450      0.70  0.10   -3   0.09
 2.400      0.74  0.04   45   0.10
 5.500      0.90  0.24  150   0.08
10.000      1.43  0.37 -126   0.15
!
! (c) 2016  Infineon Technologies AG, Munich
