! Infineon Technologies  Discrete & RF Semiconductors
! BFP740ESD
! VCE =  2.0 V,  IC =  8.0 mA
! Common Emitter S-Parameters:                            Jan 2016
# GHz  S  MA  R  50
!  f         S11            S21            S12            S22
! GHz     MAG   ANG      MAG   ANG      MAG   ANG      MAG   ANG
 0.010  0.9099   -1.1  23.543  180.0  0.0004  121.1  0.9871    1.3
 0.015  0.9124   -1.4  23.361  179.4  0.0006  101.6  0.9916    0.1
 0.020  0.9149   -1.7  23.182  178.7  0.0009   93.1  0.9965   -1.1
 0.025  0.9145   -2.1  23.183  178.3  0.0012   91.2  0.9966   -1.4
 0.030  0.9142   -2.5  23.186  178.0  0.0014   90.1  0.9966   -1.6
 0.035  0.9139   -2.8  23.189  177.6  0.0017   89.3  0.9968   -1.9
 0.040  0.9137   -3.2  23.194  177.2  0.0020   88.7  0.9969   -2.2
 0.045  0.9135   -3.6  23.199  176.9  0.0022   88.2  0.9970   -2.4
 0.050  0.9133   -4.0  23.205  176.5  0.0025   87.9  0.9972   -2.7
 0.055  0.9130   -4.4  23.206  176.2  0.0028   87.3  0.9968   -3.0
 0.060  0.9128   -4.8  23.208  175.9  0.0030   86.8  0.9965   -3.3
 0.065  0.9126   -5.3  23.210  175.6  0.0033   86.4  0.9962   -3.5
 0.070  0.9124   -5.7  23.214  175.3  0.0035   86.1  0.9959   -3.8
 0.075  0.9123   -6.1  23.218  174.9  0.0038   85.8  0.9957   -4.1
 0.080  0.9123   -6.5  23.222  174.6  0.0041   85.5  0.9954   -4.4
 0.085  0.9123   -6.9  23.227  174.3  0.0043   85.3  0.9952   -4.7
 0.090  0.9123   -7.4  23.233  174.0  0.0046   85.0  0.9950   -4.9
 0.095  0.9124   -7.8  23.240  173.7  0.0048   84.9  0.9948   -5.2
 0.100  0.9126   -8.2  23.247  173.4  0.0051   84.7  0.9947   -5.5
 0.105  0.9119   -8.6  23.228  173.1  0.0053   84.4  0.9941   -5.8
 0.110  0.9112   -9.0  23.210  172.7  0.0056   84.2  0.9935   -6.1
 0.115  0.9105   -9.3  23.193  172.4  0.0058   84.0  0.9929   -6.3
 0.120  0.9099   -9.7  23.177  172.0  0.0061   83.8  0.9924   -6.6
 0.125  0.9093  -10.1  23.161  171.7  0.0063   83.6  0.9919   -6.9
 0.130  0.9088  -10.5  23.147  171.4  0.0066   83.4  0.9914   -7.2
 0.135  0.9083  -10.9  23.133  171.0  0.0068   83.2  0.9909   -7.5
 0.140  0.9078  -11.2  23.120  170.7  0.0071   83.1  0.9904   -7.7
 0.145  0.9074  -11.6  23.107  170.3  0.0073   82.9  0.9900   -8.0
 0.150  0.9070  -12.0  23.096  170.0  0.0076   82.8  0.9896   -8.3
 0.155  0.9063  -12.4  23.072  169.7  0.0078   82.5  0.9888   -8.6
 0.160  0.9056  -12.8  23.048  169.4  0.0081   82.1  0.9881   -8.8
 0.165  0.9049  -13.2  23.025  169.1  0.0083   81.8  0.9874   -9.1
 0.170  0.9043  -13.6  23.002  168.8  0.0086   81.5  0.9867   -9.3
 0.175  0.9037  -14.0  22.981  168.5  0.0088   81.3  0.9860   -9.6
 0.180  0.9032  -14.4  22.960  168.1  0.0091   81.0  0.9854   -9.9
 0.185  0.9028  -14.8  22.939  167.8  0.0093   80.8  0.9848  -10.1
 0.190  0.9023  -15.2  22.919  167.5  0.0096   80.5  0.9842  -10.4
 0.195  0.9019  -15.6  22.900  167.2  0.0098   80.3  0.9836  -10.6
 0.200  0.9016  -16.0  22.882  166.9  0.0101   80.1  0.9830  -10.9
 0.220  0.8982  -17.5  22.732  165.6  0.0111   79.2  0.9795  -11.9
 0.240  0.8955  -19.0  22.594  164.3  0.0120   78.4  0.9763  -13.0
 0.260  0.8924  -20.6  22.478  163.0  0.0130   77.5  0.9728  -14.0
 0.280  0.8890  -22.1  22.382  161.9  0.0139   76.6  0.9689  -15.1
 0.300  0.8862  -23.6  22.296  160.7  0.0149   75.7  0.9654  -16.1
 0.320  0.8822  -25.1  22.161  159.6  0.0158   74.7  0.9610  -17.1
 0.340  0.8788  -26.6  22.034  158.5  0.0167   73.9  0.9570  -18.2
 0.360  0.8754  -28.0  21.900  157.3  0.0177   73.0  0.9527  -19.2
 0.380  0.8722  -29.5  21.758  156.2  0.0186   72.2  0.9481  -20.1
 0.400  0.8695  -31.0  21.625  155.1  0.0195   71.4  0.9437  -21.1
 0.420  0.8651  -32.4  21.481  154.0  0.0204   70.5  0.9389  -22.1
 0.440  0.8612  -33.9  21.345  152.9  0.0213   69.7  0.9343  -23.0
 0.450  0.8595  -34.6  21.280  152.4  0.0217   69.3  0.9321  -23.5
 0.460  0.8573  -35.3  21.209  151.9  0.0221   68.9  0.9294  -24.0
 0.480  0.8534  -36.8  21.071  150.9  0.0230   68.1  0.9243  -24.9
 0.500  0.8500  -38.2  20.940  149.8  0.0238   67.3  0.9194  -25.9
 0.520  0.8452  -39.6  20.786  148.8  0.0246   66.4  0.9137  -26.8
 0.540  0.8409  -41.0  20.638  147.8  0.0254   65.5  0.9081  -27.7
 0.560  0.8370  -42.4  20.497  146.7  0.0262   64.7  0.9028  -28.6
 0.580  0.8337  -43.8  20.362  145.7  0.0270   63.9  0.8977  -29.5
 0.600  0.8309  -45.2  20.235  144.6  0.0278   63.2  0.8929  -30.4
 0.620  0.8259  -46.5  20.091  143.7  0.0285   62.4  0.8871  -31.3
 0.640  0.8213  -47.9  19.952  142.8  0.0293   61.6  0.8816  -32.2
 0.660  0.8172  -49.2  19.819  141.9  0.0300   60.8  0.8762  -33.1
 0.680  0.8136  -50.6  19.690  140.9  0.0307   60.1  0.8711  -34.0
 0.700  0.8104  -52.0  19.567  140.0  0.0315   59.4  0.8662  -34.9
 0.720  0.8056  -53.3  19.409  139.1  0.0321   58.6  0.8602  -35.7
 0.740  0.8012  -54.5  19.257  138.2  0.0328   57.9  0.8544  -36.5
 0.760  0.7973  -55.8  19.109  137.3  0.0335   57.2  0.8488  -37.3
 0.780  0.7937  -57.1  18.966  136.3  0.0341   56.5  0.8433  -38.2
 0.800  0.7905  -58.4  18.828  135.4  0.0348   55.9  0.8380  -39.0
 0.820  0.7859  -59.7  18.690  134.5  0.0354   55.2  0.8322  -39.8
 0.840  0.7817  -61.0  18.557  133.7  0.0360   54.4  0.8265  -40.6
 0.860  0.7779  -62.3  18.427  132.8  0.0366   53.7  0.8210  -41.4
 0.880  0.7745  -63.7  18.302  131.9  0.0373   53.1  0.8157  -42.3
 0.900  0.7715  -65.0  18.182  131.0  0.0379   52.4  0.8105  -43.1
 0.920  0.7669  -66.2  18.041  130.2  0.0384   51.7  0.8044  -43.9
 0.940  0.7627  -67.4  17.903  129.4  0.0390   51.1  0.7984  -44.7
 0.960  0.7588  -68.7  17.768  128.6  0.0395   50.4  0.7926  -45.5
 0.980  0.7553  -69.9  17.638  127.7  0.0401   49.8  0.7869  -46.3
 1.000  0.7521  -71.2  17.511  126.9  0.0406   49.2  0.7814  -47.1
 1.020  0.7479  -72.4  17.374  126.1  0.0411   48.6  0.7757  -47.8
 1.040  0.7439  -73.6  17.240  125.3  0.0416   48.0  0.7701  -48.5
 1.060  0.7403  -74.8  17.110  124.5  0.0421   47.4  0.7646  -49.3
 1.080  0.7370  -76.0  16.983  123.7  0.0426   46.8  0.7593  -50.0
 1.100  0.7341  -77.2  16.859  122.9  0.0431   46.2  0.7541  -50.8
 1.120  0.7300  -78.4  16.730  122.1  0.0435   45.6  0.7485  -51.5
 1.140  0.7263  -79.5  16.604  121.4  0.0440   45.0  0.7429  -52.2
 1.160  0.7229  -80.7  16.481  120.6  0.0444   44.4  0.7375  -53.0
 1.180  0.7197  -81.9  16.361  119.8  0.0449   43.9  0.7323  -53.7
 1.200  0.7169  -83.1  16.244  119.0  0.0453   43.3  0.7271  -54.5
 1.220  0.7132  -84.2  16.118  118.3  0.0457   42.7  0.7217  -55.2
 1.240  0.7098  -85.3  15.994  117.6  0.0461   42.2  0.7163  -55.8
 1.260  0.7066  -86.5  15.874  116.8  0.0465   41.6  0.7111  -56.5
 1.280  0.7038  -87.6  15.755  116.1  0.0469   41.0  0.7059  -57.2
 1.300  0.7012  -88.8  15.640  115.3  0.0473   40.5  0.7009  -57.9
 1.320  0.6974  -89.9  15.511  114.6  0.0476   40.0  0.6955  -58.6
 1.340  0.6939  -91.0  15.385  113.9  0.0479   39.5  0.6903  -59.2
 1.360  0.6906  -92.1  15.261  113.2  0.0482   39.0  0.6851  -59.9
 1.380  0.6876  -93.2  15.140  112.4  0.0486   38.5  0.6800  -60.6
 1.400  0.6848  -94.3  15.021  111.7  0.0489   38.0  0.6750  -61.3
 1.420  0.6818  -95.3  14.910  111.1  0.0492   37.5  0.6701  -61.9
 1.440  0.6789  -96.3  14.801  110.4  0.0495   37.1  0.6652  -62.5
 1.460  0.6763  -97.3  14.694  109.8  0.0499   36.6  0.6605  -63.1
 1.480  0.6739  -98.4  14.589  109.2  0.0502   36.1  0.6558  -63.8
 1.500  0.6717  -99.4  14.486  108.5  0.0505   35.7  0.6512  -64.4
 1.520  0.6688 -100.4  14.376  107.8  0.0507   35.2  0.6465  -65.0
 1.540  0.6661 -101.4  14.268  107.2  0.0510   34.7  0.6419  -65.6
 1.560  0.6636 -102.4  14.161  106.5  0.0512   34.2  0.6374  -66.2
 1.580  0.6613 -103.5  14.057  105.8  0.0515   33.8  0.6329  -66.9
 1.600  0.6592 -104.5  13.955  105.1  0.0517   33.3  0.6285  -67.5
 1.620  0.6564 -105.4  13.852  104.5  0.0519   32.9  0.6241  -68.1
 1.640  0.6538 -106.4  13.751  103.9  0.0522   32.5  0.6198  -68.6
 1.660  0.6513 -107.4  13.652  103.3  0.0524   32.1  0.6155  -69.2
 1.680  0.6491 -108.3  13.554  102.6  0.0527   31.7  0.6113  -69.8
 1.700  0.6470 -109.3  13.458  102.0  0.0529   31.3  0.6071  -70.4
 1.720  0.6447 -110.2  13.354  101.4  0.0531   30.9  0.6030  -70.9
 1.740  0.6426 -111.2  13.251  100.8  0.0533   30.5  0.5990  -71.5
 1.760  0.6406 -112.1  13.150  100.2  0.0535   30.2  0.5950  -72.1
 1.780  0.6388 -113.0  13.050   99.6  0.0537   29.8  0.5911  -72.6
 1.800  0.6372 -114.0  12.952   99.0  0.0539   29.4  0.5872  -73.2
 1.820  0.6349 -114.9  12.863   98.4  0.0541   29.0  0.5831  -73.8
 1.840  0.6328 -115.9  12.775   97.9  0.0543   28.6  0.5790  -74.4
 1.860  0.6308 -116.9  12.689   97.3  0.0545   28.3  0.5749  -75.0
 1.880  0.6291 -117.8  12.604   96.7  0.0547   27.9  0.5710  -75.6
 1.900  0.6275 -118.8  12.520   96.1  0.0549   27.5  0.5671  -76.2
 1.920  0.6254 -119.6  12.431   95.6  0.0551   27.2  0.5634  -76.7
 1.940  0.6233 -120.5  12.343   95.0  0.0552   26.8  0.5597  -77.1
 1.960  0.6215 -121.3  12.257   94.4  0.0554   26.5  0.5560  -77.6
 1.980  0.6197 -122.2  12.171   93.9  0.0555   26.1  0.5524  -78.1
 2.000  0.6181 -123.0  12.087   93.3  0.0557   25.8  0.5488  -78.6
 2.020  0.6159 -123.9  12.004   92.8  0.0558   25.5  0.5450  -79.1
 2.040  0.6139 -124.7  11.922   92.2  0.0559   25.1  0.5412  -79.7
 2.060  0.6120 -125.6  11.841   91.7  0.0561   24.8  0.5375  -80.2
 2.080  0.6103 -126.5  11.761   91.1  0.0562   24.5  0.5338  -80.7
 2.100  0.6087 -127.3  11.682   90.6  0.0563   24.1  0.5302  -81.3
 2.120  0.6072 -128.2  11.604   90.0  0.0565   23.8  0.5266  -81.9
 2.140  0.6059 -129.1  11.527   89.5  0.0566   23.5  0.5231  -82.4
 2.160  0.6047 -130.0  11.451   88.9  0.0567   23.1  0.5197  -83.0
 2.180  0.6037 -130.9  11.377   88.3  0.0569   22.8  0.5163  -83.6
 2.200  0.6028 -131.8  11.304   87.7  0.0570   22.5  0.5129  -84.2
 2.220  0.6010 -132.6  11.229   87.2  0.0571   22.2  0.5094  -84.7
 2.240  0.5993 -133.4  11.154   86.7  0.0572   21.9  0.5059  -85.2
 2.260  0.5978 -134.3  11.080   86.2  0.0573   21.6  0.5024  -85.8
 2.280  0.5964 -135.1  11.007   85.7  0.0574   21.2  0.4990  -86.3
 2.300  0.5951 -135.9  10.935   85.2  0.0575   20.9  0.4957  -86.9
 2.320  0.5939 -136.7  10.864   84.7  0.0576   20.6  0.4924  -87.4
 2.340  0.5929 -137.6  10.794   84.1  0.0578   20.3  0.4891  -88.0
 2.360  0.5920 -138.4  10.725   83.6  0.0579   20.0  0.4859  -88.5
 2.380  0.5912 -139.3  10.656   83.1  0.0580   19.7  0.4827  -89.1
 2.400  0.5905 -140.1  10.589   82.5  0.0581   19.4  0.4796  -89.7
 2.420  0.5892 -140.9  10.520   82.0  0.0581   19.1  0.4764  -90.2
 2.440  0.5880 -141.7  10.452   81.6  0.0582   18.8  0.4732  -90.8
 2.460  0.5870 -142.6  10.385   81.1  0.0582   18.6  0.4701  -91.3
 2.480  0.5860 -143.4  10.319   80.6  0.0583   18.3  0.4670  -91.9
 2.500  0.5852 -144.2  10.253   80.1  0.0583   18.0  0.4639  -92.4
 2.520  0.5845 -145.1  10.188   79.6  0.0584   17.7  0.4609  -93.0
 2.540  0.5840 -145.9  10.124   79.1  0.0584   17.4  0.4579  -93.5
 2.560  0.5835 -146.7  10.061   78.6  0.0585   17.2  0.4550  -94.1
 2.580  0.5832 -147.6   9.999   78.0  0.0585   16.9  0.4521  -94.7
 2.600  0.5830 -148.4   9.937   77.5  0.0586   16.6  0.4493  -95.3
 2.620  0.5819 -149.1   9.874   77.1  0.0586   16.4  0.4465  -95.8
 2.640  0.5809 -149.8   9.812   76.6  0.0587   16.2  0.4438  -96.3
 2.660  0.5800 -150.5   9.750   76.2  0.0587   15.9  0.4411  -96.9
 2.680  0.5792 -151.3   9.688   75.7  0.0587   15.7  0.4385  -97.4
 2.700  0.5785 -152.0   9.628   75.2  0.0587   15.5  0.4359  -97.9
 2.720  0.5779 -152.7   9.568   74.8  0.0588   15.3  0.4333  -98.5
 2.740  0.5773 -153.4   9.509   74.3  0.0588   15.1  0.4308  -99.0
 2.760  0.5769 -154.1   9.450   73.8  0.0588   14.8  0.4283  -99.6
 2.780  0.5766 -154.9   9.392   73.3  0.0589   14.6  0.4258 -100.1
 2.800  0.5763 -155.6   9.335   72.8  0.0589   14.4  0.4234 -100.7
 2.820  0.5756 -156.3   9.280   72.4  0.0589   14.2  0.4211 -101.2
 2.840  0.5750 -157.0   9.225   71.9  0.0590   14.0  0.4189 -101.7
 2.860  0.5745 -157.7   9.170   71.5  0.0590   13.7  0.4167 -102.2
 2.880  0.5741 -158.4   9.116   71.0  0.0590   13.5  0.4145 -102.7
 2.900  0.5737 -159.0   9.063   70.6  0.0590   13.3  0.4123 -103.2
 2.920  0.5734 -159.7   9.011   70.1  0.0591   13.1  0.4102 -103.8
 2.940  0.5733 -160.4   8.958   69.6  0.0591   12.9  0.4081 -104.3
 2.960  0.5732 -161.1   8.907   69.2  0.0591   12.6  0.4061 -104.8
 2.980  0.5731 -161.8   8.856   68.7  0.0592   12.4  0.4041 -105.4
 3.000  0.5732 -162.5   8.806   68.2  0.0592   12.2  0.4021 -105.9
 3.100  0.5698 -165.7   8.557   66.3  0.0592   11.4  0.3924 -108.4
 3.200  0.5681 -168.9   8.318   64.2  0.0592   10.5  0.3836 -111.0
 3.300  0.5683 -172.2   8.090   62.0  0.0592    9.7  0.3755 -113.7
 3.400  0.5703 -175.4   7.875   59.7  0.0593    8.8  0.3683 -116.5
 3.500  0.5741 -178.6   7.673   57.3  0.0593    8.0  0.3620 -119.4
 3.600  0.5730  178.5   7.472   55.4  0.0593    7.3  0.3553 -122.0
 3.700  0.5734  175.6   7.279   53.5  0.0592    6.6  0.3493 -124.8
 3.800  0.5752  172.7   7.096   51.4  0.0592    6.0  0.3442 -127.6
 3.900  0.5785  169.8   6.922   49.2  0.0592    5.3  0.3400 -130.5
 4.000  0.5832  167.0   6.759   46.9  0.0592    4.6  0.3366 -133.5
 4.100  0.5841  164.6   6.579   45.1  0.0590    4.1  0.3332 -136.3
 4.200  0.5861  162.1   6.405   43.2  0.0589    3.5  0.3306 -139.2
 4.300  0.5892  159.7   6.239   41.2  0.0588    3.0  0.3289 -142.1
 4.400  0.5932  157.3   6.081   39.1  0.0586    2.4  0.3280 -145.1
 4.500  0.5983  155.0   5.932   36.9  0.0585    1.9  0.3280 -148.0
 4.600  0.5996  153.2   5.780   35.3  0.0583    1.7  0.3270 -150.2
 4.700  0.6014  151.4   5.633   33.7  0.0581    1.4  0.3266 -152.4
 4.800  0.6039  149.6   5.491   31.9  0.0580    1.2  0.3266 -154.7
 4.900  0.6069  147.8   5.354   30.1  0.0578    0.9  0.3271 -156.9
 5.000  0.6105  146.1   5.223   28.2  0.0576    0.7  0.3281 -159.1
 5.100  0.6121  144.6   5.105   26.7  0.0575    0.6  0.3277 -161.1
 5.200  0.6140  143.1   4.991   25.2  0.0574    0.5  0.3278 -163.2
 5.300  0.6164  141.7   4.880   23.6  0.0574    0.5  0.3283 -165.2
 5.400  0.6191  140.2   4.773   21.9  0.0573    0.4  0.3292 -167.3
 5.500  0.6223  138.8   4.671   20.2  0.0572    0.3  0.3305 -169.3
 5.600  0.6247  137.4   4.579   18.7  0.0573    0.4  0.3316 -171.5
 5.700  0.6274  136.0   4.490   17.2  0.0575    0.4  0.3332 -173.7
 5.800  0.6305  134.7   4.404   15.6  0.0576    0.5  0.3353 -175.9
 5.900  0.6339  133.3   4.321   13.9  0.0578    0.5  0.3379 -178.1
 6.000  0.6377  132.0   4.243   12.2  0.0579    0.6  0.3409  179.8
 6.100  0.6409  130.7   4.166   10.7  0.0583    0.6  0.3441  177.9
 6.200  0.6444  129.4   4.093    9.1  0.0588    0.6  0.3476  176.0
 6.300  0.6482  128.1   4.023    7.5  0.0592    0.5  0.3516  174.1
 6.400  0.6524  126.8   3.956    5.8  0.0597    0.5  0.3559  172.3
 6.500  0.6569  125.5   3.892    4.1  0.0601    0.5  0.3605  170.5
 6.600  0.6592  124.1   3.825    2.5  0.0607    0.4  0.3629  168.8
 6.800  0.6651  121.3   3.699   -0.7  0.0618    0.1  0.3687  165.4
 7.000  0.6726  118.5   3.586   -4.2  0.0630   -0.2  0.3757  162.1
 7.200  0.6782  115.4   3.468   -7.5  0.0644   -1.0  0.3831  158.0
 7.400  0.6856  112.4   3.361  -11.0  0.0658   -1.7  0.3925  154.1
 7.600  0.6934  109.3   3.246  -14.5  0.0670   -2.7  0.4026  150.0
 7.800  0.7017  106.0   3.121  -18.0  0.0680   -3.9  0.4139  145.7
 8.000  0.7121  102.9   3.008  -21.8  0.0691   -5.0  0.4274  141.6
 8.200  0.7175   99.9   2.880  -24.8  0.0696   -6.1  0.4361  137.4
 8.400  0.7247   97.0   2.760  -28.1  0.0702   -7.1  0.4470  133.4
 8.600  0.7348   94.3   2.651  -31.2  0.0708   -8.0  0.4600  129.3
 8.800  0.7472   91.9   2.550  -34.1  0.0715   -8.8  0.4754  125.2
 9.000  0.7609   89.6   2.457  -37.3  0.0722   -9.5  0.4930  121.4
 9.200  0.7826   87.3   2.371  -40.1  0.0729  -10.4  0.5180  117.7
 9.400  0.8054   85.1   2.291  -43.0  0.0737  -11.3  0.5448  114.4
 9.600  0.8263   82.8   2.198  -46.1  0.0745  -12.4  0.5732  111.5
 9.800  0.8455   80.4   2.091  -49.3  0.0754  -13.6  0.6028  108.8
10.000  0.8661   78.1   1.991  -52.8  0.0763  -14.9  0.6335  106.4
!
!  f       NFmin   Gammaopt  rn/50
! GHz       dB    MAG  ANG    -
 0.450      0.57  0.28    4   0.13
 0.900      0.60  0.28   15   0.10
 1.900      0.62  0.25   24   0.09
 2.400      0.67  0.19   44   0.12
 5.500      0.89  0.23 -151   0.13
10.000      1.72  0.58  -92   0.50
!
! (c) 2016  Infineon Technologies AG, Munich
