! Infineon Technologies  Discrete & RF Semiconductors
! BFP720F
! VCE =  2.5 V,  IC =  3.0 mA
! Common Emitter S-Parameters:                            Jan 2016
# GHz  S  MA  R  50
!  f         S11            S21            S12            S22
! GHz     MAG   ANG      MAG   ANG      MAG   ANG      MAG   ANG
 0.010  0.9573   -0.1   9.371  179.6  0.0008  -42.5  0.9944   -0.1
 0.015  0.9607   -0.4   9.259  178.8  0.0003   22.8  0.9972   -0.6
 0.020  0.9641   -0.6   9.150  177.9  0.0008   88.2  1.0000   -1.1
 0.025  0.9638   -0.8   9.168  178.0  0.0010   88.9  0.9996   -1.1
 0.030  0.9635   -0.9   9.185  178.0  0.0012   89.4  0.9993   -1.1
 0.035  0.9632   -1.1   9.203  178.1  0.0013   89.7  0.9989   -1.1
 0.040  0.9629   -1.3   9.221  178.2  0.0015   90.0  0.9985   -1.2
 0.045  0.9626   -1.4   9.238  178.2  0.0017   90.2  0.9982   -1.2
 0.050  0.9623   -1.6   9.256  178.3  0.0019   90.4  0.9978   -1.2
 0.055  0.9623   -1.8   9.256  178.2  0.0021   89.8  0.9978   -1.3
 0.060  0.9624   -1.9   9.256  178.0  0.0023   89.3  0.9979   -1.4
 0.065  0.9624   -2.1   9.256  177.9  0.0024   88.8  0.9979   -1.5
 0.070  0.9624   -2.2   9.257  177.8  0.0026   88.4  0.9980   -1.6
 0.075  0.9625   -2.4   9.257  177.6  0.0028   88.1  0.9981   -1.7
 0.080  0.9626   -2.6   9.257  177.5  0.0030   87.8  0.9981   -1.8
 0.085  0.9626   -2.7   9.258  177.4  0.0032   87.5  0.9982   -1.9
 0.090  0.9627   -2.9   9.258  177.3  0.0033   87.3  0.9983   -2.0
 0.095  0.9628   -3.0   9.258  177.1  0.0035   87.1  0.9983   -2.1
 0.100  0.9629   -3.2   9.259  177.0  0.0037   86.9  0.9984   -2.2
 0.105  0.9627   -3.3   9.259  176.9  0.0039   86.9  0.9984   -2.3
 0.110  0.9625   -3.5   9.260  176.7  0.0040   86.9  0.9983   -2.4
 0.115  0.9623   -3.6   9.261  176.6  0.0042   86.9  0.9983   -2.6
 0.120  0.9621   -3.8   9.261  176.5  0.0044   86.9  0.9982   -2.7
 0.125  0.9619   -3.9   9.262  176.3  0.0045   87.0  0.9982   -2.8
 0.130  0.9617   -4.1   9.263  176.2  0.0047   87.0  0.9982   -2.9
 0.135  0.9616   -4.2   9.263  176.1  0.0049   87.0  0.9981   -3.0
 0.140  0.9614   -4.4   9.264  176.0  0.0051   87.0  0.9981   -3.2
 0.145  0.9613   -4.5   9.265  175.8  0.0052   87.0  0.9981   -3.3
 0.150  0.9611   -4.7   9.266  175.7  0.0054   87.0  0.9981   -3.4
 0.155  0.9610   -4.9   9.263  175.6  0.0056   86.9  0.9979   -3.5
 0.160  0.9609   -5.0   9.260  175.4  0.0058   86.7  0.9977   -3.6
 0.165  0.9608   -5.2   9.257  175.3  0.0060   86.6  0.9975   -3.7
 0.170  0.9608   -5.3   9.253  175.2  0.0062   86.5  0.9973   -3.8
 0.175  0.9607   -5.5   9.250  175.1  0.0063   86.4  0.9971   -3.9
 0.180  0.9607   -5.7   9.247  174.9  0.0065   86.3  0.9969   -4.0
 0.185  0.9606   -5.8   9.244  174.8  0.0067   86.2  0.9967   -4.1
 0.190  0.9606   -6.0   9.242  174.7  0.0069   86.1  0.9965   -4.2
 0.195  0.9605   -6.1   9.239  174.5  0.0071   86.0  0.9963   -4.3
 0.200  0.9605   -6.3   9.236  174.4  0.0073   85.9  0.9961   -4.4
 0.220  0.9598   -6.9   9.244  173.8  0.0080   85.5  0.9962   -4.8
 0.240  0.9592   -7.6   9.252  173.3  0.0087   85.2  0.9964   -5.3
 0.260  0.9586   -8.2   9.250  172.8  0.0094   84.7  0.9956   -5.7
 0.280  0.9582   -8.9   9.237  172.3  0.0101   84.1  0.9938   -6.2
 0.300  0.9579   -9.5   9.224  171.8  0.0109   83.6  0.9921   -6.7
 0.320  0.9573  -10.1   9.221  171.3  0.0116   83.2  0.9921   -7.1
 0.340  0.9567  -10.8   9.220  170.8  0.0123   82.8  0.9922   -7.6
 0.360  0.9560  -11.4   9.222  170.2  0.0131   82.3  0.9917   -8.1
 0.380  0.9550  -12.1   9.228  169.7  0.0138   81.8  0.9909   -8.6
 0.400  0.9542  -12.7   9.235  169.2  0.0145   81.4  0.9901   -9.1
 0.420  0.9534  -13.3   9.211  168.7  0.0152   81.0  0.9894   -9.5
 0.440  0.9526  -14.0   9.187  168.2  0.0159   80.6  0.9888   -9.9
 0.450  0.9523  -14.3   9.176  167.9  0.0163   80.4  0.9885  -10.1
 0.460  0.9519  -14.6   9.180  167.7  0.0167   80.2  0.9881  -10.3
 0.480  0.9513  -15.3   9.188  167.2  0.0174   79.7  0.9873  -10.8
 0.500  0.9508  -15.9   9.197  166.8  0.0181   79.3  0.9865  -11.2
 0.520  0.9496  -16.6   9.191  166.3  0.0188   78.8  0.9853  -11.7
 0.540  0.9485  -17.2   9.187  165.7  0.0195   78.3  0.9843  -12.2
 0.560  0.9475  -17.9   9.183  165.2  0.0203   77.9  0.9832  -12.6
 0.580  0.9466  -18.5   9.179  164.6  0.0210   77.5  0.9823  -13.1
 0.600  0.9459  -19.2   9.177  164.1  0.0217   77.1  0.9814  -13.6
 0.620  0.9446  -19.8   9.166  163.6  0.0224   76.6  0.9804  -14.0
 0.640  0.9434  -20.5   9.156  163.1  0.0231   76.1  0.9795  -14.5
 0.660  0.9423  -21.1   9.146  162.6  0.0239   75.6  0.9786  -14.9
 0.680  0.9413  -21.8   9.137  162.1  0.0246   75.2  0.9778  -15.4
 0.700  0.9405  -22.4   9.129  161.6  0.0253   74.8  0.9771  -15.8
 0.720  0.9390  -23.1   9.139  161.1  0.0260   74.3  0.9757  -16.2
 0.740  0.9377  -23.8   9.150  160.6  0.0267   73.8  0.9744  -16.7
 0.760  0.9365  -24.4   9.162  160.0  0.0274   73.3  0.9731  -17.1
 0.780  0.9354  -25.1   9.174  159.5  0.0281   72.9  0.9719  -17.6
 0.800  0.9345  -25.8   9.187  159.0  0.0288   72.5  0.9708  -18.0
 0.820  0.9328  -26.4   9.178  158.5  0.0295   72.0  0.9692  -18.5
 0.840  0.9313  -27.1   9.169  157.9  0.0302   71.5  0.9677  -18.9
 0.860  0.9298  -27.7   9.161  157.4  0.0309   71.1  0.9662  -19.4
 0.880  0.9285  -28.4   9.154  156.8  0.0316   70.6  0.9648  -19.8
 0.900  0.9273  -29.0   9.148  156.3  0.0323   70.2  0.9635  -20.3
 0.920  0.9257  -29.7   9.138  155.8  0.0330   69.7  0.9617  -20.8
 0.940  0.9243  -30.3   9.129  155.3  0.0337   69.2  0.9600  -21.2
 0.960  0.9230  -31.0   9.120  154.8  0.0343   68.8  0.9583  -21.7
 0.980  0.9218  -31.6   9.112  154.3  0.0350   68.3  0.9567  -22.1
 1.000  0.9207  -32.3   9.105  153.8  0.0357   67.9  0.9551  -22.6
 1.020  0.9188  -33.0   9.090  153.3  0.0364   67.4  0.9533  -23.1
 1.040  0.9171  -33.6   9.075  152.7  0.0370   66.9  0.9515  -23.5
 1.060  0.9155  -34.3   9.062  152.2  0.0377   66.5  0.9498  -24.0
 1.080  0.9140  -34.9   9.049  151.6  0.0383   66.0  0.9482  -24.4
 1.100  0.9126  -35.6   9.037  151.1  0.0390   65.6  0.9466  -24.9
 1.120  0.9107  -36.3   9.026  150.6  0.0397   65.1  0.9446  -25.4
 1.140  0.9089  -36.9   9.015  150.1  0.0403   64.6  0.9426  -25.8
 1.160  0.9072  -37.6   9.005  149.5  0.0410   64.2  0.9407  -26.3
 1.180  0.9056  -38.2   8.996  149.0  0.0416   63.7  0.9389  -26.7
 1.200  0.9042  -38.9   8.987  148.5  0.0423   63.3  0.9371  -27.2
 1.220  0.9022  -39.6   8.972  148.0  0.0429   62.8  0.9350  -27.6
 1.240  0.9004  -40.2   8.958  147.5  0.0436   62.3  0.9329  -28.1
 1.260  0.8987  -40.9   8.945  146.9  0.0442   61.9  0.9308  -28.5
 1.280  0.8971  -41.5   8.932  146.4  0.0449   61.4  0.9288  -29.0
 1.300  0.8956  -42.2   8.920  145.9  0.0455   61.0  0.9269  -29.4
 1.320  0.8936  -42.9   8.902  145.4  0.0461   60.5  0.9246  -29.9
 1.340  0.8917  -43.5   8.884  144.9  0.0467   60.0  0.9224  -30.3
 1.360  0.8899  -44.2   8.867  144.3  0.0473   59.6  0.9203  -30.8
 1.380  0.8882  -44.8   8.851  143.8  0.0479   59.1  0.9182  -31.2
 1.400  0.8867  -45.5   8.836  143.3  0.0485   58.7  0.9162  -31.7
 1.420  0.8847  -46.2   8.821  142.8  0.0491   58.2  0.9137  -32.2
 1.440  0.8827  -46.9   8.807  142.3  0.0497   57.7  0.9113  -32.6
 1.460  0.8809  -47.5   8.794  141.8  0.0502   57.3  0.9089  -33.1
 1.480  0.8793  -48.2   8.781  141.3  0.0508   56.8  0.9066  -33.5
 1.500  0.8777  -48.9   8.769  140.8  0.0514   56.4  0.9043  -34.0
 1.520  0.8754  -49.6   8.767  140.2  0.0520   55.9  0.9019  -34.4
 1.540  0.8732  -50.3   8.766  139.7  0.0525   55.5  0.8996  -34.9
 1.560  0.8711  -51.0   8.766  139.1  0.0531   55.1  0.8974  -35.3
 1.580  0.8692  -51.7   8.767  138.6  0.0536   54.6  0.8952  -35.8
 1.600  0.8674  -52.4   8.768  138.0  0.0542   54.2  0.8930  -36.2
 1.620  0.8649  -53.1   8.748  137.5  0.0547   53.7  0.8903  -36.7
 1.640  0.8626  -53.7   8.728  136.9  0.0553   53.2  0.8877  -37.1
 1.660  0.8603  -54.4   8.710  136.4  0.0558   52.7  0.8851  -37.6
 1.680  0.8582  -55.0   8.692  135.8  0.0564   52.3  0.8826  -38.0
 1.700  0.8562  -55.7   8.675  135.3  0.0569   51.8  0.8802  -38.5
 1.720  0.8542  -56.3   8.651  134.8  0.0574   51.3  0.8779  -38.9
 1.740  0.8523  -57.0   8.628  134.3  0.0579   50.9  0.8756  -39.3
 1.760  0.8505  -57.6   8.605  133.8  0.0584   50.5  0.8733  -39.8
 1.780  0.8488  -58.3   8.583  133.3  0.0590   50.0  0.8711  -40.2
 1.800  0.8472  -58.9   8.562  132.8  0.0595   49.6  0.8690  -40.6
 1.820  0.8449  -59.5   8.537  132.3  0.0600   49.1  0.8663  -41.0
 1.840  0.8427  -60.1   8.513  131.8  0.0604   48.7  0.8636  -41.5
 1.860  0.8405  -60.8   8.490  131.3  0.0609   48.3  0.8610  -41.9
 1.880  0.8385  -61.4   8.467  130.8  0.0614   47.8  0.8585  -42.4
 1.900  0.8366  -62.0   8.445  130.3  0.0619   47.4  0.8560  -42.8
 1.920  0.8346  -62.6   8.422  129.8  0.0623   47.0  0.8534  -43.2
 1.940  0.8326  -63.2   8.401  129.3  0.0628   46.5  0.8509  -43.6
 1.960  0.8307  -63.8   8.379  128.7  0.0632   46.1  0.8484  -44.0
 1.980  0.8290  -64.4   8.359  128.2  0.0637   45.7  0.8459  -44.4
 2.000  0.8273  -65.0   8.339  127.7  0.0641   45.3  0.8435  -44.8
 2.020  0.8251  -65.6   8.311  127.2  0.0645   44.9  0.8409  -45.2
 2.040  0.8230  -66.2   8.284  126.8  0.0649   44.4  0.8383  -45.6
 2.060  0.8210  -66.8   8.257  126.3  0.0653   44.0  0.8357  -46.0
 2.080  0.8190  -67.4   8.231  125.8  0.0657   43.6  0.8332  -46.4
 2.100  0.8172  -68.0   8.206  125.3  0.0661   43.1  0.8308  -46.8
 2.120  0.8154  -68.6   8.181  124.9  0.0665   42.7  0.8283  -47.2
 2.140  0.8138  -69.2   8.157  124.4  0.0669   42.3  0.8260  -47.6
 2.160  0.8122  -69.9   8.133  123.9  0.0673   41.9  0.8236  -48.1
 2.180  0.8108  -70.5   8.110  123.4  0.0677   41.5  0.8213  -48.5
 2.200  0.8094  -71.1   8.087  122.9  0.0681   41.1  0.8191  -48.9
 2.220  0.8073  -71.6   8.057  122.5  0.0684   40.7  0.8167  -49.3
 2.240  0.8053  -72.2   8.027  122.0  0.0688   40.3  0.8142  -49.6
 2.260  0.8033  -72.7   7.997  121.6  0.0691   39.9  0.8119  -50.0
 2.280  0.8014  -73.3   7.968  121.1  0.0695   39.5  0.8095  -50.4
 2.300  0.7996  -73.8   7.940  120.6  0.0698   39.0  0.8072  -50.8
 2.320  0.7979  -74.4   7.912  120.2  0.0702   38.7  0.8049  -51.2
 2.340  0.7962  -74.9   7.884  119.7  0.0705   38.3  0.8027  -51.5
 2.360  0.7946  -75.5   7.857  119.2  0.0709   37.9  0.8005  -51.9
 2.380  0.7931  -76.0   7.831  118.8  0.0712   37.5  0.7983  -52.3
 2.400  0.7917  -76.6   7.805  118.3  0.0716   37.1  0.7962  -52.7
 2.420  0.7898  -77.1   7.777  117.9  0.0719   36.7  0.7938  -53.0
 2.440  0.7880  -77.7   7.750  117.4  0.0721   36.3  0.7914  -53.4
 2.460  0.7862  -78.2   7.723  117.0  0.0724   35.9  0.7890  -53.7
 2.480  0.7845  -78.8   7.697  116.5  0.0727   35.5  0.7866  -54.0
 2.500  0.7829  -79.3   7.671  116.0  0.0730   35.2  0.7843  -54.4
 2.520  0.7814  -79.9   7.646  115.6  0.0732   34.8  0.7820  -54.7
 2.540  0.7799  -80.4   7.621  115.1  0.0735   34.4  0.7797  -55.1
 2.560  0.7785  -81.0   7.597  114.6  0.0738   34.0  0.7775  -55.4
 2.580  0.7772  -81.5   7.573  114.2  0.0741   33.7  0.7753  -55.8
 2.600  0.7759  -82.1   7.550  113.7  0.0744   33.3  0.7731  -56.1
 2.620  0.7742  -82.6   7.522  113.3  0.0746   33.0  0.7707  -56.4
 2.640  0.7725  -83.1   7.494  112.9  0.0748   32.6  0.7684  -56.7
 2.660  0.7709  -83.5   7.466  112.5  0.0751   32.3  0.7661  -57.0
 2.680  0.7693  -84.0   7.439  112.1  0.0753   31.9  0.7638  -57.3
 2.700  0.7678  -84.5   7.413  111.6  0.0755   31.6  0.7615  -57.6
 2.720  0.7664  -85.0   7.386  111.2  0.0757   31.2  0.7592  -57.9
 2.740  0.7650  -85.5   7.360  110.8  0.0760   30.9  0.7570  -58.3
 2.760  0.7637  -86.0   7.335  110.4  0.0762   30.6  0.7548  -58.6
 2.780  0.7624  -86.5   7.310  109.9  0.0765   30.2  0.7526  -58.9
 2.800  0.7612  -87.0   7.285  109.5  0.0767   29.9  0.7504  -59.2
 2.820  0.7597  -87.5   7.260  109.1  0.0769   29.6  0.7485  -59.5
 2.840  0.7583  -88.0   7.234  108.7  0.0771   29.2  0.7467  -59.8
 2.860  0.7570  -88.5   7.210  108.3  0.0774   28.9  0.7449  -60.1
 2.880  0.7557  -88.9   7.185  107.9  0.0776   28.6  0.7431  -60.4
 2.900  0.7544  -89.4   7.161  107.5  0.0778   28.3  0.7413  -60.7
 2.920  0.7532  -89.9   7.138  107.1  0.0781   28.0  0.7395  -61.0
 2.940  0.7521  -90.4   7.115  106.7  0.0783   27.6  0.7378  -61.3
 2.960  0.7510  -90.9   7.092  106.2  0.0785   27.3  0.7361  -61.6
 2.980  0.7500  -91.4   7.069  105.8  0.0788   27.0  0.7344  -61.9
 3.000  0.7490  -91.9   7.047  105.4  0.0790   26.7  0.7327  -62.2
 3.100  0.7412  -93.9   6.917  103.6  0.0796   25.2  0.7233  -63.3
 3.200  0.7343  -96.0   6.795  101.8  0.0803   23.7  0.7142  -64.5
 3.300  0.7284  -98.1   6.680   99.8  0.0811   22.2  0.7054  -65.7
 3.400  0.7235 -100.2   6.572   97.8  0.0819   20.8  0.6969  -66.9
 3.500  0.7196 -102.4   6.473   95.8  0.0827   19.4  0.6888  -68.2
 3.600  0.7136 -104.1   6.359   94.2  0.0831   18.1  0.6811  -69.1
 3.700  0.7083 -105.8   6.251   92.6  0.0836   16.8  0.6736  -70.0
 3.800  0.7037 -107.6   6.147   90.9  0.0841   15.6  0.6662  -70.9
 3.900  0.6996 -109.3   6.050   89.1  0.0846   14.3  0.6590  -71.8
 4.000  0.6963 -111.1   5.958   87.3  0.0852   13.1  0.6520  -72.8
 4.100  0.6924 -112.6   5.863   85.9  0.0855   12.0  0.6457  -73.6
 4.200  0.6890 -114.1   5.771   84.4  0.0858   10.9  0.6396  -74.3
 4.300  0.6861 -115.6   5.684   82.8  0.0861    9.8  0.6336  -75.1
 4.400  0.6836 -117.2   5.601   81.2  0.0865    8.7  0.6277  -75.9
 4.500  0.6817 -118.7   5.522   79.6  0.0869    7.6  0.6219  -76.7
 4.600  0.6779 -120.1   5.445   78.2  0.0871    6.6  0.6159  -77.4
 4.700  0.6746 -121.5   5.371   76.7  0.0873    5.5  0.6101  -78.2
 4.800  0.6716 -122.9   5.302   75.2  0.0875    4.5  0.6043  -78.9
 4.900  0.6691 -124.3   5.235   73.7  0.0877    3.5  0.5986  -79.7
 5.000  0.6669 -125.7   5.173   72.1  0.0880    2.5  0.5931  -80.5
 5.100  0.6622 -127.0   5.105   70.7  0.0881    1.5  0.5873  -81.3
 5.200  0.6579 -128.3   5.040   69.3  0.0882    0.6  0.5817  -82.0
 5.300  0.6539 -129.6   4.978   67.8  0.0883   -0.4  0.5761  -82.8
 5.400  0.6502 -130.9   4.920   66.3  0.0885   -1.3  0.5706  -83.6
 5.500  0.6469 -132.3   4.865   64.8  0.0887   -2.3  0.5653  -84.4
 5.600  0.6433 -133.6   4.808   63.4  0.0887   -3.2  0.5607  -85.3
 5.700  0.6400 -134.9   4.754   62.1  0.0887   -4.1  0.5562  -86.1
 5.800  0.6371 -136.2   4.703   60.6  0.0888   -5.1  0.5519  -87.0
 5.900  0.6345 -137.6   4.655   59.2  0.0888   -6.0  0.5477  -87.9
 6.000  0.6323 -138.9   4.610   57.7  0.0889   -6.9  0.5436  -88.8
 6.100  0.6268 -140.7   4.562   56.3  0.0888   -7.8  0.5379  -89.9
 6.200  0.6219 -142.5   4.517   54.8  0.0888   -8.7  0.5324  -91.1
 6.300  0.6176 -144.3   4.475   53.3  0.0887   -9.7  0.5271  -92.2
 6.400  0.6140 -146.2   4.437   51.8  0.0887  -10.6  0.5220  -93.4
 6.500  0.6110 -148.1   4.401   50.2  0.0887  -11.5  0.5172  -94.6
 6.600  0.6034 -150.2   4.351   48.7  0.0885  -12.4  0.5099  -95.9
 6.800  0.5909 -154.6   4.261   45.6  0.0881  -14.3  0.4961  -98.6
 7.000  0.5820 -159.2   4.183   42.4  0.0878  -16.2  0.4835 -101.5
 7.200  0.5585 -171.2   4.085   39.4  0.0871  -18.0  0.4655 -104.8
 7.400  0.5609  176.3   3.999   36.2  0.0864  -19.9  0.4492 -108.3
 7.600  0.5695  167.7   3.914   33.1  0.0856  -21.7  0.4320 -112.3
 7.800  0.5684  162.6   3.830   29.9  0.0847  -23.5  0.4143 -116.8
 8.000  0.5719  157.5   3.757   26.6  0.0839  -25.3  0.3994 -121.6
 8.200  0.5751  151.9   3.653   23.3  0.0824  -27.2  0.3804 -127.9
 8.400  0.5837  146.4   3.562   19.9  0.0810  -29.1  0.3665 -134.9
 8.600  0.5931  141.2   3.458   16.6  0.0792  -30.9  0.3524 -142.4
 8.800  0.6024  136.4   3.338   13.4  0.0771  -32.4  0.3390 -150.6
 9.000  0.6159  131.8   3.229    9.9  0.0750  -34.1  0.3331 -159.4
 9.200  0.6281  128.2   3.109    7.2  0.0728  -35.1  0.3258 -167.7
 9.400  0.6427  124.8   2.996    4.2  0.0707  -36.1  0.3255 -176.2
 9.600  0.6582  121.9   2.888    1.5  0.0686  -37.1  0.3356  177.4
 9.800  0.6739  119.5   2.782   -1.2  0.0665  -37.8  0.3521  173.4
10.000  0.6908  117.1   2.683   -4.0  0.0645  -38.6  0.3702  169.8
!
!  f       NFmin   Gammaopt  rn/50
! GHz       dB    MAG  ANG    -
 0.450      0.40  0.62    4   0.22
 0.900      0.47  0.62   12   0.22
 1.800      0.50  0.60   23   0.17
 2.400      0.55  0.59   30   0.16
 5.500      0.77  0.44   81   0.11
10.000      1.13  0.28 -126   0.14
!
! (c) 2016  Infineon Technologies AG, Munich
