! Infineon Technologies  Discrete & RF Semiconductors
! BFP780
! VCE =  1.0 V,  IC = 0.12 A
! Common Emitter S-Parameters:                            Jul 2015
# GHz  S  MA  R  50
!  f         S11            S21            S12            S22
! GHz     MAG   ANG      MAG   ANG      MAG   ANG      MAG   ANG
 0.030  0.5288 -117.2  51.021  146.7  0.0106   58.4  0.8858  -52.3
 0.040  0.6095 -124.9  50.216  138.8  0.0130   54.4  0.8481  -66.1
 0.050  0.6674 -130.5  48.923  132.0  0.0154   47.7  0.8231  -77.8
 0.060  0.7140 -135.5  46.498  126.1  0.0146   42.8  0.7905  -87.6
 0.070  0.7495 -140.0  43.526  121.5  0.0176   40.0  0.7804  -96.3
 0.080  0.7737 -143.9  40.517  117.7  0.0179   36.6  0.7680 -103.8
 0.090  0.7886 -147.2  37.780  114.9  0.0184   33.5  0.7579 -110.4
 0.100  0.7989 -149.9  35.646  112.7  0.0198   30.3  0.7472 -116.2
 0.110  0.8083 -152.0  33.853  110.7  0.0201   30.9  0.7395 -121.6
 0.120  0.8144 -153.9  32.320  109.1  0.0198   28.4  0.7320 -126.0
 0.130  0.8194 -155.4  31.004  107.8  0.0203   27.2  0.7230 -129.9
 0.140  0.8237 -156.9  29.607  106.4  0.0204   25.6  0.7161 -133.3
 0.150  0.8274 -158.3  28.308  105.2  0.0204   24.8  0.7119 -136.2
 0.200  0.8411 -164.1  22.701  100.1  0.0213   22.6  0.6988 -147.4
 0.250  0.8463 -168.3  18.899   96.5  0.0221   20.5  0.6934 -155.0
 0.300  0.8487 -171.6  16.002   93.6  0.0221   19.6  0.6866 -160.3
 0.350  0.8518 -174.2  13.869   91.3  0.0226   19.6  0.6849 -164.5
 0.400  0.8539 -176.3  12.266   89.4  0.0230   19.5  0.6836 -167.7
 0.450  0.8538 -178.2  10.919   87.5  0.0235   20.0  0.6817 -170.4
 0.500  0.8540 -179.9   9.875   85.9  0.0239   20.4  0.6797 -172.8
 0.600  0.8558  177.2   8.253   83.0  0.0245   21.5  0.6799 -176.7
 0.700  0.8534  174.5   7.073   80.3  0.0252   22.3  0.6779 -180.0
 0.800  0.8567  172.3   6.197   78.0  0.0262   22.9  0.6795  177.4
 0.900  0.8557  170.1   5.506   75.6  0.0272   24.3  0.6785  174.9
 1.000  0.8587  168.1   4.959   73.4  0.0280   25.2  0.6817  172.8
 1.100  0.8569  166.2   4.498   71.1  0.0291   25.7  0.6819  170.6
 1.200  0.8605  164.4   4.128   69.0  0.0300   26.2  0.6853  168.9
 1.300  0.8592  162.6   3.806   66.9  0.0309   26.5  0.6861  167.0
 1.400  0.8610  160.9   3.528   64.8  0.0319   27.5  0.6896  165.3
 1.500  0.8600  159.2   3.287   62.8  0.0328   27.2  0.6910  163.6
 1.600  0.8627  157.5   3.081   60.6  0.0342   27.6  0.6949  161.9
 1.700  0.8614  155.8   2.893   58.6  0.0353   27.5  0.6974  160.3
 1.800  0.8614  154.2   2.722   56.5  0.0363   27.0  0.7007  158.7
 1.900  0.8612  152.7   2.573   54.6  0.0374   27.3  0.7036  157.2
 2.000  0.8642  151.1   2.445   52.6  0.0383   27.1  0.7065  155.7
 2.100  0.8630  149.6   2.318   50.6  0.0388   26.5  0.7003  154.5
 2.200  0.8623  148.0   2.203   48.6  0.0399   26.0  0.7013  152.9
 2.300  0.8621  146.6   2.101   46.7  0.0409   26.0  0.7027  151.4
 2.400  0.8640  145.1   2.009   44.7  0.0418   25.6  0.7044  149.9
 2.500  0.8644  143.5   1.925   42.7  0.0426   25.1  0.7062  148.4
 2.600  0.8636  141.9   1.839   40.7  0.0435   24.7  0.7076  146.9
 2.700  0.8625  140.4   1.763   38.8  0.0445   24.0  0.7088  145.4
 2.800  0.8638  138.8   1.692   36.9  0.0451   23.7  0.7108  143.9
 2.900  0.8637  137.3   1.624   34.9  0.0461   23.0  0.7137  142.4
 3.000  0.8642  135.8   1.561   33.0  0.0468   22.4  0.7158  141.0
 3.100  0.8640  134.4   1.502   31.3  0.0478   21.9  0.7181  139.6
 3.200  0.8637  133.0   1.445   29.4  0.0485   21.5  0.7202  138.2
 3.300  0.8634  131.6   1.393   27.6  0.0493   20.8  0.7227  137.0
 3.400  0.8642  130.2   1.344   25.9  0.0500   20.4  0.7251  135.7
 3.500  0.8642  128.9   1.298   24.3  0.0507   19.7  0.7273  134.4
 3.600  0.8633  127.4   1.252   22.5  0.0513   19.1  0.7297  133.2
 3.700  0.8645  126.1   1.213   20.8  0.0520   18.5  0.7316  132.0
 3.800  0.8637  124.7   1.170   19.2  0.0526   18.0  0.7345  130.7
 3.900  0.8648  123.5   1.135   17.6  0.0532   17.3  0.7369  129.6
 4.000  0.8655  122.2   1.099   16.0  0.0540   16.9  0.7391  128.5
 4.100  0.8663  120.9   1.068   14.4  0.0547   16.3  0.7414  127.5
 4.200  0.8673  119.7   1.035   12.8  0.0552   15.6  0.7443  126.3
 4.300  0.8680  118.5   1.006   11.1  0.0561   15.1  0.7470  125.4
 4.400  0.8691  117.4   0.977    9.7  0.0565   14.4  0.7498  124.4
 4.500  0.8696  116.2   0.951    8.1  0.0573   13.7  0.7516  123.4
 4.600  0.8712  115.1   0.925    6.6  0.0579   13.2  0.7540  122.3
 4.700  0.8713  114.0   0.900    5.0  0.0584   12.5  0.7553  121.3
 4.800  0.8724  113.0   0.876    3.6  0.0591   11.9  0.7578  120.4
 4.900  0.8726  112.1   0.853    2.2  0.0597   11.3  0.7587  119.3
 5.000  0.8732  111.0   0.833    0.7  0.0603   10.7  0.7606  118.4
 5.100  0.8740  110.1   0.812   -0.8  0.0609   10.1  0.7615  117.3
 5.200  0.8738  109.1   0.792   -2.3  0.0614    9.5  0.7633  116.4
 5.300  0.8738  108.3   0.773   -3.7  0.0618    8.8  0.7641  115.4
 5.400  0.8739  107.3   0.755   -5.1  0.0626    8.2  0.7655  114.4
 5.500  0.8728  106.6   0.737   -6.4  0.0631    7.8  0.7653  113.4
 5.600  0.8722  105.8   0.721   -7.8  0.0639    7.3  0.7671  112.4
 5.700  0.8707  104.9   0.706   -9.2  0.0644    6.6  0.7677  111.4
 5.800  0.8704  104.1   0.690  -10.5  0.0650    6.1  0.7691  110.4
 5.900  0.8687  103.4   0.677  -11.8  0.0658    5.4  0.7702  109.4
 6.000  0.8684  102.4   0.662  -13.2  0.0664    4.5  0.7715  108.3
!
!  f       NFmin   Gammaopt  rn/50
! GHz       dB    MAG  ANG    -
!
! noise parameter not available yet for this operation point!
!
! (c) 2015  Infineon Technologies AG, Munich
