! Infineon Technologies  Discrete & RF Semiconductors
! BFP720FESD
! VCE =  3.0 V,  IC =  2.0 mA
! Common Emitter S-Parameters:                            Jan 2016
# GHz  S  MA  R  50
!  f         S11            S21            S12            S22
! GHz     MAG   ANG      MAG   ANG      MAG   ANG      MAG   ANG
 0.010  0.9824    0.5   6.493  179.5  0.0004   39.7  0.9962    0.3
 0.015  0.9803    0.0   6.470  179.6  0.0006   65.5  0.9976   -0.1
 0.020  0.9783   -0.5   6.447  179.7  0.0008   78.0  0.9991   -0.4
 0.025  0.9780   -0.6   6.448  179.5  0.0009   79.6  0.9991   -0.5
 0.030  0.9776   -0.8   6.449  179.3  0.0011   80.9  0.9991   -0.6
 0.035  0.9773   -0.9   6.451  179.1  0.0012   81.8  0.9990   -0.7
 0.040  0.9769   -1.0   6.452  179.0  0.0013   82.6  0.9990   -0.9
 0.045  0.9766   -1.2   6.454  178.8  0.0015   83.2  0.9990   -1.0
 0.050  0.9763   -1.3   6.455  178.6  0.0016   83.7  0.9990   -1.1
 0.055  0.9761   -1.5   6.459  178.5  0.0018   84.5  0.9990   -1.2
 0.060  0.9759   -1.6   6.463  178.5  0.0020   85.1  0.9990   -1.3
 0.065  0.9758   -1.8   6.467  178.4  0.0022   85.6  0.9990   -1.4
 0.070  0.9756   -1.9   6.470  178.3  0.0024   86.0  0.9990   -1.5
 0.075  0.9755   -2.1   6.474  178.2  0.0025   86.4  0.9991   -1.7
 0.080  0.9753   -2.3   6.478  178.2  0.0027   86.7  0.9991   -1.8
 0.085  0.9752   -2.4   6.482  178.1  0.0029   87.0  0.9991   -1.9
 0.090  0.9750   -2.6   6.486  178.0  0.0031   87.2  0.9991   -2.0
 0.095  0.9749   -2.7   6.490  178.0  0.0033   87.4  0.9992   -2.1
 0.100  0.9748   -2.9   6.494  177.9  0.0035   87.6  0.9992   -2.2
 0.105  0.9748   -3.1   6.496  177.8  0.0037   87.4  0.9991   -2.3
 0.110  0.9749   -3.2   6.499  177.6  0.0039   87.2  0.9991   -2.4
 0.115  0.9750   -3.4   6.501  177.5  0.0040   87.0  0.9990   -2.5
 0.120  0.9750   -3.5   6.504  177.3  0.0042   86.8  0.9990   -2.6
 0.125  0.9751   -3.7   6.507  177.2  0.0044   86.7  0.9989   -2.7
 0.130  0.9752   -3.9   6.509  177.1  0.0046   86.6  0.9989   -2.9
 0.135  0.9753   -4.0   6.512  176.9  0.0048   86.4  0.9988   -3.0
 0.140  0.9754   -4.2   6.514  176.8  0.0049   86.3  0.9988   -3.1
 0.145  0.9755   -4.3   6.517  176.6  0.0051   86.2  0.9987   -3.2
 0.150  0.9756   -4.5   6.520  176.5  0.0053   86.1  0.9987   -3.3
 0.155  0.9756   -4.6   6.521  176.4  0.0055   86.1  0.9987   -3.4
 0.160  0.9757   -4.8   6.522  176.3  0.0056   86.0  0.9986   -3.5
 0.165  0.9757   -4.9   6.523  176.1  0.0058   86.0  0.9986   -3.6
 0.170  0.9757   -5.0   6.524  176.0  0.0059   86.0  0.9985   -3.7
 0.175  0.9758   -5.2   6.525  175.9  0.0061   85.9  0.9985   -3.8
 0.180  0.9758   -5.3   6.526  175.8  0.0063   85.9  0.9985   -4.0
 0.185  0.9759   -5.4   6.527  175.7  0.0064   85.9  0.9985   -4.1
 0.190  0.9760   -5.5   6.529  175.5  0.0066   85.8  0.9984   -4.2
 0.195  0.9760   -5.7   6.530  175.4  0.0067   85.8  0.9984   -4.3
 0.200  0.9761   -5.8   6.531  175.3  0.0069   85.8  0.9984   -4.4
 0.220  0.9759   -6.4   6.522  174.7  0.0076   85.1  0.9981   -4.8
 0.240  0.9759   -7.0   6.515  174.1  0.0083   84.5  0.9979   -5.2
 0.260  0.9756   -7.6   6.516  173.6  0.0090   84.1  0.9976   -5.6
 0.280  0.9752   -8.2   6.526  173.1  0.0097   83.9  0.9972   -6.1
 0.300  0.9749   -8.8   6.536  172.7  0.0104   83.6  0.9968   -6.5
 0.320  0.9740   -9.4   6.537  172.2  0.0111   83.2  0.9963   -6.9
 0.340  0.9733   -9.9   6.538  171.7  0.0118   82.8  0.9958   -7.4
 0.360  0.9727  -10.5   6.536  171.2  0.0125   82.4  0.9953   -7.8
 0.380  0.9723  -11.0   6.529  170.7  0.0132   82.0  0.9948   -8.3
 0.400  0.9720  -11.6   6.523  170.2  0.0139   81.7  0.9943   -8.7
 0.420  0.9717  -12.2   6.523  169.7  0.0146   81.2  0.9938   -9.1
 0.440  0.9715  -12.8   6.524  169.2  0.0153   80.8  0.9933   -9.6
 0.450  0.9715  -13.1   6.524  169.0  0.0156   80.6  0.9931   -9.8
 0.460  0.9710  -13.4   6.524  168.7  0.0159   80.4  0.9928  -10.0
 0.480  0.9702  -14.0   6.525  168.2  0.0166   80.0  0.9921  -10.5
 0.500  0.9695  -14.6   6.526  167.6  0.0173   79.6  0.9915  -10.9
 0.520  0.9688  -15.2   6.520  167.1  0.0180   79.1  0.9907  -11.3
 0.540  0.9682  -15.8   6.514  166.6  0.0187   78.6  0.9899  -11.7
 0.560  0.9676  -16.3   6.509  166.0  0.0193   78.2  0.9892  -12.2
 0.580  0.9672  -16.9   6.504  165.5  0.0200   77.8  0.9886  -12.6
 0.600  0.9669  -17.5   6.500  165.0  0.0207   77.4  0.9880  -13.0
 0.620  0.9660  -18.1   6.499  164.5  0.0214   76.9  0.9871  -13.4
 0.640  0.9651  -18.7   6.498  164.1  0.0221   76.4  0.9863  -13.9
 0.660  0.9644  -19.2   6.498  163.6  0.0228   76.0  0.9856  -14.3
 0.680  0.9637  -19.8   6.498  163.2  0.0235   75.6  0.9849  -14.8
 0.700  0.9632  -20.4   6.498  162.7  0.0242   75.2  0.9843  -15.2
 0.720  0.9624  -21.0   6.487  162.2  0.0249   74.7  0.9832  -15.6
 0.740  0.9617  -21.6   6.477  161.7  0.0255   74.3  0.9822  -16.1
 0.760  0.9610  -22.1   6.468  161.1  0.0262   73.9  0.9812  -16.5
 0.780  0.9605  -22.7   6.459  160.6  0.0268   73.5  0.9803  -17.0
 0.800  0.9601  -23.3   6.450  160.1  0.0275   73.1  0.9795  -17.4
 0.820  0.9589  -23.9   6.446  159.6  0.0282   72.6  0.9785  -17.8
 0.840  0.9577  -24.5   6.443  159.1  0.0288   72.2  0.9775  -18.3
 0.860  0.9567  -25.0   6.441  158.6  0.0295   71.7  0.9766  -18.7
 0.880  0.9557  -25.6   6.439  158.1  0.0301   71.3  0.9757  -19.2
 0.900  0.9549  -26.2   6.437  157.6  0.0308   70.9  0.9749  -19.6
 0.920  0.9537  -26.8   6.429  157.1  0.0315   70.4  0.9736  -20.0
 0.940  0.9525  -27.4   6.420  156.6  0.0321   70.0  0.9724  -20.5
 0.960  0.9515  -27.9   6.413  156.2  0.0328   69.5  0.9712  -20.9
 0.980  0.9505  -28.5   6.406  155.7  0.0334   69.1  0.9701  -21.4
 1.000  0.9497  -29.1   6.399  155.2  0.0341   68.7  0.9690  -21.8
 1.020  0.9485  -29.7   6.392  154.7  0.0347   68.2  0.9677  -22.2
 1.040  0.9473  -30.3   6.385  154.2  0.0354   67.8  0.9665  -22.7
 1.060  0.9463  -30.8   6.379  153.7  0.0360   67.3  0.9653  -23.1
 1.080  0.9453  -31.4   6.373  153.2  0.0367   66.9  0.9642  -23.6
 1.100  0.9445  -32.0   6.368  152.7  0.0373   66.5  0.9631  -24.0
 1.120  0.9435  -32.6   6.361  152.2  0.0379   66.0  0.9618  -24.5
 1.140  0.9425  -33.2   6.354  151.7  0.0386   65.6  0.9605  -24.9
 1.160  0.9417  -33.7   6.347  151.1  0.0392   65.1  0.9593  -25.4
 1.180  0.9409  -34.3   6.341  150.6  0.0399   64.7  0.9581  -25.8
 1.200  0.9403  -34.9   6.336  150.1  0.0405   64.3  0.9570  -26.3
 1.220  0.9388  -35.5   6.325  149.6  0.0411   63.8  0.9555  -26.7
 1.240  0.9375  -36.1   6.314  149.1  0.0417   63.4  0.9541  -27.2
 1.260  0.9362  -36.6   6.303  148.6  0.0422   62.9  0.9528  -27.6
 1.280  0.9351  -37.2   6.293  148.1  0.0428   62.5  0.9514  -28.1
 1.300  0.9340  -37.8   6.284  147.6  0.0434   62.1  0.9502  -28.5
 1.320  0.9323  -38.4   6.274  147.1  0.0440   61.6  0.9485  -29.0
 1.340  0.9306  -39.0   6.265  146.5  0.0446   61.1  0.9469  -29.4
 1.360  0.9291  -39.5   6.256  146.0  0.0452   60.7  0.9454  -29.9
 1.380  0.9276  -40.1   6.248  145.4  0.0458   60.2  0.9439  -30.3
 1.400  0.9263  -40.7   6.240  144.9  0.0464   59.8  0.9425  -30.8
 1.420  0.9250  -41.2   6.228  144.4  0.0470   59.4  0.9409  -31.2
 1.440  0.9238  -41.8   6.216  144.0  0.0475   58.9  0.9393  -31.6
 1.460  0.9226  -42.3   6.204  143.5  0.0481   58.5  0.9378  -32.1
 1.480  0.9216  -42.9   6.193  143.1  0.0486   58.1  0.9364  -32.5
 1.500  0.9206  -43.4   6.182  142.6  0.0492   57.7  0.9350  -32.9
 1.520  0.9191  -44.0   6.173  142.1  0.0498   57.2  0.9333  -33.4
 1.540  0.9176  -44.6   6.164  141.6  0.0503   56.7  0.9317  -33.8
 1.560  0.9162  -45.1   6.155  141.0  0.0509   56.3  0.9302  -34.3
 1.580  0.9150  -45.7   6.147  140.5  0.0514   55.8  0.9287  -34.7
 1.600  0.9138  -46.3   6.140  140.0  0.0520   55.4  0.9273  -35.2
 1.620  0.9121  -46.8   6.127  139.5  0.0525   55.0  0.9256  -35.6
 1.640  0.9105  -47.4   6.114  139.0  0.0530   54.5  0.9239  -36.0
 1.660  0.9089  -47.9   6.101  138.6  0.0535   54.1  0.9222  -36.5
 1.680  0.9075  -48.5   6.089  138.1  0.0540   53.7  0.9206  -36.9
 1.700  0.9061  -49.0   6.077  137.6  0.0545   53.3  0.9191  -37.3
 1.720  0.9047  -49.5   6.059  137.1  0.0550   52.9  0.9174  -37.7
 1.740  0.9033  -50.1   6.042  136.6  0.0554   52.5  0.9158  -38.2
 1.760  0.9020  -50.6   6.025  136.2  0.0559   52.1  0.9143  -38.6
 1.780  0.9008  -51.2   6.009  135.7  0.0563   51.7  0.9128  -39.1
 1.800  0.8997  -51.7   5.993  135.2  0.0568   51.3  0.9113  -39.5
 1.820  0.8981  -52.2   5.985  134.7  0.0573   50.9  0.9096  -39.9
 1.840  0.8967  -52.8   5.977  134.3  0.0578   50.4  0.9079  -40.4
 1.860  0.8953  -53.3   5.969  133.8  0.0583   50.0  0.9063  -40.8
 1.880  0.8939  -53.9   5.962  133.4  0.0588   49.6  0.9047  -41.3
 1.900  0.8927  -54.4   5.955  132.9  0.0593   49.2  0.9032  -41.7
 1.920  0.8908  -54.9   5.937  132.4  0.0597   48.8  0.9016  -42.1
 1.940  0.8891  -55.4   5.919  131.9  0.0601   48.4  0.9000  -42.5
 1.960  0.8873  -55.9   5.902  131.5  0.0606   48.0  0.8984  -42.9
 1.980  0.8857  -56.4   5.885  131.0  0.0610   47.6  0.8970  -43.3
 2.000  0.8841  -56.9   5.869  130.5  0.0614   47.2  0.8955  -43.7
 2.020  0.8824  -57.4   5.854  130.0  0.0618   46.8  0.8936  -44.1
 2.040  0.8808  -57.9   5.839  129.6  0.0622   46.4  0.8918  -44.5
 2.060  0.8793  -58.4   5.824  129.1  0.0626   45.9  0.8900  -45.0
 2.080  0.8779  -59.0   5.810  128.6  0.0630   45.5  0.8883  -45.4
 2.100  0.8765  -59.5   5.796  128.2  0.0634   45.1  0.8866  -45.8
 2.120  0.8752  -60.0   5.782  127.7  0.0638   44.7  0.8849  -46.3
 2.140  0.8740  -60.5   5.769  127.2  0.0642   44.3  0.8834  -46.7
 2.160  0.8728  -61.0   5.756  126.8  0.0647   44.0  0.8818  -47.1
 2.180  0.8717  -61.6   5.744  126.3  0.0651   43.6  0.8803  -47.6
 2.200  0.8707  -62.1   5.732  125.8  0.0655   43.2  0.8789  -48.0
 2.220  0.8688  -62.6   5.717  125.4  0.0659   42.8  0.8771  -48.4
 2.240  0.8670  -63.1   5.702  124.9  0.0663   42.4  0.8753  -48.8
 2.260  0.8653  -63.6   5.687  124.5  0.0666   42.0  0.8735  -49.2
 2.280  0.8636  -64.1   5.673  124.0  0.0670   41.6  0.8718  -49.6
 2.300  0.8620  -64.6   5.659  123.6  0.0674   41.2  0.8702  -50.0
 2.320  0.8605  -65.1   5.645  123.1  0.0678   40.9  0.8686  -50.4
 2.340  0.8590  -65.7   5.632  122.7  0.0682   40.5  0.8670  -50.9
 2.360  0.8576  -66.2   5.619  122.2  0.0686   40.1  0.8655  -51.3
 2.380  0.8563  -66.7   5.606  121.8  0.0690   39.8  0.8640  -51.7
 2.400  0.8550  -67.2   5.594  121.3  0.0694   39.4  0.8626  -52.1
 2.420  0.8531  -67.7   5.577  120.9  0.0697   39.0  0.8607  -52.5
 2.440  0.8512  -68.2   5.560  120.5  0.0700   38.6  0.8589  -52.9
 2.460  0.8494  -68.7   5.544  120.0  0.0704   38.2  0.8570  -53.3
 2.480  0.8477  -69.2   5.527  119.6  0.0707   37.8  0.8553  -53.7
 2.500  0.8461  -69.7   5.512  119.2  0.0710   37.4  0.8536  -54.1
 2.520  0.8445  -70.2   5.496  118.7  0.0713   37.0  0.8519  -54.5
 2.540  0.8430  -70.7   5.481  118.3  0.0717   36.6  0.8502  -55.0
 2.560  0.8415  -71.3   5.466  117.9  0.0720   36.3  0.8486  -55.4
 2.580  0.8401  -71.8   5.451  117.4  0.0724   35.9  0.8471  -55.8
 2.600  0.8388  -72.3   5.437  117.0  0.0727   35.5  0.8456  -56.2
 2.620  0.8367  -72.8   5.420  116.6  0.0730   35.1  0.8438  -56.6
 2.640  0.8348  -73.3   5.403  116.1  0.0732   34.7  0.8420  -57.0
 2.660  0.8328  -73.7   5.387  115.7  0.0735   34.4  0.8403  -57.4
 2.680  0.8310  -74.2   5.371  115.3  0.0737   34.0  0.8386  -57.8
 2.700  0.8291  -74.7   5.356  114.8  0.0740   33.6  0.8369  -58.2
 2.720  0.8274  -75.2   5.340  114.4  0.0743   33.2  0.8353  -58.6
 2.740  0.8257  -75.7   5.325  113.9  0.0746   32.9  0.8338  -59.0
 2.760  0.8241  -76.2   5.310  113.5  0.0748   32.5  0.8322  -59.4
 2.780  0.8225  -76.7   5.296  113.1  0.0751   32.2  0.8307  -59.8
 2.800  0.8210  -77.2   5.282  112.6  0.0754   31.8  0.8293  -60.2
 2.820  0.8193  -77.7   5.265  112.2  0.0756   31.4  0.8276  -60.6
 2.840  0.8177  -78.1   5.248  111.8  0.0758   31.1  0.8260  -60.9
 2.860  0.8161  -78.6   5.231  111.4  0.0760   30.7  0.8244  -61.3
 2.880  0.8146  -79.1   5.214  111.0  0.0762   30.3  0.8229  -61.7
 2.900  0.8132  -79.5   5.198  110.5  0.0765   30.0  0.8214  -62.0
 2.920  0.8118  -80.0   5.182  110.1  0.0767   29.6  0.8199  -62.4
 2.940  0.8104  -80.5   5.166  109.7  0.0769   29.3  0.8184  -62.8
 2.960  0.8091  -80.9   5.151  109.3  0.0771   28.9  0.8170  -63.1
 2.980  0.8079  -81.4   5.136  108.8  0.0774   28.6  0.8156  -63.5
 3.000  0.8067  -81.9   5.121  108.4  0.0776   28.2  0.8143  -63.9
 3.100  0.7982  -83.9   5.030  106.7  0.0782   26.7  0.8071  -65.4
 3.200  0.7908  -86.0   4.944  104.9  0.0788   25.2  0.8006  -67.0
 3.300  0.7844  -88.1   4.862  103.1  0.0795   23.7  0.7946  -68.6
 3.400  0.7790  -90.2   4.786  101.2  0.0802   22.2  0.7892  -70.2
 3.500  0.7748  -92.4   4.715   99.2  0.0810   20.8  0.7845  -71.8
 3.600  0.7698  -94.3   4.643   97.7  0.0815   19.5  0.7798  -73.1
 3.700  0.7656  -96.3   4.575   96.1  0.0820   18.3  0.7755  -74.4
 3.800  0.7624  -98.2   4.511   94.4  0.0825   17.0  0.7716  -75.7
 3.900  0.7600 -100.2   4.450   92.7  0.0831   15.8  0.7681  -77.1
 4.000  0.7586 -102.2   4.393   91.0  0.0837   14.6  0.7650  -78.4
 4.100  0.7544 -104.2   4.333   89.4  0.0840   13.3  0.7605  -79.8
 4.200  0.7511 -106.3   4.276   87.8  0.0844   12.0  0.7565  -81.3
 4.300  0.7488 -108.4   4.223   86.1  0.0848   10.7  0.7530  -82.7
 4.400  0.7476 -110.5   4.174   84.4  0.0853    9.5  0.7500  -84.2
 4.500  0.7473 -112.6   4.128   82.6  0.0858    8.2  0.7475  -85.7
 4.600  0.7438 -114.5   4.067   81.0  0.0858    6.9  0.7428  -87.1
 4.700  0.7412 -116.5   4.010   79.4  0.0859    5.6  0.7386  -88.6
 4.800  0.7395 -118.5   3.955   77.8  0.0860    4.4  0.7348  -90.0
 4.900  0.7386 -120.4   3.904   76.0  0.0861    3.1  0.7316  -91.5
 5.000  0.7386 -122.4   3.857   74.3  0.0863    1.8  0.7288  -93.0
 5.100  0.7339 -124.1   3.802   72.8  0.0860    0.6  0.7235  -94.3
 5.200  0.7299 -125.9   3.750   71.2  0.0857   -0.6  0.7185  -95.6
 5.300  0.7265 -127.6   3.701   69.6  0.0855   -1.8  0.7140  -97.0
 5.400  0.7239 -129.4   3.654   68.0  0.0853   -3.1  0.7098  -98.3
 5.500  0.7219 -131.2   3.611   66.3  0.0852   -4.3  0.7061  -99.7
 5.600  0.7170 -132.8   3.568   64.9  0.0848   -5.4  0.7004 -101.0
 5.700  0.7128 -134.4   3.527   63.5  0.0845   -6.5  0.6950 -102.3
 5.800  0.7090 -136.1   3.488   62.0  0.0841   -7.6  0.6899 -103.6
 5.900  0.7059 -137.7   3.452   60.5  0.0839   -8.7  0.6853 -104.9
 6.000  0.7034 -139.4   3.418   59.0  0.0836   -9.8  0.6810 -106.3
 6.100  0.6984 -141.1   3.377   57.6  0.0830  -10.9  0.6752 -107.6
 6.200  0.6939 -142.8   3.338   56.1  0.0823  -12.0  0.6697 -109.0
 6.300  0.6901 -144.5   3.301   54.6  0.0818  -13.1  0.6646 -110.4
 6.400  0.6869 -146.2   3.266   53.1  0.0812  -14.2  0.6599 -111.8
 6.500  0.6844 -148.0   3.234   51.5  0.0807  -15.4  0.6556 -113.2
 6.600  0.6805 -149.7   3.191   50.0  0.0796  -16.4  0.6498 -114.3
 6.800  0.6745 -153.3   3.113   47.0  0.0774  -18.5  0.6389 -116.6
 7.000  0.6712 -156.9   3.043   43.8  0.0754  -20.7  0.6291 -118.9
 7.200  0.6682 -160.2   2.964   41.1  0.0727  -21.9  0.6177 -121.1
 7.400  0.6674 -163.5   2.891   38.3  0.0700  -23.3  0.6072 -123.4
 7.600  0.6690 -166.9   2.828   35.4  0.0678  -24.3  0.5978 -126.3
 7.800  0.6731 -170.3   2.776   32.4  0.0659  -24.8  0.5901 -129.7
 8.000  0.6796 -173.7   2.732   29.3  0.0640  -25.4  0.5845 -133.2
 8.200  0.6816 -176.9   2.664   26.1  0.0625  -26.3  0.5762 -137.9
 8.400  0.6857  179.9   2.604   22.8  0.0610  -27.2  0.5718 -142.6
 8.600  0.6870  176.8   2.536   19.5  0.0593  -28.2  0.5656 -147.5
 8.800  0.6852  173.7   2.461   16.2  0.0572  -29.2  0.5580 -152.7
 9.000  0.6854  170.7   2.395   12.7  0.0552  -30.3  0.5549 -157.9
 9.200  0.6833  168.2   2.308   10.1  0.0530  -30.7  0.5503 -162.9
 9.400  0.6824  165.7   2.227    7.4  0.0507  -31.1  0.5499 -167.9
 9.600  0.6843  163.1   2.151    4.5  0.0485  -31.1  0.5549 -172.9
 9.800  0.6892  160.2   2.081    1.5  0.0462  -30.8  0.5651 -177.7
10.000  0.6957  157.4   2.017   -1.6  0.0439  -30.4  0.5791  177.7
!
!  f       NFmin   Gammaopt  rn/50
! GHz       dB    MAG  ANG    -
 0.450      0.41  0.80    5   0.26
 2.400      0.72  0.53   35   0.25
 5.500      0.93  0.54  105   0.15
10.000      1.76  0.44 -167   0.09
!
! (c) 2016  Infineon Technologies AG, Munich
