! Infineon Technologies  Discrete & RF Semiconductors
! BFP740FESD
! VCE =  2.5 V,  IC =  4.0 mA
! Common Emitter S-Parameters:                            Jan 2016
# GHz  S  MA  R  50
!  f         S11            S21            S12            S22
! GHz     MAG   ANG      MAG   ANG      MAG   ANG      MAG   ANG
 0.010  0.9565    0.2  12.671  179.5  0.0005   59.9  0.9927    0.4
 0.015  0.9571   -0.4  12.647  179.4  0.0007   76.1  0.9956   -0.2
 0.020  0.9579   -1.0  12.624  179.3  0.0010   84.1  0.9985   -0.7
 0.025  0.9575   -1.3  12.623  179.1  0.0013   85.7  0.9985   -0.9
 0.030  0.9571   -1.5  12.623  178.8  0.0015   86.8  0.9984   -1.1
 0.035  0.9567   -1.8  12.623  178.6  0.0018   87.6  0.9984   -1.2
 0.040  0.9563   -2.1  12.623  178.4  0.0021   88.1  0.9984   -1.4
 0.045  0.9559   -2.3  12.623  178.1  0.0023   88.6  0.9984   -1.6
 0.050  0.9556   -2.6  12.624  177.9  0.0026   88.9  0.9984   -1.8
 0.055  0.9552   -2.9  12.631  177.7  0.0028   88.7  0.9983   -2.0
 0.060  0.9548   -3.1  12.638  177.6  0.0031   88.5  0.9983   -2.2
 0.065  0.9544   -3.4  12.645  177.4  0.0033   88.4  0.9982   -2.4
 0.070  0.9540   -3.6  12.653  177.3  0.0036   88.2  0.9982   -2.6
 0.075  0.9537   -3.9  12.660  177.1  0.0038   88.1  0.9982   -2.7
 0.080  0.9534   -4.2  12.668  176.9  0.0041   88.0  0.9981   -2.9
 0.085  0.9531   -4.4  12.675  176.8  0.0043   87.9  0.9981   -3.1
 0.090  0.9528   -4.7  12.683  176.6  0.0046   87.8  0.9982   -3.3
 0.095  0.9525   -4.9  12.691  176.5  0.0048   87.8  0.9982   -3.5
 0.100  0.9523   -5.2  12.699  176.3  0.0051   87.7  0.9982   -3.7
 0.105  0.9521   -5.5  12.700  176.1  0.0054   87.4  0.9980   -3.9
 0.110  0.9520   -5.7  12.702  175.9  0.0056   87.1  0.9978   -4.1
 0.115  0.9519   -6.0  12.704  175.7  0.0059   86.8  0.9976   -4.2
 0.120  0.9518   -6.3  12.706  175.5  0.0061   86.5  0.9974   -4.4
 0.125  0.9517   -6.5  12.708  175.2  0.0064   86.3  0.9973   -4.6
 0.130  0.9517   -6.8  12.710  175.0  0.0067   86.1  0.9971   -4.8
 0.135  0.9517   -7.1  12.713  174.8  0.0069   85.9  0.9970   -5.0
 0.140  0.9517   -7.4  12.715  174.6  0.0072   85.7  0.9968   -5.1
 0.145  0.9517   -7.6  12.718  174.4  0.0074   85.6  0.9967   -5.3
 0.150  0.9517   -7.9  12.721  174.2  0.0077   85.4  0.9966   -5.5
 0.155  0.9515   -8.1  12.720  174.0  0.0079   85.2  0.9963   -5.7
 0.160  0.9513   -8.4  12.719  173.8  0.0082   84.9  0.9961   -5.9
 0.165  0.9512   -8.6  12.718  173.6  0.0084   84.7  0.9959   -6.1
 0.170  0.9510   -8.9  12.718  173.4  0.0087   84.5  0.9956   -6.3
 0.175  0.9509   -9.1  12.717  173.3  0.0089   84.3  0.9954   -6.4
 0.180  0.9508   -9.4  12.717  173.1  0.0092   84.1  0.9952   -6.6
 0.185  0.9507   -9.6  12.717  172.9  0.0094   84.0  0.9950   -6.8
 0.190  0.9507   -9.9  12.717  172.7  0.0097   83.8  0.9948   -7.0
 0.195  0.9506  -10.1  12.717  172.5  0.0099   83.6  0.9947   -7.2
 0.200  0.9506  -10.4  12.717  172.3  0.0102   83.5  0.9945   -7.4
 0.220  0.9498  -11.4  12.681  171.4  0.0112   82.6  0.9933   -8.1
 0.240  0.9493  -12.5  12.649  170.5  0.0122   81.9  0.9923   -8.8
 0.260  0.9484  -13.5  12.635  169.6  0.0132   81.3  0.9910   -9.6
 0.280  0.9471  -14.6  12.640  168.9  0.0142   80.7  0.9896  -10.3
 0.300  0.9461  -15.6  12.646  168.2  0.0152   80.2  0.9883  -11.0
 0.320  0.9441  -16.6  12.624  167.4  0.0162   79.5  0.9866  -11.7
 0.340  0.9425  -17.7  12.603  166.7  0.0172   78.8  0.9851  -12.4
 0.360  0.9412  -18.7  12.578  165.9  0.0182   78.1  0.9834  -13.2
 0.380  0.9404  -19.8  12.547  165.2  0.0191   77.4  0.9816  -13.9
 0.400  0.9398  -20.8  12.519  164.4  0.0201   76.8  0.9799  -14.6
 0.420  0.9382  -21.8  12.493  163.6  0.0211   76.1  0.9779  -15.3
 0.440  0.9369  -22.8  12.470  162.8  0.0221   75.4  0.9761  -16.0
 0.450  0.9363  -23.3  12.459  162.4  0.0226   75.1  0.9753  -16.4
 0.460  0.9353  -23.8  12.445  162.0  0.0231   74.8  0.9741  -16.8
 0.480  0.9335  -24.9  12.420  161.3  0.0240   74.2  0.9718  -17.5
 0.500  0.9321  -25.9  12.396  160.5  0.0250   73.6  0.9697  -18.2
 0.520  0.9298  -26.9  12.357  159.7  0.0259   72.8  0.9670  -18.9
 0.540  0.9278  -27.9  12.320  159.0  0.0268   72.1  0.9644  -19.5
 0.560  0.9261  -28.9  12.285  158.2  0.0277   71.5  0.9619  -20.2
 0.580  0.9247  -29.9  12.252  157.4  0.0287   70.9  0.9596  -20.9
 0.600  0.9235  -30.9  12.222  156.6  0.0296   70.3  0.9574  -21.6
 0.620  0.9210  -31.9  12.187  155.9  0.0305   69.6  0.9545  -22.3
 0.640  0.9188  -32.9  12.155  155.2  0.0314   68.9  0.9517  -23.0
 0.660  0.9169  -33.9  12.124  154.5  0.0323   68.3  0.9490  -23.7
 0.680  0.9153  -34.9  12.095  153.7  0.0332   67.7  0.9465  -24.5
 0.700  0.9139  -35.9  12.068  153.0  0.0341   67.1  0.9442  -25.2
 0.720  0.9116  -36.8  12.016  152.3  0.0350   66.4  0.9410  -25.9
 0.740  0.9096  -37.8  11.965  151.6  0.0358   65.8  0.9379  -26.5
 0.760  0.9078  -38.7  11.916  150.9  0.0367   65.2  0.9349  -27.2
 0.780  0.9063  -39.7  11.869  150.2  0.0375   64.6  0.9321  -27.8
 0.800  0.9050  -40.6  11.824  149.5  0.0384   64.0  0.9294  -28.5
 0.820  0.9022  -41.6  11.784  148.8  0.0392   63.3  0.9260  -29.2
 0.840  0.8997  -42.5  11.746  148.1  0.0400   62.7  0.9228  -29.8
 0.860  0.8975  -43.5  11.710  147.4  0.0408   62.1  0.9196  -30.5
 0.880  0.8955  -44.5  11.675  146.6  0.0416   61.5  0.9167  -31.2
 0.900  0.8938  -45.5  11.643  145.9  0.0424   60.9  0.9138  -31.9
 0.920  0.8909  -46.4  11.596  145.2  0.0432   60.2  0.9101  -32.6
 0.940  0.8883  -47.4  11.551  144.6  0.0440   59.6  0.9065  -33.2
 0.960  0.8859  -48.3  11.507  143.9  0.0448   59.0  0.9031  -33.9
 0.980  0.8837  -49.3  11.465  143.2  0.0456   58.4  0.8998  -34.6
 1.000  0.8818  -50.2  11.425  142.5  0.0464   57.8  0.8966  -35.3
 1.020  0.8791  -51.1  11.376  141.8  0.0471   57.2  0.8929  -35.9
 1.040  0.8766  -52.1  11.328  141.2  0.0478   56.6  0.8893  -36.6
 1.060  0.8744  -53.0  11.282  140.5  0.0485   56.0  0.8858  -37.2
 1.080  0.8724  -54.0  11.237  139.8  0.0493   55.4  0.8825  -37.9
 1.100  0.8706  -54.9  11.194  139.1  0.0500   54.9  0.8792  -38.5
 1.120  0.8679  -55.8  11.145  138.4  0.0507   54.3  0.8754  -39.1
 1.140  0.8655  -56.7  11.099  137.8  0.0513   53.7  0.8717  -39.8
 1.160  0.8632  -57.6  11.053  137.1  0.0520   53.1  0.8682  -40.5
 1.180  0.8612  -58.6  11.009  136.4  0.0527   52.5  0.8647  -41.1
 1.200  0.8594  -59.5  10.967  135.7  0.0534   52.0  0.8614  -41.8
 1.220  0.8566  -60.3  10.913  135.1  0.0540   51.4  0.8576  -42.4
 1.240  0.8539  -61.2  10.859  134.4  0.0546   50.8  0.8539  -43.0
 1.260  0.8515  -62.1  10.808  133.8  0.0552   50.3  0.8503  -43.6
 1.280  0.8493  -62.9  10.757  133.2  0.0559   49.7  0.8468  -44.3
 1.300  0.8472  -63.8  10.708  132.5  0.0565   49.2  0.8434  -44.9
 1.320  0.8441  -64.7  10.655  131.9  0.0570   48.6  0.8393  -45.5
 1.340  0.8413  -65.6  10.603  131.2  0.0576   48.0  0.8353  -46.2
 1.360  0.8386  -66.5  10.552  130.5  0.0582   47.5  0.8314  -46.8
 1.380  0.8361  -67.4  10.503  129.9  0.0587   46.9  0.8277  -47.4
 1.400  0.8339  -68.3  10.455  129.2  0.0593   46.4  0.8240  -48.1
 1.420  0.8315  -69.1  10.402  128.6  0.0598   45.9  0.8203  -48.7
 1.440  0.8292  -69.8  10.349  128.1  0.0603   45.4  0.8167  -49.2
 1.460  0.8271  -70.6  10.298  127.5  0.0608   44.9  0.8132  -49.8
 1.480  0.8252  -71.4  10.248  126.9  0.0614   44.4  0.8098  -50.4
 1.500  0.8234  -72.2  10.199  126.3  0.0619   43.9  0.8065  -51.0
 1.520  0.8208  -73.0  10.148  125.7  0.0623   43.3  0.8027  -51.6
 1.540  0.8183  -73.9  10.098  125.1  0.0628   42.8  0.7991  -52.2
 1.560  0.8160  -74.7  10.049  124.5  0.0633   42.3  0.7955  -52.8
 1.580  0.8138  -75.6  10.001  123.8  0.0637   41.7  0.7920  -53.4
 1.600  0.8119  -76.4   9.955  123.2  0.0642   41.2  0.7886  -54.0
 1.620  0.8093  -77.2   9.902  122.7  0.0646   40.7  0.7852  -54.5
 1.640  0.8068  -77.9   9.851  122.1  0.0650   40.2  0.7818  -55.1
 1.660  0.8045  -78.7   9.800  121.5  0.0654   39.7  0.7785  -55.6
 1.680  0.8023  -79.4   9.750  121.0  0.0659   39.3  0.7753  -56.2
 1.700  0.8002  -80.2   9.701  120.4  0.0663   38.8  0.7721  -56.7
 1.720  0.7979  -80.9   9.642  119.9  0.0667   38.4  0.7688  -57.2
 1.740  0.7957  -81.6   9.583  119.3  0.0670   37.9  0.7655  -57.8
 1.760  0.7937  -82.3   9.525  118.7  0.0674   37.5  0.7623  -58.3
 1.780  0.7918  -83.1   9.469  118.2  0.0677   37.0  0.7592  -58.9
 1.800  0.7900  -83.8   9.413  117.6  0.0681   36.6  0.7561  -59.4
 1.820  0.7876  -84.6   9.369  117.1  0.0685   36.2  0.7528  -60.0
 1.840  0.7854  -85.3   9.326  116.6  0.0688   35.7  0.7496  -60.5
 1.860  0.7833  -86.1   9.284  116.1  0.0692   35.3  0.7465  -61.1
 1.880  0.7814  -86.8   9.243  115.5  0.0696   34.8  0.7434  -61.6
 1.900  0.7796  -87.6   9.202  115.0  0.0700   34.4  0.7404  -62.2
 1.920  0.7776  -88.2   9.148  114.5  0.0703   34.0  0.7374  -62.7
 1.940  0.7756  -88.9   9.094  114.0  0.0705   33.6  0.7345  -63.1
 1.960  0.7738  -89.5   9.041  113.5  0.0708   33.1  0.7316  -63.6
 1.980  0.7720  -90.2   8.989  112.9  0.0711   32.7  0.7288  -64.1
 2.000  0.7704  -90.8   8.938  112.4  0.0714   32.3  0.7260  -64.6
 2.020  0.7681  -91.4   8.889  111.9  0.0716   31.9  0.7229  -65.1
 2.040  0.7660  -92.1   8.840  111.4  0.0719   31.5  0.7199  -65.6
 2.060  0.7639  -92.7   8.793  111.0  0.0721   31.0  0.7169  -66.1
 2.080  0.7619  -93.4   8.745  110.5  0.0724   30.6  0.7140  -66.6
 2.100  0.7600  -94.1   8.699  110.0  0.0727   30.2  0.7112  -67.1
 2.120  0.7583  -94.7   8.653  109.5  0.0729   29.8  0.7084  -67.7
 2.140  0.7566  -95.4   8.608  109.0  0.0732   29.4  0.7056  -68.2
 2.160  0.7550  -96.1   8.563  108.4  0.0735   29.0  0.7030  -68.7
 2.180  0.7536  -96.7   8.519  107.9  0.0737   28.6  0.7004  -69.3
 2.200  0.7522  -97.4   8.476  107.4  0.0740   28.2  0.6978  -69.8
 2.220  0.7500  -98.0   8.430  107.0  0.0742   27.8  0.6951  -70.3
 2.240  0.7478  -98.6   8.385  106.5  0.0744   27.4  0.6924  -70.7
 2.260  0.7457  -99.3   8.340  106.0  0.0747   27.1  0.6898  -71.2
 2.280  0.7438  -99.9   8.296  105.6  0.0749   26.7  0.6872  -71.7
 2.300  0.7419 -100.5   8.253  105.1  0.0751   26.3  0.6847  -72.2
 2.320  0.7401 -101.1   8.210  104.6  0.0753   26.0  0.6822  -72.6
 2.340  0.7384 -101.8   8.167  104.2  0.0756   25.6  0.6798  -73.1
 2.360  0.7368 -102.4   8.125  103.7  0.0758   25.2  0.6774  -73.6
 2.380  0.7352 -103.1   8.084  103.2  0.0761   24.9  0.6751  -74.1
 2.400  0.7338 -103.7   8.043  102.7  0.0763   24.5  0.6728  -74.6
 2.420  0.7319 -104.3   7.999  102.3  0.0764   24.1  0.6703  -75.1
 2.440  0.7301 -104.9   7.955  101.9  0.0766   23.8  0.6678  -75.5
 2.460  0.7284 -105.5   7.911  101.4  0.0767   23.4  0.6654  -76.0
 2.480  0.7268 -106.1   7.868  101.0  0.0768   23.0  0.6630  -76.4
 2.500  0.7252 -106.7   7.825  100.6  0.0770   22.7  0.6606  -76.9
 2.520  0.7238 -107.3   7.783  100.1  0.0771   22.3  0.6583  -77.4
 2.540  0.7224 -107.9   7.741   99.7  0.0772   22.0  0.6561  -77.9
 2.560  0.7211 -108.6   7.700   99.2  0.0774   21.6  0.6539  -78.3
 2.580  0.7198 -109.2   7.659   98.8  0.0775   21.3  0.6517  -78.8
 2.600  0.7187 -109.8   7.619   98.3  0.0777   20.9  0.6496  -79.3
 2.620  0.7168 -110.3   7.577   97.9  0.0778   20.6  0.6475  -79.7
 2.640  0.7149 -110.9   7.536   97.5  0.0779   20.3  0.6454  -80.1
 2.660  0.7131 -111.4   7.495   97.1  0.0780   19.9  0.6433  -80.6
 2.680  0.7114 -112.0   7.454   96.6  0.0781   19.6  0.6413  -81.0
 2.700  0.7097 -112.5   7.414   96.2  0.0782   19.3  0.6393  -81.4
 2.720  0.7081 -113.1   7.374   95.8  0.0783   19.0  0.6373  -81.8
 2.740  0.7065 -113.6   7.335   95.3  0.0784   18.7  0.6354  -82.3
 2.760  0.7051 -114.2   7.296   94.9  0.0785   18.3  0.6335  -82.7
 2.780  0.7036 -114.7   7.257   94.5  0.0786   18.0  0.6317  -83.2
 2.800  0.7023 -115.3   7.219   94.0  0.0787   17.7  0.6299  -83.6
 2.820  0.7011 -115.8   7.181   93.6  0.0788   17.4  0.6282  -84.0
 2.840  0.7000 -116.3   7.143   93.3  0.0788   17.1  0.6265  -84.4
 2.860  0.6989 -116.8   7.106   92.9  0.0789   16.8  0.6248  -84.7
 2.880  0.6979 -117.3   7.068   92.5  0.0789   16.5  0.6232  -85.1
 2.900  0.6970 -117.8   7.031   92.1  0.0790   16.2  0.6215  -85.5
 2.920  0.6961 -118.3   6.995   91.7  0.0790   15.9  0.6200  -85.9
 2.940  0.6952 -118.9   6.959   91.3  0.0791   15.6  0.6184  -86.3
 2.960  0.6944 -119.4   6.923   90.9  0.0792   15.3  0.6169  -86.7
 2.980  0.6937 -119.9   6.887   90.5  0.0792   15.0  0.6154  -87.1
 3.000  0.6930 -120.4   6.852   90.1  0.0793   14.7  0.6139  -87.5
 3.100  0.6872 -122.6   6.682   88.5  0.0793   13.5  0.6072  -89.1
 3.200  0.6823 -124.8   6.517   86.9  0.0793   12.2  0.6010  -90.6
 3.300  0.6785 -127.0   6.358   85.1  0.0794   11.0  0.5952  -92.3
 3.400  0.6757 -129.2   6.205   83.3  0.0795    9.7  0.5900  -93.9
 3.500  0.6740 -131.5   6.059   81.4  0.0796    8.5  0.5852  -95.6
 3.600  0.6715 -133.4   5.932   80.0  0.0796    7.5  0.5808  -96.9
 3.700  0.6699 -135.4   5.808   78.5  0.0795    6.5  0.5767  -98.2
 3.800  0.6689 -137.3   5.689   76.9  0.0795    5.5  0.5729  -99.5
 3.900  0.6688 -139.3   5.574   75.3  0.0796    4.5  0.5695 -100.8
 4.000  0.6694 -141.2   5.464   73.6  0.0796    3.5  0.5663 -102.2
 4.100  0.6685 -143.1   5.357   72.1  0.0794    2.5  0.5623 -103.7
 4.200  0.6683 -145.0   5.253   70.6  0.0793    1.6  0.5587 -105.1
 4.300  0.6689 -146.9   5.153   69.0  0.0792    0.6  0.5555 -106.6
 4.400  0.6701 -148.7   5.057   67.4  0.0791   -0.3  0.5526 -108.2
 4.500  0.6721 -150.6   4.966   65.7  0.0790   -1.3  0.5502 -109.7
 4.600  0.6714 -152.3   4.867   64.3  0.0786   -2.2  0.5465 -111.1
 4.700  0.6713 -153.9   4.771   62.8  0.0782   -3.1  0.5431 -112.5
 4.800  0.6718 -155.6   4.678   61.3  0.0778   -4.0  0.5400 -113.9
 4.900  0.6728 -157.2   4.588   59.7  0.0774   -5.0  0.5373 -115.3
 5.000  0.6744 -158.9   4.502   58.1  0.0771   -5.9  0.5349 -116.7
 5.100  0.6724 -160.3   4.420   56.8  0.0766   -6.7  0.5314 -117.9
 5.200  0.6709 -161.8   4.340   55.4  0.0761   -7.5  0.5281 -119.2
 5.300  0.6698 -163.3   4.263   54.0  0.0756   -8.3  0.5251 -120.5
 5.400  0.6691 -164.7   4.189   52.5  0.0751   -9.1  0.5224 -121.8
 5.500  0.6689 -166.2   4.117   51.0  0.0746   -9.9  0.5199 -123.1
 5.600  0.6670 -167.7   4.054   49.7  0.0740  -10.6  0.5159 -124.5
 5.700  0.6655 -169.2   3.992   48.4  0.0735  -11.3  0.5122 -125.8
 5.800  0.6645 -170.7   3.933   47.0  0.0729  -12.1  0.5088 -127.2
 5.900  0.6640 -172.2   3.876   45.6  0.0724  -12.8  0.5058 -128.7
 6.000  0.6639 -173.7   3.822   44.1  0.0719  -13.6  0.5030 -130.1
 6.100  0.6620 -175.2   3.763   42.8  0.0711  -14.3  0.4991 -131.6
 6.200  0.6606 -176.8   3.705   41.4  0.0703  -15.0  0.4955 -133.0
 6.300  0.6597 -178.4   3.650   40.0  0.0696  -15.7  0.4923 -134.5
 6.400  0.6592 -179.9   3.597   38.5  0.0688  -16.4  0.4894 -136.1
 6.500  0.6593  178.5   3.547   37.0  0.0681  -17.1  0.4868 -137.6
 6.600  0.6585  177.0   3.489   35.7  0.0670  -17.5  0.4825 -138.8
 6.800  0.6582  173.9   3.379   32.9  0.0649  -18.4  0.4745 -141.4
 7.000  0.6598  170.9   3.278   29.9  0.0628  -19.4  0.4675 -144.0
 7.200  0.6615  168.2   3.175   27.5  0.0607  -19.2  0.4584 -146.6
 7.400  0.6647  165.4   3.078   24.9  0.0586  -19.0  0.4503 -149.4
 7.600  0.6705  162.7   2.991   22.3  0.0570  -18.6  0.4441 -152.8
 7.800  0.6790  159.9   2.913   19.4  0.0561  -17.8  0.4406 -156.9
 8.000  0.6890  157.2   2.843   16.5  0.0552  -17.1  0.4393 -161.0
 8.200  0.6934  154.6   2.750   13.6  0.0546  -17.1  0.4389 -166.1
 8.400  0.6992  152.0   2.664   10.5  0.0541  -17.0  0.4420 -171.1
 8.600  0.7020  149.6   2.574    7.6  0.0533  -17.0  0.4450 -176.2
 8.800  0.7016  147.4   2.480    4.8  0.0523  -17.0  0.4481  178.6
 9.000  0.7023  145.2   2.391    1.8  0.0513  -17.0  0.4548  173.6
 9.200  0.7037  143.5   2.300   -0.2  0.0503  -16.6  0.4624  168.6
 9.400  0.7058  141.8   2.213   -2.4  0.0494  -16.1  0.4734  163.9
 9.600  0.7115  139.8   2.132   -4.7  0.0485  -15.5  0.4891  159.4
 9.800  0.7209  137.7   2.059   -7.3  0.0476  -14.5  0.5094  155.2
10.000  0.7314  135.6   1.990  -10.0  0.0468  -13.6  0.5322  151.4
!
!  f       NFmin   Gammaopt  rn/50
! GHz       dB    MAG  ANG    -
 0.450      0.46  0.63    6   0.14
 2.400      0.64  0.36   45   0.14
 5.500      0.85  0.44  128   0.09
10.000      1.65  0.47 -141   0.15
!
! (c) 2016  Infineon Technologies AG, Munich
