! Infineon Technologies  Discrete & RF Semiconductors
! BFP740FESD
! VCE =  1.0 V,  IC =  35 mA
! Common Emitter S-Parameters:                            Jan 2016
# GHz  S  MA  R  50
!  f         S11            S21            S12            S22
! GHz     MAG   ANG      MAG   ANG      MAG   ANG      MAG   ANG
 0.010  0.2453   -4.8  17.142  179.0  0.0037   11.0  0.3023    1.7
 0.015  0.2467   -9.1  17.152  178.0  0.0039   15.5  0.3045   -0.2
 0.020  0.2495  -13.4  17.166  177.1  0.0042   19.4  0.3070   -2.0
 0.025  0.2505  -16.1  17.127  176.5  0.0043   22.0  0.3071   -2.7
 0.030  0.2521  -18.8  17.091  175.8  0.0044   24.4  0.3072   -3.3
 0.035  0.2542  -21.4  17.057  175.2  0.0046   26.7  0.3073   -4.0
 0.040  0.2568  -24.0  17.025  174.5  0.0047   28.8  0.3075   -4.6
 0.045  0.2600  -26.5  16.995  173.9  0.0049   30.9  0.3077   -5.3
 0.050  0.2636  -29.0  16.967  173.2  0.0050   32.8  0.3080   -5.9
 0.055  0.2650  -31.7  16.929  172.5  0.0052   34.4  0.3075   -6.5
 0.060  0.2669  -34.3  16.893  171.7  0.0054   35.9  0.3070   -7.2
 0.065  0.2694  -36.9  16.861  171.0  0.0056   37.2  0.3065   -7.8
 0.070  0.2724  -39.4  16.831  170.2  0.0058   38.5  0.3061   -8.5
 0.075  0.2760  -41.9  16.804  169.5  0.0060   39.7  0.3057   -9.1
 0.080  0.2801  -44.3  16.780  168.7  0.0062   40.8  0.3054   -9.8
 0.085  0.2846  -46.7  16.759  168.0  0.0064   41.8  0.3051  -10.4
 0.090  0.2896  -48.9  16.741  167.2  0.0067   42.8  0.3048  -11.1
 0.095  0.2951  -51.1  16.725  166.5  0.0069   43.7  0.3046  -11.7
 0.100  0.3009  -53.2  16.713  165.7  0.0071   44.5  0.3044  -12.4
 0.105  0.3045  -55.3  16.648  165.0  0.0073   45.1  0.3034  -13.0
 0.110  0.3086  -57.3  16.586  164.3  0.0075   45.6  0.3024  -13.6
 0.115  0.3130  -59.2  16.526  163.6  0.0078   46.2  0.3014  -14.2
 0.120  0.3177  -61.1  16.468  162.9  0.0080   46.6  0.3005  -14.8
 0.125  0.3228  -62.9  16.413  162.2  0.0082   47.1  0.2996  -15.4
 0.130  0.3282  -64.7  16.360  161.5  0.0084   47.5  0.2988  -16.0
 0.135  0.3339  -66.4  16.310  160.8  0.0086   48.0  0.2980  -16.6
 0.140  0.3399  -68.1  16.263  160.1  0.0089   48.4  0.2972  -17.2
 0.145  0.3462  -69.7  16.218  159.3  0.0091   48.7  0.2964  -17.8
 0.150  0.3527  -71.2  16.176  158.6  0.0093   49.1  0.2957  -18.4
 0.155  0.3571  -72.8  16.097  158.0  0.0095   49.2  0.2945  -18.9
 0.160  0.3617  -74.3  16.021  157.3  0.0097   49.3  0.2934  -19.5
 0.165  0.3666  -75.8  15.946  156.7  0.0100   49.4  0.2923  -20.0
 0.170  0.3718  -77.2  15.873  156.1  0.0102   49.5  0.2912  -20.6
 0.175  0.3772  -78.7  15.803  155.4  0.0104   49.5  0.2902  -21.1
 0.180  0.3828  -80.0  15.734  154.8  0.0106   49.6  0.2891  -21.7
 0.185  0.3886  -81.3  15.667  154.1  0.0108   49.7  0.2881  -22.3
 0.190  0.3946  -82.6  15.603  153.4  0.0111   49.8  0.2872  -22.8
 0.195  0.4008  -83.9  15.540  152.8  0.0113   49.8  0.2862  -23.4
 0.200  0.4072  -85.1  15.480  152.1  0.0115   49.9  0.2853  -24.0
 0.220  0.4253  -90.0  15.130  149.8  0.0123   49.5  0.2804  -26.0
 0.240  0.4462  -94.4  14.807  147.4  0.0131   49.1  0.2759  -28.0
 0.260  0.4659  -98.4  14.493  145.1  0.0139   48.6  0.2711  -29.9
 0.280  0.4840 -102.0  14.182  143.0  0.0146   48.0  0.2659  -31.6
 0.300  0.5039 -105.4  13.892  140.8  0.0153   47.4  0.2609  -33.5
 0.320  0.5192 -108.6  13.560  138.9  0.0159   46.7  0.2556  -35.2
 0.340  0.5360 -111.7  13.243  137.0  0.0166   46.0  0.2505  -36.9
 0.360  0.5513 -114.4  12.929  135.1  0.0172   45.3  0.2457  -38.5
 0.380  0.5649 -117.0  12.616  133.4  0.0177   44.6  0.2410  -40.0
 0.400  0.5795 -119.5  12.315  131.5  0.0183   43.9  0.2364  -41.5
 0.420  0.5909 -121.8  12.023  130.0  0.0188   43.2  0.2317  -42.9
 0.440  0.6031 -124.0  11.739  128.4  0.0193   42.6  0.2271  -44.3
 0.450  0.6096 -125.1  11.601  127.6  0.0195   42.3  0.2249  -45.0
 0.460  0.6144 -126.1  11.461  126.9  0.0197   41.9  0.2226  -45.6
 0.480  0.6245 -128.1  11.187  125.5  0.0201   41.3  0.2181  -46.9
 0.500  0.6354 -130.0  10.920  124.0  0.0205   40.6  0.2137  -48.3
 0.520  0.6424 -131.7  10.671  122.9  0.0209   40.0  0.2098  -49.3
 0.540  0.6499 -133.3  10.426  121.7  0.0212   39.4  0.2059  -50.4
 0.560  0.6579 -134.9  10.186  120.4  0.0216   38.9  0.2021  -51.5
 0.580  0.6664 -136.5   9.951  119.1  0.0219   38.3  0.1984  -52.7
 0.600  0.6754 -138.0   9.722  117.7  0.0223   37.8  0.1948  -53.9
 0.620  0.6808 -139.4   9.516  116.8  0.0226   37.3  0.1915  -54.9
 0.640  0.6867 -140.7   9.312  115.8  0.0229   36.8  0.1882  -55.9
 0.660  0.6928 -142.0   9.112  114.8  0.0231   36.3  0.1849  -57.0
 0.680  0.6994 -143.3   8.914  113.8  0.0234   35.9  0.1818  -58.1
 0.700  0.7063 -144.6   8.719  112.7  0.0237   35.4  0.1787  -59.2
 0.720  0.7104 -145.7   8.546  111.9  0.0239   35.0  0.1760  -60.1
 0.740  0.7148 -146.7   8.375  111.0  0.0241   34.6  0.1733  -61.0
 0.760  0.7194 -147.8   8.205  110.1  0.0244   34.2  0.1706  -61.9
 0.780  0.7242 -148.8   8.038  109.2  0.0246   33.8  0.1680  -62.9
 0.800  0.7293 -149.8   7.873  108.2  0.0248   33.4  0.1655  -63.9
 0.820  0.7327 -150.7   7.728  107.5  0.0250   33.1  0.1633  -64.7
 0.840  0.7363 -151.7   7.584  106.7  0.0252   32.7  0.1611  -65.6
 0.860  0.7401 -152.6   7.442  105.9  0.0253   32.4  0.1590  -66.5
 0.880  0.7440 -153.5   7.301  105.1  0.0255   32.1  0.1569  -67.4
 0.900  0.7482 -154.4   7.161  104.3  0.0257   31.8  0.1549  -68.3
 0.920  0.7508 -155.2   7.038  103.6  0.0258   31.5  0.1529  -69.2
 0.940  0.7534 -155.9   6.915  103.0  0.0260   31.3  0.1510  -70.0
 0.960  0.7563 -156.7   6.794  102.3  0.0261   31.0  0.1491  -70.9
 0.980  0.7592 -157.5   6.673  101.6  0.0263   30.8  0.1473  -71.9
 1.000  0.7623 -158.2   6.554  100.8  0.0264   30.5  0.1455  -72.8
 1.020  0.7645 -158.8   6.448  100.2  0.0265   30.3  0.1442  -73.6
 1.040  0.7668 -159.5   6.344   99.7  0.0266   30.1  0.1428  -74.5
 1.060  0.7692 -160.1   6.239   99.1  0.0268   29.8  0.1416  -75.3
 1.080  0.7717 -160.8   6.136   98.4  0.0269   29.6  0.1403  -76.2
 1.100  0.7743 -161.4   6.033   97.8  0.0270   29.4  0.1391  -77.1
 1.120  0.7762 -162.0   5.942   97.3  0.0271   29.2  0.1379  -78.0
 1.140  0.7782 -162.6   5.852   96.7  0.0272   29.0  0.1368  -78.9
 1.160  0.7803 -163.2   5.762   96.1  0.0273   28.9  0.1357  -79.8
 1.180  0.7825 -163.8   5.673   95.5  0.0274   28.7  0.1346  -80.8
 1.200  0.7848 -164.4   5.584   94.9  0.0275   28.5  0.1336  -81.7
 1.220  0.7863 -164.9   5.505   94.4  0.0276   28.4  0.1329  -82.5
 1.240  0.7878 -165.4   5.426   93.9  0.0277   28.2  0.1322  -83.3
 1.260  0.7894 -166.0   5.347   93.4  0.0278   28.1  0.1315  -84.1
 1.280  0.7911 -166.5   5.269   92.9  0.0279   27.9  0.1308  -84.9
 1.300  0.7928 -167.0   5.191   92.4  0.0280   27.8  0.1302  -85.7
 1.320  0.7938 -167.5   5.120   91.9  0.0281   27.7  0.1298  -86.5
 1.340  0.7949 -167.9   5.050   91.5  0.0281   27.6  0.1294  -87.4
 1.360  0.7961 -168.4   4.980   91.0  0.0282   27.5  0.1290  -88.3
 1.380  0.7973 -168.8   4.910   90.5  0.0282   27.4  0.1286  -89.1
 1.400  0.7985 -169.3   4.841   90.0  0.0283   27.3  0.1283  -90.0
 1.420  0.7994 -169.7   4.782   89.6  0.0284   27.2  0.1280  -90.7
 1.440  0.8003 -170.1   4.723   89.2  0.0285   27.1  0.1278  -91.4
 1.460  0.8013 -170.5   4.665   88.7  0.0285   27.1  0.1275  -92.1
 1.480  0.8023 -170.9   4.607   88.3  0.0286   27.0  0.1273  -92.8
 1.500  0.8033 -171.3   4.549   87.8  0.0287   26.9  0.1271  -93.5
 1.520  0.8044 -171.7   4.494   87.4  0.0288   26.9  0.1273  -94.3
 1.540  0.8056 -172.1   4.439   87.0  0.0288   26.8  0.1274  -95.1
 1.560  0.8067 -172.4   4.384   86.5  0.0289   26.8  0.1276  -95.8
 1.580  0.8079 -172.8   4.330   86.1  0.0289   26.7  0.1279  -96.6
 1.600  0.8092 -173.2   4.276   85.6  0.0290   26.7  0.1281  -97.4
 1.620  0.8097 -173.6   4.229   85.2  0.0291   26.6  0.1282  -98.0
 1.640  0.8103 -174.0   4.181   84.8  0.0292   26.6  0.1283  -98.7
 1.660  0.8109 -174.4   4.134   84.4  0.0292   26.5  0.1285  -99.3
 1.680  0.8116 -174.8   4.088   84.0  0.0293   26.5  0.1286 -100.0
 1.700  0.8123 -175.2   4.041   83.6  0.0294   26.4  0.1288 -100.6
 1.720  0.8129 -175.5   3.996   83.2  0.0295   26.4  0.1293 -101.2
 1.740  0.8136 -175.8   3.950   82.9  0.0295   26.4  0.1297 -101.8
 1.760  0.8143 -176.0   3.905   82.5  0.0296   26.3  0.1302 -102.4
 1.780  0.8150 -176.3   3.861   82.1  0.0296   26.3  0.1307 -103.0
 1.800  0.8157 -176.6   3.816   81.7  0.0297   26.3  0.1312 -103.6
 1.820  0.8163 -177.0   3.777   81.4  0.0297   26.3  0.1315 -104.3
 1.840  0.8170 -177.3   3.738   81.0  0.0298   26.2  0.1319 -104.9
 1.860  0.8177 -177.7   3.699   80.6  0.0298   26.2  0.1323 -105.6
 1.880  0.8184 -178.0   3.660   80.3  0.0299   26.1  0.1327 -106.2
 1.900  0.8192 -178.4   3.621   79.9  0.0299   26.1  0.1331 -106.9
 1.920  0.8194 -178.6   3.587   79.6  0.0300   26.1  0.1337 -107.3
 1.940  0.8195 -178.9   3.552   79.2  0.0300   26.2  0.1343 -107.8
 1.960  0.8197 -179.1   3.518   78.9  0.0301   26.2  0.1349 -108.2
 1.980  0.8199 -179.4   3.484   78.6  0.0301   26.3  0.1356 -108.7
 2.000  0.8201 -179.6   3.450   78.2  0.0302   26.3  0.1362 -109.1
 2.020  0.8202 -179.9   3.418   77.9  0.0303   26.3  0.1368 -109.6
 2.040  0.8203  179.8   3.387   77.5  0.0303   26.3  0.1374 -110.1
 2.060  0.8204  179.5   3.355   77.2  0.0304   26.3  0.1381 -110.6
 2.080  0.8206  179.2   3.324   76.8  0.0304   26.3  0.1387 -111.2
 2.100  0.8208  178.8   3.292   76.5  0.0305   26.3  0.1394 -111.7
 2.120  0.8210  178.5   3.261   76.1  0.0306   26.3  0.1400 -112.2
 2.140  0.8212  178.2   3.230   75.8  0.0306   26.3  0.1407 -112.6
 2.160  0.8215  177.9   3.199   75.4  0.0307   26.3  0.1414 -113.1
 2.180  0.8218  177.6   3.169   75.0  0.0307   26.3  0.1421 -113.6
 2.200  0.8221  177.3   3.138   74.6  0.0308   26.3  0.1428 -114.1
 2.220  0.8224  177.0   3.112   74.3  0.0309   26.3  0.1436 -114.6
 2.240  0.8226  176.8   3.086   74.0  0.0309   26.3  0.1443 -115.0
 2.260  0.8229  176.5   3.060   73.7  0.0309   26.3  0.1451 -115.5
 2.280  0.8233  176.3   3.034   73.4  0.0310   26.3  0.1459 -116.0
 2.300  0.8236  176.0   3.008   73.1  0.0311   26.3  0.1467 -116.4
 2.320  0.8239  175.7   2.982   72.7  0.0311   26.3  0.1476 -116.9
 2.340  0.8243  175.5   2.956   72.4  0.0312   26.3  0.1484 -117.3
 2.360  0.8247  175.2   2.931   72.1  0.0312   26.3  0.1492 -117.7
 2.380  0.8251  175.0   2.905   71.7  0.0313   26.3  0.1501 -118.2
 2.400  0.8255  174.7   2.880   71.4  0.0313   26.3  0.1509 -118.6
 2.420  0.8258  174.4   2.857   71.1  0.0313   26.3  0.1518 -119.0
 2.440  0.8261  174.2   2.834   70.8  0.0314   26.4  0.1528 -119.4
 2.460  0.8264  173.9   2.812   70.5  0.0314   26.4  0.1537 -119.8
 2.480  0.8267  173.6   2.789   70.2  0.0315   26.5  0.1547 -120.2
 2.500  0.8271  173.3   2.766   69.9  0.0315   26.5  0.1557 -120.6
 2.520  0.8274  173.1   2.744   69.6  0.0315   26.5  0.1566 -121.0
 2.540  0.8278  172.8   2.722   69.3  0.0316   26.6  0.1576 -121.4
 2.560  0.8282  172.5   2.699   69.0  0.0316   26.6  0.1586 -121.8
 2.580  0.8287  172.3   2.677   68.6  0.0317   26.7  0.1596 -122.1
 2.600  0.8291  172.0   2.655   68.3  0.0317   26.7  0.1606 -122.5
 2.620  0.8292  171.8   2.635   68.0  0.0317   26.8  0.1617 -122.8
 2.640  0.8294  171.6   2.615   67.8  0.0318   26.8  0.1628 -123.1
 2.660  0.8295  171.3   2.595   67.5  0.0318   26.9  0.1640 -123.4
 2.680  0.8297  171.1   2.575   67.2  0.0319   26.9  0.1651 -123.7
 2.700  0.8299  170.9   2.556   66.9  0.0319   27.0  0.1662 -124.1
 2.720  0.8301  170.7   2.536   66.6  0.0320   27.1  0.1674 -124.3
 2.740  0.8303  170.5   2.516   66.3  0.0320   27.1  0.1685 -124.6
 2.760  0.8305  170.2   2.497   66.0  0.0321   27.2  0.1697 -124.9
 2.780  0.8308  170.0   2.477   65.7  0.0321   27.2  0.1708 -125.2
 2.800  0.8310  169.8   2.458   65.4  0.0322   27.3  0.1720 -125.5
 2.820  0.8313  169.6   2.441   65.1  0.0323   27.4  0.1732 -125.7
 2.840  0.8317  169.4   2.424   64.9  0.0323   27.4  0.1743 -126.0
 2.860  0.8320  169.2   2.408   64.6  0.0324   27.5  0.1755 -126.2
 2.880  0.8324  169.0   2.391   64.4  0.0324   27.5  0.1767 -126.5
 2.900  0.8328  168.8   2.374   64.1  0.0325   27.6  0.1779 -126.7
 2.920  0.8332  168.6   2.358   63.8  0.0326   27.6  0.1790 -126.9
 2.940  0.8336  168.4   2.341   63.6  0.0326   27.7  0.1802 -127.1
 2.960  0.8340  168.2   2.325   63.3  0.0327   27.7  0.1814 -127.4
 2.980  0.8344  168.0   2.308   63.0  0.0327   27.8  0.1826 -127.6
 3.000  0.8348  167.8   2.292   62.7  0.0328   27.8  0.1838 -127.8
 3.100  0.8361  166.8   2.224   61.5  0.0331   28.2  0.1890 -128.6
 3.200  0.8376  165.8   2.158   60.3  0.0334   28.5  0.1943 -129.4
 3.300  0.8393  164.8   2.092   59.0  0.0337   28.8  0.1997 -130.2
 3.400  0.8414  163.9   2.028   57.6  0.0340   29.2  0.2050 -130.9
 3.500  0.8436  162.9   1.965   56.1  0.0343   29.5  0.2104 -131.6
 3.600  0.8446  161.9   1.915   54.9  0.0347   29.9  0.2142 -132.3
 3.700  0.8459  160.9   1.866   53.7  0.0351   30.2  0.2180 -133.0
 3.800  0.8474  159.9   1.817   52.3  0.0355   30.5  0.2218 -133.7
 3.900  0.8492  158.9   1.770   51.0  0.0359   30.9  0.2257 -134.4
 4.000  0.8512  157.9   1.724   49.5  0.0363   31.2  0.2296 -135.0
 4.100  0.8518  157.0   1.682   48.3  0.0368   31.4  0.2329 -136.1
 4.200  0.8526  156.0   1.641   47.1  0.0372   31.6  0.2363 -137.3
 4.300  0.8537  155.1   1.601   45.7  0.0377   31.8  0.2397 -138.3
 4.400  0.8550  154.1   1.561   44.4  0.0381   32.0  0.2433 -139.4
 4.500  0.8565  153.2   1.523   42.9  0.0386   32.2  0.2469 -140.4
 4.600  0.8558  152.4   1.488   41.8  0.0391   32.4  0.2502 -141.5
 4.700  0.8553  151.6   1.453   40.7  0.0395   32.6  0.2536 -142.6
 4.800  0.8550  150.9   1.418   39.5  0.0400   32.8  0.2570 -143.6
 4.900  0.8548  150.1   1.385   38.2  0.0404   33.0  0.2606 -144.6
 5.000  0.8548  149.3   1.352   36.9  0.0409   33.2  0.2642 -145.6
 5.100  0.8533  148.5   1.324   35.9  0.0414   33.3  0.2664 -146.6
 5.200  0.8520  147.7   1.297   34.8  0.0419   33.4  0.2688 -147.7
 5.300  0.8509  146.9   1.270   33.7  0.0425   33.5  0.2712 -148.7
 5.400  0.8499  146.1   1.243   32.5  0.0430   33.6  0.2736 -149.6
 5.500  0.8491  145.3   1.217   31.3  0.0435   33.7  0.2762 -150.6
 5.600  0.8485  144.3   1.196   30.2  0.0441   33.7  0.2775 -152.0
 5.700  0.8482  143.3   1.175   29.0  0.0446   33.7  0.2790 -153.4
 5.800  0.8481  142.3   1.155   27.8  0.0452   33.6  0.2806 -154.8
 5.900  0.8483  141.3   1.135   26.5  0.0457   33.6  0.2824 -156.2
 6.000  0.8487  140.3   1.116   25.2  0.0463   33.6  0.2844 -157.5
 6.100  0.8481  139.2   1.096   24.0  0.0468   33.6  0.2858 -159.1
 6.200  0.8478  138.2   1.076   22.9  0.0473   33.5  0.2875 -160.6
 6.300  0.8478  137.1   1.057   21.6  0.0478   33.5  0.2894 -162.2
 6.400  0.8481  136.1   1.038   20.3  0.0483   33.4  0.2914 -163.7
 6.500  0.8487  135.0   1.020   19.0  0.0488   33.4  0.2937 -165.2
 6.600  0.8490  134.1   1.001   17.9  0.0493   33.6  0.2940 -166.7
 6.800  0.8502  132.2   0.965   15.6  0.0504   34.0  0.2953 -169.5
 7.000  0.8523  130.4   0.931   13.1  0.0515   34.3  0.2973 -172.4
 7.200  0.8543  128.6   0.899   11.1  0.0534   34.6  0.2964 -175.9
 7.400  0.8572  126.8   0.868    8.9  0.0553   35.0  0.2967 -179.4
 7.600  0.8611  125.0   0.839    6.6  0.0574   34.6  0.2993  176.4
 7.800  0.8660  123.2   0.812    4.2  0.0598   33.8  0.3050  171.8
 8.000  0.8718  121.4   0.786    1.6  0.0622   33.0  0.3126  167.3
 8.200  0.8696  119.7   0.755   -0.7  0.0637   31.3  0.3231  162.1
 8.400  0.8681  118.0   0.726   -3.1  0.0653   29.8  0.3360  157.4
 8.600  0.8646  116.6   0.697   -5.3  0.0664   28.3  0.3491  152.7
 8.800  0.8588  115.5   0.669   -7.3  0.0671   27.0  0.3625  148.2
 9.000  0.8534  114.4   0.641   -9.5  0.0678   25.7  0.3780  144.0
 9.200  0.8538  113.6   0.618  -10.7  0.0683   24.6  0.3959  140.1
 9.400  0.8543  112.8   0.596  -11.9  0.0689   23.5  0.4154  136.6
 9.600  0.8601  111.7   0.575  -13.5  0.0694   22.6  0.4387  133.6
 9.800  0.8713  110.5   0.557  -15.5  0.0699   21.9  0.4655  131.0
10.000  0.8830  109.2   0.539  -17.6  0.0704   21.1  0.4932  128.7
!
!  f       NFmin   Gammaopt  rn/50
! GHz       dB    MAG  ANG    -
 0.450      1.06  0.21 -171   0.08
 2.400      1.10  0.22 -158   0.09
 5.500      1.26  0.25 -159   0.10
10.000      1.79  0.43 -113   0.25
!
! (c) 2016  Infineon Technologies AG, Munich
