! Infineon Technologies  Discrete & RF Semiconductors
! BFP740F
! VCE =  0.5 V,  IC =  15 mA
! Common Emitter S-Parameters:                            Oct 2012
# GHz  S  MA  R  50
!  f         S11            S21            S12            S22
! GHz     MAG   ANG      MAG   ANG      MAG   ANG      MAG   ANG
 0.030  0.6886   -6.7  24.536  177.1  0.0028   82.0  0.9531   -3.6
 0.040  0.6935   -8.7  25.052  176.3  0.0039   78.7  0.9531   -4.9
 0.050  0.6998  -10.6  25.844  175.3  0.0041   85.4  0.9502   -6.2
 0.060  0.7094  -12.8  26.391  173.9  0.0061   84.1  0.9518   -7.4
 0.070  0.7126  -15.1  26.737  172.2  0.0068   79.7  0.9498   -8.8
 0.080  0.7144  -17.2  26.665  170.6  0.0077   82.6  0.9493  -10.0
 0.090  0.7120  -19.4  26.403  169.1  0.0082   79.1  0.9485  -11.3
 0.100  0.7067  -21.7  25.961  167.8  0.0093   82.4  0.9470  -12.7
 0.110  0.7026  -23.9  25.507  166.6  0.0108   79.9  0.9438  -14.0
 0.120  0.6982  -26.2  25.132  165.6  0.0109   79.0  0.9397  -15.4
 0.130  0.6962  -28.2  24.942  164.6  0.0121   79.0  0.9342  -16.6
 0.140  0.6956  -30.1  24.957  163.8  0.0127   77.6  0.9283  -17.9
 0.150  0.6981  -32.0  25.127  162.7  0.0138   75.7  0.9242  -18.9
 0.200  0.7009  -41.5  24.624  157.1  0.0181   72.1  0.9054  -24.8
 0.250  0.7037  -49.7  24.460  153.0  0.0222   68.4  0.8794  -30.2
 0.300  0.7080  -57.6  24.009  148.4  0.0257   65.0  0.8558  -35.4
 0.350  0.7066  -65.5  22.763  144.2  0.0289   62.2  0.8399  -40.8
 0.400  0.7069  -72.0  22.647  141.5  0.0323   58.0  0.7953  -45.8
 0.450  0.7180  -77.9  22.278  137.1  0.0347   55.7  0.7895  -49.7
 0.500  0.7131  -84.3  21.299  134.5  0.0377   52.6  0.7518  -55.3
 0.600  0.7179  -94.6  20.433  128.7  0.0420   47.5  0.7007  -63.6
 0.700  0.7197 -104.2  18.912  123.1  0.0456   43.1  0.6616  -71.6
 0.800  0.7252 -111.6  18.007  118.4  0.0483   39.2  0.6218  -78.6
 0.900  0.7244 -118.7  17.023  114.4  0.0505   35.6  0.5819  -85.6
 1.000  0.7244 -124.7  16.036  110.8  0.0522   32.8  0.5521  -91.8
 1.100  0.7230 -130.3  15.120  107.4  0.0536   30.2  0.5216  -97.9
 1.200  0.7211 -134.8  14.338  104.7  0.0547   28.1  0.4994 -103.1
 1.300  0.7207 -139.4  13.513  101.8  0.0555   26.1  0.4769 -108.2
 1.400  0.7202 -143.0  12.907   99.4  0.0562   24.4  0.4604 -112.6
 1.500  0.7186 -146.8  12.238   97.1  0.0568   22.9  0.4437 -117.4
 1.600  0.7183 -149.8  11.696   95.1  0.0573   21.6  0.4328 -121.6
 1.700  0.7174 -152.9  11.117   93.1  0.0579   20.5  0.4234 -125.7
 1.800  0.7192 -155.8  10.577   91.1  0.0582   19.4  0.4179 -129.5
 1.900  0.7181 -158.3  10.159   89.4  0.0587   18.4  0.4107 -132.9
 2.000  0.7189 -160.8   9.712   87.6  0.0589   17.5  0.4065 -136.2
 2.100  0.7194 -163.0   9.304   85.9  0.0590   16.5  0.4037 -139.4
 2.200  0.7192 -165.2   8.897   84.3  0.0591   15.9  0.4012 -142.1
 2.300  0.7185 -167.2   8.552   82.9  0.0593   15.4  0.3982 -144.6
 2.400  0.7187 -169.1   8.191   81.4  0.0595   14.8  0.3980 -146.8
 2.500  0.7185 -170.8   7.908   80.0  0.0597   14.3  0.3949 -148.8
 2.600  0.7183 -172.5   7.635   78.7  0.0599   13.8  0.3936 -151.0
 2.700  0.7182 -174.1   7.383   77.3  0.0601   13.3  0.3916 -152.9
 2.800  0.7179 -175.6   7.147   76.1  0.0602   13.0  0.3911 -154.7
 2.900  0.7183 -177.2   6.900   74.8  0.0604   12.6  0.3904 -156.4
 3.000  0.7178 -178.5   6.706   73.6  0.0606   12.2  0.3895 -158.0
 3.100  0.7181 -180.0   6.492   72.3  0.0608   11.9  0.3892 -159.5
 3.200  0.7174  178.7   6.316   71.2  0.0609   11.5  0.3883 -160.9
 3.300  0.7181  177.2   6.119   70.0  0.0611   11.2  0.3880 -162.2
 3.400  0.7179  175.9   5.959   68.8  0.0612   11.0  0.3875 -163.5
 3.500  0.7185  174.5   5.780   67.6  0.0614   10.8  0.3863 -164.7
 3.600  0.7181  173.3   5.645   66.5  0.0615   10.5  0.3848 -165.9
 3.700  0.7190  172.0   5.496   65.3  0.0617   10.2  0.3832 -167.1
 3.800  0.7189  170.7   5.357   64.2  0.0619   10.0  0.3821 -168.4
 3.900  0.7201  169.5   5.215   63.0  0.0622    9.7  0.3808 -169.6
 4.000  0.7195  168.3   5.092   61.9  0.0623    9.4  0.3792 -170.8
 4.100  0.7210  167.1   4.970   60.8  0.0624    9.2  0.3779 -172.0
 4.200  0.7207  165.9   4.860   59.7  0.0627    9.0  0.3762 -173.3
 4.300  0.7220  164.7   4.747   58.6  0.0630    8.8  0.3750 -174.6
 4.400  0.7223  163.6   4.641   57.5  0.0630    8.6  0.3739 -175.8
 4.500  0.7234  162.4   4.536   56.4  0.0632    8.4  0.3724 -177.0
 4.600  0.7244  161.3   4.444   55.3  0.0634    8.2  0.3705 -178.3
 4.700  0.7253  160.2   4.345   54.2  0.0636    8.0  0.3697 -179.6
 4.800  0.7265  159.1   4.260   53.2  0.0637    7.8  0.3685  179.2
 4.900  0.7272  158.1   4.165   52.1  0.0640    7.5  0.3674  177.9
 5.000  0.7283  157.1   4.083   51.1  0.0642    7.4  0.3662  176.7
 5.100  0.7299  156.0   4.000   50.0  0.0644    7.1  0.3653  175.4
 5.200  0.7302  155.1   3.931   48.9  0.0644    6.9  0.3641  174.2
 5.300  0.7314  154.0   3.849   47.8  0.0647    6.5  0.3632  173.0
 5.400  0.7319  153.1   3.781   46.8  0.0648    6.5  0.3624  171.8
 5.500  0.7328  152.1   3.704   45.7  0.0650    6.2  0.3615  170.7
 5.600  0.7328  151.1   3.639   44.7  0.0651    6.1  0.3595  169.5
 5.700  0.7339  150.1   3.573   43.6  0.0654    5.7  0.3593  168.1
 5.800  0.7341  149.0   3.513   42.5  0.0654    5.6  0.3585  166.9
 5.900  0.7348  148.0   3.447   41.5  0.0655    5.3  0.3570  165.7
 6.000  0.7355  146.9   3.389   40.4  0.0657    5.1  0.3557  164.4
 6.100  0.7358  145.9   3.326   39.3  0.0656    4.8  0.3553  163.0
 6.200  0.7362  144.8   3.275   38.1  0.0657    4.7  0.3537  161.7
 6.300  0.7358  143.8   3.208   37.1  0.0657    4.6  0.3525  160.4
 6.400  0.7351  142.7   3.159   36.0  0.0658    4.5  0.3512  159.1
 6.500  0.7352  141.5   3.099   34.9  0.0658    4.3  0.3496  157.8
 6.600  0.7351  140.3   3.046   33.9  0.0657    4.3  0.3478  156.4
 6.700  0.7342  139.1   2.988   32.9  0.0658    4.2  0.3463  155.0
 6.800  0.7344  138.0   2.940   31.7  0.0660    4.2  0.3443  153.5
 6.900  0.7340  136.8   2.884   30.7  0.0661    4.2  0.3426  152.1
 7.000  0.7341  135.7   2.840   29.6  0.0663    4.3  0.3407  150.5
 7.100  0.7341  134.5   2.785   28.6  0.0666    4.4  0.3400  148.8
 7.200  0.7345  133.4   2.743   27.6  0.0669    4.3  0.3399  147.3
 7.300  0.7356  132.3   2.691   26.6  0.0674    4.3  0.3396  145.6
 7.400  0.7369  131.2   2.651   25.5  0.0678    4.3  0.3403  143.9
 7.500  0.7386  130.2   2.604   24.6  0.0684    4.1  0.3419  142.3
 7.600  0.7405  129.0   2.562   23.5  0.0688    3.9  0.3433  140.5
 7.700  0.7427  128.1   2.514   22.6  0.0692    3.6  0.3454  138.7
 7.800  0.7460  126.9   2.477   21.4  0.0697    3.3  0.3492  136.7
 7.900  0.7484  126.0   2.431   20.5  0.0701    2.9  0.3526  134.9
 8.000  0.7526  124.9   2.392   19.4  0.0704    2.5  0.3572  132.9
 8.500  0.7730  120.8   2.188   14.5  0.0714    0.4  0.3871  123.9
 9.000  0.7916  117.5   2.003   10.0  0.0713   -1.5  0.4261  116.0
 9.500  0.8061  115.6   1.830    5.9  0.0707   -2.9  0.4688  110.3
10.000  0.8184  113.0   1.681    2.2  0.0701   -3.6  0.5121  106.4
!
!  f       NFmin   Gammaopt  rn/50
! GHz       dB    MAG  ANG    -
 0.450      0.53  0.10    7   0.57
 0.900      0.59  0.10   17   0.24
 1.500      0.65  0.10   30   0.04
 1.900      0.70  0.10   43   0.03
 2.400      0.74  0.10   60   0.03
 3.500      0.85  0.09   78   0.13
 5.500      1.03  0.07  170   0.18
10.000      1.40  0.38 -111   0.12
!
! (c) 2012  Infineon Technologies AG, Munich
