! Infineon Technologies  Discrete & RF Semiconductors
! BFP720
! VCE =  3.0 V,  IC =  8.0 mA
! Common Emitter S-Parameters:                            Aug 2012
# GHz  S  MA  R  50
!  f         S11            S21            S12            S22
! GHz     MAG   ANG      MAG   ANG      MAG   ANG      MAG   ANG
 0.010  0.8897    0.5  20.985  179.9  0.0003   17.2  0.9764    1.2
 0.020  0.9006   -1.0  20.893  178.3  0.0007   82.0  0.9955   -0.5
 0.030  0.9001   -1.5  20.960  177.9  0.0011   87.1  0.9956   -0.9
 0.040  0.8996   -2.1  21.028  177.4  0.0015   89.4  0.9957   -1.3
 0.050  0.8993   -2.6  21.098  177.0  0.0019   90.8  0.9959   -1.7
 0.060  0.8990   -3.2  21.066  176.6  0.0022   88.8  0.9958   -2.1
 0.070  0.8988   -3.8  21.036  176.2  0.0025   87.3  0.9958   -2.5
 0.080  0.8988   -4.4  21.007  175.7  0.0028   86.1  0.9958   -2.9
 0.090  0.8988   -5.0  20.980  175.3  0.0031   85.2  0.9958   -3.3
 0.100  0.8989   -5.6  20.953  174.9  0.0034   84.5  0.9959   -3.7
 0.110  0.8980   -6.1  20.937  174.4  0.0038   84.4  0.9954   -4.0
 0.120  0.8972   -6.7  20.922  173.9  0.0042   84.3  0.9950   -4.4
 0.130  0.8965   -7.2  20.908  173.5  0.0045   84.2  0.9946   -4.8
 0.140  0.8958   -7.8  20.897  173.0  0.0049   84.2  0.9943   -5.1
 0.150  0.8953   -8.3  20.886  172.5  0.0053   84.1  0.9940   -5.5
 0.200  0.8926  -11.1  20.690  170.3  0.0069   82.4  0.9905   -7.3
 0.250  0.8889  -13.9  20.588  168.0  0.0087   81.4  0.9871   -9.1
 0.300  0.8838  -16.6  20.387  165.8  0.0105   80.1  0.9813  -10.9
 0.350  0.8785  -19.3  20.227  163.8  0.0122   78.4  0.9766  -12.8
 0.400  0.8736  -22.1  20.099  161.7  0.0139   76.8  0.9698  -14.6
 0.450  0.8676  -24.8  19.912  159.6  0.0156   75.4  0.9643  -16.3
 0.500  0.8615  -27.5  19.744  157.7  0.0172   73.8  0.9571  -18.0
 0.600  0.8489  -33.0  19.439  153.8  0.0203   70.8  0.9410  -21.5
 0.700  0.8351  -38.4  19.121  150.0  0.0235   67.7  0.9249  -24.9
 0.800  0.8184  -44.1  18.926  146.2  0.0264   64.9  0.9072  -28.3
 0.900  0.8040  -49.5  18.541  142.5  0.0292   61.9  0.8868  -31.7
 1.000  0.7880  -55.0  18.171  138.8  0.0318   59.0  0.8650  -35.0
 1.100  0.7716  -60.3  17.790  135.2  0.0343   56.1  0.8420  -38.1
 1.200  0.7545  -65.7  17.411  131.6  0.0366   53.4  0.8191  -41.2
 1.300  0.7379  -71.1  17.022  128.1  0.0387   50.8  0.7952  -44.3
 1.400  0.7212  -76.2  16.604  124.7  0.0406   48.3  0.7708  -47.1
 1.500  0.7052  -81.4  16.213  121.3  0.0423   45.8  0.7461  -49.9
 1.600  0.6874  -86.8  15.878  117.7  0.0439   43.5  0.7223  -52.5
 1.700  0.6729  -91.6  15.429  114.6  0.0452   41.3  0.6980  -55.1
 1.800  0.6600  -96.2  14.992  111.6  0.0465   39.2  0.6757  -57.5
 1.900  0.6465 -100.6  14.559  108.7  0.0476   37.2  0.6545  -59.9
 2.000  0.6359 -104.8  14.140  105.9  0.0486   35.4  0.6337  -62.1
 2.100  0.6244 -108.8  13.727  103.3  0.0494   33.6  0.6140  -64.1
 2.200  0.6159 -112.8  13.344  100.5  0.0503   31.9  0.5950  -66.2
 2.300  0.6070 -116.4  12.957   98.1  0.0509   30.4  0.5778  -68.1
 2.400  0.6007 -120.2  12.594   95.5  0.0516   28.9  0.5613  -70.2
 2.500  0.5925 -123.6  12.249   93.2  0.0522   27.5  0.5457  -71.9
 2.600  0.5864 -127.1  11.925   90.7  0.0528   26.1  0.5307  -73.8
 2.700  0.5801 -130.4  11.606   88.5  0.0532   24.9  0.5169  -75.5
 2.800  0.5757 -133.8  11.305   86.2  0.0537   23.7  0.5036  -77.4
 2.900  0.5693 -136.9  11.015   84.1  0.0541   22.5  0.4908  -79.1
 3.000  0.5646 -140.2  10.740   81.9  0.0545   21.4  0.4784  -80.9
 3.100  0.5570 -143.3  10.474   80.0  0.0547   20.4  0.4658  -82.4
 3.200  0.5512 -146.5  10.220   78.1  0.0549   19.4  0.4537  -84.1
 3.300  0.5471 -149.7   9.978   76.0  0.0552   18.4  0.4419  -85.8
 3.400  0.5447 -153.0   9.750   73.8  0.0555   17.4  0.4305  -87.7
 3.500  0.5442 -156.3   9.537   71.6  0.0558   16.5  0.4196  -89.6
 3.600  0.5389 -159.5   9.313   69.8  0.0559   15.7  0.4079  -91.4
 3.700  0.5353 -162.7   9.099   67.9  0.0560   14.9  0.3966  -93.2
 3.800  0.5334 -166.0   8.895   66.0  0.0562   14.1  0.3858  -95.2
 3.900  0.5333 -169.3   8.702   63.9  0.0563   13.3  0.3754  -97.3
 4.000  0.5350 -172.6   8.520   61.8  0.0565   12.5  0.3656  -99.5
 4.100  0.5330 -175.6   8.327   60.1  0.0565   11.8  0.3546 -101.7
 4.200  0.5326 -178.6   8.143   58.3  0.0566   11.1  0.3441 -104.0
 4.300  0.5335  178.4   7.966   56.5  0.0567   10.4  0.3342 -106.4
 4.400  0.5360  175.4   7.798   54.6  0.0567    9.7  0.3250 -109.0
 4.500  0.5398  172.5   7.639   52.5  0.0568    9.1  0.3165 -111.8
 4.600  0.5408  169.9   7.466   50.9  0.0567    8.5  0.3079 -114.3
 4.700  0.5427  167.4   7.298   49.3  0.0567    7.9  0.2999 -117.0
 4.800  0.5458  164.9   7.137   47.5  0.0566    7.4  0.2927 -119.9
 4.900  0.5499  162.4   6.984   45.7  0.0566    6.8  0.2862 -122.9
 5.000  0.5551  159.9   6.837   43.7  0.0566    6.3  0.2805 -126.0
 5.100  0.5574  157.9   6.690   42.3  0.0565    5.9  0.2763 -128.4
 5.200  0.5604  156.0   6.546   40.8  0.0564    5.5  0.2725 -131.0
 5.300  0.5641  154.1   6.408   39.2  0.0563    5.1  0.2693 -133.6
 5.400  0.5684  152.2   6.274   37.5  0.0562    4.7  0.2667 -136.2
 5.500  0.5732  150.3   6.146   35.8  0.0561    4.3  0.2646 -138.9
 5.600  0.5753  148.8   6.024   34.4  0.0559    4.1  0.2643 -140.7
 5.700  0.5777  147.4   5.905   33.0  0.0558    3.9  0.2642 -142.5
 5.800  0.5805  145.9   5.791   31.6  0.0557    3.7  0.2643 -144.2
 5.900  0.5836  144.5   5.680   30.0  0.0556    3.5  0.2647 -146.0
 6.000  0.5871  143.1   5.573   28.5  0.0555    3.3  0.2654 -147.8
 6.100  0.5872  141.9   5.472   27.2  0.0555    3.3  0.2657 -148.6
 6.200  0.5875  140.7   5.373   25.8  0.0555    3.3  0.2660 -149.4
 6.300  0.5881  139.5   5.278   24.4  0.0554    3.3  0.2665 -150.3
 6.400  0.5890  138.3   5.186   23.0  0.0554    3.3  0.2669 -151.1
 6.500  0.5901  137.1   5.097   21.5  0.0554    3.3  0.2674 -151.9
 6.600  0.5886  136.0   5.015   20.3  0.0556    3.5  0.2658 -152.2
 6.700  0.5873  134.8   4.935   19.0  0.0559    3.6  0.2641 -152.5
 6.800  0.5862  133.7   4.857   17.7  0.0561    3.7  0.2624 -152.7
 6.900  0.5854  132.6   4.783   16.3  0.0563    3.9  0.2608 -153.0
 7.000  0.5848  131.5   4.711   14.9  0.0565    4.0  0.2591 -153.3
 7.100  0.5844  130.2   4.648   13.6  0.0571    3.9  0.2567 -153.9
 7.200  0.5843  128.9   4.588   12.3  0.0576    3.9  0.2543 -154.6
 7.300  0.5845  127.7   4.530   10.9  0.0582    3.9  0.2519 -155.2
 7.400  0.5850  126.4   4.475    9.5  0.0587    3.8  0.2495 -155.9
 7.500  0.5858  125.1   4.423    8.1  0.0593    3.8  0.2472 -156.5
 7.600  0.5876  123.4   4.368    6.6  0.0598    3.4  0.2447 -158.4
 7.700  0.5900  121.8   4.315    5.2  0.0604    3.1  0.2425 -160.4
 7.800  0.5929  120.1   4.266    3.6  0.0610    2.8  0.2406 -162.4
 7.900  0.5963  118.5   4.220    2.1  0.0616    2.5  0.2389 -164.4
 8.000  0.6001  116.9   4.177    0.5  0.0622    2.1  0.2376 -166.5
 8.500  0.6251  107.5   3.881   -7.7  0.0643    0.4  0.2453  164.0
 9.000  0.6591   98.9   3.576  -15.5  0.0668   -1.4  0.2730  147.2
 9.500  0.7045   91.9   3.280  -22.9  0.0691   -4.1  0.3250  133.5
10.000  0.7480   85.7   2.974  -30.1  0.0698   -6.9  0.3861  122.7
10.500  0.7719   81.3   2.674  -35.6  0.0705   -8.4  0.4397  115.2
11.000  0.7874   79.7   2.478  -39.6  0.0727   -9.6  0.4827  111.0
11.500  0.8195   79.2   2.357  -45.0  0.0757  -11.9  0.5286  108.7
12.000  0.8485   77.5   2.214  -51.7  0.0771  -15.3  0.5735  105.9
!
!  f       NFmin   Gammaopt  rn/50
! GHz       dB    MAG  ANG    -
 0.450      0.48  0.35    2   0.16
 1.800      0.54  0.32   22   0.14
 2.400      0.59  0.26   45   0.25
 5.500      0.73  0.14   40   0.14
10.000      0.95  0.39  -84   0.22
!
! (c) 2012  Infineon Technologies AG, Munich
