! Infineon Technologies  Discrete & RF Semiconductors
! BFP740F
! VCE =  1.5 V,  IC =  25 mA
! Common Emitter S-Parameters:                            Oct 2012
# GHz  S  MA  R  50
!  f         S11            S21            S12            S22
! GHz     MAG   ANG      MAG   ANG      MAG   ANG      MAG   ANG
 0.030  0.6995   -5.5  48.539  176.1  0.0017   91.7  0.9794   -2.2
 0.040  0.7021   -7.4  48.868  174.8  0.0022   84.8  0.9819   -3.4
 0.050  0.7038   -9.1  49.396  173.6  0.0025   78.7  0.9814   -4.6
 0.060  0.7051  -10.9  49.520  172.3  0.0029   90.6  0.9810   -5.6
 0.070  0.7068  -12.7  49.604  170.9  0.0037   80.5  0.9793   -6.8
 0.080  0.7081  -14.4  49.354  169.7  0.0041   87.2  0.9784   -7.8
 0.090  0.7053  -16.2  49.021  168.3  0.0044   84.6  0.9766   -8.8
 0.100  0.7032  -18.0  48.560  167.1  0.0048   82.2  0.9733   -9.9
 0.110  0.7004  -19.8  48.034  166.0  0.0057   81.3  0.9696  -10.9
 0.120  0.6979  -21.6  47.620  164.9  0.0061   81.4  0.9657  -11.9
 0.130  0.6963  -23.2  47.241  163.8  0.0067   81.7  0.9617  -12.9
 0.140  0.6955  -24.9  46.987  162.8  0.0070   76.1  0.9572  -13.9
 0.150  0.6957  -26.5  46.848  161.7  0.0077   76.9  0.9535  -14.8
 0.200  0.6920  -34.2  45.261  157.1  0.0099   76.7  0.9312  -19.3
 0.250  0.6898  -41.4  43.865  153.1  0.0120   71.6  0.9075  -23.5
 0.300  0.6875  -48.1  42.373  149.4  0.0141   69.6  0.8838  -27.5
 0.350  0.6834  -55.1  40.679  145.9  0.0161   66.1  0.8603  -31.3
 0.400  0.6819  -61.2  39.565  142.8  0.0178   62.9  0.8324  -35.0
 0.450  0.6812  -67.0  38.264  139.8  0.0194   60.3  0.8103  -38.4
 0.500  0.6791  -72.8  36.917  137.0  0.0211   58.1  0.7829  -41.9
 0.600  0.6756  -83.3  34.608  131.5  0.0237   53.6  0.7320  -48.2
 0.700  0.6735  -92.8  32.239  126.6  0.0261   49.4  0.6840  -54.1
 0.800  0.6722 -101.3  30.148  122.1  0.0280   46.0  0.6378  -59.5
 0.900  0.6696 -108.8  28.215  118.1  0.0295   42.9  0.5945  -64.5
 1.000  0.6680 -115.6  26.389  114.4  0.0307   40.3  0.5559  -69.1
 1.100  0.6661 -121.8  24.740  111.0  0.0316   37.9  0.5196  -73.4
 1.200  0.6653 -127.1  23.232  108.0  0.0326   36.1  0.4889  -77.4
 1.300  0.6640 -132.1  21.862  105.1  0.0332   34.2  0.4599  -81.2
 1.400  0.6641 -136.5  20.631  102.6  0.0339   33.0  0.4365  -84.7
 1.500  0.6631 -140.6  19.506  100.1  0.0343   31.7  0.4136  -88.2
 1.600  0.6640 -144.2  18.495   97.9  0.0348   30.6  0.3955  -91.5
 1.700  0.6640 -147.7  17.558   95.7  0.0353   29.8  0.3781  -94.6
 1.800  0.6662 -150.8  16.712   93.7  0.0356   28.9  0.3646  -97.9
 1.900  0.6666 -153.7  15.940   91.9  0.0360   28.2  0.3515 -100.8
 2.000  0.6678 -156.4  15.225   90.0  0.0364   27.7  0.3413 -103.8
 2.100  0.6697 -159.0  14.531   88.1  0.0366   26.9  0.3333 -107.0
 2.200  0.6699 -161.2  13.910   86.5  0.0368   26.5  0.3255 -109.5
 2.300  0.6702 -163.5  13.339   84.9  0.0372   26.1  0.3187 -111.9
 2.400  0.6704 -165.5  12.804   83.4  0.0374   25.9  0.3134 -114.2
 2.500  0.6710 -167.4  12.318   81.9  0.0377   25.5  0.3084 -116.2
 2.600  0.6711 -169.2  11.869   80.5  0.0379   25.5  0.3041 -118.3
 2.700  0.6714 -171.0  11.447   79.1  0.0382   25.2  0.3002 -120.2
 2.800  0.6719 -172.6  11.056   77.8  0.0384   25.0  0.2975 -121.9
 2.900  0.6724 -174.2  10.676   76.4  0.0386   25.0  0.2948 -123.7
 3.000  0.6724 -175.7  10.341   75.1  0.0389   24.8  0.2925 -125.4
 3.100  0.6727 -177.2  10.013   73.9  0.0391   24.7  0.2910 -126.9
 3.200  0.6730 -178.7   9.708   72.6  0.0394   24.6  0.2892 -128.3
 3.300  0.6734  180.0   9.420   71.4  0.0397   24.6  0.2879 -129.5
 3.400  0.6737  178.5   9.150   70.2  0.0400   24.7  0.2865 -130.8
 3.500  0.6741  177.2   8.887   69.0  0.0402   24.5  0.2850 -131.9
 3.600  0.6742  175.8   8.649   67.8  0.0405   24.5  0.2836 -133.0
 3.700  0.6749  174.5   8.420   66.7  0.0408   24.6  0.2815 -134.0
 3.800  0.6754  173.2   8.199   65.5  0.0410   24.6  0.2797 -135.2
 3.900  0.6761  172.0   7.993   64.4  0.0414   24.5  0.2781 -136.2
 4.000  0.6760  170.6   7.786   63.2  0.0416   24.5  0.2762 -137.3
 4.100  0.6775  169.5   7.604   62.1  0.0420   24.6  0.2746 -138.3
 4.200  0.6775  168.3   7.419   61.0  0.0423   24.5  0.2728 -139.5
 4.300  0.6788  167.0   7.246   59.9  0.0426   24.6  0.2711 -140.6
 4.400  0.6793  165.9   7.078   58.8  0.0429   24.7  0.2696 -141.7
 4.500  0.6803  164.7   6.920   57.7  0.0433   24.6  0.2681 -142.7
 4.600  0.6818  163.5   6.768   56.6  0.0436   24.5  0.2658 -143.8
 4.700  0.6824  162.5   6.620   55.6  0.0439   24.6  0.2644 -145.0
 4.800  0.6842  161.4   6.482   54.5  0.0443   24.4  0.2630 -146.0
 4.900  0.6848  160.3   6.343   53.4  0.0446   24.5  0.2613 -147.3
 5.000  0.6863  159.3   6.213   52.4  0.0448   24.5  0.2595 -148.4
 5.100  0.6877  158.3   6.090   51.3  0.0452   24.5  0.2582 -149.7
 5.200  0.6883  157.3   5.973   50.3  0.0456   24.5  0.2568 -150.8
 5.300  0.6894  156.2   5.858   49.2  0.0459   24.4  0.2552 -152.0
 5.400  0.6903  155.3   5.747   48.2  0.0463   24.4  0.2540 -153.2
 5.500  0.6912  154.3   5.637   47.1  0.0465   24.4  0.2530 -154.3
 5.600  0.6913  153.3   5.533   46.1  0.0469   24.2  0.2511 -155.3
 5.700  0.6925  152.3   5.433   45.0  0.0471   24.2  0.2495 -156.9
 5.800  0.6930  151.3   5.339   43.9  0.0474   24.2  0.2489 -158.0
 5.900  0.6936  150.2   5.242   42.9  0.0477   24.2  0.2467 -159.2
 6.000  0.6944  149.2   5.152   41.8  0.0481   24.0  0.2449 -160.5
 6.100  0.6947  148.2   5.059   40.7  0.0484   24.2  0.2436 -161.9
 6.200  0.6952  147.0   4.977   39.6  0.0486   24.0  0.2419 -163.1
 6.300  0.6946  146.0   4.884   38.6  0.0489   24.1  0.2398 -164.4
 6.400  0.6943  144.9   4.803   37.5  0.0493   24.2  0.2382 -165.7
 6.500  0.6941  143.7   4.716   36.5  0.0495   24.2  0.2358 -167.0
 6.600  0.6939  142.6   4.635   35.4  0.0498   24.3  0.2334 -168.3
 6.700  0.6931  141.4   4.551   34.4  0.0501   24.5  0.2310 -169.6
 6.800  0.6934  140.3   4.475   33.3  0.0506   24.7  0.2283 -171.0
 6.900  0.6926  139.1   4.397   32.3  0.0510   24.8  0.2254 -172.4
 7.000  0.6929  138.0   4.322   31.2  0.0515   24.9  0.2225 -173.9
 7.100  0.6926  136.9   4.249   30.2  0.0521   25.2  0.2198 -175.7
 7.200  0.6932  135.8   4.179   29.2  0.0528   25.2  0.2184 -177.4
 7.300  0.6942  134.7   4.106   28.2  0.0534   25.3  0.2167 -179.1
 7.400  0.6960  133.7   4.044   27.2  0.0543   25.2  0.2155  179.0
 7.500  0.6978  132.7   3.978   26.3  0.0550   25.1  0.2153  177.0
 7.600  0.7002  131.6   3.916   25.2  0.0558   24.9  0.2151  175.0
 7.700  0.7026  130.7   3.850   24.3  0.0564   24.6  0.2150  172.6
 7.800  0.7067  129.5   3.793   23.2  0.0572   24.2  0.2165  170.0
 7.900  0.7096  128.7   3.730   22.2  0.0578   23.9  0.2179  167.5
 8.000  0.7148  127.7   3.672   21.2  0.0585   23.3  0.2204  164.6
 8.500  0.7396  123.7   3.386   16.2  0.0609   21.1  0.2426  150.6
 9.000  0.7639  120.5   3.121   11.4  0.0624   19.0  0.2809  138.3
 9.500  0.7840  118.5   2.875    6.9  0.0635   17.3  0.3303  129.3
10.000  0.8018  115.8   2.649    2.6  0.0643   15.8  0.3852  123.3
!
!  f       NFmin   Gammaopt  rn/50
! GHz       dB    MAG  ANG    -
!
! noise parameter not available yet for this operation point!
!
! (c) 2012  Infineon Technologies AG, Munich
