! Infineon Technologies  Discrete & RF Semiconductors
! BFP720
! VCE =  0.7 V,  IC =  9.0 mA
! Common Emitter S-Parameters:                            Aug 2012
# GHz  S  MA  R  50
!  f         S11            S21            S12            S22
! GHz     MAG   ANG      MAG   ANG      MAG   ANG      MAG   ANG
 0.010  0.8737   -0.4  22.278 -179.7  0.0004   25.2  0.9707    1.2
 0.020  0.8854   -1.6  22.761  178.7  0.0012   76.9  0.9922   -0.8
 0.030  0.8840   -2.3  22.857  178.0  0.0018   81.9  0.9923   -1.4
 0.040  0.8827   -3.0  22.956  177.4  0.0023   84.5  0.9925   -2.0
 0.050  0.8816   -3.8  23.058  176.8  0.0028   86.1  0.9929   -2.6
 0.060  0.8813   -4.6  23.049  176.2  0.0034   86.2  0.9927   -3.2
 0.070  0.8811   -5.4  23.043  175.6  0.0039   86.2  0.9925   -3.8
 0.080  0.8811   -6.2  23.040  175.0  0.0044   86.2  0.9925   -4.3
 0.090  0.8813   -7.0  23.039  174.4  0.0049   86.3  0.9926   -4.9
 0.100  0.8816   -7.8  23.040  173.8  0.0054   86.3  0.9928   -5.5
 0.110  0.8799   -8.6  22.995  173.1  0.0059   85.6  0.9918   -6.0
 0.120  0.8784   -9.4  22.952  172.5  0.0065   85.0  0.9909   -6.6
 0.130  0.8771  -10.2  22.913  171.9  0.0070   84.5  0.9900   -7.1
 0.140  0.8759  -11.0  22.876  171.2  0.0076   84.1  0.9892   -7.7
 0.150  0.8749  -11.8  22.842  170.6  0.0081   83.7  0.9886   -8.2
 0.200  0.8707  -15.5  22.607  167.7  0.0107   81.0  0.9829  -11.0
 0.250  0.8633  -19.3  22.389  164.8  0.0134   79.5  0.9760  -13.7
 0.300  0.8578  -22.8  22.153  162.2  0.0160   77.1  0.9667  -16.3
 0.350  0.8492  -26.6  21.824  159.5  0.0185   75.4  0.9588  -19.0
 0.400  0.8416  -30.3  21.583  157.0  0.0210   73.4  0.9468  -21.7
 0.450  0.8353  -33.6  21.369  154.6  0.0235   71.3  0.9375  -24.2
 0.500  0.8245  -37.5  20.989  152.1  0.0258   69.4  0.9255  -26.8
 0.600  0.8089  -44.4  20.534  147.6  0.0304   65.5  0.8995  -31.8
 0.700  0.7911  -51.5  19.946  143.0  0.0347   61.8  0.8736  -36.8
 0.800  0.7734  -58.6  19.526  138.6  0.0386   58.3  0.8461  -41.6
 0.900  0.7569  -65.3  18.925  134.5  0.0422   54.8  0.8157  -46.3
 1.000  0.7388  -72.2  18.319  130.3  0.0455   51.5  0.7847  -51.0
 1.100  0.7217  -78.8  17.741  126.3  0.0485   48.3  0.7532  -55.4
 1.200  0.7053  -85.0  17.188  122.5  0.0511   45.4  0.7223  -59.7
 1.300  0.6901  -91.3  16.616  118.7  0.0535   42.5  0.6915  -63.9
 1.400  0.6760  -97.2  16.034  115.1  0.0556   39.8  0.6614  -67.9
 1.500  0.6622 -103.1  15.475  111.6  0.0573   37.3  0.6320  -71.7
 1.600  0.6493 -108.8  14.960  108.2  0.0589   35.0  0.6045  -75.4
 1.700  0.6379 -114.1  14.384  105.0  0.0603   32.7  0.5779  -79.1
 1.800  0.6286 -119.0  13.856  102.0  0.0616   30.7  0.5539  -82.6
 1.900  0.6198 -123.5  13.365   99.2  0.0625   28.8  0.5316  -85.8
 2.000  0.6137 -127.8  12.882   96.5  0.0635   27.0  0.5107  -89.1
 2.100  0.6065 -131.7  12.417   94.0  0.0643   25.4  0.4913  -91.9
 2.200  0.6021 -135.7  11.978   91.3  0.0651   23.8  0.4732  -95.1
 2.300  0.5976 -139.3  11.563   89.0  0.0657   22.3  0.4572  -97.9
 2.400  0.5954 -142.9  11.168   86.5  0.0663   20.9  0.4423 -100.9
 2.500  0.5910 -146.1  10.813   84.3  0.0668   19.6  0.4284 -103.5
 2.600  0.5885 -149.4  10.474   82.0  0.0674   18.3  0.4154 -106.3
 2.700  0.5863 -152.5  10.152   80.0  0.0678   17.1  0.4033 -109.0
 2.800  0.5857 -155.6   9.845   77.8  0.0683   15.9  0.3921 -111.8
 2.900  0.5829 -158.5   9.555   75.8  0.0686   14.9  0.3815 -114.4
 3.000  0.5817 -161.4   9.278   73.7  0.0690   13.8  0.3716 -117.1
 3.100  0.5776 -164.3   9.019   71.9  0.0692   12.8  0.3610 -119.6
 3.200  0.5750 -167.2   8.769   70.1  0.0695   11.8  0.3510 -122.3
 3.300  0.5740 -170.1   8.528   68.1  0.0697   10.9  0.3419 -125.1
 3.400  0.5745 -173.1   8.298   66.0  0.0700    9.9  0.3336 -128.0
 3.500  0.5765 -176.0   8.080   63.9  0.0703    8.9  0.3263 -131.1
 3.600  0.5735 -179.0   7.870   62.2  0.0705    8.1  0.3176 -134.0
 3.700  0.5721  177.9   7.667   60.4  0.0706    7.2  0.3098 -137.1
 3.800  0.5724  174.9   7.471   58.6  0.0707    6.4  0.3030 -140.4
 3.900  0.5742  171.9   7.283   56.6  0.0709    5.6  0.2972 -143.8
 4.000  0.5776  168.9   7.105   54.6  0.0711    4.8  0.2925 -147.3
 4.100  0.5783  166.4   6.926   53.0  0.0711    4.0  0.2866 -150.8
 4.200  0.5801  163.8   6.752   51.3  0.0711    3.2  0.2818 -154.4
 4.300  0.5830  161.3   6.585   49.5  0.0711    2.5  0.2781 -158.2
 4.400  0.5871  158.8   6.424   47.7  0.0712    1.7  0.2757 -162.0
 4.500  0.5922  156.4   6.271   45.8  0.0713    0.9  0.2746 -165.9
 4.600  0.5943  154.2   6.114   44.3  0.0712    0.3  0.2736 -169.0
 4.700  0.5973  152.1   5.962   42.7  0.0711   -0.3  0.2734 -172.1
 4.800  0.6010  150.0   5.815   41.1  0.0710   -1.0  0.2740 -175.3
 4.900  0.6056  147.9   5.672   39.4  0.0709   -1.6  0.2755 -178.4
 5.000  0.6109  145.9   5.535   37.6  0.0708   -2.3  0.2777  178.5
 5.100  0.6136  144.3   5.407   36.3  0.0707   -2.8  0.2793  176.0
 5.200  0.6167  142.7   5.282   35.0  0.0705   -3.2  0.2815  173.4
 5.300  0.6203  141.1   5.161   33.5  0.0704   -3.7  0.2842  170.9
 5.400  0.6244  139.5   5.043   32.0  0.0703   -4.2  0.2875  168.5
 5.500  0.6289  138.0   4.928   30.4  0.0702   -4.7  0.2913  166.1
 5.600  0.6308  136.7   4.826   29.2  0.0700   -5.0  0.2932  164.4
 5.700  0.6329  135.5   4.726   27.9  0.0699   -5.4  0.2954  162.7
 5.800  0.6353  134.3   4.629   26.6  0.0697   -5.7  0.2978  161.0
 5.900  0.6380  133.1   4.534   25.2  0.0696   -6.1  0.3005  159.4
 6.000  0.6410  132.0   4.442   23.8  0.0695   -6.5  0.3034  157.8
 6.100  0.6407  130.9   4.359   22.6  0.0695   -6.7  0.3035  156.6
 6.200  0.6407  129.8   4.278   21.4  0.0695   -6.9  0.3037  155.5
 6.300  0.6409  128.8   4.199   20.1  0.0695   -7.1  0.3041  154.3
 6.400  0.6414  127.7   4.123   18.8  0.0695   -7.2  0.3046  153.2
 6.500  0.6420  126.7   4.048   17.4  0.0695   -7.4  0.3052  152.0
 6.600  0.6403  125.7   3.982   16.2  0.0698   -7.6  0.3033  151.0
 6.700  0.6387  124.6   3.918   15.0  0.0700   -7.7  0.3015  149.9
 6.800  0.6374  123.6   3.856   13.8  0.0703   -7.9  0.2999  148.8
 6.900  0.6363  122.6   3.796   12.5  0.0705   -8.0  0.2983  147.7
 7.000  0.6353  121.6   3.737   11.2  0.0708   -8.2  0.2969  146.6
 7.100  0.6352  120.4   3.686    9.9  0.0713   -8.5  0.2958  145.1
 7.200  0.6353  119.2   3.637    8.6  0.0718   -8.9  0.2950  143.7
 7.300  0.6357  118.0   3.590    7.3  0.0724   -9.3  0.2944  142.2
 7.400  0.6364  116.8   3.545    5.9  0.0729   -9.6  0.2939  140.7
 7.500  0.6374  115.6   3.502    4.5  0.0735  -10.0  0.2936  139.3
 7.600  0.6395  114.0   3.452    3.1  0.0738  -10.6  0.2951  137.0
 7.700  0.6422  112.4   3.404    1.6  0.0742  -11.3  0.2970  134.8
 7.800  0.6453  110.8   3.359    0.0  0.0746  -12.0  0.2993  132.7
 7.900  0.6490  109.3   3.317   -1.5  0.0750  -12.6  0.3021  130.5
 8.000  0.6531  107.7   3.277   -3.2  0.0754  -13.3  0.3053  128.4
 8.500  0.6768   98.9   3.001  -11.0  0.0755  -16.4  0.3328  116.2
 9.000  0.7067   91.0   2.729  -18.1  0.0755  -18.8  0.3764  106.6
 9.500  0.7440   84.5   2.473  -24.6  0.0754  -21.3  0.4282   99.6
10.000  0.7777   79.0   2.225  -30.6  0.0742  -23.7  0.4800   93.9
10.500  0.7936   75.4   2.005  -34.7  0.0734  -24.5  0.5184   90.0
11.000  0.8040   74.3   1.881  -37.8  0.0747  -25.3  0.5454   88.2
11.500  0.8317   74.0   1.800  -42.7  0.0767  -27.4  0.5771   87.5
12.000  0.8547   72.5   1.690  -48.9  0.0766  -30.5  0.6060   86.0
!
!  f       NFmin   Gammaopt  rn/50
! GHz       dB    MAG  ANG    -
 0.450      0.50  0.31    1   0.20
 1.800      0.56  0.29   20   0.12
 2.400      0.62  0.24   42   0.27
 5.500      0.76  0.12   33   0.15
10.000      0.95  0.40  -81   0.22
!
! (c) 2012  Infineon Technologies AG, Munich
