! Infineon Technologies  Discrete & RF Semiconductors
! BFP720
! VCE =  0.7 V,  IC =  8.0 mA
! Common Emitter S-Parameters:                            Aug 2012
# GHz  S  MA  R  50
!  f         S11            S21            S12            S22
! GHz     MAG   ANG      MAG   ANG      MAG   ANG      MAG   ANG
 0.010  0.8931   -0.4  20.686 -179.6  0.0005  -94.5  0.9760    0.9
 0.020  0.9008   -1.4  20.852  178.7  0.0011  103.4  0.9931   -0.8
 0.030  0.8995   -2.1  20.953  178.1  0.0017   96.7  0.9933   -1.4
 0.040  0.8983   -2.8  21.057  177.6  0.0023   93.7  0.9936   -1.9
 0.050  0.8973   -3.5  21.162  177.0  0.0030   91.9  0.9940   -2.4
 0.060  0.8970   -4.2  21.142  176.4  0.0034   89.9  0.9938   -3.0
 0.070  0.8968   -4.9  21.125  175.9  0.0039   88.4  0.9938   -3.5
 0.080  0.8967   -5.6  21.109  175.4  0.0044   87.3  0.9939   -4.1
 0.090  0.8968   -6.3  21.095  174.8  0.0049   86.3  0.9940   -4.6
 0.100  0.8971   -7.0  21.084  174.3  0.0054   85.6  0.9942   -5.1
 0.110  0.8959   -7.8  21.058  173.7  0.0059   85.1  0.9934   -5.7
 0.120  0.8948   -8.5  21.034  173.1  0.0065   84.7  0.9926   -6.2
 0.130  0.8939   -9.2  21.012  172.5  0.0070   84.4  0.9919   -6.7
 0.140  0.8931   -9.9  20.993  171.9  0.0076   84.1  0.9912   -7.2
 0.150  0.8925  -10.6  20.976  171.4  0.0082   83.8  0.9907   -7.7
 0.200  0.8883  -13.9  20.753  168.7  0.0109   81.8  0.9856  -10.3
 0.250  0.8820  -17.5  20.597  165.9  0.0135   80.0  0.9800  -12.8
 0.300  0.8765  -20.7  20.381  163.5  0.0162   78.2  0.9724  -15.3
 0.350  0.8694  -24.2  20.143  161.0  0.0187   76.1  0.9653  -17.9
 0.400  0.8632  -27.6  19.957  158.6  0.0212   74.3  0.9554  -20.4
 0.450  0.8564  -30.7  19.754  156.3  0.0237   72.4  0.9473  -22.8
 0.500  0.8475  -34.2  19.486  154.0  0.0262   70.6  0.9371  -25.2
 0.600  0.8326  -40.7  19.100  149.6  0.0308   66.9  0.9138  -30.0
 0.700  0.8160  -47.3  18.642  145.3  0.0354   63.2  0.8913  -34.8
 0.800  0.7985  -54.1  18.323  141.0  0.0395   59.8  0.8670  -39.5
 0.900  0.7826  -60.5  17.822  137.0  0.0434   56.4  0.8390  -44.0
 1.000  0.7649  -67.0  17.329  132.9  0.0470   53.0  0.8105  -48.6
 1.100  0.7477  -73.3  16.846  128.9  0.0502   49.8  0.7810  -52.9
 1.200  0.7307  -79.4  16.371  125.1  0.0531   46.8  0.7524  -57.2
 1.300  0.7148  -85.4  15.883  121.4  0.0557   43.9  0.7228  -61.4
 1.400  0.6998  -91.2  15.380  117.8  0.0581   41.2  0.6937  -65.3
 1.500  0.6851  -97.0  14.896  114.3  0.0601   38.6  0.6649  -69.1
 1.600  0.6703 -102.7  14.454  110.7  0.0619   36.1  0.6382  -72.8
 1.700  0.6576 -108.1  13.940  107.6  0.0635   33.8  0.6113  -76.5
 1.800  0.6472 -112.9  13.454  104.5  0.0649   31.6  0.5875  -80.0
 1.900  0.6369 -117.4  13.004  101.6  0.0661   29.6  0.5648  -83.2
 2.000  0.6291 -121.8  12.557   98.9  0.0672   27.6  0.5435  -86.5
 2.100  0.6205 -125.8  12.126   96.3  0.0680   25.9  0.5235  -89.4
 2.200  0.6151 -129.9  11.721   93.5  0.0690   24.1  0.5049  -92.5
 2.300  0.6091 -133.5  11.329   91.2  0.0697   22.5  0.4883  -95.3
 2.400  0.6056 -137.2  10.958   88.7  0.0704   21.0  0.4730  -98.3
 2.500  0.6003 -140.5  10.620   86.4  0.0710   19.6  0.4583 -101.0
 2.600  0.5971 -143.9  10.299   84.0  0.0716   18.2  0.4446 -103.7
 2.700  0.5937 -147.1   9.991   81.9  0.0720   16.9  0.4317 -106.4
 2.800  0.5921 -150.4   9.698   79.6  0.0725   15.6  0.4199 -109.2
 2.900  0.5884 -153.4   9.421   77.6  0.0729   14.4  0.4086 -111.8
 3.000  0.5863 -156.4   9.157   75.4  0.0733   13.2  0.3981 -114.6
 3.100  0.5813 -159.4   8.906   73.6  0.0735   12.1  0.3866 -117.1
 3.200  0.5779 -162.4   8.664   71.7  0.0737   11.0  0.3759 -119.7
 3.300  0.5761 -165.5   8.432   69.7  0.0740   10.0  0.3660 -122.5
 3.400  0.5760 -168.6   8.212   67.6  0.0743    8.9  0.3571 -125.4
 3.500  0.5776 -171.6   8.003   65.4  0.0746    7.8  0.3491 -128.5
 3.600  0.5738 -174.7   7.797   63.6  0.0747    6.9  0.3396 -131.4
 3.700  0.5718 -177.9   7.599   61.8  0.0748    6.0  0.3310 -134.5
 3.800  0.5715  179.0   7.409   59.9  0.0749    5.0  0.3235 -137.7
 3.900  0.5729  175.9   7.227   57.9  0.0750    4.1  0.3170 -141.0
 4.000  0.5760  172.8   7.055   55.9  0.0752    3.2  0.3116 -144.5
 4.100  0.5760  170.1   6.879   54.2  0.0751    2.3  0.3048 -148.0
 4.200  0.5772  167.4   6.709   52.5  0.0751    1.5  0.2991 -151.5
 4.300  0.5796  164.8   6.545   50.7  0.0751    0.7  0.2946 -155.3
 4.400  0.5833  162.2   6.388   48.8  0.0751   -0.2  0.2914 -159.1
 4.500  0.5882  159.6   6.238   46.9  0.0751   -1.0  0.2896 -162.9
 4.600  0.5898  157.4   6.083   45.4  0.0749   -1.8  0.2870 -166.4
 4.700  0.5924  155.1   5.932   43.8  0.0747   -2.5  0.2855 -169.8
 4.800  0.5959  152.9   5.786   42.1  0.0745   -3.2  0.2851 -173.3
 4.900  0.6002  150.7   5.645   40.4  0.0744   -3.9  0.2857 -176.8
 5.000  0.6055  148.6   5.510   38.5  0.0742   -4.7  0.2874  179.7
 5.100  0.6078  146.9   5.383   37.2  0.0740   -5.2  0.2891  177.4
 5.200  0.6108  145.2   5.258   35.8  0.0737   -5.7  0.2911  175.1
 5.300  0.6142  143.5   5.137   34.3  0.0735   -6.3  0.2937  172.9
 5.400  0.6182  141.9   5.020   32.8  0.0733   -6.8  0.2966  170.7
 5.500  0.6226  140.2   4.906   31.2  0.0730   -7.4  0.3000  168.6
 5.600  0.6244  139.0   4.805   29.9  0.0728   -7.8  0.3016  166.8
 5.700  0.6265  137.7   4.705   28.6  0.0726   -8.2  0.3034  165.1
 5.800  0.6288  136.4   4.608   27.3  0.0723   -8.6  0.3055  163.3
 5.900  0.6315  135.2   4.514   25.9  0.0721   -9.0  0.3079  161.6
 6.000  0.6345  133.9   4.423   24.4  0.0719   -9.4  0.3106  160.0
 6.100  0.6341  132.8   4.340   23.2  0.0718   -9.6  0.3105  158.8
 6.200  0.6340  131.8   4.259   22.0  0.0717   -9.8  0.3105  157.6
 6.300  0.6342  130.7   4.180   20.7  0.0716  -10.1  0.3107  156.4
 6.400  0.6345  129.6   4.104   19.3  0.0715  -10.3  0.3110  155.2
 6.500  0.6351  128.5   4.030   17.9  0.0714  -10.5  0.3115  154.0
 6.600  0.6333  127.4   3.964   16.8  0.0715  -10.6  0.3095  152.9
 6.700  0.6318  126.4   3.900   15.6  0.0717  -10.8  0.3076  151.8
 6.800  0.6304  125.3   3.838   14.3  0.0718  -11.0  0.3058  150.7
 6.900  0.6293  124.3   3.778   13.0  0.0720  -11.1  0.3042  149.5
 7.000  0.6284  123.2   3.720   11.7  0.0721  -11.3  0.3026  148.4
 7.100  0.6282  122.0   3.669   10.4  0.0726  -11.6  0.3015  146.9
 7.200  0.6283  120.8   3.621    9.1  0.0730  -12.0  0.3005  145.5
 7.300  0.6287  119.6   3.574    7.8  0.0735  -12.3  0.2998  144.0
 7.400  0.6294  118.3   3.529    6.4  0.0739  -12.7  0.2992  142.5
 7.500  0.6304  117.1   3.486    5.0  0.0744  -13.0  0.2989  141.0
 7.600  0.6325  115.5   3.437    3.5  0.0747  -13.7  0.3001  138.8
 7.700  0.6351  113.9   3.390    2.0  0.0750  -14.3  0.3018  136.5
 7.800  0.6382  112.3   3.346    0.5  0.0753  -15.0  0.3039  134.3
 7.900  0.6417  110.7   3.304   -1.1  0.0756  -15.6  0.3065  132.2
 8.000  0.6458  109.1   3.265   -2.8  0.0760  -16.2  0.3095  130.0
 8.500  0.6692  100.1   2.991  -10.7  0.0756  -19.3  0.3357  117.6
 9.000  0.6995   92.0   2.720  -17.8  0.0753  -21.5  0.3785  107.7
 9.500  0.7368   85.4   2.466  -24.5  0.0749  -23.9  0.4297  100.5
10.000  0.7708   79.8   2.219  -30.5  0.0735  -26.1  0.4811   94.7
10.500  0.7872   76.1   1.998  -34.7  0.0725  -26.8  0.5193   90.7
11.000  0.7979   74.9   1.873  -37.9  0.0737  -27.4  0.5465   88.8
11.500  0.8257   74.6   1.791  -42.8  0.0755  -29.4  0.5783   88.1
12.000  0.8489   73.1   1.682  -48.9  0.0754  -32.3  0.6074   86.5
!
!  f       NFmin   Gammaopt  rn/50
! GHz       dB    MAG  ANG    -
 0.450      0.48  0.35    2   0.16
 1.800      0.54  0.32   22   0.14
 2.400      0.59  0.26   45   0.25
 5.500      0.73  0.14   40   0.14
10.000      0.95  0.39  -84   0.22
!
! (c) 2012  Infineon Technologies AG, Munich
