! Infineon Technologies  Discrete & RF Semiconductors
! BFP720F
! VCE =  0.5 V,  IC =  1.0 mA
! Common Emitter S-Parameters:                            Jan 2016
# GHz  S  MA  R  50
!  f         S11            S21            S12            S22
! GHz     MAG   ANG      MAG   ANG      MAG   ANG      MAG   ANG
 0.010  0.9868    0.1   3.687  179.8  0.0006   -8.5  0.9989   -0.5
 0.015  0.9874   -0.2   3.585  179.1  0.0007   67.1  0.9994   -0.8
 0.020  0.9881   -0.4   3.484  178.3  0.0013   93.7  1.0000   -1.1
 0.025  0.9881   -0.5   3.485  178.4  0.0016   92.4  0.9997   -1.1
 0.030  0.9880   -0.7   3.486  178.4  0.0019   91.6  0.9994   -1.1
 0.035  0.9880   -0.8   3.487  178.5  0.0022   91.0  0.9990   -1.1
 0.040  0.9880   -1.0   3.489  178.6  0.0026   90.5  0.9987   -1.2
 0.045  0.9880   -1.1   3.490  178.6  0.0029   90.2  0.9984   -1.2
 0.050  0.9880   -1.3   3.491  178.7  0.0032   89.9  0.9981   -1.2
 0.055  0.9879   -1.4   3.492  178.6  0.0035   89.7  0.9982   -1.3
 0.060  0.9878   -1.5   3.493  178.5  0.0038   89.5  0.9982   -1.4
 0.065  0.9877   -1.6   3.494  178.4  0.0041   89.4  0.9983   -1.5
 0.070  0.9876   -1.7   3.494  178.3  0.0044   89.2  0.9984   -1.6
 0.075  0.9875   -1.8   3.495  178.2  0.0047   89.1  0.9985   -1.7
 0.080  0.9874   -2.0   3.496  178.1  0.0050   89.0  0.9986   -1.7
 0.085  0.9873   -2.1   3.497  178.0  0.0053   88.9  0.9986   -1.8
 0.090  0.9872   -2.2   3.498  177.9  0.0056   88.8  0.9987   -1.9
 0.095  0.9871   -2.3   3.499  177.8  0.0059   88.8  0.9988   -2.0
 0.100  0.9870   -2.4   3.500  177.7  0.0062   88.7  0.9989   -2.1
 0.105  0.9870   -2.5   3.501  177.6  0.0065   88.5  0.9989   -2.2
 0.110  0.9869   -2.6   3.503  177.5  0.0068   88.4  0.9988   -2.3
 0.115  0.9869   -2.8   3.504  177.4  0.0071   88.2  0.9988   -2.4
 0.120  0.9868   -2.9   3.506  177.3  0.0074   88.1  0.9987   -2.5
 0.125  0.9868   -3.0   3.507  177.1  0.0077   88.0  0.9987   -2.6
 0.130  0.9868   -3.1   3.509  177.0  0.0081   87.9  0.9987   -2.7
 0.135  0.9867   -3.2   3.510  176.9  0.0084   87.8  0.9987   -2.8
 0.140  0.9867   -3.4   3.512  176.8  0.0087   87.7  0.9986   -2.9
 0.145  0.9867   -3.5   3.513  176.7  0.0090   87.6  0.9986   -3.0
 0.150  0.9867   -3.6   3.515  176.6  0.0093   87.5  0.9986   -3.1
 0.155  0.9866   -3.7   3.514  176.5  0.0096   87.4  0.9984   -3.2
 0.160  0.9865   -3.9   3.514  176.4  0.0099   87.3  0.9983   -3.3
 0.165  0.9864   -4.0   3.513  176.3  0.0102   87.1  0.9981   -3.4
 0.170  0.9863   -4.1   3.513  176.2  0.0105   87.0  0.9980   -3.5
 0.175  0.9862   -4.2   3.512  176.1  0.0108   86.9  0.9979   -3.6
 0.180  0.9862   -4.4   3.512  175.9  0.0112   86.8  0.9977   -3.8
 0.185  0.9861   -4.5   3.511  175.8  0.0115   86.7  0.9976   -3.9
 0.190  0.9860   -4.6   3.511  175.7  0.0118   86.7  0.9975   -4.0
 0.195  0.9860   -4.8   3.510  175.6  0.0121   86.6  0.9973   -4.1
 0.200  0.9859   -4.9   3.510  175.5  0.0124   86.5  0.9972   -4.2
 0.220  0.9854   -5.4   3.517  175.0  0.0136   86.0  0.9973   -4.6
 0.240  0.9850   -5.9   3.523  174.5  0.0149   85.7  0.9975   -5.0
 0.260  0.9847   -6.3   3.526  174.1  0.0161   85.3  0.9969   -5.4
 0.280  0.9847   -6.8   3.523  173.7  0.0174   84.9  0.9956   -5.9
 0.300  0.9847   -7.3   3.520  173.3  0.0187   84.5  0.9943   -6.3
 0.320  0.9842   -7.8   3.522  172.8  0.0199   84.1  0.9945   -6.7
 0.340  0.9839   -8.3   3.525  172.3  0.0211   83.8  0.9948   -7.1
 0.360  0.9835   -8.8   3.530  171.9  0.0224   83.4  0.9947   -7.5
 0.380  0.9830   -9.3   3.537  171.4  0.0237   82.9  0.9941   -8.0
 0.400  0.9827   -9.8   3.545  171.0  0.0250   82.5  0.9936   -8.5
 0.420  0.9821  -10.3   3.535  170.5  0.0262   82.1  0.9932   -8.9
 0.440  0.9815  -10.8   3.525  170.0  0.0274   81.8  0.9929   -9.3
 0.450  0.9813  -11.0   3.520  169.8  0.0280   81.6  0.9928   -9.5
 0.460  0.9810  -11.3   3.525  169.6  0.0286   81.4  0.9925   -9.7
 0.480  0.9805  -11.8   3.534  169.2  0.0299   81.0  0.9920  -10.1
 0.500  0.9801  -12.3   3.543  168.8  0.0311   80.6  0.9916  -10.5
 0.520  0.9794  -12.8   3.544  168.3  0.0324   80.1  0.9909  -10.9
 0.540  0.9787  -13.3   3.545  167.8  0.0337   79.7  0.9902  -11.4
 0.560  0.9781  -13.8   3.546  167.4  0.0349   79.2  0.9896  -11.8
 0.580  0.9776  -14.3   3.548  166.9  0.0362   78.9  0.9890  -12.3
 0.600  0.9771  -14.8   3.550  166.4  0.0375   78.5  0.9885  -12.7
 0.620  0.9763  -15.3   3.549  166.0  0.0388   78.0  0.9879  -13.1
 0.640  0.9756  -15.8   3.547  165.5  0.0401   77.5  0.9874  -13.6
 0.660  0.9749  -16.3   3.546  165.1  0.0414   77.1  0.9870  -14.0
 0.680  0.9743  -16.8   3.546  164.6  0.0427   76.7  0.9866  -14.5
 0.700  0.9738  -17.3   3.545  164.2  0.0440   76.3  0.9863  -14.9
 0.720  0.9730  -17.8   3.550  163.7  0.0452   75.9  0.9855  -15.3
 0.740  0.9723  -18.3   3.555  163.3  0.0464   75.4  0.9847  -15.7
 0.760  0.9716  -18.9   3.560  162.8  0.0475   75.0  0.9840  -16.2
 0.780  0.9711  -19.4   3.565  162.4  0.0487   74.7  0.9834  -16.6
 0.800  0.9706  -19.9   3.571  161.9  0.0499   74.3  0.9828  -17.0
 0.820  0.9696  -20.4   3.572  161.4  0.0511   73.8  0.9817  -17.4
 0.840  0.9686  -20.9   3.574  161.0  0.0524   73.4  0.9807  -17.8
 0.860  0.9677  -21.5   3.575  160.5  0.0536   73.0  0.9798  -18.3
 0.880  0.9669  -22.0   3.577  160.1  0.0549   72.6  0.9789  -18.7
 0.900  0.9662  -22.5   3.579  159.6  0.0561   72.2  0.9780  -19.1
 0.920  0.9651  -23.0   3.578  159.1  0.0574   71.7  0.9769  -19.6
 0.940  0.9641  -23.5   3.578  158.6  0.0587   71.2  0.9759  -20.0
 0.960  0.9632  -24.1   3.578  158.2  0.0600   70.8  0.9749  -20.5
 0.980  0.9624  -24.6   3.578  157.7  0.0613   70.3  0.9740  -20.9
 1.000  0.9616  -25.1   3.579  157.2  0.0626   69.9  0.9731  -21.4
 1.020  0.9604  -25.6   3.578  156.7  0.0638   69.4  0.9720  -21.8
 1.040  0.9592  -26.1   3.577  156.2  0.0651   69.0  0.9709  -22.3
 1.060  0.9581  -26.7   3.576  155.8  0.0663   68.5  0.9699  -22.7
 1.080  0.9571  -27.2   3.576  155.3  0.0676   68.1  0.9689  -23.2
 1.100  0.9562  -27.7   3.576  154.8  0.0688   67.7  0.9680  -23.6
 1.120  0.9550  -28.2   3.576  154.3  0.0699   67.3  0.9667  -24.0
 1.140  0.9539  -28.7   3.576  153.8  0.0710   66.9  0.9655  -24.4
 1.160  0.9529  -29.3   3.576  153.4  0.0721   66.5  0.9643  -24.9
 1.180  0.9520  -29.8   3.577  152.9  0.0733   66.1  0.9632  -25.3
 1.200  0.9511  -30.3   3.578  152.4  0.0744   65.7  0.9621  -25.7
 1.220  0.9498  -30.8   3.576  151.9  0.0756   65.2  0.9607  -26.2
 1.240  0.9485  -31.4   3.574  151.4  0.0768   64.8  0.9593  -26.6
 1.260  0.9473  -31.9   3.572  151.0  0.0780   64.3  0.9580  -27.1
 1.280  0.9462  -32.5   3.571  150.5  0.0792   63.9  0.9568  -27.5
 1.300  0.9452  -33.0   3.570  150.0  0.0804   63.5  0.9556  -28.0
 1.320  0.9438  -33.5   3.567  149.5  0.0816   63.0  0.9541  -28.5
 1.340  0.9425  -34.0   3.564  149.0  0.0829   62.5  0.9526  -28.9
 1.360  0.9413  -34.6   3.561  148.6  0.0841   62.1  0.9512  -29.4
 1.380  0.9402  -35.1   3.559  148.1  0.0853   61.6  0.9498  -29.8
 1.400  0.9391  -35.6   3.557  147.6  0.0866   61.2  0.9485  -30.3
 1.420  0.9376  -36.1   3.554  147.1  0.0877   60.8  0.9469  -30.7
 1.440  0.9362  -36.7   3.552  146.6  0.0887   60.3  0.9453  -31.2
 1.460  0.9348  -37.2   3.550  146.2  0.0898   59.9  0.9438  -31.6
 1.480  0.9336  -37.8   3.548  145.7  0.0909   59.5  0.9423  -32.1
 1.500  0.9324  -38.3   3.546  145.2  0.0920   59.1  0.9409  -32.5
 1.520  0.9309  -38.8   3.547  144.7  0.0930   58.7  0.9393  -32.9
 1.540  0.9296  -39.4   3.549  144.2  0.0941   58.2  0.9378  -33.3
 1.560  0.9283  -39.9   3.551  143.8  0.0952   57.8  0.9364  -33.8
 1.580  0.9270  -40.5   3.553  143.3  0.0962   57.4  0.9350  -34.2
 1.600  0.9259  -41.0   3.555  142.8  0.0973   57.0  0.9336  -34.6
 1.620  0.9241  -41.6   3.553  142.3  0.0985   56.5  0.9318  -35.1
 1.640  0.9224  -42.1   3.551  141.7  0.0997   56.0  0.9301  -35.6
 1.660  0.9208  -42.7   3.550  141.2  0.1009   55.5  0.9285  -36.1
 1.680  0.9193  -43.2   3.549  140.6  0.1021   55.0  0.9269  -36.6
 1.700  0.9179  -43.8   3.548  140.1  0.1033   54.5  0.9254  -37.1
 1.720  0.9164  -44.3   3.542  139.6  0.1044   54.0  0.9237  -37.6
 1.740  0.9151  -44.8   3.537  139.2  0.1054   53.6  0.9221  -38.0
 1.760  0.9137  -45.3   3.531  138.7  0.1065   53.2  0.9206  -38.5
 1.780  0.9125  -45.8   3.526  138.3  0.1076   52.7  0.9191  -38.9
 1.800  0.9113  -46.3   3.521  137.8  0.1087   52.3  0.9177  -39.4
 1.820  0.9095  -46.8   3.515  137.3  0.1096   51.9  0.9159  -39.8
 1.840  0.9079  -47.4   3.510  136.8  0.1105   51.4  0.9142  -40.2
 1.860  0.9063  -47.9   3.505  136.3  0.1114   51.0  0.9125  -40.6
 1.880  0.9047  -48.5   3.500  135.8  0.1124   50.6  0.9109  -41.0
 1.900  0.9033  -49.0   3.496  135.3  0.1133   50.2  0.9093  -41.4
 1.920  0.9018  -49.5   3.491  134.8  0.1143   49.8  0.9075  -41.8
 1.940  0.9003  -50.0   3.485  134.3  0.1152   49.3  0.9058  -42.2
 1.960  0.8989  -50.5   3.480  133.9  0.1162   48.9  0.9041  -42.7
 1.980  0.8976  -51.0   3.476  133.4  0.1172   48.5  0.9025  -43.1
 2.000  0.8963  -51.5   3.471  132.9  0.1182   48.1  0.9009  -43.5
 2.020  0.8945  -52.0   3.463  132.4  0.1191   47.6  0.8990  -43.9
 2.040  0.8929  -52.5   3.456  132.0  0.1200   47.1  0.8971  -44.4
 2.060  0.8912  -53.0   3.449  131.5  0.1208   46.7  0.8952  -44.8
 2.080  0.8897  -53.5   3.442  131.0  0.1217   46.2  0.8934  -45.2
 2.100  0.8882  -54.0   3.435  130.5  0.1227   45.8  0.8917  -45.7
 2.120  0.8868  -54.5   3.428  130.0  0.1236   45.3  0.8900  -46.1
 2.140  0.8854  -55.0   3.422  129.6  0.1245   44.9  0.8884  -46.6
 2.160  0.8842  -55.5   3.416  129.1  0.1254   44.4  0.8868  -47.0
 2.180  0.8829  -56.0   3.411  128.6  0.1264   44.0  0.8853  -47.5
 2.200  0.8818  -56.5   3.405  128.1  0.1273   43.6  0.8838  -47.9
 2.220  0.8801  -57.0   3.396  127.6  0.1281   43.2  0.8820  -48.3
 2.240  0.8784  -57.4   3.387  127.2  0.1289   42.7  0.8802  -48.7
 2.260  0.8768  -57.9   3.379  126.7  0.1297   42.3  0.8785  -49.1
 2.280  0.8752  -58.4   3.370  126.2  0.1306   41.9  0.8769  -49.5
 2.300  0.8737  -58.9   3.362  125.8  0.1314   41.4  0.8752  -49.9
 2.320  0.8723  -59.4   3.354  125.3  0.1323   41.0  0.8737  -50.3
 2.340  0.8709  -59.8   3.347  124.8  0.1331   40.6  0.8721  -50.8
 2.360  0.8696  -60.3   3.339  124.4  0.1340   40.2  0.8706  -51.2
 2.380  0.8684  -60.8   3.332  123.9  0.1348   39.8  0.8692  -51.6
 2.400  0.8672  -61.3   3.325  123.4  0.1357   39.4  0.8678  -52.0
 2.420  0.8657  -61.8   3.316  123.0  0.1364   39.0  0.8660  -52.4
 2.440  0.8642  -62.2   3.308  122.5  0.1371   38.5  0.8642  -52.7
 2.460  0.8627  -62.7   3.300  122.1  0.1378   38.1  0.8625  -53.1
 2.480  0.8613  -63.2   3.292  121.6  0.1385   37.7  0.8608  -53.5
 2.500  0.8600  -63.6   3.284  121.2  0.1392   37.3  0.8591  -53.8
 2.520  0.8588  -64.1   3.277  120.7  0.1399   36.9  0.8575  -54.2
 2.540  0.8576  -64.6   3.270  120.3  0.1406   36.5  0.8559  -54.6
 2.560  0.8564  -65.0   3.263  119.8  0.1413   36.1  0.8543  -54.9
 2.580  0.8553  -65.5   3.256  119.4  0.1421   35.7  0.8528  -55.3
 2.600  0.8543  -66.0   3.249  118.9  0.1428   35.3  0.8513  -55.7
 2.620  0.8528  -66.4   3.240  118.5  0.1434   34.9  0.8492  -56.1
 2.640  0.8514  -66.9   3.232  118.1  0.1440   34.5  0.8472  -56.4
 2.660  0.8500  -67.3   3.223  117.7  0.1446   34.1  0.8452  -56.8
 2.680  0.8486  -67.7   3.215  117.2  0.1452   33.7  0.8433  -57.2
 2.700  0.8473  -68.2   3.207  116.8  0.1459   33.3  0.8413  -57.6
 2.720  0.8461  -68.6   3.199  116.4  0.1465   32.9  0.8395  -58.0
 2.740  0.8449  -69.1   3.191  116.0  0.1471   32.5  0.8376  -58.3
 2.760  0.8437  -69.5   3.184  115.6  0.1478   32.2  0.8358  -58.7
 2.780  0.8426  -70.0   3.176  115.1  0.1484   31.8  0.8340  -59.1
 2.800  0.8416  -70.4   3.169  114.7  0.1491   31.4  0.8323  -59.5
 2.820  0.8404  -70.8   3.160  114.3  0.1497   31.0  0.8310  -59.8
 2.840  0.8392  -71.3   3.152  113.9  0.1503   30.7  0.8298  -60.1
 2.860  0.8381  -71.7   3.144  113.5  0.1509   30.4  0.8286  -60.4
 2.880  0.8370  -72.1   3.136  113.0  0.1515   30.0  0.8274  -60.7
 2.900  0.8360  -72.6   3.128  112.6  0.1521   29.7  0.8263  -61.0
 2.920  0.8350  -73.0   3.120  112.2  0.1527   29.3  0.8251  -61.3
 2.940  0.8341  -73.5   3.113  111.8  0.1533   29.0  0.8240  -61.6
 2.960  0.8332  -73.9   3.105  111.4  0.1539   28.7  0.8229  -61.9
 2.980  0.8324  -74.4   3.098  110.9  0.1546   28.3  0.8218  -62.2
 3.000  0.8316  -74.8   3.091  110.5  0.1552   28.0  0.8208  -62.5
 3.100  0.8241  -76.6   3.046  108.6  0.1572   26.1  0.8122  -63.9
 3.200  0.8176  -78.5   3.005  106.6  0.1595   24.3  0.8041  -65.4
 3.300  0.8119  -80.4   2.967  104.6  0.1618   22.6  0.7966  -66.9
 3.400  0.8071  -82.4   2.933  102.5  0.1643   20.9  0.7896  -68.4
 3.500  0.8032  -84.3   2.903  100.4  0.1670   19.2  0.7831  -69.9
 3.600  0.7973  -85.9   2.860   98.7  0.1686   17.6  0.7765  -71.0
 3.700  0.7921  -87.6   2.820   96.9  0.1704   16.0  0.7703  -72.1
 3.800  0.7876  -89.2   2.783   95.1  0.1723   14.5  0.7643  -73.2
 3.900  0.7837  -90.9   2.749   93.3  0.1743   13.0  0.7586  -74.3
 4.000  0.7805  -92.6   2.717   91.4  0.1764   11.5  0.7532  -75.5
 4.100  0.7763  -94.1   2.681   89.8  0.1777   10.0  0.7473  -76.5
 4.200  0.7727  -95.6   2.648   88.2  0.1791    8.6  0.7416  -77.5
 4.300  0.7696  -97.1   2.617   86.5  0.1806    7.2  0.7362  -78.5
 4.400  0.7671  -98.7   2.588   84.8  0.1823    5.8  0.7310  -79.6
 4.500  0.7651 -100.2   2.561   83.0  0.1840    4.4  0.7260  -80.6
 4.600  0.7610 -101.6   2.533   81.5  0.1850    2.9  0.7199  -81.7
 4.700  0.7573 -103.0   2.506   79.9  0.1862    1.5  0.7140  -82.7
 4.800  0.7541 -104.4   2.481   78.3  0.1874    0.1  0.7084  -83.8
 4.900  0.7513 -105.8   2.459   76.7  0.1888   -1.3  0.7031  -85.0
 5.000  0.7490 -107.2   2.438   75.0  0.1903   -2.7  0.6980  -86.1
 5.100  0.7438 -108.5   2.412   73.5  0.1912   -4.0  0.6921  -87.1
 5.200  0.7391 -109.8   2.388   71.9  0.1922   -5.4  0.6863  -88.1
 5.300  0.7347 -111.2   2.366   70.3  0.1933   -6.7  0.6808  -89.1
 5.400  0.7307 -112.5   2.345   68.7  0.1945   -8.0  0.6755  -90.1
 5.500  0.7272 -113.9   2.327   67.0  0.1958   -9.3  0.6704  -91.1
 5.600  0.7229 -115.2   2.305   65.5  0.1964  -10.7  0.6652  -92.2
 5.700  0.7191 -116.6   2.284   64.0  0.1972  -12.0  0.6604  -93.4
 5.800  0.7156 -117.9   2.266   62.4  0.1980  -13.4  0.6558  -94.6
 5.900  0.7125 -119.3   2.248   60.8  0.1989  -14.7  0.6514  -95.8
 6.000  0.7099 -120.7   2.233   59.2  0.2000  -16.0  0.6474  -97.0
 6.100  0.7035 -122.4   2.216   57.6  0.2006  -17.4  0.6409  -98.4
 6.200  0.6977 -124.2   2.201   56.0  0.2012  -18.8  0.6348  -99.8
 6.300  0.6925 -126.0   2.188   54.3  0.2020  -20.2  0.6291 -101.3
 6.400  0.6881 -127.8   2.177   52.7  0.2030  -21.5  0.6238 -102.8
 6.500  0.6843 -129.6   2.167   51.0  0.2040  -22.9  0.6189 -104.3
 6.600  0.6750 -131.7   2.148   49.3  0.2041  -24.4  0.6101 -105.9
 6.800  0.6591 -136.0   2.114   45.9  0.2047  -27.3  0.5940 -109.3
 7.000  0.6472 -140.5   2.089   42.4  0.2059  -30.2  0.5801 -112.8
 7.200  0.6277 -145.8   2.048   39.0  0.2052  -33.1  0.5584 -116.9
 7.400  0.6139 -151.4   2.014   35.4  0.2051  -36.0  0.5397 -121.2
 7.600  0.5958 -160.1   1.981   31.9  0.2047  -39.1  0.5213 -125.9
 7.800  0.5882 -172.2   1.947   28.3  0.2042  -42.2  0.5038 -131.0
 8.000  0.6069  175.9   1.922   24.6  0.2043  -45.3  0.4904 -136.4
 8.200  0.6003  169.9   1.873   20.8  0.2012  -48.7  0.4701 -143.5
 8.400  0.6005  163.7   1.833   16.8  0.1988  -52.2  0.4575 -151.1
 8.600  0.6018  157.9   1.782   13.0  0.1951  -55.6  0.4448 -158.9
 8.800  0.6034  152.3   1.718    9.2  0.1901  -58.9  0.4322 -167.1
 9.000  0.6108  146.8   1.663    5.2  0.1857  -62.3  0.4289 -175.6
 9.200  0.6180  142.4   1.598    2.1  0.1796  -64.9  0.4322  178.7
 9.400  0.6287  138.1   1.538   -1.2  0.1738  -67.7  0.4397  173.1
 9.600  0.6414  134.4   1.479   -4.4  0.1680  -70.4  0.4488  168.0
 9.800  0.6549  131.3   1.419   -7.4  0.1619  -72.8  0.4588  163.4
10.000  0.6702  128.3   1.363  -10.6  0.1562  -75.4  0.4716  159.0
!
!  f       NFmin   Gammaopt  rn/50
! GHz       dB    MAG  ANG    -
 0.450      0.46  0.82    5   0.47
 0.900      0.60  0.80   13   0.49
 1.800      0.65  0.78   26   0.36
 2.400      0.69  0.80   31   0.37
 5.500      1.15  0.59   94   0.23
10.000      1.70  0.42 -145   0.16
!
! (c) 2016  Infineon Technologies AG, Munich
