! Infineon Technologies  Discrete & RF Semiconductors
! BFP760
! VCE =  2.0 V,  IC =  70 mA
! Common Emitter S-Parameters:                            Nov 2012
# GHz  S  MA  R  50
!  f         S11            S21            S12            S22
! GHz     MAG   ANG      MAG   ANG      MAG   ANG      MAG   ANG
 0.030  0.1417  -39.9  39.625  174.3  0.0027   51.6  0.4632   -5.3
 0.040  0.1552  -49.4  39.451  172.3  0.0031   53.6  0.4635   -7.8
 0.050  0.1735  -56.0  40.072  169.5  0.0040   62.7  0.4626  -10.1
 0.060  0.1898  -64.1  39.511  167.1  0.0038   53.8  0.4605  -12.4
 0.070  0.2073  -70.5  39.115  164.7  0.0045   63.1  0.4571  -14.8
 0.080  0.2253  -76.0  38.700  162.6  0.0057   60.8  0.4549  -17.2
 0.090  0.2420  -80.9  38.257  160.6  0.0061   63.8  0.4508  -19.3
 0.100  0.2589  -85.2  37.763  158.5  0.0062   59.9  0.4461  -21.6
 0.110  0.2769  -89.1  37.258  156.5  0.0071   62.0  0.4396  -23.7
 0.120  0.2937  -92.7  36.654  154.6  0.0074   62.2  0.4349  -25.7
 0.130  0.3107  -95.7  36.197  152.8  0.0075   60.2  0.4298  -27.6
 0.140  0.3266  -98.5  35.660  151.1  0.0084   61.2  0.4231  -29.4
 0.150  0.3431 -101.3  35.232  149.3  0.0088   60.8  0.4170  -31.3
 0.200  0.4141 -112.7  32.362  141.3  0.0107   56.9  0.3876  -39.8
 0.250  0.4713 -121.4  29.785  134.8  0.0128   53.6  0.3581  -47.0
 0.300  0.5158 -128.6  27.343  129.1  0.0143   51.8  0.3333  -53.5
 0.350  0.5530 -134.5  25.163  124.3  0.0156   51.1  0.3097  -59.3
 0.400  0.5847 -139.4  23.124  120.2  0.0169   48.7  0.2886  -64.3
 0.450  0.6087 -143.6  21.502  116.6  0.0179   47.7  0.2722  -69.3
 0.500  0.6288 -147.5  19.883  113.5  0.0190   46.1  0.2553  -73.7
 0.600  0.6629 -153.8  17.332  108.2  0.0205   43.8  0.2302  -81.8
 0.700  0.6858 -159.0  15.311  103.8  0.0218   42.1  0.2092  -89.3
 0.800  0.7045 -163.4  13.763   99.9  0.0230   41.1  0.1935  -96.1
 0.900  0.7188 -167.3  12.354   96.6  0.0241   40.0  0.1810 -102.6
 1.000  0.7306 -170.6  11.250   93.7  0.0249   39.2  0.1719 -108.5
 1.100  0.7398 -173.7  10.296   90.9  0.0257   38.9  0.1644 -114.2
 1.200  0.7484 -176.4   9.516   88.5  0.0266   38.7  0.1595 -119.3
 1.300  0.7551 -179.0   8.816   86.1  0.0273   38.5  0.1553 -124.2
 1.400  0.7612  178.7   8.230   84.0  0.0281   38.5  0.1530 -128.5
 1.500  0.7667  176.4   7.690   81.8  0.0288   38.5  0.1507 -132.8
 1.600  0.7720  174.4   7.247   79.9  0.0295   38.5  0.1502 -136.5
 1.700  0.7765  172.3   6.829   77.9  0.0303   38.7  0.1487 -140.4
 1.800  0.7806  170.4   6.450   76.0  0.0309   39.1  0.1498 -143.9
 1.900  0.7841  168.6   6.119   74.2  0.0318   38.9  0.1499 -147.4
 2.000  0.7879  166.8   5.815   72.3  0.0325   39.1  0.1518 -150.5
 2.100  0.7894  165.3   5.526   70.6  0.0330   39.3  0.1543 -152.7
 2.200  0.7915  163.7   5.262   68.9  0.0337   39.5  0.1558 -155.5
 2.300  0.7940  162.1   5.038   67.3  0.0345   39.6  0.1574 -158.1
 2.400  0.7967  160.5   4.818   65.6  0.0353   39.8  0.1596 -160.7
 2.500  0.7992  158.9   4.626   64.0  0.0361   39.6  0.1616 -163.2
 2.600  0.8011  157.4   4.433   62.3  0.0369   39.9  0.1640 -165.8
 2.700  0.8030  156.0   4.265   60.8  0.0376   40.0  0.1667 -168.3
 2.800  0.8050  154.5   4.099   59.3  0.0383   40.0  0.1703 -170.5
 2.900  0.8072  153.1   3.948   57.7  0.0391   40.0  0.1739 -172.9
 3.000  0.8095  151.6   3.808   56.1  0.0399   40.0  0.1787 -175.2
 3.100  0.8118  150.3   3.674   54.6  0.0407   40.0  0.1834 -177.1
 3.200  0.8142  149.0   3.544   53.2  0.0415   39.9  0.1877 -178.9
 3.300  0.8161  147.6   3.425   51.7  0.0422   39.7  0.1929  179.1
 3.400  0.8184  146.3   3.308   50.2  0.0430   39.8  0.1982  177.5
 3.500  0.8210  145.1   3.205   48.8  0.0438   39.6  0.2036  175.8
 3.600  0.8231  143.8   3.098   47.3  0.0446   39.5  0.2091  174.2
 3.700  0.8255  142.5   3.004   45.9  0.0453   39.4  0.2150  172.7
 3.800  0.8268  141.3   2.903   44.6  0.0460   39.3  0.2212  171.3
 3.900  0.8290  140.2   2.820   43.2  0.0468   39.2  0.2274  170.0
 4.000  0.8309  139.1   2.732   41.9  0.0474   39.1  0.2338  168.8
 4.100  0.8334  138.0   2.656   40.6  0.0483   39.0  0.2403  167.7
 4.200  0.8352  137.1   2.576   39.3  0.0490   38.8  0.2462  166.7
 4.300  0.8368  136.1   2.504   38.1  0.0497   38.6  0.2529  165.8
 4.400  0.8389  135.2   2.432   36.9  0.0505   38.4  0.2586  164.9
 4.500  0.8406  134.2   2.369   35.6  0.0513   38.4  0.2647  164.1
 4.600  0.8427  133.3   2.303   34.4  0.0520   38.2  0.2700  163.2
 4.700  0.8440  132.6   2.245   33.3  0.0528   37.9  0.2761  162.4
 4.800  0.8457  131.8   2.185   32.1  0.0535   37.8  0.2813  161.7
 4.900  0.8471  131.0   2.133   30.9  0.0543   37.6  0.2869  160.9
 5.000  0.8487  130.3   2.077   29.8  0.0552   37.4  0.2919  160.1
 5.100  0.8499  129.6   2.031   28.6  0.0559   37.3  0.2973  159.4
 5.200  0.8513  128.9   1.982   27.5  0.0566   37.0  0.3019  158.6
 5.300  0.8523  128.2   1.937   26.3  0.0574   36.8  0.3067  157.8
 5.400  0.8529  127.5   1.891   25.2  0.0582   36.6  0.3117  156.9
 5.500  0.8529  126.8   1.850   24.1  0.0589   36.4  0.3158  156.2
 5.600  0.8529  126.3   1.807   23.1  0.0598   36.3  0.3198  155.3
 5.700  0.8538  125.6   1.773   21.9  0.0607   36.0  0.3252  154.4
 5.800  0.8541  124.9   1.733   20.8  0.0616   35.7  0.3293  153.6
 5.900  0.8549  124.3   1.699   19.7  0.0624   35.5  0.3341  152.6
 6.000  0.8559  123.6   1.664   18.6  0.0635   35.3  0.3392  151.7
 6.100  0.8571  123.1   1.634   17.5  0.0644   34.9  0.3447  150.9
 6.200  0.8574  122.3   1.599   16.3  0.0653   34.4  0.3489  150.1
 6.300  0.8592  121.7   1.571   15.3  0.0663   34.0  0.3544  149.2
 6.400  0.8598  120.9   1.539   14.1  0.0672   33.5  0.3593  148.3
 6.500  0.8610  120.1   1.512   12.9  0.0681   33.1  0.3646  147.5
 6.600  0.8632  119.3   1.482   11.7  0.0688   32.5  0.3693  146.5
 6.700  0.8641  118.6   1.456   10.7  0.0699   32.1  0.3747  145.7
 6.800  0.8643  117.8   1.427    9.5  0.0707   31.7  0.3795  144.7
 6.900  0.8663  116.9   1.402    8.4  0.0715   31.0  0.3853  143.9
 7.000  0.8675  116.0   1.377    7.2  0.0724   30.5  0.3900  143.0
 7.100  0.8693  115.1   1.353    6.0  0.0734   29.9  0.3967  142.1
 7.200  0.8713  114.2   1.328    4.8  0.0741   29.3  0.4018  141.3
 7.300  0.8719  113.4   1.305    3.7  0.0749   28.8  0.4075  140.4
 7.400  0.8740  112.3   1.280    2.4  0.0756   28.0  0.4130  139.4
 7.500  0.8767  111.4   1.260    1.2  0.0765   27.4  0.4189  138.5
 7.600  0.8785  110.4   1.235   -0.1  0.0773   26.6  0.4248  137.4
 7.700  0.8803  109.5   1.214   -1.2  0.0779   26.0  0.4306  136.4
 7.800  0.8826  108.5   1.189   -2.5  0.0785   25.3  0.4373  135.2
 7.900  0.8848  107.5   1.169   -3.8  0.0791   24.5  0.4437  134.1
 8.000  0.8875  106.6   1.143   -5.0  0.0795   23.7  0.4508  133.0
 8.500  0.8994  101.9   1.028  -11.2  0.0812   20.0  0.4870  126.9
 9.000  0.9087   97.9   0.911  -16.6  0.0810   16.8  0.5294  121.4
 9.500  0.9177   95.0   0.806  -20.6  0.0804   14.9  0.5720  117.3
10.000  0.9252   93.4   0.720  -23.2  0.0804   13.9  0.6114  115.3
!
!  f       NFmin   Gammaopt  rn/50
! GHz       dB    MAG  ANG    -
!
! noise parameter not available yet for this operation point!
!
! (c) 2012  Infineon Technologies AG, Munich
