! Infineon Technologies  Discrete & RF Semiconductors
! BFP720F
! VCE =  3.5 V,  IC =  5.0 mA
! Common Emitter S-Parameters:                            Jan 2016
# GHz  S  MA  R  50
!  f         S11            S21            S12            S22
! GHz     MAG   ANG      MAG   ANG      MAG   ANG      MAG   ANG
 0.010  0.9336    0.0  14.220  179.1  0.0011  -37.7  0.9895    0.2
 0.015  0.9364   -0.4  14.079  178.3  0.0005    0.2  0.9938   -0.5
 0.020  0.9393   -0.7  13.941  177.4  0.0007   75.3  0.9982   -1.2
 0.025  0.9390   -0.9  13.962  177.5  0.0009   76.1  0.9977   -1.2
 0.030  0.9387   -1.1  13.983  177.5  0.0010   76.6  0.9973   -1.2
 0.035  0.9385   -1.3  14.004  177.6  0.0012   77.0  0.9968   -1.2
 0.040  0.9382   -1.6  14.025  177.6  0.0014   77.3  0.9963   -1.3
 0.045  0.9380   -1.8  14.046  177.7  0.0015   77.5  0.9959   -1.3
 0.050  0.9378   -2.0  14.067  177.7  0.0017   77.7  0.9954   -1.3
 0.055  0.9377   -2.2  14.064  177.6  0.0019   78.9  0.9954   -1.4
 0.060  0.9376   -2.4  14.061  177.4  0.0020   79.8  0.9954   -1.6
 0.065  0.9375   -2.6  14.058  177.3  0.0022   80.7  0.9955   -1.7
 0.070  0.9374   -2.8  14.055  177.1  0.0024   81.4  0.9955   -1.8
 0.075  0.9374   -3.0  14.052  177.0  0.0025   82.0  0.9955   -2.0
 0.080  0.9373   -3.2  14.049  176.8  0.0027   82.5  0.9956   -2.1
 0.085  0.9373   -3.4  14.046  176.7  0.0029   83.0  0.9956   -2.2
 0.090  0.9372   -3.6  14.044  176.5  0.0031   83.4  0.9957   -2.3
 0.095  0.9372   -3.8  14.041  176.4  0.0032   83.8  0.9957   -2.5
 0.100  0.9372   -4.0  14.039  176.2  0.0034   84.1  0.9958   -2.6
 0.105  0.9370   -4.2  14.035  176.0  0.0036   84.1  0.9957   -2.7
 0.110  0.9368   -4.4  14.032  175.9  0.0037   84.1  0.9956   -2.9
 0.115  0.9367   -4.6  14.028  175.7  0.0039   84.1  0.9955   -3.0
 0.120  0.9365   -4.8  14.024  175.6  0.0041   84.2  0.9954   -3.2
 0.125  0.9364   -5.0  14.021  175.4  0.0042   84.2  0.9954   -3.3
 0.130  0.9363   -5.2  14.018  175.2  0.0044   84.2  0.9953   -3.4
 0.135  0.9362   -5.4  14.015  175.1  0.0046   84.2  0.9952   -3.6
 0.140  0.9361   -5.6  14.012  174.9  0.0048   84.2  0.9952   -3.7
 0.145  0.9360   -5.8  14.009  174.8  0.0049   84.2  0.9951   -3.9
 0.150  0.9359   -6.0  14.006  174.6  0.0051   84.2  0.9951   -4.0
 0.155  0.9356   -6.2  13.997  174.4  0.0053   84.1  0.9948   -4.1
 0.160  0.9354   -6.4  13.989  174.3  0.0054   84.0  0.9945   -4.3
 0.165  0.9352   -6.6  13.981  174.1  0.0056   83.9  0.9943   -4.4
 0.170  0.9349   -6.8  13.972  174.0  0.0058   83.8  0.9940   -4.5
 0.175  0.9347   -7.0  13.964  173.8  0.0059   83.7  0.9937   -4.6
 0.180  0.9345   -7.2  13.956  173.6  0.0061   83.6  0.9935   -4.8
 0.185  0.9343   -7.4  13.948  173.5  0.0063   83.5  0.9932   -4.9
 0.190  0.9341   -7.6  13.940  173.3  0.0065   83.4  0.9930   -5.0
 0.195  0.9340   -7.8  13.933  173.2  0.0066   83.4  0.9927   -5.2
 0.200  0.9338   -8.0  13.925  173.0  0.0068   83.3  0.9925   -5.3
 0.220  0.9327   -8.8  13.920  172.4  0.0075   83.0  0.9921   -5.8
 0.240  0.9317   -9.6  13.918  171.7  0.0082   82.7  0.9917   -6.3
 0.260  0.9310  -10.4  13.902  171.1  0.0089   82.3  0.9906   -6.9
 0.280  0.9304  -11.2  13.872  170.6  0.0096   81.8  0.9885   -7.4
 0.300  0.9301  -12.0  13.844  170.0  0.0103   81.3  0.9866   -8.0
 0.320  0.9288  -12.8  13.828  169.4  0.0110   80.9  0.9863   -8.5
 0.340  0.9278  -13.6  13.814  168.7  0.0117   80.5  0.9861   -9.0
 0.360  0.9267  -14.4  13.803  168.1  0.0123   80.0  0.9852   -9.6
 0.380  0.9257  -15.3  13.796  167.5  0.0130   79.5  0.9838  -10.1
 0.400  0.9248  -16.1  13.791  166.9  0.0137   79.0  0.9824  -10.7
 0.420  0.9233  -16.9  13.752  166.3  0.0144   78.5  0.9813  -11.2
 0.440  0.9219  -17.7  13.714  165.7  0.0151   78.0  0.9804  -11.7
 0.450  0.9213  -18.1  13.696  165.4  0.0154   77.8  0.9799  -12.0
 0.460  0.9208  -18.5  13.692  165.1  0.0157   77.6  0.9792  -12.3
 0.480  0.9198  -19.3  13.684  164.6  0.0164   77.1  0.9777  -12.8
 0.500  0.9190  -20.1  13.678  164.0  0.0170   76.7  0.9764  -13.3
 0.520  0.9172  -20.9  13.659  163.4  0.0177   76.1  0.9746  -13.8
 0.540  0.9156  -21.7  13.642  162.8  0.0184   75.5  0.9729  -14.4
 0.560  0.9141  -22.6  13.627  162.1  0.0190   75.0  0.9712  -14.9
 0.580  0.9129  -23.4  13.613  161.5  0.0197   74.5  0.9697  -15.5
 0.600  0.9118  -24.2  13.601  160.9  0.0204   74.1  0.9682  -16.0
 0.620  0.9099  -25.0  13.574  160.3  0.0210   73.5  0.9664  -16.5
 0.640  0.9081  -25.8  13.549  159.7  0.0217   73.0  0.9648  -17.0
 0.660  0.9065  -26.6  13.525  159.2  0.0223   72.5  0.9632  -17.6
 0.680  0.9051  -27.4  13.502  158.6  0.0230   72.0  0.9616  -18.1
 0.700  0.9039  -28.2  13.481  158.0  0.0236   71.6  0.9602  -18.6
 0.720  0.9016  -29.1  13.484  157.4  0.0242   71.0  0.9580  -19.1
 0.740  0.8995  -29.9  13.488  156.8  0.0249   70.5  0.9559  -19.6
 0.760  0.8977  -30.8  13.494  156.1  0.0255   70.0  0.9539  -20.2
 0.780  0.8960  -31.6  13.501  155.5  0.0262   69.6  0.9520  -20.7
 0.800  0.8945  -32.5  13.510  154.9  0.0268   69.1  0.9501  -21.2
 0.820  0.8922  -33.3  13.479  154.3  0.0274   68.6  0.9476  -21.7
 0.840  0.8900  -34.1  13.450  153.7  0.0280   68.0  0.9452  -22.2
 0.860  0.8880  -34.9  13.422  153.1  0.0287   67.5  0.9428  -22.8
 0.880  0.8862  -35.7  13.395  152.5  0.0293   67.1  0.9406  -23.3
 0.900  0.8845  -36.5  13.370  151.9  0.0299   66.6  0.9384  -23.8
 0.920  0.8822  -37.3  13.339  151.3  0.0305   66.0  0.9357  -24.3
 0.940  0.8801  -38.1  13.310  150.7  0.0311   65.5  0.9331  -24.8
 0.960  0.8782  -38.9  13.282  150.1  0.0317   65.0  0.9305  -25.4
 0.980  0.8765  -39.8  13.256  149.5  0.0323   64.5  0.9280  -25.9
 1.000  0.8749  -40.6  13.231  148.9  0.0329   64.0  0.9256  -26.4
 1.020  0.8725  -41.4  13.192  148.3  0.0335   63.5  0.9228  -26.9
 1.040  0.8702  -42.1  13.154  147.7  0.0340   63.0  0.9200  -27.4
 1.060  0.8681  -42.9  13.117  147.2  0.0346   62.5  0.9173  -27.9
 1.080  0.8661  -43.7  13.082  146.6  0.0351   62.0  0.9147  -28.4
 1.100  0.8643  -44.5  13.048  146.0  0.0357   61.5  0.9122  -28.9
 1.120  0.8616  -45.3  13.016  145.4  0.0362   61.0  0.9092  -29.4
 1.140  0.8591  -46.1  12.986  144.8  0.0368   60.5  0.9062  -29.9
 1.160  0.8568  -46.9  12.956  144.3  0.0373   60.0  0.9033  -30.5
 1.180  0.8546  -47.8  12.929  143.7  0.0379   59.5  0.9005  -31.0
 1.200  0.8526  -48.6  12.902  143.1  0.0384   59.0  0.8978  -31.5
 1.220  0.8499  -49.4  12.865  142.5  0.0389   58.5  0.8946  -32.0
 1.240  0.8474  -50.2  12.829  141.9  0.0395   58.0  0.8915  -32.5
 1.260  0.8451  -51.0  12.795  141.3  0.0400   57.5  0.8885  -33.0
 1.280  0.8429  -51.8  12.762  140.7  0.0406   57.0  0.8855  -33.5
 1.300  0.8409  -52.6  12.731  140.1  0.0411   56.5  0.8826  -34.0
 1.320  0.8383  -53.4  12.692  139.5  0.0416   56.0  0.8794  -34.5
 1.340  0.8359  -54.2  12.654  139.0  0.0421   55.5  0.8762  -35.0
 1.360  0.8336  -55.0  12.618  138.4  0.0425   55.1  0.8731  -35.5
 1.380  0.8315  -55.8  12.582  137.9  0.0430   54.6  0.8701  -36.0
 1.400  0.8295  -56.6  12.548  137.3  0.0435   54.2  0.8671  -36.5
 1.420  0.8268  -57.4  12.511  136.7  0.0440   53.7  0.8636  -37.0
 1.440  0.8242  -58.2  12.474  136.2  0.0445   53.2  0.8601  -37.5
 1.460  0.8218  -59.0  12.439  135.6  0.0449   52.7  0.8568  -38.0
 1.480  0.8195  -59.8  12.406  135.1  0.0454   52.3  0.8534  -38.5
 1.500  0.8174  -60.6  12.373  134.5  0.0459   51.8  0.8502  -39.0
 1.520  0.8144  -61.4  12.354  133.9  0.0463   51.3  0.8469  -39.5
 1.540  0.8115  -62.3  12.337  133.3  0.0467   50.9  0.8436  -39.9
 1.560  0.8089  -63.2  12.321  132.6  0.0472   50.4  0.8404  -40.4
 1.580  0.8064  -64.0  12.307  132.0  0.0476   49.9  0.8373  -40.8
 1.600  0.8041  -64.9  12.294  131.4  0.0480   49.5  0.8342  -41.3
 1.620  0.8013  -65.7  12.247  130.8  0.0484   49.0  0.8305  -41.8
 1.640  0.7986  -66.4  12.201  130.3  0.0488   48.5  0.8269  -42.2
 1.660  0.7960  -67.2  12.157  129.7  0.0492   48.0  0.8233  -42.7
 1.680  0.7936  -68.0  12.113  129.2  0.0496   47.6  0.8198  -43.2
 1.700  0.7914  -68.8  12.071  128.6  0.0500   47.1  0.8164  -43.7
 1.720  0.7890  -69.5  12.022  128.1  0.0504   46.6  0.8132  -44.2
 1.740  0.7867  -70.2  11.974  127.5  0.0508   46.2  0.8101  -44.6
 1.760  0.7845  -70.9  11.927  127.0  0.0511   45.8  0.8070  -45.1
 1.780  0.7825  -71.7  11.882  126.4  0.0515   45.3  0.8040  -45.5
 1.800  0.7806  -72.4  11.837  125.9  0.0519   44.9  0.8010  -46.0
 1.820  0.7778  -73.1  11.788  125.4  0.0522   44.4  0.7975  -46.4
 1.840  0.7752  -73.9  11.740  124.8  0.0526   44.0  0.7940  -46.9
 1.860  0.7727  -74.6  11.693  124.3  0.0529   43.6  0.7906  -47.3
 1.880  0.7703  -75.4  11.647  123.7  0.0533   43.1  0.7872  -47.8
 1.900  0.7680  -76.1  11.602  123.2  0.0536   42.7  0.7839  -48.2
 1.920  0.7657  -76.8  11.556  122.7  0.0539   42.3  0.7806  -48.6
 1.940  0.7635  -77.5  11.511  122.2  0.0542   41.8  0.7774  -49.0
 1.960  0.7614  -78.2  11.467  121.7  0.0545   41.4  0.7742  -49.4
 1.980  0.7594  -78.9  11.424  121.1  0.0548   41.0  0.7710  -49.8
 2.000  0.7575  -79.6  11.382  120.6  0.0551   40.6  0.7679  -50.2
 2.020  0.7551  -80.3  11.329  120.1  0.0554   40.2  0.7646  -50.6
 2.040  0.7528  -80.9  11.278  119.6  0.0556   39.8  0.7614  -51.0
 2.060  0.7507  -81.6  11.227  119.1  0.0559   39.4  0.7582  -51.4
 2.080  0.7486  -82.2  11.177  118.7  0.0561   39.0  0.7551  -51.8
 2.100  0.7466  -82.9  11.127  118.2  0.0564   38.6  0.7520  -52.2
 2.120  0.7448  -83.6  11.079  117.7  0.0567   38.2  0.7489  -52.6
 2.140  0.7430  -84.3  11.031  117.1  0.0570   37.8  0.7459  -53.0
 2.160  0.7413  -84.9  10.985  116.6  0.0572   37.4  0.7429  -53.5
 2.180  0.7398  -85.6  10.939  116.1  0.0575   37.0  0.7399  -53.9
 2.200  0.7383  -86.3  10.894  115.6  0.0578   36.6  0.7370  -54.3
 2.220  0.7361  -86.9  10.841  115.1  0.0580   36.2  0.7340  -54.7
 2.240  0.7341  -87.5  10.789  114.7  0.0582   35.8  0.7311  -55.0
 2.260  0.7321  -88.1  10.738  114.2  0.0584   35.4  0.7282  -55.4
 2.280  0.7302  -88.7  10.687  113.8  0.0586   35.0  0.7253  -55.7
 2.300  0.7283  -89.4  10.638  113.3  0.0589   34.7  0.7225  -56.1
 2.320  0.7266  -90.0  10.588  112.8  0.0591   34.3  0.7197  -56.5
 2.340  0.7249  -90.6  10.540  112.4  0.0593   33.9  0.7169  -56.9
 2.360  0.7234  -91.2  10.492  111.9  0.0595   33.5  0.7141  -57.2
 2.380  0.7219  -91.9  10.445  111.4  0.0598   33.2  0.7114  -57.6
 2.400  0.7205  -92.5  10.399  110.9  0.0600   32.8  0.7087  -58.0
 2.420  0.7186  -93.1  10.351  110.5  0.0602   32.5  0.7059  -58.3
 2.440  0.7168  -93.7  10.303  110.0  0.0603   32.1  0.7032  -58.6
 2.460  0.7151  -94.2  10.256  109.6  0.0605   31.8  0.7005  -59.0
 2.480  0.7134  -94.8  10.210  109.1  0.0607   31.4  0.6978  -59.3
 2.500  0.7118  -95.4  10.164  108.7  0.0608   31.1  0.6951  -59.6
 2.520  0.7103  -96.0  10.119  108.2  0.0610   30.7  0.6925  -59.9
 2.540  0.7089  -96.6  10.075  107.8  0.0612   30.4  0.6898  -60.3
 2.560  0.7075  -97.2  10.031  107.3  0.0613   30.1  0.6872  -60.6
 2.580  0.7062  -97.8   9.988  106.9  0.0615   29.7  0.6847  -61.0
 2.600  0.7050  -98.4   9.945  106.4  0.0617   29.4  0.6821  -61.3
 2.620  0.7033  -98.9   9.898  106.0  0.0618   29.1  0.6795  -61.6
 2.640  0.7016  -99.4   9.851  105.6  0.0619   28.8  0.6770  -61.8
 2.660  0.7000  -99.9   9.805  105.2  0.0621   28.5  0.6744  -62.1
 2.680  0.6985 -100.5   9.759  104.8  0.0622   28.2  0.6719  -62.4
 2.700  0.6970 -101.0   9.713  104.3  0.0623   27.9  0.6694  -62.7
 2.720  0.6955 -101.5   9.669  103.9  0.0625   27.6  0.6669  -63.0
 2.740  0.6942 -102.0   9.624  103.5  0.0626   27.4  0.6644  -63.2
 2.760  0.6929 -102.5   9.581  103.1  0.0627   27.1  0.6620  -63.5
 2.780  0.6916 -103.1   9.538  102.6  0.0629   26.8  0.6595  -63.8
 2.800  0.6904 -103.6   9.495  102.2  0.0630   26.5  0.6571  -64.1
 2.820  0.6891 -104.1   9.453  101.8  0.0631   26.2  0.6551  -64.4
 2.840  0.6879 -104.6   9.412  101.4  0.0632   25.9  0.6530  -64.7
 2.860  0.6867 -105.1   9.371  101.0  0.0633   25.6  0.6510  -65.0
 2.880  0.6855 -105.6   9.330  100.6  0.0635   25.4  0.6491  -65.2
 2.900  0.6845 -106.1   9.290  100.2  0.0636   25.1  0.6471  -65.5
 2.920  0.6834 -106.6   9.251   99.8  0.0637   24.8  0.6451  -65.8
 2.940  0.6825 -107.2   9.212   99.4  0.0638   24.5  0.6432  -66.1
 2.960  0.6816 -107.7   9.173   99.0  0.0639   24.3  0.6413  -66.4
 2.980  0.6807 -108.2   9.135   98.6  0.0641   24.0  0.6394  -66.7
 3.000  0.6799 -108.7   9.097   98.2  0.0642   23.7  0.6375  -67.0
 3.100  0.6734 -110.7   8.897   96.5  0.0645   22.5  0.6281  -68.0
 3.200  0.6678 -112.8   8.706   94.8  0.0649   21.2  0.6189  -69.0
 3.300  0.6630 -114.9   8.522   93.0  0.0653   20.0  0.6099  -70.1
 3.400  0.6591 -117.0   8.348   91.1  0.0657   18.8  0.6012  -71.2
 3.500  0.6561 -119.1   8.183   89.1  0.0661   17.6  0.5926  -72.3
 3.600  0.6514 -120.7   8.016   87.6  0.0663   16.6  0.5852  -73.0
 3.700  0.6472 -122.4   7.855   86.1  0.0664   15.6  0.5779  -73.8
 3.800  0.6436 -124.1   7.700   84.5  0.0666   14.6  0.5707  -74.5
 3.900  0.6405 -125.8   7.551   82.8  0.0669   13.6  0.5636  -75.3
 4.000  0.6380 -127.5   7.409   81.1  0.0671   12.6  0.5566  -76.1
 4.100  0.6352 -128.9   7.275   79.7  0.0672   11.8  0.5508  -76.7
 4.200  0.6329 -130.3   7.145   78.3  0.0673   10.9  0.5450  -77.3
 4.300  0.6309 -131.7   7.019   76.9  0.0675   10.1  0.5394  -78.0
 4.400  0.6292 -133.1   6.898   75.4  0.0676    9.3  0.5337  -78.6
 4.500  0.6280 -134.5   6.782   73.8  0.0678    8.5  0.5282  -79.3
 4.600  0.6252 -135.8   6.672   72.5  0.0679    7.7  0.5228  -79.9
 4.700  0.6227 -137.0   6.566   71.1  0.0679    7.0  0.5175  -80.5
 4.800  0.6205 -138.3   6.464   69.7  0.0680    6.2  0.5122  -81.1
 4.900  0.6187 -139.6   6.366   68.2  0.0681    5.5  0.5070  -81.8
 5.000  0.6171 -140.9   6.272   66.7  0.0682    4.7  0.5018  -82.4
 5.100  0.6134 -142.1   6.180   65.4  0.0682    4.0  0.4967  -83.0
 5.200  0.6100 -143.3   6.091   64.1  0.0683    3.3  0.4916  -83.7
 5.300  0.6068 -144.5   6.006   62.7  0.0683    2.7  0.4867  -84.3
 5.400  0.6040 -145.8   5.923   61.3  0.0683    2.0  0.4817  -85.0
 5.500  0.6014 -147.0   5.845   59.9  0.0684    1.3  0.4769  -85.7
 5.600  0.5986 -148.2   5.767   58.6  0.0684    0.7  0.4730  -86.5
 5.700  0.5961 -149.5   5.692   57.2  0.0684    0.0  0.4692  -87.2
 5.800  0.5939 -150.8   5.621   55.9  0.0684   -0.6  0.4654  -88.0
 5.900  0.5919 -152.0   5.553   54.4  0.0685   -1.3  0.4618  -88.8
 6.000  0.5903 -153.3   5.488   53.0  0.0685   -1.9  0.4582  -89.6
 6.100  0.5759 -158.8   5.421   51.7  0.0684   -2.5  0.4533  -90.6
 6.200  0.5671 -164.6   5.357   50.3  0.0684   -3.1  0.4486  -91.6
 6.300  0.5642 -170.5   5.295   48.9  0.0684   -3.8  0.4440  -92.7
 6.400  0.5672 -176.3   5.238   47.5  0.0683   -4.4  0.4395  -93.7
 6.500  0.5761  177.9   5.183   46.0  0.0683   -5.0  0.4352  -94.8
 6.600  0.5716  176.0   5.116   44.6  0.0682   -5.6  0.4289  -96.0
 6.800  0.5647  172.0   4.993   41.7  0.0679   -6.9  0.4170  -98.5
 7.000  0.5605  168.0   4.883   38.6  0.0677   -8.1  0.4059 -101.2
 7.200  0.5551  163.6   4.756   35.8  0.0673   -9.3  0.3902 -104.4
 7.400  0.5530  159.1   4.641   32.9  0.0670  -10.4  0.3758 -107.9
 7.600  0.5534  154.4   4.528   30.0  0.0665  -11.6  0.3605 -111.8
 7.800  0.5567  149.6   4.416   27.0  0.0661  -12.7  0.3448 -116.2
 8.000  0.5637  144.9   4.317   23.9  0.0656  -13.8  0.3313 -121.0
 8.200  0.5718  139.9   4.188   20.9  0.0648  -15.0  0.3144 -127.6
 8.400  0.5842  135.1   4.072   17.7  0.0640  -16.2  0.3020 -134.9
 8.600  0.5969  130.7   3.945   14.6  0.0630  -17.2  0.2898 -142.9
 8.800  0.6095  126.5   3.804   11.7  0.0619  -17.9  0.2789 -151.9
 9.000  0.6251  122.6   3.673    8.6  0.0608  -18.7  0.2752 -161.3
 9.200  0.6393  119.6   3.538    6.1  0.0598  -19.1  0.2710 -170.4
 9.400  0.6552  116.8   3.411    3.5  0.0588  -19.6  0.2738 -179.6
 9.600  0.6716  114.4   3.289    1.0  0.0578  -19.9  0.2863  173.6
 9.800  0.6880  112.4   3.172   -1.4  0.0569  -20.2  0.3047  169.3
10.000  0.7052  110.5   3.060   -4.0  0.0559  -20.4  0.3246  165.5
!
!  f       NFmin   Gammaopt  rn/50
! GHz       dB    MAG  ANG    -
 0.450      0.41  0.49    4   0.15
 0.900      0.44  0.48    9   0.17
 1.800      0.50  0.44   20   0.17
 2.400      0.54  0.41   29   0.14
 5.500      0.72  0.37   68   0.10
10.000      1.00  0.25 -109   0.15
!
! (c) 2016  Infineon Technologies AG, Munich
