! Infineon Technologies  Discrete & RF Semiconductors
! BFP720
! VCE =  1.0 V,  IC =  1.0 mA
! Common Emitter S-Parameters:                            Aug 2012
# GHz  S  MA  R  50
!  f         S11            S21            S12            S22
! GHz     MAG   ANG      MAG   ANG      MAG   ANG      MAG   ANG
 0.010  0.9870    0.0   3.656 -179.6  0.0007  -11.8  0.9957    0.2
 0.020  0.9863   -0.4   3.499  179.3  0.0011   93.5  0.9997   -0.4
 0.030  0.9871   -0.7   3.500  179.1  0.0016   90.1  0.9993   -0.6
 0.040  0.9878   -0.9   3.502  178.8  0.0021   88.3  0.9989   -0.8
 0.050  0.9886   -1.2   3.504  178.6  0.0025   87.1  0.9985   -1.1
 0.060  0.9885   -1.4   3.503  178.4  0.0030   87.5  0.9986   -1.3
 0.070  0.9884   -1.7   3.501  178.3  0.0036   87.8  0.9986   -1.5
 0.080  0.9884   -1.9   3.499  178.1  0.0041   88.0  0.9987   -1.7
 0.090  0.9883   -2.2   3.498  177.9  0.0046   88.1  0.9988   -1.9
 0.100  0.9883   -2.4   3.496  177.7  0.0051   88.3  0.9989   -2.1
 0.110  0.9883   -2.7   3.501  177.5  0.0056   88.2  0.9990   -2.3
 0.120  0.9882   -2.9   3.505  177.3  0.0061   88.1  0.9990   -2.5
 0.130  0.9882   -3.1   3.509  177.1  0.0066   88.0  0.9991   -2.7
 0.140  0.9882   -3.3   3.513  176.9  0.0071   87.9  0.9992   -2.9
 0.150  0.9882   -3.6   3.518  176.7  0.0075   87.9  0.9993   -3.1
 0.200  0.9871   -4.8   3.510  175.5  0.0099   86.0  0.9988   -4.1
 0.250  0.9861   -6.0   3.524  174.4  0.0126   86.0  0.9991   -5.1
 0.300  0.9851   -7.2   3.517  173.3  0.0151   84.9  0.9971   -6.1
 0.350  0.9845   -8.4   3.527  172.3  0.0177   83.7  0.9972   -7.2
 0.400  0.9841   -9.6   3.548  171.3  0.0203   82.7  0.9960   -8.3
 0.450  0.9831  -10.9   3.528  170.0  0.0228   81.9  0.9955   -9.3
 0.500  0.9815  -12.1   3.551  169.0  0.0253   81.0  0.9948  -10.3
 0.600  0.9800  -14.6   3.560  166.7  0.0305   79.0  0.9919  -12.4
 0.700  0.9772  -17.1   3.571  164.6  0.0357   77.0  0.9901  -14.6
 0.800  0.9745  -19.8   3.601  162.4  0.0409   75.0  0.9884  -16.8
 0.900  0.9720  -22.4   3.620  160.1  0.0460   73.0  0.9850  -19.0
 1.000  0.9684  -25.0   3.633  157.7  0.0513   70.9  0.9813  -21.2
 1.100  0.9637  -27.7   3.648  155.3  0.0565   68.7  0.9771  -23.4
 1.200  0.9603  -30.5   3.662  152.8  0.0617   66.6  0.9730  -25.6
 1.300  0.9556  -33.2   3.669  150.4  0.0668   64.4  0.9674  -27.9
 1.400  0.9503  -35.9   3.664  147.9  0.0719   62.3  0.9612  -30.1
 1.500  0.9454  -38.8   3.671  145.5  0.0769   60.0  0.9545  -32.3
 1.600  0.9396  -41.6   3.697  142.8  0.0818   57.7  0.9482  -34.5
 1.700  0.9322  -44.5   3.701  140.1  0.0866   55.4  0.9407  -36.8
 1.800  0.9264  -47.2   3.690  137.5  0.0913   53.1  0.9337  -39.1
 1.900  0.9198  -49.9   3.676  135.0  0.0959   50.9  0.9267  -41.3
 2.000  0.9141  -52.7   3.658  132.4  0.1003   48.7  0.9191  -43.5
 2.100  0.9065  -55.3   3.638  129.9  0.1045   46.3  0.9105  -45.7
 2.200  0.9008  -58.0   3.626  127.4  0.1089   44.1  0.9032  -47.9
 2.300  0.8938  -60.6   3.597  125.0  0.1127   41.8  0.8955  -50.0
 2.400  0.8887  -63.3   3.576  122.5  0.1168   39.7  0.8891  -52.2
 2.500  0.8818  -65.8   3.550  120.2  0.1204   37.5  0.8804  -54.3
 2.600  0.8767  -68.4   3.531  117.8  0.1242   35.5  0.8729  -56.4
 2.700  0.8699  -71.0   3.505  115.5  0.1276   33.3  0.8642  -58.5
 2.800  0.8649  -73.6   3.485  113.1  0.1312   31.2  0.8568  -60.8
 2.900  0.8576  -76.1   3.458  110.8  0.1344   29.1  0.8489  -62.8
 3.000  0.8520  -78.7   3.437  108.5  0.1379   27.1  0.8421  -64.9
 3.100  0.8409  -81.3   3.410  106.2  0.1403   24.9  0.8304  -67.1
 3.200  0.8317  -84.1   3.388  103.9  0.1430   22.7  0.8198  -69.3
 3.300  0.8244  -86.9   3.372  101.5  0.1458   20.6  0.8105  -71.6
 3.400  0.8190  -89.7   3.362   99.1  0.1489   18.5  0.8025  -73.9
 3.500  0.8157  -92.5   3.358   96.7  0.1521   16.6  0.7959  -76.2
 3.600  0.8032  -95.4   3.327   94.4  0.1540   14.4  0.7828  -78.5
 3.700  0.7929  -98.4   3.302   92.1  0.1561   12.3  0.7711  -80.9
 3.800  0.7848 -101.5   3.282   89.7  0.1584   10.2  0.7607  -83.4
 3.900  0.7790 -104.6   3.268   87.3  0.1609    8.2  0.7517  -85.9
 4.000  0.7755 -107.8   3.260   84.9  0.1636    6.2  0.7442  -88.4
 4.100  0.7622 -111.1   3.224   82.5  0.1647    4.0  0.7288  -91.0
 4.200  0.7514 -114.4   3.194   80.1  0.1660    1.9  0.7149  -93.6
 4.300  0.7432 -117.9   3.170   77.7  0.1676   -0.3  0.7026  -96.3
 4.400  0.7379 -121.4   3.152   75.2  0.1693   -2.3  0.6919  -99.1
 4.500  0.7353 -124.9   3.139   72.7  0.1713   -4.4  0.6829 -102.0
 4.600  0.7225 -128.3   3.095   70.3  0.1712   -6.5  0.6678 -104.7
 4.700  0.7121 -131.7   3.056   67.9  0.1713   -8.7  0.6542 -107.5
 4.800  0.7045 -135.2   3.023   65.4  0.1717  -10.9  0.6421 -110.3
 4.900  0.6995 -138.8   2.996   62.8  0.1723  -13.0  0.6318 -113.3
 5.000  0.6973 -142.4   2.975   60.2  0.1731  -15.2  0.6232 -116.4
 5.100  0.6890 -145.1   2.921   58.0  0.1721  -17.1  0.6129 -118.7
 5.200  0.6823 -147.9   2.872   55.8  0.1712  -19.2  0.6037 -121.1
 5.300  0.6772 -150.7   2.827   53.4  0.1706  -21.2  0.5955 -123.6
 5.400  0.6738 -153.6   2.787   51.0  0.1702  -23.2  0.5885 -126.1
 5.500  0.6720 -156.4   2.751   48.5  0.1700  -25.3  0.5826 -128.7
 5.600  0.6692 -158.4   2.701   46.6  0.1683  -27.0  0.5772 -130.5
 5.700  0.6672 -160.4   2.654   44.6  0.1667  -28.8  0.5724 -132.3
 5.800  0.6660 -162.4   2.610   42.5  0.1653  -30.6  0.5682 -134.1
 5.900  0.6656 -164.4   2.570   40.3  0.1640  -32.5  0.5646 -136.0
 6.000  0.6660 -166.4   2.533   38.1  0.1629  -34.4  0.5616 -137.9
 6.100  0.6637 -167.7   2.490   36.3  0.1608  -35.8  0.5582 -139.0
 6.200  0.6617 -169.1   2.450   34.4  0.1587  -37.4  0.5549 -140.2
 6.300  0.6602 -170.5   2.412   32.5  0.1568  -38.9  0.5519 -141.4
 6.400  0.6590 -171.9   2.377   30.5  0.1550  -40.5  0.5492 -142.6
 6.500  0.6582 -173.3   2.344   28.4  0.1533  -42.2  0.5467 -143.8
 6.600  0.6521 -176.1   2.307   26.8  0.1513  -43.4  0.5417 -144.6
 6.700  0.6474 -178.8   2.271   25.1  0.1493  -44.7  0.5369 -145.4
 6.800  0.6443  178.3   2.237   23.4  0.1473  -46.0  0.5321 -146.2
 6.900  0.6428  175.5   2.205   21.6  0.1455  -47.3  0.5275 -147.0
 7.000  0.6429  172.7   2.176   19.7  0.1437  -48.7  0.5230 -147.8
 7.100  0.6403  170.8   2.148   18.1  0.1423  -49.9  0.5176 -148.8
 7.200  0.6383  169.0   2.123   16.5  0.1409  -51.0  0.5125 -149.8
 7.300  0.6369  167.1   2.099   14.8  0.1395  -52.2  0.5074 -150.8
 7.400  0.6362  165.3   2.077   13.1  0.1383  -53.4  0.5025 -151.8
 7.500  0.6362  163.4   2.057   11.4  0.1371  -54.6  0.4978 -152.8
 7.600  0.6335  161.2   2.036    9.6  0.1357  -56.0  0.4920 -154.7
 7.700  0.6318  158.9   2.018    7.7  0.1343  -57.4  0.4867 -156.6
 7.800  0.6312  156.5   2.001    5.9  0.1331  -58.8  0.4820 -158.6
 7.900  0.6315  154.2   1.987    4.0  0.1319  -60.3  0.4778 -160.6
 8.000  0.6329  151.9   1.974    2.1  0.1308  -61.8  0.4742 -162.6
 8.500  0.6337  138.8   1.856   -8.3  0.1199  -69.7  0.4693  170.2
 9.000  0.6475  126.1   1.711  -18.5  0.1063  -76.1  0.4737  155.8
 9.500  0.6796  115.0   1.557  -28.1  0.0931  -81.0  0.5020  142.5
10.000  0.7156  105.7   1.393  -37.3  0.0806  -84.9  0.5448  131.3
10.500  0.7408   99.3   1.222  -44.4  0.0685  -86.0  0.5867  122.7
11.000  0.7638   96.1   1.102  -49.0  0.0599  -84.7  0.6247  117.1
11.500  0.8038   94.2   1.029  -54.6  0.0539  -83.0  0.6690  113.2
12.000  0.8379   91.5   0.953  -61.7  0.0486  -81.4  0.7102  109.0
!
!  f       NFmin   Gammaopt  rn/50
! GHz       dB    MAG  ANG    -
 0.450      0.50  0.77    6   0.47
 1.800      0.64  0.73   31   0.38
 2.400      0.76  0.64   82   0.29
 5.500      1.17  0.53   99   0.14
10.000      1.87  0.55 -118   0.28
!
! (c) 2012  Infineon Technologies AG, Munich
