! Infineon Technologies  Discrete & RF Semiconductors
! BFP760
! VCE =  2.5 V,  IC =  12 mA
! Common Emitter S-Parameters:                            Nov 2012
# GHz  S  MA  R  50
!  f         S11            S21            S12            S22
! GHz     MAG   ANG      MAG   ANG      MAG   ANG      MAG   ANG
 0.030  0.8806   -4.4  32.979  176.7  0.0024   91.4  0.9951   -3.2
 0.040  0.8803   -5.8  33.004  175.8  0.0035   88.1  0.9953   -4.2
 0.050  0.8771   -7.3  33.365  174.1  0.0038   79.2  0.9921   -5.2
 0.060  0.8773   -8.8  33.183  173.2  0.0046   83.3  0.9918   -6.2
 0.070  0.8757  -10.3  33.133  172.1  0.0066   81.5  0.9916   -7.3
 0.080  0.8745  -11.6  33.001  171.2  0.0062   86.6  0.9901   -8.2
 0.090  0.8732  -13.0  32.889  170.2  0.0070   82.6  0.9879   -9.3
 0.100  0.8707  -14.5  32.780  169.1  0.0084   81.8  0.9850  -10.4
 0.110  0.8696  -15.9  32.604  168.1  0.0091   79.0  0.9823  -11.4
 0.120  0.8674  -17.3  32.451  167.2  0.0101   79.6  0.9799  -12.4
 0.130  0.8660  -18.7  32.306  166.2  0.0104   77.9  0.9770  -13.4
 0.140  0.8639  -20.1  32.119  165.3  0.0114   78.3  0.9728  -14.4
 0.150  0.8606  -21.6  32.084  164.3  0.0121   78.7  0.9695  -15.4
 0.200  0.8495  -28.3  31.179  159.8  0.0157   74.5  0.9500  -20.2
 0.250  0.8354  -34.9  30.405  155.4  0.0195   71.4  0.9272  -24.8
 0.300  0.8214  -41.2  29.452  151.4  0.0228   67.7  0.9042  -29.1
 0.350  0.8071  -47.3  28.483  147.6  0.0258   65.0  0.8792  -33.3
 0.400  0.7940  -53.3  27.634  144.0  0.0287   62.1  0.8512  -37.3
 0.450  0.7814  -58.8  26.671  140.6  0.0315   59.4  0.8283  -41.1
 0.500  0.7691  -64.3  25.784  137.6  0.0339   56.9  0.8003  -44.8
 0.600  0.7469  -74.7  24.095  131.7  0.0382   52.2  0.7502  -51.5
 0.700  0.7281  -84.0  22.470  126.5  0.0420   48.0  0.7037  -57.9
 0.800  0.7121  -92.8  21.014  121.7  0.0450   44.4  0.6599  -63.7
 0.900  0.6991 -100.6  19.648  117.4  0.0477   41.2  0.6193  -69.3
 1.000  0.6880 -107.8  18.394  113.4  0.0498   38.3  0.5830  -74.4
 1.100  0.6783 -114.5  17.264  109.8  0.0516   35.8  0.5498  -79.3
 1.200  0.6714 -120.6  16.246  106.4  0.0530   33.5  0.5210  -83.9
 1.300  0.6650 -126.2  15.319  103.3  0.0543   31.5  0.4946  -88.2
 1.400  0.6613 -131.4  14.475  100.4  0.0555   29.8  0.4722  -92.3
 1.500  0.6580 -136.2  13.718   97.6  0.0564   28.1  0.4511  -96.3
 1.600  0.6569 -140.8  13.045   95.0  0.0573   26.7  0.4340 -100.2
 1.700  0.6556 -145.0  12.411   92.5  0.0580   25.4  0.4164 -104.0
 1.800  0.6564 -149.0  11.832   90.1  0.0587   24.1  0.4032 -107.9
 1.900  0.6563 -152.7  11.299   87.8  0.0594   22.9  0.3894 -111.6
 2.000  0.6575 -156.3  10.813   85.6  0.0599   21.8  0.3787 -115.3
 2.100  0.6577 -159.7  10.326   83.3  0.0602   20.9  0.3684 -118.8
 2.200  0.6580 -162.8   9.891   81.3  0.0606   19.9  0.3591 -122.2
 2.300  0.6584 -165.8   9.496   79.3  0.0610   19.1  0.3501 -125.6
 2.400  0.6600 -168.8   9.129   77.3  0.0612   18.3  0.3429 -128.9
 2.500  0.6613 -171.6   8.783   75.4  0.0615   17.6  0.3359 -132.1
 2.600  0.6625 -174.3   8.455   73.5  0.0617   16.9  0.3295 -135.5
 2.700  0.6636 -176.9   8.150   71.6  0.0619   16.2  0.3242 -138.7
 2.800  0.6655 -179.4   7.862   69.9  0.0621   15.7  0.3199 -142.0
 2.900  0.6673  178.1   7.586   68.1  0.0622   15.1  0.3166 -145.2
 3.000  0.6696  175.8   7.336   66.2  0.0624   14.6  0.3143 -148.5
 3.100  0.6718  173.5   7.090   64.6  0.0625   14.1  0.3126 -151.6
 3.200  0.6742  171.4   6.859   62.9  0.0626   13.7  0.3114 -154.4
 3.300  0.6764  169.2   6.636   61.2  0.0627   13.2  0.3108 -157.5
 3.400  0.6791  167.1   6.424   59.6  0.0627   12.9  0.3110 -160.3
 3.500  0.6820  165.2   6.227   58.1  0.0628   12.5  0.3115 -163.1
 3.600  0.6847  163.2   6.035   56.4  0.0628   12.1  0.3127 -165.7
 3.700  0.6876  161.3   5.854   54.9  0.0629   11.7  0.3143 -168.4
 3.800  0.6899  159.4   5.671   53.4  0.0629   11.5  0.3166 -170.9
 3.900  0.6927  157.8   5.507   51.9  0.0629   11.2  0.3189 -173.2
 4.000  0.6955  156.1   5.344   50.5  0.0629   10.9  0.3219 -175.5
 4.100  0.6989  154.5   5.196   49.0  0.0628   10.7  0.3251 -177.5
 4.200  0.7014  153.0   5.046   47.6  0.0630   10.4  0.3279 -179.5
 4.300  0.7039  151.5   4.905   46.2  0.0630   10.3  0.3315  178.6
 4.400  0.7070  150.2   4.770   44.9  0.0630   10.2  0.3347  177.0
 4.500  0.7096  148.8   4.645   43.6  0.0630   10.2  0.3382  175.3
 4.600  0.7126  147.5   4.522   42.3  0.0630    9.9  0.3410  173.8
 4.700  0.7150  146.4   4.407   41.0  0.0631    9.9  0.3445  172.2
 4.800  0.7177  145.3   4.293   39.8  0.0631    9.8  0.3474  170.9
 4.900  0.7203  144.2   4.189   38.5  0.0631    9.7  0.3508  169.4
 5.000  0.7227  143.2   4.086   37.3  0.0634    9.6  0.3535  168.2
 5.100  0.7249  142.1   3.992   36.1  0.0634    9.6  0.3567  166.9
 5.200  0.7273  141.2   3.900   34.9  0.0635    9.6  0.3592  165.6
 5.300  0.7291  140.2   3.810   33.7  0.0636    9.6  0.3619  164.3
 5.400  0.7308  139.3   3.724   32.5  0.0637    9.5  0.3649  163.1
 5.500  0.7319  138.4   3.641   31.3  0.0638    9.6  0.3670  162.0
 5.600  0.7328  137.7   3.560   30.2  0.0640    9.7  0.3690  160.8
 5.700  0.7343  136.8   3.489   29.1  0.0642    9.8  0.3723  159.5
 5.800  0.7353  136.0   3.414   27.9  0.0643    9.7  0.3744  158.4
 5.900  0.7369  135.2   3.346   26.8  0.0647    9.9  0.3774  157.2
 6.000  0.7386  134.4   3.281   25.6  0.0651    9.9  0.3805  156.0
 6.100  0.7406  133.7   3.219   24.5  0.0654    9.9  0.3844  155.0
 6.200  0.7416  132.8   3.156   23.3  0.0659    9.8  0.3869  154.0
 6.300  0.7442  132.0   3.098   22.2  0.0662    9.7  0.3908  152.9
 6.400  0.7458  131.1   3.040   21.0  0.0666    9.6  0.3944  151.8
 6.500  0.7479  130.2   2.984   19.8  0.0670    9.5  0.3980  150.8
 6.600  0.7505  129.2   2.932   18.6  0.0674    9.4  0.4013  149.7
 6.700  0.7521  128.4   2.878   17.5  0.0677    9.3  0.4052  148.7
 6.800  0.7532  127.4   2.825   16.3  0.0680    9.1  0.4087  147.6
 6.900  0.7562  126.4   2.776   15.1  0.0685    8.9  0.4132  146.6
 7.000  0.7580  125.4   2.730   13.9  0.0689    8.7  0.4168  145.6
 7.100  0.7606  124.4   2.684   12.7  0.0694    8.5  0.4223  144.6
 7.200  0.7631  123.4   2.638   11.5  0.0698    8.3  0.4264  143.7
 7.300  0.7653  122.4   2.593   10.3  0.0701    8.0  0.4309  142.6
 7.400  0.7679  121.2   2.549    9.0  0.0706    7.7  0.4354  141.6
 7.500  0.7719  120.2   2.508    7.7  0.0710    7.4  0.4403  140.5
 7.600  0.7750  119.1   2.464    6.4  0.0714    7.0  0.4452  139.4
 7.700  0.7780  118.1   2.423    5.3  0.0717    6.7  0.4501  138.3
 7.800  0.7818  117.0   2.377    3.9  0.0720    6.3  0.4559  137.0
 7.900  0.7854  115.9   2.338    2.6  0.0723    5.8  0.4614  135.9
 8.000  0.7899  114.8   2.291    1.3  0.0725    5.4  0.4677  134.6
 8.500  0.8110  109.5   2.070   -5.3  0.0728    3.2  0.4994  128.2
 9.000  0.8297  104.7   1.844  -11.2  0.0721    1.5  0.5383  122.3
 9.500  0.8470  101.2   1.635  -15.7  0.0708    0.9  0.5768  118.0
10.000  0.8612   99.1   1.463  -18.9  0.0705    1.2  0.6125  115.9
!
!  f       NFmin   Gammaopt  rn/50
! GHz       dB    MAG  ANG    -
!
! noise parameter not available yet for this operation point!
!
! (c) 2012  Infineon Technologies AG, Munich
