! Infineon Technologies  Discrete & RF Semiconductors
! BFP780
! VCE =  3.0 V,  IC =  5.0 mA
! Common Emitter S-Parameters:                            Jul 2015
# GHz  S  MA  R  50
!  f         S11            S21            S12            S22
! GHz     MAG   ANG      MAG   ANG      MAG   ANG      MAG   ANG
 0.030  0.9108   -9.5  16.002  174.1  0.0068   81.9  0.9959   -5.9
 0.040  0.9100  -12.4  15.881  172.1  0.0105   83.5  0.9924   -7.9
 0.050  0.9055  -15.6  15.981  170.0  0.0131   81.0  0.9922   -9.8
 0.060  0.9075  -18.6  15.803  168.3  0.0153   74.6  0.9851  -11.6
 0.070  0.9042  -21.5  15.774  166.2  0.0173   78.7  0.9812  -13.5
 0.080  0.9016  -24.7  15.796  164.3  0.0201   74.3  0.9769  -15.4
 0.090  0.8992  -27.7  15.577  162.5  0.0228   71.6  0.9707  -17.2
 0.100  0.8976  -30.5  15.463  160.7  0.0254   70.6  0.9641  -19.1
 0.110  0.8951  -33.5  15.411  158.8  0.0268   70.6  0.9581  -21.0
 0.120  0.8936  -36.3  15.178  157.1  0.0284   67.5  0.9520  -22.7
 0.130  0.8915  -39.2  15.044  155.4  0.0304   67.3  0.9417  -24.5
 0.140  0.8873  -42.1  14.983  153.6  0.0326   64.6  0.9334  -26.3
 0.150  0.8858  -44.7  14.769  152.0  0.0354   64.1  0.9271  -27.8
 0.200  0.8736  -57.9  14.032  144.1  0.0442   56.1  0.8804  -36.1
 0.250  0.8594  -69.6  13.110  136.7  0.0517   48.8  0.8354  -43.2
 0.300  0.8460  -80.3  12.280  130.2  0.0578   42.5  0.7867  -50.0
 0.350  0.8334  -90.0  11.449  124.2  0.0622   37.4  0.7426  -55.7
 0.400  0.8228  -98.4  10.658  118.8  0.0658   32.7  0.7014  -60.9
 0.450  0.8134 -105.9   9.970  113.9  0.0689   28.1  0.6671  -65.7
 0.500  0.8048 -112.5   9.275  109.6  0.0712   24.5  0.6355  -69.7
 0.600  0.7927 -124.0   8.155  101.8  0.0739   17.6  0.5834  -77.2
 0.700  0.7822 -133.3   7.224   95.1  0.0758   12.1  0.5437  -83.7
 0.800  0.7787 -140.7   6.433   89.4  0.0766    7.4  0.5183  -89.3
 0.900  0.7744 -147.3   5.797   84.1  0.0768    3.2  0.4958  -94.6
 1.000  0.7746 -152.9   5.271   79.4  0.0766   -0.5  0.4840  -99.6
 1.100  0.7728 -157.7   4.797   74.9  0.0755   -3.8  0.4729 -104.4
 1.200  0.7766 -162.0   4.402   70.7  0.0751   -6.8  0.4722 -108.5
 1.300  0.7763 -165.8   4.048   66.7  0.0742   -9.7  0.4696 -112.5
 1.400  0.7796 -169.4   3.755   62.9  0.0731  -12.4  0.4741 -116.2
 1.500  0.7799 -172.6   3.501   59.3  0.0715  -14.8  0.4756 -120.1
 1.600  0.7850 -175.7   3.261   55.6  0.0703  -17.2  0.4820 -123.9
 1.700  0.7858 -178.7   3.062   52.2  0.0688  -19.3  0.4890 -127.3
 1.800  0.7875  178.5   2.873   48.8  0.0669  -21.4  0.4969 -131.1
 1.900  0.7897  175.9   2.713   45.6  0.0652  -23.3  0.5047 -134.4
 2.000  0.7949  173.5   2.556   42.3  0.0632  -25.0  0.5149 -137.9
 2.100  0.7972  171.1   2.406   39.1  0.0613  -27.3  0.5249 -140.3
 2.200  0.7988  168.9   2.268   35.9  0.0594  -29.0  0.5349 -143.4
 2.300  0.8017  166.7   2.157   33.0  0.0574  -30.4  0.5434 -146.3
 2.400  0.8057  164.5   2.054   29.9  0.0554  -31.5  0.5522 -149.5
 2.500  0.8088  162.2   1.960   27.0  0.0528  -32.8  0.5612 -152.5
 2.600  0.8108  160.1   1.854   23.9  0.0507  -33.6  0.5702 -155.5
 2.700  0.8126  158.1   1.761   21.1  0.0487  -34.5  0.5802 -158.3
 2.800  0.8161  156.1   1.673   18.2  0.0465  -35.1  0.5905 -161.2
 2.900  0.8188  154.1   1.600   15.4  0.0443  -35.6  0.6014 -164.1
 3.000  0.8220  152.0   1.528   12.6  0.0423  -35.8  0.6106 -167.0
 3.100  0.8247  150.3   1.454    9.9  0.0400  -35.7  0.6206 -169.8
 3.200  0.8269  148.4   1.389    7.3  0.0383  -35.0  0.6294 -172.6
 3.300  0.8291  146.5   1.330    4.7  0.0364  -34.1  0.6404 -175.1
 3.400  0.8322  144.7   1.264    2.1  0.0344  -33.5  0.6506 -177.7
 3.500  0.8352  143.1   1.207   -0.3  0.0327  -31.6  0.6614  179.9
 3.600  0.8372  141.2   1.147   -2.9  0.0314  -30.3  0.6699  177.3
 3.700  0.8402  139.6   1.104   -5.2  0.0301  -27.6  0.6790  174.9
 3.800  0.8415  137.8   1.054   -7.5  0.0289  -25.3  0.6873  172.3
 3.900  0.8451  136.3   1.009   -9.7  0.0280  -22.3  0.6977  170.1
 4.000  0.8480  134.6   0.963  -11.9  0.0271  -19.6  0.7067  167.8
 4.100  0.8513  133.0   0.923  -14.1  0.0269  -15.9  0.7149  165.6
 4.200  0.8539  131.5   0.886  -16.2  0.0267  -12.8  0.7231  163.4
 4.300  0.8562  129.9   0.853  -18.2  0.0268   -9.2  0.7312  161.4
 4.400  0.8596  128.5   0.818  -20.1  0.0267   -6.3  0.7401  159.4
 4.500  0.8621  127.0   0.784  -22.1  0.0274   -3.4  0.7480  157.5
 4.600  0.8656  125.7   0.751  -24.0  0.0278   -0.2  0.7551  155.5
 4.700  0.8672  124.3   0.724  -25.9  0.0285    2.2  0.7613  153.5
 4.800  0.8699  123.0   0.694  -27.7  0.0293    4.6  0.7681  151.7
 4.900  0.8719  121.9   0.668  -29.3  0.0301    6.7  0.7747  149.9
 5.000  0.8741  120.5   0.644  -31.1  0.0314    8.2  0.7804  148.1
 5.100  0.8760  119.4   0.623  -32.7  0.0326    9.7  0.7850  146.3
 5.200  0.8771  118.1   0.597  -34.4  0.0337   10.8  0.7900  144.5
 5.300  0.8782  117.1   0.574  -36.1  0.0350   11.7  0.7945  142.8
 5.400  0.8800  115.9   0.551  -37.7  0.0363   12.8  0.7996  141.2
 5.500  0.8800  115.0   0.534  -39.1  0.0372   13.3  0.8031  139.5
 5.600  0.8806  114.0   0.516  -40.5  0.0388   13.7  0.8071  137.9
 5.700  0.8800  113.0   0.500  -41.9  0.0403   14.1  0.8103  136.2
 5.800  0.8810  112.0   0.482  -43.3  0.0416   14.4  0.8135  134.6
 5.900  0.8803  111.1   0.465  -44.7  0.0431   14.4  0.8179  133.0
 6.000  0.8808  109.9   0.448  -46.1  0.0446   14.1  0.8213  131.3
!
!  f       NFmin   Gammaopt  rn/50
! GHz       dB    MAG  ANG    -
 0.450      0.72  0.30   88   0.11
 0.900      0.88  0.34  112   0.11
 1.500      1.20  0.46  153   0.07
 1.800      1.51  0.50  166   0.06
 2.400      1.86  0.56 -178   0.08
 3.000      2.44  0.62 -161   0.14
 3.500      3.41  0.66 -147   0.29
!
! (c) 2015  Infineon Technologies AG, Munich
