! Infineon Technologies  Discrete & RF Semiconductors
! BFP720
! VCE =  4.0 V,  IC =  25 mA
! Common Emitter S-Parameters:                            Aug 2012
# GHz  S  MA  R  50
!  f         S11            S21            S12            S22
! GHz     MAG   ANG      MAG   ANG      MAG   ANG      MAG   ANG
 0.010  0.6661    0.6  43.834  179.2  0.0003   -1.6  0.9307    3.7
 0.020  0.6723   -1.7  43.931  177.1  0.0009   71.3  0.9712    0.1
 0.030  0.6719   -2.9  43.896  176.4  0.0012   73.2  0.9742   -0.7
 0.040  0.6719   -4.0  43.868  175.7  0.0016   74.2  0.9773   -1.4
 0.050  0.6721   -5.2  43.847  175.0  0.0020   74.8  0.9806   -2.1
 0.060  0.6711   -6.4  43.732  174.2  0.0022   76.0  0.9801   -2.8
 0.070  0.6704   -7.5  43.625  173.4  0.0025   77.0  0.9797   -3.5
 0.080  0.6700   -8.6  43.527  172.6  0.0027   77.8  0.9795   -4.2
 0.090  0.6698   -9.8  43.437  171.8  0.0029   78.5  0.9794   -4.9
 0.100  0.6699  -10.9  43.356  171.0  0.0032   79.1  0.9795   -5.6
 0.110  0.6682  -12.0  43.211  170.2  0.0034   78.5  0.9776   -6.2
 0.120  0.6667  -13.1  43.076  169.3  0.0037   78.1  0.9758   -6.8
 0.130  0.6655  -14.2  42.951  168.5  0.0040   77.7  0.9741   -7.4
 0.140  0.6645  -15.3  42.835  167.6  0.0043   77.3  0.9725   -8.1
 0.150  0.6638  -16.4  42.728  166.8  0.0046   77.0  0.9710   -8.7
 0.200  0.6570  -21.7  41.829  162.8  0.0061   75.9  0.9587  -11.6
 0.250  0.6483  -27.0  40.948  159.0  0.0073   74.8  0.9442  -14.3
 0.300  0.6392  -32.0  39.910  155.6  0.0088   72.9  0.9277  -16.9
 0.350  0.6300  -37.0  38.862  152.3  0.0101   71.1  0.9115  -19.4
 0.400  0.6206  -41.9  37.915  149.2  0.0114   69.4  0.8936  -21.8
 0.450  0.6111  -46.7  36.916  146.2  0.0126   67.7  0.8764  -24.1
 0.500  0.6025  -51.5  35.954  143.5  0.0137   66.0  0.8580  -26.2
 0.600  0.5841  -60.7  34.197  138.1  0.0159   62.7  0.8202  -30.3
 0.700  0.5672  -69.6  32.440  133.2  0.0179   59.5  0.7833  -34.2
 0.800  0.5521  -78.3  30.821  128.6  0.0196   56.7  0.7473  -37.8
 0.900  0.5390  -86.5  29.265  124.3  0.0211   54.1  0.7109  -41.1
 1.000  0.5265  -94.4  27.792  120.2  0.0225   51.6  0.6758  -44.2
 1.100  0.5162 -101.9  26.419  116.2  0.0237   49.4  0.6422  -46.9
 1.200  0.5077 -109.1  25.119  112.6  0.0248   47.5  0.6108  -49.6
 1.300  0.5014 -115.8  23.900  109.2  0.0257   45.8  0.5804  -52.0
 1.400  0.4960 -121.9  22.741  106.0  0.0266   44.3  0.5522  -54.1
 1.500  0.4921 -127.7  21.674  102.9  0.0273   42.8  0.5260  -56.1
 1.600  0.4894 -132.9  20.682   99.9  0.0280   41.7  0.5020  -57.9
 1.700  0.4875 -138.0  19.734   97.2  0.0287   40.6  0.4792  -59.7
 1.800  0.4868 -142.4  18.870   94.5  0.0292   39.6  0.4589  -61.3
 1.900  0.4865 -146.5  18.060   92.1  0.0298   38.8  0.4406  -62.8
 2.000  0.4876 -150.4  17.309   89.7  0.0303   38.2  0.4235  -64.3
 2.100  0.4875 -153.7  16.618   87.6  0.0308   37.6  0.4084  -65.5
 2.200  0.4891 -157.1  15.951   85.3  0.0314   37.0  0.3936  -66.8
 2.300  0.4903 -160.0  15.355   83.2  0.0318   36.6  0.3813  -68.0
 2.400  0.4927 -163.0  14.779   81.1  0.0323   36.1  0.3692  -69.3
 2.500  0.4935 -165.6  14.267   79.2  0.0328   35.8  0.3586  -70.4
 2.600  0.4954 -168.2  13.771   77.2  0.0333   35.4  0.3482  -71.6
 2.700  0.4971 -170.7  13.318   75.4  0.0337   35.1  0.3392  -72.8
 2.800  0.4997 -173.2  12.879   73.5  0.0342   34.8  0.3303  -74.0
 2.900  0.5005 -175.6  12.481   71.7  0.0347   34.6  0.3225  -75.2
 3.000  0.5022 -177.9  12.095   69.9  0.0352   34.3  0.3147  -76.4
 3.100  0.5012  179.4  11.752   68.4  0.0357   34.1  0.3072  -77.6
 3.200  0.5013  176.8  11.417   66.7  0.0362   33.8  0.2999  -78.7
 3.300  0.5024  174.1  11.093   65.0  0.0367   33.6  0.2926  -80.0
 3.400  0.5046  171.5  10.779   63.2  0.0372   33.4  0.2855  -81.3
 3.500  0.5079  168.9  10.477   61.2  0.0377   33.2  0.2786  -82.6
 3.600  0.5091  166.6  10.207   59.8  0.0383   32.9  0.2713  -84.1
 3.700  0.5110  164.3   9.944   58.2  0.0388   32.7  0.2641  -85.6
 3.800  0.5138  162.0   9.689   56.6  0.0393   32.5  0.2571  -87.2
 3.900  0.5174  159.8   9.442   54.8  0.0398   32.3  0.2504  -88.9
 4.000  0.5217  157.6   9.204   53.0  0.0404   32.1  0.2439  -90.7
 4.100  0.5250  155.5   8.982   51.6  0.0409   31.8  0.2364  -92.8
 4.200  0.5290  153.5   8.766   50.1  0.0415   31.5  0.2292  -95.0
 4.300  0.5336  151.5   8.556   48.5  0.0420   31.3  0.2224  -97.3
 4.400  0.5388  149.5   8.353   46.9  0.0425   31.0  0.2159  -99.8
 4.500  0.5447  147.6   8.158   45.1  0.0431   30.8  0.2099 -102.5
 4.600  0.5491  145.8   7.968   43.8  0.0436   30.5  0.2039 -105.3
 4.700  0.5540  144.2   7.783   42.3  0.0441   30.2  0.1983 -108.3
 4.800  0.5593  142.5   7.604   40.8  0.0446   29.9  0.1933 -111.5
 4.900  0.5651  140.9   7.429   39.3  0.0451   29.6  0.1890 -114.8
 5.000  0.5713  139.3   7.261   37.6  0.0457   29.4  0.1853 -118.3
 5.100  0.5758  138.0   7.106   36.4  0.0462   29.1  0.1829 -121.3
 5.200  0.5806  136.7   6.954   35.0  0.0467   28.8  0.1810 -124.4
 5.300  0.5857  135.5   6.806   33.7  0.0472   28.6  0.1796 -127.6
 5.400  0.5910  134.2   6.663   32.2  0.0477   28.4  0.1788 -130.8
 5.500  0.5966  133.0   6.523   30.7  0.0483   28.1  0.1786 -134.0
 5.600  0.5998  132.0   6.397   29.5  0.0488   27.9  0.1799 -136.3
 5.700  0.6031  131.0   6.273   28.3  0.0493   27.7  0.1814 -138.5
 5.800  0.6067  130.1   6.153   26.9  0.0498   27.5  0.1832 -140.6
 5.900  0.6104  129.1   6.036   25.6  0.0504   27.3  0.1853 -142.8
 6.000  0.6143  128.2   5.922   24.2  0.0509   27.1  0.1876 -144.8
 6.100  0.6150  127.3   5.817   23.0  0.0515   26.9  0.1894 -145.8
 6.200  0.6158  126.4   5.714   21.8  0.0522   26.8  0.1912 -146.7
 6.300  0.6168  125.5   5.614   20.5  0.0528   26.6  0.1931 -147.7
 6.400  0.6179  124.6   5.517   19.2  0.0534   26.5  0.1950 -148.6
 6.500  0.6192  123.7   5.422   17.8  0.0541   26.3  0.1970 -149.5
 6.600  0.6181  122.8   5.336   16.6  0.0549   26.1  0.1967 -149.6
 6.700  0.6171  121.9   5.252   15.4  0.0557   25.9  0.1963 -149.8
 6.800  0.6163  120.9   5.171   14.2  0.0566   25.8  0.1959 -150.0
 6.900  0.6157  120.0   5.092   12.9  0.0574   25.6  0.1956 -150.2
 7.000  0.6152  119.1   5.015   11.6  0.0583   25.4  0.1952 -150.4
 7.100  0.6151  118.0   4.949   10.4  0.0593   25.0  0.1938 -150.9
 7.200  0.6153  116.9   4.884    9.1  0.0603   24.5  0.1925 -151.5
 7.300  0.6157  115.8   4.822    7.9  0.0613   24.0  0.1912 -152.0
 7.400  0.6163  114.8   4.763    6.5  0.0624   23.6  0.1899 -152.6
 7.500  0.6172  113.7   4.706    5.2  0.0634   23.2  0.1886 -153.2
 7.600  0.6196  112.3   4.645    3.8  0.0644   22.5  0.1870 -155.2
 7.700  0.6225  110.9   4.587    2.4  0.0653   21.7  0.1858 -157.3
 7.800  0.6257  109.5   4.533    0.9  0.0663   21.0  0.1847 -159.4
 7.900  0.6292  108.1   4.481   -0.6  0.0673   20.3  0.1839 -161.6
 8.000  0.6332  106.7   4.432   -2.1  0.0683   19.7  0.1834 -163.7
 8.500  0.6606   98.8   4.108   -9.8  0.0720   15.9  0.1944  164.6
 9.000  0.6965   91.6   3.782  -17.0  0.0759   12.2  0.2291  146.0
 9.500  0.7423   85.6   3.474  -24.0  0.0787    7.9  0.2873  131.7
10.000  0.7860   80.3   3.156  -30.8  0.0796    3.8  0.3542  120.9
10.500  0.8094   76.5   2.848  -35.8  0.0807    1.2  0.4116  113.5
11.000  0.8234   75.0   2.653  -39.6  0.0833   -1.1  0.4561  109.5
11.500  0.8535   74.7   2.533  -44.8  0.0866   -4.4  0.5024  107.6
12.000  0.8813   73.1   2.383  -51.4  0.0878   -8.5  0.5483  105.0
!
!  f       NFmin   Gammaopt  rn/50
! GHz       dB    MAG  ANG    -
!
! noise parameter not available yet for this operation point!
!
! (c) 2012  Infineon Technologies AG, Munich
