! Infineon Technologies  Discrete & RF Semiconductors
! BFP740FESD
! VCE =  2.5 V,  IC =  1.0 mA
! Common Emitter S-Parameters:                            Jan 2016
# GHz  S  MA  R  50
!  f         S11            S21            S12            S22
! GHz     MAG   ANG      MAG   ANG      MAG   ANG      MAG   ANG
 0.010  0.9934   -0.2   3.464  179.6  0.0003   52.8  0.9983    0.0
 0.015  0.9922   -0.3   3.451  179.7  0.0007   82.3  0.9990   -0.3
 0.020  0.9911   -0.5   3.438  179.8  0.0011   90.0  0.9997   -0.5
 0.025  0.9911   -0.7   3.439  179.6  0.0013   89.8  0.9997   -0.6
 0.030  0.9911   -0.8   3.440  179.4  0.0016   89.6  0.9997   -0.7
 0.035  0.9912   -1.0   3.441  179.2  0.0018   89.4  0.9997   -0.8
 0.040  0.9912   -1.2   3.442  179.1  0.0020   89.3  0.9997   -0.9
 0.045  0.9912   -1.3   3.443  178.9  0.0023   89.3  0.9997   -1.0
 0.050  0.9913   -1.5   3.444  178.7  0.0025   89.2  0.9997   -1.1
 0.055  0.9910   -1.7   3.447  178.6  0.0028   88.8  0.9997   -1.2
 0.060  0.9908   -1.8   3.450  178.5  0.0030   88.4  0.9996   -1.3
 0.065  0.9906   -2.0   3.452  178.4  0.0033   88.1  0.9996   -1.5
 0.070  0.9903   -2.1   3.455  178.3  0.0036   87.9  0.9996   -1.6
 0.075  0.9901   -2.3   3.458  178.2  0.0038   87.6  0.9995   -1.7
 0.080  0.9899   -2.5   3.461  178.2  0.0041   87.5  0.9995   -1.8
 0.085  0.9897   -2.6   3.464  178.1  0.0044   87.3  0.9995   -1.9
 0.090  0.9895   -2.8   3.466  178.0  0.0047   87.1  0.9995   -2.1
 0.095  0.9893   -2.9   3.469  177.9  0.0049   87.0  0.9995   -2.2
 0.100  0.9891   -3.1   3.472  177.8  0.0052   86.9  0.9995   -2.3
 0.105  0.9889   -3.3   3.473  177.6  0.0055   86.9  0.9995   -2.4
 0.110  0.9888   -3.4   3.474  177.5  0.0057   86.8  0.9994   -2.5
 0.115  0.9886   -3.6   3.476  177.3  0.0060   86.8  0.9994   -2.7
 0.120  0.9884   -3.7   3.477  177.2  0.0062   86.8  0.9993   -2.8
 0.125  0.9883   -3.9   3.478  177.0  0.0065   86.7  0.9993   -2.9
 0.130  0.9882   -4.1   3.480  176.9  0.0068   86.7  0.9993   -3.0
 0.135  0.9880   -4.2   3.481  176.7  0.0070   86.7  0.9992   -3.1
 0.140  0.9879   -4.4   3.482  176.6  0.0073   86.6  0.9992   -3.3
 0.145  0.9878   -4.5   3.484  176.4  0.0075   86.6  0.9992   -3.4
 0.150  0.9877   -4.7   3.485  176.3  0.0078   86.6  0.9992   -3.5
 0.155  0.9879   -4.8   3.485  176.2  0.0081   86.5  0.9991   -3.6
 0.160  0.9880   -5.0   3.486  176.1  0.0083   86.4  0.9991   -3.7
 0.165  0.9882   -5.1   3.486  175.9  0.0086   86.2  0.9990   -3.8
 0.170  0.9883   -5.3   3.487  175.8  0.0088   86.1  0.9990   -3.9
 0.175  0.9885   -5.4   3.487  175.7  0.0091   86.0  0.9989   -4.0
 0.180  0.9887   -5.5   3.488  175.6  0.0094   85.9  0.9989   -4.2
 0.185  0.9889   -5.7   3.488  175.5  0.0096   85.8  0.9988   -4.3
 0.190  0.9891   -5.8   3.489  175.3  0.0099   85.8  0.9988   -4.4
 0.195  0.9893   -6.0   3.489  175.2  0.0101   85.7  0.9987   -4.5
 0.200  0.9895   -6.1   3.490  175.1  0.0104   85.6  0.9987   -4.6
 0.220  0.9893   -6.7   3.486  174.5  0.0114   85.1  0.9984   -5.1
 0.240  0.9893   -7.4   3.483  173.8  0.0125   84.7  0.9983   -5.6
 0.260  0.9891   -8.0   3.485  173.3  0.0135   84.2  0.9980   -6.0
 0.280  0.9889   -8.6   3.491  172.8  0.0146   83.7  0.9977   -6.5
 0.300  0.9887   -9.2   3.498  172.3  0.0156   83.3  0.9974   -6.9
 0.320  0.9879   -9.8   3.499  171.8  0.0166   82.8  0.9970   -7.4
 0.340  0.9872  -10.5   3.500  171.3  0.0177   82.3  0.9966   -7.9
 0.360  0.9867  -11.1   3.500  170.8  0.0187   81.8  0.9963   -8.3
 0.380  0.9863  -11.7   3.497  170.3  0.0198   81.3  0.9959   -8.8
 0.400  0.9860  -12.3   3.495  169.7  0.0208   80.9  0.9955   -9.2
 0.420  0.9856  -12.9   3.496  169.1  0.0218   80.4  0.9951   -9.6
 0.440  0.9854  -13.5   3.497  168.6  0.0229   80.0  0.9947  -10.1
 0.450  0.9853  -13.8   3.498  168.3  0.0234   79.8  0.9945  -10.3
 0.460  0.9849  -14.1   3.498  168.0  0.0239   79.5  0.9941  -10.5
 0.480  0.9842  -14.8   3.498  167.5  0.0250   79.0  0.9935  -11.0
 0.500  0.9837  -15.4   3.499  166.9  0.0261   78.6  0.9929  -11.5
 0.520  0.9830  -16.0   3.497  166.3  0.0271   78.0  0.9922  -12.0
 0.540  0.9824  -16.6   3.494  165.8  0.0281   77.5  0.9915  -12.4
 0.560  0.9819  -17.3   3.493  165.2  0.0292   77.0  0.9908  -12.9
 0.580  0.9815  -17.9   3.491  164.7  0.0302   76.5  0.9903  -13.3
 0.600  0.9813  -18.5   3.490  164.1  0.0312   76.1  0.9898  -13.8
 0.620  0.9806  -19.1   3.490  163.6  0.0322   75.6  0.9890  -14.3
 0.640  0.9800  -19.7   3.491  163.1  0.0332   75.1  0.9883  -14.7
 0.660  0.9795  -20.4   3.492  162.5  0.0343   74.6  0.9877  -15.2
 0.680  0.9792  -21.0   3.493  162.0  0.0353   74.2  0.9871  -15.6
 0.700  0.9789  -21.6   3.495  161.5  0.0363   73.8  0.9866  -16.1
 0.720  0.9782  -22.2   3.490  161.0  0.0373   73.2  0.9856  -16.6
 0.740  0.9777  -22.8   3.486  160.4  0.0383   72.7  0.9847  -17.1
 0.760  0.9773  -23.4   3.481  159.9  0.0394   72.2  0.9838  -17.5
 0.780  0.9769  -24.0   3.478  159.3  0.0404   71.7  0.9830  -18.0
 0.800  0.9767  -24.6   3.474  158.8  0.0414   71.3  0.9823  -18.5
 0.820  0.9754  -25.2   3.472  158.3  0.0424   70.8  0.9814  -19.0
 0.840  0.9743  -25.8   3.469  157.7  0.0434   70.3  0.9806  -19.4
 0.860  0.9732  -26.5   3.468  157.2  0.0444   69.8  0.9798  -19.9
 0.880  0.9723  -27.1   3.466  156.6  0.0454   69.3  0.9791  -20.3
 0.900  0.9715  -27.7   3.465  156.1  0.0464   68.9  0.9785  -20.8
 0.920  0.9705  -28.3   3.462  155.6  0.0474   68.4  0.9773  -21.3
 0.940  0.9695  -28.9   3.459  155.0  0.0483   67.9  0.9762  -21.7
 0.960  0.9687  -29.6   3.457  154.5  0.0493   67.4  0.9751  -22.2
 0.980  0.9680  -30.2   3.455  153.9  0.0503   66.9  0.9741  -22.6
 1.000  0.9674  -30.8   3.453  153.4  0.0513   66.5  0.9732  -23.1
 1.020  0.9665  -31.4   3.449  152.9  0.0523   66.0  0.9720  -23.6
 1.040  0.9656  -32.0   3.444  152.3  0.0532   65.5  0.9709  -24.1
 1.060  0.9649  -32.6   3.441  151.8  0.0542   65.0  0.9698  -24.5
 1.080  0.9643  -33.2   3.437  151.2  0.0551   64.5  0.9688  -25.0
 1.100  0.9638  -33.8   3.434  150.7  0.0561   64.1  0.9679  -25.5
 1.120  0.9625  -34.4   3.430  150.1  0.0571   63.6  0.9666  -26.0
 1.140  0.9614  -35.1   3.426  149.6  0.0580   63.1  0.9655  -26.5
 1.160  0.9604  -35.7   3.422  149.0  0.0590   62.6  0.9643  -26.9
 1.180  0.9595  -36.4   3.419  148.5  0.0599   62.1  0.9633  -27.4
 1.200  0.9587  -37.0   3.416  147.9  0.0609   61.6  0.9623  -27.9
 1.220  0.9576  -37.6   3.410  147.4  0.0618   61.1  0.9610  -28.4
 1.240  0.9565  -38.2   3.405  146.8  0.0627   60.6  0.9597  -28.9
 1.260  0.9556  -38.8   3.399  146.3  0.0636   60.1  0.9585  -29.3
 1.280  0.9547  -39.4   3.395  145.7  0.0645   59.6  0.9574  -29.8
 1.300  0.9540  -40.0   3.390  145.2  0.0654   59.1  0.9563  -30.3
 1.320  0.9526  -40.6   3.384  144.6  0.0662   58.6  0.9547  -30.8
 1.340  0.9514  -41.2   3.378  144.0  0.0671   58.0  0.9533  -31.3
 1.360  0.9502  -41.8   3.372  143.5  0.0680   57.5  0.9518  -31.7
 1.380  0.9492  -42.4   3.367  142.9  0.0688   57.0  0.9505  -32.2
 1.400  0.9482  -43.0   3.362  142.3  0.0697   56.5  0.9492  -32.7
 1.420  0.9470  -43.6   3.356  141.8  0.0705   56.0  0.9477  -33.2
 1.440  0.9459  -44.2   3.350  141.3  0.0714   55.5  0.9463  -33.7
 1.460  0.9449  -44.7   3.344  140.7  0.0722   55.1  0.9449  -34.1
 1.480  0.9440  -45.3   3.339  140.2  0.0731   54.6  0.9436  -34.6
 1.500  0.9432  -45.9   3.334  139.7  0.0739   54.2  0.9424  -35.1
 1.520  0.9418  -46.5   3.329  139.1  0.0747   53.7  0.9409  -35.6
 1.540  0.9406  -47.1   3.323  138.6  0.0755   53.1  0.9395  -36.1
 1.560  0.9394  -47.8   3.319  138.0  0.0763   52.6  0.9381  -36.5
 1.580  0.9384  -48.4   3.314  137.5  0.0772   52.1  0.9368  -37.0
 1.600  0.9375  -49.0   3.310  136.9  0.0780   51.6  0.9356  -37.5
 1.620  0.9360  -49.6   3.302  136.4  0.0787   51.1  0.9340  -38.0
 1.640  0.9346  -50.1   3.294  135.8  0.0795   50.7  0.9324  -38.4
 1.660  0.9333  -50.7   3.286  135.3  0.0802   50.2  0.9309  -38.9
 1.680  0.9320  -51.2   3.279  134.7  0.0809   49.7  0.9294  -39.3
 1.700  0.9309  -51.8   3.272  134.2  0.0817   49.3  0.9280  -39.8
 1.720  0.9296  -52.4   3.263  133.7  0.0824   48.8  0.9265  -40.3
 1.740  0.9284  -53.0   3.254  133.2  0.0831   48.4  0.9251  -40.7
 1.760  0.9273  -53.5   3.246  132.6  0.0838   47.9  0.9238  -41.2
 1.780  0.9262  -54.1   3.238  132.1  0.0846   47.4  0.9225  -41.6
 1.800  0.9253  -54.7   3.230  131.6  0.0853   47.0  0.9213  -42.1
 1.820  0.9242  -55.3   3.225  131.1  0.0860   46.5  0.9197  -42.6
 1.840  0.9232  -55.8   3.219  130.6  0.0867   46.1  0.9181  -43.0
 1.860  0.9222  -56.4   3.214  130.1  0.0874   45.6  0.9166  -43.5
 1.880  0.9214  -56.9   3.210  129.6  0.0882   45.1  0.9152  -43.9
 1.900  0.9206  -57.5   3.205  129.1  0.0889   44.7  0.9138  -44.4
 1.920  0.9189  -58.0   3.195  128.6  0.0895   44.2  0.9123  -44.8
 1.940  0.9173  -58.5   3.185  128.1  0.0901   43.8  0.9109  -45.3
 1.960  0.9158  -59.1   3.175  127.5  0.0907   43.3  0.9096  -45.7
 1.980  0.9144  -59.6   3.166  127.0  0.0913   42.8  0.9083  -46.2
 2.000  0.9130  -60.1   3.157  126.5  0.0919   42.4  0.9070  -46.6
 2.020  0.9116  -60.6   3.148  126.0  0.0925   41.9  0.9053  -47.1
 2.040  0.9102  -61.2   3.140  125.5  0.0931   41.5  0.9036  -47.5
 2.060  0.9090  -61.7   3.131  125.0  0.0937   41.0  0.9019  -48.0
 2.080  0.9078  -62.2   3.123  124.5  0.0943   40.6  0.9003  -48.4
 2.100  0.9067  -62.8   3.116  124.0  0.0949   40.1  0.8988  -48.9
 2.120  0.9057  -63.3   3.108  123.5  0.0955   39.7  0.8974  -49.3
 2.140  0.9047  -63.9   3.101  123.0  0.0961   39.3  0.8960  -49.8
 2.160  0.9039  -64.4   3.093  122.5  0.0967   38.8  0.8946  -50.3
 2.180  0.9031  -65.0   3.087  122.0  0.0974   38.4  0.8933  -50.7
 2.200  0.9024  -65.5   3.080  121.5  0.0980   38.0  0.8921  -51.2
 2.220  0.9007  -66.0   3.071  121.0  0.0985   37.5  0.8904  -51.6
 2.240  0.8990  -66.6   3.063  120.5  0.0991   37.1  0.8888  -52.1
 2.260  0.8975  -67.1   3.055  120.1  0.0996   36.7  0.8872  -52.5
 2.280  0.8960  -67.6   3.047  119.6  0.1002   36.2  0.8857  -52.9
 2.300  0.8946  -68.2   3.039  119.1  0.1008   35.8  0.8842  -53.4
 2.320  0.8933  -68.7   3.032  118.6  0.1014   35.4  0.8828  -53.8
 2.340  0.8920  -69.3   3.024  118.1  0.1019   34.9  0.8815  -54.3
 2.360  0.8909  -69.8   3.017  117.6  0.1025   34.5  0.8802  -54.7
 2.380  0.8898  -70.4   3.011  117.1  0.1031   34.1  0.8789  -55.2
 2.400  0.8888  -70.9   3.004  116.6  0.1037   33.7  0.8777  -55.6
 2.420  0.8871  -71.4   2.994  116.1  0.1041   33.2  0.8760  -56.0
 2.440  0.8855  -71.9   2.985  115.7  0.1046   32.8  0.8743  -56.5
 2.460  0.8840  -72.5   2.976  115.2  0.1050   32.3  0.8726  -56.9
 2.480  0.8825  -73.0   2.967  114.7  0.1055   31.9  0.8710  -57.4
 2.500  0.8812  -73.5   2.958  114.2  0.1059   31.5  0.8695  -57.8
 2.520  0.8799  -74.1   2.949  113.8  0.1064   31.0  0.8680  -58.3
 2.540  0.8786  -74.6   2.941  113.3  0.1069   30.6  0.8666  -58.7
 2.560  0.8775  -75.1   2.933  112.8  0.1073   30.1  0.8652  -59.2
 2.580  0.8764  -75.7   2.925  112.3  0.1078   29.7  0.8639  -59.6
 2.600  0.8754  -76.2   2.917  111.8  0.1083   29.3  0.8626  -60.1
 2.620  0.8737  -76.7   2.907  111.3  0.1087   28.9  0.8610  -60.5
 2.640  0.8721  -77.2   2.897  110.9  0.1090   28.5  0.8594  -60.9
 2.660  0.8705  -77.7   2.887  110.4  0.1094   28.1  0.8579  -61.3
 2.680  0.8691  -78.2   2.878  110.0  0.1098   27.7  0.8564  -61.8
 2.700  0.8676  -78.7   2.869  109.5  0.1101   27.3  0.8550  -62.2
 2.720  0.8663  -79.2   2.859  109.0  0.1105   26.9  0.8536  -62.6
 2.740  0.8650  -79.8   2.851  108.5  0.1109   26.5  0.8522  -63.0
 2.760  0.8638  -80.3   2.842  108.1  0.1113   26.1  0.8510  -63.4
 2.780  0.8627  -80.8   2.833  107.6  0.1117   25.7  0.8497  -63.9
 2.800  0.8616  -81.3   2.825  107.1  0.1121   25.3  0.8485  -64.3
 2.820  0.8603  -81.8   2.815  106.7  0.1124   24.9  0.8471  -64.7
 2.840  0.8590  -82.3   2.806  106.2  0.1127   24.5  0.8458  -65.1
 2.860  0.8578  -82.8   2.797  105.8  0.1130   24.0  0.8446  -65.5
 2.880  0.8566  -83.2   2.787  105.3  0.1133   23.6  0.8433  -65.9
 2.900  0.8556  -83.7   2.778  104.9  0.1136   23.2  0.8421  -66.3
 2.920  0.8545  -84.2   2.770  104.4  0.1139   22.8  0.8410  -66.7
 2.940  0.8536  -84.7   2.761  104.0  0.1142   22.4  0.8399  -67.1
 2.960  0.8527  -85.2   2.752  103.5  0.1145   22.0  0.8388  -67.5
 2.980  0.8519  -85.7   2.744  103.1  0.1149   21.6  0.8378  -67.9
 3.000  0.8511  -86.2   2.736  102.6  0.1152   21.2  0.8368  -68.3
 3.100  0.8440  -88.4   2.685  100.7  0.1160   19.4  0.8306  -70.0
 3.200  0.8381  -90.6   2.638   98.7  0.1169   17.6  0.8252  -71.7
 3.300  0.8335  -92.8   2.593   96.7  0.1179   15.8  0.8205  -73.4
 3.400  0.8301  -95.0   2.552   94.6  0.1190   14.1  0.8166  -75.1
 3.500  0.8280  -97.3   2.515   92.4  0.1202   12.4  0.8134  -76.9
 3.600  0.8242  -99.3   2.475   90.7  0.1207   10.9  0.8094  -78.4
 3.700  0.8214 -101.4   2.437   89.0  0.1213    9.4  0.8060  -79.8
 3.800  0.8197 -103.4   2.402   87.2  0.1219    7.9  0.8030  -81.3
 3.900  0.8190 -105.4   2.369   85.3  0.1227    6.4  0.8006  -82.8
 4.000  0.8194 -107.5   2.339   83.4  0.1235    4.9  0.7988  -84.3
 4.100  0.8166 -109.6   2.304   81.6  0.1239    3.4  0.7954  -85.9
 4.200  0.8149 -111.8   2.271   79.8  0.1243    1.9  0.7927  -87.5
 4.300  0.8144 -113.9   2.241   78.0  0.1249    0.4  0.7905  -89.1
 4.400  0.8150 -116.1   2.213   76.1  0.1255   -1.1  0.7890  -90.7
 4.500  0.8167 -118.2   2.187   74.1  0.1262   -2.6  0.7881  -92.3
 4.600  0.8140 -120.2   2.153   72.4  0.1260   -4.2  0.7844  -93.9
 4.700  0.8122 -122.3   2.120   70.6  0.1258   -5.7  0.7813  -95.5
 4.800  0.8116 -124.3   2.090   68.7  0.1257   -7.3  0.7788  -97.1
 4.900  0.8119 -126.4   2.062   66.8  0.1258   -8.8  0.7769  -98.8
 5.000  0.8133 -128.4   2.036   64.9  0.1259  -10.4  0.7757 -100.4
 5.100  0.8094 -130.1   2.004   63.3  0.1253  -11.9  0.7709 -101.9
 5.200  0.8062 -131.9   1.974   61.6  0.1247  -13.3  0.7666 -103.4
 5.300  0.8038 -133.6   1.945   59.9  0.1242  -14.8  0.7629 -104.9
 5.400  0.8021 -135.4   1.919   58.1  0.1238  -16.3  0.7597 -106.5
 5.500  0.8012 -137.2   1.894   56.3  0.1235  -17.8  0.7570 -108.0
 5.600  0.7971 -138.9   1.870   54.8  0.1228  -19.2  0.7518 -109.5
 5.700  0.7936 -140.5   1.847   53.2  0.1221  -20.5  0.7470 -110.9
 5.800  0.7908 -142.2   1.825   51.6  0.1215  -21.9  0.7428 -112.4
 5.900  0.7887 -143.9   1.805   49.9  0.1210  -23.3  0.7391 -114.0
 6.000  0.7873 -145.6   1.787   48.2  0.1205  -24.7  0.7359 -115.5
 6.100  0.7831 -147.3   1.763   46.6  0.1194  -26.1  0.7309 -117.0
 6.200  0.7797 -149.0   1.741   45.0  0.1184  -27.5  0.7264 -118.6
 6.300  0.7769 -150.8   1.720   43.3  0.1175  -29.0  0.7225 -120.1
 6.400  0.7749 -152.5   1.700   41.6  0.1166  -30.4  0.7191 -121.7
 6.500  0.7736 -154.3   1.682   39.9  0.1158  -31.9  0.7162 -123.3
 6.600  0.7710 -156.0   1.658   38.3  0.1141  -33.3  0.7115 -124.6
 6.800  0.7678 -159.5   1.612   35.1  0.1108  -36.1  0.7034 -127.4
 7.000  0.7675 -163.0   1.573   31.6  0.1078  -39.1  0.6969 -130.2
 7.200  0.7666 -166.4   1.528   28.6  0.1036  -41.3  0.6879 -133.0
 7.400  0.7683 -169.7   1.487   25.5  0.0996  -43.6  0.6807 -135.9
 7.600  0.7719 -173.1   1.450   22.3  0.0958  -45.7  0.6742 -139.4
 7.800  0.7774 -176.4   1.418   18.9  0.0923  -47.4  0.6697 -143.5
 8.000  0.7854 -179.7   1.391   15.4  0.0888  -49.3  0.6686 -147.6
 8.200  0.7853  176.8   1.349   12.0  0.0854  -51.3  0.6629 -152.7
 8.400  0.7881  173.4   1.311    8.3  0.0822  -53.5  0.6626 -157.8
 8.600  0.7878  170.3   1.269    4.7  0.0784  -55.5  0.6600 -162.9
 8.800  0.7838  167.4   1.221    1.2  0.0741  -57.4  0.6552 -168.1
 9.000  0.7817  164.5   1.178   -2.6  0.0699  -59.6  0.6558 -173.3
 9.200  0.7789  162.2   1.126   -5.1  0.0656  -60.8  0.6538 -178.1
 9.400  0.7774  159.9   1.077   -7.9  0.0614  -62.1  0.6564  177.1
 9.600  0.7793  157.5   1.031  -10.8  0.0572  -63.0  0.6640  172.4
 9.800  0.7850  154.9   0.989  -13.7  0.0531  -63.3  0.6764  167.8
10.000  0.7922  152.3   0.950  -16.9  0.0490  -63.7  0.6928  163.5
!
!  f       NFmin   Gammaopt  rn/50
! GHz       dB    MAG  ANG    -
 0.450      0.46  0.83    8   0.43
 2.400      0.90  0.62   51   0.38
 5.500      1.25  0.67  126   0.17
10.000      2.91  0.64 -148   0.23
!
! (c) 2016  Infineon Technologies AG, Munich
