! Infineon Technologies  Discrete & RF Semiconductors
! BFP780
! VCE =  2.0 V,  IC =  10 mA
! Common Emitter S-Parameters:                            Jul 2015
# GHz  S  MA  R  50
!  f         S11            S21            S12            S22
! GHz     MAG   ANG      MAG   ANG      MAG   ANG      MAG   ANG
 0.030  0.8370  -14.4  28.405  171.8  0.0080   87.0  0.9895  -10.1
 0.040  0.8356  -19.1  28.238  169.1  0.0113   81.0  0.9844  -13.4
 0.050  0.8297  -23.9  28.152  166.1  0.0120   72.3  0.9788  -16.9
 0.060  0.8324  -28.5  27.892  163.7  0.0167   70.3  0.9685  -19.9
 0.070  0.8281  -32.8  27.464  161.1  0.0193   69.3  0.9606  -23.0
 0.080  0.8272  -37.3  27.227  158.6  0.0219   70.3  0.9501  -26.1
 0.090  0.8242  -41.7  26.865  156.1  0.0241   68.0  0.9383  -29.2
 0.100  0.8226  -45.7  26.325  153.9  0.0262   66.8  0.9267  -32.1
 0.110  0.8199  -49.8  25.930  151.5  0.0286   63.8  0.9128  -35.3
 0.120  0.8178  -54.0  25.578  149.3  0.0302   62.5  0.8990  -38.1
 0.130  0.8157  -57.7  25.087  147.2  0.0324   58.2  0.8843  -40.6
 0.140  0.8134  -61.5  24.651  145.0  0.0343   57.0  0.8689  -43.5
 0.150  0.8106  -65.4  24.307  143.0  0.0361   55.0  0.8564  -46.0
 0.200  0.8035  -81.6  21.927  133.9  0.0428   46.0  0.7849  -58.0
 0.250  0.7926  -95.3  19.796  126.0  0.0484   39.3  0.7217  -68.2
 0.300  0.7859 -106.4  17.753  119.6  0.0515   34.1  0.6653  -77.2
 0.350  0.7797 -116.1  16.086  114.0  0.0545   29.0  0.6169  -85.0
 0.400  0.7752 -123.9  14.584  109.2  0.0560   24.8  0.5790  -91.4
 0.450  0.7721 -130.3  13.308  105.1  0.0575   21.5  0.5480  -97.6
 0.500  0.7683 -136.1  12.220  101.4  0.0589   18.5  0.5210 -102.8
 0.600  0.7655 -145.4  10.448   95.1  0.0598   13.7  0.4819 -111.9
 0.700  0.7612 -152.7   9.077   89.7  0.0603    9.9  0.4545 -119.5
 0.800  0.7623 -158.5   8.007   85.1  0.0606    6.6  0.4387 -125.7
 0.900  0.7616 -163.5   7.158   80.9  0.0604    4.0  0.4259 -131.2
 1.000  0.7642 -167.8   6.451   77.0  0.0604    1.5  0.4219 -135.9
 1.100  0.7634 -171.5   5.858   73.4  0.0601   -0.6  0.4172 -140.1
 1.200  0.7678 -174.8   5.371   69.9  0.0596   -2.6  0.4194 -143.6
 1.300  0.7680 -177.9   4.955   66.6  0.0592   -4.3  0.4191 -146.9
 1.400  0.7711  179.2   4.594   63.4  0.0585   -5.8  0.4244 -150.1
 1.500  0.7715  176.6   4.281   60.4  0.0577   -7.3  0.4279 -153.0
 1.600  0.7757  174.1   3.998   57.3  0.0571   -8.9  0.4349 -155.6
 1.700  0.7761  171.7   3.749   54.3  0.0562   -9.9  0.4413 -158.2
 1.800  0.7778  169.3   3.523   51.4  0.0555  -11.2  0.4497 -160.8
 1.900  0.7795  167.4   3.316   48.7  0.0546  -12.3  0.4571 -163.0
 2.000  0.7840  165.2   3.140   45.8  0.0537  -13.6  0.4667 -165.2
 2.100  0.7851  163.3   2.965   43.0  0.0525  -14.6  0.4718 -166.6
 2.200  0.7861  161.3   2.814   40.3  0.0513  -15.5  0.4796 -168.8
 2.300  0.7883  159.5   2.677   37.7  0.0502  -16.0  0.4863 -170.9
 2.400  0.7917  157.5   2.552   34.9  0.0493  -16.5  0.4947 -173.2
 2.500  0.7944  155.7   2.431   32.2  0.0482  -16.9  0.5029 -175.1
 2.600  0.7958  153.8   2.312   29.5  0.0471  -17.5  0.5112 -177.3
 2.700  0.7967  152.0   2.208   27.0  0.0462  -17.8  0.5192 -179.1
 2.800  0.7998  150.2   2.112   24.5  0.0452  -17.9  0.5281  178.7
 2.900  0.8022  148.4   2.023   21.9  0.0440  -17.9  0.5375  176.6
 3.000  0.8048  146.6   1.934   19.3  0.0430  -17.3  0.5466  174.4
 3.100  0.8069  145.1   1.847   16.9  0.0418  -17.3  0.5563  172.6
 3.200  0.8086  143.4   1.769   14.4  0.0409  -16.6  0.5651  170.6
 3.300  0.8102  141.8   1.696   12.1  0.0401  -16.2  0.5747  168.7
 3.400  0.8129  140.1   1.628    9.7  0.0393  -15.3  0.5840  166.7
 3.500  0.8157  138.7   1.563    7.5  0.0388  -14.6  0.5938  165.0
 3.600  0.8173  137.0   1.496    5.2  0.0381  -13.9  0.6031  163.1
 3.700  0.8202  135.6   1.437    2.9  0.0376  -12.6  0.6122  161.4
 3.800  0.8219  133.9   1.378    0.7  0.0371  -11.3  0.6209  159.4
 3.900  0.8245  132.6   1.330   -1.3  0.0368  -10.1  0.6299  157.7
 4.000  0.8277  131.0   1.276   -3.4  0.0367   -8.7  0.6387  156.0
 4.100  0.8303  129.6   1.228   -5.6  0.0363   -7.5  0.6480  154.5
 4.200  0.8335  128.3   1.180   -7.7  0.0362   -6.2  0.6570  152.8
 4.300  0.8359  126.8   1.139   -9.6  0.0365   -4.8  0.6654  151.3
 4.400  0.8393  125.6   1.098  -11.5  0.0367   -3.2  0.6737  149.7
 4.500  0.8417  124.2   1.061  -13.4  0.0369   -2.2  0.6817  148.2
 4.600  0.8451  123.0   1.020  -15.4  0.0372   -1.0  0.6902  146.7
 4.700  0.8472  121.7   0.984  -17.4  0.0377    0.0  0.6967  145.1
 4.800  0.8501  120.5   0.951  -19.1  0.0381    1.2  0.7042  143.7
 4.900  0.8519  119.5   0.919  -20.8  0.0387    2.0  0.7101  142.2
 5.000  0.8542  118.2   0.887  -22.7  0.0392    2.9  0.7173  140.8
 5.100  0.8571  117.3   0.857  -24.4  0.0400    3.7  0.7230  139.3
 5.200  0.8579  116.1   0.829  -26.2  0.0406    4.4  0.7291  137.8
 5.300  0.8597  115.1   0.802  -27.9  0.0415    5.0  0.7338  136.4
 5.400  0.8609  114.0   0.778  -29.5  0.0421    5.5  0.7393  135.0
 5.500  0.8610  113.2   0.752  -31.0  0.0430    6.1  0.7433  133.6
 5.600  0.8622  112.3   0.728  -32.6  0.0441    6.7  0.7490  132.2
 5.700  0.8621  111.3   0.704  -34.2  0.0448    6.9  0.7533  130.8
 5.800  0.8630  110.4   0.684  -35.7  0.0460    7.2  0.7579  129.4
 5.900  0.8626  109.5   0.665  -37.1  0.0472    7.3  0.7620  128.0
 6.000  0.8635  108.4   0.646  -38.6  0.0483    7.1  0.7666  126.5
!
!  f       NFmin   Gammaopt  rn/50
! GHz       dB    MAG  ANG    -
 0.450      0.78  0.21   99   0.08
 0.900      0.87  0.24  126   0.11
 1.500      1.06  0.36  157   0.06
 1.800      1.29  0.44  173   0.06
 2.400      1.55  0.52 -176   0.07
 3.000      1.98  0.57 -157   0.12
 3.500      2.67  0.62 -142   0.24
!
! (c) 2015  Infineon Technologies AG, Munich
