! Infineon Technologies  Discrete & RF Semiconductors
! BFP720
! VCE =  2.0 V,  IC =  3.0 mA
! Common Emitter S-Parameters:                            Aug 2012
# GHz  S  MA  R  50
!  f         S11            S21            S12            S22
! GHz     MAG   ANG      MAG   ANG      MAG   ANG      MAG   ANG
 0.010  0.9626   -0.1   9.331 -179.8  0.0002  -15.7  0.9905    0.4
 0.020  0.9641   -0.6   9.202  179.0  0.0007   94.4  0.9993   -0.5
 0.030  0.9636   -1.0   9.243  178.7  0.0011   92.4  0.9989   -0.8
 0.040  0.9631   -1.3   9.285  178.4  0.0016   91.6  0.9986   -1.0
 0.050  0.9626   -1.7   9.327  178.1  0.0020   91.1  0.9983   -1.3
 0.060  0.9629   -2.0   9.321  177.9  0.0024   90.0  0.9983   -1.5
 0.070  0.9632   -2.4   9.315  177.6  0.0028   89.2  0.9984   -1.8
 0.080  0.9636   -2.7   9.309  177.4  0.0031   88.5  0.9986   -2.0
 0.090  0.9640   -3.1   9.303  177.1  0.0035   88.0  0.9987   -2.3
 0.100  0.9645   -3.4   9.298  176.9  0.0039   87.6  0.9988   -2.6
 0.110  0.9640   -3.7   9.303  176.6  0.0043   87.3  0.9987   -2.8
 0.120  0.9635   -4.1   9.309  176.3  0.0047   87.0  0.9986   -3.0
 0.130  0.9630   -4.4   9.315  176.0  0.0051   86.7  0.9986   -3.3
 0.140  0.9625   -4.7   9.321  175.7  0.0055   86.5  0.9985   -3.5
 0.150  0.9621   -5.0   9.327  175.4  0.0059   86.3  0.9985   -3.8
 0.200  0.9609   -6.7   9.291  173.9  0.0078   86.3  0.9970   -5.1
 0.250  0.9597   -8.5   9.304  172.4  0.0098   84.8  0.9965   -6.3
 0.300  0.9575  -10.2   9.269  171.0  0.0117   83.4  0.9945   -7.6
 0.350  0.9558  -11.9   9.264  169.6  0.0136   82.4  0.9933   -8.9
 0.400  0.9545  -13.6   9.275  168.2  0.0156   80.9  0.9910  -10.2
 0.450  0.9518  -15.3   9.225  166.7  0.0176   79.9  0.9892  -11.4
 0.500  0.9491  -17.0   9.234  165.4  0.0195   78.7  0.9871  -12.7
 0.600  0.9442  -20.5   9.203  162.6  0.0234   76.5  0.9811  -15.3
 0.700  0.9386  -24.0   9.174  159.8  0.0273   73.9  0.9759  -17.9
 0.800  0.9316  -27.6   9.226  157.1  0.0311   71.7  0.9701  -20.5
 0.900  0.9248  -31.3   9.187  154.2  0.0348   69.3  0.9622  -23.1
 1.000  0.9171  -34.9   9.158  151.4  0.0386   66.8  0.9533  -25.8
 1.100  0.9082  -38.5   9.108  148.5  0.0422   64.2  0.9437  -28.4
 1.200  0.8993  -42.3   9.066  145.6  0.0458   61.8  0.9336  -31.0
 1.300  0.8901  -46.0   9.013  142.7  0.0492   59.3  0.9221  -33.7
 1.400  0.8800  -49.6   8.934  139.8  0.0525   56.9  0.9091  -36.2
 1.500  0.8698  -53.4   8.883  137.0  0.0557   54.4  0.8957  -38.8
 1.600  0.8577  -57.4   8.892  133.8  0.0587   52.0  0.8820  -41.3
 1.700  0.8455  -61.1   8.791  130.9  0.0616   49.5  0.8673  -43.9
 1.800  0.8352  -64.6   8.690  128.0  0.0643   47.0  0.8534  -46.4
 1.900  0.8232  -68.1   8.576  125.2  0.0668   44.7  0.8394  -48.8
 2.000  0.8126  -71.6   8.456  122.5  0.0693   42.4  0.8249  -51.2
 2.100  0.8010  -74.9   8.333  119.8  0.0713   40.1  0.8095  -53.4
 2.200  0.7921  -78.3   8.228  117.1  0.0735   37.9  0.7954  -55.7
 2.300  0.7816  -81.5   8.090  114.5  0.0754   35.7  0.7818  -58.0
 2.400  0.7736  -84.8   7.968  111.9  0.0774   33.6  0.7694  -60.3
 2.500  0.7630  -87.9   7.847  109.4  0.0789   31.6  0.7553  -62.3
 2.600  0.7547  -91.1   7.741  106.9  0.0806   29.7  0.7422  -64.5
 2.700  0.7452  -94.2   7.619  104.5  0.0820   27.7  0.7287  -66.6
 2.800  0.7379  -97.4   7.510  102.1  0.0834   25.8  0.7163  -68.7
 2.900  0.7277 -100.4   7.395   99.7  0.0846   24.0  0.7039  -70.7
 3.000  0.7196 -103.5   7.293   97.3  0.0859   22.2  0.6923  -72.8
 3.100  0.7064 -106.5   7.174   95.1  0.0866   20.3  0.6777  -74.8
 3.200  0.6953 -109.7   7.066   92.8  0.0874   18.5  0.6639  -76.8
 3.300  0.6864 -113.0   6.970   90.4  0.0883   16.7  0.6509  -79.0
 3.400  0.6799 -116.3   6.885   88.0  0.0892   15.0  0.6389  -81.2
 3.500  0.6756 -119.7   6.813   85.6  0.0903   13.3  0.6279  -83.4
 3.600  0.6632 -123.0   6.698   83.4  0.0906   11.6  0.6132  -85.5
 3.700  0.6531 -126.4   6.592   81.2  0.0910   10.0  0.5993  -87.7
 3.800  0.6453 -129.9   6.496   79.0  0.0914    8.4  0.5863  -90.0
 3.900  0.6399 -133.4   6.411   76.6  0.0919    6.7  0.5743  -92.3
 4.000  0.6370 -137.0   6.337   74.2  0.0925    5.2  0.5634  -94.8
 4.100  0.6267 -140.5   6.223   72.1  0.0925    3.6  0.5485  -97.1
 4.200  0.6187 -144.1   6.118   70.0  0.0925    2.1  0.5345  -99.6
 4.300  0.6133 -147.8   6.021   67.8  0.0925    0.5  0.5216 -102.1
 4.400  0.6105 -151.5   5.934   65.5  0.0927   -1.0  0.5097 -104.8
 4.500  0.6103 -155.3   5.857   63.1  0.0929   -2.6  0.4991 -107.6
 4.600  0.6029 -158.6   5.741   61.1  0.0924   -4.0  0.4862 -110.1
 4.700  0.5976 -162.0   5.633   59.1  0.0919   -5.4  0.4742 -112.7
 4.800  0.5944 -165.5   5.533   56.9  0.0915   -6.8  0.4633 -115.4
 4.900  0.5935 -168.9   5.441   54.7  0.0911   -8.3  0.4534 -118.3
 5.000  0.5947 -172.4   5.358   52.3  0.0908   -9.8  0.4448 -121.3
 5.100  0.5929 -174.7   5.246   50.6  0.0900  -10.9  0.4367 -123.5
 5.200  0.5920 -177.1   5.140   48.7  0.0892  -12.1  0.4294 -125.8
 5.300  0.5922 -179.4   5.040   46.8  0.0884  -13.4  0.4228 -128.2
 5.400  0.5934  178.2   4.946   44.7  0.0877  -14.6  0.4169 -130.6
 5.500  0.5955  175.9   4.858   42.7  0.0870  -15.9  0.4118 -133.1
 5.600  0.5947  173.8   4.763   41.0  0.0860  -16.8  0.4086 -134.8
 5.700  0.5946  171.8   4.671   39.3  0.0850  -17.8  0.4057 -136.4
 5.800  0.5953  169.7   4.584   37.6  0.0840  -18.7  0.4032 -138.1
 5.900  0.5967  167.7   4.501   35.8  0.0831  -19.7  0.4010 -139.9
 6.000  0.5989  165.6   4.423   33.9  0.0821  -20.8  0.3992 -141.6
 6.100  0.5973  164.0   4.343   32.4  0.0811  -21.4  0.3974 -142.5
 6.200  0.5962  162.3   4.267   30.8  0.0800  -22.0  0.3958 -143.5
 6.300  0.5957  160.6   4.193   29.2  0.0790  -22.7  0.3943 -144.5
 6.400  0.5956  158.9   4.123   27.5  0.0780  -23.3  0.3928 -145.4
 6.500  0.5960  157.3   4.057   25.8  0.0770  -24.0  0.3915 -146.4
 6.600  0.5937  155.9   3.990   24.4  0.0761  -24.4  0.3883 -146.9
 6.700  0.5918  154.4   3.927   22.9  0.0752  -24.7  0.3850 -147.4
 6.800  0.5902  153.0   3.865   21.4  0.0743  -25.1  0.3819 -147.9
 6.900  0.5890  151.6   3.807   19.9  0.0734  -25.5  0.3787 -148.4
 7.000  0.5881  150.1   3.751   18.3  0.0726  -25.9  0.3756 -149.0
 7.100  0.5869  148.6   3.701   16.9  0.0721  -26.1  0.3716 -149.7
 7.200  0.5861  147.0   3.654   15.4  0.0716  -26.3  0.3678 -150.5
 7.300  0.5857  145.5   3.609   13.9  0.0711  -26.6  0.3640 -151.3
 7.400  0.5858  143.9   3.567   12.4  0.0706  -26.8  0.3603 -152.1
 7.500  0.5863  142.4   3.527   10.9  0.0701  -27.1  0.3566 -152.9
 7.600  0.5865  140.3   3.487    9.2  0.0697  -27.5  0.3523 -154.7
 7.700  0.5874  138.3   3.449    7.6  0.0692  -27.8  0.3484 -156.6
 7.800  0.5891  136.3   3.414    5.9  0.0688  -28.2  0.3448 -158.5
 7.900  0.5915  134.3   3.382    4.2  0.0684  -28.6  0.3417 -160.4
 8.000  0.5945  132.3   3.353    2.5  0.0680  -29.0  0.3389 -162.3
 8.500  0.6106  121.0   3.129   -6.6  0.0646  -30.6  0.3380  169.8
 9.000  0.6380  110.4   2.883  -15.4  0.0620  -30.4  0.3529  154.4
 9.500  0.6792  101.6   2.638  -23.8  0.0606  -30.3  0.3927  140.6
10.000  0.7201   94.0   2.381  -31.9  0.0590  -30.6  0.4452  129.2
10.500  0.7446   88.9   2.119  -38.2  0.0576  -29.3  0.4941  120.9
11.000  0.7633   86.8   1.941  -42.6  0.0582  -27.7  0.5363  115.9
11.500  0.7989   85.8   1.831  -48.2  0.0601  -27.3  0.5828  112.6
12.000  0.8303   83.8   1.710  -55.2  0.0613  -28.6  0.6273  109.1
!
!  f       NFmin   Gammaopt  rn/50
! GHz       dB    MAG  ANG    -
 0.450      0.36  0.64    5   0.20
 1.800      0.50  0.57   28   0.16
 2.400      0.56  0.45   71   0.19
 5.500      0.77  0.32   80   0.12
10.000      1.12  0.43 -102   0.21
!
! (c) 2012  Infineon Technologies AG, Munich
