! Infineon Technologies  Discrete & RF Semiconductors
! BFP780
! VCE =  1.0 V,  IC =  58 mA
! Common Emitter S-Parameters:                            Jul 2015
# GHz  S  MA  R  50
!  f         S11            S21            S12            S22
! GHz     MAG   ANG      MAG   ANG      MAG   ANG      MAG   ANG
 0.030  0.5322  -65.3  69.216  156.0  0.0091   72.4  0.9488  -34.0
 0.040  0.5727  -75.5  67.716  150.5  0.0126   63.0  0.9262  -44.4
 0.050  0.6029  -84.5  65.534  145.3  0.0146   61.1  0.9027  -53.9
 0.060  0.6382  -93.1  62.534  140.8  0.0168   52.7  0.8721  -62.6
 0.070  0.6624 -100.7  59.082  136.4  0.0182   51.6  0.8501  -70.5
 0.080  0.6851 -108.0  55.635  132.3  0.0198   46.5  0.8281  -77.9
 0.090  0.7037 -114.1  52.229  128.8  0.0206   43.8  0.8069  -84.4
 0.100  0.7190 -119.2  49.173  125.9  0.0215   40.7  0.7896  -90.3
 0.110  0.7324 -123.8  46.440  123.1  0.0223   38.5  0.7741  -96.2
 0.120  0.7428 -127.7  44.006  120.7  0.0230   37.2  0.7583 -101.1
 0.130  0.7517 -131.2  41.786  118.6  0.0240   34.7  0.7445 -105.6
 0.140  0.7598 -134.4  39.667  116.6  0.0239   33.6  0.7315 -109.8
 0.150  0.7668 -137.1  37.792  114.9  0.0247   31.8  0.7234 -113.4
 0.200  0.7909 -147.9  30.024  107.7  0.0260   27.1  0.6897 -128.2
 0.250  0.8022 -155.3  24.803  102.6  0.0271   23.3  0.6723 -138.5
 0.300  0.8094 -160.8  20.951   98.7  0.0276   20.8  0.6582 -146.2
 0.350  0.8141 -164.9  18.127   95.6  0.0281   19.9  0.6511 -152.0
 0.400  0.8181 -168.2  15.956   93.1  0.0286   18.6  0.6470 -156.6
 0.450  0.8190 -170.9  14.235   90.8  0.0289   18.6  0.6430 -160.3
 0.500  0.8198 -173.4  12.842   88.8  0.0292   18.4  0.6391 -163.6
 0.600  0.8235 -177.3  10.733   85.4  0.0297   18.0  0.6369 -168.8
 0.700  0.8225  179.3   9.193   82.2  0.0302   17.7  0.6335 -173.0
 0.800  0.8253  176.5   8.051   79.5  0.0308   18.2  0.6341 -176.4
 0.900  0.8253  173.9   7.151   76.9  0.0314   18.6  0.6335 -179.5
 1.000  0.8286  171.6   6.434   74.4  0.0321   18.8  0.6363  178.0
 1.100  0.8270  169.4   5.834   72.0  0.0329   19.1  0.6365  175.4
 1.200  0.8306  167.4   5.351   69.7  0.0337   19.2  0.6399  173.4
 1.300  0.8295  165.4   4.930   67.5  0.0343   19.6  0.6407  171.2
 1.400  0.8319  163.5   4.573   65.2  0.0351   19.8  0.6443  169.4
 1.500  0.8310  161.8   4.260   63.1  0.0359   19.9  0.6461  167.5
 1.600  0.8341  159.9   3.990   60.8  0.0367   20.1  0.6501  165.7
 1.700  0.8332  158.1   3.748   58.7  0.0375   19.9  0.6530  163.9
 1.800  0.8334  156.4   3.525   56.5  0.0382   20.0  0.6565  162.3
 1.900  0.8336  154.9   3.329   54.5  0.0389   19.8  0.6597  160.7
 2.000  0.8366  153.1   3.162   52.4  0.0398   19.6  0.6632  159.1
 2.100  0.8364  151.6   2.995   50.3  0.0402   19.5  0.6586  157.9
 2.200  0.8353  150.0   2.846   48.2  0.0409   19.5  0.6602  156.3
 2.300  0.8360  148.6   2.715   46.2  0.0417   19.0  0.6617  154.7
 2.400  0.8380  146.9   2.597   44.1  0.0423   19.0  0.6640  153.2
 2.500  0.8385  145.3   2.484   42.0  0.0429   18.5  0.6662  151.6
 2.600  0.8387  143.7   2.373   39.9  0.0438   18.3  0.6681  150.0
 2.700  0.8374  142.2   2.273   38.0  0.0443   17.8  0.6700  148.5
 2.800  0.8391  140.6   2.181   36.0  0.0449   17.5  0.6727  147.0
 2.900  0.8391  139.1   2.093   34.0  0.0456   17.3  0.6763  145.5
 3.000  0.8404  137.5   2.012   31.9  0.0464   16.9  0.6789  144.0
 3.100  0.8405  136.1   1.933   30.1  0.0469   16.5  0.6821  142.6
 3.200  0.8407  134.6   1.861   28.2  0.0477   16.2  0.6846  141.2
 3.300  0.8406  133.2   1.791   26.3  0.0482   15.9  0.6879  140.0
 3.400  0.8419  131.8   1.727   24.5  0.0489   15.6  0.6909  138.6
 3.500  0.8423  130.5   1.668   22.8  0.0493   15.0  0.6940  137.4
 3.600  0.8422  129.0   1.607   20.9  0.0500   14.5  0.6973  136.1
 3.700  0.8435  127.7   1.556   19.1  0.0504   14.3  0.6997  134.9
 3.800  0.8433  126.2   1.501   17.4  0.0511   13.6  0.7033  133.6
 3.900  0.8446  125.1   1.454   15.8  0.0517   13.2  0.7063  132.5
 4.000  0.8459  123.7   1.407   14.1  0.0522   13.0  0.7095  131.3
 4.100  0.8472  122.4   1.365   12.3  0.0526   12.6  0.7122  130.3
 4.200  0.8485  121.2   1.323   10.7  0.0532   12.0  0.7159  129.1
 4.300  0.8495  119.9   1.284    9.0  0.0539   11.6  0.7192  128.2
 4.400  0.8511  118.9   1.246    7.5  0.0544   11.3  0.7225  127.1
 4.500  0.8522  117.6   1.212    5.8  0.0552   10.8  0.7251  126.1
 4.600  0.8541  116.6   1.177    4.2  0.0555   10.5  0.7282  125.1
 4.700  0.8545  115.4   1.144    2.5  0.0560    9.9  0.7302  124.0
 4.800  0.8559  114.4   1.113    1.0  0.0566    9.5  0.7333  123.1
 4.900  0.8569  113.5   1.083   -0.5  0.0573    8.9  0.7349  122.0
 5.000  0.8577  112.4   1.054   -2.1  0.0579    8.4  0.7375  121.1
 5.100  0.8592  111.6   1.028   -3.6  0.0584    8.0  0.7394  120.0
 5.200  0.8591  110.5   1.002   -5.2  0.0589    7.5  0.7416  119.0
 5.300  0.8594  109.7   0.976   -6.7  0.0593    6.9  0.7429  118.0
 5.400  0.8599  108.7   0.952   -8.2  0.0599    6.5  0.7449  117.1
 5.500  0.8592  107.9   0.928   -9.5  0.0603    6.0  0.7455  116.1
 5.600  0.8593  107.2   0.907  -11.0  0.0611    5.6  0.7478  115.0
 5.700  0.8579  106.3   0.887  -12.5  0.0617    5.1  0.7489  114.0
 5.800  0.8582  105.5   0.866  -13.9  0.0624    4.5  0.7508  113.0
 5.900  0.8567  104.7   0.848  -15.3  0.0631    4.1  0.7526  112.0
 6.000  0.8568  103.7   0.828  -16.8  0.0637    3.4  0.7545  110.8
!
!  f       NFmin   Gammaopt  rn/50
! GHz       dB    MAG  ANG    -
!
! noise parameter not available yet for this operation point!
!
! (c) 2015  Infineon Technologies AG, Munich
