! Infineon Technologies  Discrete & RF Semiconductors
! BFP720
! VCE =  0.7 V,  IC =  25 mA
! Common Emitter S-Parameters:                            Aug 2012
# GHz  S  MA  R  50
!  f         S11            S21            S12            S22
! GHz     MAG   ANG      MAG   ANG      MAG   ANG      MAG   ANG
 0.010  0.1483   -9.3   9.320  178.9  0.0077    9.9  0.2719    1.4
 0.020  0.1457  -17.0   9.353  177.2  0.0075    9.3  0.2786   -1.0
 0.030  0.1474  -24.7   9.326  175.8  0.0078   14.0  0.2787   -1.9
 0.040  0.1517  -32.2   9.305  174.3  0.0080   18.4  0.2788   -2.8
 0.050  0.1583  -39.1   9.290  172.9  0.0084   22.5  0.2789   -3.7
 0.060  0.1661  -45.7   9.240  171.5  0.0087   24.4  0.2781   -4.5
 0.070  0.1759  -51.6   9.196  170.1  0.0090   26.1  0.2772   -5.3
 0.080  0.1874  -56.9   9.157  168.7  0.0094   27.7  0.2765   -6.1
 0.090  0.2003  -61.6   9.124  167.2  0.0097   29.2  0.2758   -6.9
 0.100  0.2143  -65.6   9.097  165.8  0.0101   30.6  0.2751   -7.8
 0.110  0.2245  -69.9   9.031  164.4  0.0105   32.1  0.2739   -8.5
 0.120  0.2359  -73.9   8.971  163.1  0.0109   33.5  0.2728   -9.2
 0.130  0.2483  -77.5   8.915  161.7  0.0114   34.7  0.2717  -10.0
 0.140  0.2615  -80.7   8.865  160.3  0.0118   35.9  0.2707  -10.7
 0.150  0.2755  -83.6   8.821  158.9  0.0123   37.0  0.2697  -11.5
 0.200  0.3356  -96.3   8.462  152.5  0.0145   40.3  0.2621  -14.9
 0.250  0.3921 -106.7   8.055  146.5  0.0167   41.1  0.2532  -18.1
 0.300  0.4403 -115.1   7.637  141.1  0.0187   40.4  0.2434  -21.0
 0.350  0.4843 -122.5   7.236  136.1  0.0205   39.6  0.2337  -23.5
 0.400  0.5220 -128.8   6.814  131.5  0.0222   38.3  0.2240  -25.8
 0.450  0.5542 -134.5   6.447  127.3  0.0236   37.0  0.2143  -27.6
 0.500  0.5827 -139.5   6.079  123.5  0.0249   35.6  0.2051  -29.2
 0.600  0.6280 -148.3   5.437  116.6  0.0269   33.1  0.1869  -31.9
 0.700  0.6614 -155.6   4.891  110.7  0.0285   30.7  0.1712  -34.0
 0.800  0.6894 -161.8   4.426  105.7  0.0298   28.8  0.1577  -35.5
 0.900  0.7099 -167.2   4.025  101.1  0.0307   27.2  0.1455  -36.7
 1.000  0.7263 -171.9   3.685   97.0  0.0315   25.8  0.1344  -38.0
 1.100  0.7394 -175.9   3.391   93.3  0.0322   24.7  0.1249  -38.9
 1.200  0.7511 -179.6   3.134   89.9  0.0327   23.9  0.1163  -40.0
 1.300  0.7611  177.0   2.913   86.8  0.0332   23.2  0.1085  -41.1
 1.400  0.7781  177.8   2.716   83.9  0.0336   22.7  0.1013  -42.5
 1.500  0.7848  175.0   2.543   81.1  0.0340   22.3  0.0948  -44.1
 1.600  0.7908  172.5   2.390   78.5  0.0343   21.9  0.0893  -45.7
 1.700  0.7958  170.1   2.252   76.1  0.0347   21.7  0.0837  -47.8
 1.800  0.8001  167.9   2.130   73.7  0.0351   21.6  0.0787  -50.3
 1.900  0.8042  165.9   2.019   71.5  0.0355   21.5  0.0745  -52.9
 2.000  0.8082  163.9   1.920   69.3  0.0358   21.5  0.0708  -56.1
 2.100  0.8105  162.1   1.832   67.3  0.0362   21.5  0.0676  -59.4
 2.200  0.8136  160.3   1.747   65.2  0.0366   21.4  0.0647  -62.9
 2.300  0.8160  158.6   1.674   63.2  0.0370   21.5  0.0624  -66.7
 2.400  0.8191  156.8   1.603   61.1  0.0373   21.5  0.0603  -70.7
 2.500  0.8206  155.2   1.541   59.2  0.0378   21.5  0.0587  -74.9
 2.600  0.8229  153.5   1.481   57.2  0.0382   21.6  0.0574  -79.2
 2.700  0.8244  151.9   1.427   55.4  0.0386   21.6  0.0563  -83.4
 2.800  0.8266  150.2   1.375   53.4  0.0391   21.7  0.0556  -87.8
 2.900  0.8273  148.7   1.328   51.6  0.0395   21.7  0.0551  -92.1
 3.000  0.8286  147.1   1.283   49.7  0.0400   21.8  0.0549  -96.4
 3.100  0.8284  145.4   1.243   48.1  0.0405   21.7  0.0538 -100.8
 3.200  0.8288  143.8   1.204   46.4  0.0410   21.7  0.0530 -105.3
 3.300  0.8299  142.2   1.166   44.6  0.0415   21.7  0.0525 -110.0
 3.400  0.8317  140.5   1.130   42.7  0.0420   21.7  0.0524 -114.7
 3.500  0.8341  138.9   1.095   40.6  0.0425   21.7  0.0527 -119.4
 3.600  0.8341  137.3   1.063   39.0  0.0430   21.6  0.0519 -125.5
 3.700  0.8347  135.7   1.033   37.4  0.0435   21.6  0.0517 -131.8
 3.800  0.8359  134.1   1.003   35.6  0.0441   21.5  0.0522 -138.0
 3.900  0.8379  132.5   0.975   33.8  0.0446   21.4  0.0532 -144.1
 4.000  0.8404  130.9   0.947   31.8  0.0451   21.4  0.0548 -149.8
 4.100  0.8408  129.4   0.921   30.3  0.0456   21.2  0.0568 -157.3
 4.200  0.8417  128.0   0.896   28.8  0.0462   21.0  0.0597 -164.2
 4.300  0.8432  126.5   0.872   27.2  0.0467   20.9  0.0634 -170.3
 4.400  0.8452  125.1   0.848   25.5  0.0472   20.7  0.0677 -175.7
 4.500  0.8478  123.6   0.826   23.7  0.0478   20.6  0.0725  179.5
 4.600  0.8485  122.5   0.805   22.3  0.0483   20.4  0.0789  175.3
 4.700  0.8497  121.3   0.784   20.9  0.0488   20.3  0.0856  171.8
 4.800  0.8511  120.2   0.764   19.4  0.0493   20.1  0.0926  168.8
 4.900  0.8529  119.0   0.745   17.9  0.0498   20.0  0.0998  166.2
 5.000  0.8551  117.9   0.726   16.2  0.0503   19.8  0.1072  164.0
 5.100  0.8564  117.0   0.710   15.0  0.0509   19.6  0.1148  162.1
 5.200  0.8579  116.1   0.693   13.7  0.0515   19.5  0.1226  160.5
 5.300  0.8596  115.2   0.678   12.4  0.0520   19.3  0.1304  159.1
 5.400  0.8615  114.3   0.662   11.0  0.0526   19.2  0.1383  157.8
 5.500  0.8636  113.5   0.647    9.5  0.0531   19.1  0.1463  156.7
 5.600  0.8644  112.7   0.634    8.4  0.0537   18.9  0.1530  156.0
 5.700  0.8654  112.0   0.622    7.1  0.0543   18.7  0.1597  155.3
 5.800  0.8666  111.3   0.609    5.9  0.0549   18.6  0.1664  154.7
 5.900  0.8679  110.6   0.597    4.5  0.0555   18.4  0.1732  154.1
 6.000  0.8693  109.8   0.585    3.1  0.0561   18.3  0.1800  153.6
 6.100  0.8683  109.1   0.575    2.0  0.0569   18.1  0.1844  153.1
 6.200  0.8674  108.3   0.564    0.8  0.0576   18.0  0.1889  152.6
 6.300  0.8667  107.5   0.554   -0.5  0.0584   17.8  0.1933  152.1
 6.400  0.8661  106.8   0.544   -1.7  0.0592   17.7  0.1978  151.7
 6.500  0.8657  106.0   0.535   -3.1  0.0599   17.6  0.2023  151.2
 6.600  0.8638  105.2   0.526   -4.2  0.0609   17.3  0.2043  150.3
 6.700  0.8621  104.3   0.518   -5.4  0.0619   17.0  0.2064  149.4
 6.800  0.8606  103.5   0.509   -6.6  0.0629   16.7  0.2085  148.5
 6.900  0.8592  102.6   0.501   -7.9  0.0639   16.4  0.2107  147.7
 7.000  0.8581  101.8   0.494   -9.2  0.0649   16.2  0.2129  146.8
 7.100  0.8576  100.7   0.487  -10.4  0.0660   15.5  0.2145  145.2
 7.200  0.8574   99.6   0.480  -11.7  0.0672   14.8  0.2162  143.6
 7.300  0.8575   98.5   0.474  -13.0  0.0683   14.2  0.2180  142.0
 7.400  0.8580   97.4   0.467  -14.3  0.0695   13.6  0.2201  140.5
 7.500  0.8587   96.4   0.461  -15.7  0.0707   13.0  0.2223  138.9
 7.600  0.8593   95.0   0.454  -17.1  0.0715   12.0  0.2253  136.4
 7.700  0.8604   93.6   0.447  -18.5  0.0723   11.1  0.2287  134.0
 7.800  0.8620   92.2   0.441  -20.0  0.0732   10.1  0.2326  131.6
 7.900  0.8641   90.8   0.434  -21.5  0.0741    9.2  0.2368  129.4
 8.000  0.8668   89.4   0.428  -23.1  0.0750    8.3  0.2414  127.2
 8.500  0.8755   82.1   0.388  -30.2  0.0774    3.9  0.2769  114.8
 9.000  0.8863   75.7   0.350  -36.2  0.0794    0.1  0.3282  105.7
 9.500  0.9019   70.6   0.315  -41.5  0.0804   -3.8  0.3856   99.3
10.000  0.9135   66.5   0.282  -45.9  0.0801   -7.0  0.4428   94.5
10.500  0.9143   64.1   0.254  -48.4  0.0806   -8.8  0.4898   91.2
11.000  0.9181   63.6   0.240  -49.9  0.0832  -10.6  0.5258   89.5
11.500  0.9410   63.2   0.230  -53.4  0.0863  -13.9  0.5633   88.7
12.000  0.9526   61.7   0.216  -58.1  0.0866  -17.8  0.5960   87.2
!
!  f       NFmin   Gammaopt  rn/50
! GHz       dB    MAG  ANG    -
!
! noise parameter not available yet for this operation point!
!
! (c) 2012  Infineon Technologies AG, Munich
