! Infineon Technologies  Discrete & RF Semiconductors
! BFP720F
! VCE =  2.0 V,  IC =  25 mA
! Common Emitter S-Parameters:                            Jan 2016
# GHz  S  MA  R  50
!  f         S11            S21            S12            S22
! GHz     MAG   ANG      MAG   ANG      MAG   ANG      MAG   ANG
 0.010  0.5586   -1.4  34.265  178.8  0.0002  -47.5  0.9259    2.6
 0.015  0.5669   -2.1  34.741  178.1  0.0004   81.1  0.9441    0.9
 0.020  0.5752   -2.8  35.223  177.4  0.0009   91.1  0.9631   -0.8
 0.025  0.5748   -3.6  35.247  177.1  0.0010   88.3  0.9641   -1.1
 0.030  0.5745   -4.4  35.271  176.8  0.0012   86.3  0.9651   -1.3
 0.035  0.5743   -5.2  35.297  176.5  0.0013   84.6  0.9661   -1.6
 0.040  0.5743   -6.0  35.323  176.2  0.0015   83.3  0.9671   -1.9
 0.045  0.5743   -6.8  35.351  175.9  0.0016   82.3  0.9682   -2.1
 0.050  0.5745   -7.6  35.379  175.6  0.0018   81.4  0.9693   -2.4
 0.055  0.5742   -8.4  35.365  175.1  0.0020   81.4  0.9691   -2.7
 0.060  0.5741   -9.2  35.353  174.6  0.0022   81.5  0.9690   -3.1
 0.065  0.5740   -9.9  35.344  174.1  0.0023   81.5  0.9689   -3.4
 0.070  0.5741  -10.7  35.338  173.6  0.0025   81.5  0.9688   -3.8
 0.075  0.5742  -11.5  35.334  173.2  0.0027   81.5  0.9688   -4.1
 0.080  0.5745  -12.3  35.332  172.7  0.0029   81.6  0.9688   -4.5
 0.085  0.5749  -13.1  35.334  172.2  0.0031   81.6  0.9689   -4.9
 0.090  0.5753  -13.8  35.338  171.7  0.0032   81.6  0.9689   -5.2
 0.095  0.5759  -14.6  35.344  171.2  0.0034   81.6  0.9690   -5.6
 0.100  0.5766  -15.4  35.353  170.7  0.0036   81.6  0.9692   -5.9
 0.105  0.5757  -16.2  35.258  170.3  0.0038   81.2  0.9679   -6.2
 0.110  0.5749  -16.9  35.165  169.8  0.0039   80.8  0.9667   -6.6
 0.115  0.5742  -17.7  35.075  169.4  0.0041   80.5  0.9655   -6.9
 0.120  0.5736  -18.5  34.986  168.9  0.0043   80.2  0.9643   -7.2
 0.125  0.5731  -19.2  34.900  168.5  0.0044   79.9  0.9632   -7.5
 0.130  0.5727  -20.0  34.816  168.0  0.0046   79.6  0.9621   -7.9
 0.135  0.5724  -20.8  34.734  167.6  0.0048   79.4  0.9610   -8.2
 0.140  0.5722  -21.6  34.654  167.1  0.0050   79.1  0.9600   -8.5
 0.145  0.5721  -22.3  34.576  166.7  0.0051   78.9  0.9590   -8.9
 0.150  0.5721  -23.1  34.501  166.2  0.0053   78.7  0.9580   -9.2
 0.155  0.5720  -23.8  34.444  165.8  0.0055   78.5  0.9567   -9.5
 0.160  0.5720  -24.5  34.389  165.4  0.0056   78.3  0.9554   -9.8
 0.165  0.5720  -25.3  34.336  165.0  0.0058   78.2  0.9541  -10.1
 0.170  0.5722  -26.0  34.284  164.5  0.0059   78.0  0.9528  -10.4
 0.175  0.5725  -26.7  34.234  164.1  0.0061   77.9  0.9516  -10.7
 0.180  0.5728  -27.4  34.187  163.7  0.0063   77.7  0.9504  -11.0
 0.185  0.5733  -28.1  34.141  163.3  0.0064   77.6  0.9493  -11.3
 0.190  0.5738  -28.9  34.097  162.8  0.0066   77.4  0.9481  -11.6
 0.195  0.5744  -29.6  34.054  162.4  0.0067   77.3  0.9470  -11.9
 0.200  0.5751  -30.3  34.014  162.0  0.0069   77.2  0.9459  -12.2
 0.220  0.5734  -33.1  33.766  160.6  0.0075   75.8  0.9398  -13.3
 0.240  0.5731  -35.9  33.538  159.1  0.0082   74.7  0.9341  -14.4
 0.260  0.5735  -38.6  33.310  157.7  0.0088   73.6  0.9273  -15.6
 0.280  0.5747  -41.3  33.079  156.2  0.0094   72.5  0.9194  -16.7
 0.300  0.5771  -44.0  32.871  154.7  0.0100   71.6  0.9119  -17.8
 0.320  0.5756  -46.7  32.483  153.4  0.0106   70.7  0.9065  -18.9
 0.340  0.5753  -49.4  32.111  152.1  0.0111   70.0  0.9015  -20.0
 0.360  0.5751  -51.9  31.809  150.8  0.0117   68.9  0.8941  -21.1
 0.380  0.5748  -54.4  31.575  149.6  0.0123   67.7  0.8843  -22.1
 0.400  0.5756  -56.9  31.355  148.3  0.0129   66.6  0.8748  -23.1
 0.420  0.5767  -59.1  31.130  147.0  0.0134   65.8  0.8692  -24.0
 0.440  0.5787  -61.3  30.922  145.7  0.0139   65.0  0.8639  -24.9
 0.450  0.5800  -62.4  30.824  145.0  0.0141   64.6  0.8613  -25.4
 0.460  0.5792  -63.6  30.654  144.5  0.0144   64.1  0.8566  -25.9
 0.480  0.5782  -65.9  30.323  143.5  0.0149   63.2  0.8472  -26.9
 0.500  0.5782  -68.2  30.001  142.4  0.0154   62.3  0.8382  -27.9
 0.520  0.5771  -70.3  29.755  141.3  0.0159   61.3  0.8292  -28.7
 0.540  0.5768  -72.4  29.520  140.2  0.0163   60.4  0.8204  -29.6
 0.560  0.5773  -74.5  29.296  139.1  0.0168   59.6  0.8118  -30.5
 0.580  0.5786  -76.6  29.083  138.0  0.0172   58.8  0.8034  -31.4
 0.600  0.5806  -78.7  28.882  136.8  0.0177   58.0  0.7952  -32.3
 0.620  0.5792  -80.7  28.540  135.8  0.0181   57.2  0.7873  -33.0
 0.640  0.5785  -82.6  28.206  134.8  0.0185   56.4  0.7795  -33.8
 0.660  0.5784  -84.6  27.881  133.8  0.0188   55.7  0.7718  -34.6
 0.680  0.5791  -86.5  27.565  132.8  0.0192   55.0  0.7643  -35.4
 0.700  0.5804  -88.5  27.258  131.7  0.0196   54.3  0.7569  -36.2
 0.720  0.5807  -90.1  27.042  130.8  0.0199   53.6  0.7489  -36.9
 0.740  0.5813  -91.7  26.832  129.9  0.0202   52.9  0.7409  -37.6
 0.760  0.5825  -93.3  26.630  128.9  0.0206   52.3  0.7331  -38.3
 0.780  0.5841  -94.8  26.435  128.0  0.0209   51.6  0.7254  -39.0
 0.800  0.5861  -96.4  26.247  127.0  0.0212   51.0  0.7178  -39.7
 0.820  0.5853  -98.0  25.979  126.2  0.0215   50.3  0.7097  -40.3
 0.840  0.5850  -99.6  25.716  125.3  0.0218   49.7  0.7017  -40.9
 0.860  0.5851 -101.2  25.459  124.4  0.0220   49.0  0.6937  -41.6
 0.880  0.5857 -102.8  25.208  123.5  0.0223   48.4  0.6859  -42.2
 0.900  0.5868 -104.4  24.964  122.6  0.0226   47.8  0.6781  -42.9
 0.920  0.5860 -105.9  24.680  121.8  0.0228   47.2  0.6705  -43.5
 0.940  0.5856 -107.4  24.400  121.1  0.0231   46.7  0.6630  -44.1
 0.960  0.5856 -108.8  24.125  120.3  0.0233   46.1  0.6556  -44.7
 0.980  0.5860 -110.3  23.854  119.4  0.0236   45.6  0.6483  -45.3
 1.000  0.5868 -111.8  23.589  118.6  0.0238   45.1  0.6410  -45.9
 1.020  0.5862 -113.1  23.352  117.9  0.0240   44.6  0.6341  -46.4
 1.040  0.5860 -114.4  23.119  117.2  0.0242   44.1  0.6272  -46.9
 1.060  0.5860 -115.7  22.889  116.5  0.0244   43.6  0.6204  -47.4
 1.080  0.5864 -117.0  22.662  115.8  0.0246   43.2  0.6136  -47.9
 1.100  0.5870 -118.3  22.439  115.1  0.0248   42.7  0.6069  -48.4
 1.120  0.5868 -119.4  22.239  114.5  0.0250   42.3  0.6006  -48.9
 1.140  0.5868 -120.5  22.042  113.8  0.0252   41.8  0.5943  -49.4
 1.160  0.5870 -121.7  21.848  113.2  0.0253   41.4  0.5881  -49.9
 1.180  0.5874 -122.8  21.656  112.5  0.0255   41.0  0.5819  -50.4
 1.200  0.5881 -123.9  21.468  111.8  0.0257   40.6  0.5758  -50.9
 1.220  0.5880 -125.0  21.245  111.2  0.0258   40.2  0.5698  -51.3
 1.240  0.5882 -126.1  21.025  110.5  0.0260   39.8  0.5639  -51.7
 1.260  0.5886 -127.3  20.807  109.9  0.0261   39.4  0.5580  -52.1
 1.280  0.5892 -128.4  20.593  109.2  0.0263   39.1  0.5521  -52.6
 1.300  0.5900 -129.5  20.381  108.5  0.0264   38.7  0.5463  -53.0
 1.320  0.5901 -130.5  20.189  107.9  0.0265   38.4  0.5410  -53.3
 1.340  0.5904 -131.4  19.998  107.3  0.0266   38.0  0.5357  -53.7
 1.360  0.5909 -132.4  19.810  106.7  0.0268   37.7  0.5304  -54.1
 1.380  0.5915 -133.3  19.625  106.1  0.0269   37.3  0.5251  -54.4
 1.400  0.5923 -134.3  19.441  105.5  0.0270   37.0  0.5199  -54.8
 1.420  0.5921 -135.2  19.261  105.0  0.0271   36.7  0.5147  -55.2
 1.440  0.5920 -136.1  19.082  104.5  0.0272   36.4  0.5096  -55.6
 1.460  0.5921 -137.1  18.905  103.9  0.0273   36.2  0.5045  -56.0
 1.480  0.5924 -138.0  18.730  103.4  0.0274   35.9  0.4994  -56.4
 1.500  0.5928 -138.9  18.556  102.8  0.0275   35.6  0.4943  -56.8
 1.520  0.5931 -139.6  18.409  102.3  0.0276   35.3  0.4899  -57.1
 1.540  0.5934 -140.3  18.263  101.8  0.0277   35.1  0.4855  -57.4
 1.560  0.5939 -141.1  18.118  101.3  0.0278   34.8  0.4812  -57.7
 1.580  0.5945 -141.8  17.975  100.8  0.0279   34.6  0.4768  -58.1
 1.600  0.5951 -142.5  17.833  100.3  0.0280   34.3  0.4725  -58.4
 1.620  0.5950 -143.3  17.662   99.8  0.0281   34.1  0.4681  -58.7
 1.640  0.5951 -144.1  17.492   99.4  0.0282   33.8  0.4638  -59.1
 1.660  0.5952 -144.9  17.324   98.9  0.0282   33.6  0.4594  -59.5
 1.680  0.5955 -145.7  17.156   98.4  0.0283   33.3  0.4551  -59.8
 1.700  0.5959 -146.5  16.990   97.9  0.0284   33.1  0.4508  -60.2
 1.720  0.5963 -147.2  16.835   97.5  0.0285   32.9  0.4474  -60.5
 1.740  0.5967 -147.8  16.682   97.0  0.0286   32.7  0.4440  -60.8
 1.760  0.5972 -148.5  16.530   96.5  0.0286   32.6  0.4407  -61.1
 1.780  0.5978 -149.1  16.378   96.1  0.0287   32.4  0.4373  -61.4
 1.800  0.5985 -149.8  16.228   95.6  0.0288   32.2  0.4340  -61.7
 1.820  0.5987 -150.4  16.099   95.2  0.0289   32.0  0.4306  -62.0
 1.840  0.5990 -151.0  15.971   94.7  0.0289   31.9  0.4271  -62.3
 1.860  0.5994 -151.7  15.844   94.3  0.0290   31.7  0.4237  -62.6
 1.880  0.5998 -152.3  15.717   93.9  0.0290   31.6  0.4203  -62.9
 1.900  0.6003 -152.9  15.592   93.4  0.0291   31.4  0.4169  -63.2
 1.920  0.6008 -153.4  15.462   93.0  0.0292   31.2  0.4140  -63.4
 1.940  0.6014 -153.9  15.332   92.6  0.0292   31.1  0.4112  -63.7
 1.960  0.6020 -154.5  15.203   92.2  0.0293   30.9  0.4084  -63.9
 1.980  0.6027 -155.0  15.075   91.7  0.0293   30.8  0.4055  -64.2
 2.000  0.6034 -155.5  14.948   91.3  0.0294   30.6  0.4027  -64.4
 2.020  0.6039 -156.0  14.827   90.9  0.0294   30.5  0.4002  -64.6
 2.040  0.6044 -156.5  14.706   90.6  0.0295   30.4  0.3977  -64.9
 2.060  0.6050 -157.0  14.586   90.2  0.0295   30.2  0.3952  -65.1
 2.080  0.6056 -157.5  14.466   89.9  0.0296   30.1  0.3927  -65.4
 2.100  0.6062 -158.0  14.348   89.5  0.0296   30.0  0.3902  -65.6
 2.120  0.6069 -158.5  14.229   89.1  0.0297   29.9  0.3877  -65.9
 2.140  0.6077 -159.0  14.112   88.7  0.0297   29.8  0.3852  -66.1
 2.160  0.6085 -159.5  13.995   88.3  0.0298   29.6  0.3827  -66.4
 2.180  0.6093 -160.0  13.879   87.9  0.0298   29.5  0.3803  -66.6
 2.200  0.6102 -160.5  13.763   87.5  0.0299   29.4  0.3778  -66.9
 2.220  0.6107 -160.9  13.653   87.2  0.0299   29.3  0.3759  -67.1
 2.240  0.6112 -161.3  13.544   86.8  0.0300   29.2  0.3740  -67.3
 2.260  0.6117 -161.8  13.435   86.5  0.0300   29.2  0.3720  -67.6
 2.280  0.6122 -162.2  13.326   86.1  0.0301   29.1  0.3701  -67.8
 2.300  0.6128 -162.6  13.218   85.8  0.0301   29.0  0.3682  -68.0
 2.320  0.6135 -163.0  13.111   85.4  0.0301   28.9  0.3663  -68.3
 2.340  0.6141 -163.4  13.004   85.0  0.0302   28.8  0.3644  -68.5
 2.360  0.6148 -163.9  12.898   84.7  0.0302   28.8  0.3626  -68.7
 2.380  0.6155 -164.3  12.792   84.3  0.0303   28.7  0.3607  -69.0
 2.400  0.6163 -164.7  12.687   83.9  0.0303   28.6  0.3588  -69.2
 2.420  0.6167 -165.0  12.600   83.6  0.0303   28.5  0.3572  -69.4
 2.440  0.6172 -165.3  12.514   83.3  0.0303   28.5  0.3555  -69.5
 2.460  0.6176 -165.7  12.428   83.0  0.0304   28.4  0.3539  -69.7
 2.480  0.6181 -166.0  12.343   82.6  0.0304   28.4  0.3522  -69.9
 2.500  0.6186 -166.3  12.257   82.3  0.0304   28.3  0.3506  -70.0
 2.520  0.6191 -166.6  12.173   82.0  0.0304   28.2  0.3490  -70.2
 2.540  0.6197 -166.9  12.088   81.6  0.0304   28.2  0.3474  -70.4
 2.560  0.6202 -167.3  12.004   81.3  0.0305   28.1  0.3457  -70.5
 2.580  0.6208 -167.6  11.921   81.0  0.0305   28.1  0.3441  -70.7
 2.600  0.6214 -167.9  11.838   80.6  0.0305   28.0  0.3425  -70.9
 2.620  0.6215 -168.2  11.758   80.3  0.0305   28.0  0.3413  -71.0
 2.640  0.6217 -168.4  11.678   80.0  0.0306   28.0  0.3400  -71.2
 2.660  0.6218 -168.7  11.598   79.7  0.0306   28.0  0.3388  -71.3
 2.680  0.6220 -168.9  11.519   79.4  0.0307   28.0  0.3376  -71.4
 2.700  0.6221 -169.2  11.440   79.2  0.0307   28.0  0.3364  -71.6
 2.720  0.6223 -169.5  11.361   78.8  0.0307   28.0  0.3352  -71.7
 2.740  0.6225 -169.7  11.282   78.5  0.0308   28.0  0.3339  -71.9
 2.760  0.6227 -170.0  11.204   78.2  0.0308   28.0  0.3327  -72.0
 2.780  0.6230 -170.2  11.126   77.9  0.0309   28.0  0.3315  -72.2
 2.800  0.6232 -170.5  11.049   77.6  0.0309   28.0  0.3303  -72.3
 2.820  0.6237 -170.7  10.980   77.3  0.0310   28.0  0.3295  -72.5
 2.840  0.6242 -171.0  10.912   77.0  0.0310   28.0  0.3287  -72.7
 2.860  0.6247 -171.2  10.843   76.8  0.0311   28.0  0.3279  -72.8
 2.880  0.6253 -171.5  10.775   76.5  0.0311   28.0  0.3271  -73.0
 2.900  0.6258 -171.7  10.708   76.2  0.0312   27.9  0.3264  -73.2
 2.920  0.6264 -171.9  10.640   75.9  0.0313   27.9  0.3256  -73.4
 2.940  0.6269 -172.2  10.573   75.6  0.0313   27.9  0.3248  -73.6
 2.960  0.6275 -172.4  10.506   75.3  0.0314   27.9  0.3240  -73.7
 2.980  0.6281 -172.7  10.439   75.0  0.0314   27.9  0.3233  -73.9
 3.000  0.6287 -172.9  10.373   74.7  0.0315   27.9  0.3225  -74.1
 3.100  0.6265 -175.3  10.082   73.5  0.0317   27.9  0.3197  -74.6
 3.200  0.6254 -177.7   9.795   72.3  0.0320   27.9  0.3169  -75.2
 3.300  0.6253  180.0   9.513   71.0  0.0322   28.0  0.3142  -75.8
 3.400  0.6264  177.6   9.236   69.6  0.0325   28.0  0.3115  -76.3
 3.500  0.6285  175.2   8.965   68.1  0.0327   28.0  0.3088  -76.9
 3.600  0.6283  174.0   8.746   67.0  0.0330   28.1  0.3069  -77.2
 3.700  0.6285  172.8   8.530   65.8  0.0333   28.2  0.3050  -77.5
 3.800  0.6289  171.5   8.317   64.6  0.0336   28.2  0.3031  -77.8
 3.900  0.6296  170.3   8.109   63.3  0.0339   28.3  0.3012  -78.2
 4.000  0.6306  169.1   7.905   62.0  0.0342   28.4  0.2993  -78.5
 4.100  0.6304  168.0   7.736   60.9  0.0346   28.5  0.2978  -78.8
 4.200  0.6304  166.9   7.570   59.8  0.0349   28.6  0.2964  -79.1
 4.300  0.6307  165.9   7.408   58.6  0.0353   28.7  0.2950  -79.4
 4.400  0.6312  164.8   7.248   57.4  0.0356   28.8  0.2935  -79.7
 4.500  0.6319  163.7   7.092   56.1  0.0360   28.9  0.2921  -80.0
 4.600  0.6314  162.6   6.958   55.0  0.0364   29.0  0.2906  -80.4
 4.700  0.6310  161.5   6.826   53.9  0.0368   29.0  0.2891  -80.7
 4.800  0.6309  160.5   6.697   52.8  0.0373   29.1  0.2876  -81.1
 4.900  0.6311  159.4   6.570   51.6  0.0377   29.1  0.2862  -81.5
 5.000  0.6314  158.3   6.447   50.4  0.0381   29.2  0.2847  -81.9
 5.100  0.6304  157.2   6.336   49.3  0.0386   29.2  0.2831  -82.4
 5.200  0.6297  156.1   6.227   48.2  0.0391   29.2  0.2814  -82.8
 5.300  0.6292  154.9   6.120   47.0  0.0395   29.1  0.2798  -83.3
 5.400  0.6289  153.8   6.017   45.8  0.0400   29.1  0.2783  -83.8
 5.500  0.6289  152.7   5.916   44.5  0.0405   29.1  0.2767  -84.3
 5.600  0.6279  151.5   5.823   43.4  0.0410   29.0  0.2757  -85.0
 5.700  0.6272  150.3   5.733   42.2  0.0416   28.9  0.2747  -85.6
 5.800  0.6268  149.2   5.644   41.0  0.0421   28.8  0.2738  -86.3
 5.900  0.6266  148.0   5.559   39.8  0.0427   28.7  0.2729  -87.0
 6.000  0.6267  146.8   5.476   38.5  0.0432   28.6  0.2721  -87.7
 6.100  0.6255  145.4   5.392   37.3  0.0437   28.4  0.2703  -88.6
 6.200  0.6247  144.0   5.310   36.1  0.0443   28.1  0.2686  -89.5
 6.300  0.6242  142.6   5.231   34.8  0.0448   27.9  0.2669  -90.5
 6.400  0.6241  141.2   5.154   33.5  0.0454   27.7  0.2653  -91.4
 6.500  0.6244  139.8   5.080   32.2  0.0459   27.5  0.2638  -92.4
 6.600  0.6233  138.3   5.000   31.0  0.0464   27.2  0.2607  -93.6
 6.800  0.6224  135.2   4.848   28.4  0.0475   26.6  0.2548  -96.0
 7.000  0.6233  132.2   4.706   25.7  0.0485   26.1  0.2494  -98.6
 7.200  0.6257  128.8   4.559   23.3  0.0496   25.4  0.2396 -102.0
 7.400  0.6303  125.5   4.422   20.7  0.0507   24.6  0.2307 -105.6
 7.600  0.6369  122.1   4.287   18.2  0.0517   23.8  0.2206 -109.9
 7.800  0.6454  118.9   4.156   15.6  0.0526   23.0  0.2099 -115.0
 8.000  0.6559  115.7   4.034   12.8  0.0536   22.1  0.2010 -120.7
 8.200  0.6677  112.4   3.893   10.3  0.0543   21.1  0.1893 -129.2
 8.400  0.6816  109.3   3.760    7.7  0.0550   20.1  0.1823 -138.7
 8.600  0.6953  106.6   3.625    5.2  0.0557   19.2  0.1766 -149.4
 8.800  0.7083  104.1   3.484    2.9  0.0562   18.4  0.1739 -161.6
 9.000  0.7225  101.8   3.350    0.4  0.0567   17.7  0.1791 -173.6
 9.200  0.7363  100.2   3.227   -1.5  0.0573   17.0  0.1906  176.6
 9.400  0.7506   98.7   3.109   -3.6  0.0578   16.3  0.2069  168.1
 9.600  0.7652   97.4   2.997   -5.6  0.0583   15.5  0.2260  161.0
 9.800  0.7797   96.4   2.891   -7.5  0.0587   14.8  0.2470  155.0
10.000  0.7945   95.4   2.789   -9.6  0.0591   14.1  0.2703  150.0
!
!  f       NFmin   Gammaopt  rn/50
! GHz       dB    MAG  ANG    -
!
! noise parameter not available yet for this operation point!
!
! (c) 2016  Infineon Technologies AG, Munich
