! Infineon Technologies  Discrete & RF Semiconductors
! BFP740F
! VCE =  3.0 V,  IC =  18 mA
! Common Emitter S-Parameters:                            Oct 2012
# GHz  S  MA  R  50
!  f         S11            S21            S12            S22
! GHz     MAG   ANG      MAG   ANG      MAG   ANG      MAG   ANG
 0.030  0.8059   -3.5  41.825  176.1  0.0015   96.4  0.9893   -1.8
 0.040  0.8065   -4.8  41.758  175.2  0.0021   83.5  0.9916   -2.7
 0.050  0.8051   -5.9  41.882  174.4  0.0027  101.2  0.9917   -3.5
 0.060  0.8040   -7.3  41.668  173.5  0.0028   88.5  0.9906   -4.3
 0.070  0.8030   -8.4  41.512  172.6  0.0024   92.8  0.9895   -5.1
 0.080  0.8029   -9.7  41.365  171.7  0.0037   90.7  0.9894   -5.9
 0.090  0.8023  -10.8  41.131  170.8  0.0042   86.2  0.9883   -6.7
 0.100  0.8007  -12.1  40.992  169.9  0.0049   85.9  0.9859   -7.6
 0.110  0.8003  -13.2  40.701  169.0  0.0050   82.1  0.9840   -8.3
 0.120  0.7984  -14.5  40.526  168.2  0.0056   82.5  0.9816   -9.1
 0.130  0.7975  -15.6  40.241  167.4  0.0063   82.2  0.9786   -9.8
 0.140  0.7957  -16.8  40.048  166.7  0.0066   83.1  0.9756  -10.6
 0.150  0.7945  -18.0  39.866  165.8  0.0069   81.5  0.9735  -11.2
 0.200  0.7883  -23.6  38.773  162.2  0.0092   77.7  0.9599  -14.8
 0.250  0.7820  -29.1  37.781  158.9  0.0112   75.5  0.9450  -18.1
 0.300  0.7752  -34.5  36.810  155.8  0.0135   72.4  0.9286  -21.4
 0.350  0.7692  -39.8  35.853  152.9  0.0157   70.0  0.9119  -24.6
 0.400  0.7637  -45.1  35.063  150.1  0.0175   67.0  0.8933  -27.7
 0.450  0.7582  -50.0  34.215  147.3  0.0193   65.9  0.8766  -30.6
 0.500  0.7524  -54.9  33.358  144.8  0.0210   62.9  0.8556  -33.6
 0.600  0.7404  -64.5  31.803  139.5  0.0243   58.4  0.8159  -39.1
 0.700  0.7298  -73.2  30.191  134.8  0.0269   54.4  0.7750  -44.3
 0.800  0.7192  -81.6  28.666  130.3  0.0292   50.7  0.7340  -49.2
 0.900  0.7092  -89.2  27.188  126.0  0.0312   47.5  0.6937  -53.8
 1.000  0.7004  -96.3  25.728  122.1  0.0330   44.5  0.6556  -58.1
 1.100  0.6915 -102.9  24.385  118.5  0.0343   42.0  0.6191  -62.1
 1.200  0.6847 -108.8  23.089  115.1  0.0354   39.5  0.5864  -65.9
 1.300  0.6778 -114.4  21.910  112.0  0.0365   37.4  0.5553  -69.4
 1.400  0.6730 -119.4  20.794  109.1  0.0374   35.5  0.5284  -72.7
 1.500  0.6678 -124.2  19.783  106.4  0.0382   33.9  0.5029  -75.8
 1.600  0.6648 -128.5  18.846  103.9  0.0387   32.3  0.4810  -78.9
 1.700  0.6616 -132.5  17.964  101.5  0.0394   31.3  0.4599  -81.7
 1.800  0.6609 -136.2  17.168   99.3  0.0399   29.8  0.4422  -84.8
 1.900  0.6589 -139.6  16.417   97.2  0.0403   28.8  0.4258  -87.4
 2.000  0.6580 -142.9  15.732   95.1  0.0407   27.7  0.4116  -90.3
 2.100  0.6581 -146.1  15.055   93.0  0.0411   26.8  0.3998  -93.2
 2.200  0.6566 -148.8  14.443   91.2  0.0412   26.1  0.3880  -95.6
 2.300  0.6555 -151.5  13.881   89.5  0.0415   25.3  0.3782  -97.9
 2.400  0.6543 -153.8  13.343   87.8  0.0418   24.6  0.3699 -100.0
 2.500  0.6536 -156.2  12.859   86.2  0.0420   24.0  0.3616 -102.2
 2.600  0.6528 -158.3  12.399   84.7  0.0423   23.6  0.3548 -104.1
 2.700  0.6523 -160.5  11.977   83.1  0.0425   23.2  0.3484 -106.0
 2.800  0.6519 -162.4  11.573   81.7  0.0427   22.7  0.3436 -107.8
 2.900  0.6516 -164.4  11.196   80.2  0.0428   22.4  0.3384 -109.5
 3.000  0.6511 -166.1  10.846   78.8  0.0431   21.9  0.3342 -111.3
 3.100  0.6507 -167.9  10.511   77.5  0.0433   21.8  0.3307 -112.9
 3.200  0.6505 -169.6  10.202   76.1  0.0433   21.5  0.3274 -114.3
 3.300  0.6505 -171.2   9.904   74.8  0.0436   21.3  0.3242 -115.6
 3.400  0.6505 -172.9   9.626   73.5  0.0438   20.9  0.3218 -116.9
 3.500  0.6506 -174.3   9.357   72.3  0.0439   20.8  0.3186 -118.1
 3.600  0.6503 -175.8   9.109   71.0  0.0442   20.6  0.3164 -119.2
 3.700  0.6507 -177.3   8.875   69.8  0.0444   20.5  0.3128 -120.3
 3.800  0.6511 -178.7   8.644   68.6  0.0443   20.4  0.3102 -121.5
 3.900  0.6516 -180.0   8.433   67.4  0.0446   20.2  0.3074 -122.6
 4.000  0.6515  178.5   8.220   66.1  0.0450   20.0  0.3048 -123.7
 4.100  0.6525  177.2   8.030   65.0  0.0450   20.0  0.3019 -124.8
 4.200  0.6528  175.8   7.838   63.8  0.0453   19.9  0.2994 -125.9
 4.300  0.6539  174.4   7.661   62.6  0.0453   19.7  0.2965 -127.0
 4.400  0.6544  173.1   7.484   61.5  0.0456   19.7  0.2944 -128.1
 4.500  0.6554  171.8   7.323   60.4  0.0458   19.6  0.2918 -129.1
 4.600  0.6569  170.5   7.165   59.2  0.0461   19.4  0.2890 -130.2
 4.700  0.6575  169.3   7.009   58.1  0.0462   19.4  0.2865 -131.4
 4.800  0.6594  168.0   6.865   57.0  0.0464   19.2  0.2845 -132.4
 4.900  0.6600  166.8   6.720   55.9  0.0466   19.2  0.2818 -133.6
 5.000  0.6614  165.6   6.587   54.8  0.0468   19.2  0.2793 -134.7
 5.100  0.6630  164.5   6.456   53.7  0.0470   19.1  0.2770 -136.0
 5.200  0.6636  163.4   6.335   52.6  0.0472   19.1  0.2751 -137.0
 5.300  0.6647  162.3   6.214   51.5  0.0474   19.0  0.2726 -138.3
 5.400  0.6659  161.2   6.098   50.5  0.0477   18.9  0.2709 -139.4
 5.500  0.6669  160.1   5.986   49.4  0.0478   18.9  0.2692 -140.5
 5.600  0.6671  159.0   5.874   48.3  0.0480   18.8  0.2669 -141.4
 5.700  0.6681  157.9   5.772   47.2  0.0481   18.7  0.2642 -142.9
 5.800  0.6688  156.8   5.672   46.1  0.0484   18.6  0.2630 -144.0
 5.900  0.6695  155.7   5.574   45.0  0.0486   18.6  0.2604 -145.1
 6.000  0.6704  154.5   5.478   43.9  0.0487   18.7  0.2578 -146.3
 6.100  0.6706  153.4   5.381   42.8  0.0488   18.7  0.2556 -147.7
 6.200  0.6710  152.2   5.296   41.6  0.0489   18.5  0.2534 -148.8
 6.300  0.6703  151.1   5.198   40.7  0.0491   18.6  0.2504 -150.1
 6.400  0.6700  149.9   5.114   39.5  0.0493   18.6  0.2484 -151.2
 6.500  0.6699  148.6   5.024   38.5  0.0493   18.8  0.2451 -152.5
 6.600  0.6695  147.4   4.940   37.4  0.0496   19.0  0.2423 -153.6
 6.700  0.6687  146.2   4.850   36.3  0.0497   19.1  0.2389 -154.9
 6.800  0.6689  144.9   4.773   35.2  0.0499   19.3  0.2356 -156.0
 6.900  0.6681  143.7   4.690   34.2  0.0501   19.5  0.2319 -157.3
 7.000  0.6682  142.5   4.612   33.1  0.0505   19.8  0.2282 -158.6
 7.100  0.6679  141.4   4.535   32.1  0.0510   20.2  0.2243 -160.2
 7.200  0.6687  140.2   4.463   31.1  0.0515   20.3  0.2221 -161.7
 7.300  0.6696  139.0   4.387   30.1  0.0520   20.5  0.2192 -163.4
 7.400  0.6713  137.9   4.321   29.0  0.0526   20.6  0.2169 -165.2
 7.500  0.6733  136.9   4.256   28.1  0.0533   20.7  0.2154 -167.2
 7.600  0.6758  135.7   4.188   27.0  0.0540   20.5  0.2138 -169.3
 7.700  0.6785  134.8   4.122   26.1  0.0546   20.5  0.2120 -171.8
 7.800  0.6826  133.5   4.062   24.9  0.0552   20.1  0.2119 -174.4
 7.900  0.6858  132.7   3.997   24.0  0.0558   20.0  0.2113 -177.2
 8.000  0.6911  131.5   3.937   22.9  0.0564   19.6  0.2119  179.9
 8.500  0.7173  127.2   3.641   17.8  0.0586   17.8  0.2245  164.2
 9.000  0.7428  123.7   3.366   12.8  0.0600   16.0  0.2556  149.5
 9.500  0.7639  121.4   3.108    8.1  0.0610   14.6  0.3025  138.4
10.000  0.7826  118.5   2.871    3.5  0.0617   13.3  0.3575  130.8
!
!  f       NFmin   Gammaopt  rn/50
! GHz       dB    MAG  ANG    -
!
! noise parameter not available yet for this operation point!
!
! (c) 2012  Infineon Technologies AG, Munich
