! Infineon Technologies  Discrete & RF Semiconductors
! BFP760
! VCE =  4.0 V,  IC =  12 mA
! Common Emitter S-Parameters:                            Nov 2012
# GHz  S  MA  R  50
!  f         S11            S21            S12            S22
! GHz     MAG   ANG      MAG   ANG      MAG   ANG      MAG   ANG
 0.030  0.8710   -4.3  32.677  176.5  0.0020   69.8  0.9800   -3.1
 0.040  0.8712   -5.7  32.658  175.7  0.0031   72.7  0.9797   -4.0
 0.050  0.8673   -7.0  32.999  174.1  0.0039   77.9  0.9786   -4.8
 0.060  0.8682   -8.4  32.789  173.3  0.0047   81.2  0.9776   -5.8
 0.070  0.8673   -9.9  32.750  172.2  0.0057   82.7  0.9767   -6.8
 0.080  0.8651  -11.3  32.593  171.3  0.0063   76.9  0.9749   -7.8
 0.090  0.8631  -12.7  32.539  170.3  0.0074   73.6  0.9726   -8.8
 0.100  0.8622  -14.0  32.372  169.4  0.0079   73.3  0.9707   -9.8
 0.110  0.8604  -15.4  32.262  168.4  0.0087   77.4  0.9685  -10.8
 0.120  0.8592  -16.8  32.086  167.5  0.0088   75.6  0.9666  -11.7
 0.130  0.8570  -18.1  31.953  166.5  0.0102   75.7  0.9629  -12.7
 0.140  0.8555  -19.4  31.786  165.7  0.0109   74.9  0.9592  -13.6
 0.150  0.8525  -20.9  31.731  164.7  0.0119   72.8  0.9561  -14.6
 0.200  0.8421  -27.5  30.900  160.3  0.0151   71.6  0.9383  -19.1
 0.250  0.8293  -33.9  30.155  156.1  0.0188   70.4  0.9170  -23.5
 0.300  0.8154  -40.1  29.260  152.1  0.0216   66.6  0.8953  -27.6
 0.350  0.8021  -46.0  28.337  148.4  0.0247   64.2  0.8720  -31.6
 0.400  0.7891  -51.9  27.517  144.9  0.0275   61.6  0.8452  -35.4
 0.450  0.7773  -57.3  26.600  141.5  0.0301   58.9  0.8236  -39.0
 0.500  0.7660  -62.7  25.754  138.5  0.0326   56.5  0.7968  -42.5
 0.600  0.7442  -73.0  24.122  132.6  0.0369   52.1  0.7487  -49.0
 0.700  0.7259  -82.2  22.556  127.5  0.0403   48.2  0.7031  -55.1
 0.800  0.7099  -91.1  21.146  122.7  0.0436   44.7  0.6601  -60.7
 0.900  0.6974  -98.8  19.790  118.4  0.0461   41.6  0.6197  -66.0
 1.000  0.6859 -106.0  18.570  114.4  0.0482   38.6  0.5837  -70.9
 1.100  0.6765 -112.7  17.448  110.8  0.0501   36.2  0.5500  -75.6
 1.200  0.6694 -118.8  16.447  107.4  0.0516   34.0  0.5209  -79.9
 1.300  0.6631 -124.5  15.521  104.3  0.0529   32.0  0.4938  -84.1
 1.400  0.6592 -129.7  14.685  101.3  0.0540   30.2  0.4710  -88.0
 1.500  0.6557 -134.6  13.924   98.5  0.0551   28.6  0.4490  -91.9
 1.600  0.6544 -139.2  13.256   95.9  0.0559   27.2  0.4312  -95.6
 1.700  0.6531 -143.5  12.615   93.4  0.0566   25.9  0.4127  -99.2
 1.800  0.6540 -147.5  12.034   91.0  0.0574   24.7  0.3987 -103.0
 1.900  0.6537 -151.3  11.498   88.7  0.0579   23.5  0.3839 -106.6
 2.000  0.6550 -154.9  11.012   86.4  0.0584   22.3  0.3723 -110.2
 2.100  0.6550 -158.4  10.518   84.1  0.0588   21.4  0.3610 -113.6
 2.200  0.6554 -161.6  10.081   82.0  0.0590   20.4  0.3507 -116.9
 2.300  0.6560 -164.6   9.683   80.1  0.0595   19.6  0.3411 -120.2
 2.400  0.6574 -167.6   9.310   78.1  0.0597   18.8  0.3329 -123.5
 2.500  0.6584 -170.4   8.959   76.1  0.0602   18.0  0.3250 -126.6
 2.600  0.6596 -173.2   8.629   74.2  0.0603   17.4  0.3176 -130.0
 2.700  0.6608 -175.8   8.319   72.4  0.0605   16.7  0.3114 -133.2
 2.800  0.6628 -178.4   8.032   70.6  0.0607   16.1  0.3063 -136.5
 2.900  0.6647  179.1   7.750   68.8  0.0609   15.7  0.3021 -139.7
 3.000  0.6668  176.7   7.498   66.9  0.0610   15.2  0.2988 -143.1
 3.100  0.6690  174.5   7.248   65.3  0.0612   14.7  0.2965 -146.3
 3.200  0.6713  172.3   7.014   63.6  0.0612   14.2  0.2944 -149.2
 3.300  0.6737  170.1   6.789   61.9  0.0614   13.8  0.2932 -152.3
 3.400  0.6763  168.0   6.573   60.3  0.0614   13.5  0.2928 -155.2
 3.500  0.6793  166.0   6.373   58.7  0.0616   13.0  0.2927 -158.1
 3.600  0.6819  164.0   6.179   57.1  0.0616   12.7  0.2933 -160.9
 3.700  0.6848  162.1   5.994   55.5  0.0616   12.2  0.2942 -163.7
 3.800  0.6872  160.2   5.809   54.0  0.0616   12.1  0.2961 -166.4
 3.900  0.6901  158.5   5.642   52.5  0.0616   11.7  0.2981 -168.8
 4.000  0.6928  156.8   5.476   51.1  0.0616   11.5  0.3007 -171.2
 4.100  0.6962  155.1   5.326   49.6  0.0617   11.3  0.3037 -173.3
 4.200  0.6988  153.7   5.173   48.2  0.0617   11.2  0.3063 -175.5
 4.300  0.7013  152.1   5.029   46.8  0.0617   11.0  0.3095 -177.4
 4.400  0.7044  150.8   4.892   45.5  0.0616   10.9  0.3127 -179.2
 4.500  0.7071  149.4   4.764   44.1  0.0617   10.7  0.3161  179.1
 4.600  0.7102  148.1   4.640   42.8  0.0618   10.7  0.3188  177.5
 4.700  0.7126  147.0   4.522   41.6  0.0619   10.6  0.3221  175.8
 4.800  0.7152  145.8   4.406   40.3  0.0619   10.5  0.3249  174.4
 4.900  0.7179  144.7   4.300   39.0  0.0619   10.6  0.3283  172.9
 5.000  0.7205  143.7   4.195   37.8  0.0620   10.5  0.3310  171.6
 5.100  0.7228  142.7   4.098   36.6  0.0622   10.5  0.3342  170.2
 5.200  0.7250  141.7   4.005   35.4  0.0623   10.4  0.3367  168.9
 5.300  0.7269  140.7   3.913   34.2  0.0623   10.4  0.3394  167.6
 5.400  0.7287  139.8   3.826   32.9  0.0625   10.4  0.3423  166.3
 5.500  0.7297  138.9   3.740   31.8  0.0626   10.5  0.3444  165.2
 5.600  0.7308  138.1   3.659   30.7  0.0628   10.6  0.3464  163.9
 5.700  0.7322  137.3   3.586   29.5  0.0630   10.6  0.3498  162.6
 5.800  0.7334  136.4   3.510   28.4  0.0632   10.7  0.3520  161.4
 5.900  0.7349  135.7   3.441   27.2  0.0635   10.8  0.3549  160.2
 6.000  0.7367  134.8   3.374   26.1  0.0638   10.8  0.3581  159.0
 6.100  0.7386  134.2   3.310   24.9  0.0643   10.8  0.3619  157.9
 6.200  0.7399  133.2   3.248   23.7  0.0646   10.8  0.3646  156.9
 6.300  0.7424  132.5   3.187   22.6  0.0651   10.8  0.3685  155.8
 6.400  0.7440  131.5   3.128   21.4  0.0653   10.7  0.3721  154.6
 6.500  0.7462  130.6   3.071   20.2  0.0659   10.5  0.3759  153.6
 6.600  0.7489  129.7   3.018   19.0  0.0662   10.4  0.3794  152.4
 6.700  0.7506  128.8   2.962   17.9  0.0666   10.4  0.3831  151.4
 6.800  0.7515  127.8   2.909   16.7  0.0670   10.2  0.3866  150.3
 6.900  0.7546  126.8   2.858   15.5  0.0675   10.0  0.3913  149.2
 7.000  0.7565  125.8   2.812   14.3  0.0678    9.9  0.3950  148.3
 7.100  0.7591  124.8   2.764   13.1  0.0684    9.7  0.4006  147.2
 7.200  0.7616  123.7   2.718   11.9  0.0687    9.5  0.4048  146.3
 7.300  0.7637  122.8   2.671   10.7  0.0692    9.2  0.4093  145.2
 7.400  0.7667  121.6   2.627    9.3  0.0696    8.9  0.4139  144.1
 7.500  0.7705  120.6   2.584    8.1  0.0700    8.6  0.4189  143.1
 7.600  0.7736  119.5   2.540    6.8  0.0704    8.2  0.4239  141.8
 7.700  0.7767  118.5   2.497    5.6  0.0708    8.0  0.4288  140.8
 7.800  0.7807  117.3   2.452    4.2  0.0710    7.5  0.4348  139.4
 7.900  0.7842  116.3   2.411    2.9  0.0713    7.1  0.4403  138.3
 8.000  0.7887  115.1   2.364    1.6  0.0716    6.7  0.4467  136.9
 8.500  0.8100  109.8   2.138   -5.1  0.0721    4.5  0.4792  130.4
 9.000  0.8293  105.1   1.907  -11.0  0.0714    2.9  0.5194  124.3
 9.500  0.8469  101.5   1.693  -15.7  0.0704    2.2  0.5596  119.7
10.000  0.8614   99.4   1.515  -19.0  0.0702    2.5  0.5974  117.6
!
!  f       NFmin   Gammaopt  rn/50
! GHz       dB    MAG  ANG    -
!
! noise parameter not available yet for this operation point!
!
! (c) 2012  Infineon Technologies AG, Munich
