! Infineon Technologies  Discrete & RF Semiconductors
! BFP780
! VCE =  1.0 V,  IC =  75 mA
! Common Emitter S-Parameters:                            Jul 2015
# GHz  S  MA  R  50
!  f         S11            S21            S12            S22
! GHz     MAG   ANG      MAG   ANG      MAG   ANG      MAG   ANG
 0.030  0.5052  -80.8  68.117  153.0  0.0098   68.0  0.9402  -37.9
 0.040  0.5578  -90.6  67.189  146.9  0.0122   61.9  0.9107  -49.3
 0.050  0.5981  -98.4  65.455  141.5  0.0133   56.8  0.8833  -59.4
 0.060  0.6425 -105.6  62.643  136.8  0.0158   50.3  0.8551  -68.7
 0.070  0.6698 -112.3  59.046  132.5  0.0170   47.5  0.8337  -76.8
 0.080  0.6979 -118.1  55.312  128.5  0.0176   49.2  0.8167  -84.2
 0.090  0.7158 -123.9  51.670  125.2  0.0187   38.8  0.7946  -91.0
 0.100  0.7320 -128.5  48.547  122.4  0.0203   38.9  0.7792  -97.1
 0.110  0.7457 -132.3  45.777  119.8  0.0208   37.2  0.7645 -102.9
 0.120  0.7557 -135.7  43.331  117.6  0.0213   36.1  0.7521 -107.8
 0.130  0.7644 -138.5  41.152  115.8  0.0222   33.4  0.7390 -112.1
 0.140  0.7712 -141.2  39.038  113.9  0.0220   32.4  0.7281 -116.3
 0.150  0.7776 -143.6  37.155  112.3  0.0220   29.1  0.7206 -119.8
 0.200  0.8017 -152.9  29.412  105.7  0.0242   25.6  0.6933 -133.7
 0.250  0.8121 -159.4  24.236  100.9  0.0250   22.4  0.6801 -143.3
 0.300  0.8184 -164.2  20.452   97.3  0.0256   21.2  0.6689 -150.3
 0.350  0.8229 -167.9  17.669   94.5  0.0256   20.4  0.6631 -155.7
 0.400  0.8262 -170.8  15.555   92.1  0.0258   20.1  0.6603 -159.9
 0.450  0.8277 -173.2  13.867   90.0  0.0263   19.7  0.6573 -163.3
 0.500  0.8283 -175.5  12.507   88.1  0.0267   19.2  0.6540 -166.4
 0.600  0.8317 -179.1  10.446   84.8  0.0273   19.7  0.6525 -171.2
 0.700  0.8303  177.8   8.949   81.8  0.0280   19.9  0.6500 -175.1
 0.800  0.8334  175.2   7.834   79.2  0.0288   20.5  0.6510 -178.3
 0.900  0.8330  172.7   6.957   76.7  0.0294   21.2  0.6503  178.8
 1.000  0.8362  170.5   6.263   74.3  0.0303   21.4  0.6530  176.3
 1.100  0.8347  168.4   5.679   71.9  0.0309   21.9  0.6533  173.9
 1.200  0.8385  166.4   5.209   69.7  0.0320   22.3  0.6566  171.9
 1.300  0.8373  164.5   4.799   67.5  0.0328   22.9  0.6574  169.9
 1.400  0.8392  162.7   4.450   65.3  0.0336   23.0  0.6611  168.1
 1.500  0.8385  160.9   4.147   63.2  0.0345   22.9  0.6628  166.2
 1.600  0.8414  159.2   3.884   61.0  0.0354   23.2  0.6666  164.5
 1.700  0.8404  157.4   3.649   58.9  0.0364   23.5  0.6693  162.7
 1.800  0.8404  155.7   3.431   56.7  0.0373   23.5  0.6727  161.1
 1.900  0.8407  154.2   3.241   54.8  0.0380   23.1  0.6759  159.5
 2.000  0.8438  152.5   3.079   52.7  0.0389   22.8  0.6792  158.0
 2.100  0.8430  151.0   2.917   50.7  0.0396   22.9  0.6739  156.7
 2.200  0.8425  149.4   2.772   48.6  0.0405   22.6  0.6754  155.2
 2.300  0.8430  148.0   2.645   46.7  0.0411   21.9  0.6770  153.6
 2.400  0.8447  146.3   2.529   44.6  0.0419   21.7  0.6785  152.1
 2.500  0.8453  144.8   2.420   42.5  0.0428   21.6  0.6811  150.5
 2.600  0.8447  143.1   2.313   40.5  0.0435   21.1  0.6826  148.9
 2.700  0.8441  141.6   2.215   38.6  0.0443   20.8  0.6844  147.4
 2.800  0.8457  140.0   2.127   36.6  0.0452   20.3  0.6868  145.9
 2.900  0.8456  138.5   2.042   34.6  0.0457   20.2  0.6900  144.4
 3.000  0.8464  137.0   1.961   32.6  0.0465   19.5  0.6924  142.9
 3.100  0.8466  135.6   1.885   30.8  0.0473   19.0  0.6951  141.5
 3.200  0.8469  134.2   1.814   29.0  0.0479   18.7  0.6973  140.1
 3.300  0.8465  132.7   1.747   27.1  0.0486   18.1  0.7008  138.9
 3.400  0.8476  131.3   1.685   25.3  0.0491   17.6  0.7035  137.6
 3.500  0.8480  130.0   1.628   23.7  0.0499   17.2  0.7064  136.3
 3.600  0.8478  128.5   1.569   21.8  0.0505   16.8  0.7090  135.0
 3.700  0.8488  127.2   1.518   20.1  0.0509   16.3  0.7113  133.8
 3.800  0.8488  125.8   1.465   18.4  0.0517   15.8  0.7145  132.5
 3.900  0.8499  124.6   1.420   16.8  0.0522   15.2  0.7172  131.4
 4.000  0.8508  123.2   1.375   15.1  0.0531   14.7  0.7202  130.2
 4.100  0.8519  122.0   1.334   13.4  0.0535   14.3  0.7228  129.3
 4.200  0.8534  120.8   1.293   11.8  0.0541   13.8  0.7260  128.1
 4.300  0.8540  119.5   1.255   10.1  0.0547   13.1  0.7291  127.2
 4.400  0.8558  118.4   1.219    8.6  0.0555   12.8  0.7321  126.1
 4.500  0.8566  117.2   1.186    7.0  0.0561   12.1  0.7345  125.1
 4.600  0.8585  116.1   1.152    5.5  0.0567   11.8  0.7372  124.1
 4.700  0.8588  115.0   1.120    3.8  0.0573   11.1  0.7391  123.0
 4.800  0.8602  114.0   1.090    2.3  0.0576   10.7  0.7418  122.1
 4.900  0.8608  113.1   1.061    0.9  0.0582   10.2  0.7432  121.1
 5.000  0.8616  112.0   1.034   -0.8  0.0587    9.7  0.7456  120.1
 5.100  0.8629  111.1   1.008   -2.3  0.0595    8.9  0.7471  119.0
 5.200  0.8625  110.1   0.982   -3.8  0.0600    8.6  0.7492  118.0
 5.300  0.8629  109.2   0.957   -5.3  0.0605    7.9  0.7502  117.0
 5.400  0.8632  108.3   0.935   -6.8  0.0609    7.5  0.7520  116.1
 5.500  0.8624  107.5   0.912   -8.1  0.0615    6.9  0.7523  115.1
 5.600  0.8623  106.8   0.891   -9.5  0.0624    6.3  0.7543  114.0
 5.700  0.8608  105.9   0.871  -10.9  0.0628    5.8  0.7552  113.1
 5.800  0.8612  105.1   0.852  -12.4  0.0636    5.3  0.7568  112.0
 5.900  0.8594  104.3   0.834  -13.7  0.0643    4.7  0.7585  111.1
 6.000  0.8597  103.3   0.816  -15.2  0.0650    4.0  0.7602  109.9
!
!  f       NFmin   Gammaopt  rn/50
! GHz       dB    MAG  ANG    -
!
! noise parameter not available yet for this operation point!
!
! (c) 2015  Infineon Technologies AG, Munich
