! Infineon Technologies  Discrete & RF Semiconductors
! BFP720F
! VCE =  1.5 V,  IC =  9.0 mA
! Common Emitter S-Parameters:                            Jan 2016
# GHz  S  MA  R  50
!  f         S11            S21            S12            S22
! GHz     MAG   ANG      MAG   ANG      MAG   ANG      MAG   ANG
 0.010  0.8824    0.1  22.880  179.6  0.0003  -22.0  0.9781    0.6
 0.015  0.8858   -0.5  22.775  178.6  0.0004   71.0  0.9874   -0.4
 0.020  0.8893   -1.1  22.677  177.5  0.0008   93.0  0.9969   -1.3
 0.025  0.8885   -1.4  22.716  177.4  0.0010   90.7  0.9966   -1.4
 0.030  0.8877   -1.8  22.755  177.4  0.0012   89.1  0.9963   -1.5
 0.035  0.8870   -2.1  22.794  177.3  0.0013   88.0  0.9960   -1.6
 0.040  0.8863   -2.5  22.833  177.3  0.0015   87.1  0.9957   -1.7
 0.045  0.8856   -2.8  22.872  177.2  0.0017   86.5  0.9954   -1.8
 0.050  0.8850   -3.2  22.911  177.2  0.0019   85.9  0.9951   -1.9
 0.055  0.8849   -3.5  22.901  177.0  0.0021   85.8  0.9951   -2.1
 0.060  0.8848   -3.8  22.892  176.7  0.0023   85.8  0.9951   -2.3
 0.065  0.8848   -4.1  22.883  176.5  0.0025   85.8  0.9951   -2.5
 0.070  0.8848   -4.4  22.875  176.2  0.0027   85.7  0.9951   -2.7
 0.075  0.8848   -4.7  22.867  176.0  0.0029   85.7  0.9951   -2.9
 0.080  0.8848   -4.9  22.859  175.7  0.0031   85.7  0.9951   -3.1
 0.085  0.8848   -5.2  22.852  175.5  0.0033   85.7  0.9952   -3.3
 0.090  0.8849   -5.5  22.845  175.2  0.0035   85.6  0.9952   -3.5
 0.095  0.8850   -5.8  22.839  175.0  0.0037   85.6  0.9953   -3.7
 0.100  0.8851   -6.1  22.833  174.7  0.0039   85.6  0.9954   -3.9
 0.105  0.8847   -6.4  22.813  174.5  0.0041   85.5  0.9951   -4.1
 0.110  0.8842   -6.7  22.793  174.2  0.0043   85.4  0.9948   -4.3
 0.115  0.8838   -7.0  22.773  174.0  0.0045   85.4  0.9945   -4.5
 0.120  0.8834   -7.3  22.754  173.7  0.0047   85.3  0.9943   -4.7
 0.125  0.8831   -7.6  22.735  173.5  0.0049   85.2  0.9940   -4.9
 0.130  0.8828   -7.9  22.717  173.3  0.0051   85.2  0.9938   -5.2
 0.135  0.8825   -8.2  22.699  173.0  0.0053   85.1  0.9936   -5.4
 0.140  0.8822   -8.5  22.681  172.8  0.0055   85.1  0.9934   -5.6
 0.145  0.8819   -8.8  22.664  172.5  0.0057   85.0  0.9932   -5.8
 0.150  0.8817   -9.1  22.647  172.3  0.0059   85.0  0.9930   -6.0
 0.155  0.8813   -9.4  22.622  172.1  0.0061   84.8  0.9925   -6.2
 0.160  0.8809   -9.7  22.597  171.8  0.0063   84.5  0.9919   -6.4
 0.165  0.8806  -10.0  22.572  171.6  0.0065   84.3  0.9914   -6.6
 0.170  0.8803  -10.3  22.547  171.4  0.0067   84.1  0.9909   -6.8
 0.175  0.8800  -10.6  22.523  171.2  0.0068   83.9  0.9904   -7.0
 0.180  0.8797  -10.9  22.500  170.9  0.0070   83.7  0.9899   -7.2
 0.185  0.8795  -11.2  22.477  170.7  0.0072   83.6  0.9894   -7.4
 0.190  0.8793  -11.5  22.454  170.5  0.0074   83.4  0.9890   -7.6
 0.195  0.8791  -11.8  22.431  170.2  0.0076   83.2  0.9885   -7.8
 0.200  0.8789  -12.1  22.409  170.0  0.0078   83.1  0.9881   -8.0
 0.220  0.8772  -13.3  22.352  169.1  0.0086   82.3  0.9867   -8.8
 0.240  0.8759  -14.5  22.300  168.2  0.0093   81.6  0.9855   -9.5
 0.260  0.8744  -15.7  22.230  167.4  0.0101   80.9  0.9832  -10.3
 0.280  0.8728  -16.9  22.143  166.6  0.0109   80.3  0.9799  -11.2
 0.300  0.8715  -18.1  22.059  165.8  0.0117   79.7  0.9768  -12.0
 0.320  0.8693  -19.3  21.978  165.0  0.0125   78.9  0.9750  -12.8
 0.340  0.8675  -20.5  21.901  164.1  0.0132   78.2  0.9734  -13.5
 0.360  0.8656  -21.7  21.836  163.3  0.0140   77.5  0.9710  -14.3
 0.380  0.8635  -22.9  21.782  162.5  0.0147   76.8  0.9680  -15.2
 0.400  0.8618  -24.1  21.732  161.7  0.0154   76.2  0.9652  -16.0
 0.420  0.8592  -25.3  21.639  160.9  0.0162   75.5  0.9625  -16.7
 0.440  0.8570  -26.4  21.550  160.1  0.0169   74.8  0.9599  -17.4
 0.450  0.8560  -27.0  21.507  159.7  0.0173   74.5  0.9587  -17.8
 0.460  0.8549  -27.6  21.470  159.3  0.0176   74.2  0.9570  -18.2
 0.480  0.8529  -28.7  21.397  158.6  0.0183   73.5  0.9537  -18.9
 0.500  0.8513  -29.9  21.328  157.9  0.0190   72.9  0.9506  -19.7
 0.520  0.8482  -31.1  21.257  157.1  0.0197   72.1  0.9467  -20.5
 0.540  0.8454  -32.3  21.190  156.3  0.0204   71.4  0.9430  -21.2
 0.560  0.8430  -33.5  21.127  155.5  0.0212   70.7  0.9394  -22.0
 0.580  0.8410  -34.7  21.068  154.7  0.0219   70.1  0.9360  -22.8
 0.600  0.8393  -35.9  21.013  153.9  0.0226   69.5  0.9328  -23.6
 0.620  0.8359  -37.0  20.919  153.2  0.0233   68.7  0.9289  -24.3
 0.640  0.8329  -38.2  20.829  152.4  0.0239   68.0  0.9252  -25.0
 0.660  0.8302  -39.4  20.743  151.6  0.0246   67.4  0.9216  -25.7
 0.680  0.8279  -40.5  20.660  150.9  0.0252   66.7  0.9181  -26.5
 0.700  0.8259  -41.7  20.581  150.1  0.0259   66.1  0.9148  -27.2
 0.720  0.8222  -42.9  20.520  149.3  0.0265   65.4  0.9103  -27.9
 0.740  0.8189  -44.1  20.462  148.6  0.0271   64.7  0.9059  -28.6
 0.760  0.8160  -45.3  20.408  147.8  0.0277   64.1  0.9016  -29.3
 0.780  0.8134  -46.5  20.358  147.0  0.0284   63.5  0.8975  -30.1
 0.800  0.8112  -47.7  20.312  146.2  0.0290   62.9  0.8935  -30.8
 0.820  0.8076  -48.8  20.210  145.5  0.0296   62.2  0.8886  -31.5
 0.840  0.8044  -50.0  20.111  144.7  0.0301   61.6  0.8838  -32.2
 0.860  0.8014  -51.1  20.015  144.0  0.0307   61.0  0.8792  -32.9
 0.880  0.7988  -52.2  19.923  143.3  0.0313   60.4  0.8747  -33.6
 0.900  0.7965  -53.4  19.834  142.5  0.0319   59.8  0.8703  -34.3
 0.920  0.7930  -54.5  19.735  141.8  0.0325   59.1  0.8652  -35.0
 0.940  0.7898  -55.6  19.640  141.1  0.0330   58.5  0.8602  -35.7
 0.960  0.7870  -56.7  19.547  140.4  0.0336   57.9  0.8553  -36.4
 0.980  0.7844  -57.9  19.457  139.6  0.0341   57.3  0.8506  -37.1
 1.000  0.7821  -59.0  19.371  138.9  0.0347   56.7  0.8460  -37.8
 1.020  0.7786  -60.1  19.264  138.2  0.0352   56.1  0.8409  -38.5
 1.040  0.7754  -61.1  19.161  137.6  0.0356   55.5  0.8358  -39.1
 1.060  0.7725  -62.2  19.059  136.9  0.0361   54.9  0.8309  -39.8
 1.080  0.7698  -63.3  18.961  136.2  0.0366   54.3  0.8262  -40.5
 1.100  0.7674  -64.4  18.865  135.5  0.0371   53.8  0.8215  -41.2
 1.120  0.7639  -65.5  18.768  134.8  0.0376   53.2  0.8163  -41.8
 1.140  0.7607  -66.5  18.673  134.1  0.0380   52.6  0.8112  -42.5
 1.160  0.7577  -67.6  18.582  133.4  0.0385   52.1  0.8061  -43.1
 1.180  0.7550  -68.7  18.493  132.7  0.0389   51.5  0.8012  -43.7
 1.200  0.7526  -69.8  18.407  132.0  0.0394   51.0  0.7964  -44.4
 1.220  0.7490  -70.8  18.304  131.3  0.0398   50.4  0.7911  -45.0
 1.240  0.7457  -71.9  18.203  130.7  0.0402   49.9  0.7859  -45.7
 1.260  0.7426  -73.0  18.105  130.0  0.0406   49.3  0.7808  -46.3
 1.280  0.7398  -74.0  18.010  129.3  0.0411   48.8  0.7758  -46.9
 1.300  0.7372  -75.1  17.917  128.6  0.0415   48.3  0.7709  -47.6
 1.320  0.7341  -76.1  17.813  128.0  0.0419   47.8  0.7658  -48.2
 1.340  0.7312  -77.1  17.712  127.3  0.0423   47.3  0.7609  -48.8
 1.360  0.7285  -78.1  17.613  126.7  0.0426   46.8  0.7559  -49.4
 1.380  0.7261  -79.2  17.516  126.1  0.0430   46.3  0.7511  -50.0
 1.400  0.7239  -80.2  17.421  125.4  0.0434   45.8  0.7464  -50.6
 1.420  0.7206  -81.2  17.320  124.8  0.0437   45.3  0.7412  -51.2
 1.440  0.7176  -82.3  17.221  124.1  0.0440   44.8  0.7360  -51.7
 1.460  0.7148  -83.3  17.125  123.5  0.0443   44.3  0.7309  -52.3
 1.480  0.7122  -84.3  17.030  122.9  0.0447   43.8  0.7258  -52.9
 1.500  0.7099  -85.4  16.938  122.2  0.0450   43.3  0.7209  -53.5
 1.520  0.7069  -86.4  16.847  121.6  0.0453   42.8  0.7161  -54.0
 1.540  0.7041  -87.4  16.757  121.0  0.0456   42.4  0.7114  -54.6
 1.560  0.7015  -88.4  16.669  120.4  0.0459   42.0  0.7067  -55.1
 1.580  0.6991  -89.4  16.584  119.7  0.0462   41.5  0.7021  -55.6
 1.600  0.6969  -90.4  16.500  119.1  0.0465   41.1  0.6975  -56.2
 1.620  0.6941  -91.3  16.393  118.5  0.0468   40.6  0.6925  -56.7
 1.640  0.6915  -92.3  16.288  118.0  0.0471   40.2  0.6876  -57.3
 1.660  0.6891  -93.2  16.184  117.4  0.0473   39.8  0.6827  -57.9
 1.680  0.6869  -94.1  16.082  116.8  0.0476   39.3  0.6779  -58.4
 1.700  0.6849  -95.1  15.982  116.2  0.0479   38.9  0.6732  -59.0
 1.720  0.6826  -95.9  15.877  115.7  0.0481   38.5  0.6689  -59.5
 1.740  0.6804  -96.8  15.774  115.1  0.0483   38.0  0.6646  -60.0
 1.760  0.6784  -97.7  15.672  114.5  0.0486   37.6  0.6604  -60.5
 1.780  0.6765  -98.5  15.572  114.0  0.0488   37.2  0.6562  -61.1
 1.800  0.6748  -99.4  15.473  113.4  0.0490   36.8  0.6521  -61.6
 1.820  0.6723 -100.2  15.373  112.9  0.0492   36.4  0.6476  -62.1
 1.840  0.6700 -101.1  15.273  112.3  0.0494   36.0  0.6432  -62.6
 1.860  0.6679 -102.0  15.176  111.8  0.0496   35.7  0.6388  -63.1
 1.880  0.6659 -102.8  15.079  111.3  0.0498   35.3  0.6345  -63.6
 1.900  0.6640 -103.7  14.984  110.7  0.0500   34.9  0.6302  -64.1
 1.920  0.6621 -104.5  14.890  110.2  0.0502   34.5  0.6262  -64.5
 1.940  0.6603 -105.2  14.798  109.7  0.0504   34.2  0.6223  -65.0
 1.960  0.6587 -106.0  14.706  109.2  0.0505   33.8  0.6184  -65.4
 1.980  0.6571 -106.7  14.616  108.6  0.0507   33.5  0.6145  -65.8
 2.000  0.6557 -107.5  14.527  108.1  0.0509   33.1  0.6107  -66.3
 2.020  0.6539 -108.2  14.431  107.7  0.0510   32.8  0.6069  -66.7
 2.040  0.6522 -108.9  14.336  107.2  0.0512   32.4  0.6032  -67.1
 2.060  0.6505 -109.7  14.242  106.8  0.0513   32.1  0.5995  -67.6
 2.080  0.6490 -110.4  14.149  106.3  0.0515   31.7  0.5959  -68.0
 2.100  0.6476 -111.1  14.056  105.8  0.0516   31.4  0.5923  -68.4
 2.120  0.6463 -111.8  13.965  105.4  0.0518   31.0  0.5887  -68.9
 2.140  0.6451 -112.6  13.874  104.9  0.0519   30.7  0.5851  -69.3
 2.160  0.6441 -113.3  13.785  104.4  0.0521   30.4  0.5816  -69.8
 2.180  0.6431 -114.1  13.696  103.9  0.0522   30.0  0.5781  -70.2
 2.200  0.6422 -114.8  13.609  103.4  0.0524   29.7  0.5747  -70.7
 2.220  0.6407 -115.4  13.520  103.0  0.0525   29.4  0.5715  -71.1
 2.240  0.6394 -116.1  13.432  102.5  0.0526   29.1  0.5683  -71.4
 2.260  0.6381 -116.7  13.345  102.1  0.0527   28.8  0.5651  -71.8
 2.280  0.6369 -117.4  13.259  101.7  0.0528   28.5  0.5619  -72.2
 2.300  0.6357 -118.0  13.173  101.2  0.0529   28.2  0.5588  -72.6
 2.320  0.6347 -118.7  13.088  100.8  0.0530   27.9  0.5557  -73.0
 2.340  0.6337 -119.3  13.004  100.3  0.0532   27.6  0.5526  -73.4
 2.360  0.6328 -120.0  12.921   99.8  0.0533   27.3  0.5495  -73.8
 2.380  0.6320 -120.6  12.838   99.4  0.0534   27.0  0.5465  -74.2
 2.400  0.6313 -121.3  12.757   98.9  0.0535   26.7  0.5435  -74.6
 2.420  0.6301 -121.9  12.678   98.5  0.0536   26.4  0.5407  -74.9
 2.440  0.6291 -122.5  12.599   98.1  0.0536   26.2  0.5379  -75.3
 2.460  0.6280 -123.1  12.522   97.7  0.0537   25.9  0.5351  -75.6
 2.480  0.6271 -123.6  12.444   97.3  0.0538   25.7  0.5323  -75.9
 2.500  0.6262 -124.2  12.368   96.9  0.0538   25.4  0.5295  -76.3
 2.520  0.6253 -124.8  12.292   96.4  0.0539   25.1  0.5268  -76.6
 2.540  0.6246 -125.4  12.217   96.0  0.0540   24.9  0.5241  -76.9
 2.560  0.6239 -126.0  12.142   95.6  0.0541   24.6  0.5213  -77.3
 2.580  0.6233 -126.6  12.068   95.1  0.0541   24.4  0.5187  -77.6
 2.600  0.6227 -127.2  11.995   94.7  0.0542   24.1  0.5160  -78.0
 2.620  0.6217 -127.7  11.922   94.4  0.0542   23.9  0.5136  -78.3
 2.640  0.6208 -128.1  11.849   94.0  0.0543   23.7  0.5111  -78.5
 2.660  0.6199 -128.6  11.777   93.6  0.0543   23.5  0.5087  -78.8
 2.680  0.6190 -129.1  11.705   93.3  0.0544   23.3  0.5063  -79.1
 2.700  0.6182 -129.6  11.634   92.9  0.0544   23.1  0.5039  -79.4
 2.720  0.6174 -130.1  11.563   92.5  0.0545   22.9  0.5016  -79.6
 2.740  0.6167 -130.5  11.493   92.2  0.0545   22.7  0.4992  -79.9
 2.760  0.6160 -131.0  11.423   91.8  0.0546   22.5  0.4969  -80.2
 2.780  0.6154 -131.5  11.354   91.4  0.0546   22.3  0.4945  -80.5
 2.800  0.6148 -132.0  11.285   91.0  0.0547   22.1  0.4922  -80.8
 2.820  0.6143 -132.5  11.222   90.7  0.0548   21.9  0.4903  -81.1
 2.840  0.6138 -132.9  11.159   90.3  0.0548   21.7  0.4884  -81.4
 2.860  0.6133 -133.4  11.096   90.0  0.0549   21.5  0.4866  -81.6
 2.880  0.6129 -133.8  11.034   89.6  0.0550   21.3  0.4847  -81.9
 2.900  0.6126 -134.3  10.973   89.3  0.0550   21.1  0.4829  -82.2
 2.920  0.6122 -134.8  10.911   88.9  0.0551   21.0  0.4811  -82.5
 2.940  0.6119 -135.2  10.851   88.5  0.0552   20.8  0.4793  -82.8
 2.960  0.6117 -135.7  10.790   88.2  0.0553   20.6  0.4775  -83.1
 2.980  0.6115 -136.1  10.730   87.8  0.0553   20.4  0.4757  -83.4
 3.000  0.6113 -136.6  10.671   87.4  0.0554   20.2  0.4739  -83.7
 3.100  0.6084 -138.3  10.390   86.0  0.0556   19.4  0.4659  -84.6
 3.200  0.6060 -140.0  10.115   84.5  0.0557   18.6  0.4581  -85.6
 3.300  0.6042 -141.7   9.848   82.9  0.0559   17.8  0.4503  -86.5
 3.400  0.6029 -143.5   9.589   81.3  0.0561   17.0  0.4427  -87.6
 3.500  0.6022 -145.2   9.338   79.5  0.0563   16.2  0.4353  -88.6
 3.600  0.6001 -146.5   9.121   78.2  0.0564   15.6  0.4290  -89.2
 3.700  0.5983 -147.8   8.910   76.8  0.0566   15.0  0.4228  -89.9
 3.800  0.5969 -149.1   8.703   75.4  0.0567   14.4  0.4166  -90.6
 3.900  0.5957 -150.5   8.502   73.9  0.0568   13.8  0.4105  -91.3
 4.000  0.5949 -151.8   8.308   72.3  0.0570   13.2  0.4044  -92.0
 4.100  0.5940 -152.9   8.140   71.1  0.0572   12.7  0.3995  -92.6
 4.200  0.5934 -154.0   7.975   69.8  0.0573   12.2  0.3947  -93.1
 4.300  0.5929 -155.1   7.815   68.5  0.0575   11.8  0.3899  -93.7
 4.400  0.5927 -156.2   7.659   67.1  0.0576   11.3  0.3851  -94.3
 4.500  0.5927 -157.3   7.507   65.7  0.0578   10.8  0.3804  -94.9
 4.600  0.5914 -158.3   7.371   64.5  0.0580   10.4  0.3759  -95.5
 4.700  0.5903 -159.3   7.238   63.3  0.0581    9.9  0.3715  -96.1
 4.800  0.5893 -160.3   7.109   62.0  0.0583    9.5  0.3671  -96.7
 4.900  0.5886 -161.3   6.983   60.7  0.0585    9.0  0.3627  -97.3
 5.000  0.5880 -162.3   6.861   59.3  0.0587    8.6  0.3584  -97.9
 5.100  0.5788 -166.8   6.748   58.1  0.0589    8.2  0.3542  -98.5
 5.200  0.5732 -171.3   6.639   56.9  0.0590    7.8  0.3501  -99.2
 5.300  0.5713 -176.0   6.532   55.6  0.0592    7.4  0.3460  -99.8
 5.400  0.5732  179.4   6.429   54.3  0.0593    7.0  0.3420 -100.5
 5.500  0.5788  174.8   6.330   52.9  0.0595    6.6  0.3380 -101.2
 5.600  0.5769  173.4   6.236   51.7  0.0597    6.2  0.3351 -102.0
 5.700  0.5754  171.9   6.145   50.5  0.0599    5.8  0.3322 -102.8
 5.800  0.5743  170.4   6.056   49.2  0.0601    5.4  0.3295 -103.6
 5.900  0.5735  169.0   5.971   47.9  0.0603    5.0  0.3267 -104.5
 6.000  0.5731  167.5   5.889   46.5  0.0605    4.6  0.3241 -105.3
 6.100  0.5708  165.8   5.805   45.2  0.0607    4.2  0.3203 -106.4
 6.200  0.5690  164.2   5.723   43.9  0.0609    3.8  0.3166 -107.5
 6.300  0.5676  162.5   5.645   42.6  0.0610    3.3  0.3130 -108.7
 6.400  0.5668  160.8   5.570   41.2  0.0612    2.9  0.3096 -109.9
 6.500  0.5664  159.1   5.498   39.8  0.0614    2.5  0.3063 -111.1
 6.600  0.5639  157.3   5.417   38.5  0.0615    2.1  0.3012 -112.5
 6.800  0.5607  153.7   5.265   35.8  0.0618    1.2  0.2917 -115.5
 7.000  0.5597  150.0   5.124   33.0  0.0620    0.4  0.2830 -118.6
 7.200  0.5592  145.9   4.973   30.4  0.0622   -0.5  0.2706 -122.6
 7.400  0.5616  141.9   4.833   27.6  0.0624   -1.4  0.2597 -127.0
 7.600  0.5664  137.8   4.696   24.9  0.0625   -2.3  0.2485 -132.1
 7.800  0.5737  133.7   4.561   22.1  0.0626   -3.2  0.2378 -138.1
 8.000  0.5840  129.7   4.438   19.2  0.0627   -4.1  0.2299 -144.6
 8.200  0.5958  125.5   4.287   16.5  0.0625   -5.1  0.2215 -153.7
 8.400  0.6107  121.5   4.146   13.6  0.0623   -6.1  0.2190 -163.3
 8.600  0.6254  117.9   3.999   10.9  0.0619   -6.9  0.2192 -173.7
 8.800  0.6394  114.6   3.842    8.4  0.0614   -7.6  0.2238  175.2
 9.000  0.6555  111.4   3.693    5.6  0.0609   -8.2  0.2363  164.9
 9.200  0.6701  109.2   3.554    3.6  0.0605   -8.6  0.2484  158.0
 9.400  0.6857  107.0   3.419    1.4  0.0601   -9.0  0.2636  151.9
 9.600  0.7016  105.2   3.293   -0.8  0.0597   -9.4  0.2816  146.7
 9.800  0.7175  103.7   3.173   -2.8  0.0593   -9.7  0.3016  142.4
10.000  0.7338  102.3   3.057   -5.0  0.0589  -10.1  0.3231  138.6
!
!  f       NFmin   Gammaopt  rn/50
! GHz       dB    MAG  ANG    -
 0.450      0.52  0.33    4   0.18
 0.900      0.55  0.31    9   0.15
 1.800      0.60  0.29   15   0.14
 2.400      0.63  0.26   25   0.14
 5.500      0.77  0.25   48   0.08
10.000      0.99  0.27  -94   0.17
!
! (c) 2016  Infineon Technologies AG, Munich
