! Infineon Technologies  Discrete & RF Semiconductors
! BFP720
! VCE =  1.0 V,  IC =  0.5 mA
! Common Emitter S-Parameters:                            Aug 2012
# GHz  S  MA  R  50
!  f         S11            S21            S12            S22
! GHz     MAG   ANG      MAG   ANG      MAG   ANG      MAG   ANG
 0.010  0.9885    0.1   2.092 -179.4  0.0004    8.8  0.9966    0.1
 0.020  0.9930   -0.3   1.988  179.3  0.0010   90.1  0.9998   -0.3
 0.030  0.9924   -0.5   1.980  179.1  0.0015   91.0  0.9993   -0.5
 0.040  0.9919   -0.8   1.972  178.9  0.0020   91.5  0.9989   -0.7
 0.050  0.9914   -1.0   1.964  178.7  0.0025   91.8  0.9985   -1.0
 0.060  0.9918   -1.2   1.962  178.5  0.0030   90.7  0.9987   -1.1
 0.070  0.9922   -1.4   1.960  178.4  0.0035   89.9  0.9989   -1.3
 0.080  0.9926   -1.6   1.958  178.2  0.0040   89.3  0.9991   -1.5
 0.090  0.9931   -1.8   1.957  178.1  0.0045   88.8  0.9993   -1.7
 0.100  0.9935   -2.0   1.955  178.0  0.0050   88.4  0.9995   -1.9
 0.110  0.9935   -2.2   1.957  177.8  0.0055   88.3  0.9995   -2.0
 0.120  0.9936   -2.5   1.959  177.6  0.0060   88.3  0.9995   -2.2
 0.130  0.9937   -2.7   1.961  177.4  0.0065   88.2  0.9995   -2.4
 0.140  0.9937   -2.9   1.963  177.2  0.0070   88.1  0.9996   -2.5
 0.150  0.9938   -3.1   1.966  177.0  0.0075   88.1  0.9996   -2.7
 0.200  0.9929   -4.1   1.960  176.0  0.0102   87.1  0.9989   -3.6
 0.250  0.9923   -5.2   1.966  175.0  0.0126   86.2  0.9993   -4.5
 0.300  0.9915   -6.1   1.960  174.0  0.0151   85.3  0.9980   -5.4
 0.350  0.9909   -7.2   1.965  173.1  0.0177   84.5  0.9981   -6.4
 0.400  0.9911   -8.3   1.977  172.1  0.0202   83.5  0.9973   -7.3
 0.450  0.9902   -9.3   1.963  171.0  0.0228   82.9  0.9969   -8.2
 0.500  0.9893  -10.3   1.977  170.1  0.0253   81.8  0.9964   -9.1
 0.600  0.9882  -12.5   1.983  168.0  0.0305   80.1  0.9946  -10.9
 0.700  0.9864  -14.6   1.990  166.0  0.0357   78.3  0.9933  -12.9
 0.800  0.9848  -16.8   2.003  164.0  0.0409   76.6  0.9927  -14.7
 0.900  0.9832  -19.1   2.015  161.9  0.0462   74.7  0.9904  -16.7
 1.000  0.9806  -21.3   2.027  159.8  0.0515   72.8  0.9877  -18.6
 1.100  0.9779  -23.6   2.041  157.5  0.0568   70.8  0.9853  -20.5
 1.200  0.9755  -25.9   2.052  155.3  0.0621   68.9  0.9825  -22.5
 1.300  0.9726  -28.3   2.062  152.9  0.0674   66.9  0.9790  -24.5
 1.400  0.9689  -30.7   2.065  150.6  0.0727   64.9  0.9747  -26.4
 1.500  0.9655  -33.0   2.075  148.3  0.0780   62.8  0.9706  -28.4
 1.600  0.9619  -35.4   2.092  145.9  0.0832   60.7  0.9665  -30.3
 1.700  0.9568  -37.9   2.105  143.3  0.0883   58.6  0.9613  -32.3
 1.800  0.9529  -40.3   2.105  140.9  0.0934   56.4  0.9567  -34.3
 1.900  0.9485  -42.6   2.104  138.5  0.0983   54.4  0.9526  -36.3
 2.000  0.9450  -45.0   2.101  136.1  0.1032   52.3  0.9475  -38.3
 2.100  0.9394  -47.3   2.100  133.7  0.1079   50.0  0.9417  -40.2
 2.200  0.9354  -49.7   2.102  131.2  0.1127   48.0  0.9371  -42.1
 2.300  0.9307  -52.0   2.093  128.9  0.1172   45.8  0.9322  -44.1
 2.400  0.9276  -54.3   2.089  126.6  0.1218   43.8  0.9284  -46.1
 2.500  0.9224  -56.5   2.081  124.3  0.1261   41.7  0.9226  -47.9
 2.600  0.9187  -58.8   2.077  122.0  0.1305   39.7  0.9179  -49.9
 2.700  0.9140  -61.1   2.071  119.7  0.1346   37.6  0.9123  -51.9
 2.800  0.9109  -63.4   2.067  117.4  0.1389   35.6  0.9079  -53.9
 2.900  0.9057  -65.6   2.057  115.2  0.1429   33.6  0.9028  -55.8
 3.000  0.9019  -67.9   2.050  113.0  0.1471   31.6  0.8987  -57.7
 3.100  0.8933  -70.3   2.043  110.7  0.1504   29.4  0.8900  -59.7
 3.200  0.8862  -72.7   2.039  108.4  0.1540   27.2  0.8825  -61.8
 3.300  0.8808  -75.1   2.038  106.1  0.1577   25.1  0.8761  -63.9
 3.400  0.8771  -77.6   2.040  103.8  0.1617   23.1  0.8710  -66.1
 3.500  0.8749  -80.1   2.046  101.5  0.1659   21.3  0.8670  -68.2
 3.600  0.8649  -82.8   2.036   99.1  0.1687   19.0  0.8568  -70.4
 3.700  0.8567  -85.5   2.030   96.8  0.1719   16.8  0.8479  -72.6
 3.800  0.8504  -88.2   2.026   94.5  0.1752   14.8  0.8403  -74.9
 3.900  0.8461  -91.0   2.027   92.1  0.1788   12.7  0.8340  -77.2
 4.000  0.8438  -93.8   2.030   89.8  0.1826   10.8  0.8292  -79.5
 4.100  0.8318  -96.8   2.018   87.4  0.1848    8.5  0.8160  -82.0
 4.200  0.8222  -99.9   2.010   84.9  0.1872    6.3  0.8043  -84.5
 4.300  0.8149 -103.0   2.005   82.5  0.1899    4.1  0.7942  -87.0
 4.400  0.8102 -106.2   2.004   80.0  0.1929    1.9  0.7857  -89.7
 4.500  0.8080 -109.4   2.006   77.5  0.1961   -0.1  0.7789  -92.3
 4.600  0.7952 -112.6   1.988   75.0  0.1969   -2.5  0.7648  -94.9
 4.700  0.7849 -115.8   1.974   72.4  0.1979   -4.9  0.7523  -97.6
 4.800  0.7773 -119.2   1.963   69.8  0.1994   -7.2  0.7415 -100.4
 4.900  0.7722 -122.6   1.957   67.2  0.2011   -9.5  0.7325 -103.3
 5.000  0.7699 -126.0   1.955   64.5  0.2032  -11.8  0.7254 -106.2
 5.100  0.7605 -128.7   1.925   62.1  0.2027  -14.1  0.7154 -108.5
 5.200  0.7528 -131.4   1.899   59.7  0.2026  -16.3  0.7065 -110.8
 5.300  0.7469 -134.2   1.876   57.1  0.2028  -18.6  0.6989 -113.2
 5.400  0.7429 -137.1   1.858   54.5  0.2033  -20.9  0.6925 -115.7
 5.500  0.7406 -140.0   1.843   51.9  0.2041  -23.1  0.6875 -118.2
 5.600  0.7368 -142.1   1.812   49.7  0.2024  -25.2  0.6818 -120.1
 5.700  0.7340 -144.2   1.784   47.5  0.2010  -27.3  0.6768 -121.9
 5.800  0.7322 -146.3   1.759   45.2  0.1999  -29.4  0.6726 -123.8
 5.900  0.7314 -148.4   1.737   42.8  0.1990  -31.5  0.6691 -125.8
 6.000  0.7316 -150.5   1.718   40.4  0.1984  -33.7  0.6664 -127.7
 6.100  0.7287 -152.1   1.691   38.4  0.1961  -35.5  0.6627 -129.0
 6.200  0.7263 -153.6   1.666   36.3  0.1939  -37.3  0.6594 -130.4
 6.300  0.7245 -155.2   1.643   34.2  0.1919  -39.2  0.6564 -131.7
 6.400  0.7232 -156.8   1.623   32.0  0.1902  -41.1  0.6538 -133.1
 6.500  0.7225 -158.3   1.605   29.8  0.1886  -43.0  0.6516 -134.4
 6.600  0.7179 -159.5   1.580   28.0  0.1861  -44.6  0.6460 -135.4
 6.700  0.7136 -160.6   1.557   26.2  0.1837  -46.1  0.6407 -136.3
 6.800  0.7096 -161.8   1.535   24.3  0.1815  -47.7  0.6355 -137.3
 6.900  0.7059 -162.9   1.515   22.3  0.1794  -49.4  0.6305 -138.3
 7.000  0.7024 -164.1   1.496   20.3  0.1775  -51.1  0.6257 -139.2
 7.100  0.6954 -167.8   1.479   18.6  0.1757  -52.4  0.6197 -140.3
 7.200  0.6913 -171.6   1.462   16.8  0.1741  -53.8  0.6139 -141.3
 7.300  0.6903 -175.4   1.447   15.1  0.1726  -55.3  0.6082 -142.4
 7.400  0.6922 -179.2   1.434   13.2  0.1712  -56.7  0.6028 -143.4
 7.500  0.6972  177.1   1.422   11.4  0.1699  -58.2  0.5976 -144.5
 7.600  0.6930  174.8   1.409    9.5  0.1684  -59.8  0.5912 -146.3
 7.700  0.6899  172.5   1.399    7.5  0.1670  -61.5  0.5853 -148.1
 7.800  0.6880  170.1   1.390    5.6  0.1658  -63.2  0.5801 -150.0
 7.900  0.6872  167.8   1.382    3.6  0.1647  -64.9  0.5755 -151.9
 8.000  0.6876  165.4   1.377    1.6  0.1637  -66.7  0.5715 -153.8
 8.500  0.6801  151.9   1.308   -9.6  0.1516  -76.7  0.5643  179.5
 9.000  0.6858  138.2   1.212  -20.8  0.1343  -85.7  0.5610  165.2
 9.500  0.7126  125.8   1.102  -31.5  0.1162  -93.2  0.5809  151.3
10.000  0.7462  115.0   0.981  -41.7  0.0985  -99.8  0.6182  139.1
10.500  0.7711  107.1   0.850  -49.5  0.0808 -103.5  0.6554  129.2
11.000  0.7938  102.8   0.756  -54.4  0.0675 -104.3  0.6894  122.4
11.500  0.8346  100.0   0.699  -59.9  0.0575 -104.4  0.7324  117.6
12.000  0.8707   96.6   0.644  -67.1  0.0485 -104.1  0.7730  112.7
!
!  f       NFmin   Gammaopt  rn/50
! GHz       dB    MAG  ANG    -
 0.450      0.59  0.89    6   0.89
 1.800      0.89  0.79   32   0.77
 2.400      1.02  0.74   86   0.57
 5.500      1.58  0.61  109   0.26
10.000      2.85  0.65 -124   0.44
!
! (c) 2012  Infineon Technologies AG, Munich
