! Infineon Technologies  Discrete & RF Semiconductors
! BFP740F
! VCE =  3.5 V,  IC =  6.0 mA
! Common Emitter S-Parameters:                            Oct 2012
# GHz  S  MA  R  50
!  f         S11            S21            S12            S22
! GHz     MAG   ANG      MAG   ANG      MAG   ANG      MAG   ANG
 0.030  0.9376   -1.8  17.268  177.6  0.0012   83.4  0.9952   -1.2
 0.040  0.9383   -2.5  17.273  177.2  0.0021   74.7  0.9955   -1.6
 0.050  0.9374   -3.0  17.418  176.9  0.0024   73.3  0.9960   -2.0
 0.060  0.9361   -3.7  17.367  176.5  0.0032   83.1  0.9958   -2.4
 0.070  0.9367   -4.3  17.360  176.0  0.0039   85.4  0.9956   -2.9
 0.080  0.9367   -4.9  17.316  175.6  0.0043   85.8  0.9954   -3.3
 0.090  0.9366   -5.6  17.316  175.0  0.0044   86.7  0.9954   -3.6
 0.100  0.9356   -6.2  17.260  174.6  0.0054   86.0  0.9942   -4.1
 0.110  0.9354   -6.8  17.267  174.1  0.0056   84.2  0.9938   -4.5
 0.120  0.9349   -7.4  17.161  173.7  0.0057   87.0  0.9936   -4.9
 0.130  0.9345   -8.0  17.163  173.2  0.0069   81.9  0.9923   -5.3
 0.140  0.9343   -8.6  17.062  172.8  0.0073   82.4  0.9915   -5.8
 0.150  0.9340   -9.2  17.095  172.3  0.0076   84.4  0.9908   -6.1
 0.200  0.9316  -12.2  16.893  170.2  0.0101   83.1  0.9879   -8.1
 0.250  0.9278  -15.2  16.821  168.1  0.0126   79.7  0.9835  -10.1
 0.300  0.9245  -18.2  16.653  166.1  0.0149   79.4  0.9792  -12.0
 0.350  0.9213  -21.2  16.565  164.2  0.0173   76.5  0.9741  -14.0
 0.400  0.9181  -24.1  16.448  162.3  0.0198   75.1  0.9674  -16.0
 0.450  0.9142  -27.0  16.318  160.3  0.0222   73.6  0.9623  -17.8
 0.500  0.9104  -29.9  16.186  158.5  0.0245   71.8  0.9548  -19.8
 0.600  0.9009  -35.7  15.944  154.6  0.0288   68.5  0.9385  -23.6
 0.700  0.8915  -41.3  15.651  151.0  0.0332   65.3  0.9218  -27.3
 0.800  0.8794  -47.3  15.502  147.2  0.0372   62.0  0.9019  -30.9
 0.900  0.8684  -52.6  15.095  143.7  0.0411   58.8  0.8803  -34.5
 1.000  0.8557  -58.0  14.768  140.1  0.0445   55.5  0.8582  -38.0
 1.100  0.8433  -63.0  14.351  136.7  0.0478   52.6  0.8340  -41.4
 1.200  0.8291  -68.2  14.023  133.2  0.0507   49.7  0.8110  -44.7
 1.300  0.8167  -73.0  13.622  130.1  0.0532   46.9  0.7868  -47.8
 1.400  0.8038  -77.9  13.287  126.9  0.0556   44.5  0.7644  -50.8
 1.500  0.7916  -82.4  12.896  124.0  0.0577   41.9  0.7410  -53.7
 1.600  0.7791  -87.3  12.622  120.9  0.0597   39.7  0.7206  -56.5
 1.700  0.7675  -91.5  12.240  118.2  0.0612   37.5  0.6984  -59.3
 1.800  0.7601  -95.4  11.853  115.7  0.0629   35.4  0.6809  -62.0
 1.900  0.7501  -99.3  11.500  113.1  0.0643   33.4  0.6604  -64.7
 2.000  0.7420 -103.1  11.166  110.6  0.0656   31.5  0.6447  -67.2
 2.100  0.7347 -107.2  10.850  108.0  0.0666   29.4  0.6266  -70.1
 2.200  0.7267 -110.5  10.515  105.7  0.0676   27.7  0.6121  -72.4
 2.300  0.7194 -113.9  10.213  103.5  0.0683   26.0  0.5967  -74.8
 2.400  0.7130 -116.9   9.890  101.4  0.0691   24.5  0.5850  -76.9
 2.500  0.7062 -119.8   9.602   99.4  0.0696   23.0  0.5721  -79.0
 2.600  0.7010 -122.7   9.331   97.4  0.0702   21.6  0.5606  -80.9
 2.700  0.6956 -125.6   9.078   95.5  0.0706   20.3  0.5494  -82.9
 2.800  0.6912 -128.3   8.839   93.6  0.0710   19.1  0.5401  -84.7
 2.900  0.6867 -130.9   8.593   91.8  0.0714   17.8  0.5310  -86.6
 3.000  0.6829 -133.5   8.381   90.0  0.0718   16.7  0.5224  -88.3
 3.100  0.6784 -136.0   8.177   88.2  0.0721   15.4  0.5147  -90.1
 3.200  0.6750 -138.3   7.959   86.6  0.0723   14.5  0.5078  -91.6
 3.300  0.6724 -140.5   7.762   85.0  0.0722   13.5  0.5005  -93.2
 3.400  0.6700 -142.7   7.569   83.4  0.0725   12.4  0.4948  -94.7
 3.500  0.6678 -144.8   7.384   81.9  0.0724   11.5  0.4880  -96.1
 3.600  0.6655 -146.8   7.211   80.3  0.0727   10.6  0.4831  -97.4
 3.700  0.6636 -148.8   7.049   78.9  0.0727    9.7  0.4765  -98.7
 3.800  0.6625 -150.9   6.889   77.3  0.0728    8.9  0.4711  -99.9
 3.900  0.6615 -152.8   6.743   75.9  0.0727    8.0  0.4654 -101.2
 4.000  0.6597 -154.6   6.585   74.4  0.0728    7.2  0.4608 -102.4
 4.100  0.6597 -156.4   6.451   73.0  0.0727    6.5  0.4547 -103.7
 4.200  0.6583 -158.2   6.310   71.6  0.0728    5.7  0.4503 -104.8
 4.300  0.6581 -160.1   6.185   70.2  0.0726    4.9  0.4445 -106.1
 4.400  0.6576 -161.8   6.055   68.8  0.0725    4.1  0.4402 -107.2
 4.500  0.6576 -163.5   5.938   67.5  0.0724    3.5  0.4356 -108.4
 4.600  0.6579 -165.2   5.823   66.1  0.0723    2.8  0.4305 -109.5
 4.700  0.6580 -166.9   5.710   64.8  0.0722    2.2  0.4258 -110.7
 4.800  0.6588 -168.5   5.601   63.5  0.0720    1.5  0.4216 -111.8
 4.900  0.6589 -170.1   5.499   62.1  0.0718    0.9  0.4169 -113.0
 5.000  0.6597 -171.5   5.391   60.9  0.0717    0.3  0.4130 -114.1
 5.100  0.6608 -173.1   5.297   59.6  0.0714   -0.3  0.4084 -115.4
 5.200  0.6610 -174.4   5.200   58.3  0.0713   -0.9  0.4051 -116.5
 5.300  0.6616 -175.9   5.111   57.0  0.0710   -1.6  0.4007 -117.7
 5.400  0.6623 -177.3   5.019   55.8  0.0708   -2.1  0.3973 -118.8
 5.500  0.6630 -178.6   4.936   54.5  0.0704   -2.6  0.3938 -119.9
 5.600  0.6632 -180.0   4.849   53.3  0.0702   -3.2  0.3902 -120.9
 5.700  0.6635  178.5   4.771   52.1  0.0698   -3.8  0.3857 -122.3
 5.800  0.6637  177.1   4.695   50.8  0.0696   -4.3  0.3830 -123.4
 5.900  0.6638  175.6   4.618   49.6  0.0691   -4.8  0.3790 -124.5
 6.000  0.6641  174.1   4.546   48.3  0.0688   -5.3  0.3744 -125.7
 6.100  0.6642  172.6   4.475   47.0  0.0684   -5.8  0.3705 -126.9
 6.200  0.6641  171.2   4.404   45.8  0.0680   -6.4  0.3675 -128.0
 6.300  0.6633  169.7   4.331   44.6  0.0674   -6.8  0.3625 -129.2
 6.400  0.6623  168.3   4.263   43.3  0.0670   -7.2  0.3594 -130.3
 6.500  0.6618  166.6   4.198   42.1  0.0664   -7.6  0.3541 -131.5
 6.600  0.6609  165.2   4.126   40.9  0.0659   -8.0  0.3507 -132.5
 6.700  0.6595  163.6   4.063   39.7  0.0652   -8.2  0.3450 -133.6
 6.800  0.6594  162.2   3.998   38.4  0.0647   -8.5  0.3411 -134.7
 6.900  0.6581  160.6   3.936   37.3  0.0641   -8.6  0.3355 -135.8
 7.000  0.6579  159.2   3.873   36.0  0.0636   -8.6  0.3306 -136.8
 7.100  0.6573  157.7   3.815   34.9  0.0630   -8.4  0.3248 -138.1
 7.200  0.6574  156.2   3.756   33.7  0.0627   -8.5  0.3206 -139.4
 7.300  0.6580  154.7   3.698   32.5  0.0623   -8.3  0.3159 -140.7
 7.400  0.6596  153.3   3.645   31.3  0.0621   -8.2  0.3117 -142.2
 7.500  0.6609  152.0   3.593   30.3  0.0619   -8.1  0.3076 -143.8
 7.600  0.6631  150.4   3.540   29.0  0.0619   -8.0  0.3038 -145.4
 7.700  0.6656  149.1   3.487   28.0  0.0617   -8.0  0.2987 -147.4
 7.800  0.6692  147.6   3.439   26.7  0.0617   -8.1  0.2956 -149.5
 7.900  0.6722  146.3   3.387   25.6  0.0618   -8.1  0.2917 -151.7
 8.000  0.6768  144.8   3.338   24.4  0.0617   -8.3  0.2884 -154.2
 8.500  0.7009  138.8   3.099   18.4  0.0612   -9.1  0.2794 -168.3
 9.000  0.7240  133.9   2.871   12.7  0.0603  -10.1  0.2886  176.2
 9.500  0.7421  130.5   2.656    7.2  0.0589  -10.7  0.3204  161.9
10.000  0.7573  126.9   2.450    1.7  0.0574  -11.0  0.3689  150.6
!
!  f       NFmin   Gammaopt  rn/50
! GHz       dB    MAG  ANG    -
 0.450      0.39  0.32    6   0.21
 0.900      0.44  0.32   12   0.18
 1.500      0.51  0.32   24   0.14
 1.900      0.55  0.31   32   0.13
 2.400      0.62  0.30   41   0.12
 3.500      0.75  0.27   66   0.11
 5.500      0.99  0.17  113   0.19
10.000      1.49  0.40 -125   0.07
!
! (c) 2012  Infineon Technologies AG, Munich
