! Infineon Technologies  Discrete & RF Semiconductors
! BFP720FESD
! VCE =  2.5 V,  IC =  20 mA
! Common Emitter S-Parameters:                            Jan 2016
# GHz  S  MA  R  50
!  f         S11            S21            S12            S22
! GHz     MAG   ANG      MAG   ANG      MAG   ANG      MAG   ANG
 0.010  0.7357    0.2  41.100  179.9  0.0006  150.2  0.9562    3.0
 0.015  0.7358   -0.9  41.096  179.2  0.0007  117.5  0.9687    1.4
 0.020  0.7362   -2.0  41.100  178.4  0.0009   96.4  0.9820   -0.2
 0.025  0.7356   -2.5  41.081  178.1  0.0010   93.3  0.9835   -0.5
 0.030  0.7351   -3.1  41.063  177.7  0.0012   91.0  0.9850   -0.9
 0.035  0.7346   -3.6  41.047  177.4  0.0013   89.1  0.9865   -1.2
 0.040  0.7342   -4.1  41.032  177.1  0.0015   87.7  0.9881   -1.5
 0.045  0.7339   -4.7  41.019  176.7  0.0016   86.5  0.9898   -1.9
 0.050  0.7336   -5.2  41.007  176.4  0.0018   85.5  0.9914   -2.2
 0.055  0.7331   -5.7  41.014  176.1  0.0019   85.5  0.9913   -2.5
 0.060  0.7327   -6.3  41.022  175.7  0.0021   85.5  0.9912   -2.8
 0.065  0.7324   -6.8  41.032  175.4  0.0022   85.5  0.9911   -3.2
 0.070  0.7321   -7.3  41.044  175.0  0.0024   85.6  0.9911   -3.5
 0.075  0.7319   -7.8  41.056  174.7  0.0025   85.6  0.9911   -3.8
 0.080  0.7317   -8.4  41.071  174.4  0.0026   85.6  0.9911   -4.1
 0.085  0.7316   -8.9  41.086  174.0  0.0028   85.6  0.9911   -4.4
 0.090  0.7316   -9.4  41.103  173.7  0.0029   85.6  0.9912   -4.8
 0.095  0.7316  -10.0  41.122  173.3  0.0031   85.6  0.9914   -5.1
 0.100  0.7317  -10.5  41.142  173.0  0.0032   85.6  0.9915   -5.4
 0.105  0.7310  -11.0  41.105  172.6  0.0033   85.1  0.9907   -5.7
 0.110  0.7303  -11.5  41.069  172.2  0.0035   84.6  0.9900   -6.0
 0.115  0.7297  -12.0  41.035  171.9  0.0036   84.2  0.9893   -6.3
 0.120  0.7291  -12.5  41.003  171.5  0.0038   83.7  0.9886   -6.6
 0.125  0.7286  -13.0  40.972  171.1  0.0039   83.4  0.9880   -6.9
 0.130  0.7281  -13.6  40.944  170.7  0.0040   83.0  0.9873   -7.2
 0.135  0.7277  -14.1  40.917  170.3  0.0042   82.7  0.9867   -7.5
 0.140  0.7274  -14.6  40.892  170.0  0.0043   82.4  0.9862   -7.8
 0.145  0.7271  -15.1  40.869  169.6  0.0045   82.1  0.9856   -8.1
 0.150  0.7269  -15.6  40.848  169.2  0.0046   81.8  0.9851   -8.4
 0.155  0.7263  -16.1  40.794  168.9  0.0047   81.6  0.9840   -8.7
 0.160  0.7258  -16.6  40.741  168.5  0.0049   81.4  0.9829   -9.0
 0.165  0.7254  -17.1  40.690  168.2  0.0050   81.2  0.9819   -9.3
 0.170  0.7250  -17.6  40.640  167.8  0.0052   81.0  0.9809   -9.6
 0.175  0.7246  -18.0  40.592  167.5  0.0053   80.9  0.9799   -9.8
 0.180  0.7243  -18.5  40.545  167.1  0.0055   80.7  0.9789  -10.1
 0.185  0.7241  -19.0  40.500  166.8  0.0056   80.6  0.9780  -10.4
 0.190  0.7239  -19.5  40.457  166.4  0.0058   80.5  0.9771  -10.7
 0.195  0.7238  -20.0  40.415  166.1  0.0059   80.3  0.9762  -11.0
 0.200  0.7237  -20.5  40.374  165.7  0.0061   80.2  0.9753  -11.3
 0.220  0.7195  -22.4  40.052  164.2  0.0067   79.1  0.9703  -12.4
 0.240  0.7161  -24.4  39.757  162.8  0.0074   78.1  0.9657  -13.5
 0.260  0.7131  -26.3  39.486  161.4  0.0080   77.2  0.9605  -14.6
 0.280  0.7104  -28.2  39.234  160.1  0.0085   76.2  0.9549  -15.7
 0.300  0.7085  -30.1  39.002  158.8  0.0090   75.3  0.9495  -16.7
 0.320  0.7044  -32.0  38.662  157.5  0.0095   74.4  0.9432  -17.7
 0.340  0.7011  -33.9  38.342  156.3  0.0100   73.6  0.9372  -18.7
 0.360  0.6980  -35.8  38.012  155.0  0.0106   72.8  0.9309  -19.7
 0.380  0.6950  -37.5  37.670  153.8  0.0111   71.9  0.9243  -20.6
 0.400  0.6927  -39.3  37.345  152.6  0.0117   71.2  0.9180  -21.6
 0.420  0.6891  -41.0  36.983  151.5  0.0122   70.3  0.9112  -22.5
 0.440  0.6861  -42.8  36.636  150.3  0.0127   69.4  0.9047  -23.4
 0.450  0.6849  -43.7  36.468  149.7  0.0129   69.0  0.9015  -23.9
 0.460  0.6829  -44.6  36.287  149.2  0.0131   68.6  0.8979  -24.4
 0.480  0.6793  -46.3  35.934  148.0  0.0136   67.8  0.8909  -25.3
 0.500  0.6764  -48.0  35.596  146.9  0.0141   67.1  0.8841  -26.2
 0.520  0.6723  -49.6  35.229  145.9  0.0145   66.3  0.8767  -27.0
 0.540  0.6688  -51.2  34.872  144.9  0.0149   65.5  0.8696  -27.8
 0.560  0.6658  -52.9  34.527  143.8  0.0154   64.8  0.8625  -28.6
 0.580  0.6634  -54.5  34.194  142.8  0.0158   64.1  0.8557  -29.4
 0.600  0.6615  -56.2  33.872  141.7  0.0162   63.5  0.8490  -30.2
 0.620  0.6577  -57.7  33.523  140.8  0.0166   62.8  0.8419  -31.0
 0.640  0.6543  -59.3  33.182  140.0  0.0170   62.1  0.8349  -31.7
 0.660  0.6514  -60.8  32.848  139.1  0.0175   61.4  0.8280  -32.5
 0.680  0.6490  -62.4  32.523  138.1  0.0179   60.8  0.8213  -33.3
 0.700  0.6471  -64.0  32.207  137.2  0.0183   60.2  0.8148  -34.1
 0.720  0.6441  -65.4  31.864  136.4  0.0186   59.5  0.8078  -34.8
 0.740  0.6415  -66.8  31.527  135.5  0.0190   58.9  0.8008  -35.5
 0.760  0.6393  -68.3  31.197  134.7  0.0193   58.3  0.7940  -36.2
 0.780  0.6376  -69.7  30.875  133.8  0.0197   57.7  0.7873  -37.0
 0.800  0.6362  -71.2  30.560  132.9  0.0200   57.1  0.7808  -37.7
 0.820  0.6333  -72.6  30.256  132.1  0.0203   56.5  0.7742  -38.3
 0.840  0.6307  -73.9  29.957  131.3  0.0207   55.9  0.7677  -39.0
 0.860  0.6285  -75.3  29.663  130.5  0.0210   55.4  0.7614  -39.6
 0.880  0.6267  -76.7  29.376  129.7  0.0214   54.8  0.7551  -40.3
 0.900  0.6252  -78.1  29.095  128.9  0.0217   54.3  0.7489  -41.0
 0.920  0.6226  -79.4  28.800  128.2  0.0220   53.8  0.7423  -41.6
 0.940  0.6203  -80.7  28.510  127.5  0.0223   53.3  0.7358  -42.3
 0.960  0.6183  -82.0  28.225  126.7  0.0225   52.8  0.7295  -42.9
 0.980  0.6166  -83.3  27.944  126.0  0.0228   52.3  0.7232  -43.6
 1.000  0.6153  -84.6  27.668  125.2  0.0231   51.8  0.7170  -44.3
 1.020  0.6134  -85.8  27.395  124.5  0.0233   51.3  0.7109  -44.9
 1.040  0.6117  -87.0  27.125  123.9  0.0236   50.8  0.7049  -45.5
 1.060  0.6104  -88.2  26.859  123.2  0.0238   50.3  0.6990  -46.1
 1.080  0.6092  -89.4  26.597  122.5  0.0241   49.9  0.6932  -46.7
 1.100  0.6084  -90.6  26.339  121.8  0.0243   49.4  0.6874  -47.3
 1.120  0.6066  -91.7  26.084  121.1  0.0245   48.9  0.6816  -47.9
 1.140  0.6051  -92.9  25.833  120.5  0.0248   48.5  0.6759  -48.4
 1.160  0.6039  -94.1  25.585  119.8  0.0250   48.1  0.6702  -49.0
 1.180  0.6029  -95.2  25.341  119.1  0.0253   47.6  0.6646  -49.6
 1.200  0.6021  -96.4  25.101  118.4  0.0255   47.2  0.6591  -50.2
 1.220  0.6006  -97.5  24.863  117.8  0.0257   46.8  0.6538  -50.7
 1.240  0.5994  -98.5  24.627  117.2  0.0259   46.4  0.6485  -51.3
 1.260  0.5983  -99.6  24.395  116.6  0.0261   46.0  0.6433  -51.8
 1.280  0.5974 -100.6  24.164  116.0  0.0263   45.6  0.6382  -52.3
 1.300  0.5968 -101.7  23.937  115.4  0.0265   45.2  0.6331  -52.9
 1.320  0.5954 -102.7  23.707  114.8  0.0267   44.8  0.6279  -53.4
 1.340  0.5942 -103.7  23.479  114.2  0.0269   44.5  0.6228  -53.9
 1.360  0.5931 -104.7  23.254  113.6  0.0270   44.1  0.6178  -54.4
 1.380  0.5923 -105.8  23.031  113.0  0.0272   43.8  0.6128  -54.9
 1.400  0.5916 -106.8  22.811  112.4  0.0274   43.4  0.6078  -55.4
 1.420  0.5904 -107.7  22.607  111.9  0.0275   43.1  0.6033  -55.9
 1.440  0.5893 -108.6  22.405  111.4  0.0277   42.8  0.5988  -56.3
 1.460  0.5884 -109.4  22.204  110.9  0.0278   42.4  0.5943  -56.8
 1.480  0.5876 -110.3  22.005  110.4  0.0280   42.1  0.5899  -57.3
 1.500  0.5870 -111.2  21.808  109.9  0.0281   41.8  0.5855  -57.8
 1.520  0.5865 -112.1  21.616  109.4  0.0282   41.5  0.5812  -58.2
 1.540  0.5862 -113.0  21.426  108.8  0.0284   41.2  0.5770  -58.7
 1.560  0.5860 -113.9  21.238  108.2  0.0285   40.9  0.5728  -59.2
 1.580  0.5859 -114.8  21.052  107.7  0.0287   40.6  0.5686  -59.6
 1.600  0.5860 -115.7  20.868  107.1  0.0288   40.3  0.5645  -60.1
 1.620  0.5848 -116.5  20.690  106.6  0.0289   40.0  0.5607  -60.5
 1.640  0.5837 -117.3  20.514  106.2  0.0290   39.7  0.5570  -61.0
 1.660  0.5827 -118.1  20.339  105.7  0.0292   39.4  0.5532  -61.4
 1.680  0.5818 -118.9  20.166  105.2  0.0293   39.1  0.5496  -61.8
 1.700  0.5810 -119.7  19.994  104.7  0.0294   38.8  0.5459  -62.3
 1.720  0.5805 -120.4  19.816  104.3  0.0295   38.6  0.5425  -62.7
 1.740  0.5801 -121.1  19.638  103.8  0.0296   38.4  0.5391  -63.1
 1.760  0.5798 -121.8  19.462  103.3  0.0297   38.2  0.5357  -63.5
 1.780  0.5795 -122.5  19.287  102.9  0.0298   38.0  0.5323  -63.9
 1.800  0.5794 -123.2  19.114  102.4  0.0299   37.8  0.5290  -64.3
 1.820  0.5787 -124.0  18.964  102.0  0.0300   37.6  0.5257  -64.7
 1.840  0.5781 -124.7  18.815  101.5  0.0301   37.3  0.5224  -65.2
 1.860  0.5776 -125.5  18.667  101.1  0.0303   37.1  0.5191  -65.6
 1.880  0.5772 -126.2  18.520  100.7  0.0304   36.8  0.5159  -66.0
 1.900  0.5769 -127.0  18.374  100.2  0.0305   36.6  0.5127  -66.5
 1.920  0.5764 -127.6  18.225   99.8  0.0306   36.4  0.5099  -66.9
 1.940  0.5759 -128.2  18.076   99.4  0.0307   36.2  0.5072  -67.2
 1.960  0.5755 -128.8  17.929   99.0  0.0307   36.1  0.5044  -67.6
 1.980  0.5751 -129.4  17.782   98.6  0.0308   35.9  0.5017  -67.9
 2.000  0.5748 -130.0  17.636   98.2  0.0309   35.7  0.4990  -68.3
 2.020  0.5741 -130.6  17.503   97.8  0.0310   35.5  0.4963  -68.7
 2.040  0.5734 -131.3  17.371   97.4  0.0310   35.3  0.4937  -69.0
 2.060  0.5728 -131.9  17.240   97.0  0.0311   35.2  0.4910  -69.4
 2.080  0.5723 -132.5  17.110   96.6  0.0312   35.0  0.4884  -69.8
 2.100  0.5718 -133.1  16.981   96.2  0.0312   34.8  0.4858  -70.2
 2.120  0.5714 -133.8  16.853   95.8  0.0313   34.6  0.4832  -70.6
 2.140  0.5711 -134.4  16.725   95.3  0.0314   34.4  0.4807  -71.0
 2.160  0.5708 -135.0  16.599   94.9  0.0315   34.3  0.4782  -71.4
 2.180  0.5706 -135.7  16.473   94.4  0.0315   34.1  0.4757  -71.8
 2.200  0.5705 -136.3  16.349   94.0  0.0316   33.9  0.4732  -72.2
 2.220  0.5699 -136.9  16.232   93.7  0.0317   33.7  0.4710  -72.6
 2.240  0.5694 -137.4  16.115   93.3  0.0317   33.6  0.4688  -72.9
 2.260  0.5689 -138.0  15.999   92.9  0.0318   33.4  0.4666  -73.3
 2.280  0.5685 -138.6  15.884   92.6  0.0319   33.3  0.4644  -73.6
 2.300  0.5681 -139.1  15.769   92.2  0.0319   33.1  0.4623  -74.0
 2.320  0.5678 -139.7  15.655   91.8  0.0320   32.9  0.4601  -74.4
 2.340  0.5676 -140.3  15.541   91.5  0.0321   32.8  0.4580  -74.8
 2.360  0.5674 -140.9  15.428   91.1  0.0322   32.6  0.4559  -75.1
 2.380  0.5673 -141.4  15.316   90.7  0.0322   32.5  0.4539  -75.5
 2.400  0.5672 -142.0  15.205   90.3  0.0323   32.3  0.4518  -75.9
 2.420  0.5669 -142.5  15.100   90.0  0.0323   32.2  0.4499  -76.3
 2.440  0.5667 -143.1  14.995   89.6  0.0324   32.0  0.4480  -76.6
 2.460  0.5665 -143.6  14.891   89.3  0.0324   31.9  0.4461  -77.0
 2.480  0.5663 -144.1  14.787   88.9  0.0325   31.8  0.4442  -77.3
 2.500  0.5662 -144.6  14.684   88.6  0.0325   31.6  0.4424  -77.7
 2.520  0.5661 -145.2  14.582   88.2  0.0325   31.5  0.4405  -78.1
 2.540  0.5661 -145.7  14.480   87.8  0.0326   31.4  0.4387  -78.5
 2.560  0.5662 -146.2  14.379   87.5  0.0326   31.3  0.4369  -78.8
 2.580  0.5663 -146.8  14.278   87.1  0.0327   31.1  0.4352  -79.2
 2.600  0.5664 -147.3  14.178   86.7  0.0327   31.0  0.4334  -79.6
 2.620  0.5660 -147.8  14.083   86.4  0.0327   30.9  0.4319  -79.9
 2.640  0.5656 -148.2  13.988   86.1  0.0328   30.8  0.4304  -80.2
 2.660  0.5653 -148.7  13.893   85.8  0.0328   30.8  0.4289  -80.6
 2.680  0.5650 -149.2  13.799   85.4  0.0328   30.7  0.4274  -80.9
 2.700  0.5647 -149.6  13.705   85.1  0.0328   30.6  0.4259  -81.2
 2.720  0.5645 -150.1  13.612   84.8  0.0329   30.5  0.4245  -81.6
 2.740  0.5643 -150.6  13.519   84.4  0.0329   30.4  0.4230  -81.9
 2.760  0.5642 -151.1  13.427   84.1  0.0329   30.4  0.4216  -82.2
 2.780  0.5641 -151.5  13.335   83.8  0.0330   30.3  0.4202  -82.6
 2.800  0.5640 -152.0  13.244   83.4  0.0330   30.2  0.4188  -82.9
 2.820  0.5638 -152.4  13.161   83.1  0.0330   30.1  0.4176  -83.2
 2.840  0.5637 -152.9  13.079   82.8  0.0330   30.0  0.4164  -83.5
 2.860  0.5635 -153.3  12.997   82.5  0.0331   29.9  0.4152  -83.8
 2.880  0.5635 -153.7  12.915   82.2  0.0331   29.8  0.4141  -84.0
 2.900  0.5634 -154.1  12.833   81.9  0.0331   29.7  0.4129  -84.3
 2.920  0.5634 -154.6  12.752   81.6  0.0331   29.7  0.4118  -84.6
 2.940  0.5634 -155.0  12.672   81.3  0.0331   29.6  0.4106  -84.9
 2.960  0.5634 -155.4  12.591   81.0  0.0332   29.5  0.4095  -85.2
 2.980  0.5635 -155.9  12.511   80.6  0.0332   29.4  0.4084  -85.5
 3.000  0.5636 -156.3  12.432   80.3  0.0332   29.3  0.4073  -85.8
 3.100  0.5622 -158.0  12.084   79.1  0.0334   29.3  0.4043  -86.8
 3.200  0.5612 -159.6  11.741   77.9  0.0336   29.4  0.4015  -87.9
 3.300  0.5607 -161.3  11.404   76.5  0.0338   29.4  0.3987  -88.9
 3.400  0.5607 -162.9  11.074   75.1  0.0340   29.5  0.3961  -90.0
 3.500  0.5611 -164.6  10.751   73.6  0.0342   29.5  0.3937  -91.1
 3.600  0.5617 -166.0  10.500   72.4  0.0344   29.5  0.3920  -92.0
 3.700  0.5627 -167.5  10.254   71.2  0.0346   29.5  0.3904  -92.9
 3.800  0.5640 -168.9  10.012   69.9  0.0349   29.5  0.3889  -93.8
 3.900  0.5657 -170.3   9.776   68.6  0.0351   29.5  0.3875  -94.7
 4.000  0.5677 -171.7   9.545   67.2  0.0353   29.5  0.3862  -95.6
 4.100  0.5690 -173.1   9.337   66.0  0.0356   29.5  0.3843  -96.7
 4.200  0.5705 -174.4   9.133   64.8  0.0358   29.4  0.3826  -97.8
 4.300  0.5724 -175.8   8.933   63.5  0.0361   29.4  0.3810  -98.9
 4.400  0.5747 -177.2   8.738   62.2  0.0363   29.3  0.3796 -100.1
 4.500  0.5772 -178.5   8.548   60.8  0.0366   29.3  0.3783 -101.2
 4.600  0.5784 -179.7   8.367   59.7  0.0368   29.3  0.3768 -102.3
 4.700  0.5799  179.1   8.189   58.5  0.0370   29.4  0.3754 -103.3
 4.800  0.5816  177.9   8.014   57.3  0.0373   29.4  0.3742 -104.4
 4.900  0.5836  176.8   7.844   56.0  0.0375   29.5  0.3731 -105.5
 5.000  0.5858  175.6   7.677   54.7  0.0377   29.5  0.3721 -106.6
 5.100  0.5853  174.5   7.532   53.7  0.0379   29.6  0.3707 -107.5
 5.200  0.5850  173.4   7.390   52.6  0.0382   29.6  0.3694 -108.5
 5.300  0.5849  172.4   7.250   51.5  0.0384   29.7  0.3681 -109.4
 5.400  0.5850  171.3   7.114   50.3  0.0387   29.7  0.3670 -110.3
 5.500  0.5853  170.2   6.980   49.1  0.0389   29.8  0.3660 -111.3
 5.600  0.5848  169.0   6.868   48.0  0.0392   29.8  0.3638 -112.4
 5.700  0.5846  167.7   6.759   46.9  0.0395   29.9  0.3616 -113.5
 5.800  0.5847  166.5   6.652   45.8  0.0397   29.9  0.3597 -114.6
 5.900  0.5850  165.2   6.547   44.6  0.0400   30.0  0.3578 -115.7
 6.000  0.5856  164.0   6.446   43.4  0.0403   30.0  0.3561 -116.8
 6.100  0.5852  162.7   6.342   42.3  0.0405   30.1  0.3536 -118.0
 6.200  0.5852  161.3   6.242   41.1  0.0407   30.2  0.3513 -119.3
 6.300  0.5854  160.0   6.143   39.9  0.0410   30.2  0.3492 -120.6
 6.400  0.5860  158.6   6.048   38.7  0.0412   30.3  0.3472 -121.9
 6.500  0.5869  157.3   5.955   37.4  0.0414   30.4  0.3454 -123.2
 6.600  0.5875  156.1   5.857   36.3  0.0416   30.7  0.3421 -124.2
 6.800  0.5894  153.7   5.668   34.0  0.0420   31.4  0.3358 -126.1
 7.000  0.5923  151.3   5.488   31.6  0.0424   32.1  0.3299 -128.2
 7.200  0.5948  149.3   5.314   29.6  0.0434   33.3  0.3218 -130.0
 7.400  0.5980  147.3   5.147   27.5  0.0445   34.4  0.3140 -132.0
 7.600  0.6043  145.4   4.999   25.3  0.0460   35.0  0.3073 -134.9
 7.800  0.6137  143.5   4.872   23.0  0.0479   35.1  0.3023 -138.7
 8.000  0.6237  141.7   4.752   20.6  0.0498   35.2  0.2987 -142.6
 8.200  0.6316  139.9   4.609   18.3  0.0515   34.2  0.2965 -148.2
 8.400  0.6401  138.2   4.473   15.8  0.0532   33.3  0.2971 -153.9
 8.600  0.6465  136.5   4.338   13.4  0.0545   32.4  0.2980 -159.8
 8.800  0.6508  134.9   4.200   11.1  0.0555   31.3  0.2997 -165.9
 9.000  0.6555  133.4   4.070    8.7  0.0565   30.3  0.3047 -171.9
 9.200  0.6610  132.1   3.944    7.0  0.0573   29.3  0.3122 -178.1
 9.400  0.6669  130.7   3.821    5.2  0.0581   28.4  0.3231  176.1
 9.600  0.6765  129.1   3.708    3.2  0.0588   27.6  0.3387  170.3
 9.800  0.6901  127.2   3.607    0.9  0.0593   26.9  0.3592  164.8
10.000  0.7045  125.4   3.512   -1.6  0.0598   26.2  0.3825  160.0
!
!  f       NFmin   Gammaopt  rn/50
! GHz       dB    MAG  ANG    -
 0.450      0.95  0.04  -26   0.11
 2.400      0.98  0.01  142   0.12
 5.500      1.11  0.17  145   0.11
10.000      1.56  0.29 -128   0.15
!
! (c) 2016  Infineon Technologies AG, Munich
