! Infineon Technologies  Discrete & RF Semiconductors
! BFP720
! VCE =  0.7 V,  IC =  1.5 mA
! Common Emitter S-Parameters:                            Aug 2012
# GHz  S  MA  R  50
!  f         S11            S21            S12            S22
! GHz     MAG   ANG      MAG   ANG      MAG   ANG      MAG   ANG
 0.010  0.9800   -0.0   5.148 -179.6  0.0007   -0.1  0.9939    0.2
 0.020  0.9808   -0.6   4.972  179.3  0.0014   98.9  0.9994   -0.5
 0.030  0.9808   -0.8   4.989  179.0  0.0018   95.0  0.9990   -0.7
 0.040  0.9807   -1.1   5.005  178.7  0.0023   92.7  0.9987   -1.0
 0.050  0.9807   -1.4   5.022  178.4  0.0027   91.0  0.9984   -1.2
 0.060  0.9810   -1.7   5.020  178.2  0.0033   90.2  0.9985   -1.5
 0.070  0.9813   -2.0   5.019  178.0  0.0038   89.6  0.9987   -1.7
 0.080  0.9816   -2.3   5.017  177.8  0.0044   89.1  0.9989   -2.0
 0.090  0.9820   -2.6   5.016  177.6  0.0050   88.8  0.9991   -2.2
 0.100  0.9824   -2.8   5.014  177.4  0.0055   88.5  0.9993   -2.4
 0.110  0.9821   -3.1   5.020  177.2  0.0061   88.3  0.9991   -2.7
 0.120  0.9819   -3.4   5.025  176.9  0.0067   88.0  0.9990   -2.9
 0.130  0.9817   -3.7   5.030  176.7  0.0072   87.9  0.9989   -3.1
 0.140  0.9815   -4.0   5.036  176.4  0.0078   87.7  0.9988   -3.4
 0.150  0.9813   -4.3   5.042  176.2  0.0083   87.6  0.9987   -3.6
 0.200  0.9806   -5.6   5.029  174.9  0.0111   86.0  0.9980   -4.8
 0.250  0.9794   -7.1   5.047  173.6  0.0139   85.0  0.9976   -6.0
 0.300  0.9784   -8.5   5.037  172.4  0.0167   84.0  0.9965   -7.2
 0.350  0.9771  -10.0   5.045  171.2  0.0195   83.0  0.9955   -8.5
 0.400  0.9764  -11.4   5.069  170.0  0.0224   81.8  0.9941   -9.8
 0.450  0.9745  -12.8   5.043  168.6  0.0251   80.7  0.9932  -10.9
 0.500  0.9734  -14.3   5.068  167.4  0.0280   79.7  0.9921  -12.2
 0.600  0.9701  -17.2   5.071  164.8  0.0336   77.5  0.9881  -14.7
 0.700  0.9667  -20.2   5.076  162.4  0.0393   75.2  0.9852  -17.2
 0.800  0.9624  -23.3   5.113  159.9  0.0449   73.0  0.9818  -19.7
 0.900  0.9581  -26.4   5.121  157.3  0.0505   70.8  0.9767  -22.3
 1.000  0.9532  -29.6   5.130  154.8  0.0562   68.4  0.9708  -24.9
 1.100  0.9467  -32.7   5.127  152.0  0.0618   66.0  0.9645  -27.5
 1.200  0.9410  -35.9   5.134  149.3  0.0673   63.6  0.9580  -30.1
 1.300  0.9344  -39.2   5.125  146.6  0.0727   61.2  0.9499  -32.8
 1.400  0.9273  -42.3   5.102  143.9  0.0780   58.7  0.9404  -35.3
 1.500  0.9203  -45.6   5.096  141.3  0.0832   56.3  0.9308  -37.9
 1.600  0.9121  -49.0   5.116  138.4  0.0882   53.8  0.9211  -40.5
 1.700  0.9021  -52.3   5.090  135.5  0.0931   51.3  0.9104  -43.2
 1.800  0.8942  -55.4   5.058  132.7  0.0977   48.8  0.9001  -45.8
 1.900  0.8848  -58.5   5.019  130.0  0.1022   46.5  0.8896  -48.3
 2.000  0.8769  -61.7   4.973  127.2  0.1066   44.1  0.8788  -50.9
 2.100  0.8671  -64.7   4.923  124.6  0.1105   41.6  0.8667  -53.3
 2.200  0.8596  -67.8   4.884  122.0  0.1146   39.3  0.8561  -55.8
 2.300  0.8506  -70.7   4.827  119.4  0.1182   36.9  0.8452  -58.2
 2.400  0.8439  -73.7   4.779  116.8  0.1220   34.6  0.8359  -60.7
 2.500  0.8350  -76.5   4.727  114.4  0.1252   32.4  0.8241  -63.0
 2.600  0.8283  -79.5   4.684  111.9  0.1286   30.3  0.8136  -65.4
 2.700  0.8199  -82.4   4.630  109.5  0.1315   28.0  0.8019  -67.7
 2.800  0.8136  -85.3   4.585  107.0  0.1347   25.9  0.7916  -70.2
 2.900  0.8045  -88.1   4.534  104.6  0.1374   23.8  0.7810  -72.5
 3.000  0.7975  -91.0   4.491  102.1  0.1403   21.8  0.7717  -74.8
 3.100  0.7845  -93.9   4.435   99.8  0.1421   19.5  0.7573  -77.1
 3.200  0.7737  -96.9   4.387   97.5  0.1441   17.3  0.7441  -79.5
 3.300  0.7650 -100.0   4.346   95.0  0.1464   15.2  0.7323  -82.0
 3.400  0.7586 -103.1   4.314   92.6  0.1488   13.2  0.7219  -84.5
 3.500  0.7545 -106.3   4.289   90.1  0.1514   11.2  0.7130  -87.1
 3.600  0.7410 -109.5   4.231   87.8  0.1526    9.1  0.6979  -89.6
 3.700  0.7298 -112.8   4.179   85.4  0.1540    7.0  0.6842  -92.1
 3.800  0.7211 -116.1   4.135   83.0  0.1556    5.0  0.6719  -94.8
 3.900  0.7149 -119.6   4.099   80.6  0.1573    3.0  0.6612  -97.6
 4.000  0.7113 -123.0   4.070   78.1  0.1593    1.1  0.6520 -100.4
 4.100  0.6983 -126.5   4.007   75.8  0.1597   -1.0  0.6357 -103.1
 4.200  0.6880 -130.1   3.951   73.5  0.1603   -3.0  0.6210 -106.0
 4.300  0.6804 -133.8   3.902   71.1  0.1611   -5.0  0.6079 -108.9
 4.400  0.6756 -137.5   3.860   68.6  0.1621   -7.0  0.5965 -112.0
 4.500  0.6738 -141.3   3.825   66.1  0.1632   -9.0  0.5869 -115.3
 4.600  0.6627 -144.7   3.755   63.9  0.1626  -11.0  0.5725 -118.1
 4.700  0.6540 -148.2   3.692   61.6  0.1621  -12.9  0.5596 -121.0
 4.800  0.6478 -151.8   3.635   59.2  0.1619  -14.9  0.5482 -124.1
 4.900  0.6442 -155.4   3.584   56.7  0.1618  -16.9  0.5384 -127.3
 5.000  0.6432 -159.0   3.540   54.2  0.1619  -18.9  0.5304 -130.6
 5.100  0.6372 -161.7   3.468   52.2  0.1606  -20.6  0.5214 -133.0
 5.200  0.6326 -164.3   3.400   50.2  0.1594  -22.4  0.5134 -135.5
 5.300  0.6294 -167.0   3.336   48.0  0.1584  -24.2  0.5064 -138.1
 5.400  0.6276 -169.7   3.278   45.8  0.1575  -26.0  0.5004 -140.7
 5.500  0.6272 -172.5   3.224   43.5  0.1568  -27.8  0.4955 -143.4
 5.600  0.6250 -174.6   3.161   41.7  0.1551  -29.3  0.4914 -145.1
 5.700  0.6237 -176.8   3.100   39.9  0.1534  -30.8  0.4878 -146.9
 5.800  0.6234 -179.0   3.043   37.9  0.1519  -32.4  0.4847 -148.7
 5.900  0.6239  178.9   2.989   36.0  0.1504  -34.0  0.4820 -150.5
 6.000  0.6253  176.7   2.939   33.9  0.1491  -35.6  0.4799 -152.3
 6.100  0.6225  174.9   2.887   32.3  0.1472  -36.8  0.4771 -153.4
 6.200  0.6205  173.0   2.836   30.6  0.1453  -38.1  0.4745 -154.4
 6.300  0.6191  171.1   2.788   28.8  0.1435  -39.4  0.4720 -155.5
 6.400  0.6183  169.2   2.743   27.0  0.1418  -40.7  0.4697 -156.6
 6.500  0.6183  167.4   2.701   25.1  0.1402  -42.1  0.4676 -157.7
 6.600  0.6154  165.8   2.657   23.6  0.1384  -43.1  0.4632 -158.3
 6.700  0.6131  164.2   2.614   22.0  0.1368  -44.2  0.4588 -159.0
 6.800  0.6112  162.6   2.574   20.4  0.1351  -45.3  0.4546 -159.7
 6.900  0.6097  161.1   2.535   18.8  0.1335  -46.4  0.4504 -160.4
 7.000  0.6088  159.5   2.499   17.0  0.1319  -47.5  0.4463 -161.2
 7.100  0.6070  157.8   2.466   15.5  0.1308  -48.5  0.4417 -162.1
 7.200  0.6058  156.0   2.435   14.0  0.1296  -49.5  0.4373 -163.1
 7.300  0.6052  154.3   2.406   12.4  0.1286  -50.5  0.4330 -164.1
 7.400  0.6050  152.6   2.379   10.8  0.1275  -51.5  0.4289 -165.1
 7.500  0.6055  150.9   2.353    9.1  0.1265  -52.6  0.4249 -166.2
 7.600  0.6043  148.7   2.326    7.4  0.1253  -53.8  0.4181 -170.9
 7.700  0.6041  146.5   2.302    5.6  0.1241  -55.0  0.4142 -175.7
 7.800  0.6047  144.3   2.279    3.8  0.1229  -56.3  0.4133  179.4
 7.900  0.6063  142.1   2.259    2.0  0.1219  -57.5  0.4154  174.6
 8.000  0.6087  139.9   2.241    0.1  0.1209  -58.8  0.4203  169.8
 8.500  0.6170  127.4   2.087   -9.6  0.1112  -65.5  0.4118  155.4
 9.000  0.6372  115.8   1.912  -18.9  0.0999  -70.5  0.4275  141.3
 9.500  0.6718  106.0   1.736  -27.7  0.0895  -74.1  0.4640  129.4
10.000  0.7077   97.9   1.554  -35.9  0.0795  -76.9  0.5099  119.8
10.500  0.7308   92.5   1.374  -42.1  0.0701  -77.4  0.5519  112.9
11.000  0.7515   90.2   1.253  -46.3  0.0639  -76.3  0.5887  108.7
11.500  0.7890   89.0   1.178  -51.9  0.0598  -75.4  0.6310  105.8
12.000  0.8205   86.7   1.096  -58.8  0.0555  -75.2  0.6692  102.6
!
!  f       NFmin   Gammaopt  rn/50
! GHz       dB    MAG  ANG    -
 0.450      0.43  0.72    5   0.33
 1.800      0.58  0.67   30   0.28
 2.400      0.68  0.58   79   0.20
 5.500      0.99  0.47   92   0.09
10.000      1.51  0.50 -113   0.24
!
! (c) 2012  Infineon Technologies AG, Munich
