! Infineon Technologies  Discrete & RF Semiconductors
! BFP843F
! VCE =  2.0 V,  IC =  30 mA
! Common Emitter S-Parameters:                            Aug 2013
# GHz  S  MA  R  50
!  f         S11            S21            S12            S22
! GHz     MAG   ANG      MAG   ANG      MAG   ANG      MAG   ANG
 0.030  0.3395 -115.4  28.720  155.3  0.0317   27.3  0.3361  -87.7
 0.040  0.3149 -129.8  26.258  157.6  0.0317   17.8  0.2698 -100.7
 0.050  0.2941 -138.0  24.795  161.1  0.0323   19.0  0.2284 -108.8
 0.060  0.2900 -145.5  24.109  162.6  0.0321   11.5  0.2039 -117.9
 0.070  0.2821 -151.7  23.521  163.8  0.0333   13.2  0.1824 -123.6
 0.080  0.2723 -156.5  23.238  164.7  0.0346   10.5  0.1692 -131.2
 0.090  0.2713 -158.1  23.010  165.0  0.0330   12.8  0.1578 -134.6
 0.100  0.2631 -162.2  22.732  165.6  0.0332   11.1  0.1466 -140.1
 0.110  0.2678 -163.9  22.612  165.9  0.0334    8.6  0.1390 -143.8
 0.120  0.2605 -166.4  22.476  166.1  0.0339   10.1  0.1325 -146.9
 0.130  0.2580 -168.4  22.345  166.3  0.0350   13.9  0.1279 -151.2
 0.140  0.2608 -170.1  22.222  166.2  0.0342    7.8  0.1224 -154.0
 0.150  0.2548 -170.5  22.169  166.3  0.0349   11.4  0.1186 -156.3
 0.200  0.2459 -175.8  21.733  165.6  0.0351    7.7  0.1039 -166.3
 0.250  0.2368 -178.9  21.485  164.6  0.0347    4.8  0.0941 -171.4
 0.300  0.2310  179.9  21.249  163.4  0.0355    7.0  0.0902 -175.7
 0.350  0.2263  179.5  20.963  162.1  0.0360    6.8  0.0827 -179.4
 0.400  0.2223  178.9  20.769  160.8  0.0360    6.1  0.0807 -179.3
 0.450  0.2174  179.0  20.559  159.5  0.0367    4.6  0.0773 -178.8
 0.500  0.2163  179.5  20.394  158.1  0.0362    4.6  0.0744 -177.5
 0.600  0.2163 -179.4  20.052  155.1  0.0376    4.3  0.0733 -176.3
 0.700  0.2176 -179.0  19.701  152.2  0.0371    4.4  0.0729 -174.2
 0.800  0.2213 -178.0  19.377  149.3  0.0368    4.1  0.0755 -171.5
 0.900  0.2239 -178.0  19.041  146.2  0.0374    3.6  0.0788 -170.7
 1.000  0.2298 -177.4  18.709  143.3  0.0373    4.8  0.0833 -168.4
 1.100  0.2356 -177.1  18.368  140.5  0.0369    3.9  0.0886 -167.4
 1.200  0.2415 -177.1  18.029  137.6  0.0371    4.0  0.0944 -165.4
 1.300  0.2474 -177.9  17.653  134.7  0.0371    4.2  0.0995 -164.9
 1.400  0.2524 -177.5  17.268  132.0  0.0373    3.7  0.1051 -163.8
 1.500  0.2597 -177.9  16.919  129.5  0.0372    4.2  0.1116 -163.2
 1.600  0.2665 -178.5  16.589  126.7  0.0373    4.9  0.1183 -162.1
 1.700  0.2718 -178.7  16.212  124.1  0.0370    3.9  0.1244 -162.3
 1.800  0.2781 -179.4  15.831  121.6  0.0370    5.3  0.1307 -161.8
 1.900  0.2825 -179.9  15.466  119.3  0.0369    5.7  0.1381 -162.3
 2.000  0.2897  179.7  15.194  116.7  0.0374    5.1  0.1444 -161.4
 2.100  0.2945  178.7  14.806  114.3  0.0366    6.2  0.1517 -161.5
 2.200  0.2996  178.3  14.439  112.2  0.0365    5.2  0.1607 -160.7
 2.300  0.3042  177.4  14.130  110.0  0.0368    5.8  0.1663 -161.0
 2.400  0.3086  176.9  13.822  107.8  0.0371    5.8  0.1726 -160.2
 2.500  0.3124  176.1  13.479  105.5  0.0364    6.2  0.1791 -160.3
 2.600  0.3157  175.5  13.179  103.6  0.0366    6.6  0.1858 -159.7
 2.700  0.3189  174.9  12.861  101.6  0.0370    6.5  0.1905 -160.0
 2.800  0.3223  174.5  12.581   99.8  0.0365    6.9  0.1975 -159.2
 2.900  0.3273  173.7  12.319   97.7  0.0365    8.3  0.2027 -159.5
 3.000  0.3293  173.1  12.036   95.8  0.0371    8.0  0.2094 -159.3
 3.100  0.3335  172.3  11.789   93.9  0.0361    8.6  0.2130 -159.3
 3.200  0.3357  171.5  11.520   92.1  0.0364    8.7  0.2200 -159.3
 3.300  0.3395  170.9  11.268   90.4  0.0367    8.8  0.2247 -159.3
 3.400  0.3423  170.0  11.036   88.6  0.0370   10.1  0.2302 -159.4
 3.500  0.3463  169.4  10.814   86.9  0.0362    9.1  0.2336 -159.2
 3.600  0.3487  168.7  10.589   85.2  0.0370   10.0  0.2384 -159.4
 3.700  0.3515  167.9  10.370   83.5  0.0367   11.1  0.2413 -159.5
 3.800  0.3538  167.1  10.156   81.8  0.0369   11.0  0.2463 -159.6
 3.900  0.3577  166.3   9.958   80.2  0.0368   11.3  0.2487 -160.1
 4.000  0.3606  165.7   9.758   78.6  0.0371   11.8  0.2529 -160.4
 4.100  0.3650  164.8   9.578   77.0  0.0373   12.4  0.2559 -160.9
 4.200  0.3668  164.2   9.395   75.4  0.0371   13.3  0.2605 -161.1
 4.300  0.3715  163.5   9.212   73.9  0.0375   13.1  0.2617 -161.9
 4.400  0.3747  162.5   9.037   72.4  0.0375   13.5  0.2656 -162.4
 4.500  0.3784  161.9   8.877   71.0  0.0377   14.4  0.2693 -162.9
 4.600  0.3821  161.1   8.718   69.4  0.0377   14.8  0.2724 -163.4
 4.700  0.3857  160.5   8.573   67.9  0.0379   15.5  0.2752 -164.2
 4.800  0.3898  159.6   8.411   66.4  0.0379   16.2  0.2776 -164.8
 4.900  0.3922  158.9   8.269   65.0  0.0381   15.5  0.2797 -165.5
 5.000  0.3964  158.2   8.131   63.5  0.0380   16.4  0.2829 -166.2
 5.100  0.3994  157.3   7.986   62.1  0.0389   16.5  0.2842 -167.2
 5.200  0.4030  156.7   7.851   60.6  0.0385   17.2  0.2881 -168.0
 5.300  0.4070  155.8   7.717   59.2  0.0389   17.4  0.2903 -168.8
 5.400  0.4103  155.1   7.596   57.7  0.0389   17.6  0.2930 -169.4
 5.500  0.4138  154.2   7.469   56.3  0.0395   18.6  0.2957 -170.4
 5.600  0.4173  153.5   7.358   55.0  0.0399   18.7  0.2981 -171.1
 5.700  0.4189  152.7   7.222   53.5  0.0402   19.1  0.3009 -172.1
 5.800  0.4231  151.7   7.111   52.1  0.0401   19.7  0.3034 -173.1
 5.900  0.4250  151.1   6.997   50.8  0.0401   19.5  0.3054 -174.1
 6.000  0.4285  149.9   6.892   49.3  0.0405   20.0  0.3073 -175.0
 6.100  0.4308  149.1   6.779   47.9  0.0408   20.4  0.3085 -176.2
 6.200  0.4332  147.8   6.663   46.5  0.0407   21.0  0.3103 -177.3
 6.300  0.4357  147.0   6.558   45.1  0.0411   21.5  0.3110 -178.4
 6.400  0.4380  145.9   6.447   43.7  0.0413   22.0  0.3138 -179.5
 6.500  0.4402  144.7   6.348   42.3  0.0416   22.4  0.3137  179.6
 6.600  0.4409  143.7   6.237   41.0  0.0421   22.6  0.3153  178.3
 6.700  0.4438  142.5   6.133   39.7  0.0422   23.2  0.3150  177.5
 6.800  0.4449  141.5   6.034   38.3  0.0431   23.7  0.3148  176.4
 6.900  0.4475  140.4   5.935   37.0  0.0435   24.6  0.3143  175.4
 7.000  0.4486  139.4   5.839   35.7  0.0437   25.3  0.3142  174.0
 7.100  0.4517  138.2   5.740   34.4  0.0444   25.8  0.3157  172.7
 7.200  0.4528  137.5   5.649   33.2  0.0450   26.6  0.3166  171.8
 7.300  0.4565  136.3   5.560   31.9  0.0461   27.1  0.3185  170.5
 7.400  0.4591  135.4   5.474   30.7  0.0468   27.3  0.3198  169.3
 7.500  0.4646  134.5   5.396   29.5  0.0474   27.0  0.3238  167.8
 7.600  0.4686  133.8   5.320   28.4  0.0480   27.7  0.3263  166.6
 7.700  0.4754  132.9   5.245   27.0  0.0492   27.6  0.3308  164.8
 7.800  0.4804  132.2   5.170   25.8  0.0501   27.2  0.3344  163.2
 7.900  0.4880  131.3   5.095   24.5  0.0511   27.1  0.3397  161.2
 8.000  0.4939  130.8   5.029   23.3  0.0520   27.3  0.3455  159.7
 8.500  0.5356  127.2   4.678   16.7  0.0556   25.1  0.3826  149.8
 9.000  0.5774  124.1   4.322   10.1  0.0577   23.3  0.4311  140.1
 9.500  0.6152  119.6   3.949    3.7  0.0596   21.7  0.4868  132.1
10.000  0.6401  116.1   3.561   -2.1  0.0611   20.2  0.5453  125.7
10.500  0.6642  112.9   3.252   -6.9  0.0616   19.0  0.6015  121.3
11.000  0.6882  109.1   2.980  -11.5  0.0628   18.1  0.6514  119.3
11.500  0.7046  105.6   2.731  -15.5  0.0633   18.2  0.6856  120.3
12.000  0.7124  103.2   2.491  -18.5  0.0644   19.2  0.7192  123.9
!
!  f       NFmin   Gammaopt  rn/50
! GHz       dB    MAG  ANG    -
!
! noise parameter not available yet for this operation point!
!
! (c) 2013  Infineon Technologies AG, Munich
