! Infineon Technologies  Discrete & RF Semiconductors
! BFP840ESD
! VCE =  0.5 V,  IC =  24 mA
! Common Emitter S-Parameters:                            May 2012
# GHz  S  MA  R  50
!  f         S11            S21            S12            S22
! GHz     MAG   ANG      MAG   ANG      MAG   ANG      MAG   ANG
 0.030  0.3211   -9.6   9.760  177.1  0.0068   15.5  0.0415   -0.3
 0.080  0.3268  -25.0   9.546  171.6  0.0091   30.7  0.0434  -17.8
 0.130  0.3428  -39.4   9.482  166.2  0.0099   31.8  0.0472  -30.8
 0.180  0.3614  -52.5   9.222  161.0  0.0122   40.3  0.0493  -44.2
 0.230  0.3855  -64.0   8.943  156.0  0.0142   43.2  0.0530  -54.9
 0.280  0.4108  -74.3   8.620  151.1  0.0162   46.1  0.0563  -64.7
 0.330  0.4361  -83.4   8.320  146.6  0.0182   46.1  0.0597  -74.1
 0.380  0.4608  -91.6   7.961  142.3  0.0202   45.6  0.0639  -83.0
 0.430  0.4843  -98.8   7.628  138.2  0.0219   44.7  0.0678  -90.8
 0.500  0.5160 -107.7   7.168  132.9  0.0244   43.6  0.0728 -100.2
 0.600  0.5541 -118.6   6.541  126.2  0.0271   41.2  0.0806 -112.0
 0.700  0.5846 -127.7   6.022  120.2  0.0294   39.0  0.0868 -122.1
 0.800  0.6113 -135.3   5.554  114.9  0.0314   36.7  0.0939 -130.9
 0.900  0.6325 -142.1   5.120  110.1  0.0331   34.9  0.0992 -138.2
 1.000  0.6511 -148.2   4.735  105.7  0.0346   32.8  0.1050 -144.3
 1.100  0.6666 -153.5   4.404  101.7  0.0358   31.2  0.1100 -150.3
 1.200  0.6801 -158.3   4.106   97.9  0.0368   29.9  0.1153 -155.0
 1.300  0.6907 -162.6   3.847   94.5  0.0378   29.1  0.1194 -159.8
 1.400  0.7009 -166.7   3.610   91.2  0.0387   27.7  0.1247 -163.7
 1.500  0.7093 -170.5   3.396   88.1  0.0395   26.9  0.1289 -167.4
 1.600  0.7167 -173.9   3.210   85.3  0.0398   25.9  0.1338 -170.7
 1.700  0.7234 -177.3   3.037   82.4  0.0408   25.5  0.1374 -173.9
 1.800  0.7294  179.6   2.879   79.8  0.0411   24.4  0.1418 -176.6
 1.900  0.7347  176.7   2.737   77.2  0.0419   24.1  0.1454 -179.4
 2.000  0.7397  173.9   2.608   74.8  0.0425   23.3  0.1497  177.9
 2.100  0.7428  171.1   2.488   72.3  0.0430   22.7  0.1528  175.5
 2.200  0.7473  168.6   2.380   69.9  0.0435   22.3  0.1563  173.2
 2.300  0.7519  166.1   2.279   67.6  0.0440   22.0  0.1601  170.7
 2.400  0.7557  163.7   2.185   65.4  0.0445   21.3  0.1642  168.3
 2.500  0.7594  161.5   2.099   63.2  0.0452   21.2  0.1686  165.9
 2.600  0.7616  159.1   2.015   61.0  0.0455   20.8  0.1731  163.8
 2.700  0.7647  157.0   1.940   58.9  0.0462   20.4  0.1777  161.7
 2.800  0.7666  154.8   1.866   56.8  0.0468   20.2  0.1826  159.5
 2.900  0.7703  152.7   1.799   54.8  0.0471   19.7  0.1881  157.6
 3.000  0.7722  150.7   1.734   52.8  0.0476   19.3  0.1933  155.7
 3.100  0.7748  148.8   1.674   50.9  0.0482   19.2  0.1994  153.9
 3.200  0.7766  146.8   1.616   48.9  0.0489   18.9  0.2051  152.2
 3.300  0.7788  144.8   1.562   47.0  0.0494   18.4  0.2112  150.6
 3.400  0.7807  143.0   1.511   45.2  0.0499   17.9  0.2172  149.2
 3.500  0.7829  141.1   1.462   43.4  0.0506   17.5  0.2237  147.7
 3.600  0.7852  139.3   1.417   41.6  0.0510   17.5  0.2300  146.4
 3.700  0.7879  137.6   1.373   39.8  0.0515   17.1  0.2363  145.1
 3.800  0.7895  135.8   1.331   38.1  0.0519   16.6  0.2428  143.9
 3.900  0.7922  134.2   1.290   36.4  0.0525   16.3  0.2492  142.8
 4.000  0.7949  132.5   1.252   34.8  0.0527   15.8  0.2549  141.7
 4.100  0.7969  130.9   1.216   33.1  0.0533   15.3  0.2611  140.7
 4.200  0.8001  129.4   1.182   31.5  0.0540   15.3  0.2666  139.7
 4.300  0.8027  128.1   1.149   29.9  0.0544   14.9  0.2723  138.7
 4.400  0.8053  126.7   1.118   28.4  0.0550   14.6  0.2771  137.8
 4.500  0.8077  125.3   1.089   26.8  0.0554   14.3  0.2823  136.9
 4.600  0.8097  124.0   1.061   25.3  0.0558   13.9  0.2871  136.0
 4.700  0.8124  122.8   1.035   23.8  0.0565   13.6  0.2915  135.1
 4.800  0.8142  121.6   1.008   22.4  0.0568   13.3  0.2957  134.1
 4.900  0.8159  120.4   0.983   20.9  0.0576   12.8  0.2998  133.2
 5.000  0.8178  119.3   0.960   19.5  0.0581   12.7  0.3039  132.1
 5.100  0.8190  118.1   0.938   18.1  0.0587   12.4  0.3080  131.2
 5.200  0.8207  117.0   0.917   16.6  0.0592   11.8  0.3115  130.0
 5.300  0.8213  116.0   0.895   15.3  0.0600   11.6  0.3159  128.9
 5.400  0.8220  115.0   0.876   13.9  0.0603   11.5  0.3196  127.9
 5.500  0.8231  113.9   0.857   12.5  0.0609   11.0  0.3242  126.7
 5.600  0.8236  112.9   0.839   11.2  0.0617   10.9  0.3280  125.6
 5.700  0.8232  111.9   0.820    9.9  0.0622   10.5  0.3324  124.6
 5.800  0.8234  111.0   0.804    8.6  0.0630   10.0  0.3369  123.4
 5.900  0.8241  110.1   0.788    7.3  0.0637    9.8  0.3420  122.4
 6.000  0.8247  109.2   0.774    6.0  0.0646    9.4  0.3466  121.3
 6.100  0.8254  108.2   0.759    4.8  0.0655    8.9  0.3523  120.4
 6.200  0.8263  107.2   0.745    3.4  0.0664    8.3  0.3569  119.3
 6.300  0.8281  106.3   0.732    2.1  0.0672    7.8  0.3631  118.4
 6.400  0.8290  105.3   0.719    0.8  0.0680    7.1  0.3680  117.4
 6.500  0.8301  104.2   0.707   -0.6  0.0687    6.4  0.3743  116.4
 6.600  0.8316  103.2   0.696   -1.9  0.0695    5.8  0.3794  115.5
 6.700  0.8333  102.1   0.684   -3.3  0.0703    5.1  0.3851  114.7
 6.800  0.8339  101.0   0.672   -4.5  0.0710    4.4  0.3900  113.8
 6.900  0.8350   99.9   0.661   -5.9  0.0719    3.8  0.3952  113.0
 7.000  0.8360   98.8   0.651   -7.3  0.0724    2.9  0.3994  112.0
 7.100  0.8380   97.6   0.641   -8.6  0.0732    2.0  0.4046  111.1
 7.200  0.8389   96.4   0.631  -10.0  0.0737    1.2  0.4084  110.1
 7.300  0.8406   95.2   0.620  -11.4  0.0743    0.4  0.4132  109.1
 7.400  0.8405   93.9   0.610  -12.8  0.0749   -0.4  0.4171  108.0
 7.500  0.8432   92.6   0.600  -14.3  0.0755   -1.2  0.4216  106.9
 7.600  0.8438   91.3   0.591  -15.7  0.0759   -2.2  0.4254  105.7
 7.700  0.8467   90.0   0.580  -17.0  0.0764   -3.0  0.4290  104.5
 7.800  0.8480   88.6   0.570  -18.5  0.0767   -3.9  0.4326  103.2
 7.900  0.8507   87.3   0.560  -20.0  0.0770   -4.8  0.4369  101.9
 8.000  0.8526   85.9   0.549  -21.5  0.0773   -5.6  0.4413  100.4
 8.500  0.8662   79.5   0.497  -28.3  0.0781   -9.5  0.4699   93.2
 9.000  0.8770   73.9   0.444  -34.2  0.0782  -13.2  0.5117   86.8
 9.500  0.8813   69.8   0.396  -38.5  0.0778  -16.0  0.5589   82.5
10.000  0.8819   67.1   0.361  -41.5  0.0779  -18.1  0.5985   80.4
10.500  0.8866   65.2   0.339  -43.9  0.0781  -20.2  0.6230   79.9
11.000  0.8991   63.7   0.323  -47.1  0.0791  -21.4  0.6362   79.7
11.500  0.9194   62.0   0.309  -51.5  0.0816  -23.3  0.6391   78.6
12.000  0.9261   60.3   0.290  -56.3  0.0845  -25.8  0.6417   76.4
!
!  f       NFmin   Gammaopt  rn/50
! GHz       dB    MAG  ANG    -
!
! noise parameter not available yet for this operation point!
!
! (c) 2012  Infineon Technologies AG, Munich
