! Infineon Technologies  Discrete & RF Semiconductors
! BFP843
! VCE =  1.5 V,  IC =  10 mA
! Common Emitter S-Parameters:                            Aug 2013
# GHz  S  MA  R  50
!  f         S11            S21            S12            S22
! GHz     MAG   ANG      MAG   ANG      MAG   ANG      MAG   ANG
 0.030  0.4416  -44.1  18.469  162.1  0.0446   30.4  0.5056  -39.1
 0.040  0.3591  -45.2  17.262  163.3  0.0474   22.5  0.4178  -39.8
 0.050  0.3077  -43.5  16.580  165.7  0.0466   17.3  0.3661  -38.0
 0.060  0.2720  -43.4  16.186  166.1  0.0508   13.6  0.3291  -37.9
 0.070  0.2483  -40.3  15.782  167.2  0.0508   16.1  0.3092  -34.0
 0.080  0.2326  -37.2  15.646  167.6  0.0505   11.2  0.2868  -32.7
 0.090  0.2217  -36.1  15.526  167.8  0.0521   13.1  0.2795  -31.2
 0.100  0.2092  -32.8  15.324  168.2  0.0515   13.5  0.2674  -28.5
 0.110  0.2025  -33.0  15.324  168.3  0.0531    9.0  0.2621  -26.5
 0.120  0.1986  -29.9  15.199  168.3  0.0505    8.8  0.2590  -25.8
 0.130  0.1946  -29.3  15.226  168.5  0.0516    7.1  0.2551  -24.3
 0.140  0.1884  -27.8  15.146  168.1  0.0510    8.9  0.2534  -23.3
 0.150  0.1913  -27.5  15.088  168.1  0.0517    7.3  0.2515  -22.5
 0.200  0.1864  -22.4  14.793  167.3  0.0522    5.1  0.2468  -20.5
 0.250  0.1849  -21.8  14.721  165.9  0.0544    5.2  0.2471  -19.8
 0.300  0.1870  -22.4  14.539  164.7  0.0534    3.4  0.2446  -20.7
 0.350  0.1844  -23.2  14.425  163.1  0.0539    3.3  0.2471  -21.6
 0.400  0.1843  -25.3  14.322  161.6  0.0527    2.5  0.2439  -23.3
 0.450  0.1855  -26.8  14.242  160.2  0.0540    1.4  0.2439  -24.8
 0.500  0.1859  -28.7  14.164  158.6  0.0539    1.1  0.2436  -27.2
 0.600  0.1839  -33.4  13.985  155.2  0.0533    0.9  0.2415  -31.0
 0.700  0.1818  -38.3  13.819  151.8  0.0535   -0.3  0.2410  -35.2
 0.800  0.1820  -42.9  13.620  148.5  0.0533   -0.6  0.2371  -40.0
 0.900  0.1800  -47.7  13.433  145.2  0.0542   -1.3  0.2353  -44.5
 1.000  0.1779  -53.0  13.251  141.9  0.0539   -1.9  0.2328  -49.3
 1.100  0.1769  -58.0  13.034  138.7  0.0537   -2.0  0.2318  -54.1
 1.200  0.1754  -63.3  12.822  135.4  0.0541   -3.0  0.2298  -58.8
 1.300  0.1732  -68.1  12.593  132.2  0.0541   -3.3  0.2266  -63.7
 1.400  0.1747  -73.4  12.388  129.1  0.0540   -3.9  0.2264  -67.9
 1.500  0.1720  -78.9  12.164  126.1  0.0539   -4.1  0.2246  -72.9
 1.600  0.1729  -83.8  11.933  123.0  0.0537   -4.9  0.2238  -77.4
 1.700  0.1731  -89.1  11.716  120.0  0.0537   -5.3  0.2232  -81.7
 1.800  0.1733  -94.5  11.481  117.1  0.0531   -5.7  0.2221  -86.6
 1.900  0.1733  -99.5  11.262  114.3  0.0537   -6.1  0.2219  -90.7
 2.000  0.1758 -104.5  11.048  111.4  0.0531   -7.0  0.2209  -95.5
 2.100  0.1772 -109.2  10.813  108.6  0.0532   -7.7  0.2214  -99.8
 2.200  0.1790 -114.3  10.595  106.0  0.0524   -7.6  0.2220 -103.9
 2.300  0.1811 -118.6  10.391  103.3  0.0529   -8.6  0.2219 -108.1
 2.400  0.1831 -123.3  10.198  100.6  0.0522   -8.7  0.2224 -112.0
 2.500  0.1851 -127.8   9.972   98.0  0.0516   -9.3  0.2230 -116.3
 2.600  0.1866 -132.0   9.784   95.4  0.0514   -9.9  0.2239 -119.9
 2.700  0.1901 -136.0   9.555   93.0  0.0513  -10.3  0.2231 -124.3
 2.800  0.1928 -140.4   9.376   90.5  0.0510  -10.4  0.2253 -127.7
 2.900  0.1963 -144.3   9.181   88.1  0.0501  -10.7  0.2269 -131.9
 3.000  0.1988 -148.8   9.007   85.5  0.0504  -11.2  0.2290 -135.5
 3.100  0.2038 -152.3   8.825   83.2  0.0499  -11.3  0.2308 -139.6
 3.200  0.2074 -156.2   8.645   80.8  0.0497  -11.8  0.2337 -143.1
 3.300  0.2111 -160.0   8.473   78.4  0.0490  -11.3  0.2367 -146.8
 3.400  0.2161 -163.6   8.306   76.2  0.0487  -11.6  0.2415 -150.1
 3.500  0.2201 -166.7   8.138   73.9  0.0483  -12.4  0.2445 -153.2
 3.600  0.2251 -170.2   7.966   71.6  0.0478  -12.5  0.2485 -156.5
 3.700  0.2295 -173.3   7.813   69.4  0.0475  -12.5  0.2529 -159.8
 3.800  0.2356 -176.6   7.662   67.2  0.0466  -13.0  0.2587 -162.6
 3.900  0.2408 -179.8   7.503   65.0  0.0464  -12.4  0.2638 -165.5
 4.000  0.2469  177.5   7.361   62.9  0.0454  -12.5  0.2697 -168.0
 4.100  0.2534  175.1   7.200   60.8  0.0451  -11.8  0.2757 -171.0
 4.200  0.2594  172.3   7.070   58.7  0.0453  -12.0  0.2817 -173.0
 4.300  0.2665  170.1   6.922   56.6  0.0445  -12.2  0.2869 -175.4
 4.400  0.2754  167.3   6.790   54.6  0.0444  -11.2  0.2928 -177.3
 4.500  0.2806  165.6   6.650   52.5  0.0438  -11.2  0.2982 -179.4
 4.600  0.2889  163.6   6.520   50.6  0.0432  -10.7  0.3047  178.6
 4.700  0.2953  161.7   6.408   48.5  0.0432  -10.1  0.3105  176.7
 4.800  0.3047  159.8   6.281   46.6  0.0429  -10.3  0.3165  175.0
 4.900  0.3107  158.2   6.164   44.7  0.0422   -9.8  0.3214  173.3
 5.000  0.3185  156.7   6.046   42.7  0.0422   -9.0  0.3276  171.7
 5.100  0.3248  155.1   5.933   40.9  0.0422   -8.5  0.3321  169.9
 5.200  0.3330  153.7   5.825   39.0  0.0419   -8.3  0.3385  168.6
 5.300  0.3409  152.3   5.721   37.1  0.0415   -7.1  0.3439  167.1
 5.400  0.3465  151.0   5.619   35.2  0.0416   -6.0  0.3478  165.6
 5.500  0.3537  149.6   5.514   33.4  0.0415   -5.8  0.3531  164.0
 5.600  0.3598  148.8   5.417   31.6  0.0416   -5.2  0.3579  162.7
 5.700  0.3636  147.5   5.315   29.8  0.0418   -3.8  0.3632  161.1
 5.800  0.3705  146.4   5.223   28.1  0.0415   -3.7  0.3677  159.8
 5.900  0.3745  145.5   5.143   26.4  0.0414   -2.7  0.3731  158.5
 6.000  0.3812  144.3   5.051   24.6  0.0420   -1.5  0.3782  157.2
 6.100  0.3869  143.4   4.969   22.8  0.0427   -0.9  0.3840  155.6
 6.200  0.3921  142.2   4.885   21.0  0.0426   -0.6  0.3892  154.2
 6.300  0.3988  141.0   4.813   19.3  0.0436    0.6  0.3947  152.8
 6.400  0.4032  140.0   4.733   17.5  0.0442    1.2  0.4011  151.6
 6.500  0.4091  138.8   4.653   15.9  0.0443    1.9  0.4056  150.1
 6.600  0.4134  137.4   4.583   14.1  0.0448    1.9  0.4120  148.8
 6.700  0.4198  136.3   4.513   12.5  0.0456    2.5  0.4171  147.5
 6.800  0.4236  134.8   4.449   10.6  0.0462    3.3  0.4231  146.3
 6.900  0.4286  133.7   4.375    9.0  0.0470    3.6  0.4289  144.8
 7.000  0.4323  132.0   4.309    7.2  0.0476    4.2  0.4365  143.5
 7.100  0.4387  130.5   4.246    5.5  0.0484    4.1  0.4421  142.1
 7.200  0.4435  129.1   4.186    3.8  0.0489    4.7  0.4485  140.9
 7.300  0.4503  127.4   4.131    1.9  0.0503    4.6  0.4545  139.5
 7.400  0.4556  126.0   4.069    0.2  0.0509    5.1  0.4618  138.2
 7.500  0.4620  124.3   4.010   -1.6  0.0521    4.9  0.4679  136.7
 7.600  0.4689  122.8   3.952   -3.4  0.0527    4.7  0.4748  135.3
 7.700  0.4777  121.1   3.895   -5.3  0.0538    5.0  0.4822  133.7
 7.800  0.4851  119.5   3.841   -7.1  0.0552    4.4  0.4892  132.3
 7.900  0.4940  117.8   3.782   -9.0  0.0554    4.3  0.4968  130.7
 8.000  0.5021  116.3   3.728  -10.9  0.0566    3.8  0.5047  129.1
 8.500  0.5517  108.1   3.411  -20.6  0.0611    2.1  0.5467  120.6
 9.000  0.6022   97.9   3.065  -29.9  0.0645   -1.3  0.5973  112.0
 9.500  0.6456   90.9   2.700  -37.7  0.0666   -3.9  0.6464  104.5
10.000  0.6849   86.3   2.404  -43.6  0.0688   -5.5  0.6899   99.2
10.500  0.7267   82.4   2.195  -49.4  0.0708   -6.8  0.7253   96.3
11.000  0.7513   79.1   2.009  -55.2  0.0743   -8.4  0.7622   94.9
11.500  0.7645   76.7   1.856  -60.5  0.0790  -10.6  0.7817   93.1
12.000  0.7690   75.1   1.726  -65.6  0.0831  -13.8  0.7946   90.4
!
!  f       NFmin   Gammaopt  rn/50
! GHz       dB    MAG  ANG    -
 0.450      0.92  0.06    5   0.02
 0.900      0.93  0.06   16   0.04
 1.500      0.95  0.06   26   0.10
 1.900      0.97  0.06   34   0.18
 2.400      1.00  0.04   44   0.24
 3.500      1.06  0.02   59   0.27
 5.500      1.19  0.17 -124   0.32
10.000      1.82  0.50  -67   0.43
!
! (c) 2013  Infineon Technologies AG, Munich
