! Infineon Technologies  Discrete & RF Semiconductors
! BFP842ESD
! VCE =  1.5 V,  IC =  12 mA
! Common Emitter S-Parameters:                            May 2012
# GHz  S  MA  R  50
!  f         S11            S21            S12            S22
! GHz     MAG   ANG      MAG   ANG      MAG   ANG      MAG   ANG
 0.030  0.8505   -2.3  32.000  176.9  0.0005 -153.6  0.9881   -1.4
 0.040  0.8496   -3.2  31.940  175.7  0.0013  -16.6  0.9915   -2.0
 0.050  0.8423   -4.1  31.726  174.5  0.0018   38.7  0.9896   -3.0
 0.060  0.8532   -4.9  32.207  173.6  0.0070  100.5  1.0000   -3.2
 0.070  0.8492   -5.1  31.841  172.8  0.0030  165.7  0.9957   -3.4
 0.080  0.8463   -6.1  31.882  171.7  0.0009   59.5  0.9873   -4.3
 0.090  0.8467   -7.0  31.447  171.1  0.0048   83.3  0.9895   -5.1
 0.100  0.8434   -7.9  31.668  170.1  0.0050   90.1  0.9869   -5.8
 0.110  0.8396   -8.7  31.865  168.8  0.0039   79.8  0.9863   -6.3
 0.120  0.8401   -9.6  31.656  168.1  0.0039   69.1  0.9860   -7.0
 0.130  0.8390  -10.1  31.342  167.0  0.0031   81.5  0.9834   -7.7
 0.140  0.8357  -10.9  31.379  166.2  0.0062   76.2  0.9838   -8.4
 0.150  0.8306  -11.6  31.407  165.1  0.0065   89.6  0.9784   -8.9
 0.200  0.8165  -15.3  30.763  160.6  0.0096   76.1  0.9667  -11.9
 0.250  0.7994  -18.9  30.196  155.9  0.0101   82.3  0.9470  -14.6
 0.300  0.7778  -22.3  29.287  151.5  0.0108   69.4  0.9319  -17.2
 0.350  0.7588  -25.5  28.535  147.4  0.0132   76.4  0.9142  -19.7
 0.400  0.7362  -28.6  27.602  143.4  0.0148   69.5  0.8915  -22.0
 0.450  0.7126  -31.3  26.678  139.6  0.0160   71.1  0.8712  -24.1
 0.500  0.6876  -34.0  25.831  136.1  0.0184   71.8  0.8508  -26.0
 0.600  0.6419  -38.6  23.967  129.6  0.0209   67.4  0.8096  -29.5
 0.700  0.5976  -42.5  22.299  123.9  0.0234   64.5  0.7713  -32.5
 0.800  0.5545  -46.1  20.719  118.4  0.0261   64.9  0.7379  -35.1
 0.900  0.5163  -49.0  19.296  113.8  0.0285   61.8  0.7058  -37.4
 1.000  0.4819  -51.6  18.028  109.4  0.0313   60.0  0.6788  -39.5
 1.100  0.4496  -54.0  16.865  105.4  0.0328   59.4  0.6544  -41.5
 1.200  0.4213  -56.2  15.800  101.7  0.0351   59.2  0.6330  -43.2
 1.300  0.3961  -58.0  14.867   98.4  0.0373   57.2  0.6138  -45.1
 1.400  0.3728  -59.5  14.028   95.1  0.0396   56.4  0.5960  -46.6
 1.500  0.3524  -60.8  13.251   92.0  0.0417   55.9  0.5818  -48.3
 1.600  0.3342  -62.3  12.545   89.1  0.0437   55.5  0.5695  -49.9
 1.700  0.3150  -63.4  11.925   86.4  0.0457   54.0  0.5546  -51.5
 1.800  0.3006  -64.7  11.373   83.8  0.0479   53.2  0.5445  -53.1
 1.900  0.2850  -65.7  10.840   81.2  0.0500   52.5  0.5335  -54.7
 2.000  0.2707  -66.8  10.330   78.7  0.0518   51.4  0.5243  -56.5
 2.100  0.2575  -67.7   9.898   76.3  0.0541   50.7  0.5154  -58.3
 2.200  0.2464  -68.7   9.505   74.0  0.0559   49.2  0.5069  -59.9
 2.300  0.2342  -69.4   9.119   71.7  0.0589   47.9  0.4999  -61.7
 2.400  0.2250  -70.1   8.749   69.5  0.0602   46.9  0.4922  -63.5
 2.500  0.2145  -70.9   8.427   67.3  0.0619   45.5  0.4844  -65.3
 2.600  0.2046  -71.4   8.136   65.2  0.0644   45.3  0.4776  -67.1
 2.700  0.1952  -72.2   7.843   63.0  0.0668   44.1  0.4700  -69.1
 2.800  0.1863  -72.8   7.578   61.0  0.0686   43.0  0.4637  -71.0
 2.900  0.1766  -73.6   7.328   58.8  0.0705   41.4  0.4586  -73.2
 3.000  0.1690  -74.1   7.095   56.9  0.0726   40.8  0.4510  -75.2
 3.100  0.1601  -75.0   6.881   54.9  0.0748   39.5  0.4447  -77.4
 3.200  0.1528  -76.1   6.664   52.9  0.0770   38.6  0.4389  -79.7
 3.300  0.1450  -76.7   6.464   50.8  0.0793   37.6  0.4341  -82.0
 3.400  0.1367  -77.9   6.279   48.9  0.0813   36.3  0.4272  -84.5
 3.500  0.1294  -78.0   6.101   46.9  0.0830   35.2  0.4226  -86.9
 3.600  0.1224  -78.4   5.927   44.9  0.0848   33.5  0.4171  -89.3
 3.700  0.1155  -79.4   5.772   43.0  0.0873   32.4  0.4137  -91.8
 3.800  0.1088  -80.2   5.611   41.0  0.0894   31.5  0.4093  -94.3
 3.900  0.1015  -80.6   5.459   39.1  0.0914   30.6  0.4046  -96.8
 4.000  0.0949  -81.7   5.309   37.1  0.0933   29.1  0.4002  -99.4
 4.100  0.0888  -82.0   5.173   35.2  0.0948   27.6  0.3975 -102.0
 4.200  0.0838  -83.2   5.037   33.2  0.0967   26.4  0.3942 -104.9
 4.300  0.0802  -83.5   4.910   31.4  0.0988   25.0  0.3924 -107.5
 4.400  0.0756  -84.1   4.782   29.5  0.1010   23.8  0.3898 -110.0
 4.500  0.0714  -84.7   4.665   27.5  0.1025   22.6  0.3887 -112.6
 4.600  0.0681  -85.8   4.554   25.6  0.1044   21.0  0.3873 -115.3
 4.700  0.0661  -86.5   4.440   23.8  0.1061   19.8  0.3865 -117.7
 4.800  0.0642  -87.4   4.330   21.9  0.1074   18.1  0.3857 -120.3
 4.900  0.0623  -87.2   4.222   20.0  0.1091   17.2  0.3849 -122.7
 5.000  0.0606  -87.8   4.119   18.1  0.1108   15.6  0.3847 -125.1
 5.100  0.0591  -88.7   4.020   16.3  0.1121   14.0  0.3842 -127.5
 5.200  0.0600  -89.5   3.924   14.5  0.1136   12.9  0.3853 -129.8
 5.300  0.0603  -90.2   3.833   12.6  0.1150   11.7  0.3848 -132.1
 5.400  0.0610  -90.1   3.745   10.8  0.1170   10.4  0.3861 -134.3
 5.500  0.0612  -90.3   3.657    8.9  0.1180    9.1  0.3857 -136.5
 5.600  0.0632  -91.5   3.572    7.1  0.1196    7.7  0.3867 -138.9
 5.700  0.0639  -92.4   3.491    5.3  0.1211    6.2  0.3867 -141.1
 5.800  0.0676  -94.1   3.409    3.5  0.1220    4.7  0.3898 -143.3
 5.900  0.0693  -94.6   3.334    1.6  0.1237    3.3  0.3901 -145.4
 6.000  0.0740  -95.1   3.258   -0.2  0.1251    2.1  0.3938 -147.7
 6.100  0.0758  -96.3   3.186   -2.0  0.1267    0.7  0.3953 -150.0
 6.200  0.0798  -97.8   3.115   -3.9  0.1280   -0.4  0.3996 -152.4
 6.300  0.0830  -99.4   3.046   -5.6  0.1290   -1.9  0.4021 -154.5
 6.400  0.0878 -100.3   2.981   -7.5  0.1305   -3.3  0.4054 -156.7
 6.500  0.0906 -100.7   2.912   -9.5  0.1317   -4.9  0.4087 -159.2
 6.600  0.0956 -102.2   2.847  -11.3  0.1333   -6.5  0.4121 -161.5
 6.700  0.0990 -102.7   2.785  -13.1  0.1345   -7.9  0.4160 -163.8
 6.800  0.1035 -103.7   2.721  -15.0  0.1352   -9.2  0.4199 -166.1
 6.900  0.1077 -104.9   2.658  -16.8  0.1362  -10.8  0.4254 -168.2
 7.000  0.1124 -106.2   2.601  -18.7  0.1376  -12.2  0.4287 -170.6
 7.100  0.1173 -107.6   2.541  -20.6  0.1386  -13.8  0.4338 -172.8
 7.200  0.1213 -109.4   2.483  -22.5  0.1394  -15.3  0.4373 -175.3
 7.300  0.1269 -110.7   2.428  -24.4  0.1408  -16.8  0.4436 -177.5
 7.400  0.1318 -111.7   2.369  -26.3  0.1415  -18.4  0.4480 -179.9
 7.500  0.1366 -114.0   2.316  -28.2  0.1423  -20.2  0.4527  177.9
 7.600  0.1414 -115.7   2.267  -30.2  0.1434  -21.8  0.4575  175.7
 7.700  0.1449 -117.6   2.213  -32.1  0.1442  -23.4  0.4624  173.3
 7.800  0.1499 -119.7   2.160  -34.1  0.1449  -25.2  0.4663  170.9
 7.900  0.1537 -122.0   2.108  -36.1  0.1451  -26.8  0.4728  168.5
 8.000  0.1574 -124.5   2.055  -38.1  0.1457  -28.4  0.4764  166.1
 8.500  0.1819 -139.2   1.796  -48.7  0.1469  -37.8  0.5047  153.7
 9.000  0.2215 -158.2   1.530  -59.7  0.1450  -47.7  0.5436  141.0
 9.500  0.2959 -177.3   1.249  -70.7  0.1382  -58.3  0.5961  129.9
10.000  0.4076  167.5   0.967  -80.5  0.1266  -68.2  0.6573  121.5
!
!  f       NFmin   Gammaopt  rn/50
! GHz       dB    MAG  ANG    -
 0.450      0.63  0.11    0   0.11
 0.900      0.64  0.11    2   0.10
 1.500      0.65  0.11    6   0.09
 1.900      0.66  0.10   15   0.08
 2.400      0.67  0.08   19   0.08
 3.500      0.74  0.03  146   0.08
 4.000      0.78  0.05 -160   0.07
 5.000      0.85  0.08 -132   0.07
 5.500      0.95  0.10 -127   0.08
 6.000      1.05  0.11 -121   0.10
!
! (c) 2012  Infineon Technologies AG, Munich
