! Infineon Technologies  Discrete & RF Semiconductors
! BFP840FESD
! VCE =  0.5 V,  IC =  9.0 mA
! Common Emitter S-Parameters:                            May 2012
# GHz  S  MA  R  50
!  f         S11            S21            S12            S22
! GHz     MAG   ANG      MAG   ANG      MAG   ANG      MAG   ANG
 0.030  0.8881   -1.7  21.813  177.7  0.0009   93.4  0.9782   -0.6
 0.040  0.8914   -2.2  22.140  177.3  0.0012   84.3  0.9806   -1.1
 0.050  0.8946   -2.9  22.550  178.2  0.0017   59.3  0.9839   -1.6
 0.060  0.8972   -3.2  22.770  177.7  0.0015   84.4  0.9829   -1.9
 0.070  0.8999   -3.7  22.989  177.3  0.0021   88.8  0.9836   -2.4
 0.080  0.8996   -4.3  23.073  176.7  0.0024   84.5  0.9843   -2.9
 0.090  0.8992   -4.9  23.005  176.1  0.0026   85.1  0.9855   -3.3
 0.100  0.8967   -5.5  22.847  175.7  0.0029   89.5  0.9858   -3.8
 0.110  0.8943   -6.1  22.629  175.2  0.0034   89.7  0.9857   -4.3
 0.120  0.8925   -6.7  22.504  174.8  0.0036   81.9  0.9854   -4.7
 0.130  0.8907   -7.2  22.437  174.3  0.0042   86.4  0.9850   -5.2
 0.140  0.8901   -7.8  22.464  173.9  0.0047   86.5  0.9847   -5.6
 0.150  0.8906   -8.3  22.578  173.4  0.0049   84.3  0.9845   -6.0
 0.200  0.8886  -11.0  22.591  171.0  0.0065   84.8  0.9824   -8.2
 0.250  0.8855  -13.5  22.599  168.8  0.0082   82.2  0.9784  -10.3
 0.300  0.8831  -16.0  22.660  166.5  0.0095   80.4  0.9732  -12.4
 0.350  0.8765  -18.8  22.294  164.1  0.0110   79.2  0.9692  -14.5
 0.400  0.8669  -21.4  21.977  162.3  0.0126   77.1  0.9609  -16.5
 0.450  0.8714  -23.1  22.443  160.2  0.0140   75.6  0.9558  -18.4
 0.500  0.8567  -26.3  21.645  158.1  0.0155   74.3  0.9482  -20.5
 0.600  0.8452  -30.7  21.408  154.4  0.0185   71.6  0.9319  -24.4
 0.700  0.8320  -35.5  20.921  150.6  0.0212   69.0  0.9157  -28.2
 0.800  0.8215  -39.6  20.780  147.3  0.0238   66.2  0.8979  -31.9
 0.900  0.8067  -43.9  20.277  144.0  0.0263   63.7  0.8787  -35.6
 1.000  0.7940  -48.0  19.834  140.7  0.0284   61.0  0.8592  -39.2
 1.100  0.7786  -52.1  19.366  137.7  0.0308   58.4  0.8397  -42.7
 1.200  0.7636  -56.1  18.958  134.6  0.0327   56.1  0.8191  -46.2
 1.300  0.7506  -59.8  18.586  131.7  0.0347   53.7  0.7989  -49.5
 1.400  0.7388  -63.3  18.235  129.2  0.0364   51.4  0.7783  -52.8
 1.500  0.7227  -67.2  17.775  126.4  0.0380   49.4  0.7583  -56.1
 1.600  0.7093  -70.9  17.460  123.7  0.0394   47.3  0.7389  -59.3
 1.700  0.6916  -74.8  16.813  120.9  0.0408   45.3  0.7200  -62.5
 1.800  0.6816  -78.2  16.382  118.4  0.0421   43.4  0.7038  -65.6
 1.900  0.6679  -81.1  15.992  116.3  0.0431   41.8  0.6859  -68.6
 2.000  0.6567  -84.4  15.615  113.9  0.0440   39.9  0.6700  -71.4
 2.100  0.6454  -87.6  15.204  111.6  0.0451   38.4  0.6550  -74.3
 2.200  0.6341  -90.8  14.770  109.4  0.0459   36.6  0.6417  -77.0
 2.300  0.6236  -93.7  14.380  107.3  0.0464   35.4  0.6269  -79.6
 2.400  0.6158  -96.3  14.031  105.3  0.0470   33.9  0.6165  -82.0
 2.500  0.6056  -98.7  13.702  103.5  0.0477   32.7  0.6025  -84.4
 2.600  0.5966 -101.5  13.311  101.6  0.0481   31.5  0.5916  -86.8
 2.700  0.5870 -104.0  12.996   99.8  0.0486   30.5  0.5795  -89.0
 2.800  0.5793 -106.7  12.648   98.1  0.0490   29.5  0.5694  -91.3
 2.900  0.5726 -108.9  12.371   96.4  0.0494   28.5  0.5611  -93.3
 3.000  0.5655 -111.2  12.088   94.8  0.0497   27.5  0.5516  -95.4
 3.100  0.5578 -113.6  11.818   93.1  0.0499   26.6  0.5440  -97.4
 3.200  0.5522 -115.9  11.537   91.5  0.0503   25.9  0.5358  -99.4
 3.300  0.5474 -118.2  11.249   89.9  0.0505   25.0  0.5290 -101.3
 3.400  0.5424 -120.4  10.994   88.4  0.0508   24.3  0.5231 -103.2
 3.500  0.5384 -122.5  10.751   87.0  0.0510   23.7  0.5169 -104.9
 3.600  0.5334 -124.5  10.546   85.5  0.0511   22.9  0.5106 -106.6
 3.700  0.5292 -126.6  10.314   84.1  0.0513   22.3  0.5052 -108.2
 3.800  0.5256 -128.6  10.101   82.7  0.0515   21.7  0.5002 -109.9
 3.900  0.5231 -130.7   9.895   81.3  0.0516   21.2  0.4959 -111.5
 4.000  0.5207 -132.5   9.712   80.0  0.0518   20.6  0.4911 -112.9
 4.100  0.5187 -134.5   9.526   78.6  0.0519   20.1  0.4864 -114.6
 4.200  0.5162 -136.4   9.345   77.2  0.0520   19.6  0.4817 -116.1
 4.300  0.5152 -138.5   9.166   75.9  0.0521   19.1  0.4775 -117.7
 4.400  0.5131 -140.3   8.992   74.6  0.0524   18.7  0.4731 -119.1
 4.500  0.5124 -142.2   8.831   73.3  0.0524   18.2  0.4694 -120.5
 4.600  0.5113 -144.0   8.680   72.0  0.0527   17.7  0.4644 -122.0
 4.700  0.5105 -145.7   8.526   70.7  0.0526   17.3  0.4606 -123.4
 4.800  0.5099 -147.6   8.368   69.3  0.0527   17.0  0.4562 -124.8
 4.900  0.5096 -149.3   8.218   68.1  0.0528   16.5  0.4526 -126.1
 5.000  0.5090 -150.9   8.081   66.8  0.0528   16.2  0.4477 -127.4
 5.100  0.5082 -152.5   7.952   65.6  0.0528   15.7  0.4430 -128.8
 5.200  0.5077 -154.0   7.823   64.3  0.0530   15.4  0.4378 -130.1
 5.300  0.5071 -155.6   7.698   63.1  0.0529   14.9  0.4331 -131.6
 5.400  0.5067 -157.2   7.572   61.8  0.0529   14.7  0.4283 -132.9
 5.500  0.5060 -158.7   7.456   60.5  0.0529   14.4  0.4235 -134.3
 5.600  0.5048 -160.3   7.334   59.3  0.0529   14.0  0.4174 -135.6
 5.700  0.5031 -161.9   7.220   58.0  0.0529   13.7  0.4123 -137.1
 5.800  0.5025 -163.5   7.106   56.8  0.0530   13.4  0.4061 -138.5
 5.900  0.5011 -165.1   6.995   55.6  0.0527   13.1  0.4010 -140.0
 6.000  0.5007 -166.6   6.888   54.4  0.0527   12.8  0.3947 -141.4
 6.100  0.4990 -168.3   6.784   53.1  0.0526   12.7  0.3896 -143.1
 6.200  0.4981 -169.9   6.677   51.9  0.0524   12.5  0.3836 -144.5
 6.300  0.4971 -171.5   6.574   50.7  0.0523   12.2  0.3782 -146.2
 6.400  0.4969 -173.2   6.476   49.5  0.0521   12.0  0.3730 -147.8
 6.500  0.4951 -174.8   6.376   48.3  0.0520   11.9  0.3666 -149.5
 6.600  0.4939 -176.4   6.274   47.1  0.0517   12.0  0.3615 -151.1
 6.700  0.4927 -178.0   6.180   45.9  0.0516   12.1  0.3559 -152.8
 6.800  0.4920 -179.6   6.089   44.7  0.0514   12.2  0.3510 -154.4
 6.900  0.4907  178.7   5.995   43.6  0.0513   12.4  0.3460 -156.2
 7.000  0.4901  176.9   5.908   42.5  0.0511   12.7  0.3414 -157.7
 7.100  0.4900  175.3   5.816   41.3  0.0511   13.0  0.3369 -159.5
 7.200  0.4906  173.6   5.734   40.2  0.0512   13.5  0.3332 -161.1
 7.300  0.4918  172.1   5.650   39.1  0.0515   13.8  0.3299 -162.8
 7.400  0.4935  170.6   5.575   38.1  0.0517   14.1  0.3277 -164.5
 7.500  0.4958  169.2   5.500   37.0  0.0522   14.4  0.3259 -166.2
 7.600  0.4989  167.8   5.427   35.9  0.0526   14.7  0.3245 -168.1
 7.700  0.5023  166.3   5.354   34.7  0.0531   14.8  0.3238 -170.0
 7.800  0.5070  164.8   5.288   33.5  0.0537   14.7  0.3242 -172.1
 7.900  0.5119  163.4   5.218   32.4  0.0541   14.7  0.3237 -174.2
 8.000  0.5170  162.0   5.156   31.1  0.0547   14.5  0.3238 -176.4
 8.500  0.5442  154.9   4.803   25.1  0.0564   13.0  0.3277  171.2
 9.000  0.5704  148.4   4.442   19.3  0.0571   11.5  0.3400  157.4
 9.500  0.5970  142.5   4.091   13.7  0.0574   10.6  0.3691  144.0
10.000  0.6215  137.3   3.752    8.7  0.0574   10.0  0.4174  133.6
10.500  0.6441  133.1   3.450    4.3  0.0577    9.7  0.4800  128.1
11.000  0.6611  128.7   3.169    0.1  0.0577    9.4  0.5411  125.8
11.500  0.6738  125.2   2.920   -3.4  0.0577    9.6  0.5943  126.9
12.000  0.6810  122.2   2.684   -6.2  0.0573   10.5  0.6268  130.3
!
!  f       NFmin   Gammaopt  rn/50
! GHz       dB    MAG  ANG    -
 0.450      0.64  0.36    5   0.14
 0.900      0.66  0.34   12   0.15
 1.500      0.68  0.31   17   0.14
 1.900      0.68  0.28   27   0.15
 2.400      0.70  0.26   35   0.15
 3.500      0.71  0.25   56   0.14
 5.500      0.77  0.17   99   0.12
 8.000      0.89  0.15  161   0.12
10.000      1.03  0.24 -139   0.12
12.000      1.25  0.40 -117   0.14
!
! (c) 2012  Infineon Technologies AG, Munich
