! Infineon Technologies  Discrete & RF Semiconductors
! BFP843
! VCE =  1.8 V,  IC =  45 mA
! Common Emitter S-Parameters:                            Aug 2013
# GHz  S  MA  R  50
!  f         S11            S21            S12            S22
! GHz     MAG   ANG      MAG   ANG      MAG   ANG      MAG   ANG
 0.030  0.3595 -128.5  29.684  154.6  0.0243   23.6  0.3144  -97.0
 0.040  0.3428 -141.8  27.051  157.0  0.0275   21.5  0.2547 -110.7
 0.050  0.3405 -149.0  25.729  160.2  0.0326   10.6  0.2285 -120.6
 0.060  0.3332 -155.8  24.870  161.1  0.0270   13.6  0.2026 -130.0
 0.070  0.3213 -161.5  24.121  162.7  0.0279    6.3  0.1833 -138.7
 0.080  0.3161 -164.4  23.853  163.4  0.0271   14.9  0.1768 -142.9
 0.090  0.3147 -166.9  23.587  163.7  0.0310   17.4  0.1687 -148.3
 0.100  0.3084 -169.8  23.338  164.2  0.0280   11.7  0.1542 -153.1
 0.110  0.3096 -171.2  23.185  164.3  0.0301    9.3  0.1483 -156.2
 0.120  0.3067 -173.5  22.986  164.4  0.0304    9.7  0.1437 -159.4
 0.130  0.3031 -174.8  22.940  164.6  0.0295   11.2  0.1428 -164.4
 0.140  0.3050 -176.6  22.756  164.3  0.0322    8.0  0.1347 -166.7
 0.150  0.2980 -177.2  22.676  164.2  0.0293    9.8  0.1355 -169.7
 0.200  0.2867  178.2  22.118  163.3  0.0306   10.2  0.1212 -179.7
 0.250  0.2743  175.7  21.871  161.7  0.0317    9.2  0.1113  174.7
 0.300  0.2658  174.6  21.478  160.3  0.0305    8.9  0.1050  170.7
 0.350  0.2632  173.5  21.179  158.5  0.0322    9.2  0.1001  165.7
 0.400  0.2572  173.6  20.897  156.9  0.0333    7.4  0.0944  164.5
 0.450  0.2542  173.2  20.723  155.2  0.0327    6.6  0.0914  163.1
 0.500  0.2523  173.0  20.513  153.3  0.0334    6.6  0.0877  161.8
 0.600  0.2518  173.0  20.058  149.5  0.0325    5.5  0.0864  159.0
 0.700  0.2511  172.5  19.620  145.7  0.0335    6.7  0.0821  157.6
 0.800  0.2526  172.5  19.197  142.1  0.0341    6.3  0.0782  156.9
 0.900  0.2546  171.6  18.756  138.3  0.0334    6.9  0.0777  156.5
 1.000  0.2578  171.4  18.307  134.7  0.0336    6.4  0.0756  157.2
 1.100  0.2631  170.7  17.852  131.1  0.0339    8.0  0.0752  157.4
 1.200  0.2662  170.2  17.400  127.6  0.0335    7.4  0.0736  158.4
 1.300  0.2717  169.0  16.953  124.2  0.0342    7.3  0.0728  159.6
 1.400  0.2751  168.5  16.524  121.0  0.0344    7.5  0.0715  160.2
 1.500  0.2805  167.6  16.059  117.8  0.0342    7.4  0.0725  161.8
 1.600  0.2859  166.7  15.643  114.6  0.0344    8.4  0.0725  163.8
 1.700  0.2898  165.6  15.223  111.6  0.0347    8.3  0.0735  164.0
 1.800  0.2958  164.6  14.784  108.5  0.0348    8.3  0.0745  166.2
 1.900  0.3001  163.4  14.380  105.7  0.0351    9.3  0.0774  166.7
 2.000  0.3071  162.6  13.993  102.7  0.0351    8.8  0.0795  168.4
 2.100  0.3108  161.3  13.606  100.0  0.0354   10.5  0.0813  169.0
 2.200  0.3170  160.3  13.240   97.4  0.0348   10.5  0.0850  170.8
 2.300  0.3210  159.3  12.902   94.8  0.0360    9.7  0.0867  170.6
 2.400  0.3263  157.9  12.556   92.2  0.0356   11.5  0.0902  171.5
 2.500  0.3320  156.6  12.203   89.6  0.0355   11.5  0.0949  171.2
 2.600  0.3347  155.3  11.899   87.2  0.0362   10.6  0.0969  171.7
 2.700  0.3408  154.0  11.571   84.8  0.0368   12.7  0.1018  170.5
 2.800  0.3456  152.8  11.291   82.5  0.0362   12.3  0.1053  170.9
 2.900  0.3517  151.4  10.995   80.1  0.0369   13.2  0.1111  170.4
 3.000  0.3568  150.2  10.720   77.8  0.0372   13.5  0.1157  169.7
 3.100  0.3638  149.0  10.459   75.5  0.0379   14.2  0.1216  169.0
 3.200  0.3668  147.5  10.205   73.3  0.0370   14.9  0.1276  168.5
 3.300  0.3742  146.3   9.945   71.1  0.0386   14.7  0.1340  167.7
 3.400  0.3801  145.1   9.712   69.0  0.0386   14.6  0.1408  167.3
 3.500  0.3854  143.9   9.470   66.8  0.0392   15.8  0.1471  166.5
 3.600  0.3913  142.4   9.251   64.7  0.0394   15.7  0.1537  165.6
 3.700  0.3970  141.1   9.044   62.7  0.0400   16.5  0.1603  164.7
 3.800  0.4037  139.8   8.845   60.7  0.0407   16.4  0.1677  164.3
 3.900  0.4096  138.5   8.620   58.5  0.0410   16.9  0.1747  163.3
 4.000  0.4164  137.3   8.432   56.6  0.0420   16.9  0.1822  162.7
 4.100  0.4219  136.1   8.237   54.6  0.0420   17.5  0.1904  162.0
 4.200  0.4273  135.0   8.070   52.8  0.0426   17.4  0.1974  161.5
 4.300  0.4342  133.9   7.883   50.8  0.0428   17.9  0.2048  160.7
 4.400  0.4412  132.9   7.705   48.9  0.0430   17.7  0.2115  160.0
 4.500  0.4473  131.9   7.528   47.0  0.0441   17.8  0.2193  159.3
 4.600  0.4538  130.8   7.376   45.2  0.0441   18.0  0.2269  158.9
 4.700  0.4577  129.9   7.245   43.4  0.0453   17.8  0.2343  157.9
 4.800  0.4662  129.1   7.080   41.5  0.0457   18.4  0.2413  157.4
 4.900  0.4704  128.2   6.928   39.8  0.0463   18.3  0.2470  156.5
 5.000  0.4757  127.4   6.797   38.0  0.0469   18.6  0.2539  155.8
 5.100  0.4807  126.5   6.658   36.3  0.0478   18.8  0.2604  154.8
 5.200  0.4860  125.9   6.537   34.6  0.0487   18.8  0.2668  154.5
 5.300  0.4916  125.1   6.405   32.8  0.0492   19.0  0.2732  153.5
 5.400  0.4961  124.4   6.284   31.1  0.0498   18.1  0.2785  152.6
 5.500  0.5014  123.6   6.158   29.3  0.0504   18.2  0.2845  151.6
 5.600  0.5047  123.0   6.056   27.7  0.0512   18.5  0.2898  150.9
 5.700  0.5066  122.2   5.938   26.1  0.0521   18.0  0.2958  149.9
 5.800  0.5115  121.6   5.833   24.5  0.0529   18.4  0.3013  149.1
 5.900  0.5137  121.0   5.735   22.8  0.0538   17.8  0.3079  148.2
 6.000  0.5191  120.2   5.625   21.2  0.0548   18.5  0.3138  147.4
 6.100  0.5215  119.7   5.544   19.5  0.0557   18.0  0.3200  146.3
 6.200  0.5272  118.8   5.445   17.8  0.0569   17.7  0.3257  145.2
 6.300  0.5308  118.1   5.357   16.3  0.0574   16.8  0.3325  144.1
 6.400  0.5349  117.2   5.261   14.5  0.0585   17.0  0.3391  143.3
 6.500  0.5396  116.4   5.179   13.0  0.0594   16.2  0.3449  142.3
 6.600  0.5420  115.3   5.107   11.3  0.0604   16.1  0.3518  141.4
 6.700  0.5475  114.5   5.020    9.7  0.0614   15.2  0.3583  140.4
 6.800  0.5498  113.4   4.947    8.0  0.0625   15.4  0.3642  139.3
 6.900  0.5554  112.5   4.855    6.3  0.0633   15.0  0.3708  138.3
 7.000  0.5572  111.1   4.788    4.7  0.0648   14.2  0.3783  137.3
 7.100  0.5637  110.0   4.715    3.0  0.0654   13.6  0.3856  136.2
 7.200  0.5658  108.9   4.652    1.4  0.0667   13.1  0.3923  135.2
 7.300  0.5720  107.7   4.580   -0.4  0.0676   12.3  0.3994  134.0
 7.400  0.5767  106.5   4.511   -2.0  0.0687   11.5  0.4064  133.0
 7.500  0.5834  105.2   4.436   -3.8  0.0692   11.2  0.4133  131.7
 7.600  0.5888  104.0   4.378   -5.5  0.0703   10.2  0.4220  130.5
 7.700  0.5959  102.8   4.312   -7.3  0.0716    9.7  0.4306  129.1
 7.800  0.6024  101.6   4.244   -9.1  0.0723    8.6  0.4377  127.9
 7.900  0.6113  100.2   4.174  -10.9  0.0733    7.8  0.4470  126.5
 8.000  0.6182   99.1   4.112  -12.7  0.0738    7.3  0.4553  125.1
 8.500  0.6611   92.7   3.748  -21.9  0.0774    2.6  0.5031  117.3
 9.000  0.7020   83.7   3.368  -30.5  0.0798   -1.8  0.5584  109.1
 9.500  0.7343   78.2   2.968  -37.5  0.0795   -5.4  0.6111  102.0
10.000  0.7638   74.6   2.660  -43.0  0.0808   -8.0  0.6574   97.1
10.500  0.7952   71.5   2.453  -48.4  0.0813   -9.9  0.6935   94.7
11.000  0.8083   68.7   2.260  -53.9  0.0840  -11.6  0.7308   93.5
11.500  0.8127   66.9   2.104  -59.0  0.0877  -14.1  0.7507   92.0
12.000  0.8119   65.5   1.970  -64.1  0.0913  -17.1  0.7638   89.6
!
!  f       NFmin   Gammaopt  rn/50
! GHz       dB    MAG  ANG    -
!
! noise parameter not available yet for this operation point!
!
! (c) 2013  Infineon Technologies AG, Munich
