! Infineon Technologies  Discrete & RF Semiconductors
! BFP840FESD
! VCE =  0.5 V,  IC =  26 mA
! Common Emitter S-Parameters:                            May 2012
# GHz  S  MA  R  50
!  f         S11            S21            S12            S22
! GHz     MAG   ANG      MAG   ANG      MAG   ANG      MAG   ANG
 0.030  0.2621  -12.3   9.172  175.7  0.0077   16.0  0.0276    1.7
 0.040  0.2633  -16.2   9.165  174.6  0.0077   16.6  0.0289   -3.3
 0.050  0.2651  -20.1   9.131  174.8  0.0078   18.3  0.0289   -9.8
 0.060  0.2687  -24.0   9.121  173.7  0.0080   20.3  0.0313  -15.1
 0.070  0.2707  -27.8   9.115  172.7  0.0078   22.3  0.0327  -18.0
 0.080  0.2754  -31.2   9.106  171.5  0.0087   27.1  0.0330  -23.6
 0.090  0.2795  -34.7   9.086  170.4  0.0092   25.0  0.0337  -26.4
 0.100  0.2842  -38.2   9.068  169.4  0.0093   27.4  0.0344  -31.1
 0.110  0.2897  -41.4   9.042  168.3  0.0098   29.5  0.0356  -35.3
 0.120  0.2954  -44.8   9.020  167.2  0.0096   31.4  0.0367  -38.7
 0.130  0.3013  -47.8   8.992  166.1  0.0100   32.4  0.0371  -41.4
 0.140  0.3074  -51.0   8.955  165.0  0.0104   33.9  0.0381  -45.5
 0.150  0.3139  -53.8   8.917  163.9  0.0107   34.8  0.0391  -48.0
 0.200  0.3488  -67.1   8.701  158.8  0.0121   39.0  0.0443  -62.1
 0.250  0.3856  -78.0   8.446  153.9  0.0140   42.7  0.0492  -73.9
 0.300  0.4212  -87.5   8.151  149.2  0.0159   41.8  0.0546  -83.7
 0.350  0.4555  -95.6   7.853  144.8  0.0175   41.9  0.0598  -92.2
 0.400  0.4884 -102.7   7.523  140.7  0.0186   42.2  0.0652  -99.3
 0.450  0.5167 -108.7   7.216  137.0  0.0201   41.6  0.0703 -105.8
 0.500  0.5431 -114.3   6.905  133.4  0.0216   40.7  0.0747 -111.0
 0.600  0.5887 -123.7   6.313  127.0  0.0239   39.0  0.0835 -121.2
 0.700  0.6230 -131.4   5.786  121.5  0.0258   37.3  0.0913 -129.1
 0.800  0.6532 -137.8   5.316  116.7  0.0274   35.3  0.0995 -136.0
 0.900  0.6762 -143.4   4.898  112.4  0.0288   33.8  0.1066 -141.5
 1.000  0.6961 -148.1   4.526  108.6  0.0299   32.4  0.1138 -146.0
 1.100  0.7108 -152.3   4.198  105.1  0.0308   31.1  0.1199 -150.1
 1.200  0.7253 -155.9   3.914  102.0  0.0316   30.2  0.1265 -153.3
 1.300  0.7355 -159.2   3.658   99.1  0.0323   28.9  0.1321 -156.4
 1.400  0.7456 -162.1   3.428   96.5  0.0330   28.0  0.1383 -158.8
 1.500  0.7531 -164.8   3.225   94.1  0.0335   27.3  0.1439 -161.1
 1.600  0.7618 -167.2   3.047   91.7  0.0339   26.8  0.1501 -162.8
 1.700  0.7664 -169.6   2.878   89.5  0.0344   26.3  0.1553 -164.5
 1.800  0.7720 -171.6   2.728   87.4  0.0349   25.9  0.1613 -165.8
 1.900  0.7765 -173.6   2.592   85.6  0.0351   25.4  0.1662 -166.9
 2.000  0.7819 -175.4   2.473   83.7  0.0355   25.2  0.1718 -167.9
 2.100  0.7847 -177.1   2.356   81.8  0.0358   24.9  0.1760 -168.4
 2.200  0.7875 -178.7   2.251   80.1  0.0361   24.7  0.1810 -169.0
 2.300  0.7901  179.8   2.156   78.5  0.0364   24.7  0.1849 -169.7
 2.400  0.7931  178.2   2.071   76.8  0.0367   24.7  0.1892 -170.2
 2.500  0.7948  176.7   1.989   75.3  0.0369   24.3  0.1930 -170.7
 2.600  0.7961  175.4   1.911   73.8  0.0373   24.5  0.1968 -171.2
 2.700  0.7981  174.0   1.841   72.4  0.0375   24.4  0.2004 -171.6
 2.800  0.8005  172.7   1.778   70.9  0.0378   24.5  0.2036 -172.0
 2.900  0.8025  171.4   1.718   69.5  0.0382   24.7  0.2075 -172.5
 3.000  0.8042  170.1   1.661   68.2  0.0385   24.8  0.2106 -172.8
 3.100  0.8059  168.9   1.608   66.8  0.0388   24.7  0.2140 -173.2
 3.200  0.8075  167.6   1.558   65.4  0.0391   24.9  0.2170 -173.7
 3.300  0.8088  166.5   1.511   64.1  0.0393   25.1  0.2202 -174.0
 3.400  0.8101  165.3   1.466   62.9  0.0397   24.9  0.2234 -174.4
 3.500  0.8115  164.1   1.425   61.6  0.0401   25.1  0.2258 -174.7
 3.600  0.8126  163.0   1.385   60.3  0.0405   25.2  0.2285 -175.1
 3.700  0.8145  161.8   1.348   59.1  0.0408   25.3  0.2308 -175.5
 3.800  0.8152  160.7   1.311   57.8  0.0412   25.4  0.2333 -175.9
 3.900  0.8170  159.5   1.278   56.6  0.0415   25.5  0.2355 -176.4
 4.000  0.8180  158.4   1.246   55.3  0.0419   25.4  0.2370 -176.9
 4.100  0.8197  157.3   1.215   54.1  0.0423   25.6  0.2393 -177.5
 4.200  0.8202  156.2   1.186   52.9  0.0426   25.7  0.2406 -178.0
 4.300  0.8216  155.2   1.157   51.6  0.0431   25.9  0.2427 -178.6
 4.400  0.8219  154.1   1.130   50.5  0.0435   25.8  0.2438 -179.2
 4.500  0.8227  153.1   1.103   49.4  0.0439   25.7  0.2455 -179.8
 4.600  0.8231  152.1   1.079   48.2  0.0442   25.9  0.2463  179.5
 4.700  0.8235  151.2   1.055   47.0  0.0446   25.9  0.2476  179.0
 4.800  0.8237  150.2   1.032   45.9  0.0450   25.9  0.2483  178.2
 4.900  0.8238  149.2   1.010   44.8  0.0455   26.0  0.2491  177.6
 5.000  0.8239  148.3   0.990   43.6  0.0459   26.0  0.2495  176.8
 5.100  0.8236  147.3   0.969   42.5  0.0463   26.0  0.2503  176.0
 5.200  0.8233  146.4   0.950   41.4  0.0467   25.9  0.2500  175.2
 5.300  0.8229  145.4   0.931   40.3  0.0471   25.9  0.2507  174.2
 5.400  0.8223  144.5   0.913   39.2  0.0475   25.9  0.2504  173.3
 5.500  0.8219  143.5   0.895   38.0  0.0480   25.9  0.2511  172.3
 5.600  0.8211  142.6   0.878   37.0  0.0483   25.8  0.2503  171.2
 5.700  0.8196  141.5   0.861   35.9  0.0487   25.9  0.2510  170.1
 5.800  0.8199  140.5   0.846   34.9  0.0491   25.8  0.2502  168.8
 5.900  0.8195  139.6   0.830   33.8  0.0495   25.8  0.2509  167.6
 6.000  0.8200  138.6   0.816   32.7  0.0499   25.8  0.2505  166.2
 6.100  0.8198  137.5   0.802   31.6  0.0502   25.7  0.2515  164.8
 6.200  0.8199  136.5   0.787   30.6  0.0506   25.7  0.2515  163.4
 6.300  0.8200  135.3   0.773   29.5  0.0510   25.7  0.2523  161.9
 6.400  0.8207  134.3   0.761   28.4  0.0515   25.7  0.2530  160.5
 6.500  0.8208  133.1   0.747   27.4  0.0519   25.9  0.2538  158.8
 6.600  0.8215  132.2   0.735   26.4  0.0523   25.9  0.2549  157.4
 6.700  0.8224  131.0   0.723   25.3  0.0527   26.1  0.2564  155.8
 6.800  0.8233  129.9   0.711   24.2  0.0533   26.1  0.2575  154.3
 6.900  0.8240  128.8   0.699   23.2  0.0539   26.3  0.2597  152.6
 7.000  0.8256  127.6   0.688   22.2  0.0545   26.3  0.2609  151.1
 7.100  0.8270  126.5   0.676   21.2  0.0553   26.4  0.2635  149.5
 7.200  0.8288  125.4   0.665   20.1  0.0561   26.5  0.2654  148.0
 7.300  0.8301  124.4   0.655   19.1  0.0568   26.4  0.2680  146.4
 7.400  0.8319  123.4   0.644   18.1  0.0578   26.2  0.2714  144.9
 7.500  0.8334  122.3   0.634   17.1  0.0586   25.8  0.2747  143.4
 7.600  0.8341  121.4   0.624   16.1  0.0596   25.5  0.2784  141.8
 7.700  0.8353  120.3   0.614   15.0  0.0603   25.0  0.2821  140.3
 7.800  0.8363  119.3   0.604   13.9  0.0611   24.5  0.2869  138.6
 7.900  0.8379  118.5   0.593   12.9  0.0618   23.8  0.2908  137.0
 8.000  0.8390  117.5   0.584   11.8  0.0624   23.3  0.2952  135.4
 8.500  0.8430  113.5   0.535    7.0  0.0644   20.5  0.3232  126.6
 9.000  0.8458  110.3   0.489    2.8  0.0654   18.4  0.3582  118.1
 9.500  0.8537  107.6   0.449   -0.9  0.0664   16.9  0.4032  111.0
10.000  0.8639  105.7   0.413   -4.1  0.0672   15.7  0.4563  106.5
10.500  0.8752  104.0   0.383   -6.8  0.0682   14.7  0.5136  105.5
11.000  0.8825  101.6   0.356   -9.5  0.0690   13.6  0.5654  106.5
11.500  0.8864   99.7   0.332  -11.5  0.0694   12.9  0.6065  109.9
12.000  0.8856   98.0   0.310  -12.8  0.0697   13.2  0.6273  115.0
!
!  f       NFmin   Gammaopt  rn/50
! GHz       dB    MAG  ANG    -
!
! noise parameter not available yet for this operation point!
!
! (c) 2012  Infineon Technologies AG, Munich
