! Infineon Technologies  Discrete & RF Semiconductors
! BFP840ESD
! VCE =  1.0 V,  IC =  7.0 mA
! Common Emitter S-Parameters:                            May 2012
# GHz  S  MA  R  50
!  f         S11            S21            S12            S22
! GHz     MAG   ANG      MAG   ANG      MAG   ANG      MAG   ANG
 0.030  0.9220   -1.1  19.308  178.3  0.0008   90.5  0.9921   -0.6
 0.080  0.9211   -3.1  19.447  176.2  0.0017   96.3  0.9958   -2.5
 0.130  0.9201   -5.2  19.355  174.3  0.0035   92.5  0.9954   -4.3
 0.180  0.9174   -7.1  19.212  172.2  0.0049   84.5  0.9931   -6.1
 0.230  0.9153   -9.0  19.111  170.1  0.0062   83.7  0.9902   -7.8
 0.280  0.9121  -11.0  19.009  168.0  0.0077   81.8  0.9871   -9.5
 0.330  0.9084  -12.9  18.867  166.1  0.0090   80.1  0.9838  -11.2
 0.380  0.9042  -14.8  18.730  164.1  0.0104   79.1  0.9790  -12.8
 0.430  0.9003  -16.6  18.572  162.2  0.0117   78.4  0.9743  -14.5
 0.500  0.8942  -19.3  18.402  159.7  0.0135   75.9  0.9667  -16.8
 0.600  0.8839  -23.0  18.107  156.1  0.0161   73.4  0.9557  -20.0
 0.700  0.8729  -26.7  17.805  152.8  0.0186   71.1  0.9433  -23.1
 0.800  0.8595  -30.5  17.664  149.4  0.0207   67.8  0.9296  -26.2
 0.900  0.8470  -34.1  17.358  146.1  0.0229   65.5  0.9147  -29.3
 1.000  0.8339  -37.7  17.051  143.0  0.0251   63.4  0.8997  -32.3
 1.100  0.8204  -41.2  16.740  139.9  0.0272   60.8  0.8837  -35.3
 1.200  0.8064  -44.7  16.423  136.8  0.0293   58.4  0.8674  -38.2
 1.300  0.7919  -48.2  16.137  133.8  0.0311   55.9  0.8503  -41.0
 1.400  0.7779  -51.6  15.839  130.8  0.0328   53.7  0.8337  -43.9
 1.500  0.7628  -55.1  15.588  127.9  0.0345   51.7  0.8162  -46.6
 1.600  0.7458  -58.7  15.394  124.9  0.0360   49.7  0.7983  -49.4
 1.700  0.7310  -62.0  15.081  122.1  0.0374   47.9  0.7811  -52.1
 1.800  0.7167  -65.3  14.789  119.3  0.0386   45.8  0.7647  -54.8
 1.900  0.7025  -68.6  14.489  116.6  0.0399   43.9  0.7470  -57.4
 2.000  0.6881  -71.9  14.208  114.0  0.0409   42.1  0.7305  -60.0
 2.100  0.6747  -75.1  13.944  111.4  0.0421   40.6  0.7132  -62.5
 2.200  0.6615  -78.3  13.679  108.9  0.0431   38.7  0.6972  -65.1
 2.300  0.6482  -81.6  13.409  106.4  0.0439   37.0  0.6800  -67.5
 2.400  0.6364  -84.8  13.147  103.9  0.0448   35.3  0.6645  -70.1
 2.500  0.6241  -88.0  12.903  101.5  0.0454   34.1  0.6477  -72.5
 2.600  0.6118  -91.3  12.657   99.0  0.0461   32.7  0.6308  -74.9
 2.700  0.5991  -94.5  12.421   96.6  0.0470   31.2  0.6147  -77.3
 2.800  0.5871  -97.9  12.201   94.2  0.0474   29.9  0.5986  -79.8
 2.900  0.5763 -101.2  11.986   91.8  0.0478   28.7  0.5836  -82.2
 3.000  0.5645 -104.4  11.760   89.5  0.0486   27.7  0.5690  -84.7
 3.100  0.5523 -107.9  11.580   87.0  0.0489   26.4  0.5548  -87.3
 3.200  0.5419 -111.1  11.348   84.7  0.0495   25.3  0.5410  -89.8
 3.300  0.5321 -114.5  11.146   82.4  0.0496   24.4  0.5276  -92.5
 3.400  0.5223 -117.7  10.925   80.2  0.0500   23.1  0.5155  -95.1
 3.500  0.5133 -121.1  10.722   78.0  0.0504   22.2  0.5032  -97.7
 3.600  0.5039 -124.4  10.508   75.8  0.0504   21.2  0.4913 -100.4
 3.700  0.4957 -127.7  10.305   73.6  0.0508   20.3  0.4801 -103.1
 3.800  0.4871 -131.1  10.097   71.5  0.0510   19.6  0.4697 -105.8
 3.900  0.4801 -134.6   9.907   69.4  0.0512   18.6  0.4606 -108.5
 4.000  0.4739 -137.9   9.702   67.3  0.0513   17.8  0.4510 -111.3
 4.100  0.4682 -141.3   9.507   65.2  0.0514   17.0  0.4425 -114.0
 4.200  0.4638 -144.7   9.320   63.1  0.0516   16.3  0.4343 -116.7
 4.300  0.4600 -147.9   9.138   61.1  0.0516   15.5  0.4275 -119.4
 4.400  0.4564 -151.2   8.953   59.1  0.0515   14.9  0.4203 -122.0
 4.500  0.4547 -154.3   8.782   57.2  0.0516   14.3  0.4139 -124.6
 4.600  0.4520 -157.4   8.605   55.3  0.0515   13.7  0.4076 -127.1
 4.700  0.4517 -160.4   8.446   53.4  0.0518   13.3  0.4016 -129.6
 4.800  0.4505 -163.3   8.285   51.6  0.0516   12.7  0.3957 -132.0
 4.900  0.4506 -166.2   8.125   49.7  0.0514   12.3  0.3904 -134.4
 5.000  0.4512 -168.8   7.967   47.9  0.0515   12.1  0.3847 -136.8
 5.100  0.4519 -171.6   7.818   46.1  0.0514   11.6  0.3800 -139.1
 5.200  0.4534 -174.2   7.674   44.2  0.0515   11.3  0.3750 -141.4
 5.300  0.4543 -176.7   7.529   42.5  0.0516   10.9  0.3705 -143.8
 5.400  0.4551 -179.1   7.390   40.8  0.0514   10.9  0.3654 -146.0
 5.500  0.4563  178.6   7.256   39.1  0.0515   10.7  0.3615 -148.4
 5.600  0.4576  176.4   7.123   37.4  0.0514   10.6  0.3565 -150.6
 5.700  0.4584  174.4   6.986   35.7  0.0516   10.4  0.3527 -152.9
 5.800  0.4591  172.4   6.861   34.1  0.0517   10.6  0.3492 -155.2
 5.900  0.4608  170.5   6.744   32.5  0.0518   10.7  0.3467 -157.5
 6.000  0.4627  168.7   6.632   30.9  0.0520   10.8  0.3439 -159.7
 6.100  0.4644  166.9   6.522   29.4  0.0523   10.8  0.3433 -162.0
 6.200  0.4671  165.1   6.419   27.8  0.0528   11.0  0.3425 -164.3
 6.300  0.4695  163.3   6.317   26.2  0.0532   10.8  0.3429 -166.7
 6.400  0.4720  161.5   6.222   24.7  0.0537   10.7  0.3433 -168.9
 6.500  0.4747  159.7   6.129   23.1  0.0541   10.6  0.3444 -171.4
 6.600  0.4768  158.0   6.037   21.5  0.0546   10.5  0.3454 -173.6
 6.700  0.4793  156.1   5.952   19.9  0.0550   10.3  0.3477 -175.8
 6.800  0.4812  154.4   5.861   18.4  0.0556   10.2  0.3494 -178.0
 6.900  0.4830  152.6   5.777   16.8  0.0561   10.2  0.3522  180.0
 7.000  0.4854  150.8   5.697   15.2  0.0566    9.9  0.3541  178.0
 7.100  0.4880  149.1   5.623   13.7  0.0574    9.7  0.3573  176.1
 7.200  0.4900  147.3   5.552   12.1  0.0579    9.5  0.3593  174.2
 7.300  0.4930  145.4   5.479   10.5  0.0585    9.1  0.3623  172.1
 7.400  0.4947  143.6   5.404    8.9  0.0593    8.8  0.3644  170.2
 7.500  0.4985  141.6   5.340    7.2  0.0598    8.5  0.3674  168.2
 7.600  0.5010  139.6   5.269    5.6  0.0605    8.0  0.3697  166.1
 7.700  0.5056  137.6   5.202    4.0  0.0612    7.7  0.3715  164.1
 7.800  0.5093  135.5   5.133    2.2  0.0618    7.3  0.3734  162.0
 7.900  0.5152  133.4   5.069    0.4  0.0625    6.7  0.3756  159.7
 8.000  0.5202  131.3   4.996   -1.3  0.0630    6.2  0.3773  157.3
 8.500  0.5572  120.8   4.637  -10.1  0.0658    3.6  0.3918  144.7
 9.000  0.6040  111.0   4.238  -19.0  0.0685    0.6  0.4291  131.3
 9.500  0.6452  102.8   3.789  -26.9  0.0701   -2.3  0.4832  120.3
10.000  0.6753   96.9   3.401  -33.1  0.0719   -4.6  0.5419  113.5
10.500  0.6997   92.6   3.107  -38.1  0.0731   -6.8  0.5878  109.7
11.000  0.7284   89.5   2.910  -43.3  0.0752   -8.4  0.6226  107.0
11.500  0.7660   86.8   2.738  -49.4  0.0781  -10.3  0.6352  104.2
12.000  0.7958   84.3   2.541  -56.3  0.0821  -12.4  0.6431  100.8
!
!  f       NFmin   Gammaopt  rn/50
! GHz       dB    MAG  ANG    -
 0.450      0.68  0.39    1   0.16
 0.900      0.70  0.39    5   0.15
 1.500      0.71  0.38   13   0.15
 1.900      0.73  0.38   17   0.14
 2.400      0.74  0.33   28   0.13
 3.500      0.77  0.24   56   0.11
 5.500      0.86  0.16  126   0.10
 8.000      1.02  0.31 -139   0.09
10.000      1.18  0.47  -97   0.16
12.000      1.39  0.59  -75   0.26
!
! (c) 2012  Infineon Technologies AG, Munich
