! Infineon Technologies  Discrete & RF Semiconductors
! BFP843
! VCE =  2.0 V,  IC =  45 mA
! Common Emitter S-Parameters:                            Aug 2013
# GHz  S  MA  R  50
!  f         S11            S21            S12            S22
! GHz     MAG   ANG      MAG   ANG      MAG   ANG      MAG   ANG
 0.030  0.3608 -129.8  29.844  154.5  0.0269   25.0  0.3106  -96.4
 0.040  0.3435 -142.8  27.184  156.9  0.0267   24.4  0.2521 -110.7
 0.050  0.3346 -151.1  25.826  160.1  0.0258   12.8  0.2182 -122.3
 0.060  0.3323 -157.0  24.981  161.0  0.0266   18.8  0.2001 -130.1
 0.070  0.3208 -161.9  24.228  162.6  0.0254   24.5  0.1799 -136.6
 0.080  0.3191 -165.5  23.968  163.3  0.0272   13.1  0.1776 -142.1
 0.090  0.3155 -167.9  23.690  163.7  0.0285   11.0  0.1667 -147.5
 0.100  0.3123 -171.0  23.433  164.3  0.0306   13.4  0.1594 -155.4
 0.110  0.3148 -172.0  23.275  164.4  0.0296    9.6  0.1499 -158.3
 0.120  0.3096 -174.2  23.076  164.5  0.0304   10.7  0.1453 -161.0
 0.130  0.3083 -175.7  23.036  164.7  0.0291   11.2  0.1454 -165.0
 0.140  0.3082 -177.0  22.854  164.5  0.0308   11.0  0.1363 -168.0
 0.150  0.3023 -177.9  22.766  164.3  0.0310    9.0  0.1356 -169.4
 0.200  0.2887  177.5  22.216  163.6  0.0314    7.2  0.1218 -179.6
 0.250  0.2777  174.4  21.961  162.1  0.0311   10.2  0.1097  173.9
 0.300  0.2682  173.2  21.583  160.7  0.0323    7.5  0.1057  170.2
 0.350  0.2639  172.2  21.281  159.0  0.0333    7.3  0.0997  165.9
 0.400  0.2609  171.9  21.013  157.4  0.0315    5.6  0.0996  163.4
 0.450  0.2569  171.9  20.841  155.7  0.0328    8.4  0.0936  163.5
 0.500  0.2532  171.4  20.633  154.0  0.0338    5.6  0.0895  161.6
 0.600  0.2511  170.9  20.198  150.3  0.0337    7.5  0.0860  158.4
 0.700  0.2502  170.1  19.780  146.6  0.0333    6.5  0.0841  156.7
 0.800  0.2504  170.0  19.381  143.0  0.0341    6.5  0.0808  155.6
 0.900  0.2516  169.2  18.949  139.4  0.0343    6.9  0.0787  154.5
 1.000  0.2539  168.7  18.528  135.8  0.0337    5.4  0.0770  154.6
 1.100  0.2560  168.0  18.098  132.4  0.0343    6.2  0.0759  155.1
 1.200  0.2593  167.5  17.659  128.9  0.0339    6.3  0.0739  156.4
 1.300  0.2627  166.1  17.232  125.6  0.0342    6.8  0.0743  156.7
 1.400  0.2660  165.8  16.801  122.3  0.0347    7.2  0.0728  157.1
 1.500  0.2709  164.9  16.354  119.2  0.0348    7.7  0.0730  158.5
 1.600  0.2744  164.0  15.961  116.0  0.0347    7.5  0.0731  160.2
 1.700  0.2784  163.1  15.531  113.0  0.0350    8.3  0.0728  160.7
 1.800  0.2833  161.9  15.112  110.0  0.0347    9.2  0.0742  161.5
 1.900  0.2875  161.0  14.714  107.2  0.0350    8.1  0.0761  163.1
 2.000  0.2917  160.3  14.342  104.3  0.0351    9.8  0.0777  164.1
 2.100  0.2957  159.2  13.954  101.6  0.0349    9.9  0.0793  164.9
 2.200  0.3008  158.2  13.589   99.0  0.0356    9.1  0.0819  167.0
 2.300  0.3053  157.0  13.251   96.4  0.0355    9.9  0.0838  166.9
 2.400  0.3098  156.0  12.904   93.8  0.0355   12.0  0.0871  167.5
 2.500  0.3138  154.7  12.567   91.3  0.0358   10.7  0.0902  167.6
 2.600  0.3179  153.5  12.255   88.8  0.0362   12.0  0.0933  168.0
 2.700  0.3222  152.3  11.935   86.5  0.0361   12.6  0.0970  167.8
 2.800  0.3267  151.2  11.632   84.1  0.0366   12.2  0.1006  168.3
 2.900  0.3330  150.0  11.348   81.8  0.0377   12.4  0.1059  167.5
 3.000  0.3369  148.7  11.063   79.4  0.0375   12.8  0.1104  167.2
 3.100  0.3422  147.6  10.811   77.2  0.0372   13.1  0.1157  166.9
 3.200  0.3483  146.4  10.544   75.0  0.0384   13.8  0.1219  166.0
 3.300  0.3539  145.1  10.289   72.8  0.0384   14.7  0.1274  165.7
 3.400  0.3594  143.8  10.049   70.7  0.0388   14.8  0.1339  165.1
 3.500  0.3638  142.7   9.821   68.6  0.0392   14.9  0.1393  164.5
 3.600  0.3697  141.4   9.596   66.5  0.0389   14.4  0.1464  163.8
 3.700  0.3754  140.0   9.382   64.4  0.0392   15.6  0.1525  163.3
 3.800  0.3827  138.9   9.177   62.4  0.0396   16.0  0.1598  162.9
 3.900  0.3874  137.6   8.959   60.4  0.0409   15.8  0.1665  162.1
 4.000  0.3944  136.6   8.764   58.4  0.0410   17.2  0.1748  161.5
 4.100  0.3993  135.4   8.573   56.5  0.0412   16.6  0.1818  160.7
 4.200  0.4056  134.3   8.388   54.5  0.0418   16.9  0.1884  160.5
 4.300  0.4117  133.3   8.206   52.6  0.0421   17.0  0.1961  159.8
 4.400  0.4198  132.2   8.019   50.7  0.0434   15.8  0.2024  159.2
 4.500  0.4239  131.2   7.853   48.9  0.0437   17.4  0.2100  158.5
 4.600  0.4306  130.3   7.697   47.1  0.0440   17.6  0.2174  158.2
 4.700  0.4357  129.4   7.549   45.2  0.0448   17.5  0.2243  157.2
 4.800  0.4430  128.7   7.391   43.4  0.0455   17.3  0.2310  156.8
 4.900  0.4468  127.8   7.242   41.7  0.0459   17.6  0.2364  156.1
 5.000  0.4529  127.1   7.107   39.9  0.0464   18.0  0.2436  155.4
 5.100  0.4578  126.2   6.963   38.1  0.0471   18.5  0.2496  154.5
 5.200  0.4629  125.7   6.835   36.4  0.0480   18.2  0.2560  154.1
 5.300  0.4690  124.9   6.699   34.6  0.0487   18.0  0.2620  153.2
 5.400  0.4726  124.2   6.581   32.9  0.0491   18.0  0.2678  152.3
 5.500  0.4777  123.5   6.453   31.2  0.0498   17.9  0.2735  151.5
 5.600  0.4811  123.0   6.351   29.6  0.0503   17.6  0.2787  150.7
 5.700  0.4832  122.2   6.223   27.9  0.0513   17.9  0.2846  149.8
 5.800  0.4882  121.7   6.118   26.3  0.0520   18.2  0.2896  149.0
 5.900  0.4903  121.1   6.011   24.6  0.0527   17.8  0.2951  148.1
 6.000  0.4953  120.3   5.911   23.1  0.0540   17.7  0.3017  147.4
 6.100  0.4990  119.8   5.814   21.4  0.0548   17.8  0.3080  146.4
 6.200  0.5031  119.0   5.722   19.7  0.0560   17.2  0.3137  145.4
 6.300  0.5082  118.3   5.625   18.1  0.0566   16.8  0.3193  144.4
 6.400  0.5103  117.6   5.541   16.4  0.0577   16.7  0.3263  143.5
 6.500  0.5156  116.7   5.454   14.9  0.0584   16.4  0.3320  142.6
 6.600  0.5187  115.7   5.368   13.1  0.0599   15.8  0.3386  141.7
 6.700  0.5238  114.8   5.285   11.5  0.0605   15.4  0.3449  140.7
 6.800  0.5267  113.8   5.206    9.8  0.0616   15.1  0.3509  139.6
 6.900  0.5308  112.9   5.123    8.2  0.0623   14.5  0.3578  138.6
 7.000  0.5334  111.5   5.051    6.6  0.0635   13.9  0.3657  137.7
 7.100  0.5397  110.5   4.976    4.9  0.0640   13.5  0.3723  136.7
 7.200  0.5428  109.4   4.904    3.3  0.0656   13.4  0.3793  135.7
 7.300  0.5492  108.1   4.831    1.4  0.0662   12.5  0.3865  134.5
 7.400  0.5537  107.0   4.764   -0.2  0.0676   11.7  0.3931  133.5
 7.500  0.5595  105.8   4.692   -1.9  0.0682   11.4  0.4003  132.4
 7.600  0.5650  104.6   4.632   -3.6  0.0697   10.7  0.4084  131.1
 7.700  0.5730  103.4   4.561   -5.4  0.0702    9.8  0.4171  129.8
 7.800  0.5802  102.2   4.485   -7.2  0.0713    9.3  0.4243  128.5
 7.900  0.5876  100.9   4.424   -9.0  0.0720    8.2  0.4339  127.1
 8.000  0.5945   99.7   4.356  -10.8  0.0730    7.6  0.4417  125.8
 8.500  0.6392   93.4   3.986  -20.0  0.0764    3.0  0.4906  118.1
 9.000  0.6824   84.6   3.588  -28.7  0.0787   -1.4  0.5468  110.0
 9.500  0.7177   79.0   3.168  -35.8  0.0792   -4.8  0.6010  102.8
10.000  0.7488   75.4   2.854  -41.3  0.0800   -7.3  0.6488   97.9
10.500  0.7816   72.3   2.629  -46.9  0.0811   -9.4  0.6862   95.5
11.000  0.7962   69.4   2.427  -52.5  0.0833  -10.9  0.7246   94.3
11.500  0.8017   67.6   2.259  -57.8  0.0875  -13.9  0.7454   92.8
12.000  0.8018   66.3   2.121  -62.9  0.0908  -16.2  0.7586   90.3
!
!  f       NFmin   Gammaopt  rn/50
! GHz       dB    MAG  ANG    -
!
! noise parameter not available yet for this operation point!
!
! (c) 2013  Infineon Technologies AG, Munich
