! Infineon Technologies  Discrete & RF Semiconductors
! BFP843
! VCE =  1.0 V,  IC =  32 mA
! Common Emitter S-Parameters:                            Aug 2013
# GHz  S  MA  R  50
!  f         S11            S21            S12            S22
! GHz     MAG   ANG      MAG   ANG      MAG   ANG      MAG   ANG
 0.030  0.3276 -111.6  28.067  155.8  0.0291   26.8  0.3255  -86.5
 0.040  0.2944 -125.7  25.692  157.9  0.0321   23.2  0.2597  -98.2
 0.050  0.2663 -134.5  24.455  161.0  0.0292   27.5  0.2066 -107.7
 0.060  0.2601 -144.4  23.684  161.8  0.0286   12.1  0.1879 -116.6
 0.070  0.2524 -149.9  22.994  163.2  0.0356   10.4  0.1688 -123.7
 0.080  0.2442 -154.8  22.751  163.9  0.0322   13.0  0.1570 -128.7
 0.090  0.2376 -157.3  22.512  164.2  0.0334    8.6  0.1390 -133.2
 0.100  0.2324 -161.3  22.260  164.6  0.0341   11.2  0.1300 -140.0
 0.110  0.2368 -163.0  22.127  164.7  0.0333   12.6  0.1241 -143.3
 0.120  0.2265 -166.3  21.948  164.8  0.0346   11.1  0.1161 -145.8
 0.130  0.2251 -167.2  21.912  164.9  0.0320    9.4  0.1124 -150.0
 0.140  0.2239 -169.9  21.751  164.6  0.0340   10.4  0.1025 -153.0
 0.150  0.2201 -170.6  21.667  164.5  0.0345   11.3  0.0997 -155.0
 0.200  0.2082 -175.7  21.151  163.5  0.0343    8.8  0.0844 -165.4
 0.250  0.1985 -178.9  20.917  161.8  0.0358    6.4  0.0740 -171.8
 0.300  0.1889 -179.5  20.549  160.4  0.0353    4.7  0.0677 -175.7
 0.350  0.1886  180.0  20.266  158.5  0.0359    6.5  0.0628 -178.7
 0.400  0.1860 -179.4  20.012  156.8  0.0353    6.5  0.0599 -179.6
 0.450  0.1859 -179.1  19.840  155.0  0.0362    6.8  0.0579 -177.1
 0.500  0.1854 -179.0  19.632  153.1  0.0364    5.5  0.0570 -175.9
 0.600  0.1881 -178.3  19.203  149.2  0.0364    5.1  0.0558 -175.0
 0.700  0.1911 -177.7  18.777  145.4  0.0367    5.4  0.0573 -173.7
 0.800  0.1978 -177.3  18.356  141.6  0.0369    5.8  0.0589 -170.5
 0.900  0.2021 -177.6  17.923  137.8  0.0374    5.1  0.0631 -169.9
 1.000  0.2094 -177.7  17.485  134.1  0.0369    5.4  0.0663 -168.1
 1.100  0.2164 -178.5  17.051  130.6  0.0369    4.6  0.0715 -166.1
 1.200  0.2237 -179.2  16.602  127.0  0.0374    5.3  0.0754 -166.0
 1.300  0.2324  179.4  16.154  123.5  0.0372    5.5  0.0803 -165.9
 1.400  0.2391  178.8  15.735  120.2  0.0375    5.6  0.0843 -166.5
 1.500  0.2475  177.6  15.288  117.0  0.0374    6.0  0.0892 -167.0
 1.600  0.2558  176.3  14.876  113.8  0.0378    6.1  0.0946 -166.7
 1.700  0.2620  175.1  14.465  110.7  0.0379    6.3  0.0997 -168.4
 1.800  0.2697  173.8  14.046  107.7  0.0376    6.0  0.1043 -168.8
 1.900  0.2756  172.2  13.666  104.9  0.0376    6.5  0.1104 -170.2
 2.000  0.2829  171.0  13.289  101.9  0.0384    6.6  0.1142 -171.4
 2.100  0.2901  169.4  12.909   99.2  0.0376    6.8  0.1198 -172.6
 2.200  0.2980  168.0  12.547   96.5  0.0382    7.7  0.1254 -173.3
 2.300  0.3037  166.6  12.221   93.8  0.0385    8.5  0.1294 -174.9
 2.400  0.3102  165.3  11.890   91.3  0.0380    8.9  0.1358 -175.8
 2.500  0.3157  163.5  11.562   88.7  0.0391    8.2  0.1403 -177.7
 2.600  0.3216  162.0  11.260   86.3  0.0388    9.3  0.1449 -179.0
 2.700  0.3278  160.5  10.937   83.7  0.0389    9.0  0.1498  179.4
 2.800  0.3334  158.9  10.659   81.4  0.0396    9.7  0.1542  178.1
 2.900  0.3416  157.5  10.386   79.0  0.0396   10.4  0.1614  176.3
 3.000  0.3454  155.9  10.126   76.7  0.0401    9.4  0.1666  174.6
 3.100  0.3543  154.4   9.860   74.4  0.0399    9.8  0.1729  173.6
 3.200  0.3590  153.0   9.615   72.2  0.0404   11.2  0.1797  171.9
 3.300  0.3667  151.3   9.370   70.0  0.0405   10.5  0.1865  170.4
 3.400  0.3719  149.8   9.154   68.0  0.0406   11.4  0.1938  169.2
 3.500  0.3781  148.5   8.923   65.8  0.0410   11.4  0.1994  167.8
 3.600  0.3846  146.9   8.706   63.7  0.0415   12.1  0.2062  166.6
 3.700  0.3920  145.2   8.494   61.5  0.0414   12.3  0.2138  165.2
 3.800  0.3990  143.8   8.305   59.5  0.0428   12.6  0.2209  164.2
 3.900  0.4042  142.4   8.105   57.5  0.0425   13.0  0.2288  162.7
 4.000  0.4105  141.0   7.918   55.5  0.0432   12.3  0.2352  161.7
 4.100  0.4184  139.7   7.723   53.5  0.0438   13.1  0.2430  160.3
 4.200  0.4246  138.4   7.554   51.6  0.0433   13.8  0.2499  159.7
 4.300  0.4315  137.1   7.380   49.7  0.0449   13.2  0.2581  158.5
 4.400  0.4384  135.9   7.218   47.9  0.0452   13.8  0.2639  157.6
 4.500  0.4440  134.8   7.052   46.0  0.0456   13.7  0.2710  156.7
 4.600  0.4526  133.7   6.892   44.1  0.0462   13.3  0.2779  155.9
 4.700  0.4569  132.6   6.763   42.3  0.0465   13.8  0.2847  154.8
 4.800  0.4643  131.6   6.611   40.5  0.0470   13.9  0.2918  154.0
 4.900  0.4686  130.6   6.476   38.8  0.0476   14.4  0.2968  153.0
 5.000  0.4750  129.8   6.346   37.0  0.0484   14.3  0.3027  152.2
 5.100  0.4814  128.8   6.205   35.2  0.0493   14.1  0.3096  151.0
 5.200  0.4861  128.1   6.090   33.6  0.0498   14.2  0.3151  150.4
 5.300  0.4917  127.2   5.967   31.8  0.0498   14.4  0.3208  149.3
 5.400  0.4949  126.4   5.859   30.1  0.0507   14.3  0.3258  148.4
 5.500  0.5008  125.5   5.737   28.4  0.0516   14.3  0.3313  147.4
 5.600  0.5052  124.9   5.635   26.8  0.0526   14.0  0.3360  146.5
 5.700  0.5078  123.9   5.514   25.1  0.0524   14.6  0.3409  145.4
 5.800  0.5129  123.3   5.419   23.5  0.0530   14.2  0.3461  144.6
 5.900  0.5140  122.6   5.330   22.0  0.0547   14.1  0.3518  143.5
 6.000  0.5193  121.7   5.233   20.4  0.0552   14.1  0.3574  142.7
 6.100  0.5236  121.2   5.140   18.6  0.0559   13.7  0.3631  141.6
 6.200  0.5279  120.2   5.050   16.9  0.0570   13.9  0.3680  140.5
 6.300  0.5311  119.5   4.972   15.4  0.0576   13.0  0.3735  139.5
 6.400  0.5355  118.5   4.886   13.7  0.0591   12.5  0.3799  138.6
 6.500  0.5410  117.5   4.794   12.1  0.0595   12.6  0.3850  137.5
 6.600  0.5434  116.5   4.725   10.5  0.0606   11.9  0.3919  136.5
 6.700  0.5485  115.6   4.646    8.9  0.0615   11.8  0.3972  135.6
 6.800  0.5504  114.5   4.585    7.3  0.0625   11.2  0.4025  134.5
 6.900  0.5554  113.5   4.503    5.7  0.0631   11.1  0.4082  133.4
 7.000  0.5582  112.1   4.434    4.0  0.0644   10.7  0.4158  132.4
 7.100  0.5644  110.9   4.356    2.3  0.0650   10.1  0.4216  131.4
 7.200  0.5673  109.8   4.299    0.8  0.0661    9.5  0.4285  130.4
 7.300  0.5732  108.4   4.233   -1.0  0.0674    8.9  0.4346  129.2
 7.400  0.5767  107.3   4.177   -2.6  0.0681    8.2  0.4412  128.1
 7.500  0.5831  106.0   4.105   -4.3  0.0689    7.4  0.4474  127.0
 7.600  0.5889  104.7   4.046   -6.1  0.0696    6.8  0.4551  125.7
 7.700  0.5970  103.4   3.980   -7.9  0.0707    5.6  0.4631  124.5
 7.800  0.6023  102.3   3.921   -9.6  0.0715    5.8  0.4698  123.2
 7.900  0.6104  100.8   3.859  -11.3  0.0723    4.7  0.4781  121.8
 8.000  0.6168   99.6   3.799  -13.1  0.0734    3.6  0.4856  120.5
 8.500  0.6601   93.0   3.449  -22.3  0.0761   -0.4  0.5296  113.0
 9.000  0.6994   84.0   3.093  -30.7  0.0779   -4.5  0.5804  105.3
 9.500  0.7296   78.4   2.731  -37.5  0.0782   -8.2  0.6289   98.6
10.000  0.7580   74.8   2.451  -42.7  0.0785  -10.2  0.6701   94.2
10.500  0.7897   71.7   2.254  -48.0  0.0799  -11.8  0.7026   92.1
11.000  0.8027   68.9   2.082  -53.4  0.0822  -13.0  0.7372   91.1
11.500  0.8070   67.2   1.946  -58.3  0.0856  -15.5  0.7549   89.7
12.000  0.8057   65.9   1.824  -63.3  0.0890  -18.5  0.7663   87.4
!
!  f       NFmin   Gammaopt  rn/50
! GHz       dB    MAG  ANG    -
!
! noise parameter not available yet for this operation point!
!
! (c) 2013  Infineon Technologies AG, Munich
