! Infineon Technologies  Discrete & RF Semiconductors
! BFP843F
! VCE =  2.0 V,  IC =  40 mA
! Common Emitter S-Parameters:                            Aug 2013
# GHz  S  MA  R  50
!  f         S11            S21            S12            S22
! GHz     MAG   ANG      MAG   ANG      MAG   ANG      MAG   ANG
 0.030  0.3816 -129.0  30.371  154.4  0.0277   23.6  0.3323  -99.1
 0.040  0.3665 -141.9  27.679  156.8  0.0279   25.0  0.2726 -113.6
 0.050  0.3651 -148.6  26.127  160.5  0.0320   14.6  0.2469 -122.9
 0.060  0.3630 -156.1  25.348  162.0  0.0273    6.0  0.2271 -133.2
 0.070  0.3540 -160.6  24.746  163.3  0.0316   11.2  0.2142 -138.9
 0.080  0.3491 -163.1  24.427  164.2  0.0281   15.7  0.2045 -143.9
 0.090  0.3460 -165.6  24.185  164.5  0.0293    8.8  0.1952 -149.1
 0.100  0.3423 -167.9  23.885  165.1  0.0264   11.0  0.1871 -153.1
 0.110  0.3480 -169.2  23.762  165.4  0.0295   11.4  0.1809 -157.2
 0.120  0.3418 -171.4  23.609  165.6  0.0287    4.9  0.1762 -159.6
 0.130  0.3390 -172.9  23.474  165.8  0.0293   10.0  0.1744 -162.7
 0.140  0.3413 -174.5  23.318  165.7  0.0305   11.9  0.1675 -165.7
 0.150  0.3349 -174.9  23.276  165.8  0.0304   10.5  0.1661 -167.6
 0.200  0.3257 -179.7  22.793  165.1  0.0304   11.1  0.1558 -175.5
 0.250  0.3140  178.3  22.527  164.0  0.0321    8.1  0.1452  179.8
 0.300  0.3063  176.6  22.262  162.8  0.0315    8.9  0.1393  175.9
 0.350  0.3032  176.2  21.938  161.5  0.0318    8.2  0.1321  173.5
 0.400  0.2970  176.1  21.703  160.2  0.0330    5.6  0.1293  172.4
 0.450  0.2924  175.6  21.478  158.8  0.0330    8.2  0.1230  172.1
 0.500  0.2891  175.8  21.291  157.4  0.0338    6.3  0.1185  171.2
 0.600  0.2867  176.1  20.901  154.4  0.0335    6.2  0.1159  170.9
 0.700  0.2855  176.2  20.511  151.3  0.0333    5.5  0.1142  171.7
 0.800  0.2870  176.7  20.140  148.4  0.0334    5.0  0.1129  172.1
 0.900  0.2895  176.5  19.779  145.2  0.0332    5.6  0.1130  172.6
 1.000  0.2932  176.6  19.410  142.3  0.0341    6.6  0.1157  173.8
 1.100  0.2964  176.7  19.023  139.4  0.0344    6.0  0.1168  175.1
 1.200  0.3019  176.7  18.656  136.6  0.0338    6.6  0.1199  176.8
 1.300  0.3059  176.0  18.239  133.6  0.0336    6.4  0.1220  177.6
 1.400  0.3099  176.1  17.833  130.9  0.0341    6.8  0.1248  178.9
 1.500  0.3154  175.7  17.451  128.3  0.0338    6.9  0.1281  179.8
 1.600  0.3206  175.3  17.086  125.6  0.0340    6.6  0.1319 -178.4
 1.700  0.3246  175.0  16.689  122.9  0.0345    7.9  0.1349 -177.9
 1.800  0.3297  174.4  16.277  120.4  0.0340    7.7  0.1402 -176.5
 1.900  0.3334  173.9  15.889  118.1  0.0343    7.9  0.1451 -176.1
 2.000  0.3394  173.4  15.589  115.5  0.0343    8.2  0.1497 -174.6
 2.100  0.3424  172.7  15.178  113.1  0.0344    9.4  0.1541 -173.6
 2.200  0.3473  172.1  14.791  111.0  0.0339    9.4  0.1613 -172.3
 2.300  0.3512  171.7  14.464  108.8  0.0343    8.6  0.1647 -171.6
 2.400  0.3557  171.1  14.137  106.6  0.0342   10.5  0.1712 -170.9
 2.500  0.3584  170.3  13.776  104.4  0.0348   10.2  0.1749 -170.1
 2.600  0.3601  169.7  13.460  102.4  0.0344   10.0  0.1803 -168.9
 2.700  0.3624  169.3  13.130  100.4  0.0342   10.6  0.1841 -168.4
 2.800  0.3671  168.8  12.842   98.5  0.0344   12.5  0.1886 -167.3
 2.900  0.3695  168.1  12.563   96.5  0.0345   11.5  0.1939 -167.0
 3.000  0.3713  167.6  12.268   94.7  0.0345   11.1  0.1989 -166.2
 3.100  0.3753  166.8  12.005   92.8  0.0350   12.3  0.2037 -166.0
 3.200  0.3771  166.1  11.732   90.9  0.0350   13.4  0.2087 -165.5
 3.300  0.3800  165.5  11.465   89.2  0.0353   14.1  0.2127 -165.0
 3.400  0.3814  164.7  11.223   87.4  0.0353   14.9  0.2186 -164.5
 3.500  0.3846  164.1  10.990   85.7  0.0347   13.8  0.2216 -164.1
 3.600  0.3877  163.5  10.755   84.0  0.0356   14.9  0.2258 -163.9
 3.700  0.3899  162.6  10.528   82.3  0.0355   14.6  0.2285 -163.9
 3.800  0.3919  162.0  10.310   80.7  0.0354   16.2  0.2330 -163.9
 3.900  0.3950  161.3  10.099   79.1  0.0355   16.5  0.2355 -164.0
 4.000  0.3972  160.7   9.894   77.5  0.0354   17.4  0.2402 -164.0
 4.100  0.4011  159.9   9.709   75.9  0.0359   17.9  0.2430 -164.4
 4.200  0.4024  159.1   9.519   74.3  0.0360   17.7  0.2464 -164.4
 4.300  0.4071  158.6   9.330   72.8  0.0364   19.0  0.2492 -164.8
 4.400  0.4100  157.7   9.149   71.3  0.0370   18.4  0.2520 -165.3
 4.500  0.4129  157.1   8.981   69.9  0.0366   18.9  0.2552 -165.5
 4.600  0.4158  156.4   8.817   68.3  0.0373   19.8  0.2589 -166.0
 4.700  0.4186  155.7   8.670   66.8  0.0375   20.4  0.2616 -166.6
 4.800  0.4224  155.0   8.499   65.3  0.0378   20.7  0.2653 -167.1
 4.900  0.4245  154.3   8.353   64.0  0.0378   21.4  0.2668 -167.6
 5.000  0.4280  153.7   8.214   62.5  0.0385   21.6  0.2697 -168.3
 5.100  0.4310  152.8   8.064   61.0  0.0386   22.3  0.2717 -169.2
 5.200  0.4342  152.2   7.927   59.6  0.0387   22.2  0.2759 -169.8
 5.300  0.4373  151.4   7.785   58.1  0.0388   22.4  0.2780 -170.6
 5.400  0.4405  150.7   7.663   56.7  0.0392   23.4  0.2811 -171.2
 5.500  0.4435  149.9   7.533   55.3  0.0398   23.0  0.2834 -172.0
 5.600  0.4469  149.3   7.419   54.0  0.0400   23.2  0.2864 -172.7
 5.700  0.4487  148.5   7.278   52.5  0.0408   23.3  0.2893 -173.7
 5.800  0.4522  147.6   7.166   51.1  0.0408   24.3  0.2911 -174.5
 5.900  0.4539  146.9   7.046   49.8  0.0412   24.8  0.2941 -175.4
 6.000  0.4571  145.9   6.941   48.4  0.0420   24.3  0.2961 -176.3
 6.100  0.4588  145.1   6.826   46.9  0.0422   24.6  0.2977 -177.5
 6.200  0.4613  143.9   6.708   45.5  0.0420   25.3  0.2995 -178.5
 6.300  0.4637  143.1   6.599   44.1  0.0422   25.8  0.3012 -179.7
 6.400  0.4652  142.0   6.484   42.8  0.0428   26.1  0.3035  179.5
 6.500  0.4673  141.0   6.384   41.4  0.0431   26.6  0.3039  178.5
 6.600  0.4684  140.0   6.272   40.0  0.0438   26.6  0.3056  177.4
 6.700  0.4704  138.8   6.166   38.8  0.0442   27.2  0.3051  176.6
 6.800  0.4720  137.9   6.064   37.5  0.0443   27.8  0.3062  175.5
 6.900  0.4739  136.9   5.963   36.1  0.0452   28.1  0.3052  174.5
 7.000  0.4747  135.9   5.866   34.8  0.0456   29.0  0.3057  173.2
 7.100  0.4776  134.8   5.765   33.6  0.0466   29.1  0.3070  172.0
 7.200  0.4786  134.0   5.674   32.4  0.0469   29.7  0.3081  170.9
 7.300  0.4822  132.9   5.581   31.1  0.0479   29.9  0.3104  169.8
 7.400  0.4844  132.1   5.496   29.9  0.0490   30.1  0.3120  168.6
 7.500  0.4896  131.3   5.413   28.7  0.0500   30.4  0.3163  167.1
 7.600  0.4926  130.6   5.337   27.6  0.0508   30.1  0.3183  165.9
 7.700  0.4999  129.8   5.262   26.2  0.0519   29.6  0.3234  164.1
 7.800  0.5052  129.1   5.184   25.0  0.0524   29.5  0.3273  162.4
 7.900  0.5118  128.3   5.108   23.7  0.0535   28.8  0.3335  160.5
 8.000  0.5181  127.8   5.041   22.5  0.0542   28.4  0.3392  159.0
 8.500  0.5582  124.5   4.687   16.0  0.0578   26.6  0.3773  149.2
 9.000  0.5993  121.6   4.328    9.5  0.0602   24.6  0.4267  139.6
 9.500  0.6364  117.2   3.952    3.1  0.0623   22.6  0.4833  131.6
10.000  0.6594  113.8   3.562   -2.5  0.0634   21.0  0.5416  125.2
10.500  0.6829  110.7   3.255   -7.3  0.0642   19.5  0.5982  120.9
11.000  0.7066  106.9   2.985  -11.9  0.0651   18.8  0.6483  119.1
11.500  0.7212  103.4   2.735  -15.9  0.0660   18.4  0.6825  120.1
12.000  0.7271  101.1   2.494  -18.8  0.0664   19.0  0.7166  123.7
!
!  f       NFmin   Gammaopt  rn/50
! GHz       dB    MAG  ANG    -
!
! noise parameter not available yet for this operation point!
!
! (c) 2013  Infineon Technologies AG, Munich
