! Infineon Technologies  Discrete & RF Semiconductors
! BFP840FESD
! VCE =  1.0 V,  IC =  4.0 mA
! Common Emitter S-Parameters:                            May 2012
# GHz  S  MA  R  50
!  f         S11            S21            S12            S22
! GHz     MAG   ANG      MAG   ANG      MAG   ANG      MAG   ANG
 0.030  0.9628   -0.9  12.236  177.4  0.0008  112.1  0.9957   -0.7
 0.040  0.9631   -1.1  12.249  177.2  0.0010   81.5  0.9968   -0.9
 0.050  0.9620   -1.5  12.311  178.4  0.0012  114.0  0.9983   -1.2
 0.060  0.9627   -1.8  12.296  178.2  0.0016   77.2  0.9973   -1.5
 0.070  0.9629   -2.1  12.323  178.0  0.0017   99.4  0.9972   -1.7
 0.080  0.9617   -2.4  12.351  177.6  0.0023   82.7  0.9977   -2.0
 0.090  0.9619   -2.7  12.352  177.3  0.0024   84.1  0.9979   -2.3
 0.100  0.9626   -3.0  12.356  177.1  0.0031   90.8  0.9973   -2.6
 0.110  0.9624   -3.3  12.338  176.8  0.0026   98.9  0.9979   -2.9
 0.120  0.9622   -3.6  12.331  176.7  0.0032   88.3  0.9973   -3.2
 0.130  0.9628   -3.9  12.320  176.3  0.0034   80.1  0.9974   -3.4
 0.140  0.9620   -4.2  12.301  176.1  0.0040   86.2  0.9973   -3.7
 0.150  0.9618   -4.5  12.307  175.8  0.0039   88.1  0.9968   -3.9
 0.200  0.9608   -6.0  12.280  174.3  0.0053   83.8  0.9963   -5.3
 0.250  0.9604   -7.5  12.300  172.9  0.0067   83.2  0.9952   -6.6
 0.300  0.9583   -9.0  12.279  171.5  0.0082   85.0  0.9931   -8.0
 0.350  0.9565  -10.4  12.269  170.0  0.0096   82.6  0.9917   -9.3
 0.400  0.9545  -11.9  12.260  168.7  0.0107   81.4  0.9890  -10.7
 0.450  0.9528  -13.3  12.182  167.3  0.0120   80.1  0.9870  -12.0
 0.500  0.9503  -14.8  12.181  166.0  0.0135   79.2  0.9842  -13.3
 0.600  0.9454  -17.8  12.079  163.2  0.0161   77.4  0.9777  -15.9
 0.700  0.9399  -20.6  11.976  160.7  0.0187   74.9  0.9711  -18.6
 0.800  0.9331  -23.6  12.002  158.0  0.0213   72.9  0.9637  -21.2
 0.900  0.9263  -26.5  11.884  155.5  0.0238   70.5  0.9548  -23.8
 1.000  0.9186  -29.3  11.734  152.9  0.0262   68.5  0.9459  -26.4
 1.100  0.9106  -32.1  11.600  150.5  0.0286   66.1  0.9363  -29.0
 1.200  0.9023  -35.0  11.494  147.9  0.0308   64.1  0.9259  -31.6
 1.300  0.8934  -37.7  11.366  145.4  0.0331   61.9  0.9152  -34.2
 1.400  0.8848  -40.5  11.226  143.0  0.0351   60.0  0.9039  -36.7
 1.500  0.8747  -43.3  11.123  140.7  0.0371   57.9  0.8922  -39.3
 1.600  0.8640  -46.3  11.130  138.1  0.0391   55.6  0.8803  -41.9
 1.700  0.8525  -48.9  10.936  135.5  0.0409   53.7  0.8678  -44.5
 1.800  0.8439  -51.5  10.737  133.4  0.0426   51.9  0.8567  -47.0
 1.900  0.8332  -54.0  10.557  131.1  0.0442   49.7  0.8442  -49.5
 2.000  0.8242  -56.6  10.417  128.9  0.0457   47.7  0.8326  -51.9
 2.100  0.8144  -59.2  10.266  126.6  0.0471   46.0  0.8213  -54.3
 2.200  0.8043  -61.7  10.092  124.4  0.0485   44.2  0.8106  -56.7
 2.300  0.7938  -64.1   9.932  122.4  0.0496   42.3  0.7984  -59.0
 2.400  0.7850  -66.5   9.766  120.2  0.0508   40.7  0.7892  -61.2
 2.500  0.7744  -68.8   9.598  118.1  0.0519   39.2  0.7775  -63.3
 2.600  0.7651  -71.1   9.436  116.1  0.0527   37.5  0.7669  -65.5
 2.700  0.7547  -73.4   9.276  114.2  0.0536   36.0  0.7557  -67.6
 2.800  0.7463  -75.7   9.130  112.3  0.0542   34.6  0.7452  -69.6
 2.900  0.7374  -77.8   8.976  110.4  0.0550   33.2  0.7369  -71.6
 3.000  0.7293  -80.0   8.834  108.7  0.0557   32.0  0.7268  -73.5
 3.100  0.7176  -82.4   8.738  106.6  0.0562   30.6  0.7184  -75.4
 3.200  0.7108  -84.5   8.584  104.9  0.0567   29.4  0.7092  -77.3
 3.300  0.7037  -86.5   8.428  103.2  0.0572   28.1  0.7013  -79.2
 3.400  0.6968  -88.5   8.274  101.6  0.0577   26.9  0.6944  -81.0
 3.500  0.6907  -90.5   8.136  100.0  0.0580   25.8  0.6869  -82.6
 3.600  0.6838  -92.5   8.002   98.3  0.0584   24.7  0.6794  -84.3
 3.700  0.6771  -94.5   7.873   96.8  0.0586   23.6  0.6726  -85.9
 3.800  0.6709  -96.5   7.753   95.2  0.0589   22.6  0.6662  -87.5
 3.900  0.6650  -98.5   7.644   93.7  0.0592   21.7  0.6610  -89.1
 4.000  0.6602 -100.4   7.530   92.2  0.0597   20.7  0.6553  -90.6
 4.100  0.6559 -102.4   7.420   90.6  0.0598   19.7  0.6494  -92.2
 4.200  0.6507 -104.4   7.315   89.1  0.0599   18.8  0.6435  -93.6
 4.300  0.6468 -106.4   7.212   87.6  0.0601   17.9  0.6379  -95.2
 4.400  0.6421 -108.3   7.104   86.2  0.0602   17.0  0.6326  -96.6
 4.500  0.6387 -110.3   7.008   84.7  0.0605   16.2  0.6278  -98.1
 4.600  0.6345 -112.3   6.926   83.2  0.0605   15.3  0.6219  -99.5
 4.700  0.6311 -114.2   6.829   81.8  0.0605   14.5  0.6167 -100.9
 4.800  0.6278 -116.1   6.737   80.3  0.0605   13.6  0.6114 -102.3
 4.900  0.6249 -117.9   6.650   78.9  0.0606   12.9  0.6068 -103.7
 5.000  0.6222 -119.6   6.556   77.5  0.0604   12.0  0.6008 -105.0
 5.100  0.6192 -121.4   6.467   76.1  0.0604   11.4  0.5952 -106.4
 5.200  0.6160 -123.1   6.379   74.7  0.0603   10.5  0.5890 -107.6
 5.300  0.6130 -124.8   6.302   73.3  0.0602    9.7  0.5833 -109.0
 5.400  0.6101 -126.6   6.219   71.9  0.0601    9.0  0.5779 -110.3
 5.500  0.6070 -128.3   6.142   70.4  0.0600    8.2  0.5719 -111.6
 5.600  0.6031 -130.0   6.062   69.1  0.0598    7.5  0.5649 -112.9
 5.700  0.5989 -131.8   5.986   67.6  0.0595    6.8  0.5583 -114.3
 5.800  0.5953 -133.5   5.915   66.3  0.0592    6.0  0.5510 -115.6
 5.900  0.5912 -135.2   5.838   64.9  0.0589    5.4  0.5445 -117.0
 6.000  0.5877 -137.0   5.767   63.5  0.0585    4.7  0.5368 -118.3
 6.100  0.5825 -138.8   5.705   62.1  0.0583    4.1  0.5300 -119.8
 6.200  0.5790 -140.5   5.628   60.7  0.0578    3.5  0.5227 -121.1
 6.300  0.5751 -142.3   5.556   59.4  0.0574    2.9  0.5154 -122.6
 6.400  0.5722 -144.0   5.484   58.0  0.0569    2.3  0.5088 -124.0
 6.500  0.5676 -145.7   5.416   56.7  0.0563    1.9  0.5004 -125.5
 6.600  0.5635 -147.4   5.338   55.4  0.0557    1.4  0.4933 -126.9
 6.700  0.5593 -149.2   5.271   54.0  0.0551    1.0  0.4855 -128.4
 6.800  0.5559 -150.9   5.204   52.7  0.0544    0.8  0.4791 -129.9
 6.900  0.5519 -152.6   5.136   51.4  0.0537    0.6  0.4718 -131.4
 7.000  0.5488 -154.4   5.073   50.2  0.0530    0.4  0.4654 -132.7
 7.100  0.5460 -156.2   5.007   48.9  0.0524    0.5  0.4584 -134.3
 7.200  0.5440 -157.9   4.947   47.6  0.0517    0.8  0.4525 -135.7
 7.300  0.5427 -159.6   4.886   46.4  0.0513    1.1  0.4470 -137.2
 7.400  0.5420 -161.3   4.833   45.1  0.0510    1.4  0.4424 -138.7
 7.500  0.5420 -162.9   4.779   43.9  0.0507    1.8  0.4382 -140.2
 7.600  0.5432 -164.6   4.728   42.6  0.0506    2.2  0.4342 -141.9
 7.700  0.5440 -166.3   4.680   41.3  0.0505    2.4  0.4308 -143.6
 7.800  0.5467 -168.0   4.633   39.9  0.0506    2.7  0.4286 -145.5
 7.900  0.5492 -169.7   4.581   38.7  0.0506    2.9  0.4252 -147.4
 8.000  0.5527 -171.3   4.535   37.3  0.0507    3.0  0.4225 -149.4
 8.500  0.5686 -179.4   4.275   30.3  0.0507    2.8  0.4076 -161.1
 9.000  0.5850  171.9   3.988   23.3  0.0501    2.4  0.3973 -174.5
 9.500  0.6035  164.1   3.691   16.6  0.0491    2.5  0.4043  170.7
10.000  0.6224  157.2   3.385   10.3  0.0480    3.2  0.4376  156.9
10.500  0.6438  151.5   3.100    4.8  0.0474    4.6  0.4959  147.2
11.000  0.6620  146.1   2.826   -0.4  0.0471    6.0  0.5593  141.6
11.500  0.6778  141.5   2.578   -4.6  0.0466    7.8  0.6192  140.2
12.000  0.6888  137.7   2.342   -8.0  0.0462   10.4  0.6600  141.7
!
!  f       NFmin   Gammaopt  rn/50
! GHz       dB    MAG  ANG    -
 0.450      0.53  0.56    6   0.19
 0.900      0.57  0.54   13   0.19
 1.500      0.61  0.49   19   0.19
 1.900      0.62  0.45   28   0.19
 2.400      0.64  0.43   34   0.19
 3.500      0.66  0.41   54   0.18
 5.500      0.76  0.29   90   0.13
 8.000      0.95  0.24  149   0.11
10.000      1.14  0.28 -158   0.10
12.000      1.34  0.45 -129   0.13
!
! (c) 2012  Infineon Technologies AG, Munich
