! Infineon Technologies  Discrete & RF Semiconductors
! BFP843
! VCE =  1.5 V,  IC =  18 mA
! Common Emitter S-Parameters:                            Aug 2013
# GHz  S  MA  R  50
!  f         S11            S21            S12            S22
! GHz     MAG   ANG      MAG   ANG      MAG   ANG      MAG   ANG
 0.030  0.3324  -75.4  24.192  158.1  0.0385   24.6  0.3923  -60.7
 0.040  0.2561  -84.7  22.295  159.9  0.0403   21.7  0.3019  -65.4
 0.050  0.2147  -90.8  21.281  162.7  0.0420   15.2  0.2477  -68.5
 0.060  0.1762  -97.4  20.666  163.5  0.0393   16.9  0.2045  -69.3
 0.070  0.1517 -102.1  20.096  164.8  0.0419   15.3  0.1801  -67.2
 0.080  0.1259 -105.3  19.904  165.4  0.0421   10.2  0.1555  -68.7
 0.090  0.1180 -108.9  19.689  165.7  0.0422   12.1  0.1410  -67.2
 0.100  0.0994 -111.2  19.464  166.2  0.0413    8.6  0.1179  -63.9
 0.110  0.0998 -116.3  19.388  166.3  0.0429   10.1  0.1084  -62.4
 0.120  0.0871 -117.5  19.233  166.4  0.0441    8.5  0.1036  -59.1
 0.130  0.0805 -120.1  19.214  166.6  0.0417   10.4  0.0948  -59.5
 0.140  0.0768 -126.6  19.114  166.3  0.0409    7.3  0.0938  -53.4
 0.150  0.0712 -123.4  19.022  166.2  0.0422    7.7  0.0868  -53.2
 0.200  0.0526 -129.6  18.612  165.5  0.0432    5.5  0.0775  -43.1
 0.250  0.0433 -129.5  18.464  164.1  0.0451    6.1  0.0779  -37.1
 0.300  0.0370 -126.7  18.180  162.8  0.0436    4.6  0.0765  -34.2
 0.350  0.0388 -129.1  18.000  161.2  0.0431    4.0  0.0798  -33.1
 0.400  0.0390 -127.4  17.821  159.7  0.0430    4.4  0.0788  -33.3
 0.450  0.0400 -125.1  17.718  158.2  0.0442    2.5  0.0814  -36.2
 0.500  0.0442 -121.3  17.562  156.5  0.0434    2.1  0.0802  -39.7
 0.600  0.0499 -124.9  17.289  153.0  0.0442    1.8  0.0823  -44.0
 0.700  0.0581 -126.7  17.006  149.5  0.0440    1.5  0.0835  -49.9
 0.800  0.0653 -127.5  16.721  146.1  0.0450    1.7  0.0856  -56.1
 0.900  0.0724 -131.1  16.430  142.6  0.0445    1.7  0.0857  -63.0
 1.000  0.0804 -133.7  16.127  139.3  0.0449    0.9  0.0877  -69.8
 1.100  0.0884 -137.9  15.840  135.9  0.0449    0.4  0.0907  -76.1
 1.200  0.0969 -140.0  15.508  132.6  0.0440    0.3  0.0928  -82.9
 1.300  0.1034 -144.7  15.199  129.3  0.0448   -0.1  0.0952  -88.5
 1.400  0.1123 -146.5  14.884  126.2  0.0442   -0.1  0.0977  -94.2
 1.500  0.1197 -150.1  14.551  123.2  0.0441   -0.5  0.1010 -100.0
 1.600  0.1281 -153.0  14.257  120.0  0.0445   -0.7  0.1054 -105.2
 1.700  0.1351 -155.7  13.929  117.0  0.0444   -0.3  0.1074 -110.4
 1.800  0.1427 -158.5  13.600  114.1  0.0443   -1.3  0.1123 -114.8
 1.900  0.1494 -161.7  13.298  111.3  0.0443   -0.8  0.1157 -120.1
 2.000  0.1579 -163.9  13.005  108.4  0.0443   -1.2  0.1201 -124.3
 2.100  0.1650 -166.9  12.696  105.6  0.0437   -1.2  0.1232 -128.5
 2.200  0.1723 -169.2  12.395  103.1  0.0439   -1.1  0.1283 -132.5
 2.300  0.1789 -171.7  12.131  100.4  0.0443   -1.3  0.1313 -136.3
 2.400  0.1848 -174.0  11.846   97.8  0.0437   -1.0  0.1355 -139.7
 2.500  0.1914 -177.1  11.575   95.2  0.0437   -0.7  0.1405 -143.7
 2.600  0.1970 -179.1  11.315   92.7  0.0440   -1.5  0.1431 -146.8
 2.700  0.2035  178.6  11.042   90.3  0.0432   -1.9  0.1473 -150.6
 2.800  0.2099  176.4  10.791   87.9  0.0434   -1.1  0.1511 -153.3
 2.900  0.2164  174.3  10.551   85.5  0.0429   -1.2  0.1570 -156.8
 3.000  0.2223  172.0  10.314   83.1  0.0424   -0.6  0.1605 -159.9
 3.100  0.2298  170.1  10.095   80.8  0.0425   -0.9  0.1663 -163.1
 3.200  0.2358  167.7   9.866   78.6  0.0430   -0.8  0.1723 -166.3
 3.300  0.2426  165.6   9.648   76.3  0.0426   -1.0  0.1778 -168.8
 3.400  0.2492  163.5   9.442   74.2  0.0428   -0.4  0.1840 -171.3
 3.500  0.2549  161.6   9.239   72.0  0.0427    0.0  0.1897 -173.9
 3.600  0.2619  159.5   9.037   69.8  0.0422   -0.8  0.1956 -176.2
 3.700  0.2681  157.7   8.846   67.7  0.0418   -0.2  0.2019 -178.6
 3.800  0.2757  155.6   8.666   65.6  0.0427    0.3  0.2095  179.4
 3.900  0.2821  153.8   8.477   63.5  0.0423    0.3  0.2158  177.3
 4.000  0.2894  152.3   8.298   61.5  0.0425    1.3  0.2231  175.5
 4.100  0.2958  150.4   8.122   59.5  0.0428    1.2  0.2301  173.7
 4.200  0.3022  148.9   7.955   57.4  0.0430    0.6  0.2364  172.0
 4.300  0.3102  147.5   7.791   55.5  0.0426    2.0  0.2441  170.5
 4.400  0.3181  145.9   7.624   53.6  0.0430    2.1  0.2496  168.9
 4.500  0.3243  144.6   7.473   51.6  0.0430    2.7  0.2565  167.7
 4.600  0.3325  143.4   7.324   49.8  0.0429    3.8  0.2638  166.4
 4.700  0.3383  142.2   7.191   47.8  0.0432    3.3  0.2693  164.9
 4.800  0.3470  141.1   7.047   46.0  0.0432    3.9  0.2762  163.8
 4.900  0.3519  140.1   6.910   44.2  0.0437    4.1  0.2816  162.6
 5.000  0.3589  139.0   6.781   42.3  0.0440    4.6  0.2878  161.4
 5.100  0.3648  138.1   6.647   40.6  0.0443    4.5  0.2937  160.0
 5.200  0.3719  137.2   6.529   38.8  0.0448    5.5  0.2994  159.1
 5.300  0.3785  136.3   6.405   37.0  0.0451    5.8  0.3050  157.8
 5.400  0.3838  135.3   6.295   35.2  0.0449    6.2  0.3095  156.6
 5.500  0.3894  134.5   6.172   33.4  0.0453    6.9  0.3149  155.5
 5.600  0.3949  133.7   6.073   31.8  0.0456    6.8  0.3198  154.4
 5.700  0.3973  133.0   5.952   30.1  0.0464    7.3  0.3249  153.2
 5.800  0.4035  132.2   5.853   28.4  0.0465    7.8  0.3291  152.2
 5.900  0.4063  131.5   5.758   26.8  0.0472    7.9  0.3354  151.0
 6.000  0.4126  130.5   5.661   25.1  0.0481    7.6  0.3403  150.1
 6.100  0.4166  130.0   5.568   23.4  0.0486    8.5  0.3451  148.7
 6.200  0.4215  129.0   5.479   21.7  0.0489    8.4  0.3510  147.6
 6.300  0.4269  128.3   5.392   20.0  0.0500    9.2  0.3569  146.4
 6.400  0.4305  127.4   5.310   18.3  0.0504    8.5  0.3628  145.4
 6.500  0.4362  126.4   5.223   16.7  0.0515    8.6  0.3682  144.3
 6.600  0.4396  125.3   5.143   15.0  0.0521    8.9  0.3740  143.2
 6.700  0.4454  124.3   5.066   13.4  0.0533    8.8  0.3798  142.0
 6.800  0.4489  123.1   4.993   11.7  0.0539    8.9  0.3850  140.9
 6.900  0.4539  122.1   4.916   10.1  0.0543    8.4  0.3914  139.8
 7.000  0.4566  120.7   4.844    8.4  0.0554    8.5  0.3987  138.6
 7.100  0.4629  119.5   4.772    6.7  0.0565    8.2  0.4045  137.5
 7.200  0.4666  118.3   4.707    5.0  0.0574    8.3  0.4112  136.4
 7.300  0.4735  116.9   4.641    3.3  0.0584    7.6  0.4177  135.2
 7.400  0.4785  115.6   4.577    1.6  0.0591    7.5  0.4238  134.1
 7.500  0.4845  114.3   4.508   -0.1  0.0602    7.4  0.4308  132.8
 7.600  0.4914  112.9   4.449   -1.9  0.0608    7.1  0.4380  131.5
 7.700  0.4997  111.5   4.385   -3.8  0.0619    6.3  0.4464  130.1
 7.800  0.5062  110.3   4.318   -5.5  0.0630    6.1  0.4526  128.8
 7.900  0.5150  108.7   4.259   -7.3  0.0637    5.5  0.4608  127.3
 8.000  0.5226  107.4   4.195   -9.1  0.0646    4.8  0.4692  125.9
 8.500  0.5705  100.4   3.846  -18.5  0.0683    1.5  0.5136  118.1
 9.000  0.6189   91.0   3.470  -27.4  0.0713   -2.1  0.5661  109.9
 9.500  0.6595   84.9   3.069  -34.8  0.0722   -5.0  0.6175  102.8
10.000  0.6950   81.0   2.757  -40.5  0.0735   -7.2  0.6631   97.9
10.500  0.7335   77.6   2.534  -46.2  0.0755   -8.6  0.6999   95.4
11.000  0.7544   74.6   2.338  -52.0  0.0782  -10.2  0.7375   94.1
11.500  0.7644   72.6   2.171  -57.3  0.0819  -12.6  0.7568   92.6
12.000  0.7676   71.3   2.032  -62.5  0.0861  -15.4  0.7710   90.1
!
!  f       NFmin   Gammaopt  rn/50
! GHz       dB    MAG  ANG    -
 0.450      1.02  0.09 -173   0.03
 0.900      1.03  0.10 -164   0.07
 1.500      1.05  0.10 -156   0.14
 1.900      1.06  0.10 -147   0.20
 2.400      1.09  0.10 -134   0.26
 3.500      1.13  0.09 -117   0.31
 5.500      1.23  0.23 -112   0.38
10.000      1.81  0.51  -62   0.52
!
! (c) 2013  Infineon Technologies AG, Munich
