! Infineon Technologies  Discrete & RF Semiconductors
! BFP843F
! VCE =  1.0 V,  IC =  50 mA
! Common Emitter S-Parameters:                            Aug 2013
# GHz  S  MA  R  50
!  f         S11            S21            S12            S22
! GHz     MAG   ANG      MAG   ANG      MAG   ANG      MAG   ANG
 0.030  0.2091 -126.9  11.848  166.6  0.0211   31.7  0.1624 -133.7
 0.040  0.2278 -136.3  11.310  166.3  0.0236   22.6  0.1776 -145.2
 0.050  0.2363 -140.7  10.938  167.6  0.0243   13.4  0.1837 -152.8
 0.060  0.2431 -145.3  10.766  167.5  0.0249   17.3  0.1864 -157.0
 0.070  0.2481 -146.9  10.617  167.2  0.0253   25.2  0.1878 -160.7
 0.080  0.2467 -149.2  10.542  166.8  0.0247   12.5  0.1920 -163.4
 0.090  0.2561 -149.5  10.473  166.0  0.0264   12.8  0.1903 -167.2
 0.100  0.2538 -150.4  10.364  165.7  0.0257    4.7  0.1879 -170.4
 0.110  0.2652 -150.2  10.320  165.0  0.0253    9.8  0.1890 -172.3
 0.120  0.2679 -151.3  10.268  164.4  0.0262   13.7  0.1854 -173.4
 0.130  0.2674 -150.5  10.211  163.8  0.0281    8.5  0.1857 -174.5
 0.140  0.2764 -150.8  10.153  163.0  0.0269   12.4  0.1818 -175.8
 0.150  0.2781 -150.0  10.121  162.3  0.0253    8.6  0.1847 -176.0
 0.200  0.3046 -149.3   9.843  158.5  0.0259   10.5  0.1794  179.6
 0.250  0.3297 -148.0   9.626  154.7  0.0282    9.0  0.1718  177.7
 0.300  0.3600 -147.0   9.374  151.0  0.0271    8.5  0.1676  176.4
 0.350  0.3903 -147.2   9.096  147.2  0.0281    9.6  0.1632  175.0
 0.400  0.4209 -147.5   8.812  143.8  0.0282    8.8  0.1618  176.1
 0.450  0.4489 -148.4   8.537  140.5  0.0283    9.2  0.1588  176.3
 0.500  0.4779 -149.4   8.254  137.2  0.0282    7.8  0.1555  176.4
 0.600  0.5265 -152.2   7.720  131.1  0.0285    8.7  0.1561  177.6
 0.700  0.5666 -155.1   7.205  125.6  0.0286    8.6  0.1548  178.6
 0.800  0.6025 -157.8   6.710  120.6  0.0288    8.7  0.1563 -179.9
 0.900  0.6316 -160.8   6.268  115.9  0.0291    9.2  0.1586 -179.4
 1.000  0.6573 -163.5   5.858  111.8  0.0293   10.1  0.1628 -178.2
 1.100  0.6775 -165.9   5.498  108.1  0.0298   11.4  0.1678 -177.4
 1.200  0.6967 -168.3   5.158  104.5  0.0298   10.5  0.1728 -176.0
 1.300  0.7094 -170.7   4.839  101.2  0.0300   12.1  0.1782 -175.3
 1.400  0.7234 -172.7   4.560   98.2  0.0298   12.2  0.1834 -174.6
 1.500  0.7348 -174.5   4.307   95.4  0.0301   12.8  0.1895 -174.0
 1.600  0.7455 -176.4   4.083   92.6  0.0302   13.8  0.1961 -173.0
 1.700  0.7541 -178.2   3.870   90.0  0.0306   14.6  0.2020 -172.8
 1.800  0.7601 -179.8   3.673   87.6  0.0309   14.4  0.2096 -172.4
 1.900  0.7665  178.7   3.498   85.4  0.0306   15.6  0.2166 -172.1
 2.000  0.7758  177.1   3.349   83.1  0.0311   15.7  0.2243 -171.7
 2.100  0.7795  175.6   3.189   80.8  0.0303   16.9  0.2306 -171.3
 2.200  0.7834  174.2   3.039   78.9  0.0316   17.4  0.2399 -170.9
 2.300  0.7884  172.9   2.918   77.0  0.0314   19.2  0.2453 -170.7
 2.400  0.7917  171.7   2.799   75.0  0.0321   18.2  0.2523 -169.9
 2.500  0.7943  170.3   2.690   73.1  0.0315   19.9  0.2587 -170.3
 2.600  0.7961  169.1   2.582   71.4  0.0323   20.2  0.2656 -169.8
 2.700  0.7985  168.0   2.483   69.7  0.0325   21.3  0.2715 -169.9
 2.800  0.8021  166.9   2.394   68.1  0.0328   22.0  0.2781 -169.6
 2.900  0.8059  165.7   2.314   66.4  0.0333   22.6  0.2849 -169.6
 3.000  0.8062  164.6   2.235   64.8  0.0336   24.2  0.2912 -169.5
 3.100  0.8095  163.4   2.160   63.1  0.0338   23.1  0.2967 -169.7
 3.200  0.8109  162.2   2.089   61.5  0.0339   24.6  0.3029 -169.9
 3.300  0.8117  161.2   2.020   60.0  0.0347   24.9  0.3081 -169.8
 3.400  0.8131  160.1   1.963   58.5  0.0354   25.6  0.3138 -169.8
 3.500  0.8153  159.1   1.903   57.1  0.0353   25.8  0.3182 -170.0
 3.600  0.8166  158.0   1.847   55.6  0.0357   26.4  0.3232 -170.2
 3.700  0.8173  156.8   1.789   54.1  0.0359   26.9  0.3263 -170.5
 3.800  0.8189  155.8   1.742   52.6  0.0371   27.2  0.3315 -170.9
 3.900  0.8191  154.7   1.697   51.2  0.0369   27.6  0.3345 -171.4
 4.000  0.8212  153.7   1.648   49.8  0.0379   28.2  0.3398 -171.9
 4.100  0.8227  152.7   1.607   48.5  0.0388   28.7  0.3433 -172.4
 4.200  0.8225  151.6   1.562   47.1  0.0392   29.7  0.3473 -172.9
 4.300  0.8257  150.7   1.524   45.8  0.0394   29.3  0.3509 -173.6
 4.400  0.8269  149.6   1.485   44.5  0.0395   30.9  0.3547 -174.1
 4.500  0.8277  148.7   1.452   43.2  0.0408   29.7  0.3583 -174.7
 4.600  0.8286  147.7   1.414   41.8  0.0407   30.2  0.3628 -175.5
 4.700  0.8309  146.8   1.384   40.5  0.0412   31.1  0.3658 -176.4
 4.800  0.8315  145.8   1.350   39.2  0.0423   30.5  0.3696 -177.1
 4.900  0.8318  144.9   1.321   38.0  0.0433   31.2  0.3721 -177.8
 5.000  0.8328  143.9   1.294   36.7  0.0440   31.6  0.3757 -178.8
 5.100  0.8336  142.9   1.261   35.4  0.0443   31.5  0.3783 -179.8
 5.200  0.8347  142.1   1.236   34.1  0.0450   31.3  0.3828  179.4
 5.300  0.8357  141.1   1.208   32.8  0.0456   31.8  0.3852  178.4
 5.400  0.8366  140.1   1.187   31.5  0.0463   31.9  0.3882  177.6
 5.500  0.8381  139.2   1.161   30.3  0.0469   32.0  0.3914  176.7
 5.600  0.8389  138.4   1.139   29.1  0.0473   31.8  0.3947  175.9
 5.700  0.8367  137.4   1.110   27.7  0.0481   31.6  0.3974  174.9
 5.800  0.8385  136.3   1.091   26.5  0.0489   31.9  0.4005  174.0
 5.900  0.8380  135.6   1.069   25.4  0.0493   31.7  0.4035  173.0
 6.000  0.8390  134.4   1.051   24.1  0.0498   31.5  0.4058  172.0
 6.100  0.8391  133.5   1.027   22.8  0.0504   31.8  0.4084  170.8
 6.200  0.8388  132.3   1.007   21.5  0.0509   32.0  0.4106  169.8
 6.300  0.8382  131.4   0.987   20.2  0.0518   31.8  0.4115  168.7
 6.400  0.8374  130.3   0.968   19.0  0.0521   31.8  0.4144  167.6
 6.500  0.8376  129.2   0.948   17.8  0.0532   31.9  0.4164  166.5
 6.600  0.8369  128.2   0.930   16.6  0.0538   32.0  0.4186  165.3
 6.700  0.8374  127.1   0.911   15.5  0.0547   32.3  0.4189  164.3
 6.800  0.8356  126.1   0.895   14.3  0.0552   31.7  0.4200  163.1
 6.900  0.8362  125.0   0.876   13.1  0.0562   31.9  0.4208  161.8
 7.000  0.8347  123.9   0.860   11.9  0.0572   31.9  0.4219  160.3
 7.100  0.8354  122.7   0.840   10.7  0.0582   31.8  0.4246  159.0
 7.200  0.8352  121.8   0.826    9.7  0.0595   31.7  0.4263  157.7
 7.300  0.8358  120.6   0.810    8.5  0.0604   31.7  0.4289  156.2
 7.400  0.8354  119.6   0.796    7.5  0.0616   30.9  0.4314  154.8
 7.500  0.8374  118.7   0.780    6.3  0.0628   30.9  0.4357  153.3
 7.600  0.8384  117.8   0.767    5.3  0.0634   30.3  0.4376  151.8
 7.700  0.8412  116.7   0.753    4.1  0.0644   29.9  0.4429  149.9
 7.800  0.8423  115.9   0.738    3.0  0.0657   29.2  0.4464  148.3
 7.900  0.8443  114.9   0.726    1.9  0.0668   28.3  0.4518  146.4
 8.000  0.8470  114.2   0.713    0.8  0.0675   27.6  0.4579  144.8
 8.500  0.8631  110.3   0.649   -4.7  0.0702   24.3  0.4917  135.9
 9.000  0.8769  107.2   0.588  -10.0  0.0720   20.9  0.5347  127.8
 9.500  0.8859  102.7   0.527  -14.7  0.0725   18.0  0.5820  120.9
10.000  0.8815  100.2   0.469  -18.2  0.0732   16.1  0.6292  115.6
10.500  0.8896   98.3   0.427  -20.8  0.0733   14.9  0.6739  112.1
11.000  0.9041   95.3   0.392  -23.7  0.0736   14.2  0.7133  111.0
11.500  0.9100   92.6   0.360  -25.6  0.0737   14.2  0.7384  112.4
12.000  0.9087   90.7   0.329  -26.6  0.0747   14.1  0.7630  116.3
!
!  f       NFmin   Gammaopt  rn/50
! GHz       dB    MAG  ANG    -
!
! noise parameter not available yet for this operation point!
!
! (c) 2013  Infineon Technologies AG, Munich
