! Infineon Technologies  Discrete & RF Semiconductors
! BFP843
! VCE =  1.5 V,  IC =  12 mA
! Common Emitter S-Parameters:                            Aug 2013
# GHz  S  MA  R  50
!  f         S11            S21            S12            S22
! GHz     MAG   ANG      MAG   ANG      MAG   ANG      MAG   ANG
 0.030  0.3987  -52.5  20.295  160.8  0.0417   26.8  0.4650  -45.4
 0.040  0.3145  -54.7  18.873  162.2  0.0453   23.8  0.3772  -46.3
 0.050  0.2657  -55.4  18.116  164.7  0.0448   13.7  0.3198  -46.3
 0.060  0.2265  -56.6  17.645  165.3  0.0477   14.5  0.2899  -44.8
 0.070  0.1961  -51.4  17.159  166.4  0.0461    9.3  0.2520  -40.7
 0.080  0.1777  -48.8  17.004  166.9  0.0452   11.8  0.2441  -40.0
 0.090  0.1651  -48.3  16.859  167.1  0.0490   11.2  0.2257  -37.7
 0.100  0.1555  -44.7  16.669  167.5  0.0491   10.2  0.2158  -34.6
 0.110  0.1476  -45.9  16.648  167.7  0.0457    9.3  0.2114  -33.3
 0.120  0.1414  -42.0  16.517  167.7  0.0482    8.9  0.2060  -31.4
 0.130  0.1366  -41.1  16.507  167.9  0.0504    6.5  0.2001  -29.8
 0.140  0.1273  -39.4  16.420  167.5  0.0483    6.0  0.1996  -28.3
 0.150  0.1318  -37.4  16.348  167.5  0.0475    8.7  0.1956  -27.2
 0.200  0.1244  -30.2  16.036  166.7  0.0507    4.4  0.1887  -23.6
 0.250  0.1223  -28.7  15.964  165.3  0.0506    4.8  0.1907  -22.9
 0.300  0.1245  -27.9  15.722  164.1  0.0504    2.8  0.1904  -22.9
 0.350  0.1234  -29.2  15.594  162.5  0.0489    3.0  0.1923  -23.5
 0.400  0.1260  -31.0  15.442  161.0  0.0503    3.2  0.1900  -25.0
 0.450  0.1256  -33.5  15.385  159.5  0.0503    2.4  0.1916  -27.3
 0.500  0.1274  -35.9  15.278  157.9  0.0512    1.2  0.1914  -29.0
 0.600  0.1263  -41.5  15.087  154.5  0.0504    0.7  0.1899  -33.2
 0.700  0.1260  -47.0  14.868  151.1  0.0506    1.0  0.1882  -37.8
 0.800  0.1285  -52.9  14.652  147.8  0.0506    0.0  0.1873  -43.1
 0.900  0.1267  -59.2  14.449  144.3  0.0508   -0.7  0.1856  -47.7
 1.000  0.1290  -65.2  14.205  141.0  0.0510   -2.1  0.1846  -52.9
 1.100  0.1288  -71.1  13.975  137.8  0.0511   -1.5  0.1840  -58.2
 1.200  0.1313  -77.2  13.706  134.5  0.0508   -2.0  0.1815  -63.5
 1.300  0.1308  -83.3  13.476  131.3  0.0510   -1.9  0.1812  -68.4
 1.400  0.1343  -89.5  13.244  128.2  0.0510   -3.2  0.1814  -73.1
 1.500  0.1358  -95.1  12.969  125.2  0.0508   -3.2  0.1814  -78.3
 1.600  0.1384 -101.0  12.729  122.0  0.0506   -3.1  0.1824  -83.2
 1.700  0.1419 -106.8  12.477  119.0  0.0506   -4.6  0.1810  -87.8
 1.800  0.1443 -112.1  12.207  116.1  0.0504   -3.8  0.1827  -92.4
 1.900  0.1480 -117.4  11.957  113.3  0.0501   -4.6  0.1824  -97.5
 2.000  0.1527 -121.4  11.708  110.4  0.0508   -4.8  0.1833 -102.0
 2.100  0.1568 -127.1  11.463  107.6  0.0497   -6.1  0.1845 -106.5
 2.200  0.1612 -131.1  11.213  105.0  0.0493   -5.6  0.1863 -110.9
 2.300  0.1655 -136.2  11.001  102.3  0.0492   -6.5  0.1878 -114.7
 2.400  0.1691 -139.7  10.762   99.7  0.0496   -7.1  0.1894 -118.7
 2.500  0.1738 -144.4  10.531   97.1  0.0489   -7.2  0.1912 -123.3
 2.600  0.1775 -147.7  10.305   94.6  0.0488   -7.3  0.1926 -127.0
 2.700  0.1819 -152.0  10.078   92.0  0.0488   -6.8  0.1943 -131.1
 2.800  0.1872 -155.6   9.867   89.7  0.0476   -7.4  0.1966 -134.8
 2.900  0.1926 -159.3   9.670   87.2  0.0481   -7.9  0.1998 -138.5
 3.000  0.1964 -162.8   9.460   84.7  0.0476   -8.5  0.2024 -142.5
 3.100  0.2030 -166.0   9.269   82.4  0.0473   -7.9  0.2057 -146.0
 3.200  0.2081 -169.5   9.080   80.0  0.0470   -8.3  0.2103 -149.6
 3.300  0.2129 -172.9   8.889   77.7  0.0467   -8.2  0.2143 -153.0
 3.400  0.2195 -175.8   8.705   75.5  0.0464   -8.7  0.2191 -156.3
 3.500  0.2242 -178.3   8.520   73.3  0.0462   -9.0  0.2230 -159.5
 3.600  0.2300  178.4   8.347   71.0  0.0459   -8.4  0.2281 -162.5
 3.700  0.2357  175.8   8.177   68.9  0.0455   -8.5  0.2331 -165.5
 3.800  0.2432  172.7   8.024   66.7  0.0445   -8.9  0.2395 -168.1
 3.900  0.2481  170.3   7.848   64.5  0.0445   -8.4  0.2448 -170.8
 4.000  0.2554  168.3   7.686   62.4  0.0443   -7.6  0.2512 -173.3
 4.100  0.2617  165.7   7.531   60.3  0.0441   -7.9  0.2575 -175.8
 4.200  0.2687  163.6   7.384   58.3  0.0442   -8.7  0.2638 -177.7
 4.300  0.2766  161.4   7.237   56.2  0.0443   -7.6  0.2705 -179.8
 4.400  0.2847  159.4   7.084   54.3  0.0436   -6.7  0.2762  178.2
 4.500  0.2911  157.8   6.942   52.3  0.0434   -7.0  0.2825  176.4
 4.600  0.2987  156.1   6.807   50.3  0.0431   -6.4  0.2890  174.7
 4.700  0.3055  154.4   6.688   48.3  0.0429   -6.0  0.2950  172.9
 4.800  0.3147  152.9   6.556   46.4  0.0428   -5.2  0.3018  171.5
 4.900  0.3198  151.7   6.425   44.6  0.0429   -4.7  0.3060  169.9
 5.000  0.3279  150.1   6.309   42.6  0.0427   -3.7  0.3120  168.4
 5.100  0.3350  148.8   6.186   40.8  0.0425   -4.0  0.3176  166.8
 5.200  0.3426  147.6   6.082   39.0  0.0427   -3.5  0.3242  165.5
 5.300  0.3498  146.5   5.964   37.1  0.0429   -1.9  0.3293  164.0
 5.400  0.3553  145.3   5.860   35.3  0.0425   -1.8  0.3336  162.7
 5.500  0.3619  144.2   5.743   33.4  0.0429   -1.7  0.3386  161.2
 5.600  0.3683  143.3   5.653   31.7  0.0428   -1.2  0.3435  160.0
 5.700  0.3717  142.3   5.540   29.9  0.0432    0.4  0.3487  158.5
 5.800  0.3782  141.2   5.453   28.2  0.0432    1.1  0.3537  157.4
 5.900  0.3818  140.6   5.360   26.5  0.0438    1.7  0.3589  155.9
 6.000  0.3884  139.3   5.270   24.8  0.0444    1.5  0.3644  154.8
 6.100  0.3936  138.6   5.183   23.0  0.0443    2.6  0.3697  153.4
 6.200  0.3991  137.3   5.102   21.3  0.0453    3.3  0.3758  152.1
 6.300  0.4049  136.6   5.017   19.6  0.0454    3.6  0.3804  150.7
 6.400  0.4092  135.6   4.939   17.8  0.0462    3.8  0.3868  149.5
 6.500  0.4150  134.4   4.857   16.2  0.0468    4.1  0.3919  148.3
 6.600  0.4194  133.0   4.786   14.4  0.0472    4.9  0.3979  147.0
 6.700  0.4249  132.0   4.710   12.8  0.0480    5.4  0.4040  145.8
 6.800  0.4290  130.6   4.642   11.0  0.0486    5.3  0.4090  144.4
 6.900  0.4336  129.6   4.564    9.4  0.0495    5.5  0.4148  143.2
 7.000  0.4374  128.0   4.499    7.6  0.0506    5.7  0.4222  141.9
 7.100  0.4439  126.7   4.434    5.9  0.0510    5.9  0.4286  140.6
 7.200  0.4483  125.2   4.375    4.3  0.0515    5.7  0.4344  139.4
 7.300  0.4547  123.7   4.313    2.4  0.0527    6.4  0.4410  138.0
 7.400  0.4600  122.3   4.251    0.7  0.0540    5.8  0.4479  136.8
 7.500  0.4664  120.8   4.184   -1.0  0.0546    5.6  0.4537  135.4
 7.600  0.4736  119.3   4.130   -2.8  0.0558    5.4  0.4617  134.0
 7.700  0.4824  117.7   4.074   -4.7  0.0563    4.8  0.4694  132.5
 7.800  0.4892  116.3   4.009   -6.5  0.0573    4.4  0.4758  131.1
 7.900  0.4978  114.6   3.952   -8.4  0.0587    5.0  0.4841  129.6
 8.000  0.5058  113.2   3.892  -10.2  0.0595    4.1  0.4913  128.0
 8.500  0.5552  105.4   3.568  -19.8  0.0635    1.3  0.5346  119.8
 9.000  0.6054   95.4   3.214  -29.0  0.0669   -1.8  0.5862  111.3
 9.500  0.6482   88.9   2.830  -36.6  0.0684   -4.3  0.6363  103.9
10.000  0.6862   84.5   2.528  -42.5  0.0703   -6.2  0.6804   98.7
10.500  0.7272   80.8   2.314  -48.3  0.0725   -7.7  0.7166   96.1
11.000  0.7501   77.6   2.127  -54.1  0.0757   -9.1  0.7537   94.7
11.500  0.7634   75.4   1.967  -59.4  0.0798  -11.4  0.7731   93.0
12.000  0.7675   73.9   1.831  -64.6  0.0842  -14.1  0.7866   90.3
!
!  f       NFmin   Gammaopt  rn/50
! GHz       dB    MAG  ANG    -
 0.450      0.94  0.04    5   0.02
 0.900      0.95  0.04   16   0.05
 1.500      0.97  0.04   24   0.11
 1.900      0.99  0.04   34   0.18
 2.400      1.02  0.03   44   0.24
 3.500      1.07  0.01   58   0.27
 5.500      1.19  0.18 -121   0.33
10.000      1.80  0.50  -65   0.45
!
! (c) 2013  Infineon Technologies AG, Munich
