! Infineon Technologies  Discrete & RF Semiconductors
! BFP843
! VCE =  1.5 V,  IC =  45 mA
! Common Emitter S-Parameters:                            Aug 2013
# GHz  S  MA  R  50
!  f         S11            S21            S12            S22
! GHz     MAG   ANG      MAG   ANG      MAG   ANG      MAG   ANG
 0.030  0.3406 -124.5  27.873  156.0  0.0243   24.4  0.2999  -96.4
 0.040  0.3248 -137.5  25.530  158.0  0.0274   22.2  0.2469 -110.2
 0.050  0.3107 -145.6  24.327  160.9  0.0261   30.8  0.2125 -120.6
 0.060  0.3132 -151.4  23.562  161.6  0.0277   21.5  0.1920 -128.3
 0.070  0.3061 -157.4  22.886  163.0  0.0301   15.3  0.1793 -137.4
 0.080  0.3003 -161.5  22.648  163.6  0.0292   12.6  0.1732 -142.8
 0.090  0.2950 -164.0  22.398  163.9  0.0300   13.8  0.1615 -148.1
 0.100  0.2924 -166.8  22.182  164.3  0.0310   15.9  0.1553 -154.8
 0.110  0.2948 -167.7  22.020  164.2  0.0299   14.4  0.1496 -157.8
 0.120  0.2878 -170.3  21.849  164.3  0.0308   11.8  0.1421 -160.8
 0.130  0.2854 -171.1  21.778  164.4  0.0291   15.9  0.1392 -165.1
 0.140  0.2874 -172.7  21.629  164.0  0.0291   10.7  0.1346 -167.0
 0.150  0.2797 -173.8  21.542  163.8  0.0289    9.7  0.1325 -170.2
 0.200  0.2683 -177.5  21.056  162.6  0.0301    7.9  0.1176 -179.4
 0.250  0.2585 -179.1  20.763  160.7  0.0315    7.1  0.1088  175.1
 0.300  0.2527 -179.5  20.396  159.0  0.0316    8.3  0.1025  170.8
 0.350  0.2516 -179.0  20.048  156.9  0.0308    5.5  0.0954  167.9
 0.400  0.2496 -179.1  19.793  155.0  0.0320    7.2  0.0946  164.5
 0.450  0.2508 -178.2  19.578  153.0  0.0322    8.9  0.0891  164.6
 0.500  0.2516 -178.3  19.377  151.0  0.0324    6.5  0.0859  162.7
 0.600  0.2559 -177.7  18.865  146.7  0.0330    7.4  0.0814  159.2
 0.700  0.2636 -177.3  18.339  142.4  0.0338    6.5  0.0775  159.2
 0.800  0.2698 -177.5  17.916  138.5  0.0331    6.4  0.0748  159.4
 0.900  0.2799 -177.9  17.378  134.4  0.0330    5.6  0.0725  159.6
 1.000  0.2890 -178.4  16.894  130.5  0.0337    6.9  0.0711  160.3
 1.100  0.2993 -179.2  16.366  126.7  0.0334    7.6  0.0715  162.6
 1.200  0.3080  179.9  15.880  123.0  0.0335    7.6  0.0695  164.0
 1.300  0.3162  178.2  15.422  119.4  0.0339    8.1  0.0694  165.7
 1.400  0.3262  177.4  14.925  115.9  0.0339    8.3  0.0692  167.9
 1.500  0.3347  176.0  14.460  112.7  0.0339    9.3  0.0699  170.1
 1.600  0.3431  174.5  14.040  109.4  0.0344    8.6  0.0719  172.2
 1.700  0.3514  173.1  13.568  106.1  0.0343   10.0  0.0738  172.8
 1.800  0.3596  171.5  13.141  103.1  0.0344   10.0  0.0751  175.4
 1.900  0.3696  170.2  12.682  100.0  0.0345    9.3  0.0794  176.0
 2.000  0.3758  168.7  12.338   97.2  0.0345    9.7  0.0824  177.4
 2.100  0.3841  167.1  11.931   94.3  0.0350   10.4  0.0863  178.6
 2.200  0.3878  165.7  11.617   91.8  0.0352   12.8  0.0898  179.5
 2.300  0.3975  164.2  11.248   89.0  0.0349   11.7  0.0937  179.6
 2.400  0.4018  162.7  10.916   86.4  0.0351   11.7  0.0988 -179.4
 2.500  0.4110  161.0  10.562   83.7  0.0354   13.4  0.1042  179.3
 2.600  0.4154  159.5  10.282   81.3  0.0353   12.4  0.1080  179.9
 2.700  0.4211  157.8   9.989   78.9  0.0360   14.0  0.1132  178.6
 2.800  0.4271  156.3   9.707   76.5  0.0366   14.1  0.1177  178.3
 2.900  0.4341  154.8   9.439   74.1  0.0368   14.7  0.1240  177.3
 3.000  0.4410  153.2   9.138   71.6  0.0373   15.5  0.1295  176.5
 3.100  0.4458  151.8   8.960   69.6  0.0379   15.3  0.1366  175.3
 3.200  0.4530  150.2   8.677   67.2  0.0380   16.2  0.1439  174.3
 3.300  0.4591  148.7   8.464   65.0  0.0376   16.3  0.1513  173.3
 3.400  0.4674  147.3   8.193   62.7  0.0385   16.8  0.1581  172.3
 3.500  0.4708  145.8   8.017   60.7  0.0396   17.1  0.1649  171.4
 3.600  0.4780  144.3   7.792   58.5  0.0398   17.2  0.1726  170.4
 3.700  0.4818  142.8   7.642   56.6  0.0404   17.8  0.1810  169.6
 3.800  0.4908  141.3   7.424   54.4  0.0401   18.7  0.1893  168.6
 3.900  0.4976  139.9   7.211   52.2  0.0410   18.4  0.1962  167.4
 4.000  0.5028  138.5   7.052   50.3  0.0419   18.5  0.2048  166.4
 4.100  0.5090  137.2   6.880   48.4  0.0425   19.6  0.2138  165.1
 4.200  0.5140  135.8   6.729   46.5  0.0431   19.3  0.2222  164.6
 4.300  0.5217  134.6   6.553   44.5  0.0435   19.3  0.2298  163.7
 4.400  0.5293  133.4   6.380   42.5  0.0443   19.4  0.2381  162.7
 4.500  0.5342  132.2   6.227   40.7  0.0448   19.4  0.2449  161.7
 4.600  0.5391  131.1   6.118   39.0  0.0455   19.4  0.2544  161.1
 4.700  0.5455  130.0   5.967   37.0  0.0467   19.5  0.2615  160.0
 4.800  0.5523  129.0   5.836   35.2  0.0470   19.9  0.2698  159.2
 4.900  0.5563  128.0   5.699   33.5  0.0476   20.0  0.2759  158.3
 5.000  0.5631  127.0   5.564   31.6  0.0482   19.6  0.2834  157.3
 5.100  0.5658  126.1   5.475   30.0  0.0494   19.8  0.2912  156.3
 5.200  0.5729  125.3   5.337   28.2  0.0497   20.0  0.2979  155.6
 5.300  0.5779  124.4   5.234   26.5  0.0505   19.4  0.3050  154.4
 5.400  0.5831  123.4   5.097   24.6  0.0515   19.5  0.3101  153.4
 5.500  0.5866  122.6   5.009   22.9  0.0524   19.3  0.3173  152.4
 5.600  0.5911  121.9   4.910   21.3  0.0532   18.7  0.3229  151.6
 5.700  0.5906  121.0   4.828   19.8  0.0542   19.3  0.3307  150.4
 5.800  0.5965  120.3   4.719   18.1  0.0554   19.2  0.3359  149.4
 5.900  0.5982  119.6   4.635   16.5  0.0559   19.2  0.3426  148.3
 6.000  0.6050  118.6   4.528   14.8  0.0568   19.2  0.3485  147.4
 6.100  0.6068  117.9   4.468   13.2  0.0579   18.3  0.3560  146.2
 6.200  0.6112  117.0   4.383   11.5  0.0595   18.1  0.3623  145.1
 6.300  0.6160  116.2   4.288    9.8  0.0598   17.9  0.3690  143.9
 6.400  0.6188  115.2   4.221    8.1  0.0610   16.7  0.3759  142.9
 6.500  0.6211  114.3   4.167    6.7  0.0623   16.7  0.3822  141.7
 6.600  0.6257  113.2   4.074    4.9  0.0632   16.0  0.3892  140.7
 6.700  0.6298  112.3   4.015    3.4  0.0645   15.8  0.3962  139.6
 6.800  0.6345  111.0   3.922    1.4  0.0655   15.1  0.4016  138.4
 6.900  0.6366  110.1   3.872    0.0  0.0666   14.7  0.4090  137.2
 7.000  0.6403  108.7   3.796   -1.8  0.0674   13.8  0.4166  136.1
 7.100  0.6433  107.6   3.761   -3.3  0.0683   13.3  0.4243  135.0
 7.200  0.6476  106.3   3.680   -5.0  0.0695   12.7  0.4309  133.8
 7.300  0.6521  105.1   3.630   -6.7  0.0707   11.9  0.4380  132.6
 7.400  0.6591  103.8   3.544   -8.5  0.0716   11.3  0.4447  131.5
 7.500  0.6626  102.6   3.501  -10.1  0.0725   10.5  0.4523  130.1
 7.600  0.6684  101.3   3.440  -11.9  0.0733    9.7  0.4607  128.8
 7.700  0.6746  100.0   3.389  -13.7  0.0743    8.9  0.4693  127.3
 7.800  0.6808   98.8   3.327  -15.4  0.0755    7.9  0.4770  126.0
 7.900  0.6884   97.4   3.263  -17.2  0.0760    6.9  0.4844  124.5
 8.000  0.6941   96.2   3.215  -19.0  0.0772    6.1  0.4935  123.0
 8.500  0.7299   89.6   2.921  -28.0  0.0800    1.3  0.5400  115.0
 9.000  0.7644   80.5   2.577  -36.5  0.0819   -3.5  0.5911  106.8
 9.500  0.7877   75.1   2.245  -43.2  0.0815   -7.1  0.6391   99.8
10.000  0.8095   71.8   2.014  -48.0  0.0824   -9.7  0.6813   95.1
10.500  0.8367   68.7   1.853  -53.0  0.0832  -11.6  0.7144   92.7
11.000  0.8463   66.0   1.695  -58.2  0.0851  -13.1  0.7475   91.5
11.500  0.8480   64.1   1.562  -63.0  0.0886  -15.9  0.7651   90.0
12.000  0.8440   62.8   1.470  -67.6  0.0924  -19.0  0.7766   87.6
!
!  f       NFmin   Gammaopt  rn/50
! GHz       dB    MAG  ANG    -
!
! noise parameter not available yet for this operation point!
!
! (c) 2013  Infineon Technologies AG, Munich
