! Infineon Technologies  Discrete & RF Semiconductors
! BFP843
! VCE =  0.5 V,  IC =  6.0 mA
! Common Emitter S-Parameters:                            Aug 2013
# GHz  S  MA  R  50
!  f         S11            S21            S12            S22
! GHz     MAG   ANG      MAG   ANG      MAG   ANG      MAG   ANG
 0.030  0.5779  -28.6  13.537  165.9  0.0529   32.3  0.6203  -26.8
 0.040  0.5021  -28.1  12.836  166.5  0.0559   25.5  0.5459  -26.6
 0.050  0.4589  -26.4  12.419  168.5  0.0525   19.0  0.5021  -25.1
 0.060  0.4282  -25.3  12.175  168.7  0.0576   17.6  0.4706  -23.7
 0.070  0.4095  -21.9  11.894  169.4  0.0534   15.0  0.4536  -21.8
 0.080  0.3975  -21.0  11.838  169.6  0.0576   12.5  0.4377  -21.4
 0.090  0.3853  -20.2  11.791  169.7  0.0596   11.9  0.4310  -20.4
 0.100  0.3779  -18.7  11.644  169.9  0.0589   12.5  0.4198  -19.2
 0.110  0.3746  -18.9  11.668  169.9  0.0608    8.7  0.4167  -18.4
 0.120  0.3718  -17.7  11.548  169.9  0.0594    9.9  0.4139  -18.1
 0.130  0.3685  -17.4  11.576  170.0  0.0604    8.6  0.4093  -17.8
 0.140  0.3616  -16.9  11.545  169.5  0.0599    8.3  0.4097  -17.1
 0.150  0.3648  -16.9  11.532  169.5  0.0599    8.3  0.4076  -17.2
 0.200  0.3571  -15.4  11.336  168.4  0.0609    5.7  0.4019  -16.9
 0.250  0.3589  -15.8  11.285  166.9  0.0611    3.6  0.4011  -18.3
 0.300  0.3591  -16.9  11.144  165.6  0.0607    4.3  0.3960  -19.7
 0.350  0.3567  -18.2  11.079  163.9  0.0621    3.4  0.3971  -21.4
 0.400  0.3530  -19.9  11.037  162.3  0.0616    3.2  0.3948  -23.5
 0.450  0.3519  -21.4  10.990  160.8  0.0619    2.8  0.3956  -25.6
 0.500  0.3506  -23.3  10.943  159.1  0.0625    2.5  0.3944  -27.9
 0.600  0.3491  -26.8  10.788  155.7  0.0626    1.5  0.3893  -32.4
 0.700  0.3446  -30.7  10.671  152.2  0.0625    0.8  0.3863  -37.0
 0.800  0.3408  -34.4  10.549  148.8  0.0632    0.7  0.3841  -41.8
 0.900  0.3370  -38.1  10.395  145.3  0.0632   -0.2  0.3797  -46.5
 1.000  0.3330  -42.3  10.243  142.0  0.0641   -0.5  0.3748  -51.6
 1.100  0.3287  -46.1  10.080  138.7  0.0642   -0.8  0.3724  -56.3
 1.200  0.3229  -50.4   9.941  135.4  0.0651   -1.6  0.3703  -61.1
 1.300  0.3177  -54.3   9.771  132.1  0.0652   -2.4  0.3668  -65.8
 1.400  0.3157  -58.4   9.600  129.0  0.0658   -2.6  0.3640  -70.3
 1.500  0.3108  -62.3   9.419  126.0  0.0655   -3.4  0.3604  -75.2
 1.600  0.3065  -66.5   9.267  122.8  0.0663   -4.2  0.3600  -79.7
 1.700  0.3026  -70.8   9.095  119.7  0.0662   -4.7  0.3571  -84.1
 1.800  0.2996  -74.8   8.898  116.8  0.0660   -5.9  0.3545  -88.9
 1.900  0.2951  -78.8   8.732  113.9  0.0665   -6.1  0.3518  -93.3
 2.000  0.2931  -83.0   8.577  111.0  0.0671   -7.5  0.3515  -97.6
 2.100  0.2890  -87.3   8.406  108.1  0.0658   -7.6  0.3502 -101.8
 2.200  0.2865  -91.3   8.238  105.4  0.0664   -8.2  0.3504 -105.9
 2.300  0.2860  -95.1   8.067  102.7  0.0668   -9.2  0.3482 -110.1
 2.400  0.2835  -99.2   7.915  100.0  0.0662  -10.5  0.3484 -114.0
 2.500  0.2812 -103.3   7.746   97.3  0.0661  -11.2  0.3470 -118.2
 2.600  0.2779 -107.4   7.617   94.7  0.0660  -11.8  0.3477 -121.8
 2.700  0.2768 -111.6   7.442   92.1  0.0654  -12.6  0.3464 -126.0
 2.800  0.2751 -115.5   7.301   89.6  0.0647  -12.9  0.3478 -129.5
 2.900  0.2760 -119.2   7.141   87.1  0.0650  -13.9  0.3470 -133.7
 3.000  0.2749 -123.6   7.004   84.5  0.0646  -14.8  0.3476 -137.3
 3.100  0.2745 -127.6   6.880   82.1  0.0641  -15.4  0.3503 -141.0
 3.200  0.2751 -131.4   6.731   79.6  0.0642  -15.9  0.3518 -144.5
 3.300  0.2759 -135.3   6.591   77.2  0.0631  -16.5  0.3536 -148.3
 3.400  0.2758 -139.2   6.461   74.9  0.0626  -17.3  0.3565 -151.6
 3.500  0.2766 -142.9   6.336   72.5  0.0619  -18.0  0.3590 -154.8
 3.600  0.2785 -146.8   6.204   70.1  0.0616  -19.0  0.3627 -158.0
 3.700  0.2803 -150.5   6.082   67.9  0.0610  -19.3  0.3662 -161.1
 3.800  0.2835 -154.1   5.956   65.6  0.0602  -19.4  0.3699 -164.0
 3.900  0.2856 -157.6   5.825   63.3  0.0598  -20.4  0.3739 -167.2
 4.000  0.2897 -161.3   5.722   61.1  0.0595  -20.9  0.3789 -169.7
 4.100  0.2938 -164.6   5.594   58.9  0.0585  -21.4  0.3835 -172.5
 4.200  0.2982 -167.9   5.489   56.8  0.0576  -21.7  0.3881 -174.8
 4.300  0.3041 -170.6   5.362   54.7  0.0571  -21.9  0.3927 -177.4
 4.400  0.3096 -174.2   5.256   52.6  0.0564  -22.0  0.3975 -179.7
 4.500  0.3149 -176.7   5.143   50.5  0.0552  -22.2  0.4022  178.1
 4.600  0.3219 -179.6   5.048   48.5  0.0546  -22.7  0.4079  176.2
 4.700  0.3281  177.8   4.956   46.4  0.0537  -22.6  0.4126  174.1
 4.800  0.3360  175.4   4.850   44.4  0.0538  -22.4  0.4173  172.2
 4.900  0.3419  173.0   4.760   42.4  0.0529  -22.6  0.4209  170.4
 5.000  0.3489  170.9   4.667   40.5  0.0519  -22.1  0.4265  168.6
 5.100  0.3559  168.7   4.575   38.5  0.0513  -22.4  0.4306  166.8
 5.200  0.3633  167.0   4.484   36.6  0.0511  -22.6  0.4353  165.2
 5.300  0.3706  164.9   4.397   34.7  0.0508  -22.4  0.4391  163.4
 5.400  0.3767  163.2   4.315   32.8  0.0495  -21.5  0.4429  161.9
 5.500  0.3832  161.2   4.236   30.9  0.0492  -21.4  0.4471  160.2
 5.600  0.3894  159.9   4.160   29.1  0.0486  -21.4  0.4508  158.8
 5.700  0.3938  158.2   4.078   27.3  0.0480  -20.5  0.4543  157.1
 5.800  0.4000  156.8   3.996   25.5  0.0473  -19.5  0.4581  155.7
 5.900  0.4046  155.5   3.931   23.8  0.0475  -19.7  0.4629  154.1
 6.000  0.4111  153.9   3.858   22.0  0.0465  -18.8  0.4673  152.7
 6.100  0.4169  152.5   3.798   20.2  0.0470  -17.9  0.4721  151.1
 6.200  0.4229  151.1   3.725   18.4  0.0469  -16.7  0.4759  149.6
 6.300  0.4284  149.6   3.664   16.6  0.0467  -16.6  0.4804  148.2
 6.400  0.4327  148.3   3.602   14.9  0.0465  -15.2  0.4854  146.7
 6.500  0.4389  146.6   3.542   13.2  0.0464  -15.1  0.4897  145.3
 6.600  0.4430  145.1   3.484   11.4  0.0472  -14.4  0.4950  143.9
 6.700  0.4488  143.8   3.425    9.8  0.0474  -13.9  0.4989  142.4
 6.800  0.4523  142.1   3.372    8.0  0.0470  -13.1  0.5038  141.1
 6.900  0.4578  140.6   3.318    6.3  0.0471  -12.9  0.5087  139.7
 7.000  0.4602  138.7   3.267    4.5  0.0476  -11.7  0.5149  138.3
 7.100  0.4671  137.0   3.217    2.8  0.0480  -11.5  0.5199  136.9
 7.200  0.4709  135.5   3.166    1.1  0.0484  -11.1  0.5252  135.5
 7.300  0.4770  133.5   3.120   -0.8  0.0488  -10.0  0.5302  134.1
 7.400  0.4824  131.9   3.071   -2.5  0.0495   -9.7  0.5360  132.8
 7.500  0.4885  130.0   3.028   -4.3  0.0499   -9.4  0.5415  131.3
 7.600  0.4950  128.2   2.984   -6.1  0.0504   -9.9  0.5471  129.8
 7.700  0.5030  126.4   2.933   -8.0  0.0513   -9.2  0.5541  128.2
 7.800  0.5096  124.7   2.890   -9.9  0.0517   -9.0  0.5593  126.7
 7.900  0.5181  122.7   2.843  -11.7  0.0523   -8.7  0.5660  125.1
 8.000  0.5260  120.8   2.805  -13.6  0.0531   -8.8  0.5728  123.6
 8.500  0.5719  111.7   2.552  -23.4  0.0561   -9.3  0.6076  115.2
 9.000  0.6185  100.9   2.275  -32.6  0.0585  -10.5  0.6496  106.9
 9.500  0.6571   93.4   1.991  -40.1  0.0601  -11.6  0.6891   99.9
10.000  0.6938   88.5   1.767  -45.7  0.0623  -12.5  0.7250   95.0
10.500  0.7356   84.4   1.612  -51.0  0.0645  -12.6  0.7538   92.6
11.000  0.7602   80.9   1.471  -56.7  0.0683  -13.6  0.7838   91.2
11.500  0.7726   78.3   1.356  -61.7  0.0723  -15.1  0.8002   89.7
12.000  0.7774   76.5   1.263  -66.4  0.0767  -17.4  0.8096   87.1
!
!  f       NFmin   Gammaopt  rn/50
! GHz       dB    MAG  ANG    -
 0.450      0.92  0.15    7   0.00
 0.900      0.93  0.15   17   0.03
 1.500      0.96  0.15   27   0.10
 1.900      0.99  0.13   40   0.18
 2.400      1.03  0.11   49   0.25
 3.500      1.10  0.09   63   0.29
 5.500      1.25  0.14 -148   0.37
10.000      1.97  0.51  -72   0.43
!
! (c) 2013  Infineon Technologies AG, Munich
