! Infineon Technologies  Discrete & RF Semiconductors
! BFP843
! VCE =  0.5 V,  IC =  42 mA
! Common Emitter S-Parameters:                            Aug 2013
# GHz  S  MA  R  50
!  f         S11            S21            S12            S22
! GHz     MAG   ANG      MAG   ANG      MAG   ANG      MAG   ANG
 0.030  0.2462 -153.9   8.266  168.5  0.0194   24.9  0.2667 -166.9
 0.040  0.2661 -156.6   7.960  167.9  0.0224   19.4  0.2817 -169.5
 0.050  0.2800 -157.1   7.807  168.5  0.0261   26.1  0.2874 -171.8
 0.060  0.2868 -159.0   7.677  167.3  0.0230   18.9  0.2967 -173.1
 0.070  0.2926 -160.0   7.534  167.1  0.0254   11.4  0.3000 -175.0
 0.080  0.2977 -160.5   7.514  166.3  0.0244   16.3  0.3029 -174.7
 0.090  0.3028 -160.1   7.461  165.3  0.0243   14.2  0.3008 -176.1
 0.100  0.3047 -160.0   7.404  164.6  0.0261   13.6  0.3010 -177.9
 0.110  0.3121 -159.4   7.360  163.6  0.0269   19.7  0.3009 -178.2
 0.120  0.3162 -159.0   7.308  162.7  0.0249   12.2  0.2993 -178.5
 0.130  0.3221 -158.4   7.295  161.9  0.0253   14.0  0.3034 -179.3
 0.140  0.3289 -158.4   7.232  160.8  0.0263   14.0  0.2989 -179.8
 0.150  0.3300 -157.5   7.201  159.7  0.0236   12.7  0.2973  179.9
 0.200  0.3599 -155.8   6.959  155.0  0.0273   12.6  0.2934  178.6
 0.250  0.3932 -154.9   6.769  150.1  0.0284   14.5  0.2908  178.2
 0.300  0.4256 -154.5   6.515  145.7  0.0291   14.6  0.2871  178.0
 0.350  0.4594 -155.0   6.261  141.2  0.0276   13.5  0.2871  177.3
 0.400  0.4893 -155.9   6.010  137.1  0.0300   14.3  0.2892  177.3
 0.450  0.5195 -157.0   5.785  133.3  0.0309   13.6  0.2910  177.4
 0.500  0.5470 -158.8   5.551  129.5  0.0303   15.1  0.2916  177.0
 0.600  0.5932 -162.1   5.092  122.7  0.0315   16.4  0.2970  176.4
 0.700  0.6298 -165.7   4.682  116.5  0.0332   16.3  0.3002  175.5
 0.800  0.6603 -168.9   4.314  111.2  0.0330   15.9  0.3038  174.9
 0.900  0.6844 -172.4   3.984  106.1  0.0343   15.7  0.3088  173.8
 1.000  0.7048 -175.4   3.695  101.7  0.0350   17.1  0.3128  172.9
 1.100  0.7218 -178.4   3.437   97.6  0.0350   17.8  0.3181  171.9
 1.200  0.7350  178.9   3.207   93.7  0.0359   16.9  0.3221  171.1
 1.300  0.7461  176.1   2.999   90.1  0.0366   17.4  0.3263  170.0
 1.400  0.7570  173.7   2.819   86.7  0.0372   18.3  0.3296  168.9
 1.500  0.7656  171.3   2.651   83.6  0.0379   18.4  0.3331  167.9
 1.600  0.7732  169.0   2.505   80.4  0.0386   19.2  0.3376  166.9
 1.700  0.7788  166.7   2.369   77.5  0.0387   19.0  0.3417  165.7
 1.800  0.7854  164.5   2.245   74.6  0.0395   19.7  0.3450  164.6
 1.900  0.7901  162.4   2.133   72.0  0.0405   19.4  0.3497  163.6
 2.000  0.7948  160.5   2.033   69.2  0.0409   19.5  0.3533  162.4
 2.100  0.7987  158.5   1.935   66.7  0.0422   19.6  0.3570  161.5
 2.200  0.8036  156.8   1.849   64.4  0.0423   18.7  0.3614  160.6
 2.300  0.8071  154.8   1.770   61.9  0.0436   19.6  0.3647  159.3
 2.400  0.8087  153.0   1.696   59.5  0.0439   19.3  0.3691  158.3
 2.500  0.8117  151.1   1.625   57.2  0.0442   19.8  0.3747  157.0
 2.600  0.8130  149.3   1.563   54.9  0.0452   20.6  0.3779  155.9
 2.700  0.8160  147.5   1.500   52.7  0.0460   20.3  0.3824  154.5
 2.800  0.8180  145.8   1.442   50.5  0.0470   19.5  0.3864  153.4
 2.900  0.8215  144.1   1.389   48.3  0.0478   20.2  0.3926  152.2
 3.000  0.8223  142.4   1.339   46.2  0.0483   19.6  0.3969  150.9
 3.100  0.8258  140.8   1.293   44.1  0.0490   19.6  0.4026  149.7
 3.200  0.8282  139.2   1.246   42.1  0.0496   19.6  0.4082  148.6
 3.300  0.8297  137.5   1.203   40.1  0.0510   19.2  0.4138  147.4
 3.400  0.8315  135.9   1.163   38.2  0.0516   18.9  0.4190  146.4
 3.500  0.8327  134.4   1.126   36.2  0.0524   18.5  0.4244  145.2
 3.600  0.8334  132.8   1.088   34.4  0.0529   18.5  0.4303  144.1
 3.700  0.8365  131.3   1.056   32.5  0.0536   18.3  0.4363  143.0
 3.800  0.8392  129.8   1.022   30.6  0.0543   17.7  0.4419  142.1
 3.900  0.8394  128.3   0.989   28.8  0.0555   17.2  0.4472  140.8
 4.000  0.8423  127.0   0.961   27.2  0.0559   17.5  0.4538  140.0
 4.100  0.8442  125.6   0.931   25.5  0.0562   17.1  0.4585  139.0
 4.200  0.8452  124.3   0.906   23.8  0.0572   16.7  0.4642  138.2
 4.300  0.8478  123.0   0.878   22.1  0.0581   16.2  0.4698  137.3
 4.400  0.8499  121.7   0.854   20.5  0.0588   16.4  0.4749  136.4
 4.500  0.8504  120.6   0.830   19.0  0.0595   16.0  0.4797  135.6
 4.600  0.8534  119.4   0.808   17.4  0.0600   15.5  0.4847  134.9
 4.700  0.8542  118.3   0.789   15.8  0.0610   14.6  0.4894  133.9
 4.800  0.8566  117.3   0.768   14.3  0.0619   14.5  0.4948  133.1
 4.900  0.8564  116.2   0.749   12.8  0.0625   14.3  0.4987  132.2
 5.000  0.8582  115.2   0.731   11.3  0.0630   13.9  0.5034  131.3
 5.100  0.8590  114.2   0.713    9.9  0.0638   13.2  0.5076  130.4
 5.200  0.8606  113.3   0.697    8.5  0.0646   12.9  0.5115  129.7
 5.300  0.8619  112.5   0.681    7.1  0.0656   12.5  0.5156  128.7
 5.400  0.8612  111.5   0.666    5.6  0.0661   11.7  0.5186  127.8
 5.500  0.8636  110.5   0.651    4.2  0.0672   11.4  0.5227  126.8
 5.600  0.8636  109.8   0.639    2.9  0.0683   10.8  0.5259  126.0
 5.700  0.8609  108.9   0.624    1.6  0.0687   10.7  0.5305  125.0
 5.800  0.8633  108.0   0.611    0.2  0.0698   10.2  0.5341  124.1
 5.900  0.8626  107.2   0.601   -1.1  0.0703    9.3  0.5377  123.1
 6.000  0.8631  106.2   0.588   -2.4  0.0717    9.1  0.5412  122.2
 6.100  0.8636  105.4   0.577   -3.9  0.0723    8.8  0.5458  121.1
 6.200  0.8644  104.4   0.566   -5.2  0.0735    8.1  0.5493  120.1
 6.300  0.8647  103.6   0.555   -6.5  0.0745    7.5  0.5533  119.1
 6.400  0.8642  102.6   0.545   -8.0  0.0752    6.5  0.5569  118.2
 6.500  0.8659  101.7   0.536   -9.1  0.0761    5.9  0.5599  117.2
 6.600  0.8654  100.5   0.526  -10.7  0.0769    5.2  0.5645  116.3
 6.700  0.8673   99.7   0.518  -11.8  0.0776    4.4  0.5685  115.2
 6.800  0.8673   98.5   0.509  -13.3  0.0785    3.7  0.5725  114.2
 6.900  0.8680   97.5   0.500  -14.5  0.0796    3.4  0.5761  113.2
 7.000  0.8669   96.2   0.491  -15.9  0.0801    2.3  0.5809  112.2
 7.100  0.8692   95.1   0.483  -17.3  0.0808    1.5  0.5853  111.2
 7.200  0.8697   93.9   0.475  -18.6  0.0820    0.4  0.5887  110.2
 7.300  0.8718   92.7   0.468  -20.1  0.0826   -0.2  0.5931  109.2
 7.400  0.8737   91.6   0.461  -21.4  0.0835   -1.3  0.5976  108.1
 7.500  0.8748   90.3   0.453  -22.9  0.0841   -2.1  0.6019  107.0
 7.600  0.8775   89.1   0.445  -24.3  0.0844   -3.1  0.6068  105.8
 7.700  0.8802   87.8   0.437  -25.8  0.0847   -4.0  0.6116  104.6
 7.800  0.8820   86.6   0.430  -27.2  0.0857   -5.0  0.6165  103.5
 7.900  0.8849   85.4   0.422  -28.6  0.0862   -5.9  0.6221  102.3
 8.000  0.8869   84.1   0.415  -30.1  0.0863   -6.8  0.6269  101.0
 8.500  0.8996   78.0   0.373  -37.2  0.0869  -11.9  0.6534   94.6
 9.000  0.9047   69.5   0.331  -43.0  0.0863  -16.1  0.6832   88.4
 9.500  0.9038   65.2   0.293  -46.6  0.0844  -18.6  0.7119   83.6
10.000  0.9117   62.7   0.268  -48.8  0.0838  -20.5  0.7363   80.6
10.500  0.9286   60.3   0.252  -51.8  0.0844  -21.5  0.7556   79.5
11.000  0.9294   57.9   0.236  -54.7  0.0856  -22.9  0.7743   79.2
11.500  0.9241   56.4   0.224  -57.1  0.0885  -25.0  0.7825   78.3
12.000  0.9158   55.1   0.216  -59.8  0.0920  -28.0  0.7869   76.4
!
!  f       NFmin   Gammaopt  rn/50
! GHz       dB    MAG  ANG    -
!
! noise parameter not available yet for this operation point!
!
! (c) 2013  Infineon Technologies AG, Munich
