! Infineon Technologies  Discrete & RF Semiconductors
! BFP840ESD
! VCE =  0.5 V,  IC =  16 mA
! Common Emitter S-Parameters:                            May 2012
# GHz  S  MA  R  50
!  f         S11            S21            S12            S22
! GHz     MAG   ANG      MAG   ANG      MAG   ANG      MAG   ANG
 0.030  0.6440   -3.8  20.238  178.9  0.0014   39.8  0.8721   -0.3
 0.080  0.6591   -9.6  21.908  174.6  0.0029   85.6  0.8885   -4.0
 0.130  0.6451  -16.2  20.899  170.6  0.0050   75.0  0.8861   -7.7
 0.180  0.6407  -22.2  20.894  166.7  0.0067   75.3  0.8809  -11.1
 0.230  0.6362  -27.8  20.847  163.2  0.0083   75.0  0.8721  -14.2
 0.280  0.6323  -33.3  20.787  159.6  0.0104   72.5  0.8611  -17.3
 0.330  0.6269  -38.9  20.327  155.8  0.0124   70.1  0.8525  -20.4
 0.380  0.6164  -44.0  19.878  153.3  0.0143   69.2  0.8334  -23.3
 0.430  0.6156  -48.7  19.932  149.8  0.0159   68.2  0.8238  -25.9
 0.500  0.6043  -55.7  19.103  146.0  0.0179   65.6  0.7998  -30.2
 0.600  0.5929  -64.1  18.720  140.8  0.0211   61.6  0.7669  -35.2
 0.700  0.5852  -72.9  17.780  135.0  0.0237   59.0  0.7428  -40.3
 0.800  0.5854  -78.4  17.726  130.2  0.0259   56.2  0.7170  -44.6
 0.900  0.5727  -85.4  17.169  126.2  0.0283   53.2  0.6856  -49.3
 1.000  0.5661  -92.4  16.503  121.6  0.0301   50.8  0.6577  -53.6
 1.100  0.5581  -98.7  15.936  117.8  0.0321   48.3  0.6294  -57.9
 1.200  0.5468 -104.3  15.429  114.7  0.0336   46.2  0.6029  -61.8
 1.300  0.5437 -110.0  14.896  110.7  0.0347   44.2  0.5797  -65.2
 1.400  0.5403 -114.5  14.615  107.3  0.0359   42.0  0.5537  -68.4
 1.500  0.5332 -119.7  14.089  104.3  0.0370   39.9  0.5281  -72.1
 1.600  0.5278 -122.1  14.003  101.6  0.0381   38.3  0.5041  -75.5
 1.700  0.5206 -127.4  13.397   98.9  0.0394   36.9  0.4829  -79.7
 1.800  0.5207 -132.4  12.823   95.7  0.0404   35.7  0.4701  -83.0
 1.900  0.5142 -136.0  12.582   93.3  0.0412   34.4  0.4491  -86.4
 2.000  0.5083 -140.2  12.149   91.1  0.0419   33.0  0.4351  -89.1
 2.100  0.5060 -144.0  11.830   88.4  0.0425   31.8  0.4141  -92.4
 2.200  0.5053 -147.9  11.435   85.9  0.0433   31.1  0.4055  -95.7
 2.300  0.5042 -151.7  11.078   83.6  0.0441   30.0  0.3899  -98.8
 2.400  0.5083 -154.9  10.750   80.6  0.0444   29.7  0.3869 -102.3
 2.500  0.5059 -157.8  10.560   78.6  0.0445   28.7  0.3704 -104.3
 2.600  0.5045 -161.2  10.245   76.4  0.0457   27.6  0.3563 -108.1
 2.700  0.5027 -164.1  10.041   74.4  0.0457   26.8  0.3439 -110.5
 2.800  0.5003 -167.3   9.777   72.4  0.0465   26.1  0.3299 -114.6
 2.900  0.5039 -170.1   9.545   69.9  0.0468   25.5  0.3247 -117.4
 3.000  0.5004 -172.7   9.368   68.3  0.0472   24.6  0.3118 -120.3
 3.100  0.5009 -175.2   9.189   66.3  0.0475   24.0  0.3060 -123.6
 3.200  0.4973 -177.7   9.031   64.6  0.0482   23.1  0.2963 -127.5
 3.300  0.5008  179.1   8.749   62.4  0.0487   22.8  0.2922 -131.6
 3.400  0.5015  176.7   8.569   60.6  0.0495   22.1  0.2887 -135.3
 3.500  0.5050  173.7   8.303   58.6  0.0497   21.6  0.2859 -138.6
 3.600  0.5051  171.6   8.185   56.7  0.0500   20.9  0.2805 -141.9
 3.700  0.5071  168.9   7.973   55.0  0.0503   20.4  0.2781 -145.4
 3.800  0.5095  166.4   7.777   53.0  0.0507   20.0  0.2773 -148.9
 3.900  0.5129  164.0   7.592   51.3  0.0511   19.7  0.2790 -152.2
 4.000  0.5171  161.6   7.397   49.4  0.0515   19.4  0.2789 -155.0
 4.100  0.5195  159.3   7.232   47.7  0.0519   18.8  0.2783 -158.1
 4.200  0.5226  157.2   7.082   46.1  0.0523   18.4  0.2765 -161.3
 4.300  0.5256  155.3   6.943   44.5  0.0527   17.7  0.2780 -164.8
 4.400  0.5292  153.3   6.787   42.8  0.0532   17.3  0.2791 -167.5
 4.500  0.5335  151.5   6.642   41.2  0.0535   17.0  0.2805 -170.1
 4.600  0.5378  149.6   6.491   39.5  0.0539   16.7  0.2813 -172.4
 4.700  0.5401  148.1   6.398   38.0  0.0542   16.2  0.2817 -175.5
 4.800  0.5441  146.3   6.255   36.5  0.0547   15.6  0.2843 -178.2
 4.900  0.5479  144.8   6.123   34.9  0.0553   15.3  0.2860  179.2
 5.000  0.5514  143.3   6.009   33.4  0.0558   15.1  0.2874  176.8
 5.100  0.5552  141.8   5.884   31.9  0.0560   14.8  0.2879  174.8
 5.200  0.5582  140.4   5.788   30.3  0.0564   14.3  0.2880  172.3
 5.300  0.5605  139.1   5.683   28.9  0.0568   14.0  0.2894  170.1
 5.400  0.5634  137.8   5.573   27.4  0.0572   13.8  0.2906  167.9
 5.500  0.5672  136.4   5.456   25.8  0.0578   13.6  0.2928  165.9
 5.600  0.5711  135.0   5.333   24.4  0.0581   13.4  0.2927  163.9
 5.700  0.5724  133.8   5.238   22.9  0.0584   13.0  0.2934  161.8
 5.800  0.5738  132.7   5.150   21.6  0.0591   12.8  0.2952  159.5
 5.900  0.5761  131.6   5.065   20.2  0.0597   12.6  0.2979  157.6
 6.000  0.5789  130.5   4.971   18.9  0.0604   12.4  0.2996  155.7
 6.100  0.5815  129.3   4.883   17.5  0.0611   12.0  0.3035  154.0
 6.200  0.5840  128.2   4.805   16.1  0.0619   11.6  0.3066  152.1
 6.300  0.5876  127.0   4.720   14.7  0.0627   11.1  0.3123  150.3
 6.400  0.5905  125.8   4.647   13.3  0.0635   10.6  0.3164  148.7
 6.500  0.5952  124.5   4.548   11.8  0.0641   10.1  0.3212  147.1
 6.600  0.5969  123.5   4.498   10.4  0.0649    9.6  0.3258  145.5
 6.700  0.6004  122.1   4.428    9.0  0.0656    9.1  0.3313  144.0
 6.800  0.6020  121.0   4.374    7.6  0.0663    8.5  0.3361  142.5
 6.900  0.6050  119.6   4.301    6.2  0.0671    7.9  0.3418  141.4
 7.000  0.6084  118.3   4.231    4.7  0.0679    7.3  0.3453  139.8
 7.100  0.6117  117.0   4.171    3.3  0.0686    6.7  0.3509  138.5
 7.200  0.6134  115.7   4.127    1.9  0.0694    6.0  0.3546  136.9
 7.300  0.6170  114.3   4.068    0.5  0.0701    5.3  0.3600  135.5
 7.400  0.6189  113.0   4.013   -1.1  0.0705    4.6  0.3640  134.0
 7.500  0.6242  111.4   3.946   -2.7  0.0712    3.8  0.3684  132.5
 7.600  0.6270  109.9   3.893   -4.2  0.0718    3.1  0.3723  130.9
 7.700  0.6321  108.4   3.833   -5.7  0.0724    2.2  0.3769  129.3
 7.800  0.6369  106.8   3.768   -7.3  0.0729    1.4  0.3807  127.5
 7.900  0.6426  105.3   3.717   -8.9  0.0734    0.6  0.3850  125.7
 8.000  0.6483  103.6   3.648  -10.6  0.0738   -0.1  0.3888  123.8
 8.500  0.6827   96.0   3.334  -18.5  0.0756   -3.9  0.4176  114.1
 9.000  0.7177   89.1   3.020  -26.0  0.0767   -7.7  0.4649  104.7
 9.500  0.7440   83.6   2.702  -32.0  0.0767  -10.9  0.5194   97.5
10.000  0.7608   79.6   2.435  -36.6  0.0771  -13.3  0.5680   93.7
10.500  0.7749   76.9   2.260  -40.5  0.0775  -15.5  0.6020   92.1
11.000  0.7943   74.9   2.142  -44.9  0.0786  -17.1  0.6249   91.0
11.500  0.8217   73.1   2.040  -50.4  0.0810  -19.0  0.6305   89.2
12.000  0.8397   71.2   1.899  -56.7  0.0840  -21.3  0.6341   86.6
!
!  f       NFmin   Gammaopt  rn/50
! GHz       dB    MAG  ANG    -
!
! noise parameter not available yet for this operation point!
!
! (c) 2012  Infineon Technologies AG, Munich
