! Infineon Technologies  Discrete & RF Semiconductors
! BFP840FESD
! VCE =  2.0 V,  IC =  6.0 mA
! Common Emitter S-Parameters:                            May 2012
# GHz  S  MA  R  50
!  f         S11            S21            S12            S22
! GHz     MAG   ANG      MAG   ANG      MAG   ANG      MAG   ANG
 0.030  0.9428   -1.0  17.076  176.6  0.0008   69.8  0.9918   -0.6
 0.040  0.9426   -1.3  17.067  176.4  0.0011   89.6  0.9927   -0.9
 0.050  0.9410   -1.7  17.141  177.8  0.0012   50.0  0.9943   -1.1
 0.060  0.9419   -2.1  17.080  177.5  0.0018   63.6  0.9928   -1.5
 0.070  0.9416   -2.4  17.098  177.4  0.0019   69.1  0.9945   -1.7
 0.080  0.9415   -2.8  17.120  177.0  0.0023   74.2  0.9936   -2.1
 0.090  0.9419   -3.1  17.106  176.7  0.0020   93.3  0.9953   -2.3
 0.100  0.9423   -3.4  17.108  176.5  0.0026   91.3  0.9946   -2.7
 0.110  0.9415   -3.8  17.063  176.2  0.0028   86.5  0.9943   -2.9
 0.120  0.9412   -4.1  17.069  176.0  0.0031   85.5  0.9940   -3.2
 0.130  0.9417   -4.5  17.028  175.6  0.0034   86.8  0.9942   -3.5
 0.140  0.9412   -4.8  17.030  175.4  0.0033   79.1  0.9940   -3.8
 0.150  0.9413   -5.1  17.026  175.0  0.0037   81.5  0.9939   -4.1
 0.200  0.9397   -6.9  16.993  173.4  0.0048   81.1  0.9930   -5.5
 0.250  0.9389   -8.6  16.987  171.9  0.0062   80.8  0.9916   -6.9
 0.300  0.9360  -10.3  16.950  170.3  0.0071   80.9  0.9887   -8.3
 0.350  0.9339  -12.0  16.898  168.8  0.0084   81.0  0.9866   -9.7
 0.400  0.9311  -13.7  16.855  167.3  0.0099   79.2  0.9831  -11.1
 0.450  0.9285  -15.3  16.740  165.8  0.0111   78.5  0.9805  -12.4
 0.500  0.9251  -16.9  16.700  164.4  0.0120   78.2  0.9769  -13.8
 0.600  0.9188  -20.3  16.512  161.4  0.0143   75.5  0.9689  -16.5
 0.700  0.9116  -23.5  16.325  158.6  0.0166   72.8  0.9606  -19.1
 0.800  0.9022  -26.9  16.302  155.9  0.0189   70.8  0.9510  -21.8
 0.900  0.8938  -30.1  16.082  153.1  0.0210   68.8  0.9406  -24.4
 1.000  0.8848  -33.2  15.821  150.5  0.0231   66.6  0.9295  -27.0
 1.100  0.8748  -36.4  15.610  147.9  0.0252   64.7  0.9180  -29.7
 1.200  0.8644  -39.5  15.417  145.2  0.0271   62.5  0.9056  -32.2
 1.300  0.8536  -42.7  15.226  142.6  0.0289   60.5  0.8931  -34.8
 1.400  0.8430  -45.8  15.000  140.1  0.0306   58.5  0.8801  -37.3
 1.500  0.8311  -48.8  14.825  137.7  0.0324   56.3  0.8664  -39.8
 1.600  0.8185  -52.2  14.766  134.9  0.0339   54.5  0.8529  -42.3
 1.700  0.8059  -55.0  14.440  132.4  0.0355   52.5  0.8389  -44.8
 1.800  0.7960  -57.8  14.150  130.2  0.0368   50.6  0.8260  -47.3
 1.900  0.7835  -60.6  13.888  127.9  0.0381   48.7  0.8121  -49.7
 2.000  0.7729  -63.4  13.677  125.6  0.0394   47.1  0.7992  -52.0
 2.100  0.7618  -66.3  13.451  123.3  0.0404   45.3  0.7868  -54.4
 2.200  0.7507  -69.0  13.192  121.1  0.0415   43.4  0.7748  -56.7
 2.300  0.7392  -71.6  12.956  119.0  0.0423   41.8  0.7616  -58.8
 2.400  0.7292  -74.1  12.704  116.8  0.0432   40.2  0.7514  -61.0
 2.500  0.7176  -76.6  12.457  114.8  0.0441   38.9  0.7389  -63.0
 2.600  0.7077  -79.1  12.211  112.8  0.0448   37.5  0.7276  -65.1
 2.700  0.6965  -81.6  11.983  110.8  0.0454   36.0  0.7161  -67.0
 2.800  0.6874  -83.9  11.760  109.0  0.0458   34.8  0.7052  -68.9
 2.900  0.6780  -86.3  11.543  107.1  0.0464   33.6  0.6964  -70.8
 3.000  0.6694  -88.6  11.330  105.3  0.0468   32.3  0.6864  -72.5
 3.100  0.6579  -91.0  11.165  103.3  0.0474   31.1  0.6775  -74.3
 3.200  0.6507  -93.2  10.945  101.6  0.0476   30.1  0.6682  -76.1
 3.300  0.6437  -95.3  10.728  100.0  0.0480   29.1  0.6601  -77.8
 3.400  0.6366  -97.5  10.518   98.4  0.0483   28.0  0.6529  -79.5
 3.500  0.6300  -99.5  10.329   96.8  0.0485   27.0  0.6454  -81.1
 3.600  0.6227 -101.6  10.143   95.1  0.0488   26.2  0.6377  -82.6
 3.700  0.6158 -103.7   9.970   93.6  0.0490   25.3  0.6312  -84.1
 3.800  0.6096 -105.7   9.794   92.1  0.0492   24.3  0.6248  -85.6
 3.900  0.6042 -107.8   9.640   90.5  0.0493   23.7  0.6193  -87.1
 4.000  0.5997 -109.8   9.474   89.1  0.0496   22.8  0.6137  -88.4
 4.100  0.5952 -111.8   9.324   87.6  0.0497   22.1  0.6079  -89.9
 4.200  0.5902 -113.8   9.172   86.1  0.0497   21.3  0.6020  -91.2
 4.300  0.5864 -115.9   9.033   84.6  0.0499   20.7  0.5966  -92.7
 4.400  0.5823 -117.8   8.882   83.2  0.0500   19.9  0.5914  -94.0
 4.500  0.5788 -119.8   8.751   81.8  0.0501   19.2  0.5867  -95.3
 4.600  0.5751 -121.8   8.627   80.3  0.0500   18.6  0.5809  -96.6
 4.700  0.5722 -123.7   8.497   78.9  0.0501   18.0  0.5762  -97.9
 4.800  0.5693 -125.5   8.366   77.5  0.0501   17.4  0.5709  -99.2
 4.900  0.5667 -127.3   8.247   76.2  0.0500   16.8  0.5665 -100.4
 5.000  0.5641 -129.1   8.122   74.8  0.0500   16.2  0.5606 -101.6
 5.100  0.5614 -130.8   8.004   73.4  0.0499   15.6  0.5556 -102.8
 5.200  0.5589 -132.5   7.887   72.1  0.0499   15.0  0.5497 -103.9
 5.300  0.5562 -134.2   7.783   70.7  0.0497   14.5  0.5443 -105.2
 5.400  0.5539 -135.9   7.670   69.4  0.0497   14.1  0.5391 -106.4
 5.500  0.5509 -137.7   7.570   68.0  0.0495   13.6  0.5334 -107.6
 5.600  0.5478 -139.3   7.459   66.7  0.0493   13.0  0.5268 -108.7
 5.700  0.5440 -141.1   7.362   65.3  0.0491   12.6  0.5206 -110.0
 5.800  0.5412 -142.8   7.261   64.0  0.0489   12.2  0.5138 -111.2
 5.900  0.5377 -144.5   7.163   62.6  0.0487   11.7  0.5075 -112.4
 6.000  0.5351 -146.2   7.065   61.3  0.0485   11.3  0.5004 -113.6
 6.100  0.5307 -147.9   6.977   60.0  0.0482   11.0  0.4938 -114.9
 6.200  0.5277 -149.7   6.877   58.7  0.0479   10.7  0.4868 -116.1
 6.300  0.5244 -151.4   6.785   57.4  0.0475   10.3  0.4797 -117.4
 6.400  0.5221 -153.1   6.692   56.1  0.0471   10.1  0.4732 -118.7
 6.500  0.5180 -154.8   6.604   54.8  0.0467    9.9  0.4653 -120.0
 6.600  0.5145 -156.5   6.507   53.5  0.0463    9.8  0.4584 -121.3
 6.700  0.5111 -158.3   6.419   52.2  0.0459    9.7  0.4509 -122.6
 6.800  0.5080 -160.0   6.334   50.9  0.0453    9.8  0.4444 -123.9
 6.900  0.5046 -161.6   6.245   49.7  0.0449   10.1  0.4375 -125.2
 7.000  0.5020 -163.4   6.163   48.5  0.0444   10.3  0.4312 -126.4
 7.100  0.4998 -165.1   6.078   47.3  0.0441   10.9  0.4247 -127.8
 7.200  0.4985 -166.7   6.000   46.1  0.0438   11.4  0.4192 -129.0
 7.300  0.4978 -168.3   5.924   44.9  0.0436   12.1  0.4139 -130.3
 7.400  0.4979 -169.8   5.851   43.8  0.0435   12.7  0.4097 -131.7
 7.500  0.4984 -171.3   5.784   42.6  0.0437   13.5  0.4058 -133.1
 7.600  0.5004 -172.8   5.716   41.4  0.0438   14.0  0.4022 -134.6
 7.700  0.5020 -174.4   5.655   40.2  0.0440   14.6  0.3991 -136.2
 7.800  0.5057 -175.9   5.595   38.9  0.0444   15.0  0.3971 -138.0
 7.900  0.5090 -177.4   5.533   37.7  0.0448   15.2  0.3940 -139.8
 8.000  0.5134 -178.8   5.475   36.4  0.0450   15.5  0.3913 -141.7
 8.500  0.5347  172.8   5.165   29.8  0.0465   15.7  0.3757 -153.3
 9.000  0.5571  164.9   4.829   23.3  0.0474   15.5  0.3627 -167.0
 9.500  0.5816  157.7   4.489   16.8  0.0479   15.5  0.3667  177.6
10.000  0.6052  151.3   4.135   10.7  0.0483   15.8  0.3984  162.5
10.500  0.6293  146.0   3.800    5.2  0.0489   16.4  0.4584  151.8
11.000  0.6486  140.8   3.475   -0.0  0.0494   16.7  0.5249  145.5
11.500  0.6645  136.6   3.175   -4.3  0.0498   17.4  0.5893  143.7
12.000  0.6748  132.9   2.891   -7.8  0.0498   18.9  0.6347  144.9
!
!  f       NFmin   Gammaopt  rn/50
! GHz       dB    MAG  ANG    -
 0.450      0.57  0.47    5   0.16
 0.900      0.61  0.46   12   0.17
 1.500      0.62  0.41   18   0.16
 1.900      0.63  0.37   27   0.16
 2.400      0.65  0.36   33   0.17
 3.500      0.67  0.34   55   0.16
 5.500      0.75  0.23   93   0.12
 8.000      0.90  0.20  151   0.11
10.000      1.05  0.25 -148   0.11
12.000      1.27  0.42 -123   0.13
!
! (c) 2012  Infineon Technologies AG, Munich
