! Infineon Technologies  Discrete & RF Semiconductors
! BFP843F
! VCE =  0.5 V,  IC =  5.0 mA
! Common Emitter S-Parameters:                            Aug 2013
# GHz  S  MA  R  50
!  f         S11            S21            S12            S22
! GHz     MAG   ANG      MAG   ANG      MAG   ANG      MAG   ANG
 0.030  0.6137  -25.2  12.014  167.2  0.0545   34.7  0.6575  -24.3
 0.040  0.5450  -25.1  11.461  167.6  0.0591   25.4  0.5868  -24.1
 0.050  0.5059  -24.0  11.075  169.7  0.0608   23.1  0.5396  -22.5
 0.060  0.4720  -23.0  10.903  170.3  0.0619   17.8  0.5118  -21.7
 0.070  0.4512  -21.0  10.736  170.6  0.0618   18.8  0.5012  -20.6
 0.080  0.4439  -19.0  10.622  170.9  0.0612   15.6  0.4826  -19.8
 0.090  0.4341  -18.4  10.604  170.8  0.0626   11.9  0.4750  -18.3
 0.100  0.4270  -16.8  10.455  171.0  0.0623   13.1  0.4612  -17.5
 0.110  0.4182  -17.3  10.536  171.2  0.0639   10.3  0.4614  -16.7
 0.120  0.4145  -16.1  10.448  171.2  0.0640   10.4  0.4601  -16.5
 0.130  0.4138  -16.0  10.434  171.2  0.0632    9.1  0.4520  -16.3
 0.140  0.4077  -15.6  10.387  170.9  0.0637    9.1  0.4524  -16.1
 0.150  0.4085  -15.3  10.378  171.0  0.0655    8.8  0.4504  -15.8
 0.200  0.4032  -14.3  10.243  169.9  0.0639    7.3  0.4451  -16.1
 0.250  0.3994  -14.9  10.246  168.7  0.0633    5.5  0.4427  -17.2
 0.300  0.4012  -15.6  10.160  167.5  0.0654    4.4  0.4406  -18.5
 0.350  0.3970  -17.0  10.107  166.1  0.0646    3.9  0.4389  -20.4
 0.400  0.3964  -18.4  10.040  164.7  0.0657    4.4  0.4369  -22.3
 0.450  0.3962  -19.6   9.992  163.3  0.0652    3.7  0.4362  -24.4
 0.500  0.3935  -21.4   9.964  162.0  0.0659    3.5  0.4368  -26.4
 0.600  0.3915  -24.6   9.877  158.9  0.0666    3.1  0.4320  -30.8
 0.700  0.3879  -28.1   9.777  156.0  0.0668    2.5  0.4297  -35.2
 0.800  0.3854  -31.4   9.650  153.0  0.0676    1.7  0.4274  -39.9
 0.900  0.3801  -35.1   9.570  149.9  0.0683    1.8  0.4245  -44.3
 1.000  0.3777  -38.6   9.432  147.0  0.0683    1.4  0.4214  -49.0
 1.100  0.3750  -42.0   9.280  144.2  0.0688    1.3  0.4168  -53.7
 1.200  0.3720  -45.5   9.155  141.3  0.0691    1.0  0.4164  -58.3
 1.300  0.3679  -48.8   9.000  138.3  0.0695    0.1  0.4146  -62.8
 1.400  0.3648  -52.6   8.867  135.6  0.0700   -0.6  0.4137  -67.2
 1.500  0.3614  -55.9   8.709  133.0  0.0705   -1.4  0.4137  -71.6
 1.600  0.3579  -59.4   8.575  130.2  0.0704   -1.5  0.4141  -75.9
 1.700  0.3578  -62.4   8.383  127.5  0.0708   -1.6  0.4137  -80.0
 1.800  0.3548  -66.0   8.224  125.0  0.0713   -2.7  0.4159  -84.2
 1.900  0.3527  -68.9   8.050  122.6  0.0716   -3.3  0.4149  -88.3
 2.000  0.3520  -72.4   7.950  119.9  0.0717   -4.3  0.4194  -92.1
 2.100  0.3500  -75.5   7.762  117.5  0.0710   -4.4  0.4208  -95.9
 2.200  0.3495  -78.6   7.583  115.2  0.0714   -5.3  0.4276  -99.3
 2.300  0.3497  -81.5   7.429  113.0  0.0710   -5.9  0.4285 -102.6
 2.400  0.3491  -84.2   7.284  110.7  0.0719   -6.6  0.4334 -105.6
 2.500  0.3486  -87.4   7.129  108.4  0.0706   -6.8  0.4355 -108.9
 2.600  0.3498  -89.9   6.978  106.4  0.0711   -7.6  0.4410 -111.4
 2.700  0.3494  -92.6   6.828  104.3  0.0709   -8.3  0.4441 -114.1
 2.800  0.3521  -94.9   6.669  102.5  0.0707   -8.5  0.4489 -116.3
 2.900  0.3540  -97.7   6.553  100.4  0.0706   -9.2  0.4529 -118.9
 3.000  0.3547 -100.0   6.406   98.5  0.0696   -9.9  0.4567 -121.2
 3.100  0.3557 -102.7   6.302   96.5  0.0698  -10.5  0.4613 -123.3
 3.200  0.3572 -104.9   6.156   94.7  0.0696  -11.3  0.4643 -125.5
 3.300  0.3589 -107.4   6.040   92.9  0.0695  -11.2  0.4685 -127.3
 3.400  0.3600 -109.8   5.926   91.1  0.0688  -11.7  0.4720 -129.5
 3.500  0.3618 -112.2   5.829   89.3  0.0688  -12.2  0.4742 -130.9
 3.600  0.3637 -114.3   5.714   87.6  0.0687  -12.8  0.4770 -132.7
 3.700  0.3662 -116.6   5.603   85.8  0.0678  -13.4  0.4794 -134.2
 3.800  0.3693 -118.7   5.494   84.2  0.0670  -13.9  0.4820 -136.0
 3.900  0.3709 -121.2   5.408   82.4  0.0670  -14.4  0.4828 -137.7
 4.000  0.3738 -123.1   5.308   80.8  0.0664  -14.8  0.4860 -139.2
 4.100  0.3758 -125.5   5.226   79.2  0.0663  -15.0  0.4862 -140.8
 4.200  0.3794 -127.3   5.122   77.6  0.0656  -15.7  0.4893 -142.2
 4.300  0.3816 -129.6   5.038   76.0  0.0654  -16.0  0.4893 -143.9
 4.400  0.3840 -131.7   4.948   74.4  0.0650  -16.6  0.4909 -145.4
 4.500  0.3865 -134.0   4.882   72.8  0.0648  -17.3  0.4917 -146.9
 4.600  0.3895 -136.1   4.803   71.2  0.0641  -17.3  0.4939 -148.4
 4.700  0.3944 -137.6   4.718   69.6  0.0631  -17.7  0.4949 -149.9
 4.800  0.3971 -139.9   4.645   68.1  0.0628  -18.5  0.4961 -151.3
 4.900  0.4001 -141.9   4.582   66.6  0.0624  -18.9  0.4958 -152.7
 5.000  0.4033 -143.7   4.511   65.0  0.0621  -19.1  0.4962 -154.3
 5.100  0.4063 -145.6   4.437   63.4  0.0615  -19.4  0.4969 -155.8
 5.200  0.4113 -147.3   4.364   61.9  0.0608  -20.0  0.4989 -157.3
 5.300  0.4132 -149.3   4.299   60.3  0.0600  -20.2  0.4988 -158.7
 5.400  0.4171 -151.1   4.242   58.8  0.0595  -20.3  0.4991 -160.2
 5.500  0.4198 -153.0   4.177   57.3  0.0590  -21.3  0.5002 -161.7
 5.600  0.4236 -154.6   4.121   55.8  0.0575  -21.2  0.5013 -163.0
 5.700  0.4260 -156.1   4.047   54.2  0.0570  -21.3  0.5020 -164.5
 5.800  0.4293 -158.2   3.992   52.7  0.0568  -22.2  0.5019 -165.9
 5.900  0.4328 -159.6   3.929   51.3  0.0562  -22.0  0.5027 -167.4
 6.000  0.4344 -161.5   3.886   49.8  0.0553  -21.9  0.5026 -168.8
 6.100  0.4375 -163.0   3.819   48.2  0.0544  -22.7  0.5027 -170.4
 6.200  0.4379 -164.9   3.765   46.6  0.0532  -23.0  0.5016 -171.9
 6.300  0.4413 -166.5   3.706   45.1  0.0528  -22.8  0.5005 -173.4
 6.400  0.4422 -168.4   3.658   43.6  0.0516  -23.2  0.5011 -174.9
 6.500  0.4437 -170.1   3.604   42.1  0.0509  -23.1  0.5002 -176.3
 6.600  0.4462 -171.5   3.537   40.7  0.0498  -23.2  0.4989 -177.9
 6.700  0.4464 -173.4   3.486   39.2  0.0490  -23.1  0.4973 -179.1
 6.800  0.4485 -175.0   3.433   37.8  0.0479  -22.7  0.4948  179.3
 6.900  0.4499 -176.8   3.388   36.3  0.0470  -22.7  0.4928  178.0
 7.000  0.4515 -178.4   3.335   34.8  0.0458  -21.7  0.4912  176.4
 7.100  0.4534  179.8   3.281   33.4  0.0450  -21.4  0.4912  175.0
 7.200  0.4564  178.4   3.229   32.0  0.0437  -20.4  0.4894  173.6
 7.300  0.4580  176.4   3.181   30.5  0.0435  -19.2  0.4900  172.1
 7.400  0.4615  174.6   3.134   29.1  0.0427  -17.8  0.4891  170.6
 7.500  0.4659  172.7   3.093   27.7  0.0421  -16.9  0.4911  169.0
 7.600  0.4700  171.2   3.048   26.4  0.0420  -15.7  0.4914  167.4
 7.700  0.4759  169.3   3.006   24.8  0.0420  -15.0  0.4939  165.6
 7.800  0.4810  167.6   2.959   23.4  0.0419  -13.8  0.4960  163.9
 7.900  0.4872  165.7   2.920   21.9  0.0420  -13.1  0.4986  161.8
 8.000  0.4934  164.2   2.878   20.6  0.0414  -12.5  0.5034  160.1
 8.500  0.5312  156.1   2.664   13.1  0.0418   -9.1  0.5283  150.2
 9.000  0.5707  149.6   2.438    5.8  0.0417   -5.7  0.5644  140.4
 9.500  0.6071  143.1   2.204   -1.2  0.0417   -2.6  0.6078  132.0
10.000  0.6313  137.6   1.963   -7.4  0.0422   -0.7  0.6539  125.1
10.500  0.6559  133.2   1.758  -12.3  0.0429    3.1  0.6978  120.3
11.000  0.6834  128.3   1.594  -16.7  0.0438    6.1  0.7378  118.0
11.500  0.7063  123.9   1.448  -20.3  0.0451    9.1  0.7632  118.5
12.000  0.7241  120.6   1.314  -23.0  0.0461   12.6  0.7896  121.8
!
!  f       NFmin   Gammaopt  rn/50
! GHz       dB    MAG  ANG    -
 0.450      0.82  0.16   11   0.06
 0.900      0.84  0.16   21   0.06
 1.500      0.90  0.16   29   0.07
 1.900      0.95  0.15   45   0.07
 2.400      0.99  0.15   57   0.08
 3.500      1.06  0.17   86   0.13
 5.500      1.18  0.17  152   0.19
10.000      1.90  0.38 -124   0.23
!
! (c) 2013  Infineon Technologies AG, Munich
