! Infineon Technologies  Discrete & RF Semiconductors
! BFP843
! VCE =  2.0 V,  IC =  6.0 mA
! Common Emitter S-Parameters:                            Aug 2013
# GHz  S  MA  R  50
!  f         S11            S21            S12            S22
! GHz     MAG   ANG      MAG   ANG      MAG   ANG      MAG   ANG
 0.030  0.5679  -28.0  13.527  165.5  0.0504   32.9  0.6131  -26.4
 0.040  0.4988  -27.5  12.804  166.2  0.0554   24.4  0.5447  -25.9
 0.050  0.4568  -25.6  12.403  168.3  0.0530   21.7  0.4987  -24.4
 0.060  0.4295  -24.6  12.153  168.5  0.0574   16.6  0.4750  -23.6
 0.070  0.4058  -22.2  11.859  169.3  0.0605   14.7  0.4534  -21.4
 0.080  0.4027  -20.0  11.763  169.6  0.0576   10.3  0.4379  -20.5
 0.090  0.3875  -19.1  11.707  169.7  0.0589    9.9  0.4306  -19.1
 0.100  0.3785  -17.8  11.563  170.0  0.0596   11.6  0.4202  -17.9
 0.110  0.3738  -18.1  11.626  170.1  0.0609    8.5  0.4184  -16.6
 0.120  0.3715  -16.8  11.514  170.1  0.0591    8.7  0.4161  -16.5
 0.130  0.3700  -16.2  11.533  170.2  0.0606    9.5  0.4113  -15.7
 0.140  0.3648  -15.9  11.467  169.8  0.0597    9.3  0.4118  -15.5
 0.150  0.3660  -15.5  11.443  169.8  0.0615    8.4  0.4091  -15.2
 0.200  0.3613  -14.3  11.261  169.0  0.0606    5.6  0.4044  -14.8
 0.250  0.3582  -14.2  11.253  167.6  0.0621    4.3  0.4041  -15.4
 0.300  0.3612  -14.9  11.117  166.4  0.0617    2.8  0.3998  -16.2
 0.350  0.3578  -16.5  11.054  165.0  0.0613    2.8  0.4008  -17.4
 0.400  0.3574  -17.7  10.986  163.6  0.0620    1.4  0.3963  -19.2
 0.450  0.3558  -18.9  10.960  162.2  0.0619    1.1  0.3974  -20.8
 0.500  0.3547  -20.6  10.942  160.7  0.0627    0.3  0.3962  -22.5
 0.600  0.3502  -24.0  10.831  157.5  0.0616   -0.4  0.3927  -25.9
 0.700  0.3468  -27.2  10.733  154.3  0.0621   -1.3  0.3892  -29.5
 0.800  0.3445  -30.5  10.616  151.1  0.0627   -1.5  0.3843  -33.4
 0.900  0.3390  -34.0  10.525  147.9  0.0626   -2.3  0.3832  -37.2
 1.000  0.3355  -37.5  10.401  144.8  0.0626   -2.9  0.3769  -41.1
 1.100  0.3327  -40.9  10.249  141.7  0.0625   -3.9  0.3735  -45.1
 1.200  0.3274  -44.7  10.131  138.6  0.0629   -4.5  0.3694  -49.0
 1.300  0.3225  -48.1  10.000  135.5  0.0632   -5.2  0.3647  -52.9
 1.400  0.3181  -52.0   9.889  132.5  0.0631   -5.8  0.3635  -56.5
 1.500  0.3132  -55.5   9.737  129.6  0.0631   -6.3  0.3580  -60.6
 1.600  0.3096  -59.1   9.588  126.5  0.0632   -7.2  0.3545  -64.6
 1.700  0.3035  -63.1   9.473  123.5  0.0630   -8.2  0.3519  -68.3
 1.800  0.2993  -66.7   9.301  120.7  0.0626   -8.9  0.3485  -72.3
 1.900  0.2953  -70.5   9.154  117.9  0.0629   -9.9  0.3442  -76.2
 2.000  0.2933  -74.2   9.001  115.0  0.0625  -10.7  0.3395  -80.2
 2.100  0.2885  -78.2   8.860  112.2  0.0629  -11.5  0.3376  -83.9
 2.200  0.2841  -82.1   8.719  109.6  0.0623  -12.4  0.3354  -87.7
 2.300  0.2803  -85.9   8.583  106.8  0.0617  -12.7  0.3323  -91.2
 2.400  0.2777  -89.6   8.443  104.2  0.0615  -13.6  0.3297  -95.0
 2.500  0.2740  -93.3   8.276  101.5  0.0616  -14.6  0.3262  -98.8
 2.600  0.2712  -96.9   8.154   98.9  0.0616  -15.6  0.3241 -102.3
 2.700  0.2682 -100.8   7.997   96.3  0.0609  -16.5  0.3206 -106.2
 2.800  0.2651 -104.9   7.884   93.8  0.0600  -17.4  0.3209 -109.7
 2.900  0.2638 -108.7   7.736   91.3  0.0593  -17.1  0.3181 -113.6
 3.000  0.2601 -112.7   7.609   88.7  0.0591  -18.7  0.3170 -117.2
 3.100  0.2599 -116.5   7.479   86.2  0.0586  -19.1  0.3153 -121.0
 3.200  0.2581 -120.6   7.353   83.8  0.0582  -20.1  0.3158 -124.5
 3.300  0.2570 -124.3   7.217   81.3  0.0569  -21.2  0.3157 -128.5
 3.400  0.2560 -128.2   7.090   79.0  0.0564  -21.5  0.3164 -131.8
 3.500  0.2562 -131.6   6.958   76.5  0.0557  -22.4  0.3159 -135.4
 3.600  0.2561 -135.7   6.833   74.2  0.0547  -23.0  0.3178 -138.7
 3.700  0.2555 -139.5   6.718   71.8  0.0541  -23.2  0.3191 -142.2
 3.800  0.2567 -143.5   6.607   69.5  0.0535  -24.3  0.3230 -145.2
 3.900  0.2593 -146.9   6.466   67.2  0.0521  -24.1  0.3247 -148.6
 4.000  0.2621 -150.5   6.355   64.9  0.0510  -24.9  0.3290 -151.6
 4.100  0.2641 -153.9   6.233   62.7  0.0506  -25.8  0.3322 -154.6
 4.200  0.2668 -157.8   6.136   60.4  0.0495  -26.1  0.3367 -157.2
 4.300  0.2719 -160.8   6.012   58.2  0.0484  -25.6  0.3412 -160.0
 4.400  0.2767 -164.3   5.901   56.1  0.0476  -26.4  0.3447 -162.5
 4.500  0.2815 -166.8   5.775   53.9  0.0470  -26.3  0.3488 -165.0
 4.600  0.2877 -170.1   5.676   51.8  0.0460  -26.3  0.3543 -167.3
 4.700  0.2930 -173.0   5.593   49.6  0.0451  -26.1  0.3599 -169.6
 4.800  0.3008 -175.7   5.480   47.6  0.0439  -26.4  0.3648 -171.8
 4.900  0.3060 -178.0   5.375   45.6  0.0436  -25.5  0.3677 -173.9
 5.000  0.3132  179.5   5.281   43.5  0.0427  -25.4  0.3738 -176.0
 5.100  0.3197  177.0   5.186   41.5  0.0413  -24.3  0.3780 -178.1
 5.200  0.3274  174.9   5.096   39.5  0.0409  -24.3  0.3842 -179.8
 5.300  0.3347  172.8   5.002   37.5  0.0397  -23.7  0.3884  178.2
 5.400  0.3413  171.2   4.912   35.5  0.0391  -22.7  0.3929  176.5
 5.500  0.3477  169.1   4.819   33.5  0.0383  -22.0  0.3969  174.6
 5.600  0.3550  167.7   4.740   31.7  0.0374  -21.1  0.4019  173.0
 5.700  0.3589  165.9   4.655   29.7  0.0368  -19.7  0.4064  171.2
 5.800  0.3661  164.3   4.574   27.9  0.0364  -18.8  0.4113  169.7
 5.900  0.3711  163.0   4.500   26.1  0.0358  -17.5  0.4164  167.9
 6.000  0.3779  161.4   4.415   24.2  0.0356  -15.5  0.4215  166.4
 6.100  0.3845  159.8   4.355   22.3  0.0355  -14.5  0.4266  164.6
 6.200  0.3898  158.4   4.276   20.4  0.0353  -12.7  0.4325  162.9
 6.300  0.3964  156.9   4.210   18.6  0.0351  -10.9  0.4373  161.4
 6.400  0.4027  155.6   4.133   16.7  0.0354   -9.0  0.4430  159.7
 6.500  0.4081  153.9   4.066   15.0  0.0362   -8.2  0.4481  158.1
 6.600  0.4130  152.2   4.011   13.1  0.0356   -6.3  0.4548  156.5
 6.700  0.4194  150.7   3.942   11.4  0.0362   -4.8  0.4601  155.0
 6.800  0.4235  149.0   3.884    9.5  0.0363   -3.2  0.4656  153.4
 6.900  0.4296  147.7   3.815    7.7  0.0367   -1.5  0.4707  151.7
 7.000  0.4324  145.7   3.761    5.9  0.0377   -1.0  0.4782  150.2
 7.100  0.4398  143.9   3.706    4.1  0.0384    0.0  0.4839  148.7
 7.200  0.4438  142.2   3.655    2.3  0.0385    1.6  0.4909  147.2
 7.300  0.4504  140.2   3.602    0.4  0.0399    2.9  0.4970  145.6
 7.400  0.4564  138.5   3.546   -1.4  0.0406    3.4  0.5037  144.1
 7.500  0.4626  136.6   3.490   -3.3  0.0419    4.3  0.5091  142.4
 7.600  0.4699  134.7   3.444   -5.2  0.0423    4.5  0.5161  140.8
 7.700  0.4780  132.7   3.396   -7.2  0.0439    5.6  0.5239  139.1
 7.800  0.4853  130.8   3.346   -9.1  0.0449    5.4  0.5297  137.5
 7.900  0.4946  128.9   3.290  -11.0  0.0465    6.0  0.5375  135.6
 8.000  0.5020  127.1   3.244  -13.0  0.0471    6.5  0.5449  133.9
 8.500  0.5527  117.2   2.965  -23.2  0.0529    5.7  0.5851  124.7
 9.000  0.6041  105.9   2.656  -33.0  0.0579    2.6  0.6333  115.4
 9.500  0.6491   97.8   2.319  -41.3  0.0614    0.9  0.6798  107.2
10.000  0.6910   92.4   2.040  -47.5  0.0651   -1.6  0.7219  101.3
10.500  0.7366   87.7   1.850  -53.3  0.0678   -3.4  0.7564   98.1
11.000  0.7641   83.7   1.678  -59.2  0.0720   -4.8  0.7917   96.1
11.500  0.7785   80.8   1.537  -64.4  0.0770   -7.2  0.8107   94.1
12.000  0.7847   78.8   1.418  -69.4  0.0817  -10.4  0.8232   91.1
!
!  f       NFmin   Gammaopt  rn/50
! GHz       dB    MAG  ANG    -
 0.450      0.92  0.15    7   0.00
 0.900      0.93  0.15   17   0.03
 1.500      0.96  0.15   27   0.10
 1.900      0.99  0.13   40   0.18
 2.400      1.03  0.11   49   0.25
 3.500      1.10  0.09   63   0.29
 5.500      1.25  0.14 -148   0.37
10.000      1.97  0.51  -72   0.43
!
! (c) 2013  Infineon Technologies AG, Munich
