! Infineon Technologies  Discrete & RF Semiconductors
! BFP840FESD
! VCE =  1.5 V,  IC =  18 mA
! Common Emitter S-Parameters:                            May 2012
# GHz  S  MA  R  50
!  f         S11            S21            S12            S22
! GHz     MAG   ANG      MAG   ANG      MAG   ANG      MAG   ANG
 0.030  0.8208   -1.8  39.465  176.6  0.0010  121.6  0.9676    0.7
 0.040  0.8219   -2.5  39.532  176.2  0.0008   78.2  0.9756    0.0
 0.050  0.8211   -3.2  39.599  177.1  0.0011   78.6  0.9807   -0.6
 0.060  0.8221   -3.7  39.555  176.6  0.0018   98.8  0.9844   -1.2
 0.070  0.8218   -4.5  39.639  176.1  0.0024   86.4  0.9870   -1.8
 0.080  0.8210   -5.0  39.700  175.5  0.0021   88.6  0.9875   -2.4
 0.090  0.8210   -5.6  39.646  174.9  0.0018   84.2  0.9892   -2.9
 0.100  0.8200   -6.3  39.614  174.4  0.0024   90.0  0.9894   -3.5
 0.110  0.8195   -6.9  39.494  173.8  0.0028   93.7  0.9896   -4.1
 0.120  0.8189   -7.6  39.480  173.4  0.0028   87.9  0.9899   -4.6
 0.130  0.8188   -8.2  39.412  172.7  0.0032   81.2  0.9893   -5.1
 0.140  0.8177   -8.8  39.399  172.2  0.0036   88.3  0.9887   -5.7
 0.150  0.8168   -9.4  39.392  171.6  0.0035   84.4  0.9882   -6.2
 0.200  0.8121  -12.5  39.091  168.8  0.0047   83.3  0.9842   -8.7
 0.250  0.8076  -15.5  38.765  166.1  0.0061   79.5  0.9777  -11.0
 0.300  0.8011  -18.5  38.337  163.5  0.0068   78.8  0.9691  -13.3
 0.350  0.7944  -21.4  37.774  161.0  0.0080   77.9  0.9612  -15.5
 0.400  0.7865  -24.3  37.272  158.6  0.0091   77.1  0.9498  -17.6
 0.450  0.7795  -27.0  36.745  156.3  0.0103   74.3  0.9398  -19.6
 0.500  0.7716  -29.9  36.133  154.1  0.0111   74.2  0.9286  -21.6
 0.600  0.7552  -35.3  34.997  149.9  0.0134   70.4  0.9056  -25.4
 0.700  0.7386  -40.4  33.828  146.0  0.0151   67.6  0.8817  -29.1
 0.800  0.7214  -45.6  32.805  142.3  0.0169   65.3  0.8575  -32.7
 0.900  0.7045  -50.5  31.725  138.8  0.0184   62.6  0.8325  -36.1
 1.000  0.6880  -55.3  30.637  135.5  0.0200   60.8  0.8077  -39.4
 1.100  0.6712  -60.0  29.630  132.3  0.0214   58.2  0.7835  -42.6
 1.200  0.6556  -64.6  28.679  129.2  0.0227   56.0  0.7594  -45.6
 1.300  0.6398  -69.0  27.752  126.3  0.0239   54.0  0.7360  -48.6
 1.400  0.6260  -73.3  26.834  123.5  0.0250   52.3  0.7135  -51.5
 1.500  0.6110  -77.5  25.985  120.9  0.0259   50.7  0.6912  -54.3
 1.600  0.5988  -81.6  25.206  118.2  0.0269   48.8  0.6703  -57.1
 1.700  0.5849  -85.5  24.319  115.6  0.0277   47.2  0.6496  -59.7
 1.800  0.5744  -89.3  23.524  113.2  0.0284   45.9  0.6314  -62.4
 1.900  0.5618  -92.9  22.771  111.0  0.0292   44.7  0.6130  -64.9
 2.000  0.5527  -96.4  22.088  108.7  0.0298   43.2  0.5966  -67.3
 2.100  0.5431  -99.8  21.387  106.5  0.0304   42.1  0.5816  -69.7
 2.200  0.5348 -103.1  20.706  104.5  0.0308   41.2  0.5671  -72.0
 2.300  0.5259 -106.2  20.067  102.5  0.0313   40.1  0.5525  -74.1
 2.400  0.5193 -109.2  19.476  100.5  0.0318   39.0  0.5406  -76.2
 2.500  0.5114 -112.1  18.888   98.7  0.0321   38.3  0.5283  -78.2
 2.600  0.5046 -114.9  18.313   96.9  0.0325   37.6  0.5174  -80.1
 2.700  0.4978 -117.6  17.780   95.2  0.0327   36.9  0.5067  -82.0
 2.800  0.4926 -120.2  17.289   93.6  0.0330   36.3  0.4970  -83.7
 2.900  0.4874 -122.7  16.814   92.0  0.0333   35.8  0.4889  -85.5
 3.000  0.4826 -125.1  16.360   90.4  0.0336   35.4  0.4806  -87.1
 3.100  0.4776 -127.5  15.931   88.8  0.0339   34.7  0.4733  -88.8
 3.200  0.4739 -129.9  15.521   87.3  0.0340   34.4  0.4657  -90.4
 3.300  0.4705 -132.1  15.125   85.9  0.0343   34.2  0.4594  -92.0
 3.400  0.4674 -134.3  14.745   84.5  0.0346   33.7  0.4540  -93.6
 3.500  0.4646 -136.4  14.395   83.1  0.0349   33.5  0.4482  -94.9
 3.600  0.4614 -138.5  14.054   81.7  0.0349   33.1  0.4430  -96.4
 3.700  0.4589 -140.5  13.728   80.4  0.0352   32.9  0.4382  -97.7
 3.800  0.4567 -142.5  13.411   79.0  0.0353   32.8  0.4336  -99.0
 3.900  0.4553 -144.5  13.117   77.7  0.0356   32.8  0.4299 -100.3
 4.000  0.4542 -146.3  12.837   76.4  0.0360   32.6  0.4259 -101.5
 4.100  0.4535 -148.2  12.573   75.1  0.0361   32.3  0.4219 -102.9
 4.200  0.4522 -150.1  12.309   73.9  0.0364   32.2  0.4182 -104.0
 4.300  0.4524 -151.9  12.061   72.6  0.0366   32.1  0.4146 -105.3
 4.400  0.4515 -153.6  11.811   71.4  0.0370   31.9  0.4110 -106.5
 4.500  0.4518 -155.3  11.581   70.1  0.0370   31.9  0.4079 -107.6
 4.600  0.4518 -156.9  11.358   68.9  0.0373   31.9  0.4039 -108.7
 4.700  0.4520 -158.6  11.144   67.7  0.0377   31.6  0.4010 -109.9
 4.800  0.4522 -160.1  10.932   66.5  0.0377   31.8  0.3973 -111.0
 4.900  0.4526 -161.6  10.729   65.3  0.0380   31.7  0.3945 -112.0
 5.000  0.4527 -163.1  10.539   64.1  0.0382   31.8  0.3902 -113.0
 5.100  0.4528 -164.6  10.353   63.0  0.0385   31.7  0.3867 -114.2
 5.200  0.4530 -165.9  10.170   61.8  0.0387   31.5  0.3826 -115.1
 5.300  0.4533 -167.4   9.999   60.6  0.0389   31.4  0.3788 -116.3
 5.400  0.4535 -168.7   9.827   59.5  0.0391   31.4  0.3748 -117.3
 5.500  0.4534 -170.2   9.667   58.3  0.0394   31.4  0.3706 -118.4
 5.600  0.4532 -171.5   9.503   57.1  0.0396   31.4  0.3655 -119.3
 5.700  0.4526 -173.1   9.346   55.9  0.0397   31.4  0.3611 -120.6
 5.800  0.4529 -174.5   9.194   54.8  0.0400   31.4  0.3558 -121.6
 5.900  0.4525 -175.9   9.045   53.7  0.0401   31.5  0.3512 -122.8
 6.000  0.4527 -177.3   8.900   52.6  0.0404   31.5  0.3455 -123.9
 6.100  0.4517 -178.8   8.760   51.4  0.0406   31.4  0.3406 -125.2
 6.200  0.4518  179.6   8.617   50.2  0.0408   31.6  0.3352 -126.4
 6.300  0.4512  177.9   8.484   49.1  0.0410   31.6  0.3299 -127.7
 6.400  0.4515  176.4   8.352   48.0  0.0411   31.8  0.3249 -128.9
 6.500  0.4503  174.7   8.219   46.9  0.0413   32.1  0.3186 -130.2
 6.600  0.4498  173.1   8.084   45.7  0.0414   32.3  0.3134 -131.5
 6.700  0.4491  171.4   7.958   44.6  0.0417   32.5  0.3078 -132.8
 6.800  0.4486  169.8   7.836   43.5  0.0419   32.9  0.3029 -134.0
 6.900  0.4477  168.2   7.710   42.5  0.0422   33.4  0.2978 -135.4
 7.000  0.4475  166.6   7.592   41.4  0.0426   33.8  0.2934 -136.6
 7.100  0.4479  165.1   7.474   40.3  0.0429   34.2  0.2888 -137.9
 7.200  0.4489  163.7   7.361   39.3  0.0435   34.7  0.2853 -139.2
 7.300  0.4502  162.4   7.252   38.3  0.0442   35.0  0.2819 -140.5
 7.400  0.4522  161.2   7.150   37.4  0.0448   35.4  0.2796 -142.0
 7.500  0.4546  160.0   7.055   36.4  0.0456   35.6  0.2779 -143.5
 7.600  0.4583  158.9   6.960   35.4  0.0464   35.7  0.2763 -145.2
 7.700  0.4619  157.8   6.870   34.4  0.0473   35.7  0.2751 -146.9
 7.800  0.4671  156.7   6.786   33.2  0.0481   35.5  0.2751 -149.0
 7.900  0.4727  155.5   6.701   32.2  0.0489   35.3  0.2741 -151.1
 8.000  0.4784  154.5   6.622   31.1  0.0497   35.0  0.2735 -153.3
 8.500  0.5107  148.9   6.202   25.5  0.0529   33.0  0.2700 -167.0
 9.000  0.5436  143.6   5.777   20.0  0.0552   31.0  0.2729  176.9
 9.500  0.5781  138.5   5.362   14.5  0.0569   29.1  0.2952  160.1
10.000  0.6100  133.8   4.952    9.4  0.0585   27.6  0.3426  146.5
10.500  0.6383  129.7   4.576    4.7  0.0598   26.1  0.4106  138.6
11.000  0.6586  125.3   4.215    0.3  0.0609   24.7  0.4798  134.8
11.500  0.6728  121.7   3.884   -3.5  0.0614   23.7  0.5428  135.2
12.000  0.6801  118.6   3.567   -6.5  0.0616   23.6  0.5855  138.0
!
!  f       NFmin   Gammaopt  rn/50
! GHz       dB    MAG  ANG    -
!
! noise parameter not available yet for this operation point!
!
! (c) 2012  Infineon Technologies AG, Munich
