! Infineon Technologies  Discrete & RF Semiconductors
! BFP843
! VCE =  0.5 V,  IC =  12 mA
! Common Emitter S-Parameters:                            Aug 2013
# GHz  S  MA  R  50
!  f         S11            S21            S12            S22
! GHz     MAG   ANG      MAG   ANG      MAG   ANG      MAG   ANG
 0.030  0.4059  -52.5  20.214  161.3  0.0420   30.1  0.4622  -45.9
 0.040  0.3201  -55.8  18.836  162.5  0.0434   23.2  0.3733  -47.8
 0.050  0.2699  -55.3  18.074  165.0  0.0433   20.3  0.3195  -46.5
 0.060  0.2365  -57.4  17.636  165.4  0.0503   17.2  0.2877  -46.9
 0.070  0.2021  -53.8  17.131  166.4  0.0437   14.0  0.2545  -43.9
 0.080  0.1799  -51.6  17.009  166.9  0.0469   10.4  0.2357  -43.7
 0.090  0.1681  -51.1  16.868  167.1  0.0482   12.1  0.2254  -40.1
 0.100  0.1559  -47.6  16.690  167.4  0.0474   10.1  0.2110  -38.0
 0.110  0.1497  -49.3  16.653  167.4  0.0493    9.2  0.2061  -36.3
 0.120  0.1413  -45.7  16.522  167.5  0.0470   10.9  0.2013  -35.5
 0.130  0.1406  -42.9  16.505  167.6  0.0508    8.6  0.1944  -33.7
 0.140  0.1316  -43.0  16.422  167.2  0.0494    6.8  0.1928  -31.8
 0.150  0.1316  -42.5  16.364  167.1  0.0490    5.6  0.1899  -31.5
 0.200  0.1232  -35.9  16.058  166.0  0.0496    7.5  0.1843  -28.8
 0.250  0.1235  -33.5  15.937  164.4  0.0501    7.1  0.1857  -28.6
 0.300  0.1246  -34.6  15.710  163.0  0.0489    4.8  0.1855  -29.7
 0.350  0.1244  -37.0  15.533  161.3  0.0497    3.9  0.1871  -31.2
 0.400  0.1259  -39.4  15.409  159.6  0.0505    3.3  0.1851  -33.9
 0.450  0.1284  -41.4  15.305  157.9  0.0495    3.3  0.1877  -36.8
 0.500  0.1279  -45.4  15.217  156.1  0.0508    3.7  0.1895  -39.4
 0.600  0.1307  -52.1  14.952  152.5  0.0507    3.1  0.1881  -45.6
 0.700  0.1328  -59.1  14.680  148.8  0.0511    2.3  0.1896  -51.8
 0.800  0.1355  -66.0  14.445  145.2  0.0514    1.5  0.1910  -58.4
 0.900  0.1379  -72.8  14.161  141.5  0.0514    1.7  0.1914  -64.9
 1.000  0.1417  -79.6  13.890  138.0  0.0520    1.2  0.1936  -71.2
 1.100  0.1460  -85.6  13.590  134.5  0.0517    1.2  0.1949  -78.0
 1.200  0.1508  -92.3  13.302  131.1  0.0520    0.6  0.1989  -83.9
 1.300  0.1524  -98.7  13.021  127.7  0.0522    0.2  0.2016  -89.4
 1.400  0.1591 -104.3  12.734  124.5  0.0526    0.5  0.2051  -94.8
 1.500  0.1634 -110.3  12.437  121.3  0.0528   -0.4  0.2084 -100.5
 1.600  0.1683 -115.5  12.155  118.1  0.0530   -0.8  0.2125 -105.7
 1.700  0.1741 -120.7  11.864  115.0  0.0531   -1.3  0.2156 -110.5
 1.800  0.1797 -125.7  11.567  112.0  0.0531   -1.1  0.2195 -115.4
 1.900  0.1850 -129.9  11.277  109.2  0.0530   -2.3  0.2230 -120.4
 2.000  0.1921 -134.7  11.021  106.2  0.0528   -2.0  0.2272 -124.7
 2.100  0.1983 -139.0  10.742  103.4  0.0525   -2.8  0.2315 -129.1
 2.200  0.2046 -143.1  10.491  100.8  0.0526   -3.1  0.2370 -132.8
 2.300  0.2098 -147.1  10.239   98.1  0.0525   -2.5  0.2391 -136.9
 2.400  0.2163 -150.3   9.996   95.4  0.0524   -3.4  0.2444 -140.5
 2.500  0.2216 -154.0   9.736   92.8  0.0523   -3.5  0.2482 -144.8
 2.600  0.2263 -157.4   9.519   90.3  0.0528   -4.1  0.2516 -147.7
 2.700  0.2330 -161.1   9.276   87.8  0.0522   -4.4  0.2556 -151.7
 2.800  0.2383 -164.5   9.061   85.3  0.0519   -4.5  0.2604 -154.6
 2.900  0.2456 -167.8   8.848   82.9  0.0520   -4.4  0.2648 -158.2
 3.000  0.2501 -170.9   8.635   80.5  0.0524   -4.8  0.2698 -161.5
 3.100  0.2577 -173.9   8.448   78.1  0.0516   -4.5  0.2752 -164.6
 3.200  0.2640 -176.9   8.245   75.8  0.0515   -5.7  0.2801 -167.7
 3.300  0.2702 -179.9   8.052   73.5  0.0513   -5.4  0.2864 -170.6
 3.400  0.2762  177.6   7.862   71.4  0.0516   -6.0  0.2920 -173.4
 3.500  0.2821  174.8   7.687   69.1  0.0516   -5.9  0.2972 -176.0
 3.600  0.2889  172.3   7.506   66.9  0.0516   -6.4  0.3038 -178.7
 3.700  0.2954  169.5   7.346   64.8  0.0513   -5.7  0.3099  179.0
 3.800  0.3025  167.1   7.182   62.6  0.0506   -6.1  0.3162  176.7
 3.900  0.3085  164.8   7.007   60.5  0.0509   -6.2  0.3220  174.2
 4.000  0.3153  162.4   6.858   58.5  0.0511   -5.6  0.3293  172.3
 4.100  0.3229  160.3   6.699   56.5  0.0505   -5.1  0.3359  170.1
 4.200  0.3299  158.2   6.561   54.4  0.0503   -6.2  0.3418  168.6
 4.300  0.3374  156.3   6.413   52.5  0.0503   -5.5  0.3479  166.7
 4.400  0.3453  154.2   6.269   50.5  0.0507   -5.5  0.3538  164.9
 4.500  0.3510  152.8   6.130   48.6  0.0506   -5.6  0.3595  163.3
 4.600  0.3602  150.9   6.005   46.7  0.0499   -5.3  0.3659  161.8
 4.700  0.3664  149.4   5.889   44.8  0.0497   -5.1  0.3715  160.2
 4.800  0.3753  147.8   5.763   42.9  0.0501   -5.3  0.3777  158.8
 4.900  0.3807  146.5   5.643   41.2  0.0500   -4.9  0.3810  157.4
 5.000  0.3882  145.1   5.529   39.3  0.0500   -4.9  0.3868  155.9
 5.100  0.3951  143.6   5.420   37.5  0.0501   -4.3  0.3920  154.5
 5.200  0.4017  142.6   5.313   35.8  0.0501   -4.0  0.3969  153.3
 5.300  0.4083  141.3   5.208   34.0  0.0504   -3.9  0.4013  151.9
 5.400  0.4130  140.3   5.106   32.2  0.0505   -3.6  0.4050  150.6
 5.500  0.4201  139.0   5.007   30.4  0.0508   -3.9  0.4096  149.3
 5.600  0.4254  138.1   4.917   28.8  0.0510   -3.5  0.4132  148.1
 5.700  0.4284  136.9   4.820   27.1  0.0510   -3.0  0.4180  146.7
 5.800  0.4347  136.0   4.731   25.4  0.0516   -2.9  0.4214  145.6
 5.900  0.4375  135.1   4.651   23.8  0.0514   -2.7  0.4257  144.4
 6.000  0.4434  134.1   4.563   22.2  0.0523   -2.3  0.4304  143.2
 6.100  0.4485  133.1   4.489   20.4  0.0525   -2.2  0.4350  141.9
 6.200  0.4536  132.0   4.409   18.8  0.0535   -1.5  0.4401  140.6
 6.300  0.4582  131.1   4.334   17.2  0.0539   -1.7  0.4440  139.4
 6.400  0.4617  130.0   4.263   15.5  0.0541   -2.0  0.4492  138.2
 6.500  0.4674  128.7   4.193   13.9  0.0549   -1.8  0.4535  137.0
 6.600  0.4708  127.5   4.124   12.2  0.0552   -1.6  0.4584  135.9
 6.700  0.4763  126.4   4.060   10.7  0.0559   -1.6  0.4634  134.8
 6.800  0.4787  125.1   3.995    8.9  0.0568   -1.5  0.4677  133.5
 6.900  0.4837  124.0   3.930    7.4  0.0571   -1.5  0.4725  132.3
 7.000  0.4865  122.4   3.869    5.7  0.0579   -1.9  0.4787  131.1
 7.100  0.4932  121.1   3.812    4.0  0.0578   -2.1  0.4838  130.0
 7.200  0.4963  119.7   3.755    2.4  0.0591   -2.2  0.4888  128.8
 7.300  0.5026  118.2   3.700    0.7  0.0596   -1.9  0.4945  127.6
 7.400  0.5071  116.9   3.643   -1.0  0.0602   -2.5  0.4997  126.4
 7.500  0.5131  115.3   3.588   -2.7  0.0613   -2.4  0.5052  125.1
 7.600  0.5192  113.9   3.537   -4.4  0.0620   -3.1  0.5118  123.8
 7.700  0.5276  112.3   3.484   -6.3  0.0624   -3.8  0.5187  122.4
 7.800  0.5341  110.9   3.429   -8.0  0.0634   -3.8  0.5244  121.2
 7.900  0.5421  109.4   3.375   -9.8  0.0641   -3.9  0.5314  119.7
 8.000  0.5492  108.0   3.323  -11.6  0.0650   -4.9  0.5382  118.3
 8.500  0.5937  100.3   3.030  -20.8  0.0668   -7.7  0.5752  110.7
 9.000  0.6369   90.7   2.715  -29.4  0.0689  -10.9  0.6191  103.1
 9.500  0.6719   84.6   2.392  -36.3  0.0692  -12.9  0.6608   96.7
10.000  0.7039   80.7   2.146  -41.6  0.0702  -14.0  0.6968   92.4
10.500  0.7400   77.3   1.976  -46.8  0.0714  -15.1  0.7258   90.4
11.000  0.7594   74.4   1.823  -52.3  0.0741  -15.9  0.7562   89.4
11.500  0.7685   72.4   1.695  -57.3  0.0780  -17.9  0.7718   88.1
12.000  0.7703   71.1   1.589  -62.2  0.0813  -20.2  0.7814   85.8
!
!  f       NFmin   Gammaopt  rn/50
! GHz       dB    MAG  ANG    -
 0.450      0.94  0.04    5   0.02
 0.900      0.95  0.04   16   0.05
 1.500      0.97  0.04   24   0.11
 1.900      0.99  0.04   34   0.18
 2.400      1.02  0.03   44   0.24
 3.500      1.07  0.01   58   0.27
 5.500      1.19  0.18 -121   0.33
10.000      1.80  0.50  -65   0.45
!
! (c) 2013  Infineon Technologies AG, Munich
