! Infineon Technologies  Discrete & RF Semiconductors
! BFP843
! VCE =  0.5 V,  IC =  20 mA
! Common Emitter S-Parameters:                            Aug 2013
# GHz  S  MA  R  50
!  f         S11            S21            S12            S22
! GHz     MAG   ANG      MAG   ANG      MAG   ANG      MAG   ANG
 0.030  0.3286  -79.5  23.890  158.7  0.0357   26.7  0.3609  -68.0
 0.040  0.2612  -90.3  22.130  160.2  0.0387   22.5  0.2771  -74.5
 0.050  0.2217  -97.4  21.217  162.9  0.0361   17.6  0.2276  -80.9
 0.060  0.1914 -106.2  20.612  163.4  0.0377   16.5  0.1925  -83.7
 0.070  0.1630 -110.0  20.043  164.6  0.0406   15.1  0.1630  -85.3
 0.080  0.1486 -116.6  19.866  165.0  0.0395   13.4  0.1467  -88.0
 0.090  0.1371 -118.6  19.673  165.2  0.0380   10.8  0.1316  -87.5
 0.100  0.1258 -123.9  19.447  165.6  0.0397    9.7  0.1065  -89.3
 0.110  0.1248 -126.6  19.374  165.6  0.0395    9.2  0.0993  -90.5
 0.120  0.1153 -129.7  19.214  165.6  0.0372   11.3  0.0938  -90.6
 0.130  0.1084 -130.8  19.193  165.7  0.0392   10.1  0.0835  -91.5
 0.140  0.1073 -134.9  19.073  165.3  0.0405    8.7  0.0769  -87.7
 0.150  0.1027 -134.1  19.002  165.1  0.0384    8.7  0.0731  -88.4
 0.200  0.0883 -139.1  18.578  163.9  0.0417    7.1  0.0588  -82.9
 0.250  0.0825 -138.7  18.398  162.1  0.0411    7.7  0.0545  -79.5
 0.300  0.0823 -137.8  18.096  160.4  0.0409    5.7  0.0559  -78.1
 0.350  0.0861 -138.3  17.857  158.4  0.0418    5.8  0.0569  -78.2
 0.400  0.0915 -136.5  17.639  156.5  0.0414    5.6  0.0593  -81.1
 0.450  0.0968 -135.6  17.495  154.6  0.0417    4.9  0.0668  -82.9
 0.500  0.1034 -135.9  17.317  152.6  0.0425    4.3  0.0712  -87.1
 0.600  0.1175 -136.7  16.917  148.5  0.0424    4.5  0.0792  -94.4
 0.700  0.1309 -138.0  16.516  144.4  0.0438    5.0  0.0885  -99.8
 0.800  0.1475 -139.8  16.125  140.4  0.0436    4.9  0.0993 -106.1
 0.900  0.1596 -142.3  15.726  136.5  0.0443    4.1  0.1089 -112.9
 1.000  0.1744 -145.1  15.314  132.7  0.0438    4.3  0.1196 -117.8
 1.100  0.1880 -148.0  14.894  128.9  0.0437    4.5  0.1292 -123.0
 1.200  0.2011 -150.6  14.482  125.3  0.0444    4.2  0.1385 -127.5
 1.300  0.2129 -154.1  14.073  121.7  0.0444    4.4  0.1478 -131.5
 1.400  0.2232 -156.2  13.697  118.5  0.0444    4.6  0.1562 -135.7
 1.500  0.2358 -159.2  13.280  115.2  0.0453    4.4  0.1645 -139.4
 1.600  0.2470 -162.1  12.904  111.8  0.0453    4.2  0.1726 -142.8
 1.700  0.2565 -164.5  12.534  108.8  0.0456    3.6  0.1806 -146.8
 1.800  0.2666 -167.4  12.140  105.7  0.0460    3.7  0.1884 -149.7
 1.900  0.2752 -169.9  11.797  102.8  0.0456    3.8  0.1959 -153.3
 2.000  0.2871 -172.2  11.449   99.8  0.0462    3.0  0.2022 -156.0
 2.100  0.2943 -174.8  11.114   97.1  0.0460    4.1  0.2100 -159.1
 2.200  0.3031 -177.1  10.797   94.4  0.0462    3.9  0.2167 -161.4
 2.300  0.3115 -179.4  10.501   91.7  0.0458    4.2  0.2219 -164.6
 2.400  0.3172  178.4  10.210   89.1  0.0467    3.6  0.2286 -166.7
 2.500  0.3274  176.0   9.895   86.5  0.0464    4.4  0.2345 -169.7
 2.600  0.3331  173.7   9.638   84.0  0.0470    4.7  0.2398 -172.0
 2.700  0.3403  171.6   9.355   81.5  0.0466    3.7  0.2457 -174.5
 2.800  0.3457  169.6   9.122   79.3  0.0474    3.8  0.2512 -176.7
 2.900  0.3544  167.4   8.868   76.8  0.0476    4.4  0.2580 -179.3
 3.000  0.3602  165.4   8.633   74.5  0.0471    4.2  0.2634  178.3
 3.100  0.3690  163.3   8.405   72.2  0.0481    4.2  0.2703  176.2
 3.200  0.3744  161.4   8.193   70.0  0.0484    3.9  0.2778  173.9
 3.300  0.3821  159.3   7.969   67.7  0.0479    3.6  0.2844  171.9
 3.400  0.3895  157.4   7.765   65.6  0.0484    4.3  0.2911  170.1
 3.500  0.3970  155.5   7.557   63.4  0.0482    3.8  0.2969  168.3
 3.600  0.4020  153.6   7.372   61.3  0.0489    4.1  0.3038  166.4
 3.700  0.4092  151.7   7.194   59.2  0.0491    3.6  0.3109  164.5
 3.800  0.4157  149.9   7.022   57.2  0.0490    4.7  0.3181  162.9
 3.900  0.4242  148.1   6.828   55.1  0.0494    4.4  0.3247  161.2
 4.000  0.4297  146.4   6.671   53.2  0.0495    4.3  0.3314  159.8
 4.100  0.4370  144.8   6.503   51.2  0.0501    4.3  0.3382  158.1
 4.200  0.4422  143.3   6.366   49.4  0.0504    4.5  0.3453  156.9
 4.300  0.4501  141.7   6.206   47.4  0.0508    4.7  0.3516  155.4
 4.400  0.4578  140.2   6.059   45.6  0.0509    5.0  0.3576  154.2
 4.500  0.4641  138.9   5.903   43.7  0.0512    5.0  0.3632  153.1
 4.600  0.4715  137.5   5.774   41.9  0.0514    4.6  0.3699  151.9
 4.700  0.4747  136.2   5.674   40.2  0.0518    4.9  0.3769  150.5
 4.800  0.4841  135.1   5.531   38.3  0.0522    5.2  0.3817  149.5
 4.900  0.4891  133.8   5.403   36.6  0.0526    5.0  0.3857  148.4
 5.000  0.4953  132.8   5.294   34.9  0.0526    5.0  0.3920  147.2
 5.100  0.5002  131.6   5.182   33.2  0.0532    4.8  0.3965  146.1
 5.200  0.5053  130.7   5.080   31.5  0.0538    5.2  0.4019  145.0
 5.300  0.5119  129.6   4.970   29.8  0.0537    4.9  0.4063  143.9
 5.400  0.5158  128.6   4.867   28.0  0.0545    4.3  0.4100  142.8
 5.500  0.5218  127.7   4.764   26.3  0.0549    4.6  0.4150  141.7
 5.600  0.5254  126.9   4.680   24.8  0.0559    4.7  0.4183  140.7
 5.700  0.5262  125.9   4.587   23.2  0.0561    5.0  0.4224  139.5
 5.800  0.5322  125.1   4.498   21.6  0.0571    5.0  0.4268  138.4
 5.900  0.5337  124.3   4.418   20.1  0.0573    4.7  0.4315  137.3
 6.000  0.5396  123.2   4.327   18.4  0.0578    4.7  0.4356  136.4
 6.100  0.5417  122.5   4.262   16.8  0.0588    4.7  0.4406  135.1
 6.200  0.5472  121.5   4.179   15.2  0.0600    4.6  0.4457  134.0
 6.300  0.5505  120.7   4.109   13.7  0.0603    4.0  0.4493  132.9
 6.400  0.5548  119.5   4.026   11.9  0.0614    4.0  0.4540  131.9
 6.500  0.5593  118.5   3.960   10.5  0.0613    3.9  0.4580  130.9
 6.600  0.5604  117.4   3.907    8.9  0.0624    3.4  0.4636  129.7
 6.700  0.5657  116.4   3.835    7.4  0.0631    2.8  0.4681  128.8
 6.800  0.5684  115.2   3.776    5.7  0.0642    2.6  0.4729  127.6
 6.900  0.5734  114.1   3.701    4.1  0.0645    2.6  0.4771  126.6
 7.000  0.5748  112.6   3.648    2.5  0.0656    2.0  0.4835  125.5
 7.100  0.5804  111.4   3.590    0.9  0.0657    1.4  0.4881  124.5
 7.200  0.5825  110.3   3.541   -0.6  0.0670    1.0  0.4934  123.4
 7.300  0.5882  108.9   3.484   -2.4  0.0675    0.5  0.4987  122.3
 7.400  0.5926  107.6   3.429   -4.0  0.0683    0.1  0.5043  121.2
 7.500  0.5986  106.2   3.368   -5.7  0.0694   -0.7  0.5090  120.1
 7.600  0.6036  104.9   3.322   -7.3  0.0700   -1.2  0.5158  118.8
 7.700  0.6103  103.5   3.269   -9.1  0.0704   -2.1  0.5230  117.5
 7.800  0.6161  102.3   3.217  -10.8  0.0709   -2.5  0.5282  116.3
 7.900  0.6243  100.8   3.157  -12.6  0.0717   -3.1  0.5350  115.0
 8.000  0.6302   99.5   3.109  -14.3  0.0725   -4.0  0.5421  113.6
 8.500  0.6695   92.7   2.819  -23.2  0.0745   -7.8  0.5790  106.6
 9.000  0.7043   83.5   2.520  -31.3  0.0756  -11.6  0.6215   99.3
 9.500  0.7311   78.0   2.219  -37.6  0.0753  -14.2  0.6615   93.3
10.000  0.7574   74.5   1.990  -42.4  0.0754  -15.7  0.6958   89.4
10.500  0.7864   71.5   1.845  -47.4  0.0764  -16.8  0.7218   87.6
11.000  0.7996   68.8   1.705  -52.5  0.0789  -17.8  0.7501   87.0
11.500  0.8029   67.1   1.594  -57.3  0.0812  -19.5  0.7639   85.8
12.000  0.8018   65.7   1.498  -62.1  0.0853  -22.5  0.7719   83.7
!
!  f       NFmin   Gammaopt  rn/50
! GHz       dB    MAG  ANG    -
 0.450      1.04  0.12 -173   0.04
 0.900      1.05  0.12 -165   0.07
 1.500      1.06  0.13 -157   0.15
 1.900      1.08  0.13 -147   0.21
 2.400      1.11  0.12 -135   0.27
 3.500      1.15  0.11 -117   0.32
 5.500      1.25  0.25 -110   0.41
10.000      1.83  0.52  -61   0.54
!
! (c) 2013  Infineon Technologies AG, Munich
