! Infineon Technologies  Discrete & RF Semiconductors
! BFP840ESD
! VCE =  1.5 V,  IC =  20 mA
! Common Emitter S-Parameters:                            May 2012
# GHz  S  MA  R  50
!  f         S11            S21            S12            S22
! GHz     MAG   ANG      MAG   ANG      MAG   ANG      MAG   ANG
 0.030  0.7628   -1.9  40.727  177.6  0.0010  130.9  0.9646    0.9
 0.080  0.7639   -5.3  41.068  174.1  0.0029   81.2  0.9865   -2.6
 0.130  0.7598   -8.6  40.549  170.8  0.0032   82.5  0.9874   -5.6
 0.180  0.7548  -11.8  40.058  167.4  0.0042   83.5  0.9807   -8.2
 0.230  0.7488  -14.9  39.509  164.1  0.0053   79.9  0.9726  -10.8
 0.280  0.7414  -18.0  38.890  161.0  0.0068   78.7  0.9632  -13.1
 0.330  0.7338  -21.0  38.119  158.2  0.0078   78.1  0.9525  -15.4
 0.380  0.7253  -23.9  37.345  155.4  0.0088   76.7  0.9402  -17.6
 0.430  0.7173  -26.7  36.662  152.8  0.0099   75.4  0.9285  -19.7
 0.500  0.7041  -30.8  35.655  149.4  0.0112   73.7  0.9101  -22.5
 0.600  0.6853  -36.2  34.276  144.8  0.0135   69.6  0.8845  -26.4
 0.700  0.6660  -41.5  32.946  140.6  0.0150   67.7  0.8579  -30.0
 0.800  0.6463  -46.7  31.747  136.6  0.0167   64.2  0.8310  -33.5
 0.900  0.6260  -51.7  30.571  132.8  0.0183   62.1  0.8043  -36.8
 1.000  0.6068  -56.6  29.425  129.1  0.0197   59.9  0.7776  -39.9
 1.100  0.5879  -61.4  28.350  125.7  0.0211   57.6  0.7520  -42.9
 1.200  0.5692  -66.1  27.313  122.3  0.0223   55.9  0.7264  -45.9
 1.300  0.5512  -70.6  26.339  119.1  0.0234   54.2  0.7012  -48.6
 1.400  0.5342  -75.1  25.428  116.0  0.0246   52.0  0.6776  -51.3
 1.500  0.5175  -79.5  24.560  113.0  0.0256   50.6  0.6541  -53.8
 1.600  0.5021  -83.7  23.720  110.1  0.0265   49.6  0.6323  -56.3
 1.700  0.4871  -87.9  22.925  107.3  0.0274   48.4  0.6108  -58.7
 1.800  0.4739  -92.1  22.150  104.7  0.0280   47.0  0.5914  -61.0
 1.900  0.4608  -96.1  21.436  102.0  0.0290   45.8  0.5718  -63.2
 2.000  0.4494 -100.0  20.742   99.5  0.0298   44.9  0.5536  -65.4
 2.100  0.4377 -103.9  20.106   97.1  0.0305   44.0  0.5361  -67.5
 2.200  0.4281 -107.8  19.492   94.7  0.0309   43.1  0.5190  -69.6
 2.300  0.4187 -111.7  18.899   92.4  0.0318   42.3  0.5022  -71.6
 2.400  0.4113 -115.4  18.341   90.1  0.0320   41.5  0.4869  -73.7
 2.500  0.4034 -119.2  17.815   87.9  0.0330   40.8  0.4708  -75.6
 2.600  0.3963 -122.9  17.299   85.8  0.0333   40.2  0.4561  -77.6
 2.700  0.3897 -126.5  16.823   83.7  0.0338   39.4  0.4420  -79.5
 2.800  0.3836 -130.3  16.368   81.5  0.0345   39.1  0.4279  -81.6
 2.900  0.3796 -133.9  15.936   79.5  0.0350   38.5  0.4151  -83.6
 3.000  0.3746 -137.5  15.508   77.5  0.0356   38.3  0.4030  -85.6
 3.100  0.3715 -141.0  15.119   75.5  0.0363   37.9  0.3911  -87.9
 3.200  0.3678 -144.5  14.725   73.5  0.0368   37.3  0.3802  -90.1
 3.300  0.3658 -148.1  14.365   71.5  0.0372   36.4  0.3696  -92.5
 3.400  0.3629 -151.6  14.003   69.6  0.0379   36.2  0.3604  -94.8
 3.500  0.3613 -155.0  13.663   67.7  0.0386   35.8  0.3507  -97.2
 3.600  0.3600 -158.5  13.336   65.9  0.0390   35.6  0.3419  -99.7
 3.700  0.3594 -162.0  13.016   64.0  0.0395   35.1  0.3334 -102.2
 3.800  0.3588 -165.4  12.701   62.2  0.0401   34.9  0.3261 -104.9
 3.900  0.3600 -168.7  12.405   60.4  0.0405   34.4  0.3195 -107.5
 4.000  0.3613 -171.9  12.111   58.6  0.0411   34.0  0.3132 -110.1
 4.100  0.3626 -175.1  11.832   56.8  0.0416   33.5  0.3074 -112.9
 4.200  0.3653 -178.2  11.569   55.1  0.0422   33.2  0.3022 -115.5
 4.300  0.3686  179.0  11.310   53.4  0.0428   33.0  0.2979 -118.3
 4.400  0.3713  176.2  11.055   51.7  0.0434   32.4  0.2933 -120.8
 4.500  0.3752  173.7  10.817   50.0  0.0439   32.0  0.2899 -123.4
 4.600  0.3784  171.2  10.578   48.4  0.0444   31.9  0.2860 -126.1
 4.700  0.3827  168.9  10.366   46.8  0.0449   31.5  0.2828 -128.5
 4.800  0.3866  166.7  10.148   45.3  0.0456   31.1  0.2794 -130.9
 4.900  0.3910  164.5   9.933   43.6  0.0460   31.0  0.2765 -133.4
 5.000  0.3955  162.6   9.734   42.1  0.0467   30.5  0.2732 -135.7
 5.100  0.3998  160.6   9.538   40.5  0.0473   30.1  0.2704 -138.2
 5.200  0.4045  158.7   9.355   38.9  0.0478   29.9  0.2677 -140.5
 5.300  0.4084  157.0   9.171   37.4  0.0485   29.5  0.2648 -143.0
 5.400  0.4119  155.3   8.996   35.9  0.0491   29.1  0.2620 -145.2
 5.500  0.4158  153.7   8.828   34.4  0.0496   29.2  0.2596 -147.7
 5.600  0.4196  152.0   8.663   32.9  0.0503   28.6  0.2565 -150.0
 5.700  0.4223  150.6   8.495   31.5  0.0508   28.6  0.2543 -152.4
 5.800  0.4249  149.2   8.337   30.1  0.0515   28.4  0.2522 -154.8
 5.900  0.4284  147.8   8.193   28.7  0.0522   28.2  0.2511 -157.1
 6.000  0.4321  146.6   8.057   27.3  0.0531   27.9  0.2497 -159.4
 6.100  0.4354  145.3   7.921   25.9  0.0540   27.5  0.2506 -161.8
 6.200  0.4392  144.1   7.795   24.5  0.0549   27.2  0.2510 -164.0
 6.300  0.4435  142.7   7.672   23.1  0.0557   26.9  0.2527 -166.6
 6.400  0.4472  141.4   7.558   21.7  0.0566   26.2  0.2542 -168.8
 6.500  0.4516  140.0   7.443   20.2  0.0575   25.8  0.2565 -171.4
 6.600  0.4547  138.8   7.334   18.8  0.0584   25.4  0.2587 -173.6
 6.700  0.4587  137.3   7.229   17.3  0.0593   24.9  0.2621 -175.9
 6.800  0.4619  135.9   7.121   15.9  0.0601   24.3  0.2650 -177.9
 6.900  0.4651  134.4   7.019   14.5  0.0611   23.8  0.2689 -179.9
 7.000  0.4688  133.0   6.923   13.0  0.0619   23.1  0.2719  178.1
 7.100  0.4723  131.6   6.831   11.6  0.0629   22.6  0.2763  176.3
 7.200  0.4758  130.1   6.746   10.2  0.0639   21.9  0.2795  174.4
 7.300  0.4797  128.7   6.655    8.7  0.0647   21.3  0.2834  172.4
 7.400  0.4828  127.2   6.563    7.2  0.0657   20.6  0.2870  170.5
 7.500  0.4876  125.6   6.484    5.7  0.0667   19.8  0.2910  168.5
 7.600  0.4914  123.9   6.399    4.2  0.0674   19.1  0.2946  166.5
 7.700  0.4973  122.3   6.316    2.7  0.0683   18.4  0.2977  164.5
 7.800  0.5027  120.6   6.230    1.1  0.0692   17.6  0.3007  162.3
 7.900  0.5100  118.9   6.152   -0.6  0.0701   16.6  0.3044  160.0
 8.000  0.5162  117.2   6.065   -2.2  0.0708   15.8  0.3071  157.5
 8.500  0.5600  108.8   5.630  -10.3  0.0742   11.8  0.3278  144.4
 9.000  0.6126  101.0   5.162  -18.4  0.0772    7.3  0.3722  130.5
 9.500  0.6581   94.2   4.645  -25.6  0.0787    3.4  0.4326  119.3
10.000  0.6895   89.2   4.205  -31.3  0.0802   -0.0  0.4956  112.8
10.500  0.7130   85.6   3.876  -36.0  0.0816   -3.1  0.5446  109.3
11.000  0.7386   83.0   3.661  -41.0  0.0831   -5.4  0.5822  106.9
11.500  0.7733   80.9   3.467  -47.0  0.0861   -7.9  0.5955  104.2
12.000  0.8016   78.9   3.239  -53.7  0.0897  -10.5  0.6037  100.9
!
!  f       NFmin   Gammaopt  rn/50
! GHz       dB    MAG  ANG    -
 0.450      1.16  0.06    2   0.13
 0.900      1.17  0.03  -10   0.13
 1.500      1.18  0.03  -24   0.12
 1.900      1.18  0.02  -48   0.12
 2.400      1.19  0.03  -94   0.11
 3.500      1.19  0.07 -118   0.11
 5.500      1.23  0.15 -118   0.13
 8.000      1.32  0.31 -109   0.16
10.000      1.41  0.53  -77   0.26
12.000      1.58  0.66  -65   0.36
!
! (c) 2012  Infineon Technologies AG, Munich
