! Infineon Technologies  Discrete & RF Semiconductors
! BFP842ESD
! VCE =  1.5 V,  IC =  2.0 mA
! Common Emitter S-Parameters:                            May 2012
# GHz  S  MA  R  50
!  f         S11            S21            S12            S22
! GHz     MAG   ANG      MAG   ANG      MAG   ANG      MAG   ANG
 0.030  0.9763   -0.9   7.081  178.8  0.0036   69.5  0.9995   -0.6
 0.040  0.9756   -1.4   7.054  178.2  0.0008   96.0  0.9991   -0.9
 0.050  0.9678   -1.6   7.024  177.6  0.0006   15.9  1.0000   -1.4
 0.060  0.9739   -2.3   7.137  177.3  0.0071   44.8  1.0000   -1.6
 0.070  0.9723   -2.2   7.068  177.1  0.0012  172.0  0.9999   -2.0
 0.080  0.9718   -3.0   7.088  176.5  0.0042   98.6  0.9966   -2.3
 0.090  0.9725   -3.3   7.000  176.5  0.0020  107.3  0.9953   -2.4
 0.100  0.9715   -3.6   7.075  176.1  0.0050   87.6  0.9977   -2.9
 0.110  0.9719   -3.9   7.135  175.4  0.0073   71.2  0.9983   -3.1
 0.120  0.9722   -4.3   7.102  175.2  0.0048   63.8  1.0000   -3.5
 0.130  0.9732   -4.6   7.050  174.7  0.0051   95.6  0.9977   -3.9
 0.140  0.9719   -5.0   7.079  174.5  0.0054   81.4  0.9980   -4.1
 0.150  0.9706   -5.4   7.109  173.9  0.0078   83.2  0.9980   -4.5
 0.200  0.9700   -7.0   7.083  172.2  0.0086   81.6  0.9952   -5.9
 0.250  0.9695   -8.8   7.104  170.0  0.0112   79.0  0.9933   -7.4
 0.300  0.9641  -10.6   7.057  168.0  0.0115   83.1  0.9945   -8.9
 0.350  0.9641  -12.3   7.066  166.1  0.0155   81.3  0.9908  -10.4
 0.400  0.9598  -14.1   7.036  164.0  0.0171   77.2  0.9878  -11.8
 0.450  0.9560  -15.9   7.005  162.0  0.0190   76.6  0.9842  -13.2
 0.500  0.9509  -17.6   7.003  160.2  0.0216   75.8  0.9814  -14.8
 0.600  0.9416  -20.9   6.910  156.2  0.0253   72.6  0.9734  -17.7
 0.700  0.9305  -24.3   6.848  152.4  0.0295   71.1  0.9640  -20.5
 0.800  0.9162  -27.8   6.771  148.4  0.0336   67.9  0.9536  -23.4
 0.900  0.9022  -31.1   6.680  144.7  0.0372   65.5  0.9425  -26.2
 1.000  0.8866  -34.5   6.594  140.9  0.0403   62.1  0.9303  -29.0
 1.100  0.8702  -37.7   6.490  137.2  0.0439   59.5  0.9182  -31.7
 1.200  0.8530  -41.0   6.379  133.6  0.0474   57.3  0.9055  -34.4
 1.300  0.8367  -44.2   6.272  130.2  0.0504   54.7  0.8918  -37.1
 1.400  0.8180  -47.3   6.158  126.6  0.0533   52.6  0.8783  -39.7
 1.500  0.8006  -50.2   6.038  123.2  0.0562   50.7  0.8645  -42.3
 1.600  0.7828  -53.3   5.929  119.9  0.0587   47.8  0.8515  -44.8
 1.700  0.7634  -56.3   5.817  116.6  0.0612   46.0  0.8359  -47.3
 1.800  0.7473  -59.3   5.714  113.5  0.0627   44.5  0.8236  -49.7
 1.900  0.7291  -62.3   5.599  110.3  0.0653   42.1  0.8102  -52.1
 2.000  0.7109  -65.2   5.472  107.1  0.0675   39.8  0.7966  -54.6
 2.100  0.6920  -68.1   5.372  104.0  0.0692   38.1  0.7830  -57.1
 2.200  0.6765  -71.0   5.277  100.9  0.0712   35.8  0.7712  -59.3
 2.300  0.6572  -73.8   5.160   98.0  0.0725   34.4  0.7578  -61.6
 2.400  0.6402  -76.5   5.043   95.2  0.0742   32.9  0.7449  -64.0
 2.500  0.6226  -79.4   4.947   92.2  0.0757   31.5  0.7315  -66.3
 2.600  0.6057  -82.1   4.859   89.4  0.0771   29.6  0.7202  -68.6
 2.700  0.5877  -84.8   4.756   86.6  0.0789   28.0  0.7068  -70.9
 2.800  0.5716  -87.6   4.663   83.8  0.0799   26.6  0.6945  -73.2
 2.900  0.5551  -90.4   4.568   81.0  0.0806   25.4  0.6846  -75.6
 3.000  0.5389  -93.2   4.478   78.3  0.0818   24.2  0.6720  -77.9
 3.100  0.5238  -96.0   4.400   75.5  0.0826   22.6  0.6608  -80.3
 3.200  0.5079  -98.9   4.306   72.9  0.0844   20.8  0.6491  -82.8
 3.300  0.4939 -101.7   4.219   70.2  0.0854   19.7  0.6389  -85.1
 3.400  0.4785 -104.7   4.136   67.7  0.0861   18.3  0.6281  -87.6
 3.500  0.4647 -107.6   4.056   64.9  0.0861   16.9  0.6192  -90.0
 3.600  0.4492 -110.4   3.971   62.3  0.0873   15.8  0.6092  -92.4
 3.700  0.4363 -113.4   3.897   59.7  0.0881   14.4  0.6013  -95.0
 3.800  0.4242 -116.4   3.811   57.1  0.0897   13.3  0.5919  -97.4
 3.900  0.4113 -119.4   3.732   54.6  0.0894   12.1  0.5834  -99.8
 4.000  0.3992 -122.6   3.650   52.0  0.0898   10.7  0.5763 -102.3
 4.100  0.3879 -125.7   3.574   49.6  0.0908    9.8  0.5687 -104.9
 4.200  0.3789 -128.7   3.497   47.0  0.0912    8.7  0.5627 -107.5
 4.300  0.3693 -131.7   3.421   44.6  0.0914    7.7  0.5568 -110.0
 4.400  0.3605 -134.7   3.345   42.2  0.0920    6.7  0.5508 -112.4
 4.500  0.3519 -137.8   3.274   39.7  0.0924    5.8  0.5464 -114.9
 4.600  0.3445 -140.8   3.207   37.3  0.0930    4.7  0.5413 -117.3
 4.700  0.3373 -143.7   3.134   35.0  0.0934    3.5  0.5377 -119.7
 4.800  0.3309 -146.5   3.064   32.7  0.0938    2.8  0.5332 -122.1
 4.900  0.3243 -149.3   2.993   30.4  0.0939    1.9  0.5298 -124.4
 5.000  0.3177 -152.0   2.927   28.1  0.0944    1.1  0.5267 -126.8
 5.100  0.3122 -154.8   2.864   25.9  0.0950    0.0  0.5231 -129.0
 5.200  0.3081 -157.3   2.798   23.7  0.0957   -0.7  0.5208 -131.2
 5.300  0.3031 -159.9   2.739   21.5  0.0952   -1.5  0.5177 -133.4
 5.400  0.2986 -162.2   2.680   19.3  0.0959   -2.1  0.5161 -135.6
 5.500  0.2929 -164.6   2.622   17.2  0.0959   -3.3  0.5134 -137.8
 5.600  0.2892 -166.8   2.565   15.0  0.0968   -3.7  0.5116 -140.0
 5.700  0.2849 -169.0   2.511   12.9  0.0968   -4.7  0.5103 -142.2
 5.800  0.2825 -171.1   2.456   10.9  0.0979   -5.3  0.5097 -144.4
 5.900  0.2785 -173.1   2.404    8.8  0.0979   -5.7  0.5074 -146.6
 6.000  0.2747 -174.7   2.355    6.8  0.0982   -6.6  0.5084 -148.8
 6.100  0.2707 -177.0   2.306    4.7  0.0988   -7.6  0.5083 -151.0
 6.200  0.2681 -178.6   2.260    2.6  0.1002   -7.9  0.5091 -153.3
 6.300  0.2657  179.3   2.214    0.6  0.1006   -9.0  0.5098 -155.4
 6.400  0.2626  177.9   2.172   -1.5  0.1018   -9.7  0.5106 -157.7
 6.500  0.2587  176.2   2.126   -3.7  0.1027  -10.4  0.5110 -160.1
 6.600  0.2554  174.7   2.083   -5.7  0.1033  -11.4  0.5127 -162.3
 6.700  0.2509  173.0   2.042   -7.8  0.1037  -12.3  0.5138 -164.6
 6.800  0.2472  171.5   1.999   -9.9  0.1044  -13.1  0.5157 -166.8
 6.900  0.2422  170.0   1.958  -11.9  0.1053  -13.8  0.5182 -168.9
 7.000  0.2396  168.6   1.919  -14.0  0.1065  -14.8  0.5199 -171.3
 7.100  0.2358  167.2   1.880  -16.1  0.1070  -15.9  0.5226 -173.5
 7.200  0.2324  165.6   1.842  -18.1  0.1079  -16.8  0.5236 -175.9
 7.300  0.2293  164.6   1.805  -20.1  0.1093  -17.7  0.5282 -178.0
 7.400  0.2244  163.2   1.766  -22.2  0.1097  -19.0  0.5288  179.7
 7.500  0.2211  161.8   1.730  -24.4  0.1105  -19.9  0.5323  177.5
 7.600  0.2173  160.5   1.697  -26.5  0.1116  -21.0  0.5350  175.3
 7.700  0.2136  159.1   1.660  -28.7  0.1124  -22.4  0.5373  173.0
 7.800  0.2099  157.6   1.625  -30.8  0.1133  -23.3  0.5399  170.7
 7.900  0.2085  156.1   1.589  -33.0  0.1141  -24.5  0.5434  168.4
 8.000  0.2050  154.7   1.553  -35.2  0.1148  -26.2  0.5451  166.0
 8.500  0.1992  148.0   1.373  -46.6  0.1176  -33.2  0.5645  153.9
 9.000  0.2129  143.4   1.184  -58.2  0.1186  -41.0  0.5928  141.2
 9.500  0.2557  142.7   0.985  -69.6  0.1160  -49.9  0.6349  130.0
10.000  0.3390  143.5   0.784  -80.0  0.1100  -58.4  0.6850  121.4
!
!  f       NFmin   Gammaopt  rn/50
! GHz       dB    MAG  ANG    -
 0.450      0.35  0.77    2   0.27
 0.900      0.37  0.74   10   0.25
 1.500      0.41  0.67   29   0.22
 1.900      0.43  0.65   37   0.20
 2.400      0.49  0.63   49   0.18
 3.500      0.65  0.50   82   0.13
 4.000      0.73  0.45  102   0.11
 5.000      0.87  0.42  123   0.07
 5.500      1.01  0.41  138   0.07
 6.000      1.25  0.38  155   0.07
!
! (c) 2012  Infineon Technologies AG, Munich
