! Infineon Technologies  Discrete & RF Semiconductors
! BFP842ESD
! VCE =  1.5 V,  IC =  5.0 mA
! Common Emitter S-Parameters:                            May 2012
# GHz  S  MA  R  50
!  f         S11            S21            S12            S22
! GHz     MAG   ANG      MAG   ANG      MAG   ANG      MAG   ANG
 0.030  0.9377   -1.6  15.613  178.1  0.0006 -143.1  0.9963   -1.1
 0.040  0.9406   -2.0  15.585  177.3  0.0030   85.9  0.9978   -1.3
 0.050  0.9356   -2.6  15.508  176.5  0.0020 -160.3  0.9979   -2.0
 0.060  0.9334   -3.3  15.753  176.0  0.0047   32.7  1.0000   -2.4
 0.070  0.9362   -3.1  15.600  175.6  0.0007   80.8  0.9980   -2.5
 0.080  0.9369   -4.2  15.625  174.8  0.0029  114.4  0.9958   -3.1
 0.090  0.9376   -4.6  15.422  174.6  0.0055  114.7  0.9979   -3.5
 0.100  0.9363   -5.0  15.563  174.0  0.0027   53.1  0.9946   -3.9
 0.110  0.9337   -5.7  15.711  173.1  0.0069   68.3  0.9950   -4.1
 0.120  0.9332   -6.2  15.627  172.8  0.0049  106.0  0.9979   -4.9
 0.130  0.9344   -6.6  15.501  172.0  0.0061   94.2  0.9945   -5.2
 0.140  0.9326   -7.0  15.542  171.6  0.0047   89.5  0.9931   -5.7
 0.150  0.9314   -7.5  15.585  170.9  0.0068   77.6  0.9939   -6.1
 0.200  0.9267  -10.0  15.460  168.2  0.0073   75.4  0.9893   -8.1
 0.250  0.9222  -12.6  15.454  165.1  0.0086   78.8  0.9840  -10.0
 0.300  0.9123  -15.0  15.258  162.1  0.0118   79.1  0.9792  -12.0
 0.350  0.9042  -17.5  15.166  159.3  0.0147   79.8  0.9719  -14.0
 0.400  0.8934  -19.8  14.961  156.4  0.0169   78.7  0.9634  -15.8
 0.450  0.8831  -22.1  14.779  153.6  0.0186   73.2  0.9543  -17.7
 0.500  0.8724  -24.4  14.640  150.9  0.0204   73.6  0.9453  -19.5
 0.600  0.8460  -28.9  14.191  145.6  0.0240   69.9  0.9247  -23.0
 0.700  0.8184  -32.9  13.762  140.6  0.0273   66.3  0.9033  -26.4
 0.800  0.7878  -37.0  13.293  135.5  0.0298   64.6  0.8801  -29.6
 0.900  0.7572  -40.8  12.835  131.0  0.0336   61.7  0.8564  -32.6
 1.000  0.7267  -44.5  12.374  126.5  0.0363   59.8  0.8329  -35.5
 1.100  0.6970  -47.8  11.907  122.3  0.0388   57.3  0.8104  -38.2
 1.200  0.6682  -51.2  11.429  118.2  0.0415   55.7  0.7886  -40.7
 1.300  0.6400  -54.2  11.001  114.5  0.0436   53.3  0.7673  -43.3
 1.400  0.6129  -57.0  10.590  110.7  0.0455   51.7  0.7477  -45.6
 1.500  0.5869  -59.8  10.178  107.2  0.0477   50.5  0.7290  -47.9
 1.600  0.5633  -62.5   9.789  103.8  0.0499   49.3  0.7120  -50.1
 1.700  0.5372  -65.2   9.437  100.6  0.0522   47.1  0.6939  -52.2
 1.800  0.5156  -67.7   9.115   97.5  0.0535   46.3  0.6795  -54.3
 1.900  0.4947  -70.1   8.787   94.4  0.0551   44.8  0.6631  -56.4
 2.000  0.4744  -72.5   8.452   91.4  0.0576   43.3  0.6485  -58.5
 2.100  0.4541  -74.8   8.172   88.5  0.0589   42.1  0.6356  -60.6
 2.200  0.4366  -77.0   7.911   85.8  0.0606   40.8  0.6232  -62.5
 2.300  0.4164  -79.2   7.650   83.0  0.0621   40.2  0.6111  -64.4
 2.400  0.4014  -81.1   7.384   80.5  0.0634   38.6  0.5991  -66.5
 2.500  0.3834  -83.2   7.159   77.9  0.0651   37.5  0.5872  -68.4
 2.600  0.3681  -85.1   6.949   75.4  0.0671   36.7  0.5779  -70.3
 2.700  0.3514  -87.1   6.731   72.8  0.0683   35.5  0.5671  -72.5
 2.800  0.3373  -89.2   6.538   70.4  0.0702   34.7  0.5567  -74.5
 2.900  0.3228  -91.4   6.347   67.9  0.0718   33.9  0.5485  -76.6
 3.000  0.3093  -93.5   6.171   65.6  0.0732   32.8  0.5384  -78.7
 3.100  0.2961  -95.7   6.004   63.2  0.0747   31.9  0.5293  -80.8
 3.200  0.2827  -97.8   5.836   60.9  0.0764   30.4  0.5208  -83.2
 3.300  0.2706 -100.1   5.679   58.6  0.0779   29.2  0.5132  -85.3
 3.400  0.2583 -102.2   5.531   56.3  0.0796   29.0  0.5040  -87.7
 3.500  0.2475 -104.5   5.384   54.1  0.0813   27.3  0.4975  -90.1
 3.600  0.2351 -106.8   5.243   51.8  0.0826   26.6  0.4895  -92.3
 3.700  0.2253 -109.3   5.115   49.6  0.0845   25.2  0.4843  -94.9
 3.800  0.2151 -111.7   4.985   47.3  0.0865   24.5  0.4781  -97.2
 3.900  0.2050 -114.3   4.855   45.2  0.0874   23.4  0.4723  -99.6
 4.000  0.1959 -116.9   4.729   42.9  0.0887   22.4  0.4665 -102.1
 4.100  0.1870 -119.6   4.614   40.8  0.0906   21.6  0.4622 -104.6
 4.200  0.1794 -122.5   4.498   38.6  0.0922   20.0  0.4575 -107.2
 4.300  0.1728 -124.7   4.389   36.5  0.0932   18.9  0.4537 -109.7
 4.400  0.1657 -127.2   4.279   34.4  0.0944   17.9  0.4507 -112.1
 4.500  0.1597 -130.1   4.177   32.2  0.0960   16.7  0.4488 -114.6
 4.600  0.1542 -133.0   4.080   30.1  0.0977   15.6  0.4450 -117.1
 4.700  0.1494 -135.1   3.979   28.1  0.0993   14.4  0.4436 -119.5
 4.800  0.1456 -137.5   3.884   26.1  0.0998   13.5  0.4416 -121.9
 4.900  0.1410 -139.9   3.787   24.0  0.1015   12.3  0.4395 -124.1
 5.000  0.1371 -141.9   3.697   21.9  0.1027   11.1  0.4385 -126.6
 5.100  0.1336 -144.3   3.610   20.0  0.1036    9.8  0.4368 -128.8
 5.200  0.1311 -145.9   3.527   18.0  0.1049    8.8  0.4364 -131.0
 5.300  0.1282 -147.7   3.445   16.0  0.1061    7.7  0.4353 -133.3
 5.400  0.1262 -148.8   3.369   14.1  0.1074    6.3  0.4351 -135.5
 5.500  0.1228 -150.5   3.290   12.1  0.1084    5.2  0.4334 -137.6
 5.600  0.1216 -151.5   3.215   10.1  0.1098    4.2  0.4339 -139.9
 5.700  0.1194 -152.8   3.143    8.2  0.1110    3.1  0.4339 -142.1
 5.800  0.1197 -153.8   3.071    6.3  0.1118    1.8  0.4349 -144.1
 5.900  0.1177 -154.5   3.003    4.3  0.1125    0.4  0.4339 -146.3
 6.000  0.1173 -154.1   2.937    2.4  0.1141   -0.3  0.4373 -148.6
 6.100  0.1160 -155.2   2.873    0.5  0.1153   -1.4  0.4379 -150.8
 6.200  0.1167 -155.2   2.812   -1.4  0.1166   -2.5  0.4406 -153.1
 6.300  0.1165 -156.2   2.751   -3.3  0.1180   -3.7  0.4425 -155.2
 6.400  0.1170 -155.8   2.694   -5.2  0.1189   -5.1  0.4449 -157.4
 6.500  0.1159 -156.3   2.633   -7.3  0.1202   -6.3  0.4471 -159.8
 6.600  0.1166 -155.9   2.576   -9.2  0.1209   -7.5  0.4500 -162.0
 6.700  0.1157 -155.7   2.522  -11.1  0.1226   -8.9  0.4528 -164.3
 6.800  0.1163 -155.5   2.465  -13.1  0.1237  -10.3  0.4559 -166.5
 6.900  0.1164 -155.2   2.410  -15.0  0.1246  -11.4  0.4606 -168.6
 7.000  0.1168 -155.3   2.359  -16.9  0.1259  -12.8  0.4631 -170.9
 7.100  0.1181 -154.9   2.307  -18.9  0.1268  -14.1  0.4670 -173.2
 7.200  0.1195 -155.2   2.257  -20.9  0.1280  -15.7  0.4699 -175.6
 7.300  0.1216 -154.4   2.208  -22.8  0.1288  -16.8  0.4755 -177.7
 7.400  0.1224 -154.3   2.156  -24.8  0.1293  -18.3  0.4781  179.9
 7.500  0.1239 -154.9   2.109  -26.8  0.1305  -19.8  0.4826  177.7
 7.600  0.1261 -154.7   2.065  -28.8  0.1314  -21.4  0.4867  175.4
 7.700  0.1279 -155.4   2.018  -30.9  0.1320  -22.9  0.4909  173.2
 7.800  0.1300 -155.9   1.972  -32.9  0.1329  -24.2  0.4943  170.8
 7.900  0.1326 -156.9   1.925  -35.0  0.1338  -26.2  0.4997  168.4
 8.000  0.1348 -158.0   1.878  -37.1  0.1343  -27.4  0.5022  166.1
 8.500  0.1545 -166.2   1.648  -48.0  0.1359  -36.1  0.5271  153.8
 9.000  0.1947 -178.2   1.410  -59.3  0.1349  -45.5  0.5625  141.1
 9.500  0.2682  170.4   1.158  -70.4  0.1297  -55.3  0.6105  130.0
10.000  0.3789  160.4   0.905  -80.4  0.1197  -65.3  0.6674  121.5
!
!  f       NFmin   Gammaopt  rn/50
! GHz       dB    MAG  ANG    -
 0.450      0.41  0.38    3   0.11
 0.900      0.43  0.40    8   0.11
 1.500      0.46  0.41   19   0.11
 1.900      0.48  0.39   29   0.11
 2.400      0.52  0.36   42   0.10
 3.500      0.63  0.26   79   0.08
 4.000      0.66  0.22  100   0.08
 5.000      0.72  0.20  119   0.07
 5.500      0.84  0.18  145   0.07
 6.000      0.97  0.16  155   0.08
!
! (c) 2012  Infineon Technologies AG, Munich
