! Infineon Technologies  Discrete & RF Semiconductors
! BFP840ESD
! VCE =  1.5 V,  IC =  1.0 mA
! Common Emitter S-Parameters:                            May 2012
# GHz  S  MA  R  50
!  f         S11            S21            S12            S22
! GHz     MAG   ANG      MAG   ANG      MAG   ANG      MAG   ANG
 0.030  0.9875   -0.6   3.725  178.8  0.0011   87.0  0.9997   -0.6
 0.080  0.9889   -1.6   3.545  177.8  0.0030   90.2  1.0000   -1.6
 0.130  0.9891   -2.6   3.580  177.0  0.0037   97.1  0.9997   -2.6
 0.180  0.9880   -3.6   3.583  175.8  0.0048   82.6  0.9990   -3.6
 0.230  0.9880   -4.7   3.582  174.7  0.0061   83.5  0.9983   -4.6
 0.280  0.9874   -5.7   3.582  173.6  0.0073   84.4  0.9980   -5.6
 0.330  0.9870   -6.7   3.580  172.4  0.0089   84.2  0.9973   -6.6
 0.380  0.9862   -7.8   3.588  171.3  0.0104   82.1  0.9965   -7.6
 0.430  0.9855   -8.8   3.578  170.1  0.0116   81.0  0.9959   -8.6
 0.500  0.9847  -10.2   3.593  168.6  0.0134   80.3  0.9944  -10.0
 0.600  0.9830  -12.2   3.577  166.2  0.0162   78.3  0.9926  -12.0
 0.700  0.9808  -14.3   3.570  164.1  0.0188   76.8  0.9900  -14.0
 0.800  0.9785  -16.4   3.590  161.9  0.0215   74.4  0.9871  -16.0
 0.900  0.9758  -18.4   3.589  159.7  0.0242   72.3  0.9839  -18.0
 1.000  0.9729  -20.5   3.584  157.5  0.0265   70.6  0.9805  -20.0
 1.100  0.9700  -22.6   3.584  155.3  0.0292   68.6  0.9768  -22.0
 1.200  0.9669  -24.7   3.581  153.0  0.0316   66.7  0.9729  -24.1
 1.300  0.9635  -26.8   3.572  150.8  0.0340   64.7  0.9683  -26.1
 1.400  0.9599  -28.9   3.551  148.6  0.0365   62.7  0.9638  -28.2
 1.500  0.9565  -31.0   3.554  146.4  0.0389   61.0  0.9588  -30.2
 1.600  0.9520  -33.2   3.567  144.2  0.0413   59.0  0.9537  -32.3
 1.700  0.9475  -35.3   3.573  141.8  0.0433   56.8  0.9487  -34.3
 1.800  0.9433  -37.5   3.554  139.7  0.0456   55.0  0.9437  -36.4
 1.900  0.9392  -39.6   3.538  137.5  0.0479   53.1  0.9378  -38.5
 2.000  0.9349  -41.8   3.528  135.3  0.0502   51.3  0.9323  -40.5
 2.100  0.9308  -44.0   3.526  133.2  0.0523   49.3  0.9268  -42.6
 2.200  0.9260  -46.1   3.519  131.0  0.0545   47.4  0.9210  -44.7
 2.300  0.9210  -48.4   3.500  128.9  0.0563   45.5  0.9142  -46.8
 2.400  0.9173  -50.6   3.488  126.8  0.0583   43.5  0.9087  -48.9
 2.500  0.9125  -52.8   3.468  124.6  0.0601   41.7  0.9009  -51.0
 2.600  0.9075  -55.1   3.475  122.5  0.0619   39.8  0.8929  -53.2
 2.700  0.9027  -57.3   3.458  120.4  0.0636   37.9  0.8852  -55.3
 2.800  0.8972  -59.6   3.463  118.2  0.0651   36.1  0.8769  -57.5
 2.900  0.8928  -62.0   3.457  116.0  0.0671   34.1  0.8689  -59.8
 3.000  0.8873  -64.4   3.446  113.7  0.0684   32.4  0.8606  -62.0
 3.100  0.8803  -66.8   3.463  111.3  0.0698   30.4  0.8525  -64.3
 3.200  0.8742  -69.3   3.454  108.9  0.0711   28.6  0.8438  -66.7
 3.300  0.8678  -71.8   3.458  106.6  0.0725   26.6  0.8350  -69.1
 3.400  0.8610  -74.3   3.449  104.3  0.0738   24.7  0.8272  -71.5
 3.500  0.8539  -76.8   3.449  101.9  0.0750   22.8  0.8186  -73.9
 3.600  0.8467  -79.4   3.427   99.5  0.0760   20.9  0.8097  -76.4
 3.700  0.8390  -82.0   3.418   97.1  0.0772   18.8  0.8009  -78.8
 3.800  0.8310  -84.6   3.400   94.7  0.0778   16.9  0.7921  -81.4
 3.900  0.8227  -87.4   3.396   92.2  0.0787   14.9  0.7844  -83.9
 4.000  0.8146  -90.1   3.379   89.8  0.0794   13.0  0.7762  -86.5
 4.100  0.8072  -92.9   3.354   87.3  0.0800   11.0  0.7680  -89.0
 4.200  0.7999  -95.7   3.333   84.9  0.0803    9.0  0.7595  -91.6
 4.300  0.7927  -98.5   3.309   82.4  0.0805    7.2  0.7516  -94.2
 4.400  0.7851 -101.3   3.285   80.0  0.0806    5.1  0.7436  -96.7
 4.500  0.7792 -104.2   3.260   77.5  0.0808    3.2  0.7358  -99.2
 4.600  0.7717 -107.0   3.238   75.1  0.0807    1.3  0.7279 -101.7
 4.700  0.7661 -109.9   3.211   72.7  0.0803   -0.6  0.7199 -104.1
 4.800  0.7597 -112.7   3.187   70.4  0.0799   -2.4  0.7116 -106.6
 4.900  0.7539 -115.6   3.169   67.9  0.0793   -4.3  0.7039 -109.0
 5.000  0.7490 -118.4   3.137   65.6  0.0786   -6.0  0.6962 -111.4
 5.100  0.7445 -121.2   3.102   63.3  0.0779   -7.7  0.6888 -113.7
 5.200  0.7407 -124.0   3.062   60.9  0.0772   -9.2  0.6808 -116.0
 5.300  0.7368 -126.7   3.030   58.6  0.0761  -10.8  0.6735 -118.4
 5.400  0.7323 -129.4   2.993   56.4  0.0751  -12.4  0.6653 -120.6
 5.500  0.7279 -132.1   2.967   54.1  0.0740  -13.9  0.6590 -123.0
 5.600  0.7238 -134.7   2.931   51.9  0.0728  -15.3  0.6513 -125.2
 5.700  0.7196 -137.3   2.890   49.7  0.0716  -16.6  0.6441 -127.5
 5.800  0.7157 -139.7   2.850   47.5  0.0699  -17.7  0.6367 -129.8
 5.900  0.7128 -142.2   2.815   45.4  0.0686  -18.8  0.6308 -132.1
 6.000  0.7108 -144.6   2.781   43.2  0.0673  -19.6  0.6249 -134.4
 6.100  0.7067 -147.1   2.762   41.2  0.0660  -20.4  0.6204 -136.8
 6.200  0.7052 -149.5   2.726   39.0  0.0647  -21.2  0.6157 -139.1
 6.300  0.7030 -151.9   2.695   37.0  0.0635  -22.0  0.6124 -141.6
 6.400  0.7017 -154.3   2.666   34.9  0.0623  -22.5  0.6093 -143.9
 6.500  0.6997 -156.8   2.642   32.8  0.0611  -23.1  0.6067 -146.4
 6.600  0.6984 -159.1   2.606   30.9  0.0597  -23.6  0.6043 -148.8
 6.700  0.6967 -161.5   2.576   28.8  0.0586  -24.0  0.6031 -151.2
 6.800  0.6953 -163.8   2.543   26.9  0.0574  -24.4  0.6012 -153.6
 6.900  0.6931 -166.3   2.517   24.9  0.0561  -24.7  0.6012 -155.8
 7.000  0.6920 -168.7   2.488   22.8  0.0550  -24.9  0.5999 -158.2
 7.100  0.6916 -171.1   2.460   20.9  0.0540  -24.8  0.6001 -160.5
 7.200  0.6907 -173.5   2.429   18.9  0.0528  -24.9  0.5989 -162.8
 7.300  0.6900 -175.9   2.404   17.0  0.0518  -24.6  0.5990 -165.2
 7.400  0.6879 -178.4   2.376   15.0  0.0507  -24.5  0.5978 -167.5
 7.500  0.6880  179.0   2.358   13.0  0.0500  -24.3  0.5981 -169.9
 7.600  0.6861  176.6   2.329   10.9  0.0489  -23.9  0.5967 -172.3
 7.700  0.6861  174.2   2.308    8.9  0.0480  -23.5  0.5955 -174.7
 7.800  0.6845  171.6   2.286    6.7  0.0472  -22.9  0.5936 -177.2
 7.900  0.6856  169.0   2.261    4.5  0.0466  -22.5  0.5920 -179.7
 8.000  0.6852  166.4   2.239    2.4  0.0457  -21.7  0.5901  177.8
 8.500  0.6950  152.7   2.098   -8.8  0.0432  -16.7  0.5829  164.9
 9.000  0.7182  139.2   1.910  -20.4  0.0439  -11.1  0.5939  150.5
 9.500  0.7419  127.3   1.679  -30.9  0.0459   -7.0  0.6279  137.3
10.000  0.7620  118.1   1.462  -39.1  0.0501   -4.2  0.6758  127.4
10.500  0.7821  111.2   1.293  -45.1  0.0540   -3.4  0.7163  120.9
11.000  0.8100  105.7   1.175  -50.7  0.0587   -3.6  0.7459  116.4
11.500  0.8487  100.9   1.082  -56.9  0.0637   -4.4  0.7562  112.2
12.000  0.8790   96.6   0.988  -64.1  0.0697   -6.0  0.7609  107.6
!
!  f       NFmin   Gammaopt  rn/50
! GHz       dB    MAG  ANG    -
 0.450      0.39  0.82    4   0.56
 0.900      0.40  0.84   10   0.53
 1.500      0.52  0.84   22   0.46
 1.900      0.58  0.83   25   0.41
 2.400      0.64  0.74   35   0.38
 3.500      0.77  0.64   61   0.31
 5.500      1.05  0.52  116   0.21
 8.000      1.41  0.60 -154   0.05
10.000      1.71  0.68 -119   0.18
12.000      2.06  0.64  -89   0.43
!
! (c) 2012  Infineon Technologies AG, Munich
