! Infineon Technologies  Discrete & RF Semiconductors
! BFP843F
! VCE =  2.0 V,  IC =  1.0 mA
! Common Emitter S-Parameters:                            Aug 2013
# GHz  S  MA  R  50
!  f         S11            S21            S12            S22
! GHz     MAG   ANG      MAG   ANG      MAG   ANG      MAG   ANG
 0.030  0.8560   -8.4   3.383  172.6  0.0629   39.1  0.8696   -8.3
 0.040  0.8240   -8.2   3.286  172.5  0.0689   30.8  0.8390   -8.2
 0.050  0.8059   -7.5   3.209  174.1  0.0710   27.9  0.8235   -7.8
 0.060  0.7910   -7.5   3.175  174.6  0.0744   22.8  0.8094   -7.7
 0.070  0.7852   -7.2   3.154  174.3  0.0768   19.4  0.7960   -7.2
 0.080  0.7777   -6.2   3.138  174.4  0.0789   18.5  0.7908   -7.2
 0.090  0.7721   -6.4   3.154  174.3  0.0788   17.6  0.7880   -7.1
 0.100  0.7684   -6.1   3.110  174.3  0.0805   14.9  0.7823   -7.2
 0.110  0.7660   -6.2   3.140  174.6  0.0808   13.8  0.7808   -6.9
 0.120  0.7671   -6.0   3.100  174.4  0.0793   12.9  0.7786   -7.0
 0.130  0.7632   -6.0   3.108  174.5  0.0794   10.4  0.7772   -7.1
 0.140  0.7602   -6.2   3.110  174.0  0.0810   10.3  0.7808   -7.2
 0.150  0.7605   -6.1   3.121  174.3  0.0802    8.6  0.7754   -7.4
 0.200  0.7584   -6.6   3.090  173.2  0.0824    6.4  0.7730   -8.3
 0.250  0.7534   -7.1   3.099  172.2  0.0824    5.9  0.7727   -9.4
 0.300  0.7561   -8.1   3.076  171.2  0.0813    4.7  0.7702  -10.6
 0.350  0.7527   -9.0   3.082  170.0  0.0818    4.6  0.7697  -12.0
 0.400  0.7525  -10.0   3.087  168.9  0.0829    4.2  0.7652  -13.4
 0.450  0.7505  -10.8   3.089  167.7  0.0821    3.0  0.7654  -14.9
 0.500  0.7498  -11.9   3.087  166.7  0.0829    2.5  0.7638  -16.3
 0.600  0.7493  -13.9   3.068  164.1  0.0838    2.9  0.7617  -19.4
 0.700  0.7447  -15.9   3.068  161.6  0.0846    1.6  0.7588  -22.2
 0.800  0.7426  -18.1   3.067  158.9  0.0849    1.0  0.7552  -25.3
 0.900  0.7394  -20.2   3.060  156.3  0.0858    0.5  0.7510  -28.4
 1.000  0.7371  -22.4   3.036  153.8  0.0865   -0.3  0.7470  -31.5
 1.100  0.7342  -24.5   3.015  151.3  0.0868   -0.8  0.7437  -34.6
 1.200  0.7302  -26.6   3.018  148.7  0.0879   -1.3  0.7387  -37.8
 1.300  0.7267  -28.8   2.991  146.0  0.0881   -2.0  0.7349  -40.9
 1.400  0.7246  -30.9   2.966  143.5  0.0888   -2.8  0.7314  -44.0
 1.500  0.7216  -33.0   2.931  141.2  0.0895   -3.4  0.7280  -47.2
 1.600  0.7177  -35.2   2.921  138.5  0.0905   -4.2  0.7253  -50.3
 1.700  0.7145  -37.4   2.902  135.9  0.0904   -4.7  0.7205  -53.4
 1.800  0.7126  -39.4   2.846  133.5  0.0913   -5.3  0.7188  -56.5
 1.900  0.7087  -41.5   2.824  131.2  0.0910   -6.7  0.7137  -59.7
 2.000  0.7061  -43.7   2.804  128.6  0.0916   -7.7  0.7116  -62.8
 2.100  0.7025  -45.8   2.777  126.2  0.0921   -8.3  0.7097  -65.8
 2.200  0.6992  -47.9   2.733  123.9  0.0915   -9.6  0.7073  -69.0
 2.300  0.6980  -50.1   2.695  121.5  0.0924  -10.7  0.7075  -71.8
 2.400  0.6958  -52.0   2.664  119.2  0.0921  -12.1  0.7051  -74.6
 2.500  0.6929  -54.1   2.619  116.8  0.0919  -12.4  0.7038  -77.3
 2.600  0.6909  -56.1   2.599  114.7  0.0928  -13.7  0.7023  -80.0
 2.700  0.6881  -58.2   2.552  112.5  0.0921  -14.7  0.7017  -82.6
 2.800  0.6866  -60.1   2.523  110.5  0.0919  -15.4  0.7026  -85.0
 2.900  0.6868  -62.1   2.470  108.4  0.0922  -16.3  0.7021  -87.6
 3.000  0.6844  -64.2   2.441  106.4  0.0918  -17.6  0.7028  -89.9
 3.100  0.6827  -66.2   2.415  104.2  0.0914  -17.9  0.7031  -92.3
 3.200  0.6814  -68.1   2.380  102.2  0.0914  -19.2  0.7028  -94.6
 3.300  0.6802  -70.1   2.336  100.4  0.0912  -20.1  0.7032  -96.7
 3.400  0.6786  -72.1   2.310   98.4  0.0908  -21.2  0.7045  -98.9
 3.500  0.6781  -74.1   2.282   96.5  0.0901  -22.5  0.7039 -100.9
 3.600  0.6761  -76.1   2.255   94.6  0.0900  -23.4  0.7044 -102.9
 3.700  0.6752  -78.0   2.220   92.7  0.0900  -23.7  0.7043 -104.8
 3.800  0.6743  -80.1   2.187   90.8  0.0888  -25.1  0.7064 -106.8
 3.900  0.6740  -82.0   2.156   89.0  0.0883  -25.9  0.7056 -108.6
 4.000  0.6727  -84.0   2.136   87.2  0.0881  -27.2  0.7049 -110.6
 4.100  0.6721  -86.1   2.109   85.4  0.0874  -28.4  0.7047 -112.3
 4.200  0.6700  -88.0   2.084   83.6  0.0867  -29.2  0.7060 -114.2
 4.300  0.6707  -90.0   2.044   81.9  0.0861  -30.4  0.7060 -115.9
 4.400  0.6690  -92.0   2.023   80.2  0.0855  -31.2  0.7050 -117.8
 4.500  0.6695  -94.0   1.994   78.4  0.0855  -32.5  0.7064 -119.5
 4.600  0.6680  -96.1   1.978   76.6  0.0840  -33.4  0.7056 -121.3
 4.700  0.6686  -98.0   1.961   74.9  0.0834  -34.3  0.7060 -123.1
 4.800  0.6688 -100.0   1.922   73.1  0.0826  -36.0  0.7057 -124.8
 4.900  0.6684 -101.9   1.907   71.5  0.0815  -36.5  0.7040 -126.5
 5.000  0.6677 -103.9   1.891   69.7  0.0809  -37.9  0.7043 -128.3
 5.100  0.6673 -106.0   1.866   68.0  0.0796  -38.9  0.7022 -130.1
 5.200  0.6685 -107.9   1.839   66.2  0.0784  -40.1  0.7046 -131.8
 5.300  0.6681 -109.9   1.815   64.5  0.0778  -41.4  0.7025 -133.6
 5.400  0.6691 -111.7   1.797   62.8  0.0768  -42.5  0.7033 -135.2
 5.500  0.6675 -113.7   1.779   61.1  0.0753  -43.3  0.7022 -137.0
 5.600  0.6684 -115.6   1.760   59.5  0.0739  -45.0  0.7026 -138.6
 5.700  0.6695 -117.4   1.738   57.6  0.0727  -45.9  0.7014 -140.4
 5.800  0.6691 -119.4   1.714   55.9  0.0712  -47.2  0.7016 -142.0
 5.900  0.6702 -121.1   1.692   54.3  0.0702  -48.3  0.7002 -143.8
 6.000  0.6702 -123.0   1.675   52.7  0.0693  -49.4  0.6999 -145.4
 6.100  0.6692 -125.0   1.664   50.9  0.0677  -50.9  0.6982 -147.2
 6.200  0.6684 -126.8   1.632   49.1  0.0659  -52.2  0.6970 -148.9
 6.300  0.6685 -128.7   1.620   47.4  0.0648  -53.8  0.6942 -150.6
 6.400  0.6683 -130.5   1.595   45.7  0.0629  -55.3  0.6936 -152.3
 6.500  0.6663 -132.5   1.582   44.0  0.0615  -56.7  0.6918 -154.0
 6.600  0.6658 -134.2   1.562   42.3  0.0596  -58.2  0.6899 -155.8
 6.700  0.6641 -136.2   1.533   40.6  0.0573  -59.4  0.6867 -157.3
 6.800  0.6634 -138.1   1.518   39.0  0.0557  -60.8  0.6848 -159.0
 6.900  0.6628 -140.0   1.499   37.3  0.0533  -62.1  0.6816 -160.7
 7.000  0.6604 -141.9   1.487   35.6  0.0513  -63.3  0.6784 -162.4
 7.100  0.6598 -144.0   1.463   33.8  0.0486  -64.7  0.6761 -164.3
 7.200  0.6597 -145.8   1.443   32.3  0.0465  -66.1  0.6748 -166.0
 7.300  0.6586 -147.9   1.421   30.5  0.0441  -66.9  0.6723 -167.9
 7.400  0.6586 -149.9   1.403   28.9  0.0416  -68.2  0.6718 -169.6
 7.500  0.6589 -152.1   1.388   27.2  0.0389  -68.3  0.6705 -171.6
 7.600  0.6590 -154.1   1.372   25.6  0.0370  -69.3  0.6693 -173.4
 7.700  0.6605 -156.3   1.351   23.8  0.0343  -68.9  0.6700 -175.6
 7.800  0.6616 -158.3   1.335   22.1  0.0326  -69.5  0.6693 -177.6
 7.900  0.6637 -160.5   1.314   20.4  0.0304  -68.7  0.6702 -179.8
 8.000  0.6656 -162.5   1.303   18.7  0.0282  -67.5  0.6707  178.2
 8.500  0.6840 -172.4   1.205   10.0  0.0187  -60.9  0.6813  167.0
 9.000  0.7108  178.9   1.096    1.3  0.0119  -40.3  0.7035  155.6
 9.500  0.7408  170.0   0.983   -7.0  0.0114    3.6  0.7337  145.0
10.000  0.7596  161.7   0.855  -14.4  0.0165   27.2  0.7682  135.9
10.500  0.7769  154.8   0.750  -19.6  0.0225   33.4  0.8021  129.0
11.000  0.8000  147.9   0.661  -23.8  0.0280   36.0  0.8319  124.9
11.500  0.8199  141.6   0.592  -27.0  0.0329   37.2  0.8497  124.1
12.000  0.8357  136.4   0.530  -29.2  0.0373   39.0  0.8708  126.2
!
!  f       NFmin   Gammaopt  rn/50
! GHz       dB    MAG  ANG    -
 0.450      1.53  0.43   11   0.36
 0.900      1.54  0.44   19   0.36
 1.500      1.70  0.44   27   0.37
 1.900      1.80  0.43   38   0.38
 2.400      1.86  0.43   49   0.39
 3.500      2.02  0.46   72   0.44
 5.500      2.23  0.42  117   0.53
10.000      4.06  0.58 -144   0.60
!
! (c) 2013  Infineon Technologies AG, Munich
