! Infineon Technologies  Discrete & RF Semiconductors
! BFQ19S
! VCE =  5.0 V,  IC =  70 mA
! Common Emitter S-Parameters:                            Jan 2016
# GHz  S  MA  R  50
!  f         S11            S21            S12            S22
! GHz     MAG   ANG      MAG   ANG      MAG   ANG      MAG   ANG
 0.050  0.3347 -126.7  41.069  121.3  0.0153   67.7  0.5251  -55.2
 0.055  0.3397 -130.8  38.488  119.1  0.0163   68.3  0.4937  -57.3
 0.060  0.3465 -134.8  35.974  116.5  0.0173   68.9  0.4630  -59.6
 0.065  0.3509 -138.2  33.875  114.7  0.0182   68.8  0.4379  -61.2
 0.070  0.3565 -141.6  31.815  112.6  0.0192   68.7  0.4131  -62.9
 0.075  0.3583 -144.1  30.126  111.1  0.0202   69.1  0.3929  -64.2
 0.080  0.3608 -146.6  28.458  109.5  0.0212   69.4  0.3730  -65.6
 0.085  0.3601 -148.8  27.063  108.3  0.0222   69.9  0.3563  -66.7
 0.090  0.3600 -151.1  25.681  106.9  0.0232   70.4  0.3398  -67.9
 0.095  0.3622 -152.8  24.509  105.9  0.0242   70.7  0.3258  -68.8
 0.100  0.3648 -154.5  23.345  104.8  0.0253   70.9  0.3118  -69.7
 0.105  0.3649 -155.7  22.603  104.3  0.0263   71.2  0.3033  -70.1
 0.110  0.3651 -156.9  21.863  103.7  0.0273   71.5  0.2948  -70.5
 0.115  0.3656 -158.1  21.125  103.1  0.0283   71.8  0.2864  -71.0
 0.120  0.3661 -159.3  20.390  102.5  0.0293   72.1  0.2780  -71.5
 0.125  0.3668 -160.5  19.657  101.8  0.0302   72.4  0.2696  -72.0
 0.130  0.3677 -161.6  18.928  101.0  0.0312   72.6  0.2612  -72.5
 0.135  0.3688 -162.8  18.202  100.2  0.0322   72.8  0.2528  -73.1
 0.140  0.3700 -164.0  17.480   99.4  0.0332   73.0  0.2445  -73.7
 0.145  0.3713 -165.1  16.762   98.4  0.0342   73.2  0.2362  -74.4
 0.150  0.3728 -166.3  16.049   97.4  0.0352   73.4  0.2279  -75.1
 0.155  0.3733 -167.1  15.661   97.0  0.0362   73.5  0.2237  -75.4
 0.160  0.3738 -167.8  15.275   96.6  0.0372   73.6  0.2195  -75.7
 0.165  0.3744 -168.6  14.889   96.2  0.0381   73.8  0.2153  -76.0
 0.170  0.3751 -169.3  14.503   95.8  0.0391   73.9  0.2111  -76.3
 0.175  0.3759 -170.0  14.119   95.3  0.0401   74.0  0.2069  -76.6
 0.180  0.3767 -170.8  13.735   94.8  0.0411   74.1  0.2027  -77.0
 0.185  0.3775 -171.5  13.353   94.3  0.0421   74.1  0.1986  -77.3
 0.190  0.3785 -172.2  12.972   93.8  0.0430   74.2  0.1944  -77.7
 0.195  0.3794 -173.0  12.592   93.2  0.0440   74.3  0.1902  -78.1
 0.200  0.3805 -173.7  12.213   92.6  0.0450   74.4  0.1861  -78.5
 0.205  0.3804 -174.2  11.972   92.3  0.0460   74.5  0.1838  -78.8
 0.210  0.3803 -174.7  11.732   92.0  0.0470   74.5  0.1814  -79.0
 0.215  0.3803 -175.3  11.492   91.7  0.0480   74.6  0.1791  -79.3
 0.220  0.3803 -175.8  11.252   91.4  0.0490   74.6  0.1768  -79.6
 0.225  0.3804 -176.3  11.012   91.0  0.0500   74.7  0.1745  -79.9
 0.230  0.3804 -176.8  10.773   90.7  0.0510   74.7  0.1722  -80.2
 0.235  0.3805 -177.3  10.535   90.3  0.0520   74.8  0.1699  -80.5
 0.240  0.3806 -177.9  10.297   89.9  0.0530   74.8  0.1676  -80.8
 0.245  0.3808 -178.4  10.059   89.5  0.0540   74.9  0.1653  -81.2
 0.250  0.3810 -178.9   9.822   89.1  0.0550   74.9  0.1630  -81.5
 0.255  0.3816 -179.4   9.662   88.9  0.0560   74.9  0.1616  -81.7
 0.260  0.3821 -179.8   9.503   88.6  0.0571   74.9  0.1602  -81.9
 0.265  0.3828  179.7   9.344   88.3  0.0581   74.8  0.1589  -82.1
 0.270  0.3834  179.3   9.184   88.1  0.0591   74.8  0.1575  -82.3
 0.275  0.3841  178.8   9.026   87.8  0.0601   74.8  0.1561  -82.6
 0.280  0.3847  178.4   8.867   87.5  0.0612   74.8  0.1548  -82.8
 0.285  0.3854  177.9   8.709   87.2  0.0622   74.8  0.1534  -83.0
 0.290  0.3862  177.5   8.550   86.9  0.0632   74.7  0.1520  -83.2
 0.295  0.3869  177.0   8.393   86.5  0.0643   74.7  0.1507  -83.5
 0.300  0.3877  176.6   8.235   86.2  0.0653   74.7  0.1493  -83.7
 0.305  0.3877  176.2   8.134   86.0  0.0663   74.6  0.1486  -83.9
 0.310  0.3877  175.8   8.032   85.8  0.0673   74.6  0.1480  -84.1
 0.315  0.3877  175.5   7.931   85.6  0.0683   74.5  0.1473  -84.3
 0.320  0.3878  175.1   7.830   85.4  0.0693   74.5  0.1466  -84.5
 0.325  0.3878  174.7   7.729   85.2  0.0703   74.5  0.1460  -84.7
 0.330  0.3879  174.3   7.628   85.0  0.0713   74.4  0.1453  -84.9
 0.335  0.3880  173.9   7.527   84.8  0.0723   74.4  0.1446  -85.1
 0.340  0.3881  173.5   7.427   84.5  0.0733   74.3  0.1440  -85.3
 0.345  0.3882  173.2   7.326   84.3  0.0743   74.3  0.1433  -85.5
 0.350  0.3884  172.8   7.226   84.0  0.0753   74.2  0.1427  -85.7
 0.355  0.3886  172.4   7.125   83.8  0.0764   74.2  0.1420  -85.9
 0.360  0.3887  172.0   7.025   83.5  0.0774   74.2  0.1414  -86.1
 0.365  0.3889  171.6   6.925   83.3  0.0784   74.1  0.1407  -86.3
 0.370  0.3892  171.3   6.825   83.0  0.0794   74.1  0.1401  -86.5
 0.375  0.3894  170.9   6.726   82.7  0.0804   74.1  0.1394  -86.7
 0.380  0.3896  170.5   6.626   82.4  0.0814   74.0  0.1388  -86.9
 0.385  0.3899  170.1   6.527   82.1  0.0824   74.0  0.1381  -87.1
 0.390  0.3902  169.8   6.428   81.8  0.0834   74.0  0.1375  -87.4
 0.395  0.3905  169.4   6.329   81.5  0.0844   73.9  0.1368  -87.6
 0.400  0.3908  169.0   6.230   81.2  0.0854   73.9  0.1362  -87.8
 0.405  0.3912  168.7   6.169   81.0  0.0864   73.8  0.1361  -88.0
 0.410  0.3917  168.3   6.109   80.8  0.0873   73.8  0.1359  -88.1
 0.415  0.3922  168.0   6.048   80.7  0.0883   73.7  0.1358  -88.3
 0.420  0.3926  167.6   5.988   80.5  0.0893   73.6  0.1357  -88.5
 0.425  0.3931  167.3   5.928   80.3  0.0902   73.6  0.1356  -88.7
 0.430  0.3936  166.9   5.867   80.1  0.0912   73.5  0.1355  -88.8
 0.435  0.3942  166.6   5.807   79.9  0.0922   73.4  0.1353  -89.0
 0.440  0.3947  166.2   5.747   79.7  0.0931   73.4  0.1352  -89.2
 0.445  0.3952  165.9   5.687   79.4  0.0941   73.3  0.1351  -89.4
 0.450  0.3958  165.6   5.627   79.2  0.0950   73.2  0.1350  -89.5
 0.455  0.3964  165.2   5.567   79.0  0.0960   73.2  0.1349  -89.7
 0.460  0.3970  164.9   5.507   78.8  0.0970   73.1  0.1348  -89.9
 0.465  0.3976  164.5   5.447   78.6  0.0979   73.1  0.1346  -90.1
 0.470  0.3982  164.2   5.388   78.3  0.0989   73.0  0.1345  -90.2
 0.475  0.3988  163.9   5.328   78.1  0.0999   73.0  0.1344  -90.4
 0.480  0.3995  163.5   5.269   77.8  0.1008   72.9  0.1343  -90.6
 0.485  0.4001  163.2   5.209   77.6  0.1018   72.9  0.1342  -90.8
 0.490  0.4008  162.9   5.150   77.3  0.1028   72.8  0.1341  -90.9
 0.495  0.4015  162.5   5.091   77.1  0.1037   72.7  0.1340  -91.1
 0.500  0.4022  162.2   5.032   76.8  0.1047   72.7  0.1339  -91.3
 0.505  0.4022  162.0   4.991   76.6  0.1057   72.6  0.1340  -91.5
 0.510  0.4022  161.7   4.949   76.5  0.1067   72.5  0.1340  -91.7
 0.515  0.4023  161.5   4.908   76.3  0.1076   72.4  0.1341  -91.8
 0.520  0.4023  161.2   4.867   76.1  0.1086   72.3  0.1342  -92.0
 0.525  0.4023  161.0   4.826   75.9  0.1096   72.2  0.1343  -92.2
 0.530  0.4024  160.7   4.785   75.8  0.1106   72.1  0.1344  -92.4
 0.535  0.4025  160.5   4.744   75.6  0.1115   72.0  0.1344  -92.6
 0.540  0.4025  160.2   4.703   75.4  0.1125   71.9  0.1345  -92.8
 0.545  0.4026  160.0   4.662   75.2  0.1135   71.9  0.1346  -92.9
 0.550  0.4027  159.7   4.621   75.0  0.1145   71.8  0.1347  -93.1
 0.555  0.4028  159.5   4.580   74.8  0.1155   71.7  0.1348  -93.3
 0.560  0.4029  159.3   4.539   74.6  0.1164   71.6  0.1349  -93.5
 0.565  0.4030  159.0   4.498   74.4  0.1174   71.5  0.1349  -93.7
 0.570  0.4031  158.8   4.458   74.2  0.1184   71.5  0.1350  -93.8
 0.575  0.4032  158.5   4.417   74.0  0.1194   71.4  0.1351  -94.0
 0.580  0.4033  158.3   4.377   73.8  0.1204   71.3  0.1352  -94.2
 0.585  0.4035  158.0   4.336   73.6  0.1214   71.2  0.1353  -94.4
 0.590  0.4036  157.8   4.296   73.4  0.1223   71.1  0.1354  -94.5
 0.595  0.4037  157.5   4.255   73.1  0.1233   71.1  0.1355  -94.7
 0.600  0.4039  157.3   4.215   72.9  0.1243   71.0  0.1356  -94.9
 0.605  0.4039  157.0   4.186   72.7  0.1252   70.9  0.1359  -95.1
 0.610  0.4039  156.8   4.157   72.6  0.1262   70.8  0.1361  -95.2
 0.615  0.4040  156.5   4.129   72.4  0.1271   70.7  0.1364  -95.4
 0.620  0.4040  156.3   4.100   72.2  0.1281   70.6  0.1367  -95.5
 0.625  0.4041  156.0   4.071   72.0  0.1290   70.6  0.1369  -95.7
 0.630  0.4041  155.8   4.043   71.9  0.1300   70.5  0.1372  -95.9
 0.635  0.4042  155.5   4.014   71.7  0.1309   70.4  0.1375  -96.0
 0.640  0.4042  155.3   3.986   71.5  0.1318   70.3  0.1378  -96.2
 0.645  0.4043  155.0   3.957   71.3  0.1328   70.2  0.1380  -96.3
 0.650  0.4044  154.8   3.929   71.1  0.1337   70.1  0.1383  -96.5
 0.655  0.4045  154.5   3.900   70.9  0.1347   70.1  0.1386  -96.6
 0.660  0.4046  154.3   3.872   70.8  0.1356   70.0  0.1389  -96.8
 0.665  0.4047  154.0   3.844   70.6  0.1366   69.9  0.1391  -96.9
 0.670  0.4048  153.8   3.816   70.4  0.1375   69.8  0.1394  -97.1
 0.675  0.4050  153.5   3.787   70.2  0.1385   69.8  0.1397  -97.2
 0.680  0.4051  153.3   3.759   70.0  0.1394   69.7  0.1400  -97.4
 0.685  0.4052  153.0   3.731   69.7  0.1404   69.6  0.1402  -97.6
 0.690  0.4054  152.8   3.703   69.5  0.1413   69.5  0.1405  -97.7
 0.695  0.4055  152.5   3.675   69.3  0.1423   69.5  0.1408  -97.9
 0.700  0.4057  152.3   3.647   69.1  0.1432   69.4  0.1411  -98.0
 0.705  0.4061  152.1   3.625   68.9  0.1441   69.3  0.1414  -98.2
 0.710  0.4065  151.8   3.602   68.8  0.1451   69.2  0.1417  -98.4
 0.715  0.4069  151.6   3.580   68.6  0.1460   69.1  0.1421  -98.5
 0.720  0.4073  151.3   3.558   68.4  0.1469   69.0  0.1424  -98.7
 0.725  0.4077  151.1   3.536   68.3  0.1478   68.9  0.1427  -98.9
 0.730  0.4082  150.8   3.514   68.1  0.1488   68.8  0.1430  -99.1
 0.735  0.4086  150.6   3.492   67.9  0.1497   68.8  0.1433  -99.3
 0.740  0.4090  150.4   3.470   67.7  0.1506   68.7  0.1437  -99.4
 0.745  0.4095  150.1   3.448   67.6  0.1516   68.6  0.1440  -99.6
 0.750  0.4099  149.9   3.426   67.4  0.1525   68.5  0.1443  -99.8
 0.755  0.4104  149.6   3.404   67.2  0.1534   68.4  0.1447 -100.0
 0.760  0.4109  149.4   3.382   67.0  0.1543   68.3  0.1450 -100.1
 0.765  0.4114  149.2   3.360   66.8  0.1553   68.2  0.1453 -100.3
 0.770  0.4118  148.9   3.338   66.6  0.1562   68.2  0.1457 -100.5
 0.775  0.4123  148.7   3.316   66.4  0.1571   68.1  0.1460 -100.7
 0.780  0.4128  148.4   3.295   66.2  0.1581   68.0  0.1463 -100.8
 0.785  0.4133  148.2   3.273   66.0  0.1590   67.9  0.1467 -101.0
 0.790  0.4139  148.0   3.251   65.8  0.1599   67.9  0.1470 -101.2
 0.795  0.4144  147.7   3.230   65.6  0.1609   67.8  0.1474 -101.3
 0.800  0.4149  147.5   3.208   65.4  0.1618   67.7  0.1477 -101.5
 0.805  0.4153  147.3   3.191   65.2  0.1627   67.6  0.1479 -101.6
 0.810  0.4157  147.1   3.174   65.1  0.1636   67.5  0.1482 -101.8
 0.815  0.4161  146.9   3.157   64.9  0.1645   67.4  0.1484 -101.9
 0.820  0.4165  146.7   3.140   64.8  0.1654   67.3  0.1486 -102.1
 0.825  0.4169  146.5   3.123   64.6  0.1664   67.2  0.1488 -102.2
 0.830  0.4174  146.3   3.106   64.5  0.1673   67.2  0.1491 -102.4
 0.835  0.4178  146.0   3.089   64.3  0.1682   67.1  0.1493 -102.5
 0.840  0.4182  145.8   3.072   64.1  0.1691   67.0  0.1495 -102.7
 0.845  0.4187  145.6   3.055   64.0  0.1700   66.9  0.1498 -102.8
 0.850  0.4191  145.4   3.039   63.8  0.1709   66.8  0.1500 -103.0
 0.855  0.4196  145.2   3.022   63.6  0.1718   66.7  0.1502 -103.1
 0.860  0.4200  145.0   3.005   63.5  0.1728   66.6  0.1505 -103.3
 0.865  0.4205  144.8   2.988   63.3  0.1737   66.6  0.1507 -103.4
 0.870  0.4210  144.6   2.972   63.1  0.1746   66.5  0.1509 -103.5
 0.875  0.4214  144.4   2.955   62.9  0.1755   66.4  0.1512 -103.7
 0.880  0.4219  144.2   2.938   62.7  0.1764   66.3  0.1514 -103.8
 0.885  0.4224  144.0   2.922   62.6  0.1773   66.2  0.1517 -104.0
 0.890  0.4229  143.8   2.905   62.4  0.1783   66.2  0.1519 -104.1
 0.895  0.4234  143.6   2.889   62.2  0.1792   66.1  0.1522 -104.3
 0.900  0.4239  143.4   2.872   62.0  0.1801   66.0  0.1524 -104.4
 0.905  0.4242  143.2   2.858   61.8  0.1810   65.9  0.1527 -104.5
 0.910  0.4245  142.9   2.845   61.7  0.1818   65.8  0.1529 -104.7
 0.915  0.4248  142.7   2.831   61.5  0.1827   65.7  0.1532 -104.8
 0.920  0.4252  142.4   2.817   61.4  0.1836   65.6  0.1535 -105.0
 0.925  0.4255  142.2   2.804   61.2  0.1844   65.5  0.1538 -105.1
 0.930  0.4259  141.9   2.790   61.0  0.1853   65.4  0.1540 -105.3
 0.935  0.4262  141.7   2.776   60.9  0.1862   65.3  0.1543 -105.4
 0.940  0.4266  141.5   2.763   60.7  0.1870   65.2  0.1546 -105.6
 0.945  0.4269  141.2   2.749   60.6  0.1879   65.1  0.1549 -105.7
 0.950  0.4273  141.0   2.736   60.4  0.1888   65.1  0.1552 -105.9
 0.955  0.4277  140.7   2.722   60.2  0.1896   65.0  0.1554 -106.0
 0.960  0.4281  140.5   2.709   60.0  0.1905   64.9  0.1557 -106.2
 0.965  0.4285  140.3   2.695   59.9  0.1914   64.8  0.1560 -106.3
 0.970  0.4289  140.0   2.682   59.7  0.1923   64.7  0.1563 -106.5
 0.975  0.4293  139.8   2.669   59.5  0.1931   64.6  0.1566 -106.6
 0.980  0.4297  139.5   2.655   59.3  0.1940   64.5  0.1568 -106.7
 0.985  0.4302  139.3   2.642   59.2  0.1949   64.4  0.1571 -106.9
 0.990  0.4306  139.1   2.629   59.0  0.1958   64.4  0.1574 -107.0
 0.995  0.4310  138.8   2.615   58.8  0.1966   64.3  0.1577 -107.2
 1.000  0.4315  138.6   2.602   58.6  0.1975   64.2  0.1580 -107.3
 1.005  0.4317  138.4   2.592   58.5  0.1983   64.1  0.1582 -107.4
 1.010  0.4319  138.2   2.581   58.3  0.1992   64.0  0.1584 -107.6
 1.015  0.4321  137.9   2.571   58.2  0.2000   63.9  0.1586 -107.7
 1.020  0.4323  137.7   2.561   58.1  0.2009   63.8  0.1588 -107.9
 1.025  0.4326  137.5   2.551   57.9  0.2018   63.7  0.1590 -108.0
 1.030  0.4328  137.3   2.541   57.8  0.2026   63.6  0.1592 -108.1
 1.035  0.4330  137.1   2.530   57.7  0.2035   63.5  0.1595 -108.3
 1.040  0.4333  136.9   2.520   57.5  0.2043   63.4  0.1597 -108.4
 1.045  0.4335  136.6   2.510   57.4  0.2052   63.3  0.1599 -108.6
 1.050  0.4338  136.4   2.500   57.2  0.2060   63.2  0.1601 -108.7
 1.055  0.4340  136.2   2.490   57.1  0.2069   63.1  0.1603 -108.8
 1.060  0.4343  136.0   2.480   56.9  0.2077   63.0  0.1605 -109.0
 1.065  0.4346  135.8   2.470   56.8  0.2086   62.9  0.1607 -109.1
 1.070  0.4348  135.6   2.460   56.7  0.2094   62.8  0.1609 -109.3
 1.075  0.4351  135.4   2.450   56.5  0.2103   62.7  0.1612 -109.4
 1.080  0.4354  135.1   2.440   56.4  0.2112   62.6  0.1614 -109.5
 1.085  0.4357  134.9   2.429   56.2  0.2120   62.5  0.1616 -109.7
 1.090  0.4360  134.7   2.419   56.1  0.2129   62.4  0.1618 -109.8
 1.095  0.4363  134.5   2.409   55.9  0.2137   62.3  0.1620 -109.9
 1.100  0.4366  134.3   2.400   55.8  0.2146   62.3  0.1623 -110.1
 1.105  0.4370  134.1   2.390   55.6  0.2155   62.2  0.1625 -110.2
 1.110  0.4373  133.9   2.380   55.4  0.2163   62.1  0.1627 -110.3
 1.115  0.4376  133.7   2.370   55.3  0.2172   62.0  0.1629 -110.5
 1.120  0.4380  133.4   2.360   55.1  0.2180   61.9  0.1632 -110.6
 1.125  0.4383  133.2   2.350   55.0  0.2189   61.8  0.1634 -110.7
 1.130  0.4387  133.0   2.340   54.8  0.2198   61.7  0.1636 -110.9
 1.135  0.4390  132.8   2.330   54.6  0.2206   61.6  0.1639 -111.0
 1.140  0.4394  132.6   2.320   54.5  0.2215   61.6  0.1641 -111.1
 1.145  0.4398  132.4   2.311   54.3  0.2224   61.5  0.1643 -111.3
 1.150  0.4401  132.2   2.301   54.1  0.2232   61.4  0.1645 -111.4
 1.155  0.4405  132.0   2.291   54.0  0.2241   61.3  0.1648 -111.5
 1.160  0.4409  131.8   2.281   53.8  0.2250   61.2  0.1650 -111.7
 1.165  0.4413  131.5   2.272   53.6  0.2258   61.2  0.1652 -111.8
 1.170  0.4417  131.3   2.262   53.5  0.2267   61.1  0.1655 -111.9
 1.175  0.4421  131.1   2.252   53.3  0.2276   61.0  0.1657 -112.1
 1.180  0.4425  130.9   2.242   53.1  0.2284   60.9  0.1659 -112.2
 1.185  0.4429  130.7   2.233   52.9  0.2293   60.8  0.1662 -112.3
 1.190  0.4433  130.5   2.223   52.8  0.2302   60.8  0.1664 -112.4
 1.195  0.4438  130.3   2.214   52.6  0.2310   60.7  0.1667 -112.6
 1.200  0.4442  130.1   2.204   52.4  0.2319   60.6  0.1669 -112.7
 1.205  0.4444  129.9   2.197   52.3  0.2327   60.5  0.1671 -112.8
 1.210  0.4447  129.7   2.191   52.1  0.2336   60.4  0.1673 -112.9
 1.215  0.4449  129.5   2.184   52.0  0.2344   60.3  0.1676 -113.1
 1.220  0.4452  129.3   2.177   51.9  0.2352   60.2  0.1678 -113.2
 1.225  0.4454  129.1   2.170   51.7  0.2360   60.1  0.1680 -113.3
 1.230  0.4457  128.9   2.164   51.6  0.2369   60.0  0.1682 -113.4
 1.235  0.4460  128.6   2.157   51.5  0.2377   59.9  0.1684 -113.5
 1.240  0.4462  128.4   2.150   51.3  0.2385   59.8  0.1687 -113.6
 1.245  0.4465  128.2   2.144   51.2  0.2394   59.8  0.1689 -113.8
 1.250  0.4468  128.0   2.137   51.0  0.2402   59.7  0.1691 -113.9
 1.255  0.4471  127.8   2.131   50.9  0.2411   59.6  0.1693 -114.0
 1.260  0.4474  127.6   2.124   50.8  0.2419   59.5  0.1695 -114.1
 1.265  0.4477  127.4   2.117   50.6  0.2427   59.4  0.1698 -114.2
 1.270  0.4480  127.2   2.111   50.5  0.2436   59.3  0.1700 -114.3
 1.275  0.4483  127.0   2.104   50.3  0.2444   59.2  0.1702 -114.4
 1.280  0.4486  126.8   2.098   50.2  0.2452   59.1  0.1705 -114.6
 1.285  0.4490  126.6   2.091   50.0  0.2461   59.0  0.1707 -114.7
 1.290  0.4493  126.4   2.085   49.9  0.2469   59.0  0.1709 -114.8
 1.295  0.4496  126.2   2.078   49.7  0.2478   58.9  0.1711 -114.9
 1.300  0.4500  126.0   2.072   49.6  0.2486   58.8  0.1714 -115.0
 1.305  0.4503  125.8   2.065   49.4  0.2494   58.7  0.1716 -115.1
 1.310  0.4507  125.6   2.059   49.3  0.2503   58.6  0.1718 -115.2
 1.315  0.4510  125.4   2.052   49.1  0.2511   58.5  0.1721 -115.3
 1.320  0.4514  125.2   2.046   49.0  0.2520   58.5  0.1723 -115.5
 1.325  0.4518  125.0   2.039   48.8  0.2528   58.4  0.1725 -115.6
 1.330  0.4521  124.8   2.033   48.7  0.2536   58.3  0.1728 -115.7
 1.335  0.4525  124.6   2.027   48.5  0.2545   58.2  0.1730 -115.8
 1.340  0.4529  124.4   2.020   48.4  0.2553   58.1  0.1732 -115.9
 1.345  0.4533  124.2   2.014   48.2  0.2562   58.0  0.1735 -116.0
 1.350  0.4537  124.0   2.008   48.0  0.2570   58.0  0.1737 -116.1
 1.355  0.4541  123.8   2.001   47.9  0.2579   57.9  0.1739 -116.2
 1.360  0.4545  123.6   1.995   47.7  0.2587   57.8  0.1742 -116.3
 1.365  0.4549  123.4   1.989   47.6  0.2596   57.7  0.1744 -116.4
 1.370  0.4554  123.2   1.982   47.4  0.2604   57.7  0.1747 -116.6
 1.375  0.4558  123.0   1.976   47.2  0.2613   57.6  0.1749 -116.7
 1.380  0.4562  122.8   1.970   47.1  0.2621   57.5  0.1751 -116.8
 1.385  0.4567  122.6   1.964   46.9  0.2630   57.4  0.1754 -116.9
 1.390  0.4571  122.4   1.957   46.7  0.2638   57.3  0.1756 -117.0
 1.395  0.4575  122.2   1.951   46.6  0.2647   57.3  0.1759 -117.1
 1.400  0.4580  122.0   1.945   46.4  0.2655   57.2  0.1761 -117.2
 1.405  0.4585  121.8   1.940   46.3  0.2663   57.1  0.1764 -117.3
 1.410  0.4591  121.5   1.934   46.1  0.2671   57.0  0.1767 -117.3
 1.415  0.4596  121.3   1.929   46.0  0.2679   56.9  0.1770 -117.4
 1.420  0.4602  121.0   1.924   45.8  0.2687   56.8  0.1773 -117.5
 1.425  0.4607  120.8   1.919   45.7  0.2695   56.7  0.1776 -117.6
 1.430  0.4613  120.5   1.913   45.5  0.2703   56.6  0.1779 -117.6
 1.435  0.4619  120.3   1.908   45.4  0.2711   56.5  0.1782 -117.7
 1.440  0.4625  120.0   1.903   45.2  0.2719   56.5  0.1785 -117.8
 1.445  0.4631  119.8   1.898   45.1  0.2728   56.4  0.1788 -117.8
 1.450  0.4637  119.6   1.892   44.9  0.2736   56.3  0.1791 -117.9
 1.455  0.4643  119.3   1.887   44.8  0.2744   56.2  0.1794 -118.0
 1.460  0.4649  119.1   1.882   44.6  0.2752   56.1  0.1797 -118.1
 1.465  0.4656  118.9   1.877   44.5  0.2760   56.0  0.1800 -118.1
 1.470  0.4662  118.6   1.872   44.3  0.2768   55.9  0.1803 -118.2
 1.475  0.4668  118.4   1.867   44.2  0.2776   55.8  0.1806 -118.3
 1.480  0.4675  118.1   1.861   44.0  0.2784   55.7  0.1809 -118.3
 1.485  0.4682  117.9   1.856   43.9  0.2793   55.7  0.1812 -118.4
 1.490  0.4688  117.7   1.851   43.7  0.2801   55.6  0.1815 -118.5
 1.495  0.4695  117.4   1.846   43.6  0.2809   55.5  0.1818 -118.5
 1.500  0.4702  117.2   1.841   43.4  0.2817   55.4  0.1821 -118.6
 1.505  0.4699  117.0   1.836   43.2  0.2825   55.3  0.1825 -118.7
 1.510  0.4695  116.8   1.830   43.1  0.2832   55.2  0.1828 -118.8
