! Infineon Technologies  Discrete & RF Semiconductors
! BFQ19S
! VCE =  8.0 V,  IC =  60 mA
! Common Emitter S-Parameters:                            Jan 2016
# GHz  S  MA  R  50
!  f         S11            S21            S12            S22
! GHz     MAG   ANG      MAG   ANG      MAG   ANG      MAG   ANG
 0.050  0.3369 -110.1  42.138  123.8  0.0154   67.4  0.5686  -48.3
 0.055  0.3368 -115.0  39.621  121.5  0.0163   67.5  0.5368  -50.0
 0.060  0.3392 -119.8  37.177  118.9  0.0172   67.6  0.5056  -52.0
 0.065  0.3400 -124.0  35.092  117.0  0.0181   67.7  0.4798  -53.3
 0.070  0.3426 -128.1  33.049  114.9  0.0191   67.7  0.4542  -54.7
 0.075  0.3424 -131.2  31.352  113.3  0.0200   67.9  0.4332  -55.7
 0.080  0.3432 -134.3  29.683  111.5  0.0209   68.0  0.4124  -56.9
 0.085  0.3409 -137.0  28.265  110.2  0.0218   68.2  0.3948  -57.7
 0.090  0.3394 -139.8  26.862  108.8  0.0227   68.4  0.3772  -58.5
 0.095  0.3402 -142.1  25.660  107.7  0.0236   69.0  0.3625  -59.1
 0.100  0.3416 -144.3  24.468  106.5  0.0245   69.6  0.3478  -59.7
 0.105  0.3410 -145.7  23.697  105.9  0.0254   69.9  0.3389  -59.9
 0.110  0.3406 -147.2  22.929  105.4  0.0264   70.2  0.3300  -60.1
 0.115  0.3404 -148.6  22.163  104.7  0.0273   70.5  0.3211  -60.3
 0.120  0.3404 -150.1  21.400  104.0  0.0283   70.8  0.3122  -60.5
 0.125  0.3406 -151.5  20.640  103.3  0.0292   71.0  0.3033  -60.7
 0.130  0.3411 -153.0  19.884  102.5  0.0302   71.2  0.2944  -61.0
 0.135  0.3418 -154.4  19.132  101.7  0.0311   71.4  0.2855  -61.2
 0.140  0.3427 -155.9  18.384  100.8  0.0321   71.6  0.2766  -61.5
 0.145  0.3438 -157.3  17.642   99.8  0.0330   71.8  0.2678  -61.8
 0.150  0.3451 -158.7  16.905   98.7  0.0340   72.0  0.2589  -62.1
 0.155  0.3450 -159.7  16.499   98.3  0.0349   72.2  0.2544  -62.2
 0.160  0.3450 -160.6  16.094   97.9  0.0358   72.3  0.2499  -62.3
 0.165  0.3452 -161.6  15.689   97.5  0.0367   72.5  0.2455  -62.4
 0.170  0.3454 -162.6  15.286   97.0  0.0376   72.6  0.2410  -62.5
 0.175  0.3457 -163.5  14.884   96.5  0.0385   72.8  0.2365  -62.6
 0.180  0.3461 -164.5  14.482   96.0  0.0394   72.9  0.2320  -62.7
 0.185  0.3466 -165.4  14.082   95.5  0.0403   73.0  0.2275  -62.8
 0.190  0.3472 -166.4  13.683   94.9  0.0412   73.2  0.2231  -62.9
 0.195  0.3479 -167.4  13.286   94.3  0.0421   73.3  0.2186  -63.0
 0.200  0.3487 -168.3  12.890   93.7  0.0430   73.4  0.2141  -63.1
 0.205  0.3483 -168.9  12.637   93.4  0.0440   73.5  0.2115  -63.2
 0.210  0.3478 -169.6  12.384   93.1  0.0449   73.5  0.2090  -63.2
 0.215  0.3475 -170.2  12.132   92.8  0.0459   73.6  0.2064  -63.3
 0.220  0.3472 -170.8  11.880   92.4  0.0468   73.7  0.2039  -63.4
 0.225  0.3469 -171.4  11.629   92.0  0.0478   73.7  0.2013  -63.4
 0.230  0.3466 -172.1  11.378   91.7  0.0488   73.8  0.1988  -63.5
 0.235  0.3464 -172.7  11.128   91.3  0.0497   73.8  0.1962  -63.6
 0.240  0.3463 -173.3  10.878   90.9  0.0507   73.9  0.1937  -63.6
 0.245  0.3462 -174.0  10.629   90.4  0.0516   74.0  0.1911  -63.7
 0.250  0.3461 -174.6  10.380   90.0  0.0526   74.0  0.1886  -63.8
 0.255  0.3467 -175.1  10.212   89.7  0.0535   74.0  0.1871  -63.9
 0.260  0.3473 -175.7  10.044   89.5  0.0545   74.0  0.1856  -63.9
 0.265  0.3480 -176.2   9.876   89.2  0.0554   74.0  0.1841  -64.0
 0.270  0.3486 -176.7   9.709   88.9  0.0564   74.0  0.1826  -64.0
 0.275  0.3493 -177.2   9.541   88.6  0.0573   74.0  0.1811  -64.1
 0.280  0.3501 -177.7   9.374   88.3  0.0582   74.0  0.1797  -64.1
 0.285  0.3508 -178.3   9.207   88.0  0.0592   74.0  0.1782  -64.2
 0.290  0.3516 -178.8   9.041   87.7  0.0601   74.0  0.1767  -64.3
 0.295  0.3525 -179.3   8.875   87.4  0.0611   74.0  0.1752  -64.3
 0.300  0.3533 -179.8   8.709   87.0  0.0620   74.0  0.1737  -64.4
 0.305  0.3532  179.8   8.602   86.8  0.0629   74.0  0.1729  -64.5
 0.310  0.3532  179.3   8.495   86.6  0.0639   73.9  0.1721  -64.6
 0.315  0.3531  178.9   8.388   86.4  0.0648   73.9  0.1713  -64.7
 0.320  0.3531  178.5   8.281   86.2  0.0658   73.9  0.1706  -64.8
 0.325  0.3531  178.1   8.174   86.0  0.0667   73.8  0.1698  -64.9
 0.330  0.3531  177.6   8.067   85.8  0.0676   73.8  0.1690  -65.0
 0.335  0.3531  177.2   7.960   85.6  0.0686   73.8  0.1682  -65.1
 0.340  0.3532  176.8   7.854   85.3  0.0695   73.8  0.1674  -65.2
 0.345  0.3533  176.4   7.748   85.1  0.0705   73.7  0.1666  -65.3
 0.350  0.3534  175.9   7.641   84.8  0.0714   73.7  0.1659  -65.4
 0.355  0.3535  175.5   7.535   84.6  0.0723   73.7  0.1651  -65.6
 0.360  0.3536  175.1   7.429   84.3  0.0733   73.7  0.1643  -65.7
 0.365  0.3538  174.7   7.324   84.1  0.0742   73.6  0.1635  -65.8
 0.370  0.3540  174.2   7.218   83.8  0.0752   73.6  0.1628  -65.9
 0.375  0.3541  173.8   7.112   83.5  0.0761   73.6  0.1620  -66.0
 0.380  0.3544  173.4   7.007   83.2  0.0770   73.6  0.1612  -66.1
 0.385  0.3546  173.0   6.902   82.9  0.0780   73.6  0.1604  -66.2
 0.390  0.3548  172.5   6.797   82.6  0.0789   73.5  0.1596  -66.4
 0.395  0.3551  172.1   6.693   82.3  0.0799   73.5  0.1589  -66.5
 0.400  0.3554  171.7   6.588   82.0  0.0808   73.5  0.1581  -66.6
 0.405  0.3558  171.3   6.524   81.8  0.0817   73.4  0.1579  -66.7
 0.410  0.3563  170.9   6.460   81.6  0.0826   73.4  0.1576  -66.9
 0.415  0.3568  170.5   6.396   81.5  0.0836   73.3  0.1574  -67.0
 0.420  0.3573  170.2   6.333   81.3  0.0845   73.3  0.1572  -67.1
 0.425  0.3578  169.8   6.269   81.1  0.0854   73.2  0.1569  -67.2
 0.430  0.3583  169.4   6.205   80.9  0.0863   73.2  0.1567  -67.4
 0.435  0.3588  169.0   6.142   80.7  0.0873   73.1  0.1565  -67.5
 0.440  0.3594  168.6   6.078   80.5  0.0882   73.0  0.1563  -67.6
 0.445  0.3599  168.3   6.015   80.2  0.0891   73.0  0.1560  -67.8
 0.450  0.3605  167.9   5.952   80.0  0.0900   72.9  0.1558  -67.9
 0.455  0.3611  167.5   5.888   79.8  0.0910   72.9  0.1556  -68.0
 0.460  0.3617  167.1   5.825   79.6  0.0919   72.9  0.1554  -68.1
 0.465  0.3624  166.8   5.762   79.4  0.0928   72.8  0.1551  -68.3
 0.470  0.3630  166.4   5.699   79.1  0.0937   72.8  0.1549  -68.4
 0.475  0.3637  166.0   5.637   78.9  0.0947   72.7  0.1547  -68.5
 0.480  0.3644  165.7   5.574   78.6  0.0956   72.7  0.1545  -68.7
 0.485  0.3650  165.3   5.511   78.4  0.0965   72.6  0.1543  -68.8
 0.490  0.3657  164.9   5.449   78.1  0.0974   72.6  0.1540  -68.9
 0.495  0.3665  164.6   5.386   77.9  0.0984   72.5  0.1538  -69.1
 0.500  0.3672  164.2   5.324   77.6  0.0993   72.5  0.1536  -69.2
 0.505  0.3672  163.9   5.280   77.4  0.1002   72.4  0.1536  -69.4
 0.510  0.3672  163.7   5.237   77.3  0.1011   72.3  0.1535  -69.5
 0.515  0.3672  163.4   5.193   77.1  0.1021   72.2  0.1535  -69.7
 0.520  0.3672  163.1   5.149   76.9  0.1030   72.2  0.1535  -69.9
 0.525  0.3673  162.9   5.106   76.7  0.1039   72.1  0.1535  -70.0
 0.530  0.3673  162.6   5.062   76.5  0.1048   72.0  0.1535  -70.2
 0.535  0.3673  162.3   5.019   76.4  0.1057   71.9  0.1534  -70.4
 0.540  0.3674  162.1   4.975   76.2  0.1067   71.8  0.1534  -70.6
 0.545  0.3674  161.8   4.932   76.0  0.1076   71.8  0.1534  -70.7
 0.550  0.3675  161.5   4.889   75.8  0.1085   71.7  0.1534  -70.9
 0.555  0.3676  161.3   4.845   75.6  0.1094   71.6  0.1534  -71.1
 0.560  0.3677  161.0   4.802   75.4  0.1103   71.5  0.1534  -71.2
 0.565  0.3678  160.7   4.759   75.2  0.1113   71.5  0.1533  -71.4
 0.570  0.3678  160.5   4.716   75.0  0.1122   71.4  0.1533  -71.6
 0.575  0.3680  160.2   4.673   74.7  0.1131   71.3  0.1533  -71.7
 0.580  0.3681  160.0   4.630   74.5  0.1140   71.3  0.1533  -71.9
 0.585  0.3682  159.7   4.587   74.3  0.1149   71.2  0.1533  -72.1
 0.590  0.3683  159.4   4.544   74.1  0.1159   71.1  0.1533  -72.3
 0.595  0.3685  159.2   4.502   73.8  0.1168   71.1  0.1533  -72.4
 0.600  0.3686  158.9   4.459   73.6  0.1177   71.0  0.1533  -72.6
 0.605  0.3687  158.6   4.428   73.4  0.1186   70.9  0.1535  -72.8
 0.610  0.3688  158.4   4.397   73.3  0.1195   70.8  0.1536  -73.0
 0.615  0.3688  158.1   4.367   73.1  0.1204   70.8  0.1538  -73.1
 0.620  0.3689  157.9   4.336   72.9  0.1213   70.7  0.1539  -73.3
 0.625  0.3690  157.6   4.305   72.8  0.1222   70.6  0.1541  -73.5
 0.630  0.3692  157.4   4.275   72.6  0.1232   70.5  0.1543  -73.7
 0.635  0.3693  157.1   4.244   72.4  0.1241   70.5  0.1544  -73.9
 0.640  0.3694  156.9   4.214   72.2  0.1250   70.4  0.1546  -74.1
 0.645  0.3695  156.6   4.183   72.0  0.1259   70.3  0.1548  -74.2
 0.650  0.3697  156.3   4.153   71.8  0.1268   70.2  0.1549  -74.4
 0.655  0.3698  156.1   4.122   71.6  0.1277   70.2  0.1551  -74.6
 0.660  0.3700  155.8   4.092   71.5  0.1286   70.1  0.1553  -74.8
 0.665  0.3702  155.6   4.062   71.3  0.1295   70.0  0.1554  -75.0
 0.670  0.3703  155.3   4.031   71.1  0.1304   70.0  0.1556  -75.1
 0.675  0.3705  155.1   4.001   70.9  0.1313   69.9  0.1558  -75.3
 0.680  0.3707  154.8   3.971   70.7  0.1323   69.8  0.1560  -75.5
 0.685  0.3709  154.6   3.941   70.4  0.1332   69.8  0.1562  -75.7
 0.690  0.3711  154.3   3.911   70.2  0.1341   69.7  0.1563  -75.8
 0.695  0.3713  154.1   3.881   70.0  0.1350   69.7  0.1565  -76.0
 0.700  0.3715  153.8   3.851   69.8  0.1359   69.6  0.1567  -76.2
 0.705  0.3718  153.5   3.828   69.6  0.1368   69.5  0.1569  -76.4
 0.710  0.3722  153.3   3.804   69.5  0.1376   69.4  0.1571  -76.6
 0.715  0.3725  153.0   3.781   69.3  0.1385   69.4  0.1573  -76.8
 0.720  0.3729  152.7   3.758   69.1  0.1394   69.3  0.1576  -77.0
 0.725  0.3733  152.5   3.734   69.0  0.1402   69.2  0.1578  -77.2
 0.730  0.3736  152.2   3.711   68.8  0.1411   69.1  0.1580  -77.4
 0.735  0.3740  152.0   3.688   68.6  0.1420   69.0  0.1582  -77.6
 0.740  0.3744  151.7   3.665   68.4  0.1428   69.0  0.1585  -77.8
 0.745  0.3748  151.4   3.642   68.3  0.1437   68.9  0.1587  -78.0
 0.750  0.3752  151.2   3.619   68.1  0.1446   68.8  0.1589  -78.2
 0.755  0.3756  150.9   3.596   67.9  0.1455   68.7  0.1591  -78.4
 0.760  0.3760  150.7   3.573   67.7  0.1463   68.7  0.1594  -78.6
 0.765  0.3765  150.4   3.550   67.5  0.1472   68.6  0.1596  -78.8
 0.770  0.3769  150.1   3.527   67.3  0.1481   68.5  0.1598  -79.0
 0.775  0.3774  149.9   3.504   67.1  0.1489   68.4  0.1601  -79.1
 0.780  0.3778  149.6   3.481   66.9  0.1498   68.4  0.1603  -79.3
 0.785  0.3783  149.4   3.458   66.7  0.1507   68.3  0.1606  -79.5
 0.790  0.3787  149.1   3.435   66.5  0.1516   68.2  0.1608  -79.7
 0.795  0.3792  148.9   3.413   66.3  0.1524   68.2  0.1611  -79.9
 0.800  0.3797  148.6   3.390   66.1  0.1533   68.1  0.1613  -80.1
 0.805  0.3801  148.4   3.372   65.9  0.1542   68.0  0.1614  -80.3
 0.810  0.3806  148.2   3.354   65.8  0.1550   67.9  0.1616  -80.4
 0.815  0.3810  148.0   3.336   65.6  0.1559   67.8  0.1617  -80.6
 0.820  0.3815  147.8   3.318   65.5  0.1567   67.8  0.1619  -80.8
 0.825  0.3820  147.6   3.299   65.3  0.1576   67.7  0.1620  -81.0
 0.830  0.3824  147.3   3.281   65.2  0.1585   67.6  0.1622  -81.1
 0.835  0.3829  147.1   3.263   65.0  0.1593   67.5  0.1623  -81.3
 0.840  0.3834  146.9   3.245   64.8  0.1602   67.4  0.1625  -81.5
 0.845  0.3839  146.7   3.228   64.7  0.1611   67.3  0.1626  -81.6
 0.850  0.3844  146.5   3.210   64.5  0.1619   67.3  0.1628  -81.8
 0.855  0.3848  146.3   3.192   64.3  0.1628   67.2  0.1629  -82.0
 0.860  0.3853  146.1   3.174   64.2  0.1637   67.1  0.1631  -82.2
 0.865  0.3858  145.9   3.156   64.0  0.1645   67.0  0.1632  -82.3
 0.870  0.3864  145.7   3.138   63.8  0.1654   66.9  0.1634  -82.5
 0.875  0.3869  145.5   3.120   63.6  0.1663   66.9  0.1636  -82.7
 0.880  0.3874  145.3   3.103   63.4  0.1671   66.8  0.1637  -82.8
 0.885  0.3879  145.1   3.085   63.3  0.1680   66.7  0.1639  -83.0
 0.890  0.3884  144.9   3.067   63.1  0.1689   66.6  0.1641  -83.2
 0.895  0.3890  144.7   3.050   62.9  0.1697   66.6  0.1642  -83.3
 0.900  0.3895  144.5   3.032   62.7  0.1706   66.5  0.1644  -83.5
 0.905  0.3897  144.3   3.018   62.5  0.1714   66.4  0.1646  -83.7
 0.910  0.3900  144.0   3.003   62.4  0.1723   66.3  0.1648  -83.8
 0.915  0.3902  143.8   2.989   62.2  0.1731   66.2  0.1650  -84.0
 0.920  0.3904  143.5   2.974   62.1  0.1739   66.1  0.1652  -84.2
 0.925  0.3907  143.3   2.960   61.9  0.1748   66.0  0.1653  -84.3
 0.930  0.3909  143.1   2.946   61.8  0.1756   66.0  0.1655  -84.5
 0.935  0.3912  142.8   2.932   61.6  0.1765   65.9  0.1657  -84.7
 0.940  0.3915  142.6   2.917   61.5  0.1773   65.8  0.1659  -84.8
 0.945  0.3917  142.4   2.903   61.3  0.1781   65.7  0.1661  -85.0
 0.950  0.3920  142.1   2.889   61.1  0.1790   65.6  0.1663  -85.2
 0.955  0.3923  141.9   2.875   61.0  0.1798   65.5  0.1665  -85.3
 0.960  0.3926  141.7   2.860   60.8  0.1807   65.4  0.1667  -85.5
 0.965  0.3929  141.4   2.846   60.6  0.1815   65.4  0.1669  -85.7
 0.970  0.3932  141.2   2.832   60.5  0.1823   65.3  0.1671  -85.8
 0.975  0.3935  141.0   2.818   60.3  0.1832   65.2  0.1673  -86.0
 0.980  0.3938  140.7   2.804   60.1  0.1840   65.1  0.1676  -86.2
 0.985  0.3942  140.5   2.790   59.9  0.1849   65.0  0.1678  -86.3
 0.990  0.3945  140.3   2.776   59.8  0.1857   65.0  0.1680  -86.5
 0.995  0.3949  140.0   2.762   59.6  0.1866   64.9  0.1682  -86.6
 1.000  0.3952  139.8   2.748   59.4  0.1874   64.8  0.1684  -86.8
 1.005  0.3954  139.6   2.737   59.3  0.1882   64.7  0.1685  -87.0
 1.010  0.3957  139.4   2.726   59.1  0.1890   64.6  0.1687  -87.1
 1.015  0.3959  139.1   2.715   59.0  0.1898   64.5  0.1688  -87.3
 1.020  0.3962  138.9   2.704   58.9  0.1907   64.4  0.1690  -87.4
 1.025  0.3965  138.7   2.694   58.7  0.1915   64.3  0.1691  -87.6
 1.030  0.3967  138.5   2.683   58.6  0.1923   64.2  0.1693  -87.7
 1.035  0.3970  138.3   2.672   58.5  0.1931   64.1  0.1694  -87.9
 1.040  0.3973  138.1   2.661   58.3  0.1939   64.1  0.1695  -88.0
 1.045  0.3976  137.8   2.650   58.2  0.1947   64.0  0.1697  -88.2
 1.050  0.3979  137.6   2.640   58.0  0.1956   63.9  0.1698  -88.3
 1.055  0.3982  137.4   2.629   57.9  0.1964   63.8  0.1700  -88.5
 1.060  0.3985  137.2   2.618   57.8  0.1972   63.7  0.1702  -88.6
 1.065  0.3988  137.0   2.607   57.6  0.1980   63.6  0.1703  -88.8
 1.070  0.3991  136.8   2.597   57.5  0.1988   63.5  0.1705  -89.0
 1.075  0.3994  136.5   2.586   57.3  0.1997   63.4  0.1706  -89.1
 1.080  0.3998  136.3   2.575   57.2  0.2005   63.4  0.1708  -89.3
 1.085  0.4001  136.1   2.565   57.0  0.2013   63.3  0.1709  -89.4
 1.090  0.4004  135.9   2.554   56.9  0.2021   63.2  0.1711  -89.6
 1.095  0.4008  135.7   2.543   56.7  0.2029   63.1  0.1713  -89.7
 1.100  0.4011  135.5   2.533   56.6  0.2038   63.0  0.1714  -89.9
 1.105  0.4015  135.3   2.522   56.4  0.2046   62.9  0.1716  -90.0
 1.110  0.4019  135.1   2.512   56.2  0.2054   62.9  0.1717  -90.2
 1.115  0.4022  134.8   2.501   56.1  0.2062   62.8  0.1719  -90.3
 1.120  0.4026  134.6   2.491   55.9  0.2071   62.7  0.1721  -90.5
 1.125  0.4030  134.4   2.480   55.8  0.2079   62.6  0.1722  -90.6
 1.130  0.4034  134.2   2.470   55.6  0.2087   62.5  0.1724  -90.8
 1.135  0.4038  134.0   2.459   55.4  0.2095   62.5  0.1726  -90.9
 1.140  0.4041  133.8   2.449   55.3  0.2104   62.4  0.1728  -91.0
 1.145  0.4045  133.6   2.438   55.1  0.2112   62.3  0.1729  -91.2
 1.150  0.4050  133.4   2.428   55.0  0.2120   62.2  0.1731  -91.3
 1.155  0.4054  133.2   2.417   54.8  0.2128   62.2  0.1733  -91.5
 1.160  0.4058  132.9   2.407   54.6  0.2137   62.1  0.1735  -91.6
 1.165  0.4062  132.7   2.397   54.4  0.2145   62.0  0.1736  -91.8
 1.170  0.4066  132.5   2.386   54.3  0.2153   61.9  0.1738  -91.9
 1.175  0.4071  132.3   2.376   54.1  0.2162   61.9  0.1740  -92.1
 1.180  0.4075  132.1   2.366   53.9  0.2170   61.8  0.1742  -92.2
 1.185  0.4079  131.9   2.356   53.7  0.2178   61.7  0.1743  -92.4
 1.190  0.4084  131.7   2.345   53.6  0.2186   61.6  0.1745  -92.5
 1.195  0.4088  131.5   2.335   53.4  0.2195   61.6  0.1747  -92.7
 1.200  0.4093  131.3   2.325   53.2  0.2203   61.5  0.1749  -92.8
 1.205  0.4096  131.1   2.318   53.1  0.2211   61.4  0.1751  -92.9
 1.210  0.4098  130.8   2.311   52.9  0.2219   61.3  0.1752  -93.1
 1.215  0.4101  130.6   2.303   52.8  0.2227   61.2  0.1754  -93.2
 1.220  0.4104  130.4   2.296   52.7  0.2235   61.1  0.1756  -93.3
 1.225  0.4107  130.2   2.289   52.5  0.2243   61.0  0.1757  -93.5
 1.230  0.4110  129.9   2.282   52.4  0.2251   60.9  0.1759  -93.6
 1.235  0.4113  129.7   2.275   52.2  0.2259   60.9  0.1761  -93.8
 1.240  0.4116  129.5   2.267   52.1  0.2267   60.8  0.1763  -93.9
 1.245  0.4119  129.3   2.260   52.0  0.2275   60.7  0.1764  -94.0
 1.250  0.4122  129.0   2.253   51.8  0.2283   60.6  0.1766  -94.2
 1.255  0.4126  128.8   2.246   51.7  0.2291   60.5  0.1768  -94.3
 1.260  0.4129  128.6   2.239   51.5  0.2299   60.4  0.1770  -94.4
 1.265  0.4133  128.4   2.232   51.4  0.2307   60.3  0.1771  -94.6
 1.270  0.4136  128.1   2.225   51.2  0.2315   60.2  0.1773  -94.7
 1.275  0.4140  127.9   2.218   51.1  0.2323   60.2  0.1775  -94.8
 1.280  0.4143  127.7   2.211   50.9  0.2331   60.1  0.1777  -95.0
 1.285  0.4147  127.5   2.204   50.8  0.2339   60.0  0.1779  -95.1
 1.290  0.4151  127.3   2.197   50.6  0.2347   59.9  0.1780  -95.2
 1.295  0.4154  127.0   2.190   50.5  0.2355   59.8  0.1782  -95.4
 1.300  0.4158  126.8   2.183   50.3  0.2363   59.7  0.1784  -95.5
 1.305  0.4162  126.6   2.176   50.2  0.2371   59.7  0.1786  -95.6
 1.310  0.4166  126.4   2.169   50.0  0.2379   59.6  0.1788  -95.8
 1.315  0.4170  126.2   2.162   49.9  0.2387   59.5  0.1790  -95.9
 1.320  0.4174  125.9   2.155   49.7  0.2395   59.4  0.1792  -96.0
 1.325  0.4178  125.7   2.148   49.6  0.2403   59.3  0.1793  -96.2
 1.330  0.4183  125.5   2.141   49.4  0.2411   59.3  0.1795  -96.3
 1.335  0.4187  125.3   2.135   49.3  0.2420   59.2  0.1797  -96.4
 1.340  0.4191  125.1   2.128   49.1  0.2428   59.1  0.1799  -96.6
 1.345  0.4196  124.9   2.121   48.9  0.2436   59.0  0.1801  -96.7
 1.350  0.4200  124.6   2.114   48.8  0.2444   58.9  0.1803  -96.8
 1.355  0.4205  124.4   2.107   48.6  0.2452   58.9  0.1805  -96.9
 1.360  0.4209  124.2   2.101   48.4  0.2460   58.8  0.1807  -97.1
 1.365  0.4214  124.0   2.094   48.3  0.2468   58.7  0.1809  -97.2
 1.370  0.4219  123.8   2.087   48.1  0.2476   58.6  0.1811  -97.3
 1.375  0.4223  123.6   2.080   48.0  0.2484   58.6  0.1813  -97.5
 1.380  0.4228  123.3   2.074   47.8  0.2492   58.5  0.1815  -97.6
 1.385  0.4233  123.1   2.067   47.6  0.2501   58.4  0.1817  -97.7
 1.390  0.4238  122.9   2.060   47.4  0.2509   58.3  0.1819  -97.8
 1.395  0.4243  122.7   2.054   47.3  0.2517   58.3  0.1821  -98.0
 1.400  0.4248  122.5   2.047   47.1  0.2525   58.2  0.1823  -98.1
 1.405  0.4255  122.3   2.041   47.0  0.2533   58.1  0.1826  -98.2
 1.410  0.4263  122.0   2.036   46.8  0.2541   58.0  0.1829  -98.3
 1.415  0.4270  121.8   2.030   46.7  0.2549   57.9  0.1832  -98.4
 1.420  0.4278  121.6   2.025   46.5  0.2557   57.8  0.1835  -98.5
 1.425  0.4286  121.4   2.019   46.4  0.2565   57.8  0.1838  -98.6
 1.430  0.4293  121.1   2.013   46.2  0.2572   57.7  0.1840  -98.7
 1.435  0.4301  120.9   2.008   46.1  0.2580   57.6  0.1843  -98.8
 1.440  0.4309  120.7   2.002   45.9  0.2588   57.5  0.1846  -98.9
 1.445  0.4317  120.5   1.997   45.8  0.2596   57.4  0.1849  -99.0
 1.450  0.4325  120.3   1.991   45.6  0.2604   57.3  0.1852  -99.1
 1.455  0.4333  120.0   1.986   45.5  0.2612   57.2  0.1855  -99.2
 1.460  0.4341  119.8   1.980   45.3  0.2620   57.2  0.1858  -99.3
 1.465  0.4349  119.6   1.975   45.2  0.2628   57.1  0.1861  -99.4
 1.470  0.4357  119.4   1.969   45.0  0.2636   57.0  0.1864  -99.5
 1.475  0.4366  119.2   1.964   44.9  0.2644   56.9  0.1867  -99.6
 1.480  0.4374  119.0   1.959   44.7  0.2652   56.8  0.1870  -99.7
 1.485  0.4382  118.7   1.953   44.6  0.2660   56.7  0.1873  -99.8
 1.490  0.4391  118.5   1.948   44.4  0.2668   56.7  0.1876  -99.9
 1.495  0.4399  118.3   1.942   44.3  0.2676   56.6  0.1879 -100.0
 1.500  0.4408  118.1   1.937   44.1  0.2684   56.5  0.1882 -100.1
 1.505  0.4406  117.9   1.931   44.0  0.2691   56.4  0.1885 -100.2
 1.510  0.4404  117.7   1.925   43.8  0.2698   56.3  0.1889 -100.3
