! Infineon Technologies  Discrete & RF Semiconductors
! BFQ790
! VCE =  3.0 V,  IC =  30 mA
! Common Emitter S-Parameters:                            May 2015
# GHz  S  MA  R  50
!  f         S11            S21            S12            S22
! GHz     MAG   ANG      MAG   ANG      MAG   ANG      MAG   ANG
 0.010  0.6420  -18.0  55.053  165.3  0.0056   71.5  0.9545  -23.8
 0.020  0.5994  -34.5  50.402  152.1  0.0102   63.0  0.8935  -45.2
 0.030  0.5388  -43.5  44.282  146.1  0.0123   51.9  0.7848  -58.0
 0.040  0.4944  -54.4  38.790  138.4  0.0147   44.2  0.7258  -73.8
 0.050  0.4710  -66.9  34.232  128.3  0.0173   38.8  0.7286  -90.9
 0.060  0.4529  -71.4  31.355  126.4  0.0179   35.4  0.6869  -96.9
 0.070  0.4378  -76.2  28.518  124.2  0.0185   32.2  0.6536 -103.6
 0.080  0.4260  -81.3  25.735  121.5  0.0192   29.3  0.6300 -110.9
 0.090  0.4178  -86.7  23.024  118.1  0.0199   26.5  0.6174 -118.6
 0.100  0.4134  -92.2  20.415  113.8  0.0207   24.0  0.6163 -126.5
 0.110  0.4163  -94.8  19.240  113.0  0.0209   23.5  0.6062 -129.5
 0.120  0.4200  -97.4  18.068  112.1  0.0212   23.1  0.5979 -132.6
 0.130  0.4245  -99.9  16.903  111.1  0.0214   22.7  0.5914 -135.8
 0.140  0.4299 -102.4  15.743  109.9  0.0217   22.2  0.5867 -139.1
 0.150  0.4360 -104.8  14.591  108.5  0.0219   21.8  0.5840 -142.4
 0.200  0.4836 -113.5  11.555  105.2  0.0232   18.7  0.5733 -151.3
 0.250  0.5314 -120.3   9.660  102.9  0.0242   16.0  0.5705 -157.0
 0.300  0.5743 -126.6   8.342  100.5  0.0256   14.4  0.5693 -161.2
 0.350  0.6123 -132.0   7.511   98.5  0.0268   12.7  0.5704 -164.1
 0.400  0.6552 -136.8   6.692   95.9  0.0280   11.1  0.5729 -166.9
 0.450  0.6816 -140.9   6.136   93.9  0.0283    9.3  0.5747 -168.9
 0.500  0.7112 -144.6   5.589   91.4  0.0286    7.6  0.5771 -170.8
 0.600  0.7567 -151.3   4.813   87.2  0.0296    4.1  0.5820 -173.9
 0.700  0.7836 -156.9   4.199   83.0  0.0301    2.7  0.5855 -176.4
 0.800  0.8118 -161.4   3.747   79.1  0.0306   -1.9  0.5889 -178.4
 0.900  0.8257 -165.8   3.358   75.2  0.0297   -3.8  0.5916  179.6
 1.000  0.8403 -169.2   3.063   71.9  0.0301   -6.1  0.5950  178.0
 1.100  0.8500 -172.7   2.794   68.4  0.0305   -7.4  0.5977  176.6
 1.200  0.8567 -175.5   2.571   64.9  0.0302   -9.9  0.5994  175.3
 1.300  0.8634 -178.2   2.385   61.9  0.0299  -11.5  0.6020  174.1
 1.400  0.8687  179.3   2.230   58.9  0.0298  -14.1  0.6051  172.9
 1.500  0.8715  177.4   2.093   55.9  0.0298  -14.4  0.6058  171.7
 1.600  0.8778  175.5   1.981   52.9  0.0296  -17.1  0.6098  170.6
 1.700  0.8740  173.7   1.861   50.2  0.0296  -17.9  0.6111  169.5
 1.800  0.8815  171.7   1.783   47.0  0.0292  -20.1  0.6154  168.2
 1.900  0.8824  169.9   1.700   43.9  0.0292  -20.1  0.6185  166.9
 2.000  0.8853  168.0   1.627   40.9  0.0292  -21.7  0.6204  165.6
 2.100  0.8865  166.0   1.564   38.0  0.0291  -23.0  0.6234  164.1
 2.200  0.8887  164.0   1.505   34.8  0.0291  -24.4  0.6268  162.7
 2.300  0.8903  161.9   1.452   31.7  0.0291  -26.2  0.6298  161.0
 2.400  0.8931  159.8   1.403   28.3  0.0291  -28.1  0.6334  159.3
 2.500  0.8930  157.6   1.353   25.2  0.0285  -29.7  0.6360  157.4
 2.600  0.8941  155.5   1.307   21.9  0.0280  -31.3  0.6393  155.5
 2.700  0.8933  153.2   1.264   18.7  0.0283  -33.3  0.6405  153.4
 2.800  0.8939  150.9   1.225   15.2  0.0286  -35.2  0.6425  151.4
 2.900  0.8938  148.5   1.186   12.0  0.0281  -35.7  0.6442  149.1
 3.000  0.8953  146.2   1.151    8.5  0.0277  -36.2  0.6469  146.9
 3.100  0.8928  143.9   1.111    5.6  0.0275  -37.7  0.6463  144.5
 3.200  0.8917  141.6   1.075    2.5  0.0273  -39.2  0.6469  142.1
 3.300  0.8921  139.4   1.042   -0.8  0.0271  -40.7  0.6485  139.8
 3.400  0.8938  137.1   1.012   -4.3  0.0269  -42.2  0.6513  137.4
 3.500  0.8970  134.8   0.987   -8.0  0.0268  -43.8  0.6551  135.1
 3.600  0.8954  132.5   0.954  -10.9  0.0265  -44.1  0.6575  132.6
 3.700  0.8953  130.3   0.924  -13.9  0.0263  -44.5  0.6611  130.2
 3.800  0.8965  128.0   0.897  -17.1  0.0260  -44.9  0.6659  127.8
 3.900  0.8992  125.7   0.873  -20.6  0.0258  -45.2  0.6719  125.4
 4.000  0.9032  123.5   0.852  -24.2  0.0255  -45.6  0.6790  123.1
 4.100  0.9008  121.4   0.827  -27.0  0.0257  -46.4  0.6835  120.5
 4.200  0.8996  119.2   0.804  -30.0  0.0259  -47.2  0.6893  118.0
 4.300  0.8997  117.1   0.783  -33.2  0.0261  -47.9  0.6964  115.6
 4.400  0.9010  114.9   0.765  -36.5  0.0264  -48.7  0.7047  113.2
 4.500  0.9036  112.8   0.750  -40.0  0.0266  -49.4  0.7143  110.8
 4.600  0.9007  110.5   0.728  -43.0  0.0263  -50.3  0.7171  108.1
 4.700  0.8992  108.1   0.709  -46.2  0.0261  -51.3  0.7215  105.4
 4.800  0.8993  105.8   0.692  -49.5  0.0258  -52.2  0.7274  102.8
 4.900  0.9008  103.4   0.677  -53.0  0.0255  -53.2  0.7348  100.2
 5.000  0.9039  101.1   0.665  -56.7  0.0253  -54.2  0.7437   97.7
 5.100  0.8998   98.6   0.645  -59.8  0.0255  -55.6  0.7439   95.4
 5.200  0.8975   96.0   0.627  -63.2  0.0256  -56.9  0.7453   93.0
 5.300  0.8969   93.5   0.611  -66.7  0.0258  -58.3  0.7480   90.7
 5.400  0.8981   90.9   0.597  -70.4  0.0260  -59.6  0.7519   88.4
 5.500  0.9011   88.4   0.586  -74.2  0.0262  -60.9  0.7570   86.1
 5.600  0.8979   85.8   0.566  -77.3  0.0265  -61.9  0.7613   84.3
 5.700  0.8965   83.2   0.547  -80.7  0.0269  -62.9  0.7664   82.5
 5.800  0.8970   80.6   0.531  -84.2  0.0273  -63.9  0.7722   80.8
 5.900  0.8993   78.0   0.517  -88.0  0.0276  -64.8  0.7786   79.1
 6.000  0.9035   75.4   0.505  -92.0  0.0280  -65.7  0.7858   77.4
!
!  f       NFmin   Gammaopt  rn/50
! GHz       dB    MAG  ANG    -
 0.450      2.49  0.31   99   0.34
 0.900      2.11  0.46  151   0.14
 1.500      2.31  0.64  179   0.07
 1.800      2.60  0.67 -174   0.07
 2.600      3.46  0.74 -156   0.20
 3.500      4.21  0.87 -138   0.62
!
! (c) 2015  Infineon Technologies AG, Munich
