! Infineon Technologies  Discrete & RF Semiconductors
! BFQ790
! VCE =  1.0 V,  IC = 0.26 A
! Common Emitter S-Parameters:                            May 2015
# GHz  S  MA  R  50
!  f         S11            S21            S12            S22
! GHz     MAG   ANG      MAG   ANG      MAG   ANG      MAG   ANG
 0.010  0.3368  -48.8  83.306  147.7  0.0050   54.4  0.9024  -63.9
 0.020  0.2786  -77.1  60.695  129.0  0.0072   38.1  0.8812 -102.1
 0.030  0.2571  -86.7  49.959  125.3  0.0075   30.3  0.8211 -115.9
 0.040  0.2439  -97.7  39.546  119.6  0.0080   23.4  0.8144 -130.9
 0.050  0.2405 -109.4  29.797  110.0  0.0086   17.3  0.8622 -145.2
 0.060  0.2498 -111.7  26.992  109.3  0.0089   16.6  0.8550 -148.7
 0.070  0.2594 -113.9  24.193  108.4  0.0092   15.9  0.8511 -152.2
 0.080  0.2694 -115.8  21.401  107.2  0.0094   15.3  0.8504 -155.8
 0.090  0.2797 -117.7  18.620  105.7  0.0097   14.7  0.8530 -159.4
 0.100  0.2903 -119.4  15.857  103.7  0.0100   14.1  0.8589 -162.9
 0.110  0.3041 -120.5  14.891  103.4  0.0099   14.7  0.8573 -164.3
 0.120  0.3179 -121.5  13.925  103.2  0.0099   15.4  0.8562 -165.8
 0.130  0.3319 -122.4  12.959  102.8  0.0098   16.1  0.8557 -167.2
 0.140  0.3459 -123.2  11.994  102.4  0.0098   16.7  0.8557 -168.7
 0.150  0.3600 -124.0  11.030  102.0  0.0097   17.4  0.8562 -170.1
 0.200  0.4341 -127.8   8.636  101.2  0.0103   17.1  0.8599 -173.8
 0.250  0.5014 -131.7   7.196  100.2  0.0107   16.5  0.8580 -176.4
 0.300  0.5580 -136.2   6.199   99.2  0.0110   12.4  0.8575 -178.6
 0.350  0.6049 -140.4   5.579   97.9  0.0115   13.5  0.8575  179.8
 0.400  0.6546 -144.0   4.963   96.3  0.0120   14.6  0.8582  178.3
 0.450  0.6875 -147.5   4.554   94.9  0.0123   12.7  0.8587  177.1
 0.500  0.7226 -150.6   4.149   93.3  0.0126   10.8  0.8595  175.9
 0.600  0.7743 -156.4   3.579   90.3  0.0124   12.7  0.8614  173.6
 0.700  0.8058 -161.3   3.131   87.2  0.0128   15.2  0.8613  171.7
 0.800  0.8378 -165.5   2.803   84.4  0.0127   10.7  0.8590  170.1
 0.900  0.8536 -169.5   2.518   81.5  0.0125    9.7  0.8584  168.4
 1.000  0.8686 -172.8   2.308   79.1  0.0129   13.7  0.8583  166.8
 1.100  0.8782 -176.1   2.116   76.6  0.0132   12.9  0.8571  165.2
 1.200  0.8878 -178.9   1.956   73.9  0.0134   14.1  0.8543  163.8
 1.300  0.8954  178.7   1.826   71.7  0.0135   15.8  0.8527  162.5
 1.400  0.9003  176.6   1.720   69.6  0.0133   15.2  0.8539  161.2
 1.500  0.9027  174.7   1.625   67.3  0.0145   16.1  0.8514  159.7
 1.600  0.9090  172.9   1.548   65.0  0.0142   18.4  0.8502  158.3
 1.700  0.9061  171.1   1.465   63.0  0.0153   16.3  0.8477  157.0
 1.800  0.9127  169.1   1.414   60.4  0.0150   16.5  0.8503  155.5
 1.900  0.9140  167.3   1.360   58.0  0.0157   18.7  0.8510  153.9
 2.000  0.9162  165.5   1.310   55.5  0.0165   16.7  0.8497  152.3
 2.100  0.9172  163.5   1.269   53.1  0.0173   17.6  0.8492  150.6
 2.200  0.9193  161.5   1.231   50.5  0.0181   18.5  0.8495  148.9
 2.300  0.9200  159.4   1.196   47.8  0.0186   17.1  0.8492  146.8
 2.400  0.9220  157.3   1.163   45.0  0.0191   15.7  0.8500  144.8
 2.500  0.9210  155.2   1.131   42.3  0.0198   15.4  0.8483  142.8
 2.600  0.9213  153.0   1.101   39.5  0.0205   15.1  0.8476  140.7
 2.700  0.9206  150.7   1.073   36.7  0.0213   12.8  0.8455  138.4
 2.800  0.9213  148.4   1.047   33.7  0.0221   10.6  0.8449  136.0
 2.900  0.9204  146.1   1.020   30.8  0.0227    9.7  0.8411  133.8
 3.000  0.9211  143.7   0.995   27.7  0.0234    8.8  0.8386  131.5
 3.100  0.9178  141.5   0.968   25.0  0.0240    6.9  0.8333  129.1
 3.200  0.9159  139.2   0.943   22.2  0.0246    5.1  0.8295  126.7
 3.300  0.9155  136.9   0.920   19.3  0.0252    3.4  0.8271  124.3
 3.400  0.9165  134.7   0.900   16.2  0.0258    1.8  0.8263  121.8
 3.500  0.9189  132.4   0.883   13.0  0.0265    0.3  0.8269  119.4
 3.600  0.9168  130.2   0.859   10.4  0.0272   -1.3  0.8253  117.1
 3.700  0.9160  127.9   0.837    7.6  0.0280   -2.9  0.8251  114.7
 3.800  0.9167  125.7   0.818    4.7  0.0288   -4.4  0.8263  112.4
 3.900  0.9188  123.4   0.800    1.7  0.0296   -5.8  0.8289  110.0
 4.000  0.9223  121.2   0.785   -1.5  0.0304   -7.1  0.8328  107.7
 4.100  0.9191  119.1   0.767   -4.2  0.0312   -9.2  0.8330  105.3
 4.200  0.9172  116.9   0.751   -6.9  0.0320  -11.2  0.8347  102.9
 4.300  0.9166  114.8   0.737   -9.8  0.0329  -13.1  0.8378  100.4
 4.400  0.9173  112.6   0.725  -12.8  0.0338  -14.9  0.8424   98.1
 4.500  0.9192  110.5   0.715  -15.9  0.0347  -16.6  0.8485   95.7
 4.600  0.9161  108.2   0.699  -18.8  0.0349  -18.9  0.8466   93.3
 4.700  0.9144  105.9   0.685  -21.8  0.0351  -21.1  0.8463   90.9
 4.800  0.9143  103.5   0.672  -24.9  0.0354  -23.4  0.8474   88.5
 4.900  0.9156  101.2   0.662  -28.1  0.0357  -25.6  0.8500   86.1
 5.000  0.9185   98.9   0.654  -31.4  0.0361  -27.7  0.8541   83.7
 5.100  0.9136   96.4   0.638  -34.4  0.0363  -30.4  0.8510   81.7
 5.200  0.9106   93.8   0.624  -37.5  0.0367  -33.1  0.8490   79.7
 5.300  0.9093   91.3   0.611  -40.8  0.0371  -35.7  0.8479   77.7
 5.400  0.9098   88.7   0.601  -44.2  0.0375  -38.3  0.8479   75.7
 5.500  0.9121   86.2   0.593  -47.7  0.0381  -40.8  0.8490   73.7
 5.600  0.9089   83.6   0.576  -50.7  0.0385  -43.2  0.8507   72.3
 5.700  0.9076   81.1   0.561  -53.9  0.0390  -45.6  0.8530   70.9
 5.800  0.9081   78.5   0.548  -57.2  0.0395  -47.9  0.8558   69.5
 5.900  0.9104   75.9   0.537  -60.7  0.0401  -50.1  0.8590   68.1
 6.000  0.9145   73.4   0.528  -64.3  0.0408  -52.3  0.8628   66.7
!
!  f       NFmin   Gammaopt  rn/50
! GHz       dB    MAG  ANG    -
 0.450      6.29  0.51  143   0.62
 0.900      4.40  0.63  169   0.19
 1.500      3.78  0.73 -172   0.10
 1.800      3.82  0.74 -166   0.12
 2.600      4.01  0.76 -151   0.32
 3.500      4.47  0.84 -134   0.73
!
! (c) 2015  Infineon Technologies AG, Munich
