! Infineon Technologies  Discrete & RF Semiconductors
! BFQ790
! VCE =  1.0 V,  IC =  30 mA
! Common Emitter S-Parameters:                            May 2015
# GHz  S  MA  R  50
!  f         S11            S21            S12            S22
! GHz     MAG   ANG      MAG   ANG      MAG   ANG      MAG   ANG
 0.010  0.6415  -24.5  55.481  159.7  0.0078   68.9  0.9528  -35.4
 0.020  0.5663  -45.0  47.626  143.3  0.0129   55.0  0.8800  -64.5
 0.030  0.4961  -53.5  40.424  138.0  0.0149   44.9  0.7694  -78.9
 0.040  0.4402  -64.5  33.708  130.6  0.0172   37.3  0.7206  -96.6
 0.050  0.4045  -78.0  27.834  119.7  0.0197   31.6  0.7459 -114.9
 0.060  0.3929  -82.0  25.327  118.3  0.0200   29.2  0.7196 -120.4
 0.070  0.3834  -86.2  22.838  116.7  0.0203   26.9  0.7002 -126.2
 0.080  0.3759  -90.5  20.373  114.6  0.0207   24.6  0.6885 -132.3
 0.090  0.3708  -95.1  17.942  112.0  0.0211   22.5  0.6847 -138.5
 0.100  0.3680  -99.7  15.561  108.5  0.0215   20.4  0.6890 -144.7
 0.110  0.3741 -102.0  14.637  108.0  0.0219   20.0  0.6843 -147.1
 0.120  0.3807 -104.1  13.715  107.3  0.0223   19.6  0.6807 -149.4
 0.130  0.3878 -106.2  12.795  106.7  0.0227   19.2  0.6783 -151.9
 0.140  0.3955 -108.3  11.876  105.8  0.0231   18.8  0.6772 -154.3
 0.150  0.4036 -110.2  10.961  104.9  0.0235   18.4  0.6772 -156.7
 0.200  0.4593 -117.5   8.609  102.6  0.0247   17.2  0.6746 -163.1
 0.250  0.5136 -123.5   7.185  100.9  0.0255   14.1  0.6742 -167.1
 0.300  0.5624 -129.2   6.200   99.0  0.0268   12.7  0.6745 -170.2
 0.350  0.6026 -134.3   5.580   97.2  0.0277   11.2  0.6759 -172.4
 0.400  0.6469 -138.7   4.966   95.0  0.0286    9.8  0.6782 -174.6
 0.450  0.6758 -142.7   4.553   93.2  0.0291    8.2  0.6794 -176.2
 0.500  0.7076 -146.3   4.146   91.0  0.0297    6.6  0.6812 -177.8
 0.600  0.7540 -152.5   3.572   87.1  0.0304    4.3  0.6849  179.6
 0.700  0.7838 -157.9   3.121   83.2  0.0310    1.8  0.6868  177.5
 0.800  0.8118 -162.4   2.788   79.6  0.0318   -1.4  0.6878  175.7
 0.900  0.8259 -166.7   2.498   75.9  0.0313   -4.7  0.6887  174.1
 1.000  0.8427 -170.2   2.282   72.9  0.0318   -5.5  0.6910  172.5
 1.100  0.8499 -173.5   2.085   69.5  0.0316   -7.9  0.6914  171.1
 1.200  0.8587 -176.3   1.922   66.2  0.0316   -9.4  0.6911  169.8
 1.300  0.8666 -179.0   1.786   63.3  0.0313  -10.8  0.6924  168.5
 1.400  0.8708  178.7   1.675   60.5  0.0313  -12.0  0.6935  167.2
 1.500  0.8747  176.8   1.575   57.6  0.0313  -13.6  0.6927  166.0
 1.600  0.8806  174.9   1.492   54.7  0.0309  -15.6  0.6948  164.8
 1.700  0.8771  173.1   1.405   52.1  0.0315  -16.7  0.6937  163.6
 1.800  0.8844  171.1   1.350   48.9  0.0311  -18.7  0.6964  162.3
 1.900  0.8868  169.3   1.290   46.1  0.0314  -19.5  0.6982  161.0
 2.000  0.8875  167.4   1.238   43.1  0.0315  -21.6  0.6991  159.5
 2.100  0.8886  165.4   1.192   40.2  0.0314  -22.6  0.7004  157.9
 2.200  0.8908  163.4   1.150   37.1  0.0313  -23.6  0.7022  156.4
 2.300  0.8924  161.3   1.110   34.0  0.0315  -25.6  0.7037  154.6
 2.400  0.8951  159.3   1.074   30.7  0.0317  -27.6  0.7059  152.9
 2.500  0.8944  157.2   1.038   27.7  0.0314  -28.9  0.7070  150.9
 2.600  0.8949  155.0   1.005   24.4  0.0312  -30.2  0.7089  149.0
 2.700  0.8944  152.7   0.973   21.2  0.0314  -32.2  0.7082  146.9
 2.800  0.8953  150.5   0.945   17.8  0.0316  -34.1  0.7085  144.7
 2.900  0.8954  148.0   0.915   14.6  0.0312  -35.1  0.7088  142.4
 3.000  0.8972  145.6   0.889   11.1  0.0308  -36.2  0.7102  140.2
 3.100  0.8945  143.4   0.860    8.2  0.0306  -37.8  0.7079  137.9
 3.200  0.8932  141.1   0.833    5.2  0.0304  -39.4  0.7068  135.5
 3.300  0.8932  138.9   0.809    1.9  0.0302  -41.0  0.7068  133.2
 3.400  0.8946  136.6   0.787   -1.6  0.0300  -42.6  0.7081  130.8
 3.500  0.8974  134.4   0.769   -5.2  0.0299  -44.3  0.7105  128.5
 3.600  0.8960  132.2   0.744   -8.0  0.0296  -45.2  0.7117  126.1
 3.700  0.8959  129.9   0.722  -11.0  0.0294  -46.1  0.7142  123.8
 3.800  0.8972  127.7   0.701  -14.3  0.0292  -47.0  0.7178  121.5
 3.900  0.8999  125.4   0.683  -17.6  0.0289  -47.9  0.7226  119.2
 4.000  0.9040  123.2   0.667  -21.2  0.0287  -48.8  0.7285  116.9
 4.100  0.9013  121.1   0.648  -24.0  0.0289  -49.9  0.7318  114.4
 4.200  0.8998  118.9   0.631  -26.9  0.0291  -50.9  0.7366  111.9
 4.300  0.8996  116.8   0.616  -30.1  0.0293  -52.0  0.7426  109.5
 4.400  0.9007  114.6   0.602  -33.3  0.0295  -53.0  0.7500  107.1
 4.500  0.9030  112.5   0.591  -36.7  0.0297  -54.0  0.7586  104.8
 4.600  0.9001  110.2   0.574  -39.7  0.0294  -55.3  0.7602  102.2
 4.700  0.8988  107.8   0.559  -42.9  0.0292  -56.6  0.7632   99.7
 4.800  0.8989  105.5   0.546  -46.2  0.0289  -58.0  0.7678   97.1
 4.900  0.9006  103.1   0.535  -49.7  0.0287  -59.3  0.7739   94.7
 5.000  0.9037  100.8   0.526  -53.3  0.0285  -60.7  0.7814   92.2
 5.100  0.8991   98.3   0.510  -56.4  0.0284  -62.2  0.7806   90.0
 5.200  0.8962   95.7   0.496  -59.7  0.0283  -63.6  0.7809   87.8
 5.300  0.8951   93.1   0.484  -63.1  0.0283  -65.1  0.7824   85.6
 5.400  0.8959   90.6   0.474  -66.7  0.0282  -66.6  0.7851   83.4
 5.500  0.8984   88.0   0.465  -70.5  0.0282  -68.1  0.7889   81.2
 5.600  0.8956   85.4   0.449  -73.6  0.0283  -69.3  0.7926   79.6
 5.700  0.8946   82.8   0.435  -76.9  0.0283  -70.5  0.7970   78.0
 5.800  0.8955   80.2   0.422  -80.4  0.0284  -71.7  0.8020   76.4
 5.900  0.8982   77.7   0.411  -84.1  0.0285  -72.8  0.8075   74.8
 6.000  0.9027   75.1   0.402  -88.0  0.0286  -74.0  0.8137   73.3
!
!  f       NFmin   Gammaopt  rn/50
! GHz       dB    MAG  ANG    -
 0.450      2.49  0.31   99   0.34
 0.900      2.11  0.46  151   0.14
 1.500      2.31  0.64  179   0.07
 1.800      2.60  0.67 -174   0.07
 2.600      3.46  0.74 -156   0.20
 3.500      4.21  0.87 -138   0.62
!
! (c) 2015  Infineon Technologies AG, Munich
