! Infineon Technologies  Discrete & RF Semiconductors
! BFQ790
! VCE =  3.0 V,  IC = 0.42 A
! Common Emitter S-Parameters:                            May 2015
# GHz  S  MA  R  50
!  f         S11            S21            S12            S22
! GHz     MAG   ANG      MAG   ANG      MAG   ANG      MAG   ANG
 0.010  0.2804  -37.6  83.182  160.0  0.0033   69.5  0.9475  -37.6
 0.020  0.2636  -60.5  71.672  145.4  0.0053   53.4  0.8946  -65.4
 0.030  0.2508  -72.7  61.524  140.0  0.0058   42.4  0.7971  -80.6
 0.040  0.2502  -85.5  52.128  132.6  0.0064   33.4  0.7675  -98.4
 0.050  0.2618  -97.8  43.969  122.2  0.0072   26.2  0.8133 -115.8
 0.060  0.2692 -101.9  40.100  120.8  0.0074   24.7  0.7905 -121.3
 0.070  0.2779 -105.7  36.263  119.0  0.0076   23.3  0.7755 -127.2
 0.080  0.2877 -109.3  32.467  116.9  0.0078   22.0  0.7688 -133.1
 0.090  0.2986 -112.7  28.729  114.1  0.0081   20.7  0.7705 -139.2
 0.100  0.3105 -115.8  25.075  110.6  0.0083   19.5  0.7807 -145.1
 0.110  0.3236 -117.4  23.586  110.0  0.0084   19.3  0.7756 -147.6
 0.120  0.3368 -118.8  22.101  109.3  0.0085   19.2  0.7721 -150.1
 0.130  0.3503 -120.1  20.619  108.4  0.0087   19.0  0.7700 -152.7
 0.140  0.3640 -121.4  19.143  107.5  0.0088   18.9  0.7695 -155.2
 0.150  0.3778 -122.5  17.672  106.4  0.0089   18.7  0.7705 -157.8
 0.200  0.4475 -127.1  13.905  104.3  0.0094   22.2  0.7759 -164.1
 0.250  0.5126 -131.7  11.620  102.5  0.0096   18.4  0.7724 -168.4
 0.300  0.5680 -136.1  10.005  100.9  0.0104   16.8  0.7708 -171.8
 0.350  0.6123 -140.5   9.004   99.3  0.0108   15.9  0.7706 -174.2
 0.400  0.6596 -144.2   8.012   97.2  0.0113   15.0  0.7716 -176.5
 0.450  0.6913 -147.7   7.349   95.6  0.0112   15.3  0.7727 -178.3
 0.500  0.7254 -150.9   6.694   93.6  0.0112   15.7  0.7745  180.0
 0.600  0.7784 -156.7   5.773   90.2  0.0116   15.4  0.7780  177.3
 0.700  0.8062 -161.6   5.043   86.8  0.0121   17.9  0.7765  174.9
 0.800  0.8371 -165.8   4.510   83.7  0.0120   12.4  0.7734  173.0
 0.900  0.8525 -169.9   4.046   80.5  0.0121   13.1  0.7745  171.3
 1.000  0.8666 -173.0   3.704   78.0  0.0118   13.4  0.7753  169.5
 1.100  0.8770 -176.3   3.391   75.1  0.0118   16.6  0.7732  167.7
 1.200  0.8847 -179.2   3.134   72.3  0.0127   14.3  0.7697  166.2
 1.300  0.8911  178.6   2.921   69.9  0.0128   16.7  0.7681  164.9
 1.400  0.8978  176.6   2.745   67.6  0.0125   17.0  0.7695  163.6
 1.500  0.8998  174.6   2.589   65.1  0.0127   18.9  0.7679  162.0
 1.600  0.9054  172.8   2.463   62.6  0.0129   18.4  0.7642  160.6
 1.700  0.9015  171.0   2.327   60.4  0.0140   18.5  0.7611  159.4
 1.800  0.9081  169.0   2.243   57.7  0.0137   17.7  0.7640  157.9
 1.900  0.9088  167.3   2.151   55.2  0.0152   20.1  0.7640  156.3
 2.000  0.9111  165.4   2.072   52.5  0.0157   19.6  0.7607  154.6
 2.100  0.9120  163.4   2.003   49.9  0.0162   19.6  0.7600  153.1
 2.200  0.9140  161.4   1.939   47.2  0.0167   19.6  0.7599  151.5
 2.300  0.9143  159.3   1.879   44.4  0.0173   18.7  0.7589  149.5
 2.400  0.9158  157.3   1.824   41.4  0.0179   17.9  0.7589  147.5
 2.500  0.9156  155.1   1.770   38.6  0.0185   17.6  0.7565  145.6
 2.600  0.9167  152.9   1.721   35.7  0.0192   17.3  0.7550  143.7
 2.700  0.9151  150.7   1.673   32.7  0.0197   15.0  0.7533  141.3
 2.800  0.9150  148.4   1.629   29.6  0.0203   12.8  0.7529  138.9
 2.900  0.9143  146.0   1.584   26.6  0.0211   12.6  0.7495  136.9
 3.000  0.9153  143.6   1.544   23.4  0.0219   12.5  0.7470  134.8
 3.100  0.9122  141.4   1.499   20.7  0.0224   10.5  0.7427  132.4
 3.200  0.9105  139.1   1.458   17.8  0.0230    8.5  0.7398  130.0
 3.300  0.9101  136.9   1.420   14.7  0.0236    6.6  0.7382  127.6
 3.400  0.9112  134.6   1.387   11.5  0.0242    4.9  0.7379  125.1
 3.500  0.9137  132.4   1.359    8.1  0.0248    3.2  0.7389  122.7
 3.600  0.9115  130.2   1.320    5.4  0.0255    1.9  0.7381  120.3
 3.700  0.9108  127.9   1.285    2.6  0.0262    0.6  0.7385  118.0
 3.800  0.9114  125.7   1.252   -0.4  0.0270   -0.6  0.7402  115.6
 3.900  0.9135  123.4   1.224   -3.6  0.0277   -1.7  0.7432  113.2
 4.000  0.9169  121.2   1.199   -6.9  0.0285   -2.8  0.7474  110.9
 4.100  0.9140  119.1   1.169   -9.6  0.0293   -5.1  0.7481  108.5
 4.200  0.9123  117.0   1.142  -12.4  0.0301   -7.3  0.7501  106.2
 4.300  0.9118  114.8   1.118  -15.4  0.0310   -9.4  0.7533  103.8
 4.400  0.9126  112.7   1.098  -18.5  0.0319  -11.3  0.7578  101.5
 4.500  0.9147  110.6   1.080  -21.7  0.0328  -13.2  0.7635   99.2
 4.600  0.9113  108.3   1.054  -24.6  0.0331  -15.3  0.7630   96.8
 4.700  0.9095  105.9   1.031  -27.7  0.0334  -17.3  0.7638   94.4
 4.800  0.9092  103.6   1.011  -30.9  0.0338  -19.3  0.7659   92.0
 4.900  0.9104  101.2   0.994  -34.3  0.0342  -21.3  0.7693   89.6
 5.000  0.9131   98.9   0.981  -37.7  0.0347  -23.2  0.7741   87.3
 5.100  0.9088   96.4   0.955  -40.7  0.0349  -25.9  0.7731   85.3
 5.200  0.9063   93.9   0.932  -43.9  0.0352  -28.6  0.7731   83.2
 5.300  0.9055   91.3   0.913  -47.3  0.0356  -31.2  0.7740   81.2
 5.400  0.9065   88.8   0.896  -50.8  0.0361  -33.8  0.7760   79.1
 5.500  0.9092   86.3   0.883  -54.4  0.0366  -36.3  0.7789   77.1
 5.600  0.9058   83.8   0.857  -57.5  0.0371  -38.6  0.7817   75.6
 5.700  0.9041   81.2   0.833  -60.8  0.0376  -40.8  0.7851   74.1
 5.800  0.9043   78.7   0.813  -64.3  0.0382  -43.0  0.7890   72.7
 5.900  0.9062   76.1   0.795  -67.9  0.0389  -45.1  0.7934   71.2
 6.000  0.9099   73.6   0.781  -71.7  0.0396  -47.1  0.7983   69.8
!
!  f       NFmin   Gammaopt  rn/50
! GHz       dB    MAG  ANG    -
!
! noise parameter not available yet for this operation point!
!
! (c) 2015  Infineon Technologies AG, Munich
