! Infineon Technologies  Discrete & RF Semiconductors
! BFQ790
! VCE =  3.0 V,  IC =  90 mA
! Common Emitter S-Parameters:                            May 2015
# GHz  S  MA  R  50
!  f         S11            S21            S12            S22
! GHz     MAG   ANG      MAG   ANG      MAG   ANG      MAG   ANG
 0.010  0.4514  -25.7  79.008  161.5  0.0040   66.0  0.9289  -33.6
 0.020  0.4136  -47.1  68.879  146.0  0.0072   54.3  0.8838  -62.1
 0.030  0.3717  -57.7  59.034  140.5  0.0083   44.1  0.7794  -77.2
 0.040  0.3454  -70.4  49.945  132.9  0.0096   36.6  0.7417  -95.2
 0.050  0.3382  -84.4  42.107  122.2  0.0111   30.9  0.7806 -113.2
 0.060  0.3349  -88.9  38.373  120.7  0.0113   28.6  0.7548 -118.9
 0.070  0.3338  -93.4  34.671  118.9  0.0116   26.4  0.7371 -125.0
 0.080  0.3347  -98.0  31.011  116.7  0.0119   24.3  0.7279 -131.2
 0.090  0.3377 -102.5  27.411  113.9  0.0122   22.3  0.7276 -137.6
 0.100  0.3428 -106.9  23.897  110.2  0.0125   20.4  0.7362 -143.9
 0.110  0.3526 -109.0  22.482  109.6  0.0126   20.3  0.7314 -146.4
 0.120  0.3627 -110.9  21.070  108.9  0.0127   20.2  0.7280 -148.9
 0.130  0.3733 -112.8  19.662  108.1  0.0129   20.1  0.7260 -151.4
 0.140  0.3843 -114.5  18.257  107.2  0.0130   20.0  0.7253 -153.9
 0.150  0.3956 -116.2  16.858  106.2  0.0131   19.9  0.7261 -156.4
 0.200  0.4582 -122.5  13.262  103.9  0.0144   17.7  0.7245 -163.2
 0.250  0.5170 -127.8  11.073  102.2  0.0144   17.3  0.7229 -167.5
 0.300  0.5701 -132.9   9.551  100.4  0.0153   15.9  0.7228 -170.8
 0.350  0.6122 -137.6   8.594   98.7  0.0160   15.2  0.7232 -173.2
 0.400  0.6579 -141.7   7.647   96.6  0.0168   14.5  0.7249 -175.5
 0.450  0.6885 -145.5   7.015   94.9  0.0172   12.1  0.7252 -177.2
 0.500  0.7219 -148.9   6.390   92.9  0.0176    9.9  0.7262 -178.9
 0.600  0.7691 -154.8   5.508   89.4  0.0176    9.3  0.7293  178.3
 0.700  0.7984 -160.2   4.809   85.8  0.0179    9.3  0.7298  176.0
 0.800  0.8266 -164.4   4.302   82.5  0.0179    5.3  0.7292  174.1
 0.900  0.8424 -168.5   3.858   79.2  0.0175    3.9  0.7296  172.3
 1.000  0.8563 -171.7   3.531   76.4  0.0179    5.2  0.7291  170.6
 1.100  0.8676 -175.2   3.232   73.4  0.0179    5.4  0.7285  169.0
 1.200  0.8738 -178.0   2.984   70.5  0.0181    4.9  0.7269  167.6
 1.300  0.8814  179.5   2.778   67.9  0.0178    2.7  0.7257  166.2
 1.400  0.8863  177.4   2.610   65.4  0.0180    2.8  0.7260  164.8
 1.500  0.8891  175.4   2.460   62.8  0.0181    3.5  0.7239  163.5
 1.600  0.8954  173.6   2.338   60.2  0.0180    2.0  0.7235  162.2
 1.700  0.8905  171.7   2.206   57.9  0.0190    1.7  0.7213  160.9
 1.800  0.8982  169.9   2.123   55.0  0.0183    0.9  0.7219  159.5
 1.900  0.8985  168.1   2.035   52.4  0.0194    1.8  0.7217  158.0
 2.000  0.9010  166.2   1.957   49.6  0.0197    0.2  0.7207  156.5
 2.100  0.9015  164.2   1.890   46.9  0.0201    0.7  0.7203  154.9
 2.200  0.9030  162.2   1.828   44.1  0.0205    1.2  0.7205  153.3
 2.300  0.9034  160.1   1.770   41.2  0.0208   -0.6  0.7198  151.5
 2.400  0.9050  158.1   1.716   38.1  0.0211   -2.4  0.7199  149.6
 2.500  0.9044  155.9   1.663   35.2  0.0214   -2.2  0.7187  147.6
 2.600  0.9052  153.7   1.615   32.1  0.0217   -2.0  0.7184  145.6
 2.700  0.9044  151.5   1.567   29.1  0.0222   -4.1  0.7162  143.5
 2.800  0.9049  149.3   1.524   25.9  0.0228   -6.1  0.7151  141.3
 2.900  0.9043  146.8   1.481   22.8  0.0229   -6.4  0.7132  139.1
 3.000  0.9053  144.4   1.443   19.5  0.0231   -6.6  0.7124  136.8
 3.100  0.9025  142.2   1.399   16.7  0.0235   -8.1  0.7085  134.5
 3.200  0.9011  139.9   1.359   13.8  0.0239   -9.6  0.7058  132.1
 3.300  0.9011  137.7   1.322   10.6  0.0244  -11.1  0.7043  129.7
 3.400  0.9025  135.4   1.290    7.3  0.0248  -12.5  0.7040  127.4
 3.500  0.9052  133.2   1.262    3.9  0.0253  -13.8  0.7049  125.0
 3.600  0.9032  131.0   1.225    1.1  0.0258  -14.7  0.7047  122.7
 3.700  0.9025  128.7   1.191   -1.8  0.0262  -15.7  0.7057  120.4
 3.800  0.9033  126.5   1.160   -4.9  0.0267  -16.5  0.7078  118.1
 3.900  0.9054  124.2   1.133   -8.1  0.0272  -17.4  0.7111  115.8
 4.000  0.9089  122.0   1.109  -11.5  0.0277  -18.2  0.7154  113.6
 4.100  0.9061  119.9   1.080  -14.3  0.0282  -19.7  0.7174  111.2
 4.200  0.9045  117.8   1.055  -17.2  0.0288  -21.2  0.7207  108.8
 4.300  0.9042  115.6   1.032  -20.2  0.0293  -22.6  0.7252  106.5
 4.400  0.9051  113.5   1.012  -23.4  0.0299  -23.9  0.7308  104.2
 4.500  0.9072  111.4   0.995  -26.7  0.0305  -25.2  0.7377  101.9
 4.600  0.9042  109.1   0.970  -29.7  0.0307  -27.2  0.7384   99.4
 4.700  0.9026  106.7   0.947  -32.8  0.0309  -29.1  0.7404   97.0
 4.800  0.9026  104.4   0.928  -36.0  0.0311  -31.1  0.7437   94.6
 4.900  0.9041  102.0   0.911  -39.4  0.0314  -32.9  0.7484   92.2
 5.000  0.9071   99.7   0.898  -42.9  0.0317  -34.8  0.7544   89.8
 5.100  0.9025   97.2   0.874  -46.0  0.0320  -37.1  0.7535   87.7
 5.200  0.8995   94.7   0.852  -49.3  0.0323  -39.3  0.7536   85.6
 5.300  0.8984   92.2   0.834  -52.7  0.0326  -41.5  0.7547   83.5
 5.400  0.8990   89.6   0.818  -56.3  0.0330  -43.6  0.7569   81.4
 5.500  0.9013   87.1   0.806  -60.0  0.0335  -45.7  0.7600   79.3
 5.600  0.8981   84.5   0.781  -63.1  0.0339  -47.8  0.7636   77.7
 5.700  0.8967   82.0   0.758  -66.5  0.0343  -49.8  0.7678   76.2
 5.800  0.8972   79.4   0.739  -70.0  0.0348  -51.8  0.7725   74.7
 5.900  0.8994   76.8   0.722  -73.7  0.0353  -53.7  0.7777   73.2
 6.000  0.9034   74.3   0.708  -77.6  0.0359  -55.6  0.7835   71.7
!
!  f       NFmin   Gammaopt  rn/50
! GHz       dB    MAG  ANG    -
 0.450      3.79  0.38  129   0.39
 0.900      2.73  0.52  163   0.14
 1.500      2.52  0.64 -176   0.07
 1.800      2.64  0.67 -170   0.08
 2.600      3.12  0.72 -153   0.19
 3.500      3.78  0.82 -137   0.46
!
! (c) 2015  Infineon Technologies AG, Munich
