! Infineon Technologies  Discrete & RF Semiconductors
! BFQ790
! VCE =  3.0 V,  IC = 0.14 A
! Common Emitter S-Parameters:                            May 2015
# GHz  S  MA  R  50
!  f         S11            S21            S12            S22
! GHz     MAG   ANG      MAG   ANG      MAG   ANG      MAG   ANG
 0.010  0.3949  -28.5  84.536  160.8  0.0035   64.9  0.9308  -35.5
 0.020  0.3626  -51.9  73.316  144.9  0.0064   53.3  0.8903  -65.5
 0.030  0.3292  -62.9  62.540  139.5  0.0072   44.6  0.7888  -80.8
 0.040  0.3102  -75.8  52.542  132.0  0.0082   37.8  0.7563  -98.9
 0.050  0.3085  -89.6  43.857  121.2  0.0093   32.5  0.8011 -116.7
 0.060  0.3095  -94.0  39.943  119.8  0.0095   29.9  0.7776 -122.3
 0.070  0.3123  -98.2  36.058  118.1  0.0097   27.3  0.7618 -128.1
 0.080  0.3168 -102.4  32.214  115.9  0.0099   24.9  0.7542 -134.1
 0.090  0.3229 -106.5  28.427  113.2  0.0101   22.6  0.7550 -140.2
 0.100  0.3306 -110.4  24.722  109.7  0.0104   20.4  0.7643 -146.2
 0.110  0.3411 -112.3  23.254  109.1  0.0106   20.3  0.7600 -148.6
 0.120  0.3520 -114.0  21.789  108.5  0.0108   20.1  0.7571 -151.0
 0.130  0.3632 -115.7  20.327  107.7  0.0110   20.0  0.7555 -153.4
 0.140  0.3747 -117.2  18.869  106.9  0.0112   19.9  0.7552 -155.8
 0.150  0.3864 -118.7  17.416  105.9  0.0114   19.8  0.7563 -158.2
 0.200  0.4553 -124.4  13.684  103.8  0.0121   18.9  0.7565 -164.6
 0.250  0.5157 -129.3  11.426  102.1  0.0124   18.7  0.7547 -168.8
 0.300  0.5676 -134.1   9.848  100.5  0.0130   15.7  0.7543 -172.0
 0.350  0.6121 -138.8   8.863   98.9  0.0136   14.6  0.7545 -174.3
 0.400  0.6601 -142.8   7.888   96.8  0.0142   13.5  0.7559 -176.6
 0.450  0.6901 -146.5   7.234   95.2  0.0144   12.9  0.7562 -178.3
 0.500  0.7227 -149.9   6.588   93.2  0.0146   12.4  0.7572 -179.9
 0.600  0.7738 -155.6   5.679   89.8  0.0146   11.7  0.7598  177.4
 0.700  0.8024 -160.7   4.961   86.3  0.0152   12.7  0.7597  175.1
 0.800  0.8306 -164.9   4.436   83.2  0.0152    8.0  0.7588  173.2
 0.900  0.8465 -169.2   3.984   80.0  0.0150    9.1  0.7584  171.4
 1.000  0.8626 -172.3   3.643   77.4  0.0152    7.3  0.7582  169.7
 1.100  0.8724 -175.8   3.337   74.5  0.0154    7.5  0.7570  168.0
 1.200  0.8790 -178.5   3.082   71.6  0.0155    8.3  0.7550  166.6
 1.300  0.8858  179.1   2.872   69.1  0.0156    8.2  0.7539  165.2
 1.400  0.8910  176.9   2.699   66.7  0.0155    7.7  0.7535  163.8
 1.500  0.8920  175.1   2.545   64.2  0.0158    8.1  0.7513  162.4
 1.600  0.8998  173.2   2.420   61.7  0.0159    9.1  0.7508  161.1
 1.700  0.8953  171.4   2.288   59.5  0.0169    8.6  0.7476  159.8
 1.800  0.9039  169.5   2.203   56.6  0.0164    9.2  0.7488  158.3
 1.900  0.9018  167.6   2.111   54.1  0.0174    9.6  0.7488  156.8
 2.000  0.9046  165.9   2.032   51.4  0.0180    8.3  0.7472  155.3
 2.100  0.9056  163.8   1.964   48.8  0.0181    8.8  0.7465  153.7
 2.200  0.9077  161.8   1.901   46.0  0.0182    9.2  0.7465  152.0
 2.300  0.9083  159.7   1.842   43.2  0.0189    8.0  0.7456  150.1
 2.400  0.9101  157.7   1.788   40.2  0.0197    6.8  0.7455  148.2
 2.500  0.9093  155.6   1.734   37.3  0.0200    6.4  0.7437  146.2
 2.600  0.9097  153.4   1.685   34.3  0.0203    6.1  0.7428  144.2
 2.700  0.9088  151.2   1.638   31.3  0.0210    3.9  0.7403  142.0
 2.800  0.9093  148.9   1.595   28.2  0.0217    1.9  0.7390  139.7
 2.900  0.9084  146.5   1.550   25.1  0.0223    1.6  0.7364  137.5
 3.000  0.9091  144.1   1.510   21.9  0.0229    1.4  0.7349  135.3
 3.100  0.9059  141.9   1.465   19.2  0.0233   -0.4  0.7305  133.0
 3.200  0.9041  139.6   1.424   16.3  0.0237   -2.2  0.7274  130.6
 3.300  0.9036  137.4   1.387   13.2  0.0242   -3.9  0.7255  128.2
 3.400  0.9046  135.1   1.354   10.0  0.0246   -5.5  0.7249  125.8
 3.500  0.9069  132.9   1.325    6.6  0.0251   -7.1  0.7255  123.4
 3.600  0.9051  130.7   1.287    3.9  0.0257   -8.1  0.7249  121.1
 3.700  0.9047  128.4   1.252    1.0  0.0262   -9.1  0.7255  118.8
 3.800  0.9057  126.2   1.221   -2.1  0.0268  -10.0  0.7273  116.5
 3.900  0.9081  123.9   1.193   -5.3  0.0274  -10.9  0.7303  114.2
 4.000  0.9119  121.7   1.169   -8.6  0.0280  -11.7  0.7344  111.9
 4.100  0.9089  119.6   1.140  -11.3  0.0288  -13.6  0.7358  109.5
 4.200  0.9071  117.5   1.113  -14.2  0.0296  -15.4  0.7385  107.1
 4.300  0.9065  115.3   1.089  -17.2  0.0304  -17.1  0.7425  104.7
 4.400  0.9072  113.2   1.068  -20.4  0.0313  -18.7  0.7477  102.4
 4.500  0.9092  111.1   1.051  -23.6  0.0322  -20.2  0.7542  100.1
 4.600  0.9060  108.8   1.025  -26.6  0.0324  -22.2  0.7542   97.7
 4.700  0.9043  106.4   1.002  -29.7  0.0326  -24.2  0.7555   95.3
 4.800  0.9042  104.1   0.983  -32.9  0.0328  -26.2  0.7581   92.8
 4.900  0.9055  101.7   0.966  -36.2  0.0331  -28.1  0.7621   90.5
 5.000  0.9084   99.4   0.953  -39.7  0.0334  -30.0  0.7674   88.1
 5.100  0.9040   96.9   0.928  -42.8  0.0336  -32.5  0.7662   86.0
 5.200  0.9014   94.4   0.906  -46.0  0.0339  -35.0  0.7659   84.0
 5.300  0.9005   91.8   0.886  -49.4  0.0342  -37.4  0.7666   81.9
 5.400  0.9014   89.3   0.871  -53.0  0.0346  -39.8  0.7684   79.8
 5.500  0.9040   86.8   0.858  -56.6  0.0351  -42.1  0.7711   77.8
 5.600  0.9011   84.3   0.832  -59.7  0.0355  -44.2  0.7743   76.3
 5.700  0.9000   81.7   0.808  -63.0  0.0359  -46.2  0.7780   74.8
 5.800  0.9007   79.2   0.787  -66.5  0.0364  -48.2  0.7823   73.3
 5.900  0.9032   76.6   0.769  -70.2  0.0369  -50.1  0.7870   71.8
 6.000  0.9074   74.1   0.755  -74.0  0.0375  -52.0  0.7923   70.4
!
!  f       NFmin   Gammaopt  rn/50
! GHz       dB    MAG  ANG    -
 0.450      4.62  0.43  137   0.45
 0.900      3.28  0.56  166   0.15
 1.500      2.89  0.67 -174   0.09
 1.800      2.97  0.69 -168   0.09
 2.600      3.31  0.73 -152   0.22
 3.500      3.87  0.83 -136   0.52
!
! (c) 2015  Infineon Technologies AG, Munich
