! Infineon Technologies  Discrete & RF Semiconductors
! BFQ790
! VCE =  5.0 V,  IC = 0.36 A
! Common Emitter S-Parameters:                            May 2015
# GHz  S  MA  R  50
!  f         S11            S21            S12            S22
! GHz     MAG   ANG      MAG   ANG      MAG   ANG      MAG   ANG
 0.010  0.2356  -32.2  72.861  164.5  0.0028   65.2  0.8639  -30.5
 0.020  0.2352  -55.2  65.908  151.5  0.0043   61.1  0.8322  -55.4
 0.030  0.2294  -68.4  57.845  145.6  0.0053   50.4  0.7499  -70.8
 0.040  0.2358  -81.5  50.578  138.0  0.0064   43.2  0.7320  -88.5
 0.050  0.2537  -93.3  44.499  128.0  0.0076   38.2  0.7829 -105.3
 0.060  0.2626  -98.1  40.758  126.2  0.0077   35.5  0.7576 -111.5
 0.070  0.2732 -102.5  37.064  124.1  0.0078   32.9  0.7417 -118.1
 0.080  0.2853 -106.6  33.434  121.4  0.0079   30.4  0.7360 -124.8
 0.090  0.2987 -110.4  29.891  118.2  0.0081   28.0  0.7405 -131.6
 0.100  0.3133 -113.8  26.469  114.1  0.0082   25.6  0.7552 -138.2
 0.110  0.3261 -115.6  24.938  113.3  0.0084   24.1  0.7496 -141.1
 0.120  0.3393 -117.2  23.412  112.4  0.0085   22.6  0.7458 -144.0
 0.130  0.3527 -118.7  21.893  111.4  0.0087   21.2  0.7440 -146.9
 0.140  0.3663 -120.1  20.382  110.2  0.0089   19.8  0.7442 -149.8
 0.150  0.3801 -121.4  18.880  108.9  0.0091   18.5  0.7462 -152.7
 0.200  0.4503 -126.4  14.903  106.1  0.0094   23.0  0.7497 -160.3
 0.250  0.5129 -131.2  12.469  103.9  0.0096   18.8  0.7471 -165.3
 0.300  0.5684 -136.0  10.758  102.0  0.0107   18.4  0.7463 -169.1
 0.350  0.6126 -140.4   9.681  100.2  0.0109   18.3  0.7457 -171.8
 0.400  0.6599 -144.1   8.616   97.9  0.0111   18.3  0.7466 -174.4
 0.450  0.6915 -147.6   7.904   96.2  0.0114   15.3  0.7474 -176.3
 0.500  0.7253 -150.7   7.201   94.1  0.0118   12.4  0.7490 -178.1
 0.600  0.7749 -156.5   6.207   90.5  0.0118   16.7  0.7528  178.7
 0.700  0.8055 -161.5   5.423   86.9  0.0120   16.1  0.7516  176.1
 0.800  0.8351 -165.8   4.850   83.7  0.0125   11.6  0.7493  174.2
 0.900  0.8497 -169.9   4.354   80.5  0.0122   14.5  0.7490  172.3
 1.000  0.8648 -173.0   3.979   77.8  0.0124   13.1  0.7500  170.5
 1.100  0.8742 -176.3   3.643   74.8  0.0122   15.6  0.7491  168.7
 1.200  0.8814 -179.0   3.367   72.0  0.0130   16.1  0.7459  167.2
 1.300  0.8898  178.6   3.137   69.5  0.0129   17.1  0.7445  165.9
 1.400  0.8949  176.5   2.947   67.1  0.0128   14.2  0.7452  164.5
 1.500  0.8961  174.6   2.778   64.6  0.0134   16.4  0.7433  162.9
 1.600  0.9035  172.8   2.643   62.1  0.0136   18.1  0.7408  161.6
 1.700  0.8997  171.0   2.497   59.8  0.0148   18.7  0.7372  160.3
 1.800  0.9069  169.1   2.404   57.0  0.0145   17.3  0.7396  158.9
 1.900  0.9064  167.3   2.306   54.4  0.0155   18.2  0.7394  157.3
 2.000  0.9082  165.5   2.218   51.7  0.0161   17.0  0.7362  155.7
 2.100  0.9090  163.5   2.144   49.1  0.0165   17.8  0.7352  154.2
 2.200  0.9110  161.5   2.075   46.3  0.0170   18.5  0.7347  152.6
 2.300  0.9114  159.4   2.011   43.5  0.0176   16.9  0.7339  150.6
 2.400  0.9130  157.3   1.952   40.5  0.0183   15.5  0.7340  148.6
 2.500  0.9128  155.1   1.893   37.7  0.0187   15.3  0.7317  146.7
 2.600  0.9140  152.9   1.838   34.7  0.0192   15.1  0.7303  144.8
 2.700  0.9124  150.7   1.786   31.7  0.0197   13.5  0.7282  142.5
 2.800  0.9122  148.4   1.740   28.6  0.0203   11.9  0.7274  140.1
 2.900  0.9119  146.0   1.692   25.5  0.0211   11.2  0.7243  138.0
 3.000  0.9131  143.7   1.649   22.3  0.0219   10.6  0.7222  135.9
 3.100  0.9098  141.5   1.600   19.5  0.0224    8.6  0.7182  133.5
 3.200  0.9079  139.2   1.554   16.6  0.0229    6.7  0.7156  131.1
 3.300  0.9074  136.9   1.514   13.5  0.0235    4.9  0.7142  128.7
 3.400  0.9083  134.7   1.477   10.2  0.0240    3.2  0.7140  126.2
 3.500  0.9107  132.4   1.446    6.8  0.0246    1.6  0.7152  123.8
 3.600  0.9086  130.1   1.405    4.1  0.0253    0.3  0.7145  121.4
 3.700  0.9080  127.9   1.366    1.2  0.0259   -0.9  0.7150  119.1
 3.800  0.9087  125.6   1.332   -1.8  0.0266   -2.0  0.7168  116.7
 3.900  0.9109  123.3   1.301   -5.0  0.0273   -3.1  0.7197  114.4
 4.000  0.9145  121.1   1.275   -8.3  0.0280   -4.1  0.7238  112.1
 4.100  0.9115  119.0   1.243  -11.0  0.0288   -6.3  0.7248  109.7
 4.200  0.9098  116.9   1.214  -13.9  0.0297   -8.3  0.7270  107.3
 4.300  0.9093  114.7   1.188  -16.9  0.0306  -10.2  0.7305  104.9
 4.400  0.9101  112.6   1.165  -20.1  0.0315  -12.0  0.7353  102.6
 4.500  0.9121  110.5   1.146  -23.3  0.0325  -13.7  0.7412  100.3
 4.600  0.9090  108.2   1.118  -26.3  0.0327  -15.8  0.7413   97.9
 4.700  0.9074  105.9   1.093  -29.4  0.0330  -17.9  0.7426   95.5
 4.800  0.9073  103.5   1.071  -32.6  0.0333  -19.9  0.7452   93.2
 4.900  0.9087  101.2   1.053  -35.9  0.0337  -21.9  0.7491   90.8
 5.000  0.9116   98.9   1.039  -39.4  0.0341  -23.8  0.7542   88.5
 5.100  0.9069   96.4   1.012  -42.5  0.0344  -26.4  0.7534   86.4
 5.200  0.9040   93.9   0.987  -45.7  0.0348  -28.9  0.7535   84.4
 5.300  0.9028   91.4   0.966  -49.1  0.0352  -31.4  0.7546   82.3
 5.400  0.9034   88.8   0.949  -52.6  0.0357  -33.9  0.7567   80.2
 5.500  0.9058   86.3   0.935  -56.2  0.0363  -36.2  0.7598   78.2
 5.600  0.9027   83.8   0.907  -59.3  0.0368  -38.7  0.7630   76.7
 5.700  0.9015   81.2   0.882  -62.6  0.0373  -41.1  0.7667   75.2
 5.800  0.9020   78.7   0.860  -66.1  0.0379  -43.5  0.7709   73.7
 5.900  0.9042   76.1   0.841  -69.8  0.0386  -45.8  0.7757   72.2
 6.000  0.9083   73.6   0.826  -73.6  0.0393  -48.0  0.7809   70.8
!
!  f       NFmin   Gammaopt  rn/50
! GHz       dB    MAG  ANG    -
!
! noise parameter not available yet for this operation point!
!
! (c) 2015  Infineon Technologies AG, Munich
