! Infineon Technologies  Discrete & RF Semiconductors
! BFR182
! VCE =  5.0 V,  IC =  4.0 mA
! Common Emitter S-Parameters:                            Nov 2015
# GHz  S  MA  R  50
!  f         S11            S21            S12            S22
! GHz     MAG   ANG      MAG   ANG      MAG   ANG      MAG   ANG
 0.010  0.8630   -2.2  11.939  178.1  0.0021   90.9  0.9924   -1.0
 0.015  0.8602   -3.1  11.979  177.0  0.0029   83.9  0.9912   -1.5
 0.020  0.8576   -4.1  12.023  175.9  0.0037   79.9  0.9901   -2.1
 0.025  0.8560   -5.2  12.022  175.0  0.0047   81.2  0.9889   -2.6
 0.030  0.8546   -6.2  12.023  174.1  0.0057   82.0  0.9879   -3.1
 0.035  0.8536   -7.3  12.028  173.2  0.0067   82.6  0.9868   -3.5
 0.040  0.8528   -8.4  12.036  172.3  0.0078   83.0  0.9859   -4.0
 0.045  0.8524   -9.4  12.046  171.4  0.0088   83.3  0.9850   -4.5
 0.050  0.8522  -10.5  12.060  170.5  0.0098   83.6  0.9842   -5.0
 0.055  0.8485  -11.5  11.998  169.7  0.0108   82.9  0.9818   -5.4
 0.060  0.8451  -12.5  11.939  168.8  0.0117   82.2  0.9795   -5.9
 0.065  0.8420  -13.5  11.883  168.0  0.0127   81.7  0.9772   -6.3
 0.070  0.8391  -14.5  11.829  167.1  0.0136   81.3  0.9750   -6.8
 0.075  0.8364  -15.5  11.777  166.3  0.0146   80.9  0.9728   -7.2
 0.080  0.8341  -16.5  11.729  165.4  0.0156   80.5  0.9708   -7.7
 0.085  0.8320  -17.6  11.683  164.6  0.0165   80.2  0.9687   -8.1
 0.090  0.8301  -18.6  11.639  163.7  0.0175   80.0  0.9668   -8.6
 0.095  0.8286  -19.7  11.599  162.8  0.0184   79.7  0.9648   -9.0
 0.100  0.8273  -20.7  11.561  161.9  0.0194   79.5  0.9630   -9.5
 0.105  0.8213  -21.6  11.510  161.0  0.0203   78.7  0.9591   -9.9
 0.110  0.8155  -22.6  11.462  160.0  0.0211   77.9  0.9553  -10.3
 0.115  0.8099  -23.6  11.418  159.1  0.0220   77.2  0.9516  -10.7
 0.120  0.8046  -24.6  11.376  158.1  0.0228   76.6  0.9479  -11.1
 0.125  0.7995  -25.5  11.338  157.1  0.0237   76.0  0.9442  -11.6
 0.130  0.7947  -26.6  11.303  156.2  0.0246   75.5  0.9406  -12.0
 0.135  0.7901  -27.6  11.272  155.2  0.0255   74.9  0.9371  -12.4
 0.140  0.7858  -28.6  11.243  154.2  0.0263   74.5  0.9335  -12.8
 0.145  0.7817  -29.6  11.219  153.2  0.0272   74.0  0.9301  -13.3
 0.150  0.7779  -30.7  11.197  152.2  0.0281   73.6  0.9267  -13.7
 0.155  0.7729  -31.5  11.123  151.5  0.0288   73.2  0.9227  -14.0
 0.160  0.7682  -32.4  11.050  150.8  0.0295   72.8  0.9187  -14.4
 0.165  0.7635  -33.2  10.979  150.1  0.0302   72.5  0.9147  -14.7
 0.170  0.7591  -34.1  10.909  149.4  0.0309   72.1  0.9108  -15.0
 0.175  0.7548  -35.0  10.841  148.7  0.0316   71.8  0.9069  -15.4
 0.180  0.7507  -35.9  10.776  147.9  0.0323   71.5  0.9030  -15.7
 0.185  0.7468  -36.8  10.711  147.2  0.0331   71.2  0.8992  -16.0
 0.190  0.7431  -37.7  10.649  146.4  0.0338   70.9  0.8954  -16.4
 0.195  0.7396  -38.6  10.589  145.7  0.0345   70.7  0.8916  -16.7
 0.200  0.7362  -39.5  10.530  144.9  0.0352   70.4  0.8879  -17.1
 0.220  0.7156  -42.6  10.218  142.2  0.0380   68.5  0.8730  -18.2
 0.240  0.6973  -46.0   9.930  139.4  0.0408   66.8  0.8585  -19.2
 0.260  0.6770  -49.2   9.663  136.7  0.0434   65.7  0.8435  -20.2
 0.280  0.6545  -52.4   9.412  134.2  0.0457   64.8  0.8279  -21.0
 0.300  0.6341  -55.8   9.179  131.5  0.0480   64.1  0.8126  -21.9
 0.320  0.6129  -58.1   8.923  129.8  0.0497   63.3  0.7983  -22.5
 0.340  0.5927  -60.5   8.675  127.9  0.0514   62.6  0.7842  -23.1
 0.360  0.5736  -63.1   8.438  125.9  0.0531   62.0  0.7701  -23.7
 0.380  0.5559  -65.9   8.210  123.9  0.0548   61.4  0.7561  -24.3
 0.400  0.5395  -68.9   7.994  121.7  0.0565   60.8  0.7422  -25.0
 0.420  0.5230  -70.8   7.752  120.2  0.0580   60.4  0.7316  -25.3
 0.440  0.5070  -72.9   7.516  118.6  0.0595   59.9  0.7209  -25.6
 0.450  0.4994  -74.0   7.400  117.8  0.0602   59.7  0.7156  -25.8
 0.460  0.4918  -75.1   7.285  116.9  0.0610   59.5  0.7103  -26.0
 0.480  0.4774  -77.4   7.062  115.1  0.0625   59.2  0.6997  -26.3
 0.500  0.4638  -79.9   6.846  113.2  0.0640   58.8  0.6892  -26.7
 0.520  0.4526  -81.8   6.682  112.0  0.0655   58.6  0.6815  -26.9
 0.540  0.4418  -83.7   6.521  110.7  0.0670   58.3  0.6738  -27.1
 0.560  0.4316  -85.7   6.363  109.4  0.0685   58.1  0.6661  -27.3
 0.580  0.4219  -87.9   6.209  108.0  0.0700   57.9  0.6584  -27.5
 0.600  0.4129  -90.1   6.059  106.5  0.0715   57.7  0.6507  -27.7
 0.620  0.4002  -91.8   5.927  105.4  0.0726   57.7  0.6444  -27.9
 0.640  0.3878  -93.5   5.798  104.3  0.0738   57.7  0.6382  -28.0
 0.660  0.3759  -95.4   5.670  103.1  0.0749   57.6  0.6319  -28.2
 0.680  0.3643  -97.5   5.546  101.8  0.0761   57.6  0.6256  -28.3
 0.700  0.3533  -99.6   5.424  100.5  0.0772   57.6  0.6194  -28.5
 0.720  0.3456 -101.3   5.306   99.6  0.0785   57.6  0.6145  -28.6
 0.740  0.3382 -103.0   5.190   98.6  0.0798   57.6  0.6097  -28.7
 0.760  0.3311 -104.8   5.076   97.5  0.0810   57.6  0.6048  -28.7
 0.780  0.3244 -106.7   4.963   96.4  0.0823   57.6  0.6000  -28.8
 0.800  0.3180 -108.7   4.852   95.3  0.0836   57.6  0.5951  -28.9
 0.820  0.3094 -110.2   4.759   94.5  0.0848   57.7  0.5910  -29.0
 0.840  0.3010 -111.7   4.666   93.6  0.0860   57.9  0.5869  -29.1
 0.860  0.2928 -113.3   4.575   92.6  0.0872   58.0  0.5829  -29.2
 0.880  0.2849 -115.1   4.486   91.7  0.0884   58.1  0.5788  -29.3
 0.900  0.2773 -116.9   4.397   90.7  0.0896   58.2  0.5747  -29.4
 0.920  0.2726 -118.6   4.320   90.0  0.0907   58.2  0.5721  -29.5
 0.940  0.2682 -120.3   4.244   89.3  0.0919   58.2  0.5695  -29.6
 0.960  0.2641 -122.1   4.169   88.5  0.0930   58.3  0.5668  -29.8
 0.980  0.2602 -124.0   4.095   87.7  0.0942   58.3  0.5642  -29.9
 1.000  0.2566 -125.9   4.021   86.9  0.0953   58.3  0.5616  -30.0
 1.020  0.2530 -127.7   3.959   86.2  0.0967   58.4  0.5593  -30.1
 1.040  0.2497 -129.5   3.898   85.5  0.0980   58.5  0.5570  -30.3
 1.060  0.2466 -131.3   3.838   84.8  0.0994   58.5  0.5546  -30.4
 1.080  0.2438 -133.3   3.778   84.1  0.1007   58.6  0.5523  -30.6
 1.100  0.2413 -135.2   3.719   83.3  0.1021   58.7  0.5500  -30.7
 1.120  0.2369 -137.0   3.664   82.6  0.1034   58.8  0.5483  -30.8
 1.140  0.2328 -138.8   3.609   81.9  0.1048   58.9  0.5466  -31.0
 1.160  0.2289 -140.8   3.555   81.2  0.1061   59.0  0.5450  -31.1
 1.180  0.2252 -142.8   3.501   80.5  0.1075   59.1  0.5433  -31.3
 1.200  0.2219 -144.8   3.448   79.7  0.1088   59.2  0.5416  -31.4
 1.220  0.2200 -146.3   3.399   79.1  0.1101   59.2  0.5398  -31.5
 1.240  0.2183 -147.8   3.350   78.6  0.1114   59.2  0.5381  -31.7
 1.260  0.2168 -149.3   3.301   78.0  0.1127   59.2  0.5363  -31.8
 1.280  0.2154 -150.8   3.253   77.3  0.1140   59.2  0.5346  -32.0
 1.300  0.2141 -152.4   3.205   76.7  0.1153   59.2  0.5328  -32.1
 1.320  0.2115 -154.1   3.164   76.1  0.1165   59.3  0.5315  -32.3
 1.340  0.2091 -155.8   3.124   75.5  0.1178   59.4  0.5302  -32.5
 1.360  0.2070 -157.6   3.084   74.9  0.1190   59.6  0.5289  -32.7
 1.380  0.2050 -159.4   3.044   74.3  0.1203   59.7  0.5276  -32.9
 1.400  0.2032 -161.3   3.005   73.6  0.1215   59.8  0.5263  -33.1
 1.420  0.2018 -162.6   2.974   73.0  0.1230   59.8  0.5248  -33.3
 1.440  0.2006 -163.9   2.943   72.5  0.1244   59.9  0.5234  -33.5
 1.460  0.1994 -165.3   2.912   71.9  0.1259   59.9  0.5219  -33.6
 1.480  0.1983 -166.6   2.881   71.3  0.1273   60.0  0.5204  -33.8
 1.500  0.1974 -168.0   2.851   70.7  0.1288   60.0  0.5190  -34.0
 1.520  0.1969 -170.1   2.817   70.1  0.1302   60.0  0.5177  -34.2
 1.540  0.1967 -172.2   2.783   69.5  0.1316   60.0  0.5164  -34.3
 1.560  0.1967 -174.3   2.750   68.8  0.1331   60.0  0.5151  -34.5
 1.580  0.1970 -176.4   2.717   68.2  0.1345   60.0  0.5138  -34.6
 1.600  0.1976 -178.5   2.684   67.5  0.1359   60.0  0.5125  -34.8
 1.620  0.1966  179.9   2.658   67.0  0.1374   60.1  0.5109  -35.0
 1.640  0.1958  178.2   2.632   66.5  0.1389   60.2  0.5092  -35.2
 1.660  0.1952  176.6   2.606   65.9  0.1404   60.2  0.5076  -35.5
 1.680  0.1947  174.9   2.580   65.4  0.1419   60.3  0.5060  -35.7
 1.700  0.1944  173.2   2.555   64.8  0.1434   60.4  0.5044  -35.9
 1.720  0.1956  171.9   2.530   64.3  0.1449   60.4  0.5034  -36.1
 1.740  0.1970  170.6   2.505   63.9  0.1464   60.3  0.5025  -36.4
 1.760  0.1984  169.4   2.481   63.4  0.1480   60.3  0.5016  -36.6
 1.780  0.2000  168.1   2.456   62.9  0.1495   60.2  0.5006  -36.9
 1.800  0.2016  166.9   2.432   62.4  0.1510   60.2  0.4997  -37.1
 1.820  0.2027  165.7   2.411   61.9  0.1525   60.2  0.4988  -37.4
 1.840  0.2039  164.6   2.391   61.4  0.1540   60.2  0.4979  -37.7
 1.860  0.2052  163.4   2.371   60.9  0.1555   60.2  0.4970  -37.9
 1.880  0.2066  162.3   2.351   60.3  0.1570   60.2  0.4962  -38.2
 1.900  0.2080  161.2   2.331   59.8  0.1585   60.2  0.4953  -38.5
 1.920  0.2092  160.0   2.309   59.3  0.1601   60.1  0.4945  -38.7
 1.940  0.2105  158.8   2.287   58.8  0.1616   60.0  0.4937  -39.0
 1.960  0.2119  157.7   2.265   58.3  0.1632   60.0  0.4929  -39.2
 1.980  0.2134  156.5   2.243   57.7  0.1647   59.9  0.4922  -39.5
 2.000  0.2150  155.4   2.222   57.2  0.1663   59.8  0.4914  -39.7
 2.020  0.2158  154.2   2.205   56.8  0.1680   59.8  0.4901  -40.0
 2.040  0.2166  152.9   2.188   56.3  0.1696   59.8  0.4888  -40.2
 2.060  0.2175  151.7   2.171   55.8  0.1713   59.8  0.4875  -40.5
 2.080  0.2186  150.5   2.155   55.4  0.1729   59.8  0.4863  -40.8
 2.100  0.2197  149.3   2.138   54.9  0.1746   59.7  0.4850  -41.1
 2.120  0.2210  148.2   2.122   54.4  0.1763   59.7  0.4838  -41.4
 2.140  0.2223  147.0   2.106   53.9  0.1779   59.7  0.4825  -41.6
 2.160  0.2237  145.9   2.090   53.4  0.1796   59.7  0.4813  -41.9
 2.180  0.2252  144.7   2.074   52.9  0.1812   59.7  0.4801  -42.2
 2.200  0.2268  143.6   2.058   52.4  0.1829   59.7  0.4789  -42.5
 2.220  0.2283  142.7   2.043   52.0  0.1845   59.6  0.4778  -42.8
 2.240  0.2299  141.7   2.029   51.5  0.1862   59.5  0.4766  -43.1
 2.260  0.2315  140.8   2.015   51.1  0.1878   59.4  0.4755  -43.4
 2.280  0.2332  139.9   2.000   50.6  0.1894   59.4  0.4745  -43.7
 2.300  0.2350  139.0   1.986   50.1  0.1910   59.3  0.4734  -44.0
 2.320  0.2368  138.1   1.972   49.7  0.1927   59.2  0.4723  -44.3
 2.340  0.2387  137.2   1.959   49.2  0.1943   59.1  0.4713  -44.7
 2.360  0.2406  136.4   1.945   48.7  0.1959   59.0  0.4702  -45.0
 2.380  0.2426  135.5   1.931   48.2  0.1976   59.0  0.4692  -45.3
 2.400  0.2446  134.7   1.918   47.7  0.1992   58.9  0.4682  -45.6
 2.420  0.2468  133.8   1.906   47.3  0.2010   58.8  0.4666  -45.9
 2.440  0.2490  132.9   1.894   46.9  0.2028   58.7  0.4650  -46.2
 2.460  0.2512  132.1   1.882   46.5  0.2046   58.6  0.4635  -46.5
 2.480  0.2536  131.2   1.870   46.0  0.2064   58.5  0.4619  -46.9
 2.500  0.2559  130.4   1.859   45.6  0.2082   58.4  0.4604  -47.2
 2.520  0.2584  129.6   1.847   45.2  0.2100   58.3  0.4588  -47.5
 2.540  0.2609  128.8   1.836   44.7  0.2118   58.2  0.4573  -47.8
 2.560  0.2634  128.0   1.824   44.3  0.2136   58.1  0.4558  -48.1
 2.580  0.2660  127.3   1.813   43.9  0.2154   58.0  0.4544  -48.5
 2.600  0.2686  126.5   1.802   43.4  0.2172   57.9  0.4529  -48.8
 2.620  0.2704  125.8   1.792   43.0  0.2190   57.8  0.4518  -49.2
 2.640  0.2722  125.2   1.781   42.6  0.2208   57.7  0.4507  -49.5
 2.660  0.2741  124.5   1.771   42.2  0.2225   57.6  0.4497  -49.9
 2.680  0.2760  123.9   1.761   41.8  0.2243   57.4  0.4487  -50.3
 2.700  0.2779  123.3   1.751   41.4  0.2261   57.3  0.4477  -50.7
 2.720  0.2799  122.7   1.741   41.0  0.2279   57.2  0.4467  -51.1
 2.740  0.2818  122.1   1.731   40.6  0.2297   57.1  0.4457  -51.4
 2.760  0.2839  121.5   1.721   40.2  0.2314   57.0  0.4447  -51.8
 2.780  0.2859  120.9   1.712   39.7  0.2332   56.9  0.4438  -52.2
 2.800  0.2880  120.3   1.702   39.3  0.2350   56.8  0.4429  -52.6
 2.820  0.2903  119.7   1.693   38.9  0.2368   56.7  0.4411  -53.0
 2.840  0.2926  119.1   1.683   38.5  0.2386   56.5  0.4394  -53.4
 2.860  0.2949  118.6   1.674   38.1  0.2404   56.4  0.4376  -53.7
 2.880  0.2972  118.0   1.665   37.6  0.2422   56.3  0.4359  -54.1
 2.900  0.2996  117.4   1.656   37.2  0.2440   56.1  0.4342  -54.5
 2.920  0.3020  116.9   1.647   36.8  0.2458   56.0  0.4325  -54.9
 2.940  0.3044  116.4   1.639   36.3  0.2477   55.9  0.4309  -55.3
 2.960  0.3069  115.8   1.630   35.9  0.2495   55.7  0.4292  -55.7
 2.980  0.3094  115.3   1.621   35.5  0.2513   55.6  0.4276  -56.1
 3.000  0.3119  114.8   1.613   35.0  0.2531   55.5  0.4260  -56.5
 3.100  0.3236  112.4   1.574   33.3  0.2626   54.6  0.4171  -58.7
 3.200  0.3358  110.1   1.536   31.5  0.2722   53.7  0.4088  -61.1
 3.300  0.3484  108.0   1.499   29.6  0.2819   52.9  0.4012  -63.5
 3.400  0.3616  106.0   1.465   27.6  0.2916   52.2  0.3944  -66.0
 3.500  0.3751  104.2   1.432   25.5  0.3013   51.5  0.3883  -68.6
 3.600  0.3861  102.5   1.403   23.8  0.3111   50.4  0.3785  -71.5
 3.700  0.3974  100.8   1.374   22.1  0.3210   49.4  0.3698  -74.6
 3.800  0.4091   99.3   1.348   20.3  0.3310   48.4  0.3622  -77.9
 3.900  0.4210   97.8   1.322   18.4  0.3410   47.5  0.3558  -81.2
 4.000  0.4332   96.4   1.298   16.5  0.3512   46.7  0.3507  -84.7
 4.100  0.4433   94.9   1.274   15.0  0.3612   45.4  0.3412  -88.2
 4.200  0.4537   93.5   1.251   13.4  0.3713   44.2  0.3330  -91.9
 4.300  0.4644   92.1   1.229   11.8  0.3815   43.1  0.3263  -95.8
 4.400  0.4753   90.8   1.208   10.1  0.3920   42.0  0.3211  -99.8
 4.500  0.4864   89.6   1.188    8.3  0.4025   41.0  0.3176 -103.9
 4.600  0.4943   88.3   1.169    6.9  0.4121   39.6  0.3096 -107.9
 4.700  0.5025   87.1   1.150    5.4  0.4219   38.3  0.3032 -112.0
 4.800  0.5109   85.9   1.133    3.8  0.4319   37.1  0.2985 -116.4
 4.900  0.5195   84.7   1.116    2.2  0.4421   35.9  0.2955 -120.8
 5.000  0.5283   83.6   1.100    0.6  0.4525   34.8  0.2943 -125.3
 5.100  0.5365   82.5   1.081   -0.7  0.4612   33.3  0.2898 -129.9
 5.200  0.5449   81.3   1.063   -1.9  0.4703   31.9  0.2871 -134.5
 5.300  0.5535   80.3   1.045   -3.3  0.4795   30.6  0.2864 -139.2
 5.400  0.5622   79.2   1.028   -4.7  0.4891   29.3  0.2876 -144.0
 5.500  0.5712   78.2   1.011   -6.1  0.4989   28.0  0.2907 -148.6
 5.600  0.5787   77.1   0.993   -7.3  0.5051   26.4  0.2860 -153.0
 5.700  0.5863   76.0   0.975   -8.6  0.5117   24.8  0.2830 -157.5
 5.800  0.5942   74.9   0.957   -9.9  0.5186   23.3  0.2819 -162.1
 5.900  0.6023   73.8   0.940  -11.3  0.5259   21.8  0.2825 -166.7
 6.000  0.6106   72.8   0.924  -12.7  0.5336   20.4  0.2850 -171.3
!
!  f       NFmin   Gammaopt  rn/50
! GHz       dB    MAG  ANG    -
!
! noise parameter not available yet for this operation point!
!
! (c) 2015  Infineon Technologies AG, Munich
