! Infineon Technologies  Discrete & RF Semiconductors
! BFR106
! VCE =  3.5 V,  IC =  3.0 mA
! Common Emitter S-Parameters:                            Nov 2015
# GHz  S  MA  R  50
!  f         S11            S21            S12            S22
! GHz     MAG   ANG      MAG   ANG      MAG   ANG      MAG   ANG
 0.010  0.9030   -7.4  10.255  174.7  0.0065   86.9  0.9955   -2.8
 0.015  0.8969  -10.9  10.228  172.9  0.0099   85.2  0.9915   -4.1
 0.020  0.8941  -14.4  10.212  171.1  0.0133   84.4  0.9880   -5.4
 0.025  0.8818  -17.7  10.079  169.0  0.0163   80.2  0.9802   -6.6
 0.030  0.8725  -21.1   9.961  166.8  0.0194   77.3  0.9729   -7.8
 0.035  0.8664  -24.5   9.857  164.6  0.0225   75.2  0.9660   -9.1
 0.040  0.8634  -28.0   9.768  162.3  0.0257   73.6  0.9596  -10.3
 0.045  0.8636  -31.5   9.695  160.0  0.0288   72.4  0.9537  -11.6
 0.050  0.8670  -35.0   9.637  157.7  0.0320   71.4  0.9482  -12.9
 0.055  0.8521  -37.7   9.476  156.2  0.0342   69.2  0.9374  -13.8
 0.060  0.8391  -40.5   9.322  154.7  0.0364   67.2  0.9268  -14.7
 0.065  0.8283  -43.4   9.176  153.1  0.0387   65.4  0.9165  -15.6
 0.070  0.8196  -46.4   9.036  151.4  0.0411   63.9  0.9063  -16.5
 0.075  0.8132  -49.4   8.904  149.7  0.0434   62.5  0.8965  -17.4
 0.080  0.8091  -52.5   8.781  148.0  0.0458   61.3  0.8868  -18.4
 0.085  0.8073  -55.6   8.665  146.2  0.0482   60.2  0.8775  -19.4
 0.090  0.8078  -58.7   8.559  144.3  0.0506   59.2  0.8684  -20.4
 0.095  0.8107  -61.8   8.461  142.4  0.0530   58.2  0.8595  -21.4
 0.100  0.8159  -64.8   8.373  140.5  0.0554   57.4  0.8510  -22.5
 0.105  0.8042  -67.0   8.220  139.3  0.0567   56.1  0.8407  -23.0
 0.110  0.7936  -69.2   8.071  138.0  0.0581   54.8  0.8305  -23.6
 0.115  0.7842  -71.4   7.926  136.7  0.0595   53.6  0.8203  -24.1
 0.120  0.7761  -73.8   7.785  135.3  0.0609   52.5  0.8103  -24.7
 0.125  0.7694  -76.1   7.649  133.9  0.0624   51.4  0.8003  -25.3
 0.130  0.7639  -78.6   7.518  132.4  0.0638   50.4  0.7904  -25.9
 0.135  0.7598  -81.0   7.392  130.9  0.0653   49.4  0.7806  -26.5
 0.140  0.7572  -83.5   7.271  129.3  0.0668   48.5  0.7709  -27.2
 0.145  0.7559  -85.9   7.156  127.7  0.0684   47.6  0.7613  -27.8
 0.150  0.7560  -88.4   7.047  126.0  0.0699   46.7  0.7518  -28.5
 0.155  0.7498  -90.1   6.933  125.2  0.0707   46.0  0.7443  -28.8
 0.160  0.7443  -91.8   6.821  124.3  0.0715   45.3  0.7367  -29.1
 0.165  0.7395  -93.5   6.710  123.5  0.0723   44.7  0.7292  -29.3
 0.170  0.7353  -95.2   6.601  122.6  0.0731   44.1  0.7217  -29.6
 0.175  0.7318  -97.0   6.494  121.6  0.0739   43.4  0.7143  -29.9
 0.180  0.7290  -98.7   6.388  120.7  0.0747   42.8  0.7068  -30.2
 0.185  0.7269 -100.5   6.284  119.7  0.0756   42.2  0.6994  -30.5
 0.190  0.7255 -102.3   6.182  118.7  0.0764   41.6  0.6920  -30.8
 0.195  0.7248 -104.1   6.083  117.6  0.0772   41.1  0.6846  -31.2
 0.200  0.7248 -105.9   5.985  116.5  0.0781   40.5  0.6772  -31.5
 0.220  0.7087 -111.4   5.613  113.5  0.0802   38.6  0.6536  -32.2
 0.240  0.6994 -117.1   5.259  110.1  0.0824   36.9  0.6302  -33.0
 0.260  0.6913 -122.1   4.949  107.2  0.0839   35.5  0.6109  -33.6
 0.280  0.6819 -126.3   4.676  104.9  0.0849   34.6  0.5958  -34.2
 0.300  0.6763 -130.6   4.410  102.3  0.0858   33.7  0.5807  -34.7
 0.320  0.6695 -133.8   4.217  100.8  0.0864   33.1  0.5700  -35.0
 0.340  0.6648 -137.1   4.027   99.1  0.0871   32.6  0.5594  -35.3
 0.360  0.6623 -140.4   3.840   97.2  0.0877   32.1  0.5487  -35.6
 0.380  0.6620 -143.7   3.659   95.2  0.0883   31.5  0.5381  -35.9
 0.400  0.6639 -147.0   3.482   92.9  0.0890   31.0  0.5275  -36.2
 0.420  0.6604 -149.1   3.348   91.6  0.0893   31.0  0.5221  -36.5
 0.440  0.6578 -151.2   3.215   90.2  0.0896   31.0  0.5167  -36.9
 0.450  0.6568 -152.2   3.149   89.4  0.0897   31.1  0.5140  -37.0
 0.460  0.6560 -153.3   3.084   88.7  0.0899   31.1  0.5113  -37.2
 0.480  0.6552 -155.4   2.956   87.0  0.0902   31.1  0.5059  -37.5
 0.500  0.6552 -157.5   2.831   85.2  0.0905   31.1  0.5006  -37.9
 0.520  0.6530 -159.3   2.745   84.0  0.0908   31.4  0.4976  -38.4
 0.540  0.6515 -161.2   2.659   82.8  0.0910   31.7  0.4946  -38.8
 0.560  0.6506 -163.1   2.575   81.5  0.0913   31.9  0.4917  -39.3
 0.580  0.6505 -164.9   2.493   80.1  0.0915   32.2  0.4888  -39.8
 0.600  0.6510 -166.8   2.412   78.6  0.0918   32.5  0.4859  -40.3
 0.620  0.6499 -168.3   2.350   77.6  0.0921   33.0  0.4838  -40.9
 0.640  0.6492 -169.7   2.288   76.5  0.0923   33.5  0.4817  -41.4
 0.660  0.6490 -171.2   2.227   75.4  0.0926   34.1  0.4796  -42.0
 0.680  0.6491 -172.6   2.168   74.2  0.0929   34.6  0.4776  -42.6
 0.700  0.6497 -174.1   2.109   72.9  0.0932   35.1  0.4757  -43.2
 0.720  0.6494 -175.3   2.058   72.0  0.0936   35.7  0.4739  -43.8
 0.740  0.6493 -176.6   2.007   71.1  0.0939   36.4  0.4721  -44.3
 0.760  0.6496 -177.8   1.957   70.1  0.0943   37.0  0.4704  -44.9
 0.780  0.6502 -179.1   1.907   69.1  0.0947   37.6  0.4687  -45.5
 0.800  0.6511  179.7   1.858   68.0  0.0951   38.2  0.4671  -46.1
 0.820  0.6505  178.6   1.819   67.1  0.0958   39.1  0.4660  -46.7
 0.840  0.6502  177.4   1.780   66.2  0.0964   40.0  0.4649  -47.3
 0.860  0.6502  176.3   1.741   65.2  0.0971   40.8  0.4639  -48.0
 0.880  0.6504  175.1   1.703   64.2  0.0979   41.7  0.4630  -48.6
 0.900  0.6509  174.0   1.666   63.2  0.0986   42.5  0.4621  -49.2
 0.920  0.6508  173.0   1.635   62.4  0.0993   43.2  0.4617  -49.9
 0.940  0.6509  171.9   1.604   61.5  0.1000   44.0  0.4614  -50.7
 0.960  0.6513  170.9   1.574   60.7  0.1008   44.7  0.4612  -51.4
 0.980  0.6518  169.8   1.544   59.7  0.1015   45.4  0.4611  -52.2
 1.000  0.6526  168.8   1.515   58.8  0.1023   46.1  0.4610  -52.9
 1.020  0.6535  167.8   1.490   58.0  0.1034   47.0  0.4604  -53.7
 1.040  0.6546  166.7   1.466   57.2  0.1046   47.8  0.4599  -54.5
 1.060  0.6559  165.7   1.441   56.4  0.1057   48.6  0.4594  -55.2
 1.080  0.6574  164.6   1.418   55.5  0.1069   49.4  0.4591  -56.0
 1.100  0.6591  163.6   1.394   54.6  0.1081   50.2  0.4588  -56.8
 1.120  0.6597  162.7   1.374   53.9  0.1095   51.0  0.4584  -57.6
 1.140  0.6604  161.8   1.353   53.1  0.1110   51.8  0.4582  -58.4
 1.160  0.6613  161.0   1.333   52.4  0.1125   52.5  0.4580  -59.3
 1.180  0.6623  160.1   1.314   51.6  0.1140   53.3  0.4579  -60.1
 1.200  0.6635  159.2   1.294   50.8  0.1155   54.0  0.4579  -60.9
 1.220  0.6638  158.4   1.275   50.2  0.1174   54.6  0.4575  -61.7
 1.240  0.6643  157.7   1.257   49.5  0.1192   55.2  0.4572  -62.5
 1.260  0.6649  156.9   1.239   48.8  0.1211   55.8  0.4570  -63.2
 1.280  0.6656  156.2   1.221   48.1  0.1230   56.4  0.4569  -64.0
 1.300  0.6664  155.4   1.203   47.4  0.1249   56.9  0.4568  -64.8
 1.320  0.6675  154.6   1.187   46.8  0.1270   57.5  0.4569  -65.7
 1.340  0.6688  153.8   1.171   46.1  0.1291   58.1  0.4572  -66.6
 1.360  0.6702  153.0   1.155   45.5  0.1313   58.7  0.4575  -67.4
 1.380  0.6717  152.2   1.139   44.8  0.1334   59.3  0.4579  -68.3
 1.400  0.6734  151.4   1.124   44.1  0.1356   59.8  0.4585  -69.2
 1.420  0.6731  150.6   1.113   43.5  0.1380   60.2  0.4579  -70.1
 1.440  0.6729  149.8   1.102   43.0  0.1404   60.6  0.4575  -71.0
 1.460  0.6728  149.0   1.091   42.4  0.1428   61.0  0.4572  -71.8
 1.480  0.6729  148.2   1.081   41.8  0.1452   61.4  0.4569  -72.7
 1.500  0.6731  147.4   1.070   41.2  0.1476   61.8  0.4568  -73.6
 1.520  0.6742  146.7   1.056   40.6  0.1503   62.1  0.4563  -74.5
 1.540  0.6753  146.0   1.042   39.9  0.1531   62.3  0.4559  -75.4
 1.560  0.6766  145.3   1.028   39.2  0.1558   62.6  0.4557  -76.3
 1.580  0.6779  144.6   1.015   38.5  0.1586   62.9  0.4555  -77.2
 1.600  0.6794  143.9   1.001   37.8  0.1613   63.1  0.4555  -78.1
 1.620  0.6804  143.1   0.992   37.2  0.1643   63.4  0.4546  -79.0
 1.640  0.6814  142.4   0.982   36.7  0.1674   63.6  0.4539  -80.0
 1.660  0.6826  141.6   0.973   36.1  0.1704   63.8  0.4532  -80.9
 1.680  0.6840  140.9   0.964   35.5  0.1735   64.1  0.4527  -81.9
 1.700  0.6854  140.1   0.955   34.9  0.1765   64.3  0.4523  -82.8
 1.720  0.6873  139.4   0.946   34.5  0.1796   64.3  0.4526  -83.7
 1.740  0.6893  138.6   0.937   34.0  0.1827   64.3  0.4529  -84.6
 1.760  0.6914  137.9   0.928   33.5  0.1859   64.4  0.4534  -85.5
 1.780  0.6936  137.2   0.920   33.1  0.1890   64.4  0.4540  -86.4
 1.800  0.6959  136.5   0.911   32.6  0.1921   64.4  0.4547  -87.3
 1.820  0.6961  135.9   0.903   32.1  0.1956   64.4  0.4553  -88.3
 1.840  0.6964  135.2   0.896   31.5  0.1990   64.4  0.4560  -89.4
 1.860  0.6967  134.6   0.888   31.0  0.2025   64.5  0.4569  -90.4
 1.880  0.6972  133.9   0.880   30.5  0.2059   64.5  0.4580  -91.5
 1.900  0.6977  133.3   0.873   29.9  0.2094   64.5  0.4592  -92.5
 1.920  0.6977  132.7   0.864   29.5  0.2128   64.4  0.4590  -93.5
 1.940  0.6978  132.0   0.856   29.1  0.2162   64.3  0.4589  -94.6
 1.960  0.6979  131.4   0.847   28.7  0.2196   64.2  0.4590  -95.6
 1.980  0.6982  130.7   0.839   28.2  0.2230   64.1  0.4592  -96.7
 2.000  0.6985  130.1   0.830   27.8  0.2264   64.0  0.4596  -97.7
 2.020  0.6995  129.5   0.824   27.4  0.2301   63.8  0.4593  -98.7
 2.040  0.7007  128.9   0.817   27.0  0.2337   63.6  0.4592  -99.7
 2.060  0.7019  128.2   0.811   26.6  0.2374   63.5  0.4592 -100.7
 2.080  0.7031  127.6   0.805   26.2  0.2411   63.3  0.4594 -101.8
 2.100  0.7045  127.0   0.798   25.8  0.2448   63.1  0.4597 -102.8
 2.120  0.7059  126.4   0.792   25.4  0.2485   63.0  0.4602 -103.8
 2.140  0.7075  125.8   0.786   24.9  0.2521   62.8  0.4608 -104.8
 2.160  0.7091  125.2   0.780   24.5  0.2558   62.7  0.4615 -105.8
 2.180  0.7107  124.6   0.774   24.0  0.2595   62.5  0.4624 -106.8
 2.200  0.7125  124.0   0.768   23.6  0.2632   62.4  0.4634 -107.8
 2.220  0.7127  123.4   0.763   23.3  0.2670   62.1  0.4633 -109.0
 2.240  0.7130  122.7   0.758   23.0  0.2708   61.8  0.4633 -110.1
 2.260  0.7134  122.1   0.753   22.6  0.2747   61.5  0.4636 -111.3
 2.280  0.7139  121.4   0.748   22.3  0.2785   61.2  0.4640 -112.4
 2.300  0.7145  120.8   0.744   22.0  0.2823   61.0  0.4647 -113.6
 2.320  0.7151  120.1   0.739   21.6  0.2862   60.7  0.4655 -114.7
 2.340  0.7159  119.5   0.734   21.3  0.2900   60.4  0.4665 -115.9
 2.360  0.7167  118.9   0.729   20.9  0.2939   60.2  0.4677 -117.0
 2.380  0.7177  118.2   0.725   20.6  0.2977   59.9  0.4690 -118.2
 2.400  0.7187  117.6   0.720   20.2  0.3016   59.7  0.4706 -119.3
 2.420  0.7196  117.0   0.716   20.0  0.3052   59.3  0.4703 -120.3
 2.440  0.7206  116.4   0.711   19.7  0.3087   58.9  0.4702 -121.4
 2.460  0.7217  115.8   0.707   19.5  0.3123   58.6  0.4703 -122.4
 2.480  0.7228  115.3   0.703   19.2  0.3159   58.2  0.4705 -123.5
 2.500  0.7241  114.7   0.699   19.0  0.3195   57.9  0.4708 -124.5
 2.520  0.7254  114.1   0.695   18.7  0.3231   57.5  0.4713 -125.6
 2.540  0.7267  113.5   0.690   18.5  0.3267   57.2  0.4720 -126.6
 2.560  0.7282  112.9   0.686   18.2  0.3304   56.8  0.4728 -127.6
 2.580  0.7297  112.4   0.682   18.0  0.3340   56.5  0.4738 -128.7
 2.600  0.7313  111.8   0.678   17.7  0.3377   56.2  0.4749 -129.7
 2.620  0.7313  111.3   0.675   17.5  0.3413   55.8  0.4753 -130.9
 2.640  0.7313  110.8   0.671   17.3  0.3448   55.4  0.4759 -132.0
 2.660  0.7314  110.3   0.668   17.1  0.3484   54.9  0.4766 -133.2
 2.680  0.7315  109.8   0.665   16.9  0.3520   54.5  0.4776 -134.4
 2.700  0.7317  109.2   0.661   16.7  0.3556   54.2  0.4788 -135.5
 2.720  0.7319  108.7   0.658   16.5  0.3593   53.8  0.4801 -136.7
 2.740  0.7322  108.2   0.655   16.3  0.3629   53.4  0.4817 -137.8
 2.760  0.7326  107.7   0.652   16.1  0.3666   53.0  0.4834 -139.0
 2.780  0.7330  107.2   0.648   15.9  0.3703   52.7  0.4854 -140.1
 2.800  0.7335  106.7   0.645   15.7  0.3740   52.3  0.4875 -141.2
 2.820  0.7342  106.2   0.643   15.5  0.3774   51.8  0.4879 -142.3
 2.840  0.7349  105.7   0.640   15.3  0.3808   51.4  0.4885 -143.3
 2.860  0.7357  105.2   0.638   15.1  0.3843   51.0  0.4893 -144.4
 2.880  0.7365  104.8   0.635   14.8  0.3877   50.5  0.4902 -145.5
 2.900  0.7374  104.3   0.633   14.6  0.3912   50.1  0.4913 -146.5
 2.920  0.7383  103.8   0.630   14.4  0.3948   49.7  0.4926 -147.6
 2.940  0.7393  103.3   0.628   14.2  0.3983   49.3  0.4940 -148.6
 2.960  0.7403  102.9   0.626   14.0  0.4018   48.9  0.4956 -149.6
 2.980  0.7414  102.4   0.623   13.7  0.4054   48.5  0.4974 -150.7
 3.000  0.7425  101.9   0.621   13.5  0.4090   48.1  0.4993 -151.7
 3.100  0.7427   99.8   0.613   12.8  0.4223   45.6  0.4998 -157.1
 3.200  0.7439   97.8   0.605   12.0  0.4363   43.2  0.5047 -162.4
 3.300  0.7460   95.7   0.597   11.3  0.4511   41.0  0.5138 -167.6
 3.400  0.7490   93.7   0.590   10.5  0.4665   38.9  0.5269 -172.5
 3.500  0.7530   91.7   0.582    9.7  0.4824   37.0  0.5438 -177.2
 3.600  0.7534   90.1   0.579    9.0  0.4905   34.7  0.5467  178.1
 3.700  0.7545   88.5   0.575    8.4  0.4994   32.4  0.5533  173.4
 3.800  0.7561   86.9   0.572    7.7  0.5090   30.2  0.5635  168.9
 3.900  0.7583   85.4   0.569    7.0  0.5194   28.1  0.5770  164.5
 4.000  0.7610   83.8   0.566    6.3  0.5304   26.1  0.5937  160.4
 4.100  0.7590   82.5   0.565    5.4  0.5339   24.1  0.5949  156.7
 4.200  0.7575   81.2   0.564    4.5  0.5380   22.1  0.5986  153.0
 4.300  0.7563   79.9   0.563    3.7  0.5427   20.1  0.6047  149.4
 4.400  0.7555   78.6   0.562    2.8  0.5481   18.2  0.6132  145.8
 4.500  0.7551   77.3   0.561    1.9  0.5541   16.3  0.6240  142.4
 4.600  0.7555   76.3   0.561    1.0  0.5557   14.7  0.6246  139.4
 4.700  0.7561   75.3   0.561    0.2  0.5578   13.1  0.6269  136.4
 4.800  0.7570   74.2   0.561   -0.7  0.5604   11.5  0.6309  133.5
 4.900  0.7581   73.2   0.561   -1.5  0.5633    9.9  0.6365  130.6
 5.000  0.7595   72.2   0.561   -2.4  0.5667    8.3  0.6438  127.7
 5.100  0.7569   71.2   0.560   -2.5  0.5677    7.5  0.6385  126.7
 5.200  0.7546   70.1   0.559   -2.6  0.5689    6.7  0.6335  125.6
 5.300  0.7525   69.0   0.559   -2.7  0.5701    5.9  0.6286  124.6
 5.400  0.7507   68.0   0.558   -2.8  0.5714    5.2  0.6240  123.5
 5.500  0.7492   66.9   0.557   -2.9  0.5729    4.4  0.6196  122.4
 5.600  0.7484   66.2   0.560   -4.1  0.5769    2.8  0.6310  119.9
 5.700  0.7478   65.5   0.563   -5.3  0.5814    1.2  0.6435  117.6
 5.800  0.7472   64.7   0.567   -6.4  0.5863   -0.4  0.6571  115.3
 5.900  0.7468   64.0   0.570   -7.6  0.5917   -2.0  0.6717  113.1
 6.000  0.7465   63.3   0.574   -8.7  0.5975   -3.5  0.6872  111.0
!
!  f       NFmin   Gammaopt  rn/50
! GHz       dB    MAG  ANG    -
!
! noise parameter not available yet for this operation point!
!
! (c) 2015  Infineon Technologies AG, Munich
