! Infineon Technologies  Discrete & RF Semiconductors
! BFR182
! VCE =  1.7 V,  IC =  10 mA
! Common Emitter S-Parameters:                            Nov 2015
# GHz  S  MA  R  50
!  f         S11            S21            S12            S22
! GHz     MAG   ANG      MAG   ANG      MAG   ANG      MAG   ANG
 0.010  0.6792   -4.3  23.798  176.5  0.0018   91.0  0.9790   -1.9
 0.015  0.6764   -6.3  23.686  174.7  0.0028   86.5  0.9728   -2.8
 0.020  0.6744   -8.3  23.598  172.8  0.0038   84.3  0.9669   -3.8
 0.025  0.6694  -10.2  23.484  171.2  0.0048   83.3  0.9635   -4.7
 0.030  0.6653  -12.2  23.388  169.6  0.0058   82.6  0.9603   -5.6
 0.035  0.6619  -14.2  23.311  167.9  0.0068   82.1  0.9573   -6.5
 0.040  0.6593  -16.2  23.253  166.3  0.0078   81.8  0.9546   -7.4
 0.045  0.6576  -18.3  23.214  164.7  0.0088   81.5  0.9521   -8.4
 0.050  0.6567  -20.3  23.195  163.0  0.0098   81.3  0.9499   -9.3
 0.055  0.6475  -22.0  22.908  161.7  0.0106   80.1  0.9420  -10.0
 0.060  0.6389  -23.7  22.634  160.3  0.0115   79.1  0.9342  -10.7
 0.065  0.6309  -25.4  22.373  158.9  0.0123   78.2  0.9266  -11.4
 0.070  0.6234  -27.2  22.125  157.5  0.0131   77.4  0.9191  -12.1
 0.075  0.6166  -29.0  21.891  156.1  0.0140   76.7  0.9117  -12.9
 0.080  0.6105  -30.9  21.671  154.6  0.0148   76.1  0.9046  -13.6
 0.085  0.6050  -32.8  21.466  153.1  0.0157   75.6  0.8975  -14.4
 0.090  0.6001  -34.7  21.277  151.6  0.0165   75.1  0.8907  -15.1
 0.095  0.5960  -36.7  21.102  150.0  0.0174   74.7  0.8839  -15.9
 0.100  0.5926  -38.7  20.944  148.4  0.0182   74.3  0.8774  -16.7
 0.105  0.5831  -40.0  20.644  147.3  0.0188   73.6  0.8691  -17.2
 0.110  0.5740  -41.4  20.352  146.1  0.0195   73.0  0.8609  -17.6
 0.115  0.5652  -42.8  20.068  144.9  0.0201   72.4  0.8528  -18.1
 0.120  0.5568  -44.3  19.794  143.7  0.0207   71.8  0.8447  -18.6
 0.125  0.5487  -45.8  19.529  142.4  0.0214   71.3  0.8367  -19.1
 0.130  0.5410  -47.3  19.274  141.1  0.0220   70.8  0.8287  -19.6
 0.135  0.5337  -48.9  19.029  139.8  0.0227   70.3  0.8208  -20.2
 0.140  0.5269  -50.5  18.794  138.4  0.0233   69.8  0.8130  -20.7
 0.145  0.5205  -52.2  18.570  137.0  0.0240   69.4  0.8053  -21.2
 0.150  0.5145  -53.9  18.358  135.6  0.0246   69.0  0.7976  -21.8
 0.155  0.5073  -55.0  18.105  134.8  0.0251   68.7  0.7903  -22.0
 0.160  0.5003  -56.2  17.855  134.0  0.0257   68.5  0.7830  -22.3
 0.165  0.4935  -57.3  17.609  133.2  0.0262   68.2  0.7758  -22.6
 0.170  0.4869  -58.6  17.367  132.3  0.0268   68.0  0.7685  -22.8
 0.175  0.4805  -59.8  17.129  131.4  0.0273   67.7  0.7613  -23.1
 0.180  0.4744  -61.1  16.895  130.5  0.0279   67.5  0.7541  -23.4
 0.185  0.4685  -62.4  16.666  129.6  0.0284   67.3  0.7469  -23.6
 0.190  0.4629  -63.7  16.441  128.6  0.0290   67.1  0.7397  -23.9
 0.195  0.4575  -65.1  16.221  127.6  0.0295   66.9  0.7325  -24.2
 0.200  0.4524  -66.5  16.006  126.6  0.0301   66.7  0.7254  -24.5
 0.220  0.4283  -70.5  15.123  124.0  0.0320   66.1  0.7029  -25.1
 0.240  0.4066  -75.0  14.275  121.0  0.0339   65.5  0.6806  -25.7
 0.260  0.3867  -79.2  13.526  118.4  0.0357   65.3  0.6609  -26.1
 0.280  0.3679  -83.0  12.859  116.2  0.0374   65.4  0.6440  -26.3
 0.300  0.3509  -87.3  12.213  113.7  0.0390   65.4  0.6271  -26.5
 0.320  0.3363  -90.0  11.710  112.3  0.0406   65.4  0.6148  -26.5
 0.340  0.3226  -93.0  11.215  110.8  0.0422   65.5  0.6025  -26.5
 0.360  0.3098  -96.2  10.728  109.2  0.0437   65.5  0.5902  -26.6
 0.380  0.2980  -99.7  10.251  107.4  0.0453   65.6  0.5779  -26.6
 0.400  0.2874 -103.4   9.785  105.4  0.0469   65.6  0.5656  -26.6
 0.420  0.2772 -105.9   9.424  104.2  0.0485   65.8  0.5579  -26.5
 0.440  0.2676 -108.5   9.066  103.0  0.0501   66.0  0.5503  -26.4
 0.450  0.2630 -109.9   8.889  102.3  0.0509   66.1  0.5464  -26.4
 0.460  0.2585 -111.3   8.714  101.6  0.0517   66.2  0.5426  -26.3
 0.480  0.2502 -114.4   8.366  100.2  0.0533   66.3  0.5350  -26.2
 0.500  0.2426 -117.6   8.025   98.6  0.0549   66.5  0.5273  -26.1
 0.520  0.2374 -119.7   7.787   97.7  0.0566   66.6  0.5228  -26.1
 0.540  0.2325 -121.9   7.551   96.7  0.0582   66.7  0.5183  -26.1
 0.560  0.2280 -124.1   7.318   95.7  0.0599   66.8  0.5137  -26.0
 0.580  0.2238 -126.5   7.086   94.7  0.0615   66.9  0.5092  -26.0
 0.600  0.2200 -128.9   6.858   93.5  0.0632   67.0  0.5047  -26.0
 0.620  0.2156 -131.1   6.678   92.7  0.0649   67.1  0.5015  -26.0
 0.640  0.2115 -133.3   6.499   91.8  0.0666   67.2  0.4982  -26.0
 0.660  0.2078 -135.7   6.321   91.0  0.0682   67.3  0.4950  -26.0
 0.680  0.2044 -138.1   6.145   90.0  0.0699   67.4  0.4917  -26.0
 0.700  0.2014 -140.6   5.971   89.0  0.0716   67.5  0.4885  -26.0
 0.720  0.1988 -142.7   5.827   88.3  0.0733   67.5  0.4862  -26.0
 0.740  0.1965 -144.9   5.684   87.5  0.0749   67.6  0.4839  -26.0
 0.760  0.1945 -147.1   5.542   86.7  0.0766   67.6  0.4817  -26.1
 0.780  0.1928 -149.3   5.402   85.9  0.0782   67.7  0.4794  -26.1
 0.800  0.1914 -151.6   5.262   85.0  0.0799   67.7  0.4771  -26.1
 0.820  0.1884 -153.5   5.152   84.4  0.0817   67.7  0.4752  -26.2
 0.840  0.1856 -155.4   5.042   83.7  0.0835   67.7  0.4733  -26.2
 0.860  0.1831 -157.4   4.933   83.0  0.0852   67.7  0.4713  -26.3
 0.880  0.1808 -159.5   4.824   82.3  0.0870   67.7  0.4694  -26.3
 0.900  0.1787 -161.6   4.717   81.5  0.0888   67.7  0.4675  -26.4
 0.920  0.1782 -163.3   4.630   80.9  0.0905   67.7  0.4660  -26.5
 0.940  0.1779 -165.0   4.543   80.3  0.0922   67.8  0.4646  -26.6
 0.960  0.1777 -166.8   4.456   79.7  0.0938   67.8  0.4631  -26.7
 0.980  0.1777 -168.5   4.370   79.1  0.0955   67.9  0.4617  -26.8
 1.000  0.1778 -170.2   4.285   78.4  0.0972   67.9  0.4602  -26.9
 1.020  0.1783 -171.9   4.215   77.9  0.0989   67.9  0.4589  -27.1
 1.040  0.1791 -173.6   4.146   77.3  0.1007   67.9  0.4576  -27.2
 1.060  0.1799 -175.3   4.077   76.7  0.1024   67.8  0.4563  -27.4
 1.080  0.1809 -177.0   4.009   76.1  0.1042   67.8  0.4551  -27.5
 1.100  0.1821 -178.6   3.941   75.5  0.1059   67.8  0.4538  -27.7
 1.120  0.1823  179.6   3.879   74.9  0.1076   67.8  0.4528  -27.9
 1.140  0.1828  177.9   3.817   74.3  0.1094   67.8  0.4519  -28.1
 1.160  0.1833  176.1   3.756   73.7  0.1111   67.7  0.4509  -28.2
 1.180  0.1841  174.4   3.695   73.1  0.1129   67.7  0.4500  -28.4
 1.200  0.1850  172.7   3.635   72.4  0.1146   67.7  0.4490  -28.6
 1.220  0.1841  171.6   3.580   71.9  0.1164   67.6  0.4482  -28.8
 1.240  0.1833  170.5   3.525   71.5  0.1181   67.5  0.4473  -29.0
 1.260  0.1826  169.4   3.470   71.0  0.1199   67.5  0.4465  -29.1
 1.280  0.1819  168.3   3.415   70.5  0.1216   67.4  0.4456  -29.3
 1.300  0.1813  167.2   3.361   70.0  0.1234   67.3  0.4448  -29.5
 1.320  0.1824  165.7   3.316   69.5  0.1251   67.2  0.4440  -29.8
 1.340  0.1835  164.2   3.271   69.0  0.1268   67.2  0.4433  -30.0
 1.360  0.1848  162.7   3.227   68.5  0.1286   67.1  0.4426  -30.3
 1.380  0.1863  161.2   3.183   67.9  0.1303   67.1  0.4418  -30.5
 1.400  0.1878  159.8   3.139   67.4  0.1320   67.0  0.4411  -30.8
 1.420  0.1885  158.9   3.105   66.9  0.1338   66.9  0.4403  -31.0
 1.440  0.1893  157.9   3.070   66.4  0.1356   66.7  0.4394  -31.2
 1.460  0.1901  157.0   3.036   65.9  0.1375   66.6  0.4386  -31.4
 1.480  0.1909  156.1   3.003   65.4  0.1393   66.4  0.4378  -31.6
 1.500  0.1918  155.2   2.969   64.9  0.1411   66.3  0.4370  -31.8
 1.520  0.1934  154.0   2.932   64.3  0.1429   66.2  0.4361  -32.0
 1.540  0.1952  152.8   2.895   63.8  0.1447   66.1  0.4353  -32.3
 1.560  0.1970  151.7   2.858   63.2  0.1465   65.9  0.4345  -32.5
 1.580  0.1988  150.5   2.822   62.6  0.1483   65.8  0.4336  -32.8
 1.600  0.2008  149.4   2.786   62.0  0.1501   65.7  0.4328  -33.0
 1.620  0.2022  148.4   2.756   61.6  0.1519   65.6  0.4316  -33.3
 1.640  0.2036  147.4   2.727   61.1  0.1538   65.5  0.4305  -33.5
 1.660  0.2051  146.4   2.698   60.6  0.1556   65.4  0.4294  -33.8
 1.680  0.2067  145.4   2.669   60.2  0.1575   65.3  0.4282  -34.0
 1.700  0.2083  144.4   2.640   59.7  0.1593   65.2  0.4271  -34.3
 1.720  0.2102  143.5   2.616   59.3  0.1610   65.1  0.4262  -34.6
 1.740  0.2122  142.5   2.592   58.8  0.1628   64.9  0.4254  -34.9
 1.760  0.2143  141.6   2.568   58.4  0.1645   64.8  0.4245  -35.2
 1.780  0.2164  140.8   2.544   58.0  0.1663   64.6  0.4237  -35.5
 1.800  0.2185  139.9   2.521   57.5  0.1680   64.5  0.4229  -35.8
 1.820  0.2197  139.3   2.498   57.1  0.1700   64.4  0.4219  -36.1
 1.840  0.2209  138.6   2.476   56.6  0.1719   64.3  0.4208  -36.4
 1.860  0.2221  138.0   2.453   56.1  0.1739   64.2  0.4198  -36.7
 1.880  0.2234  137.4   2.431   55.7  0.1758   64.1  0.4188  -37.0
 1.900  0.2247  136.8   2.409   55.2  0.1778   64.0  0.4178  -37.3
 1.920  0.2263  136.0   2.386   54.7  0.1796   63.8  0.4170  -37.6
 1.940  0.2279  135.3   2.363   54.3  0.1813   63.6  0.4161  -37.9
 1.960  0.2296  134.5   2.341   53.8  0.1831   63.4  0.4153  -38.2
 1.980  0.2313  133.8   2.318   53.3  0.1848   63.3  0.4145  -38.5
 2.000  0.2330  133.1   2.296   52.8  0.1866   63.1  0.4137  -38.8
 2.020  0.2348  132.4   2.277   52.4  0.1885   62.9  0.4125  -39.1
 2.040  0.2366  131.7   2.259   52.0  0.1904   62.8  0.4114  -39.4
 2.060  0.2385  131.0   2.240   51.6  0.1923   62.6  0.4102  -39.8
 2.080  0.2403  130.4   2.222   51.2  0.1942   62.5  0.4091  -40.1
 2.100  0.2423  129.7   2.203   50.7  0.1961   62.3  0.4079  -40.4
 2.120  0.2442  129.1   2.185   50.3  0.1980   62.2  0.4068  -40.8
 2.140  0.2462  128.4   2.167   49.9  0.1999   62.0  0.4057  -41.1
 2.160  0.2482  127.8   2.149   49.4  0.2018   61.9  0.4046  -41.4
 2.180  0.2502  127.2   2.132   49.0  0.2037   61.7  0.4036  -41.8
 2.200  0.2523  126.6   2.114   48.5  0.2056   61.6  0.4025  -42.1
 2.220  0.2538  126.0   2.100   48.1  0.2075   61.4  0.4012  -42.4
 2.240  0.2554  125.4   2.086   47.6  0.2093   61.2  0.3999  -42.8
 2.260  0.2569  124.8   2.072   47.2  0.2112   61.1  0.3986  -43.1
 2.280  0.2585  124.3   2.058   46.8  0.2131   60.9  0.3973  -43.4
 2.300  0.2601  123.7   2.044   46.3  0.2149   60.7  0.3960  -43.8
 2.320  0.2618  123.2   2.031   45.9  0.2168   60.5  0.3948  -44.1
 2.340  0.2635  122.6   2.017   45.4  0.2187   60.4  0.3935  -44.5
 2.360  0.2651  122.1   2.004   44.9  0.2205   60.2  0.3923  -44.8
 2.380  0.2669  121.5   1.991   44.5  0.2224   60.1  0.3911  -45.2
 2.400  0.2686  121.0   1.978   44.0  0.2243   59.9  0.3899  -45.5
 2.420  0.2709  120.4   1.965   43.6  0.2262   59.7  0.3883  -45.9
 2.440  0.2733  119.8   1.952   43.3  0.2281   59.5  0.3868  -46.3
 2.460  0.2757  119.2   1.939   42.9  0.2299   59.3  0.3852  -46.6
 2.480  0.2781  118.6   1.926   42.5  0.2318   59.1  0.3837  -47.0
 2.500  0.2806  118.0   1.913   42.1  0.2337   58.9  0.3822  -47.4
 2.520  0.2831  117.5   1.900   41.7  0.2356   58.7  0.3807  -47.8
 2.540  0.2856  116.9   1.887   41.3  0.2375   58.5  0.3793  -48.2
 2.560  0.2881  116.4   1.875   40.9  0.2394   58.4  0.3778  -48.6
 2.580  0.2907  115.8   1.862   40.5  0.2413   58.2  0.3764  -49.0
 2.600  0.2933  115.3   1.850   40.1  0.2432   58.0  0.3750  -49.4
 2.620  0.2951  114.9   1.840   39.7  0.2451   57.8  0.3735  -49.8
 2.640  0.2970  114.5   1.829   39.4  0.2471   57.6  0.3721  -50.2
 2.660  0.2989  114.1   1.819   39.0  0.2490   57.4  0.3706  -50.6
 2.680  0.3008  113.7   1.809   38.6  0.2510   57.2  0.3692  -51.0
 2.700  0.3027  113.3   1.799   38.3  0.2529   57.0  0.3678  -51.4
 2.720  0.3046  112.9   1.788   37.9  0.2549   56.8  0.3664  -51.8
 2.740  0.3065  112.5   1.778   37.5  0.2568   56.6  0.3650  -52.2
 2.760  0.3085  112.1   1.769   37.1  0.2588   56.5  0.3636  -52.7
 2.780  0.3104  111.8   1.759   36.7  0.2607   56.3  0.3623  -53.1
 2.800  0.3124  111.4   1.749   36.3  0.2627   56.1  0.3610  -53.5
 2.820  0.3146  111.0   1.739   35.9  0.2646   55.9  0.3593  -53.9
 2.840  0.3168  110.6   1.729   35.5  0.2665   55.7  0.3576  -54.3
 2.860  0.3191  110.2   1.719   35.1  0.2684   55.5  0.3559  -54.8
 2.880  0.3213  109.8   1.709   34.7  0.2703   55.3  0.3543  -55.2
 2.900  0.3236  109.4   1.699   34.3  0.2722   55.1  0.3526  -55.6
 2.920  0.3259  109.1   1.690   33.9  0.2741   54.9  0.3510  -56.1
 2.940  0.3281  108.7   1.680   33.5  0.2760   54.7  0.3494  -56.5
 2.960  0.3304  108.3   1.671   33.1  0.2779   54.5  0.3479  -57.0
 2.980  0.3328  108.0   1.661   32.6  0.2798   54.3  0.3463  -57.4
 3.000  0.3351  107.6   1.652   32.2  0.2817   54.1  0.3448  -57.9
 3.100  0.3471  105.8   1.611   30.5  0.2911   52.9  0.3344  -60.4
 3.200  0.3595  104.2   1.571   28.8  0.3006   51.8  0.3247  -63.0
 3.300  0.3721  102.7   1.532   26.9  0.3103   50.8  0.3157  -65.8
 3.400  0.3849  101.2   1.496   24.9  0.3200   49.8  0.3075  -68.7
 3.500  0.3980   99.9   1.461   22.9  0.3298   48.9  0.3001  -71.8
 3.600  0.4083   98.4   1.431   21.3  0.3391   47.6  0.2893  -75.1
 3.700  0.4189   96.9   1.403   19.6  0.3485   46.4  0.2795  -78.7
 3.800  0.4298   95.5   1.376   17.9  0.3581   45.2  0.2709  -82.4
 3.900  0.4409   94.2   1.350   16.1  0.3678   44.1  0.2636  -86.5
 4.000  0.4522   92.9   1.325   14.2  0.3776   43.1  0.2576  -90.7
 4.100  0.4625   91.7   1.300   12.7  0.3864   41.7  0.2480  -94.8
 4.200  0.4729   90.6   1.276   11.2  0.3954   40.4  0.2399  -99.2
 4.300  0.4835   89.6   1.253    9.6  0.4046   39.1  0.2332 -103.9
 4.400  0.4943   88.6   1.231    7.9  0.4140   37.9  0.2282 -108.9
 4.500  0.5052   87.6   1.210    6.2  0.4236   36.8  0.2250 -114.0
 4.600  0.5134   86.4   1.190    4.8  0.4319   35.5  0.2193 -118.8
 4.700  0.5218   85.2   1.171    3.3  0.4403   34.2  0.2153 -123.8
 4.800  0.5303   84.1   1.153    1.8  0.4490   32.9  0.2130 -129.0
 4.900  0.5391   83.0   1.136    0.3  0.4579   31.7  0.2125 -134.3
 5.000  0.5481   82.0   1.119   -1.3  0.4670   30.6  0.2137 -139.5
 5.100  0.5555   80.9   1.099   -2.5  0.4743   29.2  0.2122 -144.8
 5.200  0.5632   79.8   1.080   -3.8  0.4819   27.8  0.2126 -150.2
 5.300  0.5710   78.8   1.062   -5.1  0.4898   26.5  0.2149 -155.5
 5.400  0.5790   77.8   1.043   -6.4  0.4979   25.2  0.2189 -160.6
 5.500  0.5872   76.8   1.026   -7.8  0.5063   24.0  0.2246 -165.5
 5.600  0.5942   75.7   1.009   -9.0  0.5115   22.5  0.2237 -170.3
 5.700  0.6014   74.6   0.992  -10.3  0.5170   21.0  0.2244 -175.1
 5.800  0.6088   73.5   0.976  -11.6  0.5229   19.5  0.2266 -179.9
 5.900  0.6164   72.4   0.961  -13.0  0.5291   18.1  0.2304  175.5
 6.000  0.6242   71.4   0.946  -14.4  0.5356   16.7  0.2356  171.0
!
!  f       NFmin   Gammaopt  rn/50
! GHz       dB    MAG  ANG    -
!
! noise parameter not available yet for this operation point!
!
! (c) 2015  Infineon Technologies AG, Munich
