! Infineon Technologies  Discrete & RF Semiconductors
! BFR106
! VCE =  3.5 V,  IC =  20 mA
! Common Emitter S-Parameters:                            Nov 2015
# GHz  S  MA  R  50
!  f         S11            S21            S12            S22
! GHz     MAG   ANG      MAG   ANG      MAG   ANG      MAG   ANG
 0.010  0.5542  -20.8  45.381  168.1  0.0054   83.8  0.9650  -10.2
 0.015  0.5408  -30.6  43.990  163.3  0.0078   79.0  0.9385  -14.8
 0.020  0.5436  -40.5  42.929  158.2  0.0102   76.5  0.9184  -19.7
 0.025  0.5198  -47.3  40.882  155.2  0.0118   71.9  0.8781  -22.5
 0.030  0.5040  -54.7  38.963  151.8  0.0135   68.3  0.8400  -25.5
 0.035  0.4969  -62.4  37.191  148.1  0.0152   65.6  0.8044  -28.8
 0.040  0.4990  -70.2  35.589  144.1  0.0169   63.4  0.7718  -32.4
 0.045  0.5102  -77.8  34.180  139.6  0.0186   61.7  0.7425  -36.3
 0.050  0.5298  -84.9  32.990  134.9  0.0204   60.2  0.7169  -40.5
 0.055  0.5185  -88.6  31.721  133.6  0.0213   59.3  0.6906  -41.6
 0.060  0.5094  -92.5  30.469  132.1  0.0222   58.5  0.6646  -42.8
 0.065  0.5027  -96.5  29.239  130.6  0.0231   57.7  0.6390  -44.2
 0.070  0.4986 -100.6  28.032  128.9  0.0240   57.0  0.6137  -45.6
 0.075  0.4970 -104.7  26.851  127.1  0.0250   56.4  0.5888  -47.1
 0.080  0.4980 -108.8  25.701  125.1  0.0259   55.7  0.5644  -48.8
 0.085  0.5016 -112.9  24.584  122.9  0.0268   55.2  0.5405  -50.6
 0.090  0.5077 -116.9  23.508  120.5  0.0277   54.7  0.5172  -52.6
 0.095  0.5162 -120.8  22.476  117.9  0.0287   54.2  0.4946  -54.8
 0.100  0.5270 -124.6  21.495  115.0  0.0296   53.7  0.4728  -57.2
 0.105  0.5231 -126.5  20.848  114.2  0.0301   53.6  0.4598  -57.7
 0.110  0.5198 -128.3  20.205  113.4  0.0307   53.6  0.4469  -58.3
 0.115  0.5171 -130.2  19.566  112.6  0.0312   53.5  0.4340  -58.9
 0.120  0.5149 -132.1  18.932  111.6  0.0318   53.5  0.4212  -59.6
 0.125  0.5134 -134.1  18.303  110.6  0.0323   53.4  0.4085  -60.2
 0.130  0.5124 -136.0  17.680  109.6  0.0328   53.4  0.3958  -61.0
 0.135  0.5120 -138.0  17.064  108.4  0.0334   53.3  0.3831  -61.7
 0.140  0.5122 -139.9  16.454  107.2  0.0339   53.3  0.3706  -62.6
 0.145  0.5129 -141.9  15.853  105.9  0.0345   53.2  0.3581  -63.5
 0.150  0.5143 -143.8  15.261  104.5  0.0350   53.2  0.3457  -64.4
 0.155  0.5144 -144.9  14.914  104.0  0.0355   53.4  0.3386  -64.6
 0.160  0.5147 -146.0  14.568  103.5  0.0361   53.7  0.3316  -64.8
 0.165  0.5151 -147.1  14.223  103.0  0.0366   53.9  0.3245  -65.0
 0.170  0.5158 -148.2  13.879  102.4  0.0372   54.1  0.3175  -65.2
 0.175  0.5166 -149.2  13.537  101.8  0.0377   54.3  0.3104  -65.4
 0.180  0.5177 -150.3  13.196  101.2  0.0383   54.5  0.3034  -65.6
 0.185  0.5189 -151.4  12.857  100.6  0.0388   54.7  0.2964  -65.8
 0.190  0.5203 -152.5  12.520   99.9  0.0394   54.9  0.2893  -66.1
 0.195  0.5218 -153.5  12.184   99.2  0.0399   55.1  0.2823  -66.3
 0.200  0.5236 -154.6  11.851   98.4  0.0405   55.3  0.2753  -66.6
 0.220  0.5227 -157.5  10.926   96.8  0.0427   56.4  0.2561  -67.4
 0.240  0.5231 -160.4  10.012   94.8  0.0449   57.3  0.2369  -68.4
 0.260  0.5236 -163.1   9.252   93.1  0.0473   58.3  0.2221  -69.1
 0.280  0.5237 -165.4   8.640   91.9  0.0498   59.3  0.2115  -69.6
 0.300  0.5247 -167.7   8.033   90.4  0.0523   60.2  0.2010  -70.1
 0.320  0.5243 -169.3   7.645   89.6  0.0547   60.9  0.1934  -70.3
 0.340  0.5243 -170.8   7.258   88.6  0.0570   61.5  0.1858  -70.5
 0.360  0.5246 -172.4   6.874   87.6  0.0594   62.0  0.1781  -70.8
 0.380  0.5254 -173.9   6.492   86.4  0.0618   62.5  0.1705  -71.0
 0.400  0.5265 -175.5   6.113   85.1  0.0642   63.0  0.1629  -71.3
 0.420  0.5276 -176.7   5.869   84.3  0.0667   63.4  0.1588  -71.5
 0.440  0.5290 -178.0   5.627   83.4  0.0692   63.7  0.1546  -71.7
 0.450  0.5298 -178.6   5.507   82.9  0.0704   63.9  0.1525  -71.8
 0.460  0.5306 -179.2   5.386   82.4  0.0717   64.0  0.1505  -71.9
 0.480  0.5325  179.6   5.147   81.4  0.0742   64.3  0.1463  -72.1
 0.500  0.5346  178.4   4.910   80.2  0.0767   64.6  0.1422  -72.3
 0.520  0.5335  177.4   4.751   79.5  0.0794   64.8  0.1402  -72.7
 0.540  0.5326  176.4   4.593   78.7  0.0821   65.0  0.1382  -73.1
 0.560  0.5318  175.3   4.437   77.8  0.0847   65.2  0.1362  -73.5
 0.580  0.5312  174.3   4.281   76.9  0.0874   65.4  0.1343  -73.9
 0.600  0.5308  173.3   4.126   75.9  0.0901   65.6  0.1323  -74.3
 0.620  0.5311  172.5   4.013   75.2  0.0927   65.6  0.1310  -74.9
 0.640  0.5314  171.7   3.901   74.4  0.0953   65.7  0.1296  -75.5
 0.660  0.5319  170.9   3.790   73.6  0.0979   65.7  0.1283  -76.1
 0.680  0.5325  170.1   3.680   72.7  0.1005   65.8  0.1270  -76.8
 0.700  0.5332  169.3   3.570   71.8  0.1031   65.8  0.1257  -77.4
 0.720  0.5335  168.5   3.483   71.2  0.1058   65.8  0.1244  -78.0
 0.740  0.5339  167.8   3.396   70.5  0.1085   65.7  0.1231  -78.6
 0.760  0.5344  167.0   3.309   69.8  0.1113   65.7  0.1218  -79.2
 0.780  0.5350  166.3   3.223   69.1  0.1140   65.6  0.1205  -79.8
 0.800  0.5357  165.5   3.138   68.3  0.1167   65.6  0.1192  -80.4
 0.820  0.5360  164.7   3.071   67.7  0.1194   65.5  0.1184  -80.8
 0.840  0.5364  163.9   3.004   67.0  0.1221   65.4  0.1177  -81.3
 0.860  0.5369  163.2   2.937   66.4  0.1249   65.3  0.1169  -81.7
 0.880  0.5375  162.4   2.871   65.6  0.1276   65.3  0.1161  -82.1
 0.900  0.5382  161.6   2.805   64.9  0.1303   65.2  0.1154  -82.6
 0.920  0.5390  160.8   2.753   64.3  0.1329   65.0  0.1155  -83.4
 0.940  0.5399  160.0   2.701   63.6  0.1356   64.9  0.1156  -84.2
 0.960  0.5410  159.3   2.649   62.9  0.1382   64.8  0.1158  -85.0
 0.980  0.5421  158.5   2.598   62.2  0.1409   64.6  0.1159  -85.8
 1.000  0.5433  157.7   2.547   61.4  0.1435   64.5  0.1161  -86.6
 1.020  0.5441  157.0   2.505   60.8  0.1461   64.4  0.1160  -87.6
 1.040  0.5450  156.4   2.464   60.1  0.1487   64.2  0.1160  -88.7
 1.060  0.5459  155.7   2.423   59.5  0.1513   64.1  0.1160  -89.7
 1.080  0.5469  155.1   2.382   58.8  0.1539   64.0  0.1161  -90.8
 1.100  0.5480  154.4   2.342   58.1  0.1565   63.9  0.1162  -91.8
 1.120  0.5489  153.7   2.306   57.5  0.1592   63.7  0.1160  -92.7
 1.140  0.5500  153.0   2.271   56.8  0.1620   63.5  0.1158  -93.6
 1.160  0.5511  152.4   2.235   56.2  0.1647   63.3  0.1156  -94.5
 1.180  0.5522  151.7   2.201   55.5  0.1675   63.1  0.1155  -95.4
 1.200  0.5535  151.0   2.166   54.8  0.1702   62.9  0.1154  -96.3
 1.220  0.5542  150.4   2.135   54.3  0.1730   62.7  0.1154  -97.2
 1.240  0.5549  149.8   2.104   53.7  0.1757   62.5  0.1155  -98.0
 1.260  0.5557  149.2   2.073   53.1  0.1785   62.3  0.1156  -98.9
 1.280  0.5566  148.6   2.042   52.5  0.1812   62.2  0.1157  -99.7
 1.300  0.5575  148.0   2.012   51.9  0.1840   62.0  0.1159 -100.6
 1.320  0.5589  147.4   1.986   51.4  0.1866   61.8  0.1165 -101.6
 1.340  0.5603  146.9   1.960   50.8  0.1891   61.5  0.1171 -102.5
 1.360  0.5618  146.3   1.934   50.3  0.1917   61.3  0.1177 -103.5
 1.380  0.5634  145.8   1.908   49.7  0.1942   61.1  0.1184 -104.4
 1.400  0.5650  145.2   1.883   49.1  0.1968   60.9  0.1191 -105.3
 1.420  0.5651  144.7   1.864   48.5  0.1995   60.7  0.1196 -106.3
 1.440  0.5652  144.2   1.846   47.9  0.2021   60.4  0.1202 -107.3
 1.460  0.5653  143.8   1.827   47.3  0.2048   60.2  0.1208 -108.3
 1.480  0.5655  143.3   1.809   46.7  0.2074   60.0  0.1214 -109.3
 1.500  0.5657  142.8   1.791   46.1  0.2101   59.8  0.1221 -110.3
 1.520  0.5670  142.2   1.768   45.5  0.2128   59.5  0.1224 -111.4
 1.540  0.5683  141.6   1.744   44.9  0.2154   59.3  0.1228 -112.6
 1.560  0.5697  141.0   1.721   44.3  0.2181   59.0  0.1233 -113.7
 1.580  0.5712  140.4   1.699   43.7  0.2207   58.7  0.1238 -114.8
 1.600  0.5727  139.8   1.676   43.0  0.2234   58.5  0.1243 -115.9
 1.620  0.5731  139.2   1.659   42.5  0.2259   58.2  0.1247 -117.0
 1.640  0.5735  138.5   1.643   41.9  0.2284   58.0  0.1251 -118.0
 1.660  0.5740  137.9   1.626   41.4  0.2309   57.8  0.1255 -119.1
 1.680  0.5746  137.2   1.610   40.8  0.2334   57.5  0.1260 -120.2
 1.700  0.5752  136.6   1.594   40.2  0.2359   57.3  0.1265 -121.2
 1.720  0.5770  136.1   1.580   39.7  0.2385   57.0  0.1273 -122.1
 1.740  0.5788  135.5   1.567   39.3  0.2411   56.8  0.1281 -122.9
 1.760  0.5807  135.0   1.553   38.8  0.2437   56.5  0.1289 -123.8
 1.780  0.5826  134.4   1.540   38.3  0.2463   56.2  0.1297 -124.6
 1.800  0.5846  133.9   1.527   37.8  0.2489   56.0  0.1306 -125.4
 1.820  0.5861  133.4   1.514   37.3  0.2516   55.7  0.1321 -126.6
 1.840  0.5876  132.9   1.501   36.7  0.2542   55.4  0.1337 -127.8
 1.860  0.5891  132.4   1.488   36.1  0.2569   55.1  0.1353 -129.0
 1.880  0.5908  131.9   1.476   35.6  0.2596   54.9  0.1370 -130.1
 1.900  0.5924  131.4   1.463   35.0  0.2623   54.6  0.1387 -131.2
 1.920  0.5927  130.9   1.449   34.5  0.2649   54.3  0.1396 -132.5
 1.940  0.5930  130.4   1.435   34.0  0.2675   54.0  0.1405 -133.7
 1.960  0.5934  130.0   1.422   33.5  0.2701   53.7  0.1415 -135.0
 1.980  0.5938  129.5   1.408   32.9  0.2728   53.5  0.1426 -136.2
 2.000  0.5943  129.0   1.395   32.4  0.2754   53.2  0.1437 -137.4
 2.020  0.5955  128.5   1.384   31.9  0.2779   52.9  0.1447 -138.4
 2.040  0.5968  127.9   1.373   31.5  0.2804   52.6  0.1457 -139.4
 2.060  0.5982  127.4   1.362   31.0  0.2829   52.3  0.1468 -140.3
 2.080  0.5995  126.9   1.352   30.5  0.2854   52.1  0.1480 -141.3
 2.100  0.6010  126.4   1.341   30.0  0.2880   51.8  0.1491 -142.2
 2.120  0.6025  125.8   1.331   29.5  0.2905   51.5  0.1503 -143.1
 2.140  0.6040  125.3   1.320   29.0  0.2930   51.3  0.1516 -144.0
 2.160  0.6056  124.8   1.310   28.5  0.2956   51.0  0.1528 -144.9
 2.180  0.6072  124.3   1.300   27.9  0.2981   50.7  0.1542 -145.7
 2.200  0.6089  123.8   1.290   27.4  0.3007   50.5  0.1555 -146.6
 2.220  0.6098  123.3   1.281   26.9  0.3032   50.2  0.1571 -147.8
 2.240  0.6107  122.8   1.273   26.5  0.3057   49.9  0.1587 -149.1
 2.260  0.6116  122.3   1.264   26.0  0.3081   49.6  0.1604 -150.3
 2.280  0.6127  121.8   1.256   25.5  0.3106   49.3  0.1622 -151.4
 2.300  0.6137  121.3   1.248   25.0  0.3131   49.0  0.1640 -152.6
 2.320  0.6148  120.8   1.240   24.5  0.3157   48.7  0.1659 -153.7
 2.340  0.6160  120.3   1.232   24.0  0.3182   48.4  0.1679 -154.8
 2.360  0.6172  119.8   1.224   23.5  0.3207   48.1  0.1699 -155.8
 2.380  0.6184  119.3   1.216   23.0  0.3233   47.9  0.1720 -156.9
 2.400  0.6197  118.8   1.208   22.5  0.3258   47.6  0.1741 -157.9
 2.420  0.6217  118.3   1.200   22.1  0.3281   47.3  0.1756 -158.8
 2.440  0.6238  117.8   1.191   21.7  0.3303   46.9  0.1772 -159.7
 2.460  0.6259  117.2   1.183   21.3  0.3326   46.6  0.1788 -160.6
 2.480  0.6281  116.7   1.174   20.9  0.3349   46.3  0.1804 -161.4
 2.500  0.6303  116.2   1.166   20.4  0.3372   46.0  0.1821 -162.2
 2.520  0.6326  115.7   1.158   20.0  0.3395   45.7  0.1838 -163.1
 2.540  0.6349  115.2   1.150   19.6  0.3419   45.4  0.1856 -163.9
 2.560  0.6373  114.7   1.142   19.1  0.3442   45.1  0.1874 -164.7
 2.580  0.6397  114.2   1.134   18.7  0.3465   44.8  0.1892 -165.4
 2.600  0.6422  113.7   1.126   18.2  0.3489   44.5  0.1911 -166.2
 2.620  0.6430  113.3   1.120   17.8  0.3511   44.2  0.1933 -167.3
 2.640  0.6439  112.9   1.114   17.4  0.3533   43.9  0.1956 -168.3
 2.660  0.6448  112.5   1.107   17.0  0.3555   43.6  0.1980 -169.3
 2.680  0.6458  112.0   1.101   16.7  0.3577   43.3  0.2004 -170.3
 2.700  0.6467  111.6   1.095   16.3  0.3600   43.0  0.2029 -171.2
 2.720  0.6477  111.2   1.089   15.9  0.3622   42.7  0.2054 -172.2
 2.740  0.6488  110.8   1.083   15.4  0.3645   42.4  0.2080 -173.1
 2.760  0.6499  110.4   1.078   15.0  0.3667   42.1  0.2106 -174.0
 2.780  0.6510  110.0   1.072   14.6  0.3690   41.8  0.2133 -174.9
 2.800  0.6521  109.6   1.066   14.2  0.3713   41.5  0.2160 -175.7
 2.820  0.6538  109.2   1.059   13.8  0.3735   41.2  0.2181 -176.5
 2.840  0.6555  108.7   1.053   13.4  0.3757   40.9  0.2202 -177.3
 2.860  0.6573  108.3   1.047   13.0  0.3779   40.5  0.2224 -178.0
 2.880  0.6591  107.9   1.040   12.6  0.3801   40.2  0.2246 -178.8
 2.900  0.6609  107.4   1.034   12.2  0.3824   39.9  0.2269 -179.5
 2.920  0.6628  107.0   1.028   11.8  0.3846   39.6  0.2291  179.8
 2.940  0.6647  106.6   1.021   11.4  0.3869   39.3  0.2315  179.1
 2.960  0.6667  106.1   1.015   11.0  0.3891   39.0  0.2338  178.4
 2.980  0.6687  105.7   1.009   10.5  0.3914   38.7  0.2362  177.8
 3.000  0.6707  105.3   1.003   10.1  0.3937   38.4  0.2386  177.1
 3.100  0.6769  103.4   0.977    8.6  0.4031   36.7  0.2512  172.9
 3.200  0.6838  101.5   0.951    7.0  0.4129   35.1  0.2650  169.1
 3.300  0.6915   99.6   0.927    5.4  0.4230   33.6  0.2799  165.7
 3.400  0.6998   97.8   0.903    3.6  0.4334   32.1  0.2956  162.6
 3.500  0.7089   96.0   0.880    1.8  0.4440   30.7  0.3121  159.9
 3.600  0.7138   94.3   0.860    0.6  0.4510   29.0  0.3257  156.4
 3.700  0.7194   92.7   0.841   -0.6  0.4583   27.4  0.3404  153.1
 3.800  0.7255   91.1   0.822   -1.9  0.4660   25.8  0.3562  150.2
 3.900  0.7322   89.5   0.803   -3.3  0.4740   24.3  0.3727  147.5
 4.000  0.7395   87.9   0.785   -4.7  0.4824   22.8  0.3901  145.0
 4.100  0.7416   86.5   0.770   -5.7  0.4868   21.2  0.4003  142.2
 4.200  0.7441   85.1   0.755   -6.8  0.4916   19.7  0.4113  139.6
 4.300  0.7470   83.7   0.740   -7.9  0.4967   18.1  0.4232  137.1
 4.400  0.7505   82.3   0.726   -9.1  0.5021   16.7  0.4358  134.8
 4.500  0.7543   80.9   0.712  -10.3  0.5079   15.2  0.4491  132.6
 4.600  0.7558   79.7   0.701  -11.0  0.5114   13.8  0.4577  130.3
 4.700  0.7577   78.5   0.690  -11.8  0.5152   12.5  0.4671  128.0
 4.800  0.7599   77.3   0.679  -12.6  0.5193   11.1  0.4772  125.8
 4.900  0.7624   76.1   0.669  -13.4  0.5237    9.8  0.4879  123.8
 5.000  0.7653   74.9   0.658  -14.2  0.5283    8.5  0.4992  121.8
 5.100  0.7638   73.8   0.649  -14.2  0.5310    7.8  0.4995  121.2
 5.200  0.7626   72.6   0.640  -14.2  0.5337    7.1  0.4999  120.7
 5.300  0.7616   71.5   0.632  -14.1  0.5365    6.4  0.5004  120.1
 5.400  0.7610   70.3   0.623  -14.1  0.5394    5.8  0.5009  119.6
 5.500  0.7607   69.2   0.614  -14.1  0.5424    5.1  0.5014  119.0
 5.600  0.7601   68.4   0.612  -15.0  0.5477    3.6  0.5169  116.8
 5.700  0.7596   67.6   0.610  -15.8  0.5534    2.0  0.5332  114.8
 5.800  0.7592   66.8   0.609  -16.7  0.5594    0.6  0.5500  112.9
 5.900  0.7590   66.0   0.607  -17.5  0.5658   -0.9  0.5674  111.1
 6.000  0.7590   65.2   0.606  -18.4  0.5726   -2.3  0.5854  109.4
!
!  f       NFmin   Gammaopt  rn/50
! GHz       dB    MAG  ANG    -
!
! noise parameter not available yet for this operation point!
!
! (c) 2015  Infineon Technologies AG, Munich
