! Infineon Technologies  Discrete & RF Semiconductors
! BFR193W
! VCE =  3.0 V,  IC =  20 mA
! Common Emitter S-Parameters:                            Nov 2015
# GHz  S  MA  R  50
!  f         S11            S21            S12            S22
! GHz     MAG   ANG      MAG   ANG      MAG   ANG      MAG   ANG
 0.100  0.5306  -94.5  28.377  129.3  0.0257   58.2  0.6459  -47.5
 0.105  0.5252  -96.7  27.667  128.4  0.0263   57.8  0.6306  -48.3
 0.110  0.5205  -99.0  26.964  127.4  0.0269   57.5  0.6154  -49.1
 0.115  0.5167 -101.3  26.270  126.3  0.0275   57.1  0.6003  -50.0
 0.120  0.5137 -103.6  25.585  125.3  0.0280   56.8  0.5854  -50.9
 0.125  0.5116 -106.0  24.910  124.1  0.0286   56.5  0.5706  -51.9
 0.130  0.5103 -108.3  24.245  122.9  0.0292   56.2  0.5560  -52.9
 0.135  0.5100 -110.7  23.592  121.6  0.0298   55.9  0.5416  -54.0
 0.140  0.5105 -113.1  22.951  120.2  0.0304   55.6  0.5274  -55.1
 0.145  0.5119 -115.5  22.324  118.8  0.0310   55.4  0.5134  -56.3
 0.150  0.5141 -117.8  21.712  117.3  0.0316   55.1  0.4997  -57.6
 0.155  0.5120 -119.2  21.259  116.7  0.0320   55.1  0.4901  -58.1
 0.160  0.5102 -120.7  20.809  116.0  0.0324   55.0  0.4805  -58.7
 0.165  0.5087 -122.1  20.362  115.3  0.0329   55.0  0.4709  -59.2
 0.170  0.5075 -123.5  19.918  114.6  0.0333   55.0  0.4614  -59.8
 0.175  0.5067 -125.0  19.478  113.8  0.0337   54.9  0.4520  -60.4
 0.180  0.5062 -126.5  19.041  113.0  0.0341   54.9  0.4426  -61.1
 0.185  0.5060 -127.9  18.607  112.2  0.0345   54.9  0.4332  -61.7
 0.190  0.5062 -129.4  18.178  111.4  0.0350   54.9  0.4240  -62.4
 0.195  0.5067 -130.8  17.753  110.5  0.0354   54.8  0.4147  -63.1
 0.200  0.5075 -132.3  17.333  109.5  0.0358   54.8  0.4056  -63.9
 0.220  0.5041 -136.3  16.105  107.7  0.0376   55.4  0.3785  -65.4
 0.240  0.5033 -140.4  14.896  105.5  0.0394   55.9  0.3517  -67.2
 0.260  0.5026 -143.9  13.865  103.6  0.0411   56.4  0.3297  -68.7
 0.280  0.5013 -146.9  13.002  102.0  0.0426   56.9  0.3123  -69.7
 0.300  0.5013 -149.9  12.150  100.2  0.0442   57.4  0.2951  -70.8
 0.320  0.5005 -152.0  11.569   99.2  0.0459   58.1  0.2830  -71.4
 0.340  0.5004 -154.1  10.991   98.2  0.0475   58.7  0.2710  -72.2
 0.360  0.5010 -156.2  10.417   97.0  0.0492   59.3  0.2591  -72.9
 0.380  0.5022 -158.3   9.849   95.7  0.0509   59.8  0.2472  -73.8
 0.400  0.5041 -160.4   9.286   94.2  0.0526   60.3  0.2353  -74.7
 0.420  0.5042 -161.7   8.928   93.5  0.0544   60.8  0.2282  -75.2
 0.440  0.5046 -163.0   8.571   92.7  0.0561   61.4  0.2212  -75.6
 0.450  0.5049 -163.7   8.393   92.2  0.0570   61.6  0.2177  -75.9
 0.460  0.5053 -164.4   8.216   91.8  0.0579   61.8  0.2142  -76.2
 0.480  0.5062 -165.7   7.863   90.8  0.0597   62.3  0.2072  -76.7
 0.500  0.5074 -167.0   7.513   89.8  0.0615   62.7  0.2002  -77.3
 0.520  0.5070 -168.2   7.269   89.2  0.0634   63.1  0.1958  -77.8
 0.540  0.5067 -169.3   7.026   88.5  0.0652   63.5  0.1915  -78.4
 0.560  0.5067 -170.5   6.784   87.7  0.0671   63.8  0.1872  -79.0
 0.580  0.5069 -171.6   6.543   86.9  0.0689   64.2  0.1829  -79.6
 0.600  0.5073 -172.8   6.304   86.1  0.0708   64.5  0.1786  -80.2
 0.620  0.5071 -173.7   6.124   85.5  0.0726   64.8  0.1757  -80.6
 0.640  0.5071 -174.5   5.945   84.9  0.0745   65.0  0.1729  -80.9
 0.660  0.5071 -175.4   5.766   84.2  0.0763   65.3  0.1701  -81.3
 0.680  0.5073 -176.2   5.589   83.5  0.0782   65.5  0.1672  -81.7
 0.700  0.5076 -177.1   5.412   82.8  0.0800   65.7  0.1644  -82.1
 0.720  0.5085 -177.9   5.282   82.3  0.0819   65.9  0.1626  -82.6
 0.740  0.5095 -178.6   5.153   81.7  0.0838   66.0  0.1608  -83.0
 0.760  0.5106 -179.4   5.025   81.1  0.0857   66.2  0.1590  -83.5
 0.780  0.5118  179.9   4.897   80.5  0.0876   66.4  0.1572  -84.0
 0.800  0.5131  179.1   4.769   79.9  0.0895   66.5  0.1554  -84.5
 0.820  0.5124  178.4   4.664   79.4  0.0914   66.6  0.1538  -84.8
 0.840  0.5118  177.8   4.560   78.9  0.0933   66.7  0.1521  -85.2
 0.860  0.5112  177.1   4.456   78.4  0.0952   66.8  0.1505  -85.5
 0.880  0.5107  176.5   4.352   77.8  0.0971   66.9  0.1489  -85.8
 0.900  0.5103  175.8   4.249   77.2  0.0990   67.0  0.1473  -86.2
 0.920  0.5118  175.2   4.169   76.7  0.1009   67.1  0.1465  -86.6
 0.940  0.5134  174.6   4.090   76.2  0.1029   67.2  0.1458  -86.9
 0.960  0.5151  174.0   4.011   75.7  0.1048   67.2  0.1451  -87.3
 0.980  0.5168  173.5   3.932   75.2  0.1068   67.3  0.1443  -87.7
 1.000  0.5185  172.9   3.854   74.6  0.1087   67.4  0.1436  -88.1
 1.020  0.5182  172.3   3.792   74.2  0.1106   67.4  0.1429  -88.6
 1.040  0.5179  171.7   3.730   73.8  0.1126   67.4  0.1422  -89.1
 1.060  0.5176  171.2   3.668   73.4  0.1145   67.4  0.1415  -89.6
 1.080  0.5174  170.6   3.606   73.0  0.1164   67.4  0.1409  -90.0
 1.100  0.5173  170.0   3.544   72.5  0.1183   67.3  0.1402  -90.5
 1.120  0.5172  169.4   3.483   72.1  0.1203   67.3  0.1396  -91.0
 1.140  0.5172  168.8   3.422   71.6  0.1222   67.3  0.1389  -91.6
 1.160  0.5172  168.3   3.361   71.1  0.1241   67.3  0.1383  -92.1
 1.180  0.5173  167.7   3.300   70.6  0.1261   67.3  0.1377  -92.6
 1.200  0.5174  167.1   3.240   70.1  0.1280   67.3  0.1371  -93.1
 1.220  0.5181  166.6   3.195   69.7  0.1299   67.3  0.1370  -93.5
 1.240  0.5189  166.2   3.151   69.3  0.1318   67.3  0.1369  -93.9
 1.260  0.5196  165.7   3.107   68.9  0.1338   67.2  0.1368  -94.3
 1.280  0.5205  165.3   3.063   68.5  0.1357   67.2  0.1368  -94.7
 1.300  0.5213  164.8   3.019   68.1  0.1376   67.2  0.1367  -95.1
 1.320  0.5222  164.4   2.975   67.7  0.1395   67.2  0.1367  -95.6
 1.340  0.5231  163.9   2.932   67.2  0.1414   67.2  0.1366  -96.0
 1.360  0.5240  163.5   2.888   66.8  0.1434   67.1  0.1366  -96.4
 1.380  0.5250  163.0   2.845   66.3  0.1453   67.1  0.1365  -96.8
 1.400  0.5260  162.6   2.802   65.8  0.1472   67.1  0.1365  -97.2
 1.420  0.5268  162.3   2.767   65.4  0.1491   67.0  0.1366  -97.7
 1.440  0.5276  161.9   2.733   65.0  0.1510   67.0  0.1368  -98.2
 1.460  0.5284  161.6   2.699   64.5  0.1528   66.9  0.1369  -98.6
 1.480  0.5292  161.2   2.665   64.1  0.1547   66.9  0.1370  -99.1
 1.500  0.5301  160.9   2.631   63.6  0.1566   66.8  0.1372  -99.6
 1.520  0.5301  160.4   2.602   63.2  0.1586   66.7  0.1371 -100.0
 1.540  0.5300  159.9   2.572   62.8  0.1606   66.7  0.1370 -100.3
 1.560  0.5301  159.3   2.543   62.4  0.1627   66.6  0.1369 -100.7
 1.580  0.5302  158.8   2.514   61.9  0.1647   66.6  0.1369 -101.0
 1.600  0.5303  158.3   2.485   61.5  0.1667   66.5  0.1368 -101.4
 1.620  0.5309  157.9   2.460   61.1  0.1686   66.4  0.1372 -101.8
 1.640  0.5316  157.5   2.434   60.8  0.1706   66.3  0.1376 -102.3
 1.660  0.5323  157.1   2.409   60.4  0.1725   66.2  0.1380 -102.7
 1.680  0.5330  156.7   2.384   60.0  0.1745   66.1  0.1384 -103.1
 1.700  0.5337  156.3   2.359   59.7  0.1764   66.0  0.1389 -103.5
 1.720  0.5345  155.9   2.334   59.3  0.1784   65.9  0.1393 -104.0
 1.740  0.5353  155.6   2.310   58.9  0.1803   65.8  0.1397 -104.4
 1.760  0.5361  155.2   2.285   58.4  0.1823   65.8  0.1402 -104.8
 1.780  0.5369  154.8   2.260   58.0  0.1842   65.7  0.1406 -105.2
 1.800  0.5378  154.4   2.236   57.6  0.1862   65.6  0.1411 -105.6
 1.820  0.5375  154.0   2.216   57.2  0.1881   65.5  0.1417 -106.0
 1.840  0.5373  153.6   2.195   56.9  0.1901   65.4  0.1423 -106.3
 1.860  0.5370  153.2   2.175   56.5  0.1920   65.3  0.1428 -106.7
 1.880  0.5368  152.8   2.155   56.1  0.1939   65.2  0.1434 -107.0
 1.900  0.5367  152.4   2.135   55.7  0.1958   65.1  0.1440 -107.4
 1.920  0.5365  152.0   2.115   55.3  0.1978   65.0  0.1446 -107.7
 1.940  0.5364  151.6   2.096   54.9  0.1997   64.9  0.1452 -108.1
 1.960  0.5363  151.2   2.076   54.5  0.2016   64.8  0.1459 -108.4
 1.980  0.5362  150.8   2.056   54.1  0.2036   64.7  0.1465 -108.8
 2.000  0.5362  150.4   2.037   53.7  0.2055   64.6  0.1471 -109.1
 2.020  0.5365  150.0   2.021   53.4  0.2074   64.5  0.1476 -109.4
 2.040  0.5369  149.6   2.005   53.0  0.2094   64.3  0.1482 -109.7
 2.060  0.5372  149.1   1.989   52.7  0.2113   64.2  0.1487 -110.1
 2.080  0.5377  148.7   1.974   52.3  0.2132   64.1  0.1493 -110.4
 2.100  0.5381  148.3   1.958   52.0  0.2152   64.0  0.1498 -110.7
 2.120  0.5386  147.9   1.942   51.6  0.2171   63.9  0.1504 -111.0
 2.140  0.5390  147.5   1.927   51.2  0.2191   63.7  0.1510 -111.3
 2.160  0.5396  147.0   1.912   50.9  0.2210   63.6  0.1515 -111.6
 2.180  0.5401  146.6   1.896   50.5  0.2230   63.5  0.1521 -111.9
 2.200  0.5407  146.2   1.881   50.1  0.2249   63.4  0.1527 -112.2
 2.220  0.5410  145.9   1.868   49.8  0.2269   63.3  0.1535 -112.6
 2.240  0.5414  145.6   1.855   49.5  0.2288   63.1  0.1543 -113.0
 2.260  0.5418  145.4   1.842   49.1  0.2308   63.0  0.1551 -113.3
 2.280  0.5421  145.1   1.829   48.8  0.2328   62.9  0.1559 -113.7
 2.300  0.5425  144.8   1.816   48.5  0.2347   62.8  0.1567 -114.0
 2.320  0.5429  144.5   1.803   48.1  0.2367   62.7  0.1575 -114.4
 2.340  0.5434  144.2   1.790   47.8  0.2387   62.5  0.1583 -114.8
 2.360  0.5438  144.0   1.777   47.4  0.2407   62.4  0.1591 -115.1
 2.380  0.5442  143.7   1.765   47.1  0.2426   62.3  0.1600 -115.5
 2.400  0.5447  143.4   1.752   46.7  0.2446   62.2  0.1608 -115.8
 2.420  0.5443  143.0   1.738   46.4  0.2464   62.1  0.1612 -116.0
 2.440  0.5439  142.6   1.724   46.0  0.2483   61.9  0.1616 -116.3
 2.460  0.5435  142.1   1.710   45.6  0.2501   61.8  0.1620 -116.5
 2.480  0.5432  141.7   1.697   45.3  0.2520   61.6  0.1624 -116.8
 2.500  0.5429  141.3   1.683   44.9  0.2538   61.5  0.1628 -117.0
 2.520  0.5434  141.0   1.674   44.6  0.2557   61.3  0.1636 -117.4
 2.540  0.5439  140.6   1.664   44.3  0.2575   61.2  0.1644 -117.7
 2.560  0.5445  140.3   1.655   44.1  0.2594   61.0  0.1652 -118.1
 2.580  0.5450  140.0   1.645   43.8  0.2613   60.8  0.1661 -118.4
 2.600  0.5456  139.6   1.636   43.5  0.2632   60.7  0.1669 -118.8
 2.620  0.5462  139.3   1.627   43.2  0.2650   60.5  0.1677 -119.1
 2.640  0.5468  139.0   1.617   42.9  0.2669   60.3  0.1686 -119.4
 2.660  0.5475  138.6   1.608   42.6  0.2688   60.2  0.1694 -119.8
 2.680  0.5481  138.3   1.599   42.3  0.2707   60.0  0.1703 -120.1
 2.700  0.5488  138.0   1.590   42.0  0.2726   59.9  0.1712 -120.4
 2.720  0.5495  137.6   1.581   41.7  0.2745   59.7  0.1720 -120.8
 2.740  0.5502  137.3   1.572   41.4  0.2764   59.6  0.1729 -121.1
 2.760  0.5510  137.0   1.563   41.1  0.2783   59.4  0.1738 -121.4
 2.780  0.5517  136.6   1.554   40.8  0.2801   59.3  0.1747 -121.7
 2.800  0.5525  136.3   1.545   40.4  0.2820   59.1  0.1755 -122.0
 2.820  0.5533  136.0   1.536   40.1  0.2839   59.0  0.1764 -122.4
 2.840  0.5541  135.7   1.527   39.8  0.2858   58.9  0.1773 -122.7
 2.860  0.5549  135.3   1.519   39.4  0.2877   58.7  0.1782 -123.0
 2.880  0.5557  135.0   1.510   39.1  0.2896   58.6  0.1791 -123.3
 2.900  0.5566  134.7   1.501   38.8  0.2916   58.4  0.1801 -123.6
 2.920  0.5574  134.4   1.493   38.4  0.2935   58.3  0.1810 -123.9
 2.940  0.5583  134.1   1.484   38.1  0.2954   58.2  0.1819 -124.1
 2.960  0.5592  133.7   1.476   37.7  0.2973   58.1  0.1828 -124.4
 2.980  0.5602  133.4   1.467   37.4  0.2992   57.9  0.1838 -124.7
 3.000  0.5611  133.1   1.459   37.0  0.3011   57.8  0.1847 -125.0
 3.100  0.5619  131.6   1.426   35.7  0.3106   56.9  0.1901 -127.2
 3.200  0.5630  130.2   1.393   34.3  0.3202   56.1  0.1957 -129.2
 3.300  0.5646  128.7   1.362   32.9  0.3299   55.3  0.2015 -131.1
 3.400  0.5664  127.2   1.331   31.4  0.3396   54.5  0.2076 -132.9
 3.500  0.5687  125.8   1.301   29.8  0.3494   53.8  0.2138 -134.6
 3.600  0.5726  124.1   1.275   28.5  0.3579   52.8  0.2185 -136.6
 3.700  0.5770  122.4   1.251   27.2  0.3665   51.9  0.2235 -138.5
 3.800  0.5818  120.7   1.226   25.9  0.3751   51.0  0.2288 -140.3
 3.900  0.5872  119.1   1.203   24.5  0.3839   50.2  0.2342 -142.0
 4.000  0.5930  117.5   1.180   23.0  0.3927   49.4  0.2399 -143.7
 4.100  0.5928  116.1   1.159   22.0  0.4005   48.5  0.2446 -146.0
 4.200  0.5929  114.6   1.139   21.0  0.4083   47.6  0.2497 -148.2
 4.300  0.5934  113.2   1.119   20.0  0.4163   46.8  0.2552 -150.3
 4.400  0.5943  111.7   1.100   18.9  0.4243   46.0  0.2610 -152.4
 4.500  0.5956  110.3   1.081   17.8  0.4324   45.2  0.2671 -154.3
 4.600  0.6000  109.1   1.067   16.7  0.4404   44.3  0.2703 -156.3
 4.700  0.6047  107.9   1.054   15.6  0.4484   43.4  0.2738 -158.3
 4.800  0.6096  106.8   1.041   14.5  0.4566   42.6  0.2776 -160.3
 4.900  0.6148  105.6   1.028   13.4  0.4649   41.8  0.2818 -162.2
 5.000  0.6202  104.5   1.016   12.2  0.4732   41.0  0.2862 -164.0
 5.100  0.6207  103.1   1.001   11.3  0.4805   40.1  0.2888 -165.7
 5.200  0.6215  101.6   0.987   10.4  0.4879   39.2  0.2916 -167.4
 5.300  0.6227  100.2   0.973    9.5  0.4954   38.4  0.2947 -169.0
 5.400  0.6244   98.7   0.959    8.5  0.5030   37.6  0.2980 -170.6
 5.500  0.6264   97.3   0.945    7.5  0.5107   36.8  0.3015 -172.2
 5.600  0.6254   96.2   0.934    6.7  0.5178   35.8  0.3038 -173.4
 5.700  0.6246   95.2   0.923    5.8  0.5251   34.9  0.3061 -174.5
 5.800  0.6240   94.1   0.912    5.0  0.5326   34.0  0.3086 -175.6
 5.900  0.6236   93.1   0.901    4.1  0.5401   33.1  0.3113 -176.7
 6.000  0.6234   92.0   0.891    3.2  0.5478   32.2  0.3140 -177.8
!
!  f       NFmin   Gammaopt  rn/50
! GHz       dB    MAG  ANG    -
 0.450      1.40  0.30  160   0.10
 0.900      1.45  0.34  172   0.11
 1.800      2.20  0.56 -148   0.20
!
! (c) 2015  Infineon Technologies AG, Munich
