! Infineon Technologies  Discrete & RF Semiconductors
! BFR106
! VCE =  1.7 V,  IC =  1.2 mA
! Common Emitter S-Parameters:                            Nov 2015
# GHz  S  MA  R  50
!  f         S11            S21            S12            S22
! GHz     MAG   ANG      MAG   ANG      MAG   ANG      MAG   ANG
 0.010  0.9593   -5.6   4.380  175.8  0.0088   87.5  0.9992   -2.0
 0.015  0.9561   -8.3   4.373  174.3  0.0133   85.8  0.9948   -2.8
 0.020  0.9552  -11.1   4.368  172.8  0.0178   84.9  0.9906   -3.7
 0.025  0.9476  -13.8   4.327  171.0  0.0221   81.4  0.9872   -4.6
 0.030  0.9421  -16.5   4.290  169.2  0.0265   79.1  0.9840   -5.5
 0.035  0.9387  -19.2   4.257  167.4  0.0309   77.4  0.9810   -6.4
 0.040  0.9374  -21.9   4.229  165.5  0.0354   76.2  0.9783   -7.3
 0.045  0.9383  -24.7   4.206  163.6  0.0398   75.2  0.9758   -8.2
 0.050  0.9413  -27.4   4.187  161.7  0.0443   74.4  0.9736   -9.1
 0.055  0.9302  -29.8   4.142  160.3  0.0478   72.2  0.9674   -9.8
 0.060  0.9207  -32.2   4.100  158.9  0.0513   70.2  0.9614  -10.6
 0.065  0.9129  -34.6   4.060  157.4  0.0549   68.6  0.9555  -11.3
 0.070  0.9068  -37.1   4.023  155.9  0.0585   67.1  0.9498  -12.1
 0.075  0.9024  -39.7   3.989  154.4  0.0622   65.8  0.9442  -12.8
 0.080  0.8999  -42.2   3.958  152.9  0.0659   64.6  0.9388  -13.6
 0.085  0.8991  -44.8   3.929  151.3  0.0696   63.6  0.9336  -14.4
 0.090  0.9001  -47.3   3.904  149.7  0.0733   62.7  0.9286  -15.2
 0.095  0.9028  -49.9   3.881  148.1  0.0770   61.9  0.9238  -16.0
 0.100  0.9074  -52.4   3.862  146.5  0.0808   61.1  0.9191  -16.8
 0.105  0.8971  -54.4   3.807  145.2  0.0832   59.6  0.9123  -17.4
 0.110  0.8879  -56.5   3.754  143.9  0.0857   58.1  0.9056  -17.9
 0.115  0.8798  -58.6   3.704  142.5  0.0882   56.8  0.8990  -18.5
 0.120  0.8730  -60.7   3.655  141.1  0.0908   55.5  0.8925  -19.1
 0.125  0.8674  -62.8   3.609  139.7  0.0934   54.3  0.8861  -19.7
 0.130  0.8630  -65.0   3.565  138.2  0.0960   53.1  0.8798  -20.3
 0.135  0.8599  -67.2   3.523  136.7  0.0987   52.0  0.8736  -20.9
 0.140  0.8581  -69.5   3.484  135.1  0.1015   51.0  0.8675  -21.5
 0.145  0.8575  -71.7   3.448  133.5  0.1042   50.0  0.8615  -22.2
 0.150  0.8583  -73.9   3.414  131.9  0.1070   49.1  0.8556  -22.8
 0.155  0.8518  -75.6   3.371  131.0  0.1086   48.2  0.8500  -23.2
 0.160  0.8460  -77.3   3.329  130.0  0.1102   47.2  0.8443  -23.5
 0.165  0.8410  -79.0   3.288  129.1  0.1118   46.3  0.8388  -23.9
 0.170  0.8367  -80.7   3.247  128.1  0.1135   45.5  0.8332  -24.3
 0.175  0.8332  -82.5   3.208  127.1  0.1151   44.6  0.8277  -24.6
 0.180  0.8306  -84.3   3.170  126.0  0.1169   43.8  0.8222  -25.0
 0.185  0.8287  -86.0   3.133  125.0  0.1186   43.0  0.8168  -25.4
 0.190  0.8276  -87.8   3.097  123.9  0.1203   42.3  0.8114  -25.8
 0.195  0.8273  -89.6   3.062  122.7  0.1221   41.5  0.8060  -26.2
 0.200  0.8278  -91.4   3.028  121.6  0.1239   40.8  0.8007  -26.6
 0.220  0.8105  -97.1   2.876  118.0  0.1277   37.8  0.7801  -27.8
 0.240  0.8016 -103.0   2.736  114.0  0.1317   35.0  0.7599  -29.0
 0.260  0.7926 -108.3   2.607  110.5  0.1350   32.7  0.7429  -30.2
 0.280  0.7809 -112.9   2.480  107.8  0.1373   30.7  0.7292  -31.1
 0.300  0.7743 -117.6   2.359  104.8  0.1397   28.8  0.7156  -32.1
 0.320  0.7635 -121.0   2.261  102.8  0.1403   27.3  0.7057  -32.8
 0.340  0.7556 -124.5   2.166  100.7  0.1411   25.7  0.6959  -33.6
 0.360  0.7505 -128.1   2.074   98.3  0.1419   24.2  0.6863  -34.4
 0.380  0.7484 -131.7   1.986   95.8  0.1429   22.8  0.6768  -35.2
 0.400  0.7492 -135.3   1.902   93.0  0.1439   21.3  0.6674  -36.0
 0.420  0.7441 -137.8   1.834   91.3  0.1436   20.4  0.6617  -36.7
 0.440  0.7404 -140.4   1.768   89.5  0.1433   19.5  0.6561  -37.4
 0.450  0.7392 -141.7   1.735   88.5  0.1432   19.0  0.6533  -37.8
 0.460  0.7383 -143.0   1.703   87.5  0.1431   18.5  0.6505  -38.1
 0.480  0.7377 -145.6   1.641   85.4  0.1429   17.6  0.6451  -38.9
 0.500  0.7386 -148.2   1.581   83.1  0.1428   16.7  0.6398  -39.6
 0.520  0.7354 -150.3   1.536   81.7  0.1419   16.2  0.6364  -40.4
 0.540  0.7331 -152.4   1.492   80.1  0.1409   15.8  0.6332  -41.2
 0.560  0.7319 -154.5   1.450   78.5  0.1400   15.3  0.6301  -42.0
 0.580  0.7316 -156.6   1.408   76.8  0.1391   14.8  0.6271  -42.9
 0.600  0.7323 -158.7   1.368   75.0  0.1382   14.3  0.6242  -43.7
 0.620  0.7304 -160.4   1.333   73.8  0.1368   14.1  0.6221  -44.6
 0.640  0.7291 -162.1   1.299   72.5  0.1354   13.8  0.6201  -45.5
 0.660  0.7285 -163.8   1.266   71.1  0.1339   13.6  0.6182  -46.4
 0.680  0.7285 -165.5   1.233   69.6  0.1325   13.4  0.6165  -47.3
 0.700  0.7292 -167.2   1.201   68.1  0.1311   13.1  0.6150  -48.2
 0.720  0.7285 -168.6   1.172   67.0  0.1298   13.2  0.6133  -49.1
 0.740  0.7281 -170.0   1.144   65.9  0.1285   13.3  0.6116  -49.9
 0.760  0.7282 -171.3   1.117   64.7  0.1271   13.4  0.6102  -50.8
 0.780  0.7288 -172.7   1.090   63.4  0.1258   13.5  0.6089  -51.7
 0.800  0.7297 -174.1   1.063   62.1  0.1245   13.6  0.6077  -52.6
 0.820  0.7287 -175.4   1.042   61.1  0.1229   14.0  0.6068  -53.5
 0.840  0.7281 -176.7   1.021   60.1  0.1214   14.4  0.6060  -54.4
 0.860  0.7278 -178.0   1.000   59.1  0.1198   14.8  0.6054  -55.3
 0.880  0.7279 -179.3   0.980   57.9  0.1182   15.3  0.6049  -56.2
 0.900  0.7284  179.4   0.960   56.8  0.1167   15.7  0.6046  -57.1
 0.920  0.7288  178.2   0.943   55.8  0.1152   16.5  0.6043  -58.1
 0.940  0.7295  177.0   0.926   54.8  0.1137   17.2  0.6041  -59.1
 0.960  0.7305  175.7   0.909   53.8  0.1122   18.0  0.6042  -60.0
 0.980  0.7319  174.5   0.893   52.7  0.1107   18.9  0.6044  -61.0
 1.000  0.7336  173.3   0.877   51.6  0.1093   19.7  0.6048  -62.0
 1.020  0.7335  172.1   0.864   50.8  0.1082   20.9  0.6042  -63.1
 1.040  0.7337  170.9   0.851   49.9  0.1072   22.0  0.6039  -64.1
 1.060  0.7343  169.7   0.838   49.0  0.1062   23.2  0.6038  -65.2
 1.080  0.7351  168.5   0.825   48.1  0.1052   24.5  0.6038  -66.2
 1.100  0.7363  167.3   0.813   47.2  0.1043   25.7  0.6041  -67.3
 1.120  0.7369  166.4   0.801   46.4  0.1038   27.2  0.6034  -68.4
 1.140  0.7377  165.4   0.789   45.7  0.1033   28.7  0.6030  -69.4
 1.160  0.7387  164.5   0.777   44.9  0.1029   30.2  0.6028  -70.5
 1.180  0.7399  163.5   0.765   44.0  0.1026   31.7  0.6027  -71.5
 1.200  0.7413  162.6   0.753   43.2  0.1023   33.2  0.6029  -72.6
 1.220  0.7414  161.6   0.742   42.6  0.1029   34.9  0.6026  -73.6
 1.240  0.7417  160.7   0.732   42.0  0.1036   36.5  0.6025  -74.7
 1.260  0.7422  159.7   0.722   41.3  0.1044   38.1  0.6025  -75.7
 1.280  0.7430  158.8   0.711   40.7  0.1053   39.7  0.6028  -76.8
 1.300  0.7439  157.8   0.701   40.0  0.1062   41.3  0.6033  -77.8
 1.320  0.7444  156.9   0.692   39.5  0.1074   43.0  0.6036  -78.9
 1.340  0.7451  156.0   0.684   39.0  0.1087   44.6  0.6042  -79.9
 1.360  0.7460  155.2   0.675   38.5  0.1101   46.2  0.6050  -81.0
 1.380  0.7470  154.3   0.666   37.9  0.1116   47.7  0.6059  -82.0
 1.400  0.7482  153.4   0.658   37.4  0.1131   49.2  0.6071  -83.1
 1.420  0.7485  152.6   0.651   37.0  0.1155   50.5  0.6066  -84.2
 1.440  0.7489  151.8   0.645   36.5  0.1181   51.8  0.6062  -85.3
 1.460  0.7495  150.9   0.638   36.0  0.1206   53.1  0.6061  -86.4
 1.480  0.7502  150.1   0.632   35.6  0.1232   54.3  0.6063  -87.5
 1.500  0.7511  149.3   0.625   35.1  0.1259   55.4  0.6066  -88.6
 1.520  0.7522  148.5   0.616   34.6  0.1290   56.3  0.6063  -89.7
 1.540  0.7534  147.7   0.608   34.1  0.1322   57.2  0.6062  -90.8
 1.560  0.7548  146.8   0.599   33.5  0.1354   58.0  0.6063  -91.9
 1.580  0.7564  146.0   0.590   33.0  0.1386   58.8  0.6067  -93.0
 1.600  0.7581  145.2   0.582   32.4  0.1418   59.6  0.6073  -94.1
 1.620  0.7587  144.4   0.578   32.1  0.1455   60.3  0.6065  -95.3
 1.640  0.7595  143.6   0.573   31.7  0.1492   61.0  0.6060  -96.4
 1.660  0.7604  142.8   0.569   31.3  0.1530   61.6  0.6057  -97.6
 1.680  0.7615  142.0   0.564   31.0  0.1567   62.2  0.6056  -98.7
 1.700  0.7627  141.2   0.560   30.6  0.1605   62.8  0.6058  -99.9
 1.720  0.7635  140.4   0.555   30.5  0.1646   63.1  0.6061 -101.0
 1.740  0.7644  139.6   0.550   30.4  0.1687   63.4  0.6066 -102.0
 1.760  0.7654  138.9   0.546   30.2  0.1728   63.6  0.6073 -103.1
 1.780  0.7666  138.1   0.541   30.1  0.1770   63.9  0.6083 -104.1
 1.800  0.7679  137.3   0.536   30.0  0.1811   64.1  0.6094 -105.2
 1.820  0.7677  136.5   0.533   29.7  0.1857   64.2  0.6100 -106.4
 1.840  0.7677  135.7   0.530   29.5  0.1903   64.4  0.6108 -107.6
 1.860  0.7678  135.0   0.526   29.2  0.1948   64.5  0.6119 -108.8
 1.880  0.7681  134.2   0.523   28.9  0.1994   64.6  0.6132 -109.9
 1.900  0.7685  133.4   0.520   28.6  0.2040   64.7  0.6148 -111.1
 1.920  0.7678  132.7   0.516   28.4  0.2086   64.6  0.6144 -112.3
 1.940  0.7672  132.0   0.512   28.2  0.2131   64.4  0.6143 -113.5
 1.960  0.7667  131.4   0.508   28.0  0.2177   64.3  0.6144 -114.6
 1.980  0.7663  130.7   0.504   27.8  0.2222   64.2  0.6148 -115.8
 2.000  0.7660  130.0   0.500   27.6  0.2268   64.1  0.6154 -117.0
 2.020  0.7662  129.3   0.497   27.5  0.2315   63.8  0.6148 -118.1
 2.040  0.7665  128.6   0.495   27.4  0.2362   63.6  0.6144 -119.3
 2.060  0.7669  127.9   0.492   27.4  0.2410   63.3  0.6143 -120.4
 2.080  0.7674  127.2   0.490   27.3  0.2457   63.1  0.6144 -121.5
 2.100  0.7680  126.5   0.487   27.2  0.2505   62.9  0.6147 -122.7
 2.120  0.7687  125.8   0.485   27.1  0.2552   62.7  0.6153 -123.8
 2.140  0.7696  125.2   0.482   27.0  0.2599   62.5  0.6161 -124.9
 2.160  0.7706  124.5   0.480   27.0  0.2647   62.3  0.6172 -126.1
 2.180  0.7716  123.8   0.477   26.9  0.2694   62.1  0.6185 -127.2
 2.200  0.7728  123.1   0.475   26.8  0.2742   61.9  0.6200 -128.3
 2.220  0.7721  122.4   0.474   26.8  0.2788   61.5  0.6195 -129.5
 2.240  0.7715  121.8   0.474   26.7  0.2834   61.0  0.6192 -130.7
 2.260  0.7710  121.1   0.473   26.7  0.2881   60.6  0.6193 -132.0
 2.280  0.7707  120.5   0.473   26.6  0.2927   60.2  0.6196 -133.2
 2.300  0.7704  119.8   0.472   26.6  0.2974   59.8  0.6202 -134.4
 2.320  0.7702  119.1   0.472   26.5  0.3021   59.4  0.6210 -135.6
 2.340  0.7701  118.5   0.471   26.5  0.3068   59.0  0.6222 -136.8
 2.360  0.7701  117.8   0.471   26.4  0.3115   58.7  0.6236 -138.0
 2.380  0.7703  117.2   0.470   26.4  0.3162   58.3  0.6253 -139.2
 2.400  0.7705  116.5   0.470   26.3  0.3209   58.0  0.6273 -140.4
 2.420  0.7704  115.9   0.470   26.2  0.3250   57.5  0.6265 -141.5
 2.440  0.7704  115.3   0.469   26.2  0.3292   57.0  0.6259 -142.6
 2.460  0.7705  114.7   0.469   26.1  0.3334   56.5  0.6255 -143.6
 2.480  0.7706  114.1   0.468   26.1  0.3376   56.0  0.6254 -144.7
 2.500  0.7709  113.4   0.468   26.0  0.3418   55.6  0.6255 -145.8
 2.520  0.7713  112.8   0.468   25.9  0.3460   55.1  0.6258 -146.9
 2.540  0.7717  112.2   0.467   25.9  0.3503   54.7  0.6263 -148.0
 2.560  0.7722  111.6   0.467   25.8  0.3546   54.2  0.6270 -149.1
 2.580  0.7728  111.0   0.466   25.8  0.3589   53.8  0.6280 -150.1
 2.600  0.7735  110.4   0.466   25.7  0.3632   53.4  0.6292 -151.2
 2.620  0.7728  109.9   0.467   25.6  0.3670   52.9  0.6290 -152.3
 2.640  0.7722  109.4   0.468   25.5  0.3708   52.3  0.6290 -153.5
 2.660  0.7716  108.8   0.469   25.4  0.3747   51.8  0.6293 -154.6
 2.680  0.7711  108.3   0.470   25.3  0.3786   51.3  0.6298 -155.7
 2.700  0.7706  107.8   0.471   25.2  0.3825   50.8  0.6305 -156.8
 2.720  0.7702  107.3   0.473   25.1  0.3864   50.3  0.6315 -158.0
 2.740  0.7699  106.8   0.474   25.0  0.3904   49.8  0.6328 -159.1
 2.760  0.7696  106.2   0.475   24.9  0.3944   49.3  0.6342 -160.2
 2.780  0.7694  105.7   0.476   24.8  0.3984   48.9  0.6359 -161.3
 2.800  0.7693  105.2   0.477   24.7  0.4025   48.4  0.6379 -162.4
 2.820  0.7691  104.7   0.478   24.6  0.4059   47.9  0.6378 -163.4
 2.840  0.7690  104.2   0.479   24.5  0.4094   47.3  0.6378 -164.4
 2.860  0.7689  103.7   0.480   24.3  0.4129   46.8  0.6381 -165.4
 2.880  0.7688  103.2   0.481   24.2  0.4165   46.3  0.6385 -166.4
 2.900  0.7689  102.6   0.481   24.1  0.4201   45.8  0.6392 -167.4
 2.920  0.7690  102.1   0.482   24.0  0.4237   45.3  0.6400 -168.4
 2.940  0.7691  101.6   0.483   23.9  0.4273   44.8  0.6410 -169.4
 2.960  0.7694  101.1   0.484   23.7  0.4310   44.3  0.6423 -170.4
 2.980  0.7697  100.6   0.485   23.6  0.4347   43.9  0.6437 -171.4
 3.000  0.7700  100.1   0.486   23.5  0.4384   43.4  0.6453 -172.4
 3.100  0.7675   98.1   0.491   22.4  0.4496   40.7  0.6419 -177.1
 3.200  0.7660   96.2   0.496   21.3  0.4617   38.1  0.6427  178.2
 3.300  0.7654   94.2   0.502   20.3  0.4748   35.7  0.6479  173.6
 3.400  0.7657   92.2   0.507   19.2  0.4886   33.4  0.6573  169.0
 3.500  0.7669   90.2   0.513   18.2  0.5032   31.2  0.6707  164.6
 3.600  0.7660   88.7   0.517   17.0  0.5086   28.9  0.6696  160.6
 3.700  0.7657   87.2   0.521   15.7  0.5148   26.6  0.6718  156.7
 3.800  0.7659   85.7   0.525   14.5  0.5219   24.4  0.6771  152.8
 3.900  0.7666   84.2   0.529   13.4  0.5296   22.3  0.6855  148.9
 4.000  0.7678   82.7   0.534   12.2  0.5381   20.2  0.6969  145.2
 4.100  0.7664   81.5   0.535   10.9  0.5396   18.3  0.6941  142.1
 4.200  0.7652   80.3   0.536    9.6  0.5417   16.5  0.6933  139.0
 4.300  0.7644   79.2   0.537    8.3  0.5443   14.6  0.6946  135.9
 4.400  0.7639   78.0   0.539    7.0  0.5475   12.8  0.6978  132.8
 4.500  0.7638   76.8   0.541    5.7  0.5513   11.0  0.7031  129.8
 4.600  0.7632   75.8   0.543    4.5  0.5518    9.5  0.7008  127.3
 4.700  0.7628   74.7   0.545    3.3  0.5527    8.1  0.6998  124.8
 4.800  0.7627   73.7   0.547    2.1  0.5540    6.6  0.7002  122.3
 4.900  0.7629   72.6   0.549    1.0  0.5556    5.1  0.7018  119.9
 5.000  0.7633   71.6   0.552   -0.2  0.5576    3.7  0.7048  117.4
 5.100  0.7612   70.6   0.551   -0.6  0.5585    3.0  0.6974  116.6
 5.200  0.7593   69.6   0.551   -1.0  0.5595    2.4  0.6901  115.8
 5.300  0.7577   68.6   0.550   -1.4  0.5606    1.7  0.6830  115.1
 5.400  0.7563   67.6   0.550   -1.8  0.5617    1.1  0.6760  114.2
 5.500  0.7551   66.6   0.549   -2.2  0.5629    0.4  0.6691  113.4
 5.600  0.7541   65.9   0.552   -3.5  0.5662   -1.1  0.6787  111.3
 5.700  0.7532   65.2   0.556   -4.7  0.5700   -2.6  0.6893  109.2
 5.800  0.7525   64.4   0.560   -5.9  0.5741   -4.1  0.7006  107.3
 5.900  0.7518   63.7   0.564   -7.1  0.5786   -5.6  0.7128  105.3
 6.000  0.7513   63.0   0.569   -8.3  0.5835   -7.0  0.7258  103.5
!
!  f       NFmin   Gammaopt  rn/50
! GHz       dB    MAG  ANG    -
!
! noise parameter not available yet for this operation point!
!
! (c) 2015  Infineon Technologies AG, Munich
