! Infineon Technologies  Discrete & RF Semiconductors
! BFR182
! VCE =  1.0 V,  IC =  20 mA
! Common Emitter S-Parameters:                            Nov 2015
# GHz  S  MA  R  50
!  f         S11            S21            S12            S22
! GHz     MAG   ANG      MAG   ANG      MAG   ANG      MAG   ANG
 0.010  0.4383  -12.0  29.883  173.5  0.0027   82.8  0.8633   -3.7
 0.015  0.4349  -17.1  29.539  170.3  0.0041   77.9  0.8558   -5.7
 0.020  0.4351  -22.3  29.287  167.1  0.0055   75.5  0.8494   -7.8
 0.025  0.4252  -27.1  28.686  164.6  0.0066   74.5  0.8362   -9.3
 0.030  0.4184  -32.1  28.144  161.9  0.0076   73.8  0.8236  -10.9
 0.035  0.4149  -37.2  27.663  159.2  0.0087   73.3  0.8116  -12.5
 0.040  0.4147  -42.4  27.248  156.4  0.0098   72.9  0.8003  -14.2
 0.045  0.4179  -47.5  26.901  153.5  0.0108   72.6  0.7898  -15.9
 0.050  0.4244  -52.5  26.624  150.5  0.0119   72.3  0.7799  -17.7
 0.055  0.4131  -55.9  25.890  148.9  0.0127   71.1  0.7648  -18.5
 0.060  0.4033  -59.5  25.176  147.3  0.0135   70.0  0.7499  -19.3
 0.065  0.3952  -63.2  24.485  145.5  0.0143   69.1  0.7351  -20.1
 0.070  0.3889  -67.1  23.817  143.7  0.0151   68.2  0.7205  -20.9
 0.075  0.3843  -71.1  23.176  141.7  0.0159   67.5  0.7061  -21.8
 0.080  0.3817  -75.1  22.563  139.7  0.0167   66.8  0.6918  -22.8
 0.085  0.3810  -79.2  21.980  137.5  0.0175   66.2  0.6778  -23.7
 0.090  0.3822  -83.3  21.432  135.2  0.0184   65.6  0.6639  -24.7
 0.095  0.3854  -87.3  20.918  132.8  0.0192   65.1  0.6502  -25.8
 0.100  0.3904  -91.3  20.444  130.3  0.0200   64.6  0.6368  -26.9
 0.105  0.3853  -93.6  19.946  129.3  0.0206   64.4  0.6266  -27.1
 0.110  0.3809  -96.0  19.454  128.2  0.0212   64.1  0.6163  -27.4
 0.115  0.3772  -98.4  18.969  127.1  0.0218   63.9  0.6061  -27.6
 0.120  0.3741 -100.8  18.492  126.0  0.0224   63.7  0.5959  -27.9
 0.125  0.3717 -103.3  18.023  124.7  0.0230   63.5  0.5857  -28.1
 0.130  0.3700 -105.8  17.562  123.4  0.0237   63.3  0.5756  -28.4
 0.135  0.3691 -108.4  17.112  122.1  0.0243   63.2  0.5654  -28.7
 0.140  0.3689 -110.9  16.671  120.6  0.0249   63.0  0.5553  -29.0
 0.145  0.3694 -113.5  16.242  119.1  0.0255   62.8  0.5451  -29.3
 0.150  0.3706 -116.0  15.824  117.5  0.0261   62.7  0.5350  -29.6
 0.155  0.3691 -117.6  15.498  116.8  0.0266   62.9  0.5288  -29.6
 0.160  0.3679 -119.2  15.175  116.1  0.0270   63.0  0.5226  -29.6
 0.165  0.3670 -120.8  14.854  115.4  0.0275   63.2  0.5165  -29.6
 0.170  0.3664 -122.5  14.535  114.6  0.0280   63.4  0.5103  -29.6
 0.175  0.3661 -124.1  14.219  113.9  0.0284   63.5  0.5041  -29.6
 0.180  0.3660 -125.7  13.906  113.0  0.0289   63.7  0.4979  -29.7
 0.185  0.3663 -127.3  13.596  112.2  0.0294   63.8  0.4917  -29.7
 0.190  0.3669 -129.0  13.289  111.2  0.0299   63.9  0.4856  -29.7
 0.195  0.3677 -130.6  12.986  110.3  0.0303   64.1  0.4794  -29.7
 0.200  0.3689 -132.2  12.686  109.3  0.0308   64.2  0.4732  -29.7
 0.220  0.3658 -136.9  11.762  107.2  0.0328   64.4  0.4565  -29.4
 0.240  0.3652 -141.6  10.856  104.8  0.0348   64.6  0.4399  -29.1
 0.260  0.3642 -145.6  10.102  102.6  0.0367   65.1  0.4263  -28.7
 0.280  0.3620 -148.9   9.489  101.0  0.0386   65.9  0.4158  -28.4
 0.300  0.3610 -152.2   8.886   99.1  0.0404   66.6  0.4053  -28.0
 0.320  0.3599 -154.7   8.470   98.1  0.0424   67.0  0.3995  -27.7
 0.340  0.3594 -157.1   8.057   97.0  0.0443   67.3  0.3938  -27.4
 0.360  0.3596 -159.6   7.647   95.7  0.0463   67.6  0.3880  -27.1
 0.380  0.3605 -162.1   7.242   94.3  0.0482   67.8  0.3823  -26.8
 0.400  0.3620 -164.5   6.841   92.8  0.0502   68.1  0.3766  -26.5
 0.420  0.3618 -166.3   6.567   91.9  0.0521   68.3  0.3730  -26.3
 0.440  0.3620 -168.0   6.294   90.9  0.0540   68.5  0.3694  -26.2
 0.450  0.3622 -168.9   6.159   90.4  0.0550   68.6  0.3676  -26.1
 0.460  0.3625 -169.8   6.024   89.8  0.0560   68.7  0.3658  -26.0
 0.480  0.3634 -171.6   5.756   88.6  0.0579   68.9  0.3622  -25.9
 0.500  0.3646 -173.3   5.491   87.3  0.0598   69.1  0.3586  -25.7
 0.520  0.3647 -174.7   5.316   86.5  0.0619   69.3  0.3561  -25.7
 0.540  0.3651 -176.0   5.142   85.7  0.0640   69.5  0.3536  -25.7
 0.560  0.3656 -177.4   4.969   84.8  0.0662   69.7  0.3512  -25.6
 0.580  0.3663 -178.7   4.797   83.8  0.0683   69.8  0.3487  -25.6
 0.600  0.3673  179.9   4.627   82.8  0.0704   70.0  0.3462  -25.6
 0.620  0.3676  178.6   4.504   82.1  0.0725   70.0  0.3447  -25.7
 0.640  0.3682  177.2   4.381   81.4  0.0746   70.1  0.3432  -25.8
 0.660  0.3689  175.9   4.259   80.7  0.0766   70.1  0.3417  -25.8
 0.680  0.3698  174.6   4.138   79.8  0.0787   70.2  0.3402  -25.9
 0.700  0.3709  173.3   4.018   79.0  0.0808   70.2  0.3387  -26.0
 0.720  0.3713  172.4   3.920   78.4  0.0829   70.2  0.3376  -26.1
 0.740  0.3718  171.4   3.823   77.7  0.0850   70.1  0.3366  -26.2
 0.760  0.3725  170.5   3.726   77.0  0.0870   70.1  0.3355  -26.4
 0.780  0.3732  169.5   3.630   76.2  0.0891   70.0  0.3345  -26.5
 0.800  0.3740  168.6   3.534   75.4  0.0912   70.0  0.3334  -26.6
 0.820  0.3732  167.6   3.457   74.8  0.0933   70.0  0.3327  -26.8
 0.840  0.3726  166.6   3.381   74.2  0.0954   69.9  0.3320  -27.0
 0.860  0.3721  165.5   3.305   73.5  0.0976   69.9  0.3312  -27.1
 0.880  0.3717  164.5   3.230   72.8  0.0997   69.8  0.3305  -27.3
 0.900  0.3714  163.5   3.155   72.1  0.1018   69.8  0.3298  -27.5
 0.920  0.3728  162.6   3.095   71.5  0.1039   69.7  0.3289  -27.7
 0.940  0.3742  161.7   3.035   70.9  0.1060   69.6  0.3280  -28.0
 0.960  0.3758  160.8   2.975   70.2  0.1082   69.5  0.3271  -28.2
 0.980  0.3775  159.9   2.916   69.5  0.1103   69.4  0.3262  -28.5
 1.000  0.3792  159.0   2.857   68.8  0.1124   69.3  0.3253  -28.7
 1.020  0.3808  158.0   2.809   68.3  0.1145   69.2  0.3242  -29.0
 1.040  0.3825  157.1   2.761   67.7  0.1167   69.1  0.3232  -29.3
 1.060  0.3844  156.2   2.713   67.1  0.1188   69.0  0.3222  -29.6
 1.080  0.3863  155.2   2.666   66.5  0.1210   68.9  0.3211  -29.9
 1.100  0.3883  154.3   2.619   65.9  0.1231   68.8  0.3201  -30.2
 1.120  0.3894  153.5   2.579   65.3  0.1253   68.7  0.3192  -30.5
 1.140  0.3906  152.7   2.539   64.8  0.1275   68.6  0.3182  -30.7
 1.160  0.3919  151.9   2.499   64.2  0.1297   68.5  0.3173  -31.0
 1.180  0.3932  151.2   2.460   63.5  0.1319   68.4  0.3164  -31.2
 1.200  0.3946  150.4   2.421   62.9  0.1341   68.3  0.3155  -31.5
 1.220  0.3948  149.7   2.384   62.4  0.1363   68.1  0.3147  -31.8
 1.240  0.3951  149.0   2.348   61.9  0.1385   67.9  0.3139  -32.1
 1.260  0.3955  148.3   2.312   61.3  0.1408   67.7  0.3131  -32.5
 1.280  0.3959  147.6   2.276   60.8  0.1430   67.6  0.3123  -32.8
 1.300  0.3964  146.9   2.240   60.2  0.1452   67.4  0.3115  -33.1
 1.320  0.3974  146.1   2.212   59.7  0.1473   67.3  0.3106  -33.5
 1.340  0.3984  145.3   2.183   59.2  0.1493   67.2  0.3097  -33.9
 1.360  0.3995  144.5   2.155   58.7  0.1514   67.0  0.3088  -34.3
 1.380  0.4007  143.8   2.128   58.1  0.1534   66.9  0.3079  -34.7
 1.400  0.4020  143.0   2.100   57.6  0.1555   66.8  0.3071  -35.1
 1.420  0.4024  142.5   2.077   57.1  0.1576   66.6  0.3064  -35.4
 1.440  0.4027  142.0   2.055   56.6  0.1597   66.3  0.3056  -35.7
 1.460  0.4032  141.5   2.033   56.1  0.1619   66.1  0.3049  -36.1
 1.480  0.4036  141.0   2.011   55.6  0.1640   65.9  0.3042  -36.4
 1.500  0.4041  140.5   1.989   55.1  0.1661   65.7  0.3035  -36.7
 1.520  0.4063  139.8   1.965   54.5  0.1683   65.5  0.3026  -37.1
 1.540  0.4086  139.1   1.942   53.9  0.1705   65.4  0.3017  -37.5
 1.560  0.4109  138.4   1.918   53.3  0.1726   65.2  0.3008  -37.8
 1.580  0.4133  137.8   1.895   52.7  0.1748   65.1  0.3000  -38.2
 1.600  0.4158  137.1   1.872   52.1  0.1770   64.9  0.2991  -38.6
 1.620  0.4169  136.4   1.852   51.6  0.1791   64.7  0.2983  -38.9
 1.640  0.4181  135.7   1.832   51.1  0.1811   64.5  0.2975  -39.3
 1.660  0.4193  135.0   1.812   50.6  0.1832   64.3  0.2967  -39.6
 1.680  0.4206  134.3   1.792   50.0  0.1852   64.2  0.2959  -40.0
 1.700  0.4220  133.6   1.772   49.5  0.1873   64.0  0.2951  -40.3
 1.720  0.4239  132.9   1.756   49.1  0.1895   63.8  0.2941  -40.8
 1.740  0.4259  132.3   1.739   48.6  0.1917   63.5  0.2931  -41.2
 1.760  0.4280  131.7   1.723   48.1  0.1938   63.3  0.2921  -41.7
 1.780  0.4301  131.0   1.707   47.7  0.1960   63.1  0.2911  -42.1
 1.800  0.4322  130.4   1.691   47.2  0.1982   62.9  0.2902  -42.6
 1.820  0.4340  129.9   1.676   46.7  0.2004   62.7  0.2889  -43.0
 1.840  0.4357  129.4   1.661   46.2  0.2026   62.4  0.2875  -43.5
 1.860  0.4376  128.9   1.647   45.7  0.2047   62.2  0.2862  -43.9
 1.880  0.4394  128.5   1.632   45.1  0.2069   62.0  0.2850  -44.4
 1.900  0.4413  128.0   1.618   44.6  0.2091   61.8  0.2837  -44.8
 1.920  0.4418  127.4   1.603   44.1  0.2113   61.6  0.2825  -45.3
 1.940  0.4424  126.8   1.588   43.7  0.2134   61.3  0.2814  -45.7
 1.960  0.4430  126.2   1.573   43.2  0.2156   61.1  0.2802  -46.2
 1.980  0.4437  125.6   1.558   42.7  0.2177   60.9  0.2791  -46.6
 2.000  0.4444  125.0   1.543   42.2  0.2199   60.7  0.2780  -47.1
 2.020  0.4456  124.4   1.531   41.8  0.2221   60.5  0.2766  -47.6
 2.040  0.4469  123.9   1.520   41.4  0.2243   60.2  0.2752  -48.0
 2.060  0.4482  123.3   1.508   41.0  0.2265   60.0  0.2738  -48.5
 2.080  0.4495  122.8   1.497   40.6  0.2287   59.8  0.2724  -49.0
 2.100  0.4509  122.2   1.485   40.1  0.2309   59.5  0.2711  -49.5
 2.120  0.4523  121.7   1.474   39.7  0.2331   59.3  0.2698  -50.0
 2.140  0.4538  121.1   1.463   39.3  0.2353   59.1  0.2685  -50.5
 2.160  0.4553  120.6   1.452   38.8  0.2375   58.9  0.2672  -51.0
 2.180  0.4568  120.0   1.441   38.4  0.2397   58.7  0.2659  -51.5
 2.200  0.4584  119.5   1.430   37.9  0.2419   58.5  0.2647  -52.0
 2.220  0.4601  119.0   1.420   37.5  0.2440   58.3  0.2630  -52.5
 2.240  0.4619  118.5   1.409   37.0  0.2462   58.0  0.2612  -53.0
 2.260  0.4637  118.0   1.399   36.6  0.2483   57.8  0.2595  -53.5
 2.280  0.4655  117.5   1.389   36.1  0.2505   57.6  0.2579  -54.0
 2.300  0.4674  116.9   1.379   35.6  0.2526   57.4  0.2562  -54.5
 2.320  0.4693  116.5   1.369   35.2  0.2548   57.1  0.2546  -55.0
 2.340  0.4712  116.0   1.360   34.7  0.2569   56.9  0.2529  -55.5
 2.360  0.4732  115.5   1.350   34.2  0.2591   56.7  0.2513  -56.0
 2.380  0.4752  115.0   1.340   33.7  0.2612   56.5  0.2498  -56.6
 2.400  0.4772  114.5   1.331   33.2  0.2634   56.3  0.2482  -57.1
 2.420  0.4790  114.0   1.323   32.8  0.2655   56.0  0.2466  -57.6
 2.440  0.4808  113.5   1.315   32.5  0.2675   55.8  0.2449  -58.2
 2.460  0.4826  113.0   1.306   32.1  0.2696   55.5  0.2434  -58.8
 2.480  0.4845  112.5   1.298   31.7  0.2717   55.3  0.2418  -59.3
 2.500  0.4864  112.1   1.290   31.3  0.2738   55.0  0.2402  -59.9
 2.520  0.4884  111.6   1.282   30.9  0.2759   54.8  0.2387  -60.5
 2.540  0.4904  111.1   1.274   30.5  0.2780   54.5  0.2372  -61.1
 2.560  0.4924  110.6   1.267   30.1  0.2801   54.3  0.2358  -61.7
 2.580  0.4944  110.2   1.259   29.7  0.2822   54.0  0.2343  -62.3
 2.600  0.4965  109.7   1.251   29.3  0.2843   53.8  0.2329  -62.9
 2.620  0.4979  109.2   1.244   28.9  0.2864   53.5  0.2311  -63.6
 2.640  0.4994  108.8   1.236   28.6  0.2886   53.3  0.2293  -64.2
 2.660  0.5009  108.3   1.229   28.2  0.2908   53.0  0.2275  -64.9
 2.680  0.5024  107.9   1.222   27.8  0.2929   52.8  0.2258  -65.6
 2.700  0.5039  107.4   1.214   27.5  0.2951   52.6  0.2241  -66.3
 2.720  0.5055  107.0   1.207   27.1  0.2973   52.3  0.2224  -67.0
 2.740  0.5071  106.5   1.200   26.7  0.2994   52.1  0.2208  -67.8
 2.760  0.5087  106.1   1.193   26.3  0.3016   51.9  0.2192  -68.5
 2.780  0.5104  105.6   1.186   25.9  0.3038   51.6  0.2176  -69.2
 2.800  0.5121  105.2   1.179   25.5  0.3060   51.4  0.2161  -70.0
 2.820  0.5136  104.8   1.173   25.1  0.3080   51.1  0.2142  -70.7
 2.840  0.5151  104.4   1.167   24.8  0.3100   50.9  0.2123  -71.5
 2.860  0.5167  104.0   1.160   24.4  0.3120   50.6  0.2104  -72.2
 2.880  0.5183  103.7   1.154   24.0  0.3140   50.3  0.2086  -73.0
 2.900  0.5199  103.3   1.148   23.6  0.3161   50.1  0.2068  -73.7
 2.920  0.5215  102.9   1.142   23.3  0.3181   49.8  0.2051  -74.5
 2.940  0.5231  102.5   1.136   22.9  0.3201   49.5  0.2034  -75.3
 2.960  0.5248  102.1   1.131   22.5  0.3222   49.3  0.2017  -76.1
 2.980  0.5265  101.8   1.125   22.1  0.3242   49.0  0.2001  -77.0
 3.000  0.5282  101.4   1.119   21.7  0.3263   48.8  0.1985  -77.8
 3.100  0.5368   99.5   1.091   20.2  0.3360   47.3  0.1882  -82.3
 3.200  0.5461   97.6   1.064   18.6  0.3459   46.0  0.1792  -87.2
 3.300  0.5559   95.8   1.038   16.9  0.3559   44.7  0.1717  -92.6
 3.400  0.5662   94.1   1.013   15.1  0.3662   43.5  0.1658  -98.5
 3.500  0.5770   92.4   0.989   13.2  0.3766   42.3  0.1618 -104.7
 3.600  0.5834   90.9   0.969   11.9  0.3853   40.8  0.1545 -111.5
 3.700  0.5902   89.4   0.949   10.5  0.3943   39.3  0.1496 -118.8
 3.800  0.5974   88.0   0.930    9.1  0.4035   38.0  0.1473 -126.5
 3.900  0.6049   86.6   0.911    7.6  0.4130   36.7  0.1477 -134.3
 4.000  0.6128   85.2   0.893    6.0  0.4226   35.4  0.1508 -141.9
 4.100  0.6186   83.8   0.877    4.8  0.4301   33.9  0.1515 -149.1
 4.200  0.6249   82.4   0.861    3.7  0.4380   32.5  0.1546 -156.2
 4.300  0.6315   81.0   0.846    2.4  0.4460   31.2  0.1599 -162.8
 4.400  0.6384   79.6   0.831    1.1  0.4544   29.9  0.1672 -169.0
 4.500  0.6457   78.3   0.816   -0.2  0.4629   28.6  0.1763 -174.6
 4.600  0.6494   77.2   0.805   -1.2  0.4696   27.2  0.1822  180.0
 4.700  0.6533   76.1   0.794   -2.2  0.4766   25.9  0.1896  174.9
 4.800  0.6575   75.0   0.783   -3.2  0.4838   24.6  0.1984  170.3
 4.900  0.6619   74.0   0.773   -4.3  0.4912   23.3  0.2083  166.0
 5.000  0.6665   72.9   0.763   -5.4  0.4989   22.1  0.2193  162.2
 5.100  0.6690   71.9   0.752   -6.3  0.5044   20.7  0.2276  158.0
 5.200  0.6716   70.9   0.742   -7.2  0.5101   19.3  0.2370  154.2
 5.300  0.6745   69.9   0.732   -8.1  0.5162   17.9  0.2474  150.6
 5.400  0.6776   68.9   0.722   -9.0  0.5225   16.6  0.2587  147.4
 5.500  0.6809   67.9   0.712  -10.0  0.5291   15.3  0.2707  144.4
 5.600  0.6837   66.9   0.704  -10.8  0.5322   13.8  0.2761  140.9
 5.700  0.6868   65.8   0.696  -11.6  0.5357   12.4  0.2824  137.6
 5.800  0.6900   64.8   0.688  -12.4  0.5395   11.0  0.2897  134.4
 5.900  0.6935   63.8   0.680  -13.2  0.5436    9.6  0.2978  131.4
 6.000  0.6972   62.8   0.672  -14.1  0.5480    8.2  0.3067  128.6
!
!  f       NFmin   Gammaopt  rn/50
! GHz       dB    MAG  ANG    -
!
! noise parameter not available yet for this operation point!
!
! (c) 2015  Infineon Technologies AG, Munich
