! Infineon Technologies  Discrete & RF Semiconductors
! BFR182
! VCE =  4.0 V,  IC =  2.0 mA
! Common Emitter S-Parameters:                            Nov 2015
# GHz  S  MA  R  50
!  f         S11            S21            S12            S22
! GHz     MAG   ANG      MAG   ANG      MAG   ANG      MAG   ANG
 0.010  0.9214   -1.6   6.580  178.9  0.0019   94.1  0.9960   -0.6
 0.015  0.9170   -2.1   6.558  178.1  0.0029   90.8  0.9927   -1.0
 0.020  0.9126   -2.7   6.537  177.3  0.0039   89.2  0.9895   -1.4
 0.025  0.9130   -3.5   6.559  176.7  0.0049   87.9  0.9899   -1.7
 0.030  0.9136   -4.3   6.582  176.0  0.0060   87.1  0.9904   -2.0
 0.035  0.9143   -5.1   6.605  175.4  0.0070   86.5  0.9909   -2.3
 0.040  0.9152   -5.9   6.629  174.8  0.0081   86.1  0.9915   -2.6
 0.045  0.9163   -6.7   6.654  174.2  0.0091   85.8  0.9920   -2.9
 0.050  0.9176   -7.5   6.680  173.6  0.0102   85.5  0.9926   -3.2
 0.055  0.9158   -8.2   6.663  173.0  0.0112   84.7  0.9916   -3.5
 0.060  0.9141   -8.9   6.646  172.4  0.0123   84.0  0.9906   -3.8
 0.065  0.9126   -9.7   6.630  171.8  0.0133   83.4  0.9897   -4.2
 0.070  0.9112  -10.4   6.615  171.2  0.0144   82.9  0.9888   -4.5
 0.075  0.9100  -11.1   6.600  170.6  0.0154   82.5  0.9879   -4.8
 0.080  0.9089  -11.9   6.586  170.0  0.0165   82.1  0.9870   -5.1
 0.085  0.9079  -12.6   6.573  169.4  0.0175   81.8  0.9862   -5.4
 0.090  0.9071  -13.3   6.561  168.7  0.0186   81.5  0.9854   -5.8
 0.095  0.9065  -14.1   6.550  168.1  0.0196   81.2  0.9846   -6.1
 0.100  0.9060  -14.8   6.539  167.5  0.0207   81.0  0.9839   -6.4
 0.105  0.9027  -15.5   6.528  166.8  0.0217   80.4  0.9822   -6.7
 0.110  0.8996  -16.2   6.519  166.1  0.0227   79.8  0.9806   -7.0
 0.115  0.8965  -16.9   6.510  165.3  0.0237   79.3  0.9790   -7.3
 0.120  0.8937  -17.7   6.503  164.6  0.0247   78.9  0.9774   -7.6
 0.125  0.8909  -18.4   6.496  163.9  0.0257   78.4  0.9758   -7.9
 0.130  0.8884  -19.1   6.491  163.1  0.0267   78.0  0.9743   -8.2
 0.135  0.8859  -19.9   6.487  162.4  0.0277   77.7  0.9727   -8.6
 0.140  0.8836  -20.6   6.483  161.7  0.0287   77.3  0.9713   -8.9
 0.145  0.8815  -21.4   6.481  160.9  0.0297   77.0  0.9698   -9.2
 0.150  0.8795  -22.1   6.480  160.2  0.0307   76.7  0.9684   -9.5
 0.155  0.8767  -22.8   6.462  159.6  0.0316   76.3  0.9663   -9.8
 0.160  0.8740  -23.5   6.445  159.1  0.0325   75.9  0.9643  -10.1
 0.165  0.8714  -24.2   6.429  158.5  0.0333   75.6  0.9623  -10.3
 0.170  0.8689  -24.9   6.413  158.0  0.0342   75.3  0.9603  -10.6
 0.175  0.8666  -25.6   6.398  157.4  0.0351   75.0  0.9584  -10.9
 0.180  0.8644  -26.3   6.383  156.8  0.0360   74.7  0.9564  -11.2
 0.185  0.8623  -27.0   6.369  156.2  0.0368   74.4  0.9545  -11.4
 0.190  0.8604  -27.7   6.356  155.7  0.0377   74.1  0.9526  -11.7
 0.195  0.8586  -28.4   6.343  155.1  0.0386   73.8  0.9507  -12.0
 0.200  0.8569  -29.1   6.331  154.5  0.0395   73.6  0.9489  -12.3
 0.220  0.8442  -31.9   6.212  152.2  0.0428   71.9  0.9407  -13.3
 0.240  0.8336  -34.7   6.103  149.9  0.0462   70.4  0.9328  -14.3
 0.260  0.8212  -37.4   6.009  147.6  0.0494   69.1  0.9243  -15.2
 0.280  0.8066  -39.8   5.927  145.4  0.0524   68.0  0.9151  -16.1
 0.300  0.7934  -42.3   5.854  143.2  0.0555   67.0  0.9062  -17.0
 0.320  0.7765  -44.6   5.761  141.4  0.0579   65.6  0.8957  -17.8
 0.340  0.7609  -47.1   5.675  139.6  0.0603   64.4  0.8853  -18.6
 0.360  0.7468  -49.6   5.594  137.7  0.0628   63.2  0.8751  -19.4
 0.380  0.7343  -52.3   5.520  135.7  0.0653   62.1  0.8651  -20.2
 0.400  0.7233  -55.0   5.452  133.7  0.0678   61.1  0.8553  -21.1
 0.420  0.7071  -57.0   5.331  132.0  0.0698   60.1  0.8458  -21.7
 0.440  0.6917  -59.0   5.215  130.3  0.0718   59.2  0.8363  -22.2
 0.450  0.6844  -60.1   5.159  129.3  0.0728   58.8  0.8316  -22.5
 0.460  0.6773  -61.2   5.105  128.4  0.0738   58.4  0.8269  -22.8
 0.480  0.6639  -63.4   4.999  126.5  0.0758   57.6  0.8176  -23.4
 0.500  0.6515  -65.7   4.900  124.5  0.0779   56.8  0.8084  -24.0
 0.520  0.6393  -67.5   4.812  123.2  0.0796   56.1  0.8008  -24.4
 0.540  0.6279  -69.5   4.728  121.8  0.0812   55.5  0.7933  -24.9
 0.560  0.6171  -71.4   4.646  120.3  0.0829   54.9  0.7859  -25.3
 0.580  0.6072  -73.5   4.567  118.8  0.0846   54.3  0.7785  -25.7
 0.600  0.5980  -75.6   4.491  117.3  0.0863   53.7  0.7711  -26.2
 0.620  0.5846  -77.4   4.417  116.0  0.0875   53.3  0.7639  -26.5
 0.640  0.5719  -79.2   4.345  114.7  0.0888   52.8  0.7568  -26.9
 0.660  0.5597  -81.2   4.275  113.3  0.0900   52.4  0.7497  -27.2
 0.680  0.5483  -83.2   4.208  111.9  0.0913   52.0  0.7426  -27.5
 0.700  0.5375  -85.3   4.144  110.4  0.0925   51.6  0.7355  -27.9
 0.720  0.5268  -86.9   4.072  109.3  0.0936   51.2  0.7292  -28.2
 0.740  0.5166  -88.7   4.002  108.1  0.0947   50.9  0.7230  -28.5
 0.760  0.5068  -90.4   3.933  106.9  0.0958   50.6  0.7167  -28.8
 0.780  0.4975  -92.3   3.867  105.6  0.0969   50.2  0.7105  -29.1
 0.800  0.4888  -94.2   3.802  104.3  0.0980   49.9  0.7043  -29.4
 0.820  0.4787  -95.6   3.742  103.2  0.0988   49.7  0.6988  -29.6
 0.840  0.4690  -97.0   3.684  102.2  0.0997   49.6  0.6934  -29.8
 0.860  0.4595  -98.5   3.627  101.0  0.1005   49.4  0.6879  -30.0
 0.880  0.4504 -100.1   3.571   99.9  0.1014   49.3  0.6825  -30.3
 0.900  0.4416 -101.7   3.517   98.7  0.1022   49.1  0.6771  -30.5
 0.920  0.4343 -103.4   3.464   97.8  0.1030   49.0  0.6730  -30.7
 0.940  0.4275 -105.1   3.411   96.9  0.1038   48.9  0.6688  -30.9
 0.960  0.4210 -106.9   3.360   96.0  0.1046   48.8  0.6647  -31.1
 0.980  0.4150 -108.8   3.309   95.1  0.1054   48.7  0.6606  -31.3
 1.000  0.4094 -110.7   3.259   94.1  0.1062   48.6  0.6565  -31.5
 1.020  0.4029 -112.4   3.214   93.3  0.1070   48.6  0.6532  -31.7
 1.040  0.3967 -114.1   3.169   92.5  0.1078   48.6  0.6499  -31.9
 1.060  0.3909 -115.9   3.125   91.6  0.1085   48.5  0.6466  -32.1
 1.080  0.3856 -117.8   3.082   90.7  0.1093   48.5  0.6433  -32.3
 1.100  0.3806 -119.7   3.040   89.8  0.1101   48.5  0.6400  -32.5
 1.120  0.3752 -121.2   2.999   89.0  0.1109   48.5  0.6373  -32.7
 1.140  0.3700 -122.7   2.959   88.1  0.1117   48.5  0.6347  -32.9
 1.160  0.3651 -124.3   2.919   87.3  0.1124   48.6  0.6320  -33.2
 1.180  0.3605 -125.9   2.880   86.4  0.1132   48.6  0.6293  -33.4
 1.200  0.3562 -127.6   2.842   85.5  0.1140   48.6  0.6267  -33.6
 1.220  0.3526 -129.0   2.805   84.8  0.1148   48.7  0.6242  -33.8
 1.240  0.3492 -130.5   2.767   84.1  0.1156   48.7  0.6217  -34.0
 1.260  0.3461 -132.0   2.731   83.3  0.1165   48.8  0.6192  -34.1
 1.280  0.3432 -133.5   2.695   82.6  0.1173   48.8  0.6168  -34.3
 1.300  0.3405 -135.1   2.659   81.8  0.1181   48.9  0.6143  -34.5
 1.320  0.3352 -136.7   2.628   81.1  0.1188   49.0  0.6123  -34.7
 1.340  0.3302 -138.4   2.597   80.3  0.1195   49.1  0.6103  -34.9
 1.360  0.3255 -140.2   2.567   79.6  0.1203   49.1  0.6083  -35.2
 1.380  0.3211 -142.0   2.537   78.8  0.1210   49.2  0.6064  -35.4
 1.400  0.3170 -143.8   2.508   78.0  0.1217   49.3  0.6044  -35.6
 1.420  0.3143 -145.1   2.485   77.4  0.1226   49.4  0.6024  -35.8
 1.440  0.3118 -146.4   2.462   76.7  0.1234   49.5  0.6004  -36.0
 1.460  0.3094 -147.8   2.439   76.1  0.1243   49.7  0.5984  -36.1
 1.480  0.3072 -149.1   2.417   75.4  0.1251   49.8  0.5964  -36.3
 1.500  0.3052 -150.5   2.395   74.7  0.1260   49.9  0.5944  -36.5
 1.520  0.3023 -152.4   2.368   74.0  0.1269   50.0  0.5925  -36.7
 1.540  0.2997 -154.3   2.342   73.2  0.1278   50.1  0.5906  -36.9
 1.560  0.2974 -156.2   2.316   72.5  0.1286   50.3  0.5887  -37.0
 1.580  0.2955 -158.1   2.291   71.7  0.1295   50.4  0.5869  -37.2
 1.600  0.2939 -160.1   2.266   70.9  0.1304   50.5  0.5850  -37.4
 1.620  0.2914 -161.6   2.246   70.3  0.1314   50.8  0.5828  -37.6
 1.640  0.2890 -163.1   2.226   69.7  0.1323   51.1  0.5806  -37.8
 1.660  0.2869 -164.6   2.206   69.1  0.1333   51.4  0.5784  -38.1
 1.680  0.2849 -166.1   2.186   68.4  0.1342   51.7  0.5763  -38.3
 1.700  0.2832 -167.7   2.167   67.8  0.1352   52.0  0.5741  -38.5
 1.720  0.2821 -169.3   2.148   67.2  0.1363   52.1  0.5727  -38.7
 1.740  0.2812 -170.8   2.128   66.7  0.1374   52.3  0.5712  -38.9
 1.760  0.2805 -172.4   2.109   66.1  0.1385   52.4  0.5698  -39.2
 1.780  0.2801 -174.0   2.091   65.5  0.1396   52.6  0.5684  -39.4
 1.800  0.2798 -175.6   2.072   64.9  0.1407   52.7  0.5670  -39.6
 1.820  0.2813 -176.9   2.055   64.3  0.1418   52.8  0.5659  -39.9
 1.840  0.2830 -178.2   2.039   63.7  0.1429   52.9  0.5649  -40.2
 1.860  0.2848 -179.6   2.022   63.1  0.1439   53.0  0.5638  -40.4
 1.880  0.2868  179.2   2.006   62.5  0.1450   53.1  0.5628  -40.7
 1.900  0.2889  177.9   1.990   61.9  0.1461   53.2  0.5618  -41.0
 1.920  0.2885  176.5   1.971   61.3  0.1473   53.3  0.5609  -41.2
 1.940  0.2882  175.2   1.953   60.8  0.1485   53.3  0.5601  -41.4
 1.960  0.2881  173.8   1.934   60.2  0.1497   53.4  0.5593  -41.7
 1.980  0.2881  172.5   1.916   59.6  0.1509   53.4  0.5584  -41.9
 2.000  0.2883  171.1   1.898   59.0  0.1521   53.5  0.5576  -42.1
 2.020  0.2881  169.8   1.884   58.5  0.1534   53.7  0.5562  -42.4
 2.040  0.2880  168.6   1.870   58.0  0.1547   53.8  0.5548  -42.7
 2.060  0.2881  167.3   1.856   57.4  0.1560   53.9  0.5534  -43.0
 2.080  0.2883  166.0   1.843   56.9  0.1573   54.1  0.5520  -43.2
 2.100  0.2886  164.8   1.829   56.3  0.1586   54.2  0.5506  -43.5
 2.120  0.2891  163.5   1.816   55.8  0.1599   54.4  0.5493  -43.8
 2.140  0.2897  162.2   1.803   55.2  0.1613   54.5  0.5479  -44.1
 2.160  0.2905  161.0   1.790   54.7  0.1626   54.6  0.5466  -44.4
 2.180  0.2914  159.7   1.778   54.1  0.1639   54.8  0.5453  -44.7
 2.200  0.2924  158.5   1.765   53.5  0.1652   54.9  0.5440  -45.0
 2.220  0.2934  157.4   1.753   53.0  0.1666   55.0  0.5429  -45.3
 2.240  0.2945  156.2   1.741   52.5  0.1679   55.1  0.5418  -45.6
 2.260  0.2958  155.1   1.729   52.0  0.1693   55.2  0.5408  -45.9
 2.280  0.2971  154.0   1.717   51.5  0.1707   55.3  0.5397  -46.2
 2.300  0.2986  152.9   1.705   50.9  0.1720   55.4  0.5387  -46.5
 2.320  0.3002  151.8   1.694   50.4  0.1734   55.5  0.5377  -46.8
 2.340  0.3018  150.8   1.682   49.9  0.1748   55.5  0.5367  -47.2
 2.360  0.3036  149.7   1.671   49.3  0.1762   55.6  0.5357  -47.5
 2.380  0.3055  148.6   1.660   48.8  0.1775   55.7  0.5347  -47.8
 2.400  0.3075  147.6   1.649   48.2  0.1789   55.8  0.5338  -48.1
 2.420  0.3089  146.5   1.639   47.8  0.1806   55.8  0.5322  -48.4
 2.440  0.3105  145.4   1.629   47.3  0.1822   55.9  0.5306  -48.7
 2.460  0.3122  144.3   1.620   46.8  0.1839   55.9  0.5291  -49.1
 2.480  0.3140  143.2   1.610   46.4  0.1855   56.0  0.5276  -49.4
 2.500  0.3159  142.1   1.601   45.9  0.1872   56.0  0.5260  -49.7
 2.520  0.3179  141.0   1.591   45.4  0.1889   56.0  0.5245  -50.1
 2.540  0.3200  140.0   1.582   45.0  0.1905   56.1  0.5230  -50.4
 2.560  0.3222  138.9   1.573   44.5  0.1922   56.1  0.5216  -50.7
 2.580  0.3246  137.9   1.564   44.0  0.1938   56.2  0.5201  -51.1
 2.600  0.3270  136.9   1.555   43.5  0.1955   56.2  0.5187  -51.4
 2.620  0.3286  136.1   1.546   43.1  0.1972   56.2  0.5178  -51.8
 2.640  0.3303  135.3   1.537   42.7  0.1988   56.2  0.5169  -52.1
 2.660  0.3320  134.5   1.527   42.2  0.2005   56.2  0.5160  -52.5
 2.680  0.3338  133.7   1.518   41.8  0.2022   56.2  0.5152  -52.9
 2.700  0.3357  132.9   1.509   41.4  0.2038   56.3  0.5143  -53.2
 2.720  0.3376  132.1   1.501   40.9  0.2055   56.3  0.5135  -53.6
 2.740  0.3396  131.3   1.492   40.5  0.2072   56.3  0.5127  -54.0
 2.760  0.3416  130.6   1.483   40.0  0.2089   56.3  0.5120  -54.4
 2.780  0.3437  129.8   1.474   39.6  0.2105   56.3  0.5112  -54.7
 2.800  0.3459  129.1   1.466   39.1  0.2122   56.3  0.5105  -55.1
 2.820  0.3481  128.3   1.458   38.7  0.2140   56.3  0.5089  -55.5
 2.840  0.3503  127.6   1.451   38.2  0.2159   56.2  0.5073  -55.9
 2.860  0.3526  126.8   1.443   37.7  0.2177   56.2  0.5057  -56.3
 2.880  0.3549  126.1   1.436   37.3  0.2196   56.2  0.5042  -56.7
 2.900  0.3573  125.4   1.428   36.8  0.2214   56.1  0.5027  -57.1
 2.920  0.3597  124.7   1.421   36.3  0.2233   56.1  0.5012  -57.5
 2.940  0.3623  124.0   1.414   35.9  0.2251   56.1  0.4997  -57.9
 2.960  0.3648  123.3   1.407   35.4  0.2270   56.1  0.4983  -58.3
 2.980  0.3674  122.6   1.400   34.9  0.2288   56.0  0.4969  -58.7
 3.000  0.3701  121.9   1.393   34.4  0.2307   56.0  0.4955  -59.1
 3.100  0.3806  118.8   1.359   32.6  0.2408   55.5  0.4875  -61.5
 3.200  0.3922  115.8   1.326   30.8  0.2510   55.0  0.4803  -63.9
 3.300  0.4048  113.0   1.294   28.8  0.2611   54.6  0.4741  -66.4
 3.400  0.4182  110.4   1.264   26.7  0.2713   54.2  0.4688  -69.0
 3.500  0.4325  108.0   1.236   24.6  0.2815   53.8  0.4644  -71.6
 3.600  0.4419  105.7   1.210   22.9  0.2927   52.9  0.4555  -74.7
 3.700  0.4520  103.5   1.185   21.2  0.3039   52.1  0.4481  -77.9
 3.800  0.4627  101.3   1.162   19.4  0.3152   51.3  0.4420  -81.2
 3.900  0.4741   99.3   1.139   17.5  0.3265   50.6  0.4375  -84.6
 4.000  0.4860   97.4   1.118   15.6  0.3379   49.9  0.4345  -88.0
 4.100  0.4948   95.6   1.096   14.1  0.3496   48.6  0.4252  -91.6
 4.200  0.5040   93.9   1.075   12.6  0.3615   47.4  0.4177  -95.4
 4.300  0.5136   92.3   1.055   11.0  0.3735   46.3  0.4121  -99.2
 4.400  0.5237   90.7   1.036    9.4  0.3857   45.2  0.4083 -103.2
 4.500  0.5341   89.2   1.017    7.7  0.3980   44.2  0.4066 -107.2
 4.600  0.5410   87.8   1.002    6.4  0.4094   42.7  0.3984 -111.1
 4.700  0.5482   86.5   0.987    5.0  0.4210   41.3  0.3921 -115.2
 4.800  0.5557   85.2   0.973    3.6  0.4329   40.0  0.3878 -119.4
 4.900  0.5635   83.9   0.960    2.2  0.4450   38.7  0.3856 -123.6
 5.000  0.5715   82.7   0.947    0.7  0.4573   37.5  0.3856 -127.9
 5.100  0.5771   81.4   0.931   -0.4  0.4672   35.9  0.3800 -132.3
 5.200  0.5831   80.1   0.915   -1.6  0.4775   34.3  0.3767 -136.7
 5.300  0.5893   78.8   0.900   -2.8  0.4881   32.9  0.3758 -141.2
 5.400  0.5958   77.5   0.885   -4.1  0.4990   31.5  0.3771 -145.7
 5.500  0.6026   76.3   0.871   -5.4  0.5102   30.1  0.3808 -150.2
 5.600  0.6083   75.1   0.856   -6.5  0.5172   28.3  0.3742 -154.4
 5.700  0.6144   73.9   0.842   -7.6  0.5247   26.5  0.3698 -158.8
 5.800  0.6206   72.7   0.828   -8.8  0.5327   24.8  0.3675 -163.2
 5.900  0.6271   71.6   0.814  -10.0  0.5411   23.2  0.3674 -167.7
 6.000  0.6339   70.5   0.801  -11.2  0.5500   21.6  0.3696 -172.1
!
!  f       NFmin   Gammaopt  rn/50
! GHz       dB    MAG  ANG    -
 0.450      1.10  0.42   29   0.36
 0.900      1.20  0.40   58   0.30
 1.800      1.85  0.32  126   0.22
!
! (c) 2015  Infineon Technologies AG, Munich
