! Infineon Technologies  Discrete & RF Semiconductors
! BFR182W
! VCE =  2.5 V,  IC = 0.75 mA
! Common Emitter S-Parameters:                            Nov 2015
# GHz  S  MA  R  50
!  f         S11            S21            S12            S22
! GHz     MAG   ANG      MAG   ANG      MAG   ANG      MAG   ANG
 0.100  0.9679  -11.0   2.627  171.6  0.0232   82.8  0.9932   -4.1
 0.105  0.9670  -11.5   2.625  171.2  0.0243   82.4  0.9928   -4.3
 0.110  0.9661  -12.1   2.623  170.7  0.0254   82.0  0.9923   -4.5
 0.115  0.9654  -12.6   2.621  170.3  0.0266   81.6  0.9919   -4.7
 0.120  0.9647  -13.2   2.620  169.8  0.0277   81.3  0.9915   -4.9
 0.125  0.9641  -13.7   2.618  169.4  0.0288   81.0  0.9911   -5.1
 0.130  0.9637  -14.3   2.617  169.0  0.0299   80.7  0.9907   -5.4
 0.135  0.9633  -14.8   2.616  168.5  0.0310   80.5  0.9903   -5.6
 0.140  0.9629  -15.4   2.615  168.1  0.0322   80.2  0.9900   -5.8
 0.145  0.9627  -15.9   2.614  167.6  0.0333   80.0  0.9896   -6.0
 0.150  0.9626  -16.5   2.613  167.2  0.0344   79.8  0.9893   -6.2
 0.155  0.9616  -17.0   2.611  166.8  0.0355   79.4  0.9886   -6.4
 0.160  0.9606  -17.6   2.609  166.4  0.0366   79.1  0.9878   -6.6
 0.165  0.9598  -18.1   2.607  166.0  0.0377   78.8  0.9871   -6.7
 0.170  0.9590  -18.6   2.605  165.6  0.0387   78.5  0.9864   -6.9
 0.175  0.9583  -19.1   2.604  165.2  0.0398   78.2  0.9857   -7.1
 0.180  0.9577  -19.7   2.602  164.8  0.0409   77.9  0.9850   -7.3
 0.185  0.9572  -20.2   2.601  164.4  0.0420   77.7  0.9843   -7.5
 0.190  0.9567  -20.7   2.600  164.0  0.0431   77.4  0.9836   -7.6
 0.195  0.9564  -21.3   2.599  163.6  0.0442   77.2  0.9830   -7.8
 0.200  0.9561  -21.8   2.598  163.2  0.0453   77.0  0.9823   -8.0
 0.220  0.9510  -23.9   2.587  161.5  0.0496   75.5  0.9792   -8.8
 0.240  0.9471  -26.0   2.578  159.8  0.0540   74.2  0.9763   -9.7
 0.260  0.9423  -28.1   2.566  158.1  0.0581   72.9  0.9729  -10.5
 0.280  0.9366  -30.3   2.550  156.6  0.0621   71.6  0.9691  -11.2
 0.300  0.9321  -32.4   2.537  155.0  0.0660   70.4  0.9655  -11.9
 0.320  0.9238  -34.4   2.520  153.4  0.0696   69.0  0.9609  -12.6
 0.340  0.9166  -36.4   2.506  151.7  0.0732   67.7  0.9565  -13.3
 0.360  0.9106  -38.4   2.493  150.0  0.0769   66.6  0.9522  -14.0
 0.380  0.9056  -40.4   2.483  148.3  0.0806   65.5  0.9480  -14.7
 0.400  0.9019  -42.5   2.475  146.6  0.0843   64.6  0.9440  -15.4
 0.420  0.8948  -44.4   2.454  145.1  0.0874   63.3  0.9393  -16.0
 0.440  0.8887  -46.4   2.435  143.7  0.0906   62.1  0.9347  -16.7
 0.450  0.8860  -47.4   2.426  142.9  0.0922   61.5  0.9325  -17.0
 0.460  0.8836  -48.4   2.418  142.2  0.0939   60.9  0.9302  -17.4
 0.480  0.8797  -50.4   2.402  140.6  0.0971   59.9  0.9259  -18.0
 0.500  0.8768  -52.4   2.388  139.1  0.1004   58.9  0.9217  -18.7
 0.520  0.8682  -54.2   2.366  137.7  0.1031   57.8  0.9166  -19.3
 0.540  0.8606  -56.1   2.345  136.3  0.1058   56.8  0.9115  -19.8
 0.560  0.8538  -58.0   2.326  134.8  0.1085   55.8  0.9066  -20.4
 0.580  0.8480  -59.9   2.309  133.3  0.1113   54.9  0.9018  -21.0
 0.600  0.8431  -61.8   2.293  131.8  0.1141   54.0  0.8970  -21.6
 0.620  0.8355  -63.6   2.270  130.5  0.1162   53.0  0.8921  -22.1
 0.640  0.8287  -65.4   2.248  129.1  0.1184   52.1  0.8873  -22.6
 0.660  0.8227  -67.2   2.227  127.7  0.1205   51.1  0.8825  -23.1
 0.680  0.8176  -69.0   2.208  126.3  0.1228   50.3  0.8778  -23.6
 0.700  0.8133  -70.9   2.190  124.9  0.1250   49.4  0.8732  -24.1
 0.720  0.8063  -72.6   2.168  123.7  0.1266   48.6  0.8683  -24.6
 0.740  0.8000  -74.3   2.147  122.5  0.1283   47.7  0.8635  -25.0
 0.760  0.7945  -76.0   2.127  121.2  0.1300   46.9  0.8587  -25.5
 0.780  0.7896  -77.7   2.109  119.9  0.1317   46.2  0.8540  -26.0
 0.800  0.7855  -79.5   2.091  118.6  0.1334   45.4  0.8493  -26.5
 0.820  0.7774  -81.0   2.068  117.5  0.1347   44.7  0.8450  -26.9
 0.840  0.7699  -82.6   2.046  116.4  0.1361   43.9  0.8407  -27.2
 0.860  0.7630  -84.2   2.024  115.3  0.1374   43.2  0.8364  -27.6
 0.880  0.7566  -85.8   2.004  114.1  0.1388   42.5  0.8322  -28.0
 0.900  0.7509  -87.4   1.984  112.9  0.1402   41.8  0.8280  -28.4
 0.920  0.7457  -88.9   1.965  111.9  0.1411   41.1  0.8239  -28.8
 0.940  0.7410  -90.4   1.947  110.8  0.1420   40.5  0.8198  -29.2
 0.960  0.7369  -92.0   1.930  109.8  0.1430   39.9  0.8158  -29.6
 0.980  0.7333  -93.5   1.913  108.7  0.1439   39.2  0.8118  -30.0
 1.000  0.7302  -95.1   1.897  107.6  0.1449   38.6  0.8078  -30.4
 1.020  0.7239  -96.4   1.876  106.7  0.1454   38.0  0.8043  -30.7
 1.040  0.7181  -97.8   1.855  105.8  0.1458   37.5  0.8008  -31.1
 1.060  0.7126  -99.1   1.835  104.8  0.1463   36.9  0.7974  -31.4
 1.080  0.7075 -100.5   1.815  103.9  0.1468   36.4  0.7939  -31.8
 1.100  0.7029 -101.9   1.796  102.9  0.1473   35.8  0.7905  -32.1
 1.120  0.6987 -103.4   1.778  101.9  0.1479   35.3  0.7872  -32.5
 1.140  0.6949 -104.8   1.760  100.8  0.1484   34.7  0.7838  -32.8
 1.160  0.6916 -106.3   1.742   99.8  0.1490   34.2  0.7805  -33.2
 1.180  0.6887 -107.7   1.725   98.7  0.1495   33.6  0.7772  -33.5
 1.200  0.6863 -109.2   1.709   97.6  0.1501   33.1  0.7740  -33.9
 1.220  0.6816 -110.4   1.693   96.8  0.1501   32.7  0.7712  -34.2
 1.240  0.6771 -111.7   1.677   96.0  0.1500   32.3  0.7684  -34.5
 1.260  0.6730 -112.9   1.661   95.2  0.1500   32.0  0.7656  -34.7
 1.280  0.6692 -114.2   1.646   94.3  0.1499   31.6  0.7629  -35.0
 1.300  0.6658 -115.4   1.631   93.5  0.1499   31.2  0.7602  -35.3
 1.320  0.6627 -116.7   1.616   92.6  0.1499   30.8  0.7574  -35.6
 1.340  0.6599 -118.0   1.602   91.7  0.1499   30.4  0.7548  -35.9
 1.360  0.6574 -119.3   1.588   90.8  0.1499   30.1  0.7521  -36.2
 1.380  0.6553 -120.7   1.575   89.9  0.1499   29.7  0.7494  -36.5
 1.400  0.6536 -122.0   1.562   89.0  0.1499   29.3  0.7468  -36.8
 1.420  0.6511 -123.2   1.548   88.2  0.1496   29.0  0.7444  -37.1
 1.440  0.6488 -124.3   1.535   87.5  0.1494   28.8  0.7421  -37.4
 1.460  0.6468 -125.5   1.522   86.7  0.1491   28.5  0.7398  -37.7
 1.480  0.6450 -126.7   1.509   85.9  0.1489   28.3  0.7375  -38.0
 1.500  0.6436 -127.9   1.497   85.1  0.1486   28.0  0.7352  -38.3
 1.520  0.6398 -129.0   1.484   84.4  0.1483   27.8  0.7334  -38.5
 1.540  0.6362 -130.1   1.471   83.6  0.1480   27.7  0.7317  -38.8
 1.560  0.6328 -131.3   1.458   82.9  0.1477   27.5  0.7299  -39.0
 1.580  0.6297 -132.4   1.445   82.1  0.1474   27.4  0.7282  -39.3
 1.600  0.6269 -133.6   1.433   81.3  0.1471   27.2  0.7265  -39.5
 1.620  0.6248 -134.6   1.422   80.7  0.1466   27.1  0.7249  -39.8
 1.640  0.6228 -135.7   1.410   80.0  0.1460   27.0  0.7232  -40.0
 1.660  0.6211 -136.7   1.399   79.4  0.1455   26.9  0.7216  -40.3
 1.680  0.6196 -137.7   1.388   78.7  0.1449   26.8  0.7200  -40.6
 1.700  0.6183 -138.8   1.378   78.0  0.1444   26.8  0.7185  -40.8
 1.720  0.6172 -139.9   1.367   77.3  0.1439   26.7  0.7169  -41.1
 1.740  0.6163 -140.9   1.357   76.7  0.1433   26.6  0.7153  -41.4
 1.760  0.6156 -142.0   1.347   75.9  0.1428   26.5  0.7138  -41.7
 1.780  0.6152 -143.0   1.337   75.2  0.1422   26.4  0.7123  -41.9
 1.800  0.6149 -144.1   1.327   74.5  0.1417   26.3  0.7108  -42.2
 1.820  0.6128 -145.1   1.317   73.9  0.1410   26.3  0.7098  -42.5
 1.840  0.6110 -146.1   1.306   73.3  0.1404   26.4  0.7088  -42.8
 1.860  0.6093 -147.1   1.296   72.7  0.1397   26.4  0.7079  -43.1
 1.880  0.6078 -148.1   1.286   72.1  0.1391   26.5  0.7069  -43.4
 1.900  0.6065 -149.1   1.276   71.5  0.1384   26.5  0.7060  -43.6
 1.920  0.6054 -150.2   1.266   70.8  0.1378   26.5  0.7051  -43.9
 1.940  0.6045 -151.2   1.257   70.2  0.1371   26.6  0.7042  -44.2
 1.960  0.6037 -152.2   1.247   69.5  0.1365   26.6  0.7034  -44.5
 1.980  0.6032 -153.3   1.238   68.9  0.1358   26.7  0.7025  -44.8
 2.000  0.6029 -154.3   1.229   68.2  0.1352   26.7  0.7017  -45.1
 2.020  0.6015 -155.1   1.220   67.7  0.1346   26.9  0.7011  -45.4
 2.040  0.6002 -155.9   1.211   67.2  0.1340   27.1  0.7006  -45.7
 2.060  0.5990 -156.7   1.203   66.7  0.1335   27.3  0.7001  -45.9
 2.080  0.5979 -157.5   1.194   66.1  0.1329   27.6  0.6995  -46.2
 2.100  0.5970 -158.4   1.186   65.6  0.1323   27.8  0.6990  -46.5
 2.120  0.5961 -159.2   1.177   65.1  0.1318   28.0  0.6986  -46.8
 2.140  0.5954 -160.0   1.169   64.5  0.1312   28.2  0.6981  -47.1
 2.160  0.5949 -160.8   1.161   63.9  0.1306   28.4  0.6976  -47.3
 2.180  0.5944 -161.7   1.153   63.4  0.1301   28.7  0.6972  -47.6
 2.200  0.5941 -162.5   1.145   62.8  0.1295   28.9  0.6968  -47.9
 2.220  0.5933 -163.3   1.138   62.3  0.1289   29.3  0.6965  -48.2
 2.240  0.5927 -164.1   1.131   61.8  0.1283   29.6  0.6962  -48.5
 2.260  0.5921 -164.9   1.124   61.3  0.1278   30.0  0.6960  -48.8
 2.280  0.5917 -165.7   1.117   60.8  0.1272   30.4  0.6957  -49.1
 2.300  0.5914 -166.5   1.110   60.3  0.1266   30.8  0.6955  -49.4
 2.320  0.5912 -167.4   1.104   59.8  0.1261   31.1  0.6953  -49.7
 2.340  0.5911 -168.2   1.097   59.2  0.1255   31.5  0.6951  -50.0
 2.360  0.5912 -169.0   1.091   58.7  0.1250   31.9  0.6950  -50.3
 2.380  0.5913 -169.8   1.084   58.1  0.1244   32.3  0.6948  -50.6
 2.400  0.5916 -170.6   1.078   57.6  0.1239   32.7  0.6947  -50.9
 2.420  0.5903 -171.4   1.070   57.1  0.1236   33.1  0.6945  -51.1
 2.440  0.5890 -172.2   1.063   56.5  0.1233   33.5  0.6943  -51.3
 2.460  0.5879 -173.1   1.055   55.9  0.1230   34.0  0.6942  -51.6
 2.480  0.5870 -173.9   1.048   55.4  0.1227   34.4  0.6940  -51.8
 2.500  0.5861 -174.7   1.041   54.8  0.1224   34.8  0.6939  -52.0
 2.520  0.5855 -175.4   1.035   54.4  0.1223   35.5  0.6936  -52.3
 2.540  0.5849 -176.1   1.029   54.1  0.1222   36.1  0.6934  -52.7
 2.560  0.5845 -176.9   1.023   53.7  0.1221   36.8  0.6932  -53.0
 2.580  0.5841 -177.6   1.017   53.4  0.1221   37.4  0.6930  -53.3
 2.600  0.5838 -178.3   1.011   53.0  0.1220   38.1  0.6928  -53.6
 2.620  0.5837 -179.0   1.005   52.6  0.1220   38.7  0.6927  -54.0
 2.640  0.5836 -179.8   1.000   52.2  0.1220   39.4  0.6925  -54.3
 2.660  0.5836  179.5   0.994   51.8  0.1220   40.1  0.6924  -54.6
 2.680  0.5837  178.8   0.988   51.5  0.1220   40.7  0.6923  -55.0
 2.700  0.5839  178.1   0.983   51.1  0.1221   41.4  0.6923  -55.3
 2.720  0.5842  177.3   0.977   50.7  0.1221   42.0  0.6922  -55.6
 2.740  0.5846  176.6   0.971   50.3  0.1222   42.7  0.6922  -55.9
 2.760  0.5850  175.9   0.966   49.9  0.1223   43.4  0.6922  -56.3
 2.780  0.5856  175.2   0.960   49.4  0.1224   44.0  0.6923  -56.6
 2.800  0.5863  174.5   0.955   49.0  0.1225   44.7  0.6923  -56.9
 2.820  0.5870  173.7   0.950   48.6  0.1227   45.3  0.6924  -57.3
 2.840  0.5879  173.0   0.944   48.2  0.1228   46.0  0.6925  -57.6
 2.860  0.5888  172.3   0.939   47.8  0.1230   46.6  0.6926  -57.9
 2.880  0.5898  171.6   0.934   47.3  0.1232   47.3  0.6928  -58.2
 2.900  0.5910  170.9   0.929   46.9  0.1234   47.9  0.6929  -58.6
 2.920  0.5922  170.2   0.924   46.4  0.1236   48.6  0.6931  -58.9
 2.940  0.5935  169.5   0.919   46.0  0.1238   49.2  0.6933  -59.2
 2.960  0.5949  168.8   0.914   45.5  0.1241   49.8  0.6936  -59.5
 2.980  0.5963  168.1   0.909   45.1  0.1243   50.5  0.6938  -59.9
 3.000  0.5979  167.4   0.904   44.6  0.1246   51.1  0.6941  -60.2
 3.100  0.5943  164.4   0.882   43.2  0.1303   54.5  0.6939  -62.0
 3.200  0.5923  161.3   0.861   41.6  0.1364   57.6  0.6944  -63.9
 3.300  0.5920  158.3   0.840   40.0  0.1429   60.5  0.6957  -65.7
 3.400  0.5934  155.2   0.820   38.4  0.1497   63.0  0.6976  -67.5
 3.500  0.5965  152.2   0.801   36.6  0.1568   65.4  0.7002  -69.3
 3.600  0.5986  149.2   0.784   35.4  0.1670   66.8  0.6984  -71.3
 3.700  0.6023  146.3   0.768   34.2  0.1772   68.1  0.6975  -73.2
 3.800  0.6076  143.3   0.752   33.0  0.1876   69.2  0.6973  -75.2
 3.900  0.6145  140.5   0.736   31.7  0.1979   70.2  0.6980  -77.1
 4.000  0.6228  137.7   0.721   30.3  0.2084   71.1  0.6995  -79.1
 4.100  0.6198  135.3   0.707   29.6  0.2206   71.1  0.6963  -81.2
 4.200  0.6179  132.8   0.693   28.8  0.2328   71.0  0.6941  -83.4
 4.300  0.6171  130.3   0.679   28.0  0.2449   71.0  0.6929  -85.6
 4.400  0.6176  127.9   0.666   27.2  0.2571   70.9  0.6927  -87.7
 4.500  0.6191  125.4   0.652   26.3  0.2693   70.9  0.6935  -89.9
 4.600  0.6222  123.3   0.644   25.8  0.2828   70.2  0.6894  -91.9
 4.700  0.6262  121.3   0.636   25.4  0.2964   69.6  0.6862  -94.0
 4.800  0.6309  119.2   0.628   24.9  0.3100   69.1  0.6839  -96.0
 4.900  0.6364  117.3   0.621   24.4  0.3236   68.6  0.6824  -98.1
 5.000  0.6427  115.3   0.613   23.9  0.3372   68.1  0.6819 -100.2
 5.100  0.6393  113.2   0.608   23.6  0.3510   67.0  0.6783 -102.2
 5.200  0.6368  111.0   0.603   23.3  0.3649   66.0  0.6755 -104.2
 5.300  0.6352  108.8   0.599   23.0  0.3790   65.1  0.6736 -106.3
 5.400  0.6345  106.7   0.594   22.7  0.3931   64.3  0.6726 -108.3
 5.500  0.6347  104.5   0.589   22.4  0.4073   63.5  0.6724 -110.4
 5.600  0.6325  102.7   0.585   22.3  0.4209   62.1  0.6691 -112.3
 5.700  0.6309  101.0   0.581   22.2  0.4348   60.9  0.6665 -114.2
 5.800  0.6299   99.2   0.578   22.2  0.4489   59.7  0.6646 -116.2
 5.900  0.6295   97.4   0.574   22.1  0.4631   58.6  0.6636 -118.1
 6.000  0.6297   95.6   0.570   22.0  0.4775   57.5  0.6633 -120.1
!
!  f       NFmin   Gammaopt  rn/50
! GHz       dB    MAG  ANG    -
!
! noise parameter not available yet for this operation point!
!
! (c) 2015  Infineon Technologies AG, Munich
