! Infineon Technologies  Discrete & RF Semiconductors
! BFR106
! VCE =  5.0 V,  IC =  5.0 mA
! Common Emitter S-Parameters:                            Nov 2015
# GHz  S  MA  R  50
!  f         S11            S21            S12            S22
! GHz     MAG   ANG      MAG   ANG      MAG   ANG      MAG   ANG
 0.010  0.8454   -8.6  16.130  173.9  0.0056   86.2  0.9933   -3.6
 0.015  0.8419  -13.0  16.000  171.6  0.0084   82.7  0.9874   -5.3
 0.020  0.8434  -17.5  15.897  169.2  0.0113   81.0  0.9824   -7.0
 0.025  0.8275  -21.3  15.616  166.9  0.0138   77.3  0.9705   -8.5
 0.030  0.8153  -25.2  15.361  164.4  0.0164   74.8  0.9592  -10.0
 0.035  0.8071  -29.2  15.136  161.9  0.0189   72.9  0.9486  -11.5
 0.040  0.8029  -33.3  14.940  159.3  0.0215   71.5  0.9387  -13.1
 0.045  0.8028  -37.4  14.775  156.7  0.0241   70.4  0.9295  -14.7
 0.050  0.8068  -41.5  14.642  154.0  0.0267   69.5  0.9211  -16.3
 0.055  0.7890  -44.4  14.336  152.4  0.0284   67.4  0.9065  -17.2
 0.060  0.7733  -47.5  14.042  150.8  0.0300   65.5  0.8921  -18.2
 0.065  0.7600  -50.7  13.759  149.1  0.0318   63.8  0.8780  -19.2
 0.070  0.7491  -54.0  13.489  147.4  0.0335   62.3  0.8642  -20.2
 0.075  0.7407  -57.3  13.232  145.5  0.0353   60.9  0.8507  -21.2
 0.080  0.7349  -60.8  12.989  143.6  0.0370   59.7  0.8374  -22.3
 0.085  0.7319  -64.3  12.761  141.6  0.0388   58.6  0.8244  -23.4
 0.090  0.7315  -67.8  12.549  139.6  0.0406   57.6  0.8118  -24.6
 0.095  0.7339  -71.2  12.353  137.5  0.0425   56.7  0.7995  -25.8
 0.100  0.7389  -74.7  12.175  135.3  0.0443   55.8  0.7876  -27.0
 0.105  0.7274  -76.9  11.909  134.1  0.0452   54.6  0.7758  -27.5
 0.110  0.7171  -79.2  11.647  132.9  0.0462   53.5  0.7640  -28.0
 0.115  0.7079  -81.5  11.391  131.7  0.0472   52.4  0.7523  -28.5
 0.120  0.6999  -83.9  11.141  130.4  0.0482   51.3  0.7406  -29.0
 0.125  0.6932  -86.4  10.897  129.0  0.0492   50.3  0.7290  -29.6
 0.130  0.6877  -88.9  10.659  127.5  0.0502   49.4  0.7175  -30.1
 0.135  0.6836  -91.4  10.429  126.0  0.0512   48.5  0.7061  -30.7
 0.140  0.6808  -94.0  10.206  124.5  0.0523   47.6  0.6947  -31.3
 0.145  0.6794  -96.5   9.991  122.8  0.0533   46.7  0.6834  -32.0
 0.150  0.6794  -99.1   9.785  121.1  0.0544   45.9  0.6722  -32.6
 0.155  0.6739 -100.7   9.608  120.3  0.0549   45.5  0.6641  -32.8
 0.160  0.6689 -102.4   9.433  119.6  0.0554   45.1  0.6560  -33.0
 0.165  0.6646 -104.1   9.260  118.7  0.0559   44.8  0.6479  -33.2
 0.170  0.6608 -105.8   9.089  117.9  0.0564   44.4  0.6399  -33.4
 0.175  0.6576 -107.6   8.920  117.0  0.0569   44.1  0.6318  -33.6
 0.180  0.6550 -109.3   8.753  116.1  0.0574   43.7  0.6237  -33.8
 0.185  0.6530 -111.1   8.588  115.2  0.0579   43.4  0.6157  -34.0
 0.190  0.6517 -112.8   8.426  114.2  0.0584   43.1  0.6076  -34.2
 0.195  0.6510 -114.6   8.266  113.2  0.0589   42.7  0.5996  -34.5
 0.200  0.6509 -116.4   8.109  112.1  0.0594   42.4  0.5916  -34.7
 0.220  0.6375 -121.5   7.562  109.5  0.0610   41.2  0.5677  -35.1
 0.240  0.6294 -126.7   7.034  106.4  0.0627   40.1  0.5439  -35.6
 0.260  0.6233 -131.3   6.579  103.8  0.0640   39.5  0.5248  -36.0
 0.280  0.6173 -135.1   6.185  101.8  0.0650   39.4  0.5105  -36.1
 0.300  0.6141 -139.0   5.800   99.6  0.0660   39.3  0.4961  -36.3
 0.320  0.6088 -141.8   5.535   98.3  0.0670   39.4  0.4866  -36.4
 0.340  0.6050 -144.7   5.273   96.8  0.0680   39.6  0.4771  -36.4
 0.360  0.6028 -147.6   5.014   95.2  0.0691   39.7  0.4675  -36.5
 0.380  0.6022 -150.6   4.761   93.4  0.0701   39.8  0.4580  -36.5
 0.400  0.6031 -153.5   4.512   91.4  0.0711   39.9  0.4485  -36.6
 0.420  0.6014 -155.5   4.338   90.2  0.0719   40.4  0.4432  -36.7
 0.440  0.6004 -157.5   4.167   89.0  0.0728   40.9  0.4379  -36.9
 0.450  0.6002 -158.5   4.082   88.3  0.0732   41.1  0.4352  -36.9
 0.460  0.6001 -159.5   3.997   87.6  0.0736   41.4  0.4325  -37.0
 0.480  0.6006 -161.5   3.830   86.1  0.0744   41.8  0.4272  -37.2
 0.500  0.6018 -163.5   3.666   84.5  0.0753   42.3  0.4219  -37.3
 0.520  0.6003 -165.1   3.550   83.5  0.0763   42.8  0.4192  -37.6
 0.540  0.5992 -166.8   3.435   82.4  0.0773   43.4  0.4164  -37.9
 0.560  0.5986 -168.4   3.321   81.3  0.0783   43.9  0.4137  -38.2
 0.580  0.5986 -170.1   3.209   80.1  0.0793   44.4  0.4110  -38.6
 0.600  0.5990 -171.7   3.098   78.8  0.0803   44.9  0.4083  -38.9
 0.620  0.5982 -173.1   3.015   77.9  0.0813   45.5  0.4065  -39.3
 0.640  0.5977 -174.4   2.933   76.9  0.0824   46.1  0.4047  -39.8
 0.660  0.5976 -175.8   2.851   75.9  0.0835   46.7  0.4029  -40.2
 0.680  0.5978 -177.1   2.770   74.8  0.0845   47.2  0.4012  -40.7
 0.700  0.5984 -178.5   2.691   73.7  0.0856   47.8  0.3995  -41.1
 0.720  0.5982 -179.6   2.625   72.9  0.0868   48.4  0.3980  -41.5
 0.740  0.5982  179.4   2.559   72.1  0.0881   49.0  0.3966  -42.0
 0.760  0.5984  178.3   2.494   71.2  0.0894   49.6  0.3952  -42.4
 0.780  0.5988  177.3   2.429   70.3  0.0906   50.2  0.3938  -42.9
 0.800  0.5994  176.2   2.365   69.3  0.0919   50.7  0.3924  -43.3
 0.820  0.5983  175.2   2.316   68.5  0.0933   51.3  0.3913  -43.8
 0.840  0.5974  174.2   2.268   67.7  0.0948   52.0  0.3903  -44.3
 0.860  0.5967  173.1   2.219   66.8  0.0962   52.6  0.3893  -44.8
 0.880  0.5962  172.1   2.172   65.9  0.0977   53.1  0.3883  -45.3
 0.900  0.5959  171.1   2.125   65.0  0.0992   53.7  0.3873  -45.8
 0.920  0.5974  170.1   2.085   64.2  0.1007   54.3  0.3868  -46.4
 0.940  0.5992  169.1   2.046   63.5  0.1022   54.8  0.3863  -47.0
 0.960  0.6011  168.1   2.007   62.6  0.1037   55.3  0.3859  -47.6
 0.980  0.6032  167.2   1.969   61.8  0.1053   55.8  0.3855  -48.2
 1.000  0.6054  166.2   1.931   60.9  0.1068   56.3  0.3851  -48.8
 1.020  0.6061  165.3   1.900   60.2  0.1086   56.7  0.3845  -49.5
 1.040  0.6069  164.4   1.869   59.5  0.1103   57.1  0.3839  -50.2
 1.060  0.6079  163.4   1.839   58.7  0.1121   57.4  0.3834  -50.9
 1.080  0.6090  162.5   1.809   57.9  0.1138   57.8  0.3829  -51.6
 1.100  0.6103  161.6   1.779   57.1  0.1156   58.1  0.3825  -52.3
 1.120  0.6110  160.8   1.752   56.4  0.1175   58.5  0.3819  -53.0
 1.140  0.6117  159.9   1.725   55.6  0.1193   58.9  0.3813  -53.7
 1.160  0.6127  159.1   1.699   54.9  0.1212   59.3  0.3808  -54.4
 1.180  0.6137  158.2   1.673   54.1  0.1231   59.6  0.3803  -55.1
 1.200  0.6149  157.4   1.647   53.3  0.1250   60.0  0.3799  -55.8
 1.220  0.6148  156.6   1.623   52.7  0.1271   60.3  0.3796  -56.5
 1.240  0.6149  155.9   1.599   52.1  0.1293   60.5  0.3793  -57.2
 1.260  0.6150  155.1   1.575   51.5  0.1314   60.8  0.3790  -57.8
 1.280  0.6152  154.4   1.551   50.9  0.1336   61.1  0.3788  -58.5
 1.300  0.6156  153.6   1.528   50.2  0.1357   61.3  0.3787  -59.2
 1.320  0.6173  152.9   1.508   49.6  0.1378   61.6  0.3788  -60.0
 1.340  0.6192  152.3   1.489   49.0  0.1399   61.8  0.3790  -60.7
 1.360  0.6211  151.6   1.469   48.3  0.1419   62.0  0.3792  -61.5
 1.380  0.6230  151.0   1.450   47.7  0.1440   62.3  0.3795  -62.2
 1.400  0.6251  150.3   1.431   47.0  0.1461   62.5  0.3799  -63.0
 1.420  0.6255  149.5   1.416   46.4  0.1485   62.7  0.3795  -63.8
 1.440  0.6259  148.8   1.400   45.8  0.1510   62.8  0.3791  -64.6
 1.460  0.6265  148.0   1.385   45.1  0.1534   63.0  0.3788  -65.3
 1.480  0.6272  147.3   1.371   44.5  0.1559   63.2  0.3786  -66.1
 1.500  0.6280  146.5   1.356   43.8  0.1583   63.3  0.3785  -66.9
 1.520  0.6295  145.9   1.338   43.2  0.1608   63.4  0.3780  -67.7
 1.540  0.6310  145.2   1.321   42.5  0.1633   63.4  0.3776  -68.5
 1.560  0.6326  144.6   1.304   41.8  0.1659   63.5  0.3772  -69.4
 1.580  0.6343  143.9   1.287   41.1  0.1684   63.5  0.3770  -70.2
 1.600  0.6361  143.3   1.270   40.4  0.1709   63.6  0.3768  -71.0
 1.620  0.6368  142.6   1.257   39.8  0.1735   63.7  0.3759  -71.8
 1.640  0.6376  141.9   1.245   39.3  0.1761   63.7  0.3750  -72.7
 1.660  0.6385  141.3   1.232   38.7  0.1788   63.8  0.3742  -73.5
 1.680  0.6395  140.6   1.220   38.1  0.1814   63.8  0.3735  -74.4
 1.700  0.6406  139.9   1.208   37.5  0.1840   63.9  0.3729  -75.2
 1.720  0.6417  139.2   1.198   37.0  0.1869   63.8  0.3728  -76.0
 1.740  0.6429  138.5   1.187   36.6  0.1898   63.8  0.3729  -76.8
 1.760  0.6442  137.8   1.177   36.1  0.1927   63.7  0.3730  -77.7
 1.780  0.6455  137.1   1.167   35.6  0.1956   63.7  0.3731  -78.5
 1.800  0.6470  136.4   1.157   35.1  0.1985   63.6  0.3734  -79.3
 1.820  0.6478  135.8   1.147   34.5  0.2014   63.6  0.3737  -80.3
 1.840  0.6488  135.1   1.137   33.9  0.2043   63.5  0.3742  -81.3
 1.860  0.6498  134.5   1.127   33.3  0.2071   63.5  0.3747  -82.2
 1.880  0.6508  133.8   1.118   32.7  0.2100   63.4  0.3753  -83.2
 1.900  0.6520  133.2   1.108   32.1  0.2129   63.4  0.3761  -84.2
 1.920  0.6531  132.6   1.097   31.6  0.2159   63.3  0.3755  -85.1
 1.940  0.6543  132.1   1.086   31.2  0.2190   63.1  0.3751  -86.1
 1.960  0.6556  131.5   1.075   30.7  0.2220   63.0  0.3747  -87.0
 1.980  0.6569  131.0   1.065   30.2  0.2251   62.8  0.3745  -88.0
 2.000  0.6583  130.4   1.054   29.7  0.2281   62.7  0.3743  -88.9
 2.020  0.6591  129.8   1.045   29.3  0.2313   62.5  0.3742  -89.8
 2.040  0.6599  129.2   1.037   28.8  0.2344   62.4  0.3742  -90.8
 2.060  0.6609  128.6   1.028   28.3  0.2376   62.2  0.3743  -91.7
 2.080  0.6618  128.1   1.020   27.9  0.2408   62.1  0.3746  -92.6
 2.100  0.6629  127.5   1.011   27.4  0.2439   61.9  0.3749  -93.6
 2.120  0.6640  126.9   1.003   26.9  0.2471   61.8  0.3753  -94.5
 2.140  0.6652  126.3   0.994   26.4  0.2503   61.6  0.3758  -95.4
 2.160  0.6665  125.7   0.986   25.9  0.2534   61.5  0.3764  -96.4
 2.180  0.6678  125.2   0.978   25.4  0.2566   61.3  0.3771  -97.3
 2.200  0.6692  124.6   0.970   24.9  0.2598   61.2  0.3779  -98.2
 2.220  0.6697  124.0   0.963   24.5  0.2630   60.9  0.3774  -99.3
 2.240  0.6703  123.4   0.957   24.1  0.2663   60.7  0.3771 -100.4
 2.260  0.6709  122.8   0.951   23.6  0.2696   60.4  0.3770 -101.6
 2.280  0.6717  122.2   0.944   23.2  0.2728   60.1  0.3770 -102.7
 2.300  0.6725  121.6   0.938   22.8  0.2761   59.9  0.3771 -103.8
 2.320  0.6733  121.0   0.932   22.3  0.2794   59.6  0.3774 -104.9
 2.340  0.6743  120.5   0.925   21.9  0.2826   59.4  0.3778 -106.1
 2.360  0.6753  119.9   0.919   21.4  0.2859   59.2  0.3783 -107.2
 2.380  0.6764  119.3   0.913   21.0  0.2892   58.9  0.3791 -108.3
 2.400  0.6775  118.7   0.907   20.5  0.2925   58.7  0.3799 -109.4
 2.420  0.6790  118.1   0.901   20.2  0.2957   58.4  0.3799 -110.4
 2.440  0.6807  117.6   0.894   19.8  0.2988   58.1  0.3800 -111.4
 2.460  0.6823  117.0   0.888   19.5  0.3020   57.8  0.3803 -112.5
 2.480  0.6841  116.5   0.881   19.1  0.3052   57.5  0.3807 -113.5
 2.500  0.6859  115.9   0.875   18.8  0.3084   57.2  0.3812 -114.5
 2.520  0.6877  115.4   0.869   18.4  0.3115   56.9  0.3818 -115.5
 2.540  0.6896  114.8   0.863   18.0  0.3147   56.6  0.3825 -116.5
 2.560  0.6916  114.3   0.856   17.7  0.3180   56.3  0.3834 -117.5
 2.580  0.6937  113.7   0.850   17.3  0.3212   56.1  0.3843 -118.5
 2.600  0.6958  113.2   0.844   16.9  0.3244   55.8  0.3854 -119.5
 2.620  0.6965  112.7   0.839   16.6  0.3276   55.4  0.3855 -120.7
 2.640  0.6972  112.2   0.834   16.3  0.3308   55.1  0.3858 -121.9
 2.660  0.6979  111.7   0.829   16.0  0.3340   54.7  0.3862 -123.0
 2.680  0.6987  111.2   0.824   15.7  0.3372   54.4  0.3868 -124.2
 2.700  0.6996  110.7   0.820   15.3  0.3405   54.0  0.3875 -125.4
 2.720  0.7005  110.2   0.815   15.0  0.3437   53.7  0.3884 -126.5
 2.740  0.7015  109.8   0.810   14.7  0.3470   53.4  0.3895 -127.7
 2.760  0.7025  109.3   0.805   14.4  0.3502   53.0  0.3907 -128.8
 2.780  0.7036  108.8   0.801   14.0  0.3535   52.7  0.3921 -130.0
 2.800  0.7047  108.3   0.796   13.7  0.3568   52.4  0.3936 -131.1
 2.820  0.7056  107.8   0.792   13.4  0.3600   52.0  0.3943 -132.2
 2.840  0.7066  107.3   0.787   13.2  0.3632   51.7  0.3952 -133.2
 2.860  0.7077  106.9   0.783   12.9  0.3664   51.3  0.3963 -134.3
 2.880  0.7088  106.4   0.779   12.6  0.3696   51.0  0.3974 -135.3
 2.900  0.7099  105.9   0.774   12.3  0.3729   50.6  0.3987 -136.4
 2.920  0.7111  105.5   0.770   12.1  0.3761   50.3  0.4001 -137.4
 2.940  0.7123  105.0   0.766   11.8  0.3794   50.0  0.4017 -138.5
 2.960  0.7136  104.5   0.761   11.5  0.3827   49.6  0.4034 -139.5
 2.980  0.7149  104.1   0.757   11.2  0.3860   49.3  0.4052 -140.5
 3.000  0.7163  103.6   0.753   10.9  0.3893   49.0  0.4071 -141.5
 3.100  0.7185  101.5   0.736    9.8  0.4029   46.8  0.4092 -147.2
 3.200  0.7216   99.5   0.719    8.7  0.4170   44.7  0.4153 -152.8
 3.300  0.7257   97.4   0.703    7.6  0.4316   42.7  0.4252 -158.2
 3.400  0.7306   95.4   0.687    6.4  0.4468   40.9  0.4386 -163.2
 3.500  0.7365   93.4   0.671    5.1  0.4623   39.2  0.4553 -168.0
 3.600  0.7390   91.7   0.660    4.4  0.4714   36.9  0.4603 -173.1
 3.700  0.7421   90.0   0.649    3.7  0.4813   34.8  0.4689 -178.1
 3.800  0.7458   88.4   0.638    3.0  0.4918   32.7  0.4809  177.1
 3.900  0.7501   86.7   0.628    2.2  0.5029   30.7  0.4961  172.6
 4.000  0.7551   85.1   0.617    1.4  0.5146   28.8  0.5141  168.4
 4.100  0.7541   83.8   0.611    0.7  0.5196   26.8  0.5181  164.3
 4.200  0.7535   82.4   0.606    0.0  0.5251   24.8  0.5246  160.3
 4.300  0.7533   81.1   0.600   -0.7  0.5313   22.9  0.5336  156.5
 4.400  0.7535   79.7   0.594   -1.5  0.5381   21.0  0.5450  152.8
 4.500  0.7541   78.4   0.589   -2.2  0.5454   19.2  0.5585  149.2
 4.600  0.7546   77.3   0.586   -2.9  0.5481   17.5  0.5618  145.9
 4.700  0.7553   76.2   0.583   -3.5  0.5514   15.8  0.5669  142.7
 4.800  0.7564   75.0   0.580   -4.2  0.5550   14.2  0.5738  139.5
 4.900  0.7577   73.9   0.578   -4.9  0.5592   12.5  0.5823  136.5
 5.000  0.7593   72.8   0.575   -5.6  0.5638   10.9  0.5925  133.5
 5.100  0.7570   71.7   0.572   -5.6  0.5653   10.1  0.5893  132.3
 5.200  0.7550   70.6   0.568   -5.6  0.5669    9.2  0.5863  131.2
 5.300  0.7533   69.5   0.565   -5.5  0.5686    8.4  0.5835  130.0
 5.400  0.7518   68.3   0.561   -5.5  0.5704    7.5  0.5810  128.8
 5.500  0.7507   67.2   0.558   -5.5  0.5724    6.7  0.5788  127.6
 5.600  0.7494   66.5   0.562   -6.5  0.5771    5.0  0.5917  124.9
 5.700  0.7482   65.8   0.565   -7.5  0.5824    3.4  0.6059  122.4
 5.800  0.7471   65.1   0.570   -8.5  0.5881    1.7  0.6212  119.9
 5.900  0.7461   64.4   0.574   -9.4  0.5943    0.2  0.6376  117.6
 6.000  0.7452   63.7   0.578  -10.4  0.6009   -1.4  0.6550  115.4
!
!  f       NFmin   Gammaopt  rn/50
! GHz       dB    MAG  ANG    -
!
! noise parameter not available yet for this operation point!
!
! (c) 2015  Infineon Technologies AG, Munich
