! Infineon Technologies  Discrete & RF Semiconductors
! BFR182
! VCE =  1.5 V,  IC =  18 mA
! Common Emitter S-Parameters:                            Nov 2015
# GHz  S  MA  R  50
!  f         S11            S21            S12            S22
! GHz     MAG   ANG      MAG   ANG      MAG   ANG      MAG   ANG
 0.010  0.5031   -7.5  31.570  174.8  0.0019   87.9  0.9403   -2.6
 0.015  0.4986  -10.9  31.324  172.3  0.0028   84.2  0.9351   -4.1
 0.020  0.4958  -14.3  31.141  169.7  0.0038   82.4  0.9306   -5.6
 0.025  0.4887  -17.5  30.717  167.5  0.0048   80.8  0.9214   -6.8
 0.030  0.4832  -20.8  30.339  165.3  0.0057   79.8  0.9125   -8.0
 0.035  0.4793  -24.2  30.008  163.0  0.0067   79.0  0.9042   -9.3
 0.040  0.4771  -27.6  29.725  160.7  0.0077   78.5  0.8962  -10.6
 0.045  0.4766  -31.0  29.493  158.3  0.0086   78.0  0.8887  -11.9
 0.050  0.4778  -34.4  29.312  155.9  0.0096   77.7  0.8817  -13.2
 0.055  0.4658  -36.7  28.698  154.4  0.0103   76.8  0.8698  -13.9
 0.060  0.4546  -39.2  28.105  152.8  0.0110   75.9  0.8580  -14.6
 0.065  0.4443  -41.8  27.534  151.2  0.0118   75.2  0.8464  -15.4
 0.070  0.4350  -44.5  26.987  149.4  0.0125   74.6  0.8349  -16.2
 0.075  0.4266  -47.3  26.465  147.7  0.0132   74.0  0.8236  -17.0
 0.080  0.4193  -50.2  25.970  145.8  0.0140   73.5  0.8124  -17.8
 0.085  0.4132  -53.2  25.503  143.9  0.0147   73.0  0.8015  -18.6
 0.090  0.4082  -56.3  25.066  141.9  0.0154   72.6  0.7907  -19.5
 0.095  0.4044  -59.5  24.660  139.8  0.0162   72.2  0.7800  -20.4
 0.100  0.4019  -62.7  24.287  137.7  0.0169   71.9  0.7696  -21.3
 0.105  0.3937  -64.6  23.771  136.6  0.0175   71.3  0.7591  -21.6
 0.110  0.3859  -66.6  23.265  135.4  0.0180   70.7  0.7486  -22.0
 0.115  0.3786  -68.7  22.768  134.2  0.0186   70.2  0.7381  -22.3
 0.120  0.3718  -70.8  22.282  133.0  0.0191   69.7  0.7277  -22.7
 0.125  0.3656  -73.1  21.807  131.7  0.0197   69.2  0.7173  -23.0
 0.130  0.3599  -75.4  21.343  130.3  0.0202   68.8  0.7069  -23.4
 0.135  0.3549  -77.7  20.893  128.9  0.0208   68.3  0.6965  -23.8
 0.140  0.3504  -80.2  20.456  127.4  0.0214   67.9  0.6862  -24.2
 0.145  0.3466  -82.7  20.034  125.8  0.0219   67.6  0.6759  -24.6
 0.150  0.3435  -85.2  19.627  124.2  0.0225   67.2  0.6657  -25.0
 0.155  0.3390  -86.6  19.269  123.5  0.0229   67.2  0.6590  -25.1
 0.160  0.3348  -88.1  18.914  122.8  0.0234   67.2  0.6522  -25.2
 0.165  0.3308  -89.6  18.562  122.0  0.0238   67.2  0.6455  -25.3
 0.170  0.3270  -91.2  18.214  121.2  0.0243   67.2  0.6388  -25.3
 0.175  0.3234  -92.7  17.869  120.4  0.0247   67.3  0.6321  -25.4
 0.180  0.3201  -94.3  17.528  119.6  0.0251   67.3  0.6254  -25.5
 0.185  0.3171  -96.0  17.191  118.7  0.0256   67.3  0.6186  -25.6
 0.190  0.3143  -97.7  16.858  117.7  0.0260   67.3  0.6119  -25.7
 0.195  0.3118  -99.4  16.530  116.8  0.0265   67.3  0.6052  -25.8
 0.200  0.3096 -101.1  16.206  115.8  0.0269   67.3  0.5985  -25.9
 0.220  0.2986 -106.4  15.128  113.5  0.0287   67.3  0.5801  -25.9
 0.240  0.2904 -112.1  14.080  110.8  0.0305   67.2  0.5617  -25.8
 0.260  0.2826 -117.3  13.175  108.4  0.0323   67.6  0.5459  -25.7
 0.280  0.2742 -121.9  12.399  106.5  0.0342   68.2  0.5328  -25.5
 0.300  0.2678 -126.8  11.639  104.4  0.0361   68.8  0.5196  -25.3
 0.320  0.2620 -129.9  11.112  103.3  0.0378   69.1  0.5117  -25.1
 0.340  0.2569 -133.0  10.590  102.1  0.0395   69.3  0.5039  -24.8
 0.360  0.2527 -136.3  10.073  100.8  0.0411   69.5  0.4961  -24.6
 0.380  0.2494 -139.7   9.562   99.3  0.0428   69.7  0.4882  -24.4
 0.400  0.2469 -143.2   9.058   97.7  0.0445   69.9  0.4804  -24.1
 0.420  0.2447 -145.6   8.709   96.7  0.0462   70.2  0.4759  -24.0
 0.440  0.2429 -148.0   8.363   95.7  0.0480   70.6  0.4714  -23.8
 0.450  0.2422 -149.3   8.190   95.1  0.0488   70.7  0.4692  -23.8
 0.460  0.2416 -150.5   8.019   94.6  0.0497   70.9  0.4670  -23.7
 0.480  0.2407 -153.0   7.679   93.3  0.0515   71.1  0.4625  -23.5
 0.500  0.2403 -155.5   7.343   92.0  0.0532   71.4  0.4580  -23.4
 0.520  0.2397 -157.8   7.110   91.2  0.0551   71.4  0.4552  -23.4
 0.540  0.2395 -160.0   6.879   90.3  0.0571   71.5  0.4524  -23.3
 0.560  0.2397 -162.3   6.649   89.4  0.0590   71.5  0.4497  -23.3
 0.580  0.2403 -164.6   6.421   88.5  0.0610   71.6  0.4469  -23.2
 0.600  0.2412 -166.8   6.195   87.4  0.0629   71.6  0.4441  -23.2
 0.620  0.2404 -168.5   6.026   86.7  0.0647   71.6  0.4421  -23.2
 0.640  0.2399 -170.2   5.858   85.9  0.0664   71.7  0.4402  -23.3
 0.660  0.2395 -171.9   5.691   85.1  0.0682   71.7  0.4382  -23.3
 0.680  0.2394 -173.7   5.525   84.3  0.0699   71.8  0.4363  -23.4
 0.700  0.2395 -175.4   5.360   83.4  0.0717   71.8  0.4343  -23.4
 0.720  0.2393 -176.7   5.228   82.8  0.0736   71.8  0.4330  -23.5
 0.740  0.2392 -177.9   5.097   82.1  0.0755   71.8  0.4317  -23.5
 0.760  0.2392 -179.2   4.966   81.4  0.0775   71.8  0.4303  -23.6
 0.780  0.2393  179.6   4.836   80.7  0.0794   71.8  0.4290  -23.6
 0.800  0.2396  178.3   4.707   79.9  0.0813   71.8  0.4277  -23.7
 0.820  0.2388  177.1   4.609   79.3  0.0832   71.7  0.4266  -23.8
 0.840  0.2380  175.9   4.511   78.7  0.0851   71.6  0.4255  -24.0
 0.860  0.2374  174.7   4.414   78.1  0.0871   71.5  0.4245  -24.1
 0.880  0.2368  173.5   4.318   77.5  0.0890   71.5  0.4234  -24.3
 0.900  0.2364  172.3   4.222   76.8  0.0909   71.4  0.4223  -24.4
 0.920  0.2375  171.0   4.144   76.3  0.0927   71.4  0.4214  -24.6
 0.940  0.2388  169.7   4.066   75.7  0.0946   71.3  0.4206  -24.8
 0.960  0.2401  168.5   3.989   75.1  0.0964   71.3  0.4197  -24.9
 0.980  0.2416  167.2   3.912   74.5  0.0983   71.2  0.4189  -25.1
 1.000  0.2432  166.0   3.835   73.9  0.1001   71.2  0.4180  -25.3
 1.020  0.2450  164.9   3.770   73.4  0.1020   71.1  0.4171  -25.5
 1.040  0.2469  163.8   3.706   72.8  0.1039   71.0  0.4163  -25.7
 1.060  0.2489  162.7   3.642   72.2  0.1059   71.0  0.4155  -26.0
 1.080  0.2509  161.6   3.578   71.6  0.1078   70.9  0.4146  -26.2
 1.100  0.2531  160.6   3.515   71.0  0.1097   70.8  0.4138  -26.4
 1.120  0.2537  159.7   3.460   70.5  0.1117   70.7  0.4131  -26.6
 1.140  0.2544  158.8   3.404   69.9  0.1136   70.6  0.4123  -26.8
 1.160  0.2552  157.9   3.350   69.3  0.1156   70.6  0.4116  -27.1
 1.180  0.2560  157.0   3.295   68.7  0.1175   70.5  0.4109  -27.3
 1.200  0.2569  156.1   3.241   68.1  0.1195   70.4  0.4102  -27.5
 1.220  0.2572  155.2   3.191   67.6  0.1214   70.2  0.4095  -27.8
 1.240  0.2575  154.2   3.140   67.1  0.1234   70.1  0.4088  -28.0
 1.260  0.2579  153.3   3.090   66.6  0.1253   69.9  0.4081  -28.3
 1.280  0.2584  152.3   3.041   66.1  0.1273   69.8  0.4075  -28.5
 1.300  0.2589  151.4   2.991   65.6  0.1292   69.6  0.4068  -28.8
 1.320  0.2607  150.5   2.951   65.1  0.1310   69.5  0.4060  -29.1
 1.340  0.2626  149.5   2.911   64.6  0.1328   69.4  0.4051  -29.4
 1.360  0.2645  148.6   2.871   64.1  0.1347   69.2  0.4043  -29.6
 1.380  0.2665  147.7   2.831   63.6  0.1365   69.1  0.4035  -29.9
 1.400  0.2686  146.8   2.792   63.1  0.1383   69.0  0.4027  -30.2
 1.420  0.2684  146.2   2.761   62.6  0.1403   68.8  0.4020  -30.5
 1.440  0.2682  145.6   2.730   62.2  0.1422   68.7  0.4013  -30.8
 1.460  0.2681  145.0   2.699   61.7  0.1442   68.5  0.4006  -31.0
 1.480  0.2680  144.4   2.668   61.2  0.1461   68.4  0.4000  -31.3
 1.500  0.2679  143.8   2.638   60.7  0.1481   68.2  0.3993  -31.6
 1.520  0.2708  143.0   2.605   60.2  0.1500   68.1  0.3985  -31.9
 1.540  0.2737  142.1   2.571   59.6  0.1520   67.9  0.3977  -32.2
 1.560  0.2767  141.3   2.538   59.1  0.1539   67.8  0.3969  -32.4
 1.580  0.2798  140.6   2.506   58.5  0.1559   67.6  0.3962  -32.7
 1.600  0.2829  139.8   2.473   57.9  0.1578   67.5  0.3954  -33.0
 1.620  0.2840  139.1   2.449   57.4  0.1598   67.3  0.3944  -33.3
 1.640  0.2852  138.4   2.424   57.0  0.1618   67.2  0.3934  -33.6
 1.660  0.2864  137.7   2.400   56.5  0.1637   67.0  0.3924  -33.9
 1.680  0.2877  137.1   2.377   56.0  0.1657   66.9  0.3914  -34.2
 1.700  0.2890  136.4   2.353   55.5  0.1677   66.7  0.3904  -34.5
 1.720  0.2905  135.6   2.331   55.1  0.1696   66.5  0.3896  -34.9
 1.740  0.2921  134.8   2.310   54.7  0.1715   66.3  0.3889  -35.2
 1.760  0.2938  134.0   2.288   54.3  0.1734   66.1  0.3882  -35.6
 1.780  0.2955  133.2   2.267   53.9  0.1753   65.9  0.3875  -35.9
 1.800  0.2973  132.4   2.246   53.5  0.1772   65.7  0.3868  -36.3
 1.820  0.2991  131.9   2.226   53.0  0.1792   65.5  0.3858  -36.6
 1.840  0.3009  131.4   2.206   52.6  0.1813   65.4  0.3848  -37.0
 1.860  0.3028  130.9   2.186   52.1  0.1833   65.2  0.3838  -37.3
 1.880  0.3046  130.4   2.166   51.6  0.1854   65.1  0.3828  -37.7
 1.900  0.3065  129.9   2.147   51.1  0.1874   64.9  0.3818  -38.0
 1.920  0.3074  129.3   2.127   50.7  0.1893   64.7  0.3809  -38.3
 1.940  0.3084  128.7   2.106   50.2  0.1913   64.5  0.3800  -38.7
 1.960  0.3094  128.1   2.086   49.7  0.1932   64.3  0.3791  -39.0
 1.980  0.3104  127.6   2.066   49.3  0.1952   64.2  0.3783  -39.4
 2.000  0.3115  127.0   2.046   48.8  0.1971   64.0  0.3774  -39.7
 2.020  0.3131  126.4   2.029   48.4  0.1991   63.8  0.3761  -40.1
 2.040  0.3146  125.9   2.012   48.0  0.2011   63.6  0.3747  -40.5
 2.060  0.3163  125.3   1.995   47.6  0.2032   63.4  0.3734  -40.8
 2.080  0.3179  124.8   1.978   47.1  0.2052   63.2  0.3721  -41.2
 2.100  0.3196  124.2   1.962   46.7  0.2072   63.0  0.3708  -41.6
 2.120  0.3213  123.7   1.945   46.2  0.2093   62.8  0.3696  -42.0
 2.140  0.3230  123.2   1.929   45.8  0.2113   62.6  0.3683  -42.4
 2.160  0.3248  122.6   1.912   45.3  0.2133   62.5  0.3671  -42.8
 2.180  0.3266  122.1   1.896   44.9  0.2154   62.3  0.3659  -43.2
 2.200  0.3284  121.6   1.880   44.4  0.2174   62.1  0.3647  -43.6
 2.220  0.3302  121.1   1.867   44.0  0.2193   61.9  0.3634  -44.0
 2.240  0.3320  120.6   1.855   43.6  0.2212   61.7  0.3620  -44.3
 2.260  0.3338  120.1   1.843   43.1  0.2232   61.5  0.3607  -44.7
 2.280  0.3357  119.6   1.830   42.7  0.2251   61.3  0.3594  -45.1
 2.300  0.3376  119.1   1.818   42.3  0.2270   61.1  0.3582  -45.5
 2.320  0.3395  118.6   1.806   41.8  0.2290   60.9  0.3569  -45.8
 2.340  0.3414  118.1   1.794   41.4  0.2309   60.7  0.3556  -46.2
 2.360  0.3434  117.6   1.782   40.9  0.2328   60.6  0.3544  -46.6
 2.380  0.3454  117.2   1.771   40.5  0.2348   60.4  0.3532  -47.0
 2.400  0.3474  116.7   1.759   40.0  0.2367   60.2  0.3520  -47.4
 2.420  0.3497  116.2   1.747   39.6  0.2387   60.0  0.3503  -47.8
 2.440  0.3521  115.6   1.735   39.2  0.2408   59.7  0.3486  -48.3
 2.460  0.3545  115.1   1.723   38.8  0.2428   59.5  0.3470  -48.7
 2.480  0.3569  114.6   1.711   38.4  0.2449   59.2  0.3453  -49.1
 2.500  0.3594  114.1   1.699   38.0  0.2470   59.0  0.3437  -49.6
 2.520  0.3618  113.6   1.688   37.6  0.2490   58.8  0.3421  -50.0
 2.540  0.3643  113.1   1.676   37.2  0.2511   58.6  0.3406  -50.5
 2.560  0.3669  112.6   1.665   36.8  0.2531   58.3  0.3390  -51.0
 2.580  0.3694  112.2   1.653   36.3  0.2552   58.1  0.3375  -51.4
 2.600  0.3720  111.7   1.642   35.9  0.2573   57.9  0.3360  -51.9
 2.620  0.3735  111.3   1.633   35.5  0.2592   57.7  0.3345  -52.4
 2.640  0.3751  110.9   1.624   35.2  0.2612   57.5  0.3329  -52.8
 2.660  0.3767  110.5   1.615   34.8  0.2631   57.3  0.3314  -53.3
 2.680  0.3783  110.1   1.606   34.5  0.2651   57.1  0.3299  -53.7
 2.700  0.3799  109.8   1.598   34.1  0.2670   56.9  0.3285  -54.2
 2.720  0.3815  109.4   1.589   33.7  0.2690   56.7  0.3270  -54.7
 2.740  0.3832  109.0   1.580   33.4  0.2709   56.5  0.3256  -55.1
 2.760  0.3848  108.6   1.572   33.0  0.2729   56.3  0.3242  -55.6
 2.780  0.3865  108.3   1.563   32.6  0.2748   56.1  0.3228  -56.1
 2.800  0.3882  107.9   1.555   32.2  0.2768   55.9  0.3215  -56.6
 2.820  0.3903  107.5   1.545   31.8  0.2788   55.7  0.3196  -57.1
 2.840  0.3924  107.2   1.536   31.4  0.2809   55.4  0.3177  -57.6
 2.860  0.3945  106.8   1.527   31.0  0.2829   55.2  0.3158  -58.1
 2.880  0.3966  106.5   1.517   30.6  0.2849   54.9  0.3139  -58.6
 2.900  0.3987  106.1   1.508   30.2  0.2870   54.7  0.3121  -59.2
 2.920  0.4009  105.8   1.499   29.8  0.2890   54.5  0.3103  -59.7
 2.940  0.4030  105.4   1.490   29.4  0.2911   54.3  0.3085  -60.2
 2.960  0.4052  105.1   1.481   29.0  0.2932   54.0  0.3068  -60.8
 2.980  0.4074  104.7   1.472   28.5  0.2952   53.8  0.3051  -61.3
 3.000  0.4096  104.4   1.463   28.1  0.2973   53.6  0.3034  -61.9
 3.100  0.4208  102.6   1.427   26.5  0.3070   52.3  0.2925  -64.8
 3.200  0.4324  100.9   1.392   24.8  0.3168   51.0  0.2824  -67.9
 3.300  0.4443   99.3   1.359   23.0  0.3268   49.8  0.2732  -71.2
 3.400  0.4566   97.7   1.327   21.2  0.3370   48.7  0.2649  -74.7
 3.500  0.4692   96.3   1.296   19.2  0.3472   47.7  0.2577  -78.4
 3.600  0.4786   94.8   1.268   17.7  0.3564   46.3  0.2469  -82.3
 3.700  0.4883   93.4   1.242   16.1  0.3657   45.0  0.2373  -86.6
 3.800  0.4982   92.0   1.216   14.4  0.3753   43.7  0.2292  -91.2
 3.900  0.5085   90.7   1.191   12.7  0.3850   42.5  0.2227  -96.1
 4.000  0.5190   89.4   1.168   10.9  0.3949   41.4  0.2178 -101.2
 4.100  0.5266   88.2   1.146    9.5  0.4034   40.0  0.2099 -106.2
 4.200  0.5344   87.1   1.125    8.0  0.4122   38.6  0.2037 -111.6
 4.300  0.5423   86.0   1.105    6.5  0.4212   37.3  0.1994 -117.2
 4.400  0.5505   84.9   1.086    4.9  0.4305   36.0  0.1971 -123.0
 4.500  0.5589   83.9   1.067    3.3  0.4399   34.8  0.1969 -128.9
 4.600  0.5664   82.7   1.050    2.0  0.4479   33.4  0.1938 -134.6
 4.700  0.5742   81.6   1.034    0.7  0.4561   32.1  0.1927 -140.4
 4.800  0.5821   80.4   1.018   -0.7  0.4645   30.8  0.1936 -146.2
 4.900  0.5903   79.4   1.003   -2.1  0.4732   29.5  0.1964 -151.9
 5.000  0.5987   78.3   0.988   -3.5  0.4821   28.3  0.2011 -157.4
 5.100  0.6049   77.2   0.970   -4.6  0.4889   26.8  0.2031 -162.9
 5.200  0.6113   76.2   0.953   -5.8  0.4961   25.4  0.2070 -168.3
 5.300  0.6179   75.2   0.936   -7.0  0.5035   24.0  0.2126 -173.4
 5.400  0.6246   74.2   0.919   -8.2  0.5112   22.7  0.2198 -178.2
 5.500  0.6316   73.2   0.903   -9.5  0.5192   21.4  0.2284  177.3
 5.600  0.6362   72.1   0.889  -10.6  0.5236   19.9  0.2301  172.7
 5.700  0.6410   71.0   0.876  -11.6  0.5284   18.4  0.2333  168.1
 5.800  0.6461   69.9   0.862  -12.8  0.5335   17.0  0.2378  163.8
 5.900  0.6514   68.8   0.850  -13.9  0.5389   15.6  0.2437  159.6
 6.000  0.6569   67.8   0.837  -15.1  0.5447   14.2  0.2509  155.6
!
!  f       NFmin   Gammaopt  rn/50
! GHz       dB    MAG  ANG    -
!
! noise parameter not available yet for this operation point!
!
! (c) 2015  Infineon Technologies AG, Munich
