! Infineon Technologies  Discrete & RF Semiconductors
! BFR182
! VCE =  1.5 V,  IC =  4.5 mA
! Common Emitter S-Parameters:                            Nov 2015
# GHz  S  MA  R  50
!  f         S11            S21            S12            S22
! GHz     MAG   ANG      MAG   ANG      MAG   ANG      MAG   ANG
 0.010  0.8297   -2.6  13.222  178.0  0.0020   91.5  0.9909   -1.2
 0.015  0.8271   -3.8  13.261  176.7  0.0031   90.1  0.9872   -1.8
 0.020  0.8248   -5.1  13.306  175.5  0.0043   89.4  0.9837   -2.4
 0.025  0.8225   -6.4  13.285  174.5  0.0053   87.6  0.9826   -3.0
 0.030  0.8207   -7.6  13.268  173.4  0.0064   86.4  0.9817   -3.6
 0.035  0.8192   -8.9  13.255  172.4  0.0074   85.6  0.9809   -4.2
 0.040  0.8182  -10.2  13.247  171.4  0.0085   84.9  0.9801   -4.8
 0.045  0.8175  -11.5  13.243  170.3  0.0095   84.4  0.9795   -5.4
 0.050  0.8173  -12.8  13.243  169.3  0.0106   84.0  0.9790   -6.0
 0.055  0.8128  -13.9  13.165  168.3  0.0116   82.7  0.9756   -6.5
 0.060  0.8085  -15.1  13.091  167.4  0.0127   81.7  0.9722   -7.0
 0.065  0.8046  -16.2  13.020  166.4  0.0137   80.8  0.9689   -7.6
 0.070  0.8011  -17.4  12.953  165.4  0.0148   80.0  0.9657   -8.1
 0.075  0.7978  -18.5  12.890  164.4  0.0158   79.3  0.9626   -8.6
 0.080  0.7949  -19.7  12.831  163.4  0.0169   78.8  0.9596   -9.1
 0.085  0.7923  -20.9  12.776  162.4  0.0179   78.2  0.9566   -9.7
 0.090  0.7901  -22.1  12.725  161.4  0.0190   77.8  0.9538  -10.2
 0.095  0.7882  -23.3  12.679  160.3  0.0200   77.4  0.9510  -10.8
 0.100  0.7867  -24.5  12.636  159.3  0.0211   77.0  0.9483  -11.3
 0.105  0.7801  -25.6  12.558  158.3  0.0220   76.3  0.9436  -11.8
 0.110  0.7739  -26.7  12.484  157.3  0.0229   75.6  0.9389  -12.2
 0.115  0.7679  -27.8  12.414  156.3  0.0237   75.0  0.9343  -12.7
 0.120  0.7622  -29.0  12.348  155.2  0.0246   74.5  0.9297  -13.2
 0.125  0.7568  -30.2  12.286  154.2  0.0255   73.9  0.9252  -13.6
 0.130  0.7518  -31.3  12.229  153.1  0.0264   73.5  0.9208  -14.1
 0.135  0.7471  -32.5  12.175  152.1  0.0273   73.0  0.9165  -14.6
 0.140  0.7427  -33.7  12.126  151.0  0.0282   72.6  0.9122  -15.1
 0.145  0.7386  -35.0  12.081  149.9  0.0291   72.2  0.9080  -15.6
 0.150  0.7349  -36.2  12.040  148.8  0.0300   71.8  0.9038  -16.1
 0.155  0.7293  -37.1  11.941  148.1  0.0308   71.3  0.8989  -16.5
 0.160  0.7238  -38.1  11.844  147.3  0.0315   70.9  0.8940  -16.8
 0.165  0.7186  -39.1  11.750  146.6  0.0323   70.5  0.8892  -17.2
 0.170  0.7136  -40.0  11.657  145.8  0.0331   70.1  0.8844  -17.5
 0.175  0.7088  -41.0  11.566  145.0  0.0338   69.7  0.8796  -17.9
 0.180  0.7042  -42.0  11.478  144.2  0.0346   69.3  0.8749  -18.3
 0.185  0.6998  -43.1  11.392  143.4  0.0354   69.0  0.8702  -18.6
 0.190  0.6957  -44.1  11.308  142.6  0.0361   68.6  0.8655  -19.0
 0.195  0.6918  -45.1  11.227  141.7  0.0369   68.3  0.8609  -19.4
 0.200  0.6881  -46.2  11.148  140.9  0.0377   68.0  0.8563  -19.8
 0.220  0.6627  -49.9  10.767  138.1  0.0403   66.3  0.8380  -20.8
 0.240  0.6403  -53.9  10.413  135.1  0.0430   64.8  0.8199  -21.9
 0.260  0.6180  -57.6  10.084  132.3  0.0454   63.7  0.8020  -22.9
 0.280  0.5949  -61.0   9.770  129.7  0.0475   63.0  0.7841  -23.8
 0.300  0.5741  -64.7   9.477  126.9  0.0496   62.4  0.7664  -24.7
 0.320  0.5534  -67.2   9.172  125.2  0.0514   61.7  0.7516  -25.2
 0.340  0.5339  -69.8   8.876  123.4  0.0531   61.1  0.7368  -25.7
 0.360  0.5156  -72.7   8.589  121.5  0.0549   60.5  0.7221  -26.2
 0.380  0.4986  -75.7   8.313  119.4  0.0567   60.0  0.7074  -26.7
 0.400  0.4832  -79.0   8.048  117.2  0.0585   59.5  0.6928  -27.3
 0.420  0.4686  -81.1   7.791  115.8  0.0600   59.1  0.6820  -27.6
 0.440  0.4546  -83.4   7.539  114.2  0.0614   58.8  0.6712  -27.8
 0.450  0.4480  -84.6   7.416  113.4  0.0621   58.7  0.6658  -28.0
 0.460  0.4415  -85.8   7.294  112.6  0.0629   58.5  0.6604  -28.1
 0.480  0.4291  -88.4   7.054  110.8  0.0643   58.2  0.6496  -28.4
 0.500  0.4177  -91.1   6.822  108.9  0.0658   57.9  0.6388  -28.7
 0.520  0.4064  -93.2   6.647  107.7  0.0672   57.7  0.6313  -28.9
 0.540  0.3957  -95.3   6.476  106.5  0.0687   57.6  0.6237  -29.0
 0.560  0.3856  -97.6   6.307  105.2  0.0701   57.4  0.6162  -29.2
 0.580  0.3762 -100.1   6.142  103.8  0.0716   57.2  0.6086  -29.3
 0.600  0.3674 -102.6   5.981  102.4  0.0730   57.1  0.6011  -29.5
 0.620  0.3577 -104.5   5.842  101.3  0.0743   57.2  0.5952  -29.6
 0.640  0.3483 -106.6   5.704  100.2  0.0756   57.4  0.5893  -29.7
 0.660  0.3395 -108.7   5.569   99.1  0.0768   57.5  0.5833  -29.7
 0.680  0.3311 -110.9   5.436   97.9  0.0781   57.7  0.5774  -29.8
 0.700  0.3233 -113.3   5.306   96.6  0.0794   57.8  0.5715  -29.9
 0.720  0.3165 -115.2   5.187   95.7  0.0807   57.8  0.5670  -30.0
 0.740  0.3100 -117.2   5.070   94.8  0.0821   57.8  0.5625  -30.1
 0.760  0.3039 -119.3   4.954   93.8  0.0834   57.8  0.5579  -30.1
 0.780  0.2982 -121.5   4.839   92.8  0.0848   57.8  0.5534  -30.2
 0.800  0.2930 -123.7   4.726   91.7  0.0861   57.8  0.5489  -30.3
 0.820  0.2874 -125.2   4.630   90.9  0.0875   57.9  0.5454  -30.4
 0.840  0.2821 -126.8   4.535   90.1  0.0889   58.1  0.5419  -30.4
 0.860  0.2770 -128.4   4.442   89.2  0.0902   58.2  0.5384  -30.5
 0.880  0.2721 -130.1   4.349   88.3  0.0916   58.3  0.5349  -30.5
 0.900  0.2674 -131.8   4.257   87.4  0.0930   58.4  0.5314  -30.6
 0.920  0.2643 -133.9   4.183   86.7  0.0943   58.4  0.5289  -30.7
 0.940  0.2616 -136.0   4.109   86.0  0.0956   58.5  0.5263  -30.8
 0.960  0.2592 -138.1   4.036   85.3  0.0968   58.5  0.5238  -31.0
 0.980  0.2571 -140.3   3.964   84.5  0.0981   58.6  0.5212  -31.1
 1.000  0.2555 -142.5   3.892   83.7  0.0994   58.6  0.5187  -31.2
 1.020  0.2530 -144.2   3.831   83.0  0.1009   58.7  0.5166  -31.4
 1.040  0.2507 -146.0   3.771   82.3  0.1023   58.8  0.5146  -31.5
 1.060  0.2487 -147.8   3.711   81.6  0.1038   58.9  0.5125  -31.7
 1.080  0.2469 -149.6   3.652   80.9  0.1052   59.0  0.5105  -31.8
 1.100  0.2454 -151.4   3.594   80.1  0.1067   59.1  0.5084  -32.0
 1.120  0.2430 -153.0   3.540   79.4  0.1081   59.2  0.5068  -32.1
 1.140  0.2407 -154.7   3.486   78.8  0.1095   59.3  0.5052  -32.3
 1.160  0.2387 -156.4   3.433   78.1  0.1109   59.3  0.5035  -32.4
 1.180  0.2369 -158.1   3.380   77.3  0.1123   59.4  0.5019  -32.6
 1.200  0.2353 -159.9   3.328   76.6  0.1137   59.5  0.5003  -32.7
 1.220  0.2334 -161.4   3.280   76.0  0.1152   59.5  0.4987  -32.9
 1.240  0.2317 -163.0   3.231   75.5  0.1168   59.6  0.4970  -33.0
 1.260  0.2301 -164.6   3.184   74.9  0.1183   59.6  0.4954  -33.2
 1.280  0.2287 -166.2   3.136   74.2  0.1199   59.7  0.4937  -33.3
 1.300  0.2275 -167.8   3.089   73.6  0.1214   59.7  0.4921  -33.5
 1.320  0.2265 -169.5   3.050   73.0  0.1227   59.8  0.4908  -33.7
 1.340  0.2257 -171.2   3.010   72.4  0.1241   59.8  0.4895  -33.9
 1.360  0.2251 -172.9   2.972   71.8  0.1254   59.9  0.4882  -34.1
 1.380  0.2247 -174.6   2.933   71.2  0.1268   59.9  0.4869  -34.3
 1.400  0.2245 -176.3   2.895   70.5  0.1281   60.0  0.4856  -34.5
 1.420  0.2237 -177.5   2.864   70.0  0.1297   60.0  0.4842  -34.7
 1.440  0.2229 -178.7   2.833   69.5  0.1312   60.0  0.4828  -34.9
 1.460  0.2223 -179.9   2.802   68.9  0.1328   60.1  0.4814  -35.1
 1.480  0.2217  178.9   2.771   68.4  0.1343   60.1  0.4801  -35.3
 1.500  0.2213  177.7   2.741   67.8  0.1359   60.1  0.4787  -35.5
 1.520  0.2222  176.1   2.708   67.2  0.1375   60.1  0.4775  -35.7
 1.540  0.2233  174.4   2.675   66.6  0.1390   60.1  0.4764  -35.9
 1.560  0.2246  172.8   2.642   65.9  0.1406   60.1  0.4752  -36.0
 1.580  0.2260  171.3   2.610   65.3  0.1421   60.1  0.4741  -36.2
 1.600  0.2276  169.7   2.578   64.6  0.1437   60.1  0.4729  -36.4
 1.620  0.2278  168.2   2.552   64.1  0.1453   60.1  0.4714  -36.6
 1.640  0.2282  166.8   2.525   63.6  0.1470   60.2  0.4700  -36.9
 1.660  0.2288  165.4   2.499   63.1  0.1486   60.2  0.4686  -37.1
 1.680  0.2295  163.9   2.474   62.5  0.1503   60.3  0.4671  -37.4
 1.700  0.2303  162.5   2.448   62.0  0.1519   60.3  0.4657  -37.6
 1.720  0.2311  161.4   2.425   61.5  0.1536   60.2  0.4649  -37.9
 1.740  0.2320  160.4   2.403   61.0  0.1553   60.2  0.4640  -38.1
 1.760  0.2329  159.3   2.381   60.5  0.1569   60.1  0.4632  -38.4
 1.780  0.2340  158.2   2.359   60.0  0.1586   60.1  0.4624  -38.6
 1.800  0.2351  157.2   2.337   59.5  0.1603   60.0  0.4616  -38.9
 1.820  0.2364  156.2   2.316   59.0  0.1619   59.9  0.4605  -39.2
 1.840  0.2378  155.2   2.296   58.5  0.1635   59.9  0.4594  -39.5
 1.860  0.2393  154.2   2.276   58.0  0.1651   59.8  0.4584  -39.8
 1.880  0.2409  153.3   2.256   57.4  0.1667   59.8  0.4573  -40.1
 1.900  0.2425  152.3   2.236   56.9  0.1683   59.7  0.4563  -40.4
 1.920  0.2447  151.4   2.216   56.4  0.1700   59.6  0.4554  -40.7
 1.940  0.2470  150.4   2.195   55.9  0.1717   59.5  0.4545  -41.0
 1.960  0.2493  149.5   2.175   55.4  0.1733   59.5  0.4537  -41.2
 1.980  0.2517  148.7   2.156   54.8  0.1750   59.4  0.4528  -41.5
 2.000  0.2541  147.8   2.136   54.3  0.1767   59.3  0.4520  -41.8
 2.020  0.2551  146.8   2.119   53.9  0.1785   59.2  0.4507  -42.1
 2.040  0.2562  145.8   2.102   53.4  0.1802   59.2  0.4494  -42.4
 2.060  0.2574  144.8   2.085   52.9  0.1820   59.1  0.4481  -42.7
 2.080  0.2586  143.8   2.068   52.5  0.1837   59.1  0.4468  -43.0
 2.100  0.2599  142.9   2.052   52.0  0.1855   59.0  0.4455  -43.3
 2.120  0.2613  141.9   2.035   51.5  0.1873   59.0  0.4442  -43.6
 2.140  0.2628  141.0   2.019   51.0  0.1890   58.9  0.4430  -44.0
 2.160  0.2643  140.0   2.003   50.5  0.1908   58.9  0.4417  -44.3
 2.180  0.2659  139.1   1.987   50.0  0.1925   58.8  0.4405  -44.6
 2.200  0.2676  138.2   1.971   49.5  0.1943   58.8  0.4393  -44.9
 2.220  0.2694  137.3   1.958   49.1  0.1961   58.7  0.4381  -45.2
 2.240  0.2713  136.5   1.944   48.6  0.1978   58.6  0.4369  -45.5
 2.260  0.2733  135.7   1.931   48.2  0.1996   58.5  0.4357  -45.9
 2.280  0.2753  134.9   1.918   47.7  0.2014   58.4  0.4345  -46.2
 2.300  0.2773  134.1   1.905   47.2  0.2031   58.3  0.4334  -46.5
 2.320  0.2794  133.3   1.892   46.8  0.2049   58.2  0.4322  -46.9
 2.340  0.2816  132.5   1.879   46.3  0.2067   58.1  0.4311  -47.2
 2.360  0.2838  131.7   1.867   45.8  0.2085   58.0  0.4300  -47.5
 2.380  0.2861  130.9   1.854   45.3  0.2102   57.9  0.4289  -47.9
 2.400  0.2884  130.2   1.842   44.8  0.2120   57.8  0.4278  -48.2
 2.420  0.2905  129.4   1.830   44.4  0.2139   57.7  0.4261  -48.5
 2.440  0.2927  128.7   1.819   44.0  0.2158   57.5  0.4245  -48.9
 2.460  0.2949  128.0   1.807   43.6  0.2177   57.4  0.4229  -49.3
 2.480  0.2971  127.2   1.796   43.2  0.2195   57.3  0.4212  -49.6
 2.500  0.2994  126.5   1.784   42.8  0.2214   57.1  0.4196  -50.0
 2.520  0.3018  125.8   1.773   42.3  0.2233   57.0  0.4181  -50.3
 2.540  0.3042  125.1   1.762   41.9  0.2252   56.9  0.4165  -50.7
 2.560  0.3066  124.4   1.751   41.5  0.2271   56.7  0.4149  -51.1
 2.580  0.3091  123.8   1.740   41.0  0.2290   56.6  0.4134  -51.4
 2.600  0.3116  123.1   1.729   40.6  0.2309   56.5  0.4119  -51.8
 2.620  0.3133  122.6   1.719   40.2  0.2327   56.4  0.4107  -52.2
 2.640  0.3151  122.0   1.709   39.8  0.2346   56.2  0.4095  -52.6
 2.660  0.3169  121.5   1.699   39.4  0.2364   56.1  0.4083  -53.0
 2.680  0.3187  120.9   1.689   39.0  0.2383   56.0  0.4071  -53.5
 2.700  0.3206  120.4   1.679   38.6  0.2401   55.8  0.4060  -53.9
 2.720  0.3224  119.9   1.670   38.1  0.2420   55.7  0.4049  -54.3
 2.740  0.3243  119.4   1.660   37.7  0.2438   55.6  0.4038  -54.7
 2.760  0.3263  118.9   1.651   37.3  0.2457   55.4  0.4027  -55.1
 2.780  0.3282  118.4   1.641   36.8  0.2475   55.3  0.4016  -55.6
 2.800  0.3302  117.9   1.632   36.4  0.2494   55.2  0.4006  -56.0
 2.820  0.3325  117.4   1.623   36.0  0.2513   55.0  0.3988  -56.4
 2.840  0.3348  116.9   1.615   35.6  0.2532   54.9  0.3970  -56.8
 2.860  0.3371  116.4   1.606   35.2  0.2551   54.7  0.3952  -57.3
 2.880  0.3395  115.9   1.597   34.8  0.2570   54.6  0.3935  -57.7
 2.900  0.3419  115.4   1.589   34.4  0.2589   54.4  0.3918  -58.1
 2.920  0.3443  114.9   1.581   33.9  0.2608   54.3  0.3901  -58.5
 2.940  0.3468  114.5   1.572   33.5  0.2628   54.1  0.3884  -59.0
 2.960  0.3492  114.0   1.564   33.1  0.2647   54.0  0.3867  -59.4
 2.980  0.3517  113.6   1.556   32.6  0.2666   53.8  0.3851  -59.9
 3.000  0.3542  113.1   1.548   32.2  0.2685   53.7  0.3835  -60.3
 3.100  0.3654  110.7   1.509   30.5  0.2782   52.7  0.3739  -62.8
 3.200  0.3772  108.5   1.472   28.6  0.2881   51.7  0.3650  -65.5
 3.300  0.3895  106.4   1.436   26.7  0.2980   50.8  0.3570  -68.2
 3.400  0.4023  104.4   1.401   24.7  0.3080   50.0  0.3498  -71.1
 3.500  0.4156  102.6   1.369   22.6  0.3180   49.2  0.3435  -74.1
 3.600  0.4260  100.8   1.341   21.0  0.3277   48.0  0.3334  -77.4
 3.700  0.4369   99.1   1.314   19.3  0.3376   46.9  0.3245  -80.9
 3.800  0.4481   97.5   1.288   17.5  0.3476   45.9  0.3169  -84.6
 3.900  0.4596   96.0   1.264   15.7  0.3577   44.9  0.3106  -88.4
 4.000  0.4715   94.5   1.241   13.8  0.3679   44.0  0.3058  -92.4
 4.100  0.4808   93.1   1.218   12.3  0.3776   42.7  0.2969  -96.4
 4.200  0.4903   91.7   1.195   10.7  0.3875   41.4  0.2895 -100.6
 4.300  0.5001   90.4   1.173    9.1  0.3975   40.2  0.2838 -105.0
 4.400  0.5102   89.1   1.153    7.4  0.4077   39.1  0.2798 -109.6
 4.500  0.5205   87.9   1.133    5.7  0.4181   38.0  0.2777 -114.3
 4.600  0.5284   86.7   1.114    4.3  0.4272   36.6  0.2716 -118.8
 4.700  0.5365   85.5   1.096    2.9  0.4365   35.3  0.2672 -123.4
 4.800  0.5449   84.3   1.079    1.5  0.4461   34.1  0.2647 -128.2
 4.900  0.5534   83.2   1.062   -0.0  0.4558   32.9  0.2640 -133.1
 5.000  0.5622   82.1   1.046   -1.6  0.4658   31.7  0.2652 -137.9
 5.100  0.5695   80.9   1.028   -2.8  0.4739   30.2  0.2630 -142.8
 5.200  0.5771   79.8   1.010   -4.1  0.4823   28.8  0.2629 -147.8
 5.300  0.5849   78.7   0.993   -5.4  0.4909   27.4  0.2647 -152.8
 5.400  0.5929   77.6   0.976   -6.8  0.4999   26.1  0.2684 -157.6
 5.500  0.6011   76.5   0.960   -8.2  0.5091   24.8  0.2740 -162.3
 5.600  0.6070   75.4   0.944   -9.3  0.5147   23.2  0.2721 -166.9
 5.700  0.6131   74.4   0.928  -10.5  0.5207   21.6  0.2719 -171.5
 5.800  0.6195   73.3   0.913  -11.7  0.5271   20.1  0.2734 -176.0
 5.900  0.6260   72.3   0.898  -13.0  0.5339   18.6  0.2767  179.5
 6.000  0.6327   71.3   0.884  -14.3  0.5410   17.2  0.2816  175.1
!
!  f       NFmin   Gammaopt  rn/50
! GHz       dB    MAG  ANG    -
!
! noise parameter not available yet for this operation point!
!
! (c) 2015  Infineon Technologies AG, Munich
