! Infineon Technologies  Discrete & RF Semiconductors
! BFR182
! VCE =  1.7 V,  IC =  12 mA
! Common Emitter S-Parameters:                            Nov 2015
# GHz  S  MA  R  50
!  f         S11            S21            S12            S22
! GHz     MAG   ANG      MAG   ANG      MAG   ANG      MAG   ANG
 0.010  0.6318   -5.0  26.708  176.1  0.0018   91.6  0.9738   -2.0
 0.015  0.6299   -7.0  26.432  174.1  0.0027   86.5  0.9703   -3.1
 0.020  0.6287   -9.0  26.188  172.1  0.0036   84.0  0.9672   -4.3
 0.025  0.6229  -11.3  26.013  170.3  0.0045   83.0  0.9618   -5.3
 0.030  0.6181  -13.6  25.863  168.6  0.0055   82.4  0.9566   -6.3
 0.035  0.6142  -15.9  25.738  166.8  0.0064   81.9  0.9518   -7.3
 0.040  0.6114  -18.2  25.638  165.0  0.0073   81.6  0.9472   -8.3
 0.045  0.6097  -20.6  25.565  163.1  0.0083   81.3  0.9430   -9.3
 0.050  0.6090  -23.0  25.517  161.3  0.0092   81.1  0.9390  -10.3
 0.055  0.5987  -24.8  25.158  159.9  0.0100   79.7  0.9301  -11.0
 0.060  0.5890  -26.6  24.815  158.4  0.0109   78.4  0.9213  -11.7
 0.065  0.5798  -28.4  24.489  157.0  0.0117   77.4  0.9127  -12.5
 0.070  0.5714  -30.4  24.179  155.4  0.0126   76.5  0.9042  -13.2
 0.075  0.5635  -32.4  23.887  153.9  0.0134   75.7  0.8959  -14.0
 0.080  0.5564  -34.4  23.613  152.3  0.0143   75.0  0.8878  -14.8
 0.085  0.5500  -36.5  23.358  150.6  0.0151   74.4  0.8798  -15.5
 0.090  0.5444  -38.6  23.123  148.9  0.0160   73.8  0.8720  -16.3
 0.095  0.5395  -40.8  22.908  147.2  0.0168   73.3  0.8644  -17.2
 0.100  0.5354  -43.0  22.713  145.5  0.0177   72.9  0.8569  -18.0
 0.105  0.5264  -44.4  22.336  144.4  0.0183   72.4  0.8477  -18.4
 0.110  0.5177  -45.9  21.967  143.2  0.0189   71.9  0.8386  -18.9
 0.115  0.5093  -47.4  21.607  142.1  0.0195   71.4  0.8295  -19.3
 0.120  0.5013  -48.9  21.257  140.8  0.0200   70.9  0.8205  -19.8
 0.125  0.4937  -50.5  20.917  139.6  0.0206   70.5  0.8115  -20.2
 0.130  0.4865  -52.2  20.588  138.3  0.0212   70.1  0.8025  -20.7
 0.135  0.4797  -53.9  20.269  136.9  0.0218   69.7  0.7937  -21.2
 0.140  0.4733  -55.7  19.963  135.5  0.0224   69.4  0.7848  -21.7
 0.145  0.4674  -57.5  19.668  134.1  0.0230   69.0  0.7761  -22.2
 0.150  0.4620  -59.3  19.386  132.6  0.0236   68.7  0.7674  -22.7
 0.155  0.4545  -60.5  19.096  131.8  0.0241   68.5  0.7600  -22.9
 0.160  0.4473  -61.8  18.809  131.0  0.0246   68.2  0.7527  -23.1
 0.165  0.4403  -63.1  18.527  130.2  0.0250   68.0  0.7454  -23.3
 0.170  0.4335  -64.5  18.248  129.3  0.0255   67.8  0.7381  -23.6
 0.175  0.4270  -65.9  17.974  128.4  0.0260   67.6  0.7308  -23.8
 0.180  0.4208  -67.3  17.704  127.5  0.0265   67.3  0.7235  -24.0
 0.185  0.4148  -68.8  17.439  126.5  0.0270   67.2  0.7162  -24.3
 0.190  0.4091  -70.3  17.179  125.5  0.0274   67.0  0.7089  -24.5
 0.195  0.4037  -71.9  16.924  124.5  0.0279   66.8  0.7016  -24.7
 0.200  0.3986  -73.5  16.675  123.5  0.0284   66.6  0.6944  -25.0
 0.220  0.3761  -77.6  15.709  120.9  0.0302   66.3  0.6718  -25.4
 0.240  0.3559  -82.3  14.780  117.9  0.0321   66.0  0.6492  -25.9
 0.260  0.3386  -86.6  13.958  115.4  0.0339   66.0  0.6298  -26.1
 0.280  0.3233  -90.4  13.221  113.4  0.0357   66.2  0.6136  -26.2
 0.300  0.3096  -94.5  12.503  111.1  0.0375   66.4  0.5974  -26.3
 0.320  0.2963  -97.2  11.967  109.8  0.0391   66.6  0.5867  -26.2
 0.340  0.2838 -100.2  11.438  108.4  0.0407   66.8  0.5760  -26.2
 0.360  0.2721 -103.5  10.917  106.8  0.0423   67.0  0.5654  -26.1
 0.380  0.2613 -107.1  10.404  105.1  0.0439   67.2  0.5547  -26.1
 0.400  0.2517 -110.9   9.902  103.2  0.0455   67.4  0.5440  -26.0
 0.420  0.2448 -113.6   9.532  102.1  0.0471   67.6  0.5370  -25.9
 0.440  0.2386 -116.5   9.166  100.9  0.0487   67.7  0.5300  -25.8
 0.450  0.2356 -118.0   8.985  100.3  0.0495   67.8  0.5265  -25.7
 0.460  0.2329 -119.5   8.804   99.6  0.0503   67.8  0.5231  -25.6
 0.480  0.2279 -122.7   8.447   98.2  0.0519   68.0  0.5161  -25.5
 0.500  0.2237 -126.0   8.096   96.7  0.0535   68.1  0.5091  -25.4
 0.520  0.2194 -128.3   7.850   95.9  0.0553   68.3  0.5050  -25.3
 0.540  0.2154 -130.8   7.606   95.0  0.0572   68.5  0.5008  -25.2
 0.560  0.2119 -133.3   7.364   94.0  0.0590   68.7  0.4967  -25.2
 0.580  0.2088 -135.9   7.124   93.0  0.0609   68.8  0.4925  -25.1
 0.600  0.2061 -138.6   6.886   91.9  0.0627   69.0  0.4884  -25.0
 0.620  0.2025 -140.6   6.703   91.1  0.0643   69.2  0.4857  -25.0
 0.640  0.1991 -142.6   6.521   90.3  0.0660   69.3  0.4830  -25.0
 0.660  0.1959 -144.8   6.341   89.5  0.0676   69.4  0.4804  -25.1
 0.680  0.1931 -146.9   6.162   88.6  0.0693   69.6  0.4777  -25.1
 0.700  0.1905 -149.2   5.985   87.6  0.0709   69.7  0.4750  -25.1
 0.720  0.1886 -151.2   5.841   86.9  0.0727   69.6  0.4730  -25.1
 0.740  0.1870 -153.3   5.698   86.2  0.0744   69.5  0.4710  -25.1
 0.760  0.1857 -155.4   5.555   85.4  0.0762   69.4  0.4691  -25.2
 0.780  0.1846 -157.5   5.414   84.6  0.0779   69.4  0.4671  -25.2
 0.800  0.1837 -159.7   5.274   83.8  0.0797   69.3  0.4651  -25.2
 0.820  0.1826 -161.3   5.161   83.2  0.0815   69.3  0.4637  -25.3
 0.840  0.1817 -162.9   5.048   82.5  0.0833   69.3  0.4622  -25.4
 0.860  0.1809 -164.6   4.936   81.9  0.0852   69.3  0.4608  -25.4
 0.880  0.1803 -166.2   4.825   81.1  0.0870   69.3  0.4593  -25.5
 0.900  0.1798 -167.9   4.714   80.4  0.0888   69.3  0.4579  -25.6
 0.920  0.1786 -169.8   4.628   79.8  0.0904   69.3  0.4566  -25.7
 0.940  0.1777 -171.8   4.542   79.2  0.0921   69.4  0.4552  -25.8
 0.960  0.1769 -173.8   4.456   78.6  0.0937   69.4  0.4539  -26.0
 0.980  0.1764 -175.8   4.371   77.9  0.0954   69.5  0.4525  -26.1
 1.000  0.1761 -177.8   4.287   77.2  0.0970   69.5  0.4512  -26.2
 1.020  0.1775 -179.6   4.216   76.7  0.0989   69.4  0.4500  -26.4
 1.040  0.1790  178.6   4.145   76.2  0.1008   69.3  0.4489  -26.5
 1.060  0.1808  176.8   4.075   75.6  0.1026   69.2  0.4477  -26.7
 1.080  0.1826  175.1   4.005   75.1  0.1045   69.1  0.4466  -26.8
 1.100  0.1847  173.4   3.935   74.5  0.1064   69.0  0.4454  -27.0
 1.120  0.1850  172.2   3.873   73.9  0.1082   69.0  0.4444  -27.2
 1.140  0.1853  171.1   3.811   73.4  0.1100   68.9  0.4434  -27.4
 1.160  0.1857  169.9   3.750   72.8  0.1118   68.9  0.4424  -27.5
 1.180  0.1862  168.7   3.689   72.1  0.1136   68.8  0.4414  -27.7
 1.200  0.1868  167.6   3.629   71.5  0.1154   68.8  0.4404  -27.9
 1.220  0.1868  166.5   3.574   71.0  0.1172   68.7  0.4396  -28.1
 1.240  0.1868  165.3   3.519   70.5  0.1190   68.5  0.4389  -28.3
 1.260  0.1869  164.2   3.465   70.0  0.1208   68.4  0.4381  -28.5
 1.280  0.1871  163.0   3.411   69.5  0.1226   68.3  0.4373  -28.7
 1.300  0.1873  161.9   3.357   69.0  0.1244   68.2  0.4366  -28.9
 1.320  0.1887  160.6   3.312   68.5  0.1261   68.1  0.4358  -29.2
 1.340  0.1902  159.4   3.266   68.1  0.1279   68.0  0.4351  -29.4
 1.360  0.1918  158.1   3.221   67.6  0.1296   68.0  0.4344  -29.7
 1.380  0.1934  156.9   3.177   67.1  0.1314   67.9  0.4336  -29.9
 1.400  0.1952  155.7   3.132   66.6  0.1331   67.8  0.4329  -30.2
 1.420  0.1950  154.8   3.098   66.1  0.1349   67.7  0.4322  -30.4
 1.440  0.1948  154.0   3.064   65.7  0.1368   67.5  0.4315  -30.7
 1.460  0.1947  153.1   3.030   65.2  0.1386   67.4  0.4308  -30.9
 1.480  0.1946  152.3   2.996   64.7  0.1405   67.2  0.4301  -31.2
 1.500  0.1946  151.4   2.963   64.2  0.1423   67.1  0.4294  -31.4
 1.520  0.1967  150.4   2.926   63.7  0.1442   67.0  0.4286  -31.6
 1.540  0.1988  149.5   2.890   63.2  0.1460   66.9  0.4277  -31.9
 1.560  0.2010  148.5   2.854   62.6  0.1479   66.7  0.4269  -32.1
 1.580  0.2032  147.6   2.818   62.1  0.1497   66.6  0.4261  -32.4
 1.600  0.2055  146.7   2.782   61.5  0.1516   66.5  0.4253  -32.6
 1.620  0.2077  145.7   2.753   61.0  0.1535   66.4  0.4244  -32.9
 1.640  0.2099  144.7   2.724   60.5  0.1553   66.3  0.4235  -33.1
 1.660  0.2122  143.7   2.696   60.0  0.1572   66.1  0.4226  -33.4
 1.680  0.2146  142.7   2.667   59.5  0.1590   66.0  0.4218  -33.6
 1.700  0.2170  141.8   2.639   59.0  0.1609   65.9  0.4209  -33.9
 1.720  0.2180  140.9   2.614   58.6  0.1627   65.8  0.4199  -34.2
 1.740  0.2190  140.1   2.588   58.2  0.1645   65.6  0.4189  -34.5
 1.760  0.2201  139.2   2.563   57.8  0.1663   65.5  0.4179  -34.8
 1.780  0.2212  138.3   2.538   57.3  0.1681   65.3  0.4170  -35.1
 1.800  0.2224  137.5   2.513   56.9  0.1699   65.2  0.4160  -35.4
 1.820  0.2242  136.8   2.490   56.4  0.1719   65.0  0.4150  -35.7
 1.840  0.2261  136.1   2.468   56.0  0.1739   64.9  0.4141  -36.0
 1.860  0.2280  135.4   2.445   55.5  0.1760   64.7  0.4131  -36.4
 1.880  0.2299  134.8   2.423   55.0  0.1780   64.6  0.4122  -36.7
 1.900  0.2319  134.1   2.401   54.5  0.1800   64.4  0.4113  -37.0
 1.920  0.2333  133.4   2.379   54.1  0.1817   64.2  0.4104  -37.3
 1.940  0.2348  132.6   2.356   53.6  0.1834   64.1  0.4095  -37.6
 1.960  0.2363  131.9   2.334   53.2  0.1852   63.9  0.4086  -37.8
 1.980  0.2378  131.2   2.312   52.8  0.1869   63.8  0.4077  -38.1
 2.000  0.2394  130.5   2.290   52.3  0.1886   63.6  0.4068  -38.4
 2.020  0.2407  129.9   2.272   51.9  0.1905   63.4  0.4056  -38.7
 2.040  0.2421  129.4   2.253   51.5  0.1925   63.2  0.4045  -39.1
 2.060  0.2435  128.8   2.235   51.1  0.1944   63.1  0.4034  -39.4
 2.080  0.2449  128.3   2.217   50.6  0.1964   62.9  0.4023  -39.8
 2.100  0.2464  127.7   2.199   50.2  0.1983   62.7  0.4012  -40.1
 2.120  0.2478  127.2   2.182   49.7  0.2003   62.5  0.4001  -40.5
 2.140  0.2493  126.7   2.164   49.3  0.2022   62.4  0.3990  -40.8
 2.160  0.2508  126.1   2.147   48.8  0.2042   62.2  0.3980  -41.2
 2.180  0.2524  125.6   2.129   48.4  0.2061   62.1  0.3969  -41.5
 2.200  0.2539  125.1   2.112   47.9  0.2081   61.9  0.3959  -41.9
 2.220  0.2559  124.5   2.097   47.5  0.2100   61.7  0.3945  -42.2
 2.240  0.2579  123.8   2.083   47.1  0.2118   61.5  0.3932  -42.6
 2.260  0.2600  123.2   2.069   46.7  0.2137   61.4  0.3918  -42.9
 2.280  0.2621  122.6   2.054   46.3  0.2156   61.2  0.3905  -43.2
 2.300  0.2642  122.0   2.040   45.8  0.2174   61.0  0.3892  -43.6
 2.320  0.2663  121.4   2.026   45.4  0.2193   60.8  0.3879  -43.9
 2.340  0.2685  120.8   2.012   45.0  0.2212   60.7  0.3866  -44.3
 2.360  0.2707  120.2   1.998   44.5  0.2230   60.5  0.3853  -44.6
 2.380  0.2729  119.7   1.985   44.1  0.2249   60.4  0.3840  -44.9
 2.400  0.2752  119.1   1.971   43.6  0.2268   60.2  0.3828  -45.3
 2.420  0.2774  118.6   1.958   43.2  0.2287   60.0  0.3813  -45.7
 2.440  0.2796  118.1   1.945   42.8  0.2306   59.8  0.3797  -46.1
 2.460  0.2818  117.6   1.932   42.4  0.2325   59.6  0.3782  -46.4
 2.480  0.2841  117.2   1.920   42.0  0.2344   59.4  0.3767  -46.8
 2.500  0.2864  116.7   1.907   41.6  0.2363   59.2  0.3752  -47.2
 2.520  0.2887  116.3   1.895   41.2  0.2382   59.0  0.3738  -47.6
 2.540  0.2910  115.8   1.882   40.8  0.2401   58.8  0.3723  -48.0
 2.560  0.2933  115.4   1.870   40.4  0.2420   58.6  0.3709  -48.4
 2.580  0.2956  114.9   1.858   39.9  0.2439   58.4  0.3695  -48.8
 2.600  0.2980  114.5   1.846   39.5  0.2458   58.2  0.3681  -49.2
 2.620  0.3002  114.0   1.835   39.1  0.2477   58.0  0.3666  -49.6
 2.640  0.3023  113.5   1.825   38.8  0.2497   57.8  0.3651  -50.0
 2.660  0.3045  113.1   1.814   38.4  0.2516   57.6  0.3636  -50.5
 2.680  0.3068  112.6   1.804   38.1  0.2536   57.4  0.3621  -50.9
 2.700  0.3090  112.2   1.793   37.7  0.2555   57.2  0.3606  -51.3
 2.720  0.3113  111.7   1.783   37.3  0.2575   57.0  0.3592  -51.7
 2.740  0.3136  111.3   1.772   37.0  0.2594   56.8  0.3578  -52.2
 2.760  0.3159  110.8   1.762   36.6  0.2614   56.6  0.3564  -52.6
 2.780  0.3182  110.4   1.752   36.2  0.2633   56.4  0.3550  -53.1
 2.800  0.3205  110.0   1.742   35.8  0.2653   56.2  0.3537  -53.5
 2.820  0.3227  109.7   1.732   35.4  0.2672   56.0  0.3520  -53.9
 2.840  0.3248  109.3   1.722   35.0  0.2690   55.8  0.3503  -54.4
 2.860  0.3270  109.0   1.712   34.6  0.2709   55.6  0.3486  -54.8
 2.880  0.3292  108.7   1.703   34.3  0.2728   55.4  0.3469  -55.2
 2.900  0.3314  108.4   1.693   33.9  0.2747   55.2  0.3453  -55.7
 2.920  0.3336  108.1   1.683   33.5  0.2765   55.0  0.3437  -56.1
 2.940  0.3359  107.8   1.674   33.0  0.2784   54.8  0.3421  -56.6
 2.960  0.3381  107.5   1.665   32.6  0.2803   54.6  0.3405  -57.1
 2.980  0.3403  107.2   1.655   32.2  0.2822   54.4  0.3389  -57.5
 3.000  0.3426  106.9   1.646   31.8  0.2841   54.2  0.3374  -58.0
 3.100  0.3542  105.2   1.605   30.1  0.2936   53.0  0.3270  -60.5
 3.200  0.3660  103.5   1.565   28.4  0.3031   51.8  0.3172  -63.2
 3.300  0.3782  102.0   1.527   26.6  0.3128   50.8  0.3082  -66.0
 3.400  0.3906  100.5   1.490   24.6  0.3226   49.7  0.2999  -69.0
 3.500  0.4032   99.2   1.455   22.6  0.3325   48.8  0.2925  -72.1
 3.600  0.4137   97.8   1.426   21.0  0.3417   47.5  0.2815  -75.4
 3.700  0.4245   96.4   1.398   19.4  0.3511   46.2  0.2716  -79.0
 3.800  0.4355   95.2   1.371   17.6  0.3606   45.1  0.2628  -82.9
 3.900  0.4467   94.0   1.346   15.9  0.3703   44.0  0.2553  -87.0
 4.000  0.4581   92.8   1.322   14.0  0.3801   42.9  0.2492  -91.3
 4.100  0.4682   91.6   1.297   12.5  0.3889   41.5  0.2397  -95.5
 4.200  0.4785   90.5   1.272   11.0  0.3979   40.2  0.2317 -100.0
 4.300  0.4890   89.4   1.249    9.4  0.4071   38.9  0.2252 -104.9
 4.400  0.4997   88.3   1.226    7.7  0.4164   37.7  0.2203 -109.9
 4.500  0.5105   87.3   1.205    6.0  0.4260   36.6  0.2173 -115.2
 4.600  0.5190   86.1   1.185    4.6  0.4341   35.2  0.2119 -120.1
 4.700  0.5278   85.0   1.167    3.1  0.4425   33.9  0.2081 -125.3
 4.800  0.5367   83.9   1.149    1.6  0.4511   32.7  0.2061 -130.5
 4.900  0.5459   82.8   1.131    0.1  0.4599   31.5  0.2059 -135.9
 5.000  0.5552   81.8   1.115   -1.5  0.4689   30.3  0.2074 -141.2
 5.100  0.5617   80.7   1.095   -2.7  0.4761   28.9  0.2063 -146.6
 5.200  0.5685   79.6   1.076   -4.0  0.4836   27.5  0.2071 -152.1
 5.300  0.5755   78.5   1.058   -5.4  0.4914   26.2  0.2098 -157.5
 5.400  0.5826   77.4   1.040   -6.8  0.4994   24.9  0.2142 -162.7
 5.500  0.5900   76.4   1.023   -8.2  0.5077   23.6  0.2203 -167.6
 5.600  0.5966   75.3   1.005   -9.4  0.5127   22.1  0.2196 -172.5
 5.700  0.6034   74.2   0.988  -10.6  0.5181   20.6  0.2206 -177.3
 5.800  0.6104   73.1   0.972  -11.9  0.5238   19.2  0.2231  177.9
 5.900  0.6176   72.1   0.956  -13.2  0.5299   17.8  0.2271  173.3
 6.000  0.6250   71.1   0.940  -14.5  0.5362   16.4  0.2325  168.8
!
!  f       NFmin   Gammaopt  rn/50
! GHz       dB    MAG  ANG    -
!
! noise parameter not available yet for this operation point!
!
! (c) 2015  Infineon Technologies AG, Munich
