! Infineon Technologies  Discrete & RF Semiconductors
! BFR182
! VCE =  10. V,  IC =  1.5 mA
! Common Emitter S-Parameters:                            Nov 2015
# GHz  S  MA  R  50
!  f         S11            S21            S12            S22
! GHz     MAG   ANG      MAG   ANG      MAG   ANG      MAG   ANG
 0.010  0.9492   -1.2   5.108  179.0  0.0018   94.2  0.9956   -0.5
 0.015  0.9457   -1.8   5.084  178.3  0.0028   87.3  0.9947   -0.8
 0.020  0.9424   -2.4   5.060  177.6  0.0038   84.1  0.9938   -1.1
 0.025  0.9429   -3.0   5.052  177.1  0.0049   84.7  0.9938   -1.4
 0.030  0.9436   -3.6   5.044  176.6  0.0060   85.1  0.9938   -1.6
 0.035  0.9443   -4.3   5.037  176.2  0.0070   85.3  0.9939   -1.9
 0.040  0.9452   -4.9   5.030  175.7  0.0081   85.5  0.9939   -2.1
 0.045  0.9461   -5.5   5.023  175.2  0.0092   85.7  0.9940   -2.4
 0.050  0.9472   -6.1   5.017  174.7  0.0103   85.8  0.9941   -2.6
 0.055  0.9458   -6.7   5.019  174.2  0.0113   85.1  0.9934   -2.9
 0.060  0.9445   -7.3   5.021  173.7  0.0123   84.5  0.9927   -3.1
 0.065  0.9433   -7.9   5.024  173.1  0.0133   84.0  0.9920   -3.4
 0.070  0.9422   -8.6   5.027  172.6  0.0143   83.5  0.9914   -3.6
 0.075  0.9413   -9.2   5.031  172.1  0.0153   83.1  0.9907   -3.9
 0.080  0.9404   -9.8   5.035  171.6  0.0163   82.8  0.9901   -4.2
 0.085  0.9397  -10.4   5.039  171.1  0.0173   82.5  0.9895   -4.4
 0.090  0.9390  -11.1   5.044  170.5  0.0183   82.3  0.9890   -4.7
 0.095  0.9385  -11.7   5.049  170.0  0.0193   82.0  0.9884   -4.9
 0.100  0.9381  -12.3   5.055  169.5  0.0203   81.8  0.9879   -5.2
 0.105  0.9363  -12.9   5.043  168.9  0.0213   81.3  0.9868   -5.5
 0.110  0.9346  -13.4   5.031  168.3  0.0222   80.9  0.9858   -5.7
 0.115  0.9330  -14.0   5.020  167.7  0.0232   80.5  0.9848   -6.0
 0.120  0.9314  -14.6   5.010  167.1  0.0242   80.2  0.9838   -6.2
 0.125  0.9300  -15.1   5.000  166.5  0.0251   79.8  0.9828   -6.5
 0.130  0.9287  -15.7   4.991  165.9  0.0261   79.5  0.9818   -6.8
 0.135  0.9274  -16.3   4.982  165.3  0.0271   79.2  0.9809   -7.0
 0.140  0.9262  -16.8   4.974  164.6  0.0281   79.0  0.9800   -7.3
 0.145  0.9252  -17.4   4.966  164.0  0.0290   78.7  0.9791   -7.5
 0.150  0.9242  -18.0   4.959  163.4  0.0300   78.5  0.9782   -7.8
 0.155  0.9220  -18.6   4.950  162.9  0.0309   78.1  0.9770   -8.0
 0.160  0.9200  -19.2   4.941  162.4  0.0318   77.7  0.9758   -8.3
 0.165  0.9180  -19.7   4.932  161.9  0.0327   77.3  0.9746   -8.5
 0.170  0.9161  -20.3   4.924  161.5  0.0336   77.0  0.9734   -8.7
 0.175  0.9143  -20.9   4.916  161.0  0.0345   76.6  0.9722   -8.9
 0.180  0.9127  -21.5   4.908  160.5  0.0354   76.3  0.9711   -9.2
 0.185  0.9111  -22.1   4.901  160.0  0.0364   76.0  0.9699   -9.4
 0.190  0.9096  -22.7   4.895  159.5  0.0373   75.7  0.9688   -9.6
 0.195  0.9082  -23.3   4.888  159.0  0.0382   75.5  0.9677   -9.9
 0.200  0.9069  -23.9   4.882  158.5  0.0391   75.2  0.9666  -10.1
 0.220  0.8970  -26.4   4.873  156.3  0.0426   73.7  0.9604  -11.1
 0.240  0.8887  -28.9   4.870  154.1  0.0461   72.5  0.9545  -12.0
 0.260  0.8797  -31.3   4.841  152.0  0.0495   71.3  0.9480  -12.9
 0.280  0.8696  -33.6   4.784  150.0  0.0526   70.1  0.9407  -13.8
 0.300  0.8609  -36.0   4.732  148.0  0.0558   69.1  0.9336  -14.6
 0.320  0.8476  -37.9   4.659  146.5  0.0587   67.8  0.9267  -15.3
 0.340  0.8353  -40.0   4.590  144.9  0.0615   66.6  0.9199  -16.0
 0.360  0.8241  -42.0   4.525  143.2  0.0644   65.5  0.9133  -16.8
 0.380  0.8139  -44.1   4.463  141.5  0.0674   64.5  0.9069  -17.5
 0.400  0.8049  -46.3   4.405  139.8  0.0703   63.6  0.9006  -18.3
 0.420  0.7899  -48.2   4.338  138.0  0.0726   62.5  0.8928  -18.9
 0.440  0.7758  -50.2   4.276  136.2  0.0749   61.5  0.8850  -19.5
 0.450  0.7691  -51.3   4.246  135.3  0.0761   61.1  0.8812  -19.9
 0.460  0.7627  -52.3   4.218  134.4  0.0773   60.6  0.8774  -20.2
 0.480  0.7507  -54.5   4.165  132.5  0.0796   59.7  0.8699  -20.8
 0.500  0.7397  -56.7   4.116  130.5  0.0820   58.9  0.8625  -21.5
 0.520  0.7260  -58.5   4.068  129.1  0.0837   58.1  0.8545  -22.0
 0.540  0.7131  -60.4   4.023  127.6  0.0854   57.3  0.8466  -22.5
 0.560  0.7009  -62.3   3.981  126.1  0.0872   56.6  0.8388  -23.1
 0.580  0.6896  -64.3   3.942  124.6  0.0889   55.9  0.8310  -23.6
 0.600  0.6792  -66.4   3.905  123.0  0.0907   55.2  0.8233  -24.2
 0.620  0.6680  -68.0   3.845  121.8  0.0922   54.5  0.8165  -24.6
 0.640  0.6572  -69.6   3.788  120.5  0.0937   53.9  0.8097  -25.1
 0.660  0.6470  -71.2   3.732  119.2  0.0952   53.2  0.8029  -25.5
 0.680  0.6374  -72.9   3.679  117.8  0.0968   52.6  0.7962  -25.9
 0.700  0.6283  -74.7   3.627  116.4  0.0983   52.0  0.7896  -26.4
 0.720  0.6177  -76.2   3.569  115.2  0.0996   51.5  0.7837  -26.7
 0.740  0.6075  -77.8   3.512  114.0  0.1008   50.9  0.7779  -27.1
 0.760  0.5977  -79.4   3.457  112.8  0.1021   50.4  0.7721  -27.4
 0.780  0.5885  -81.1   3.404  111.5  0.1034   49.9  0.7663  -27.7
 0.800  0.5798  -82.8   3.352  110.2  0.1047   49.4  0.7605  -28.1
 0.820  0.5699  -84.2   3.302  109.1  0.1058   49.0  0.7560  -28.4
 0.840  0.5603  -85.7   3.254  108.1  0.1069   48.7  0.7516  -28.7
 0.860  0.5512  -87.2   3.206  106.9  0.1080   48.3  0.7472  -28.9
 0.880  0.5424  -88.7   3.160  105.8  0.1092   47.9  0.7428  -29.2
 0.900  0.5340  -90.3   3.115  104.6  0.1103   47.6  0.7384  -29.5
 0.920  0.5240  -91.9   3.080  103.6  0.1110   47.4  0.7338  -29.8
 0.940  0.5144  -93.6   3.046  102.5  0.1117   47.1  0.7291  -30.0
 0.960  0.5052  -95.3   3.012  101.5  0.1124   46.9  0.7245  -30.3
 0.980  0.4966  -97.1   2.980  100.4  0.1131   46.6  0.7200  -30.6
 1.000  0.4884  -98.9   2.949   99.3  0.1138   46.4  0.7154  -30.9
 1.020  0.4801 -100.5   2.916   98.4  0.1145   46.2  0.7112  -31.1
 1.040  0.4721 -102.1   2.884   97.4  0.1151   46.1  0.7070  -31.4
 1.060  0.4645 -103.7   2.853   96.4  0.1158   45.9  0.7029  -31.6
 1.080  0.4574 -105.4   2.823   95.4  0.1164   45.8  0.6987  -31.9
 1.100  0.4506 -107.2   2.794   94.4  0.1171   45.6  0.6946  -32.1
 1.120  0.4438 -108.7   2.759   93.5  0.1177   45.5  0.6912  -32.4
 1.140  0.4373 -110.2   2.725   92.6  0.1183   45.4  0.6877  -32.6
 1.160  0.4311 -111.7   2.692   91.7  0.1189   45.4  0.6843  -32.9
 1.180  0.4252 -113.4   2.659   90.8  0.1195   45.3  0.6809  -33.1
 1.200  0.4197 -115.0   2.627   89.8  0.1201   45.2  0.6775  -33.4
 1.220  0.4139 -116.3   2.597   89.0  0.1207   45.2  0.6743  -33.6
 1.240  0.4083 -117.6   2.568   88.3  0.1214   45.2  0.6711  -33.8
 1.260  0.4030 -119.0   2.539   87.5  0.1220   45.3  0.6679  -34.0
 1.280  0.3979 -120.4   2.511   86.6  0.1227   45.3  0.6648  -34.2
 1.300  0.3930 -121.8   2.483   85.8  0.1233   45.3  0.6616  -34.4
 1.320  0.3876 -123.3   2.455   85.0  0.1237   45.3  0.6590  -34.6
 1.340  0.3824 -124.8   2.427   84.3  0.1241   45.3  0.6564  -34.9
 1.360  0.3775 -126.3   2.399   83.5  0.1244   45.3  0.6538  -35.1
 1.380  0.3728 -127.9   2.372   82.6  0.1248   45.3  0.6513  -35.4
 1.400  0.3685 -129.5   2.346   81.8  0.1252   45.3  0.6487  -35.6
 1.420  0.3648 -130.9   2.325   81.2  0.1259   45.4  0.6462  -35.8
 1.440  0.3613 -132.3   2.304   80.5  0.1266   45.5  0.6438  -36.0
 1.460  0.3581 -133.8   2.283   79.9  0.1272   45.5  0.6413  -36.1
 1.480  0.3551 -135.3   2.263   79.2  0.1279   45.6  0.6388  -36.3
 1.500  0.3523 -136.8   2.243   78.5  0.1286   45.7  0.6364  -36.5
 1.520  0.3489 -138.5   2.216   77.7  0.1292   45.8  0.6347  -36.7
 1.540  0.3459 -140.2   2.190   77.0  0.1298   45.9  0.6330  -36.9
 1.560  0.3431 -141.9   2.164   76.2  0.1303   46.1  0.6313  -37.1
 1.580  0.3407 -143.6   2.139   75.3  0.1309   46.2  0.6296  -37.3
 1.600  0.3386 -145.4   2.114   74.5  0.1315   46.3  0.6279  -37.5
 1.620  0.3351 -146.9   2.095   73.9  0.1322   46.4  0.6261  -37.7
 1.640  0.3319 -148.4   2.077   73.2  0.1329   46.5  0.6244  -38.0
 1.660  0.3289 -150.0   2.059   72.6  0.1336   46.6  0.6226  -38.2
 1.680  0.3261 -151.6   2.041   71.9  0.1343   46.7  0.6209  -38.5
 1.700  0.3236 -153.2   2.023   71.2  0.1350   46.8  0.6192  -38.7
 1.720  0.3207 -154.7   2.008   70.6  0.1358   46.9  0.6177  -38.9
 1.740  0.3180 -156.3   1.993   69.9  0.1366   47.0  0.6162  -39.1
 1.760  0.3156 -157.9   1.978   69.2  0.1373   47.2  0.6147  -39.4
 1.780  0.3134 -159.5   1.964   68.6  0.1381   47.3  0.6132  -39.6
 1.800  0.3114 -161.1   1.950   67.9  0.1389   47.4  0.6117  -39.8
 1.820  0.3106 -162.5   1.936   67.3  0.1396   47.6  0.6100  -40.1
 1.840  0.3101 -164.0   1.923   66.6  0.1404   47.9  0.6083  -40.3
 1.860  0.3097 -165.4   1.910   66.0  0.1411   48.1  0.6067  -40.6
 1.880  0.3095 -166.9   1.897   65.4  0.1419   48.4  0.6050  -40.8
 1.900  0.3095 -168.3   1.884   64.7  0.1426   48.6  0.6034  -41.1
 1.920  0.3074 -169.9   1.868   64.1  0.1436   48.7  0.6021  -41.3
 1.940  0.3055 -171.5   1.851   63.5  0.1445   48.9  0.6007  -41.5
 1.960  0.3038 -173.1   1.835   62.8  0.1455   49.0  0.5994  -41.8
 1.980  0.3024 -174.7   1.820   62.2  0.1464   49.2  0.5981  -42.0
 2.000  0.3012 -176.4   1.804   61.5  0.1474   49.3  0.5968  -42.2
 2.020  0.3010 -177.7   1.789   61.0  0.1483   49.5  0.5956  -42.5
 2.040  0.3009 -179.0   1.775   60.5  0.1493   49.7  0.5944  -42.8
 2.060  0.3010  179.8   1.760   59.9  0.1502   49.9  0.5932  -43.0
 2.080  0.3013  178.5   1.746   59.4  0.1511   50.0  0.5920  -43.3
 2.100  0.3016  177.2   1.731   58.8  0.1521   50.2  0.5908  -43.6
 2.120  0.3022  175.9   1.717   58.2  0.1530   50.4  0.5897  -43.9
 2.140  0.3029  174.7   1.704   57.7  0.1540   50.6  0.5885  -44.1
 2.160  0.3037  173.4   1.690   57.1  0.1549   50.8  0.5874  -44.4
 2.180  0.3047  172.1   1.676   56.5  0.1559   50.9  0.5863  -44.7
 2.200  0.3058  170.9   1.663   55.9  0.1568   51.1  0.5852  -45.0
 2.220  0.3057  169.5   1.654   55.4  0.1580   51.3  0.5837  -45.3
 2.240  0.3058  168.2   1.645   54.8  0.1592   51.5  0.5822  -45.6
 2.260  0.3061  166.8   1.636   54.3  0.1604   51.7  0.5807  -45.9
 2.280  0.3066  165.5   1.627   53.7  0.1617   51.9  0.5792  -46.1
 2.300  0.3072  164.1   1.619   53.2  0.1629   52.1  0.5778  -46.4
 2.320  0.3080  162.8   1.610   52.6  0.1641   52.3  0.5763  -46.7
 2.340  0.3089  161.4   1.602   52.0  0.1653   52.5  0.5749  -47.0
 2.360  0.3101  160.1   1.594   51.5  0.1665   52.6  0.5735  -47.3
 2.380  0.3113  158.8   1.586   50.9  0.1678   52.8  0.5721  -47.6
 2.400  0.3128  157.5   1.578   50.3  0.1690   53.0  0.5707  -47.9
 2.420  0.3141  156.3   1.567   49.8  0.1704   53.1  0.5694  -48.2
 2.440  0.3156  155.0   1.556   49.4  0.1718   53.2  0.5682  -48.5
 2.460  0.3173  153.8   1.545   48.9  0.1731   53.3  0.5670  -48.9
 2.480  0.3190  152.6   1.534   48.4  0.1745   53.4  0.5658  -49.2
 2.500  0.3209  151.4   1.524   47.9  0.1759   53.5  0.5646  -49.5
 2.520  0.3230  150.2   1.513   47.4  0.1773   53.6  0.5634  -49.9
 2.540  0.3252  149.1   1.503   46.9  0.1787   53.7  0.5622  -50.2
 2.560  0.3275  147.9   1.492   46.4  0.1800   53.8  0.5611  -50.5
 2.580  0.3299  146.8   1.482   45.8  0.1814   53.9  0.5600  -50.9
 2.600  0.3325  145.7   1.472   45.3  0.1828   54.0  0.5589  -51.2
 2.620  0.3332  144.7   1.465   44.9  0.1844   54.1  0.5578  -51.5
 2.640  0.3340  143.7   1.458   44.4  0.1859   54.2  0.5566  -51.9
 2.660  0.3349  142.8   1.452   44.0  0.1875   54.3  0.5555  -52.2
 2.680  0.3358  141.8   1.445   43.5  0.1890   54.4  0.5545  -52.6
 2.700  0.3369  140.8   1.438   43.1  0.1906   54.5  0.5534  -52.9
 2.720  0.3381  139.9   1.432   42.6  0.1922   54.6  0.5524  -53.3
 2.740  0.3394  138.9   1.426   42.1  0.1937   54.6  0.5513  -53.6
 2.760  0.3407  138.0   1.419   41.7  0.1953   54.7  0.5503  -54.0
 2.780  0.3422  137.0   1.413   41.2  0.1968   54.8  0.5494  -54.3
 2.800  0.3437  136.1   1.407   40.7  0.1984   54.9  0.5484  -54.7
 2.820  0.3459  135.3   1.398   40.2  0.2001   55.0  0.5470  -55.1
 2.840  0.3482  134.5   1.390   39.8  0.2017   55.0  0.5457  -55.5
 2.860  0.3506  133.7   1.381   39.3  0.2034   55.1  0.5444  -55.9
 2.880  0.3530  132.9   1.373   38.8  0.2050   55.1  0.5431  -56.2
 2.900  0.3555  132.2   1.365   38.4  0.2067   55.2  0.5418  -56.6
 2.920  0.3580  131.4   1.357   37.9  0.2084   55.2  0.5406  -57.0
 2.940  0.3606  130.7   1.349   37.4  0.2100   55.3  0.5394  -57.4
 2.960  0.3633  129.9   1.341   36.9  0.2117   55.3  0.5382  -57.8
 2.980  0.3660  129.2   1.333   36.4  0.2133   55.4  0.5370  -58.2
 3.000  0.3688  128.5   1.325   35.9  0.2150   55.4  0.5359  -58.6
 3.100  0.3787  124.8   1.292   34.1  0.2248   55.2  0.5290  -60.9
 3.200  0.3901  121.2   1.260   32.1  0.2345   55.1  0.5230  -63.3
 3.300  0.4030  117.9   1.230   30.1  0.2443   54.9  0.5180  -65.7
 3.400  0.4171  114.8   1.202   27.9  0.2540   54.8  0.5139  -68.2
 3.500  0.4323  111.9   1.175   25.7  0.2638   54.7  0.5107  -70.7
 3.600  0.4406  109.3   1.151   24.0  0.2756   54.0  0.5014  -73.6
 3.700  0.4498  106.8   1.128   22.3  0.2874   53.3  0.4934  -76.7
 3.800  0.4598  104.4   1.107   20.5  0.2993   52.6  0.4868  -79.8
 3.900  0.4705  102.2   1.086   18.6  0.3112   52.0  0.4818  -83.0
 4.000  0.4820  100.0   1.067   16.6  0.3231   51.5  0.4783  -86.3
 4.100  0.4909   98.1   1.049   15.1  0.3354   50.3  0.4692  -89.8
 4.200  0.5003   96.3   1.031   13.6  0.3478   49.2  0.4619  -93.4
 4.300  0.5102   94.6   1.014   12.1  0.3603   48.1  0.4565  -97.2
 4.400  0.5205   92.9   0.997   10.5  0.3730   47.1  0.4531 -101.0
 4.500  0.5313   91.3   0.982    8.8  0.3857   46.2  0.4517 -104.8
 4.600  0.5381   89.7   0.965    7.5  0.3979   44.8  0.4439 -108.7
 4.700  0.5453   88.1   0.948    6.1  0.4103   43.4  0.4382 -112.7
 4.800  0.5529   86.6   0.932    4.7  0.4230   42.1  0.4348 -116.8
 4.900  0.5608   85.1   0.917    3.3  0.4359   40.9  0.4335 -121.0
 5.000  0.5692   83.6   0.902    1.8  0.4489   39.8  0.4346 -125.1
 5.100  0.5755   82.2   0.887    0.7  0.4595   38.1  0.4269 -129.2
 5.200  0.5821   80.7   0.873   -0.4  0.4705   36.5  0.4216 -133.5
 5.300  0.5891   79.4   0.859   -1.6  0.4818   34.9  0.4186 -137.8
 5.400  0.5964   78.0   0.845   -2.8  0.4935   33.4  0.4181 -142.2
 5.500  0.6040   76.7   0.832   -4.0  0.5055   32.0  0.4200 -146.6
 5.600  0.6080   75.5   0.820   -5.0  0.5131   30.1  0.4117 -150.7
 5.700  0.6123   74.4   0.809   -6.1  0.5212   28.4  0.4056 -154.9
 5.800  0.6168   73.2   0.798   -7.2  0.5297   26.6  0.4017 -159.3
 5.900  0.6215   72.1   0.787   -8.3  0.5388   24.9  0.4002 -163.7
 6.000  0.6265   71.0   0.776   -9.5  0.5483   23.3  0.4011 -168.1
!
!  f       NFmin   Gammaopt  rn/50
! GHz       dB    MAG  ANG    -
!
! noise parameter not available yet for this operation point!
!
! (c) 2015  Infineon Technologies AG, Munich
