! Infineon Technologies  Discrete & RF Semiconductors
! BFR106
! VCE = 0.50 V,  IC =  3.0 mA
! Common Emitter S-Parameters:                            Nov 2015
# GHz  S  MA  R  50
!  f         S11            S21            S12            S22
! GHz     MAG   ANG      MAG   ANG      MAG   ANG      MAG   ANG
 0.010  0.8932  -10.8  10.282  172.8  0.0150   85.9  0.9896   -6.1
 0.015  0.8852  -15.9  10.169  170.0  0.0224   81.0  0.9819   -9.1
 0.020  0.8842  -21.0  10.081  167.2  0.0298   78.5  0.9770  -12.2
 0.025  0.8631  -25.5   9.848  164.5  0.0359   73.7  0.9567  -14.6
 0.030  0.8475  -30.2   9.637  161.6  0.0421   70.3  0.9381  -17.2
 0.035  0.8379  -35.1   9.452  158.7  0.0485   67.9  0.9215  -19.8
 0.040  0.8344  -40.0   9.293  155.6  0.0549   65.9  0.9069  -22.5
 0.045  0.8371  -44.9   9.161  152.4  0.0614   64.4  0.8944  -25.3
 0.050  0.8459  -49.8   9.058  149.2  0.0679   63.2  0.8841  -28.2
 0.055  0.8246  -53.1   8.829  147.5  0.0714   60.6  0.8628  -29.7
 0.060  0.8063  -56.6   8.607  145.8  0.0750   58.3  0.8422  -31.4
 0.065  0.7911  -60.2   8.394  144.0  0.0787   56.2  0.8222  -33.1
 0.070  0.7791  -64.0   8.190  142.0  0.0825   54.2  0.8031  -34.9
 0.075  0.7706  -67.8   7.995  140.0  0.0864   52.5  0.7847  -36.7
 0.080  0.7656  -71.8   7.811  137.9  0.0904   50.9  0.7672  -38.7
 0.085  0.7643  -75.7   7.639  135.7  0.0945   49.4  0.7507  -40.7
 0.090  0.7666  -79.7   7.478  133.3  0.0986   48.1  0.7351  -42.9
 0.095  0.7725  -83.6   7.330  130.9  0.1027   46.8  0.7206  -45.1
 0.100  0.7820  -87.4   7.196  128.4  0.1069   45.7  0.7073  -47.4
 0.105  0.7710  -89.6   7.016  127.3  0.1085   44.5  0.6922  -48.4
 0.110  0.7613  -91.9   6.839  126.0  0.1101   43.3  0.6773  -49.4
 0.115  0.7528  -94.3   6.665  124.8  0.1117   42.1  0.6626  -50.5
 0.120  0.7456  -96.7   6.495  123.4  0.1134   41.0  0.6482  -51.6
 0.125  0.7398  -99.1   6.329  122.0  0.1152   39.9  0.6340  -52.7
 0.130  0.7353 -101.6   6.166  120.6  0.1170   38.8  0.6202  -54.0
 0.135  0.7322 -104.1   6.008  119.0  0.1188   37.8  0.6065  -55.2
 0.140  0.7305 -106.6   5.854  117.4  0.1207   36.8  0.5933  -56.6
 0.145  0.7302 -109.2   5.706  115.6  0.1226   35.8  0.5803  -57.9
 0.150  0.7314 -111.7   5.563  113.8  0.1245   34.9  0.5677  -59.4
 0.155  0.7273 -113.3   5.454  113.0  0.1253   34.3  0.5582  -60.0
 0.160  0.7238 -115.0   5.346  112.2  0.1261   33.7  0.5488  -60.6
 0.165  0.7208 -116.6   5.239  111.4  0.1270   33.0  0.5394  -61.2
 0.170  0.7185 -118.3   5.133  110.5  0.1278   32.4  0.5301  -61.8
 0.175  0.7168 -120.0   5.028  109.6  0.1287   31.9  0.5209  -62.5
 0.180  0.7157 -121.7   4.925  108.6  0.1296   31.3  0.5117  -63.2
 0.185  0.7153 -123.3   4.823  107.6  0.1304   30.7  0.5026  -63.9
 0.190  0.7154 -125.0   4.723  106.6  0.1314   30.1  0.4936  -64.6
 0.195  0.7162 -126.7   4.624  105.5  0.1323   29.6  0.4847  -65.4
 0.200  0.7176 -128.4   4.527  104.4  0.1332   29.0  0.4759  -66.2
 0.220  0.7065 -133.0   4.203  101.7  0.1347   27.4  0.4480  -68.3
 0.240  0.7000 -137.6   3.890   98.6  0.1363   25.9  0.4208  -70.7
 0.260  0.6956 -141.7   3.625   95.9  0.1376   24.7  0.3997  -72.8
 0.280  0.6917 -145.2   3.402   93.8  0.1386   24.0  0.3843  -74.4
 0.300  0.6903 -148.7   3.183   91.4  0.1396   23.3  0.3692  -76.1
 0.320  0.6872 -151.2   3.035   89.9  0.1400   22.9  0.3586  -77.2
 0.340  0.6853 -153.6   2.890   88.3  0.1405   22.4  0.3482  -78.4
 0.360  0.6848 -156.1   2.747   86.5  0.1410   22.0  0.3379  -79.7
 0.380  0.6855 -158.6   2.607   84.5  0.1414   21.5  0.3278  -81.0
 0.400  0.6875 -161.1   2.470   82.3  0.1419   21.1  0.3179  -82.4
 0.420  0.6859 -162.8   2.374   81.0  0.1420   21.1  0.3126  -83.4
 0.440  0.6848 -164.5   2.280   79.7  0.1422   21.1  0.3073  -84.5
 0.450  0.6845 -165.3   2.233   78.9  0.1422   21.0  0.3047  -85.0
 0.460  0.6844 -166.1   2.187   78.2  0.1423   21.0  0.3022  -85.6
 0.480  0.6845 -167.8   2.096   76.6  0.1425   21.0  0.2972  -86.7
 0.500  0.6852 -169.5   2.006   74.8  0.1426   21.0  0.2923  -87.9
 0.520  0.6846 -171.0   1.944   73.6  0.1426   21.2  0.2906  -89.0
 0.540  0.6845 -172.6   1.883   72.3  0.1426   21.4  0.2889  -90.1
 0.560  0.6849 -174.1   1.823   71.0  0.1426   21.7  0.2874  -91.2
 0.580  0.6858 -175.7   1.764   69.5  0.1426   21.9  0.2860  -92.3
 0.600  0.6872 -177.2   1.706   68.0  0.1426   22.1  0.2847  -93.4
 0.620  0.6868 -178.3   1.661   66.9  0.1427   22.5  0.2847  -94.5
 0.640  0.6866 -179.4   1.618   65.8  0.1429   22.8  0.2848  -95.6
 0.660  0.6867  179.5   1.574   64.6  0.1431   23.2  0.2850  -96.8
 0.680  0.6871  178.4   1.532   63.3  0.1432   23.5  0.2853  -97.9
 0.700  0.6877  177.3   1.490   62.0  0.1434   23.9  0.2857  -99.0
 0.720  0.6886  176.3   1.455   61.1  0.1439   24.4  0.2859 -100.1
 0.740  0.6897  175.4   1.420   60.1  0.1443   24.9  0.2862 -101.2
 0.760  0.6910  174.4   1.386   59.0  0.1448   25.3  0.2866 -102.3
 0.780  0.6924  173.5   1.352   57.9  0.1453   25.8  0.2871 -103.4
 0.800  0.6941  172.5   1.319   56.8  0.1458   26.3  0.2877 -104.5
 0.820  0.6930  171.5   1.293   55.9  0.1464   26.9  0.2888 -105.5
 0.840  0.6920  170.6   1.267   55.0  0.1470   27.5  0.2899 -106.4
 0.860  0.6912  169.6   1.242   54.0  0.1477   28.1  0.2911 -107.3
 0.880  0.6907  168.7   1.217   53.0  0.1483   28.6  0.2924 -108.3
 0.900  0.6903  167.7   1.192   51.9  0.1490   29.2  0.2938 -109.2
 0.920  0.6909  166.7   1.171   51.1  0.1498   29.8  0.2961 -110.3
 0.940  0.6916  165.8   1.151   50.2  0.1505   30.5  0.2984 -111.3
 0.960  0.6925  164.8   1.131   49.3  0.1513   31.1  0.3009 -112.4
 0.980  0.6937  163.9   1.111   48.4  0.1522   31.7  0.3034 -113.4
 1.000  0.6950  162.9   1.091   47.4  0.1530   32.3  0.3061 -114.4
 1.020  0.6962  162.1   1.074   46.6  0.1542   32.9  0.3084 -115.6
 1.040  0.6975  161.3   1.058   45.8  0.1554   33.6  0.3109 -116.7
 1.060  0.6989  160.4   1.041   45.0  0.1566   34.2  0.3134 -117.8
 1.080  0.7005  159.6   1.025   44.1  0.1578   34.8  0.3161 -118.9
 1.100  0.7022  158.8   1.009   43.2  0.1591   35.4  0.3189 -120.0
 1.120  0.7033  158.0   0.995   42.5  0.1607   36.0  0.3210 -121.1
 1.140  0.7046  157.3   0.980   41.7  0.1623   36.6  0.3232 -122.2
 1.160  0.7060  156.5   0.966   41.0  0.1639   37.1  0.3255 -123.2
 1.180  0.7075  155.8   0.953   40.2  0.1655   37.7  0.3279 -124.3
 1.200  0.7091  155.0   0.939   39.4  0.1671   38.2  0.3304 -125.3
 1.220  0.7092  154.2   0.927   38.7  0.1692   38.7  0.3325 -126.3
 1.240  0.7094  153.4   0.914   38.1  0.1713   39.2  0.3347 -127.3
 1.260  0.7097  152.6   0.902   37.4  0.1735   39.7  0.3369 -128.3
 1.280  0.7102  151.8   0.890   36.6  0.1756   40.1  0.3393 -129.3
 1.300  0.7108  151.0   0.878   35.9  0.1778   40.6  0.3418 -130.3
 1.320  0.7123  150.3   0.868   35.3  0.1800   41.0  0.3449 -131.3
 1.340  0.7139  149.6   0.858   34.8  0.1822   41.4  0.3480 -132.3
 1.360  0.7156  149.0   0.848   34.2  0.1844   41.8  0.3513 -133.2
 1.380  0.7174  148.3   0.838   33.6  0.1866   42.2  0.3546 -134.2
 1.400  0.7193  147.6   0.828   33.0  0.1888   42.6  0.3581 -135.1
 1.420  0.7197  146.9   0.821   32.4  0.1917   43.0  0.3607 -136.1
 1.440  0.7201  146.2   0.813   31.9  0.1945   43.4  0.3634 -137.1
 1.460  0.7207  145.5   0.806   31.3  0.1974   43.7  0.3662 -138.1
 1.480  0.7214  144.8   0.799   30.7  0.2003   44.1  0.3692 -139.1
 1.500  0.7222  144.1   0.792   30.1  0.2032   44.4  0.3722 -140.1
 1.520  0.7231  143.4   0.782   29.6  0.2061   44.6  0.3748 -141.1
 1.540  0.7241  142.7   0.772   29.0  0.2090   44.7  0.3776 -142.1
 1.560  0.7251  142.1   0.762   28.5  0.2119   44.9  0.3804 -143.1
 1.580  0.7263  141.4   0.753   27.9  0.2148   45.0  0.3834 -144.0
 1.600  0.7276  140.7   0.743   27.3  0.2177   45.2  0.3865 -145.0
 1.620  0.7281  140.0   0.737   26.8  0.2208   45.3  0.3887 -146.1
 1.640  0.7287  139.3   0.731   26.4  0.2239   45.5  0.3911 -147.1
 1.660  0.7294  138.6   0.725   25.9  0.2269   45.6  0.3936 -148.2
 1.680  0.7302  137.9   0.719   25.4  0.2300   45.8  0.3962 -149.2
 1.700  0.7311  137.2   0.713   24.9  0.2331   45.9  0.3990 -150.2
 1.720  0.7325  136.5   0.708   24.6  0.2364   45.9  0.4014 -151.1
 1.740  0.7340  135.8   0.703   24.2  0.2397   45.9  0.4040 -152.0
 1.760  0.7356  135.2   0.698   23.9  0.2431   45.8  0.4066 -152.9
 1.780  0.7374  134.5   0.693   23.5  0.2464   45.8  0.4093 -153.7
 1.800  0.7392  133.8   0.688   23.2  0.2497   45.8  0.4121 -154.6
 1.820  0.7398  133.2   0.682   22.8  0.2531   45.8  0.4155 -155.6
 1.840  0.7405  132.6   0.677   22.3  0.2566   45.7  0.4190 -156.5
 1.860  0.7413  131.9   0.671   21.9  0.2600   45.7  0.4227 -157.5
 1.880  0.7422  131.3   0.666   21.5  0.2635   45.6  0.4264 -158.4
 1.900  0.7432  130.7   0.660   21.0  0.2669   45.6  0.4303 -159.3
 1.920  0.7432  130.1   0.655   20.7  0.2704   45.4  0.4330 -160.3
 1.940  0.7433  129.5   0.651   20.4  0.2738   45.3  0.4358 -161.3
 1.960  0.7434  128.8   0.646   20.1  0.2773   45.1  0.4387 -162.2
 1.980  0.7437  128.2   0.642   19.7  0.2807   45.0  0.4417 -163.2
 2.000  0.7440  127.6   0.637   19.4  0.2842   44.8  0.4449 -164.1
 2.020  0.7448  127.0   0.633   19.1  0.2877   44.6  0.4473 -165.0
 2.040  0.7456  126.4   0.628   18.9  0.2912   44.4  0.4499 -165.9
 2.060  0.7466  125.8   0.624   18.6  0.2946   44.2  0.4525 -166.8
 2.080  0.7476  125.2   0.620   18.3  0.2981   44.0  0.4553 -167.7
 2.100  0.7487  124.6   0.616   18.0  0.3016   43.8  0.4582 -168.6
 2.120  0.7498  124.0   0.612   17.8  0.3051   43.6  0.4612 -169.5
 2.140  0.7511  123.5   0.607   17.5  0.3086   43.4  0.4642 -170.3
 2.160  0.7524  122.9   0.603   17.2  0.3121   43.2  0.4674 -171.1
 2.180  0.7538  122.3   0.599   16.9  0.3156   43.1  0.4707 -172.0
 2.200  0.7553  121.7   0.595   16.6  0.3191   42.9  0.4741 -172.8
 2.220  0.7549  121.1   0.593   16.4  0.3225   42.6  0.4767 -173.8
 2.240  0.7546  120.5   0.591   16.1  0.3259   42.2  0.4795 -174.7
 2.260  0.7544  119.9   0.588   15.9  0.3293   41.9  0.4824 -175.7
 2.280  0.7543  119.3   0.586   15.7  0.3327   41.6  0.4854 -176.6
 2.300  0.7543  118.7   0.584   15.4  0.3361   41.3  0.4886 -177.6
 2.320  0.7543  118.1   0.582   15.2  0.3395   41.0  0.4919 -178.5
 2.340  0.7544  117.5   0.579   14.9  0.3429   40.7  0.4953 -179.4
 2.360  0.7546  116.9   0.577   14.7  0.3464   40.5  0.4988  179.7
 2.380  0.7549  116.3   0.575   14.4  0.3498   40.2  0.5024  178.9
 2.400  0.7553  115.7   0.573   14.2  0.3533   39.9  0.5062  178.0
 2.420  0.7560  115.1   0.571   14.1  0.3563   39.5  0.5080  177.2
 2.440  0.7568  114.6   0.569   13.9  0.3592   39.2  0.5099  176.4
 2.460  0.7576  114.0   0.567   13.8  0.3622   38.9  0.5119  175.6
 2.480  0.7585  113.4   0.565   13.7  0.3652   38.5  0.5140  174.8
 2.500  0.7595  112.9   0.562   13.6  0.3682   38.2  0.5163  174.0
 2.520  0.7606  112.3   0.560   13.4  0.3712   37.9  0.5186  173.2
 2.540  0.7617  111.8   0.558   13.3  0.3742   37.5  0.5210  172.5
 2.560  0.7630  111.2   0.556   13.2  0.3773   37.2  0.5234  171.7
 2.580  0.7642  110.7   0.554   13.0  0.3803   36.9  0.5260  170.9
 2.600  0.7656  110.1   0.552   12.9  0.3834   36.6  0.5287  170.2
 2.620  0.7651  109.6   0.551   12.8  0.3861   36.2  0.5310  169.4
 2.640  0.7647  109.1   0.550   12.6  0.3888   35.8  0.5335  168.5
 2.660  0.7644  108.6   0.549   12.5  0.3915   35.5  0.5360  167.7
 2.680  0.7641  108.1   0.548   12.3  0.3943   35.1  0.5387  166.9
 2.700  0.7639  107.7   0.547   12.2  0.3971   34.7  0.5415  166.1
 2.720  0.7637  107.2   0.547   12.0  0.3998   34.4  0.5444  165.3
 2.740  0.7635  106.7   0.546   11.9  0.4026   34.0  0.5473  164.5
 2.760  0.7635  106.2   0.545   11.7  0.4054   33.7  0.5504  163.7
 2.780  0.7635  105.7   0.544   11.6  0.4083   33.3  0.5536  163.0
 2.800  0.7635  105.2   0.543   11.4  0.4111   33.0  0.5569  162.2
 2.820  0.7639  104.7   0.542   11.2  0.4136   32.6  0.5588  161.5
 2.840  0.7643  104.3   0.541   11.0  0.4161   32.2  0.5607  160.7
 2.860  0.7648  103.8   0.540   10.8  0.4186   31.8  0.5628  160.0
 2.880  0.7654  103.3   0.539   10.6  0.4212   31.4  0.5649  159.3
 2.900  0.7660  102.8   0.537   10.5  0.4238   31.0  0.5672  158.5
 2.920  0.7667  102.4   0.536   10.3  0.4264   30.7  0.5695  157.8
 2.940  0.7674  101.9   0.535   10.1  0.4290   30.3  0.5719  157.1
 2.960  0.7681  101.4   0.534    9.9  0.4316   29.9  0.5744  156.4
 2.980  0.7689  101.0   0.533    9.7  0.4342   29.6  0.5770  155.7
 3.000  0.7698  100.5   0.532    9.5  0.4369   29.2  0.5797  155.0
 3.100  0.7694   98.6   0.530    8.8  0.4454   27.2  0.5869  151.6
 3.200  0.7698   96.8   0.528    8.1  0.4544   25.3  0.5961  148.3
 3.300  0.7710   94.9   0.526    7.4  0.4639   23.5  0.6073  145.0
 3.400  0.7731   93.0   0.525    6.6  0.4738   21.8  0.6203  142.0
 3.500  0.7759   91.2   0.523    5.9  0.4842   20.1  0.6350  139.0
 3.600  0.7765   89.7   0.523    5.1  0.4886   18.3  0.6409  136.1
 3.700  0.7776   88.1   0.523    4.3  0.4934   16.6  0.6484  133.3
 3.800  0.7792   86.6   0.523    3.6  0.4986   14.9  0.6574  130.6
 3.900  0.7814   85.1   0.523    2.8  0.5043   13.2  0.6678  127.9
 4.000  0.7842   83.6   0.523    2.0  0.5104   11.6  0.6797  125.3
 4.100  0.7825   82.3   0.523    1.0  0.5117   10.1  0.6807  123.0
 4.200  0.7812   81.0   0.523    0.1  0.5134    8.6  0.6828  120.7
 4.300  0.7803   79.8   0.523   -0.9  0.5154    7.1  0.6860  118.5
 4.400  0.7797   78.5   0.523   -1.8  0.5178    5.7  0.6902  116.2
 4.500  0.7796   77.2   0.523   -2.8  0.5205    4.2  0.6955  114.0
 4.600  0.7796   76.1   0.524   -3.6  0.5212    3.0  0.6951  112.1
 4.700  0.7799   75.0   0.525   -4.5  0.5221    1.8  0.6954  110.2
 4.800  0.7805   74.0   0.526   -5.3  0.5232    0.6  0.6964  108.3
 4.900  0.7814   72.9   0.527   -6.2  0.5246   -0.6  0.6982  106.5
 5.000  0.7825   71.8   0.528   -7.0  0.5262   -1.8  0.7008  104.6
 5.100  0.7795   70.9   0.529   -7.3  0.5292   -2.4  0.6987  104.2
 5.200  0.7767   69.9   0.530   -7.5  0.5322   -2.9  0.6967  103.7
 5.300  0.7742   68.9   0.531   -7.8  0.5353   -3.5  0.6947  103.3
 5.400  0.7718   68.0   0.532   -8.0  0.5385   -4.1  0.6927  102.8
 5.500  0.7697   67.0   0.533   -8.3  0.5417   -4.6  0.6908  102.4
 5.600  0.7694   66.2   0.535   -9.3  0.5439   -5.9  0.6975  100.7
 5.700  0.7692   65.4   0.536  -10.4  0.5464   -7.2  0.7048   99.1
 5.800  0.7692   64.7   0.538  -11.4  0.5491   -8.5  0.7127   97.4
 5.900  0.7693   63.9   0.541  -12.4  0.5522   -9.8  0.7211   95.8
 6.000  0.7696   63.1   0.543  -13.4  0.5555  -11.1  0.7301   94.3
!
!  f       NFmin   Gammaopt  rn/50
! GHz       dB    MAG  ANG    -
!
! noise parameter not available yet for this operation point!
!
! (c) 2015  Infineon Technologies AG, Munich
