! Infineon Technologies  Discrete & RF Semiconductors
! BFR182
! VCE =  4.0 V,  IC =  4.0 mA
! Common Emitter S-Parameters:                            Nov 2015
# GHz  S  MA  R  50
!  f         S11            S21            S12            S22
! GHz     MAG   ANG      MAG   ANG      MAG   ANG      MAG   ANG
 0.010  0.8576   -2.2  11.964  178.1  0.0018   85.8  0.9928   -1.0
 0.015  0.8527   -3.2  11.999  177.0  0.0031   85.0  0.9880   -1.5
 0.020  0.8480   -4.2  12.039  175.9  0.0044   84.7  0.9833   -2.0
 0.025  0.8472   -5.3  12.025  175.0  0.0053   84.5  0.9832   -2.5
 0.030  0.8468   -6.4  12.013  174.1  0.0062   84.3  0.9831   -3.0
 0.035  0.8466   -7.5  12.005  173.2  0.0071   84.1  0.9831   -3.5
 0.040  0.8468   -8.6  11.999  172.3  0.0081   84.0  0.9832   -4.0
 0.045  0.8472   -9.7  11.997  171.4  0.0090   84.0  0.9834   -4.5
 0.050  0.8480  -10.8  11.997  170.5  0.0099   83.9  0.9836   -5.0
 0.055  0.8443  -11.8  11.943  169.7  0.0109   82.9  0.9811   -5.5
 0.060  0.8409  -12.8  11.892  168.8  0.0119   82.0  0.9786   -5.9
 0.065  0.8377  -13.8  11.843  167.9  0.0129   81.3  0.9763   -6.4
 0.070  0.8348  -14.8  11.797  167.1  0.0138   80.6  0.9739   -6.8
 0.075  0.8322  -15.9  11.754  166.2  0.0148   80.1  0.9717   -7.3
 0.080  0.8298  -16.9  11.713  165.3  0.0158   79.6  0.9695   -7.7
 0.085  0.8277  -17.9  11.676  164.4  0.0168   79.2  0.9673   -8.2
 0.090  0.8259  -19.0  11.641  163.5  0.0178   78.8  0.9653   -8.7
 0.095  0.8244  -20.0  11.609  162.6  0.0188   78.5  0.9632   -9.1
 0.100  0.8231  -21.1  11.580  161.7  0.0198   78.2  0.9613   -9.6
 0.105  0.8174  -22.0  11.527  160.8  0.0206   77.5  0.9575  -10.0
 0.110  0.8119  -23.0  11.476  159.8  0.0215   76.9  0.9537  -10.4
 0.115  0.8067  -24.0  11.429  158.9  0.0223   76.3  0.9500  -10.9
 0.120  0.8017  -25.0  11.385  157.9  0.0231   75.7  0.9463  -11.3
 0.125  0.7970  -26.0  11.345  156.9  0.0240   75.2  0.9427  -11.7
 0.130  0.7924  -27.0  11.307  156.0  0.0248   74.7  0.9391  -12.1
 0.135  0.7882  -28.0  11.273  155.0  0.0257   74.3  0.9356  -12.6
 0.140  0.7842  -29.0  11.242  154.0  0.0265   73.9  0.9322  -13.0
 0.145  0.7804  -30.1  11.215  153.0  0.0274   73.5  0.9287  -13.5
 0.150  0.7769  -31.1  11.191  152.0  0.0282   73.1  0.9254  -13.9
 0.155  0.7718  -32.0  11.112  151.3  0.0290   72.7  0.9215  -14.2
 0.160  0.7669  -32.8  11.034  150.6  0.0298   72.4  0.9176  -14.5
 0.165  0.7621  -33.7  10.958  149.9  0.0305   72.1  0.9138  -14.9
 0.170  0.7576  -34.6  10.883  149.2  0.0313   71.8  0.9100  -15.2
 0.175  0.7532  -35.5  10.810  148.5  0.0321   71.5  0.9062  -15.5
 0.180  0.7490  -36.4  10.739  147.8  0.0329   71.2  0.9024  -15.8
 0.185  0.7450  -37.3  10.670  147.1  0.0337   70.9  0.8987  -16.2
 0.190  0.7411  -38.2  10.602  146.3  0.0344   70.7  0.8950  -16.5
 0.195  0.7375  -39.2  10.536  145.6  0.0352   70.4  0.8913  -16.9
 0.200  0.7341  -40.1  10.472  144.8  0.0360   70.2  0.8877  -17.2
 0.220  0.7114  -43.4  10.180  142.0  0.0386   68.3  0.8721  -18.3
 0.240  0.6913  -46.9   9.913  139.1  0.0412   66.7  0.8567  -19.3
 0.260  0.6700  -50.2   9.658  136.4  0.0436   65.5  0.8408  -20.3
 0.280  0.6471  -53.3   9.411  133.8  0.0459   64.8  0.8241  -21.3
 0.300  0.6262  -56.6   9.183  131.1  0.0482   64.1  0.8077  -22.2
 0.320  0.6063  -59.0   8.911  129.4  0.0499   63.2  0.7938  -22.8
 0.340  0.5876  -61.5   8.648  127.6  0.0516   62.4  0.7800  -23.3
 0.360  0.5701  -64.2   8.394  125.6  0.0533   61.6  0.7662  -23.9
 0.380  0.5539  -67.1   8.151  123.6  0.0550   60.9  0.7526  -24.6
 0.400  0.5392  -70.1   7.918  121.4  0.0567   60.2  0.7390  -25.2
 0.420  0.5218  -72.1   7.682  119.9  0.0583   59.8  0.7288  -25.5
 0.440  0.5050  -74.3   7.452  118.3  0.0598   59.4  0.7186  -25.8
 0.450  0.4970  -75.4   7.339  117.4  0.0606   59.2  0.7135  -26.0
 0.460  0.4891  -76.6   7.228  116.6  0.0614   59.1  0.7085  -26.1
 0.480  0.4739  -79.0   7.011  114.7  0.0629   58.7  0.6983  -26.5
 0.500  0.4597  -81.6   6.801  112.8  0.0645   58.4  0.6882  -26.8
 0.520  0.4469  -83.4   6.641  111.6  0.0659   58.2  0.6801  -27.0
 0.540  0.4346  -85.3   6.485  110.3  0.0673   58.1  0.6720  -27.2
 0.560  0.4227  -87.3   6.332  108.9  0.0687   58.0  0.6639  -27.4
 0.580  0.4115  -89.5   6.182  107.5  0.0701   57.8  0.6558  -27.6
 0.600  0.4008  -91.7   6.037  106.0  0.0715   57.7  0.6477  -27.8
 0.620  0.3896  -93.4   5.902  104.9  0.0726   57.7  0.6411  -27.9
 0.640  0.3788  -95.2   5.769  103.8  0.0738   57.7  0.6345  -28.1
 0.660  0.3683  -97.1   5.639  102.6  0.0749   57.7  0.6279  -28.2
 0.680  0.3583  -99.2   5.511  101.3  0.0761   57.7  0.6213  -28.4
 0.700  0.3488 -101.3   5.386  100.0  0.0772   57.7  0.6147  -28.5
 0.720  0.3413 -103.1   5.270   99.1  0.0784   57.6  0.6100  -28.6
 0.740  0.3342 -105.0   5.155   98.1  0.0797   57.5  0.6054  -28.7
 0.760  0.3275 -106.9   5.042   97.1  0.0809   57.5  0.6007  -28.8
 0.780  0.3211 -109.0   4.931   96.0  0.0822   57.4  0.5961  -28.9
 0.800  0.3152 -111.1   4.821   94.9  0.0834   57.3  0.5914  -29.0
 0.820  0.3080 -112.5   4.725   94.1  0.0847   57.4  0.5878  -29.1
 0.840  0.3009 -114.0   4.630   93.2  0.0860   57.5  0.5842  -29.2
 0.860  0.2941 -115.6   4.536   92.4  0.0874   57.6  0.5805  -29.3
 0.880  0.2875 -117.2   4.443   91.5  0.0887   57.7  0.5769  -29.4
 0.900  0.2811 -118.9   4.351   90.5  0.0900   57.8  0.5733  -29.5
 0.920  0.2761 -120.6   4.277   89.8  0.0911   57.9  0.5706  -29.6
 0.940  0.2713 -122.3   4.205   89.0  0.0922   58.0  0.5680  -29.7
 0.960  0.2667 -124.1   4.133   88.2  0.0932   58.1  0.5653  -29.9
 0.980  0.2625 -126.0   4.061   87.4  0.0943   58.2  0.5627  -30.0
 1.000  0.2585 -127.9   3.991   86.6  0.0954   58.3  0.5600  -30.1
 1.020  0.2548 -129.7   3.929   85.9  0.0967   58.4  0.5577  -30.2
 1.040  0.2514 -131.6   3.868   85.2  0.0980   58.5  0.5554  -30.4
 1.060  0.2483 -133.5   3.807   84.5  0.0992   58.5  0.5532  -30.5
 1.080  0.2454 -135.5   3.747   83.8  0.1005   58.6  0.5509  -30.7
 1.100  0.2429 -137.5   3.687   83.0  0.1018   58.7  0.5486  -30.8
 1.120  0.2391 -139.2   3.633   82.3  0.1031   58.8  0.5468  -31.0
 1.140  0.2355 -141.0   3.580   81.6  0.1045   58.8  0.5449  -31.1
 1.160  0.2321 -142.9   3.527   80.8  0.1058   58.9  0.5431  -31.3
 1.180  0.2290 -144.8   3.475   80.1  0.1072   58.9  0.5413  -31.4
 1.200  0.2261 -146.7   3.423   79.3  0.1085   59.0  0.5395  -31.6
 1.220  0.2236 -148.3   3.374   78.7  0.1099   59.1  0.5377  -31.7
 1.240  0.2213 -149.9   3.326   78.2  0.1113   59.2  0.5359  -31.8
 1.260  0.2192 -151.5   3.279   77.6  0.1126   59.2  0.5340  -32.0
 1.280  0.2173 -153.2   3.231   76.9  0.1140   59.3  0.5322  -32.1
 1.300  0.2155 -154.9   3.184   76.3  0.1154   59.4  0.5304  -32.2
 1.320  0.2135 -156.6   3.143   75.7  0.1166   59.5  0.5291  -32.4
 1.340  0.2116 -158.3   3.103   75.1  0.1179   59.5  0.5278  -32.6
 1.360  0.2099 -160.0   3.063   74.4  0.1191   59.6  0.5265  -32.8
 1.380  0.2085 -161.7   3.023   73.8  0.1204   59.6  0.5252  -33.0
 1.400  0.2072 -163.5   2.984   73.1  0.1216   59.7  0.5239  -33.2
 1.420  0.2065 -164.9   2.952   72.6  0.1231   59.8  0.5224  -33.4
 1.440  0.2059 -166.3   2.920   72.0  0.1246   59.8  0.5209  -33.5
 1.460  0.2055 -167.7   2.888   71.5  0.1260   59.9  0.5194  -33.7
 1.480  0.2051 -169.1   2.857   70.9  0.1275   59.9  0.5179  -33.8
 1.500  0.2049 -170.5   2.826   70.3  0.1290   60.0  0.5164  -34.0
 1.520  0.2044 -172.4   2.793   69.7  0.1305   60.0  0.5151  -34.2
 1.540  0.2041 -174.4   2.761   69.1  0.1319   60.1  0.5138  -34.4
 1.560  0.2041 -176.3   2.728   68.4  0.1334   60.1  0.5125  -34.6
 1.580  0.2043 -178.3   2.697   67.8  0.1348   60.2  0.5112  -34.8
 1.600  0.2047  179.8   2.665   67.1  0.1363   60.2  0.5099  -35.0
 1.620  0.2040  178.4   2.637   66.6  0.1377   60.2  0.5086  -35.2
 1.640  0.2034  177.0   2.609   66.1  0.1392   60.3  0.5073  -35.4
 1.660  0.2030  175.6   2.581   65.6  0.1406   60.3  0.5060  -35.6
 1.680  0.2027  174.1   2.553   65.0  0.1421   60.4  0.5047  -35.8
 1.700  0.2025  172.7   2.526   64.5  0.1435   60.4  0.5034  -36.0
 1.720  0.2041  171.1   2.503   64.0  0.1450   60.3  0.5026  -36.3
 1.740  0.2059  169.6   2.479   63.6  0.1465   60.3  0.5017  -36.5
 1.760  0.2078  168.1   2.456   63.1  0.1480   60.2  0.5009  -36.8
 1.780  0.2099  166.6   2.434   62.6  0.1495   60.2  0.5001  -37.0
 1.800  0.2121  165.2   2.411   62.1  0.1510   60.1  0.4993  -37.3
 1.820  0.2122  163.9   2.390   61.6  0.1526   60.1  0.4982  -37.6
 1.840  0.2124  162.7   2.370   61.0  0.1542   60.1  0.4972  -37.8
 1.860  0.2128  161.4   2.350   60.5  0.1557   60.1  0.4961  -38.1
 1.880  0.2132  160.2   2.330   60.0  0.1573   60.1  0.4951  -38.3
 1.900  0.2137  158.9   2.310   59.4  0.1589   60.1  0.4941  -38.6
 1.920  0.2149  157.8   2.288   58.9  0.1605   60.1  0.4932  -38.9
 1.940  0.2163  156.7   2.266   58.4  0.1621   60.0  0.4923  -39.1
 1.960  0.2177  155.6   2.245   57.9  0.1636   60.0  0.4914  -39.4
 1.980  0.2191  154.5   2.223   57.4  0.1652   59.9  0.4906  -39.6
 2.000  0.2207  153.4   2.202   56.9  0.1668   59.9  0.4897  -39.9
 2.020  0.2216  152.3   2.185   56.4  0.1685   59.9  0.4884  -40.2
 2.040  0.2225  151.2   2.167   56.0  0.1702   59.8  0.4871  -40.4
 2.060  0.2236  150.1   2.150   55.5  0.1718   59.8  0.4858  -40.7
 2.080  0.2247  149.0   2.133   55.0  0.1735   59.8  0.4845  -41.0
 2.100  0.2259  147.9   2.117   54.5  0.1752   59.7  0.4833  -41.3
 2.120  0.2271  146.8   2.100   54.1  0.1769   59.7  0.4820  -41.6
 2.140  0.2285  145.8   2.083   53.6  0.1786   59.7  0.4808  -41.8
 2.160  0.2299  144.7   2.067   53.0  0.1802   59.7  0.4795  -42.1
 2.180  0.2314  143.7   2.051   52.5  0.1819   59.6  0.4783  -42.4
 2.200  0.2330  142.7   2.035   52.0  0.1836   59.6  0.4771  -42.7
 2.220  0.2349  141.7   2.021   51.6  0.1852   59.5  0.4760  -43.0
 2.240  0.2369  140.8   2.008   51.1  0.1868   59.5  0.4749  -43.3
 2.260  0.2389  139.9   1.994   50.7  0.1885   59.4  0.4739  -43.6
 2.280  0.2410  139.0   1.981   50.2  0.1901   59.3  0.4728  -43.9
 2.300  0.2431  138.1   1.968   49.7  0.1917   59.2  0.4718  -44.2
 2.320  0.2453  137.2   1.955   49.3  0.1933   59.2  0.4708  -44.5
 2.340  0.2476  136.4   1.942   48.8  0.1949   59.1  0.4697  -44.9
 2.360  0.2499  135.5   1.929   48.3  0.1966   59.0  0.4687  -45.2
 2.380  0.2523  134.7   1.916   47.8  0.1982   59.0  0.4678  -45.5
 2.400  0.2547  133.9   1.904   47.3  0.1998   58.9  0.4668  -45.8
 2.420  0.2567  133.0   1.892   46.9  0.2016   58.8  0.4652  -46.1
 2.440  0.2589  132.1   1.880   46.5  0.2035   58.7  0.4636  -46.4
 2.460  0.2610  131.2   1.868   46.1  0.2053   58.6  0.4620  -46.8
 2.480  0.2633  130.3   1.856   45.6  0.2072   58.5  0.4604  -47.1
 2.500  0.2656  129.5   1.844   45.2  0.2090   58.4  0.4588  -47.4
 2.520  0.2679  128.6   1.833   44.8  0.2108   58.3  0.4573  -47.8
 2.540  0.2703  127.8   1.821   44.3  0.2127   58.2  0.4557  -48.1
 2.560  0.2728  127.0   1.810   43.9  0.2145   58.1  0.4542  -48.4
 2.580  0.2753  126.2   1.798   43.5  0.2164   58.0  0.4527  -48.8
 2.600  0.2779  125.4   1.787   43.0  0.2182   57.9  0.4512  -49.1
 2.620  0.2797  124.8   1.777   42.6  0.2199   57.8  0.4501  -49.5
 2.640  0.2815  124.3   1.766   42.2  0.2217   57.7  0.4490  -49.8
 2.660  0.2833  123.7   1.756   41.8  0.2234   57.6  0.4480  -50.2
 2.680  0.2852  123.2   1.746   41.4  0.2251   57.4  0.4469  -50.6
 2.700  0.2871  122.7   1.736   41.0  0.2269   57.3  0.4459  -51.0
 2.720  0.2890  122.1   1.726   40.6  0.2286   57.2  0.4449  -51.4
 2.740  0.2909  121.6   1.716   40.2  0.2304   57.1  0.4439  -51.7
 2.760  0.2929  121.1   1.706   39.8  0.2321   57.0  0.4430  -52.1
 2.780  0.2949  120.6   1.697   39.3  0.2339   56.9  0.4420  -52.5
 2.800  0.2969  120.1   1.687   38.9  0.2356   56.8  0.4411  -52.9
 2.820  0.2990  119.5   1.678   38.5  0.2375   56.7  0.4393  -53.3
 2.840  0.3011  118.9   1.669   38.1  0.2393   56.5  0.4375  -53.7
 2.860  0.3033  118.4   1.659   37.7  0.2412   56.4  0.4357  -54.1
 2.880  0.3055  117.8   1.650   37.3  0.2431   56.2  0.4340  -54.5
 2.900  0.3077  117.2   1.641   36.9  0.2450   56.1  0.4322  -54.9
 2.920  0.3100  116.7   1.633   36.4  0.2469   55.9  0.4305  -55.3
 2.940  0.3123  116.2   1.624   36.0  0.2487   55.8  0.4288  -55.7
 2.960  0.3146  115.6   1.615   35.6  0.2506   55.7  0.4272  -56.1
 2.980  0.3169  115.1   1.606   35.1  0.2525   55.5  0.4255  -56.5
 3.000  0.3193  114.6   1.598   34.7  0.2544   55.4  0.4239  -56.9
 3.100  0.3312  112.2   1.558   32.9  0.2640   54.5  0.4150  -59.2
 3.200  0.3436  109.9   1.519   31.1  0.2736   53.7  0.4068  -61.5
 3.300  0.3566  107.8   1.482   29.2  0.2833   52.9  0.3993  -64.0
 3.400  0.3700  105.8   1.447   27.1  0.2930   52.2  0.3925  -66.6
 3.500  0.3838  104.0   1.414   25.0  0.3028   51.5  0.3866  -69.2
 3.600  0.3947  102.2   1.386   23.4  0.3127   50.4  0.3766  -72.2
 3.700  0.4060  100.6   1.359   21.7  0.3227   49.4  0.3676  -75.3
 3.800  0.4176   99.0   1.334   19.9  0.3329   48.4  0.3598  -78.6
 3.900  0.4294   97.5   1.310   18.1  0.3431   47.5  0.3532  -82.0
 4.000  0.4416   96.1   1.287   16.2  0.3534   46.6  0.3479  -85.5
 4.100  0.4512   94.6   1.262   14.7  0.3633   45.3  0.3386  -89.1
 4.200  0.4610   93.2   1.239   13.1  0.3733   44.1  0.3307  -92.9
 4.300  0.4712   91.8   1.216   11.5  0.3836   43.0  0.3243  -96.8
 4.400  0.4816   90.5   1.195    9.8  0.3939   41.9  0.3194 -100.9
 4.500  0.4922   89.3   1.174    8.1  0.4044   40.9  0.3163 -105.1
 4.600  0.5008   88.0   1.156    6.7  0.4140   39.5  0.3088 -109.1
 4.700  0.5097   86.8   1.138    5.2  0.4239   38.2  0.3030 -113.3
 4.800  0.5187   85.6   1.121    3.6  0.4339   36.9  0.2987 -117.6
 4.900  0.5280   84.5   1.105    2.0  0.4442   35.7  0.2963 -122.0
 5.000  0.5375   83.4   1.090    0.4  0.4546   34.6  0.2956 -126.5
 5.100  0.5448   82.3   1.071   -0.8  0.4632   33.1  0.2906 -131.1
 5.200  0.5524   81.1   1.053   -2.1  0.4720   31.7  0.2876 -135.8
 5.300  0.5601   80.1   1.035   -3.4  0.4812   30.3  0.2865 -140.6
 5.400  0.5681   79.0   1.018   -4.8  0.4906   29.0  0.2875 -145.4
 5.500  0.5762   78.0   1.001   -6.2  0.5003   27.7  0.2904 -150.1
 5.600  0.5822   76.8   0.983   -7.4  0.5066   26.1  0.2863 -154.5
 5.700  0.5885   75.6   0.966   -8.7  0.5133   24.5  0.2839 -159.0
 5.800  0.5950   74.5   0.950  -10.0  0.5204   23.0  0.2833 -163.6
 5.900  0.6017   73.4   0.934  -11.4  0.5278   21.5  0.2845 -168.1
 6.000  0.6087   72.3   0.918  -12.8  0.5356   20.1  0.2875 -172.6
!
!  f       NFmin   Gammaopt  rn/50
! GHz       dB    MAG  ANG    -
!
! noise parameter not available yet for this operation point!
!
! (c) 2015  Infineon Technologies AG, Munich
