! Infineon Technologies  Discrete & RF Semiconductors
! BFR181W
! VCE =  8.0 V,  IC =  1.0 mA
! Common Emitter S-Parameters:                            Nov 2015
# GHz  S  MA  R  50
!  f         S11            S21            S12            S22
! GHz     MAG   ANG      MAG   ANG      MAG   ANG      MAG   ANG
 0.100  0.9719   -7.5   3.329  173.4  0.0172   85.3  0.9934   -3.6
 0.105  0.9715   -7.9   3.328  173.1  0.0181   84.9  0.9931   -3.8
 0.110  0.9711   -8.2   3.327  172.7  0.0190   84.6  0.9928   -3.9
 0.115  0.9707   -8.6   3.326  172.4  0.0198   84.3  0.9924   -4.1
 0.120  0.9704   -9.0   3.325  172.0  0.0207   84.0  0.9921   -4.3
 0.125  0.9701   -9.3   3.324  171.7  0.0216   83.8  0.9918   -4.4
 0.130  0.9699   -9.7   3.323  171.3  0.0225   83.6  0.9916   -4.6
 0.135  0.9697  -10.1   3.323  171.0  0.0234   83.4  0.9913   -4.8
 0.140  0.9695  -10.5   3.322  170.6  0.0242   83.2  0.9910   -5.0
 0.145  0.9694  -10.8   3.322  170.3  0.0251   83.0  0.9908   -5.1
 0.150  0.9693  -11.2   3.322  169.9  0.0260   82.8  0.9905   -5.3
 0.155  0.9680  -11.5   3.320  169.6  0.0268   82.6  0.9900   -5.5
 0.160  0.9667  -11.9   3.318  169.3  0.0276   82.3  0.9895   -5.7
 0.165  0.9654  -12.2   3.317  168.9  0.0285   82.1  0.9890   -5.8
 0.170  0.9642  -12.6   3.315  168.6  0.0293   81.9  0.9885   -6.0
 0.175  0.9630  -12.9   3.314  168.3  0.0301   81.7  0.9881   -6.2
 0.180  0.9618  -13.3   3.312  168.0  0.0309   81.5  0.9876   -6.4
 0.185  0.9607  -13.6   3.311  167.7  0.0317   81.4  0.9872   -6.6
 0.190  0.9597  -14.0   3.310  167.3  0.0326   81.2  0.9867   -6.7
 0.195  0.9586  -14.3   3.309  167.0  0.0334   81.0  0.9863   -6.9
 0.200  0.9576  -14.7   3.308  166.7  0.0342   80.9  0.9859   -7.1
 0.220  0.9540  -16.1   3.299  165.3  0.0376   79.7  0.9834   -7.8
 0.240  0.9510  -17.6   3.293  164.0  0.0410   78.7  0.9810   -8.5
 0.260  0.9477  -19.0   3.283  162.7  0.0442   77.8  0.9785   -9.1
 0.280  0.9443  -20.5   3.269  161.4  0.0473   77.0  0.9759   -9.8
 0.300  0.9414  -21.9   3.257  160.2  0.0503   76.3  0.9734  -10.4
 0.320  0.9351  -23.3   3.244  158.8  0.0533   75.2  0.9698  -11.1
 0.340  0.9294  -24.7   3.233  157.5  0.0562   74.3  0.9663  -11.7
 0.360  0.9243  -26.1   3.224  156.1  0.0592   73.4  0.9629  -12.4
 0.380  0.9197  -27.6   3.217  154.7  0.0622   72.6  0.9597  -13.0
 0.400  0.9157  -29.0   3.212  153.3  0.0652   71.9  0.9566  -13.7
 0.420  0.9088  -30.3   3.193  152.1  0.0680   70.9  0.9525  -14.3
 0.440  0.9023  -31.7   3.176  150.9  0.0708   70.0  0.9485  -14.9
 0.450  0.8993  -32.3   3.168  150.3  0.0722   69.6  0.9465  -15.2
 0.460  0.8964  -33.0   3.160  149.7  0.0736   69.2  0.9446  -15.5
 0.480  0.8910  -34.4   3.145  148.4  0.0764   68.4  0.9408  -16.1
 0.500  0.8861  -35.8   3.132  147.2  0.0792   67.7  0.9371  -16.7
 0.520  0.8785  -37.1   3.113  146.0  0.0817   66.9  0.9326  -17.2
 0.540  0.8714  -38.4   3.096  144.8  0.0843   66.1  0.9282  -17.8
 0.560  0.8647  -39.8   3.080  143.6  0.0868   65.4  0.9239  -18.4
 0.580  0.8586  -41.1   3.065  142.3  0.0894   64.7  0.9197  -18.9
 0.600  0.8529  -42.5   3.052  141.1  0.0920   64.1  0.9156  -19.5
 0.620  0.8451  -43.8   3.030  140.0  0.0942   63.4  0.9109  -20.0
 0.640  0.8377  -45.0   3.009  138.8  0.0963   62.6  0.9062  -20.5
 0.660  0.8308  -46.3   2.989  137.6  0.0985   62.0  0.9016  -21.0
 0.680  0.8243  -47.7   2.970  136.4  0.1007   61.3  0.8971  -21.6
 0.700  0.8182  -49.0   2.953  135.2  0.1029   60.7  0.8927  -22.1
 0.720  0.8113  -50.2   2.932  134.1  0.1048   60.1  0.8880  -22.6
 0.740  0.8048  -51.5   2.912  133.0  0.1067   59.4  0.8834  -23.0
 0.760  0.7986  -52.7   2.893  131.9  0.1087   58.8  0.8788  -23.5
 0.780  0.7929  -54.0   2.876  130.8  0.1106   58.3  0.8743  -23.9
 0.800  0.7875  -55.3   2.859  129.7  0.1126   57.7  0.8698  -24.4
 0.820  0.7791  -56.4   2.834  128.7  0.1143   57.1  0.8652  -24.8
 0.840  0.7710  -57.6   2.809  127.7  0.1160   56.4  0.8607  -25.2
 0.860  0.7632  -58.8   2.785  126.6  0.1177   55.8  0.8563  -25.6
 0.880  0.7558  -60.0   2.763  125.6  0.1194   55.3  0.8519  -26.1
 0.900  0.7487  -61.2   2.741  124.5  0.1211   54.7  0.8475  -26.5
 0.920  0.7421  -62.4   2.722  123.6  0.1225   54.2  0.8430  -26.9
 0.940  0.7357  -63.5   2.703  122.7  0.1239   53.6  0.8385  -27.3
 0.960  0.7297  -64.7   2.685  121.7  0.1253   53.1  0.8341  -27.7
 0.980  0.7240  -66.0   2.668  120.8  0.1268   52.6  0.8297  -28.1
 1.000  0.7187  -67.2   2.652  119.8  0.1282   52.1  0.8254  -28.5
 1.020  0.7110  -68.2   2.628  118.9  0.1293   51.6  0.8212  -28.8
 1.040  0.7035  -69.2   2.604  118.1  0.1305   51.2  0.8170  -29.2
 1.060  0.6963  -70.2   2.581  117.2  0.1316   50.7  0.8128  -29.5
 1.080  0.6892  -71.2   2.559  116.3  0.1327   50.3  0.8087  -29.8
 1.100  0.6824  -72.2   2.537  115.4  0.1339   49.9  0.8046  -30.2
 1.120  0.6758  -73.3   2.516  114.5  0.1351   49.4  0.8005  -30.5
 1.140  0.6694  -74.4   2.496  113.5  0.1362   49.0  0.7965  -30.8
 1.160  0.6633  -75.5   2.476  112.6  0.1374   48.6  0.7924  -31.2
 1.180  0.6575  -76.6   2.457  111.6  0.1386   48.2  0.7885  -31.5
 1.200  0.6519  -77.8   2.439  110.6  0.1398   47.8  0.7845  -31.9
 1.220  0.6452  -78.8   2.419  109.8  0.1405   47.5  0.7808  -32.2
 1.240  0.6386  -79.7   2.400  109.1  0.1412   47.1  0.7771  -32.4
 1.260  0.6323  -80.7   2.380  108.3  0.1419   46.8  0.7734  -32.7
 1.280  0.6261  -81.8   2.362  107.5  0.1427   46.4  0.7698  -33.0
 1.300  0.6202  -82.8   2.344  106.7  0.1434   46.1  0.7662  -33.3
 1.320  0.6145  -83.9   2.326  105.9  0.1441   45.8  0.7626  -33.5
 1.340  0.6089  -84.9   2.309  105.1  0.1449   45.5  0.7590  -33.8
 1.360  0.6036  -86.0   2.292  104.2  0.1456   45.1  0.7554  -34.1
 1.380  0.5985  -87.2   2.276  103.4  0.1463   44.8  0.7518  -34.4
 1.400  0.5937  -88.3   2.260  102.5  0.1471   44.5  0.7483  -34.7
 1.420  0.5882  -89.3   2.244  101.8  0.1476   44.2  0.7450  -35.0
 1.440  0.5828  -90.2   2.228  101.1  0.1481   44.0  0.7417  -35.2
 1.460  0.5776  -91.2   2.212  100.3  0.1487   43.7  0.7385  -35.5
 1.480  0.5725  -92.3   2.197   99.6  0.1492   43.5  0.7352  -35.7
 1.500  0.5677  -93.3   2.182   98.8  0.1497   43.2  0.7320  -36.0
 1.520  0.5620  -94.3   2.166   98.1  0.1503   43.0  0.7295  -36.2
 1.540  0.5564  -95.3   2.151   97.4  0.1509   42.8  0.7270  -36.4
 1.560  0.5510  -96.3   2.135   96.6  0.1514   42.7  0.7245  -36.6
 1.580  0.5457  -97.3   2.120   95.9  0.1520   42.5  0.7221  -36.8
 1.600  0.5407  -98.4   2.106   95.1  0.1526   42.3  0.7196  -37.0
 1.620  0.5364  -99.3   2.091   94.5  0.1530   42.2  0.7170  -37.2
 1.640  0.5323 -100.2   2.076   93.9  0.1533   42.0  0.7144  -37.4
 1.660  0.5283 -101.1   2.061   93.2  0.1537   41.9  0.7118  -37.6
 1.680  0.5244 -102.0   2.047   92.6  0.1540   41.7  0.7093  -37.9
 1.700  0.5207 -103.0   2.033   92.0  0.1544   41.6  0.7067  -38.1
 1.720  0.5171 -103.9   2.019   91.3  0.1547   41.5  0.7042  -38.3
 1.740  0.5137 -104.9   2.005   90.6  0.1551   41.3  0.7016  -38.5
 1.760  0.5104 -105.9   1.992   90.0  0.1555   41.2  0.6991  -38.7
 1.780  0.5073 -106.9   1.979   89.3  0.1558   41.0  0.6966  -39.0
 1.800  0.5043 -107.9   1.966   88.6  0.1562   40.9  0.6941  -39.2
 1.820  0.5000 -108.7   1.952   88.0  0.1564   40.8  0.6922  -39.4
 1.840  0.4959 -109.6   1.939   87.4  0.1566   40.8  0.6904  -39.6
 1.860  0.4918 -110.5   1.925   86.9  0.1568   40.7  0.6885  -39.8
 1.880  0.4879 -111.3   1.912   86.3  0.1570   40.6  0.6866  -40.0
 1.900  0.4841 -112.2   1.899   85.7  0.1572   40.5  0.6848  -40.2
 1.920  0.4804 -113.1   1.886   85.0  0.1574   40.5  0.6830  -40.4
 1.940  0.4768 -114.1   1.873   84.4  0.1576   40.4  0.6811  -40.6
 1.960  0.4733 -115.0   1.861   83.8  0.1578   40.3  0.6793  -40.8
 1.980  0.4700 -115.9   1.849   83.1  0.1580   40.3  0.6775  -41.0
 2.000  0.4668 -116.9   1.837   82.5  0.1582   40.2  0.6757  -41.2
 2.020  0.4632 -117.8   1.825   82.0  0.1584   40.2  0.6743  -41.4
 2.040  0.4596 -118.6   1.813   81.5  0.1587   40.2  0.6730  -41.6
 2.060  0.4562 -119.5   1.801   80.9  0.1589   40.2  0.6717  -41.8
 2.080  0.4529 -120.4   1.789   80.4  0.1591   40.2  0.6703  -42.0
 2.100  0.4497 -121.3   1.778   79.8  0.1593   40.2  0.6690  -42.1
 2.120  0.4466 -122.3   1.767   79.3  0.1596   40.2  0.6677  -42.3
 2.140  0.4437 -123.2   1.755   78.7  0.1598   40.2  0.6664  -42.5
 2.160  0.4408 -124.2   1.744   78.2  0.1600   40.2  0.6651  -42.7
 2.180  0.4381 -125.1   1.734   77.6  0.1603   40.2  0.6638  -42.9
 2.200  0.4355 -126.1   1.723   77.0  0.1605   40.2  0.6625  -43.1
 2.220  0.4333 -126.9   1.714   76.5  0.1606   40.3  0.6614  -43.3
 2.240  0.4311 -127.7   1.704   76.1  0.1608   40.3  0.6604  -43.5
 2.260  0.4290 -128.5   1.695   75.6  0.1609   40.4  0.6594  -43.7
 2.280  0.4270 -129.3   1.686   75.1  0.1611   40.4  0.6583  -43.9
 2.300  0.4251 -130.1   1.677   74.6  0.1612   40.5  0.6573  -44.1
 2.320  0.4233 -130.9   1.669   74.1  0.1614   40.6  0.6563  -44.3
 2.340  0.4216 -131.8   1.660   73.6  0.1615   40.6  0.6553  -44.5
 2.360  0.4199 -132.6   1.652   73.1  0.1617   40.7  0.6543  -44.7
 2.380  0.4184 -133.4   1.643   72.6  0.1618   40.7  0.6533  -44.9
 2.400  0.4169 -134.3   1.635   72.1  0.1620   40.8  0.6523  -45.1
 2.420  0.4135 -135.2   1.625   71.5  0.1623   40.9  0.6514  -45.2
 2.440  0.4102 -136.1   1.615   71.0  0.1626   40.9  0.6506  -45.4
 2.460  0.4070 -137.0   1.606   70.4  0.1630   41.0  0.6497  -45.5
 2.480  0.4039 -137.9   1.596   69.8  0.1633   41.0  0.6489  -45.7
 2.500  0.4009 -138.8   1.587   69.2  0.1636   41.1  0.6480  -45.8
 2.520  0.3989 -139.6   1.579   68.8  0.1639   41.3  0.6474  -46.0
 2.540  0.3971 -140.3   1.570   68.4  0.1641   41.4  0.6467  -46.2
 2.560  0.3952 -141.1   1.562   68.0  0.1644   41.6  0.6461  -46.4
 2.580  0.3935 -141.9   1.554   67.6  0.1647   41.7  0.6455  -46.6
 2.600  0.3919 -142.7   1.546   67.2  0.1650   41.9  0.6449  -46.9
 2.620  0.3903 -143.5   1.538   66.8  0.1652   42.0  0.6443  -47.1
 2.640  0.3888 -144.3   1.530   66.4  0.1655   42.2  0.6437  -47.3
 2.660  0.3873 -145.2   1.523   66.0  0.1658   42.4  0.6431  -47.5
 2.680  0.3860 -146.0   1.515   65.5  0.1661   42.5  0.6425  -47.7
 2.700  0.3847 -146.8   1.507   65.1  0.1664   42.7  0.6420  -47.9
 2.720  0.3835 -147.6   1.500   64.7  0.1666   42.8  0.6414  -48.1
 2.740  0.3824 -148.5   1.492   64.3  0.1669   43.0  0.6409  -48.4
 2.760  0.3814 -149.3   1.485   63.8  0.1672   43.1  0.6403  -48.6
 2.780  0.3805 -150.2   1.478   63.4  0.1675   43.3  0.6398  -48.8
 2.800  0.3796 -151.0   1.471   62.9  0.1678   43.4  0.6393  -49.0
 2.820  0.3789 -151.9   1.463   62.5  0.1681   43.6  0.6388  -49.2
 2.840  0.3782 -152.7   1.456   62.0  0.1683   43.7  0.6383  -49.4
 2.860  0.3776 -153.6   1.450   61.6  0.1686   43.9  0.6378  -49.7
 2.880  0.3771 -154.5   1.443   61.1  0.1689   44.0  0.6373  -49.9
 2.900  0.3766 -155.3   1.436   60.6  0.1692   44.2  0.6368  -50.1
 2.920  0.3763 -156.2   1.429   60.1  0.1695   44.3  0.6364  -50.3
 2.940  0.3760 -157.1   1.423   59.7  0.1698   44.5  0.6359  -50.5
 2.960  0.3759 -158.0   1.417   59.2  0.1701   44.6  0.6355  -50.8
 2.980  0.3758 -158.8   1.410   58.7  0.1704   44.8  0.6350  -51.0
 3.000  0.3758 -159.7   1.404   58.2  0.1707   44.9  0.6346  -51.2
 3.100  0.3690 -163.3   1.374   56.4  0.1738   45.9  0.6326  -52.4
 3.200  0.3636 -166.9   1.346   54.6  0.1769   46.9  0.6310  -53.7
 3.300  0.3598 -170.7   1.318   52.7  0.1801   47.9  0.6296  -54.9
 3.400  0.3575 -174.5   1.293   50.7  0.1833   48.8  0.6285  -56.2
 3.500  0.3569 -178.4   1.269   48.6  0.1866   49.7  0.6277  -57.4
 3.600  0.3558  177.8   1.245   46.9  0.1909   50.6  0.6258  -58.7
 3.700  0.3563  174.0   1.222   45.2  0.1953   51.4  0.6242  -59.9
 3.800  0.3583  170.2   1.201   43.5  0.1997   52.2  0.6229  -61.2
 3.900  0.3619  166.4   1.180   41.6  0.2041   53.0  0.6220  -62.5
 4.000  0.3670  162.8   1.161   39.7  0.2086   53.7  0.6213  -63.8
 4.100  0.3663  159.7   1.140   38.4  0.2145   54.3  0.6191  -65.3
 4.200  0.3666  156.6   1.121   37.0  0.2204   54.9  0.6173  -66.9
 4.300  0.3681  153.5   1.101   35.6  0.2264   55.5  0.6159  -68.4
 4.400  0.3706  150.4   1.083   34.1  0.2323   56.0  0.6150  -69.9
 4.500  0.3741  147.4   1.065   32.6  0.2383   56.5  0.6146  -71.5
 4.600  0.3789  144.7   1.050   31.4  0.2458   56.9  0.6125  -72.9
 4.700  0.3845  142.2   1.035   30.1  0.2534   57.2  0.6108  -74.4
 4.800  0.3909  139.7   1.021   28.7  0.2610   57.6  0.6095  -75.8
 4.900  0.3979  137.2   1.007   27.4  0.2685   57.9  0.6085  -77.2
 5.000  0.4057  134.9   0.994   26.0  0.2761   58.2  0.6080  -78.7
 5.100  0.4075  132.4   0.980   24.9  0.2855   58.2  0.6069  -80.2
 5.200  0.4101  129.9   0.966   23.8  0.2949   58.2  0.6063  -81.8
 5.300  0.4135  127.4   0.952   22.6  0.3044   58.3  0.6061  -83.3
 5.400  0.4176  125.0   0.939   21.4  0.3138   58.3  0.6064  -84.9
 5.500  0.4225  122.6   0.926   20.2  0.3232   58.3  0.6071  -86.4
 5.600  0.4244  120.4   0.912   19.4  0.3341   57.9  0.6074  -88.0
 5.700  0.4268  118.3   0.899   18.5  0.3450   57.5  0.6081  -89.5
 5.800  0.4299  116.1   0.886   17.6  0.3560   57.2  0.6093  -91.1
 5.900  0.4335  114.1   0.873   16.7  0.3669   56.8  0.6110  -92.7
 6.000  0.4377  112.0   0.860   15.7  0.3779   56.5  0.6131  -94.2
!
!  f       NFmin   Gammaopt  rn/50
! GHz       dB    MAG  ANG    -
 0.450      1.30  0.70   18   0.50
 0.900      1.40  0.60   39   0.52
 1.800      1.85  0.40   81   0.47
!
! (c) 2015  Infineon Technologies AG, Munich
