! Infineon Technologies  Discrete & RF Semiconductors
! BFR106
! VCE =  1.5 V,  IC =  20 mA
! Common Emitter S-Parameters:                            Nov 2015
# GHz  S  MA  R  50
!  f         S11            S21            S12            S22
! GHz     MAG   ANG      MAG   ANG      MAG   ANG      MAG   ANG
 0.010  0.5183  -27.4  44.823  166.1  0.0072   81.3  0.9484  -14.4
 0.015  0.5065  -39.6  42.992  160.6  0.0104   75.1  0.9121  -20.8
 0.020  0.5182  -51.9  41.596  154.6  0.0137   71.8  0.8882  -27.7
 0.025  0.4956  -59.9  39.242  151.5  0.0156   67.1  0.8371  -31.3
 0.030  0.4834  -68.4  37.017  148.0  0.0176   63.3  0.7896  -35.3
 0.035  0.4823  -77.2  34.946  144.1  0.0196   60.4  0.7465  -39.8
 0.040  0.4924  -85.8  33.056  139.7  0.0217   58.0  0.7085  -44.8
 0.045  0.5131  -93.9  31.382  134.9  0.0238   56.0  0.6765  -50.3
 0.050  0.5431 -101.2  29.959  129.5  0.0259   54.4  0.6514  -56.3
 0.055  0.5357 -104.8  28.717  128.3  0.0268   53.7  0.6239  -58.0
 0.060  0.5306 -108.5  27.488  127.0  0.0277   53.1  0.5969  -59.8
 0.065  0.5277 -112.3  26.275  125.6  0.0287   52.5  0.5706  -61.7
 0.070  0.5271 -116.1  25.080  124.0  0.0296   52.0  0.5451  -63.9
 0.075  0.5288 -119.9  23.906  122.3  0.0305   51.5  0.5204  -66.3
 0.080  0.5328 -123.7  22.755  120.4  0.0315   51.0  0.4967  -68.9
 0.085  0.5391 -127.3  21.632  118.3  0.0324   50.5  0.4741  -71.8
 0.090  0.5475 -130.9  20.541  115.9  0.0333   50.1  0.4529  -74.9
 0.095  0.5580 -134.4  19.488  113.4  0.0343   49.7  0.4331  -78.3
 0.100  0.5705 -137.7  18.479  110.5  0.0352   49.3  0.4150  -82.1
 0.105  0.5687 -139.3  17.904  109.8  0.0358   49.4  0.4035  -83.3
 0.110  0.5673 -140.9  17.331  109.1  0.0364   49.4  0.3922  -84.5
 0.115  0.5663 -142.5  16.761  108.3  0.0371   49.5  0.3810  -85.8
 0.120  0.5658 -144.1  16.195  107.5  0.0377   49.5  0.3701  -87.2
 0.125  0.5658 -145.7  15.632  106.6  0.0383   49.6  0.3594  -88.7
 0.130  0.5661 -147.3  15.073  105.6  0.0389   49.6  0.3490  -90.3
 0.135  0.5669 -148.9  14.519  104.6  0.0395   49.7  0.3388  -92.0
 0.140  0.5682 -150.4  13.970  103.5  0.0402   49.7  0.3290  -93.7
 0.145  0.5699 -152.0  13.426  102.3  0.0408   49.8  0.3195  -95.6
 0.150  0.5720 -153.6  12.889  101.0  0.0414   49.8  0.3103  -97.6
 0.155  0.5725 -154.5  12.587  100.6  0.0420   50.2  0.3041  -98.4
 0.160  0.5732 -155.4  12.287  100.1  0.0426   50.6  0.2980  -99.2
 0.165  0.5740 -156.2  11.987   99.6  0.0432   51.0  0.2920 -100.0
 0.170  0.5749 -157.1  11.688   99.1  0.0438   51.4  0.2860 -100.9
 0.175  0.5759 -158.0  11.390   98.6  0.0444   51.7  0.2801 -101.9
 0.180  0.5771 -158.9  11.093   98.0  0.0450   52.1  0.2743 -102.8
 0.185  0.5784 -159.7  10.797   97.4  0.0457   52.4  0.2686 -103.8
 0.190  0.5799 -160.6  10.502   96.8  0.0463   52.8  0.2629 -104.9
 0.195  0.5815 -161.4  10.209   96.1  0.0469   53.1  0.2574 -106.0
 0.200  0.5832 -162.3   9.917   95.4  0.0475   53.4  0.2519 -107.1
 0.220  0.5821 -164.8   9.131   93.9  0.0500   54.3  0.2375 -110.6
 0.240  0.5821 -167.3   8.353   92.1  0.0525   55.1  0.2240 -114.5
 0.260  0.5826 -169.4   7.710   90.6  0.0551   56.1  0.2141 -117.8
 0.280  0.5831 -171.1   7.198   89.4  0.0578   57.1  0.2071 -120.4
 0.300  0.5841 -172.8   6.690   88.0  0.0606   58.1  0.2006 -123.1
 0.320  0.5840 -174.2   6.365   87.2  0.0634   58.8  0.1954 -125.0
 0.340  0.5842 -175.6   6.042   86.3  0.0663   59.4  0.1905 -127.0
 0.360  0.5847 -177.0   5.721   85.2  0.0692   59.9  0.1858 -129.1
 0.380  0.5856 -178.4   5.402   84.1  0.0720   60.4  0.1813 -131.4
 0.400  0.5869 -179.8   5.085   82.8  0.0749   60.9  0.1772 -133.7
 0.420  0.5876  179.2   4.883   82.0  0.0779   61.2  0.1746 -135.2
 0.440  0.5885  178.2   4.682   81.1  0.0809   61.6  0.1720 -136.7
 0.450  0.5890  177.7   4.583   80.7  0.0824   61.7  0.1708 -137.4
 0.460  0.5896  177.2   4.483   80.2  0.0839   61.9  0.1696 -138.2
 0.480  0.5909  176.2   4.285   79.1  0.0869   62.1  0.1673 -139.8
 0.500  0.5923  175.2   4.088   78.0  0.0899   62.4  0.1652 -141.4
 0.520  0.5924  174.3   3.956   77.3  0.0929   62.6  0.1645 -142.4
 0.540  0.5927  173.3   3.825   76.5  0.0959   62.8  0.1638 -143.4
 0.560  0.5931  172.4   3.694   75.6  0.0990   63.0  0.1632 -144.4
 0.580  0.5937  171.4   3.565   74.7  0.1020   63.1  0.1626 -145.5
 0.600  0.5945  170.5   3.436   73.7  0.1050   63.3  0.1621 -146.5
 0.620  0.5945  169.7   3.343   73.0  0.1080   63.3  0.1621 -147.4
 0.640  0.5946  168.8   3.250   72.2  0.1109   63.3  0.1622 -148.3
 0.660  0.5948  168.0   3.158   71.3  0.1139   63.2  0.1623 -149.3
 0.680  0.5952  167.1   3.067   70.4  0.1168   63.2  0.1625 -150.2
 0.700  0.5957  166.3   2.976   69.5  0.1198   63.2  0.1627 -151.1
 0.720  0.5963  165.6   2.904   68.9  0.1229   63.1  0.1627 -152.0
 0.740  0.5970  164.9   2.832   68.2  0.1261   63.0  0.1628 -152.9
 0.760  0.5978  164.3   2.761   67.5  0.1292   62.9  0.1629 -153.9
 0.780  0.5987  163.6   2.690   66.7  0.1324   62.8  0.1630 -154.8
 0.800  0.5997  162.9   2.620   65.9  0.1355   62.7  0.1632 -155.7
 0.820  0.5983  162.2   2.565   65.2  0.1386   62.6  0.1631 -156.3
 0.840  0.5970  161.4   2.511   64.6  0.1417   62.5  0.1629 -157.0
 0.860  0.5958  160.7   2.457   63.8  0.1447   62.4  0.1628 -157.6
 0.880  0.5947  159.9   2.403   63.1  0.1478   62.3  0.1628 -158.3
 0.900  0.5937  159.2   2.350   62.3  0.1509   62.2  0.1627 -158.9
 0.920  0.5952  158.5   2.307   61.7  0.1540   62.0  0.1637 -159.4
 0.940  0.5968  157.7   2.265   61.0  0.1571   61.9  0.1647 -159.8
 0.960  0.5985  157.0   2.222   60.3  0.1602   61.7  0.1657 -160.3
 0.980  0.6003  156.3   2.181   59.6  0.1633   61.5  0.1668 -160.8
 1.000  0.6022  155.6   2.139   58.9  0.1664   61.4  0.1678 -161.2
 1.020  0.6030  154.9   2.104   58.2  0.1694   61.2  0.1690 -161.8
 1.040  0.6038  154.2   2.068   57.6  0.1723   61.0  0.1703 -162.3
 1.060  0.6047  153.5   2.034   56.9  0.1753   60.8  0.1716 -162.9
 1.080  0.6058  152.8   1.999   56.1  0.1782   60.6  0.1729 -163.5
 1.100  0.6069  152.1   1.965   55.4  0.1812   60.4  0.1742 -164.0
 1.120  0.6081  151.4   1.936   54.8  0.1842   60.1  0.1750 -164.6
 1.140  0.6095  150.7   1.907   54.2  0.1871   59.9  0.1757 -165.3
 1.160  0.6109  150.1   1.878   53.5  0.1901   59.7  0.1765 -165.9
 1.180  0.6124  149.4   1.849   52.9  0.1930   59.4  0.1774 -166.5
 1.200  0.6140  148.7   1.821   52.2  0.1960   59.2  0.1782 -167.1
 1.220  0.6128  148.1   1.796   51.6  0.1990   58.9  0.1790 -167.6
 1.240  0.6117  147.5   1.771   51.0  0.2020   58.6  0.1798 -168.2
 1.260  0.6106  146.9   1.747   50.3  0.2050   58.3  0.1807 -168.7
 1.280  0.6096  146.3   1.722   49.7  0.2080   58.0  0.1815 -169.2
 1.300  0.6087  145.7   1.698   49.0  0.2110   57.7  0.1824 -169.7
 1.320  0.6108  145.2   1.677   48.5  0.2140   57.5  0.1838 -170.1
 1.340  0.6130  144.6   1.656   48.0  0.2169   57.2  0.1853 -170.5
 1.360  0.6153  144.1   1.635   47.5  0.2199   57.0  0.1867 -170.9
 1.380  0.6176  143.6   1.614   46.9  0.2228   56.8  0.1881 -171.3
 1.400  0.6199  143.1   1.593   46.4  0.2258   56.6  0.1896 -171.7
 1.420  0.6198  142.5   1.578   45.8  0.2286   56.3  0.1910 -172.2
 1.440  0.6197  141.9   1.564   45.2  0.2314   56.1  0.1924 -172.6
 1.460  0.6196  141.4   1.549   44.5  0.2342   55.8  0.1938 -173.0
 1.480  0.6197  140.8   1.535   43.9  0.2370   55.5  0.1953 -173.5
 1.500  0.6198  140.2   1.521   43.2  0.2398   55.3  0.1967 -173.9
 1.520  0.6211  139.6   1.502   42.6  0.2427   55.0  0.1981 -174.5
 1.540  0.6224  139.0   1.483   42.0  0.2456   54.7  0.1996 -175.0
 1.560  0.6239  138.4   1.464   41.4  0.2485   54.4  0.2010 -175.6
 1.580  0.6253  137.8   1.445   40.8  0.2515   54.1  0.2025 -176.2
 1.600  0.6269  137.2   1.426   40.2  0.2544   53.8  0.2040 -176.7
 1.620  0.6278  136.6   1.413   39.6  0.2571   53.5  0.2053 -177.3
 1.640  0.6287  136.1   1.400   39.1  0.2598   53.2  0.2067 -177.8
 1.660  0.6297  135.5   1.387   38.5  0.2625   52.9  0.2080 -178.4
 1.680  0.6307  135.0   1.374   37.9  0.2652   52.7  0.2094 -179.0
 1.700  0.6318  134.4   1.361   37.3  0.2679   52.4  0.2108 -179.5
 1.720  0.6335  133.9   1.351   36.8  0.2707   52.0  0.2121 -179.9
 1.740  0.6354  133.3   1.340   36.4  0.2734   51.7  0.2135  179.7
 1.760  0.6372  132.8   1.330   35.9  0.2762   51.4  0.2148  179.3
 1.780  0.6391  132.2   1.320   35.4  0.2790   51.0  0.2162  178.9
 1.800  0.6411  131.7   1.310   34.9  0.2818   50.7  0.2176  178.5
 1.820  0.6410  131.1   1.298   34.4  0.2845   50.4  0.2198  178.1
 1.840  0.6410  130.6   1.287   33.9  0.2871   50.1  0.2220  177.6
 1.860  0.6410  130.0   1.275   33.4  0.2898   49.8  0.2243  177.2
 1.880  0.6411  129.5   1.264   32.8  0.2925   49.5  0.2265  176.8
 1.900  0.6413  128.9   1.253   32.3  0.2952   49.2  0.2288  176.4
 1.920  0.6423  128.5   1.242   31.8  0.2979   48.9  0.2309  175.8
 1.940  0.6433  128.0   1.231   31.3  0.3005   48.6  0.2330  175.2
 1.960  0.6444  127.6   1.221   30.8  0.3032   48.3  0.2351  174.6
 1.980  0.6455  127.1   1.210   30.2  0.3059   48.0  0.2373  174.1
 2.000  0.6467  126.7   1.200   29.7  0.3086   47.7  0.2395  173.5
 2.020  0.6475  126.2   1.191   29.2  0.3112   47.4  0.2411  173.0
 2.040  0.6484  125.7   1.182   28.8  0.3137   47.0  0.2427  172.5
 2.060  0.6493  125.2   1.173   28.3  0.3163   46.7  0.2444  172.0
 2.080  0.6502  124.7   1.164   27.8  0.3189   46.4  0.2461  171.5
 2.100  0.6512  124.2   1.155   27.3  0.3215   46.1  0.2477  171.0
 2.120  0.6523  123.7   1.147   26.8  0.3241   45.8  0.2494  170.5
 2.140  0.6534  123.2   1.138   26.3  0.3267   45.5  0.2511  170.1
 2.160  0.6545  122.7   1.130   25.8  0.3293   45.2  0.2529  169.6
 2.180  0.6557  122.2   1.121   25.3  0.3320   44.9  0.2546  169.2
 2.200  0.6570  121.7   1.113   24.8  0.3346   44.6  0.2564  168.7
 2.220  0.6577  121.2   1.106   24.4  0.3370   44.2  0.2589  168.1
 2.240  0.6585  120.6   1.100   23.9  0.3395   43.9  0.2614  167.5
 2.260  0.6593  120.1   1.094   23.4  0.3419   43.5  0.2639  166.9
 2.280  0.6602  119.6   1.087   23.0  0.3444   43.2  0.2665  166.4
 2.300  0.6611  119.1   1.081   22.5  0.3468   42.8  0.2691  165.8
 2.320  0.6621  118.6   1.075   22.0  0.3493   42.5  0.2717  165.3
 2.340  0.6631  118.0   1.069   21.6  0.3518   42.2  0.2743  164.7
 2.360  0.6642  117.5   1.063   21.1  0.3543   41.8  0.2770  164.2
 2.380  0.6654  117.0   1.057   20.6  0.3569   41.5  0.2797  163.7
 2.400  0.6666  116.5   1.051   20.1  0.3594   41.2  0.2824  163.2
 2.420  0.6680  116.0   1.044   19.7  0.3615   40.9  0.2842  162.7
 2.440  0.6694  115.5   1.037   19.3  0.3636   40.5  0.2860  162.2
 2.460  0.6709  115.0   1.030   18.9  0.3658   40.2  0.2878  161.8
 2.480  0.6725  114.5   1.023   18.5  0.3679   39.9  0.2896  161.3
 2.500  0.6741  114.0   1.016   18.1  0.3701   39.6  0.2915  160.8
 2.520  0.6757  113.5   1.009   17.6  0.3722   39.2  0.2933  160.4
 2.540  0.6774  113.0   1.002   17.2  0.3744   38.9  0.2952  159.9
 2.560  0.6792  112.6   0.995   16.8  0.3766   38.6  0.2971  159.5
 2.580  0.6810  112.1   0.989   16.3  0.3788   38.3  0.2991  159.0
 2.600  0.6828  111.6   0.982   15.9  0.3810   38.0  0.3010  158.6
 2.620  0.6833  111.2   0.977   15.6  0.3830   37.7  0.3037  158.0
 2.640  0.6839  110.7   0.972   15.2  0.3850   37.3  0.3064  157.5
 2.660  0.6845  110.3   0.967   14.9  0.3871   37.0  0.3092  156.9
 2.680  0.6852  109.8   0.962   14.5  0.3891   36.6  0.3120  156.4
 2.700  0.6859  109.4   0.957   14.1  0.3912   36.3  0.3148  155.9
 2.720  0.6866  108.9   0.952   13.8  0.3933   36.0  0.3176  155.4
 2.740  0.6874  108.5   0.947   13.4  0.3954   35.7  0.3205  154.9
 2.760  0.6882  108.1   0.942   13.0  0.3975   35.3  0.3234  154.4
 2.780  0.6891  107.6   0.938   12.7  0.3996   35.0  0.3263  153.9
 2.800  0.6900  107.2   0.933   12.3  0.4017   34.7  0.3292  153.4
 2.820  0.6916  106.8   0.928   11.9  0.4036   34.4  0.3313  152.9
 2.840  0.6932  106.4   0.923   11.5  0.4056   34.0  0.3335  152.5
 2.860  0.6948  105.9   0.918   11.1  0.4075   33.7  0.3356  152.0
 2.880  0.6964  105.5   0.912   10.8  0.4095   33.4  0.3378  151.5
 2.900  0.6982  105.1   0.907   10.4  0.4115   33.1  0.3400  151.1
 2.920  0.6999  104.7   0.902   10.0  0.4135   32.7  0.3423  150.6
 2.940  0.7017  104.3   0.898    9.5  0.4155   32.4  0.3445  150.2
 2.960  0.7035  103.9   0.893    9.1  0.4175   32.1  0.3468  149.8
 2.980  0.7053  103.5   0.888    8.7  0.4196   31.8  0.3491  149.3
 3.000  0.7072  103.1   0.883    8.3  0.4216   31.5  0.3514  148.9
 3.100  0.7107  101.3   0.862    6.9  0.4293   29.8  0.3640  146.4
 3.200  0.7149   99.4   0.842    5.5  0.4374   28.2  0.3772  144.0
 3.300  0.7198   97.6   0.822    4.0  0.4458   26.6  0.3911  141.8
 3.400  0.7254   95.8   0.803    2.4  0.4546   25.1  0.4055  139.8
 3.500  0.7317   94.1   0.784    0.8  0.4636   23.7  0.4203  137.9
 3.600  0.7353   92.5   0.769   -0.3  0.4687   22.1  0.4325  135.5
 3.700  0.7396   90.9   0.754   -1.4  0.4741   20.5  0.4454  133.3
 3.800  0.7443   89.4   0.740   -2.6  0.4799   19.0  0.4590  131.2
 3.900  0.7496   87.8   0.726   -3.8  0.4860   17.5  0.4731  129.2
 4.000  0.7555   86.3   0.712   -5.1  0.4925   16.0  0.4878  127.3
 4.100  0.7569   85.0   0.700   -6.0  0.4953   14.6  0.4954  125.2
 4.200  0.7586   83.6   0.689   -7.0  0.4985   13.1  0.5037  123.3
 4.300  0.7608   82.3   0.678   -7.9  0.5019   11.7  0.5126  121.3
 4.400  0.7634   81.0   0.667   -9.0  0.5057   10.4  0.5220  119.5
 4.500  0.7664   79.7   0.656  -10.0  0.5097    9.0  0.5319  117.7
 4.600  0.7673   78.5   0.648  -10.7  0.5121    7.8  0.5380  116.0
 4.700  0.7685   77.3   0.640  -11.5  0.5147    6.6  0.5446  114.3
 4.800  0.7700   76.1   0.633  -12.3  0.5175    5.4  0.5516  112.6
 4.900  0.7719   75.0   0.625  -13.1  0.5206    4.2  0.5592  111.0
 5.000  0.7741   73.8   0.618  -13.9  0.5239    3.0  0.5671  109.4
 5.100  0.7722   72.7   0.612  -13.9  0.5261    2.4  0.5653  109.0
 5.200  0.7705   71.6   0.606  -13.9  0.5284    1.8  0.5635  108.7
 5.300  0.7691   70.5   0.600  -13.8  0.5307    1.2  0.5618  108.3
 5.400  0.7681   69.3   0.594  -13.8  0.5331    0.7  0.5600  108.0
 5.500  0.7673   68.2   0.588  -13.8  0.5355    0.1  0.5583  107.6
 5.600  0.7671   67.4   0.587  -14.6  0.5397   -1.3  0.5717  105.9
 5.700  0.7670   66.7   0.586  -15.4  0.5443   -2.7  0.5856  104.3
 5.800  0.7670   65.9   0.586  -16.3  0.5492   -4.1  0.6000  102.8
 5.900  0.7672   65.2   0.585  -17.1  0.5544   -5.5  0.6148  101.3
 6.000  0.7675   64.4   0.585  -17.9  0.5599   -6.8  0.6299   99.9
!
!  f       NFmin   Gammaopt  rn/50
! GHz       dB    MAG  ANG    -
!
! noise parameter not available yet for this operation point!
!
! (c) 2015  Infineon Technologies AG, Munich
