! Infineon Technologies  Discrete & RF Semiconductors
! BFR182
! VCE =  3.5 V,  IC =  20 mA
! Common Emitter S-Parameters:                            Nov 2015
# GHz  S  MA  R  50
!  f         S11            S21            S12            S22
! GHz     MAG   ANG      MAG   ANG      MAG   ANG      MAG   ANG
 0.010  0.5226   -5.6  34.575  175.0  0.0013   87.5  0.9638   -2.2
 0.015  0.5187   -8.2  34.380  172.7  0.0022   84.8  0.9579   -3.5
 0.020  0.5160  -10.9  34.242  170.3  0.0032   83.7  0.9526   -4.9
 0.025  0.5087  -13.5  33.837  168.3  0.0041   82.0  0.9453   -6.0
 0.030  0.5025  -16.2  33.474  166.2  0.0050   80.8  0.9383   -7.1
 0.035  0.4974  -18.9  33.156  164.1  0.0058   80.1  0.9317   -8.3
 0.040  0.4934  -21.7  32.883  162.0  0.0067   79.5  0.9254   -9.4
 0.045  0.4907  -24.5  32.657  159.8  0.0076   79.0  0.9196  -10.6
 0.050  0.4891  -27.4  32.479  157.6  0.0085   78.7  0.9141  -11.8
 0.055  0.4792  -29.3  31.869  156.1  0.0091   77.9  0.9032  -12.5
 0.060  0.4698  -31.3  31.280  154.6  0.0098   77.2  0.8924  -13.2
 0.065  0.4609  -33.3  30.715  153.0  0.0104   76.5  0.8817  -13.9
 0.070  0.4527  -35.4  30.175  151.3  0.0110   76.0  0.8712  -14.7
 0.075  0.4452  -37.6  29.661  149.6  0.0116   75.5  0.8609  -15.4
 0.080  0.4383  -39.9  29.174  147.9  0.0123   75.0  0.8507  -16.2
 0.085  0.4321  -42.2  28.716  146.0  0.0129   74.6  0.8406  -17.0
 0.090  0.4267  -44.6  28.288  144.1  0.0135   74.2  0.8307  -17.8
 0.095  0.4220  -47.1  27.891  142.2  0.0142   73.9  0.8210  -18.6
 0.100  0.4181  -49.6  27.528  140.2  0.0148   73.6  0.8115  -19.5
 0.105  0.4086  -51.1  26.985  139.1  0.0153   73.3  0.8014  -19.8
 0.110  0.3994  -52.6  26.453  138.0  0.0159   73.1  0.7914  -20.2
 0.115  0.3904  -54.2  25.932  136.8  0.0164   72.9  0.7814  -20.5
 0.120  0.3818  -55.9  25.422  135.5  0.0170   72.7  0.7715  -20.9
 0.125  0.3735  -57.6  24.925  134.2  0.0175   72.5  0.7615  -21.3
 0.130  0.3656  -59.5  24.441  132.9  0.0180   72.3  0.7516  -21.7
 0.135  0.3581  -61.4  23.970  131.5  0.0186   72.2  0.7418  -22.1
 0.140  0.3510  -63.4  23.515  130.1  0.0191   72.0  0.7319  -22.5
 0.145  0.3444  -65.4  23.075  128.6  0.0197   71.8  0.7222  -22.9
 0.150  0.3382  -67.6  22.651  127.0  0.0202   71.7  0.7124  -23.3
 0.155  0.3324  -68.8  22.253  126.3  0.0206   71.6  0.7055  -23.4
 0.160  0.3268  -70.0  21.859  125.5  0.0211   71.4  0.6986  -23.5
 0.165  0.3214  -71.3  21.469  124.7  0.0215   71.3  0.6916  -23.6
 0.170  0.3161  -72.6  21.083  123.9  0.0220   71.2  0.6847  -23.8
 0.175  0.3109  -73.9  20.701  123.1  0.0224   71.0  0.6778  -23.9
 0.180  0.3060  -75.3  20.324  122.2  0.0228   70.9  0.6709  -24.0
 0.185  0.3012  -76.7  19.952  121.3  0.0233   70.8  0.6640  -24.1
 0.190  0.2966  -78.2  19.585  120.4  0.0237   70.7  0.6571  -24.2
 0.195  0.2923  -79.7  19.223  119.4  0.0242   70.6  0.6502  -24.4
 0.200  0.2881  -81.3  18.867  118.4  0.0246   70.5  0.6433  -24.5
 0.220  0.2723  -85.5  17.661  116.1  0.0264   70.5  0.6241  -24.5
 0.240  0.2581  -90.1  16.489  113.4  0.0281   70.6  0.6048  -24.5
 0.260  0.2450  -94.5  15.472  111.0  0.0299   70.9  0.5883  -24.4
 0.280  0.2325  -98.6  14.594  109.0  0.0316   71.4  0.5745  -24.3
 0.300  0.2213 -103.2  13.735  106.8  0.0334   71.9  0.5607  -24.2
 0.320  0.2119 -106.0  13.122  105.7  0.0351   72.1  0.5523  -24.0
 0.340  0.2031 -109.1  12.514  104.5  0.0368   72.2  0.5439  -23.8
 0.360  0.1949 -112.5  11.912  103.1  0.0385   72.4  0.5355  -23.6
 0.380  0.1875 -116.2  11.318  101.6  0.0402   72.5  0.5271  -23.3
 0.400  0.1809 -120.1  10.732  100.0  0.0419   72.6  0.5187  -23.1
 0.420  0.1760 -122.7  10.319   99.0  0.0436   72.7  0.5137  -22.9
 0.440  0.1715 -125.5   9.908   98.0  0.0453   72.9  0.5087  -22.8
 0.450  0.1694 -126.9   9.705   97.4  0.0462   72.9  0.5062  -22.7
 0.460  0.1674 -128.4   9.502   96.8  0.0471   73.0  0.5037  -22.6
 0.480  0.1638 -131.4   9.100   95.6  0.0488   73.1  0.4988  -22.5
 0.500  0.1606 -134.6   8.702   94.2  0.0505   73.2  0.4938  -22.3
 0.520  0.1584 -137.1   8.433   93.4  0.0523   73.2  0.4908  -22.3
 0.540  0.1565 -139.7   8.166   92.6  0.0542   73.3  0.4877  -22.2
 0.560  0.1549 -142.4   7.900   91.8  0.0560   73.3  0.4847  -22.2
 0.580  0.1537 -145.1   7.637   90.9  0.0579   73.4  0.4816  -22.1
 0.600  0.1528 -147.8   7.375   89.9  0.0597   73.4  0.4786  -22.1
 0.620  0.1506 -150.1   7.176   89.2  0.0614   73.4  0.4765  -22.1
 0.640  0.1486 -152.4   6.977   88.5  0.0631   73.4  0.4744  -22.1
 0.660  0.1469 -154.8   6.780   87.7  0.0648   73.5  0.4722  -22.2
 0.680  0.1454 -157.3   6.584   86.9  0.0665   73.5  0.4701  -22.2
 0.700  0.1442 -159.8   6.390   86.0  0.0682   73.5  0.4680  -22.2
 0.720  0.1434 -161.6   6.233   85.4  0.0701   73.4  0.4666  -22.3
 0.740  0.1427 -163.4   6.078   84.7  0.0719   73.3  0.4653  -22.3
 0.760  0.1422 -165.2   5.922   84.1  0.0738   73.2  0.4639  -22.4
 0.780  0.1418 -167.0   5.768   83.4  0.0756   73.2  0.4626  -22.4
 0.800  0.1416 -168.8   5.615   82.6  0.0775   73.1  0.4612  -22.5
 0.820  0.1401 -170.7   5.495   82.0  0.0794   73.0  0.4600  -22.6
 0.840  0.1388 -172.6   5.376   81.4  0.0812   72.9  0.4589  -22.7
 0.860  0.1376 -174.6   5.257   80.8  0.0831   72.8  0.4577  -22.7
 0.880  0.1366 -176.6   5.139   80.1  0.0849   72.8  0.4566  -22.8
 0.900  0.1357 -178.6   5.022   79.4  0.0868   72.7  0.4554  -22.9
 0.920  0.1362  179.7   4.929   78.9  0.0885   72.7  0.4545  -23.0
 0.940  0.1369  178.0   4.836   78.4  0.0903   72.7  0.4536  -23.2
 0.960  0.1377  176.4   4.744   77.8  0.0920   72.7  0.4526  -23.3
 0.980  0.1386  174.7   4.652   77.3  0.0938   72.7  0.4517  -23.5
 1.000  0.1396  173.1   4.560   76.7  0.0955   72.7  0.4508  -23.6
 1.020  0.1419  171.4   4.483   76.2  0.0973   72.5  0.4499  -23.8
 1.040  0.1443  169.7   4.407   75.7  0.0991   72.4  0.4491  -24.0
 1.060  0.1468  168.1   4.331   75.2  0.1010   72.3  0.4482  -24.1
 1.080  0.1494  166.6   4.255   74.7  0.1028   72.1  0.4474  -24.3
 1.100  0.1521  165.1   4.180   74.1  0.1046   72.0  0.4465  -24.5
 1.120  0.1520  163.9   4.114   73.6  0.1064   71.9  0.4457  -24.7
 1.140  0.1519  162.6   4.049   73.0  0.1082   71.7  0.4450  -24.9
 1.160  0.1519  161.4   3.984   72.5  0.1100   71.6  0.4443  -25.1
 1.180  0.1520  160.1   3.919   71.9  0.1118   71.5  0.4435  -25.3
 1.200  0.1521  158.9   3.855   71.3  0.1136   71.4  0.4428  -25.5
 1.220  0.1525  157.8   3.796   70.9  0.1154   71.3  0.4420  -25.7
 1.240  0.1530  156.8   3.736   70.4  0.1172   71.1  0.4413  -25.9
 1.260  0.1535  155.8   3.677   70.0  0.1191   71.0  0.4406  -26.2
 1.280  0.1541  154.7   3.619   69.5  0.1209   70.8  0.4398  -26.4
 1.300  0.1547  153.7   3.560   69.0  0.1227   70.7  0.4391  -26.6
 1.320  0.1561  152.5   3.513   68.5  0.1246   70.6  0.4385  -26.9
 1.340  0.1576  151.4   3.466   68.1  0.1264   70.4  0.4380  -27.1
 1.360  0.1592  150.3   3.419   67.6  0.1283   70.3  0.4375  -27.4
 1.380  0.1608  149.2   3.372   67.1  0.1301   70.2  0.4369  -27.6
 1.400  0.1625  148.1   3.326   66.6  0.1320   70.1  0.4364  -27.9
 1.420  0.1633  147.1   3.287   66.2  0.1337   69.9  0.4357  -28.1
 1.440  0.1642  146.2   3.249   65.8  0.1355   69.8  0.4350  -28.3
 1.460  0.1651  145.2   3.211   65.3  0.1372   69.6  0.4343  -28.6
 1.480  0.1660  144.3   3.173   64.9  0.1390   69.5  0.4336  -28.8
 1.500  0.1670  143.4   3.135   64.4  0.1407   69.3  0.4329  -29.0
 1.520  0.1698  142.4   3.095   63.9  0.1426   69.1  0.4321  -29.3
 1.540  0.1727  141.5   3.056   63.4  0.1445   69.0  0.4312  -29.5
 1.560  0.1756  140.5   3.017   62.8  0.1465   68.8  0.4304  -29.8
 1.580  0.1786  139.7   2.978   62.3  0.1484   68.7  0.4296  -30.0
 1.600  0.1816  138.8   2.940   61.7  0.1503   68.5  0.4288  -30.3
 1.620  0.1825  137.9   2.909   61.3  0.1521   68.4  0.4279  -30.6
 1.640  0.1835  137.1   2.879   60.8  0.1539   68.2  0.4270  -30.8
 1.660  0.1845  136.2   2.849   60.4  0.1556   68.1  0.4261  -31.1
 1.680  0.1856  135.3   2.819   60.0  0.1574   67.9  0.4252  -31.3
 1.700  0.1867  134.5   2.789   59.5  0.1592   67.8  0.4243  -31.6
 1.720  0.1888  133.8   2.763   59.1  0.1611   67.6  0.4236  -31.9
 1.740  0.1909  133.1   2.737   58.7  0.1630   67.4  0.4229  -32.2
 1.760  0.1930  132.5   2.712   58.3  0.1649   67.2  0.4222  -32.6
 1.780  0.1952  131.8   2.686   57.9  0.1668   67.0  0.4215  -32.9
 1.800  0.1974  131.2   2.661   57.5  0.1687   66.8  0.4208  -33.2
 1.820  0.1984  130.8   2.637   57.1  0.1705   66.6  0.4198  -33.5
 1.840  0.1994  130.3   2.613   56.6  0.1724   66.5  0.4188  -33.8
 1.860  0.2005  129.9   2.589   56.2  0.1742   66.3  0.4178  -34.1
 1.880  0.2015  129.5   2.565   55.8  0.1761   66.2  0.4169  -34.4
 1.900  0.2026  129.1   2.542   55.3  0.1779   66.0  0.4159  -34.7
 1.920  0.2038  128.5   2.518   54.9  0.1798   65.8  0.4151  -35.0
 1.940  0.2049  128.0   2.494   54.4  0.1816   65.6  0.4144  -35.3
 1.960  0.2061  127.5   2.471   54.0  0.1835   65.4  0.4136  -35.7
 1.980  0.2074  126.9   2.447   53.6  0.1853   65.2  0.4129  -36.0
 2.000  0.2086  126.4   2.424   53.1  0.1872   65.0  0.4122  -36.3
 2.020  0.2106  125.8   2.404   52.7  0.1891   64.8  0.4110  -36.6
 2.040  0.2126  125.1   2.384   52.3  0.1910   64.6  0.4098  -36.9
 2.060  0.2146  124.5   2.364   51.9  0.1929   64.5  0.4086  -37.2
 2.080  0.2167  123.9   2.344   51.5  0.1948   64.3  0.4074  -37.6
 2.100  0.2188  123.3   2.325   51.1  0.1967   64.1  0.4062  -37.9
 2.120  0.2209  122.7   2.305   50.7  0.1986   63.9  0.4050  -38.2
 2.140  0.2230  122.2   2.286   50.3  0.2005   63.8  0.4039  -38.5
 2.160  0.2251  121.6   2.266   49.9  0.2024   63.6  0.4027  -38.8
 2.180  0.2273  121.0   2.247   49.4  0.2043   63.5  0.4016  -39.2
 2.200  0.2295  120.5   2.228   49.0  0.2062   63.3  0.4005  -39.5
 2.220  0.2312  120.0   2.213   48.6  0.2080   63.1  0.3992  -39.8
 2.240  0.2328  119.4   2.198   48.2  0.2099   62.9  0.3980  -40.2
 2.260  0.2345  118.9   2.183   47.8  0.2118   62.7  0.3967  -40.5
 2.280  0.2362  118.4   2.169   47.4  0.2136   62.5  0.3955  -40.8
 2.300  0.2380  117.9   2.154   47.0  0.2155   62.3  0.3943  -41.2
 2.320  0.2397  117.4   2.140   46.5  0.2173   62.1  0.3931  -41.5
 2.340  0.2415  116.9   2.125   46.1  0.2192   61.9  0.3919  -41.9
 2.360  0.2433  116.4   2.111   45.7  0.2211   61.8  0.3907  -42.2
 2.380  0.2451  116.0   2.097   45.2  0.2229   61.6  0.3895  -42.6
 2.400  0.2469  115.5   2.083   44.8  0.2248   61.4  0.3884  -42.9
 2.420  0.2495  115.0   2.069   44.4  0.2267   61.2  0.3868  -43.3
 2.440  0.2521  114.6   2.055   44.1  0.2285   60.9  0.3853  -43.6
 2.460  0.2547  114.1   2.042   43.7  0.2304   60.7  0.3837  -44.0
 2.480  0.2573  113.7   2.028   43.3  0.2323   60.5  0.3822  -44.4
 2.500  0.2599  113.2   2.015   42.9  0.2342   60.3  0.3807  -44.8
 2.520  0.2626  112.8   2.001   42.5  0.2360   60.0  0.3792  -45.1
 2.540  0.2652  112.4   1.988   42.1  0.2379   59.8  0.3777  -45.5
 2.560  0.2679  112.0   1.975   41.7  0.2398   59.6  0.3763  -45.9
 2.580  0.2706  111.6   1.962   41.3  0.2417   59.4  0.3748  -46.3
 2.600  0.2733  111.2   1.949   40.9  0.2436   59.2  0.3734  -46.7
 2.620  0.2750  110.8   1.938   40.5  0.2455   59.0  0.3719  -47.1
 2.640  0.2766  110.5   1.927   40.2  0.2474   58.8  0.3705  -47.5
 2.660  0.2783  110.1   1.915   39.8  0.2493   58.6  0.3690  -47.9
 2.680  0.2800  109.7   1.904   39.5  0.2512   58.4  0.3676  -48.3
 2.700  0.2817  109.4   1.894   39.1  0.2532   58.2  0.3662  -48.7
 2.720  0.2834  109.0   1.883   38.7  0.2551   58.0  0.3648  -49.1
 2.740  0.2851  108.7   1.872   38.4  0.2570   57.8  0.3634  -49.5
 2.760  0.2868  108.4   1.861   38.0  0.2589   57.7  0.3621  -49.9
 2.780  0.2886  108.0   1.851   37.6  0.2609   57.5  0.3607  -50.3
 2.800  0.2903  107.7   1.840   37.2  0.2628   57.3  0.3594  -50.7
 2.820  0.2926  107.4   1.829   36.8  0.2647   57.1  0.3576  -51.1
 2.840  0.2950  107.1   1.819   36.5  0.2665   56.9  0.3558  -51.5
 2.860  0.2973  106.8   1.808   36.1  0.2684   56.6  0.3540  -51.9
 2.880  0.2997  106.5   1.797   35.7  0.2703   56.4  0.3523  -52.4
 2.900  0.3020  106.2   1.787   35.3  0.2722   56.2  0.3506  -52.8
 2.920  0.3044  106.0   1.777   34.9  0.2740   56.0  0.3488  -53.2
 2.940  0.3067  105.7   1.766   34.5  0.2759   55.8  0.3472  -53.7
 2.960  0.3091  105.4   1.756   34.1  0.2778   55.6  0.3455  -54.1
 2.980  0.3115  105.2   1.746   33.7  0.2797   55.4  0.3438  -54.6
 3.000  0.3139  104.9   1.736   33.3  0.2816   55.2  0.3422  -55.0
 3.100  0.3254  103.4   1.693   31.7  0.2908   54.0  0.3318  -57.3
 3.200  0.3372  101.9   1.652   30.0  0.3002   52.8  0.3220  -59.8
 3.300  0.3491  100.6   1.612   28.2  0.3097   51.7  0.3128  -62.5
 3.400  0.3612   99.4   1.573   26.3  0.3193   50.7  0.3043  -65.3
 3.500  0.3735   98.2   1.537   24.3  0.3290   49.7  0.2966  -68.2
 3.600  0.3840   96.9   1.506   22.7  0.3380   48.4  0.2854  -71.3
 3.700  0.3948   95.6   1.476   21.1  0.3471   47.1  0.2750  -74.7
 3.800  0.4057   94.5   1.448   19.3  0.3564   45.9  0.2657  -78.3
 3.900  0.4168   93.4   1.421   17.6  0.3659   44.8  0.2575  -82.1
 4.000  0.4280   92.3   1.395   15.7  0.3755   43.7  0.2506  -86.2
 4.100  0.4388   91.2   1.369   14.2  0.3841   42.3  0.2406  -90.1
 4.200  0.4498   90.2   1.344   12.7  0.3929   41.1  0.2318  -94.3
 4.300  0.4609   89.3   1.320   11.1  0.4019   39.8  0.2244  -98.9
 4.400  0.4722   88.4   1.297    9.4  0.4111   38.6  0.2184 -103.7
 4.500  0.4835   87.5   1.275    7.7  0.4204   37.5  0.2141 -108.7
 4.600  0.4923   86.4   1.254    6.3  0.4285   36.2  0.2074 -113.4
 4.700  0.5013   85.3   1.233    4.8  0.4368   34.9  0.2023 -118.4
 4.800  0.5104   84.3   1.214    3.3  0.4453   33.6  0.1987 -123.6
 4.900  0.5197   83.3   1.195    1.8  0.4541   32.4  0.1968 -129.0
 5.000  0.5291   82.4   1.177    0.2  0.4630   31.3  0.1967 -134.4
 5.100  0.5369   81.3   1.157   -1.1  0.4701   29.9  0.1942 -139.9
 5.200  0.5449   80.3   1.137   -2.4  0.4775   28.5  0.1936 -145.5
 5.300  0.5530   79.2   1.119   -3.8  0.4852   27.2  0.1948 -151.0
 5.400  0.5613   78.3   1.100   -5.2  0.4931   25.9  0.1978 -156.5
 5.500  0.5698   77.3   1.083   -6.7  0.5012   24.7  0.2025 -161.7
 5.600  0.5778   76.2   1.064   -7.9  0.5063   23.2  0.2010 -166.7
 5.700  0.5859   75.2   1.046   -9.2  0.5117   21.7  0.2010 -171.7
 5.800  0.5942   74.2   1.029  -10.5  0.5175   20.3  0.2026 -176.7
 5.900  0.6027   73.2   1.012  -11.8  0.5236   18.9  0.2056  178.5
 6.000  0.6114   72.3   0.995  -13.2  0.5300   17.5  0.2101  173.8
!
!  f       NFmin   Gammaopt  rn/50
! GHz       dB    MAG  ANG    -
!
! noise parameter not available yet for this operation point!
!
! (c) 2015  Infineon Technologies AG, Munich
