! Infineon Technologies  Discrete & RF Semiconductors
! BFR182
! VCE =  10. V,  IC =  18 mA
! Common Emitter S-Parameters:                            Nov 2015
# GHz  S  MA  R  50
!  f         S11            S21            S12            S22
! GHz     MAG   ANG      MAG   ANG      MAG   ANG      MAG   ANG
 0.010  0.6805   -4.0  32.434  174.6  0.0017   78.9  0.9576   -1.8
 0.015  0.6771   -6.1  32.168  172.8  0.0027   76.4  0.9542   -3.0
 0.020  0.6746   -8.2  31.936  170.9  0.0037   75.2  0.9513   -4.2
 0.025  0.6676  -10.2  31.672  169.2  0.0045   76.2  0.9454   -5.2
 0.030  0.6615  -12.2  31.438  167.4  0.0052   76.9  0.9398   -6.2
 0.035  0.6561  -14.2  31.234  165.6  0.0060   77.4  0.9345   -7.2
 0.040  0.6516  -16.3  31.061  163.8  0.0068   77.8  0.9294   -8.2
 0.045  0.6480  -18.4  30.919  161.9  0.0075   78.1  0.9247   -9.3
 0.050  0.6452  -20.5  30.810  160.1  0.0083   78.4  0.9203  -10.3
 0.055  0.6348  -22.0  30.332  158.7  0.0090   77.6  0.9110  -11.0
 0.060  0.6248  -23.6  29.873  157.3  0.0098   76.9  0.9017  -11.7
 0.065  0.6153  -25.3  29.433  155.8  0.0105   76.3  0.8927  -12.4
 0.070  0.6064  -27.0  29.013  154.3  0.0112   75.8  0.8838  -13.2
 0.075  0.5980  -28.7  28.614  152.7  0.0119   75.4  0.8750  -13.9
 0.080  0.5902  -30.5  28.237  151.1  0.0127   75.0  0.8664  -14.7
 0.085  0.5829  -32.3  27.882  149.5  0.0134   74.7  0.8579  -15.5
 0.090  0.5763  -34.2  27.552  147.8  0.0141   74.3  0.8496  -16.3
 0.095  0.5703  -36.1  27.245  146.1  0.0149   74.1  0.8415  -17.1
 0.100  0.5650  -38.1  26.964  144.3  0.0156   73.8  0.8335  -17.9
 0.105  0.5541  -39.2  26.503  143.2  0.0162   73.4  0.8244  -18.3
 0.110  0.5434  -40.4  26.053  142.0  0.0168   73.0  0.8154  -18.7
 0.115  0.5330  -41.6  25.613  140.8  0.0173   72.6  0.8064  -19.1
 0.120  0.5228  -42.9  25.185  139.6  0.0179   72.2  0.7975  -19.5
 0.125  0.5129  -44.2  24.770  138.3  0.0185   71.9  0.7886  -20.0
 0.130  0.5033  -45.5  24.367  137.0  0.0191   71.6  0.7797  -20.4
 0.135  0.4939  -46.9  23.978  135.6  0.0197   71.3  0.7709  -20.9
 0.140  0.4849  -48.4  23.603  134.2  0.0202   71.0  0.7622  -21.3
 0.145  0.4762  -49.9  23.243  132.7  0.0208   70.7  0.7535  -21.8
 0.150  0.4678  -51.5  22.899  131.2  0.0214   70.5  0.7448  -22.3
 0.155  0.4604  -52.5  22.538  130.5  0.0219   70.4  0.7378  -22.5
 0.160  0.4531  -53.4  22.181  129.7  0.0223   70.4  0.7307  -22.6
 0.165  0.4460  -54.4  21.828  128.9  0.0228   70.3  0.7237  -22.8
 0.170  0.4390  -55.5  21.480  128.1  0.0233   70.3  0.7167  -23.0
 0.175  0.4321  -56.6  21.136  127.2  0.0237   70.2  0.7097  -23.2
 0.180  0.4254  -57.7  20.797  126.3  0.0242   70.2  0.7027  -23.3
 0.185  0.4189  -58.8  20.464  125.4  0.0247   70.1  0.6957  -23.5
 0.190  0.4125  -60.0  20.135  124.5  0.0252   70.1  0.6887  -23.7
 0.195  0.4064  -61.2  19.812  123.5  0.0256   70.0  0.6818  -23.9
 0.200  0.4004  -62.5  19.495  122.5  0.0261   70.0  0.6748  -24.1
 0.220  0.3757  -65.4  18.319  120.1  0.0280   69.6  0.6540  -24.4
 0.240  0.3521  -68.6  17.180  117.3  0.0299   69.3  0.6332  -24.7
 0.260  0.3303  -71.7  16.182  114.8  0.0317   69.2  0.6154  -24.8
 0.280  0.3098  -74.7  15.307  112.7  0.0332   69.3  0.6007  -24.8
 0.300  0.2902  -78.0  14.455  110.4  0.0348   69.4  0.5859  -24.8
 0.320  0.2763  -79.8  13.836  109.2  0.0365   69.6  0.5759  -24.7
 0.340  0.2627  -81.7  13.223  107.9  0.0382   69.8  0.5660  -24.5
 0.360  0.2495  -83.9  12.618  106.4  0.0400   69.9  0.5560  -24.4
 0.380  0.2366  -86.3  12.021  104.9  0.0417   70.1  0.5461  -24.3
 0.400  0.2242  -89.0  11.435  103.1  0.0434   70.2  0.5361  -24.1
 0.420  0.2138  -90.7  11.005  102.1  0.0451   70.4  0.5301  -24.0
 0.440  0.2036  -92.5  10.579  101.0  0.0468   70.5  0.5241  -23.8
 0.450  0.1986  -93.5  10.367  100.4  0.0477   70.6  0.5211  -23.8
 0.460  0.1936  -94.5  10.157   99.7  0.0486   70.6  0.5181  -23.7
 0.480  0.1839  -96.8   9.740   98.4  0.0503   70.8  0.5121  -23.5
 0.500  0.1745  -99.3   9.329   97.0  0.0520   70.9  0.5061  -23.4
 0.520  0.1688 -101.3   9.044   96.2  0.0538   71.0  0.5026  -23.4
 0.540  0.1633 -103.3   8.760   95.4  0.0556   71.1  0.4991  -23.3
 0.560  0.1580 -105.6   8.478   94.5  0.0574   71.2  0.4957  -23.3
 0.580  0.1530 -108.0   8.199   93.5  0.0592   71.3  0.4922  -23.2
 0.600  0.1483 -110.5   7.922   92.5  0.0610   71.4  0.4887  -23.2
 0.620  0.1429 -111.9   7.710   91.8  0.0627   71.5  0.4861  -23.2
 0.640  0.1376 -113.4   7.499   91.0  0.0644   71.6  0.4836  -23.2
 0.660  0.1324 -115.1   7.289   90.2  0.0662   71.7  0.4810  -23.1
 0.680  0.1273 -116.9   7.081   89.3  0.0679   71.7  0.4785  -23.1
 0.700  0.1223 -118.8   6.875   88.4  0.0696   71.8  0.4759  -23.1
 0.720  0.1188 -120.8   6.708   87.8  0.0713   71.7  0.4742  -23.1
 0.740  0.1155 -122.9   6.543   87.1  0.0730   71.6  0.4725  -23.1
 0.760  0.1123 -125.1   6.378   86.4  0.0748   71.5  0.4708  -23.2
 0.780  0.1093 -127.5   6.214   85.7  0.0765   71.4  0.4691  -23.2
 0.800  0.1065 -130.0   6.051   84.9  0.0782   71.3  0.4674  -23.2
 0.820  0.1035 -131.8   5.923   84.3  0.0800   71.3  0.4660  -23.3
 0.840  0.1005 -133.7   5.796   83.7  0.0818   71.2  0.4645  -23.3
 0.860  0.0977 -135.7   5.669   83.1  0.0837   71.2  0.4631  -23.4
 0.880  0.0950 -137.8   5.543   82.5  0.0855   71.1  0.4616  -23.4
 0.900  0.0925 -140.0   5.418   81.8  0.0873   71.1  0.4602  -23.5
 0.920  0.0906 -143.0   5.318   81.3  0.0890   71.1  0.4591  -23.6
 0.940  0.0890 -146.1   5.218   80.7  0.0908   71.1  0.4580  -23.7
 0.960  0.0876 -149.3   5.119   80.2  0.0925   71.0  0.4569  -23.8
 0.980  0.0866 -152.6   5.020   79.6  0.0943   71.0  0.4558  -23.9
 1.000  0.0858 -156.0   4.922   79.0  0.0960   71.0  0.4547  -24.0
 1.020  0.0852 -158.2   4.840   78.5  0.0977   70.9  0.4537  -24.2
 1.040  0.0847 -160.4   4.758   78.1  0.0995   70.7  0.4527  -24.4
 1.060  0.0843 -162.6   4.676   77.6  0.1012   70.6  0.4517  -24.5
 1.080  0.0841 -164.8   4.595   77.0  0.1030   70.4  0.4507  -24.7
 1.100  0.0840 -167.1   4.514   76.5  0.1047   70.3  0.4497  -24.9
 1.120  0.0836 -169.5   4.443   76.0  0.1066   70.2  0.4489  -25.1
 1.140  0.0833 -172.0   4.372   75.4  0.1085   70.1  0.4480  -25.2
 1.160  0.0832 -174.5   4.302   74.9  0.1105   70.1  0.4472  -25.4
 1.180  0.0832 -176.9   4.232   74.3  0.1124   70.0  0.4463  -25.5
 1.200  0.0834 -179.4   4.162   73.7  0.1143   69.9  0.4455  -25.7
 1.220  0.0831  178.8   4.099   73.3  0.1161   69.8  0.4447  -25.9
 1.240  0.0829  177.0   4.035   72.9  0.1178   69.6  0.4438  -26.1
 1.260  0.0828  175.2   3.972   72.4  0.1196   69.5  0.4430  -26.3
 1.280  0.0828  173.4   3.910   72.0  0.1213   69.3  0.4422  -26.5
 1.300  0.0828  171.6   3.847   71.5  0.1231   69.2  0.4414  -26.7
 1.320  0.0833  169.1   3.795   71.0  0.1248   69.1  0.4407  -26.9
 1.340  0.0840  166.5   3.743   70.6  0.1265   69.0  0.4401  -27.2
 1.360  0.0849  164.1   3.691   70.1  0.1283   68.8  0.4394  -27.4
 1.380  0.0859  161.7   3.640   69.6  0.1300   68.7  0.4387  -27.7
 1.400  0.0870  159.3   3.589   69.1  0.1317   68.6  0.4381  -27.9
 1.420  0.0876  158.5   3.548   68.7  0.1335   68.5  0.4374  -28.1
 1.440  0.0882  157.7   3.508   68.3  0.1353   68.3  0.4367  -28.3
 1.460  0.0888  156.9   3.468   67.8  0.1372   68.2  0.4360  -28.5
 1.480  0.0894  156.1   3.428   67.4  0.1390   68.0  0.4353  -28.7
 1.500  0.0901  155.3   3.388   66.9  0.1408   67.9  0.4346  -28.9
 1.520  0.0921  153.4   3.348   66.4  0.1427   67.7  0.4337  -29.1
 1.540  0.0943  151.5   3.308   65.9  0.1446   67.5  0.4329  -29.4
 1.560  0.0965  149.8   3.268   65.3  0.1464   67.3  0.4321  -29.6
 1.580  0.0988  148.1   3.228   64.8  0.1483   67.2  0.4312  -29.9
 1.600  0.1012  146.5   3.189   64.2  0.1502   67.0  0.4304  -30.1
 1.620  0.1021  144.8   3.154   63.8  0.1520   66.8  0.4294  -30.3
 1.640  0.1031  143.0   3.119   63.4  0.1538   66.7  0.4285  -30.5
 1.660  0.1041  141.4   3.084   63.0  0.1556   66.5  0.4276  -30.8
 1.680  0.1053  139.7   3.049   62.6  0.1574   66.4  0.4266  -31.0
 1.700  0.1065  138.1   3.015   62.2  0.1592   66.2  0.4257  -31.2
 1.720  0.1085  137.0   2.987   61.8  0.1610   66.0  0.4247  -31.5
 1.740  0.1106  136.0   2.959   61.4  0.1627   65.8  0.4237  -31.8
 1.760  0.1126  135.0   2.931   61.0  0.1645   65.6  0.4228  -32.1
 1.780  0.1148  134.0   2.903   60.5  0.1662   65.5  0.4218  -32.4
 1.800  0.1169  133.1   2.876   60.1  0.1680   65.3  0.4209  -32.7
 1.820  0.1188  132.7   2.850   59.7  0.1699   65.2  0.4199  -33.0
 1.840  0.1207  132.2   2.825   59.3  0.1718   65.0  0.4189  -33.3
 1.860  0.1226  131.8   2.799   58.9  0.1738   64.9  0.4179  -33.6
 1.880  0.1245  131.4   2.774   58.4  0.1757   64.7  0.4169  -33.9
 1.900  0.1264  131.0   2.749   58.0  0.1776   64.6  0.4159  -34.2
 1.920  0.1286  130.5   2.723   57.6  0.1793   64.4  0.4151  -34.5
 1.940  0.1308  130.0   2.697   57.1  0.1810   64.2  0.4143  -34.7
 1.960  0.1330  129.6   2.671   56.7  0.1826   64.1  0.4135  -35.0
 1.980  0.1352  129.1   2.645   56.3  0.1843   63.9  0.4128  -35.2
 2.000  0.1374  128.7   2.619   55.8  0.1860   63.7  0.4120  -35.5
 2.020  0.1389  127.8   2.598   55.4  0.1878   63.5  0.4108  -35.8
 2.040  0.1404  127.0   2.577   55.0  0.1897   63.3  0.4095  -36.1
 2.060  0.1420  126.1   2.556   54.6  0.1916   63.1  0.4083  -36.4
 2.080  0.1436  125.3   2.535   54.2  0.1934   62.9  0.4071  -36.7
 2.100  0.1452  124.5   2.514   53.8  0.1953   62.7  0.4059  -37.0
 2.120  0.1468  123.7   2.493   53.4  0.1971   62.5  0.4047  -37.3
 2.140  0.1485  122.9   2.473   53.0  0.1990   62.3  0.4035  -37.7
 2.160  0.1502  122.2   2.452   52.6  0.2009   62.2  0.4024  -38.0
 2.180  0.1519  121.4   2.432   52.1  0.2027   62.0  0.4012  -38.3
 2.200  0.1537  120.7   2.412   51.7  0.2046   61.8  0.4001  -38.6
 2.220  0.1558  120.1   2.396   51.3  0.2064   61.6  0.3988  -38.9
 2.240  0.1578  119.6   2.379   50.9  0.2082   61.4  0.3976  -39.2
 2.260  0.1599  119.0   2.363   50.5  0.2100   61.2  0.3963  -39.5
 2.280  0.1620  118.5   2.347   50.1  0.2118   61.0  0.3951  -39.8
 2.300  0.1641  118.0   2.331   49.7  0.2136   60.9  0.3939  -40.1
 2.320  0.1663  117.5   2.315   49.3  0.2154   60.7  0.3927  -40.4
 2.340  0.1684  117.0   2.299   48.9  0.2172   60.5  0.3915  -40.8
 2.360  0.1706  116.5   2.284   48.5  0.2190   60.3  0.3903  -41.1
 2.380  0.1727  116.1   2.268   48.0  0.2208   60.2  0.3892  -41.4
 2.400  0.1749  115.6   2.253   47.6  0.2226   60.0  0.3880  -41.7
 2.420  0.1774  115.0   2.238   47.2  0.2244   59.8  0.3863  -42.0
 2.440  0.1800  114.5   2.223   46.9  0.2262   59.6  0.3847  -42.4
 2.460  0.1825  114.0   2.209   46.5  0.2280   59.4  0.3831  -42.7
 2.480  0.1851  113.4   2.194   46.1  0.2298   59.2  0.3815  -43.1
 2.500  0.1877  112.9   2.180   45.8  0.2317   59.0  0.3799  -43.4
 2.520  0.1903  112.4   2.165   45.4  0.2335   58.8  0.3783  -43.8
 2.540  0.1929  112.0   2.151   45.0  0.2353   58.6  0.3767  -44.1
 2.560  0.1955  111.5   2.137   44.6  0.2371   58.4  0.3752  -44.5
 2.580  0.1981  111.0   2.123   44.2  0.2390   58.2  0.3736  -44.8
 2.600  0.2008  110.6   2.109   43.8  0.2408   58.0  0.3721  -45.2
 2.620  0.2027  110.3   2.097   43.5  0.2426   57.8  0.3707  -45.6
 2.640  0.2047  110.0   2.085   43.1  0.2444   57.6  0.3692  -45.9
 2.660  0.2066  109.8   2.074   42.8  0.2463   57.4  0.3678  -46.3
 2.680  0.2086  109.5   2.062   42.4  0.2481   57.2  0.3664  -46.6
 2.700  0.2105  109.2   2.051   42.1  0.2499   57.0  0.3651  -47.0
 2.720  0.2125  109.0   2.039   41.7  0.2517   56.8  0.3637  -47.4
 2.740  0.2145  108.7   2.028   41.4  0.2536   56.6  0.3623  -47.8
 2.760  0.2164  108.5   2.016   41.0  0.2554   56.5  0.3610  -48.1
 2.780  0.2184  108.2   2.005   40.7  0.2573   56.3  0.3597  -48.5
 2.800  0.2204  108.0   1.994   40.3  0.2591   56.1  0.3584  -48.9
 2.820  0.2225  107.7   1.982   39.9  0.2609   55.9  0.3566  -49.3
 2.840  0.2245  107.4   1.971   39.5  0.2627   55.7  0.3548  -49.6
 2.860  0.2266  107.1   1.959   39.1  0.2645   55.4  0.3531  -50.0
 2.880  0.2287  106.9   1.948   38.8  0.2663   55.2  0.3513  -50.4
 2.900  0.2308  106.6   1.937   38.4  0.2681   55.0  0.3496  -50.8
 2.920  0.2329  106.3   1.926   38.0  0.2699   54.8  0.3478  -51.1
 2.940  0.2350  106.1   1.915   37.5  0.2717   54.6  0.3461  -51.5
 2.960  0.2371  105.8   1.904   37.1  0.2736   54.4  0.3444  -51.9
 2.980  0.2392  105.5   1.893   36.7  0.2754   54.2  0.3428  -52.3
 3.000  0.2413  105.3   1.882   36.3  0.2772   54.0  0.3411  -52.7
 3.100  0.2542  104.0   1.836   34.7  0.2860   52.8  0.3307  -54.9
 3.200  0.2671  102.9   1.791   33.0  0.2950   51.6  0.3209  -57.2
 3.300  0.2802  101.8   1.748   31.2  0.3040   50.6  0.3116  -59.6
 3.400  0.2934  100.9   1.707   29.3  0.3132   49.6  0.3029  -62.2
 3.500  0.3066  100.0   1.668   27.3  0.3224   48.6  0.2948  -64.9
 3.600  0.3186   98.8   1.635   25.7  0.3309   47.3  0.2835  -67.7
 3.700  0.3307   97.8   1.604   24.1  0.3396   46.1  0.2730  -70.8
 3.800  0.3430   96.8   1.574   22.4  0.3484   45.0  0.2633  -74.0
 3.900  0.3553   95.9   1.545   20.6  0.3573   43.9  0.2545  -77.5
 4.000  0.3677   95.0   1.518   18.8  0.3664   42.9  0.2467  -81.3
 4.100  0.3793   93.9   1.490   17.2  0.3746   41.6  0.2362  -84.8
 4.200  0.3910   92.9   1.463   15.6  0.3829   40.4  0.2266  -88.6
 4.300  0.4028   92.0   1.437   13.9  0.3914   39.2  0.2182  -92.7
 4.400  0.4148   91.1   1.413   12.2  0.4001   38.1  0.2109  -97.2
 4.500  0.4268   90.2   1.390   10.4  0.4089   37.0  0.2050 -101.9
 4.600  0.4361   89.2   1.368    9.0  0.4165   35.7  0.1973 -106.3
 4.700  0.4456   88.2   1.347    7.5  0.4242   34.5  0.1909 -111.0
 4.800  0.4552   87.2   1.327    6.0  0.4322   33.3  0.1858 -116.0
 4.900  0.4649   86.3   1.307    4.4  0.4403   32.1  0.1822 -121.2
 5.000  0.4747   85.4   1.289    2.8  0.4486   31.0  0.1802 -126.6
 5.100  0.4837   84.4   1.266    1.4  0.4556   29.7  0.1765 -132.0
 5.200  0.4929   83.4   1.245    0.0  0.4628   28.4  0.1745 -137.6
 5.300  0.5023   82.5   1.224   -1.4  0.4703   27.2  0.1741 -143.3
 5.400  0.5117   81.6   1.203   -2.9  0.4779   26.0  0.1755 -149.0
 5.500  0.5213   80.7   1.184   -4.5  0.4858   24.8  0.1785 -154.5
 5.600  0.5299   79.6   1.165   -5.8  0.4908   23.4  0.1761 -159.6
 5.700  0.5387   78.6   1.146   -7.1  0.4961   22.0  0.1752 -164.8
 5.800  0.5477   77.5   1.127   -8.5  0.5017   20.6  0.1757 -170.0
 5.900  0.5568   76.6   1.110   -9.9  0.5076   19.3  0.1776 -175.1
 6.000  0.5661   75.6   1.093  -11.4  0.5137   18.0  0.1809  179.9
!
!  f       NFmin   Gammaopt  rn/50
! GHz       dB    MAG  ANG    -
!
! noise parameter not available yet for this operation point!
!
! (c) 2015  Infineon Technologies AG, Munich
