! Infineon Technologies  Discrete & RF Semiconductors
! BFR182
! VCE =  6.0 V,  IC =  18 mA
! Common Emitter S-Parameters:                            Nov 2015
# GHz  S  MA  R  50
!  f         S11            S21            S12            S22
! GHz     MAG   ANG      MAG   ANG      MAG   ANG      MAG   ANG
 0.010  0.6062   -4.8  33.083  175.1  0.0015   87.2  0.9687   -2.0
 0.015  0.6020   -7.0  32.867  173.0  0.0024   87.5  0.9629   -3.2
 0.020  0.5987   -9.3  32.695  170.9  0.0033   87.7  0.9575   -4.5
 0.025  0.5926  -11.5  32.363  169.1  0.0041   85.1  0.9516   -5.5
 0.030  0.5874  -13.8  32.065  167.2  0.0050   83.4  0.9460   -6.6
 0.035  0.5831  -16.1  31.801  165.3  0.0058   82.2  0.9408   -7.6
 0.040  0.5798  -18.5  31.574  163.3  0.0067   81.3  0.9358   -8.7
 0.045  0.5775  -20.8  31.383  161.4  0.0075   80.7  0.9312   -9.7
 0.050  0.5762  -23.2  31.229  159.4  0.0084   80.1  0.9269  -10.8
 0.055  0.5656  -24.8  30.718  158.0  0.0091   79.0  0.9169  -11.5
 0.060  0.5555  -26.5  30.228  156.5  0.0097   78.1  0.9070  -12.2
 0.065  0.5458  -28.2  29.758  154.9  0.0104   77.3  0.8973  -13.0
 0.070  0.5367  -30.0  29.310  153.4  0.0111   76.6  0.8877  -13.7
 0.075  0.5281  -31.8  28.885  151.7  0.0118   76.0  0.8783  -14.5
 0.080  0.5201  -33.7  28.485  150.1  0.0125   75.4  0.8690  -15.3
 0.085  0.5127  -35.7  28.109  148.3  0.0131   74.9  0.8599  -16.1
 0.090  0.5059  -37.7  27.760  146.6  0.0138   74.5  0.8510  -16.9
 0.095  0.4997  -39.8  27.437  144.8  0.0145   74.1  0.8423  -17.7
 0.100  0.4942  -41.9  27.143  142.9  0.0152   73.7  0.8337  -18.6
 0.105  0.4845  -43.2  26.652  141.8  0.0158   73.4  0.8241  -19.0
 0.110  0.4751  -44.5  26.171  140.6  0.0163   73.1  0.8146  -19.4
 0.115  0.4659  -45.8  25.701  139.4  0.0169   72.9  0.8051  -19.8
 0.120  0.4569  -47.2  25.243  138.2  0.0175   72.6  0.7956  -20.2
 0.125  0.4483  -48.7  24.796  136.9  0.0180   72.4  0.7862  -20.6
 0.130  0.4400  -50.2  24.363  135.6  0.0186   72.2  0.7768  -21.0
 0.135  0.4320  -51.8  23.943  134.2  0.0192   72.0  0.7674  -21.4
 0.140  0.4243  -53.4  23.538  132.8  0.0198   71.8  0.7582  -21.9
 0.145  0.4170  -55.1  23.148  131.3  0.0203   71.7  0.7489  -22.3
 0.150  0.4101  -56.9  22.773  129.8  0.0209   71.5  0.7397  -22.8
 0.155  0.4036  -57.9  22.400  129.1  0.0213   71.4  0.7327  -22.9
 0.160  0.3973  -58.9  22.031  128.3  0.0218   71.3  0.7258  -23.1
 0.165  0.3911  -60.0  21.667  127.5  0.0222   71.2  0.7188  -23.2
 0.170  0.3850  -61.1  21.306  126.7  0.0227   71.1  0.7118  -23.4
 0.175  0.3791  -62.3  20.950  125.8  0.0231   71.1  0.7049  -23.6
 0.180  0.3733  -63.4  20.599  124.9  0.0235   71.0  0.6979  -23.7
 0.185  0.3678  -64.6  20.253  124.0  0.0240   70.9  0.6910  -23.9
 0.190  0.3623  -65.9  19.913  123.1  0.0244   70.8  0.6841  -24.1
 0.195  0.3571  -67.2  19.577  122.1  0.0249   70.8  0.6771  -24.2
 0.200  0.3520  -68.5  19.248  121.1  0.0253   70.7  0.6702  -24.4
 0.220  0.3276  -72.1  18.072  118.6  0.0271   70.3  0.6493  -24.6
 0.240  0.3047  -76.4  16.935  115.8  0.0288   69.9  0.6284  -24.8
 0.260  0.2855  -80.2  15.945  113.3  0.0306   70.0  0.6103  -24.9
 0.280  0.2691  -83.6  15.079  111.3  0.0325   70.5  0.5952  -24.8
 0.300  0.2538  -87.3  14.235  109.0  0.0343   71.0  0.5801  -24.8
 0.320  0.2419  -89.4  13.608  107.9  0.0360   71.1  0.5708  -24.6
 0.340  0.2304  -91.8  12.986  106.6  0.0377   71.2  0.5616  -24.5
 0.360  0.2192  -94.4  12.372  105.2  0.0393   71.3  0.5524  -24.3
 0.380  0.2086  -97.2  11.765  103.7  0.0410   71.3  0.5431  -24.1
 0.400  0.1986 -100.4  11.168  102.0  0.0427   71.4  0.5339  -23.9
 0.420  0.1908 -102.8  10.746  101.0  0.0444   71.6  0.5281  -23.8
 0.440  0.1835 -105.4  10.327   99.9  0.0461   71.7  0.5223  -23.6
 0.450  0.1799 -106.8  10.119   99.3  0.0469   71.8  0.5194  -23.6
 0.460  0.1765 -108.3   9.913   98.7  0.0477   71.8  0.5165  -23.5
 0.480  0.1700 -111.3   9.503   97.4  0.0494   72.0  0.5107  -23.3
 0.500  0.1640 -114.6   9.098   96.0  0.0511   72.1  0.5049  -23.2
 0.520  0.1588 -116.7   8.819   95.2  0.0529   72.2  0.5013  -23.1
 0.540  0.1538 -118.9   8.542   94.3  0.0546   72.3  0.4976  -23.1
 0.560  0.1490 -121.3   8.268   93.4  0.0564   72.4  0.4940  -23.0
 0.580  0.1446 -123.8   7.995   92.4  0.0581   72.4  0.4903  -23.0
 0.600  0.1404 -126.5   7.725   91.4  0.0599   72.5  0.4867  -22.9
 0.620  0.1364 -128.6   7.517   90.7  0.0617   72.5  0.4844  -22.9
 0.640  0.1327 -130.8   7.311   90.0  0.0634   72.6  0.4821  -22.9
 0.660  0.1291 -133.1   7.105   89.2  0.0652   72.6  0.4798  -22.9
 0.680  0.1258 -135.5   6.901   88.4  0.0669   72.7  0.4775  -22.9
 0.700  0.1227 -138.1   6.699   87.5  0.0687   72.7  0.4752  -22.9
 0.720  0.1212 -140.7   6.535   86.9  0.0704   72.6  0.4735  -22.9
 0.740  0.1200 -143.3   6.373   86.2  0.0721   72.4  0.4718  -22.9
 0.760  0.1190 -146.0   6.211   85.6  0.0739   72.3  0.4700  -22.9
 0.780  0.1183 -148.7   6.050   84.9  0.0756   72.2  0.4683  -22.9
 0.800  0.1179 -151.5   5.890   84.1  0.0773   72.1  0.4666  -22.9
 0.820  0.1153 -153.1   5.764   83.5  0.0792   72.1  0.4654  -23.0
 0.840  0.1129 -154.8   5.638   82.9  0.0811   72.0  0.4643  -23.1
 0.860  0.1105 -156.6   5.513   82.3  0.0830   72.0  0.4631  -23.2
 0.880  0.1082 -158.5   5.389   81.6  0.0849   71.9  0.4620  -23.3
 0.900  0.1061 -160.4   5.266   80.9  0.0868   71.9  0.4608  -23.4
 0.920  0.1054 -163.0   5.168   80.4  0.0884   71.9  0.4597  -23.5
 0.940  0.1049 -165.7   5.071   79.8  0.0901   71.8  0.4585  -23.6
 0.960  0.1046 -168.4   4.974   79.3  0.0917   71.8  0.4574  -23.8
 0.980  0.1045 -171.1   4.878   78.7  0.0934   71.7  0.4562  -23.9
 1.000  0.1047 -173.8   4.782   78.1  0.0950   71.7  0.4551  -24.0
 1.020  0.1057 -175.8   4.702   77.6  0.0969   71.6  0.4543  -24.2
 1.040  0.1067 -177.7   4.623   77.1  0.0988   71.5  0.4534  -24.4
 1.060  0.1079 -179.6   4.544   76.6  0.1008   71.4  0.4526  -24.5
 1.080  0.1093  178.5   4.466   76.1  0.1027   71.3  0.4517  -24.7
 1.100  0.1107  176.7   4.388   75.5  0.1046   71.2  0.4509  -24.9
 1.120  0.1109  174.7   4.320   75.0  0.1063   71.1  0.4500  -25.1
 1.140  0.1112  172.7   4.252   74.5  0.1081   71.0  0.4492  -25.3
 1.160  0.1116  170.8   4.184   73.9  0.1098   71.0  0.4483  -25.4
 1.180  0.1122  168.8   4.117   73.4  0.1116   70.9  0.4475  -25.6
 1.200  0.1129  166.9   4.050   72.8  0.1133   70.8  0.4466  -25.8
 1.220  0.1130  165.7   3.987   72.4  0.1152   70.6  0.4459  -26.0
 1.240  0.1131  164.4   3.924   71.9  0.1170   70.4  0.4451  -26.2
 1.260  0.1133  163.2   3.861   71.5  0.1189   70.2  0.4444  -26.3
 1.280  0.1135  161.9   3.799   71.0  0.1207   70.1  0.4436  -26.5
 1.300  0.1138  160.7   3.737   70.5  0.1226   69.9  0.4429  -26.7
 1.320  0.1151  159.3   3.687   70.0  0.1242   69.8  0.4421  -26.9
 1.340  0.1164  157.8   3.638   69.6  0.1259   69.7  0.4414  -27.2
 1.360  0.1178  156.5   3.589   69.1  0.1275   69.6  0.4407  -27.4
 1.380  0.1193  155.1   3.540   68.6  0.1292   69.5  0.4399  -27.7
 1.400  0.1208  153.8   3.491   68.1  0.1308   69.4  0.4392  -27.9
 1.420  0.1210  152.8   3.451   67.7  0.1327   69.3  0.4385  -28.1
 1.440  0.1212  151.8   3.411   67.3  0.1346   69.1  0.4378  -28.3
 1.460  0.1214  150.8   3.371   66.8  0.1365   69.0  0.4371  -28.6
 1.480  0.1217  149.8   3.331   66.4  0.1384   68.9  0.4365  -28.8
 1.500  0.1220  148.8   3.292   65.9  0.1403   68.8  0.4358  -29.0
 1.520  0.1240  147.4   3.251   65.4  0.1422   68.6  0.4350  -29.2
 1.540  0.1260  146.1   3.211   64.9  0.1441   68.4  0.4341  -29.5
 1.560  0.1281  144.8   3.171   64.4  0.1460   68.2  0.4333  -29.7
 1.580  0.1302  143.6   3.131   63.8  0.1479   68.1  0.4325  -30.0
 1.600  0.1324  142.4   3.091   63.3  0.1498   67.9  0.4317  -30.2
 1.620  0.1344  141.2   3.059   62.9  0.1515   67.7  0.4308  -30.4
 1.640  0.1365  140.1   3.026   62.4  0.1532   67.6  0.4299  -30.7
 1.660  0.1387  138.9   2.994   62.0  0.1549   67.4  0.4290  -30.9
 1.680  0.1409  137.9   2.963   61.6  0.1566   67.3  0.4281  -31.2
 1.700  0.1431  136.8   2.931   61.1  0.1583   67.1  0.4272  -31.4
 1.720  0.1449  135.7   2.904   60.7  0.1601   66.9  0.4264  -31.7
 1.740  0.1467  134.6   2.876   60.3  0.1619   66.7  0.4257  -32.0
 1.760  0.1486  133.5   2.849   59.9  0.1638   66.5  0.4249  -32.3
 1.780  0.1505  132.5   2.822   59.5  0.1656   66.4  0.4242  -32.6
 1.800  0.1525  131.5   2.795   59.1  0.1674   66.2  0.4235  -32.9
 1.820  0.1538  131.2   2.769   58.7  0.1693   66.1  0.4225  -33.2
 1.840  0.1550  131.0   2.744   58.2  0.1711   65.9  0.4215  -33.5
 1.860  0.1563  130.7   2.719   57.7  0.1730   65.8  0.4205  -33.8
 1.880  0.1575  130.5   2.694   57.3  0.1748   65.6  0.4195  -34.1
 1.900  0.1588  130.2   2.669   56.8  0.1767   65.5  0.4185  -34.4
 1.920  0.1604  129.6   2.644   56.4  0.1785   65.3  0.4177  -34.7
 1.940  0.1620  129.0   2.619   56.0  0.1804   65.0  0.4169  -35.0
 1.960  0.1637  128.4   2.594   55.6  0.1822   64.8  0.4161  -35.2
 1.980  0.1653  127.8   2.570   55.2  0.1841   64.6  0.4154  -35.5
 2.000  0.1670  127.2   2.545   54.8  0.1859   64.4  0.4146  -35.8
 2.020  0.1686  126.5   2.524   54.4  0.1877   64.2  0.4134  -36.1
 2.040  0.1703  125.9   2.503   54.0  0.1896   64.0  0.4122  -36.4
 2.060  0.1720  125.2   2.483   53.6  0.1914   63.9  0.4111  -36.7
 2.080  0.1737  124.6   2.462   53.2  0.1933   63.7  0.4099  -37.0
 2.100  0.1755  124.0   2.441   52.8  0.1951   63.5  0.4088  -37.3
 2.120  0.1772  123.4   2.421   52.4  0.1970   63.3  0.4077  -37.6
 2.140  0.1790  122.8   2.401   52.0  0.1988   63.2  0.4066  -38.0
 2.160  0.1808  122.2   2.381   51.6  0.2007   63.0  0.4055  -38.3
 2.180  0.1826  121.7   2.361   51.1  0.2025   62.9  0.4044  -38.6
 2.200  0.1844  121.1   2.341   50.7  0.2044   62.7  0.4033  -38.9
 2.220  0.1864  120.5   2.325   50.3  0.2062   62.5  0.4019  -39.2
 2.240  0.1884  119.9   2.309   49.9  0.2080   62.3  0.4006  -39.5
 2.260  0.1905  119.3   2.294   49.5  0.2098   62.1  0.3993  -39.9
 2.280  0.1926  118.7   2.278   49.1  0.2117   61.9  0.3979  -40.2
 2.300  0.1947  118.1   2.263   48.7  0.2135   61.7  0.3966  -40.5
 2.320  0.1968  117.5   2.248   48.2  0.2153   61.5  0.3953  -40.9
 2.340  0.1989  117.0   2.233   47.8  0.2171   61.3  0.3941  -41.2
 2.360  0.2011  116.4   2.218   47.4  0.2189   61.2  0.3928  -41.5
 2.380  0.2032  115.9   2.203   46.9  0.2208   61.0  0.3915  -41.9
 2.400  0.2054  115.4   2.188   46.5  0.2226   60.8  0.3903  -42.2
 2.420  0.2080  114.9   2.173   46.1  0.2245   60.6  0.3888  -42.5
 2.440  0.2106  114.5   2.159   45.8  0.2263   60.4  0.3872  -42.9
 2.460  0.2132  114.1   2.145   45.4  0.2282   60.2  0.3857  -43.2
 2.480  0.2158  113.6   2.130   45.0  0.2301   60.0  0.3842  -43.6
 2.500  0.2184  113.2   2.116   44.7  0.2320   59.8  0.3827  -43.9
 2.520  0.2210  112.8   2.102   44.3  0.2338   59.6  0.3812  -44.3
 2.540  0.2237  112.4   2.088   43.9  0.2357   59.4  0.3798  -44.6
 2.560  0.2264  112.0   2.074   43.5  0.2376   59.2  0.3783  -45.0
 2.580  0.2290  111.7   2.061   43.1  0.2395   59.0  0.3769  -45.3
 2.600  0.2317  111.3   2.047   42.7  0.2414   58.8  0.3755  -45.7
 2.620  0.2336  110.9   2.036   42.3  0.2432   58.6  0.3740  -46.1
 2.640  0.2355  110.6   2.024   42.0  0.2450   58.4  0.3726  -46.4
 2.660  0.2374  110.2   2.013   41.6  0.2468   58.2  0.3712  -46.8
 2.680  0.2393  109.8   2.002   41.3  0.2486   58.0  0.3698  -47.2
 2.700  0.2412  109.5   1.990   40.9  0.2505   57.8  0.3684  -47.6
 2.720  0.2431  109.1   1.979   40.5  0.2523   57.6  0.3670  -47.9
 2.740  0.2450  108.8   1.968   40.2  0.2541   57.4  0.3657  -48.3
 2.760  0.2470  108.5   1.958   39.8  0.2559   57.2  0.3643  -48.7
 2.780  0.2489  108.1   1.947   39.4  0.2578   57.0  0.3630  -49.1
 2.800  0.2509  107.8   1.936   39.0  0.2596   56.8  0.3617  -49.5
 2.820  0.2529  107.5   1.925   38.6  0.2614   56.6  0.3599  -49.9
 2.840  0.2550  107.3   1.914   38.3  0.2633   56.4  0.3582  -50.3
 2.860  0.2571  107.0   1.902   37.9  0.2651   56.1  0.3564  -50.7
 2.880  0.2591  106.8   1.891   37.5  0.2670   55.9  0.3547  -51.1
 2.900  0.2612  106.6   1.880   37.2  0.2688   55.7  0.3530  -51.5
 2.920  0.2633  106.3   1.870   36.8  0.2707   55.5  0.3513  -51.9
 2.940  0.2653  106.1   1.859   36.4  0.2725   55.3  0.3496  -52.3
 2.960  0.2674  105.9   1.848   36.0  0.2744   55.1  0.3480  -52.7
 2.980  0.2695  105.6   1.838   35.6  0.2762   54.9  0.3463  -53.1
 3.000  0.2716  105.4   1.827   35.2  0.2781   54.7  0.3447  -53.5
 3.100  0.2843  104.0   1.782   33.6  0.2871   53.5  0.3343  -55.7
 3.200  0.2971  102.6   1.739   31.9  0.2961   52.3  0.3245  -58.1
 3.300  0.3101  101.4   1.698   30.1  0.3053   51.3  0.3152  -60.6
 3.400  0.3233  100.3   1.658   28.2  0.3146   50.3  0.3066  -63.3
 3.500  0.3365   99.3   1.620   26.2  0.3240   49.3  0.2987  -66.1
 3.600  0.3478   98.0   1.587   24.6  0.3328   48.0  0.2874  -69.0
 3.700  0.3592   96.8   1.556   23.0  0.3418   46.8  0.2769  -72.2
 3.800  0.3708   95.7   1.526   21.2  0.3509   45.6  0.2673  -75.5
 3.900  0.3825   94.7   1.497   19.5  0.3602   44.5  0.2587  -79.2
 4.000  0.3943   93.7   1.470   17.6  0.3696   43.5  0.2512  -83.0
 4.100  0.4053   92.6   1.443   16.1  0.3780   42.2  0.2408  -86.7
 4.200  0.4164   91.6   1.416   14.5  0.3866   40.9  0.2315  -90.7
 4.300  0.4277   90.7   1.391   12.9  0.3954   39.7  0.2234  -95.0
 4.400  0.4390   89.8   1.367   11.2  0.4043   38.6  0.2166  -99.5
 4.500  0.4505   88.9   1.344    9.5  0.4134   37.5  0.2113 -104.4
 4.600  0.4597   87.8   1.322    8.1  0.4212   36.2  0.2041 -108.9
 4.700  0.4690   86.8   1.302    6.6  0.4293   34.9  0.1983 -113.7
 4.800  0.4785   85.8   1.282    5.0  0.4375   33.7  0.1939 -118.7
 4.900  0.4882   84.9   1.263    3.4  0.4460   32.5  0.1911 -124.0
 5.000  0.4979   84.0   1.245    1.8  0.4546   31.4  0.1899 -129.3
 5.100  0.5065   83.0   1.224    0.5  0.4617   30.0  0.1865 -134.7
 5.200  0.5153   82.1   1.203   -0.9  0.4691   28.7  0.1847 -140.3
 5.300  0.5243   81.1   1.183   -2.3  0.4767   27.4  0.1847 -145.9
 5.400  0.5333   80.3   1.164   -3.8  0.4845   26.2  0.1865 -151.4
 5.500  0.5425   79.4   1.146   -5.3  0.4926   25.0  0.1900 -156.8
 5.600  0.5514   78.2   1.127   -6.6  0.4977   23.5  0.1878 -161.8
 5.700  0.5605   77.1   1.108   -8.0  0.5032   22.1  0.1872 -167.0
 5.800  0.5698   76.0   1.089   -9.4  0.5090   20.6  0.1880 -172.1
 5.900  0.5793   74.9   1.072  -10.8  0.5150   19.3  0.1903 -177.1
 6.000  0.5890   73.9   1.055  -12.3  0.5214   17.9  0.1940  178.0
!
!  f       NFmin   Gammaopt  rn/50
! GHz       dB    MAG  ANG    -
!
! noise parameter not available yet for this operation point!
!
! (c) 2015  Infineon Technologies AG, Munich
