! Infineon Technologies  Discrete & RF Semiconductors
! BFR106
! VCE =  2.0 V,  IC =  90 mA
! Common Emitter S-Parameters:                            Nov 2015
# GHz  S  MA  R  50
!  f         S11            S21            S12            S22
! GHz     MAG   ANG      MAG   ANG      MAG   ANG      MAG   ANG
 0.010  0.2177  -97.0  76.024  157.6  0.0048   76.2  0.8096  -24.3
 0.015  0.2777 -112.8  69.150  150.0  0.0064   70.9  0.7420  -33.9
 0.020  0.3510 -122.5  63.747  140.9  0.0081   67.7  0.6989  -45.0
 0.025  0.3685 -128.6  58.722  138.4  0.0091   65.8  0.6414  -48.6
 0.030  0.3898 -134.1  53.832  135.4  0.0101   64.2  0.5870  -52.9
 0.035  0.4143 -139.0  49.117  131.8  0.0112   63.0  0.5366  -58.1
 0.040  0.4415 -143.3  44.634  127.5  0.0122   61.9  0.4914  -64.3
 0.045  0.4708 -147.1  40.457  122.3  0.0133   61.1  0.4530  -71.6
 0.050  0.5020 -150.4  36.694  115.9  0.0143   60.3  0.4233  -80.1
 0.055  0.5060 -152.1  34.977  115.1  0.0151   60.8  0.4044  -81.9
 0.060  0.5104 -153.9  33.267  114.2  0.0159   61.3  0.3858  -83.9
 0.065  0.5152 -155.5  31.567  113.2  0.0167   61.8  0.3678  -86.0
 0.070  0.5205 -157.2  29.877  112.1  0.0175   62.2  0.3504  -88.4
 0.075  0.5263 -158.8  28.200  110.8  0.0183   62.6  0.3336  -91.0
 0.080  0.5324 -160.4  26.538  109.4  0.0191   62.9  0.3176  -93.9
 0.085  0.5389 -161.9  24.895  107.8  0.0199   63.2  0.3025  -97.1
 0.090  0.5458 -163.4  23.273  106.0  0.0207   63.5  0.2885 -100.6
 0.095  0.5531 -164.9  21.678  103.9  0.0215   63.8  0.2756 -104.5
 0.100  0.5607 -166.3  20.116  101.5  0.0223   64.0  0.2641 -108.7
 0.105  0.5614 -167.1  19.461  101.0  0.0231   64.7  0.2587 -110.1
 0.110  0.5622 -167.8  18.808  100.5  0.0239   65.3  0.2534 -111.5
 0.115  0.5631 -168.5  18.156  100.0  0.0247   65.9  0.2483 -113.0
 0.120  0.5641 -169.3  17.506   99.4  0.0255   66.5  0.2433 -114.6
 0.125  0.5652 -170.0  16.857   98.8  0.0263   67.0  0.2386 -116.2
 0.130  0.5663 -170.8  16.211   98.1  0.0271   67.5  0.2340 -117.9
 0.135  0.5676 -171.5  15.567   97.4  0.0279   68.0  0.2297 -119.7
 0.140  0.5690 -172.2  14.926   96.6  0.0287   68.4  0.2256 -121.5
 0.145  0.5704 -173.0  14.288   95.7  0.0295   68.8  0.2217 -123.4
 0.150  0.5720 -173.7  13.654   94.8  0.0303   69.2  0.2181 -125.4
 0.155  0.5726 -174.1  13.322   94.5  0.0311   69.4  0.2151 -126.3
 0.160  0.5732 -174.4  12.991   94.2  0.0319   69.7  0.2122 -127.1
 0.165  0.5739 -174.8  12.660   93.8  0.0327   69.9  0.2093 -128.0
 0.170  0.5746 -175.1  12.330   93.5  0.0335   70.1  0.2065 -129.0
 0.175  0.5753 -175.5  12.000   93.1  0.0342   70.3  0.2037 -129.9
 0.180  0.5760 -175.8  11.671   92.7  0.0350   70.4  0.2010 -130.9
 0.185  0.5767 -176.2  11.343   92.2  0.0358   70.6  0.1984 -131.9
 0.190  0.5775 -176.5  11.015   91.8  0.0366   70.8  0.1958 -132.9
 0.195  0.5783 -176.9  10.687   91.3  0.0374   70.9  0.1933 -134.0
 0.200  0.5791 -177.2  10.361   90.8  0.0382   71.1  0.1908 -135.1
 0.220  0.5803 -178.6   9.521   89.7  0.0415   71.5  0.1861 -138.6
 0.240  0.5819 -179.9   8.686   88.4  0.0448   71.9  0.1822 -142.3
 0.260  0.5825  179.0   8.001   87.2  0.0481   72.4  0.1796 -145.2
 0.280  0.5820  178.1   7.466   86.3  0.0514   72.8  0.1781 -147.1
 0.300  0.5816  177.2   6.932   85.2  0.0548   73.2  0.1767 -149.1
 0.320  0.5823  176.3   6.593   84.5  0.0582   73.2  0.1753 -150.8
 0.340  0.5832  175.4   6.254   83.8  0.0616   73.2  0.1740 -152.5
 0.360  0.5842  174.4   5.917   83.0  0.0650   73.3  0.1729 -154.2
 0.380  0.5854  173.5   5.581   82.0  0.0684   73.3  0.1719 -155.9
 0.400  0.5867  172.6   5.247   81.0  0.0718   73.3  0.1711 -157.7
 0.420  0.5870  171.9   5.039   80.3  0.0752   73.2  0.1705 -158.7
 0.440  0.5874  171.2   4.831   79.6  0.0785   73.1  0.1700 -159.8
 0.450  0.5876  170.8   4.728   79.2  0.0802   73.0  0.1698 -160.3
 0.460  0.5879  170.5   4.624   78.8  0.0819   73.0  0.1695 -160.9
 0.480  0.5884  169.8   4.419   77.9  0.0852   72.9  0.1691 -161.9
 0.500  0.5891  169.1   4.214   76.9  0.0886   72.8  0.1688 -163.0
 0.520  0.5895  168.3   4.078   76.2  0.0920   72.6  0.1690 -163.7
 0.540  0.5900  167.6   3.942   75.5  0.0954   72.4  0.1692 -164.4
 0.560  0.5906  166.8   3.806   74.8  0.0987   72.2  0.1694 -165.0
 0.580  0.5913  166.1   3.672   74.0  0.1021   72.0  0.1696 -165.7
 0.600  0.5921  165.3   3.538   73.1  0.1055   71.8  0.1699 -166.4
 0.620  0.5924  164.6   3.441   72.4  0.1088   71.5  0.1706 -167.0
 0.640  0.5928  163.9   3.344   71.7  0.1121   71.2  0.1712 -167.6
 0.660  0.5933  163.2   3.248   70.9  0.1153   71.0  0.1719 -168.2
 0.680  0.5939  162.5   3.152   70.1  0.1186   70.7  0.1727 -168.8
 0.700  0.5946  161.8   3.057   69.2  0.1219   70.5  0.1734 -169.4
 0.720  0.5947  161.2   2.984   68.6  0.1251   70.1  0.1740 -170.1
 0.740  0.5949  160.7   2.911   68.1  0.1283   69.8  0.1746 -170.8
 0.760  0.5951  160.1   2.838   67.4  0.1315   69.5  0.1752 -171.5
 0.780  0.5954  159.6   2.766   66.8  0.1348   69.2  0.1759 -172.2
 0.800  0.5957  159.0   2.694   66.1  0.1380   68.9  0.1766 -172.9
 0.820  0.5957  158.3   2.638   65.5  0.1414   68.6  0.1767 -173.4
 0.840  0.5958  157.7   2.583   64.9  0.1448   68.3  0.1767 -173.9
 0.860  0.5959  157.0   2.527   64.2  0.1482   68.0  0.1768 -174.5
 0.880  0.5962  156.4   2.473   63.5  0.1516   67.7  0.1769 -175.0
 0.900  0.5965  155.7   2.418   62.8  0.1550   67.4  0.1770 -175.5
 0.920  0.5970  155.0   2.373   62.2  0.1581   67.1  0.1779 -175.8
 0.940  0.5975  154.3   2.327   61.6  0.1612   66.8  0.1789 -176.2
 0.960  0.5982  153.5   2.283   60.9  0.1643   66.5  0.1798 -176.5
 0.980  0.5990  152.8   2.238   60.2  0.1674   66.2  0.1807 -176.9
 1.000  0.5998  152.1   2.194   59.5  0.1705   65.9  0.1817 -177.2
 1.020  0.6011  151.5   2.158   58.9  0.1737   65.6  0.1830 -177.6
 1.040  0.6024  151.0   2.123   58.2  0.1769   65.2  0.1843 -178.0
 1.060  0.6038  150.4   2.088   57.6  0.1801   64.9  0.1856 -178.4
 1.080  0.6053  149.9   2.053   56.9  0.1833   64.6  0.1870 -178.8
 1.100  0.6068  149.3   2.018   56.2  0.1865   64.3  0.1883 -179.2
 1.120  0.6076  148.7   1.989   55.6  0.1895   63.9  0.1891 -179.7
 1.140  0.6084  148.1   1.960   55.1  0.1926   63.6  0.1899  179.8
 1.160  0.6094  147.5   1.931   54.5  0.1957   63.2  0.1907  179.3
 1.180  0.6103  146.9   1.902   53.8  0.1987   62.9  0.1916  178.8
 1.200  0.6114  146.3   1.874   53.2  0.2018   62.6  0.1924  178.3
 1.220  0.6116  145.7   1.847   52.6  0.2049   62.2  0.1932  177.9
 1.240  0.6118  145.1   1.821   52.1  0.2081   61.8  0.1940  177.4
 1.260  0.6121  144.6   1.794   51.5  0.2112   61.5  0.1949  177.0
 1.280  0.6125  144.0   1.768   50.8  0.2143   61.1  0.1957  176.6
 1.300  0.6129  143.4   1.742   50.2  0.2175   60.8  0.1966  176.2
 1.320  0.6134  142.9   1.721   49.7  0.2204   60.4  0.1977  175.9
 1.340  0.6140  142.4   1.700   49.2  0.2232   60.1  0.1988  175.5
 1.360  0.6146  142.0   1.679   48.7  0.2261   59.8  0.1999  175.2
 1.380  0.6153  141.5   1.658   48.2  0.2290   59.4  0.2011  174.9
 1.400  0.6160  141.0   1.637   47.7  0.2319   59.1  0.2022  174.6
 1.420  0.6164  140.5   1.621   47.1  0.2348   58.7  0.2036  174.3
 1.440  0.6169  140.0   1.605   46.5  0.2378   58.4  0.2049  173.9
 1.460  0.6174  139.4   1.590   45.9  0.2408   58.1  0.2063  173.6
 1.480  0.6180  138.9   1.574   45.3  0.2437   57.7  0.2077  173.2
 1.500  0.6186  138.4   1.559   44.7  0.2467   57.4  0.2091  172.9
 1.520  0.6189  137.8   1.540   44.1  0.2495   57.0  0.2105  172.4
 1.540  0.6192  137.2   1.521   43.6  0.2523   56.7  0.2118  172.0
 1.560  0.6197  136.7   1.502   43.0  0.2552   56.3  0.2132  171.5
 1.580  0.6202  136.1   1.483   42.4  0.2580   55.9  0.2146  171.0
 1.600  0.6207  135.5   1.465   41.8  0.2609   55.6  0.2160  170.6
 1.620  0.6221  134.9   1.451   41.3  0.2636   55.2  0.2172  170.1
 1.640  0.6236  134.4   1.437   40.7  0.2664   54.9  0.2185  169.6
 1.660  0.6251  133.8   1.423   40.2  0.2691   54.6  0.2197  169.1
 1.680  0.6267  133.3   1.409   39.6  0.2718   54.2  0.2210  168.6
 1.700  0.6284  132.7   1.395   39.0  0.2746   53.9  0.2223  168.1
 1.720  0.6293  132.2   1.384   38.6  0.2773   53.5  0.2234  167.8
 1.740  0.6302  131.7   1.372   38.1  0.2800   53.1  0.2246  167.4
 1.760  0.6312  131.1   1.361   37.7  0.2827   52.7  0.2258  167.1
 1.780  0.6323  130.6   1.350   37.3  0.2855   52.4  0.2269  166.7
 1.800  0.6334  130.1   1.339   36.8  0.2882   52.0  0.2281  166.4
 1.820  0.6344  129.6   1.327   36.3  0.2909   51.6  0.2301  166.0
 1.840  0.6354  129.1   1.316   35.8  0.2937   51.3  0.2321  165.7
 1.860  0.6364  128.7   1.304   35.3  0.2964   51.0  0.2341  165.4
 1.880  0.6376  128.2   1.293   34.7  0.2992   50.6  0.2361  165.0
 1.900  0.6387  127.7   1.282   34.2  0.3020   50.3  0.2381  164.7
 1.920  0.6390  127.2   1.272   33.7  0.3046   49.9  0.2401  164.2
 1.940  0.6394  126.7   1.262   33.2  0.3072   49.6  0.2422  163.7
 1.960  0.6399  126.1   1.252   32.7  0.3099   49.2  0.2442  163.2
 1.980  0.6404  125.6   1.242   32.1  0.3125   48.8  0.2463  162.8
 2.000  0.6409  125.1   1.232   31.6  0.3152   48.5  0.2484  162.3
 2.020  0.6418  124.6   1.223   31.2  0.3176   48.1  0.2498  161.8
 2.040  0.6427  124.1   1.214   30.7  0.3200   47.8  0.2512  161.4
 2.060  0.6436  123.6   1.205   30.3  0.3225   47.4  0.2526  160.9
 2.080  0.6446  123.2   1.196   29.8  0.3249   47.1  0.2541  160.5
 2.100  0.6456  122.7   1.188   29.3  0.3274   46.7  0.2556  160.0
 2.120  0.6467  122.2   1.179   28.9  0.3299   46.4  0.2570  159.6
 2.140  0.6478  121.7   1.170   28.4  0.3324   46.1  0.2585  159.2
 2.160  0.6490  121.2   1.162   27.9  0.3349   45.7  0.2600  158.7
 2.180  0.6502  120.8   1.153   27.4  0.3374   45.4  0.2616  158.3
 2.200  0.6515  120.3   1.145   26.9  0.3399   45.1  0.2631  157.9
 2.220  0.6521  119.8   1.138   26.5  0.3422   44.7  0.2654  157.4
 2.240  0.6528  119.3   1.131   26.0  0.3445   44.4  0.2677  156.9
 2.260  0.6535  118.8   1.124   25.6  0.3468   44.0  0.2700  156.4
 2.280  0.6543  118.2   1.117   25.1  0.3491   43.6  0.2723  156.0
 2.300  0.6551  117.7   1.110   24.6  0.3515   43.3  0.2747  155.5
 2.320  0.6560  117.2   1.103   24.1  0.3538   42.9  0.2770  155.0
 2.340  0.6569  116.7   1.097   23.7  0.3562   42.6  0.2794  154.6
 2.360  0.6579  116.2   1.090   23.2  0.3586   42.3  0.2818  154.2
 2.380  0.6589  115.7   1.083   22.7  0.3610   41.9  0.2843  153.7
 2.400  0.6600  115.2   1.077   22.2  0.3634   41.6  0.2867  153.3
 2.420  0.6615  114.7   1.070   21.8  0.3654   41.2  0.2883  152.9
 2.440  0.6630  114.3   1.064   21.5  0.3674   40.9  0.2899  152.4
 2.460  0.6646  113.8   1.057   21.1  0.3695   40.5  0.2915  152.0
 2.480  0.6662  113.3   1.051   20.7  0.3715   40.2  0.2931  151.6
 2.500  0.6679  112.9   1.044   20.3  0.3736   39.9  0.2948  151.2
 2.520  0.6696  112.4   1.038   19.9  0.3757   39.5  0.2964  150.8
 2.540  0.6713  112.0   1.032   19.5  0.3778   39.2  0.2981  150.4
 2.560  0.6731  111.5   1.025   19.1  0.3799   38.9  0.2998  150.0
 2.580  0.6749  111.0   1.019   18.7  0.3820   38.5  0.3015  149.6
 2.600  0.6768  110.6   1.013   18.3  0.3841   38.2  0.3032  149.2
 2.620  0.6774  110.2   1.008   17.9  0.3860   37.8  0.3057  148.7
 2.640  0.6780  109.8   1.002   17.6  0.3879   37.5  0.3082  148.3
 2.660  0.6786  109.4   0.997   17.2  0.3898   37.1  0.3107  147.8
 2.680  0.6793  108.9   0.991   16.8  0.3918   36.8  0.3132  147.4
 2.700  0.6800  108.5   0.986   16.5  0.3937   36.5  0.3158  147.0
 2.720  0.6808  108.1   0.981   16.1  0.3957   36.1  0.3183  146.5
 2.740  0.6815  107.7   0.975   15.7  0.3977   35.8  0.3209  146.1
 2.760  0.6824  107.3   0.970   15.3  0.3997   35.5  0.3235  145.7
 2.780  0.6832  106.9   0.965   14.9  0.4017   35.1  0.3262  145.3
 2.800  0.6841  106.5   0.960   14.5  0.4037   34.8  0.3288  144.9
 2.820  0.6855  106.1   0.955   14.1  0.4055   34.4  0.3307  144.5
 2.840  0.6869  105.7   0.950   13.8  0.4072   34.1  0.3325  144.0
 2.860  0.6883  105.3   0.945   13.4  0.4090   33.7  0.3344  143.6
 2.880  0.6898  104.9   0.940   13.0  0.4108   33.4  0.3363  143.2
 2.900  0.6913  104.5   0.934   12.7  0.4126   33.1  0.3382  142.8
 2.920  0.6928  104.1   0.930   12.3  0.4144   32.7  0.3402  142.4
 2.940  0.6944  103.7   0.925   11.9  0.4163   32.4  0.3421  142.0
 2.960  0.6960  103.3   0.920   11.5  0.4181   32.1  0.3441  141.6
 2.980  0.6976  102.9   0.915   11.1  0.4200   31.7  0.3461  141.2
 3.000  0.6993  102.5   0.910   10.7  0.4219   31.4  0.3481  140.8
 3.100  0.7034  100.7   0.890    9.3  0.4289   29.7  0.3596  138.7
 3.200  0.7083   98.9   0.870    7.8  0.4363   28.1  0.3715  136.7
 3.300  0.7138   97.1   0.851    6.2  0.4440   26.6  0.3839  134.8
 3.400  0.7200   95.3   0.833    4.6  0.4520   25.1  0.3966  133.0
 3.500  0.7269   93.6   0.815    2.9  0.4603   23.6  0.4097  131.4
 3.600  0.7305   92.0   0.799    1.8  0.4649   22.0  0.4209  129.3
 3.700  0.7347   90.5   0.784    0.6  0.4699   20.5  0.4326  127.3
 3.800  0.7394   89.0   0.769   -0.7  0.4752   19.0  0.4448  125.4
 3.900  0.7446   87.5   0.755   -2.0  0.4808   17.5  0.4575  123.7
 4.000  0.7503   86.0   0.741   -3.3  0.4867   16.1  0.4706  122.0
 4.100  0.7522   84.7   0.730   -4.4  0.4894   14.7  0.4775  120.2
 4.200  0.7545   83.5   0.719   -5.4  0.4923   13.4  0.4848  118.5
 4.300  0.7571   82.2   0.708   -6.6  0.4956   12.0  0.4925  116.9
 4.400  0.7601   80.9   0.697   -7.7  0.4990   10.7  0.5006  115.3
 4.500  0.7635   79.7   0.687   -8.9  0.5028    9.4  0.5091  113.7
 4.600  0.7649   78.5   0.678   -9.7  0.5051    8.2  0.5148  112.1
 4.700  0.7666   77.3   0.669  -10.6  0.5076    7.0  0.5209  110.6
 4.800  0.7686   76.1   0.661  -11.4  0.5103    5.8  0.5274  109.1
 4.900  0.7710   75.0   0.652  -12.3  0.5133    4.7  0.5342  107.6
 5.000  0.7737   73.8   0.644  -13.2  0.5164    3.5  0.5414  106.2
 5.100  0.7718   72.7   0.637  -13.3  0.5184    3.0  0.5386  105.9
 5.200  0.7702   71.6   0.630  -13.4  0.5204    2.4  0.5357  105.7
 5.300  0.7689   70.5   0.624  -13.6  0.5224    1.9  0.5329  105.4
 5.400  0.7679   69.4   0.617  -13.7  0.5245    1.3  0.5301  105.2
 5.500  0.7672   68.3   0.610  -13.8  0.5267    0.8  0.5273  104.9
 5.600  0.7666   67.5   0.609  -14.7  0.5313   -0.6  0.5411  103.4
 5.700  0.7662   66.7   0.608  -15.6  0.5363   -2.0  0.5552  102.0
 5.800  0.7659   66.0   0.607  -16.6  0.5415   -3.3  0.5697  100.7
 5.900  0.7657   65.2   0.606  -17.5  0.5471   -4.6  0.5844   99.4
 6.000  0.7657   64.4   0.606  -18.4  0.5529   -5.9  0.5994   98.2
!
!  f       NFmin   Gammaopt  rn/50
! GHz       dB    MAG  ANG    -
!
! noise parameter not available yet for this operation point!
!
! (c) 2015  Infineon Technologies AG, Munich
