! Infineon Technologies  Discrete & RF Semiconductors
! BFR193W
! VCE =  8.0 V,  IC =  20 mA
! Common Emitter S-Parameters:                            Nov 2015
# GHz  S  MA  R  50
!  f         S11            S21            S12            S22
! GHz     MAG   ANG      MAG   ANG      MAG   ANG      MAG   ANG
 0.100  0.5590  -84.9  29.144  131.4  0.0259   59.5  0.6681  -44.8
 0.105  0.5511  -87.1  28.445  130.4  0.0265   59.1  0.6529  -45.6
 0.110  0.5441  -89.4  27.755  129.4  0.0271   58.6  0.6379  -46.4
 0.115  0.5380  -91.7  27.073  128.4  0.0277   58.2  0.6231  -47.3
 0.120  0.5327  -94.0  26.402  127.3  0.0283   57.8  0.6083  -48.2
 0.125  0.5284  -96.4  25.740  126.1  0.0289   57.5  0.5938  -49.2
 0.130  0.5250  -98.9  25.090  124.9  0.0295   57.1  0.5794  -50.2
 0.135  0.5225 -101.3  24.452  123.6  0.0302   56.8  0.5652  -51.3
 0.140  0.5211 -103.8  23.827  122.2  0.0308   56.4  0.5512  -52.4
 0.145  0.5206 -106.3  23.216  120.8  0.0314   56.1  0.5374  -53.6
 0.150  0.5211 -108.8  22.620  119.3  0.0320   55.8  0.5239  -54.8
 0.155  0.5176 -110.3  22.161  118.6  0.0324   55.7  0.5141  -55.3
 0.160  0.5145 -111.8  21.705  118.0  0.0329   55.6  0.5042  -55.8
 0.165  0.5118 -113.3  21.253  117.3  0.0333   55.5  0.4945  -56.4
 0.170  0.5094 -114.8  20.803  116.5  0.0338   55.4  0.4848  -57.0
 0.175  0.5073 -116.4  20.358  115.7  0.0342   55.3  0.4751  -57.6
 0.180  0.5057 -117.9  19.916  114.9  0.0346   55.2  0.4655  -58.2
 0.185  0.5044 -119.5  19.479  114.1  0.0351   55.1  0.4560  -58.9
 0.190  0.5035 -121.0  19.046  113.2  0.0355   55.0  0.4465  -59.5
 0.195  0.5029 -122.6  18.617  112.3  0.0360   54.9  0.4371  -60.3
 0.200  0.5028 -124.2  18.194  111.3  0.0364   54.8  0.4277  -61.0
 0.220  0.4959 -128.5  16.928  109.3  0.0382   55.3  0.3996  -62.5
 0.240  0.4920 -133.0  15.684  107.1  0.0399   55.7  0.3718  -64.3
 0.260  0.4888 -136.8  14.621  105.1  0.0416   56.1  0.3488  -65.7
 0.280  0.4852 -140.0  13.725  103.4  0.0432   56.6  0.3305  -66.7
 0.300  0.4832 -143.2  12.842  101.6  0.0448   57.0  0.3123  -67.8
 0.320  0.4809 -145.6  12.231  100.6  0.0464   57.6  0.2996  -68.4
 0.340  0.4794 -148.0  11.625   99.5  0.0480   58.2  0.2869  -69.0
 0.360  0.4788 -150.4  11.023   98.3  0.0496   58.8  0.2743  -69.7
 0.380  0.4790 -152.9  10.427   96.9  0.0512   59.3  0.2617  -70.5
 0.400  0.4801 -155.3   9.837   95.4  0.0528   59.8  0.2491  -71.3
 0.420  0.4796 -156.9   9.459   94.6  0.0546   60.3  0.2416  -71.7
 0.440  0.4794 -158.5   9.083   93.8  0.0563   60.8  0.2341  -72.1
 0.450  0.4795 -159.3   8.896   93.4  0.0572   61.0  0.2304  -72.3
 0.460  0.4796 -160.0   8.710   92.9  0.0581   61.2  0.2266  -72.5
 0.480  0.4802 -161.6   8.338   92.0  0.0598   61.6  0.2192  -73.0
 0.500  0.4811 -163.2   7.969   90.9  0.0616   62.0  0.2117  -73.5
 0.520  0.4805 -164.4   7.711   90.2  0.0634   62.4  0.2069  -74.0
 0.540  0.4801 -165.7   7.454   89.5  0.0652   62.7  0.2021  -74.5
 0.560  0.4799 -166.9   7.199   88.8  0.0670   63.1  0.1974  -75.0
 0.580  0.4799 -168.2   6.945   88.0  0.0688   63.4  0.1926  -75.5
 0.600  0.4802 -169.4   6.692   87.1  0.0706   63.7  0.1879  -76.1
 0.620  0.4803 -170.3   6.501   86.5  0.0724   64.0  0.1847  -76.4
 0.640  0.4804 -171.2   6.312   85.9  0.0742   64.3  0.1816  -76.7
 0.660  0.4807 -172.0   6.123   85.2  0.0761   64.6  0.1785  -77.0
 0.680  0.4811 -172.9   5.934   84.5  0.0779   64.8  0.1753  -77.4
 0.700  0.4816 -173.8   5.747   83.8  0.0797   65.1  0.1722  -77.7
 0.720  0.4820 -174.6   5.609   83.3  0.0816   65.3  0.1701  -78.1
 0.740  0.4825 -175.5   5.472   82.7  0.0834   65.4  0.1681  -78.5
 0.760  0.4831 -176.3   5.336   82.1  0.0853   65.5  0.1661  -78.9
 0.780  0.4839 -177.2   5.199   81.5  0.0871   65.7  0.1640  -79.4
 0.800  0.4847 -178.0   5.064   80.9  0.0890   65.8  0.1620  -79.8
 0.820  0.4836 -178.8   4.953   80.4  0.0909   66.0  0.1602  -80.0
 0.840  0.4825 -179.6   4.842   79.9  0.0928   66.1  0.1583  -80.3
 0.860  0.4816  179.7   4.732   79.4  0.0947   66.2  0.1565  -80.6
 0.880  0.4807  178.9   4.622   78.8  0.0966   66.4  0.1546  -80.8
 0.900  0.4799  178.1   4.513   78.2  0.0985   66.5  0.1528  -81.1
 0.920  0.4812  177.5   4.429   77.7  0.1004   66.5  0.1519  -81.5
 0.940  0.4826  176.8   4.345   77.2  0.1022   66.6  0.1509  -81.8
 0.960  0.4841  176.2   4.261   76.7  0.1041   66.6  0.1500  -82.2
 0.980  0.4856  175.6   4.178   76.2  0.1059   66.7  0.1491  -82.6
 1.000  0.4872  175.0   4.095   75.6  0.1078   66.7  0.1482  -83.0
 1.020  0.4871  174.4   4.028   75.2  0.1097   66.7  0.1473  -83.4
 1.040  0.4871  173.8   3.962   74.8  0.1116   66.7  0.1464  -83.8
 1.060  0.4871  173.2   3.896   74.4  0.1135   66.7  0.1455  -84.3
 1.080  0.4872  172.6   3.830   74.0  0.1154   66.7  0.1446  -84.7
 1.100  0.4874  172.0   3.764   73.6  0.1173   66.8  0.1437  -85.1
 1.120  0.4876  171.4   3.698   73.1  0.1193   66.8  0.1429  -85.6
 1.140  0.4878  170.8   3.633   72.7  0.1212   66.8  0.1420  -86.0
 1.160  0.4881  170.2   3.568   72.2  0.1231   66.8  0.1412  -86.5
 1.180  0.4885  169.6   3.503   71.7  0.1250   66.8  0.1403  -86.9
 1.200  0.4889  169.0   3.438   71.2  0.1269   66.8  0.1395  -87.4
 1.220  0.4896  168.5   3.391   70.8  0.1287   66.8  0.1392  -87.8
 1.240  0.4904  168.0   3.344   70.4  0.1306   66.8  0.1389  -88.2
 1.260  0.4912  167.6   3.297   70.0  0.1324   66.7  0.1387  -88.6
 1.280  0.4921  167.1   3.250   69.6  0.1343   66.7  0.1384  -88.9
 1.300  0.4929  166.6   3.204   69.2  0.1361   66.7  0.1382  -89.3
 1.320  0.4938  166.2   3.157   68.8  0.1380   66.7  0.1379  -89.7
 1.340  0.4948  165.7   3.111   68.3  0.1398   66.7  0.1377  -90.1
 1.360  0.4958  165.2   3.065   67.9  0.1417   66.6  0.1374  -90.5
 1.380  0.4968  164.8   3.020   67.4  0.1435   66.6  0.1372  -90.9
 1.400  0.4978  164.3   2.974   66.9  0.1454   66.6  0.1370  -91.3
 1.420  0.4980  163.9   2.937   66.5  0.1473   66.5  0.1370  -91.8
 1.440  0.4981  163.5   2.901   66.1  0.1492   66.5  0.1369  -92.3
 1.460  0.4983  163.1   2.865   65.7  0.1512   66.4  0.1369  -92.8
 1.480  0.4986  162.7   2.829   65.2  0.1531   66.4  0.1369  -93.3
 1.500  0.4988  162.3   2.793   64.8  0.1550   66.3  0.1369  -93.8
 1.520  0.4990  161.8   2.762   64.4  0.1569   66.2  0.1367  -94.1
 1.540  0.4992  161.2   2.731   64.0  0.1588   66.2  0.1364  -94.4
 1.560  0.4995  160.7   2.700   63.6  0.1608   66.1  0.1362  -94.7
 1.580  0.4998  160.1   2.669   63.1  0.1627   66.1  0.1360  -95.0
 1.600  0.5002  159.6   2.638   62.7  0.1646   66.0  0.1358  -95.3
 1.620  0.5009  159.2   2.611   62.3  0.1665   65.9  0.1361  -95.7
 1.640  0.5016  158.8   2.584   62.0  0.1685   65.8  0.1363  -96.2
 1.660  0.5023  158.4   2.556   61.6  0.1704   65.7  0.1366  -96.6
 1.680  0.5031  158.0   2.529   61.2  0.1723   65.7  0.1369  -97.0
 1.700  0.5039  157.6   2.503   60.9  0.1742   65.6  0.1372  -97.5
 1.720  0.5047  157.2   2.476   60.5  0.1762   65.5  0.1375  -97.9
 1.740  0.5055  156.9   2.449   60.1  0.1781   65.4  0.1378  -98.3
 1.760  0.5063  156.5   2.423   59.6  0.1800   65.3  0.1381  -98.8
 1.780  0.5072  156.1   2.396   59.2  0.1820   65.3  0.1385  -99.2
 1.800  0.5081  155.7   2.370   58.8  0.1839   65.2  0.1388  -99.6
 1.820  0.5081  155.3   2.349   58.5  0.1858   65.1  0.1392 -100.0
 1.840  0.5081  154.9   2.327   58.1  0.1876   65.0  0.1396 -100.3
 1.860  0.5081  154.4   2.306   57.7  0.1895   64.9  0.1399 -100.7
 1.880  0.5081  154.0   2.285   57.4  0.1914   64.8  0.1403 -101.1
 1.900  0.5082  153.6   2.264   57.0  0.1932   64.7  0.1407 -101.4
 1.920  0.5083  153.2   2.243   56.6  0.1951   64.6  0.1411 -101.8
 1.940  0.5084  152.8   2.223   56.2  0.1970   64.6  0.1415 -102.1
 1.960  0.5086  152.3   2.202   55.8  0.1989   64.5  0.1420 -102.5
 1.980  0.5088  151.9   2.181   55.4  0.2007   64.4  0.1424 -102.8
 2.000  0.5090  151.5   2.161   55.0  0.2026   64.3  0.1428 -103.2
 2.020  0.5091  151.1   2.144   54.7  0.2045   64.2  0.1433 -103.5
 2.040  0.5092  150.7   2.126   54.3  0.2064   64.0  0.1438 -103.8
 2.060  0.5094  150.3   2.109   54.0  0.2083   63.9  0.1443 -104.1
 2.080  0.5095  149.9   2.092   53.7  0.2102   63.8  0.1448 -104.4
 2.100  0.5097  149.5   2.075   53.3  0.2121   63.7  0.1453 -104.7
 2.120  0.5099  149.2   2.057   53.0  0.2140   63.6  0.1458 -105.0
 2.140  0.5102  148.8   2.040   52.6  0.2159   63.4  0.1463 -105.3
 2.160  0.5104  148.4   2.024   52.2  0.2178   63.3  0.1468 -105.6
 2.180  0.5107  148.0   2.007   51.9  0.2197   63.2  0.1474 -105.9
 2.200  0.5110  147.6   1.990   51.5  0.2216   63.1  0.1479 -106.2
 2.220  0.5112  147.3   1.976   51.2  0.2235   63.0  0.1486 -106.6
 2.240  0.5114  147.0   1.962   50.8  0.2255   62.8  0.1493 -107.0
 2.260  0.5117  146.7   1.948   50.5  0.2274   62.7  0.1500 -107.4
 2.280  0.5119  146.4   1.934   50.2  0.2293   62.6  0.1507 -107.8
 2.300  0.5122  146.1   1.921   49.8  0.2312   62.5  0.1514 -108.1
 2.320  0.5125  145.9   1.907   49.5  0.2332   62.4  0.1521 -108.5
 2.340  0.5128  145.6   1.893   49.1  0.2351   62.2  0.1528 -108.9
 2.360  0.5131  145.3   1.880   48.7  0.2370   62.1  0.1535 -109.3
 2.380  0.5134  145.0   1.866   48.4  0.2390   62.0  0.1543 -109.6
 2.400  0.5137  144.7   1.853   48.0  0.2409   61.9  0.1550 -110.0
 2.420  0.5139  144.3   1.838   47.7  0.2427   61.8  0.1553 -110.2
 2.440  0.5142  143.8   1.824   47.3  0.2445   61.7  0.1555 -110.5
 2.460  0.5144  143.4   1.810   46.9  0.2462   61.5  0.1558 -110.7
 2.480  0.5148  142.9   1.795   46.6  0.2480   61.4  0.1560 -111.0
 2.500  0.5151  142.5   1.781   46.2  0.2498   61.3  0.1563 -111.2
 2.520  0.5157  142.2   1.771   45.9  0.2516   61.1  0.1570 -111.6
 2.540  0.5163  141.8   1.761   45.7  0.2535   61.0  0.1577 -111.9
 2.560  0.5169  141.5   1.751   45.4  0.2553   60.8  0.1584 -112.3
 2.580  0.5176  141.1   1.741   45.1  0.2572   60.7  0.1591 -112.7
 2.600  0.5182  140.8   1.731   44.8  0.2590   60.5  0.1599 -113.0
 2.620  0.5189  140.5   1.721   44.5  0.2609   60.3  0.1606 -113.4
 2.640  0.5196  140.1   1.711   44.2  0.2627   60.2  0.1613 -113.7
 2.660  0.5203  139.8   1.702   43.9  0.2646   60.0  0.1621 -114.1
 2.680  0.5211  139.5   1.692   43.6  0.2664   59.9  0.1628 -114.4
 2.700  0.5218  139.1   1.682   43.3  0.2683   59.8  0.1636 -114.8
 2.720  0.5226  138.8   1.673   43.0  0.2701   59.6  0.1644 -115.1
 2.740  0.5234  138.5   1.663   42.7  0.2720   59.5  0.1651 -115.4
 2.760  0.5242  138.2   1.653   42.4  0.2739   59.3  0.1659 -115.8
 2.780  0.5250  137.8   1.644   42.1  0.2757   59.2  0.1667 -116.1
 2.800  0.5258  137.5   1.634   41.8  0.2776   59.1  0.1675 -116.4
 2.820  0.5267  137.2   1.625   41.5  0.2794   58.9  0.1683 -116.7
 2.840  0.5275  136.9   1.616   41.1  0.2813   58.8  0.1691 -117.1
 2.860  0.5284  136.5   1.606   40.8  0.2832   58.7  0.1699 -117.4
 2.880  0.5293  136.2   1.597   40.5  0.2851   58.5  0.1707 -117.7
 2.900  0.5303  135.9   1.588   40.1  0.2869   58.4  0.1715 -118.0
 2.920  0.5312  135.6   1.579   39.8  0.2888   58.3  0.1723 -118.3
 2.940  0.5321  135.2   1.570   39.5  0.2907   58.2  0.1731 -118.6
 2.960  0.5331  134.9   1.561   39.1  0.2925   58.0  0.1739 -118.9
 2.980  0.5341  134.6   1.552   38.8  0.2944   57.9  0.1748 -119.2
 3.000  0.5351  134.3   1.543   38.4  0.2963   57.8  0.1756 -119.5
 3.100  0.5359  132.8   1.507   37.0  0.3055   56.9  0.1804 -121.8
 3.200  0.5370  131.4   1.471   35.6  0.3147   56.1  0.1856 -123.9
 3.300  0.5385  130.0   1.437   34.1  0.3240   55.3  0.1909 -126.0
 3.400  0.5403  128.5   1.403   32.5  0.3334   54.6  0.1965 -127.9
 3.500  0.5424  127.1   1.371   30.9  0.3428   53.9  0.2023 -129.7
 3.600  0.5465  125.4   1.344   29.7  0.3511   53.0  0.2065 -131.7
 3.700  0.5511  123.6   1.319   28.4  0.3594   52.1  0.2110 -133.7
 3.800  0.5562  122.0   1.293   27.2  0.3679   51.2  0.2157 -135.5
 3.900  0.5618  120.3   1.269   25.8  0.3764   50.4  0.2207 -137.3
 4.000  0.5678  118.7   1.245   24.4  0.3850   49.6  0.2258 -139.0
 4.100  0.5688  117.2   1.224   23.4  0.3925   48.8  0.2300 -141.3
 4.200  0.5701  115.8   1.203   22.3  0.4001   48.0  0.2347 -143.6
 4.300  0.5718  114.4   1.182   21.2  0.4078   47.2  0.2396 -145.7
 4.400  0.5738  112.9   1.162   20.0  0.4155   46.4  0.2449 -147.8
 4.500  0.5762  111.5   1.143   18.8  0.4233   45.7  0.2505 -149.8
 4.600  0.5798  110.3   1.127   17.7  0.4312   44.8  0.2533 -151.9
 4.700  0.5836  109.1   1.112   16.6  0.4392   44.0  0.2565 -153.9
 4.800  0.5877  107.9   1.097   15.5  0.4473   43.2  0.2599 -155.8
 4.900  0.5920  106.7   1.083   14.3  0.4554   42.4  0.2637 -157.7
 5.000  0.5966  105.6   1.069   13.1  0.4637   41.6  0.2677 -159.6
 5.100  0.5979  104.2   1.054   12.1  0.4711   40.7  0.2701 -161.3
 5.200  0.5996  102.8   1.040   11.1  0.4785   39.9  0.2727 -162.9
 5.300  0.6016  101.4   1.026   10.1  0.4861   39.1  0.2756 -164.6
 5.400  0.6040  100.0   1.012    9.0  0.4938   38.4  0.2786 -166.1
 5.500  0.6068   98.6   0.999    7.9  0.5015   37.6  0.2819 -167.7
 5.600  0.6062   97.4   0.986    7.1  0.5086   36.7  0.2844 -168.8
 5.700  0.6058   96.1   0.973    6.4  0.5159   35.8  0.2871 -170.0
 5.800  0.6058   94.9   0.960    5.6  0.5233   34.9  0.2899 -171.1
 5.900  0.6060   93.6   0.947    4.7  0.5308   34.0  0.2927 -172.1
 6.000  0.6065   92.4   0.935    3.9  0.5384   33.2  0.2957 -173.2
!
!  f       NFmin   Gammaopt  rn/50
! GHz       dB    MAG  ANG    -
 0.450      1.40  0.30  160   0.10
 0.900      1.45  0.34  172   0.11
 1.800      2.20  0.56 -148   0.20
!
! (c) 2015  Infineon Technologies AG, Munich
