! Infineon Technologies  Discrete & RF Semiconductors
! BFR181W
! VCE =  1.0 V,  IC =  15 mA
! Common Emitter S-Parameters:                            Nov 2015
# GHz  S  MA  R  50
!  f         S11            S21            S12            S22
! GHz     MAG   ANG      MAG   ANG      MAG   ANG      MAG   ANG
 0.100  0.5028  -77.2  15.717  137.2  0.0202   61.2  0.7211  -19.4
 0.105  0.4970  -79.5  15.384  136.2  0.0207   60.6  0.7126  -19.7
 0.110  0.4919  -81.8  15.056  135.1  0.0212   60.0  0.7041  -19.9
 0.115  0.4876  -84.1  14.734  133.9  0.0217   59.5  0.6956  -20.2
 0.120  0.4842  -86.5  14.418  132.7  0.0222   59.0  0.6872  -20.4
 0.125  0.4816  -88.9  14.108  131.5  0.0227   58.5  0.6787  -20.7
 0.130  0.4799  -91.3  13.805  130.2  0.0232   58.0  0.6703  -21.0
 0.135  0.4791  -93.8  13.510  128.8  0.0237   57.6  0.6619  -21.3
 0.140  0.4791  -96.2  13.223  127.4  0.0242   57.1  0.6535  -21.6
 0.145  0.4800  -98.7  12.944  125.9  0.0247   56.7  0.6452  -21.9
 0.150  0.4818 -101.1  12.674  124.4  0.0252   56.3  0.6368  -22.2
 0.155  0.4785 -102.7  12.436  123.6  0.0255   56.1  0.6311  -22.3
 0.160  0.4756 -104.4  12.201  122.9  0.0259   55.9  0.6254  -22.3
 0.165  0.4732 -106.1  11.968  122.1  0.0262   55.6  0.6197  -22.4
 0.170  0.4711 -107.8  11.738  121.2  0.0266   55.4  0.6139  -22.5
 0.175  0.4694 -109.5  11.510  120.3  0.0269   55.2  0.6082  -22.6
 0.180  0.4682 -111.2  11.285  119.4  0.0273   55.0  0.6025  -22.7
 0.185  0.4674 -112.9  11.063  118.5  0.0276   54.8  0.5968  -22.7
 0.190  0.4670 -114.6  10.844  117.5  0.0280   54.7  0.5911  -22.8
 0.195  0.4670 -116.4  10.628  116.5  0.0283   54.5  0.5854  -22.9
 0.200  0.4675 -118.1  10.416  115.4  0.0287   54.3  0.5797  -23.0
 0.220  0.4623 -122.7   9.736  113.1  0.0299   54.3  0.5639  -22.9
 0.240  0.4602 -127.4   9.074  110.5  0.0312   54.3  0.5480  -22.8
 0.260  0.4586 -131.5   8.498  108.2  0.0323   54.4  0.5352  -22.7
 0.280  0.4564 -135.1   7.998  106.2  0.0334   54.7  0.5254  -22.6
 0.300  0.4561 -138.7   7.509  104.0  0.0345   55.0  0.5156  -22.4
 0.320  0.4542 -141.3   7.161  102.8  0.0355   55.6  0.5093  -22.3
 0.340  0.4532 -143.9   6.817  101.4  0.0365   56.1  0.5031  -22.1
 0.360  0.4531 -146.5   6.477  100.0  0.0375   56.6  0.4968  -22.0
 0.380  0.4540 -149.1   6.142   98.3  0.0385   57.1  0.4906  -21.8
 0.400  0.4558 -151.7   5.812   96.5  0.0395   57.6  0.4843  -21.7
 0.420  0.4548 -153.5   5.592   95.6  0.0407   58.2  0.4810  -21.7
 0.440  0.4543 -155.2   5.374   94.6  0.0418   58.7  0.4777  -21.6
 0.450  0.4542 -156.1   5.266   94.1  0.0424   59.0  0.4760  -21.6
 0.460  0.4542 -157.0   5.158   93.5  0.0430   59.2  0.4744  -21.6
 0.480  0.4545 -158.7   4.943   92.4  0.0441   59.7  0.4711  -21.5
 0.500  0.4552 -160.5   4.731   91.1  0.0453   60.2  0.4678  -21.5
 0.520  0.4550 -161.8   4.580   90.3  0.0465   60.7  0.4656  -21.6
 0.540  0.4550 -163.1   4.431   89.4  0.0477   61.1  0.4634  -21.6
 0.560  0.4552 -164.5   4.282   88.5  0.0488   61.6  0.4613  -21.7
 0.580  0.4557 -165.8   4.134   87.6  0.0500   62.0  0.4591  -21.7
 0.600  0.4564 -167.1   3.988   86.5  0.0512   62.4  0.4569  -21.8
 0.620  0.4569 -168.2   3.875   85.8  0.0524   62.9  0.4557  -21.9
 0.640  0.4576 -169.4   3.763   85.0  0.0535   63.4  0.4544  -22.1
 0.660  0.4585 -170.5   3.652   84.2  0.0547   63.9  0.4532  -22.2
 0.680  0.4596 -171.6   3.542   83.3  0.0559   64.4  0.4519  -22.4
 0.700  0.4608 -172.7   3.432   82.4  0.0571   64.8  0.4507  -22.5
 0.720  0.4614 -173.6   3.351   81.8  0.0583   65.1  0.4497  -22.7
 0.740  0.4621 -174.6   3.270   81.1  0.0596   65.4  0.4486  -22.9
 0.760  0.4630 -175.5   3.190   80.4  0.0608   65.7  0.4476  -23.0
 0.780  0.4640 -176.5   3.110   79.7  0.0621   66.0  0.4466  -23.2
 0.800  0.4651 -177.4   3.031   78.9  0.0633   66.3  0.4456  -23.4
 0.820  0.4637 -178.2   2.965   78.3  0.0646   66.6  0.4449  -23.6
 0.840  0.4623 -178.9   2.898   77.7  0.0659   67.0  0.4443  -23.8
 0.860  0.4611 -179.7   2.833   77.1  0.0672   67.3  0.4437  -24.0
 0.880  0.4599  179.6   2.767   76.4  0.0685   67.6  0.4430  -24.2
 0.900  0.4588  178.8   2.702   75.7  0.0698   67.9  0.4424  -24.4
 0.920  0.4607  178.1   2.652   75.1  0.0711   68.1  0.4418  -24.7
 0.940  0.4626  177.3   2.603   74.5  0.0724   68.4  0.4413  -24.9
 0.960  0.4646  176.6   2.554   73.9  0.0738   68.6  0.4408  -25.2
 0.980  0.4667  175.9   2.505   73.3  0.0751   68.8  0.4402  -25.4
 1.000  0.4688  175.2   2.457   72.6  0.0764   69.0  0.4397  -25.7
 1.020  0.4689  174.6   2.417   72.1  0.0778   69.2  0.4391  -26.0
 1.040  0.4690  173.9   2.378   71.6  0.0791   69.3  0.4385  -26.3
 1.060  0.4692  173.3   2.338   71.1  0.0805   69.4  0.4380  -26.5
 1.080  0.4695  172.6   2.299   70.6  0.0818   69.6  0.4374  -26.8
 1.100  0.4698  172.0   2.260   70.0  0.0832   69.7  0.4369  -27.1
 1.120  0.4701  171.3   2.221   69.5  0.0846   69.8  0.4363  -27.4
 1.140  0.4706  170.7   2.182   68.9  0.0859   70.0  0.4358  -27.7
 1.160  0.4711  170.1   2.144   68.3  0.0873   70.1  0.4353  -27.9
 1.180  0.4716  169.4   2.106   67.7  0.0886   70.2  0.4348  -28.2
 1.200  0.4722  168.8   2.068   67.0  0.0900   70.3  0.4343  -28.5
 1.220  0.4731  168.2   2.040   66.6  0.0914   70.4  0.4339  -28.8
 1.240  0.4740  167.7   2.012   66.1  0.0928   70.5  0.4336  -29.1
 1.260  0.4750  167.2   1.984   65.6  0.0941   70.7  0.4332  -29.4
 1.280  0.4760  166.6   1.956   65.1  0.0955   70.8  0.4329  -29.7
 1.300  0.4771  166.1   1.929   64.6  0.0969   70.9  0.4326  -30.0
 1.320  0.4782  165.5   1.901   64.1  0.0983   71.0  0.4323  -30.3
 1.340  0.4794  165.0   1.874   63.6  0.0997   71.1  0.4320  -30.6
 1.360  0.4806  164.5   1.847   63.0  0.1010   71.2  0.4317  -30.9
 1.380  0.4818  163.9   1.820   62.5  0.1024   71.3  0.4315  -31.2
 1.400  0.4831  163.4   1.793   61.9  0.1038   71.4  0.4312  -31.5
 1.420  0.4836  163.0   1.771   61.4  0.1052   71.5  0.4309  -31.8
 1.440  0.4841  162.5   1.749   61.0  0.1066   71.6  0.4306  -32.1
 1.460  0.4846  162.1   1.727   60.5  0.1079   71.6  0.4304  -32.5
 1.480  0.4851  161.6   1.705   60.0  0.1093   71.7  0.4301  -32.8
 1.500  0.4857  161.2   1.683   59.5  0.1107   71.8  0.4299  -33.1
 1.520  0.4860  160.6   1.664   59.0  0.1121   71.9  0.4297  -33.4
 1.540  0.4864  160.1   1.645   58.5  0.1136   72.0  0.4295  -33.7
 1.560  0.4868  159.5   1.626   58.0  0.1150   72.0  0.4293  -34.0
 1.580  0.4872  159.0   1.607   57.4  0.1165   72.1  0.4292  -34.3
 1.600  0.4877  158.4   1.588   56.9  0.1179   72.2  0.4290  -34.6
 1.620  0.4884  157.9   1.572   56.5  0.1194   72.2  0.4288  -34.9
 1.640  0.4892  157.5   1.556   56.1  0.1209   72.2  0.4286  -35.3
 1.660  0.4900  157.0   1.539   55.7  0.1224   72.3  0.4285  -35.6
 1.680  0.4908  156.6   1.523   55.3  0.1239   72.3  0.4283  -36.0
 1.700  0.4917  156.1   1.507   54.8  0.1254   72.3  0.4282  -36.3
 1.720  0.4926  155.7   1.492   54.4  0.1269   72.3  0.4281  -36.6
 1.740  0.4935  155.2   1.476   53.9  0.1284   72.3  0.4280  -37.0
 1.760  0.4944  154.8   1.460   53.5  0.1299   72.4  0.4279  -37.3
 1.780  0.4954  154.3   1.444   53.0  0.1314   72.4  0.4279  -37.7
 1.800  0.4964  153.9   1.429   52.5  0.1329   72.4  0.4278  -38.0
 1.820  0.4967  153.5   1.416   52.1  0.1344   72.4  0.4277  -38.4
 1.840  0.4970  153.0   1.403   51.7  0.1359   72.4  0.4275  -38.7
 1.860  0.4973  152.6   1.390   51.3  0.1375   72.4  0.4274  -39.1
 1.880  0.4977  152.2   1.377   50.9  0.1390   72.4  0.4274  -39.4
 1.900  0.4981  151.7   1.365   50.5  0.1405   72.5  0.4273  -39.8
 1.920  0.4985  151.3   1.352   50.0  0.1420   72.5  0.4272  -40.2
 1.940  0.4990  150.9   1.339   49.6  0.1435   72.5  0.4272  -40.5
 1.960  0.4995  150.5   1.327   49.1  0.1451   72.5  0.4272  -40.9
 1.980  0.5000  150.0   1.314   48.7  0.1466   72.5  0.4272  -41.2
 2.000  0.5005  149.6   1.302   48.2  0.1481   72.5  0.4272  -41.6
 2.020  0.5013  149.2   1.291   47.8  0.1497   72.5  0.4272  -42.0
 2.040  0.5022  148.7   1.280   47.5  0.1512   72.5  0.4273  -42.3
 2.060  0.5030  148.3   1.269   47.1  0.1528   72.5  0.4273  -42.7
 2.080  0.5039  147.9   1.259   46.7  0.1544   72.5  0.4274  -43.0
 2.100  0.5048  147.4   1.248   46.3  0.1559   72.4  0.4275  -43.4
 2.120  0.5058  147.0   1.237   45.9  0.1575   72.4  0.4275  -43.7
 2.140  0.5068  146.6   1.226   45.5  0.1591   72.4  0.4277  -44.1
 2.160  0.5078  146.1   1.216   45.1  0.1607   72.4  0.4278  -44.4
 2.180  0.5088  145.7   1.205   44.7  0.1622   72.4  0.4279  -44.8
 2.200  0.5099  145.3   1.195   44.3  0.1638   72.4  0.4281  -45.1
 2.220  0.5102  144.9   1.186   44.0  0.1655   72.4  0.4280  -45.5
 2.240  0.5104  144.6   1.177   43.6  0.1671   72.3  0.4280  -45.9
 2.260  0.5108  144.2   1.169   43.2  0.1688   72.3  0.4280  -46.2
 2.280  0.5111  143.8   1.160   42.9  0.1704   72.2  0.4280  -46.6
 2.300  0.5114  143.4   1.151   42.5  0.1721   72.2  0.4280  -47.0
 2.320  0.5118  143.1   1.143   42.1  0.1738   72.2  0.4281  -47.4
 2.340  0.5122  142.7   1.134   41.8  0.1754   72.1  0.4281  -47.8
 2.360  0.5126  142.3   1.126   41.4  0.1771   72.1  0.4282  -48.1
 2.380  0.5130  142.0   1.117   41.0  0.1787   72.0  0.4283  -48.5
 2.400  0.5135  141.6   1.109   40.6  0.1804   72.0  0.4284  -48.9
 2.420  0.5134  141.1   1.101   40.3  0.1821   71.9  0.4285  -49.2
 2.440  0.5134  140.6   1.092   39.9  0.1837   71.9  0.4286  -49.5
 2.460  0.5134  140.0   1.084   39.5  0.1854   71.8  0.4287  -49.9
 2.480  0.5135  139.5   1.076   39.2  0.1870   71.8  0.4288  -50.2
 2.500  0.5136  139.0   1.068   38.8  0.1887   71.7  0.4289  -50.5
 2.520  0.5144  138.6   1.061   38.5  0.1905   71.6  0.4287  -50.9
 2.540  0.5153  138.2   1.055   38.2  0.1922   71.5  0.4285  -51.3
 2.560  0.5161  137.8   1.048   38.0  0.1940   71.4  0.4284  -51.7
 2.580  0.5170  137.4   1.041   37.7  0.1957   71.3  0.4283  -52.1
 2.600  0.5179  137.1   1.035   37.4  0.1975   71.3  0.4282  -52.5
 2.620  0.5189  136.7   1.028   37.1  0.1992   71.2  0.4281  -52.9
 2.640  0.5198  136.3   1.022   36.8  0.2010   71.1  0.4280  -53.3
 2.660  0.5208  135.9   1.015   36.5  0.2027   71.0  0.4280  -53.7
 2.680  0.5218  135.5   1.009   36.2  0.2045   70.9  0.4280  -54.1
 2.700  0.5228  135.2   1.002   35.9  0.2062   70.8  0.4280  -54.5
 2.720  0.5239  134.8   0.996   35.6  0.2080   70.8  0.4280  -54.9
 2.740  0.5250  134.4   0.990   35.2  0.2097   70.7  0.4280  -55.3
 2.760  0.5261  134.0   0.983   34.9  0.2115   70.6  0.4281  -55.7
 2.780  0.5272  133.7   0.977   34.6  0.2133   70.5  0.4282  -56.1
 2.800  0.5283  133.3   0.971   34.3  0.2150   70.5  0.4283  -56.5
 2.820  0.5295  132.9   0.965   33.9  0.2168   70.4  0.4284  -56.9
 2.840  0.5307  132.6   0.958   33.6  0.2185   70.3  0.4286  -57.3
 2.860  0.5319  132.2   0.952   33.2  0.2203   70.3  0.4287  -57.7
 2.880  0.5331  131.8   0.946   32.9  0.2220   70.2  0.4289  -58.1
 2.900  0.5343  131.5   0.940   32.5  0.2238   70.1  0.4291  -58.5
 2.920  0.5356  131.1   0.934   32.2  0.2256   70.1  0.4294  -58.9
 2.940  0.5369  130.8   0.928   31.8  0.2273   70.0  0.4296  -59.3
 2.960  0.5382  130.4   0.922   31.4  0.2291   69.9  0.4299  -59.7
 2.980  0.5395  130.1   0.916   31.1  0.2308   69.9  0.4302  -60.1
 3.000  0.5409  129.7   0.910   30.7  0.2326   69.8  0.4305  -60.5
 3.100  0.5418  127.8   0.886   29.6  0.2422   69.1  0.4291  -62.7
 3.200  0.5433  125.9   0.863   28.5  0.2517   68.4  0.4282  -64.9
 3.300  0.5454  124.1   0.840   27.2  0.2614   67.8  0.4281  -67.1
 3.400  0.5480  122.2   0.817   26.0  0.2710   67.2  0.4285  -69.3
 3.500  0.5512  120.4   0.795   24.6  0.2807   66.7  0.4296  -71.5
 3.600  0.5553  118.6   0.778   23.7  0.2901   65.8  0.4274  -73.6
 3.700  0.5600  116.8   0.760   22.7  0.2997   65.0  0.4258  -75.7
 3.800  0.5652  115.0   0.743   21.7  0.3092   64.3  0.4248  -77.9
 3.900  0.5710  113.3   0.727   20.7  0.3188   63.6  0.4243  -80.0
 4.000  0.5772  111.6   0.710   19.6  0.3285   62.9  0.4245  -82.2
 4.100  0.5793  109.9   0.695   19.1  0.3378   61.9  0.4213  -84.6
 4.200  0.5818  108.3   0.680   18.5  0.3472   61.0  0.4189  -87.0
 4.300  0.5848  106.6   0.665   17.9  0.3566   60.1  0.4172  -89.4
 4.400  0.5883  105.0   0.651   17.3  0.3662   59.3  0.4163  -91.8
 4.500  0.5923  103.4   0.636   16.7  0.3758   58.5  0.4161  -94.3
 4.600  0.5950  101.9   0.627   16.3  0.3848   57.5  0.4124  -96.5
 4.700  0.5980  100.4   0.617   15.9  0.3938   56.5  0.4093  -98.7
 4.800  0.6015   98.9   0.608   15.5  0.4030   55.6  0.4069 -100.9
 4.900  0.6053   97.4   0.598   15.1  0.4123   54.7  0.4051 -103.2
 5.000  0.6096   96.0   0.589   14.7  0.4217   53.9  0.4039 -105.5
 5.100  0.6085   94.4   0.583   14.5  0.4306   52.9  0.4008 -107.6
 5.200  0.6079   92.8   0.577   14.4  0.4397   51.9  0.3983 -109.8
 5.300  0.6077   91.2   0.571   14.2  0.4489   51.0  0.3964 -112.0
 5.400  0.6080   89.6   0.565   14.0  0.4582   50.1  0.3951 -114.2
 5.500  0.6088   88.0   0.559   13.8  0.4676   49.2  0.3943 -116.4
 5.600  0.6066   86.7   0.553   13.8  0.4761   48.1  0.3925 -118.3
 5.700  0.6047   85.3   0.547   13.8  0.4847   47.0  0.3911 -120.3
 5.800  0.6032   83.9   0.542   13.7  0.4935   45.9  0.3902 -122.2
 5.900  0.6020   82.6   0.536   13.7  0.5025   44.9  0.3897 -124.1
 6.000  0.6012   81.2   0.530   13.7  0.5116   43.9  0.3897 -126.1
!
!  f       NFmin   Gammaopt  rn/50
! GHz       dB    MAG  ANG    -
!
! noise parameter not available yet for this operation point!
!
! (c) 2015  Infineon Technologies AG, Munich
