! Infineon Technologies  Discrete & RF Semiconductors
! BFR106
! VCE =  1.0 V,  IC =  10 mA
! Common Emitter S-Parameters:                            Nov 2015
# GHz  S  MA  R  50
!  f         S11            S21            S12            S22
! GHz     MAG   ANG      MAG   ANG      MAG   ANG      MAG   ANG
 0.010  0.6977  -19.1  28.048  168.9  0.0095   82.8  0.9681  -11.0
 0.015  0.6836  -27.8  27.364  164.5  0.0142   76.9  0.9458  -16.1
 0.020  0.6855  -36.6  26.850  159.9  0.0189   74.0  0.9315  -21.5
 0.025  0.6556  -43.2  25.684  156.8  0.0219   68.8  0.8905  -24.9
 0.030  0.6351  -50.3  24.601  153.4  0.0251   64.9  0.8528  -28.6
 0.035  0.6249  -57.7  23.614  149.6  0.0284   61.8  0.8191  -32.6
 0.040  0.6254  -65.2  22.734  145.6  0.0317   59.4  0.7897  -36.9
 0.045  0.6367  -72.7  21.975  141.3  0.0351   57.5  0.7651  -41.6
 0.050  0.6582  -79.7  21.349  136.7  0.0385   55.9  0.7459  -46.5
 0.055  0.6425  -83.4  20.556  135.3  0.0398   54.3  0.7177  -48.2
 0.060  0.6297  -87.3  19.776  133.8  0.0411   52.8  0.6902  -50.0
 0.065  0.6198  -91.4  19.012  132.2  0.0425   51.4  0.6635  -52.0
 0.070  0.6132  -95.5  18.264  130.4  0.0439   50.1  0.6376  -54.1
 0.075  0.6098  -99.7  17.534  128.5  0.0453   48.9  0.6127  -56.5
 0.080  0.6098 -104.0  16.827  126.4  0.0467   47.8  0.5889  -59.0
 0.085  0.6131 -108.2  16.143  124.1  0.0482   46.7  0.5663  -61.7
 0.090  0.6197 -112.4  15.487  121.7  0.0496   45.7  0.5450  -64.6
 0.095  0.6294 -116.4  14.861  119.0  0.0511   44.7  0.5254  -67.8
 0.100  0.6422 -120.3  14.271  116.1  0.0526   43.8  0.5074  -71.2
 0.105  0.6369 -122.3  13.848  115.3  0.0533   43.4  0.4935  -72.3
 0.110  0.6323 -124.3  13.428  114.4  0.0539   43.0  0.4799  -73.5
 0.115  0.6285 -126.3  13.012  113.5  0.0546   42.6  0.4664  -74.8
 0.120  0.6256 -128.3  12.599  112.5  0.0553   42.2  0.4532  -76.1
 0.125  0.6234 -130.4  12.190  111.4  0.0559   41.8  0.4402  -77.5
 0.130  0.6220 -132.5  11.786  110.2  0.0566   41.4  0.4276  -79.0
 0.135  0.6215 -134.6  11.387  109.0  0.0573   41.0  0.4152  -80.6
 0.140  0.6218 -136.7  10.993  107.7  0.0579   40.7  0.4032  -82.3
 0.145  0.6229 -138.7  10.606  106.3  0.0586   40.3  0.3915  -84.1
 0.150  0.6248 -140.8  10.225  104.8  0.0593   40.0  0.3803  -86.0
 0.155  0.6240 -141.9   9.993  104.3  0.0598   40.1  0.3726  -86.7
 0.160  0.6235 -143.1   9.761  103.7  0.0603   40.1  0.3649  -87.5
 0.165  0.6232 -144.2   9.531  103.1  0.0608   40.2  0.3573  -88.3
 0.170  0.6231 -145.4   9.302  102.5  0.0613   40.3  0.3497  -89.1
 0.175  0.6233 -146.5   9.074  101.8  0.0618   40.3  0.3423  -90.0
 0.180  0.6237 -147.7   8.847  101.1  0.0624   40.4  0.3349  -90.9
 0.185  0.6244 -148.8   8.621  100.4  0.0629   40.4  0.3276  -91.9
 0.190  0.6254 -149.9   8.397   99.7  0.0634   40.5  0.3204  -92.9
 0.195  0.6266 -151.1   8.175   98.8  0.0639   40.5  0.3133  -93.9
 0.200  0.6280 -152.2   7.954   98.0  0.0644   40.6  0.3063  -95.0
 0.220  0.6255 -155.4   7.335   96.2  0.0664   41.1  0.2872  -98.0
 0.240  0.6248 -158.5   6.724   94.0  0.0683   41.6  0.2690 -101.5
 0.260  0.6249 -161.3   6.219   92.2  0.0703   42.3  0.2552 -104.5
 0.280  0.6252 -163.8   5.813   90.8  0.0724   43.2  0.2453 -106.8
 0.300  0.6266 -166.2   5.411   89.2  0.0745   44.0  0.2358 -109.3
 0.320  0.6257 -167.9   5.150   88.2  0.0765   44.8  0.2284 -111.1
 0.340  0.6255 -169.7   4.890   87.0  0.0785   45.5  0.2213 -113.0
 0.360  0.6258 -171.4   4.633   85.8  0.0806   46.1  0.2144 -115.0
 0.380  0.6266 -173.2   4.378   84.4  0.0826   46.8  0.2078 -117.2
 0.400  0.6281 -174.9   4.126   82.8  0.0847   47.4  0.2015 -119.5
 0.420  0.6289 -176.1   3.964   81.9  0.0870   48.1  0.1979 -120.8
 0.440  0.6299 -177.3   3.803   80.9  0.0893   48.7  0.1944 -122.2
 0.450  0.6305 -177.9   3.723   80.4  0.0905   49.0  0.1927 -122.9
 0.460  0.6312 -178.5   3.643   79.9  0.0917   49.3  0.1910 -123.7
 0.480  0.6328 -179.7   3.484   78.8  0.0940   49.9  0.1877 -125.2
 0.500  0.6347  179.1   3.327   77.5  0.0964   50.4  0.1846 -126.7
 0.520  0.6337  178.0   3.219   76.6  0.0989   50.8  0.1835 -127.7
 0.540  0.6330  177.0   3.112   75.7  0.1015   51.2  0.1824 -128.6
 0.560  0.6324  175.9   3.006   74.7  0.1040   51.6  0.1814 -129.6
 0.580  0.6321  174.9   2.900   73.6  0.1066   52.0  0.1804 -130.6
 0.600  0.6320  173.8   2.796   72.5  0.1091   52.3  0.1795 -131.6
 0.620  0.6322  172.8   2.723   71.7  0.1118   52.6  0.1795 -132.6
 0.640  0.6326  171.8   2.650   70.8  0.1145   52.9  0.1795 -133.6
 0.660  0.6332  170.9   2.577   69.9  0.1171   53.2  0.1796 -134.6
 0.680  0.6339  169.9   2.506   68.9  0.1198   53.5  0.1797 -135.6
 0.700  0.6349  168.9   2.435   67.9  0.1225   53.8  0.1799 -136.6
 0.720  0.6350  168.2   2.376   67.2  0.1252   54.0  0.1797 -137.5
 0.740  0.6352  167.5   2.317   66.4  0.1278   54.1  0.1796 -138.4
 0.760  0.6355  166.8   2.259   65.6  0.1305   54.3  0.1795 -139.4
 0.780  0.6359  166.1   2.201   64.8  0.1331   54.5  0.1795 -140.3
 0.800  0.6364  165.4   2.144   63.9  0.1358   54.6  0.1795 -141.2
 0.820  0.6363  164.6   2.100   63.1  0.1386   54.7  0.1797 -141.9
 0.840  0.6364  163.8   2.057   62.4  0.1415   54.8  0.1799 -142.7
 0.860  0.6366  162.9   2.014   61.5  0.1443   54.9  0.1802 -143.4
 0.880  0.6369  162.1   1.972   60.7  0.1472   55.0  0.1805 -144.2
 0.900  0.6374  161.3   1.930   59.8  0.1500   55.1  0.1808 -144.9
 0.920  0.6372  160.5   1.895   59.1  0.1527   55.1  0.1820 -145.5
 0.940  0.6371  159.8   1.861   58.4  0.1554   55.2  0.1833 -146.0
 0.960  0.6371  159.0   1.827   57.7  0.1582   55.2  0.1845 -146.5
 0.980  0.6373  158.3   1.793   57.0  0.1609   55.3  0.1858 -147.1
 1.000  0.6375  157.5   1.759   56.2  0.1636   55.3  0.1871 -147.6
 1.020  0.6393  156.7   1.730   55.5  0.1664   55.3  0.1887 -148.3
 1.040  0.6413  155.9   1.702   54.7  0.1692   55.2  0.1903 -148.9
 1.060  0.6433  155.1   1.674   53.9  0.1719   55.2  0.1919 -149.6
 1.080  0.6455  154.4   1.646   53.1  0.1747   55.1  0.1936 -150.2
 1.100  0.6478  153.6   1.619   52.3  0.1775   55.1  0.1953 -150.8
 1.120  0.6481  152.9   1.596   51.7  0.1803   55.0  0.1964 -151.5
 1.140  0.6485  152.2   1.573   51.0  0.1831   54.9  0.1976 -152.1
 1.160  0.6491  151.5   1.551   50.4  0.1860   54.9  0.1988 -152.8
 1.180  0.6497  150.8   1.528   49.7  0.1888   54.8  0.2000 -153.5
 1.200  0.6504  150.1   1.506   49.0  0.1916   54.7  0.2013 -154.1
 1.220  0.6508  149.5   1.485   48.4  0.1946   54.5  0.2026 -154.7
 1.240  0.6513  148.9   1.464   47.8  0.1976   54.4  0.2039 -155.3
 1.260  0.6519  148.3   1.444   47.1  0.2005   54.2  0.2052 -155.9
 1.280  0.6526  147.7   1.423   46.5  0.2035   54.1  0.2065 -156.4
 1.300  0.6533  147.1   1.403   45.8  0.2065   53.9  0.2079 -157.0
 1.320  0.6542  146.5   1.386   45.2  0.2094   53.8  0.2098 -157.5
 1.340  0.6552  145.9   1.369   44.6  0.2123   53.6  0.2116 -158.1
 1.360  0.6563  145.2   1.353   44.0  0.2151   53.5  0.2135 -158.6
 1.380  0.6575  144.6   1.336   43.4  0.2180   53.3  0.2155 -159.1
 1.400  0.6587  144.0   1.320   42.8  0.2209   53.2  0.2174 -159.6
 1.420  0.6586  143.4   1.308   42.2  0.2238   53.0  0.2193 -160.2
 1.440  0.6586  142.8   1.297   41.6  0.2267   52.9  0.2213 -160.8
 1.460  0.6587  142.3   1.285   41.0  0.2295   52.7  0.2233 -161.4
 1.480  0.6588  141.7   1.274   40.3  0.2324   52.6  0.2253 -161.9
 1.500  0.6590  141.1   1.263   39.7  0.2353   52.4  0.2273 -162.5
 1.520  0.6605  140.5   1.247   39.1  0.2382   52.2  0.2291 -163.2
 1.540  0.6621  139.9   1.232   38.4  0.2411   52.0  0.2309 -163.8
 1.560  0.6638  139.4   1.216   37.8  0.2441   51.8  0.2327 -164.5
 1.580  0.6655  138.8   1.201   37.1  0.2470   51.7  0.2346 -165.1
 1.600  0.6673  138.2   1.186   36.4  0.2499   51.5  0.2365 -165.7
 1.620  0.6676  137.5   1.175   35.8  0.2527   51.3  0.2382 -166.4
 1.640  0.6681  136.8   1.164   35.2  0.2555   51.0  0.2400 -167.2
 1.660  0.6686  136.2   1.154   34.6  0.2583   50.8  0.2418 -167.9
 1.680  0.6692  135.5   1.143   34.0  0.2611   50.6  0.2436 -168.6
 1.700  0.6699  134.8   1.133   33.4  0.2639   50.4  0.2455 -169.3
 1.720  0.6712  134.2   1.124   33.0  0.2667   50.1  0.2472 -169.8
 1.740  0.6726  133.7   1.116   32.5  0.2694   49.9  0.2490 -170.3
 1.760  0.6741  133.1   1.107   32.1  0.2722   49.6  0.2508 -170.8
 1.780  0.6756  132.6   1.098   31.7  0.2750   49.3  0.2526 -171.2
 1.800  0.6772  132.0   1.090   31.2  0.2778   49.1  0.2544 -171.7
 1.820  0.6773  131.5   1.081   30.7  0.2807   48.8  0.2572 -172.3
 1.840  0.6775  130.9   1.072   30.1  0.2836   48.5  0.2599 -172.8
 1.860  0.6777  130.4   1.063   29.6  0.2865   48.2  0.2627 -173.4
 1.880  0.6780  129.8   1.055   29.1  0.2895   48.0  0.2656 -173.9
 1.900  0.6783  129.3   1.046   28.5  0.2924   47.7  0.2684 -174.4
 1.920  0.6791  128.8   1.037   28.0  0.2952   47.4  0.2708 -175.1
 1.940  0.6800  128.3   1.029   27.6  0.2980   47.2  0.2732 -175.8
 1.960  0.6809  127.7   1.020   27.1  0.3008   46.9  0.2756 -176.5
 1.980  0.6819  127.2   1.011   26.6  0.3037   46.7  0.2781 -177.1
 2.000  0.6829  126.7   1.003   26.1  0.3065   46.4  0.2806 -177.8
 2.020  0.6836  126.1   0.996   25.6  0.3092   46.1  0.2826 -178.4
 2.040  0.6843  125.6   0.989   25.2  0.3120   45.8  0.2847 -179.1
 2.060  0.6851  125.0   0.982   24.7  0.3148   45.5  0.2868 -179.7
 2.080  0.6859  124.5   0.975   24.2  0.3175   45.2  0.2889  179.7
 2.100  0.6868  123.9   0.968   23.7  0.3203   44.9  0.2911  179.1
 2.120  0.6878  123.4   0.961   23.2  0.3231   44.6  0.2933  178.6
 2.140  0.6888  122.8   0.954   22.7  0.3259   44.3  0.2955  178.0
 2.160  0.6899  122.3   0.947   22.2  0.3287   44.0  0.2978  177.4
 2.180  0.6911  121.7   0.941   21.7  0.3315   43.8  0.3001  176.9
 2.200  0.6923  121.2   0.934   21.2  0.3343   43.5  0.3024  176.3
 2.220  0.6928  120.7   0.928   20.8  0.3369   43.2  0.3052  175.6
 2.240  0.6934  120.2   0.923   20.4  0.3395   42.8  0.3081  175.0
 2.260  0.6941  119.6   0.917   20.0  0.3421   42.5  0.3110  174.3
 2.280  0.6948  119.1   0.912   19.5  0.3448   42.2  0.3139  173.7
 2.300  0.6955  118.6   0.906   19.1  0.3474   41.9  0.3169  173.1
 2.320  0.6964  118.1   0.901   18.7  0.3501   41.6  0.3199  172.4
 2.340  0.6972  117.5   0.896   18.2  0.3527   41.3  0.3229  171.8
 2.360  0.6982  117.0   0.890   17.8  0.3554   41.0  0.3260  171.2
 2.380  0.6992  116.5   0.885   17.4  0.3581   40.7  0.3291  170.7
 2.400  0.7002  116.0   0.880   16.9  0.3608   40.4  0.3323  170.1
 2.420  0.7014  115.5   0.875   16.5  0.3631   40.1  0.3344  169.5
 2.440  0.7026  115.0   0.870   16.2  0.3655   39.7  0.3365  168.9
 2.460  0.7039  114.4   0.864   15.8  0.3678   39.4  0.3387  168.3
 2.480  0.7053  113.9   0.859   15.4  0.3701   39.1  0.3409  167.7
 2.500  0.7067  113.4   0.854   15.1  0.3725   38.8  0.3432  167.2
 2.520  0.7082  112.9   0.849   14.7  0.3749   38.5  0.3455  166.6
 2.540  0.7097  112.4   0.844   14.3  0.3773   38.2  0.3478  166.0
 2.560  0.7113  111.9   0.839   13.9  0.3797   37.9  0.3501  165.5
 2.580  0.7129  111.4   0.834   13.5  0.3821   37.6  0.3525  164.9
 2.600  0.7146  110.9   0.829   13.1  0.3845   37.3  0.3549  164.4
 2.620  0.7149  110.4   0.825   12.8  0.3867   37.0  0.3578  163.8
 2.640  0.7152  110.0   0.821   12.4  0.3889   36.6  0.3607  163.1
 2.660  0.7155  109.5   0.816   12.1  0.3911   36.3  0.3637  162.5
 2.680  0.7159  109.1   0.812   11.8  0.3933   35.9  0.3668  161.9
 2.700  0.7164  108.6   0.808   11.4  0.3955   35.6  0.3698  161.3
 2.720  0.7169  108.1   0.804   11.1  0.3977   35.3  0.3730  160.7
 2.740  0.7174  107.7   0.800   10.8  0.4000   35.0  0.3761  160.1
 2.760  0.7180  107.2   0.796   10.4  0.4022   34.6  0.3793  159.5
 2.780  0.7186  106.8   0.792   10.1  0.4045   34.3  0.3825  159.0
 2.800  0.7193  106.3   0.788    9.7  0.4068   34.0  0.3858  158.4
 2.820  0.7205  105.9   0.784    9.4  0.4089   33.6  0.3882  157.8
 2.840  0.7217  105.4   0.780    9.1  0.4111   33.3  0.3906  157.2
 2.860  0.7229  105.0   0.776    8.8  0.4132   32.9  0.3931  156.7
 2.880  0.7242  104.6   0.773    8.5  0.4154   32.6  0.3956  156.1
 2.900  0.7255  104.1   0.769    8.2  0.4176   32.3  0.3982  155.6
 2.920  0.7269  103.7   0.765    7.9  0.4198   31.9  0.4008  155.0
 2.940  0.7283  103.3   0.761    7.6  0.4220   31.6  0.4034  154.5
 2.960  0.7298  102.8   0.757    7.2  0.4242   31.3  0.4061  153.9
 2.980  0.7313  102.4   0.754    6.9  0.4264   30.9  0.4088  153.4
 3.000  0.7328  102.0   0.750    6.6  0.4287   30.6  0.4115  152.9
 3.100  0.7348  100.1   0.735    5.5  0.4369   28.9  0.4242  150.0
 3.200  0.7377   98.2   0.719    4.3  0.4454   27.2  0.4380  147.3
 3.300  0.7413   96.4   0.705    3.0  0.4543   25.5  0.4526  144.7
 3.400  0.7457   94.5   0.690    1.7  0.4636   24.0  0.4681  142.3
 3.500  0.7509   92.7   0.676    0.4  0.4732   22.5  0.4844  140.1
 3.600  0.7536   91.1   0.665   -0.5  0.4782   20.8  0.4960  137.4
 3.700  0.7568   89.6   0.655   -1.4  0.4836   19.2  0.5086  134.9
 3.800  0.7607   88.0   0.644   -2.3  0.4894   17.6  0.5222  132.5
 3.900  0.7650   86.5   0.634   -3.3  0.4956   16.0  0.5366  130.3
 4.000  0.7699   85.0   0.624   -4.3  0.5021   14.5  0.5518  128.1
 4.100  0.7695   83.7   0.617   -5.1  0.5045   13.0  0.5581  125.9
 4.200  0.7695   82.4   0.610   -5.9  0.5072   11.6  0.5653  123.7
 4.300  0.7700   81.1   0.604   -6.7  0.5102   10.1  0.5733  121.6
 4.400  0.7708   79.8   0.597   -7.5  0.5135    8.7  0.5820  119.5
 4.500  0.7720   78.5   0.591   -8.4  0.5172    7.3  0.5915  117.5
 4.600  0.7726   77.4   0.586   -9.1  0.5186    6.0  0.5955  115.6
 4.700  0.7736   76.2   0.582   -9.7  0.5203    4.8  0.6001  113.7
 4.800  0.7748   75.1   0.578  -10.4  0.5222    3.6  0.6054  111.8
 4.900  0.7763   74.0   0.573  -11.1  0.5244    2.3  0.6113  110.0
 5.000  0.7781   72.9   0.569  -11.8  0.5268    1.1  0.6178  108.2
 5.100  0.7755   71.9   0.568  -11.8  0.5301    0.5  0.6187  107.8
 5.200  0.7731   70.8   0.566  -11.9  0.5335   -0.2  0.6196  107.4
 5.300  0.7710   69.8   0.565  -11.9  0.5370   -0.8  0.6205  107.1
 5.400  0.7692   68.8   0.563  -12.0  0.5405   -1.4  0.6215  106.7
 5.500  0.7676   67.7   0.562  -12.0  0.5441   -2.0  0.6225  106.3
 5.600  0.7668   66.9   0.561  -12.8  0.5470   -3.4  0.6316  104.5
 5.700  0.7661   66.1   0.561  -13.7  0.5502   -4.7  0.6413  102.8
 5.800  0.7656   65.4   0.560  -14.5  0.5537   -6.0  0.6516  101.2
 5.900  0.7652   64.6   0.560  -15.4  0.5575   -7.3  0.6624   99.6
 6.000  0.7649   63.8   0.560  -16.2  0.5616   -8.6  0.6737   98.0
!
!  f       NFmin   Gammaopt  rn/50
! GHz       dB    MAG  ANG    -
!
! noise parameter not available yet for this operation point!
!
! (c) 2015  Infineon Technologies AG, Munich
