! Infineon Technologies  Discrete & RF Semiconductors
! BFR181W
! VCE =  10. V,  IC =  15 mA
! Common Emitter S-Parameters:                            Nov 2015
# GHz  S  MA  R  50
!  f         S11            S21            S12            S22
! GHz     MAG   ANG      MAG   ANG      MAG   ANG      MAG   ANG
 0.100  0.6869  -30.5  23.047  154.1  0.0143   73.4  0.8981  -13.4
 0.105  0.6791  -31.7  22.802  153.1  0.0149   73.0  0.8917  -13.8
 0.110  0.6716  -32.9  22.563  152.1  0.0154   72.6  0.8854  -14.3
 0.115  0.6645  -34.1  22.331  151.1  0.0160   72.2  0.8791  -14.7
 0.120  0.6576  -35.4  22.107  150.1  0.0166   71.9  0.8729  -15.2
 0.125  0.6511  -36.7  21.889  149.0  0.0171   71.6  0.8668  -15.6
 0.130  0.6449  -38.0  21.680  147.9  0.0177   71.3  0.8606  -16.1
 0.135  0.6391  -39.3  21.478  146.8  0.0183   71.0  0.8546  -16.6
 0.140  0.6336  -40.7  21.285  145.7  0.0189   70.8  0.8486  -17.0
 0.145  0.6284  -42.1  21.100  144.6  0.0194   70.5  0.8427  -17.5
 0.150  0.6237  -43.5  20.923  143.4  0.0200   70.3  0.8368  -18.0
 0.155  0.6164  -44.5  20.688  142.6  0.0204   70.0  0.8308  -18.3
 0.160  0.6093  -45.5  20.457  141.8  0.0209   69.7  0.8248  -18.6
 0.165  0.6024  -46.5  20.230  141.0  0.0213   69.4  0.8188  -18.9
 0.170  0.5957  -47.5  20.008  140.1  0.0218   69.1  0.8129  -19.2
 0.175  0.5892  -48.6  19.789  139.3  0.0222   68.8  0.8070  -19.5
 0.180  0.5829  -49.7  19.576  138.4  0.0227   68.6  0.8011  -19.8
 0.185  0.5768  -50.8  19.367  137.5  0.0231   68.3  0.7952  -20.1
 0.190  0.5709  -52.0  19.163  136.6  0.0236   68.1  0.7893  -20.4
 0.195  0.5653  -53.1  18.964  135.7  0.0240   67.8  0.7835  -20.8
 0.200  0.5599  -54.3  18.770  134.7  0.0245   67.6  0.7777  -21.1
 0.220  0.5350  -57.9  17.945  132.1  0.0262   66.8  0.7562  -21.9
 0.240  0.5123  -61.7  17.160  129.3  0.0279   66.1  0.7348  -22.7
 0.260  0.4917  -65.3  16.417  126.7  0.0293   65.6  0.7156  -23.3
 0.280  0.4723  -68.4  15.701  124.4  0.0306   65.2  0.6985  -23.7
 0.300  0.4545  -71.8  15.013  121.9  0.0319   64.9  0.6814  -24.2
 0.320  0.4367  -74.2  14.443  120.4  0.0331   64.9  0.6684  -24.4
 0.340  0.4196  -76.8  13.885  118.7  0.0343   64.9  0.6555  -24.5
 0.360  0.4035  -79.5  13.338  116.9  0.0356   64.8  0.6426  -24.7
 0.380  0.3884  -82.6  12.806  115.0  0.0368   64.8  0.6296  -24.9
 0.400  0.3745  -85.8  12.290  112.9  0.0380   64.8  0.6167  -25.1
 0.420  0.3628  -87.8  11.883  111.8  0.0392   64.9  0.6083  -25.1
 0.440  0.3516  -89.9  11.481  110.6  0.0404   65.1  0.5999  -25.1
 0.450  0.3461  -91.0  11.282  110.0  0.0410   65.1  0.5957  -25.1
 0.460  0.3409  -92.1  11.084  109.3  0.0417   65.2  0.5915  -25.0
 0.480  0.3307  -94.5  10.693  108.0  0.0429   65.3  0.5831  -25.0
 0.500  0.3211  -97.0  10.309  106.5  0.0441   65.4  0.5747  -25.0
 0.520  0.3128  -98.8  10.009  105.6  0.0453   65.6  0.5689  -25.0
 0.540  0.3048 -100.7   9.712  104.6  0.0465   65.7  0.5631  -25.0
 0.560  0.2972 -102.8   9.418  103.6  0.0477   65.8  0.5574  -24.9
 0.580  0.2900 -104.9   9.127  102.6  0.0489   66.0  0.5516  -24.9
 0.600  0.2832 -107.1   8.840  101.4  0.0501   66.1  0.5458  -24.9
 0.620  0.2771 -108.8   8.608  100.6  0.0513   66.3  0.5419  -24.9
 0.640  0.2714 -110.7   8.378   99.8  0.0524   66.6  0.5380  -24.8
 0.660  0.2659 -112.6   8.149   98.9  0.0536   66.8  0.5342  -24.8
 0.680  0.2607 -114.5   7.923   98.0  0.0547   67.0  0.5303  -24.7
 0.700  0.2558 -116.6   7.699   97.0  0.0559   67.2  0.5264  -24.7
 0.720  0.2517 -118.2   7.526   96.3  0.0571   67.4  0.5235  -24.7
 0.740  0.2478 -119.8   7.354   95.7  0.0583   67.6  0.5207  -24.7
 0.760  0.2440 -121.5   7.184   94.9  0.0595   67.8  0.5178  -24.8
 0.780  0.2406 -123.3   7.014   94.2  0.0607   67.9  0.5150  -24.8
 0.800  0.2373 -125.1   6.846   93.4  0.0619   68.1  0.5121  -24.8
 0.820  0.2336 -126.4   6.700   92.9  0.0631   68.2  0.5100  -24.8
 0.840  0.2300 -127.7   6.555   92.3  0.0643   68.3  0.5079  -24.8
 0.860  0.2266 -129.1   6.410   91.7  0.0656   68.4  0.5057  -24.8
 0.880  0.2233 -130.5   6.266   91.1  0.0668   68.5  0.5036  -24.8
 0.900  0.2201 -131.9   6.123   90.4  0.0680   68.6  0.5015  -24.8
 0.920  0.2178 -133.4   6.013   89.9  0.0693   68.7  0.5000  -24.9
 0.940  0.2156 -134.9   5.903   89.3  0.0705   68.9  0.4984  -24.9
 0.960  0.2136 -136.4   5.794   88.7  0.0718   69.0  0.4969  -25.0
 0.980  0.2118 -138.0   5.685   88.1  0.0730   69.1  0.4953  -25.0
 1.000  0.2101 -139.6   5.577   87.5  0.0743   69.2  0.4938  -25.1
 1.020  0.2082 -140.8   5.488   87.1  0.0755   69.3  0.4925  -25.2
 1.040  0.2064 -142.0   5.399   86.6  0.0768   69.3  0.4911  -25.3
 1.060  0.2046 -143.2   5.311   86.2  0.0780   69.4  0.4898  -25.3
 1.080  0.2030 -144.5   5.222   85.7  0.0793   69.4  0.4884  -25.4
 1.100  0.2015 -145.7   5.135   85.2  0.0805   69.5  0.4871  -25.5
 1.120  0.2000 -147.0   5.047   84.7  0.0817   69.5  0.4857  -25.6
 1.140  0.1987 -148.3   4.960   84.2  0.0830   69.6  0.4844  -25.7
 1.160  0.1974 -149.6   4.874   83.6  0.0842   69.6  0.4831  -25.7
 1.180  0.1963 -151.0   4.788   83.1  0.0855   69.7  0.4817  -25.8
 1.200  0.1953 -152.3   4.702   82.5  0.0867   69.7  0.4804  -25.9
 1.220  0.1947 -153.3   4.638   82.1  0.0879   69.7  0.4797  -26.0
 1.240  0.1941 -154.3   4.575   81.7  0.0891   69.8  0.4789  -26.1
 1.260  0.1936 -155.4   4.511   81.3  0.0904   69.8  0.4782  -26.2
 1.280  0.1932 -156.4   4.448   80.9  0.0916   69.9  0.4774  -26.3
 1.300  0.1928 -157.5   4.385   80.5  0.0928   69.9  0.4767  -26.4
 1.320  0.1925 -158.5   4.323   80.0  0.0940   70.0  0.4759  -26.6
 1.340  0.1922 -159.5   4.260   79.6  0.0952   70.0  0.4752  -26.7
 1.360  0.1921 -160.6   4.198   79.1  0.0965   70.0  0.4745  -26.8
 1.380  0.1920 -161.6   4.136   78.6  0.0977   70.1  0.4737  -26.9
 1.400  0.1919 -162.7   4.075   78.1  0.0989   70.1  0.4730  -27.0
 1.420  0.1918 -163.8   4.024   77.7  0.1001   70.1  0.4723  -27.2
 1.440  0.1917 -164.8   3.973   77.3  0.1013   70.1  0.4716  -27.3
 1.460  0.1918 -165.9   3.922   76.8  0.1026   70.0  0.4709  -27.5
 1.480  0.1918 -166.9   3.871   76.4  0.1038   70.0  0.4702  -27.6
 1.500  0.1920 -168.0   3.821   75.9  0.1050   70.0  0.4695  -27.8
 1.520  0.1916 -169.1   3.778   75.5  0.1063   70.0  0.4691  -27.9
 1.540  0.1913 -170.2   3.736   75.1  0.1076   70.1  0.4688  -28.0
 1.560  0.1911 -171.3   3.693   74.7  0.1089   70.1  0.4684  -28.2
 1.580  0.1909 -172.4   3.651   74.3  0.1102   70.2  0.4681  -28.3
 1.600  0.1908 -173.5   3.609   73.9  0.1115   70.2  0.4677  -28.4
 1.620  0.1914 -174.2   3.572   73.6  0.1128   70.2  0.4673  -28.6
 1.640  0.1920 -175.0   3.534   73.2  0.1141   70.2  0.4668  -28.7
 1.660  0.1926 -175.7   3.497   72.9  0.1153   70.1  0.4664  -28.9
 1.680  0.1933 -176.4   3.460   72.6  0.1166   70.1  0.4659  -29.0
 1.700  0.1940 -177.2   3.423   72.2  0.1179   70.1  0.4655  -29.2
 1.720  0.1947 -177.9   3.386   71.8  0.1192   70.1  0.4651  -29.4
 1.740  0.1955 -178.6   3.349   71.5  0.1205   70.1  0.4647  -29.5
 1.760  0.1962 -179.3   3.313   71.1  0.1217   70.0  0.4642  -29.7
 1.780  0.1971  180.0   3.276   70.7  0.1230   70.0  0.4638  -29.8
 1.800  0.1979  179.3   3.240   70.3  0.1243   70.0  0.4634  -30.0
 1.820  0.1973  178.5   3.209   70.0  0.1255   70.0  0.4632  -30.2
 1.840  0.1966  177.7   3.179   69.6  0.1268   70.0  0.4630  -30.4
 1.860  0.1961  176.9   3.148   69.3  0.1280   69.9  0.4627  -30.6
 1.880  0.1955  176.1   3.118   68.9  0.1292   69.9  0.4625  -30.8
 1.900  0.1950  175.3   3.087   68.5  0.1304   69.9  0.4623  -30.9
 1.920  0.1946  174.5   3.057   68.2  0.1317   69.9  0.4621  -31.1
 1.940  0.1941  173.7   3.027   67.8  0.1329   69.9  0.4619  -31.3
 1.960  0.1938  172.9   2.997   67.4  0.1341   69.8  0.4618  -31.5
 1.980  0.1934  172.1   2.968   67.0  0.1354   69.8  0.4616  -31.7
 2.000  0.1931  171.3   2.938   66.6  0.1366   69.8  0.4614  -31.9
 2.020  0.1936  170.7   2.913   66.3  0.1379   69.8  0.4614  -32.1
 2.040  0.1942  170.1   2.889   66.0  0.1392   69.7  0.4615  -32.3
 2.060  0.1948  169.5   2.865   65.7  0.1405   69.7  0.4615  -32.5
 2.080  0.1954  168.9   2.840   65.3  0.1418   69.7  0.4616  -32.7
 2.100  0.1960  168.3   2.816   65.0  0.1430   69.6  0.4616  -32.9
 2.120  0.1966  167.7   2.792   64.7  0.1443   69.6  0.4617  -33.0
 2.140  0.1973  167.1   2.768   64.4  0.1456   69.6  0.4618  -33.2
 2.160  0.1980  166.5   2.744   64.0  0.1469   69.6  0.4618  -33.4
 2.180  0.1987  165.9   2.721   63.7  0.1482   69.5  0.4619  -33.6
 2.200  0.1994  165.3   2.697   63.3  0.1495   69.5  0.4620  -33.8
 2.220  0.1998  164.8   2.677   63.0  0.1508   69.5  0.4620  -34.0
 2.240  0.2003  164.3   2.658   62.7  0.1521   69.4  0.4619  -34.2
 2.260  0.2007  163.8   2.639   62.4  0.1534   69.4  0.4619  -34.4
 2.280  0.2012  163.3   2.619   62.1  0.1547   69.3  0.4618  -34.6
 2.300  0.2017  162.8   2.600   61.8  0.1560   69.3  0.4618  -34.8
 2.320  0.2022  162.3   2.581   61.4  0.1574   69.3  0.4618  -35.1
 2.340  0.2027  161.8   2.562   61.1  0.1587   69.2  0.4618  -35.3
 2.360  0.2032  161.3   2.543   60.8  0.1600   69.2  0.4618  -35.5
 2.380  0.2037  160.8   2.524   60.4  0.1613   69.1  0.4618  -35.7
 2.400  0.2043  160.3   2.505   60.1  0.1626   69.1  0.4618  -35.9
 2.420  0.2043  159.7   2.486   59.8  0.1638   69.1  0.4618  -36.1
 2.440  0.2043  159.1   2.467   59.4  0.1650   69.0  0.4618  -36.2
 2.460  0.2044  158.6   2.448   59.1  0.1663   69.0  0.4618  -36.4
 2.480  0.2044  158.0   2.429   58.8  0.1675   68.9  0.4619  -36.5
 2.500  0.2045  157.4   2.410   58.4  0.1687   68.9  0.4619  -36.7
 2.520  0.2053  156.9   2.396   58.1  0.1700   68.8  0.4619  -36.9
 2.540  0.2061  156.4   2.382   57.9  0.1713   68.8  0.4619  -37.2
 2.560  0.2069  156.0   2.367   57.6  0.1727   68.7  0.4619  -37.4
 2.580  0.2078  155.5   2.353   57.4  0.1740   68.6  0.4619  -37.7
 2.600  0.2086  155.0   2.339   57.1  0.1753   68.6  0.4620  -37.9
 2.620  0.2095  154.6   2.325   56.8  0.1766   68.5  0.4620  -38.1
 2.640  0.2104  154.1   2.311   56.5  0.1779   68.4  0.4621  -38.4
 2.660  0.2113  153.7   2.297   56.3  0.1792   68.4  0.4621  -38.6
 2.680  0.2122  153.2   2.283   56.0  0.1806   68.3  0.4622  -38.9
 2.700  0.2131  152.8   2.270   55.7  0.1819   68.2  0.4623  -39.1
 2.720  0.2140  152.4   2.256   55.4  0.1832   68.2  0.4623  -39.3
 2.740  0.2150  151.9   2.242   55.1  0.1845   68.1  0.4624  -39.6
 2.760  0.2159  151.5   2.229   54.8  0.1858   68.1  0.4625  -39.8
 2.780  0.2169  151.1   2.215   54.5  0.1872   68.0  0.4626  -40.1
 2.800  0.2179  150.6   2.201   54.2  0.1885   67.9  0.4627  -40.3
 2.820  0.2189  150.2   2.188   53.9  0.1898   67.9  0.4629  -40.5
 2.840  0.2199  149.8   2.175   53.6  0.1911   67.8  0.4630  -40.8
 2.860  0.2209  149.4   2.161   53.3  0.1924   67.8  0.4631  -41.0
 2.880  0.2219  149.0   2.148   53.0  0.1938   67.7  0.4633  -41.3
 2.900  0.2229  148.6   2.135   52.7  0.1951   67.7  0.4634  -41.5
 2.920  0.2240  148.2   2.122   52.3  0.1964   67.6  0.4636  -41.7
 2.940  0.2251  147.8   2.109   52.0  0.1977   67.6  0.4637  -42.0
 2.960  0.2261  147.4   2.096   51.7  0.1991   67.5  0.4639  -42.2
 2.980  0.2272  147.0   2.083   51.3  0.2004   67.5  0.4641  -42.5
 3.000  0.2283  146.6   2.070   51.0  0.2017   67.4  0.4643  -42.7
 3.100  0.2304  144.4   2.019   49.8  0.2088   66.9  0.4637  -44.1
 3.200  0.2327  142.3   1.969   48.4  0.2158   66.5  0.4635  -45.5
 3.300  0.2355  140.2   1.921   47.1  0.2229   66.1  0.4634  -46.8
 3.400  0.2385  138.1   1.873   45.6  0.2300   65.8  0.4637  -48.2
 3.500  0.2418  136.1   1.827   44.1  0.2371   65.4  0.4642  -49.6
 3.600  0.2485  134.2   1.791   42.8  0.2441   64.9  0.4632  -51.0
 3.700  0.2554  132.5   1.756   41.5  0.2511   64.4  0.4624  -52.3
 3.800  0.2626  130.8   1.723   40.1  0.2581   63.9  0.4619  -53.7
 3.900  0.2699  129.2   1.690   38.7  0.2651   63.5  0.4617  -55.0
 4.000  0.2775  127.7   1.658   37.2  0.2721   63.1  0.4617  -56.4
 4.100  0.2820  125.9   1.627   36.1  0.2791   62.5  0.4595  -57.9
 4.200  0.2868  124.1   1.597   34.9  0.2861   61.9  0.4576  -59.5
 4.300  0.2918  122.4   1.567   33.7  0.2931   61.4  0.4561  -61.0
 4.400  0.2971  120.8   1.538   32.5  0.3001   60.9  0.4549  -62.6
 4.500  0.3026  119.2   1.510   31.2  0.3072   60.4  0.4540  -64.2
 4.600  0.3084  117.9   1.488   30.0  0.3141   59.9  0.4522  -65.6
 4.700  0.3144  116.7   1.467   28.8  0.3211   59.4  0.4507  -67.0
 4.800  0.3205  115.6   1.447   27.6  0.3281   58.9  0.4495  -68.4
 4.900  0.3267  114.5   1.427   26.3  0.3351   58.4  0.4485  -69.8
 5.000  0.3330  113.4   1.408   25.0  0.3421   58.0  0.4478  -71.2
 5.100  0.3361  111.9   1.388   23.9  0.3498   57.4  0.4471  -72.6
 5.200  0.3394  110.5   1.369   22.9  0.3576   56.9  0.4467  -74.1
 5.300  0.3429  109.1   1.350   21.7  0.3654   56.4  0.4465  -75.5
 5.400  0.3467  107.7   1.332   20.6  0.3732   55.9  0.4467  -77.0
 5.500  0.3506  106.3   1.314   19.4  0.3811   55.4  0.4471  -78.4
 5.600  0.3558  105.2   1.296   18.4  0.3895   54.8  0.4481  -79.9
 5.700  0.3611  104.2   1.278   17.4  0.3979   54.2  0.4494  -81.3
 5.800  0.3665  103.2   1.260   16.4  0.4064   53.6  0.4510  -82.8
 5.900  0.3720  102.2   1.243   15.4  0.4149   53.0  0.4529  -84.2
 6.000  0.3776  101.3   1.226   14.3  0.4234   52.5  0.4551  -85.6
!
!  f       NFmin   Gammaopt  rn/50
! GHz       dB    MAG  ANG    -
!
! noise parameter not available yet for this operation point!
!
! (c) 2015  Infineon Technologies AG, Munich
