! Infineon Technologies  Discrete & RF Semiconductors
! BFR182W
! VCE =  10. V,  IC =  20 mA
! Common Emitter S-Parameters:                            Nov 2015
# GHz  S  MA  R  50
!  f         S11            S21            S12            S22
! GHz     MAG   ANG      MAG   ANG      MAG   ANG      MAG   ANG
 0.100  0.5511  -48.7  30.285  145.2  0.0156   70.2  0.8215  -21.7
 0.105  0.5422  -50.3  29.789  144.2  0.0161   69.7  0.8114  -22.2
 0.110  0.5338  -52.0  29.302  143.1  0.0167   69.2  0.8015  -22.7
 0.115  0.5258  -53.7  28.827  142.0  0.0172   68.8  0.7915  -23.3
 0.120  0.5183  -55.5  28.362  140.9  0.0177   68.4  0.7817  -23.8
 0.125  0.5113  -57.4  27.909  139.7  0.0183   68.0  0.7719  -24.4
 0.130  0.5049  -59.2  27.468  138.5  0.0188   67.6  0.7622  -25.0
 0.135  0.4991  -61.2  27.040  137.2  0.0194   67.2  0.7526  -25.6
 0.140  0.4938  -63.1  26.625  135.9  0.0199   66.9  0.7431  -26.2
 0.145  0.4891  -65.2  26.224  134.6  0.0205   66.6  0.7336  -26.9
 0.150  0.4850  -67.2  25.838  133.2  0.0210   66.3  0.7243  -27.5
 0.155  0.4782  -68.5  25.434  132.4  0.0214   66.1  0.7160  -27.8
 0.160  0.4717  -69.9  25.034  131.6  0.0218   65.9  0.7077  -28.1
 0.165  0.4655  -71.3  24.640  130.8  0.0222   65.7  0.6994  -28.4
 0.170  0.4596  -72.7  24.251  130.0  0.0226   65.5  0.6912  -28.7
 0.175  0.4539  -74.2  23.867  129.1  0.0230   65.4  0.6829  -29.0
 0.180  0.4486  -75.7  23.489  128.2  0.0234   65.2  0.6747  -29.3
 0.185  0.4436  -77.3  23.116  127.3  0.0238   65.0  0.6665  -29.7
 0.190  0.4389  -78.8  22.751  126.3  0.0242   64.9  0.6584  -30.0
 0.195  0.4346  -80.5  22.391  125.3  0.0246   64.7  0.6502  -30.3
 0.200  0.4306  -82.1  22.039  124.3  0.0250   64.6  0.6421  -30.7
 0.220  0.4141  -86.7  20.781  121.9  0.0265   64.4  0.6161  -31.3
 0.240  0.4004  -91.6  19.564  119.2  0.0280   64.3  0.5902  -32.0
 0.260  0.3873  -96.0  18.471  116.8  0.0295   64.1  0.5682  -32.5
 0.280  0.3739  -99.9  17.484  114.7  0.0308   64.0  0.5499  -32.7
 0.300  0.3623 -104.1  16.522  112.4  0.0321   63.9  0.5316  -32.9
 0.320  0.3530 -107.3  15.805  111.1  0.0334   64.3  0.5186  -32.8
 0.340  0.3448 -110.6  15.096  109.7  0.0346   64.6  0.5057  -32.8
 0.360  0.3379 -114.1  14.396  108.2  0.0359   64.9  0.4927  -32.7
 0.380  0.3322 -117.7  13.708  106.6  0.0371   65.2  0.4798  -32.7
 0.400  0.3279 -121.4  13.033  104.7  0.0384   65.5  0.4668  -32.6
 0.420  0.3225 -123.6  12.563  103.8  0.0397   65.8  0.4592  -32.5
 0.440  0.3176 -125.9  12.096  102.8  0.0410   66.1  0.4515  -32.3
 0.450  0.3154 -127.0  11.863  102.3  0.0416   66.3  0.4477  -32.3
 0.460  0.3132 -128.2  11.632  101.7  0.0423   66.4  0.4439  -32.2
 0.480  0.3094 -130.6  11.174  100.6  0.0436   66.7  0.4362  -32.0
 0.500  0.3061 -133.1  10.720   99.3  0.0449   66.9  0.4286  -31.9
 0.520  0.3031 -135.0  10.387   98.5  0.0463   67.1  0.4236  -31.8
 0.540  0.3005 -136.9  10.056   97.7  0.0478   67.4  0.4186  -31.7
 0.560  0.2982 -138.8   9.727   96.9  0.0492   67.6  0.4135  -31.5
 0.580  0.2963 -140.8   9.400   96.0  0.0507   67.8  0.4085  -31.4
 0.600  0.2947 -142.8   9.076   95.0  0.0521   68.0  0.4035  -31.3
 0.620  0.2928 -144.3   8.826   94.3  0.0534   68.2  0.4003  -31.2
 0.640  0.2911 -145.8   8.577   93.6  0.0546   68.4  0.3971  -31.1
 0.660  0.2896 -147.3   8.330   92.9  0.0559   68.6  0.3939  -30.9
 0.680  0.2883 -148.9   8.083   92.1  0.0571   68.8  0.3907  -30.8
 0.700  0.2872 -150.4   7.839   91.3  0.0584   69.0  0.3875  -30.7
 0.720  0.2867 -151.8   7.656   90.7  0.0598   69.2  0.3851  -30.7
 0.740  0.2864 -153.3   7.473   90.2  0.0611   69.3  0.3827  -30.7
 0.760  0.2862 -154.7   7.292   89.5  0.0625   69.4  0.3802  -30.7
 0.780  0.2863 -156.2   7.111   88.9  0.0638   69.6  0.3778  -30.7
 0.800  0.2865 -157.6   6.931   88.2  0.0652   69.7  0.3754  -30.7
 0.820  0.2848 -158.7   6.780   87.7  0.0666   69.8  0.3736  -30.6
 0.840  0.2832 -159.7   6.629   87.2  0.0680   69.9  0.3718  -30.6
 0.860  0.2817 -160.8   6.479   86.6  0.0694   70.0  0.3701  -30.5
 0.880  0.2803 -161.9   6.329   86.0  0.0708   70.1  0.3683  -30.5
 0.900  0.2790 -163.0   6.180   85.4  0.0722   70.2  0.3665  -30.4
 0.920  0.2803 -164.1   6.065   84.9  0.0736   70.3  0.3653  -30.5
 0.940  0.2816 -165.2   5.951   84.4  0.0750   70.4  0.3641  -30.6
 0.960  0.2831 -166.2   5.838   83.9  0.0764   70.4  0.3629  -30.7
 0.980  0.2846 -167.3   5.725   83.4  0.0778   70.5  0.3617  -30.8
 1.000  0.2863 -168.3   5.612   82.8  0.0792   70.6  0.3605  -30.9
 1.020  0.2858 -169.1   5.521   82.4  0.0806   70.6  0.3593  -31.0
 1.040  0.2854 -169.9   5.430   82.0  0.0820   70.7  0.3582  -31.1
 1.060  0.2850 -170.8   5.339   81.6  0.0834   70.7  0.3570  -31.1
 1.080  0.2847 -171.6   5.248   81.2  0.0848   70.7  0.3559  -31.2
 1.100  0.2844 -172.4   5.158   80.7  0.0862   70.8  0.3547  -31.3
 1.120  0.2842 -173.3   5.068   80.3  0.0876   70.8  0.3536  -31.4
 1.140  0.2841 -174.1   4.979   79.8  0.0890   70.8  0.3524  -31.5
 1.160  0.2840 -174.9   4.889   79.3  0.0904   70.8  0.3513  -31.5
 1.180  0.2840 -175.8   4.800   78.8  0.0918   70.9  0.3501  -31.6
 1.200  0.2840 -176.6   4.712   78.3  0.0932   70.9  0.3490  -31.7
 1.220  0.2843 -177.2   4.647   77.9  0.0945   70.9  0.3484  -31.8
 1.240  0.2847 -177.9   4.582   77.6  0.0959   70.9  0.3478  -31.9
 1.260  0.2850 -178.5   4.518   77.2  0.0972   70.8  0.3473  -32.1
 1.280  0.2855 -179.1   4.453   76.8  0.0986   70.8  0.3467  -32.2
 1.300  0.2859 -179.8   4.389   76.4  0.0999   70.8  0.3461  -32.3
 1.320  0.2864  179.6   4.325   75.9  0.1013   70.8  0.3456  -32.4
 1.340  0.2869  179.0   4.261   75.5  0.1026   70.8  0.3450  -32.5
 1.360  0.2875  178.3   4.198   75.0  0.1040   70.7  0.3444  -32.7
 1.380  0.2881  177.7   4.135   74.6  0.1053   70.7  0.3439  -32.8
 1.400  0.2887  177.1   4.072   74.1  0.1067   70.7  0.3433  -32.9
 1.420  0.2892  176.5   4.021   73.7  0.1081   70.7  0.3427  -33.1
 1.440  0.2896  175.9   3.971   73.3  0.1095   70.6  0.3420  -33.3
 1.460  0.2902  175.2   3.921   72.9  0.1109   70.6  0.3414  -33.6
 1.480  0.2907  174.6   3.871   72.5  0.1123   70.5  0.3408  -33.8
 1.500  0.2913  174.0   3.821   72.1  0.1137   70.5  0.3402  -34.0
 1.520  0.2914  173.4   3.776   71.7  0.1151   70.5  0.3399  -34.1
 1.540  0.2916  172.8   3.731   71.4  0.1166   70.5  0.3395  -34.2
 1.560  0.2917  172.1   3.687   71.0  0.1180   70.5  0.3392  -34.2
 1.580  0.2920  171.5   3.642   70.6  0.1195   70.5  0.3388  -34.3
 1.600  0.2922  170.9   3.598   70.2  0.1209   70.5  0.3385  -34.4
 1.620  0.2929  170.4   3.561   69.9  0.1223   70.5  0.3382  -34.6
 1.640  0.2936  170.0   3.523   69.5  0.1237   70.4  0.3378  -34.8
 1.660  0.2944  169.6   3.486   69.2  0.1251   70.4  0.3375  -35.0
 1.680  0.2951  169.1   3.449   68.9  0.1265   70.3  0.3372  -35.2
 1.700  0.2959  168.7   3.412   68.5  0.1278   70.3  0.3369  -35.4
 1.720  0.2967  168.2   3.375   68.1  0.1292   70.2  0.3366  -35.7
 1.740  0.2975  167.8   3.338   67.8  0.1306   70.2  0.3363  -35.9
 1.760  0.2984  167.4   3.302   67.4  0.1320   70.2  0.3360  -36.1
 1.780  0.2992  166.9   3.265   67.0  0.1334   70.1  0.3357  -36.3
 1.800  0.3001  166.5   3.229   66.6  0.1348   70.1  0.3354  -36.5
 1.820  0.3006  166.0   3.198   66.3  0.1362   70.0  0.3352  -36.7
 1.840  0.3011  165.4   3.168   65.9  0.1375   70.0  0.3351  -36.9
 1.860  0.3016  164.9   3.137   65.6  0.1389   69.9  0.3349  -37.2
 1.880  0.3021  164.4   3.107   65.2  0.1403   69.8  0.3348  -37.4
 1.900  0.3027  163.8   3.077   64.9  0.1416   69.8  0.3346  -37.6
 1.920  0.3033  163.3   3.047   64.5  0.1430   69.7  0.3345  -37.8
 1.940  0.3039  162.8   3.017   64.2  0.1444   69.7  0.3344  -38.0
 1.960  0.3045  162.2   2.987   63.8  0.1458   69.6  0.3342  -38.3
 1.980  0.3052  161.7   2.958   63.4  0.1471   69.6  0.3341  -38.5
 2.000  0.3059  161.2   2.928   63.0  0.1485   69.5  0.3340  -38.7
 2.020  0.3062  160.8   2.904   62.7  0.1499   69.4  0.3342  -39.0
 2.040  0.3064  160.4   2.879   62.4  0.1513   69.4  0.3345  -39.2
 2.060  0.3067  160.0   2.855   62.1  0.1526   69.3  0.3347  -39.5
 2.080  0.3070  159.6   2.831   61.7  0.1540   69.2  0.3350  -39.7
 2.100  0.3073  159.2   2.807   61.4  0.1554   69.2  0.3352  -40.0
 2.120  0.3076  158.9   2.783   61.1  0.1568   69.1  0.3355  -40.2
 2.140  0.3080  158.5   2.760   60.7  0.1582   69.1  0.3358  -40.5
 2.160  0.3083  158.1   2.736   60.4  0.1595   69.0  0.3360  -40.7
 2.180  0.3087  157.7   2.712   60.1  0.1609   69.0  0.3363  -41.0
 2.200  0.3091  157.3   2.689   59.7  0.1623   68.9  0.3366  -41.2
 2.220  0.3095  157.0   2.669   59.4  0.1637   68.8  0.3367  -41.5
 2.240  0.3098  156.7   2.649   59.1  0.1652   68.8  0.3367  -41.8
 2.260  0.3102  156.4   2.629   58.8  0.1666   68.7  0.3368  -42.0
 2.280  0.3106  156.1   2.610   58.5  0.1681   68.6  0.3369  -42.3
 2.300  0.3110  155.7   2.590   58.2  0.1695   68.6  0.3369  -42.6
 2.320  0.3114  155.4   2.570   57.8  0.1709   68.5  0.3370  -42.9
 2.340  0.3118  155.1   2.551   57.5  0.1724   68.5  0.3371  -43.2
 2.360  0.3122  154.8   2.532   57.2  0.1738   68.4  0.3373  -43.4
 2.380  0.3127  154.5   2.512   56.8  0.1753   68.4  0.3374  -43.7
 2.400  0.3131  154.2   2.493   56.5  0.1767   68.3  0.3375  -44.0
 2.420  0.3135  153.6   2.474   56.2  0.1780   68.2  0.3375  -44.1
 2.440  0.3139  153.1   2.455   55.8  0.1794   68.1  0.3375  -44.2
 2.460  0.3143  152.5   2.436   55.5  0.1807   68.0  0.3375  -44.4
 2.480  0.3148  152.0   2.417   55.2  0.1821   67.9  0.3375  -44.5
 2.500  0.3153  151.4   2.398   54.8  0.1834   67.8  0.3375  -44.6
 2.520  0.3162  151.0   2.384   54.5  0.1848   67.7  0.3376  -44.9
 2.540  0.3171  150.7   2.369   54.3  0.1862   67.6  0.3376  -45.2
 2.560  0.3180  150.3   2.355   54.0  0.1876   67.5  0.3377  -45.5
 2.580  0.3189  150.0   2.341   53.7  0.1890   67.4  0.3378  -45.8
 2.600  0.3198  149.6   2.327   53.5  0.1905   67.3  0.3379  -46.1
 2.620  0.3207  149.3   2.313   53.2  0.1919   67.3  0.3380  -46.4
 2.640  0.3217  148.9   2.299   52.9  0.1933   67.2  0.3381  -46.7
 2.660  0.3226  148.6   2.285   52.6  0.1947   67.1  0.3383  -47.0
 2.680  0.3236  148.2   2.271   52.4  0.1961   67.0  0.3384  -47.2
 2.700  0.3246  147.9   2.257   52.1  0.1975   66.9  0.3386  -47.5
 2.720  0.3256  147.5   2.243   51.8  0.1989   66.8  0.3387  -47.8
 2.740  0.3266  147.2   2.230   51.5  0.2004   66.8  0.3389  -48.1
 2.760  0.3276  146.9   2.216   51.2  0.2018   66.7  0.3390  -48.4
 2.780  0.3286  146.5   2.202   50.9  0.2032   66.6  0.3392  -48.7
 2.800  0.3296  146.2   2.189   50.6  0.2046   66.5  0.3394  -49.0
 2.820  0.3307  145.9   2.175   50.3  0.2060   66.4  0.3396  -49.3
 2.840  0.3317  145.5   2.162   50.0  0.2074   66.4  0.3398  -49.6
 2.860  0.3328  145.2   2.149   49.6  0.2089   66.3  0.3400  -49.9
 2.880  0.3339  144.9   2.135   49.3  0.2103   66.2  0.3403  -50.2
 2.900  0.3350  144.6   2.122   49.0  0.2117   66.1  0.3405  -50.5
 2.920  0.3361  144.3   2.109   48.7  0.2131   66.1  0.3407  -50.7
 2.940  0.3372  143.9   2.096   48.3  0.2145   66.0  0.3410  -51.0
 2.960  0.3383  143.6   2.083   48.0  0.2160   65.9  0.3413  -51.3
 2.980  0.3395  143.3   2.070   47.6  0.2174   65.9  0.3415  -51.6
 3.000  0.3406  143.0   2.057   47.3  0.2188   65.8  0.3418  -51.9
 3.100  0.3427  141.4   2.008   46.1  0.2262   65.2  0.3419  -53.5
 3.200  0.3450  139.9   1.959   44.7  0.2337   64.7  0.3422  -55.2
 3.300  0.3477  138.3   1.912   43.4  0.2412   64.2  0.3429  -56.8
 3.400  0.3505  136.8   1.866   41.9  0.2487   63.7  0.3438  -58.5
 3.500  0.3536  135.3   1.821   40.4  0.2562   63.3  0.3450  -60.1
 3.600  0.3608  133.7   1.783   39.1  0.2633   62.7  0.3449  -61.7
 3.700  0.3683  132.2   1.746   37.7  0.2705   62.1  0.3450  -63.4
 3.800  0.3761  130.7   1.710   36.3  0.2777   61.5  0.3455  -65.0
 3.900  0.3841  129.3   1.676   34.8  0.2849   61.0  0.3462  -66.6
 4.000  0.3923  127.9   1.642   33.2  0.2922   60.5  0.3472  -68.2
 4.100  0.3950  126.3   1.610   32.0  0.2988   59.8  0.3460  -70.1
 4.200  0.3981  124.7   1.579   30.8  0.3055   59.1  0.3451  -72.1
 4.300  0.4014  123.1   1.548   29.6  0.3122   58.5  0.3447  -74.1
 4.400  0.4051  121.6   1.518   28.3  0.3190   57.9  0.3447  -76.0
 4.500  0.4090  120.1   1.489   26.9  0.3258   57.3  0.3451  -78.0
 4.600  0.4150  118.9   1.465   25.7  0.3331   56.7  0.3438  -79.7
 4.700  0.4211  117.8   1.443   24.5  0.3405   56.1  0.3428  -81.5
 4.800  0.4274  116.6   1.420   23.2  0.3478   55.5  0.3422  -83.2
 4.900  0.4339  115.6   1.399   21.9  0.3553   55.0  0.3418  -84.9
 5.000  0.4405  114.5   1.378   20.6  0.3627   54.5  0.3418  -86.7
 5.100  0.4435  113.0   1.358   19.5  0.3704   54.0  0.3420  -88.3
 5.200  0.4468  111.4   1.338   18.5  0.3781   53.4  0.3425  -89.8
 5.300  0.4504  109.9   1.319   17.3  0.3858   52.9  0.3433  -91.3
 5.400  0.4543  108.5   1.301   16.2  0.3936   52.5  0.3443  -92.9
 5.500  0.4585  107.0   1.283   15.0  0.4014   52.0  0.3455  -94.4
 5.600  0.4616  106.2   1.264   14.1  0.4097   51.3  0.3466  -96.0
 5.700  0.4648  105.3   1.245   13.2  0.4180   50.6  0.3480  -97.6
 5.800  0.4681  104.5   1.227   12.2  0.4263   50.0  0.3496  -99.1
 5.900  0.4714  103.7   1.209   11.2  0.4347   49.4  0.3515 -100.7
 6.000  0.4749  102.9   1.191   10.2  0.4432   48.8  0.3537 -102.2
!
!  f       NFmin   Gammaopt  rn/50
! GHz       dB    MAG  ANG    -
!
! noise parameter not available yet for this operation point!
!
! (c) 2015  Infineon Technologies AG, Munich
