! Infineon Technologies  Discrete & RF Semiconductors
! BFR181W
! VCE =  2.0 V,  IC =  5.0 mA
! Common Emitter S-Parameters:                            Nov 2015
# GHz  S  MA  R  50
!  f         S11            S21            S12            S22
! GHz     MAG   ANG      MAG   ANG      MAG   ANG      MAG   ANG
 0.100  0.8255  -20.7  12.894  162.9  0.0169   78.6  0.9604   -9.1
 0.105  0.8210  -21.6  12.832  162.1  0.0177   78.0  0.9571   -9.5
 0.110  0.8167  -22.6  12.772  161.3  0.0184   77.4  0.9539   -9.9
 0.115  0.8126  -23.5  12.714  160.5  0.0192   76.9  0.9507  -10.3
 0.120  0.8087  -24.5  12.659  159.7  0.0200   76.5  0.9475  -10.7
 0.125  0.8051  -25.4  12.607  158.9  0.0208   76.0  0.9444  -11.1
 0.130  0.8017  -26.4  12.557  158.1  0.0216   75.6  0.9414  -11.5
 0.135  0.7986  -27.4  12.510  157.3  0.0223   75.3  0.9384  -11.9
 0.140  0.7956  -28.4  12.465  156.5  0.0231   74.9  0.9354  -12.3
 0.145  0.7929  -29.4  12.423  155.6  0.0239   74.6  0.9325  -12.7
 0.150  0.7905  -30.4  12.383  154.8  0.0247   74.3  0.9296  -13.1
 0.155  0.7854  -31.2  12.311  154.1  0.0253   73.8  0.9259  -13.4
 0.160  0.7805  -32.1  12.240  153.4  0.0260   73.4  0.9222  -13.8
 0.165  0.7757  -33.0  12.171  152.7  0.0266   73.0  0.9185  -14.1
 0.170  0.7712  -33.8  12.104  152.0  0.0272   72.6  0.9149  -14.4
 0.175  0.7668  -34.7  12.039  151.3  0.0279   72.2  0.9113  -14.8
 0.180  0.7626  -35.6  11.975  150.6  0.0285   71.8  0.9077  -15.1
 0.185  0.7586  -36.5  11.914  149.8  0.0292   71.5  0.9042  -15.5
 0.190  0.7548  -37.4  11.855  149.1  0.0298   71.1  0.9007  -15.8
 0.195  0.7511  -38.4  11.797  148.4  0.0305   70.8  0.8972  -16.1
 0.200  0.7477  -39.3  11.742  147.6  0.0311   70.5  0.8938  -16.5
 0.220  0.7275  -42.5  11.453  145.1  0.0334   68.9  0.8778  -17.6
 0.240  0.7097  -45.9  11.188  142.5  0.0358   67.5  0.8622  -18.7
 0.260  0.6924  -49.0  10.912  140.0  0.0380   66.4  0.8471  -19.7
 0.280  0.6750  -52.0  10.622  137.7  0.0399   65.5  0.8326  -20.6
 0.300  0.6596  -55.2  10.350  135.2  0.0419   64.6  0.8182  -21.5
 0.320  0.6401  -57.6  10.067  133.4  0.0435   63.7  0.8046  -22.1
 0.340  0.6218  -60.2   9.795  131.4  0.0451   62.9  0.7910  -22.6
 0.360  0.6048  -63.0   9.535  129.4  0.0467   62.2  0.7775  -23.2
 0.380  0.5893  -65.9   9.288  127.3  0.0483   61.5  0.7641  -23.9
 0.400  0.5754  -68.9   9.054  125.0  0.0499   60.8  0.7508  -24.5
 0.420  0.5610  -70.9   8.817  123.6  0.0512   60.3  0.7399  -24.8
 0.440  0.5473  -73.1   8.585  122.2  0.0525   59.8  0.7291  -25.2
 0.450  0.5407  -74.2   8.471  121.4  0.0532   59.6  0.7237  -25.4
 0.460  0.5344  -75.4   8.359  120.6  0.0538   59.4  0.7183  -25.5
 0.480  0.5224  -77.7   8.140  119.0  0.0552   58.9  0.7075  -25.9
 0.500  0.5113  -80.2   7.927  117.3  0.0565   58.5  0.6967  -26.3
 0.520  0.4983  -82.1   7.735  116.1  0.0576   58.3  0.6883  -26.5
 0.540  0.4859  -84.0   7.547  114.9  0.0588   58.2  0.6799  -26.7
 0.560  0.4740  -86.1   7.362  113.6  0.0599   58.0  0.6715  -26.9
 0.580  0.4628  -88.2   7.181  112.2  0.0611   57.8  0.6632  -27.2
 0.600  0.4523  -90.5   7.005  110.8  0.0622   57.7  0.6548  -27.4
 0.620  0.4430  -92.2   6.844  109.8  0.0632   57.7  0.6485  -27.5
 0.640  0.4342  -94.0   6.685  108.7  0.0642   57.7  0.6422  -27.7
 0.660  0.4257  -95.9   6.529  107.6  0.0652   57.6  0.6359  -27.8
 0.680  0.4178  -97.8   6.375  106.4  0.0662   57.6  0.6296  -28.0
 0.700  0.4103  -99.8   6.224  105.2  0.0672   57.6  0.6233  -28.1
 0.720  0.4034 -101.4   6.099  104.3  0.0682   57.6  0.6183  -28.2
 0.740  0.3968 -103.1   5.974  103.4  0.0691   57.7  0.6134  -28.3
 0.760  0.3906 -104.9   5.852  102.5  0.0701   57.7  0.6084  -28.4
 0.780  0.3848 -106.7   5.731  101.5  0.0710   57.8  0.6035  -28.5
 0.800  0.3793 -108.5   5.612  100.5  0.0720   57.8  0.5985  -28.6
 0.820  0.3728 -109.9   5.502   99.8  0.0730   57.9  0.5948  -28.7
 0.840  0.3665 -111.3   5.393   99.0  0.0740   58.0  0.5911  -28.7
 0.860  0.3604 -112.7   5.285   98.3  0.0749   58.0  0.5873  -28.8
 0.880  0.3546 -114.2   5.178   97.4  0.0759   58.1  0.5836  -28.8
 0.900  0.3490 -115.8   5.072   96.6  0.0769   58.2  0.5799  -28.9
 0.920  0.3451 -117.2   4.987   95.9  0.0778   58.3  0.5768  -29.0
 0.940  0.3414 -118.7   4.903   95.2  0.0788   58.4  0.5737  -29.1
 0.960  0.3380 -120.2   4.819   94.5  0.0797   58.5  0.5707  -29.2
 0.980  0.3348 -121.7   4.737   93.7  0.0807   58.6  0.5676  -29.3
 1.000  0.3318 -123.3   4.655   92.9  0.0816   58.7  0.5645  -29.4
 1.020  0.3277 -124.4   4.583   92.3  0.0826   58.8  0.5621  -29.5
 1.040  0.3237 -125.6   4.512   91.8  0.0836   58.9  0.5598  -29.6
 1.060  0.3198 -126.8   4.442   91.2  0.0846   59.0  0.5574  -29.7
 1.080  0.3161 -128.0   4.371   90.6  0.0856   59.1  0.5551  -29.8
 1.100  0.3126 -129.3   4.302   90.0  0.0865   59.2  0.5527  -29.8
 1.120  0.3092 -130.6   4.233   89.3  0.0875   59.3  0.5504  -29.9
 1.140  0.3059 -131.9   4.164   88.6  0.0885   59.4  0.5480  -30.0
 1.160  0.3028 -133.2   4.096   88.0  0.0895   59.5  0.5457  -30.1
 1.180  0.2999 -134.6   4.029   87.2  0.0905   59.6  0.5433  -30.2
 1.200  0.2972 -136.0   3.962   86.5  0.0915   59.7  0.5410  -30.3
 1.220  0.2953 -137.1   3.910   86.0  0.0925   59.8  0.5396  -30.4
 1.240  0.2935 -138.2   3.859   85.5  0.0934   60.0  0.5381  -30.5
 1.260  0.2919 -139.4   3.808   85.0  0.0944   60.1  0.5367  -30.6
 1.280  0.2904 -140.5   3.757   84.5  0.0953   60.3  0.5353  -30.7
 1.300  0.2889 -141.7   3.706   84.0  0.0963   60.4  0.5339  -30.8
 1.320  0.2876 -142.9   3.656   83.4  0.0973   60.5  0.5325  -30.9
 1.340  0.2865 -144.1   3.606   82.9  0.0982   60.6  0.5310  -31.0
 1.360  0.2854 -145.3   3.557   82.3  0.0992   60.8  0.5296  -31.1
 1.380  0.2845 -146.5   3.508   81.7  0.1001   60.9  0.5282  -31.2
 1.400  0.2837 -147.7   3.459   81.1  0.1011   61.0  0.5268  -31.3
 1.420  0.2822 -148.8   3.418   80.6  0.1021   61.1  0.5256  -31.4
 1.440  0.2809 -149.8   3.377   80.1  0.1031   61.2  0.5244  -31.6
 1.460  0.2796 -150.9   3.336   79.6  0.1041   61.3  0.5233  -31.7
 1.480  0.2785 -152.0   3.295   79.0  0.1051   61.4  0.5221  -31.9
 1.500  0.2774 -153.1   3.255   78.5  0.1061   61.5  0.5209  -32.0
 1.520  0.2755 -154.2   3.219   78.0  0.1072   61.6  0.5201  -32.1
 1.540  0.2737 -155.2   3.182   77.5  0.1083   61.7  0.5193  -32.2
 1.560  0.2719 -156.3   3.146   77.0  0.1095   61.9  0.5185  -32.4
 1.580  0.2703 -157.4   3.111   76.5  0.1106   62.0  0.5177  -32.5
 1.600  0.2688 -158.5   3.075   76.0  0.1117   62.1  0.5169  -32.6
 1.620  0.2683 -159.4   3.044   75.6  0.1128   62.2  0.5162  -32.7
 1.640  0.2678 -160.3   3.013   75.2  0.1138   62.3  0.5154  -32.9
 1.660  0.2674 -161.3   2.983   74.8  0.1149   62.4  0.5147  -33.0
 1.680  0.2671 -162.2   2.952   74.3  0.1159   62.5  0.5140  -33.2
 1.700  0.2668 -163.1   2.922   73.9  0.1170   62.6  0.5133  -33.3
 1.720  0.2666 -164.1   2.892   73.5  0.1181   62.7  0.5125  -33.5
 1.740  0.2665 -165.0   2.862   73.0  0.1191   62.7  0.5118  -33.6
 1.760  0.2665 -165.9   2.832   72.6  0.1202   62.8  0.5111  -33.8
 1.780  0.2665 -166.9   2.802   72.1  0.1212   62.9  0.5104  -33.9
 1.800  0.2666 -167.8   2.773   71.6  0.1223   63.0  0.5097  -34.1
 1.820  0.2660 -168.6   2.747   71.2  0.1234   63.1  0.5093  -34.3
 1.840  0.2655 -169.5   2.722   70.8  0.1245   63.1  0.5088  -34.5
 1.860  0.2650 -170.3   2.697   70.4  0.1255   63.2  0.5084  -34.6
 1.880  0.2645 -171.2   2.672   70.0  0.1266   63.3  0.5080  -34.8
 1.900  0.2642 -172.0   2.647   69.6  0.1277   63.4  0.5076  -35.0
 1.920  0.2639 -172.9   2.622   69.2  0.1288   63.4  0.5072  -35.2
 1.940  0.2636 -173.7   2.597   68.7  0.1299   63.5  0.5068  -35.4
 1.960  0.2634 -174.6   2.573   68.3  0.1309   63.6  0.5064  -35.5
 1.980  0.2633 -175.4   2.548   67.9  0.1320   63.6  0.5060  -35.7
 2.000  0.2632 -176.3   2.524   67.4  0.1331   63.7  0.5056  -35.9
 2.020  0.2632 -177.0   2.503   67.0  0.1342   63.8  0.5055  -36.1
 2.040  0.2633 -177.7   2.482   66.7  0.1353   63.8  0.5053  -36.2
 2.060  0.2634 -178.4   2.462   66.3  0.1364   63.9  0.5052  -36.4
 2.080  0.2635 -179.1   2.441   65.9  0.1375   64.0  0.5051  -36.6
 2.100  0.2637 -179.8   2.421   65.5  0.1386   64.0  0.5049  -36.7
 2.120  0.2639  179.5   2.400   65.1  0.1398   64.1  0.5048  -36.9
 2.140  0.2641  178.8   2.380   64.7  0.1409   64.1  0.5047  -37.1
 2.160  0.2644  178.1   2.360   64.3  0.1420   64.2  0.5046  -37.3
 2.180  0.2647  177.4   2.340   63.9  0.1431   64.2  0.5045  -37.4
 2.200  0.2651  176.7   2.320   63.5  0.1442   64.3  0.5044  -37.6
 2.220  0.2652  176.0   2.304   63.2  0.1454   64.4  0.5043  -37.8
 2.240  0.2654  175.4   2.288   62.8  0.1466   64.4  0.5041  -38.0
 2.260  0.2656  174.7   2.272   62.5  0.1479   64.5  0.5040  -38.3
 2.280  0.2658  174.0   2.256   62.1  0.1491   64.5  0.5039  -38.5
 2.300  0.2661  173.4   2.240   61.8  0.1503   64.6  0.5038  -38.7
 2.320  0.2664  172.7   2.224   61.4  0.1515   64.6  0.5037  -38.9
 2.340  0.2667  172.1   2.208   61.0  0.1527   64.7  0.5036  -39.1
 2.360  0.2671  171.4   2.193   60.7  0.1540   64.7  0.5035  -39.4
 2.380  0.2675  170.8   2.177   60.3  0.1552   64.8  0.5034  -39.6
 2.400  0.2679  170.1   2.162   59.9  0.1564   64.8  0.5033  -39.8
 2.420  0.2673  169.4   2.145   59.5  0.1576   64.8  0.5032  -39.9
 2.440  0.2667  168.7   2.129   59.2  0.1587   64.8  0.5032  -40.1
 2.460  0.2662  168.1   2.112   58.8  0.1599   64.9  0.5031  -40.2
 2.480  0.2657  167.4   2.095   58.4  0.1610   64.9  0.5031  -40.4
 2.500  0.2653  166.7   2.079   58.0  0.1622   64.9  0.5030  -40.5
 2.520  0.2658  166.1   2.067   57.7  0.1635   64.9  0.5030  -40.7
 2.540  0.2663  165.5   2.054   57.4  0.1647   64.9  0.5029  -41.0
 2.560  0.2668  164.9   2.042   57.1  0.1660   64.9  0.5029  -41.2
 2.580  0.2674  164.3   2.030   56.8  0.1672   64.9  0.5029  -41.5
 2.600  0.2680  163.7   2.018   56.5  0.1685   64.9  0.5029  -41.7
 2.620  0.2686  163.1   2.006   56.2  0.1697   65.0  0.5029  -41.9
 2.640  0.2693  162.5   1.994   55.9  0.1710   65.0  0.5029  -42.2
 2.660  0.2700  161.9   1.982   55.6  0.1722   65.0  0.5029  -42.4
 2.680  0.2707  161.4   1.970   55.3  0.1735   65.0  0.5030  -42.7
 2.700  0.2714  160.8   1.959   55.0  0.1748   65.0  0.5030  -42.9
 2.720  0.2722  160.2   1.947   54.7  0.1760   65.0  0.5031  -43.1
 2.740  0.2730  159.6   1.935   54.3  0.1773   65.0  0.5031  -43.4
 2.760  0.2738  159.1   1.924   54.0  0.1785   65.0  0.5032  -43.6
 2.780  0.2747  158.5   1.912   53.7  0.1798   65.0  0.5033  -43.9
 2.800  0.2755  157.9   1.901   53.3  0.1810   65.0  0.5034  -44.1
 2.820  0.2764  157.4   1.889   53.0  0.1823   65.0  0.5035  -44.3
 2.840  0.2774  156.8   1.878   52.6  0.1836   65.0  0.5036  -44.6
 2.860  0.2783  156.3   1.867   52.3  0.1848   65.1  0.5037  -44.8
 2.880  0.2793  155.7   1.856   51.9  0.1861   65.1  0.5038  -45.1
 2.900  0.2803  155.2   1.844   51.6  0.1873   65.1  0.5039  -45.3
 2.920  0.2813  154.6   1.833   51.2  0.1886   65.1  0.5041  -45.5
 2.940  0.2824  154.1   1.822   50.8  0.1898   65.1  0.5042  -45.8
 2.960  0.2835  153.6   1.812   50.5  0.1911   65.1  0.5044  -46.0
 2.980  0.2846  153.0   1.801   50.1  0.1923   65.1  0.5045  -46.3
 3.000  0.2857  152.5   1.790   49.7  0.1936   65.1  0.5047  -46.5
 3.100  0.2871  150.2   1.747   48.3  0.2007   64.9  0.5042  -47.9
 3.200  0.2889  148.0   1.706   46.9  0.2078   64.7  0.5039  -49.3
 3.300  0.2912  145.7   1.665   45.4  0.2149   64.6  0.5040  -50.8
 3.400  0.2939  143.5   1.626   43.8  0.2220   64.4  0.5044  -52.2
 3.500  0.2970  141.4   1.588   42.2  0.2291   64.3  0.5051  -53.6
 3.600  0.3034  139.1   1.557   40.8  0.2363   63.9  0.5041  -55.0
 3.700  0.3103  136.9   1.527   39.4  0.2436   63.6  0.5033  -56.4
 3.800  0.3176  134.8   1.499   37.9  0.2508   63.3  0.5029  -57.8
 3.900  0.3253  132.8   1.471   36.4  0.2580   63.0  0.5027  -59.2
 4.000  0.3334  130.9   1.444   34.8  0.2653   62.7  0.5029  -60.6
 4.100  0.3367  128.9   1.417   33.6  0.2727   62.2  0.5009  -62.2
 4.200  0.3404  127.0   1.391   32.4  0.2802   61.8  0.4993  -63.8
 4.300  0.3445  125.1   1.366   31.2  0.2877   61.4  0.4981  -65.4
 4.400  0.3489  123.2   1.341   29.9  0.2952   61.0  0.4972  -67.0
 4.500  0.3537  121.4   1.317   28.5  0.3027   60.6  0.4968  -68.6
 4.600  0.3599  119.8   1.298   27.3  0.3104   60.1  0.4951  -70.1
 4.700  0.3664  118.3   1.280   26.2  0.3182   59.6  0.4937  -71.6
 4.800  0.3731  116.9   1.262   24.9  0.3260   59.1  0.4927  -73.1
 4.900  0.3800  115.5   1.245   23.7  0.3338   58.6  0.4920  -74.7
 5.000  0.3872  114.1   1.229   22.4  0.3416   58.2  0.4917  -76.2
 5.100  0.3915  112.5   1.211   21.3  0.3500   57.7  0.4908  -77.7
 5.200  0.3962  110.9   1.193   20.3  0.3584   57.1  0.4902  -79.3
 5.300  0.4011  109.4   1.176   19.1  0.3669   56.6  0.4899  -80.8
 5.400  0.4063  107.9   1.159   18.0  0.3754   56.2  0.4900  -82.4
 5.500  0.4118  106.4   1.143   16.8  0.3839   55.7  0.4905  -83.9
 5.600  0.4133  105.0   1.126   15.9  0.3930   55.0  0.4913  -85.5
 5.700  0.4150  103.6   1.110   14.9  0.4021   54.3  0.4924  -87.0
 5.800  0.4170  102.2   1.094   13.9  0.4113   53.7  0.4939  -88.5
 5.900  0.4192  100.8   1.078   12.9  0.4205   53.1  0.4958  -90.1
 6.000  0.4217   99.4   1.063   11.8  0.4298   52.5  0.4980  -91.6
!
!  f       NFmin   Gammaopt  rn/50
! GHz       dB    MAG  ANG    -
 0.450      1.55  0.48   17   0.36
 0.900      1.65  0.40   35   0.34
 1.800      2.00  0.18   88   0.34
!
! (c) 2015  Infineon Technologies AG, Munich
