! Infineon Technologies  Discrete & RF Semiconductors
! BFR182
! VCE =  3.0 V,  IC =  7.0 mA
! Common Emitter S-Parameters:                            Nov 2015
# GHz  S  MA  R  50
!  f         S11            S21            S12            S22
! GHz     MAG   ANG      MAG   ANG      MAG   ANG      MAG   ANG
 0.010  0.7701   -3.1  18.751  177.3  0.0018   82.9  0.9868   -1.4
 0.015  0.7668   -4.6  18.537  175.8  0.0028   88.7  0.9833   -2.1
 0.020  0.7640   -6.2  18.336  174.3  0.0038   91.5  0.9799   -2.9
 0.025  0.7611   -7.7  18.319  173.0  0.0048   88.5  0.9777   -3.6
 0.030  0.7586   -9.1  18.312  171.7  0.0057   86.6  0.9757   -4.3
 0.035  0.7567  -10.6  18.314  170.4  0.0067   85.2  0.9738   -5.0
 0.040  0.7553  -12.1  18.325  169.2  0.0077   84.1  0.9720   -5.8
 0.045  0.7544  -13.6  18.346  167.9  0.0087   83.3  0.9704   -6.5
 0.050  0.7540  -15.1  18.375  166.6  0.0097   82.7  0.9690   -7.2
 0.055  0.7473  -16.5  18.237  165.5  0.0106   81.7  0.9639   -7.8
 0.060  0.7410  -17.8  18.106  164.3  0.0114   80.9  0.9589   -8.4
 0.065  0.7352  -19.2  17.983  163.1  0.0123   80.2  0.9540   -9.0
 0.070  0.7298  -20.7  17.867  161.9  0.0132   79.6  0.9492   -9.6
 0.075  0.7248  -22.1  17.760  160.7  0.0140   79.0  0.9445  -10.2
 0.080  0.7203  -23.6  17.660  159.5  0.0149   78.6  0.9399  -10.8
 0.085  0.7163  -25.1  17.568  158.3  0.0158   78.1  0.9355  -11.5
 0.090  0.7128  -26.6  17.485  157.0  0.0167   77.8  0.9311  -12.1
 0.095  0.7098  -28.1  17.410  155.8  0.0175   77.4  0.9269  -12.8
 0.100  0.7073  -29.6  17.343  154.5  0.0184   77.1  0.9228  -13.4
 0.105  0.6993  -30.7  17.155  153.5  0.0192   76.3  0.9166  -13.9
 0.110  0.6916  -31.9  16.973  152.4  0.0199   75.5  0.9104  -14.3
 0.115  0.6842  -33.1  16.797  151.3  0.0207   74.8  0.9043  -14.8
 0.120  0.6771  -34.3  16.627  150.2  0.0214   74.1  0.8983  -15.2
 0.125  0.6703  -35.5  16.464  149.0  0.0222   73.5  0.8923  -15.7
 0.130  0.6638  -36.7  16.307  147.9  0.0230   72.9  0.8864  -16.2
 0.135  0.6577  -38.0  16.157  146.7  0.0238   72.4  0.8806  -16.7
 0.140  0.6518  -39.3  16.015  145.5  0.0245   71.9  0.8748  -17.2
 0.145  0.6463  -40.7  15.879  144.2  0.0253   71.4  0.8691  -17.7
 0.150  0.6412  -42.0  15.751  143.0  0.0261   71.0  0.8634  -18.2
 0.155  0.6336  -43.0  15.591  142.2  0.0267   70.6  0.8572  -18.5
 0.160  0.6263  -44.0  15.434  141.4  0.0273   70.2  0.8510  -18.8
 0.165  0.6191  -45.1  15.280  140.6  0.0279   69.8  0.8449  -19.2
 0.170  0.6122  -46.2  15.130  139.7  0.0284   69.4  0.8388  -19.5
 0.175  0.6055  -47.3  14.983  138.9  0.0290   69.0  0.8327  -19.8
 0.180  0.5990  -48.4  14.839  138.0  0.0296   68.7  0.8266  -20.2
 0.185  0.5927  -49.6  14.699  137.1  0.0302   68.3  0.8206  -20.5
 0.190  0.5867  -50.8  14.563  136.2  0.0308   68.0  0.8146  -20.9
 0.195  0.5810  -52.0  14.430  135.2  0.0314   67.7  0.8086  -21.2
 0.200  0.5755  -53.2  14.301  134.3  0.0320   67.4  0.8027  -21.6
 0.220  0.5499  -56.8  13.669  131.5  0.0340   66.6  0.7807  -22.5
 0.240  0.5266  -60.7  13.073  128.4  0.0359   65.9  0.7589  -23.4
 0.260  0.5045  -64.3  12.514  125.7  0.0379   65.3  0.7397  -24.1
 0.280  0.4825  -67.4  11.975  123.4  0.0399   64.8  0.7229  -24.7
 0.300  0.4621  -70.9  11.458  120.9  0.0419   64.4  0.7061  -25.2
 0.320  0.4430  -73.3  11.041  119.3  0.0434   64.1  0.6924  -25.4
 0.340  0.4247  -75.8  10.633  117.6  0.0449   63.9  0.6787  -25.7
 0.360  0.4073  -78.7  10.236  115.7  0.0465   63.6  0.6650  -25.9
 0.380  0.3910  -81.7   9.850  113.8  0.0480   63.4  0.6514  -26.1
 0.400  0.3759  -85.0   9.477  111.6  0.0495   63.2  0.6377  -26.4
 0.420  0.3615  -87.1   9.149  110.3  0.0509   63.2  0.6281  -26.5
 0.440  0.3477  -89.5   8.827  108.8  0.0523   63.2  0.6185  -26.6
 0.450  0.3410  -90.7   8.668  108.1  0.0530   63.1  0.6136  -26.6
 0.460  0.3345  -92.0   8.511  107.3  0.0537   63.1  0.6088  -26.6
 0.480  0.3220  -94.7   8.201  105.6  0.0551   63.1  0.5992  -26.7
 0.500  0.3103  -97.6   7.899  103.8  0.0565   63.1  0.5896  -26.8
 0.520  0.3025  -99.5   7.675  102.8  0.0581   63.2  0.5836  -26.8
 0.540  0.2950 -101.6   7.454  101.8  0.0597   63.2  0.5775  -26.8
 0.560  0.2879 -103.7   7.235  100.7  0.0613   63.3  0.5715  -26.9
 0.580  0.2812 -106.0   7.019   99.5  0.0629   63.3  0.5654  -26.9
 0.600  0.2750 -108.3   6.806   98.3  0.0645   63.4  0.5594  -26.9
 0.620  0.2671 -110.3   6.634   97.4  0.0659   63.5  0.5551  -26.9
 0.640  0.2596 -112.4   6.464   96.5  0.0673   63.7  0.5508  -26.9
 0.660  0.2525 -114.6   6.296   95.5  0.0686   63.8  0.5466  -27.0
 0.680  0.2457 -116.9   6.130   94.5  0.0700   63.9  0.5423  -27.0
 0.700  0.2394 -119.4   5.966   93.4  0.0714   64.0  0.5380  -27.0
 0.720  0.2340 -121.1   5.827   92.6  0.0729   64.1  0.5349  -27.0
 0.740  0.2288 -123.0   5.690   91.8  0.0744   64.2  0.5319  -27.1
 0.760  0.2238 -124.9   5.553   90.9  0.0760   64.2  0.5288  -27.1
 0.780  0.2191 -126.8   5.418   90.0  0.0775   64.3  0.5258  -27.2
 0.800  0.2147 -128.9   5.285   89.0  0.0790   64.4  0.5227  -27.2
 0.820  0.2091 -130.5   5.177   88.3  0.0806   64.5  0.5201  -27.2
 0.840  0.2037 -132.1   5.070   87.5  0.0822   64.5  0.5174  -27.3
 0.860  0.1984 -133.8   4.964   86.8  0.0839   64.6  0.5148  -27.3
 0.880  0.1934 -135.7   4.858   85.9  0.0855   64.6  0.5121  -27.4
 0.900  0.1885 -137.6   4.754   85.1  0.0871   64.7  0.5095  -27.4
 0.920  0.1866 -140.0   4.669   84.5  0.0886   64.8  0.5075  -27.5
 0.940  0.1850 -142.4   4.585   83.8  0.0901   64.9  0.5054  -27.6
 0.960  0.1838 -144.8   4.501   83.1  0.0916   64.9  0.5034  -27.7
 0.980  0.1829 -147.3   4.418   82.4  0.0931   65.0  0.5013  -27.8
 1.000  0.1823 -149.8   4.336   81.6  0.0946   65.1  0.4993  -27.9
 1.020  0.1802 -151.6   4.266   81.0  0.0962   65.1  0.4978  -28.0
 1.040  0.1783 -153.5   4.197   80.4  0.0978   65.1  0.4963  -28.1
 1.060  0.1765 -155.5   4.128   79.8  0.0993   65.2  0.4948  -28.3
 1.080  0.1750 -157.4   4.060   79.2  0.1009   65.2  0.4933  -28.4
 1.100  0.1737 -159.4   3.992   78.5  0.1025   65.2  0.4918  -28.5
 1.120  0.1726 -161.2   3.930   77.9  0.1041   65.2  0.4905  -28.7
 1.140  0.1718 -163.1   3.868   77.3  0.1057   65.2  0.4892  -28.8
 1.160  0.1711 -164.9   3.806   76.7  0.1074   65.3  0.4879  -29.0
 1.180  0.1705 -166.8   3.745   76.1  0.1090   65.3  0.4866  -29.1
 1.200  0.1702 -168.7   3.685   75.4  0.1106   65.3  0.4853  -29.3
 1.220  0.1691 -170.0   3.630   74.9  0.1122   65.3  0.4843  -29.4
 1.240  0.1681 -171.3   3.574   74.4  0.1139   65.2  0.4833  -29.6
 1.260  0.1671 -172.6   3.520   73.8  0.1155   65.2  0.4822  -29.7
 1.280  0.1663 -173.9   3.465   73.3  0.1172   65.1  0.4812  -29.9
 1.300  0.1655 -175.2   3.411   72.7  0.1188   65.1  0.4802  -30.0
 1.320  0.1663 -177.1   3.366   72.2  0.1202   65.1  0.4793  -30.2
 1.340  0.1672 -179.0   3.321   71.7  0.1217   65.1  0.4783  -30.5
 1.360  0.1683  179.2   3.276   71.1  0.1231   65.1  0.4774  -30.7
 1.380  0.1696  177.4   3.231   70.6  0.1246   65.1  0.4765  -31.0
 1.400  0.1711  175.6   3.187   70.0  0.1260   65.1  0.4756  -31.2
 1.420  0.1701  174.3   3.152   69.5  0.1277   65.0  0.4746  -31.4
 1.440  0.1692  172.9   3.117   69.1  0.1295   64.9  0.4737  -31.6
 1.460  0.1684  171.6   3.082   68.6  0.1312   64.9  0.4728  -31.8
 1.480  0.1676  170.2   3.047   68.1  0.1330   64.8  0.4718  -32.0
 1.500  0.1670  168.8   3.013   67.6  0.1347   64.7  0.4709  -32.2
 1.520  0.1684  167.1   2.976   67.0  0.1364   64.6  0.4700  -32.4
 1.540  0.1700  165.5   2.938   66.4  0.1380   64.6  0.4690  -32.6
 1.560  0.1718  163.9   2.902   65.8  0.1397   64.5  0.4681  -32.7
 1.580  0.1736  162.3   2.865   65.2  0.1413   64.5  0.4671  -32.9
 1.600  0.1756  160.8   2.829   64.5  0.1430   64.4  0.4662  -33.1
 1.620  0.1762  159.6   2.800   64.0  0.1447   64.3  0.4650  -33.3
 1.640  0.1769  158.5   2.772   63.6  0.1464   64.3  0.4637  -33.6
 1.660  0.1777  157.4   2.743   63.1  0.1480   64.2  0.4625  -33.8
 1.680  0.1785  156.2   2.715   62.6  0.1497   64.2  0.4613  -34.1
 1.700  0.1794  155.1   2.687   62.1  0.1514   64.1  0.4601  -34.3
 1.720  0.1812  153.6   2.663   61.7  0.1532   64.0  0.4591  -34.6
 1.740  0.1831  152.2   2.638   61.2  0.1549   63.9  0.4581  -34.9
 1.760  0.1851  150.8   2.614   60.7  0.1567   63.8  0.4571  -35.1
 1.780  0.1873  149.4   2.591   60.3  0.1584   63.7  0.4562  -35.4
 1.800  0.1895  148.1   2.567   59.8  0.1602   63.6  0.4552  -35.7
 1.820  0.1914  147.3   2.544   59.3  0.1620   63.5  0.4543  -36.0
 1.840  0.1933  146.6   2.521   58.9  0.1638   63.4  0.4535  -36.3
 1.860  0.1952  145.8   2.499   58.4  0.1657   63.4  0.4526  -36.5
 1.880  0.1972  145.1   2.476   57.9  0.1675   63.3  0.4518  -36.8
 1.900  0.1992  144.4   2.454   57.4  0.1693   63.2  0.4510  -37.1
 1.920  0.1998  143.4   2.430   57.0  0.1710   63.1  0.4501  -37.4
 1.940  0.2005  142.4   2.406   56.5  0.1726   62.9  0.4493  -37.6
 1.960  0.2013  141.4   2.383   56.0  0.1743   62.8  0.4484  -37.9
 1.980  0.2021  140.5   2.359   55.6  0.1759   62.6  0.4475  -38.1
 2.000  0.2030  139.5   2.336   55.1  0.1776   62.5  0.4467  -38.4
 2.020  0.2048  138.7   2.317   54.7  0.1794   62.4  0.4456  -38.7
 2.040  0.2067  137.9   2.299   54.3  0.1812   62.2  0.4444  -39.0
 2.060  0.2086  137.2   2.280   53.8  0.1830   62.1  0.4433  -39.3
 2.080  0.2105  136.4   2.262   53.4  0.1848   62.0  0.4422  -39.6
 2.100  0.2125  135.7   2.243   52.9  0.1865   61.9  0.4411  -39.9
 2.120  0.2145  135.0   2.225   52.5  0.1883   61.8  0.4401  -40.2
 2.140  0.2166  134.2   2.207   52.0  0.1901   61.6  0.4390  -40.6
 2.160  0.2187  133.6   2.189   51.6  0.1919   61.5  0.4380  -40.9
 2.180  0.2208  132.9   2.172   51.1  0.1937   61.4  0.4369  -41.2
 2.200  0.2229  132.2   2.154   50.6  0.1955   61.3  0.4359  -41.5
 2.220  0.2247  131.4   2.139   50.2  0.1973   61.2  0.4346  -41.8
 2.240  0.2265  130.6   2.125   49.8  0.1991   61.0  0.4333  -42.1
 2.260  0.2284  129.8   2.110   49.3  0.2009   60.9  0.4320  -42.4
 2.280  0.2303  129.0   2.096   48.9  0.2027   60.8  0.4307  -42.8
 2.300  0.2322  128.3   2.081   48.5  0.2045   60.6  0.4295  -43.1
 2.320  0.2342  127.5   2.067   48.0  0.2063   60.5  0.4282  -43.4
 2.340  0.2362  126.8   2.053   47.6  0.2082   60.4  0.4270  -43.7
 2.360  0.2383  126.1   2.039   47.1  0.2100   60.2  0.4258  -44.0
 2.380  0.2404  125.4   2.026   46.7  0.2118   60.1  0.4246  -44.4
 2.400  0.2425  124.7   2.012   46.2  0.2136   60.0  0.4234  -44.7
 2.420  0.2445  124.0   1.999   45.8  0.2154   59.8  0.4219  -45.0
 2.440  0.2466  123.3   1.986   45.4  0.2173   59.7  0.4204  -45.4
 2.460  0.2487  122.6   1.973   45.0  0.2191   59.5  0.4190  -45.8
 2.480  0.2508  121.9   1.960   44.6  0.2209   59.3  0.4176  -46.1
 2.500  0.2530  121.3   1.947   44.2  0.2228   59.2  0.4161  -46.5
 2.520  0.2552  120.6   1.934   43.8  0.2246   59.0  0.4147  -46.8
 2.540  0.2574  120.0   1.921   43.4  0.2265   58.9  0.4134  -47.2
 2.560  0.2597  119.3   1.909   43.0  0.2283   58.7  0.4120  -47.6
 2.580  0.2620  118.7   1.896   42.5  0.2302   58.5  0.4106  -47.9
 2.600  0.2643  118.1   1.884   42.1  0.2320   58.4  0.4093  -48.3
 2.620  0.2664  117.7   1.873   41.7  0.2339   58.2  0.4079  -48.7
 2.640  0.2686  117.2   1.863   41.4  0.2357   58.1  0.4065  -49.0
 2.660  0.2707  116.8   1.853   41.0  0.2376   57.9  0.4051  -49.4
 2.680  0.2729  116.4   1.842   40.6  0.2394   57.7  0.4037  -49.8
 2.700  0.2751  116.0   1.832   40.3  0.2413   57.6  0.4024  -50.2
 2.720  0.2773  115.6   1.822   39.9  0.2431   57.4  0.4010  -50.5
 2.740  0.2795  115.2   1.812   39.5  0.2450   57.3  0.3997  -50.9
 2.760  0.2817  114.8   1.802   39.1  0.2469   57.1  0.3984  -51.3
 2.780  0.2840  114.5   1.792   38.7  0.2487   56.9  0.3972  -51.7
 2.800  0.2862  114.1   1.782   38.3  0.2506   56.8  0.3959  -52.1
 2.820  0.2885  113.6   1.772   37.9  0.2524   56.6  0.3943  -52.5
 2.840  0.2908  113.2   1.762   37.5  0.2542   56.4  0.3927  -52.9
 2.860  0.2932  112.8   1.752   37.1  0.2560   56.2  0.3911  -53.3
 2.880  0.2956  112.3   1.742   36.7  0.2578   56.0  0.3895  -53.7
 2.900  0.2980  111.9   1.733   36.3  0.2597   55.9  0.3880  -54.1
 2.920  0.3003  111.5   1.723   35.8  0.2615   55.7  0.3864  -54.5
 2.940  0.3028  111.1   1.714   35.4  0.2633   55.5  0.3849  -54.9
 2.960  0.3052  110.7   1.704   35.0  0.2651   55.3  0.3834  -55.4
 2.980  0.3076  110.3   1.695   34.5  0.2670   55.2  0.3819  -55.8
 3.000  0.3101  109.9   1.686   34.1  0.2688   55.0  0.3805  -56.2
 3.100  0.3220  107.9   1.644   32.4  0.2782   53.9  0.3708  -58.5
 3.200  0.3342  106.1   1.604   30.7  0.2877   52.9  0.3617  -61.0
 3.300  0.3468  104.4   1.565   28.8  0.2973   51.9  0.3533  -63.5
 3.400  0.3597  102.8   1.528   26.8  0.3070   51.0  0.3457  -66.2
 3.500  0.3728  101.3   1.493   24.8  0.3167   50.2  0.3388  -69.0
 3.600  0.3838   99.8   1.463   23.2  0.3261   49.0  0.3282  -72.0
 3.700  0.3950   98.3   1.434   21.6  0.3356   47.8  0.3185  -75.2
 3.800  0.4065   97.0   1.406   19.8  0.3453   46.7  0.3099  -78.7
 3.900  0.4182   95.7   1.379   18.1  0.3551   45.7  0.3025  -82.2
 4.000  0.4301   94.5   1.354   16.2  0.3650   44.7  0.2963  -86.0
 4.100  0.4405   93.3   1.329   14.7  0.3742   43.4  0.2862  -89.6
 4.200  0.4510   92.1   1.305   13.1  0.3835   42.1  0.2774  -93.5
 4.300  0.4617   91.0   1.282   11.5  0.3931   40.9  0.2699  -97.7
 4.400  0.4726   90.0   1.261    9.8  0.4028   39.8  0.2639 -102.0
 4.500  0.4836   89.0   1.240    8.0  0.4126   38.7  0.2595 -106.5
 4.600  0.4921   87.8   1.220    6.6  0.4213   37.4  0.2526 -110.8
 4.700  0.5007   86.7   1.201    5.1  0.4302   36.1  0.2473 -115.3
 4.800  0.5096   85.6   1.182    3.5  0.4393   34.9  0.2435 -120.0
 4.900  0.5186   84.5   1.165    1.9  0.4486   33.7  0.2414 -124.8
 5.000  0.5278   83.5   1.148    0.3  0.4581   32.6  0.2410 -129.6
 5.100  0.5350   82.4   1.128   -1.0  0.4659   31.2  0.2376 -134.6
 5.200  0.5424   81.3   1.108   -2.4  0.4740   29.8  0.2360 -139.6
 5.300  0.5499   80.2   1.089   -3.8  0.4824   28.5  0.2362 -144.7
 5.400  0.5577   79.2   1.071   -5.2  0.4910   27.2  0.2384 -149.8
 5.500  0.5656   78.2   1.053   -6.7  0.4998   26.0  0.2423 -154.7
 5.600  0.5738   77.0   1.035   -7.9  0.5054   24.4  0.2391 -159.4
 5.700  0.5822   75.9   1.018   -9.2  0.5114   22.9  0.2376 -164.1
 5.800  0.5908   74.7   1.001  -10.5  0.5178   21.5  0.2377 -168.9
 5.900  0.5996   73.7   0.985  -11.9  0.5245   20.0  0.2395 -173.7
 6.000  0.6087   72.6   0.969  -13.3  0.5315   18.6  0.2429 -178.3
!
!  f       NFmin   Gammaopt  rn/50
! GHz       dB    MAG  ANG    -
 0.450      1.30  0.26   40   0.29
 0.900      1.45  0.25   81   0.23
 1.800      2.00  0.21  157   0.20
!
! (c) 2015  Infineon Technologies AG, Munich
