! Infineon Technologies  Discrete & RF Semiconductors
! BFR182
! VCE = 0.50 V,  IC =  4.5 mA
! Common Emitter S-Parameters:                            Nov 2015
# GHz  S  MA  R  50
!  f         S11            S21            S12            S22
! GHz     MAG   ANG      MAG   ANG      MAG   ANG      MAG   ANG
 0.010  0.8252   -3.5  13.275  177.6  0.0029   86.8  0.9800   -1.7
 0.015  0.8213   -4.9  13.141  176.2  0.0045   85.0  0.9756   -2.6
 0.020  0.8179   -6.3  13.015  174.8  0.0062   84.1  0.9714   -3.5
 0.025  0.8153   -8.0  12.987  173.6  0.0078   83.0  0.9695   -4.3
 0.030  0.8134   -9.6  12.964  172.4  0.0094   82.3  0.9678   -5.1
 0.035  0.8122  -11.3  12.948  171.2  0.0110   81.8  0.9664   -5.9
 0.040  0.8117  -13.0  12.937  169.9  0.0127   81.4  0.9651   -6.8
 0.045  0.8118  -14.6  12.932  168.7  0.0143   81.1  0.9640   -7.6
 0.050  0.8127  -16.3  12.933  167.5  0.0159   80.9  0.9631   -8.4
 0.055  0.8056  -17.7  12.854  166.4  0.0173   79.7  0.9578   -9.1
 0.060  0.7989  -19.2  12.781  165.2  0.0187   78.6  0.9527   -9.9
 0.065  0.7929  -20.7  12.712  164.0  0.0201   77.7  0.9477  -10.7
 0.070  0.7873  -22.2  12.649  162.9  0.0215   76.9  0.9429  -11.4
 0.075  0.7823  -23.8  12.592  161.7  0.0229   76.2  0.9383  -12.2
 0.080  0.7779  -25.3  12.540  160.5  0.0243   75.6  0.9338  -13.0
 0.085  0.7741  -26.9  12.493  159.3  0.0257   75.0  0.9295  -13.8
 0.090  0.7709  -28.5  12.452  158.1  0.0272   74.5  0.9254  -14.6
 0.095  0.7682  -30.1  12.417  156.8  0.0286   74.1  0.9215  -15.4
 0.100  0.7662  -31.7  12.387  155.6  0.0300   73.7  0.9178  -16.2
 0.105  0.7588  -33.0  12.263  154.6  0.0312   72.8  0.9110  -16.8
 0.110  0.7518  -34.2  12.143  153.5  0.0324   72.0  0.9043  -17.4
 0.115  0.7452  -35.5  12.028  152.5  0.0336   71.2  0.8976  -18.0
 0.120  0.7390  -36.8  11.916  151.4  0.0349   70.5  0.8911  -18.7
 0.125  0.7332  -38.2  11.809  150.3  0.0361   69.8  0.8847  -19.3
 0.130  0.7278  -39.6  11.706  149.2  0.0373   69.2  0.8784  -19.9
 0.135  0.7228  -40.9  11.608  148.0  0.0386   68.6  0.8722  -20.6
 0.140  0.7182  -42.3  11.515  146.9  0.0398   68.1  0.8662  -21.2
 0.145  0.7141  -43.8  11.426  145.7  0.0411   67.6  0.8602  -21.9
 0.150  0.7104  -45.2  11.342  144.5  0.0423   67.1  0.8544  -22.6
 0.155  0.7031  -46.4  11.240  143.7  0.0433   66.6  0.8479  -23.0
 0.160  0.6960  -47.6  11.141  142.8  0.0442   66.1  0.8414  -23.5
 0.165  0.6893  -48.8  11.044  142.0  0.0452   65.6  0.8350  -23.9
 0.170  0.6829  -50.1  10.950  141.1  0.0462   65.2  0.8287  -24.4
 0.175  0.6768  -51.3  10.858  140.2  0.0472   64.8  0.8224  -24.9
 0.180  0.6711  -52.6  10.769  139.3  0.0482   64.4  0.8161  -25.3
 0.185  0.6657  -53.9  10.683  138.4  0.0491   64.0  0.8099  -25.8
 0.190  0.6607  -55.3  10.599  137.5  0.0501   63.6  0.8038  -26.3
 0.195  0.6560  -56.6  10.518  136.6  0.0511   63.2  0.7977  -26.8
 0.200  0.6517  -58.0  10.440  135.6  0.0521   62.9  0.7917  -27.3
 0.220  0.6260  -62.3  10.024  132.6  0.0548   61.1  0.7649  -28.8
 0.240  0.6041  -67.0   9.639  129.2  0.0575   59.4  0.7387  -30.4
 0.260  0.5830  -71.3   9.264  126.4  0.0602   58.2  0.7150  -31.7
 0.280  0.5617  -75.4   8.885  124.0  0.0628   57.5  0.6936  -32.7
 0.300  0.5434  -79.7   8.523  121.4  0.0654   56.8  0.6724  -33.7
 0.320  0.5244  -82.6   8.217  119.7  0.0674   56.1  0.6560  -34.3
 0.340  0.5069  -85.7   7.919  117.9  0.0695   55.4  0.6396  -34.8
 0.360  0.4910  -89.0   7.630  116.0  0.0716   54.8  0.6233  -35.5
 0.380  0.4768  -92.6   7.349  113.9  0.0736   54.2  0.6070  -36.1
 0.400  0.4646  -96.3   7.079  111.7  0.0757   53.6  0.5909  -36.8
 0.420  0.4510  -99.0   6.843  110.2  0.0773   53.4  0.5779  -37.1
 0.440  0.4384 -101.8   6.611  108.6  0.0789   53.2  0.5650  -37.4
 0.450  0.4326 -103.3   6.497  107.8  0.0797   53.1  0.5585  -37.6
 0.460  0.4270 -104.8   6.385  107.0  0.0806   53.0  0.5520  -37.7
 0.480  0.4168 -107.9   6.165  105.1  0.0822   52.9  0.5391  -38.0
 0.500  0.4079 -111.2   5.951  103.2  0.0838   52.7  0.5262  -38.4
 0.520  0.4002 -113.5   5.787  102.0  0.0854   52.6  0.5171  -38.6
 0.540  0.3932 -115.9   5.625  100.8  0.0871   52.6  0.5080  -38.8
 0.560  0.3868 -118.3   5.467   99.5  0.0887   52.5  0.4989  -39.0
 0.580  0.3812 -120.9   5.311   98.2  0.0904   52.5  0.4898  -39.2
 0.600  0.3764 -123.5   5.158   96.7  0.0920   52.4  0.4807  -39.4
 0.620  0.3701 -125.6   5.030   95.7  0.0935   52.4  0.4744  -39.5
 0.640  0.3644 -127.9   4.903   94.7  0.0950   52.5  0.4681  -39.6
 0.660  0.3592 -130.1   4.778   93.6  0.0966   52.5  0.4619  -39.7
 0.680  0.3547 -132.5   4.655   92.5  0.0981   52.6  0.4556  -39.8
 0.700  0.3507 -134.9   4.534   91.3  0.0996   52.6  0.4493  -39.9
 0.720  0.3471 -136.7   4.429   90.4  0.1011   52.7  0.4448  -40.0
 0.740  0.3437 -138.4   4.326   89.5  0.1026   52.7  0.4403  -40.0
 0.760  0.3408 -140.3   4.223   88.6  0.1042   52.8  0.4359  -40.1
 0.780  0.3382 -142.1   4.122   87.6  0.1057   52.8  0.4314  -40.1
 0.800  0.3359 -144.0   4.022   86.5  0.1072   52.9  0.4269  -40.2
 0.820  0.3315 -145.7   3.941   85.7  0.1089   52.9  0.4234  -40.3
 0.840  0.3274 -147.5   3.861   84.8  0.1105   53.0  0.4199  -40.4
 0.860  0.3237 -149.3   3.782   84.0  0.1122   53.0  0.4165  -40.4
 0.880  0.3203 -151.2   3.703   83.1  0.1138   53.1  0.4130  -40.5
 0.900  0.3172 -153.1   3.626   82.1  0.1155   53.1  0.4095  -40.6
 0.920  0.3153 -155.0   3.563   81.4  0.1171   53.2  0.4062  -40.7
 0.940  0.3136 -156.9   3.500   80.6  0.1187   53.3  0.4028  -40.8
 0.960  0.3124 -158.8   3.437   79.8  0.1203   53.3  0.3995  -41.0
 0.980  0.3115 -160.7   3.376   79.0  0.1219   53.4  0.3961  -41.1
 1.000  0.3109 -162.6   3.315   78.2  0.1235   53.5  0.3928  -41.2
 1.020  0.3096 -164.2   3.262   77.5  0.1251   53.6  0.3902  -41.4
 1.040  0.3086 -165.8   3.210   76.8  0.1267   53.6  0.3876  -41.5
 1.060  0.3079 -167.4   3.158   76.1  0.1282   53.7  0.3850  -41.7
 1.080  0.3074 -169.1   3.107   75.3  0.1298   53.7  0.3824  -41.8
 1.100  0.3071 -170.7   3.056   74.5  0.1314   53.8  0.3798  -42.0
 1.120  0.3072 -172.2   3.010   73.8  0.1331   53.9  0.3775  -42.2
 1.140  0.3074 -173.7   2.965   73.1  0.1349   53.9  0.3752  -42.3
 1.160  0.3079 -175.2   2.920   72.4  0.1366   54.0  0.3729  -42.5
 1.180  0.3086 -176.7   2.875   71.7  0.1384   54.0  0.3706  -42.6
 1.200  0.3095 -178.2   2.831   70.9  0.1401   54.1  0.3683  -42.8
 1.220  0.3088 -179.3   2.790   70.3  0.1418   54.1  0.3665  -43.0
 1.240  0.3082  179.7   2.748   69.7  0.1435   54.1  0.3646  -43.2
 1.260  0.3077  178.6   2.708   69.1  0.1453   54.2  0.3628  -43.3
 1.280  0.3074  177.5   2.667   68.5  0.1470   54.2  0.3610  -43.5
 1.300  0.3071  176.4   2.627   67.8  0.1487   54.2  0.3592  -43.7
 1.320  0.3070  175.1   2.593   67.2  0.1505   54.2  0.3575  -44.0
 1.340  0.3070  173.7   2.559   66.6  0.1522   54.2  0.3557  -44.2
 1.360  0.3072  172.4   2.525   66.0  0.1540   54.3  0.3540  -44.5
 1.380  0.3076  171.0   2.492   65.4  0.1557   54.3  0.3523  -44.7
 1.400  0.3081  169.7   2.459   64.8  0.1575   54.3  0.3506  -45.0
 1.420  0.3089  168.7   2.433   64.2  0.1592   54.3  0.3493  -45.2
 1.440  0.3097  167.7   2.407   63.7  0.1610   54.2  0.3480  -45.4
 1.460  0.3106  166.7   2.382   63.1  0.1627   54.2  0.3467  -45.6
 1.480  0.3117  165.8   2.357   62.5  0.1645   54.1  0.3454  -45.8
 1.500  0.3128  164.8   2.332   61.9  0.1662   54.1  0.3441  -46.0
 1.520  0.3138  163.6   2.304   61.3  0.1680   54.1  0.3430  -46.2
 1.540  0.3148  162.4   2.276   60.7  0.1698   54.0  0.3418  -46.5
 1.560  0.3161  161.2   2.248   60.0  0.1715   54.0  0.3407  -46.7
 1.580  0.3174  160.1   2.220   59.4  0.1733   53.9  0.3396  -47.0
 1.600  0.3189  158.9   2.193   58.7  0.1751   53.9  0.3385  -47.2
 1.620  0.3194  157.9   2.171   58.1  0.1768   53.9  0.3372  -47.5
 1.640  0.3201  156.9   2.149   57.6  0.1784   53.8  0.3359  -47.7
 1.660  0.3208  155.9   2.128   57.0  0.1801   53.8  0.3346  -48.0
 1.680  0.3216  155.0   2.106   56.4  0.1817   53.7  0.3334  -48.2
 1.700  0.3225  154.0   2.085   55.8  0.1834   53.7  0.3321  -48.5
 1.720  0.3244  153.0   2.066   55.3  0.1854   53.6  0.3308  -48.9
 1.740  0.3263  152.0   2.048   54.8  0.1874   53.5  0.3295  -49.2
 1.760  0.3283  151.1   2.030   54.3  0.1894   53.5  0.3283  -49.6
 1.780  0.3305  150.1   2.012   53.7  0.1914   53.4  0.3270  -49.9
 1.800  0.3327  149.2   1.994   53.2  0.1934   53.3  0.3258  -50.3
 1.820  0.3348  148.3   1.976   52.7  0.1953   53.2  0.3241  -50.6
 1.840  0.3369  147.5   1.959   52.1  0.1972   53.2  0.3223  -50.9
 1.860  0.3391  146.6   1.942   51.5  0.1990   53.1  0.3206  -51.2
 1.880  0.3414  145.8   1.925   51.0  0.2009   53.1  0.3189  -51.6
 1.900  0.3438  145.0   1.908   50.4  0.2028   53.0  0.3172  -51.9
 1.920  0.3443  144.2   1.891   49.9  0.2048   52.9  0.3161  -52.3
 1.940  0.3449  143.5   1.874   49.4  0.2067   52.8  0.3150  -52.7
 1.960  0.3456  142.7   1.857   48.9  0.2087   52.7  0.3139  -53.0
 1.980  0.3463  142.0   1.840   48.3  0.2106   52.6  0.3129  -53.4
 2.000  0.3471  141.2   1.823   47.8  0.2126   52.5  0.3118  -53.8
 2.020  0.3485  140.5   1.808   47.4  0.2145   52.4  0.3103  -54.2
 2.040  0.3499  139.7   1.794   46.9  0.2164   52.2  0.3089  -54.6
 2.060  0.3513  139.0   1.779   46.4  0.2182   52.1  0.3075  -55.0
 2.080  0.3528  138.3   1.765   46.0  0.2201   52.0  0.3061  -55.5
 2.100  0.3544  137.6   1.751   45.5  0.2220   51.8  0.3047  -55.9
 2.120  0.3560  136.9   1.737   45.0  0.2239   51.7  0.3033  -56.3
 2.140  0.3577  136.2   1.723   44.5  0.2257   51.6  0.3020  -56.8
 2.160  0.3595  135.5   1.709   44.0  0.2276   51.4  0.3006  -57.2
 2.180  0.3613  134.8   1.696   43.5  0.2295   51.3  0.2993  -57.7
 2.200  0.3631  134.1   1.682   43.0  0.2314   51.2  0.2980  -58.1
 2.220  0.3649  133.3   1.671   42.5  0.2334   51.1  0.2962  -58.5
 2.240  0.3668  132.6   1.660   42.0  0.2354   50.9  0.2944  -58.9
 2.260  0.3687  131.8   1.649   41.5  0.2374   50.8  0.2926  -59.3
 2.280  0.3707  131.1   1.639   41.0  0.2395   50.7  0.2908  -59.8
 2.300  0.3728  130.3   1.628   40.5  0.2415   50.6  0.2890  -60.2
 2.320  0.3749  129.6   1.618   40.0  0.2435   50.5  0.2873  -60.6
 2.340  0.3771  128.9   1.608   39.4  0.2455   50.3  0.2856  -61.1
 2.360  0.3793  128.2   1.598   38.9  0.2476   50.2  0.2839  -61.5
 2.380  0.3816  127.5   1.588   38.4  0.2496   50.1  0.2822  -61.9
 2.400  0.3840  126.8   1.578   37.8  0.2516   50.0  0.2805  -62.4
 2.420  0.3859  126.2   1.568   37.4  0.2534   49.8  0.2790  -62.9
 2.440  0.3879  125.5   1.558   37.0  0.2553   49.6  0.2776  -63.4
 2.460  0.3899  124.9   1.548   36.5  0.2572   49.5  0.2761  -63.8
 2.480  0.3919  124.3   1.538   36.1  0.2590   49.3  0.2747  -64.3
 2.500  0.3940  123.7   1.528   35.7  0.2609   49.1  0.2733  -64.8
 2.520  0.3961  123.1   1.518   35.2  0.2627   49.0  0.2720  -65.3
 2.540  0.3983  122.5   1.508   34.8  0.2646   48.8  0.2706  -65.8
 2.560  0.4005  121.9   1.499   34.3  0.2665   48.6  0.2693  -66.4
 2.580  0.4028  121.4   1.489   33.9  0.2683   48.5  0.2680  -66.9
 2.600  0.4051  120.8   1.480   33.4  0.2702   48.3  0.2667  -67.4
 2.620  0.4071  120.3   1.472   33.0  0.2723   48.1  0.2650  -68.0
 2.640  0.4092  119.7   1.463   32.6  0.2743   48.0  0.2633  -68.6
 2.660  0.4113  119.2   1.455   32.2  0.2764   47.8  0.2617  -69.2
 2.680  0.4134  118.7   1.447   31.8  0.2785   47.6  0.2601  -69.9
 2.700  0.4156  118.1   1.439   31.4  0.2805   47.5  0.2585  -70.5
 2.720  0.4178  117.6   1.430   30.9  0.2826   47.3  0.2570  -71.1
 2.740  0.4200  117.1   1.422   30.5  0.2847   47.2  0.2554  -71.8
 2.760  0.4223  116.6   1.415   30.1  0.2867   47.0  0.2540  -72.5
 2.780  0.4246  116.1   1.407   29.6  0.2888   46.8  0.2525  -73.1
 2.800  0.4269  115.6   1.399   29.2  0.2909   46.7  0.2511  -73.8
 2.820  0.4286  115.1   1.391   28.8  0.2928   46.5  0.2493  -74.4
 2.840  0.4303  114.7   1.383   28.4  0.2947   46.3  0.2475  -75.0
 2.860  0.4321  114.2   1.375   28.0  0.2965   46.1  0.2458  -75.7
 2.880  0.4339  113.8   1.367   27.5  0.2984   45.9  0.2440  -76.3
 2.900  0.4357  113.3   1.360   27.1  0.3003   45.7  0.2423  -77.0
 2.920  0.4375  112.9   1.352   26.7  0.3022   45.5  0.2407  -77.7
 2.940  0.4394  112.4   1.344   26.2  0.3041   45.3  0.2391  -78.3
 2.960  0.4412  112.0   1.337   25.8  0.3060   45.1  0.2375  -79.0
 2.980  0.4432  111.5   1.329   25.4  0.3079   44.9  0.2359  -79.7
 3.000  0.4451  111.1   1.322   24.9  0.3098   44.7  0.2344  -80.4
 3.100  0.4558  108.8   1.289   23.2  0.3195   43.6  0.2252  -84.5
 3.200  0.4673  106.6   1.257   21.3  0.3292   42.5  0.2172  -88.8
 3.300  0.4794  104.5   1.226   19.4  0.3391   41.5  0.2106  -93.5
 3.400  0.4921  102.5   1.197   17.4  0.3491   40.5  0.2054  -98.4
 3.500  0.5054  100.6   1.169   15.3  0.3592   39.6  0.2019 -103.6
 3.600  0.5144   98.7   1.144   13.8  0.3681   38.3  0.1946 -109.2
 3.700  0.5240   96.9   1.120   12.2  0.3772   37.0  0.1893 -115.2
 3.800  0.5340   95.2   1.097   10.5  0.3864   35.8  0.1861 -121.4
 3.900  0.5445   93.5   1.075    8.8  0.3958   34.7  0.1853 -127.8
 4.000  0.5555   91.9   1.054    7.0  0.4054   33.6  0.1867 -134.2
 4.100  0.5633   90.3   1.033    5.6  0.4135   32.3  0.1856 -140.5
 4.200  0.5715   88.8   1.014    4.2  0.4218   31.0  0.1868 -146.7
 4.300  0.5802   87.3   0.994    2.7  0.4302   29.7  0.1901 -152.8
 4.400  0.5892   85.8   0.976    1.1  0.4389   28.5  0.1955 -158.6
 4.500  0.5986   84.4   0.958   -0.5  0.4478   27.4  0.2028 -164.1
 4.600  0.6036   83.2   0.943   -1.7  0.4549   26.1  0.2071 -169.3
 4.700  0.6088   82.0   0.929   -3.0  0.4622   24.9  0.2129 -174.2
 4.800  0.6144   80.9   0.915   -4.3  0.4698   23.7  0.2203 -178.9
 4.900  0.6201   79.7   0.901   -5.7  0.4775   22.5  0.2291  176.8
 5.000  0.6261   78.6   0.888   -7.1  0.4854   21.4  0.2390  172.8
 5.100  0.6312   77.5   0.873   -8.1  0.4915   20.0  0.2457  168.5
 5.200  0.6366   76.4   0.858   -9.1  0.4978   18.7  0.2538  164.4
 5.300  0.6422   75.3   0.843  -10.2  0.5044   17.4  0.2630  160.5
 5.400  0.6481   74.2   0.829  -11.3  0.5112   16.1  0.2734  157.0
 5.500  0.6541   73.2   0.815  -12.5  0.5183   14.9  0.2847  153.7
 5.600  0.6578   72.1   0.802  -13.4  0.5221   13.5  0.2892  150.0
 5.700  0.6618   71.0   0.789  -14.4  0.5261   12.1  0.2948  146.5
 5.800  0.6661   69.9   0.777  -15.4  0.5305   10.7  0.3015  143.0
 5.900  0.6706   68.8   0.765  -16.4  0.5352    9.3  0.3093  139.8
 6.000  0.6753   67.7   0.753  -17.5  0.5402    8.0  0.3180  136.7
!
!  f       NFmin   Gammaopt  rn/50
! GHz       dB    MAG  ANG    -
!
! noise parameter not available yet for this operation point!
!
! (c) 2015  Infineon Technologies AG, Munich
