! Infineon Technologies  Discrete & RF Semiconductors
! BFR106
! VCE =  12. V,  IC =  1.5 mA
! Common Emitter S-Parameters:                            Nov 2015
# GHz  S  MA  R  50
!  f         S11            S21            S12            S22
! GHz     MAG   ANG      MAG   ANG      MAG   ANG      MAG   ANG
 0.010  0.9559   -5.1   5.388  176.0  0.0052   86.2  0.9999   -1.4
 0.015  0.9535   -7.7   5.362  174.8  0.0078   85.4  0.9970   -2.0
 0.020  0.9530  -10.3   5.338  173.6  0.0104   85.0  0.9943   -2.6
 0.025  0.9466  -12.7   5.297  172.0  0.0129   82.1  0.9916   -3.2
 0.030  0.9420  -15.2   5.261  170.3  0.0155   80.1  0.9890   -3.8
 0.035  0.9391  -17.7   5.230  168.6  0.0181   78.7  0.9865   -4.4
 0.040  0.9380  -20.1   5.203  166.9  0.0207   77.7  0.9841   -5.1
 0.045  0.9386  -22.6   5.181  165.1  0.0233   76.9  0.9818   -5.7
 0.050  0.9410  -25.1   5.163  163.4  0.0259   76.2  0.9797   -6.3
 0.055  0.9310  -27.3   5.117  162.1  0.0281   74.2  0.9756   -6.8
 0.060  0.9224  -29.6   5.073  160.8  0.0303   72.5  0.9716   -7.4
 0.065  0.9153  -31.9   5.032  159.5  0.0325   71.0  0.9676   -7.9
 0.070  0.9096  -34.2   4.994  158.1  0.0348   69.8  0.9638   -8.4
 0.075  0.9055  -36.5   4.958  156.7  0.0370   68.6  0.9600   -9.0
 0.080  0.9029  -38.9   4.926  155.3  0.0393   67.6  0.9564   -9.5
 0.085  0.9019  -41.3   4.896  153.9  0.0416   66.8  0.9528  -10.1
 0.090  0.9024  -43.7   4.870  152.5  0.0439   66.0  0.9493  -10.7
 0.095  0.9045  -46.0   4.846  151.1  0.0462   65.2  0.9459  -11.2
 0.100  0.9081  -48.4   4.826  149.6  0.0485   64.6  0.9426  -11.8
 0.105  0.8983  -50.3   4.763  148.4  0.0500   63.2  0.9376  -12.2
 0.110  0.8894  -52.2   4.703  147.1  0.0516   61.8  0.9325  -12.6
 0.115  0.8816  -54.2   4.644  145.8  0.0532   60.6  0.9276  -13.0
 0.120  0.8748  -56.2   4.588  144.5  0.0548   59.4  0.9227  -13.4
 0.125  0.8691  -58.2   4.535  143.2  0.0565   58.3  0.9178  -13.8
 0.130  0.8645  -60.3   4.484  141.8  0.0582   57.2  0.9130  -14.2
 0.135  0.8611  -62.3   4.436  140.4  0.0598   56.3  0.9082  -14.6
 0.140  0.8587  -64.4   4.390  139.0  0.0615   55.3  0.9035  -15.0
 0.145  0.8575  -66.5   4.348  137.5  0.0633   54.4  0.8988  -15.5
 0.150  0.8575  -68.6   4.308  136.0  0.0650   53.6  0.8942  -15.9
 0.155  0.8504  -70.2   4.259  135.1  0.0660   52.7  0.8897  -16.1
 0.160  0.8440  -71.9   4.211  134.2  0.0671   51.9  0.8853  -16.4
 0.165  0.8384  -73.5   4.163  133.3  0.0681   51.0  0.8808  -16.7
 0.170  0.8334  -75.2   4.117  132.4  0.0692   50.2  0.8764  -16.9
 0.175  0.8292  -77.0   4.072  131.4  0.0703   49.5  0.8720  -17.2
 0.180  0.8257  -78.7   4.029  130.4  0.0714   48.7  0.8676  -17.4
 0.185  0.8230  -80.4   3.986  129.4  0.0725   48.0  0.8632  -17.7
 0.190  0.8211  -82.2   3.945  128.4  0.0736   47.3  0.8589  -18.0
 0.195  0.8199  -83.9   3.905  127.4  0.0748   46.6  0.8545  -18.2
 0.200  0.8195  -85.7   3.866  126.3  0.0759   45.9  0.8502  -18.5
 0.220  0.8002  -91.4   3.684  122.9  0.0786   43.2  0.8343  -19.3
 0.240  0.7892  -97.4   3.516  119.1  0.0814   40.7  0.8186  -20.2
 0.260  0.7784 -102.6   3.356  115.9  0.0837   38.6  0.8052  -20.9
 0.280  0.7648 -107.3   3.196  113.3  0.0853   36.9  0.7940  -21.5
 0.300  0.7563 -112.0   3.043  110.4  0.0870   35.3  0.7829  -22.1
 0.320  0.7450 -115.6   2.922  108.6  0.0877   34.0  0.7749  -22.6
 0.340  0.7368 -119.3   2.805  106.6  0.0885   32.8  0.7669  -23.1
 0.360  0.7317 -123.1   2.691  104.4  0.0893   31.5  0.7590  -23.6
 0.380  0.7298 -126.9   2.581  102.1  0.0901   30.3  0.7511  -24.1
 0.400  0.7311 -130.7   2.476   99.5  0.0910   29.1  0.7433  -24.6
 0.420  0.7242 -133.3   2.388   97.9  0.0908   28.4  0.7383  -25.0
 0.440  0.7188 -136.0   2.302   96.1  0.0907   27.7  0.7334  -25.5
 0.450  0.7167 -137.4   2.260   95.2  0.0906   27.4  0.7309  -25.7
 0.460  0.7151 -138.7   2.219   94.3  0.0905   27.1  0.7285  -26.0
 0.480  0.7129 -141.5   2.138   92.3  0.0904   26.4  0.7236  -26.4
 0.500  0.7124 -144.2   2.060   90.1  0.0903   25.7  0.7188  -26.9
 0.520  0.7078 -146.4   2.000   88.8  0.0900   25.5  0.7160  -27.4
 0.540  0.7043 -148.7   1.942   87.4  0.0896   25.2  0.7132  -28.0
 0.560  0.7019 -150.9   1.884   86.0  0.0893   25.0  0.7105  -28.5
 0.580  0.7006 -153.2   1.828   84.4  0.0889   24.7  0.7079  -29.1
 0.600  0.7004 -155.5   1.773   82.8  0.0886   24.5  0.7053  -29.6
 0.620  0.6983 -157.3   1.728   81.7  0.0880   24.7  0.7034  -30.2
 0.640  0.6970 -159.1   1.683   80.4  0.0874   24.8  0.7016  -30.7
 0.660  0.6963 -160.9   1.639   79.2  0.0868   25.0  0.6999  -31.3
 0.680  0.6963 -162.7   1.596   77.8  0.0862   25.1  0.6982  -31.8
 0.700  0.6970 -164.5   1.554   76.4  0.0856   25.3  0.6966  -32.4
 0.720  0.6958 -165.9   1.517   75.4  0.0850   25.7  0.6950  -33.0
 0.740  0.6951 -167.4   1.481   74.4  0.0844   26.1  0.6935  -33.6
 0.760  0.6948 -168.8   1.446   73.3  0.0838   26.5  0.6920  -34.1
 0.780  0.6949 -170.3   1.411   72.2  0.0833   26.9  0.6906  -34.7
 0.800  0.6955 -171.7   1.376   71.0  0.0827   27.3  0.6893  -35.3
 0.820  0.6943 -173.1   1.347   70.0  0.0820   28.1  0.6882  -35.9
 0.840  0.6935 -174.5   1.319   69.1  0.0813   28.9  0.6872  -36.5
 0.860  0.6931 -176.0   1.291   68.0  0.0807   29.7  0.6863  -37.1
 0.880  0.6932 -177.4   1.264   66.9  0.0800   30.5  0.6855  -37.7
 0.900  0.6937 -178.8   1.237   65.8  0.0794   31.3  0.6847  -38.3
 0.920  0.6932  180.0   1.215   64.9  0.0789   32.4  0.6839  -39.0
 0.940  0.6930  178.8   1.194   63.9  0.0784   33.5  0.6831  -39.6
 0.960  0.6931  177.5   1.172   62.9  0.0779   34.6  0.6825  -40.3
 0.980  0.6936  176.3   1.151   61.9  0.0775   35.7  0.6820  -40.9
 1.000  0.6943  175.1   1.131   60.8  0.0771   36.8  0.6815  -41.6
 1.020  0.6944  173.9   1.114   60.0  0.0770   38.2  0.6808  -42.3
 1.040  0.6948  172.7   1.097   59.2  0.0770   39.6  0.6802  -43.0
 1.060  0.6955  171.4   1.080   58.4  0.0770   41.1  0.6797  -43.8
 1.080  0.6965  170.2   1.063   57.6  0.0771   42.5  0.6794  -44.5
 1.100  0.6978  169.0   1.047   56.7  0.0772   43.9  0.6791  -45.2
 1.120  0.6983  167.9   1.031   55.9  0.0777   45.4  0.6784  -45.9
 1.140  0.6990  166.9   1.016   55.2  0.0782   46.9  0.6777  -46.6
 1.160  0.6999  165.8   1.000   54.4  0.0788   48.3  0.6772  -47.4
 1.180  0.7011  164.8   0.985   53.5  0.0794   49.8  0.6768  -48.1
 1.200  0.7025  163.7   0.970   52.7  0.0801   51.2  0.6765  -48.8
 1.220  0.7024  162.8   0.956   52.1  0.0811   52.7  0.6760  -49.5
 1.240  0.7025  161.8   0.942   51.4  0.0822   54.2  0.6755  -50.2
 1.260  0.7028  160.9   0.929   50.7  0.0834   55.6  0.6752  -50.9
 1.280  0.7033  159.9   0.915   50.0  0.0846   57.0  0.6749  -51.6
 1.300  0.7040  159.0   0.902   49.3  0.0858   58.3  0.6748  -52.3
 1.320  0.7051  158.1   0.890   48.7  0.0872   59.7  0.6745  -53.1
 1.340  0.7063  157.2   0.878   48.1  0.0887   61.1  0.6743  -53.8
 1.360  0.7077  156.3   0.866   47.5  0.0903   62.5  0.6742  -54.6
 1.380  0.7093  155.5   0.854   46.9  0.0919   63.8  0.6742  -55.3
 1.400  0.7110  154.6   0.842   46.3  0.0935   65.0  0.6744  -56.1
 1.420  0.7114  153.7   0.833   45.8  0.0958   66.1  0.6737  -56.9
 1.440  0.7119  152.9   0.823   45.2  0.0981   67.1  0.6731  -57.6
 1.460  0.7126  152.0   0.814   44.7  0.1004   68.1  0.6726  -58.4
 1.480  0.7134  151.2   0.805   44.1  0.1027   69.0  0.6722  -59.1
 1.500  0.7144  150.3   0.796   43.5  0.1051   69.9  0.6720  -59.9
 1.520  0.7148  149.5   0.786   42.9  0.1078   70.6  0.6711  -60.7
 1.540  0.7154  148.6   0.775   42.3  0.1105   71.4  0.6702  -61.5
 1.560  0.7162  147.8   0.765   41.7  0.1132   72.0  0.6696  -62.3
 1.580  0.7171  146.9   0.755   41.1  0.1159   72.7  0.6690  -63.1
 1.600  0.7181  146.1   0.745   40.5  0.1186   73.3  0.6686  -63.9
 1.620  0.7186  145.2   0.738   40.0  0.1217   73.9  0.6677  -64.7
 1.640  0.7193  144.4   0.732   39.5  0.1249   74.4  0.6670  -65.6
 1.660  0.7201  143.5   0.725   39.0  0.1280   74.9  0.6664  -66.4
 1.680  0.7211  142.7   0.718   38.4  0.1312   75.4  0.6659  -67.3
 1.700  0.7223  141.8   0.712   37.9  0.1344   75.9  0.6656  -68.1
 1.720  0.7233  141.0   0.706   37.6  0.1378   76.1  0.6651  -68.9
 1.740  0.7245  140.3   0.700   37.3  0.1412   76.4  0.6647  -69.7
 1.760  0.7258  139.5   0.693   37.0  0.1445   76.6  0.6644  -70.5
 1.780  0.7272  138.8   0.687   36.7  0.1479   76.8  0.6643  -71.3
 1.800  0.7287  138.0   0.681   36.4  0.1513   77.0  0.6643  -72.1
 1.820  0.7283  137.3   0.675   35.9  0.1551   77.1  0.6641  -73.0
 1.840  0.7280  136.5   0.669   35.5  0.1590   77.3  0.6640  -73.9
 1.860  0.7279  135.8   0.663   35.0  0.1628   77.4  0.6642  -74.8
 1.880  0.7278  135.0   0.657   34.5  0.1667   77.5  0.6645  -75.7
 1.900  0.7279  134.3   0.651   34.0  0.1705   77.6  0.6649  -76.6
 1.920  0.7284  133.6   0.645   33.7  0.1743   77.5  0.6637  -77.5
 1.940  0.7290  132.9   0.640   33.5  0.1782   77.5  0.6627  -78.4
 1.960  0.7298  132.3   0.634   33.2  0.1820   77.4  0.6619  -79.4
 1.980  0.7306  131.6   0.629   33.0  0.1859   77.4  0.6613  -80.3
 2.000  0.7315  130.9   0.623   32.7  0.1897   77.3  0.6608  -81.2
 2.020  0.7318  130.2   0.618   32.4  0.1939   77.1  0.6598  -82.1
 2.040  0.7322  129.5   0.613   32.2  0.1981   76.9  0.6589  -83.0
 2.060  0.7327  128.8   0.608   31.9  0.2023   76.7  0.6582  -83.9
 2.080  0.7333  128.1   0.603   31.6  0.2066   76.6  0.6576  -84.8
 2.100  0.7341  127.4   0.598   31.3  0.2108   76.4  0.6572  -85.7
 2.120  0.7349  126.7   0.593   31.0  0.2150   76.3  0.6570  -86.6
 2.140  0.7359  126.0   0.588   30.7  0.2192   76.1  0.6569  -87.5
 2.160  0.7369  125.3   0.583   30.4  0.2234   76.0  0.6570  -88.4
 2.180  0.7381  124.6   0.578   30.1  0.2277   75.8  0.6573  -89.3
 2.200  0.7394  123.9   0.573   29.8  0.2319   75.7  0.6577  -90.2
 2.220  0.7391  123.2   0.571   29.6  0.2362   75.3  0.6561  -91.2
 2.240  0.7389  122.5   0.568   29.5  0.2406   75.0  0.6547  -92.2
 2.260  0.7388  121.9   0.566   29.3  0.2449   74.6  0.6535  -93.3
 2.280  0.7388  121.2   0.563   29.1  0.2493   74.3  0.6526  -94.3
 2.300  0.7389  120.5   0.561   29.0  0.2537   74.0  0.6518  -95.3
 2.320  0.7392  119.8   0.559   28.8  0.2580   73.6  0.6513  -96.4
 2.340  0.7395  119.1   0.556   28.6  0.2624   73.3  0.6509  -97.4
 2.360  0.7399  118.5   0.554   28.5  0.2668   73.1  0.6508  -98.4
 2.380  0.7405  117.8   0.551   28.3  0.2712   72.8  0.6509  -99.5
 2.400  0.7411  117.1   0.549   28.1  0.2756   72.5  0.6512 -100.5
 2.420  0.7412  116.5   0.546   28.0  0.2798   72.0  0.6497 -101.5
 2.440  0.7413  115.8   0.544   27.9  0.2840   71.6  0.6484 -102.4
 2.460  0.7416  115.2   0.541   27.8  0.2883   71.1  0.6472 -103.4
 2.480  0.7419  114.5   0.539   27.8  0.2926   70.7  0.6463 -104.4
 2.500  0.7423  113.9   0.536   27.7  0.2969   70.2  0.6455 -105.4
 2.520  0.7429  113.2   0.533   27.6  0.3012   69.8  0.6450 -106.4
 2.540  0.7435  112.6   0.531   27.5  0.3055   69.4  0.6446 -107.3
 2.560  0.7442  112.0   0.528   27.4  0.3098   69.0  0.6444 -108.3
 2.580  0.7450  111.3   0.526   27.3  0.3141   68.7  0.6444 -109.3
 2.600  0.7459  110.7   0.523   27.2  0.3185   68.3  0.6446 -110.3
 2.620  0.7456  110.2   0.522   27.2  0.3226   67.8  0.6431 -111.4
 2.640  0.7454  109.6   0.521   27.1  0.3268   67.3  0.6419 -112.4
 2.660  0.7453  109.1   0.521   27.1  0.3309   66.8  0.6408 -113.5
 2.680  0.7453  108.5   0.520   27.0  0.3351   66.3  0.6400 -114.6
 2.700  0.7453  108.0   0.519   27.0  0.3394   65.8  0.6394 -115.7
 2.720  0.7453  107.5   0.518   26.9  0.3436   65.3  0.6391 -116.8
 2.740  0.7455  106.9   0.517   26.9  0.3479   64.9  0.6390 -117.8
 2.760  0.7457  106.4   0.517   26.8  0.3522   64.4  0.6391 -118.9
 2.780  0.7460  105.8   0.516   26.8  0.3565   64.0  0.6394 -120.0
 2.800  0.7463  105.3   0.515   26.7  0.3608   63.6  0.6400 -121.1
 2.820  0.7466  104.8   0.514   26.6  0.3648   63.1  0.6389 -122.1
 2.840  0.7469  104.3   0.514   26.5  0.3689   62.6  0.6381 -123.1
 2.860  0.7473  103.7   0.513   26.4  0.3730   62.0  0.6374 -124.2
 2.880  0.7478  103.2   0.513   26.3  0.3772   61.6  0.6369 -125.2
 2.900  0.7483  102.7   0.512   26.2  0.3813   61.1  0.6367 -126.2
 2.920  0.7489  102.2   0.512   26.1  0.3855   60.6  0.6366 -127.2
 2.940  0.7495  101.7   0.511   26.0  0.3897   60.1  0.6368 -128.2
 2.960  0.7502  101.1   0.511   25.9  0.3940   59.7  0.6371 -129.3
 2.980  0.7510  100.6   0.510   25.8  0.3982   59.2  0.6376 -130.3
 3.000  0.7518  100.1   0.510   25.7  0.4025   58.8  0.6384 -131.3
 3.100  0.7492   98.1   0.512   25.1  0.4181   55.8  0.6282 -136.6
 3.200  0.7476   96.0   0.515   24.5  0.4348   53.0  0.6234 -142.0
 3.300  0.7469   94.0   0.517   23.9  0.4524   50.4  0.6242 -147.4
 3.400  0.7472   91.9   0.519   23.3  0.4709   48.0  0.6306 -152.8
 3.500  0.7484   89.9   0.522   22.7  0.4901   45.8  0.6424 -158.0
 3.600  0.7474   88.3   0.526   21.7  0.4994   43.0  0.6352 -163.0
 3.700  0.7469   86.7   0.530   20.7  0.5097   40.4  0.6328 -168.0
 3.800  0.7470   85.2   0.534   19.8  0.5212   37.8  0.6354 -173.0
 3.900  0.7477   83.6   0.538   18.8  0.5336   35.4  0.6427 -178.0
 4.000  0.7489   82.0   0.542   17.9  0.5469   33.1  0.6548  177.2
 4.100  0.7459   80.8   0.545   16.6  0.5508   30.8  0.6490  173.0
 4.200  0.7431   79.7   0.548   15.3  0.5556   28.5  0.6468  168.8
 4.300  0.7407   78.5   0.551   14.1  0.5612   26.2  0.6480  164.6
 4.400  0.7386   77.3   0.555   12.8  0.5677   24.0  0.6527  160.4
 4.500  0.7368   76.1   0.559   11.6  0.5750   21.9  0.6609  156.3
 4.600  0.7371   75.1   0.561   10.3  0.5766   20.0  0.6569  152.9
 4.700  0.7375   74.1   0.564    9.1  0.5787   18.2  0.6553  149.4
 4.800  0.7383   73.0   0.567    7.8  0.5815   16.3  0.6562  145.9
 4.900  0.7392   72.0   0.570    6.6  0.5848   14.5  0.6593  142.5
 5.000  0.7404   71.0   0.573    5.4  0.5888   12.7  0.6649  139.1
 5.100  0.7380   70.0   0.572    5.0  0.5882   11.8  0.6546  137.8
 5.200  0.7358   69.0   0.571    4.6  0.5877   10.9  0.6446  136.4
 5.300  0.7339   68.0   0.570    4.3  0.5874   10.0  0.6350  135.0
 5.400  0.7322   67.0   0.569    3.9  0.5872    9.1  0.6258  133.5
 5.500  0.7307   66.0   0.568    3.5  0.5872    8.2  0.6170  132.0
 5.600  0.7300   65.4   0.573    2.1  0.5924    6.5  0.6292  129.2
 5.700  0.7295   64.8   0.578    0.7  0.5981    4.7  0.6430  126.5
 5.800  0.7290   64.1   0.583   -0.7  0.6044    3.1  0.6580  123.9
 5.900  0.7286   63.5   0.589   -2.1  0.6111    1.4  0.6744  121.4
 6.000  0.7283   62.9   0.595   -3.4  0.6184   -0.2  0.6919  119.1
!
!  f       NFmin   Gammaopt  rn/50
! GHz       dB    MAG  ANG    -
!
! noise parameter not available yet for this operation point!
!
! (c) 2015  Infineon Technologies AG, Munich
