! Infineon Technologies  Discrete & RF Semiconductors
! BFR182
! VCE =  10. V,  IC =  3.0 mA
! Common Emitter S-Parameters:                            Nov 2015
# GHz  S  MA  R  50
!  f         S11            S21            S12            S22
! GHz     MAG   ANG      MAG   ANG      MAG   ANG      MAG   ANG
 0.010  0.9081   -1.8   9.298  178.3  0.0018   87.6  0.9931   -0.8
 0.015  0.9039   -2.5   9.319  177.4  0.0028   89.7  0.9920   -1.2
 0.020  0.8999   -3.3   9.343  176.5  0.0038   90.7  0.9910   -1.7
 0.025  0.8995   -4.2   9.350  175.8  0.0048   88.5  0.9902   -2.1
 0.030  0.8993   -5.0   9.359  175.1  0.0058   87.1  0.9894   -2.5
 0.035  0.8994   -5.9   9.369  174.3  0.0067   86.1  0.9886   -2.8
 0.040  0.8996   -6.8   9.380  173.6  0.0077   85.3  0.9879   -3.2
 0.045  0.9001   -7.6   9.394  172.9  0.0087   84.8  0.9872   -3.6
 0.050  0.9007   -8.5   9.408  172.2  0.0097   84.3  0.9866   -4.0
 0.055  0.8982   -9.3   9.370  171.5  0.0107   83.6  0.9853   -4.4
 0.060  0.8959  -10.2   9.334  170.8  0.0117   83.1  0.9840   -4.7
 0.065  0.8938  -11.0   9.299  170.1  0.0127   82.6  0.9827   -5.1
 0.070  0.8919  -11.8   9.266  169.4  0.0137   82.2  0.9815   -5.5
 0.075  0.8902  -12.7   9.234  168.7  0.0147   81.8  0.9803   -5.8
 0.080  0.8886  -13.5   9.203  168.0  0.0157   81.5  0.9791   -6.2
 0.085  0.8873  -14.4   9.174  167.3  0.0167   81.2  0.9780   -6.6
 0.090  0.8861  -15.2   9.146  166.6  0.0177   81.0  0.9770   -7.0
 0.095  0.8852  -16.0   9.120  165.8  0.0187   80.8  0.9760   -7.3
 0.100  0.8844  -16.9   9.095  165.1  0.0197   80.6  0.9750   -7.7
 0.105  0.8800  -17.7   9.076  164.3  0.0206   79.8  0.9722   -8.1
 0.110  0.8758  -18.5   9.059  163.4  0.0214   79.1  0.9694   -8.4
 0.115  0.8717  -19.3   9.044  162.6  0.0223   78.5  0.9667   -8.8
 0.120  0.8678  -20.1   9.031  161.8  0.0232   77.9  0.9640   -9.2
 0.125  0.8641  -20.9   9.020  160.9  0.0240   77.3  0.9613   -9.5
 0.130  0.8605  -21.7   9.010  160.1  0.0249   76.8  0.9587   -9.9
 0.135  0.8572  -22.5   9.003  159.2  0.0258   76.3  0.9561  -10.3
 0.140  0.8540  -23.3   8.998  158.4  0.0266   75.8  0.9536  -10.6
 0.145  0.8509  -24.2   8.994  157.5  0.0275   75.4  0.9511  -11.0
 0.150  0.8481  -25.0   8.993  156.7  0.0284   75.0  0.9486  -11.4
 0.155  0.8446  -25.7   8.948  156.1  0.0292   74.6  0.9459  -11.7
 0.160  0.8412  -26.5   8.904  155.5  0.0300   74.3  0.9431  -12.0
 0.165  0.8380  -27.2   8.861  154.9  0.0308   73.9  0.9405  -12.3
 0.170  0.8349  -28.0   8.820  154.2  0.0316   73.6  0.9378  -12.6
 0.175  0.8319  -28.7   8.779  153.6  0.0324   73.3  0.9352  -12.9
 0.180  0.8291  -29.5   8.739  153.0  0.0332   73.0  0.9326  -13.2
 0.185  0.8265  -30.3   8.700  152.4  0.0341   72.8  0.9300  -13.6
 0.190  0.8240  -31.0   8.663  151.7  0.0349   72.5  0.9274  -13.9
 0.195  0.8216  -31.8   8.626  151.1  0.0357   72.2  0.9249  -14.2
 0.200  0.8194  -32.6   8.591  150.4  0.0365   72.0  0.9224  -14.5
 0.220  0.8016  -35.4   8.409  147.9  0.0395   70.5  0.9108  -15.6
 0.240  0.7857  -38.3   8.243  145.3  0.0426   69.2  0.8996  -16.6
 0.260  0.7677  -41.1   8.092  142.8  0.0454   68.0  0.8876  -17.6
 0.280  0.7470  -43.8   7.953  140.3  0.0480   66.8  0.8748  -18.6
 0.300  0.7282  -46.7   7.830  137.7  0.0507   65.8  0.8622  -19.5
 0.320  0.7094  -48.9   7.650  136.0  0.0527   64.8  0.8496  -20.2
 0.340  0.6917  -51.2   7.477  134.2  0.0547   63.9  0.8371  -20.9
 0.360  0.6752  -53.6   7.313  132.3  0.0568   63.1  0.8247  -21.7
 0.380  0.6599  -56.1   7.156  130.3  0.0588   62.3  0.8125  -22.4
 0.400  0.6460  -58.8   7.009  128.2  0.0609   61.6  0.8004  -23.2
 0.420  0.6286  -60.6   6.823  126.6  0.0625   60.9  0.7903  -23.6
 0.440  0.6119  -62.6   6.643  124.9  0.0642   60.2  0.7802  -24.1
 0.450  0.6039  -63.6   6.555  124.0  0.0650   59.8  0.7751  -24.3
 0.460  0.5960  -64.7   6.468  123.1  0.0658   59.5  0.7701  -24.5
 0.480  0.5809  -66.8   6.301  121.3  0.0674   58.9  0.7601  -25.0
 0.500  0.5666  -69.1   6.140  119.3  0.0691   58.3  0.7502  -25.5
 0.520  0.5523  -70.9   6.017  118.0  0.0707   57.9  0.7418  -25.8
 0.540  0.5386  -72.7   5.897  116.6  0.0722   57.4  0.7335  -26.2
 0.560  0.5255  -74.7   5.780  115.2  0.0738   57.0  0.7252  -26.5
 0.580  0.5131  -76.7   5.668  113.7  0.0753   56.7  0.7169  -26.8
 0.600  0.5013  -78.9   5.559  112.1  0.0769   56.3  0.7086  -27.2
 0.620  0.4889  -80.5   5.452  110.9  0.0780   56.0  0.7014  -27.4
 0.640  0.4768  -82.1   5.348  109.7  0.0792   55.8  0.6941  -27.7
 0.660  0.4652  -83.8   5.246  108.4  0.0803   55.6  0.6869  -27.9
 0.680  0.4540  -85.6   5.146  107.1  0.0815   55.3  0.6797  -28.1
 0.700  0.4433  -87.5   5.050  105.7  0.0826   55.1  0.6725  -28.4
 0.720  0.4326  -89.1   4.950  104.7  0.0838   55.0  0.6668  -28.6
 0.740  0.4223  -90.8   4.852  103.6  0.0851   54.8  0.6612  -28.8
 0.760  0.4124  -92.5   4.755  102.5  0.0863   54.7  0.6555  -28.9
 0.780  0.4029  -94.4   4.661  101.3  0.0876   54.5  0.6498  -29.1
 0.800  0.3938  -96.3   4.568  100.1  0.0888   54.4  0.6442  -29.3
 0.820  0.3853  -97.6   4.483   99.2  0.0898   54.4  0.6395  -29.4
 0.840  0.3770  -98.9   4.398   98.3  0.0909   54.5  0.6347  -29.6
 0.860  0.3690 -100.3   4.315   97.3  0.0919   54.5  0.6300  -29.7
 0.880  0.3611 -101.7   4.233   96.3  0.0930   54.6  0.6253  -29.9
 0.900  0.3535 -103.2   4.153   95.3  0.0940   54.6  0.6206  -30.0
 0.920  0.3469 -104.7   4.086   94.5  0.0951   54.6  0.6175  -30.2
 0.940  0.3405 -106.3   4.019   93.7  0.0962   54.6  0.6144  -30.3
 0.960  0.3344 -108.0   3.953   92.9  0.0972   54.5  0.6113  -30.5
 0.980  0.3286 -109.7   3.888   92.0  0.0983   54.5  0.6082  -30.6
 1.000  0.3231 -111.5   3.824   91.1  0.0994   54.5  0.6051  -30.8
 1.020  0.3171 -113.0   3.768   90.3  0.1005   54.6  0.6022  -31.0
 1.040  0.3113 -114.6   3.713   89.6  0.1015   54.6  0.5993  -31.1
 1.060  0.3057 -116.3   3.659   88.8  0.1026   54.7  0.5964  -31.3
 1.080  0.3004 -118.0   3.605   87.9  0.1036   54.7  0.5935  -31.4
 1.100  0.2954 -119.8   3.552   87.1  0.1047   54.8  0.5906  -31.6
 1.120  0.2896 -121.3   3.502   86.4  0.1058   54.8  0.5882  -31.8
 1.140  0.2840 -122.9   3.453   85.6  0.1068   54.9  0.5858  -31.9
 1.160  0.2786 -124.5   3.404   84.8  0.1079   54.9  0.5834  -32.1
 1.180  0.2734 -126.2   3.356   84.0  0.1089   55.0  0.5811  -32.2
 1.200  0.2685 -128.0   3.308   83.2  0.1100   55.0  0.5787  -32.4
 1.220  0.2641 -129.3   3.263   82.6  0.1112   55.0  0.5766  -32.5
 1.240  0.2598 -130.7   3.218   81.9  0.1124   55.1  0.5746  -32.7
 1.260  0.2557 -132.1   3.173   81.2  0.1137   55.1  0.5725  -32.8
 1.280  0.2517 -133.5   3.129   80.5  0.1149   55.2  0.5705  -33.0
 1.300  0.2479 -135.0   3.086   79.8  0.1161   55.2  0.5684  -33.1
 1.320  0.2442 -136.8   3.048   79.2  0.1171   55.3  0.5666  -33.3
 1.340  0.2407 -138.7   3.011   78.5  0.1182   55.4  0.5648  -33.5
 1.360  0.2375 -140.6   2.974   77.8  0.1192   55.6  0.5630  -33.7
 1.380  0.2346 -142.6   2.938   77.1  0.1203   55.7  0.5612  -33.9
 1.400  0.2319 -144.6   2.902   76.4  0.1213   55.8  0.5594  -34.1
 1.420  0.2295 -145.9   2.873   75.8  0.1226   55.9  0.5576  -34.2
 1.440  0.2271 -147.3   2.845   75.2  0.1238   56.0  0.5557  -34.4
 1.460  0.2250 -148.7   2.817   74.6  0.1251   56.0  0.5539  -34.5
 1.480  0.2229 -150.1   2.789   74.0  0.1263   56.1  0.5520  -34.7
 1.500  0.2210 -151.5   2.762   73.4  0.1276   56.2  0.5502  -34.8
 1.520  0.2188 -153.5   2.729   72.8  0.1289   56.2  0.5486  -35.0
 1.540  0.2169 -155.6   2.697   72.1  0.1302   56.3  0.5471  -35.2
 1.560  0.2153 -157.7   2.664   71.5  0.1315   56.3  0.5455  -35.3
 1.580  0.2139 -159.8   2.632   70.8  0.1328   56.4  0.5439  -35.5
 1.600  0.2129 -162.0   2.601   70.1  0.1341   56.4  0.5424  -35.7
 1.620  0.2113 -163.6   2.575   69.6  0.1354   56.5  0.5406  -35.9
 1.640  0.2098 -165.1   2.549   69.0  0.1367   56.7  0.5389  -36.1
 1.660  0.2084 -166.7   2.523   68.5  0.1380   56.8  0.5371  -36.3
 1.680  0.2073 -168.4   2.498   67.9  0.1393   57.0  0.5353  -36.5
 1.700  0.2063 -170.0   2.473   67.3  0.1406   57.1  0.5336  -36.7
 1.720  0.2064 -171.5   2.450   66.8  0.1419   57.1  0.5325  -36.9
 1.740  0.2066 -173.1   2.427   66.3  0.1432   57.1  0.5314  -37.1
 1.760  0.2070 -174.6   2.405   65.7  0.1445   57.0  0.5303  -37.4
 1.780  0.2075 -176.1   2.382   65.2  0.1458   57.0  0.5293  -37.6
 1.800  0.2082 -177.6   2.360   64.6  0.1471   57.0  0.5282  -37.8
 1.820  0.2084 -179.1   2.341   64.1  0.1484   57.1  0.5272  -38.0
 1.840  0.2088  179.3   2.321   63.6  0.1497   57.1  0.5262  -38.3
 1.860  0.2093  177.8   2.302   63.1  0.1511   57.2  0.5252  -38.5
 1.880  0.2100  176.3   2.284   62.5  0.1524   57.2  0.5243  -38.8
 1.900  0.2108  174.8   2.265   62.0  0.1537   57.3  0.5233  -39.0
 1.920  0.2111  173.4   2.244   61.5  0.1552   57.3  0.5225  -39.2
 1.940  0.2115  172.1   2.224   60.9  0.1567   57.3  0.5217  -39.5
 1.960  0.2121  170.7   2.204   60.4  0.1581   57.2  0.5209  -39.7
 1.980  0.2127  169.3   2.184   59.8  0.1596   57.2  0.5201  -40.0
 2.000  0.2135  168.0   2.164   59.2  0.1611   57.2  0.5193  -40.2
 2.020  0.2138  166.7   2.148   58.7  0.1626   57.2  0.5178  -40.5
 2.040  0.2142  165.3   2.131   58.2  0.1641   57.3  0.5164  -40.7
 2.060  0.2148  164.0   2.115   57.8  0.1656   57.3  0.5149  -41.0
 2.080  0.2155  162.6   2.099   57.3  0.1671   57.3  0.5135  -41.3
 2.100  0.2162  161.3   2.083   56.7  0.1685   57.4  0.5121  -41.5
 2.120  0.2171  160.0   2.068   56.2  0.1700   57.4  0.5106  -41.8
 2.140  0.2181  158.7   2.052   55.7  0.1715   57.4  0.5092  -42.1
 2.160  0.2192  157.4   2.037   55.2  0.1730   57.4  0.5078  -42.3
 2.180  0.2205  156.2   2.022   54.6  0.1745   57.5  0.5065  -42.6
 2.200  0.2218  154.9   2.007   54.1  0.1760   57.5  0.5051  -42.9
 2.220  0.2227  153.8   1.993   53.6  0.1775   57.5  0.5041  -43.2
 2.240  0.2238  152.6   1.979   53.2  0.1790   57.4  0.5030  -43.5
 2.260  0.2249  151.5   1.965   52.7  0.1805   57.4  0.5020  -43.8
 2.280  0.2261  150.4   1.952   52.2  0.1820   57.3  0.5010  -44.0
 2.300  0.2273  149.3   1.938   51.7  0.1835   57.3  0.5000  -44.3
 2.320  0.2287  148.3   1.925   51.2  0.1851   57.3  0.4991  -44.6
 2.340  0.2301  147.2   1.912   50.7  0.1866   57.2  0.4981  -44.9
 2.360  0.2316  146.2   1.899   50.2  0.1881   57.2  0.4972  -45.2
 2.380  0.2332  145.1   1.886   49.7  0.1896   57.1  0.4962  -45.5
 2.400  0.2349  144.1   1.873   49.2  0.1911   57.1  0.4953  -45.8
 2.420  0.2368  143.0   1.862   48.8  0.1928   57.0  0.4936  -46.1
 2.440  0.2387  141.9   1.850   48.3  0.1945   57.0  0.4919  -46.4
 2.460  0.2408  140.8   1.839   47.9  0.1962   56.9  0.4903  -46.7
 2.480  0.2429  139.8   1.828   47.5  0.1979   56.9  0.4886  -47.1
 2.500  0.2451  138.7   1.817   47.0  0.1996   56.8  0.4870  -47.4
 2.520  0.2474  137.7   1.806   46.6  0.2013   56.8  0.4853  -47.7
 2.540  0.2498  136.7   1.796   46.1  0.2030   56.7  0.4837  -48.0
 2.560  0.2522  135.7   1.785   45.6  0.2047   56.7  0.4821  -48.3
 2.580  0.2547  134.7   1.774   45.2  0.2064   56.6  0.4806  -48.7
 2.600  0.2573  133.8   1.764   44.7  0.2081   56.6  0.4790  -49.0
 2.620  0.2593  133.0   1.754   44.3  0.2097   56.5  0.4780  -49.3
 2.640  0.2613  132.2   1.743   43.9  0.2114   56.5  0.4771  -49.7
 2.660  0.2634  131.5   1.733   43.5  0.2130   56.4  0.4761  -50.0
 2.680  0.2655  130.7   1.723   43.1  0.2147   56.3  0.4752  -50.4
 2.700  0.2677  129.9   1.712   42.7  0.2163   56.2  0.4743  -50.7
 2.720  0.2699  129.2   1.702   42.3  0.2180   56.2  0.4734  -51.1
 2.740  0.2722  128.5   1.692   41.9  0.2196   56.1  0.4726  -51.4
 2.760  0.2745  127.8   1.682   41.5  0.2213   56.0  0.4717  -51.8
 2.780  0.2768  127.1   1.673   41.0  0.2229   56.0  0.4709  -52.1
 2.800  0.2792  126.4   1.663   40.6  0.2246   55.9  0.4701  -52.5
 2.820  0.2814  125.7   1.654   40.2  0.2264   55.8  0.4683  -52.9
 2.840  0.2836  125.1   1.646   39.7  0.2282   55.7  0.4666  -53.2
 2.860  0.2858  124.4   1.638   39.3  0.2301   55.6  0.4648  -53.6
 2.880  0.2881  123.8   1.629   38.9  0.2319   55.5  0.4631  -53.9
 2.900  0.2904  123.2   1.621   38.4  0.2337   55.4  0.4614  -54.3
 2.920  0.2928  122.6   1.613   38.0  0.2355   55.3  0.4597  -54.7
 2.940  0.2952  122.0   1.605   37.5  0.2373   55.3  0.4581  -55.1
 2.960  0.2976  121.4   1.597   37.0  0.2392   55.2  0.4564  -55.4
 2.980  0.3000  120.8   1.590   36.6  0.2410   55.1  0.4548  -55.8
 3.000  0.3025  120.2   1.582   36.1  0.2428   55.0  0.4532  -56.2
 3.100  0.3141  117.3   1.543   34.3  0.2521   54.3  0.4448  -58.4
 3.200  0.3265  114.6   1.505   32.4  0.2613   53.6  0.4370  -60.7
 3.300  0.3395  112.1   1.469   30.4  0.2707   52.9  0.4300  -63.0
 3.400  0.3531  109.7   1.435   28.4  0.2800   52.4  0.4237  -65.4
 3.500  0.3673  107.6   1.403   26.2  0.2894   51.8  0.4182  -67.9
 3.600  0.3782  105.6   1.374   24.5  0.2994   50.8  0.4088  -70.7
 3.700  0.3896  103.6   1.347   22.8  0.3094   49.9  0.4004  -73.7
 3.800  0.4014  101.8   1.321   21.0  0.3196   49.1  0.3932  -76.8
 3.900  0.4136  100.1   1.296   19.1  0.3297   48.3  0.3871  -80.0
 4.000  0.4261   98.5   1.273   17.2  0.3400   47.5  0.3823  -83.3
 4.100  0.4367   96.9   1.249   15.6  0.3502   46.3  0.3732  -86.7
 4.200  0.4476   95.4   1.225   14.0  0.3605   45.2  0.3655  -90.3
 4.300  0.4589   93.9   1.203   12.3  0.3710   44.1  0.3592  -94.0
 4.400  0.4704   92.5   1.182   10.6  0.3815   43.1  0.3545  -97.8
 4.500  0.4822   91.2   1.162    8.8  0.3922   42.2  0.3514 -101.7
 4.600  0.4906   89.8   1.143    7.4  0.4022   40.9  0.3431 -105.5
 4.700  0.4993   88.5   1.126    5.9  0.4125   39.6  0.3363 -109.4
 4.800  0.5083   87.3   1.109    4.3  0.4230   38.4  0.3312 -113.5
 4.900  0.5175   86.1   1.092    2.7  0.4336   37.2  0.3279 -117.7
 5.000  0.5269   84.9   1.077    1.1  0.4444   36.1  0.3263 -122.0
 5.100  0.5346   83.7   1.058   -0.1  0.4535   34.6  0.3207 -126.4
 5.200  0.5425   82.5   1.040   -1.4  0.4629   33.3  0.3171 -130.8
 5.300  0.5507   81.3   1.022   -2.8  0.4726   31.9  0.3154 -135.4
 5.400  0.5590   80.2   1.005   -4.2  0.4825   30.6  0.3157 -140.0
 5.500  0.5676   79.1   0.989   -5.6  0.4927   29.4  0.3180 -144.5
 5.600  0.5742   77.9   0.971   -6.8  0.4996   27.8  0.3126 -148.8
 5.700  0.5811   76.7   0.954   -8.1  0.5069   26.2  0.3091 -153.2
 5.800  0.5882   75.5   0.937   -9.4  0.5145   24.6  0.3074 -157.6
 5.900  0.5955   74.3   0.921  -10.7  0.5225   23.1  0.3075 -162.1
 6.000  0.6031   73.2   0.905  -12.1  0.5309   21.7  0.3096 -166.6
!
!  f       NFmin   Gammaopt  rn/50
! GHz       dB    MAG  ANG    -
!
! noise parameter not available yet for this operation point!
!
! (c) 2015  Infineon Technologies AG, Munich
