! Infineon Technologies  Discrete & RF Semiconductors
! BFR106
! VCE =  3.5 V,  IC =  12 mA
! Common Emitter S-Parameters:                            Nov 2015
# GHz  S  MA  R  50
!  f         S11            S21            S12            S22
! GHz     MAG   ANG      MAG   ANG      MAG   ANG      MAG   ANG
 0.010  0.6803  -15.3  32.383  170.4  0.0059   85.9  0.9786   -7.4
 0.015  0.6684  -22.5  31.781  166.6  0.0085   80.2  0.9619  -10.9
 0.020  0.6673  -29.8  31.322  162.7  0.0111   77.1  0.9491  -14.6
 0.025  0.6429  -35.4  30.195  159.8  0.0132   72.9  0.9196  -17.0
 0.030  0.6250  -41.3  29.154  156.6  0.0153   69.8  0.8918  -19.6
 0.035  0.6142  -47.6  28.208  153.2  0.0174   67.5  0.8660  -22.3
 0.040  0.6109  -53.9  27.366  149.6  0.0195   65.7  0.8423  -25.2
 0.045  0.6152  -60.3  26.640  145.8  0.0217   64.3  0.8208  -28.3
 0.050  0.6269  -66.5  26.037  141.8  0.0239   63.1  0.8018  -31.5
 0.055  0.6098  -70.1  25.170  140.3  0.0251   61.4  0.7773  -32.6
 0.060  0.5953  -73.9  24.320  138.8  0.0262   59.8  0.7532  -33.8
 0.065  0.5835  -77.9  23.490  137.1  0.0274   58.4  0.7294  -35.1
 0.070  0.5747  -82.0  22.683  135.3  0.0286   57.1  0.7061  -36.5
 0.075  0.5688  -86.2  21.899  133.3  0.0298   55.9  0.6831  -38.0
 0.080  0.5661  -90.5  21.142  131.2  0.0311   54.8  0.6607  -39.5
 0.085  0.5666  -94.8  20.416  129.0  0.0323   53.7  0.6387  -41.2
 0.090  0.5703  -99.0  19.722  126.6  0.0336   52.8  0.6174  -43.0
 0.095  0.5770 -103.2  19.066  124.0  0.0348   51.9  0.5967  -44.9
 0.100  0.5868 -107.3  18.450  121.3  0.0361   51.1  0.5767  -47.0
 0.105  0.5802 -109.4  17.930  120.4  0.0366   50.7  0.5627  -47.5
 0.110  0.5744 -111.6  17.414  119.4  0.0372   50.3  0.5488  -48.1
 0.115  0.5695 -113.7  16.904  118.4  0.0377   49.9  0.5349  -48.6
 0.120  0.5653 -116.0  16.399  117.3  0.0383   49.5  0.5210  -49.3
 0.125  0.5621 -118.2  15.901  116.1  0.0388   49.1  0.5072  -49.9
 0.130  0.5597 -120.5  15.410  114.9  0.0394   48.8  0.4935  -50.6
 0.135  0.5582 -122.8  14.926  113.6  0.0399   48.4  0.4799  -51.3
 0.140  0.5577 -125.1  14.451  112.2  0.0405   48.1  0.4663  -52.0
 0.145  0.5580 -127.4  13.985  110.7  0.0410   47.7  0.4529  -52.8
 0.150  0.5592 -129.7  13.529  109.1  0.0416   47.4  0.4395  -53.7
 0.155  0.5573 -131.0  13.235  108.5  0.0421   47.5  0.4316  -53.9
 0.160  0.5558 -132.4  12.943  107.9  0.0426   47.6  0.4236  -54.0
 0.165  0.5545 -133.7  12.653  107.3  0.0431   47.7  0.4157  -54.2
 0.170  0.5536 -135.1  12.363  106.7  0.0436   47.7  0.4077  -54.3
 0.175  0.5529 -136.4  12.076  106.0  0.0441   47.8  0.3998  -54.5
 0.180  0.5526 -137.8  11.790  105.3  0.0447   47.9  0.3919  -54.7
 0.185  0.5526 -139.1  11.506  104.6  0.0452   48.0  0.3839  -54.9
 0.190  0.5529 -140.5  11.224  103.8  0.0457   48.1  0.3760  -55.1
 0.195  0.5535 -141.8  10.944  103.0  0.0462   48.1  0.3681  -55.3
 0.200  0.5544 -143.2  10.667  102.1  0.0467   48.2  0.3602  -55.5
 0.220  0.5511 -147.0   9.855  100.1  0.0483   48.8  0.3378  -55.9
 0.240  0.5504 -150.9   9.057   97.8  0.0500   49.4  0.3155  -56.4
 0.260  0.5499 -154.1   8.391   95.8  0.0518   50.2  0.2981  -56.8
 0.280  0.5489 -156.8   7.850   94.4  0.0538   51.1  0.2856  -57.1
 0.300  0.5491 -159.5   7.314   92.7  0.0558   51.9  0.2732  -57.4
 0.320  0.5479 -161.5   6.964   91.7  0.0578   52.6  0.2646  -57.3
 0.340  0.5473 -163.5   6.617   90.6  0.0597   53.2  0.2560  -57.3
 0.360  0.5474 -165.4   6.272   89.4  0.0617   53.8  0.2473  -57.2
 0.380  0.5481 -167.4   5.930   88.1  0.0637   54.4  0.2387  -57.2
 0.400  0.5495 -169.4   5.592   86.6  0.0657   54.9  0.2301  -57.1
 0.420  0.5493 -170.8   5.371   85.7  0.0677   55.6  0.2255  -57.1
 0.440  0.5494 -172.2   5.151   84.7  0.0698   56.2  0.2208  -57.2
 0.450  0.5495 -173.0   5.042   84.1  0.0708   56.5  0.2185  -57.2
 0.460  0.5498 -173.7   4.933   83.6  0.0719   56.8  0.2162  -57.2
 0.480  0.5506 -175.1   4.717   82.4  0.0739   57.4  0.2115  -57.3
 0.500  0.5517 -176.5   4.503   81.1  0.0760   57.9  0.2069  -57.3
 0.520  0.5514 -177.7   4.358   80.3  0.0782   58.3  0.2046  -57.5
 0.540  0.5514 -178.9   4.214   79.4  0.0805   58.7  0.2024  -57.8
 0.560  0.5516  179.9   4.071   78.5  0.0827   59.0  0.2001  -58.1
 0.580  0.5521  178.7   3.929   77.5  0.0850   59.4  0.1979  -58.3
 0.600  0.5528  177.5   3.789   76.4  0.0872   59.7  0.1956  -58.6
 0.620  0.5531  176.5   3.685   75.6  0.0895   60.0  0.1940  -59.0
 0.640  0.5536  175.5   3.581   74.8  0.0918   60.3  0.1924  -59.5
 0.660  0.5543  174.5   3.479   74.0  0.0940   60.6  0.1908  -60.0
 0.680  0.5551  173.5   3.377   73.1  0.0963   60.9  0.1892  -60.4
 0.700  0.5561  172.5   3.276   72.1  0.0986   61.2  0.1876  -60.9
 0.720  0.5564  171.7   3.196   71.4  0.1010   61.3  0.1861  -61.4
 0.740  0.5568  170.9   3.117   70.7  0.1033   61.4  0.1845  -61.8
 0.760  0.5574  170.2   3.038   69.9  0.1057   61.5  0.1830  -62.3
 0.780  0.5580  169.4   2.960   69.1  0.1080   61.5  0.1815  -62.8
 0.800  0.5587  168.6   2.883   68.2  0.1104   61.6  0.1800  -63.3
 0.820  0.5581  167.8   2.822   67.5  0.1129   61.7  0.1794  -63.7
 0.840  0.5575  167.0   2.760   66.8  0.1154   61.9  0.1787  -64.2
 0.860  0.5571  166.1   2.700   66.1  0.1178   62.0  0.1781  -64.6
 0.880  0.5568  165.3   2.640   65.3  0.1203   62.1  0.1775  -65.1
 0.900  0.5566  164.5   2.580   64.5  0.1228   62.2  0.1769  -65.5
 0.920  0.5579  163.6   2.532   63.8  0.1252   62.2  0.1766  -66.2
 0.940  0.5593  162.6   2.485   63.1  0.1275   62.2  0.1764  -66.9
 0.960  0.5608  161.7   2.438   62.4  0.1299   62.3  0.1762  -67.6
 0.980  0.5626  160.8   2.392   61.7  0.1322   62.3  0.1760  -68.3
 1.000  0.5644  159.9   2.346   60.9  0.1346   62.3  0.1759  -69.0
 1.020  0.5651  159.2   2.307   60.2  0.1370   62.3  0.1756  -69.9
 1.040  0.5658  158.4   2.269   59.6  0.1395   62.2  0.1753  -70.8
 1.060  0.5667  157.7   2.230   58.9  0.1419   62.2  0.1751  -71.7
 1.080  0.5677  156.9   2.193   58.1  0.1444   62.1  0.1749  -72.6
 1.100  0.5687  156.2   2.155   57.4  0.1468   62.1  0.1747  -73.5
 1.120  0.5695  155.5   2.122   56.8  0.1493   62.0  0.1742  -74.3
 1.140  0.5705  154.8   2.090   56.1  0.1519   62.0  0.1738  -75.0
 1.160  0.5715  154.0   2.058   55.5  0.1544   61.9  0.1733  -75.8
 1.180  0.5726  153.3   2.026   54.8  0.1570   61.9  0.1730  -76.5
 1.200  0.5738  152.6   1.995   54.1  0.1595   61.8  0.1726  -77.3
 1.220  0.5737  152.0   1.966   53.5  0.1621   61.7  0.1725  -78.1
 1.240  0.5737  151.4   1.937   52.9  0.1646   61.6  0.1725  -78.9
 1.260  0.5737  150.9   1.909   52.2  0.1672   61.5  0.1724  -79.6
 1.280  0.5738  150.3   1.881   51.6  0.1697   61.4  0.1725  -80.4
 1.300  0.5739  149.7   1.853   50.9  0.1723   61.3  0.1725  -81.2
 1.320  0.5761  149.1   1.829   50.4  0.1748   61.2  0.1729  -82.1
 1.340  0.5784  148.5   1.805   49.8  0.1773   61.1  0.1733  -83.0
 1.360  0.5807  147.9   1.781   49.3  0.1799   61.0  0.1738  -83.9
 1.380  0.5831  147.4   1.757   48.7  0.1824   60.9  0.1743  -84.8
 1.400  0.5855  146.8   1.734   48.1  0.1849   60.8  0.1749  -85.7
 1.420  0.5856  146.2   1.717   47.5  0.1875   60.7  0.1750  -86.7
 1.440  0.5857  145.7   1.699   46.9  0.1900   60.5  0.1751  -87.6
 1.460  0.5859  145.1   1.682   46.3  0.1926   60.4  0.1753  -88.6
 1.480  0.5861  144.6   1.666   45.6  0.1951   60.2  0.1755  -89.5
 1.500  0.5864  144.0   1.649   45.0  0.1977   60.1  0.1758  -90.5
 1.520  0.5877  143.3   1.627   44.4  0.2004   59.9  0.1759  -91.5
 1.540  0.5890  142.6   1.606   43.8  0.2031   59.7  0.1760  -92.5
 1.560  0.5905  141.9   1.585   43.1  0.2057   59.5  0.1762  -93.6
 1.580  0.5920  141.3   1.564   42.5  0.2084   59.3  0.1765  -94.6
 1.600  0.5936  140.6   1.543   41.8  0.2111   59.1  0.1768  -95.6
 1.620  0.5948  140.0   1.528   41.2  0.2137   58.9  0.1766  -96.6
 1.640  0.5960  139.4   1.513   40.7  0.2163   58.8  0.1765  -97.6
 1.660  0.5974  138.8   1.498   40.1  0.2189   58.6  0.1765  -98.5
 1.680  0.5987  138.2   1.483   39.5  0.2215   58.5  0.1765  -99.5
 1.700  0.6002  137.6   1.469   38.9  0.2241   58.3  0.1765 -100.5
 1.720  0.6015  137.0   1.457   38.5  0.2267   58.1  0.1771 -101.5
 1.740  0.6029  136.5   1.446   38.0  0.2293   57.8  0.1778 -102.4
 1.760  0.6043  135.9   1.434   37.5  0.2319   57.6  0.1785 -103.3
 1.780  0.6058  135.4   1.422   37.1  0.2345   57.4  0.1793 -104.3
 1.800  0.6074  134.8   1.411   36.6  0.2371   57.2  0.1801 -105.2
 1.820  0.6087  134.1   1.398   36.0  0.2398   57.0  0.1810 -106.4
 1.840  0.6101  133.5   1.386   35.4  0.2425   56.7  0.1820 -107.6
 1.860  0.6115  132.8   1.374   34.8  0.2452   56.5  0.1831 -108.7
 1.880  0.6131  132.2   1.362   34.1  0.2480   56.3  0.1843 -109.9
 1.900  0.6147  131.5   1.350   33.5  0.2507   56.1  0.1855 -111.0
 1.920  0.6151  131.0   1.337   33.0  0.2533   55.9  0.1859 -112.2
 1.940  0.6156  130.6   1.325   32.5  0.2560   55.6  0.1863 -113.4
 1.960  0.6161  130.1   1.312   32.0  0.2586   55.4  0.1869 -114.6
 1.980  0.6167  129.7   1.299   31.5  0.2613   55.1  0.1875 -115.8
 2.000  0.6173  129.2   1.287   31.0  0.2639   54.9  0.1882 -117.0
 2.020  0.6184  128.7   1.276   30.5  0.2666   54.6  0.1889 -118.0
 2.040  0.6196  128.2   1.266   30.1  0.2693   54.4  0.1897 -119.0
 2.060  0.6208  127.6   1.256   29.6  0.2721   54.1  0.1905 -120.0
 2.080  0.6221  127.1   1.245   29.1  0.2748   53.9  0.1914 -121.0
 2.100  0.6234  126.6   1.235   28.6  0.2775   53.6  0.1923 -122.0
 2.120  0.6248  126.1   1.225   28.1  0.2803   53.4  0.1933 -123.0
 2.140  0.6262  125.6   1.215   27.6  0.2830   53.2  0.1944 -124.0
 2.160  0.6277  125.1   1.205   27.1  0.2858   52.9  0.1955 -124.9
 2.180  0.6292  124.6   1.196   26.5  0.2885   52.7  0.1967 -125.9
 2.200  0.6308  124.1   1.186   26.0  0.2913   52.5  0.1979 -126.8
 2.220  0.6318  123.5   1.178   25.5  0.2939   52.2  0.1989 -128.1
 2.240  0.6329  123.0   1.171   25.1  0.2965   51.9  0.1999 -129.4
 2.260  0.6341  122.4   1.163   24.6  0.2991   51.6  0.2011 -130.7
 2.280  0.6353  121.9   1.156   24.2  0.3018   51.4  0.2023 -132.0
 2.300  0.6366  121.3   1.148   23.7  0.3044   51.1  0.2037 -133.2
 2.320  0.6379  120.8   1.141   23.2  0.3071   50.8  0.2052 -134.4
 2.340  0.6393  120.2   1.134   22.7  0.3097   50.6  0.2067 -135.7
 2.360  0.6407  119.7   1.127   22.2  0.3124   50.3  0.2084 -136.9
 2.380  0.6422  119.1   1.120   21.7  0.3150   50.0  0.2101 -138.0
 2.400  0.6438  118.6   1.113   21.2  0.3177   49.8  0.2119 -139.2
 2.420  0.6451  118.1   1.105   20.8  0.3202   49.5  0.2131 -140.2
 2.440  0.6465  117.6   1.097   20.4  0.3227   49.2  0.2144 -141.2
 2.460  0.6479  117.0   1.089   20.0  0.3252   48.9  0.2158 -142.2
 2.480  0.6494  116.5   1.081   19.6  0.3277   48.5  0.2172 -143.2
 2.500  0.6509  116.0   1.074   19.1  0.3302   48.2  0.2187 -144.2
 2.520  0.6525  115.5   1.066   18.7  0.3328   47.9  0.2203 -145.2
 2.540  0.6541  115.0   1.058   18.3  0.3353   47.7  0.2219 -146.1
 2.560  0.6558  114.5   1.051   17.8  0.3379   47.4  0.2236 -147.1
 2.580  0.6575  114.0   1.043   17.4  0.3404   47.1  0.2253 -148.0
 2.600  0.6593  113.5   1.036   16.9  0.3430   46.8  0.2271 -148.9
 2.620  0.6602  113.1   1.030   16.5  0.3455   46.5  0.2289 -150.1
 2.640  0.6611  112.7   1.024   16.1  0.3480   46.2  0.2307 -151.3
 2.660  0.6621  112.3   1.019   15.7  0.3505   45.9  0.2327 -152.4
 2.680  0.6631  111.8   1.013   15.4  0.3530   45.5  0.2347 -153.6
 2.700  0.6641  111.4   1.007   15.0  0.3555   45.2  0.2369 -154.7
 2.720  0.6652  111.0   1.002   14.6  0.3580   44.9  0.2391 -155.8
 2.740  0.6663  110.6   0.996   14.1  0.3605   44.7  0.2414 -156.9
 2.760  0.6674  110.2   0.991   13.7  0.3631   44.4  0.2438 -157.9
 2.780  0.6686  109.8   0.985   13.3  0.3656   44.1  0.2463 -159.0
 2.800  0.6698  109.4   0.980   12.9  0.3682   43.8  0.2489 -160.0
 2.820  0.6713  108.9   0.974   12.5  0.3706   43.5  0.2508 -161.0
 2.840  0.6729  108.4   0.968   12.2  0.3730   43.1  0.2528 -161.9
 2.860  0.6746  108.0   0.962   11.8  0.3754   42.8  0.2549 -162.8
 2.880  0.6763  107.5   0.957   11.4  0.3779   42.5  0.2571 -163.7
 2.900  0.6780  107.0   0.951   11.1  0.3803   42.2  0.2593 -164.6
 2.920  0.6798  106.6   0.945   10.7  0.3828   41.9  0.2615 -165.5
 2.940  0.6816  106.1   0.940   10.3  0.3852   41.6  0.2639 -166.4
 2.960  0.6834  105.6   0.934    9.9  0.3877   41.3  0.2663 -167.2
 2.980  0.6853  105.2   0.929    9.5  0.3902   41.0  0.2687 -168.1
 3.000  0.6873  104.7   0.923    9.1  0.3927   40.7  0.2712 -168.9
 3.100  0.6920  102.7   0.899    7.8  0.4033   38.9  0.2823 -173.9
 3.200  0.6974  100.8   0.875    6.3  0.4143   37.2  0.2954 -178.5
 3.300  0.7037   98.9   0.852    4.8  0.4256   35.6  0.3103  177.3
 3.400  0.7107   97.0   0.829    3.3  0.4373   34.1  0.3267  173.5
 3.500  0.7184   95.2   0.807    1.6  0.4492   32.6  0.3443  170.1
 3.600  0.7230   93.5   0.790    0.5  0.4568   30.8  0.3569  165.9
 3.700  0.7282   91.8   0.772   -0.6  0.4649   29.0  0.3712  162.0
 3.800  0.7339   90.2   0.756   -1.7  0.4734   27.3  0.3872  158.3
 3.900  0.7403   88.6   0.739   -2.9  0.4823   25.6  0.4046  155.0
 4.000  0.7473   87.0   0.723   -4.2  0.4916   24.0  0.4232  152.0
 4.100  0.7482   85.6   0.710   -5.1  0.4963   22.3  0.4327  148.8
 4.200  0.7495   84.2   0.698   -6.0  0.5013   20.7  0.4435  145.7
 4.300  0.7513   82.8   0.685   -7.0  0.5068   19.0  0.4555  142.8
 4.400  0.7535   81.4   0.673   -8.0  0.5127   17.4  0.4686  140.0
 4.500  0.7562   80.0   0.661   -9.0  0.5190   15.9  0.4828  137.4
 4.600  0.7579   78.8   0.653   -9.7  0.5223   14.4  0.4906  134.8
 4.700  0.7599   77.7   0.645  -10.3  0.5260   13.0  0.4993  132.2
 4.800  0.7622   76.5   0.637  -11.0  0.5300   11.6  0.5091  129.7
 4.900  0.7649   75.3   0.629  -11.8  0.5343   10.2  0.5197  127.4
 5.000  0.7678   74.2   0.621  -12.5  0.5389    8.8  0.5312  125.1
 5.100  0.7653   73.1   0.614  -12.4  0.5414    8.1  0.5310  124.3
 5.200  0.7631   71.9   0.607  -12.3  0.5440    7.3  0.5309  123.5
 5.300  0.7612   70.8   0.601  -12.1  0.5467    6.6  0.5308  122.8
 5.400  0.7596   69.7   0.594  -12.0  0.5494    5.9  0.5309  122.0
 5.500  0.7583   68.5   0.587  -11.9  0.5523    5.2  0.5311  121.2
 5.600  0.7585   67.8   0.587  -12.8  0.5573    3.6  0.5459  118.9
 5.700  0.7588   67.0   0.586  -13.7  0.5627    2.0  0.5616  116.7
 5.800  0.7592   66.3   0.586  -14.5  0.5686    0.5  0.5781  114.6
 5.900  0.7598   65.5   0.586  -15.4  0.5749   -1.0  0.5953  112.6
 6.000  0.7605   64.8   0.586  -16.3  0.5815   -2.5  0.6131  110.8
!
!  f       NFmin   Gammaopt  rn/50
! GHz       dB    MAG  ANG    -
!
! noise parameter not available yet for this operation point!
!
! (c) 2015  Infineon Technologies AG, Munich
