! Infineon Technologies  Discrete & RF Semiconductors
! BFR106
! VCE =  1.7 V,  IC =  5.0 mA
! Common Emitter S-Parameters:                            Nov 2015
# GHz  S  MA  R  50
!  f         S11            S21            S12            S22
! GHz     MAG   ANG      MAG   ANG      MAG   ANG      MAG   ANG
 0.010  0.8341  -10.7  16.113  172.9  0.0084   86.8  0.9896   -5.2
 0.015  0.8268  -15.8  15.978  170.2  0.0124   82.4  0.9809   -7.8
 0.020  0.8263  -21.0  15.879  167.5  0.0165   80.1  0.9742  -10.4
 0.025  0.8063  -25.4  15.522  164.9  0.0200   75.3  0.9560  -12.5
 0.030  0.7913  -30.0  15.200  162.1  0.0236   71.9  0.9390  -14.6
 0.035  0.7816  -34.8  14.914  159.3  0.0272   69.4  0.9235  -16.9
 0.040  0.7774  -39.6  14.666  156.3  0.0309   67.5  0.9094  -19.2
 0.045  0.7787  -44.5  14.460  153.2  0.0347   66.0  0.8968  -21.6
 0.050  0.7857  -49.3  14.295  150.1  0.0384   64.8  0.8858  -24.0
 0.055  0.7666  -52.6  13.935  148.5  0.0405   62.6  0.8660  -25.2
 0.060  0.7501  -56.0  13.586  146.8  0.0427   60.6  0.8466  -26.5
 0.065  0.7364  -59.6  13.249  145.1  0.0449   58.8  0.8277  -27.9
 0.070  0.7256  -63.2  12.925  143.2  0.0472   57.2  0.8092  -29.3
 0.075  0.7180  -67.0  12.616  141.3  0.0495   55.8  0.7913  -30.8
 0.080  0.7135  -70.9  12.321  139.2  0.0518   54.4  0.7740  -32.4
 0.085  0.7122  -74.7  12.044  137.1  0.0541   53.2  0.7572  -34.0
 0.090  0.7142  -78.6  11.783  134.9  0.0565   52.1  0.7411  -35.7
 0.095  0.7195  -82.4  11.542  132.5  0.0589   51.0  0.7256  -37.5
 0.100  0.7279  -86.2  11.320  130.1  0.0613   50.1  0.7109  -39.3
 0.105  0.7173  -88.5  11.046  129.0  0.0623   49.1  0.6964  -40.0
 0.110  0.7079  -90.8  10.775  127.8  0.0632   48.1  0.6819  -40.7
 0.115  0.6997  -93.2  10.510  126.6  0.0642   47.1  0.6676  -41.5
 0.120  0.6928  -95.7  10.250  125.3  0.0653   46.2  0.6534  -42.3
 0.125  0.6872  -98.2   9.995  123.9  0.0663   45.3  0.6394  -43.1
 0.130  0.6828 -100.7   9.746  122.5  0.0674   44.4  0.6254  -44.0
 0.135  0.6799 -103.3   9.504  121.0  0.0684   43.6  0.6117  -44.9
 0.140  0.6783 -105.8   9.268  119.4  0.0695   42.8  0.5981  -45.9
 0.145  0.6780 -108.4   9.040  117.7  0.0706   42.0  0.5846  -46.9
 0.150  0.6792 -111.0   8.820  116.0  0.0717   41.2  0.5714  -47.9
 0.155  0.6752 -112.6   8.645  115.3  0.0723   40.8  0.5622  -48.2
 0.160  0.6716 -114.1   8.471  114.5  0.0729   40.4  0.5529  -48.6
 0.165  0.6686 -115.7   8.299  113.8  0.0735   40.0  0.5437  -49.0
 0.170  0.6661 -117.3   8.129  113.0  0.0741   39.6  0.5345  -49.3
 0.175  0.6641 -118.9   7.960  112.1  0.0747   39.3  0.5254  -49.7
 0.180  0.6626 -120.6   7.793  111.2  0.0753   38.9  0.5162  -50.1
 0.185  0.6617 -122.2   7.628  110.3  0.0759   38.5  0.5071  -50.5
 0.190  0.6613 -123.8   7.464  109.3  0.0766   38.2  0.4981  -51.0
 0.195  0.6615 -125.5   7.304  108.3  0.0772   37.8  0.4890  -51.4
 0.200  0.6622 -127.1   7.145  107.3  0.0778   37.5  0.4800  -51.9
 0.220  0.6536 -131.8   6.635  104.9  0.0793   36.6  0.4537  -52.8
 0.240  0.6495 -136.7   6.139  102.0  0.0808   35.8  0.4275  -53.9
 0.260  0.6461 -140.8   5.721   99.5  0.0821   35.3  0.4066  -54.8
 0.280  0.6417 -144.4   5.374   97.6  0.0832   35.2  0.3908  -55.4
 0.300  0.6398 -147.9   5.033   95.4  0.0842   35.0  0.3751  -56.1
 0.320  0.6359 -150.4   4.797   94.1  0.0853   35.1  0.3639  -56.5
 0.340  0.6332 -153.0   4.564   92.7  0.0863   35.3  0.3528  -56.9
 0.360  0.6318 -155.6   4.335   91.2  0.0874   35.4  0.3416  -57.3
 0.380  0.6317 -158.1   4.108   89.4  0.0884   35.6  0.3305  -57.8
 0.400  0.6329 -160.7   3.886   87.5  0.0895   35.7  0.3194  -58.3
 0.420  0.6319 -162.3   3.733   86.4  0.0904   36.1  0.3137  -58.7
 0.440  0.6313 -164.0   3.582   85.2  0.0914   36.6  0.3079  -59.1
 0.450  0.6313 -164.8   3.507   84.5  0.0918   36.8  0.3051  -59.3
 0.460  0.6313 -165.6   3.433   83.8  0.0923   37.0  0.3022  -59.5
 0.480  0.6319 -167.3   3.285   82.4  0.0933   37.4  0.2965  -59.9
 0.500  0.6329 -168.9   3.140   80.8  0.0942   37.8  0.2908  -60.3
 0.520  0.6319 -170.4   3.041   79.8  0.0955   38.4  0.2883  -60.8
 0.540  0.6313 -171.9   2.942   78.7  0.0967   38.9  0.2858  -61.3
 0.560  0.6312 -173.4   2.845   77.6  0.0980   39.5  0.2833  -61.8
 0.580  0.6315 -174.9   2.749   76.4  0.0993   40.0  0.2808  -62.4
 0.600  0.6322 -176.4   2.654   75.1  0.1006   40.5  0.2784  -62.9
 0.620  0.6322 -177.6   2.585   74.2  0.1018   41.1  0.2766  -63.6
 0.640  0.6325 -178.8   2.516   73.2  0.1030   41.6  0.2748  -64.4
 0.660  0.6331  179.9   2.448   72.1  0.1042   42.2  0.2730  -65.1
 0.680  0.6340  178.7   2.381   71.0  0.1055   42.7  0.2713  -65.8
 0.700  0.6352  177.5   2.315   69.8  0.1067   43.2  0.2697  -66.6
 0.720  0.6350  176.5   2.259   69.0  0.1082   43.7  0.2682  -67.3
 0.740  0.6350  175.5   2.203   68.1  0.1097   44.2  0.2667  -68.0
 0.760  0.6352  174.5   2.148   67.2  0.1112   44.7  0.2653  -68.7
 0.780  0.6356  173.5   2.093   66.2  0.1128   45.2  0.2639  -69.4
 0.800  0.6362  172.5   2.039   65.2  0.1143   45.7  0.2625  -70.1
 0.820  0.6354  171.5   1.997   64.4  0.1160   46.2  0.2617  -70.8
 0.840  0.6348  170.6   1.955   63.6  0.1177   46.7  0.2609  -71.6
 0.860  0.6344  169.6   1.913   62.7  0.1194   47.2  0.2601  -72.3
 0.880  0.6342  168.7   1.873   61.8  0.1212   47.6  0.2595  -73.1
 0.900  0.6341  167.7   1.832   60.9  0.1229   48.1  0.2588  -73.8
 0.920  0.6351  166.8   1.798   60.1  0.1247   48.6  0.2592  -74.7
 0.940  0.6362  165.9   1.764   59.3  0.1266   49.0  0.2596  -75.5
 0.960  0.6375  165.0   1.731   58.5  0.1285   49.5  0.2601  -76.4
 0.980  0.6390  164.1   1.698   57.6  0.1303   49.9  0.2606  -77.2
 1.000  0.6406  163.2   1.666   56.7  0.1322   50.3  0.2612  -78.1
 1.020  0.6411  162.3   1.640   56.0  0.1342   50.7  0.2615  -79.1
 1.040  0.6417  161.4   1.614   55.2  0.1361   51.0  0.2618  -80.1
 1.060  0.6425  160.6   1.588   54.4  0.1381   51.3  0.2623  -81.1
 1.080  0.6434  159.7   1.562   53.6  0.1401   51.7  0.2628  -82.0
 1.100  0.6445  158.8   1.537   52.8  0.1421   52.0  0.2634  -83.0
 1.120  0.6459  158.1   1.513   52.1  0.1442   52.3  0.2636  -84.0
 1.140  0.6475  157.3   1.490   51.4  0.1464   52.6  0.2638  -84.9
 1.160  0.6491  156.6   1.467   50.6  0.1485   52.9  0.2641  -85.9
 1.180  0.6508  155.8   1.444   49.8  0.1507   53.1  0.2645  -86.8
 1.200  0.6527  155.1   1.421   49.0  0.1528   53.4  0.2650  -87.8
 1.220  0.6530  154.3   1.402   48.4  0.1553   53.6  0.2654  -88.7
 1.240  0.6535  153.5   1.383   47.7  0.1578   53.8  0.2658  -89.7
 1.260  0.6540  152.8   1.364   47.1  0.1602   54.0  0.2663  -90.6
 1.280  0.6547  152.0   1.345   46.4  0.1627   54.1  0.2669  -91.5
 1.300  0.6555  151.2   1.327   45.7  0.1652   54.3  0.2675  -92.4
 1.320  0.6567  150.6   1.309   45.1  0.1676   54.5  0.2687  -93.4
 1.340  0.6579  150.0   1.292   44.5  0.1700   54.6  0.2699  -94.4
 1.360  0.6592  149.3   1.275   43.8  0.1725   54.8  0.2713  -95.4
 1.380  0.6606  148.7   1.258   43.2  0.1749   54.9  0.2727  -96.4
 1.400  0.6621  148.1   1.241   42.5  0.1773   55.1  0.2742  -97.4
 1.420  0.6618  147.4   1.230   41.9  0.1800   55.2  0.2749  -98.4
 1.440  0.6616  146.8   1.219   41.3  0.1827   55.4  0.2756  -99.5
 1.460  0.6614  146.1   1.208   40.7  0.1853   55.5  0.2765 -100.5
 1.480  0.6614  145.5   1.197   40.0  0.1880   55.6  0.2774 -101.5
 1.500  0.6614  144.8   1.186   39.4  0.1907   55.7  0.2784 -102.5
 1.520  0.6626  144.1   1.170   38.8  0.1935   55.7  0.2790 -103.6
 1.540  0.6639  143.5   1.155   38.1  0.1963   55.7  0.2797 -104.7
 1.560  0.6653  142.8   1.139   37.5  0.1991   55.7  0.2806 -105.8
 1.580  0.6668  142.2   1.124   36.8  0.2019   55.7  0.2815 -106.8
 1.600  0.6684  141.5   1.109   36.1  0.2047   55.7  0.2825 -107.9
 1.620  0.6689  140.8   1.099   35.6  0.2076   55.7  0.2829 -109.0
 1.640  0.6696  140.1   1.088   35.0  0.2104   55.7  0.2834 -110.1
 1.660  0.6703  139.3   1.078   34.5  0.2133   55.6  0.2840 -111.2
 1.680  0.6711  138.6   1.068   33.9  0.2161   55.6  0.2848 -112.3
 1.700  0.6721  137.9   1.058   33.3  0.2190   55.6  0.2856 -113.4
 1.720  0.6742  137.3   1.049   32.8  0.2221   55.5  0.2869 -114.4
 1.740  0.6764  136.6   1.040   32.4  0.2252   55.4  0.2882 -115.3
 1.760  0.6787  136.0   1.031   31.9  0.2282   55.3  0.2897 -116.2
 1.780  0.6811  135.3   1.023   31.4  0.2313   55.2  0.2912 -117.2
 1.800  0.6836  134.7   1.014   30.9  0.2344   55.1  0.2928 -118.1
 1.820  0.6838  134.1   1.005   30.4  0.2375   55.0  0.2948 -119.2
 1.840  0.6840  133.5   0.996   29.8  0.2405   54.9  0.2969 -120.3
 1.860  0.6843  133.0   0.987   29.2  0.2436   54.7  0.2991 -121.4
 1.880  0.6847  132.4   0.979   28.7  0.2466   54.6  0.3014 -122.5
 1.900  0.6851  131.8   0.970   28.1  0.2497   54.5  0.3038 -123.5
 1.920  0.6856  131.2   0.961   27.6  0.2528   54.3  0.3051 -124.6
 1.940  0.6862  130.6   0.953   27.1  0.2559   54.1  0.3065 -125.8
 1.960  0.6869  130.1   0.945   26.6  0.2589   53.9  0.3081 -126.9
 1.980  0.6876  129.5   0.936   26.1  0.2620   53.8  0.3097 -128.0
 2.000  0.6884  128.9   0.928   25.6  0.2651   53.6  0.3115 -129.1
 2.020  0.6894  128.3   0.921   25.2  0.2683   53.4  0.3128 -130.2
 2.040  0.6904  127.7   0.914   24.8  0.2716   53.1  0.3142 -131.2
 2.060  0.6915  127.1   0.907   24.3  0.2748   52.9  0.3156 -132.2
 2.080  0.6927  126.6   0.900   23.9  0.2780   52.7  0.3172 -133.3
 2.100  0.6940  126.0   0.893   23.5  0.2813   52.4  0.3189 -134.3
 2.120  0.6953  125.4   0.887   23.0  0.2846   52.2  0.3207 -135.3
 2.140  0.6968  124.8   0.880   22.6  0.2878   52.0  0.3226 -136.3
 2.160  0.6982  124.2   0.873   22.1  0.2911   51.8  0.3246 -137.3
 2.180  0.6998  123.7   0.867   21.7  0.2943   51.6  0.3266 -138.2
 2.200  0.7014  123.1   0.860   21.2  0.2976   51.4  0.3288 -139.2
 2.220  0.7019  122.5   0.855   20.8  0.3008   51.1  0.3306 -140.4
 2.240  0.7025  122.0   0.849   20.4  0.3039   50.8  0.3325 -141.5
 2.260  0.7032  121.4   0.844   20.0  0.3071   50.6  0.3346 -142.7
 2.280  0.7039  120.8   0.839   19.6  0.3103   50.3  0.3368 -143.8
 2.300  0.7047  120.3   0.834   19.2  0.3135   50.0  0.3391 -144.9
 2.320  0.7056  119.7   0.829   18.8  0.3167   49.8  0.3416 -146.0
 2.340  0.7065  119.2   0.824   18.4  0.3199   49.5  0.3441 -147.1
 2.360  0.7075  118.6   0.819   18.0  0.3232   49.3  0.3468 -148.2
 2.380  0.7086  118.1   0.814   17.5  0.3264   49.0  0.3497 -149.3
 2.400  0.7097  117.5   0.809   17.1  0.3296   48.8  0.3526 -150.3
 2.420  0.7104  116.9   0.804   16.8  0.3326   48.4  0.3541 -151.3
 2.440  0.7112  116.3   0.799   16.5  0.3355   48.1  0.3557 -152.3
 2.460  0.7120  115.8   0.793   16.2  0.3385   47.7  0.3573 -153.3
 2.480  0.7130  115.2   0.788   15.9  0.3415   47.4  0.3591 -154.3
 2.500  0.7140  114.6   0.783   15.6  0.3446   47.1  0.3610 -155.2
 2.520  0.7150  114.1   0.778   15.2  0.3476   46.8  0.3630 -156.2
 2.540  0.7162  113.5   0.773   14.9  0.3506   46.4  0.3651 -157.1
 2.560  0.7174  112.9   0.768   14.6  0.3537   46.1  0.3673 -158.1
 2.580  0.7187  112.4   0.763   14.2  0.3567   45.8  0.3696 -159.0
 2.600  0.7200  111.8   0.758   13.9  0.3598   45.5  0.3720 -159.9
 2.620  0.7205  111.3   0.754   13.6  0.3627   45.1  0.3743 -161.0
 2.640  0.7211  110.8   0.750   13.3  0.3656   44.8  0.3768 -162.0
 2.660  0.7217  110.3   0.746   13.0  0.3685   44.4  0.3794 -163.1
 2.680  0.7224  109.9   0.742   12.7  0.3715   44.0  0.3821 -164.1
 2.700  0.7232  109.4   0.738   12.4  0.3744   43.7  0.3849 -165.1
 2.720  0.7240  108.9   0.734   12.1  0.3774   43.3  0.3878 -166.1
 2.740  0.7248  108.4   0.730   11.8  0.3804   43.0  0.3909 -167.1
 2.760  0.7257  108.0   0.727   11.5  0.3834   42.7  0.3940 -168.0
 2.780  0.7266  107.5   0.723   11.2  0.3864   42.3  0.3973 -169.0
 2.800  0.7276  107.0   0.719   10.9  0.3894   42.0  0.4007 -169.9
 2.820  0.7286  106.5   0.715   10.6  0.3922   41.6  0.4028 -170.8
 2.840  0.7296  106.1   0.712   10.4  0.3950   41.2  0.4050 -171.7
 2.860  0.7307  105.6   0.708   10.1  0.3978   40.9  0.4073 -172.7
 2.880  0.7318  105.1   0.705    9.9  0.4007   40.5  0.4096 -173.5
 2.900  0.7330  104.7   0.701    9.6  0.4036   40.1  0.4121 -174.4
 2.920  0.7342  104.2   0.698    9.3  0.4064   39.8  0.4147 -175.3
 2.940  0.7354  103.8   0.694    9.0  0.4093   39.4  0.4174 -176.2
 2.960  0.7367  103.3   0.691    8.8  0.4122   39.1  0.4202 -177.0
 2.980  0.7381  102.9   0.687    8.5  0.4152   38.7  0.4230 -177.9
 3.000  0.7395  102.4   0.684    8.2  0.4181   38.4  0.4260 -178.7
 3.100  0.7406  100.4   0.672    7.3  0.4288   36.3  0.4356  176.7
 3.200  0.7425   98.4   0.660    6.4  0.4400   34.3  0.4479  172.4
 3.300  0.7454   96.4   0.648    5.5  0.4518   32.5  0.4626  168.3
 3.400  0.7492   94.4   0.636    4.5  0.4640   30.7  0.4795  164.5
 3.500  0.7538   92.5   0.625    3.5  0.4766   29.0  0.4984  160.9
 3.600  0.7558   90.9   0.617    2.8  0.4832   27.0  0.5080  157.1
 3.700  0.7583   89.3   0.610    2.1  0.4904   25.1  0.5199  153.4
 3.800  0.7615   87.7   0.602    1.3  0.4981   23.2  0.5338  149.8
 3.900  0.7653   86.1   0.595    0.6  0.5063   21.4  0.5496  146.5
 4.000  0.7696   84.5   0.588   -0.2  0.5150   19.7  0.5671  143.4
 4.100  0.7682   83.2   0.584   -0.9  0.5180   18.0  0.5721  140.4
 4.200  0.7673   81.9   0.579   -1.6  0.5215   16.3  0.5787  137.4
 4.300  0.7666   80.7   0.575   -2.3  0.5254   14.6  0.5868  134.5
 4.400  0.7664   79.4   0.571   -3.1  0.5298   12.9  0.5964  131.7
 4.500  0.7666   78.1   0.567   -3.8  0.5346   11.3  0.6073  129.0
 4.600  0.7670   77.0   0.565   -4.6  0.5362    9.9  0.6105  126.6
 4.700  0.7677   75.9   0.563   -5.3  0.5380    8.4  0.6147  124.2
 4.800  0.7687   74.7   0.562   -6.1  0.5403    7.0  0.6200  121.9
 4.900  0.7700   73.6   0.560   -6.9  0.5428    5.6  0.6263  119.6
 5.000  0.7716   72.5   0.559   -7.7  0.5457    4.2  0.6336  117.3
 5.100  0.7692   71.5   0.557   -7.7  0.5473    3.5  0.6301  116.6
 5.200  0.7669   70.5   0.555   -7.7  0.5490    2.9  0.6267  115.8
 5.300  0.7650   69.5   0.554   -7.8  0.5508    2.2  0.6234  115.0
 5.400  0.7632   68.5   0.552   -7.8  0.5526    1.6  0.6202  114.3
 5.500  0.7617   67.5   0.550   -7.8  0.5545    0.9  0.6171  113.5
 5.600  0.7606   66.7   0.552   -8.8  0.5584   -0.6  0.6289  111.4
 5.700  0.7597   66.0   0.555   -9.7  0.5626   -2.1  0.6414  109.4
 5.800  0.7588   65.2   0.557  -10.6  0.5673   -3.6  0.6548  107.4
 5.900  0.7582   64.5   0.560  -11.6  0.5723   -5.0  0.6689  105.6
 6.000  0.7576   63.7   0.563  -12.5  0.5776   -6.4  0.6836  103.8
!
!  f       NFmin   Gammaopt  rn/50
! GHz       dB    MAG  ANG    -
!
! noise parameter not available yet for this operation point!
!
! (c) 2015  Infineon Technologies AG, Munich
