! Infineon Technologies  Discrete & RF Semiconductors
! BFR181W
! VCE =  10. V,  IC =  3.0 mA
! Common Emitter S-Parameters:                            Nov 2015
# GHz  S  MA  R  50
!  f         S11            S21            S12            S22
! GHz     MAG   ANG      MAG   ANG      MAG   ANG      MAG   ANG
 0.100  0.9190  -12.9   8.637  168.6  0.0165   81.7  0.9791   -6.3
 0.105  0.9169  -13.5   8.621  168.0  0.0173   81.3  0.9776   -6.6
 0.110  0.9149  -14.1   8.605  167.5  0.0182   80.9  0.9762   -6.9
 0.115  0.9129  -14.7   8.590  166.9  0.0190   80.6  0.9748   -7.2
 0.120  0.9111  -15.3   8.576  166.3  0.0199   80.3  0.9734   -7.5
 0.125  0.9094  -15.9   8.563  165.8  0.0207   80.0  0.9720   -7.8
 0.130  0.9078  -16.5   8.551  165.2  0.0215   79.8  0.9707   -8.1
 0.135  0.9063  -17.1   8.540  164.6  0.0224   79.5  0.9694   -8.4
 0.140  0.9049  -17.8   8.529  164.1  0.0232   79.3  0.9681   -8.7
 0.145  0.9036  -18.4   8.520  163.5  0.0241   79.1  0.9668   -9.0
 0.150  0.9024  -19.0   8.511  162.9  0.0249   78.9  0.9656   -9.3
 0.155  0.8996  -19.6   8.489  162.4  0.0256   78.5  0.9637   -9.6
 0.160  0.8968  -20.1   8.468  161.9  0.0263   78.1  0.9619   -9.9
 0.165  0.8941  -20.7   8.448  161.4  0.0270   77.8  0.9601  -10.1
 0.170  0.8915  -21.3   8.429  160.8  0.0277   77.5  0.9583  -10.4
 0.175  0.8891  -21.9   8.410  160.3  0.0284   77.2  0.9565  -10.7
 0.180  0.8867  -22.4   8.392  159.8  0.0292   76.9  0.9548  -11.0
 0.185  0.8844  -23.0   8.374  159.3  0.0299   76.6  0.9530  -11.2
 0.190  0.8821  -23.6   8.357  158.8  0.0306   76.3  0.9513  -11.5
 0.195  0.8800  -24.2   8.341  158.2  0.0313   76.0  0.9497  -11.8
 0.200  0.8780  -24.8   8.326  157.7  0.0320   75.8  0.9480  -12.1
 0.220  0.8665  -27.0   8.230  155.7  0.0349   74.4  0.9392  -13.1
 0.240  0.8564  -29.3   8.144  153.6  0.0378   73.3  0.9307  -14.2
 0.260  0.8456  -31.6   8.047  151.7  0.0405   72.2  0.9221  -15.2
 0.280  0.8340  -33.7   7.939  149.8  0.0429   71.1  0.9133  -16.1
 0.300  0.8235  -35.9   7.839  147.8  0.0453   70.1  0.9047  -17.0
 0.320  0.8082  -37.9   7.717  146.0  0.0475   69.0  0.8947  -17.8
 0.340  0.7938  -39.9   7.602  144.2  0.0497   68.1  0.8848  -18.6
 0.360  0.7805  -42.0   7.496  142.4  0.0520   67.2  0.8751  -19.4
 0.380  0.7683  -44.2   7.397  140.5  0.0542   66.4  0.8656  -20.2
 0.400  0.7572  -46.4   7.307  138.5  0.0565   65.6  0.8563  -21.1
 0.420  0.7435  -48.1   7.184  137.1  0.0583   64.7  0.8466  -21.7
 0.440  0.7306  -49.8   7.066  135.6  0.0602   63.9  0.8370  -22.3
 0.450  0.7243  -50.7   7.009  134.8  0.0611   63.6  0.8322  -22.6
 0.460  0.7183  -51.6   6.953  134.0  0.0620   63.2  0.8275  -22.9
 0.480  0.7067  -53.5   6.845  132.4  0.0639   62.5  0.8180  -23.5
 0.500  0.6959  -55.4   6.742  130.8  0.0658   61.8  0.8087  -24.1
 0.520  0.6821  -57.0   6.628  129.5  0.0674   61.3  0.8000  -24.6
 0.540  0.6688  -58.6   6.518  128.2  0.0689   60.7  0.7913  -25.1
 0.560  0.6562  -60.3   6.412  126.8  0.0705   60.2  0.7827  -25.6
 0.580  0.6441  -62.1   6.310  125.4  0.0721   59.8  0.7742  -26.1
 0.600  0.6326  -63.9   6.211  123.9  0.0737   59.3  0.7657  -26.6
 0.620  0.6207  -65.3   6.104  122.7  0.0749   58.9  0.7580  -26.9
 0.640  0.6091  -66.8   6.000  121.5  0.0762   58.5  0.7504  -27.3
 0.660  0.5980  -68.3   5.898  120.3  0.0774   58.1  0.7428  -27.7
 0.680  0.5873  -69.9   5.799  119.0  0.0787   57.7  0.7352  -28.0
 0.700  0.5771  -71.6   5.703  117.7  0.0799   57.3  0.7276  -28.4
 0.720  0.5673  -72.9   5.613  116.7  0.0810   57.0  0.7210  -28.7
 0.740  0.5578  -74.2   5.524  115.6  0.0821   56.8  0.7145  -29.0
 0.760  0.5486  -75.5   5.437  114.6  0.0831   56.5  0.7080  -29.3
 0.780  0.5397  -76.9   5.353  113.4  0.0842   56.2  0.7015  -29.6
 0.800  0.5312  -78.4   5.270  112.3  0.0853   56.0  0.6950  -29.9
 0.820  0.5212  -79.6   5.185  111.4  0.0864   55.8  0.6894  -30.1
 0.840  0.5114  -80.9   5.101  110.5  0.0875   55.5  0.6839  -30.3
 0.860  0.5019  -82.2   5.018  109.6  0.0886   55.3  0.6784  -30.5
 0.880  0.4927  -83.6   4.936  108.7  0.0897   55.1  0.6728  -30.7
 0.900  0.4838  -85.0   4.856  107.7  0.0908   54.9  0.6673  -30.9
 0.920  0.4769  -86.2   4.787  106.9  0.0917   54.8  0.6626  -31.1
 0.940  0.4703  -87.5   4.719  106.1  0.0926   54.7  0.6578  -31.3
 0.960  0.4639  -88.8   4.652  105.2  0.0934   54.5  0.6531  -31.5
 0.980  0.4578  -90.1   4.587  104.3  0.0943   54.4  0.6484  -31.7
 1.000  0.4519  -91.5   4.522  103.4  0.0952   54.3  0.6437  -31.9
 1.020  0.4450  -92.5   4.459  102.7  0.0961   54.3  0.6399  -32.1
 1.040  0.4382  -93.4   4.397  102.1  0.0970   54.2  0.6360  -32.2
 1.060  0.4315  -94.5   4.336  101.4  0.0979   54.2  0.6322  -32.4
 1.080  0.4250  -95.5   4.275  100.7  0.0988   54.1  0.6284  -32.5
 1.100  0.4187  -96.6   4.215   99.9  0.0997   54.1  0.6245  -32.7
 1.120  0.4125  -97.7   4.156   99.2  0.1006   54.1  0.6207  -32.8
 1.140  0.4064  -98.9   4.098   98.4  0.1015   54.0  0.6169  -33.0
 1.160  0.4005 -100.0   4.040   97.6  0.1024   54.0  0.6131  -33.2
 1.180  0.3948 -101.2   3.983   96.7  0.1033   53.9  0.6093  -33.3
 1.200  0.3893 -102.5   3.927   95.9  0.1042   53.9  0.6055  -33.5
 1.220  0.3842 -103.5   3.880   95.3  0.1050   53.9  0.6028  -33.6
 1.240  0.3792 -104.5   3.834   94.7  0.1058   53.9  0.6002  -33.7
 1.260  0.3743 -105.5   3.788   94.1  0.1066   53.9  0.5975  -33.8
 1.280  0.3696 -106.5   3.743   93.5  0.1074   53.9  0.5948  -34.0
 1.300  0.3649 -107.6   3.698   92.9  0.1081   54.0  0.5922  -34.1
 1.320  0.3605 -108.7   3.654   92.2  0.1089   54.0  0.5895  -34.2
 1.340  0.3561 -109.8   3.610   91.6  0.1097   54.0  0.5869  -34.3
 1.360  0.3519 -111.0   3.566   90.9  0.1105   54.0  0.5842  -34.5
 1.380  0.3478 -112.2   3.523   90.2  0.1113   54.0  0.5815  -34.6
 1.400  0.3439 -113.4   3.481   89.5  0.1121   54.0  0.5789  -34.7
 1.420  0.3400 -114.4   3.443   88.9  0.1129   54.0  0.5767  -34.8
 1.440  0.3362 -115.5   3.405   88.4  0.1136   54.1  0.5745  -34.9
 1.460  0.3326 -116.5   3.367   87.8  0.1144   54.1  0.5723  -35.1
 1.480  0.3290 -117.6   3.330   87.2  0.1151   54.2  0.5701  -35.2
 1.500  0.3256 -118.7   3.293   86.6  0.1159   54.2  0.5679  -35.3
 1.520  0.3220 -119.7   3.259   86.1  0.1168   54.3  0.5663  -35.4
 1.540  0.3184 -120.7   3.225   85.5  0.1177   54.4  0.5647  -35.5
 1.560  0.3150 -121.7   3.192   85.0  0.1187   54.5  0.5632  -35.6
 1.580  0.3116 -122.7   3.159   84.4  0.1196   54.6  0.5616  -35.7
 1.600  0.3084 -123.8   3.126   83.8  0.1205   54.7  0.5600  -35.8
 1.620  0.3058 -124.7   3.096   83.3  0.1213   54.8  0.5585  -35.9
 1.640  0.3033 -125.6   3.067   82.9  0.1222   54.8  0.5569  -36.1
 1.660  0.3008 -126.6   3.037   82.4  0.1230   54.9  0.5554  -36.2
 1.680  0.2984 -127.5   3.008   81.9  0.1238   55.0  0.5538  -36.3
 1.700  0.2962 -128.5   2.979   81.4  0.1246   55.1  0.5523  -36.4
 1.720  0.2940 -129.5   2.950   80.9  0.1255   55.1  0.5508  -36.6
 1.740  0.2919 -130.5   2.922   80.4  0.1263   55.2  0.5493  -36.7
 1.760  0.2899 -131.5   2.894   79.9  0.1271   55.3  0.5477  -36.8
 1.780  0.2879 -132.6   2.866   79.3  0.1280   55.3  0.5462  -37.0
 1.800  0.2861 -133.6   2.838   78.8  0.1288   55.4  0.5447  -37.1
 1.820  0.2836 -134.5   2.813   78.4  0.1297   55.5  0.5437  -37.2
 1.840  0.2812 -135.3   2.788   77.9  0.1306   55.6  0.5428  -37.4
 1.860  0.2789 -136.2   2.764   77.5  0.1314   55.7  0.5418  -37.5
 1.880  0.2766 -137.1   2.739   77.0  0.1323   55.8  0.5409  -37.7
 1.900  0.2744 -138.1   2.715   76.6  0.1332   55.9  0.5400  -37.8
 1.920  0.2723 -139.0   2.691   76.1  0.1341   56.0  0.5390  -37.9
 1.940  0.2702 -140.0   2.667   75.6  0.1350   56.1  0.5381  -38.1
 1.960  0.2682 -140.9   2.643   75.1  0.1358   56.2  0.5372  -38.2
 1.980  0.2663 -141.9   2.619   74.6  0.1367   56.3  0.5362  -38.4
 2.000  0.2645 -142.9   2.596   74.1  0.1376   56.4  0.5353  -38.5
 2.020  0.2631 -143.7   2.576   73.7  0.1385   56.5  0.5347  -38.6
 2.040  0.2619 -144.6   2.555   73.3  0.1394   56.5  0.5342  -38.8
 2.060  0.2606 -145.5   2.535   72.9  0.1402   56.6  0.5336  -38.9
 2.080  0.2595 -146.3   2.515   72.5  0.1411   56.6  0.5331  -39.1
 2.100  0.2583 -147.2   2.495   72.0  0.1420   56.7  0.5325  -39.2
 2.120  0.2573 -148.1   2.476   71.6  0.1429   56.8  0.5320  -39.4
 2.140  0.2563 -149.0   2.456   71.2  0.1438   56.8  0.5314  -39.5
 2.160  0.2554 -149.9   2.436   70.7  0.1446   56.9  0.5309  -39.7
 2.180  0.2545 -150.8   2.417   70.3  0.1455   56.9  0.5303  -39.8
 2.200  0.2537 -151.7   2.398   69.8  0.1464   57.0  0.5298  -40.0
 2.220  0.2528 -152.5   2.382   69.4  0.1474   57.1  0.5293  -40.2
 2.240  0.2520 -153.4   2.366   69.1  0.1484   57.1  0.5289  -40.3
 2.260  0.2513 -154.2   2.350   68.7  0.1493   57.2  0.5284  -40.5
 2.280  0.2506 -155.1   2.334   68.3  0.1503   57.3  0.5279  -40.7
 2.300  0.2499 -155.9   2.318   68.0  0.1513   57.4  0.5275  -40.8
 2.320  0.2494 -156.8   2.303   67.6  0.1523   57.4  0.5270  -41.0
 2.340  0.2488 -157.7   2.287   67.2  0.1533   57.5  0.5266  -41.2
 2.360  0.2484 -158.5   2.272   66.8  0.1542   57.6  0.5262  -41.4
 2.380  0.2480 -159.4   2.256   66.4  0.1552   57.6  0.5257  -41.5
 2.400  0.2476 -160.3   2.241   66.0  0.1562   57.7  0.5253  -41.7
 2.420  0.2458 -161.0   2.224   65.6  0.1571   57.8  0.5250  -41.8
 2.440  0.2440 -161.8   2.208   65.1  0.1580   57.9  0.5247  -41.9
 2.460  0.2423 -162.5   2.191   64.7  0.1590   57.9  0.5244  -42.1
 2.480  0.2406 -163.3   2.175   64.3  0.1599   58.0  0.5241  -42.2
 2.500  0.2389 -164.1   2.159   63.8  0.1608   58.1  0.5238  -42.3
 2.520  0.2385 -164.9   2.147   63.5  0.1619   58.2  0.5236  -42.5
 2.540  0.2381 -165.7   2.134   63.2  0.1629   58.2  0.5234  -42.7
 2.560  0.2378 -166.5   2.122   62.9  0.1640   58.3  0.5232  -42.9
 2.580  0.2375 -167.3   2.110   62.5  0.1650   58.3  0.5230  -43.1
 2.600  0.2372 -168.1   2.097   62.2  0.1661   58.4  0.5228  -43.3
 2.620  0.2370 -168.9   2.085   61.9  0.1671   58.4  0.5226  -43.5
 2.640  0.2369 -169.8   2.073   61.6  0.1682   58.5  0.5224  -43.7
 2.660  0.2368 -170.6   2.061   61.2  0.1692   58.6  0.5222  -43.9
 2.680  0.2368 -171.4   2.050   60.9  0.1703   58.6  0.5220  -44.1
 2.700  0.2368 -172.2   2.038   60.5  0.1713   58.7  0.5219  -44.3
 2.720  0.2368 -173.0   2.026   60.2  0.1724   58.7  0.5217  -44.5
 2.740  0.2369 -173.8   2.014   59.8  0.1734   58.8  0.5216  -44.7
 2.760  0.2370 -174.6   2.003   59.5  0.1745   58.8  0.5214  -44.9
 2.780  0.2372 -175.4   1.991   59.1  0.1755   58.9  0.5213  -45.1
 2.800  0.2375 -176.3   1.980   58.8  0.1766   58.9  0.5212  -45.3
 2.820  0.2377 -177.1   1.968   58.4  0.1776   59.0  0.5210  -45.5
 2.840  0.2381 -177.9   1.957   58.0  0.1787   59.0  0.5209  -45.7
 2.860  0.2385 -178.7   1.946   57.7  0.1797   59.1  0.5208  -45.9
 2.880  0.2389 -179.5   1.935   57.3  0.1808   59.1  0.5207  -46.1
 2.900  0.2394  179.7   1.924   56.9  0.1818   59.2  0.5206  -46.3
 2.920  0.2399  178.9   1.913   56.5  0.1829   59.2  0.5205  -46.5
 2.940  0.2404  178.1   1.902   56.1  0.1839   59.3  0.5204  -46.7
 2.960  0.2410  177.4   1.891   55.7  0.1850   59.3  0.5203  -46.9
 2.980  0.2417  176.6   1.881   55.3  0.1860   59.4  0.5203  -47.1
 3.000  0.2424  175.8   1.870   54.9  0.1871   59.4  0.5202  -47.3
 3.100  0.2418  172.6   1.826   53.4  0.1932   59.4  0.5191  -48.5
 3.200  0.2419  169.5   1.784   51.9  0.1993   59.5  0.5183  -49.8
 3.300  0.2427  166.3   1.743   50.3  0.2054   59.5  0.5177  -51.0
 3.400  0.2443  163.2   1.703   48.7  0.2115   59.6  0.5174  -52.3
 3.500  0.2466  160.1   1.665   46.9  0.2176   59.6  0.5173  -53.5
 3.600  0.2513  157.0   1.633   45.5  0.2240   59.5  0.5161  -54.7
 3.700  0.2567  154.1   1.602   44.0  0.2303   59.4  0.5151  -56.0
 3.800  0.2628  151.2   1.571   42.4  0.2367   59.3  0.5144  -57.2
 3.900  0.2695  148.6   1.543   40.8  0.2430   59.2  0.5139  -58.5
 4.000  0.2767  146.0   1.515   39.1  0.2494   59.1  0.5136  -59.7
 4.100  0.2788  143.3   1.488   37.9  0.2559   58.8  0.5115  -61.1
 4.200  0.2816  140.7   1.462   36.6  0.2625   58.6  0.5097  -62.6
 4.300  0.2849  138.1   1.437   35.3  0.2690   58.3  0.5083  -64.1
 4.400  0.2888  135.6   1.413   33.9  0.2756   58.1  0.5072  -65.5
 4.500  0.2932  133.2   1.389   32.5  0.2821   57.9  0.5064  -67.0
 4.600  0.2995  131.3   1.369   31.2  0.2891   57.6  0.5047  -68.3
 4.700  0.3061  129.4   1.350   29.9  0.2961   57.3  0.5032  -69.7
 4.800  0.3130  127.6   1.332   28.6  0.3031   57.1  0.5021  -71.1
 4.900  0.3202  125.9   1.314   27.2  0.3101   56.8  0.5012  -72.4
 5.000  0.3277  124.3   1.297   25.8  0.3171   56.6  0.5006  -73.8
 5.100  0.3312  122.4   1.278   24.7  0.3248   56.2  0.4999  -75.2
 5.200  0.3350  120.5   1.259   23.6  0.3325   55.9  0.4995  -76.6
 5.300  0.3392  118.7   1.241   22.5  0.3403   55.6  0.4994  -78.0
 5.400  0.3438  116.9   1.223   21.3  0.3480   55.3  0.4996  -79.4
 5.500  0.3486  115.2   1.206   20.1  0.3558   55.0  0.5001  -80.8
 5.600  0.3516  113.7   1.190   19.1  0.3647   54.5  0.5012  -82.2
 5.700  0.3548  112.2   1.174   18.1  0.3736   54.0  0.5026  -83.7
 5.800  0.3583  110.8   1.158   17.0  0.3826   53.5  0.5043  -85.1
 5.900  0.3620  109.4   1.143   15.9  0.3916   53.0  0.5063  -86.5
 6.000  0.3659  108.0   1.128   14.8  0.4006   52.6  0.5086  -87.9
!
!  f       NFmin   Gammaopt  rn/50
! GHz       dB    MAG  ANG    -
!
! noise parameter not available yet for this operation point!
!
! (c) 2015  Infineon Technologies AG, Munich
