! Infineon Technologies  Discrete & RF Semiconductors
! BFR106
! VCE =  3.5 V,  IC =  1.0 mA
! Common Emitter S-Parameters:                            Nov 2015
# GHz  S  MA  R  50
!  f         S11            S21            S12            S22
! GHz     MAG   ANG      MAG   ANG      MAG   ANG      MAG   ANG
 0.010  0.9701   -4.8   3.599  176.3  0.0068   89.4  0.9996   -1.4
 0.015  0.9675   -7.3   3.602  175.1  0.0102   86.1  0.9982   -2.0
 0.020  0.9668   -9.9   3.607  173.9  0.0137   84.5  0.9970   -2.6
 0.025  0.9605  -12.2   3.579  172.3  0.0171   81.6  0.9944   -3.2
 0.030  0.9558  -14.6   3.553  170.6  0.0205   79.7  0.9919   -3.9
 0.035  0.9527  -17.0   3.531  169.0  0.0239   78.3  0.9895   -4.5
 0.040  0.9513  -19.3   3.512  167.3  0.0274   77.2  0.9872   -5.1
 0.045  0.9515  -21.7   3.495  165.6  0.0308   76.4  0.9850   -5.8
 0.050  0.9534  -24.1   3.482  163.9  0.0343   75.8  0.9830   -6.4
 0.055  0.9444  -26.2   3.452  162.6  0.0372   73.8  0.9794   -6.9
 0.060  0.9367  -28.4   3.424  161.3  0.0401   72.2  0.9759   -7.5
 0.065  0.9305  -30.6   3.398  160.0  0.0431   70.7  0.9724   -8.0
 0.070  0.9256  -32.8   3.374  158.6  0.0460   69.5  0.9691   -8.6
 0.075  0.9221  -35.1   3.352  157.3  0.0490   68.4  0.9658   -9.1
 0.080  0.9200  -37.4   3.332  155.9  0.0520   67.4  0.9626   -9.7
 0.085  0.9194  -39.6   3.313  154.5  0.0551   66.5  0.9595  -10.2
 0.090  0.9202  -41.9   3.297  153.1  0.0581   65.7  0.9565  -10.8
 0.095  0.9225  -44.2   3.282  151.6  0.0611   65.0  0.9536  -11.3
 0.100  0.9262  -46.4   3.270  150.2  0.0642   64.4  0.9508  -11.9
 0.105  0.9173  -48.3   3.233  149.0  0.0663   62.9  0.9460  -12.3
 0.110  0.9094  -50.2   3.197  147.7  0.0684   61.5  0.9413  -12.8
 0.115  0.9026  -52.2   3.163  146.4  0.0705   60.2  0.9366  -13.2
 0.120  0.8968  -54.2   3.131  145.0  0.0727   59.0  0.9320  -13.7
 0.125  0.8921  -56.2   3.101  143.7  0.0749   57.9  0.9275  -14.1
 0.130  0.8886  -58.2   3.072  142.3  0.0771   56.8  0.9230  -14.6
 0.135  0.8861  -60.2   3.045  140.9  0.0794   55.7  0.9186  -15.1
 0.140  0.8848  -62.3   3.020  139.4  0.0817   54.8  0.9142  -15.5
 0.145  0.8846  -64.3   2.997  138.0  0.0840   53.9  0.9099  -16.0
 0.150  0.8856  -66.4   2.976  136.5  0.0863   53.0  0.9057  -16.5
 0.155  0.8792  -68.0   2.943  135.6  0.0877   52.1  0.9017  -16.8
 0.160  0.8735  -69.7   2.910  134.7  0.0892   51.1  0.8978  -17.1
 0.165  0.8685  -71.3   2.879  133.7  0.0907   50.3  0.8939  -17.4
 0.170  0.8642  -73.0   2.848  132.8  0.0922   49.4  0.8900  -17.7
 0.175  0.8608  -74.7   2.817  131.8  0.0937   48.6  0.8862  -18.0
 0.180  0.8580  -76.4   2.788  130.8  0.0953   47.8  0.8823  -18.3
 0.185  0.8561  -78.1   2.760  129.8  0.0968   47.0  0.8785  -18.6
 0.190  0.8549  -79.8   2.732  128.7  0.0984   46.2  0.8748  -19.0
 0.195  0.8544  -81.6   2.706  127.7  0.1000   45.5  0.8710  -19.3
 0.200  0.8548  -83.3   2.680  126.6  0.1016   44.8  0.8673  -19.6
 0.220  0.8364  -88.9   2.562  123.0  0.1056   41.8  0.8517  -20.7
 0.240  0.8264  -94.8   2.456  119.0  0.1099   39.0  0.8364  -21.7
 0.260  0.8155 -100.0   2.354  115.6  0.1132   36.6  0.8233  -22.7
 0.280  0.8015 -104.7   2.253  112.7  0.1156   34.6  0.8122  -23.5
 0.300  0.7931 -109.6   2.157  109.6  0.1181   32.6  0.8012  -24.3
 0.320  0.7824 -113.2   2.073  107.6  0.1190   30.9  0.7931  -25.0
 0.340  0.7749 -116.9   1.991  105.4  0.1201   29.3  0.7851  -25.7
 0.360  0.7707 -120.7   1.913  103.0  0.1212   27.7  0.7771  -26.4
 0.380  0.7698 -124.4   1.838  100.5  0.1224   26.1  0.7694  -27.1
 0.400  0.7723 -128.2   1.767   97.7  0.1237   24.6  0.7617  -27.8
 0.420  0.7654 -131.0   1.706   95.9  0.1235   23.6  0.7569  -28.4
 0.440  0.7603 -133.8   1.646   94.1  0.1233   22.5  0.7521  -29.1
 0.450  0.7584 -135.2   1.617   93.1  0.1232   22.0  0.7498  -29.4
 0.460  0.7570 -136.6   1.588   92.0  0.1231   21.5  0.7474  -29.7
 0.480  0.7556 -139.4   1.532   89.8  0.1230   20.4  0.7429  -30.3
 0.500  0.7561 -142.3   1.479   87.5  0.1229   19.4  0.7384  -31.0
 0.520  0.7518 -144.5   1.439   86.0  0.1222   18.8  0.7353  -31.7
 0.540  0.7486 -146.8   1.400   84.5  0.1215   18.1  0.7324  -32.4
 0.560  0.7466 -149.0   1.361   82.8  0.1208   17.5  0.7295  -33.1
 0.580  0.7458 -151.3   1.325   81.0  0.1201   16.9  0.7268  -33.9
 0.600  0.7461 -153.6   1.289   79.2  0.1194   16.2  0.7242  -34.6
 0.620  0.7429 -155.5   1.257   78.0  0.1181   16.0  0.7220  -35.4
 0.640  0.7405 -157.4   1.226   76.6  0.1167   15.7  0.7200  -36.1
 0.660  0.7389 -159.3   1.196   75.3  0.1154   15.4  0.7181  -36.9
 0.680  0.7381 -161.2   1.166   73.8  0.1140   15.2  0.7163  -37.6
 0.700  0.7381 -163.1   1.137   72.3  0.1127   14.9  0.7147  -38.4
 0.720  0.7374 -164.6   1.110   71.2  0.1114   15.0  0.7129  -39.2
 0.740  0.7372 -166.1   1.084   70.1  0.1101   15.1  0.7111  -39.9
 0.760  0.7375 -167.5   1.059   68.9  0.1087   15.3  0.7095  -40.7
 0.780  0.7383 -169.0   1.034   67.6  0.1074   15.4  0.7080  -41.4
 0.800  0.7396 -170.5   1.009   66.3  0.1061   15.5  0.7067  -42.2
 0.820  0.7375 -171.9   0.988   65.3  0.1046   15.9  0.7057  -43.0
 0.840  0.7359 -173.3   0.967   64.2  0.1030   16.3  0.7047  -43.8
 0.860  0.7347 -174.7   0.947   63.1  0.1015   16.7  0.7040  -44.5
 0.880  0.7339 -176.1   0.927   61.9  0.1000   17.2  0.7033  -45.3
 0.900  0.7336 -177.5   0.907   60.7  0.0985   17.6  0.7028  -46.1
 0.920  0.7332 -178.9   0.891   59.8  0.0969   18.3  0.7021  -46.9
 0.940  0.7332  179.8   0.875   58.8  0.0952   19.1  0.7015  -47.8
 0.960  0.7337  178.4   0.859   57.9  0.0936   19.9  0.7011  -48.6
 0.980  0.7345  177.1   0.844   56.9  0.0921   20.7  0.7009  -49.5
 1.000  0.7358  175.7   0.829   55.8  0.0905   21.6  0.7008  -50.3
 1.020  0.7363  174.5   0.817   55.0  0.0894   22.8  0.7001  -51.2
 1.040  0.7370  173.3   0.804   54.2  0.0884   24.1  0.6995  -52.1
 1.060  0.7381  172.1   0.792   53.3  0.0874   25.4  0.6991  -53.0
 1.080  0.7395  171.0   0.781   52.4  0.0864   26.7  0.6989  -53.9
 1.100  0.7412  169.8   0.769   51.5  0.0855   28.1  0.6988  -54.8
 1.120  0.7415  168.7   0.759   50.7  0.0849   29.9  0.6980  -55.7
 1.140  0.7421  167.6   0.748   49.9  0.0844   31.7  0.6974  -56.6
 1.160  0.7429  166.6   0.738   49.1  0.0839   33.6  0.6969  -57.5
 1.180  0.7440  165.5   0.728   48.3  0.0836   35.4  0.6966  -58.4
 1.200  0.7454  164.4   0.718   47.4  0.0833   37.3  0.6965  -59.3
 1.220  0.7451  163.4   0.707   46.8  0.0836   39.3  0.6958  -60.2
 1.240  0.7449  162.4   0.697   46.3  0.0840   41.2  0.6952  -61.1
 1.260  0.7450  161.5   0.686   45.7  0.0845   43.2  0.6948  -61.9
 1.280  0.7454  160.5   0.675   45.0  0.0850   45.1  0.6946  -62.8
 1.300  0.7459  159.5   0.665   44.4  0.0857   47.0  0.6945  -63.7
 1.320  0.7473  158.6   0.656   43.9  0.0868   49.0  0.6944  -64.6
 1.340  0.7489  157.8   0.648   43.4  0.0881   51.0  0.6944  -65.5
 1.360  0.7507  156.9   0.640   42.8  0.0894   52.9  0.6946  -66.5
 1.380  0.7526  156.1   0.631   42.3  0.0909   54.7  0.6950  -67.4
 1.400  0.7547  155.2   0.623   41.7  0.0924   56.5  0.6956  -68.3
 1.420  0.7543  154.3   0.617   41.3  0.0947   58.1  0.6947  -69.2
 1.440  0.7541  153.3   0.611   40.8  0.0971   59.6  0.6940  -70.2
 1.460  0.7540  152.4   0.605   40.4  0.0996   61.1  0.6934  -71.1
 1.480  0.7542  151.4   0.600   40.0  0.1021   62.5  0.6931  -72.1
 1.500  0.7546  150.5   0.594   39.5  0.1047   63.8  0.6929  -73.0
 1.520  0.7554  149.6   0.585   39.0  0.1078   64.9  0.6919  -74.0
 1.540  0.7563  148.8   0.577   38.5  0.1109   66.0  0.6911  -75.0
 1.560  0.7574  147.9   0.568   38.0  0.1141   67.0  0.6905  -76.0
 1.580  0.7587  147.1   0.560   37.5  0.1173   67.9  0.6901  -77.0
 1.600  0.7601  146.2   0.551   37.0  0.1205   68.8  0.6899  -78.0
 1.620  0.7602  145.3   0.546   36.7  0.1242   69.6  0.6887  -79.0
 1.640  0.7605  144.4   0.541   36.3  0.1278   70.3  0.6878  -80.0
 1.660  0.7610  143.5   0.537   35.9  0.1315   71.0  0.6871  -81.0
 1.680  0.7616  142.6   0.532   35.6  0.1353   71.7  0.6865  -82.0
 1.700  0.7625  141.7   0.527   35.2  0.1390   72.3  0.6862  -83.0
 1.720  0.7637  140.9   0.523   35.1  0.1431   72.6  0.6858  -84.0
 1.740  0.7651  140.2   0.520   34.9  0.1472   72.9  0.6857  -85.0
 1.760  0.7667  139.4   0.516   34.8  0.1512   73.1  0.6857  -85.9
 1.780  0.7683  138.7   0.513   34.6  0.1553   73.4  0.6860  -86.9
 1.800  0.7701  137.9   0.509   34.5  0.1594   73.6  0.6864  -87.9
 1.820  0.7694  137.1   0.505   34.2  0.1640   73.7  0.6863  -89.0
 1.840  0.7689  136.3   0.502   33.9  0.1687   73.9  0.6864  -90.1
 1.860  0.7685  135.4   0.498   33.6  0.1733   74.0  0.6867  -91.1
 1.880  0.7683  134.6   0.495   33.2  0.1780   74.1  0.6874  -92.2
 1.900  0.7682  133.8   0.491   32.9  0.1826   74.2  0.6882  -93.3
 1.920  0.7683  133.1   0.488   32.8  0.1871   74.1  0.6870  -94.4
 1.940  0.7684  132.4   0.484   32.7  0.1916   74.0  0.6861  -95.4
 1.960  0.7687  131.8   0.481   32.7  0.1962   73.9  0.6854  -96.5
 1.980  0.7691  131.1   0.477   32.6  0.2007   73.8  0.6849  -97.5
 2.000  0.7696  130.4   0.474   32.5  0.2052   73.7  0.6847  -98.6
 2.020  0.7694  129.7   0.472   32.5  0.2101   73.4  0.6833  -99.6
 2.040  0.7693  129.0   0.469   32.5  0.2149   73.1  0.6822 -100.7
 2.060  0.7693  128.3   0.467   32.4  0.2198   72.9  0.6813 -101.7
 2.080  0.7694  127.6   0.464   32.4  0.2246   72.6  0.6806 -102.8
 2.100  0.7696  126.8   0.462   32.4  0.2295   72.4  0.6801 -103.8
 2.120  0.7700  126.1   0.460   32.4  0.2344   72.1  0.6799 -104.9
 2.140  0.7705  125.4   0.457   32.4  0.2392   71.9  0.6799 -105.9
 2.160  0.7711  124.7   0.455   32.3  0.2441   71.7  0.6801 -107.0
 2.180  0.7718  124.0   0.452   32.3  0.2490   71.5  0.6806 -108.0
 2.200  0.7726  123.3   0.450   32.3  0.2539   71.3  0.6813 -109.1
 2.220  0.7718  122.6   0.450   32.3  0.2587   70.8  0.6798 -110.2
 2.240  0.7711  121.9   0.450   32.2  0.2635   70.4  0.6785 -111.4
 2.260  0.7706  121.2   0.450   32.2  0.2683   69.9  0.6775 -112.6
 2.280  0.7701  120.5   0.450   32.2  0.2732   69.5  0.6768 -113.7
 2.300  0.7698  119.8   0.449   32.2  0.2780   69.1  0.6763 -114.9
 2.320  0.7696  119.0   0.449   32.1  0.2829   68.7  0.6762 -116.1
 2.340  0.7695  118.3   0.449   32.1  0.2878   68.3  0.6763 -117.2
 2.360  0.7696  117.6   0.449   32.1  0.2927   67.9  0.6767 -118.4
 2.380  0.7697  116.9   0.449   32.0  0.2976   67.5  0.6773 -119.5
 2.400  0.7700  116.2   0.449   32.0  0.3025   67.2  0.6783 -120.7
 2.420  0.7699  115.6   0.449   32.0  0.3069   66.6  0.6766 -121.8
 2.440  0.7699  115.0   0.449   31.9  0.3114   66.1  0.6751 -122.8
 2.460  0.7700  114.3   0.449   31.9  0.3159   65.6  0.6738 -123.9
 2.480  0.7702  113.7   0.449   31.9  0.3205   65.1  0.6728 -125.0
 2.500  0.7705  113.1   0.448   31.9  0.3250   64.6  0.6720 -126.0
 2.520  0.7708  112.5   0.448   31.8  0.3296   64.1  0.6715 -127.1
 2.540  0.7713  111.9   0.448   31.8  0.3342   63.6  0.6711 -128.2
 2.560  0.7718  111.2   0.448   31.8  0.3388   63.2  0.6711 -129.2
 2.580  0.7725  110.6   0.448   31.7  0.3434   62.7  0.6712 -130.3
 2.600  0.7732  110.0   0.448   31.7  0.3481   62.3  0.6716 -131.4
 2.620  0.7722  109.5   0.449   31.6  0.3522   61.7  0.6703 -132.5
 2.640  0.7714  108.9   0.450   31.5  0.3564   61.1  0.6694 -133.7
 2.660  0.7705  108.4   0.452   31.5  0.3606   60.5  0.6686 -134.8
 2.680  0.7698  107.8   0.453   31.4  0.3649   60.0  0.6682 -136.0
 2.700  0.7691  107.3   0.454   31.3  0.3692   59.4  0.6680 -137.1
 2.720  0.7685  106.7   0.455   31.2  0.3735   58.9  0.6681 -138.3
 2.740  0.7680  106.2   0.456   31.1  0.3779   58.4  0.6685 -139.5
 2.760  0.7675  105.6   0.458   31.1  0.3822   57.9  0.6691 -140.6
 2.780  0.7671  105.1   0.459   31.0  0.3867   57.4  0.6700 -141.8
 2.800  0.7668  104.5   0.460   30.9  0.3911   56.9  0.6712 -142.9
 2.820  0.7665  104.0   0.461   30.8  0.3949   56.3  0.6700 -143.9
 2.840  0.7663  103.5   0.463   30.7  0.3988   55.8  0.6691 -145.0
 2.860  0.7661  103.0   0.464   30.6  0.4027   55.2  0.6684 -146.0
 2.880  0.7659  102.5   0.466   30.5  0.4067   54.7  0.6679 -147.1
 2.900  0.7659  102.0   0.467   30.4  0.4107   54.1  0.6676 -148.1
 2.920  0.7659  101.5   0.468   30.3  0.4147   53.6  0.6676 -149.1
 2.940  0.7659  101.0   0.470   30.2  0.4187   53.1  0.6678 -150.2
 2.960  0.7660  100.5   0.471   30.1  0.4228   52.6  0.6682 -151.2
 2.980  0.7662  100.0   0.473   30.0  0.4269   52.1  0.6688 -152.3
 3.000  0.7664   99.5   0.474   29.9  0.4311   51.6  0.6696 -153.3
 3.100  0.7630   97.5   0.482   28.7  0.4443   48.6  0.6609 -158.4
 3.200  0.7605   95.5   0.489   27.5  0.4586   45.7  0.6575 -163.5
 3.300  0.7589   93.5   0.497   26.4  0.4741   43.0  0.6594 -168.7
 3.400  0.7583   91.5   0.506   25.3  0.4904   40.5  0.6666 -173.8
 3.500  0.7586   89.5   0.514   24.2  0.5077   38.2  0.6789 -178.7
 3.600  0.7576   88.1   0.519   22.8  0.5143   35.6  0.6737  176.8
 3.700  0.7572   86.6   0.524   21.4  0.5219   33.1  0.6727  172.3
 3.800  0.7572   85.2   0.529   20.1  0.5305   30.7  0.6758  167.8
 3.900  0.7576   83.7   0.534   18.8  0.5400   28.4  0.6830  163.4
 4.000  0.7586   82.3   0.540   17.5  0.5504   26.1  0.6942  159.1
 4.100  0.7555   81.1   0.543   16.0  0.5525   24.0  0.6892  155.5
 4.200  0.7528   79.8   0.547   14.5  0.5553   21.9  0.6869  151.9
 4.300  0.7504   78.6   0.551   13.0  0.5589   19.8  0.6874  148.3
 4.400  0.7484   77.4   0.555   11.5  0.5631   17.8  0.6907  144.7
 4.500  0.7467   76.1   0.560   10.1  0.5681   15.8  0.6966  141.1
 4.600  0.7475   75.2   0.561    8.7  0.5687   14.1  0.6931  138.2
 4.700  0.7485   74.2   0.561    7.4  0.5698   12.5  0.6914  135.3
 4.800  0.7497   73.3   0.563    6.0  0.5713   10.9  0.6914  132.4
 4.900  0.7511   72.3   0.564    4.6  0.5733    9.2  0.6933  129.5
 5.000  0.7527   71.4   0.566    3.3  0.5758    7.6  0.6969  126.6
 5.100  0.7504   70.4   0.566    3.0  0.5760    6.8  0.6880  125.6
 5.200  0.7483   69.3   0.565    2.6  0.5763    6.1  0.6794  124.6
 5.300  0.7465   68.3   0.565    2.3  0.5767    5.3  0.6710  123.6
 5.400  0.7449   67.2   0.564    1.9  0.5772    4.6  0.6628  122.5
 5.500  0.7436   66.2   0.564    1.6  0.5778    3.8  0.6548  121.4
 5.600  0.7419   65.6   0.568    0.2  0.5815    2.2  0.6650  119.0
 5.700  0.7403   65.0   0.571   -1.3  0.5857    0.6  0.6763  116.7
 5.800  0.7388   64.4   0.576   -2.7  0.5903   -1.0  0.6887  114.4
 5.900  0.7374   63.8   0.580   -4.0  0.5953   -2.5  0.7021  112.3
 6.000  0.7360   63.2   0.585   -5.4  0.6008   -4.0  0.7165  110.2
!
!  f       NFmin   Gammaopt  rn/50
! GHz       dB    MAG  ANG    -
!
! noise parameter not available yet for this operation point!
!
! (c) 2015  Infineon Technologies AG, Munich
