! Infineon Technologies  Discrete & RF Semiconductors
! BFR182
! VCE =  2.5 V,  IC =  2.0 mA
! Common Emitter S-Parameters:                            Nov 2015
# GHz  S  MA  R  50
!  f         S11            S21            S12            S22
! GHz     MAG   ANG      MAG   ANG      MAG   ANG      MAG   ANG
 0.010  0.9167   -1.7   6.656  178.9  0.0021   93.9  0.9966   -0.6
 0.015  0.9135   -2.4   6.636  178.1  0.0032   88.4  0.9934   -0.9
 0.020  0.9104   -3.1   6.618  177.2  0.0044   85.8  0.9902   -1.3
 0.025  0.9106   -3.8   6.608  176.6  0.0055   85.8  0.9904   -1.6
 0.030  0.9109   -4.6   6.599  176.0  0.0066   85.8  0.9907   -2.0
 0.035  0.9113   -5.3   6.591  175.4  0.0077   85.8  0.9910   -2.3
 0.040  0.9119   -6.0   6.583  174.8  0.0088   85.8  0.9913   -2.6
 0.045  0.9127   -6.8   6.576  174.2  0.0099   85.8  0.9917   -3.0
 0.050  0.9136   -7.5   6.570  173.6  0.0110   85.8  0.9921   -3.3
 0.055  0.9115   -8.3   6.566  173.0  0.0120   85.1  0.9910   -3.6
 0.060  0.9095   -9.0   6.562  172.3  0.0131   84.5  0.9899   -3.9
 0.065  0.9077   -9.8   6.559  171.7  0.0141   84.0  0.9888   -4.3
 0.070  0.9060  -10.6   6.557  171.1  0.0151   83.5  0.9878   -4.6
 0.075  0.9046  -11.3   6.556  170.5  0.0161   83.2  0.9868   -4.9
 0.080  0.9032  -12.1   6.555  169.8  0.0172   82.8  0.9858   -5.2
 0.085  0.9021  -12.9   6.555  169.2  0.0182   82.5  0.9848   -5.5
 0.090  0.9011  -13.6   6.556  168.6  0.0192   82.3  0.9839   -5.9
 0.095  0.9003  -14.4   6.558  167.9  0.0203   82.0  0.9831   -6.2
 0.100  0.8996  -15.2   6.561  167.3  0.0213   81.8  0.9822   -6.5
 0.105  0.8969  -15.9   6.539  166.6  0.0223   81.1  0.9806   -6.8
 0.110  0.8943  -16.7   6.519  165.9  0.0233   80.5  0.9791   -7.2
 0.115  0.8918  -17.4   6.499  165.2  0.0242   79.9  0.9776   -7.5
 0.120  0.8895  -18.2   6.481  164.4  0.0252   79.4  0.9761   -7.8
 0.125  0.8874  -19.0   6.463  163.7  0.0262   78.9  0.9746   -8.1
 0.130  0.8854  -19.7   6.447  163.0  0.0272   78.5  0.9732   -8.5
 0.135  0.8836  -20.5   6.432  162.2  0.0282   78.1  0.9718   -8.8
 0.140  0.8819  -21.3   6.417  161.5  0.0292   77.7  0.9705   -9.1
 0.145  0.8804  -22.0   6.404  160.7  0.0302   77.3  0.9692   -9.5
 0.150  0.8791  -22.8   6.392  160.0  0.0312   77.0  0.9679   -9.8
 0.155  0.8760  -23.5   6.374  159.4  0.0321   76.5  0.9659  -10.1
 0.160  0.8731  -24.1   6.356  158.9  0.0331   76.1  0.9638  -10.3
 0.165  0.8702  -24.8   6.339  158.3  0.0340   75.7  0.9618  -10.6
 0.170  0.8675  -25.5   6.323  157.7  0.0349   75.3  0.9598  -10.9
 0.175  0.8649  -26.2   6.307  157.1  0.0359   75.0  0.9579  -11.1
 0.180  0.8624  -26.8   6.292  156.6  0.0368   74.6  0.9559  -11.4
 0.185  0.8600  -27.5   6.277  156.0  0.0378   74.3  0.9540  -11.7
 0.190  0.8578  -28.2   6.264  155.4  0.0387   74.0  0.9521  -12.0
 0.195  0.8557  -28.9   6.250  154.8  0.0397   73.7  0.9503  -12.2
 0.200  0.8537  -29.6   6.238  154.2  0.0406   73.4  0.9484  -12.5
 0.220  0.8416  -32.5   6.185  151.7  0.0438   71.4  0.9390  -13.6
 0.240  0.8317  -35.6   6.145  149.2  0.0471   69.7  0.9299  -14.7
 0.260  0.8180  -38.4   6.074  146.8  0.0504   68.3  0.9203  -15.7
 0.280  0.8001  -41.2   5.970  144.6  0.0535   67.3  0.9101  -16.7
 0.300  0.7840  -44.0   5.875  142.3  0.0567   66.4  0.9001  -17.6
 0.320  0.7687  -46.2   5.758  140.6  0.0592   65.1  0.8905  -18.3
 0.340  0.7545  -48.5   5.647  138.9  0.0617   63.9  0.8810  -19.1
 0.360  0.7416  -50.8   5.540  137.1  0.0642   62.8  0.8717  -19.8
 0.380  0.7300  -53.3   5.440  135.2  0.0668   61.7  0.8625  -20.6
 0.400  0.7198  -55.8   5.345  133.3  0.0694   60.8  0.8535  -21.4
 0.420  0.7024  -57.9   5.238  131.5  0.0715   59.8  0.8437  -22.0
 0.440  0.6860  -60.1   5.136  129.7  0.0736   58.9  0.8341  -22.6
 0.450  0.6781  -61.2   5.088  128.8  0.0746   58.4  0.8293  -22.9
 0.460  0.6706  -62.4   5.040  127.8  0.0757   58.0  0.8245  -23.2
 0.480  0.6563  -64.8   4.949  125.8  0.0778   57.2  0.8150  -23.8
 0.500  0.6433  -67.3   4.865  123.8  0.0800   56.4  0.8056  -24.4
 0.520  0.6302  -69.3   4.785  122.4  0.0815   55.7  0.7965  -24.9
 0.540  0.6180  -71.3   4.708  120.9  0.0831   55.0  0.7874  -25.3
 0.560  0.6065  -73.5   4.635  119.4  0.0846   54.4  0.7783  -25.8
 0.580  0.5959  -75.7   4.565  117.8  0.0862   53.8  0.7693  -26.3
 0.600  0.5863  -78.0   4.498  116.2  0.0878   53.2  0.7604  -26.8
 0.620  0.5733  -79.8   4.417  115.0  0.0890   52.7  0.7530  -27.1
 0.640  0.5609  -81.6   4.338  113.7  0.0901   52.3  0.7456  -27.5
 0.660  0.5491  -83.5   4.261  112.4  0.0913   51.8  0.7382  -27.9
 0.680  0.5380  -85.5   4.187  111.0  0.0925   51.4  0.7309  -28.2
 0.700  0.5275  -87.6   4.115  109.6  0.0937   51.0  0.7236  -28.6
 0.720  0.5182  -89.2   4.038  108.5  0.0948   50.6  0.7177  -28.8
 0.740  0.5092  -90.9   3.963  107.3  0.0958   50.3  0.7118  -29.1
 0.760  0.5008  -92.7   3.889  106.1  0.0969   50.0  0.7059  -29.3
 0.780  0.4928  -94.5   3.817  104.9  0.0980   49.6  0.7001  -29.6
 0.800  0.4854  -96.4   3.747  103.6  0.0991   49.3  0.6942  -29.8
 0.820  0.4764  -97.8   3.683  102.6  0.1001   49.1  0.6899  -30.0
 0.840  0.4677  -99.3   3.620  101.6  0.1012   48.8  0.6855  -30.3
 0.860  0.4593 -100.9   3.558  100.5  0.1022   48.6  0.6812  -30.5
 0.880  0.4513 -102.4   3.498   99.4  0.1033   48.4  0.6769  -30.8
 0.900  0.4436 -104.1   3.439   98.3  0.1043   48.2  0.6726  -31.0
 0.920  0.4357 -106.0   3.392   97.4  0.1051   48.2  0.6684  -31.2
 0.940  0.4284 -107.9   3.346   96.4  0.1059   48.1  0.6643  -31.4
 0.960  0.4215 -109.8   3.301   95.4  0.1067   48.1  0.6602  -31.6
 0.980  0.4151 -111.9   3.257   94.4  0.1075   48.0  0.6560  -31.8
 1.000  0.4093 -114.0   3.214   93.3  0.1083   48.0  0.6519  -32.0
 1.020  0.4026 -115.6   3.171   92.4  0.1090   48.0  0.6483  -32.2
 1.040  0.3962 -117.3   3.130   91.6  0.1097   48.0  0.6446  -32.4
 1.060  0.3902 -119.1   3.089   90.7  0.1103   47.9  0.6410  -32.7
 1.080  0.3846 -120.9   3.048   89.7  0.1110   47.9  0.6374  -32.9
 1.100  0.3793 -122.7   3.009   88.8  0.1117   47.9  0.6338  -33.1
 1.120  0.3733 -124.3   2.970   88.0  0.1125   47.9  0.6308  -33.3
 1.140  0.3676 -125.9   2.931   87.1  0.1133   47.9  0.6277  -33.5
 1.160  0.3622 -127.5   2.893   86.3  0.1141   48.0  0.6247  -33.8
 1.180  0.3572 -129.2   2.856   85.4  0.1149   48.0  0.6217  -34.0
 1.200  0.3524 -131.0   2.819   84.5  0.1157   48.0  0.6187  -34.2
 1.220  0.3489 -132.5   2.783   83.8  0.1165   48.1  0.6160  -34.4
 1.240  0.3456 -134.0   2.746   83.1  0.1173   48.2  0.6134  -34.5
 1.260  0.3426 -135.6   2.711   82.3  0.1180   48.4  0.6107  -34.7
 1.280  0.3399 -137.2   2.676   81.6  0.1188   48.5  0.6081  -34.8
 1.300  0.3374 -138.8   2.641   80.8  0.1196   48.6  0.6054  -35.0
 1.320  0.3330 -140.4   2.609   80.1  0.1203   48.7  0.6031  -35.2
 1.340  0.3290 -142.1   2.578   79.3  0.1209   48.8  0.6008  -35.4
 1.360  0.3252 -143.8   2.547   78.6  0.1216   48.9  0.5985  -35.7
 1.380  0.3217 -145.6   2.516   77.8  0.1222   49.0  0.5963  -35.9
 1.400  0.3185 -147.4   2.486   77.0  0.1229   49.1  0.5940  -36.1
 1.420  0.3165 -148.7   2.461   76.4  0.1238   49.3  0.5918  -36.3
 1.440  0.3146 -150.0   2.437   75.8  0.1247   49.4  0.5897  -36.5
 1.460  0.3129 -151.3   2.412   75.1  0.1256   49.6  0.5875  -36.6
 1.480  0.3114 -152.7   2.389   74.5  0.1265   49.7  0.5853  -36.8
 1.500  0.3100 -154.0   2.365   73.8  0.1274   49.9  0.5832  -37.0
 1.520  0.3088 -155.7   2.337   73.1  0.1283   50.0  0.5817  -37.2
 1.540  0.3078 -157.4   2.309   72.4  0.1293   50.1  0.5803  -37.4
 1.560  0.3071 -159.1   2.282   71.6  0.1302   50.2  0.5789  -37.6
 1.580  0.3067 -160.8   2.255   70.9  0.1312   50.3  0.5774  -37.8
 1.600  0.3065 -162.5   2.228   70.1  0.1321   50.4  0.5760  -38.0
 1.620  0.3043 -164.0   2.207   69.5  0.1330   50.6  0.5745  -38.2
 1.640  0.3022 -165.5   2.186   68.9  0.1340   50.8  0.5730  -38.5
 1.660  0.3004 -167.0   2.166   68.3  0.1349   50.9  0.5716  -38.7
 1.680  0.2988 -168.5   2.146   67.7  0.1359   51.1  0.5701  -39.0
 1.700  0.2974 -170.1   2.126   67.1  0.1368   51.3  0.5687  -39.2
 1.720  0.2963 -171.8   2.107   66.5  0.1379   51.4  0.5675  -39.4
 1.740  0.2956 -173.5   2.089   65.9  0.1390   51.5  0.5663  -39.6
 1.760  0.2950 -175.2   2.071   65.3  0.1401   51.6  0.5651  -39.9
 1.780  0.2948 -177.0   2.053   64.7  0.1412   51.7  0.5640  -40.1
 1.800  0.2948 -178.7   2.035   64.1  0.1423   51.8  0.5628  -40.3
 1.820  0.2944 -180.0   2.020   63.5  0.1434   52.0  0.5613  -40.6
 1.840  0.2942  178.8   2.006   62.9  0.1446   52.2  0.5598  -40.9
 1.860  0.2941  177.5   1.992   62.3  0.1457   52.3  0.5583  -41.1
 1.880  0.2941  176.3   1.978   61.6  0.1469   52.5  0.5569  -41.4
 1.900  0.2943  175.0   1.964   61.0  0.1480   52.7  0.5554  -41.7
 1.920  0.2948  173.7   1.946   60.4  0.1492   52.8  0.5542  -41.9
 1.940  0.2954  172.4   1.929   59.8  0.1504   52.9  0.5529  -42.1
 1.960  0.2961  171.1   1.912   59.2  0.1515   53.1  0.5517  -42.4
 1.980  0.2970  169.8   1.895   58.6  0.1527   53.2  0.5505  -42.6
 2.000  0.2981  168.5   1.878   58.0  0.1539   53.3  0.5493  -42.8
 2.020  0.2983  167.3   1.862   57.5  0.1552   53.4  0.5481  -43.1
 2.040  0.2987  166.2   1.847   57.0  0.1565   53.6  0.5469  -43.4
 2.060  0.2992  165.0   1.831   56.5  0.1577   53.7  0.5457  -43.7
 2.080  0.2998  163.9   1.816   56.0  0.1590   53.8  0.5445  -44.0
 2.100  0.3006  162.7   1.801   55.5  0.1603   53.9  0.5434  -44.3
 2.120  0.3014  161.6   1.786   54.9  0.1616   54.0  0.5423  -44.6
 2.140  0.3024  160.5   1.771   54.4  0.1629   54.2  0.5412  -45.0
 2.160  0.3035  159.3   1.757   53.8  0.1641   54.3  0.5401  -45.3
 2.180  0.3047  158.2   1.742   53.3  0.1654   54.4  0.5390  -45.6
 2.200  0.3060  157.1   1.728   52.7  0.1667   54.5  0.5379  -45.9
 2.220  0.3069  155.9   1.718   52.2  0.1682   54.6  0.5365  -46.2
 2.240  0.3079  154.7   1.707   51.7  0.1697   54.7  0.5352  -46.5
 2.260  0.3091  153.5   1.697   51.1  0.1712   54.8  0.5338  -46.8
 2.280  0.3103  152.3   1.687   50.6  0.1727   54.9  0.5325  -47.1
 2.300  0.3118  151.1   1.678   50.1  0.1742   55.0  0.5312  -47.4
 2.320  0.3133  149.9   1.668   49.5  0.1757   55.1  0.5299  -47.7
 2.340  0.3150  148.8   1.659   49.0  0.1772   55.2  0.5286  -48.0
 2.360  0.3168  147.6   1.649   48.4  0.1787   55.3  0.5274  -48.3
 2.380  0.3187  146.5   1.640   47.9  0.1802   55.4  0.5261  -48.6
 2.400  0.3208  145.4   1.631   47.3  0.1817   55.5  0.5249  -48.9
 2.420  0.3225  144.4   1.620   46.9  0.1833   55.5  0.5235  -49.2
 2.440  0.3243  143.5   1.608   46.4  0.1849   55.6  0.5222  -49.6
 2.460  0.3262  142.6   1.597   46.0  0.1865   55.6  0.5209  -49.9
 2.480  0.3282  141.6   1.586   45.5  0.1881   55.6  0.5196  -50.2
 2.500  0.3302  140.7   1.575   45.1  0.1897   55.7  0.5183  -50.6
 2.520  0.3323  139.8   1.564   44.6  0.1914   55.7  0.5170  -50.9
 2.540  0.3346  138.9   1.554   44.1  0.1930   55.7  0.5157  -51.3
 2.560  0.3369  138.0   1.543   43.7  0.1946   55.7  0.5145  -51.6
 2.580  0.3392  137.2   1.532   43.2  0.1962   55.8  0.5133  -52.0
 2.600  0.3417  136.3   1.522   42.7  0.1978   55.8  0.5121  -52.3
 2.620  0.3431  135.4   1.514   42.3  0.1996   55.8  0.5110  -52.7
 2.640  0.3446  134.6   1.507   41.8  0.2013   55.8  0.5099  -53.1
 2.660  0.3462  133.7   1.499   41.4  0.2031   55.8  0.5088  -53.5
 2.680  0.3479  132.8   1.492   41.0  0.2048   55.8  0.5078  -53.8
 2.700  0.3497  132.0   1.484   40.5  0.2066   55.8  0.5068  -54.2
 2.720  0.3515  131.2   1.477   40.1  0.2084   55.8  0.5058  -54.6
 2.740  0.3534  130.3   1.470   39.6  0.2101   55.8  0.5048  -55.0
 2.760  0.3553  129.5   1.463   39.1  0.2119   55.8  0.5038  -55.4
 2.780  0.3574  128.7   1.456   38.7  0.2136   55.8  0.5029  -55.8
 2.800  0.3595  127.9   1.449   38.2  0.2154   55.8  0.5020  -56.2
 2.820  0.3617  127.2   1.440   37.8  0.2172   55.8  0.5004  -56.6
 2.840  0.3639  126.5   1.432   37.3  0.2191   55.8  0.4989  -57.0
 2.860  0.3662  125.9   1.424   36.8  0.2209   55.7  0.4974  -57.4
 2.880  0.3685  125.2   1.415   36.4  0.2228   55.7  0.4959  -57.8
 2.900  0.3709  124.5   1.407   35.9  0.2246   55.7  0.4945  -58.2
 2.920  0.3733  123.9   1.399   35.4  0.2264   55.7  0.4931  -58.6
 2.940  0.3757  123.3   1.391   35.0  0.2283   55.7  0.4917  -59.0
 2.960  0.3782  122.6   1.383   34.5  0.2301   55.6  0.4903  -59.5
 2.980  0.3808  122.0   1.376   34.0  0.2320   55.6  0.4889  -59.9
 3.000  0.3834  121.4   1.368   33.5  0.2338   55.6  0.4876  -60.3
 3.100  0.3939  118.3   1.333   31.7  0.2440   55.1  0.4798  -62.8
 3.200  0.4055  115.3   1.299   29.8  0.2542   54.6  0.4728  -65.3
 3.300  0.4181  112.5   1.267   27.9  0.2644   54.1  0.4668  -67.9
 3.400  0.4317  109.9   1.237   25.8  0.2746   53.7  0.4619  -70.6
 3.500  0.4461  107.4   1.208   23.6  0.2849   53.3  0.4579  -73.3
 3.600  0.4550  105.2   1.183   22.0  0.2964   52.3  0.4482  -76.4
 3.700  0.4647  103.0   1.160   20.2  0.3079   51.4  0.4399  -79.7
 3.800  0.4749  101.0   1.137   18.5  0.3196   50.6  0.4330  -83.0
 3.900  0.4857   99.0   1.116   16.6  0.3313   49.8  0.4277  -86.5
 4.000  0.4971   97.1   1.096   14.7  0.3430   49.1  0.4240  -90.0
 4.100  0.5058   95.4   1.077   13.3  0.3547   47.8  0.4150  -93.7
 4.200  0.5149   93.7   1.058   11.8  0.3666   46.6  0.4078  -97.6
 4.300  0.5244   92.1   1.040   10.2  0.3786   45.5  0.4024 -101.5
 4.400  0.5343   90.6   1.022    8.6  0.3907   44.4  0.3991 -105.6
 4.500  0.5446   89.1   1.006    7.0  0.4030   43.4  0.3978 -109.7
 4.600  0.5512   87.6   0.989    5.7  0.4143   41.9  0.3907 -113.8
 4.700  0.5582   86.1   0.972    4.4  0.4258   40.5  0.3856 -118.0
 4.800  0.5656   84.7   0.956    3.0  0.4375   39.2  0.3827 -122.3
 4.900  0.5733   83.3   0.941    1.6  0.4495   38.0  0.3820 -126.7
 5.000  0.5813   82.0   0.926    0.1  0.4617   36.8  0.3835 -131.0
 5.100  0.5869   80.8   0.910   -1.0  0.4714   35.1  0.3776 -135.4
 5.200  0.5929   79.5   0.895   -2.2  0.4816   33.5  0.3739 -139.8
 5.300  0.5991   78.3   0.880   -3.4  0.4920   32.0  0.3725 -144.4
 5.400  0.6055   77.2   0.866   -4.6  0.5029   30.5  0.3735 -148.9
 5.500  0.6122   76.0   0.852   -5.9  0.5140   29.1  0.3768 -153.4
 5.600  0.6173   74.8   0.839   -7.0  0.5208   27.3  0.3709 -157.7
 5.700  0.6227   73.7   0.827   -8.1  0.5280   25.6  0.3671 -162.0
 5.800  0.6284   72.5   0.815   -9.2  0.5358   23.9  0.3655 -166.5
 5.900  0.6343   71.4   0.803  -10.4  0.5440   22.2  0.3660 -170.9
 6.000  0.6404   70.3   0.792  -11.6  0.5526   20.6  0.3688 -175.3
!
!  f       NFmin   Gammaopt  rn/50
! GHz       dB    MAG  ANG    -
 0.450      1.10  0.42   29   0.36
 0.900      1.20  0.40   58   0.30
 1.800      1.85  0.32  126   0.22
!
! (c) 2015  Infineon Technologies AG, Munich
