! Infineon Technologies  Discrete & RF Semiconductors
! BFR182
! VCE = 0.75 V,  IC =  4.5 mA
! Common Emitter S-Parameters:                            Nov 2015
# GHz  S  MA  R  50
!  f         S11            S21            S12            S22
! GHz     MAG   ANG      MAG   ANG      MAG   ANG      MAG   ANG
 0.010  0.8278   -3.2  13.218  177.8  0.0025   86.0  0.9865   -1.5
 0.015  0.8242   -4.5  13.161  176.5  0.0037   87.3  0.9843   -2.1
 0.020  0.8210   -5.9  13.111  175.2  0.0050   88.0  0.9822   -2.8
 0.025  0.8179   -7.3  13.113  174.1  0.0063   86.0  0.9803   -3.5
 0.030  0.8153   -8.7  13.120  172.9  0.0076   84.7  0.9785   -4.2
 0.035  0.8133  -10.1  13.133  171.8  0.0089   83.8  0.9769   -4.9
 0.040  0.8117  -11.5  13.150  170.7  0.0102   83.1  0.9755   -5.7
 0.045  0.8106  -13.0  13.173  169.5  0.0115   82.6  0.9741   -6.4
 0.050  0.8100  -14.4  13.201  168.4  0.0128   82.2  0.9730   -7.1
 0.055  0.8048  -15.7  13.118  167.4  0.0140   81.1  0.9687   -7.7
 0.060  0.8001  -17.0  13.039  166.3  0.0153   80.2  0.9645   -8.4
 0.065  0.7957  -18.3  12.964  165.3  0.0166   79.4  0.9604   -9.0
 0.070  0.7918  -19.6  12.894  164.2  0.0178   78.8  0.9565   -9.6
 0.075  0.7883  -20.9  12.829  163.1  0.0191   78.2  0.9526  -10.3
 0.080  0.7852  -22.3  12.768  162.0  0.0203   77.7  0.9489  -10.9
 0.085  0.7826  -23.6  12.712  160.9  0.0216   77.3  0.9453  -11.6
 0.090  0.7804  -25.0  12.660  159.8  0.0229   76.9  0.9418  -12.3
 0.095  0.7786  -26.3  12.613  158.7  0.0241   76.5  0.9385  -12.9
 0.100  0.7773  -27.7  12.571  157.6  0.0254   76.2  0.9353  -13.6
 0.105  0.7700  -28.9  12.471  156.6  0.0264   75.2  0.9298  -14.1
 0.110  0.7630  -30.1  12.376  155.5  0.0275   74.4  0.9243  -14.6
 0.115  0.7564  -31.3  12.284  154.5  0.0285   73.6  0.9189  -15.2
 0.120  0.7502  -32.6  12.197  153.4  0.0296   72.8  0.9136  -15.7
 0.125  0.7443  -33.9  12.114  152.3  0.0306   72.1  0.9084  -16.2
 0.130  0.7388  -35.1  12.035  151.2  0.0317   71.4  0.9032  -16.8
 0.135  0.7336  -36.5  11.961  150.1  0.0328   70.8  0.8982  -17.3
 0.140  0.7289  -37.8  11.891  149.0  0.0338   70.2  0.8932  -17.9
 0.145  0.7245  -39.1  11.826  147.9  0.0349   69.7  0.8883  -18.4
 0.150  0.7206  -40.5  11.766  146.7  0.0360   69.2  0.8835  -19.0
 0.155  0.7140  -41.6  11.669  145.9  0.0368   68.8  0.8775  -19.4
 0.160  0.7077  -42.7  11.575  145.1  0.0376   68.4  0.8716  -19.8
 0.165  0.7016  -43.8  11.483  144.3  0.0384   68.0  0.8657  -20.3
 0.170  0.6958  -44.9  11.393  143.5  0.0392   67.6  0.8599  -20.7
 0.175  0.6902  -46.0  11.306  142.6  0.0400   67.2  0.8541  -21.1
 0.180  0.6849  -47.2  11.221  141.8  0.0408   66.9  0.8483  -21.6
 0.185  0.6800  -48.4  11.139  140.9  0.0417   66.5  0.8426  -22.0
 0.190  0.6753  -49.6  11.059  140.0  0.0425   66.2  0.8370  -22.5
 0.195  0.6709  -50.8  10.982  139.1  0.0433   65.9  0.8314  -22.9
 0.200  0.6668  -52.0  10.908  138.2  0.0441   65.6  0.8259  -23.4
 0.220  0.6427  -55.9  10.478  135.4  0.0470   63.8  0.8033  -24.7
 0.240  0.6217  -60.1  10.075  132.4  0.0500   62.2  0.7811  -26.0
 0.260  0.6012  -64.0   9.702  129.6  0.0527   61.0  0.7610  -27.1
 0.280  0.5800  -67.6   9.350  127.2  0.0550   60.2  0.7428  -28.0
 0.300  0.5613  -71.4   9.017  124.5  0.0574   59.4  0.7248  -28.9
 0.320  0.5406  -74.2   8.716  122.7  0.0594   58.8  0.7084  -29.4
 0.340  0.5213  -77.3   8.423  120.9  0.0613   58.2  0.6920  -30.0
 0.360  0.5036  -80.5   8.140  118.9  0.0633   57.6  0.6757  -30.6
 0.380  0.4876  -84.0   7.868  116.7  0.0653   57.1  0.6595  -31.2
 0.400  0.4735  -87.7   7.608  114.4  0.0673   56.6  0.6434  -31.8
 0.420  0.4582  -90.1   7.359  112.9  0.0688   56.4  0.6313  -32.1
 0.440  0.4437  -92.7   7.116  111.4  0.0703   56.1  0.6192  -32.4
 0.450  0.4368  -94.0   6.996  110.6  0.0710   56.0  0.6131  -32.5
 0.460  0.4301  -95.4   6.878  109.7  0.0718   55.9  0.6070  -32.7
 0.480  0.4176  -98.3   6.646  107.9  0.0733   55.7  0.5950  -33.0
 0.500  0.4063 -101.4   6.421  106.0  0.0748   55.5  0.5829  -33.3
 0.520  0.3981 -103.6   6.247  104.9  0.0764   55.3  0.5749  -33.5
 0.540  0.3904 -105.8   6.076  103.7  0.0780   55.2  0.5668  -33.6
 0.560  0.3834 -108.2   5.907  102.5  0.0796   55.1  0.5588  -33.8
 0.580  0.3771 -110.6   5.741  101.2  0.0812   54.9  0.5507  -33.9
 0.600  0.3714 -113.1   5.578   99.8  0.0828   54.8  0.5427  -34.1
 0.620  0.3632 -115.1   5.444   98.8  0.0842   54.8  0.5366  -34.2
 0.640  0.3554 -117.2   5.311   97.7  0.0856   54.9  0.5305  -34.3
 0.660  0.3482 -119.4   5.181   96.6  0.0869   54.9  0.5243  -34.4
 0.680  0.3414 -121.7   5.053   95.4  0.0883   55.0  0.5182  -34.5
 0.700  0.3353 -124.1   4.927   94.1  0.0897   55.0  0.5121  -34.6
 0.720  0.3298 -125.9   4.815   93.2  0.0912   55.0  0.5076  -34.7
 0.740  0.3246 -127.8   4.705   92.3  0.0928   55.0  0.5031  -34.8
 0.760  0.3198 -129.8   4.595   91.3  0.0943   55.1  0.4986  -34.8
 0.780  0.3154 -131.8   4.487   90.3  0.0959   55.1  0.4941  -34.9
 0.800  0.3114 -133.9   4.381   89.2  0.0974   55.1  0.4896  -35.0
 0.820  0.3059 -135.8   4.294   88.4  0.0988   55.2  0.4857  -35.1
 0.840  0.3008 -137.7   4.209   87.5  0.1002   55.4  0.4818  -35.1
 0.860  0.2960 -139.7   4.124   86.6  0.1017   55.5  0.4780  -35.2
 0.880  0.2916 -141.7   4.040   85.7  0.1031   55.7  0.4741  -35.2
 0.900  0.2876 -143.8   3.958   84.7  0.1045   55.8  0.4702  -35.3
 0.920  0.2854 -145.7   3.889   84.0  0.1059   55.9  0.4672  -35.4
 0.940  0.2835 -147.7   3.820   83.3  0.1073   56.0  0.4642  -35.5
 0.960  0.2820 -149.6   3.753   82.5  0.1086   56.1  0.4611  -35.6
 0.980  0.2808 -151.6   3.685   81.7  0.1100   56.2  0.4581  -35.7
 1.000  0.2799 -153.6   3.619   80.9  0.1114   56.3  0.4551  -35.8
 1.020  0.2780 -155.2   3.561   80.2  0.1129   56.4  0.4526  -36.0
 1.040  0.2763 -156.9   3.503   79.6  0.1144   56.4  0.4502  -36.1
 1.060  0.2748 -158.5   3.446   78.9  0.1160   56.5  0.4477  -36.3
 1.080  0.2736 -160.2   3.389   78.1  0.1175   56.5  0.4453  -36.4
 1.100  0.2726 -161.9   3.333   77.4  0.1190   56.6  0.4428  -36.6
 1.120  0.2717 -163.6   3.283   76.7  0.1206   56.7  0.4409  -36.8
 1.140  0.2710 -165.2   3.234   76.0  0.1222   56.7  0.4389  -36.9
 1.160  0.2706 -166.9   3.185   75.3  0.1239   56.8  0.4370  -37.1
 1.180  0.2704 -168.6   3.137   74.6  0.1255   56.8  0.4351  -37.2
 1.200  0.2704 -170.3   3.089   73.8  0.1271   56.9  0.4332  -37.4
 1.220  0.2694 -171.5   3.043   73.2  0.1288   56.9  0.4317  -37.6
 1.240  0.2684 -172.7   2.998   72.7  0.1304   56.9  0.4302  -37.8
 1.260  0.2676 -173.9   2.952   72.1  0.1321   57.0  0.4287  -37.9
 1.280  0.2670 -175.2   2.908   71.4  0.1337   57.0  0.4272  -38.1
 1.300  0.2664 -176.4   2.863   70.8  0.1354   57.0  0.4257  -38.3
 1.320  0.2656 -177.9   2.826   70.2  0.1369   57.0  0.4243  -38.5
 1.340  0.2649 -179.5   2.790   69.6  0.1384   57.0  0.4229  -38.8
 1.360  0.2644  179.0   2.754   69.0  0.1399   57.0  0.4215  -39.0
 1.380  0.2642  177.4   2.718   68.4  0.1414   57.0  0.4201  -39.3
 1.400  0.2641  175.9   2.683   67.7  0.1429   57.0  0.4187  -39.5
 1.420  0.2645  174.8   2.654   67.2  0.1446   57.0  0.4175  -39.7
 1.440  0.2650  173.8   2.625   66.6  0.1463   57.0  0.4163  -39.9
 1.460  0.2656  172.7   2.596   66.1  0.1479   57.0  0.4151  -40.0
 1.480  0.2663  171.6   2.567   65.5  0.1496   57.0  0.4139  -40.2
 1.500  0.2671  170.6   2.539   64.9  0.1513   57.0  0.4127  -40.4
 1.520  0.2683  169.3   2.509   64.3  0.1530   57.0  0.4114  -40.6
 1.540  0.2696  168.0   2.478   63.7  0.1547   57.0  0.4102  -40.8
 1.560  0.2710  166.8   2.449   63.0  0.1565   56.9  0.4089  -41.1
 1.580  0.2726  165.5   2.419   62.4  0.1582   56.9  0.4076  -41.3
 1.600  0.2743  164.3   2.390   61.7  0.1599   56.9  0.4064  -41.5
 1.620  0.2746  163.0   2.366   61.2  0.1616   56.9  0.4047  -41.7
 1.640  0.2750  161.7   2.341   60.6  0.1633   56.9  0.4031  -42.0
 1.660  0.2756  160.4   2.317   60.1  0.1650   56.9  0.4015  -42.2
 1.680  0.2763  159.1   2.294   59.5  0.1667   56.9  0.3998  -42.5
 1.700  0.2772  157.8   2.270   58.9  0.1684   56.9  0.3982  -42.7
 1.720  0.2787  156.7   2.250   58.4  0.1701   56.9  0.3969  -43.0
 1.740  0.2803  155.6   2.229   57.9  0.1719   56.8  0.3957  -43.3
 1.760  0.2819  154.5   2.209   57.4  0.1736   56.8  0.3945  -43.5
 1.780  0.2837  153.5   2.190   56.9  0.1754   56.7  0.3932  -43.8
 1.800  0.2856  152.4   2.170   56.4  0.1771   56.7  0.3920  -44.1
 1.820  0.2875  151.6   2.151   55.9  0.1789   56.6  0.3907  -44.4
 1.840  0.2894  150.8   2.133   55.3  0.1807   56.6  0.3894  -44.8
 1.860  0.2913  150.1   2.115   54.8  0.1824   56.5  0.3882  -45.1
 1.880  0.2933  149.3   2.097   54.3  0.1842   56.5  0.3869  -45.5
 1.900  0.2954  148.6   2.079   53.7  0.1860   56.4  0.3857  -45.8
 1.920  0.2964  147.7   2.059   53.2  0.1879   56.3  0.3846  -46.1
 1.940  0.2975  146.8   2.040   52.7  0.1898   56.2  0.3836  -46.4
 1.960  0.2986  145.9   2.020   52.2  0.1916   56.0  0.3825  -46.7
 1.980  0.2998  145.1   2.001   51.6  0.1935   55.9  0.3815  -47.0
 2.000  0.3011  144.2   1.982   51.1  0.1954   55.8  0.3805  -47.3
 2.020  0.3022  143.3   1.966   50.6  0.1972   55.7  0.3792  -47.6
 2.040  0.3034  142.5   1.951   50.2  0.1991   55.6  0.3779  -48.0
 2.060  0.3047  141.6   1.935   49.7  0.2009   55.5  0.3766  -48.4
 2.080  0.3060  140.8   1.920   49.2  0.2027   55.4  0.3753  -48.7
 2.100  0.3074  140.0   1.904   48.7  0.2045   55.3  0.3740  -49.1
 2.120  0.3088  139.1   1.889   48.3  0.2064   55.2  0.3728  -49.4
 2.140  0.3104  138.3   1.874   47.8  0.2082   55.2  0.3715  -49.8
 2.160  0.3120  137.5   1.859   47.2  0.2100   55.1  0.3703  -50.2
 2.180  0.3136  136.7   1.845   46.7  0.2119   55.0  0.3691  -50.5
 2.200  0.3153  135.9   1.830   46.2  0.2137   54.9  0.3679  -50.9
 2.220  0.3171  135.1   1.818   45.7  0.2156   54.8  0.3663  -51.3
 2.240  0.3190  134.3   1.806   45.3  0.2175   54.7  0.3647  -51.6
 2.260  0.3209  133.6   1.794   44.8  0.2195   54.5  0.3631  -52.0
 2.280  0.3229  132.8   1.782   44.3  0.2214   54.4  0.3616  -52.3
 2.300  0.3249  132.1   1.770   43.8  0.2233   54.3  0.3600  -52.7
 2.320  0.3270  131.3   1.758   43.3  0.2252   54.2  0.3585  -53.1
 2.340  0.3292  130.6   1.747   42.8  0.2271   54.1  0.3570  -53.5
 2.360  0.3314  129.9   1.735   42.3  0.2291   54.0  0.3555  -53.8
 2.380  0.3336  129.2   1.724   41.8  0.2310   53.9  0.3540  -54.2
 2.400  0.3359  128.5   1.713   41.3  0.2329   53.8  0.3525  -54.6
 2.420  0.3381  127.8   1.702   40.9  0.2348   53.6  0.3510  -55.0
 2.440  0.3404  127.1   1.691   40.5  0.2366   53.5  0.3495  -55.4
 2.460  0.3427  126.5   1.680   40.0  0.2385   53.3  0.3480  -55.9
 2.480  0.3451  125.8   1.669   39.6  0.2404   53.2  0.3465  -56.3
 2.500  0.3475  125.2   1.658   39.2  0.2422   53.0  0.3451  -56.7
 2.520  0.3499  124.6   1.648   38.7  0.2441   52.9  0.3437  -57.1
 2.540  0.3524  123.9   1.637   38.3  0.2460   52.7  0.3423  -57.6
 2.560  0.3549  123.3   1.627   37.8  0.2478   52.6  0.3409  -58.0
 2.580  0.3575  122.7   1.616   37.4  0.2497   52.4  0.3395  -58.5
 2.600  0.3601  122.1   1.606   36.9  0.2516   52.3  0.3382  -58.9
 2.620  0.3619  121.5   1.597   36.5  0.2536   52.1  0.3366  -59.4
 2.640  0.3638  121.0   1.588   36.1  0.2555   52.0  0.3350  -59.8
 2.660  0.3657  120.4   1.579   35.7  0.2575   51.8  0.3334  -60.3
 2.680  0.3676  119.8   1.571   35.3  0.2595   51.7  0.3319  -60.8
 2.700  0.3696  119.3   1.562   34.9  0.2615   51.5  0.3303  -61.3
 2.720  0.3716  118.7   1.553   34.5  0.2635   51.4  0.3288  -61.8
 2.740  0.3736  118.2   1.545   34.1  0.2654   51.2  0.3274  -62.3
 2.760  0.3757  117.7   1.537   33.7  0.2674   51.1  0.3259  -62.8
 2.780  0.3778  117.1   1.528   33.2  0.2694   50.9  0.3245  -63.3
 2.800  0.3799  116.6   1.520   32.8  0.2714   50.8  0.3231  -63.8
 2.820  0.3820  116.1   1.511   32.4  0.2733   50.6  0.3214  -64.3
 2.840  0.3842  115.7   1.503   32.0  0.2752   50.4  0.3196  -64.8
 2.860  0.3864  115.3   1.494   31.5  0.2771   50.2  0.3180  -65.3
 2.880  0.3886  114.8   1.486   31.1  0.2790   50.1  0.3163  -65.9
 2.900  0.3908  114.4   1.477   30.7  0.2809   49.9  0.3147  -66.4
 2.920  0.3930  114.0   1.469   30.2  0.2828   49.7  0.3131  -66.9
 2.940  0.3953  113.5   1.461   29.8  0.2847   49.5  0.3115  -67.5
 2.960  0.3976  113.1   1.453   29.3  0.2867   49.3  0.3099  -68.0
 2.980  0.3999  112.7   1.445   28.9  0.2886   49.2  0.3084  -68.5
 3.000  0.4022  112.3   1.437   28.4  0.2905   49.0  0.3069  -69.1
 3.100  0.4131  109.9   1.401   26.7  0.3002   47.9  0.2968  -72.2
 3.200  0.4246  107.7   1.366   24.8  0.3100   46.9  0.2877  -75.5
 3.300  0.4368  105.5   1.332   22.9  0.3199   45.9  0.2796  -79.0
 3.400  0.4495  103.5   1.300   20.9  0.3299   45.0  0.2726  -82.6
 3.500  0.4628  101.6   1.270   18.8  0.3400   44.1  0.2667  -86.5
 3.600  0.4723   99.9   1.243   17.2  0.3495   42.9  0.2573  -90.7
 3.700  0.4821   98.2   1.217   15.6  0.3591   41.7  0.2493  -95.2
 3.800  0.4924   96.6   1.192   13.9  0.3688   40.6  0.2430  -99.9
 3.900  0.5030   95.1   1.169   12.1  0.3787   39.5  0.2384 -104.9
 4.000  0.5140   93.6   1.146   10.2  0.3887   38.5  0.2357 -110.0
 4.100  0.5227   92.1   1.124    8.8  0.3976   37.1  0.2291 -115.1
 4.200  0.5318   90.7   1.104    7.3  0.4067   35.9  0.2244 -120.5
 4.300  0.5412   89.3   1.084    5.7  0.4160   34.6  0.2218 -126.1
 4.400  0.5509   87.9   1.064    4.1  0.4254   33.4  0.2213 -131.7
 4.500  0.5609   86.6   1.046    2.4  0.4351   32.3  0.2230 -137.3
 4.600  0.5676   85.3   1.028    1.1  0.4431   31.0  0.2217 -142.6
 4.700  0.5747   84.1   1.011   -0.3  0.4514   29.7  0.2223 -148.0
 4.800  0.5820   82.8   0.995   -1.7  0.4599   28.4  0.2249 -153.2
 4.900  0.5895   81.7   0.979   -3.1  0.4686   27.2  0.2293 -158.3
 5.000  0.5973   80.5   0.964   -4.6  0.4775   26.1  0.2354 -163.2
 5.100  0.6039   79.3   0.947   -5.7  0.4846   24.7  0.2387 -168.2
 5.200  0.6107   78.2   0.931   -6.9  0.4919   23.3  0.2437 -173.0
 5.300  0.6178   77.1   0.915   -8.1  0.4996   22.0  0.2504 -177.6
 5.400  0.6251   76.0   0.900   -9.3  0.5075   20.7  0.2586  178.1
 5.500  0.6326   74.9   0.885  -10.6  0.5156   19.5  0.2681  174.1
 5.600  0.6371   73.7   0.871  -11.6  0.5201   18.0  0.2698  169.7
 5.700  0.6418   72.5   0.857  -12.7  0.5249   16.5  0.2730  165.4
 5.800  0.6469   71.4   0.843  -13.8  0.5301   15.0  0.2777  161.2
 5.900  0.6522   70.2   0.830  -14.9  0.5356   13.6  0.2838  157.2
 6.000  0.6577   69.1   0.817  -16.1  0.5415   12.2  0.2913  153.4
!
!  f       NFmin   Gammaopt  rn/50
! GHz       dB    MAG  ANG    -
!
! noise parameter not available yet for this operation point!
!
! (c) 2015  Infineon Technologies AG, Munich
