! Infineon Technologies  Discrete & RF Semiconductors
! BFR182W
! VCE =  10. V,  IC =  7.0 mA
! Common Emitter S-Parameters:                            Nov 2015
# GHz  S  MA  R  50
!  f         S11            S21            S12            S22
! GHz     MAG   ANG      MAG   ANG      MAG   ANG      MAG   ANG
 0.100  0.7736  -28.8  17.733  158.0  0.0187   75.2  0.9296  -13.7
 0.105  0.7670  -30.0  17.594  157.1  0.0195   74.5  0.9240  -14.2
 0.110  0.7607  -31.3  17.459  156.1  0.0203   73.8  0.9185  -14.7
 0.115  0.7547  -32.5  17.329  155.2  0.0210   73.2  0.9131  -15.3
 0.120  0.7492  -33.8  17.204  154.2  0.0218   72.7  0.9077  -15.8
 0.125  0.7440  -35.1  17.084  153.3  0.0226   72.1  0.9025  -16.4
 0.130  0.7392  -36.4  16.969  152.3  0.0234   71.7  0.8973  -16.9
 0.135  0.7348  -37.7  16.859  151.3  0.0242   71.2  0.8922  -17.5
 0.140  0.7308  -39.1  16.754  150.3  0.0250   70.8  0.8872  -18.0
 0.145  0.7272  -40.4  16.654  149.2  0.0258   70.4  0.8822  -18.6
 0.150  0.7240  -41.8  16.560  148.2  0.0266   70.0  0.8774  -19.2
 0.155  0.7177  -42.9  16.417  147.4  0.0272   69.5  0.8714  -19.6
 0.160  0.7116  -44.0  16.277  146.7  0.0278   69.0  0.8655  -20.0
 0.165  0.7059  -45.1  16.140  145.9  0.0284   68.6  0.8596  -20.4
 0.170  0.7004  -46.2  16.006  145.1  0.0290   68.2  0.8538  -20.8
 0.175  0.6951  -47.4  15.875  144.3  0.0296   67.7  0.8480  -21.2
 0.180  0.6902  -48.6  15.748  143.4  0.0302   67.3  0.8423  -21.7
 0.185  0.6855  -49.7  15.624  142.6  0.0309   67.0  0.8366  -22.1
 0.190  0.6812  -51.0  15.503  141.7  0.0315   66.6  0.8309  -22.5
 0.195  0.6771  -52.2  15.386  140.9  0.0321   66.2  0.8253  -23.0
 0.200  0.6734  -53.4  15.272  140.0  0.0327   65.9  0.8198  -23.4
 0.220  0.6500  -57.4  14.729  137.3  0.0349   64.3  0.7966  -24.7
 0.240  0.6299  -61.6  14.221  134.4  0.0371   62.9  0.7739  -26.0
 0.260  0.6114  -65.5  13.722  131.8  0.0390   61.8  0.7529  -27.2
 0.280  0.5936  -69.0  13.221  129.4  0.0407   60.9  0.7334  -28.1
 0.300  0.5781  -72.8  12.744  126.9  0.0424   60.1  0.7142  -29.1
 0.320  0.5593  -75.7  12.310  125.2  0.0438   59.6  0.6977  -29.6
 0.340  0.5421  -78.7  11.887  123.3  0.0452   59.1  0.6813  -30.1
 0.360  0.5264  -82.0  11.478  121.4  0.0466   58.6  0.6649  -30.6
 0.380  0.5126  -85.4  11.083  119.3  0.0480   58.1  0.6486  -31.2
 0.400  0.5007  -89.0  10.704  117.0  0.0494   57.7  0.6324  -31.8
 0.420  0.4887  -91.4  10.375  115.7  0.0506   57.5  0.6208  -32.0
 0.440  0.4776  -93.8  10.052  114.4  0.0517   57.3  0.6092  -32.3
 0.450  0.4723  -95.1   9.892  113.7  0.0523   57.2  0.6034  -32.4
 0.460  0.4674  -96.4   9.734  113.0  0.0529   57.1  0.5976  -32.5
 0.480  0.4582  -99.1   9.423  111.4  0.0540   56.9  0.5860  -32.8
 0.500  0.4500 -101.9   9.119  109.8  0.0552   56.7  0.5744  -33.1
 0.520  0.4408 -104.0   8.867  108.8  0.0564   56.7  0.5659  -33.2
 0.540  0.4322 -106.1   8.619  107.7  0.0575   56.8  0.5575  -33.4
 0.560  0.4242 -108.3   8.373  106.5  0.0587   56.8  0.5490  -33.5
 0.580  0.4169 -110.6   8.132  105.3  0.0598   56.9  0.5406  -33.7
 0.600  0.4103 -113.0   7.894  104.0  0.0610   56.9  0.5321  -33.8
 0.620  0.4045 -114.8   7.694  103.1  0.0620   57.0  0.5260  -33.8
 0.640  0.3991 -116.6   7.496  102.2  0.0629   57.1  0.5200  -33.8
 0.660  0.3942 -118.5   7.300  101.2  0.0639   57.2  0.5139  -33.9
 0.680  0.3897 -120.4   7.107  100.1  0.0648   57.3  0.5079  -33.9
 0.700  0.3856 -122.4   6.916   99.0  0.0658   57.4  0.5018  -33.9
 0.720  0.3812 -124.1   6.765   98.3  0.0668   57.6  0.4972  -34.0
 0.740  0.3772 -125.9   6.616   97.5  0.0679   57.7  0.4926  -34.0
 0.760  0.3736 -127.7   6.467   96.7  0.0689   57.9  0.4880  -34.1
 0.780  0.3703 -129.5   6.320   95.8  0.0700   58.0  0.4834  -34.1
 0.800  0.3674 -131.4   6.175   94.9  0.0710   58.2  0.4788  -34.2
 0.820  0.3638 -132.7   6.047   94.2  0.0721   58.4  0.4753  -34.2
 0.840  0.3603 -134.1   5.919   93.6  0.0732   58.6  0.4718  -34.2
 0.860  0.3571 -135.5   5.792   92.8  0.0743   58.8  0.4684  -34.2
 0.880  0.3541 -137.0   5.667   92.1  0.0754   59.0  0.4649  -34.2
 0.900  0.3513 -138.4   5.542   91.3  0.0765   59.2  0.4614  -34.2
 0.920  0.3498 -139.8   5.445   90.7  0.0775   59.3  0.4588  -34.3
 0.940  0.3486 -141.2   5.348   90.1  0.0785   59.5  0.4562  -34.4
 0.960  0.3476 -142.6   5.252   89.4  0.0796   59.6  0.4537  -34.4
 0.980  0.3467 -144.0   5.157   88.7  0.0806   59.8  0.4511  -34.5
 1.000  0.3461 -145.4   5.062   88.0  0.0816   59.9  0.4485  -34.6
 1.020  0.3442 -146.5   4.981   87.5  0.0827   60.1  0.4464  -34.7
 1.040  0.3424 -147.6   4.901   87.0  0.0839   60.2  0.4443  -34.7
 1.060  0.3407 -148.7   4.821   86.5  0.0850   60.4  0.4423  -34.8
 1.080  0.3392 -149.8   4.742   86.0  0.0861   60.5  0.4402  -34.9
 1.100  0.3378 -150.9   4.662   85.4  0.0872   60.6  0.4381  -34.9
 1.120  0.3365 -152.0   4.584   84.9  0.0884   60.8  0.4360  -35.0
 1.140  0.3353 -153.2   4.506   84.3  0.0895   60.9  0.4339  -35.1
 1.160  0.3343 -154.3   4.428   83.7  0.0906   61.0  0.4319  -35.2
 1.180  0.3334 -155.4   4.351   83.1  0.0918   61.2  0.4298  -35.2
 1.200  0.3327 -156.6   4.274   82.4  0.0929   61.3  0.4277  -35.3
 1.220  0.3318 -157.5   4.216   82.0  0.0940   61.4  0.4265  -35.4
 1.240  0.3311 -158.5   4.159   81.5  0.0950   61.5  0.4252  -35.5
 1.260  0.3304 -159.4   4.102   81.0  0.0961   61.7  0.4240  -35.6
 1.280  0.3298 -160.4   4.045   80.6  0.0972   61.8  0.4227  -35.7
 1.300  0.3293 -161.3   3.989   80.1  0.0982   61.9  0.4215  -35.7
 1.320  0.3289 -162.3   3.933   79.6  0.0993   62.0  0.4202  -35.8
 1.340  0.3286 -163.2   3.877   79.1  0.1004   62.1  0.4190  -35.9
 1.360  0.3284 -164.2   3.821   78.5  0.1015   62.2  0.4178  -36.0
 1.380  0.3282 -165.1   3.766   78.0  0.1025   62.3  0.4165  -36.1
 1.400  0.3282 -166.1   3.711   77.4  0.1036   62.4  0.4153  -36.2
 1.420  0.3279 -166.9   3.666   76.9  0.1047   62.5  0.4143  -36.4
 1.440  0.3277 -167.6   3.620   76.5  0.1059   62.6  0.4134  -36.6
 1.460  0.3275 -168.4   3.575   76.0  0.1070   62.8  0.4124  -36.7
 1.480  0.3274 -169.1   3.530   75.5  0.1082   62.9  0.4115  -36.9
 1.500  0.3273 -169.9   3.486   75.0  0.1093   63.0  0.4105  -37.1
 1.520  0.3269 -170.8   3.446   74.6  0.1105   63.1  0.4098  -37.2
 1.540  0.3266 -171.6   3.407   74.2  0.1116   63.2  0.4090  -37.2
 1.560  0.3264 -172.5   3.367   73.7  0.1128   63.3  0.4083  -37.3
 1.580  0.3262 -173.3   3.328   73.3  0.1139   63.4  0.4075  -37.3
 1.600  0.3261 -174.2   3.289   72.8  0.1151   63.5  0.4068  -37.4
 1.620  0.3262 -174.9   3.255   72.4  0.1163   63.6  0.4062  -37.6
 1.640  0.3264 -175.5   3.222   72.0  0.1175   63.7  0.4055  -37.7
 1.660  0.3266 -176.2   3.188   71.7  0.1187   63.7  0.4049  -37.9
 1.680  0.3269 -176.8   3.155   71.3  0.1199   63.8  0.4043  -38.1
 1.700  0.3272 -177.5   3.122   70.9  0.1210   63.9  0.4037  -38.2
 1.720  0.3276 -178.1   3.088   70.4  0.1222   63.9  0.4030  -38.4
 1.740  0.3280 -178.8   3.056   70.0  0.1234   64.0  0.4024  -38.6
 1.760  0.3284 -179.4   3.023   69.6  0.1246   64.1  0.4018  -38.8
 1.780  0.3289  179.9   2.990   69.2  0.1258   64.1  0.4012  -38.9
 1.800  0.3294  179.3   2.958   68.7  0.1270   64.2  0.4006  -39.1
 1.820  0.3292  178.6   2.930   68.3  0.1282   64.2  0.4003  -39.3
 1.840  0.3291  177.8   2.902   67.9  0.1293   64.3  0.4001  -39.5
 1.860  0.3291  177.1   2.875   67.6  0.1305   64.3  0.3998  -39.7
 1.880  0.3291  176.3   2.847   67.2  0.1317   64.4  0.3996  -39.9
 1.900  0.3291  175.6   2.820   66.7  0.1328   64.4  0.3993  -40.1
 1.920  0.3292  174.9   2.793   66.3  0.1340   64.4  0.3991  -40.3
 1.940  0.3294  174.1   2.766   65.9  0.1352   64.5  0.3989  -40.5
 1.960  0.3296  173.4   2.739   65.5  0.1364   64.5  0.3986  -40.7
 1.980  0.3299  172.6   2.713   65.0  0.1375   64.6  0.3984  -40.9
 2.000  0.3302  171.9   2.686   64.6  0.1387   64.6  0.3982  -41.1
 2.020  0.3306  171.4   2.664   64.3  0.1400   64.6  0.3983  -41.3
 2.040  0.3309  170.9   2.642   63.9  0.1412   64.7  0.3983  -41.5
 2.060  0.3313  170.4   2.620   63.6  0.1425   64.7  0.3984  -41.8
 2.080  0.3317  169.9   2.599   63.2  0.1437   64.7  0.3984  -42.0
 2.100  0.3322  169.4   2.577   62.8  0.1450   64.8  0.3985  -42.2
 2.120  0.3327  168.9   2.556   62.5  0.1463   64.8  0.3986  -42.4
 2.140  0.3332  168.5   2.534   62.1  0.1475   64.8  0.3987  -42.6
 2.160  0.3337  168.0   2.513   61.7  0.1488   64.8  0.3988  -42.9
 2.180  0.3342  167.5   2.492   61.3  0.1500   64.9  0.3989  -43.1
 2.200  0.3348  167.0   2.471   60.9  0.1513   64.9  0.3990  -43.3
 2.220  0.3351  166.6   2.453   60.6  0.1526   64.9  0.3990  -43.5
 2.240  0.3355  166.2   2.435   60.2  0.1539   64.9  0.3990  -43.8
 2.260  0.3358  165.8   2.417   59.9  0.1552   65.0  0.3990  -44.0
 2.280  0.3362  165.4   2.399   59.6  0.1565   65.0  0.3990  -44.3
 2.300  0.3366  165.0   2.381   59.2  0.1578   65.0  0.3991  -44.5
 2.320  0.3370  164.6   2.364   58.9  0.1591   65.0  0.3991  -44.7
 2.340  0.3374  164.2   2.346   58.5  0.1604   65.0  0.3991  -45.0
 2.360  0.3379  163.8   2.329   58.1  0.1617   65.1  0.3992  -45.2
 2.380  0.3383  163.4   2.311   57.8  0.1630   65.1  0.3992  -45.5
 2.400  0.3388  163.0   2.294   57.4  0.1643   65.1  0.3993  -45.7
 2.420  0.3383  162.3   2.276   57.0  0.1655   65.1  0.3993  -45.8
 2.440  0.3378  161.6   2.259   56.7  0.1668   65.1  0.3993  -46.0
 2.460  0.3374  160.8   2.242   56.3  0.1680   65.1  0.3993  -46.1
 2.480  0.3371  160.1   2.224   55.9  0.1693   65.1  0.3993  -46.3
 2.500  0.3368  159.4   2.207   55.5  0.1705   65.1  0.3993  -46.4
 2.520  0.3376  159.0   2.194   55.2  0.1718   65.1  0.3993  -46.7
 2.540  0.3385  158.6   2.181   54.9  0.1732   65.1  0.3994  -46.9
 2.560  0.3393  158.1   2.168   54.7  0.1745   65.0  0.3995  -47.2
 2.580  0.3402  157.7   2.155   54.4  0.1758   65.0  0.3995  -47.5
 2.600  0.3411  157.3   2.142   54.1  0.1772   65.0  0.3996  -47.7
 2.620  0.3420  156.9   2.129   53.8  0.1785   65.0  0.3997  -48.0
 2.640  0.3430  156.5   2.116   53.5  0.1798   65.0  0.3998  -48.3
 2.660  0.3439  156.1   2.104   53.2  0.1812   65.0  0.3999  -48.6
 2.680  0.3449  155.7   2.091   52.9  0.1825   64.9  0.4000  -48.8
 2.700  0.3458  155.3   2.078   52.6  0.1838   64.9  0.4001  -49.1
 2.720  0.3468  154.9   2.066   52.3  0.1852   64.9  0.4003  -49.4
 2.740  0.3479  154.5   2.053   52.0  0.1865   64.9  0.4004  -49.6
 2.760  0.3489  154.1   2.041   51.6  0.1878   64.9  0.4005  -49.9
 2.780  0.3499  153.7   2.028   51.3  0.1891   64.9  0.4007  -50.2
 2.800  0.3510  153.3   2.016   51.0  0.1905   64.8  0.4009  -50.4
 2.820  0.3521  153.0   2.004   50.7  0.1918   64.8  0.4010  -50.7
 2.840  0.3532  152.6   1.992   50.3  0.1931   64.8  0.4012  -51.0
 2.860  0.3543  152.2   1.980   50.0  0.1945   64.8  0.4014  -51.2
 2.880  0.3554  151.8   1.968   49.6  0.1958   64.8  0.4016  -51.5
 2.900  0.3566  151.4   1.956   49.3  0.1971   64.8  0.4018  -51.8
 2.920  0.3577  151.1   1.944   48.9  0.1985   64.8  0.4020  -52.0
 2.940  0.3589  150.7   1.932   48.6  0.1998   64.7  0.4023  -52.3
 2.960  0.3601  150.3   1.920   48.2  0.2011   64.7  0.4025  -52.6
 2.980  0.3613  150.0   1.909   47.9  0.2025   64.7  0.4027  -52.8
 3.000  0.3625  149.6   1.897   47.5  0.2038   64.7  0.4030  -53.1
 3.100  0.3636  147.7   1.851   46.1  0.2111   64.4  0.4031  -54.6
 3.200  0.3652  145.8   1.807   44.7  0.2185   64.1  0.4036  -56.2
 3.300  0.3671  143.9   1.764   43.2  0.2258   63.9  0.4043  -57.7
 3.400  0.3695  142.0   1.722   41.6  0.2332   63.6  0.4053  -59.2
 3.500  0.3722  140.2   1.681   39.9  0.2405   63.4  0.4066  -60.7
 3.600  0.3796  138.2   1.646   38.6  0.2478   62.9  0.4066  -62.3
 3.700  0.3875  136.2   1.612   37.2  0.2551   62.4  0.4069  -63.9
 3.800  0.3958  134.4   1.579   35.7  0.2625   62.0  0.4076  -65.5
 3.900  0.4045  132.6   1.547   34.2  0.2698   61.6  0.4085  -67.1
 4.000  0.4136  130.9   1.516   32.6  0.2772   61.2  0.4098  -68.7
 4.100  0.4156  129.2   1.486   31.4  0.2843   60.6  0.4085  -70.6
 4.200  0.4180  127.5   1.457   30.2  0.2914   60.1  0.4077  -72.5
 4.300  0.4207  125.8   1.429   28.9  0.2985   59.6  0.4074  -74.4
 4.400  0.4238  124.1   1.401   27.5  0.3056   59.2  0.4075  -76.3
 4.500  0.4272  122.5   1.374   26.1  0.3128   58.7  0.4080  -78.2
 4.600  0.4333  121.2   1.353   24.9  0.3205   58.2  0.4068  -79.9
 4.700  0.4396  119.9   1.332   23.7  0.3282   57.7  0.4059  -81.5
 4.800  0.4461  118.6   1.313   22.4  0.3359   57.3  0.4053  -83.2
 4.900  0.4529  117.4   1.293   21.1  0.3436   56.8  0.4051  -84.9
 5.000  0.4598  116.2   1.275   19.7  0.3514   56.4  0.4053  -86.6
 5.100  0.4630  114.7   1.255   18.6  0.3598   55.9  0.4057  -88.2
 5.200  0.4665  113.2   1.236   17.5  0.3682   55.4  0.4064  -89.8
 5.300  0.4703  111.7   1.216   16.3  0.3767   54.9  0.4074  -91.4
 5.400  0.4745  110.2   1.198   15.1  0.3852   54.4  0.4088  -92.9
 5.500  0.4789  108.8   1.180   13.9  0.3937   54.0  0.4104  -94.5
 5.600  0.4809  107.6   1.162   13.0  0.4028   53.3  0.4114  -96.1
 5.700  0.4830  106.3   1.145   12.1  0.4119   52.6  0.4127  -97.7
 5.800  0.4854  105.1   1.128   11.1  0.4211   52.0  0.4144  -99.3
 5.900  0.4881  103.9   1.111   10.1  0.4303   51.4  0.4164 -100.9
 6.000  0.4909  102.7   1.095    9.1  0.4396   50.8  0.4187 -102.5
!
!  f       NFmin   Gammaopt  rn/50
! GHz       dB    MAG  ANG    -
!
! noise parameter not available yet for this operation point!
!
! (c) 2015  Infineon Technologies AG, Munich
