! Infineon Technologies  Discrete & RF Semiconductors
! BFR182
! VCE =  4.0 V,  IC =  6.0 mA
! Common Emitter S-Parameters:                            Nov 2015
# GHz  S  MA  R  50
!  f         S11            S21            S12            S22
! GHz     MAG   ANG      MAG   ANG      MAG   ANG      MAG   ANG
 0.010  0.8033   -3.0  16.561  177.4  0.0018   94.0  0.9894   -1.2
 0.015  0.7983   -4.2  16.587  176.1  0.0028   86.9  0.9870   -1.9
 0.020  0.7936   -5.4  16.621  174.8  0.0038   83.5  0.9848   -2.6
 0.025  0.7920   -6.8  16.572  173.7  0.0048   83.7  0.9827   -3.2
 0.030  0.7909   -8.1  16.529  172.5  0.0057   83.8  0.9808   -3.9
 0.035  0.7902   -9.5  16.493  171.4  0.0067   83.9  0.9789   -4.5
 0.040  0.7899  -10.9  16.464  170.2  0.0077   83.9  0.9772   -5.1
 0.045  0.7901  -12.2  16.441  169.1  0.0086   84.0  0.9756   -5.8
 0.050  0.7908  -13.6  16.425  167.9  0.0096   84.0  0.9741   -6.4
 0.055  0.7847  -14.8  16.311  166.9  0.0105   82.8  0.9700   -6.9
 0.060  0.7789  -16.0  16.202  165.8  0.0114   81.7  0.9660   -7.5
 0.065  0.7735  -17.2  16.099  164.8  0.0122   80.8  0.9621   -8.0
 0.070  0.7685  -18.5  16.001  163.7  0.0131   80.1  0.9582   -8.6
 0.075  0.7638  -19.8  15.909  162.6  0.0140   79.4  0.9545   -9.1
 0.080  0.7596  -21.0  15.823  161.5  0.0149   78.8  0.9509   -9.7
 0.085  0.7556  -22.3  15.743  160.4  0.0158   78.3  0.9473  -10.3
 0.090  0.7521  -23.7  15.668  159.3  0.0167   77.8  0.9438  -10.8
 0.095  0.7490  -25.0  15.600  158.1  0.0176   77.4  0.9405  -11.4
 0.100  0.7463  -26.3  15.538  157.0  0.0185   77.0  0.9372  -12.0
 0.105  0.7388  -27.4  15.415  155.9  0.0193   76.3  0.9316  -12.5
 0.110  0.7316  -28.5  15.297  154.9  0.0200   75.6  0.9260  -12.9
 0.115  0.7247  -29.7  15.185  153.8  0.0208   75.0  0.9205  -13.4
 0.120  0.7181  -30.8  15.078  152.7  0.0216   74.4  0.9151  -13.9
 0.125  0.7118  -32.0  14.977  151.6  0.0224   73.9  0.9097  -14.4
 0.130  0.7058  -33.2  14.882  150.5  0.0232   73.4  0.9044  -14.9
 0.135  0.7001  -34.4  14.792  149.3  0.0239   72.9  0.8992  -15.4
 0.140  0.6947  -35.7  14.709  148.2  0.0247   72.5  0.8940  -15.9
 0.145  0.6897  -36.9  14.631  147.0  0.0255   72.1  0.8889  -16.4
 0.150  0.6850  -38.2  14.560  145.8  0.0263   71.7  0.8839  -16.9
 0.155  0.6782  -39.1  14.420  145.1  0.0269   71.3  0.8786  -17.2
 0.160  0.6715  -40.0  14.282  144.3  0.0276   70.9  0.8733  -17.5
 0.165  0.6650  -41.0  14.147  143.5  0.0282   70.6  0.8681  -17.8
 0.170  0.6588  -41.9  14.015  142.7  0.0289   70.2  0.8628  -18.2
 0.175  0.6527  -42.9  13.885  141.9  0.0295   69.9  0.8576  -18.5
 0.180  0.6468  -43.9  13.758  141.1  0.0302   69.6  0.8525  -18.8
 0.185  0.6411  -44.9  13.634  140.3  0.0308   69.3  0.8473  -19.2
 0.190  0.6356  -46.0  13.513  139.4  0.0315   69.0  0.8422  -19.5
 0.195  0.6303  -47.0  13.395  138.6  0.0321   68.8  0.8371  -19.9
 0.200  0.6252  -48.1  13.280  137.7  0.0328   68.5  0.8321  -20.2
 0.220  0.6011  -51.6  12.772  134.8  0.0350   67.1  0.8122  -21.2
 0.240  0.5793  -55.3  12.299  131.7  0.0373   65.9  0.7925  -22.2
 0.260  0.5564  -58.9  11.855  128.9  0.0393   65.1  0.7734  -23.0
 0.280  0.5319  -62.3  11.428  126.4  0.0412   64.6  0.7546  -23.7
 0.300  0.5094  -66.1  11.024  123.7  0.0430   64.1  0.7360  -24.4
 0.320  0.4899  -68.3  10.634  122.1  0.0446   63.7  0.7220  -24.7
 0.340  0.4712  -70.8  10.252  120.4  0.0463   63.3  0.7080  -25.1
 0.360  0.4534  -73.4   9.880  118.6  0.0479   63.0  0.6940  -25.4
 0.380  0.4366  -76.2   9.519  116.6  0.0496   62.7  0.6800  -25.8
 0.400  0.4210  -79.3   9.170  114.5  0.0512   62.4  0.6661  -26.2
 0.420  0.4070  -81.3   8.864  113.1  0.0526   62.2  0.6567  -26.3
 0.440  0.3936  -83.5   8.563  111.7  0.0541   62.1  0.6472  -26.5
 0.450  0.3871  -84.7   8.415  110.9  0.0548   62.0  0.6425  -26.5
 0.460  0.3808  -85.9   8.269  110.1  0.0555   62.0  0.6378  -26.6
 0.480  0.3686  -88.3   7.981  108.4  0.0570   61.8  0.6284  -26.8
 0.500  0.3572  -91.0   7.700  106.6  0.0584   61.7  0.6190  -26.9
 0.520  0.3451  -92.9   7.494  105.5  0.0598   61.8  0.6122  -27.0
 0.540  0.3334  -94.9   7.291  104.3  0.0612   61.8  0.6054  -27.1
 0.560  0.3221  -97.0   7.092  103.1  0.0626   61.9  0.5985  -27.1
 0.580  0.3113  -99.3   6.895  101.8  0.0640   61.9  0.5917  -27.2
 0.600  0.3010 -101.8   6.703  100.4  0.0654   62.0  0.5849  -27.3
 0.620  0.2924 -103.5   6.540   99.5  0.0668   62.0  0.5797  -27.3
 0.640  0.2841 -105.4   6.378   98.5  0.0682   62.1  0.5745  -27.4
 0.660  0.2761 -107.3   6.219   97.4  0.0697   62.1  0.5692  -27.4
 0.680  0.2685 -109.3   6.061   96.3  0.0711   62.2  0.5640  -27.5
 0.700  0.2612 -111.5   5.906   95.2  0.0725   62.2  0.5588  -27.5
 0.720  0.2556 -113.3   5.771   94.4  0.0740   62.3  0.5553  -27.5
 0.740  0.2504 -115.1   5.638   93.5  0.0755   62.5  0.5518  -27.5
 0.760  0.2453 -117.1   5.506   92.6  0.0769   62.6  0.5482  -27.6
 0.780  0.2406 -119.1   5.375   91.6  0.0784   62.7  0.5447  -27.6
 0.800  0.2362 -121.2   5.246   90.6  0.0799   62.8  0.5412  -27.6
 0.820  0.2309 -122.8   5.137   89.9  0.0814   62.8  0.5384  -27.7
 0.840  0.2257 -124.4   5.029   89.2  0.0829   62.9  0.5356  -27.8
 0.860  0.2207 -126.1   4.921   88.4  0.0844   62.9  0.5329  -27.8
 0.880  0.2160 -127.8   4.815   87.6  0.0859   63.0  0.5301  -27.9
 0.900  0.2114 -129.7   4.709   86.8  0.0874   63.0  0.5273  -28.0
 0.920  0.2072 -131.5   4.625   86.2  0.0888   63.1  0.5254  -28.1
 0.940  0.2033 -133.3   4.541   85.5  0.0902   63.2  0.5235  -28.2
 0.960  0.1996 -135.2   4.459   84.8  0.0915   63.2  0.5216  -28.2
 0.980  0.1961 -137.2   4.376   84.1  0.0929   63.3  0.5197  -28.3
 1.000  0.1928 -139.2   4.295   83.3  0.0943   63.4  0.5178  -28.4
 1.020  0.1905 -141.3   4.227   82.7  0.0957   63.5  0.5161  -28.5
 1.040  0.1884 -143.4   4.160   82.0  0.0971   63.5  0.5143  -28.7
 1.060  0.1866 -145.6   4.094   81.4  0.0986   63.6  0.5126  -28.8
 1.080  0.1850 -147.8   4.027   80.7  0.1000   63.6  0.5108  -29.0
 1.100  0.1838 -150.1   3.962   80.0  0.1014   63.7  0.5091  -29.1
 1.120  0.1820 -152.0   3.901   79.4  0.1030   63.8  0.5076  -29.2
 1.140  0.1805 -154.0   3.841   78.7  0.1046   63.9  0.5062  -29.4
 1.160  0.1791 -156.0   3.781   78.0  0.1061   63.9  0.5047  -29.5
 1.180  0.1780 -158.0   3.722   77.3  0.1077   64.0  0.5033  -29.7
 1.200  0.1771 -160.0   3.663   76.6  0.1093   64.1  0.5018  -29.8
 1.220  0.1754 -161.7   3.610   76.1  0.1109   64.0  0.5004  -30.0
 1.240  0.1738 -163.4   3.557   75.6  0.1125   63.9  0.4989  -30.1
 1.260  0.1724 -165.1   3.504   75.0  0.1141   63.9  0.4975  -30.3
 1.280  0.1712 -166.9   3.452   74.5  0.1157   63.8  0.4961  -30.4
 1.300  0.1701 -168.7   3.400   73.9  0.1173   63.7  0.4947  -30.6
 1.320  0.1696 -170.5   3.355   73.4  0.1187   63.8  0.4937  -30.8
 1.340  0.1692 -172.4   3.311   72.8  0.1201   63.8  0.4926  -31.0
 1.360  0.1690 -174.2   3.266   72.3  0.1216   63.9  0.4916  -31.2
 1.380  0.1689 -176.1   3.223   71.7  0.1230   63.9  0.4906  -31.4
 1.400  0.1691 -177.9   3.179   71.1  0.1244   64.0  0.4896  -31.6
 1.420  0.1690 -179.0   3.144   70.6  0.1260   63.9  0.4886  -31.8
 1.440  0.1689  180.0   3.108   70.1  0.1276   63.9  0.4875  -32.0
 1.460  0.1689  178.9   3.073   69.6  0.1293   63.8  0.4865  -32.1
 1.480  0.1689  177.9   3.039   69.1  0.1309   63.8  0.4855  -32.3
 1.500  0.1690  176.8   3.004   68.6  0.1325   63.7  0.4845  -32.5
 1.520  0.1690  174.8   2.968   68.0  0.1342   63.7  0.4833  -32.7
 1.540  0.1692  172.9   2.933   67.4  0.1359   63.7  0.4820  -32.9
 1.560  0.1697  170.9   2.897   66.8  0.1376   63.6  0.4808  -33.1
 1.580  0.1703  168.9   2.863   66.2  0.1393   63.6  0.4796  -33.3
 1.600  0.1711  167.0   2.828   65.5  0.1410   63.6  0.4784  -33.5
 1.620  0.1717  165.7   2.798   65.0  0.1426   63.5  0.4773  -33.7
 1.640  0.1725  164.5   2.768   64.6  0.1442   63.4  0.4761  -33.9
 1.660  0.1733  163.2   2.738   64.1  0.1458   63.4  0.4750  -34.2
 1.680  0.1741  162.0   2.708   63.6  0.1474   63.3  0.4739  -34.4
 1.700  0.1751  160.8   2.679   63.1  0.1490   63.2  0.4728  -34.6
 1.720  0.1766  159.3   2.654   62.7  0.1506   63.1  0.4721  -34.9
 1.740  0.1783  157.8   2.630   62.2  0.1522   63.1  0.4713  -35.1
 1.760  0.1800  156.4   2.605   61.7  0.1539   63.0  0.4706  -35.4
 1.780  0.1819  155.0   2.581   61.3  0.1555   63.0  0.4699  -35.6
 1.800  0.1839  153.6   2.557   60.8  0.1571   62.9  0.4692  -35.9
 1.820  0.1854  152.9   2.534   60.3  0.1588   62.8  0.4682  -36.2
 1.840  0.1869  152.1   2.511   59.8  0.1606   62.7  0.4672  -36.5
 1.860  0.1884  151.4   2.488   59.3  0.1623   62.6  0.4662  -36.7
 1.880  0.1899  150.7   2.465   58.8  0.1641   62.5  0.4652  -37.0
 1.900  0.1915  150.0   2.443   58.3  0.1658   62.4  0.4642  -37.3
 1.920  0.1928  148.7   2.421   57.9  0.1674   62.3  0.4633  -37.6
 1.940  0.1942  147.5   2.399   57.4  0.1690   62.2  0.4625  -37.8
 1.960  0.1957  146.3   2.377   56.9  0.1707   62.2  0.4617  -38.1
 1.980  0.1973  145.1   2.355   56.5  0.1723   62.1  0.4608  -38.3
 2.000  0.1990  143.9   2.333   56.0  0.1739   62.0  0.4600  -38.6
 2.020  0.2003  142.9   2.314   55.6  0.1757   61.9  0.4587  -38.9
 2.040  0.2016  142.0   2.295   55.1  0.1775   61.8  0.4575  -39.2
 2.060  0.2030  141.1   2.277   54.7  0.1793   61.7  0.4562  -39.5
 2.080  0.2045  140.1   2.258   54.2  0.1811   61.6  0.4550  -39.7
 2.100  0.2060  139.2   2.240   53.8  0.1829   61.5  0.4538  -40.0
 2.120  0.2075  138.3   2.222   53.3  0.1847   61.4  0.4526  -40.3
 2.140  0.2091  137.5   2.204   52.9  0.1865   61.4  0.4514  -40.6
 2.160  0.2108  136.6   2.186   52.4  0.1883   61.3  0.4502  -40.9
 2.180  0.2125  135.7   2.169   51.9  0.1901   61.2  0.4491  -41.2
 2.200  0.2142  134.9   2.151   51.4  0.1919   61.1  0.4479  -41.5
 2.220  0.2160  134.1   2.136   51.0  0.1936   61.0  0.4468  -41.8
 2.240  0.2179  133.3   2.122   50.5  0.1954   60.8  0.4456  -42.1
 2.260  0.2198  132.5   2.108   50.1  0.1971   60.7  0.4445  -42.4
 2.280  0.2217  131.7   2.093   49.7  0.1988   60.6  0.4434  -42.7
 2.300  0.2237  130.9   2.079   49.2  0.2005   60.4  0.4423  -43.0
 2.320  0.2257  130.2   2.065   48.8  0.2023   60.3  0.4412  -43.3
 2.340  0.2278  129.4   2.052   48.3  0.2040   60.2  0.4401  -43.7
 2.360  0.2299  128.7   2.038   47.8  0.2057   60.0  0.4391  -44.0
 2.380  0.2320  128.0   2.024   47.4  0.2075   59.9  0.4380  -44.3
 2.400  0.2342  127.3   2.011   46.9  0.2092   59.8  0.4370  -44.6
 2.420  0.2365  126.5   1.998   46.5  0.2110   59.6  0.4354  -44.9
 2.440  0.2388  125.8   1.985   46.1  0.2128   59.5  0.4338  -45.3
 2.460  0.2412  125.1   1.972   45.7  0.2147   59.3  0.4322  -45.6
 2.480  0.2436  124.3   1.959   45.3  0.2165   59.2  0.4306  -46.0
 2.500  0.2460  123.6   1.947   44.9  0.2183   59.0  0.4290  -46.3
 2.520  0.2485  122.9   1.934   44.5  0.2202   58.9  0.4274  -46.7
 2.540  0.2510  122.3   1.922   44.1  0.2220   58.7  0.4259  -47.0
 2.560  0.2535  121.6   1.909   43.7  0.2238   58.6  0.4244  -47.4
 2.580  0.2561  120.9   1.897   43.2  0.2257   58.4  0.4229  -47.7
 2.600  0.2587  120.3   1.885   42.8  0.2275   58.3  0.4214  -48.1
 2.620  0.2607  119.8   1.874   42.4  0.2293   58.1  0.4202  -48.5
 2.640  0.2628  119.3   1.863   42.1  0.2311   58.0  0.4191  -48.8
 2.660  0.2649  118.8   1.853   41.7  0.2329   57.8  0.4179  -49.2
 2.680  0.2670  118.3   1.842   41.3  0.2348   57.7  0.4168  -49.6
 2.700  0.2691  117.8   1.831   40.9  0.2366   57.5  0.4157  -50.0
 2.720  0.2712  117.3   1.821   40.5  0.2384   57.4  0.4146  -50.4
 2.740  0.2733  116.9   1.811   40.1  0.2402   57.2  0.4135  -50.7
 2.760  0.2755  116.4   1.800   39.7  0.2420   57.1  0.4125  -51.1
 2.780  0.2777  115.9   1.790   39.3  0.2439   56.9  0.4114  -51.5
 2.800  0.2799  115.5   1.780   38.9  0.2457   56.8  0.4104  -51.9
 2.820  0.2821  115.0   1.770   38.5  0.2475   56.6  0.4086  -52.3
 2.840  0.2844  114.5   1.760   38.1  0.2494   56.5  0.4068  -52.7
 2.860  0.2867  114.1   1.751   37.7  0.2512   56.3  0.4050  -53.0
 2.880  0.2890  113.6   1.741   37.3  0.2530   56.1  0.4032  -53.4
 2.900  0.2913  113.2   1.732   36.9  0.2549   56.0  0.4014  -53.8
 2.920  0.2936  112.7   1.722   36.4  0.2567   55.8  0.3997  -54.2
 2.940  0.2960  112.3   1.713   36.0  0.2586   55.7  0.3980  -54.6
 2.960  0.2983  111.8   1.704   35.6  0.2604   55.5  0.3962  -55.0
 2.980  0.3007  111.4   1.695   35.1  0.2623   55.3  0.3946  -55.4
 3.000  0.3031  111.0   1.686   34.7  0.2641   55.2  0.3929  -55.8
 3.100  0.3153  108.9   1.644   33.0  0.2735   54.2  0.3834  -58.1
 3.200  0.3279  107.0   1.604   31.2  0.2830   53.2  0.3746  -60.5
 3.300  0.3408  105.3   1.566   29.4  0.2926   52.3  0.3664  -63.0
 3.400  0.3540  103.6   1.529   27.4  0.3022   51.4  0.3590  -65.6
 3.500  0.3675  102.1   1.494   25.4  0.3119   50.6  0.3523  -68.3
 3.600  0.3784  100.5   1.464   23.8  0.3213   49.4  0.3418  -71.2
 3.700  0.3896   99.0   1.435   22.0  0.3309   48.3  0.3323  -74.4
 3.800  0.4010   97.6   1.408   20.3  0.3405   47.2  0.3238  -77.6
 3.900  0.4126   96.3   1.382   18.4  0.3503   46.2  0.3165  -81.1
 4.000  0.4245   95.0   1.357   16.5  0.3602   45.3  0.3103  -84.7
 4.100  0.4346   93.8   1.332   15.0  0.3695   44.0  0.3006  -88.3
 4.200  0.4449   92.6   1.308   13.4  0.3790   42.8  0.2923  -92.1
 4.300  0.4554   91.4   1.284   11.8  0.3886   41.6  0.2852  -96.1
 4.400  0.4660   90.3   1.262   10.1  0.3984   40.5  0.2797 -100.3
 4.500  0.4768   89.3   1.241    8.4  0.4083   39.5  0.2757 -104.7
 4.600  0.4857   88.1   1.221    7.0  0.4172   38.2  0.2683 -108.8
 4.700  0.4948   86.9   1.201    5.5  0.4264   36.9  0.2623 -113.2
 4.800  0.5041   85.8   1.183    4.0  0.4357   35.6  0.2579 -117.7
 4.900  0.5136   84.7   1.165    2.4  0.4453   34.4  0.2552 -122.4
 5.000  0.5233   83.6   1.148    0.8  0.4550   33.3  0.2542 -127.1
 5.100  0.5303   82.5   1.128   -0.5  0.4629   31.9  0.2500 -131.9
 5.200  0.5375   81.4   1.109   -1.9  0.4711   30.5  0.2476 -136.8
 5.300  0.5448   80.3   1.091   -3.3  0.4795   29.2  0.2470 -141.8
 5.400  0.5524   79.3   1.073   -4.8  0.4882   27.9  0.2483 -146.8
 5.500  0.5601   78.3   1.056   -6.3  0.4971   26.7  0.2515 -151.7
 5.600  0.5678   77.2   1.038   -7.6  0.5030   25.1  0.2481 -156.2
 5.700  0.5758   76.1   1.020   -8.8  0.5093   23.6  0.2462 -160.9
 5.800  0.5839   75.0   1.003  -10.2  0.5159   22.1  0.2460 -165.6
 5.900  0.5923   74.0   0.987  -11.6  0.5228   20.7  0.2475 -170.2
 6.000  0.6008   73.0   0.971  -13.0  0.5301   19.3  0.2505 -174.8
!
!  f       NFmin   Gammaopt  rn/50
! GHz       dB    MAG  ANG    -
 0.450      1.20  0.27   37   0.30
 0.900      1.30  0.25   75   0.23
 1.800      1.90  0.21  145   0.20
!
! (c) 2015  Infineon Technologies AG, Munich
