! Infineon Technologies  Discrete & RF Semiconductors
! BFR182
! VCE =  3.5 V,  IC =  8.0 mA
! Common Emitter S-Parameters:                            Nov 2015
# GHz  S  MA  R  50
!  f         S11            S21            S12            S22
! GHz     MAG   ANG      MAG   ANG      MAG   ANG      MAG   ANG
 0.010  0.7457   -3.3  20.676  177.0  0.0017   91.5  0.9854   -1.5
 0.015  0.7450   -4.8  20.506  175.5  0.0026   86.8  0.9826   -2.3
 0.020  0.7448   -6.4  20.350  174.0  0.0035   84.5  0.9801   -3.2
 0.025  0.7414   -8.0  20.266  172.6  0.0045   84.4  0.9771   -3.9
 0.030  0.7386   -9.7  20.194  171.3  0.0055   84.3  0.9742   -4.7
 0.035  0.7363  -11.3  20.134  169.9  0.0065   84.2  0.9715   -5.4
 0.040  0.7347  -13.0  20.085  168.5  0.0076   84.2  0.9690   -6.1
 0.045  0.7338  -14.6  20.048  167.1  0.0086   84.1  0.9666   -6.9
 0.050  0.7334  -16.3  20.023  165.7  0.0096   84.1  0.9644   -7.6
 0.055  0.7258  -17.7  19.862  164.5  0.0104   82.7  0.9588   -8.2
 0.060  0.7185  -19.1  19.710  163.3  0.0112   81.5  0.9533   -8.8
 0.065  0.7118  -20.5  19.568  162.0  0.0120   80.5  0.9479   -9.5
 0.070  0.7055  -22.0  19.434  160.8  0.0128   79.6  0.9427  -10.1
 0.075  0.6996  -23.5  19.311  159.5  0.0136   78.8  0.9375  -10.8
 0.080  0.6942  -25.0  19.196  158.2  0.0144   78.1  0.9325  -11.4
 0.085  0.6893  -26.5  19.092  156.9  0.0152   77.5  0.9276  -12.1
 0.090  0.6849  -28.0  18.998  155.6  0.0161   77.0  0.9229  -12.7
 0.095  0.6811  -29.6  18.914  154.2  0.0169   76.5  0.9182  -13.4
 0.100  0.6777  -31.2  18.840  152.9  0.0177   76.0  0.9137  -14.1
 0.105  0.6693  -32.3  18.612  151.8  0.0184   75.3  0.9068  -14.6
 0.110  0.6612  -33.5  18.390  150.7  0.0191   74.7  0.8999  -15.0
 0.115  0.6533  -34.7  18.175  149.6  0.0198   74.1  0.8931  -15.5
 0.120  0.6457  -35.9  17.968  148.5  0.0206   73.6  0.8864  -16.0
 0.125  0.6385  -37.2  17.767  147.3  0.0213   73.1  0.8797  -16.5
 0.130  0.6315  -38.4  17.574  146.1  0.0220   72.6  0.8731  -17.0
 0.135  0.6249  -39.7  17.389  144.9  0.0227   72.2  0.8665  -17.5
 0.140  0.6186  -41.1  17.212  143.7  0.0234   71.8  0.8601  -18.0
 0.145  0.6126  -42.4  17.043  142.4  0.0242   71.4  0.8536  -18.5
 0.150  0.6070  -43.8  16.883  141.1  0.0249   71.0  0.8473  -19.0
 0.155  0.5993  -44.8  16.694  140.3  0.0255   70.6  0.8409  -19.3
 0.160  0.5919  -45.9  16.508  139.5  0.0261   70.2  0.8346  -19.6
 0.165  0.5846  -47.0  16.326  138.6  0.0267   69.9  0.8283  -19.9
 0.170  0.5776  -48.1  16.148  137.8  0.0272   69.5  0.8220  -20.2
 0.175  0.5708  -49.2  15.973  136.9  0.0278   69.2  0.8158  -20.5
 0.180  0.5642  -50.4  15.802  136.0  0.0284   68.9  0.8096  -20.9
 0.185  0.5578  -51.6  15.635  135.1  0.0290   68.5  0.8033  -21.2
 0.190  0.5517  -52.8  15.472  134.1  0.0296   68.3  0.7972  -21.5
 0.195  0.5459  -54.0  15.313  133.2  0.0302   68.0  0.7910  -21.9
 0.200  0.5403  -55.3  15.159  132.2  0.0308   67.7  0.7849  -22.2
 0.220  0.5127  -59.0  14.475  129.3  0.0326   66.7  0.7619  -23.0
 0.240  0.4874  -63.1  13.831  126.2  0.0343   65.8  0.7391  -23.9
 0.260  0.4648  -66.8  13.217  123.5  0.0361   65.4  0.7188  -24.5
 0.280  0.4439  -70.1  12.613  121.2  0.0380   65.3  0.7007  -24.9
 0.300  0.4245  -73.6  12.030  118.8  0.0399   65.2  0.6827  -25.4
 0.320  0.4072  -75.9  11.566  117.3  0.0414   64.9  0.6702  -25.6
 0.340  0.3905  -78.3  11.110  115.7  0.0430   64.7  0.6577  -25.7
 0.360  0.3747  -81.0  10.664  114.0  0.0445   64.4  0.6452  -25.9
 0.380  0.3597  -83.9  10.228  112.1  0.0461   64.2  0.6327  -26.1
 0.400  0.3457  -87.0   9.805  110.0  0.0476   64.0  0.6202  -26.3
 0.420  0.3320  -89.2   9.465  108.7  0.0492   64.1  0.6112  -26.3
 0.440  0.3188  -91.5   9.130  107.3  0.0508   64.2  0.6022  -26.3
 0.450  0.3124  -92.8   8.964  106.5  0.0515   64.2  0.5977  -26.3
 0.460  0.3062  -94.1   8.801  105.8  0.0523   64.3  0.5932  -26.3
 0.480  0.2942  -96.8   8.478  104.2  0.0539   64.3  0.5842  -26.3
 0.500  0.2830  -99.8   8.163  102.4  0.0555   64.4  0.5752  -26.3
 0.520  0.2750 -101.7   7.928  101.4  0.0570   64.6  0.5692  -26.3
 0.540  0.2673 -103.8   7.696  100.4  0.0584   64.8  0.5632  -26.3
 0.560  0.2599 -105.9   7.467   99.4  0.0599   65.0  0.5571  -26.3
 0.580  0.2529 -108.2   7.240   98.2  0.0613   65.1  0.5511  -26.3
 0.600  0.2464 -110.6   7.016   97.0  0.0628   65.3  0.5451  -26.3
 0.620  0.2398 -112.4   6.836   96.1  0.0644   65.4  0.5410  -26.3
 0.640  0.2335 -114.2   6.658   95.2  0.0659   65.6  0.5370  -26.3
 0.660  0.2275 -116.2   6.482   94.3  0.0675   65.7  0.5329  -26.3
 0.680  0.2217 -118.2   6.307   93.3  0.0690   65.8  0.5289  -26.3
 0.700  0.2162 -120.4   6.135   92.2  0.0706   65.9  0.5248  -26.3
 0.720  0.2112 -122.3   5.989   91.5  0.0722   65.9  0.5221  -26.3
 0.740  0.2065 -124.3   5.844   90.7  0.0738   65.9  0.5194  -26.4
 0.760  0.2020 -126.4   5.700   89.9  0.0753   65.8  0.5168  -26.4
 0.780  0.1978 -128.6   5.557   89.0  0.0769   65.8  0.5141  -26.5
 0.800  0.1939 -130.9   5.416   88.1  0.0785   65.8  0.5114  -26.5
 0.820  0.1896 -132.6   5.305   87.4  0.0801   65.9  0.5094  -26.5
 0.840  0.1855 -134.4   5.194   86.7  0.0817   66.0  0.5075  -26.6
 0.860  0.1816 -136.3   5.085   86.0  0.0833   66.1  0.5055  -26.6
 0.880  0.1779 -138.3   4.976   85.2  0.0849   66.2  0.5036  -26.7
 0.900  0.1744 -140.3   4.868   84.4  0.0865   66.3  0.5016  -26.7
 0.920  0.1716 -142.6   4.780   83.8  0.0880   66.3  0.4997  -26.8
 0.940  0.1691 -144.9   4.693   83.1  0.0895   66.3  0.4978  -26.9
 0.960  0.1669 -147.3   4.607   82.4  0.0911   66.3  0.4960  -27.0
 0.980  0.1650 -149.8   4.521   81.7  0.0926   66.3  0.4941  -27.1
 1.000  0.1634 -152.3   4.436   81.0  0.0941   66.3  0.4922  -27.2
 1.020  0.1618 -154.1   4.365   80.5  0.0958   66.3  0.4907  -27.3
 1.040  0.1604 -155.9   4.294   79.9  0.0974   66.4  0.4892  -27.5
 1.060  0.1591 -157.8   4.223   79.3  0.0991   66.4  0.4878  -27.6
 1.080  0.1580 -159.7   4.153   78.7  0.1007   66.5  0.4863  -27.8
 1.100  0.1571 -161.6   4.083   78.1  0.1024   66.5  0.4848  -27.9
 1.120  0.1565 -163.7   4.018   77.5  0.1041   66.5  0.4836  -28.0
 1.140  0.1561 -165.7   3.954   76.9  0.1057   66.5  0.4823  -28.2
 1.160  0.1559 -167.8   3.891   76.2  0.1074   66.6  0.4811  -28.3
 1.180  0.1559 -169.9   3.828   75.6  0.1090   66.6  0.4798  -28.5
 1.200  0.1561 -172.0   3.765   74.9  0.1107   66.6  0.4786  -28.6
 1.220  0.1556 -173.6   3.709   74.4  0.1124   66.5  0.4775  -28.8
 1.240  0.1552 -175.2   3.653   73.9  0.1140   66.4  0.4764  -28.9
 1.260  0.1550 -176.8   3.598   73.4  0.1157   66.4  0.4753  -29.1
 1.280  0.1548 -178.4   3.543   72.9  0.1173   66.3  0.4742  -29.2
 1.300  0.1548 -180.0   3.488   72.3  0.1190   66.2  0.4731  -29.4
 1.320  0.1547  178.4   3.442   71.8  0.1206   66.2  0.4722  -29.6
 1.340  0.1547  176.7   3.396   71.3  0.1222   66.2  0.4712  -29.8
 1.360  0.1548  175.1   3.350   70.7  0.1239   66.1  0.4703  -30.1
 1.380  0.1551  173.4   3.304   70.2  0.1255   66.1  0.4694  -30.3
 1.400  0.1555  171.8   3.259   69.6  0.1271   66.1  0.4685  -30.5
 1.420  0.1560  170.8   3.222   69.1  0.1288   66.0  0.4677  -30.7
 1.440  0.1566  169.8   3.186   68.7  0.1305   65.9  0.4668  -30.9
 1.460  0.1572  168.8   3.150   68.2  0.1321   65.9  0.4660  -31.1
 1.480  0.1578  167.8   3.114   67.7  0.1338   65.8  0.4652  -31.3
 1.500  0.1585  166.8   3.078   67.2  0.1355   65.7  0.4644  -31.5
 1.520  0.1599  165.2   3.039   66.7  0.1373   65.6  0.4635  -31.7
 1.540  0.1614  163.5   3.001   66.1  0.1390   65.5  0.4626  -31.9
 1.560  0.1631  162.0   2.963   65.6  0.1408   65.4  0.4617  -32.2
 1.580  0.1649  160.4   2.925   65.0  0.1425   65.3  0.4608  -32.4
 1.600  0.1668  158.9   2.887   64.4  0.1443   65.2  0.4599  -32.6
 1.620  0.1673  157.4   2.857   63.9  0.1459   65.1  0.4590  -32.8
 1.640  0.1679  156.0   2.828   63.5  0.1475   65.0  0.4581  -33.1
 1.660  0.1686  154.5   2.798   63.0  0.1492   65.0  0.4572  -33.3
 1.680  0.1694  153.1   2.769   62.5  0.1508   64.9  0.4564  -33.6
 1.700  0.1703  151.7   2.740   62.0  0.1524   64.8  0.4555  -33.8
 1.720  0.1718  150.4   2.714   61.6  0.1542   64.7  0.4546  -34.1
 1.740  0.1735  149.2   2.689   61.1  0.1559   64.6  0.4536  -34.3
 1.760  0.1752  148.0   2.664   60.7  0.1577   64.4  0.4527  -34.6
 1.780  0.1769  146.8   2.639   60.3  0.1594   64.3  0.4518  -34.8
 1.800  0.1788  145.6   2.614   59.8  0.1612   64.2  0.4509  -35.1
 1.820  0.1806  144.7   2.591   59.3  0.1631   64.1  0.4499  -35.4
 1.840  0.1825  143.8   2.569   58.9  0.1650   64.0  0.4489  -35.7
 1.860  0.1844  143.0   2.547   58.4  0.1668   63.9  0.4480  -35.9
 1.880  0.1864  142.1   2.525   57.9  0.1687   63.8  0.4470  -36.2
 1.900  0.1884  141.3   2.503   57.4  0.1706   63.7  0.4461  -36.5
 1.920  0.1899  140.5   2.480   57.0  0.1723   63.6  0.4451  -36.8
 1.940  0.1915  139.8   2.457   56.5  0.1740   63.4  0.4442  -37.1
 1.960  0.1931  139.0   2.434   56.1  0.1756   63.3  0.4432  -37.3
 1.980  0.1947  138.3   2.411   55.7  0.1773   63.1  0.4423  -37.6
 2.000  0.1964  137.6   2.388   55.2  0.1790   63.0  0.4414  -37.9
 2.020  0.1977  136.8   2.368   54.8  0.1808   62.9  0.4403  -38.2
 2.040  0.1990  136.0   2.348   54.4  0.1825   62.7  0.4392  -38.5
 2.060  0.2004  135.2   2.329   54.0  0.1843   62.6  0.4382  -38.8
 2.080  0.2018  134.4   2.309   53.5  0.1860   62.5  0.4371  -39.1
 2.100  0.2033  133.7   2.290   53.1  0.1878   62.4  0.4361  -39.4
 2.120  0.2047  132.9   2.271   52.6  0.1896   62.3  0.4351  -39.7
 2.140  0.2062  132.2   2.251   52.2  0.1913   62.1  0.4341  -40.1
 2.160  0.2078  131.4   2.232   51.7  0.1931   62.0  0.4331  -40.4
 2.180  0.2094  130.7   2.214   51.3  0.1948   61.9  0.4321  -40.7
 2.200  0.2110  130.0   2.195   50.8  0.1966   61.8  0.4311  -41.0
 2.220  0.2130  129.2   2.181   50.4  0.1985   61.6  0.4298  -41.3
 2.240  0.2151  128.4   2.166   49.9  0.2003   61.5  0.4284  -41.6
 2.260  0.2172  127.6   2.152   49.5  0.2022   61.3  0.4271  -41.9
 2.280  0.2194  126.8   2.138   49.1  0.2040   61.2  0.4258  -42.2
 2.300  0.2216  126.0   2.124   48.6  0.2059   61.0  0.4245  -42.5
 2.320  0.2239  125.3   2.110   48.2  0.2077   60.9  0.4233  -42.8
 2.340  0.2261  124.5   2.096   47.7  0.2096   60.7  0.4220  -43.2
 2.360  0.2285  123.8   2.083   47.2  0.2115   60.6  0.4208  -43.5
 2.380  0.2308  123.1   2.069   46.8  0.2133   60.4  0.4195  -43.8
 2.400  0.2332  122.4   2.056   46.3  0.2152   60.3  0.4183  -44.1
 2.420  0.2357  121.9   2.042   45.9  0.2170   60.1  0.4168  -44.4
 2.440  0.2383  121.4   2.028   45.5  0.2188   59.9  0.4154  -44.8
 2.460  0.2409  120.9   2.014   45.2  0.2206   59.7  0.4140  -45.2
 2.480  0.2435  120.4   2.000   44.8  0.2224   59.5  0.4125  -45.5
 2.500  0.2461  119.9   1.986   44.4  0.2242   59.4  0.4111  -45.9
 2.520  0.2488  119.4   1.973   44.0  0.2260   59.2  0.4098  -46.2
 2.540  0.2514  118.9   1.959   43.6  0.2278   59.0  0.4084  -46.6
 2.560  0.2541  118.5   1.946   43.1  0.2296   58.8  0.4070  -47.0
 2.580  0.2568  118.0   1.932   42.7  0.2314   58.7  0.4057  -47.3
 2.600  0.2595  117.6   1.919   42.3  0.2332   58.5  0.4044  -47.7
 2.620  0.2611  117.0   1.908   41.9  0.2351   58.3  0.4030  -48.1
 2.640  0.2628  116.5   1.898   41.6  0.2370   58.1  0.4016  -48.4
 2.660  0.2645  115.9   1.888   41.2  0.2388   58.0  0.4002  -48.8
 2.680  0.2662  115.4   1.877   40.8  0.2407   57.8  0.3988  -49.2
 2.700  0.2680  114.9   1.867   40.5  0.2426   57.6  0.3974  -49.6
 2.720  0.2697  114.3   1.857   40.1  0.2445   57.4  0.3961  -49.9
 2.740  0.2715  113.8   1.847   39.7  0.2464   57.3  0.3948  -50.3
 2.760  0.2733  113.3   1.837   39.3  0.2483   57.1  0.3935  -50.7
 2.780  0.2751  112.8   1.827   38.9  0.2502   57.0  0.3922  -51.1
 2.800  0.2770  112.3   1.817   38.5  0.2521   56.8  0.3909  -51.5
 2.820  0.2793  112.0   1.807   38.1  0.2539   56.6  0.3892  -51.9
 2.840  0.2817  111.6   1.796   37.7  0.2557   56.4  0.3876  -52.3
 2.860  0.2840  111.3   1.786   37.3  0.2575   56.2  0.3859  -52.7
 2.880  0.2864  111.0   1.776   37.0  0.2593   56.0  0.3843  -53.1
 2.900  0.2887  110.7   1.766   36.6  0.2611   55.9  0.3827  -53.5
 2.920  0.2911  110.4   1.756   36.2  0.2629   55.7  0.3811  -53.9
 2.940  0.2935  110.1   1.746   35.7  0.2647   55.5  0.3796  -54.3
 2.960  0.2959  109.8   1.736   35.3  0.2666   55.3  0.3780  -54.8
 2.980  0.2983  109.5   1.727   34.9  0.2684   55.2  0.3765  -55.2
 3.000  0.3007  109.2   1.717   34.5  0.2702   55.0  0.3750  -55.6
 3.100  0.3126  107.3   1.675   32.8  0.2795   53.9  0.3652  -57.9
 3.200  0.3249  105.5   1.634   31.0  0.2889   52.8  0.3560  -60.3
 3.300  0.3374  103.8   1.594   29.2  0.2984   51.9  0.3474  -62.8
 3.400  0.3503  102.3   1.557   27.2  0.3080   51.0  0.3396  -65.4
 3.500  0.3633  100.9   1.521   25.2  0.3177   50.1  0.3325  -68.2
 3.600  0.3745   99.4   1.491   23.6  0.3270   48.9  0.3216  -71.2
 3.700  0.3859   98.0   1.462   21.9  0.3365   47.7  0.3116  -74.3
 3.800  0.3975   96.7   1.434   20.1  0.3461   46.6  0.3026  -77.7
 3.900  0.4094   95.5   1.408   18.3  0.3558   45.6  0.2948  -81.3
 4.000  0.4214   94.3   1.383   16.4  0.3656   44.6  0.2881  -85.0
 4.100  0.4322   93.1   1.358   14.9  0.3745   43.3  0.2781  -88.7
 4.200  0.4432   91.9   1.334   13.3  0.3837   42.0  0.2693  -92.6
 4.300  0.4544   90.8   1.311   11.7  0.3930   40.8  0.2618  -96.7
 4.400  0.4657   89.8   1.289   10.0  0.4025   39.7  0.2558 -101.1
 4.500  0.4772   88.8   1.268    8.3  0.4121   38.6  0.2514 -105.7
 4.600  0.4857   87.6   1.247    6.9  0.4206   37.3  0.2446 -110.0
 4.700  0.4944   86.5   1.227    5.4  0.4293   36.0  0.2392 -114.5
 4.800  0.5033   85.4   1.208    3.9  0.4383   34.8  0.2353 -119.2
 4.900  0.5124   84.3   1.189    2.3  0.4474   33.6  0.2331 -124.0
 5.000  0.5216   83.3   1.172    0.7  0.4567   32.5  0.2326 -128.9
 5.100  0.5295   82.2   1.151   -0.6  0.4644   31.1  0.2288 -133.9
 5.200  0.5375   81.1   1.132   -2.0  0.4725   29.7  0.2267 -139.0
 5.300  0.5457   80.1   1.112   -3.4  0.4807   28.4  0.2266 -144.2
 5.400  0.5541   79.1   1.094   -4.9  0.4892   27.1  0.2282 -149.4
 5.500  0.5627   78.1   1.076   -6.4  0.4980   25.9  0.2317 -154.4
 5.600  0.5703   77.0   1.058   -7.7  0.5035   24.3  0.2286 -159.1
 5.700  0.5782   76.0   1.040   -8.9  0.5094   22.8  0.2272 -163.9
 5.800  0.5862   75.0   1.023  -10.3  0.5157   21.4  0.2273 -168.7
 5.900  0.5944   74.0   1.007  -11.7  0.5223   19.9  0.2290 -173.5
 6.000  0.6028   73.0   0.991  -13.1  0.5292   18.5  0.2323 -178.2
!
!  f       NFmin   Gammaopt  rn/50
! GHz       dB    MAG  ANG    -
 0.450      1.40  0.26   41   0.29
 0.900      1.50  0.25   83   0.23
 1.800      2.00  0.21  162   0.20
!
! (c) 2015  Infineon Technologies AG, Munich
