! Infineon Technologies  Discrete & RF Semiconductors
! BFR106
! VCE =  3.0 V,  IC =  1.0 mA
! Common Emitter S-Parameters:                            Nov 2015
# GHz  S  MA  R  50
!  f         S11            S21            S12            S22
! GHz     MAG   ANG      MAG   ANG      MAG   ANG      MAG   ANG
 0.010  0.9685   -5.0   3.574  176.2  0.0072   89.0  0.9990   -1.5
 0.015  0.9664   -7.4   3.577  174.9  0.0109   85.1  0.9992   -2.2
 0.020  0.9659   -9.8   3.582  173.7  0.0147   83.2  0.9995   -2.8
 0.025  0.9601  -12.1   3.554  172.1  0.0183   80.7  0.9963   -3.4
 0.030  0.9559  -14.5   3.529  170.4  0.0219   79.0  0.9932   -4.1
 0.035  0.9534  -16.9   3.508  168.8  0.0256   77.8  0.9902   -4.7
 0.040  0.9525  -19.2   3.489  167.1  0.0292   76.9  0.9874   -5.4
 0.045  0.9532  -21.6   3.473  165.4  0.0328   76.2  0.9847   -6.0
 0.050  0.9556  -24.0   3.460  163.7  0.0365   75.6  0.9821   -6.7
 0.055  0.9460  -26.2   3.430  162.4  0.0395   73.6  0.9780   -7.3
 0.060  0.9377  -28.4   3.402  161.1  0.0425   72.0  0.9739   -7.8
 0.065  0.9310  -30.7   3.375  159.7  0.0456   70.5  0.9700   -8.4
 0.070  0.9257  -33.0   3.351  158.4  0.0487   69.2  0.9661   -9.0
 0.075  0.9219  -35.3   3.328  157.0  0.0518   68.1  0.9624   -9.5
 0.080  0.9196  -37.7   3.307  155.6  0.0549   67.1  0.9587  -10.1
 0.085  0.9189  -40.0   3.289  154.1  0.0580   66.3  0.9552  -10.7
 0.090  0.9197  -42.3   3.272  152.7  0.0612   65.5  0.9517  -11.3
 0.095  0.9220  -44.7   3.257  151.3  0.0643   64.7  0.9483  -11.9
 0.100  0.9259  -47.0   3.245  149.8  0.0675   64.1  0.9451  -12.5
 0.105  0.9167  -48.9   3.207  148.6  0.0697   62.6  0.9403  -13.0
 0.110  0.9085  -50.8   3.171  147.3  0.0720   61.2  0.9356  -13.4
 0.115  0.9013  -52.8   3.136  146.0  0.0743   59.8  0.9310  -13.9
 0.120  0.8952  -54.7   3.103  144.6  0.0767   58.6  0.9264  -14.4
 0.125  0.8902  -56.8   3.071  143.3  0.0791   57.4  0.9219  -14.8
 0.130  0.8863  -58.8   3.042  141.9  0.0815   56.3  0.9174  -15.3
 0.135  0.8835  -60.8   3.014  140.5  0.0839   55.3  0.9131  -15.8
 0.140  0.8819  -62.9   2.988  139.0  0.0864   54.3  0.9087  -16.3
 0.145  0.8814  -64.9   2.964  137.6  0.0889   53.4  0.9045  -16.8
 0.150  0.8820  -67.0   2.942  136.1  0.0914   52.5  0.9003  -17.3
 0.155  0.8760  -68.6   2.909  135.2  0.0929   51.6  0.8961  -17.6
 0.160  0.8708  -70.2   2.877  134.2  0.0944   50.6  0.8920  -17.9
 0.165  0.8662  -71.9   2.846  133.3  0.0960   49.8  0.8879  -18.2
 0.170  0.8624  -73.5   2.815  132.3  0.0975   48.9  0.8838  -18.5
 0.175  0.8592  -75.2   2.786  131.3  0.0991   48.1  0.8797  -18.9
 0.180  0.8569  -76.9   2.757  130.3  0.1007   47.3  0.8757  -19.2
 0.185  0.8553  -78.6   2.729  129.3  0.1023   46.5  0.8717  -19.5
 0.190  0.8544  -80.3   2.702  128.2  0.1040   45.7  0.8677  -19.8
 0.195  0.8543  -82.0   2.676  127.1  0.1056   45.0  0.8637  -20.2
 0.200  0.8549  -83.7   2.651  126.0  0.1073   44.3  0.8598  -20.5
 0.220  0.8363  -89.5   2.534  122.3  0.1114   41.3  0.8436  -21.6
 0.240  0.8267  -95.6   2.428  118.3  0.1158   38.4  0.8277  -22.8
 0.260  0.8178 -100.8   2.327  114.9  0.1192   36.1  0.8142  -23.8
 0.280  0.8066 -105.4   2.224  112.1  0.1217   34.1  0.8030  -24.6
 0.300  0.8006 -110.1   2.127  109.0  0.1242   32.2  0.7919  -25.5
 0.320  0.7882 -113.7   2.044  107.0  0.1250   30.5  0.7833  -26.2
 0.340  0.7790 -117.5   1.963  104.7  0.1260   28.8  0.7748  -26.9
 0.360  0.7733 -121.3   1.886  102.3  0.1271   27.1  0.7664  -27.6
 0.380  0.7710 -125.1   1.812   99.7  0.1282   25.5  0.7581  -28.3
 0.400  0.7722 -129.0   1.742   96.9  0.1295   23.9  0.7500  -29.1
 0.420  0.7652 -131.7   1.682   95.1  0.1292   22.8  0.7450  -29.8
 0.440  0.7599 -134.4   1.623   93.2  0.1290   21.7  0.7401  -30.4
 0.450  0.7579 -135.8   1.594   92.3  0.1290   21.2  0.7377  -30.8
 0.460  0.7563 -137.2   1.566   91.2  0.1289   20.7  0.7353  -31.1
 0.480  0.7546 -140.0   1.511   89.0  0.1288   19.6  0.7306  -31.8
 0.500  0.7546 -142.8   1.459   86.7  0.1287   18.5  0.7260  -32.5
 0.520  0.7503 -145.0   1.419   85.2  0.1279   17.9  0.7229  -33.2
 0.540  0.7471 -147.3   1.381   83.7  0.1271   17.3  0.7199  -34.0
 0.560  0.7451 -149.5   1.343   82.1  0.1263   16.7  0.7170  -34.7
 0.580  0.7443 -151.8   1.306   80.3  0.1255   16.1  0.7142  -35.4
 0.600  0.7446 -154.1   1.271   78.5  0.1247   15.5  0.7116  -36.2
 0.620  0.7424 -156.0   1.239   77.2  0.1234   15.2  0.7095  -37.0
 0.640  0.7411 -157.8   1.208   75.8  0.1220   14.9  0.7076  -37.8
 0.660  0.7405 -159.7   1.178   74.3  0.1207   14.6  0.7058  -38.6
 0.680  0.7408 -161.6   1.149   72.8  0.1193   14.3  0.7041  -39.4
 0.700  0.7418 -163.5   1.120   71.2  0.1180   14.0  0.7026  -40.2
 0.720  0.7407 -165.0   1.094   70.1  0.1166   14.0  0.7007  -41.0
 0.740  0.7401 -166.5   1.068   68.9  0.1151   14.1  0.6989  -41.7
 0.760  0.7400 -167.9   1.043   67.7  0.1137   14.1  0.6972  -42.5
 0.780  0.7404 -169.4   1.018   66.4  0.1122   14.2  0.6957  -43.3
 0.800  0.7413 -170.9   0.994   65.1  0.1108   14.2  0.6943  -44.1
 0.820  0.7392 -172.3   0.973   64.1  0.1092   14.6  0.6933  -44.9
 0.840  0.7376 -173.7   0.953   63.1  0.1076   15.0  0.6923  -45.7
 0.860  0.7365 -175.1   0.933   62.0  0.1060   15.5  0.6916  -46.5
 0.880  0.7358 -176.6   0.913   60.9  0.1045   15.9  0.6909  -47.3
 0.900  0.7355 -178.0   0.894   59.7  0.1029   16.4  0.6904  -48.1
 0.920  0.7354 -179.3   0.879   58.7  0.1013   17.1  0.6898  -49.0
 0.940  0.7358  179.5   0.864   57.8  0.0997   17.8  0.6893  -49.8
 0.960  0.7364  178.2   0.849   56.7  0.0981   18.5  0.6890  -50.7
 0.980  0.7374  177.0   0.835   55.7  0.0965   19.3  0.6888  -51.5
 1.000  0.7388  175.7   0.821   54.6  0.0950   20.1  0.6888  -52.4
 1.020  0.7389  174.5   0.808   53.8  0.0937   21.4  0.6881  -53.4
 1.040  0.7394  173.3   0.796   52.9  0.0925   22.6  0.6875  -54.3
 1.060  0.7402  172.0   0.784   52.0  0.0913   24.0  0.6871  -55.3
 1.080  0.7413  170.8   0.772   51.1  0.0901   25.3  0.6870  -56.2
 1.100  0.7428  169.6   0.760   50.2  0.0890   26.7  0.6870  -57.2
 1.120  0.7432  168.5   0.749   49.5  0.0883   28.4  0.6863  -58.1
 1.140  0.7439  167.5   0.738   48.8  0.0877   30.1  0.6858  -59.1
 1.160  0.7449  166.4   0.727   48.0  0.0871   31.9  0.6855  -60.0
 1.180  0.7461  165.4   0.716   47.3  0.0867   33.6  0.6854  -61.0
 1.200  0.7475  164.3   0.705   46.5  0.0863   35.4  0.6854  -61.9
 1.220  0.7468  163.3   0.695   45.9  0.0866   37.4  0.6847  -62.8
 1.240  0.7464  162.3   0.685   45.2  0.0870   39.3  0.6842  -63.7
 1.260  0.7462  161.3   0.675   44.6  0.0875   41.2  0.6838  -64.6
 1.280  0.7462  160.3   0.666   43.9  0.0881   43.1  0.6836  -65.5
 1.300  0.7464  159.3   0.656   43.2  0.0888   45.0  0.6836  -66.4
 1.320  0.7485  158.4   0.648   42.7  0.0899   47.0  0.6833  -67.4
 1.340  0.7509  157.6   0.640   42.2  0.0911   48.9  0.6832  -68.4
 1.360  0.7533  156.7   0.632   41.7  0.0925   50.7  0.6834  -69.3
 1.380  0.7560  155.8   0.625   41.2  0.0939   52.5  0.6837  -70.3
 1.400  0.7588  155.0   0.617   40.7  0.0954   54.3  0.6842  -71.3
 1.420  0.7578  154.1   0.611   40.2  0.0977   56.0  0.6835  -72.3
 1.440  0.7571  153.2   0.605   39.7  0.1001   57.6  0.6829  -73.2
 1.460  0.7565  152.3   0.599   39.2  0.1026   59.1  0.6826  -74.2
 1.480  0.7561  151.4   0.593   38.7  0.1051   60.5  0.6825  -75.1
 1.500  0.7559  150.5   0.587   38.2  0.1077   61.9  0.6825  -76.1
 1.520  0.7565  149.6   0.579   37.8  0.1108   63.0  0.6815  -77.1
 1.540  0.7573  148.7   0.570   37.3  0.1139   64.0  0.6807  -78.1
 1.560  0.7583  147.9   0.562   36.9  0.1170   65.0  0.6801  -79.2
 1.580  0.7595  147.0   0.553   36.4  0.1202   65.9  0.6797  -80.2
 1.600  0.7608  146.1   0.545   35.9  0.1234   66.8  0.6796  -81.2
 1.620  0.7608  145.2   0.540   35.6  0.1271   67.6  0.6782  -82.3
 1.640  0.7610  144.4   0.536   35.3  0.1308   68.4  0.6771  -83.3
 1.660  0.7613  143.5   0.531   35.0  0.1346   69.1  0.6761  -84.4
 1.680  0.7618  142.7   0.527   34.7  0.1383   69.8  0.6755  -85.4
 1.700  0.7625  141.8   0.522   34.4  0.1421   70.4  0.6750  -86.5
 1.720  0.7639  141.0   0.518   34.3  0.1463   70.7  0.6748  -87.5
 1.740  0.7654  140.1   0.515   34.1  0.1505   71.1  0.6747  -88.5
 1.760  0.7671  139.3   0.511   34.0  0.1547   71.3  0.6749  -89.5
 1.780  0.7689  138.5   0.508   33.8  0.1589   71.6  0.6753  -90.5
 1.800  0.7709  137.7   0.504   33.7  0.1631   71.9  0.6759  -91.5
 1.820  0.7709  137.0   0.501   33.4  0.1677   72.0  0.6759  -92.6
 1.840  0.7711  136.2   0.497   33.2  0.1723   72.2  0.6762  -93.7
 1.860  0.7714  135.5   0.494   32.9  0.1769   72.3  0.6767  -94.7
 1.880  0.7718  134.7   0.490   32.7  0.1815   72.4  0.6774  -95.8
 1.900  0.7724  134.0   0.487   32.4  0.1861   72.5  0.6784  -96.9
 1.920  0.7716  133.2   0.484   32.3  0.1907   72.4  0.6775  -98.0
 1.940  0.7710  132.5   0.480   32.2  0.1954   72.3  0.6769  -99.1
 1.960  0.7706  131.7   0.477   32.0  0.2000   72.2  0.6765 -100.3
 1.980  0.7702  131.0   0.473   31.9  0.2047   72.1  0.6764 -101.4
 2.000  0.7700  130.2   0.470   31.8  0.2093   72.0  0.6766 -102.5
 2.020  0.7700  129.5   0.468   31.8  0.2142   71.7  0.6752 -103.6
 2.040  0.7701  128.8   0.465   31.8  0.2190   71.4  0.6740 -104.6
 2.060  0.7704  128.1   0.463   31.7  0.2239   71.1  0.6731 -105.7
 2.080  0.7707  127.4   0.461   31.7  0.2288   70.8  0.6724 -106.8
 2.100  0.7712  126.7   0.458   31.7  0.2337   70.6  0.6719 -107.9
 2.120  0.7718  126.0   0.456   31.7  0.2386   70.3  0.6717 -109.0
 2.140  0.7725  125.4   0.454   31.7  0.2435   70.1  0.6717 -110.1
 2.160  0.7733  124.7   0.452   31.6  0.2484   69.8  0.6720 -111.1
 2.180  0.7742  124.0   0.449   31.6  0.2533   69.6  0.6725 -112.2
 2.200  0.7752  123.3   0.447   31.6  0.2582   69.4  0.6732 -113.3
 2.220  0.7744  122.6   0.447   31.5  0.2630   68.9  0.6718 -114.5
 2.240  0.7737  121.9   0.447   31.5  0.2679   68.5  0.6708 -115.6
 2.260  0.7731  121.2   0.447   31.4  0.2728   68.0  0.6700 -116.8
 2.280  0.7726  120.5   0.447   31.3  0.2776   67.6  0.6694 -118.0
 2.300  0.7723  119.8   0.447   31.3  0.2825   67.2  0.6692 -119.1
 2.320  0.7720  119.1   0.447   31.2  0.2874   66.8  0.6692 -120.3
 2.340  0.7719  118.4   0.447   31.1  0.2924   66.5  0.6696 -121.5
 2.360  0.7719  117.7   0.447   31.0  0.2973   66.1  0.6702 -122.7
 2.380  0.7720  117.0   0.447   31.0  0.3022   65.7  0.6710 -123.8
 2.400  0.7722  116.3   0.447   30.9  0.3072   65.4  0.6722 -125.0
 2.420  0.7716  115.7   0.447   30.9  0.3116   64.8  0.6705 -126.1
 2.440  0.7711  115.0   0.447   30.9  0.3160   64.3  0.6691 -127.1
 2.460  0.7706  114.4   0.447   31.0  0.3204   63.8  0.6679 -128.2
 2.480  0.7703  113.7   0.447   31.0  0.3248   63.2  0.6670 -129.3
 2.500  0.7700  113.1   0.447   31.0  0.3293   62.7  0.6662 -130.4
 2.520  0.7699  112.5   0.448   31.0  0.3338   62.2  0.6657 -131.5
 2.540  0.7699  111.8   0.448   31.0  0.3383   61.8  0.6655 -132.5
 2.560  0.7699  111.2   0.448   31.1  0.3428   61.3  0.6655 -133.6
 2.580  0.7701  110.5   0.448   31.1  0.3474   60.8  0.6657 -134.7
 2.600  0.7703  109.9   0.448   31.1  0.3520   60.4  0.6662 -135.8
 2.620  0.7700  109.4   0.449   31.0  0.3561   59.8  0.6651 -136.9
 2.640  0.7698  108.8   0.451   30.9  0.3602   59.2  0.6643 -138.1
 2.660  0.7696  108.3   0.452   30.9  0.3643   58.7  0.6638 -139.2
 2.680  0.7695  107.8   0.453   30.8  0.3685   58.1  0.6635 -140.4
 2.700  0.7695  107.2   0.454   30.7  0.3728   57.6  0.6635 -141.6
 2.720  0.7696  106.7   0.456   30.6  0.3770   57.1  0.6638 -142.7
 2.740  0.7697  106.2   0.457   30.5  0.3813   56.6  0.6643 -143.9
 2.760  0.7699  105.7   0.458   30.5  0.3856   56.1  0.6651 -145.0
 2.780  0.7701  105.1   0.460   30.4  0.3899   55.6  0.6662 -146.2
 2.800  0.7704  104.6   0.461   30.3  0.3943   55.1  0.6675 -147.3
 2.820  0.7700  104.1   0.462   30.2  0.3981   54.5  0.6665 -148.3
 2.840  0.7696  103.6   0.464   30.0  0.4019   53.9  0.6657 -149.4
 2.860  0.7692  103.2   0.465   29.9  0.4058   53.4  0.6651 -150.4
 2.880  0.7690  102.7   0.467   29.7  0.4097   52.8  0.6647 -151.5
 2.900  0.7687  102.2   0.468   29.6  0.4136   52.3  0.6646 -152.5
 2.920  0.7686  101.7   0.469   29.4  0.4176   51.7  0.6647 -153.5
 2.940  0.7684  101.2   0.471   29.3  0.4216   51.2  0.6650 -154.6
 2.960  0.7684  100.8   0.472   29.2  0.4257   50.7  0.6655 -155.6
 2.980  0.7684  100.3   0.474   29.0  0.4298   50.2  0.6662 -156.7
 3.000  0.7684   99.8   0.475   28.9  0.4339   49.7  0.6672 -157.7
 3.100  0.7647   97.8   0.482   27.7  0.4466   46.7  0.6593 -162.7
 3.200  0.7618   95.8   0.489   26.6  0.4604   44.0  0.6566 -167.8
 3.300  0.7600   93.8   0.497   25.4  0.4752   41.3  0.6590 -172.8
 3.400  0.7591   91.7   0.504   24.4  0.4909   38.9  0.6665 -177.8
 3.500  0.7591   89.7   0.512   23.3  0.5075   36.6  0.6790  177.3
 3.600  0.7578   88.2   0.517   21.9  0.5138   34.1  0.6749  173.0
 3.700  0.7570   86.7   0.522   20.5  0.5212   31.6  0.6748  168.6
 3.800  0.7567   85.2   0.527   19.1  0.5294   29.2  0.6785  164.2
 3.900  0.7569   83.7   0.532   17.8  0.5385   26.9  0.6862  160.0
 4.000  0.7577   82.2   0.538   16.5  0.5485   24.7  0.6975  155.8
 4.100  0.7560   81.0   0.541   15.0  0.5504   22.6  0.6928  152.3
 4.200  0.7545   79.9   0.544   13.5  0.5529   20.6  0.6907  148.8
 4.300  0.7534   78.7   0.547   12.0  0.5562   18.6  0.6912  145.3
 4.400  0.7526   77.6   0.551   10.5  0.5602   16.6  0.6942  141.8
 4.500  0.7521   76.4   0.555    9.1  0.5648   14.6  0.6998  138.4
 4.600  0.7518   75.4   0.556    7.8  0.5653   13.0  0.6964  135.6
 4.700  0.7517   74.4   0.557    6.5  0.5662   11.4  0.6946  132.8
 4.800  0.7519   73.5   0.559    5.2  0.5675    9.8  0.6945  130.0
 4.900  0.7522   72.5   0.561    4.0  0.5693    8.3  0.6961  127.2
 5.000  0.7528   71.5   0.563    2.7  0.5715    6.7  0.6993  124.4
 5.100  0.7503   70.5   0.562    2.3  0.5719    6.0  0.6908  123.4
 5.200  0.7481   69.5   0.562    1.9  0.5723    5.2  0.6824  122.5
 5.300  0.7461   68.5   0.561    1.4  0.5729    4.5  0.6743  121.5
 5.400  0.7443   67.5   0.561    1.0  0.5735    3.7  0.6663  120.4
 5.500  0.7428   66.5   0.560    0.6  0.5743    3.0  0.6586  119.4
 5.600  0.7419   65.8   0.564   -0.8  0.5780    1.4  0.6688  117.1
 5.700  0.7410   65.1   0.569   -2.2  0.5821   -0.2  0.6801  114.9
 5.800  0.7403   64.5   0.573   -3.5  0.5867   -1.8  0.6924  112.7
 5.900  0.7396   63.8   0.579   -4.9  0.5917   -3.3  0.7056  110.6
 6.000  0.7391   63.1   0.584   -6.2  0.5971   -4.8  0.7197  108.6
!
!  f       NFmin   Gammaopt  rn/50
! GHz       dB    MAG  ANG    -
!
! noise parameter not available yet for this operation point!
!
! (c) 2015  Infineon Technologies AG, Munich
