! Infineon Technologies  Discrete & RF Semiconductors
! BFR380F
! VCE =  5.0 V,  IC =  16 mA
! Common Emitter S-Parameters:                            Nov 2015
# GHz  S  MA  R  50
!  f         S11            S21            S12            S22
! GHz     MAG   ANG      MAG   ANG      MAG   ANG      MAG   ANG
 0.030  0.6697  -19.9  41.186  168.5  0.0076   80.8  0.9586  -11.9
 0.035  0.6676  -23.0  40.910  166.7  0.0087   79.8  0.9517  -13.8
 0.040  0.6675  -26.2  40.674  164.9  0.0099   79.1  0.9458  -15.7
 0.045  0.6643  -29.6  40.421  163.0  0.0111   77.7  0.9383  -17.6
 0.050  0.6636  -33.1  40.213  161.1  0.0124   76.5  0.9318  -19.5
 0.055  0.6599  -36.1  39.780  159.6  0.0134   75.1  0.9222  -21.3
 0.060  0.6580  -39.2  39.374  158.1  0.0144   73.9  0.9135  -23.1
 0.065  0.6549  -42.2  38.907  156.4  0.0154   72.5  0.9029  -24.8
 0.070  0.6535  -45.2  38.474  154.7  0.0165   71.2  0.8931  -26.6
 0.075  0.6527  -48.0  38.019  153.4  0.0175   70.0  0.8822  -28.3
 0.080  0.6534  -50.8  37.586  152.0  0.0185   69.0  0.8720  -30.0
 0.085  0.6493  -53.4  37.023  150.5  0.0194   68.0  0.8603  -31.6
 0.090  0.6465  -56.0  36.486  149.0  0.0204   67.1  0.8492  -33.2
 0.095  0.6430  -58.7  35.983  147.6  0.0212   66.0  0.8372  -34.7
 0.100  0.6409  -61.4  35.502  146.2  0.0220   65.0  0.8257  -36.2
 0.105  0.6387  -63.7  34.975  145.0  0.0227   64.0  0.8136  -37.6
 0.110  0.6375  -66.1  34.465  143.7  0.0234   63.0  0.8020  -39.1
 0.115  0.6346  -68.4  33.935  142.5  0.0242   62.3  0.7902  -40.4
 0.120  0.6327  -70.8  33.421  141.2  0.0251   61.7  0.7788  -41.8
 0.125  0.6316  -72.9  32.911  140.1  0.0257   60.9  0.7671  -43.1
 0.130  0.6313  -75.1  32.413  139.0  0.0263   60.1  0.7559  -44.5
 0.135  0.6279  -77.2  31.923  137.9  0.0269   59.4  0.7444  -45.7
 0.140  0.6254  -79.4  31.444  136.8  0.0275   58.7  0.7332  -46.9
 0.145  0.6229  -81.5  30.965  135.7  0.0280   58.1  0.7220  -48.1
 0.150  0.6212  -83.7  30.498  134.6  0.0286   57.5  0.7111  -49.3
 0.155  0.6174  -85.3  30.023  133.8  0.0291   57.0  0.7002  -50.2
 0.160  0.6140  -87.0  29.553  133.1  0.0295   56.5  0.6895  -51.1
 0.165  0.6112  -88.7  29.088  132.2  0.0300   56.0  0.6789  -52.0
 0.170  0.6089  -90.4  28.630  131.4  0.0304   55.5  0.6685  -52.9
 0.175  0.6072  -92.0  28.178  130.5  0.0309   55.0  0.6583  -53.9
 0.180  0.6060  -93.8  27.733  129.7  0.0313   54.6  0.6484  -54.9
 0.185  0.6053  -95.5  27.294  128.7  0.0318   54.1  0.6386  -56.0
 0.190  0.6052  -97.2  26.863  127.8  0.0323   53.7  0.6290  -57.0
 0.195  0.6056  -98.9  26.440  126.8  0.0327   53.3  0.6197  -58.2
 0.200  0.6065 -100.6  26.024  125.8  0.0332   52.9  0.6106  -59.3
 0.220  0.5991 -105.5  24.571  123.5  0.0345   51.7  0.5770  -62.2
 0.240  0.5962 -110.6  23.162  120.9  0.0359   50.6  0.5451  -65.4
 0.260  0.5937 -115.1  21.890  118.6  0.0371   49.8  0.5163  -68.3
 0.280  0.5904 -119.3  20.735  116.6  0.0382   49.2  0.4901  -70.8
 0.300  0.5901 -123.4  19.608  114.3  0.0393   48.7  0.4650  -73.6
 0.320  0.5866 -126.5  18.678  112.9  0.0402   48.4  0.4442  -75.6
 0.340  0.5847 -129.6  17.761  111.3  0.0411   48.1  0.4240  -77.8
 0.360  0.5832 -132.5  16.934  109.8  0.0420   48.0  0.4058  -79.8
 0.380  0.5815 -135.0  16.194  108.4  0.0429   48.1  0.3894  -81.6
 0.400  0.5809 -137.6  15.464  106.9  0.0437   48.1  0.3734  -83.6
 0.420  0.5795 -139.7  14.855  105.8  0.0445   48.2  0.3599  -85.2
 0.440  0.5790 -141.8  14.252  104.7  0.0453   48.3  0.3468  -86.9
 0.450  0.5790 -142.9  13.952  104.1  0.0457   48.4  0.3403  -87.8
 0.460  0.5784 -143.8  13.697  103.7  0.0461   48.5  0.3347  -88.5
 0.480  0.5778 -145.5  13.189  102.8  0.0468   48.7  0.3237  -89.9
 0.500  0.5776 -147.3  12.685  101.8  0.0476   48.9  0.3129  -91.5
 0.520  0.5767 -148.7  12.288  101.1  0.0484   49.2  0.3044  -92.7
 0.540  0.5761 -150.1  11.893  100.4  0.0492   49.5  0.2961  -93.9
 0.560  0.5759 -151.6  11.500   99.6  0.0499   49.8  0.2879  -95.2
 0.580  0.5761 -153.0  11.110   98.7  0.0507   50.1  0.2799  -96.6
 0.600  0.5766 -154.4  10.722   97.8  0.0515   50.4  0.2720  -98.1
 0.620  0.5761 -155.5  10.430   97.2  0.0523   50.7  0.2660  -99.2
 0.640  0.5759 -156.6  10.140   96.7  0.0531   51.0  0.2601 -100.3
 0.660  0.5758 -157.6   9.850   96.0  0.0539   51.3  0.2543 -101.5
 0.680  0.5760 -158.7   9.562   95.4  0.0547   51.6  0.2486 -102.7
 0.700  0.5763 -159.8   9.275   94.7  0.0555   51.9  0.2430 -104.0
 0.720  0.5761 -160.7   9.051   94.2  0.0563   52.2  0.2387 -104.9
 0.740  0.5760 -161.6   8.829   93.7  0.0571   52.6  0.2344 -105.9
 0.760  0.5761 -162.5   8.606   93.1  0.0580   52.9  0.2302 -106.9
 0.780  0.5763 -163.4   8.385   92.5  0.0588   53.2  0.2261 -108.0
 0.800  0.5766 -164.3   8.165   91.9  0.0596   53.5  0.2221 -109.1
 0.820  0.5766 -165.0   7.989   91.5  0.0604   53.8  0.2190 -110.0
 0.840  0.5768 -165.7   7.814   91.1  0.0613   54.1  0.2159 -110.9
 0.860  0.5770 -166.5   7.639   90.6  0.0621   54.4  0.2129 -111.8
 0.880  0.5773 -167.2   7.465   90.2  0.0630   54.6  0.2100 -112.7
 0.900  0.5777 -167.9   7.291   89.7  0.0638   54.9  0.2071 -113.7
 0.920  0.5777 -168.5   7.148   89.3  0.0647   55.2  0.2048 -114.5
 0.940  0.5779 -169.1   7.005   88.9  0.0655   55.5  0.2025 -115.3
 0.960  0.5780 -169.8   6.863   88.4  0.0664   55.8  0.2002 -116.2
 0.980  0.5783 -170.4   6.721   88.0  0.0672   56.0  0.1981 -117.0
 1.000  0.5786 -171.0   6.579   87.5  0.0681   56.3  0.1959 -117.9
 1.020  0.5788 -171.5   6.464   87.1  0.0690   56.5  0.1942 -118.6
 1.040  0.5790 -172.1   6.349   86.8  0.0699   56.8  0.1926 -119.3
 1.060  0.5792 -172.6   6.234   86.4  0.0707   57.0  0.1910 -120.1
 1.080  0.5795 -173.2   6.119   86.0  0.0716   57.2  0.1894 -120.8
 1.100  0.5799 -173.7   6.005   85.6  0.0725   57.4  0.1879 -121.6
 1.120  0.5803 -174.2   5.906   85.3  0.0734   57.6  0.1867 -122.3
 1.140  0.5806 -174.7   5.808   85.0  0.0743   57.8  0.1855 -123.1
 1.160  0.5811 -175.2   5.710   84.6  0.0752   58.0  0.1844 -123.8
 1.180  0.5816 -175.7   5.612   84.3  0.0761   58.2  0.1833 -124.5
 1.200  0.5821 -176.2   5.514   83.9  0.0770   58.4  0.1822 -125.3
 1.220  0.5822 -176.6   5.432   83.6  0.0779   58.6  0.1813 -125.9
 1.240  0.5824 -177.1   5.349   83.3  0.0788   58.8  0.1805 -126.4
 1.260  0.5825 -177.5   5.267   82.9  0.0798   59.0  0.1797 -127.0
 1.280  0.5828 -178.0   5.186   82.6  0.0807   59.1  0.1789 -127.6
 1.300  0.5830 -178.4   5.104   82.2  0.0816   59.3  0.1781 -128.2
 1.320  0.5834 -178.8   5.032   81.9  0.0825   59.5  0.1776 -128.8
 1.340  0.5839 -179.2   4.960   81.6  0.0834   59.6  0.1770 -129.4
 1.360  0.5843 -179.7   4.889   81.3  0.0844   59.8  0.1765 -129.9
 1.380  0.5849  179.9   4.817   80.9  0.0853   59.9  0.1761 -130.5
 1.400  0.5854  179.5   4.746   80.6  0.0862   60.1  0.1756 -131.1
 1.420  0.5856  179.1   4.685   80.3  0.0871   60.2  0.1752 -131.6
 1.440  0.5859  178.8   4.624   80.0  0.0881   60.4  0.1748 -132.0
 1.460  0.5861  178.4   4.563   79.7  0.0890   60.5  0.1745 -132.5
 1.480  0.5864  178.1   4.503   79.4  0.0900   60.7  0.1741 -132.9
 1.500  0.5867  177.7   4.442   79.1  0.0909   60.8  0.1738 -133.4
 1.520  0.5869  177.3   4.388   78.8  0.0918   60.9  0.1737 -133.8
 1.540  0.5871  177.0   4.333   78.5  0.0927   61.0  0.1736 -134.3
 1.560  0.5874  176.6   4.279   78.2  0.0937   61.1  0.1735 -134.7
 1.580  0.5876  176.3   4.225   77.9  0.0946   61.2  0.1734 -135.2
 1.600  0.5879  175.9   4.171   77.6  0.0955   61.3  0.1733 -135.6
 1.620  0.5882  175.6   4.124   77.3  0.0964   61.4  0.1731 -136.0
 1.640  0.5885  175.2   4.077   77.1  0.0974   61.5  0.1730 -136.4
 1.660  0.5889  174.9   4.030   76.8  0.0983   61.6  0.1728 -136.7
 1.680  0.5892  174.5   3.984   76.5  0.0993   61.7  0.1726 -137.1
 1.700  0.5896  174.2   3.937   76.2  0.1002   61.8  0.1725 -137.5
 1.720  0.5898  173.9   3.894   75.9  0.1012   61.9  0.1726 -137.8
 1.740  0.5900  173.6   3.851   75.7  0.1021   62.0  0.1726 -138.1
 1.760  0.5902  173.4   3.808   75.4  0.1031   62.0  0.1727 -138.3
 1.780  0.5904  173.1   3.765   75.1  0.1040   62.1  0.1728 -138.6
 1.800  0.5906  172.8   3.722   74.8  0.1050   62.2  0.1729 -138.9
 1.820  0.5910  172.5   3.684   74.6  0.1060   62.3  0.1729 -139.2
 1.840  0.5914  172.2   3.647   74.3  0.1069   62.4  0.1730 -139.6
 1.860  0.5918  172.0   3.609   74.0  0.1079   62.4  0.1730 -139.9
 1.880  0.5922  171.7   3.571   73.8  0.1088   62.5  0.1730 -140.3
 1.900  0.5926  171.4   3.534   73.5  0.1098   62.6  0.1731 -140.6
 1.920  0.5929  171.1   3.500   73.2  0.1108   62.7  0.1733 -140.8
 1.940  0.5932  170.8   3.467   73.0  0.1118   62.7  0.1734 -140.9
 1.960  0.5936  170.6   3.433   72.7  0.1127   62.8  0.1736 -141.1
 1.980  0.5939  170.3   3.399   72.5  0.1137   62.8  0.1737 -141.2
 2.000  0.5943  170.0   3.366   72.2  0.1147   62.9  0.1739 -141.4
 2.020  0.5943  169.7   3.337   72.0  0.1157   62.9  0.1740 -141.6
 2.040  0.5944  169.5   3.308   71.7  0.1166   63.0  0.1742 -141.8
 2.060  0.5944  169.2   3.279   71.5  0.1176   63.0  0.1744 -142.1
 2.080  0.5945  169.0   3.250   71.3  0.1185   63.1  0.1745 -142.3
 2.100  0.5946  168.7   3.221   71.0  0.1195   63.1  0.1747 -142.5
 2.120  0.5947  168.4   3.192   70.8  0.1205   63.1  0.1748 -142.7
 2.140  0.5948  168.2   3.163   70.5  0.1214   63.2  0.1750 -142.9
 2.160  0.5949  167.9   3.134   70.2  0.1224   63.2  0.1752 -143.2
 2.180  0.5951  167.7   3.106   70.0  0.1233   63.3  0.1753 -143.4
 2.200  0.5952  167.4   3.077   69.7  0.1243   63.3  0.1755 -143.6
 2.220  0.5954  167.2   3.052   69.5  0.1253   63.3  0.1756 -143.8
 2.240  0.5955  166.9   3.028   69.3  0.1263   63.3  0.1758 -144.0
 2.260  0.5957  166.7   3.003   69.0  0.1272   63.4  0.1759 -144.1
 2.280  0.5959  166.4   2.978   68.8  0.1282   63.4  0.1760 -144.3
 2.300  0.5961  166.2   2.954   68.6  0.1292   63.4  0.1762 -144.5
 2.320  0.5963  166.0   2.929   68.4  0.1302   63.4  0.1763 -144.7
 2.340  0.5965  165.7   2.905   68.1  0.1312   63.4  0.1765 -144.9
 2.360  0.5967  165.5   2.881   67.9  0.1321   63.5  0.1766 -145.0
 2.380  0.5970  165.2   2.856   67.6  0.1331   63.5  0.1768 -145.2
 2.400  0.5972  165.0   2.832   67.4  0.1341   63.5  0.1769 -145.4
 2.420  0.5972  164.8   2.811   67.2  0.1351   63.5  0.1771 -145.6
 2.440  0.5973  164.5   2.791   66.9  0.1361   63.5  0.1773 -145.7
 2.460  0.5973  164.3   2.770   66.7  0.1371   63.6  0.1775 -145.9
 2.480  0.5974  164.1   2.749   66.5  0.1381   63.6  0.1777 -146.0
 2.500  0.5975  163.8   2.729   66.2  0.1390   63.6  0.1779 -146.2
 2.520  0.5976  163.6   2.708   66.0  0.1400   63.6  0.1781 -146.3
 2.540  0.5977  163.4   2.688   65.8  0.1410   63.6  0.1783 -146.5
 2.560  0.5978  163.2   2.668   65.5  0.1420   63.7  0.1785 -146.6
 2.580  0.5979  162.9   2.647   65.3  0.1430   63.7  0.1787 -146.8
 2.600  0.5980  162.7   2.627   65.0  0.1440   63.7  0.1789 -146.9
 2.620  0.5981  162.5   2.610   64.8  0.1450   63.7  0.1791 -147.0
 2.640  0.5981  162.3   2.593   64.6  0.1460   63.7  0.1794 -147.1
 2.660  0.5982  162.1   2.576   64.4  0.1470   63.7  0.1796 -147.2
 2.680  0.5983  161.9   2.559   64.2  0.1480   63.7  0.1799 -147.3
 2.700  0.5984  161.6   2.542   64.0  0.1490   63.7  0.1801 -147.4
 2.720  0.5985  161.4   2.525   63.8  0.1500   63.7  0.1804 -147.5
 2.740  0.5986  161.2   2.508   63.6  0.1510   63.7  0.1806 -147.6
 2.760  0.5987  161.0   2.492   63.3  0.1520   63.7  0.1809 -147.7
 2.780  0.5989  160.8   2.475   63.1  0.1530   63.7  0.1811 -147.8
 2.800  0.5990  160.6   2.458   62.9  0.1540   63.7  0.1814 -147.9
 2.820  0.5990  160.4   2.443   62.7  0.1550   63.7  0.1816 -148.0
 2.840  0.5990  160.2   2.428   62.5  0.1560   63.7  0.1818 -148.0
 2.860  0.5991  160.0   2.413   62.3  0.1571   63.7  0.1820 -148.1
 2.880  0.5991  159.8   2.398   62.1  0.1581   63.7  0.1822 -148.1
 2.900  0.5991  159.6   2.383   61.9  0.1591   63.6  0.1824 -148.2
 2.920  0.5992  159.5   2.368   61.7  0.1601   63.6  0.1826 -148.3
 2.940  0.5992  159.3   2.353   61.5  0.1611   63.6  0.1828 -148.3
 2.960  0.5993  159.1   2.339   61.2  0.1622   63.6  0.1830 -148.4
 2.980  0.5993  158.9   2.324   61.0  0.1632   63.6  0.1832 -148.4
 3.000  0.5994  158.7   2.309   60.8  0.1642   63.6  0.1834 -148.5
 3.100  0.5991  157.6   2.250   59.8  0.1694   63.4  0.1846 -148.6
 3.200  0.5990  156.6   2.192   58.8  0.1747   63.3  0.1857 -148.7
 3.300  0.5991  155.5   2.135   57.8  0.1799   63.1  0.1869 -148.9
 3.400  0.5994  154.5   2.078   56.7  0.1852   62.9  0.1880 -149.0
 3.500  0.5999  153.4   2.022   55.5  0.1904   62.8  0.1892 -149.1
 3.600  0.5997  152.3   1.978   54.6  0.1956   62.5  0.1905 -149.3
 3.700  0.5998  151.3   1.935   53.6  0.2008   62.2  0.1918 -149.4
 3.800  0.6000  150.2   1.893   52.6  0.2060   61.9  0.1931 -149.6
 3.900  0.6004  149.2   1.851   51.6  0.2112   61.7  0.1944 -149.7
 4.000  0.6011  148.1   1.810   50.5  0.2164   61.4  0.1957 -149.9
 4.100  0.6014  147.1   1.776   49.6  0.2214   61.1  0.1977 -150.5
 4.200  0.6018  146.1   1.742   48.7  0.2265   60.8  0.1997 -151.1
 4.300  0.6024  145.2   1.708   47.7  0.2316   60.5  0.2017 -151.7
 4.400  0.6032  144.2   1.675   46.7  0.2366   60.2  0.2037 -152.3
 4.500  0.6042  143.2   1.643   45.7  0.2417   59.9  0.2058 -152.9
 4.600  0.6049  142.3   1.617   44.8  0.2469   59.5  0.2082 -153.7
 4.700  0.6058  141.3   1.591   43.9  0.2522   59.2  0.2107 -154.4
 4.800  0.6069  140.4   1.566   43.0  0.2574   58.8  0.2132 -155.2
 4.900  0.6081  139.4   1.541   42.1  0.2626   58.5  0.2157 -155.9
 5.000  0.6095  138.5   1.517   41.1  0.2679   58.2  0.2183 -156.6
 5.100  0.6103  137.4   1.495   40.2  0.2732   57.7  0.2199 -157.6
 5.200  0.6113  136.3   1.473   39.2  0.2785   57.2  0.2215 -158.6
 5.300  0.6125  135.2   1.451   38.2  0.2839   56.8  0.2233 -159.6
 5.400  0.6140  134.1   1.430   37.2  0.2892   56.3  0.2250 -160.6
 5.500  0.6157  133.0   1.409   36.2  0.2946   55.9  0.2269 -161.6
 5.600  0.6178  131.8   1.388   35.3  0.2994   55.3  0.2279 -163.2
 5.700  0.6201  130.7   1.368   34.4  0.3042   54.8  0.2292 -164.7
 5.800  0.6226  129.6   1.348   33.5  0.3090   54.3  0.2305 -166.3
 5.900  0.6255  128.4   1.329   32.5  0.3138   53.8  0.2321 -167.8
 6.000  0.6285  127.3   1.310   31.5  0.3187   53.3  0.2338 -169.3
!
!  f       NFmin   Gammaopt  rn/50
! GHz       dB    MAG  ANG    -
 0.450      0.99  0.14  165   0.08
 0.900      0.97  0.22  162   0.08
 1.800      1.22  0.33  179   0.07
 1.900      1.29  0.33 -180   0.07
 2.400      1.40  0.38 -168   0.08
 3.500      1.99  0.48 -155   0.12
!
! (c) 2015  Infineon Technologies AG, Munich
