! Infineon Technologies  Discrete & RF Semiconductors
! BFR380F
! VCE =  5.0 V,  IC =  70 mA
! Common Emitter S-Parameters:                            Nov 2015
# GHz  S  MA  R  50
!  f         S11            S21            S12            S22
! GHz     MAG   ANG      MAG   ANG      MAG   ANG      MAG   ANG
 0.030  0.3156  -59.2  76.521  159.4  0.0057   77.4  0.8466  -22.4
 0.035  0.3277  -66.6  74.783  156.5  0.0065   74.8  0.8286  -25.9
 0.040  0.3447  -73.3  73.251  153.4  0.0073   72.7  0.8137  -29.5
 0.045  0.3564  -79.8  71.412  150.5  0.0080   71.2  0.7935  -32.7
 0.050  0.3724  -85.9  69.769  147.4  0.0087   69.9  0.7759  -36.1
 0.055  0.3856  -91.1  67.695  145.1  0.0093   68.0  0.7542  -39.0
 0.060  0.4019  -96.0  65.735  142.7  0.0099   66.4  0.7345  -42.1
 0.065  0.4127 -100.4  63.743  140.5  0.0104   65.2  0.7128  -44.7
 0.070  0.4257 -104.5  61.853  138.1  0.0109   64.1  0.6926  -47.5
 0.075  0.4361 -107.6  60.016  136.4  0.0114   63.4  0.6726  -49.9
 0.080  0.4477 -110.6  58.238  134.5  0.0119   62.8  0.6538  -52.4
 0.085  0.4547 -113.7  56.414  132.8  0.0123   61.8  0.6345  -54.5
 0.090  0.4629 -116.6  54.642  131.0  0.0127   60.9  0.6162  -56.8
 0.095  0.4686 -119.2  53.018  129.5  0.0131   60.5  0.5986  -58.7
 0.100  0.4753 -121.7  51.432  127.9  0.0135   60.1  0.5818  -60.8
 0.105  0.4817 -123.8  49.959  126.6  0.0138   59.6  0.5656  -62.6
 0.110  0.4887 -125.9  48.513  125.2  0.0141   59.2  0.5499  -64.5
 0.115  0.4923 -128.0  47.119  124.0  0.0144   58.9  0.5352  -66.1
 0.120  0.4965 -130.0  45.745  122.8  0.0148   58.6  0.5210  -67.8
 0.125  0.5018 -131.5  44.488  121.7  0.0150   58.3  0.5078  -69.3
 0.130  0.5074 -133.0  43.247  120.6  0.0153   58.0  0.4949  -70.9
 0.135  0.5110 -134.8  42.131  119.7  0.0156   57.9  0.4826  -72.3
 0.140  0.5151 -136.5  41.026  118.7  0.0159   57.9  0.4707  -73.8
 0.145  0.5183 -137.8  39.964  117.8  0.0162   57.8  0.4596  -75.1
 0.150  0.5217 -139.1  38.913  116.8  0.0165   57.7  0.4488  -76.4
 0.155  0.5232 -140.2  38.071  116.2  0.0168   57.8  0.4398  -77.3
 0.160  0.5248 -141.2  37.233  115.7  0.0170   57.9  0.4309  -78.3
 0.165  0.5267 -142.3  36.399  115.1  0.0173   58.0  0.4221  -79.2
 0.170  0.5287 -143.3  35.569  114.4  0.0175   58.1  0.4135  -80.3
 0.175  0.5308 -144.4  34.744  113.8  0.0178   58.2  0.4049  -81.3
 0.180  0.5332 -145.4  33.923  113.1  0.0181   58.3  0.3966  -82.4
 0.185  0.5357 -146.4  33.108  112.3  0.0183   58.4  0.3884  -83.6
 0.190  0.5384 -147.4  32.299  111.6  0.0186   58.5  0.3803  -84.8
 0.195  0.5413 -148.4  31.496  110.8  0.0188   58.6  0.3725  -86.1
 0.200  0.5443 -149.4  30.699  109.9  0.0191   58.7  0.3648  -87.4
 0.220  0.5480 -152.0  28.515  108.3  0.0201   59.3  0.3418  -90.5
 0.240  0.5529 -154.6  26.356  106.4  0.0211   59.8  0.3200  -94.0
 0.260  0.5572 -156.9  24.501  104.8  0.0221   60.5  0.3017  -97.3
 0.280  0.5606 -158.9  22.935  103.4  0.0231   61.3  0.2863 -100.1
 0.300  0.5647 -160.8  21.383  101.9  0.0241   62.0  0.2717 -103.2
 0.320  0.5664 -162.2  20.227  101.0  0.0251   62.7  0.2608 -105.5
 0.340  0.5684 -163.7  19.077  100.0  0.0262   63.3  0.2503 -108.1
 0.360  0.5699 -165.0  18.061   99.0  0.0272   63.9  0.2413 -110.4
 0.380  0.5708 -166.1  17.178   98.1  0.0283   64.5  0.2336 -112.5
 0.400  0.5719 -167.2  16.299   97.1  0.0294   65.1  0.2262 -114.7
 0.420  0.5731 -168.2  15.601   96.4  0.0305   65.6  0.2202 -116.5
 0.440  0.5745 -169.2  14.906   95.7  0.0316   66.1  0.2145 -118.5
 0.450  0.5753 -169.7  14.559   95.3  0.0321   66.3  0.2117 -119.5
 0.460  0.5758 -170.1  14.275   95.0  0.0326   66.5  0.2094 -120.3
 0.480  0.5768 -170.9  13.707   94.4  0.0337   67.0  0.2050 -122.0
 0.500  0.5780 -171.7  13.141   93.7  0.0348   67.4  0.2007 -123.8
 0.520  0.5787 -172.4  12.711   93.3  0.0359   67.8  0.1976 -125.2
 0.540  0.5794 -173.0  12.282   92.8  0.0370   68.1  0.1946 -126.6
 0.560  0.5802 -173.7  11.853   92.3  0.0381   68.5  0.1917 -128.0
 0.580  0.5811 -174.3  11.426   91.7  0.0392   68.8  0.1889 -129.6
 0.600  0.5821 -175.0  11.000   91.1  0.0403   69.1  0.1863 -131.1
 0.620  0.5826 -175.5  10.690   90.7  0.0414   69.4  0.1845 -132.3
 0.640  0.5831 -176.0  10.381   90.3  0.0425   69.7  0.1827 -133.4
 0.660  0.5837 -176.6  10.073   89.9  0.0437   69.9  0.1810 -134.6
 0.680  0.5843 -177.1   9.765   89.4  0.0448   70.2  0.1794 -135.9
 0.700  0.5850 -177.6   9.458   88.9  0.0459   70.4  0.1779 -137.1
 0.720  0.5854 -178.1   9.224   88.5  0.0470   70.6  0.1768 -138.1
 0.740  0.5858 -178.5   8.990   88.2  0.0481   70.7  0.1757 -139.0
 0.760  0.5862 -179.0   8.756   87.8  0.0493   70.9  0.1746 -140.0
 0.780  0.5867 -179.4   8.524   87.3  0.0504   71.1  0.1736 -141.0
 0.800  0.5872 -179.9   8.291   86.9  0.0515   71.2  0.1727 -142.0
 0.820  0.5876  179.7   8.110   86.6  0.0526   71.3  0.1721 -142.8
 0.840  0.5880  179.4   7.929   86.3  0.0537   71.5  0.1716 -143.6
 0.860  0.5884  179.0   7.748   85.9  0.0549   71.6  0.1711 -144.4
 0.880  0.5888  178.7   7.567   85.6  0.0560   71.7  0.1706 -145.2
 0.900  0.5893  178.3   7.387   85.2  0.0571   71.8  0.1702 -146.0
 0.920  0.5897  177.9   7.240   84.9  0.0582   71.9  0.1699 -146.7
 0.940  0.5901  177.5   7.092   84.6  0.0594   72.0  0.1696 -147.4
 0.960  0.5906  177.2   6.945   84.3  0.0605   72.0  0.1694 -148.0
 0.980  0.5911  176.8   6.799   83.9  0.0617   72.1  0.1692 -148.7
 1.000  0.5916  176.4   6.652   83.6  0.0628   72.2  0.1690 -149.4
 1.020  0.5920  176.1   6.534   83.3  0.0639   72.3  0.1689 -149.9
 1.040  0.5924  175.8   6.416   83.0  0.0650   72.3  0.1689 -150.5
 1.060  0.5929  175.4   6.299   82.7  0.0662   72.4  0.1688 -151.0
 1.080  0.5933  175.1   6.181   82.4  0.0673   72.4  0.1688 -151.6
 1.100  0.5938  174.8   6.064   82.1  0.0684   72.5  0.1688 -152.1
 1.120  0.5942  174.5   5.963   81.8  0.0695   72.5  0.1690 -152.6
 1.140  0.5947  174.2   5.863   81.5  0.0707   72.6  0.1692 -153.1
 1.160  0.5952  173.8   5.762   81.2  0.0718   72.6  0.1694 -153.6
 1.180  0.5957  173.5   5.662   80.9  0.0730   72.7  0.1696 -154.1
 1.200  0.5962  173.2   5.562   80.6  0.0741   72.7  0.1698 -154.6
 1.220  0.5965  172.9   5.478   80.3  0.0752   72.7  0.1700 -155.0
 1.240  0.5968  172.7   5.395   80.1  0.0763   72.7  0.1701 -155.3
 1.260  0.5971  172.4   5.311   79.8  0.0775   72.7  0.1703 -155.7
 1.280  0.5974  172.2   5.228   79.5  0.0786   72.7  0.1705 -156.0
 1.300  0.5977  171.9   5.145   79.2  0.0797   72.7  0.1707 -156.4
 1.320  0.5981  171.6   5.072   79.0  0.0808   72.7  0.1711 -156.8
 1.340  0.5985  171.3   4.999   78.7  0.0820   72.7  0.1714 -157.1
 1.360  0.5990  171.1   4.926   78.4  0.0831   72.8  0.1718 -157.5
 1.380  0.5994  170.8   4.854   78.2  0.0843   72.8  0.1722 -157.8
 1.400  0.5999  170.5   4.781   77.9  0.0854   72.8  0.1726 -158.2
 1.420  0.6003  170.2   4.719   77.7  0.0865   72.8  0.1729 -158.5
 1.440  0.6007  170.0   4.658   77.4  0.0876   72.8  0.1731 -158.7
 1.460  0.6011  169.7   4.596   77.1  0.0888   72.7  0.1734 -159.0
 1.480  0.6016  169.5   4.534   76.9  0.0899   72.7  0.1737 -159.2
 1.500  0.6020  169.2   4.473   76.6  0.0910   72.7  0.1740 -159.5
 1.520  0.6022  169.0   4.418   76.4  0.0921   72.7  0.1744 -159.7
 1.540  0.6025  168.7   4.364   76.1  0.0932   72.7  0.1749 -159.9
 1.560  0.6027  168.5   4.309   75.9  0.0944   72.6  0.1753 -160.1
 1.580  0.6030  168.2   4.254   75.7  0.0955   72.6  0.1758 -160.3
 1.600  0.6033  168.0   4.200   75.4  0.0966   72.6  0.1762 -160.5
 1.620  0.6036  167.8   4.152   75.2  0.0977   72.6  0.1765 -160.7
 1.640  0.6040  167.5   4.104   74.9  0.0988   72.5  0.1768 -160.9
 1.660  0.6043  167.3   4.056   74.7  0.1000   72.5  0.1772 -161.2
 1.680  0.6047  167.0   4.009   74.5  0.1011   72.4  0.1775 -161.4
 1.700  0.6051  166.8   3.961   74.2  0.1022   72.4  0.1778 -161.6
 1.720  0.6053  166.6   3.918   74.0  0.1033   72.4  0.1782 -161.7
 1.740  0.6056  166.4   3.874   73.7  0.1044   72.4  0.1785 -161.8
 1.760  0.6058  166.1   3.831   73.4  0.1056   72.3  0.1789 -162.0
 1.780  0.6060  165.9   3.788   73.2  0.1067   72.3  0.1792 -162.1
 1.800  0.6063  165.7   3.745   72.9  0.1078   72.3  0.1796 -162.2
 1.820  0.6068  165.5   3.706   72.7  0.1089   72.3  0.1800 -162.4
 1.840  0.6073  165.3   3.668   72.4  0.1100   72.2  0.1804 -162.6
 1.860  0.6078  165.0   3.630   72.2  0.1112   72.2  0.1808 -162.7
 1.880  0.6083  164.8   3.591   72.0  0.1123   72.1  0.1812 -162.9
 1.900  0.6088  164.6   3.553   71.7  0.1134   72.1  0.1816 -163.1
 1.920  0.6089  164.4   3.519   71.5  0.1145   72.0  0.1818 -163.1
 1.940  0.6091  164.2   3.486   71.3  0.1156   72.0  0.1821 -163.1
 1.960  0.6093  163.9   3.453   71.1  0.1168   71.9  0.1823 -163.2
 1.980  0.6094  163.7   3.419   70.8  0.1179   71.9  0.1826 -163.2
 2.000  0.6096  163.5   3.386   70.6  0.1190   71.8  0.1828 -163.2
 2.020  0.6097  163.3   3.356   70.4  0.1201   71.7  0.1831 -163.3
 2.040  0.6097  163.1   3.327   70.2  0.1212   71.7  0.1835 -163.4
 2.060  0.6098  162.9   3.298   70.0  0.1223   71.6  0.1838 -163.5
 2.080  0.6099  162.7   3.268   69.7  0.1234   71.6  0.1842 -163.6
 2.100  0.6100  162.5   3.239   69.5  0.1245   71.5  0.1845 -163.7
 2.120  0.6101  162.3   3.210   69.3  0.1257   71.5  0.1848 -163.8
 2.140  0.6102  162.1   3.180   69.0  0.1268   71.4  0.1852 -163.9
 2.160  0.6103  161.9   3.151   68.8  0.1279   71.4  0.1855 -164.0
 2.180  0.6105  161.7   3.122   68.5  0.1290   71.3  0.1859 -164.1
 2.200  0.6106  161.5   3.093   68.3  0.1301   71.3  0.1862 -164.2
 2.220  0.6107  161.3   3.068   68.1  0.1312   71.2  0.1864 -164.3
 2.240  0.6108  161.1   3.043   67.9  0.1323   71.2  0.1867 -164.4
 2.260  0.6109  160.9   3.019   67.7  0.1334   71.1  0.1869 -164.5
 2.280  0.6110  160.7   2.994   67.5  0.1345   71.0  0.1872 -164.6
 2.300  0.6112  160.5   2.970   67.3  0.1356   71.0  0.1874 -164.7
 2.320  0.6113  160.3   2.945   67.1  0.1367   70.9  0.1877 -164.8
 2.340  0.6114  160.1   2.920   66.9  0.1378   70.9  0.1879 -164.9
 2.360  0.6116  159.9   2.896   66.6  0.1389   70.8  0.1882 -165.0
 2.380  0.6117  159.7   2.871   66.4  0.1400   70.8  0.1884 -165.1
 2.400  0.6119  159.5   2.847   66.2  0.1411   70.7  0.1887 -165.2
 2.420  0.6120  159.3   2.826   66.0  0.1422   70.6  0.1890 -165.3
 2.440  0.6120  159.1   2.805   65.8  0.1433   70.6  0.1892 -165.3
 2.460  0.6121  159.0   2.785   65.6  0.1444   70.5  0.1895 -165.4
 2.480  0.6121  158.8   2.764   65.4  0.1455   70.4  0.1897 -165.5
 2.500  0.6122  158.6   2.743   65.1  0.1466   70.4  0.1900 -165.6
 2.520  0.6123  158.4   2.723   64.9  0.1477   70.3  0.1903 -165.6
 2.540  0.6124  158.2   2.702   64.7  0.1488   70.3  0.1905 -165.7
 2.560  0.6125  158.1   2.682   64.5  0.1499   70.2  0.1908 -165.8
 2.580  0.6126  157.9   2.661   64.2  0.1510   70.2  0.1910 -165.8
 2.600  0.6127  157.7   2.641   64.0  0.1521   70.1  0.1913 -165.9
 2.620  0.6128  157.5   2.624   63.8  0.1532   70.0  0.1915 -165.9
 2.640  0.6129  157.3   2.607   63.6  0.1543   70.0  0.1918 -166.0
 2.660  0.6130  157.2   2.590   63.4  0.1555   69.9  0.1920 -166.0
 2.680  0.6131  157.0   2.573   63.2  0.1566   69.8  0.1923 -166.0
 2.700  0.6133  156.8   2.556   63.0  0.1577   69.7  0.1925 -166.1
 2.720  0.6134  156.6   2.539   62.8  0.1588   69.7  0.1927 -166.1
 2.740  0.6135  156.4   2.522   62.6  0.1599   69.6  0.1930 -166.1
 2.760  0.6137  156.3   2.506   62.4  0.1611   69.5  0.1932 -166.1
 2.780  0.6138  156.1   2.489   62.2  0.1622   69.5  0.1935 -166.2
 2.800  0.6140  155.9   2.472   62.0  0.1633   69.4  0.1937 -166.2
 2.820  0.6139  155.7   2.457   61.8  0.1644   69.3  0.1938 -166.2
 2.840  0.6138  155.6   2.442   61.6  0.1655   69.3  0.1940 -166.2
 2.860  0.6137  155.4   2.427   61.5  0.1667   69.2  0.1941 -166.2
 2.880  0.6137  155.2   2.412   61.3  0.1678   69.1  0.1942 -166.2
 2.900  0.6136  155.1   2.398   61.1  0.1689   69.0  0.1943 -166.3
 2.920  0.6135  154.9   2.383   60.9  0.1700   69.0  0.1945 -166.3
 2.940  0.6135  154.7   2.368   60.7  0.1711   68.9  0.1946 -166.3
 2.960  0.6134  154.5   2.353   60.5  0.1723   68.8  0.1947 -166.3
 2.980  0.6133  154.4   2.339   60.3  0.1734   68.8  0.1949 -166.3
 3.000  0.6133  154.2   2.324   60.1  0.1745   68.7  0.1950 -166.3
 3.100  0.6126  153.2   2.265   59.2  0.1801   68.2  0.1956 -166.2
 3.200  0.6121  152.2   2.206   58.3  0.1858   67.8  0.1962 -166.2
 3.300  0.6117  151.3   2.148   57.3  0.1915   67.4  0.1969 -166.1
 3.400  0.6116  150.3   2.091   56.2  0.1971   67.0  0.1975 -166.1
 3.500  0.6116  149.3   2.034   55.1  0.2028   66.6  0.1981 -166.0
 3.600  0.6112  148.3   1.990   54.2  0.2083   66.1  0.1989 -166.0
 3.700  0.6111  147.3   1.947   53.3  0.2138   65.6  0.1997 -166.0
 3.800  0.6111  146.4   1.904   52.3  0.2193   65.1  0.2006 -166.0
 3.900  0.6112  145.4   1.862   51.3  0.2249   64.6  0.2014 -166.0
 4.000  0.6116  144.4   1.820   50.2  0.2304   64.2  0.2022 -166.0
 4.100  0.6117  143.5   1.786   49.3  0.2356   63.7  0.2041 -166.4
 4.200  0.6119  142.6   1.752   48.5  0.2409   63.2  0.2060 -166.8
 4.300  0.6123  141.6   1.719   47.5  0.2461   62.7  0.2079 -167.2
 4.400  0.6129  140.7   1.686   46.6  0.2514   62.2  0.2099 -167.5
 4.500  0.6136  139.8   1.654   45.6  0.2567   61.8  0.2118 -167.9
 4.600  0.6141  138.9   1.628   44.8  0.2620   61.3  0.2141 -168.5
 4.700  0.6148  138.0   1.602   43.9  0.2674   60.8  0.2165 -169.0
 4.800  0.6157  137.2   1.577   43.0  0.2728   60.3  0.2188 -169.6
 4.900  0.6167  136.3   1.552   42.1  0.2782   59.8  0.2212 -170.1
 5.000  0.6178  135.4   1.527   41.1  0.2836   59.4  0.2236 -170.6
 5.100  0.6184  134.4   1.505   40.2  0.2889   58.8  0.2253 -171.5
 5.200  0.6192  133.3   1.483   39.3  0.2942   58.1  0.2270 -172.4
 5.300  0.6202  132.3   1.461   38.3  0.2995   57.5  0.2287 -173.3
 5.400  0.6214  131.2   1.440   37.3  0.3049   57.0  0.2305 -174.1
 5.500  0.6228  130.2   1.419   36.3  0.3103   56.4  0.2324 -175.0
 5.600  0.6246  129.1   1.398   35.4  0.3149   55.8  0.2340 -176.4
 5.700  0.6267  128.0   1.378   34.5  0.3196   55.1  0.2357 -177.9
 5.800  0.6290  126.9   1.358   33.6  0.3242   54.5  0.2375 -179.3
 5.900  0.6315  125.8   1.338   32.7  0.3290   54.0  0.2395  179.4
 6.000  0.6343  124.7   1.319   31.7  0.3337   53.4  0.2416  178.0
!
!  f       NFmin   Gammaopt  rn/50
! GHz       dB    MAG  ANG    -
 0.450      1.82  0.48 -174   0.08
 0.900      1.81  0.50 -171   0.08
 1.800      2.07  0.53 -159   0.11
 1.900      2.18  0.54 -159   0.11
 2.400      2.25  0.55 -150   0.15
 3.500      2.95  0.58 -140   0.28
!
! (c) 2015  Infineon Technologies AG, Munich
