! Infineon Technologies  Discrete & RF Semiconductors
! BFR35AP
! VCE =  6.0 V,  IC =  1.2 mA
! Common Emitter S-Parameters:                            Nov 2015
# GHz  S  MA  R  50
!  f         S11            S21            S12            S22
! GHz     MAG   ANG      MAG   ANG      MAG   ANG      MAG   ANG
 0.010  0.9514   -1.4   4.082  179.1  0.0025   89.7  0.9999   -0.5
 0.015  0.9482   -2.2   4.118  178.2  0.0037   88.4  0.9955   -0.8
 0.020  0.9451   -3.0   4.154  177.4  0.0050   87.8  0.9912   -1.1
 0.025  0.9460   -3.7   4.152  176.8  0.0063   87.3  0.9918   -1.4
 0.030  0.9470   -4.4   4.151  176.2  0.0077   86.9  0.9925   -1.7
 0.035  0.9482   -5.1   4.150  175.6  0.0090   86.7  0.9932   -2.0
 0.040  0.9495   -5.7   4.150  175.0  0.0104   86.5  0.9940   -2.3
 0.045  0.9509   -6.4   4.150  174.4  0.0117   86.4  0.9947   -2.6
 0.050  0.9525   -7.1   4.150  173.8  0.0131   86.3  0.9955   -2.9
 0.055  0.9500   -7.8   4.141  173.2  0.0144   85.5  0.9945   -3.2
 0.060  0.9476   -8.6   4.132  172.6  0.0158   84.8  0.9934   -3.5
 0.065  0.9454   -9.3   4.124  172.1  0.0171   84.2  0.9924   -3.8
 0.070  0.9434  -10.0   4.116  171.5  0.0185   83.7  0.9915   -4.1
 0.075  0.9415  -10.8   4.108  170.9  0.0198   83.2  0.9905   -4.3
 0.080  0.9397  -11.5   4.101  170.3  0.0212   82.8  0.9896   -4.6
 0.085  0.9382  -12.3   4.094  169.7  0.0225   82.5  0.9887   -4.9
 0.090  0.9368  -13.0   4.088  169.1  0.0239   82.2  0.9879   -5.2
 0.095  0.9355  -13.7   4.082  168.5  0.0252   81.9  0.9870   -5.5
 0.100  0.9344  -14.5   4.077  167.9  0.0266   81.7  0.9862   -5.8
 0.105  0.9320  -15.2   4.075  167.2  0.0278   81.0  0.9851   -6.1
 0.110  0.9297  -15.9   4.074  166.5  0.0290   80.4  0.9841   -6.4
 0.115  0.9275  -16.5   4.074  165.8  0.0302   79.8  0.9831   -6.7
 0.120  0.9255  -17.2   4.074  165.1  0.0315   79.2  0.9822   -7.0
 0.125  0.9236  -17.9   4.075  164.3  0.0327   78.7  0.9812   -7.3
 0.130  0.9219  -18.6   4.077  163.6  0.0339   78.3  0.9803   -7.6
 0.135  0.9202  -19.3   4.079  162.9  0.0351   77.8  0.9794   -7.9
 0.140  0.9188  -20.0   4.082  162.2  0.0363   77.4  0.9785   -8.2
 0.145  0.9174  -20.7   4.085  161.5  0.0376   77.1  0.9777   -8.5
 0.150  0.9162  -21.4   4.089  160.8  0.0388   76.7  0.9769   -8.8
 0.155  0.9137  -22.0   4.073  160.3  0.0400   76.2  0.9754   -9.1
 0.160  0.9113  -22.7   4.058  159.7  0.0412   75.7  0.9739   -9.3
 0.165  0.9091  -23.3   4.043  159.2  0.0424   75.3  0.9725   -9.6
 0.170  0.9069  -24.0   4.028  158.6  0.0436   74.8  0.9711   -9.8
 0.175  0.9049  -24.7   4.013  158.1  0.0448   74.4  0.9697  -10.1
 0.180  0.9030  -25.3   3.999  157.5  0.0460   74.0  0.9683  -10.4
 0.185  0.9012  -26.0   3.986  157.0  0.0472   73.7  0.9669  -10.6
 0.190  0.8996  -26.7   3.972  156.4  0.0484   73.3  0.9655  -10.9
 0.195  0.8980  -27.3   3.960  155.9  0.0496   73.0  0.9642  -11.1
 0.200  0.8966  -28.0   3.947  155.3  0.0508   72.7  0.9629  -11.4
 0.220  0.8859  -30.7   3.911  153.0  0.0551   70.9  0.9557  -12.3
 0.240  0.8773  -33.5   3.881  150.7  0.0594   69.4  0.9487  -13.3
 0.260  0.8659  -36.2   3.850  148.3  0.0636   68.0  0.9411  -14.3
 0.280  0.8516  -38.8   3.818  145.9  0.0676   66.8  0.9329  -15.2
 0.300  0.8390  -41.5   3.793  143.5  0.0717   65.7  0.9249  -16.1
 0.320  0.8236  -43.7   3.730  141.7  0.0750   64.2  0.9162  -16.9
 0.340  0.8095  -46.1   3.671  139.9  0.0783   62.8  0.9077  -17.7
 0.360  0.7968  -48.5   3.615  138.0  0.0817   61.5  0.8994  -18.5
 0.380  0.7855  -51.0   3.563  136.1  0.0851   60.4  0.8912  -19.3
 0.400  0.7758  -53.5   3.516  134.1  0.0886   59.3  0.8833  -20.2
 0.420  0.7610  -55.6   3.446  132.3  0.0912   58.1  0.8749  -20.8
 0.440  0.7473  -57.8   3.380  130.4  0.0939   57.0  0.8666  -21.4
 0.450  0.7409  -58.9   3.348  129.5  0.0952   56.5  0.8625  -21.8
 0.460  0.7347  -60.0   3.317  128.5  0.0965   56.0  0.8584  -22.1
 0.480  0.7232  -62.3   3.259  126.5  0.0993   55.0  0.8503  -22.7
 0.500  0.7130  -64.7   3.204  124.4  0.1020   54.1  0.8423  -23.4
 0.520  0.6992  -66.7   3.160  122.9  0.1041   53.1  0.8352  -23.9
 0.540  0.6862  -68.8   3.118  121.3  0.1062   52.2  0.8282  -24.4
 0.560  0.6742  -71.0   3.079  119.7  0.1084   51.4  0.8213  -24.9
 0.580  0.6632  -73.2   3.042  118.0  0.1106   50.5  0.8144  -25.5
 0.600  0.6532  -75.5   3.008  116.3  0.1128   49.7  0.8076  -26.0
 0.620  0.6404  -77.3   2.963  114.9  0.1143   49.0  0.8008  -26.4
 0.640  0.6284  -79.2   2.920  113.5  0.1158   48.4  0.7940  -26.9
 0.660  0.6170  -81.2   2.879  112.0  0.1173   47.7  0.7873  -27.3
 0.680  0.6063  -83.2   2.840  110.5  0.1189   47.1  0.7806  -27.7
 0.700  0.5965  -85.3   2.803  108.9  0.1204   46.5  0.7740  -28.2
 0.720  0.5851  -87.1   2.756  107.6  0.1216   45.9  0.7676  -28.6
 0.740  0.5742  -88.9   2.710  106.3  0.1228   45.3  0.7613  -28.9
 0.760  0.5640  -90.8   2.666  105.0  0.1240   44.8  0.7550  -29.3
 0.780  0.5544  -92.8   2.624  103.5  0.1252   44.2  0.7487  -29.7
 0.800  0.5455  -94.8   2.583  102.1  0.1264   43.7  0.7425  -30.1
 0.820  0.5365  -96.3   2.541  101.0  0.1273   43.3  0.7374  -30.4
 0.840  0.5279  -97.9   2.500   99.8  0.1283   43.0  0.7324  -30.7
 0.860  0.5197  -99.6   2.460   98.6  0.1293   42.6  0.7273  -31.0
 0.880  0.5119 -101.3   2.421   97.4  0.1302   42.2  0.7223  -31.4
 0.900  0.5046 -103.0   2.383   96.1  0.1312   41.9  0.7173  -31.7
 0.920  0.4968 -104.7   2.350   95.1  0.1319   41.6  0.7135  -32.0
 0.940  0.4894 -106.5   2.318   94.1  0.1326   41.4  0.7096  -32.3
 0.960  0.4825 -108.3   2.287   93.0  0.1334   41.1  0.7058  -32.5
 0.980  0.4761 -110.2   2.257   91.9  0.1341   40.9  0.7021  -32.8
 1.000  0.4702 -112.1   2.227   90.8  0.1348   40.6  0.6983  -33.1
 1.020  0.4629 -113.9   2.199   89.8  0.1356   40.4  0.6950  -33.4
 1.040  0.4561 -115.8   2.172   88.9  0.1363   40.2  0.6918  -33.7
 1.060  0.4497 -117.8   2.146   87.9  0.1371   39.9  0.6885  -34.1
 1.080  0.4439 -119.8   2.120   86.8  0.1378   39.7  0.6853  -34.4
 1.100  0.4387 -121.8   2.095   85.8  0.1386   39.5  0.6821  -34.7
 1.120  0.4330 -123.4   2.070   84.8  0.1391   39.3  0.6791  -35.0
 1.140  0.4276 -125.0   2.045   83.9  0.1396   39.1  0.6762  -35.3
 1.160  0.4225 -126.7   2.021   82.9  0.1401   39.0  0.6732  -35.5
 1.180  0.4178 -128.4   1.998   81.8  0.1406   38.8  0.6703  -35.8
 1.200  0.4135 -130.1   1.975   80.8  0.1411   38.6  0.6674  -36.1
 1.220  0.4086 -131.6   1.952   80.0  0.1417   38.6  0.6648  -36.4
 1.240  0.4039 -133.2   1.929   79.1  0.1424   38.5  0.6622  -36.6
 1.260  0.3996 -134.8   1.906   78.3  0.1430   38.5  0.6597  -36.9
 1.280  0.3956 -136.4   1.885   77.4  0.1437   38.4  0.6571  -37.1
 1.300  0.3919 -138.1   1.863   76.5  0.1443   38.4  0.6546  -37.4
 1.320  0.3874 -139.8   1.843   75.7  0.1447   38.4  0.6523  -37.7
 1.340  0.3832 -141.5   1.823   74.8  0.1450   38.4  0.6499  -38.0
 1.360  0.3794 -143.2   1.803   73.9  0.1454   38.5  0.6476  -38.3
 1.380  0.3760 -145.0   1.784   73.0  0.1457   38.5  0.6454  -38.6
 1.400  0.3729 -146.8   1.765   72.1  0.1461   38.5  0.6431  -38.9
 1.420  0.3701 -148.3   1.750   71.4  0.1466   38.6  0.6407  -39.2
 1.440  0.3675 -149.7   1.735   70.7  0.1471   38.7  0.6382  -39.4
 1.460  0.3651 -151.2   1.720   69.9  0.1476   38.9  0.6358  -39.7
 1.480  0.3630 -152.8   1.706   69.2  0.1481   39.0  0.6334  -39.9
 1.500  0.3612 -154.3   1.692   68.4  0.1486   39.1  0.6310  -40.2
 1.520  0.3588 -156.1   1.674   67.6  0.1491   39.2  0.6289  -40.5
 1.540  0.3567 -157.9   1.655   66.8  0.1497   39.3  0.6268  -40.8
 1.560  0.3550 -159.7   1.638   65.9  0.1502   39.3  0.6247  -41.1
 1.580  0.3537 -161.5   1.620   65.1  0.1508   39.4  0.6226  -41.4
 1.600  0.3527 -163.4   1.603   64.2  0.1513   39.5  0.6206  -41.7
 1.620  0.3506 -164.9   1.589   63.5  0.1520   39.7  0.6185  -42.0
 1.640  0.3486 -166.4   1.574   62.9  0.1527   40.0  0.6163  -42.3
 1.660  0.3470 -167.9   1.560   62.2  0.1533   40.2  0.6142  -42.6
 1.680  0.3456 -169.5   1.547   61.5  0.1540   40.5  0.6122  -42.9
 1.700  0.3444 -171.0   1.533   60.8  0.1547   40.7  0.6101  -43.2
 1.720  0.3440 -172.5   1.520   60.2  0.1556   40.8  0.6090  -43.5
 1.740  0.3438 -174.0   1.507   59.5  0.1565   40.9  0.6079  -43.8
 1.760  0.3438 -175.4   1.495   58.9  0.1575   41.0  0.6069  -44.0
 1.780  0.3441 -176.9   1.482   58.2  0.1584   41.1  0.6058  -44.3
 1.800  0.3446 -178.4   1.470   57.5  0.1593   41.2  0.6048  -44.6
 1.820  0.3453 -179.8   1.459   56.8  0.1599   41.4  0.6036  -45.0
 1.840  0.3461  178.8   1.448   56.1  0.1605   41.5  0.6025  -45.4
 1.860  0.3472  177.4   1.437   55.4  0.1611   41.7  0.6014  -45.7
 1.880  0.3484  176.1   1.426   54.7  0.1617   41.8  0.6003  -46.1
 1.900  0.3499  174.7   1.416   54.0  0.1623   42.0  0.5992  -46.5
 1.920  0.3498  173.4   1.404   53.4  0.1634   42.1  0.5977  -46.8
 1.940  0.3499  172.1   1.393   52.7  0.1645   42.3  0.5963  -47.1
 1.960  0.3501  170.8   1.382   52.1  0.1655   42.4  0.5949  -47.4
 1.980  0.3506  169.5   1.371   51.4  0.1666   42.6  0.5935  -47.7
 2.000  0.3512  168.2   1.360   50.7  0.1677   42.7  0.5921  -48.0
 2.020  0.3510  167.0   1.350   50.1  0.1688   42.9  0.5905  -48.4
 2.040  0.3509  165.7   1.341   49.5  0.1698   43.1  0.5889  -48.8
 2.060  0.3510  164.5   1.332   49.0  0.1709   43.3  0.5873  -49.1
 2.080  0.3513  163.2   1.323   48.4  0.1720   43.5  0.5857  -49.5
 2.100  0.3517  162.0   1.314   47.8  0.1731   43.7  0.5842  -49.9
 2.120  0.3523  160.7   1.305   47.1  0.1742   43.9  0.5827  -50.3
 2.140  0.3530  159.5   1.296   46.5  0.1752   44.1  0.5812  -50.7
 2.160  0.3540  158.2   1.288   45.9  0.1763   44.2  0.5798  -51.1
 2.180  0.3551  157.0   1.279   45.2  0.1774   44.4  0.5784  -51.5
 2.200  0.3563  155.8   1.271   44.6  0.1785   44.6  0.5770  -51.9
 2.220  0.3575  154.6   1.263   44.1  0.1797   44.7  0.5758  -52.3
 2.240  0.3588  153.4   1.255   43.5  0.1810   44.9  0.5745  -52.7
 2.260  0.3602  152.2   1.247   43.0  0.1822   45.0  0.5734  -53.2
 2.280  0.3619  151.0   1.239   42.4  0.1835   45.1  0.5722  -53.6
 2.300  0.3636  149.9   1.231   41.8  0.1847   45.3  0.5711  -54.0
 2.320  0.3656  148.7   1.223   41.3  0.1860   45.4  0.5700  -54.5
 2.340  0.3676  147.6   1.216   40.7  0.1872   45.5  0.5690  -54.9
 2.360  0.3698  146.4   1.208   40.1  0.1885   45.7  0.5679  -55.3
 2.380  0.3722  145.3   1.201   39.5  0.1897   45.8  0.5670  -55.8
 2.400  0.3747  144.2   1.194   38.9  0.1910   45.9  0.5660  -56.2
 2.420  0.3759  143.2   1.187   38.4  0.1926   46.0  0.5643  -56.6
 2.440  0.3772  142.2   1.181   37.9  0.1943   46.1  0.5626  -57.0
 2.460  0.3786  141.2   1.174   37.5  0.1959   46.2  0.5609  -57.5
 2.480  0.3801  140.2   1.168   37.0  0.1975   46.4  0.5593  -57.9
 2.500  0.3817  139.2   1.161   36.5  0.1991   46.5  0.5577  -58.3
 2.520  0.3834  138.2   1.155   36.0  0.2008   46.6  0.5561  -58.8
 2.540  0.3853  137.2   1.149   35.5  0.2024   46.7  0.5545  -59.2
 2.560  0.3873  136.3   1.143   34.9  0.2040   46.8  0.5530  -59.6
 2.580  0.3893  135.3   1.137   34.4  0.2057   46.9  0.5515  -60.1
 2.600  0.3915  134.4   1.131   33.9  0.2073   47.0  0.5501  -60.5
 2.620  0.3937  133.6   1.124   33.4  0.2089   47.0  0.5489  -61.0
 2.640  0.3959  132.7   1.118   33.0  0.2106   47.1  0.5477  -61.5
 2.660  0.3982  131.9   1.111   32.5  0.2122   47.1  0.5466  -62.0
 2.680  0.4006  131.1   1.105   32.0  0.2138   47.2  0.5456  -62.6
 2.700  0.4031  130.3   1.098   31.5  0.2154   47.2  0.5445  -63.1
 2.720  0.4057  129.5   1.092   31.0  0.2171   47.2  0.5436  -63.6
 2.740  0.4083  128.7   1.086   30.5  0.2187   47.3  0.5426  -64.1
 2.760  0.4110  127.9   1.080   30.0  0.2203   47.3  0.5417  -64.6
 2.780  0.4138  127.2   1.074   29.5  0.2220   47.4  0.5409  -65.2
 2.800  0.4167  126.4   1.068   29.0  0.2236   47.4  0.5401  -65.7
 2.820  0.4187  125.6   1.063   28.5  0.2256   47.4  0.5384  -66.2
 2.840  0.4207  124.8   1.058   28.1  0.2276   47.4  0.5367  -66.8
 2.860  0.4228  124.0   1.053   27.6  0.2295   47.5  0.5350  -67.3
 2.880  0.4250  123.2   1.049   27.1  0.2315   47.5  0.5334  -67.9
 2.900  0.4273  122.4   1.044   26.7  0.2335   47.5  0.5318  -68.4
 2.920  0.4297  121.6   1.040   26.2  0.2355   47.5  0.5303  -69.0
 2.940  0.4321  120.9   1.035   25.7  0.2375   47.5  0.5289  -69.5
 2.960  0.4346  120.1   1.031   25.2  0.2394   47.6  0.5275  -70.1
 2.980  0.4372  119.3   1.026   24.7  0.2414   47.6  0.5261  -70.6
 3.000  0.4399  118.6   1.022   24.2  0.2434   47.6  0.5248  -71.2
 3.100  0.4499  115.4   0.995   22.4  0.2541   47.1  0.5151  -74.3
 3.200  0.4612  112.4   0.970   20.4  0.2649   46.6  0.5069  -77.6
 3.300  0.4737  109.5   0.945   18.4  0.2756   46.2  0.5005  -80.9
 3.400  0.4874  106.8   0.922   16.3  0.2864   45.8  0.4957  -84.3
 3.500  0.5021  104.2   0.900   14.0  0.2972   45.4  0.4928  -87.8
 3.600  0.5104  101.9   0.882   12.5  0.3093   44.4  0.4829  -91.8
 3.700  0.5196   99.6   0.864   10.9  0.3216   43.5  0.4755  -96.0
 3.800  0.5295   97.4   0.847    9.2  0.3339   42.6  0.4707 -100.3
 3.900  0.5401   95.3   0.831    7.5  0.3463   41.8  0.4685 -104.6
 4.000  0.5515   93.3   0.816    5.7  0.3587   41.1  0.4691 -109.0
 4.100  0.5595   91.5   0.801    4.4  0.3710   39.6  0.4604 -113.6
 4.200  0.5681   89.7   0.787    3.1  0.3835   38.2  0.4548 -118.4
 4.300  0.5772   88.0   0.773    1.8  0.3962   36.8  0.4524 -123.2
 4.400  0.5868   86.3   0.759    0.4  0.4091   35.6  0.4532 -128.1
 4.500  0.5969   84.7   0.746   -1.1  0.4222   34.4  0.4573 -132.9
 4.600  0.6021   83.3   0.735   -2.2  0.4325   32.6  0.4501 -137.7
 4.700  0.6077   81.9   0.724   -3.2  0.4432   30.9  0.4462 -142.5
 4.800  0.6137   80.5   0.713   -4.4  0.4543   29.3  0.4455 -147.5
 4.900  0.6200   79.1   0.702   -5.5  0.4657   27.8  0.4481 -152.4
 5.000  0.6266   77.8   0.692   -6.7  0.4774   26.3  0.4540 -157.2
 5.100  0.6326   76.4   0.678   -7.7  0.4814   24.4  0.4406 -161.8
 5.200  0.6389   75.1   0.664   -8.8  0.4858   22.5  0.4301 -166.6
 5.300  0.6456   73.8   0.650   -9.9  0.4909   20.6  0.4229 -171.6
 5.400  0.6526   72.5   0.636  -11.1  0.4964   18.8  0.4190 -176.8
 5.500  0.6599   71.3   0.623  -12.3  0.5024   17.0  0.4185  178.0
 5.600  0.6583   70.2   0.621  -12.3  0.5129   15.9  0.4345  175.3
 5.700  0.6569   69.0   0.620  -12.3  0.5237   14.9  0.4514  172.9
 5.800  0.6558   67.9   0.618  -12.3  0.5345   13.9  0.4691  170.6
 5.900  0.6549   66.7   0.617  -12.3  0.5455   13.0  0.4874  168.5
 6.000  0.6543   65.6   0.615  -12.3  0.5567   12.1  0.5064  166.5
!
!  f       NFmin   Gammaopt  rn/50
! GHz       dB    MAG  ANG    -
!
! noise parameter not available yet for this operation point!
!
! (c) 2015  Infineon Technologies AG, Munich
