! Infineon Technologies  Discrete & RF Semiconductors
! BFR35AP
! VCE =  4.0 V,  IC =  1.2 mA
! Common Emitter S-Parameters:                            Nov 2015
# GHz  S  MA  R  50
!  f         S11            S21            S12            S22
! GHz     MAG   ANG      MAG   ANG      MAG   ANG      MAG   ANG
 0.010  0.9487   -1.6   4.177  179.1  0.0028   90.2  1.0000   -0.6
 0.015  0.9483   -2.3   4.141  178.2  0.0043   89.2  0.9951   -0.9
 0.020  0.9480   -3.0   4.107  177.3  0.0058   88.7  0.9902   -1.3
 0.025  0.9474   -3.7   4.108  176.7  0.0073   87.8  0.9910   -1.6
 0.030  0.9470   -4.5   4.109  176.1  0.0088   87.1  0.9917   -1.9
 0.035  0.9468   -5.2   4.110  175.5  0.0102   86.7  0.9926   -2.3
 0.040  0.9467   -5.9   4.113  174.9  0.0117   86.4  0.9934   -2.6
 0.045  0.9468   -6.7   4.115  174.3  0.0132   86.1  0.9943   -2.9
 0.050  0.9470   -7.4   4.118  173.7  0.0147   85.9  0.9952   -3.2
 0.055  0.9446   -8.2   4.119  173.1  0.0161   85.0  0.9940   -3.5
 0.060  0.9423   -8.9   4.121  172.4  0.0175   84.3  0.9929   -3.8
 0.065  0.9402   -9.7   4.123  171.8  0.0190   83.7  0.9918   -4.1
 0.070  0.9383  -10.5   4.126  171.2  0.0204   83.1  0.9907   -4.4
 0.075  0.9365  -11.3   4.129  170.5  0.0218   82.6  0.9896   -4.7
 0.080  0.9349  -12.0   4.133  169.9  0.0233   82.2  0.9886   -5.1
 0.085  0.9335  -12.8   4.137  169.3  0.0247   81.9  0.9876   -5.4
 0.090  0.9323  -13.6   4.142  168.7  0.0261   81.6  0.9866   -5.7
 0.095  0.9313  -14.4   4.147  168.0  0.0276   81.3  0.9857   -6.0
 0.100  0.9304  -15.2   4.153  167.4  0.0290   81.0  0.9848   -6.3
 0.105  0.9281  -15.9   4.137  166.7  0.0303   80.3  0.9836   -6.6
 0.110  0.9259  -16.6   4.121  166.0  0.0317   79.6  0.9823   -6.9
 0.115  0.9238  -17.2   4.106  165.3  0.0330   79.0  0.9812   -7.3
 0.120  0.9219  -17.9   4.091  164.6  0.0344   78.4  0.9800   -7.6
 0.125  0.9201  -18.6   4.077  163.9  0.0358   77.9  0.9789   -7.9
 0.130  0.9184  -19.3   4.064  163.2  0.0371   77.4  0.9778   -8.2
 0.135  0.9169  -20.0   4.051  162.5  0.0385   77.0  0.9767   -8.5
 0.140  0.9155  -20.7   4.039  161.8  0.0399   76.6  0.9757   -8.9
 0.145  0.9142  -21.4   4.028  161.0  0.0412   76.2  0.9747   -9.2
 0.150  0.9131  -22.1   4.017  160.3  0.0426   75.8  0.9737   -9.5
 0.155  0.9104  -22.8   4.012  159.7  0.0439   75.4  0.9721   -9.8
 0.160  0.9078  -23.5   4.007  159.1  0.0451   75.0  0.9705  -10.0
 0.165  0.9053  -24.3   4.002  158.5  0.0464   74.6  0.9689  -10.3
 0.170  0.9030  -25.0   3.998  158.0  0.0477   74.3  0.9674  -10.6
 0.175  0.9008  -25.7   3.995  157.4  0.0489   73.9  0.9659  -10.8
 0.180  0.8988  -26.4   3.992  156.8  0.0502   73.6  0.9644  -11.1
 0.185  0.8969  -27.2   3.989  156.2  0.0515   73.3  0.9629  -11.4
 0.190  0.8952  -27.9   3.986  155.6  0.0527   73.0  0.9614  -11.7
 0.195  0.8936  -28.7   3.984  155.0  0.0540   72.8  0.9600  -11.9
 0.200  0.8922  -29.4   3.983  154.4  0.0553   72.5  0.9586  -12.2
 0.220  0.8779  -32.3   3.954  151.9  0.0600   70.4  0.9500  -13.3
 0.240  0.8659  -35.2   3.933  149.5  0.0647   68.7  0.9418  -14.5
 0.260  0.8545  -37.9   3.887  147.1  0.0692   67.1  0.9332  -15.6
 0.280  0.8431  -40.4   3.815  144.9  0.0735   65.7  0.9242  -16.6
 0.300  0.8334  -43.0   3.749  142.6  0.0779   64.4  0.9155  -17.6
 0.320  0.8171  -45.4   3.684  140.8  0.0815   62.9  0.9067  -18.4
 0.340  0.8023  -47.8   3.623  138.9  0.0851   61.6  0.8981  -19.2
 0.360  0.7891  -50.4   3.565  137.0  0.0887   60.3  0.8897  -20.0
 0.380  0.7774  -53.0   3.512  135.0  0.0924   59.2  0.8814  -20.8
 0.400  0.7674  -55.7   3.463  133.0  0.0961   58.1  0.8734  -21.7
 0.420  0.7513  -57.9   3.404  131.1  0.0989   56.9  0.8642  -22.4
 0.440  0.7362  -60.1   3.348  129.1  0.1017   55.8  0.8552  -23.1
 0.450  0.7291  -61.3   3.322  128.1  0.1031   55.3  0.8507  -23.4
 0.460  0.7224  -62.5   3.297  127.1  0.1045   54.8  0.8463  -23.8
 0.480  0.7098  -64.9   3.250  125.0  0.1074   53.8  0.8375  -24.5
 0.500  0.6985  -67.4   3.207  122.8  0.1103   52.9  0.8288  -25.2
 0.520  0.6849  -69.5   3.157  121.3  0.1123   51.9  0.8202  -25.8
 0.540  0.6723  -71.7   3.109  119.7  0.1143   51.0  0.8117  -26.3
 0.560  0.6606  -73.9   3.064  118.1  0.1164   50.1  0.8032  -26.9
 0.580  0.6500  -76.3   3.021  116.4  0.1185   49.2  0.7949  -27.5
 0.600  0.6406  -78.7   2.981  114.7  0.1206   48.4  0.7866  -28.1
 0.620  0.6300  -80.5   2.928  113.4  0.1221   47.6  0.7796  -28.5
 0.640  0.6200  -82.3   2.878  112.0  0.1237   46.9  0.7727  -29.0
 0.660  0.6107  -84.2   2.829  110.5  0.1253   46.1  0.7659  -29.5
 0.680  0.6021  -86.2   2.781  109.0  0.1269   45.4  0.7591  -29.9
 0.700  0.5942  -88.2   2.736  107.5  0.1285   44.7  0.7523  -30.4
 0.720  0.5832  -90.0   2.688  106.3  0.1298   44.1  0.7461  -30.8
 0.740  0.5728  -92.0   2.642  105.0  0.1311   43.6  0.7398  -31.1
 0.760  0.5630  -93.9   2.597  103.6  0.1325   43.0  0.7337  -31.5
 0.780  0.5540  -96.0   2.554  102.2  0.1338   42.5  0.7275  -31.9
 0.800  0.5457  -98.1   2.512  100.8  0.1352   42.0  0.7214  -32.3
 0.820  0.5352  -99.8   2.475   99.6  0.1364   41.6  0.7168  -32.6
 0.840  0.5252 -101.5   2.438   98.4  0.1376   41.2  0.7122  -32.9
 0.860  0.5157 -103.2   2.403   97.2  0.1388   40.8  0.7076  -33.2
 0.880  0.5067 -105.1   2.369   95.9  0.1401   40.5  0.7030  -33.6
 0.900  0.4982 -107.0   2.336   94.6  0.1413   40.1  0.6985  -33.9
 0.920  0.4901 -108.8   2.307   93.6  0.1419   39.8  0.6939  -34.2
 0.940  0.4824 -110.6   2.279   92.5  0.1424   39.5  0.6894  -34.5
 0.960  0.4753 -112.5   2.252   91.4  0.1430   39.2  0.6849  -34.8
 0.980  0.4687 -114.4   2.225   90.3  0.1435   38.9  0.6804  -35.2
 1.000  0.4626 -116.4   2.200   89.1  0.1441   38.6  0.6759  -35.5
 1.020  0.4557 -118.3   2.173   88.1  0.1448   38.4  0.6718  -35.8
 1.040  0.4493 -120.2   2.147   87.1  0.1455   38.2  0.6677  -36.2
 1.060  0.4434 -122.1   2.121   86.1  0.1461   38.0  0.6636  -36.5
 1.080  0.4381 -124.1   2.096   85.1  0.1468   37.8  0.6595  -36.9
 1.100  0.4333 -126.2   2.072   84.0  0.1475   37.6  0.6555  -37.2
 1.120  0.4279 -127.8   2.046   83.0  0.1479   37.4  0.6523  -37.5
 1.140  0.4228 -129.4   2.021   82.1  0.1484   37.3  0.6492  -37.8
 1.160  0.4180 -131.1   1.997   81.1  0.1488   37.1  0.6460  -38.1
 1.180  0.4136 -132.8   1.973   80.0  0.1493   37.0  0.6429  -38.4
 1.200  0.4096 -134.5   1.950   79.0  0.1497   36.8  0.6398  -38.7
 1.220  0.4057 -136.0   1.925   78.2  0.1503   36.8  0.6368  -39.0
 1.240  0.4020 -137.5   1.901   77.4  0.1510   36.8  0.6338  -39.2
 1.260  0.3987 -139.1   1.877   76.5  0.1516   36.8  0.6309  -39.5
 1.280  0.3956 -140.7   1.854   75.7  0.1523   36.8  0.6279  -39.7
 1.300  0.3929 -142.3   1.831   74.8  0.1529   36.8  0.6250  -40.0
 1.320  0.3888 -144.0   1.809   74.0  0.1531   36.8  0.6226  -40.3
 1.340  0.3851 -145.6   1.787   73.1  0.1534   36.8  0.6202  -40.6
 1.360  0.3817 -147.4   1.766   72.3  0.1536   36.7  0.6179  -41.0
 1.380  0.3787 -149.1   1.745   71.4  0.1539   36.7  0.6155  -41.3
 1.400  0.3760 -150.9   1.725   70.5  0.1541   36.7  0.6132  -41.6
 1.420  0.3741 -152.3   1.709   69.8  0.1547   36.8  0.6108  -41.9
 1.440  0.3724 -153.7   1.693   69.1  0.1553   36.9  0.6084  -42.2
 1.460  0.3709 -155.2   1.677   68.3  0.1558   37.0  0.6061  -42.4
 1.480  0.3697 -156.6   1.662   67.6  0.1564   37.1  0.6037  -42.7
 1.500  0.3687 -158.1   1.647   66.8  0.1570   37.2  0.6014  -43.0
 1.520  0.3675 -159.8   1.628   66.0  0.1577   37.3  0.5996  -43.3
 1.540  0.3667 -161.6   1.610   65.2  0.1583   37.3  0.5977  -43.6
 1.560  0.3662 -163.3   1.591   64.3  0.1590   37.4  0.5959  -43.8
 1.580  0.3660 -165.1   1.574   63.5  0.1596   37.4  0.5941  -44.1
 1.600  0.3662 -166.8   1.556   62.6  0.1603   37.5  0.5923  -44.4
 1.620  0.3638 -168.3   1.543   61.9  0.1610   37.6  0.5905  -44.8
 1.640  0.3617 -169.8   1.531   61.2  0.1616   37.7  0.5888  -45.1
 1.660  0.3598 -171.3   1.519   60.5  0.1623   37.9  0.5870  -45.5
 1.680  0.3581 -172.8   1.507   59.8  0.1629   38.0  0.5853  -45.8
 1.700  0.3567 -174.3   1.495   59.1  0.1636   38.1  0.5836  -46.2
 1.720  0.3561 -176.0   1.485   58.5  0.1645   38.2  0.5823  -46.5
 1.740  0.3557 -177.6   1.475   57.8  0.1654   38.4  0.5810  -46.8
 1.760  0.3557 -179.3   1.466   57.2  0.1664   38.5  0.5797  -47.1
 1.780  0.3559  179.1   1.456   56.6  0.1673   38.7  0.5784  -47.4
 1.800  0.3565  177.4   1.447   55.9  0.1682   38.8  0.5772  -47.7
 1.820  0.3571  176.2   1.436   55.2  0.1688   39.0  0.5754  -48.1
 1.840  0.3579  174.9   1.425   54.5  0.1695   39.2  0.5737  -48.5
 1.860  0.3589  173.7   1.415   53.7  0.1701   39.4  0.5720  -48.9
 1.880  0.3600  172.5   1.405   53.0  0.1708   39.6  0.5703  -49.3
 1.900  0.3613  171.3   1.395   52.2  0.1714   39.8  0.5686  -49.7
 1.920  0.3606  169.9   1.383   51.6  0.1725   39.9  0.5669  -50.0
 1.940  0.3600  168.6   1.371   51.0  0.1737   40.1  0.5652  -50.3
 1.960  0.3597  167.2   1.360   50.4  0.1748   40.2  0.5635  -50.7
 1.980  0.3595  165.9   1.348   49.7  0.1760   40.4  0.5618  -51.0
 2.000  0.3596  164.5   1.337   49.1  0.1771   40.5  0.5602  -51.3
 2.020  0.3603  163.4   1.327   48.5  0.1781   40.6  0.5588  -51.7
 2.040  0.3611  162.2   1.316   48.0  0.1791   40.8  0.5574  -52.1
 2.060  0.3621  161.1   1.306   47.4  0.1800   40.9  0.5561  -52.5
 2.080  0.3632  160.0   1.296   46.8  0.1810   41.1  0.5548  -53.0
 2.100  0.3644  158.9   1.286   46.2  0.1820   41.2  0.5535  -53.4
 2.120  0.3658  157.8   1.276   45.6  0.1830   41.4  0.5522  -53.8
 2.140  0.3673  156.7   1.267   44.9  0.1839   41.5  0.5510  -54.2
 2.160  0.3689  155.6   1.257   44.3  0.1849   41.6  0.5498  -54.6
 2.180  0.3707  154.6   1.248   43.7  0.1859   41.8  0.5486  -55.1
 2.200  0.3726  153.5   1.239   43.0  0.1869   41.9  0.5475  -55.5
 2.220  0.3734  152.3   1.232   42.4  0.1883   42.1  0.5457  -55.9
 2.240  0.3744  151.1   1.226   41.9  0.1897   42.2  0.5440  -56.4
 2.260  0.3755  149.9   1.219   41.3  0.1911   42.4  0.5423  -56.8
 2.280  0.3768  148.7   1.213   40.8  0.1925   42.6  0.5406  -57.3
 2.300  0.3782  147.5   1.207   40.2  0.1939   42.7  0.5389  -57.7
 2.320  0.3798  146.4   1.201   39.6  0.1953   42.9  0.5373  -58.2
 2.340  0.3816  145.2   1.195   39.0  0.1967   43.0  0.5357  -58.6
 2.360  0.3835  144.1   1.189   38.4  0.1981   43.2  0.5342  -59.1
 2.380  0.3856  142.9   1.184   37.8  0.1995   43.4  0.5327  -59.5
 2.400  0.3878  141.8   1.178   37.2  0.2009   43.5  0.5312  -60.0
 2.420  0.3899  140.9   1.170   36.7  0.2024   43.6  0.5298  -60.5
 2.440  0.3921  139.9   1.162   36.3  0.2040   43.7  0.5285  -60.9
 2.460  0.3943  139.0   1.154   35.8  0.2055   43.8  0.5272  -61.4
 2.480  0.3967  138.1   1.146   35.3  0.2071   43.8  0.5259  -61.9
 2.500  0.3992  137.2   1.138   34.8  0.2086   43.9  0.5247  -62.3
 2.520  0.4018  136.3   1.130   34.3  0.2102   44.0  0.5235  -62.8
 2.540  0.4045  135.4   1.122   33.8  0.2117   44.1  0.5224  -63.3
 2.560  0.4073  134.5   1.115   33.3  0.2133   44.1  0.5212  -63.7
 2.580  0.4101  133.6   1.107   32.7  0.2148   44.2  0.5201  -64.2
 2.600  0.4131  132.8   1.100   32.2  0.2164   44.3  0.5191  -64.7
 2.620  0.4144  131.9   1.095   31.7  0.2182   44.3  0.5174  -65.2
 2.640  0.4158  131.1   1.090   31.3  0.2199   44.4  0.5157  -65.8
 2.660  0.4173  130.2   1.085   30.8  0.2217   44.4  0.5141  -66.3
 2.680  0.4189  129.4   1.080   30.3  0.2235   44.4  0.5125  -66.9
 2.700  0.4206  128.6   1.075   29.8  0.2252   44.5  0.5110  -67.4
 2.720  0.4224  127.7   1.070   29.3  0.2270   44.5  0.5095  -68.0
 2.740  0.4242  126.9   1.066   28.8  0.2288   44.5  0.5081  -68.5
 2.760  0.4262  126.1   1.061   28.3  0.2306   44.5  0.5067  -69.1
 2.780  0.4282  125.3   1.056   27.8  0.2323   44.6  0.5054  -69.6
 2.800  0.4303  124.5   1.052   27.3  0.2341   44.6  0.5041  -70.2
 2.820  0.4328  123.8   1.046   26.9  0.2360   44.6  0.5026  -70.8
 2.840  0.4353  123.1   1.040   26.4  0.2379   44.6  0.5011  -71.4
 2.860  0.4379  122.4   1.034   25.9  0.2398   44.6  0.4997  -72.0
 2.880  0.4405  121.7   1.028   25.5  0.2417   44.6  0.4983  -72.6
 2.900  0.4432  121.0   1.023   25.0  0.2436   44.6  0.4970  -73.3
 2.920  0.4460  120.3   1.017   24.5  0.2454   44.6  0.4958  -73.9
 2.940  0.4488  119.7   1.011   24.1  0.2473   44.6  0.4946  -74.5
 2.960  0.4517  119.0   1.006   23.6  0.2492   44.6  0.4935  -75.1
 2.980  0.4547  118.3   1.000   23.1  0.2511   44.6  0.4924  -75.8
 3.000  0.4577  117.7   0.995   22.6  0.2530   44.6  0.4914  -76.4
 3.100  0.4676  114.6   0.969   20.8  0.2637   44.0  0.4816  -79.8
 3.200  0.4787  111.6   0.944   18.9  0.2744   43.5  0.4736  -83.3
 3.300  0.4911  108.8   0.920   16.9  0.2852   43.0  0.4674  -86.9
 3.400  0.5046  106.1   0.897   14.8  0.2959   42.5  0.4632  -90.6
 3.500  0.5192  103.6   0.876   12.6  0.3067   42.1  0.4609  -94.4
 3.600  0.5266  101.2   0.859   11.1  0.3188   41.1  0.4506  -98.7
 3.700  0.5349   98.9   0.842    9.5  0.3310   40.1  0.4428 -103.2
 3.800  0.5440   96.7   0.826    7.9  0.3434   39.2  0.4379 -107.8
 3.900  0.5539   94.5   0.811    6.2  0.3557   38.4  0.4359 -112.4
 4.000  0.5646   92.4   0.796    4.4  0.3682   37.6  0.4367 -117.1
 4.100  0.5724   90.6   0.783    3.2  0.3799   36.1  0.4292 -121.9
 4.200  0.5808   88.8   0.770    1.9  0.3919   34.6  0.4248 -126.9
 4.300  0.5897   87.1   0.757    0.6  0.4041   33.3  0.4237 -131.9
 4.400  0.5992   85.4   0.745   -0.8  0.4165   32.0  0.4258 -137.0
 4.500  0.6091   83.8   0.733   -2.2  0.4291   30.8  0.4312 -141.9
 4.600  0.6135   82.4   0.722   -3.2  0.4386   29.1  0.4270 -146.9
 4.700  0.6182   81.0   0.711   -4.3  0.4484   27.4  0.4260 -151.9
 4.800  0.6233   79.6   0.700   -5.4  0.4587   25.8  0.4284 -156.9
 4.900  0.6287   78.2   0.689   -6.5  0.4692   24.3  0.4339 -161.8
 5.000  0.6345   76.9   0.679   -7.7  0.4801   22.8  0.4426 -166.6
 5.100  0.6406   75.6   0.665   -8.6  0.4836   20.9  0.4310 -171.2
 5.200  0.6470   74.3   0.651   -9.6  0.4875   19.1  0.4222 -176.0
 5.300  0.6537   73.0   0.638  -10.6  0.4920   17.3  0.4166  179.1
 5.400  0.6607   71.8   0.624  -11.7  0.4969   15.5  0.4141  174.0
 5.500  0.6680   70.6   0.611  -12.8  0.5023   13.8  0.4149  168.9
 5.600  0.6667   69.5   0.611  -12.9  0.5123   12.8  0.4310  166.6
 5.700  0.6657   68.4   0.611  -13.0  0.5224   11.8  0.4478  164.5
 5.800  0.6649   67.3   0.610  -13.2  0.5327   10.9  0.4651  162.5
 5.900  0.6644   66.2   0.610  -13.3  0.5431   10.0  0.4829  160.7
 6.000  0.6641   65.1   0.610  -13.4  0.5536    9.1  0.5012  159.0
!
!  f       NFmin   Gammaopt  rn/50
! GHz       dB    MAG  ANG    -
!
! noise parameter not available yet for this operation point!
!
! (c) 2015  Infineon Technologies AG, Munich
