! Infineon Technologies  Discrete & RF Semiconductors
! BFR35AP
! VCE =  2.0 V,  IC =  4.5 mA
! Common Emitter S-Parameters:                            Nov 2015
# GHz  S  MA  R  50
!  f         S11            S21            S12            S22
! GHz     MAG   ANG      MAG   ANG      MAG   ANG      MAG   ANG
 0.010  0.8309   -3.5  13.056  177.4  0.0031   87.0  0.9908   -1.7
 0.015  0.8268   -5.3  13.041  175.9  0.0047   86.6  0.9844   -2.6
 0.020  0.8235   -7.1  13.035  174.3  0.0064   86.4  0.9782   -3.5
 0.025  0.8207   -8.7  12.978  173.0  0.0080   84.4  0.9764   -4.3
 0.030  0.8186  -10.4  12.928  171.7  0.0096   83.1  0.9747   -5.2
 0.035  0.8172  -12.0  12.885  170.3  0.0112   82.1  0.9733   -6.0
 0.040  0.8164  -13.7  12.849  169.0  0.0129   81.4  0.9721   -6.9
 0.045  0.8164  -15.3  12.820  167.7  0.0145   80.8  0.9712   -7.7
 0.050  0.8170  -17.0  12.798  166.3  0.0161   80.4  0.9704   -8.6
 0.055  0.8089  -18.5  12.703  165.1  0.0175   79.1  0.9644   -9.3
 0.060  0.8014  -20.1  12.614  163.9  0.0189   77.9  0.9585  -10.1
 0.065  0.7945  -21.6  12.530  162.7  0.0203   77.0  0.9528  -10.8
 0.070  0.7882  -23.2  12.452  161.5  0.0218   76.1  0.9472  -11.5
 0.075  0.7825  -24.9  12.380  160.3  0.0232   75.4  0.9418  -12.3
 0.080  0.7774  -26.5  12.313  159.0  0.0246   74.7  0.9366  -13.1
 0.085  0.7730  -28.2  12.253  157.8  0.0261   74.1  0.9315  -13.8
 0.090  0.7693  -29.9  12.198  156.5  0.0275   73.6  0.9267  -14.6
 0.095  0.7663  -31.6  12.149  155.2  0.0290   73.1  0.9219  -15.4
 0.100  0.7639  -33.3  12.107  153.9  0.0304   72.7  0.9174  -16.2
 0.105  0.7548  -34.6  11.981  152.8  0.0315   71.8  0.9103  -16.8
 0.110  0.7461  -35.9  11.860  151.7  0.0327   70.9  0.9032  -17.4
 0.115  0.7379  -37.3  11.743  150.6  0.0339   70.1  0.8963  -18.0
 0.120  0.7300  -38.7  11.631  149.4  0.0350   69.4  0.8894  -18.6
 0.125  0.7226  -40.1  11.524  148.2  0.0362   68.7  0.8827  -19.2
 0.130  0.7156  -41.5  11.421  147.0  0.0374   68.0  0.8761  -19.9
 0.135  0.7092  -43.0  11.324  145.8  0.0385   67.4  0.8696  -20.5
 0.140  0.7031  -44.5  11.232  144.5  0.0397   66.9  0.8632  -21.2
 0.145  0.6976  -46.1  11.146  143.3  0.0409   66.3  0.8569  -21.8
 0.150  0.6926  -47.6  11.065  142.0  0.0421   65.8  0.8507  -22.5
 0.155  0.6854  -48.7  10.947  141.2  0.0430   65.3  0.8440  -22.9
 0.160  0.6785  -49.9  10.832  140.3  0.0439   64.9  0.8373  -23.3
 0.165  0.6718  -51.1  10.719  139.5  0.0449   64.5  0.8306  -23.7
 0.170  0.6655  -52.3  10.609  138.6  0.0458   64.1  0.8240  -24.1
 0.175  0.6594  -53.5  10.501  137.7  0.0467   63.7  0.8175  -24.5
 0.180  0.6536  -54.7  10.395  136.8  0.0477   63.3  0.8109  -24.9
 0.185  0.6482  -56.0  10.292  135.9  0.0486   63.0  0.8045  -25.4
 0.190  0.6431  -57.3  10.192  134.9  0.0495   62.6  0.7980  -25.8
 0.195  0.6383  -58.6  10.095  134.0  0.0505   62.3  0.7916  -26.2
 0.200  0.6338  -59.9  10.001  133.0  0.0514   62.0  0.7853  -26.7
 0.220  0.6056  -64.4   9.581  129.9  0.0543   60.2  0.7597  -27.9
 0.240  0.5814  -69.2   9.191  126.5  0.0573   58.6  0.7344  -29.2
 0.260  0.5583  -73.7   8.819  123.5  0.0600   57.5  0.7109  -30.3
 0.280  0.5348  -77.6   8.451  121.0  0.0624   56.7  0.6891  -31.2
 0.300  0.5141  -81.9   8.102  118.2  0.0648   56.0  0.6674  -32.2
 0.320  0.4953  -84.8   7.792  116.6  0.0667   55.5  0.6516  -32.6
 0.340  0.4779  -88.0   7.488  114.9  0.0687   55.0  0.6358  -33.0
 0.360  0.4621  -91.4   7.192  113.0  0.0706   54.5  0.6200  -33.5
 0.380  0.4481  -95.1   6.905  110.9  0.0726   54.0  0.6043  -33.9
 0.400  0.4359  -98.9   6.627  108.7  0.0745   53.6  0.5886  -34.4
 0.420  0.4237 -101.3   6.399  107.3  0.0762   53.4  0.5776  -34.6
 0.440  0.4122 -103.9   6.174  105.8  0.0779   53.3  0.5667  -34.8
 0.450  0.4068 -105.2   6.064  105.0  0.0788   53.2  0.5612  -34.9
 0.460  0.4017 -106.6   5.955  104.1  0.0797   53.1  0.5557  -35.0
 0.480  0.3920 -109.4   5.741  102.4  0.0814   52.9  0.5447  -35.3
 0.500  0.3834 -112.4   5.532  100.5  0.0831   52.8  0.5338  -35.5
 0.520  0.3747 -114.9   5.378   99.3  0.0847   52.8  0.5261  -35.6
 0.540  0.3668 -117.6   5.226   98.1  0.0863   52.7  0.5184  -35.7
 0.560  0.3598 -120.4   5.077   96.8  0.0878   52.7  0.5107  -35.8
 0.580  0.3536 -123.2   4.930   95.4  0.0894   52.6  0.5030  -36.0
 0.600  0.3483 -126.2   4.787   93.9  0.0910   52.6  0.4953  -36.1
 0.620  0.3416 -128.4   4.668   92.9  0.0926   52.7  0.4897  -36.2
 0.640  0.3355 -130.8   4.550   91.9  0.0942   52.9  0.4840  -36.3
 0.660  0.3300 -133.2   4.433   90.8  0.0957   53.0  0.4784  -36.4
 0.680  0.3250 -135.6   4.319   89.6  0.0973   53.2  0.4727  -36.5
 0.700  0.3207 -138.2   4.206   88.4  0.0989   53.3  0.4671  -36.6
 0.720  0.3167 -139.9   4.106   87.5  0.1006   53.3  0.4630  -36.7
 0.740  0.3129 -141.7   4.007   86.6  0.1022   53.3  0.4589  -36.8
 0.760  0.3095 -143.5   3.909   85.7  0.1039   53.4  0.4547  -36.9
 0.780  0.3064 -145.3   3.812   84.7  0.1055   53.4  0.4506  -37.0
 0.800  0.3036 -147.2   3.716   83.6  0.1072   53.4  0.4465  -37.1
 0.820  0.3005 -148.9   3.640   82.8  0.1090   53.5  0.4435  -37.2
 0.840  0.2977 -150.6   3.565   82.0  0.1108   53.6  0.4405  -37.3
 0.860  0.2952 -152.3   3.491   81.1  0.1127   53.6  0.4376  -37.5
 0.880  0.2929 -154.0   3.417   80.2  0.1145   53.7  0.4346  -37.6
 0.900  0.2909 -155.8   3.345   79.2  0.1163   53.8  0.4316  -37.7
 0.920  0.2884 -157.8   3.286   78.5  0.1179   53.8  0.4293  -37.9
 0.940  0.2862 -159.8   3.228   77.7  0.1195   53.9  0.4271  -38.0
 0.960  0.2844 -161.9   3.170   76.9  0.1212   53.9  0.4248  -38.2
 0.980  0.2830 -164.0   3.113   76.1  0.1228   54.0  0.4226  -38.3
 1.000  0.2820 -166.1   3.057   75.2  0.1244   54.0  0.4203  -38.5
 1.020  0.2819 -167.7   3.009   74.5  0.1262   54.0  0.4181  -38.7
 1.040  0.2820 -169.4   2.962   73.8  0.1281   54.1  0.4160  -39.0
 1.060  0.2823 -171.0   2.916   73.0  0.1299   54.1  0.4139  -39.2
 1.080  0.2829 -172.7   2.870   72.2  0.1318   54.2  0.4117  -39.5
 1.100  0.2837 -174.3   2.824   71.4  0.1336   54.2  0.4096  -39.7
 1.120  0.2842 -175.8   2.781   70.7  0.1353   54.2  0.4076  -39.9
 1.140  0.2849 -177.2   2.739   70.0  0.1371   54.2  0.4057  -40.1
 1.160  0.2857 -178.7   2.697   69.3  0.1388   54.3  0.4037  -40.4
 1.180  0.2868  179.8   2.656   68.6  0.1406   54.3  0.4017  -40.6
 1.200  0.2880  178.4   2.615   67.8  0.1423   54.3  0.3998  -40.8
 1.220  0.2872  177.1   2.577   67.2  0.1442   54.3  0.3981  -41.0
 1.240  0.2866  175.8   2.539   66.5  0.1461   54.2  0.3964  -41.2
 1.260  0.2861  174.5   2.501   65.9  0.1480   54.2  0.3947  -41.5
 1.280  0.2858  173.2   2.464   65.2  0.1499   54.1  0.3931  -41.7
 1.300  0.2856  171.9   2.427   64.5  0.1518   54.1  0.3914  -41.9
 1.320  0.2859  170.6   2.395   63.9  0.1535   54.1  0.3900  -42.2
 1.340  0.2864  169.3   2.363   63.3  0.1552   54.1  0.3887  -42.5
 1.360  0.2870  168.0   2.332   62.7  0.1570   54.0  0.3873  -42.8
 1.380  0.2878  166.7   2.301   62.1  0.1587   54.0  0.3860  -43.1
 1.400  0.2887  165.4   2.270   61.4  0.1604   54.0  0.3847  -43.4
 1.420  0.2887  164.4   2.247   60.8  0.1622   54.0  0.3832  -43.7
 1.440  0.2887  163.4   2.224   60.2  0.1640   53.9  0.3816  -44.0
 1.460  0.2889  162.4   2.202   59.6  0.1659   53.9  0.3801  -44.3
 1.480  0.2891  161.4   2.180   59.0  0.1677   53.8  0.3786  -44.6
 1.500  0.2894  160.4   2.158   58.4  0.1695   53.8  0.3771  -44.9
 1.520  0.2913  159.1   2.131   57.8  0.1715   53.7  0.3754  -45.2
 1.540  0.2933  157.9   2.104   57.1  0.1735   53.6  0.3737  -45.6
 1.560  0.2955  156.6   2.077   56.4  0.1755   53.6  0.3720  -45.9
 1.580  0.2978  155.4   2.051   55.7  0.1775   53.5  0.3703  -46.3
 1.600  0.3002  154.2   2.025   55.0  0.1795   53.4  0.3686  -46.6
 1.620  0.3017  153.2   2.005   54.5  0.1814   53.3  0.3674  -46.9
 1.640  0.3033  152.2   1.984   53.9  0.1833   53.3  0.3661  -47.3
 1.660  0.3050  151.2   1.964   53.4  0.1851   53.2  0.3649  -47.6
 1.680  0.3068  150.2   1.945   52.8  0.1870   53.2  0.3637  -48.0
 1.700  0.3087  149.2   1.925   52.2  0.1889   53.1  0.3625  -48.3
 1.720  0.3094  148.3   1.908   51.7  0.1909   52.9  0.3616  -48.7
 1.740  0.3101  147.4   1.891   51.1  0.1929   52.8  0.3607  -49.1
 1.760  0.3109  146.5   1.875   50.6  0.1948   52.6  0.3598  -49.4
 1.780  0.3118  145.6   1.858   50.1  0.1968   52.5  0.3589  -49.8
 1.800  0.3128  144.7   1.842   49.5  0.1988   52.3  0.3581  -50.2
 1.820  0.3149  143.9   1.827   49.0  0.2007   52.2  0.3566  -50.7
 1.840  0.3171  143.1   1.811   48.4  0.2026   52.1  0.3551  -51.1
 1.860  0.3193  142.3   1.796   47.8  0.2044   52.1  0.3537  -51.6
 1.880  0.3216  141.6   1.782   47.3  0.2063   52.0  0.3522  -52.0
 1.900  0.3240  140.8   1.767   46.7  0.2082   51.9  0.3508  -52.5
 1.920  0.3256  140.0   1.751   46.2  0.2103   51.7  0.3492  -52.9
 1.940  0.3272  139.3   1.736   45.6  0.2123   51.6  0.3476  -53.2
 1.960  0.3289  138.5   1.720   45.1  0.2144   51.4  0.3460  -53.6
 1.980  0.3307  137.7   1.705   44.5  0.2164   51.3  0.3445  -53.9
 2.000  0.3325  137.0   1.690   43.9  0.2185   51.1  0.3429  -54.3
 2.020  0.3339  136.2   1.676   43.4  0.2205   50.9  0.3413  -54.8
 2.040  0.3354  135.4   1.663   42.9  0.2225   50.8  0.3398  -55.2
 2.060  0.3369  134.6   1.650   42.4  0.2245   50.7  0.3383  -55.7
 2.080  0.3385  133.9   1.636   41.9  0.2265   50.5  0.3368  -56.1
 2.100  0.3402  133.1   1.623   41.4  0.2285   50.4  0.3353  -56.6
 2.120  0.3419  132.3   1.610   40.9  0.2305   50.2  0.3339  -57.1
 2.140  0.3436  131.6   1.598   40.3  0.2326   50.1  0.3324  -57.5
 2.160  0.3455  130.9   1.585   39.8  0.2346   50.0  0.3310  -58.0
 2.180  0.3474  130.1   1.572   39.3  0.2366   49.8  0.3297  -58.5
 2.200  0.3493  129.4   1.560   38.7  0.2386   49.7  0.3283  -59.0
 2.220  0.3516  128.7   1.550   38.2  0.2406   49.5  0.3265  -59.5
 2.240  0.3541  127.9   1.540   37.7  0.2426   49.3  0.3248  -60.0
 2.260  0.3565  127.2   1.531   37.2  0.2446   49.1  0.3231  -60.5
 2.280  0.3590  126.5   1.521   36.7  0.2466   48.9  0.3214  -61.1
 2.300  0.3616  125.8   1.512   36.2  0.2486   48.8  0.3198  -61.6
 2.320  0.3642  125.1   1.503   35.7  0.2506   48.6  0.3181  -62.1
 2.340  0.3669  124.5   1.494   35.1  0.2526   48.4  0.3165  -62.7
 2.360  0.3696  123.8   1.485   34.6  0.2546   48.2  0.3150  -63.2
 2.380  0.3724  123.1   1.476   34.0  0.2566   48.1  0.3134  -63.7
 2.400  0.3752  122.5   1.467   33.5  0.2586   47.9  0.3119  -64.3
 2.420  0.3775  121.9   1.457   33.1  0.2606   47.7  0.3101  -64.9
 2.440  0.3798  121.3   1.448   32.6  0.2626   47.5  0.3083  -65.4
 2.460  0.3822  120.7   1.439   32.2  0.2646   47.3  0.3065  -66.0
 2.480  0.3846  120.0   1.430   31.7  0.2666   47.1  0.3048  -66.5
 2.500  0.3870  119.5   1.420   31.3  0.2686   46.9  0.3031  -67.1
 2.520  0.3895  118.9   1.411   30.8  0.2706   46.7  0.3014  -67.7
 2.540  0.3921  118.3   1.402   30.3  0.2726   46.5  0.2997  -68.3
 2.560  0.3946  117.7   1.393   29.9  0.2747   46.4  0.2981  -68.9
 2.580  0.3972  117.2   1.385   29.4  0.2767   46.2  0.2965  -69.5
 2.600  0.3999  116.6   1.376   28.9  0.2787   46.0  0.2950  -70.1
 2.620  0.4018  116.1   1.369   28.5  0.2807   45.8  0.2932  -70.7
 2.640  0.4037  115.5   1.361   28.1  0.2827   45.6  0.2914  -71.4
 2.660  0.4057  115.0   1.354   27.6  0.2847   45.3  0.2896  -72.1
 2.680  0.4077  114.5   1.347   27.2  0.2867   45.1  0.2879  -72.7
 2.700  0.4098  113.9   1.340   26.8  0.2887   44.9  0.2862  -73.4
 2.720  0.4119  113.4   1.332   26.3  0.2907   44.7  0.2846  -74.1
 2.740  0.4140  112.9   1.325   25.9  0.2927   44.5  0.2830  -74.8
 2.760  0.4161  112.4   1.319   25.4  0.2947   44.3  0.2814  -75.5
 2.780  0.4183  111.9   1.312   25.0  0.2967   44.1  0.2799  -76.2
 2.800  0.4205  111.4   1.305   24.5  0.2987   43.9  0.2784  -76.9
 2.820  0.4228  110.9   1.297   24.1  0.3007   43.7  0.2765  -77.6
 2.840  0.4251  110.4   1.290   23.6  0.3027   43.4  0.2746  -78.4
 2.860  0.4274  110.0   1.283   23.1  0.3047   43.2  0.2728  -79.1
 2.880  0.4298  109.5   1.275   22.7  0.3068   42.9  0.2711  -79.9
 2.900  0.4322  109.0   1.268   22.2  0.3088   42.7  0.2694  -80.7
 2.920  0.4346  108.6   1.261   21.7  0.3108   42.5  0.2677  -81.5
 2.940  0.4371  108.1   1.254   21.3  0.3129   42.3  0.2661  -82.3
 2.960  0.4396  107.7   1.247   20.8  0.3149   42.0  0.2646  -83.1
 2.980  0.4421  107.2   1.240   20.3  0.3169   41.8  0.2630  -83.9
 3.000  0.4446  106.8   1.233   19.8  0.3190   41.6  0.2616  -84.7
 3.100  0.4561  104.6   1.201   18.0  0.3281   40.2  0.2514  -89.0
 3.200  0.4683  102.6   1.171   16.1  0.3373   39.0  0.2427  -93.6
 3.300  0.4810  100.6   1.141   14.2  0.3467   37.7  0.2357  -98.5
 3.400  0.4943   98.8   1.113   12.1  0.3562   36.6  0.2305 -103.6
 3.500  0.5080   97.0   1.087    9.9  0.3659   35.5  0.2272 -109.0
 3.600  0.5166   95.3   1.064    8.3  0.3744   34.1  0.2206 -114.9
 3.700  0.5256   93.6   1.041    6.6  0.3832   32.8  0.2165 -121.1
 3.800  0.5351   92.0   1.019    4.8  0.3921   31.6  0.2150 -127.5
 3.900  0.5449   90.4   0.999    3.0  0.4012   30.4  0.2162 -133.9
 4.000  0.5552   88.9   0.979    1.1  0.4105   29.3  0.2200 -140.1
 4.100  0.5638   87.4   0.960   -0.3  0.4185   27.8  0.2200 -146.3
 4.200  0.5728   86.0   0.942   -1.8  0.4267   26.4  0.2225 -152.4
 4.300  0.5822   84.6   0.925   -3.3  0.4352   25.1  0.2275 -158.3
 4.400  0.5919   83.2   0.908   -4.9  0.4439   23.8  0.2348 -163.9
 4.500  0.6019   81.9   0.892   -6.6  0.4528   22.5  0.2442 -169.1
 4.600  0.6084   80.6   0.875   -7.9  0.4591   21.0  0.2488 -174.5
 4.700  0.6151   79.4   0.859   -9.2  0.4656   19.5  0.2555 -179.6
 4.800  0.6222   78.2   0.844  -10.6  0.4725   18.1  0.2642  175.6
 4.900  0.6294   77.0   0.829  -12.1  0.4797   16.7  0.2746  171.1
 5.000  0.6370   75.9   0.814  -13.6  0.4871   15.4  0.2865  167.0
 5.100  0.6437   74.6   0.795  -14.7  0.4887   13.8  0.2861  162.4
 5.200  0.6507   73.4   0.775  -15.8  0.4907   12.3  0.2876  157.8
 5.300  0.6580   72.2   0.757  -17.0  0.4931   10.7  0.2909  153.3
 5.400  0.6656   71.0   0.738  -18.3  0.4958    9.2  0.2959  148.9
 5.500  0.6735   69.9   0.720  -19.6  0.4988    7.7  0.3026  144.7
 5.600  0.6729   68.9   0.716  -19.9  0.5071    6.8  0.3205  143.9
 5.700  0.6724   67.9   0.711  -20.2  0.5156    6.0  0.3385  143.2
 5.800  0.6722   66.9   0.707  -20.5  0.5241    5.2  0.3565  142.5
 5.900  0.6722   65.9   0.702  -20.9  0.5328    4.4  0.3745  141.9
 6.000  0.6724   64.9   0.698  -21.2  0.5415    3.7  0.3926  141.4
!
!  f       NFmin   Gammaopt  rn/50
! GHz       dB    MAG  ANG    -
!
! noise parameter not available yet for this operation point!
!
! (c) 2015  Infineon Technologies AG, Munich
