! Infineon Technologies  Discrete & RF Semiconductors
! BFR35AP
! VCE =  1.7 V,  IC =  1.5 mA
! Common Emitter S-Parameters:                            Nov 2015
# GHz  S  MA  R  50
!  f         S11            S21            S12            S22
! GHz     MAG   ANG      MAG   ANG      MAG   ANG      MAG   ANG
 0.010  0.9327   -2.0   5.051  178.8  0.0033   93.0  0.9987   -0.8
 0.015  0.9292   -2.9   5.059  177.8  0.0052   90.1  0.9935   -1.2
 0.020  0.9260   -3.8   5.069  176.8  0.0072   88.7  0.9883   -1.7
 0.025  0.9261   -4.7   5.081  176.0  0.0090   87.7  0.9886   -2.2
 0.030  0.9264   -5.7   5.093  175.3  0.0107   87.0  0.9889   -2.6
 0.035  0.9270   -6.6   5.107  174.5  0.0125   86.5  0.9894   -3.1
 0.040  0.9278   -7.5   5.121  173.8  0.0143   86.1  0.9898   -3.6
 0.045  0.9289   -8.5   5.136  173.0  0.0160   85.8  0.9904   -4.0
 0.050  0.9302   -9.4   5.152  172.3  0.0178   85.6  0.9910   -4.5
 0.055  0.9269  -10.3   5.136  171.6  0.0195   84.4  0.9895   -4.9
 0.060  0.9238  -11.2   5.121  170.9  0.0213   83.5  0.9880   -5.4
 0.065  0.9209  -12.0   5.106  170.1  0.0230   82.7  0.9866   -5.8
 0.070  0.9183  -12.9   5.093  169.4  0.0248   82.0  0.9853   -6.2
 0.075  0.9159  -13.8   5.080  168.7  0.0266   81.3  0.9840   -6.6
 0.080  0.9137  -14.7   5.068  168.0  0.0283   80.8  0.9828   -7.1
 0.085  0.9117  -15.7   5.056  167.2  0.0301   80.3  0.9816   -7.5
 0.090  0.9100  -16.6   5.046  166.5  0.0319   79.9  0.9805   -7.9
 0.095  0.9085  -17.5   5.037  165.7  0.0336   79.5  0.9794   -8.4
 0.100  0.9072  -18.4   5.028  165.0  0.0354   79.2  0.9784   -8.8
 0.105  0.9032  -19.3   5.014  164.2  0.0370   78.4  0.9759   -9.2
 0.110  0.8994  -20.2   5.001  163.3  0.0385   77.7  0.9735   -9.6
 0.115  0.8958  -21.1   4.990  162.5  0.0401   77.0  0.9711  -10.0
 0.120  0.8925  -22.0   4.979  161.7  0.0417   76.4  0.9688  -10.5
 0.125  0.8893  -22.9   4.970  160.8  0.0433   75.8  0.9665  -10.9
 0.130  0.8864  -23.8   4.961  160.0  0.0449   75.2  0.9643  -11.3
 0.135  0.8838  -24.7   4.954  159.1  0.0465   74.7  0.9621  -11.7
 0.140  0.8813  -25.6   4.947  158.3  0.0481   74.3  0.9600  -12.1
 0.145  0.8791  -26.6   4.942  157.5  0.0497   73.8  0.9579  -12.6
 0.150  0.8771  -27.5   4.938  156.6  0.0513   73.4  0.9559  -13.0
 0.155  0.8736  -28.3   4.920  155.9  0.0527   72.8  0.9531  -13.4
 0.160  0.8704  -29.2   4.904  155.3  0.0542   72.2  0.9504  -13.7
 0.165  0.8673  -30.0   4.887  154.6  0.0556   71.7  0.9477  -14.1
 0.170  0.8644  -30.9   4.872  153.9  0.0571   71.2  0.9450  -14.5
 0.175  0.8617  -31.7   4.857  153.2  0.0585   70.7  0.9424  -14.8
 0.180  0.8592  -32.6   4.843  152.5  0.0600   70.2  0.9398  -15.2
 0.185  0.8569  -33.5   4.830  151.8  0.0615   69.8  0.9372  -15.6
 0.190  0.8548  -34.3   4.817  151.1  0.0629   69.4  0.9347  -15.9
 0.195  0.8529  -35.2   4.805  150.4  0.0644   69.0  0.9322  -16.3
 0.200  0.8512  -36.1   4.794  149.7  0.0659   68.6  0.9298  -16.7
 0.220  0.8377  -39.2   4.690  147.1  0.0713   66.6  0.9178  -18.0
 0.240  0.8268  -42.5   4.595  144.5  0.0767   64.9  0.9064  -19.3
 0.260  0.8121  -45.6   4.508  141.9  0.0818   63.3  0.8945  -20.6
 0.280  0.7933  -48.7   4.428  139.3  0.0864   61.9  0.8823  -21.7
 0.300  0.7771  -52.0   4.356  136.7  0.0911   60.6  0.8704  -22.9
 0.320  0.7581  -54.7   4.270  134.7  0.0945   58.9  0.8566  -23.9
 0.340  0.7409  -57.4   4.189  132.7  0.0980   57.4  0.8431  -24.9
 0.360  0.7254  -60.3   4.114  130.6  0.1016   56.0  0.8298  -25.9
 0.380  0.7119  -63.4   4.044  128.4  0.1052   54.6  0.8169  -27.0
 0.400  0.7005  -66.5   3.981  126.1  0.1089   53.4  0.8042  -28.1
 0.420  0.6831  -68.8   3.881  124.3  0.1114   52.3  0.7923  -28.8
 0.440  0.6669  -71.2   3.785  122.4  0.1140   51.2  0.7805  -29.5
 0.450  0.6592  -72.4   3.738  121.5  0.1153   50.7  0.7746  -29.9
 0.460  0.6518  -73.7   3.693  120.5  0.1166   50.1  0.7688  -30.3
 0.480  0.6381  -76.3   3.605  118.4  0.1193   49.1  0.7572  -31.0
 0.500  0.6257  -79.0   3.523  116.2  0.1220   48.2  0.7458  -31.8
 0.520  0.6135  -81.2   3.452  114.7  0.1242   47.4  0.7370  -32.3
 0.540  0.6023  -83.4   3.383  113.2  0.1264   46.6  0.7282  -32.8
 0.560  0.5920  -85.8   3.317  111.5  0.1286   45.8  0.7195  -33.4
 0.580  0.5827  -88.2   3.253  109.8  0.1308   45.0  0.7109  -33.9
 0.600  0.5745  -90.7   3.193  108.1  0.1331   44.3  0.7023  -34.5
 0.620  0.5629  -92.8   3.136  106.7  0.1346   43.7  0.6943  -34.9
 0.640  0.5520  -95.0   3.081  105.3  0.1361   43.1  0.6863  -35.4
 0.660  0.5420  -97.2   3.027  103.9  0.1376   42.6  0.6784  -35.8
 0.680  0.5329  -99.6   2.976  102.4  0.1391   42.0  0.6705  -36.3
 0.700  0.5247 -102.0   2.927  100.8  0.1406   41.5  0.6627  -36.8
 0.720  0.5146 -103.9   2.871   99.6  0.1417   41.0  0.6557  -37.1
 0.740  0.5051 -105.9   2.816   98.3  0.1429   40.6  0.6487  -37.5
 0.760  0.4962 -108.0   2.763   96.9  0.1441   40.1  0.6417  -37.9
 0.780  0.4880 -110.2   2.712   95.5  0.1452   39.6  0.6347  -38.2
 0.800  0.4805 -112.4   2.662   94.1  0.1464   39.2  0.6278  -38.6
 0.820  0.4723 -114.2   2.618   93.0  0.1473   39.0  0.6215  -38.9
 0.840  0.4646 -116.0   2.574   91.9  0.1482   38.8  0.6153  -39.3
 0.860  0.4573 -117.9   2.532   90.7  0.1490   38.5  0.6091  -39.6
 0.880  0.4506 -119.8   2.491   89.5  0.1499   38.3  0.6029  -39.9
 0.900  0.4444 -121.8   2.451   88.3  0.1508   38.1  0.5967  -40.3
 0.920  0.4386 -123.6   2.412   87.3  0.1515   37.9  0.5923  -40.6
 0.940  0.4333 -125.4   2.374   86.3  0.1522   37.7  0.5879  -40.9
 0.960  0.4284 -127.3   2.337   85.3  0.1529   37.5  0.5835  -41.2
 0.980  0.4240 -129.2   2.301   84.2  0.1536   37.3  0.5791  -41.5
 1.000  0.4201 -131.2   2.265   83.1  0.1543   37.1  0.5747  -41.8
 1.020  0.4156 -133.0   2.233   82.2  0.1552   37.0  0.5711  -42.1
 1.040  0.4115 -134.9   2.202   81.3  0.1561   36.9  0.5675  -42.5
 1.060  0.4079 -136.9   2.172   80.3  0.1571   36.7  0.5640  -42.8
 1.080  0.4047 -138.8   2.142   79.3  0.1580   36.6  0.5604  -43.2
 1.100  0.4020 -140.8   2.113   78.3  0.1589   36.5  0.5569  -43.5
 1.120  0.3978 -142.4   2.084   77.4  0.1597   36.4  0.5540  -43.8
 1.140  0.3939 -144.1   2.056   76.5  0.1605   36.2  0.5510  -44.1
 1.160  0.3904 -145.8   2.029   75.6  0.1612   36.1  0.5481  -44.4
 1.180  0.3872 -147.5   2.002   74.7  0.1620   35.9  0.5453  -44.8
 1.200  0.3843 -149.2   1.975   73.7  0.1628   35.8  0.5424  -45.1
 1.220  0.3820 -150.7   1.950   72.9  0.1636   35.8  0.5396  -45.4
 1.240  0.3799 -152.2   1.925   72.1  0.1643   35.8  0.5368  -45.7
 1.260  0.3781 -153.8   1.901   71.3  0.1651   35.9  0.5340  -45.9
 1.280  0.3765 -155.3   1.877   70.5  0.1658   35.9  0.5312  -46.2
 1.300  0.3753 -156.9   1.853   69.6  0.1666   35.9  0.5284  -46.5
 1.320  0.3734 -158.4   1.831   68.8  0.1672   35.9  0.5263  -46.9
 1.340  0.3718 -160.0   1.810   68.0  0.1679   35.9  0.5241  -47.2
 1.360  0.3705 -161.5   1.789   67.1  0.1685   35.8  0.5220  -47.6
 1.380  0.3695 -163.1   1.768   66.3  0.1692   35.8  0.5200  -47.9
 1.400  0.3687 -164.7   1.748   65.4  0.1698   35.8  0.5179  -48.3
 1.420  0.3664 -166.2   1.732   64.7  0.1706   35.9  0.5152  -48.6
 1.440  0.3644 -167.7   1.716   64.0  0.1714   36.1  0.5126  -48.9
 1.460  0.3625 -169.2   1.700   63.2  0.1722   36.2  0.5099  -49.2
 1.480  0.3610 -170.7   1.685   62.5  0.1730   36.4  0.5073  -49.5
 1.500  0.3597 -172.2   1.670   61.7  0.1738   36.5  0.5047  -49.8
 1.520  0.3595 -173.9   1.651   60.9  0.1747   36.6  0.5025  -50.1
 1.540  0.3596 -175.7   1.633   60.1  0.1756   36.6  0.5003  -50.4
 1.560  0.3600 -177.4   1.615   59.3  0.1765   36.7  0.4981  -50.8
 1.580  0.3608 -179.2   1.597   58.5  0.1774   36.7  0.4959  -51.1
 1.600  0.3619  179.1   1.580   57.6  0.1783   36.8  0.4938  -51.4
 1.620  0.3616  177.7   1.568   56.9  0.1792   37.0  0.4911  -51.8
 1.640  0.3615  176.3   1.555   56.3  0.1800   37.2  0.4883  -52.1
 1.660  0.3616  174.8   1.543   55.6  0.1809   37.5  0.4856  -52.5
 1.680  0.3619  173.4   1.532   54.9  0.1817   37.7  0.4830  -52.9
 1.700  0.3625  172.0   1.520   54.2  0.1826   37.9  0.4803  -53.3
 1.720  0.3631  170.8   1.506   53.6  0.1839   38.0  0.4788  -53.6
 1.740  0.3638  169.7   1.492   53.0  0.1852   38.1  0.4773  -53.9
 1.760  0.3646  168.5   1.479   52.4  0.1865   38.1  0.4759  -54.3
 1.780  0.3656  167.3   1.465   51.8  0.1878   38.2  0.4744  -54.6
 1.800  0.3668  166.2   1.452   51.2  0.1891   38.3  0.4730  -54.9
 1.820  0.3679  165.1   1.441   50.6  0.1901   38.4  0.4713  -55.4
 1.840  0.3690  164.0   1.430   49.9  0.1911   38.5  0.4697  -55.9
 1.860  0.3704  162.9   1.419   49.3  0.1922   38.7  0.4681  -56.3
 1.880  0.3718  161.9   1.408   48.6  0.1932   38.8  0.4665  -56.8
 1.900  0.3734  160.8   1.398   47.9  0.1942   38.9  0.4650  -57.3
 1.920  0.3737  159.7   1.386   47.3  0.1955   38.9  0.4634  -57.7
 1.940  0.3742  158.5   1.375   46.7  0.1969   38.9  0.4618  -58.1
 1.960  0.3748  157.4   1.363   46.0  0.1982   39.0  0.4603  -58.4
 1.980  0.3756  156.2   1.352   45.4  0.1996   39.0  0.4587  -58.8
 2.000  0.3765  155.1   1.341   44.7  0.2009   39.0  0.4572  -59.2
 2.020  0.3771  154.0   1.332   44.1  0.2022   39.1  0.4555  -59.7
 2.040  0.3778  153.0   1.322   43.6  0.2036   39.2  0.4539  -60.1
 2.060  0.3787  151.9   1.313   43.0  0.2049   39.3  0.4523  -60.6
 2.080  0.3797  150.9   1.304   42.4  0.2063   39.3  0.4507  -61.0
 2.100  0.3808  149.9   1.295   41.8  0.2076   39.4  0.4492  -61.5
 2.120  0.3820  148.8   1.286   41.2  0.2089   39.5  0.4477  -62.0
 2.140  0.3834  147.8   1.278   40.6  0.2103   39.6  0.4462  -62.5
 2.160  0.3849  146.8   1.269   40.0  0.2116   39.6  0.4447  -62.9
 2.180  0.3865  145.8   1.261   39.3  0.2130   39.7  0.4433  -63.4
 2.200  0.3882  144.8   1.253   38.7  0.2143   39.8  0.4419  -63.9
 2.220  0.3899  143.8   1.245   38.2  0.2158   39.8  0.4402  -64.4
 2.240  0.3917  142.8   1.237   37.6  0.2173   39.9  0.4385  -65.0
 2.260  0.3936  141.8   1.229   37.1  0.2189   39.9  0.4368  -65.5
 2.280  0.3957  140.9   1.221   36.5  0.2204   39.9  0.4352  -66.1
 2.300  0.3978  139.9   1.213   35.9  0.2219   40.0  0.4337  -66.6
 2.320  0.4001  139.0   1.206   35.4  0.2234   40.0  0.4321  -67.2
 2.340  0.4025  138.0   1.199   34.8  0.2249   40.0  0.4306  -67.7
 2.360  0.4049  137.1   1.191   34.2  0.2265   40.0  0.4292  -68.3
 2.380  0.4075  136.2   1.184   33.6  0.2280   40.1  0.4278  -68.8
 2.400  0.4102  135.3   1.177   33.0  0.2295   40.1  0.4264  -69.4
 2.420  0.4120  134.4   1.170   32.5  0.2313   40.1  0.4246  -69.9
 2.440  0.4138  133.5   1.163   32.0  0.2331   40.1  0.4229  -70.5
 2.460  0.4158  132.6   1.157   31.6  0.2349   40.1  0.4212  -71.0
 2.480  0.4179  131.8   1.150   31.1  0.2367   40.1  0.4195  -71.6
 2.500  0.4200  130.9   1.143   30.6  0.2384   40.2  0.4179  -72.1
 2.520  0.4223  130.0   1.137   30.1  0.2402   40.2  0.4163  -72.7
 2.540  0.4246  129.2   1.131   29.6  0.2420   40.2  0.4148  -73.3
 2.560  0.4271  128.3   1.124   29.0  0.2438   40.2  0.4133  -73.8
 2.580  0.4296  127.5   1.118   28.5  0.2456   40.2  0.4118  -74.4
 2.600  0.4322  126.7   1.112   28.0  0.2474   40.2  0.4104  -75.0
 2.620  0.4343  126.0   1.106   27.6  0.2493   40.1  0.4087  -75.6
 2.640  0.4364  125.3   1.099   27.1  0.2511   40.1  0.4071  -76.3
 2.660  0.4386  124.6   1.093   26.7  0.2530   40.0  0.4055  -76.9
 2.680  0.4409  123.9   1.087   26.2  0.2548   39.9  0.4040  -77.6
 2.700  0.4432  123.2   1.081   25.8  0.2567   39.9  0.4025  -78.2
 2.720  0.4456  122.5   1.075   25.3  0.2586   39.8  0.4011  -78.9
 2.740  0.4481  121.9   1.069   24.8  0.2604   39.8  0.3998  -79.6
 2.760  0.4506  121.2   1.063   24.4  0.2623   39.7  0.3984  -80.2
 2.780  0.4532  120.5   1.058   23.9  0.2641   39.7  0.3972  -80.9
 2.800  0.4558  119.9   1.052   23.4  0.2660   39.6  0.3960  -81.6
 2.820  0.4576  119.2   1.047   22.9  0.2679   39.5  0.3943  -82.3
 2.840  0.4594  118.6   1.042   22.5  0.2698   39.5  0.3926  -83.0
 2.860  0.4613  118.0   1.037   22.0  0.2718   39.4  0.3910  -83.8
 2.880  0.4632  117.3   1.032   21.5  0.2737   39.3  0.3895  -84.5
 2.900  0.4652  116.7   1.027   21.1  0.2756   39.2  0.3880  -85.2
 2.920  0.4673  116.1   1.022   20.6  0.2775   39.2  0.3866  -86.0
 2.940  0.4694  115.4   1.017   20.1  0.2794   39.1  0.3852  -86.7
 2.960  0.4716  114.8   1.012   19.6  0.2814   39.0  0.3840  -87.5
 2.980  0.4738  114.2   1.008   19.1  0.2833   39.0  0.3827  -88.2
 3.000  0.4761  113.6   1.003   18.6  0.2852   38.9  0.3816  -89.0
 3.100  0.4862  110.7   0.977   16.8  0.2954   38.0  0.3717  -93.1
 3.200  0.4975  108.0   0.953   15.0  0.3057   37.2  0.3638  -97.3
 3.300  0.5099  105.4   0.929   13.0  0.3160   36.5  0.3579 -101.7
 3.400  0.5232  102.9   0.906   11.0  0.3264   35.8  0.3543 -106.3
 3.500  0.5375  100.6   0.885    8.8  0.3368   35.1  0.3529 -110.9
 3.600  0.5453   98.5   0.866    7.3  0.3472   34.0  0.3464 -116.1
 3.700  0.5537   96.5   0.848    5.7  0.3578   32.9  0.3428 -121.4
 3.800  0.5629   94.5   0.831    4.1  0.3684   31.9  0.3422 -126.7
 3.900  0.5726   92.6   0.814    2.4  0.3792   30.9  0.3446 -132.1
 4.000  0.5830   90.8   0.798    0.6  0.3901   30.0  0.3499 -137.3
 4.100  0.5898   89.1   0.783   -0.6  0.3999   28.5  0.3472 -142.7
 4.200  0.5972   87.4   0.769   -1.8  0.4099   27.1  0.3477 -148.1
 4.300  0.6051   85.8   0.755   -3.1  0.4202   25.7  0.3512 -153.5
 4.400  0.6134   84.2   0.741   -4.4  0.4307   24.4  0.3578 -158.7
 4.500  0.6222   82.6   0.728   -5.8  0.4414   23.2  0.3672 -163.7
 4.600  0.6276   81.2   0.718   -6.9  0.4491   21.6  0.3681 -168.7
 4.700  0.6334   79.8   0.708   -8.1  0.4571   20.1  0.3718 -173.6
 4.800  0.6395   78.5   0.698   -9.2  0.4654   18.6  0.3781 -178.4
 4.900  0.6460   77.2   0.689  -10.5  0.4740   17.2  0.3870  177.1
 5.000  0.6528   75.9   0.680  -11.7  0.4829   15.8  0.3982  172.7
 5.100  0.6575   74.6   0.666  -12.6  0.4850   14.1  0.3935  168.2
 5.200  0.6626   73.4   0.651  -13.6  0.4875   12.5  0.3912  163.7
 5.300  0.6679   72.1   0.637  -14.6  0.4904   10.9  0.3914  159.1
 5.400  0.6736   70.9   0.624  -15.6  0.4936    9.3  0.3941  154.6
 5.500  0.6796   69.7   0.610  -16.7  0.4973    7.7  0.3992  150.1
 5.600  0.6780   68.6   0.609  -16.7  0.5062    6.8  0.4160  148.6
 5.700  0.6766   67.6   0.609  -16.7  0.5151    5.9  0.4331  147.2
 5.800  0.6754   66.5   0.608  -16.8  0.5243    5.0  0.4504  146.0
 5.900  0.6745   65.5   0.608  -16.8  0.5335    4.2  0.4679  144.8
 6.000  0.6738   64.4   0.607  -16.8  0.5428    3.4  0.4856  143.7
!
!  f       NFmin   Gammaopt  rn/50
! GHz       dB    MAG  ANG    -
!
! noise parameter not available yet for this operation point!
!
! (c) 2015  Infineon Technologies AG, Munich
