! Infineon Technologies  Discrete & RF Semiconductors
! BFR340F
! VCE =  1.5 V,  IC =  1.0 mA
! Common Emitter S-Parameters:                            Nov 2015
# GHz  S  MA  R  50
!  f         S11            S21            S12            S22
! GHz     MAG   ANG      MAG   ANG      MAG   ANG      MAG   ANG
 0.030  0.9695   -1.2   3.592  179.2  0.0038   88.8  0.9978   -0.8
 0.035  0.9715   -1.4   3.584  178.9  0.0045   88.5  0.9977   -0.9
 0.040  0.9736   -1.6   3.577  178.5  0.0052   88.2  0.9976   -1.1
 0.045  0.9718   -1.8   3.569  178.1  0.0058   87.5  0.9976   -1.3
 0.050  0.9701   -2.0   3.562  177.6  0.0064   87.0  0.9976   -1.4
 0.055  0.9717   -2.3   3.562  177.6  0.0070   88.0  0.9978   -1.6
 0.060  0.9734   -2.6   3.562  177.6  0.0077   88.9  0.9980   -1.7
 0.065  0.9718   -2.8   3.577  177.3  0.0083   88.3  0.9979   -1.8
 0.070  0.9702   -3.0   3.593  177.1  0.0090   87.8  0.9978   -1.9
 0.075  0.9703   -3.1   3.587  177.1  0.0096   87.6  0.9977   -2.0
 0.080  0.9705   -3.1   3.582  177.1  0.0103   87.4  0.9976   -2.2
 0.085  0.9706   -3.5   3.585  176.9  0.0109   87.5  0.9974   -2.3
 0.090  0.9707   -3.8   3.589  176.7  0.0115   87.5  0.9972   -2.5
 0.095  0.9701   -3.9   3.578  176.5  0.0122   87.7  0.9972   -2.6
 0.100  0.9696   -4.0   3.567  176.2  0.0129   87.9  0.9972   -2.8
 0.105  0.9700   -4.2   3.572  176.1  0.0135   87.6  0.9970   -2.9
 0.110  0.9704   -4.3   3.577  176.0  0.0141   87.4  0.9969   -3.1
 0.115  0.9704   -4.5   3.583  175.8  0.0147   87.1  0.9968   -3.2
 0.120  0.9704   -4.7   3.589  175.6  0.0154   86.9  0.9968   -3.3
 0.125  0.9697   -4.8   3.589  175.4  0.0160   86.6  0.9967   -3.4
 0.130  0.9690   -5.0   3.590  175.3  0.0167   86.4  0.9967   -3.6
 0.135  0.9691   -5.3   3.593  175.0  0.0173   86.3  0.9964   -3.7
 0.140  0.9693   -5.5   3.597  174.8  0.0180   86.3  0.9961   -3.9
 0.145  0.9701   -5.8   3.594  174.6  0.0186   86.1  0.9960   -4.0
 0.150  0.9710   -6.0   3.591  174.3  0.0193   86.0  0.9959   -4.2
 0.155  0.9705   -6.2   3.591  174.1  0.0199   85.8  0.9957   -4.3
 0.160  0.9700   -6.4   3.592  173.9  0.0206   85.7  0.9954   -4.5
 0.165  0.9695   -6.6   3.592  173.8  0.0212   85.6  0.9952   -4.6
 0.170  0.9691   -6.8   3.592  173.6  0.0218   85.4  0.9950   -4.8
 0.175  0.9686   -7.0   3.593  173.4  0.0224   85.3  0.9948   -4.9
 0.180  0.9682   -7.2   3.593  173.2  0.0231   85.2  0.9946   -5.0
 0.185  0.9677   -7.4   3.593  173.0  0.0237   85.1  0.9944   -5.2
 0.190  0.9673   -7.6   3.594  172.9  0.0243   85.0  0.9942   -5.3
 0.195  0.9669   -7.8   3.594  172.7  0.0250   84.9  0.9940   -5.5
 0.200  0.9665   -8.0   3.595  172.5  0.0256   84.8  0.9938   -5.6
 0.220  0.9651   -8.8   3.593  171.7  0.0282   84.2  0.9928   -6.1
 0.240  0.9639   -9.5   3.592  171.0  0.0307   83.7  0.9919   -6.6
 0.260  0.9626  -10.3   3.589  170.2  0.0333   83.2  0.9908   -7.2
 0.280  0.9612  -11.1   3.585  169.5  0.0358   82.7  0.9896   -7.7
 0.300  0.9600  -11.9   3.581  168.7  0.0383   82.2  0.9884   -8.3
 0.320  0.9587  -12.7   3.578  167.9  0.0408   81.6  0.9870   -8.9
 0.340  0.9575  -13.4   3.576  167.2  0.0433   81.0  0.9856   -9.4
 0.360  0.9559  -14.2   3.571  166.4  0.0457   80.5  0.9841  -10.0
 0.380  0.9540  -15.0   3.564  165.7  0.0482   80.0  0.9824  -10.5
 0.400  0.9522  -15.8   3.558  164.9  0.0507   79.6  0.9808  -11.0
 0.420  0.9498  -16.6   3.552  164.1  0.0531   79.0  0.9791  -11.6
 0.440  0.9476  -17.3   3.547  163.4  0.0556   78.5  0.9776  -12.1
 0.450  0.9465  -17.7   3.545  163.0  0.0568   78.3  0.9768  -12.4
 0.460  0.9454  -18.1   3.542  162.6  0.0580   78.0  0.9757  -12.7
 0.480  0.9432  -18.8   3.537  161.9  0.0604   77.6  0.9736  -13.2
 0.500  0.9412  -19.6   3.532  161.2  0.0628   77.1  0.9715  -13.7
 0.520  0.9382  -20.4   3.524  160.4  0.0651   76.5  0.9691  -14.2
 0.540  0.9354  -21.1   3.516  159.6  0.0675   76.0  0.9668  -14.7
 0.560  0.9328  -21.9   3.509  158.9  0.0698   75.4  0.9646  -15.3
 0.580  0.9304  -22.7   3.503  158.1  0.0721   75.0  0.9625  -15.8
 0.600  0.9281  -23.5   3.497  157.3  0.0745   74.5  0.9604  -16.3
 0.620  0.9248  -24.3   3.489  156.5  0.0767   74.0  0.9577  -16.8
 0.640  0.9217  -25.0   3.481  155.8  0.0790   73.5  0.9551  -17.3
 0.660  0.9187  -25.8   3.474  155.0  0.0813   73.0  0.9526  -17.9
 0.680  0.9159  -26.5   3.468  154.3  0.0835   72.5  0.9502  -18.4
 0.700  0.9133  -27.3   3.462  153.5  0.0858   72.1  0.9478  -18.9
 0.720  0.9098  -28.0   3.450  152.8  0.0879   71.6  0.9448  -19.4
 0.740  0.9064  -28.8   3.438  152.1  0.0901   71.1  0.9418  -19.9
 0.760  0.9031  -29.5   3.427  151.4  0.0922   70.6  0.9389  -20.4
 0.780  0.9000  -30.2   3.417  150.6  0.0943   70.1  0.9361  -20.9
 0.800  0.8971  -31.0   3.407  149.9  0.0965   69.7  0.9334  -21.4
 0.820  0.8933  -31.7   3.397  149.2  0.0985   69.2  0.9302  -21.9
 0.840  0.8897  -32.5   3.387  148.5  0.1006   68.7  0.9270  -22.4
 0.860  0.8863  -33.2   3.378  147.8  0.1026   68.2  0.9239  -22.8
 0.880  0.8830  -33.9   3.370  147.1  0.1046   67.7  0.9209  -23.3
 0.900  0.8798  -34.7   3.362  146.4  0.1067   67.3  0.9179  -23.8
 0.920  0.8757  -35.4   3.350  145.7  0.1086   66.8  0.9146  -24.3
 0.940  0.8717  -36.1   3.339  145.0  0.1106   66.4  0.9113  -24.7
 0.960  0.8678  -36.8   3.329  144.3  0.1125   65.9  0.9080  -25.2
 0.980  0.8641  -37.6   3.319  143.6  0.1144   65.5  0.9049  -25.7
 1.000  0.8605  -38.3   3.309  142.9  0.1164   65.1  0.9018  -26.2
 1.020  0.8563  -39.0   3.296  142.2  0.1182   64.6  0.8983  -26.6
 1.040  0.8523  -39.6   3.283  141.6  0.1199   64.2  0.8949  -27.1
 1.060  0.8483  -40.3   3.271  140.9  0.1217   63.7  0.8915  -27.5
 1.080  0.8445  -41.0   3.259  140.2  0.1235   63.3  0.8882  -28.0
 1.100  0.8408  -41.7   3.248  139.5  0.1253   62.9  0.8849  -28.4
 1.120  0.8365  -42.4   3.235  138.8  0.1270   62.5  0.8813  -28.8
 1.140  0.8323  -43.1   3.223  138.2  0.1287   62.0  0.8777  -29.3
 1.160  0.8282  -43.8   3.211  137.5  0.1304   61.6  0.8742  -29.7
 1.180  0.8243  -44.5   3.200  136.8  0.1322   61.2  0.8707  -30.2
 1.200  0.8205  -45.2   3.189  136.1  0.1339   60.8  0.8673  -30.6
 1.220  0.8162  -45.9   3.175  135.5  0.1354   60.4  0.8637  -31.0
 1.240  0.8120  -46.5   3.161  134.8  0.1370   60.0  0.8601  -31.4
 1.260  0.8080  -47.2   3.148  134.2  0.1385   59.6  0.8565  -31.8
 1.280  0.8040  -47.9   3.135  133.6  0.1400   59.3  0.8530  -32.3
 1.300  0.8002  -48.6   3.123  132.9  0.1416   58.9  0.8496  -32.7
 1.320  0.7957  -49.2   3.109  132.3  0.1430   58.5  0.8459  -33.1
 1.340  0.7913  -49.9   3.095  131.6  0.1445   58.1  0.8423  -33.5
 1.360  0.7870  -50.6   3.082  131.0  0.1460   57.7  0.8387  -33.9
 1.380  0.7829  -51.2   3.069  130.4  0.1474   57.3  0.8352  -34.3
 1.400  0.7788  -51.9   3.057  129.7  0.1489   56.9  0.8317  -34.7
 1.420  0.7743  -52.5   3.043  129.1  0.1502   56.5  0.8282  -35.1
 1.440  0.7699  -53.2   3.030  128.5  0.1515   56.2  0.8248  -35.5
 1.460  0.7656  -53.8   3.017  127.9  0.1528   55.9  0.8215  -35.8
 1.480  0.7613  -54.4   3.004  127.2  0.1542   55.5  0.8181  -36.2
 1.500  0.7572  -55.1   2.992  126.6  0.1555   55.2  0.8148  -36.6
 1.520  0.7527  -55.7   2.979  126.0  0.1567   54.8  0.8111  -37.0
 1.540  0.7483  -56.4   2.965  125.4  0.1579   54.5  0.8075  -37.3
 1.560  0.7440  -57.0   2.953  124.8  0.1591   54.2  0.8039  -37.7
 1.580  0.7398  -57.6   2.940  124.2  0.1604   53.8  0.8003  -38.1
 1.600  0.7357  -58.3   2.928  123.6  0.1616   53.5  0.7968  -38.5
 1.620  0.7316  -58.9   2.914  123.1  0.1627   53.2  0.7937  -38.8
 1.640  0.7275  -59.4   2.900  122.5  0.1639   52.8  0.7906  -39.2
 1.660  0.7235  -60.0   2.886  121.9  0.1650   52.5  0.7875  -39.5
 1.680  0.7196  -60.6   2.873  121.4  0.1661   52.2  0.7844  -39.9
 1.700  0.7158  -61.2   2.860  120.8  0.1673   51.9  0.7814  -40.2
 1.720  0.7119  -61.8   2.846  120.3  0.1683   51.6  0.7780  -40.5
 1.740  0.7081  -62.4   2.832  119.7  0.1692   51.3  0.7746  -40.8
 1.760  0.7044  -63.0   2.818  119.2  0.1702   51.0  0.7713  -41.2
 1.780  0.7008  -63.6   2.804  118.7  0.1712   50.7  0.7680  -41.5
 1.800  0.6972  -64.2   2.791  118.1  0.1722   50.4  0.7647  -41.8
 1.820  0.6929  -64.8   2.779  117.6  0.1732   50.1  0.7616  -42.1
 1.840  0.6887  -65.3   2.766  117.0  0.1741   49.9  0.7585  -42.5
 1.860  0.6845  -65.9   2.754  116.5  0.1751   49.6  0.7554  -42.8
 1.880  0.6804  -66.5   2.743  115.9  0.1761   49.4  0.7523  -43.2
 1.900  0.6764  -67.1   2.731  115.4  0.1771   49.1  0.7493  -43.5
 1.920  0.6729  -67.6   2.718  114.9  0.1779   48.9  0.7464  -43.8
 1.940  0.6694  -68.1   2.704  114.4  0.1787   48.6  0.7435  -44.0
 1.960  0.6659  -68.6   2.691  113.9  0.1796   48.4  0.7406  -44.3
 1.980  0.6625  -69.2   2.679  113.3  0.1804   48.1  0.7377  -44.5
 2.000  0.6592  -69.7   2.666  112.8  0.1812   47.9  0.7348  -44.8
 2.020  0.6553  -70.2   2.653  112.3  0.1819   47.7  0.7319  -45.1
 2.040  0.6514  -70.7   2.640  111.9  0.1827   47.4  0.7290  -45.4
 2.060  0.6476  -71.2   2.627  111.4  0.1834   47.2  0.7262  -45.6
 2.080  0.6439  -71.7   2.615  110.9  0.1841   47.0  0.7233  -45.9
 2.100  0.6402  -72.3   2.602  110.5  0.1849   46.7  0.7205  -46.2
 2.120  0.6365  -72.8   2.590  110.0  0.1856   46.5  0.7177  -46.5
 2.140  0.6329  -73.3   2.578  109.5  0.1863   46.3  0.7149  -46.8
 2.160  0.6294  -73.9   2.566  109.0  0.1871   46.0  0.7122  -47.1
 2.180  0.6259  -74.4   2.554  108.5  0.1878   45.8  0.7094  -47.4
 2.200  0.6225  -75.0   2.543  108.0  0.1886   45.6  0.7067  -47.7
 2.220  0.6191  -75.5   2.531  107.6  0.1892   45.4  0.7041  -48.0
 2.240  0.6157  -76.0   2.520  107.1  0.1899   45.2  0.7016  -48.2
 2.260  0.6124  -76.5   2.509  106.7  0.1905   45.0  0.6991  -48.5
 2.280  0.6091  -77.0   2.498  106.2  0.1911   44.8  0.6966  -48.7
 2.300  0.6059  -77.5   2.487  105.8  0.1918   44.6  0.6941  -49.0
 2.320  0.6028  -78.1   2.476  105.3  0.1924   44.4  0.6916  -49.2
 2.340  0.5996  -78.6   2.465  104.9  0.1931   44.2  0.6891  -49.5
 2.360  0.5966  -79.1   2.455  104.4  0.1937   44.0  0.6867  -49.8
 2.380  0.5936  -79.7   2.444  104.0  0.1943   43.8  0.6842  -50.0
 2.400  0.5906  -80.2   2.434  103.5  0.1950   43.6  0.6818  -50.3
 2.420  0.5874  -80.7   2.423  103.1  0.1955   43.4  0.6795  -50.5
 2.440  0.5843  -81.2   2.411  102.7  0.1961   43.3  0.6771  -50.8
 2.460  0.5811  -81.6   2.400  102.3  0.1966   43.1  0.6748  -51.0
 2.480  0.5781  -82.1   2.389  101.8  0.1971   42.9  0.6725  -51.3
 2.500  0.5751  -82.6   2.378  101.4  0.1977   42.7  0.6702  -51.5
 2.520  0.5721  -83.1   2.368  101.0  0.1982   42.6  0.6679  -51.8
 2.540  0.5691  -83.6   2.357  100.5  0.1988   42.4  0.6656  -52.0
 2.560  0.5662  -84.2   2.347  100.1  0.1993   42.2  0.6634  -52.3
 2.580  0.5634  -84.7   2.336   99.6  0.1999   42.1  0.6611  -52.5
 2.600  0.5606  -85.2   2.326   99.2  0.2004   41.9  0.6589  -52.8
 2.620  0.5578  -85.7   2.316   98.8  0.2009   41.7  0.6569  -53.0
 2.640  0.5551  -86.1   2.306   98.4  0.2013   41.6  0.6549  -53.2
 2.660  0.5524  -86.6   2.296   98.0  0.2018   41.4  0.6529  -53.5
 2.680  0.5497  -87.1   2.286   97.6  0.2022   41.3  0.6510  -53.7
 2.700  0.5471  -87.5   2.276   97.2  0.2027   41.1  0.6490  -53.9
 2.720  0.5445  -88.0   2.266   96.8  0.2031   41.0  0.6471  -54.2
 2.740  0.5420  -88.5   2.257   96.4  0.2036   40.8  0.6451  -54.4
 2.760  0.5395  -89.0   2.248   96.0  0.2041   40.7  0.6432  -54.6
 2.780  0.5370  -89.5   2.238   95.6  0.2045   40.5  0.6413  -54.9
 2.800  0.5346  -90.0   2.229   95.2  0.2050   40.4  0.6394  -55.1
 2.820  0.5321  -90.4   2.220   94.8  0.2053   40.3  0.6377  -55.3
 2.840  0.5297  -90.9   2.210   94.5  0.2057   40.2  0.6360  -55.5
 2.860  0.5273  -91.3   2.201   94.1  0.2060   40.0  0.6342  -55.7
 2.880  0.5249  -91.8   2.192   93.7  0.2064   39.9  0.6325  -55.9
 2.900  0.5225  -92.2   2.183   93.3  0.2067   39.8  0.6309  -56.1
 2.920  0.5202  -92.7   2.174   93.0  0.2071   39.7  0.6292  -56.3
 2.940  0.5179  -93.1   2.165   92.6  0.2074   39.6  0.6275  -56.5
 2.960  0.5157  -93.6   2.156   92.2  0.2078   39.4  0.6258  -56.7
 2.980  0.5135  -94.0   2.148   91.8  0.2081   39.3  0.6242  -56.9
 3.000  0.5113  -94.5   2.139   91.4  0.2085   39.2  0.6225  -57.1
 3.100  0.4997  -96.3   2.096   89.9  0.2099   38.8  0.6159  -57.9
 3.200  0.4886  -98.3   2.056   88.3  0.2113   38.4  0.6094  -58.8
 3.300  0.4782 -100.3   2.016   86.6  0.2127   38.0  0.6030  -59.6
 3.400  0.4683 -102.4   1.979   84.9  0.2142   37.6  0.5968  -60.5
 3.500  0.4591 -104.6   1.943   83.1  0.2156   37.2  0.5907  -61.4
 3.600  0.4498 -106.4   1.911   81.8  0.2168   37.0  0.5855  -62.0
 3.700  0.4410 -108.3   1.880   80.4  0.2180   36.8  0.5804  -62.7
 3.800  0.4327 -110.3   1.850   78.9  0.2193   36.7  0.5753  -63.3
 3.900  0.4248 -112.3   1.821   77.4  0.2205   36.5  0.5704  -64.0
 4.000  0.4176 -114.4   1.794   75.9  0.2217   36.3  0.5655  -64.7
 4.100  0.4097 -116.4   1.769   74.6  0.2229   36.3  0.5600  -65.4
 4.200  0.4024 -118.5   1.746   73.3  0.2241   36.2  0.5546  -66.2
 4.300  0.3956 -120.7   1.723   72.0  0.2252   36.2  0.5493  -66.9
 4.400  0.3894 -122.9   1.701   70.6  0.2264   36.1  0.5441  -67.7
 4.500  0.3838 -125.2   1.680   69.2  0.2276   36.1  0.5390  -68.5
 4.600  0.3770 -127.3   1.661   68.0  0.2288   36.1  0.5339  -69.3
 4.700  0.3708 -129.5   1.642   66.7  0.2300   36.1  0.5290  -70.1
 4.800  0.3652 -131.8   1.624   65.4  0.2311   36.2  0.5241  -71.0
 4.900  0.3601 -134.2   1.607   64.1  0.2323   36.2  0.5194  -71.8
 5.000  0.3557 -136.6   1.591   62.7  0.2335   36.2  0.5148  -72.7
 5.100  0.3496 -138.9   1.574   61.5  0.2347   36.3  0.5102  -73.5
 5.200  0.3440 -141.2   1.558   60.3  0.2359   36.5  0.5057  -74.2
 5.300  0.3391 -143.6   1.542   59.1  0.2371   36.6  0.5013  -75.0
 5.400  0.3347 -146.1   1.527   57.9  0.2383   36.8  0.4970  -75.8
 5.500  0.3310 -148.6   1.513   56.6  0.2395   36.9  0.4928  -76.6
 5.600  0.3272 -150.9   1.498   55.5  0.2413   37.2  0.4886  -77.5
 5.700  0.3239 -153.3   1.484   54.4  0.2432   37.4  0.4845  -78.4
 5.800  0.3212 -155.7   1.470   53.3  0.2451   37.7  0.4805  -79.4
 5.900  0.3191 -158.2   1.457   52.2  0.2469   37.9  0.4766  -80.3
 6.000  0.3176 -160.7   1.445   51.0  0.2488   38.2  0.4729  -81.3
!
!  f       NFmin   Gammaopt  rn/50
! GHz       dB    MAG  ANG    -
 0.100      0.59  0.88    1   0.59
 0.450      0.63  0.86    4   0.63
 0.900      0.69  0.79   13   0.66
 1.900      1.10  0.64   26   0.57
 2.400      1.18  0.61   34   0.54
!
! (c) 2015  Infineon Technologies AG, Munich
