! Infineon Technologies  Discrete & RF Semiconductors
! BFR380F
! VCE =  3.0 V,  IC =  25 mA
! Common Emitter S-Parameters:                            Nov 2015
# GHz  S  MA  R  50
!  f         S11            S21            S12            S22
! GHz     MAG   ANG      MAG   ANG      MAG   ANG      MAG   ANG
 0.030  0.5336  -30.1  54.849  165.0  0.0072   79.9  0.9341  -16.7
 0.035  0.5320  -34.8  54.193  162.7  0.0083   77.6  0.9230  -19.3
 0.040  0.5340  -39.5  53.624  160.4  0.0095   75.8  0.9138  -22.0
 0.045  0.5318  -44.1  52.925  158.0  0.0104   74.0  0.9005  -24.6
 0.050  0.5331  -48.8  52.319  155.6  0.0114   72.5  0.8890  -27.2
 0.055  0.5320  -52.9  51.391  153.7  0.0123   70.8  0.8740  -29.5
 0.060  0.5337  -57.0  50.520  151.8  0.0133   69.4  0.8604  -31.9
 0.065  0.5346  -61.2  49.558  149.8  0.0142   68.3  0.8447  -34.2
 0.070  0.5383  -65.3  48.659  147.7  0.0151   67.3  0.8303  -36.5
 0.075  0.5414  -68.9  47.736  146.1  0.0158   66.0  0.8143  -38.6
 0.080  0.5467  -72.5  46.852  144.4  0.0166   64.9  0.7995  -40.8
 0.085  0.5455  -75.6  45.834  142.8  0.0173   63.9  0.7836  -42.7
 0.090  0.5458  -78.7  44.855  141.1  0.0180   63.0  0.7687  -44.7
 0.095  0.5450  -81.6  43.918  139.6  0.0186   61.9  0.7529  -46.5
 0.100  0.5456  -84.6  43.013  138.0  0.0193   60.8  0.7379  -48.4
 0.105  0.5461  -87.3  42.115  136.7  0.0199   60.1  0.7227  -50.1
 0.110  0.5479  -90.0  41.240  135.3  0.0205   59.4  0.7081  -51.9
 0.115  0.5482  -92.6  40.348  134.0  0.0210   58.6  0.6938  -53.5
 0.120  0.5496  -95.2  39.476  132.7  0.0216   57.9  0.6801  -55.2
 0.125  0.5514  -97.4  38.645  131.6  0.0220   57.3  0.6664  -56.7
 0.130  0.5539  -99.5  37.830  130.4  0.0225   56.7  0.6531  -58.2
 0.135  0.5532 -101.8  37.058  129.3  0.0229   56.1  0.6402  -59.6
 0.140  0.5534 -104.1  36.300  128.2  0.0234   55.6  0.6277  -61.0
 0.145  0.5542 -106.2  35.554  127.2  0.0238   55.2  0.6155  -62.3
 0.150  0.5558 -108.2  34.819  126.1  0.0242   54.9  0.6036  -63.7
 0.155  0.5546 -109.8  34.162  125.4  0.0245   54.6  0.5927  -64.7
 0.160  0.5539 -111.3  33.510  124.7  0.0248   54.3  0.5820  -65.6
 0.165  0.5536 -112.9  32.864  124.0  0.0252   54.0  0.5714  -66.7
 0.170  0.5537 -114.5  32.223  123.2  0.0255   53.7  0.5610  -67.7
 0.175  0.5542 -116.0  31.588  122.4  0.0258   53.4  0.5509  -68.8
 0.180  0.5551 -117.6  30.959  121.6  0.0261   53.1  0.5409  -70.0
 0.185  0.5564 -119.2  30.337  120.7  0.0264   52.9  0.5312  -71.2
 0.190  0.5582 -120.7  29.723  119.8  0.0268   52.6  0.5217  -72.4
 0.195  0.5603 -122.3  29.116  118.9  0.0271   52.4  0.5125  -73.7
 0.200  0.5629 -123.8  28.517  117.9  0.0274   52.1  0.5035  -75.0
 0.220  0.5619 -128.0  26.681  115.9  0.0284   51.8  0.4732  -78.2
 0.240  0.5639 -132.1  24.882  113.6  0.0295   51.4  0.4447  -81.8
 0.260  0.5660 -135.8  23.302  111.5  0.0305   51.4  0.4199  -85.1
 0.280  0.5672 -139.1  21.919  109.8  0.0314   51.5  0.3983  -87.9
 0.300  0.5703 -142.3  20.558  107.9  0.0324   51.7  0.3777  -91.1
 0.320  0.5702 -144.7  19.501  106.7  0.0333   52.0  0.3614  -93.5
 0.340  0.5710 -147.0  18.454  105.3  0.0342   52.3  0.3458  -96.0
 0.360  0.5718 -149.2  17.523  104.1  0.0352   52.6  0.3321  -98.4
 0.380  0.5724 -151.1  16.705  103.0  0.0361   53.0  0.3201 -100.6
 0.400  0.5736 -153.0  15.894  101.8  0.0370   53.4  0.3086 -102.9
 0.420  0.5742 -154.6  15.234  100.9  0.0379   53.9  0.2990 -104.8
 0.440  0.5752 -156.1  14.578   99.9  0.0388   54.3  0.2898 -106.8
 0.450  0.5759 -156.9  14.252   99.4  0.0392   54.5  0.2853 -107.8
 0.460  0.5760 -157.5  13.981   99.0  0.0397   54.7  0.2815 -108.7
 0.480  0.5765 -158.8  13.440   98.3  0.0406   55.2  0.2741 -110.4
 0.500  0.5772 -160.1  12.902   97.5  0.0415   55.6  0.2670 -112.3
 0.520  0.5774 -161.1  12.487   96.9  0.0424   56.1  0.2615 -113.7
 0.540  0.5777 -162.2  12.073   96.3  0.0434   56.5  0.2561 -115.2
 0.560  0.5782 -163.2  11.660   95.7  0.0443   57.0  0.2510 -116.7
 0.580  0.5790 -164.3  11.249   95.0  0.0453   57.4  0.2460 -118.3
 0.600  0.5799 -165.3  10.840   94.2  0.0462   57.8  0.2412 -120.0
 0.620  0.5801 -166.1  10.539   93.7  0.0472   58.2  0.2376 -121.2
 0.640  0.5804 -166.9  10.238   93.3  0.0482   58.6  0.2341 -122.5
 0.660  0.5808 -167.7   9.939   92.7  0.0491   58.9  0.2308 -123.8
 0.680  0.5814 -168.5   9.640   92.2  0.0501   59.3  0.2275 -125.1
 0.700  0.5820 -169.3   9.342   91.6  0.0511   59.6  0.2244 -126.5
 0.720  0.5822 -170.0   9.113   91.2  0.0521   59.9  0.2220 -127.6
 0.740  0.5825 -170.6   8.884   90.7  0.0531   60.3  0.2198 -128.7
 0.760  0.5828 -171.3   8.656   90.2  0.0541   60.6  0.2175 -129.8
 0.780  0.5833 -171.9   8.429   89.7  0.0551   60.9  0.2154 -130.9
 0.800  0.5838 -172.6   8.202   89.2  0.0561   61.2  0.2134 -132.1
 0.820  0.5842 -173.1   8.024   88.9  0.0571   61.5  0.2119 -133.0
 0.840  0.5846 -173.7   7.845   88.5  0.0581   61.7  0.2104 -133.9
 0.860  0.5850 -174.2   7.668   88.1  0.0592   62.0  0.2090 -134.8
 0.880  0.5855 -174.8   7.490   87.7  0.0602   62.3  0.2077 -135.7
 0.900  0.5861 -175.3   7.313   87.3  0.0612   62.5  0.2064 -136.6
 0.920  0.5863 -175.8   7.168   87.0  0.0622   62.7  0.2054 -137.4
 0.940  0.5866 -176.3   7.022   86.6  0.0633   62.9  0.2044 -138.3
 0.960  0.5869 -176.8   6.878   86.2  0.0643   63.1  0.2034 -139.1
 0.980  0.5873 -177.3   6.733   85.8  0.0654   63.3  0.2026 -139.9
 1.000  0.5877 -177.8   6.589   85.4  0.0664   63.5  0.2017 -140.8
 1.020  0.5881 -178.2   6.473   85.1  0.0675   63.7  0.2011 -141.5
 1.040  0.5885 -178.6   6.358   84.8  0.0685   63.8  0.2005 -142.1
 1.060  0.5890 -179.1   6.242   84.4  0.0696   64.0  0.1999 -142.8
 1.080  0.5895 -179.5   6.127   84.1  0.0706   64.1  0.1994 -143.5
 1.100  0.5900 -179.9   6.012   83.7  0.0717   64.3  0.1989 -144.2
 1.120  0.5905  179.7   5.912   83.4  0.0728   64.4  0.1986 -144.8
 1.140  0.5910  179.3   5.813   83.1  0.0738   64.6  0.1983 -145.4
 1.160  0.5915  178.9   5.713   82.8  0.0749   64.7  0.1981 -146.1
 1.180  0.5920  178.5   5.614   82.5  0.0759   64.9  0.1978 -146.7
 1.200  0.5926  178.1   5.515   82.2  0.0770   65.0  0.1976 -147.3
 1.220  0.5927  177.7   5.432   81.9  0.0781   65.1  0.1975 -147.8
 1.240  0.5928  177.4   5.350   81.6  0.0791   65.2  0.1973 -148.3
 1.260  0.5929  177.0   5.268   81.3  0.0802   65.3  0.1972 -148.7
 1.280  0.5931  176.7   5.186   80.9  0.0812   65.4  0.1971 -149.2
 1.300  0.5933  176.3   5.104   80.6  0.0823   65.5  0.1970 -149.7
 1.320  0.5938  176.0   5.032   80.3  0.0834   65.6  0.1971 -150.2
 1.340  0.5943  175.6   4.959   80.1  0.0844   65.7  0.1972 -150.6
 1.360  0.5948  175.3   4.887   79.8  0.0855   65.8  0.1973 -151.1
 1.380  0.5953  174.9   4.815   79.5  0.0865   65.9  0.1974 -151.5
 1.400  0.5959  174.6   4.743   79.2  0.0876   66.0  0.1975 -152.0
 1.420  0.5962  174.3   4.682   78.9  0.0887   66.1  0.1975 -152.4
 1.440  0.5966  174.0   4.620   78.7  0.0897   66.1  0.1976 -152.7
 1.460  0.5970  173.7   4.559   78.4  0.0908   66.2  0.1977 -153.1
 1.480  0.5974  173.4   4.498   78.1  0.0918   66.2  0.1977 -153.4
 1.500  0.5978  173.1   4.437   77.8  0.0929   66.3  0.1978 -153.8
 1.520  0.5980  172.8   4.383   77.6  0.0940   66.3  0.1981 -154.1
 1.540  0.5982  172.5   4.329   77.3  0.0950   66.4  0.1983 -154.4
 1.560  0.5984  172.2   4.275   77.0  0.0961   66.4  0.1986 -154.8
 1.580  0.5986  171.9   4.221   76.8  0.0971   66.5  0.1989 -155.1
 1.600  0.5989  171.6   4.167   76.5  0.0982   66.5  0.1992 -155.4
 1.620  0.5992  171.3   4.120   76.3  0.0993   66.5  0.1993 -155.7
 1.640  0.5995  171.0   4.072   76.0  0.1004   66.6  0.1995 -156.0
 1.660  0.5998  170.8   4.025   75.7  0.1014   66.6  0.1997 -156.3
 1.680  0.6002  170.5   3.978   75.5  0.1025   66.7  0.1998 -156.6
 1.700  0.6005  170.2   3.931   75.2  0.1036   66.7  0.2000 -156.9
 1.720  0.6007  169.9   3.888   75.0  0.1047   66.7  0.2002 -157.1
 1.740  0.6009  169.7   3.845   74.7  0.1058   66.7  0.2005 -157.3
 1.760  0.6011  169.4   3.802   74.4  0.1068   66.8  0.2007 -157.4
 1.780  0.6014  169.2   3.760   74.2  0.1079   66.8  0.2010 -157.6
 1.800  0.6016  168.9   3.717   73.9  0.1090   66.8  0.2012 -157.8
 1.820  0.6020  168.6   3.679   73.7  0.1101   66.8  0.2015 -158.1
 1.840  0.6025  168.4   3.641   73.4  0.1111   66.8  0.2017 -158.3
 1.860  0.6029  168.1   3.603   73.2  0.1122   66.9  0.2020 -158.6
 1.880  0.6034  167.9   3.565   73.0  0.1132   66.9  0.2023 -158.8
 1.900  0.6039  167.6   3.527   72.7  0.1143   66.9  0.2026 -159.1
 1.920  0.6041  167.4   3.493   72.5  0.1154   66.9  0.2028 -159.2
 1.940  0.6043  167.1   3.460   72.2  0.1165   66.9  0.2029 -159.3
 1.960  0.6045  166.9   3.427   72.0  0.1175   66.9  0.2031 -159.4
 1.980  0.6047  166.6   3.393   71.7  0.1186   66.9  0.2032 -159.5
 2.000  0.6049  166.4   3.360   71.5  0.1197   66.9  0.2034 -159.6
 2.020  0.6051  166.2   3.331   71.3  0.1208   66.9  0.2036 -159.8
 2.040  0.6052  165.9   3.302   71.1  0.1218   66.9  0.2039 -159.9
 2.060  0.6054  165.7   3.273   70.8  0.1229   66.9  0.2041 -160.1
 2.080  0.6056  165.5   3.244   70.6  0.1240   66.9  0.2044 -160.2
 2.100  0.6058  165.2   3.215   70.4  0.1250   66.8  0.2046 -160.4
 2.120  0.6060  165.0   3.186   70.1  0.1261   66.8  0.2049 -160.6
 2.140  0.6063  164.8   3.157   69.9  0.1272   66.8  0.2051 -160.7
 2.160  0.6065  164.6   3.128   69.6  0.1283   66.8  0.2054 -160.9
 2.180  0.6067  164.3   3.100   69.4  0.1293   66.8  0.2056 -161.0
 2.200  0.6070  164.1   3.071   69.1  0.1304   66.8  0.2059 -161.2
 2.220  0.6071  163.9   3.046   68.9  0.1315   66.8  0.2061 -161.3
 2.240  0.6071  163.7   3.022   68.7  0.1325   66.8  0.2063 -161.5
 2.260  0.6072  163.5   2.997   68.5  0.1336   66.7  0.2064 -161.6
 2.280  0.6073  163.3   2.973   68.3  0.1347   66.7  0.2066 -161.8
 2.300  0.6074  163.0   2.948   68.0  0.1357   66.7  0.2068 -161.9
 2.320  0.6075  162.8   2.924   67.8  0.1368   66.7  0.2070 -162.0
 2.340  0.6076  162.6   2.900   67.6  0.1379   66.7  0.2071 -162.2
 2.360  0.6077  162.4   2.875   67.4  0.1390   66.6  0.2073 -162.3
 2.380  0.6079  162.2   2.851   67.1  0.1400   66.6  0.2075 -162.5
 2.400  0.6080  162.0   2.827   66.9  0.1411   66.6  0.2077 -162.6
 2.420  0.6079  161.8   2.806   66.7  0.1422   66.6  0.2079 -162.7
 2.440  0.6078  161.6   2.786   66.5  0.1432   66.5  0.2081 -162.8
 2.460  0.6077  161.4   2.765   66.3  0.1443   66.5  0.2083 -162.9
 2.480  0.6077  161.2   2.745   66.1  0.1454   66.5  0.2085 -163.0
 2.500  0.6076  161.0   2.724   65.8  0.1464   66.4  0.2087 -163.2
 2.520  0.6075  160.7   2.704   65.6  0.1475   66.4  0.2089 -163.3
 2.540  0.6075  160.5   2.683   65.4  0.1486   66.4  0.2091 -163.4
 2.560  0.6075  160.3   2.663   65.2  0.1497   66.4  0.2093 -163.5
 2.580  0.6074  160.1   2.642   64.9  0.1507   66.3  0.2095 -163.6
 2.600  0.6074  159.9   2.622   64.7  0.1518   66.3  0.2097 -163.7
 2.620  0.6076  159.7   2.605   64.5  0.1529   66.2  0.2099 -163.8
 2.640  0.6077  159.5   2.588   64.3  0.1540   66.2  0.2101 -163.8
 2.660  0.6079  159.3   2.571   64.1  0.1551   66.1  0.2103 -163.9
 2.680  0.6081  159.1   2.554   63.9  0.1562   66.1  0.2105 -164.0
 2.700  0.6083  158.9   2.538   63.7  0.1572   66.0  0.2106 -164.1
 2.720  0.6085  158.8   2.521   63.5  0.1583   66.0  0.2108 -164.1
 2.740  0.6087  158.6   2.504   63.3  0.1594   65.9  0.2110 -164.2
 2.760  0.6089  158.4   2.487   63.0  0.1605   65.9  0.2112 -164.3
 2.780  0.6091  158.2   2.471   62.8  0.1616   65.8  0.2114 -164.3
 2.800  0.6093  158.0   2.454   62.6  0.1627   65.8  0.2116 -164.4
 2.820  0.6092  157.8   2.439   62.4  0.1638   65.8  0.2117 -164.5
 2.840  0.6090  157.6   2.425   62.2  0.1649   65.7  0.2118 -164.5
 2.860  0.6089  157.5   2.410   62.0  0.1660   65.7  0.2119 -164.6
 2.880  0.6088  157.3   2.395   61.8  0.1671   65.6  0.2120 -164.6
 2.900  0.6087  157.1   2.381   61.6  0.1681   65.6  0.2121 -164.7
 2.920  0.6086  156.9   2.366   61.4  0.1692   65.6  0.2123 -164.7
 2.940  0.6085  156.7   2.351   61.2  0.1703   65.5  0.2124 -164.8
 2.960  0.6084  156.6   2.337   61.0  0.1714   65.5  0.2125 -164.8
 2.980  0.6083  156.4   2.322   60.8  0.1725   65.4  0.2126 -164.9
 3.000  0.6082  156.2   2.308   60.6  0.1736   65.4  0.2127 -164.9
 3.100  0.6077  155.2   2.249   59.7  0.1791   65.1  0.2132 -165.0
 3.200  0.6074  154.2   2.191   58.7  0.1847   64.7  0.2136 -165.1
 3.300  0.6073  153.1   2.134   57.7  0.1903   64.4  0.2141 -165.1
 3.400  0.6074  152.1   2.077   56.6  0.1958   64.2  0.2145 -165.2
 3.500  0.6077  151.1   2.021   55.5  0.2014   63.9  0.2150 -165.3
 3.600  0.6074  150.1   1.978   54.6  0.2068   63.5  0.2157 -165.4
 3.700  0.6072  149.1   1.935   53.7  0.2122   63.0  0.2164 -165.5
 3.800  0.6073  148.1   1.893   52.7  0.2177   62.6  0.2170 -165.7
 3.900  0.6075  147.1   1.852   51.7  0.2231   62.3  0.2177 -165.8
 4.000  0.6079  146.1   1.811   50.6  0.2286   61.9  0.2184 -165.9
 4.100  0.6082  145.1   1.777   49.7  0.2338   61.4  0.2202 -166.4
 4.200  0.6086  144.2   1.743   48.8  0.2390   61.0  0.2219 -166.8
 4.300  0.6092  143.2   1.710   47.9  0.2442   60.6  0.2237 -167.3
 4.400  0.6100  142.3   1.677   46.9  0.2494   60.2  0.2255 -167.8
 4.500  0.6110  141.3   1.645   45.9  0.2546   59.8  0.2273 -168.2
 4.600  0.6116  140.4   1.619   45.0  0.2599   59.3  0.2295 -168.8
 4.700  0.6123  139.5   1.594   44.1  0.2653   58.9  0.2318 -169.4
 4.800  0.6132  138.6   1.569   43.2  0.2706   58.4  0.2341 -170.0
 4.900  0.6142  137.7   1.545   42.3  0.2760   58.0  0.2364 -170.5
 5.000  0.6154  136.8   1.521   41.3  0.2814   57.6  0.2387 -171.1
 5.100  0.6160  135.7   1.499   40.4  0.2866   57.0  0.2403 -172.0
 5.200  0.6167  134.7   1.477   39.5  0.2919   56.5  0.2419 -172.9
 5.300  0.6177  133.6   1.455   38.5  0.2972   55.9  0.2436 -173.8
 5.400  0.6189  132.6   1.434   37.5  0.3025   55.4  0.2454 -174.7
 5.500  0.6203  131.5   1.413   36.5  0.3078   54.9  0.2472 -175.6
 5.600  0.6222  130.3   1.392   35.6  0.3124   54.3  0.2487 -177.0
 5.700  0.6244  129.2   1.372   34.7  0.3171   53.7  0.2503 -178.5
 5.800  0.6268  128.1   1.352   33.8  0.3217   53.1  0.2522 -179.9
 5.900  0.6294  126.9   1.333   32.8  0.3265   52.5  0.2541  178.8
 6.000  0.6323  125.8   1.314   31.8  0.3312   52.0  0.2562  177.4
!
!  f       NFmin   Gammaopt  rn/50
! GHz       dB    MAG  ANG    -
 0.450      1.16  0.25  179   0.08
 0.900      1.13  0.30  177   0.07
 1.800      1.34  0.38 -171   0.08
 1.900      1.42  0.39 -171   0.08
 2.400      1.50  0.41 -161   0.09
 3.500      2.08  0.49 -150   0.13
!
! (c) 2015  Infineon Technologies AG, Munich
