! Infineon Technologies  Discrete & RF Semiconductors
! BFR35AP
! VCE =  3.0 V,  IC =  2.0 mA
! Common Emitter S-Parameters:                            Nov 2015
# GHz  S  MA  R  50
!  f         S11            S21            S12            S22
! GHz     MAG   ANG      MAG   ANG      MAG   ANG      MAG   ANG
 0.010  0.9192   -1.9   6.532  178.6  0.0029   87.4  0.9972   -0.9
 0.015  0.9175   -3.1   6.568  177.5  0.0046   87.5  0.9931   -1.3
 0.020  0.9162   -4.4   6.607  176.5  0.0063   87.6  0.9891   -1.8
 0.025  0.9148   -5.4   6.611  175.7  0.0077   86.1  0.9891   -2.3
 0.030  0.9137   -6.4   6.617  174.9  0.0092   85.1  0.9891   -2.7
 0.035  0.9128   -7.3   6.623  174.0  0.0106   84.4  0.9892   -3.2
 0.040  0.9122   -8.3   6.632  173.2  0.0121   83.8  0.9894   -3.7
 0.045  0.9119   -9.3   6.641  172.4  0.0135   83.4  0.9896   -4.1
 0.050  0.9118  -10.3   6.652  171.6  0.0150   83.0  0.9899   -4.6
 0.055  0.9082  -11.2   6.626  170.8  0.0165   82.1  0.9878   -5.0
 0.060  0.9048  -12.2   6.601  170.1  0.0180   81.3  0.9859   -5.5
 0.065  0.9017  -13.1   6.577  169.3  0.0195   80.7  0.9839   -5.9
 0.070  0.8988  -14.1   6.554  168.5  0.0210   80.1  0.9821   -6.4
 0.075  0.8961  -15.0   6.533  167.7  0.0225   79.7  0.9802   -6.8
 0.080  0.8938  -16.0   6.513  166.9  0.0240   79.2  0.9785   -7.3
 0.085  0.8916  -17.0   6.494  166.1  0.0256   78.9  0.9768   -7.7
 0.090  0.8898  -17.9   6.476  165.3  0.0271   78.6  0.9752   -8.2
 0.095  0.8882  -18.9   6.460  164.5  0.0286   78.3  0.9736   -8.6
 0.100  0.8868  -19.9   6.445  163.7  0.0301   78.0  0.9721   -9.1
 0.105  0.8824  -20.8   6.424  162.8  0.0315   77.2  0.9694   -9.5
 0.110  0.8783  -21.8   6.404  161.9  0.0328   76.6  0.9669   -9.9
 0.115  0.8745  -22.7   6.386  161.0  0.0342   75.9  0.9643  -10.4
 0.120  0.8708  -23.7   6.370  160.1  0.0355   75.3  0.9618  -10.8
 0.125  0.8674  -24.7   6.355  159.2  0.0369   74.8  0.9594  -11.2
 0.130  0.8643  -25.6   6.341  158.3  0.0383   74.3  0.9570  -11.7
 0.135  0.8614  -26.6   6.330  157.4  0.0397   73.8  0.9547  -12.1
 0.140  0.8588  -27.6   6.320  156.5  0.0410   73.4  0.9524  -12.5
 0.145  0.8564  -28.6   6.311  155.6  0.0424   73.0  0.9502  -13.0
 0.150  0.8543  -29.6   6.304  154.7  0.0438   72.6  0.9480  -13.4
 0.155  0.8497  -30.4   6.274  154.0  0.0450   72.0  0.9446  -13.7
 0.160  0.8453  -31.3   6.245  153.3  0.0462   71.5  0.9413  -14.1
 0.165  0.8411  -32.2   6.217  152.6  0.0474   71.0  0.9380  -14.5
 0.170  0.8371  -33.0   6.190  151.9  0.0486   70.5  0.9347  -14.8
 0.175  0.8333  -33.9   6.164  151.2  0.0498   70.1  0.9315  -15.2
 0.180  0.8297  -34.8   6.139  150.5  0.0510   69.6  0.9283  -15.5
 0.185  0.8262  -35.7   6.115  149.8  0.0522   69.2  0.9251  -15.9
 0.190  0.8230  -36.6   6.092  149.1  0.0535   68.8  0.9220  -16.3
 0.195  0.8200  -37.5   6.069  148.3  0.0547   68.5  0.9189  -16.6
 0.200  0.8172  -38.4   6.048  147.6  0.0559   68.1  0.9159  -17.0
 0.220  0.7997  -41.8   5.895  144.9  0.0601   66.2  0.9021  -18.3
 0.240  0.7852  -45.4   5.755  142.1  0.0644   64.5  0.8887  -19.5
 0.260  0.7678  -48.7   5.630  139.5  0.0684   63.0  0.8753  -20.7
 0.280  0.7470  -51.9   5.518  136.9  0.0722   61.6  0.8616  -21.7
 0.300  0.7285  -55.2   5.418  134.2  0.0761   60.3  0.8483  -22.8
 0.320  0.7081  -57.9   5.291  132.2  0.0788   58.9  0.8342  -23.6
 0.340  0.6893  -60.7   5.170  130.2  0.0815   57.7  0.8202  -24.4
 0.360  0.6723  -63.6   5.056  128.1  0.0843   56.5  0.8065  -25.3
 0.380  0.6572  -66.8   4.949  125.8  0.0871   55.3  0.7929  -26.2
 0.400  0.6441  -70.0   4.850  123.5  0.0899   54.3  0.7795  -27.1
 0.420  0.6279  -72.2   4.717  121.8  0.0919   53.4  0.7676  -27.7
 0.440  0.6126  -74.6   4.588  120.0  0.0940   52.6  0.7557  -28.3
 0.450  0.6054  -75.8   4.525  119.1  0.0950   52.2  0.7498  -28.6
 0.460  0.5985  -77.0   4.464  118.1  0.0961   51.8  0.7440  -28.9
 0.480  0.5855  -79.6   4.345  116.1  0.0982   51.0  0.7323  -29.5
 0.500  0.5737  -82.3   4.232  114.0  0.1003   50.3  0.7207  -30.2
 0.520  0.5608  -84.5   4.139  112.6  0.1020   49.7  0.7126  -30.6
 0.540  0.5486  -86.7   4.048  111.2  0.1038   49.1  0.7045  -30.9
 0.560  0.5374  -89.1   3.960  109.6  0.1055   48.5  0.6965  -31.3
 0.580  0.5272  -91.5   3.875  108.1  0.1073   47.9  0.6885  -31.7
 0.600  0.5179  -94.1   3.793  106.4  0.1091   47.4  0.6805  -32.1
 0.620  0.5063  -96.2   3.719  105.1  0.1104   47.0  0.6732  -32.4
 0.640  0.4955  -98.3   3.646  103.7  0.1118   46.6  0.6659  -32.8
 0.660  0.4853 -100.6   3.576  102.3  0.1132   46.2  0.6586  -33.1
 0.680  0.4760 -103.0   3.508  100.8  0.1145   45.9  0.6514  -33.4
 0.700  0.4675 -105.4   3.443   99.3  0.1159   45.5  0.6442  -33.8
 0.720  0.4578 -107.3   3.373   98.2  0.1170   45.2  0.6381  -34.1
 0.740  0.4486 -109.3   3.304   97.0  0.1181   45.0  0.6320  -34.3
 0.760  0.4399 -111.4   3.236   95.8  0.1193   44.7  0.6259  -34.6
 0.780  0.4319 -113.6   3.170   94.5  0.1204   44.5  0.6198  -34.9
 0.800  0.4245 -115.8   3.106   93.2  0.1215   44.2  0.6137  -35.2
 0.820  0.4176 -117.5   3.052   92.2  0.1225   44.1  0.6083  -35.4
 0.840  0.4110 -119.2   2.999   91.1  0.1235   44.0  0.6030  -35.7
 0.860  0.4049 -120.9   2.947   90.0  0.1246   44.0  0.5976  -35.9
 0.880  0.3991 -122.7   2.896   88.9  0.1256   43.9  0.5923  -36.2
 0.900  0.3937 -124.6   2.846   87.7  0.1266   43.8  0.5870  -36.4
 0.920  0.3881 -126.4   2.798   86.8  0.1276   43.8  0.5832  -36.6
 0.940  0.3830 -128.2   2.750   85.9  0.1286   43.7  0.5794  -36.8
 0.960  0.3782 -130.1   2.703   85.0  0.1295   43.7  0.5756  -37.0
 0.980  0.3738 -132.0   2.657   84.0  0.1305   43.6  0.5719  -37.2
 1.000  0.3699 -134.0   2.612   83.0  0.1315   43.6  0.5681  -37.4
 1.020  0.3659 -135.8   2.574   82.2  0.1325   43.6  0.5651  -37.7
 1.040  0.3623 -137.7   2.537   81.3  0.1336   43.5  0.5621  -38.0
 1.060  0.3591 -139.5   2.500   80.4  0.1346   43.5  0.5591  -38.3
 1.080  0.3562 -141.5   2.464   79.5  0.1357   43.4  0.5561  -38.6
 1.100  0.3538 -143.4   2.429   78.6  0.1367   43.4  0.5531  -38.9
 1.120  0.3496 -145.1   2.395   77.8  0.1377   43.4  0.5506  -39.2
 1.140  0.3457 -146.9   2.361   76.9  0.1386   43.4  0.5480  -39.4
 1.160  0.3422 -148.7   2.328   76.0  0.1396   43.4  0.5455  -39.7
 1.180  0.3390 -150.5   2.295   75.1  0.1405   43.4  0.5430  -39.9
 1.200  0.3362 -152.4   2.263   74.1  0.1415   43.4  0.5405  -40.2
 1.220  0.3350 -153.9   2.233   73.4  0.1426   43.4  0.5383  -40.4
 1.240  0.3340 -155.4   2.204   72.6  0.1438   43.5  0.5362  -40.7
 1.260  0.3332 -156.9   2.175   71.9  0.1449   43.5  0.5340  -40.9
 1.280  0.3327 -158.4   2.146   71.1  0.1461   43.6  0.5318  -41.2
 1.300  0.3324 -159.9   2.118   70.3  0.1472   43.6  0.5297  -41.4
 1.320  0.3292 -161.6   2.092   69.6  0.1481   43.7  0.5279  -41.7
 1.340  0.3263 -163.4   2.067   68.8  0.1491   43.7  0.5261  -42.0
 1.360  0.3238 -165.2   2.041   68.1  0.1500   43.8  0.5243  -42.2
 1.380  0.3215 -167.0   2.016   67.3  0.1510   43.8  0.5226  -42.5
 1.400  0.3196 -168.8   1.992   66.5  0.1519   43.9  0.5208  -42.8
 1.420  0.3187 -170.1   1.973   65.8  0.1531   44.1  0.5187  -43.1
 1.440  0.3179 -171.5   1.954   65.2  0.1542   44.2  0.5166  -43.4
 1.460  0.3173 -172.8   1.935   64.5  0.1554   44.4  0.5145  -43.6
 1.480  0.3169 -174.2   1.917   63.8  0.1565   44.5  0.5124  -43.9
 1.500  0.3167 -175.5   1.899   63.1  0.1577   44.7  0.5103  -44.2
 1.520  0.3170 -177.2   1.877   62.4  0.1589   44.7  0.5084  -44.5
 1.540  0.3176 -179.0   1.856   61.6  0.1601   44.7  0.5064  -44.8
 1.560  0.3185  179.3   1.835   60.8  0.1613   44.8  0.5045  -45.0
 1.580  0.3197  177.6   1.814   60.0  0.1625   44.8  0.5026  -45.3
 1.600  0.3212  175.9   1.794   59.2  0.1637   44.8  0.5007  -45.6
 1.620  0.3200  174.6   1.778   58.6  0.1649   45.0  0.4983  -45.9
 1.640  0.3190  173.3   1.762   58.0  0.1662   45.2  0.4960  -46.2
 1.660  0.3181  172.0   1.746   57.3  0.1674   45.4  0.4937  -46.6
 1.680  0.3174  170.6   1.730   56.7  0.1687   45.6  0.4914  -46.9
 1.700  0.3169  169.3   1.715   56.0  0.1699   45.8  0.4891  -47.2
 1.720  0.3183  168.1   1.700   55.4  0.1715   45.8  0.4880  -47.5
 1.740  0.3199  167.0   1.685   54.8  0.1731   45.8  0.4869  -47.8
 1.760  0.3216  165.8   1.671   54.2  0.1747   45.9  0.4858  -48.2
 1.780  0.3234  164.7   1.656   53.6  0.1763   45.9  0.4847  -48.5
 1.800  0.3253  163.6   1.642   53.0  0.1779   45.9  0.4836  -48.8
 1.820  0.3268  162.4   1.628   52.4  0.1792   46.0  0.4822  -49.2
 1.840  0.3283  161.3   1.615   51.8  0.1805   46.1  0.4808  -49.6
 1.860  0.3301  160.1   1.601   51.1  0.1819   46.1  0.4794  -50.0
 1.880  0.3319  159.0   1.588   50.5  0.1832   46.2  0.4781  -50.4
 1.900  0.3339  157.9   1.575   49.8  0.1845   46.3  0.4768  -50.8
 1.920  0.3346  156.8   1.561   49.2  0.1860   46.3  0.4754  -51.1
 1.940  0.3354  155.7   1.547   48.7  0.1875   46.3  0.4740  -51.5
 1.960  0.3364  154.6   1.533   48.1  0.1890   46.2  0.4726  -51.8
 1.980  0.3375  153.5   1.519   47.5  0.1905   46.2  0.4712  -52.2
 2.000  0.3387  152.4   1.506   46.9  0.1920   46.2  0.4699  -52.5
 2.020  0.3395  151.4   1.495   46.4  0.1936   46.2  0.4684  -52.9
 2.040  0.3404  150.4   1.484   45.8  0.1951   46.3  0.4669  -53.3
 2.060  0.3414  149.4   1.473   45.2  0.1967   46.3  0.4654  -53.7
 2.080  0.3425  148.4   1.463   44.7  0.1982   46.3  0.4639  -54.1
 2.100  0.3437  147.4   1.452   44.1  0.1998   46.4  0.4625  -54.6
 2.120  0.3450  146.4   1.442   43.5  0.2014   46.4  0.4611  -55.0
 2.140  0.3464  145.4   1.432   42.9  0.2029   46.4  0.4597  -55.4
 2.160  0.3480  144.4   1.422   42.3  0.2045   46.4  0.4583  -55.8
 2.180  0.3496  143.5   1.412   41.7  0.2060   46.5  0.4570  -56.3
 2.200  0.3513  142.5   1.402   41.1  0.2076   46.5  0.4557  -56.7
 2.220  0.3531  141.5   1.393   40.6  0.2093   46.5  0.4540  -57.2
 2.240  0.3550  140.5   1.384   40.1  0.2110   46.4  0.4524  -57.7
 2.260  0.3570  139.5   1.375   39.5  0.2127   46.4  0.4508  -58.1
 2.280  0.3592  138.5   1.366   39.0  0.2144   46.4  0.4492  -58.6
 2.300  0.3614  137.5   1.357   38.4  0.2161   46.3  0.4477  -59.1
 2.320  0.3637  136.6   1.349   37.9  0.2178   46.3  0.4462  -59.6
 2.340  0.3661  135.7   1.340   37.3  0.2195   46.3  0.4447  -60.1
 2.360  0.3687  134.7   1.332   36.8  0.2212   46.3  0.4433  -60.6
 2.380  0.3713  133.8   1.324   36.2  0.2229   46.2  0.4419  -61.1
 2.400  0.3740  132.9   1.316   35.6  0.2246   46.2  0.4405  -61.6
 2.420  0.3760  132.0   1.308   35.1  0.2265   46.1  0.4388  -62.1
 2.440  0.3781  131.2   1.301   34.7  0.2283   46.1  0.4371  -62.6
 2.460  0.3803  130.3   1.293   34.2  0.2302   46.0  0.4354  -63.0
 2.480  0.3826  129.5   1.286   33.7  0.2321   46.0  0.4338  -63.5
 2.500  0.3850  128.7   1.278   33.3  0.2339   45.9  0.4322  -64.0
 2.520  0.3874  127.9   1.271   32.8  0.2358   45.9  0.4306  -64.5
 2.540  0.3899  127.1   1.264   32.3  0.2377   45.8  0.4291  -65.0
 2.560  0.3925  126.3   1.257   31.8  0.2396   45.8  0.4276  -65.5
 2.580  0.3952  125.5   1.250   31.3  0.2414   45.7  0.4261  -66.0
 2.600  0.3979  124.7   1.243   30.8  0.2433   45.7  0.4247  -66.5
 2.620  0.3997  124.1   1.236   30.4  0.2452   45.6  0.4230  -67.1
 2.640  0.4015  123.4   1.228   29.9  0.2471   45.5  0.4213  -67.6
 2.660  0.4033  122.8   1.221   29.4  0.2490   45.4  0.4197  -68.2
 2.680  0.4052  122.1   1.214   29.0  0.2509   45.3  0.4181  -68.8
 2.700  0.4072  121.5   1.207   28.5  0.2528   45.2  0.4166  -69.3
 2.720  0.4092  120.9   1.200   28.0  0.2547   45.1  0.4151  -69.9
 2.740  0.4113  120.3   1.193   27.6  0.2566   45.0  0.4137  -70.5
 2.760  0.4134  119.7   1.186   27.1  0.2585   44.9  0.4123  -71.1
 2.780  0.4155  119.1   1.180   26.6  0.2604   44.8  0.4109  -71.7
 2.800  0.4177  118.5   1.173   26.1  0.2623   44.7  0.4096  -72.3
 2.820  0.4200  117.9   1.167   25.7  0.2643   44.6  0.4079  -72.9
 2.840  0.4224  117.3   1.162   25.2  0.2663   44.4  0.4062  -73.6
 2.860  0.4249  116.7   1.156   24.8  0.2683   44.3  0.4046  -74.2
 2.880  0.4274  116.1   1.151   24.3  0.2703   44.2  0.4030  -74.8
 2.900  0.4299  115.5   1.145   23.9  0.2723   44.1  0.4015  -75.5
 2.920  0.4325  114.9   1.140   23.4  0.2743   44.0  0.4000  -76.1
 2.940  0.4351  114.3   1.134   22.9  0.2764   43.8  0.3986  -76.8
 2.960  0.4378  113.7   1.129   22.5  0.2784   43.7  0.3973  -77.5
 2.980  0.4405  113.2   1.124   22.0  0.2804   43.6  0.3960  -78.1
 3.000  0.4433  112.6   1.119   21.5  0.2824   43.5  0.3947  -78.8
 3.100  0.4540  109.9   1.090   19.6  0.2925   42.5  0.3841  -82.4
 3.200  0.4656  107.3   1.062   17.7  0.3026   41.6  0.3751  -86.1
 3.300  0.4781  104.9   1.035   15.6  0.3128   40.8  0.3677  -90.0
 3.400  0.4915  102.6   1.010   13.5  0.3231   40.0  0.3621  -94.0
 3.500  0.5056  100.4   0.986   11.2  0.3334   39.2  0.3584  -98.2
 3.600  0.5148   98.4   0.965    9.6  0.3438   38.0  0.3500 -102.9
 3.700  0.5246   96.4   0.945    8.0  0.3543   36.9  0.3441 -107.8
 3.800  0.5350   94.5   0.925    6.3  0.3649   35.8  0.3408 -112.8
 3.900  0.5460   92.7   0.907    4.5  0.3756   34.8  0.3400 -117.8
 4.000  0.5575   90.9   0.889    2.6  0.3865   33.9  0.3420 -122.9
 4.100  0.5657   89.3   0.872    1.2  0.3964   32.4  0.3365 -128.1
 4.200  0.5743   87.7   0.855   -0.2  0.4066   31.0  0.3339 -133.4
 4.300  0.5834   86.1   0.839   -1.6  0.4171   29.6  0.3343 -138.8
 4.400  0.5928   84.6   0.824   -3.1  0.4277   28.3  0.3375 -144.1
 4.500  0.6027   83.2   0.809   -4.7  0.4386   27.1  0.3436 -149.3
 4.600  0.6081   81.8   0.796   -5.9  0.4468   25.5  0.3422 -154.5
 4.700  0.6138   80.5   0.783   -7.2  0.4553   23.9  0.3436 -159.6
 4.800  0.6198   79.2   0.770   -8.5  0.4642   22.4  0.3477 -164.7
 4.900  0.6262   77.9   0.758   -9.8  0.4733   21.0  0.3544 -169.6
 5.000  0.6329   76.6   0.746  -11.2  0.4828   19.6  0.3637 -174.3
 5.100  0.6392   75.3   0.729  -12.2  0.4854   17.9  0.3577 -179.0
 5.200  0.6458   74.0   0.712  -13.2  0.4884   16.2  0.3541  176.1
 5.300  0.6528   72.8   0.696  -14.2  0.4919   14.5  0.3532  171.2
 5.400  0.6600   71.6   0.680  -15.3  0.4958   12.8  0.3548  166.3
 5.500  0.6675   70.4   0.664  -16.5  0.5001   11.2  0.3590  161.5
 5.600  0.6670   69.4   0.661  -16.7  0.5094   10.3  0.3766  159.5
 5.700  0.6666   68.3   0.658  -16.9  0.5188    9.3  0.3946  157.8
 5.800  0.6665   67.3   0.654  -17.0  0.5283    8.5  0.4129  156.1
 5.900  0.6667   66.2   0.651  -17.2  0.5379    7.6  0.4315  154.7
 6.000  0.6670   65.2   0.648  -17.4  0.5477    6.8  0.4504  153.3
!
!  f       NFmin   Gammaopt  rn/50
! GHz       dB    MAG  ANG    -
!
! noise parameter not available yet for this operation point!
!
! (c) 2015  Infineon Technologies AG, Munich
