! Infineon Technologies  Discrete & RF Semiconductors
! BFR35AP
! VCE =  1.5 V,  IC =  15 mA
! Common Emitter S-Parameters:                            Nov 2015
# GHz  S  MA  R  50
!  f         S11            S21            S12            S22
! GHz     MAG   ANG      MAG   ANG      MAG   ANG      MAG   ANG
 0.010  0.5689   -8.2  28.369  174.4  0.0029   87.1  0.9609   -3.6
 0.015  0.5620  -12.3  28.200  171.5  0.0045   84.6  0.9501   -5.6
 0.020  0.5579  -16.4  28.106  168.5  0.0062   83.5  0.9405   -7.6
 0.025  0.5472  -19.8  27.636  166.2  0.0075   80.6  0.9285   -9.2
 0.030  0.5386  -23.4  27.212  163.8  0.0088   78.6  0.9172  -10.9
 0.035  0.5321  -27.1  26.839  161.3  0.0101   77.0  0.9067  -12.6
 0.040  0.5278  -30.8  26.517  158.7  0.0114   75.9  0.8970  -14.3
 0.045  0.5259  -34.6  26.248  156.1  0.0128   74.9  0.8882  -16.1
 0.050  0.5262  -38.4  26.034  153.5  0.0141   74.2  0.8802  -17.9
 0.055  0.5124  -41.0  25.426  151.9  0.0151   73.0  0.8642  -18.8
 0.060  0.4998  -43.7  24.837  150.3  0.0162   72.0  0.8485  -19.8
 0.065  0.4883  -46.5  24.270  148.6  0.0172   71.0  0.8330  -20.8
 0.070  0.4780  -49.5  23.725  146.8  0.0182   70.2  0.8178  -21.9
 0.075  0.4691  -52.6  23.204  144.9  0.0193   69.5  0.8029  -22.9
 0.080  0.4616  -55.8  22.710  143.0  0.0203   68.9  0.7882  -24.1
 0.085  0.4556  -59.0  22.243  140.9  0.0214   68.3  0.7739  -25.2
 0.090  0.4511  -62.4  21.805  138.8  0.0224   67.7  0.7599  -26.4
 0.095  0.4482  -65.8  21.399  136.6  0.0234   67.2  0.7463  -27.7
 0.100  0.4469  -69.3  21.026  134.3  0.0245   66.8  0.7330  -29.0
 0.105  0.4375  -71.3  20.548  133.2  0.0252   66.3  0.7203  -29.4
 0.110  0.4287  -73.4  20.077  132.1  0.0259   65.8  0.7075  -29.9
 0.115  0.4205  -75.5  19.615  130.9  0.0266   65.3  0.6949  -30.4
 0.120  0.4129  -77.8  19.162  129.6  0.0273   64.8  0.6823  -30.9
 0.125  0.4060  -80.1  18.718  128.3  0.0280   64.4  0.6697  -31.4
 0.130  0.3998  -82.5  18.285  127.0  0.0287   64.0  0.6572  -31.9
 0.135  0.3943  -85.0  17.862  125.5  0.0294   63.6  0.6448  -32.4
 0.140  0.3895  -87.6  17.451  124.0  0.0301   63.2  0.6324  -33.0
 0.145  0.3856  -90.2  17.053  122.4  0.0308   62.8  0.6201  -33.6
 0.150  0.3824  -92.8  16.668  120.8  0.0315   62.5  0.6078  -34.2
 0.155  0.3773  -94.3  16.347  120.1  0.0320   62.4  0.5995  -34.4
 0.160  0.3725  -95.8  16.029  119.4  0.0326   62.3  0.5912  -34.5
 0.165  0.3680  -97.4  15.713  118.6  0.0331   62.1  0.5830  -34.7
 0.170  0.3637  -99.0  15.401  117.8  0.0336   62.0  0.5747  -34.9
 0.175  0.3597 -100.6  15.091  117.0  0.0341   61.9  0.5664  -35.0
 0.180  0.3561 -102.3  14.785  116.1  0.0347   61.8  0.5582  -35.2
 0.185  0.3527 -104.0  14.482  115.2  0.0352   61.7  0.5499  -35.4
 0.190  0.3497 -105.7  14.183  114.3  0.0357   61.6  0.5417  -35.6
 0.195  0.3470 -107.5  13.888  113.3  0.0363   61.5  0.5334  -35.8
 0.200  0.3446 -109.3  13.597  112.3  0.0368   61.4  0.5252  -36.0
 0.220  0.3320 -114.7  12.658  110.0  0.0390   61.9  0.5022  -36.1
 0.240  0.3225 -120.5  11.742  107.4  0.0412   62.3  0.4793  -36.2
 0.260  0.3158 -125.5  10.964  105.0  0.0434   62.7  0.4598  -36.2
 0.280  0.3103 -129.6  10.311  103.1  0.0455   62.9  0.4438  -36.1
 0.300  0.3065 -133.8   9.670  101.0  0.0477   63.2  0.4278  -35.9
 0.320  0.3009 -136.8   9.223   99.9  0.0498   63.6  0.4182  -35.7
 0.340  0.2962 -140.0   8.780   98.7  0.0519   63.9  0.4087  -35.4
 0.360  0.2923 -143.2   8.341   97.3  0.0540   64.2  0.3992  -35.2
 0.380  0.2895 -146.5   7.907   95.9  0.0561   64.4  0.3896  -34.9
 0.400  0.2876 -149.9   7.479   94.2  0.0582   64.7  0.3801  -34.6
 0.420  0.2862 -152.1   7.186   93.2  0.0605   65.0  0.3744  -34.4
 0.440  0.2852 -154.4   6.895   92.1  0.0627   65.2  0.3688  -34.2
 0.450  0.2848 -155.5   6.751   91.6  0.0638   65.4  0.3659  -34.1
 0.460  0.2846 -156.6   6.608   91.0  0.0650   65.5  0.3631  -34.0
 0.480  0.2845 -158.8   6.323   89.7  0.0672   65.7  0.3575  -33.8
 0.500  0.2848 -161.1   6.041   88.3  0.0695   65.9  0.3518  -33.6
 0.520  0.2845 -163.1   5.848   87.5  0.0718   66.0  0.3484  -33.5
 0.540  0.2845 -165.1   5.657   86.6  0.0741   66.2  0.3449  -33.4
 0.560  0.2849 -167.1   5.466   85.7  0.0763   66.3  0.3415  -33.3
 0.580  0.2856 -169.0   5.278   84.7  0.0786   66.4  0.3380  -33.2
 0.600  0.2866 -171.0   5.091   83.6  0.0809   66.5  0.3346  -33.1
 0.620  0.2857 -172.5   4.952   82.8  0.0832   66.5  0.3322  -33.1
 0.640  0.2850 -173.9   4.814   82.0  0.0855   66.6  0.3298  -33.1
 0.660  0.2845 -175.4   4.677   81.2  0.0878   66.6  0.3275  -33.2
 0.680  0.2841 -176.9   4.542   80.3  0.0901   66.7  0.3251  -33.2
 0.700  0.2840 -178.4   4.407   79.3  0.0924   66.7  0.3227  -33.2
 0.720  0.2848 -179.8   4.300   78.6  0.0947   66.5  0.3207  -33.3
 0.740  0.2857  178.8   4.194   77.9  0.0970   66.4  0.3187  -33.4
 0.760  0.2868  177.5   4.088   77.1  0.0994   66.2  0.3168  -33.4
 0.780  0.2880  176.1   3.984   76.3  0.1017   66.0  0.3148  -33.5
 0.800  0.2894  174.8   3.880   75.4  0.1040   65.9  0.3128  -33.6
 0.820  0.2877  173.6   3.799   74.8  0.1064   65.8  0.3113  -33.7
 0.840  0.2861  172.3   3.718   74.1  0.1087   65.8  0.3098  -33.9
 0.860  0.2847  171.1   3.638   73.4  0.1111   65.7  0.3082  -34.0
 0.880  0.2834  169.8   3.558   72.7  0.1134   65.7  0.3067  -34.2
 0.900  0.2822  168.5   3.479   71.9  0.1158   65.6  0.3052  -34.3
 0.920  0.2843  167.5   3.414   71.3  0.1181   65.5  0.3041  -34.5
 0.940  0.2865  166.5   3.350   70.7  0.1204   65.4  0.3030  -34.7
 0.960  0.2888  165.5   3.286   70.1  0.1227   65.3  0.3019  -34.9
 0.980  0.2912  164.5   3.222   69.4  0.1250   65.2  0.3008  -35.1
 1.000  0.2936  163.6   3.159   68.7  0.1273   65.1  0.2997  -35.3
 1.020  0.2945  162.5   3.106   68.1  0.1297   64.9  0.2986  -35.6
 1.040  0.2956  161.4   3.053   67.5  0.1320   64.8  0.2975  -35.9
 1.060  0.2968  160.3   3.001   66.8  0.1344   64.6  0.2964  -36.3
 1.080  0.2980  159.2   2.949   66.2  0.1367   64.4  0.2953  -36.6
 1.100  0.2994  158.1   2.898   65.5  0.1391   64.3  0.2942  -36.9
 1.120  0.3009  157.2   2.854   64.9  0.1414   64.1  0.2929  -37.2
 1.140  0.3024  156.3   2.810   64.3  0.1436   64.0  0.2915  -37.4
 1.160  0.3040  155.4   2.766   63.6  0.1459   63.8  0.2902  -37.7
 1.180  0.3057  154.6   2.723   63.0  0.1481   63.7  0.2889  -37.9
 1.200  0.3075  153.7   2.680   62.3  0.1504   63.5  0.2876  -38.2
 1.220  0.3083  152.9   2.640   61.8  0.1528   63.3  0.2867  -38.5
 1.240  0.3091  152.0   2.600   61.2  0.1552   63.0  0.2857  -38.8
 1.260  0.3101  151.2   2.560   60.6  0.1575   62.8  0.2848  -39.2
 1.280  0.3111  150.4   2.520   60.0  0.1599   62.6  0.2839  -39.5
 1.300  0.3121  149.6   2.481   59.4  0.1623   62.4  0.2830  -39.8
 1.320  0.3133  148.7   2.448   58.9  0.1645   62.2  0.2821  -40.2
 1.340  0.3147  147.7   2.415   58.4  0.1667   62.0  0.2812  -40.6
 1.360  0.3161  146.8   2.383   57.8  0.1690   61.8  0.2803  -40.9
 1.380  0.3175  145.9   2.350   57.3  0.1712   61.6  0.2795  -41.3
 1.400  0.3191  145.0   2.318   56.7  0.1734   61.4  0.2786  -41.7
 1.420  0.3187  144.4   2.293   56.2  0.1757   61.2  0.2776  -42.1
 1.440  0.3183  143.8   2.268   55.6  0.1780   60.9  0.2765  -42.5
 1.460  0.3179  143.3   2.244   55.1  0.1802   60.7  0.2755  -42.8
 1.480  0.3176  142.7   2.219   54.5  0.1825   60.5  0.2745  -43.2
 1.500  0.3173  142.1   2.195   53.9  0.1848   60.3  0.2735  -43.6
 1.520  0.3207  141.4   2.168   53.3  0.1870   60.1  0.2721  -44.0
 1.540  0.3242  140.7   2.140   52.7  0.1893   59.8  0.2707  -44.4
 1.560  0.3278  140.0   2.113   52.1  0.1915   59.6  0.2693  -44.8
 1.580  0.3314  139.3   2.086   51.5  0.1938   59.4  0.2679  -45.2
 1.600  0.3350  138.6   2.060   50.8  0.1960   59.2  0.2665  -45.6
 1.620  0.3360  137.8   2.039   50.3  0.1982   59.0  0.2653  -46.0
 1.640  0.3370  137.0   2.019   49.8  0.2005   58.7  0.2640  -46.4
 1.660  0.3381  136.2   1.999   49.3  0.2027   58.5  0.2628  -46.8
 1.680  0.3392  135.5   1.979   48.7  0.2050   58.3  0.2616  -47.2
 1.700  0.3404  134.7   1.959   48.2  0.2072   58.1  0.2604  -47.6
 1.720  0.3422  134.0   1.942   47.7  0.2095   57.8  0.2596  -48.1
 1.740  0.3440  133.4   1.925   47.3  0.2117   57.5  0.2589  -48.6
 1.760  0.3459  132.8   1.908   46.8  0.2140   57.2  0.2581  -49.1
 1.780  0.3478  132.1   1.891   46.3  0.2163   57.0  0.2574  -49.6
 1.800  0.3497  131.5   1.874   45.8  0.2186   56.7  0.2567  -50.1
 1.820  0.3517  131.0   1.857   45.3  0.2208   56.5  0.2553  -50.6
 1.840  0.3537  130.5   1.841   44.7  0.2230   56.2  0.2538  -51.2
 1.860  0.3557  130.0   1.824   44.2  0.2253   56.0  0.2524  -51.7
 1.880  0.3578  129.5   1.808   43.7  0.2275   55.8  0.2511  -52.2
 1.900  0.3599  129.0   1.792   43.1  0.2297   55.6  0.2497  -52.8
 1.920  0.3613  128.3   1.775   42.6  0.2319   55.3  0.2481  -53.3
 1.940  0.3627  127.6   1.759   42.1  0.2341   55.1  0.2465  -53.8
 1.960  0.3642  126.9   1.742   41.6  0.2363   54.8  0.2449  -54.3
 1.980  0.3657  126.2   1.726   41.0  0.2385   54.6  0.2433  -54.8
 2.000  0.3673  125.5   1.710   40.5  0.2407   54.3  0.2418  -55.3
 2.020  0.3690  125.0   1.696   40.0  0.2429   54.0  0.2403  -55.8
 2.040  0.3707  124.5   1.683   39.6  0.2450   53.8  0.2388  -56.4
 2.060  0.3725  123.9   1.669   39.1  0.2472   53.5  0.2374  -56.9
 2.080  0.3742  123.4   1.656   38.6  0.2494   53.2  0.2360  -57.5
 2.100  0.3760  122.9   1.643   38.1  0.2515   53.0  0.2346  -58.1
 2.120  0.3779  122.4   1.630   37.7  0.2537   52.7  0.2332  -58.6
 2.140  0.3797  121.9   1.617   37.2  0.2559   52.5  0.2318  -59.2
 2.160  0.3816  121.5   1.604   36.6  0.2581   52.3  0.2305  -59.8
 2.180  0.3836  121.0   1.592   36.1  0.2603   52.0  0.2292  -60.4
 2.200  0.3855  120.5   1.579   35.6  0.2625   51.8  0.2279  -61.0
 2.220  0.3875  119.9   1.569   35.1  0.2646   51.5  0.2261  -61.6
 2.240  0.3895  119.4   1.558   34.7  0.2668   51.2  0.2242  -62.2
 2.260  0.3916  118.8   1.548   34.2  0.2689   50.9  0.2224  -62.8
 2.280  0.3937  118.3   1.538   33.7  0.2711   50.7  0.2207  -63.4
 2.300  0.3958  117.8   1.528   33.2  0.2733   50.4  0.2189  -64.1
 2.320  0.3980  117.3   1.518   32.7  0.2754   50.1  0.2172  -64.7
 2.340  0.4002  116.7   1.509   32.2  0.2776   49.9  0.2155  -65.4
 2.360  0.4024  116.2   1.499   31.7  0.2798   49.6  0.2138  -66.0
 2.380  0.4047  115.7   1.489   31.2  0.2820   49.4  0.2122  -66.7
 2.400  0.4070  115.2   1.480   30.7  0.2842   49.1  0.2106  -67.4
 2.420  0.4093  114.7   1.470   30.3  0.2862   48.8  0.2089  -68.1
 2.440  0.4116  114.2   1.461   29.9  0.2883   48.6  0.2073  -68.8
 2.460  0.4139  113.7   1.451   29.4  0.2903   48.3  0.2057  -69.6
 2.480  0.4162  113.2   1.441   29.0  0.2924   48.0  0.2042  -70.3
 2.500  0.4186  112.7   1.432   28.6  0.2944   47.8  0.2026  -71.1
 2.520  0.4210  112.2   1.423   28.1  0.2965   47.5  0.2012  -71.9
 2.540  0.4235  111.7   1.413   27.7  0.2986   47.2  0.1997  -72.7
 2.560  0.4260  111.2   1.404   27.2  0.3006   47.0  0.1983  -73.5
 2.580  0.4285  110.8   1.395   26.8  0.3027   46.7  0.1969  -74.3
 2.600  0.4310  110.3   1.386   26.3  0.3048   46.5  0.1956  -75.1
 2.620  0.4331  109.8   1.378   25.9  0.3068   46.2  0.1936  -75.9
 2.640  0.4352  109.4   1.370   25.5  0.3089   45.9  0.1917  -76.8
 2.660  0.4373  108.9   1.363   25.0  0.3109   45.7  0.1898  -77.6
 2.680  0.4395  108.5   1.355   24.6  0.3130   45.4  0.1879  -78.5
 2.700  0.4417  108.0   1.348   24.2  0.3151   45.1  0.1861  -79.4
 2.720  0.4439  107.6   1.340   23.7  0.3171   44.8  0.1844  -80.3
 2.740  0.4461  107.2   1.333   23.3  0.3192   44.6  0.1826  -81.2
 2.760  0.4484  106.7   1.325   22.8  0.3213   44.3  0.1810  -82.2
 2.780  0.4507  106.3   1.318   22.4  0.3234   44.1  0.1794  -83.1
 2.800  0.4530  105.9   1.311   21.9  0.3255   43.8  0.1778  -84.1
 2.820  0.4549  105.5   1.303   21.5  0.3274   43.5  0.1762  -85.1
 2.840  0.4569  105.2   1.296   21.1  0.3294   43.2  0.1746  -86.1
 2.860  0.4589  104.8   1.288   20.7  0.3313   42.9  0.1731  -87.2
 2.880  0.4609  104.4   1.281   20.2  0.3333   42.6  0.1717  -88.3
 2.900  0.4629  104.1   1.273   19.8  0.3353   42.3  0.1703  -89.3
 2.920  0.4649  103.7   1.266   19.4  0.3373   42.0  0.1690  -90.4
 2.940  0.4669  103.3   1.258   18.9  0.3393   41.7  0.1678  -91.6
 2.960  0.4690  103.0   1.251   18.5  0.3413   41.4  0.1666  -92.7
 2.980  0.4711  102.6   1.244   18.1  0.3433   41.1  0.1655  -93.8
 3.000  0.4732  102.3   1.237   17.6  0.3453   40.8  0.1644  -95.0
 3.100  0.4846  100.4   1.205   15.8  0.3537   39.2  0.1555 -101.2
 3.200  0.4966   98.6   1.174   14.0  0.3623   37.8  0.1487 -108.1
 3.300  0.5090   96.8   1.145   12.0  0.3712   36.3  0.1442 -115.5
 3.400  0.5218   95.2   1.117   10.0  0.3803   35.0  0.1422 -123.3
 3.500  0.5351   93.6   1.090    7.8  0.3896   33.7  0.1429 -131.1
 3.600  0.5434   92.0   1.065    6.3  0.3972   32.2  0.1422 -139.3
 3.700  0.5521   90.5   1.041    4.7  0.4051   30.8  0.1443 -147.5
 3.800  0.5612   89.0   1.018    3.0  0.4132   29.5  0.1493 -155.3
 3.900  0.5706   87.6   0.996    1.3  0.4216   28.2  0.1569 -162.4
 4.000  0.5804   86.2   0.975   -0.5  0.4301   26.9  0.1666 -168.8
 4.100  0.5884   84.8   0.956   -1.9  0.4367   25.4  0.1730 -175.2
 4.200  0.5967   83.4   0.937   -3.3  0.4436   23.9  0.1813  178.9
 4.300  0.6054   82.1   0.919   -4.8  0.4508   22.5  0.1914  173.6
 4.400  0.6143   80.8   0.902   -6.3  0.4583   21.1  0.2030  168.8
 4.500  0.6236   79.6   0.885   -7.9  0.4660   19.8  0.2158  164.6
 4.600  0.6291   78.5   0.870   -9.2  0.4712   18.4  0.2249  160.2
 4.700  0.6349   77.3   0.856  -10.4  0.4767   16.9  0.2351  156.2
 4.800  0.6409   76.2   0.842  -11.8  0.4825   15.6  0.2464  152.5
 4.900  0.6471   75.2   0.829  -13.2  0.4886   14.2  0.2587  149.2
 5.000  0.6536   74.1   0.816  -14.6  0.4949   12.9  0.2717  146.2
 5.100  0.6598   72.9   0.797  -15.6  0.4958   11.4  0.2752  142.3
 5.200  0.6662   71.6   0.778  -16.7  0.4970   10.0  0.2800  138.5
 5.300  0.6730   70.4   0.759  -17.9  0.4986    8.5  0.2859  134.8
 5.400  0.6801   69.3   0.740  -19.0  0.5004    7.0  0.2930  131.3
 5.500  0.6874   68.1   0.722  -20.3  0.5026    5.6  0.3011  128.0
 5.600  0.6864   67.1   0.717  -20.7  0.5102    4.7  0.3168  128.1
 5.700  0.6856   66.1   0.713  -21.1  0.5178    3.9  0.3324  128.2
 5.800  0.6850   65.2   0.708  -21.5  0.5256    3.1  0.3481  128.3
 5.900  0.6846   64.2   0.704  -21.9  0.5335    2.3  0.3637  128.4
 6.000  0.6844   63.2   0.699  -22.3  0.5415    1.5  0.3794  128.5
!
!  f       NFmin   Gammaopt  rn/50
! GHz       dB    MAG  ANG    -
!
! noise parameter not available yet for this operation point!
!
! (c) 2015  Infineon Technologies AG, Munich
