! Infineon Technologies  Discrete & RF Semiconductors
! BFR35AP
! VCE =  2.5 V,  IC =  7.0 mA
! Common Emitter S-Parameters:                            Nov 2015
# GHz  S  MA  R  50
!  f         S11            S21            S12            S22
! GHz     MAG   ANG      MAG   ANG      MAG   ANG      MAG   ANG
 0.010  0.7658   -4.4  18.061  176.6  0.0028   90.5  0.9871   -2.1
 0.015  0.7619   -6.6  18.089  174.7  0.0042   86.8  0.9826   -3.2
 0.020  0.7592   -8.9  18.137  172.8  0.0056   85.0  0.9785   -4.3
 0.025  0.7537  -10.9  18.027  171.2  0.0071   83.3  0.9735   -5.3
 0.030  0.7492  -13.0  17.932  169.6  0.0085   82.2  0.9687   -6.4
 0.035  0.7456  -15.1  17.851  167.9  0.0100   81.5  0.9643   -7.4
 0.040  0.7430  -17.2  17.785  166.3  0.0115   80.9  0.9603   -8.5
 0.045  0.7415  -19.3  17.734  164.6  0.0129   80.5  0.9565   -9.5
 0.050  0.7409  -21.4  17.698  162.9  0.0144   80.1  0.9531  -10.6
 0.055  0.7300  -23.1  17.478  161.6  0.0156   78.5  0.9447  -11.4
 0.060  0.7199  -24.9  17.268  160.2  0.0168   77.2  0.9366  -12.2
 0.065  0.7105  -26.8  17.067  158.8  0.0180   76.0  0.9286  -13.0
 0.070  0.7018  -28.7  16.877  157.4  0.0193   75.0  0.9208  -13.9
 0.075  0.6939  -30.6  16.698  155.9  0.0205   74.1  0.9132  -14.7
 0.080  0.6868  -32.6  16.530  154.4  0.0217   73.3  0.9058  -15.6
 0.085  0.6806  -34.6  16.373  152.9  0.0230   72.5  0.8987  -16.5
 0.090  0.6753  -36.7  16.228  151.4  0.0242   71.9  0.8917  -17.4
 0.095  0.6708  -38.8  16.095  149.8  0.0255   71.3  0.8850  -18.3
 0.100  0.6672  -40.9  15.974  148.2  0.0267   70.8  0.8785  -19.2
 0.105  0.6567  -42.4  15.753  147.0  0.0276   70.0  0.8692  -19.8
 0.110  0.6466  -43.9  15.538  145.8  0.0285   69.3  0.8600  -20.3
 0.115  0.6370  -45.4  15.331  144.6  0.0294   68.6  0.8508  -20.9
 0.120  0.6279  -47.0  15.131  143.4  0.0303   68.0  0.8418  -21.5
 0.125  0.6193  -48.7  14.938  142.1  0.0313   67.4  0.8328  -22.1
 0.130  0.6113  -50.4  14.753  140.7  0.0322   66.8  0.8240  -22.7
 0.135  0.6038  -52.1  14.576  139.4  0.0331   66.2  0.8152  -23.3
 0.140  0.5968  -53.9  14.407  138.0  0.0340   65.7  0.8065  -24.0
 0.145  0.5904  -55.7  14.248  136.6  0.0350   65.3  0.7980  -24.6
 0.150  0.5847  -57.6  14.097  135.1  0.0359   64.8  0.7895  -25.3
 0.155  0.5768  -58.8  13.899  134.3  0.0366   64.4  0.7816  -25.6
 0.160  0.5692  -60.1  13.705  133.5  0.0373   64.0  0.7737  -26.0
 0.165  0.5618  -61.4  13.513  132.6  0.0380   63.7  0.7658  -26.3
 0.170  0.5548  -62.8  13.324  131.8  0.0386   63.3  0.7580  -26.7
 0.175  0.5481  -64.1  13.138  130.9  0.0393   63.0  0.7502  -27.1
 0.180  0.5417  -65.5  12.956  129.9  0.0400   62.6  0.7424  -27.4
 0.185  0.5356  -67.0  12.777  129.0  0.0407   62.3  0.7347  -27.8
 0.190  0.5299  -68.5  12.601  128.0  0.0414   62.0  0.7270  -28.2
 0.195  0.5245  -70.0  12.430  127.0  0.0421   61.7  0.7193  -28.6
 0.200  0.5195  -71.5  12.262  126.0  0.0428   61.4  0.7117  -29.0
 0.220  0.4952  -75.9  11.602  123.2  0.0452   60.5  0.6863  -29.8
 0.240  0.4741  -80.8  10.974  120.0  0.0475   59.8  0.6611  -30.6
 0.260  0.4535  -85.4  10.413  117.2  0.0497   59.2  0.6384  -31.3
 0.280  0.4324  -89.6   9.904  114.8  0.0518   58.7  0.6182  -31.7
 0.300  0.4139  -94.2   9.414  112.1  0.0539   58.3  0.5981  -32.1
 0.320  0.3980  -97.2   9.024  110.7  0.0557   58.2  0.5838  -32.2
 0.340  0.3833 -100.4   8.640  109.1  0.0575   58.1  0.5695  -32.4
 0.360  0.3698 -103.8   8.263  107.4  0.0592   58.0  0.5552  -32.5
 0.380  0.3578 -107.5   7.894  105.5  0.0610   58.0  0.5409  -32.6
 0.400  0.3473 -111.4   7.534  103.5  0.0628   57.9  0.5266  -32.8
 0.420  0.3382 -113.9   7.255  102.3  0.0645   58.1  0.5177  -32.8
 0.440  0.3299 -116.6   6.979  100.9  0.0663   58.2  0.5089  -32.8
 0.450  0.3259 -117.9   6.843  100.2  0.0671   58.3  0.5044  -32.8
 0.460  0.3222 -119.4   6.708   99.5  0.0680   58.3  0.5000  -32.8
 0.480  0.3154 -122.3   6.441   97.9  0.0698   58.5  0.4912  -32.8
 0.500  0.3094 -125.3   6.180   96.2  0.0715   58.6  0.4823  -32.8
 0.520  0.3035 -127.7   5.998   95.2  0.0733   58.7  0.4768  -32.8
 0.540  0.2982 -130.3   5.817   94.1  0.0751   58.8  0.4714  -32.8
 0.560  0.2935 -132.9   5.639   93.0  0.0770   58.9  0.4659  -32.9
 0.580  0.2894 -135.6   5.463   91.8  0.0788   59.0  0.4605  -32.9
 0.600  0.2860 -138.4   5.290   90.5  0.0806   59.1  0.4550  -32.9
 0.620  0.2819 -140.6   5.151   89.6  0.0824   59.2  0.4510  -32.9
 0.640  0.2782 -142.8   5.014   88.7  0.0842   59.4  0.4470  -32.9
 0.660  0.2750 -145.1   4.877   87.7  0.0861   59.5  0.4429  -33.0
 0.680  0.2721 -147.4   4.743   86.6  0.0879   59.6  0.4389  -33.0
 0.700  0.2698 -149.8   4.610   85.5  0.0897   59.7  0.4349  -33.0
 0.720  0.2675 -151.6   4.500   84.7  0.0916   59.8  0.4318  -33.0
 0.740  0.2654 -153.5   4.391   83.9  0.0935   59.8  0.4287  -33.1
 0.760  0.2637 -155.4   4.283   83.0  0.0954   59.9  0.4256  -33.1
 0.780  0.2622 -157.3   4.176   82.1  0.0973   59.9  0.4225  -33.2
 0.800  0.2610 -159.2   4.070   81.2  0.0992   60.0  0.4194  -33.2
 0.820  0.2588 -160.8   3.985   80.5  0.1012   60.0  0.4170  -33.3
 0.840  0.2567 -162.4   3.900   79.7  0.1031   60.1  0.4146  -33.4
 0.860  0.2549 -164.1   3.816   79.0  0.1051   60.1  0.4122  -33.5
 0.880  0.2533 -165.8   3.733   78.1  0.1070   60.2  0.4098  -33.6
 0.900  0.2519 -167.5   3.651   77.3  0.1090   60.2  0.4074  -33.7
 0.920  0.2517 -169.3   3.583   76.6  0.1109   60.2  0.4058  -33.8
 0.940  0.2518 -171.2   3.516   75.9  0.1128   60.2  0.4042  -34.0
 0.960  0.2521 -173.0   3.450   75.2  0.1146   60.3  0.4026  -34.1
 0.980  0.2527 -174.8   3.383   74.5  0.1165   60.3  0.4010  -34.3
 1.000  0.2535 -176.6   3.318   73.7  0.1184   60.3  0.3994  -34.4
 1.020  0.2536 -178.0   3.264   73.1  0.1204   60.3  0.3979  -34.7
 1.040  0.2538 -179.5   3.211   72.4  0.1224   60.2  0.3965  -34.9
 1.060  0.2542  179.1   3.158   71.7  0.1244   60.2  0.3951  -35.2
 1.080  0.2547  177.7   3.105   71.0  0.1264   60.1  0.3936  -35.4
 1.100  0.2554  176.3   3.053   70.3  0.1284   60.1  0.3922  -35.7
 1.120  0.2559  174.8   3.007   69.7  0.1303   60.1  0.3906  -35.9
 1.140  0.2566  173.4   2.962   69.0  0.1322   60.0  0.3890  -36.1
 1.160  0.2575  171.9   2.917   68.3  0.1342   60.0  0.3874  -36.3
 1.180  0.2585  170.4   2.872   67.6  0.1361   59.9  0.3858  -36.5
 1.200  0.2597  169.0   2.828   66.9  0.1380   59.9  0.3842  -36.7
 1.220  0.2594  168.0   2.786   66.3  0.1401   59.8  0.3830  -37.0
 1.240  0.2591  167.0   2.744   65.8  0.1422   59.6  0.3818  -37.2
 1.260  0.2589  165.9   2.702   65.2  0.1442   59.5  0.3806  -37.5
 1.280  0.2588  164.9   2.661   64.5  0.1463   59.4  0.3794  -37.7
 1.300  0.2588  163.9   2.620   63.9  0.1484   59.3  0.3782  -38.0
 1.320  0.2599  162.6   2.585   63.3  0.1503   59.2  0.3772  -38.3
 1.340  0.2611  161.3   2.551   62.7  0.1521   59.1  0.3763  -38.6
 1.360  0.2624  160.1   2.517   62.1  0.1540   59.1  0.3754  -38.8
 1.380  0.2639  158.8   2.483   61.5  0.1558   59.0  0.3744  -39.1
 1.400  0.2655  157.6   2.450   60.8  0.1577   58.9  0.3735  -39.4
 1.420  0.2658  156.8   2.424   60.3  0.1597   58.8  0.3722  -39.7
 1.440  0.2662  155.9   2.399   59.7  0.1617   58.7  0.3709  -40.0
 1.460  0.2667  155.1   2.373   59.2  0.1638   58.6  0.3697  -40.3
 1.480  0.2672  154.2   2.348   58.6  0.1658   58.5  0.3684  -40.6
 1.500  0.2678  153.4   2.323   58.0  0.1678   58.4  0.3672  -40.9
 1.520  0.2704  152.3   2.294   57.4  0.1698   58.3  0.3656  -41.2
 1.540  0.2731  151.3   2.265   56.8  0.1718   58.1  0.3639  -41.5
 1.560  0.2759  150.3   2.236   56.2  0.1738   58.0  0.3623  -41.9
 1.580  0.2787  149.3   2.207   55.6  0.1758   57.8  0.3607  -42.2
 1.600  0.2817  148.3   2.179   54.9  0.1778   57.7  0.3591  -42.5
 1.620  0.2825  147.3   2.156   54.4  0.1799   57.6  0.3579  -42.8
 1.640  0.2835  146.4   2.134   53.8  0.1820   57.5  0.3567  -43.1
 1.660  0.2845  145.4   2.112   53.3  0.1840   57.4  0.3556  -43.5
 1.680  0.2855  144.4   2.090   52.7  0.1861   57.3  0.3544  -43.8
 1.700  0.2867  143.5   2.068   52.1  0.1882   57.2  0.3533  -44.1
 1.720  0.2884  142.6   2.050   51.6  0.1903   57.0  0.3524  -44.5
 1.740  0.2901  141.7   2.032   51.2  0.1923   56.7  0.3516  -44.9
 1.760  0.2920  140.8   2.015   50.7  0.1944   56.5  0.3507  -45.3
 1.780  0.2938  140.0   1.997   50.2  0.1964   56.3  0.3499  -45.7
 1.800  0.2958  139.1   1.980   49.7  0.1985   56.1  0.3491  -46.1
 1.820  0.2982  138.6   1.962   49.2  0.2004   55.9  0.3478  -46.5
 1.840  0.3006  138.0   1.945   48.6  0.2024   55.8  0.3464  -46.9
 1.860  0.3031  137.5   1.928   48.0  0.2043   55.6  0.3451  -47.4
 1.880  0.3056  137.0   1.911   47.5  0.2063   55.5  0.3439  -47.8
 1.900  0.3081  136.5   1.894   46.9  0.2082   55.3  0.3426  -48.2
 1.920  0.3099  135.7   1.877   46.4  0.2102   55.1  0.3411  -48.6
 1.940  0.3118  135.0   1.860   45.9  0.2123   54.9  0.3397  -49.0
 1.960  0.3137  134.3   1.844   45.4  0.2143   54.7  0.3382  -49.4
 1.980  0.3157  133.5   1.827   44.9  0.2164   54.5  0.3368  -49.8
 2.000  0.3177  132.8   1.811   44.4  0.2184   54.3  0.3354  -50.2
 2.020  0.3190  132.1   1.796   43.9  0.2205   54.1  0.3339  -50.6
 2.040  0.3203  131.4   1.782   43.4  0.2225   53.9  0.3323  -51.0
 2.060  0.3216  130.8   1.768   43.0  0.2246   53.7  0.3308  -51.5
 2.080  0.3230  130.1   1.754   42.5  0.2267   53.5  0.3293  -51.9
 2.100  0.3245  129.4   1.740   42.0  0.2287   53.4  0.3279  -52.4
 2.120  0.3259  128.8   1.726   41.4  0.2308   53.2  0.3264  -52.8
 2.140  0.3275  128.1   1.712   40.9  0.2329   53.0  0.3250  -53.2
 2.160  0.3290  127.5   1.699   40.4  0.2349   52.8  0.3236  -53.7
 2.180  0.3306  126.8   1.685   39.8  0.2370   52.7  0.3222  -54.1
 2.200  0.3323  126.2   1.672   39.3  0.2391   52.5  0.3208  -54.6
 2.220  0.3345  125.5   1.661   38.8  0.2411   52.3  0.3191  -55.1
 2.240  0.3368  124.8   1.650   38.4  0.2431   52.1  0.3174  -55.6
 2.260  0.3392  124.2   1.639   37.9  0.2451   51.9  0.3157  -56.0
 2.280  0.3415  123.5   1.629   37.4  0.2471   51.7  0.3140  -56.5
 2.300  0.3440  122.9   1.618   36.9  0.2492   51.5  0.3124  -57.0
 2.320  0.3464  122.3   1.608   36.4  0.2512   51.3  0.3108  -57.5
 2.340  0.3489  121.6   1.597   35.9  0.2532   51.1  0.3092  -58.0
 2.360  0.3515  121.0   1.587   35.4  0.2552   50.9  0.3076  -58.6
 2.380  0.3541  120.4   1.577   34.9  0.2573   50.7  0.3061  -59.1
 2.400  0.3567  119.8   1.567   34.4  0.2593   50.5  0.3046  -59.6
 2.420  0.3592  119.2   1.557   34.0  0.2613   50.3  0.3028  -60.1
 2.440  0.3617  118.6   1.547   33.5  0.2633   50.0  0.3010  -60.7
 2.460  0.3643  118.0   1.537   33.1  0.2653   49.8  0.2993  -61.2
 2.480  0.3669  117.5   1.527   32.6  0.2673   49.5  0.2976  -61.8
 2.500  0.3695  116.9   1.517   32.2  0.2693   49.3  0.2959  -62.3
 2.520  0.3722  116.3   1.507   31.7  0.2714   49.1  0.2942  -62.9
 2.540  0.3749  115.8   1.497   31.2  0.2734   48.9  0.2926  -63.5
 2.560  0.3776  115.3   1.488   30.8  0.2754   48.6  0.2910  -64.0
 2.580  0.3804  114.7   1.478   30.3  0.2775   48.4  0.2894  -64.6
 2.600  0.3832  114.2   1.469   29.8  0.2795   48.2  0.2879  -65.2
 2.620  0.3851  113.7   1.461   29.4  0.2815   48.0  0.2860  -65.8
 2.640  0.3870  113.2   1.453   29.0  0.2835   47.7  0.2842  -66.4
 2.660  0.3890  112.7   1.445   28.6  0.2855   47.5  0.2823  -67.0
 2.680  0.3909  112.2   1.437   28.1  0.2875   47.2  0.2805  -67.6
 2.700  0.3930  111.7   1.429   27.7  0.2895   47.0  0.2788  -68.3
 2.720  0.3950  111.3   1.421   27.3  0.2915   46.8  0.2771  -68.9
 2.740  0.3971  110.8   1.414   26.8  0.2935   46.6  0.2754  -69.5
 2.760  0.3991  110.3   1.406   26.4  0.2955   46.3  0.2737  -70.2
 2.780  0.4013  109.9   1.398   26.0  0.2976   46.1  0.2721  -70.8
 2.800  0.4034  109.4   1.391   25.5  0.2996   45.9  0.2705  -71.5
 2.820  0.4056  109.0   1.383   25.1  0.3016   45.6  0.2686  -72.2
 2.840  0.4079  108.6   1.376   24.6  0.3036   45.4  0.2667  -72.9
 2.860  0.4102  108.2   1.368   24.2  0.3055   45.1  0.2648  -73.6
 2.880  0.4125  107.7   1.360   23.7  0.3075   44.9  0.2630  -74.3
 2.900  0.4148  107.3   1.353   23.3  0.3095   44.6  0.2613  -75.0
 2.920  0.4171  106.9   1.346   22.8  0.3115   44.4  0.2595  -75.8
 2.940  0.4195  106.6   1.338   22.3  0.3135   44.1  0.2579  -76.5
 2.960  0.4219  106.2   1.331   21.9  0.3156   43.9  0.2562  -77.3
 2.980  0.4243  105.8   1.324   21.4  0.3176   43.6  0.2546  -78.0
 3.000  0.4267  105.4   1.317   20.9  0.3196   43.4  0.2531  -78.8
 3.100  0.4385  103.3   1.283   19.1  0.3284   42.0  0.2421  -82.8
 3.200  0.4508  101.4   1.250   17.2  0.3375   40.6  0.2323  -87.2
 3.300  0.4636   99.5   1.218   15.3  0.3467   39.4  0.2241  -91.9
 3.400  0.4768   97.8   1.188   13.2  0.3561   38.1  0.2174  -97.0
 3.500  0.4905   96.1   1.160   11.0  0.3656   37.0  0.2126 -102.3
 3.600  0.5006   94.5   1.135    9.4  0.3740   35.6  0.2050 -108.1
 3.700  0.5110   93.0   1.110    7.7  0.3827   34.3  0.1997 -114.3
 3.800  0.5218   91.5   1.087    6.0  0.3915   33.0  0.1967 -120.7
 3.900  0.5330   90.1   1.064    4.2  0.4005   31.8  0.1963 -127.2
 4.000  0.5444   88.7   1.043    2.3  0.4097   30.7  0.1985 -133.7
 4.100  0.5535   87.3   1.022    0.8  0.4175   29.2  0.1970 -140.2
 4.200  0.5628   86.0   1.002   -0.8  0.4256   27.8  0.1980 -146.7
 4.300  0.5725   84.7   0.982   -2.4  0.4339   26.4  0.2016 -153.1
 4.400  0.5825   83.4   0.964   -4.1  0.4425   25.1  0.2075 -159.1
 4.500  0.5927   82.2   0.946   -5.9  0.4513   23.8  0.2156 -164.8
 4.600  0.5993   81.0   0.929   -7.2  0.4576   22.3  0.2195 -170.5
 4.700  0.6062   79.8   0.912   -8.6  0.4643   20.9  0.2255 -175.9
 4.800  0.6133   78.6   0.896  -10.1  0.4712   19.5  0.2333  179.1
 4.900  0.6208   77.4   0.881  -11.6  0.4784   18.1  0.2429  174.3
 5.000  0.6284   76.3   0.866  -13.1  0.4858   16.8  0.2540  170.0
 5.100  0.6357   75.0   0.845  -14.2  0.4875   15.2  0.2540  165.2
 5.200  0.6433   73.8   0.824  -15.4  0.4895   13.7  0.2558  160.4
 5.300  0.6512   72.6   0.804  -16.6  0.4919   12.1  0.2593  155.7
 5.400  0.6593   71.4   0.784  -17.9  0.4946   10.6  0.2645  151.2
 5.500  0.6678   70.2   0.765  -19.3  0.4977    9.1  0.2713  146.9
 5.600  0.6672   69.2   0.759  -19.8  0.5062    8.2  0.2895  146.1
 5.700  0.6667   68.2   0.753  -20.2  0.5149    7.4  0.3078  145.5
 5.800  0.6665   67.3   0.747  -20.7  0.5236    6.6  0.3260  144.9
 5.900  0.6664   66.3   0.742  -21.2  0.5325    5.8  0.3444  144.4
 6.000  0.6666   65.3   0.736  -21.7  0.5414    5.1  0.3627  143.9
!
!  f       NFmin   Gammaopt  rn/50
! GHz       dB    MAG  ANG    -
!
! noise parameter not available yet for this operation point!
!
! (c) 2015  Infineon Technologies AG, Munich
