! Infineon Technologies  Discrete & RF Semiconductors
! BFR35AP
! VCE =  1.0 V,  IC =  8.0 mA
! Common Emitter S-Parameters:                            Nov 2015
# GHz  S  MA  R  50
!  f         S11            S21            S12            S22
! GHz     MAG   ANG      MAG   ANG      MAG   ANG      MAG   ANG
 0.010  0.7170   -5.9  19.901  175.9  0.0037   87.5  0.9746   -3.1
 0.015  0.7136   -8.8  19.747  173.6  0.0057   85.7  0.9670   -4.6
 0.020  0.7121  -11.8  19.624  171.3  0.0077   84.8  0.9601   -6.2
 0.025  0.7043  -14.5  19.444  169.4  0.0094   82.1  0.9527   -7.6
 0.030  0.6981  -17.2  19.286  167.4  0.0111   80.2  0.9458   -9.1
 0.035  0.6935  -20.0  19.151  165.5  0.0128   78.8  0.9396  -10.6
 0.040  0.6905  -22.8  19.039  163.5  0.0145   77.8  0.9340  -12.1
 0.045  0.6892  -25.6  18.951  161.4  0.0163   77.0  0.9291  -13.6
 0.050  0.6896  -28.4  18.886  159.4  0.0180   76.3  0.9248  -15.1
 0.055  0.6758  -30.5  18.586  157.9  0.0194   74.7  0.9119  -16.1
 0.060  0.6631  -32.8  18.299  156.3  0.0208   73.2  0.8994  -17.2
 0.065  0.6513  -35.1  18.026  154.7  0.0221   72.0  0.8871  -18.3
 0.070  0.6406  -37.4  17.768  153.0  0.0236   70.9  0.8752  -19.4
 0.075  0.6311  -39.9  17.525  151.3  0.0250   69.9  0.8636  -20.6
 0.080  0.6228  -42.4  17.299  149.6  0.0264   69.0  0.8524  -21.8
 0.085  0.6157  -45.0  17.089  147.8  0.0278   68.2  0.8415  -23.0
 0.090  0.6100  -47.7  16.896  145.9  0.0292   67.5  0.8311  -24.2
 0.095  0.6055  -50.4  16.722  144.0  0.0307   66.9  0.8210  -25.5
 0.100  0.6024  -53.1  16.566  142.1  0.0321   66.3  0.8114  -26.8
 0.105  0.5917  -54.8  16.259  141.0  0.0331   65.6  0.7996  -27.4
 0.110  0.5815  -56.6  15.959  139.8  0.0341   64.9  0.7879  -28.1
 0.115  0.5720  -58.5  15.666  138.6  0.0351   64.2  0.7763  -28.8
 0.120  0.5631  -60.4  15.380  137.4  0.0361   63.6  0.7648  -29.5
 0.125  0.5548  -62.4  15.101  136.0  0.0371   63.1  0.7535  -30.2
 0.130  0.5472  -64.4  14.831  134.7  0.0381   62.5  0.7422  -30.9
 0.135  0.5403  -66.5  14.569  133.3  0.0391   62.0  0.7311  -31.7
 0.140  0.5342  -68.7  14.316  131.9  0.0401   61.5  0.7201  -32.5
 0.145  0.5288  -70.9  14.072  130.4  0.0411   61.0  0.7093  -33.3
 0.150  0.5242  -73.1  13.839  128.8  0.0421   60.6  0.6986  -34.1
 0.155  0.5170  -74.6  13.617  128.0  0.0428   60.2  0.6893  -34.5
 0.160  0.5101  -76.1  13.397  127.1  0.0435   59.9  0.6801  -34.8
 0.165  0.5035  -77.6  13.180  126.3  0.0443   59.6  0.6708  -35.2
 0.170  0.4973  -79.2  12.967  125.4  0.0450   59.2  0.6616  -35.6
 0.175  0.4916  -80.8  12.757  124.4  0.0457   58.9  0.6525  -36.1
 0.180  0.4862  -82.4  12.550  123.5  0.0465   58.6  0.6433  -36.5
 0.185  0.4812  -84.1  12.347  122.5  0.0472   58.3  0.6342  -36.9
 0.190  0.4767  -85.9  12.148  121.5  0.0479   58.0  0.6252  -37.4
 0.195  0.4726  -87.6  11.953  120.4  0.0487   57.8  0.6162  -37.8
 0.200  0.4689  -89.4  11.762  119.3  0.0494   57.5  0.6072  -38.3
 0.220  0.4458  -94.5  11.042  116.6  0.0516   56.7  0.5773  -39.2
 0.240  0.4267 -100.1  10.349  113.6  0.0538   56.0  0.5476  -40.2
 0.260  0.4114 -105.1   9.740  110.9  0.0561   55.8  0.5225  -40.9
 0.280  0.3984 -109.4   9.201  108.8  0.0586   56.0  0.5018  -41.4
 0.300  0.3877 -113.9   8.675  106.4  0.0610   56.1  0.4812  -41.9
 0.320  0.3770 -117.2   8.291  105.1  0.0630   56.1  0.4674  -42.0
 0.340  0.3677 -120.6   7.913  103.6  0.0650   56.1  0.4535  -42.2
 0.360  0.3597 -124.2   7.540  102.0  0.0670   56.0  0.4397  -42.3
 0.380  0.3532 -127.9   7.174  100.2  0.0690   56.0  0.4258  -42.4
 0.400  0.3482 -131.8   6.815   98.2  0.0710   56.0  0.4120  -42.6
 0.420  0.3426 -134.5   6.557   97.0  0.0730   56.2  0.4028  -42.6
 0.440  0.3378 -137.2   6.303   95.8  0.0750   56.5  0.3936  -42.6
 0.450  0.3357 -138.6   6.177   95.1  0.0760   56.6  0.3889  -42.6
 0.460  0.3338 -140.0   6.051   94.5  0.0770   56.7  0.3843  -42.5
 0.480  0.3306 -142.9   5.804   93.0  0.0790   56.9  0.3751  -42.5
 0.500  0.3283 -145.8   5.560   91.4  0.0810   57.1  0.3659  -42.5
 0.520  0.3251 -148.0   5.387   90.5  0.0831   57.3  0.3602  -42.5
 0.540  0.3224 -150.3   5.216   89.5  0.0852   57.5  0.3545  -42.4
 0.560  0.3202 -152.5   5.047   88.4  0.0873   57.7  0.3489  -42.4
 0.580  0.3185 -154.9   4.880   87.3  0.0894   57.8  0.3432  -42.3
 0.600  0.3173 -157.2   4.714   86.1  0.0915   58.0  0.3375  -42.3
 0.620  0.3156 -159.0   4.588   85.2  0.0937   58.1  0.3336  -42.3
 0.640  0.3143 -160.7   4.464   84.3  0.0959   58.3  0.3297  -42.3
 0.660  0.3132 -162.5   4.340   83.3  0.0981   58.4  0.3259  -42.4
 0.680  0.3125 -164.3   4.219   82.3  0.1003   58.5  0.3220  -42.4
 0.700  0.3120 -166.1   4.098   81.2  0.1025   58.6  0.3181  -42.4
 0.720  0.3112 -167.8   3.999   80.5  0.1047   58.6  0.3151  -42.5
 0.740  0.3107 -169.5   3.901   79.7  0.1070   58.6  0.3121  -42.5
 0.760  0.3104 -171.2   3.803   78.9  0.1092   58.6  0.3092  -42.6
 0.780  0.3104 -172.9   3.707   78.0  0.1115   58.6  0.3062  -42.6
 0.800  0.3107 -174.6   3.611   77.1  0.1137   58.6  0.3032  -42.7
 0.820  0.3098 -176.0   3.536   76.4  0.1160   58.6  0.3010  -42.8
 0.840  0.3090 -177.3   3.461   75.6  0.1183   58.6  0.2987  -42.9
 0.860  0.3085 -178.7   3.388   74.8  0.1206   58.6  0.2965  -43.0
 0.880  0.3081  179.9   3.314   74.0  0.1229   58.6  0.2942  -43.1
 0.900  0.3079  178.5   3.242   73.1  0.1252   58.6  0.2920  -43.2
 0.920  0.3085  177.0   3.182   72.4  0.1274   58.6  0.2901  -43.4
 0.940  0.3094  175.5   3.123   71.7  0.1296   58.6  0.2882  -43.6
 0.960  0.3105  174.0   3.065   71.0  0.1317   58.5  0.2863  -43.8
 0.980  0.3117  172.6   3.007   70.3  0.1339   58.5  0.2844  -44.0
 1.000  0.3132  171.1   2.949   69.5  0.1361   58.5  0.2825  -44.2
 1.020  0.3139  170.0   2.900   68.9  0.1384   58.4  0.2808  -44.5
 1.040  0.3148  168.9   2.852   68.2  0.1408   58.4  0.2791  -44.8
 1.060  0.3158  167.8   2.804   67.5  0.1431   58.3  0.2774  -45.1
 1.080  0.3169  166.7   2.757   66.8  0.1455   58.3  0.2758  -45.5
 1.100  0.3181  165.6   2.710   66.1  0.1478   58.2  0.2741  -45.8
 1.120  0.3192  164.5   2.669   65.4  0.1501   58.1  0.2724  -46.0
 1.140  0.3203  163.5   2.629   64.8  0.1524   58.0  0.2707  -46.3
 1.160  0.3216  162.5   2.589   64.1  0.1546   57.9  0.2690  -46.5
 1.180  0.3230  161.4   2.549   63.3  0.1569   57.8  0.2673  -46.8
 1.200  0.3245  160.4   2.510   62.6  0.1592   57.7  0.2656  -47.0
 1.220  0.3247  159.4   2.473   62.0  0.1615   57.5  0.2643  -47.3
 1.240  0.3250  158.4   2.436   61.4  0.1637   57.3  0.2629  -47.6
 1.260  0.3254  157.5   2.399   60.8  0.1660   57.1  0.2616  -47.9
 1.280  0.3258  156.5   2.363   60.2  0.1682   57.0  0.2603  -48.2
 1.300  0.3264  155.5   2.327   59.5  0.1705   56.8  0.2590  -48.5
 1.320  0.3270  154.5   2.296   59.0  0.1727   56.7  0.2579  -48.9
 1.340  0.3277  153.5   2.266   58.4  0.1750   56.6  0.2568  -49.3
 1.360  0.3285  152.5   2.236   57.8  0.1772   56.4  0.2558  -49.6
 1.380  0.3294  151.5   2.206   57.2  0.1795   56.3  0.2547  -50.0
 1.400  0.3304  150.5   2.176   56.6  0.1817   56.2  0.2537  -50.4
 1.420  0.3314  149.9   2.153   56.0  0.1840   56.0  0.2524  -50.8
 1.440  0.3323  149.3   2.131   55.4  0.1862   55.8  0.2511  -51.2
 1.460  0.3334  148.7   2.109   54.8  0.1885   55.6  0.2498  -51.6
 1.480  0.3344  148.2   2.087   54.2  0.1907   55.5  0.2485  -52.0
 1.500  0.3355  147.6   2.065   53.6  0.1930   55.3  0.2472  -52.4
 1.520  0.3380  146.6   2.040   53.0  0.1953   55.1  0.2457  -52.8
 1.540  0.3405  145.7   2.015   52.4  0.1977   54.9  0.2442  -53.3
 1.560  0.3431  144.7   1.990   51.8  0.2000   54.7  0.2427  -53.8
 1.580  0.3459  143.8   1.965   51.2  0.2024   54.5  0.2412  -54.2
 1.600  0.3487  142.9   1.941   50.5  0.2047   54.3  0.2397  -54.7
 1.620  0.3502  142.1   1.921   49.9  0.2069   54.1  0.2384  -55.1
 1.640  0.3518  141.2   1.902   49.4  0.2090   53.9  0.2372  -55.5
 1.660  0.3534  140.4   1.882   48.8  0.2112   53.7  0.2359  -55.9
 1.680  0.3551  139.6   1.863   48.2  0.2133   53.5  0.2347  -56.4
 1.700  0.3569  138.8   1.844   47.6  0.2155   53.3  0.2335  -56.8
 1.720  0.3584  138.0   1.829   47.1  0.2178   53.1  0.2325  -57.3
 1.740  0.3600  137.2   1.813   46.7  0.2201   52.9  0.2316  -57.8
 1.760  0.3617  136.4   1.798   46.2  0.2223   52.7  0.2307  -58.3
 1.780  0.3634  135.7   1.783   45.7  0.2246   52.5  0.2298  -58.9
 1.800  0.3652  134.9   1.768   45.2  0.2269   52.3  0.2289  -59.4
 1.820  0.3671  134.3   1.752   44.7  0.2292   52.1  0.2273  -60.0
 1.840  0.3690  133.7   1.736   44.1  0.2315   51.9  0.2258  -60.6
 1.860  0.3709  133.1   1.720   43.6  0.2337   51.7  0.2243  -61.2
 1.880  0.3729  132.5   1.704   43.0  0.2360   51.6  0.2228  -61.9
 1.900  0.3749  131.9   1.689   42.4  0.2383   51.4  0.2214  -62.5
 1.920  0.3766  131.3   1.674   41.9  0.2404   51.1  0.2196  -63.0
 1.940  0.3784  130.7   1.659   41.4  0.2425   50.9  0.2179  -63.6
 1.960  0.3802  130.1   1.644   40.9  0.2446   50.6  0.2162  -64.1
 1.980  0.3820  129.5   1.629   40.3  0.2468   50.4  0.2145  -64.6
 2.000  0.3839  128.9   1.614   39.8  0.2489   50.1  0.2128  -65.2
 2.020  0.3850  128.3   1.601   39.3  0.2511   49.9  0.2115  -65.8
 2.040  0.3862  127.7   1.589   38.8  0.2533   49.6  0.2101  -66.4
 2.060  0.3873  127.1   1.576   38.3  0.2555   49.4  0.2088  -67.1
 2.080  0.3886  126.5   1.564   37.8  0.2578   49.1  0.2076  -67.7
 2.100  0.3899  126.0   1.552   37.3  0.2600   48.9  0.2063  -68.4
 2.120  0.3912  125.4   1.540   36.8  0.2622   48.7  0.2051  -69.0
 2.140  0.3925  124.8   1.528   36.2  0.2645   48.4  0.2039  -69.7
 2.160  0.3939  124.2   1.516   35.7  0.2667   48.2  0.2027  -70.3
 2.180  0.3953  123.7   1.505   35.2  0.2690   48.0  0.2016  -71.0
 2.200  0.3968  123.1   1.493   34.6  0.2712   47.8  0.2005  -71.7
 2.220  0.3992  122.5   1.484   34.1  0.2733   47.5  0.1986  -72.4
 2.240  0.4016  121.8   1.474   33.6  0.2755   47.3  0.1966  -73.2
 2.260  0.4040  121.2   1.465   33.1  0.2776   47.0  0.1948  -73.9
 2.280  0.4065  120.6   1.456   32.6  0.2797   46.8  0.1929  -74.7
 2.300  0.4091  120.0   1.447   32.1  0.2819   46.5  0.1911  -75.5
 2.320  0.4117  119.3   1.438   31.6  0.2840   46.3  0.1893  -76.3
 2.340  0.4143  118.7   1.429   31.1  0.2862   46.0  0.1876  -77.1
 2.360  0.4170  118.2   1.421   30.6  0.2884   45.8  0.1859  -77.9
 2.380  0.4197  117.6   1.412   30.0  0.2905   45.5  0.1842  -78.7
 2.400  0.4225  117.0   1.404   29.5  0.2927   45.3  0.1826  -79.6
 2.420  0.4245  116.5   1.395   29.1  0.2947   45.0  0.1812  -80.4
 2.440  0.4266  115.9   1.385   28.6  0.2967   44.8  0.1798  -81.3
 2.460  0.4288  115.4   1.376   28.2  0.2988   44.5  0.1784  -82.2
 2.480  0.4309  114.9   1.367   27.7  0.3008   44.2  0.1771  -83.0
 2.500  0.4331  114.3   1.357   27.3  0.3029   44.0  0.1758  -83.9
 2.520  0.4353  113.8   1.348   26.8  0.3049   43.7  0.1746  -84.8
 2.540  0.4376  113.3   1.339   26.3  0.3070   43.4  0.1734  -85.8
 2.560  0.4399  112.8   1.330   25.9  0.3091   43.2  0.1722  -86.7
 2.580  0.4422  112.3   1.322   25.4  0.3111   42.9  0.1711  -87.6
 2.600  0.4446  111.8   1.313   24.9  0.3132   42.7  0.1701  -88.6
 2.620  0.4463  111.3   1.306   24.5  0.3152   42.4  0.1683  -89.7
 2.640  0.4481  110.8   1.299   24.1  0.3172   42.1  0.1666  -90.7
 2.660  0.4499  110.3   1.292   23.7  0.3193   41.9  0.1650  -91.8
 2.680  0.4517  109.9   1.285   23.3  0.3213   41.6  0.1634  -92.9
 2.700  0.4536  109.4   1.278   22.9  0.3234   41.3  0.1619  -94.1
 2.720  0.4555  108.9   1.271   22.4  0.3254   41.0  0.1604  -95.2
 2.740  0.4574  108.5   1.265   22.0  0.3275   40.8  0.1590  -96.4
 2.760  0.4593  108.0   1.258   21.6  0.3295   40.5  0.1577  -97.6
 2.780  0.4613  107.6   1.251   21.1  0.3316   40.3  0.1565  -98.9
 2.800  0.4633  107.1   1.245   20.7  0.3337   40.0  0.1553 -100.1
 2.820  0.4656  106.7   1.238   20.3  0.3356   39.7  0.1542 -101.3
 2.840  0.4679  106.3   1.231   19.8  0.3375   39.4  0.1532 -102.6
 2.860  0.4702  105.9   1.224   19.4  0.3395   39.1  0.1522 -103.8
 2.880  0.4726  105.5   1.217   19.0  0.3414   38.8  0.1513 -105.1
 2.900  0.4749  105.1   1.210   18.5  0.3433   38.6  0.1505 -106.4
 2.920  0.4773  104.7   1.203   18.1  0.3453   38.3  0.1498 -107.7
 2.940  0.4797  104.3   1.197   17.6  0.3473   38.0  0.1491 -109.0
 2.960  0.4822  103.9   1.190   17.1  0.3492   37.7  0.1485 -110.3
 2.980  0.4846  103.6   1.183   16.7  0.3512   37.5  0.1480 -111.7
 3.000  0.4871  103.2   1.177   16.2  0.3532   37.2  0.1476 -113.0
 3.100  0.4978  101.2   1.146   14.5  0.3613   35.7  0.1424 -120.5
 3.200  0.5091   99.3   1.117   12.7  0.3696   34.2  0.1397 -128.3
 3.300  0.5209   97.4   1.089   10.7  0.3782   32.8  0.1397 -136.4
 3.400  0.5333   95.7   1.062    8.7  0.3870   31.5  0.1425 -144.3
 3.500  0.5461   94.0   1.036    6.6  0.3960   30.2  0.1478 -151.7
 3.600  0.5538   92.3   1.013    5.1  0.4032   28.7  0.1517 -159.4
 3.700  0.5620   90.7   0.991    3.5  0.4107   27.3  0.1582 -166.6
 3.800  0.5706   89.2   0.970    1.8  0.4183   26.0  0.1669 -173.1
 3.900  0.5797   87.7   0.950    0.0  0.4263   24.7  0.1776 -178.9
 4.000  0.5891   86.2   0.931   -1.8  0.4344   23.4  0.1899  176.0
 4.100  0.5969   84.7   0.913   -3.2  0.4405   21.9  0.1988  170.7
 4.200  0.6050   83.3   0.896   -4.6  0.4470   20.5  0.2092  166.0
 4.300  0.6135   81.9   0.879   -6.0  0.4537   19.1  0.2209  161.7
 4.400  0.6224   80.6   0.863   -7.5  0.4606   17.8  0.2337  157.8
 4.500  0.6316   79.3   0.848   -9.1  0.4678   16.5  0.2475  154.4
 4.600  0.6362   78.1   0.833  -10.3  0.4725   15.1  0.2572  150.8
 4.700  0.6411   77.0   0.819  -11.5  0.4775   13.7  0.2678  147.4
 4.800  0.6462   75.9   0.805  -12.8  0.4828   12.3  0.2793  144.3
 4.900  0.6515   74.8   0.792  -14.1  0.4884   11.0  0.2915  141.5
 5.000  0.6571   73.7   0.779  -15.5  0.4942    9.7  0.3044  138.9
 5.100  0.6636   72.5   0.761  -16.5  0.4947    8.3  0.3081  135.4
 5.200  0.6703   71.4   0.743  -17.5  0.4956    6.9  0.3130  132.0
 5.300  0.6773   70.3   0.725  -18.6  0.4967    5.5  0.3189  128.7
 5.400  0.6845   69.2   0.708  -19.8  0.4981    4.2  0.3258  125.5
 5.500  0.6920   68.1   0.691  -21.0  0.4998    2.8  0.3337  122.5
 5.600  0.6908   67.1   0.688  -21.3  0.5070    2.0  0.3485  122.7
 5.700  0.6898   66.1   0.684  -21.7  0.5143    1.2  0.3633  122.9
 5.800  0.6891   65.2   0.681  -22.0  0.5217    0.4  0.3780  123.0
 5.900  0.6885   64.2   0.677  -22.4  0.5292   -0.4  0.3928  123.2
 6.000  0.6881   63.2   0.674  -22.7  0.5368   -1.1  0.4076  123.3
!
!  f       NFmin   Gammaopt  rn/50
! GHz       dB    MAG  ANG    -
!
! noise parameter not available yet for this operation point!
!
! (c) 2015  Infineon Technologies AG, Munich
