! Infineon Technologies  Discrete & RF Semiconductors
! BFR340F
! VCE =  5.0 V,  IC =  10 mA
! Common Emitter S-Parameters:                            Nov 2015
# GHz  S  MA  R  50
!  f         S11            S21            S12            S22
! GHz     MAG   ANG      MAG   ANG      MAG   ANG      MAG   ANG
 0.030  0.8154   -4.3  18.313  175.9  0.0034   86.8  0.9830   -2.1
 0.035  0.8158   -5.1  18.275  175.3  0.0040   86.6  0.9827   -2.4
 0.040  0.8163   -5.9  18.239  174.6  0.0046   86.4  0.9824   -2.8
 0.045  0.8142   -6.6  18.177  173.9  0.0052   86.4  0.9820   -3.2
 0.050  0.8123   -7.3  18.119  173.1  0.0057   86.4  0.9817   -3.7
 0.055  0.8142   -8.1  18.095  172.7  0.0063   86.2  0.9816   -4.1
 0.060  0.8163   -8.8  18.071  172.3  0.0069   86.0  0.9816   -4.5
 0.065  0.8117   -9.6  18.118  171.6  0.0075   85.2  0.9807   -4.9
 0.070  0.8072  -10.4  18.167  171.0  0.0081   84.5  0.9798   -5.4
 0.075  0.8083  -11.2  18.117  170.6  0.0086   84.1  0.9787   -5.8
 0.080  0.8096  -12.0  18.067  170.2  0.0091   83.8  0.9777   -6.2
 0.085  0.8081  -12.7  18.048  169.6  0.0097   83.4  0.9762   -6.6
 0.090  0.8068  -13.5  18.030  169.0  0.0103   83.1  0.9748   -7.0
 0.095  0.8059  -14.1  17.951  168.5  0.0108   82.6  0.9734   -7.4
 0.100  0.8051  -14.7  17.873  167.9  0.0114   82.1  0.9720   -7.8
 0.105  0.8033  -15.4  17.861  167.4  0.0118   81.6  0.9702   -8.2
 0.110  0.8016  -16.1  17.851  166.8  0.0123   81.1  0.9684   -8.6
 0.115  0.7992  -16.9  17.834  166.2  0.0129   81.1  0.9667   -8.9
 0.120  0.7970  -17.7  17.819  165.6  0.0134   81.1  0.9650   -9.3
 0.125  0.7954  -18.3  17.774  165.1  0.0139   80.7  0.9630   -9.7
 0.130  0.7939  -19.0  17.730  164.6  0.0145   80.3  0.9610  -10.1
 0.135  0.7912  -19.7  17.709  164.0  0.0150   80.0  0.9590  -10.4
 0.140  0.7887  -20.5  17.690  163.3  0.0156   79.7  0.9570  -10.8
 0.145  0.7869  -21.2  17.619  162.7  0.0161   79.3  0.9548  -11.1
 0.150  0.7853  -21.9  17.550  162.1  0.0166   79.0  0.9527  -11.5
 0.155  0.7824  -22.6  17.496  161.6  0.0171   78.6  0.9501  -11.8
 0.160  0.7797  -23.3  17.444  161.0  0.0176   78.2  0.9475  -12.2
 0.165  0.7771  -24.0  17.393  160.5  0.0181   77.9  0.9449  -12.5
 0.170  0.7746  -24.6  17.344  160.0  0.0186   77.6  0.9424  -12.9
 0.175  0.7722  -25.3  17.296  159.4  0.0191   77.2  0.9399  -13.2
 0.180  0.7699  -26.0  17.250  158.9  0.0196   77.0  0.9375  -13.6
 0.185  0.7677  -26.8  17.205  158.4  0.0201   76.7  0.9350  -13.9
 0.190  0.7656  -27.5  17.162  157.8  0.0206   76.4  0.9327  -14.3
 0.195  0.7637  -28.2  17.120  157.3  0.0211   76.1  0.9303  -14.6
 0.200  0.7619  -28.9  17.080  156.7  0.0216   75.9  0.9280  -15.0
 0.220  0.7496  -31.4  16.826  154.7  0.0234   74.6  0.9164  -16.3
 0.240  0.7389  -34.1  16.594  152.6  0.0253   73.5  0.9053  -17.5
 0.260  0.7278  -36.6  16.342  150.6  0.0270   72.4  0.8935  -18.7
 0.280  0.7161  -39.0  16.067  148.7  0.0287   71.4  0.8810  -19.8
 0.300  0.7058  -41.5  15.810  146.7  0.0303   70.5  0.8688  -20.9
 0.320  0.6930  -43.8  15.522  144.9  0.0318   69.6  0.8559  -21.9
 0.340  0.6812  -46.1  15.249  143.1  0.0333   68.8  0.8433  -22.9
 0.360  0.6695  -48.3  14.972  141.4  0.0348   68.0  0.8308  -23.8
 0.380  0.6575  -50.4  14.687  139.8  0.0361   67.3  0.8182  -24.6
 0.400  0.6464  -52.6  14.414  138.1  0.0375   66.6  0.8058  -25.4
 0.420  0.6339  -54.6  14.134  136.6  0.0388   66.0  0.7936  -26.1
 0.440  0.6222  -56.6  13.863  135.1  0.0401   65.4  0.7815  -26.9
 0.450  0.6167  -57.7  13.732  134.3  0.0407   65.1  0.7755  -27.3
 0.460  0.6106  -58.6  13.597  133.6  0.0413   64.8  0.7696  -27.6
 0.480  0.5988  -60.5  13.333  132.3  0.0424   64.2  0.7577  -28.2
 0.500  0.5877  -62.5  13.076  130.9  0.0435   63.7  0.7460  -28.9
 0.520  0.5763  -64.1  12.822  129.7  0.0445   63.3  0.7353  -29.4
 0.540  0.5654  -65.9  12.573  128.5  0.0455   62.8  0.7246  -29.9
 0.560  0.5550  -67.6  12.330  127.3  0.0465   62.4  0.7140  -30.4
 0.580  0.5452  -69.5  12.093  126.0  0.0475   62.1  0.7034  -30.9
 0.600  0.5360  -71.4  11.863  124.6  0.0485   61.7  0.6929  -31.4
 0.620  0.5263  -72.9  11.641  123.6  0.0494   61.4  0.6836  -31.7
 0.640  0.5169  -74.4  11.422  122.6  0.0503   61.2  0.6744  -32.1
 0.660  0.5079  -75.9  11.206  121.6  0.0513   61.0  0.6652  -32.5
 0.680  0.4992  -77.5  10.995  120.5  0.0522   60.7  0.6560  -32.8
 0.700  0.4910  -79.2  10.787  119.4  0.0531   60.5  0.6468  -33.2
 0.720  0.4829  -80.5  10.593  118.6  0.0539   60.4  0.6390  -33.4
 0.740  0.4750  -81.9  10.402  117.7  0.0547   60.2  0.6312  -33.7
 0.760  0.4674  -83.4  10.213  116.9  0.0555   60.1  0.6235  -34.0
 0.780  0.4602  -84.9  10.027  115.9  0.0563   59.9  0.6157  -34.2
 0.800  0.4532  -86.4   9.843  115.0  0.0571   59.8  0.6080  -34.5
 0.820  0.4462  -87.7   9.680  114.3  0.0578   59.7  0.6013  -34.7
 0.840  0.4394  -89.0   9.519  113.5  0.0586   59.6  0.5947  -34.8
 0.860  0.4329  -90.3   9.359  112.7  0.0593   59.6  0.5880  -35.0
 0.880  0.4266  -91.7   9.201  111.9  0.0601   59.5  0.5813  -35.2
 0.900  0.4206  -93.1   9.045  111.1  0.0608   59.4  0.5747  -35.4
 0.920  0.4148  -94.3   8.903  110.5  0.0615   59.4  0.5691  -35.5
 0.940  0.4091  -95.5   8.761  109.8  0.0623   59.4  0.5635  -35.7
 0.960  0.4036  -96.7   8.621  109.1  0.0630   59.3  0.5579  -35.8
 0.980  0.3984  -98.0   8.482  108.4  0.0638   59.3  0.5524  -36.0
 1.000  0.3933  -99.3   8.345  107.7  0.0645   59.3  0.5468  -36.1
 1.020  0.3885 -100.3   8.220  107.1  0.0652   59.3  0.5421  -36.2
 1.040  0.3838 -101.4   8.096  106.5  0.0659   59.3  0.5375  -36.3
 1.060  0.3793 -102.5   7.973  105.9  0.0666   59.4  0.5328  -36.4
 1.080  0.3749 -103.6   7.850  105.3  0.0673   59.4  0.5282  -36.5
 1.100  0.3707 -104.8   7.729  104.6  0.0680   59.4  0.5235  -36.6
 1.120  0.3666 -105.9   7.621  104.1  0.0687   59.4  0.5194  -36.7
 1.140  0.3626 -107.0   7.513  103.5  0.0694   59.5  0.5152  -36.8
 1.160  0.3588 -108.1   7.406  103.0  0.0701   59.5  0.5111  -36.9
 1.180  0.3551 -109.2   7.300  102.4  0.0708   59.6  0.5069  -37.0
 1.200  0.3515 -110.4   7.194  101.8  0.0715   59.6  0.5028  -37.1
 1.220  0.3481 -111.4   7.099  101.3  0.0722   59.7  0.4995  -37.2
 1.240  0.3447 -112.3   7.004  100.8  0.0729   59.7  0.4961  -37.3
 1.260  0.3415 -113.3   6.910  100.3  0.0735   59.8  0.4928  -37.3
 1.280  0.3383 -114.4   6.816   99.8  0.0742   59.8  0.4894  -37.4
 1.300  0.3353 -115.4   6.723   99.3  0.0749   59.9  0.4861  -37.5
 1.320  0.3325 -116.4   6.639   98.9  0.0756   60.0  0.4830  -37.6
 1.340  0.3297 -117.4   6.555   98.4  0.0763   60.0  0.4799  -37.6
 1.360  0.3271 -118.4   6.472   98.0  0.0769   60.1  0.4769  -37.7
 1.380  0.3245 -119.4   6.389   97.5  0.0776   60.1  0.4738  -37.7
 1.400  0.3221 -120.4   6.306   97.0  0.0783   60.2  0.4707  -37.8
 1.420  0.3196 -121.3   6.232   96.6  0.0790   60.3  0.4683  -37.9
 1.440  0.3172 -122.2   6.159   96.2  0.0797   60.4  0.4659  -38.0
 1.460  0.3148 -123.1   6.085   95.7  0.0804   60.4  0.4635  -38.0
 1.480  0.3126 -124.1   6.012   95.3  0.0811   60.5  0.4611  -38.1
 1.500  0.3104 -125.0   5.940   94.8  0.0818   60.6  0.4587  -38.2
 1.520  0.3084 -125.9   5.873   94.4  0.0825   60.7  0.4564  -38.3
 1.540  0.3066 -126.8   5.806   94.0  0.0832   60.7  0.4541  -38.3
 1.560  0.3048 -127.7   5.740   93.6  0.0838   60.8  0.4518  -38.4
 1.580  0.3030 -128.7   5.674   93.2  0.0845   60.8  0.4495  -38.4
 1.600  0.3014 -129.6   5.608   92.8  0.0852   60.9  0.4472  -38.5
 1.620  0.2997 -130.3   5.549   92.4  0.0859   61.0  0.4454  -38.6
 1.640  0.2981 -131.1   5.490   92.1  0.0866   61.1  0.4436  -38.7
 1.660  0.2966 -131.9   5.431   91.7  0.0872   61.1  0.4419  -38.7
 1.680  0.2951 -132.6   5.372   91.3  0.0879   61.2  0.4401  -38.8
 1.700  0.2936 -133.4   5.314   90.9  0.0886   61.3  0.4383  -38.9
 1.720  0.2923 -134.1   5.260   90.6  0.0893   61.4  0.4367  -39.0
 1.740  0.2911 -134.9   5.206   90.2  0.0900   61.5  0.4351  -39.0
 1.760  0.2899 -135.6   5.152   89.9  0.0907   61.5  0.4336  -39.1
 1.780  0.2888 -136.3   5.098   89.6  0.0914   61.6  0.4320  -39.1
 1.800  0.2877 -137.1   5.045   89.2  0.0921   61.7  0.4304  -39.2
 1.820  0.2864 -137.9   4.997   88.9  0.0928   61.8  0.4290  -39.3
 1.840  0.2851 -138.6   4.950   88.5  0.0935   61.8  0.4275  -39.4
 1.860  0.2839 -139.4   4.903   88.2  0.0942   61.9  0.4261  -39.5
 1.880  0.2828 -140.2   4.856   87.9  0.0949   61.9  0.4246  -39.6
 1.900  0.2817 -141.0   4.809   87.5  0.0956   62.0  0.4232  -39.7
 1.920  0.2807 -141.6   4.765   87.2  0.0963   62.1  0.4221  -39.8
 1.940  0.2798 -142.3   4.721   86.8  0.0970   62.2  0.4211  -39.8
 1.960  0.2788 -142.9   4.678   86.5  0.0977   62.2  0.4200  -39.9
 1.980  0.2779 -143.6   4.634   86.2  0.0984   62.3  0.4190  -39.9
 2.000  0.2771 -144.2   4.591   85.8  0.0991   62.4  0.4179  -40.0
 2.020  0.2763 -144.8   4.552   85.5  0.0998   62.5  0.4169  -40.1
 2.040  0.2755 -145.5   4.513   85.2  0.1005   62.5  0.4160  -40.2
 2.060  0.2747 -146.1   4.475   85.0  0.1013   62.6  0.4150  -40.3
 2.080  0.2739 -146.8   4.436   84.7  0.1020   62.7  0.4140  -40.4
 2.100  0.2732 -147.5   4.397   84.4  0.1027   62.7  0.4131  -40.4
 2.120  0.2726 -148.1   4.359   84.1  0.1034   62.8  0.4121  -40.5
 2.140  0.2720 -148.8   4.321   83.8  0.1041   62.8  0.4112  -40.6
 2.160  0.2714 -149.5   4.283   83.4  0.1049   62.9  0.4102  -40.7
 2.180  0.2708 -150.1   4.245   83.1  0.1056   62.9  0.4093  -40.8
 2.200  0.2703 -150.8   4.207   82.8  0.1063   63.0  0.4083  -40.9
 2.220  0.2697 -151.4   4.175   82.5  0.1070   63.1  0.4075  -41.0
 2.240  0.2691 -152.0   4.143   82.3  0.1078   63.1  0.4067  -41.1
 2.260  0.2685 -152.5   4.112   82.0  0.1085   63.2  0.4059  -41.2
 2.280  0.2679 -153.1   4.080   81.7  0.1092   63.2  0.4052  -41.3
 2.300  0.2674 -153.7   4.048   81.5  0.1099   63.3  0.4044  -41.4
 2.320  0.2669 -154.3   4.017   81.2  0.1107   63.3  0.4036  -41.5
 2.340  0.2664 -154.9   3.985   80.9  0.1114   63.4  0.4028  -41.6
 2.360  0.2660 -155.5   3.954   80.6  0.1121   63.4  0.4021  -41.7
 2.380  0.2656 -156.1   3.923   80.3  0.1129   63.5  0.4013  -41.8
 2.400  0.2652 -156.7   3.892   80.0  0.1136   63.5  0.4005  -41.9
 2.420  0.2649 -157.2   3.864   79.7  0.1143   63.6  0.3999  -42.0
 2.440  0.2646 -157.8   3.836   79.5  0.1151   63.6  0.3993  -42.1
 2.460  0.2643 -158.3   3.808   79.2  0.1158   63.7  0.3987  -42.3
 2.480  0.2640 -158.8   3.781   79.0  0.1166   63.7  0.3981  -42.4
 2.500  0.2638 -159.3   3.753   78.7  0.1173   63.8  0.3975  -42.5
 2.520  0.2635 -159.9   3.725   78.4  0.1180   63.8  0.3969  -42.6
 2.540  0.2634 -160.4   3.698   78.2  0.1188   63.9  0.3963  -42.7
 2.560  0.2632 -160.9   3.671   77.9  0.1195   63.9  0.3957  -42.9
 2.580  0.2630 -161.5   3.643   77.6  0.1203   64.0  0.3951  -43.0
 2.600  0.2629 -162.0   3.616   77.3  0.1210   64.0  0.3945  -43.1
 2.620  0.2626 -162.5   3.592   77.1  0.1217   64.0  0.3941  -43.2
 2.640  0.2623 -162.9   3.568   76.8  0.1225   64.1  0.3937  -43.4
 2.660  0.2620 -163.4   3.545   76.6  0.1232   64.1  0.3934  -43.5
 2.680  0.2617 -163.9   3.521   76.3  0.1240   64.1  0.3930  -43.6
 2.700  0.2615 -164.3   3.497   76.1  0.1247   64.2  0.3926  -43.7
 2.720  0.2612 -164.8   3.474   75.8  0.1255   64.2  0.3923  -43.9
 2.740  0.2610 -165.3   3.450   75.6  0.1262   64.2  0.3919  -44.0
 2.760  0.2608 -165.8   3.427   75.3  0.1270   64.2  0.3915  -44.1
 2.780  0.2607 -166.2   3.403   75.1  0.1277   64.3  0.3912  -44.3
 2.800  0.2605 -166.7   3.380   74.8  0.1285   64.3  0.3908  -44.4
 2.820  0.2603 -167.1   3.359   74.6  0.1293   64.3  0.3906  -44.5
 2.840  0.2602 -167.6   3.338   74.3  0.1300   64.4  0.3904  -44.6
 2.860  0.2601 -168.0   3.318   74.1  0.1308   64.4  0.3902  -44.8
 2.880  0.2600 -168.4   3.297   73.9  0.1315   64.5  0.3900  -44.9
 2.900  0.2599 -168.8   3.276   73.6  0.1323   64.5  0.3898  -45.0
 2.920  0.2598 -169.3   3.256   73.4  0.1331   64.5  0.3896  -45.1
 2.940  0.2597 -169.7   3.235   73.2  0.1338   64.6  0.3895  -45.2
 2.960  0.2597 -170.1   3.215   72.9  0.1346   64.6  0.3893  -45.4
 2.980  0.2596 -170.6   3.194   72.7  0.1353   64.7  0.3891  -45.5
 3.000  0.2596 -171.0   3.174   72.4  0.1361   64.7  0.3889  -45.6
 3.100  0.2580 -172.8   3.090   71.4  0.1400   64.8  0.3894  -46.2
 3.200  0.2566 -174.6   3.007   70.4  0.1439   64.9  0.3899  -46.8
 3.300  0.2554 -176.5   2.925   69.3  0.1478   65.0  0.3904  -47.3
 3.400  0.2546 -178.3   2.844   68.2  0.1517   65.0  0.3910  -47.9
 3.500  0.2540  179.8   2.764   67.0  0.1556   65.1  0.3916  -48.5
 3.600  0.2526  178.1   2.703   66.1  0.1596   65.1  0.3925  -49.0
 3.700  0.2514  176.4   2.642   65.2  0.1636   65.1  0.3934  -49.5
 3.800  0.2505  174.7   2.582   64.3  0.1677   65.2  0.3944  -50.0
 3.900  0.2497  173.0   2.523   63.3  0.1717   65.2  0.3954  -50.5
 4.000  0.2492  171.3   2.465   62.2  0.1757   65.2  0.3964  -51.0
 4.100  0.2499  169.7   2.419   61.3  0.1799   65.2  0.3957  -51.7
 4.200  0.2507  168.1   2.373   60.4  0.1841   65.2  0.3951  -52.4
 4.300  0.2518  166.5   2.327   59.5  0.1883   65.1  0.3945  -53.1
 4.400  0.2531  165.0   2.283   58.5  0.1925   65.1  0.3940  -53.8
 4.500  0.2545  163.4   2.239   57.5  0.1967   65.1  0.3936  -54.5
 4.600  0.2561  161.7   2.204   56.6  0.2011   65.0  0.3921  -55.3
 4.700  0.2579  160.1   2.169   55.7  0.2055   64.9  0.3907  -56.2
 4.800  0.2599  158.5   2.134   54.8  0.2098   64.8  0.3893  -57.1
 4.900  0.2622  156.9   2.100   53.9  0.2142   64.8  0.3881  -57.9
 5.000  0.2646  155.3   2.067   52.9  0.2186   64.7  0.3869  -58.8
 5.100  0.2665  153.6   2.037   52.1  0.2231   64.5  0.3854  -59.6
 5.200  0.2687  151.9   2.008   51.2  0.2277   64.4  0.3839  -60.3
 5.300  0.2710  150.3   1.979   50.3  0.2322   64.2  0.3825  -61.1
 5.400  0.2736  148.7   1.951   49.4  0.2368   64.0  0.3812  -61.9
 5.500  0.2764  147.1   1.923   48.4  0.2413   63.9  0.3799  -62.7
 5.600  0.2789  145.6   1.898   47.6  0.2462   63.7  0.3778  -63.7
 5.700  0.2817  144.1   1.874   46.8  0.2512   63.5  0.3759  -64.7
 5.800  0.2846  142.7   1.850   45.9  0.2561   63.3  0.3741  -65.7
 5.900  0.2876  141.3   1.826   45.1  0.2611   63.1  0.3724  -66.8
 6.000  0.2909  139.9   1.803   44.2  0.2660   62.9  0.3708  -67.8
!
!  f       NFmin   Gammaopt  rn/50
! GHz       dB    MAG  ANG    -
 0.450      1.46  0.25   -1   0.28
 0.900      1.58  0.23   10   0.30
 1.900      2.07  0.09  -23   0.30
 2.400      2.36  0.04  -58   0.31
!
! (c) 2015  Infineon Technologies AG, Munich
