! Infineon Technologies  Discrete & RF Semiconductors
! BFR35AP
! VCE =  12. V,  IC =  20 mA
! Common Emitter S-Parameters:                            Nov 2015
# GHz  S  MA  R  50
!  f         S11            S21            S12            S22
! GHz     MAG   ANG      MAG   ANG      MAG   ANG      MAG   ANG
 0.010  0.7175   -5.6  28.988  174.2  0.0019   87.4  0.9807   -2.0
 0.015  0.7143   -8.4  28.719  171.9  0.0029   85.1  0.9752   -3.2
 0.020  0.7128  -11.3  28.499  169.5  0.0039   84.0  0.9701   -4.4
 0.025  0.7028  -13.8  28.127  167.4  0.0048   81.6  0.9628   -5.3
 0.030  0.6941  -16.4  27.793  165.3  0.0058   80.0  0.9559   -6.3
 0.035  0.6870  -19.1  27.497  163.2  0.0067   78.8  0.9491   -7.3
 0.040  0.6813  -21.8  27.240  161.0  0.0076   77.9  0.9427   -8.3
 0.045  0.6772  -24.5  27.024  158.8  0.0086   77.3  0.9366   -9.3
 0.050  0.6746  -27.3  26.850  156.5  0.0095   76.7  0.9307  -10.3
 0.055  0.6586  -29.2  26.321  155.0  0.0102   75.5  0.9204  -10.9
 0.060  0.6433  -31.2  25.811  153.4  0.0110   74.5  0.9101  -11.4
 0.065  0.6289  -33.2  25.322  151.7  0.0117   73.5  0.9000  -12.0
 0.070  0.6153  -35.4  24.855  150.0  0.0124   72.7  0.8900  -12.7
 0.075  0.6026  -37.7  24.412  148.2  0.0132   72.0  0.8800  -13.3
 0.080  0.5909  -40.0  23.993  146.3  0.0139   71.4  0.8702  -13.9
 0.085  0.5803  -42.5  23.600  144.4  0.0147   70.8  0.8605  -14.6
 0.090  0.5707  -45.0  23.235  142.4  0.0154   70.3  0.8509  -15.2
 0.095  0.5623  -47.6  22.898  140.4  0.0162   69.8  0.8414  -15.9
 0.100  0.5551  -50.3  22.591  138.3  0.0169   69.4  0.8320  -16.6
 0.105  0.5433  -51.7  22.120  137.2  0.0174   69.0  0.8234  -16.8
 0.110  0.5319  -53.1  21.658  136.1  0.0180   68.5  0.8149  -17.1
 0.115  0.5208  -54.5  21.204  134.9  0.0185   68.1  0.8063  -17.3
 0.120  0.5101  -56.1  20.760  133.7  0.0191   67.8  0.7978  -17.6
 0.125  0.4997  -57.7  20.325  132.4  0.0196   67.4  0.7892  -17.8
 0.130  0.4897  -59.3  19.902  131.1  0.0202   67.1  0.7807  -18.1
 0.135  0.4802  -61.1  19.489  129.7  0.0207   66.8  0.7723  -18.4
 0.140  0.4711  -62.9  19.089  128.2  0.0213   66.5  0.7638  -18.6
 0.145  0.4626  -64.8  18.702  126.7  0.0218   66.2  0.7553  -18.9
 0.150  0.4545  -66.7  18.328  125.1  0.0224   65.9  0.7469  -19.2
 0.155  0.4460  -67.8  18.000  124.4  0.0228   65.8  0.7411  -19.3
 0.160  0.4377  -69.0  17.676  123.6  0.0233   65.7  0.7352  -19.3
 0.165  0.4296  -70.3  17.355  122.8  0.0237   65.6  0.7294  -19.4
 0.170  0.4218  -71.6  17.037  122.0  0.0242   65.5  0.7236  -19.4
 0.175  0.4141  -72.9  16.723  121.1  0.0246   65.5  0.7177  -19.5
 0.180  0.4067  -74.3  16.413  120.2  0.0251   65.4  0.7119  -19.5
 0.185  0.3995  -75.7  16.108  119.3  0.0255   65.3  0.7061  -19.6
 0.190  0.3925  -77.2  15.806  118.3  0.0260   65.2  0.7003  -19.7
 0.195  0.3859  -78.7  15.509  117.3  0.0264   65.2  0.6944  -19.7
 0.200  0.3795  -80.3  15.217  116.3  0.0269   65.1  0.6886  -19.8
 0.220  0.3554  -84.4  14.228  113.9  0.0284   65.5  0.6720  -19.6
 0.240  0.3334  -89.0  13.269  111.1  0.0299   65.8  0.6555  -19.5
 0.260  0.3145  -93.1  12.436  108.6  0.0315   66.2  0.6421  -19.3
 0.280  0.2976  -96.5  11.711  106.7  0.0333   66.6  0.6320  -19.2
 0.300  0.2819 -100.2  11.000  104.6  0.0351   66.9  0.6218  -19.0
 0.320  0.2700 -102.8  10.501  103.5  0.0367   67.1  0.6155  -18.9
 0.340  0.2587 -105.6  10.006  102.2  0.0382   67.3  0.6092  -18.8
 0.360  0.2481 -108.6   9.517  100.9  0.0398   67.5  0.6028  -18.6
 0.380  0.2382 -111.9   9.034   99.4  0.0413   67.7  0.5965  -18.5
 0.400  0.2292 -115.5   8.557   97.7  0.0429   67.9  0.5902  -18.4
 0.420  0.2219 -118.0   8.225   96.7  0.0445   68.1  0.5863  -18.4
 0.440  0.2150 -120.7   7.895   95.5  0.0462   68.3  0.5824  -18.3
 0.450  0.2117 -122.1   7.732   94.9  0.0470   68.4  0.5804  -18.3
 0.460  0.2086 -123.6   7.569   94.3  0.0478   68.5  0.5785  -18.3
 0.480  0.2028 -126.6   7.247   93.0  0.0495   68.7  0.5746  -18.2
 0.500  0.1976 -129.8   6.929   91.5  0.0511   68.9  0.5707  -18.2
 0.520  0.1932 -132.2   6.713   90.7  0.0528   69.1  0.5686  -18.2
 0.540  0.1891 -134.7   6.499   89.9  0.0545   69.4  0.5664  -18.2
 0.560  0.1854 -137.3   6.286   89.0  0.0563   69.6  0.5643  -18.3
 0.580  0.1821 -140.0   6.075   88.0  0.0580   69.8  0.5621  -18.3
 0.600  0.1792 -142.8   5.866   87.0  0.0597   70.0  0.5600  -18.3
 0.620  0.1768 -144.8   5.708   86.3  0.0614   70.1  0.5589  -18.4
 0.640  0.1746 -146.8   5.552   85.5  0.0631   70.2  0.5577  -18.5
 0.660  0.1727 -148.8   5.396   84.7  0.0647   70.3  0.5566  -18.6
 0.680  0.1710 -151.0   5.242   83.8  0.0664   70.3  0.5554  -18.7
 0.700  0.1695 -153.1   5.089   82.9  0.0681   70.4  0.5543  -18.8
 0.720  0.1678 -155.3   4.963   82.2  0.0699   70.3  0.5530  -18.9
 0.740  0.1664 -157.6   4.837   81.5  0.0717   70.2  0.5516  -19.1
 0.760  0.1653 -159.8   4.712   80.8  0.0736   70.1  0.5503  -19.2
 0.780  0.1644 -162.2   4.588   80.0  0.0754   70.1  0.5489  -19.4
 0.800  0.1638 -164.5   4.465   79.2  0.0772   70.0  0.5476  -19.5
 0.820  0.1624 -166.0   4.371   78.6  0.0789   70.0  0.5465  -19.7
 0.840  0.1611 -167.5   4.277   77.9  0.0807   70.0  0.5455  -19.9
 0.860  0.1600 -169.1   4.183   77.2  0.0824   69.9  0.5445  -20.0
 0.880  0.1589 -170.6   4.091   76.5  0.0842   69.9  0.5434  -20.2
 0.900  0.1580 -172.2   3.999   75.7  0.0859   69.9  0.5424  -20.4
 0.920  0.1581 -174.3   3.925   75.1  0.0876   69.9  0.5417  -20.6
 0.940  0.1584 -176.4   3.851   74.5  0.0892   69.9  0.5411  -20.8
 0.960  0.1589 -178.5   3.777   73.9  0.0909   69.8  0.5405  -21.0
 0.980  0.1597  179.4   3.704   73.3  0.0925   69.8  0.5398  -21.2
 1.000  0.1606  177.3   3.632   72.6  0.0942   69.8  0.5392  -21.4
 1.020  0.1613  175.7   3.571   72.1  0.0959   69.7  0.5385  -21.7
 1.040  0.1621  174.2   3.511   71.5  0.0976   69.6  0.5378  -21.9
 1.060  0.1630  172.6   3.451   71.0  0.0993   69.5  0.5372  -22.2
 1.080  0.1640  171.1   3.391   70.4  0.1010   69.4  0.5365  -22.4
 1.100  0.1652  169.6   3.332   69.8  0.1027   69.3  0.5359  -22.7
 1.120  0.1663  168.0   3.281   69.2  0.1045   69.2  0.5352  -22.9
 1.140  0.1674  166.3   3.230   68.6  0.1064   69.1  0.5344  -23.1
 1.160  0.1688  164.7   3.179   68.0  0.1082   69.1  0.5337  -23.3
 1.180  0.1702  163.1   3.129   67.4  0.1101   69.0  0.5330  -23.5
 1.200  0.1718  161.6   3.079   66.7  0.1119   68.9  0.5323  -23.7
 1.220  0.1724  160.6   3.031   66.2  0.1137   68.8  0.5318  -24.0
 1.240  0.1730  159.7   2.983   65.7  0.1154   68.6  0.5312  -24.2
 1.260  0.1737  158.8   2.935   65.2  0.1172   68.5  0.5307  -24.5
 1.280  0.1744  157.8   2.888   64.7  0.1189   68.4  0.5302  -24.7
 1.300  0.1752  156.9   2.841   64.1  0.1207   68.3  0.5297  -25.0
 1.320  0.1763  155.6   2.804   63.6  0.1223   68.2  0.5293  -25.3
 1.340  0.1775  154.3   2.767   63.0  0.1239   68.1  0.5289  -25.6
 1.360  0.1788  153.1   2.730   62.5  0.1256   67.9  0.5285  -25.8
 1.380  0.1801  151.8   2.694   61.9  0.1272   67.8  0.5282  -26.1
 1.400  0.1816  150.6   2.658   61.3  0.1288   67.7  0.5278  -26.4
 1.420  0.1825  149.8   2.628   60.8  0.1306   67.5  0.5270  -26.7
 1.440  0.1833  149.1   2.599   60.3  0.1324   67.4  0.5262  -27.0
 1.460  0.1843  148.4   2.570   59.8  0.1343   67.2  0.5255  -27.2
 1.480  0.1852  147.6   2.541   59.3  0.1361   67.1  0.5247  -27.5
 1.500  0.1862  146.9   2.512   58.8  0.1379   66.9  0.5240  -27.8
 1.520  0.1894  146.0   2.482   58.3  0.1397   66.7  0.5231  -28.1
 1.540  0.1926  145.1   2.451   57.7  0.1415   66.5  0.5221  -28.4
 1.560  0.1958  144.2   2.421   57.2  0.1432   66.3  0.5212  -28.7
 1.580  0.1992  143.3   2.392   56.6  0.1450   66.2  0.5203  -29.0
 1.600  0.2025  142.5   2.362   56.0  0.1468   66.0  0.5194  -29.3
 1.620  0.2034  141.5   2.337   55.5  0.1485   65.9  0.5187  -29.6
 1.640  0.2043  140.5   2.313   55.0  0.1503   65.8  0.5181  -29.9
 1.660  0.2053  139.5   2.289   54.5  0.1520   65.7  0.5174  -30.2
 1.680  0.2064  138.5   2.265   54.0  0.1538   65.6  0.5168  -30.5
 1.700  0.2075  137.5   2.241   53.5  0.1555   65.5  0.5162  -30.8
 1.720  0.2099  136.5   2.220   53.0  0.1573   65.3  0.5157  -31.1
 1.740  0.2123  135.5   2.199   52.6  0.1591   65.1  0.5151  -31.5
 1.760  0.2148  134.5   2.179   52.1  0.1610   64.9  0.5146  -31.8
 1.780  0.2173  133.5   2.158   51.6  0.1628   64.8  0.5142  -32.2
 1.800  0.2199  132.6   2.138   51.1  0.1646   64.6  0.5137  -32.5
 1.820  0.2219  132.1   2.119   50.6  0.1663   64.5  0.5128  -32.8
 1.840  0.2239  131.6   2.100   50.1  0.1680   64.4  0.5120  -33.1
 1.860  0.2259  131.1   2.081   49.6  0.1697   64.2  0.5112  -33.5
 1.880  0.2279  130.7   2.062   49.1  0.1714   64.1  0.5104  -33.8
 1.900  0.2300  130.2   2.044   48.6  0.1731   64.0  0.5096  -34.1
 1.920  0.2317  129.7   2.025   48.1  0.1749   63.8  0.5086  -34.4
 1.940  0.2335  129.3   2.006   47.7  0.1767   63.6  0.5076  -34.7
 1.960  0.2352  128.9   1.988   47.2  0.1785   63.4  0.5067  -35.1
 1.980  0.2370  128.4   1.969   46.7  0.1803   63.3  0.5057  -35.4
 2.000  0.2388  128.0   1.951   46.2  0.1821   63.1  0.5048  -35.7
 2.020  0.2405  127.3   1.935   45.8  0.1839   62.9  0.5037  -36.1
 2.040  0.2422  126.6   1.920   45.3  0.1857   62.7  0.5026  -36.4
 2.060  0.2440  126.0   1.905   44.9  0.1876   62.5  0.5015  -36.8
 2.080  0.2458  125.3   1.890   44.4  0.1894   62.3  0.5005  -37.1
 2.100  0.2476  124.7   1.874   44.0  0.1912   62.2  0.4995  -37.5
 2.120  0.2495  124.0   1.860   43.5  0.1931   62.0  0.4984  -37.8
 2.140  0.2514  123.4   1.845   43.1  0.1949   61.8  0.4975  -38.2
 2.160  0.2533  122.8   1.830   42.6  0.1967   61.6  0.4965  -38.6
 2.180  0.2552  122.2   1.815   42.1  0.1986   61.5  0.4955  -38.9
 2.200  0.2572  121.6   1.801   41.6  0.2004   61.3  0.4946  -39.3
 2.220  0.2595  121.0   1.789   41.2  0.2022   61.1  0.4934  -39.7
 2.240  0.2619  120.4   1.777   40.7  0.2040   61.0  0.4922  -40.0
 2.260  0.2642  119.8   1.765   40.3  0.2058   60.8  0.4911  -40.4
 2.280  0.2666  119.2   1.754   39.8  0.2076   60.6  0.4899  -40.8
 2.300  0.2691  118.6   1.742   39.3  0.2094   60.5  0.4888  -41.2
 2.320  0.2715  118.1   1.731   38.9  0.2112   60.3  0.4877  -41.6
 2.340  0.2740  117.5   1.719   38.4  0.2130   60.2  0.4867  -41.9
 2.360  0.2765  117.0   1.708   37.9  0.2148   60.0  0.4856  -42.3
 2.380  0.2790  116.4   1.697   37.4  0.2166   59.8  0.4846  -42.7
 2.400  0.2816  115.9   1.686   36.9  0.2184   59.7  0.4836  -43.1
 2.420  0.2844  115.4   1.675   36.5  0.2202   59.5  0.4822  -43.5
 2.440  0.2871  114.9   1.664   36.1  0.2221   59.3  0.4809  -43.9
 2.460  0.2900  114.4   1.654   35.7  0.2239   59.1  0.4795  -44.2
 2.480  0.2928  113.9   1.643   35.2  0.2258   58.9  0.4782  -44.6
 2.500  0.2956  113.4   1.633   34.8  0.2276   58.7  0.4769  -45.0
 2.520  0.2985  112.9   1.622   34.4  0.2295   58.5  0.4757  -45.4
 2.540  0.3014  112.4   1.612   33.9  0.2313   58.3  0.4744  -45.8
 2.560  0.3043  112.0   1.602   33.5  0.2332   58.1  0.4732  -46.2
 2.580  0.3073  111.5   1.592   33.1  0.2350   57.9  0.4720  -46.6
 2.600  0.3102  111.1   1.582   32.6  0.2369   57.7  0.4708  -47.0
 2.620  0.3125  110.7   1.573   32.2  0.2388   57.5  0.4692  -47.4
 2.640  0.3148  110.3   1.564   31.8  0.2406   57.3  0.4676  -47.8
 2.660  0.3171  109.9   1.554   31.4  0.2425   57.1  0.4661  -48.3
 2.680  0.3194  109.5   1.545   31.0  0.2444   56.9  0.4646  -48.7
 2.700  0.3217  109.1   1.537   30.6  0.2463   56.8  0.4631  -49.1
 2.720  0.3241  108.8   1.528   30.2  0.2482   56.6  0.4616  -49.5
 2.740  0.3264  108.4   1.519   29.8  0.2500   56.4  0.4602  -50.0
 2.760  0.3288  108.0   1.510   29.4  0.2519   56.2  0.4587  -50.4
 2.780  0.3312  107.7   1.502   28.9  0.2538   56.1  0.4574  -50.9
 2.800  0.3336  107.3   1.493   28.5  0.2557   55.9  0.4560  -51.3
 2.820  0.3361  107.0   1.485   28.1  0.2576   55.7  0.4545  -51.8
 2.840  0.3385  106.6   1.477   27.7  0.2595   55.5  0.4530  -52.2
 2.860  0.3410  106.3   1.469   27.3  0.2614   55.2  0.4515  -52.7
 2.880  0.3435  106.0   1.461   26.8  0.2633   55.0  0.4500  -53.2
 2.900  0.3460  105.7   1.453   26.4  0.2652   54.8  0.4486  -53.7
 2.920  0.3485  105.4   1.445   26.0  0.2671   54.6  0.4472  -54.1
 2.940  0.3510  105.1   1.438   25.5  0.2690   54.4  0.4459  -54.6
 2.960  0.3535  104.8   1.430   25.1  0.2710   54.2  0.4445  -55.1
 2.980  0.3561  104.5   1.422   24.7  0.2729   54.0  0.4433  -55.6
 3.000  0.3586  104.2   1.415   24.2  0.2748   53.8  0.4420  -56.1
 3.100  0.3716  102.3   1.379   22.4  0.2840   52.5  0.4314  -58.7
 3.200  0.3850  100.5   1.344   20.5  0.2934   51.3  0.4216  -61.3
 3.300  0.3988   98.9   1.310   18.5  0.3028   50.2  0.4129  -64.2
 3.400  0.4129   97.3   1.279   16.4  0.3124   49.2  0.4051  -67.1
 3.500  0.4272   95.9   1.249   14.2  0.3221   48.2  0.3985  -70.1
 3.600  0.4384   94.4   1.222   12.5  0.3318   47.0  0.3878  -73.4
 3.700  0.4498   93.0   1.196   10.8  0.3417   45.8  0.3784  -76.9
 3.800  0.4615   91.7   1.172    9.0  0.3517   44.7  0.3705  -80.6
 3.900  0.4734   90.4   1.148    7.1  0.3618   43.7  0.3642  -84.4
 4.000  0.4856   89.2   1.126    5.1  0.3720   42.7  0.3595  -88.3
 4.100  0.4961   87.9   1.103    3.6  0.3819   41.2  0.3493  -92.3
 4.200  0.5069   86.7   1.081    1.9  0.3921   39.9  0.3408  -96.5
 4.300  0.5179   85.6   1.060    0.3  0.4025   38.5  0.3343 -100.9
 4.400  0.5290   84.5   1.040   -1.5  0.4130   37.3  0.3298 -105.5
 4.500  0.5404   83.4   1.021   -3.3  0.4238   36.1  0.3275 -110.1
 4.600  0.5493   82.2   1.002   -4.8  0.4326   34.5  0.3199 -114.7
 4.700  0.5585   81.0   0.984   -6.3  0.4417   33.0  0.3144 -119.6
 4.800  0.5679   79.9   0.967   -7.9  0.4511   31.5  0.3113 -124.5
 4.900  0.5775   78.8   0.951   -9.6  0.4608   30.1  0.3106 -129.6
 5.000  0.5873   77.7   0.935  -11.3  0.4708   28.8  0.3122 -134.6
 5.100  0.5964   76.4   0.911  -12.6  0.4755   27.0  0.3014 -139.3
 5.200  0.6059   75.1   0.887  -14.0  0.4806   25.2  0.2928 -144.2
 5.300  0.6156   73.9   0.864  -15.5  0.4862   23.5  0.2865 -149.5
 5.400  0.6256   72.7   0.842  -17.1  0.4923   21.8  0.2827 -154.9
 5.500  0.6359   71.5   0.820  -18.7  0.4987   20.2  0.2815 -160.4
 5.600  0.6361   70.4   0.810  -19.1  0.5087   19.2  0.2968 -164.1
 5.700  0.6366   69.3   0.801  -19.5  0.5188   18.3  0.3132 -167.4
 5.800  0.6373   68.2   0.791  -20.0  0.5291   17.5  0.3306 -170.4
 5.900  0.6382   67.1   0.782  -20.4  0.5394   16.6  0.3487 -173.1
 6.000  0.6394   66.0   0.772  -20.9  0.5499   15.8  0.3676 -175.5
!
!  f       NFmin   Gammaopt  rn/50
! GHz       dB    MAG  ANG    -
!
! noise parameter not available yet for this operation point!
!
! (c) 2015  Infineon Technologies AG, Munich
