! Infineon Technologies  Discrete & RF Semiconductors
! BFR35AP
! VCE =  2.5 V,  IC =  18 mA
! Common Emitter S-Parameters:                            Nov 2015
# GHz  S  MA  R  50
!  f         S11            S21            S12            S22
! GHz     MAG   ANG      MAG   ANG      MAG   ANG      MAG   ANG
 0.010  0.5556   -8.0  30.774  174.2  0.0024   85.1  0.9658   -3.3
 0.015  0.5477  -11.9  30.533  171.4  0.0038   83.4  0.9570   -5.0
 0.020  0.5424  -15.9  30.367  168.5  0.0053   82.6  0.9490   -6.8
 0.025  0.5326  -19.3  29.861  166.2  0.0064   80.5  0.9374   -8.3
 0.030  0.5248  -22.8  29.407  163.7  0.0076   79.0  0.9264   -9.8
 0.035  0.5190  -26.4  29.007  161.2  0.0087   77.9  0.9161  -11.3
 0.040  0.5152  -30.0  28.664  158.7  0.0098   77.0  0.9064  -12.9
 0.045  0.5136  -33.7  28.379  156.1  0.0110   76.3  0.8975  -14.5
 0.050  0.5141  -37.4  28.154  153.4  0.0121   75.8  0.8892  -16.1
 0.055  0.5000  -39.8  27.488  151.8  0.0129   74.7  0.8740  -16.9
 0.060  0.4869  -42.3  26.844  150.2  0.0138   73.8  0.8589  -17.8
 0.065  0.4748  -45.0  26.223  148.5  0.0147   73.0  0.8441  -18.7
 0.070  0.4637  -47.8  25.627  146.7  0.0155   72.2  0.8295  -19.6
 0.075  0.4538  -50.7  25.057  144.8  0.0164   71.6  0.8150  -20.5
 0.080  0.4452  -53.8  24.515  142.8  0.0172   71.0  0.8009  -21.5
 0.085  0.4378  -56.9  24.003  140.8  0.0181   70.4  0.7869  -22.5
 0.090  0.4318  -60.2  23.524  138.6  0.0190   70.0  0.7732  -23.6
 0.095  0.4273  -63.5  23.079  136.4  0.0198   69.5  0.7598  -24.7
 0.100  0.4242  -66.9  22.670  134.1  0.0207   69.1  0.7467  -25.8
 0.105  0.4151  -68.8  22.153  133.0  0.0214   68.5  0.7349  -26.1
 0.110  0.4064  -70.9  21.645  131.9  0.0220   68.0  0.7232  -26.5
 0.115  0.3983  -73.0  21.145  130.7  0.0227   67.5  0.7115  -26.9
 0.120  0.3908  -75.2  20.655  129.5  0.0234   67.1  0.6998  -27.2
 0.125  0.3838  -77.4  20.175  128.2  0.0241   66.6  0.6882  -27.6
 0.130  0.3775  -79.8  19.705  126.8  0.0248   66.2  0.6766  -28.0
 0.135  0.3719  -82.2  19.248  125.4  0.0254   65.8  0.6650  -28.5
 0.140  0.3669  -84.7  18.802  123.9  0.0261   65.5  0.6535  -28.9
 0.145  0.3626  -87.3  18.370  122.3  0.0268   65.1  0.6420  -29.3
 0.150  0.3591  -89.9  17.953  120.7  0.0275   64.8  0.6305  -29.8
 0.155  0.3542  -91.3  17.607  120.0  0.0280   64.7  0.6230  -29.9
 0.160  0.3496  -92.8  17.264  119.3  0.0284   64.7  0.6156  -29.9
 0.165  0.3453  -94.4  16.924  118.5  0.0289   64.6  0.6081  -30.0
 0.170  0.3411  -95.9  16.587  117.7  0.0294   64.5  0.6006  -30.1
 0.175  0.3373  -97.5  16.253  116.9  0.0298   64.5  0.5931  -30.2
 0.180  0.3337  -99.1  15.923  116.1  0.0303   64.4  0.5857  -30.3
 0.185  0.3303 -100.8  15.596  115.2  0.0308   64.4  0.5782  -30.3
 0.190  0.3273 -102.5  15.273  114.3  0.0313   64.3  0.5707  -30.4
 0.195  0.3245 -104.2  14.954  113.3  0.0317   64.3  0.5633  -30.5
 0.200  0.3221 -106.0  14.640  112.3  0.0322   64.2  0.5558  -30.6
 0.220  0.3082 -111.0  13.632  110.0  0.0343   64.7  0.5353  -30.4
 0.240  0.2970 -116.5  12.648  107.4  0.0364   65.1  0.5148  -30.3
 0.260  0.2886 -121.5  11.807  105.1  0.0385   65.5  0.4977  -30.1
 0.280  0.2823 -125.9  11.094  103.3  0.0405   66.0  0.4840  -29.9
 0.300  0.2776 -130.4  10.392  101.3  0.0425   66.4  0.4704  -29.7
 0.320  0.2716 -133.4   9.912  100.2  0.0446   66.7  0.4621  -29.4
 0.340  0.2664 -136.6   9.436   99.0  0.0466   67.0  0.4539  -29.1
 0.360  0.2620 -139.8   8.964   97.7  0.0487   67.3  0.4456  -28.8
 0.380  0.2585 -143.2   8.497   96.2  0.0507   67.6  0.4374  -28.5
 0.400  0.2559 -146.6   8.037   94.6  0.0528   67.8  0.4292  -28.2
 0.420  0.2535 -149.1   7.722   93.6  0.0549   68.0  0.4243  -28.0
 0.440  0.2517 -151.7   7.410   92.6  0.0570   68.2  0.4193  -27.9
 0.450  0.2509 -153.0   7.254   92.0  0.0580   68.2  0.4168  -27.8
 0.460  0.2503 -154.3   7.100   91.4  0.0591   68.3  0.4144  -27.7
 0.480  0.2495 -157.0   6.793   90.2  0.0612   68.5  0.4094  -27.6
 0.500  0.2492 -159.6   6.490   88.8  0.0633   68.6  0.4045  -27.4
 0.520  0.2487 -161.3   6.284   88.0  0.0654   68.7  0.4018  -27.3
 0.540  0.2484 -163.0   6.078   87.2  0.0675   68.7  0.3991  -27.3
 0.560  0.2483 -164.8   5.875   86.3  0.0696   68.8  0.3963  -27.2
 0.580  0.2484 -166.5   5.673   85.3  0.0717   68.8  0.3936  -27.2
 0.600  0.2488 -168.2   5.472   84.3  0.0738   68.9  0.3909  -27.1
 0.620  0.2481 -169.9   5.323   83.6  0.0759   68.9  0.3890  -27.2
 0.640  0.2476 -171.6   5.175   82.8  0.0781   69.0  0.3870  -27.2
 0.660  0.2473 -173.3   5.028   81.9  0.0802   69.0  0.3851  -27.3
 0.680  0.2472 -175.1   4.882   81.0  0.0824   69.1  0.3831  -27.3
 0.700  0.2474 -176.8   4.737   80.1  0.0845   69.1  0.3812  -27.4
 0.720  0.2479 -178.3   4.620   79.4  0.0867   68.9  0.3795  -27.5
 0.740  0.2485 -179.7   4.504   78.7  0.0889   68.8  0.3778  -27.6
 0.760  0.2493  178.8   4.389   78.0  0.0911   68.7  0.3762  -27.6
 0.780  0.2503  177.3   4.274   77.2  0.0933   68.5  0.3745  -27.7
 0.800  0.2514  175.9   4.160   76.4  0.0955   68.4  0.3728  -27.8
 0.820  0.2508  174.6   4.072   75.8  0.0977   68.3  0.3715  -28.0
 0.840  0.2503  173.2   3.985   75.1  0.0999   68.2  0.3702  -28.1
 0.860  0.2500  171.9   3.899   74.4  0.1021   68.1  0.3690  -28.3
 0.880  0.2498  170.5   3.813   73.7  0.1043   68.1  0.3677  -28.4
 0.900  0.2497  169.2   3.728   72.9  0.1065   68.0  0.3664  -28.6
 0.920  0.2505  168.0   3.659   72.3  0.1086   67.9  0.3655  -28.8
 0.940  0.2514  166.9   3.590   71.7  0.1108   67.8  0.3646  -29.0
 0.960  0.2525  165.7   3.521   71.1  0.1129   67.7  0.3637  -29.2
 0.980  0.2536  164.5   3.453   70.5  0.1151   67.6  0.3629  -29.4
 1.000  0.2548  163.4   3.385   69.8  0.1172   67.5  0.3620  -29.6
 1.020  0.2563  162.4   3.329   69.2  0.1194   67.3  0.3610  -29.9
 1.040  0.2578  161.5   3.272   68.7  0.1216   67.2  0.3599  -30.2
 1.060  0.2595  160.5   3.217   68.1  0.1238   67.0  0.3589  -30.6
 1.080  0.2611  159.6   3.161   67.4  0.1260   66.8  0.3579  -30.9
 1.100  0.2629  158.7   3.106   66.8  0.1282   66.7  0.3569  -31.2
 1.120  0.2646  157.7   3.058   66.2  0.1304   66.6  0.3558  -31.4
 1.140  0.2664  156.7   3.010   65.6  0.1326   66.4  0.3548  -31.6
 1.160  0.2683  155.8   2.963   64.9  0.1347   66.3  0.3537  -31.9
 1.180  0.2702  154.8   2.916   64.3  0.1369   66.1  0.3526  -32.1
 1.200  0.2722  153.9   2.869   63.6  0.1391   66.0  0.3516  -32.3
 1.220  0.2720  153.0   2.826   63.1  0.1413   65.8  0.3508  -32.6
 1.240  0.2719  152.1   2.783   62.6  0.1435   65.5  0.3499  -32.9
 1.260  0.2719  151.3   2.740   62.0  0.1457   65.3  0.3491  -33.2
 1.280  0.2719  150.4   2.698   61.5  0.1479   65.1  0.3483  -33.5
 1.300  0.2720  149.5   2.656   60.9  0.1501   64.9  0.3475  -33.8
 1.320  0.2740  148.6   2.621   60.4  0.1522   64.7  0.3467  -34.1
 1.340  0.2761  147.7   2.586   59.8  0.1542   64.5  0.3459  -34.4
 1.360  0.2783  146.9   2.552   59.3  0.1563   64.3  0.3452  -34.8
 1.380  0.2805  146.0   2.518   58.7  0.1583   64.2  0.3444  -35.1
 1.400  0.2828  145.2   2.484   58.1  0.1604   64.0  0.3437  -35.4
 1.420  0.2829  144.5   2.457   57.6  0.1626   63.8  0.3428  -35.7
 1.440  0.2829  143.8   2.430   57.1  0.1648   63.6  0.3420  -36.1
 1.460  0.2831  143.0   2.403   56.6  0.1670   63.4  0.3411  -36.4
 1.480  0.2833  142.3   2.376   56.0  0.1692   63.2  0.3403  -36.8
 1.500  0.2835  141.6   2.350   55.5  0.1714   63.0  0.3395  -37.1
 1.520  0.2865  140.9   2.320   54.9  0.1735   62.8  0.3381  -37.5
 1.540  0.2895  140.2   2.290   54.4  0.1756   62.5  0.3366  -37.8
 1.560  0.2926  139.5   2.260   53.8  0.1776   62.3  0.3352  -38.2
 1.580  0.2957  138.8   2.231   53.2  0.1797   62.1  0.3338  -38.5
 1.600  0.2989  138.1   2.202   52.6  0.1818   61.9  0.3324  -38.9
 1.620  0.3000  137.3   2.180   52.1  0.1839   61.7  0.3314  -39.3
 1.640  0.3011  136.5   2.158   51.6  0.1860   61.4  0.3304  -39.6
 1.660  0.3023  135.7   2.136   51.1  0.1882   61.2  0.3294  -40.0
 1.680  0.3035  134.9   2.114   50.5  0.1903   61.0  0.3284  -40.3
 1.700  0.3048  134.1   2.093   50.0  0.1924   60.8  0.3274  -40.7
 1.720  0.3063  133.5   2.074   49.6  0.1945   60.6  0.3265  -41.1
 1.740  0.3079  132.8   2.055   49.1  0.1966   60.3  0.3257  -41.6
 1.760  0.3096  132.2   2.037   48.6  0.1987   60.1  0.3248  -42.0
 1.780  0.3112  131.6   2.018   48.2  0.2008   59.9  0.3240  -42.5
 1.800  0.3129  131.0   2.000   47.7  0.2029   59.7  0.3232  -42.9
 1.820  0.3148  130.5   1.982   47.2  0.2051   59.4  0.3218  -43.3
 1.840  0.3168  130.1   1.965   46.7  0.2072   59.2  0.3205  -43.8
 1.860  0.3187  129.6   1.947   46.2  0.2094   58.9  0.3192  -44.2
 1.880  0.3207  129.1   1.930   45.6  0.2116   58.6  0.3179  -44.7
 1.900  0.3227  128.7   1.913   45.1  0.2138   58.4  0.3166  -45.1
 1.920  0.3246  128.1   1.895   44.6  0.2159   58.2  0.3152  -45.5
 1.940  0.3265  127.5   1.877   44.1  0.2180   57.9  0.3138  -45.9
 1.960  0.3284  126.9   1.859   43.6  0.2200   57.7  0.3125  -46.3
 1.980  0.3304  126.4   1.841   43.1  0.2221   57.5  0.3111  -46.8
 2.000  0.3324  125.8   1.823   42.6  0.2242   57.3  0.3098  -47.2
 2.020  0.3340  125.3   1.808   42.1  0.2263   57.0  0.3084  -47.7
 2.040  0.3356  124.7   1.794   41.7  0.2284   56.8  0.3070  -48.1
 2.060  0.3373  124.2   1.780   41.2  0.2306   56.5  0.3056  -48.6
 2.080  0.3390  123.7   1.765   40.7  0.2327   56.3  0.3042  -49.0
 2.100  0.3407  123.2   1.751   40.2  0.2348   56.0  0.3028  -49.5
 2.120  0.3425  122.7   1.737   39.8  0.2370   55.8  0.3015  -50.0
 2.140  0.3442  122.2   1.724   39.3  0.2391   55.6  0.3002  -50.4
 2.160  0.3460  121.7   1.710   38.7  0.2413   55.3  0.2989  -50.9
 2.180  0.3479  121.2   1.696   38.2  0.2434   55.1  0.2976  -51.4
 2.200  0.3497  120.7   1.683   37.7  0.2456   54.9  0.2964  -51.9
 2.220  0.3521  120.1   1.672   37.2  0.2477   54.6  0.2946  -52.4
 2.240  0.3545  119.5   1.661   36.8  0.2497   54.4  0.2928  -52.9
 2.260  0.3570  118.9   1.650   36.3  0.2518   54.1  0.2911  -53.4
 2.280  0.3595  118.4   1.639   35.9  0.2539   53.9  0.2893  -53.9
 2.300  0.3620  117.8   1.629   35.4  0.2559   53.7  0.2876  -54.4
 2.320  0.3646  117.2   1.618   34.9  0.2580   53.4  0.2859  -54.9
 2.340  0.3672  116.7   1.608   34.4  0.2601   53.2  0.2842  -55.5
 2.360  0.3698  116.2   1.597   33.9  0.2622   52.9  0.2826  -56.0
 2.380  0.3725  115.6   1.587   33.4  0.2643   52.7  0.2810  -56.6
 2.400  0.3752  115.1   1.577   32.9  0.2664   52.5  0.2794  -57.1
 2.420  0.3772  114.6   1.567   32.5  0.2684   52.2  0.2777  -57.7
 2.440  0.3792  114.2   1.556   32.1  0.2704   52.0  0.2761  -58.2
 2.460  0.3812  113.7   1.546   31.6  0.2724   51.7  0.2744  -58.8
 2.480  0.3832  113.2   1.536   31.2  0.2744   51.5  0.2728  -59.3
 2.500  0.3853  112.8   1.526   30.8  0.2764   51.2  0.2713  -59.9
 2.520  0.3874  112.3   1.516   30.3  0.2785   51.0  0.2697  -60.5
 2.540  0.3895  111.9   1.506   29.9  0.2805   50.7  0.2682  -61.1
 2.560  0.3917  111.5   1.496   29.4  0.2825   50.5  0.2667  -61.7
 2.580  0.3938  111.0   1.487   29.0  0.2846   50.2  0.2652  -62.3
 2.600  0.3960  110.6   1.477   28.5  0.2866   50.0  0.2638  -62.9
 2.620  0.3984  110.1   1.469   28.1  0.2886   49.7  0.2617  -63.5
 2.640  0.4008  109.7   1.460   27.7  0.2906   49.5  0.2597  -64.1
 2.660  0.4032  109.3   1.452   27.3  0.2927   49.2  0.2576  -64.7
 2.680  0.4056  108.8   1.444   26.9  0.2947   48.9  0.2557  -65.4
 2.700  0.4081  108.4   1.436   26.5  0.2967   48.7  0.2537  -66.0
 2.720  0.4105  108.0   1.427   26.0  0.2988   48.4  0.2518  -66.7
 2.740  0.4131  107.5   1.419   25.6  0.3008   48.1  0.2499  -67.3
 2.760  0.4156  107.1   1.412   25.2  0.3029   47.9  0.2480  -68.0
 2.780  0.4181  106.7   1.404   24.7  0.3049   47.6  0.2462  -68.7
 2.800  0.4207  106.3   1.396   24.3  0.3070   47.4  0.2444  -69.4
 2.820  0.4230  106.0   1.388   23.9  0.3090   47.1  0.2426  -70.1
 2.840  0.4254  105.6   1.380   23.5  0.3109   46.8  0.2408  -70.9
 2.860  0.4277  105.3   1.372   23.1  0.3129   46.6  0.2391  -71.6
 2.880  0.4301  105.0   1.364   22.6  0.3149   46.3  0.2374  -72.4
 2.900  0.4325  104.7   1.356   22.2  0.3169   46.0  0.2357  -73.2
 2.920  0.4349  104.3   1.348   21.8  0.3189   45.7  0.2341  -74.0
 2.940  0.4373  104.0   1.341   21.3  0.3209   45.5  0.2325  -74.7
 2.960  0.4397  103.7   1.333   20.9  0.3229   45.2  0.2310  -75.6
 2.980  0.4422  103.4   1.325   20.5  0.3249   45.0  0.2295  -76.4
 3.000  0.4446  103.1   1.318   20.0  0.3269   44.7  0.2281  -77.2
 3.100  0.4556  101.2   1.284   18.2  0.3357   43.2  0.2167  -81.4
 3.200  0.4672   99.4   1.250   16.3  0.3448   41.7  0.2067  -86.1
 3.300  0.4791   97.6   1.219   14.4  0.3540   40.3  0.1981  -91.1
 3.400  0.4915   96.0   1.189   12.3  0.3635   39.0  0.1912  -96.6
 3.500  0.5043   94.4   1.160   10.1  0.3731   37.8  0.1862 -102.5
 3.600  0.5142   92.8   1.135    8.5  0.3813   36.3  0.1786 -108.8
 3.700  0.5244   91.3   1.110    6.9  0.3898   34.9  0.1733 -115.6
 3.800  0.5351   89.8   1.087    5.2  0.3985   33.6  0.1707 -122.8
 3.900  0.5460   88.4   1.064    3.4  0.4074   32.3  0.1707 -130.0
 4.000  0.5573   87.0   1.043    1.5  0.4165   31.1  0.1734 -137.1
 4.100  0.5661   85.7   1.022    0.1  0.4240   29.6  0.1728 -144.1
 4.200  0.5753   84.4   1.002   -1.4  0.4317   28.1  0.1747 -151.1
 4.300  0.5847   83.2   0.982   -2.9  0.4397   26.7  0.1792 -157.8
 4.400  0.5944   82.0   0.963   -4.5  0.4480   25.4  0.1859 -164.1
 4.500  0.6043   80.8   0.945   -6.1  0.4565   24.1  0.1948 -169.9
 4.600  0.6107   79.6   0.928   -7.4  0.4627   22.6  0.2001 -175.7
 4.700  0.6174   78.4   0.912   -8.8  0.4691   21.1  0.2073  178.9
 4.800  0.6243   77.3   0.896  -10.3  0.4759   19.7  0.2162  173.9
 4.900  0.6315   76.2   0.881  -11.8  0.4830   18.3  0.2266  169.3
 5.000  0.6389   75.1   0.866  -13.3  0.4903   17.0  0.2384  165.1
 5.100  0.6457   73.9   0.845  -14.5  0.4920   15.5  0.2398  160.3
 5.200  0.6528   72.7   0.824  -15.7  0.4941   13.9  0.2430  155.5
 5.300  0.6602   71.5   0.804  -16.9  0.4965   12.4  0.2477  150.9
 5.400  0.6678   70.4   0.784  -18.3  0.4993   10.9  0.2539  146.6
 5.500  0.6757   69.3   0.764  -19.7  0.5024    9.4  0.2616  142.4
 5.600  0.6758   68.3   0.758  -20.1  0.5105    8.5  0.2789  142.0
 5.700  0.6761   67.3   0.752  -20.5  0.5187    7.6  0.2963  141.6
 5.800  0.6766   66.2   0.746  -20.9  0.5271    6.8  0.3136  141.3
 5.900  0.6774   65.2   0.741  -21.3  0.5355    6.0  0.3310  141.0
 6.000  0.6783   64.2   0.735  -21.7  0.5441    5.2  0.3484  140.7
!
!  f       NFmin   Gammaopt  rn/50
! GHz       dB    MAG  ANG    -
!
! noise parameter not available yet for this operation point!
!
! (c) 2015  Infineon Technologies AG, Munich
