! Infineon Technologies  Discrete & RF Semiconductors
! BFR380F
! VCE =  4.0 V,  IC =  70 mA
! Common Emitter S-Parameters:                            Nov 2015
# GHz  S  MA  R  50
!  f         S11            S21            S12            S22
! GHz     MAG   ANG      MAG   ANG      MAG   ANG      MAG   ANG
 0.030  0.3017  -65.8  77.505  158.7  0.0057   76.2  0.8413  -23.7
 0.035  0.3161  -73.4  75.619  155.6  0.0064   74.1  0.8216  -27.3
 0.040  0.3356  -80.2  73.962  152.4  0.0072   72.5  0.8054  -31.1
 0.045  0.3501  -87.0  71.967  149.4  0.0080   70.1  0.7841  -34.5
 0.050  0.3691  -93.1  70.176  146.3  0.0088   68.1  0.7657  -38.0
 0.055  0.3831  -97.8  67.983  144.0  0.0093   67.0  0.7428  -41.0
 0.060  0.3994 -102.1  65.905  141.6  0.0098   66.0  0.7220  -44.2
 0.065  0.4133 -106.3  63.796  139.3  0.0103   64.8  0.6999  -46.9
 0.070  0.4293 -110.2  61.798  136.8  0.0108   63.8  0.6794  -49.7
 0.075  0.4415 -113.3  59.871  135.1  0.0113   62.9  0.6589  -52.2
 0.080  0.4549 -116.2  58.004  133.2  0.0118   62.1  0.6398  -54.8
 0.085  0.4621 -118.9  56.126  131.5  0.0122   61.3  0.6204  -57.0
 0.090  0.4703 -121.6  54.300  129.7  0.0126   60.5  0.6020  -59.3
 0.095  0.4763 -124.1  52.631  128.2  0.0129   60.1  0.5844  -61.3
 0.100  0.4833 -126.6  51.000  126.6  0.0133   59.7  0.5676  -63.4
 0.105  0.4895 -128.6  49.497  125.3  0.0136   59.4  0.5515  -65.2
 0.110  0.4962 -130.6  48.020  124.0  0.0140   59.1  0.5360  -67.2
 0.115  0.5007 -132.4  46.600  122.8  0.0143   58.6  0.5217  -68.9
 0.120  0.5057 -134.1  45.200  121.6  0.0146   58.2  0.5078  -70.6
 0.125  0.5110 -135.6  43.930  120.6  0.0149   58.1  0.4947  -72.2
 0.130  0.5167 -137.1  42.675  119.5  0.0152   58.1  0.4819  -73.8
 0.135  0.5204 -138.6  41.548  118.6  0.0154   58.2  0.4699  -75.2
 0.140  0.5245 -140.1  40.432  117.6  0.0157   58.2  0.4583  -76.7
 0.145  0.5275 -141.4  39.363  116.7  0.0159   58.3  0.4476  -78.1
 0.150  0.5308 -142.7  38.305  115.7  0.0162   58.3  0.4372  -79.5
 0.155  0.5325 -143.7  37.466  115.2  0.0165   58.4  0.4285  -80.4
 0.160  0.5344 -144.7  36.631  114.6  0.0167   58.5  0.4199  -81.4
 0.165  0.5365 -145.6  35.799  114.0  0.0170   58.6  0.4114  -82.4
 0.170  0.5387 -146.6  34.972  113.4  0.0173   58.6  0.4031  -83.5
 0.175  0.5410 -147.6  34.148  112.8  0.0175   58.7  0.3949  -84.6
 0.180  0.5435 -148.5  33.330  112.1  0.0178   58.8  0.3869  -85.7
 0.185  0.5462 -149.4  32.516  111.4  0.0181   58.9  0.3790  -86.9
 0.190  0.5490 -150.4  31.707  110.6  0.0184   59.0  0.3713  -88.2
 0.195  0.5519 -151.3  30.904  109.8  0.0186   59.0  0.3637  -89.5
 0.200  0.5550 -152.2  30.107  109.0  0.0189   59.1  0.3564  -90.8
 0.220  0.5587 -154.7  27.948  107.4  0.0199   59.9  0.3346  -94.0
 0.240  0.5635 -157.1  25.813  105.6  0.0209   60.7  0.3140  -97.7
 0.260  0.5677 -159.2  23.980  104.0  0.0219   61.4  0.2968 -101.1
 0.280  0.5711 -161.0  22.437  102.8  0.0230   62.1  0.2824 -104.0
 0.300  0.5750 -162.7  20.907  101.3  0.0240   62.8  0.2689 -107.2
 0.320  0.5768 -164.1  19.770  100.4  0.0250   63.5  0.2588 -109.6
 0.340  0.5788 -165.4  18.639   99.4  0.0261   64.1  0.2491 -112.1
 0.360  0.5805 -166.6  17.641   98.4  0.0271   64.7  0.2409 -114.5
 0.380  0.5817 -167.7  16.775   97.5  0.0282   65.3  0.2339 -116.6
 0.400  0.5830 -168.7  15.912   96.6  0.0293   65.8  0.2272 -118.9
 0.420  0.5842 -169.6  15.230   95.9  0.0304   66.3  0.2218 -120.8
 0.440  0.5855 -170.5  14.551   95.2  0.0315   66.9  0.2167 -122.7
 0.450  0.5862 -170.9  14.212   94.8  0.0320   67.1  0.2142 -123.7
 0.460  0.5867 -171.3  13.934   94.5  0.0326   67.3  0.2121 -124.5
 0.480  0.5878 -172.0  13.379   93.9  0.0337   67.7  0.2082 -126.3
 0.500  0.5890 -172.8  12.825   93.3  0.0348   68.1  0.2044 -128.1
 0.520  0.5897 -173.4  12.405   92.9  0.0359   68.5  0.2017 -129.5
 0.540  0.5904 -174.0  11.985   92.4  0.0371   68.8  0.1990 -130.9
 0.560  0.5913 -174.7  11.566   91.9  0.0382   69.2  0.1965 -132.3
 0.580  0.5921 -175.3  11.149   91.3  0.0394   69.5  0.1941 -133.8
 0.600  0.5931 -175.9  10.732   90.7  0.0405   69.8  0.1919 -135.3
 0.620  0.5935 -176.4  10.429   90.3  0.0416   70.0  0.1903 -136.4
 0.640  0.5940 -176.9  10.127   89.9  0.0427   70.3  0.1888 -137.5
 0.660  0.5946 -177.4   9.826   89.5  0.0439   70.5  0.1874 -138.7
 0.680  0.5952 -177.9   9.525   89.0  0.0450   70.7  0.1861 -139.8
 0.700  0.5958 -178.4   9.225   88.5  0.0461   70.9  0.1848 -141.0
 0.720  0.5962 -178.8   8.996   88.1  0.0472   71.1  0.1839 -141.9
 0.740  0.5967 -179.3   8.768   87.8  0.0484   71.2  0.1830 -142.9
 0.760  0.5971 -179.7   8.540   87.4  0.0495   71.4  0.1821 -143.8
 0.780  0.5976  179.8   8.313   86.9  0.0507   71.6  0.1813 -144.7
 0.800  0.5982  179.4   8.086   86.5  0.0518   71.7  0.1806 -145.7
 0.820  0.5987  179.0   7.909   86.2  0.0529   71.8  0.1802 -146.4
 0.840  0.5992  178.6   7.732   85.9  0.0541   72.0  0.1798 -147.2
 0.860  0.5998  178.3   7.555   85.6  0.0552   72.1  0.1795 -147.9
 0.880  0.6004  177.9   7.379   85.3  0.0564   72.2  0.1792 -148.7
 0.900  0.6010  177.5   7.203   84.9  0.0575   72.3  0.1789 -149.4
 0.920  0.6012  177.2   7.059   84.6  0.0587   72.4  0.1787 -150.0
 0.940  0.6015  176.8   6.915   84.3  0.0598   72.5  0.1786 -150.7
 0.960  0.6018  176.5   6.772   84.0  0.0610   72.5  0.1784 -151.3
 0.980  0.6021  176.1   6.628   83.6  0.0621   72.6  0.1783 -152.0
 1.000  0.6024  175.8   6.485   83.3  0.0633   72.7  0.1782 -152.6
 1.020  0.6028  175.5   6.370   83.0  0.0644   72.7  0.1782 -153.1
 1.040  0.6033  175.2   6.255   82.7  0.0656   72.8  0.1782 -153.6
 1.060  0.6038  174.9   6.141   82.4  0.0667   72.8  0.1783 -154.2
 1.080  0.6043  174.6   6.026   82.1  0.0679   72.9  0.1783 -154.7
 1.100  0.6048  174.3   5.912   81.8  0.0690   72.9  0.1784 -155.2
 1.120  0.6052  174.0   5.814   81.5  0.0701   72.9  0.1786 -155.7
 1.140  0.6056  173.7   5.716   81.2  0.0713   72.9  0.1789 -156.1
 1.160  0.6061  173.3   5.618   80.9  0.0724   73.0  0.1791 -156.6
 1.180  0.6065  173.0   5.520   80.6  0.0736   73.0  0.1794 -157.0
 1.200  0.6070  172.7   5.422   80.3  0.0747   73.0  0.1797 -157.5
 1.220  0.6072  172.4   5.340   80.1  0.0758   73.0  0.1799 -157.8
 1.240  0.6074  172.1   5.259   79.8  0.0770   73.0  0.1801 -158.2
 1.260  0.6076  171.9   5.177   79.5  0.0781   73.0  0.1803 -158.5
 1.280  0.6079  171.6   5.096   79.3  0.0793   73.0  0.1806 -158.9
 1.300  0.6081  171.3   5.015   79.0  0.0804   73.0  0.1808 -159.2
 1.320  0.6085  171.1   4.944   78.7  0.0815   73.0  0.1812 -159.5
 1.340  0.6090  170.8   4.873   78.5  0.0827   73.0  0.1816 -159.8
 1.360  0.6094  170.6   4.803   78.2  0.0838   73.0  0.1820 -160.2
 1.380  0.6099  170.3   4.732   77.9  0.0850   73.0  0.1825 -160.5
 1.400  0.6104  170.1   4.662   77.6  0.0861   73.0  0.1829 -160.8
 1.420  0.6109  169.8   4.602   77.4  0.0872   73.0  0.1832 -161.0
 1.440  0.6113  169.6   4.541   77.1  0.0884   73.0  0.1835 -161.3
 1.460  0.6118  169.3   4.481   76.8  0.0895   72.9  0.1838 -161.5
 1.480  0.6123  169.1   4.421   76.6  0.0907   72.9  0.1841 -161.8
 1.500  0.6128  168.8   4.361   76.3  0.0918   72.9  0.1844 -162.0
 1.520  0.6130  168.5   4.308   76.1  0.0929   72.9  0.1849 -162.2
 1.540  0.6132  168.3   4.254   75.8  0.0941   72.9  0.1853 -162.4
 1.560  0.6135  168.0   4.201   75.6  0.0952   72.8  0.1858 -162.6
 1.580  0.6137  167.8   4.148   75.4  0.0964   72.8  0.1862 -162.8
 1.600  0.6140  167.5   4.095   75.1  0.0975   72.8  0.1867 -163.0
 1.620  0.6143  167.3   4.048   74.9  0.0986   72.8  0.1870 -163.2
 1.640  0.6147  167.1   4.002   74.6  0.0997   72.7  0.1873 -163.4
 1.660  0.6151  166.8   3.956   74.4  0.1009   72.7  0.1877 -163.6
 1.680  0.6154  166.6   3.909   74.2  0.1020   72.6  0.1880 -163.8
 1.700  0.6158  166.4   3.863   73.9  0.1031   72.6  0.1883 -164.0
 1.720  0.6160  166.2   3.821   73.7  0.1042   72.6  0.1887 -164.1
 1.740  0.6162  166.0   3.778   73.4  0.1054   72.5  0.1891 -164.2
 1.760  0.6164  165.8   3.736   73.1  0.1065   72.5  0.1894 -164.3
 1.780  0.6167  165.6   3.694   72.9  0.1077   72.4  0.1898 -164.4
 1.800  0.6169  165.4   3.652   72.6  0.1088   72.4  0.1902 -164.5
 1.820  0.6173  165.2   3.614   72.4  0.1099   72.4  0.1906 -164.7
 1.840  0.6177  164.9   3.577   72.1  0.1110   72.3  0.1910 -164.9
 1.860  0.6181  164.7   3.540   71.9  0.1122   72.3  0.1914 -165.0
 1.880  0.6186  164.4   3.502   71.7  0.1133   72.2  0.1918 -165.2
 1.900  0.6190  164.2   3.465   71.4  0.1144   72.2  0.1922 -165.4
 1.920  0.6192  164.0   3.432   71.2  0.1155   72.1  0.1924 -165.4
 1.940  0.6194  163.8   3.399   71.0  0.1167   72.1  0.1927 -165.4
 1.960  0.6196  163.6   3.366   70.8  0.1178   72.0  0.1929 -165.5
 1.980  0.6198  163.4   3.334   70.5  0.1190   72.0  0.1932 -165.5
 2.000  0.6200  163.2   3.301   70.3  0.1201   71.9  0.1934 -165.5
 2.020  0.6200  163.0   3.272   70.1  0.1212   71.8  0.1937 -165.6
 2.040  0.6200  162.8   3.244   69.9  0.1223   71.8  0.1941 -165.7
 2.060  0.6200  162.6   3.215   69.7  0.1235   71.7  0.1944 -165.8
 2.080  0.6200  162.4   3.187   69.4  0.1246   71.6  0.1947 -165.9
 2.100  0.6200  162.1   3.158   69.2  0.1257   71.6  0.1950 -166.0
 2.120  0.6200  161.9   3.130   69.0  0.1268   71.5  0.1954 -166.0
 2.140  0.6201  161.7   3.102   68.7  0.1279   71.5  0.1957 -166.1
 2.160  0.6201  161.5   3.073   68.5  0.1291   71.4  0.1960 -166.2
 2.180  0.6201  161.3   3.045   68.2  0.1302   71.4  0.1964 -166.3
 2.200  0.6202  161.1   3.017   68.0  0.1313   71.3  0.1967 -166.4
 2.220  0.6204  160.9   2.993   67.8  0.1324   71.2  0.1969 -166.5
 2.240  0.6206  160.7   2.969   67.6  0.1335   71.2  0.1972 -166.6
 2.260  0.6209  160.5   2.945   67.4  0.1346   71.1  0.1974 -166.7
 2.280  0.6211  160.3   2.921   67.2  0.1357   71.1  0.1977 -166.8
 2.300  0.6214  160.1   2.897   67.0  0.1368   71.0  0.1979 -166.9
 2.320  0.6216  160.0   2.873   66.8  0.1380   71.0  0.1982 -166.9
 2.340  0.6219  159.8   2.849   66.6  0.1391   70.9  0.1984 -167.0
 2.360  0.6221  159.6   2.825   66.3  0.1402   70.9  0.1987 -167.1
 2.380  0.6224  159.4   2.801   66.1  0.1413   70.8  0.1989 -167.2
 2.400  0.6227  159.2   2.777   65.9  0.1424   70.8  0.1992 -167.3
 2.420  0.6227  159.0   2.757   65.7  0.1435   70.7  0.1994 -167.4
 2.440  0.6227  158.8   2.736   65.5  0.1446   70.7  0.1997 -167.4
 2.460  0.6227  158.6   2.716   65.3  0.1457   70.6  0.1999 -167.5
 2.480  0.6227  158.4   2.696   65.1  0.1468   70.5  0.2002 -167.6
 2.500  0.6227  158.2   2.676   64.8  0.1479   70.4  0.2004 -167.7
 2.520  0.6227  158.1   2.656   64.6  0.1491   70.4  0.2007 -167.7
 2.540  0.6227  157.9   2.636   64.4  0.1502   70.3  0.2009 -167.8
 2.560  0.6227  157.7   2.616   64.2  0.1513   70.2  0.2012 -167.9
 2.580  0.6228  157.5   2.596   63.9  0.1524   70.2  0.2014 -167.9
 2.600  0.6228  157.3   2.576   63.7  0.1535   70.1  0.2017 -168.0
 2.620  0.6229  157.1   2.559   63.5  0.1546   70.0  0.2019 -168.0
 2.640  0.6230  157.0   2.543   63.3  0.1558   70.0  0.2022 -168.1
 2.660  0.6230  156.8   2.526   63.1  0.1569   69.9  0.2024 -168.1
 2.680  0.6231  156.6   2.510   62.9  0.1581   69.8  0.2026 -168.2
 2.700  0.6232  156.4   2.494   62.7  0.1592   69.7  0.2028 -168.2
 2.720  0.6233  156.3   2.477   62.5  0.1603   69.7  0.2031 -168.2
 2.740  0.6234  156.1   2.461   62.3  0.1615   69.6  0.2033 -168.3
 2.760  0.6236  155.9   2.445   62.1  0.1626   69.5  0.2035 -168.3
 2.780  0.6237  155.8   2.428   61.9  0.1638   69.5  0.2038 -168.4
 2.800  0.6238  155.6   2.412   61.7  0.1649   69.4  0.2040 -168.4
 2.820  0.6237  155.4   2.397   61.5  0.1660   69.3  0.2041 -168.4
 2.840  0.6236  155.2   2.383   61.3  0.1671   69.3  0.2043 -168.4
 2.860  0.6235  155.1   2.368   61.1  0.1683   69.2  0.2044 -168.4
 2.880  0.6234  154.9   2.354   60.9  0.1694   69.1  0.2046 -168.4
 2.900  0.6234  154.7   2.339   60.7  0.1705   69.0  0.2047 -168.5
 2.920  0.6233  154.5   2.325   60.5  0.1716   69.0  0.2048 -168.5
 2.940  0.6232  154.3   2.310   60.3  0.1727   68.9  0.2050 -168.5
 2.960  0.6232  154.2   2.296   60.1  0.1739   68.8  0.2051 -168.5
 2.980  0.6231  154.0   2.281   59.9  0.1750   68.8  0.2053 -168.5
 3.000  0.6231  153.8   2.267   59.7  0.1761   68.7  0.2054 -168.5
 3.100  0.6224  152.8   2.210   58.8  0.1818   68.2  0.2059 -168.5
 3.200  0.6219  151.9   2.153   57.9  0.1875   67.7  0.2065 -168.4
 3.300  0.6216  150.9   2.097   56.9  0.1932   67.3  0.2070 -168.4
 3.400  0.6215  150.0   2.042   55.8  0.1990   66.9  0.2076 -168.3
 3.500  0.6215  149.0   1.987   54.7  0.2047   66.5  0.2081 -168.3
 3.600  0.6212  148.0   1.944   53.8  0.2102   66.0  0.2088 -168.3
 3.700  0.6210  147.0   1.902   52.9  0.2158   65.5  0.2096 -168.3
 3.800  0.6210  146.1   1.861   51.9  0.2214   65.0  0.2103 -168.4
 3.900  0.6212  145.1   1.819   50.9  0.2270   64.5  0.2111 -168.4
 4.000  0.6216  144.1   1.779   49.8  0.2326   64.1  0.2118 -168.4
 4.100  0.6216  143.2   1.746   49.0  0.2379   63.6  0.2137 -168.8
 4.200  0.6219  142.2   1.713   48.1  0.2431   63.0  0.2156 -169.2
 4.300  0.6222  141.3   1.681   47.2  0.2484   62.5  0.2175 -169.6
 4.400  0.6228  140.3   1.649   46.3  0.2538   62.1  0.2194 -169.9
 4.500  0.6235  139.4   1.617   45.3  0.2591   61.6  0.2213 -170.3
 4.600  0.6239  138.5   1.592   44.4  0.2645   61.1  0.2236 -170.9
 4.700  0.6245  137.6   1.567   43.5  0.2698   60.5  0.2260 -171.4
 4.800  0.6253  136.8   1.542   42.6  0.2752   60.0  0.2284 -172.0
 4.900  0.6262  135.9   1.518   41.6  0.2807   59.6  0.2308 -172.5
 5.000  0.6272  135.0   1.494   40.6  0.2861   59.1  0.2332 -173.0
 5.100  0.6277  134.0   1.472   39.7  0.2914   58.5  0.2349 -173.9
 5.200  0.6284  132.9   1.450   38.8  0.2967   57.9  0.2366 -174.7
 5.300  0.6293  131.9   1.429   37.9  0.3020   57.3  0.2384 -175.6
 5.400  0.6304  130.8   1.408   36.9  0.3074   56.7  0.2402 -176.4
 5.500  0.6317  129.8   1.388   35.9  0.3128   56.2  0.2421 -177.2
 5.600  0.6335  128.7   1.368   35.0  0.3174   55.5  0.2437 -178.6
 5.700  0.6356  127.6   1.348   34.1  0.3221   54.9  0.2455  179.9
 5.800  0.6379  126.5   1.328   33.2  0.3268   54.2  0.2475  178.5
 5.900  0.6404  125.5   1.309   32.3  0.3315   53.6  0.2496  177.2
 6.000  0.6431  124.4   1.290   31.3  0.3363   53.0  0.2518  175.8
!
!  f       NFmin   Gammaopt  rn/50
! GHz       dB    MAG  ANG    -
 0.450      1.82  0.48 -174   0.08
 0.900      1.81  0.50 -171   0.08
 1.800      2.07  0.53 -159   0.11
 1.900      2.18  0.54 -159   0.11
 2.400      2.25  0.55 -150   0.15
 3.500      2.95  0.58 -140   0.28
!
! (c) 2015  Infineon Technologies AG, Munich
