! Infineon Technologies  Discrete & RF Semiconductors
! BFR340F
! VCE =  5.0 V,  IC =  12 mA
! Common Emitter S-Parameters:                            Nov 2015
# GHz  S  MA  R  50
!  f         S11            S21            S12            S22
! GHz     MAG   ANG      MAG   ANG      MAG   ANG      MAG   ANG
 0.030  0.7896   -4.9  19.406  175.6  0.0035   83.6  0.9779   -2.2
 0.035  0.7894   -5.8  19.364  174.9  0.0040   85.2  0.9774   -2.6
 0.040  0.7894   -6.8  19.324  174.2  0.0046   86.5  0.9770   -3.0
 0.045  0.7888   -7.5  19.258  173.4  0.0051   86.3  0.9767   -3.4
 0.050  0.7883   -8.3  19.196  172.5  0.0057   86.1  0.9765   -3.9
 0.055  0.7890   -9.3  19.168  172.1  0.0062   85.1  0.9759   -4.3
 0.060  0.7899  -10.3  19.141  171.6  0.0068   84.3  0.9754   -4.8
 0.065  0.7859  -11.1  19.185  170.8  0.0073   84.6  0.9745   -5.2
 0.070  0.7820  -11.9  19.233  170.1  0.0079   84.9  0.9736   -5.7
 0.075  0.7817  -12.8  19.174  169.7  0.0085   83.9  0.9722   -6.1
 0.080  0.7816  -13.7  19.116  169.3  0.0091   83.1  0.9709   -6.5
 0.085  0.7793  -14.5  19.087  168.6  0.0096   82.7  0.9692   -6.9
 0.090  0.7772  -15.4  19.061  167.9  0.0102   82.4  0.9675   -7.4
 0.095  0.7762  -16.1  18.972  167.3  0.0107   81.6  0.9659   -7.8
 0.100  0.7753  -16.9  18.886  166.6  0.0112   80.8  0.9643   -8.2
 0.105  0.7735  -17.7  18.863  166.0  0.0117   80.6  0.9622   -8.6
 0.110  0.7719  -18.5  18.842  165.4  0.0123   80.4  0.9601   -9.0
 0.115  0.7693  -19.4  18.814  164.8  0.0128   80.0  0.9580   -9.4
 0.120  0.7669  -20.3  18.789  164.1  0.0133   79.6  0.9560   -9.8
 0.125  0.7652  -21.1  18.731  163.5  0.0138   79.3  0.9535  -10.2
 0.130  0.7637  -21.9  18.676  162.9  0.0143   79.1  0.9511  -10.6
 0.135  0.7605  -22.7  18.642  162.3  0.0148   78.7  0.9488  -10.9
 0.140  0.7575  -23.5  18.611  161.6  0.0154   78.4  0.9465  -11.3
 0.145  0.7560  -24.3  18.526  160.9  0.0158   77.9  0.9439  -11.7
 0.150  0.7547  -25.2  18.444  160.2  0.0163   77.5  0.9414  -12.1
 0.155  0.7513  -25.9  18.374  159.6  0.0168   77.1  0.9384  -12.4
 0.160  0.7480  -26.7  18.306  159.1  0.0173   76.8  0.9354  -12.8
 0.165  0.7448  -27.4  18.240  158.5  0.0177   76.4  0.9325  -13.1
 0.170  0.7417  -28.2  18.175  157.9  0.0182   76.1  0.9295  -13.5
 0.175  0.7388  -28.9  18.113  157.3  0.0187   75.8  0.9267  -13.8
 0.180  0.7360  -29.7  18.052  156.7  0.0192   75.5  0.9238  -14.2
 0.185  0.7333  -30.5  17.994  156.1  0.0197   75.2  0.9210  -14.5
 0.190  0.7308  -31.2  17.937  155.5  0.0201   75.0  0.9182  -14.9
 0.195  0.7284  -32.0  17.883  154.9  0.0206   74.7  0.9155  -15.2
 0.200  0.7261  -32.8  17.830  154.3  0.0211   74.5  0.9128  -15.6
 0.220  0.7130  -35.7  17.510  152.1  0.0228   73.2  0.8996  -16.8
 0.240  0.7018  -38.7  17.217  149.9  0.0245   72.0  0.8868  -18.1
 0.260  0.6898  -41.5  16.905  147.7  0.0262   70.9  0.8736  -19.2
 0.280  0.6768  -44.2  16.568  145.7  0.0277   69.9  0.8598  -20.3
 0.300  0.6653  -47.0  16.253  143.6  0.0293   68.9  0.8463  -21.4
 0.320  0.6517  -49.4  15.909  141.8  0.0307   68.0  0.8325  -22.3
 0.340  0.6393  -52.0  15.581  140.0  0.0321   67.2  0.8189  -23.2
 0.360  0.6270  -54.4  15.251  138.2  0.0334   66.4  0.8056  -24.0
 0.380  0.6146  -56.7  14.917  136.5  0.0347   65.7  0.7924  -24.8
 0.400  0.6032  -59.1  14.596  134.8  0.0359   65.1  0.7793  -25.5
 0.420  0.5905  -61.2  14.276  133.3  0.0370   64.5  0.7669  -26.1
 0.440  0.5786  -63.5  13.965  131.8  0.0381   64.0  0.7545  -26.8
 0.450  0.5730  -64.6  13.814  131.0  0.0387   63.7  0.7484  -27.1
 0.460  0.5670  -65.6  13.663  130.3  0.0392   63.4  0.7425  -27.4
 0.480  0.5556  -67.7  13.366  128.9  0.0403   63.0  0.7306  -27.9
 0.500  0.5450  -69.8  13.077  127.5  0.0413   62.5  0.7189  -28.5
 0.520  0.5341  -71.6  12.799  126.4  0.0422   62.2  0.7085  -28.9
 0.540  0.5238  -73.4  12.527  125.2  0.0431   61.8  0.6982  -29.2
 0.560  0.5141  -75.3  12.260  123.9  0.0440   61.5  0.6878  -29.6
 0.580  0.5049  -77.3  11.999  122.6  0.0449   61.2  0.6776  -30.0
 0.600  0.4963  -79.3  11.745  121.3  0.0458   60.9  0.6673  -30.4
 0.620  0.4872  -80.9  11.508  120.4  0.0466   60.7  0.6587  -30.6
 0.640  0.4785  -82.5  11.274  119.4  0.0474   60.6  0.6501  -30.9
 0.660  0.4701  -84.2  11.044  118.4  0.0483   60.4  0.6415  -31.2
 0.680  0.4622  -86.0  10.817  117.3  0.0491   60.2  0.6329  -31.4
 0.700  0.4548  -87.8  10.594  116.2  0.0499   60.1  0.6243  -31.7
 0.720  0.4473  -89.2  10.393  115.4  0.0507   60.0  0.6173  -31.9
 0.740  0.4401  -90.7  10.193  114.6  0.0514   60.0  0.6102  -32.0
 0.760  0.4333  -92.2   9.996  113.7  0.0522   59.9  0.6032  -32.2
 0.780  0.4267  -93.7   9.801  112.8  0.0529   59.9  0.5961  -32.3
 0.800  0.4204  -95.3   9.609  111.9  0.0537   59.8  0.5891  -32.5
 0.820  0.4145  -96.6   9.441  111.2  0.0544   59.8  0.5832  -32.6
 0.840  0.4088  -98.0   9.275  110.5  0.0551   59.8  0.5773  -32.7
 0.860  0.4033  -99.4   9.111  109.8  0.0558   59.7  0.5715  -32.9
 0.880  0.3981 -100.8   8.947  109.0  0.0565   59.7  0.5656  -33.0
 0.900  0.3932 -102.3   8.786  108.2  0.0572   59.7  0.5597  -33.1
 0.920  0.3883 -103.5   8.642  107.6  0.0579   59.7  0.5548  -33.2
 0.940  0.3835 -104.8   8.499  106.9  0.0586   59.8  0.5499  -33.3
 0.960  0.3789 -106.1   8.357  106.3  0.0593   59.8  0.5450  -33.3
 0.980  0.3746 -107.4   8.216  105.6  0.0600   59.9  0.5401  -33.4
 1.000  0.3704 -108.8   8.076  104.9  0.0607   59.9  0.5352  -33.5
 1.020  0.3664 -109.9   7.951  104.4  0.0614   60.0  0.5312  -33.6
 1.040  0.3626 -111.0   7.826  103.8  0.0621   60.0  0.5273  -33.6
 1.060  0.3590 -112.2   7.703  103.2  0.0627   60.1  0.5233  -33.7
 1.080  0.3555 -113.4   7.580  102.6  0.0634   60.1  0.5194  -33.7
 1.100  0.3521 -114.6   7.458  102.0  0.0641   60.2  0.5154  -33.8
 1.120  0.3488 -115.7   7.351  101.5  0.0648   60.3  0.5119  -33.9
 1.140  0.3457 -116.9   7.244  101.0  0.0655   60.4  0.5084  -33.9
 1.160  0.3427 -118.0   7.137  100.4  0.0661   60.4  0.5048  -34.0
 1.180  0.3398 -119.2   7.032   99.9  0.0668   60.5  0.5013  -34.0
 1.200  0.3371 -120.4   6.927   99.3  0.0675   60.6  0.4978  -34.1
 1.220  0.3344 -121.4   6.833   98.8  0.0682   60.7  0.4950  -34.2
 1.240  0.3318 -122.3   6.739   98.4  0.0689   60.8  0.4922  -34.2
 1.260  0.3293 -123.3   6.646   97.9  0.0695   60.9  0.4895  -34.3
 1.280  0.3269 -124.3   6.553   97.4  0.0702   61.0  0.4867  -34.3
 1.300  0.3246 -125.3   6.461   96.9  0.0709   61.1  0.4839  -34.4
 1.320  0.3227 -126.3   6.378   96.5  0.0716   61.2  0.4813  -34.5
 1.340  0.3208 -127.2   6.295   96.1  0.0723   61.3  0.4787  -34.5
 1.360  0.3191 -128.2   6.212   95.6  0.0729   61.4  0.4762  -34.6
 1.380  0.3175 -129.2   6.130   95.2  0.0736   61.5  0.4736  -34.6
 1.400  0.3159 -130.2   6.048   94.7  0.0743   61.6  0.4710  -34.7
 1.420  0.3138 -131.1   5.976   94.3  0.0750   61.7  0.4691  -34.8
 1.440  0.3119 -132.0   5.905   93.9  0.0757   61.8  0.4672  -34.8
 1.460  0.3100 -132.9   5.833   93.4  0.0763   61.8  0.4652  -34.9
 1.480  0.3081 -133.9   5.762   93.0  0.0770   61.9  0.4633  -34.9
 1.500  0.3064 -134.8   5.692   92.5  0.0777   62.0  0.4614  -35.0
 1.520  0.3051 -135.7   5.627   92.1  0.0784   62.1  0.4595  -35.1
 1.540  0.3039 -136.6   5.562   91.8  0.0791   62.2  0.4576  -35.1
 1.560  0.3028 -137.5   5.497   91.4  0.0798   62.3  0.4558  -35.2
 1.580  0.3017 -138.4   5.432   91.0  0.0805   62.4  0.4539  -35.2
 1.600  0.3007 -139.3   5.368   90.6  0.0812   62.5  0.4520  -35.3
 1.620  0.2996 -140.0   5.311   90.3  0.0819   62.6  0.4506  -35.4
 1.640  0.2986 -140.8   5.253   89.9  0.0826   62.7  0.4492  -35.5
 1.660  0.2976 -141.5   5.196   89.5  0.0833   62.7  0.4477  -35.5
 1.680  0.2966 -142.3   5.140   89.2  0.0840   62.8  0.4463  -35.6
 1.700  0.2957 -143.0   5.083   88.8  0.0847   62.9  0.4449  -35.7
 1.720  0.2950 -143.7   5.030   88.5  0.0854   63.0  0.4437  -35.8
 1.740  0.2943 -144.4   4.978   88.1  0.0861   63.1  0.4424  -35.8
 1.760  0.2936 -145.1   4.926   87.8  0.0867   63.2  0.4412  -35.9
 1.780  0.2931 -145.8   4.874   87.5  0.0874   63.3  0.4399  -35.9
 1.800  0.2925 -146.5   4.822   87.1  0.0881   63.4  0.4387  -36.0
 1.820  0.2917 -147.2   4.776   86.8  0.0888   63.5  0.4375  -36.1
 1.840  0.2910 -148.0   4.730   86.5  0.0895   63.6  0.4363  -36.2
 1.860  0.2903 -148.7   4.685   86.2  0.0903   63.6  0.4352  -36.4
 1.880  0.2897 -149.5   4.639   85.8  0.0910   63.7  0.4340  -36.5
 1.900  0.2891 -150.2   4.594   85.5  0.0917   63.8  0.4328  -36.6
 1.920  0.2883 -150.8   4.552   85.2  0.0924   63.9  0.4320  -36.7
 1.940  0.2874 -151.4   4.510   84.8  0.0931   64.0  0.4312  -36.7
 1.960  0.2867 -152.0   4.468   84.5  0.0939   64.0  0.4304  -36.8
 1.980  0.2859 -152.6   4.426   84.2  0.0946   64.1  0.4296  -36.8
 2.000  0.2852 -153.2   4.384   83.8  0.0953   64.2  0.4288  -36.9
 2.020  0.2847 -153.8   4.346   83.5  0.0960   64.3  0.4281  -37.0
 2.040  0.2842 -154.4   4.309   83.3  0.0967   64.3  0.4273  -37.1
 2.060  0.2837 -155.0   4.271   83.0  0.0975   64.4  0.4266  -37.2
 2.080  0.2833 -155.7   4.234   82.7  0.0982   64.5  0.4258  -37.3
 2.100  0.2829 -156.3   4.197   82.4  0.0989   64.6  0.4251  -37.4
 2.120  0.2825 -156.9   4.160   82.1  0.0996   64.6  0.4243  -37.6
 2.140  0.2822 -157.5   4.122   81.8  0.1003   64.7  0.4236  -37.7
 2.160  0.2819 -158.1   4.086   81.5  0.1011   64.8  0.4229  -37.8
 2.180  0.2816 -158.8   4.049   81.2  0.1018   64.8  0.4221  -37.9
 2.200  0.2814 -159.4   4.012   80.9  0.1025   64.9  0.4214  -38.0
 2.220  0.2812 -159.9   3.981   80.6  0.1032   65.0  0.4208  -38.1
 2.240  0.2809 -160.4   3.951   80.4  0.1040   65.0  0.4202  -38.2
 2.260  0.2807 -161.0   3.920   80.1  0.1047   65.1  0.4196  -38.3
 2.280  0.2806 -161.5   3.890   79.8  0.1055   65.2  0.4190  -38.4
 2.300  0.2804 -162.0   3.860   79.6  0.1062   65.2  0.4184  -38.5
 2.320  0.2803 -162.5   3.830   79.3  0.1069   65.3  0.4178  -38.7
 2.340  0.2802 -163.0   3.800   79.0  0.1077   65.3  0.4172  -38.8
 2.360  0.2801 -163.6   3.770   78.7  0.1084   65.4  0.4166  -38.9
 2.380  0.2800 -164.1   3.740   78.4  0.1092   65.4  0.4160  -39.0
 2.400  0.2800 -164.6   3.710   78.1  0.1099   65.5  0.4154  -39.1
 2.420  0.2798 -165.1   3.683   77.8  0.1106   65.6  0.4150  -39.2
 2.440  0.2797 -165.6   3.656   77.6  0.1114   65.6  0.4145  -39.4
 2.460  0.2796 -166.1   3.630   77.3  0.1121   65.7  0.4141  -39.5
 2.480  0.2795 -166.6   3.603   77.1  0.1129   65.7  0.4136  -39.6
 2.500  0.2794 -167.1   3.577   76.8  0.1136   65.8  0.4132  -39.7
 2.520  0.2793 -167.7   3.550   76.5  0.1144   65.8  0.4127  -39.9
 2.540  0.2793 -168.2   3.524   76.3  0.1151   65.9  0.4123  -40.0
 2.560  0.2793 -168.7   3.497   76.0  0.1159   65.9  0.4119  -40.1
 2.580  0.2793 -169.2   3.471   75.7  0.1166   66.0  0.4114  -40.3
 2.600  0.2793 -169.7   3.445   75.4  0.1174   66.0  0.4110  -40.4
 2.620  0.2791 -170.1   3.422   75.2  0.1182   66.0  0.4107  -40.5
 2.640  0.2790 -170.5   3.400   74.9  0.1189   66.1  0.4104  -40.7
 2.660  0.2789 -170.9   3.377   74.7  0.1197   66.1  0.4102  -40.8
 2.680  0.2788 -171.3   3.354   74.5  0.1204   66.1  0.4099  -41.0
 2.700  0.2787 -171.7   3.332   74.2  0.1212   66.2  0.4096  -41.1
 2.720  0.2786 -172.2   3.309   74.0  0.1220   66.2  0.4093  -41.3
 2.740  0.2785 -172.6   3.287   73.8  0.1227   66.2  0.4091  -41.4
 2.760  0.2785 -173.0   3.265   73.5  0.1235   66.2  0.4088  -41.6
 2.780  0.2784 -173.4   3.242   73.3  0.1242   66.3  0.4086  -41.7
 2.800  0.2784 -173.8   3.220   73.0  0.1250   66.3  0.4083  -41.9
 2.820  0.2784 -174.2   3.200   72.8  0.1258   66.3  0.4082  -42.0
 2.840  0.2783 -174.5   3.180   72.5  0.1265   66.4  0.4081  -42.2
 2.860  0.2783 -174.9   3.160   72.3  0.1273   66.4  0.4080  -42.3
 2.880  0.2783 -175.3   3.140   72.1  0.1280   66.5  0.4079  -42.5
 2.900  0.2784 -175.7   3.120   71.8  0.1288   66.5  0.4078  -42.6
 2.920  0.2784 -176.0   3.101   71.6  0.1296   66.5  0.4077  -42.7
 2.940  0.2784 -176.4   3.081   71.4  0.1303   66.6  0.4076  -42.9
 2.960  0.2785 -176.8   3.061   71.1  0.1311   66.6  0.4076  -43.0
 2.980  0.2785 -177.1   3.042   70.9  0.1318   66.7  0.4075  -43.2
 3.000  0.2786 -177.5   3.022   70.6  0.1326   66.7  0.4074  -43.3
 3.100  0.2774 -179.2   2.942   69.6  0.1366   66.8  0.4082  -43.9
 3.200  0.2765  179.0   2.863   68.6  0.1405   66.9  0.4090  -44.6
 3.300  0.2758  177.2   2.784   67.5  0.1445   67.0  0.4099  -45.2
 3.400  0.2754  175.5   2.707   66.4  0.1484   67.1  0.4109  -45.9
 3.500  0.2753  173.7   2.631   65.2  0.1524   67.2  0.4119  -46.5
 3.600  0.2745  172.1   2.572   64.3  0.1565   67.2  0.4130  -47.1
 3.700  0.2740  170.5   2.514   63.4  0.1606   67.2  0.4142  -47.7
 3.800  0.2736  168.9   2.457   62.5  0.1648   67.3  0.4154  -48.3
 3.900  0.2735  167.3   2.400   61.5  0.1689   67.3  0.4167  -48.9
 4.000  0.2736  165.7   2.344   60.4  0.1730   67.3  0.4180  -49.5
 4.100  0.2744  164.2   2.299   59.5  0.1773   67.3  0.4176  -50.2
 4.200  0.2753  162.7   2.255   58.6  0.1816   67.3  0.4172  -51.0
 4.300  0.2765  161.3   2.212   57.7  0.1860   67.2  0.4169  -51.7
 4.400  0.2778  159.8   2.169   56.7  0.1903   67.2  0.4167  -52.5
 4.500  0.2793  158.4   2.127   55.7  0.1946   67.2  0.4165  -53.2
 4.600  0.2812  156.9   2.093   54.8  0.1991   67.1  0.4152  -54.1
 4.700  0.2832  155.3   2.060   53.9  0.2035   66.9  0.4139  -55.0
 4.800  0.2855  153.8   2.028   53.0  0.2080   66.8  0.4128  -55.9
 4.900  0.2880  152.4   1.995   52.0  0.2124   66.7  0.4118  -56.9
 5.000  0.2906  150.9   1.964   51.0  0.2169   66.6  0.4109  -57.8
 5.100  0.2926  149.4   1.936   50.2  0.2216   66.4  0.4095  -58.6
 5.200  0.2948  147.8   1.908   49.3  0.2263   66.3  0.4082  -59.5
 5.300  0.2973  146.3   1.880   48.4  0.2310   66.2  0.4070  -60.3
 5.400  0.2999  144.8   1.853   47.5  0.2357   66.0  0.4058  -61.2
 5.500  0.3027  143.4   1.827   46.6  0.2404   65.9  0.4048  -62.0
 5.600  0.3053  142.0   1.803   45.8  0.2455   65.7  0.4029  -63.0
 5.700  0.3082  140.6   1.780   45.0  0.2506   65.5  0.4011  -64.1
 5.800  0.3112  139.2   1.757   44.1  0.2558   65.3  0.3994  -65.1
 5.900  0.3144  137.9   1.734   43.3  0.2609   65.1  0.3979  -66.1
 6.000  0.3177  136.6   1.712   42.4  0.2660   64.9  0.3965  -67.2
!
!  f       NFmin   Gammaopt  rn/50
! GHz       dB    MAG  ANG    -
 0.450      1.62  0.17   -3   0.26
 0.900      1.82  0.15    6   0.31
 1.900      2.52  0.09 -101   0.34
 2.400      2.96  0.14 -129   0.33
!
! (c) 2015  Infineon Technologies AG, Munich
