! Infineon Technologies  Discrete & RF Semiconductors
! BFR35AP
! VCE =  2.0 V,  IC =  1.5 mA
! Common Emitter S-Parameters:                            Nov 2015
# GHz  S  MA  R  50
!  f         S11            S21            S12            S22
! GHz     MAG   ANG      MAG   ANG      MAG   ANG      MAG   ANG
 0.010  0.9342   -1.8   5.048  178.9  0.0032   90.9  0.9993   -0.8
 0.015  0.9296   -2.8   5.056  177.9  0.0051   87.9  0.9952   -1.2
 0.020  0.9252   -3.8   5.066  176.9  0.0070   86.6  0.9911   -1.7
 0.025  0.9258   -4.7   5.079  176.1  0.0087   86.0  0.9910   -2.1
 0.030  0.9267   -5.6   5.094  175.4  0.0104   85.6  0.9910   -2.6
 0.035  0.9278   -6.6   5.109  174.6  0.0121   85.2  0.9911   -3.0
 0.040  0.9291   -7.5   5.125  173.9  0.0138   85.0  0.9912   -3.4
 0.045  0.9307   -8.4   5.142  173.1  0.0155   84.8  0.9914   -3.9
 0.050  0.9325   -9.3   5.160  172.4  0.0172   84.7  0.9916   -4.3
 0.055  0.9294  -10.2   5.144  171.7  0.0188   83.8  0.9898   -4.7
 0.060  0.9265  -11.0   5.128  171.0  0.0205   83.0  0.9881   -5.1
 0.065  0.9238  -11.9   5.114  170.3  0.0221   82.3  0.9865   -5.5
 0.070  0.9213  -12.8   5.100  169.6  0.0238   81.8  0.9848   -6.0
 0.075  0.9191  -13.6   5.087  168.8  0.0254   81.3  0.9833   -6.4
 0.080  0.9170  -14.5   5.075  168.1  0.0271   80.8  0.9818   -6.8
 0.085  0.9152  -15.4   5.063  167.4  0.0287   80.4  0.9803   -7.2
 0.090  0.9136  -16.3   5.053  166.7  0.0304   80.1  0.9789   -7.6
 0.095  0.9123  -17.2   5.043  165.9  0.0320   79.8  0.9776   -8.1
 0.100  0.9111  -18.1   5.034  165.2  0.0337   79.5  0.9763   -8.5
 0.105  0.9073  -19.0   5.020  164.4  0.0353   78.7  0.9744   -8.9
 0.110  0.9037  -19.8   5.007  163.6  0.0369   77.9  0.9725   -9.3
 0.115  0.9003  -20.7   4.996  162.7  0.0385   77.2  0.9707   -9.7
 0.120  0.8971  -21.6   4.985  161.9  0.0401   76.6  0.9689  -10.1
 0.125  0.8941  -22.5   4.975  161.1  0.0417   76.0  0.9672  -10.5
 0.130  0.8913  -23.4   4.967  160.3  0.0434   75.4  0.9655  -10.9
 0.135  0.8888  -24.3   4.959  159.4  0.0450   74.9  0.9639  -11.3
 0.140  0.8865  -25.2   4.953  158.6  0.0466   74.5  0.9623  -11.7
 0.145  0.8844  -26.1   4.947  157.7  0.0483   74.0  0.9608  -12.1
 0.150  0.8825  -27.0   4.943  156.9  0.0499   73.6  0.9593  -12.5
 0.155  0.8788  -27.8   4.926  156.2  0.0513   73.1  0.9565  -12.9
 0.160  0.8752  -28.6   4.910  155.6  0.0526   72.6  0.9538  -13.2
 0.165  0.8719  -29.5   4.895  154.9  0.0540   72.1  0.9511  -13.6
 0.170  0.8687  -30.3   4.880  154.2  0.0553   71.6  0.9485  -14.0
 0.175  0.8657  -31.1   4.866  153.5  0.0567   71.2  0.9459  -14.3
 0.180  0.8629  -32.0   4.853  152.9  0.0581   70.8  0.9433  -14.7
 0.185  0.8602  -32.8   4.840  152.2  0.0595   70.4  0.9408  -15.1
 0.190  0.8578  -33.7   4.828  151.5  0.0608   70.0  0.9383  -15.4
 0.195  0.8556  -34.5   4.817  150.8  0.0622   69.6  0.9358  -15.8
 0.200  0.8535  -35.4   4.806  150.1  0.0636   69.3  0.9334  -16.2
 0.220  0.8384  -38.5   4.704  147.6  0.0688   67.2  0.9214  -17.5
 0.240  0.8257  -41.7   4.611  145.0  0.0741   65.3  0.9099  -18.7
 0.260  0.8116  -44.8   4.527  142.4  0.0790   63.7  0.8983  -19.9
 0.280  0.7957  -47.8   4.450  139.8  0.0835   62.2  0.8865  -21.1
 0.300  0.7821  -51.0   4.383  137.2  0.0880   60.9  0.8750  -22.2
 0.320  0.7621  -53.7   4.296  135.2  0.0914   59.4  0.8618  -23.1
 0.340  0.7438  -56.4   4.215  133.2  0.0948   57.9  0.8488  -24.1
 0.360  0.7274  -59.4   4.139  131.1  0.0983   56.6  0.8361  -25.1
 0.380  0.7129  -62.4   4.070  128.9  0.1019   55.4  0.8237  -26.1
 0.400  0.7006  -65.6   4.006  126.6  0.1055   54.2  0.8115  -27.2
 0.420  0.6848  -67.9   3.906  124.8  0.1080   53.1  0.7996  -27.9
 0.440  0.6702  -70.3   3.810  123.0  0.1106   52.0  0.7878  -28.6
 0.450  0.6633  -71.5   3.763  122.0  0.1119   51.4  0.7820  -29.0
 0.460  0.6567  -72.7   3.718  121.0  0.1132   50.9  0.7762  -29.4
 0.480  0.6446  -75.3   3.630  119.0  0.1158   49.9  0.7647  -30.1
 0.500  0.6338  -78.0   3.548  116.8  0.1185   49.0  0.7533  -30.9
 0.520  0.6217  -80.2   3.478  115.3  0.1207   48.2  0.7447  -31.4
 0.540  0.6106  -82.4   3.410  113.8  0.1229   47.4  0.7361  -31.9
 0.560  0.6005  -84.8   3.345  112.2  0.1251   46.6  0.7276  -32.4
 0.580  0.5914  -87.2   3.283  110.5  0.1273   45.8  0.7191  -33.0
 0.600  0.5834  -89.7   3.223  108.8  0.1296   45.1  0.7107  -33.5
 0.620  0.5703  -91.7   3.165  107.4  0.1311   44.5  0.7030  -33.9
 0.640  0.5579  -93.7   3.109  106.0  0.1326   43.9  0.6952  -34.4
 0.660  0.5462  -95.9   3.055  104.5  0.1341   43.3  0.6876  -34.8
 0.680  0.5354  -98.2   3.004  103.0  0.1356   42.7  0.6800  -35.3
 0.700  0.5254 -100.5   2.954  101.4  0.1371   42.1  0.6724  -35.8
 0.720  0.5158 -102.4   2.898  100.2  0.1383   41.7  0.6654  -36.1
 0.740  0.5067 -104.4   2.844   98.9  0.1394   41.2  0.6584  -36.5
 0.760  0.4984 -106.5   2.791   97.6  0.1406   40.8  0.6515  -36.9
 0.780  0.4906 -108.6   2.740   96.2  0.1418   40.4  0.6446  -37.2
 0.800  0.4836 -110.8   2.690   94.8  0.1430   40.0  0.6377  -37.6
 0.820  0.4751 -112.6   2.645   93.7  0.1438   39.8  0.6315  -37.9
 0.840  0.4672 -114.5   2.602   92.6  0.1446   39.6  0.6253  -38.2
 0.860  0.4598 -116.5   2.559   91.4  0.1455   39.3  0.6192  -38.5
 0.880  0.4529 -118.5   2.518   90.2  0.1463   39.1  0.6130  -38.9
 0.900  0.4466 -120.6   2.478   88.9  0.1471   38.9  0.6069  -39.2
 0.920  0.4401 -122.3   2.439   87.9  0.1479   38.7  0.6026  -39.5
 0.940  0.4341 -124.1   2.401   87.0  0.1488   38.4  0.5984  -39.8
 0.960  0.4285 -126.0   2.363   85.9  0.1496   38.2  0.5941  -40.1
 0.980  0.4234 -127.9   2.326   84.9  0.1505   37.9  0.5899  -40.4
 1.000  0.4187 -129.8   2.290   83.8  0.1513   37.7  0.5857  -40.7
 1.020  0.4149 -131.6   2.258   82.9  0.1522   37.6  0.5821  -41.0
 1.040  0.4114 -133.4   2.227   82.0  0.1530   37.5  0.5785  -41.4
 1.060  0.4084 -135.2   2.196   81.0  0.1539   37.4  0.5750  -41.7
 1.080  0.4058 -137.1   2.166   80.0  0.1547   37.3  0.5714  -42.1
 1.100  0.4037 -139.0   2.137   79.0  0.1556   37.2  0.5679  -42.4
 1.120  0.3989 -140.7   2.108   78.1  0.1563   37.1  0.5649  -42.7
 1.140  0.3945 -142.4   2.080   77.2  0.1570   37.0  0.5619  -43.0
 1.160  0.3904 -144.2   2.053   76.3  0.1578   36.8  0.5589  -43.3
 1.180  0.3867 -146.0   2.025   75.3  0.1585   36.7  0.5559  -43.6
 1.200  0.3834 -147.8   1.999   74.3  0.1592   36.6  0.5530  -43.9
 1.220  0.3811 -149.3   1.973   73.5  0.1600   36.6  0.5503  -44.2
 1.240  0.3791 -150.9   1.948   72.8  0.1608   36.6  0.5476  -44.5
 1.260  0.3774 -152.4   1.923   72.0  0.1617   36.6  0.5449  -44.7
 1.280  0.3760 -154.0   1.899   71.1  0.1625   36.6  0.5423  -45.0
 1.300  0.3748 -155.6   1.875   70.3  0.1633   36.6  0.5396  -45.3
 1.320  0.3720 -157.2   1.853   69.5  0.1639   36.6  0.5374  -45.6
 1.340  0.3695 -158.8   1.831   68.7  0.1645   36.6  0.5351  -46.0
 1.360  0.3672 -160.5   1.809   67.8  0.1650   36.6  0.5329  -46.3
 1.380  0.3653 -162.1   1.788   67.0  0.1656   36.6  0.5308  -46.7
 1.400  0.3637 -163.8   1.767   66.1  0.1662   36.6  0.5286  -47.0
 1.420  0.3625 -165.2   1.752   65.4  0.1670   36.7  0.5261  -47.3
 1.440  0.3616 -166.6   1.737   64.7  0.1678   36.9  0.5236  -47.6
 1.460  0.3608 -168.0   1.723   63.9  0.1687   37.0  0.5212  -47.8
 1.480  0.3603 -169.5   1.709   63.2  0.1695   37.2  0.5187  -48.1
 1.500  0.3600 -170.9   1.695   62.4  0.1703   37.3  0.5163  -48.4
 1.520  0.3592 -172.5   1.676   61.6  0.1712   37.3  0.5142  -48.7
 1.540  0.3588 -174.1   1.657   60.8  0.1721   37.3  0.5122  -49.1
 1.560  0.3586 -175.7   1.638   60.0  0.1731   37.4  0.5101  -49.4
 1.580  0.3586 -177.3   1.620   59.2  0.1740   37.4  0.5081  -49.8
 1.600  0.3590 -178.9   1.602   58.3  0.1749   37.4  0.5061  -50.1
 1.620  0.3578  179.5   1.589   57.7  0.1758   37.7  0.5033  -50.4
 1.640  0.3568  177.9   1.576   57.0  0.1766   37.9  0.5004  -50.8
 1.660  0.3562  176.3   1.563   56.4  0.1775   38.2  0.4976  -51.1
 1.680  0.3558  174.6   1.550   55.7  0.1783   38.4  0.4949  -51.5
 1.700  0.3557  173.0   1.538   55.0  0.1792   38.7  0.4921  -51.8
 1.720  0.3561  171.8   1.524   54.4  0.1805   38.8  0.4907  -52.1
 1.740  0.3567  170.7   1.509   53.8  0.1817   38.9  0.4893  -52.5
 1.760  0.3575  169.5   1.495   53.2  0.1830   38.9  0.4879  -52.8
 1.780  0.3584  168.3   1.482   52.5  0.1842   39.0  0.4865  -53.2
 1.800  0.3594  167.2   1.468   51.9  0.1855   39.1  0.4852  -53.5
 1.820  0.3609  166.1   1.457   51.2  0.1866   39.2  0.4836  -54.0
 1.840  0.3625  164.9   1.446   50.6  0.1876   39.4  0.4820  -54.4
 1.860  0.3643  163.8   1.436   49.9  0.1887   39.5  0.4804  -54.9
 1.880  0.3662  162.7   1.425   49.2  0.1897   39.7  0.4789  -55.3
 1.900  0.3682  161.6   1.415   48.5  0.1908   39.8  0.4774  -55.8
 1.920  0.3688  160.5   1.403   47.9  0.1922   39.8  0.4758  -56.2
 1.940  0.3696  159.4   1.391   47.3  0.1936   39.8  0.4743  -56.5
 1.960  0.3704  158.3   1.379   46.7  0.1949   39.9  0.4727  -56.9
 1.980  0.3714  157.2   1.367   46.0  0.1963   39.9  0.4712  -57.2
 2.000  0.3726  156.1   1.355   45.4  0.1977   39.9  0.4697  -57.6
 2.020  0.3730  155.0   1.345   44.8  0.1990   40.0  0.4681  -58.0
 2.040  0.3735  153.9   1.336   44.3  0.2003   40.1  0.4665  -58.5
 2.060  0.3742  152.8   1.327   43.7  0.2015   40.2  0.4649  -58.9
 2.080  0.3750  151.8   1.317   43.1  0.2028   40.2  0.4634  -59.4
 2.100  0.3759  150.7   1.308   42.5  0.2041   40.3  0.4619  -59.9
 2.120  0.3770  149.6   1.299   41.9  0.2054   40.4  0.4605  -60.3
 2.140  0.3782  148.5   1.290   41.3  0.2067   40.5  0.4590  -60.8
 2.160  0.3795  147.5   1.282   40.7  0.2079   40.5  0.4576  -61.3
 2.180  0.3809  146.4   1.273   40.0  0.2092   40.6  0.4562  -61.7
 2.200  0.3825  145.4   1.265   39.4  0.2105   40.7  0.4549  -62.2
 2.220  0.3844  144.4   1.257   38.9  0.2120   40.7  0.4532  -62.7
 2.240  0.3865  143.4   1.249   38.3  0.2136   40.8  0.4514  -63.2
 2.260  0.3886  142.4   1.241   37.8  0.2151   40.8  0.4498  -63.8
 2.280  0.3909  141.5   1.234   37.2  0.2167   40.9  0.4481  -64.3
 2.300  0.3932  140.5   1.226   36.6  0.2182   40.9  0.4465  -64.8
 2.320  0.3957  139.6   1.219   36.1  0.2197   40.9  0.4450  -65.3
 2.340  0.3983  138.6   1.211   35.5  0.2213   41.0  0.4434  -65.9
 2.360  0.4010  137.7   1.204   34.9  0.2228   41.0  0.4420  -66.4
 2.380  0.4038  136.8   1.197   34.3  0.2244   41.1  0.4405  -67.0
 2.400  0.4067  135.9   1.190   33.7  0.2259   41.1  0.4391  -67.5
 2.420  0.4082  135.0   1.183   33.2  0.2277   41.1  0.4374  -68.0
 2.440  0.4099  134.1   1.176   32.7  0.2295   41.1  0.4358  -68.5
 2.460  0.4116  133.2   1.168   32.3  0.2313   41.1  0.4341  -69.1
 2.480  0.4134  132.3   1.161   31.8  0.2331   41.1  0.4326  -69.6
 2.500  0.4154  131.4   1.154   31.3  0.2349   41.2  0.4310  -70.2
 2.520  0.4174  130.5   1.148   30.8  0.2367   41.2  0.4295  -70.7
 2.540  0.4195  129.6   1.141   30.3  0.2385   41.2  0.4281  -71.2
 2.560  0.4218  128.8   1.134   29.7  0.2403   41.2  0.4266  -71.8
 2.580  0.4241  127.9   1.127   29.2  0.2421   41.2  0.4252  -72.3
 2.600  0.4265  127.1   1.121   28.7  0.2439   41.2  0.4239  -72.9
 2.620  0.4284  126.4   1.115   28.3  0.2457   41.1  0.4222  -73.5
 2.640  0.4303  125.7   1.109   27.8  0.2476   41.1  0.4205  -74.1
 2.660  0.4323  125.0   1.103   27.4  0.2494   41.0  0.4188  -74.8
 2.680  0.4344  124.3   1.098   26.9  0.2513   41.0  0.4172  -75.4
 2.700  0.4366  123.6   1.092   26.5  0.2531   40.9  0.4157  -76.0
 2.720  0.4388  122.9   1.087   26.0  0.2549   40.9  0.4142  -76.7
 2.740  0.4410  122.2   1.081   25.5  0.2568   40.8  0.4128  -77.3
 2.760  0.4434  121.5   1.076   25.1  0.2586   40.8  0.4114  -78.0
 2.780  0.4458  120.9   1.070   24.6  0.2605   40.7  0.4101  -78.6
 2.800  0.4482  120.2   1.065   24.1  0.2623   40.7  0.4088  -79.3
 2.820  0.4502  119.5   1.060   23.7  0.2642   40.6  0.4071  -80.0
 2.840  0.4523  118.9   1.054   23.2  0.2661   40.5  0.4055  -80.7
 2.860  0.4544  118.2   1.049   22.7  0.2681   40.4  0.4040  -81.4
 2.880  0.4566  117.6   1.044   22.3  0.2700   40.4  0.4025  -82.1
 2.900  0.4589  116.9   1.039   21.8  0.2719   40.3  0.4011  -82.8
 2.920  0.4612  116.3   1.034   21.3  0.2738   40.2  0.3998  -83.6
 2.940  0.4636  115.7   1.029   20.9  0.2757   40.1  0.3985  -84.3
 2.960  0.4660  115.0   1.024   20.4  0.2777   40.1  0.3972  -85.0
 2.980  0.4685  114.4   1.020   19.9  0.2796   40.0  0.3961  -85.8
 3.000  0.4710  113.8   1.015   19.4  0.2815   39.9  0.3950  -86.5
 3.100  0.4814  111.0   0.989   17.6  0.2918   39.1  0.3848  -90.4
 3.200  0.4928  108.3   0.963   15.7  0.3022   38.3  0.3765  -94.5
 3.300  0.5053  105.8   0.939   13.6  0.3126   37.5  0.3703  -98.8
 3.400  0.5187  103.4   0.917   11.5  0.3231   36.8  0.3661 -103.2
 3.500  0.5330  101.1   0.895    9.3  0.3336   36.2  0.3642 -107.7
 3.600  0.5407   98.9   0.876    7.8  0.3442   35.1  0.3571 -112.7
 3.700  0.5491   96.9   0.857    6.3  0.3548   34.0  0.3529 -117.9
 3.800  0.5582   94.8   0.840    4.6  0.3656   33.0  0.3517 -123.2
 3.900  0.5681   92.9   0.822    3.0  0.3765   32.1  0.3534 -128.4
 4.000  0.5785   91.0   0.806    1.2  0.3875   31.2  0.3580 -133.6
 4.100  0.5861   89.3   0.792   -0.0  0.3976   29.7  0.3542 -138.9
 4.200  0.5943   87.6   0.778   -1.3  0.4079   28.3  0.3535 -144.3
 4.300  0.6029   85.9   0.764   -2.6  0.4184   26.9  0.3559 -149.6
 4.400  0.6120   84.3   0.751   -4.0  0.4292   25.6  0.3613 -154.9
 4.500  0.6216   82.8   0.738   -5.4  0.4402   24.4  0.3697 -159.9
 4.600  0.6263   81.4   0.727   -6.5  0.4480   22.8  0.3699 -164.9
 4.700  0.6313   80.1   0.717   -7.6  0.4562   21.2  0.3730 -169.9
 4.800  0.6366   78.7   0.707   -8.8  0.4647   19.7  0.3788 -174.8
 4.900  0.6424   77.4   0.697  -10.0  0.4735   18.3  0.3872 -179.4
 5.000  0.6484   76.1   0.688  -11.2  0.4826   16.9  0.3981  176.1
 5.100  0.6536   74.8   0.673  -12.1  0.4850   15.2  0.3927  171.6
 5.200  0.6590   73.6   0.658  -13.0  0.4878   13.6  0.3899  166.9
 5.300  0.6648   72.4   0.644  -14.0  0.4911   11.9  0.3896  162.3
 5.400  0.6708   71.2   0.629  -15.0  0.4947   10.3  0.3919  157.7
 5.500  0.6772   70.0   0.615  -16.1  0.4987    8.7  0.3967  153.1
 5.600  0.6761   68.9   0.614  -16.2  0.5077    7.8  0.4135  151.5
 5.700  0.6753   67.8   0.613  -16.2  0.5168    6.8  0.4306  150.0
 5.800  0.6747   66.7   0.612  -16.3  0.5260    6.0  0.4480  148.6
 5.900  0.6744   65.6   0.611  -16.3  0.5353    5.1  0.4656  147.3
 6.000  0.6743   64.5   0.610  -16.4  0.5448    4.3  0.4834  146.1
!
!  f       NFmin   Gammaopt  rn/50
! GHz       dB    MAG  ANG    -
!
! noise parameter not available yet for this operation point!
!
! (c) 2015  Infineon Technologies AG, Munich
