! Infineon Technologies  Discrete & RF Semiconductors
! BFR35AP
! VCE =  3.5 V,  IC =  5.0 mA
! Common Emitter S-Parameters:                            Nov 2015
# GHz  S  MA  R  50
!  f         S11            S21            S12            S22
! GHz     MAG   ANG      MAG   ANG      MAG   ANG      MAG   ANG
 0.010  0.8262   -3.4  14.209  177.2  0.0027   87.1  0.9918   -1.4
 0.015  0.8215   -5.0  14.108  175.7  0.0039   86.4  0.9850   -2.3
 0.020  0.8174   -6.6  14.016  174.2  0.0052   86.1  0.9785   -3.2
 0.025  0.8153   -8.3  13.962  172.9  0.0066   84.5  0.9769   -4.0
 0.030  0.8138   -9.9  13.915  171.6  0.0081   83.5  0.9755   -4.8
 0.035  0.8131  -11.6  13.876  170.3  0.0095   82.8  0.9743   -5.5
 0.040  0.8130  -13.3  13.843  169.0  0.0110   82.3  0.9732   -6.3
 0.045  0.8137  -14.9  13.818  167.7  0.0124   81.9  0.9724   -7.1
 0.050  0.8150  -16.6  13.800  166.4  0.0139   81.6  0.9717   -7.9
 0.055  0.8064  -18.1  13.704  165.2  0.0151   80.0  0.9661   -8.6
 0.060  0.7983  -19.5  13.614  164.0  0.0163   78.7  0.9605   -9.2
 0.065  0.7908  -21.0  13.531  162.8  0.0175   77.6  0.9552   -9.9
 0.070  0.7838  -22.6  13.453  161.5  0.0187   76.6  0.9499  -10.6
 0.075  0.7775  -24.1  13.382  160.3  0.0199   75.7  0.9448  -11.3
 0.080  0.7717  -25.7  13.318  159.0  0.0212   75.0  0.9398  -12.0
 0.085  0.7665  -27.3  13.260  157.7  0.0224   74.3  0.9350  -12.7
 0.090  0.7619  -29.0  13.209  156.4  0.0236   73.7  0.9303  -13.4
 0.095  0.7579  -30.6  13.165  155.1  0.0249   73.1  0.9257  -14.1
 0.100  0.7546  -32.3  13.127  153.8  0.0261   72.6  0.9213  -14.8
 0.105  0.7462  -33.6  12.979  152.7  0.0271   71.9  0.9146  -15.3
 0.110  0.7382  -34.8  12.836  151.7  0.0282   71.3  0.9080  -15.9
 0.115  0.7306  -36.1  12.698  150.6  0.0292   70.7  0.9015  -16.4
 0.120  0.7233  -37.5  12.564  149.4  0.0303   70.2  0.8951  -16.9
 0.125  0.7165  -38.8  12.436  148.3  0.0313   69.7  0.8887  -17.5
 0.130  0.7100  -40.2  12.312  147.1  0.0324   69.2  0.8825  -18.1
 0.135  0.7040  -41.6  12.194  145.9  0.0334   68.8  0.8763  -18.6
 0.140  0.6984  -43.1  12.081  144.7  0.0345   68.4  0.8702  -19.2
 0.145  0.6933  -44.5  11.974  143.5  0.0355   68.0  0.8642  -19.8
 0.150  0.6886  -46.0  11.872  142.2  0.0366   67.6  0.8583  -20.4
 0.155  0.6810  -47.2  11.754  141.4  0.0374   67.1  0.8519  -20.7
 0.160  0.6737  -48.3  11.638  140.5  0.0382   66.6  0.8456  -21.1
 0.165  0.6667  -49.5  11.525  139.6  0.0390   66.2  0.8393  -21.5
 0.170  0.6600  -50.8  11.415  138.7  0.0399   65.8  0.8330  -21.8
 0.175  0.6536  -52.0  11.307  137.8  0.0407   65.3  0.8268  -22.2
 0.180  0.6476  -53.3  11.202  136.9  0.0415   64.9  0.8206  -22.6
 0.185  0.6418  -54.6  11.101  135.9  0.0423   64.6  0.8144  -22.9
 0.190  0.6364  -55.9  11.002  135.0  0.0431   64.2  0.8083  -23.3
 0.195  0.6313  -57.2  10.907  134.0  0.0440   63.8  0.8022  -23.7
 0.200  0.6266  -58.6  10.815  133.0  0.0448   63.5  0.7961  -24.1
 0.220  0.5964  -62.7  10.348  130.0  0.0472   61.9  0.7715  -25.2
 0.240  0.5696  -67.3   9.913  126.7  0.0496   60.5  0.7472  -26.3
 0.260  0.5466  -71.3   9.499  123.8  0.0519   59.5  0.7251  -27.2
 0.280  0.5260  -74.8   9.092  121.4  0.0542   58.8  0.7049  -27.9
 0.300  0.5074  -78.6   8.701  118.8  0.0565   58.2  0.6849  -28.7
 0.320  0.4877  -81.4   8.372  117.2  0.0583   57.7  0.6709  -29.0
 0.340  0.4692  -84.4   8.050  115.4  0.0602   57.3  0.6569  -29.3
 0.360  0.4521  -87.6   7.736  113.6  0.0620   56.9  0.6430  -29.7
 0.380  0.4366  -91.1   7.431  111.5  0.0639   56.5  0.6290  -30.0
 0.400  0.4228  -94.8   7.137  109.3  0.0657   56.1  0.6151  -30.4
 0.420  0.4083  -97.3   6.892  107.9  0.0673   56.0  0.6048  -30.5
 0.440  0.3947 -100.0   6.652  106.3  0.0690   56.0  0.5945  -30.7
 0.450  0.3883 -101.5   6.534  105.5  0.0698   55.9  0.5893  -30.7
 0.460  0.3821 -102.9   6.417  104.7  0.0706   55.9  0.5842  -30.8
 0.480  0.3705 -106.0   6.188  102.9  0.0723   55.9  0.5739  -30.9
 0.500  0.3600 -109.3   5.965  101.0  0.0739   55.8  0.5636  -31.1
 0.520  0.3512 -111.5   5.797   99.9  0.0754   55.9  0.5563  -31.2
 0.540  0.3430 -113.9   5.631   98.7  0.0769   55.9  0.5490  -31.3
 0.560  0.3354 -116.4   5.467   97.4  0.0785   56.0  0.5417  -31.3
 0.580  0.3285 -118.9   5.307   96.1  0.0800   56.0  0.5344  -31.4
 0.600  0.3222 -121.6   5.149   94.7  0.0815   56.1  0.5271  -31.5
 0.620  0.3166 -123.6   5.018   93.7  0.0830   56.2  0.5224  -31.6
 0.640  0.3114 -125.8   4.889   92.7  0.0845   56.4  0.5178  -31.6
 0.660  0.3067 -127.9   4.761   91.7  0.0861   56.5  0.5131  -31.7
 0.680  0.3024 -130.2   4.635   90.6  0.0876   56.6  0.5085  -31.7
 0.700  0.2986 -132.5   4.511   89.4  0.0891   56.7  0.5038  -31.8
 0.720  0.2944 -134.4   4.405   88.5  0.0908   56.7  0.5002  -31.9
 0.740  0.2905 -136.4   4.299   87.7  0.0924   56.7  0.4965  -32.0
 0.760  0.2870 -138.4   4.195   86.7  0.0941   56.6  0.4929  -32.0
 0.780  0.2838 -140.5   4.092   85.7  0.0957   56.6  0.4892  -32.1
 0.800  0.2810 -142.6   3.990   84.7  0.0974   56.6  0.4856  -32.2
 0.820  0.2766 -144.4   3.908   83.9  0.0991   56.6  0.4832  -32.3
 0.840  0.2725 -146.3   3.827   83.1  0.1009   56.7  0.4808  -32.4
 0.860  0.2686 -148.2   3.747   82.2  0.1026   56.7  0.4784  -32.6
 0.880  0.2651 -150.2   3.668   81.3  0.1044   56.8  0.4760  -32.7
 0.900  0.2619 -152.2   3.590   80.4  0.1061   56.8  0.4736  -32.8
 0.920  0.2589 -154.2   3.528   79.7  0.1077   56.9  0.4713  -32.9
 0.940  0.2562 -156.3   3.467   78.9  0.1093   57.0  0.4690  -33.1
 0.960  0.2539 -158.4   3.406   78.1  0.1108   57.0  0.4668  -33.2
 0.980  0.2519 -160.5   3.345   77.3  0.1124   57.1  0.4645  -33.4
 1.000  0.2503 -162.7   3.286   76.5  0.1140   57.2  0.4622  -33.5
 1.020  0.2501 -164.4   3.234   75.8  0.1158   57.3  0.4602  -33.7
 1.040  0.2502 -166.1   3.182   75.1  0.1176   57.3  0.4583  -34.0
 1.060  0.2504 -167.8   3.131   74.4  0.1193   57.4  0.4563  -34.2
 1.080  0.2509 -169.5   3.080   73.6  0.1211   57.4  0.4543  -34.5
 1.100  0.2516 -171.2   3.030   72.8  0.1229   57.5  0.4524  -34.7
 1.120  0.2510 -172.8   2.984   72.1  0.1246   57.5  0.4506  -34.9
 1.140  0.2505 -174.4   2.938   71.4  0.1263   57.5  0.4488  -35.1
 1.160  0.2503 -176.1   2.893   70.7  0.1280   57.6  0.4470  -35.2
 1.180  0.2502 -177.7   2.848   70.0  0.1297   57.6  0.4452  -35.4
 1.200  0.2504 -179.3   2.804   69.2  0.1314   57.6  0.4434  -35.6
 1.220  0.2502  179.4   2.763   68.6  0.1332   57.6  0.4421  -35.8
 1.240  0.2502  178.1   2.722   68.0  0.1350   57.6  0.4408  -36.0
 1.260  0.2503  176.8   2.682   67.4  0.1369   57.5  0.4395  -36.3
 1.280  0.2505  175.5   2.642   66.8  0.1387   57.5  0.4382  -36.5
 1.300  0.2508  174.2   2.602   66.1  0.1405   57.5  0.4369  -36.7
 1.320  0.2512  172.7   2.568   65.5  0.1422   57.5  0.4358  -37.0
 1.340  0.2517  171.3   2.534   64.9  0.1439   57.5  0.4347  -37.3
 1.360  0.2524  169.9   2.500   64.3  0.1455   57.4  0.4336  -37.5
 1.380  0.2532  168.4   2.466   63.7  0.1472   57.4  0.4326  -37.8
 1.400  0.2542  167.0   2.433   63.0  0.1489   57.4  0.4315  -38.1
 1.420  0.2539  166.0   2.406   62.4  0.1507   57.3  0.4303  -38.3
 1.440  0.2537  165.1   2.379   61.8  0.1525   57.2  0.4290  -38.6
 1.460  0.2536  164.1   2.353   61.2  0.1544   57.2  0.4278  -38.8
 1.480  0.2535  163.2   2.327   60.6  0.1562   57.1  0.4266  -39.1
 1.500  0.2535  162.2   2.301   60.0  0.1580   57.0  0.4254  -39.3
 1.520  0.2557  160.9   2.273   59.4  0.1598   56.9  0.4239  -39.6
 1.540  0.2579  159.7   2.246   58.8  0.1616   56.8  0.4224  -39.9
 1.560  0.2603  158.5   2.219   58.2  0.1635   56.8  0.4209  -40.2
 1.580  0.2629  157.3   2.192   57.6  0.1653   56.7  0.4194  -40.5
 1.600  0.2655  156.1   2.165   56.9  0.1671   56.6  0.4179  -40.8
 1.620  0.2670  154.9   2.143   56.4  0.1689   56.5  0.4169  -41.1
 1.640  0.2686  153.7   2.121   55.9  0.1708   56.4  0.4158  -41.5
 1.660  0.2704  152.5   2.100   55.3  0.1726   56.3  0.4148  -41.8
 1.680  0.2722  151.3   2.078   54.8  0.1745   56.2  0.4138  -42.2
 1.700  0.2742  150.2   2.057   54.2  0.1763   56.1  0.4128  -42.5
 1.720  0.2747  149.2   2.040   53.7  0.1781   56.0  0.4119  -42.8
 1.740  0.2753  148.2   2.022   53.1  0.1800   55.9  0.4110  -43.2
 1.760  0.2760  147.2   2.005   52.6  0.1818   55.8  0.4102  -43.5
 1.780  0.2768  146.2   1.989   52.1  0.1837   55.7  0.4093  -43.9
 1.800  0.2776  145.2   1.972   51.5  0.1855   55.6  0.4085  -44.2
 1.820  0.2797  144.4   1.955   51.0  0.1874   55.5  0.4070  -44.6
 1.840  0.2819  143.6   1.938   50.4  0.1893   55.4  0.4055  -45.0
 1.860  0.2842  142.9   1.922   49.8  0.1913   55.3  0.4041  -45.3
 1.880  0.2865  142.1   1.905   49.3  0.1932   55.2  0.4026  -45.7
 1.900  0.2888  141.4   1.889   48.7  0.1951   55.1  0.4012  -46.1
 1.920  0.2903  140.6   1.871   48.2  0.1970   55.0  0.3997  -46.5
 1.940  0.2918  139.9   1.854   47.7  0.1989   54.8  0.3982  -46.8
 1.960  0.2933  139.1   1.836   47.2  0.2009   54.7  0.3967  -47.2
 1.980  0.2949  138.3   1.819   46.6  0.2028   54.5  0.3952  -47.5
 2.000  0.2966  137.6   1.802   46.1  0.2047   54.4  0.3937  -47.9
 2.020  0.2983  136.8   1.787   45.6  0.2066   54.2  0.3924  -48.3
 2.040  0.3000  136.0   1.773   45.1  0.2085   54.1  0.3912  -48.7
 2.060  0.3018  135.2   1.758   44.7  0.2104   54.0  0.3900  -49.1
 2.080  0.3036  134.4   1.744   44.2  0.2123   53.8  0.3887  -49.5
 2.100  0.3055  133.6   1.730   43.7  0.2142   53.7  0.3876  -49.9
 2.120  0.3074  132.8   1.716   43.1  0.2161   53.5  0.3864  -50.3
 2.140  0.3095  132.0   1.702   42.6  0.2181   53.4  0.3852  -50.7
 2.160  0.3115  131.3   1.688   42.1  0.2200   53.3  0.3841  -51.2
 2.180  0.3136  130.5   1.674   41.5  0.2219   53.1  0.3830  -51.6
 2.200  0.3158  129.8   1.661   41.0  0.2238   53.0  0.3819  -52.0
 2.220  0.3180  129.0   1.651   40.5  0.2258   52.8  0.3800  -52.4
 2.240  0.3202  128.3   1.641   40.0  0.2278   52.6  0.3782  -52.9
 2.260  0.3224  127.6   1.631   39.5  0.2298   52.5  0.3764  -53.3
 2.280  0.3248  126.8   1.621   39.0  0.2318   52.3  0.3746  -53.7
 2.300  0.3271  126.1   1.611   38.5  0.2338   52.1  0.3729  -54.2
 2.320  0.3295  125.4   1.601   38.0  0.2358   51.9  0.3711  -54.6
 2.340  0.3320  124.7   1.592   37.5  0.2378   51.8  0.3694  -55.1
 2.360  0.3345  124.0   1.582   37.0  0.2398   51.6  0.3677  -55.6
 2.380  0.3371  123.4   1.573   36.4  0.2418   51.5  0.3660  -56.0
 2.400  0.3397  122.7   1.564   35.9  0.2438   51.3  0.3644  -56.5
 2.420  0.3420  122.1   1.553   35.5  0.2457   51.1  0.3628  -57.0
 2.440  0.3444  121.4   1.543   35.0  0.2477   50.9  0.3613  -57.4
 2.460  0.3468  120.8   1.532   34.6  0.2496   50.7  0.3598  -57.9
 2.480  0.3493  120.2   1.522   34.2  0.2516   50.5  0.3583  -58.4
 2.500  0.3518  119.6   1.512   33.7  0.2535   50.4  0.3569  -58.9
 2.520  0.3543  119.0   1.502   33.3  0.2555   50.2  0.3554  -59.4
 2.540  0.3569  118.4   1.492   32.8  0.2574   50.0  0.3540  -59.9
 2.560  0.3595  117.8   1.482   32.3  0.2594   49.8  0.3527  -60.4
 2.580  0.3621  117.3   1.472   31.9  0.2613   49.7  0.3513  -60.9
 2.600  0.3648  116.7   1.462   31.4  0.2633   49.5  0.3500  -61.4
 2.620  0.3668  116.2   1.454   31.0  0.2653   49.3  0.3480  -61.9
 2.640  0.3688  115.6   1.447   30.5  0.2674   49.1  0.3461  -62.5
 2.660  0.3708  115.1   1.439   30.1  0.2694   48.9  0.3442  -63.0
 2.680  0.3729  114.6   1.432   29.7  0.2714   48.7  0.3423  -63.6
 2.700  0.3750  114.1   1.425   29.2  0.2735   48.5  0.3405  -64.1
 2.720  0.3772  113.6   1.418   28.8  0.2755   48.3  0.3387  -64.7
 2.740  0.3793  113.1   1.411   28.3  0.2775   48.1  0.3369  -65.3
 2.760  0.3815  112.6   1.404   27.8  0.2796   47.9  0.3352  -65.8
 2.780  0.3837  112.1   1.397   27.4  0.2816   47.7  0.3335  -66.4
 2.800  0.3860  111.6   1.390   26.9  0.2837   47.5  0.3318  -67.0
 2.820  0.3885  111.2   1.382   26.5  0.2856   47.3  0.3300  -67.6
 2.840  0.3910  110.7   1.373   26.0  0.2875   47.0  0.3283  -68.2
 2.860  0.3935  110.3   1.365   25.6  0.2894   46.8  0.3266  -68.8
 2.880  0.3960  109.9   1.357   25.1  0.2913   46.6  0.3249  -69.4
 2.900  0.3986  109.4   1.348   24.7  0.2932   46.4  0.3233  -70.1
 2.920  0.4012  109.0   1.340   24.2  0.2952   46.1  0.3217  -70.7
 2.940  0.4038  108.6   1.332   23.7  0.2971   45.9  0.3201  -71.3
 2.960  0.4064  108.2   1.324   23.3  0.2990   45.7  0.3186  -72.0
 2.980  0.4090  107.8   1.317   22.8  0.3010   45.5  0.3171  -72.6
 3.000  0.4117  107.4   1.309   22.3  0.3029   45.3  0.3157  -73.3
 3.100  0.4240  105.2   1.276   20.5  0.3121   44.0  0.3046  -76.8
 3.200  0.4369  103.2   1.244   18.6  0.3214   42.8  0.2947  -80.4
 3.300  0.4503  101.2   1.214   16.6  0.3308   41.6  0.2861  -84.4
 3.400  0.4643   99.4   1.185   14.5  0.3404   40.5  0.2789  -88.5
 3.500  0.4786   97.7   1.158   12.3  0.3501   39.5  0.2733  -92.9
 3.600  0.4881   95.9   1.133   10.6  0.3593   38.2  0.2638  -97.7
 3.700  0.4981   94.3   1.109    8.9  0.3687   36.9  0.2563 -102.8
 3.800  0.5084   92.6   1.086    7.1  0.3782   35.7  0.2509 -108.2
 3.900  0.5192   91.1   1.065    5.3  0.3879   34.6  0.2479 -113.8
 4.000  0.5303   89.6   1.044    3.3  0.3978   33.5  0.2472 -119.4
 4.100  0.5401   88.2   1.023    1.8  0.4064   32.0  0.2420 -125.0
 4.200  0.5502   86.9   1.004    0.2  0.4152   30.6  0.2393 -130.9
 4.300  0.5606   85.6   0.985   -1.4  0.4243   29.2  0.2391 -136.8
 4.400  0.5713   84.3   0.966   -3.1  0.4336   27.9  0.2414 -142.6
 4.500  0.5822   83.1   0.949   -4.9  0.4431   26.6  0.2462 -148.3
 4.600  0.5889   81.8   0.931   -6.3  0.4502   25.1  0.2469 -153.9
 4.700  0.5959   80.6   0.914   -7.7  0.4576   23.6  0.2500 -159.5
 4.800  0.6032   79.4   0.898   -9.1  0.4652   22.2  0.2554 -164.9
 4.900  0.6108   78.2   0.882  -10.6  0.4732   20.8  0.2629 -170.0
 5.000  0.6186   77.0   0.867  -12.2  0.4814   19.5  0.2724 -174.8
 5.100  0.6263   75.7   0.846  -13.4  0.4838   17.9  0.2689 -179.8
 5.200  0.6343   74.4   0.825  -14.6  0.4867   16.3  0.2674  175.1
 5.300  0.6425   73.2   0.804  -16.0  0.4899   14.7  0.2681  170.0
 5.400  0.6511   72.0   0.784  -17.3  0.4935   13.1  0.2709  164.9
 5.500  0.6600   70.8   0.764  -18.8  0.4974   11.6  0.2758  160.0
 5.600  0.6590   69.7   0.759  -19.2  0.5063   10.7  0.2944  158.4
 5.700  0.6582   68.7   0.753  -19.7  0.5153    9.8  0.3132  156.9
 5.800  0.6576   67.6   0.748  -20.1  0.5244    9.0  0.3321  155.7
 5.900  0.6573   66.6   0.743  -20.5  0.5337    8.2  0.3513  154.5
 6.000  0.6572   65.5   0.738  -21.0  0.5430    7.4  0.3705  153.5
!
!  f       NFmin   Gammaopt  rn/50
! GHz       dB    MAG  ANG    -
 0.450      1.50  0.28   29   0.34
 0.900      1.80  0.25   59   0.34
!
! (c) 2015  Infineon Technologies AG, Munich
