! Infineon Technologies  Discrete & RF Semiconductors
! BFR35AP
! VCE =  1.5 V,  IC =  4.5 mA
! Common Emitter S-Parameters:                            Nov 2015
# GHz  S  MA  R  50
!  f         S11            S21            S12            S22
! GHz     MAG   ANG      MAG   ANG      MAG   ANG      MAG   ANG
 0.010  0.8274   -3.6  13.127  177.4  0.0034   89.1  0.9894   -1.8
 0.015  0.8224   -5.5  13.065  175.8  0.0051   88.6  0.9828   -2.7
 0.020  0.8184   -7.4  13.013  174.1  0.0069   88.3  0.9765   -3.7
 0.025  0.8154   -9.1  12.959  172.8  0.0086   85.7  0.9742   -4.6
 0.030  0.8132  -10.9  12.911  171.4  0.0103   83.9  0.9722   -5.6
 0.035  0.8117  -12.6  12.871  170.0  0.0120   82.7  0.9704   -6.5
 0.040  0.8110  -14.4  12.839  168.7  0.0137   81.7  0.9689   -7.4
 0.045  0.8111  -16.1  12.814  167.3  0.0155   81.0  0.9677   -8.4
 0.050  0.8119  -17.9  12.796  165.9  0.0172   80.4  0.9667   -9.3
 0.055  0.8032  -19.5  12.696  164.7  0.0187   78.9  0.9603  -10.1
 0.060  0.7951  -21.1  12.602  163.4  0.0203   77.7  0.9540  -10.9
 0.065  0.7877  -22.7  12.514  162.2  0.0218   76.6  0.9480  -11.7
 0.070  0.7809  -24.4  12.431  160.9  0.0234   75.6  0.9421  -12.5
 0.075  0.7748  -26.1  12.355  159.6  0.0249   74.8  0.9364  -13.3
 0.080  0.7694  -27.8  12.286  158.3  0.0265   74.1  0.9309  -14.1
 0.085  0.7647  -29.6  12.222  157.0  0.0281   73.5  0.9256  -14.9
 0.090  0.7607  -31.3  12.166  155.7  0.0296   72.9  0.9205  -15.8
 0.095  0.7574  -33.1  12.115  154.4  0.0312   72.4  0.9156  -16.6
 0.100  0.7549  -34.9  12.072  153.0  0.0328   71.9  0.9109  -17.5
 0.105  0.7461  -36.3  11.937  151.9  0.0340   71.0  0.9031  -18.1
 0.110  0.7377  -37.7  11.806  150.8  0.0352   70.1  0.8954  -18.8
 0.115  0.7297  -39.1  11.680  149.6  0.0364   69.3  0.8878  -19.4
 0.120  0.7222  -40.6  11.559  148.4  0.0377   68.6  0.8804  -20.1
 0.125  0.7152  -42.0  11.443  147.2  0.0389   67.9  0.8730  -20.8
 0.130  0.7087  -43.6  11.331  146.0  0.0401   67.3  0.8658  -21.4
 0.135  0.7027  -45.1  11.226  144.8  0.0414   66.6  0.8587  -22.1
 0.140  0.6973  -46.7  11.125  143.5  0.0426   66.1  0.8517  -22.8
 0.145  0.6923  -48.3  11.030  142.2  0.0438   65.5  0.8449  -23.6
 0.150  0.6879  -49.9  10.941  140.9  0.0451   65.0  0.8382  -24.3
 0.155  0.6802  -51.1  10.820  140.1  0.0460   64.5  0.8310  -24.7
 0.160  0.6727  -52.3  10.702  139.2  0.0470   64.0  0.8238  -25.1
 0.165  0.6656  -53.6  10.587  138.3  0.0479   63.5  0.8167  -25.6
 0.170  0.6589  -54.9  10.473  137.5  0.0488   63.1  0.8096  -26.0
 0.175  0.6524  -56.2  10.363  136.5  0.0498   62.6  0.8026  -26.5
 0.180  0.6463  -57.5  10.255  135.6  0.0507   62.2  0.7956  -26.9
 0.185  0.6406  -58.9  10.149  134.7  0.0517   61.8  0.7887  -27.4
 0.190  0.6352  -60.3  10.047  133.7  0.0526   61.4  0.7818  -27.8
 0.195  0.6302  -61.7   9.947  132.7  0.0535   61.1  0.7750  -28.3
 0.200  0.6256  -63.1   9.851  131.7  0.0545   60.7  0.7682  -28.8
 0.220  0.5974  -67.6   9.422  128.6  0.0575   59.0  0.7408  -30.1
 0.240  0.5732  -72.5   9.022  125.3  0.0606   57.5  0.7138  -31.5
 0.260  0.5504  -77.1   8.641  122.3  0.0633   56.4  0.6893  -32.6
 0.280  0.5277  -81.3   8.266  119.8  0.0657   55.7  0.6671  -33.5
 0.300  0.5080  -85.8   7.909  117.0  0.0681   55.0  0.6450  -34.5
 0.320  0.4907  -88.7   7.602  115.4  0.0702   54.5  0.6288  -34.9
 0.340  0.4747  -91.8   7.302  113.7  0.0722   54.0  0.6125  -35.4
 0.360  0.4602  -95.2   7.009  111.8  0.0743   53.5  0.5964  -35.9
 0.380  0.4474  -98.7   6.724  109.8  0.0764   53.0  0.5803  -36.4
 0.400  0.4364 -102.4   6.448  107.6  0.0785   52.6  0.5642  -37.0
 0.420  0.4236 -105.1   6.224  106.2  0.0803   52.4  0.5527  -37.2
 0.440  0.4118 -108.0   6.003  104.7  0.0821   52.2  0.5412  -37.4
 0.450  0.4063 -109.5   5.895  103.9  0.0829   52.1  0.5354  -37.6
 0.460  0.4011 -111.0   5.787  103.0  0.0838   52.0  0.5297  -37.7
 0.480  0.3915 -114.2   5.576  101.3  0.0856   51.8  0.5182  -37.9
 0.500  0.3833 -117.6   5.371   99.4  0.0874   51.6  0.5067  -38.2
 0.520  0.3750 -119.9   5.220   98.2  0.0890   51.7  0.4987  -38.3
 0.540  0.3674 -122.4   5.072   97.0  0.0906   51.7  0.4908  -38.4
 0.560  0.3605 -124.9   4.926   95.7  0.0922   51.8  0.4828  -38.5
 0.580  0.3543 -127.5   4.782   94.3  0.0938   51.8  0.4749  -38.7
 0.600  0.3489 -130.2   4.642   92.8  0.0954   51.9  0.4669  -38.8
 0.620  0.3436 -132.3   4.524   91.8  0.0971   51.9  0.4613  -38.9
 0.640  0.3387 -134.5   4.408   90.8  0.0987   51.9  0.4558  -39.0
 0.660  0.3344 -136.7   4.293   89.7  0.1004   52.0  0.4502  -39.2
 0.680  0.3306 -139.0   4.180   88.5  0.1020   52.0  0.4447  -39.3
 0.700  0.3273 -141.3   4.069   87.3  0.1037   52.0  0.4391  -39.4
 0.720  0.3238 -143.3   3.972   86.4  0.1054   52.1  0.4347  -39.5
 0.740  0.3207 -145.3   3.876   85.5  0.1072   52.1  0.4304  -39.6
 0.760  0.3181 -147.4   3.781   84.6  0.1089   52.2  0.4260  -39.7
 0.780  0.3158 -149.5   3.688   83.6  0.1107   52.2  0.4217  -39.8
 0.800  0.3140 -151.6   3.595   82.5  0.1124   52.3  0.4173  -39.9
 0.820  0.3114 -153.3   3.522   81.7  0.1143   52.4  0.4143  -40.0
 0.840  0.3091 -154.9   3.450   80.8  0.1161   52.5  0.4113  -40.1
 0.860  0.3070 -156.6   3.379   80.0  0.1180   52.5  0.4084  -40.3
 0.880  0.3052 -158.4   3.309   79.1  0.1198   52.6  0.4054  -40.4
 0.900  0.3037 -160.1   3.239   78.1  0.1217   52.7  0.4024  -40.5
 0.920  0.3019 -162.0   3.182   77.3  0.1233   52.7  0.4000  -40.7
 0.940  0.3005 -163.9   3.125   76.5  0.1250   52.7  0.3975  -40.9
 0.960  0.2994 -165.8   3.068   75.7  0.1266   52.8  0.3951  -41.0
 0.980  0.2987 -167.8   3.013   74.9  0.1283   52.8  0.3927  -41.2
 1.000  0.2983 -169.7   2.958   74.0  0.1299   52.8  0.3903  -41.4
 1.020  0.2985 -171.2   2.911   73.3  0.1318   52.8  0.3881  -41.7
 1.040  0.2989 -172.6   2.865   72.6  0.1337   52.9  0.3859  -41.9
 1.060  0.2995 -174.1   2.820   71.9  0.1357   52.9  0.3837  -42.2
 1.080  0.3003 -175.6   2.775   71.1  0.1376   53.0  0.3815  -42.4
 1.100  0.3013 -177.0   2.730   70.3  0.1395   53.0  0.3793  -42.7
 1.120  0.3009 -178.7   2.689   69.6  0.1413   53.0  0.3772  -42.9
 1.140  0.3007  179.7   2.648   68.9  0.1430   53.0  0.3752  -43.1
 1.160  0.3007  178.0   2.607   68.1  0.1448   53.0  0.3731  -43.4
 1.180  0.3010  176.4   2.568   67.4  0.1465   53.0  0.3710  -43.6
 1.200  0.3016  174.7   2.528   66.6  0.1483   53.0  0.3690  -43.8
 1.220  0.3012  173.6   2.492   66.0  0.1503   53.0  0.3672  -44.0
 1.240  0.3010  172.5   2.455   65.3  0.1522   53.0  0.3655  -44.3
 1.260  0.3008  171.3   2.420   64.7  0.1542   52.9  0.3637  -44.5
 1.280  0.3008  170.2   2.384   64.0  0.1561   52.9  0.3619  -44.8
 1.300  0.3009  169.1   2.349   63.3  0.1581   52.9  0.3602  -45.0
 1.320  0.3015  167.9   2.318   62.7  0.1599   52.9  0.3587  -45.3
 1.340  0.3023  166.7   2.288   62.1  0.1618   52.9  0.3573  -45.6
 1.360  0.3032  165.5   2.258   61.4  0.1636   52.9  0.3558  -46.0
 1.380  0.3042  164.4   2.228   60.8  0.1655   52.9  0.3544  -46.3
 1.400  0.3053  163.2   2.198   60.1  0.1673   52.9  0.3530  -46.6
 1.420  0.3054  162.3   2.175   59.5  0.1693   52.8  0.3515  -46.9
 1.440  0.3057  161.3   2.152   58.9  0.1713   52.8  0.3500  -47.2
 1.460  0.3060  160.4   2.130   58.3  0.1732   52.7  0.3485  -47.6
 1.480  0.3063  159.4   2.108   57.7  0.1752   52.7  0.3470  -47.9
 1.500  0.3068  158.5   2.086   57.1  0.1772   52.6  0.3455  -48.2
 1.520  0.3091  157.4   2.060   56.5  0.1791   52.5  0.3438  -48.5
 1.540  0.3116  156.4   2.035   55.8  0.1811   52.4  0.3421  -48.9
 1.560  0.3141  155.4   2.010   55.2  0.1830   52.4  0.3404  -49.2
 1.580  0.3168  154.4   1.985   54.5  0.1850   52.3  0.3387  -49.6
 1.600  0.3195  153.4   1.961   53.8  0.1869   52.2  0.3370  -49.9
 1.620  0.3198  152.4   1.941   53.2  0.1888   52.1  0.3356  -50.3
 1.640  0.3202  151.4   1.921   52.7  0.1907   52.0  0.3343  -50.7
 1.660  0.3206  150.3   1.902   52.1  0.1925   51.9  0.3329  -51.0
 1.680  0.3212  149.3   1.882   51.5  0.1944   51.8  0.3316  -51.4
 1.700  0.3219  148.3   1.863   50.9  0.1963   51.7  0.3303  -51.8
 1.720  0.3234  147.4   1.847   50.4  0.1984   51.6  0.3294  -52.2
 1.740  0.3249  146.5   1.832   49.9  0.2005   51.4  0.3285  -52.6
 1.760  0.3266  145.6   1.816   49.4  0.2025   51.3  0.3276  -53.0
 1.780  0.3283  144.8   1.801   48.8  0.2046   51.1  0.3267  -53.4
 1.800  0.3301  143.9   1.786   48.3  0.2067   51.0  0.3259  -53.8
 1.820  0.3332  143.0   1.771   47.7  0.2087   50.9  0.3244  -54.3
 1.840  0.3364  142.2   1.757   47.1  0.2107   50.8  0.3228  -54.8
 1.860  0.3396  141.4   1.742   46.5  0.2127   50.6  0.3213  -55.3
 1.880  0.3429  140.6   1.728   45.9  0.2147   50.5  0.3199  -55.8
 1.900  0.3463  139.8   1.714   45.3  0.2167   50.4  0.3184  -56.3
 1.920  0.3472  139.0   1.698   44.8  0.2187   50.2  0.3167  -56.7
 1.940  0.3482  138.3   1.682   44.3  0.2207   50.1  0.3150  -57.1
 1.960  0.3493  137.5   1.666   43.7  0.2228   49.9  0.3133  -57.5
 1.980  0.3504  136.8   1.650   43.2  0.2248   49.8  0.3116  -57.9
 2.000  0.3516  136.0   1.635   42.6  0.2268   49.6  0.3100  -58.3
 2.020  0.3530  135.3   1.622   42.1  0.2289   49.4  0.3085  -58.8
 2.040  0.3544  134.6   1.609   41.6  0.2309   49.3  0.3069  -59.3
 2.060  0.3559  133.9   1.597   41.1  0.2330   49.1  0.3055  -59.8
 2.080  0.3575  133.2   1.584   40.6  0.2350   48.9  0.3040  -60.3
 2.100  0.3590  132.5   1.572   40.1  0.2371   48.8  0.3025  -60.8
 2.120  0.3607  131.8   1.560   39.6  0.2391   48.6  0.3011  -61.4
 2.140  0.3624  131.1   1.548   39.0  0.2412   48.5  0.2997  -61.9
 2.160  0.3641  130.4   1.536   38.5  0.2433   48.3  0.2984  -62.4
 2.180  0.3659  129.8   1.524   38.0  0.2453   48.1  0.2970  -63.0
 2.200  0.3678  129.1   1.512   37.4  0.2474   48.0  0.2957  -63.5
 2.220  0.3696  128.3   1.502   36.9  0.2494   47.8  0.2938  -64.0
 2.240  0.3714  127.6   1.493   36.4  0.2514   47.6  0.2919  -64.6
 2.260  0.3733  126.8   1.484   35.9  0.2534   47.4  0.2900  -65.2
 2.280  0.3752  126.1   1.475   35.4  0.2554   47.2  0.2882  -65.7
 2.300  0.3772  125.4   1.465   34.9  0.2574   47.1  0.2864  -66.3
 2.320  0.3793  124.6   1.457   34.4  0.2594   46.9  0.2846  -66.9
 2.340  0.3814  123.9   1.448   33.8  0.2614   46.7  0.2829  -67.5
 2.360  0.3836  123.2   1.439   33.3  0.2635   46.5  0.2811  -68.1
 2.380  0.3859  122.5   1.430   32.7  0.2655   46.4  0.2795  -68.7
 2.400  0.3882  121.8   1.422   32.2  0.2675   46.2  0.2778  -69.3
 2.420  0.3908  121.2   1.413   31.8  0.2695   46.0  0.2761  -69.9
 2.440  0.3935  120.6   1.404   31.3  0.2716   45.8  0.2744  -70.5
 2.460  0.3962  120.0   1.395   30.9  0.2736   45.6  0.2728  -71.2
 2.480  0.3990  119.4   1.387   30.4  0.2757   45.4  0.2711  -71.8
 2.500  0.4018  118.8   1.378   30.0  0.2777   45.2  0.2696  -72.5
 2.520  0.4046  118.2   1.369   29.5  0.2798   45.0  0.2680  -73.1
 2.540  0.4075  117.7   1.361   29.0  0.2818   44.8  0.2665  -73.8
 2.560  0.4104  117.1   1.352   28.6  0.2839   44.6  0.2650  -74.4
 2.580  0.4134  116.5   1.344   28.1  0.2859   44.4  0.2636  -75.1
 2.600  0.4164  116.0   1.336   27.6  0.2880   44.2  0.2622  -75.8
 2.620  0.4184  115.4   1.328   27.2  0.2900   44.0  0.2603  -76.5
 2.640  0.4204  114.9   1.321   26.7  0.2920   43.7  0.2585  -77.2
 2.660  0.4224  114.3   1.314   26.3  0.2940   43.5  0.2567  -78.0
 2.680  0.4245  113.7   1.306   25.8  0.2960   43.3  0.2550  -78.7
 2.700  0.4266  113.2   1.299   25.4  0.2980   43.1  0.2533  -79.5
 2.720  0.4288  112.6   1.292   24.9  0.3000   42.8  0.2516  -80.2
 2.740  0.4310  112.1   1.285   24.4  0.3020   42.6  0.2500  -81.0
 2.760  0.4332  111.6   1.278   24.0  0.3040   42.4  0.2485  -81.8
 2.780  0.4355  111.0   1.271   23.5  0.3061   42.2  0.2470  -82.6
 2.800  0.4378  110.5   1.264   23.0  0.3081   42.0  0.2455  -83.4
 2.820  0.4398  110.1   1.257   22.6  0.3101   41.7  0.2437  -84.2
 2.840  0.4419  109.6   1.250   22.1  0.3121   41.5  0.2420  -85.1
 2.860  0.4440  109.2   1.243   21.7  0.3141   41.2  0.2404  -85.9
 2.880  0.4461  108.8   1.236   21.2  0.3161   41.0  0.2388  -86.8
 2.900  0.4482  108.3   1.229   20.8  0.3181   40.8  0.2372  -87.7
 2.920  0.4504  107.9   1.222   20.3  0.3201   40.5  0.2357  -88.6
 2.940  0.4526  107.5   1.216   19.8  0.3221   40.3  0.2343  -89.5
 2.960  0.4548  107.1   1.209   19.4  0.3241   40.1  0.2330  -90.4
 2.980  0.4570  106.7   1.202   18.9  0.3262   39.8  0.2316  -91.4
 3.000  0.4593  106.3   1.196   18.4  0.3282   39.6  0.2304  -92.3
 3.100  0.4705  104.1   1.165   16.6  0.3370   38.2  0.2211  -97.2
 3.200  0.4822  102.1   1.136   14.7  0.3460   36.9  0.2135 -102.6
 3.300  0.4946  100.1   1.108   12.7  0.3552   35.6  0.2079 -108.2
 3.400  0.5076   98.3   1.081   10.6  0.3645   34.4  0.2044 -114.1
 3.500  0.5210   96.5   1.056    8.4  0.3740   33.3  0.2032 -120.2
 3.600  0.5293   94.7   1.033    6.8  0.3824   31.9  0.1993 -126.8
 3.700  0.5381   93.0   1.011    5.2  0.3909   30.6  0.1981 -133.5
 3.800  0.5473   91.3   0.989    3.5  0.3997   29.4  0.1996 -140.2
 3.900  0.5571   89.7   0.969    1.7  0.4087   28.2  0.2039 -146.7
 4.000  0.5672   88.1   0.949   -0.1  0.4178   27.0  0.2106 -152.9
 4.100  0.5761   86.7   0.931   -1.5  0.4252   25.5  0.2134 -159.1
 4.200  0.5853   85.2   0.913   -2.9  0.4329   24.1  0.2186 -165.1
 4.300  0.5949   83.9   0.896   -4.4  0.4408   22.8  0.2260 -170.7
 4.400  0.6048   82.6   0.879   -6.0  0.4490   21.5  0.2355 -175.9
 4.500  0.6150   81.3   0.863   -7.6  0.4574   20.2  0.2468  179.3
 4.600  0.6203   80.1   0.848   -8.8  0.4631   18.7  0.2536  174.4
 4.700  0.6258   78.8   0.833  -10.1  0.4691   17.3  0.2621  169.8
 4.800  0.6317   77.6   0.818  -11.5  0.4753   15.9  0.2723  165.5
 4.900  0.6378   76.5   0.804  -12.9  0.4819   14.5  0.2838  161.5
 5.000  0.6442   75.3   0.791  -14.3  0.4887   13.2  0.2966  157.9
 5.100  0.6505   74.0   0.773  -15.3  0.4900   11.7  0.2976  153.6
 5.200  0.6572   72.8   0.755  -16.4  0.4917   10.2  0.3003  149.4
 5.300  0.6641   71.6   0.738  -17.5  0.4937    8.7  0.3046  145.2
 5.400  0.6714   70.4   0.721  -18.7  0.4960    7.3  0.3104  141.2
 5.500  0.6789   69.2   0.704  -19.9  0.4986    5.8  0.3177  137.4
 5.600  0.6785   68.2   0.700  -20.3  0.5066    4.9  0.3350  136.9
 5.700  0.6782   67.3   0.696  -20.6  0.5148    4.1  0.3522  136.5
 5.800  0.6782   66.3   0.692  -21.0  0.5230    3.3  0.3695  136.1
 5.900  0.6784   65.4   0.688  -21.3  0.5314    2.6  0.3869  135.7
 6.000  0.6787   64.4   0.684  -21.7  0.5398    1.8  0.4042  135.4
!
!  f       NFmin   Gammaopt  rn/50
! GHz       dB    MAG  ANG    -
!
! noise parameter not available yet for this operation point!
!
! (c) 2015  Infineon Technologies AG, Munich
