! Infineon Technologies  Discrete & RF Semiconductors
! BFR35AP
! VCE =  3.5 V,  IC =  1.5 mA
! Common Emitter S-Parameters:                            Nov 2015
# GHz  S  MA  R  50
!  f         S11            S21            S12            S22
! GHz     MAG   ANG      MAG   ANG      MAG   ANG      MAG   ANG
 0.010  0.9368   -1.7   5.069  178.9  0.0028   87.9  0.9985   -0.6
 0.015  0.9374   -2.6   5.102  177.9  0.0044   89.5  0.9952   -1.0
 0.020  0.9382   -3.5   5.137  177.0  0.0061   90.3  0.9920   -1.5
 0.025  0.9372   -4.3   5.121  176.3  0.0076   88.7  0.9920   -1.9
 0.030  0.9363   -5.2   5.106  175.6  0.0090   87.7  0.9921   -2.3
 0.035  0.9357   -6.0   5.092  175.0  0.0105   86.9  0.9922   -2.7
 0.040  0.9353   -6.8   5.078  174.3  0.0120   86.3  0.9923   -3.0
 0.045  0.9350   -7.7   5.065  173.6  0.0134   85.9  0.9925   -3.4
 0.050  0.9350   -8.5   5.053  172.9  0.0149   85.5  0.9927   -3.8
 0.055  0.9321   -9.3   5.045  172.2  0.0163   84.5  0.9914   -4.2
 0.060  0.9295  -10.1   5.037  171.5  0.0178   83.6  0.9901   -4.5
 0.065  0.9270  -11.0   5.031  170.8  0.0193   82.9  0.9888   -4.9
 0.070  0.9247  -11.8   5.025  170.2  0.0207   82.3  0.9876   -5.2
 0.075  0.9226  -12.7   5.019  169.5  0.0222   81.7  0.9865   -5.6
 0.080  0.9207  -13.5   5.015  168.8  0.0236   81.2  0.9853   -6.0
 0.085  0.9190  -14.3   5.011  168.1  0.0251   80.8  0.9842   -6.3
 0.090  0.9176  -15.2   5.008  167.4  0.0266   80.4  0.9832   -6.7
 0.095  0.9163  -16.0   5.006  166.7  0.0280   80.1  0.9822   -7.0
 0.100  0.9152  -16.9   5.004  166.0  0.0295   79.8  0.9812   -7.4
 0.105  0.9115  -17.7   4.992  165.2  0.0309   79.1  0.9794   -7.8
 0.110  0.9080  -18.5   4.982  164.4  0.0323   78.5  0.9777   -8.1
 0.115  0.9047  -19.3   4.972  163.7  0.0337   78.0  0.9759   -8.5
 0.120  0.9016  -20.1   4.963  162.9  0.0351   77.5  0.9743   -8.9
 0.125  0.8986  -20.9   4.955  162.1  0.0365   77.0  0.9726   -9.2
 0.130  0.8959  -21.8   4.948  161.3  0.0379   76.6  0.9711   -9.6
 0.135  0.8933  -22.6   4.942  160.5  0.0393   76.2  0.9695  -10.0
 0.140  0.8909  -23.4   4.937  159.7  0.0407   75.8  0.9680  -10.4
 0.145  0.8887  -24.3   4.933  158.9  0.0421   75.4  0.9665  -10.7
 0.150  0.8867  -25.1   4.930  158.1  0.0435   75.1  0.9651  -11.1
 0.155  0.8839  -25.9   4.911  157.5  0.0447   74.5  0.9629  -11.4
 0.160  0.8812  -26.6   4.892  156.9  0.0459   74.0  0.9607  -11.7
 0.165  0.8787  -27.4   4.874  156.3  0.0472   73.5  0.9585  -12.0
 0.170  0.8764  -28.1   4.857  155.6  0.0484   73.0  0.9563  -12.3
 0.175  0.8742  -28.9   4.840  155.0  0.0496   72.5  0.9542  -12.6
 0.180  0.8722  -29.7   4.823  154.4  0.0508   72.1  0.9521  -12.9
 0.185  0.8703  -30.5   4.808  153.7  0.0521   71.7  0.9500  -13.2
 0.190  0.8686  -31.2   4.792  153.1  0.0533   71.2  0.9479  -13.5
 0.195  0.8671  -32.0   4.778  152.4  0.0546   70.9  0.9459  -13.8
 0.200  0.8657  -32.8   4.764  151.8  0.0558   70.5  0.9439  -14.1
 0.220  0.8487  -35.9   4.712  149.2  0.0604   68.6  0.9334  -15.3
 0.240  0.8344  -39.1   4.669  146.5  0.0651   66.9  0.9232  -16.5
 0.260  0.8194  -42.2   4.614  144.0  0.0694   65.4  0.9125  -17.6
 0.280  0.8035  -45.1   4.545  141.5  0.0735   64.0  0.9011  -18.7
 0.300  0.7896  -48.1   4.484  138.9  0.0776   62.8  0.8901  -19.8
 0.320  0.7733  -50.6   4.386  137.1  0.0808   61.3  0.8788  -20.6
 0.340  0.7584  -53.1   4.292  135.3  0.0841   59.9  0.8677  -21.5
 0.360  0.7452  -55.8   4.202  133.3  0.0874   58.6  0.8568  -22.3
 0.380  0.7336  -58.6   4.118  131.3  0.0907   57.4  0.8461  -23.2
 0.400  0.7238  -61.4   4.039  129.2  0.0941   56.3  0.8356  -24.1
 0.420  0.7069  -63.5   3.948  127.4  0.0966   55.2  0.8256  -24.7
 0.440  0.6909  -65.8   3.862  125.5  0.0991   54.1  0.8157  -25.4
 0.450  0.6834  -66.9   3.820  124.5  0.1003   53.5  0.8108  -25.7
 0.460  0.6761  -68.1   3.780  123.5  0.1016   53.0  0.8059  -26.0
 0.480  0.6625  -70.6   3.703  121.4  0.1042   52.0  0.7963  -26.7
 0.500  0.6501  -73.1   3.631  119.2  0.1068   51.1  0.7867  -27.4
 0.520  0.6355  -75.4   3.571  117.7  0.1086   50.3  0.7778  -27.9
 0.540  0.6219  -77.7   3.513  116.1  0.1105   49.5  0.7690  -28.4
 0.560  0.6094  -80.2   3.459  114.4  0.1123   48.7  0.7602  -28.9
 0.580  0.5981  -82.7   3.407  112.7  0.1142   48.0  0.7515  -29.4
 0.600  0.5880  -85.4   3.358  111.0  0.1161   47.3  0.7429  -29.9
 0.620  0.5760  -87.3   3.297  109.6  0.1175   46.7  0.7352  -30.3
 0.640  0.5647  -89.2   3.238  108.2  0.1190   46.2  0.7275  -30.7
 0.660  0.5540  -91.3   3.181  106.8  0.1204   45.6  0.7199  -31.1
 0.680  0.5441  -93.4   3.126  105.3  0.1219   45.1  0.7123  -31.6
 0.700  0.5349  -95.6   3.073  103.7  0.1234   44.6  0.7048  -32.0
 0.720  0.5246  -97.4   3.015  102.5  0.1245   44.2  0.6985  -32.3
 0.740  0.5149  -99.3   2.958  101.3  0.1257   43.8  0.6922  -32.7
 0.760  0.5057 -101.3   2.902  100.0  0.1268   43.4  0.6859  -33.1
 0.780  0.4972 -103.3   2.848   98.7  0.1279   43.0  0.6797  -33.4
 0.800  0.4893 -105.4   2.796   97.3  0.1291   42.6  0.6735  -33.8
 0.820  0.4813 -107.0   2.746   96.2  0.1302   42.4  0.6685  -34.1
 0.840  0.4736 -108.6   2.697   95.1  0.1312   42.1  0.6635  -34.3
 0.860  0.4663 -110.3   2.649   93.9  0.1323   41.9  0.6585  -34.6
 0.880  0.4595 -112.1   2.602   92.7  0.1333   41.6  0.6535  -34.9
 0.900  0.4531 -113.9   2.556   91.5  0.1344   41.4  0.6486  -35.2
 0.920  0.4455 -115.7   2.520   90.5  0.1352   41.2  0.6449  -35.5
 0.940  0.4383 -117.6   2.484   89.5  0.1359   40.9  0.6412  -35.8
 0.960  0.4316 -119.6   2.449   88.5  0.1367   40.7  0.6375  -36.0
 0.980  0.4255 -121.6   2.415   87.5  0.1374   40.4  0.6338  -36.3
 1.000  0.4199 -123.7   2.382   86.4  0.1382   40.2  0.6301  -36.6
 1.020  0.4146 -125.5   2.352   85.5  0.1391   40.1  0.6266  -36.9
 1.040  0.4098 -127.3   2.322   84.6  0.1399   40.1  0.6231  -37.2
 1.060  0.4054 -129.2   2.294   83.6  0.1408   40.0  0.6197  -37.5
 1.080  0.4014 -131.1   2.265   82.6  0.1416   40.0  0.6162  -37.8
 1.100  0.3979 -133.1   2.238   81.6  0.1425   39.9  0.6128  -38.1
 1.120  0.3930 -134.9   2.209   80.7  0.1432   39.8  0.6098  -38.4
 1.140  0.3886 -136.7   2.180   79.7  0.1439   39.6  0.6068  -38.7
 1.160  0.3845 -138.6   2.151   78.7  0.1445   39.5  0.6038  -38.9
 1.180  0.3809 -140.5   2.124   77.7  0.1452   39.3  0.6009  -39.2
 1.200  0.3777 -142.5   2.097   76.7  0.1459   39.2  0.5979  -39.5
 1.220  0.3740 -144.1   2.071   75.9  0.1467   39.2  0.5952  -39.8
 1.240  0.3705 -145.7   2.045   75.2  0.1474   39.3  0.5925  -40.0
 1.260  0.3674 -147.3   2.019   74.4  0.1482   39.3  0.5899  -40.3
 1.280  0.3645 -148.9   1.994   73.5  0.1489   39.4  0.5872  -40.5
 1.300  0.3620 -150.6   1.969   72.7  0.1497   39.4  0.5846  -40.8
 1.320  0.3588 -152.2   1.945   71.9  0.1503   39.5  0.5822  -41.1
 1.340  0.3559 -153.7   1.922   71.1  0.1508   39.6  0.5799  -41.4
 1.360  0.3533 -155.3   1.899   70.2  0.1514   39.6  0.5775  -41.7
 1.380  0.3510 -157.0   1.877   69.4  0.1519   39.7  0.5752  -42.0
 1.400  0.3489 -158.6   1.855   68.5  0.1525   39.8  0.5729  -42.3
 1.420  0.3468 -160.0   1.838   67.8  0.1533   40.0  0.5703  -42.6
 1.440  0.3449 -161.5   1.821   67.1  0.1540   40.1  0.5677  -42.8
 1.460  0.3432 -162.9   1.805   66.4  0.1548   40.3  0.5651  -43.1
 1.480  0.3417 -164.4   1.789   65.7  0.1555   40.4  0.5626  -43.3
 1.500  0.3405 -165.9   1.773   65.0  0.1563   40.6  0.5600  -43.6
 1.520  0.3398 -167.6   1.753   64.2  0.1573   40.7  0.5580  -43.9
 1.540  0.3393 -169.2   1.732   63.5  0.1582   40.7  0.5560  -44.2
 1.560  0.3392 -170.9   1.713   62.7  0.1592   40.8  0.5541  -44.5
 1.580  0.3393 -172.5   1.693   61.8  0.1601   40.8  0.5521  -44.8
 1.600  0.3397 -174.2   1.674   61.0  0.1611   40.9  0.5502  -45.1
 1.620  0.3395 -175.7   1.658   60.4  0.1619   41.1  0.5481  -45.4
 1.640  0.3395 -177.2   1.642   59.7  0.1628   41.3  0.5461  -45.7
 1.660  0.3397 -178.7   1.626   59.1  0.1636   41.4  0.5440  -46.1
 1.680  0.3402  179.8   1.610   58.4  0.1645   41.6  0.5420  -46.4
 1.700  0.3409  178.3   1.595   57.7  0.1653   41.8  0.5400  -46.7
 1.720  0.3403  176.9   1.582   57.1  0.1665   41.8  0.5392  -47.0
 1.740  0.3398  175.6   1.569   56.5  0.1677   41.9  0.5385  -47.3
 1.760  0.3396  174.2   1.557   55.8  0.1690   41.9  0.5377  -47.7
 1.780  0.3396  172.9   1.544   55.2  0.1702   42.0  0.5370  -48.0
 1.800  0.3397  171.5   1.532   54.5  0.1714   42.0  0.5363  -48.3
 1.820  0.3403  170.2   1.521   53.9  0.1724   42.1  0.5347  -48.7
 1.840  0.3411  168.9   1.510   53.2  0.1734   42.2  0.5332  -49.1
 1.860  0.3421  167.6   1.499   52.5  0.1743   42.4  0.5317  -49.5
 1.880  0.3432  166.4   1.488   51.9  0.1753   42.5  0.5302  -49.9
 1.900  0.3445  165.1   1.478   51.2  0.1763   42.6  0.5287  -50.3
 1.920  0.3453  163.9   1.466   50.6  0.1777   42.7  0.5271  -50.6
 1.940  0.3462  162.7   1.454   50.0  0.1790   42.8  0.5256  -51.0
 1.960  0.3472  161.5   1.442   49.3  0.1804   42.9  0.5241  -51.3
 1.980  0.3484  160.3   1.430   48.7  0.1817   43.0  0.5226  -51.7
 2.000  0.3498  159.1   1.419   48.0  0.1831   43.1  0.5211  -52.0
 2.020  0.3505  158.0   1.408   47.5  0.1844   43.2  0.5193  -52.4
 2.040  0.3514  156.9   1.397   46.9  0.1858   43.4  0.5176  -52.8
 2.060  0.3524  155.8   1.386   46.4  0.1871   43.5  0.5159  -53.2
 2.080  0.3535  154.7   1.375   45.8  0.1884   43.6  0.5142  -53.6
 2.100  0.3547  153.6   1.364   45.2  0.1897   43.7  0.5126  -54.0
 2.120  0.3561  152.5   1.354   44.6  0.1911   43.8  0.5109  -54.4
 2.140  0.3576  151.5   1.343   44.0  0.1924   44.0  0.5093  -54.8
 2.160  0.3592  150.4   1.333   43.4  0.1937   44.1  0.5078  -55.3
 2.180  0.3609  149.3   1.323   42.8  0.1951   44.2  0.5062  -55.7
 2.200  0.3628  148.3   1.313   42.2  0.1964   44.3  0.5047  -56.1
 2.220  0.3639  147.2   1.306   41.6  0.1978   44.4  0.5033  -56.6
 2.240  0.3652  146.1   1.298   41.1  0.1993   44.4  0.5019  -57.0
 2.260  0.3666  145.1   1.291   40.5  0.2007   44.5  0.5006  -57.5
 2.280  0.3681  144.0   1.284   40.0  0.2022   44.5  0.4993  -58.0
 2.300  0.3698  143.0   1.277   39.4  0.2036   44.6  0.4980  -58.4
 2.320  0.3715  141.9   1.270   38.8  0.2051   44.6  0.4968  -58.9
 2.340  0.3734  140.9   1.263   38.2  0.2065   44.7  0.4956  -59.4
 2.360  0.3754  139.9   1.257   37.6  0.2080   44.7  0.4944  -59.8
 2.380  0.3776  138.9   1.250   37.0  0.2094   44.8  0.4933  -60.3
 2.400  0.3798  137.9   1.244   36.4  0.2109   44.8  0.4922  -60.8
 2.420  0.3820  137.0   1.236   35.9  0.2127   44.8  0.4904  -61.3
 2.440  0.3842  136.1   1.227   35.5  0.2145   44.9  0.4886  -61.7
 2.460  0.3865  135.2   1.219   35.0  0.2163   44.9  0.4869  -62.2
 2.480  0.3890  134.3   1.211   34.5  0.2181   44.9  0.4851  -62.6
 2.500  0.3915  133.4   1.203   34.0  0.2199   45.0  0.4834  -63.1
 2.520  0.3941  132.5   1.195   33.5  0.2218   45.0  0.4818  -63.6
 2.540  0.3969  131.7   1.187   33.0  0.2236   45.0  0.4802  -64.1
 2.560  0.3997  130.8   1.179   32.5  0.2254   45.0  0.4786  -64.5
 2.580  0.4025  130.0   1.172   31.9  0.2272   45.1  0.4770  -65.0
 2.600  0.4055  129.2   1.164   31.4  0.2290   45.1  0.4755  -65.5
 2.620  0.4070  128.4   1.158   31.0  0.2307   45.1  0.4741  -66.1
 2.640  0.4087  127.6   1.153   30.5  0.2325   45.0  0.4727  -66.6
 2.660  0.4104  126.8   1.147   30.0  0.2342   45.0  0.4714  -67.2
 2.680  0.4122  126.0   1.141   29.6  0.2359   44.9  0.4701  -67.7
 2.700  0.4140  125.2   1.136   29.1  0.2376   44.9  0.4689  -68.3
 2.720  0.4160  124.4   1.131   28.6  0.2394   44.9  0.4677  -68.9
 2.740  0.4180  123.7   1.125   28.2  0.2411   44.8  0.4666  -69.5
 2.760  0.4201  122.9   1.120   27.7  0.2428   44.8  0.4655  -70.0
 2.780  0.4223  122.1   1.115   27.2  0.2446   44.7  0.4645  -70.6
 2.800  0.4245  121.4   1.110   26.7  0.2463   44.7  0.4635  -71.2
 2.820  0.4268  120.8   1.104   26.2  0.2484   44.6  0.4615  -71.8
 2.840  0.4291  120.1   1.098   25.8  0.2504   44.6  0.4596  -72.4
 2.860  0.4315  119.5   1.092   25.3  0.2525   44.5  0.4577  -73.0
 2.880  0.4339  118.9   1.086   24.8  0.2546   44.4  0.4558  -73.6
 2.900  0.4364  118.3   1.080   24.4  0.2566   44.4  0.4540  -74.2
 2.920  0.4390  117.7   1.074   23.9  0.2587   44.3  0.4523  -74.9
 2.940  0.4416  117.1   1.069   23.4  0.2608   44.3  0.4506  -75.5
 2.960  0.4442  116.5   1.063   22.9  0.2629   44.2  0.4490  -76.1
 2.980  0.4469  115.9   1.057   22.4  0.2649   44.2  0.4474  -76.8
 3.000  0.4496  115.3   1.052   21.9  0.2670   44.1  0.4459  -77.4
 3.100  0.4597  112.4   1.024   20.1  0.2774   43.3  0.4358  -80.8
 3.200  0.4710  109.6   0.998   18.2  0.2879   42.6  0.4274  -84.4
 3.300  0.4833  107.0   0.973   16.2  0.2984   41.9  0.4206  -88.2
 3.400  0.4965  104.5   0.949   14.1  0.3089   41.3  0.4158  -92.0
 3.500  0.5107  102.1   0.926   11.9  0.3195   40.7  0.4128  -95.9
 3.600  0.5195   99.9   0.907   10.3  0.3307   39.6  0.4035 -100.4
 3.700  0.5290   97.7   0.889    8.7  0.3421   38.5  0.3968 -105.0
 3.800  0.5393   95.7   0.872    7.0  0.3536   37.6  0.3928 -109.8
 3.900  0.5502   93.7   0.856    5.2  0.3651   36.7  0.3915 -114.7
 4.000  0.5618   91.8   0.840    3.4  0.3768   35.8  0.3931 -119.5
 4.100  0.5695   90.1   0.825    2.1  0.3876   34.3  0.3870 -124.5
 4.200  0.5778   88.4   0.810    0.7  0.3987   32.9  0.3838 -129.6
 4.300  0.5865   86.8   0.796   -0.7  0.4100   31.6  0.3838 -134.8
 4.400  0.5956   85.2   0.782   -2.1  0.4215   30.3  0.3869 -139.9
 4.500  0.6052   83.7   0.769   -3.6  0.4332   29.1  0.3930 -144.9
 4.600  0.6108   82.3   0.756   -4.7  0.4421   27.4  0.3897 -149.9
 4.700  0.6167   80.9   0.744   -5.8  0.4514   25.8  0.3894 -155.0
 4.800  0.6231   79.5   0.732   -7.0  0.4610   24.2  0.3921 -160.0
 4.900  0.6297   78.2   0.720   -8.2  0.4709   22.7  0.3978 -164.9
 5.000  0.6367   76.9   0.709   -9.5  0.4812   21.3  0.4064 -169.7
 5.100  0.6422   75.6   0.694  -10.5  0.4843   19.5  0.3971 -174.4
 5.200  0.6481   74.4   0.679  -11.5  0.4878   17.7  0.3905 -179.2
 5.300  0.6542   73.1   0.664  -12.6  0.4918   16.0  0.3868  175.8
 5.400  0.6607   71.9   0.649  -13.7  0.4963   14.3  0.3861  170.8
 5.500  0.6674   70.7   0.635  -14.9  0.5012   12.6  0.3883  165.8
 5.600  0.6661   69.6   0.634  -15.0  0.5109   11.6  0.4056  163.7
 5.700  0.6651   68.5   0.632  -15.0  0.5208   10.7  0.4235  161.7
 5.800  0.6643   67.4   0.631  -15.1  0.5307    9.7  0.4417  159.9
 5.900  0.6637   66.3   0.629  -15.1  0.5409    8.9  0.4604  158.2
 6.000  0.6634   65.2   0.628  -15.2  0.5511    8.0  0.4795  156.7
!
!  f       NFmin   Gammaopt  rn/50
! GHz       dB    MAG  ANG    -
!
! noise parameter not available yet for this operation point!
!
! (c) 2015  Infineon Technologies AG, Munich
