! Infineon Technologies  Discrete & RF Semiconductors
! BFR35AP
! VCE =  6.0 V,  IC =  2.5 mA
! Common Emitter S-Parameters:                            Nov 2015
# GHz  S  MA  R  50
!  f         S11            S21            S12            S22
! GHz     MAG   ANG      MAG   ANG      MAG   ANG      MAG   ANG
 0.010  0.9088   -2.0   7.996  178.4  0.0025   91.8  0.9978   -0.9
 0.015  0.9054   -3.0   7.919  177.3  0.0036   87.4  0.9948   -1.3
 0.020  0.9024   -4.1   7.845  176.2  0.0048   85.1  0.9919   -1.8
 0.025  0.9014   -5.2   7.859  175.3  0.0062   85.1  0.9913   -2.2
 0.030  0.9008   -6.2   7.875  174.5  0.0076   85.1  0.9909   -2.7
 0.035  0.9004   -7.3   7.892  173.6  0.0089   85.1  0.9904   -3.1
 0.040  0.9003   -8.4   7.911  172.8  0.0103   85.1  0.9901   -3.6
 0.045  0.9006   -9.4   7.932  171.9  0.0117   85.1  0.9897   -4.0
 0.050  0.9012  -10.5   7.955  171.1  0.0131   85.1  0.9895   -4.5
 0.055  0.8972  -11.5   7.934  170.3  0.0143   84.1  0.9871   -4.9
 0.060  0.8934  -12.4   7.916  169.4  0.0155   83.2  0.9848   -5.3
 0.065  0.8900  -13.4   7.898  168.6  0.0168   82.4  0.9825   -5.8
 0.070  0.8867  -14.4   7.883  167.7  0.0180   81.8  0.9803   -6.2
 0.075  0.8838  -15.4   7.869  166.9  0.0192   81.2  0.9781   -6.6
 0.080  0.8811  -16.4   7.857  166.0  0.0205   80.7  0.9760   -7.1
 0.085  0.8787  -17.4   7.847  165.2  0.0217   80.3  0.9739   -7.5
 0.090  0.8765  -18.5   7.839  164.3  0.0229   79.9  0.9719   -7.9
 0.095  0.8747  -19.5   7.832  163.5  0.0242   79.5  0.9700   -8.4
 0.100  0.8731  -20.5   7.827  162.6  0.0254   79.2  0.9681   -8.8
 0.105  0.8683  -21.4   7.779  161.8  0.0265   78.3  0.9655   -9.2
 0.110  0.8637  -22.4   7.733  160.9  0.0276   77.5  0.9629   -9.6
 0.115  0.8593  -23.3   7.689  160.0  0.0288   76.8  0.9603  -10.0
 0.120  0.8552  -24.3   7.647  159.2  0.0299   76.1  0.9578  -10.4
 0.125  0.8514  -25.3   7.606  158.3  0.0311   75.5  0.9554  -10.8
 0.130  0.8478  -26.3   7.567  157.4  0.0322   74.9  0.9530  -11.2
 0.135  0.8444  -27.3   7.530  156.5  0.0333   74.3  0.9506  -11.6
 0.140  0.8413  -28.3   7.495  155.6  0.0345   73.8  0.9483  -12.0
 0.145  0.8385  -29.3   7.462  154.6  0.0356   73.3  0.9460  -12.4
 0.150  0.8359  -30.3   7.431  153.7  0.0368   72.9  0.9438  -12.8
 0.155  0.8307  -31.2   7.400  153.0  0.0378   72.4  0.9403  -13.1
 0.160  0.8258  -32.0   7.371  152.2  0.0388   71.9  0.9368  -13.5
 0.165  0.8210  -32.9   7.343  151.5  0.0398   71.4  0.9333  -13.8
 0.170  0.8164  -33.8   7.316  150.7  0.0408   70.9  0.9299  -14.1
 0.175  0.8120  -34.7   7.290  150.0  0.0418   70.5  0.9265  -14.5
 0.180  0.8079  -35.6   7.266  149.2  0.0428   70.1  0.9232  -14.8
 0.185  0.8039  -36.6   7.242  148.4  0.0438   69.7  0.9199  -15.2
 0.190  0.8002  -37.5   7.221  147.7  0.0448   69.3  0.9166  -15.5
 0.195  0.7966  -38.4   7.200  146.9  0.0458   68.9  0.9133  -15.8
 0.200  0.7933  -39.4   7.181  146.1  0.0468   68.6  0.9101  -16.2
 0.220  0.7731  -42.8   7.002  143.3  0.0500   66.7  0.8949  -17.3
 0.240  0.7558  -46.4   6.841  140.4  0.0533   65.0  0.8802  -18.5
 0.260  0.7378  -49.7   6.667  137.7  0.0565   63.6  0.8661  -19.5
 0.280  0.7182  -52.6   6.476  135.3  0.0595   62.6  0.8526  -20.5
 0.300  0.7005  -55.7   6.297  132.8  0.0626   61.7  0.8394  -21.4
 0.320  0.6786  -58.3   6.140  130.9  0.0649   60.4  0.8265  -22.0
 0.340  0.6583  -61.1   5.990  128.9  0.0672   59.3  0.8137  -22.7
 0.360  0.6396  -64.0   5.847  126.8  0.0696   58.2  0.8011  -23.4
 0.380  0.6226  -67.1   5.713  124.6  0.0720   57.2  0.7885  -24.1
 0.400  0.6076  -70.4   5.588  122.3  0.0744   56.2  0.7761  -24.8
 0.420  0.5904  -72.6   5.436  120.6  0.0761   55.5  0.7648  -25.3
 0.440  0.5741  -74.9   5.289  118.7  0.0778   54.8  0.7535  -25.7
 0.450  0.5663  -76.1   5.218  117.8  0.0786   54.5  0.7478  -26.0
 0.460  0.5588  -77.4   5.148  116.8  0.0795   54.2  0.7422  -26.2
 0.480  0.5446  -80.0   5.013  114.8  0.0812   53.6  0.7310  -26.7
 0.500  0.5316  -82.7   4.885  112.6  0.0829   53.0  0.7199  -27.2
 0.520  0.5187  -84.8   4.768  111.3  0.0843   52.6  0.7118  -27.5
 0.540  0.5065  -86.9   4.653  109.9  0.0858   52.2  0.7038  -27.8
 0.560  0.4951  -89.2   4.541  108.5  0.0872   51.8  0.6957  -28.1
 0.580  0.4845  -91.5   4.433  107.0  0.0887   51.4  0.6877  -28.4
 0.600  0.4747  -94.0   4.327  105.4  0.0901   51.0  0.6797  -28.7
 0.620  0.4638  -95.8   4.233  104.2  0.0915   50.8  0.6739  -28.9
 0.640  0.4535  -97.7   4.141  103.0  0.0928   50.5  0.6681  -29.1
 0.660  0.4436  -99.7   4.051  101.7  0.0942   50.3  0.6623  -29.3
 0.680  0.4344 -101.8   3.963  100.4  0.0955   50.1  0.6566  -29.6
 0.700  0.4257 -104.0   3.877   99.0  0.0969   49.9  0.6508  -29.8
 0.720  0.4168 -105.9   3.796   97.9  0.0981   49.8  0.6456  -30.0
 0.740  0.4084 -107.8   3.716   96.8  0.0994   49.6  0.6405  -30.2
 0.760  0.4005 -109.8   3.638   95.6  0.1006   49.5  0.6353  -30.4
 0.780  0.3931 -111.9   3.561   94.4  0.1019   49.3  0.6301  -30.6
 0.800  0.3863 -114.1   3.486   93.1  0.1031   49.2  0.6250  -30.8
 0.820  0.3782 -115.8   3.424   92.1  0.1042   49.2  0.6208  -31.0
 0.840  0.3705 -117.5   3.364   91.1  0.1053   49.1  0.6167  -31.2
 0.860  0.3632 -119.3   3.304   90.1  0.1064   49.1  0.6125  -31.3
 0.880  0.3562 -121.2   3.245   89.0  0.1075   49.0  0.6083  -31.5
 0.900  0.3496 -123.2   3.188   87.9  0.1086   49.0  0.6042  -31.7
 0.920  0.3437 -125.1   3.137   87.0  0.1096   49.1  0.6008  -31.9
 0.940  0.3382 -127.0   3.086   86.1  0.1105   49.2  0.5974  -32.0
 0.960  0.3331 -129.0   3.036   85.2  0.1115   49.2  0.5940  -32.2
 0.980  0.3284 -131.1   2.987   84.3  0.1124   49.3  0.5906  -32.3
 1.000  0.3241 -133.2   2.939   83.3  0.1134   49.4  0.5872  -32.5
 1.020  0.3201 -135.0   2.896   82.5  0.1146   49.5  0.5845  -32.8
 1.040  0.3164 -136.8   2.854   81.7  0.1158   49.5  0.5819  -33.0
 1.060  0.3130 -138.6   2.812   80.8  0.1171   49.6  0.5792  -33.3
 1.080  0.3100 -140.5   2.770   79.9  0.1183   49.6  0.5766  -33.5
 1.100  0.3073 -142.4   2.730   79.0  0.1195   49.7  0.5740  -33.8
 1.120  0.3037 -144.1   2.690   78.2  0.1205   49.8  0.5718  -34.0
 1.140  0.3003 -145.9   2.650   77.4  0.1216   49.9  0.5696  -34.2
 1.160  0.2972 -147.7   2.611   76.6  0.1226   49.9  0.5674  -34.3
 1.180  0.2945 -149.5   2.572   75.8  0.1237   50.0  0.5652  -34.5
 1.200  0.2920 -151.4   2.534   74.9  0.1247   50.1  0.5630  -34.7
 1.220  0.2895 -152.9   2.498   74.2  0.1260   50.2  0.5610  -34.9
 1.240  0.2872 -154.4   2.463   73.6  0.1273   50.2  0.5591  -35.1
 1.260  0.2852 -155.9   2.427   72.9  0.1286   50.3  0.5571  -35.4
 1.280  0.2833 -157.4   2.392   72.1  0.1299   50.3  0.5551  -35.6
 1.300  0.2816 -159.0   2.358   71.4  0.1312   50.4  0.5532  -35.8
 1.320  0.2796 -160.7   2.328   70.7  0.1323   50.4  0.5519  -36.0
 1.340  0.2779 -162.4   2.298   70.0  0.1334   50.5  0.5506  -36.3
 1.360  0.2763 -164.1   2.269   69.2  0.1344   50.5  0.5493  -36.5
 1.380  0.2751 -165.8   2.240   68.5  0.1355   50.6  0.5480  -36.8
 1.400  0.2741 -167.6   2.211   67.7  0.1366   50.6  0.5467  -37.0
 1.420  0.2731 -169.0   2.189   67.1  0.1380   50.7  0.5452  -37.2
 1.440  0.2723 -170.3   2.166   66.5  0.1393   50.8  0.5436  -37.5
 1.460  0.2716 -171.7   2.144   65.9  0.1407   50.8  0.5421  -37.7
 1.480  0.2711 -173.1   2.122   65.2  0.1420   50.9  0.5406  -38.0
 1.500  0.2707 -174.5   2.101   64.6  0.1434   51.0  0.5391  -38.2
 1.520  0.2712 -176.3   2.076   63.9  0.1447   51.0  0.5376  -38.5
 1.540  0.2719 -178.0   2.052   63.2  0.1460   51.0  0.5362  -38.8
 1.560  0.2729 -179.8   2.027   62.4  0.1474   51.1  0.5347  -39.1
 1.580  0.2741  178.5   2.004   61.7  0.1487   51.1  0.5333  -39.4
 1.600  0.2756  176.8   1.980   60.9  0.1500   51.1  0.5319  -39.7
 1.620  0.2753  175.2   1.962   60.3  0.1513   51.2  0.5304  -40.0
 1.640  0.2752  173.6   1.944   59.7  0.1527   51.3  0.5288  -40.3
 1.660  0.2753  172.0   1.927   59.1  0.1540   51.5  0.5273  -40.5
 1.680  0.2757  170.4   1.909   58.5  0.1554   51.6  0.5258  -40.8
 1.700  0.2762  168.8   1.892   57.9  0.1567   51.7  0.5243  -41.1
 1.720  0.2766  167.5   1.877   57.3  0.1583   51.7  0.5231  -41.4
 1.740  0.2770  166.3   1.861   56.7  0.1598   51.8  0.5219  -41.7
 1.760  0.2777  165.0   1.846   56.1  0.1614   51.8  0.5207  -41.9
 1.780  0.2784  163.7   1.832   55.5  0.1629   51.9  0.5196  -42.2
 1.800  0.2793  162.5   1.817   54.9  0.1645   51.9  0.5184  -42.5
 1.820  0.2813  161.4   1.801   54.3  0.1660   52.0  0.5171  -42.8
 1.840  0.2834  160.3   1.784   53.7  0.1675   52.0  0.5159  -43.2
 1.860  0.2857  159.3   1.768   53.1  0.1691   52.1  0.5146  -43.5
 1.880  0.2880  158.2   1.753   52.4  0.1706   52.1  0.5134  -43.9
 1.900  0.2904  157.2   1.737   51.8  0.1721   52.2  0.5122  -44.2
 1.920  0.2909  156.0   1.722   51.3  0.1737   52.2  0.5108  -44.5
 1.940  0.2916  154.8   1.707   50.7  0.1753   52.2  0.5095  -44.8
 1.960  0.2924  153.6   1.693   50.2  0.1769   52.1  0.5081  -45.1
 1.980  0.2933  152.5   1.678   49.7  0.1785   52.1  0.5068  -45.4
 2.000  0.2943  151.3   1.664   49.1  0.1801   52.1  0.5055  -45.7
 2.020  0.2954  150.3   1.651   48.6  0.1817   52.1  0.5043  -46.1
 2.040  0.2966  149.3   1.638   48.0  0.1832   52.1  0.5032  -46.4
 2.060  0.2979  148.3   1.625   47.5  0.1848   52.0  0.5020  -46.8
 2.080  0.2993  147.3   1.613   47.0  0.1863   52.0  0.5009  -47.2
 2.100  0.3008  146.3   1.600   46.4  0.1879   52.0  0.4998  -47.6
 2.120  0.3024  145.3   1.588   45.8  0.1895   52.0  0.4988  -48.0
 2.140  0.3040  144.3   1.576   45.3  0.1910   52.0  0.4977  -48.3
 2.160  0.3058  143.4   1.564   44.7  0.1926   51.9  0.4967  -48.7
 2.180  0.3076  142.4   1.552   44.1  0.1941   51.9  0.4957  -49.1
 2.200  0.3095  141.5   1.540   43.5  0.1957   51.9  0.4947  -49.5
 2.220  0.3114  140.6   1.530   43.0  0.1975   51.9  0.4930  -49.9
 2.240  0.3133  139.6   1.521   42.5  0.1992   51.8  0.4914  -50.3
 2.260  0.3153  138.7   1.512   41.9  0.2010   51.8  0.4897  -50.7
 2.280  0.3174  137.8   1.502   41.4  0.2028   51.8  0.4881  -51.1
 2.300  0.3196  136.9   1.493   40.9  0.2045   51.7  0.4865  -51.5
 2.320  0.3218  136.1   1.484   40.3  0.2063   51.7  0.4850  -51.9
 2.340  0.3241  135.2   1.476   39.8  0.2081   51.7  0.4834  -52.3
 2.360  0.3265  134.4   1.467   39.2  0.2099   51.7  0.4819  -52.8
 2.380  0.3290  133.5   1.458   38.7  0.2116   51.6  0.4805  -53.2
 2.400  0.3315  132.7   1.450   38.1  0.2134   51.6  0.4790  -53.6
 2.420  0.3335  131.9   1.440   37.7  0.2152   51.5  0.4777  -54.0
 2.440  0.3356  131.0   1.431   37.2  0.2170   51.4  0.4765  -54.4
 2.460  0.3377  130.2   1.421   36.8  0.2188   51.3  0.4752  -54.9
 2.480  0.3399  129.4   1.412   36.3  0.2206   51.2  0.4740  -55.3
 2.500  0.3422  128.6   1.402   35.9  0.2224   51.1  0.4729  -55.7
 2.520  0.3445  127.8   1.393   35.4  0.2242   51.0  0.4717  -56.2
 2.540  0.3469  127.1   1.384   34.9  0.2260   51.0  0.4706  -56.6
 2.560  0.3494  126.3   1.375   34.5  0.2278   50.9  0.4695  -57.0
 2.580  0.3519  125.5   1.366   34.0  0.2296   50.8  0.4684  -57.5
 2.600  0.3545  124.8   1.357   33.5  0.2314   50.7  0.4674  -57.9
 2.620  0.3565  124.1   1.350   33.1  0.2333   50.6  0.4656  -58.4
 2.640  0.3586  123.4   1.343   32.6  0.2352   50.5  0.4638  -58.9
 2.660  0.3608  122.7   1.336   32.1  0.2372   50.4  0.4620  -59.3
 2.680  0.3630  122.0   1.329   31.7  0.2391   50.3  0.4603  -59.8
 2.700  0.3652  121.3   1.322   31.2  0.2410   50.2  0.4586  -60.3
 2.720  0.3675  120.6   1.316   30.7  0.2429   50.1  0.4569  -60.8
 2.740  0.3699  120.0   1.309   30.3  0.2448   50.0  0.4553  -61.3
 2.760  0.3723  119.3   1.303   29.8  0.2468   49.9  0.4537  -61.8
 2.780  0.3747  118.6   1.296   29.3  0.2487   49.8  0.4521  -62.3
 2.800  0.3772  118.0   1.290   28.8  0.2506   49.7  0.4506  -62.8
 2.820  0.3796  117.4   1.283   28.4  0.2525   49.6  0.4491  -63.3
 2.840  0.3821  116.9   1.275   27.9  0.2543   49.4  0.4477  -63.9
 2.860  0.3846  116.3   1.268   27.5  0.2562   49.3  0.4463  -64.4
 2.880  0.3872  115.8   1.261   27.0  0.2581   49.2  0.4450  -65.0
 2.900  0.3897  115.3   1.253   26.6  0.2600   49.0  0.4436  -65.5
 2.920  0.3923  114.7   1.246   26.1  0.2619   48.9  0.4424  -66.1
 2.940  0.3950  114.2   1.239   25.6  0.2637   48.8  0.4411  -66.6
 2.960  0.3977  113.7   1.233   25.2  0.2656   48.6  0.4399  -67.2
 2.980  0.4004  113.2   1.226   24.7  0.2675   48.5  0.4388  -67.7
 3.000  0.4031  112.7   1.219   24.2  0.2694   48.4  0.4377  -68.3
 3.100  0.4148  110.1   1.188   22.3  0.2793   47.4  0.4274  -71.3
 3.200  0.4273  107.6   1.159   20.4  0.2893   46.5  0.4184  -74.5
 3.300  0.4406  105.3   1.131   18.3  0.2994   45.6  0.4106  -77.8
 3.400  0.4545  103.1   1.105   16.2  0.3095   44.8  0.4043  -81.2
 3.500  0.4691  101.1   1.080   13.9  0.3197   44.0  0.3995  -84.7
 3.600  0.4791   99.1   1.056   12.2  0.3302   42.8  0.3894  -88.7
 3.700  0.4896   97.2   1.033   10.5  0.3408   41.8  0.3812  -92.8
 3.800  0.5006   95.3   1.011    8.7  0.3515   40.8  0.3752  -97.1
 3.900  0.5122   93.6   0.991    6.8  0.3624   39.8  0.3713 -101.5
 4.000  0.5242   91.9   0.971    4.8  0.3733   38.9  0.3696 -106.0
 4.100  0.5332   90.4   0.953    3.4  0.3838   37.4  0.3609 -110.6
 4.200  0.5425   88.9   0.935    1.9  0.3945   36.0  0.3547 -115.4
 4.300  0.5522   87.5   0.918    0.3  0.4054   34.7  0.3511 -120.4
 4.400  0.5623   86.1   0.902   -1.3  0.4166   33.4  0.3501 -125.4
 4.500  0.5726   84.8   0.886   -3.0  0.4279   32.2  0.3518 -130.4
 4.600  0.5797   83.4   0.871   -4.3  0.4368   30.6  0.3474 -135.4
 4.700  0.5871   82.1   0.856   -5.7  0.4461   29.1  0.3458 -140.5
 4.800  0.5948   80.7   0.842   -7.2  0.4556   27.6  0.3469 -145.7
 4.900  0.6029   79.5   0.828   -8.7  0.4655   26.2  0.3508 -150.7
 5.000  0.6112   78.2   0.815  -10.2  0.4756   24.8  0.3573 -155.6
 5.100  0.6184   76.9   0.794  -11.3  0.4792   23.0  0.3477 -160.4
 5.200  0.6259   75.6   0.774  -12.6  0.4833   21.3  0.3407 -165.3
 5.300  0.6338   74.3   0.754  -13.8  0.4879   19.5  0.3363 -170.5
 5.400  0.6419   73.1   0.734  -15.2  0.4928   17.9  0.3347 -175.7
 5.500  0.6503   71.9   0.715  -16.6  0.4982   16.2  0.3359  179.0
 5.600  0.6503   70.8   0.710  -16.9  0.5083   15.2  0.3529  176.3
 5.700  0.6506   69.8   0.706  -17.1  0.5185   14.3  0.3707  173.8
 5.800  0.6511   68.7   0.701  -17.4  0.5289   13.5  0.3891  171.6
 5.900  0.6518   67.7   0.697  -17.6  0.5393   12.6  0.4080  169.5
 6.000  0.6527   66.6   0.692  -17.9  0.5499   11.8  0.4274  167.7
!
!  f       NFmin   Gammaopt  rn/50
! GHz       dB    MAG  ANG    -
!
! noise parameter not available yet for this operation point!
!
! (c) 2015  Infineon Technologies AG, Munich
