! Infineon Technologies  Discrete & RF Semiconductors
! BFR35AP
! VCE =  1.0 V,  IC =  12 mA
! Common Emitter S-Parameters:                            Nov 2015
# GHz  S  MA  R  50
!  f         S11            S21            S12            S22
! GHz     MAG   ANG      MAG   ANG      MAG   ANG      MAG   ANG
 0.010  0.6179   -8.1  25.105  174.6  0.0035   86.2  0.9572   -3.9
 0.015  0.6116  -11.8  24.980  171.8  0.0052   82.3  0.9496   -5.9
 0.020  0.6079  -15.6  24.915  169.0  0.0069   80.3  0.9432   -8.0
 0.025  0.5976  -19.1  24.526  166.7  0.0086   78.0  0.9303   -9.7
 0.030  0.5895  -22.6  24.178  164.3  0.0102   76.5  0.9182  -11.5
 0.035  0.5838  -26.3  23.871  161.9  0.0119   75.4  0.9070  -13.3
 0.040  0.5806  -30.0  23.609  159.4  0.0136   74.6  0.8967  -15.1
 0.045  0.5797  -33.8  23.393  156.9  0.0152   73.9  0.8874  -17.0
 0.050  0.5814  -37.5  23.223  154.3  0.0169   73.4  0.8790  -18.9
 0.055  0.5662  -40.1  22.704  152.7  0.0181   72.0  0.8626  -20.0
 0.060  0.5521  -42.7  22.203  151.1  0.0193   70.8  0.8465  -21.1
 0.065  0.5394  -45.6  21.721  149.4  0.0205   69.7  0.8308  -22.2
 0.070  0.5280  -48.5  21.259  147.6  0.0217   68.7  0.8153  -23.4
 0.075  0.5181  -51.6  20.818  145.8  0.0229   67.9  0.8003  -24.6
 0.080  0.5097  -54.8  20.401  143.8  0.0242   67.1  0.7856  -25.9
 0.085  0.5030  -58.1  20.007  141.8  0.0254   66.4  0.7713  -27.2
 0.090  0.4979  -61.4  19.639  139.7  0.0266   65.8  0.7575  -28.6
 0.095  0.4946  -64.8  19.299  137.5  0.0279   65.2  0.7441  -30.0
 0.100  0.4931  -68.3  18.987  135.3  0.0291   64.7  0.7312  -31.5
 0.105  0.4831  -70.3  18.567  134.2  0.0299   64.1  0.7180  -32.1
 0.110  0.4737  -72.3  18.154  133.0  0.0306   63.5  0.7048  -32.6
 0.115  0.4648  -74.4  17.749  131.8  0.0314   63.0  0.6917  -33.2
 0.120  0.4567  -76.6  17.352  130.5  0.0322   62.5  0.6786  -33.8
 0.125  0.4492  -78.9  16.965  129.2  0.0330   62.0  0.6657  -34.5
 0.130  0.4425  -81.2  16.586  127.8  0.0338   61.6  0.6528  -35.1
 0.135  0.4365  -83.6  16.218  126.4  0.0345   61.1  0.6401  -35.8
 0.140  0.4314  -86.1  15.861  124.9  0.0353   60.7  0.6274  -36.6
 0.145  0.4270  -88.6  15.516  123.3  0.0361   60.3  0.6149  -37.3
 0.150  0.4235  -91.2  15.183  121.6  0.0369   59.9  0.6024  -38.1
 0.155  0.4183  -92.8  14.896  120.9  0.0375   59.8  0.5935  -38.3
 0.160  0.4134  -94.4  14.611  120.1  0.0381   59.6  0.5846  -38.6
 0.165  0.4089  -96.0  14.329  119.3  0.0387   59.5  0.5758  -38.8
 0.170  0.4047  -97.7  14.049  118.5  0.0393   59.4  0.5669  -39.1
 0.175  0.4009  -99.4  13.773  117.7  0.0399   59.3  0.5581  -39.4
 0.180  0.3974 -101.2  13.499  116.8  0.0406   59.1  0.5493  -39.7
 0.185  0.3943 -102.9  13.229  115.9  0.0412   59.0  0.5404  -40.0
 0.190  0.3916 -104.7  12.963  114.9  0.0418   58.9  0.5316  -40.3
 0.195  0.3892 -106.6  12.700  113.9  0.0424   58.8  0.5229  -40.6
 0.200  0.3873 -108.4  12.441  112.9  0.0430   58.7  0.5141  -40.9
 0.220  0.3749 -113.5  11.591  110.5  0.0452   58.7  0.4886  -41.3
 0.240  0.3657 -119.0  10.764  107.8  0.0474   58.7  0.4631  -41.8
 0.260  0.3579 -124.0  10.057  105.4  0.0496   58.9  0.4413  -42.0
 0.280  0.3506 -128.5   9.458  103.5  0.0519   59.3  0.4231  -42.1
 0.300  0.3455 -133.1   8.870  101.3  0.0541   59.7  0.4049  -42.2
 0.320  0.3395 -136.0   8.465  100.1  0.0563   60.0  0.3936  -42.1
 0.340  0.3344 -139.0   8.063   98.9  0.0585   60.3  0.3823  -41.9
 0.360  0.3303 -142.1   7.666   97.5  0.0606   60.5  0.3711  -41.7
 0.380  0.3271 -145.2   7.274   95.9  0.0628   60.8  0.3598  -41.6
 0.400  0.3249 -148.4   6.888   94.2  0.0650   61.0  0.3485  -41.4
 0.420  0.3224 -150.7   6.620   93.2  0.0672   61.3  0.3417  -41.3
 0.440  0.3204 -152.9   6.354   92.1  0.0694   61.6  0.3350  -41.1
 0.450  0.3196 -154.1   6.222   91.5  0.0704   61.7  0.3316  -41.1
 0.460  0.3190 -155.2   6.091   90.9  0.0715   61.8  0.3282  -41.0
 0.480  0.3180 -157.6   5.830   89.6  0.0737   62.1  0.3215  -40.9
 0.500  0.3176 -159.9   5.573   88.2  0.0759   62.3  0.3147  -40.7
 0.520  0.3163 -161.9   5.396   87.3  0.0784   62.5  0.3107  -40.6
 0.540  0.3153 -163.8   5.220   86.4  0.0809   62.6  0.3067  -40.5
 0.560  0.3148 -165.8   5.046   85.4  0.0833   62.7  0.3026  -40.5
 0.580  0.3146 -167.8   4.874   84.3  0.0858   62.9  0.2986  -40.4
 0.600  0.3148 -169.8   4.703   83.1  0.0883   63.0  0.2946  -40.3
 0.620  0.3147 -171.4   4.576   82.3  0.0906   63.1  0.2915  -40.3
 0.640  0.3148 -172.9   4.449   81.5  0.0929   63.1  0.2885  -40.3
 0.660  0.3152 -174.5   4.324   80.6  0.0953   63.2  0.2854  -40.3
 0.680  0.3158 -176.0   4.199   79.6  0.0976   63.2  0.2824  -40.3
 0.700  0.3166 -177.6   4.076   78.6  0.0999   63.3  0.2793  -40.3
 0.720  0.3166 -178.9   3.976   77.9  0.1023   63.2  0.2770  -40.4
 0.740  0.3167  179.7   3.877   77.1  0.1047   63.2  0.2747  -40.4
 0.760  0.3170  178.4   3.779   76.3  0.1070   63.1  0.2725  -40.5
 0.780  0.3175  177.0   3.682   75.5  0.1094   63.1  0.2702  -40.5
 0.800  0.3181  175.7   3.585   74.6  0.1118   63.0  0.2679  -40.6
 0.820  0.3176  174.5   3.509   74.0  0.1143   62.9  0.2661  -40.7
 0.840  0.3172  173.3   3.434   73.3  0.1169   62.8  0.2643  -40.9
 0.860  0.3170  172.2   3.359   72.6  0.1194   62.7  0.2624  -41.0
 0.880  0.3169  171.0   3.285   71.9  0.1220   62.6  0.2606  -41.2
 0.900  0.3169  169.8   3.211   71.1  0.1245   62.5  0.2588  -41.3
 0.920  0.3173  168.5   3.152   70.5  0.1268   62.4  0.2575  -41.5
 0.940  0.3178  167.3   3.094   69.8  0.1292   62.3  0.2562  -41.7
 0.960  0.3184  166.0   3.036   69.1  0.1315   62.3  0.2549  -42.0
 0.980  0.3192  164.7   2.978   68.4  0.1339   62.2  0.2536  -42.2
 1.000  0.3202  163.5   2.921   67.6  0.1362   62.1  0.2523  -42.4
 1.020  0.3221  162.6   2.873   67.0  0.1387   61.9  0.2510  -42.7
 1.040  0.3240  161.7   2.825   66.3  0.1411   61.7  0.2497  -43.1
 1.060  0.3260  160.9   2.778   65.7  0.1436   61.5  0.2484  -43.4
 1.080  0.3281  160.0   2.731   65.0  0.1460   61.4  0.2471  -43.8
 1.100  0.3302  159.2   2.685   64.3  0.1485   61.2  0.2458  -44.1
 1.120  0.3314  158.2   2.644   63.7  0.1509   61.1  0.2444  -44.4
 1.140  0.3326  157.3   2.603   63.0  0.1533   61.0  0.2430  -44.7
 1.160  0.3339  156.3   2.562   62.4  0.1556   60.9  0.2416  -44.9
 1.180  0.3354  155.3   2.522   61.7  0.1580   60.8  0.2402  -45.2
 1.200  0.3369  154.4   2.482   61.0  0.1604   60.7  0.2388  -45.5
 1.220  0.3367  153.5   2.444   60.4  0.1628   60.4  0.2377  -45.8
 1.240  0.3365  152.7   2.407   59.9  0.1653   60.2  0.2367  -46.2
 1.260  0.3364  151.8   2.370   59.3  0.1677   60.0  0.2356  -46.5
 1.280  0.3364  151.0   2.333   58.6  0.1702   59.7  0.2345  -46.9
 1.300  0.3365  150.1   2.297   58.0  0.1726   59.5  0.2335  -47.2
 1.320  0.3381  149.3   2.268   57.5  0.1750   59.3  0.2324  -47.6
 1.340  0.3398  148.5   2.239   56.9  0.1773   59.2  0.2313  -48.0
 1.360  0.3416  147.7   2.211   56.4  0.1797   59.0  0.2303  -48.4
 1.380  0.3434  146.9   2.182   55.8  0.1820   58.9  0.2292  -48.9
 1.400  0.3453  146.1   2.154   55.2  0.1844   58.7  0.2282  -49.3
 1.420  0.3457  145.4   2.131   54.6  0.1866   58.5  0.2271  -49.7
 1.440  0.3462  144.7   2.108   54.1  0.1889   58.2  0.2260  -50.2
 1.460  0.3467  144.1   2.085   53.5  0.1911   58.0  0.2250  -50.6
 1.480  0.3473  143.4   2.062   52.9  0.1934   57.8  0.2239  -51.1
 1.500  0.3479  142.7   2.040   52.3  0.1956   57.6  0.2229  -51.5
 1.520  0.3506  141.9   2.014   51.7  0.1981   57.3  0.2213  -52.0
 1.540  0.3533  141.2   1.989   51.1  0.2005   57.1  0.2198  -52.4
 1.560  0.3561  140.4   1.964   50.4  0.2030   56.9  0.2183  -52.9
 1.580  0.3589  139.7   1.939   49.8  0.2054   56.6  0.2168  -53.4
 1.600  0.3618  139.0   1.914   49.1  0.2079   56.4  0.2153  -53.9
 1.620  0.3629  138.2   1.895   48.6  0.2102   56.2  0.2141  -54.3
 1.640  0.3640  137.4   1.877   48.1  0.2125   55.9  0.2128  -54.8
 1.660  0.3652  136.6   1.858   47.5  0.2148   55.7  0.2116  -55.2
 1.680  0.3665  135.8   1.840   47.0  0.2171   55.5  0.2104  -55.6
 1.700  0.3679  135.0   1.822   46.4  0.2194   55.3  0.2092  -56.1
 1.720  0.3699  134.4   1.806   45.9  0.2217   55.0  0.2084  -56.7
 1.740  0.3720  133.8   1.791   45.4  0.2240   54.8  0.2076  -57.3
 1.760  0.3741  133.2   1.775   44.9  0.2263   54.5  0.2069  -57.9
 1.780  0.3762  132.7   1.760   44.4  0.2287   54.2  0.2061  -58.5
 1.800  0.3784  132.1   1.745   43.9  0.2310   54.0  0.2054  -59.1
 1.820  0.3800  131.5   1.729   43.4  0.2333   53.8  0.2039  -59.8
 1.840  0.3817  131.0   1.714   42.8  0.2355   53.5  0.2025  -60.4
 1.860  0.3834  130.4   1.698   42.3  0.2378   53.3  0.2011  -61.1
 1.880  0.3851  129.9   1.683   41.8  0.2401   53.0  0.1997  -61.8
 1.900  0.3869  129.3   1.668   41.2  0.2424   52.8  0.1984  -62.5
 1.920  0.3884  128.7   1.653   40.7  0.2446   52.5  0.1968  -63.1
 1.940  0.3900  128.1   1.638   40.2  0.2469   52.2  0.1953  -63.7
 1.960  0.3916  127.5   1.624   39.7  0.2492   51.9  0.1938  -64.3
 1.980  0.3933  126.9   1.609   39.1  0.2514   51.7  0.1923  -64.9
 2.000  0.3950  126.3   1.595   38.6  0.2537   51.4  0.1908  -65.5
 2.020  0.3964  125.7   1.582   38.1  0.2560   51.1  0.1893  -66.2
 2.040  0.3979  125.1   1.570   37.7  0.2582   50.8  0.1879  -66.9
 2.060  0.3994  124.6   1.557   37.2  0.2605   50.6  0.1864  -67.5
 2.080  0.4010  124.0   1.545   36.7  0.2628   50.3  0.1850  -68.3
 2.100  0.4026  123.4   1.533   36.2  0.2650   50.0  0.1836  -69.0
 2.120  0.4042  122.9   1.520   35.7  0.2673   49.8  0.1823  -69.7
 2.140  0.4059  122.3   1.508   35.2  0.2696   49.5  0.1810  -70.4
 2.160  0.4076  121.8   1.496   34.7  0.2719   49.3  0.1797  -71.2
 2.180  0.4093  121.2   1.485   34.1  0.2742   49.0  0.1784  -71.9
 2.200  0.4111  120.7   1.473   33.6  0.2765   48.8  0.1772  -72.7
 2.220  0.4132  120.1   1.463   33.1  0.2786   48.5  0.1754  -73.5
 2.240  0.4154  119.6   1.454   32.7  0.2807   48.2  0.1736  -74.3
 2.260  0.4176  119.0   1.445   32.2  0.2829   47.9  0.1719  -75.1
 2.280  0.4199  118.4   1.435   31.7  0.2850   47.7  0.1702  -75.9
 2.300  0.4222  117.9   1.426   31.2  0.2871   47.4  0.1686  -76.8
 2.320  0.4245  117.3   1.417   30.7  0.2893   47.1  0.1670  -77.7
 2.340  0.4269  116.8   1.408   30.2  0.2914   46.9  0.1654  -78.5
 2.360  0.4293  116.3   1.399   29.7  0.2936   46.6  0.1638  -79.4
 2.380  0.4317  115.7   1.391   29.1  0.2957   46.4  0.1624  -80.4
 2.400  0.4342  115.2   1.382   28.6  0.2979   46.1  0.1609  -81.3
 2.420  0.4362  114.7   1.373   28.2  0.2999   45.8  0.1594  -82.2
 2.440  0.4383  114.1   1.365   27.7  0.3020   45.5  0.1580  -83.2
 2.460  0.4404  113.6   1.356   27.3  0.3041   45.2  0.1566  -84.2
 2.480  0.4425  113.1   1.347   26.9  0.3061   44.9  0.1552  -85.2
 2.500  0.4447  112.6   1.339   26.4  0.3082   44.7  0.1539  -86.2
 2.520  0.4469  112.1   1.331   26.0  0.3103   44.4  0.1527  -87.2
 2.540  0.4492  111.6   1.322   25.5  0.3124   44.1  0.1515  -88.3
 2.560  0.4514  111.1   1.314   25.0  0.3145   43.8  0.1503  -89.3
 2.580  0.4538  110.6   1.306   24.6  0.3166   43.6  0.1492  -90.4
 2.600  0.4561  110.1   1.298   24.1  0.3187   43.3  0.1482  -91.5
 2.620  0.4579  109.6   1.291   23.7  0.3207   43.0  0.1467  -92.7
 2.640  0.4597  109.2   1.283   23.3  0.3228   42.7  0.1452  -93.9
 2.660  0.4616  108.7   1.276   22.9  0.3248   42.4  0.1439  -95.1
 2.680  0.4635  108.3   1.269   22.4  0.3268   42.1  0.1426  -96.4
 2.700  0.4654  107.9   1.262   22.0  0.3289   41.9  0.1413  -97.6
 2.720  0.4674  107.4   1.255   21.6  0.3310   41.6  0.1401  -98.9
 2.740  0.4693  107.0   1.248   21.1  0.3330   41.3  0.1390 -100.2
 2.760  0.4713  106.6   1.241   20.7  0.3351   41.0  0.1380 -101.6
 2.780  0.4733  106.1   1.234   20.3  0.3372   40.8  0.1371 -102.9
 2.800  0.4754  105.7   1.227   19.8  0.3393   40.5  0.1362 -104.3
 2.820  0.4776  105.3   1.220   19.4  0.3412   40.2  0.1352 -105.7
 2.840  0.4799  104.9   1.213   19.0  0.3432   39.9  0.1342 -107.2
 2.860  0.4822  104.5   1.206   18.5  0.3451   39.6  0.1333 -108.6
 2.880  0.4845  104.1   1.199   18.1  0.3471   39.3  0.1326 -110.1
 2.900  0.4868  103.8   1.192   17.7  0.3491   39.0  0.1319 -111.6
 2.920  0.4892  103.4   1.185   17.2  0.3511   38.7  0.1313 -113.1
 2.940  0.4916  103.0   1.179   16.8  0.3531   38.4  0.1308 -114.6
 2.960  0.4940  102.6   1.172   16.3  0.3551   38.1  0.1304 -116.1
 2.980  0.4964  102.3   1.165   15.9  0.3571   37.8  0.1300 -117.7
 3.000  0.4988  101.9   1.159   15.4  0.3591   37.5  0.1298 -119.2
 3.100  0.5093  100.0   1.129   13.7  0.3671   35.9  0.1262 -127.6
 3.200  0.5203   98.2   1.100   11.9  0.3754   34.4  0.1254 -136.4
 3.300  0.5318   96.5   1.072   10.1  0.3839   33.0  0.1275 -145.0
 3.400  0.5438   94.8   1.045    8.1  0.3927   31.6  0.1324 -153.2
 3.500  0.5562   93.2   1.020    6.0  0.4017   30.3  0.1398 -160.6
 3.600  0.5639   91.5   0.997    4.5  0.4087   28.8  0.1460 -168.2
 3.700  0.5721   89.9   0.975    2.9  0.4160   27.4  0.1545 -175.0
 3.800  0.5807   88.3   0.954    1.2  0.4235   26.0  0.1650  178.9
 3.900  0.5897   86.8   0.933   -0.6  0.4312   24.7  0.1771  173.7
 4.000  0.5992   85.3   0.914   -2.4  0.4392   23.4  0.1905  169.1
 4.100  0.6069   84.0   0.897   -3.7  0.4452   21.9  0.2004  164.3
 4.200  0.6149   82.6   0.880   -5.0  0.4515   20.5  0.2116  159.9
 4.300  0.6232   81.4   0.864   -6.4  0.4580   19.1  0.2239  156.0
 4.400  0.6318   80.1   0.848   -7.8  0.4648   17.7  0.2371  152.5
 4.500  0.6407   78.9   0.833   -9.3  0.4719   16.4  0.2511  149.4
 4.600  0.6449   77.7   0.819  -10.5  0.4763   15.0  0.2612  146.0
 4.700  0.6494   76.5   0.806  -11.7  0.4810   13.6  0.2720  142.9
 4.800  0.6542   75.3   0.793  -13.0  0.4860   12.2  0.2837  140.0
 4.900  0.6593   74.1   0.780  -14.3  0.4913   10.9  0.2960  137.3
 5.000  0.6646   73.0   0.768  -15.6  0.4968    9.6  0.3089  134.9
 5.100  0.6705   71.9   0.750  -16.6  0.4972    8.2  0.3129  131.6
 5.200  0.6766   70.8   0.733  -17.6  0.4979    6.8  0.3180  128.4
 5.300  0.6830   69.7   0.716  -18.6  0.4989    5.4  0.3240  125.2
 5.400  0.6896   68.6   0.699  -19.7  0.5002    4.0  0.3309  122.3
 5.500  0.6965   67.6   0.682  -20.9  0.5018    2.6  0.3387  119.4
 5.600  0.6949   66.6   0.679  -21.3  0.5088    1.8  0.3528  119.7
 5.700  0.6935   65.6   0.676  -21.6  0.5159    1.0  0.3670  120.0
 5.800  0.6924   64.6   0.674  -22.0  0.5232    0.2  0.3811  120.3
 5.900  0.6914   63.6   0.671  -22.3  0.5305   -0.6  0.3952  120.6
 6.000  0.6907   62.6   0.668  -22.7  0.5379   -1.3  0.4094  120.8
!
!  f       NFmin   Gammaopt  rn/50
! GHz       dB    MAG  ANG    -
!
! noise parameter not available yet for this operation point!
!
! (c) 2015  Infineon Technologies AG, Munich
