! Infineon Technologies  Discrete & RF Semiconductors
! BFR35AP
! VCE =  10. V,  IC =  3.0 mA
! Common Emitter S-Parameters:                            Nov 2015
# GHz  S  MA  R  50
!  f         S11            S21            S12            S22
! GHz     MAG   ANG      MAG   ANG      MAG   ANG      MAG   ANG
 0.010  0.9086   -2.2   9.206  178.0  0.0020   83.8  0.9968   -0.9
 0.015  0.9052   -3.2   9.114  176.9  0.0033   89.0  0.9909   -1.3
 0.020  0.9021   -4.2   9.025  175.8  0.0046   91.2  0.9851   -1.7
 0.025  0.9007   -5.3   9.043  174.9  0.0057   88.4  0.9855   -2.2
 0.030  0.8995   -6.4   9.062  174.0  0.0069   86.5  0.9859   -2.6
 0.035  0.8988   -7.4   9.084  173.1  0.0080   85.2  0.9864   -3.1
 0.040  0.8983   -8.5   9.108  172.2  0.0092   84.2  0.9869   -3.6
 0.045  0.8981   -9.6   9.135  171.4  0.0103   83.4  0.9875   -4.0
 0.050  0.8983  -10.7   9.163  170.5  0.0115   82.8  0.9882   -4.5
 0.055  0.8939  -11.7   9.131  169.6  0.0126   81.9  0.9857   -4.9
 0.060  0.8899  -12.8   9.101  168.8  0.0138   81.2  0.9832   -5.3
 0.065  0.8861  -13.8   9.074  167.9  0.0149   80.6  0.9807   -5.8
 0.070  0.8826  -14.9   9.048  167.0  0.0160   80.1  0.9783   -6.2
 0.075  0.8794  -15.9   9.025  166.1  0.0172   79.7  0.9760   -6.6
 0.080  0.8765  -17.0   9.004  165.2  0.0183   79.3  0.9737   -7.1
 0.085  0.8740  -18.0   8.985  164.3  0.0195   78.9  0.9715   -7.5
 0.090  0.8717  -19.1   8.968  163.4  0.0206   78.6  0.9694   -7.9
 0.095  0.8697  -20.2   8.953  162.5  0.0218   78.3  0.9673   -8.4
 0.100  0.8681  -21.3   8.941  161.6  0.0229   78.1  0.9652   -8.8
 0.105  0.8629  -22.2   8.885  160.7  0.0239   77.4  0.9623   -9.2
 0.110  0.8579  -23.2   8.832  159.8  0.0248   76.7  0.9594   -9.5
 0.115  0.8532  -24.1   8.780  158.9  0.0258   76.1  0.9566   -9.9
 0.120  0.8487  -25.1   8.731  158.0  0.0268   75.5  0.9538  -10.3
 0.125  0.8445  -26.1   8.684  157.1  0.0277   75.0  0.9510  -10.7
 0.130  0.8405  -27.1   8.639  156.1  0.0287   74.5  0.9483  -11.1
 0.135  0.8368  -28.1   8.597  155.2  0.0297   74.0  0.9456  -11.4
 0.140  0.8333  -29.1   8.557  154.2  0.0306   73.6  0.9430  -11.8
 0.145  0.8301  -30.1   8.519  153.3  0.0316   73.2  0.9404  -12.2
 0.150  0.8271  -31.1   8.484  152.3  0.0326   72.8  0.9379  -12.6
 0.155  0.8213  -32.0   8.442  151.6  0.0334   72.2  0.9342  -12.9
 0.160  0.8158  -32.9   8.400  150.8  0.0343   71.6  0.9305  -13.2
 0.165  0.8104  -33.8   8.361  150.0  0.0352   71.1  0.9269  -13.5
 0.170  0.8053  -34.8   8.323  149.3  0.0360   70.6  0.9233  -13.9
 0.175  0.8003  -35.7   8.286  148.5  0.0369   70.1  0.9197  -14.2
 0.180  0.7956  -36.7   8.251  147.7  0.0377   69.6  0.9161  -14.5
 0.185  0.7912  -37.6   8.218  146.9  0.0386   69.1  0.9126  -14.8
 0.190  0.7869  -38.6   8.186  146.1  0.0395   68.7  0.9091  -15.1
 0.195  0.7829  -39.6   8.156  145.3  0.0403   68.3  0.9056  -15.5
 0.200  0.7791  -40.6   8.127  144.5  0.0412   67.9  0.9022  -15.8
 0.220  0.7573  -43.9   7.894  141.7  0.0442   66.4  0.8867  -16.9
 0.240  0.7381  -47.4   7.681  138.8  0.0472   65.1  0.8716  -17.9
 0.260  0.7185  -50.6   7.463  136.1  0.0501   64.0  0.8575  -18.9
 0.280  0.6978  -53.5   7.236  133.6  0.0528   63.0  0.8445  -19.6
 0.300  0.6789  -56.6   7.023  131.0  0.0555   62.2  0.8317  -20.4
 0.320  0.6562  -59.1   6.836  129.1  0.0574   61.1  0.8190  -20.9
 0.340  0.6349  -61.8   6.657  127.2  0.0594   60.1  0.8064  -21.5
 0.360  0.6151  -64.7   6.486  125.1  0.0613   59.1  0.7939  -22.0
 0.380  0.5970  -67.8   6.323  122.9  0.0633   58.2  0.7815  -22.6
 0.400  0.5806  -71.0   6.171  120.6  0.0653   57.4  0.7691  -23.2
 0.420  0.5619  -73.1   5.994  118.9  0.0668   56.9  0.7584  -23.6
 0.440  0.5439  -75.3   5.822  117.2  0.0683   56.5  0.7477  -23.9
 0.450  0.5353  -76.5   5.739  116.2  0.0691   56.2  0.7423  -24.1
 0.460  0.5269  -77.7   5.657  115.3  0.0698   56.0  0.7370  -24.3
 0.480  0.5108  -80.3   5.497  113.3  0.0714   55.6  0.7264  -24.7
 0.500  0.4958  -83.0   5.345  111.2  0.0729   55.2  0.7158  -25.1
 0.520  0.4843  -84.9   5.211  110.0  0.0743   54.9  0.7088  -25.3
 0.540  0.4733  -87.0   5.080  108.6  0.0756   54.6  0.7017  -25.5
 0.560  0.4630  -89.1   4.952  107.3  0.0770   54.3  0.6947  -25.7
 0.580  0.4534  -91.3   4.826  105.8  0.0783   54.1  0.6877  -26.0
 0.600  0.4444  -93.6   4.704  104.3  0.0797   53.8  0.6807  -26.2
 0.620  0.4334  -95.3   4.599  103.2  0.0810   53.6  0.6755  -26.4
 0.640  0.4227  -97.1   4.496  102.0  0.0823   53.4  0.6702  -26.6
 0.660  0.4126  -99.0   4.395  100.7  0.0836   53.2  0.6650  -26.7
 0.680  0.4028 -100.9   4.296   99.5  0.0849   53.0  0.6598  -26.9
 0.700  0.3936 -103.0   4.200   98.1  0.0862   52.8  0.6546  -27.1
 0.720  0.3846 -104.8   4.110   97.1  0.0874   52.7  0.6501  -27.2
 0.740  0.3759 -106.6   4.022   96.0  0.0887   52.7  0.6457  -27.4
 0.760  0.3676 -108.6   3.935   94.9  0.0899   52.6  0.6412  -27.5
 0.780  0.3598 -110.6   3.850   93.7  0.0912   52.6  0.6368  -27.7
 0.800  0.3525 -112.7   3.766   92.5  0.0924   52.5  0.6323  -27.8
 0.820  0.3442 -114.4   3.697   91.5  0.0935   52.6  0.6285  -27.9
 0.840  0.3361 -116.2   3.630   90.5  0.0946   52.7  0.6247  -28.1
 0.860  0.3285 -118.1   3.564   89.5  0.0958   52.7  0.6209  -28.2
 0.880  0.3212 -120.1   3.499   88.4  0.0969   52.8  0.6172  -28.4
 0.900  0.3143 -122.2   3.435   87.3  0.0980   52.9  0.6134  -28.5
 0.920  0.3082 -123.8   3.378   86.5  0.0991   53.0  0.6107  -28.7
 0.940  0.3024 -125.5   3.323   85.6  0.1002   53.0  0.6079  -28.8
 0.960  0.2968 -127.2   3.268   84.7  0.1013   53.1  0.6052  -29.0
 0.980  0.2916 -129.0   3.213   83.8  0.1024   53.1  0.6024  -29.1
 1.000  0.2866 -130.9   3.160   82.9  0.1035   53.2  0.5997  -29.3
 1.020  0.2829 -132.8   3.112   82.2  0.1047   53.3  0.5975  -29.5
 1.040  0.2796 -134.8   3.065   81.4  0.1059   53.4  0.5953  -29.7
 1.060  0.2766 -136.8   3.018   80.6  0.1072   53.6  0.5931  -29.9
 1.080  0.2739 -138.9   2.972   79.8  0.1084   53.7  0.5910  -30.1
 1.100  0.2716 -141.0   2.926   79.0  0.1096   53.8  0.5888  -30.3
 1.120  0.2686 -142.9   2.882   78.2  0.1109   53.9  0.5868  -30.5
 1.140  0.2660 -144.8   2.839   77.5  0.1121   54.0  0.5849  -30.7
 1.160  0.2636 -146.7   2.797   76.7  0.1134   54.0  0.5830  -30.8
 1.180  0.2615 -148.7   2.754   75.8  0.1146   54.1  0.5810  -31.0
 1.200  0.2598 -150.7   2.713   75.0  0.1159   54.2  0.5791  -31.2
 1.220  0.2571 -152.1   2.674   74.4  0.1172   54.2  0.5777  -31.4
 1.240  0.2545 -153.5   2.636   73.7  0.1185   54.2  0.5763  -31.6
 1.260  0.2522 -155.0   2.598   73.1  0.1199   54.3  0.5749  -31.8
 1.280  0.2499 -156.5   2.560   72.4  0.1212   54.3  0.5735  -32.0
 1.300  0.2479 -158.0   2.523   71.7  0.1225   54.3  0.5721  -32.2
 1.320  0.2466 -159.8   2.490   71.0  0.1236   54.4  0.5710  -32.4
 1.340  0.2455 -161.6   2.458   70.4  0.1247   54.4  0.5698  -32.7
 1.360  0.2447 -163.4   2.425   69.7  0.1258   54.5  0.5687  -32.9
 1.380  0.2441 -165.2   2.393   68.9  0.1269   54.5  0.5676  -33.2
 1.400  0.2437 -167.0   2.362   68.2  0.1280   54.6  0.5665  -33.4
 1.420  0.2428 -168.3   2.337   67.6  0.1294   54.6  0.5652  -33.6
 1.440  0.2421 -169.7   2.313   67.0  0.1308   54.7  0.5640  -33.9
 1.460  0.2415 -171.1   2.289   66.4  0.1323   54.7  0.5627  -34.1
 1.480  0.2410 -172.4   2.265   65.7  0.1337   54.8  0.5614  -34.4
 1.500  0.2407 -173.8   2.242   65.1  0.1351   54.8  0.5602  -34.6
 1.520  0.2406 -175.6   2.215   64.4  0.1365   54.8  0.5589  -34.9
 1.540  0.2408 -177.4   2.189   63.8  0.1380   54.8  0.5576  -35.1
 1.560  0.2411 -179.2   2.162   63.1  0.1394   54.9  0.5563  -35.4
 1.580  0.2418  179.1   2.137   62.3  0.1409   54.9  0.5551  -35.6
 1.600  0.2426  177.3   2.111   61.6  0.1423   54.9  0.5538  -35.9
 1.620  0.2417  175.7   2.092   61.0  0.1437   55.0  0.5524  -36.1
 1.640  0.2410  174.0   2.073   60.4  0.1450   55.1  0.5509  -36.4
 1.660  0.2404  172.4   2.055   59.8  0.1464   55.3  0.5495  -36.6
 1.680  0.2401  170.8   2.037   59.1  0.1477   55.4  0.5481  -36.9
 1.700  0.2400  169.1   2.019   58.5  0.1491   55.5  0.5467  -37.1
 1.720  0.2407  167.7   2.001   58.0  0.1507   55.5  0.5458  -37.4
 1.740  0.2416  166.2   1.984   57.4  0.1522   55.5  0.5448  -37.7
 1.760  0.2427  164.8   1.967   56.9  0.1538   55.4  0.5439  -37.9
 1.780  0.2439  163.4   1.950   56.4  0.1553   55.4  0.5430  -38.2
 1.800  0.2452  162.0   1.933   55.8  0.1569   55.4  0.5421  -38.5
 1.820  0.2468  161.0   1.916   55.2  0.1584   55.5  0.5410  -38.8
 1.840  0.2485  159.9   1.900   54.7  0.1599   55.5  0.5399  -39.1
 1.860  0.2502  158.9   1.884   54.1  0.1613   55.6  0.5389  -39.4
 1.880  0.2521  157.9   1.868   53.5  0.1628   55.6  0.5378  -39.7
 1.900  0.2540  156.9   1.852   52.9  0.1643   55.7  0.5368  -40.0
 1.920  0.2551  155.7   1.835   52.4  0.1659   55.6  0.5356  -40.3
 1.940  0.2562  154.5   1.819   51.8  0.1674   55.6  0.5344  -40.6
 1.960  0.2575  153.4   1.802   51.3  0.1690   55.5  0.5333  -40.9
 1.980  0.2589  152.2   1.786   50.7  0.1705   55.5  0.5321  -41.2
 2.000  0.2604  151.1   1.770   50.1  0.1721   55.4  0.5310  -41.5
 2.020  0.2614  150.0   1.756   49.6  0.1737   55.4  0.5299  -41.8
 2.040  0.2626  149.0   1.742   49.1  0.1753   55.3  0.5289  -42.2
 2.060  0.2638  148.0   1.729   48.6  0.1769   55.3  0.5279  -42.5
 2.080  0.2651  146.9   1.715   48.0  0.1785   55.3  0.5269  -42.8
 2.100  0.2665  145.9   1.702   47.5  0.1800   55.2  0.5259  -43.2
 2.120  0.2679  144.9   1.689   47.0  0.1816   55.2  0.5250  -43.5
 2.140  0.2695  143.9   1.676   46.4  0.1832   55.2  0.5240  -43.9
 2.160  0.2711  142.9   1.663   45.8  0.1848   55.2  0.5231  -44.2
 2.180  0.2728  142.0   1.650   45.3  0.1864   55.1  0.5222  -44.6
 2.200  0.2746  141.0   1.638   44.7  0.1880   55.1  0.5213  -44.9
 2.220  0.2765  140.1   1.627   44.2  0.1898   55.0  0.5198  -45.3
 2.240  0.2784  139.1   1.617   43.7  0.1915   55.0  0.5184  -45.6
 2.260  0.2805  138.2   1.606   43.2  0.1933   54.9  0.5170  -46.0
 2.280  0.2826  137.3   1.596   42.7  0.1950   54.9  0.5156  -46.4
 2.300  0.2848  136.4   1.585   42.2  0.1968   54.8  0.5142  -46.7
 2.320  0.2870  135.6   1.575   41.7  0.1986   54.8  0.5128  -47.1
 2.340  0.2893  134.7   1.565   41.1  0.2003   54.7  0.5115  -47.5
 2.360  0.2917  133.9   1.555   40.6  0.2021   54.7  0.5102  -47.8
 2.380  0.2941  133.0   1.546   40.1  0.2038   54.6  0.5089  -48.2
 2.400  0.2966  132.2   1.536   39.5  0.2056   54.6  0.5076  -48.6
 2.420  0.2991  131.3   1.526   39.1  0.2073   54.5  0.5064  -49.0
 2.440  0.3017  130.4   1.517   38.6  0.2091   54.4  0.5052  -49.4
 2.460  0.3043  129.5   1.507   38.2  0.2108   54.3  0.5041  -49.8
 2.480  0.3070  128.7   1.498   37.7  0.2125   54.2  0.5029  -50.2
 2.500  0.3098  127.8   1.489   37.3  0.2142   54.1  0.5018  -50.6
 2.520  0.3126  127.0   1.480   36.8  0.2160   54.0  0.5008  -51.0
 2.540  0.3155  126.2   1.471   36.3  0.2177   53.9  0.4997  -51.4
 2.560  0.3185  125.4   1.462   35.9  0.2194   53.8  0.4987  -51.8
 2.580  0.3215  124.6   1.453   35.4  0.2212   53.7  0.4977  -52.2
 2.600  0.3246  123.8   1.444   34.9  0.2229   53.6  0.4967  -52.6
 2.620  0.3266  123.2   1.436   34.5  0.2248   53.5  0.4950  -53.0
 2.640  0.3287  122.6   1.428   34.0  0.2267   53.4  0.4934  -53.5
 2.660  0.3307  121.9   1.420   33.5  0.2286   53.3  0.4917  -53.9
 2.680  0.3329  121.3   1.412   33.1  0.2304   53.1  0.4901  -54.3
 2.700  0.3350  120.8   1.405   32.6  0.2323   53.0  0.4885  -54.8
 2.720  0.3372  120.2   1.397   32.1  0.2342   52.9  0.4870  -55.2
 2.740  0.3394  119.6   1.390   31.7  0.2361   52.8  0.4855  -55.7
 2.760  0.3417  119.0   1.382   31.2  0.2380   52.7  0.4840  -56.1
 2.780  0.3440  118.5   1.375   30.7  0.2399   52.6  0.4825  -56.5
 2.800  0.3463  117.9   1.368   30.2  0.2418   52.5  0.4811  -57.0
 2.820  0.3488  117.3   1.360   29.8  0.2436   52.4  0.4797  -57.5
 2.840  0.3513  116.8   1.352   29.3  0.2454   52.2  0.4784  -58.0
 2.860  0.3539  116.2   1.345   28.8  0.2472   52.1  0.4771  -58.4
 2.880  0.3564  115.6   1.337   28.4  0.2491   52.0  0.4758  -58.9
 2.900  0.3591  115.1   1.330   27.9  0.2509   51.8  0.4746  -59.4
 2.920  0.3617  114.6   1.323   27.4  0.2527   51.7  0.4734  -59.9
 2.940  0.3644  114.0   1.315   27.0  0.2545   51.6  0.4723  -60.4
 2.960  0.3671  113.5   1.308   26.5  0.2563   51.4  0.4711  -60.9
 2.980  0.3698  113.0   1.301   26.0  0.2582   51.3  0.4701  -61.4
 3.000  0.3726  112.5   1.294   25.5  0.2600   51.2  0.4690  -61.9
 3.100  0.3851  110.0   1.261   23.7  0.2696   50.2  0.4592  -64.6
 3.200  0.3982  107.6   1.230   21.7  0.2793   49.3  0.4504  -67.4
 3.300  0.4120  105.4   1.200   19.7  0.2891   48.4  0.4427  -70.4
 3.400  0.4264  103.3   1.172   17.5  0.2989   47.6  0.4363  -73.4
 3.500  0.4413  101.4   1.145   15.3  0.3088   46.8  0.4311  -76.5
 3.600  0.4519   99.5   1.120   13.6  0.3192   45.7  0.4210  -80.0
 3.700  0.4631   97.6   1.096   11.8  0.3296   44.7  0.4126  -83.7
 3.800  0.4747   95.9   1.074    9.9  0.3402   43.7  0.4060  -87.6
 3.900  0.4867   94.2   1.052    7.9  0.3509   42.8  0.4012  -91.5
 4.000  0.4991   92.6   1.032    5.9  0.3616   42.0  0.3984  -95.5
 4.100  0.5093   91.1   1.012    4.3  0.3724   40.6  0.3885  -99.6
 4.200  0.5198   89.6   0.993    2.7  0.3833   39.2  0.3807 -104.0
 4.300  0.5307   88.2   0.974    1.0  0.3945   37.9  0.3752 -108.5
 4.400  0.5418   86.8   0.957   -0.7  0.4059   36.7  0.3720 -113.1
 4.500  0.5533   85.5   0.940   -2.5  0.4174   35.6  0.3713 -117.7
 4.600  0.5609   84.1   0.923   -3.9  0.4267   34.0  0.3647 -122.4
 4.700  0.5688   82.8   0.907   -5.3  0.4364   32.5  0.3606 -127.2
 4.800  0.5770   81.6   0.891   -6.8  0.4464   31.0  0.3591 -132.1
 4.900  0.5855   80.3   0.876   -8.4  0.4566   29.6  0.3603 -137.1
 5.000  0.5942   79.1   0.862  -10.0  0.4671   28.3  0.3641 -141.9
 5.100  0.6028   77.7   0.839  -11.2  0.4716   26.5  0.3527 -146.4
 5.200  0.6117   76.4   0.817  -12.5  0.4765   24.7  0.3436 -151.3
 5.300  0.6209   75.1   0.795  -13.9  0.4819   23.0  0.3370 -156.3
 5.400  0.6305   73.8   0.773  -15.3  0.4877   21.3  0.3332 -161.5
 5.500  0.6403   72.6   0.752  -16.8  0.4939   19.6  0.3322 -166.8
 5.600  0.6403   71.5   0.745  -17.1  0.5045   18.6  0.3482 -170.2
 5.700  0.6406   70.4   0.738  -17.5  0.5152   17.7  0.3653 -173.3
 5.800  0.6410   69.3   0.731  -17.9  0.5261   16.8  0.3834 -176.1
 5.900  0.6417   68.2   0.724  -18.2  0.5371   15.9  0.4023 -178.6
 6.000  0.6427   67.1   0.717  -18.6  0.5482   15.1  0.4219  179.1
!
!  f       NFmin   Gammaopt  rn/50
! GHz       dB    MAG  ANG    -
!
! noise parameter not available yet for this operation point!
!
! (c) 2015  Infineon Technologies AG, Munich
