! Infineon Technologies  Discrete & RF Semiconductors
! BFR35AP
! VCE =  10. V,  IC =  3.5 mA
! Common Emitter S-Parameters:                            Nov 2015
# GHz  S  MA  R  50
!  f         S11            S21            S12            S22
! GHz     MAG   ANG      MAG   ANG      MAG   ANG      MAG   ANG
 0.010  0.9101   -2.1   9.899  177.9  0.0022   86.7  0.9968   -0.9
 0.015  0.9062   -3.3   9.930  176.7  0.0034   85.7  0.9917   -1.4
 0.020  0.9027   -4.6   9.966  175.6  0.0047   85.3  0.9867   -1.9
 0.025  0.9018   -5.7   9.930  174.7  0.0058   84.3  0.9863   -2.4
 0.030  0.9011   -6.8   9.897  173.8  0.0070   83.6  0.9860   -2.9
 0.035  0.9008   -7.8   9.866  172.9  0.0081   83.2  0.9857   -3.4
 0.040  0.9009   -8.9   9.838  172.0  0.0092   82.8  0.9855   -3.9
 0.045  0.9012  -10.0   9.812  171.0  0.0104   82.5  0.9854   -4.4
 0.050  0.9019  -11.1   9.789  170.1  0.0115   82.3  0.9854   -4.9
 0.055  0.8966  -12.2   9.752  169.2  0.0126   81.5  0.9828   -5.3
 0.060  0.8915  -13.2   9.718  168.3  0.0137   80.8  0.9803   -5.8
 0.065  0.8868  -14.3   9.687  167.4  0.0148   80.2  0.9779   -6.2
 0.070  0.8824  -15.4   9.657  166.5  0.0159   79.7  0.9755   -6.7
 0.075  0.8784  -16.5   9.630  165.6  0.0170   79.3  0.9731   -7.1
 0.080  0.8746  -17.6   9.606  164.6  0.0181   78.9  0.9709   -7.6
 0.085  0.8712  -18.8   9.584  163.7  0.0193   78.5  0.9687   -8.0
 0.090  0.8682  -19.9   9.565  162.8  0.0204   78.2  0.9665   -8.5
 0.095  0.8655  -21.1   9.548  161.8  0.0215   77.9  0.9644   -8.9
 0.100  0.8631  -22.2   9.534  160.9  0.0226   77.7  0.9624   -9.4
 0.105  0.8573  -23.2   9.483  159.9  0.0235   76.9  0.9586   -9.8
 0.110  0.8517  -24.1   9.435  159.0  0.0245   76.2  0.9549  -10.2
 0.115  0.8464  -25.1   9.389  158.0  0.0254   75.6  0.9513  -10.6
 0.120  0.8414  -26.1   9.346  157.0  0.0263   75.0  0.9476  -11.0
 0.125  0.8365  -27.1   9.306  156.1  0.0273   74.4  0.9441  -11.5
 0.130  0.8320  -28.1   9.269  155.1  0.0282   73.9  0.9405  -11.9
 0.135  0.8277  -29.2   9.234  154.1  0.0292   73.4  0.9371  -12.3
 0.140  0.8237  -30.2   9.203  153.0  0.0301   72.9  0.9337  -12.7
 0.145  0.8200  -31.2   9.174  152.0  0.0310   72.5  0.9303  -13.2
 0.150  0.8165  -32.3   9.148  151.0  0.0320   72.1  0.9270  -13.6
 0.155  0.8111  -33.2   9.084  150.3  0.0329   71.6  0.9232  -13.9
 0.160  0.8059  -34.1   9.022  149.5  0.0337   71.1  0.9194  -14.2
 0.165  0.8009  -35.0   8.962  148.8  0.0346   70.7  0.9157  -14.5
 0.170  0.7961  -36.0   8.903  148.0  0.0355   70.3  0.9120  -14.8
 0.175  0.7915  -36.9   8.845  147.3  0.0364   69.9  0.9083  -15.1
 0.180  0.7871  -37.9   8.789  146.5  0.0373   69.5  0.9046  -15.4
 0.185  0.7830  -38.8   8.735  145.7  0.0381   69.1  0.9010  -15.7
 0.190  0.7790  -39.8   8.682  144.9  0.0390   68.8  0.8974  -16.0
 0.195  0.7754  -40.8   8.631  144.1  0.0399   68.4  0.8938  -16.3
 0.200  0.7719  -41.8   8.582  143.3  0.0408   68.1  0.8902  -16.6
 0.220  0.7468  -45.2   8.357  140.3  0.0435   66.3  0.8738  -17.6
 0.240  0.7246  -48.9   8.155  137.2  0.0463   64.6  0.8577  -18.7
 0.260  0.7011  -52.3   7.945  134.4  0.0489   63.3  0.8415  -19.6
 0.280  0.6756  -55.4   7.718  131.8  0.0514   62.3  0.8252  -20.4
 0.300  0.6523  -58.8   7.508  129.0  0.0539   61.3  0.8091  -21.2
 0.320  0.6316  -61.1   7.277  127.3  0.0558   60.4  0.7962  -21.7
 0.340  0.6121  -63.6   7.052  125.4  0.0576   59.6  0.7834  -22.2
 0.360  0.5937  -66.2   6.836  123.5  0.0595   58.9  0.7706  -22.7
 0.380  0.5767  -69.0   6.628  121.4  0.0614   58.2  0.7579  -23.2
 0.400  0.5612  -72.0   6.429  119.2  0.0633   57.5  0.7453  -23.8
 0.420  0.5433  -74.1   6.237  117.6  0.0649   57.1  0.7359  -24.1
 0.440  0.5262  -76.4   6.050  115.9  0.0666   56.6  0.7264  -24.4
 0.450  0.5180  -77.6   5.959  114.9  0.0674   56.4  0.7217  -24.5
 0.460  0.5100  -78.8   5.869  114.0  0.0682   56.2  0.7170  -24.7
 0.480  0.4947  -81.4   5.695  112.1  0.0699   55.9  0.7077  -25.0
 0.500  0.4805  -84.1   5.527  110.0  0.0715   55.5  0.6983  -25.3
 0.520  0.4660  -86.1   5.395  108.7  0.0728   55.3  0.6909  -25.5
 0.540  0.4521  -88.1   5.266  107.3  0.0741   55.0  0.6835  -25.6
 0.560  0.4388  -90.4   5.141  105.9  0.0754   54.8  0.6761  -25.8
 0.580  0.4262  -92.7   5.019  104.4  0.0767   54.6  0.6687  -26.0
 0.600  0.4144  -95.2   4.900  102.8  0.0780   54.4  0.6613  -26.2
 0.620  0.4039  -97.0   4.789  101.7  0.0792   54.4  0.6557  -26.3
 0.640  0.3937  -98.9   4.680  100.5  0.0804   54.4  0.6500  -26.5
 0.660  0.3841 -100.8   4.574   99.3  0.0815   54.5  0.6444  -26.6
 0.680  0.3749 -102.9   4.469   98.0  0.0827   54.5  0.6388  -26.8
 0.700  0.3662 -105.1   4.367   96.6  0.0839   54.5  0.6332  -26.9
 0.720  0.3577 -106.9   4.271   95.6  0.0852   54.4  0.6290  -27.0
 0.740  0.3496 -108.7   4.175   94.6  0.0864   54.4  0.6248  -27.2
 0.760  0.3419 -110.6   4.082   93.5  0.0877   54.3  0.6206  -27.3
 0.780  0.3346 -112.6   3.990   92.4  0.0889   54.3  0.6164  -27.5
 0.800  0.3277 -114.7   3.899   91.2  0.0902   54.2  0.6122  -27.6
 0.820  0.3218 -116.2   3.822   90.4  0.0916   54.3  0.6092  -27.7
 0.840  0.3162 -117.7   3.745   89.5  0.0929   54.3  0.6061  -27.9
 0.860  0.3108 -119.3   3.669   88.6  0.0943   54.4  0.6031  -28.0
 0.880  0.3056 -121.0   3.595   87.6  0.0956   54.4  0.6001  -28.2
 0.900  0.3007 -122.7   3.521   86.6  0.0970   54.5  0.5971  -28.3
 0.920  0.2941 -124.4   3.462   85.8  0.0982   54.6  0.5950  -28.4
 0.940  0.2878 -126.2   3.404   85.0  0.0994   54.6  0.5928  -28.6
 0.960  0.2817 -128.0   3.347   84.1  0.1007   54.7  0.5907  -28.7
 0.980  0.2760 -130.0   3.290   83.2  0.1019   54.7  0.5886  -28.9
 1.000  0.2706 -132.0   3.234   82.3  0.1031   54.8  0.5865  -29.0
 1.020  0.2671 -134.1   3.185   81.6  0.1044   54.9  0.5843  -29.2
 1.040  0.2639 -136.2   3.137   80.8  0.1056   54.9  0.5821  -29.4
 1.060  0.2611 -138.3   3.089   80.0  0.1069   55.0  0.5799  -29.7
 1.080  0.2587 -140.6   3.042   79.2  0.1081   55.0  0.5778  -29.9
 1.100  0.2567 -142.8   2.996   78.4  0.1094   55.1  0.5756  -30.1
 1.120  0.2531 -144.5   2.954   77.6  0.1107   55.2  0.5738  -30.3
 1.140  0.2497 -146.2   2.913   76.9  0.1121   55.2  0.5720  -30.4
 1.160  0.2465 -148.0   2.872   76.1  0.1134   55.3  0.5702  -30.6
 1.180  0.2436 -149.8   2.832   75.2  0.1148   55.3  0.5685  -30.7
 1.200  0.2409 -151.7   2.792   74.4  0.1161   55.4  0.5667  -30.9
 1.220  0.2388 -153.3   2.752   73.8  0.1175   55.5  0.5651  -31.1
 1.240  0.2369 -155.0   2.712   73.1  0.1189   55.6  0.5636  -31.3
 1.260  0.2351 -156.7   2.673   72.4  0.1203   55.6  0.5620  -31.5
 1.280  0.2336 -158.4   2.634   71.7  0.1217   55.7  0.5604  -31.7
 1.300  0.2323 -160.1   2.596   71.0  0.1231   55.8  0.5589  -31.9
 1.320  0.2301 -161.7   2.563   70.3  0.1244   55.9  0.5576  -32.1
 1.340  0.2281 -163.4   2.530   69.7  0.1256   55.9  0.5563  -32.3
 1.360  0.2263 -165.1   2.497   69.0  0.1269   56.0  0.5550  -32.6
 1.380  0.2247 -166.8   2.465   68.2  0.1281   56.0  0.5538  -32.8
 1.400  0.2233 -168.6   2.433   67.5  0.1294   56.1  0.5525  -33.0
 1.420  0.2236 -170.2   2.407   66.9  0.1309   56.1  0.5511  -33.2
 1.440  0.2240 -171.7   2.381   66.4  0.1323   56.1  0.5498  -33.4
 1.460  0.2247 -173.3   2.355   65.8  0.1338   56.2  0.5485  -33.6
 1.480  0.2254 -174.9   2.329   65.2  0.1352   56.2  0.5471  -33.8
 1.500  0.2264 -176.4   2.304   64.6  0.1367   56.2  0.5458  -34.0
 1.520  0.2259 -178.3   2.277   63.9  0.1381   56.2  0.5444  -34.3
 1.540  0.2257  179.9   2.250   63.2  0.1396   56.3  0.5431  -34.5
 1.560  0.2257  178.0   2.223   62.6  0.1410   56.3  0.5417  -34.8
 1.580  0.2259  176.2   2.197   61.8  0.1425   56.4  0.5404  -35.0
 1.600  0.2264  174.3   2.171   61.1  0.1439   56.4  0.5391  -35.3
 1.620  0.2263  173.0   2.148   60.5  0.1454   56.4  0.5380  -35.6
 1.640  0.2263  171.7   2.126   60.0  0.1469   56.5  0.5369  -35.8
 1.660  0.2265  170.4   2.103   59.4  0.1484   56.5  0.5359  -36.1
 1.680  0.2267  169.1   2.081   58.8  0.1499   56.6  0.5348  -36.3
 1.700  0.2271  167.8   2.059   58.2  0.1514   56.6  0.5338  -36.6
 1.720  0.2282  166.5   2.041   57.7  0.1529   56.5  0.5332  -36.9
 1.740  0.2294  165.1   2.024   57.2  0.1544   56.4  0.5326  -37.2
 1.760  0.2307  163.8   2.006   56.7  0.1560   56.4  0.5320  -37.5
 1.780  0.2321  162.5   1.989   56.1  0.1575   56.3  0.5315  -37.8
 1.800  0.2337  161.2   1.972   55.6  0.1590   56.2  0.5309  -38.1
 1.820  0.2349  160.0   1.956   55.0  0.1605   56.2  0.5298  -38.4
 1.840  0.2361  158.9   1.940   54.4  0.1621   56.2  0.5288  -38.7
 1.860  0.2374  157.7   1.925   53.8  0.1636   56.1  0.5278  -39.1
 1.880  0.2389  156.6   1.909   53.2  0.1652   56.1  0.5268  -39.4
 1.900  0.2404  155.5   1.894   52.6  0.1667   56.1  0.5258  -39.7
 1.920  0.2423  154.3   1.877   52.1  0.1683   56.1  0.5246  -40.0
 1.940  0.2442  153.1   1.861   51.5  0.1699   56.0  0.5233  -40.3
 1.960  0.2463  152.0   1.844   51.0  0.1714   56.0  0.5221  -40.6
 1.980  0.2484  150.8   1.828   50.5  0.1730   55.9  0.5209  -40.9
 2.000  0.2507  149.7   1.812   49.9  0.1746   55.9  0.5197  -41.2
 2.020  0.2519  148.7   1.798   49.4  0.1763   55.9  0.5184  -41.5
 2.040  0.2533  147.7   1.783   48.9  0.1780   55.8  0.5171  -41.8
 2.060  0.2547  146.7   1.769   48.4  0.1797   55.8  0.5159  -42.2
 2.080  0.2561  145.7   1.755   47.8  0.1814   55.7  0.5147  -42.5
 2.100  0.2577  144.7   1.742   47.3  0.1831   55.7  0.5134  -42.8
 2.120  0.2593  143.7   1.728   46.8  0.1849   55.7  0.5122  -43.2
 2.140  0.2610  142.8   1.714   46.2  0.1866   55.6  0.5111  -43.5
 2.160  0.2628  141.8   1.701   45.6  0.1883   55.6  0.5099  -43.8
 2.180  0.2646  140.9   1.688   45.1  0.1900   55.5  0.5087  -44.2
 2.200  0.2665  140.0   1.675   44.5  0.1917   55.5  0.5076  -44.5
 2.220  0.2683  139.0   1.664   44.0  0.1934   55.4  0.5064  -44.9
 2.240  0.2701  138.0   1.654   43.5  0.1951   55.3  0.5052  -45.2
 2.260  0.2721  137.1   1.643   43.0  0.1967   55.2  0.5040  -45.6
 2.280  0.2741  136.1   1.633   42.5  0.1984   55.2  0.5029  -46.0
 2.300  0.2762  135.2   1.623   42.0  0.2001   55.1  0.5017  -46.4
 2.320  0.2784  134.2   1.613   41.5  0.2018   55.0  0.5006  -46.8
 2.340  0.2806  133.3   1.603   40.9  0.2035   54.9  0.4995  -47.1
 2.360  0.2829  132.4   1.593   40.4  0.2051   54.8  0.4985  -47.5
 2.380  0.2853  131.6   1.583   39.8  0.2068   54.8  0.4974  -47.9
 2.400  0.2877  130.7   1.574   39.3  0.2085   54.7  0.4964  -48.3
 2.420  0.2903  129.9   1.564   38.9  0.2103   54.6  0.4949  -48.7
 2.440  0.2929  129.2   1.554   38.4  0.2122   54.5  0.4934  -49.0
 2.460  0.2956  128.4   1.544   38.0  0.2140   54.4  0.4920  -49.4
 2.480  0.2983  127.7   1.534   37.5  0.2158   54.2  0.4905  -49.8
 2.500  0.3011  126.9   1.524   37.0  0.2176   54.1  0.4891  -50.2
 2.520  0.3039  126.2   1.515   36.6  0.2195   54.0  0.4877  -50.6
 2.540  0.3067  125.5   1.505   36.1  0.2213   53.9  0.4864  -50.9
 2.560  0.3097  124.8   1.496   35.6  0.2231   53.8  0.4850  -51.3
 2.580  0.3126  124.2   1.486   35.1  0.2250   53.7  0.4837  -51.7
 2.600  0.3156  123.5   1.477   34.6  0.2268   53.6  0.4824  -52.1
 2.620  0.3176  122.8   1.469   34.2  0.2286   53.5  0.4810  -52.5
 2.640  0.3196  122.1   1.461   33.8  0.2304   53.3  0.4795  -53.0
 2.660  0.3217  121.4   1.454   33.4  0.2321   53.2  0.4781  -53.4
 2.680  0.3238  120.8   1.446   32.9  0.2339   53.1  0.4768  -53.8
 2.700  0.3260  120.1   1.438   32.5  0.2357   53.0  0.4754  -54.3
 2.720  0.3282  119.4   1.431   32.1  0.2375   52.9  0.4741  -54.7
 2.740  0.3304  118.8   1.424   31.6  0.2392   52.7  0.4729  -55.2
 2.760  0.3327  118.1   1.416   31.2  0.2410   52.6  0.4716  -55.6
 2.780  0.3350  117.5   1.409   30.8  0.2428   52.5  0.4704  -56.0
 2.800  0.3374  116.9   1.402   30.3  0.2446   52.4  0.4692  -56.5
 2.820  0.3400  116.4   1.394   29.8  0.2465   52.2  0.4675  -57.0
 2.840  0.3427  115.8   1.386   29.4  0.2485   52.1  0.4659  -57.4
 2.860  0.3454  115.3   1.378   28.9  0.2504   51.9  0.4643  -57.9
 2.880  0.3482  114.8   1.370   28.4  0.2523   51.8  0.4627  -58.4
 2.900  0.3509  114.3   1.363   28.0  0.2543   51.6  0.4611  -58.9
 2.920  0.3537  113.8   1.355   27.5  0.2562   51.5  0.4596  -59.3
 2.940  0.3565  113.3   1.348   27.0  0.2582   51.3  0.4581  -59.8
 2.960  0.3594  112.8   1.340   26.5  0.2601   51.2  0.4567  -60.3
 2.980  0.3622  112.4   1.333   26.0  0.2621   51.0  0.4553  -60.8
 3.000  0.3651  111.9   1.326   25.5  0.2640   50.9  0.4539  -61.3
 3.100  0.3776  109.4   1.292   23.7  0.2735   49.9  0.4440  -64.0
 3.200  0.3907  107.1   1.260   21.7  0.2830   48.9  0.4350  -66.8
 3.300  0.4044  105.0   1.229   19.7  0.2926   48.0  0.4272  -69.7
 3.400  0.4186  103.0   1.200   17.5  0.3023   47.2  0.4205  -72.7
 3.500  0.4333  101.1   1.172   15.3  0.3120   46.4  0.4150  -75.8
 3.600  0.4441   99.3   1.147   13.6  0.3221   45.3  0.4048  -79.3
 3.700  0.4553   97.5   1.124   11.8  0.3322   44.2  0.3961  -83.0
 3.800  0.4670   95.9   1.101    9.9  0.3425   43.2  0.3891  -86.8
 3.900  0.4790   94.3   1.080    7.9  0.3529   42.2  0.3839  -90.7
 4.000  0.4913   92.8   1.060    5.9  0.3634   41.3  0.3806  -94.7
 4.100  0.5020   91.3   1.039    4.3  0.3737   39.9  0.3714  -98.9
 4.200  0.5131   89.8   1.019    2.7  0.3842   38.6  0.3644 -103.3
 4.300  0.5246   88.4   0.999    1.1  0.3949   37.3  0.3595 -107.8
 4.400  0.5363   87.0   0.981   -0.7  0.4058   36.1  0.3569 -112.4
 4.500  0.5483   85.7   0.963   -2.5  0.4168   35.0  0.3567 -117.1
 4.600  0.5561   84.4   0.945   -3.9  0.4261   33.5  0.3500 -121.8
 4.700  0.5642   83.1   0.927   -5.4  0.4357   32.0  0.3457 -126.7
 4.800  0.5726   81.9   0.911   -7.0  0.4456   30.6  0.3440 -131.6
 4.900  0.5812   80.7   0.894   -8.6  0.4557   29.2  0.3449 -136.6
 5.000  0.5901   79.5   0.879  -10.3  0.4661   27.9  0.3483 -141.5
 5.100  0.5993   78.1   0.857  -11.6  0.4706   26.1  0.3371 -146.1
 5.200  0.6089   76.8   0.835  -13.0  0.4755   24.3  0.3283 -150.9
 5.300  0.6187   75.5   0.814  -14.5  0.4809   22.6  0.3219 -156.0
 5.400  0.6289   74.2   0.793  -16.0  0.4867   20.9  0.3181 -161.3
 5.500  0.6394   73.0   0.773  -17.6  0.4929   19.3  0.3171 -166.6
 5.600  0.6396   71.9   0.765  -18.0  0.5033   18.3  0.3336 -170.0
 5.700  0.6401   70.8   0.757  -18.3  0.5138   17.4  0.3511 -173.0
 5.800  0.6408   69.8   0.750  -18.7  0.5244   16.6  0.3695 -175.8
 5.900  0.6417   68.7   0.742  -19.1  0.5351   15.7  0.3887 -178.3
 6.000  0.6429   67.6   0.734  -19.5  0.5460   14.9  0.4085  179.5
!
!  f       NFmin   Gammaopt  rn/50
! GHz       dB    MAG  ANG    -
!
! noise parameter not available yet for this operation point!
!
! (c) 2015  Infineon Technologies AG, Munich
