! Infineon Technologies  Discrete & RF Semiconductors
! BFR35AP
! VCE =  1.7 V,  IC =  15 mA
! Common Emitter S-Parameters:                            Nov 2015
# GHz  S  MA  R  50
!  f         S11            S21            S12            S22
! GHz     MAG   ANG      MAG   ANG      MAG   ANG      MAG   ANG
 0.010  0.5743   -7.8  28.438  174.5  0.0027   88.6  0.9656   -3.4
 0.015  0.5679  -11.4  28.261  171.7  0.0041   84.6  0.9582   -5.3
 0.020  0.5638  -15.1  28.151  168.9  0.0055   82.6  0.9518   -7.2
 0.025  0.5538  -18.5  27.721  166.6  0.0069   80.0  0.9396   -8.7
 0.030  0.5458  -22.0  27.337  164.2  0.0082   78.3  0.9281  -10.3
 0.035  0.5399  -25.7  27.002  161.8  0.0096   77.1  0.9174  -11.9
 0.040  0.5362  -29.4  26.718  159.2  0.0110   76.2  0.9074  -13.6
 0.045  0.5348  -33.1  26.486  156.7  0.0123   75.5  0.8981  -15.3
 0.050  0.5356  -36.8  26.307  154.1  0.0137   74.9  0.8897  -17.0
 0.055  0.5214  -39.2  25.708  152.5  0.0147   73.7  0.8740  -17.9
 0.060  0.5083  -41.8  25.128  150.9  0.0156   72.7  0.8586  -18.8
 0.065  0.4962  -44.5  24.570  149.2  0.0166   71.8  0.8434  -19.8
 0.070  0.4853  -47.3  24.034  147.4  0.0176   71.0  0.8284  -20.8
 0.075  0.4756  -50.3  23.523  145.6  0.0186   70.2  0.8138  -21.9
 0.080  0.4672  -53.4  23.037  143.7  0.0195   69.6  0.7994  -23.0
 0.085  0.4602  -56.5  22.579  141.6  0.0205   69.0  0.7853  -24.1
 0.090  0.4547  -59.8  22.150  139.5  0.0215   68.4  0.7715  -25.2
 0.095  0.4507  -63.1  21.752  137.4  0.0225   67.9  0.7580  -26.5
 0.100  0.4482  -66.5  21.386  135.1  0.0235   67.5  0.7449  -27.7
 0.105  0.4389  -68.5  20.909  134.0  0.0242   66.9  0.7327  -28.1
 0.110  0.4302  -70.5  20.439  132.9  0.0249   66.4  0.7205  -28.6
 0.115  0.4221  -72.6  19.978  131.7  0.0256   65.9  0.7084  -29.0
 0.120  0.4145  -74.9  19.527  130.4  0.0262   65.4  0.6964  -29.5
 0.125  0.4076  -77.1  19.085  129.1  0.0269   64.9  0.6844  -30.0
 0.130  0.4014  -79.5  18.653  127.7  0.0276   64.5  0.6724  -30.5
 0.135  0.3959  -81.9  18.232  126.3  0.0283   64.0  0.6605  -31.0
 0.140  0.3911  -84.4  17.824  124.8  0.0290   63.6  0.6486  -31.6
 0.145  0.3870  -87.0  17.428  123.2  0.0297   63.3  0.6368  -32.1
 0.150  0.3838  -89.6  17.046  121.6  0.0304   62.9  0.6251  -32.7
 0.155  0.3784  -91.1  16.721  120.9  0.0309   62.9  0.6168  -32.8
 0.160  0.3732  -92.5  16.399  120.1  0.0315   62.9  0.6085  -33.0
 0.165  0.3683  -94.1  16.080  119.4  0.0320   62.8  0.6002  -33.1
 0.170  0.3636  -95.7  15.764  118.6  0.0326   62.8  0.5919  -33.3
 0.175  0.3592  -97.3  15.451  117.7  0.0331   62.8  0.5836  -33.4
 0.180  0.3552  -98.9  15.142  116.9  0.0337   62.8  0.5754  -33.6
 0.185  0.3514 -100.6  14.836  116.0  0.0342   62.8  0.5671  -33.8
 0.190  0.3479 -102.4  14.534  115.0  0.0348   62.7  0.5588  -33.9
 0.195  0.3448 -104.1  14.236  114.0  0.0353   62.7  0.5506  -34.1
 0.200  0.3420 -105.9  13.943  113.0  0.0359   62.7  0.5423  -34.3
 0.220  0.3299 -111.1  12.993  110.7  0.0379   62.7  0.5199  -34.4
 0.240  0.3206 -116.5  12.067  108.1  0.0399   62.8  0.4976  -34.5
 0.260  0.3131 -121.5  11.276  105.8  0.0420   63.0  0.4786  -34.5
 0.280  0.3063 -125.7  10.607  103.9  0.0442   63.5  0.4630  -34.4
 0.300  0.3013 -130.2   9.950  101.8  0.0464   63.9  0.4474  -34.3
 0.320  0.2952 -133.4   9.492  100.7  0.0485   64.2  0.4375  -34.0
 0.340  0.2900 -136.8   9.038   99.4  0.0506   64.5  0.4277  -33.8
 0.360  0.2859 -140.3   8.589   98.0  0.0527   64.8  0.4178  -33.5
 0.380  0.2828 -143.9   8.146   96.5  0.0548   65.1  0.4080  -33.2
 0.400  0.2809 -147.5   7.709   94.8  0.0569   65.3  0.3982  -32.9
 0.420  0.2784 -149.9   7.407   93.8  0.0591   65.6  0.3926  -32.7
 0.440  0.2764 -152.3   7.107   92.7  0.0613   65.8  0.3870  -32.5
 0.450  0.2756 -153.5   6.958   92.2  0.0624   66.0  0.3842  -32.4
 0.460  0.2749 -154.7   6.810   91.6  0.0635   66.1  0.3814  -32.3
 0.480  0.2738 -157.1   6.516   90.3  0.0657   66.3  0.3759  -32.1
 0.500  0.2733 -159.6   6.225   88.9  0.0679   66.5  0.3703  -31.9
 0.520  0.2724 -161.3   6.029   88.1  0.0701   66.6  0.3671  -31.8
 0.540  0.2718 -163.1   5.834   87.2  0.0724   66.6  0.3639  -31.8
 0.560  0.2715 -164.8   5.641   86.3  0.0746   66.7  0.3606  -31.7
 0.580  0.2714 -166.6   5.449   85.3  0.0769   66.7  0.3574  -31.7
 0.600  0.2715 -168.3   5.259   84.2  0.0791   66.8  0.3542  -31.6
 0.620  0.2707 -170.0   5.116   83.4  0.0813   66.8  0.3518  -31.6
 0.640  0.2702 -171.6   4.974   82.6  0.0835   66.8  0.3494  -31.6
 0.660  0.2698 -173.3   4.833   81.7  0.0856   66.8  0.3469  -31.7
 0.680  0.2698 -175.0   4.693   80.8  0.0878   66.8  0.3445  -31.7
 0.700  0.2699 -176.7   4.555   79.8  0.0900   66.8  0.3421  -31.7
 0.720  0.2700 -178.1   4.443   79.1  0.0922   66.7  0.3403  -31.8
 0.740  0.2703 -179.6   4.331   78.4  0.0945   66.7  0.3386  -31.8
 0.760  0.2708  179.0   4.220   77.6  0.0967   66.6  0.3368  -31.9
 0.780  0.2714  177.6   4.110   76.8  0.0990   66.6  0.3351  -31.9
 0.800  0.2722  176.2   4.001   76.0  0.1012   66.5  0.3333  -32.0
 0.820  0.2714  175.0   3.916   75.4  0.1036   66.4  0.3317  -32.1
 0.840  0.2707  173.7   3.832   74.7  0.1059   66.3  0.3301  -32.2
 0.860  0.2701  172.5   3.748   74.0  0.1083   66.2  0.3285  -32.4
 0.880  0.2696  171.2   3.665   73.3  0.1106   66.2  0.3269  -32.5
 0.900  0.2693  170.0   3.583   72.5  0.1130   66.1  0.3253  -32.6
 0.920  0.2707  168.7   3.517   71.9  0.1152   66.0  0.3242  -32.8
 0.940  0.2723  167.4   3.451   71.3  0.1174   65.8  0.3230  -33.0
 0.960  0.2740  166.2   3.386   70.7  0.1196   65.7  0.3219  -33.3
 0.980  0.2758  164.9   3.321   70.0  0.1218   65.6  0.3207  -33.5
 1.000  0.2778  163.7   3.256   69.3  0.1240   65.5  0.3196  -33.7
 1.020  0.2786  162.8   3.202   68.7  0.1263   65.3  0.3184  -34.0
 1.040  0.2795  162.0   3.149   68.1  0.1287   65.2  0.3173  -34.3
 1.060  0.2804  161.1   3.096   67.5  0.1310   65.1  0.3162  -34.6
 1.080  0.2814  160.2   3.044   66.9  0.1334   64.9  0.3150  -34.9
 1.100  0.2824  159.4   2.992   66.2  0.1357   64.8  0.3139  -35.2
 1.120  0.2840  158.3   2.945   65.6  0.1380   64.6  0.3127  -35.5
 1.140  0.2857  157.2   2.899   65.0  0.1402   64.4  0.3114  -35.7
 1.160  0.2876  156.1   2.852   64.4  0.1425   64.2  0.3102  -36.0
 1.180  0.2895  155.1   2.807   63.8  0.1447   64.1  0.3090  -36.2
 1.200  0.2915  154.0   2.761   63.1  0.1470   63.9  0.3078  -36.5
 1.220  0.2920  153.3   2.720   62.5  0.1493   63.7  0.3068  -36.8
 1.240  0.2924  152.6   2.679   62.0  0.1517   63.5  0.3059  -37.1
 1.260  0.2930  151.9   2.638   61.4  0.1540   63.3  0.3050  -37.3
 1.280  0.2936  151.2   2.598   60.7  0.1564   63.2  0.3040  -37.6
 1.300  0.2942  150.5   2.558   60.1  0.1587   63.0  0.3031  -37.9
 1.320  0.2961  149.4   2.524   59.6  0.1608   62.8  0.3023  -38.3
 1.340  0.2980  148.3   2.491   59.1  0.1630   62.6  0.3014  -38.7
 1.360  0.3001  147.2   2.457   58.5  0.1651   62.4  0.3006  -39.0
 1.380  0.3023  146.1   2.424   58.0  0.1673   62.3  0.2998  -39.4
 1.400  0.3046  145.1   2.391   57.4  0.1694   62.1  0.2990  -39.8
 1.420  0.3048  144.6   2.364   56.9  0.1716   61.8  0.2980  -40.1
 1.440  0.3050  144.1   2.338   56.3  0.1738   61.6  0.2970  -40.5
 1.460  0.3052  143.5   2.312   55.8  0.1759   61.4  0.2960  -40.8
 1.480  0.3055  143.0   2.286   55.2  0.1781   61.1  0.2950  -41.2
 1.500  0.3058  142.5   2.260   54.6  0.1803   60.9  0.2940  -41.5
 1.520  0.3082  141.7   2.232   54.0  0.1826   60.7  0.2926  -41.9
 1.540  0.3107  140.8   2.203   53.5  0.1849   60.4  0.2912  -42.2
 1.560  0.3133  140.0   2.175   52.9  0.1871   60.2  0.2898  -42.6
 1.580  0.3159  139.2   2.148   52.3  0.1894   60.0  0.2885  -43.0
 1.600  0.3186  138.4   2.120   51.7  0.1917   59.8  0.2871  -43.4
 1.620  0.3201  137.7   2.099   51.2  0.1939   59.6  0.2859  -43.8
 1.640  0.3216  137.0   2.078   50.7  0.1960   59.3  0.2847  -44.2
 1.660  0.3232  136.3   2.057   50.1  0.1982   59.1  0.2836  -44.6
 1.680  0.3248  135.6   2.036   49.6  0.2003   58.9  0.2824  -45.0
 1.700  0.3265  134.9   2.016   49.0  0.2025   58.7  0.2813  -45.4
 1.720  0.3281  134.3   1.998   48.5  0.2047   58.4  0.2804  -45.9
 1.740  0.3297  133.6   1.980   48.1  0.2070   58.2  0.2796  -46.3
 1.760  0.3313  133.0   1.962   47.6  0.2092   58.0  0.2788  -46.8
 1.780  0.3330  132.4   1.945   47.1  0.2115   57.7  0.2780  -47.2
 1.800  0.3347  131.8   1.927   46.6  0.2137   57.5  0.2772  -47.7
 1.820  0.3368  131.2   1.910   46.1  0.2158   57.3  0.2757  -48.2
 1.840  0.3390  130.7   1.894   45.6  0.2179   57.0  0.2743  -48.7
 1.860  0.3412  130.2   1.877   45.1  0.2201   56.8  0.2729  -49.2
 1.880  0.3434  129.6   1.861   44.5  0.2222   56.6  0.2715  -49.8
 1.900  0.3457  129.1   1.845   44.0  0.2243   56.4  0.2701  -50.3
 1.920  0.3473  128.5   1.828   43.5  0.2265   56.1  0.2686  -50.7
 1.940  0.3489  127.9   1.811   43.0  0.2287   55.9  0.2671  -51.2
 1.960  0.3505  127.3   1.794   42.5  0.2309   55.6  0.2656  -51.6
 1.980  0.3522  126.8   1.777   41.9  0.2332   55.4  0.2641  -52.1
 2.000  0.3539  126.2   1.760   41.4  0.2354   55.1  0.2626  -52.5
 2.020  0.3555  125.6   1.746   40.9  0.2375   54.8  0.2611  -53.0
 2.040  0.3572  125.0   1.732   40.5  0.2397   54.6  0.2597  -53.5
 2.060  0.3589  124.5   1.718   40.0  0.2419   54.3  0.2582  -54.0
 2.080  0.3607  123.9   1.704   39.5  0.2440   54.1  0.2568  -54.6
 2.100  0.3625  123.3   1.690   39.0  0.2462   53.8  0.2554  -55.1
 2.120  0.3643  122.8   1.677   38.6  0.2484   53.6  0.2541  -55.6
 2.140  0.3661  122.2   1.663   38.1  0.2505   53.4  0.2527  -56.1
 2.160  0.3680  121.7   1.650   37.5  0.2527   53.1  0.2514  -56.7
 2.180  0.3699  121.1   1.637   37.0  0.2549   52.9  0.2501  -57.2
 2.200  0.3719  120.6   1.624   36.5  0.2571   52.7  0.2488  -57.8
 2.220  0.3738  120.1   1.613   36.0  0.2592   52.4  0.2469  -58.4
 2.240  0.3758  119.5   1.603   35.6  0.2613   52.1  0.2451  -58.9
 2.260  0.3778  119.0   1.593   35.1  0.2635   51.9  0.2433  -59.5
 2.280  0.3798  118.5   1.583   34.6  0.2656   51.6  0.2415  -60.1
 2.300  0.3819  118.0   1.573   34.1  0.2677   51.3  0.2398  -60.7
 2.320  0.3840  117.5   1.563   33.6  0.2699   51.1  0.2380  -61.3
 2.340  0.3861  117.0   1.553   33.1  0.2720   50.8  0.2363  -61.9
 2.360  0.3882  116.5   1.543   32.6  0.2742   50.6  0.2347  -62.5
 2.380  0.3904  116.0   1.533   32.1  0.2763   50.3  0.2330  -63.2
 2.400  0.3926  115.5   1.524   31.6  0.2785   50.1  0.2314  -63.8
 2.420  0.3951  115.0   1.514   31.2  0.2805   49.8  0.2297  -64.4
 2.440  0.3976  114.5   1.504   30.7  0.2826   49.5  0.2281  -65.1
 2.460  0.4001  114.0   1.494   30.3  0.2846   49.3  0.2265  -65.7
 2.480  0.4027  113.5   1.484   29.9  0.2867   49.0  0.2249  -66.4
 2.500  0.4053  113.0   1.474   29.4  0.2887   48.8  0.2233  -67.0
 2.520  0.4079  112.5   1.465   29.0  0.2908   48.5  0.2218  -67.7
 2.540  0.4106  112.0   1.455   28.5  0.2929   48.2  0.2203  -68.4
 2.560  0.4132  111.5   1.446   28.0  0.2949   48.0  0.2188  -69.1
 2.580  0.4160  111.1   1.436   27.6  0.2970   47.7  0.2174  -69.8
 2.600  0.4187  110.6   1.427   27.1  0.2991   47.5  0.2160  -70.5
 2.620  0.4205  110.2   1.419   26.7  0.3011   47.2  0.2139  -71.3
 2.640  0.4223  109.7   1.411   26.3  0.3031   46.9  0.2119  -72.0
 2.660  0.4242  109.3   1.403   25.9  0.3051   46.6  0.2099  -72.8
 2.680  0.4261  108.8   1.395   25.5  0.3071   46.3  0.2079  -73.6
 2.700  0.4280  108.4   1.387   25.1  0.3092   46.1  0.2060  -74.4
 2.720  0.4299  108.0   1.379   24.6  0.3112   45.8  0.2041  -75.2
 2.740  0.4319  107.5   1.372   24.2  0.3132   45.5  0.2023  -76.1
 2.760  0.4339  107.1   1.364   23.8  0.3153   45.2  0.2005  -76.9
 2.780  0.4359  106.7   1.356   23.3  0.3173   45.0  0.1988  -77.8
 2.800  0.4379  106.3   1.349   22.9  0.3194   44.7  0.1971  -78.7
 2.820  0.4402  105.9   1.341   22.5  0.3214   44.4  0.1954  -79.6
 2.840  0.4425  105.5   1.333   22.0  0.3233   44.1  0.1938  -80.5
 2.860  0.4448  105.1   1.325   21.6  0.3253   43.8  0.1922  -81.4
 2.880  0.4472  104.7   1.318   21.2  0.3273   43.5  0.1906  -82.4
 2.900  0.4496  104.3   1.310   20.7  0.3293   43.3  0.1891  -83.3
 2.920  0.4519  104.0   1.302   20.3  0.3312   43.0  0.1877  -84.3
 2.940  0.4544  103.6   1.295   19.8  0.3332   42.7  0.1863  -85.3
 2.960  0.4568  103.2   1.288   19.3  0.3353   42.4  0.1850  -86.3
 2.980  0.4592  102.9   1.280   18.9  0.3373   42.2  0.1837  -87.3
 3.000  0.4617  102.5   1.273   18.4  0.3393   41.9  0.1825  -88.3
 3.100  0.4730  100.7   1.239   16.7  0.3478   40.4  0.1726  -93.7
 3.200  0.4848   98.9   1.207   14.9  0.3566   38.9  0.1644  -99.7
 3.300  0.4970   97.3   1.176   13.0  0.3655   37.5  0.1582 -106.3
 3.400  0.5095   95.7   1.146   11.0  0.3747   36.2  0.1542 -113.3
 3.500  0.5225   94.2   1.118    8.9  0.3841   34.9  0.1526 -120.6
 3.600  0.5313   92.5   1.094    7.3  0.3919   33.4  0.1491 -128.4
 3.700  0.5406   90.9   1.070    5.6  0.3999   32.1  0.1485 -136.4
 3.800  0.5503   89.4   1.047    3.9  0.4082   30.7  0.1508 -144.3
 3.900  0.5604   87.9   1.026    2.1  0.4166   29.4  0.1558 -151.8
 4.000  0.5709   86.4   1.005    0.2  0.4253   28.2  0.1633 -158.8
 4.100  0.5792   85.1   0.985   -1.2  0.4322   26.7  0.1677 -165.7
 4.200  0.5878   83.9   0.966   -2.6  0.4395   25.2  0.1743 -172.1
 4.300  0.5967   82.6   0.948   -4.1  0.4470   23.8  0.1830 -178.0
 4.400  0.6058   81.4   0.930   -5.7  0.4548   22.4  0.1934  176.6
 4.500  0.6152   80.3   0.913   -7.3  0.4628   21.1  0.2053  171.9
 4.600  0.6216   79.1   0.897   -8.5  0.4683   19.6  0.2135  167.1
 4.700  0.6283   77.9   0.881   -9.8  0.4741   18.2  0.2231  162.6
 4.800  0.6352   76.8   0.865  -11.2  0.4802   16.8  0.2340  158.5
 4.900  0.6424   75.7   0.850  -12.6  0.4866   15.4  0.2459  154.8
 5.000  0.6498   74.6   0.836  -14.0  0.4932   14.1  0.2588  151.5
 5.100  0.6558   73.4   0.816  -15.1  0.4943   12.6  0.2617  147.3
 5.200  0.6621   72.2   0.796  -16.2  0.4958   11.1  0.2660  143.2
 5.300  0.6686   71.1   0.776  -17.4  0.4976    9.6  0.2716  139.3
 5.400  0.6754   69.9   0.757  -18.6  0.4997    8.2  0.2784  135.6
 5.500  0.6825   68.8   0.738  -19.9  0.5022    6.7  0.2863  132.0
 5.600  0.6817   67.8   0.734  -20.3  0.5099    5.9  0.3026  132.0
 5.700  0.6811   66.8   0.729  -20.8  0.5178    5.0  0.3189  132.0
 5.800  0.6808   65.7   0.725  -21.2  0.5257    4.2  0.3353  132.1
 5.900  0.6806   64.7   0.720  -21.6  0.5338    3.5  0.3516  132.1
 6.000  0.6807   63.7   0.716  -22.1  0.5419    2.7  0.3679  132.1
!
!  f       NFmin   Gammaopt  rn/50
! GHz       dB    MAG  ANG    -
!
! noise parameter not available yet for this operation point!
!
! (c) 2015  Infineon Technologies AG, Munich
