! Infineon Technologies  Discrete & RF Semiconductors
! BFR35AP
! VCE =  2.5 V,  IC =  25 mA
! Common Emitter S-Parameters:                            Nov 2015
# GHz  S  MA  R  50
!  f         S11            S21            S12            S22
! GHz     MAG   ANG      MAG   ANG      MAG   ANG      MAG   ANG
 0.010  0.4424  -10.6  33.589  173.2  0.0024   84.2  0.9456   -3.6
 0.015  0.4385  -15.4  33.216  169.9  0.0035   83.0  0.9368   -5.6
 0.020  0.4376  -20.2  32.953  166.6  0.0047   82.4  0.9292   -7.7
 0.025  0.4258  -24.6  32.225  164.0  0.0058   79.7  0.9141   -9.2
 0.030  0.4167  -29.1  31.569  161.2  0.0068   77.8  0.8997  -10.8
 0.035  0.4103  -33.9  30.989  158.3  0.0079   76.4  0.8860  -12.4
 0.040  0.4068  -38.8  30.488  155.4  0.0090   75.4  0.8730  -14.0
 0.045  0.4063  -43.7  30.072  152.3  0.0101   74.6  0.8608  -15.7
 0.050  0.4088  -48.6  29.744  149.2  0.0112   73.9  0.8493  -17.5
 0.055  0.3960  -51.5  28.905  147.7  0.0120   72.8  0.8328  -18.2
 0.060  0.3844  -54.6  28.088  146.0  0.0127   71.9  0.8165  -18.9
 0.065  0.3739  -57.9  27.296  144.3  0.0135   71.0  0.8003  -19.7
 0.070  0.3647  -61.4  26.530  142.4  0.0143   70.2  0.7843  -20.5
 0.075  0.3570  -65.0  25.793  140.5  0.0150   69.6  0.7684  -21.3
 0.080  0.3507  -68.8  25.088  138.4  0.0158   69.0  0.7527  -22.1
 0.085  0.3460  -72.7  24.417  136.2  0.0166   68.4  0.7371  -23.0
 0.090  0.3430  -76.7  23.783  134.0  0.0173   67.9  0.7217  -23.9
 0.095  0.3416  -80.7  23.189  131.5  0.0181   67.4  0.7066  -24.9
 0.100  0.3420  -84.8  22.639  129.0  0.0189   67.0  0.6916  -25.9
 0.105  0.3362  -86.9  22.076  128.0  0.0195   66.9  0.6810  -26.1
 0.110  0.3309  -89.2  21.520  127.0  0.0200   66.8  0.6704  -26.3
 0.115  0.3261  -91.5  20.972  125.9  0.0206   66.7  0.6598  -26.5
 0.120  0.3218  -93.8  20.432  124.7  0.0212   66.6  0.6492  -26.7
 0.125  0.3181  -96.2  19.901  123.5  0.0217   66.5  0.6386  -26.9
 0.130  0.3149  -98.7  19.379  122.2  0.0223   66.5  0.6281  -27.1
 0.135  0.3124 -101.2  18.868  120.8  0.0229   66.4  0.6175  -27.4
 0.140  0.3104 -103.7  18.367  119.4  0.0235   66.3  0.6070  -27.6
 0.145  0.3091 -106.3  17.879  117.9  0.0240   66.3  0.5964  -27.8
 0.150  0.3084 -108.9  17.404  116.3  0.0246   66.2  0.5859  -28.1
 0.155  0.3055 -110.5  17.039  115.7  0.0251   66.2  0.5795  -28.1
 0.160  0.3029 -112.1  16.675  115.0  0.0256   66.2  0.5730  -28.0
 0.165  0.3004 -113.8  16.315  114.3  0.0261   66.2  0.5666  -28.0
 0.170  0.2983 -115.5  15.957  113.5  0.0266   66.2  0.5602  -28.0
 0.175  0.2964 -117.2  15.601  112.8  0.0271   66.3  0.5537  -28.0
 0.180  0.2948 -118.9  15.249  111.9  0.0277   66.3  0.5473  -27.9
 0.185  0.2935 -120.7  14.900  111.1  0.0282   66.3  0.5409  -27.9
 0.190  0.2924 -122.4  14.554  110.2  0.0287   66.3  0.5345  -27.9
 0.195  0.2916 -124.2  14.212  109.3  0.0292   66.3  0.5280  -27.8
 0.200  0.2911 -126.0  13.874  108.3  0.0297   66.3  0.5216  -27.8
 0.220  0.2846 -130.7  12.875  106.2  0.0317   67.0  0.5051  -27.4
 0.240  0.2801 -135.7  11.896  103.9  0.0337   67.7  0.4887  -27.0
 0.260  0.2776 -139.9  11.070  101.8  0.0358   68.2  0.4756  -26.6
 0.280  0.2762 -143.4  10.387  100.1  0.0379   68.6  0.4658  -26.3
 0.300  0.2758 -146.9   9.713   98.3  0.0401   68.9  0.4561  -26.0
 0.320  0.2726 -149.7   9.252   97.3  0.0421   69.3  0.4500  -25.7
 0.340  0.2701 -152.5   8.795   96.2  0.0441   69.6  0.4438  -25.5
 0.360  0.2682 -155.4   8.341   94.9  0.0460   69.9  0.4377  -25.2
 0.380  0.2671 -158.4   7.891   93.5  0.0480   70.2  0.4316  -24.9
 0.400  0.2666 -161.3   7.447   92.0  0.0500   70.5  0.4255  -24.6
 0.420  0.2668 -163.4   7.153   91.1  0.0522   70.7  0.4221  -24.5
 0.440  0.2673 -165.5   6.860   90.1  0.0543   70.9  0.4188  -24.3
 0.450  0.2677 -166.5   6.715   89.6  0.0554   71.0  0.4171  -24.3
 0.460  0.2682 -167.6   6.570   89.1  0.0565   71.1  0.4154  -24.2
 0.480  0.2694 -169.7   6.282   88.0  0.0586   71.2  0.4121  -24.0
 0.500  0.2710 -171.7   5.997   86.7  0.0608   71.4  0.4087  -23.9
 0.520  0.2707 -173.1   5.808   85.9  0.0630   71.4  0.4067  -23.9
 0.540  0.2705 -174.4   5.620   85.1  0.0652   71.4  0.4047  -24.0
 0.560  0.2705 -175.8   5.433   84.2  0.0674   71.3  0.4026  -24.0
 0.580  0.2706 -177.1   5.248   83.3  0.0696   71.3  0.4006  -24.1
 0.600  0.2709 -178.5   5.064   82.3  0.0718   71.3  0.3986  -24.1
 0.620  0.2707 -179.9   4.925   81.6  0.0739   71.3  0.3972  -24.2
 0.640  0.2707  178.7   4.788   80.8  0.0760   71.3  0.3958  -24.4
 0.660  0.2709  177.4   4.651   80.0  0.0782   71.3  0.3945  -24.5
 0.680  0.2712  176.0   4.515   79.2  0.0803   71.3  0.3931  -24.7
 0.700  0.2717  174.6   4.380   78.3  0.0824   71.3  0.3917  -24.8
 0.720  0.2729  173.4   4.271   77.7  0.0847   71.2  0.3903  -25.0
 0.740  0.2742  172.3   4.163   77.0  0.0869   71.0  0.3889  -25.1
 0.760  0.2756  171.1   4.055   76.3  0.0892   70.9  0.3876  -25.3
 0.780  0.2772  170.0   3.948   75.5  0.0914   70.8  0.3862  -25.4
 0.800  0.2788  168.9   3.842   74.7  0.0937   70.7  0.3848  -25.6
 0.820  0.2785  167.8   3.758   74.1  0.0959   70.5  0.3838  -25.8
 0.840  0.2782  166.6   3.675   73.4  0.0981   70.3  0.3829  -26.0
 0.860  0.2781  165.5   3.593   72.8  0.1002   70.1  0.3819  -26.3
 0.880  0.2781  164.3   3.511   72.0  0.1024   70.0  0.3809  -26.5
 0.900  0.2782  163.2   3.429   71.3  0.1046   69.8  0.3800  -26.7
 0.920  0.2796  162.2   3.366   70.7  0.1068   69.7  0.3793  -26.9
 0.940  0.2812  161.2   3.303   70.1  0.1089   69.6  0.3786  -27.2
 0.960  0.2828  160.2   3.240   69.5  0.1111   69.6  0.3779  -27.4
 0.980  0.2845  159.2   3.178   68.9  0.1132   69.5  0.3772  -27.7
 1.000  0.2863  158.2   3.116   68.2  0.1154   69.4  0.3765  -27.9
 1.020  0.2875  157.3   3.064   67.6  0.1175   69.2  0.3755  -28.3
 1.040  0.2887  156.5   3.012   67.1  0.1197   69.1  0.3746  -28.6
 1.060  0.2900  155.6   2.960   66.5  0.1218   69.0  0.3736  -29.0
 1.080  0.2914  154.7   2.909   65.8  0.1240   68.8  0.3727  -29.3
 1.100  0.2928  153.9   2.858   65.2  0.1261   68.7  0.3718  -29.7
 1.120  0.2940  153.0   2.814   64.6  0.1284   68.5  0.3708  -30.0
 1.140  0.2952  152.2   2.771   64.0  0.1306   68.3  0.3698  -30.3
 1.160  0.2966  151.3   2.728   63.4  0.1329   68.1  0.3688  -30.5
 1.180  0.2979  150.4   2.685   62.8  0.1351   67.9  0.3679  -30.8
 1.200  0.2994  149.6   2.643   62.1  0.1374   67.7  0.3669  -31.1
 1.220  0.3000  148.9   2.603   61.6  0.1395   67.4  0.3661  -31.4
 1.240  0.3007  148.1   2.563   61.0  0.1416   67.2  0.3654  -31.7
 1.260  0.3015  147.4   2.524   60.5  0.1436   67.0  0.3646  -32.1
 1.280  0.3023  146.6   2.485   59.9  0.1457   66.7  0.3639  -32.4
 1.300  0.3031  145.9   2.446   59.3  0.1478   66.5  0.3632  -32.7
 1.320  0.3047  145.1   2.415   58.8  0.1499   66.3  0.3624  -33.1
 1.340  0.3064  144.3   2.383   58.3  0.1521   66.1  0.3616  -33.5
 1.360  0.3082  143.5   2.352   57.8  0.1542   65.9  0.3608  -33.8
 1.380  0.3100  142.7   2.322   57.3  0.1564   65.8  0.3600  -34.2
 1.400  0.3119  141.9   2.291   56.8  0.1585   65.6  0.3593  -34.6
 1.420  0.3128  141.2   2.265   56.3  0.1607   65.4  0.3584  -35.0
 1.440  0.3138  140.6   2.240   55.7  0.1628   65.1  0.3575  -35.4
 1.460  0.3148  139.9   2.214   55.2  0.1650   64.9  0.3567  -35.8
 1.480  0.3159  139.3   2.189   54.6  0.1671   64.7  0.3558  -36.2
 1.500  0.3170  138.6   2.164   54.0  0.1693   64.5  0.3550  -36.6
 1.520  0.3196  138.0   2.137   53.4  0.1714   64.3  0.3537  -37.0
 1.540  0.3223  137.4   2.110   52.8  0.1735   64.0  0.3524  -37.4
 1.560  0.3250  136.8   2.084   52.2  0.1757   63.8  0.3511  -37.7
 1.580  0.3277  136.2   2.057   51.6  0.1778   63.6  0.3498  -38.1
 1.600  0.3305  135.6   2.031   51.0  0.1799   63.4  0.3485  -38.5
 1.620  0.3323  134.8   2.010   50.5  0.1821   63.2  0.3475  -38.9
 1.640  0.3341  134.1   1.990   50.0  0.1842   63.0  0.3466  -39.3
 1.660  0.3360  133.4   1.970   49.5  0.1864   62.8  0.3457  -39.6
 1.680  0.3379  132.6   1.950   48.9  0.1885   62.6  0.3448  -40.0
 1.700  0.3399  131.9   1.930   48.4  0.1907   62.4  0.3439  -40.4
 1.720  0.3415  131.3   1.912   48.0  0.1929   62.1  0.3431  -40.9
 1.740  0.3431  130.7   1.894   47.5  0.1950   61.9  0.3423  -41.4
 1.760  0.3447  130.1   1.877   47.0  0.1972   61.6  0.3416  -41.8
 1.780  0.3464  129.6   1.859   46.6  0.1994   61.3  0.3409  -42.3
 1.800  0.3481  129.0   1.842   46.1  0.2016   61.1  0.3402  -42.8
 1.820  0.3500  128.4   1.826   45.6  0.2037   60.9  0.3389  -43.3
 1.840  0.3519  127.9   1.810   45.0  0.2059   60.7  0.3376  -43.7
 1.860  0.3538  127.4   1.794   44.5  0.2080   60.5  0.3364  -44.2
 1.880  0.3558  126.8   1.778   44.0  0.2102   60.3  0.3351  -44.6
 1.900  0.3578  126.3   1.762   43.4  0.2123   60.1  0.3339  -45.1
 1.920  0.3593  125.7   1.746   42.9  0.2145   59.8  0.3323  -45.6
 1.940  0.3609  125.2   1.729   42.5  0.2166   59.6  0.3307  -46.0
 1.960  0.3624  124.6   1.713   42.0  0.2188   59.3  0.3292  -46.5
 1.980  0.3641  124.1   1.697   41.5  0.2209   59.0  0.3276  -46.9
 2.000  0.3657  123.5   1.681   41.0  0.2231   58.8  0.3261  -47.4
 2.020  0.3672  123.0   1.668   40.6  0.2252   58.5  0.3247  -47.9
 2.040  0.3688  122.4   1.655   40.1  0.2273   58.3  0.3233  -48.3
 2.060  0.3704  121.9   1.642   39.6  0.2295   58.0  0.3219  -48.8
 2.080  0.3720  121.4   1.629   39.2  0.2316   57.8  0.3205  -49.3
 2.100  0.3737  120.9   1.617   38.7  0.2337   57.5  0.3192  -49.8
 2.120  0.3754  120.4   1.604   38.2  0.2359   57.3  0.3179  -50.3
 2.140  0.3771  119.9   1.592   37.7  0.2380   57.1  0.3166  -50.8
 2.160  0.3788  119.4   1.579   37.2  0.2402   56.8  0.3154  -51.3
 2.180  0.3806  118.9   1.567   36.7  0.2423   56.6  0.3141  -51.8
 2.200  0.3824  118.4   1.555   36.2  0.2445   56.4  0.3129  -52.3
 2.220  0.3846  117.9   1.545   35.7  0.2466   56.1  0.3111  -52.8
 2.240  0.3869  117.3   1.535   35.3  0.2487   55.9  0.3094  -53.4
 2.260  0.3892  116.8   1.524   34.8  0.2508   55.6  0.3077  -53.9
 2.280  0.3916  116.2   1.514   34.3  0.2530   55.4  0.3060  -54.4
 2.300  0.3939  115.7   1.505   33.8  0.2551   55.1  0.3043  -55.0
 2.320  0.3964  115.2   1.495   33.3  0.2572   54.9  0.3027  -55.5
 2.340  0.3988  114.7   1.485   32.8  0.2594   54.7  0.3011  -56.1
 2.360  0.4013  114.2   1.476   32.3  0.2615   54.4  0.2996  -56.7
 2.380  0.4038  113.7   1.466   31.8  0.2637   54.2  0.2980  -57.2
 2.400  0.4063  113.2   1.457   31.3  0.2658   54.0  0.2965  -57.8
 2.420  0.4083  112.7   1.447   30.9  0.2679   53.7  0.2948  -58.4
 2.440  0.4103  112.3   1.438   30.5  0.2699   53.4  0.2931  -58.9
 2.460  0.4124  111.8   1.428   30.1  0.2720   53.2  0.2914  -59.5
 2.480  0.4144  111.4   1.418   29.7  0.2741   52.9  0.2897  -60.1
 2.500  0.4165  110.9   1.409   29.3  0.2762   52.7  0.2881  -60.7
 2.520  0.4187  110.5   1.400   28.8  0.2783   52.4  0.2865  -61.3
 2.540  0.4208  110.1   1.390   28.4  0.2804   52.1  0.2850  -61.9
 2.560  0.4230  109.6   1.381   28.0  0.2825   51.9  0.2834  -62.5
 2.580  0.4252  109.2   1.372   27.5  0.2846   51.6  0.2820  -63.2
 2.600  0.4274  108.8   1.363   27.1  0.2867   51.4  0.2805  -63.8
 2.620  0.4295  108.4   1.355   26.7  0.2888   51.1  0.2784  -64.4
 2.640  0.4316  107.9   1.348   26.3  0.2909   50.8  0.2764  -65.1
 2.660  0.4338  107.5   1.340   25.9  0.2930   50.5  0.2744  -65.8
 2.680  0.4359  107.0   1.333   25.5  0.2951   50.3  0.2724  -66.4
 2.700  0.4381  106.6   1.325   25.1  0.2972   50.0  0.2705  -67.1
 2.720  0.4404  106.2   1.318   24.6  0.2993   49.7  0.2686  -67.8
 2.740  0.4426  105.7   1.310   24.2  0.3014   49.5  0.2668  -68.5
 2.760  0.4449  105.3   1.303   23.8  0.3035   49.2  0.2650  -69.2
 2.780  0.4472  104.9   1.296   23.3  0.3057   49.0  0.2632  -70.0
 2.800  0.4495  104.5   1.289   22.9  0.3078   48.7  0.2615  -70.7
 2.820  0.4515  104.1   1.281   22.5  0.3098   48.4  0.2596  -71.4
 2.840  0.4536  103.8   1.274   22.1  0.3119   48.1  0.2578  -72.2
 2.860  0.4556  103.4   1.266   21.7  0.3139   47.8  0.2561  -72.9
 2.880  0.4577  103.1   1.259   21.2  0.3160   47.5  0.2543  -73.7
 2.900  0.4598  102.8   1.252   20.8  0.3181   47.3  0.2527  -74.5
 2.920  0.4619  102.4   1.244   20.4  0.3201   47.0  0.2510  -75.3
 2.940  0.4640  102.1   1.237   19.9  0.3222   46.7  0.2495  -76.1
 2.960  0.4662  101.8   1.230   19.5  0.3243   46.4  0.2479  -76.9
 2.980  0.4683  101.4   1.223   19.1  0.3264   46.2  0.2464  -77.7
 3.000  0.4705  101.1   1.216   18.6  0.3285   45.9  0.2450  -78.5
 3.100  0.4813   99.3   1.184   16.9  0.3376   44.4  0.2335  -82.9
 3.200  0.4926   97.5   1.154   15.1  0.3469   42.9  0.2234  -87.6
 3.300  0.5043   95.8   1.125   13.2  0.3564   41.5  0.2151  -92.8
 3.400  0.5165   94.2   1.097   11.2  0.3661   40.2  0.2086  -98.4
 3.500  0.5290   92.7   1.070    9.1  0.3760   39.0  0.2042 -104.2
 3.600  0.5376   91.1   1.048    7.6  0.3846   37.5  0.1966 -110.4
 3.700  0.5466   89.6   1.026    6.0  0.3935   36.0  0.1915 -117.0
 3.800  0.5560   88.1   1.005    4.3  0.4026   34.6  0.1891 -123.9
 3.900  0.5658   86.7   0.985    2.6  0.4119   33.3  0.1894 -130.9
 4.000  0.5759   85.3   0.966    0.8  0.4215   32.0  0.1925 -137.7
 4.100  0.5839   83.9   0.947   -0.5  0.4294   30.4  0.1918 -144.5
 4.200  0.5921   82.6   0.929   -1.9  0.4375   28.9  0.1939 -151.3
 4.300  0.6007   81.3   0.911   -3.4  0.4460   27.5  0.1985 -157.8
 4.400  0.6096   80.1   0.894   -4.8  0.4547   26.0  0.2056 -163.9
 4.500  0.6187   78.9   0.877   -6.4  0.4637   24.7  0.2149 -169.6
 4.600  0.6247   77.7   0.861   -7.6  0.4698   23.2  0.2199 -175.3
 4.700  0.6309   76.6   0.846   -8.9  0.4762   21.7  0.2269  179.3
 4.800  0.6374   75.5   0.831  -10.2  0.4830   20.2  0.2357  174.3
 4.900  0.6441   74.4   0.817  -11.6  0.4900   18.8  0.2463  169.7
 5.000  0.6511   73.3   0.803  -13.0  0.4974   17.4  0.2583  165.5
 5.100  0.6574   72.2   0.784  -14.0  0.4990   15.8  0.2590  160.7
 5.200  0.6640   71.0   0.766  -15.1  0.5010   14.2  0.2614  155.9
 5.300  0.6709   69.9   0.748  -16.2  0.5034   12.6  0.2656  151.3
 5.400  0.6780   68.9   0.730  -17.4  0.5062   11.0  0.2715  146.8
 5.500  0.6853   67.8   0.712  -18.6  0.5094    9.4  0.2790  142.6
 5.600  0.6840   66.8   0.708  -19.0  0.5175    8.5  0.2964  142.0
 5.700  0.6830   65.8   0.704  -19.3  0.5258    7.6  0.3138  141.5
 5.800  0.6821   64.9   0.701  -19.7  0.5341    6.8  0.3313  141.0
 5.900  0.6815   63.9   0.697  -20.0  0.5426    6.0  0.3487  140.6
 6.000  0.6810   62.9   0.693  -20.4  0.5512    5.2  0.3662  140.2
!
!  f       NFmin   Gammaopt  rn/50
! GHz       dB    MAG  ANG    -
!
! noise parameter not available yet for this operation point!
!
! (c) 2015  Infineon Technologies AG, Munich
