! Infineon Technologies  Discrete & RF Semiconductors
! BFR35AP
! VCE =  10. V,  IC =  6.0 mA
! Common Emitter S-Parameters:                            Nov 2015
# GHz  S  MA  R  50
!  f         S11            S21            S12            S22
! GHz     MAG   ANG      MAG   ANG      MAG   ANG      MAG   ANG
 0.010  0.8423   -3.1  15.739  176.8  0.0021   91.2  0.9925   -1.3
 0.015  0.8396   -4.7  15.585  175.4  0.0031   88.5  0.9856   -2.0
 0.020  0.8375   -6.3  15.441  174.0  0.0042   87.1  0.9789   -2.7
 0.025  0.8343   -7.8  15.402  172.7  0.0053   84.3  0.9777   -3.4
 0.030  0.8316   -9.4  15.371  171.4  0.0064   82.5  0.9767   -4.0
 0.035  0.8296  -11.0  15.348  170.1  0.0075   81.2  0.9758   -4.7
 0.040  0.8282  -12.5  15.333  168.8  0.0086   80.2  0.9750   -5.4
 0.045  0.8274  -14.1  15.325  167.5  0.0097   79.5  0.9743   -6.0
 0.050  0.8273  -15.7  15.326  166.2  0.0108   78.9  0.9738   -6.7
 0.055  0.8186  -17.1  15.211  165.0  0.0118   78.2  0.9687   -7.3
 0.060  0.8103  -18.5  15.101  163.8  0.0128   77.7  0.9638   -7.9
 0.065  0.8025  -19.9  14.999  162.6  0.0138   77.2  0.9589   -8.4
 0.070  0.7953  -21.3  14.903  161.4  0.0148   76.8  0.9541   -9.0
 0.075  0.7885  -22.8  14.814  160.2  0.0158   76.5  0.9494   -9.6
 0.080  0.7823  -24.3  14.733  158.9  0.0168   76.2  0.9449  -10.2
 0.085  0.7766  -25.8  14.658  157.7  0.0178   75.9  0.9404  -10.8
 0.090  0.7715  -27.4  14.590  156.4  0.0188   75.6  0.9361  -11.5
 0.095  0.7670  -28.9  14.530  155.1  0.0198   75.4  0.9318  -12.1
 0.100  0.7630  -30.5  14.477  153.8  0.0208   75.2  0.9277  -12.7
 0.105  0.7547  -31.7  14.313  152.7  0.0216   74.4  0.9220  -13.1
 0.110  0.7467  -32.8  14.154  151.7  0.0225   73.6  0.9163  -13.5
 0.115  0.7390  -34.1  14.000  150.6  0.0233   72.9  0.9106  -14.0
 0.120  0.7317  -35.3  13.851  149.4  0.0242   72.2  0.9050  -14.4
 0.125  0.7247  -36.6  13.708  148.3  0.0250   71.6  0.8995  -14.8
 0.130  0.7181  -37.8  13.570  147.1  0.0259   71.0  0.8940  -15.3
 0.135  0.7118  -39.1  13.438  145.9  0.0267   70.4  0.8886  -15.7
 0.140  0.7059  -40.5  13.312  144.7  0.0276   69.9  0.8832  -16.2
 0.145  0.7004  -41.8  13.192  143.5  0.0284   69.5  0.8779  -16.6
 0.150  0.6953  -43.2  13.079  142.2  0.0293   69.0  0.8726  -17.1
 0.155  0.6871  -44.2  12.950  141.4  0.0299   68.6  0.8667  -17.4
 0.160  0.6792  -45.3  12.823  140.5  0.0305   68.2  0.8608  -17.7
 0.165  0.6715  -46.4  12.700  139.6  0.0311   67.8  0.8549  -18.0
 0.170  0.6641  -47.5  12.579  138.8  0.0317   67.5  0.8490  -18.3
 0.175  0.6569  -48.6  12.462  137.9  0.0323   67.1  0.8432  -18.5
 0.180  0.6500  -49.7  12.347  136.9  0.0329   66.8  0.8374  -18.9
 0.185  0.6433  -50.9  12.236  136.0  0.0335   66.5  0.8316  -19.2
 0.190  0.6369  -52.1  12.128  135.1  0.0341   66.2  0.8259  -19.5
 0.195  0.6308  -53.4  12.024  134.1  0.0347   65.9  0.8201  -19.8
 0.200  0.6250  -54.6  11.923  133.1  0.0353   65.6  0.8144  -20.1
 0.220  0.5959  -58.3  11.392  130.2  0.0376   64.1  0.7934  -20.9
 0.240  0.5695  -62.3  10.893  127.1  0.0398   62.7  0.7725  -21.7
 0.260  0.5450  -65.9  10.419  124.3  0.0420   61.9  0.7540  -22.3
 0.280  0.5213  -69.0   9.958  121.9  0.0440   61.5  0.7378  -22.8
 0.300  0.4993  -72.4   9.516  119.3  0.0460   61.1  0.7217  -23.3
 0.320  0.4786  -74.9   9.165  117.7  0.0477   60.8  0.7093  -23.5
 0.340  0.4589  -77.6   8.821  115.9  0.0494   60.4  0.6969  -23.7
 0.360  0.4404  -80.5   8.487  114.0  0.0510   60.1  0.6846  -23.9
 0.380  0.4231  -83.7   8.162  112.0  0.0527   59.9  0.6722  -24.2
 0.400  0.4072  -87.2   7.849  109.8  0.0544   59.6  0.6599  -24.4
 0.420  0.3922  -89.4   7.577  108.4  0.0558   59.6  0.6510  -24.5
 0.440  0.3778  -91.7   7.309  106.9  0.0571   59.6  0.6421  -24.5
 0.450  0.3709  -93.0   7.178  106.1  0.0578   59.6  0.6377  -24.5
 0.460  0.3641  -94.3   7.047  105.3  0.0585   59.6  0.6333  -24.6
 0.480  0.3512  -97.0   6.791  103.6  0.0598   59.6  0.6244  -24.6
 0.500  0.3391  -99.9   6.542  101.7  0.0612   59.6  0.6155  -24.7
 0.520  0.3295 -101.9   6.355  100.7  0.0627   59.7  0.6102  -24.7
 0.540  0.3203 -103.9   6.170   99.6  0.0642   59.8  0.6048  -24.8
 0.560  0.3115 -106.1   5.988   98.4  0.0658   59.9  0.5995  -24.8
 0.580  0.3033 -108.5   5.808   97.2  0.0673   60.0  0.5941  -24.9
 0.600  0.2955 -110.9   5.631   95.9  0.0688   60.1  0.5888  -24.9
 0.620  0.2881 -112.8   5.488   94.9  0.0703   60.2  0.5853  -25.0
 0.640  0.2811 -114.8   5.347   93.9  0.0717   60.3  0.5818  -25.1
 0.660  0.2744 -117.0   5.207   92.9  0.0732   60.4  0.5784  -25.1
 0.680  0.2682 -119.2   5.070   91.8  0.0746   60.5  0.5749  -25.2
 0.700  0.2623 -121.5   4.934   90.6  0.0761   60.6  0.5714  -25.3
 0.720  0.2576 -123.4   4.818   89.7  0.0776   60.6  0.5685  -25.4
 0.740  0.2531 -125.3   4.704   88.9  0.0792   60.6  0.5656  -25.4
 0.760  0.2490 -127.3   4.591   87.9  0.0807   60.5  0.5627  -25.5
 0.780  0.2452 -129.4   4.479   86.9  0.0823   60.5  0.5598  -25.5
 0.800  0.2417 -131.5   4.368   85.9  0.0838   60.5  0.5569  -25.6
 0.820  0.2354 -133.4   4.281   85.1  0.0854   60.6  0.5545  -25.7
 0.840  0.2294 -135.3   4.195   84.3  0.0870   60.8  0.5521  -25.8
 0.860  0.2237 -137.4   4.109   83.5  0.0885   60.9  0.5498  -25.9
 0.880  0.2183 -139.6   4.025   82.6  0.0901   61.0  0.5474  -26.0
 0.900  0.2132 -141.9   3.941   81.7  0.0917   61.1  0.5450  -26.1
 0.920  0.2108 -143.8   3.871   81.0  0.0932   61.2  0.5433  -26.2
 0.940  0.2087 -145.7   3.801   80.3  0.0947   61.4  0.5416  -26.3
 0.960  0.2068 -147.6   3.732   79.6  0.0961   61.5  0.5398  -26.5
 0.980  0.2051 -149.6   3.664   78.8  0.0976   61.6  0.5381  -26.6
 1.000  0.2037 -151.6   3.596   78.0  0.0991   61.7  0.5364  -26.7
 1.020  0.2024 -153.5   3.538   77.4  0.1007   61.7  0.5349  -26.9
 1.040  0.2012 -155.4   3.481   76.7  0.1023   61.7  0.5334  -27.1
 1.060  0.2004 -157.4   3.424   76.0  0.1040   61.8  0.5319  -27.4
 1.080  0.1997 -159.3   3.367   75.3  0.1056   61.8  0.5304  -27.6
 1.100  0.1993 -161.3   3.311   74.6  0.1072   61.8  0.5289  -27.8
 1.120  0.1974 -163.2   3.260   73.9  0.1087   61.8  0.5277  -28.0
 1.140  0.1958 -165.1   3.209   73.3  0.1103   61.8  0.5264  -28.1
 1.160  0.1944 -167.1   3.158   72.6  0.1118   61.9  0.5252  -28.3
 1.180  0.1932 -169.1   3.108   71.8  0.1134   61.9  0.5239  -28.4
 1.200  0.1923 -171.1   3.059   71.1  0.1149   61.9  0.5227  -28.6
 1.220  0.1917 -172.6   3.014   70.6  0.1166   61.9  0.5216  -28.8
 1.240  0.1912 -174.0   2.969   70.0  0.1183   61.8  0.5205  -29.0
 1.260  0.1909 -175.5   2.924   69.4  0.1199   61.8  0.5194  -29.3
 1.280  0.1907 -177.0   2.880   68.8  0.1216   61.7  0.5184  -29.5
 1.300  0.1906 -178.5   2.836   68.2  0.1233   61.7  0.5173  -29.7
 1.320  0.1909  179.8   2.799   67.6  0.1248   61.7  0.5166  -29.9
 1.340  0.1914  178.2   2.762   67.0  0.1263   61.6  0.5159  -30.1
 1.360  0.1920  176.5   2.725   66.4  0.1278   61.6  0.5152  -30.4
 1.380  0.1928  174.9   2.688   65.8  0.1293   61.5  0.5145  -30.6
 1.400  0.1937  173.3   2.652   65.2  0.1308   61.5  0.5138  -30.8
 1.420  0.1939  172.2   2.622   64.7  0.1325   61.4  0.5128  -31.0
 1.440  0.1943  171.0   2.592   64.1  0.1342   61.4  0.5118  -31.3
 1.460  0.1947  169.9   2.563   63.6  0.1358   61.3  0.5108  -31.5
 1.480  0.1951  168.7   2.534   63.0  0.1375   61.3  0.5099  -31.8
 1.500  0.1957  167.6   2.505   62.4  0.1392   61.2  0.5089  -32.0
 1.520  0.1970  165.9   2.474   61.8  0.1409   61.1  0.5078  -32.3
 1.540  0.1984  164.3   2.444   61.2  0.1426   61.0  0.5068  -32.6
 1.560  0.2000  162.7   2.414   60.6  0.1442   61.0  0.5057  -32.8
 1.580  0.2018  161.1   2.384   60.0  0.1459   60.9  0.5047  -33.1
 1.600  0.2037  159.5   2.355   59.3  0.1476   60.8  0.5037  -33.4
 1.620  0.2044  158.2   2.332   58.8  0.1493   60.8  0.5027  -33.7
 1.640  0.2052  156.9   2.309   58.3  0.1510   60.7  0.5017  -33.9
 1.660  0.2062  155.7   2.286   57.7  0.1526   60.7  0.5007  -34.2
 1.680  0.2072  154.4   2.263   57.2  0.1543   60.6  0.4998  -34.4
 1.700  0.2083  153.2   2.241   56.6  0.1560   60.6  0.4988  -34.7
 1.720  0.2097  152.1   2.221   56.1  0.1577   60.5  0.4980  -35.0
 1.740  0.2111  151.0   2.201   55.6  0.1594   60.4  0.4971  -35.3
 1.760  0.2126  149.9   2.181   55.1  0.1611   60.3  0.4963  -35.6
 1.780  0.2142  148.8   2.161   54.6  0.1628   60.2  0.4955  -35.9
 1.800  0.2159  147.7   2.142   54.1  0.1645   60.1  0.4947  -36.2
 1.820  0.2177  146.8   2.124   53.6  0.1663   60.0  0.4937  -36.5
 1.840  0.2196  145.9   2.106   53.0  0.1680   59.9  0.4927  -36.8
 1.860  0.2216  145.0   2.089   52.5  0.1698   59.9  0.4918  -37.2
 1.880  0.2236  144.1   2.071   52.0  0.1715   59.8  0.4908  -37.5
 1.900  0.2256  143.3   2.054   51.4  0.1733   59.7  0.4899  -37.8
 1.920  0.2271  142.4   2.034   50.9  0.1751   59.6  0.4887  -38.1
 1.940  0.2287  141.4   2.015   50.4  0.1768   59.5  0.4875  -38.4
 1.960  0.2303  140.5   1.996   49.9  0.1786   59.3  0.4863  -38.7
 1.980  0.2320  139.6   1.977   49.4  0.1803   59.2  0.4851  -39.0
 2.000  0.2337  138.7   1.958   48.9  0.1821   59.1  0.4839  -39.3
 2.020  0.2355  137.9   1.942   48.4  0.1838   58.9  0.4829  -39.6
 2.040  0.2373  137.1   1.927   47.9  0.1856   58.8  0.4818  -40.0
 2.060  0.2392  136.3   1.912   47.5  0.1873   58.7  0.4808  -40.3
 2.080  0.2411  135.5   1.897   47.0  0.1891   58.5  0.4799  -40.6
 2.100  0.2431  134.7   1.882   46.5  0.1908   58.4  0.4789  -41.0
 2.120  0.2451  134.0   1.867   45.9  0.1926   58.2  0.4779  -41.3
 2.140  0.2471  133.3   1.852   45.4  0.1943   58.1  0.4770  -41.7
 2.160  0.2492  132.5   1.838   44.9  0.1961   58.0  0.4761  -42.0
 2.180  0.2513  131.8   1.823   44.3  0.1978   57.8  0.4752  -42.4
 2.200  0.2535  131.1   1.809   43.8  0.1996   57.7  0.4743  -42.7
 2.220  0.2556  130.3   1.797   43.3  0.2014   57.6  0.4728  -43.1
 2.240  0.2578  129.5   1.785   42.9  0.2032   57.4  0.4714  -43.4
 2.260  0.2601  128.7   1.773   42.4  0.2050   57.3  0.4699  -43.8
 2.280  0.2624  127.9   1.762   41.9  0.2069   57.2  0.4685  -44.2
 2.300  0.2647  127.2   1.750   41.4  0.2087   57.0  0.4671  -44.5
 2.320  0.2671  126.4   1.739   40.9  0.2105   56.9  0.4657  -44.9
 2.340  0.2695  125.7   1.728   40.4  0.2123   56.8  0.4644  -45.3
 2.360  0.2719  125.0   1.717   39.9  0.2142   56.6  0.4630  -45.6
 2.380  0.2745  124.3   1.706   39.4  0.2160   56.5  0.4617  -46.0
 2.400  0.2770  123.6   1.695   38.9  0.2178   56.4  0.4604  -46.4
 2.420  0.2798  123.0   1.684   38.5  0.2196   56.2  0.4591  -46.8
 2.440  0.2826  122.4   1.674   38.0  0.2214   56.1  0.4578  -47.2
 2.460  0.2855  121.8   1.663   37.6  0.2232   55.9  0.4566  -47.5
 2.480  0.2884  121.3   1.653   37.2  0.2249   55.7  0.4553  -47.9
 2.500  0.2913  120.7   1.642   36.7  0.2267   55.6  0.4541  -48.3
 2.520  0.2942  120.2   1.632   36.3  0.2285   55.4  0.4529  -48.7
 2.540  0.2972  119.6   1.622   35.8  0.2303   55.3  0.4518  -49.1
 2.560  0.3002  119.1   1.612   35.3  0.2321   55.1  0.4506  -49.5
 2.580  0.3032  118.6   1.602   34.9  0.2339   54.9  0.4495  -49.9
 2.600  0.3062  118.1   1.592   34.4  0.2357   54.8  0.4484  -50.3
 2.620  0.3082  117.5   1.583   34.0  0.2376   54.6  0.4467  -50.7
 2.640  0.3102  116.9   1.574   33.6  0.2395   54.4  0.4449  -51.1
 2.660  0.3122  116.3   1.566   33.2  0.2414   54.3  0.4433  -51.6
 2.680  0.3143  115.8   1.557   32.8  0.2433   54.1  0.4416  -52.0
 2.700  0.3164  115.2   1.548   32.4  0.2452   53.9  0.4399  -52.4
 2.720  0.3185  114.7   1.540   31.9  0.2471   53.7  0.4383  -52.8
 2.740  0.3207  114.1   1.532   31.5  0.2490   53.6  0.4367  -53.3
 2.760  0.3228  113.6   1.523   31.1  0.2509   53.4  0.4352  -53.7
 2.780  0.3251  113.0   1.515   30.6  0.2528   53.3  0.4336  -54.2
 2.800  0.3273  112.5   1.507   30.2  0.2547   53.1  0.4321  -54.6
 2.820  0.3297  112.1   1.498   29.8  0.2566   52.9  0.4306  -55.1
 2.840  0.3321  111.6   1.490   29.3  0.2585   52.7  0.4291  -55.6
 2.860  0.3346  111.2   1.481   28.9  0.2604   52.5  0.4277  -56.0
 2.880  0.3370  110.8   1.473   28.4  0.2623   52.3  0.4263  -56.5
 2.900  0.3395  110.4   1.464   28.0  0.2642   52.1  0.4249  -57.0
 2.920  0.3420  110.0   1.456   27.5  0.2661   51.9  0.4236  -57.5
 2.940  0.3446  109.6   1.448   27.0  0.2680   51.7  0.4223  -58.0
 2.960  0.3471  109.2   1.440   26.6  0.2699   51.6  0.4210  -58.5
 2.980  0.3496  108.8   1.432   26.1  0.2718   51.4  0.4197  -59.0
 3.000  0.3522  108.4   1.424   25.6  0.2737   51.2  0.4185  -59.5
 3.100  0.3656  106.3   1.388   23.8  0.2828   50.0  0.4081  -62.1
 3.200  0.3795  104.4   1.353   21.8  0.2920   48.9  0.3985  -64.8
 3.300  0.3937  102.6   1.319   19.8  0.3013   47.9  0.3900  -67.7
 3.400  0.4084  100.9   1.288   17.6  0.3106   46.9  0.3824  -70.7
 3.500  0.4233   99.4   1.258   15.4  0.3201   46.0  0.3759  -73.8
 3.600  0.4346   97.7   1.232   13.7  0.3297   44.8  0.3652  -77.3
 3.700  0.4462   96.1   1.207   11.9  0.3394   43.7  0.3560  -80.9
 3.800  0.4582   94.5   1.183   10.0  0.3492   42.6  0.3482  -84.7
 3.900  0.4705   93.1   1.160    8.1  0.3592   41.6  0.3421  -88.7
 4.000  0.4831   91.7   1.139    6.1  0.3692   40.7  0.3377  -92.8
 4.100  0.4938   90.4   1.117    4.5  0.3788   39.3  0.3279  -97.0
 4.200  0.5048   89.1   1.096    2.9  0.3887   37.9  0.3199 -101.4
 4.300  0.5160   87.9   1.076    1.2  0.3987   36.7  0.3139 -105.9
 4.400  0.5275   86.8   1.056   -0.6  0.4090   35.5  0.3100 -110.7
 4.500  0.5391   85.7   1.038   -2.4  0.4194   34.3  0.3082 -115.5
 4.600  0.5477   84.4   1.018   -3.9  0.4280   32.8  0.3021 -120.3
 4.700  0.5566   83.2   1.000   -5.4  0.4369   31.3  0.2983 -125.3
 4.800  0.5657   82.0   0.982   -7.0  0.4461   29.9  0.2968 -130.4
 4.900  0.5750   80.8   0.964   -8.7  0.4556   28.5  0.2976 -135.5
 5.000  0.5846   79.7   0.948  -10.4  0.4653   27.2  0.3007 -140.5
 5.100  0.5936   78.4   0.923  -11.8  0.4694   25.5  0.2908 -145.2
 5.200  0.6029   77.1   0.898  -13.2  0.4739   23.8  0.2830 -150.2
 5.300  0.6125   75.8   0.874  -14.7  0.4788   22.2  0.2774 -155.4
 5.400  0.6223   74.6   0.850  -16.3  0.4841   20.6  0.2742 -160.7
 5.500  0.6325   73.4   0.827  -18.0  0.4898   19.0  0.2735 -166.2
 5.600  0.6339   72.2   0.818  -18.5  0.5000   18.1  0.2902 -169.7
 5.700  0.6355   71.1   0.810  -19.1  0.5103   17.2  0.3078 -172.9
 5.800  0.6374   69.9   0.802  -19.6  0.5207   16.4  0.3263 -175.7
 5.900  0.6395   68.7   0.793  -20.2  0.5313   15.6  0.3455 -178.2
 6.000  0.6419   67.6   0.785  -20.8  0.5419   14.8  0.3653  179.6
!
!  f       NFmin   Gammaopt  rn/50
! GHz       dB    MAG  ANG    -
!
! noise parameter not available yet for this operation point!
!
! (c) 2015  Infineon Technologies AG, Munich
