! Infineon Technologies  Discrete & RF Semiconductors
! BFR35AP
! VCE =  1.5 V,  IC =  6.0 mA
! Common Emitter S-Parameters:                            Nov 2015
# GHz  S  MA  R  50
!  f         S11            S21            S12            S22
! GHz     MAG   ANG      MAG   ANG      MAG   ANG      MAG   ANG
 0.010  0.7807   -4.6  16.341  176.7  0.0032   87.8  0.9846   -2.2
 0.015  0.7770   -6.7  16.195  174.9  0.0050   87.2  0.9787   -3.3
 0.020  0.7743   -8.9  16.065  173.1  0.0068   86.9  0.9731   -4.5
 0.025  0.7695  -10.9  15.993  171.5  0.0084   84.4  0.9691   -5.6
 0.030  0.7656  -13.0  15.934  169.9  0.0101   82.6  0.9654   -6.7
 0.035  0.7628  -15.1  15.888  168.2  0.0118   81.4  0.9622   -7.8
 0.040  0.7610  -17.2  15.855  166.6  0.0134   80.5  0.9592   -8.9
 0.045  0.7602  -19.3  15.835  164.9  0.0151   79.8  0.9567  -10.1
 0.050  0.7604  -21.4  15.828  163.3  0.0168   79.2  0.9545  -11.2
 0.055  0.7493  -23.2  15.656  161.9  0.0182   77.7  0.9457  -12.1
 0.060  0.7389  -25.1  15.493  160.6  0.0196   76.5  0.9370  -12.9
 0.065  0.7294  -27.0  15.339  159.1  0.0210   75.4  0.9286  -13.8
 0.070  0.7207  -28.9  15.194  157.7  0.0224   74.4  0.9204  -14.7
 0.075  0.7128  -30.9  15.060  156.2  0.0238   73.6  0.9125  -15.7
 0.080  0.7059  -33.0  14.935  154.7  0.0252   72.8  0.9048  -16.6
 0.085  0.6998  -35.1  14.821  153.2  0.0266   72.1  0.8973  -17.5
 0.090  0.6947  -37.2  14.718  151.6  0.0280   71.5  0.8901  -18.5
 0.095  0.6906  -39.3  14.625  150.1  0.0295   71.0  0.8832  -19.5
 0.100  0.6874  -41.5  14.544  148.5  0.0309   70.5  0.8765  -20.5
 0.105  0.6778  -43.0  14.332  147.4  0.0320   69.6  0.8673  -21.1
 0.110  0.6687  -44.5  14.126  146.3  0.0330   68.7  0.8582  -21.7
 0.115  0.6601  -46.1  13.926  145.1  0.0341   67.9  0.8491  -22.4
 0.120  0.6520  -47.8  13.732  143.9  0.0352   67.2  0.8402  -23.0
 0.125  0.6444  -49.4  13.544  142.6  0.0363   66.5  0.8314  -23.7
 0.130  0.6374  -51.1  13.363  141.3  0.0374   65.8  0.8227  -24.4
 0.135  0.6310  -52.9  13.188  140.0  0.0385   65.2  0.8142  -25.0
 0.140  0.6252  -54.7  13.021  138.7  0.0396   64.6  0.8057  -25.7
 0.145  0.6200  -56.5  12.860  137.3  0.0407   64.0  0.7974  -26.5
 0.150  0.6154  -58.3  12.708  135.9  0.0418   63.5  0.7892  -27.2
 0.155  0.6066  -59.6  12.546  135.0  0.0426   63.0  0.7808  -27.6
 0.160  0.5982  -60.9  12.386  134.2  0.0433   62.5  0.7725  -28.0
 0.165  0.5900  -62.3  12.230  133.3  0.0441   62.1  0.7642  -28.4
 0.170  0.5822  -63.7  12.077  132.3  0.0449   61.6  0.7559  -28.9
 0.175  0.5748  -65.1  11.927  131.4  0.0457   61.2  0.7477  -29.3
 0.180  0.5677  -66.6  11.780  130.4  0.0465   60.8  0.7396  -29.8
 0.185  0.5610  -68.1  11.637  129.4  0.0472   60.4  0.7314  -30.2
 0.190  0.5547  -69.6  11.497  128.4  0.0480   60.0  0.7234  -30.7
 0.195  0.5489  -71.2  11.361  127.4  0.0488   59.7  0.7154  -31.2
 0.200  0.5434  -72.8  11.229  126.3  0.0496   59.3  0.7074  -31.7
 0.220  0.5186  -77.5  10.642  123.4  0.0521   58.2  0.6785  -32.7
 0.240  0.4975  -82.6  10.085  120.2  0.0547   57.3  0.6499  -33.9
 0.260  0.4787  -87.2   9.570  117.4  0.0572   56.6  0.6253  -34.8
 0.280  0.4604  -91.1   9.081  115.1  0.0596   56.2  0.6046  -35.5
 0.300  0.4445  -95.4   8.609  112.6  0.0620   55.8  0.5839  -36.2
 0.320  0.4284  -98.6   8.259  111.1  0.0639   55.6  0.5686  -36.4
 0.340  0.4136 -101.9   7.915  109.4  0.0658   55.3  0.5534  -36.7
 0.360  0.4004 -105.6   7.579  107.6  0.0677   55.1  0.5381  -36.9
 0.380  0.3889 -109.4   7.250  105.6  0.0696   54.9  0.5229  -37.2
 0.400  0.3793 -113.5   6.932  103.4  0.0715   54.7  0.5077  -37.5
 0.420  0.3688 -116.1   6.678  102.1  0.0732   54.7  0.4971  -37.6
 0.440  0.3591 -118.9   6.427  100.7  0.0749   54.8  0.4865  -37.7
 0.450  0.3546 -120.3   6.304  100.0  0.0758   54.8  0.4811  -37.7
 0.460  0.3503 -121.8   6.181   99.3  0.0767   54.8  0.4758  -37.8
 0.480  0.3424 -124.8   5.939   97.6  0.0784   54.9  0.4652  -37.9
 0.500  0.3355 -128.0   5.702   95.9  0.0801   54.9  0.4546  -38.0
 0.520  0.3311 -130.4   5.533   94.9  0.0820   55.1  0.4481  -38.0
 0.540  0.3272 -132.8   5.366   93.8  0.0839   55.3  0.4416  -38.1
 0.560  0.3239 -135.2   5.200   92.6  0.0858   55.5  0.4351  -38.1
 0.580  0.3212 -137.7   5.037   91.4  0.0877   55.6  0.4286  -38.2
 0.600  0.3192 -140.3   4.877   90.1  0.0896   55.8  0.4221  -38.2
 0.620  0.3146 -142.3   4.748   89.2  0.0915   55.9  0.4178  -38.2
 0.640  0.3104 -144.4   4.621   88.2  0.0934   56.0  0.4134  -38.3
 0.660  0.3066 -146.5   4.495   87.2  0.0954   56.1  0.4091  -38.3
 0.680  0.3033 -148.7   4.370   86.1  0.0973   56.2  0.4047  -38.4
 0.700  0.3004 -150.9   4.247   85.0  0.0992   56.3  0.4004  -38.4
 0.720  0.2985 -152.8   4.146   84.2  0.1012   56.3  0.3969  -38.5
 0.740  0.2968 -154.6   4.046   83.3  0.1031   56.3  0.3934  -38.6
 0.760  0.2955 -156.6   3.947   82.4  0.1051   56.3  0.3899  -38.6
 0.780  0.2945 -158.5   3.849   81.5  0.1070   56.3  0.3864  -38.7
 0.800  0.2939 -160.4   3.752   80.5  0.1090   56.3  0.3829  -38.8
 0.820  0.2918 -162.1   3.675   79.7  0.1110   56.4  0.3801  -38.9
 0.840  0.2901 -163.8   3.599   78.9  0.1129   56.4  0.3773  -39.0
 0.860  0.2885 -165.6   3.523   78.0  0.1149   56.5  0.3744  -39.1
 0.880  0.2873 -167.3   3.449   77.1  0.1168   56.5  0.3716  -39.2
 0.900  0.2863 -169.1   3.375   76.2  0.1188   56.6  0.3688  -39.3
 0.920  0.2857 -170.9   3.314   75.5  0.1207   56.6  0.3666  -39.5
 0.940  0.2854 -172.8   3.254   74.8  0.1226   56.7  0.3645  -39.6
 0.960  0.2854 -174.6   3.194   74.0  0.1244   56.7  0.3623  -39.8
 0.980  0.2856 -176.5   3.135   73.2  0.1263   56.8  0.3602  -39.9
 1.000  0.2862 -178.3   3.076   72.4  0.1282   56.8  0.3580  -40.1
 1.020  0.2864 -179.7   3.027   71.8  0.1303   56.8  0.3561  -40.4
 1.040  0.2867  178.8   2.978   71.1  0.1324   56.8  0.3542  -40.6
 1.060  0.2873  177.4   2.929   70.4  0.1344   56.8  0.3523  -40.9
 1.080  0.2880  175.9   2.881   69.7  0.1365   56.8  0.3504  -41.1
 1.100  0.2889  174.5   2.833   69.0  0.1386   56.8  0.3485  -41.4
 1.120  0.2901  173.2   2.789   68.3  0.1406   56.8  0.3468  -41.6
 1.140  0.2914  172.0   2.746   67.6  0.1426   56.7  0.3450  -41.8
 1.160  0.2928  170.7   2.703   66.9  0.1447   56.7  0.3433  -42.0
 1.180  0.2944  169.5   2.661   66.2  0.1467   56.6  0.3415  -42.2
 1.200  0.2961  168.3   2.619   65.4  0.1487   56.6  0.3398  -42.4
 1.220  0.2955  167.3   2.581   64.8  0.1508   56.5  0.3383  -42.7
 1.240  0.2949  166.3   2.544   64.2  0.1529   56.4  0.3369  -43.0
 1.260  0.2944  165.2   2.507   63.6  0.1550   56.4  0.3355  -43.2
 1.280  0.2941  164.2   2.470   63.0  0.1571   56.3  0.3340  -43.5
 1.300  0.2938  163.2   2.433   62.3  0.1592   56.2  0.3326  -43.8
 1.320  0.2952  162.1   2.401   61.7  0.1611   56.1  0.3315  -44.1
 1.340  0.2966  161.0   2.369   61.1  0.1631   56.0  0.3303  -44.4
 1.360  0.2982  159.9   2.337   60.5  0.1650   55.9  0.3292  -44.8
 1.380  0.2999  158.9   2.306   59.9  0.1670   55.8  0.3281  -45.1
 1.400  0.3017  157.8   2.275   59.3  0.1689   55.7  0.3270  -45.4
 1.420  0.3020  156.9   2.250   58.7  0.1710   55.6  0.3257  -45.7
 1.440  0.3024  156.0   2.225   58.2  0.1731   55.5  0.3244  -46.1
 1.460  0.3029  155.2   2.201   57.6  0.1752   55.3  0.3231  -46.4
 1.480  0.3034  154.3   2.176   57.0  0.1773   55.2  0.3218  -46.8
 1.500  0.3040  153.4   2.152   56.4  0.1794   55.1  0.3205  -47.1
 1.520  0.3063  152.4   2.126   55.8  0.1815   55.0  0.3190  -47.4
 1.540  0.3087  151.4   2.100   55.1  0.1836   54.8  0.3175  -47.8
 1.560  0.3112  150.4   2.074   54.5  0.1858   54.7  0.3160  -48.1
 1.580  0.3138  149.4   2.049   53.8  0.1879   54.5  0.3145  -48.5
 1.600  0.3165  148.5   2.024   53.1  0.1900   54.4  0.3130  -48.8
 1.620  0.3178  147.4   2.004   52.6  0.1920   54.3  0.3116  -49.2
 1.640  0.3192  146.3   1.984   52.0  0.1941   54.1  0.3103  -49.6
 1.660  0.3207  145.2   1.965   51.5  0.1961   54.0  0.3089  -49.9
 1.680  0.3224  144.2   1.945   50.9  0.1982   53.8  0.3076  -50.3
 1.700  0.3241  143.1   1.926   50.3  0.2002   53.7  0.3063  -50.7
 1.720  0.3252  142.3   1.910   49.8  0.2023   53.5  0.3052  -51.1
 1.740  0.3264  141.6   1.893   49.3  0.2044   53.4  0.3041  -51.5
 1.760  0.3276  140.8   1.877   48.8  0.2064   53.2  0.3030  -52.0
 1.780  0.3289  140.0   1.861   48.3  0.2085   53.1  0.3019  -52.4
 1.800  0.3303  139.3   1.845   47.8  0.2106   52.9  0.3009  -52.8
 1.820  0.3328  138.7   1.829   47.2  0.2127   52.8  0.2994  -53.3
 1.840  0.3354  138.1   1.813   46.7  0.2148   52.6  0.2979  -53.8
 1.860  0.3380  137.5   1.798   46.1  0.2170   52.5  0.2964  -54.3
 1.880  0.3407  136.9   1.782   45.5  0.2191   52.3  0.2949  -54.8
 1.900  0.3434  136.3   1.767   44.9  0.2212   52.2  0.2935  -55.3
 1.920  0.3445  135.5   1.750   44.4  0.2233   52.0  0.2918  -55.7
 1.940  0.3457  134.8   1.734   43.9  0.2254   51.8  0.2901  -56.2
 1.960  0.3469  134.0   1.718   43.3  0.2274   51.6  0.2884  -56.6
 1.980  0.3482  133.2   1.702   42.8  0.2295   51.4  0.2867  -57.0
 2.000  0.3496  132.5   1.686   42.2  0.2316   51.2  0.2851  -57.5
 2.020  0.3510  131.8   1.673   41.7  0.2337   51.0  0.2837  -58.0
 2.040  0.3525  131.2   1.660   41.2  0.2358   50.8  0.2824  -58.5
 2.060  0.3540  130.5   1.647   40.8  0.2379   50.6  0.2810  -59.0
 2.080  0.3556  129.8   1.634   40.3  0.2400   50.4  0.2797  -59.5
 2.100  0.3572  129.2   1.622   39.7  0.2422   50.2  0.2784  -60.0
 2.120  0.3588  128.5   1.609   39.2  0.2443   50.0  0.2771  -60.6
 2.140  0.3605  127.9   1.597   38.7  0.2464   49.8  0.2759  -61.1
 2.160  0.3623  127.3   1.585   38.2  0.2485   49.6  0.2747  -61.6
 2.180  0.3641  126.6   1.573   37.6  0.2507   49.4  0.2735  -62.2
 2.200  0.3659  126.0   1.561   37.1  0.2528   49.2  0.2723  -62.7
 2.220  0.3680  125.3   1.551   36.6  0.2548   49.0  0.2703  -63.3
 2.240  0.3702  124.6   1.541   36.1  0.2569   48.8  0.2683  -63.8
 2.260  0.3724  124.0   1.531   35.6  0.2589   48.5  0.2663  -64.4
 2.280  0.3746  123.3   1.522   35.1  0.2610   48.3  0.2644  -65.0
 2.300  0.3769  122.6   1.512   34.6  0.2631   48.1  0.2624  -65.6
 2.320  0.3793  122.0   1.503   34.1  0.2651   47.9  0.2606  -66.2
 2.340  0.3817  121.4   1.493   33.6  0.2672   47.7  0.2587  -66.8
 2.360  0.3842  120.7   1.484   33.1  0.2693   47.5  0.2569  -67.4
 2.380  0.3867  120.1   1.475   32.5  0.2713   47.3  0.2551  -68.1
 2.400  0.3892  119.5   1.466   32.0  0.2734   47.1  0.2533  -68.7
 2.420  0.3917  118.9   1.456   31.6  0.2754   46.9  0.2518  -69.3
 2.440  0.3942  118.3   1.446   31.1  0.2774   46.6  0.2502  -70.0
 2.460  0.3968  117.7   1.437   30.7  0.2794   46.4  0.2488  -70.6
 2.480  0.3994  117.2   1.427   30.2  0.2814   46.1  0.2473  -71.3
 2.500  0.4021  116.6   1.418   29.8  0.2834   45.9  0.2459  -72.0
 2.520  0.4048  116.1   1.408   29.3  0.2855   45.7  0.2445  -72.6
 2.540  0.4075  115.5   1.399   28.8  0.2875   45.5  0.2431  -73.3
 2.560  0.4103  115.0   1.390   28.4  0.2895   45.2  0.2418  -74.0
 2.580  0.4131  114.4   1.381   27.9  0.2916   45.0  0.2405  -74.7
 2.600  0.4159  113.9   1.372   27.4  0.2936   44.8  0.2393  -75.4
 2.620  0.4177  113.4   1.364   27.0  0.2957   44.6  0.2372  -76.1
 2.640  0.4195  112.9   1.357   26.6  0.2977   44.3  0.2352  -76.9
 2.660  0.4213  112.4   1.350   26.2  0.2998   44.1  0.2332  -77.7
 2.680  0.4232  112.0   1.342   25.7  0.3019   43.8  0.2312  -78.4
 2.700  0.4251  111.5   1.335   25.3  0.3040   43.6  0.2293  -79.2
 2.720  0.4270  111.0   1.328   24.9  0.3061   43.4  0.2274  -80.0
 2.740  0.4290  110.6   1.321   24.4  0.3082   43.2  0.2256  -80.9
 2.760  0.4310  110.1   1.314   24.0  0.3103   42.9  0.2238  -81.7
 2.780  0.4330  109.7   1.307   23.6  0.3124   42.7  0.2221  -82.5
 2.800  0.4350  109.2   1.300   23.1  0.3145   42.5  0.2204  -83.4
 2.820  0.4372  108.8   1.293   22.7  0.3164   42.2  0.2189  -84.3
 2.840  0.4394  108.3   1.285   22.2  0.3184   42.0  0.2174  -85.2
 2.860  0.4416  107.9   1.278   21.8  0.3203   41.7  0.2159  -86.1
 2.880  0.4439  107.5   1.271   21.3  0.3223   41.4  0.2145  -87.0
 2.900  0.4462  107.0   1.263   20.9  0.3242   41.2  0.2132  -87.9
 2.920  0.4485  106.6   1.256   20.4  0.3262   40.9  0.2119  -88.8
 2.940  0.4508  106.2   1.249   19.9  0.3282   40.6  0.2107  -89.8
 2.960  0.4531  105.8   1.243   19.5  0.3301   40.4  0.2095  -90.8
 2.980  0.4555  105.4   1.236   19.0  0.3321   40.1  0.2084  -91.7
 3.000  0.4579  105.0   1.229   18.5  0.3341   39.9  0.2074  -92.7
 3.100  0.4693  102.9   1.197   16.7  0.3428   38.4  0.1981  -97.9
 3.200  0.4812  101.0   1.167   14.9  0.3516   37.1  0.1906 -103.6
 3.300  0.4936   99.1   1.138   12.9  0.3607   35.7  0.1851 -109.7
 3.400  0.5066   97.4   1.110   10.9  0.3700   34.5  0.1818 -116.1
 3.500  0.5200   95.7   1.084    8.7  0.3794   33.3  0.1808 -122.6
 3.600  0.5287   94.0   1.060    7.1  0.3874   31.9  0.1775 -129.6
 3.700  0.5379   92.3   1.037    5.4  0.3956   30.5  0.1770 -136.8
 3.800  0.5475   90.7   1.015    3.7  0.4040   29.2  0.1792 -143.9
 3.900  0.5576   89.1   0.993    1.9  0.4126   28.0  0.1841 -150.7
 4.000  0.5680   87.6   0.973    0.0  0.4214   26.8  0.1914 -157.1
 4.100  0.5765   86.2   0.954   -1.4  0.4285   25.3  0.1950 -163.5
 4.200  0.5854   84.8   0.936   -2.9  0.4359   23.9  0.2010 -169.6
 4.300  0.5946   83.5   0.918   -4.4  0.4435   22.5  0.2091 -175.3
 4.400  0.6042   82.2   0.901   -6.0  0.4514   21.2  0.2191  179.5
 4.500  0.6140   80.9   0.885   -7.7  0.4595   19.9  0.2307  174.8
 4.600  0.6199   79.7   0.869   -8.9  0.4650   18.4  0.2383  170.0
 4.700  0.6260   78.5   0.854  -10.2  0.4708   17.0  0.2474  165.6
 4.800  0.6324   77.3   0.840  -11.6  0.4769   15.7  0.2579  161.5
 4.900  0.6390   76.2   0.826  -13.0  0.4833   14.3  0.2696  157.7
 5.000  0.6459   75.1   0.812  -14.4  0.4899   13.0  0.2824  154.3
 5.100  0.6521   73.9   0.792  -15.5  0.4911   11.5  0.2845  150.1
 5.200  0.6587   72.7   0.773  -16.7  0.4926   10.0  0.2882  146.0
 5.300  0.6655   71.5   0.754  -17.9  0.4944    8.6  0.2932  142.1
 5.400  0.6726   70.4   0.735  -19.2  0.4965    7.1  0.2996  138.2
 5.500  0.6799   69.3   0.717  -20.5  0.4990    5.7  0.3073  134.6
 5.600  0.6786   68.3   0.713  -20.8  0.5068    4.8  0.3239  134.3
 5.700  0.6774   67.2   0.710  -21.1  0.5147    4.0  0.3404  134.0
 5.800  0.6765   66.2   0.706  -21.5  0.5228    3.2  0.3570  133.8
 5.900  0.6759   65.1   0.703  -21.8  0.5309    2.5  0.3736  133.6
 6.000  0.6754   64.1   0.699  -22.1  0.5391    1.7  0.3902  133.4
!
!  f       NFmin   Gammaopt  rn/50
! GHz       dB    MAG  ANG    -
!
! noise parameter not available yet for this operation point!
!
! (c) 2015  Infineon Technologies AG, Munich
