! Infineon Technologies  Discrete & RF Semiconductors
! BFR35AP
! VCE =  1.5 V,  IC =  2.0 mA
! Common Emitter S-Parameters:                            Nov 2015
# GHz  S  MA  R  50
!  f         S11            S21            S12            S22
! GHz     MAG   ANG      MAG   ANG      MAG   ANG      MAG   ANG
 0.010  0.9152   -2.3   6.543  178.5  0.0038   86.9  0.9968   -1.0
 0.015  0.9137   -3.3   6.595  177.4  0.0055   87.4  0.9925   -1.6
 0.020  0.9125   -4.4   6.650  176.3  0.0073   87.7  0.9883   -2.2
 0.025  0.9108   -5.5   6.636  175.4  0.0091   86.0  0.9881   -2.8
 0.030  0.9094   -6.6   6.623  174.5  0.0109   84.9  0.9879   -3.3
 0.035  0.9084   -7.7   6.612  173.7  0.0127   84.1  0.9879   -3.9
 0.040  0.9077   -8.9   6.603  172.8  0.0146   83.5  0.9879   -4.5
 0.045  0.9074  -10.0   6.595  171.9  0.0164   83.1  0.9881   -5.0
 0.050  0.9074  -11.1   6.589  171.0  0.0182   82.7  0.9883   -5.6
 0.055  0.9034  -12.1   6.565  170.2  0.0200   81.6  0.9857   -6.1
 0.060  0.8996  -13.2   6.542  169.3  0.0218   80.7  0.9832   -6.6
 0.065  0.8962  -14.3   6.521  168.5  0.0236   80.0  0.9808   -7.1
 0.070  0.8931  -15.3   6.501  167.6  0.0254   79.3  0.9784   -7.7
 0.075  0.8903  -16.4   6.482  166.8  0.0272   78.8  0.9761   -8.2
 0.080  0.8878  -17.5   6.465  165.9  0.0290   78.3  0.9740   -8.7
 0.085  0.8856  -18.6   6.450  165.0  0.0308   77.8  0.9718   -9.2
 0.090  0.8838  -19.7   6.436  164.2  0.0326   77.5  0.9698   -9.7
 0.095  0.8823  -20.8   6.423  163.3  0.0344   77.1  0.9679  -10.3
 0.100  0.8811  -21.9   6.412  162.4  0.0362   76.8  0.9660  -10.8
 0.105  0.8760  -22.9   6.389  161.5  0.0377   76.0  0.9626  -11.3
 0.110  0.8711  -23.9   6.367  160.6  0.0393   75.2  0.9593  -11.8
 0.115  0.8665  -24.9   6.347  159.6  0.0409   74.6  0.9560  -12.3
 0.120  0.8622  -26.0   6.328  158.7  0.0424   73.9  0.9528  -12.8
 0.125  0.8582  -27.0   6.311  157.8  0.0440   73.3  0.9497  -13.4
 0.130  0.8545  -28.1   6.296  156.8  0.0456   72.8  0.9467  -13.9
 0.135  0.8510  -29.2   6.283  155.9  0.0471   72.3  0.9438  -14.4
 0.140  0.8479  -30.2   6.271  154.9  0.0487   71.8  0.9409  -14.9
 0.145  0.8450  -31.3   6.261  154.0  0.0503   71.3  0.9381  -15.5
 0.150  0.8425  -32.4   6.253  153.0  0.0519   70.9  0.9354  -16.0
 0.155  0.8380  -33.3   6.214  152.3  0.0533   70.3  0.9315  -16.4
 0.160  0.8338  -34.3   6.176  151.6  0.0547   69.8  0.9277  -16.8
 0.165  0.8298  -35.2   6.139  150.8  0.0561   69.2  0.9239  -17.2
 0.170  0.8260  -36.1   6.103  150.1  0.0575   68.7  0.9201  -17.6
 0.175  0.8225  -37.1   6.068  149.4  0.0589   68.3  0.9164  -18.0
 0.180  0.8191  -38.1   6.034  148.6  0.0603   67.8  0.9128  -18.4
 0.185  0.8160  -39.0   6.001  147.8  0.0617   67.4  0.9092  -18.8
 0.190  0.8132  -40.0   5.969  147.1  0.0632   67.0  0.9056  -19.2
 0.195  0.8106  -41.0   5.939  146.3  0.0646   66.6  0.9021  -19.6
 0.200  0.8082  -42.0   5.909  145.5  0.0660   66.2  0.8986  -20.0
 0.220  0.7865  -45.7   5.775  142.6  0.0708   64.1  0.8819  -21.4
 0.240  0.7684  -49.7   5.656  139.6  0.0757   62.2  0.8657  -22.9
 0.260  0.7492  -53.3   5.537  136.8  0.0802   60.6  0.8493  -24.3
 0.280  0.7282  -56.8   5.413  134.1  0.0842   59.1  0.8325  -25.6
 0.300  0.7099  -60.4   5.303  131.2  0.0882   57.7  0.8162  -27.0
 0.320  0.6899  -63.1   5.157  129.3  0.0911   56.3  0.8004  -27.9
 0.340  0.6716  -66.0   5.018  127.4  0.0941   54.9  0.7848  -28.8
 0.360  0.6550  -69.0   4.884  125.3  0.0972   53.7  0.7694  -29.7
 0.380  0.6404  -72.2   4.757  123.1  0.1003   52.5  0.7542  -30.7
 0.400  0.6278  -75.5   4.638  120.8  0.1034   51.4  0.7393  -31.7
 0.420  0.6114  -77.9   4.508  119.1  0.1056   50.5  0.7269  -32.3
 0.440  0.5963  -80.5   4.381  117.2  0.1079   49.7  0.7146  -32.9
 0.450  0.5891  -81.8   4.320  116.3  0.1090   49.2  0.7085  -33.2
 0.460  0.5823  -83.2   4.260  115.3  0.1102   48.8  0.7024  -33.6
 0.480  0.5697  -86.0   4.144  113.3  0.1125   48.1  0.6903  -34.2
 0.500  0.5585  -88.9   4.033  111.1  0.1148   47.3  0.6783  -34.9
 0.520  0.5449  -91.3   3.946  109.6  0.1166   46.6  0.6686  -35.4
 0.540  0.5323  -93.8   3.863  108.1  0.1185   46.0  0.6588  -35.8
 0.560  0.5208  -96.4   3.782  106.5  0.1203   45.4  0.6492  -36.3
 0.580  0.5103  -99.1   3.704  104.8  0.1222   44.8  0.6396  -36.8
 0.600  0.5011 -101.9   3.629  103.1  0.1241   44.2  0.6300  -37.3
 0.620  0.4910 -103.9   3.552  101.8  0.1254   43.8  0.6217  -37.7
 0.640  0.4816 -106.1   3.477  100.5  0.1267   43.5  0.6134  -38.0
 0.660  0.4729 -108.3   3.404   99.1  0.1280   43.2  0.6051  -38.4
 0.680  0.4649 -110.5   3.333   97.6  0.1293   42.8  0.5968  -38.8
 0.700  0.4577 -112.9   3.264   96.1  0.1306   42.5  0.5886  -39.2
 0.720  0.4500 -114.9   3.196   95.0  0.1318   42.2  0.5819  -39.5
 0.740  0.4428 -117.0   3.128   93.9  0.1329   41.9  0.5752  -39.8
 0.760  0.4362 -119.1   3.062   92.7  0.1341   41.6  0.5685  -40.1
 0.780  0.4303 -121.3   2.998   91.4  0.1352   41.4  0.5618  -40.4
 0.800  0.4250 -123.6   2.935   90.1  0.1364   41.1  0.5551  -40.7
 0.820  0.4182 -125.2   2.879   89.1  0.1376   41.0  0.5501  -41.0
 0.840  0.4116 -126.8   2.824   88.1  0.1388   40.9  0.5451  -41.2
 0.860  0.4055 -128.5   2.770   87.0  0.1400   40.7  0.5401  -41.5
 0.880  0.3997 -130.3   2.716   85.9  0.1412   40.6  0.5351  -41.7
 0.900  0.3943 -132.1   2.664   84.8  0.1424   40.5  0.5301  -42.0
 0.920  0.3898 -134.1   2.621   83.9  0.1434   40.4  0.5265  -42.3
 0.940  0.3858 -136.1   2.578   82.9  0.1444   40.3  0.5229  -42.5
 0.960  0.3822 -138.1   2.536   82.0  0.1454   40.3  0.5193  -42.8
 0.980  0.3792 -140.2   2.495   80.9  0.1464   40.2  0.5157  -43.0
 1.000  0.3766 -142.3   2.455   79.9  0.1474   40.1  0.5121  -43.3
 1.020  0.3736 -144.2   2.420   79.0  0.1485   40.1  0.5088  -43.6
 1.040  0.3709 -146.0   2.385   78.1  0.1496   40.1  0.5055  -43.9
 1.060  0.3687 -147.9   2.351   77.2  0.1508   40.0  0.5022  -44.2
 1.080  0.3668 -149.9   2.317   76.3  0.1519   40.0  0.4989  -44.6
 1.100  0.3654 -151.8   2.284   75.3  0.1530   40.0  0.4956  -44.9
 1.120  0.3633 -153.4   2.253   74.5  0.1540   40.0  0.4927  -45.2
 1.140  0.3615 -155.0   2.222   73.6  0.1549   40.0  0.4898  -45.5
 1.160  0.3600 -156.7   2.191   72.7  0.1559   39.9  0.4869  -45.7
 1.180  0.3588 -158.3   2.161   71.8  0.1568   39.9  0.4840  -46.0
 1.200  0.3579 -160.0   2.132   70.9  0.1578   39.9  0.4811  -46.3
 1.220  0.3552 -161.6   2.104   70.2  0.1590   40.0  0.4785  -46.6
 1.240  0.3528 -163.2   2.076   69.4  0.1602   40.0  0.4759  -46.8
 1.260  0.3507 -164.9   2.049   68.6  0.1614   40.1  0.4733  -47.1
 1.280  0.3489 -166.5   2.022   67.8  0.1626   40.1  0.4708  -47.3
 1.300  0.3474 -168.2   1.996   67.0  0.1638   40.2  0.4682  -47.6
 1.320  0.3462 -169.8   1.971   66.3  0.1647   40.2  0.4660  -48.0
 1.340  0.3452 -171.4   1.947   65.5  0.1657   40.3  0.4638  -48.3
 1.360  0.3445 -173.0   1.922   64.8  0.1666   40.3  0.4616  -48.7
 1.380  0.3441 -174.6   1.899   64.0  0.1676   40.4  0.4594  -49.0
 1.400  0.3439 -176.2   1.875   63.2  0.1685   40.4  0.4573  -49.4
 1.420  0.3431 -177.3   1.858   62.5  0.1696   40.5  0.4548  -49.7
 1.440  0.3425 -178.5   1.841   61.8  0.1708   40.7  0.4523  -50.0
 1.460  0.3419 -179.6   1.824   61.1  0.1719   40.8  0.4498  -50.2
 1.480  0.3415  179.2   1.807   60.4  0.1731   41.0  0.4474  -50.5
 1.500  0.3413  178.1   1.791   59.7  0.1742   41.1  0.4449  -50.8
 1.520  0.3422  176.5   1.770   59.0  0.1756   41.2  0.4428  -51.1
 1.540  0.3433  174.9   1.749   58.2  0.1769   41.3  0.4408  -51.5
 1.560  0.3447  173.4   1.729   57.4  0.1783   41.3  0.4387  -51.8
 1.580  0.3463  171.8   1.709   56.6  0.1796   41.4  0.4367  -52.2
 1.600  0.3482  170.3   1.689   55.8  0.1810   41.5  0.4347  -52.5
 1.620  0.3489  169.2   1.673   55.2  0.1823   41.6  0.4324  -52.9
 1.640  0.3497  168.0   1.657   54.6  0.1837   41.7  0.4302  -53.2
 1.660  0.3507  166.9   1.641   53.9  0.1850   41.8  0.4280  -53.6
 1.680  0.3518  165.8   1.625   53.3  0.1864   41.9  0.4258  -53.9
 1.700  0.3530  164.7   1.610   52.6  0.1877   42.0  0.4236  -54.3
 1.720  0.3529  163.4   1.596   52.0  0.1892   42.0  0.4227  -54.7
 1.740  0.3531  162.1   1.582   51.5  0.1907   41.9  0.4218  -55.0
 1.760  0.3534  160.9   1.568   50.9  0.1922   41.9  0.4209  -55.4
 1.780  0.3538  159.6   1.554   50.3  0.1937   41.8  0.4200  -55.7
 1.800  0.3545  158.3   1.540   49.7  0.1952   41.8  0.4192  -56.1
 1.820  0.3567  157.4   1.528   49.1  0.1966   41.9  0.4176  -56.6
 1.840  0.3590  156.5   1.515   48.5  0.1980   41.9  0.4161  -57.1
 1.860  0.3613  155.6   1.503   47.8  0.1994   42.0  0.4145  -57.6
 1.880  0.3638  154.7   1.492   47.2  0.2008   42.0  0.4131  -58.1
 1.900  0.3663  153.8   1.480   46.5  0.2022   42.1  0.4116  -58.6
 1.920  0.3665  152.7   1.467   45.9  0.2039   42.1  0.4098  -59.0
 1.940  0.3669  151.6   1.455   45.3  0.2055   42.1  0.4080  -59.4
 1.960  0.3675  150.5   1.442   44.7  0.2072   42.0  0.4063  -59.7
 1.980  0.3681  149.4   1.430   44.1  0.2088   42.0  0.4045  -60.1
 2.000  0.3689  148.3   1.418   43.5  0.2105   42.0  0.4028  -60.5
 2.020  0.3700  147.3   1.408   43.0  0.2121   42.0  0.4010  -61.0
 2.040  0.3712  146.4   1.398   42.4  0.2137   42.0  0.3993  -61.4
 2.060  0.3726  145.4   1.387   41.8  0.2154   42.1  0.3975  -61.9
 2.080  0.3740  144.5   1.378   41.3  0.2170   42.1  0.3959  -62.4
 2.100  0.3755  143.6   1.368   40.7  0.2186   42.1  0.3942  -62.9
 2.120  0.3771  142.6   1.358   40.1  0.2202   42.1  0.3926  -63.4
 2.140  0.3789  141.7   1.349   39.5  0.2218   42.1  0.3909  -63.9
 2.160  0.3807  140.8   1.339   38.9  0.2235   42.2  0.3894  -64.4
 2.180  0.3826  139.9   1.330   38.3  0.2251   42.2  0.3878  -64.9
 2.200  0.3846  139.0   1.321   37.7  0.2267   42.2  0.3863  -65.4
 2.220  0.3865  138.1   1.313   37.2  0.2284   42.1  0.3847  -65.9
 2.240  0.3886  137.3   1.305   36.7  0.2302   42.1  0.3831  -66.5
 2.260  0.3907  136.4   1.297   36.1  0.2319   42.0  0.3815  -67.1
 2.280  0.3929  135.6   1.289   35.6  0.2337   41.9  0.3800  -67.6
 2.300  0.3952  134.7   1.281   35.0  0.2354   41.9  0.3785  -68.2
 2.320  0.3976  133.9   1.273   34.5  0.2371   41.8  0.3770  -68.8
 2.340  0.4000  133.1   1.266   33.9  0.2389   41.8  0.3756  -69.3
 2.360  0.4026  132.3   1.258   33.4  0.2406   41.7  0.3742  -69.9
 2.380  0.4052  131.5   1.251   32.8  0.2424   41.7  0.3729  -70.5
 2.400  0.4079  130.7   1.244   32.2  0.2441   41.6  0.3716  -71.1
 2.420  0.4098  129.9   1.237   31.7  0.2460   41.5  0.3696  -71.7
 2.440  0.4117  129.1   1.229   31.3  0.2480   41.5  0.3677  -72.2
 2.460  0.4137  128.3   1.222   30.8  0.2499   41.4  0.3657  -72.8
 2.480  0.4158  127.5   1.215   30.3  0.2519   41.3  0.3639  -73.4
 2.500  0.4180  126.7   1.207   29.8  0.2538   41.3  0.3620  -74.0
 2.520  0.4203  125.9   1.200   29.3  0.2557   41.2  0.3602  -74.6
 2.540  0.4226  125.2   1.193   28.8  0.2577   41.2  0.3585  -75.2
 2.560  0.4250  124.4   1.186   28.3  0.2596   41.1  0.3567  -75.8
 2.580  0.4275  123.6   1.180   27.8  0.2616   41.1  0.3550  -76.4
 2.600  0.4301  122.9   1.173   27.3  0.2635   41.0  0.3534  -77.0
 2.620  0.4321  122.3   1.166   26.9  0.2654   40.9  0.3519  -77.7
 2.640  0.4341  121.6   1.160   26.4  0.2673   40.7  0.3504  -78.4
 2.660  0.4362  121.0   1.153   25.9  0.2692   40.6  0.3489  -79.0
 2.680  0.4384  120.3   1.147   25.5  0.2710   40.5  0.3475  -79.7
 2.700  0.4406  119.7   1.141   25.0  0.2729   40.3  0.3462  -80.4
 2.720  0.4428  119.1   1.134   24.5  0.2748   40.2  0.3449  -81.1
 2.740  0.4451  118.5   1.128   24.1  0.2767   40.1  0.3437  -81.8
 2.760  0.4475  117.9   1.122   23.6  0.2786   39.9  0.3425  -82.6
 2.780  0.4499  117.3   1.116   23.1  0.2805   39.8  0.3414  -83.3
 2.800  0.4523  116.7   1.110   22.6  0.2824   39.7  0.3403  -84.0
 2.820  0.4543  116.1   1.104   22.2  0.2844   39.6  0.3384  -84.8
 2.840  0.4564  115.5   1.098   21.7  0.2865   39.4  0.3365  -85.5
 2.860  0.4586  114.9   1.092   21.2  0.2885   39.3  0.3346  -86.3
 2.880  0.4608  114.4   1.087   20.8  0.2905   39.2  0.3329  -87.1
 2.900  0.4630  113.8   1.081   20.3  0.2926   39.0  0.3312  -87.9
 2.920  0.4653  113.2   1.076   19.8  0.2946   38.9  0.3296  -88.7
 2.940  0.4676  112.7   1.070   19.4  0.2967   38.8  0.3280  -89.5
 2.960  0.4700  112.1   1.065   18.9  0.2987   38.6  0.3265  -90.3
 2.980  0.4724  111.5   1.059   18.4  0.3008   38.5  0.3251  -91.2
 3.000  0.4749  111.0   1.054   17.9  0.3028   38.4  0.3237  -92.0
 3.100  0.4852  108.4   1.027   16.1  0.3125   37.3  0.3143  -96.3
 3.200  0.4965  105.9   1.001   14.2  0.3222   36.3  0.3069 -100.9
 3.300  0.5087  103.5   0.977   12.3  0.3321   35.3  0.3015 -105.7
 3.400  0.5218  101.3   0.953   10.2  0.3421   34.4  0.2982 -110.6
 3.500  0.5356   99.1   0.931    8.0  0.3521   33.6  0.2972 -115.6
 3.600  0.5433   97.1   0.911    6.5  0.3617   32.4  0.2918 -121.2
 3.700  0.5516   95.1   0.892    4.9  0.3714   31.2  0.2892 -126.9
 3.800  0.5606   93.2   0.874    3.2  0.3813   30.1  0.2896 -132.6
 3.900  0.5702   91.4   0.856    1.5  0.3913   29.0  0.2928 -138.3
 4.000  0.5803   89.6   0.839   -0.3  0.4015   28.0  0.2988 -143.8
 4.100  0.5883   88.0   0.823   -1.6  0.4103   26.5  0.2989 -149.4
 4.200  0.5967   86.5   0.808   -2.9  0.4193   25.1  0.3018 -154.9
 4.300  0.6055   85.0   0.793   -4.3  0.4285   23.8  0.3075 -160.3
 4.400  0.6148   83.5   0.779   -5.7  0.4380   22.5  0.3157 -165.5
 4.500  0.6244   82.1   0.765   -7.2  0.4477   21.3  0.3264 -170.3
 4.600  0.6291   80.8   0.753   -8.3  0.4545   19.8  0.3296 -175.3
 4.700  0.6341   79.4   0.740   -9.5  0.4617   18.3  0.3353  179.8
 4.800  0.6394   78.1   0.729  -10.7  0.4691   16.8  0.3432  175.2
 4.900  0.6451   76.9   0.717  -11.9  0.4769   15.4  0.3534  170.8
 5.000  0.6511   75.6   0.706  -13.2  0.4849   14.1  0.3655  166.6
 5.100  0.6567   74.3   0.691  -14.1  0.4866   12.5  0.3631  162.2
 5.200  0.6626   73.1   0.676  -15.1  0.4887   10.9  0.3628  157.8
 5.300  0.6688   71.8   0.662  -16.1  0.4912    9.4  0.3647  153.4
 5.400  0.6754   70.6   0.647  -17.1  0.4940    7.8  0.3687  149.1
 5.500  0.6822   69.4   0.633  -18.2  0.4972    6.3  0.3747  144.9
 5.600  0.6807   68.4   0.631  -18.3  0.5057    5.4  0.3920  143.7
 5.700  0.6794   67.3   0.628  -18.4  0.5143    4.6  0.4094  142.6
 5.800  0.6783   66.3   0.626  -18.6  0.5230    3.8  0.4269  141.7
 5.900  0.6774   65.2   0.623  -18.7  0.5318    3.0  0.4445  140.7
 6.000  0.6768   64.2   0.621  -18.8  0.5407    2.2  0.4623  139.9
!
!  f       NFmin   Gammaopt  rn/50
! GHz       dB    MAG  ANG    -
!
! noise parameter not available yet for this operation point!
!
! (c) 2015  Infineon Technologies AG, Munich
