! Infineon Technologies  Discrete & RF Semiconductors
! BFR740L3RH
! VCE =  2.5 V,  IC =  30 mA
! Common Emitter S-Parameters:                            May 2012
# GHz  S  MA  R  50
!  f         S11            S21            S12            S22
! GHz     MAG   ANG      MAG   ANG      MAG   ANG      MAG   ANG
 0.450  0.7536  -65.5  36.126  145.6  0.0208   50.9  0.8477  -36.8
 0.500  0.7421  -70.8  34.969  142.5  0.0226   52.2  0.8187  -39.9
 0.600  0.7352  -81.4  32.823  136.5  0.0254   52.3  0.7668  -46.0
 0.700  0.7362  -90.8  30.717  131.3  0.0279   49.7  0.7195  -51.6
 0.800  0.7352  -99.0  28.695  126.6  0.0303   45.8  0.6754  -56.6
 0.900  0.7347 -106.3  26.838  122.5  0.0313   41.2  0.6353  -61.0
 1.000  0.7346 -112.8  25.145  118.8  0.0314   38.2  0.5990  -65.1
 1.100  0.7345 -118.6  23.608  115.3  0.0324   36.5  0.5655  -68.8
 1.200  0.7341 -123.7  22.206  112.2  0.0338   34.6  0.5351  -72.3
 1.300  0.7334 -128.4  20.909  109.4  0.0345   32.8  0.5078  -75.4
 1.400  0.7330 -132.5  19.735  106.8  0.0351   31.2  0.4835  -78.3
 1.500  0.7329 -136.3  18.685  104.4  0.0360   30.0  0.4618  -81.2
 1.600  0.7336 -139.8  17.718  102.1  0.0366   28.9  0.4422  -83.8
 1.700  0.7332 -143.0  16.799  100.0  0.0371   27.2  0.4244  -86.2
 1.800  0.7326 -146.1  15.962   98.0  0.0379   25.8  0.4073  -88.5
 1.900  0.7326 -148.8  15.220   96.1  0.0382   26.2  0.3919  -90.7
 2.000  0.7316 -151.4  14.528   94.3  0.0381   26.3  0.3790  -92.8
 2.100  0.7308 -153.7  13.889   92.7  0.0382   24.8  0.3661  -94.7
 2.200  0.7310 -155.9  13.316   91.2  0.0381   24.3  0.3541  -96.6
 2.300  0.7311 -157.9  12.773   89.7  0.0381   24.0  0.3449  -98.6
 2.400  0.7307 -160.0  12.262   88.3  0.0382   23.4  0.3367 -100.4
 2.500  0.7295 -161.7  11.808   86.9  0.0382   23.4  0.3281 -102.1
 2.600  0.7283 -163.4  11.389   85.6  0.0386   23.3  0.3197 -103.8
 2.700  0.7287 -165.2  10.981   84.3  0.0393   22.9  0.3125 -105.4
 2.800  0.7298 -166.8  10.598   83.0  0.0394   22.7  0.3067 -107.0
 2.900  0.7300 -168.2  10.246   81.8  0.0394   22.9  0.3012 -108.4
 3.000  0.7294 -169.8   9.911   80.5  0.0394   23.2  0.2952 -109.8
 3.100  0.7290 -171.3   9.595   79.4  0.0394   22.7  0.2898 -111.3
 3.200  0.7297 -172.6   9.297   78.2  0.0398   21.7  0.2857 -112.9
 3.300  0.7299 -174.0   9.017   77.1  0.0398   21.2  0.2817 -114.5
 3.400  0.7287 -175.3   8.752   76.0  0.0394   21.5  0.2787 -116.1
 3.500  0.7274 -176.5   8.496   74.9  0.0394   22.0  0.2761 -117.6
 3.600  0.7265 -177.6   8.250   73.8  0.0395   21.9  0.2722 -119.0
 3.700  0.7261 -178.7   8.022   72.8  0.0399   21.8  0.2684 -120.3
 3.800  0.7259 -179.8   7.804   71.8  0.0404   22.1  0.2654 -121.4
 3.900  0.7262  179.2   7.607   70.8  0.0404   21.9  0.2628 -122.2
 4.000  0.7263  178.4   7.426   69.9  0.0405   20.9  0.2613 -123.2
 4.100  0.7264  177.3   7.242   68.9  0.0408   21.5  0.2603 -124.6
 4.200  0.7276  176.3   7.056   67.9  0.0413   22.5  0.2594 -125.8
 4.300  0.7289  175.4   6.880   66.9  0.0414   21.6  0.2594 -127.0
 4.400  0.7298  174.5   6.713   66.0  0.0414   20.6  0.2595 -128.3
 4.500  0.7300  173.5   6.557   65.1  0.0418   21.3  0.2581 -129.5
 4.600  0.7297  172.5   6.412   64.2  0.0422   22.0  0.2571 -130.8
 4.700  0.7295  171.5   6.270   63.3  0.0421   21.7  0.2561 -132.2
 4.800  0.7295  170.5   6.138   62.5  0.0419   21.5  0.2543 -133.6
 4.900  0.7301  169.6   6.013   61.7  0.0422   21.6  0.2531 -134.8
 5.000  0.7311  168.7   5.889   60.8  0.0426   21.4  0.2524 -135.8
 5.100  0.7315  167.9   5.768   59.8  0.0424   21.4  0.2518 -136.8
 5.200  0.7311  167.1   5.647   58.9  0.0421   21.3  0.2515 -137.8
 5.300  0.7309  166.3   5.531   58.1  0.0423   21.4  0.2519 -138.9
 5.400  0.7310  165.5   5.424   57.2  0.0423   21.7  0.2528 -140.1
 5.500  0.7320  164.8   5.324   56.4  0.0424   22.1  0.2536 -141.2
 5.600  0.7329  164.0   5.224   55.5  0.0430   21.9  0.2541 -142.1
 5.700  0.7327  163.3   5.121   54.7  0.0435   21.3  0.2547 -143.2
 5.800  0.7327  162.5   5.023   53.8  0.0435   21.0  0.2553 -144.3
 5.900  0.7331  161.8   4.936   53.0  0.0432   21.3  0.2559 -145.4
 6.000  0.7329  161.2   4.851   52.2  0.0434   21.8  0.2561 -146.3
 6.100  0.7329  160.4   4.764   51.4  0.0437   22.1  0.2568 -147.3
 6.200  0.7335  159.6   4.680   50.5  0.0435   22.2  0.2584 -148.3
 6.300  0.7347  158.9   4.599   49.8  0.0434   22.0  0.2596 -149.3
 6.400  0.7352  158.1   4.521   49.0  0.0439   21.5  0.2606 -150.4
 6.500  0.7347  157.4   4.444   48.2  0.0445   21.1  0.2616 -151.5
 6.600  0.7348  156.7   4.369   47.4  0.0445   21.2  0.2629 -152.5
 6.700  0.7357  156.1   4.301   46.6  0.0446   21.1  0.2645 -153.5
 6.800  0.7370  155.4   4.233   45.7  0.0447   21.0  0.2651 -154.4
 6.900  0.7379  154.7   4.159   45.0  0.0442   21.7  0.2654 -155.4
 7.000  0.7378  154.1   4.084   44.2  0.0441   21.8  0.2673 -156.3
 7.100  0.7376  153.5   4.014   43.4  0.0444   21.0  0.2691 -157.3
 7.200  0.7378  152.9   3.950   42.7  0.0442   21.0  0.2705 -158.4
 7.300  0.7378  152.4   3.893   42.0  0.0444   21.6  0.2718 -159.5
 7.400  0.7380  151.8   3.838   41.2  0.0446   22.2  0.2729 -160.4
 7.500  0.7396  151.2   3.780   40.5  0.0439   22.6  0.2746 -161.3
 7.600  0.7423  150.7   3.721   39.9  0.0435   22.8  0.2765 -162.3
 7.700  0.7452  150.1   3.670   39.3  0.0440   23.0  0.2780 -163.4
 7.800  0.7475  149.4   3.626   38.6  0.0444   22.6  0.2793 -164.7
 7.900  0.7498  148.7   3.582   37.8  0.0453   22.3  0.2799 -165.6
 8.000  0.7526  147.9   3.539   37.0  0.0472   22.7  0.2800 -166.2
 8.500  0.7514  144.0   3.300   32.8  0.0450   23.1  0.2853 -170.7
 9.000  0.7478  141.1   3.071   29.2  0.0445   24.0  0.2926 -174.5
 9.500  0.7467  138.2   2.891   25.5  0.0450   24.3  0.3003 -178.1
10.000  0.7390  135.4   2.698   21.9  0.0447   27.7  0.3059  178.3
10.500  0.7307  133.5   2.536   18.4  0.0455   26.5  0.3166  175.9
11.000  0.7485  131.8   2.399   15.8  0.0435   32.9  0.3266  172.2
11.500  0.7452  129.1   2.291   12.4  0.0486   33.9  0.3354  169.6
12.000  0.7430  127.3   2.168    9.0  0.0523   33.4  0.3449  167.4
!
!  f       NFmin   Gammaopt  rn/50
! GHz       dB    MAG  ANG    -
 0.450      1.19  0.09  178   0.12
 0.900      1.19  0.10  173   0.11
 1.500      1.21  0.11  167   0.11
 1.900      1.22  0.12  164   0.11
 2.400      1.24  0.14  164   0.11
 3.500      1.30  0.16  166   0.11
 5.500      1.44  0.22  170   0.10
 8.000      1.66  0.29 -172   0.11
10.000      1.85  0.31 -156   0.13
12.000      2.05  0.37 -136   0.19
!
! (c) 2012  Infineon Technologies AG, Munich
