! Infineon Technologies  Discrete & RF Semiconductors
! BFR740L3RH
! VCE =  2.0 V,  IC =  25 mA
! Common Emitter S-Parameters:                            May 2012
# GHz  S  MA  R  50
!  f         S11            S21            S12            S22
! GHz     MAG   ANG      MAG   ANG      MAG   ANG      MAG   ANG
 0.450  0.7761  -60.6  35.184  147.0  0.0210   68.1  0.8661  -36.5
 0.500  0.7668  -66.0  34.128  144.0  0.0227   60.7  0.8391  -39.5
 0.600  0.7596  -76.3  32.170  138.2  0.0265   52.0  0.7901  -45.5
 0.700  0.7554  -85.6  30.241  133.0  0.0296   48.1  0.7446  -51.3
 0.800  0.7509  -93.8  28.361  128.4  0.0318   44.7  0.7013  -56.5
 0.900  0.7476 -101.0  26.618  124.2  0.0332   41.5  0.6616  -61.1
 1.000  0.7453 -107.6  25.014  120.5  0.0344   38.8  0.6252  -65.4
 1.100  0.7430 -113.6  23.548  117.0  0.0359   36.9  0.5917  -69.3
 1.200  0.7409 -118.9  22.200  113.9  0.0368   35.4  0.5615  -73.0
 1.300  0.7391 -123.7  20.945  111.0  0.0374   33.9  0.5342  -76.4
 1.400  0.7376 -128.0  19.803  108.3  0.0382   31.9  0.5097  -79.6
 1.500  0.7367 -131.9  18.778  105.9  0.0388   29.9  0.4884  -82.7
 1.600  0.7363 -135.6  17.829  103.6  0.0391   28.4  0.4690  -85.6
 1.700  0.7352 -139.1  16.924  101.4  0.0396   27.5  0.4502  -88.2
 1.800  0.7340 -142.3  16.096   99.3  0.0405   27.3  0.4320  -90.7
 1.900  0.7335 -145.1  15.362   97.4  0.0408   26.7  0.4160  -93.1
 2.000  0.7321 -147.7  14.674   95.6  0.0412   25.2  0.4027  -95.4
 2.100  0.7302 -150.2  14.039   93.9  0.0416   24.0  0.3895  -97.5
 2.200  0.7295 -152.5  13.467   92.4  0.0414   23.5  0.3775  -99.5
 2.300  0.7294 -154.7  12.924   90.9  0.0412   23.0  0.3681 -101.6
 2.400  0.7287 -156.8  12.412   89.4  0.0413   22.7  0.3587 -103.7
 2.500  0.7276 -158.6  11.958   88.0  0.0414   22.5  0.3495 -105.7
 2.600  0.7264 -160.4  11.539   86.6  0.0411   22.4  0.3411 -107.4
 2.700  0.7255 -162.3  11.130   85.3  0.0406   22.1  0.3333 -109.0
 2.800  0.7252 -164.0  10.745   84.0  0.0408   21.4  0.3271 -110.7
 2.900  0.7252 -165.6  10.391   82.8  0.0418   20.8  0.3219 -112.3
 3.000  0.7249 -167.2  10.054   81.5  0.0425   20.1  0.3157 -113.9
 3.100  0.7248 -168.7   9.734   80.4  0.0430   19.8  0.3100 -115.6
 3.200  0.7254 -170.2   9.434   79.2  0.0434   20.2  0.3056 -117.1
 3.300  0.7252 -171.6   9.152   78.0  0.0434   20.2  0.3012 -118.8
 3.400  0.7240 -172.9   8.886   76.9  0.0431   19.8  0.2978 -120.5
 3.500  0.7230 -174.2   8.626   75.8  0.0430   19.7  0.2949 -122.0
 3.600  0.7222 -175.5   8.376   74.7  0.0427   19.7  0.2908 -123.5
 3.700  0.7217 -176.7   8.145   73.7  0.0431   19.5  0.2872 -124.9
 3.800  0.7213 -177.8   7.925   72.6  0.0435   18.9  0.2839 -126.1
 3.900  0.7208 -178.8   7.726   71.7  0.0432   18.5  0.2812 -127.0
 4.000  0.7209 -179.8   7.544   70.7  0.0431   19.1  0.2799 -128.1
 4.100  0.7218  179.1   7.358   69.7  0.0437   19.7  0.2787 -129.4
 4.200  0.7227  178.1   7.169   68.7  0.0439   19.8  0.2775 -130.6
 4.300  0.7230  177.3   6.990   67.7  0.0440   19.3  0.2769 -131.9
 4.400  0.7233  176.2   6.822   66.8  0.0444   19.0  0.2763 -133.3
 4.500  0.7241  175.2   6.664   65.9  0.0447   18.8  0.2750 -134.4
 4.600  0.7245  174.2   6.516   65.0  0.0450   18.5  0.2740 -135.7
 4.700  0.7241  173.1   6.372   64.1  0.0448   18.3  0.2735 -137.2
 4.800  0.7239  172.1   6.237   63.3  0.0444   18.6  0.2724 -138.7
 4.900  0.7246  171.1   6.110   62.5  0.0446   19.2  0.2710 -140.0
 5.000  0.7253  170.2   5.985   61.5  0.0450   18.8  0.2700 -141.1
 5.100  0.7251  169.4   5.862   60.6  0.0452   18.5  0.2692 -142.1
 5.200  0.7244  168.6   5.740   59.7  0.0454   18.4  0.2684 -142.9
 5.300  0.7245  167.8   5.622   58.8  0.0458   18.3  0.2685 -144.0
 5.400  0.7251  166.9   5.514   58.0  0.0461   18.2  0.2693 -145.1
 5.500  0.7252  166.1   5.413   57.1  0.0463   18.3  0.2696 -146.1
 5.600  0.7253  165.3   5.311   56.3  0.0465   18.6  0.2698 -147.1
 5.700  0.7256  164.6   5.207   55.4  0.0466   18.8  0.2702 -148.4
 5.800  0.7263  163.9   5.107   54.6  0.0468   18.7  0.2708 -149.5
 5.900  0.7266  163.2   5.018   53.7  0.0466   18.7  0.2713 -150.5
 6.000  0.7267  162.4   4.931   52.9  0.0464   18.7  0.2717 -151.5
 6.100  0.7273  161.7   4.843   52.1  0.0463   19.0  0.2727 -152.5
 6.200  0.7279  160.8   4.758   51.3  0.0458   19.3  0.2740 -153.5
 6.300  0.7280  160.0   4.675   50.5  0.0458   18.5  0.2748 -154.4
 6.400  0.7280  159.2   4.595   49.7  0.0465   17.5  0.2757 -155.3
 6.500  0.7286  158.5   4.519   48.9  0.0472   17.6  0.2766 -156.4
 6.600  0.7296  157.8   4.443   48.1  0.0473   18.0  0.2778 -157.4
 6.700  0.7305  157.1   4.373   47.3  0.0467   18.1  0.2794 -158.5
 6.800  0.7312  156.4   4.304   46.4  0.0465   17.9  0.2801 -159.5
 6.900  0.7312  155.8   4.228   45.7  0.0471   17.5  0.2808 -160.3
 7.000  0.7310  155.2   4.152   45.0  0.0472   17.8  0.2828 -161.2
 7.100  0.7310  154.5   4.082   44.2  0.0464   18.2  0.2848 -162.3
 7.200  0.7310  153.9   4.017   43.5  0.0460   17.4  0.2863 -163.3
 7.300  0.7314  153.3   3.959   42.7  0.0460   18.0  0.2875 -164.3
 7.400  0.7323  152.7   3.903   42.0  0.0463   18.9  0.2884 -165.2
 7.500  0.7333  152.2   3.844   41.3  0.0470   18.4  0.2896 -165.9
 7.600  0.7351  151.6   3.784   40.6  0.0471   18.2  0.2913 -166.8
 7.700  0.7374  151.0   3.732   40.0  0.0471   18.4  0.2933 -168.0
 7.800  0.7397  150.3   3.687   39.3  0.0472   18.5  0.2949 -169.3
 7.900  0.7421  149.6   3.642   38.5  0.0475   18.6  0.2949 -170.3
 8.000  0.7446  148.8   3.599   37.7  0.0482   18.5  0.2936 -171.0
 8.500  0.7452  144.8   3.358   33.6  0.0477   17.4  0.3008 -175.1
 9.000  0.7410  141.9   3.123   30.0  0.0463   18.8  0.3061 -178.9
 9.500  0.7389  138.9   2.939   26.3  0.0461   20.1  0.3132  177.6
10.000  0.7326  136.3   2.743   22.8  0.0444   20.1  0.3182  174.3
10.500  0.7233  134.2   2.579   19.3  0.0459   22.9  0.3279  171.8
11.000  0.7415  132.5   2.442   16.7  0.0434   24.9  0.3377  168.4
11.500  0.7377  129.7   2.331   13.3  0.0478   28.9  0.3457  165.8
12.000  0.7392  127.8   2.207   10.0  0.0508   29.6  0.3544  163.7
!
!  f       NFmin   Gammaopt  rn/50
! GHz       dB    MAG  ANG    -
 0.450      1.03  0.05  178   0.12
 0.900      1.04  0.05  160   0.11
 1.500      1.05  0.07  144   0.11
 1.900      1.06  0.09  139   0.11
 2.400      1.08  0.11  136   0.10
 3.500      1.13  0.13  142   0.10
 5.500      1.26  0.20  154   0.09
 8.000      1.46  0.27  180   0.09
10.000      1.64  0.31 -162   0.10
12.000      1.82  0.36 -140   0.11
!
! (c) 2012  Infineon Technologies AG, Munich
