! Infineon Technologies  Discrete & RF Semiconductors
! BFR740L3RH
! VCE =  1.0 V,  IC =  6.0 mA
! Common Emitter S-Parameters:                            May 2012
# GHz  S  MA  R  50
!  f         S11            S21            S12            S22
! GHz     MAG   ANG      MAG   ANG      MAG   ANG      MAG   ANG
 0.450  0.9292  -30.6  15.981  160.6  0.0280   68.4  0.9633  -21.7
 0.500  0.9202  -33.6  15.827  158.3  0.0326   67.9  0.9516  -24.0
 0.600  0.9079  -39.8  15.530  154.0  0.0399   65.8  0.9311  -28.5
 0.700  0.8979  -46.0  15.181  150.0  0.0450   62.7  0.9116  -32.8
 0.800  0.8867  -51.8  14.791  146.2  0.0499   59.9  0.8906  -37.0
 0.900  0.8761  -57.4  14.392  142.6  0.0544   56.9  0.8687  -41.0
 1.000  0.8656  -62.9  13.994  139.2  0.0583   53.7  0.8467  -44.8
 1.100  0.8554  -68.1  13.592  135.9  0.0623   50.6  0.8245  -48.5
 1.200  0.8452  -73.0  13.188  132.7  0.0659   47.7  0.8024  -52.2
 1.300  0.8349  -77.9  12.777  129.6  0.0691   45.0  0.7806  -55.6
 1.400  0.8253  -82.5  12.373  126.6  0.0721   42.4  0.7593  -58.8
 1.500  0.8169  -86.7  11.985  123.9  0.0749   40.0  0.7392  -62.1
 1.600  0.8095  -90.8  11.610  121.3  0.0777   37.8  0.7195  -65.3
 1.700  0.8004  -95.1  11.230  118.6  0.0800   35.8  0.6996  -68.2
 1.800  0.7909  -99.1  10.862  116.1  0.0816   34.3  0.6794  -70.9
 1.900  0.7840 -102.7  10.521  113.7  0.0829   32.5  0.6605  -73.6
 2.000  0.7762 -106.2  10.184  111.4  0.0844   30.4  0.6443  -76.3
 2.100  0.7686 -109.6   9.859  109.3  0.0859   28.6  0.6273  -78.8
 2.200  0.7630 -112.7   9.558  107.3  0.0870   27.1  0.6104  -81.2
 2.300  0.7572 -115.7   9.260  105.4  0.0881   25.4  0.5970  -83.6
 2.400  0.7515 -118.7   8.972  103.5  0.0893   23.7  0.5845  -86.0
 2.500  0.7463 -121.4   8.710  101.7  0.0899   22.4  0.5708  -88.2
 2.600  0.7405 -124.0   8.463   99.9  0.0904   21.2  0.5577  -90.3
 2.700  0.7358 -126.6   8.221   98.2  0.0913   19.6  0.5462  -92.3
 2.800  0.7326 -129.1   7.989   96.5  0.0917   18.3  0.5357  -94.3
 2.900  0.7294 -131.5   7.771   94.9  0.0920   17.2  0.5255  -96.2
 3.000  0.7253 -134.0   7.558   93.2  0.0926   16.1  0.5150  -98.1
 3.100  0.7214 -136.2   7.352   91.7  0.0932   15.2  0.5048 -100.0
 3.200  0.7187 -138.4   7.158   90.2  0.0938   14.3  0.4962 -102.0
 3.300  0.7154 -140.5   6.974   88.7  0.0943   13.2  0.4880 -103.9
 3.400  0.7121 -142.6   6.798   87.2  0.0949   12.2  0.4801 -105.8
 3.500  0.7100 -144.5   6.622   85.8  0.0952   11.1  0.4731 -107.7
 3.600  0.7071 -146.4   6.449   84.5  0.0949    9.8  0.4658 -109.3
 3.700  0.7042 -148.2   6.288   83.1  0.0947    8.7  0.4589 -110.8
 3.800  0.7019 -149.9   6.136   81.8  0.0946    8.0  0.4523 -112.4
 3.900  0.6999 -151.6   5.998   80.5  0.0949    7.5  0.4462 -113.8
 4.000  0.6994 -153.1   5.872   79.3  0.0949    6.7  0.4414 -115.2
 4.100  0.6991 -154.6   5.742   78.1  0.0943    6.1  0.4371 -116.8
 4.200  0.6984 -156.2   5.606   76.8  0.0946    5.7  0.4329 -118.3
 4.300  0.6985 -157.7   5.476   75.6  0.0953    4.6  0.4292 -119.8
 4.400  0.6981 -159.2   5.355   74.5  0.0952    3.6  0.4256 -121.3
 4.500  0.6964 -160.7   5.240   73.4  0.0952    3.0  0.4216 -122.8
 4.600  0.6945 -162.2   5.132   72.2  0.0951    2.3  0.4181 -124.2
 4.700  0.6924 -163.7   5.026   71.1  0.0946    1.4  0.4145 -125.7
 4.800  0.6908 -165.1   4.927   70.1  0.0943    0.6  0.4099 -127.2
 4.900  0.6904 -166.5   4.831   69.1  0.0940    0.0  0.4062 -128.6
 5.000  0.6905 -167.8   4.737   67.9  0.0937   -0.5  0.4032 -130.0
 5.100  0.6898 -169.0   4.646   66.8  0.0939   -1.2  0.4002 -131.3
 5.200  0.6886 -170.3   4.554   65.7  0.0943   -1.9  0.3977 -132.4
 5.300  0.6878 -171.5   4.465   64.7  0.0941   -2.7  0.3956 -133.7
 5.400  0.6876 -172.8   4.384   63.7  0.0933   -3.3  0.3939 -135.1
 5.500  0.6880 -173.9   4.308   62.7  0.0926   -3.8  0.3925 -136.3
 5.600  0.6883 -175.0   4.231   61.7  0.0925   -4.5  0.3910 -137.6
 5.700  0.6878 -176.1   4.151   60.6  0.0926   -4.9  0.3892 -138.9
 5.800  0.6877 -177.2   4.074   59.6  0.0925   -5.3  0.3878 -140.2
 5.900  0.6878 -178.2   4.006   58.7  0.0916   -5.9  0.3864 -141.3
 6.000  0.6874 -179.2   3.940   57.7  0.0913   -6.6  0.3847 -142.4
 6.100  0.6868  179.7   3.872   56.7  0.0914   -7.3  0.3843 -143.6
 6.200  0.6865  178.5   3.806   55.7  0.0909   -7.8  0.3839 -144.8
 6.300  0.6866  177.5   3.742   54.8  0.0905   -8.2  0.3828 -145.9
 6.400  0.6864  176.5   3.680   54.0  0.0906   -8.7  0.3820 -147.1
 6.500  0.6858  175.5   3.620   53.0  0.0904   -9.1  0.3812 -148.3
 6.600  0.6858  174.5   3.561   52.1  0.0896   -9.7  0.3807 -149.5
 6.700  0.6866  173.5   3.506   51.1  0.0891  -10.3  0.3811 -150.7
 6.800  0.6871  172.6   3.452   50.2  0.0890  -11.0  0.3806 -151.8
 6.900  0.6870  171.7   3.394   49.3  0.0885  -11.4  0.3795 -152.9
 7.000  0.6872  170.7   3.336   48.4  0.0883  -11.5  0.3791 -153.8
 7.100  0.6879  169.8   3.280   47.6  0.0883  -11.8  0.3790 -154.9
 7.200  0.6886  169.0   3.229   46.7  0.0876  -12.3  0.3793 -156.1
 7.300  0.6886  168.2   3.184   45.8  0.0868  -12.7  0.3797 -157.2
 7.400  0.6892  167.4   3.140   45.0  0.0856  -13.3  0.3802 -158.2
 7.500  0.6911  166.6   3.093   44.1  0.0845  -14.1  0.3806 -159.3
 7.600  0.6928  165.7   3.046   43.4  0.0845  -14.7  0.3809 -160.3
 7.700  0.6941  164.9   3.005   42.7  0.0849  -14.7  0.3813 -161.4
 7.800  0.6957  164.0   2.968   41.9  0.0847  -15.0  0.3819 -162.5
 7.900  0.6970  163.1   2.932   41.0  0.0838  -15.5  0.3816 -163.6
 8.000  0.6979  162.2   2.896   40.1  0.0827  -15.9  0.3805 -164.5
 8.500  0.6979  157.4   2.704   35.5  0.0811  -19.6  0.3821 -169.4
 9.000  0.6963  153.9   2.516   31.4  0.0778  -21.1  0.3845 -173.7
 9.500  0.6947  150.3   2.370   27.4  0.0738  -23.2  0.3878 -177.7
10.000  0.6885  147.1   2.210   23.4  0.0702  -24.1  0.3890  178.3
10.500  0.6839  144.2   2.081   19.6  0.0657  -26.0  0.3960  175.1
11.000  0.6993  141.7   1.967   16.6  0.0590  -26.9  0.4021  171.6
11.500  0.6976  138.8   1.875   13.0  0.0559  -24.3  0.4100  168.6
12.000  0.7002  136.3   1.777    9.3  0.0540  -24.4  0.4181  165.7
!
!  f       NFmin   Gammaopt  rn/50
! GHz       dB    MAG  ANG    -
 0.450      0.43  0.42    3   0.14
 0.900      0.45  0.41   16   0.13
 1.500      0.47  0.42   30   0.11
 1.900      0.50  0.43   38   0.11
 2.400      0.53  0.42   50   0.11
 3.500      0.62  0.43   68   0.09
 5.500      0.82  0.44  100   0.09
 8.000      1.08  0.41  138   0.08
10.000      1.28  0.43  164   0.06
12.000      1.48  0.46 -164   0.05
!
! (c) 2012  Infineon Technologies AG, Munich
