! Infineon Technologies  Discrete & RF Semiconductors
! BFR740L3RH
! VCE =  3.0 V,  IC =  10 mA
! Common Emitter S-Parameters:                            May 2012
# GHz  S  MA  R  50
!  f         S11            S21            S12            S22
! GHz     MAG   ANG      MAG   ANG      MAG   ANG      MAG   ANG
 0.450  0.8871  -35.9  22.238  158.0  0.0232   79.1  0.9495  -23.4
 0.500  0.8787  -39.6  21.946  155.5  0.0252   72.3  0.9348  -25.6
 0.600  0.8675  -47.0  21.391  150.9  0.0299   63.9  0.9080  -30.1
 0.700  0.8570  -54.0  20.771  146.6  0.0345   59.7  0.8818  -34.5
 0.800  0.8458  -60.6  20.092  142.4  0.0382   56.6  0.8546  -38.7
 0.900  0.8352  -66.9  19.407  138.6  0.0412   53.5  0.8273  -42.6
 1.000  0.8258  -72.9  18.729  135.0  0.0440   50.4  0.8008  -46.3
 1.100  0.8175  -78.5  18.064  131.6  0.0466   47.5  0.7744  -49.8
 1.200  0.8090  -83.8  17.411  128.3  0.0492   44.9  0.7480  -53.3
 1.300  0.8001  -88.9  16.760  125.2  0.0515   42.5  0.7227  -56.5
 1.400  0.7920  -93.7  16.131  122.2  0.0530   40.4  0.6987  -59.5
 1.500  0.7849  -98.1  15.537  119.4  0.0546   38.4  0.6761  -62.6
 1.600  0.7788 -102.3  14.967  116.8  0.0561   36.1  0.6545  -65.4
 1.700  0.7714 -106.6  14.398  114.2  0.0571   34.1  0.6330  -68.1
 1.800  0.7643 -110.6  13.859  111.8  0.0584   32.5  0.6117  -70.5
 1.900  0.7598 -114.1  13.369  109.5  0.0600   30.9  0.5925  -72.9
 2.000  0.7547 -117.6  12.889  107.3  0.0607   29.3  0.5756  -75.2
 2.100  0.7488 -120.9  12.431  105.3  0.0613   27.9  0.5580  -77.4
 2.200  0.7449 -123.8  12.009  103.4  0.0620   26.9  0.5412  -79.4
 2.300  0.7413 -126.8  11.600  101.5  0.0626   25.5  0.5273  -81.6
 2.400  0.7370 -129.7  11.208   99.7  0.0633   24.1  0.5141  -83.6
 2.500  0.7328 -132.2  10.854   98.0  0.0639   22.6  0.5011  -85.5
 2.600  0.7293 -134.6  10.523   96.4  0.0645   21.2  0.4886  -87.3
 2.700  0.7266 -137.0  10.198   94.7  0.0648   20.6  0.4768  -89.1
 2.800  0.7239 -139.4   9.888   93.2  0.0646   20.0  0.4662  -90.8
 2.900  0.7209 -141.7   9.600   91.6  0.0649   18.9  0.4565  -92.4
 3.000  0.7182 -143.9   9.321   90.1  0.0651   18.2  0.4467  -94.0
 3.100  0.7158 -145.9   9.052   88.7  0.0650   17.5  0.4374  -95.6
 3.200  0.7142 -147.9   8.800   87.3  0.0651   16.4  0.4297  -97.3
 3.300  0.7125 -150.0   8.562   85.9  0.0652   15.3  0.4220  -99.0
 3.400  0.7103 -151.9   8.334   84.5  0.0654   14.5  0.4144 -100.6
 3.500  0.7081 -153.6   8.108   83.2  0.0659   13.9  0.4075 -102.2
 3.600  0.7059 -155.3   7.889   81.9  0.0661   13.2  0.4000 -103.7
 3.700  0.7040 -156.9   7.685   80.7  0.0656   12.9  0.3930 -105.2
 3.800  0.7025 -158.5   7.493   79.4  0.0650   12.4  0.3869 -106.4
 3.900  0.7018 -159.9   7.318   78.3  0.0651   11.7  0.3821 -107.5
 4.000  0.7020 -161.3   7.157   77.2  0.0652   11.1  0.3788 -108.7
 4.100  0.7020 -162.7   6.991   76.0  0.0654   10.5  0.3747 -110.1
 4.200  0.7016 -164.1   6.821   74.8  0.0659   10.1  0.3703 -111.3
 4.300  0.7014 -165.5   6.660   73.7  0.0659    9.6  0.3671 -112.8
 4.400  0.7015 -166.9   6.508   72.6  0.0660    9.2  0.3635 -114.3
 4.500  0.7008 -168.2   6.365   71.5  0.0666    9.0  0.3595 -115.6
 4.600  0.6996 -169.7   6.229   70.5  0.0668    8.5  0.3564 -116.8
 4.700  0.6988 -171.0   6.097   69.4  0.0664    7.6  0.3536 -118.2
 4.800  0.6978 -172.3   5.975   68.5  0.0659    6.9  0.3498 -119.7
 4.900  0.6973 -173.6   5.860   67.5  0.0657    6.6  0.3460 -120.9
 5.000  0.6979 -174.8   5.744   66.5  0.0656    6.5  0.3429 -122.1
 5.100  0.6979 -175.9   5.631   65.4  0.0654    5.9  0.3404 -123.2
 5.200  0.6972 -177.0   5.516   64.3  0.0658    5.5  0.3381 -124.2
 5.300  0.6967 -178.1   5.407   63.4  0.0662    5.2  0.3360 -125.4
 5.400  0.6968 -179.1   5.308   62.4  0.0654    4.4  0.3351 -126.9
 5.500  0.6972  179.8   5.215   61.5  0.0649    4.1  0.3345 -128.0
 5.600  0.6974  178.8   5.121   60.5  0.0650    4.2  0.3333 -129.1
 5.700  0.6970  177.8   5.022   59.5  0.0646    3.9  0.3318 -130.4
 5.800  0.6973  176.8   4.928   58.5  0.0644    2.9  0.3311 -131.7
 5.900  0.6977  175.9   4.845   57.6  0.0646    2.1  0.3300 -132.7
 6.000  0.6974  174.9   4.765   56.8  0.0643    1.8  0.3282 -133.8
 6.100  0.6971  173.9   4.683   55.8  0.0641    1.9  0.3275 -134.9
 6.200  0.6973  172.9   4.602   54.9  0.0643    1.9  0.3269 -136.0
 6.300  0.6979  172.0   4.524   54.0  0.0640    1.7  0.3261 -137.1
 6.400  0.6980  171.0   4.448   53.2  0.0635    1.3  0.3257 -138.3
 6.500  0.6973  170.1   4.375   52.3  0.0634    0.9  0.3252 -139.5
 6.600  0.6975  169.2   4.303   51.4  0.0629    0.6  0.3250 -140.7
 6.700  0.6992  168.3   4.238   50.5  0.0626    0.3  0.3253 -141.9
 6.800  0.7004  167.4   4.173   49.6  0.0628    0.2  0.3247 -143.0
 6.900  0.7002  166.6   4.101   48.7  0.0622    0.3  0.3240 -144.0
 7.000  0.7001  165.8   4.029   47.9  0.0614   -0.1  0.3250 -145.0
 7.100  0.7009  165.0   3.961   47.0  0.0612   -1.3  0.3257 -146.1
 7.200  0.7012  164.3   3.900   46.2  0.0610   -1.6  0.3257 -147.3
 7.300  0.7008  163.5   3.846   45.4  0.0608   -1.5  0.3259 -148.5
 7.400  0.7016  162.8   3.792   44.6  0.0606   -1.9  0.3260 -149.4
 7.500  0.7034  162.1   3.734   43.8  0.0601   -2.3  0.3264 -150.3
 7.600  0.7045  161.3   3.676   43.1  0.0598   -1.9  0.3266 -151.5
 7.700  0.7064  160.5   3.628   42.4  0.0602   -1.8  0.3270 -152.8
 7.800  0.7091  159.8   3.585   41.6  0.0603   -1.8  0.3273 -154.0
 7.900  0.7107  158.9   3.542   40.8  0.0597   -1.5  0.3267 -155.0
 8.000  0.7117  157.8   3.501   39.9  0.0590   -1.4  0.3257 -155.9
 8.500  0.7130  153.4   3.271   35.5  0.0573   -4.7  0.3290 -160.9
 9.000  0.7106  149.9   3.046   31.5  0.0545   -5.4  0.3325 -165.4
 9.500  0.7065  146.4   2.868   27.6  0.0528   -5.4  0.3360 -169.2
10.000  0.7038  143.5   2.678   23.7  0.0504   -6.1  0.3374 -173.3
10.500  0.6944  141.1   2.515   20.0  0.0481   -3.6  0.3471 -176.5
11.000  0.7111  139.0   2.384   17.1  0.0429    0.3  0.3547  179.7
11.500  0.7084  136.0   2.274   13.5  0.0432    2.4  0.3611  176.5
12.000  0.7089  133.7   2.152    9.9  0.0435    5.6  0.3722  173.9
!
!  f       NFmin   Gammaopt  rn/50
! GHz       dB    MAG  ANG    -
 0.450      0.59  0.25    4   0.12
 0.900      0.60  0.25   15   0.12
 1.500      0.61  0.26   33   0.10
 1.900      0.63  0.27   43   0.11
 2.400      0.65  0.30   52   0.10
 3.500      0.71  0.29   72   0.10
 5.500      0.86  0.31  103   0.09
 8.000      1.06  0.33  142   0.08
10.000      1.24  0.35  168   0.07
12.000      1.41  0.39 -158   0.07
!
! (c) 2012  Infineon Technologies AG, Munich
