! Infineon Technologies  Discrete & RF Semiconductors
! BFR840L3RHESD
! VCE =  2.0 V,  IC =  40 mA
! Common Emitter S-Parameters:                            Jun 2012
# GHz  S  MA  R  50
!  f         S11            S21            S12            S22
! GHz     MAG   ANG      MAG   ANG      MAG   ANG      MAG   ANG
 0.150  0.4861  -21.9  21.079  171.0  0.0060   53.3  0.6260   -6.9
 0.200  0.4900  -28.7  20.954  167.8  0.0073   57.9  0.6220   -9.8
 0.250  0.4943  -35.2  20.757  164.7  0.0087   59.3  0.6165  -12.5
 0.300  0.4992  -41.6  20.506  161.7  0.0100   59.1  0.6097  -15.0
 0.350  0.5048  -47.8  20.213  158.8  0.0112   58.2  0.6019  -17.4
 0.400  0.5111  -53.6  19.889  155.9  0.0125   56.9  0.5933  -19.7
 0.450  0.5181  -59.3  19.542  153.1  0.0137   55.5  0.5841  -21.9
 0.500  0.5255  -64.6  19.179  150.4  0.0148   54.0  0.5745  -24.0
 0.600  0.5413  -74.5  18.422  145.2  0.0170   51.4  0.5547  -27.9
 0.700  0.5572  -83.4  17.646  140.4  0.0190   49.0  0.5349  -31.5
 0.800  0.5724  -91.3  16.866  135.9  0.0208   47.0  0.5154  -34.9
 0.900  0.5863  -98.5  16.095  131.7  0.0223   45.3  0.4968  -38.0
 1.000  0.5988 -104.9  15.343  127.9  0.0235   43.7  0.4791  -40.8
 1.100  0.6099 -110.7  14.615  124.3  0.0245   42.2  0.4625  -43.4
 1.200  0.6198 -116.0  13.920  121.0  0.0254   40.7  0.4468  -45.8
 1.300  0.6285 -120.8  13.262  118.0  0.0261   39.1  0.4321  -48.0
 1.400  0.6365 -125.2  12.646  115.1  0.0267   37.6  0.4184  -50.1
 1.500  0.6437 -129.2  12.071  112.4  0.0272   36.1  0.4056  -52.0
 1.600  0.6503 -132.8  11.537  109.8  0.0278   34.7  0.3936  -53.8
 1.700  0.6564 -136.2  11.042  107.3  0.0283   33.3  0.3825  -55.6
 1.800  0.6619 -139.3  10.581  105.0  0.0288   32.2  0.3722  -57.2
 1.900  0.6670 -142.3  10.150  102.9  0.0293   31.2  0.3628  -58.8
 2.000  0.6715 -145.0   9.744  100.8  0.0298   30.4  0.3540  -60.3
 2.100  0.6755 -147.6   9.361   98.9  0.0302   29.9  0.3460  -61.8
 2.200  0.6789 -150.0   8.997   97.0  0.0305   29.5  0.3387  -63.2
 2.300  0.6817 -152.3   8.653   95.3  0.0308   29.3  0.3319  -64.5
 2.400  0.6840 -154.4   8.331   93.6  0.0309   29.1  0.3257  -65.9
 2.500  0.6858 -156.5   8.033   92.0  0.0309   29.0  0.3200  -67.2
 2.600  0.6872 -158.4   7.761   90.5  0.0308   28.7  0.3149  -68.5
 2.700  0.6885 -160.1   7.515   89.0  0.0307   28.4  0.3101  -69.8
 2.800  0.6900 -161.8   7.289   87.4  0.0306   27.8  0.3059  -71.1
 2.900  0.6924 -163.5   7.066   85.9  0.0307   27.2  0.3021  -72.4
 3.000  0.6965 -165.4   6.814   84.5  0.0312   26.6  0.2989  -73.5
 3.100  0.6943 -167.0   6.579   83.3  0.0314   27.0  0.2935  -74.8
 3.200  0.6955 -168.5   6.390   82.0  0.0315   26.9  0.2905  -76.0
 3.300  0.6968 -169.9   6.211   80.7  0.0316   26.9  0.2877  -77.3
 3.400  0.6982 -171.3   6.041   79.5  0.0317   27.0  0.2851  -78.5
 3.500  0.6995 -172.6   5.878   78.2  0.0318   27.0  0.2828  -79.8
 3.600  0.7008 -173.9   5.723   76.9  0.0320   27.1  0.2807  -81.1
 3.700  0.7020 -175.1   5.574   75.7  0.0321   27.2  0.2788  -82.3
 3.800  0.7032 -176.3   5.430   74.5  0.0322   27.4  0.2770  -83.6
 3.900  0.7043 -177.5   5.293   73.3  0.0323   27.5  0.2755  -84.8
 4.000  0.7054 -178.6   5.161   72.2  0.0324   27.6  0.2740  -86.1
 4.100  0.7065 -179.7   5.033   71.0  0.0326   27.8  0.2727  -87.4
 4.200  0.7074  179.2   4.911   69.9  0.0327   27.9  0.2715  -88.6
 4.300  0.7084  178.1   4.794   68.8  0.0328   28.0  0.2704  -89.9
 4.400  0.7093  177.0   4.682   67.8  0.0329   28.1  0.2693  -91.2
 4.500  0.7102  176.0   4.574   66.7  0.0330   28.1  0.2683  -92.5
 4.600  0.7110  175.0   4.470   65.7  0.0331   28.2  0.2674  -93.8
 4.700  0.7118  174.0   4.371   64.7  0.0332   28.3  0.2666  -95.1
 4.800  0.7127  173.0   4.275   63.7  0.0333   28.4  0.2659  -96.4
 4.900  0.7134  172.0   4.183   62.7  0.0335   28.5  0.2653  -97.7
 5.000  0.7142  171.0   4.095   61.7  0.0336   28.7  0.2649  -99.1
 5.100  0.7149  170.1   4.010   60.8  0.0337   28.9  0.2645 -100.4
 5.200  0.7156  169.2   3.929   59.8  0.0338   29.0  0.2643 -101.7
 5.300  0.7162  168.3   3.850   58.8  0.0340   29.2  0.2642 -103.0
 5.400  0.7168  167.4   3.774   57.9  0.0341   29.5  0.2643 -104.3
 5.500  0.7173  166.6   3.700   57.0  0.0342   29.7  0.2644 -105.6
 5.600  0.7178  165.7   3.629   56.0  0.0344   30.0  0.2646 -107.0
 5.700  0.7182  164.9   3.560   55.1  0.0345   30.2  0.2649 -108.3
 5.800  0.7186  164.1   3.494   54.2  0.0346   30.5  0.2653 -109.6
 5.900  0.7190  163.3   3.429   53.3  0.0348   30.8  0.2657 -110.9
 6.000  0.7193  162.5   3.367   52.4  0.0349   31.1  0.2661 -112.3
 6.100  0.7196  161.7   3.306   51.5  0.0350   31.3  0.2666 -113.6
 6.200  0.7200  160.9   3.247   50.6  0.0352   31.6  0.2672 -114.9
 6.300  0.7204  160.1   3.190   49.7  0.0354   31.8  0.2678 -116.2
 6.400  0.7208  159.4   3.134   48.8  0.0355   32.0  0.2685 -117.5
 6.500  0.7212  158.6   3.081   48.0  0.0357   32.2  0.2693 -118.8
 6.600  0.7218  157.9   3.029   47.1  0.0359   32.3  0.2701 -120.1
 6.700  0.7224  157.2   2.979   46.3  0.0360   32.5  0.2710 -121.4
 6.800  0.7231  156.5   2.930   45.5  0.0362   32.6  0.2719 -122.6
 6.900  0.7239  155.9   2.884   44.7  0.0363   32.8  0.2729 -123.9
 7.000  0.7248  155.2   2.838   43.9  0.0365   32.9  0.2739 -125.1
 7.100  0.7257  154.6   2.795   43.1  0.0366   33.0  0.2749 -126.3
 7.200  0.7268  153.9   2.752   42.3  0.0368   33.1  0.2759 -127.6
 7.300  0.7278  153.3   2.710   41.5  0.0370   33.2  0.2769 -128.8
 7.400  0.7290  152.6   2.668   40.7  0.0372   33.3  0.2780 -130.1
 7.500  0.7301  151.9   2.626   39.8  0.0374   33.4  0.2791 -131.5
 7.600  0.7311  151.1   2.583   39.0  0.0376   33.5  0.2802 -132.9
 7.700  0.7320  150.3   2.539   38.0  0.0378   33.6  0.2814 -134.3
 7.800  0.7328  149.4   2.494   37.1  0.0380   33.7  0.2827 -135.9
 7.900  0.7334  148.5   2.446   36.0  0.0382   33.8  0.2842 -137.6
 8.000  0.7337  147.5   2.396   34.9  0.0383   34.0  0.2858 -139.3
 8.500  0.7335  144.7   2.262   31.7  0.0385   34.7  0.2910 -144.1
 9.000  0.7322  141.7   2.121   28.2  0.0387   36.1  0.2980 -149.3
 9.500  0.7302  138.8   1.982   24.4  0.0391   38.5  0.3067 -154.7
10.000  0.7283  136.0   1.852   20.5  0.0399   41.4  0.3170 -159.8
10.500  0.7275  133.5   1.736   16.9  0.0417   44.6  0.3281 -164.6
11.000  0.7281  131.2   1.634   13.5  0.0446   47.3  0.3401 -169.0
11.500  0.7299  129.1   1.546   10.2  0.0482   48.8  0.3529 -173.2
12.000  0.7324  127.1   1.467    6.9  0.0521   49.0  0.3668 -177.3
!
!  f       NFmin   Gammaopt  rn/50
! GHz       dB    MAG  ANG    -
!
! noise parameter not available yet for this operation point!
!
! (c) 2012  Infineon Technologies AG, Munich
