! Infineon Technologies  Discrete & RF Semiconductors
! BFR840L3RHESD
! VCE =  1.8 V,  IC =  38 mA
! Common Emitter S-Parameters:                            Jun 2012
# GHz  S  MA  R  50
!  f         S11            S21            S12            S22
! GHz     MAG   ANG      MAG   ANG      MAG   ANG      MAG   ANG
 0.150  0.5091  -22.0  20.967  170.7  0.0067   52.5  0.6116   -7.2
 0.200  0.5140  -28.9  20.834  167.5  0.0078   55.1  0.6072  -10.1
 0.250  0.5185  -35.5  20.627  164.3  0.0091   56.2  0.6014  -12.9
 0.300  0.5232  -41.9  20.363  161.2  0.0104   56.5  0.5944  -15.6
 0.350  0.5282  -48.1  20.057  158.2  0.0118   56.2  0.5865  -18.1
 0.400  0.5337  -54.0  19.719  155.3  0.0131   55.6  0.5778  -20.6
 0.450  0.5398  -59.6  19.357  152.5  0.0145   54.7  0.5687  -22.9
 0.500  0.5464  -65.0  18.980  149.7  0.0157   53.8  0.5592  -25.1
 0.600  0.5607  -75.0  18.196  144.4  0.0180   51.6  0.5396  -29.3
 0.700  0.5754  -84.0  17.395  139.5  0.0200   49.4  0.5197  -33.1
 0.800  0.5897  -92.0  16.595  135.0  0.0216   47.1  0.5001  -36.5
 0.900  0.6029  -99.2  15.808  130.8  0.0230   44.9  0.4811  -39.6
 1.000  0.6146 -105.6  15.042  127.0  0.0241   42.9  0.4630  -42.5
 1.100  0.6249 -111.4  14.305  123.4  0.0250   41.0  0.4458  -45.2
 1.200  0.6339 -116.7  13.605  120.1  0.0259   39.3  0.4298  -47.6
 1.300  0.6418 -121.5  12.945  117.1  0.0266   37.9  0.4148  -49.9
 1.400  0.6489 -125.9  12.329  114.2  0.0272   36.6  0.4011  -52.0
 1.500  0.6553 -129.9  11.757  111.5  0.0279   35.5  0.3884  -54.0
 1.600  0.6612 -133.5  11.228  108.9  0.0284   34.5  0.3768  -56.0
 1.700  0.6665 -136.9  10.738  106.5  0.0290   33.6  0.3661  -57.8
 1.800  0.6715 -140.0  10.284  104.2  0.0294   32.7  0.3564  -59.5
 1.900  0.6759 -142.9   9.859  102.1  0.0299   31.9  0.3473  -61.1
 2.000  0.6798 -145.7   9.460  100.1  0.0302   31.0  0.3390  -62.7
 2.100  0.6832 -148.2   9.082   98.1  0.0306   30.1  0.3312  -64.2
 2.200  0.6861 -150.6   8.724   96.3  0.0308   29.2  0.3241  -65.6
 2.300  0.6886 -152.9   8.385   94.6  0.0311   28.4  0.3174  -67.0
 2.400  0.6906 -155.0   8.068   93.0  0.0313   27.6  0.3114  -68.4
 2.500  0.6925 -157.0   7.776   91.4  0.0315   27.0  0.3059  -69.7
 2.600  0.6942 -158.9   7.512   89.8  0.0317   26.7  0.3011  -71.1
 2.700  0.6959 -160.6   7.274   88.3  0.0319   26.5  0.2969  -72.5
 2.800  0.6975 -162.4   7.055   86.8  0.0321   26.6  0.2932  -73.8
 2.900  0.6990 -164.1   6.836   85.3  0.0322   26.8  0.2897  -75.0
 3.000  0.7002 -165.9   6.581   83.9  0.0322   26.7  0.2857  -76.0
 3.100  0.7000 -167.5   6.359   82.8  0.0323   26.0  0.2813  -77.5
 3.200  0.7012 -168.9   6.176   81.5  0.0324   26.0  0.2785  -78.8
 3.300  0.7024 -170.4   6.002   80.2  0.0325   25.9  0.2759  -80.1
 3.400  0.7037 -171.7   5.837   78.9  0.0325   25.9  0.2735  -81.5
 3.500  0.7050 -173.0   5.679   77.7  0.0325   25.9  0.2714  -82.8
 3.600  0.7062 -174.3   5.527   76.4  0.0325   26.0  0.2695  -84.1
 3.700  0.7074 -175.6   5.382   75.2  0.0326   26.0  0.2677  -85.4
 3.800  0.7085 -176.8   5.243   74.0  0.0326   26.1  0.2661  -86.7
 3.900  0.7095 -177.9   5.109   72.8  0.0327   26.3  0.2647  -88.0
 4.000  0.7106 -179.1   4.981   71.7  0.0327   26.4  0.2635  -89.3
 4.100  0.7115  179.8   4.857   70.6  0.0328   26.6  0.2623  -90.6
 4.200  0.7124  178.7   4.739   69.5  0.0330   26.7  0.2613  -91.9
 4.300  0.7133  177.7   4.625   68.4  0.0331   26.9  0.2603  -93.2
 4.400  0.7141  176.6   4.516   67.3  0.0333   27.1  0.2595  -94.6
 4.500  0.7149  175.6   4.411   66.3  0.0335   27.2  0.2587  -95.9
 4.600  0.7157  174.5   4.311   65.3  0.0336   27.4  0.2580  -97.2
 4.700  0.7165  173.5   4.214   64.3  0.0338   27.6  0.2574  -98.5
 4.800  0.7172  172.6   4.122   63.3  0.0340   27.7  0.2569  -99.8
 4.900  0.7179  171.6   4.033   62.3  0.0342   27.9  0.2564 -101.1
 5.000  0.7186  170.6   3.948   61.4  0.0343   28.0  0.2561 -102.4
 5.100  0.7193  169.7   3.866   60.4  0.0345   28.1  0.2559 -103.8
 5.200  0.7199  168.8   3.787   59.4  0.0346   28.2  0.2558 -105.1
 5.300  0.7204  167.9   3.711   58.5  0.0348   28.4  0.2558 -106.4
 5.400  0.7209  167.1   3.637   57.6  0.0349   28.5  0.2560 -107.7
 5.500  0.7213  166.2   3.566   56.6  0.0350   28.6  0.2562 -109.0
 5.600  0.7216  165.4   3.497   55.7  0.0352   28.7  0.2566 -110.4
 5.700  0.7220  164.5   3.431   54.8  0.0353   28.9  0.2570 -111.7
 5.800  0.7222  163.7   3.366   53.9  0.0354   29.0  0.2576 -113.0
 5.900  0.7225  162.9   3.304   53.0  0.0356   29.2  0.2582 -114.4
 6.000  0.7228  162.1   3.243   52.1  0.0357   29.4  0.2589 -115.7
 6.100  0.7231  161.3   3.185   51.2  0.0359   29.6  0.2597 -117.0
 6.200  0.7234  160.5   3.128   50.3  0.0360   29.8  0.2605 -118.3
 6.300  0.7238  159.7   3.072   49.4  0.0361   30.0  0.2614 -119.6
 6.400  0.7242  159.0   3.019   48.6  0.0362   30.2  0.2624 -120.9
 6.500  0.7247  158.2   2.967   47.7  0.0363   30.4  0.2634 -122.2
 6.600  0.7252  157.5   2.917   46.9  0.0364   30.6  0.2644 -123.5
 6.700  0.7258  156.8   2.868   46.0  0.0365   30.8  0.2655 -124.8
 6.800  0.7265  156.1   2.822   45.2  0.0366   31.0  0.2666 -126.0
 6.900  0.7273  155.5   2.777   44.4  0.0367   31.3  0.2677 -127.3
 7.000  0.7281  154.8   2.733   43.6  0.0368   31.6  0.2688 -128.5
 7.100  0.7290  154.2   2.691   42.9  0.0369   31.8  0.2700 -129.8
 7.200  0.7299  153.6   2.649   42.1  0.0371   32.1  0.2712 -131.0
 7.300  0.7309  152.9   2.609   41.3  0.0372   32.4  0.2723 -132.3
 7.400  0.7319  152.2   2.569   40.5  0.0373   32.6  0.2736 -133.6
 7.500  0.7329  151.5   2.528   39.6  0.0375   32.9  0.2748 -134.9
 7.600  0.7338  150.8   2.487   38.8  0.0376   33.1  0.2762 -136.3
 7.700  0.7346  149.9   2.444   37.8  0.0378   33.3  0.2776 -137.8
 7.800  0.7353  149.1   2.400   36.9  0.0379   33.6  0.2791 -139.3
 7.900  0.7359  148.1   2.354   35.8  0.0380   33.8  0.2808 -141.0
 8.000  0.7362  147.1   2.306   34.7  0.0381   34.1  0.2827 -142.7
 8.500  0.7359  144.4   2.176   31.6  0.0382   35.0  0.2885 -147.4
 9.000  0.7346  141.4   2.041   28.0  0.0385   36.5  0.2961 -152.5
 9.500  0.7326  138.5   1.907   24.3  0.0389   38.7  0.3052 -157.7
10.000  0.7307  135.7   1.781   20.5  0.0399   41.4  0.3158 -162.6
10.500  0.7299  133.2   1.670   16.9  0.0417   44.2  0.3273 -167.3
11.000  0.7304  130.9   1.572   13.5  0.0445   46.5  0.3396 -171.7
11.500  0.7322  128.8   1.487   10.3  0.0479   47.7  0.3526 -175.8
12.000  0.7347  126.8   1.410    7.0  0.0517   47.7  0.3665 -179.7
!
!  f       NFmin   Gammaopt  rn/50
! GHz       dB    MAG  ANG    -
!
! noise parameter not available yet for this operation point!
!
! (c) 2012  Infineon Technologies AG, Munich
