! Infineon Technologies  Discrete & RF Semiconductors
! BFR840L3RHESD
! VCE =  1.5 V,  IC =  38 mA
! Common Emitter S-Parameters:                            Jun 2012
# GHz  S  MA  R  50
!  f         S11            S21            S12            S22
! GHz     MAG   ANG      MAG   ANG      MAG   ANG      MAG   ANG
 0.150  0.4166  -28.5  15.967  169.6  0.0074   44.9  0.4763   -7.9
 0.200  0.4273  -37.1  15.825  166.0  0.0084   48.4  0.4722  -11.0
 0.250  0.4384  -45.2  15.623  162.6  0.0096   49.9  0.4668  -13.9
 0.300  0.4500  -52.7  15.376  159.3  0.0110   50.1  0.4605  -16.7
 0.350  0.4623  -59.8  15.095  156.1  0.0125   49.6  0.4534  -19.3
 0.400  0.4752  -66.5  14.790  152.9  0.0139   48.9  0.4458  -21.8
 0.450  0.4887  -72.7  14.469  149.9  0.0154   48.0  0.4379  -24.2
 0.500  0.5025  -78.5  14.138  147.0  0.0167   47.0  0.4298  -26.5
 0.600  0.5302  -88.8  13.461  141.5  0.0192   45.2  0.4133  -30.7
 0.700  0.5569  -97.8  12.783  136.4  0.0212   43.5  0.3970  -34.5
 0.800  0.5812 -105.5  12.117  131.7  0.0228   41.8  0.3812  -37.9
 0.900  0.6025 -112.3  11.472  127.4  0.0240   40.1  0.3663  -41.0
 1.000  0.6208 -118.3  10.854  123.5  0.0249   38.4  0.3523  -43.8
 1.100  0.6362 -123.7  10.267  120.0  0.0256   36.8  0.3393  -46.3
 1.200  0.6492 -128.5   9.716  116.7  0.0263   35.1  0.3273  -48.6
 1.300  0.6604 -132.8   9.204  113.7  0.0269   33.5  0.3165  -50.8
 1.400  0.6700 -136.7   8.731  110.9  0.0275   32.0  0.3066  -52.9
 1.500  0.6786 -140.3   8.298  108.2  0.0281   30.6  0.2978  -54.8
 1.600  0.6863 -143.6   7.902  105.7  0.0288   29.5  0.2898  -56.7
 1.700  0.6933 -146.6   7.540  103.4  0.0294   28.5  0.2827  -58.5
 1.800  0.6997 -149.3   7.206  101.1  0.0299   27.7  0.2763  -60.3
 1.900  0.7053 -151.9   6.896   99.0  0.0303   27.2  0.2704  -62.0
 2.000  0.7102 -154.2   6.606   97.0  0.0306   26.8  0.2652  -63.6
 2.100  0.7145 -156.5   6.331   95.2  0.0307   26.6  0.2603  -65.1
 2.200  0.7180 -158.6   6.070   93.4  0.0308   26.5  0.2558  -66.6
 2.300  0.7208 -160.5   5.824   91.7  0.0309   26.5  0.2517  -68.0
 2.400  0.7232 -162.4   5.595   90.2  0.0310   26.6  0.2480  -69.5
 2.500  0.7253 -164.2   5.386   88.6  0.0311   26.6  0.2447  -70.9
 2.600  0.7272 -165.9   5.198   87.1  0.0313   26.5  0.2419  -72.4
 2.700  0.7293 -167.5   5.033   85.6  0.0317   26.3  0.2395  -73.9
 2.800  0.7315 -169.0   4.882   84.1  0.0321   26.0  0.2374  -75.4
 2.900  0.7338 -170.5   4.728   82.6  0.0322   25.4  0.2354  -76.7
 3.000  0.7358 -172.2   4.538   81.3  0.0317   24.7  0.2330  -77.8
 3.100  0.7348 -173.5   4.385   80.3  0.0320   24.9  0.2307  -79.5
 3.200  0.7362 -174.8   4.257   79.0  0.0321   24.8  0.2294  -80.9
 3.300  0.7377 -176.1   4.136   77.7  0.0322   24.7  0.2282  -82.4
 3.400  0.7391 -177.3   4.020   76.5  0.0323   24.7  0.2272  -83.8
 3.500  0.7405 -178.5   3.910   75.2  0.0323   24.7  0.2264  -85.3
 3.600  0.7418 -179.6   3.804   74.0  0.0324   24.7  0.2258  -86.7
 3.700  0.7430  179.2   3.703   72.8  0.0325   24.8  0.2253  -88.1
 3.800  0.7442  178.2   3.606   71.6  0.0326   25.0  0.2249  -89.6
 3.900  0.7452  177.1   3.512   70.4  0.0326   25.3  0.2247  -91.0
 4.000  0.7462  176.0   3.422   69.3  0.0327   25.6  0.2245  -92.4
 4.100  0.7471  175.0   3.336   68.1  0.0328   25.9  0.2244  -93.8
 4.200  0.7479  174.0   3.253   67.0  0.0329   26.2  0.2244  -95.3
 4.300  0.7486  173.0   3.174   66.0  0.0330   26.5  0.2245  -96.7
 4.400  0.7493  172.1   3.098   64.9  0.0332   26.9  0.2246  -98.1
 4.500  0.7500  171.1   3.025   63.9  0.0333   27.1  0.2248  -99.5
 4.600  0.7507  170.2   2.955   62.9  0.0334   27.4  0.2250 -100.9
 4.700  0.7513  169.2   2.888   61.9  0.0335   27.6  0.2253 -102.4
 4.800  0.7519  168.3   2.824   60.9  0.0337   27.8  0.2257 -103.8
 4.900  0.7525  167.4   2.762   60.0  0.0338   28.0  0.2262 -105.2
 5.000  0.7530  166.5   2.703   59.0  0.0339   28.2  0.2268 -106.6
 5.100  0.7535  165.7   2.646   58.1  0.0341   28.3  0.2275 -108.0
 5.200  0.7540  164.8   2.592   57.1  0.0342   28.5  0.2282 -109.4
 5.300  0.7545  164.0   2.539   56.2  0.0343   28.6  0.2291 -110.8
 5.400  0.7549  163.2   2.488   55.3  0.0344   28.8  0.2300 -112.2
 5.500  0.7552  162.4   2.439   54.3  0.0346   29.0  0.2310 -113.6
 5.600  0.7556  161.6   2.392   53.4  0.0347   29.1  0.2321 -115.0
 5.700  0.7559  160.8   2.346   52.5  0.0348   29.3  0.2333 -116.4
 5.800  0.7562  160.1   2.301   51.6  0.0350   29.5  0.2345 -117.8
 5.900  0.7564  159.3   2.258   50.7  0.0351   29.6  0.2358 -119.2
 6.000  0.7567  158.5   2.217   49.8  0.0352   29.8  0.2371 -120.6
 6.100  0.7569  157.8   2.176   48.9  0.0354   29.9  0.2385 -122.0
 6.200  0.7572  157.0   2.137   48.0  0.0355   30.1  0.2400 -123.3
 6.300  0.7575  156.3   2.099   47.1  0.0356   30.2  0.2415 -124.7
 6.400  0.7578  155.6   2.062   46.3  0.0358   30.3  0.2431 -126.0
 6.500  0.7581  154.9   2.026   45.4  0.0359   30.5  0.2447 -127.3
 6.600  0.7585  154.2   1.992   44.6  0.0360   30.6  0.2463 -128.6
 6.700  0.7588  153.6   1.959   43.8  0.0361   30.8  0.2480 -129.9
 6.800  0.7593  152.9   1.927   43.0  0.0363   31.0  0.2497 -131.2
 6.900  0.7598  152.3   1.896   42.2  0.0364   31.3  0.2514 -132.4
 7.000  0.7603  151.7   1.866   41.4  0.0366   31.5  0.2531 -133.6
 7.100  0.7609  151.1   1.837   40.6  0.0367   31.8  0.2549 -134.9
 7.200  0.7615  150.5   1.808   39.8  0.0369   32.1  0.2566 -136.1
 7.300  0.7622  149.8   1.780   39.0  0.0371   32.4  0.2584 -137.3
 7.400  0.7629  149.2   1.753   38.2  0.0373   32.7  0.2602 -138.6
 7.500  0.7636  148.5   1.725   37.4  0.0375   33.0  0.2621 -139.9
 7.600  0.7642  147.8   1.696   36.5  0.0378   33.3  0.2640 -141.3
 7.700  0.7648  147.0   1.667   35.6  0.0380   33.6  0.2661 -142.7
 7.800  0.7653  146.2   1.637   34.6  0.0382   33.9  0.2684 -144.2
 7.900  0.7656  145.3   1.605   33.6  0.0385   34.2  0.2708 -145.8
 8.000  0.7658  144.3   1.572   32.5  0.0387   34.5  0.2735 -147.6
 8.500  0.7653  141.8   1.482   29.5  0.0391   35.4  0.2814 -152.3
 9.000  0.7637  138.9   1.389   26.0  0.0395   36.7  0.2912 -157.2
 9.500  0.7615  136.2   1.298   22.3  0.0400   38.7  0.3026 -162.3
10.000  0.7594  133.5   1.212   18.5  0.0410   41.1  0.3151 -167.2
10.500  0.7583  131.1   1.136   15.0  0.0427   44.0  0.3283 -171.8
11.000  0.7587  128.8   1.069   11.7  0.0455   46.4  0.3420 -176.0
11.500  0.7603  126.7   1.011    8.5  0.0490   47.8  0.3561  180.0
12.000  0.7625  124.7   0.958    5.3  0.0529   47.7  0.3708  176.2
!
!  f       NFmin   Gammaopt  rn/50
! GHz       dB    MAG  ANG    -
!
! noise parameter not available yet for this operation point!
!
! (c) 2012  Infineon Technologies AG, Munich
