! Infineon Technologies  Discrete & RF Semiconductors
! BFR840L3RHESD
! VCE =  2.0 V,  IC =  28 mA
! Common Emitter S-Parameters:                            Jun 2012
# GHz  S  MA  R  50
!  f         S11            S21            S12            S22
! GHz     MAG   ANG      MAG   ANG      MAG   ANG      MAG   ANG
 0.150  0.7338  -11.3  36.821  173.2  0.0048   81.1  0.9704   -6.3
 0.200  0.7329  -15.0  36.723  170.9  0.0062   82.2  0.9678   -9.1
 0.250  0.7307  -18.6  36.546  168.6  0.0075   81.1  0.9632  -11.7
 0.300  0.7277  -22.2  36.307  166.3  0.0088   79.1  0.9571  -14.2
 0.350  0.7240  -25.8  36.018  164.0  0.0100   76.7  0.9496  -16.6
 0.400  0.7200  -29.3  35.690  161.7  0.0112   74.2  0.9409  -18.9
 0.450  0.7157  -32.8  35.330  159.5  0.0124   71.8  0.9314  -21.1
 0.500  0.7113  -36.2  34.945  157.3  0.0135   69.5  0.9211  -23.3
 0.600  0.7024  -42.8  34.116  153.0  0.0156   65.5  0.8991  -27.5
 0.700  0.6937  -49.2  33.229  149.0  0.0177   62.2  0.8759  -31.5
 0.800  0.6854  -55.3  32.303  145.1  0.0196   59.4  0.8524  -35.4
 0.900  0.6774  -61.1  31.350  141.5  0.0213   57.1  0.8288  -39.1
 1.000  0.6697  -66.7  30.380  138.1  0.0230   55.2  0.8055  -42.6
 1.100  0.6623  -72.0  29.405  134.8  0.0245   53.4  0.7825  -46.0
 1.200  0.6552  -77.0  28.434  131.7  0.0258   51.8  0.7597  -49.2
 1.300  0.6485  -81.8  27.478  128.8  0.0271   50.2  0.7372  -52.3
 1.400  0.6422  -86.5  26.543  125.9  0.0282   48.7  0.7151  -55.3
 1.500  0.6363  -90.9  25.636  123.2  0.0293   47.1  0.6934  -58.1
 1.600  0.6308  -95.1  24.760  120.6  0.0302   45.6  0.6721  -60.9
 1.700  0.6257  -99.1  23.919  118.1  0.0311   44.0  0.6515  -63.5
 1.800  0.6209 -103.0  23.111  115.7  0.0318   42.5  0.6317  -66.0
 1.900  0.6165 -106.7  22.336  113.5  0.0325   41.1  0.6128  -68.4
 2.000  0.6122 -110.2  21.593  111.3  0.0331   39.7  0.5949  -70.7
 2.100  0.6082 -113.5  20.880  109.3  0.0336   38.4  0.5780  -72.9
 2.200  0.6043 -116.7  20.198  107.4  0.0341   37.3  0.5622  -75.0
 2.300  0.6005 -119.6  19.546  105.6  0.0346   36.3  0.5473  -77.1
 2.400  0.5970 -122.5  18.928  103.8  0.0350   35.5  0.5333  -79.0
 2.500  0.5936 -125.1  18.346  102.2  0.0354   34.9  0.5201  -80.9
 2.600  0.5905 -127.6  17.802  100.5  0.0359   34.4  0.5075  -82.7
 2.700  0.5879 -130.1  17.294   98.9  0.0363   34.0  0.4955  -84.5
 2.800  0.5858 -132.4  16.818   97.4  0.0366   33.5  0.4840  -86.2
 2.900  0.5845 -134.8  16.355   95.8  0.0368   33.0  0.4734  -87.9
 3.000  0.5840 -137.4  15.875   94.2  0.0366   32.1  0.4642  -89.5
 3.100  0.5796 -139.5  15.385   92.9  0.0370   31.6  0.4526  -91.4
 3.200  0.5778 -141.6  14.976   91.5  0.0371   31.2  0.4436  -93.0
 3.300  0.5763 -143.6  14.587   90.2  0.0373   30.8  0.4353  -94.5
 3.400  0.5750 -145.5  14.216   88.8  0.0375   30.4  0.4275  -96.1
 3.500  0.5739 -147.3  13.861   87.6  0.0377   30.0  0.4201  -97.6
 3.600  0.5730 -149.0  13.520   86.3  0.0379   29.7  0.4132  -99.1
 3.700  0.5723 -150.7  13.193   85.0  0.0381   29.5  0.4067 -100.6
 3.800  0.5718 -152.4  12.878   83.8  0.0383   29.2  0.4006 -102.0
 3.900  0.5714 -154.0  12.574   82.6  0.0385   29.0  0.3949 -103.4
 4.000  0.5712 -155.5  12.282   81.4  0.0388   28.9  0.3895 -104.8
 4.100  0.5710 -157.0  12.001   80.3  0.0390   28.7  0.3845 -106.2
 4.200  0.5710 -158.5  11.730   79.2  0.0392   28.6  0.3797 -107.6
 4.300  0.5710 -160.0  11.469   78.1  0.0394   28.5  0.3752 -109.0
 4.400  0.5710 -161.4  11.218   77.0  0.0396   28.4  0.3709 -110.4
 4.500  0.5711 -162.8  10.976   76.0  0.0397   28.2  0.3668 -111.8
 4.600  0.5712 -164.2  10.744   75.0  0.0399   28.1  0.3629 -113.1
 4.700  0.5713 -165.6  10.521   74.0  0.0401   28.0  0.3591 -114.5
 4.800  0.5714 -166.9  10.306   73.0  0.0402   27.8  0.3555 -115.8
 4.900  0.5716 -168.2  10.100   72.0  0.0404   27.7  0.3521 -117.2
 5.000  0.5718 -169.5   9.902   71.0  0.0405   27.5  0.3489 -118.5
 5.100  0.5720 -170.7   9.710   70.1  0.0406   27.3  0.3458 -119.8
 5.200  0.5722 -171.9   9.526   69.1  0.0407   27.1  0.3430 -121.1
 5.300  0.5725 -173.1   9.347   68.2  0.0408   27.0  0.3405 -122.4
 5.400  0.5728 -174.2   9.175   67.2  0.0409   26.8  0.3381 -123.6
 5.500  0.5730 -175.3   9.007   66.3  0.0410   26.7  0.3359 -124.9
 5.600  0.5733 -176.4   8.845   65.4  0.0410   26.6  0.3339 -126.2
 5.700  0.5736 -177.5   8.687   64.4  0.0411   26.5  0.3321 -127.4
 5.800  0.5739 -178.5   8.534   63.5  0.0411   26.4  0.3305 -128.6
 5.900  0.5742 -179.6   8.385   62.6  0.0412   26.4  0.3290 -129.9
 6.000  0.5745  179.4   8.240   61.7  0.0412   26.4  0.3276 -131.1
 6.100  0.5749  178.4   8.099   60.8  0.0413   26.4  0.3264 -132.4
 6.200  0.5753  177.4   7.962   60.0  0.0413   26.4  0.3253 -133.6
 6.300  0.5757  176.4   7.828   59.1  0.0414   26.4  0.3243 -134.8
 6.400  0.5763  175.5   7.699   58.2  0.0415   26.4  0.3235 -136.0
 6.500  0.5770  174.6   7.573   57.4  0.0416   26.5  0.3227 -137.2
 6.600  0.5778  173.7   7.452   56.6  0.0417   26.5  0.3221 -138.4
 6.700  0.5788  172.8   7.334   55.7  0.0417   26.5  0.3216 -139.6
 6.800  0.5800  172.0   7.220   55.0  0.0418   26.5  0.3212 -140.8
 6.900  0.5813  171.2   7.111   54.2  0.0419   26.5  0.3209 -142.0
 7.000  0.5828  170.4   7.004   53.4  0.0421   26.5  0.3206 -143.2
 7.100  0.5845  169.6   6.902   52.6  0.0422   26.5  0.3204 -144.4
 7.200  0.5863  168.8   6.801   51.9  0.0423   26.5  0.3202 -145.6
 7.300  0.5882  168.0   6.703   51.1  0.0424   26.4  0.3200 -146.8
 7.400  0.5901  167.2   6.606   50.4  0.0425   26.4  0.3198 -148.1
 7.500  0.5921  166.2   6.509   49.6  0.0427   26.4  0.3195 -149.4
 7.600  0.5939  165.3   6.410   48.7  0.0428   26.3  0.3191 -150.7
 7.700  0.5955  164.2   6.309   47.8  0.0429   26.3  0.3186 -152.1
 7.800  0.5970  163.0   6.204   46.9  0.0429   26.2  0.3180 -153.6
 7.900  0.5981  161.8   6.094   45.8  0.0430   26.2  0.3174 -155.2
 8.000  0.5988  160.5   5.978   44.7  0.0430   26.2  0.3168 -156.8
 8.500  0.5990  156.9   5.666   41.6  0.0427   26.2  0.3153 -161.2
 9.000  0.5975  153.0   5.332   38.1  0.0423   26.8  0.3146 -165.8
 9.500  0.5948  149.4   4.996   34.4  0.0418   28.1  0.3152 -170.4
10.000  0.5922  146.2   4.678   30.6  0.0414   30.2  0.3173 -174.6
10.500  0.5907  143.4   4.395   27.2  0.0417   33.1  0.3207 -178.4
11.000  0.5909  141.0   4.149   23.9  0.0429   36.1  0.3256  178.3
11.500  0.5925  138.7   3.938   20.8  0.0450   38.5  0.3319  175.3
12.000  0.5951  136.7   3.753   17.8  0.0477   39.7  0.3403  172.7
!
!  f       NFmin   Gammaopt  rn/50
! GHz       dB    MAG  ANG    -
!
! noise parameter not available yet for this operation point!
!
! (c) 2012  Infineon Technologies AG, Munich
