! Infineon Technologies  Discrete & RF Semiconductors
! BFR840L3RHESD
! VCE =  0.5 V,  IC =  32 mA
! Common Emitter S-Parameters:                            Jun 2012
# GHz  S  MA  R  50
!  f         S11            S21            S12            S22
! GHz     MAG   ANG      MAG   ANG      MAG   ANG      MAG   ANG
 0.150  0.2205  -99.8   8.408  163.6  0.0150   21.6  0.0534 -101.4
 0.200  0.2837 -106.1   8.207  158.4  0.0166   24.2  0.0712 -107.0
 0.250  0.3397 -111.5   7.970  153.7  0.0183   26.0  0.0872 -111.8
 0.300  0.3898 -116.4   7.708  149.3  0.0200   27.3  0.1015 -116.1
 0.350  0.4351 -120.9   7.427  145.2  0.0217   28.1  0.1145 -120.0
 0.400  0.4760 -125.0   7.139  141.4  0.0232   28.5  0.1262 -123.5
 0.450  0.5130 -128.8   6.848  137.7  0.0246   28.6  0.1368 -126.8
 0.500  0.5465 -132.3   6.560  134.2  0.0258   28.5  0.1463 -129.8
 0.600  0.6036 -138.5   6.011  127.8  0.0279   27.7  0.1624 -135.1
 0.700  0.6486 -143.8   5.508  122.2  0.0294   26.6  0.1750 -139.6
 0.800  0.6831 -148.3   5.057  117.2  0.0305   25.2  0.1847 -143.4
 0.900  0.7089 -152.3   4.657  113.1  0.0313   23.7  0.1921 -146.7
 1.000  0.7277 -155.7   4.303  109.5  0.0318   22.4  0.1978 -149.5
 1.100  0.7416 -158.7   3.990  106.6  0.0322   21.3  0.2023 -151.9
 1.200  0.7522 -161.4   3.714  104.0  0.0326   20.4  0.2061 -153.9
 1.300  0.7608 -163.8   3.470  101.6  0.0330   19.8  0.2095 -155.7
 1.400  0.7685 -166.0   3.256   99.3  0.0334   19.5  0.2128 -157.3
 1.500  0.7757 -168.0   3.066   97.0  0.0339   19.4  0.2161 -158.7
 1.600  0.7826 -169.8   2.898   94.7  0.0343   19.3  0.2194 -160.0
 1.700  0.7891 -171.4   2.747   92.4  0.0347   19.3  0.2227 -161.1
 1.800  0.7950 -173.0   2.611   90.1  0.0351   19.3  0.2258 -162.2
 1.900  0.7999 -174.5   2.485   88.0  0.0354   19.2  0.2287 -163.2
 2.000  0.8035 -175.9   2.367   86.2  0.0356   19.0  0.2312 -164.2
 2.100  0.8057 -177.2   2.256   84.6  0.0357   18.7  0.2334 -165.1
 2.200  0.8067 -178.5   2.150   83.4  0.0358   18.4  0.2353 -166.0
 2.300  0.8069 -179.8   2.051   82.4  0.0358   18.1  0.2370 -166.8
 2.400  0.8069  179.1   1.961   81.4  0.0358   18.0  0.2387 -167.6
 2.500  0.8076  177.9   1.882   80.3  0.0358   18.2  0.2406 -168.3
 2.600  0.8094  176.9   1.817   78.8  0.0359   18.6  0.2430 -168.9
 2.700  0.8125  175.9   1.764   76.8  0.0361   19.2  0.2457 -169.5
 2.800  0.8162  174.9   1.718   74.7  0.0364   19.7  0.2486 -170.0
 2.900  0.8184  173.9   1.662   73.1  0.0364   19.8  0.2509 -170.7
 3.000  0.8145  172.7   1.567   73.8  0.0360   18.4  0.2513 -171.6
 3.100  0.8152  171.9   1.529   72.4  0.0372   19.3  0.2539 -172.2
 3.200  0.8162  171.0   1.484   71.2  0.0375   19.5  0.2561 -172.8
 3.300  0.8171  170.1   1.441   69.9  0.0377   19.7  0.2584 -173.4
 3.400  0.8180  169.3   1.400   68.7  0.0379   19.9  0.2606 -173.9
 3.500  0.8188  168.4   1.361   67.4  0.0381   20.1  0.2629 -174.5
 3.600  0.8195  167.6   1.322   66.2  0.0383   20.3  0.2651 -175.1
 3.700  0.8201  166.8   1.286   65.0  0.0385   20.5  0.2674 -175.6
 3.800  0.8206  166.0   1.251   63.9  0.0386   20.8  0.2696 -176.2
 3.900  0.8210  165.2   1.217   62.8  0.0388   21.0  0.2719 -176.7
 4.000  0.8214  164.4   1.185   61.7  0.0389   21.3  0.2741 -177.3
 4.100  0.8217  163.7   1.154   60.7  0.0391   21.5  0.2764 -177.8
 4.200  0.8220  162.9   1.125   59.6  0.0392   21.8  0.2787 -178.4
 4.300  0.8222  162.1   1.097   58.7  0.0394   22.0  0.2810 -178.9
 4.400  0.8224  161.4   1.070   57.7  0.0396   22.2  0.2833 -179.5
 4.500  0.8226  160.7   1.045   56.7  0.0399   22.4  0.2857 -180.0
 4.600  0.8227  159.9   1.021   55.8  0.0401   22.5  0.2880  179.5
 4.700  0.8229  159.2   0.998   54.9  0.0404   22.7  0.2904  178.9
 4.800  0.8230  158.5   0.976   53.9  0.0407   22.8  0.2927  178.4
 4.900  0.8231  157.8   0.955   53.0  0.0410   23.0  0.2951  177.8
 5.000  0.8232  157.1   0.935   52.1  0.0412   23.1  0.2974  177.3
 5.100  0.8232  156.4   0.915   51.2  0.0415   23.2  0.2998  176.7
 5.200  0.8232  155.7   0.897   50.3  0.0418   23.3  0.3022  176.2
 5.300  0.8232  155.1   0.879   49.4  0.0421   23.5  0.3045  175.6
 5.400  0.8231  154.4   0.862   48.6  0.0423   23.6  0.3069  175.1
 5.500  0.8229  153.8   0.845   47.7  0.0426   23.7  0.3093  174.5
 5.600  0.8228  153.1   0.829   46.8  0.0428   23.8  0.3117  174.0
 5.700  0.8226  152.5   0.813   45.9  0.0431   23.9  0.3141  173.4
 5.800  0.8224  151.8   0.798   45.0  0.0433   24.0  0.3165  172.9
 5.900  0.8222  151.2   0.784   44.2  0.0435   24.1  0.3190  172.3
 6.000  0.8220  150.5   0.770   43.3  0.0437   24.2  0.3214  171.8
 6.100  0.8219  149.9   0.756   42.5  0.0439   24.3  0.3239  171.2
 6.200  0.8218  149.3   0.743   41.6  0.0441   24.4  0.3263  170.7
 6.300  0.8217  148.6   0.730   40.8  0.0443   24.5  0.3288  170.1
 6.400  0.8216  148.0   0.718   40.0  0.0445   24.5  0.3312  169.6
 6.500  0.8216  147.4   0.706   39.2  0.0446   24.6  0.3337  169.1
 6.600  0.8216  146.8   0.694   38.4  0.0448   24.6  0.3361  168.5
 6.700  0.8217  146.3   0.683   37.6  0.0449   24.6  0.3386  168.0
 6.800  0.8217  145.7   0.672   36.9  0.0450   24.7  0.3410  167.5
 6.900  0.8218  145.2   0.661   36.1  0.0452   24.7  0.3434  167.0
 7.000  0.8219  144.6   0.651   35.4  0.0453   24.7  0.3458  166.5
 7.100  0.8221  144.1   0.641   34.6  0.0454   24.7  0.3483  166.0
 7.200  0.8222  143.6   0.631   33.9  0.0456   24.8  0.3507  165.5
 7.300  0.8223  143.0   0.622   33.1  0.0457   24.8  0.3532  165.0
 7.400  0.8224  142.5   0.613   32.4  0.0459   24.8  0.3557  164.4
 7.500  0.8225  141.9   0.603   31.6  0.0460   24.9  0.3584  163.8
 7.600  0.8226  141.3   0.593   30.8  0.0462   25.0  0.3611  163.2
 7.700  0.8226  140.6   0.583   30.0  0.0465   25.1  0.3640  162.5
 7.800  0.8224  139.9   0.573   29.1  0.0467   25.3  0.3670  161.8
 7.900  0.8222  139.1   0.562   28.1  0.0469   25.5  0.3702  161.1
 8.000  0.8218  138.3   0.551   27.1  0.0472   25.7  0.3736  160.2
 8.500  0.8203  136.1   0.521   24.3  0.0478   26.5  0.3829  158.0
 9.000  0.8181  133.6   0.490   21.2  0.0486   27.5  0.3932  155.5
 9.500  0.8154  131.1   0.460   18.0  0.0494   28.8  0.4040  153.0
10.000  0.8129  128.7   0.431   14.7  0.0504   30.2  0.4152  150.6
10.500  0.8113  126.5   0.405   11.8  0.0518   31.7  0.4263  148.2
11.000  0.8109  124.4   0.383    9.0  0.0540   32.9  0.4377  146.0
11.500  0.8115  122.4   0.364    6.5  0.0568   33.5  0.4492  143.8
12.000  0.8127  120.6   0.348    4.0  0.0601   33.0  0.4610  141.8
!
!  f       NFmin   Gammaopt  rn/50
! GHz       dB    MAG  ANG    -
!
! noise parameter not available yet for this operation point!
!
! (c) 2012  Infineon Technologies AG, Munich
