! Infineon Technologies  Discrete & RF Semiconductors
! BFR840L3RHESD
! VCE =  1.5 V,  IC =  25 mA
! Common Emitter S-Parameters:                            Jun 2012
# GHz  S  MA  R  50
!  f         S11            S21            S12            S22
! GHz     MAG   ANG      MAG   ANG      MAG   ANG      MAG   ANG
 0.150  0.7675  -11.3  36.523  173.2  0.0042   81.6  0.9747   -6.6
 0.200  0.7648  -14.9  36.423  170.8  0.0058   79.0  0.9728   -9.3
 0.250  0.7615  -18.5  36.244  168.5  0.0074   77.3  0.9686  -12.0
 0.300  0.7577  -22.0  36.002  166.1  0.0089   75.8  0.9625  -14.6
 0.350  0.7537  -25.6  35.710  163.8  0.0103   74.4  0.9548  -17.0
 0.400  0.7495  -29.1  35.377  161.5  0.0117   73.0  0.9460  -19.4
 0.450  0.7451  -32.5  35.013  159.3  0.0130   71.5  0.9362  -21.8
 0.500  0.7407  -35.9  34.623  157.1  0.0143   69.9  0.9258  -24.1
 0.600  0.7316  -42.4  33.787  152.8  0.0166   66.8  0.9035  -28.4
 0.700  0.7222  -48.7  32.895  148.7  0.0188   63.6  0.8801  -32.6
 0.800  0.7128  -54.7  31.967  144.9  0.0208   60.6  0.8562  -36.6
 0.900  0.7033  -60.5  31.014  141.2  0.0227   57.9  0.8324  -40.4
 1.000  0.6939  -66.0  30.048  137.8  0.0245   55.4  0.8086  -44.0
 1.100  0.6849  -71.2  29.077  134.5  0.0261   53.3  0.7851  -47.5
 1.200  0.6762  -76.2  28.112  131.4  0.0275   51.4  0.7618  -50.8
 1.300  0.6681  -81.1  27.160  128.5  0.0287   49.7  0.7390  -54.0
 1.400  0.6606  -85.7  26.230  125.6  0.0298   48.1  0.7166  -57.1
 1.500  0.6535  -90.0  25.327  122.9  0.0308   46.7  0.6949  -60.1
 1.600  0.6470  -94.2  24.455  120.3  0.0316   45.2  0.6738  -62.9
 1.700  0.6409  -98.2  23.616  117.8  0.0324   43.8  0.6534  -65.7
 1.800  0.6352 -102.1  22.812  115.4  0.0330   42.3  0.6339  -68.3
 1.900  0.6297 -105.7  22.042  113.2  0.0336   40.8  0.6153  -70.8
 2.000  0.6245 -109.2  21.304  111.0  0.0342   39.2  0.5976  -73.2
 2.100  0.6195 -112.5  20.598  109.0  0.0348   37.7  0.5808  -75.5
 2.200  0.6147 -115.7  19.924  107.1  0.0354   36.3  0.5649  -77.7
 2.300  0.6103 -118.6  19.281  105.3  0.0360   35.0  0.5499  -79.8
 2.400  0.6061 -121.5  18.670  103.6  0.0365   34.1  0.5357  -81.9
 2.500  0.6024 -124.1  18.095  101.9  0.0369   33.4  0.5223  -83.8
 2.600  0.5990 -126.7  17.555  100.3  0.0373   33.0  0.5098  -85.8
 2.700  0.5962 -129.0  17.051   98.7  0.0375   32.8  0.4982  -87.7
 2.800  0.5938 -131.4  16.576   97.1  0.0376   32.7  0.4873  -89.6
 2.900  0.5920 -133.8  16.117   95.5  0.0376   32.2  0.4771  -91.4
 3.000  0.5908 -136.4  15.648   94.0  0.0377   30.8  0.4674  -92.8
 3.100  0.5853 -138.5  15.160   92.6  0.0384   30.1  0.4556  -94.9
 3.200  0.5831 -140.6  14.757   91.3  0.0387   29.7  0.4468  -96.6
 3.300  0.5812 -142.6  14.372   89.9  0.0389   29.4  0.4385  -98.2
 3.400  0.5796 -144.5  14.005   88.6  0.0392   29.0  0.4308  -99.8
 3.500  0.5783 -146.3  13.654   87.3  0.0394   28.8  0.4236 -101.4
 3.600  0.5772 -148.1  13.317   86.0  0.0396   28.5  0.4168 -103.0
 3.700  0.5762 -149.8  12.994   84.8  0.0398   28.3  0.4104 -104.5
 3.800  0.5755 -151.5  12.683   83.6  0.0400   28.1  0.4045 -106.0
 3.900  0.5748 -153.1  12.383   82.4  0.0402   27.9  0.3989 -107.5
 4.000  0.5744 -154.7  12.095   81.2  0.0404   27.7  0.3937 -108.9
 4.100  0.5740 -156.2  11.817   80.1  0.0406   27.5  0.3888 -110.4
 4.200  0.5737 -157.7  11.549   78.9  0.0408   27.3  0.3842 -111.8
 4.300  0.5735 -159.2  11.291   77.9  0.0409   27.1  0.3798 -113.2
 4.400  0.5733 -160.6  11.043   76.8  0.0410   26.8  0.3756 -114.7
 4.500  0.5732 -162.0  10.804   75.8  0.0412   26.6  0.3717 -116.1
 4.600  0.5732 -163.4  10.575   74.7  0.0413   26.3  0.3679 -117.5
 4.700  0.5732 -164.8  10.355   73.7  0.0414   26.1  0.3642 -118.9
 4.800  0.5732 -166.2  10.143   72.7  0.0415   25.9  0.3607 -120.3
 4.900  0.5733 -167.5   9.939   71.8  0.0416   25.6  0.3574 -121.7
 5.000  0.5735 -168.8   9.743   70.8  0.0417   25.5  0.3543 -123.0
 5.100  0.5737 -170.0   9.554   69.8  0.0418   25.3  0.3513 -124.4
 5.200  0.5739 -171.2   9.372   68.9  0.0419   25.2  0.3485 -125.7
 5.300  0.5741 -172.4   9.196   67.9  0.0420   25.1  0.3460 -127.0
 5.400  0.5744 -173.6   9.025   67.0  0.0421   25.0  0.3436 -128.3
 5.500  0.5746 -174.7   8.860   66.1  0.0422   25.0  0.3415 -129.6
 5.600  0.5748 -175.8   8.700   65.1  0.0424   24.9  0.3395 -130.8
 5.700  0.5750 -176.9   8.544   64.2  0.0425   24.9  0.3377 -132.1
 5.800  0.5752 -177.9   8.393   63.3  0.0426   24.9  0.3361 -133.4
 5.900  0.5754 -179.0   8.245   62.4  0.0427   24.9  0.3347 -134.6
 6.000  0.5756  180.0   8.102   61.5  0.0427   24.8  0.3335 -135.8
 6.100  0.5758  179.0   7.963   60.6  0.0428   24.8  0.3325 -137.1
 6.200  0.5761  178.0   7.828   59.7  0.0429   24.8  0.3316 -138.3
 6.300  0.5765  177.0   7.696   58.9  0.0429   24.7  0.3308 -139.5
 6.400  0.5770  176.1   7.568   58.0  0.0430   24.7  0.3302 -140.7
 6.500  0.5776  175.1   7.444   57.2  0.0430   24.7  0.3298 -141.9
 6.600  0.5784  174.2   7.324   56.4  0.0431   24.6  0.3294 -143.1
 6.700  0.5793  173.4   7.208   55.5  0.0431   24.6  0.3292 -144.3
 6.800  0.5804  172.5   7.096   54.8  0.0432   24.6  0.3291 -145.5
 6.900  0.5817  171.7   6.988   54.0  0.0432   24.6  0.3290 -146.6
 7.000  0.5832  170.9   6.883   53.2  0.0433   24.5  0.3290 -147.8
 7.100  0.5848  170.1   6.781   52.4  0.0433   24.5  0.3291 -149.0
 7.200  0.5866  169.3   6.683   51.7  0.0434   24.5  0.3291 -150.2
 7.300  0.5884  168.4   6.586   50.9  0.0435   24.4  0.3292 -151.4
 7.400  0.5903  167.6   6.490   50.2  0.0435   24.3  0.3292 -152.6
 7.500  0.5923  166.6   6.394   49.4  0.0436   24.2  0.3291 -153.9
 7.600  0.5941  165.6   6.297   48.5  0.0436   24.1  0.3290 -155.2
 7.700  0.5958  164.6   6.197   47.6  0.0436   24.0  0.3288 -156.6
 7.800  0.5972  163.4   6.093   46.7  0.0436   23.8  0.3284 -158.1
 7.900  0.5984  162.1   5.984   45.7  0.0435   23.7  0.3280 -159.6
 8.000  0.5992  160.8   5.870   44.6  0.0434   23.6  0.3276 -161.2
 8.500  0.5995  157.2   5.562   41.5  0.0430   23.5  0.3264 -165.5
 9.000  0.5980  153.3   5.233   37.9  0.0425   24.1  0.3260 -170.0
 9.500  0.5953  149.7   4.902   34.2  0.0420   25.5  0.3266 -174.5
10.000  0.5927  146.4   4.589   30.5  0.0418   27.7  0.3286 -178.6
10.500  0.5912  143.6   4.311   27.1  0.0421   30.8  0.3318  177.7
11.000  0.5912  141.1   4.068   23.8  0.0433   33.9  0.3364  174.5
11.500  0.5924  138.9   3.861   20.7  0.0455   36.5  0.3425  171.6
12.000  0.5948  136.9   3.678   17.7  0.0483   38.1  0.3505  169.0
!
!  f       NFmin   Gammaopt  rn/50
! GHz       dB    MAG  ANG    -
!
! noise parameter not available yet for this operation point!
!
! (c) 2012  Infineon Technologies AG, Munich
