! Infineon Technologies  Discrete & RF Semiconductors
! BFR843EL3
! VCE =  1.0 V,  IC =  10 mA
! Common Emitter S-Parameters:                            Aug 2013
# GHz  S  MA  R  50
!  f         S11            S21            S12            S22
! GHz     MAG   ANG      MAG   ANG      MAG   ANG      MAG   ANG
 0.030  0.4840  -40.8  17.217  164.5  0.0474   27.3  0.5400  -37.4
 0.040  0.4066  -41.9  16.226  165.8  0.0490   22.7  0.4551  -38.0
 0.050  0.3577  -44.6  15.768  167.1  0.0653   24.2  0.4107  -37.4
 0.060  0.3176  -39.1  15.180  168.2  0.0553   12.0  0.3640  -36.0
 0.070  0.2930  -39.0  14.952  169.1  0.0521   14.1  0.3412  -33.9
 0.080  0.2774  -37.3  14.779  169.8  0.0526   12.5  0.3242  -32.8
 0.090  0.2629  -36.2  14.689  170.2  0.0534   11.0  0.3124  -31.4
 0.100  0.2540  -35.2  14.590  170.6  0.0539    8.9  0.3047  -30.5
 0.110  0.2457  -33.9  14.523  170.8  0.0531    9.7  0.2935  -29.5
 0.120  0.2410  -33.4  14.497  170.9  0.0539    8.9  0.2871  -28.2
 0.130  0.2343  -32.8  14.447  171.0  0.0545    8.7  0.2831  -27.8
 0.140  0.2307  -31.9  14.420  171.1  0.0544    7.8  0.2800  -27.3
 0.150  0.2316  -31.7  14.369  171.2  0.0551    6.2  0.2773  -27.1
 0.200  0.2187  -30.6  14.295  170.6  0.0552    5.5  0.2688  -26.1
 0.250  0.2150  -31.2  14.250  169.7  0.0566    4.6  0.2639  -26.2
 0.300  0.2138  -32.4  14.210  168.5  0.0548    3.3  0.2628  -27.4
 0.350  0.2117  -33.7  14.159  167.4  0.0558    3.1  0.2603  -29.6
 0.400  0.2138  -35.6  14.099  166.2  0.0560    3.8  0.2617  -31.2
 0.450  0.2143  -38.9  14.047  164.9  0.0549    4.6  0.2599  -33.5
 0.500  0.2148  -39.9  13.974  163.4  0.0550    3.6  0.2634  -35.8
 0.600  0.2196  -45.8  13.910  160.7  0.0563    3.1  0.2656  -40.2
 0.700  0.2251  -50.9  13.785  158.0  0.0559    2.9  0.2669  -45.0
 0.800  0.2258  -55.6  13.618  155.1  0.0554    2.6  0.2701  -49.7
 0.900  0.2357  -60.7  13.455  152.5  0.0558    2.6  0.2747  -54.9
 1.000  0.2406  -65.1  13.277  149.8  0.0570    2.6  0.2795  -59.6
 1.100  0.2485  -69.8  13.118  147.1  0.0572    3.1  0.2852  -63.7
 1.200  0.2541  -74.6  12.935  144.4  0.0575    2.7  0.2891  -68.1
 1.300  0.2575  -78.5  12.747  141.9  0.0569    1.7  0.2943  -72.0
 1.400  0.2675  -81.9  12.550  139.3  0.0580    2.4  0.2988  -75.9
 1.500  0.2753  -86.3  12.356  136.8  0.0582    1.1  0.3046  -80.0
 1.600  0.2813  -89.4  12.129  134.4  0.0579    1.3  0.3090  -83.1
 1.700  0.2891  -93.0  11.932  131.9  0.0581    2.4  0.3168  -87.0
 1.800  0.2930  -96.1  11.712  129.5  0.0587    0.7  0.3211  -90.5
 1.900  0.2987  -99.6  11.492  127.2  0.0593    0.5  0.3260  -93.3
 2.000  0.3080 -102.3  11.277  125.0  0.0604    1.5  0.3308  -96.8
 2.100  0.3154 -105.5  11.049  122.7  0.0591   -0.2  0.3354 -100.3
 2.200  0.3187 -108.6  10.828  120.6  0.0609    0.8  0.3388 -103.1
 2.300  0.3242 -110.9  10.634  118.5  0.0585    0.2  0.3426 -105.6
 2.400  0.3312 -113.8  10.421  116.4  0.0601    0.1  0.3480 -108.4
 2.500  0.3342 -115.6  10.223  114.5  0.0600   -0.2  0.3518 -111.0
 2.600  0.3395 -118.5  10.011  112.5  0.0597   -1.2  0.3561 -113.2
 2.700  0.3423 -120.6   9.798  110.6  0.0597   -1.3  0.3609 -115.6
 2.800  0.3492 -122.7   9.611  108.7  0.0597   -2.3  0.3641 -117.9
 2.900  0.3526 -124.9   9.428  106.9  0.0598   -3.1  0.3677 -120.0
 3.000  0.3585 -127.1   9.228  105.0  0.0596   -3.2  0.3710 -122.0
 3.100  0.3627 -128.8   9.075  103.2  0.0600   -3.2  0.3750 -123.9
 3.200  0.3678 -130.6   8.876  101.5  0.0597   -3.6  0.3797 -126.0
 3.300  0.3720 -132.7   8.695   99.7  0.0604   -4.1  0.3827 -128.0
 3.400  0.3770 -134.5   8.516   98.1  0.0597   -4.3  0.3869 -130.0
 3.500  0.3796 -136.5   8.362   96.4  0.0594   -4.0  0.3889 -131.7
 3.600  0.3805 -137.9   8.194   94.9  0.0597   -4.5  0.3918 -133.5
 3.700  0.3851 -139.8   8.046   93.3  0.0591   -5.0  0.3948 -135.0
 3.800  0.3880 -141.0   7.887   91.6  0.0593   -6.3  0.3970 -136.7
 3.900  0.3910 -142.3   7.734   90.2  0.0592   -5.8  0.3988 -138.2
 4.000  0.3946 -143.7   7.589   88.6  0.0585   -5.9  0.4021 -139.7
 4.100  0.3990 -145.1   7.449   87.1  0.0582   -6.1  0.4058 -140.8
 4.200  0.4031 -146.5   7.305   85.6  0.0589   -6.8  0.4108 -142.2
 4.300  0.4086 -147.9   7.162   84.1  0.0573   -7.1  0.4138 -143.7
 4.400  0.4121 -149.5   7.016   82.8  0.0572   -7.1  0.4178 -145.1
 4.500  0.4159 -150.8   6.885   81.4  0.0577   -7.2  0.4187 -146.7
 4.600  0.4185 -152.0   6.761   80.1  0.0580   -7.6  0.4233 -147.9
 4.700  0.4219 -153.8   6.637   78.7  0.0564   -7.2  0.4266 -149.5
 4.800  0.4240 -154.9   6.532   77.4  0.0562   -8.3  0.4304 -150.6
 4.900  0.4258 -156.0   6.422   76.2  0.0566   -8.9  0.4305 -151.9
 5.000  0.4286 -157.3   6.315   74.9  0.0569   -9.4  0.4334 -153.0
 5.100  0.4314 -158.3   6.195   73.4  0.0557   -8.8  0.4353 -154.3
 5.200  0.4344 -159.3   6.090   72.3  0.0556   -9.3  0.4390 -155.3
 5.300  0.4366 -160.4   5.989   71.0  0.0552   -9.4  0.4419 -156.3
 5.400  0.4399 -161.6   5.891   69.8  0.0545   -9.2  0.4465 -157.5
 5.500  0.4415 -162.6   5.796   68.5  0.0552   -9.2  0.4483 -158.5
 5.600  0.4468 -163.5   5.696   67.2  0.0541  -10.4  0.4506 -159.5
 5.700  0.4476 -164.7   5.588   66.1  0.0540  -10.6  0.4531 -160.6
 5.800  0.4505 -165.7   5.494   64.9  0.0534  -10.7  0.4566 -161.7
 5.900  0.4531 -166.7   5.413   63.7  0.0537  -10.8  0.4599 -162.7
 6.000  0.4560 -167.8   5.329   62.5  0.0531  -11.3  0.4622 -163.7
 6.100  0.4589 -168.7   5.237   61.4  0.0515  -10.6  0.4672 -164.6
 6.200  0.4603 -169.7   5.151   60.2  0.0526  -11.7  0.4688 -165.5
 6.300  0.4635 -170.6   5.071   59.2  0.0519  -10.7  0.4717 -166.7
 6.400  0.4657 -171.5   4.996   58.0  0.0524  -10.4  0.4740 -167.5
 6.500  0.4682 -172.4   4.910   56.9  0.0511  -12.1  0.4759 -168.5
 6.600  0.4718 -173.3   4.840   55.8  0.0501  -11.1  0.4799 -169.4
 6.700  0.4742 -174.1   4.766   54.8  0.0502  -12.2  0.4837 -170.2
 6.800  0.4777 -175.1   4.691   53.6  0.0498  -11.3  0.4858 -171.2
 6.900  0.4807 -176.0   4.618   52.5  0.0497  -11.7  0.4891 -172.1
 7.000  0.4829 -176.9   4.554   51.6  0.0490  -12.5  0.4922 -173.2
 7.100  0.4857 -177.7   4.474   50.4  0.0485  -11.8  0.4933 -173.9
 7.200  0.4875 -178.7   4.415   49.3  0.0488  -12.9  0.4962 -174.7
 7.300  0.4906 -179.5   4.335   48.2  0.0475  -12.7  0.5005 -175.6
 7.400  0.4921  179.7   4.273   47.3  0.0473  -11.8  0.5050 -176.3
 7.500  0.4958  179.1   4.203   46.5  0.0463  -11.8  0.5077 -177.4
 7.600  0.5005  178.1   4.149   45.6  0.0461  -11.5  0.5104 -178.2
 7.700  0.5050  177.2   4.100   44.7  0.0463  -11.3  0.5144 -179.1
 7.800  0.5055  176.0   4.052   43.7  0.0465  -11.8  0.5166  180.0
 7.900  0.5093  175.4   4.000   42.8  0.0460  -12.7  0.5191  179.1
 8.000  0.5113  174.3   3.957   41.8  0.0466  -12.7  0.5216  178.2
 8.500  0.5185  169.7   3.699   36.3  0.0431  -14.7  0.5342  173.9
 9.000  0.5210  166.1   3.449   31.4  0.0385  -12.8  0.5400  170.2
 9.500  0.5287  162.8   3.214   26.9  0.0357  -11.2  0.5518  166.9
10.000  0.5332  159.5   3.011   22.5  0.0326   -7.2  0.5599  163.6
10.500  0.5390  156.9   2.842   18.4  0.0312   -2.3  0.5717  160.7
11.000  0.5463  154.2   2.657   13.9  0.0296    4.9  0.5808  157.8
11.500  0.5524  151.7   2.500    9.6  0.0284   12.0  0.5928  155.1
12.000  0.5629  149.9   2.361    5.9  0.0319   22.7  0.6027  152.9
!
!  f       NFmin   Gammaopt  rn/50
! GHz       dB    MAG  ANG    -
 0.450      0.89  0.06   61   0.12
 0.900      0.91  0.07   70   0.12
 1.500      0.93  0.08   78   0.12
 1.900      0.95  0.08   82   0.12
 2.400      0.96  0.09   94   0.12
 3.500      0.99  0.11  109   0.11
 5.500      1.05  0.17  142   0.11
 8.000      1.12  0.28  177   0.07
10.000      1.17  0.40  212   0.06
!
! (c) 2013  Infineon Technologies AG, Munich
