! Infineon Technologies  Discrete & RF Semiconductors
! BFR840L3RHESD
! VCE =  2.0 V,  IC =  6.0 mA
! Common Emitter S-Parameters:                            Jun 2012
# GHz  S  MA  R  50
!  f         S11            S21            S12            S22
! GHz     MAG   ANG      MAG   ANG      MAG   ANG      MAG   ANG
 0.150  0.9407   -5.2  15.724  175.8  0.0045   88.6  0.9939   -4.0
 0.200  0.9409   -6.9  15.705  174.6  0.0058   86.0  0.9931   -5.4
 0.250  0.9401   -8.6  15.680  173.3  0.0072   83.7  0.9917   -6.8
 0.300  0.9387  -10.3  15.651  172.0  0.0088   81.8  0.9900   -8.2
 0.350  0.9367  -11.9  15.618  170.7  0.0104   80.2  0.9879   -9.6
 0.400  0.9343  -13.6  15.582  169.3  0.0120   78.8  0.9856  -10.9
 0.450  0.9316  -15.3  15.542  168.0  0.0136   77.6  0.9830  -12.3
 0.500  0.9287  -16.9  15.500  166.6  0.0152   76.5  0.9802  -13.6
 0.600  0.9227  -20.2  15.405  164.0  0.0183   74.5  0.9741  -16.2
 0.700  0.9165  -23.5  15.298  161.4  0.0211   72.6  0.9672  -18.8
 0.800  0.9103  -26.7  15.178  158.8  0.0237   70.7  0.9598  -21.3
 0.900  0.9041  -29.9  15.045  156.3  0.0262   68.8  0.9519  -23.8
 1.000  0.8979  -33.0  14.900  153.8  0.0285   66.8  0.9434  -26.3
 1.100  0.8915  -36.1  14.743  151.4  0.0309   64.8  0.9344  -28.8
 1.200  0.8848  -39.1  14.577  149.0  0.0332   62.8  0.9249  -31.2
 1.300  0.8777  -42.1  14.401  146.7  0.0355   60.8  0.9150  -33.7
 1.400  0.8702  -45.1  14.218  144.3  0.0378   58.9  0.9046  -36.0
 1.500  0.8623  -48.1  14.030  142.0  0.0401   57.0  0.8938  -38.4
 1.600  0.8540  -51.0  13.836  139.7  0.0423   55.3  0.8826  -40.7
 1.700  0.8453  -54.0  13.637  137.5  0.0444   53.6  0.8711  -43.0
 1.800  0.8363  -56.9  13.436  135.3  0.0464   51.9  0.8593  -45.3
 1.900  0.8272  -59.7  13.230  133.1  0.0481   50.3  0.8474  -47.5
 2.000  0.8180  -62.5  13.022  131.0  0.0497   48.8  0.8353  -49.7
 2.100  0.8088  -65.3  12.811  128.9  0.0510   47.2  0.8231  -51.8
 2.200  0.7998  -68.0  12.598  126.9  0.0522   45.6  0.8110  -53.9
 2.300  0.7909  -70.6  12.384  125.0  0.0534   44.1  0.7989  -55.9
 2.400  0.7823  -73.1  12.170  123.1  0.0545   42.6  0.7870  -57.9
 2.500  0.7739  -75.5  11.958  121.2  0.0556   41.2  0.7753  -59.8
 2.600  0.7657  -77.9  11.750  119.4  0.0568   39.9  0.7640  -61.7
 2.700  0.7577  -80.2  11.548  117.7  0.0581   38.6  0.7529  -63.6
 2.800  0.7497  -82.6  11.353  115.9  0.0594   37.5  0.7422  -65.4
 2.900  0.7418  -85.0  11.165  114.1  0.0604   36.2  0.7316  -67.2
 3.000  0.7336  -87.6  10.983  112.3  0.0609   34.8  0.7211  -68.9
 3.100  0.7249  -89.7  10.770  110.6  0.0617   33.3  0.7090  -70.9
 3.200  0.7173  -92.0  10.580  109.0  0.0625   32.1  0.6985  -72.6
 3.300  0.7100  -94.1  10.393  107.4  0.0632   30.9  0.6883  -74.3
 3.400  0.7030  -96.3  10.211  105.8  0.0638   29.8  0.6784  -76.0
 3.500  0.6964  -98.4  10.032  104.2  0.0644   28.7  0.6688  -77.7
 3.600  0.6902 -100.5   9.856  102.7  0.0649   27.6  0.6595  -79.3
 3.700  0.6842 -102.5   9.684  101.2  0.0654   26.6  0.6505  -80.9
 3.800  0.6786 -104.5   9.516   99.7  0.0659   25.6  0.6418  -82.5
 3.900  0.6732 -106.5   9.350   98.2  0.0663   24.6  0.6333  -84.1
 4.000  0.6680 -108.4   9.189   96.8  0.0667   23.7  0.6252  -85.6
 4.100  0.6631 -110.3   9.030   95.4  0.0670   22.7  0.6172  -87.1
 4.200  0.6583 -112.2   8.876   94.0  0.0673   21.8  0.6095  -88.6
 4.300  0.6536 -114.1   8.724   92.7  0.0676   20.9  0.6020  -90.1
 4.400  0.6490 -115.9   8.577   91.4  0.0679   20.0  0.5947  -91.6
 4.500  0.6445 -117.7   8.433   90.1  0.0681   19.2  0.5876  -93.1
 4.600  0.6401 -119.5   8.292   88.8  0.0683   18.3  0.5806  -94.5
 4.700  0.6358 -121.2   8.156   87.5  0.0684   17.4  0.5738  -96.0
 4.800  0.6317 -123.0   8.023   86.3  0.0685   16.6  0.5673  -97.4
 4.900  0.6278 -124.7   7.893   85.1  0.0686   15.8  0.5609  -98.8
 5.000  0.6240 -126.4   7.767   83.8  0.0687   15.0  0.5547 -100.2
 5.100  0.6205 -128.1   7.644   82.6  0.0687   14.2  0.5487 -101.6
 5.200  0.6172 -129.7   7.525   81.5  0.0687   13.4  0.5430 -103.0
 5.300  0.6141 -131.3   7.408   80.3  0.0686   12.6  0.5374 -104.3
 5.400  0.6113 -132.9   7.293   79.1  0.0686   11.9  0.5321 -105.7
 5.500  0.6085 -134.4   7.181   78.0  0.0685   11.2  0.5271 -107.0
 5.600  0.6059 -136.0   7.071   76.8  0.0683   10.5  0.5222 -108.4
 5.700  0.6035 -137.5   6.963   75.7  0.0682    9.8  0.5175 -109.7
 5.800  0.6011 -139.0   6.858   74.5  0.0680    9.2  0.5130 -111.1
 5.900  0.5988 -140.4   6.754   73.4  0.0679    8.5  0.5087 -112.4
 6.000  0.5967 -141.9   6.653   72.3  0.0676    7.9  0.5046 -113.7
 6.100  0.5946 -143.3   6.553   71.2  0.0674    7.3  0.5006 -115.0
 6.200  0.5926 -144.7   6.455   70.2  0.0672    6.7  0.4969 -116.3
 6.300  0.5908 -146.1   6.360   69.1  0.0670    6.1  0.4933 -117.6
 6.400  0.5892 -147.5   6.267   68.1  0.0667    5.5  0.4899 -118.9
 6.500  0.5878 -148.8   6.176   67.0  0.0665    5.0  0.4866 -120.2
 6.600  0.5866 -150.1   6.088   66.0  0.0663    4.5  0.4836 -121.5
 6.700  0.5857 -151.4   6.003   65.0  0.0660    4.0  0.4807 -122.7
 6.800  0.5851 -152.7   5.920   64.0  0.0658    3.5  0.4779 -124.0
 6.900  0.5847 -154.0   5.839   63.1  0.0655    3.0  0.4753 -125.2
 7.000  0.5845 -155.2   5.761   62.1  0.0653    2.6  0.4728 -126.4
 7.100  0.5844 -156.4   5.685   61.2  0.0650    2.2  0.4704 -127.6
 7.200  0.5845 -157.7   5.611   60.3  0.0648    1.7  0.4680 -128.9
 7.300  0.5846 -158.9   5.537   59.3  0.0645    1.2  0.4656 -130.1
 7.400  0.5847 -160.2   5.464   58.4  0.0642    0.8  0.4631 -131.4
 7.500  0.5846 -161.6   5.390   57.4  0.0639    0.2  0.4606 -132.7
 7.600  0.5843 -163.0   5.314   56.4  0.0635   -0.3  0.4579 -134.1
 7.700  0.5838 -164.4   5.236   55.3  0.0631   -0.9  0.4551 -135.5
 7.800  0.5829 -166.0   5.153   54.2  0.0626   -1.6  0.4521 -137.1
 7.900  0.5817 -167.7   5.067   53.0  0.0621   -2.3  0.4489 -138.7
 8.000  0.5802 -169.5   4.975   51.7  0.0614   -3.1  0.4456 -140.4
 8.500  0.5751 -174.2   4.727   48.0  0.0592   -5.2  0.4372 -145.0
 9.000  0.5696 -179.3   4.460   43.8  0.0563   -7.4  0.4295 -150.1
 9.500  0.5644  175.8   4.191   39.5  0.0527   -9.0  0.4233 -155.2
10.000  0.5608  171.2   3.934   35.1  0.0487   -9.9  0.4192 -160.2
10.500  0.5590  167.1   3.702   31.0  0.0445   -9.4  0.4173 -164.8
11.000  0.5591  163.4   3.497   27.2  0.0407   -7.1  0.4175 -169.0
11.500  0.5608  160.1   3.318   23.6  0.0378   -3.1  0.4200 -172.9
12.000  0.5641  157.0   3.158   20.0  0.0362    1.8  0.4249 -176.5
!
!  f       NFmin   Gammaopt  rn/50
! GHz       dB    MAG  ANG    -
 0.450      0.53  0.47    6   0.18
 0.900      0.57  0.47   11   0.18
 1.500      0.59  0.48   20   0.17
 1.900      0.60  0.48   29   0.17
 2.400      0.62  0.47   35   0.16
 3.500      0.62  0.48   47   0.15
 4.000      0.64  0.47   55   0.15
 5.000      0.68  0.47   64   0.14
 5.500      0.68  0.47   70   0.13
 6.000      0.70  0.46   79   0.13
 7.000      0.75  0.46   91   0.12
 8.000      0.81  0.43  100   0.11
 9.000      0.86  0.42  108   0.10
10.000      0.94  0.39  123   0.10
11.000      1.01  0.37  132   0.09
12.000      1.11  0.33  153   0.09
!
! (c) 2012  Infineon Technologies AG, Munich
