! Infineon Technologies  Discrete & RF Semiconductors
! BFR843EL3
! VCE =  1.8 V,  IC =  3.0 mA
! Common Emitter S-Parameters:                            Aug 2013
# GHz  S  MA  R  50
!  f         S11            S21            S12            S22
! GHz     MAG   ANG      MAG   ANG      MAG   ANG      MAG   ANG
 0.030  0.7310  -16.6   7.994  170.5  0.0569   33.7  0.7523  -16.2
 0.040  0.6782  -15.9   7.704  171.0  0.0636   30.1  0.7012  -15.7
 0.050  0.6486  -16.7   7.567  172.1  0.0570   33.9  0.6645  -14.8
 0.060  0.6180  -13.3   7.387  172.0  0.0725   23.5  0.6468  -14.1
 0.070  0.6062  -13.2   7.309  172.6  0.0688   17.7  0.6323  -13.1
 0.080  0.5983  -12.3   7.235  173.1  0.0707   16.6  0.6205  -12.7
 0.090  0.5895  -11.7   7.216  173.2  0.0709   13.9  0.6142  -12.0
 0.100  0.5852  -11.4   7.174  173.4  0.0718   13.3  0.6092  -11.7
 0.110  0.5799  -11.0   7.159  173.4  0.0708   11.4  0.6048  -11.5
 0.120  0.5773  -10.7   7.154  173.5  0.0703   10.9  0.6012  -11.2
 0.130  0.5742  -10.5   7.136  173.4  0.0716   10.5  0.5985  -11.1
 0.140  0.5726  -10.3   7.126  173.4  0.0718    9.2  0.5965  -11.0
 0.150  0.5741  -10.3   7.083  173.5  0.0732    8.4  0.5958  -10.9
 0.200  0.5665  -10.4   7.077  172.9  0.0717    7.5  0.5898  -11.4
 0.250  0.5631  -11.2   7.064  172.0  0.0719    6.4  0.5859  -12.1
 0.300  0.5628  -11.7   7.054  170.8  0.0722    6.5  0.5849  -13.0
 0.350  0.5583  -12.6   7.051  169.8  0.0726    5.0  0.5826  -14.6
 0.400  0.5605  -13.8   7.021  168.7  0.0723    4.4  0.5840  -16.0
 0.450  0.5603  -15.2   7.009  167.6  0.0723    4.6  0.5804  -17.4
 0.500  0.5587  -15.9   6.977  166.3  0.0732    4.0  0.5821  -19.0
 0.600  0.5573  -18.8   6.970  164.1  0.0738    3.6  0.5827  -22.0
 0.700  0.5567  -21.2   6.944  161.6  0.0741    3.1  0.5797  -25.0
 0.800  0.5537  -23.7   6.891  159.1  0.0745    3.1  0.5791  -28.0
 0.900  0.5536  -26.5   6.841  156.9  0.0760    3.0  0.5766  -31.3
 1.000  0.5521  -28.9   6.777  154.4  0.0754    3.8  0.5772  -34.4
 1.100  0.5510  -31.6   6.745  152.1  0.0760    3.0  0.5772  -37.5
 1.200  0.5482  -34.4   6.693  149.7  0.0772    2.2  0.5772  -40.7
 1.300  0.5469  -36.8   6.641  147.4  0.0776    3.0  0.5741  -43.6
 1.400  0.5474  -39.2   6.563  145.1  0.0787    2.4  0.5739  -46.7
 1.500  0.5455  -42.1   6.511  142.8  0.0791    1.8  0.5731  -49.8
 1.600  0.5452  -44.3   6.425  140.5  0.0794    1.5  0.5729  -52.4
 1.700  0.5419  -47.0   6.364  138.2  0.0800    1.6  0.5734  -55.6
 1.800  0.5405  -49.4   6.289  136.0  0.0807    0.9  0.5739  -58.5
 1.900  0.5375  -51.9   6.220  133.7  0.0811    0.3  0.5724  -61.2
 2.000  0.5402  -54.3   6.135  131.6  0.0826   -0.2  0.5708  -64.2
 2.100  0.5381  -56.8   6.046  129.4  0.0824   -0.7  0.5699  -67.0
 2.200  0.5321  -59.1   5.965  127.3  0.0833   -0.3  0.5697  -69.7
 2.300  0.5324  -61.5   5.904  125.2  0.0834   -1.5  0.5671  -72.1
 2.400  0.5313  -64.0   5.824  123.1  0.0849   -1.9  0.5670  -74.8
 2.500  0.5290  -65.9   5.741  121.3  0.0839   -3.0  0.5672  -77.4
 2.600  0.5287  -68.4   5.656  119.1  0.0853   -3.5  0.5678  -79.8
 2.700  0.5247  -70.2   5.560  117.3  0.0861   -4.8  0.5666  -82.4
 2.800  0.5255  -72.6   5.485  115.3  0.0860   -5.3  0.5654  -84.8
 2.900  0.5226  -74.6   5.411  113.4  0.0863   -5.5  0.5663  -87.1
 3.000  0.5231  -76.8   5.329  111.5  0.0866   -5.9  0.5660  -89.3
 3.100  0.5222  -78.8   5.270  109.6  0.0861   -7.0  0.5659  -91.5
 3.200  0.5217  -81.0   5.175  107.7  0.0864   -8.2  0.5675  -93.9
 3.300  0.5205  -83.1   5.094  105.8  0.0869   -8.5  0.5659  -96.1
 3.400  0.5213  -85.2   5.013  104.2  0.0867   -9.4  0.5651  -98.4
 3.500  0.5173  -87.1   4.949  102.4  0.0872  -10.0  0.5655 -100.3
 3.600  0.5166  -88.7   4.865  100.6  0.0865  -10.9  0.5647 -102.5
 3.700  0.5169  -90.9   4.804   98.9  0.0880  -12.0  0.5657 -104.2
 3.800  0.5180  -92.5   4.720   97.1  0.0864  -12.3  0.5652 -106.5
 3.900  0.5172  -94.2   4.646   95.6  0.0851  -13.7  0.5652 -108.3
 4.000  0.5172  -96.0   4.573   93.8  0.0865  -13.9  0.5640 -110.2
 4.100  0.5168  -97.8   4.507   92.2  0.0859  -14.2  0.5680 -111.8
 4.200  0.5183  -99.7   4.436   90.5  0.0849  -15.8  0.5692 -113.9
 4.300  0.5169 -101.6   4.370   88.9  0.0863  -16.0  0.5691 -115.6
 4.400  0.5192 -103.4   4.293   87.3  0.0855  -16.8  0.5697 -117.4
 4.500  0.5185 -105.2   4.223   85.8  0.0853  -18.1  0.5695 -119.3
 4.600  0.5185 -106.7   4.156   84.3  0.0841  -18.2  0.5710 -121.1
 4.700  0.5171 -108.5   4.095   82.7  0.0843  -19.0  0.5735 -122.7
 4.800  0.5183 -110.1   4.039   81.3  0.0842  -20.2  0.5738 -124.3
 4.900  0.5170 -111.7   3.981   79.8  0.0834  -20.6  0.5735 -125.9
 5.000  0.5185 -113.2   3.919   78.4  0.0829  -21.5  0.5745 -127.5
 5.100  0.5194 -114.6   3.853   76.8  0.0818  -22.5  0.5759 -129.0
 5.200  0.5220 -116.2   3.791   75.5  0.0817  -23.7  0.5776 -130.6
 5.300  0.5222 -117.7   3.736   74.0  0.0807  -23.6  0.5782 -132.0
 5.400  0.5230 -119.2   3.684   72.6  0.0811  -24.5  0.5811 -133.6
 5.500  0.5233 -120.7   3.633   71.2  0.0790  -25.3  0.5815 -135.0
 5.600  0.5255 -122.2   3.579   69.8  0.0800  -25.0  0.5837 -136.4
 5.700  0.5257 -123.6   3.510   68.4  0.0791  -26.0  0.5838 -137.9
 5.800  0.5261 -125.1   3.453   67.1  0.0776  -26.9  0.5854 -139.4
 5.900  0.5283 -126.4   3.407   65.7  0.0768  -27.8  0.5879 -140.7
 6.000  0.5290 -127.9   3.361   64.4  0.0764  -28.9  0.5894 -142.0
 6.100  0.5315 -129.2   3.308   63.1  0.0766  -29.8  0.5917 -143.4
 6.200  0.5307 -130.8   3.260   61.7  0.0754  -30.0  0.5928 -144.7
 6.300  0.5329 -132.1   3.206   60.5  0.0739  -30.2  0.5943 -146.2
 6.400  0.5348 -133.3   3.163   59.2  0.0736  -31.3  0.5960 -147.3
 6.500  0.5361 -134.6   3.109   57.9  0.0731  -32.3  0.5979 -148.7
 6.600  0.5381 -136.0   3.071   56.7  0.0719  -32.7  0.6006 -150.0
 6.700  0.5386 -137.3   3.027   55.5  0.0717  -33.0  0.6018 -151.0
 6.800  0.5402 -138.6   2.982   54.1  0.0704  -33.6  0.6039 -152.3
 6.900  0.5431 -139.9   2.936   52.9  0.0697  -34.3  0.6049 -153.7
 7.000  0.5439 -141.1   2.894   51.8  0.0691  -35.0  0.6072 -154.9
 7.100  0.5468 -142.4   2.842   50.5  0.0675  -35.4  0.6082 -156.0
 7.200  0.5474 -143.7   2.812   49.2  0.0673  -36.6  0.6110 -157.1
 7.300  0.5500 -145.0   2.763   48.0  0.0663  -37.7  0.6133 -158.3
 7.400  0.5508 -146.2   2.728   46.9  0.0651  -37.5  0.6157 -159.4
 7.500  0.5527 -147.2   2.681   45.9  0.0635  -38.4  0.6175 -160.8
 7.600  0.5556 -148.6   2.647   44.9  0.0634  -38.8  0.6190 -161.8
 7.700  0.5574 -149.9   2.615   43.7  0.0628  -39.5  0.6220 -162.9
 7.800  0.5575 -151.2   2.583   42.6  0.0621  -38.9  0.6234 -164.0
 7.900  0.5608 -152.1   2.545   41.5  0.0616  -40.7  0.6262 -165.0
 8.000  0.5634 -153.5   2.519   40.3  0.0608  -41.4  0.6290 -166.3
 8.500  0.5680 -159.1   2.347   34.3  0.0565  -46.0  0.6356 -171.7
 9.000  0.5730 -164.3   2.185   28.8  0.0498  -50.2  0.6420 -176.5
 9.500  0.5818 -169.3   2.026   23.7  0.0435  -52.3  0.6518  179.1
10.000  0.5869 -174.0   1.892   18.8  0.0352  -56.7  0.6595  174.7
10.500  0.5972 -178.2   1.776   14.3  0.0286  -57.8  0.6691  170.7
11.000  0.6057  177.6   1.650    9.4  0.0208  -64.0  0.6782  166.9
11.500  0.6142  173.8   1.543    4.7  0.0141  -56.2  0.6875  163.4
12.000  0.6288  170.2   1.444    0.7  0.0069  -20.6  0.6982  160.1
!
!  f       NFmin   Gammaopt  rn/50
! GHz       dB    MAG  ANG    -
 0.450      1.00  0.30    5   0.24
 0.900      1.01  0.29   19   0.22
 1.500      1.04  0.30   32   0.21
 1.900      1.06  0.30   37   0.20
 2.400      1.09  0.31   47   0.20
 3.500      1.15  0.30   69   0.17
 5.500      1.27  0.33  105   0.13
 8.000      1.41  0.40  147   0.09
10.000      1.52  0.45  198   0.06
!
! (c) 2013  Infineon Technologies AG, Munich
