! Infineon Technologies  Discrete & RF Semiconductors
! BFR843EL3
! VCE =  1.8 V,  IC =  35 mA
! Common Emitter S-Parameters:                            Aug 2013
# GHz  S  MA  R  50
!  f         S11            S21            S12            S22
! GHz     MAG   ANG      MAG   ANG      MAG   ANG      MAG   ANG
 0.030  0.3328  -94.0  25.424  159.3  0.0364   23.5  0.3788  -70.0
 0.040  0.2836 -106.7  23.518  161.3  0.0366   21.5  0.2952  -77.3
 0.050  0.2573 -114.9  22.654  163.1  0.0346   -4.5  0.2513  -84.1
 0.060  0.2420 -124.6  21.642  165.1  0.0325   16.8  0.2105  -87.6
 0.070  0.2288 -129.9  21.240  166.2  0.0366   14.5  0.1835  -91.1
 0.080  0.2201 -133.4  20.976  167.2  0.0373   11.3  0.1656  -94.5
 0.090  0.2139 -137.4  20.796  167.8  0.0366   10.9  0.1520  -97.3
 0.100  0.2092 -140.2  20.646  168.3  0.0371    9.9  0.1407  -99.4
 0.110  0.2074 -142.7  20.521  168.6  0.0364    8.8  0.1311 -102.3
 0.120  0.2060 -144.5  20.468  168.9  0.0383    9.3  0.1206 -103.4
 0.130  0.2030 -146.9  20.377  169.0  0.0375    6.2  0.1168 -105.3
 0.140  0.2017 -148.3  20.335  169.1  0.0378    6.7  0.1121 -106.6
 0.150  0.1981 -149.3  20.297  169.3  0.0368    7.8  0.1088 -108.3
 0.200  0.1983 -153.1  20.131  168.9  0.0381    4.0  0.0950 -113.1
 0.250  0.1996 -154.8  20.044  167.9  0.0379    2.3  0.0892 -117.1
 0.300  0.2014 -155.7  19.962  166.7  0.0372    1.3  0.0871 -120.2
 0.350  0.2068 -156.1  19.850  165.5  0.0366    1.6  0.0881 -121.8
 0.400  0.2074 -156.0  19.766  164.1  0.0374    2.3  0.0894 -122.9
 0.450  0.2138 -155.9  19.646  162.6  0.0378    2.8  0.0910 -124.2
 0.500  0.2147 -156.6  19.543  161.2  0.0377    3.2  0.0948 -124.9
 0.600  0.2264 -154.5  19.365  158.1  0.0373    3.6  0.0999 -125.0
 0.700  0.2362 -154.0  19.113  155.1  0.0378    2.9  0.1061 -127.0
 0.800  0.2469 -154.3  18.820  152.0  0.0376    2.6  0.1143 -127.5
 0.900  0.2615 -153.4  18.530  149.2  0.0374    4.7  0.1222 -128.5
 1.000  0.2720 -153.8  18.221  146.2  0.0375    4.2  0.1310 -128.7
 1.100  0.2839 -153.5  17.896  143.4  0.0382    4.3  0.1373 -129.5
 1.200  0.2972 -154.1  17.558  140.5  0.0380    3.9  0.1470 -130.8
 1.300  0.3069 -154.8  17.222  137.9  0.0380    4.2  0.1528 -132.0
 1.400  0.3182 -154.8  16.902  135.2  0.0382    4.7  0.1604 -132.9
 1.500  0.3305 -155.5  16.550  132.5  0.0380    3.9  0.1689 -133.8
 1.600  0.3377 -156.4  16.198  130.0  0.0383    5.1  0.1736 -134.2
 1.700  0.3490 -156.7  15.844  127.5  0.0378    5.2  0.1829 -135.6
 1.800  0.3594 -157.9  15.488  125.1  0.0382    5.3  0.1905 -136.8
 1.900  0.3677 -159.0  15.125  122.7  0.0390    4.7  0.1954 -137.8
 2.000  0.3778 -159.5  14.796  120.3  0.0380    4.5  0.2037 -138.9
 2.100  0.3878 -160.5  14.440  118.1  0.0382    4.2  0.2104 -140.5
 2.200  0.3953 -161.9  14.098  116.0  0.0385    5.7  0.2158 -141.5
 2.300  0.4027 -162.5  13.775  113.9  0.0386    4.7  0.2212 -142.9
 2.400  0.4103 -163.6  13.449  111.8  0.0380    5.2  0.2264 -143.9
 2.500  0.4159 -164.4  13.166  110.0  0.0382    5.4  0.2334 -145.0
 2.600  0.4232 -165.7  12.847  107.9  0.0391    4.6  0.2381 -145.5
 2.700  0.4275 -166.5  12.548  106.1  0.0380    5.3  0.2419 -146.7
 2.800  0.4356 -167.6  12.269  104.2  0.0385    6.5  0.2473 -147.6
 2.900  0.4393 -168.5  11.993  102.5  0.0387    6.9  0.2519 -148.5
 3.000  0.4453 -169.5  11.702  100.7  0.0383    5.9  0.2560 -149.4
 3.100  0.4503 -170.2  11.472   98.9  0.0388    6.9  0.2601 -150.2
 3.200  0.4547 -171.0  11.203   97.2  0.0379    6.8  0.2655 -151.0
 3.300  0.4608 -172.1  10.949   95.5  0.0390    6.7  0.2709 -152.0
 3.400  0.4664 -173.0  10.698   94.0  0.0386    6.7  0.2758 -153.2
 3.500  0.4705 -174.0  10.470   92.3  0.0380    8.6  0.2783 -154.3
 3.600  0.4726 -175.1  10.256   90.9  0.0385    7.9  0.2823 -155.2
 3.700  0.4764 -176.0  10.042   89.3  0.0387    6.8  0.2847 -155.9
 3.800  0.4775 -176.5   9.831   87.7  0.0382    7.6  0.2887 -156.7
 3.900  0.4802 -177.4   9.627   86.3  0.0384    9.4  0.2913 -157.4
 4.000  0.4846 -178.1   9.434   84.8  0.0384    8.4  0.2955 -157.9
 4.100  0.4884 -178.7   9.237   83.4  0.0381    8.6  0.2991 -158.2
 4.200  0.4919 -179.4   9.045   81.9  0.0382    8.6  0.3056 -158.5
 4.300  0.4958  179.8   8.844   80.5  0.0392   10.8  0.3091 -159.8
 4.400  0.4999  178.9   8.660   79.2  0.0392    9.8  0.3139 -160.3
 4.500  0.5045  178.2   8.488   78.0  0.0384   10.7  0.3189 -161.8
 4.600  0.5071  177.5   8.330   76.7  0.0386   10.2  0.3235 -162.1
 4.700  0.5109  176.5   8.159   75.5  0.0387    8.8  0.3284 -162.9
 4.800  0.5131  175.8   8.022   74.2  0.0386   10.3  0.3307 -163.9
 4.900  0.5148  174.9   7.877   73.0  0.0393   10.9  0.3326 -164.7
 5.000  0.5180  174.2   7.745   71.8  0.0387   10.4  0.3362 -165.4
 5.100  0.5192  173.6   7.593   70.4  0.0391   10.0  0.3395 -166.0
 5.200  0.5215  173.0   7.455   69.3  0.0385   10.4  0.3437 -166.5
 5.300  0.5236  172.2   7.329   68.1  0.0384   11.1  0.3468 -167.2
 5.400  0.5274  171.4   7.199   66.9  0.0393   11.7  0.3520 -167.7
 5.500  0.5279  170.9   7.074   65.7  0.0387   12.3  0.3546 -168.7
 5.600  0.5307  170.3   6.946   64.5  0.0399   11.3  0.3591 -169.2
 5.700  0.5326  169.5   6.819   63.4  0.0396   12.9  0.3624 -169.8
 5.800  0.5355  168.7   6.699   62.3  0.0394   13.1  0.3665 -170.5
 5.900  0.5380  168.2   6.594   61.2  0.0395   12.4  0.3715 -171.1
 6.000  0.5406  167.5   6.479   60.0  0.0396   13.1  0.3733 -171.8
 6.100  0.5424  166.8   6.370   58.9  0.0398   12.5  0.3782 -172.6
 6.200  0.5441  166.1   6.256   57.8  0.0390   14.1  0.3810 -173.2
 6.300  0.5458  165.5   6.165   56.8  0.0398   13.6  0.3859 -173.9
 6.400  0.5480  164.9   6.068   55.7  0.0392   14.0  0.3886 -174.4
 6.500  0.5492  164.3   5.964   54.6  0.0393   13.8  0.3921 -175.2
 6.600  0.5518  163.8   5.869   53.6  0.0394   13.8  0.3966 -176.0
 6.700  0.5532  163.1   5.777   52.6  0.0395   14.4  0.4005 -176.5
 6.800  0.5563  162.6   5.681   51.5  0.0386   14.2  0.4046 -177.3
 6.900  0.5594  161.9   5.598   50.5  0.0397   14.0  0.4084 -177.9
 7.000  0.5613  161.2   5.518   49.6  0.0396   15.3  0.4113 -178.7
 7.100  0.5633  160.7   5.421   48.5  0.0398   15.1  0.4145 -179.2
 7.200  0.5653  160.1   5.339   47.4  0.0392   15.0  0.4182 -179.9
 7.300  0.5665  159.5   5.241   46.4  0.0397   14.9  0.4233  179.6
 7.400  0.5673  159.0   5.161   45.5  0.0397   16.6  0.4276  178.8
 7.500  0.5713  158.7   5.081   44.8  0.0388   16.8  0.4324  178.0
 7.600  0.5770  158.1   5.014   43.9  0.0391   16.3  0.4364  177.3
 7.700  0.5813  157.2   4.956   43.0  0.0403   16.6  0.4402  176.6
 7.800  0.5839  156.4   4.896   42.2  0.0396   16.3  0.4431  175.7
 7.900  0.5866  155.7   4.838   41.3  0.0407   17.3  0.4471  175.0
 8.000  0.5892  154.9   4.783   40.3  0.0400   16.8  0.4500  174.1
 8.500  0.5917  151.2   4.471   35.0  0.0395   15.9  0.4641  170.4
 9.000  0.5915  148.2   4.168   30.3  0.0387   20.3  0.4725  167.5
 9.500  0.5949  145.5   3.885   25.8  0.0397   21.0  0.4869  164.8
10.000  0.5937  142.9   3.634   21.7  0.0389   25.1  0.4982  162.1
10.500  0.5984  140.9   3.439   17.8  0.0398   27.7  0.5133  159.4
11.000  0.6007  138.6   3.216   13.4  0.0417   30.5  0.5236  156.9
11.500  0.6013  136.6   3.032    9.2  0.0427   35.1  0.5365  154.6
12.000  0.5983  135.8   2.860    6.0  0.0477   38.4  0.5465  152.9
!
!  f       NFmin   Gammaopt  rn/50
! GHz       dB    MAG  ANG    -
 0.450      1.43  0.20  177   0.13
 0.900      1.45  0.21  174   0.12
 1.500      1.45  0.23  173   0.11
 1.900      1.44  0.23  174   0.11
 2.400      1.46  0.25  178   0.11
 3.500      1.46  0.26  182   0.11
 5.500      1.47  0.33  195   0.09
 8.000      1.49  0.43  210   0.09
10.000      1.50  0.51  227   0.11
!
! (c) 2013  Infineon Technologies AG, Munich
