! Infineon Technologies  Discrete & RF Semiconductors
! BFR840L3RHESD
! VCE =  1.0 V,  IC =  1.0 mA
! Common Emitter S-Parameters:                            Jun 2012
# GHz  S  MA  R  50
!  f         S11            S21            S12            S22
! GHz     MAG   ANG      MAG   ANG      MAG   ANG      MAG   ANG
 0.150  0.9894   -2.8   3.651  177.2  0.0054   84.4  0.9983   -2.8
 0.200  0.9886   -3.8   3.647  176.3  0.0073   84.4  0.9980   -3.7
 0.250  0.9880   -4.7   3.645  175.4  0.0091   84.6  0.9976   -4.6
 0.300  0.9875   -5.7   3.642  174.5  0.0107   84.7  0.9971   -5.5
 0.350  0.9870   -6.6   3.640  173.5  0.0123   84.6  0.9966   -6.4
 0.400  0.9865   -7.5   3.637  172.6  0.0138   84.2  0.9959   -7.3
 0.450  0.9861   -8.4   3.635  171.7  0.0153   83.7  0.9951   -8.2
 0.500  0.9856   -9.3   3.632  170.7  0.0168   83.0  0.9943   -9.1
 0.600  0.9844  -11.1   3.626  168.9  0.0198   81.2  0.9923  -10.8
 0.700  0.9831  -12.8   3.619  167.0  0.0229   79.2  0.9901  -12.6
 0.800  0.9815  -14.6   3.611  165.2  0.0261   77.1  0.9876  -14.3
 0.900  0.9797  -16.4   3.601  163.4  0.0294   75.1  0.9849  -16.1
 1.000  0.9778  -18.2   3.590  161.6  0.0326   73.2  0.9820  -17.9
 1.100  0.9757  -19.9   3.577  159.8  0.0359   71.5  0.9790  -19.6
 1.200  0.9735  -21.7   3.564  158.1  0.0391   70.0  0.9758  -21.4
 1.300  0.9711  -23.5   3.550  156.3  0.0422   68.6  0.9724  -23.1
 1.400  0.9687  -25.2   3.536  154.5  0.0453   67.2  0.9688  -24.9
 1.500  0.9661  -27.0   3.520  152.8  0.0482   65.9  0.9650  -26.6
 1.600  0.9634  -28.8   3.504  151.0  0.0510   64.5  0.9610  -28.3
 1.700  0.9605  -30.6   3.488  149.3  0.0538   63.1  0.9567  -30.0
 1.800  0.9574  -32.3   3.471  147.5  0.0566   61.6  0.9521  -31.7
 1.900  0.9542  -34.1   3.453  145.8  0.0594   60.1  0.9473  -33.4
 2.000  0.9507  -35.9   3.434  144.0  0.0621   58.5  0.9423  -35.1
 2.100  0.9471  -37.6   3.414  142.3  0.0649   56.9  0.9371  -36.7
 2.200  0.9434  -39.4   3.393  140.6  0.0677   55.2  0.9319  -38.4
 2.300  0.9396  -41.1   3.370  138.9  0.0704   53.6  0.9265  -40.0
 2.400  0.9356  -42.8   3.347  137.3  0.0730   52.1  0.9212  -41.7
 2.500  0.9317  -44.5   3.323  135.7  0.0754   50.6  0.9159  -43.3
 2.600  0.9277  -46.2   3.298  134.0  0.0776   49.2  0.9106  -45.0
 2.700  0.9238  -47.8   3.274  132.4  0.0796   47.9  0.9053  -46.6
 2.800  0.9198  -49.5   3.251  130.8  0.0814   46.7  0.8999  -48.2
 2.900  0.9158  -51.2   3.231  129.2  0.0832   45.4  0.8942  -49.7
 3.000  0.9118  -52.9   3.216  127.4  0.0854   44.0  0.8878  -51.3
 3.100  0.9063  -54.5   3.182  125.9  0.0877   42.3  0.8815  -52.9
 3.200  0.9019  -56.2   3.157  124.3  0.0895   41.0  0.8756  -54.5
 3.300  0.8975  -57.8   3.132  122.7  0.0913   39.7  0.8697  -56.1
 3.400  0.8932  -59.5   3.107  121.1  0.0931   38.4  0.8638  -57.7
 3.500  0.8889  -61.1   3.082  119.6  0.0947   37.1  0.8580  -59.2
 3.600  0.8847  -62.7   3.056  118.0  0.0963   35.8  0.8521  -60.8
 3.700  0.8806  -64.4   3.031  116.5  0.0979   34.5  0.8463  -62.3
 3.800  0.8765  -66.0   3.005  115.0  0.0994   33.3  0.8404  -63.8
 3.900  0.8725  -67.6   2.979  113.4  0.1008   32.0  0.8346  -65.3
 4.000  0.8685  -69.2   2.953  111.9  0.1022   30.7  0.8289  -66.8
 4.100  0.8645  -70.8   2.927  110.5  0.1035   29.5  0.8231  -68.3
 4.200  0.8605  -72.4   2.901  109.0  0.1048   28.2  0.8173  -69.8
 4.300  0.8564  -73.9   2.875  107.5  0.1060   26.9  0.8116  -71.3
 4.400  0.8524  -75.5   2.849  106.1  0.1072   25.6  0.8058  -72.7
 4.500  0.8483  -77.1   2.823  104.6  0.1083   24.3  0.8001  -74.2
 4.600  0.8442  -78.6   2.798  103.2  0.1094   23.0  0.7944  -75.6
 4.700  0.8401  -80.2   2.772  101.8  0.1104   21.7  0.7888  -77.1
 4.800  0.8360  -81.7   2.747  100.4  0.1113   20.5  0.7832  -78.5
 4.900  0.8319  -83.3   2.721   99.0  0.1122   19.2  0.7777  -79.9
 5.000  0.8279  -84.8   2.696   97.6  0.1130   17.9  0.7723  -81.3
 5.100  0.8240  -86.4   2.671   96.2  0.1137   16.7  0.7669  -82.7
 5.200  0.8202  -87.9   2.646   94.8  0.1144   15.5  0.7617  -84.1
 5.300  0.8165  -89.4   2.621   93.5  0.1150   14.3  0.7565  -85.6
 5.400  0.8129  -90.9   2.596   92.1  0.1155   13.1  0.7514  -87.0
 5.500  0.8093  -92.5   2.571   90.8  0.1159   11.9  0.7464  -88.3
 5.600  0.8059  -94.0   2.546   89.4  0.1163   10.8  0.7415  -89.7
 5.700  0.8024  -95.5   2.521   88.1  0.1166    9.6  0.7366  -91.1
 5.800  0.7990  -96.9   2.496   86.8  0.1168    8.5  0.7319  -92.5
 5.900  0.7956  -98.4   2.471   85.4  0.1170    7.4  0.7272  -93.9
 6.000  0.7923  -99.9   2.446   84.1  0.1172    6.3  0.7225  -95.3
 6.100  0.7889 -101.3   2.421   82.8  0.1173    5.2  0.7180  -96.6
 6.200  0.7856 -102.8   2.397   81.5  0.1173    4.1  0.7136  -98.0
 6.300  0.7824 -104.2   2.373   80.3  0.1174    3.0  0.7093  -99.4
 6.400  0.7793 -105.7   2.349   79.0  0.1174    2.0  0.7051 -100.7
 6.500  0.7763 -107.1   2.325   77.7  0.1174    0.9  0.7010 -102.0
 6.600  0.7736 -108.5   2.302   76.5  0.1173   -0.1  0.6971 -103.3
 6.700  0.7710 -109.9   2.280   75.3  0.1173   -1.1  0.6933 -104.6
 6.800  0.7687 -111.3   2.258   74.1  0.1172   -2.0  0.6897 -105.9
 6.900  0.7666 -112.7   2.237   72.9  0.1172   -3.0  0.6861 -107.2
 7.000  0.7646 -114.1   2.216   71.7  0.1171   -3.9  0.6827 -108.4
 7.100  0.7627 -115.5   2.196   70.6  0.1171   -4.8  0.6794 -109.7
 7.200  0.7608 -116.8   2.175   69.4  0.1170   -5.7  0.6761 -111.0
 7.300  0.7589 -118.2   2.155   68.2  0.1169   -6.7  0.6727 -112.2
 7.400  0.7568 -119.7   2.134   67.0  0.1168   -7.7  0.6693 -113.5
 7.500  0.7545 -121.1   2.112   65.8  0.1166   -8.7  0.6658 -114.9
 7.600  0.7518 -122.7   2.089   64.5  0.1163   -9.8  0.6622 -116.3
 7.700  0.7487 -124.3   2.064   63.1  0.1160  -11.0  0.6583 -117.8
 7.800  0.7453 -126.0   2.038   61.7  0.1155  -12.4  0.6542 -119.3
 7.900  0.7413 -127.9   2.009   60.1  0.1148  -13.8  0.6499 -121.0
 8.000  0.7371 -129.8   1.979   58.5  0.1140  -15.4  0.6453 -122.8
 8.500  0.7253 -135.2   1.894   53.9  0.1112  -19.9  0.6334 -127.9
 9.000  0.7140 -141.2   1.801   48.8  0.1072  -25.1  0.6220 -133.5
 9.500  0.7041 -147.3   1.706   43.3  0.1019  -30.6  0.6117 -139.3
10.000  0.6969 -153.4   1.613   37.9  0.0955  -36.1  0.6037 -145.2
10.500  0.6918 -159.1   1.526   32.7  0.0881  -41.2  0.5976 -150.7
11.000  0.6888 -164.4   1.446   27.9  0.0801  -46.0  0.5939 -155.9
11.500  0.6874 -169.2   1.372   23.3  0.0716  -50.0  0.5923 -160.8
12.000  0.6879 -173.9   1.303   18.9  0.0633  -53.5  0.5929 -165.5
!
!  f       NFmin   Gammaopt  rn/50
! GHz       dB    MAG  ANG    -
 0.450      0.33  0.88   10   0.41
 0.900      0.36  0.86   14   0.39
 1.500      0.38  0.83   21   0.38
 1.900      0.41  0.80   27   0.37
 2.400      0.43  0.79   33   0.36
 3.500      0.46  0.76   44   0.34
 4.000      0.50  0.74   55   0.33
 5.000      0.58  0.75   65   0.30
 5.500      0.61  0.75   73   0.29
 6.000      0.66  0.73   83   0.28
 7.000      0.78  0.71   93   0.24
 8.000      0.93  0.69  105   0.21
 9.000      1.05  0.68  115   0.19
10.000      1.21  0.61  124   0.16
11.000      1.37  0.57  135   0.13
12.000      1.56  0.55  153   0.08
!
! (c) 2012  Infineon Technologies AG, Munich
