! Infineon Technologies  Discrete & RF Semiconductors
! BFR840L3RHESD
! VCE =  1.0 V,  IC =  32 mA
! Common Emitter S-Parameters:                            Jun 2012
# GHz  S  MA  R  50
!  f         S11            S21            S12            S22
! GHz     MAG   ANG      MAG   ANG      MAG   ANG      MAG   ANG
 0.150  0.4223  -32.5  12.745  168.2  0.0095   37.9  0.3376  -10.4
 0.200  0.4362  -42.1  12.593  164.3  0.0111   40.0  0.3336  -14.2
 0.250  0.4508  -51.0  12.387  160.5  0.0128   41.7  0.3287  -17.8
 0.300  0.4661  -59.1  12.141  156.9  0.0143   42.8  0.3232  -21.3
 0.350  0.4821  -66.7  11.866  153.4  0.0159   43.5  0.3173  -24.6
 0.400  0.4984  -73.6  11.573  150.1  0.0173   43.8  0.3112  -27.7
 0.450  0.5151  -80.0  11.269  146.9  0.0186   43.8  0.3048  -30.7
 0.500  0.5317  -85.9  10.959  143.8  0.0199   43.5  0.2985  -33.6
 0.600  0.5638  -96.4  10.337  138.0  0.0220   42.2  0.2857  -38.9
 0.700  0.5932 -105.3   9.728  132.7  0.0239   40.4  0.2732  -43.6
 0.800  0.6188 -112.9   9.144  127.9  0.0254   38.2  0.2613  -47.8
 0.900  0.6404 -119.5   8.590  123.5  0.0267   35.9  0.2501  -51.6
 1.000  0.6581 -125.3   8.070  119.7  0.0278   33.6  0.2397  -55.1
 1.100  0.6725 -130.4   7.585  116.2  0.0287   31.6  0.2302  -58.2
 1.200  0.6845 -135.0   7.137  113.1  0.0296   29.8  0.2218  -61.1
 1.300  0.6946 -139.0   6.727  110.2  0.0303   28.3  0.2144  -63.9
 1.400  0.7033 -142.7   6.356  107.5  0.0309   27.2  0.2081  -66.5
 1.500  0.7112 -146.0   6.020  104.9  0.0315   26.3  0.2028  -69.0
 1.600  0.7184 -149.0   5.718  102.5  0.0320   25.6  0.1982  -71.5
 1.700  0.7249 -151.8   5.444  100.2  0.0324   25.1  0.1944  -73.8
 1.800  0.7308 -154.3   5.194   98.0  0.0327   24.7  0.1911  -76.0
 1.900  0.7359 -156.6   4.962   96.0  0.0330   24.3  0.1882  -78.1
 2.000  0.7402 -158.8   4.745   94.0  0.0332   23.8  0.1855  -80.1
 2.100  0.7437 -160.9   4.539   92.2  0.0334   23.3  0.1830  -82.0
 2.200  0.7463 -162.9   4.343   90.6  0.0336   22.8  0.1807  -83.9
 2.300  0.7483 -164.8   4.158   89.0  0.0337   22.3  0.1787  -85.7
 2.400  0.7500 -166.6   3.986   87.6  0.0339   21.9  0.1771  -87.4
 2.500  0.7515 -168.2   3.832   86.1  0.0340   21.7  0.1760  -89.2
 2.600  0.7532 -169.7   3.697   84.7  0.0341   21.5  0.1756  -91.0
 2.700  0.7553 -171.1   3.581   83.2  0.0342   21.5  0.1757  -92.9
 2.800  0.7577 -172.5   3.477   81.6  0.0343   21.5  0.1760  -94.7
 2.900  0.7598 -174.0   3.367   80.2  0.0344   21.0  0.1758  -96.3
 3.000  0.7607 -175.7   3.214   79.0  0.0344   19.4  0.1735  -97.5
 3.100  0.7591 -176.8   3.111   78.1  0.0345   20.7  0.1742  -99.4
 3.200  0.7603 -178.1   3.020   76.9  0.0346   20.7  0.1746 -101.1
 3.300  0.7615 -179.2   2.933   75.6  0.0347   20.8  0.1751 -102.7
 3.400  0.7627  179.6   2.850   74.4  0.0347   21.0  0.1757 -104.4
 3.500  0.7639  178.5   2.771   73.1  0.0348   21.2  0.1765 -106.0
 3.600  0.7650  177.4   2.695   71.9  0.0349   21.4  0.1773 -107.5
 3.700  0.7660  176.3   2.622   70.7  0.0349   21.6  0.1783 -109.1
 3.800  0.7669  175.3   2.552   69.6  0.0350   21.9  0.1794 -110.6
 3.900  0.7678  174.3   2.484   68.4  0.0351   22.1  0.1805 -112.1
 4.000  0.7685  173.3   2.420   67.3  0.0352   22.3  0.1817 -113.6
 4.100  0.7693  172.3   2.358   66.2  0.0353   22.5  0.1830 -115.1
 4.200  0.7699  171.4   2.299   65.2  0.0354   22.6  0.1843 -116.5
 4.300  0.7705  170.4   2.242   64.1  0.0355   22.8  0.1858 -118.0
 4.400  0.7711  169.5   2.188   63.1  0.0357   22.8  0.1872 -119.4
 4.500  0.7716  168.6   2.136   62.1  0.0358   22.9  0.1887 -120.8
 4.600  0.7721  167.7   2.086   61.1  0.0359   22.9  0.1903 -122.2
 4.700  0.7726  166.8   2.038   60.2  0.0360   22.9  0.1919 -123.6
 4.800  0.7730  165.9   1.993   59.2  0.0362   23.0  0.1936 -125.0
 4.900  0.7734  165.1   1.949   58.3  0.0363   23.0  0.1953 -126.3
 5.000  0.7737  164.2   1.907   57.3  0.0364   23.0  0.1971 -127.6
 5.100  0.7740  163.4   1.867   56.4  0.0366   23.1  0.1989 -129.0
 5.200  0.7743  162.6   1.828   55.5  0.0367   23.2  0.2008 -130.3
 5.300  0.7745  161.8   1.791   54.6  0.0368   23.3  0.2027 -131.6
 5.400  0.7747  161.0   1.755   53.7  0.0369   23.5  0.2047 -132.8
 5.500  0.7748  160.3   1.720   52.8  0.0370   23.6  0.2068 -134.1
 5.600  0.7748  159.5   1.687   51.9  0.0371   23.9  0.2088 -135.4
 5.700  0.7749  158.8   1.654   51.0  0.0372   24.1  0.2110 -136.6
 5.800  0.7749  158.0   1.623   50.1  0.0373   24.3  0.2131 -137.9
 5.900  0.7750  157.3   1.592   49.2  0.0374   24.6  0.2154 -139.1
 6.000  0.7750  156.5   1.563   48.3  0.0375   24.9  0.2176 -140.3
 6.100  0.7751  155.8   1.534   47.5  0.0376   25.1  0.2199 -141.5
 6.200  0.7752  155.1   1.507   46.6  0.0377   25.4  0.2222 -142.7
 6.300  0.7754  154.4   1.480   45.8  0.0378   25.7  0.2246 -143.9
 6.400  0.7756  153.7   1.454   44.9  0.0380   25.9  0.2270 -145.1
 6.500  0.7759  153.0   1.429   44.1  0.0381   26.1  0.2294 -146.2
 6.600  0.7761  152.3   1.405   43.3  0.0382   26.4  0.2319 -147.3
 6.700  0.7765  151.7   1.381   42.5  0.0383   26.6  0.2343 -148.4
 6.800  0.7768  151.0   1.359   41.7  0.0384   26.8  0.2367 -149.5
 6.900  0.7772  150.4   1.337   40.9  0.0385   27.0  0.2392 -150.6
 7.000  0.7777  149.8   1.316   40.2  0.0386   27.2  0.2416 -151.6
 7.100  0.7781  149.2   1.295   39.4  0.0386   27.4  0.2440 -152.7
 7.200  0.7786  148.6   1.275   38.6  0.0387   27.6  0.2465 -153.7
 7.300  0.7790  148.0   1.256   37.9  0.0388   27.8  0.2490 -154.8
 7.400  0.7795  147.4   1.236   37.1  0.0388   28.0  0.2515 -155.8
 7.500  0.7799  146.7   1.216   36.3  0.0389   28.2  0.2541 -157.0
 7.600  0.7803  146.0   1.196   35.4  0.0390   28.4  0.2568 -158.2
 7.700  0.7807  145.3   1.176   34.5  0.0391   28.6  0.2596 -159.4
 7.800  0.7809  144.5   1.154   33.6  0.0392   28.8  0.2626 -160.7
 7.900  0.7810  143.6   1.132   32.6  0.0394   29.0  0.2659 -162.1
 8.000  0.7809  142.7   1.109   31.5  0.0395   29.2  0.2694 -163.6
 8.500  0.7800  140.2   1.046   28.6  0.0400   30.2  0.2792 -167.5
 9.000  0.7783  137.4   0.981   25.2  0.0405   31.6  0.2908 -171.7
 9.500  0.7759  134.7   0.916   21.7  0.0411   33.6  0.3037 -176.0
10.000  0.7738  132.1   0.856   18.1  0.0421   36.1  0.3174  180.0
10.500  0.7727  129.7   0.803   14.8  0.0436   38.7  0.3315  176.1
11.000  0.7729  127.5   0.756   11.6  0.0459   40.9  0.3459  172.6
11.500  0.7742  125.4   0.716    8.6  0.0489   42.2  0.3605  169.1
12.000  0.7763  123.4   0.680    5.7  0.0524   42.3  0.3755  165.9
!
!  f       NFmin   Gammaopt  rn/50
! GHz       dB    MAG  ANG    -
!
! noise parameter not available yet for this operation point!
!
! (c) 2012  Infineon Technologies AG, Munich
