! Infineon Technologies  Discrete & RF Semiconductors
! BFR93A
! VCE =  10. V,  IC =  6.0 mA
! Common Emitter S-Parameters:                            Nov 2015
# GHz  S  MA  R  50
!  f         S11            S21            S12            S22
! GHz     MAG   ANG      MAG   ANG      MAG   ANG      MAG   ANG
 0.010  0.8556   -4.7  16.956  175.9  0.0034   86.6  0.9885   -2.2
 0.015  0.8513   -7.0  16.896  174.2  0.0050   84.0  0.9857   -3.2
 0.020  0.8483   -9.3  16.852  172.4  0.0067   82.7  0.9832   -4.3
 0.025  0.8407  -11.5  16.717  170.7  0.0083   81.3  0.9776   -5.3
 0.030  0.8344  -13.8  16.596  169.0  0.0098   80.4  0.9723   -6.3
 0.035  0.8295  -16.1  16.491  167.2  0.0114   79.7  0.9674   -7.4
 0.040  0.8259  -18.5  16.401  165.5  0.0130   79.2  0.9627   -8.4
 0.045  0.8237  -20.8  16.327  163.7  0.0145   78.8  0.9584   -9.4
 0.050  0.8229  -23.2  16.269  161.9  0.0161   78.5  0.9544  -10.5
 0.055  0.8110  -25.1  16.068  160.6  0.0174   76.8  0.9458  -11.3
 0.060  0.8001  -27.1  15.876  159.2  0.0187   75.3  0.9374  -12.1
 0.065  0.7901  -29.1  15.693  157.8  0.0200   74.1  0.9292  -12.9
 0.070  0.7812  -31.2  15.520  156.3  0.0214   72.9  0.9212  -13.7
 0.075  0.7733  -33.4  15.357  154.8  0.0227   72.0  0.9134  -14.5
 0.080  0.7665  -35.5  15.205  153.3  0.0241   71.1  0.9058  -15.4
 0.085  0.7608  -37.7  15.063  151.8  0.0254   70.3  0.8983  -16.2
 0.090  0.7563  -40.0  14.933  150.2  0.0268   69.6  0.8911  -17.1
 0.095  0.7529  -42.2  14.814  148.6  0.0281   69.0  0.8841  -18.0
 0.100  0.7507  -44.5  14.706  147.0  0.0295   68.4  0.8773  -18.9
 0.105  0.7394  -46.1  14.493  145.9  0.0304   67.5  0.8680  -19.4
 0.110  0.7286  -47.7  14.285  144.7  0.0314   66.7  0.8588  -19.9
 0.115  0.7185  -49.4  14.083  143.6  0.0323   66.0  0.8497  -20.5
 0.120  0.7090  -51.1  13.888  142.4  0.0332   65.3  0.8407  -21.0
 0.125  0.7002  -52.9  13.698  141.1  0.0342   64.6  0.8317  -21.5
 0.130  0.6921  -54.7  13.515  139.8  0.0351   63.9  0.8228  -22.1
 0.135  0.6846  -56.6  13.340  138.5  0.0361   63.3  0.8140  -22.7
 0.140  0.6780  -58.5  13.171  137.2  0.0371   62.8  0.8053  -23.3
 0.145  0.6720  -60.4  13.010  135.8  0.0380   62.2  0.7966  -23.9
 0.150  0.6669  -62.4  12.856  134.4  0.0390   61.7  0.7881  -24.5
 0.155  0.6575  -63.7  12.676  133.6  0.0397   61.2  0.7805  -24.8
 0.160  0.6485  -65.1  12.498  132.7  0.0404   60.8  0.7728  -25.1
 0.165  0.6398  -66.5  12.323  131.8  0.0411   60.4  0.7652  -25.4
 0.170  0.6316  -68.0  12.151  130.9  0.0418   59.9  0.7576  -25.7
 0.175  0.6237  -69.4  11.983  130.0  0.0425   59.5  0.7501  -26.1
 0.180  0.6163  -71.0  11.818  129.0  0.0432   59.1  0.7426  -26.4
 0.185  0.6094  -72.5  11.656  128.0  0.0439   58.8  0.7351  -26.7
 0.190  0.6029  -74.1  11.497  127.0  0.0447   58.4  0.7276  -27.1
 0.195  0.5968  -75.7  11.343  126.0  0.0454   58.0  0.7201  -27.4
 0.200  0.5913  -77.4  11.192  124.9  0.0461   57.7  0.7127  -27.8
 0.220  0.5647  -82.2  10.596  122.1  0.0483   56.5  0.6878  -28.5
 0.240  0.5425  -87.4  10.028  118.9  0.0505   55.5  0.6630  -29.3
 0.260  0.5237  -92.2   9.516  116.1  0.0525   54.8  0.6414  -29.9
 0.280  0.5066  -96.5   9.046  113.8  0.0544   54.3  0.6231  -30.2
 0.300  0.4926 -101.0   8.591  111.3  0.0563   53.9  0.6048  -30.6
 0.320  0.4762 -104.2   8.224  109.7  0.0579   53.8  0.5917  -30.7
 0.340  0.4614 -107.7   7.864  108.0  0.0595   53.7  0.5786  -30.8
 0.360  0.4484 -111.3   7.512  106.1  0.0611   53.6  0.5655  -30.9
 0.380  0.4373 -115.2   7.168  104.1  0.0627   53.6  0.5524  -31.1
 0.400  0.4283 -119.2   6.835  101.8  0.0643   53.5  0.5393  -31.2
 0.420  0.4190 -121.9   6.593  100.6  0.0658   53.7  0.5314  -31.2
 0.440  0.4106 -124.6   6.355   99.3  0.0673   53.8  0.5235  -31.2
 0.450  0.4068 -126.1   6.237   98.6  0.0681   53.9  0.5195  -31.2
 0.460  0.4033 -127.5   6.120   97.9  0.0689   53.9  0.5155  -31.3
 0.480  0.3970 -130.5   5.889   96.3  0.0704   54.1  0.5076  -31.3
 0.500  0.3918 -133.6   5.663   94.7  0.0719   54.2  0.4997  -31.3
 0.520  0.3862 -135.9   5.490   93.7  0.0734   54.5  0.4944  -31.3
 0.540  0.3812 -138.2   5.319   92.6  0.0749   54.8  0.4892  -31.4
 0.560  0.3769 -140.6   5.150   91.4  0.0764   55.1  0.4839  -31.4
 0.580  0.3733 -143.1   4.983   90.2  0.0779   55.3  0.4787  -31.5
 0.600  0.3704 -145.6   4.819   88.9  0.0794   55.6  0.4734  -31.5
 0.620  0.3674 -147.5   4.691   88.0  0.0810   55.8  0.4697  -31.6
 0.640  0.3647 -149.4   4.564   87.0  0.0827   55.9  0.4661  -31.7
 0.660  0.3625 -151.3   4.438   86.0  0.0843   56.1  0.4624  -31.7
 0.680  0.3607 -153.2   4.314   84.9  0.0860   56.3  0.4588  -31.8
 0.700  0.3593 -155.2   4.191   83.8  0.0876   56.4  0.4551  -31.9
 0.720  0.3577 -156.9   4.093   83.0  0.0892   56.7  0.4524  -32.0
 0.740  0.3564 -158.5   3.996   82.2  0.0908   56.9  0.4497  -32.1
 0.760  0.3554 -160.2   3.900   81.3  0.0924   57.2  0.4471  -32.3
 0.780  0.3548 -161.9   3.805   80.4  0.0940   57.5  0.4444  -32.4
 0.800  0.3544 -163.6   3.711   79.4  0.0956   57.7  0.4417  -32.5
 0.820  0.3536 -165.2   3.633   78.7  0.0972   57.8  0.4395  -32.7
 0.840  0.3531 -166.8   3.555   78.0  0.0988   58.0  0.4374  -32.9
 0.860  0.3529 -168.4   3.478   77.2  0.1004   58.1  0.4352  -33.1
 0.880  0.3529 -170.0   3.402   76.4  0.1020   58.2  0.4330  -33.3
 0.900  0.3532 -171.6   3.326   75.6  0.1036   58.3  0.4309  -33.5
 0.920  0.3526 -172.9   3.264   74.9  0.1053   58.4  0.4295  -33.7
 0.940  0.3522 -174.2   3.202   74.1  0.1070   58.6  0.4280  -33.9
 0.960  0.3519 -175.6   3.141   73.4  0.1088   58.7  0.4266  -34.1
 0.980  0.3519 -176.9   3.080   72.5  0.1105   58.8  0.4252  -34.3
 1.000  0.3520 -178.2   3.020   71.7  0.1122   58.9  0.4238  -34.5
 1.020  0.3524 -179.3   2.970   71.0  0.1140   59.0  0.4223  -34.8
 1.040  0.3530  179.5   2.921   70.4  0.1158   59.1  0.4208  -35.1
 1.060  0.3537  178.4   2.872   69.7  0.1177   59.1  0.4193  -35.5
 1.080  0.3546  177.2   2.823   68.9  0.1195   59.2  0.4179  -35.8
 1.100  0.3556  176.1   2.775   68.2  0.1213   59.3  0.4164  -36.1
 1.120  0.3568  174.9   2.734   67.6  0.1231   59.4  0.4151  -36.4
 1.140  0.3582  173.8   2.693   66.9  0.1249   59.5  0.4139  -36.7
 1.160  0.3598  172.6   2.652   66.2  0.1267   59.6  0.4127  -36.9
 1.180  0.3615  171.4   2.612   65.5  0.1285   59.7  0.4114  -37.2
 1.200  0.3633  170.3   2.572   64.8  0.1303   59.8  0.4102  -37.5
 1.220  0.3639  169.3   2.534   64.2  0.1320   59.8  0.4093  -37.8
 1.240  0.3646  168.3   2.495   63.5  0.1337   59.9  0.4083  -38.1
 1.260  0.3654  167.3   2.458   62.9  0.1355   59.9  0.4074  -38.5
 1.280  0.3664  166.3   2.420   62.2  0.1372   60.0  0.4065  -38.8
 1.300  0.3674  165.3   2.383   61.5  0.1389   60.0  0.4056  -39.1
 1.320  0.3677  164.5   2.351   60.9  0.1407   60.0  0.4049  -39.4
 1.340  0.3681  163.7   2.319   60.3  0.1425   60.0  0.4042  -39.7
 1.360  0.3686  162.9   2.288   59.6  0.1444   60.1  0.4035  -40.1
 1.380  0.3692  162.1   2.257   59.0  0.1462   60.1  0.4029  -40.4
 1.400  0.3698  161.3   2.226   58.3  0.1480   60.1  0.4022  -40.7
 1.420  0.3705  160.4   2.198   57.7  0.1498   60.1  0.4010  -41.1
 1.440  0.3714  159.5   2.169   57.1  0.1517   60.1  0.3998  -41.5
 1.460  0.3723  158.6   2.141   56.5  0.1535   60.1  0.3987  -42.0
 1.480  0.3733  157.8   2.114   55.9  0.1554   60.1  0.3975  -42.4
 1.500  0.3744  156.9   2.086   55.3  0.1572   60.1  0.3964  -42.8
 1.520  0.3764  156.1   2.065   54.8  0.1591   60.1  0.3955  -43.2
 1.540  0.3785  155.4   2.043   54.3  0.1609   60.0  0.3945  -43.6
 1.560  0.3806  154.6   2.022   53.7  0.1628   60.0  0.3936  -44.1
 1.580  0.3828  153.8   2.002   53.2  0.1646   59.9  0.3928  -44.5
 1.600  0.3851  153.1   1.981   52.6  0.1665   59.9  0.3919  -44.9
 1.620  0.3866  152.3   1.962   52.1  0.1685   59.9  0.3913  -45.3
 1.640  0.3883  151.5   1.943   51.5  0.1704   59.8  0.3908  -45.8
 1.660  0.3900  150.7   1.924   51.0  0.1724   59.8  0.3903  -46.2
 1.680  0.3917  149.9   1.905   50.4  0.1743   59.7  0.3898  -46.7
 1.700  0.3936  149.1   1.887   49.8  0.1763   59.7  0.3893  -47.1
 1.720  0.3945  148.5   1.868   49.3  0.1783   59.7  0.3889  -47.5
 1.740  0.3954  147.9   1.849   48.7  0.1803   59.6  0.3885  -48.0
 1.760  0.3963  147.4   1.830   48.2  0.1822   59.6  0.3881  -48.4
 1.780  0.3973  146.8   1.811   47.6  0.1842   59.5  0.3877  -48.9
 1.800  0.3983  146.2   1.793   47.0  0.1862   59.5  0.3874  -49.3
 1.820  0.3987  145.6   1.777   46.5  0.1881   59.5  0.3869  -49.8
 1.840  0.3992  144.9   1.760   46.0  0.1900   59.4  0.3863  -50.2
 1.860  0.3997  144.3   1.744   45.5  0.1920   59.4  0.3858  -50.7
 1.880  0.4002  143.6   1.728   44.9  0.1939   59.3  0.3854  -51.1
 1.900  0.4008  143.0   1.712   44.4  0.1958   59.3  0.3849  -51.6
 1.920  0.4024  142.3   1.697   43.9  0.1978   59.2  0.3843  -52.0
 1.940  0.4041  141.6   1.682   43.4  0.1999   59.1  0.3837  -52.4
 1.960  0.4058  140.9   1.668   42.9  0.2019   59.1  0.3831  -52.9
 1.980  0.4076  140.3   1.653   42.3  0.2040   59.0  0.3825  -53.3
 2.000  0.4095  139.6   1.639   41.8  0.2060   58.9  0.3820  -53.7
 2.020  0.4109  139.0   1.626   41.3  0.2081   58.8  0.3815  -54.2
 2.040  0.4123  138.4   1.613   40.9  0.2102   58.7  0.3811  -54.7
 2.060  0.4138  137.8   1.601   40.4  0.2122   58.6  0.3807  -55.2
 2.080  0.4153  137.1   1.588   39.9  0.2143   58.5  0.3803  -55.6
 2.100  0.4168  136.5   1.576   39.4  0.2164   58.4  0.3800  -56.1
 2.120  0.4184  135.9   1.563   38.9  0.2185   58.3  0.3796  -56.6
 2.140  0.4201  135.4   1.551   38.4  0.2206   58.3  0.3793  -57.1
 2.160  0.4218  134.8   1.539   37.9  0.2226   58.2  0.3791  -57.6
 2.180  0.4235  134.2   1.527   37.3  0.2247   58.1  0.3788  -58.1
 2.200  0.4253  133.6   1.515   36.8  0.2268   58.0  0.3786  -58.6
 2.220  0.4263  133.1   1.505   36.4  0.2290   57.9  0.3782  -59.1
 2.240  0.4274  132.6   1.495   36.0  0.2311   57.7  0.3777  -59.6
 2.260  0.4285  132.2   1.485   35.5  0.2333   57.6  0.3773  -60.2
 2.280  0.4296  131.7   1.475   35.1  0.2354   57.5  0.3770  -60.7
 2.300  0.4307  131.2   1.465   34.7  0.2376   57.3  0.3767  -61.2
 2.320  0.4319  130.7   1.456   34.2  0.2397   57.2  0.3764  -61.7
 2.340  0.4331  130.3   1.446   33.8  0.2419   57.1  0.3761  -62.2
 2.360  0.4343  129.8   1.437   33.3  0.2441   56.9  0.3759  -62.8
 2.380  0.4356  129.4   1.427   32.9  0.2462   56.8  0.3757  -63.3
 2.400  0.4369  128.9   1.418   32.4  0.2484   56.7  0.3755  -63.8
 2.420  0.4385  128.3   1.408   32.0  0.2506   56.5  0.3750  -64.4
 2.440  0.4402  127.7   1.398   31.5  0.2527   56.4  0.3744  -64.9
 2.460  0.4420  127.1   1.389   31.1  0.2549   56.3  0.3740  -65.5
 2.480  0.4437  126.5   1.379   30.7  0.2571   56.1  0.3735  -66.1
 2.500  0.4456  125.9   1.369   30.2  0.2592   56.0  0.3731  -66.6
 2.520  0.4475  125.4   1.360   29.8  0.2614   55.8  0.3728  -67.2
 2.540  0.4494  124.8   1.351   29.3  0.2636   55.7  0.3725  -67.8
 2.560  0.4513  124.2   1.341   28.9  0.2657   55.6  0.3722  -68.4
 2.580  0.4533  123.7   1.332   28.4  0.2679   55.4  0.3719  -68.9
 2.600  0.4554  123.1   1.323   27.9  0.2701   55.3  0.3717  -69.5
 2.620  0.4567  122.6   1.316   27.5  0.2724   55.1  0.3710  -70.1
 2.640  0.4580  122.1   1.308   27.0  0.2747   55.0  0.3703  -70.7
 2.660  0.4594  121.5   1.301   26.6  0.2770   54.8  0.3697  -71.3
 2.680  0.4608  121.0   1.294   26.1  0.2793   54.6  0.3692  -71.9
 2.700  0.4622  120.5   1.286   25.7  0.2816   54.5  0.3686  -72.5
 2.720  0.4637  120.0   1.279   25.2  0.2839   54.3  0.3681  -73.1
 2.740  0.4652  119.5   1.272   24.7  0.2862   54.2  0.3677  -73.8
 2.760  0.4667  119.0   1.266   24.3  0.2886   54.0  0.3673  -74.4
 2.780  0.4683  118.5   1.259   23.8  0.2909   53.8  0.3669  -75.0
 2.800  0.4699  118.0   1.252   23.3  0.2932   53.7  0.3666  -75.6
 2.820  0.4711  117.5   1.245   22.9  0.2956   53.5  0.3661  -76.3
 2.840  0.4722  117.0   1.238   22.6  0.2980   53.3  0.3657  -76.9
 2.860  0.4735  116.6   1.231   22.2  0.3005   53.1  0.3653  -77.6
 2.880  0.4747  116.1   1.225   21.8  0.3029   52.9  0.3650  -78.2
 2.900  0.4760  115.6   1.218   21.5  0.3053   52.8  0.3647  -78.9
 2.920  0.4773  115.1   1.211   21.1  0.3077   52.6  0.3645  -79.5
 2.940  0.4787  114.7   1.205   20.7  0.3102   52.4  0.3643  -80.2
 2.960  0.4800  114.2   1.198   20.3  0.3126   52.2  0.3642  -80.9
 2.980  0.4815  113.8   1.191   19.9  0.3151   52.1  0.3641  -81.5
 3.000  0.4829  113.3   1.185   19.5  0.3175   51.9  0.3641  -82.2
!
!  f       NFmin   Gammaopt  rn/50
! GHz       dB    MAG  ANG    -
!
! noise parameter not available yet for this operation point!
!
! (c) 2015  Infineon Technologies AG, Munich
