! Infineon Technologies  Discrete & RF Semiconductors
! BFR93A
! VCE =  5.0 V,  IC =  40 mA
! Common Emitter S-Parameters:                            Nov 2015
# GHz  S  MA  R  50
!  f         S11            S21            S12            S22
! GHz     MAG   ANG      MAG   ANG      MAG   ANG      MAG   ANG
 0.010  0.5280  -14.4  53.177  170.0  0.0033   83.9  0.9383   -7.1
 0.015  0.5158  -21.3  51.994  165.6  0.0049   79.8  0.9205  -10.4
 0.020  0.5113  -28.4  51.125  161.1  0.0065   77.7  0.9060  -13.9
 0.025  0.4882  -33.5  49.121  158.1  0.0076   75.2  0.8763  -16.0
 0.030  0.4694  -39.1  47.266  154.8  0.0087   73.3  0.8480  -18.3
 0.035  0.4555  -45.1  45.577  151.3  0.0098   71.9  0.8210  -20.8
 0.040  0.4468  -51.4  44.073  147.5  0.0109   70.7  0.7957  -23.4
 0.045  0.4437  -57.9  42.775  143.5  0.0121   69.8  0.7721  -26.2
 0.050  0.4463  -64.4  41.701  139.2  0.0132   69.0  0.7505  -29.1
 0.055  0.4313  -67.5  40.188  137.8  0.0140   68.4  0.7283  -29.8
 0.060  0.4177  -70.7  38.700  136.3  0.0147   67.8  0.7062  -30.6
 0.065  0.4055  -74.2  37.240  134.7  0.0155   67.3  0.6842  -31.5
 0.070  0.3949  -77.8  35.813  133.0  0.0162   66.8  0.6624  -32.4
 0.075  0.3860  -81.7  34.421  131.1  0.0170   66.4  0.6408  -33.3
 0.080  0.3789  -85.7  33.070  129.0  0.0178   66.0  0.6194  -34.4
 0.085  0.3737  -89.9  31.765  126.8  0.0185   65.7  0.5982  -35.5
 0.090  0.3705  -94.1  30.511  124.4  0.0193   65.4  0.5772  -36.7
 0.095  0.3694  -98.4  29.315  121.8  0.0200   65.1  0.5565  -37.9
 0.100  0.3704 -102.7  28.184  119.0  0.0208   64.8  0.5361  -39.3
 0.105  0.3643 -104.7  27.373  118.2  0.0214   64.9  0.5245  -39.4
 0.110  0.3587 -106.7  26.568  117.4  0.0220   65.0  0.5129  -39.5
 0.115  0.3535 -108.8  25.770  116.5  0.0226   65.1  0.5012  -39.7
 0.120  0.3488 -111.0  24.977  115.5  0.0232   65.2  0.4896  -39.8
 0.125  0.3446 -113.2  24.192  114.5  0.0237   65.2  0.4780  -39.9
 0.130  0.3409 -115.4  23.416  113.4  0.0243   65.3  0.4664  -40.1
 0.135  0.3378 -117.8  22.648  112.3  0.0249   65.4  0.4548  -40.2
 0.140  0.3353 -120.1  21.889  111.0  0.0255   65.5  0.4432  -40.4
 0.145  0.3333 -122.5  21.142  109.7  0.0261   65.5  0.4316  -40.5
 0.150  0.3319 -124.9  20.407  108.3  0.0267   65.6  0.4200  -40.7
 0.155  0.3294 -126.3  19.943  107.8  0.0273   65.9  0.4137  -40.6
 0.160  0.3270 -127.7  19.481  107.3  0.0279   66.1  0.4075  -40.5
 0.165  0.3249 -129.1  19.020  106.7  0.0285   66.4  0.4012  -40.5
 0.170  0.3229 -130.5  18.562  106.1  0.0291   66.6  0.3949  -40.4
 0.175  0.3212 -132.0  18.105  105.5  0.0297   66.8  0.3886  -40.3
 0.180  0.3196 -133.4  17.651  104.9  0.0303   67.0  0.3824  -40.2
 0.185  0.3183 -134.9  17.199  104.2  0.0309   67.2  0.3761  -40.1
 0.190  0.3172 -136.4  16.749  103.5  0.0315   67.4  0.3698  -40.0
 0.195  0.3163 -137.9  16.303  102.7  0.0321   67.6  0.3636  -39.9
 0.200  0.3156 -139.4  15.859  101.9  0.0327   67.8  0.3573  -39.8
 0.220  0.3115 -143.4  14.665  100.2  0.0351   68.3  0.3422  -39.2
 0.240  0.3090 -147.4  13.485   98.3  0.0376   68.8  0.3272  -38.5
 0.260  0.3075 -150.8  12.493   96.6  0.0401   69.3  0.3149  -37.9
 0.280  0.3062 -153.3  11.679   95.3  0.0426   69.9  0.3055  -37.3
 0.300  0.3056 -155.9  10.872   93.8  0.0451   70.4  0.2960  -36.7
 0.320  0.3043 -158.2  10.341   92.9  0.0477   70.7  0.2902  -36.3
 0.340  0.3035 -160.6   9.812   91.9  0.0502   71.0  0.2844  -35.9
 0.360  0.3033 -163.0   9.287   90.8  0.0528   71.3  0.2786  -35.4
 0.380  0.3035 -165.3   8.765   89.6  0.0553   71.5  0.2728  -35.0
 0.400  0.3043 -167.7   8.248   88.2  0.0579   71.7  0.2671  -34.5
 0.420  0.3043 -169.3   7.928   87.5  0.0604   71.7  0.2641  -34.3
 0.440  0.3046 -171.0   7.610   86.7  0.0630   71.8  0.2611  -34.2
 0.450  0.3048 -171.8   7.452   86.2  0.0642   71.8  0.2595  -34.1
 0.460  0.3051 -172.6   7.293   85.8  0.0655   71.8  0.2580  -34.0
 0.480  0.3059 -174.2   6.979   84.8  0.0681   71.9  0.2550  -33.8
 0.500  0.3069 -175.8   6.666   83.8  0.0706   71.9  0.2520  -33.6
 0.520  0.3072 -177.1   6.449   83.1  0.0732   71.9  0.2497  -33.6
 0.540  0.3076 -178.4   6.234   82.4  0.0758   71.8  0.2474  -33.5
 0.560  0.3082 -179.7   6.019   81.7  0.0783   71.8  0.2450  -33.5
 0.580  0.3090  179.0   5.805   80.9  0.0809   71.7  0.2427  -33.4
 0.600  0.3099  177.7   5.593   80.0  0.0835   71.7  0.2404  -33.4
 0.620  0.3101  176.8   5.438   79.4  0.0861   71.6  0.2389  -33.5
 0.640  0.3104  175.8   5.283   78.7  0.0886   71.5  0.2373  -33.6
 0.660  0.3107  174.9   5.129   78.0  0.0912   71.4  0.2358  -33.8
 0.680  0.3112  173.9   4.975   77.3  0.0937   71.3  0.2342  -33.9
 0.700  0.3117  173.0   4.823   76.5  0.0963   71.2  0.2327  -34.0
 0.720  0.3132  172.0   4.706   75.9  0.0989   71.1  0.2313  -34.2
 0.740  0.3148  171.1   4.590   75.3  0.1015   70.9  0.2299  -34.4
 0.760  0.3165  170.1   4.474   74.7  0.1040   70.8  0.2286  -34.6
 0.780  0.3183  169.2   4.359   74.0  0.1066   70.7  0.2272  -34.8
 0.800  0.3202  168.3   4.244   73.3  0.1092   70.6  0.2258  -35.0
 0.820  0.3213  167.4   4.152   72.8  0.1117   70.4  0.2245  -35.3
 0.840  0.3224  166.5   4.060   72.2  0.1142   70.2  0.2233  -35.6
 0.860  0.3237  165.6   3.969   71.6  0.1166   70.0  0.2220  -35.9
 0.880  0.3250  164.7   3.878   71.0  0.1191   69.8  0.2207  -36.2
 0.900  0.3264  163.8   3.788   70.3  0.1216   69.6  0.2195  -36.5
 0.920  0.3268  163.0   3.715   69.7  0.1241   69.4  0.2186  -36.8
 0.940  0.3273  162.3   3.642   69.2  0.1266   69.1  0.2178  -37.1
 0.960  0.3278  161.5   3.570   68.6  0.1291   68.9  0.2169  -37.4
 0.980  0.3284  160.8   3.498   67.9  0.1316   68.7  0.2160  -37.7
 1.000  0.3290  160.0   3.427   67.3  0.1341   68.5  0.2152  -38.0
 1.020  0.3305  159.3   3.369   66.8  0.1367   68.3  0.2142  -38.4
 1.040  0.3321  158.6   3.312   66.2  0.1392   68.1  0.2131  -38.9
 1.060  0.3337  157.9   3.255   65.6  0.1418   67.9  0.2121  -39.3
 1.080  0.3353  157.3   3.198   65.0  0.1443   67.7  0.2111  -39.8
 1.100  0.3370  156.6   3.142   64.4  0.1469   67.5  0.2101  -40.2
 1.120  0.3388  156.0   3.094   63.9  0.1493   67.3  0.2090  -40.6
 1.140  0.3407  155.3   3.046   63.3  0.1517   67.0  0.2079  -41.1
 1.160  0.3426  154.7   2.999   62.8  0.1541   66.8  0.2068  -41.5
 1.180  0.3446  154.1   2.952   62.2  0.1565   66.6  0.2057  -42.0
 1.200  0.3466  153.5   2.905   61.6  0.1589   66.4  0.2046  -42.4
 1.220  0.3478  152.8   2.861   61.1  0.1613   66.1  0.2039  -42.8
 1.240  0.3490  152.2   2.818   60.5  0.1637   65.9  0.2031  -43.3
 1.260  0.3502  151.5   2.775   59.9  0.1661   65.7  0.2024  -43.7
 1.280  0.3515  150.9   2.732   59.3  0.1685   65.4  0.2017  -44.2
 1.300  0.3529  150.2   2.690   58.7  0.1709   65.2  0.2010  -44.6
 1.320  0.3536  149.5   2.654   58.2  0.1733   65.0  0.2003  -45.1
 1.340  0.3544  148.9   2.618   57.7  0.1757   64.8  0.1996  -45.5
 1.360  0.3552  148.2   2.582   57.2  0.1781   64.6  0.1989  -46.0
 1.380  0.3560  147.6   2.546   56.6  0.1805   64.4  0.1982  -46.4
 1.400  0.3569  146.9   2.511   56.1  0.1829   64.2  0.1975  -46.9
 1.420  0.3580  146.4   2.478   55.6  0.1853   63.9  0.1963  -47.4
 1.440  0.3592  145.8   2.446   55.1  0.1876   63.7  0.1952  -48.0
 1.460  0.3604  145.3   2.413   54.6  0.1900   63.4  0.1940  -48.6
 1.480  0.3616  144.7   2.381   54.0  0.1924   63.1  0.1929  -49.1
 1.500  0.3629  144.2   2.349   53.5  0.1948   62.9  0.1918  -49.7
 1.520  0.3652  143.6   2.325   53.0  0.1971   62.7  0.1909  -50.3
 1.540  0.3675  143.0   2.301   52.6  0.1994   62.4  0.1901  -50.9
 1.560  0.3699  142.4   2.277   52.1  0.2018   62.2  0.1893  -51.5
 1.580  0.3723  141.9   2.253   51.6  0.2041   62.0  0.1885  -52.1
 1.600  0.3748  141.3   2.230   51.1  0.2064   61.8  0.1877  -52.7
 1.620  0.3764  140.9   2.207   50.6  0.2087   61.5  0.1871  -53.3
 1.640  0.3780  140.4   2.185   50.2  0.2110   61.3  0.1865  -53.9
 1.660  0.3797  140.0   2.162   49.7  0.2133   61.1  0.1859  -54.5
 1.680  0.3813  139.5   2.140   49.2  0.2157   60.8  0.1853  -55.1
 1.700  0.3830  139.1   2.118   48.7  0.2180   60.6  0.1848  -55.7
 1.720  0.3835  138.6   2.097   48.2  0.2203   60.3  0.1843  -56.3
 1.740  0.3840  138.0   2.076   47.7  0.2227   60.1  0.1839  -57.0
 1.760  0.3845  137.5   2.055   47.1  0.2250   59.9  0.1834  -57.6
 1.780  0.3851  136.9   2.034   46.6  0.2274   59.6  0.1830  -58.3
 1.800  0.3857  136.4   2.014   46.0  0.2297   59.4  0.1826  -58.9
 1.820  0.3868  135.9   1.996   45.6  0.2320   59.2  0.1821  -59.5
 1.840  0.3880  135.3   1.977   45.1  0.2342   58.9  0.1816  -60.1
 1.860  0.3891  134.8   1.959   44.7  0.2365   58.7  0.1811  -60.7
 1.880  0.3904  134.2   1.941   44.3  0.2388   58.5  0.1806  -61.3
 1.900  0.3916  133.7   1.923   43.8  0.2411   58.3  0.1802  -61.9
 1.920  0.3931  133.3   1.907   43.4  0.2434   58.1  0.1797  -62.5
 1.940  0.3946  132.9   1.890   42.9  0.2457   57.8  0.1792  -63.1
 1.960  0.3961  132.5   1.874   42.4  0.2480   57.6  0.1787  -63.6
 1.980  0.3976  132.1   1.858   42.0  0.2503   57.3  0.1782  -64.2
 2.000  0.3992  131.7   1.842   41.5  0.2526   57.1  0.1778  -64.8
 2.020  0.4006  131.2   1.828   41.1  0.2548   56.8  0.1773  -65.4
 2.040  0.4020  130.7   1.814   40.6  0.2571   56.6  0.1768  -66.1
 2.060  0.4034  130.2   1.800   40.2  0.2593   56.3  0.1763  -66.7
 2.080  0.4049  129.7   1.786   39.7  0.2616   56.0  0.1758  -67.4
 2.100  0.4064  129.2   1.773   39.3  0.2638   55.8  0.1754  -68.0
 2.120  0.4079  128.7   1.759   38.8  0.2661   55.5  0.1749  -68.7
 2.140  0.4094  128.2   1.746   38.4  0.2684   55.3  0.1746  -69.3
 2.160  0.4110  127.7   1.732   37.9  0.2706   55.1  0.1742  -70.0
 2.180  0.4127  127.2   1.719   37.4  0.2729   54.8  0.1738  -70.6
 2.200  0.4143  126.7   1.706   36.9  0.2752   54.6  0.1735  -71.3
 2.220  0.4152  126.3   1.694   36.5  0.2774   54.3  0.1731  -72.0
 2.240  0.4161  126.0   1.683   36.1  0.2797   54.1  0.1727  -72.7
 2.260  0.4171  125.6   1.671   35.7  0.2819   53.8  0.1724  -73.4
 2.280  0.4180  125.2   1.659   35.3  0.2842   53.6  0.1721  -74.1
 2.300  0.4190  124.9   1.648   34.9  0.2864   53.3  0.1718  -74.8
 2.320  0.4200  124.5   1.637   34.5  0.2887   53.1  0.1716  -75.5
 2.340  0.4210  124.2   1.625   34.0  0.2910   52.8  0.1713  -76.2
 2.360  0.4220  123.8   1.614   33.6  0.2932   52.6  0.1711  -77.0
 2.380  0.4230  123.5   1.603   33.1  0.2955   52.3  0.1710  -77.7
 2.400  0.4241  123.1   1.592   32.7  0.2978   52.1  0.1708  -78.4
 2.420  0.4256  122.6   1.581   32.3  0.3000   51.8  0.1703  -79.2
 2.440  0.4271  122.1   1.571   31.9  0.3022   51.6  0.1698  -80.0
 2.460  0.4287  121.6   1.560   31.4  0.3043   51.3  0.1693  -80.8
 2.480  0.4303  121.1   1.550   31.0  0.3065   51.1  0.1689  -81.6
 2.500  0.4319  120.6   1.539   30.6  0.3087   50.9  0.1685  -82.4
 2.520  0.4336  120.1   1.529   30.1  0.3109   50.6  0.1682  -83.2
 2.540  0.4353  119.6   1.519   29.7  0.3131   50.4  0.1679  -84.0
 2.560  0.4370  119.2   1.509   29.2  0.3154   50.2  0.1676  -84.9
 2.580  0.4387  118.7   1.499   28.8  0.3176   49.9  0.1673  -85.7
 2.600  0.4405  118.2   1.489   28.3  0.3198   49.7  0.1671  -86.5
 2.620  0.4417  117.8   1.481   27.9  0.3219   49.4  0.1665  -87.4
 2.640  0.4428  117.3   1.472   27.5  0.3241   49.2  0.1660  -88.3
 2.660  0.4440  116.9   1.464   27.1  0.3263   48.9  0.1655  -89.2
 2.680  0.4453  116.5   1.456   26.6  0.3284   48.6  0.1651  -90.0
 2.700  0.4465  116.1   1.448   26.2  0.3306   48.4  0.1647  -90.9
 2.720  0.4478  115.7   1.440   25.8  0.3328   48.1  0.1643  -91.9
 2.740  0.4491  115.2   1.432   25.3  0.3350   47.8  0.1640  -92.8
 2.760  0.4504  114.8   1.424   24.9  0.3372   47.6  0.1637  -93.7
 2.780  0.4517  114.4   1.417   24.5  0.3394   47.3  0.1635  -94.6
 2.800  0.4531  114.0   1.409   24.0  0.3416   47.1  0.1633  -95.5
 2.820  0.4548  113.6   1.402   23.7  0.3437   46.8  0.1631  -96.5
 2.840  0.4565  113.1   1.395   23.3  0.3458   46.6  0.1628  -97.4
 2.860  0.4583  112.7   1.388   23.0  0.3480   46.3  0.1627  -98.4
 2.880  0.4601  112.2   1.381   22.6  0.3501   46.0  0.1626  -99.4
 2.900  0.4619  111.8   1.374   22.2  0.3523   45.8  0.1625 -100.3
 2.920  0.4638  111.4   1.368   21.9  0.3544   45.5  0.1625 -101.3
 2.940  0.4656  111.0   1.361   21.5  0.3566   45.2  0.1625 -102.3
 2.960  0.4675  110.5   1.354   21.1  0.3587   45.0  0.1626 -103.3
 2.980  0.4695  110.1   1.348   20.8  0.3609   44.7  0.1627 -104.2
 3.000  0.4714  109.7   1.341   20.4  0.3631   44.5  0.1629 -105.2
!
!  f       NFmin   Gammaopt  rn/50
! GHz       dB    MAG  ANG    -
!
! noise parameter not available yet for this operation point!
!
! (c) 2015  Infineon Technologies AG, Munich
