! Infineon Technologies  Discrete & RF Semiconductors
! BFR92P
! VCE =  1.0 V,  IC =  30 mA
! Common Emitter S-Parameters:                            Apr 2014
# GHz  S  MA  R  50
!  f         S11            S21            S12            S22
! GHz     MAG   ANG      MAG   ANG      MAG   ANG      MAG   ANG
 0.010  0.3302  -61.3  23.050  159.9  0.0074   69.1  0.5313  -15.3
 0.020  0.4408  -94.5  20.423  145.1  0.0128   58.5  0.4732  -27.7
 0.030  0.4582 -112.2  17.380  139.1  0.0154   52.1  0.4127  -31.6
 0.040  0.5143 -127.4  14.606  130.7  0.0181   47.5  0.3547  -36.7
 0.050  0.5984 -138.9  12.287  118.7  0.0209   44.2  0.3006  -43.8
 0.060  0.6012 -143.5  11.146  116.8  0.0218   44.2  0.2789  -43.9
 0.070  0.6078 -148.1  10.019  114.6  0.0226   44.2  0.2571  -44.1
 0.080  0.6182 -152.6   8.912  111.7  0.0235   44.3  0.2354  -44.2
 0.090  0.6322 -156.8   7.833  108.1  0.0243   44.3  0.2136  -44.4
 0.100  0.6496 -160.9   6.796  103.3  0.0252   44.3  0.1919  -44.7
 0.110  0.6512 -162.7   6.363  102.3  0.0262   45.7  0.1844  -44.2
 0.120  0.6535 -164.5   5.932  101.1  0.0272   47.0  0.1770  -43.6
 0.130  0.6563 -166.2   5.504   99.8  0.0283   48.2  0.1695  -42.9
 0.140  0.6598 -168.0   5.080   98.2  0.0293   49.4  0.1621  -42.3
 0.150  0.6639 -169.7   4.660   96.3  0.0304   50.4  0.1547  -41.5
 0.200  0.6664 -175.4   3.538   92.2  0.0352   54.9  0.1372  -37.6
 0.250  0.6704 -179.6   2.859   88.9  0.0412   59.0  0.1298  -37.1
 0.300  0.6721  177.7   2.393   86.1  0.0473   61.4  0.1237  -35.6
 0.350  0.6726  175.0   2.109   84.1  0.0533   63.5  0.1206  -36.0
 0.400  0.6746  172.4   1.829   81.5  0.0594   65.1  0.1175  -36.4
 0.450  0.6725  170.1   1.658   79.7  0.0659   65.7  0.1156  -37.7
 0.500  0.6715  167.7   1.488   77.5  0.0724   66.2  0.1137  -39.0
 0.600  0.6750  163.7   1.265   73.7  0.0853   67.2  0.1089  -42.0
 0.700  0.6748  159.8   1.109   70.3  0.0983   67.6  0.1071  -45.4
 0.800  0.6781  155.9   0.993   66.8  0.1115   67.4  0.1055  -50.3
 0.900  0.6789  152.2   0.905   63.7  0.1255   66.8  0.1016  -55.7
 1.000  0.6782  148.7   0.837   60.7  0.1381   66.1  0.0979  -60.5
 1.100  0.6808  145.3   0.782   58.0  0.1514   65.2  0.0971  -65.0
 1.200  0.6846  142.0   0.738   55.4  0.1654   63.9  0.0940  -70.7
 1.300  0.6837  138.6   0.702   53.0  0.1784   62.8  0.0897  -76.4
 1.400  0.6847  135.2   0.671   50.5  0.1919   61.5  0.0873  -81.5
 1.500  0.6868  132.0   0.644   48.2  0.2049   60.1  0.0860  -88.1
 1.600  0.6931  128.7   0.624   46.1  0.2177   58.7  0.0825  -95.4
 1.700  0.6929  125.3   0.607   43.9  0.2305   57.0  0.0789 -101.5
 1.800  0.6938  122.5   0.592   42.1  0.2425   55.6  0.0798 -108.3
 1.900  0.6958  119.8   0.577   40.4  0.2548   54.0  0.0768 -116.7
 2.000  0.6990  116.8   0.565   38.6  0.2666   52.8  0.0758 -123.3
 2.100  0.6991  113.8   0.557   37.0  0.2780   51.1  0.0759 -131.1
 2.200  0.7011  110.9   0.549   35.3  0.2896   49.6  0.0773 -138.8
 2.300  0.7036  108.3   0.541   33.9  0.3002   47.9  0.0770 -147.1
 2.400  0.7075  105.7   0.534   32.4  0.3111   46.4  0.0783 -155.2
 2.500  0.7085  103.4   0.530   31.0  0.3207   44.9  0.0817 -163.0
 2.600  0.7107  101.1   0.526   29.5  0.3306   43.5  0.0864 -170.0
 2.700  0.7139   98.5   0.521   28.3  0.3408   41.9  0.0897 -176.7
 2.800  0.7186   96.0   0.517   27.0  0.3512   40.4  0.0941  177.1
 2.900  0.7191   93.9   0.516   25.7  0.3599   38.8  0.1021  171.5
 3.000  0.7206   91.8   0.515   24.4  0.3689   37.3  0.1109  166.8
 3.100  0.7188   89.9   0.514   23.3  0.3766   35.7  0.1179  161.9
 3.200  0.7177   88.0   0.512   22.3  0.3846   34.1  0.1257  157.6
 3.300  0.7174   86.1   0.511   21.2  0.3928   32.6  0.1342  153.8
 3.400  0.7180   84.2   0.511   20.2  0.4013   31.2  0.1431  150.4
 3.500  0.7193   82.3   0.510   19.1  0.4101   29.8  0.1525  147.5
 3.600  0.7192   81.0   0.510   18.1  0.4158   28.4  0.1613  144.4
 3.700  0.7194   79.7   0.511   17.1  0.4217   27.0  0.1706  141.6
 3.800  0.7200   78.4   0.511   16.2  0.4279   25.7  0.1802  139.1
 3.900  0.7210   77.1   0.512   15.2  0.4343   24.4  0.1902  136.8
 4.000  0.7224   75.8   0.513   14.2  0.4409   23.2  0.2004  134.8
 4.100  0.7231   74.5   0.514   13.2  0.4457   21.9  0.2099  132.5
 4.200  0.7241   73.1   0.515   12.3  0.4507   20.6  0.2196  130.4
 4.300  0.7256   71.8   0.516   11.3  0.4559   19.4  0.2297  128.5
 4.400  0.7274   70.5   0.517   10.4  0.4613   18.2  0.2399  126.7
 4.500  0.7296   69.2   0.518    9.4  0.4669   17.0  0.2504  125.1
 4.600  0.7273   68.1   0.519    8.3  0.4712   15.8  0.2580  123.2
 4.700  0.7252   66.9   0.521    7.2  0.4756   14.7  0.2660  121.5
 4.800  0.7235   65.7   0.523    6.1  0.4803   13.5  0.2741  119.8
 4.900  0.7220   64.6   0.525    5.1  0.4852   12.4  0.2824  118.3
 5.000  0.7209   63.4   0.527    4.0  0.4902   11.3  0.2910  116.8
 5.100  0.7202   62.4   0.528    3.1  0.4944   10.2  0.2974  115.5
 5.200  0.7197   61.3   0.529    2.2  0.4987    9.1  0.3039  114.3
 5.300  0.7195   60.3   0.530    1.3  0.5033    8.0  0.3106  113.1
 5.400  0.7195   59.2   0.532    0.5  0.5080    6.9  0.3174  112.0
 5.500  0.7198   58.2   0.533   -0.4  0.5129    5.9  0.3243  110.9
 5.600  0.7207   57.3   0.537   -1.3  0.5175    4.7  0.3307  109.8
 5.700  0.7218   56.5   0.542   -2.2  0.5223    3.4  0.3371  108.8
 5.800  0.7230   55.6   0.546   -3.0  0.5273    2.2  0.3437  107.8
 5.900  0.7244   54.8   0.551   -3.9  0.5326    1.1  0.3504  106.8
 6.000  0.7259   53.9   0.556   -4.7  0.5381   -0.1  0.3572  105.9
!
!  f       NFmin   Gammaopt  rn/50
! GHz       dB    MAG  ANG    -
!
! noise parameter not available yet for this operation point!
!
! (c) 2014  Infineon Technologies AG, Munich
