! Infineon Technologies  Discrete & RF Semiconductors
! BFR93A
! VCE =  6.0 V,  IC =  2.0 mA
! Common Emitter S-Parameters:                            Nov 2015
# GHz  S  MA  R  50
!  f         S11            S21            S12            S22
! GHz     MAG   ANG      MAG   ANG      MAG   ANG      MAG   ANG
 0.010  0.9404   -2.9   6.247  177.6  0.0039   89.9  0.9964   -1.2
 0.015  0.9382   -4.3   6.256  176.5  0.0057   87.4  0.9959   -1.7
 0.020  0.9366   -5.7   6.268  175.5  0.0076   86.1  0.9954   -2.2
 0.025  0.9338   -7.2   6.252  174.4  0.0095   84.7  0.9937   -2.7
 0.030  0.9317   -8.6   6.238  173.3  0.0114   83.7  0.9920   -3.3
 0.035  0.9302  -10.1   6.227  172.2  0.0132   83.0  0.9905   -3.8
 0.040  0.9293  -11.6   6.217  171.1  0.0151   82.5  0.9890   -4.4
 0.045  0.9290  -13.1   6.211  170.0  0.0170   82.1  0.9877   -4.9
 0.050  0.9294  -14.6   6.206  168.9  0.0189   81.8  0.9864   -5.5
 0.055  0.9241  -15.9   6.176  167.9  0.0207   80.4  0.9835   -6.0
 0.060  0.9193  -17.3   6.148  167.0  0.0224   79.2  0.9806   -6.5
 0.065  0.9150  -18.7   6.122  166.0  0.0242   78.2  0.9779   -7.0
 0.070  0.9113  -20.0   6.097  165.0  0.0260   77.3  0.9752   -7.5
 0.075  0.9081  -21.4   6.074  164.0  0.0277   76.6  0.9726   -8.0
 0.080  0.9054  -22.8   6.053  163.0  0.0295   75.9  0.9701   -8.5
 0.085  0.9033  -24.2   6.034  162.0  0.0313   75.3  0.9676   -9.0
 0.090  0.9017  -25.7   6.017  161.0  0.0331   74.8  0.9652   -9.6
 0.095  0.9007  -27.1   6.002  160.0  0.0349   74.3  0.9629  -10.1
 0.100  0.9002  -28.5   5.988  159.0  0.0367   73.9  0.9607  -10.6
 0.105  0.8943  -29.8   5.950  158.0  0.0382   72.9  0.9566  -11.0
 0.110  0.8888  -31.1   5.914  157.1  0.0397   72.0  0.9526  -11.5
 0.115  0.8838  -32.4   5.879  156.1  0.0412   71.1  0.9487  -11.9
 0.120  0.8793  -33.7   5.846  155.1  0.0427   70.4  0.9448  -12.4
 0.125  0.8752  -35.0   5.815  154.1  0.0443   69.6  0.9410  -12.8
 0.130  0.8716  -36.3   5.786  153.1  0.0458   68.9  0.9372  -13.3
 0.135  0.8685  -37.7   5.758  152.1  0.0473   68.3  0.9335  -13.7
 0.140  0.8659  -39.1   5.733  151.1  0.0489   67.7  0.9298  -14.2
 0.145  0.8637  -40.4   5.709  150.0  0.0504   67.1  0.9262  -14.6
 0.150  0.8621  -41.8   5.687  149.0  0.0520   66.6  0.9227  -15.1
 0.155  0.8555  -43.0   5.649  148.2  0.0532   65.9  0.9184  -15.4
 0.160  0.8493  -44.2   5.612  147.4  0.0545   65.3  0.9141  -15.8
 0.165  0.8434  -45.4   5.576  146.6  0.0557   64.6  0.9099  -16.1
 0.170  0.8379  -46.6   5.541  145.7  0.0570   64.0  0.9057  -16.5
 0.175  0.8329  -47.8   5.508  144.9  0.0582   63.4  0.9015  -16.9
 0.180  0.8282  -49.1   5.476  144.0  0.0595   62.9  0.8974  -17.2
 0.185  0.8239  -50.3   5.445  143.2  0.0608   62.4  0.8933  -17.6
 0.190  0.8200  -51.6   5.415  142.3  0.0620   61.9  0.8892  -18.0
 0.195  0.8165  -52.9   5.386  141.4  0.0633   61.4  0.8852  -18.3
 0.200  0.8134  -54.2   5.359  140.5  0.0646   60.9  0.8812  -18.7
 0.220  0.7917  -58.6   5.204  137.4  0.0686   58.5  0.8646  -19.9
 0.240  0.7751  -63.3   5.065  134.2  0.0726   56.4  0.8484  -21.1
 0.260  0.7587  -67.7   4.928  131.3  0.0762   54.6  0.8324  -22.1
 0.280  0.7415  -71.8   4.788  128.7  0.0792   53.0  0.8165  -23.0
 0.300  0.7283  -76.1   4.659  125.9  0.0822   51.6  0.8008  -23.9
 0.320  0.7073  -79.4   4.512  123.8  0.0844   50.3  0.7875  -24.5
 0.340  0.6888  -82.9   4.371  121.6  0.0866   49.0  0.7743  -25.1
 0.360  0.6730  -86.6   4.237  119.3  0.0888   47.8  0.7612  -25.8
 0.380  0.6601  -90.5   4.110  116.8  0.0911   46.6  0.7482  -26.4
 0.400  0.6504  -94.5   3.992  114.1  0.0934   45.5  0.7353  -27.1
 0.420  0.6358  -97.4   3.878  112.4  0.0948   44.7  0.7256  -27.5
 0.440  0.6229 -100.4   3.768  110.6  0.0961   43.9  0.7159  -27.9
 0.450  0.6171 -102.0   3.714  109.7  0.0968   43.5  0.7111  -28.1
 0.460  0.6118 -103.6   3.662  108.7  0.0975   43.1  0.7063  -28.3
 0.480  0.6026 -106.9   3.559  106.7  0.0990   42.3  0.6967  -28.8
 0.500  0.5954 -110.2   3.462  104.6  0.1004   41.6  0.6871  -29.2
 0.520  0.5846 -112.7   3.374  103.2  0.1013   41.2  0.6799  -29.5
 0.540  0.5750 -115.4   3.288  101.7  0.1022   40.7  0.6728  -29.9
 0.560  0.5666 -118.1   3.205  100.2  0.1031   40.3  0.6657  -30.2
 0.580  0.5595 -120.9   3.123   98.5  0.1041   39.9  0.6586  -30.5
 0.600  0.5538 -123.7   3.045   96.8  0.1050   39.5  0.6515  -30.9
 0.620  0.5467 -125.9   2.973   95.5  0.1057   39.3  0.6463  -31.2
 0.640  0.5403 -128.1   2.903   94.2  0.1063   39.1  0.6411  -31.5
 0.660  0.5348 -130.3   2.834   92.9  0.1070   39.0  0.6360  -31.8
 0.680  0.5302 -132.7   2.767   91.4  0.1076   38.8  0.6308  -32.1
 0.700  0.5264 -135.0   2.702   89.9  0.1083   38.6  0.6257  -32.4
 0.720  0.5216 -137.0   2.645   88.8  0.1088   38.6  0.6219  -32.7
 0.740  0.5174 -139.1   2.590   87.7  0.1092   38.6  0.6181  -32.9
 0.760  0.5139 -141.2   2.535   86.5  0.1097   38.7  0.6143  -33.2
 0.780  0.5111 -143.3   2.481   85.3  0.1101   38.7  0.6106  -33.5
 0.800  0.5090 -145.4   2.429   84.0  0.1106   38.7  0.6068  -33.8
 0.820  0.5056 -147.2   2.382   83.1  0.1111   38.8  0.6036  -34.1
 0.840  0.5028 -149.1   2.335   82.1  0.1115   38.9  0.6004  -34.4
 0.860  0.5005 -150.9   2.289   81.1  0.1120   38.9  0.5972  -34.7
 0.880  0.4987 -152.8   2.243   80.0  0.1124   39.0  0.5940  -35.1
 0.900  0.4975 -154.7   2.199   78.9  0.1129   39.1  0.5909  -35.4
 0.920  0.4951 -156.3   2.160   78.0  0.1134   39.3  0.5887  -35.7
 0.940  0.4930 -157.9   2.122   77.0  0.1139   39.5  0.5866  -36.0
 0.960  0.4914 -159.6   2.085   75.9  0.1145   39.8  0.5844  -36.4
 0.980  0.4902 -161.2   2.048   74.9  0.1150   40.0  0.5823  -36.7
 1.000  0.4894 -162.9   2.012   73.8  0.1155   40.2  0.5802  -37.0
 1.020  0.4885 -164.3   1.981   73.0  0.1160   40.5  0.5783  -37.4
 1.040  0.4879 -165.8   1.951   72.1  0.1166   40.8  0.5765  -37.8
 1.060  0.4876 -167.2   1.921   71.2  0.1171   41.1  0.5747  -38.1
 1.080  0.4876 -168.7   1.892   70.3  0.1177   41.4  0.5729  -38.5
 1.100  0.4879 -170.1   1.863   69.3  0.1182   41.7  0.5712  -38.9
 1.120  0.4878 -171.5   1.837   68.5  0.1188   42.0  0.5696  -39.3
 1.140  0.4879 -172.9   1.812   67.7  0.1194   42.4  0.5680  -39.7
 1.160  0.4883 -174.3   1.787   66.9  0.1200   42.7  0.5664  -40.0
 1.180  0.4891 -175.7   1.762   66.1  0.1207   43.1  0.5648  -40.4
 1.200  0.4901 -177.1   1.738   65.2  0.1213   43.4  0.5633  -40.8
 1.220  0.4895 -178.4   1.713   64.4  0.1220   43.8  0.5622  -41.2
 1.240  0.4891 -179.7   1.689   63.6  0.1228   44.2  0.5611  -41.6
 1.260  0.4890  179.0   1.665   62.8  0.1236   44.6  0.5601  -42.1
 1.280  0.4891  177.7   1.641   62.0  0.1243   44.9  0.5591  -42.5
 1.300  0.4895  176.4   1.618   61.1  0.1251   45.3  0.5581  -42.9
 1.320  0.4895  175.4   1.597   60.4  0.1258   45.7  0.5572  -43.3
 1.340  0.4896  174.3   1.576   59.7  0.1265   46.1  0.5563  -43.7
 1.360  0.4899  173.3   1.555   58.9  0.1272   46.5  0.5554  -44.2
 1.380  0.4903  172.2   1.534   58.2  0.1280   46.9  0.5546  -44.6
 1.400  0.4909  171.2   1.514   57.4  0.1287   47.3  0.5538  -45.0
 1.420  0.4909  170.1   1.495   56.7  0.1298   47.8  0.5526  -45.5
 1.440  0.4910  169.0   1.477   56.0  0.1309   48.2  0.5514  -46.0
 1.460  0.4913  168.0   1.458   55.3  0.1320   48.6  0.5503  -46.4
 1.480  0.4918  166.9   1.440   54.6  0.1331   49.1  0.5492  -46.9
 1.500  0.4924  165.8   1.422   53.8  0.1342   49.5  0.5482  -47.4
 1.520  0.4938  164.8   1.408   53.2  0.1354   49.9  0.5474  -47.9
 1.540  0.4953  163.9   1.395   52.6  0.1366   50.2  0.5467  -48.4
 1.560  0.4969  163.0   1.382   51.9  0.1378   50.6  0.5460  -48.9
 1.580  0.4987  162.0   1.369   51.3  0.1391   51.0  0.5453  -49.4
 1.600  0.5006  161.1   1.356   50.6  0.1403   51.3  0.5447  -49.9
 1.620  0.5017  160.1   1.344   50.0  0.1416   51.7  0.5438  -50.4
 1.640  0.5030  159.2   1.332   49.4  0.1430   52.1  0.5430  -50.9
 1.660  0.5045  158.3   1.320   48.7  0.1444   52.5  0.5422  -51.5
 1.680  0.5060  157.3   1.308   48.1  0.1457   52.8  0.5415  -52.0
 1.700  0.5077  156.4   1.296   47.4  0.1471   53.2  0.5408  -52.5
 1.720  0.5080  155.5   1.283   46.8  0.1487   53.5  0.5406  -53.0
 1.740  0.5083  154.6   1.271   46.2  0.1503   53.9  0.5405  -53.5
 1.760  0.5088  153.8   1.258   45.5  0.1519   54.2  0.5404  -54.1
 1.780  0.5095  152.9   1.246   44.9  0.1536   54.5  0.5403  -54.6
 1.800  0.5102  152.0   1.234   44.2  0.1552   54.8  0.5403  -55.1
 1.820  0.5104  151.2   1.222   43.7  0.1569   55.2  0.5397  -55.6
 1.840  0.5106  150.5   1.211   43.2  0.1587   55.5  0.5391  -56.2
 1.860  0.5110  149.7   1.200   42.7  0.1604   55.8  0.5386  -56.7
 1.880  0.5114  149.0   1.188   42.1  0.1621   56.2  0.5381  -57.3
 1.900  0.5119  148.2   1.177   41.6  0.1639   56.5  0.5377  -57.8
 1.920  0.5133  147.3   1.167   41.1  0.1658   56.8  0.5371  -58.3
 1.940  0.5148  146.5   1.156   40.5  0.1677   57.0  0.5366  -58.9
 1.960  0.5164  145.7   1.146   39.9  0.1696   57.3  0.5361  -59.4
 1.980  0.5181  144.8   1.136   39.4  0.1715   57.6  0.5356  -60.0
 2.000  0.5199  144.0   1.126   38.8  0.1734   57.8  0.5352  -60.5
 2.020  0.5208  143.3   1.117   38.3  0.1756   58.0  0.5346  -61.1
 2.040  0.5219  142.6   1.109   37.8  0.1778   58.2  0.5341  -61.6
 2.060  0.5230  141.9   1.100   37.3  0.1801   58.3  0.5337  -62.2
 2.080  0.5241  141.2   1.092   36.8  0.1823   58.5  0.5333  -62.8
 2.100  0.5254  140.5   1.083   36.3  0.1845   58.6  0.5329  -63.3
 2.120  0.5267  139.8   1.075   35.8  0.1868   58.8  0.5326  -63.9
 2.140  0.5281  139.1   1.067   35.2  0.1890   59.0  0.5324  -64.5
 2.160  0.5296  138.5   1.059   34.7  0.1912   59.1  0.5322  -65.1
 2.180  0.5312  137.8   1.051   34.2  0.1935   59.3  0.5321  -65.6
 2.200  0.5328  137.1   1.043   33.6  0.1957   59.4  0.5320  -66.2
 2.220  0.5337  136.4   1.036   33.2  0.1982   59.5  0.5316  -66.8
 2.240  0.5347  135.7   1.029   32.8  0.2008   59.6  0.5312  -67.4
 2.260  0.5357  135.0   1.022   32.4  0.2033   59.7  0.5308  -68.1
 2.280  0.5369  134.3   1.015   31.9  0.2058   59.7  0.5306  -68.7
 2.300  0.5381  133.6   1.008   31.5  0.2083   59.8  0.5304  -69.3
 2.320  0.5394  132.9   1.002   31.1  0.2109   59.9  0.5302  -69.9
 2.340  0.5407  132.2   0.995   30.7  0.2134   60.0  0.5302  -70.5
 2.360  0.5422  131.6   0.988   30.2  0.2159   60.1  0.5301  -71.2
 2.380  0.5437  130.9   0.982   29.8  0.2185   60.1  0.5302  -71.8
 2.400  0.5453  130.2   0.975   29.3  0.2210   60.2  0.5303  -72.4
 2.420  0.5465  129.6   0.968   28.9  0.2238   60.2  0.5296  -73.0
 2.440  0.5478  128.9   0.961   28.5  0.2265   60.2  0.5291  -73.7
 2.460  0.5491  128.3   0.955   28.1  0.2293   60.2  0.5285  -74.3
 2.480  0.5505  127.6   0.948   27.7  0.2320   60.2  0.5281  -74.9
 2.500  0.5520  127.0   0.941   27.3  0.2348   60.1  0.5277  -75.6
 2.520  0.5535  126.4   0.935   26.9  0.2376   60.1  0.5273  -76.2
 2.540  0.5551  125.8   0.928   26.5  0.2403   60.1  0.5271  -76.9
 2.560  0.5568  125.1   0.922   26.1  0.2431   60.1  0.5269  -77.5
 2.580  0.5585  124.5   0.915   25.6  0.2458   60.1  0.5268  -78.2
 2.600  0.5603  123.9   0.909   25.2  0.2486   60.1  0.5267  -78.8
 2.620  0.5611  123.3   0.904   24.8  0.2516   60.0  0.5259  -79.5
 2.640  0.5619  122.7   0.899   24.5  0.2546   59.9  0.5252  -80.2
 2.660  0.5628  122.1   0.894   24.1  0.2576   59.7  0.5245  -80.9
 2.680  0.5638  121.5   0.890   23.7  0.2606   59.6  0.5239  -81.6
 2.700  0.5648  120.9   0.885   23.4  0.2636   59.5  0.5234  -82.3
 2.720  0.5659  120.3   0.880   23.0  0.2666   59.4  0.5230  -83.0
 2.740  0.5670  119.7   0.876   22.6  0.2697   59.3  0.5227  -83.8
 2.760  0.5682  119.2   0.871   22.2  0.2727   59.2  0.5225  -84.5
 2.780  0.5695  118.6   0.867   21.8  0.2757   59.1  0.5223  -85.2
 2.800  0.5708  118.0   0.862   21.4  0.2787   59.0  0.5222  -85.9
 2.820  0.5719  117.4   0.857   21.1  0.2819   58.8  0.5217  -86.6
 2.840  0.5731  116.8   0.853   20.8  0.2852   58.7  0.5212  -87.4
 2.860  0.5743  116.2   0.848   20.5  0.2884   58.5  0.5208  -88.1
 2.880  0.5756  115.6   0.843   20.2  0.2916   58.4  0.5206  -88.9
 2.900  0.5770  115.0   0.839   19.9  0.2949   58.2  0.5204  -89.6
 2.920  0.5784  114.4   0.834   19.6  0.2981   58.1  0.5203  -90.3
 2.940  0.5799  113.8   0.830   19.3  0.3014   57.9  0.5202  -91.1
 2.960  0.5814  113.2   0.825   18.9  0.3046   57.8  0.5203  -91.8
 2.980  0.5830  112.6   0.820   18.6  0.3079   57.6  0.5205  -92.6
 3.000  0.5847  112.0   0.816   18.3  0.3111   57.5  0.5207  -93.3
!
!  f       NFmin   Gammaopt  rn/50
! GHz       dB    MAG  ANG    -
!
! noise parameter not available yet for this operation point!
!
! (c) 2015  Infineon Technologies AG, Munich
