! Infineon Technologies  Discrete & RF Semiconductors
! BFR93A
! VCE =  6.0 V,  IC =  50 mA
! Common Emitter S-Parameters:                            Nov 2015
# GHz  S  MA  R  50
!  f         S11            S21            S12            S22
! GHz     MAG   ANG      MAG   ANG      MAG   ANG      MAG   ANG
 0.010  0.5423  -14.8  55.048  169.5  0.0031   81.4  0.9274   -7.0
 0.015  0.5282  -21.7  53.727  164.9  0.0045   78.4  0.9089  -10.3
 0.020  0.5222  -28.9  52.761  160.2  0.0060   76.9  0.8935  -13.7
 0.025  0.4973  -34.0  50.576  157.2  0.0071   74.5  0.8635  -15.7
 0.030  0.4768  -39.7  48.546  153.9  0.0082   72.8  0.8346  -17.9
 0.035  0.4613  -45.7  46.691  150.3  0.0094   71.5  0.8070  -20.3
 0.040  0.4512  -52.1  45.033  146.4  0.0105   70.4  0.7809  -22.8
 0.045  0.4471  -58.8  43.594  142.3  0.0117   69.6  0.7564  -25.5
 0.050  0.4489  -65.4  42.396  137.9  0.0128   68.9  0.7336  -28.3
 0.055  0.4334  -68.4  40.814  136.5  0.0135   68.3  0.7124  -28.9
 0.060  0.4192  -71.6  39.256  135.1  0.0142   67.8  0.6912  -29.6
 0.065  0.4064  -75.0  37.727  133.5  0.0149   67.3  0.6702  -30.3
 0.070  0.3951  -78.6  36.229  131.8  0.0156   66.9  0.6492  -31.0
 0.075  0.3854  -82.4  34.766  129.9  0.0163   66.5  0.6284  -31.8
 0.080  0.3776  -86.4  33.344  127.9  0.0171   66.1  0.6077  -32.7
 0.085  0.3716  -90.5  31.967  125.7  0.0178   65.8  0.5871  -33.6
 0.090  0.3676  -94.8  30.642  123.3  0.0185   65.5  0.5668  -34.5
 0.095  0.3657  -99.1  29.375  120.6  0.0192   65.2  0.5465  -35.6
 0.100  0.3659 -103.4  28.175  117.8  0.0199   64.9  0.5265  -36.7
 0.105  0.3595 -105.3  27.352  117.0  0.0205   65.1  0.5158  -36.7
 0.110  0.3535 -107.3  26.535  116.2  0.0210   65.2  0.5052  -36.7
 0.115  0.3479 -109.4  25.724  115.3  0.0216   65.4  0.4945  -36.8
 0.120  0.3428 -111.5  24.919  114.4  0.0222   65.5  0.4839  -36.8
 0.125  0.3382 -113.7  24.121  113.4  0.0227   65.6  0.4732  -36.8
 0.130  0.3341 -116.0  23.330  112.4  0.0233   65.8  0.4626  -36.9
 0.135  0.3305 -118.3  22.548  111.2  0.0239   65.9  0.4519  -36.9
 0.140  0.3275 -120.6  21.776  110.0  0.0245   66.0  0.4413  -36.9
 0.145  0.3250 -123.0  21.014  108.7  0.0250   66.1  0.4306  -37.0
 0.150  0.3231 -125.4  20.264  107.3  0.0256   66.2  0.4200  -37.0
 0.155  0.3206 -126.7  19.799  106.8  0.0262   66.5  0.4144  -36.9
 0.160  0.3183 -128.1  19.336  106.3  0.0268   66.8  0.4089  -36.7
 0.165  0.3161 -129.5  18.874  105.8  0.0274   67.0  0.4033  -36.5
 0.170  0.3142 -130.9  18.415  105.2  0.0280   67.3  0.3978  -36.4
 0.175  0.3124 -132.3  17.956  104.6  0.0285   67.5  0.3923  -36.2
 0.180  0.3108 -133.7  17.500  104.0  0.0291   67.8  0.3867  -36.0
 0.185  0.3095 -135.1  17.046  103.4  0.0297   68.0  0.3812  -35.9
 0.190  0.3083 -136.6  16.595  102.7  0.0303   68.2  0.3757  -35.7
 0.195  0.3073 -138.0  16.145  102.0  0.0309   68.4  0.3701  -35.5
 0.200  0.3065 -139.5  15.699  101.2  0.0315   68.6  0.3646  -35.3
 0.220  0.3028 -143.5  14.518   99.6  0.0339   69.2  0.3517  -34.6
 0.240  0.3005 -147.6  13.350   97.8  0.0362   69.7  0.3388  -33.9
 0.260  0.2988 -150.9  12.364   96.1  0.0386   70.2  0.3283  -33.2
 0.280  0.2968 -153.5  11.551   94.9  0.0411   70.7  0.3202  -32.6
 0.300  0.2954 -156.2  10.745   93.4  0.0435   71.1  0.3121  -32.0
 0.320  0.2944 -158.5  10.218   92.5  0.0460   71.4  0.3072  -31.6
 0.340  0.2939 -160.7   9.694   91.6  0.0485   71.7  0.3024  -31.3
 0.360  0.2938 -163.0   9.173   90.5  0.0511   71.9  0.2975  -30.9
 0.380  0.2942 -165.2   8.656   89.3  0.0536   72.1  0.2927  -30.5
 0.400  0.2950 -167.5   8.143   87.9  0.0561   72.3  0.2879  -30.1
 0.420  0.2945 -169.2   7.829   87.2  0.0586   72.4  0.2853  -30.0
 0.440  0.2943 -171.0   7.516   86.4  0.0611   72.4  0.2828  -29.8
 0.450  0.2943 -171.9   7.361   85.9  0.0623   72.5  0.2815  -29.8
 0.460  0.2944 -172.7   7.205   85.5  0.0636   72.5  0.2802  -29.7
 0.480  0.2947 -174.5   6.896   84.5  0.0661   72.5  0.2777  -29.5
 0.500  0.2953 -176.2   6.589   83.5  0.0686   72.6  0.2751  -29.4
 0.520  0.2962 -177.4   6.374   82.9  0.0712   72.5  0.2731  -29.4
 0.540  0.2971 -178.6   6.160   82.2  0.0738   72.5  0.2711  -29.5
 0.560  0.2983 -179.8   5.946   81.4  0.0763   72.4  0.2692  -29.5
 0.580  0.2995  179.0   5.734   80.6  0.0789   72.4  0.2672  -29.6
 0.600  0.3009  177.8   5.523   79.8  0.0815   72.3  0.2652  -29.6
 0.620  0.3018  176.9   5.369   79.2  0.0840   72.2  0.2638  -29.8
 0.640  0.3028  175.9   5.215   78.5  0.0865   72.0  0.2624  -29.9
 0.660  0.3039  175.0   5.062   77.8  0.0889   71.9  0.2611  -30.1
 0.680  0.3051  174.1   4.910   77.1  0.0914   71.8  0.2597  -30.2
 0.700  0.3063  173.2   4.759   76.3  0.0939   71.7  0.2583  -30.4
 0.720  0.3071  172.3   4.644   75.7  0.0964   71.6  0.2570  -30.6
 0.740  0.3080  171.4   4.530   75.1  0.0988   71.4  0.2557  -30.8
 0.760  0.3089  170.5   4.417   74.5  0.1013   71.3  0.2544  -31.1
 0.780  0.3099  169.7   4.303   73.8  0.1037   71.2  0.2532  -31.3
 0.800  0.3110  168.8   4.191   73.1  0.1062   71.1  0.2519  -31.5
 0.820  0.3123  167.8   4.100   72.6  0.1086   70.9  0.2506  -31.8
 0.840  0.3136  166.9   4.009   72.0  0.1111   70.7  0.2494  -32.1
 0.860  0.3151  166.0   3.919   71.4  0.1135   70.5  0.2482  -32.4
 0.880  0.3166  165.0   3.829   70.8  0.1160   70.3  0.2469  -32.7
 0.900  0.3182  164.1   3.740   70.2  0.1184   70.1  0.2457  -33.0
 0.920  0.3188  163.3   3.669   69.6  0.1208   69.9  0.2449  -33.3
 0.940  0.3195  162.6   3.598   69.1  0.1233   69.6  0.2441  -33.7
 0.960  0.3202  161.8   3.527   68.5  0.1257   69.4  0.2433  -34.0
 0.980  0.3210  161.1   3.457   67.8  0.1282   69.2  0.2425  -34.4
 1.000  0.3218  160.3   3.387   67.2  0.1306   69.0  0.2417  -34.7
 1.020  0.3235  159.6   3.330   66.7  0.1331   68.8  0.2407  -35.1
 1.040  0.3252  158.9   3.273   66.1  0.1355   68.6  0.2397  -35.5
 1.060  0.3269  158.2   3.217   65.5  0.1380   68.4  0.2387  -35.9
 1.080  0.3287  157.5   3.161   64.9  0.1404   68.3  0.2377  -36.4
 1.100  0.3306  156.8   3.105   64.3  0.1429   68.1  0.2367  -36.8
 1.120  0.3324  156.1   3.057   63.8  0.1452   67.8  0.2357  -37.2
 1.140  0.3343  155.5   3.009   63.3  0.1476   67.6  0.2347  -37.6
 1.160  0.3362  154.9   2.962   62.7  0.1499   67.4  0.2337  -38.0
 1.180  0.3381  154.2   2.915   62.2  0.1523   67.1  0.2327  -38.5
 1.200  0.3401  153.6   2.868   61.6  0.1546   66.9  0.2317  -38.9
 1.220  0.3412  152.9   2.826   61.1  0.1569   66.7  0.2309  -39.3
 1.240  0.3423  152.2   2.784   60.5  0.1593   66.4  0.2301  -39.8
 1.260  0.3435  151.5   2.743   59.9  0.1616   66.2  0.2293  -40.2
 1.280  0.3447  150.9   2.702   59.3  0.1640   66.0  0.2286  -40.7
 1.300  0.3460  150.2   2.661   58.7  0.1663   65.8  0.2278  -41.1
 1.320  0.3473  149.6   2.625   58.2  0.1687   65.6  0.2271  -41.5
 1.340  0.3487  148.9   2.589   57.7  0.1710   65.4  0.2264  -41.9
 1.360  0.3501  148.3   2.553   57.2  0.1734   65.2  0.2257  -42.4
 1.380  0.3516  147.7   2.517   56.6  0.1757   65.1  0.2251  -42.8
 1.400  0.3531  147.1   2.482   56.1  0.1781   64.9  0.2244  -43.2
 1.420  0.3538  146.6   2.449   55.6  0.1804   64.6  0.2233  -43.7
 1.440  0.3546  146.0   2.417   55.1  0.1827   64.4  0.2221  -44.3
 1.460  0.3553  145.5   2.385   54.6  0.1850   64.1  0.2210  -44.8
 1.480  0.3562  144.9   2.353   54.0  0.1874   63.8  0.2200  -45.3
 1.500  0.3570  144.4   2.321   53.5  0.1897   63.6  0.2189  -45.9
 1.520  0.3594  143.8   2.298   53.0  0.1920   63.4  0.2180  -46.5
 1.540  0.3618  143.3   2.274   52.5  0.1943   63.1  0.2171  -47.0
 1.560  0.3642  142.7   2.251   52.0  0.1967   62.9  0.2162  -47.6
 1.580  0.3667  142.1   2.229   51.5  0.1990   62.7  0.2153  -48.2
 1.600  0.3692  141.6   2.206   51.0  0.2013   62.5  0.2145  -48.8
 1.620  0.3711  141.1   2.184   50.6  0.2035   62.3  0.2139  -49.4
 1.640  0.3731  140.5   2.162   50.1  0.2057   62.0  0.2133  -49.9
 1.660  0.3751  140.0   2.141   49.6  0.2080   61.8  0.2128  -50.5
 1.680  0.3771  139.5   2.119   49.2  0.2102   61.6  0.2122  -51.0
 1.700  0.3792  139.0   2.098   48.7  0.2124   61.4  0.2117  -51.6
 1.720  0.3796  138.6   2.077   48.2  0.2147   61.1  0.2111  -52.2
 1.740  0.3799  138.2   2.056   47.7  0.2171   60.9  0.2106  -52.8
 1.760  0.3803  137.7   2.036   47.1  0.2194   60.7  0.2101  -53.3
 1.780  0.3808  137.3   2.015   46.6  0.2218   60.4  0.2096  -53.9
 1.800  0.3812  136.9   1.995   46.0  0.2241   60.2  0.2091  -54.5
 1.820  0.3822  136.3   1.976   45.6  0.2263   60.0  0.2085  -55.1
 1.840  0.3832  135.8   1.957   45.1  0.2286   59.7  0.2079  -55.7
 1.860  0.3843  135.2   1.939   44.7  0.2308   59.5  0.2074  -56.2
 1.880  0.3854  134.7   1.920   44.3  0.2331   59.3  0.2068  -56.8
 1.900  0.3865  134.1   1.902   43.8  0.2353   59.1  0.2063  -57.4
 1.920  0.3880  133.6   1.886   43.4  0.2375   58.9  0.2057  -57.9
 1.940  0.3895  133.1   1.870   42.9  0.2397   58.7  0.2052  -58.5
 1.960  0.3910  132.6   1.855   42.4  0.2420   58.5  0.2047  -59.0
 1.980  0.3926  132.2   1.839   42.0  0.2442   58.3  0.2042  -59.6
 2.000  0.3942  131.7   1.824   41.5  0.2464   58.1  0.2037  -60.1
 2.020  0.3957  131.2   1.810   41.1  0.2487   57.8  0.2031  -60.7
 2.040  0.3973  130.7   1.796   40.6  0.2509   57.6  0.2025  -61.3
 2.060  0.3989  130.2   1.781   40.2  0.2532   57.3  0.2020  -61.9
 2.080  0.4005  129.7   1.767   39.7  0.2555   57.0  0.2014  -62.5
 2.100  0.4022  129.2   1.754   39.3  0.2577   56.8  0.2009  -63.1
 2.120  0.4039  128.7   1.740   38.8  0.2600   56.5  0.2004  -63.7
 2.140  0.4056  128.2   1.726   38.4  0.2623   56.3  0.2000  -64.3
 2.160  0.4073  127.7   1.713   37.9  0.2646   56.1  0.1995  -65.0
 2.180  0.4091  127.3   1.699   37.4  0.2669   55.8  0.1991  -65.6
 2.200  0.4109  126.8   1.686   36.9  0.2692   55.6  0.1987  -66.2
 2.220  0.4119  126.4   1.675   36.5  0.2714   55.3  0.1983  -66.8
 2.240  0.4130  126.0   1.663   36.1  0.2736   55.1  0.1978  -67.5
 2.260  0.4141  125.6   1.652   35.6  0.2758   54.8  0.1974  -68.2
 2.280  0.4152  125.2   1.641   35.2  0.2780   54.6  0.1971  -68.8
 2.300  0.4163  124.8   1.630   34.8  0.2802   54.4  0.1967  -69.5
 2.320  0.4174  124.4   1.619   34.3  0.2825   54.1  0.1964  -70.1
 2.340  0.4186  124.0   1.609   33.9  0.2847   53.9  0.1961  -70.8
 2.360  0.4198  123.7   1.598   33.4  0.2869   53.7  0.1958  -71.5
 2.380  0.4210  123.3   1.587   33.0  0.2892   53.4  0.1956  -72.1
 2.400  0.4222  122.9   1.577   32.5  0.2914   53.2  0.1954  -72.8
 2.420  0.4238  122.4   1.566   32.1  0.2935   52.9  0.1948  -73.5
 2.440  0.4255  122.0   1.556   31.7  0.2957   52.7  0.1941  -74.2
 2.460  0.4272  121.5   1.546   31.3  0.2979   52.4  0.1936  -75.0
 2.480  0.4289  121.1   1.535   30.8  0.3000   52.2  0.1930  -75.7
 2.500  0.4307  120.7   1.525   30.4  0.3022   52.0  0.1925  -76.5
 2.520  0.4325  120.2   1.515   30.0  0.3044   51.7  0.1920  -77.2
 2.540  0.4343  119.8   1.505   29.6  0.3065   51.5  0.1916  -77.9
 2.560  0.4361  119.4   1.495   29.1  0.3087   51.3  0.1911  -78.7
 2.580  0.4379  118.9   1.485   28.7  0.3109   51.0  0.1908  -79.4
 2.600  0.4398  118.5   1.475   28.2  0.3131   50.8  0.1904  -80.2
 2.620  0.4409  118.0   1.467   27.8  0.3152   50.5  0.1897  -81.0
 2.640  0.4421  117.5   1.460   27.4  0.3172   50.3  0.1891  -81.8
 2.660  0.4432  117.1   1.452   27.0  0.3193   50.0  0.1884  -82.6
 2.680  0.4444  116.6   1.445   26.6  0.3214   49.8  0.1879  -83.4
 2.700  0.4457  116.1   1.438   26.2  0.3235   49.5  0.1873  -84.2
 2.720  0.4469  115.6   1.430   25.7  0.3256   49.3  0.1868  -85.1
 2.740  0.4482  115.2   1.423   25.3  0.3277   49.0  0.1864  -85.9
 2.760  0.4496  114.7   1.416   24.9  0.3299   48.8  0.1859  -86.7
 2.780  0.4509  114.3   1.409   24.4  0.3320   48.5  0.1855  -87.6
 2.800  0.4523  113.8   1.402   24.0  0.3341   48.3  0.1852  -88.4
 2.820  0.4538  113.4   1.394   23.6  0.3363   48.0  0.1848  -89.3
 2.840  0.4553  112.9   1.386   23.3  0.3385   47.8  0.1844  -90.2
 2.860  0.4568  112.5   1.377   22.9  0.3408   47.5  0.1840  -91.1
 2.880  0.4584  112.1   1.369   22.5  0.3430   47.2  0.1837  -92.0
 2.900  0.4600  111.7   1.361   22.2  0.3453   47.0  0.1834  -92.9
 2.920  0.4616  111.2   1.353   21.8  0.3475   46.7  0.1832  -93.8
 2.940  0.4632  110.8   1.345   21.4  0.3498   46.4  0.1830  -94.7
 2.960  0.4649  110.4   1.338   21.0  0.3520   46.2  0.1829  -95.6
 2.980  0.4666  110.0   1.330   20.6  0.3543   45.9  0.1828  -96.5
 3.000  0.4683  109.6   1.322   20.2  0.3566   45.7  0.1828  -97.4
!
!  f       NFmin   Gammaopt  rn/50
! GHz       dB    MAG  ANG    -
!
! noise parameter not available yet for this operation point!
!
! (c) 2015  Infineon Technologies AG, Munich
