! Infineon Technologies  Discrete & RF Semiconductors
! BFR92P
! VCE =  6.0 V,  IC =  5.0 mA
! Common Emitter S-Parameters:                            Apr 2014
# GHz  S  MA  R  50
!  f         S11            S21            S12            S22
! GHz     MAG   ANG      MAG   ANG      MAG   ANG      MAG   ANG
 0.010  0.8345   -4.5  14.822  175.9  0.0023   84.4  0.9825   -1.5
 0.020  0.8653   -4.3  15.147  174.9  0.0043   90.0  1.0000   -2.8
 0.030  0.8494   -7.8  15.010  172.6  0.0069   84.2  1.0000   -4.1
 0.040  0.8368  -11.4  14.897  170.3  0.0095   81.6  0.9931   -5.4
 0.050  0.8276  -15.1  14.810  167.9  0.0122   80.1  0.9847   -6.8
 0.060  0.8151  -17.8  14.571  165.6  0.0141   78.3  0.9746   -8.0
 0.070  0.8044  -20.6  14.357  163.2  0.0161   76.9  0.9649   -9.2
 0.080  0.7957  -23.4  14.169  160.7  0.0180   75.8  0.9557  -10.4
 0.090  0.7890  -26.4  14.008  158.2  0.0199   74.9  0.9469  -11.6
 0.100  0.7844  -29.3  13.875  155.6  0.0219   74.2  0.9385  -12.9
 0.110  0.7726  -31.8  13.686  153.8  0.0237   73.0  0.9284  -13.9
 0.120  0.7622  -34.3  13.510  152.0  0.0254   72.0  0.9185  -14.9
 0.130  0.7534  -36.9  13.349  150.1  0.0272   71.1  0.9089  -15.9
 0.140  0.7462  -39.6  13.202  148.2  0.0290   70.4  0.8997  -16.9
 0.150  0.7406  -42.3  13.071  146.2  0.0308   69.7  0.8907  -18.0
 0.200  0.6640  -53.9  11.859  136.5  0.0378   65.1  0.8278  -21.5
 0.250  0.6110  -63.6  10.795  129.8  0.0440   62.6  0.7801  -24.4
 0.300  0.5534  -73.5   9.807  122.6  0.0492   60.1  0.7287  -26.1
 0.350  0.5046  -80.8   8.955  118.1  0.0533   58.5  0.6928  -27.1
 0.400  0.4655  -89.4   8.170  112.6  0.0574   57.2  0.6572  -28.2
 0.450  0.4321  -95.1   7.523  109.1  0.0609   57.0  0.6331  -28.6
 0.500  0.4035 -101.6   6.908  105.0  0.0645   56.9  0.6090  -29.0
 0.600  0.3555 -113.7   5.951   98.6  0.0706   57.0  0.5744  -29.4
 0.700  0.3220 -124.4   5.220   93.2  0.0771   57.5  0.5501  -29.6
 0.800  0.2997 -134.5   4.647   88.6  0.0835   58.2  0.5320  -30.3
 0.900  0.2793 -144.2   4.201   84.2  0.0904   58.6  0.5183  -30.9
 1.000  0.2684 -152.6   3.824   80.6  0.0976   59.4  0.5079  -31.7
 1.100  0.2599 -160.4   3.505   77.0  0.1045   59.9  0.5018  -32.4
 1.200  0.2555 -168.6   3.245   73.8  0.1119   60.2  0.4948  -33.4
 1.300  0.2522 -175.7   3.026   70.6  0.1193   60.5  0.4877  -34.4
 1.400  0.2505  177.1   2.830   67.5  0.1268   60.7  0.4830  -35.5
 1.500  0.2537  170.5   2.665   64.5  0.1351   60.9  0.4790  -36.9
 1.600  0.2582  164.3   2.520   61.7  0.1428   60.9  0.4736  -38.4
 1.700  0.2597  157.9   2.388   59.0  0.1511   60.7  0.4694  -39.7
 1.800  0.2648  153.5   2.277   56.3  0.1593   60.5  0.4665  -41.3
 1.900  0.2728  148.5   2.171   53.8  0.1680   60.2  0.4601  -42.9
 2.000  0.2795  143.3   2.078   51.3  0.1765   60.2  0.4568  -44.3
 2.100  0.2862  139.0   1.996   48.9  0.1851   59.7  0.4530  -46.0
 2.200  0.2944  134.9   1.918   46.4  0.1937   59.2  0.4496  -47.8
 2.300  0.3036  131.0   1.847   44.1  0.2027   58.7  0.4443  -49.6
 2.400  0.3142  127.4   1.780   41.6  0.2117   58.2  0.4395  -51.4
 2.500  0.3250  124.6   1.723   39.5  0.2207   57.7  0.4349  -53.4
 2.600  0.3366  121.9   1.669   37.3  0.2298   57.3  0.4308  -55.5
 2.700  0.3471  118.3   1.616   35.2  0.2398   56.5  0.4250  -57.5
 2.800  0.3588  115.0   1.565   33.0  0.2499   55.8  0.4198  -59.5
 2.900  0.3682  112.6   1.526   31.0  0.2597   54.9  0.4141  -62.0
 3.000  0.3781  110.4   1.489   28.8  0.2695   54.1  0.4092  -64.6
 3.100  0.3867  108.1   1.451   27.1  0.2798   53.0  0.4018  -67.3
 3.200  0.3959  105.9   1.414   25.3  0.2902   51.9  0.3953  -70.0
 3.300  0.4056  103.9   1.378   23.4  0.3006   51.0  0.3898  -72.8
 3.400  0.4158  101.9   1.344   21.4  0.3112   50.0  0.3852  -75.7
 3.500  0.4265  100.0   1.312   19.3  0.3218   49.2  0.3816  -78.7
 3.600  0.4365   98.6   1.285   17.8  0.3323   48.1  0.3739  -81.9
 3.700  0.4467   97.2   1.260   16.2  0.3429   47.0  0.3674  -85.3
 3.800  0.4572   95.9   1.235   14.6  0.3536   46.0  0.3623  -88.8
 3.900  0.4679   94.7   1.211   12.9  0.3644   45.1  0.3585  -92.4
 4.000  0.4788   93.5   1.189   11.1  0.3753   44.2  0.3562  -96.0
 4.100  0.4880   91.9   1.168    9.6  0.3856   42.8  0.3485 -100.0
 4.200  0.4976   90.3   1.147    8.0  0.3961   41.5  0.3425 -104.1
 4.300  0.5076   88.8   1.128    6.3  0.4068   40.2  0.3383 -108.4
 4.400  0.5179   87.4   1.109    4.7  0.4176   39.0  0.3361 -112.7
 4.500  0.5285   86.0   1.092    2.9  0.4287   37.9  0.3358 -117.1
 4.600  0.5350   84.6   1.073    1.5  0.4382   36.4  0.3297 -121.3
 4.700  0.5419   83.2   1.055   -0.0  0.4479   35.0  0.3255 -125.7
 4.800  0.5490   81.8   1.038   -1.6  0.4579   33.6  0.3232 -130.1
 4.900  0.5565   80.5   1.021   -3.2  0.4682   32.3  0.3229 -134.6
 5.000  0.5642   79.2   1.005   -4.8  0.4787   31.0  0.3245 -139.0
 5.100  0.5701   77.8   0.988   -6.0  0.4870   29.5  0.3225 -143.2
 5.200  0.5763   76.4   0.972   -7.2  0.4957   28.0  0.3223 -147.4
 5.300  0.5828   75.0   0.956   -8.5  0.5047   26.6  0.3238 -151.6
 5.400  0.5896   73.7   0.941   -9.8  0.5139   25.2  0.3270 -155.7
 5.500  0.5968   72.4   0.926  -11.1  0.5235   23.9  0.3319 -159.7
 5.600  0.6033   71.2   0.916  -12.1  0.5318   22.4  0.3350 -163.6
 5.700  0.6101   70.0   0.906  -13.1  0.5405   20.9  0.3396 -167.4
 5.800  0.6171   68.8   0.897  -14.2  0.5496   19.5  0.3457 -171.1
 5.900  0.6244   67.7   0.888  -15.2  0.5589   18.1  0.3531 -174.7
 6.000  0.6319   66.6   0.879  -16.3  0.5686   16.8  0.3619 -178.1
!
!  f       NFmin   Gammaopt  rn/50
! GHz       dB    MAG  ANG    -
!
! noise parameter not available yet for this operation point!
!
! (c) 2014  Infineon Technologies AG, Munich
