! Infineon Technologies  Discrete & RF Semiconductors
! BFR93A
! VCE =  3.5 V,  IC =  2.0 mA
! Common Emitter S-Parameters:                            Nov 2015
# GHz  S  MA  R  50
!  f         S11            S21            S12            S22
! GHz     MAG   ANG      MAG   ANG      MAG   ANG      MAG   ANG
 0.010  0.9267   -3.3   6.624  177.5  0.0046   88.3  0.9958   -1.4
 0.015  0.9233   -4.8   6.622  176.3  0.0069   86.2  0.9947   -2.0
 0.020  0.9206   -6.4   6.624  175.0  0.0093   85.2  0.9937   -2.7
 0.025  0.9177   -8.0   6.604  173.8  0.0115   83.8  0.9915   -3.4
 0.030  0.9156   -9.6   6.587  172.7  0.0137   82.8  0.9894   -4.0
 0.035  0.9141  -11.2   6.573  171.5  0.0159   82.2  0.9875   -4.7
 0.040  0.9134  -12.8   6.562  170.4  0.0181   81.6  0.9857   -5.4
 0.045  0.9134  -14.4   6.553  169.2  0.0203   81.2  0.9840   -6.0
 0.050  0.9141  -16.0   6.547  168.0  0.0225   80.9  0.9825   -6.7
 0.055  0.9080  -17.5   6.509  167.0  0.0246   79.4  0.9789   -7.3
 0.060  0.9026  -19.0   6.474  165.9  0.0266   78.1  0.9754   -7.9
 0.065  0.8978  -20.6   6.440  164.9  0.0287   77.1  0.9720   -8.5
 0.070  0.8936  -22.1   6.409  163.8  0.0308   76.1  0.9688   -9.1
 0.075  0.8901  -23.7   6.380  162.7  0.0329   75.3  0.9656   -9.8
 0.080  0.8873  -25.3   6.353  161.6  0.0350   74.6  0.9626  -10.4
 0.085  0.8852  -26.9   6.329  160.5  0.0371   73.9  0.9597  -11.0
 0.090  0.8838  -28.5   6.307  159.4  0.0392   73.4  0.9569  -11.6
 0.095  0.8830  -30.1   6.287  158.3  0.0413   72.9  0.9542  -12.3
 0.100  0.8830  -31.7   6.270  157.2  0.0434   72.4  0.9516  -12.9
 0.105  0.8765  -33.1   6.223  156.2  0.0451   71.3  0.9465  -13.4
 0.110  0.8704  -34.4   6.178  155.2  0.0467   70.4  0.9415  -13.9
 0.115  0.8649  -35.8   6.135  154.2  0.0484   69.4  0.9366  -14.4
 0.120  0.8599  -37.2   6.094  153.2  0.0501   68.6  0.9318  -14.9
 0.125  0.8554  -38.7   6.056  152.1  0.0518   67.8  0.9270  -15.4
 0.130  0.8515  -40.1   6.019  151.1  0.0535   67.1  0.9223  -16.0
 0.135  0.8481  -41.6   5.984  150.0  0.0553   66.4  0.9177  -16.5
 0.140  0.8452  -43.0   5.951  148.9  0.0570   65.7  0.9131  -17.0
 0.145  0.8429  -44.5   5.920  147.8  0.0588   65.1  0.9087  -17.6
 0.150  0.8412  -46.0   5.892  146.7  0.0605   64.5  0.9043  -18.1
 0.155  0.8343  -47.3   5.847  145.9  0.0619   63.8  0.8992  -18.5
 0.160  0.8278  -48.5   5.803  145.0  0.0633   63.1  0.8942  -18.9
 0.165  0.8218  -49.8   5.760  144.2  0.0647   62.5  0.8892  -19.3
 0.170  0.8161  -51.1   5.719  143.3  0.0661   61.8  0.8843  -19.7
 0.175  0.8109  -52.4   5.679  142.4  0.0675   61.2  0.8794  -20.1
 0.180  0.8061  -53.8   5.641  141.5  0.0689   60.7  0.8745  -20.6
 0.185  0.8018  -55.1   5.604  140.6  0.0703   60.1  0.8697  -21.0
 0.190  0.7979  -56.5   5.568  139.7  0.0717   59.6  0.8650  -21.4
 0.195  0.7945  -57.9   5.534  138.7  0.0732   59.1  0.8603  -21.9
 0.200  0.7916  -59.3   5.501  137.8  0.0746   58.6  0.8556  -22.3
 0.220  0.7682  -64.0   5.321  134.7  0.0789   56.2  0.8354  -23.6
 0.240  0.7502  -69.0   5.159  131.3  0.0834   54.0  0.8156  -25.1
 0.260  0.7337  -73.7   5.001  128.3  0.0873   52.1  0.7969  -26.3
 0.280  0.7171  -78.1   4.842  125.7  0.0906   50.5  0.7790  -27.2
 0.300  0.7049  -82.6   4.694  122.9  0.0939   49.0  0.7613  -28.2
 0.320  0.6851  -86.1   4.537  120.8  0.0961   47.7  0.7465  -28.9
 0.340  0.6680  -89.7   4.385  118.6  0.0984   46.4  0.7319  -29.6
 0.360  0.6538  -93.6   4.241  116.3  0.1008   45.2  0.7173  -30.3
 0.380  0.6426  -97.6   4.104  113.8  0.1032   44.1  0.7029  -31.0
 0.400  0.6347 -101.7   3.976  111.1  0.1056   43.0  0.6886  -31.8
 0.420  0.6212 -104.6   3.856  109.4  0.1070   42.2  0.6779  -32.2
 0.440  0.6093 -107.6   3.740  107.7  0.1083   41.4  0.6673  -32.7
 0.450  0.6040 -109.1   3.684  106.8  0.1090   41.0  0.6620  -32.9
 0.460  0.5992 -110.7   3.628  105.8  0.1097   40.6  0.6567  -33.1
 0.480  0.5909 -113.9   3.520  103.8  0.1112   39.8  0.6462  -33.6
 0.500  0.5845 -117.2   3.416  101.7  0.1126   39.1  0.6357  -34.1
 0.520  0.5756 -119.7   3.325  100.3  0.1135   38.7  0.6280  -34.5
 0.540  0.5679 -122.3   3.236   98.9  0.1144   38.3  0.6203  -34.8
 0.560  0.5613 -125.0   3.150   97.3  0.1153   37.9  0.6126  -35.2
 0.580  0.5560 -127.7   3.066   95.7  0.1163   37.5  0.6049  -35.6
 0.600  0.5520 -130.5   2.984   94.0  0.1172   37.1  0.5973  -36.0
 0.620  0.5460 -132.7   2.912   92.8  0.1179   36.9  0.5918  -36.3
 0.640  0.5409 -134.9   2.841   91.5  0.1186   36.8  0.5863  -36.6
 0.660  0.5366 -137.1   2.772   90.1  0.1192   36.6  0.5809  -36.9
 0.680  0.5330 -139.4   2.704   88.7  0.1199   36.5  0.5754  -37.3
 0.700  0.5304 -141.7   2.638   87.2  0.1206   36.3  0.5700  -37.6
 0.720  0.5267 -143.6   2.582   86.2  0.1211   36.3  0.5658  -37.9
 0.740  0.5237 -145.6   2.526   85.1  0.1215   36.3  0.5615  -38.3
 0.760  0.5213 -147.6   2.472   83.9  0.1220   36.3  0.5573  -38.6
 0.780  0.5195 -149.6   2.418   82.7  0.1224   36.3  0.5532  -38.9
 0.800  0.5183 -151.6   2.366   81.5  0.1229   36.3  0.5490  -39.3
 0.820  0.5157 -153.3   2.319   80.5  0.1234   36.4  0.5456  -39.6
 0.840  0.5136 -155.1   2.273   79.5  0.1239   36.5  0.5422  -40.0
 0.860  0.5120 -156.8   2.228   78.5  0.1245   36.6  0.5389  -40.3
 0.880  0.5109 -158.6   2.183   77.4  0.1250   36.7  0.5355  -40.7
 0.900  0.5103 -160.4   2.139   76.3  0.1255   36.8  0.5322  -41.0
 0.920  0.5083 -161.9   2.101   75.4  0.1260   37.0  0.5300  -41.4
 0.940  0.5067 -163.5   2.064   74.4  0.1265   37.2  0.5278  -41.7
 0.960  0.5055 -165.1   2.027   73.5  0.1271   37.3  0.5257  -42.1
 0.980  0.5046 -166.6   1.991   72.5  0.1276   37.5  0.5235  -42.4
 1.000  0.5041 -168.2   1.955   71.4  0.1281   37.7  0.5214  -42.8
 1.020  0.5036 -169.5   1.925   70.6  0.1287   38.0  0.5193  -43.2
 1.040  0.5033 -170.9   1.895   69.7  0.1292   38.3  0.5171  -43.7
 1.060  0.5033 -172.2   1.865   68.8  0.1298   38.5  0.5151  -44.1
 1.080  0.5036 -173.6   1.836   67.9  0.1303   38.8  0.5130  -44.6
 1.100  0.5042 -174.9   1.808   67.0  0.1309   39.1  0.5110  -45.0
 1.120  0.5044 -176.2   1.782   66.2  0.1316   39.4  0.5093  -45.5
 1.140  0.5049 -177.6   1.757   65.4  0.1323   39.8  0.5076  -45.9
 1.160  0.5057 -178.9   1.732   64.6  0.1330   40.1  0.5059  -46.4
 1.180  0.5067  179.8   1.707   63.8  0.1338   40.5  0.5043  -46.8
 1.200  0.5080  178.5   1.683   62.9  0.1345   40.8  0.5027  -47.3
 1.220  0.5078  177.3   1.660   62.1  0.1352   41.2  0.5015  -47.8
 1.240  0.5079  176.1   1.636   61.3  0.1360   41.6  0.5003  -48.2
 1.260  0.5082  175.0   1.614   60.5  0.1368   42.0  0.4991  -48.7
 1.280  0.5087  173.8   1.591   59.6  0.1375   42.3  0.4980  -49.1
 1.300  0.5094  172.6   1.569   58.7  0.1383   42.7  0.4969  -49.6
 1.320  0.5094  171.5   1.548   58.0  0.1392   43.1  0.4959  -50.1
 1.340  0.5096  170.5   1.528   57.3  0.1402   43.5  0.4950  -50.6
 1.360  0.5100  169.4   1.508   56.6  0.1411   43.9  0.4941  -51.0
 1.380  0.5105  168.4   1.488   55.9  0.1420   44.2  0.4932  -51.5
 1.400  0.5112  167.3   1.468   55.1  0.1430   44.6  0.4924  -52.0
 1.420  0.5112  166.3   1.451   54.4  0.1441   45.0  0.4912  -52.5
 1.440  0.5114  165.4   1.433   53.7  0.1451   45.5  0.4901  -53.1
 1.460  0.5117  164.4   1.416   53.0  0.1462   45.9  0.4890  -53.6
 1.480  0.5122  163.5   1.400   52.3  0.1473   46.3  0.4880  -54.2
 1.500  0.5128  162.5   1.383   51.5  0.1484   46.7  0.4870  -54.7
 1.520  0.5144  161.6   1.369   50.9  0.1497   47.0  0.4862  -55.3
 1.540  0.5162  160.7   1.356   50.3  0.1510   47.4  0.4854  -55.9
 1.560  0.5181  159.8   1.342   49.7  0.1523   47.7  0.4846  -56.4
 1.580  0.5201  159.0   1.329   49.0  0.1537   48.0  0.4839  -57.0
 1.600  0.5222  158.1   1.316   48.4  0.1550   48.3  0.4833  -57.6
 1.620  0.5234  157.3   1.303   47.8  0.1565   48.6  0.4825  -58.2
 1.640  0.5246  156.4   1.291   47.2  0.1579   49.0  0.4817  -58.8
 1.660  0.5260  155.6   1.279   46.5  0.1594   49.3  0.4810  -59.4
 1.680  0.5275  154.7   1.267   45.9  0.1609   49.6  0.4804  -60.0
 1.700  0.5291  153.9   1.255   45.2  0.1624   49.9  0.4798  -60.6
 1.720  0.5292  153.1   1.243   44.6  0.1642   50.2  0.4796  -61.2
 1.740  0.5294  152.3   1.231   44.0  0.1659   50.5  0.4794  -61.8
 1.760  0.5297  151.4   1.220   43.4  0.1677   50.8  0.4793  -62.3
 1.780  0.5301  150.6   1.208   42.7  0.1695   51.1  0.4792  -62.9
 1.800  0.5306  149.8   1.197   42.1  0.1713   51.4  0.4792  -63.5
 1.820  0.5309  149.0   1.186   41.6  0.1731   51.7  0.4785  -64.1
 1.840  0.5313  148.1   1.176   41.1  0.1749   52.1  0.4779  -64.7
 1.860  0.5318  147.3   1.166   40.6  0.1767   52.4  0.4773  -65.4
 1.880  0.5325  146.4   1.155   40.0  0.1786   52.7  0.4768  -66.0
 1.900  0.5332  145.6   1.145   39.5  0.1804   53.0  0.4763  -66.6
 1.920  0.5346  144.9   1.136   39.0  0.1824   53.2  0.4757  -67.2
 1.940  0.5362  144.1   1.126   38.5  0.1844   53.4  0.4752  -67.8
 1.960  0.5378  143.4   1.117   38.0  0.1865   53.6  0.4748  -68.5
 1.980  0.5395  142.7   1.108   37.4  0.1885   53.8  0.4743  -69.1
 2.000  0.5413  142.0   1.099   36.9  0.1905   54.0  0.4740  -69.7
 2.020  0.5422  141.3   1.090   36.4  0.1928   54.2  0.4735  -70.3
 2.040  0.5433  140.5   1.082   35.9  0.1952   54.3  0.4730  -71.0
 2.060  0.5444  139.8   1.073   35.5  0.1975   54.5  0.4726  -71.6
 2.080  0.5456  139.1   1.064   35.0  0.1999   54.6  0.4723  -72.3
 2.100  0.5469  138.4   1.056   34.5  0.2022   54.8  0.4720  -72.9
 2.120  0.5482  137.6   1.048   33.9  0.2046   54.9  0.4718  -73.6
 2.140  0.5497  136.9   1.039   33.4  0.2069   55.1  0.4717  -74.2
 2.160  0.5513  136.2   1.031   32.9  0.2093   55.2  0.4716  -74.9
 2.180  0.5529  135.5   1.023   32.3  0.2116   55.4  0.4716  -75.5
 2.200  0.5546  134.8   1.015   31.8  0.2140   55.5  0.4716  -76.2
 2.220  0.5554  134.2   1.008   31.4  0.2167   55.5  0.4712  -76.9
 2.240  0.5562  133.5   1.002   31.0  0.2193   55.5  0.4708  -77.6
 2.260  0.5571  132.9   0.995   30.5  0.2220   55.6  0.4705  -78.3
 2.280  0.5581  132.3   0.988   30.1  0.2246   55.6  0.4703  -79.0
 2.300  0.5592  131.6   0.982   29.7  0.2273   55.6  0.4701  -79.6
 2.320  0.5603  131.0   0.975   29.2  0.2300   55.6  0.4700  -80.3
 2.340  0.5615  130.4   0.969   28.8  0.2326   55.6  0.4700  -81.0
 2.360  0.5627  129.7   0.963   28.3  0.2353   55.7  0.4700  -81.7
 2.380  0.5640  129.1   0.956   27.9  0.2379   55.7  0.4701  -82.4
 2.400  0.5654  128.5   0.950   27.4  0.2406   55.7  0.4703  -83.1
 2.420  0.5665  127.9   0.944   27.0  0.2435   55.7  0.4697  -83.8
 2.440  0.5676  127.3   0.937   26.6  0.2463   55.6  0.4693  -84.6
 2.460  0.5688  126.6   0.931   26.2  0.2492   55.6  0.4689  -85.3
 2.480  0.5701  126.0   0.925   25.8  0.2521   55.5  0.4686  -86.1
 2.500  0.5714  125.4   0.919   25.4  0.2549   55.5  0.4683  -86.8
 2.520  0.5728  124.8   0.913   25.0  0.2578   55.4  0.4682  -87.5
 2.540  0.5743  124.2   0.907   24.6  0.2607   55.4  0.4681  -88.3
 2.560  0.5758  123.6   0.901   24.2  0.2636   55.4  0.4681  -89.0
 2.580  0.5774  123.0   0.895   23.7  0.2664   55.3  0.4681  -89.8
 2.600  0.5791  122.4   0.889   23.3  0.2693   55.3  0.4683  -90.5
 2.620  0.5796  121.8   0.884   22.9  0.2724   55.2  0.4677  -91.3
 2.640  0.5801  121.2   0.879   22.6  0.2754   55.0  0.4672  -92.1
 2.660  0.5807  120.6   0.875   22.2  0.2785   54.9  0.4668  -92.9
 2.680  0.5813  120.1   0.870   21.9  0.2816   54.8  0.4664  -93.7
 2.700  0.5820  119.5   0.865   21.5  0.2846   54.7  0.4662  -94.4
 2.720  0.5828  118.9   0.860   21.1  0.2877   54.5  0.4660  -95.2
 2.740  0.5836  118.3   0.856   20.8  0.2908   54.4  0.4660  -96.0
 2.760  0.5845  117.7   0.851   20.4  0.2939   54.3  0.4660  -96.8
 2.780  0.5854  117.2   0.847   20.0  0.2969   54.2  0.4661  -97.6
 2.800  0.5864  116.6   0.842   19.6  0.3000   54.1  0.4663  -98.4
 2.820  0.5872  116.0   0.838   19.3  0.3033   53.9  0.4659  -99.2
 2.840  0.5881  115.4   0.834   19.0  0.3066   53.7  0.4657 -100.1
 2.860  0.5890  114.8   0.830   18.7  0.3099   53.5  0.4655 -100.9
 2.880  0.5900  114.2   0.827   18.4  0.3132   53.3  0.4655 -101.7
 2.900  0.5911  113.6   0.823   18.1  0.3165   53.2  0.4655 -102.6
 2.920  0.5922  113.0   0.819   17.8  0.3198   53.0  0.4657 -103.4
 2.940  0.5934  112.4   0.815   17.5  0.3231   52.8  0.4659 -104.2
 2.960  0.5947  111.9   0.811   17.2  0.3264   52.6  0.4662 -105.0
 2.980  0.5960  111.3   0.808   16.9  0.3297   52.5  0.4667 -105.9
 3.000  0.5974  110.7   0.804   16.6  0.3330   52.3  0.4672 -106.7
!
!  f       NFmin   Gammaopt  rn/50
! GHz       dB    MAG  ANG    -
!
! noise parameter not available yet for this operation point!
!
! (c) 2015  Infineon Technologies AG, Munich
