! Infineon Technologies  Discrete & RF Semiconductors
! BFR92P
! VCE =  2.0 V,  IC =  5.0 mA
! Common Emitter S-Parameters:                            Apr 2014
# GHz  S  MA  R  50
!  f         S11            S21            S12            S22
! GHz     MAG   ANG      MAG   ANG      MAG   ANG      MAG   ANG
 0.010  0.8193   -4.9  15.078  176.0  0.0024   83.9  0.9802   -1.8
 0.020  0.8529   -5.0  15.489  174.8  0.0051   89.5  0.9960   -3.2
 0.030  0.8354   -8.8  15.324  172.3  0.0080   85.2  0.9896   -4.8
 0.040  0.8218  -12.7  15.190  169.7  0.0109   83.3  0.9839   -6.4
 0.050  0.8120  -16.7  15.087  167.1  0.0138   82.1  0.9790   -8.0
 0.060  0.7978  -19.7  14.819  164.7  0.0160   79.7  0.9672   -9.4
 0.070  0.7858  -22.7  14.578  162.2  0.0182   77.8  0.9559  -10.7
 0.080  0.7760  -25.8  14.367  159.6  0.0204   76.4  0.9453  -12.2
 0.090  0.7687  -29.0  14.185  156.9  0.0226   75.3  0.9352  -13.6
 0.100  0.7638  -32.3  14.035  154.2  0.0248   74.3  0.9257  -15.1
 0.110  0.7510  -35.0  13.818  152.3  0.0268   72.6  0.9133  -16.2
 0.120  0.7399  -37.8  13.616  150.4  0.0289   71.1  0.9013  -17.4
 0.130  0.7305  -40.6  13.431  148.4  0.0310   69.9  0.8897  -18.6
 0.140  0.7231  -43.5  13.261  146.4  0.0331   68.8  0.8785  -19.8
 0.150  0.7175  -46.5  13.109  144.3  0.0352   67.8  0.8677  -21.1
 0.200  0.6403  -59.2  11.783  134.4  0.0430   63.4  0.7964  -25.0
 0.250  0.5893  -69.5  10.640  127.5  0.0493   60.9  0.7425  -28.3
 0.300  0.5339  -80.4   9.609  120.4  0.0545   57.6  0.6861  -30.1
 0.350  0.4896  -88.1   8.739  115.9  0.0589   56.6  0.6474  -31.2
 0.400  0.4557  -97.1   7.934  110.5  0.0634   55.8  0.6089  -32.5
 0.450  0.4255 -103.2   7.289  107.0  0.0667   55.6  0.5829  -32.9
 0.500  0.4008 -110.2   6.676  102.9  0.0701   55.4  0.5570  -33.4
 0.600  0.3605 -122.4   5.729   96.7  0.0779   55.5  0.5202  -33.7
 0.700  0.3341 -133.3   5.018   91.4  0.0840   56.2  0.4946  -34.0
 0.800  0.3141 -143.5   4.461   86.7  0.0918   56.5  0.4753  -34.5
 0.900  0.2999 -153.1   4.026   82.5  0.0994   57.2  0.4603  -35.2
 1.000  0.2934 -161.0   3.663   78.8  0.1068   57.6  0.4492  -36.0
 1.100  0.2880 -168.3   3.358   75.3  0.1144   58.2  0.4424  -36.8
 1.200  0.2867 -175.2   3.110   72.0  0.1227   58.4  0.4347  -37.8
 1.300  0.2849  178.0   2.899   68.8  0.1306   58.7  0.4265  -38.9
 1.400  0.2835  171.6   2.708   65.7  0.1392   58.8  0.4220  -40.1
 1.500  0.2875  165.6   2.551   62.7  0.1476   58.7  0.4172  -41.6
 1.600  0.2946  159.8   2.415   59.8  0.1561   58.6  0.4111  -43.1
 1.700  0.2963  154.5   2.288   57.1  0.1650   58.2  0.4062  -44.6
 1.800  0.3020  150.2   2.182   54.4  0.1738   57.9  0.4032  -46.3
 1.900  0.3097  145.9   2.080   51.8  0.1828   57.7  0.3967  -48.1
 2.000  0.3180  141.2   1.990   49.2  0.1922   57.3  0.3921  -49.7
 2.100  0.3242  137.2   1.913   46.9  0.2012   56.7  0.3879  -51.6
 2.200  0.3319  133.4   1.839   44.4  0.2102   56.2  0.3841  -53.5
 2.300  0.3413  129.7   1.771   42.1  0.2198   55.6  0.3779  -55.5
 2.400  0.3521  126.3   1.706   39.6  0.2294   55.0  0.3722  -57.5
 2.500  0.3630  123.6   1.652   37.5  0.2386   54.4  0.3671  -59.8
 2.600  0.3747  121.0   1.600   35.2  0.2479   53.8  0.3626  -62.1
 2.700  0.3842  117.7   1.550   33.1  0.2582   52.9  0.3565  -64.3
 2.800  0.3949  114.5   1.502   30.9  0.2686   52.1  0.3510  -66.6
 2.900  0.4051  112.1   1.464   28.9  0.2785   51.2  0.3446  -69.4
 3.000  0.4159  109.8   1.428   26.7  0.2884   50.3  0.3390  -72.4
 3.100  0.4236  107.6   1.391   25.0  0.2987   49.1  0.3314  -75.5
 3.200  0.4319  105.4   1.356   23.2  0.3092   47.9  0.3248  -78.7
 3.300  0.4408  103.4   1.322   21.3  0.3198   46.8  0.3193  -82.0
 3.400  0.4502  101.4   1.289   19.3  0.3305   45.8  0.3149  -85.5
 3.500  0.4602   99.5   1.258   17.2  0.3413   44.9  0.3116  -89.0
 3.600  0.4698   98.0   1.232   15.7  0.3513   43.7  0.3042  -92.8
 3.700  0.4797   96.6   1.207   14.1  0.3614   42.6  0.2982  -96.8
 3.800  0.4898   95.2   1.183   12.5  0.3716   41.5  0.2936 -100.9
 3.900  0.5003   93.9   1.160   10.8  0.3819   40.5  0.2907 -105.1
 4.000  0.5110   92.6   1.138    9.0  0.3924   39.6  0.2893 -109.4
 4.100  0.5197   91.0   1.118    7.5  0.4020   38.2  0.2834 -114.1
 4.200  0.5288   89.4   1.098    6.0  0.4119   36.8  0.2795 -118.9
 4.300  0.5383   87.9   1.079    4.5  0.4219   35.5  0.2776 -123.8
 4.400  0.5482   86.4   1.061    2.9  0.4322   34.3  0.2778 -128.8
 4.500  0.5584   85.0   1.044    1.2  0.4427   33.1  0.2800 -133.7
 4.600  0.5640   83.6   1.026   -0.2  0.4512   31.6  0.2771 -138.4
 4.700  0.5699   82.1   1.009   -1.6  0.4600   30.2  0.2761 -143.2
 4.800  0.5762   80.8   0.992   -3.1  0.4691   28.9  0.2770 -148.0
 4.900  0.5828   79.4   0.976   -4.6  0.4784   27.6  0.2799 -152.7
 5.000  0.5897   78.1   0.961   -6.2  0.4880   26.3  0.2846 -157.3
 5.100  0.5950   76.7   0.945   -7.4  0.4954   24.9  0.2860 -161.6
 5.200  0.6006   75.4   0.930   -8.6  0.5031   23.5  0.2891 -165.8
 5.300  0.6065   74.1   0.915   -9.8  0.5110   22.1  0.2936 -169.9
 5.400  0.6127   72.8   0.901  -11.1  0.5193   20.8  0.2996 -173.8
 5.500  0.6193   71.5   0.887  -12.4  0.5278   19.5  0.3069 -177.6
 5.600  0.6247   70.3   0.878  -13.3  0.5355   18.0  0.3125  178.8
 5.700  0.6303   69.1   0.870  -14.3  0.5435   16.6  0.3194  175.3
 5.800  0.6363   67.9   0.862  -15.3  0.5518   15.2  0.3273  172.0
 5.900  0.6425   66.7   0.854  -16.3  0.5605   13.9  0.3363  168.9
 6.000  0.6489   65.6   0.846  -17.3  0.5694   12.6  0.3463  165.9
!
!  f       NFmin   Gammaopt  rn/50
! GHz       dB    MAG  ANG    -
!
! noise parameter not available yet for this operation point!
!
! (c) 2014  Infineon Technologies AG, Munich
