! Infineon Technologies  Discrete & RF Semiconductors
! BFR93AW
! VCE = 0.50 V,  IC =  5.0 mA
! Common Emitter S-Parameters:                            Nov 2015
# GHz  S  MA  R  50
!  f         S11            S21            S12            S22
! GHz     MAG   ANG      MAG   ANG      MAG   ANG      MAG   ANG
 0.030  0.7990  -22.2  15.749  167.1  0.0187   78.4  0.9554  -11.9
 0.035  0.7951  -25.4  15.625  165.0  0.0217   76.5  0.9462  -13.8
 0.040  0.7937  -28.7  15.524  162.8  0.0247   75.0  0.9381  -15.7
 0.045  0.7949  -32.0  15.445  160.6  0.0277   73.8  0.9311  -17.6
 0.050  0.7986  -35.2  15.388  158.4  0.0308   72.9  0.9251  -19.6
 0.055  0.7843  -38.0  15.132  156.9  0.0330   70.7  0.9101  -21.0
 0.060  0.7720  -40.9  14.887  155.3  0.0352   68.7  0.8956  -22.4
 0.065  0.7617  -43.9  14.654  153.7  0.0374   67.0  0.8817  -23.9
 0.070  0.7534  -46.9  14.434  152.0  0.0397   65.4  0.8685  -25.4
 0.075  0.7473  -50.0  14.226  150.2  0.0420   64.0  0.8558  -26.9
 0.080  0.7434  -53.1  14.032  148.4  0.0443   62.8  0.8438  -28.5
 0.085  0.7418  -56.2  13.852  146.6  0.0466   61.7  0.8324  -30.2
 0.090  0.7425  -59.4  13.687  144.7  0.0490   60.7  0.8218  -31.9
 0.095  0.7454  -62.6  13.537  142.8  0.0513   59.8  0.8119  -33.6
 0.100  0.7505  -65.7  13.402  140.8  0.0537   59.0  0.8028  -35.4
 0.105  0.7400  -67.9  13.152  139.7  0.0550   57.8  0.7886  -36.3
 0.110  0.7306  -70.1  12.907  138.5  0.0563   56.7  0.7745  -37.2
 0.115  0.7223  -72.4  12.667  137.3  0.0576   55.6  0.7606  -38.2
 0.120  0.7152  -74.7  12.433  136.1  0.0589   54.6  0.7470  -39.2
 0.125  0.7093  -77.1  12.205  134.8  0.0603   53.6  0.7336  -40.3
 0.130  0.7046  -79.5  11.984  133.5  0.0617   52.7  0.7205  -41.4
 0.135  0.7013  -81.9  11.770  132.1  0.0631   51.8  0.7077  -42.5
 0.140  0.6992  -84.4  11.563  130.6  0.0645   50.9  0.6951  -43.6
 0.145  0.6984  -86.9  11.363  129.1  0.0659   50.1  0.6828  -44.8
 0.150  0.6989  -89.4  11.171  127.6  0.0673   49.3  0.6709  -46.1
 0.155  0.6931  -91.0  10.984  126.8  0.0681   48.7  0.6603  -46.8
 0.160  0.6880  -92.7  10.799  126.0  0.0689   48.2  0.6498  -47.4
 0.165  0.6833  -94.3  10.617  125.1  0.0697   47.6  0.6393  -48.1
 0.170  0.6793  -96.0  10.437  124.2  0.0705   47.1  0.6290  -48.8
 0.175  0.6758  -97.7  10.260  123.3  0.0713   46.6  0.6187  -49.6
 0.180  0.6730  -99.4  10.086  122.3  0.0721   46.0  0.6086  -50.4
 0.185  0.6708 -101.2   9.915  121.3  0.0729   45.5  0.5986  -51.2
 0.190  0.6692 -102.9   9.747  120.3  0.0737   45.0  0.5887  -52.0
 0.195  0.6682 -104.6   9.582  119.2  0.0746   44.6  0.5789  -52.8
 0.200  0.6678 -106.4   9.420  118.1  0.0754   44.1  0.5693  -53.7
 0.220  0.6520 -111.7   8.833  115.5  0.0776   42.7  0.5361  -55.6
 0.240  0.6421 -117.2   8.267  112.5  0.0799   41.3  0.5035  -57.6
 0.260  0.6357 -122.0   7.773  109.9  0.0820   40.4  0.4759  -59.5
 0.280  0.6307 -126.1   7.341  107.7  0.0838   39.9  0.4528  -60.9
 0.300  0.6290 -130.2   6.921  105.3  0.0856   39.4  0.4301  -62.5
 0.320  0.6217 -133.1   6.606  103.9  0.0868   39.1  0.4131  -63.3
 0.340  0.6161 -136.1   6.295  102.3  0.0881   38.8  0.3963  -64.2
 0.360  0.6122 -139.1   5.990  100.6  0.0893   38.6  0.3795  -65.2
 0.380  0.6100 -142.2   5.691   98.8  0.0906   38.3  0.3629  -66.3
 0.400  0.6096 -145.3   5.398   96.7  0.0918   38.1  0.3464  -67.5
 0.420  0.6061 -147.4   5.198   95.6  0.0928   38.1  0.3360  -68.2
 0.440  0.6035 -149.6   5.001   94.4  0.0939   38.2  0.3256  -68.9
 0.450  0.6025 -150.7   4.903   93.8  0.0944   38.2  0.3204  -69.3
 0.460  0.6017 -151.8   4.806   93.1  0.0949   38.2  0.3152  -69.7
 0.480  0.6008 -153.9   4.613   91.7  0.0960   38.3  0.3050  -70.6
 0.500  0.6007 -156.1   4.424   90.2  0.0970   38.3  0.2948  -71.5
 0.520  0.5998 -157.6   4.284   89.3  0.0981   38.6  0.2884  -72.0
 0.540  0.5993 -159.1   4.145   88.3  0.0993   38.9  0.2820  -72.5
 0.560  0.5993 -160.7   4.007   87.3  0.1004   39.2  0.2756  -73.0
 0.580  0.5996 -162.2   3.871   86.2  0.1016   39.5  0.2693  -73.6
 0.600  0.6004 -163.7   3.736   85.0  0.1027   39.8  0.2630  -74.2
 0.620  0.5996 -165.0   3.637   84.2  0.1038   40.1  0.2586  -74.8
 0.640  0.5991 -166.4   3.539   83.3  0.1050   40.4  0.2543  -75.4
 0.660  0.5989 -167.7   3.442   82.3  0.1061   40.7  0.2500  -76.1
 0.680  0.5990 -169.1   3.345   81.3  0.1073   41.0  0.2457  -76.7
 0.700  0.5995 -170.4   3.250   80.3  0.1084   41.3  0.2415  -77.4
 0.720  0.5998 -171.5   3.171   79.5  0.1096   41.6  0.2381  -78.1
 0.740  0.6004 -172.7   3.093   78.7  0.1107   41.9  0.2348  -78.9
 0.760  0.6012 -173.8   3.015   77.9  0.1119   42.2  0.2315  -79.7
 0.780  0.6023 -175.0   2.938   77.0  0.1130   42.5  0.2283  -80.5
 0.800  0.6036 -176.1   2.862   76.1  0.1142   42.8  0.2251  -81.3
 0.820  0.6028 -177.0   2.803   75.4  0.1154   43.2  0.2233  -81.7
 0.840  0.6022 -177.9   2.743   74.7  0.1166   43.5  0.2215  -82.2
 0.860  0.6017 -178.8   2.685   74.0  0.1178   43.9  0.2198  -82.7
 0.880  0.6014 -179.7   2.627   73.2  0.1191   44.3  0.2180  -83.1
 0.900  0.6012  179.4   2.569   72.4  0.1203   44.6  0.2163  -83.6
 0.920  0.6010  178.5   2.521   71.7  0.1217   44.9  0.2148  -84.2
 0.940  0.6010  177.6   2.473   71.0  0.1230   45.2  0.2133  -84.8
 0.960  0.6011  176.7   2.425   70.3  0.1244   45.5  0.2118  -85.4
 0.980  0.6014  175.8   2.378   69.6  0.1257   45.7  0.2103  -86.1
 1.000  0.6018  174.9   2.331   68.8  0.1271   46.0  0.2089  -86.7
 1.020  0.6024  174.1   2.292   68.2  0.1286   46.3  0.2084  -87.6
 1.040  0.6030  173.4   2.252   67.5  0.1301   46.6  0.2079  -88.6
 1.060  0.6038  172.6   2.214   66.8  0.1316   46.9  0.2075  -89.5
 1.080  0.6047  171.9   2.175   66.1  0.1331   47.2  0.2071  -90.5
 1.100  0.6057  171.1   2.137   65.4  0.1346   47.5  0.2068  -91.4
 1.120  0.6069  170.4   2.104   64.8  0.1361   47.8  0.2065  -91.9
 1.140  0.6083  169.7   2.071   64.2  0.1376   48.0  0.2062  -92.4
 1.160  0.6097  169.0   2.038   63.5  0.1390   48.3  0.2060  -92.9
 1.180  0.6112  168.3   2.005   62.9  0.1405   48.6  0.2057  -93.4
 1.200  0.6128  167.6   1.973   62.2  0.1420   48.8  0.2055  -93.9
 1.220  0.6123  166.9   1.947   61.6  0.1437   49.0  0.2049  -94.5
 1.240  0.6119  166.2   1.920   61.0  0.1454   49.2  0.2043  -95.0
 1.260  0.6116  165.5   1.894   60.4  0.1472   49.4  0.2038  -95.6
 1.280  0.6114  164.8   1.869   59.8  0.1489   49.6  0.2032  -96.1
 1.300  0.6113  164.1   1.843   59.2  0.1506   49.8  0.2027  -96.7
 1.320  0.6119  163.5   1.819   58.6  0.1521   50.0  0.2034  -97.7
 1.340  0.6127  162.9   1.796   58.0  0.1536   50.2  0.2041  -98.6
 1.360  0.6134  162.3   1.772   57.4  0.1550   50.4  0.2049  -99.6
 1.380  0.6143  161.7   1.749   56.8  0.1565   50.5  0.2057 -100.6
 1.400  0.6152  161.1   1.726   56.2  0.1580   50.7  0.2066 -101.5
 1.420  0.6162  160.6   1.705   55.7  0.1597   50.9  0.2073 -102.1
 1.440  0.6172  160.1   1.683   55.2  0.1614   51.1  0.2079 -102.6
 1.460  0.6182  159.5   1.662   54.6  0.1630   51.3  0.2086 -103.2
 1.480  0.6193  159.0   1.641   54.1  0.1647   51.5  0.2094 -103.7
 1.500  0.6205  158.5   1.620   53.5  0.1664   51.7  0.2101 -104.3
 1.520  0.6204  157.8   1.603   53.0  0.1684   51.8  0.2099 -105.0
 1.540  0.6204  157.1   1.585   52.4  0.1704   51.9  0.2098 -105.7
 1.560  0.6205  156.5   1.568   51.9  0.1723   51.9  0.2097 -106.5
 1.580  0.6207  155.8   1.551   51.3  0.1743   52.0  0.2096 -107.2
 1.600  0.6210  155.1   1.534   50.7  0.1763   52.1  0.2096 -107.9
 1.620  0.6218  154.5   1.518   50.2  0.1781   52.2  0.2112 -108.7
 1.640  0.6227  153.9   1.502   49.7  0.1799   52.3  0.2129 -109.5
 1.660  0.6236  153.4   1.486   49.1  0.1818   52.5  0.2146 -110.3
 1.680  0.6246  152.8   1.471   48.6  0.1836   52.6  0.2163 -111.1
 1.700  0.6257  152.2   1.455   48.0  0.1854   52.7  0.2181 -111.9
 1.720  0.6264  151.7   1.441   47.6  0.1873   52.8  0.2195 -112.3
 1.740  0.6271  151.3   1.428   47.1  0.1892   52.9  0.2210 -112.7
 1.760  0.6279  150.8   1.415   46.6  0.1912   53.0  0.2224 -113.1
 1.780  0.6287  150.4   1.401   46.2  0.1931   53.1  0.2239 -113.5
 1.800  0.6296  149.9   1.388   45.7  0.1950   53.2  0.2254 -113.9
 1.820  0.6296  149.3   1.376   45.2  0.1972   53.2  0.2255 -114.6
 1.840  0.6297  148.8   1.364   44.8  0.1993   53.2  0.2257 -115.3
 1.860  0.6298  148.2   1.352   44.3  0.2015   53.3  0.2259 -115.9
 1.880  0.6300  147.7   1.340   43.8  0.2036   53.3  0.2261 -116.6
 1.900  0.6302  147.1   1.328   43.3  0.2058   53.3  0.2264 -117.3
 1.920  0.6313  146.6   1.316   42.8  0.2077   53.3  0.2282 -118.0
 1.940  0.6325  146.0   1.305   42.3  0.2097   53.3  0.2301 -118.6
 1.960  0.6338  145.5   1.294   41.8  0.2116   53.2  0.2320 -119.3
 1.980  0.6350  144.9   1.282   41.3  0.2136   53.2  0.2339 -119.9
 2.000  0.6364  144.4   1.271   40.8  0.2155   53.2  0.2359 -120.5
 2.020  0.6366  143.9   1.262   40.4  0.2176   53.2  0.2367 -121.0
 2.040  0.6369  143.5   1.252   40.0  0.2198   53.2  0.2375 -121.5
 2.060  0.6372  143.0   1.243   39.6  0.2219   53.2  0.2383 -122.1
 2.080  0.6376  142.5   1.234   39.2  0.2241   53.2  0.2392 -122.6
 2.100  0.6380  142.0   1.225   38.8  0.2262   53.1  0.2401 -123.1
 2.120  0.6385  141.6   1.216   38.4  0.2284   53.1  0.2410 -123.6
 2.140  0.6390  141.1   1.207   38.0  0.2305   53.1  0.2419 -124.1
 2.160  0.6395  140.6   1.198   37.6  0.2327   53.1  0.2428 -124.6
 2.180  0.6401  140.2   1.189   37.1  0.2348   53.1  0.2437 -125.1
 2.200  0.6407  139.7   1.180   36.7  0.2370   53.1  0.2447 -125.6
 2.220  0.6415  139.2   1.172   36.3  0.2392   53.0  0.2463 -126.2
 2.240  0.6423  138.7   1.163   36.0  0.2413   53.0  0.2479 -126.7
 2.260  0.6432  138.3   1.155   35.6  0.2435   52.9  0.2495 -127.2
 2.280  0.6441  137.8   1.147   35.2  0.2456   52.9  0.2512 -127.8
 2.300  0.6450  137.3   1.138   34.8  0.2478   52.8  0.2529 -128.3
 2.320  0.6460  136.9   1.130   34.4  0.2500   52.8  0.2546 -128.8
 2.340  0.6470  136.4   1.122   34.0  0.2521   52.7  0.2563 -129.3
 2.360  0.6481  135.9   1.114   33.6  0.2543   52.7  0.2581 -129.8
 2.380  0.6492  135.5   1.106   33.2  0.2564   52.6  0.2598 -130.3
 2.400  0.6504  135.0   1.098   32.8  0.2586   52.6  0.2616 -130.8
 2.420  0.6508  134.5   1.091   32.4  0.2609   52.5  0.2627 -131.6
 2.440  0.6513  134.0   1.084   32.1  0.2632   52.3  0.2639 -132.3
 2.460  0.6519  133.5   1.077   31.7  0.2655   52.2  0.2651 -133.1
 2.480  0.6525  133.0   1.071   31.3  0.2678   52.1  0.2664 -133.8
 2.500  0.6531  132.5   1.064   30.9  0.2701   52.0  0.2677 -134.5
 2.520  0.6538  132.0   1.057   30.5  0.2724   51.9  0.2691 -135.3
 2.540  0.6546  131.5   1.051   30.1  0.2748   51.7  0.2705 -136.0
 2.560  0.6554  131.0   1.044   29.7  0.2771   51.6  0.2719 -136.7
 2.580  0.6562  130.5   1.037   29.3  0.2794   51.5  0.2734 -137.4
 2.600  0.6571  130.0   1.031   28.9  0.2817   51.4  0.2749 -138.1
 2.620  0.6579  129.6   1.025   28.6  0.2841   51.3  0.2760 -138.6
 2.640  0.6587  129.2   1.020   28.2  0.2864   51.1  0.2772 -139.2
 2.660  0.6596  128.8   1.014   27.9  0.2888   51.0  0.2784 -139.7
 2.680  0.6605  128.3   1.009   27.6  0.2912   50.9  0.2796 -140.2
 2.700  0.6614  127.9   1.004   27.2  0.2936   50.7  0.2808 -140.7
 2.720  0.6624  127.5   0.998   26.9  0.2960   50.6  0.2820 -141.2
 2.740  0.6634  127.1   0.993   26.6  0.2983   50.5  0.2833 -141.7
 2.760  0.6644  126.7   0.988   26.2  0.3007   50.3  0.2846 -142.2
 2.780  0.6655  126.3   0.982   25.9  0.3031   50.2  0.2859 -142.7
 2.800  0.6666  125.9   0.977   25.5  0.3055   50.1  0.2872 -143.2
 2.820  0.6669  125.5   0.972   25.2  0.3077   50.0  0.2886 -143.7
 2.840  0.6672  125.0   0.967   24.9  0.3098   49.8  0.2901 -144.2
 2.860  0.6676  124.6   0.962   24.6  0.3120   49.7  0.2915 -144.7
 2.880  0.6680  124.1   0.957   24.3  0.3142   49.6  0.2930 -145.2
 2.900  0.6685  123.7   0.953   24.0  0.3164   49.4  0.2945 -145.7
 2.920  0.6689  123.3   0.948   23.7  0.3186   49.3  0.2961 -146.2
 2.940  0.6695  122.8   0.943   23.4  0.3207   49.2  0.2976 -146.7
 2.960  0.6700  122.4   0.938   23.0  0.3229   49.0  0.2992 -147.2
 2.980  0.6707  121.9   0.934   22.7  0.3251   48.9  0.3008 -147.6
 3.000  0.6713  121.5   0.929   22.4  0.3273   48.8  0.3024 -148.1
 3.100  0.6735  119.5   0.909   21.1  0.3385   47.7  0.3099 -151.3
 3.200  0.6765  117.4   0.889   19.8  0.3499   46.6  0.3183 -154.3
 3.300  0.6803  115.4   0.869   18.4  0.3613   45.6  0.3276 -157.2
 3.400  0.6850  113.5   0.850   16.9  0.3729   44.7  0.3377 -159.9
 3.500  0.6905  111.5   0.832   15.4  0.3845   43.8  0.3484 -162.4
 3.600  0.6902  109.7   0.817   14.4  0.3944   42.5  0.3557 -165.5
 3.700  0.6907  107.8   0.802   13.4  0.4045   41.3  0.3639 -168.4
 3.800  0.6919  106.0   0.787   12.4  0.4147   40.1  0.3730 -171.2
 3.900  0.6938  104.1   0.773   11.3  0.4251   39.0  0.3830 -173.9
 4.000  0.6964  102.3   0.759   10.2  0.4357   38.0  0.3938 -176.4
 4.100  0.6975  100.7   0.748    9.4  0.4443   36.6  0.3999 -178.8
 4.200  0.6991   99.1   0.737    8.6  0.4531   35.3  0.4067  178.8
 4.300  0.7012   97.5   0.726    7.8  0.4622   34.1  0.4141  176.5
 4.400  0.7039   96.0   0.715    7.0  0.4714   32.9  0.4222  174.3
 4.500  0.7071   94.4   0.705    6.1  0.4809   31.7  0.4309  172.2
 4.600  0.7058   93.0   0.698    5.4  0.4875   30.5  0.4353  170.0
 4.700  0.7049   91.7   0.691    4.7  0.4944   29.3  0.4404  167.8
 4.800  0.7043   90.3   0.684    4.0  0.5014   28.1  0.4460  165.7
 4.900  0.7042   89.0   0.678    3.3  0.5087   27.0  0.4523  163.7
 5.000  0.7045   87.6   0.671    2.6  0.5161   25.9  0.4591  161.7
 5.100  0.7051   86.4   0.666    2.1  0.5218   24.8  0.4618  159.5
 5.200  0.7059   85.1   0.661    1.6  0.5278   23.7  0.4652  157.4
 5.300  0.7071   83.9   0.656    1.1  0.5339   22.6  0.4693  155.3
 5.400  0.7087   82.7   0.651    0.5  0.5402   21.5  0.4739  153.2
 5.500  0.7105   81.5   0.646    0.0  0.5467   20.5  0.4792  151.2
 5.600  0.7098   80.4   0.644   -0.6  0.5520   19.4  0.4820  149.3
 5.700  0.7094   79.3   0.642   -1.1  0.5576   18.2  0.4852  147.4
 5.800  0.7092   78.2   0.640   -1.7  0.5633   17.1  0.4890  145.6
 5.900  0.7093   77.1   0.639   -2.2  0.5693   16.1  0.4933  143.8
 6.000  0.7096   76.0   0.637   -2.8  0.5754   15.0  0.4981  142.0
!
!  f       NFmin   Gammaopt  rn/50
! GHz       dB    MAG  ANG    -
!
! noise parameter not available yet for this operation point!
!
! (c) 2015  Infineon Technologies AG, Munich
