! Infineon Technologies  Discrete & RF Semiconductors
! BFR93AW
! VCE =  3.5 V,  IC =  4.0 mA
! Common Emitter S-Parameters:                            Nov 2015
# GHz  S  MA  R  50
!  f         S11            S21            S12            S22
! GHz     MAG   ANG      MAG   ANG      MAG   ANG      MAG   ANG
 0.030  0.8501  -14.9  13.161  171.0  0.0114   80.8  0.9911   -6.0
 0.035  0.8484  -16.9  13.115  169.5  0.0133   79.7  0.9852   -6.9
 0.040  0.8478  -19.0  13.078  167.9  0.0152   78.9  0.9796   -7.9
 0.045  0.8483  -21.1  13.051  166.4  0.0170   78.3  0.9743   -8.8
 0.050  0.8499  -23.1  13.033  164.8  0.0189   77.8  0.9693   -9.8
 0.055  0.8413  -25.2  12.920  163.5  0.0204   76.1  0.9622  -10.6
 0.060  0.8338  -27.3  12.814  162.2  0.0220   74.6  0.9552  -11.4
 0.065  0.8275  -29.4  12.715  160.9  0.0236   73.3  0.9485  -12.2
 0.070  0.8224  -31.6  12.622  159.6  0.0252   72.1  0.9419  -13.0
 0.075  0.8184  -33.8  12.536  158.2  0.0268   71.1  0.9355  -13.8
 0.080  0.8157  -36.1  12.457  156.8  0.0284   70.2  0.9294  -14.7
 0.085  0.8142  -38.3  12.386  155.5  0.0300   69.4  0.9234  -15.5
 0.090  0.8140  -40.5  12.322  154.1  0.0316   68.7  0.9177  -16.4
 0.095  0.8150  -42.8  12.265  152.7  0.0332   68.1  0.9122  -17.3
 0.100  0.8173  -45.0  12.216  151.2  0.0349   67.5  0.9069  -18.2
 0.105  0.8075  -46.8  12.067  150.1  0.0361   66.4  0.8986  -18.8
 0.110  0.7985  -48.6  11.922  149.0  0.0373   65.4  0.8903  -19.4
 0.115  0.7904  -50.5  11.782  147.9  0.0385   64.4  0.8822  -20.0
 0.120  0.7832  -52.4  11.646  146.7  0.0397   63.5  0.8741  -20.6
 0.125  0.7768  -54.4  11.515  145.5  0.0409   62.6  0.8662  -21.2
 0.130  0.7713  -56.4  11.389  144.3  0.0421   61.8  0.8584  -21.9
 0.135  0.7668  -58.4  11.268  143.1  0.0433   61.0  0.8507  -22.5
 0.140  0.7632  -60.4  11.153  141.8  0.0446   60.3  0.8431  -23.2
 0.145  0.7606  -62.4  11.044  140.5  0.0458   59.6  0.8356  -23.9
 0.150  0.7590  -64.5  10.940  139.2  0.0471   59.0  0.8282  -24.6
 0.155  0.7526  -66.0  10.808  138.4  0.0480   58.3  0.8207  -25.0
 0.160  0.7468  -67.5  10.678  137.5  0.0488   57.6  0.8133  -25.4
 0.165  0.7415  -69.0  10.550  136.6  0.0497   56.9  0.8059  -25.9
 0.170  0.7366  -70.5  10.425  135.7  0.0506   56.2  0.7986  -26.3
 0.175  0.7324  -72.0  10.303  134.8  0.0515   55.6  0.7913  -26.7
 0.180  0.7286  -73.6  10.183  133.9  0.0524   55.0  0.7841  -27.2
 0.185  0.7254  -75.2  10.066  132.9  0.0533   54.4  0.7769  -27.7
 0.190  0.7228  -76.8   9.952  131.9  0.0543   53.8  0.7698  -28.1
 0.195  0.7207  -78.4   9.841  130.9  0.0552   53.2  0.7627  -28.6
 0.200  0.7192  -80.0   9.733  129.9  0.0561   52.7  0.7557  -29.1
 0.220  0.6961  -85.2   9.258  127.0  0.0585   51.0  0.7285  -30.2
 0.240  0.6791  -90.7   8.809  123.7  0.0610   49.5  0.7017  -31.5
 0.260  0.6657  -95.8   8.402  120.9  0.0631   48.1  0.6782  -32.5
 0.280  0.6540 -100.4   8.026  118.5  0.0649   46.7  0.6580  -33.2
 0.300  0.6466 -105.1   7.665  115.8  0.0666   45.4  0.6379  -34.0
 0.320  0.6332 -108.5   7.354  114.1  0.0678   44.7  0.6222  -34.3
 0.340  0.6221 -112.0   7.050  112.4  0.0689   44.1  0.6064  -34.7
 0.360  0.6135 -115.6   6.754  110.4  0.0701   43.5  0.5908  -35.1
 0.380  0.6073 -119.3   6.466  108.3  0.0712   42.9  0.5751  -35.5
 0.400  0.6037 -123.1   6.188  106.0  0.0724   42.4  0.5595  -35.9
 0.420  0.5964 -125.7   5.978  104.7  0.0732   42.2  0.5493  -36.1
 0.440  0.5903 -128.4   5.772  103.3  0.0741   42.1  0.5390  -36.4
 0.450  0.5878 -129.7   5.670  102.6  0.0745   42.0  0.5339  -36.5
 0.460  0.5856 -131.1   5.569  101.8  0.0749   41.9  0.5288  -36.6
 0.480  0.5822 -133.8   5.370  100.2  0.0758   41.8  0.5186  -36.9
 0.500  0.5802 -136.6   5.176   98.5  0.0767   41.7  0.5084  -37.1
 0.520  0.5765 -138.6   5.019   97.4  0.0774   41.7  0.5019  -37.2
 0.540  0.5735 -140.6   4.863   96.3  0.0782   41.7  0.4954  -37.4
 0.560  0.5712 -142.6   4.710   95.1  0.0789   41.8  0.4888  -37.5
 0.580  0.5696 -144.7   4.559   93.9  0.0797   41.8  0.4823  -37.7
 0.600  0.5688 -146.7   4.410   92.5  0.0804   41.8  0.4758  -37.8
 0.620  0.5663 -148.4   4.297   91.6  0.0811   42.1  0.4713  -38.0
 0.640  0.5643 -150.1   4.186   90.7  0.0818   42.3  0.4668  -38.2
 0.660  0.5628 -151.8   4.076   89.7  0.0824   42.6  0.4623  -38.4
 0.680  0.5618 -153.6   3.967   88.6  0.0831   42.8  0.4579  -38.6
 0.700  0.5613 -155.3   3.859   87.5  0.0838   43.1  0.4534  -38.8
 0.720  0.5601 -156.8   3.768   86.7  0.0845   43.3  0.4495  -39.1
 0.740  0.5592 -158.3   3.679   85.8  0.0853   43.6  0.4456  -39.3
 0.760  0.5588 -159.9   3.590   84.9  0.0860   43.8  0.4417  -39.6
 0.780  0.5588 -161.4   3.502   83.9  0.0868   44.1  0.4379  -39.8
 0.800  0.5591 -162.9   3.415   82.9  0.0875   44.3  0.4340  -40.1
 0.820  0.5578 -164.1   3.345   82.2  0.0882   44.8  0.4320  -40.3
 0.840  0.5567 -165.2   3.275   81.4  0.0889   45.3  0.4300  -40.5
 0.860  0.5558 -166.4   3.205   80.6  0.0896   45.8  0.4280  -40.7
 0.880  0.5552 -167.6   3.137   79.8  0.0903   46.2  0.4260  -40.9
 0.900  0.5548 -168.8   3.069   78.9  0.0910   46.7  0.4240  -41.1
 0.920  0.5543 -169.9   3.011   78.2  0.0918   47.1  0.4221  -41.4
 0.940  0.5540 -170.9   2.953   77.5  0.0926   47.5  0.4202  -41.7
 0.960  0.5538 -172.0   2.896   76.8  0.0934   47.9  0.4183  -41.9
 0.980  0.5539 -173.0   2.839   76.0  0.0943   48.3  0.4164  -42.2
 1.000  0.5541 -174.1   2.783   75.2  0.0951   48.7  0.4145  -42.5
 1.020  0.5546 -175.1   2.737   74.5  0.0961   49.1  0.4127  -43.0
 1.040  0.5553 -176.1   2.691   73.8  0.0970   49.4  0.4110  -43.4
 1.060  0.5561 -177.0   2.646   73.1  0.0980   49.7  0.4093  -43.9
 1.080  0.5571 -178.0   2.601   72.4  0.0990   50.1  0.4076  -44.4
 1.100  0.5583 -179.0   2.556   71.6  0.1000   50.4  0.4060  -44.9
 1.120  0.5586 -179.9   2.515   71.0  0.1009   50.8  0.4053  -45.2
 1.140  0.5590  179.3   2.475   70.4  0.1019   51.2  0.4045  -45.5
 1.160  0.5596  178.4   2.434   69.7  0.1028   51.6  0.4038  -45.9
 1.180  0.5603  177.6   2.395   69.1  0.1038   52.0  0.4031  -46.2
 1.200  0.5611  176.7   2.355   68.4  0.1047   52.4  0.4024  -46.5
 1.220  0.5609  175.9   2.323   67.8  0.1058   52.8  0.4017  -46.8
 1.240  0.5608  175.1   2.291   67.2  0.1069   53.2  0.4009  -47.2
 1.260  0.5608  174.3   2.259   66.7  0.1080   53.6  0.4002  -47.5
 1.280  0.5610  173.5   2.228   66.0  0.1092   54.0  0.3995  -47.9
 1.300  0.5612  172.7   2.197   65.4  0.1103   54.4  0.3988  -48.2
 1.320  0.5617  171.9   2.168   64.8  0.1114   54.8  0.3978  -48.8
 1.340  0.5622  171.1   2.139   64.2  0.1126   55.1  0.3968  -49.3
 1.360  0.5629  170.4   2.110   63.6  0.1137   55.5  0.3958  -49.9
 1.380  0.5636  169.6   2.081   63.0  0.1149   55.9  0.3949  -50.4
 1.400  0.5645  168.8   2.053   62.3  0.1160   56.2  0.3940  -51.0
 1.420  0.5654  168.2   2.027   61.8  0.1172   56.6  0.3937  -51.4
 1.440  0.5663  167.5   2.001   61.2  0.1184   56.9  0.3934  -51.9
 1.460  0.5673  166.9   1.975   60.7  0.1196   57.3  0.3931  -52.3
 1.480  0.5684  166.2   1.949   60.1  0.1209   57.7  0.3928  -52.8
 1.500  0.5695  165.6   1.924   59.5  0.1221   58.0  0.3926  -53.2
 1.520  0.5694  164.9   1.903   59.0  0.1237   58.3  0.3918  -53.6
 1.540  0.5694  164.1   1.881   58.4  0.1253   58.5  0.3911  -54.1
 1.560  0.5695  163.4   1.860   57.9  0.1268   58.7  0.3903  -54.5
 1.580  0.5696  162.6   1.840   57.3  0.1284   59.0  0.3896  -55.0
 1.600  0.5699  161.9   1.819   56.7  0.1300   59.2  0.3889  -55.4
 1.620  0.5709  161.3   1.800   56.2  0.1315   59.5  0.3884  -56.1
 1.640  0.5719  160.6   1.781   55.6  0.1330   59.7  0.3879  -56.7
 1.660  0.5730  160.0   1.763   55.1  0.1345   60.0  0.3875  -57.4
 1.680  0.5742  159.3   1.744   54.5  0.1360   60.3  0.3871  -58.0
 1.700  0.5755  158.7   1.726   53.9  0.1375   60.5  0.3868  -58.7
 1.720  0.5764  158.1   1.708   53.4  0.1391   60.8  0.3875  -59.1
 1.740  0.5774  157.5   1.690   53.0  0.1407   61.0  0.3882  -59.6
 1.760  0.5785  156.9   1.673   52.5  0.1422   61.3  0.3889  -60.0
 1.780  0.5796  156.3   1.655   52.0  0.1438   61.6  0.3896  -60.5
 1.800  0.5808  155.7   1.638   51.5  0.1454   61.8  0.3904  -60.9
 1.820  0.5807  155.1   1.623   51.0  0.1473   62.0  0.3898  -61.4
 1.840  0.5807  154.5   1.608   50.6  0.1491   62.1  0.3893  -61.9
 1.860  0.5807  154.0   1.594   50.1  0.1510   62.3  0.3888  -62.3
 1.880  0.5808  153.4   1.579   49.6  0.1528   62.4  0.3883  -62.8
 1.900  0.5809  152.8   1.565   49.1  0.1547   62.6  0.3879  -63.3
 1.920  0.5818  152.2   1.551   48.6  0.1563   62.8  0.3882  -63.9
 1.940  0.5828  151.6   1.537   48.1  0.1579   62.9  0.3886  -64.5
 1.960  0.5839  150.9   1.523   47.6  0.1595   63.1  0.3890  -65.2
 1.980  0.5850  150.3   1.510   47.0  0.1611   63.2  0.3895  -65.8
 2.000  0.5862  149.7   1.496   46.5  0.1627   63.4  0.3900  -66.4
 2.020  0.5866  149.2   1.484   46.1  0.1647   63.5  0.3899  -66.9
 2.040  0.5871  148.6   1.472   45.7  0.1666   63.6  0.3899  -67.3
 2.060  0.5876  148.1   1.460   45.3  0.1686   63.7  0.3899  -67.8
 2.080  0.5882  147.6   1.448   44.9  0.1706   63.8  0.3899  -68.3
 2.100  0.5888  147.0   1.436   44.5  0.1725   63.9  0.3899  -68.8
 2.120  0.5894  146.5   1.424   44.1  0.1745   64.0  0.3900  -69.2
 2.140  0.5902  146.0   1.413   43.6  0.1765   64.1  0.3901  -69.7
 2.160  0.5909  145.5   1.401   43.2  0.1785   64.1  0.3902  -70.2
 2.180  0.5917  144.9   1.389   42.8  0.1804   64.2  0.3903  -70.6
 2.200  0.5926  144.4   1.378   42.3  0.1824   64.3  0.3905  -71.1
 2.220  0.5936  143.9   1.367   41.9  0.1844   64.3  0.3910  -71.7
 2.240  0.5946  143.4   1.357   41.5  0.1864   64.4  0.3914  -72.3
 2.260  0.5956  142.8   1.346   41.1  0.1884   64.4  0.3920  -72.8
 2.280  0.5967  142.3   1.336   40.7  0.1904   64.5  0.3926  -73.4
 2.300  0.5979  141.8   1.325   40.3  0.1924   64.5  0.3932  -74.0
 2.320  0.5991  141.3   1.315   39.9  0.1945   64.5  0.3938  -74.5
 2.340  0.6004  140.8   1.304   39.4  0.1965   64.6  0.3945  -75.1
 2.360  0.6017  140.3   1.294   39.0  0.1985   64.6  0.3952  -75.7
 2.380  0.6030  139.8   1.284   38.6  0.2005   64.7  0.3960  -76.2
 2.400  0.6044  139.3   1.274   38.1  0.2025   64.7  0.3968  -76.8
 2.420  0.6049  138.8   1.266   37.7  0.2048   64.6  0.3963  -77.5
 2.440  0.6055  138.2   1.257   37.3  0.2072   64.6  0.3958  -78.1
 2.460  0.6062  137.7   1.249   36.9  0.2095   64.5  0.3954  -78.8
 2.480  0.6069  137.2   1.241   36.5  0.2119   64.5  0.3951  -79.5
 2.500  0.6076  136.6   1.233   36.1  0.2142   64.4  0.3948  -80.1
 2.520  0.6085  136.1   1.225   35.6  0.2166   64.4  0.3945  -80.8
 2.540  0.6093  135.6   1.217   35.2  0.2189   64.3  0.3943  -81.5
 2.560  0.6102  135.0   1.209   34.8  0.2213   64.3  0.3942  -82.2
 2.580  0.6112  134.5   1.201   34.3  0.2236   64.2  0.3941  -82.8
 2.600  0.6122  134.0   1.193   33.9  0.2260   64.2  0.3941  -83.5
 2.620  0.6132  133.5   1.186   33.6  0.2284   64.1  0.3943  -84.1
 2.640  0.6142  133.1   1.179   33.2  0.2308   64.0  0.3945  -84.6
 2.660  0.6152  132.6   1.172   32.9  0.2332   64.0  0.3948  -85.2
 2.680  0.6163  132.2   1.164   32.6  0.2356   63.9  0.3951  -85.7
 2.700  0.6174  131.7   1.157   32.2  0.2379   63.8  0.3955  -86.3
 2.720  0.6186  131.3   1.150   31.9  0.2403   63.8  0.3959  -86.8
 2.740  0.6198  130.8   1.144   31.5  0.2427   63.7  0.3963  -87.4
 2.760  0.6210  130.4   1.137   31.1  0.2451   63.6  0.3968  -87.9
 2.780  0.6223  129.9   1.130   30.8  0.2475   63.6  0.3973  -88.5
 2.800  0.6236  129.5   1.123   30.4  0.2499   63.5  0.3978  -89.0
 2.820  0.6239  129.0   1.117   30.1  0.2522   63.4  0.3982  -89.6
 2.840  0.6243  128.6   1.110   29.8  0.2544   63.3  0.3986  -90.1
 2.860  0.6248  128.1   1.104   29.4  0.2567   63.2  0.3991  -90.7
 2.880  0.6253  127.6   1.097   29.1  0.2589   63.1  0.3996  -91.2
 2.900  0.6258  127.1   1.091   28.7  0.2612   63.0  0.4001  -91.8
 2.920  0.6263  126.7   1.085   28.4  0.2635   62.9  0.4007  -92.3
 2.940  0.6269  126.2   1.078   28.1  0.2657   62.8  0.4013  -92.9
 2.960  0.6276  125.7   1.072   27.7  0.2680   62.7  0.4020  -93.4
 2.980  0.6283  125.3   1.066   27.4  0.2702   62.6  0.4027  -94.0
 3.000  0.6290  124.8   1.060   27.0  0.2725   62.5  0.4034  -94.5
 3.100  0.6324  122.6   1.034   25.6  0.2852   61.5  0.4037  -97.9
 3.200  0.6367  120.4   1.008   24.2  0.2981   60.6  0.4055 -101.4
 3.300  0.6420  118.2   0.983   22.7  0.3109   59.7  0.4087 -104.7
 3.400  0.6482  116.1   0.959   21.1  0.3239   58.9  0.4133 -108.1
 3.500  0.6552  114.0   0.935   19.4  0.3369   58.2  0.4193 -111.3
 3.600  0.6559  112.0   0.914   18.4  0.3490   56.9  0.4196 -114.9
 3.700  0.6574  110.1   0.894   17.3  0.3613   55.7  0.4215 -118.4
 3.800  0.6597  108.1   0.874   16.1  0.3738   54.6  0.4250 -121.9
 3.900  0.6627  106.2   0.854   14.9  0.3864   53.5  0.4301 -125.4
 4.000  0.6665  104.3   0.835   13.7  0.3991   52.5  0.4367 -128.7
 4.100  0.6683  102.6   0.819   12.9  0.4102   51.0  0.4385 -132.0
 4.200  0.6706  100.9   0.804   12.0  0.4216   49.5  0.4416 -135.2
 4.300  0.6735   99.2   0.789   11.2  0.4333   48.1  0.4462 -138.4
 4.400  0.6770   97.5   0.774   10.2  0.4452   46.8  0.4521 -141.5
 4.500  0.6811   95.9   0.759    9.3  0.4573   45.6  0.4593 -144.5
 4.600  0.6803   94.4   0.750    8.7  0.4669   44.1  0.4603 -147.6
 4.700  0.6800   92.9   0.741    8.0  0.4768   42.7  0.4626 -150.6
 4.800  0.6802   91.5   0.732    7.3  0.4870   41.3  0.4662 -153.6
 4.900  0.6808   90.0   0.724    6.6  0.4974   40.0  0.4710 -156.6
 5.000  0.6818   88.5   0.715    5.9  0.5081   38.8  0.4771 -159.5
 5.100  0.6827   87.2   0.708    5.4  0.5160   37.4  0.4761 -162.4
 5.200  0.6839   85.9   0.700    4.9  0.5243   36.0  0.4764 -165.3
 5.300  0.6855   84.6   0.693    4.4  0.5328   34.7  0.4779 -168.3
 5.400  0.6874   83.4   0.686    3.9  0.5416   33.4  0.4806 -171.2
 5.500  0.6896   82.1   0.679    3.4  0.5506   32.2  0.4845 -174.0
 5.600  0.6888   81.0   0.676    2.9  0.5577   30.9  0.4845 -176.6
 5.700  0.6883   79.8   0.672    2.4  0.5651   29.5  0.4855 -179.2
 5.800  0.6881   78.7   0.669    1.9  0.5727   28.3  0.4875  178.3
 5.900  0.6882   77.5   0.666    1.3  0.5807   27.0  0.4904  175.7
 6.000  0.6885   76.4   0.663    0.8  0.5889   25.8  0.4943  173.2
!
!  f       NFmin   Gammaopt  rn/50
! GHz       dB    MAG  ANG    -
!
! noise parameter not available yet for this operation point!
!
! (c) 2015  Infineon Technologies AG, Munich
