! Infineon Technologies  Discrete & RF Semiconductors
! BFR93A
! VCE =  2.0 V,  IC =  3.0 mA
! Common Emitter S-Parameters:                            Nov 2015
# GHz  S  MA  R  50
!  f         S11            S21            S12            S22
! GHz     MAG   ANG      MAG   ANG      MAG   ANG      MAG   ANG
 0.010  0.8868   -4.4   9.740  176.7  0.0055   87.5  0.9917   -2.3
 0.015  0.8839   -6.5   9.723  175.2  0.0081   85.7  0.9895   -3.3
 0.020  0.8822   -8.6   9.714  173.6  0.0107   84.8  0.9877   -4.3
 0.025  0.8764  -10.7   9.658  172.1  0.0133   82.7  0.9834   -5.3
 0.030  0.8718  -12.8   9.609  170.6  0.0159   81.3  0.9795   -6.4
 0.035  0.8685  -15.0   9.567  169.1  0.0185   80.3  0.9758   -7.4
 0.040  0.8663  -17.2   9.532  167.5  0.0211   79.6  0.9725   -8.5
 0.045  0.8654  -19.3   9.503  166.0  0.0237   79.0  0.9695   -9.5
 0.050  0.8658  -21.5   9.482  164.4  0.0263   78.5  0.9669  -10.6
 0.055  0.8566  -23.4   9.395  163.2  0.0285   76.7  0.9596  -11.5
 0.060  0.8483  -25.3   9.312  161.9  0.0307   75.2  0.9525  -12.3
 0.065  0.8410  -27.2   9.234  160.6  0.0330   73.8  0.9456  -13.2
 0.070  0.8347  -29.2   9.160  159.3  0.0352   72.7  0.9390  -14.1
 0.075  0.8294  -31.2   9.092  157.9  0.0375   71.7  0.9326  -15.0
 0.080  0.8251  -33.2   9.029  156.6  0.0398   70.8  0.9264  -16.0
 0.085  0.8219  -35.3   8.970  155.2  0.0421   70.0  0.9205  -16.9
 0.090  0.8197  -37.4   8.917  153.8  0.0444   69.2  0.9149  -17.9
 0.095  0.8186  -39.4   8.869  152.4  0.0467   68.6  0.9094  -18.8
 0.100  0.8186  -41.5   8.827  151.0  0.0490   68.0  0.9043  -19.8
 0.105  0.8093  -43.2   8.725  149.9  0.0507   66.9  0.8959  -20.5
 0.110  0.8006  -44.8   8.627  148.8  0.0523   65.8  0.8875  -21.2
 0.115  0.7926  -46.6   8.532  147.7  0.0540   64.8  0.8793  -21.9
 0.120  0.7854  -48.3   8.440  146.5  0.0557   63.9  0.8713  -22.6
 0.125  0.7790  -50.1   8.352  145.3  0.0574   63.1  0.8633  -23.3
 0.130  0.7733  -51.9   8.267  144.1  0.0592   62.2  0.8556  -24.0
 0.135  0.7684  -53.8   8.186  142.9  0.0609   61.5  0.8479  -24.8
 0.140  0.7643  -55.6   8.110  141.6  0.0627   60.7  0.8404  -25.5
 0.145  0.7610  -57.5   8.037  140.3  0.0644   60.1  0.8331  -26.3
 0.150  0.7585  -59.4   7.968  139.0  0.0662   59.4  0.8259  -27.1
 0.155  0.7502  -60.8   7.878  138.1  0.0674   58.7  0.8180  -27.6
 0.160  0.7425  -62.3   7.789  137.2  0.0687   58.0  0.8102  -28.1
 0.165  0.7352  -63.8   7.703  136.3  0.0699   57.4  0.8024  -28.6
 0.170  0.7284  -65.4   7.618  135.3  0.0711   56.8  0.7947  -29.1
 0.175  0.7222  -66.9   7.536  134.4  0.0724   56.2  0.7871  -29.6
 0.180  0.7166  -68.5   7.456  133.4  0.0737   55.6  0.7795  -30.2
 0.185  0.7115  -70.1   7.378  132.4  0.0749   55.1  0.7721  -30.7
 0.190  0.7069  -71.8   7.303  131.3  0.0762   54.5  0.7646  -31.3
 0.195  0.7030  -73.4   7.230  130.3  0.0775   54.0  0.7573  -31.8
 0.200  0.6996  -75.1   7.159  129.2  0.0788   53.5  0.7500  -32.4
 0.220  0.6753  -80.2   6.837  126.1  0.0824   51.5  0.7224  -33.9
 0.240  0.6568  -85.7   6.536  122.8  0.0861   49.6  0.6953  -35.5
 0.260  0.6409  -90.7   6.256  119.8  0.0893   48.1  0.6708  -36.9
 0.280  0.6260  -95.3   5.989  117.2  0.0921   46.8  0.6485  -37.8
 0.300  0.6154 -100.1   5.735  114.4  0.0948   45.7  0.6265  -38.9
 0.320  0.5985 -103.6   5.506  112.6  0.0967   44.8  0.6096  -39.5
 0.340  0.5840 -107.3   5.284  110.6  0.0985   44.0  0.5928  -40.2
 0.360  0.5720 -111.2   5.068  108.4  0.1004   43.2  0.5760  -40.9
 0.380  0.5628 -115.3   4.860  106.1  0.1024   42.4  0.5594  -41.6
 0.400  0.5565 -119.4   4.661  103.5  0.1043   41.7  0.5428  -42.4
 0.420  0.5472 -122.2   4.503  102.0  0.1057   41.3  0.5317  -42.8
 0.440  0.5393 -125.1   4.349  100.5  0.1071   41.0  0.5206  -43.2
 0.450  0.5358 -126.6   4.273   99.7  0.1078   40.8  0.5150  -43.4
 0.460  0.5328 -128.1   4.197   98.8  0.1085   40.7  0.5095  -43.6
 0.480  0.5278 -131.2   4.050   97.0  0.1099   40.3  0.4984  -44.0
 0.500  0.5243 -134.3   3.907   95.1  0.1113   40.0  0.4874  -44.5
 0.520  0.5187 -136.6   3.793   93.9  0.1124   39.9  0.4795  -44.8
 0.540  0.5141 -139.0   3.681   92.6  0.1135   39.8  0.4716  -45.1
 0.560  0.5103 -141.5   3.571   91.3  0.1147   39.7  0.4637  -45.4
 0.580  0.5075 -143.9   3.463   89.8  0.1158   39.6  0.4559  -45.8
 0.600  0.5056 -146.4   3.357   88.3  0.1169   39.5  0.4480  -46.1
 0.620  0.5021 -148.3   3.270   87.2  0.1180   39.6  0.4426  -46.4
 0.640  0.4991 -150.2   3.184   86.1  0.1191   39.7  0.4372  -46.7
 0.660  0.4967 -152.2   3.099   84.9  0.1202   39.8  0.4318  -47.0
 0.680  0.4949 -154.1   3.016   83.6  0.1213   39.9  0.4264  -47.3
 0.700  0.4937 -156.1   2.934   82.3  0.1224   40.0  0.4210  -47.6
 0.720  0.4916 -157.8   2.868   81.4  0.1235   40.2  0.4169  -47.9
 0.740  0.4899 -159.5   2.802   80.4  0.1245   40.4  0.4128  -48.2
 0.760  0.4886 -161.2   2.737   79.3  0.1256   40.5  0.4087  -48.5
 0.780  0.4878 -163.0   2.674   78.2  0.1266   40.7  0.4047  -48.9
 0.800  0.4874 -164.7   2.611   77.1  0.1277   40.9  0.4006  -49.2
 0.820  0.4864 -166.2   2.558   76.3  0.1288   41.1  0.3973  -49.6
 0.840  0.4857 -167.8   2.506   75.4  0.1299   41.3  0.3940  -49.9
 0.860  0.4853 -169.3   2.454   74.5  0.1311   41.5  0.3908  -50.3
 0.880  0.4853 -170.9   2.403   73.6  0.1322   41.7  0.3875  -50.7
 0.900  0.4857 -172.4   2.353   72.6  0.1333   41.9  0.3843  -51.1
 0.920  0.4851 -173.7   2.310   71.7  0.1346   42.1  0.3821  -51.5
 0.940  0.4847 -175.0   2.267   70.9  0.1358   42.4  0.3800  -51.8
 0.960  0.4846 -176.4   2.225   69.9  0.1371   42.6  0.3778  -52.2
 0.980  0.4848 -177.7   2.183   69.0  0.1383   42.8  0.3757  -52.6
 1.000  0.4852 -179.0   2.142   68.0  0.1396   43.0  0.3736  -53.0
 1.020  0.4854  179.8   2.108   67.3  0.1409   43.2  0.3717  -53.5
 1.040  0.4858  178.6   2.074   66.5  0.1422   43.5  0.3698  -53.9
 1.060  0.4864  177.5   2.041   65.7  0.1435   43.7  0.3680  -54.4
 1.080  0.4872  176.3   2.008   64.9  0.1448   44.0  0.3662  -54.9
 1.100  0.4882  175.1   1.976   64.0  0.1461   44.2  0.3644  -55.4
 1.120  0.4891  174.0   1.947   63.2  0.1476   44.4  0.3627  -55.9
 1.140  0.4901  173.0   1.918   62.5  0.1491   44.7  0.3611  -56.4
 1.160  0.4913  171.9   1.890   61.7  0.1505   44.9  0.3595  -56.9
 1.180  0.4927  170.8   1.862   60.8  0.1520   45.1  0.3579  -57.4
 1.200  0.4942  169.8   1.834   60.0  0.1535   45.3  0.3564  -57.9
 1.220  0.4947  168.7   1.809   59.3  0.1549   45.5  0.3552  -58.4
 1.240  0.4954  167.6   1.783   58.5  0.1563   45.8  0.3540  -58.9
 1.260  0.4963  166.5   1.759   57.8  0.1577   46.0  0.3528  -59.4
 1.280  0.4974  165.4   1.734   57.0  0.1591   46.2  0.3517  -60.0
 1.300  0.4986  164.3   1.710   56.2  0.1605   46.4  0.3506  -60.5
 1.320  0.4987  163.5   1.688   55.6  0.1622   46.6  0.3498  -61.0
 1.340  0.4990  162.7   1.665   54.9  0.1639   46.9  0.3491  -61.6
 1.360  0.4993  161.8   1.643   54.2  0.1655   47.1  0.3483  -62.1
 1.380  0.4998  161.0   1.622   53.5  0.1672   47.3  0.3477  -62.7
 1.400  0.5003  160.2   1.600   52.8  0.1689   47.5  0.3470  -63.2
 1.420  0.5005  159.3   1.580   52.2  0.1706   47.7  0.3459  -63.8
 1.440  0.5008  158.5   1.560   51.5  0.1723   47.8  0.3449  -64.4
 1.460  0.5013  157.6   1.541   50.8  0.1740   48.0  0.3439  -65.0
 1.480  0.5018  156.8   1.521   50.1  0.1757   48.1  0.3429  -65.7
 1.500  0.5025  155.9   1.502   49.4  0.1774   48.3  0.3420  -66.3
 1.520  0.5041  155.1   1.488   48.8  0.1792   48.4  0.3412  -67.0
 1.540  0.5059  154.3   1.473   48.3  0.1810   48.5  0.3405  -67.6
 1.560  0.5077  153.5   1.459   47.7  0.1827   48.7  0.3398  -68.3
 1.580  0.5096  152.8   1.445   47.1  0.1845   48.8  0.3391  -68.9
 1.600  0.5116  152.0   1.431   46.5  0.1863   48.9  0.3385  -69.6
 1.620  0.5127  151.3   1.418   45.9  0.1883   49.0  0.3379  -70.3
 1.640  0.5140  150.5   1.405   45.4  0.1903   49.2  0.3373  -70.9
 1.660  0.5153  149.8   1.392   44.8  0.1922   49.3  0.3368  -71.6
 1.680  0.5167  149.0   1.379   44.2  0.1942   49.5  0.3363  -72.2
 1.700  0.5182  148.3   1.366   43.6  0.1962   49.6  0.3359  -72.9
 1.720  0.5192  147.6   1.353   43.0  0.1982   49.7  0.3358  -73.6
 1.740  0.5203  146.8   1.340   42.4  0.2003   49.8  0.3357  -74.3
 1.760  0.5214  146.1   1.328   41.7  0.2023   49.8  0.3357  -74.9
 1.780  0.5227  145.3   1.315   41.1  0.2044   49.9  0.3357  -75.6
 1.800  0.5240  144.6   1.303   40.4  0.2064   50.0  0.3358  -76.3
 1.820  0.5242  144.0   1.292   39.9  0.2085   50.1  0.3354  -77.0
 1.840  0.5245  143.3   1.280   39.4  0.2106   50.2  0.3351  -77.7
 1.860  0.5249  142.7   1.269   38.9  0.2126   50.2  0.3347  -78.4
 1.880  0.5253  142.0   1.258   38.3  0.2147   50.3  0.3345  -79.1
 1.900  0.5258  141.4   1.247   37.8  0.2168   50.4  0.3343  -79.8
 1.920  0.5273  140.7   1.237   37.3  0.2191   50.4  0.3341  -80.5
 1.940  0.5289  140.0   1.227   36.7  0.2214   50.5  0.3339  -81.2
 1.960  0.5306  139.3   1.217   36.2  0.2238   50.5  0.3338  -81.9
 1.980  0.5324  138.6   1.208   35.7  0.2261   50.6  0.3337  -82.6
 2.000  0.5342  137.9   1.198   35.1  0.2284   50.6  0.3337  -83.3
 2.020  0.5350  137.3   1.189   34.7  0.2308   50.6  0.3335  -84.0
 2.040  0.5359  136.6   1.179   34.2  0.2332   50.6  0.3333  -84.7
 2.060  0.5368  136.0   1.170   33.7  0.2356   50.5  0.3332  -85.4
 2.080  0.5378  135.4   1.161   33.3  0.2380   50.5  0.3332  -86.1
 2.100  0.5388  134.8   1.151   32.8  0.2404   50.5  0.3332  -86.9
 2.120  0.5399  134.1   1.142   32.3  0.2428   50.5  0.3332  -87.6
 2.140  0.5411  133.5   1.133   31.8  0.2452   50.5  0.3333  -88.3
 2.160  0.5423  132.9   1.125   31.3  0.2476   50.4  0.3335  -89.0
 2.180  0.5436  132.3   1.116   30.8  0.2500   50.4  0.3336  -89.7
 2.200  0.5450  131.7   1.107   30.3  0.2524   50.4  0.3339  -90.4
 2.220  0.5457  131.2   1.100   29.9  0.2550   50.3  0.3337  -91.2
 2.240  0.5464  130.6   1.094   29.5  0.2577   50.2  0.3337  -92.0
 2.260  0.5472  130.1   1.087   29.0  0.2603   50.1  0.3336  -92.8
 2.280  0.5481  129.5   1.081   28.6  0.2629   50.0  0.3337  -93.6
 2.300  0.5489  129.0   1.074   28.2  0.2655   49.9  0.3338  -94.4
 2.320  0.5499  128.4   1.068   27.7  0.2682   49.8  0.3339  -95.1
 2.340  0.5509  127.9   1.062   27.3  0.2708   49.8  0.3341  -95.9
 2.360  0.5519  127.4   1.055   26.8  0.2734   49.7  0.3344  -96.7
 2.380  0.5530  126.8   1.049   26.4  0.2761   49.6  0.3348  -97.5
 2.400  0.5541  126.3   1.043   25.9  0.2787   49.5  0.3352  -98.3
 2.420  0.5555  125.7   1.036   25.5  0.2813   49.4  0.3352  -99.1
 2.440  0.5569  125.1   1.029   25.1  0.2839   49.2  0.3352  -99.9
 2.460  0.5584  124.6   1.023   24.7  0.2866   49.1  0.3353 -100.8
 2.480  0.5600  124.0   1.016   24.2  0.2892   49.0  0.3355 -101.6
 2.500  0.5616  123.4   1.009   23.8  0.2918   48.9  0.3357 -102.4
 2.520  0.5632  122.8   1.003   23.4  0.2945   48.8  0.3360 -103.2
 2.540  0.5649  122.3   0.996   22.9  0.2971   48.6  0.3364 -104.1
 2.560  0.5667  121.7   0.990   22.5  0.2997   48.5  0.3368 -104.9
 2.580  0.5685  121.2   0.983   22.1  0.3024   48.4  0.3373 -105.7
 2.600  0.5704  120.6   0.977   21.6  0.3050   48.3  0.3379 -106.5
 2.620  0.5712  120.0   0.972   21.2  0.3077   48.1  0.3378 -107.4
 2.640  0.5721  119.5   0.967   20.8  0.3105   47.9  0.3378 -108.2
 2.660  0.5731  118.9   0.962   20.4  0.3132   47.8  0.3379 -109.1
 2.680  0.5741  118.4   0.958   20.0  0.3160   47.6  0.3380 -110.0
 2.700  0.5751  117.8   0.953   19.6  0.3187   47.4  0.3382 -110.9
 2.720  0.5762  117.3   0.948   19.2  0.3215   47.2  0.3385 -111.7
 2.740  0.5774  116.7   0.944   18.8  0.3242   47.1  0.3389 -112.6
 2.760  0.5786  116.2   0.939   18.4  0.3270   46.9  0.3394 -113.5
 2.780  0.5799  115.6   0.934   17.9  0.3297   46.8  0.3399 -114.3
 2.800  0.5812  115.1   0.930   17.5  0.3325   46.6  0.3405 -115.2
 2.820  0.5819  114.6   0.926   17.2  0.3354   46.4  0.3408 -116.1
 2.840  0.5826  114.0   0.921   16.8  0.3382   46.1  0.3412 -117.0
 2.860  0.5833  113.5   0.917   16.5  0.3411   45.9  0.3416 -117.9
 2.880  0.5841  113.0   0.912   16.2  0.3440   45.7  0.3422 -118.8
 2.900  0.5850  112.5   0.908   15.8  0.3468   45.5  0.3428 -119.7
 2.920  0.5859  112.0   0.904   15.5  0.3497   45.2  0.3436 -120.6
 2.940  0.5869  111.4   0.900   15.2  0.3526   45.0  0.3444 -121.5
 2.960  0.5879  110.9   0.895   14.8  0.3555   44.8  0.3453 -122.4
 2.980  0.5889  110.4   0.891   14.5  0.3584   44.6  0.3462 -123.3
 3.000  0.5900  109.9   0.887   14.1  0.3613   44.4  0.3473 -124.2
!
!  f       NFmin   Gammaopt  rn/50
! GHz       dB    MAG  ANG    -
!
! noise parameter not available yet for this operation point!
!
! (c) 2015  Infineon Technologies AG, Munich
