! Infineon Technologies  Discrete & RF Semiconductors
! BFR93A
! VCE = 0.50 V,  IC =  6.0 mA
! Common Emitter S-Parameters:                            Nov 2015
# GHz  S  MA  R  50
!  f         S11            S21            S12            S22
! GHz     MAG   ANG      MAG   ANG      MAG   ANG      MAG   ANG
 0.010  0.7878   -9.5  17.496  173.7  0.0090   84.9  0.9685   -6.3
 0.015  0.7788  -14.1  17.337  170.7  0.0133   81.8  0.9597   -9.3
 0.020  0.7749  -18.7  17.228  167.6  0.0176   80.2  0.9536  -12.4
 0.025  0.7575  -22.8  16.894  165.1  0.0212   76.3  0.9345  -15.0
 0.030  0.7441  -27.1  16.593  162.6  0.0250   73.5  0.9174  -17.7
 0.035  0.7350  -31.5  16.326  159.9  0.0287   71.5  0.9024  -20.5
 0.040  0.7303  -36.0  16.096  157.2  0.0325   69.9  0.8897  -23.4
 0.045  0.7302  -40.5  15.903  154.4  0.0363   68.7  0.8793  -26.4
 0.050  0.7346  -45.0  15.749  151.5  0.0401   67.7  0.8713  -29.4
 0.055  0.7163  -48.0  15.375  149.9  0.0424   65.6  0.8496  -31.1
 0.060  0.7001  -51.2  15.013  148.2  0.0447   63.7  0.8287  -32.8
 0.065  0.6861  -54.5  14.664  146.5  0.0471   62.0  0.8086  -34.7
 0.070  0.6746  -58.0  14.330  144.6  0.0495   60.4  0.7893  -36.6
 0.075  0.6655  -61.5  14.012  142.7  0.0519   59.0  0.7711  -38.7
 0.080  0.6592  -65.2  13.710  140.7  0.0544   57.7  0.7538  -40.8
 0.085  0.6555  -68.9  13.425  138.6  0.0569   56.6  0.7377  -43.0
 0.090  0.6545  -72.6  13.160  136.4  0.0594   55.5  0.7227  -45.4
 0.095  0.6563  -76.3  12.914  134.2  0.0619   54.5  0.7089  -47.8
 0.100  0.6609  -80.0  12.689  131.8  0.0645   53.6  0.6965  -50.3
 0.105  0.6501  -82.2  12.398  130.7  0.0657   52.8  0.6807  -51.4
 0.110  0.6402  -84.5  12.112  129.6  0.0670   51.9  0.6652  -52.6
 0.115  0.6314  -86.8  11.831  128.4  0.0682   51.2  0.6500  -53.8
 0.120  0.6237  -89.2  11.555  127.2  0.0695   50.4  0.6351  -55.1
 0.125  0.6170  -91.6  11.284  125.9  0.0708   49.7  0.6206  -56.4
 0.130  0.6115  -94.1  11.020  124.5  0.0721   49.0  0.6064  -57.8
 0.135  0.6072  -96.6  10.762  123.1  0.0734   48.3  0.5925  -59.3
 0.140  0.6041  -99.2  10.512  121.6  0.0747   47.6  0.5791  -60.8
 0.145  0.6022 -101.8  10.268  120.0  0.0761   47.0  0.5661  -62.4
 0.150  0.6016 -104.4  10.033  118.4  0.0774   46.4  0.5536  -64.1
 0.155  0.5960 -106.0   9.835  117.7  0.0782   46.0  0.5431  -64.9
 0.160  0.5909 -107.7   9.639  116.9  0.0791   45.7  0.5327  -65.7
 0.165  0.5863 -109.3   9.445  116.1  0.0799   45.4  0.5224  -66.6
 0.170  0.5822 -111.0   9.252  115.3  0.0807   45.0  0.5122  -67.5
 0.175  0.5786 -112.8   9.062  114.4  0.0816   44.7  0.5021  -68.4
 0.180  0.5756 -114.5   8.874  113.5  0.0824   44.4  0.4922  -69.4
 0.185  0.5731 -116.3   8.688  112.6  0.0833   44.1  0.4825  -70.4
 0.190  0.5711 -118.0   8.504  111.6  0.0841   43.8  0.4729  -71.5
 0.195  0.5697 -119.8   8.323  110.6  0.0849   43.5  0.4635  -72.6
 0.200  0.5688 -121.6   8.145  109.5  0.0858   43.2  0.4542  -73.7
 0.220  0.5584 -126.6   7.590  107.0  0.0882   42.6  0.4253  -76.4
 0.240  0.5524 -131.7   7.052  104.2  0.0906   42.0  0.3975  -79.5
 0.260  0.5478 -136.1   6.590  101.7  0.0929   41.7  0.3738  -82.3
 0.280  0.5428 -139.7   6.196   99.7  0.0951   41.6  0.3537  -84.5
 0.300  0.5401 -143.4   5.810   97.5  0.0973   41.5  0.3342  -87.1
 0.320  0.5347 -146.2   5.535   96.2  0.0994   41.7  0.3206  -88.7
 0.340  0.5306 -149.0   5.263   94.8  0.1015   41.9  0.3073  -90.5
 0.360  0.5278 -151.9   4.995   93.2  0.1037   42.1  0.2943  -92.4
 0.380  0.5264 -154.8   4.731   91.4  0.1058   42.3  0.2817  -94.5
 0.400  0.5263 -157.7   4.472   89.4  0.1079   42.5  0.2695  -96.8
 0.420  0.5244 -159.8   4.304   88.3  0.1101   42.8  0.2617  -98.1
 0.440  0.5231 -161.8   4.138   87.2  0.1123   43.1  0.2540  -99.5
 0.450  0.5228 -162.9   4.055   86.6  0.1133   43.2  0.2502 -100.3
 0.460  0.5226 -163.9   3.973   85.9  0.1144   43.4  0.2464 -101.0
 0.480  0.5228 -166.0   3.811   84.6  0.1166   43.6  0.2391 -102.6
 0.500  0.5236 -168.1   3.651   83.1  0.1188   43.9  0.2319 -104.3
 0.520  0.5227 -169.7   3.535   82.2  0.1211   44.2  0.2269 -105.6
 0.540  0.5223 -171.3   3.420   81.2  0.1234   44.5  0.2220 -106.9
 0.560  0.5222 -172.9   3.307   80.1  0.1257   44.8  0.2173 -108.3
 0.580  0.5225 -174.5   3.194   78.9  0.1280   45.0  0.2127 -109.8
 0.600  0.5233 -176.1   3.083   77.7  0.1303   45.3  0.2082 -111.3
 0.620  0.5229 -177.3   2.999   76.8  0.1327   45.6  0.2051 -112.4
 0.640  0.5227 -178.5   2.916   75.9  0.1350   45.8  0.2021 -113.6
 0.660  0.5227 -179.8   2.833   74.9  0.1374   46.0  0.1992 -114.8
 0.680  0.5230  179.0   2.752   73.9  0.1397   46.3  0.1964 -116.0
 0.700  0.5235  177.8   2.671   72.8  0.1421   46.5  0.1937 -117.3
 0.720  0.5239  176.7   2.609   72.0  0.1445   46.7  0.1917 -118.4
 0.740  0.5244  175.6   2.547   71.2  0.1469   46.9  0.1898 -119.6
 0.760  0.5252  174.4   2.486   70.3  0.1493   47.1  0.1879 -120.8
 0.780  0.5261  173.3   2.425   69.4  0.1517   47.3  0.1862 -122.0
 0.800  0.5273  172.2   2.365   68.4  0.1541   47.5  0.1845 -123.2
 0.820  0.5275  171.1   2.316   67.7  0.1567   47.6  0.1835 -124.2
 0.840  0.5278  170.1   2.268   66.9  0.1592   47.7  0.1825 -125.3
 0.860  0.5284  169.0   2.220   66.2  0.1618   47.7  0.1816 -126.3
 0.880  0.5291  168.0   2.173   65.3  0.1643   47.8  0.1808 -127.4
 0.900  0.5300  166.9   2.126   64.5  0.1669   47.9  0.1800 -128.5
 0.920  0.5301  166.0   2.087   63.8  0.1695   47.9  0.1794 -129.4
 0.940  0.5303  165.2   2.049   63.0  0.1721   48.0  0.1789 -130.3
 0.960  0.5306  164.3   2.011   62.2  0.1746   48.0  0.1784 -131.2
 0.980  0.5310  163.5   1.973   61.4  0.1772   48.1  0.1780 -132.1
 1.000  0.5316  162.6   1.936   60.5  0.1798   48.1  0.1776 -133.0
 1.020  0.5326  161.8   1.906   59.8  0.1824   48.1  0.1777 -133.9
 1.040  0.5336  160.9   1.876   59.2  0.1849   48.1  0.1778 -134.7
 1.060  0.5348  160.1   1.846   58.5  0.1875   48.1  0.1780 -135.6
 1.080  0.5361  159.3   1.816   57.7  0.1900   48.1  0.1782 -136.4
 1.100  0.5375  158.5   1.787   57.0  0.1926   48.1  0.1785 -137.3
 1.120  0.5389  157.7   1.762   56.3  0.1952   48.1  0.1787 -138.2
 1.140  0.5405  157.0   1.737   55.6  0.1979   48.0  0.1790 -139.2
 1.160  0.5421  156.2   1.712   54.9  0.2005   48.0  0.1793 -140.1
 1.180  0.5439  155.5   1.687   54.2  0.2032   47.9  0.1796 -141.1
 1.200  0.5457  154.7   1.663   53.4  0.2058   47.9  0.1800 -142.0
 1.220  0.5464  153.9   1.640   52.7  0.2084   47.8  0.1804 -142.8
 1.240  0.5471  153.1   1.617   52.0  0.2110   47.8  0.1808 -143.6
 1.260  0.5480  152.4   1.594   51.3  0.2136   47.7  0.1812 -144.4
 1.280  0.5489  151.6   1.571   50.6  0.2162   47.7  0.1817 -145.1
 1.300  0.5500  150.8   1.549   49.8  0.2188   47.6  0.1822 -145.9
 1.320  0.5500  150.1   1.530   49.2  0.2214   47.5  0.1830 -146.6
 1.340  0.5500  149.4   1.512   48.6  0.2241   47.4  0.1839 -147.2
 1.360  0.5502  148.8   1.494   48.0  0.2267   47.4  0.1848 -147.8
 1.380  0.5504  148.1   1.476   47.4  0.2294   47.3  0.1857 -148.5
 1.400  0.5507  147.4   1.458   46.7  0.2320   47.2  0.1866 -149.1
 1.420  0.5509  146.8   1.440   46.1  0.2346   47.1  0.1876 -149.9
 1.440  0.5511  146.1   1.422   45.6  0.2372   47.0  0.1887 -150.6
 1.460  0.5515  145.5   1.405   45.0  0.2398   46.8  0.1898 -151.3
 1.480  0.5518  144.8   1.387   44.4  0.2424   46.7  0.1909 -152.1
 1.500  0.5523  144.2   1.370   43.8  0.2450   46.6  0.1921 -152.8
 1.520  0.5541  143.6   1.358   43.2  0.2474   46.5  0.1933 -153.5
 1.540  0.5560  143.0   1.346   42.7  0.2499   46.3  0.1945 -154.2
 1.560  0.5580  142.4   1.334   42.1  0.2523   46.2  0.1957 -154.9
 1.580  0.5600  141.8   1.323   41.5  0.2548   46.0  0.1969 -155.6
 1.600  0.5621  141.2   1.311   40.9  0.2572   45.9  0.1982 -156.3
 1.620  0.5632  140.6   1.299   40.4  0.2597   45.8  0.1991 -156.9
 1.640  0.5643  140.0   1.288   39.8  0.2622   45.6  0.2000 -157.6
 1.660  0.5655  139.3   1.276   39.2  0.2647   45.5  0.2010 -158.2
 1.680  0.5668  138.7   1.265   38.7  0.2672   45.3  0.2020 -158.8
 1.700  0.5681  138.1   1.254   38.1  0.2697   45.2  0.2030 -159.4
 1.720  0.5683  137.5   1.243   37.6  0.2724   45.0  0.2045 -159.9
 1.740  0.5685  136.9   1.232   37.0  0.2752   44.8  0.2061 -160.3
 1.760  0.5688  136.4   1.222   36.5  0.2779   44.6  0.2076 -160.8
 1.780  0.5691  135.8   1.211   36.0  0.2807   44.5  0.2092 -161.3
 1.800  0.5695  135.2   1.201   35.4  0.2834   44.3  0.2108 -161.7
 1.820  0.5697  134.7   1.192   34.9  0.2859   44.1  0.2120 -162.3
 1.840  0.5699  134.2   1.183   34.4  0.2884   43.9  0.2133 -162.8
 1.860  0.5702  133.8   1.174   33.9  0.2909   43.8  0.2145 -163.4
 1.880  0.5705  133.3   1.166   33.3  0.2934   43.6  0.2158 -164.0
 1.900  0.5708  132.8   1.157   32.8  0.2959   43.4  0.2171 -164.5
 1.920  0.5719  132.2   1.148   32.4  0.2985   43.2  0.2183 -165.1
 1.940  0.5730  131.6   1.139   31.9  0.3011   43.1  0.2195 -165.6
 1.960  0.5742  131.1   1.130   31.4  0.3036   42.9  0.2208 -166.1
 1.980  0.5754  130.5   1.121   31.0  0.3062   42.8  0.2220 -166.7
 2.000  0.5767  129.9   1.112   30.5  0.3088   42.6  0.2233 -167.2
 2.020  0.5773  129.3   1.105   30.1  0.3113   42.4  0.2246 -167.7
 2.040  0.5779  128.8   1.097   29.6  0.3139   42.2  0.2258 -168.3
 2.060  0.5786  128.2   1.090   29.2  0.3164   41.9  0.2271 -168.8
 2.080  0.5793  127.7   1.082   28.8  0.3190   41.7  0.2285 -169.4
 2.100  0.5801  127.1   1.075   28.3  0.3215   41.5  0.2298 -169.9
 2.120  0.5809  126.6   1.068   27.9  0.3241   41.3  0.2312 -170.4
 2.140  0.5818  126.0   1.061   27.4  0.3267   41.1  0.2326 -170.9
 2.160  0.5828  125.5   1.054   26.9  0.3292   40.9  0.2340 -171.4
 2.180  0.5838  124.9   1.047   26.5  0.3318   40.7  0.2354 -171.9
 2.200  0.5848  124.4   1.040   26.0  0.3344   40.5  0.2368 -172.4
 2.220  0.5849  123.9   1.035   25.6  0.3369   40.2  0.2382 -173.0
 2.240  0.5851  123.5   1.029   25.2  0.3393   40.0  0.2397 -173.5
 2.260  0.5854  123.0   1.024   24.7  0.3418   39.7  0.2412 -174.1
 2.280  0.5856  122.6   1.018   24.3  0.3443   39.5  0.2427 -174.6
 2.300  0.5859  122.1   1.013   23.9  0.3468   39.2  0.2443 -175.2
 2.320  0.5863  121.6   1.008   23.4  0.3493   39.0  0.2458 -175.7
 2.340  0.5866  121.2   1.003   23.0  0.3518   38.7  0.2474 -176.3
 2.360  0.5871  120.7   0.998   22.5  0.3543   38.5  0.2490 -176.8
 2.380  0.5875  120.3   0.993   22.1  0.3569   38.2  0.2507 -177.3
 2.400  0.5880  119.8   0.988   21.6  0.3594   38.0  0.2523 -177.8
 2.420  0.5893  119.3   0.983   21.2  0.3618   37.7  0.2539 -178.3
 2.440  0.5906  118.8   0.978   20.8  0.3641   37.5  0.2556 -178.9
 2.460  0.5919  118.4   0.972   20.4  0.3665   37.2  0.2572 -179.4
 2.480  0.5933  117.9   0.967   20.0  0.3689   37.0  0.2589 -179.9
 2.500  0.5947  117.4   0.962   19.6  0.3713   36.8  0.2606  179.6
 2.520  0.5962  117.0   0.957   19.1  0.3737   36.5  0.2623  179.1
 2.540  0.5977  116.5   0.952   18.7  0.3761   36.3  0.2641  178.6
 2.560  0.5993  116.0   0.948   18.3  0.3785   36.1  0.2658  178.1
 2.580  0.6009  115.6   0.943   17.8  0.3809   35.8  0.2676  177.7
 2.600  0.6025  115.1   0.938   17.4  0.3833   35.6  0.2694  177.2
 2.620  0.6029  114.6   0.934   17.0  0.3855   35.3  0.2711  176.6
 2.640  0.6034  114.1   0.929   16.6  0.3876   35.1  0.2727  176.1
 2.660  0.6039  113.6   0.925   16.3  0.3898   34.8  0.2744  175.5
 2.680  0.6045  113.2   0.921   15.9  0.3920   34.5  0.2762  175.0
 2.700  0.6051  112.7   0.916   15.5  0.3942   34.3  0.2779  174.4
 2.720  0.6058  112.2   0.912   15.1  0.3964   34.0  0.2797  173.9
 2.740  0.6065  111.7   0.908   14.7  0.3986   33.7  0.2815  173.3
 2.760  0.6072  111.3   0.904   14.3  0.4008   33.5  0.2834  172.8
 2.780  0.6080  110.8   0.900   13.9  0.4031   33.2  0.2852  172.3
 2.800  0.6088  110.3   0.896   13.5  0.4053   33.0  0.2871  171.8
 2.820  0.6097  109.8   0.892   13.2  0.4076   32.7  0.2890  171.3
 2.840  0.6107  109.3   0.889   12.9  0.4098   32.4  0.2909  170.7
 2.860  0.6117  108.8   0.885   12.6  0.4121   32.1  0.2929  170.2
 2.880  0.6127  108.4   0.882   12.3  0.4144   31.8  0.2949  169.7
 2.900  0.6138  107.9   0.878   12.0  0.4167   31.5  0.2969  169.2
 2.920  0.6149  107.4   0.875   11.7  0.4190   31.2  0.2989  168.7
 2.940  0.6161  106.9   0.871   11.4  0.4213   30.9  0.3009  168.2
 2.960  0.6173  106.4   0.868   11.0  0.4236   30.7  0.3030  167.7
 2.980  0.6186  106.0   0.864   10.7  0.4260   30.4  0.3051  167.2
 3.000  0.6199  105.5   0.861   10.4  0.4283   30.1  0.3072  166.7
!
!  f       NFmin   Gammaopt  rn/50
! GHz       dB    MAG  ANG    -
!
! noise parameter not available yet for this operation point!
!
! (c) 2015  Infineon Technologies AG, Munich
