! Infineon Technologies  Discrete & RF Semiconductors
! BFR93AW
! VCE =  5.0 V,  IC =  6.5 mA
! Common Emitter S-Parameters:                            Nov 2015
# GHz  S  MA  R  50
!  f         S11            S21            S12            S22
! GHz     MAG   ANG      MAG   ANG      MAG   ANG      MAG   ANG
 0.030  0.7773  -18.5  19.687  168.6  0.0101   80.5  0.9790   -7.7
 0.035  0.7743  -21.1  19.575  166.7  0.0117   79.2  0.9711   -8.9
 0.040  0.7729  -23.8  19.485  164.8  0.0134   78.2  0.9637  -10.1
 0.045  0.7732  -26.4  19.416  162.9  0.0151   77.5  0.9568  -11.3
 0.050  0.7750  -29.0  19.369  161.0  0.0168   76.9  0.9503  -12.6
 0.055  0.7633  -31.4  19.109  159.6  0.0180   74.9  0.9397  -13.5
 0.060  0.7529  -33.9  18.862  158.1  0.0193   73.2  0.9294  -14.4
 0.065  0.7440  -36.4  18.627  156.6  0.0205   71.7  0.9193  -15.4
 0.070  0.7366  -39.0  18.405  155.1  0.0218   70.3  0.9095  -16.4
 0.075  0.7308  -41.6  18.197  153.5  0.0231   69.1  0.9000  -17.4
 0.080  0.7265  -44.3  18.004  151.9  0.0244   68.0  0.8907  -18.4
 0.085  0.7238  -47.0  17.824  150.2  0.0257   67.1  0.8817  -19.4
 0.090  0.7227  -49.8  17.660  148.5  0.0271   66.2  0.8730  -20.4
 0.095  0.7233  -52.5  17.511  146.8  0.0284   65.4  0.8646  -21.5
 0.100  0.7255  -55.2  17.378  145.1  0.0297   64.7  0.8565  -22.6
 0.105  0.7150  -57.2  17.095  144.0  0.0305   63.7  0.8458  -23.1
 0.110  0.7054  -59.2  16.819  142.9  0.0313   62.8  0.8351  -23.7
 0.115  0.6967  -61.3  16.549  141.7  0.0321   62.0  0.8246  -24.3
 0.120  0.6889  -63.4  16.287  140.5  0.0329   61.2  0.8141  -24.9
 0.125  0.6821  -65.6  16.032  139.3  0.0337   60.4  0.8037  -25.5
 0.130  0.6764  -67.8  15.785  138.0  0.0346   59.6  0.7934  -26.2
 0.135  0.6716  -70.1  15.546  136.7  0.0354   58.9  0.7832  -26.8
 0.140  0.6679  -72.4  15.316  135.3  0.0363   58.3  0.7731  -27.5
 0.145  0.6653  -74.7  15.095  133.9  0.0371   57.6  0.7631  -28.2
 0.150  0.6638  -77.0  14.883  132.4  0.0380   57.0  0.7533  -28.9
 0.155  0.6573  -78.5  14.655  131.6  0.0387   56.5  0.7447  -29.2
 0.160  0.6512  -80.1  14.431  130.8  0.0393   56.0  0.7361  -29.6
 0.165  0.6456  -81.6  14.210  129.9  0.0400   55.5  0.7276  -30.0
 0.170  0.6405  -83.2  13.991  129.0  0.0407   55.1  0.7191  -30.3
 0.175  0.6360  -84.9  13.777  128.1  0.0413   54.6  0.7106  -30.7
 0.180  0.6319  -86.5  13.566  127.2  0.0420   54.2  0.7021  -31.1
 0.185  0.6284  -88.2  13.358  126.2  0.0427   53.8  0.6937  -31.5
 0.190  0.6254  -89.9  13.155  125.2  0.0433   53.4  0.6853  -31.9
 0.195  0.6230  -91.6  12.956  124.2  0.0440   53.0  0.6770  -32.4
 0.200  0.6211  -93.3  12.761  123.1  0.0447   52.6  0.6687  -32.8
 0.220  0.6009  -98.6  12.027  120.4  0.0462   51.4  0.6409  -33.5
 0.240  0.5861 -104.1  11.323  117.4  0.0477   50.2  0.6132  -34.4
 0.260  0.5747 -109.1  10.698  114.8  0.0492   49.6  0.5896  -35.0
 0.280  0.5650 -113.5  10.139  112.6  0.0505   49.3  0.5700  -35.4
 0.300  0.5587 -118.0   9.597  110.2  0.0519   49.0  0.5505  -35.8
 0.320  0.5489 -121.2   9.175  108.8  0.0530   48.8  0.5365  -35.9
 0.340  0.5408 -124.4   8.759  107.2  0.0541   48.7  0.5225  -36.0
 0.360  0.5345 -127.8   8.351  105.5  0.0553   48.5  0.5085  -36.1
 0.380  0.5301 -131.2   7.950  103.6  0.0564   48.4  0.4945  -36.2
 0.400  0.5277 -134.7   7.560  101.5  0.0575   48.3  0.4805  -36.3
 0.420  0.5232 -137.0   7.289  100.4  0.0586   48.5  0.4718  -36.3
 0.440  0.5195 -139.4   7.021   99.2  0.0597   48.6  0.4631  -36.3
 0.450  0.5180 -140.6   6.888   98.6  0.0603   48.7  0.4587  -36.3
 0.460  0.5167 -141.8   6.756   98.0  0.0609   48.8  0.4543  -36.3
 0.480  0.5149 -144.2   6.494   96.6  0.0620   48.9  0.4456  -36.4
 0.500  0.5140 -146.7   6.237   95.1  0.0631   49.1  0.4369  -36.4
 0.520  0.5118 -148.5   6.041   94.2  0.0641   49.6  0.4317  -36.4
 0.540  0.5100 -150.3   5.846   93.3  0.0650   50.1  0.4266  -36.4
 0.560  0.5088 -152.1   5.652   92.2  0.0660   50.6  0.4214  -36.4
 0.580  0.5080 -153.9   5.461   91.2  0.0669   51.0  0.4163  -36.4
 0.600  0.5078 -155.7   5.272   90.0  0.0679   51.5  0.4111  -36.4
 0.620  0.5060 -157.2   5.133   89.2  0.0690   51.9  0.4075  -36.5
 0.640  0.5045 -158.7   4.995   88.4  0.0700   52.3  0.4039  -36.6
 0.660  0.5034 -160.2   4.858   87.5  0.0711   52.7  0.4003  -36.7
 0.680  0.5027 -161.8   4.722   86.6  0.0721   53.0  0.3967  -36.8
 0.700  0.5023 -163.3   4.588   85.6  0.0732   53.4  0.3931  -36.9
 0.720  0.5022 -164.6   4.478   84.9  0.0744   53.9  0.3899  -37.1
 0.740  0.5024 -165.9   4.368   84.1  0.0757   54.4  0.3866  -37.3
 0.760  0.5028 -167.1   4.260   83.3  0.0769   54.8  0.3834  -37.5
 0.780  0.5035 -168.4   4.152   82.5  0.0782   55.3  0.3801  -37.7
 0.800  0.5044 -169.7   4.045   81.6  0.0794   55.7  0.3769  -37.9
 0.820  0.5035 -170.7   3.960   81.0  0.0806   56.0  0.3755  -38.0
 0.840  0.5028 -171.7   3.875   80.3  0.0818   56.3  0.3742  -38.2
 0.860  0.5023 -172.8   3.791   79.6  0.0829   56.6  0.3728  -38.3
 0.880  0.5019 -173.8   3.708   78.9  0.0841   56.9  0.3715  -38.5
 0.900  0.5017 -174.8   3.625   78.1  0.0853   57.2  0.3701  -38.6
 0.920  0.5015 -175.8   3.555   77.5  0.0866   57.5  0.3685  -38.8
 0.940  0.5015 -176.9   3.486   76.8  0.0880   57.9  0.3669  -39.1
 0.960  0.5016 -177.9   3.417   76.1  0.0893   58.2  0.3653  -39.3
 0.980  0.5019 -179.0   3.349   75.4  0.0907   58.5  0.3637  -39.6
 1.000  0.5024  180.0   3.281   74.7  0.0920   58.8  0.3621  -39.8
 1.020  0.5035  179.2   3.225   74.1  0.0933   59.1  0.3605  -40.2
 1.040  0.5047  178.4   3.170   73.5  0.0946   59.4  0.3590  -40.7
 1.060  0.5060  177.6   3.115   72.9  0.0960   59.7  0.3575  -41.1
 1.080  0.5074  176.8   3.060   72.3  0.0973   59.9  0.3560  -41.6
 1.100  0.5089  176.0   3.006   71.6  0.0986   60.2  0.3545  -42.0
 1.120  0.5095  175.2   2.958   71.0  0.1000   60.5  0.3538  -42.3
 1.140  0.5101  174.5   2.910   70.5  0.1015   60.7  0.3532  -42.6
 1.160  0.5109  173.7   2.863   69.9  0.1029   61.0  0.3526  -42.9
 1.180  0.5117  173.0   2.816   69.2  0.1044   61.3  0.3519  -43.2
 1.200  0.5126  172.2   2.769   68.6  0.1058   61.5  0.3513  -43.5
 1.220  0.5124  171.5   2.731   68.1  0.1073   61.7  0.3508  -43.8
 1.240  0.5123  170.8   2.692   67.6  0.1089   62.0  0.3503  -44.1
 1.260  0.5122  170.0   2.654   67.0  0.1104   62.2  0.3498  -44.4
 1.280  0.5123  169.3   2.617   66.5  0.1120   62.4  0.3493  -44.7
 1.300  0.5124  168.6   2.579   65.9  0.1135   62.6  0.3488  -45.0
 1.320  0.5132  167.9   2.544   65.4  0.1150   62.7  0.3477  -45.5
 1.340  0.5141  167.2   2.509   64.8  0.1165   62.8  0.3467  -46.1
 1.360  0.5150  166.6   2.475   64.3  0.1179   63.0  0.3456  -46.6
 1.380  0.5160  165.9   2.441   63.7  0.1194   63.1  0.3447  -47.2
 1.400  0.5171  165.2   2.407   63.1  0.1209   63.2  0.3437  -47.7
 1.420  0.5181  164.6   2.377   62.6  0.1225   63.4  0.3436  -48.1
 1.440  0.5192  164.0   2.346   62.1  0.1240   63.7  0.3435  -48.5
 1.460  0.5203  163.5   2.316   61.6  0.1256   63.9  0.3434  -48.8
 1.480  0.5215  162.9   2.287   61.0  0.1271   64.1  0.3433  -49.2
 1.500  0.5227  162.3   2.257   60.5  0.1287   64.3  0.3432  -49.6
 1.520  0.5224  161.6   2.232   60.0  0.1303   64.4  0.3424  -50.0
 1.540  0.5221  160.9   2.206   59.5  0.1319   64.4  0.3415  -50.4
 1.560  0.5219  160.1   2.181   59.0  0.1334   64.5  0.3407  -50.7
 1.580  0.5218  159.4   2.157   58.4  0.1350   64.5  0.3399  -51.1
 1.600  0.5218  158.7   2.132   57.9  0.1366   64.6  0.3391  -51.5
 1.620  0.5230  158.1   2.109   57.4  0.1383   64.7  0.3387  -52.2
 1.640  0.5242  157.5   2.086   56.9  0.1400   64.7  0.3383  -52.8
 1.660  0.5255  156.9   2.064   56.4  0.1416   64.8  0.3380  -53.5
 1.680  0.5269  156.3   2.041   55.8  0.1433   64.8  0.3377  -54.1
 1.700  0.5283  155.7   2.019   55.3  0.1450   64.9  0.3375  -54.8
 1.720  0.5290  155.2   1.999   54.9  0.1468   65.0  0.3381  -55.2
 1.740  0.5298  154.7   1.978   54.4  0.1486   65.1  0.3387  -55.6
 1.760  0.5306  154.3   1.958   53.9  0.1503   65.2  0.3393  -56.1
 1.780  0.5314  153.8   1.938   53.5  0.1521   65.3  0.3399  -56.5
 1.800  0.5323  153.3   1.918   53.0  0.1539   65.4  0.3406  -56.9
 1.820  0.5326  152.7   1.900   52.6  0.1558   65.5  0.3401  -57.3
 1.840  0.5329  152.2   1.883   52.1  0.1577   65.5  0.3395  -57.8
 1.860  0.5332  151.6   1.865   51.6  0.1596   65.6  0.3390  -58.2
 1.880  0.5336  151.1   1.848   51.2  0.1615   65.6  0.3386  -58.7
 1.900  0.5341  150.5   1.831   50.7  0.1634   65.7  0.3381  -59.1
 1.920  0.5351  149.9   1.814   50.2  0.1652   65.7  0.3382  -59.7
 1.940  0.5363  149.3   1.797   49.8  0.1670   65.7  0.3383  -60.3
 1.960  0.5374  148.8   1.781   49.3  0.1687   65.7  0.3385  -61.0
 1.980  0.5386  148.2   1.764   48.8  0.1705   65.7  0.3387  -61.6
 2.000  0.5399  147.6   1.748   48.3  0.1723   65.7  0.3389  -62.2
 2.020  0.5404  147.1   1.734   47.9  0.1742   65.7  0.3389  -62.6
 2.040  0.5409  146.7   1.720   47.5  0.1762   65.7  0.3388  -63.0
 2.060  0.5415  146.2   1.706   47.1  0.1781   65.6  0.3388  -63.5
 2.080  0.5421  145.7   1.692   46.7  0.1800   65.6  0.3388  -63.9
 2.100  0.5428  145.2   1.678   46.3  0.1819   65.6  0.3389  -64.3
 2.120  0.5435  144.8   1.664   45.9  0.1839   65.6  0.3389  -64.7
 2.140  0.5442  144.3   1.650   45.5  0.1858   65.6  0.3390  -65.1
 2.160  0.5450  143.8   1.637   45.1  0.1877   65.5  0.3391  -65.6
 2.180  0.5458  143.4   1.623   44.6  0.1897   65.5  0.3392  -66.0
 2.200  0.5466  142.9   1.610   44.2  0.1916   65.5  0.3393  -66.4
 2.220  0.5477  142.4   1.598   43.8  0.1935   65.4  0.3397  -67.0
 2.240  0.5487  141.9   1.585   43.4  0.1955   65.4  0.3401  -67.5
 2.260  0.5499  141.4   1.573   43.0  0.1974   65.3  0.3405  -68.1
 2.280  0.5511  141.0   1.561   42.6  0.1994   65.3  0.3410  -68.6
 2.300  0.5523  140.5   1.549   42.2  0.2013   65.2  0.3415  -69.2
 2.320  0.5535  140.0   1.536   41.8  0.2033   65.2  0.3420  -69.7
 2.340  0.5548  139.5   1.524   41.4  0.2052   65.1  0.3426  -70.3
 2.360  0.5561  139.0   1.513   41.0  0.2072   65.1  0.3432  -70.8
 2.380  0.5575  138.6   1.501   40.5  0.2091   65.0  0.3438  -71.4
 2.400  0.5589  138.1   1.489   40.1  0.2111   65.0  0.3445  -71.9
 2.420  0.5596  137.6   1.479   39.7  0.2133   64.9  0.3440  -72.5
 2.440  0.5603  137.1   1.470   39.3  0.2155   64.8  0.3434  -73.1
 2.460  0.5610  136.6   1.460   38.9  0.2176   64.7  0.3430  -73.8
 2.480  0.5618  136.1   1.451   38.5  0.2198   64.6  0.3426  -74.4
 2.500  0.5627  135.6   1.441   38.1  0.2220   64.5  0.3422  -75.0
 2.520  0.5636  135.1   1.432   37.7  0.2242   64.4  0.3418  -75.7
 2.540  0.5645  134.7   1.422   37.3  0.2264   64.3  0.3415  -76.3
 2.560  0.5655  134.2   1.413   36.9  0.2285   64.2  0.3413  -76.9
 2.580  0.5665  133.7   1.404   36.4  0.2307   64.1  0.3411  -77.6
 2.600  0.5675  133.2   1.395   36.0  0.2329   64.0  0.3409  -78.2
 2.620  0.5685  132.8   1.387   35.7  0.2351   63.9  0.3411  -78.7
 2.640  0.5695  132.3   1.378   35.3  0.2373   63.8  0.3413  -79.2
 2.660  0.5706  131.9   1.370   35.0  0.2395   63.6  0.3416  -79.8
 2.680  0.5716  131.5   1.362   34.6  0.2417   63.5  0.3419  -80.3
 2.700  0.5728  131.1   1.354   34.3  0.2439   63.4  0.3422  -80.8
 2.720  0.5739  130.7   1.346   33.9  0.2461   63.3  0.3425  -81.3
 2.740  0.5751  130.2   1.338   33.5  0.2483   63.2  0.3429  -81.9
 2.760  0.5763  129.8   1.330   33.2  0.2505   63.1  0.3433  -82.4
 2.780  0.5775  129.4   1.322   32.8  0.2527   63.0  0.3437  -82.9
 2.800  0.5788  129.0   1.314   32.4  0.2549   62.9  0.3442  -83.4
 2.820  0.5792  128.6   1.306   32.1  0.2569   62.8  0.3445  -83.9
 2.840  0.5797  128.1   1.299   31.7  0.2590   62.7  0.3449  -84.5
 2.860  0.5802  127.7   1.291   31.4  0.2610   62.6  0.3453  -85.0
 2.880  0.5808  127.2   1.284   31.0  0.2630   62.4  0.3458  -85.5
 2.900  0.5814  126.8   1.276   30.7  0.2651   62.3  0.3462  -86.1
 2.920  0.5820  126.3   1.269   30.3  0.2671   62.2  0.3467  -86.6
 2.940  0.5826  125.9   1.262   30.0  0.2692   62.1  0.3472  -87.1
 2.960  0.5833  125.5   1.254   29.6  0.2712   62.0  0.3478  -87.7
 2.980  0.5840  125.0   1.247   29.3  0.2733   61.9  0.3484  -88.2
 3.000  0.5848  124.6   1.240   28.9  0.2753   61.8  0.3490  -88.7
 3.100  0.5891  122.5   1.209   27.4  0.2866   60.8  0.3492  -92.0
 3.200  0.5941  120.4   1.179   25.8  0.2981   59.8  0.3506  -95.3
 3.300  0.5999  118.4   1.149   24.2  0.3096   59.0  0.3531  -98.6
 3.400  0.6064  116.4   1.121   22.4  0.3212   58.2  0.3568 -101.9
 3.500  0.6136  114.5   1.094   20.6  0.3328   57.4  0.3616 -105.0
 3.600  0.6157  112.6   1.069   19.4  0.3438   56.2  0.3619 -108.5
 3.700  0.6185  110.8   1.044   18.1  0.3550   55.1  0.3635 -112.1
 3.800  0.6219  109.0   1.020   16.8  0.3663   54.1  0.3665 -115.6
 3.900  0.6259  107.2   0.997   15.4  0.3777   53.1  0.3709 -119.0
 4.000  0.6305  105.4   0.974   13.9  0.3892   52.2  0.3765 -122.3
 4.100  0.6333  103.7   0.955   12.9  0.3996   50.8  0.3786 -125.5
 4.200  0.6366  102.1   0.935   11.8  0.4102   49.5  0.3820 -128.7
 4.300  0.6405  100.5   0.917   10.7  0.4210   48.2  0.3865 -131.9
 4.400  0.6448   98.9   0.898    9.6  0.4320   47.0  0.3922 -134.9
 4.500  0.6497   97.3   0.880    8.4  0.4432   45.9  0.3989 -137.9
 4.600  0.6507   95.9   0.866    7.6  0.4526   44.6  0.4008 -141.0
 4.700  0.6520   94.4   0.852    6.7  0.4622   43.3  0.4038 -144.0
 4.800  0.6538   93.0   0.839    5.8  0.4720   42.1  0.4079 -147.0
 4.900  0.6559   91.6   0.825    4.9  0.4820   40.9  0.4132 -149.9
 5.000  0.6585   90.2   0.812    4.0  0.4922   39.8  0.4194 -152.7
 5.100  0.6611   88.9   0.801    3.3  0.5003   38.5  0.4193 -155.7
 5.200  0.6640   87.6   0.790    2.7  0.5088   37.2  0.4204 -158.7
 5.300  0.6673   86.3   0.779    2.0  0.5174   36.0  0.4226 -161.6
 5.400  0.6709   85.0   0.768    1.2  0.5263   34.8  0.4259 -164.5
 5.500  0.6749   83.7   0.757    0.5  0.5354   33.6  0.4303 -167.4
 5.600  0.6749   82.5   0.750   -0.1  0.5429   32.3  0.4313 -170.1
 5.700  0.6751   81.4   0.744   -0.7  0.5506   31.1  0.4333 -172.7
 5.800  0.6756   80.2   0.737   -1.3  0.5587   29.8  0.4362 -175.3
 5.900  0.6764   79.1   0.730   -2.0  0.5669   28.7  0.4400 -177.9
 6.000  0.6775   77.9   0.724   -2.6  0.5754   27.5  0.4446  179.6
!
!  f       NFmin   Gammaopt  rn/50
! GHz       dB    MAG  ANG    -
!
! noise parameter not available yet for this operation point!
!
! (c) 2015  Infineon Technologies AG, Munich
