! Infineon Technologies  Discrete & RF Semiconductors
! BFR93AW
! VCE =  3.0 V,  IC =  5.0 mA
! Common Emitter S-Parameters:                            Nov 2015
# GHz  S  MA  R  50
!  f         S11            S21            S12            S22
! GHz     MAG   ANG      MAG   ANG      MAG   ANG      MAG   ANG
 0.030  0.8148  -17.0  15.914  169.8  0.0116   79.9  0.9845   -7.3
 0.035  0.8126  -19.3  15.844  168.1  0.0134   78.5  0.9774   -8.4
 0.040  0.8118  -21.7  15.789  166.3  0.0152   77.5  0.9706   -9.6
 0.045  0.8124  -24.1  15.749  164.5  0.0170   76.7  0.9642  -10.7
 0.050  0.8144  -26.5  15.724  162.7  0.0188   76.0  0.9582  -11.9
 0.055  0.8038  -28.8  15.547  161.3  0.0203   74.3  0.9490  -12.8
 0.060  0.7945  -31.1  15.380  159.9  0.0219   72.8  0.9401  -13.7
 0.065  0.7866  -33.5  15.222  158.5  0.0235   71.6  0.9314  -14.7
 0.070  0.7801  -36.0  15.074  157.0  0.0251   70.5  0.9230  -15.7
 0.075  0.7751  -38.5  14.936  155.5  0.0267   69.5  0.9148  -16.6
 0.080  0.7715  -41.0  14.808  154.0  0.0284   68.6  0.9069  -17.6
 0.085  0.7694  -43.5  14.691  152.5  0.0300   67.9  0.8993  -18.6
 0.090  0.7688  -46.0  14.584  150.9  0.0316   67.2  0.8920  -19.7
 0.095  0.7697  -48.6  14.489  149.3  0.0332   66.6  0.8850  -20.7
 0.100  0.7721  -51.1  14.405  147.7  0.0349   66.0  0.8783  -21.8
 0.105  0.7619  -53.0  14.195  146.6  0.0360   64.9  0.8680  -22.4
 0.110  0.7526  -55.0  13.991  145.5  0.0371   63.8  0.8579  -23.1
 0.115  0.7442  -57.0  13.792  144.3  0.0382   62.8  0.8478  -23.7
 0.120  0.7368  -59.1  13.599  143.1  0.0393   61.9  0.8379  -24.4
 0.125  0.7303  -61.2  13.413  141.9  0.0404   61.0  0.8281  -25.1
 0.130  0.7248  -63.3  13.232  140.7  0.0416   60.2  0.8184  -25.8
 0.135  0.7203  -65.5  13.058  139.4  0.0427   59.4  0.8088  -26.5
 0.140  0.7169  -67.7  12.890  138.1  0.0439   58.7  0.7994  -27.3
 0.145  0.7146  -69.9  12.730  136.7  0.0450   58.0  0.7901  -28.0
 0.150  0.7133  -72.1  12.577  135.3  0.0462   57.3  0.7810  -28.8
 0.155  0.7067  -73.6  12.402  134.5  0.0469   56.7  0.7725  -29.2
 0.160  0.7006  -75.2  12.230  133.6  0.0476   56.1  0.7641  -29.6
 0.165  0.6951  -76.7  12.061  132.7  0.0483   55.5  0.7557  -30.1
 0.170  0.6901  -78.3  11.894  131.8  0.0490   55.0  0.7474  -30.5
 0.175  0.6856  -80.0  11.731  130.9  0.0497   54.4  0.7391  -31.0
 0.180  0.6817  -81.6  11.570  130.0  0.0504   53.9  0.7308  -31.4
 0.185  0.6783  -83.3  11.413  129.0  0.0511   53.4  0.7226  -31.9
 0.190  0.6755  -84.9  11.260  128.0  0.0518   52.9  0.7144  -32.4
 0.195  0.6733  -86.6  11.109  127.0  0.0526   52.4  0.7063  -32.9
 0.200  0.6717  -88.3  10.963  125.9  0.0533   51.9  0.6983  -33.4
 0.220  0.6505  -93.6  10.371  123.1  0.0553   50.2  0.6694  -34.4
 0.240  0.6352  -99.2   9.808  119.9  0.0574   48.6  0.6406  -35.6
 0.260  0.6233 -104.3   9.303  117.1  0.0592   47.5  0.6158  -36.5
 0.280  0.6128 -108.7   8.843  114.8  0.0609   46.7  0.5946  -37.2
 0.300  0.6062 -113.3   8.399  112.3  0.0625   46.0  0.5736  -38.0
 0.320  0.5953 -116.6   8.041  110.8  0.0637   45.6  0.5580  -38.3
 0.340  0.5864 -120.0   7.688  109.1  0.0650   45.2  0.5423  -38.6
 0.360  0.5796 -123.5   7.343  107.3  0.0662   44.8  0.5267  -38.9
 0.380  0.5750 -127.0   7.006  105.2  0.0675   44.5  0.5110  -39.2
 0.400  0.5726 -130.6   6.679  103.0  0.0687   44.1  0.4954  -39.5
 0.420  0.5667 -133.0   6.444  101.8  0.0696   44.2  0.4854  -39.6
 0.440  0.5619 -135.5   6.213  100.6  0.0705   44.3  0.4753  -39.7
 0.450  0.5599 -136.8   6.098   99.9  0.0710   44.4  0.4703  -39.8
 0.460  0.5582 -138.1   5.984   99.2  0.0715   44.4  0.4653  -39.9
 0.480  0.5556 -140.7   5.759   97.7  0.0724   44.5  0.4552  -40.0
 0.500  0.5542 -143.3   5.538   96.1  0.0733   44.6  0.4452  -40.2
 0.520  0.5514 -145.2   5.366   95.1  0.0742   44.8  0.4393  -40.3
 0.540  0.5491 -147.0   5.195   94.1  0.0750   45.0  0.4334  -40.4
 0.560  0.5474 -148.9   5.026   93.0  0.0759   45.2  0.4274  -40.5
 0.580  0.5464 -150.8   4.860   91.9  0.0767   45.3  0.4215  -40.6
 0.600  0.5459 -152.7   4.695   90.6  0.0776   45.5  0.4156  -40.7
 0.620  0.5442 -154.3   4.573   89.8  0.0785   45.8  0.4113  -40.9
 0.640  0.5429 -155.8   4.452   88.9  0.0793   46.1  0.4069  -41.0
 0.660  0.5420 -157.4   4.332   87.9  0.0802   46.4  0.4026  -41.2
 0.680  0.5415 -159.0   4.213   86.9  0.0810   46.7  0.3983  -41.4
 0.700  0.5414 -160.6   4.096   85.9  0.0819   47.0  0.3940  -41.6
 0.720  0.5404 -161.9   3.998   85.1  0.0830   47.4  0.3902  -41.8
 0.740  0.5397 -163.3   3.901   84.3  0.0840   47.7  0.3865  -42.1
 0.760  0.5393 -164.6   3.805   83.5  0.0851   48.1  0.3828  -42.3
 0.780  0.5391 -166.0   3.709   82.5  0.0861   48.5  0.3790  -42.6
 0.800  0.5393 -167.3   3.615   81.6  0.0872   48.8  0.3753  -42.8
 0.820  0.5390 -168.4   3.539   80.9  0.0883   49.2  0.3736  -43.0
 0.840  0.5390 -169.5   3.465   80.2  0.0894   49.6  0.3718  -43.2
 0.860  0.5391 -170.6   3.390   79.5  0.0905   50.0  0.3701  -43.3
 0.880  0.5395 -171.7   3.316   78.7  0.0916   50.3  0.3684  -43.5
 0.900  0.5400 -172.8   3.243   77.9  0.0927   50.7  0.3667  -43.7
 0.920  0.5395 -173.9   3.182   77.2  0.0938   51.1  0.3648  -44.0
 0.940  0.5392 -174.9   3.121   76.5  0.0948   51.4  0.3630  -44.3
 0.960  0.5391 -176.0   3.060   75.8  0.0959   51.8  0.3611  -44.5
 0.980  0.5392 -177.0   3.000   75.1  0.0969   52.2  0.3592  -44.8
 1.000  0.5394 -178.1   2.941   74.3  0.0980   52.5  0.3574  -45.1
 1.020  0.5398 -179.0   2.891   73.7  0.0992   52.9  0.3558  -45.6
 1.040  0.5403 -179.8   2.841   73.0  0.1004   53.2  0.3542  -46.1
 1.060  0.5410  179.3   2.792   72.3  0.1016   53.5  0.3526  -46.6
 1.080  0.5417  178.5   2.743   71.6  0.1029   53.9  0.3510  -47.1
 1.100  0.5426  177.6   2.695   70.9  0.1041   54.2  0.3495  -47.6
 1.120  0.5434  176.8   2.652   70.3  0.1053   54.6  0.3488  -47.9
 1.140  0.5443  176.0   2.609   69.7  0.1066   54.9  0.3481  -48.2
 1.160  0.5454  175.1   2.567   69.1  0.1078   55.2  0.3475  -48.6
 1.180  0.5465  174.3   2.525   68.5  0.1091   55.6  0.3468  -48.9
 1.200  0.5478  173.5   2.483   67.8  0.1103   55.9  0.3462  -49.2
 1.220  0.5476  172.8   2.449   67.3  0.1117   56.2  0.3455  -49.5
 1.240  0.5474  172.0   2.415   66.7  0.1131   56.4  0.3448  -49.9
 1.260  0.5474  171.3   2.382   66.1  0.1144   56.6  0.3441  -50.2
 1.280  0.5475  170.5   2.349   65.5  0.1158   56.9  0.3434  -50.6
 1.300  0.5476  169.8   2.316   64.9  0.1172   57.1  0.3427  -50.9
 1.320  0.5484  169.1   2.285   64.4  0.1185   57.4  0.3417  -51.5
 1.340  0.5492  168.3   2.254   63.8  0.1199   57.7  0.3408  -52.1
 1.360  0.5502  167.6   2.224   63.2  0.1212   58.0  0.3399  -52.8
 1.380  0.5513  166.8   2.193   62.6  0.1226   58.3  0.3390  -53.4
 1.400  0.5524  166.1   2.163   62.0  0.1239   58.6  0.3382  -54.0
 1.420  0.5532  165.5   2.135   61.5  0.1254   58.9  0.3381  -54.4
 1.440  0.5541  165.0   2.108   60.9  0.1270   59.1  0.3380  -54.8
 1.460  0.5550  164.4   2.081   60.4  0.1285   59.3  0.3379  -55.3
 1.480  0.5560  163.9   2.054   59.8  0.1301   59.6  0.3378  -55.7
 1.500  0.5570  163.3   2.027   59.2  0.1316   59.8  0.3378  -56.1
 1.520  0.5569  162.6   2.005   58.7  0.1332   59.9  0.3368  -56.5
 1.540  0.5569  161.8   1.982   58.2  0.1347   60.1  0.3359  -57.0
 1.560  0.5570  161.1   1.960   57.6  0.1363   60.2  0.3349  -57.4
 1.580  0.5571  160.3   1.939   57.1  0.1378   60.4  0.3340  -57.9
 1.600  0.5574  159.6   1.917   56.5  0.1394   60.5  0.3331  -58.3
 1.620  0.5583  159.0   1.896   56.0  0.1410   60.7  0.3328  -59.0
 1.640  0.5593  158.4   1.876   55.5  0.1426   60.8  0.3326  -59.7
 1.660  0.5603  157.8   1.855   55.0  0.1443   61.0  0.3325  -60.4
 1.680  0.5614  157.2   1.835   54.4  0.1459   61.1  0.3324  -61.1
 1.700  0.5626  156.6   1.815   53.9  0.1475   61.3  0.3323  -61.8
 1.720  0.5635  156.1   1.797   53.4  0.1492   61.4  0.3331  -62.3
 1.740  0.5645  155.6   1.779   53.0  0.1510   61.5  0.3338  -62.8
 1.760  0.5655  155.0   1.762   52.5  0.1527   61.7  0.3346  -63.2
 1.780  0.5666  154.5   1.744   52.0  0.1545   61.8  0.3355  -63.7
 1.800  0.5677  154.0   1.727   51.5  0.1562   61.9  0.3363  -64.2
 1.820  0.5680  153.4   1.711   51.0  0.1581   62.0  0.3357  -64.7
 1.840  0.5684  152.8   1.695   50.6  0.1600   62.1  0.3351  -65.1
 1.860  0.5688  152.3   1.680   50.1  0.1620   62.3  0.3346  -65.6
 1.880  0.5693  151.7   1.664   49.6  0.1639   62.4  0.3340  -66.0
 1.900  0.5699  151.1   1.649   49.1  0.1658   62.5  0.3335  -66.5
 1.920  0.5708  150.5   1.634   48.6  0.1676   62.6  0.3338  -67.2
 1.940  0.5717  149.9   1.619   48.1  0.1694   62.6  0.3342  -67.8
 1.960  0.5727  149.4   1.604   47.6  0.1713   62.7  0.3346  -68.5
 1.980  0.5738  148.8   1.589   47.1  0.1731   62.7  0.3350  -69.1
 2.000  0.5749  148.2   1.574   46.6  0.1749   62.8  0.3355  -69.8
 2.020  0.5752  147.7   1.562   46.2  0.1769   62.8  0.3355  -70.3
 2.040  0.5756  147.2   1.549   45.8  0.1788   62.9  0.3355  -70.7
 2.060  0.5760  146.7   1.537   45.4  0.1808   62.9  0.3356  -71.2
 2.080  0.5765  146.2   1.525   45.0  0.1828   62.9  0.3356  -71.7
 2.100  0.5770  145.7   1.513   44.6  0.1847   63.0  0.3357  -72.2
 2.120  0.5776  145.2   1.500   44.2  0.1867   63.0  0.3358  -72.6
 2.140  0.5782  144.8   1.488   43.8  0.1887   63.0  0.3360  -73.1
 2.160  0.5788  144.3   1.477   43.4  0.1907   63.0  0.3361  -73.6
 2.180  0.5795  143.8   1.465   42.9  0.1926   63.1  0.3363  -74.0
 2.200  0.5802  143.3   1.453   42.5  0.1946   63.1  0.3365  -74.5
 2.220  0.5811  142.8   1.442   42.1  0.1966   63.1  0.3371  -75.1
 2.240  0.5821  142.3   1.431   41.7  0.1986   63.1  0.3377  -75.7
 2.260  0.5831  141.7   1.420   41.3  0.2005   63.1  0.3383  -76.3
 2.280  0.5842  141.2   1.409   40.9  0.2025   63.1  0.3390  -76.8
 2.300  0.5853  140.7   1.398   40.5  0.2045   63.0  0.3397  -77.4
 2.320  0.5864  140.2   1.387   40.1  0.2065   63.0  0.3404  -78.0
 2.340  0.5876  139.7   1.377   39.7  0.2085   63.0  0.3412  -78.6
 2.360  0.5889  139.2   1.366   39.3  0.2104   63.0  0.3420  -79.2
 2.380  0.5902  138.7   1.355   38.8  0.2124   63.0  0.3428  -79.7
 2.400  0.5915  138.2   1.345   38.4  0.2144   63.0  0.3437  -80.3
 2.420  0.5922  137.7   1.336   38.0  0.2167   62.9  0.3433  -81.0
 2.440  0.5929  137.2   1.327   37.6  0.2190   62.8  0.3429  -81.7
 2.460  0.5937  136.7   1.318   37.2  0.2213   62.7  0.3426  -82.4
 2.480  0.5945  136.1   1.309   36.8  0.2236   62.6  0.3424  -83.1
 2.500  0.5954  135.6   1.301   36.4  0.2259   62.5  0.3422  -83.7
 2.520  0.5963  135.1   1.292   35.9  0.2282   62.4  0.3420  -84.4
 2.540  0.5973  134.6   1.283   35.5  0.2305   62.4  0.3419  -85.1
 2.560  0.5983  134.1   1.275   35.1  0.2328   62.3  0.3419  -85.8
 2.580  0.5994  133.6   1.266   34.6  0.2351   62.2  0.3419  -86.5
 2.600  0.6005  133.1   1.258   34.2  0.2374   62.1  0.3419  -87.2
 2.620  0.6013  132.7   1.251   33.9  0.2397   62.0  0.3422  -87.8
 2.640  0.6022  132.2   1.243   33.5  0.2420   61.9  0.3426  -88.3
 2.660  0.6030  131.8   1.236   33.2  0.2444   61.8  0.3429  -88.9
 2.680  0.6039  131.4   1.229   32.8  0.2467   61.7  0.3433  -89.5
 2.700  0.6049  131.0   1.222   32.5  0.2490   61.6  0.3438  -90.0
 2.720  0.6059  130.6   1.215   32.1  0.2513   61.5  0.3443  -90.6
 2.740  0.6069  130.1   1.208   31.7  0.2536   61.5  0.3448  -91.1
 2.760  0.6079  129.7   1.201   31.4  0.2560   61.4  0.3453  -91.7
 2.780  0.6090  129.3   1.194   31.0  0.2583   61.3  0.3459  -92.2
 2.800  0.6101  128.9   1.187   30.6  0.2606   61.2  0.3465  -92.8
 2.820  0.6106  128.4   1.180   30.3  0.2627   61.1  0.3470  -93.4
 2.840  0.6112  128.0   1.173   30.0  0.2649   60.9  0.3475  -93.9
 2.860  0.6118  127.5   1.166   29.6  0.2670   60.8  0.3481  -94.5
 2.880  0.6124  127.0   1.160   29.3  0.2691   60.7  0.3487  -95.1
 2.900  0.6131  126.6   1.153   28.9  0.2712   60.6  0.3493  -95.6
 2.920  0.6138  126.1   1.146   28.6  0.2734   60.5  0.3499  -96.2
 2.940  0.6146  125.7   1.140   28.3  0.2755   60.3  0.3506  -96.7
 2.960  0.6154  125.2   1.133   27.9  0.2776   60.2  0.3514  -97.3
 2.980  0.6162  124.8   1.127   27.6  0.2798   60.1  0.3521  -97.8
 3.000  0.6171  124.3   1.120   27.2  0.2819   60.0  0.3529  -98.4
 3.100  0.6206  122.2   1.092   25.8  0.2939   59.0  0.3540 -101.9
 3.200  0.6250  120.0   1.065   24.3  0.3060   58.1  0.3565 -105.4
 3.300  0.6303  118.0   1.039   22.8  0.3182   57.2  0.3602 -108.8
 3.400  0.6363  115.9   1.014   21.1  0.3305   56.4  0.3652 -112.2
 3.500  0.6432  113.9   0.989   19.4  0.3428   55.7  0.3714 -115.4
 3.600  0.6446  112.0   0.967   18.3  0.3542   54.4  0.3728 -119.0
 3.700  0.6467  110.1   0.946   17.0  0.3658   53.2  0.3756 -122.6
 3.800  0.6495  108.2   0.925   15.8  0.3775   52.1  0.3799 -126.1
 3.900  0.6530  106.3   0.904   14.5  0.3893   51.1  0.3856 -129.6
 4.000  0.6572  104.5   0.884   13.1  0.4013   50.1  0.3927 -132.9
 4.100  0.6592  102.8   0.868   12.2  0.4118   48.6  0.3956 -136.1
 4.200  0.6618  101.1   0.851   11.3  0.4225   47.3  0.3997 -139.3
 4.300  0.6649   99.5   0.835   10.3  0.4334   45.9  0.4050 -142.5
 4.400  0.6686   97.8   0.820    9.3  0.4446   44.7  0.4115 -145.5
 4.500  0.6728   96.2   0.804    8.3  0.4560   43.5  0.4191 -148.4
 4.600  0.6728   94.8   0.793    7.6  0.4650   42.1  0.4213 -151.4
 4.700  0.6732   93.4   0.782    6.8  0.4743   40.8  0.4247 -154.4
 4.800  0.6740   92.0   0.771    6.1  0.4839   39.6  0.4292 -157.3
 4.900  0.6752   90.6   0.761    5.3  0.4936   38.4  0.4348 -160.1
 5.000  0.6768   89.2   0.750    4.5  0.5036   37.2  0.4414 -162.9
 5.100  0.6781   87.9   0.741    3.9  0.5113   35.9  0.4417 -165.8
 5.200  0.6797   86.6   0.733    3.3  0.5193   34.6  0.4431 -168.7
 5.300  0.6817   85.3   0.724    2.7  0.5276   33.3  0.4456 -171.5
 5.400  0.6840   84.1   0.715    2.1  0.5361   32.1  0.4491 -174.3
 5.500  0.6866   82.8   0.707    1.5  0.5448   30.9  0.4538 -177.1
 5.600  0.6860   81.6   0.702    1.0  0.5517   29.6  0.4549 -179.6
 5.700  0.6857   80.4   0.698    0.4  0.5590   28.3  0.4569  177.9
 5.800  0.6856   79.2   0.694   -0.1  0.5665   27.1  0.4598  175.4
 5.900  0.6859   78.0   0.689   -0.6  0.5742   25.9  0.4635  172.9
 6.000  0.6865   76.8   0.685   -1.2  0.5822   24.7  0.4681  170.5
!
!  f       NFmin   Gammaopt  rn/50
! GHz       dB    MAG  ANG    -
!
! noise parameter not available yet for this operation point!
!
! (c) 2015  Infineon Technologies AG, Munich
