! Infineon Technologies  Discrete & RF Semiconductors
! BFR93A
! VCE =  1.7 V,  IC =  6.0 mA
! Common Emitter S-Parameters:                            Nov 2015
# GHz  S  MA  R  50
!  f         S11            S21            S12            S22
! GHz     MAG   ANG      MAG   ANG      MAG   ANG      MAG   ANG
 0.010  0.8018   -6.6  17.593  175.2  0.0054   87.2  0.9819   -3.8
 0.015  0.7958   -9.8  17.496  172.9  0.0081   83.3  0.9777   -5.6
 0.020  0.7922  -13.0  17.428  170.6  0.0109   81.4  0.9744   -7.4
 0.025  0.7813  -16.1  17.221  168.6  0.0133   79.1  0.9639   -9.1
 0.030  0.7726  -19.2  17.037  166.5  0.0157   77.5  0.9543  -10.7
 0.035  0.7663  -22.4  16.876  164.3  0.0181   76.3  0.9455  -12.5
 0.040  0.7625  -25.7  16.738  162.1  0.0205   75.4  0.9376  -14.2
 0.045  0.7611  -28.9  16.626  159.9  0.0230   74.7  0.9305  -16.0
 0.050  0.7622  -32.2  16.538  157.7  0.0254   74.1  0.9244  -17.8
 0.055  0.7474  -34.7  16.255  156.2  0.0272   72.2  0.9097  -19.0
 0.060  0.7340  -37.2  15.983  154.7  0.0290   70.5  0.8954  -20.2
 0.065  0.7221  -39.9  15.723  153.0  0.0308   69.1  0.8815  -21.5
 0.070  0.7119  -42.6  15.477  151.4  0.0327   67.8  0.8681  -22.8
 0.075  0.7033  -45.5  15.243  149.7  0.0346   66.6  0.8551  -24.1
 0.080  0.6964  -48.3  15.023  147.9  0.0365   65.6  0.8426  -25.5
 0.085  0.6914  -51.3  14.818  146.1  0.0384   64.6  0.8306  -26.9
 0.090  0.6882  -54.2  14.629  144.3  0.0403   63.8  0.8192  -28.4
 0.095  0.6868  -57.2  14.455  142.3  0.0422   63.0  0.8083  -29.9
 0.100  0.6873  -60.2  14.297  140.4  0.0441   62.3  0.7979  -31.4
 0.105  0.6757  -62.1  14.033  139.3  0.0453   61.4  0.7847  -32.2
 0.110  0.6649  -64.1  13.775  138.1  0.0464   60.5  0.7716  -32.9
 0.115  0.6549  -66.2  13.523  136.9  0.0476   59.7  0.7586  -33.8
 0.120  0.6458  -68.3  13.277  135.6  0.0488   58.9  0.7458  -34.6
 0.125  0.6375  -70.5  13.037  134.3  0.0500   58.1  0.7332  -35.5
 0.130  0.6302  -72.7  12.805  133.0  0.0512   57.4  0.7208  -36.4
 0.135  0.6239  -75.0  12.580  131.6  0.0524   56.7  0.7085  -37.3
 0.140  0.6186  -77.3  12.363  130.2  0.0536   56.0  0.6964  -38.3
 0.145  0.6143  -79.6  12.154  128.7  0.0549   55.4  0.6846  -39.3
 0.150  0.6111  -82.0  11.953  127.1  0.0561   54.8  0.6729  -40.3
 0.155  0.6033  -83.6  11.749  126.3  0.0569   54.4  0.6629  -40.8
 0.160  0.5960  -85.2  11.548  125.5  0.0577   54.0  0.6530  -41.3
 0.165  0.5893  -86.9  11.350  124.6  0.0585   53.6  0.6431  -41.8
 0.170  0.5830  -88.6  11.154  123.7  0.0593   53.2  0.6333  -42.3
 0.175  0.5772  -90.3  10.961  122.8  0.0601   52.8  0.6235  -42.8
 0.180  0.5720  -92.1  10.771  121.8  0.0609   52.4  0.6138  -43.4
 0.185  0.5674  -93.9  10.584  120.8  0.0617   52.0  0.6041  -44.0
 0.190  0.5633  -95.8  10.401  119.8  0.0625   51.7  0.5945  -44.6
 0.195  0.5598  -97.6  10.220  118.7  0.0633   51.3  0.5850  -45.2
 0.200  0.5569  -99.5  10.044  117.6  0.0641   51.0  0.5755  -45.8
 0.220  0.5383 -104.8   9.430  114.9  0.0666   50.1  0.5451  -47.1
 0.240  0.5246 -110.5   8.839  111.9  0.0691   49.3  0.5151  -48.6
 0.260  0.5137 -115.5   8.322  109.2  0.0714   48.8  0.4890  -49.8
 0.280  0.5036 -119.9   7.867  107.0  0.0735   48.5  0.4668  -50.6
 0.300  0.4965 -124.4   7.424  104.6  0.0756   48.2  0.4446  -51.5
 0.320  0.4872 -127.6   7.087  103.1  0.0775   48.2  0.4292  -51.9
 0.340  0.4795 -130.9   6.755  101.6  0.0794   48.3  0.4139  -52.4
 0.360  0.4734 -134.4   6.429   99.8  0.0813   48.3  0.3986  -52.9
 0.380  0.4691 -137.9   6.110   97.9  0.0832   48.4  0.3833  -53.4
 0.400  0.4665 -141.4   5.798   95.7  0.0851   48.4  0.3681  -54.0
 0.420  0.4615 -143.9   5.584   94.6  0.0869   48.6  0.3588  -54.2
 0.440  0.4574 -146.5   5.373   93.3  0.0888   48.8  0.3495  -54.4
 0.450  0.4557 -147.8   5.268   92.7  0.0897   48.9  0.3449  -54.6
 0.460  0.4542 -149.1   5.164   92.0  0.0906   49.0  0.3402  -54.7
 0.480  0.4520 -151.7   4.958   90.6  0.0925   49.2  0.3310  -54.9
 0.500  0.4508 -154.4   4.756   89.0  0.0943   49.4  0.3217  -55.2
 0.520  0.4486 -156.3   4.607   88.0  0.0963   49.7  0.3153  -55.4
 0.540  0.4469 -158.3   4.458   87.0  0.0982   50.0  0.3089  -55.7
 0.560  0.4457 -160.3   4.312   85.9  0.1002   50.2  0.3025  -55.9
 0.580  0.4451 -162.2   4.167   84.8  0.1021   50.5  0.2962  -56.1
 0.600  0.4450 -164.2   4.024   83.5  0.1041   50.7  0.2898  -56.4
 0.620  0.4440 -165.7   3.915   82.6  0.1061   51.0  0.2855  -56.6
 0.640  0.4434 -167.2   3.807   81.7  0.1082   51.2  0.2812  -56.9
 0.660  0.4430 -168.8   3.701   80.7  0.1102   51.4  0.2769  -57.2
 0.680  0.4430 -170.3   3.595   79.6  0.1123   51.7  0.2727  -57.4
 0.700  0.4433 -171.8   3.491   78.5  0.1143   51.9  0.2684  -57.7
 0.720  0.4432 -173.2   3.409   77.7  0.1164   52.1  0.2651  -58.0
 0.740  0.4433 -174.6   3.328   76.9  0.1184   52.3  0.2618  -58.3
 0.760  0.4437 -176.0   3.247   76.0  0.1205   52.5  0.2585  -58.6
 0.780  0.4444 -177.4   3.167   75.1  0.1225   52.7  0.2553  -58.9
 0.800  0.4453 -178.8   3.088   74.1  0.1246   52.9  0.2520  -59.2
 0.820  0.4451  180.0   3.023   73.4  0.1267   53.0  0.2495  -59.6
 0.840  0.4452  178.8   2.958   72.7  0.1288   53.2  0.2470  -60.0
 0.860  0.4454  177.6   2.894   71.9  0.1310   53.3  0.2445  -60.4
 0.880  0.4459  176.4   2.831   71.1  0.1331   53.5  0.2421  -60.8
 0.900  0.4465  175.2   2.768   70.3  0.1352   53.6  0.2396  -61.2
 0.920  0.4465  174.1   2.716   69.6  0.1374   53.7  0.2379  -61.6
 0.940  0.4467  173.0   2.665   68.8  0.1396   53.7  0.2362  -61.9
 0.960  0.4470  172.0   2.615   68.1  0.1417   53.8  0.2345  -62.3
 0.980  0.4475  170.9   2.565   67.2  0.1439   53.8  0.2329  -62.7
 1.000  0.4482  169.8   2.515   66.4  0.1461   53.9  0.2312  -63.1
 1.020  0.4492  168.8   2.473   65.7  0.1484   53.9  0.2296  -63.6
 1.040  0.4504  167.9   2.432   65.1  0.1506   54.0  0.2281  -64.2
 1.060  0.4517  167.0   2.392   64.4  0.1529   54.0  0.2265  -64.8
 1.080  0.4531  166.0   2.351   63.6  0.1551   54.1  0.2250  -65.3
 1.100  0.4546  165.1   2.311   62.9  0.1574   54.1  0.2235  -65.9
 1.120  0.4560  164.2   2.277   62.2  0.1596   54.1  0.2221  -66.5
 1.140  0.4576  163.4   2.242   61.6  0.1619   54.1  0.2207  -67.0
 1.160  0.4592  162.5   2.209   60.9  0.1641   54.1  0.2194  -67.6
 1.180  0.4610  161.6   2.175   60.1  0.1664   54.1  0.2180  -68.2
 1.200  0.4628  160.8   2.142   59.4  0.1686   54.1  0.2167  -68.8
 1.220  0.4634  159.9   2.111   58.8  0.1709   54.1  0.2157  -69.4
 1.240  0.4640  159.1   2.081   58.1  0.1731   54.1  0.2147  -69.9
 1.260  0.4648  158.2   2.051   57.4  0.1754   54.0  0.2137  -70.5
 1.280  0.4656  157.4   2.021   56.7  0.1776   54.0  0.2127  -71.1
 1.300  0.4666  156.5   1.991   56.0  0.1799   54.0  0.2118  -71.7
 1.320  0.4674  155.8   1.965   55.4  0.1821   54.0  0.2113  -72.3
 1.340  0.4684  155.1   1.939   54.8  0.1844   54.0  0.2107  -72.9
 1.360  0.4693  154.5   1.913   54.1  0.1866   53.9  0.2102  -73.5
 1.380  0.4704  153.8   1.888   53.5  0.1889   53.9  0.2098  -74.1
 1.400  0.4715  153.1   1.863   52.8  0.1911   53.9  0.2093  -74.7
 1.420  0.4712  152.4   1.840   52.2  0.1934   53.8  0.2085  -75.4
 1.440  0.4710  151.6   1.816   51.6  0.1957   53.8  0.2076  -76.2
 1.460  0.4709  150.9   1.793   51.0  0.1981   53.7  0.2069  -76.9
 1.480  0.4709  150.1   1.771   50.4  0.2004   53.7  0.2061  -77.6
 1.500  0.4709  149.4   1.748   49.8  0.2027   53.6  0.2054  -78.4
 1.520  0.4729  148.7   1.731   49.2  0.2050   53.5  0.2048  -79.2
 1.540  0.4750  148.0   1.714   48.7  0.2073   53.4  0.2043  -79.9
 1.560  0.4771  147.3   1.697   48.1  0.2096   53.2  0.2038  -80.7
 1.580  0.4793  146.6   1.680   47.5  0.2119   53.1  0.2033  -81.5
 1.600  0.4816  145.9   1.664   46.9  0.2142   53.0  0.2029  -82.3
 1.620  0.4837  145.2   1.648   46.4  0.2165   52.9  0.2026  -83.0
 1.640  0.4859  144.5   1.632   45.8  0.2188   52.8  0.2022  -83.7
 1.660  0.4882  143.8   1.616   45.3  0.2212   52.7  0.2020  -84.5
 1.680  0.4905  143.2   1.600   44.7  0.2235   52.6  0.2017  -85.2
 1.700  0.4929  142.5   1.584   44.1  0.2258   52.5  0.2015  -85.9
 1.720  0.4929  141.9   1.570   43.6  0.2282   52.4  0.2017  -86.7
 1.740  0.4929  141.3   1.555   43.0  0.2307   52.2  0.2019  -87.4
 1.760  0.4930  140.7   1.541   42.5  0.2331   52.1  0.2022  -88.2
 1.780  0.4932  140.1   1.527   41.9  0.2356   51.9  0.2025  -88.9
 1.800  0.4934  139.5   1.513   41.3  0.2380   51.8  0.2028  -89.7
 1.820  0.4935  138.9   1.499   40.8  0.2403   51.7  0.2027  -90.5
 1.840  0.4937  138.3   1.486   40.3  0.2426   51.6  0.2027  -91.2
 1.860  0.4939  137.8   1.472   39.8  0.2450   51.5  0.2028  -92.0
 1.880  0.4942  137.2   1.459   39.3  0.2473   51.4  0.2028  -92.7
 1.900  0.4945  136.6   1.446   38.8  0.2496   51.3  0.2029  -93.5
 1.920  0.4961  136.0   1.435   38.3  0.2520   51.2  0.2028  -94.3
 1.940  0.4978  135.4   1.423   37.9  0.2544   51.0  0.2028  -95.0
 1.960  0.4996  134.8   1.412   37.4  0.2567   50.9  0.2027  -95.8
 1.980  0.5014  134.3   1.401   36.9  0.2591   50.7  0.2027  -96.5
 2.000  0.5032  133.7   1.390   36.4  0.2615   50.6  0.2028  -97.3
 2.020  0.5042  133.2   1.379   35.9  0.2639   50.4  0.2029  -98.1
 2.040  0.5052  132.6   1.369   35.5  0.2664   50.2  0.2030  -98.9
 2.060  0.5063  132.1   1.359   35.0  0.2689   50.1  0.2032  -99.6
 2.080  0.5074  131.6   1.348   34.5  0.2713   49.9  0.2034 -100.4
 2.100  0.5085  131.1   1.338   34.0  0.2738   49.7  0.2037 -101.2
 2.120  0.5097  130.6   1.328   33.5  0.2762   49.5  0.2040 -101.9
 2.140  0.5110  130.0   1.318   33.0  0.2787   49.4  0.2043 -102.7
 2.160  0.5122  129.5   1.308   32.5  0.2812   49.2  0.2047 -103.5
 2.180  0.5135  129.0   1.299   31.9  0.2836   49.1  0.2051 -104.2
 2.200  0.5149  128.5   1.289   31.4  0.2861   48.9  0.2055 -105.0
 2.220  0.5157  128.0   1.281   31.0  0.2886   48.7  0.2057 -105.8
 2.240  0.5166  127.6   1.273   30.5  0.2911   48.5  0.2059 -106.7
 2.260  0.5175  127.1   1.265   30.1  0.2936   48.3  0.2062 -107.5
 2.280  0.5185  126.6   1.257   29.7  0.2961   48.1  0.2066 -108.4
 2.300  0.5195  126.2   1.250   29.2  0.2986   47.9  0.2070 -109.2
 2.320  0.5205  125.7   1.242   28.8  0.3011   47.7  0.2074 -110.0
 2.340  0.5215  125.3   1.234   28.3  0.3036   47.5  0.2078 -110.8
 2.360  0.5226  124.8   1.227   27.8  0.3062   47.3  0.2084 -111.7
 2.380  0.5238  124.4   1.219   27.4  0.3087   47.1  0.2089 -112.5
 2.400  0.5249  123.9   1.212   26.9  0.3112   46.9  0.2095 -113.3
 2.420  0.5261  123.3   1.204   26.5  0.3136   46.7  0.2100 -114.2
 2.440  0.5273  122.8   1.197   26.1  0.3159   46.5  0.2105 -115.1
 2.460  0.5286  122.2   1.189   25.6  0.3183   46.2  0.2111 -116.0
 2.480  0.5300  121.7   1.182   25.2  0.3207   46.0  0.2117 -116.8
 2.500  0.5313  121.1   1.174   24.8  0.3231   45.8  0.2123 -117.7
 2.520  0.5328  120.6   1.167   24.3  0.3255   45.6  0.2131 -118.6
 2.540  0.5343  120.0   1.159   23.9  0.3279   45.4  0.2138 -119.5
 2.560  0.5358  119.5   1.152   23.4  0.3303   45.2  0.2146 -120.3
 2.580  0.5374  118.9   1.145   23.0  0.3327   45.0  0.2155 -121.2
 2.600  0.5390  118.4   1.138   22.5  0.3351   44.8  0.2164 -122.0
 2.620  0.5398  117.9   1.132   22.1  0.3375   44.6  0.2168 -122.9
 2.640  0.5406  117.4   1.126   21.7  0.3398   44.3  0.2172 -123.9
 2.660  0.5414  117.0   1.121   21.3  0.3422   44.1  0.2177 -124.8
 2.680  0.5423  116.5   1.115   20.9  0.3446   43.8  0.2183 -125.7
 2.700  0.5432  116.0   1.109   20.5  0.3470   43.6  0.2189 -126.6
 2.720  0.5442  115.6   1.104   20.1  0.3494   43.4  0.2196 -127.5
 2.740  0.5452  115.1   1.098   19.7  0.3518   43.2  0.2203 -128.4
 2.760  0.5462  114.6   1.093   19.3  0.3542   42.9  0.2211 -129.3
 2.780  0.5473  114.2   1.087   18.8  0.3566   42.7  0.2219 -130.2
 2.800  0.5484  113.7   1.082   18.4  0.3590   42.5  0.2228 -131.1
 2.820  0.5497  113.2   1.077   18.0  0.3614   42.2  0.2236 -132.0
 2.840  0.5511  112.7   1.071   17.7  0.3638   42.0  0.2245 -133.0
 2.860  0.5525  112.2   1.066   17.3  0.3662   41.7  0.2255 -133.9
 2.880  0.5540  111.7   1.061   17.0  0.3687   41.4  0.2265 -134.8
 2.900  0.5554  111.2   1.056   16.6  0.3711   41.2  0.2276 -135.8
 2.920  0.5570  110.7   1.051   16.2  0.3735   40.9  0.2287 -136.7
 2.940  0.5585  110.2   1.046   15.8  0.3760   40.6  0.2299 -137.6
 2.960  0.5602  109.8   1.041   15.5  0.3785   40.4  0.2311 -138.5
 2.980  0.5618  109.3   1.036   15.1  0.3809   40.1  0.2324 -139.3
 3.000  0.5635  108.8   1.031   14.7  0.3834   39.9  0.2338 -140.2
!
!  f       NFmin   Gammaopt  rn/50
! GHz       dB    MAG  ANG    -
!
! noise parameter not available yet for this operation point!
!
! (c) 2015  Infineon Technologies AG, Munich
