! Infineon Technologies  Discrete & RF Semiconductors
! BFR93A
! VCE =  3.5 V,  IC =  15 mA
! Common Emitter S-Parameters:                            Nov 2015
# GHz  S  MA  R  50
!  f         S11            S21            S12            S22
! GHz     MAG   ANG      MAG   ANG      MAG   ANG      MAG   ANG
 0.010  0.6612   -9.7  33.818  173.0  0.0039   85.9  0.9685   -5.3
 0.015  0.6525  -14.4  33.436  169.8  0.0058   82.5  0.9588   -7.8
 0.020  0.6482  -19.1  33.161  166.5  0.0078   80.8  0.9511  -10.4
 0.025  0.6307  -23.1  32.400  163.9  0.0094   77.9  0.9319  -12.4
 0.030  0.6164  -27.4  31.709  161.2  0.0110   75.8  0.9138  -14.5
 0.035  0.6058  -31.8  31.093  158.3  0.0126   74.2  0.8970  -16.7
 0.040  0.5989  -36.4  30.556  155.4  0.0142   73.0  0.8816  -19.0
 0.045  0.5958  -41.0  30.103  152.3  0.0158   72.1  0.8676  -21.3
 0.050  0.5967  -45.7  29.738  149.2  0.0174   71.3  0.8551  -23.7
 0.055  0.5794  -48.5  28.923  147.7  0.0184   69.9  0.8346  -24.8
 0.060  0.5635  -51.4  28.131  146.0  0.0195   68.7  0.8145  -25.9
 0.065  0.5491  -54.6  27.363  144.3  0.0206   67.6  0.7947  -27.1
 0.070  0.5365  -57.8  26.621  142.5  0.0217   66.6  0.7753  -28.4
 0.075  0.5258  -61.2  25.908  140.5  0.0227   65.7  0.7562  -29.7
 0.080  0.5169  -64.8  25.226  138.5  0.0238   64.8  0.7376  -31.1
 0.085  0.5102  -68.5  24.578  136.3  0.0249   64.1  0.7195  -32.6
 0.090  0.5055  -72.2  23.966  134.1  0.0260   63.4  0.7018  -34.1
 0.095  0.5030  -76.0  23.393  131.7  0.0271   62.8  0.6847  -35.7
 0.100  0.5028  -79.8  22.863  129.2  0.0282   62.2  0.6681  -37.4
 0.105  0.4927  -81.8  22.297  128.2  0.0289   61.8  0.6541  -37.9
 0.110  0.4833  -83.9  21.737  127.2  0.0296   61.4  0.6402  -38.4
 0.115  0.4745  -86.1  21.185  126.1  0.0303   61.1  0.6264  -38.9
 0.120  0.4664  -88.3  20.641  125.0  0.0310   60.7  0.6126  -39.5
 0.125  0.4591  -90.6  20.106  123.8  0.0317   60.4  0.5988  -40.1
 0.130  0.4526  -93.0  19.580  122.5  0.0324   60.0  0.5852  -40.7
 0.135  0.4468  -95.5  19.064  121.2  0.0331   59.7  0.5716  -41.3
 0.140  0.4419  -98.0  18.559  119.8  0.0338   59.5  0.5580  -42.0
 0.145  0.4379 -100.6  18.065  118.3  0.0345   59.2  0.5446  -42.7
 0.150  0.4348 -103.2  17.585  116.7  0.0352   58.9  0.5312  -43.4
 0.155  0.4297 -104.7  17.221  116.0  0.0358   58.9  0.5224  -43.6
 0.160  0.4250 -106.3  16.859  115.4  0.0363   59.0  0.5136  -43.8
 0.165  0.4206 -107.8  16.500  114.7  0.0369   59.0  0.5048  -44.0
 0.170  0.4165 -109.5  16.144  113.9  0.0375   59.1  0.4959  -44.2
 0.175  0.4127 -111.1  15.790  113.1  0.0380   59.1  0.4872  -44.4
 0.180  0.4093 -112.8  15.439  112.3  0.0386   59.2  0.4784  -44.7
 0.185  0.4062 -114.5  15.092  111.5  0.0392   59.2  0.4696  -44.9
 0.190  0.4035 -116.2  14.748  110.6  0.0398   59.2  0.4608  -45.2
 0.195  0.4012 -117.9  14.407  109.7  0.0403   59.3  0.4521  -45.4
 0.200  0.3992 -119.7  14.071  108.7  0.0409   59.3  0.4433  -45.7
 0.220  0.3885 -124.6  13.081  106.6  0.0432   59.6  0.4197  -46.0
 0.240  0.3808 -129.7  12.111  104.1  0.0455   59.9  0.3960  -46.2
 0.260  0.3754 -134.1  11.283  101.9  0.0478   60.3  0.3763  -46.4
 0.280  0.3710 -137.7  10.583  100.3  0.0501   60.8  0.3604  -46.3
 0.300  0.3681 -141.4   9.894   98.4  0.0523   61.3  0.3445  -46.2
 0.320  0.3636 -144.2   9.421   97.3  0.0547   61.8  0.3343  -46.0
 0.340  0.3600 -147.1   8.951   96.1  0.0570   62.3  0.3242  -45.9
 0.360  0.3573 -150.0   8.487   94.7  0.0594   62.7  0.3140  -45.7
 0.380  0.3556 -153.0   8.027   93.2  0.0617   63.1  0.3039  -45.5
 0.400  0.3548 -156.0   7.574   91.5  0.0641   63.5  0.2937  -45.3
 0.420  0.3532 -158.1   7.285   90.6  0.0665   63.8  0.2881  -45.2
 0.440  0.3521 -160.2   6.998   89.7  0.0689   64.0  0.2825  -45.0
 0.450  0.3517 -161.3   6.856   89.2  0.0700   64.2  0.2796  -44.9
 0.460  0.3515 -162.3   6.713   88.6  0.0712   64.3  0.2768  -44.8
 0.480  0.3514 -164.5   6.431   87.5  0.0736   64.5  0.2712  -44.7
 0.500  0.3517 -166.6   6.151   86.3  0.0760   64.7  0.2656  -44.5
 0.520  0.3511 -168.2   5.953   85.5  0.0785   64.8  0.2617  -44.5
 0.540  0.3507 -169.7   5.757   84.7  0.0809   64.9  0.2578  -44.4
 0.560  0.3506 -171.3   5.562   83.8  0.0834   65.0  0.2540  -44.4
 0.580  0.3508 -172.8   5.368   82.9  0.0858   65.1  0.2501  -44.3
 0.600  0.3512 -174.4   5.176   81.9  0.0883   65.2  0.2462  -44.3
 0.620  0.3513 -175.6   5.032   81.2  0.0908   65.2  0.2435  -44.4
 0.640  0.3515 -176.9   4.889   80.4  0.0933   65.3  0.2408  -44.5
 0.660  0.3519 -178.1   4.748   79.6  0.0959   65.3  0.2381  -44.5
 0.680  0.3525 -179.4   4.607   78.7  0.0984   65.4  0.2354  -44.6
 0.700  0.3532  179.4   4.467   77.8  0.1009   65.4  0.2327  -44.7
 0.720  0.3535  178.3   4.360   77.2  0.1034   65.4  0.2306  -44.9
 0.740  0.3540  177.1   4.253   76.5  0.1059   65.4  0.2285  -45.0
 0.760  0.3547  176.0   4.147   75.8  0.1083   65.5  0.2264  -45.2
 0.780  0.3554  174.9   4.042   75.0  0.1108   65.5  0.2243  -45.3
 0.800  0.3563  173.8   3.937   74.2  0.1133   65.5  0.2222  -45.5
 0.820  0.3574  172.7   3.853   73.6  0.1158   65.4  0.2205  -45.8
 0.840  0.3587  171.6   3.768   73.0  0.1182   65.3  0.2187  -46.0
 0.860  0.3601  170.5   3.685   72.4  0.1207   65.2  0.2170  -46.3
 0.880  0.3616  169.5   3.602   71.7  0.1231   65.1  0.2152  -46.5
 0.900  0.3633  168.4   3.519   71.0  0.1256   65.0  0.2135  -46.8
 0.920  0.3637  167.5   3.452   70.4  0.1281   64.9  0.2123  -47.1
 0.940  0.3641  166.5   3.385   69.7  0.1306   64.7  0.2111  -47.4
 0.960  0.3647  165.6   3.319   69.0  0.1332   64.6  0.2099  -47.6
 0.980  0.3653  164.6   3.253   68.3  0.1357   64.5  0.2088  -47.9
 1.000  0.3661  163.7   3.188   67.6  0.1382   64.4  0.2076  -48.2
 1.020  0.3675  162.9   3.134   67.0  0.1407   64.3  0.2064  -48.6
 1.040  0.3689  162.1   3.081   66.4  0.1432   64.1  0.2051  -49.1
 1.060  0.3704  161.3   3.028   65.8  0.1457   64.0  0.2039  -49.5
 1.080  0.3720  160.6   2.975   65.2  0.1482   63.8  0.2027  -49.9
 1.100  0.3736  159.8   2.923   64.5  0.1507   63.7  0.2015  -50.4
 1.120  0.3750  159.1   2.878   64.0  0.1532   63.5  0.2003  -50.8
 1.140  0.3765  158.4   2.834   63.4  0.1557   63.4  0.1990  -51.3
 1.160  0.3781  157.7   2.790   62.8  0.1583   63.2  0.1978  -51.8
 1.180  0.3797  157.1   2.746   62.2  0.1608   63.0  0.1966  -52.2
 1.200  0.3813  156.4   2.702   61.6  0.1633   62.9  0.1954  -52.7
 1.220  0.3826  155.6   2.662   61.0  0.1656   62.7  0.1944  -53.2
 1.240  0.3840  154.8   2.623   60.4  0.1680   62.5  0.1935  -53.6
 1.260  0.3854  154.0   2.583   59.8  0.1703   62.3  0.1925  -54.1
 1.280  0.3869  153.3   2.545   59.2  0.1727   62.2  0.1916  -54.5
 1.300  0.3885  152.5   2.506   58.5  0.1750   62.0  0.1907  -55.0
 1.320  0.3888  151.8   2.473   58.0  0.1775   61.8  0.1900  -55.5
 1.340  0.3891  151.2   2.439   57.5  0.1800   61.7  0.1893  -55.9
 1.360  0.3895  150.5   2.406   56.9  0.1824   61.5  0.1886  -56.4
 1.380  0.3900  149.9   2.374   56.4  0.1849   61.4  0.1880  -56.9
 1.400  0.3905  149.2   2.341   55.8  0.1874   61.2  0.1873  -57.4
 1.420  0.3915  148.6   2.311   55.3  0.1898   61.0  0.1863  -58.0
 1.440  0.3925  148.0   2.281   54.7  0.1921   60.8  0.1852  -58.6
 1.460  0.3936  147.5   2.251   54.2  0.1945   60.6  0.1842  -59.2
 1.480  0.3947  146.9   2.221   53.6  0.1968   60.4  0.1833  -59.9
 1.500  0.3959  146.3   2.192   53.0  0.1992   60.2  0.1823  -60.5
 1.520  0.3975  145.6   2.169   52.5  0.2016   60.0  0.1815  -61.2
 1.540  0.3992  145.0   2.147   52.0  0.2040   59.7  0.1807  -61.8
 1.560  0.4009  144.3   2.125   51.5  0.2064   59.5  0.1799  -62.5
 1.580  0.4027  143.6   2.103   50.9  0.2088   59.3  0.1792  -63.2
 1.600  0.4045  143.0   2.081   50.4  0.2112   59.1  0.1785  -63.9
 1.620  0.4066  142.5   2.061   49.9  0.2135   58.9  0.1779  -64.5
 1.640  0.4087  141.9   2.041   49.4  0.2158   58.7  0.1774  -65.2
 1.660  0.4108  141.4   2.020   48.9  0.2182   58.5  0.1769  -65.8
 1.680  0.4130  140.9   2.001   48.3  0.2205   58.4  0.1764  -66.5
 1.700  0.4152  140.4   1.981   47.8  0.2228   58.2  0.1759  -67.1
 1.720  0.4158  139.8   1.962   47.3  0.2252   57.9  0.1757  -67.8
 1.740  0.4164  139.3   1.943   46.8  0.2277   57.7  0.1754  -68.4
 1.760  0.4170  138.7   1.924   46.2  0.2301   57.4  0.1752  -69.1
 1.780  0.4177  138.2   1.905   45.7  0.2326   57.1  0.1751  -69.7
 1.800  0.4184  137.6   1.887   45.1  0.2350   56.9  0.1749  -70.4
 1.820  0.4188  137.1   1.869   44.7  0.2373   56.7  0.1744  -71.1
 1.840  0.4192  136.6   1.852   44.2  0.2397   56.5  0.1740  -71.8
 1.860  0.4197  136.1   1.834   43.8  0.2420   56.3  0.1736  -72.4
 1.880  0.4202  135.6   1.817   43.4  0.2444   56.2  0.1732  -73.1
 1.900  0.4207  135.1   1.800   42.9  0.2467   56.0  0.1728  -73.8
 1.920  0.4222  134.6   1.785   42.4  0.2490   55.8  0.1724  -74.4
 1.940  0.4238  134.0   1.770   41.9  0.2513   55.6  0.1719  -75.1
 1.960  0.4253  133.5   1.755   41.4  0.2537   55.4  0.1715  -75.7
 1.980  0.4270  133.0   1.740   40.9  0.2560   55.2  0.1712  -76.4
 2.000  0.4286  132.5   1.725   40.4  0.2583   55.0  0.1708  -77.0
 2.020  0.4298  132.0   1.712   40.0  0.2606   54.7  0.1705  -77.7
 2.040  0.4309  131.5   1.698   39.5  0.2629   54.5  0.1702  -78.4
 2.060  0.4322  131.0   1.685   39.0  0.2653   54.2  0.1699  -79.1
 2.080  0.4334  130.5   1.672   38.6  0.2676   54.0  0.1696  -79.8
 2.100  0.4347  130.0   1.659   38.1  0.2699   53.7  0.1694  -80.5
 2.120  0.4360  129.5   1.646   37.6  0.2723   53.5  0.1692  -81.2
 2.140  0.4374  129.0   1.633   37.1  0.2746   53.3  0.1690  -81.9
 2.160  0.4387  128.6   1.621   36.6  0.2770   53.0  0.1688  -82.6
 2.180  0.4402  128.1   1.608   36.1  0.2793   52.8  0.1687  -83.3
 2.200  0.4416  127.6   1.596   35.6  0.2817   52.6  0.1686  -84.0
 2.220  0.4424  127.2   1.586   35.2  0.2840   52.3  0.1684  -84.8
 2.240  0.4433  126.7   1.575   34.8  0.2863   52.1  0.1682  -85.6
 2.260  0.4442  126.3   1.565   34.3  0.2886   51.8  0.1680  -86.3
 2.280  0.4451  125.9   1.555   33.9  0.2910   51.6  0.1679  -87.1
 2.300  0.4460  125.5   1.545   33.5  0.2933   51.3  0.1678  -87.9
 2.320  0.4470  125.1   1.535   33.0  0.2956   51.1  0.1677  -88.7
 2.340  0.4479  124.6   1.526   32.6  0.2980   50.8  0.1677  -89.5
 2.360  0.4489  124.2   1.516   32.1  0.3003   50.6  0.1677  -90.2
 2.380  0.4500  123.8   1.506   31.7  0.3026   50.3  0.1677  -91.0
 2.400  0.4510  123.4   1.497   31.2  0.3050   50.1  0.1678  -91.8
 2.420  0.4525  122.9   1.487   30.8  0.3072   49.8  0.1676  -92.7
 2.440  0.4540  122.4   1.477   30.4  0.3094   49.6  0.1675  -93.5
 2.460  0.4555  122.0   1.468   30.0  0.3117   49.3  0.1674  -94.4
 2.480  0.4571  121.5   1.458   29.5  0.3139   49.1  0.1673  -95.2
 2.500  0.4587  121.0   1.448   29.1  0.3161   48.9  0.1673  -96.1
 2.520  0.4603  120.5   1.439   28.7  0.3184   48.6  0.1673  -97.0
 2.540  0.4619  120.1   1.430   28.2  0.3206   48.4  0.1674  -97.8
 2.560  0.4636  119.6   1.420   27.8  0.3229   48.2  0.1675  -98.7
 2.580  0.4654  119.2   1.411   27.4  0.3251   47.9  0.1676  -99.5
 2.600  0.4671  118.7   1.402   26.9  0.3274   47.7  0.1678 -100.4
 2.620  0.4679  118.3   1.394   26.5  0.3296   47.4  0.1675 -101.3
 2.640  0.4687  117.8   1.386   26.1  0.3317   47.2  0.1672 -102.3
 2.660  0.4695  117.4   1.379   25.6  0.3339   46.9  0.1670 -103.2
 2.680  0.4704  116.9   1.371   25.2  0.3360   46.7  0.1668 -104.2
 2.700  0.4713  116.5   1.363   24.8  0.3382   46.5  0.1666 -105.1
 2.720  0.4722  116.0   1.356   24.3  0.3404   46.2  0.1665 -106.1
 2.740  0.4731  115.6   1.349   23.9  0.3426   46.0  0.1665 -107.0
 2.760  0.4741  115.2   1.341   23.4  0.3448   45.8  0.1665 -108.0
 2.780  0.4751  114.7   1.334   23.0  0.3470   45.5  0.1665 -108.9
 2.800  0.4761  114.3   1.327   22.5  0.3492   45.3  0.1666 -109.9
 2.820  0.4780  113.8   1.320   22.1  0.3514   45.0  0.1668 -110.9
 2.840  0.4800  113.3   1.314   21.8  0.3536   44.7  0.1671 -111.9
 2.860  0.4820  112.9   1.307   21.4  0.3558   44.5  0.1674 -112.9
 2.880  0.4840  112.4   1.301   21.0  0.3580   44.2  0.1677 -113.9
 2.900  0.4861  112.0   1.294   20.6  0.3603   43.9  0.1681 -114.9
 2.920  0.4882  111.5   1.288   20.3  0.3625   43.6  0.1686 -115.8
 2.940  0.4903  111.0   1.282   19.9  0.3647   43.4  0.1691 -116.8
 2.960  0.4925  110.6   1.275   19.5  0.3670   43.1  0.1696 -117.8
 2.980  0.4947  110.1   1.269   19.1  0.3692   42.9  0.1703 -118.7
 3.000  0.4969  109.7   1.263   18.7  0.3715   42.6  0.1709 -119.7
!
!  f       NFmin   Gammaopt  rn/50
! GHz       dB    MAG  ANG    -
!
! noise parameter not available yet for this operation point!
!
! (c) 2015  Infineon Technologies AG, Munich
