! Infineon Technologies  Discrete & RF Semiconductors
! BFR93AW
! VCE =  3.5 V,  IC =  6.5 mA
! Common Emitter S-Parameters:                            Nov 2015
# GHz  S  MA  R  50
!  f         S11            S21            S12            S22
! GHz     MAG   ANG      MAG   ANG      MAG   ANG      MAG   ANG
 0.030  0.7723  -19.2  19.763  168.3  0.0109   79.9  0.9725   -8.4
 0.035  0.7688  -22.0  19.634  166.4  0.0126   78.2  0.9651   -9.7
 0.040  0.7671  -24.8  19.526  164.5  0.0144   77.0  0.9582  -11.0
 0.045  0.7672  -27.6  19.442  162.5  0.0161   76.1  0.9518  -12.3
 0.050  0.7692  -30.4  19.381  160.5  0.0179   75.3  0.9459  -13.7
 0.055  0.7569  -32.9  19.104  159.0  0.0192   73.5  0.9345  -14.7
 0.060  0.7460  -35.4  18.841  157.5  0.0205   71.9  0.9233  -15.7
 0.065  0.7367  -38.0  18.591  156.0  0.0218   70.5  0.9125  -16.7
 0.070  0.7290  -40.7  18.354  154.4  0.0231   69.3  0.9019  -17.7
 0.075  0.7229  -43.4  18.132  152.8  0.0244   68.2  0.8916  -18.8
 0.080  0.7184  -46.2  17.925  151.1  0.0258   67.3  0.8817  -19.9
 0.085  0.7157  -49.0  17.734  149.4  0.0271   66.4  0.8721  -21.0
 0.090  0.7147  -51.9  17.558  147.7  0.0285   65.6  0.8628  -22.1
 0.095  0.7154  -54.7  17.399  145.9  0.0298   64.9  0.8539  -23.3
 0.100  0.7179  -57.5  17.257  144.1  0.0312   64.2  0.8453  -24.5
 0.105  0.7074  -59.5  16.968  143.0  0.0321   63.2  0.8338  -25.1
 0.110  0.6979  -61.6  16.685  141.9  0.0330   62.3  0.8223  -25.7
 0.115  0.6893  -63.7  16.409  140.7  0.0339   61.4  0.8109  -26.3
 0.120  0.6817  -65.9  16.140  139.5  0.0349   60.6  0.7997  -27.0
 0.125  0.6751  -68.1  15.878  138.2  0.0358   59.8  0.7886  -27.7
 0.130  0.6695  -70.4  15.624  136.9  0.0368   59.0  0.7776  -28.4
 0.135  0.6650  -72.7  15.379  135.6  0.0378   58.3  0.7667  -29.1
 0.140  0.6616  -75.1  15.143  134.2  0.0388   57.7  0.7559  -29.9
 0.145  0.6593  -77.4  14.915  132.8  0.0397   57.0  0.7452  -30.6
 0.150  0.6581  -79.8  14.697  131.3  0.0407   56.4  0.7347  -31.4
 0.155  0.6516  -81.3  14.467  130.5  0.0413   55.8  0.7258  -31.8
 0.160  0.6457  -82.9  14.241  129.7  0.0419   55.3  0.7169  -32.2
 0.165  0.6402  -84.5  14.017  128.8  0.0426   54.7  0.7080  -32.6
 0.170  0.6352  -86.1  13.796  128.0  0.0432   54.2  0.6992  -33.0
 0.175  0.6308  -87.8  13.579  127.1  0.0438   53.7  0.6904  -33.4
 0.180  0.6268  -89.4  13.365  126.1  0.0444   53.2  0.6816  -33.8
 0.185  0.6234  -91.1  13.155  125.2  0.0451   52.8  0.6729  -34.2
 0.190  0.6206  -92.8  12.949  124.2  0.0457   52.3  0.6642  -34.7
 0.195  0.6183  -94.6  12.746  123.2  0.0464   51.8  0.6556  -35.1
 0.200  0.6166  -96.3  12.548  122.1  0.0470   51.4  0.6470  -35.6
 0.220  0.5976 -101.6  11.811  119.4  0.0486   50.3  0.6181  -36.4
 0.240  0.5840 -107.2  11.103  116.4  0.0503   49.3  0.5894  -37.3
 0.260  0.5746 -112.2  10.478  113.8  0.0519   48.6  0.5649  -38.0
 0.280  0.5674 -116.5   9.921  111.6  0.0534   48.2  0.5446  -38.5
 0.300  0.5634 -120.8   9.381  109.2  0.0550   47.9  0.5243  -39.0
 0.320  0.5540 -123.9   8.965  107.8  0.0561   47.8  0.5097  -39.1
 0.340  0.5464 -127.2   8.555  106.3  0.0572   47.7  0.4952  -39.2
 0.360  0.5405 -130.5   8.151  104.6  0.0584   47.7  0.4806  -39.4
 0.380  0.5364 -133.9   7.755  102.8  0.0595   47.6  0.4661  -39.5
 0.400  0.5343 -137.3   7.368  100.7  0.0606   47.6  0.4516  -39.7
 0.420  0.5299 -139.6   7.102   99.6  0.0617   47.9  0.4426  -39.7
 0.440  0.5264 -141.9   6.839   98.4  0.0628   48.2  0.4335  -39.8
 0.450  0.5250 -143.1   6.708   97.8  0.0633   48.3  0.4290  -39.8
 0.460  0.5238 -144.3   6.578   97.1  0.0638   48.4  0.4245  -39.8
 0.480  0.5221 -146.6   6.322   95.7  0.0649   48.7  0.4155  -39.9
 0.500  0.5212 -149.0   6.069   94.2  0.0660   48.9  0.4065  -39.9
 0.520  0.5197 -150.7   5.878   93.3  0.0671   49.3  0.4011  -39.9
 0.540  0.5187 -152.4   5.688   92.4  0.0682   49.7  0.3958  -39.9
 0.560  0.5182 -154.1   5.499   91.4  0.0694   50.1  0.3904  -40.0
 0.580  0.5181 -155.8   5.313   90.3  0.0705   50.4  0.3851  -40.0
 0.600  0.5185 -157.5   5.128   89.2  0.0716   50.8  0.3797  -40.0
 0.620  0.5170 -158.9   4.992   88.4  0.0727   51.2  0.3760  -40.1
 0.640  0.5157 -160.4   4.858   87.6  0.0739   51.6  0.3724  -40.2
 0.660  0.5149 -161.9   4.724   86.8  0.0750   51.9  0.3687  -40.4
 0.680  0.5143 -163.3   4.591   85.9  0.0762   52.3  0.3651  -40.5
 0.700  0.5141 -164.8   4.460   84.9  0.0773   52.6  0.3614  -40.6
 0.720  0.5138 -166.1   4.352   84.2  0.0786   53.0  0.3579  -40.8
 0.740  0.5137 -167.4   4.245   83.4  0.0798   53.5  0.3545  -41.0
 0.760  0.5139 -168.6   4.138   82.6  0.0811   53.9  0.3510  -41.2
 0.780  0.5144 -169.9   4.033   81.8  0.0823   54.3  0.3475  -41.5
 0.800  0.5151 -171.2   3.928   80.9  0.0836   54.7  0.3441  -41.7
 0.820  0.5145 -172.2   3.846   80.3  0.0850   55.0  0.3427  -41.9
 0.840  0.5141 -173.2   3.764   79.6  0.0863   55.4  0.3413  -42.1
 0.860  0.5139 -174.1   3.682   78.9  0.0877   55.7  0.3399  -42.2
 0.880  0.5138 -175.1   3.601   78.2  0.0890   56.0  0.3386  -42.4
 0.900  0.5138 -176.1   3.521   77.4  0.0904   56.3  0.3372  -42.6
 0.920  0.5136 -177.1   3.453   76.8  0.0917   56.7  0.3355  -42.9
 0.940  0.5135 -178.0   3.386   76.1  0.0930   57.1  0.3339  -43.1
 0.960  0.5136 -179.0   3.320   75.4  0.0943   57.4  0.3322  -43.4
 0.980  0.5138 -179.9   3.254   74.7  0.0956   57.8  0.3305  -43.6
 1.000  0.5142  179.1   3.188   74.0  0.0969   58.1  0.3289  -43.9
 1.020  0.5149  178.2   3.134   73.4  0.0983   58.3  0.3274  -44.4
 1.040  0.5157  177.4   3.080   72.8  0.0996   58.5  0.3258  -44.8
 1.060  0.5167  176.5   3.026   72.1  0.1010   58.7  0.3243  -45.3
 1.080  0.5177  175.7   2.973   71.5  0.1023   58.8  0.3229  -45.7
 1.100  0.5189  174.8   2.920   70.8  0.1037   59.0  0.3214  -46.2
 1.120  0.5198  174.0   2.874   70.3  0.1051   59.3  0.3208  -46.5
 1.140  0.5208  173.3   2.828   69.7  0.1065   59.6  0.3202  -46.8
 1.160  0.5219  172.5   2.782   69.1  0.1080   59.9  0.3196  -47.1
 1.180  0.5231  171.8   2.736   68.5  0.1094   60.1  0.3190  -47.4
 1.200  0.5244  171.0   2.691   67.9  0.1108   60.4  0.3184  -47.7
 1.220  0.5241  170.3   2.654   67.4  0.1125   60.6  0.3177  -48.0
 1.240  0.5238  169.7   2.617   66.8  0.1142   60.8  0.3170  -48.3
 1.260  0.5236  169.0   2.580   66.3  0.1158   61.0  0.3163  -48.7
 1.280  0.5235  168.4   2.543   65.7  0.1175   61.2  0.3157  -49.0
 1.300  0.5234  167.7   2.507   65.1  0.1192   61.4  0.3150  -49.3
 1.320  0.5245  167.0   2.473   64.6  0.1207   61.6  0.3140  -49.9
 1.340  0.5257  166.2   2.440   64.1  0.1221   61.7  0.3131  -50.5
 1.360  0.5270  165.5   2.406   63.5  0.1236   61.9  0.3122  -51.1
 1.380  0.5284  164.8   2.373   63.0  0.1250   62.0  0.3114  -51.8
 1.400  0.5298  164.1   2.340   62.4  0.1265   62.2  0.3106  -52.4
 1.420  0.5304  163.6   2.310   61.9  0.1281   62.3  0.3105  -52.8
 1.440  0.5310  163.1   2.280   61.4  0.1297   62.4  0.3105  -53.2
 1.460  0.5317  162.5   2.251   60.8  0.1312   62.6  0.3105  -53.6
 1.480  0.5324  162.0   2.221   60.3  0.1328   62.7  0.3105  -54.0
 1.500  0.5332  161.5   2.192   59.7  0.1344   62.8  0.3105  -54.4
 1.520  0.5334  160.8   2.168   59.2  0.1362   62.9  0.3097  -54.8
 1.540  0.5336  160.1   2.143   58.7  0.1380   63.0  0.3089  -55.2
 1.560  0.5340  159.4   2.119   58.2  0.1397   63.0  0.3081  -55.7
 1.580  0.5344  158.7   2.096   57.6  0.1415   63.1  0.3073  -56.1
 1.600  0.5349  158.0   2.072   57.1  0.1433   63.2  0.3065  -56.5
 1.620  0.5358  157.4   2.050   56.6  0.1451   63.3  0.3061  -57.2
 1.640  0.5367  156.9   2.028   56.1  0.1469   63.3  0.3058  -58.0
 1.660  0.5377  156.3   2.006   55.6  0.1488   63.4  0.3055  -58.7
 1.680  0.5388  155.8   1.984   55.0  0.1506   63.4  0.3053  -59.5
 1.700  0.5399  155.2   1.963   54.5  0.1524   63.5  0.3051  -60.2
 1.720  0.5409  154.7   1.943   54.1  0.1541   63.6  0.3058  -60.6
 1.740  0.5419  154.2   1.924   53.6  0.1557   63.7  0.3064  -61.1
 1.760  0.5429  153.6   1.904   53.1  0.1574   63.7  0.3071  -61.5
 1.780  0.5441  153.1   1.885   52.7  0.1590   63.8  0.3079  -62.0
 1.800  0.5452  152.6   1.866   52.2  0.1607   63.9  0.3086  -62.4
 1.820  0.5453  152.1   1.849   51.8  0.1628   63.9  0.3081  -62.8
 1.840  0.5454  151.5   1.832   51.3  0.1649   63.9  0.3077  -63.3
 1.860  0.5455  151.0   1.815   50.8  0.1669   64.0  0.3072  -63.7
 1.880  0.5457  150.4   1.798   50.4  0.1690   64.0  0.3068  -64.2
 1.900  0.5460  149.9   1.781   49.9  0.1711   64.0  0.3064  -64.6
 1.920  0.5471  149.3   1.765   49.4  0.1729   64.0  0.3066  -65.3
 1.940  0.5483  148.8   1.749   49.0  0.1747   64.0  0.3069  -65.9
 1.960  0.5496  148.2   1.733   48.5  0.1765   64.0  0.3072  -66.6
 1.980  0.5509  147.7   1.717   48.0  0.1783   64.0  0.3076  -67.2
 2.000  0.5522  147.1   1.701   47.5  0.1801   64.0  0.3080  -67.9
 2.020  0.5526  146.6   1.687   47.1  0.1821   64.0  0.3080  -68.4
 2.040  0.5530  146.2   1.674   46.7  0.1840   63.9  0.3080  -68.8
 2.060  0.5534  145.7   1.660   46.3  0.1860   63.9  0.3080  -69.3
 2.080  0.5539  145.2   1.647   45.9  0.1879   63.9  0.3081  -69.7
 2.100  0.5544  144.7   1.633   45.5  0.1899   63.8  0.3081  -70.2
 2.120  0.5549  144.3   1.620   45.1  0.1919   63.8  0.3082  -70.6
 2.140  0.5555  143.8   1.607   44.7  0.1938   63.8  0.3083  -71.1
 2.160  0.5561  143.3   1.594   44.3  0.1958   63.8  0.3084  -71.5
 2.180  0.5568  142.9   1.581   43.8  0.1977   63.7  0.3085  -72.0
 2.200  0.5575  142.4   1.568   43.4  0.1997   63.7  0.3087  -72.4
 2.220  0.5585  141.9   1.556   43.0  0.2017   63.6  0.3092  -73.0
 2.240  0.5596  141.4   1.544   42.6  0.2036   63.6  0.3098  -73.6
 2.260  0.5607  140.9   1.532   42.2  0.2056   63.5  0.3103  -74.1
 2.280  0.5618  140.5   1.521   41.8  0.2075   63.5  0.3109  -74.7
 2.300  0.5630  140.0   1.509   41.4  0.2095   63.4  0.3116  -75.3
 2.320  0.5642  139.5   1.497   41.0  0.2115   63.4  0.3122  -75.8
 2.340  0.5655  139.0   1.486   40.6  0.2134   63.3  0.3129  -76.4
 2.360  0.5668  138.5   1.475   40.2  0.2154   63.3  0.3137  -77.0
 2.380  0.5681  138.1   1.463   39.7  0.2173   63.2  0.3144  -77.5
 2.400  0.5695  137.6   1.452   39.3  0.2193   63.2  0.3152  -78.1
 2.420  0.5702  137.1   1.442   38.9  0.2215   63.1  0.3148  -78.8
 2.440  0.5709  136.6   1.433   38.5  0.2237   63.0  0.3144  -79.5
 2.460  0.5716  136.1   1.423   38.1  0.2259   62.8  0.3141  -80.1
 2.480  0.5725  135.6   1.414   37.7  0.2281   62.7  0.3138  -80.8
 2.500  0.5733  135.1   1.405   37.3  0.2303   62.6  0.3135  -81.5
 2.520  0.5742  134.6   1.395   36.9  0.2325   62.5  0.3133  -82.2
 2.540  0.5751  134.1   1.386   36.5  0.2347   62.4  0.3132  -82.9
 2.560  0.5761  133.6   1.377   36.1  0.2369   62.3  0.3131  -83.5
 2.580  0.5771  133.1   1.368   35.6  0.2391   62.2  0.3130  -84.2
 2.600  0.5782  132.6   1.359   35.2  0.2413   62.1  0.3130  -84.9
 2.620  0.5792  132.2   1.351   34.9  0.2436   62.0  0.3133  -85.4
 2.640  0.5802  131.8   1.343   34.5  0.2458   61.8  0.3136  -86.0
 2.660  0.5812  131.4   1.334   34.2  0.2481   61.7  0.3140  -86.5
 2.680  0.5823  131.0   1.326   33.8  0.2504   61.6  0.3143  -87.1
 2.700  0.5833  130.6   1.318   33.5  0.2526   61.5  0.3148  -87.6
 2.720  0.5845  130.2   1.310   33.1  0.2549   61.4  0.3152  -88.2
 2.740  0.5856  129.8   1.302   32.7  0.2572   61.2  0.3156  -88.7
 2.760  0.5868  129.4   1.295   32.4  0.2595   61.1  0.3161  -89.2
 2.780  0.5880  129.0   1.287   32.0  0.2617   61.0  0.3167  -89.8
 2.800  0.5892  128.6   1.279   31.6  0.2640   60.9  0.3172  -90.3
 2.820  0.5896  128.1   1.272   31.3  0.2660   60.8  0.3177  -90.9
 2.840  0.5901  127.7   1.265   30.9  0.2681   60.6  0.3182  -91.4
 2.860  0.5906  127.2   1.258   30.6  0.2701   60.5  0.3187  -92.0
 2.880  0.5911  126.7   1.251   30.2  0.2721   60.4  0.3192  -92.6
 2.900  0.5917  126.3   1.244   29.9  0.2742   60.2  0.3198  -93.1
 2.920  0.5923  125.8   1.237   29.5  0.2762   60.1  0.3204  -93.7
 2.940  0.5930  125.4   1.230   29.2  0.2783   60.0  0.3211  -94.2
 2.960  0.5937  124.9   1.223   28.8  0.2803   59.8  0.3218  -94.8
 2.980  0.5944  124.5   1.217   28.5  0.2824   59.7  0.3225  -95.4
 3.000  0.5952  124.0   1.210   28.1  0.2844   59.6  0.3232  -95.9
 3.100  0.5993  122.0   1.180   26.6  0.2957   58.6  0.3243  -99.4
 3.200  0.6041  119.9   1.151   25.1  0.3071   57.6  0.3265 -102.9
 3.300  0.6097  117.9   1.123   23.5  0.3186   56.8  0.3300 -106.3
 3.400  0.6159  116.0   1.095   21.8  0.3302   56.0  0.3345 -109.6
 3.500  0.6229  114.1   1.069   20.0  0.3418   55.2  0.3402 -112.8
 3.600  0.6250  112.2   1.045   18.8  0.3526   54.0  0.3415 -116.4
 3.700  0.6277  110.4   1.022   17.5  0.3636   52.8  0.3442 -120.0
 3.800  0.6311  108.6   0.999   16.2  0.3747   51.8  0.3482 -123.6
 3.900  0.6351  106.8   0.977   14.8  0.3859   50.8  0.3535 -127.0
 4.000  0.6397  105.0   0.955   13.3  0.3972   49.8  0.3600 -130.3
 4.100  0.6422  103.3   0.936   12.3  0.4072   48.4  0.3631 -133.5
 4.200  0.6453  101.7   0.918   11.3  0.4174   47.1  0.3673 -136.7
 4.300  0.6489  100.1   0.899   10.2  0.4279   45.9  0.3726 -139.8
 4.400  0.6530   98.5   0.882    9.1  0.4385   44.7  0.3790 -142.8
 4.500  0.6576   96.9   0.864    8.0  0.4493   43.6  0.3864 -145.7
 4.600  0.6585   95.5   0.851    7.2  0.4583   42.3  0.3891 -148.7
 4.700  0.6597   94.1   0.838    6.3  0.4675   41.0  0.3929 -151.7
 4.800  0.6614   92.7   0.825    5.4  0.4769   39.8  0.3976 -154.6
 4.900  0.6634   91.4   0.812    4.5  0.4865   38.6  0.4034 -157.4
 5.000  0.6658   90.0   0.800    3.6  0.4963   37.5  0.4101 -160.1
 5.100  0.6677   88.7   0.789    3.0  0.5041   36.2  0.4109 -163.0
 5.200  0.6700   87.4   0.779    2.3  0.5121   34.9  0.4127 -165.9
 5.300  0.6725   86.1   0.768    1.6  0.5203   33.7  0.4156 -168.7
 5.400  0.6755   84.9   0.758    0.9  0.5288   32.5  0.4195 -171.6
 5.500  0.6787   83.6   0.748    0.2  0.5375   31.4  0.4244 -174.3
 5.600  0.6787   82.4   0.742   -0.4  0.5445   30.1  0.4261 -176.9
 5.700  0.6791   81.2   0.735   -1.0  0.5517   28.9  0.4286 -179.4
 5.800  0.6797   80.1   0.729   -1.6  0.5592   27.6  0.4319  178.1
 5.900  0.6806   78.9   0.723   -2.2  0.5670   26.5  0.4361  175.6
 6.000  0.6818   77.7   0.717   -2.8  0.5750   25.3  0.4410  173.2
!
!  f       NFmin   Gammaopt  rn/50
! GHz       dB    MAG  ANG    -
!
! noise parameter not available yet for this operation point!
!
! (c) 2015  Infineon Technologies AG, Munich
