! Infineon Technologies  Discrete & RF Semiconductors
! BFR93A
! VCE =  1.7 V,  IC =  5.0 mA
! Common Emitter S-Parameters:                            Nov 2015
# GHz  S  MA  R  50
!  f         S11            S21            S12            S22
! GHz     MAG   ANG      MAG   ANG      MAG   ANG      MAG   ANG
 0.010  0.8267   -5.9  15.119  175.7  0.0056   86.6  0.9849   -3.3
 0.015  0.8224   -8.8  15.055  173.6  0.0082   84.3  0.9813   -4.9
 0.020  0.8202  -11.8  15.012  171.5  0.0109   83.1  0.9784   -6.5
 0.025  0.8107  -14.5  14.866  169.6  0.0134   80.5  0.9700   -8.0
 0.030  0.8031  -17.4  14.737  167.7  0.0159   78.8  0.9623   -9.5
 0.035  0.7975  -20.2  14.625  165.7  0.0185   77.5  0.9553  -11.1
 0.040  0.7939  -23.1  14.530  163.7  0.0210   76.6  0.9490  -12.6
 0.045  0.7923  -26.0  14.452  161.7  0.0236   75.8  0.9434  -14.2
 0.050  0.7927  -28.9  14.393  159.7  0.0261   75.2  0.9385  -15.8
 0.055  0.7792  -31.2  14.181  158.3  0.0280   73.3  0.9259  -16.9
 0.060  0.7671  -33.7  13.979  156.8  0.0300   71.6  0.9137  -18.1
 0.065  0.7563  -36.1  13.787  155.2  0.0320   70.2  0.9018  -19.2
 0.070  0.7470  -38.7  13.604  153.7  0.0340   68.9  0.8903  -20.4
 0.075  0.7393  -41.3  13.432  152.0  0.0360   67.8  0.8793  -21.7
 0.080  0.7331  -44.0  13.272  150.4  0.0380   66.8  0.8686  -22.9
 0.085  0.7285  -46.7  13.122  148.7  0.0400   65.9  0.8584  -24.2
 0.090  0.7256  -49.4  12.984  147.0  0.0421   65.0  0.8486  -25.6
 0.095  0.7243  -52.2  12.858  145.2  0.0441   64.3  0.8393  -26.9
 0.100  0.7247  -54.9  12.745  143.4  0.0462   63.6  0.8305  -28.3
 0.105  0.7134  -56.8  12.533  142.3  0.0475   62.6  0.8183  -29.1
 0.110  0.7029  -58.7  12.326  141.1  0.0488   61.6  0.8063  -29.8
 0.115  0.6931  -60.6  12.124  139.9  0.0501   60.7  0.7944  -30.6
 0.120  0.6843  -62.7  11.928  138.6  0.0515   59.9  0.7826  -31.5
 0.125  0.6762  -64.7  11.738  137.3  0.0528   59.0  0.7711  -32.3
 0.130  0.6691  -66.9  11.554  136.0  0.0542   58.3  0.7597  -33.2
 0.135  0.6630  -69.0  11.377  134.6  0.0555   57.5  0.7485  -34.1
 0.140  0.6578  -71.2  11.206  133.2  0.0569   56.8  0.7375  -35.0
 0.145  0.6535  -73.4  11.043  131.7  0.0583   56.1  0.7267  -36.0
 0.150  0.6503  -75.7  10.887  130.2  0.0597   55.5  0.7161  -37.0
 0.155  0.6421  -77.3  10.716  129.4  0.0606   55.0  0.7063  -37.5
 0.160  0.6345  -78.9  10.548  128.5  0.0615   54.5  0.6965  -38.0
 0.165  0.6274  -80.6  10.383  127.6  0.0624   54.0  0.6868  -38.5
 0.170  0.6208  -82.3  10.220  126.6  0.0633   53.5  0.6771  -39.0
 0.175  0.6148  -84.0  10.060  125.7  0.0643   53.1  0.6675  -39.6
 0.180  0.6093  -85.8   9.903  124.7  0.0652   52.6  0.6580  -40.1
 0.185  0.6044  -87.6   9.749  123.7  0.0661   52.2  0.6485  -40.7
 0.190  0.6002  -89.4   9.598  122.6  0.0670   51.8  0.6391  -41.3
 0.195  0.5965  -91.2   9.450  121.5  0.0680   51.4  0.6298  -41.9
 0.200  0.5935  -93.1   9.306  120.4  0.0689   51.0  0.6205  -42.5
 0.220  0.5725  -98.4   8.770  117.6  0.0716   49.7  0.5902  -43.9
 0.240  0.5568 -104.1   8.257  114.5  0.0742   48.6  0.5603  -45.5
 0.260  0.5440 -109.1   7.802  111.7  0.0767   47.7  0.5340  -46.8
 0.280  0.5325 -113.6   7.392  109.4  0.0788   47.3  0.5112  -47.7
 0.300  0.5243 -118.2   6.996  106.8  0.0809   46.8  0.4885  -48.6
 0.320  0.5129 -121.6   6.687  105.3  0.0827   46.6  0.4723  -49.1
 0.340  0.5033 -125.1   6.383  103.6  0.0845   46.5  0.4562  -49.6
 0.360  0.4957 -128.7   6.086  101.8  0.0863   46.3  0.4401  -50.2
 0.380  0.4901 -132.4   5.795   99.7  0.0881   46.1  0.4241  -50.8
 0.400  0.4866 -136.2   5.512   97.5  0.0899   46.0  0.4081  -51.4
 0.420  0.4805 -138.8   5.312   96.3  0.0916   46.1  0.3982  -51.7
 0.440  0.4754 -141.4   5.115   94.9  0.0933   46.2  0.3883  -51.9
 0.450  0.4732 -142.8   5.018   94.2  0.0941   46.3  0.3833  -52.1
 0.460  0.4713 -144.1   4.921   93.5  0.0949   46.3  0.3784  -52.2
 0.480  0.4683 -146.8   4.730   92.0  0.0966   46.4  0.3685  -52.5
 0.500  0.4664 -149.6   4.543   90.3  0.0983   46.5  0.3586  -52.8
 0.520  0.4633 -151.7   4.402   89.3  0.1001   46.7  0.3517  -53.0
 0.540  0.4608 -153.8   4.263   88.2  0.1018   47.0  0.3449  -53.3
 0.560  0.4590 -155.9   4.126   87.1  0.1036   47.2  0.3381  -53.5
 0.580  0.4578 -158.1   3.990   85.8  0.1053   47.4  0.3312  -53.8
 0.600  0.4572 -160.2   3.856   84.5  0.1071   47.6  0.3244  -54.1
 0.620  0.4560 -161.8   3.752   83.6  0.1089   47.8  0.3198  -54.3
 0.640  0.4551 -163.4   3.649   82.6  0.1107   48.1  0.3152  -54.6
 0.660  0.4545 -165.1   3.547   81.6  0.1124   48.3  0.3106  -54.9
 0.680  0.4544 -166.7   3.446   80.5  0.1142   48.5  0.3061  -55.1
 0.700  0.4546 -168.3   3.347   79.3  0.1160   48.7  0.3015  -55.4
 0.720  0.4543 -169.7   3.269   78.5  0.1178   49.0  0.2979  -55.7
 0.740  0.4542 -171.1   3.193   77.6  0.1196   49.2  0.2943  -56.0
 0.760  0.4545 -172.6   3.117   76.7  0.1214   49.4  0.2907  -56.3
 0.780  0.4550 -174.0   3.041   75.7  0.1232   49.7  0.2872  -56.7
 0.800  0.4558 -175.4   2.967   74.7  0.1250   49.9  0.2836  -57.0
 0.820  0.4554 -176.7   2.904   74.0  0.1269   50.1  0.2809  -57.3
 0.840  0.4552 -178.1   2.842   73.2  0.1288   50.2  0.2782  -57.7
 0.860  0.4553 -179.4   2.780   72.4  0.1308   50.4  0.2756  -58.1
 0.880  0.4556  179.2   2.719   71.6  0.1327   50.5  0.2729  -58.4
 0.900  0.4562  177.9   2.658   70.7  0.1346   50.7  0.2703  -58.8
 0.920  0.4560  176.8   2.609   69.9  0.1366   50.8  0.2685  -59.2
 0.940  0.4560  175.7   2.560   69.2  0.1386   51.0  0.2667  -59.5
 0.960  0.4561  174.5   2.512   68.3  0.1406   51.1  0.2649  -59.9
 0.980  0.4564  173.4   2.464   67.5  0.1426   51.2  0.2632  -60.3
 1.000  0.4569  172.3   2.417   66.6  0.1446   51.3  0.2614  -60.7
 1.020  0.4578  171.3   2.378   65.9  0.1467   51.4  0.2597  -61.2
 1.040  0.4588  170.3   2.339   65.2  0.1488   51.5  0.2581  -61.8
 1.060  0.4600  169.3   2.301   64.5  0.1508   51.6  0.2565  -62.3
 1.080  0.4613  168.4   2.263   63.8  0.1529   51.7  0.2549  -62.8
 1.100  0.4627  167.4   2.225   63.0  0.1550   51.8  0.2533  -63.4
 1.120  0.4641  166.5   2.192   62.3  0.1571   51.9  0.2518  -63.9
 1.140  0.4656  165.6   2.159   61.7  0.1591   51.9  0.2504  -64.5
 1.160  0.4672  164.7   2.127   61.0  0.1612   52.0  0.2489  -65.0
 1.180  0.4690  163.8   2.095   60.2  0.1632   52.0  0.2475  -65.5
 1.200  0.4708  162.9   2.063   59.5  0.1653   52.1  0.2461  -66.1
 1.220  0.4716  162.0   2.034   58.8  0.1674   52.1  0.2450  -66.7
 1.240  0.4724  161.0   2.004   58.1  0.1695   52.1  0.2439  -67.2
 1.260  0.4734  160.1   1.976   57.4  0.1715   52.2  0.2428  -67.8
 1.280  0.4746  159.2   1.947   56.7  0.1736   52.2  0.2417  -68.3
 1.300  0.4758  158.3   1.919   55.9  0.1757   52.2  0.2407  -68.9
 1.320  0.4761  157.5   1.894   55.3  0.1779   52.2  0.2401  -69.5
 1.340  0.4764  156.7   1.870   54.7  0.1800   52.3  0.2395  -70.1
 1.360  0.4768  155.9   1.846   54.1  0.1822   52.3  0.2389  -70.6
 1.380  0.4774  155.1   1.822   53.5  0.1843   52.4  0.2383  -71.2
 1.400  0.4780  154.3   1.798   52.8  0.1865   52.4  0.2378  -71.8
 1.420  0.4787  153.6   1.775   52.2  0.1887   52.4  0.2369  -72.5
 1.440  0.4795  152.9   1.752   51.6  0.1909   52.4  0.2361  -73.2
 1.460  0.4804  152.1   1.730   50.9  0.1931   52.3  0.2353  -73.9
 1.480  0.4813  151.4   1.707   50.3  0.1953   52.3  0.2345  -74.7
 1.500  0.4823  150.7   1.685   49.6  0.1975   52.3  0.2338  -75.4
 1.520  0.4836  150.0   1.668   49.0  0.1997   52.2  0.2331  -76.1
 1.540  0.4850  149.2   1.652   48.5  0.2018   52.2  0.2325  -76.8
 1.560  0.4865  148.5   1.635   47.9  0.2040   52.1  0.2319  -77.5
 1.580  0.4881  147.8   1.619   47.3  0.2061   52.1  0.2314  -78.3
 1.600  0.4897  147.1   1.603   46.7  0.2083   52.0  0.2309  -79.0
 1.620  0.4912  146.4   1.588   46.1  0.2106   51.9  0.2305  -79.7
 1.640  0.4928  145.8   1.573   45.6  0.2129   51.9  0.2302  -80.4
 1.660  0.4945  145.1   1.558   45.0  0.2152   51.8  0.2299  -81.2
 1.680  0.4962  144.5   1.543   44.4  0.2175   51.8  0.2296  -81.9
 1.700  0.4980  143.8   1.528   43.8  0.2198   51.7  0.2294  -82.6
 1.720  0.4984  143.3   1.514   43.2  0.2221   51.6  0.2295  -83.3
 1.740  0.4989  142.7   1.500   42.7  0.2245   51.5  0.2296  -84.1
 1.760  0.4994  142.2   1.486   42.1  0.2268   51.5  0.2298  -84.8
 1.780  0.4999  141.6   1.472   41.5  0.2292   51.4  0.2300  -85.6
 1.800  0.5005  141.1   1.458   40.9  0.2315   51.3  0.2303  -86.3
 1.820  0.5016  140.4   1.445   40.4  0.2338   51.2  0.2302  -87.0
 1.840  0.5027  139.7   1.432   39.9  0.2361   51.1  0.2301  -87.8
 1.860  0.5039  139.1   1.419   39.4  0.2385   51.0  0.2300  -88.5
 1.880  0.5052  138.4   1.406   38.9  0.2408   50.9  0.2300  -89.3
 1.900  0.5066  137.7   1.393   38.4  0.2431   50.8  0.2300  -90.0
 1.920  0.5074  137.1   1.382   37.9  0.2455   50.7  0.2298  -90.7
 1.940  0.5082  136.6   1.371   37.5  0.2479   50.6  0.2297  -91.5
 1.960  0.5091  136.0   1.360   37.0  0.2504   50.6  0.2296  -92.2
 1.980  0.5100  135.5   1.349   36.5  0.2528   50.5  0.2296  -93.0
 2.000  0.5110  134.9   1.338   36.0  0.2552   50.4  0.2296  -93.7
 2.020  0.5120  134.3   1.328   35.5  0.2576   50.2  0.2297  -94.5
 2.040  0.5130  133.7   1.318   35.0  0.2600   50.1  0.2298  -95.2
 2.060  0.5142  133.1   1.308   34.5  0.2624   50.0  0.2300  -96.0
 2.080  0.5153  132.5   1.299   34.0  0.2648   49.8  0.2302  -96.7
 2.100  0.5165  131.9   1.289   33.5  0.2672   49.7  0.2304  -97.5
 2.120  0.5178  131.3   1.280   33.0  0.2696   49.5  0.2307  -98.2
 2.140  0.5192  130.7   1.270   32.5  0.2720   49.4  0.2310  -99.0
 2.160  0.5205  130.1   1.261   32.0  0.2744   49.3  0.2314  -99.7
 2.180  0.5220  129.5   1.252   31.4  0.2768   49.1  0.2318 -100.5
 2.200  0.5235  128.9   1.243   30.9  0.2792   49.0  0.2322 -101.2
 2.220  0.5244  128.4   1.235   30.5  0.2817   48.8  0.2323 -102.0
 2.240  0.5253  127.9   1.228   30.1  0.2842   48.6  0.2325 -102.9
 2.260  0.5262  127.5   1.220   29.6  0.2867   48.4  0.2328 -103.7
 2.280  0.5272  127.0   1.213   29.2  0.2892   48.2  0.2331 -104.6
 2.300  0.5282  126.5   1.205   28.8  0.2917   48.1  0.2334 -105.4
 2.320  0.5292  126.1   1.198   28.3  0.2942   47.9  0.2338 -106.2
 2.340  0.5303  125.6   1.190   27.9  0.2967   47.7  0.2343 -107.0
 2.360  0.5314  125.1   1.183   27.4  0.2993   47.5  0.2348 -107.9
 2.380  0.5325  124.7   1.176   27.0  0.3018   47.4  0.2353 -108.7
 2.400  0.5337  124.2   1.169   26.5  0.3043   47.2  0.2359 -109.5
 2.420  0.5351  123.7   1.161   26.1  0.3068   47.0  0.2362 -110.4
 2.440  0.5366  123.1   1.154   25.6  0.3092   46.8  0.2366 -111.2
 2.460  0.5381  122.6   1.146   25.2  0.3117   46.6  0.2371 -112.1
 2.480  0.5396  122.0   1.139   24.8  0.3141   46.4  0.2375 -112.9
 2.500  0.5412  121.5   1.132   24.3  0.3166   46.2  0.2381 -113.8
 2.520  0.5429  121.0   1.124   23.9  0.3191   46.0  0.2387 -114.7
 2.540  0.5446  120.5   1.117   23.4  0.3216   45.8  0.2393 -115.5
 2.560  0.5463  119.9   1.110   22.9  0.3240   45.7  0.2400 -116.3
 2.580  0.5481  119.4   1.103   22.5  0.3265   45.5  0.2408 -117.2
 2.600  0.5499  118.9   1.096   22.0  0.3290   45.3  0.2416 -118.0
 2.620  0.5502  118.4   1.091   21.6  0.3314   45.1  0.2419 -118.9
 2.640  0.5506  117.9   1.085   21.2  0.3339   44.8  0.2423 -119.9
 2.660  0.5510  117.4   1.080   20.8  0.3363   44.6  0.2427 -120.8
 2.680  0.5515  116.9   1.075   20.4  0.3388   44.4  0.2432 -121.7
 2.700  0.5519  116.4   1.069   20.0  0.3412   44.2  0.2437 -122.6
 2.720  0.5525  115.9   1.064   19.6  0.3437   43.9  0.2443 -123.5
 2.740  0.5530  115.5   1.059   19.2  0.3462   43.7  0.2450 -124.4
 2.760  0.5537  115.0   1.054   18.8  0.3486   43.5  0.2458 -125.3
 2.780  0.5543  114.5   1.049   18.4  0.3511   43.3  0.2465 -126.2
 2.800  0.5550  114.0   1.044   18.0  0.3536   43.1  0.2474 -127.1
 2.820  0.5564  113.5   1.039   17.7  0.3562   42.8  0.2481 -128.0
 2.840  0.5579  113.0   1.033   17.3  0.3587   42.6  0.2489 -129.0
 2.860  0.5594  112.5   1.028   17.0  0.3613   42.3  0.2498 -129.9
 2.880  0.5610  112.0   1.022   16.6  0.3638   42.1  0.2507 -130.8
 2.900  0.5626  111.6   1.017   16.2  0.3664   41.9  0.2517 -131.7
 2.920  0.5642  111.1   1.012   15.9  0.3690   41.6  0.2528 -132.6
 2.940  0.5659  110.6   1.006   15.5  0.3716   41.4  0.2539 -133.5
 2.960  0.5676  110.1   1.001   15.2  0.3742   41.2  0.2551 -134.4
 2.980  0.5693  109.7   0.996   14.8  0.3768   40.9  0.2563 -135.3
 3.000  0.5711  109.2   0.991   14.4  0.3794   40.7  0.2576 -136.2
!
!  f       NFmin   Gammaopt  rn/50
! GHz       dB    MAG  ANG    -
!
! noise parameter not available yet for this operation point!
!
! (c) 2015  Infineon Technologies AG, Munich
