! Infineon Technologies  Discrete & RF Semiconductors
! BFR93A
! VCE =  1.7 V,  IC =  4.0 mA
! Common Emitter S-Parameters:                            Nov 2015
# GHz  S  MA  R  50
!  f         S11            S21            S12            S22
! GHz     MAG   ANG      MAG   ANG      MAG   ANG      MAG   ANG
 0.010  0.8553   -5.3  12.524  176.1  0.0056   87.4  0.9887   -2.8
 0.015  0.8515   -7.8  12.485  174.3  0.0083   85.2  0.9858   -4.2
 0.020  0.8493  -10.4  12.459  172.5  0.0110   84.1  0.9834   -5.6
 0.025  0.8414  -12.9  12.362  170.8  0.0136   81.5  0.9769   -6.9
 0.030  0.8352  -15.4  12.276  169.0  0.0162   79.8  0.9709   -8.2
 0.035  0.8305  -17.9  12.202  167.2  0.0189   78.5  0.9655   -9.5
 0.040  0.8275  -20.5  12.139  165.4  0.0215   77.5  0.9605  -10.8
 0.045  0.8261  -23.0  12.089  163.6  0.0242   76.8  0.9560  -12.1
 0.050  0.8264  -25.6  12.051  161.8  0.0268   76.2  0.9521  -13.5
 0.055  0.8149  -27.8  11.905  160.4  0.0289   74.4  0.9418  -14.5
 0.060  0.8046  -30.0  11.765  159.0  0.0310   72.8  0.9319  -15.6
 0.065  0.7955  -32.2  11.633  157.6  0.0331   71.4  0.9223  -16.7
 0.070  0.7877  -34.6  11.508  156.1  0.0353   70.2  0.9130  -17.8
 0.075  0.7812  -36.9  11.391  154.6  0.0374   69.1  0.9040  -18.9
 0.080  0.7761  -39.3  11.282  153.1  0.0396   68.2  0.8954  -20.0
 0.085  0.7723  -41.7  11.181  151.5  0.0418   67.3  0.8872  -21.2
 0.090  0.7699  -44.2  11.089  149.9  0.0440   66.5  0.8793  -22.4
 0.095  0.7690  -46.6  11.005  148.3  0.0462   65.8  0.8718  -23.6
 0.100  0.7694  -49.1  10.930  146.7  0.0484   65.2  0.8647  -24.8
 0.105  0.7586  -50.9  10.772  145.6  0.0499   64.1  0.8539  -25.5
 0.110  0.7486  -52.7  10.619  144.4  0.0513   63.2  0.8432  -26.3
 0.115  0.7394  -54.6  10.470  143.2  0.0528   62.2  0.8327  -27.0
 0.120  0.7310  -56.5  10.326  142.0  0.0543   61.3  0.8223  -27.8
 0.125  0.7234  -58.4  10.187  140.7  0.0559   60.5  0.8121  -28.6
 0.130  0.7166  -60.4  10.053  139.4  0.0574   59.7  0.8021  -29.5
 0.135  0.7108  -62.4   9.924  138.1  0.0589   58.9  0.7922  -30.3
 0.140  0.7058  -64.5   9.800  136.7  0.0605   58.2  0.7825  -31.2
 0.145  0.7018  -66.6   9.683  135.3  0.0620   57.5  0.7730  -32.1
 0.150  0.6987  -68.7   9.571  133.9  0.0636   56.9  0.7637  -33.0
 0.155  0.6901  -70.2   9.439  133.0  0.0647   56.3  0.7545  -33.5
 0.160  0.6821  -71.8   9.308  132.1  0.0657   55.7  0.7454  -34.0
 0.165  0.6746  -73.4   9.180  131.2  0.0668   55.1  0.7364  -34.5
 0.170  0.6676  -75.0   9.055  130.3  0.0679   54.5  0.7274  -35.1
 0.175  0.6611  -76.7   8.932  129.3  0.0690   54.0  0.7185  -35.6
 0.180  0.6553  -78.4   8.812  128.3  0.0701   53.5  0.7096  -36.2
 0.185  0.6500  -80.2   8.695  127.3  0.0712   52.9  0.7009  -36.8
 0.190  0.6454  -81.9   8.580  126.2  0.0724   52.4  0.6922  -37.4
 0.195  0.6413  -83.7   8.468  125.1  0.0735   52.0  0.6835  -38.0
 0.200  0.6379  -85.5   8.360  124.0  0.0746   51.5  0.6750  -38.6
 0.220  0.6153  -90.8   7.916  121.1  0.0776   49.8  0.6454  -40.1
 0.240  0.5983  -96.5   7.496  117.8  0.0807   48.3  0.6162  -41.6
 0.260  0.5842 -101.7   7.119  114.9  0.0834   47.2  0.5900  -43.0
 0.280  0.5708 -106.3   6.773  112.4  0.0856   46.3  0.5666  -44.0
 0.300  0.5613 -111.1   6.441  109.7  0.0878   45.5  0.5433  -45.1
 0.320  0.5480 -114.5   6.166  108.0  0.0896   45.1  0.5264  -45.6
 0.340  0.5367 -118.0   5.897  106.2  0.0915   44.7  0.5096  -46.2
 0.360  0.5276 -121.7   5.634  104.3  0.0933   44.3  0.4928  -46.8
 0.380  0.5207 -125.5   5.379  102.1  0.0952   43.9  0.4761  -47.5
 0.400  0.5161 -129.4   5.132   99.7  0.0970   43.5  0.4595  -48.2
 0.420  0.5086 -132.1   4.950   98.4  0.0985   43.4  0.4489  -48.5
 0.440  0.5022 -134.9   4.771   97.0  0.1000   43.3  0.4383  -48.9
 0.450  0.4995 -136.4   4.683   96.2  0.1007   43.2  0.4330  -49.0
 0.460  0.4971 -137.8   4.596   95.4  0.1015   43.2  0.4278  -49.2
 0.480  0.4932 -140.7   4.423   93.8  0.1030   43.1  0.4172  -49.6
 0.500  0.4907 -143.7   4.255   92.0  0.1045   43.0  0.4067  -50.0
 0.520  0.4863 -145.9   4.125   90.9  0.1059   43.1  0.3994  -50.3
 0.540  0.4827 -148.1   3.997   89.8  0.1074   43.3  0.3921  -50.5
 0.560  0.4798 -150.3   3.871   88.5  0.1088   43.4  0.3848  -50.8
 0.580  0.4776 -152.5   3.746   87.2  0.1103   43.6  0.3776  -51.1
 0.600  0.4761 -154.8   3.624   85.8  0.1117   43.7  0.3703  -51.4
 0.620  0.4743 -156.6   3.528   84.8  0.1132   43.9  0.3652  -51.7
 0.640  0.4730 -158.3   3.434   83.8  0.1147   44.1  0.3601  -51.9
 0.660  0.4722 -160.1   3.340   82.7  0.1163   44.3  0.3550  -52.2
 0.680  0.4718 -161.9   3.248   81.5  0.1178   44.5  0.3500  -52.5
 0.700  0.4719 -163.7   3.157   80.3  0.1193   44.7  0.3449  -52.8
 0.720  0.4708 -165.2   3.084   79.4  0.1208   44.9  0.3412  -53.1
 0.740  0.4700 -166.8   3.012   78.5  0.1223   45.2  0.3374  -53.4
 0.760  0.4696 -168.3   2.941   77.5  0.1239   45.4  0.3337  -53.7
 0.780  0.4695 -169.9   2.870   76.5  0.1254   45.6  0.3300  -54.1
 0.800  0.4697 -171.4   2.801   75.4  0.1269   45.8  0.3263  -54.4
 0.820  0.4694 -172.8   2.743   74.6  0.1285   46.0  0.3234  -54.8
 0.840  0.4693 -174.2   2.685   73.8  0.1301   46.2  0.3205  -55.1
 0.860  0.4695 -175.6   2.628   73.0  0.1316   46.4  0.3176  -55.5
 0.880  0.4700 -177.0   2.571   72.1  0.1332   46.6  0.3147  -55.9
 0.900  0.4708 -178.4   2.515   71.2  0.1348   46.8  0.3118  -56.3
 0.920  0.4705 -179.6   2.469   70.4  0.1365   47.0  0.3098  -56.7
 0.940  0.4704  179.3   2.423   69.6  0.1382   47.2  0.3078  -57.0
 0.960  0.4705  178.1   2.377   68.8  0.1398   47.4  0.3058  -57.4
 0.980  0.4708  177.0   2.332   67.9  0.1415   47.5  0.3039  -57.8
 1.000  0.4713  175.8   2.288   67.0  0.1432   47.7  0.3019  -58.2
 1.020  0.4718  174.7   2.251   66.3  0.1450   47.9  0.3001  -58.7
 1.040  0.4725  173.6   2.215   65.5  0.1468   48.1  0.2984  -59.2
 1.060  0.4733  172.5   2.179   64.7  0.1487   48.3  0.2967  -59.7
 1.080  0.4743  171.4   2.143   63.9  0.1505   48.4  0.2950  -60.3
 1.100  0.4755  170.3   2.108   63.1  0.1523   48.6  0.2933  -60.8
 1.120  0.4763  169.3   2.077   62.4  0.1541   48.7  0.2917  -61.3
 1.140  0.4773  168.3   2.047   61.7  0.1560   48.8  0.2901  -61.8
 1.160  0.4784  167.3   2.016   60.9  0.1578   49.0  0.2886  -62.3
 1.180  0.4796  166.4   1.987   60.2  0.1597   49.1  0.2871  -62.9
 1.200  0.4810  165.4   1.957   59.4  0.1615   49.2  0.2856  -63.4
 1.220  0.4818  164.5   1.929   58.7  0.1633   49.3  0.2845  -63.9
 1.240  0.4827  163.5   1.901   58.0  0.1652   49.4  0.2834  -64.5
 1.260  0.4837  162.6   1.874   57.3  0.1670   49.5  0.2823  -65.0
 1.280  0.4849  161.6   1.847   56.6  0.1689   49.6  0.2812  -65.6
 1.300  0.4862  160.7   1.820   55.8  0.1707   49.7  0.2802  -66.1
 1.320  0.4862  159.9   1.796   55.2  0.1727   49.8  0.2795  -66.7
 1.340  0.4864  159.1   1.773   54.5  0.1747   49.9  0.2788  -67.2
 1.360  0.4866  158.3   1.750   53.9  0.1766   50.0  0.2781  -67.8
 1.380  0.4869  157.5   1.727   53.2  0.1786   50.1  0.2774  -68.3
 1.400  0.4873  156.7   1.704   52.5  0.1806   50.2  0.2768  -68.9
 1.420  0.4881  155.9   1.683   51.9  0.1826   50.3  0.2758  -69.6
 1.440  0.4891  155.2   1.662   51.3  0.1846   50.3  0.2749  -70.2
 1.460  0.4901  154.4   1.641   50.6  0.1867   50.4  0.2740  -70.9
 1.480  0.4912  153.7   1.620   50.0  0.1887   50.4  0.2731  -71.6
 1.500  0.4924  152.9   1.600   49.3  0.1907   50.5  0.2723  -72.3
 1.520  0.4937  152.1   1.584   48.7  0.1928   50.5  0.2716  -73.0
 1.540  0.4950  151.3   1.568   48.2  0.1948   50.5  0.2709  -73.7
 1.560  0.4965  150.5   1.553   47.6  0.1969   50.6  0.2703  -74.5
 1.580  0.4980  149.7   1.537   47.0  0.1989   50.6  0.2697  -75.2
 1.600  0.4997  148.9   1.522   46.4  0.2010   50.6  0.2692  -75.9
 1.620  0.5017  148.2   1.508   45.8  0.2031   50.6  0.2688  -76.6
 1.640  0.5038  147.5   1.494   45.3  0.2053   50.6  0.2684  -77.3
 1.660  0.5060  146.8   1.480   44.7  0.2074   50.6  0.2681  -78.0
 1.680  0.5083  146.2   1.466   44.1  0.2096   50.6  0.2678  -78.7
 1.700  0.5106  145.5   1.453   43.5  0.2117   50.6  0.2675  -79.4
 1.720  0.5108  144.9   1.440   42.9  0.2140   50.6  0.2676  -80.1
 1.740  0.5111  144.3   1.427   42.3  0.2162   50.6  0.2677  -80.8
 1.760  0.5115  143.8   1.414   41.7  0.2185   50.5  0.2678  -81.5
 1.780  0.5119  143.2   1.401   41.1  0.2207   50.5  0.2680  -82.2
 1.800  0.5123  142.6   1.388   40.5  0.2230   50.5  0.2682  -82.9
 1.820  0.5125  141.9   1.375   40.0  0.2252   50.5  0.2679  -83.7
 1.840  0.5127  141.3   1.362   39.5  0.2274   50.4  0.2677  -84.4
 1.860  0.5131  140.6   1.349   39.0  0.2295   50.4  0.2675  -85.2
 1.880  0.5134  140.0   1.337   38.5  0.2317   50.3  0.2673  -85.9
 1.900  0.5139  139.3   1.324   38.0  0.2339   50.3  0.2672  -86.7
 1.920  0.5156  138.6   1.314   37.5  0.2362   50.3  0.2671  -87.4
 1.940  0.5173  138.0   1.303   37.0  0.2386   50.2  0.2670  -88.1
 1.960  0.5192  137.3   1.293   36.5  0.2409   50.2  0.2669  -88.9
 1.980  0.5210  136.7   1.283   35.9  0.2433   50.1  0.2669  -89.6
 2.000  0.5230  136.0   1.273   35.4  0.2456   50.1  0.2669  -90.3
 2.020  0.5240  135.4   1.263   34.9  0.2481   50.0  0.2669  -91.0
 2.040  0.5251  134.8   1.253   34.4  0.2505   49.9  0.2669  -91.8
 2.060  0.5263  134.2   1.244   34.0  0.2530   49.8  0.2670  -92.5
 2.080  0.5275  133.6   1.234   33.5  0.2554   49.7  0.2672  -93.3
 2.100  0.5288  133.0   1.225   32.9  0.2579   49.6  0.2673  -94.0
 2.120  0.5301  132.4   1.215   32.4  0.2604   49.5  0.2676  -94.8
 2.140  0.5315  131.8   1.206   31.9  0.2628   49.4  0.2678  -95.5
 2.160  0.5330  131.3   1.197   31.4  0.2653   49.3  0.2681  -96.2
 2.180  0.5344  130.7   1.188   30.8  0.2677   49.2  0.2685  -97.0
 2.200  0.5360  130.1   1.179   30.3  0.2702   49.1  0.2689  -97.7
 2.220  0.5365  129.6   1.172   29.9  0.2727   48.9  0.2690  -98.5
 2.240  0.5370  129.1   1.165   29.4  0.2752   48.8  0.2691  -99.3
 2.260  0.5376  128.5   1.158   29.0  0.2778   48.7  0.2693 -100.1
 2.280  0.5382  128.0   1.152   28.6  0.2803   48.5  0.2695 -100.9
 2.300  0.5389  127.5   1.145   28.1  0.2828   48.4  0.2698 -101.7
 2.320  0.5396  127.0   1.139   27.7  0.2854   48.2  0.2702 -102.5
 2.340  0.5404  126.4   1.132   27.2  0.2879   48.1  0.2706 -103.3
 2.360  0.5412  125.9   1.126   26.7  0.2904   48.0  0.2710 -104.1
 2.380  0.5420  125.4   1.119   26.3  0.2930   47.8  0.2715 -104.9
 2.400  0.5429  124.9   1.113   25.8  0.2955   47.7  0.2721 -105.7
 2.420  0.5442  124.4   1.106   25.4  0.2980   47.5  0.2723 -106.6
 2.440  0.5456  123.8   1.098   25.0  0.3005   47.3  0.2726 -107.4
 2.460  0.5470  123.3   1.091   24.6  0.3031   47.2  0.2729 -108.2
 2.480  0.5485  122.8   1.084   24.2  0.3056   47.0  0.2733 -109.1
 2.500  0.5500  122.3   1.076   23.8  0.3081   46.8  0.2737 -109.9
 2.520  0.5516  121.7   1.069   23.3  0.3106   46.6  0.2742 -110.8
 2.540  0.5532  121.2   1.062   22.9  0.3132   46.5  0.2748 -111.6
 2.560  0.5549  120.7   1.055   22.5  0.3157   46.3  0.2754 -112.4
 2.580  0.5566  120.2   1.048   22.0  0.3183   46.2  0.2761 -113.3
 2.600  0.5583  119.7   1.041   21.6  0.3208   46.0  0.2768 -114.1
 2.620  0.5591  119.2   1.035   21.2  0.3234   45.8  0.2770 -115.0
 2.640  0.5600  118.6   1.030   20.8  0.3259   45.6  0.2773 -115.9
 2.660  0.5609  118.1   1.024   20.4  0.3285   45.4  0.2776 -116.9
 2.680  0.5619  117.5   1.019   20.1  0.3311   45.2  0.2781 -117.8
 2.700  0.5629  117.0   1.013   19.7  0.3337   45.0  0.2786 -118.7
 2.720  0.5639  116.4   1.008   19.3  0.3363   44.8  0.2791 -119.6
 2.740  0.5651  115.9   1.003   18.8  0.3389   44.6  0.2798 -120.5
 2.760  0.5662  115.4   0.997   18.4  0.3415   44.4  0.2805 -121.4
 2.780  0.5674  114.8   0.992   18.0  0.3441   44.2  0.2813 -122.3
 2.800  0.5687  114.3   0.987   17.6  0.3467   44.0  0.2821 -123.2
 2.820  0.5697  113.8   0.983   17.3  0.3494   43.8  0.2827 -124.1
 2.840  0.5707  113.3   0.978   16.9  0.3520   43.5  0.2833 -125.1
 2.860  0.5718  112.7   0.974   16.6  0.3547   43.3  0.2841 -126.0
 2.880  0.5730  112.2   0.969   16.2  0.3574   43.0  0.2849 -126.9
 2.900  0.5741  111.7   0.965   15.8  0.3601   42.8  0.2857 -127.8
 2.920  0.5754  111.2   0.961   15.5  0.3628   42.6  0.2867 -128.7
 2.940  0.5766  110.7   0.956   15.1  0.3655   42.4  0.2877 -129.6
 2.960  0.5779  110.2   0.952   14.7  0.3682   42.1  0.2888 -130.5
 2.980  0.5793  109.7   0.948   14.4  0.3709   41.9  0.2900 -131.4
 3.000  0.5807  109.2   0.944   14.0  0.3736   41.7  0.2912 -132.3
!
!  f       NFmin   Gammaopt  rn/50
! GHz       dB    MAG  ANG    -
!
! noise parameter not available yet for this operation point!
!
! (c) 2015  Infineon Technologies AG, Munich
