! Infineon Technologies  Discrete & RF Semiconductors
! BFR93AW
! VCE =  1.7 V,  IC =  38 mA
! Common Emitter S-Parameters:                            Nov 2015
# GHz  S  MA  R  50
!  f         S11            S21            S12            S22
! GHz     MAG   ANG      MAG   ANG      MAG   ANG      MAG   ANG
 0.030  0.3027  -74.8  54.247  152.3  0.0081   71.3  0.8133  -24.9
 0.035  0.3143  -83.2  51.928  148.6  0.0091   68.8  0.7785  -28.2
 0.040  0.3321  -90.9  49.844  144.6  0.0101   66.8  0.7465  -31.8
 0.045  0.3553  -97.7  48.028  140.2  0.0111   65.1  0.7177  -35.6
 0.050  0.3829 -103.6  46.516  135.5  0.0121   63.7  0.6923  -39.8
 0.055  0.3825 -107.4  44.709  134.2  0.0127   63.6  0.6669  -40.9
 0.060  0.3837 -111.1  42.926  132.8  0.0134   63.6  0.6417  -42.0
 0.065  0.3865 -114.8  41.172  131.2  0.0140   63.5  0.6168  -43.2
 0.070  0.3910 -118.5  39.453  129.5  0.0147   63.5  0.5922  -44.6
 0.075  0.3970 -122.1  37.770  127.7  0.0154   63.4  0.5680  -46.1
 0.080  0.4044 -125.5  36.128  125.7  0.0161   63.4  0.5442  -47.7
 0.085  0.4133 -128.8  34.535  123.5  0.0167   63.4  0.5208  -49.4
 0.090  0.4235 -132.0  32.998  121.1  0.0174   63.4  0.4980  -51.3
 0.095  0.4349 -135.0  31.524  118.5  0.0180   63.3  0.4757  -53.4
 0.100  0.4475 -137.8  30.122  115.6  0.0187   63.3  0.4542  -55.7
 0.105  0.4485 -139.4  29.224  114.9  0.0192   63.4  0.4416  -56.1
 0.110  0.4498 -140.9  28.330  114.2  0.0197   63.5  0.4291  -56.5
 0.115  0.4514 -142.5  27.441  113.4  0.0202   63.6  0.4165  -56.9
 0.120  0.4533 -144.0  26.559  112.5  0.0208   63.7  0.4040  -57.4
 0.125  0.4556 -145.5  25.682  111.6  0.0213   63.8  0.3915  -57.9
 0.130  0.4582 -147.0  24.812  110.7  0.0218   63.9  0.3791  -58.5
 0.135  0.4611 -148.5  23.949  109.7  0.0223   64.0  0.3667  -59.0
 0.140  0.4643 -149.9  23.094  108.6  0.0229   64.1  0.3543  -59.6
 0.145  0.4678 -151.4  22.249  107.4  0.0234   64.2  0.3420  -60.3
 0.150  0.4716 -152.8  21.414  106.1  0.0239   64.2  0.3297  -61.0
 0.155  0.4716 -153.6  20.917  105.6  0.0244   64.5  0.3230  -61.2
 0.160  0.4717 -154.4  20.422  105.2  0.0249   64.8  0.3163  -61.4
 0.165  0.4718 -155.2  19.928  104.7  0.0254   65.0  0.3096  -61.6
 0.170  0.4721 -156.1  19.436  104.1  0.0259   65.3  0.3029  -61.8
 0.175  0.4725 -156.9  18.945  103.6  0.0264   65.5  0.2962  -62.0
 0.180  0.4729 -157.7  18.456  103.0  0.0269   65.7  0.2895  -62.3
 0.185  0.4735 -158.5  17.970  102.4  0.0274   66.0  0.2828  -62.5
 0.190  0.4741 -159.3  17.485  101.7  0.0279   66.2  0.2761  -62.8
 0.195  0.4749 -160.1  17.003  101.0  0.0284   66.4  0.2695  -63.0
 0.200  0.4757 -160.9  16.524  100.3  0.0289   66.6  0.2628  -63.3
 0.220  0.4766 -163.4  15.254   98.9  0.0310   67.6  0.2448  -63.6
 0.240  0.4784 -165.9  13.995   97.2  0.0331   68.5  0.2268  -64.0
 0.260  0.4805 -167.9  12.942   95.8  0.0352   69.3  0.2126  -64.2
 0.280  0.4826 -169.4  12.091   94.6  0.0375   69.9  0.2021  -64.1
 0.300  0.4851 -170.9  11.245   93.2  0.0397   70.5  0.1917  -64.1
 0.320  0.4854 -172.2  10.689   92.5  0.0419   70.8  0.1843  -64.0
 0.340  0.4860 -173.5  10.136   91.6  0.0441   71.1  0.1769  -63.9
 0.360  0.4868 -174.7   9.585   90.7  0.0463   71.3  0.1695  -63.9
 0.380  0.4878 -176.0   9.036   89.7  0.0486   71.6  0.1621  -63.8
 0.400  0.4891 -177.2   8.491   88.5  0.0508   71.8  0.1547  -63.7
 0.420  0.4898 -178.2   8.159   87.9  0.0530   72.0  0.1502  -63.9
 0.440  0.4906 -179.1   7.828   87.2  0.0553   72.1  0.1457  -64.1
 0.450  0.4911 -179.6   7.663   86.8  0.0564   72.2  0.1434  -64.2
 0.460  0.4916  179.9   7.498   86.4  0.0575   72.3  0.1411  -64.3
 0.480  0.4927  179.0   7.170   85.5  0.0598   72.4  0.1366  -64.5
 0.500  0.4940  178.0   6.843   84.6  0.0621   72.6  0.1321  -64.8
 0.520  0.4946  177.3   6.618   84.0  0.0645   72.7  0.1298  -64.9
 0.540  0.4952  176.7   6.394   83.5  0.0669   72.9  0.1275  -65.0
 0.560  0.4960  176.0   6.170   82.8  0.0693   73.0  0.1252  -65.1
 0.580  0.4967  175.4   5.948   82.1  0.0717   73.1  0.1229  -65.2
 0.600  0.4976  174.7   5.726   81.4  0.0741   73.2  0.1206  -65.3
 0.620  0.4980  174.0   5.568   80.9  0.0762   73.2  0.1190  -65.7
 0.640  0.4984  173.3   5.410   80.3  0.0783   73.2  0.1174  -66.1
 0.660  0.4990  172.5   5.253   79.7  0.0803   73.1  0.1158  -66.5
 0.680  0.4996  171.8   5.097   79.0  0.0824   73.1  0.1142  -67.0
 0.700  0.5003  171.1   4.941   78.3  0.0845   73.1  0.1126  -67.4
 0.720  0.5015  170.5   4.818   77.8  0.0868   73.0  0.1111  -68.2
 0.740  0.5028  169.8   4.696   77.3  0.0891   72.9  0.1096  -69.1
 0.760  0.5042  169.2   4.574   76.7  0.0914   72.8  0.1081  -69.9
 0.780  0.5056  168.5   4.453   76.1  0.0937   72.8  0.1066  -70.8
 0.800  0.5071  167.9   4.332   75.5  0.0960   72.7  0.1052  -71.7
 0.820  0.5068  167.4   4.239   75.0  0.0983   72.6  0.1048  -72.0
 0.840  0.5065  166.8   4.147   74.5  0.1007   72.5  0.1044  -72.3
 0.860  0.5063  166.3   4.055   74.0  0.1030   72.4  0.1039  -72.6
 0.880  0.5061  165.7   3.963   73.4  0.1054   72.4  0.1035  -72.9
 0.900  0.5060  165.2   3.872   72.8  0.1077   72.3  0.1031  -73.2
 0.920  0.5065  164.6   3.796   72.3  0.1099   72.1  0.1025  -73.8
 0.940  0.5071  164.0   3.721   71.8  0.1121   72.0  0.1019  -74.5
 0.960  0.5077  163.3   3.645   71.3  0.1142   71.9  0.1014  -75.2
 0.980  0.5084  162.7   3.571   70.8  0.1164   71.7  0.1008  -75.8
 1.000  0.5091  162.1   3.496   70.2  0.1186   71.6  0.1003  -76.5
 1.020  0.5102  161.6   3.436   69.7  0.1208   71.4  0.1001  -77.8
 1.040  0.5112  161.2   3.375   69.3  0.1231   71.3  0.1000  -79.2
 1.060  0.5124  160.7   3.315   68.8  0.1253   71.1  0.0999  -80.5
 1.080  0.5135  160.3   3.255   68.2  0.1276   70.9  0.0999  -81.9
 1.100  0.5147  159.8   3.196   67.7  0.1298   70.8  0.0999  -83.2
 1.120  0.5159  159.3   3.145   67.3  0.1320   70.7  0.0999  -83.7
 1.140  0.5172  158.8   3.094   66.8  0.1342   70.5  0.1000  -84.2
 1.160  0.5184  158.4   3.043   66.3  0.1365   70.4  0.1001  -84.8
 1.180  0.5197  157.9   2.992   65.8  0.1387   70.3  0.1001  -85.3
 1.200  0.5211  157.4   2.942   65.3  0.1409   70.2  0.1002  -85.8
 1.220  0.5207  156.9   2.901   64.8  0.1432   70.0  0.1000  -86.2
 1.240  0.5204  156.4   2.860   64.4  0.1455   69.8  0.0999  -86.7
 1.260  0.5201  156.0   2.819   63.9  0.1479   69.6  0.0998  -87.1
 1.280  0.5198  155.5   2.778   63.4  0.1502   69.4  0.0996  -87.6
 1.300  0.5196  155.0   2.738   62.9  0.1525   69.2  0.0995  -88.0
 1.320  0.5205  154.6   2.701   62.5  0.1546   69.0  0.0999  -89.5
 1.340  0.5213  154.1   2.663   62.0  0.1567   68.9  0.1003  -90.9
 1.360  0.5223  153.7   2.626   61.6  0.1589   68.7  0.1009  -92.4
 1.380  0.5232  153.2   2.590   61.1  0.1610   68.6  0.1015  -93.8
 1.400  0.5242  152.8   2.553   60.6  0.1631   68.4  0.1021  -95.2
 1.420  0.5254  152.4   2.521   60.2  0.1653   68.2  0.1027  -95.8
 1.440  0.5267  152.0   2.488   59.8  0.1675   68.1  0.1033  -96.5
 1.460  0.5280  151.6   2.456   59.3  0.1696   67.9  0.1039  -97.1
 1.480  0.5293  151.2   2.424   58.9  0.1718   67.8  0.1045  -97.7
 1.500  0.5307  150.8   2.392   58.4  0.1740   67.6  0.1051  -98.3
 1.520  0.5307  150.2   2.366   58.0  0.1762   67.4  0.1049  -99.0
 1.540  0.5307  149.7   2.339   57.5  0.1784   67.2  0.1047  -99.7
 1.560  0.5307  149.1   2.313   57.1  0.1805   67.0  0.1046 -100.5
 1.580  0.5308  148.6   2.287   56.6  0.1827   66.8  0.1044 -101.2
 1.600  0.5310  148.0   2.261   56.1  0.1849   66.6  0.1043 -101.9
 1.620  0.5322  147.6   2.236   55.7  0.1871   66.4  0.1056 -103.1
 1.640  0.5335  147.2   2.212   55.2  0.1893   66.2  0.1070 -104.4
 1.660  0.5348  146.7   2.187   54.8  0.1915   66.0  0.1085 -105.5
 1.680  0.5361  146.3   2.163   54.4  0.1937   65.9  0.1100 -106.7
 1.700  0.5374  145.9   2.139   53.9  0.1959   65.7  0.1115 -107.8
 1.720  0.5379  145.5   2.118   53.5  0.1980   65.5  0.1128 -108.2
 1.740  0.5384  145.1   2.097   53.1  0.2001   65.3  0.1140 -108.5
 1.760  0.5390  144.7   2.077   52.7  0.2023   65.1  0.1153 -108.8
 1.780  0.5396  144.3   2.056   52.3  0.2044   64.9  0.1165 -109.2
 1.800  0.5402  143.9   2.036   51.9  0.2065   64.7  0.1178 -109.5
 1.820  0.5402  143.5   2.017   51.5  0.2089   64.5  0.1177 -110.1
 1.840  0.5403  143.0   1.998   51.1  0.2113   64.3  0.1176 -110.7
 1.860  0.5403  142.6   1.979   50.7  0.2136   64.1  0.1175 -111.4
 1.880  0.5405  142.1   1.961   50.2  0.2160   63.9  0.1175 -112.0
 1.900  0.5406  141.7   1.942   49.8  0.2184   63.7  0.1174 -112.6
 1.920  0.5417  141.2   1.924   49.4  0.2204   63.5  0.1191 -113.4
 1.940  0.5428  140.8   1.906   49.0  0.2224   63.3  0.1209 -114.2
 1.960  0.5440  140.3   1.889   48.6  0.2245   63.1  0.1227 -114.9
 1.980  0.5452  139.9   1.871   48.1  0.2265   62.9  0.1245 -115.7
 2.000  0.5464  139.4   1.854   47.7  0.2285   62.7  0.1263 -116.4
 2.020  0.5467  139.0   1.840   47.3  0.2307   62.5  0.1267 -116.9
 2.040  0.5470  138.7   1.825   47.0  0.2329   62.3  0.1271 -117.4
 2.060  0.5474  138.3   1.811   46.6  0.2351   62.1  0.1275 -117.9
 2.080  0.5477  137.9   1.797   46.3  0.2373   61.9  0.1279 -118.4
 2.100  0.5481  137.5   1.783   45.9  0.2395   61.7  0.1283 -118.8
 2.120  0.5485  137.2   1.768   45.5  0.2417   61.5  0.1287 -119.3
 2.140  0.5490  136.8   1.754   45.1  0.2439   61.3  0.1291 -119.8
 2.160  0.5494  136.4   1.741   44.7  0.2461   61.2  0.1296 -120.3
 2.180  0.5499  136.1   1.727   44.3  0.2483   61.0  0.1300 -120.7
 2.200  0.5504  135.7   1.713   43.9  0.2505   60.8  0.1305 -121.2
 2.220  0.5513  135.3   1.700   43.6  0.2526   60.6  0.1317 -121.7
 2.240  0.5523  134.9   1.688   43.2  0.2546   60.4  0.1330 -122.3
 2.260  0.5533  134.5   1.676   42.8  0.2567   60.1  0.1342 -122.8
 2.280  0.5543  134.1   1.663   42.5  0.2587   59.9  0.1355 -123.3
 2.300  0.5553  133.7   1.651   42.1  0.2608   59.7  0.1367 -123.8
 2.320  0.5564  133.3   1.639   41.7  0.2629   59.5  0.1380 -124.3
 2.340  0.5575  132.9   1.627   41.4  0.2650   59.3  0.1393 -124.8
 2.360  0.5586  132.5   1.615   41.0  0.2670   59.1  0.1406 -125.3
 2.380  0.5597  132.1   1.603   40.6  0.2691   58.9  0.1419 -125.7
 2.400  0.5609  131.7   1.591   40.2  0.2712   58.7  0.1432 -126.2
 2.420  0.5615  131.3   1.581   39.8  0.2733   58.4  0.1440 -127.1
 2.440  0.5621  130.8   1.570   39.5  0.2754   58.2  0.1449 -127.9
 2.460  0.5627  130.4   1.560   39.1  0.2774   57.9  0.1457 -128.8
 2.480  0.5634  129.9   1.550   38.7  0.2795   57.7  0.1466 -129.6
 2.500  0.5641  129.5   1.540   38.4  0.2816   57.5  0.1476 -130.4
 2.520  0.5649  129.0   1.530   38.0  0.2837   57.2  0.1485 -131.2
 2.540  0.5657  128.6   1.520   37.6  0.2858   57.0  0.1495 -132.1
 2.560  0.5665  128.2   1.510   37.2  0.2880   56.8  0.1506 -132.8
 2.580  0.5673  127.7   1.500   36.8  0.2901   56.5  0.1516 -133.6
 2.600  0.5682  127.3   1.490   36.4  0.2922   56.3  0.1527 -134.4
 2.620  0.5691  127.0   1.482   36.1  0.2943   56.1  0.1535 -134.9
 2.640  0.5700  126.6   1.473   35.8  0.2965   55.9  0.1543 -135.4
 2.660  0.5709  126.3   1.465   35.4  0.2986   55.6  0.1551 -135.8
 2.680  0.5719  126.0   1.457   35.1  0.3008   55.4  0.1559 -136.3
 2.700  0.5729  125.6   1.448   34.7  0.3029   55.2  0.1568 -136.8
 2.720  0.5739  125.3   1.440   34.4  0.3051   55.0  0.1576 -137.2
 2.740  0.5749  125.0   1.432   34.1  0.3073   54.8  0.1585 -137.7
 2.760  0.5759  124.7   1.424   33.7  0.3094   54.6  0.1593 -138.1
 2.780  0.5769  124.3   1.416   33.4  0.3116   54.4  0.1602 -138.6
 2.800  0.5780  124.0   1.408   33.0  0.3138   54.2  0.1611 -139.0
 2.820  0.5783  123.6   1.400   32.7  0.3157   54.0  0.1623 -139.5
 2.840  0.5786  123.2   1.393   32.3  0.3175   53.8  0.1634 -140.0
 2.860  0.5789  122.8   1.386   32.0  0.3194   53.5  0.1646 -140.5
 2.880  0.5793  122.4   1.378   31.7  0.3212   53.3  0.1658 -141.0
 2.900  0.5797  122.0   1.371   31.3  0.3231   53.1  0.1671 -141.4
 2.920  0.5801  121.7   1.364   31.0  0.3250   52.9  0.1683 -141.9
 2.940  0.5805  121.3   1.356   30.7  0.3268   52.7  0.1695 -142.4
 2.960  0.5810  120.9   1.349   30.3  0.3287   52.5  0.1708 -142.8
 2.980  0.5815  120.5   1.342   30.0  0.3306   52.3  0.1720 -143.3
 3.000  0.5820  120.1   1.335   29.6  0.3325   52.1  0.1733 -143.7
 3.100  0.5860  118.3   1.304   28.1  0.3418   50.8  0.1794 -147.0
 3.200  0.5906  116.5   1.273   26.6  0.3513   49.6  0.1860 -150.0
 3.300  0.5958  114.8   1.244   25.0  0.3609   48.5  0.1932 -152.8
 3.400  0.6015  113.1   1.215   23.4  0.3707   47.4  0.2007 -155.5
 3.500  0.6077  111.4   1.188   21.6  0.3806   46.4  0.2087 -157.9
 3.600  0.6096  109.8   1.163   20.3  0.3888   45.1  0.2152 -161.1
 3.700  0.6120  108.2   1.139   19.0  0.3971   43.9  0.2223 -164.0
 3.800  0.6148  106.6   1.116   17.6  0.4056   42.8  0.2300 -166.8
 3.900  0.6181  105.0   1.093   16.1  0.4143   41.7  0.2382 -169.4
 4.000  0.6219  103.5   1.071   14.6  0.4231   40.6  0.2468 -171.8
 4.100  0.6253  102.0   1.052   13.5  0.4304   39.4  0.2530 -174.1
 4.200  0.6291  100.6   1.032   12.3  0.4380   38.2  0.2596 -176.2
 4.300  0.6332   99.1   1.014   11.1  0.4457   37.0  0.2666 -178.3
 4.400  0.6378   97.7   0.996    9.9  0.4535   35.9  0.2738  179.7
 4.500  0.6428   96.3   0.978    8.6  0.4616   34.8  0.2814  177.9
 4.600  0.6440   95.0   0.963    7.6  0.4678   33.7  0.2867  175.9
 4.700  0.6455   93.8   0.949    6.6  0.4743   32.6  0.2924  173.9
 4.800  0.6474   92.6   0.935    5.5  0.4809   31.5  0.2983  172.0
 4.900  0.6495   91.3   0.921    4.4  0.4876   30.5  0.3046  170.2
 5.000  0.6519   90.1   0.908    3.3  0.4945   29.5  0.3112  168.5
 5.100  0.6546   88.9   0.895    2.5  0.5002   28.5  0.3154  166.4
 5.200  0.6575   87.7   0.883    1.6  0.5061   27.4  0.3200  164.3
 5.300  0.6608   86.5   0.871    0.7  0.5122   26.4  0.3251  162.3
 5.400  0.6643   85.4   0.859   -0.2  0.5184   25.5  0.3305  160.3
 5.500  0.6681   84.2   0.847   -1.1  0.5247   24.5  0.3363  158.4
 5.600  0.6691   83.1   0.839   -1.9  0.5304   23.4  0.3405  156.5
 5.700  0.6704   82.0   0.830   -2.7  0.5363   22.4  0.3450  154.7
 5.800  0.6719   80.9   0.822   -3.5  0.5424   21.4  0.3498  153.0
 5.900  0.6736   79.9   0.815   -4.3  0.5486   20.4  0.3550  151.3
 6.000  0.6756   78.8   0.807   -5.2  0.5550   19.4  0.3605  149.6
!
!  f       NFmin   Gammaopt  rn/50
! GHz       dB    MAG  ANG    -
!
! noise parameter not available yet for this operation point!
!
! (c) 2015  Infineon Technologies AG, Munich
