! Infineon Technologies  Discrete & RF Semiconductors
! BFR93A
! VCE =  6.0 V,  IC =  2.5 mA
! Common Emitter S-Parameters:                            Nov 2015
# GHz  S  MA  R  50
!  f         S11            S21            S12            S22
! GHz     MAG   ANG      MAG   ANG      MAG   ANG      MAG   ANG
 0.010  0.9151   -3.4   8.181  177.3  0.0038   87.3  0.9954   -1.4
 0.015  0.9121   -5.0   8.172  176.1  0.0057   86.6  0.9944   -2.0
 0.020  0.9099   -6.6   8.166  174.8  0.0077   86.2  0.9935   -2.7
 0.025  0.9063   -8.2   8.137  173.6  0.0095   84.5  0.9913   -3.3
 0.030  0.9035   -9.9   8.112  172.4  0.0114   83.3  0.9892   -4.0
 0.035  0.9015  -11.6   8.091  171.1  0.0132   82.5  0.9873   -4.6
 0.040  0.9002  -13.2   8.074  169.9  0.0150   81.9  0.9854   -5.2
 0.045  0.8996  -14.9   8.060  168.6  0.0169   81.4  0.9837   -5.9
 0.050  0.8999  -16.6   8.050  167.4  0.0187   81.0  0.9821   -6.5
 0.055  0.8933  -18.1   8.000  166.3  0.0204   79.6  0.9781   -7.1
 0.060  0.8874  -19.7   7.953  165.2  0.0220   78.3  0.9743   -7.6
 0.065  0.8821  -21.2   7.909  164.2  0.0237   77.3  0.9705   -8.2
 0.070  0.8775  -22.8   7.868  163.0  0.0254   76.4  0.9669   -8.8
 0.075  0.8736  -24.4   7.829  161.9  0.0271   75.6  0.9633   -9.4
 0.080  0.8703  -26.0   7.794  160.8  0.0288   74.8  0.9599  -10.0
 0.085  0.8677  -27.6   7.762  159.7  0.0306   74.2  0.9565  -10.6
 0.090  0.8659  -29.2   7.733  158.5  0.0323   73.7  0.9533  -11.2
 0.095  0.8647  -30.9   7.707  157.4  0.0340   73.2  0.9501  -11.8
 0.100  0.8642  -32.5   7.684  156.2  0.0357   72.7  0.9471  -12.4
 0.105  0.8569  -33.9   7.621  155.2  0.0371   71.7  0.9418  -12.9
 0.110  0.8500  -35.3   7.559  154.2  0.0385   70.7  0.9366  -13.4
 0.115  0.8437  -36.7   7.501  153.2  0.0398   69.8  0.9315  -13.8
 0.120  0.8379  -38.2   7.444  152.1  0.0412   69.0  0.9265  -14.3
 0.125  0.8327  -39.6   7.390  151.1  0.0427   68.2  0.9215  -14.8
 0.130  0.8280  -41.1   7.339  150.0  0.0441   67.5  0.9166  -15.3
 0.135  0.8239  -42.6   7.290  148.9  0.0455   66.8  0.9117  -15.8
 0.140  0.8204  -44.1   7.244  147.8  0.0469   66.2  0.9069  -16.4
 0.145  0.8174  -45.7   7.201  146.7  0.0484   65.6  0.9022  -16.9
 0.150  0.8150  -47.2   7.160  145.6  0.0498   65.0  0.8976  -17.4
 0.155  0.8075  -48.5   7.099  144.8  0.0509   64.3  0.8924  -17.8
 0.160  0.8004  -49.7   7.039  143.9  0.0520   63.6  0.8872  -18.1
 0.165  0.7938  -51.0   6.981  143.0  0.0531   63.0  0.8820  -18.5
 0.170  0.7875  -52.4   6.925  142.2  0.0542   62.3  0.8768  -18.8
 0.175  0.7817  -53.7   6.870  141.3  0.0553   61.8  0.8717  -19.2
 0.180  0.7763  -55.1   6.817  140.4  0.0565   61.2  0.8667  -19.6
 0.185  0.7714  -56.5   6.766  139.4  0.0576   60.6  0.8617  -19.9
 0.190  0.7669  -57.9   6.717  138.5  0.0587   60.1  0.8567  -20.3
 0.195  0.7629  -59.3   6.669  137.6  0.0599   59.6  0.8517  -20.7
 0.200  0.7593  -60.7   6.623  136.6  0.0610   59.1  0.8468  -21.1
 0.220  0.7361  -65.4   6.392  133.5  0.0644   57.0  0.8270  -22.3
 0.240  0.7182  -70.3   6.181  130.2  0.0679   55.2  0.8076  -23.5
 0.260  0.7007  -74.9   5.977  127.2  0.0710   53.5  0.7892  -24.5
 0.280  0.6821  -79.2   5.770  124.6  0.0736   52.1  0.7717  -25.3
 0.300  0.6675  -83.6   5.576  121.9  0.0763   50.8  0.7543  -26.1
 0.320  0.6474  -87.0   5.380  119.9  0.0782   49.7  0.7403  -26.6
 0.340  0.6297  -90.6   5.190  117.8  0.0800   48.7  0.7265  -27.2
 0.360  0.6146  -94.4   5.008  115.5  0.0819   47.7  0.7126  -27.7
 0.380  0.6023  -98.3   4.835  113.1  0.0839   46.8  0.6989  -28.3
 0.400  0.5930 -102.4   4.671  110.5  0.0858   45.9  0.6852  -28.9
 0.420  0.5795 -105.3   4.527  108.9  0.0871   45.3  0.6754  -29.2
 0.440  0.5676 -108.3   4.387  107.3  0.0883   44.7  0.6656  -29.6
 0.450  0.5622 -109.8   4.318  106.4  0.0890   44.4  0.6608  -29.8
 0.460  0.5573 -111.4   4.250  105.5  0.0896   44.2  0.6559  -29.9
 0.480  0.5487 -114.7   4.118  103.6  0.0909   43.6  0.6462  -30.3
 0.500  0.5419 -118.0   3.991  101.6  0.0922   43.1  0.6365  -30.7
 0.520  0.5331 -120.5   3.881  100.3  0.0932   42.9  0.6297  -30.9
 0.540  0.5255 -123.1   3.774   98.9  0.0942   42.7  0.6230  -31.1
 0.560  0.5189 -125.8   3.669   97.4  0.0951   42.5  0.6162  -31.3
 0.580  0.5134 -128.5   3.567   95.9  0.0961   42.4  0.6094  -31.6
 0.600  0.5092 -131.3   3.467   94.2  0.0971   42.2  0.6027  -31.8
 0.620  0.5034 -133.4   3.382   93.1  0.0979   42.2  0.5978  -32.0
 0.640  0.4983 -135.6   3.298   91.9  0.0987   42.2  0.5929  -32.3
 0.660  0.4939 -137.8   3.215   90.6  0.0996   42.2  0.5880  -32.5
 0.680  0.4903 -140.1   3.134   89.3  0.1004   42.2  0.5831  -32.8
 0.700  0.4875 -142.4   3.055   87.9  0.1012   42.2  0.5782  -33.0
 0.720  0.4839 -144.3   2.988   86.9  0.1019   42.4  0.5745  -33.3
 0.740  0.4809 -146.1   2.923   85.8  0.1026   42.5  0.5708  -33.5
 0.760  0.4783 -148.0   2.858   84.7  0.1033   42.7  0.5671  -33.8
 0.780  0.4764 -150.0   2.794   83.6  0.1040   42.8  0.5635  -34.0
 0.800  0.4749 -151.9   2.732   82.4  0.1047   43.0  0.5598  -34.3
 0.820  0.4722 -153.6   2.677   81.5  0.1054   43.2  0.5569  -34.6
 0.840  0.4699 -155.4   2.622   80.6  0.1062   43.4  0.5540  -34.9
 0.860  0.4681 -157.2   2.568   79.6  0.1069   43.5  0.5511  -35.1
 0.880  0.4668 -159.0   2.515   78.6  0.1077   43.7  0.5482  -35.4
 0.900  0.4659 -160.8   2.463   77.6  0.1084   43.9  0.5453  -35.7
 0.920  0.4641 -162.3   2.419   76.7  0.1092   44.2  0.5433  -36.0
 0.940  0.4625 -163.8   2.375   75.9  0.1100   44.4  0.5412  -36.3
 0.960  0.4613 -165.3   2.332   74.9  0.1109   44.7  0.5392  -36.6
 0.980  0.4604 -166.9   2.290   74.0  0.1117   44.9  0.5372  -36.9
 1.000  0.4599 -168.4   2.248   73.0  0.1125   45.2  0.5352  -37.2
 1.020  0.4601 -169.8   2.212   72.2  0.1134   45.5  0.5335  -37.6
 1.040  0.4605 -171.1   2.177   71.4  0.1143   45.8  0.5317  -37.9
 1.060  0.4612 -172.5   2.142   70.5  0.1153   46.1  0.5300  -38.3
 1.080  0.4622 -173.8   2.108   69.6  0.1162   46.3  0.5284  -38.6
 1.100  0.4634 -175.2   2.074   68.7  0.1171   46.6  0.5267  -39.0
 1.120  0.4634 -176.5   2.044   68.0  0.1182   46.9  0.5252  -39.4
 1.140  0.4636 -177.8   2.014   67.2  0.1192   47.3  0.5236  -39.8
 1.160  0.4641 -179.1   1.985   66.4  0.1203   47.6  0.5221  -40.1
 1.180  0.4648  179.6   1.956   65.6  0.1213   47.9  0.5207  -40.5
 1.200  0.4658  178.3   1.928   64.8  0.1224   48.2  0.5192  -40.9
 1.220  0.4651  177.1   1.901   64.1  0.1235   48.5  0.5181  -41.3
 1.240  0.4646  176.0   1.873   63.3  0.1245   48.9  0.5171  -41.7
 1.260  0.4643  174.8   1.847   62.5  0.1256   49.2  0.5161  -42.0
 1.280  0.4642  173.7   1.820   61.7  0.1266   49.5  0.5151  -42.4
 1.300  0.4643  172.5   1.794   60.9  0.1277   49.8  0.5141  -42.8
 1.320  0.4644  171.4   1.771   60.2  0.1289   50.2  0.5133  -43.2
 1.340  0.4646  170.4   1.748   59.6  0.1300   50.5  0.5124  -43.6
 1.360  0.4650  169.3   1.725   58.9  0.1312   50.8  0.5116  -44.0
 1.380  0.4656  168.3   1.702   58.1  0.1323   51.2  0.5108  -44.4
 1.400  0.4663  167.2   1.680   57.4  0.1335   51.5  0.5101  -44.8
 1.420  0.4671  166.2   1.659   56.7  0.1348   51.8  0.5090  -45.3
 1.440  0.4680  165.2   1.637   56.1  0.1361   52.1  0.5079  -45.7
 1.460  0.4691  164.2   1.616   55.4  0.1374   52.4  0.5069  -46.2
 1.480  0.4703  163.2   1.596   54.6  0.1387   52.7  0.5059  -46.6
 1.500  0.4717  162.2   1.575   53.9  0.1400   53.0  0.5049  -47.1
 1.520  0.4729  161.3   1.559   53.3  0.1415   53.3  0.5039  -47.6
 1.540  0.4741  160.5   1.543   52.7  0.1430   53.5  0.5029  -48.1
 1.560  0.4755  159.6   1.527   52.1  0.1445   53.8  0.5020  -48.6
 1.580  0.4770  158.7   1.511   51.4  0.1460   54.1  0.5011  -49.1
 1.600  0.4786  157.9   1.496   50.8  0.1475   54.3  0.5002  -49.6
 1.620  0.4798  157.0   1.482   50.2  0.1491   54.6  0.4996  -50.1
 1.640  0.4811  156.2   1.468   49.6  0.1506   54.8  0.4990  -50.6
 1.660  0.4825  155.3   1.454   49.0  0.1522   55.1  0.4984  -51.1
 1.680  0.4841  154.4   1.440   48.3  0.1537   55.4  0.4979  -51.6
 1.700  0.4857  153.6   1.427   47.7  0.1553   55.6  0.4974  -52.1
 1.720  0.4865  152.8   1.413   47.1  0.1571   55.8  0.4971  -52.6
 1.740  0.4873  152.0   1.399   46.6  0.1589   56.0  0.4969  -53.1
 1.760  0.4882  151.3   1.386   46.0  0.1607   56.2  0.4967  -53.7
 1.780  0.4893  150.5   1.372   45.4  0.1625   56.3  0.4965  -54.2
 1.800  0.4904  149.7   1.359   44.8  0.1643   56.5  0.4964  -54.7
 1.820  0.4909  148.9   1.346   44.3  0.1662   56.8  0.4958  -55.2
 1.840  0.4915  148.1   1.334   43.7  0.1681   57.0  0.4953  -55.7
 1.860  0.4922  147.4   1.321   43.2  0.1699   57.2  0.4948  -56.2
 1.880  0.4929  146.6   1.309   42.6  0.1718   57.5  0.4944  -56.7
 1.900  0.4938  145.8   1.297   42.0  0.1737   57.7  0.4940  -57.2
 1.920  0.4952  145.1   1.287   41.5  0.1756   57.8  0.4934  -57.7
 1.940  0.4967  144.3   1.277   40.9  0.1776   57.9  0.4928  -58.3
 1.960  0.4982  143.6   1.267   40.4  0.1795   58.1  0.4922  -58.8
 1.980  0.4999  142.9   1.257   39.9  0.1815   58.2  0.4918  -59.4
 2.000  0.5016  142.2   1.247   39.3  0.1834   58.3  0.4913  -59.9
 2.020  0.5028  141.5   1.237   38.8  0.1856   58.4  0.4908  -60.5
 2.040  0.5041  140.8   1.227   38.3  0.1878   58.5  0.4903  -61.0
 2.060  0.5054  140.1   1.218   37.9  0.1901   58.6  0.4898  -61.6
 2.080  0.5068  139.4   1.208   37.4  0.1923   58.6  0.4894  -62.1
 2.100  0.5083  138.7   1.198   36.9  0.1945   58.7  0.4891  -62.7
 2.120  0.5099  138.0   1.189   36.3  0.1967   58.8  0.4888  -63.3
 2.140  0.5115  137.3   1.179   35.8  0.1989   58.9  0.4885  -63.8
 2.160  0.5133  136.6   1.170   35.3  0.2012   59.0  0.4883  -64.4
 2.180  0.5150  136.0   1.161   34.7  0.2034   59.0  0.4881  -64.9
 2.200  0.5169  135.3   1.152   34.2  0.2056   59.1  0.4880  -65.5
 2.220  0.5174  134.7   1.144   33.8  0.2081   59.1  0.4876  -66.1
 2.240  0.5180  134.1   1.136   33.4  0.2106   59.1  0.4873  -66.7
 2.260  0.5186  133.5   1.128   33.0  0.2130   59.1  0.4871  -67.3
 2.280  0.5194  132.8   1.120   32.6  0.2155   59.1  0.4869  -67.9
 2.300  0.5201  132.2   1.113   32.1  0.2180   59.2  0.4867  -68.5
 2.320  0.5209  131.6   1.105   31.7  0.2205   59.2  0.4866  -69.1
 2.340  0.5218  131.0   1.097   31.3  0.2230   59.2  0.4866  -69.7
 2.360  0.5228  130.4   1.090   30.8  0.2254   59.2  0.4866  -70.3
 2.380  0.5237  129.8   1.082   30.4  0.2279   59.2  0.4867  -70.9
 2.400  0.5248  129.2   1.075   29.9  0.2304   59.2  0.4868  -71.5
 2.420  0.5262  128.6   1.067   29.5  0.2330   59.2  0.4862  -72.1
 2.440  0.5277  127.9   1.060   29.1  0.2357   59.1  0.4857  -72.8
 2.460  0.5292  127.3   1.052   28.6  0.2383   59.1  0.4852  -73.4
 2.480  0.5308  126.7   1.045   28.2  0.2410   59.0  0.4848  -74.0
 2.500  0.5325  126.1   1.038   27.7  0.2436   59.0  0.4844  -74.7
 2.520  0.5342  125.4   1.030   27.3  0.2463   58.9  0.4842  -75.3
 2.540  0.5360  124.8   1.023   26.8  0.2489   58.9  0.4839  -76.0
 2.560  0.5378  124.2   1.016   26.4  0.2516   58.9  0.4838  -76.6
 2.580  0.5397  123.6   1.009   25.9  0.2542   58.8  0.4836  -77.3
 2.600  0.5417  123.0   1.002   25.4  0.2569   58.8  0.4836  -77.9
 2.620  0.5423  122.4   0.997   25.0  0.2597   58.6  0.4828  -78.6
 2.640  0.5431  121.8   0.991   24.6  0.2625   58.5  0.4821  -79.3
 2.660  0.5438  121.2   0.986   24.2  0.2653   58.3  0.4814  -80.0
 2.680  0.5446  120.7   0.981   23.9  0.2681   58.2  0.4808  -80.7
 2.700  0.5455  120.1   0.975   23.5  0.2709   58.1  0.4803  -81.4
 2.720  0.5464  119.5   0.970   23.1  0.2737   57.9  0.4799  -82.1
 2.740  0.5474  118.9   0.965   22.6  0.2765   57.8  0.4795  -82.8
 2.760  0.5485  118.3   0.960   22.2  0.2793   57.7  0.4792  -83.5
 2.780  0.5495  117.8   0.955   21.8  0.2821   57.5  0.4790  -84.2
 2.800  0.5507  117.2   0.950   21.4  0.2849   57.4  0.4788  -84.9
 2.820  0.5517  116.6   0.945   21.1  0.2879   57.2  0.4784  -85.6
 2.840  0.5527  116.0   0.940   20.7  0.2909   57.1  0.4781  -86.3
 2.860  0.5538  115.5   0.935   20.4  0.2939   56.9  0.4778  -87.1
 2.880  0.5550  114.9   0.930   20.1  0.2970   56.7  0.4777  -87.8
 2.900  0.5562  114.3   0.925   19.7  0.3000   56.6  0.4776  -88.5
 2.920  0.5575  113.7   0.920   19.4  0.3030   56.4  0.4775  -89.2
 2.940  0.5588  113.2   0.915   19.1  0.3060   56.2  0.4776  -89.9
 2.960  0.5602  112.6   0.910   18.7  0.3090   56.1  0.4777  -90.7
 2.980  0.5616  112.1   0.905   18.4  0.3121   55.9  0.4779  -91.4
 3.000  0.5631  111.5   0.900   18.0  0.3151   55.8  0.4782  -92.1
!
!  f       NFmin   Gammaopt  rn/50
! GHz       dB    MAG  ANG    -
!
! noise parameter not available yet for this operation point!
!
! (c) 2015  Infineon Technologies AG, Munich
