! Infineon Technologies  Discrete & RF Semiconductors
! BFR93AW
! VCE =  6.0 V,  IC =  13 mA
! Common Emitter S-Parameters:                            Nov 2015
# GHz  S  MA  R  50
!  f         S11            S21            S12            S22
! GHz     MAG   ANG      MAG   ANG      MAG   ANG      MAG   ANG
 0.030  0.6363  -26.8  32.789  163.9  0.0084   77.5  0.9456  -11.5
 0.035  0.6301  -30.7  32.307  161.4  0.0098   75.6  0.9325  -13.2
 0.040  0.6269  -34.6  31.889  158.8  0.0112   74.1  0.9202  -15.0
 0.045  0.6267  -38.6  31.537  156.2  0.0126   73.0  0.9088  -16.8
 0.050  0.6295  -42.5  31.253  153.5  0.0140   72.1  0.8984  -18.7
 0.055  0.6144  -45.5  30.541  151.9  0.0149   70.6  0.8814  -19.7
 0.060  0.6011  -48.6  29.853  150.3  0.0159   69.2  0.8647  -20.7
 0.065  0.5896  -51.8  29.190  148.6  0.0168   68.0  0.8483  -21.8
 0.070  0.5800  -55.1  28.555  146.8  0.0178   66.9  0.8323  -23.0
 0.075  0.5725  -58.6  27.949  144.9  0.0187   66.0  0.8166  -24.1
 0.080  0.5671  -62.1  27.373  143.0  0.0197   65.1  0.8012  -25.3
 0.085  0.5639  -65.7  26.831  141.0  0.0206   64.3  0.7861  -26.6
 0.090  0.5629  -69.3  26.323  138.9  0.0216   63.6  0.7715  -27.9
 0.095  0.5641  -72.9  25.852  136.7  0.0226   62.9  0.7573  -29.3
 0.100  0.5676  -76.5  25.421  134.4  0.0236   62.3  0.7436  -30.7
 0.105  0.5586  -78.7  24.848  133.4  0.0241   61.5  0.7303  -31.1
 0.110  0.5505  -80.9  24.283  132.3  0.0246   60.8  0.7170  -31.6
 0.115  0.5432  -83.2  23.727  131.2  0.0251   60.1  0.7038  -32.1
 0.120  0.5369  -85.6  23.180  130.1  0.0257   59.4  0.6907  -32.6
 0.125  0.5315  -88.0  22.643  128.9  0.0262   58.8  0.6776  -33.1
 0.130  0.5271  -90.5  22.117  127.6  0.0267   58.2  0.6645  -33.6
 0.135  0.5237  -93.0  21.603  126.2  0.0272   57.6  0.6515  -34.2
 0.140  0.5213  -95.6  21.101  124.8  0.0278   57.0  0.6386  -34.8
 0.145  0.5199  -98.1  20.612  123.3  0.0283   56.4  0.6258  -35.4
 0.150  0.5196 -100.7  20.137  121.8  0.0289   55.9  0.6130  -36.0
 0.155  0.5150 -102.2  19.749  121.1  0.0294   55.9  0.6042  -36.2
 0.160  0.5107 -103.7  19.365  120.4  0.0298   55.9  0.5954  -36.4
 0.165  0.5068 -105.2  18.983  119.7  0.0303   55.8  0.5866  -36.6
 0.170  0.5033 -106.8  18.605  118.9  0.0307   55.8  0.5779  -36.9
 0.175  0.5002 -108.4  18.230  118.1  0.0312   55.8  0.5691  -37.1
 0.180  0.4974 -110.0  17.859  117.2  0.0317   55.8  0.5604  -37.4
 0.185  0.4950 -111.6  17.492  116.4  0.0321   55.8  0.5516  -37.6
 0.190  0.4930 -113.2  17.129  115.4  0.0326   55.7  0.5429  -37.9
 0.195  0.4915 -114.9  16.771  114.5  0.0330   55.7  0.5342  -38.1
 0.200  0.4903 -116.5  16.418  113.5  0.0335   55.7  0.5255  -38.4
 0.220  0.4787 -121.5  15.296  111.3  0.0350   55.6  0.5004  -38.5
 0.240  0.4709 -126.7  14.201  108.7  0.0365   55.5  0.4753  -38.6
 0.260  0.4664 -131.1  13.263  106.5  0.0380   55.8  0.4547  -38.7
 0.280  0.4637 -134.7  12.467  104.7  0.0393   56.3  0.4386  -38.6
 0.300  0.4629 -138.4  11.685  102.7  0.0406   56.8  0.4224  -38.6
 0.320  0.4584 -141.0  11.137  101.6  0.0420   57.4  0.4117  -38.3
 0.340  0.4549 -143.7  10.593  100.4  0.0434   58.0  0.4010  -38.0
 0.360  0.4524 -146.5  10.054   99.0  0.0448   58.6  0.3902  -37.8
 0.380  0.4510 -149.2   9.522   97.5  0.0463   59.0  0.3795  -37.5
 0.400  0.4506 -152.0   8.996   95.9  0.0477   59.5  0.3688  -37.2
 0.420  0.4491 -153.8   8.657   95.0  0.0492   60.0  0.3624  -37.0
 0.440  0.4480 -155.7   8.320   94.1  0.0507   60.6  0.3560  -36.9
 0.450  0.4476 -156.6   8.153   93.6  0.0515   60.8  0.3528  -36.8
 0.460  0.4474 -157.5   7.986   93.1  0.0523   61.0  0.3496  -36.7
 0.480  0.4472 -159.4   7.655   91.9  0.0538   61.5  0.3432  -36.5
 0.500  0.4476 -161.3   7.327   90.7  0.0553   61.9  0.3368  -36.3
 0.520  0.4474 -162.6   7.090   90.0  0.0569   62.3  0.3332  -36.2
 0.540  0.4475 -164.0   6.853   89.2  0.0585   62.6  0.3297  -36.1
 0.560  0.4478 -165.3   6.618   88.4  0.0600   63.0  0.3261  -36.0
 0.580  0.4483 -166.7   6.385   87.5  0.0616   63.3  0.3226  -35.9
 0.600  0.4491 -168.0   6.153   86.6  0.0632   63.6  0.3190  -35.8
 0.620  0.4483 -169.2   5.986   86.0  0.0647   63.9  0.3165  -35.9
 0.640  0.4478 -170.4   5.819   85.3  0.0663   64.2  0.3140  -35.9
 0.660  0.4474 -171.6   5.653   84.6  0.0678   64.5  0.3115  -36.0
 0.680  0.4473 -172.8   5.489   83.8  0.0694   64.7  0.3090  -36.0
 0.700  0.4473 -174.0   5.325   83.0  0.0709   65.0  0.3065  -36.1
 0.720  0.4481 -175.0   5.194   82.4  0.0726   65.2  0.3040  -36.3
 0.740  0.4491 -176.1   5.065   81.7  0.0743   65.4  0.3015  -36.5
 0.760  0.4503 -177.1   4.935   81.1  0.0759   65.6  0.2990  -36.6
 0.780  0.4516 -178.2   4.807   80.4  0.0776   65.8  0.2965  -36.8
 0.800  0.4530 -179.2   4.679   79.6  0.0793   66.0  0.2940  -37.0
 0.820  0.4527 -180.0   4.579   79.1  0.0810   66.2  0.2931  -37.1
 0.840  0.4526  179.2   4.480   78.5  0.0827   66.4  0.2923  -37.2
 0.860  0.4525  178.4   4.381   77.9  0.0843   66.6  0.2914  -37.3
 0.880  0.4525  177.6   4.283   77.3  0.0860   66.8  0.2906  -37.4
 0.900  0.4526  176.8   4.185   76.6  0.0877   67.0  0.2897  -37.5
 0.920  0.4528  176.0   4.104   76.1  0.0893   67.2  0.2886  -37.7
 0.940  0.4531  175.1   4.023   75.5  0.0910   67.3  0.2874  -38.0
 0.960  0.4535  174.3   3.943   74.9  0.0926   67.4  0.2863  -38.2
 0.980  0.4540  173.4   3.863   74.3  0.0943   67.6  0.2852  -38.5
 1.000  0.4546  172.6   3.783   73.7  0.0959   67.7  0.2841  -38.7
 1.020  0.4555  171.9   3.718   73.2  0.0976   67.8  0.2827  -39.2
 1.040  0.4564  171.2   3.652   72.6  0.0994   67.9  0.2814  -39.6
 1.060  0.4574  170.6   3.588   72.1  0.1011   67.9  0.2800  -40.1
 1.080  0.4585  169.9   3.523   71.5  0.1029   68.0  0.2787  -40.6
 1.100  0.4596  169.2   3.459   70.9  0.1046   68.1  0.2774  -41.1
 1.120  0.4609  168.6   3.404   70.4  0.1063   68.1  0.2770  -41.4
 1.140  0.4622  167.9   3.349   69.9  0.1081   68.1  0.2766  -41.6
 1.160  0.4636  167.3   3.294   69.4  0.1098   68.2  0.2762  -41.9
 1.180  0.4651  166.7   3.240   68.9  0.1116   68.2  0.2758  -42.1
 1.200  0.4666  166.1   3.186   68.4  0.1133   68.2  0.2754  -42.4
 1.220  0.4663  165.5   3.141   67.9  0.1151   68.2  0.2750  -42.7
 1.240  0.4660  164.9   3.096   67.4  0.1169   68.2  0.2747  -43.0
 1.260  0.4658  164.3   3.051   66.9  0.1186   68.2  0.2744  -43.3
 1.280  0.4657  163.7   3.006   66.4  0.1204   68.2  0.2740  -43.6
 1.300  0.4656  163.1   2.962   65.9  0.1222   68.2  0.2737  -43.9
 1.320  0.4667  162.5   2.922   65.4  0.1240   68.2  0.2726  -44.5
 1.340  0.4678  161.9   2.882   64.9  0.1259   68.2  0.2716  -45.1
 1.360  0.4689  161.3   2.842   64.4  0.1277   68.2  0.2706  -45.7
 1.380  0.4701  160.7   2.802   63.9  0.1296   68.2  0.2696  -46.3
 1.400  0.4714  160.1   2.763   63.4  0.1314   68.2  0.2686  -46.9
 1.420  0.4724  159.6   2.728   62.9  0.1331   68.2  0.2685  -47.3
 1.440  0.4734  159.2   2.692   62.5  0.1349   68.2  0.2684  -47.7
 1.460  0.4745  158.7   2.657   62.0  0.1366   68.1  0.2683  -48.1
 1.480  0.4756  158.3   2.623   61.5  0.1384   68.1  0.2682  -48.5
 1.500  0.4767  157.8   2.588   61.0  0.1401   68.1  0.2681  -48.9
 1.520  0.4766  157.2   2.559   60.5  0.1418   68.1  0.2673  -49.3
 1.540  0.4766  156.5   2.529   60.1  0.1435   68.0  0.2666  -49.6
 1.560  0.4766  155.9   2.500   59.6  0.1452   68.0  0.2658  -50.0
 1.580  0.4767  155.2   2.472   59.1  0.1469   67.9  0.2651  -50.3
 1.600  0.4769  154.6   2.443   58.6  0.1486   67.9  0.2644  -50.7
 1.620  0.4781  154.1   2.416   58.1  0.1505   67.8  0.2639  -51.4
 1.640  0.4793  153.6   2.390   57.7  0.1524   67.7  0.2635  -52.1
 1.660  0.4806  153.0   2.364   57.2  0.1543   67.7  0.2631  -52.9
 1.680  0.4819  152.5   2.338   56.7  0.1562   67.6  0.2627  -53.6
 1.700  0.4833  152.0   2.312   56.2  0.1581   67.5  0.2624  -54.3
 1.720  0.4843  151.6   2.289   55.8  0.1600   67.5  0.2630  -54.7
 1.740  0.4854  151.2   2.266   55.4  0.1620   67.4  0.2636  -55.2
 1.760  0.4865  150.7   2.243   55.0  0.1639   67.4  0.2643  -55.6
 1.780  0.4876  150.3   2.221   54.5  0.1659   67.3  0.2649  -56.1
 1.800  0.4887  149.9   2.198   54.1  0.1678   67.3  0.2656  -56.5
 1.820  0.4889  149.4   2.177   53.7  0.1698   67.2  0.2651  -56.9
 1.840  0.4892  148.9   2.157   53.3  0.1718   67.2  0.2646  -57.3
 1.860  0.4895  148.5   2.136   52.9  0.1739   67.1  0.2641  -57.6
 1.880  0.4898  148.0   2.116   52.4  0.1759   67.1  0.2637  -58.0
 1.900  0.4902  147.5   2.096   52.0  0.1779   67.0  0.2632  -58.4
 1.920  0.4914  147.0   2.077   51.6  0.1797   66.9  0.2634  -59.1
 1.940  0.4927  146.4   2.058   51.1  0.1814   66.7  0.2636  -59.8
 1.960  0.4940  145.9   2.039   50.7  0.1832   66.6  0.2639  -60.4
 1.980  0.4954  145.3   2.020   50.3  0.1849   66.4  0.2642  -61.1
 2.000  0.4968  144.8   2.001   49.8  0.1867   66.3  0.2646  -61.8
 2.020  0.4971  144.4   1.985   49.4  0.1886   66.2  0.2645  -62.2
 2.040  0.4974  144.0   1.969   49.1  0.1906   66.1  0.2644  -62.6
 2.060  0.4978  143.5   1.953   48.7  0.1925   66.0  0.2643  -63.0
 2.080  0.4982  143.1   1.937   48.3  0.1944   65.9  0.2643  -63.4
 2.100  0.4986  142.7   1.921   47.9  0.1963   65.8  0.2642  -63.8
 2.120  0.4991  142.3   1.905   47.5  0.1983   65.7  0.2642  -64.3
 2.140  0.4995  141.9   1.889   47.1  0.2002   65.6  0.2642  -64.7
 2.160  0.5000  141.4   1.874   46.7  0.2021   65.5  0.2642  -65.1
 2.180  0.5005  141.0   1.858   46.2  0.2041   65.4  0.2642  -65.5
 2.200  0.5011  140.6   1.843   45.8  0.2060   65.3  0.2642  -65.9
 2.220  0.5023  140.1   1.829   45.4  0.2079   65.2  0.2646  -66.5
 2.240  0.5035  139.7   1.815   45.1  0.2099   65.0  0.2649  -67.0
 2.260  0.5048  139.3   1.801   44.7  0.2118   64.9  0.2653  -67.6
 2.280  0.5061  138.8   1.788   44.3  0.2137   64.8  0.2658  -68.2
 2.300  0.5074  138.4   1.774   44.0  0.2157   64.6  0.2662  -68.7
 2.320  0.5088  137.9   1.760   43.6  0.2176   64.5  0.2667  -69.3
 2.340  0.5102  137.5   1.747   43.2  0.2196   64.4  0.2672  -69.8
 2.360  0.5116  137.1   1.734   42.8  0.2215   64.2  0.2678  -70.4
 2.380  0.5130  136.6   1.720   42.4  0.2235   64.1  0.2683  -70.9
 2.400  0.5145  136.2   1.707   42.0  0.2254   64.0  0.2689  -71.5
 2.420  0.5151  135.7   1.695   41.6  0.2275   63.8  0.2684  -72.1
 2.440  0.5158  135.3   1.684   41.2  0.2295   63.7  0.2678  -72.8
 2.460  0.5165  134.8   1.673   40.8  0.2316   63.5  0.2674  -73.4
 2.480  0.5173  134.4   1.661   40.4  0.2337   63.3  0.2669  -74.1
 2.500  0.5181  133.9   1.650   40.0  0.2357   63.2  0.2665  -74.7
 2.520  0.5189  133.5   1.639   39.6  0.2378   63.0  0.2661  -75.4
 2.540  0.5197  133.0   1.628   39.2  0.2399   62.9  0.2658  -76.0
 2.560  0.5206  132.6   1.617   38.8  0.2419   62.7  0.2655  -76.7
 2.580  0.5215  132.1   1.606   38.3  0.2440   62.5  0.2652  -77.3
 2.600  0.5224  131.7   1.595   37.9  0.2461   62.4  0.2650  -78.0
 2.620  0.5236  131.3   1.586   37.6  0.2482   62.2  0.2652  -78.5
 2.640  0.5248  131.0   1.577   37.2  0.2502   62.1  0.2655  -79.0
 2.660  0.5260  130.6   1.567   36.9  0.2523   62.0  0.2657  -79.5
 2.680  0.5272  130.2   1.558   36.5  0.2544   61.8  0.2660  -80.1
 2.700  0.5285  129.9   1.549   36.2  0.2565   61.7  0.2663  -80.6
 2.720  0.5298  129.5   1.540   35.8  0.2586   61.5  0.2666  -81.1
 2.740  0.5311  129.2   1.531   35.5  0.2606   61.4  0.2669  -81.6
 2.760  0.5324  128.8   1.523   35.1  0.2627   61.3  0.2673  -82.1
 2.780  0.5337  128.5   1.514   34.8  0.2648   61.1  0.2677  -82.6
 2.800  0.5351  128.1   1.505   34.4  0.2669   61.0  0.2681  -83.1
 2.820  0.5355  127.7   1.496   34.1  0.2687   60.8  0.2685  -83.6
 2.840  0.5359  127.2   1.488   33.7  0.2705   60.7  0.2688  -84.2
 2.860  0.5364  126.8   1.479   33.4  0.2723   60.5  0.2692  -84.7
 2.880  0.5369  126.4   1.470   33.0  0.2742   60.4  0.2697  -85.3
 2.900  0.5374  125.9   1.462   32.7  0.2760   60.2  0.2701  -85.8
 2.920  0.5380  125.5   1.453   32.3  0.2778   60.1  0.2706  -86.4
 2.940  0.5386  125.1   1.445   32.0  0.2796   59.9  0.2711  -86.9
 2.960  0.5392  124.7   1.437   31.6  0.2814   59.8  0.2716  -87.4
 2.980  0.5398  124.2   1.428   31.3  0.2833   59.6  0.2721  -88.0
 3.000  0.5405  123.8   1.420   30.9  0.2851   59.5  0.2727  -88.5
 3.100  0.5458  121.9   1.385   29.4  0.2953   58.4  0.2729  -91.9
 3.200  0.5516  120.0   1.351   27.8  0.3056   57.4  0.2741  -95.3
 3.300  0.5580  118.2   1.319   26.1  0.3161   56.5  0.2762  -98.7
 3.400  0.5650  116.4   1.287   24.3  0.3265   55.6  0.2792 -102.0
 3.500  0.5725  114.7   1.257   22.5  0.3371   54.8  0.2832 -105.2
 3.600  0.5754  113.0   1.229   21.2  0.3467   53.7  0.2839 -108.8
 3.700  0.5788  111.2   1.201   19.8  0.3564   52.6  0.2857 -112.4
 3.800  0.5828  109.5   1.174   18.4  0.3663   51.6  0.2886 -116.0
 3.900  0.5872  107.9   1.148   16.9  0.3762   50.7  0.2927 -119.4
 4.000  0.5922  106.2   1.123   15.3  0.3863   49.8  0.2977 -122.8
 4.100  0.5962  104.6   1.100   14.1  0.3956   48.6  0.3005 -126.1
 4.200  0.6007  103.1   1.078   12.9  0.4050   47.4  0.3043 -129.2
 4.300  0.6056  101.6   1.057   11.7  0.4147   46.2  0.3090 -132.3
 4.400  0.6110  100.1   1.036   10.4  0.4245   45.1  0.3145 -135.3
 4.500  0.6167   98.6   1.015    9.0  0.4344   44.1  0.3209 -138.2
 4.600  0.6191   97.2   0.998    8.0  0.4428   42.9  0.3237 -141.2
 4.700  0.6218   95.9   0.981    6.9  0.4515   41.7  0.3275 -144.2
 4.800  0.6248   94.5   0.965    5.8  0.4603   40.6  0.3320 -147.1
 4.900  0.6282   93.2   0.949    4.7  0.4693   39.5  0.3374 -149.9
 5.000  0.6319   91.9   0.933    3.5  0.4784   38.5  0.3436 -152.6
 5.100  0.6350   90.6   0.919    2.7  0.4861   37.3  0.3449 -155.5
 5.200  0.6385   89.4   0.904    1.8  0.4940   36.2  0.3471 -158.5
 5.300  0.6422   88.1   0.890    0.9  0.5021   35.0  0.3502 -161.3
 5.400  0.6463   86.9   0.877    0.0  0.5103   33.9  0.3542 -164.2
 5.500  0.6506   85.7   0.863   -0.9  0.5188   32.9  0.3590 -166.9
 5.600  0.6522   84.5   0.853   -1.6  0.5262   31.7  0.3613 -169.5
 5.700  0.6541   83.4   0.843   -2.4  0.5338   30.6  0.3644 -172.1
 5.800  0.6563   82.3   0.833   -3.2  0.5416   29.4  0.3682 -174.7
 5.900  0.6587   81.1   0.823   -4.0  0.5497   28.4  0.3728 -177.2
 6.000  0.6614   80.0   0.813   -4.8  0.5579   27.3  0.3780 -179.6
!
!  f       NFmin   Gammaopt  rn/50
! GHz       dB    MAG  ANG    -
!
! noise parameter not available yet for this operation point!
!
! (c) 2015  Infineon Technologies AG, Munich
