! Infineon Technologies  Discrete & RF Semiconductors
! BFR93AW
! VCE =  2.0 V,  IC =  50 mA
! Common Emitter S-Parameters:                            Nov 2015
# GHz  S  MA  R  50
!  f         S11            S21            S12            S22
! GHz     MAG   ANG      MAG   ANG      MAG   ANG      MAG   ANG
 0.030  0.2687  -92.1  58.117  150.3  0.0075   71.4  0.7836  -26.1
 0.035  0.2880 -100.1  55.287  146.5  0.0084   70.3  0.7460  -29.4
 0.040  0.3121 -106.9  52.726  142.3  0.0093   69.5  0.7112  -33.0
 0.045  0.3400 -112.7  50.474  137.7  0.0102   68.8  0.6794  -36.9
 0.050  0.3707 -117.5  48.577  132.7  0.0112   68.3  0.6511  -41.2
 0.055  0.3734 -120.8  46.606  131.5  0.0118   67.9  0.6266  -42.1
 0.060  0.3773 -124.1  44.658  130.1  0.0124   67.6  0.6023  -43.1
 0.065  0.3824 -127.3  42.738  128.6  0.0130   67.3  0.5782  -44.2
 0.070  0.3886 -130.4  40.849  127.0  0.0136   67.0  0.5543  -45.4
 0.075  0.3960 -133.4  38.996  125.2  0.0142   66.8  0.5307  -46.7
 0.080  0.4044 -136.3  37.183  123.3  0.0149   66.6  0.5074  -48.1
 0.085  0.4138 -139.0  35.418  121.2  0.0155   66.3  0.4844  -49.7
 0.090  0.4241 -141.6  33.707  118.8  0.0161   66.1  0.4618  -51.4
 0.095  0.4352 -144.1  32.059  116.2  0.0167   65.9  0.4396  -53.3
 0.100  0.4471 -146.5  30.485  113.3  0.0173   65.8  0.4180  -55.3
 0.105  0.4487 -147.8  29.559  112.7  0.0177   66.0  0.4065  -55.5
 0.110  0.4506 -149.1  28.636  112.0  0.0182   66.2  0.3951  -55.8
 0.115  0.4527 -150.4  27.718  111.3  0.0186   66.4  0.3836  -56.1
 0.120  0.4550 -151.6  26.805  110.5  0.0191   66.6  0.3722  -56.4
 0.125  0.4575 -152.9  25.897  109.6  0.0196   66.8  0.3608  -56.7
 0.130  0.4603 -154.1  24.996  108.7  0.0201   67.0  0.3494  -57.1
 0.135  0.4632 -155.3  24.100  107.7  0.0205   67.2  0.3380  -57.5
 0.140  0.4664 -156.5  23.212  106.7  0.0210   67.3  0.3267  -57.9
 0.145  0.4698 -157.7  22.333  105.6  0.0214   67.5  0.3153  -58.3
 0.150  0.4733 -158.8  21.462  104.4  0.0219   67.6  0.3040  -58.8
 0.155  0.4735 -159.5  20.958  104.0  0.0224   67.9  0.2980  -58.9
 0.160  0.4738 -160.2  20.456  103.5  0.0230   68.1  0.2919  -59.0
 0.165  0.4742 -160.9  19.954  103.1  0.0235   68.4  0.2859  -59.0
 0.170  0.4746 -161.6  19.454  102.6  0.0240   68.6  0.2799  -59.1
 0.175  0.4751 -162.3  18.956  102.1  0.0245   68.8  0.2738  -59.2
 0.180  0.4757 -163.0  18.459  101.5  0.0251   69.0  0.2678  -59.3
 0.185  0.4764 -163.6  17.964  100.9  0.0256   69.2  0.2618  -59.4
 0.190  0.4771 -164.3  17.471  100.3  0.0261   69.4  0.2558  -59.5
 0.195  0.4779 -165.0  16.980   99.7  0.0267   69.6  0.2497  -59.6
 0.200  0.4787 -165.7  16.491   99.0  0.0272   69.8  0.2437  -59.7
 0.220  0.4802 -167.8  15.211   97.7  0.0293   70.6  0.2279  -59.6
 0.240  0.4824 -169.9  13.940   96.1  0.0314   71.2  0.2122  -59.5
 0.260  0.4850 -171.5  12.881   94.7  0.0335   71.7  0.1998  -59.3
 0.280  0.4878 -172.8  12.028   93.6  0.0358   72.1  0.1909  -59.1
 0.300  0.4908 -174.0  11.181   92.3  0.0380   72.5  0.1820  -58.8
 0.320  0.4908 -175.1  10.628   91.6  0.0403   73.1  0.1757  -58.5
 0.340  0.4910 -176.2  10.076   90.8  0.0426   73.7  0.1694  -58.2
 0.360  0.4914 -177.4   9.527   89.9  0.0450   74.1  0.1630  -57.8
 0.380  0.4920 -178.5   8.980   88.9  0.0473   74.5  0.1567  -57.4
 0.400  0.4928 -179.6   8.436   87.8  0.0496   74.9  0.1504  -57.0
 0.420  0.4937  179.6   8.105   87.2  0.0518   74.9  0.1467  -57.1
 0.440  0.4947  178.7   7.775   86.5  0.0540   75.0  0.1430  -57.2
 0.450  0.4952  178.3   7.611   86.1  0.0551   75.0  0.1412  -57.2
 0.460  0.4957  177.9   7.447   85.7  0.0562   75.0  0.1394  -57.3
 0.480  0.4969  177.0   7.119   85.0  0.0584   75.0  0.1357  -57.4
 0.500  0.4982  176.2   6.793   84.1  0.0606   75.0  0.1320  -57.5
 0.520  0.4988  175.5   6.570   83.6  0.0629   74.9  0.1300  -57.5
 0.540  0.4994  174.9   6.347   83.0  0.0653   74.8  0.1280  -57.5
 0.560  0.5001  174.2   6.125   82.4  0.0676   74.7  0.1260  -57.6
 0.580  0.5009  173.6   5.904   81.7  0.0700   74.7  0.1240  -57.6
 0.600  0.5017  172.9   5.684   81.0  0.0723   74.6  0.1220  -57.6
 0.620  0.5020  172.3   5.526   80.5  0.0745   74.6  0.1207  -58.0
 0.640  0.5024  171.6   5.369   79.9  0.0767   74.6  0.1195  -58.4
 0.660  0.5028  171.0   5.212   79.3  0.0790   74.6  0.1182  -58.8
 0.680  0.5033  170.3   5.056   78.6  0.0812   74.6  0.1169  -59.3
 0.700  0.5039  169.7   4.901   77.9  0.0834   74.6  0.1157  -59.7
 0.720  0.5050  169.1   4.780   77.4  0.0856   74.4  0.1142  -60.5
 0.740  0.5061  168.5   4.659   76.9  0.0879   74.3  0.1128  -61.2
 0.760  0.5073  168.0   4.539   76.4  0.0901   74.1  0.1113  -62.0
 0.780  0.5086  167.4   4.419   75.8  0.0924   73.9  0.1099  -62.9
 0.800  0.5099  166.8   4.299   75.2  0.0946   73.8  0.1085  -63.7
 0.820  0.5102  166.3   4.207   74.7  0.0968   73.8  0.1082  -64.0
 0.840  0.5105  165.7   4.116   74.2  0.0991   73.8  0.1078  -64.4
 0.860  0.5109  165.2   4.024   73.7  0.1013   73.7  0.1075  -64.7
 0.880  0.5113  164.6   3.934   73.2  0.1036   73.7  0.1071  -65.1
 0.900  0.5118  164.1   3.843   72.6  0.1058   73.7  0.1068  -65.4
 0.920  0.5120  163.6   3.768   72.1  0.1080   73.5  0.1063  -65.9
 0.940  0.5123  163.0   3.693   71.6  0.1101   73.4  0.1059  -66.5
 0.960  0.5127  162.5   3.618   71.1  0.1123   73.2  0.1054  -67.0
 0.980  0.5131  161.9   3.544   70.6  0.1144   73.0  0.1049  -67.6
 1.000  0.5135  161.4   3.470   70.0  0.1166   72.9  0.1045  -68.1
 1.020  0.5146  160.9   3.410   69.5  0.1190   72.7  0.1041  -69.5
 1.040  0.5157  160.4   3.350   69.1  0.1214   72.5  0.1037  -70.8
 1.060  0.5169  160.0   3.290   68.6  0.1238   72.3  0.1034  -72.2
 1.080  0.5181  159.5   3.231   68.0  0.1262   72.2  0.1031  -73.6
 1.100  0.5193  159.0   3.172   67.5  0.1286   72.0  0.1029  -75.0
 1.120  0.5203  158.5   3.121   67.1  0.1307   71.9  0.1030  -75.5
 1.140  0.5214  158.1   3.070   66.6  0.1328   71.7  0.1030  -76.1
 1.160  0.5224  157.6   3.020   66.2  0.1350   71.6  0.1031  -76.6
 1.180  0.5236  157.2   2.969   65.7  0.1371   71.4  0.1032  -77.2
 1.200  0.5247  156.7   2.919   65.2  0.1392   71.3  0.1033  -77.7
 1.220  0.5244  156.2   2.878   64.7  0.1415   71.1  0.1032  -78.2
 1.240  0.5241  155.7   2.838   64.3  0.1438   70.8  0.1032  -78.6
 1.260  0.5238  155.3   2.797   63.8  0.1462   70.6  0.1031  -79.1
 1.280  0.5236  154.8   2.757   63.3  0.1485   70.4  0.1030  -79.5
 1.300  0.5234  154.3   2.717   62.8  0.1508   70.2  0.1030  -80.0
 1.320  0.5243  153.8   2.680   62.4  0.1529   70.0  0.1033  -81.5
 1.340  0.5252  153.3   2.643   61.9  0.1550   69.9  0.1036  -83.0
 1.360  0.5262  152.9   2.606   61.5  0.1570   69.7  0.1041  -84.5
 1.380  0.5272  152.4   2.569   61.0  0.1591   69.6  0.1045  -85.9
 1.400  0.5283  151.9   2.533   60.5  0.1612   69.4  0.1051  -87.4
 1.420  0.5290  151.6   2.501   60.1  0.1634   69.2  0.1056  -88.0
 1.440  0.5298  151.2   2.469   59.7  0.1656   69.0  0.1061  -88.7
 1.460  0.5305  150.9   2.438   59.2  0.1679   68.8  0.1067  -89.3
 1.480  0.5313  150.5   2.406   58.8  0.1701   68.7  0.1072  -89.9
 1.500  0.5321  150.2   2.375   58.3  0.1723   68.5  0.1078  -90.5
 1.520  0.5321  149.7   2.348   57.9  0.1745   68.3  0.1075  -91.2
 1.540  0.5322  149.1   2.321   57.5  0.1767   68.1  0.1072  -91.9
 1.560  0.5324  148.6   2.295   57.0  0.1790   67.9  0.1069  -92.6
 1.580  0.5326  148.0   2.268   56.6  0.1812   67.7  0.1066  -93.3
 1.600  0.5328  147.5   2.242   56.1  0.1834   67.5  0.1064  -94.0
 1.620  0.5344  147.0   2.218   55.7  0.1854   67.3  0.1076  -95.4
 1.640  0.5359  146.6   2.194   55.2  0.1875   67.1  0.1089  -96.7
 1.660  0.5376  146.1   2.170   54.8  0.1895   66.9  0.1102  -98.1
 1.680  0.5392  145.7   2.146   54.4  0.1916   66.7  0.1116  -99.3
 1.700  0.5409  145.2   2.122   53.9  0.1936   66.5  0.1131 -100.6
 1.720  0.5416  144.8   2.101   53.5  0.1959   66.3  0.1143 -101.1
 1.740  0.5422  144.4   2.080   53.1  0.1982   66.1  0.1156 -101.5
 1.760  0.5429  144.1   2.060   52.7  0.2004   65.9  0.1168 -101.9
 1.780  0.5437  143.7   2.039   52.3  0.2027   65.8  0.1180 -102.4
 1.800  0.5444  143.3   2.019   51.9  0.2050   65.6  0.1193 -102.8
 1.820  0.5444  142.9   2.000   51.5  0.2073   65.4  0.1191 -103.4
 1.840  0.5444  142.5   1.982   51.1  0.2095   65.2  0.1189 -104.0
 1.860  0.5444  142.0   1.963   50.7  0.2118   65.0  0.1187 -104.6
 1.880  0.5444  141.6   1.945   50.2  0.2140   64.9  0.1186 -105.2
 1.900  0.5445  141.2   1.927   49.8  0.2163   64.7  0.1184 -105.8
 1.920  0.5456  140.8   1.909   49.4  0.2184   64.5  0.1200 -106.7
 1.940  0.5468  140.3   1.892   49.0  0.2204   64.3  0.1217 -107.6
 1.960  0.5480  139.9   1.874   48.6  0.2225   64.1  0.1234 -108.5
 1.980  0.5492  139.4   1.857   48.1  0.2245   63.9  0.1251 -109.4
 2.000  0.5505  139.0   1.840   47.7  0.2266   63.7  0.1268 -110.2
 2.020  0.5507  138.6   1.826   47.4  0.2288   63.5  0.1272 -110.7
 2.040  0.5509  138.2   1.812   47.0  0.2310   63.2  0.1275 -111.3
 2.060  0.5512  137.8   1.798   46.7  0.2331   63.0  0.1279 -111.8
 2.080  0.5515  137.4   1.784   46.3  0.2353   62.8  0.1283 -112.4
 2.100  0.5518  137.0   1.770   45.9  0.2375   62.6  0.1287 -112.9
 2.120  0.5521  136.7   1.756   45.6  0.2397   62.4  0.1291 -113.4
 2.140  0.5525  136.3   1.742   45.2  0.2419   62.2  0.1296 -113.9
 2.160  0.5529  135.9   1.728   44.8  0.2441   62.0  0.1300 -114.5
 2.180  0.5533  135.5   1.715   44.4  0.2463   61.8  0.1304 -115.0
 2.200  0.5537  135.1   1.701   44.0  0.2485   61.6  0.1309 -115.5
 2.220  0.5546  134.7   1.689   43.7  0.2506   61.4  0.1322 -116.1
 2.240  0.5555  134.3   1.676   43.3  0.2526   61.2  0.1334 -116.7
 2.260  0.5564  133.9   1.664   42.9  0.2547   61.0  0.1347 -117.2
 2.280  0.5573  133.6   1.651   42.6  0.2568   60.8  0.1360 -117.8
 2.300  0.5583  133.2   1.639   42.2  0.2589   60.6  0.1373 -118.3
 2.320  0.5593  132.8   1.627   41.8  0.2609   60.4  0.1387 -118.9
 2.340  0.5603  132.4   1.615   41.5  0.2630   60.2  0.1400 -119.4
 2.360  0.5613  132.0   1.603   41.1  0.2651   60.0  0.1414 -119.9
 2.380  0.5624  131.7   1.591   40.7  0.2672   59.8  0.1427 -120.4
 2.400  0.5635  131.3   1.579   40.3  0.2693   59.6  0.1441 -120.9
 2.420  0.5642  130.9   1.569   39.9  0.2714   59.3  0.1448 -121.8
 2.440  0.5649  130.4   1.558   39.6  0.2735   59.1  0.1454 -122.7
 2.460  0.5657  130.0   1.548   39.2  0.2756   58.8  0.1462 -123.6
 2.480  0.5665  129.6   1.538   38.8  0.2777   58.6  0.1469 -124.5
 2.500  0.5673  129.1   1.528   38.5  0.2798   58.3  0.1477 -125.3
 2.520  0.5682  128.7   1.518   38.1  0.2820   58.1  0.1486 -126.2
 2.540  0.5690  128.3   1.508   37.7  0.2841   57.8  0.1494 -127.0
 2.560  0.5700  127.8   1.498   37.3  0.2862   57.6  0.1503 -127.9
 2.580  0.5709  127.4   1.489   36.9  0.2884   57.3  0.1512 -128.7
 2.600  0.5719  127.0   1.479   36.5  0.2905   57.1  0.1522 -129.5
 2.620  0.5728  126.7   1.471   36.2  0.2926   56.9  0.1530 -130.0
 2.640  0.5737  126.3   1.462   35.9  0.2947   56.7  0.1537 -130.5
 2.660  0.5747  126.0   1.454   35.5  0.2968   56.4  0.1545 -131.1
 2.680  0.5757  125.6   1.446   35.2  0.2989   56.2  0.1553 -131.6
 2.700  0.5766  125.3   1.438   34.8  0.3010   56.0  0.1561 -132.1
 2.720  0.5777  124.9   1.430   34.5  0.3031   55.8  0.1569 -132.6
 2.740  0.5787  124.6   1.422   34.2  0.3052   55.6  0.1577 -133.1
 2.760  0.5797  124.3   1.414   33.8  0.3073   55.4  0.1586 -133.5
 2.780  0.5808  123.9   1.406   33.5  0.3095   55.2  0.1594 -134.0
 2.800  0.5819  123.6   1.398   33.1  0.3116   55.0  0.1603 -134.5
 2.820  0.5821  123.2   1.391   32.8  0.3135   54.8  0.1614 -135.0
 2.840  0.5824  122.8   1.383   32.4  0.3154   54.6  0.1625 -135.5
 2.860  0.5827  122.4   1.376   32.1  0.3173   54.3  0.1637 -136.0
 2.880  0.5830  122.0   1.369   31.8  0.3192   54.1  0.1648 -136.5
 2.900  0.5833  121.6   1.361   31.4  0.3211   53.9  0.1660 -137.0
 2.920  0.5837  121.3   1.354   31.1  0.3231   53.7  0.1672 -137.5
 2.940  0.5841  120.9   1.347   30.8  0.3250   53.5  0.1684 -137.9
 2.960  0.5845  120.5   1.340   30.4  0.3269   53.3  0.1696 -138.4
 2.980  0.5849  120.1   1.333   30.1  0.3289   53.1  0.1708 -138.8
 3.000  0.5854  119.7   1.326   29.7  0.3308   52.9  0.1720 -139.3
 3.100  0.5894  117.9   1.295   28.3  0.3401   51.6  0.1778 -142.8
 3.200  0.5940  116.2   1.265   26.8  0.3497   50.4  0.1842 -146.1
 3.300  0.5992  114.5   1.236   25.2  0.3593   49.3  0.1912 -149.1
 3.400  0.6048  112.8   1.207   23.5  0.3691   48.2  0.1987 -151.9
 3.500  0.6110  111.1   1.180   21.8  0.3790   47.2  0.2066 -154.5
 3.600  0.6130  109.5   1.155   20.5  0.3872   45.9  0.2129 -157.8
 3.700  0.6155  107.9   1.131   19.2  0.3957   44.7  0.2198 -160.9
 3.800  0.6185  106.3   1.108   17.8  0.4043   43.6  0.2273 -163.8
 3.900  0.6220  104.7   1.085   16.4  0.4130   42.5  0.2354 -166.6
 4.000  0.6259  103.1   1.063   14.9  0.4219   41.4  0.2440 -169.1
 4.100  0.6285  101.7   1.044   13.8  0.4293   40.1  0.2500 -171.5
 4.200  0.6315  100.2   1.024   12.6  0.4369   38.9  0.2564 -173.8
 4.300  0.6349   98.8   1.006   11.4  0.4446   37.7  0.2632 -175.9
 4.400  0.6387   97.4   0.988   10.2  0.4526   36.6  0.2704 -178.0
 4.500  0.6429   96.0   0.970    8.9  0.4607   35.5  0.2779 -179.9
 4.600  0.6444   94.7   0.956    7.9  0.4671   34.4  0.2832  178.0
 4.700  0.6463   93.5   0.942    6.9  0.4736   33.2  0.2888  175.9
 4.800  0.6484   92.3   0.929    5.8  0.4803   32.2  0.2948  174.0
 4.900  0.6509   91.0   0.916    4.7  0.4872   31.1  0.3012  172.1
 5.000  0.6536   89.8   0.903    3.6  0.4942   30.1  0.3078  170.3
 5.100  0.6563   88.6   0.891    2.8  0.5000   29.1  0.3119  168.1
 5.200  0.6593   87.4   0.878    2.0  0.5060   28.0  0.3164  166.0
 5.300  0.6626   86.2   0.866    1.1  0.5122   27.0  0.3214  163.9
 5.400  0.6662   85.0   0.855    0.2  0.5185   26.1  0.3268  161.9
 5.500  0.6701   83.8   0.843   -0.7  0.5249   25.1  0.3325  160.0
 5.600  0.6710   82.7   0.835   -1.5  0.5307   24.0  0.3367  158.1
 5.700  0.6721   81.7   0.826   -2.3  0.5366   22.9  0.3413  156.2
 5.800  0.6734   80.6   0.818   -3.2  0.5427   21.9  0.3462  154.4
 5.900  0.6750   79.6   0.811   -4.0  0.5490   20.9  0.3514  152.7
 6.000  0.6768   78.5   0.803   -4.9  0.5555   19.9  0.3570  151.0
!
!  f       NFmin   Gammaopt  rn/50
! GHz       dB    MAG  ANG    -
!
! noise parameter not available yet for this operation point!
!
! (c) 2015  Infineon Technologies AG, Munich
