! Infineon Technologies  Discrete & RF Semiconductors
! BFR93AW
! VCE = 0.50 V,  IC =  6.5 mA
! Common Emitter S-Parameters:                            Nov 2015
# GHz  S  MA  R  50
!  f         S11            S21            S12            S22
! GHz     MAG   ANG      MAG   ANG      MAG   ANG      MAG   ANG
 0.030  0.7471  -26.4  19.447  165.0  0.0185   75.6  0.9417  -14.4
 0.035  0.7419  -30.2  19.223  162.6  0.0214   73.5  0.9289  -16.7
 0.040  0.7400  -34.1  19.035  160.1  0.0244   71.9  0.9175  -19.0
 0.045  0.7415  -38.0  18.883  157.6  0.0274   70.6  0.9077  -21.4
 0.050  0.7465  -41.9  18.769  155.0  0.0304   69.6  0.8995  -23.8
 0.055  0.7309  -45.0  18.380  153.4  0.0322   67.5  0.8806  -25.3
 0.060  0.7175  -48.2  18.006  151.8  0.0341   65.6  0.8623  -26.9
 0.065  0.7064  -51.5  17.647  150.0  0.0360   63.9  0.8447  -28.5
 0.070  0.6978  -54.9  17.306  148.2  0.0379   62.3  0.8278  -30.2
 0.075  0.6917  -58.4  16.982  146.3  0.0398   60.9  0.8116  -32.0
 0.080  0.6882  -61.9  16.676  144.4  0.0418   59.7  0.7963  -33.8
 0.085  0.6873  -65.5  16.391  142.4  0.0438   58.5  0.7818  -35.7
 0.090  0.6891  -69.0  16.126  140.3  0.0458   57.5  0.7681  -37.6
 0.095  0.6935  -72.5  15.883  138.2  0.0478   56.6  0.7554  -39.7
 0.100  0.7004  -76.0  15.663  136.0  0.0499   55.7  0.7438  -41.8
 0.105  0.6905  -78.3  15.327  134.9  0.0509   54.7  0.7285  -42.7
 0.110  0.6817  -80.6  14.996  133.8  0.0520   53.8  0.7135  -43.7
 0.115  0.6741  -83.0  14.671  132.6  0.0531   52.9  0.6986  -44.7
 0.120  0.6676  -85.4  14.353  131.4  0.0542   52.0  0.6840  -45.8
 0.125  0.6623  -87.9  14.042  130.1  0.0553   51.2  0.6697  -46.9
 0.130  0.6584  -90.5  13.738  128.8  0.0564   50.4  0.6556  -48.1
 0.135  0.6558  -93.0  13.441  127.4  0.0575   49.6  0.6418  -49.3
 0.140  0.6544  -95.6  13.153  126.0  0.0587   48.9  0.6282  -50.5
 0.145  0.6544  -98.2  12.873  124.5  0.0598   48.2  0.6150  -51.8
 0.150  0.6557 -100.7  12.603  122.9  0.0610   47.5  0.6021  -53.2
 0.155  0.6511 -102.3  12.369  122.1  0.0616   47.0  0.5914  -53.9
 0.160  0.6469 -103.9  12.137  121.4  0.0622   46.6  0.5808  -54.6
 0.165  0.6433 -105.5  11.908  120.6  0.0628   46.1  0.5703  -55.3
 0.170  0.6402 -107.1  11.681  119.7  0.0634   45.7  0.5599  -56.0
 0.175  0.6376 -108.8  11.456  118.8  0.0640   45.2  0.5496  -56.8
 0.180  0.6355 -110.4  11.235  117.9  0.0646   44.8  0.5394  -57.6
 0.185  0.6340 -112.1  11.016  117.0  0.0652   44.4  0.5293  -58.5
 0.190  0.6330 -113.7  10.801  116.0  0.0658   44.0  0.5193  -59.4
 0.195  0.6325 -115.4  10.589  115.0  0.0664   43.6  0.5094  -60.3
 0.200  0.6326 -117.1  10.380  113.9  0.0670   43.2  0.4997  -61.2
 0.220  0.6202 -122.1   9.685  111.5  0.0690   42.5  0.4678  -63.1
 0.240  0.6128 -127.4   9.010  108.7  0.0710   41.8  0.4364  -65.3
 0.260  0.6087 -131.8   8.430  106.3  0.0727   41.4  0.4104  -67.2
 0.280  0.6061 -135.5   7.936  104.3  0.0742   41.1  0.3893  -68.8
 0.300  0.6060 -139.2   7.452  102.1  0.0757   40.9  0.3685  -70.5
 0.320  0.6012 -141.9   7.103  100.8  0.0771   41.0  0.3530  -71.4
 0.340  0.5977 -144.5   6.759   99.4  0.0784   41.1  0.3376  -72.5
 0.360  0.5956 -147.3   6.418   97.9  0.0798   41.3  0.3223  -73.6
 0.380  0.5948 -150.0   6.083   96.3  0.0811   41.4  0.3071  -74.8
 0.400  0.5954 -152.8   5.753   94.4  0.0825   41.5  0.2921  -76.2
 0.420  0.5930 -154.7   5.536   93.4  0.0838   41.9  0.2827  -77.0
 0.440  0.5913 -156.6   5.321   92.3  0.0851   42.3  0.2734  -77.9
 0.450  0.5907 -157.5   5.214   91.7  0.0858   42.5  0.2688  -78.4
 0.460  0.5902 -158.5   5.108   91.1  0.0865   42.7  0.2642  -78.9
 0.480  0.5898 -160.4   4.897   89.8  0.0878   43.0  0.2551  -80.0
 0.500  0.5901 -162.3   4.689   88.4  0.0891   43.4  0.2460  -81.1
 0.520  0.5895 -163.7   4.539   87.6  0.0905   43.7  0.2404  -81.7
 0.540  0.5892 -165.0   4.390   86.7  0.0919   44.1  0.2349  -82.4
 0.560  0.5893 -166.4   4.242   85.8  0.0934   44.4  0.2293  -83.0
 0.580  0.5897 -167.7   4.095   84.8  0.0948   44.7  0.2239  -83.8
 0.600  0.5904 -169.1   3.950   83.7  0.0962   45.0  0.2184  -84.5
 0.620  0.5901 -170.3   3.844   82.9  0.0977   45.4  0.2147  -85.2
 0.640  0.5900 -171.5   3.738   82.1  0.0992   45.8  0.2111  -86.0
 0.660  0.5902 -172.6   3.634   81.2  0.1007   46.2  0.2075  -86.8
 0.680  0.5907 -173.8   3.530   80.3  0.1023   46.6  0.2039  -87.6
 0.700  0.5914 -175.0   3.427   79.3  0.1038   47.0  0.2004  -88.5
 0.720  0.5916 -176.0   3.344   78.6  0.1052   47.3  0.1976  -89.4
 0.740  0.5921 -177.0   3.261   77.9  0.1067   47.7  0.1949  -90.3
 0.760  0.5927 -178.1   3.179   77.1  0.1081   48.0  0.1922  -91.2
 0.780  0.5935 -179.1   3.097   76.3  0.1096   48.3  0.1896  -92.2
 0.800  0.5945  179.9   3.016   75.4  0.1110   48.6  0.1870  -93.2
 0.820  0.5943  179.1   2.952   74.8  0.1127   48.9  0.1855  -93.7
 0.840  0.5942  178.2   2.889   74.1  0.1144   49.1  0.1841  -94.2
 0.860  0.5943  177.4   2.826   73.4  0.1161   49.4  0.1826  -94.7
 0.880  0.5945  176.5   2.764   72.7  0.1178   49.7  0.1812  -95.3
 0.900  0.5948  175.7   2.702   71.9  0.1195   49.9  0.1798  -95.8
 0.920  0.5948  174.9   2.651   71.3  0.1212   50.2  0.1787  -96.5
 0.940  0.5948  174.1   2.601   70.6  0.1229   50.5  0.1776  -97.1
 0.960  0.5950  173.2   2.551   69.9  0.1246   50.8  0.1765  -97.8
 0.980  0.5954  172.4   2.501   69.2  0.1263   51.0  0.1755  -98.5
 1.000  0.5958  171.6   2.452   68.5  0.1280   51.3  0.1745  -99.2
 1.020  0.5965  170.9   2.410   67.9  0.1298   51.5  0.1745 -100.2
 1.040  0.5973  170.2   2.368   67.3  0.1315   51.7  0.1746 -101.3
 1.060  0.5982  169.5   2.327   66.6  0.1333   51.9  0.1747 -102.3
 1.080  0.5992  168.8   2.286   66.0  0.1350   52.0  0.1749 -103.4
 1.100  0.6003  168.1   2.245   65.3  0.1368   52.2  0.1752 -104.4
 1.120  0.6013  167.5   2.210   64.7  0.1386   52.4  0.1750 -104.9
 1.140  0.6024  166.8   2.176   64.2  0.1403   52.6  0.1748 -105.4
 1.160  0.6035  166.2   2.142   63.6  0.1421   52.8  0.1746 -105.8
 1.180  0.6047  165.5   2.108   62.9  0.1438   52.9  0.1744 -106.3
 1.200  0.6060  164.9   2.074   62.3  0.1456   53.1  0.1742 -106.8
 1.220  0.6055  164.3   2.046   61.7  0.1475   53.2  0.1739 -107.4
 1.240  0.6051  163.6   2.019   61.1  0.1494   53.3  0.1736 -108.0
 1.260  0.6047  163.0   1.991   60.5  0.1514   53.5  0.1733 -108.5
 1.280  0.6044  162.3   1.964   59.9  0.1533   53.6  0.1730 -109.1
 1.300  0.6042  161.7   1.937   59.3  0.1552   53.7  0.1728 -109.7
 1.320  0.6053  161.1   1.911   58.8  0.1571   53.8  0.1738 -110.7
 1.340  0.6065  160.5   1.886   58.2  0.1590   53.9  0.1749 -111.7
 1.360  0.6077  159.9   1.860   57.7  0.1610   53.9  0.1761 -112.7
 1.380  0.6090  159.3   1.835   57.1  0.1629   54.0  0.1773 -113.6
 1.400  0.6104  158.7   1.810   56.5  0.1648   54.1  0.1785 -114.6
 1.420  0.6110  158.2   1.788   56.0  0.1668   54.2  0.1794 -115.1
 1.440  0.6116  157.7   1.766   55.5  0.1687   54.3  0.1803 -115.6
 1.460  0.6122  157.3   1.744   55.0  0.1707   54.4  0.1812 -116.1
 1.480  0.6129  156.8   1.723   54.4  0.1726   54.5  0.1821 -116.5
 1.500  0.6136  156.3   1.701   53.9  0.1746   54.6  0.1830 -117.0
 1.520  0.6137  155.7   1.683   53.4  0.1766   54.6  0.1829 -117.7
 1.540  0.6139  155.0   1.665   52.9  0.1786   54.6  0.1828 -118.4
 1.560  0.6142  154.4   1.647   52.3  0.1805   54.6  0.1828 -119.1
 1.580  0.6146  153.7   1.629   51.8  0.1825   54.6  0.1828 -119.8
 1.600  0.6150  153.1   1.611   51.2  0.1845   54.6  0.1828 -120.5
 1.620  0.6157  152.6   1.594   50.7  0.1865   54.6  0.1847 -121.3
 1.640  0.6164  152.1   1.577   50.2  0.1885   54.6  0.1866 -122.0
 1.660  0.6172  151.5   1.560   49.7  0.1904   54.7  0.1886 -122.8
 1.680  0.6181  151.0   1.543   49.1  0.1924   54.7  0.1906 -123.5
 1.700  0.6190  150.5   1.526   48.6  0.1944   54.7  0.1926 -124.2
 1.720  0.6196  150.0   1.512   48.2  0.1965   54.7  0.1941 -124.5
 1.740  0.6203  149.5   1.498   47.7  0.1986   54.7  0.1956 -124.8
 1.760  0.6210  149.0   1.484   47.3  0.2006   54.7  0.1971 -125.1
 1.780  0.6217  148.5   1.470   46.9  0.2027   54.7  0.1987 -125.3
 1.800  0.6225  148.0   1.456   46.4  0.2048   54.7  0.2002 -125.6
 1.820  0.6225  147.5   1.443   45.9  0.2071   54.7  0.2003 -126.3
 1.840  0.6225  147.0   1.431   45.5  0.2094   54.6  0.2005 -126.9
 1.860  0.6226  146.5   1.418   45.0  0.2116   54.6  0.2007 -127.6
 1.880  0.6227  146.0   1.406   44.5  0.2139   54.5  0.2009 -128.2
 1.900  0.6229  145.5   1.394   44.0  0.2162   54.5  0.2012 -128.9
 1.920  0.6240  145.0   1.382   43.5  0.2182   54.4  0.2032 -129.4
 1.940  0.6251  144.5   1.370   43.1  0.2203   54.4  0.2052 -130.0
 1.960  0.6262  143.9   1.358   42.6  0.2223   54.3  0.2072 -130.5
 1.980  0.6274  143.4   1.347   42.1  0.2244   54.3  0.2092 -131.0
 2.000  0.6287  142.9   1.335   41.6  0.2264   54.2  0.2113 -131.5
 2.020  0.6289  142.4   1.325   41.2  0.2286   54.1  0.2121 -132.0
 2.040  0.6291  142.0   1.315   40.8  0.2308   54.0  0.2130 -132.5
 2.060  0.6294  141.5   1.306   40.5  0.2331   53.9  0.2138 -132.9
 2.080  0.6297  141.1   1.296   40.1  0.2353   53.9  0.2147 -133.4
 2.100  0.6300  140.6   1.286   39.7  0.2375   53.8  0.2156 -133.8
 2.120  0.6304  140.1   1.277   39.3  0.2397   53.7  0.2165 -134.3
 2.140  0.6309  139.7   1.267   38.9  0.2419   53.6  0.2174 -134.8
 2.160  0.6313  139.2   1.258   38.4  0.2442   53.5  0.2183 -135.2
 2.180  0.6318  138.8   1.248   38.0  0.2464   53.5  0.2192 -135.7
 2.200  0.6324  138.3   1.239   37.6  0.2486   53.4  0.2202 -136.1
 2.220  0.6332  137.9   1.230   37.2  0.2507   53.3  0.2218 -136.6
 2.240  0.6340  137.4   1.222   36.9  0.2528   53.2  0.2234 -137.0
 2.260  0.6348  137.0   1.213   36.5  0.2550   53.1  0.2250 -137.5
 2.280  0.6357  136.5   1.204   36.1  0.2571   53.0  0.2266 -137.9
 2.300  0.6366  136.1   1.196   35.7  0.2592   52.9  0.2282 -138.3
 2.320  0.6375  135.6   1.187   35.3  0.2613   52.8  0.2299 -138.8
 2.340  0.6385  135.2   1.179   34.9  0.2634   52.7  0.2315 -139.2
 2.360  0.6395  134.8   1.171   34.5  0.2656   52.6  0.2332 -139.6
 2.380  0.6406  134.3   1.162   34.1  0.2677   52.5  0.2349 -140.0
 2.400  0.6417  133.9   1.154   33.7  0.2698   52.4  0.2366 -140.4
 2.420  0.6421  133.4   1.147   33.3  0.2720   52.2  0.2379 -141.1
 2.440  0.6426  132.9   1.140   33.0  0.2743   52.1  0.2392 -141.8
 2.460  0.6432  132.5   1.133   32.6  0.2765   51.9  0.2406 -142.5
 2.480  0.6438  132.0   1.126   32.2  0.2788   51.7  0.2420 -143.2
 2.500  0.6444  131.5   1.119   31.8  0.2810   51.6  0.2435 -143.9
 2.520  0.6451  131.0   1.112   31.4  0.2833   51.4  0.2450 -144.5
 2.540  0.6458  130.5   1.105   31.0  0.2855   51.3  0.2465 -145.2
 2.560  0.6465  130.1   1.098   30.6  0.2878   51.1  0.2480 -145.8
 2.580  0.6473  129.6   1.092   30.2  0.2900   50.9  0.2496 -146.5
 2.600  0.6482  129.1   1.085   29.8  0.2923   50.8  0.2512 -147.1
 2.620  0.6490  128.7   1.079   29.5  0.2946   50.6  0.2523 -147.6
 2.640  0.6499  128.3   1.073   29.1  0.2969   50.5  0.2535 -148.0
 2.660  0.6508  127.9   1.067   28.8  0.2993   50.3  0.2546 -148.5
 2.680  0.6517  127.5   1.062   28.4  0.3016   50.1  0.2558 -149.0
 2.700  0.6527  127.1   1.056   28.1  0.3039   50.0  0.2570 -149.4
 2.720  0.6536  126.7   1.050   27.7  0.3063   49.8  0.2582 -149.9
 2.740  0.6547  126.3   1.045   27.4  0.3086   49.7  0.2594 -150.3
 2.760  0.6557  125.9   1.039   27.0  0.3109   49.5  0.2607 -150.7
 2.780  0.6568  125.5   1.034   26.7  0.3133   49.3  0.2619 -151.2
 2.800  0.6579  125.1   1.028   26.3  0.3156   49.2  0.2632 -151.6
 2.820  0.6581  124.7   1.023   26.0  0.3177   49.0  0.2647 -152.1
 2.840  0.6583  124.2   1.018   25.7  0.3198   48.9  0.2661 -152.5
 2.860  0.6585  123.8   1.013   25.4  0.3219   48.7  0.2676 -152.9
 2.880  0.6588  123.4   1.008   25.1  0.3240   48.6  0.2691 -153.4
 2.900  0.6591  122.9   1.003   24.7  0.3261   48.4  0.2707 -153.8
 2.920  0.6595  122.5   0.998   24.4  0.3282   48.3  0.2722 -154.2
 2.940  0.6599  122.1   0.993   24.1  0.3303   48.1  0.2738 -154.7
 2.960  0.6603  121.7   0.989   23.8  0.3324   48.0  0.2753 -155.1
 2.980  0.6608  121.2   0.984   23.4  0.3345   47.8  0.2769 -155.5
 3.000  0.6613  120.8   0.979   23.1  0.3366   47.7  0.2785 -155.9
 3.100  0.6638  118.8   0.958   21.8  0.3471   46.6  0.2865 -158.7
 3.200  0.6670  116.8   0.937   20.4  0.3578   45.5  0.2953 -161.4
 3.300  0.6711  114.8   0.917   18.9  0.3685   44.5  0.3046 -163.9
 3.400  0.6759  112.9   0.897   17.4  0.3794   43.5  0.3144 -166.3
 3.500  0.6815  111.0   0.878   15.8  0.3904   42.6  0.3248 -168.5
 3.600  0.6817  109.2   0.862   14.8  0.3996   41.3  0.3325 -171.3
 3.700  0.6825  107.5   0.845   13.7  0.4090   40.1  0.3409 -174.0
 3.800  0.6840  105.7   0.830   12.6  0.4185   39.0  0.3501 -176.6
 3.900  0.6861  103.9   0.814   11.4  0.4282   37.9  0.3600 -179.0
 4.000  0.6889  102.2   0.799   10.2  0.4381   36.8  0.3704  178.7
 4.100  0.6898  100.6   0.787    9.3  0.4461   35.5  0.3769  176.5
 4.200  0.6912   99.1   0.775    8.4  0.4544   34.2  0.3839  174.3
 4.300  0.6932   97.5   0.763    7.5  0.4629   33.0  0.3914  172.3
 4.400  0.6956   95.9   0.751    6.6  0.4715   31.8  0.3994  170.3
 4.500  0.6986   94.4   0.740    5.6  0.4804   30.7  0.4079  168.4
 4.600  0.6981   93.1   0.732    4.9  0.4866   29.5  0.4127  166.4
 4.700  0.6981   91.7   0.724    4.1  0.4931   28.4  0.4180  164.4
 4.800  0.6984   90.4   0.716    3.3  0.4997   27.3  0.4237  162.4
 4.900  0.6990   89.0   0.709    2.5  0.5065   26.2  0.4300  160.5
 5.000  0.7001   87.7   0.701    1.7  0.5135   25.1  0.4367  158.7
 5.100  0.7010   86.5   0.695    1.1  0.5191   24.0  0.4401  156.7
 5.200  0.7023   85.3   0.688    0.6  0.5249   22.9  0.4440  154.7
 5.300  0.7038   84.1   0.682   -0.0  0.5309   21.9  0.4485  152.7
 5.400  0.7057   83.0   0.676   -0.6  0.5371   20.9  0.4534  150.8
 5.500  0.7078   81.8   0.670   -1.2  0.5434   19.9  0.4589  148.9
 5.600  0.7072   80.7   0.667   -1.8  0.5486   18.8  0.4622  147.1
 5.700  0.7068   79.6   0.664   -2.3  0.5539   17.7  0.4659  145.3
 5.800  0.7067   78.5   0.661   -2.9  0.5595   16.7  0.4700  143.6
 5.900  0.7068   77.4   0.658   -3.5  0.5653   15.6  0.4746  141.9
 6.000  0.7072   76.3   0.655   -4.1  0.5712   14.6  0.4796  140.2
!
!  f       NFmin   Gammaopt  rn/50
! GHz       dB    MAG  ANG    -
!
! noise parameter not available yet for this operation point!
!
! (c) 2015  Infineon Technologies AG, Munich
