! Infineon Technologies  Discrete & RF Semiconductors
! BFR93A
! VCE =  5.0 V,  IC =  3.0 mA
! Common Emitter S-Parameters:                            Nov 2015
# GHz  S  MA  R  50
!  f         S11            S21            S12            S22
! GHz     MAG   ANG      MAG   ANG      MAG   ANG      MAG   ANG
 0.010  0.8975   -3.8   9.677  177.0  0.0040   87.4  0.9940   -1.7
 0.015  0.8937   -5.6   9.661  175.6  0.0059   85.3  0.9923   -2.4
 0.020  0.8908   -7.5   9.650  174.2  0.0079   84.2  0.9908   -3.2
 0.025  0.8866   -9.3   9.607  172.9  0.0098   82.8  0.9879   -4.0
 0.030  0.8833  -11.1   9.570  171.5  0.0118   81.9  0.9852   -4.7
 0.035  0.8809  -13.0   9.538  170.1  0.0137   81.2  0.9826   -5.5
 0.040  0.8794  -14.8   9.511  168.8  0.0156   80.7  0.9802   -6.3
 0.045  0.8788  -16.7   9.490  167.4  0.0176   80.3  0.9780   -7.0
 0.050  0.8791  -18.5   9.474  166.0  0.0195   80.0  0.9760   -7.8
 0.055  0.8713  -20.2   9.403  164.9  0.0212   78.4  0.9708   -8.5
 0.060  0.8643  -21.9   9.335  163.7  0.0229   77.1  0.9658   -9.1
 0.065  0.8581  -23.6   9.272  162.5  0.0246   75.9  0.9609   -9.8
 0.070  0.8526  -25.3   9.212  161.3  0.0264   74.9  0.9561  -10.5
 0.075  0.8480  -27.1   9.157  160.1  0.0281   74.0  0.9515  -11.2
 0.080  0.8441  -28.9   9.105  158.9  0.0299   73.3  0.9470  -11.9
 0.085  0.8411  -30.7   9.058  157.7  0.0316   72.6  0.9426  -12.6
 0.090  0.8389  -32.5   9.015  156.4  0.0334   72.0  0.9384  -13.3
 0.095  0.8375  -34.3   8.976  155.2  0.0351   71.4  0.9344  -14.1
 0.100  0.8370  -36.1   8.942  153.9  0.0369   70.9  0.9305  -14.8
 0.105  0.8286  -37.6   8.855  152.9  0.0382   69.9  0.9240  -15.3
 0.110  0.8207  -39.1   8.772  151.8  0.0396   68.9  0.9176  -15.8
 0.115  0.8135  -40.6   8.691  150.7  0.0410   68.0  0.9113  -16.4
 0.120  0.8068  -42.2   8.614  149.6  0.0424   67.2  0.9051  -16.9
 0.125  0.8008  -43.8   8.540  148.5  0.0438   66.4  0.8989  -17.5
 0.130  0.7954  -45.4   8.469  147.3  0.0451   65.6  0.8928  -18.0
 0.135  0.7906  -47.1   8.402  146.2  0.0466   64.9  0.8868  -18.6
 0.140  0.7865  -48.7   8.338  145.0  0.0480   64.3  0.8809  -19.1
 0.145  0.7831  -50.4   8.278  143.8  0.0494   63.7  0.8751  -19.7
 0.150  0.7803  -52.1   8.221  142.6  0.0508   63.1  0.8694  -20.3
 0.155  0.7724  -53.4   8.139  141.7  0.0518   62.4  0.8631  -20.7
 0.160  0.7649  -54.8   8.058  140.9  0.0529   61.8  0.8569  -21.1
 0.165  0.7578  -56.1   7.979  140.0  0.0539   61.2  0.8507  -21.4
 0.170  0.7512  -57.5   7.902  139.1  0.0550   60.6  0.8446  -21.8
 0.175  0.7451  -59.0   7.828  138.2  0.0560   60.1  0.8384  -22.2
 0.180  0.7394  -60.4   7.755  137.2  0.0571   59.6  0.8324  -22.6
 0.185  0.7342  -61.9   7.684  136.3  0.0582   59.0  0.8263  -23.0
 0.190  0.7294  -63.4   7.616  135.3  0.0592   58.5  0.8203  -23.5
 0.195  0.7252  -64.9   7.550  134.3  0.0603   58.1  0.8144  -23.9
 0.200  0.7215  -66.4   7.486  133.3  0.0614   57.6  0.8085  -24.3
 0.220  0.6960  -71.2   7.184  130.2  0.0646   55.6  0.7859  -25.5
 0.240  0.6756  -76.3   6.904  126.9  0.0678   53.7  0.7638  -26.7
 0.260  0.6576  -81.1   6.639  123.9  0.0707   52.3  0.7431  -27.8
 0.280  0.6402  -85.4   6.382  121.3  0.0731   51.0  0.7238  -28.5
 0.300  0.6268  -90.0   6.138  118.5  0.0755   49.9  0.7047  -29.3
 0.320  0.6080  -93.4   5.909  116.6  0.0773   49.0  0.6900  -29.8
 0.340  0.5914  -97.1   5.687  114.6  0.0791   48.2  0.6753  -30.3
 0.360  0.5775 -100.9   5.473  112.5  0.0810   47.5  0.6607  -30.8
 0.380  0.5662 -104.9   5.267  110.1  0.0828   46.7  0.6461  -31.3
 0.400  0.5578 -109.1   5.070  107.6  0.0847   46.0  0.6316  -31.9
 0.420  0.5455 -112.0   4.904  106.1  0.0859   45.6  0.6217  -32.2
 0.440  0.5346 -115.0   4.742  104.5  0.0872   45.2  0.6117  -32.4
 0.450  0.5297 -116.5   4.663  103.7  0.0878   45.0  0.6068  -32.6
 0.460  0.5252 -118.1   4.584  102.8  0.0884   44.8  0.6018  -32.7
 0.480  0.5175 -121.3   4.431  101.0  0.0897   44.5  0.5919  -33.0
 0.500  0.5114 -124.6   4.282   99.0  0.0909   44.1  0.5820  -33.3
 0.520  0.5037 -127.1   4.161   97.8  0.0920   44.0  0.5750  -33.5
 0.540  0.4970 -129.6   4.042   96.5  0.0931   44.0  0.5680  -33.7
 0.560  0.4913 -132.2   3.925   95.1  0.0942   43.9  0.5610  -33.9
 0.580  0.4866 -134.8   3.811   93.6  0.0953   43.9  0.5540  -34.2
 0.600  0.4829 -137.5   3.699   92.1  0.0964   43.8  0.5470  -34.4
 0.620  0.4783 -139.5   3.605   91.0  0.0974   43.9  0.5422  -34.6
 0.640  0.4742 -141.6   3.512   89.9  0.0984   44.0  0.5374  -34.8
 0.660  0.4708 -143.7   3.421   88.6  0.0994   44.1  0.5326  -35.0
 0.680  0.4681 -145.8   3.332   87.4  0.1004   44.2  0.5279  -35.2
 0.700  0.4660 -148.0   3.244   86.0  0.1014   44.3  0.5231  -35.4
 0.720  0.4631 -149.8   3.171   85.1  0.1023   44.5  0.5195  -35.6
 0.740  0.4606 -151.6   3.099   84.1  0.1032   44.7  0.5158  -35.9
 0.760  0.4587 -153.4   3.029   83.0  0.1041   44.9  0.5122  -36.1
 0.780  0.4571 -155.3   2.959   81.9  0.1050   45.1  0.5086  -36.4
 0.800  0.4561 -157.1   2.890   80.8  0.1059   45.3  0.5050  -36.6
 0.820  0.4543 -158.8   2.831   80.0  0.1069   45.5  0.5021  -36.9
 0.840  0.4528 -160.5   2.772   79.1  0.1080   45.8  0.4992  -37.1
 0.860  0.4518 -162.2   2.714   78.2  0.1090   46.0  0.4964  -37.4
 0.880  0.4511 -163.9   2.657   77.3  0.1101   46.2  0.4935  -37.6
 0.900  0.4509 -165.6   2.600   76.3  0.1111   46.4  0.4907  -37.9
 0.920  0.4496 -167.0   2.552   75.5  0.1122   46.6  0.4888  -38.2
 0.940  0.4485 -168.5   2.505   74.6  0.1133   46.9  0.4869  -38.5
 0.960  0.4478 -169.9   2.458   73.7  0.1145   47.1  0.4850  -38.8
 0.980  0.4473 -171.4   2.412   72.8  0.1156   47.4  0.4831  -39.1
 1.000  0.4471 -172.8   2.366   71.8  0.1167   47.6  0.4812  -39.4
 1.020  0.4473 -174.1   2.329   71.0  0.1179   47.9  0.4793  -39.8
 1.040  0.4476 -175.3   2.292   70.2  0.1191   48.2  0.4775  -40.1
 1.060  0.4482 -176.6   2.256   69.4  0.1202   48.5  0.4756  -40.5
 1.080  0.4491 -177.8   2.220   68.6  0.1214   48.7  0.4738  -40.8
 1.100  0.4501 -179.1   2.185   67.7  0.1226   49.0  0.4720  -41.2
 1.120  0.4503  179.7   2.153   67.0  0.1239   49.3  0.4705  -41.6
 1.140  0.4507  178.5   2.122   66.3  0.1252   49.5  0.4691  -42.0
 1.160  0.4513  177.2   2.090   65.5  0.1266   49.8  0.4677  -42.3
 1.180  0.4521  176.0   2.059   64.8  0.1279   50.1  0.4663  -42.7
 1.200  0.4531  174.8   2.029   64.0  0.1292   50.3  0.4649  -43.1
 1.220  0.4533  173.6   2.000   63.3  0.1305   50.5  0.4638  -43.5
 1.240  0.4537  172.4   1.971   62.5  0.1318   50.8  0.4627  -43.9
 1.260  0.4543  171.2   1.943   61.7  0.1331   51.0  0.4617  -44.3
 1.280  0.4551  170.0   1.915   60.9  0.1344   51.3  0.4606  -44.7
 1.300  0.4561  168.8   1.887   60.1  0.1357   51.5  0.4596  -45.1
 1.320  0.4564  167.9   1.862   59.5  0.1371   51.8  0.4588  -45.5
 1.340  0.4567  167.0   1.837   58.8  0.1386   52.0  0.4580  -45.9
 1.360  0.4572  166.0   1.812   58.1  0.1400   52.3  0.4573  -46.3
 1.380  0.4579  165.1   1.788   57.4  0.1415   52.6  0.4565  -46.7
 1.400  0.4586  164.2   1.764   56.7  0.1429   52.8  0.4558  -47.1
 1.420  0.4587  163.3   1.741   56.1  0.1445   53.0  0.4546  -47.6
 1.440  0.4589  162.4   1.718   55.4  0.1461   53.3  0.4535  -48.1
 1.460  0.4592  161.6   1.696   54.7  0.1476   53.5  0.4524  -48.5
 1.480  0.4596  160.7   1.674   54.0  0.1492   53.7  0.4513  -49.0
 1.500  0.4601  159.8   1.652   53.3  0.1508   53.9  0.4503  -49.5
 1.520  0.4617  158.9   1.636   52.7  0.1524   54.1  0.4493  -50.0
 1.540  0.4635  158.0   1.620   52.2  0.1540   54.2  0.4484  -50.5
 1.560  0.4653  157.1   1.605   51.6  0.1555   54.4  0.4475  -51.1
 1.580  0.4672  156.3   1.589   51.0  0.1571   54.5  0.4467  -51.6
 1.600  0.4693  155.4   1.574   50.4  0.1587   54.7  0.4459  -52.1
 1.620  0.4716  154.7   1.559   49.8  0.1604   54.9  0.4452  -52.6
 1.640  0.4741  153.9   1.544   49.2  0.1622   55.1  0.4445  -53.1
 1.660  0.4766  153.2   1.529   48.6  0.1639   55.3  0.4438  -53.6
 1.680  0.4792  152.5   1.514   47.9  0.1657   55.4  0.4432  -54.1
 1.700  0.4818  151.8   1.500   47.3  0.1674   55.6  0.4426  -54.6
 1.720  0.4816  151.0   1.486   46.8  0.1693   55.7  0.4423  -55.1
 1.740  0.4814  150.2   1.472   46.2  0.1712   55.8  0.4421  -55.6
 1.760  0.4814  149.3   1.459   45.7  0.1730   55.9  0.4418  -56.2
 1.780  0.4814  148.5   1.445   45.1  0.1749   56.0  0.4416  -56.7
 1.800  0.4816  147.7   1.432   44.5  0.1768   56.1  0.4415  -57.2
 1.820  0.4822  146.9   1.419   44.0  0.1788   56.2  0.4409  -57.8
 1.840  0.4829  146.1   1.405   43.4  0.1808   56.3  0.4404  -58.3
 1.860  0.4836  145.4   1.392   42.9  0.1828   56.5  0.4399  -58.9
 1.880  0.4845  144.6   1.379   42.3  0.1848   56.6  0.4394  -59.4
 1.900  0.4854  143.8   1.366   41.7  0.1868   56.7  0.4390  -60.0
 1.920  0.4868  143.2   1.354   41.2  0.1889   56.8  0.4385  -60.5
 1.940  0.4882  142.5   1.342   40.7  0.1910   56.9  0.4381  -61.0
 1.960  0.4897  141.9   1.330   40.2  0.1932   56.9  0.4376  -61.6
 1.980  0.4913  141.2   1.318   39.6  0.1953   57.0  0.4372  -62.1
 2.000  0.4929  140.6   1.306   39.1  0.1974   57.1  0.4369  -62.6
 2.020  0.4940  139.9   1.296   38.6  0.1996   57.1  0.4364  -63.2
 2.040  0.4952  139.3   1.286   38.1  0.2019   57.1  0.4359  -63.8
 2.060  0.4964  138.6   1.276   37.7  0.2041   57.1  0.4355  -64.3
 2.080  0.4977  138.0   1.266   37.2  0.2063   57.1  0.4351  -64.9
 2.100  0.4991  137.3   1.257   36.6  0.2085   57.2  0.4347  -65.5
 2.120  0.5005  136.7   1.247   36.1  0.2108   57.2  0.4344  -66.1
 2.140  0.5020  136.0   1.238   35.6  0.2130   57.2  0.4342  -66.7
 2.160  0.5036  135.4   1.228   35.1  0.2152   57.2  0.4340  -67.2
 2.180  0.5052  134.7   1.219   34.5  0.2175   57.2  0.4338  -67.8
 2.200  0.5069  134.1   1.210   34.0  0.2197   57.2  0.4337  -68.4
 2.220  0.5076  133.5   1.202   33.6  0.2221   57.2  0.4333  -69.0
 2.240  0.5083  132.9   1.193   33.1  0.2246   57.1  0.4329  -69.6
 2.260  0.5090  132.3   1.185   32.7  0.2270   57.1  0.4326  -70.2
 2.280  0.5099  131.7   1.177   32.3  0.2295   57.1  0.4324  -70.8
 2.300  0.5107  131.1   1.169   31.8  0.2319   57.0  0.4321  -71.4
 2.320  0.5117  130.5   1.161   31.4  0.2343   57.0  0.4320  -72.1
 2.340  0.5127  129.9   1.153   30.9  0.2368   57.0  0.4319  -72.7
 2.360  0.5137  129.3   1.145   30.4  0.2392   57.0  0.4318  -73.3
 2.380  0.5148  128.7   1.138   30.0  0.2417   56.9  0.4318  -73.9
 2.400  0.5160  128.1   1.130   29.5  0.2441   56.9  0.4318  -74.5
 2.420  0.5178  127.5   1.123   29.1  0.2466   56.8  0.4312  -75.2
 2.440  0.5197  126.9   1.115   28.7  0.2491   56.7  0.4306  -75.8
 2.460  0.5216  126.3   1.108   28.2  0.2516   56.6  0.4301  -76.5
 2.480  0.5236  125.7   1.100   27.8  0.2541   56.6  0.4297  -77.2
 2.500  0.5256  125.1   1.093   27.4  0.2566   56.5  0.4293  -77.8
 2.520  0.5277  124.6   1.086   26.9  0.2592   56.4  0.4289  -78.5
 2.540  0.5298  124.0   1.079   26.5  0.2617   56.3  0.4287  -79.2
 2.560  0.5320  123.4   1.072   26.0  0.2642   56.2  0.4284  -79.9
 2.580  0.5342  122.9   1.065   25.6  0.2667   56.2  0.4283  -80.5
 2.600  0.5365  122.3   1.058   25.1  0.2692   56.1  0.4282  -81.2
 2.620  0.5371  121.8   1.052   24.7  0.2719   55.9  0.4276  -81.9
 2.640  0.5378  121.3   1.046   24.3  0.2747   55.8  0.4271  -82.6
 2.660  0.5385  120.8   1.040   23.9  0.2774   55.6  0.4267  -83.3
 2.680  0.5392  120.2   1.035   23.5  0.2802   55.5  0.4263  -84.1
 2.700  0.5400  119.7   1.029   23.1  0.2829   55.3  0.4260  -84.8
 2.720  0.5408  119.2   1.023   22.6  0.2857   55.2  0.4257  -85.5
 2.740  0.5417  118.7   1.018   22.2  0.2884   55.0  0.4255  -86.2
 2.760  0.5426  118.2   1.012   21.8  0.2912   54.9  0.4254  -87.0
 2.780  0.5436  117.7   1.006   21.3  0.2939   54.7  0.4254  -87.7
 2.800  0.5446  117.2   1.001   20.9  0.2967   54.6  0.4254  -88.4
 2.820  0.5458  116.6   0.995   20.6  0.2996   54.4  0.4250  -89.1
 2.840  0.5470  116.1   0.990   20.2  0.3025   54.2  0.4247  -89.9
 2.860  0.5483  115.5   0.984   19.9  0.3054   54.0  0.4245  -90.6
 2.880  0.5496  114.9   0.979   19.5  0.3083   53.8  0.4243  -91.4
 2.900  0.5510  114.4   0.974   19.2  0.3113   53.7  0.4242  -92.1
 2.920  0.5525  113.8   0.968   18.8  0.3142   53.5  0.4242  -92.9
 2.940  0.5540  113.2   0.963   18.5  0.3171   53.3  0.4243  -93.6
 2.960  0.5555  112.7   0.958   18.1  0.3200   53.1  0.4244  -94.4
 2.980  0.5571  112.1   0.952   17.8  0.3230   53.0  0.4246  -95.2
 3.000  0.5588  111.6   0.947   17.4  0.3259   52.8  0.4249  -95.9
!
!  f       NFmin   Gammaopt  rn/50
! GHz       dB    MAG  ANG    -
!
! noise parameter not available yet for this operation point!
!
! (c) 2015  Infineon Technologies AG, Munich
