! Infineon Technologies  Discrete & RF Semiconductors
! BFR93AW
! VCE =  1.7 V,  IC =  8.0 mA
! Common Emitter S-Parameters:                            Nov 2015
# GHz  S  MA  R  50
!  f         S11            S21            S12            S22
! GHz     MAG   ANG      MAG   ANG      MAG   ANG      MAG   ANG
 0.030  0.7193  -23.9  23.314  166.0  0.0120   79.3  0.9536  -11.4
 0.035  0.7141  -27.4  23.062  163.7  0.0139   77.4  0.9430  -13.2
 0.040  0.7115  -30.9  22.848  161.4  0.0158   75.9  0.9333  -15.0
 0.045  0.7116  -34.4  22.672  159.1  0.0177   74.7  0.9246  -16.9
 0.050  0.7143  -37.9  22.534  156.7  0.0197   73.8  0.9169  -18.8
 0.055  0.7001  -40.8  22.108  155.1  0.0211   71.6  0.9010  -20.0
 0.060  0.6877  -43.8  21.699  153.5  0.0225   69.7  0.8855  -21.2
 0.065  0.6773  -46.9  21.308  151.8  0.0240   68.0  0.8704  -22.5
 0.070  0.6688  -50.0  20.936  150.1  0.0255   66.5  0.8558  -23.9
 0.075  0.6624  -53.2  20.583  148.3  0.0270   65.2  0.8417  -25.2
 0.080  0.6582  -56.5  20.251  146.5  0.0285   64.0  0.8280  -26.6
 0.085  0.6562  -59.8  19.941  144.6  0.0300   62.9  0.8149  -28.1
 0.090  0.6564  -63.2  19.654  142.6  0.0315   62.0  0.8023  -29.6
 0.095  0.6589  -66.5  19.391  140.6  0.0330   61.1  0.7903  -31.2
 0.100  0.6635  -69.8  19.153  138.5  0.0346   60.3  0.7789  -32.8
 0.105  0.6534  -72.0  18.766  137.4  0.0353   59.4  0.7650  -33.5
 0.110  0.6443  -74.2  18.385  136.3  0.0361   58.6  0.7513  -34.2
 0.115  0.6362  -76.5  18.012  135.1  0.0369   57.8  0.7376  -34.9
 0.120  0.6291  -78.9  17.646  133.9  0.0377   57.0  0.7241  -35.7
 0.125  0.6232  -81.3  17.289  132.6  0.0385   56.3  0.7107  -36.5
 0.130  0.6183  -83.7  16.940  131.3  0.0393   55.6  0.6975  -37.3
 0.135  0.6146  -86.2  16.601  129.9  0.0401   54.9  0.6844  -38.2
 0.140  0.6121  -88.7  16.271  128.5  0.0409   54.2  0.6715  -39.1
 0.145  0.6107  -91.2  15.953  127.0  0.0417   53.6  0.6588  -40.0
 0.150  0.6106  -93.8  15.645  125.5  0.0425   53.0  0.6462  -41.0
 0.155  0.6054  -95.4  15.366  124.8  0.0431   52.6  0.6362  -41.4
 0.160  0.6007  -97.0  15.089  124.0  0.0436   52.3  0.6262  -41.9
 0.165  0.5965  -98.6  14.815  123.2  0.0442   52.0  0.6162  -42.3
 0.170  0.5928 -100.2  14.545  122.3  0.0448   51.6  0.6063  -42.8
 0.175  0.5895 -101.9  14.277  121.5  0.0454   51.3  0.5964  -43.3
 0.180  0.5868 -103.6  14.013  120.6  0.0460   51.0  0.5865  -43.8
 0.185  0.5845 -105.3  13.753  119.6  0.0465   50.7  0.5768  -44.3
 0.190  0.5828 -107.0  13.496  118.7  0.0471   50.4  0.5670  -44.9
 0.195  0.5816 -108.7  13.243  117.6  0.0477   50.1  0.5573  -45.4
 0.200  0.5809 -110.4  12.995  116.6  0.0483   49.8  0.5477  -46.0
 0.220  0.5675 -115.5  12.155  114.2  0.0501   49.2  0.5173  -47.0
 0.240  0.5589 -120.9  11.341  111.4  0.0519   48.7  0.4871  -48.2
 0.260  0.5531 -125.5  10.635  108.9  0.0535   48.3  0.4618  -49.1
 0.280  0.5485 -129.5  10.023  106.9  0.0549   48.0  0.4413  -49.6
 0.300  0.5466 -133.5   9.425  104.7  0.0563   47.8  0.4209  -50.2
 0.320  0.5407 -136.3   8.990  103.4  0.0577   48.1  0.4063  -50.4
 0.340  0.5361 -139.2   8.559  102.0  0.0592   48.4  0.3918  -50.6
 0.360  0.5328 -142.0   8.134  100.5  0.0606   48.7  0.3772  -50.8
 0.380  0.5309 -145.0   7.715   98.9  0.0621   49.0  0.3627  -51.1
 0.400  0.5304 -147.9   7.304   97.0  0.0636   49.3  0.3482  -51.4
 0.420  0.5280 -150.0   7.032   96.0  0.0649   49.6  0.3393  -51.5
 0.440  0.5263 -152.1   6.763   95.0  0.0662   49.9  0.3304  -51.6
 0.450  0.5257 -153.1   6.629   94.4  0.0668   50.1  0.3260  -51.7
 0.460  0.5253 -154.1   6.496   93.8  0.0675   50.3  0.3216  -51.8
 0.480  0.5250 -156.2   6.231   92.6  0.0688   50.6  0.3127  -51.9
 0.500  0.5254 -158.3   5.970   91.2  0.0701   50.9  0.3038  -52.0
 0.520  0.5245 -159.7   5.778   90.4  0.0715   51.4  0.2985  -52.1
 0.540  0.5239 -161.1   5.587   89.5  0.0728   51.8  0.2932  -52.2
 0.560  0.5236 -162.5   5.398   88.6  0.0742   52.3  0.2879  -52.2
 0.580  0.5237 -163.9   5.210   87.6  0.0755   52.7  0.2826  -52.3
 0.600  0.5240 -165.3   5.024   86.5  0.0769   53.1  0.2773  -52.4
 0.620  0.5233 -166.6   4.889   85.8  0.0784   53.5  0.2737  -52.6
 0.640  0.5228 -167.9   4.756   85.0  0.0799   53.9  0.2702  -52.8
 0.660  0.5227 -169.3   4.623   84.2  0.0814   54.3  0.2666  -53.0
 0.680  0.5228 -170.6   4.491   83.3  0.0829   54.7  0.2631  -53.2
 0.700  0.5232 -171.9   4.360   82.4  0.0844   55.1  0.2595  -53.4
 0.720  0.5236 -173.0   4.253   81.7  0.0860   55.4  0.2562  -53.7
 0.740  0.5242 -174.0   4.147   81.0  0.0876   55.7  0.2529  -54.1
 0.760  0.5250 -175.1   4.042   80.3  0.0891   56.0  0.2496  -54.5
 0.780  0.5260 -176.1   3.937   79.5  0.0907   56.3  0.2464  -54.8
 0.800  0.5271 -177.2   3.833   78.7  0.0923   56.6  0.2431  -55.2
 0.820  0.5268 -178.1   3.752   78.1  0.0939   56.9  0.2417  -55.4
 0.840  0.5266 -179.0   3.672   77.5  0.0955   57.2  0.2402  -55.6
 0.860  0.5266 -179.9   3.592   76.8  0.0970   57.5  0.2388  -55.7
 0.880  0.5267  179.2   3.513   76.1  0.0986   57.8  0.2373  -55.9
 0.900  0.5269  178.3   3.434   75.4  0.1002   58.1  0.2359  -56.1
 0.920  0.5268  177.4   3.368   74.8  0.1019   58.3  0.2343  -56.4
 0.940  0.5268  176.6   3.303   74.2  0.1036   58.5  0.2327  -56.8
 0.960  0.5269  175.7   3.238   73.6  0.1052   58.7  0.2311  -57.1
 0.980  0.5271  174.9   3.173   72.9  0.1069   58.9  0.2295  -57.5
 1.000  0.5275  174.0   3.109   72.2  0.1086   59.1  0.2279  -57.8
 1.020  0.5284  173.3   3.056   71.6  0.1103   59.3  0.2266  -58.5
 1.040  0.5294  172.6   3.002   71.0  0.1120   59.4  0.2254  -59.1
 1.060  0.5305  171.8   2.950   70.4  0.1138   59.6  0.2242  -59.8
 1.080  0.5317  171.1   2.897   69.8  0.1155   59.7  0.2230  -60.5
 1.100  0.5330  170.4   2.845   69.1  0.1172   59.9  0.2219  -61.2
 1.120  0.5341  169.7   2.800   68.6  0.1189   60.0  0.2214  -61.5
 1.140  0.5353  169.0   2.755   68.0  0.1207   60.2  0.2208  -61.9
 1.160  0.5366  168.3   2.710   67.5  0.1224   60.3  0.2203  -62.2
 1.180  0.5380  167.6   2.665   66.9  0.1242   60.4  0.2198  -62.6
 1.200  0.5394  166.9   2.621   66.3  0.1259   60.5  0.2193  -62.9
 1.220  0.5392  166.3   2.585   65.8  0.1278   60.6  0.2187  -63.3
 1.240  0.5391  165.7   2.549   65.2  0.1297   60.7  0.2182  -63.6
 1.260  0.5390  165.0   2.513   64.7  0.1316   60.8  0.2176  -64.0
 1.280  0.5390  164.4   2.478   64.1  0.1335   60.9  0.2170  -64.3
 1.300  0.5390  163.8   2.443   63.5  0.1354   61.0  0.2165  -64.7
 1.320  0.5400  163.2   2.410   63.0  0.1371   61.1  0.2159  -65.5
 1.340  0.5411  162.6   2.377   62.5  0.1388   61.1  0.2154  -66.4
 1.360  0.5422  162.0   2.345   61.9  0.1405   61.2  0.2150  -67.2
 1.380  0.5434  161.4   2.312   61.4  0.1422   61.2  0.2146  -68.1
 1.400  0.5446  160.8   2.280   60.8  0.1439   61.3  0.2142  -68.9
 1.420  0.5454  160.3   2.251   60.3  0.1457   61.3  0.2143  -69.4
 1.440  0.5462  159.8   2.223   59.8  0.1475   61.4  0.2144  -69.9
 1.460  0.5471  159.2   2.194   59.3  0.1492   61.4  0.2145  -70.3
 1.480  0.5480  158.7   2.166   58.8  0.1510   61.5  0.2146  -70.8
 1.500  0.5490  158.2   2.138   58.3  0.1528   61.5  0.2147  -71.3
 1.520  0.5491  157.6   2.114   57.8  0.1549   61.5  0.2140  -71.8
 1.540  0.5493  156.9   2.090   57.3  0.1569   61.5  0.2133  -72.4
 1.560  0.5496  156.3   2.067   56.8  0.1590   61.5  0.2126  -72.9
 1.580  0.5499  155.6   2.043   56.2  0.1610   61.5  0.2119  -73.5
 1.600  0.5503  155.0   2.020   55.7  0.1631   61.5  0.2113  -74.0
 1.620  0.5512  154.5   1.998   55.2  0.1650   61.5  0.2116  -74.9
 1.640  0.5522  153.9   1.977   54.7  0.1669   61.5  0.2119  -75.8
 1.660  0.5532  153.4   1.955   54.2  0.1688   61.5  0.2123  -76.7
 1.680  0.5543  152.8   1.934   53.7  0.1707   61.5  0.2127  -77.6
 1.700  0.5554  152.3   1.913   53.2  0.1726   61.5  0.2132  -78.5
 1.720  0.5559  151.8   1.894   52.8  0.1745   61.5  0.2142  -79.0
 1.740  0.5565  151.4   1.875   52.3  0.1764   61.5  0.2153  -79.5
 1.760  0.5572  150.9   1.857   51.9  0.1784   61.4  0.2164  -80.0
 1.780  0.5578  150.5   1.838   51.5  0.1803   61.4  0.2175  -80.4
 1.800  0.5585  150.0   1.820   51.0  0.1822   61.4  0.2186  -80.9
 1.820  0.5588  149.5   1.803   50.6  0.1843   61.4  0.2180  -81.4
 1.840  0.5591  149.0   1.787   50.1  0.1865   61.4  0.2174  -81.9
 1.860  0.5595  148.4   1.770   49.6  0.1886   61.3  0.2169  -82.5
 1.880  0.5599  147.9   1.754   49.2  0.1908   61.3  0.2163  -83.0
 1.900  0.5604  147.4   1.738   48.7  0.1929   61.3  0.2158  -83.5
 1.920  0.5615  146.8   1.722   48.2  0.1948   61.2  0.2167  -84.3
 1.940  0.5626  146.3   1.706   47.8  0.1967   61.1  0.2177  -85.1
 1.960  0.5637  145.7   1.691   47.3  0.1987   61.1  0.2187  -85.9
 1.980  0.5649  145.2   1.675   46.8  0.2006   61.0  0.2198  -86.6
 2.000  0.5662  144.6   1.660   46.3  0.2025   60.9  0.2209  -87.4
 2.020  0.5666  144.2   1.647   45.9  0.2046   60.8  0.2211  -87.9
 2.040  0.5670  143.7   1.634   45.5  0.2066   60.7  0.2213  -88.4
 2.060  0.5674  143.3   1.621   45.2  0.2087   60.6  0.2215  -88.9
 2.080  0.5679  142.8   1.609   44.8  0.2108   60.5  0.2218  -89.4
 2.100  0.5684  142.4   1.596   44.4  0.2128   60.4  0.2220  -89.9
 2.120  0.5689  142.0   1.583   44.0  0.2149   60.3  0.2223  -90.4
 2.140  0.5695  141.5   1.571   43.6  0.2170   60.3  0.2226  -90.9
 2.160  0.5701  141.1   1.559   43.2  0.2191   60.2  0.2229  -91.4
 2.180  0.5707  140.6   1.546   42.7  0.2211   60.1  0.2233  -91.9
 2.200  0.5714  140.2   1.534   42.3  0.2232   60.0  0.2236  -92.4
 2.220  0.5723  139.7   1.523   41.9  0.2253   59.9  0.2245  -93.0
 2.240  0.5733  139.3   1.511   41.5  0.2273   59.8  0.2254  -93.7
 2.260  0.5742  138.8   1.500   41.2  0.2294   59.7  0.2264  -94.3
 2.280  0.5753  138.4   1.489   40.8  0.2314   59.6  0.2273  -94.9
 2.300  0.5763  137.9   1.478   40.4  0.2335   59.5  0.2283  -95.5
 2.320  0.5774  137.5   1.467   40.0  0.2356   59.4  0.2294  -96.1
 2.340  0.5785  137.0   1.456   39.6  0.2376   59.3  0.2304  -96.7
 2.360  0.5797  136.6   1.445   39.1  0.2397   59.2  0.2315  -97.3
 2.380  0.5809  136.1   1.434   38.7  0.2417   59.1  0.2326  -97.9
 2.400  0.5821  135.7   1.423   38.3  0.2438   59.0  0.2337  -98.5
 2.420  0.5827  135.2   1.414   37.9  0.2460   58.8  0.2339  -99.3
 2.440  0.5832  134.7   1.404   37.5  0.2482   58.7  0.2341 -100.1
 2.460  0.5839  134.2   1.395   37.1  0.2504   58.5  0.2343 -100.9
 2.480  0.5846  133.8   1.386   36.7  0.2525   58.4  0.2346 -101.6
 2.500  0.5853  133.3   1.377   36.3  0.2547   58.2  0.2350 -102.4
 2.520  0.5860  132.8   1.368   35.9  0.2569   58.1  0.2353 -103.2
 2.540  0.5868  132.3   1.359   35.5  0.2591   57.9  0.2358 -104.0
 2.560  0.5877  131.8   1.350   35.1  0.2613   57.8  0.2362 -104.8
 2.580  0.5886  131.4   1.342   34.6  0.2635   57.6  0.2367 -105.5
 2.600  0.5895  130.9   1.333   34.2  0.2657   57.5  0.2373 -106.3
 2.620  0.5905  130.5   1.325   33.9  0.2679   57.3  0.2379 -106.9
 2.640  0.5915  130.1   1.318   33.5  0.2702   57.2  0.2385 -107.4
 2.660  0.5925  129.7   1.310   33.2  0.2724   57.0  0.2392 -108.0
 2.680  0.5936  129.3   1.303   32.8  0.2746   56.9  0.2398 -108.6
 2.700  0.5947  128.9   1.295   32.5  0.2769   56.7  0.2405 -109.1
 2.720  0.5958  128.5   1.288   32.1  0.2791   56.6  0.2412 -109.7
 2.740  0.5970  128.2   1.281   31.8  0.2814   56.4  0.2420 -110.3
 2.760  0.5982  127.8   1.273   31.4  0.2836   56.3  0.2427 -110.8
 2.780  0.5994  127.4   1.266   31.1  0.2859   56.1  0.2435 -111.4
 2.800  0.6006  127.0   1.259   30.7  0.2881   56.0  0.2443 -111.9
 2.820  0.6010  126.6   1.252   30.4  0.2901   55.8  0.2452 -112.5
 2.840  0.6014  126.1   1.245   30.0  0.2921   55.7  0.2461 -113.1
 2.860  0.6019  125.7   1.238   29.7  0.2941   55.5  0.2470 -113.7
 2.880  0.6024  125.3   1.232   29.4  0.2962   55.4  0.2479 -114.2
 2.900  0.6030  124.8   1.225   29.0  0.2982   55.2  0.2489 -114.8
 2.920  0.6036  124.4   1.218   28.7  0.3002   55.1  0.2499 -115.4
 2.940  0.6042  124.0   1.212   28.4  0.3022   54.9  0.2509 -115.9
 2.960  0.6048  123.6   1.205   28.0  0.3042   54.8  0.2519 -116.5
 2.980  0.6055  123.1   1.199   27.7  0.3063   54.6  0.2530 -117.1
 3.000  0.6062  122.7   1.192   27.3  0.3083   54.5  0.2541 -117.6
 3.100  0.6098  120.7   1.163   25.8  0.3190   53.4  0.2580 -121.3
 3.200  0.6141  118.8   1.135   24.3  0.3299   52.3  0.2630 -124.8
 3.300  0.6191  116.8   1.108   22.7  0.3408   51.4  0.2689 -128.3
 3.400  0.6247  115.0   1.082   21.0  0.3519   50.5  0.2758 -131.5
 3.500  0.6311  113.1   1.057   19.2  0.3630   49.6  0.2835 -134.6
 3.600  0.6329  111.3   1.034   18.0  0.3728   48.4  0.2879 -138.2
 3.700  0.6352  109.5   1.012   16.7  0.3827   47.2  0.2933 -141.8
 3.800  0.6382  107.8   0.991   15.4  0.3928   46.1  0.2999 -145.1
 3.900  0.6418  106.0   0.970   14.0  0.4030   45.1  0.3074 -148.3
 4.000  0.6460  104.3   0.949   12.6  0.4134   44.1  0.3159 -151.4
 4.100  0.6483  102.7   0.931   11.6  0.4224   42.8  0.3213 -154.3
 4.200  0.6511  101.1   0.914   10.6  0.4315   41.5  0.3275 -157.1
 4.300  0.6545   99.5   0.897    9.5  0.4409   40.3  0.3345 -159.8
 4.400  0.6583   97.9   0.880    8.4  0.4505   39.1  0.3422 -162.4
 4.500  0.6626   96.4   0.864    7.2  0.4602   38.0  0.3506 -164.9
 4.600  0.6633   95.0   0.851    6.3  0.4679   36.8  0.3551 -167.6
 4.700  0.6644   93.7   0.839    5.4  0.4757   35.6  0.3603 -170.1
 4.800  0.6658   92.4   0.827    4.5  0.4838   34.5  0.3663 -172.6
 4.900  0.6676   91.0   0.815    3.6  0.4921   33.4  0.3729 -175.1
 5.000  0.6698   89.7   0.803    2.6  0.5005   32.3  0.3802 -177.4
 5.100  0.6718   88.4   0.793    1.9  0.5073   31.1  0.3832 -180.0
 5.200  0.6741   87.2   0.783    1.2  0.5143   30.0  0.3869  177.5
 5.300  0.6768   86.0   0.773    0.5  0.5215   28.8  0.3914  175.0
 5.400  0.6797   84.7   0.764   -0.2  0.5289   27.8  0.3966  172.6
 5.500  0.6830   83.5   0.754   -1.0  0.5365   26.7  0.4025  170.3
 5.600  0.6831   82.4   0.748   -1.6  0.5428   25.5  0.4057  168.0
 5.700  0.6834   81.3   0.741   -2.2  0.5493   24.4  0.4095  165.8
 5.800  0.6840   80.1   0.735   -2.9  0.5560   23.3  0.4140  163.6
 5.900  0.6849   79.0   0.729   -3.5  0.5630   22.2  0.4190  161.5
 6.000  0.6860   77.9   0.723   -4.2  0.5701   21.1  0.4246  159.4
!
!  f       NFmin   Gammaopt  rn/50
! GHz       dB    MAG  ANG    -
!
! noise parameter not available yet for this operation point!
!
! (c) 2015  Infineon Technologies AG, Munich
