! Infineon Technologies  Discrete & RF Semiconductors
! BFR93AW
! VCE =  2.5 V,  IC =  80 mA
! Common Emitter S-Parameters:                            Nov 2015
# GHz  S  MA  R  50
!  f         S11            S21            S12            S22
! GHz     MAG   ANG      MAG   ANG      MAG   ANG      MAG   ANG
 0.030  0.3277 -127.7  54.005  144.6  0.0068   64.4  0.6473  -30.2
 0.035  0.3576 -132.6  50.479  140.7  0.0075   64.1  0.6060  -33.3
 0.040  0.3896 -136.7  47.223  136.2  0.0082   63.8  0.5668  -36.8
 0.045  0.4233 -140.2  44.295  131.1  0.0089   63.5  0.5300  -40.9
 0.050  0.4583 -143.1  41.760  125.4  0.0096   63.3  0.4963  -45.5
 0.055  0.4638 -145.2  39.917  124.4  0.0101   64.0  0.4768  -46.1
 0.060  0.4699 -147.3  38.089  123.2  0.0107   64.6  0.4574  -46.7
 0.065  0.4767 -149.3  36.277  122.0  0.0113   65.2  0.4380  -47.4
 0.070  0.4840 -151.3  34.484  120.6  0.0119   65.7  0.4187  -48.1
 0.075  0.4918 -153.2  32.713  119.0  0.0124   66.2  0.3995  -49.0
 0.080  0.5002 -155.1  30.970  117.3  0.0130   66.6  0.3803  -49.9
 0.085  0.5091 -156.9  29.258  115.4  0.0136   67.0  0.3613  -50.9
 0.090  0.5185 -158.6  27.581  113.3  0.0142   67.4  0.3424  -52.0
 0.095  0.5283 -160.2  25.948  110.9  0.0147   67.7  0.3236  -53.2
 0.100  0.5385 -161.8  24.368  108.1  0.0153   68.0  0.3050  -54.6
 0.105  0.5402 -162.6  23.598  107.6  0.0158   68.3  0.2969  -54.6
 0.110  0.5420 -163.3  22.831  107.0  0.0164   68.6  0.2889  -54.6
 0.115  0.5439 -164.1  22.066  106.4  0.0169   68.9  0.2808  -54.6
 0.120  0.5460 -164.9  21.304  105.8  0.0174   69.1  0.2728  -54.6
 0.125  0.5481 -165.7  20.544  105.1  0.0179   69.4  0.2647  -54.6
 0.130  0.5503 -166.4  19.788  104.4  0.0185   69.6  0.2567  -54.6
 0.135  0.5526 -167.1  19.034  103.6  0.0190   69.8  0.2486  -54.6
 0.140  0.5550 -167.8  18.285  102.7  0.0195   70.0  0.2406  -54.6
 0.145  0.5575 -168.6  17.541  101.8  0.0200   70.2  0.2325  -54.6
 0.150  0.5600 -169.3  16.801  100.8  0.0206   70.4  0.2245  -54.6
 0.155  0.5600 -169.8  16.400  100.4  0.0211   70.6  0.2207  -54.5
 0.160  0.5601 -170.2  15.999  100.1  0.0217   70.7  0.2169  -54.4
 0.165  0.5602 -170.7  15.599   99.7  0.0222   70.9  0.2130  -54.3
 0.170  0.5604 -171.2  15.199   99.3  0.0227   71.0  0.2092  -54.2
 0.175  0.5606 -171.7  14.801   98.9  0.0232   71.2  0.2054  -54.1
 0.180  0.5608 -172.1  14.403   98.4  0.0238   71.3  0.2016  -53.9
 0.185  0.5611 -172.6  14.006   97.9  0.0243   71.4  0.1978  -53.8
 0.190  0.5614 -173.1  13.611   97.4  0.0248   71.6  0.1939  -53.7
 0.195  0.5617 -173.5  13.216   96.9  0.0254   71.7  0.1901  -53.5
 0.200  0.5621 -174.0  12.823   96.3  0.0259   71.8  0.1863  -53.4
 0.220  0.5640 -175.5  11.818   95.2  0.0282   72.7  0.1764  -52.8
 0.240  0.5662 -177.0  10.819   93.9  0.0305   73.5  0.1666  -52.1
 0.260  0.5685 -178.2   9.986   92.8  0.0328   74.2  0.1592  -51.5
 0.280  0.5706 -179.1   9.318   91.9  0.0349   74.7  0.1543  -51.0
 0.300  0.5728 -180.0   8.652   90.8  0.0371   75.1  0.1493  -50.5
 0.320  0.5725  179.1   8.225   90.2  0.0393   75.3  0.1456  -50.2
 0.340  0.5723  178.2   7.799   89.5  0.0415   75.5  0.1419  -49.9
 0.360  0.5722  177.3   7.375   88.7  0.0437   75.7  0.1383  -49.5
 0.380  0.5723  176.4   6.952   87.9  0.0460   75.8  0.1346  -49.2
 0.400  0.5725  175.5   6.531   86.9  0.0482   75.9  0.1310  -48.8
 0.420  0.5731  174.8   6.278   86.3  0.0505   75.9  0.1287  -49.0
 0.440  0.5737  174.1   6.026   85.7  0.0528   76.0  0.1264  -49.3
 0.450  0.5741  173.7   5.900   85.4  0.0539   76.0  0.1253  -49.4
 0.460  0.5745  173.3   5.774   85.1  0.0550   76.0  0.1242  -49.5
 0.480  0.5754  172.6   5.524   84.4  0.0573   76.1  0.1219  -49.8
 0.500  0.5763  171.9   5.274   83.6  0.0596   76.1  0.1197  -50.1
 0.520  0.5767  171.4   5.103   83.1  0.0619   76.2  0.1187  -50.4
 0.540  0.5771  170.8   4.933   82.6  0.0641   76.3  0.1176  -50.8
 0.560  0.5776  170.3   4.764   82.0  0.0664   76.4  0.1166  -51.1
 0.580  0.5781  169.7   4.595   81.4  0.0686   76.4  0.1156  -51.4
 0.600  0.5787  169.2   4.426   80.7  0.0709   76.5  0.1146  -51.8
 0.620  0.5787  168.6   4.306   80.2  0.0732   76.4  0.1138  -52.4
 0.640  0.5788  167.9   4.186   79.7  0.0756   76.3  0.1130  -53.1
 0.660  0.5789  167.3   4.067   79.1  0.0779   76.2  0.1123  -53.8
 0.680  0.5791  166.6   3.948   78.5  0.0803   76.2  0.1115  -54.4
 0.700  0.5794  166.0   3.830   77.9  0.0826   76.1  0.1108  -55.1
 0.720  0.5805  165.4   3.737   77.4  0.0848   76.0  0.1096  -56.1
 0.740  0.5816  164.8   3.644   76.9  0.0870   75.9  0.1084  -57.2
 0.760  0.5828  164.3   3.551   76.4  0.0893   75.8  0.1073  -58.2
 0.780  0.5841  163.7   3.459   75.9  0.0915   75.8  0.1062  -59.3
 0.800  0.5854  163.1   3.367   75.3  0.0937   75.7  0.1052  -60.4
 0.820  0.5850  162.6   3.297   74.8  0.0961   75.6  0.1054  -61.0
 0.840  0.5846  162.1   3.228   74.4  0.0984   75.4  0.1056  -61.7
 0.860  0.5843  161.7   3.159   73.9  0.1008   75.3  0.1059  -62.3
 0.880  0.5840  161.2   3.090   73.3  0.1031   75.2  0.1061  -63.0
 0.900  0.5837  160.7   3.021   72.8  0.1055   75.1  0.1064  -63.6
 0.920  0.5839  160.1   2.964   72.3  0.1078   74.9  0.1060  -64.4
 0.940  0.5842  159.5   2.908   71.9  0.1100   74.7  0.1056  -65.3
 0.960  0.5845  159.0   2.851   71.4  0.1123   74.5  0.1052  -66.1
 0.980  0.5849  158.4   2.795   70.8  0.1145   74.4  0.1048  -66.9
 1.000  0.5853  157.8   2.739   70.3  0.1168   74.2  0.1045  -67.8
 1.020  0.5863  157.4   2.693   69.8  0.1190   74.0  0.1044  -69.3
 1.040  0.5873  156.9   2.648   69.4  0.1212   73.8  0.1043  -70.8
 1.060  0.5883  156.5   2.602   68.9  0.1234   73.6  0.1043  -72.3
 1.080  0.5894  156.0   2.557   68.3  0.1256   73.4  0.1044  -73.8
 1.100  0.5905  155.6   2.512   67.8  0.1278   73.2  0.1045  -75.3
 1.120  0.5912  155.2   2.474   67.4  0.1301   73.1  0.1049  -76.0
 1.140  0.5919  154.7   2.435   67.0  0.1323   73.0  0.1053  -76.8
 1.160  0.5927  154.3   2.397   66.5  0.1346   72.9  0.1057  -77.5
 1.180  0.5935  153.8   2.359   66.1  0.1368   72.8  0.1061  -78.2
 1.200  0.5943  153.4   2.321   65.6  0.1391   72.7  0.1066  -78.9
 1.220  0.5934  152.9   2.290   65.1  0.1414   72.5  0.1066  -79.5
 1.240  0.5926  152.4   2.259   64.7  0.1438   72.3  0.1066  -80.2
 1.260  0.5918  151.9   2.229   64.2  0.1461   72.1  0.1066  -80.8
 1.280  0.5911  151.4   2.198   63.7  0.1485   71.9  0.1066  -81.5
 1.300  0.5904  150.9   2.168   63.2  0.1508   71.7  0.1066  -82.1
 1.320  0.5915  150.5   2.140   62.8  0.1530   71.5  0.1071  -83.8
 1.340  0.5926  150.0   2.112   62.3  0.1552   71.3  0.1076  -85.4
 1.360  0.5937  149.6   2.084   61.9  0.1575   71.1  0.1083  -87.0
 1.380  0.5949  149.1   2.057   61.4  0.1597   70.9  0.1090  -88.6
 1.400  0.5961  148.7   2.029   60.9  0.1619   70.7  0.1098  -90.2
 1.420  0.5967  148.3   2.005   60.5  0.1641   70.5  0.1105  -90.9
 1.440  0.5973  148.0   1.980   60.1  0.1664   70.4  0.1113  -91.7
 1.460  0.5979  147.6   1.956   59.7  0.1686   70.2  0.1120  -92.4
 1.480  0.5985  147.3   1.932   59.2  0.1709   70.1  0.1128  -93.1
 1.500  0.5992  146.9   1.908   58.8  0.1731   69.9  0.1136  -93.8
 1.520  0.5989  146.3   1.888   58.4  0.1754   69.6  0.1135  -94.7
 1.540  0.5987  145.8   1.868   57.9  0.1776   69.4  0.1134  -95.5
 1.560  0.5985  145.2   1.848   57.5  0.1799   69.2  0.1133  -96.4
 1.580  0.5984  144.7   1.829   57.1  0.1821   68.9  0.1133  -97.2
 1.600  0.5984  144.1   1.809   56.6  0.1844   68.7  0.1133  -98.1
 1.620  0.5990  143.7   1.790   56.2  0.1866   68.5  0.1147  -99.4
 1.640  0.5996  143.3   1.772   55.7  0.1888   68.3  0.1162 -100.7
 1.660  0.6002  142.9   1.753   55.3  0.1909   68.1  0.1178 -102.0
 1.680  0.6008  142.5   1.735   54.9  0.1931   67.9  0.1194 -103.2
 1.700  0.6015  142.1   1.717   54.4  0.1953   67.7  0.1211 -104.4
 1.720  0.6025  141.7   1.701   54.0  0.1976   67.5  0.1224 -105.0
 1.740  0.6035  141.4   1.686   53.6  0.1999   67.3  0.1237 -105.5
 1.760  0.6046  141.0   1.670   53.2  0.2021   67.1  0.1251 -106.1
 1.780  0.6057  140.7   1.654   52.8  0.2044   66.9  0.1264 -106.6
 1.800  0.6068  140.3   1.639   52.4  0.2067   66.7  0.1278 -107.1
 1.820  0.6062  139.9   1.625   52.0  0.2090   66.5  0.1277 -107.8
 1.840  0.6057  139.4   1.612   51.6  0.2114   66.3  0.1276 -108.5
 1.860  0.6053  139.0   1.598   51.2  0.2137   66.1  0.1275 -109.2
 1.880  0.6048  138.5   1.584   50.7  0.2161   65.9  0.1274 -109.9
 1.900  0.6044  138.1   1.571   50.3  0.2184   65.7  0.1274 -110.6
 1.920  0.6054  137.6   1.558   49.9  0.2206   65.5  0.1292 -111.5
 1.940  0.6064  137.2   1.544   49.5  0.2228   65.2  0.1310 -112.4
 1.960  0.6075  136.7   1.531   49.1  0.2249   65.0  0.1329 -113.3
 1.980  0.6086  136.3   1.518   48.6  0.2271   64.8  0.1348 -114.1
 2.000  0.6098  135.8   1.505   48.2  0.2293   64.6  0.1367 -114.9
 2.020  0.6098  135.4   1.494   47.9  0.2315   64.4  0.1371 -115.5
 2.040  0.6097  135.0   1.484   47.5  0.2337   64.1  0.1376 -116.1
 2.060  0.6097  134.6   1.473   47.2  0.2359   63.9  0.1381 -116.7
 2.080  0.6098  134.2   1.463   46.8  0.2381   63.7  0.1386 -117.3
 2.100  0.6098  133.8   1.452   46.5  0.2404   63.4  0.1391 -117.9
 2.120  0.6099  133.5   1.442   46.1  0.2426   63.2  0.1396 -118.5
 2.140  0.6101  133.1   1.432   45.7  0.2448   63.0  0.1401 -119.1
 2.160  0.6102  132.7   1.421   45.4  0.2470   62.8  0.1407 -119.7
 2.180  0.6104  132.3   1.411   45.0  0.2493   62.6  0.1412 -120.2
 2.200  0.6106  131.9   1.401   44.6  0.2515   62.4  0.1418 -120.8
 2.220  0.6113  131.5   1.392   44.3  0.2537   62.2  0.1432 -121.4
 2.240  0.6121  131.1   1.382   43.9  0.2558   61.9  0.1445 -122.0
 2.260  0.6129  130.7   1.373   43.6  0.2580   61.7  0.1459 -122.6
 2.280  0.6138  130.4   1.364   43.2  0.2602   61.5  0.1473 -123.2
 2.300  0.6146  130.0   1.354   42.9  0.2624   61.3  0.1488 -123.7
 2.320  0.6155  129.6   1.345   42.5  0.2646   61.0  0.1502 -124.3
 2.340  0.6164  129.2   1.336   42.1  0.2668   60.8  0.1517 -124.8
 2.360  0.6173  128.9   1.327   41.8  0.2690   60.6  0.1531 -125.4
 2.380  0.6183  128.5   1.318   41.4  0.2712   60.4  0.1546 -125.9
 2.400  0.6193  128.1   1.309   41.0  0.2734   60.2  0.1561 -126.4
 2.420  0.6196  127.7   1.301   40.6  0.2755   59.9  0.1568 -127.3
 2.440  0.6199  127.2   1.294   40.3  0.2776   59.7  0.1576 -128.2
 2.460  0.6203  126.8   1.286   39.9  0.2798   59.4  0.1584 -129.1
 2.480  0.6207  126.4   1.278   39.5  0.2819   59.2  0.1592 -130.0
 2.500  0.6212  125.9   1.271   39.2  0.2840   58.9  0.1601 -130.8
 2.520  0.6216  125.5   1.263   38.8  0.2862   58.7  0.1610 -131.7
 2.540  0.6222  125.1   1.256   38.4  0.2883   58.4  0.1620 -132.5
 2.560  0.6227  124.7   1.249   38.0  0.2905   58.2  0.1629 -133.4
 2.580  0.6233  124.2   1.241   37.6  0.2926   57.9  0.1640 -134.2
 2.600  0.6239  123.8   1.234   37.2  0.2948   57.7  0.1650 -135.0
 2.620  0.6245  123.5   1.228   36.9  0.2970   57.5  0.1658 -135.5
 2.640  0.6252  123.1   1.221   36.5  0.2992   57.2  0.1667 -136.0
 2.660  0.6258  122.8   1.215   36.2  0.3014   57.0  0.1675 -136.6
 2.680  0.6265  122.4   1.209   35.9  0.3036   56.7  0.1684 -137.1
 2.700  0.6272  122.1   1.203   35.5  0.3058   56.5  0.1692 -137.6
 2.720  0.6280  121.8   1.197   35.2  0.3080   56.3  0.1701 -138.1
 2.740  0.6287  121.4   1.191   34.9  0.3102   56.1  0.1710 -138.6
 2.760  0.6295  121.1   1.185   34.5  0.3124   55.8  0.1719 -139.0
 2.780  0.6303  120.7   1.179   34.2  0.3147   55.6  0.1729 -139.5
 2.800  0.6311  120.4   1.173   33.8  0.3169   55.4  0.1738 -140.0
 2.820  0.6312  120.0   1.167   33.5  0.3188   55.2  0.1749 -140.5
 2.840  0.6312  119.6   1.162   33.2  0.3208   54.9  0.1761 -141.1
 2.860  0.6314  119.2   1.156   32.9  0.3227   54.7  0.1772 -141.6
 2.880  0.6315  118.8   1.151   32.6  0.3246   54.5  0.1784 -142.1
 2.900  0.6317  118.4   1.145   32.2  0.3266   54.3  0.1796 -142.6
 2.920  0.6319  118.1   1.140   31.9  0.3285   54.0  0.1808 -143.1
 2.940  0.6321  117.7   1.134   31.6  0.3305   53.8  0.1820 -143.6
 2.960  0.6324  117.3   1.129   31.3  0.3325   53.6  0.1832 -144.1
 2.980  0.6327  116.9   1.123   30.9  0.3344   53.4  0.1845 -144.5
 3.000  0.6330  116.5   1.118   30.6  0.3364   53.2  0.1857 -145.0
 3.100  0.6355  114.7   1.095   29.2  0.3459   51.9  0.1917 -148.4
 3.200  0.6386  113.0   1.073   27.7  0.3556   50.6  0.1984 -151.5
 3.300  0.6423  111.3   1.051   26.2  0.3655   49.4  0.2056 -154.4
 3.400  0.6466  109.6   1.030   24.6  0.3755   48.3  0.2133 -157.2
 3.500  0.6514  107.9   1.010   22.9  0.3857   47.2  0.2215 -159.7
 3.600  0.6519  106.3   0.992   21.7  0.3940   45.9  0.2278 -162.9
 3.700  0.6529  104.6   0.974   20.4  0.4024   44.6  0.2347 -165.9
 3.800  0.6545  103.0   0.956   19.1  0.4110   43.4  0.2423 -168.8
 3.900  0.6565  101.4   0.939   17.7  0.4198   42.3  0.2504 -171.4
 4.000  0.6591   99.8   0.923   16.3  0.4288   41.2  0.2590 -173.9
 4.100  0.6607   98.4   0.908   15.3  0.4361   39.9  0.2650 -176.2
 4.200  0.6627   97.1   0.894   14.2  0.4436   38.6  0.2714 -178.4
 4.300  0.6651   95.7   0.880   13.1  0.4513   37.4  0.2782  179.6
 4.400  0.6679   94.3   0.866   12.0  0.4592   36.2  0.2853  177.6
 4.500  0.6710   93.0   0.853   10.8  0.4673   35.0  0.2928  175.7
 4.600  0.6711   91.8   0.843    9.8  0.4734   33.8  0.2977  173.6
 4.700  0.6714   90.6   0.833    8.9  0.4796   32.7  0.3029  171.7
 4.800  0.6721   89.3   0.823    7.9  0.4861   31.6  0.3085  169.7
 4.900  0.6731   88.1   0.813    6.8  0.4927   30.5  0.3145  167.9
 5.000  0.6744   86.9   0.804    5.8  0.4995   29.5  0.3207  166.1
 5.100  0.6762   85.7   0.795    5.0  0.5051   28.4  0.3246  164.0
 5.200  0.6784   84.6   0.786    4.2  0.5110   27.4  0.3290  161.9
 5.300  0.6807   83.5   0.778    3.4  0.5170   26.4  0.3338  159.9
 5.400  0.6834   82.3   0.769    2.6  0.5231   25.4  0.3389  157.9
 5.500  0.6863   81.2   0.761    1.7  0.5294   24.4  0.3445  156.0
 5.600  0.6861   80.2   0.756    1.0  0.5347   23.3  0.3484  154.2
 5.700  0.6862   79.1   0.751    0.2  0.5402   22.3  0.3527  152.3
 5.800  0.6865   78.1   0.746   -0.5  0.5459   21.2  0.3573  150.6
 5.900  0.6870   77.0   0.741   -1.3  0.5518   20.2  0.3622  148.9
 6.000  0.6878   76.0   0.736   -2.1  0.5578   19.2  0.3675  147.2
!
!  f       NFmin   Gammaopt  rn/50
! GHz       dB    MAG  ANG    -
!
! noise parameter not available yet for this operation point!
!
! (c) 2015  Infineon Technologies AG, Munich
