! Infineon Technologies  Discrete & RF Semiconductors
! BFR92P
! VCE =  6.0 V,  IC =  1.0 mA
! Common Emitter S-Parameters:                            Apr 2014
# GHz  S  MA  R  50
!  f         S11            S21            S12            S22
! GHz     MAG   ANG      MAG   ANG      MAG   ANG      MAG   ANG
 0.010  0.9521   -2.9   3.360  177.6  0.0025   90.2  0.9872   -0.7
 0.020  0.9908   -0.7   3.456  178.1  0.0054   87.3  1.0000   -0.9
 0.030  0.9784   -2.5   3.450  177.1  0.0077   87.7  1.0000   -1.4
 0.040  0.9669   -4.3   3.444  176.1  0.0101   88.0  1.0000   -1.9
 0.050  0.9565   -6.2   3.440  175.1  0.0124   88.1  1.0000   -2.4
 0.060  0.9549   -7.5   3.423  173.9  0.0148   86.2  1.0000   -2.9
 0.070  0.9539   -8.9   3.407  172.7  0.0172   84.8  0.9988   -3.4
 0.080  0.9533  -10.2   3.393  171.4  0.0196   83.7  0.9972   -4.0
 0.090  0.9533  -11.6   3.381  170.2  0.0220   82.9  0.9958   -4.5
 0.100  0.9538  -12.9   3.370  168.9  0.0244   82.2  0.9944   -5.0
 0.110  0.9532  -14.1   3.375  168.1  0.0270   81.3  0.9933   -5.5
 0.120  0.9531  -15.2   3.380  167.3  0.0296   80.6  0.9923   -6.0
 0.130  0.9533  -16.4   3.386  166.5  0.0322   80.0  0.9913   -6.6
 0.140  0.9539  -17.5   3.393  165.7  0.0348   79.4  0.9905   -7.1
 0.150  0.9549  -18.7   3.400  164.9  0.0374   79.0  0.9897   -7.6
 0.200  0.9318  -25.3   3.337  158.4  0.0483   74.4  0.9757  -10.0
 0.250  0.9160  -30.7   3.284  154.4  0.0591   71.7  0.9664  -12.3
 0.300  0.8962  -37.4   3.238  148.3  0.0697   67.5  0.9483  -14.5
 0.350  0.8674  -42.9   3.156  143.8  0.0786   63.9  0.9321  -16.5
 0.400  0.8472  -48.8   3.095  139.1  0.0877   61.0  0.9171  -18.5
 0.450  0.8193  -53.8   2.997  135.0  0.0943   58.1  0.8997  -20.2
 0.500  0.7982  -59.2   2.916  130.6  0.1012   55.6  0.8831  -21.9
 0.600  0.7462  -69.6   2.733  122.3  0.1123   51.1  0.8493  -24.7
 0.700  0.6965  -79.2   2.564  115.0  0.1202   46.7  0.8182  -27.2
 0.800  0.6522  -88.5   2.410  108.3  0.1263   43.0  0.7899  -29.4
 0.900  0.6119  -97.3   2.277  101.9  0.1318   40.5  0.7661  -31.5
 1.000  0.5783 -106.1   2.147   96.4  0.1349   38.6  0.7449  -33.2
 1.100  0.5490 -114.2   2.020   91.1  0.1368   37.0  0.7288  -34.8
 1.200  0.5218 -122.3   1.912   86.4  0.1376   35.6  0.7121  -36.4
 1.300  0.4977 -130.2   1.821   81.6  0.1388   35.2  0.6972  -37.9
 1.400  0.4776 -138.1   1.728   77.0  0.1389   34.9  0.6854  -39.4
 1.500  0.4617 -146.0   1.656   72.8  0.1391   35.0  0.6752  -41.0
 1.600  0.4500 -153.9   1.579   68.7  0.1392   35.4  0.6664  -42.6
 1.700  0.4377 -161.3   1.515   65.1  0.1397   36.5  0.6569  -44.2
 1.800  0.4312 -168.3   1.461   61.4  0.1406   37.6  0.6509  -45.8
 1.900  0.4277 -175.4   1.401   57.9  0.1418   39.1  0.6426  -47.5
 2.000  0.4251  177.6   1.352   54.5  0.1437   40.8  0.6374  -49.0
 2.100  0.4234  171.3   1.305   51.5  0.1464   42.6  0.6322  -50.7
 2.200  0.4268  165.0   1.261   48.2  0.1493   44.4  0.6276  -52.5
 2.300  0.4298  159.2   1.217   45.4  0.1539   46.4  0.6219  -54.5
 2.400  0.4371  153.6   1.176   42.4  0.1587   48.2  0.6169  -56.5
 2.500  0.4444  148.4   1.140   39.8  0.1652   50.1  0.6126  -58.6
 2.600  0.4552  143.5   1.107   37.1  0.1719   51.8  0.6091  -60.8
 2.700  0.4618  138.4   1.074   34.8  0.1809   53.1  0.6040  -62.9
 2.800  0.4719  133.4   1.042   32.3  0.1900   54.3  0.5997  -65.1
 2.900  0.4790  129.4   1.017   30.0  0.1998   55.0  0.5953  -67.6
 3.000  0.4884  125.5   0.994   27.6  0.2096   55.6  0.5921  -70.2
 3.100  0.4935  121.9   0.968   25.9  0.2226   55.5  0.5854  -73.1
 3.200  0.5005  118.4   0.942   24.2  0.2357   55.4  0.5803  -76.0
 3.300  0.5093  114.9   0.918   22.3  0.2487   55.3  0.5767  -79.0
 3.400  0.5199  111.6   0.894   20.4  0.2618   55.3  0.5746  -82.0
 3.500  0.5321  108.5   0.872   18.3  0.2748   55.2  0.5742  -85.0
 3.600  0.5391  106.0   0.855   17.0  0.2896   54.3  0.5671  -88.4
 3.700  0.5471  103.6   0.838   15.7  0.3045   53.5  0.5620  -91.9
 3.800  0.5561  101.2   0.822   14.3  0.3195   52.8  0.5590  -95.4
 3.900  0.5659   98.9   0.806   12.9  0.3345   52.2  0.5581  -99.0
 4.000  0.5767   96.7   0.791   11.4  0.3495   51.6  0.5594 -102.5
 4.100  0.5822   94.5   0.779   10.3  0.3643   49.9  0.5508 -106.5
 4.200  0.5885   92.4   0.767    9.1  0.3793   48.4  0.5449 -110.6
 4.300  0.5957   90.2   0.755    8.0  0.3946   46.9  0.5418 -114.7
 4.400  0.6036   88.2   0.744    6.8  0.4102   45.6  0.5416 -118.9
 4.500  0.6123   86.2   0.733    5.5  0.4259   44.4  0.5443 -123.1
 4.600  0.6145   84.4   0.724    4.5  0.4385   42.4  0.5351 -127.2
 4.700  0.6173   82.6   0.715    3.4  0.4516   40.6  0.5288 -131.4
 4.800  0.6206   80.9   0.706    2.3  0.4652   38.9  0.5253 -135.7
 4.900  0.6246   79.1   0.697    1.2  0.4791   37.2  0.5248 -140.0
 5.000  0.6291   77.4   0.689    0.1  0.4934   35.7  0.5273 -144.3
 5.100  0.6315   75.9   0.683   -0.6  0.5033   33.8  0.5207 -148.2
 5.200  0.6344   74.3   0.677   -1.3  0.5138   32.0  0.5166 -152.1
 5.300  0.6378   72.8   0.671   -2.1  0.5247   30.2  0.5149 -156.1
 5.400  0.6416   71.3   0.665   -2.8  0.5361   28.5  0.5157 -160.1
 5.500  0.6458   69.8   0.659   -3.6  0.5480   26.9  0.5191 -164.1
 5.600  0.6489   68.5   0.659   -4.2  0.5573   25.1  0.5181 -167.7
 5.700  0.6523   67.1   0.658   -4.8  0.5671   23.4  0.5191 -171.4
 5.800  0.6560   65.8   0.658   -5.5  0.5774   21.7  0.5223 -175.0
 5.900  0.6602   64.5   0.658   -6.1  0.5881   20.1  0.5274 -178.5
 6.000  0.6646   63.2   0.658   -6.7  0.5993   18.6  0.5346  178.0
!
!  f       NFmin   Gammaopt  rn/50
! GHz       dB    MAG  ANG    -
!
! noise parameter not available yet for this operation point!
!
! (c) 2014  Infineon Technologies AG, Munich
