! Infineon Technologies  Discrete & RF Semiconductors
! BFR93AW
! VCE = 0.50 V,  IC =  8.0 mA
! Common Emitter S-Parameters:                            Nov 2015
# GHz  S  MA  R  50
!  f         S11            S21            S12            S22
! GHz     MAG   ANG      MAG   ANG      MAG   ANG      MAG   ANG
 0.030  0.7026  -30.4  22.736  163.1  0.0178   73.0  0.9274  -16.8
 0.035  0.6965  -34.9  22.394  160.4  0.0205   71.3  0.9110  -19.4
 0.040  0.6948  -39.5  22.102  157.7  0.0232   70.0  0.8965  -22.1
 0.045  0.6975  -44.0  21.862  154.9  0.0259   68.9  0.8840  -24.9
 0.050  0.7045  -48.5  21.677  152.0  0.0287   68.1  0.8737  -27.7
 0.055  0.6880  -51.8  21.149  150.4  0.0303   66.0  0.8522  -29.3
 0.060  0.6740  -55.3  20.638  148.7  0.0320   64.2  0.8313  -30.9
 0.065  0.6625  -58.9  20.146  146.9  0.0337   62.5  0.8112  -32.7
 0.070  0.6537  -62.6  19.674  145.1  0.0354   61.0  0.7919  -34.5
 0.075  0.6477  -66.4  19.224  143.1  0.0371   59.6  0.7734  -36.4
 0.080  0.6446  -70.2  18.797  141.1  0.0388   58.3  0.7558  -38.4
 0.085  0.6443  -74.1  18.395  138.9  0.0406   57.2  0.7392  -40.5
 0.090  0.6470  -77.9  18.020  136.7  0.0424   56.2  0.7236  -42.7
 0.095  0.6526  -81.7  17.673  134.4  0.0442   55.2  0.7091  -45.0
 0.100  0.6610  -85.4  17.356  132.0  0.0460   54.3  0.6957  -47.3
 0.105  0.6524  -87.7  16.949  131.0  0.0469   53.5  0.6797  -48.3
 0.110  0.6449  -90.1  16.547  129.9  0.0478   52.7  0.6639  -49.3
 0.115  0.6385  -92.5  16.152  128.8  0.0487   51.9  0.6483  -50.4
 0.120  0.6332  -94.9  15.763  127.6  0.0496   51.1  0.6329  -51.5
 0.125  0.6291  -97.4  15.381  126.4  0.0505   50.4  0.6178  -52.6
 0.130  0.6262  -99.9  15.007  125.1  0.0514   49.7  0.6030  -53.8
 0.135  0.6246 -102.4  14.640  123.7  0.0523   49.0  0.5884  -55.1
 0.140  0.6242 -105.0  14.282  122.3  0.0533   48.4  0.5742  -56.5
 0.145  0.6250 -107.6  13.934  120.8  0.0542   47.8  0.5603  -57.9
 0.150  0.6270 -110.1  13.596  119.2  0.0552   47.2  0.5468  -59.4
 0.155  0.6232 -111.6  13.327  118.5  0.0558   46.9  0.5364  -60.1
 0.160  0.6199 -113.1  13.061  117.8  0.0563   46.5  0.5261  -60.8
 0.165  0.6171 -114.7  12.796  117.0  0.0569   46.2  0.5159  -61.5
 0.170  0.6146 -116.2  12.534  116.3  0.0575   45.8  0.5057  -62.3
 0.175  0.6127 -117.8  12.274  115.4  0.0581   45.5  0.4957  -63.1
 0.180  0.6112 -119.4  12.017  114.6  0.0587   45.2  0.4857  -63.9
 0.185  0.6101 -120.9  11.763  113.7  0.0592   44.9  0.4759  -64.8
 0.190  0.6096 -122.5  11.511  112.8  0.0598   44.6  0.4662  -65.7
 0.195  0.6094 -124.1  11.263  111.8  0.0604   44.3  0.4566  -66.6
 0.200  0.6098 -125.7  11.018  110.8  0.0610   44.0  0.4471  -67.6
 0.220  0.6010 -130.3  10.247  108.6  0.0628   43.7  0.4169  -69.7
 0.240  0.5962 -135.1   9.494  106.0  0.0645   43.5  0.3873  -72.1
 0.260  0.5940 -139.2   8.855  103.8  0.0662   43.4  0.3631  -74.2
 0.280  0.5927 -142.5   8.318  101.9  0.0679   43.5  0.3439  -75.8
 0.300  0.5934 -145.8   7.792   99.8  0.0696   43.5  0.3250  -77.7
 0.320  0.5896 -148.3   7.421   98.7  0.0710   43.7  0.3109  -78.8
 0.340  0.5869 -150.7   7.053   97.4  0.0724   44.0  0.2969  -80.0
 0.360  0.5854 -153.2   6.688   96.0  0.0738   44.2  0.2830  -81.4
 0.380  0.5849 -155.7   6.329   94.4  0.0752   44.5  0.2693  -82.8
 0.400  0.5855 -158.2   5.974   92.7  0.0766   44.7  0.2558  -84.4
 0.420  0.5840 -159.9   5.746   91.8  0.0782   45.2  0.2476  -85.4
 0.440  0.5831 -161.6   5.520   90.7  0.0798   45.8  0.2394  -86.4
 0.450  0.5828 -162.4   5.408   90.2  0.0806   46.0  0.2354  -87.0
 0.460  0.5826 -163.3   5.296   89.7  0.0814   46.2  0.2314  -87.6
 0.480  0.5827 -165.0   5.074   88.5  0.0831   46.7  0.2234  -88.8
 0.500  0.5833 -166.7   4.854   87.2  0.0847   47.1  0.2155  -90.1
 0.520  0.5833 -167.9   4.697   86.4  0.0863   47.5  0.2106  -90.9
 0.540  0.5837 -169.1   4.540   85.6  0.0880   47.9  0.2057  -91.8
 0.560  0.5842 -170.4   4.385   84.7  0.0896   48.3  0.2009  -92.7
 0.580  0.5851 -171.6   4.231   83.7  0.0913   48.6  0.1961  -93.6
 0.600  0.5862 -172.8   4.078   82.7  0.0929   49.0  0.1914  -94.6
 0.620  0.5859 -173.9   3.968   82.0  0.0946   49.5  0.1883  -95.5
 0.640  0.5859 -175.0   3.859   81.2  0.0963   49.9  0.1852  -96.3
 0.660  0.5860 -176.1   3.751   80.4  0.0980   50.3  0.1821  -97.3
 0.680  0.5864 -177.2   3.644   79.5  0.0998   50.7  0.1791  -98.2
 0.700  0.5870 -178.3   3.537   78.6  0.1015   51.1  0.1762  -99.2
 0.720  0.5873 -179.2   3.450   77.9  0.1033   51.5  0.1741 -100.3
 0.740  0.5878  179.8   3.364   77.2  0.1052   51.8  0.1721 -101.4
 0.760  0.5884  178.9   3.278   76.5  0.1070   52.2  0.1701 -102.5
 0.780  0.5892  177.9   3.193   75.7  0.1089   52.5  0.1682 -103.7
 0.800  0.5902  177.0   3.108   74.9  0.1107   52.8  0.1664 -104.9
 0.820  0.5901  176.2   3.043   74.3  0.1126   53.0  0.1653 -105.4
 0.840  0.5900  175.5   2.978   73.7  0.1145   53.2  0.1642 -106.0
 0.860  0.5901  174.7   2.914   73.0  0.1164   53.4  0.1631 -106.5
 0.880  0.5902  174.0   2.850   72.3  0.1183   53.6  0.1620 -107.0
 0.900  0.5905  173.2   2.786   71.6  0.1202   53.8  0.1609 -107.6
 0.920  0.5908  172.4   2.733   71.0  0.1222   54.0  0.1601 -108.4
 0.940  0.5913  171.6   2.680   70.4  0.1242   54.3  0.1593 -109.1
 0.960  0.5918  170.9   2.627   69.7  0.1261   54.5  0.1586 -109.9
 0.980  0.5924  170.1   2.575   69.0  0.1281   54.7  0.1579 -110.7
 1.000  0.5932  169.3   2.523   68.3  0.1301   54.9  0.1572 -111.5
 1.020  0.5937  168.6   2.480   67.7  0.1320   55.0  0.1576 -112.6
 1.040  0.5944  168.0   2.438   67.1  0.1339   55.1  0.1580 -113.6
 1.060  0.5951  167.3   2.396   66.5  0.1357   55.2  0.1585 -114.6
 1.080  0.5958  166.7   2.354   65.9  0.1376   55.3  0.1591 -115.7
 1.100  0.5967  166.0   2.313   65.2  0.1395   55.4  0.1597 -116.7
 1.120  0.5977  165.4   2.277   64.7  0.1414   55.5  0.1597 -117.2
 1.140  0.5987  164.8   2.240   64.1  0.1434   55.6  0.1597 -117.7
 1.160  0.5999  164.2   2.204   63.5  0.1453   55.8  0.1598 -118.2
 1.180  0.6010  163.6   2.169   62.9  0.1473   55.9  0.1598 -118.7
 1.200  0.6023  163.0   2.133   62.3  0.1492   56.0  0.1599 -119.2
 1.220  0.6020  162.4   2.104   61.8  0.1513   56.0  0.1597 -119.8
 1.240  0.6017  161.8   2.076   61.2  0.1535   56.0  0.1595 -120.3
 1.260  0.6015  161.1   2.048   60.6  0.1556   56.1  0.1594 -120.9
 1.280  0.6014  160.5   2.020   60.0  0.1578   56.1  0.1592 -121.4
 1.300  0.6013  159.9   1.992   59.4  0.1599   56.1  0.1591 -122.0
 1.320  0.6021  159.4   1.966   58.9  0.1620   56.1  0.1605 -122.9
 1.340  0.6029  158.8   1.940   58.4  0.1640   56.2  0.1619 -123.8
 1.360  0.6038  158.3   1.914   57.8  0.1661   56.2  0.1633 -124.7
 1.380  0.6048  157.7   1.888   57.3  0.1681   56.3  0.1648 -125.6
 1.400  0.6058  157.2   1.863   56.7  0.1702   56.3  0.1663 -126.5
 1.420  0.6066  156.7   1.840   56.2  0.1722   56.3  0.1672 -126.9
 1.440  0.6074  156.2   1.817   55.7  0.1743   56.3  0.1681 -127.3
 1.460  0.6083  155.8   1.795   55.2  0.1763   56.4  0.1690 -127.7
 1.480  0.6092  155.3   1.772   54.7  0.1784   56.4  0.1699 -128.1
 1.500  0.6102  154.8   1.750   54.2  0.1804   56.4  0.1708 -128.5
 1.520  0.6104  154.1   1.731   53.7  0.1825   56.3  0.1709 -129.2
 1.540  0.6106  153.5   1.712   53.2  0.1846   56.3  0.1711 -129.9
 1.560  0.6109  152.8   1.694   52.6  0.1867   56.2  0.1713 -130.6
 1.580  0.6113  152.2   1.675   52.1  0.1888   56.2  0.1715 -131.3
 1.600  0.6118  151.5   1.657   51.5  0.1909   56.1  0.1717 -132.0
 1.620  0.6126  151.0   1.639   51.0  0.1929   56.1  0.1738 -132.6
 1.640  0.6134  150.5   1.622   50.5  0.1950   56.1  0.1758 -133.2
 1.660  0.6143  149.9   1.604   50.0  0.1970   56.0  0.1779 -133.8
 1.680  0.6153  149.4   1.587   49.5  0.1991   56.0  0.1801 -134.4
 1.700  0.6163  148.9   1.570   49.0  0.2011   56.0  0.1822 -135.0
 1.720  0.6168  148.5   1.555   48.6  0.2034   56.0  0.1836 -135.2
 1.740  0.6173  148.0   1.541   48.1  0.2056   55.9  0.1851 -135.4
 1.760  0.6179  147.6   1.527   47.7  0.2079   55.9  0.1865 -135.6
 1.780  0.6185  147.1   1.512   47.3  0.2101   55.8  0.1880 -135.8
 1.800  0.6191  146.7   1.498   46.8  0.2124   55.8  0.1894 -136.0
 1.820  0.6192  146.2   1.485   46.4  0.2147   55.7  0.1896 -136.6
 1.840  0.6194  145.8   1.472   45.9  0.2170   55.6  0.1899 -137.2
 1.860  0.6196  145.3   1.459   45.4  0.2192   55.5  0.1901 -137.9
 1.880  0.6199  144.9   1.447   45.0  0.2215   55.4  0.1904 -138.5
 1.900  0.6202  144.4   1.434   44.5  0.2238   55.3  0.1907 -139.1
 1.920  0.6212  143.9   1.422   44.0  0.2258   55.2  0.1928 -139.5
 1.940  0.6222  143.4   1.409   43.6  0.2278   55.1  0.1949 -139.9
 1.960  0.6233  142.8   1.397   43.1  0.2298   54.9  0.1970 -140.3
 1.980  0.6244  142.3   1.385   42.6  0.2318   54.8  0.1992 -140.6
 2.000  0.6256  141.8   1.373   42.1  0.2338   54.7  0.2013 -141.0
 2.020  0.6258  141.4   1.363   41.7  0.2361   54.6  0.2020 -141.4
 2.040  0.6259  140.9   1.353   41.3  0.2384   54.5  0.2028 -141.9
 2.060  0.6262  140.5   1.343   41.0  0.2407   54.4  0.2035 -142.3
 2.080  0.6264  140.0   1.333   40.6  0.2430   54.3  0.2043 -142.7
 2.100  0.6267  139.6   1.323   40.2  0.2452   54.2  0.2051 -143.1
 2.120  0.6271  139.2   1.313   39.8  0.2475   54.1  0.2058 -143.6
 2.140  0.6275  138.7   1.304   39.4  0.2498   54.0  0.2066 -144.0
 2.160  0.6279  138.3   1.294   38.9  0.2521   53.9  0.2075 -144.4
 2.180  0.6283  137.8   1.285   38.5  0.2544   53.8  0.2083 -144.8
 2.200  0.6288  137.4   1.275   38.1  0.2567   53.7  0.2091 -145.2
 2.220  0.6295  137.0   1.266   37.7  0.2589   53.5  0.2107 -145.6
 2.240  0.6303  136.5   1.257   37.4  0.2610   53.4  0.2124 -146.0
 2.260  0.6311  136.1   1.248   37.0  0.2632   53.3  0.2140 -146.3
 2.280  0.6320  135.6   1.240   36.6  0.2654   53.1  0.2157 -146.7
 2.300  0.6328  135.2   1.231   36.2  0.2675   53.0  0.2173 -147.1
 2.320  0.6338  134.7   1.222   35.8  0.2697   52.8  0.2190 -147.4
 2.340  0.6347  134.3   1.213   35.4  0.2719   52.7  0.2207 -147.8
 2.360  0.6357  133.9   1.205   35.0  0.2740   52.6  0.2224 -148.1
 2.380  0.6367  133.4   1.196   34.6  0.2762   52.4  0.2241 -148.5
 2.400  0.6378  133.0   1.188   34.2  0.2784   52.3  0.2258 -148.8
 2.420  0.6383  132.5   1.181   33.8  0.2806   52.1  0.2272 -149.4
 2.440  0.6389  132.1   1.173   33.5  0.2828   51.9  0.2286 -150.1
 2.460  0.6395  131.6   1.166   33.1  0.2850   51.7  0.2301 -150.7
 2.480  0.6402  131.1   1.159   32.7  0.2872   51.5  0.2315 -151.3
 2.500  0.6409  130.6   1.152   32.4  0.2894   51.4  0.2330 -151.9
 2.520  0.6416  130.2   1.145   32.0  0.2916   51.2  0.2346 -152.5
 2.540  0.6424  129.7   1.138   31.6  0.2938   51.0  0.2361 -153.1
 2.560  0.6432  129.2   1.131   31.2  0.2960   50.8  0.2377 -153.7
 2.580  0.6441  128.8   1.124   30.8  0.2982   50.7  0.2393 -154.2
 2.600  0.6450  128.3   1.117   30.4  0.3004   50.5  0.2409 -154.8
 2.620  0.6456  127.9   1.111   30.1  0.3026   50.3  0.2420 -155.2
 2.640  0.6463  127.5   1.105   29.7  0.3049   50.1  0.2430 -155.6
 2.660  0.6470  127.1   1.099   29.4  0.3071   49.9  0.2441 -156.0
 2.680  0.6477  126.7   1.093   29.0  0.3093   49.7  0.2452 -156.4
 2.700  0.6485  126.3   1.087   28.7  0.3116   49.6  0.2463 -156.8
 2.720  0.6493  125.9   1.082   28.3  0.3138   49.4  0.2474 -157.2
 2.740  0.6501  125.6   1.076   28.0  0.3160   49.2  0.2485 -157.6
 2.760  0.6509  125.2   1.070   27.6  0.3183   49.0  0.2497 -158.0
 2.780  0.6518  124.8   1.065   27.3  0.3205   48.9  0.2508 -158.4
 2.800  0.6527  124.4   1.059   26.9  0.3228   48.7  0.2520 -158.8
 2.820  0.6528  124.0   1.054   26.6  0.3249   48.5  0.2535 -159.2
 2.840  0.6529  123.6   1.049   26.3  0.3269   48.3  0.2550 -159.6
 2.860  0.6531  123.2   1.044   26.0  0.3290   48.2  0.2566 -160.0
 2.880  0.6533  122.8   1.039   25.7  0.3310   48.0  0.2581 -160.3
 2.900  0.6535  122.3   1.034   25.3  0.3331   47.8  0.2597 -160.7
 2.920  0.6538  121.9   1.029   25.0  0.3352   47.7  0.2612 -161.1
 2.940  0.6541  121.5   1.024   24.7  0.3373   47.5  0.2628 -161.4
 2.960  0.6544  121.1   1.019   24.4  0.3393   47.3  0.2644 -161.8
 2.980  0.6548  120.7   1.014   24.0  0.3414   47.2  0.2660 -162.1
 3.000  0.6552  120.3   1.009   23.7  0.3435   47.0  0.2676 -162.5
 3.100  0.6579  118.3   0.987   22.3  0.3537   45.8  0.2756 -165.1
 3.200  0.6613  116.4   0.966   20.9  0.3640   44.7  0.2842 -167.5
 3.300  0.6655  114.5   0.946   19.5  0.3744   43.6  0.2932 -169.8
 3.400  0.6704  112.6   0.926   17.9  0.3850   42.6  0.3026 -171.9
 3.500  0.6761  110.7   0.907   16.3  0.3957   41.7  0.3125 -173.9
 3.600  0.6765  109.0   0.890   15.2  0.4044   40.4  0.3205 -176.5
 3.700  0.6775  107.2   0.873   14.0  0.4133   39.2  0.3292 -179.0
 3.800  0.6791  105.5   0.857   12.8  0.4224   38.1  0.3384  178.7
 3.900  0.6813  103.8   0.841   11.6  0.4316   37.0  0.3482  176.5
 4.000  0.6841  102.1   0.825   10.3  0.4410   35.9  0.3584  174.4
 4.100  0.6853  100.6   0.812    9.4  0.4486   34.6  0.3648  172.4
 4.200  0.6870   99.0   0.799    8.5  0.4563   33.4  0.3717  170.4
 4.300  0.6891   97.5   0.787    7.5  0.4643   32.2  0.3790  168.5
 4.400  0.6918   96.0   0.774    6.5  0.4725   31.0  0.3867  166.7
 4.500  0.6949   94.5   0.762    5.5  0.4809   29.9  0.3948  164.9
 4.600  0.6945   93.2   0.753    4.7  0.4869   28.7  0.3997  163.0
 4.700  0.6944   91.9   0.745    4.0  0.4931   27.6  0.4051  161.2
 4.800  0.6947   90.5   0.736    3.2  0.4996   26.5  0.4108  159.4
 4.900  0.6954   89.2   0.728    2.3  0.5061   25.4  0.4170  157.7
 5.000  0.6964   87.9   0.720    1.5  0.5129   24.4  0.4235  156.0
 5.100  0.6976   86.7   0.713    0.9  0.5182   23.4  0.4272  154.1
 5.200  0.6991   85.5   0.706    0.2  0.5237   22.3  0.4313  152.2
 5.300  0.7009   84.3   0.699   -0.4  0.5293   21.3  0.4359  150.3
 5.400  0.7030   83.1   0.692   -1.1  0.5351   20.4  0.4409  148.5
 5.500  0.7054   81.9   0.685   -1.8  0.5410   19.4  0.4464  146.7
 5.600  0.7049   80.8   0.681   -2.4  0.5461   18.3  0.4499  145.0
 5.700  0.7047   79.7   0.677   -3.0  0.5514   17.3  0.4538  143.3
 5.800  0.7047   78.7   0.673   -3.6  0.5568   16.2  0.4580  141.6
 5.900  0.7050   77.6   0.670   -4.3  0.5625   15.2  0.4627  140.0
 6.000  0.7055   76.5   0.666   -4.9  0.5683   14.2  0.4677  138.4
!
!  f       NFmin   Gammaopt  rn/50
! GHz       dB    MAG  ANG    -
!
! noise parameter not available yet for this operation point!
!
! (c) 2015  Infineon Technologies AG, Munich
