! Infineon Technologies  Discrete & RF Semiconductors
! BFR93A
! VCE =  6.0 V,  IC =  20 mA
! Common Emitter S-Parameters:                            Nov 2015
# GHz  S  MA  R  50
!  f         S11            S21            S12            S22
! GHz     MAG   ANG      MAG   ANG      MAG   ANG      MAG   ANG
 0.010  0.6595   -9.7  39.112  172.5  0.0033   85.6  0.9652   -5.0
 0.015  0.6500  -14.3  38.611  169.2  0.0049   82.2  0.9556   -7.4
 0.020  0.6449  -19.1  38.243  165.8  0.0065   80.5  0.9476   -9.8
 0.025  0.6263  -23.0  37.287  163.1  0.0078   77.7  0.9283  -11.7
 0.030  0.6107  -27.2  36.416  160.3  0.0091   75.6  0.9100  -13.6
 0.035  0.5985  -31.5  35.636  157.4  0.0105   74.1  0.8928  -15.7
 0.040  0.5899  -36.0  34.954  154.3  0.0118   73.0  0.8768  -17.8
 0.045  0.5849  -40.6  34.375  151.2  0.0132   72.1  0.8620  -19.9
 0.050  0.5838  -45.2  33.904  147.9  0.0145   71.3  0.8485  -22.2
 0.055  0.5657  -47.8  32.928  146.4  0.0154   70.1  0.8289  -23.1
 0.060  0.5489  -50.7  31.977  144.7  0.0163   69.1  0.8094  -24.0
 0.065  0.5336  -53.6  31.054  143.0  0.0172   68.1  0.7903  -25.0
 0.070  0.5197  -56.8  30.160  141.2  0.0181   67.3  0.7713  -26.1
 0.075  0.5075  -60.1  29.298  139.3  0.0190   66.5  0.7526  -27.2
 0.080  0.4971  -63.6  28.472  137.2  0.0199   65.8  0.7342  -28.3
 0.085  0.4885  -67.1  27.684  135.1  0.0208   65.2  0.7162  -29.5
 0.090  0.4820  -70.9  26.938  132.8  0.0218   64.6  0.6984  -30.8
 0.095  0.4775  -74.7  26.238  130.3  0.0227   64.1  0.6810  -32.1
 0.100  0.4751  -78.5  25.587  127.8  0.0236   63.6  0.6640  -33.5
 0.105  0.4647  -80.4  24.935  126.8  0.0242   63.4  0.6511  -33.8
 0.110  0.4549  -82.3  24.290  125.8  0.0248   63.2  0.6382  -34.1
 0.115  0.4456  -84.3  23.653  124.8  0.0254   63.0  0.6253  -34.5
 0.120  0.4368  -86.5  23.024  123.7  0.0260   62.9  0.6124  -34.8
 0.125  0.4287  -88.7  22.405  122.5  0.0266   62.7  0.5996  -35.2
 0.130  0.4213  -90.9  21.796  121.2  0.0272   62.6  0.5868  -35.6
 0.135  0.4145  -93.3  21.198  119.9  0.0278   62.4  0.5740  -36.0
 0.140  0.4085  -95.7  20.611  118.5  0.0284   62.3  0.5612  -36.4
 0.145  0.4032  -98.2  20.038  117.1  0.0290   62.1  0.5485  -36.8
 0.150  0.3987 -100.8  19.478  115.5  0.0296   62.0  0.5358  -37.3
 0.155  0.3934 -102.3  19.067  114.9  0.0301   62.1  0.5280  -37.4
 0.160  0.3883 -103.8  18.659  114.2  0.0307   62.2  0.5203  -37.4
 0.165  0.3836 -105.3  18.254  113.6  0.0312   62.3  0.5125  -37.5
 0.170  0.3791 -106.9  17.850  112.9  0.0318   62.4  0.5048  -37.5
 0.175  0.3749 -108.6  17.450  112.1  0.0323   62.4  0.4970  -37.6
 0.180  0.3710 -110.2  17.053  111.4  0.0329   62.5  0.4892  -37.6
 0.185  0.3675 -111.9  16.659  110.6  0.0334   62.6  0.4815  -37.7
 0.190  0.3642 -113.7  16.268  109.7  0.0340   62.7  0.4737  -37.8
 0.195  0.3613 -115.4  15.881  108.8  0.0345   62.7  0.4660  -37.8
 0.200  0.3588 -117.2  15.498  107.9  0.0351   62.8  0.4582  -37.9
 0.220  0.3469 -122.0  14.394  105.9  0.0373   63.1  0.4380  -37.7
 0.240  0.3377 -127.1  13.312  103.5  0.0394   63.5  0.4179  -37.5
 0.260  0.3310 -131.5  12.391  101.5  0.0416   63.9  0.4012  -37.2
 0.280  0.3257 -135.0  11.620   99.8  0.0438   64.5  0.3880  -36.8
 0.300  0.3216 -138.6  10.859   98.0  0.0460   65.0  0.3749  -36.4
 0.320  0.3170 -141.5  10.335   97.0  0.0483   65.5  0.3668  -36.1
 0.340  0.3131 -144.4   9.815   95.8  0.0505   65.9  0.3586  -35.8
 0.360  0.3101 -147.4   9.300   94.5  0.0528   66.3  0.3505  -35.4
 0.380  0.3080 -150.4   8.789   93.1  0.0550   66.7  0.3424  -35.1
 0.400  0.3067 -153.5   8.285   91.5  0.0573   67.0  0.3343  -34.7
 0.420  0.3047 -155.7   7.967   90.6  0.0596   67.2  0.3299  -34.5
 0.440  0.3031 -157.9   7.651   89.7  0.0619   67.4  0.3255  -34.3
 0.450  0.3024 -159.0   7.494   89.2  0.0630   67.5  0.3233  -34.2
 0.460  0.3019 -160.2   7.338   88.7  0.0642   67.6  0.3211  -34.1
 0.480  0.3013 -162.4   7.026   87.6  0.0665   67.8  0.3167  -33.9
 0.500  0.3011 -164.7   6.718   86.4  0.0688   68.0  0.3123  -33.7
 0.520  0.3006 -166.3   6.503   85.7  0.0712   68.1  0.3092  -33.6
 0.540  0.3004 -167.9   6.289   84.9  0.0735   68.2  0.3061  -33.5
 0.560  0.3004 -169.6   6.076   84.1  0.0759   68.3  0.3031  -33.5
 0.580  0.3007 -171.2   5.865   83.2  0.0782   68.3  0.3000  -33.4
 0.600  0.3012 -172.8   5.655   82.3  0.0806   68.4  0.2969  -33.3
 0.620  0.3011 -174.0   5.498   81.6  0.0830   68.4  0.2949  -33.4
 0.640  0.3012 -175.3   5.341   80.9  0.0854   68.4  0.2928  -33.4
 0.660  0.3014 -176.5   5.185   80.1  0.0878   68.3  0.2908  -33.5
 0.680  0.3018 -177.8   5.031   79.3  0.0902   68.3  0.2887  -33.5
 0.700  0.3023 -179.0   4.877   78.4  0.0926   68.3  0.2867  -33.6
 0.720  0.3029  179.8   4.759   77.8  0.0949   68.3  0.2850  -33.7
 0.740  0.3037  178.5   4.642   77.1  0.0973   68.2  0.2833  -33.9
 0.760  0.3046  177.3   4.526   76.5  0.0996   68.2  0.2815  -34.0
 0.780  0.3056  176.1   4.410   75.8  0.1020   68.1  0.2798  -34.2
 0.800  0.3068  174.9   4.295   75.0  0.1043   68.1  0.2781  -34.3
 0.820  0.3077  173.8   4.202   74.4  0.1067   68.0  0.2766  -34.5
 0.840  0.3087  172.6   4.110   73.8  0.1090   67.9  0.2750  -34.7
 0.860  0.3099  171.5   4.019   73.2  0.1114   67.8  0.2735  -35.0
 0.880  0.3111  170.4   3.928   72.6  0.1137   67.8  0.2720  -35.2
 0.900  0.3125  169.3   3.837   71.9  0.1161   67.7  0.2705  -35.4
 0.920  0.3126  168.5   3.765   71.3  0.1184   67.5  0.2695  -35.6
 0.940  0.3128  167.7   3.692   70.7  0.1208   67.4  0.2684  -35.8
 0.960  0.3130  166.8   3.621   70.1  0.1231   67.3  0.2674  -36.1
 0.980  0.3133  166.0   3.550   69.4  0.1255   67.1  0.2664  -36.3
 1.000  0.3137  165.2   3.479   68.7  0.1278   67.0  0.2654  -36.5
 1.020  0.3155  164.3   3.420   68.1  0.1302   66.8  0.2643  -36.9
 1.040  0.3173  163.4   3.362   67.6  0.1325   66.7  0.2632  -37.3
 1.060  0.3192  162.6   3.304   67.0  0.1349   66.6  0.2621  -37.6
 1.080  0.3212  161.7   3.247   66.3  0.1372   66.4  0.2611  -38.0
 1.100  0.3233  160.9   3.190   65.7  0.1396   66.3  0.2600  -38.4
 1.120  0.3251  160.2   3.141   65.2  0.1420   66.1  0.2588  -38.7
 1.140  0.3269  159.5   3.092   64.6  0.1443   65.9  0.2577  -39.1
 1.160  0.3287  158.8   3.043   64.1  0.1467   65.7  0.2566  -39.4
 1.180  0.3306  158.1   2.995   63.5  0.1490   65.6  0.2554  -39.8
 1.200  0.3326  157.4   2.947   62.9  0.1514   65.4  0.2543  -40.1
 1.220  0.3337  156.6   2.903   62.3  0.1536   65.2  0.2535  -40.5
 1.240  0.3349  155.8   2.859   61.8  0.1558   65.0  0.2526  -40.9
 1.260  0.3361  155.0   2.816   61.2  0.1581   64.8  0.2518  -41.2
 1.280  0.3374  154.2   2.773   60.5  0.1603   64.7  0.2510  -41.6
 1.300  0.3388  153.4   2.730   59.9  0.1625   64.5  0.2502  -42.0
 1.320  0.3394  152.8   2.693   59.4  0.1648   64.3  0.2495  -42.4
 1.340  0.3401  152.2   2.656   58.9  0.1671   64.1  0.2488  -42.7
 1.360  0.3408  151.5   2.619   58.3  0.1694   63.9  0.2481  -43.1
 1.380  0.3416  150.9   2.583   57.8  0.1717   63.8  0.2474  -43.4
 1.400  0.3424  150.3   2.547   57.2  0.1740   63.6  0.2467  -43.8
 1.420  0.3430  149.7   2.514   56.7  0.1762   63.4  0.2455  -44.3
 1.440  0.3437  149.1   2.481   56.2  0.1785   63.2  0.2444  -44.7
 1.460  0.3444  148.4   2.448   55.6  0.1807   63.0  0.2433  -45.2
 1.480  0.3451  147.8   2.415   55.1  0.1830   62.9  0.2422  -45.7
 1.500  0.3459  147.2   2.383   54.5  0.1852   62.7  0.2411  -46.2
 1.520  0.3486  146.6   2.358   54.0  0.1874   62.5  0.2401  -46.7
 1.540  0.3514  145.9   2.334   53.6  0.1896   62.2  0.2391  -47.2
 1.560  0.3542  145.3   2.310   53.1  0.1919   62.0  0.2381  -47.7
 1.580  0.3570  144.7   2.286   52.6  0.1941   61.8  0.2371  -48.2
 1.600  0.3599  144.1   2.262   52.1  0.1963   61.6  0.2362  -48.7
 1.620  0.3613  143.5   2.239   51.6  0.1985   61.4  0.2356  -49.2
 1.640  0.3627  142.9   2.216   51.1  0.2008   61.2  0.2350  -49.7
 1.660  0.3642  142.3   2.194   50.6  0.2030   61.0  0.2344  -50.3
 1.680  0.3657  141.8   2.171   50.1  0.2053   60.8  0.2338  -50.8
 1.700  0.3673  141.2   2.149   49.6  0.2075   60.6  0.2333  -51.3
 1.720  0.3682  140.7   2.128   49.1  0.2098   60.4  0.2328  -51.8
 1.740  0.3691  140.2   2.107   48.6  0.2121   60.1  0.2324  -52.3
 1.760  0.3700  139.7   2.086   48.0  0.2143   59.9  0.2319  -52.9
 1.780  0.3709  139.2   2.065   47.5  0.2166   59.7  0.2315  -53.4
 1.800  0.3719  138.7   2.045   46.9  0.2189   59.5  0.2311  -53.9
 1.820  0.3730  138.2   2.026   46.5  0.2211   59.3  0.2305  -54.4
 1.840  0.3742  137.7   2.007   46.0  0.2232   59.1  0.2298  -54.9
 1.860  0.3753  137.1   1.989   45.6  0.2254   58.9  0.2292  -55.5
 1.880  0.3766  136.6   1.970   45.2  0.2275   58.8  0.2287  -56.0
 1.900  0.3778  136.1   1.952   44.7  0.2297   58.6  0.2281  -56.5
 1.920  0.3790  135.6   1.935   44.2  0.2319   58.4  0.2275  -57.0
 1.940  0.3803  135.1   1.917   43.8  0.2341   58.2  0.2270  -57.5
 1.960  0.3816  134.6   1.900   43.3  0.2364   58.0  0.2264  -57.9
 1.980  0.3829  134.1   1.883   42.8  0.2386   57.8  0.2259  -58.4
 2.000  0.3843  133.6   1.866   42.3  0.2408   57.6  0.2254  -58.9
 2.020  0.3855  133.1   1.852   41.9  0.2430   57.4  0.2249  -59.5
 2.040  0.3867  132.6   1.838   41.4  0.2452   57.1  0.2244  -60.0
 2.060  0.3879  132.1   1.824   41.0  0.2475   56.9  0.2239  -60.6
 2.080  0.3891  131.6   1.810   40.5  0.2497   56.7  0.2235  -61.1
 2.100  0.3904  131.2   1.796   40.0  0.2520   56.5  0.2231  -61.7
 2.120  0.3917  130.7   1.782   39.6  0.2542   56.2  0.2227  -62.2
 2.140  0.3930  130.2   1.769   39.1  0.2564   56.0  0.2223  -62.8
 2.160  0.3944  129.7   1.755   38.6  0.2587   55.8  0.2219  -63.4
 2.180  0.3958  129.3   1.742   38.1  0.2609   55.6  0.2216  -63.9
 2.200  0.3972  128.8   1.729   37.6  0.2632   55.4  0.2213  -64.5
 2.220  0.3984  128.4   1.717   37.2  0.2654   55.2  0.2208  -65.1
 2.240  0.3996  127.9   1.705   36.8  0.2676   54.9  0.2203  -65.7
 2.260  0.4008  127.5   1.694   36.4  0.2698   54.7  0.2199  -66.3
 2.280  0.4021  127.1   1.682   36.0  0.2720   54.4  0.2195  -66.9
 2.300  0.4033  126.7   1.670   35.5  0.2742   54.2  0.2190  -67.5
 2.320  0.4046  126.2   1.659   35.1  0.2764   54.0  0.2187  -68.1
 2.340  0.4059  125.8   1.647   34.7  0.2786   53.8  0.2183  -68.7
 2.360  0.4073  125.4   1.636   34.2  0.2808   53.5  0.2180  -69.3
 2.380  0.4086  125.0   1.625   33.8  0.2831   53.3  0.2177  -69.9
 2.400  0.4100  124.6   1.614   33.3  0.2853   53.1  0.2174  -70.5
 2.420  0.4114  124.1   1.603   32.9  0.2874   52.8  0.2168  -71.2
 2.440  0.4129  123.7   1.592   32.5  0.2895   52.6  0.2162  -71.8
 2.460  0.4144  123.2   1.582   32.0  0.2916   52.3  0.2157  -72.5
 2.480  0.4159  122.7   1.571   31.6  0.2937   52.1  0.2152  -73.2
 2.500  0.4175  122.3   1.560   31.2  0.2958   51.9  0.2147  -73.9
 2.520  0.4190  121.8   1.550   30.7  0.2979   51.6  0.2143  -74.5
 2.540  0.4206  121.3   1.540   30.3  0.3000   51.4  0.2139  -75.2
 2.560  0.4223  120.9   1.529   29.8  0.3021   51.2  0.2135  -75.9
 2.580  0.4239  120.4   1.519   29.4  0.3043   50.9  0.2131  -76.6
 2.600  0.4256  120.0   1.509   28.9  0.3064   50.7  0.2128  -77.3
 2.620  0.4271  119.5   1.501   28.5  0.3085   50.5  0.2121  -78.0
 2.640  0.4286  119.0   1.493   28.1  0.3107   50.2  0.2114  -78.8
 2.660  0.4302  118.5   1.485   27.7  0.3128   50.0  0.2107  -79.5
 2.680  0.4318  118.0   1.478   27.2  0.3150   49.8  0.2101  -80.3
 2.700  0.4334  117.6   1.470   26.8  0.3171   49.6  0.2095  -81.0
 2.720  0.4350  117.1   1.462   26.4  0.3193   49.3  0.2090  -81.8
 2.740  0.4367  116.6   1.455   25.9  0.3215   49.1  0.2085  -82.6
 2.760  0.4384  116.1   1.448   25.5  0.3236   48.9  0.2080  -83.3
 2.780  0.4401  115.7   1.440   25.1  0.3258   48.7  0.2076  -84.1
 2.800  0.4419  115.2   1.433   24.6  0.3280   48.5  0.2072  -84.9
 2.820  0.4432  114.7   1.425   24.2  0.3301   48.2  0.2067  -85.7
 2.840  0.4445  114.3   1.417   23.8  0.3323   48.0  0.2063  -86.5
 2.860  0.4458  113.8   1.409   23.4  0.3344   47.7  0.2060  -87.3
 2.880  0.4471  113.4   1.402   23.0  0.3366   47.5  0.2056  -88.1
 2.900  0.4485  112.9   1.394   22.6  0.3387   47.2  0.2053  -88.9
 2.920  0.4499  112.5   1.387   22.2  0.3409   47.0  0.2051  -89.7
 2.940  0.4513  112.0   1.379   21.8  0.3431   46.7  0.2049  -90.5
 2.960  0.4528  111.6   1.372   21.4  0.3452   46.5  0.2047  -91.4
 2.980  0.4543  111.1   1.364   20.9  0.3474   46.2  0.2046  -92.2
 3.000  0.4558  110.7   1.357   20.5  0.3496   46.0  0.2045  -93.0
!
!  f       NFmin   Gammaopt  rn/50
! GHz       dB    MAG  ANG    -
!
! noise parameter not available yet for this operation point!
!
! (c) 2015  Infineon Technologies AG, Munich
