! Filename:  P:\Prog\Test\Noise\ATS_data\Testdata_Net\06 Compressed Noise after Statistics\BFU550_APG2013_43_D05_03p3V_005mA_NF_CM01_D.sf
! Date/Time: Fri 26/Apr/2013 13:07:20
! BFU550_APG2013_43_D05_03p3V_1to35mA_NF_CM01_Bias4_R.sf
! Noise Parameter Data File
! BFU550_APG2013_43_D05_03p3V_1to35mA_NF_CM01
! Date/time: Thu Apr 25 15:07:57 2013
! VAR V_out= 3.301000
! VAR I_out= 4.995000
! VAR V_in= 0.816900
! VAR I_in= 0.055105
! Device data file deembeded for feedlines and parallel
! Original file: \06 Compressed Noise after Statistics\BFU550_APG2013_43_D05_03p3V_005mA_NF_CM01_R.sf
! Feed-files: PR047V01_250413_Feed1.s2p, PR047V01_250413_Feed2.s2p
! Parallel-file: PR047V01_250413_Par.s2p
# MHz S MA R 50
!  Freq-MHz   S11-mag  S11-arg   S21-mag  S21-arg   S12-mag  S12-arg   S22-mag  S22-arg
        400   0.67623   -91.96    10.461   123.64  0.066468    47.18   0.68485   -48.05
        420   0.66949   -95.07    10.182   121.87  0.068058    46.04   0.66924   -49.53
        433   0.66533   -97.09    10.003   120.74  0.068972    45.36    0.6593   -50.34
        440   0.66316   -98.18    9.9187   120.13  0.069464    44.98   0.65423   -50.82
        460   0.65755  -101.06    9.6541   118.50  0.070803    43.93   0.64056   -52.13
        480    0.6529  -103.93    9.4087   116.92  0.071981    43.03   0.62537   -53.31
        500   0.64681  -106.65    9.1715   115.40  0.073067    42.15   0.61203   -54.47
        550   0.63356  -113.31    8.6194   111.62   0.07517    40.20   0.57849   -57.10
        600   0.62484  -118.95    8.1217   108.41  0.077515    38.61   0.55216   -59.50
        650   0.61697  -124.25    7.6438   105.42  0.079476    37.21   0.52841   -61.62
        700   0.60977  -128.95    7.2194   102.66  0.080895    36.09   0.50631   -63.45
        750   0.60429  -133.58     6.836   100.06  0.082488    35.11   0.48737   -65.25
        800   0.59891  -137.69    6.4908    97.62  0.083637    34.31   0.46918   -66.91
        850   0.59473  -141.52     6.169    95.35  0.084764    33.63   0.45316   -68.29
        900   0.58933  -145.32    5.8779    93.14  0.085897    33.05    0.4403   -69.78
        950   0.58853  -148.57    5.6171    91.13  0.086762    32.64   0.42734   -71.16
       1000   0.58453  -151.68    5.3712    89.13  0.087705    32.25   0.41648   -72.36
       1050   0.58198  -154.94    5.1421    87.18  0.088471    31.95   0.40655   -73.68
       1100    0.5814  -157.48     4.932    85.45  0.089381    31.80   0.39804   -74.68
       1150   0.57863  -160.37    4.7379    83.67  0.090284    31.55   0.38998   -75.79
       1200   0.57743  -163.10    4.5587    81.92  0.091008    31.39   0.38311   -76.98
       1250   0.57756  -165.28    4.3934    80.40  0.091869    31.40   0.37688   -77.79
       1300   0.57521  -167.81    4.2395    78.77   0.09258    31.32   0.37116   -78.98
       1350   0.57489  -170.01    4.0953    77.25  0.093339    31.38   0.36634   -79.96
       1400   0.57561  -172.04    3.9629    75.77  0.094142    31.46   0.36143   -80.81
       1450   0.57378  -174.50    3.8331    74.19   0.09492    31.45   0.35838   -81.92
       1500     0.575  -176.44     3.712    72.73  0.095705    31.51   0.35533   -82.91
       1550   0.57284  -178.25     3.599    71.35  0.096501    31.60   0.35163   -83.76
       1600   0.57288   179.50    3.4874    69.90  0.097121    31.69   0.34923   -84.77
       1650    0.5747   178.14    3.3905    68.67  0.098049    31.95   0.34699   -85.58
       1700   0.57363   176.32    3.2998    67.38  0.098841    32.17   0.34427   -86.51
       1750   0.57402   174.15    3.2066    65.98  0.099555    32.21   0.34273   -87.57
       1800   0.57688   172.89    3.1297    64.74   0.10063    32.52   0.34111   -88.32
       1850   0.57558   170.83    3.0439    63.31   0.10144    32.55   0.34139   -89.31
       1900   0.57676   169.27    2.9643    62.09   0.10211    32.74   0.34028   -90.41
       1950   0.57718   168.17    2.8946    60.93   0.10304    33.03    0.3388   -91.08
       2000   0.57697   166.30    2.8187    59.66   0.10368    33.27   0.33831   -92.05

!  
! Device Noise Parameters
!  Freq-MHz   Fmin-dB  Gopt-mag  Gopt-arg   Rn-Ohm_normalized
        400    0.6555   0.17823    39.01    0.1079
        420    0.6011   0.16062    55.94    0.0912
        433    0.6214   0.18324    53.89    0.0948
        440    0.5868   0.15542    56.05    0.0959
        460    0.5902   0.15780    58.82    0.0952
        480    0.6181   0.16656    55.92    0.0949
        500    0.6431   0.16048    61.11    0.0951
        550    0.6708   0.17942    59.48    0.1030
        600    0.6386   0.16749    69.05    0.0937
        650    0.6578   0.18814    74.46    0.0934
        700    0.7032   0.19319    78.81    0.0910
        750    0.6742   0.19611    82.40    0.0888
        800    0.6797   0.19192    87.25    0.0912
        850    0.6999   0.20783    94.49    0.0878
        900    0.7148   0.21295    92.50    0.0901
        950    0.7236   0.20549    98.47    0.0875
       1000    0.7280   0.21410   101.96    0.0871
       1050    0.7269   0.22895   104.58    0.0868
       1100    0.7384   0.23963   113.79    0.0792
       1150    0.7641   0.24442   114.16    0.0808
       1200    0.7745   0.24207   118.92    0.0786
       1250    0.7853   0.25669   119.14    0.0799
       1300    0.8161   0.26111   122.06    0.0791
       1350    0.8107   0.27239   127.17    0.0750
       1400    0.8089   0.28901   128.28    0.0737
       1450    0.9258   0.28687   131.77    0.0718
       1500    0.8948   0.30256   136.52    0.0703
       1550    0.8481   0.30862   140.44    0.0668
       1600    0.8456   0.29807   140.75    0.0695
       1650    0.8525   0.33033   146.31    0.0606
       1700    0.8894   0.33369   150.55    0.0592
       1750    0.8662   0.33289   155.40    0.0578
       1800    0.7910   0.36887   157.05    0.0497
       1850    0.8409   0.34253   156.54    0.0570
       1900    0.9578   0.35754   161.04    0.0545
       1950    0.9482   0.38316   169.11    0.0476
       2000    0.9482   0.38447   168.63    0.0488

