! Filename:  P:\Prog\Test\Noise\ATS_data\Testdata_Net\06 Compressed Noise after Statistics\BFU550_APG2013_43_D05_05p0V_015mA_NF_CM01_D.sf
! Date/Time: Fri 26/Apr/2013 13:07:22
! BFU550_APG2013_43_D05_05p0V_1to35mA_NF_CM01_Bias6_R.sf
! Noise Parameter Data File
! BFU550_APG2013_43_D05_05p0V_1to35mA_NF_CM01
! Date/time: Thu Apr 25 16:23:08 2013
! VAR V_out= 5.000000
! VAR I_out= 14.995000
! VAR V_in= 0.830200
! VAR I_in= 0.164600
! Device data file deembeded for feedlines and parallel
! Original file: \06 Compressed Noise after Statistics\BFU550_APG2013_43_D05_05p0V_015mA_NF_CM01_R.sf
! Feed-files: PR047V01_250413_Feed1.s2p, PR047V01_250413_Feed2.s2p
! Parallel-file: PR047V01_250413_Par.s2p
# MHz S MA R 50
!  Freq-MHz   S11-mag  S11-arg   S21-mag  S21-arg   S12-mag  S12-arg   S22-mag  S22-arg
        400   0.54787  -135.35    15.096   107.82  0.039731    47.83   0.44909   -65.46
        420   0.54733  -137.88    14.501   106.42  0.040529    47.64   0.43468   -66.72
        433   0.54668  -139.48    14.135   105.54   0.04101    47.58   0.42552   -67.39
        440   0.54707  -140.34     13.95   105.06  0.041285    47.57   0.42096   -67.72
        460   0.54709  -142.63    13.436   103.79  0.042019    47.44   0.40916   -68.79
        480   0.54764  -144.76    12.961   102.58  0.042717    47.40   0.39657   -69.75
        500   0.54697  -146.77    12.509   101.45  0.043394    47.37   0.38589   -70.65
        550   0.54608  -151.58    11.509    98.63  0.044923    47.69   0.35968   -72.51
        600   0.54649  -155.50    10.666    96.26  0.046795    47.95   0.34124   -74.40
        650   0.54727  -159.16    9.9102    94.05  0.048545    48.28   0.32485   -76.11
        700   0.54733  -162.12    9.2557    92.08  0.050241    48.77   0.31041   -77.36
        750   0.54849  -165.33    8.6844    90.14  0.052042    49.12   0.29876   -78.86
        800    0.5485  -167.96    8.1765    88.35  0.053772    49.57   0.28803   -80.23
        850   0.54904  -170.50    7.7205    86.67  0.055486    50.06   0.27804   -81.34
        900   0.54866  -173.09    7.3092    85.04  0.057314    50.53   0.27131   -82.55
        950   0.55047  -175.13    6.9514    83.53  0.059187    50.95   0.26466   -83.68
       1000   0.54952  -177.23    6.6185    82.00  0.061074    51.36   0.25899   -84.65
       1050   0.55057  -179.51    6.3124    80.53  0.062941    51.68   0.25486   -85.78
       1100   0.55178   178.93    6.0373    79.19  0.064884    52.04    0.2505   -86.61
       1150   0.55175   176.90    5.7811    77.81  0.066804    52.30   0.24665   -87.64
       1200   0.55264   175.02    5.5463    76.45  0.068665    52.51   0.24433   -88.73
       1250    0.5541   173.60    5.3354    75.26  0.070703    52.84   0.24112   -89.40
       1300   0.55323   171.74    5.1341    73.97  0.072659    53.02   0.23986   -90.50
       1350   0.55428   170.23    4.9511    72.77   0.07466    53.22   0.23833   -91.42
       1400   0.55574   168.83    4.7841    71.57  0.076736    53.42   0.23606   -92.14
       1450   0.55553   166.95    4.6186    70.29  0.078731    53.46   0.23656   -93.22
       1500   0.55752   165.64    4.4668    69.10  0.080751    53.54    0.2361   -94.18
       1550   0.55612   164.28    4.3254    67.98  0.082788    53.61   0.23475   -94.93
       1600   0.55747   162.57    4.1845    66.79  0.084666    53.63   0.23572   -95.90
       1650   0.55868   161.72     4.066    65.79   0.08685    53.77   0.23522   -96.63
       1700   0.55882   160.33    3.9515    64.72  0.088901    53.78   0.23503   -97.52
       1750   0.56001   158.61    3.8346    63.59  0.090805    53.71   0.23596   -98.73
       1800   0.56273   157.80    3.7409    62.53  0.093102    53.78    0.2357   -99.32
       1850   0.56239   156.11     3.634    61.33   0.09502    53.60    0.2383  -100.29
       1900   0.56344   154.95    3.5363    60.32  0.096938    53.56   0.23922  -101.46
       1950    0.5639   154.16    3.4525    59.34  0.099061    53.57   0.23868  -102.00
       2000   0.56428   152.71    3.3582    58.27   0.10083    53.51   0.24047  -103.01

!  
! Device Noise Parameters
!  Freq-MHz   Fmin-dB  Gopt-mag  Gopt-arg   Rn-Ohm_normalized
        400    0.9013   0.20511   174.25    0.0738
        420    0.8609   0.22573   178.36    0.0704
        433    0.8700   0.22307   177.03    0.0669
        440    0.8667   0.23660  -178.65    0.0637
        460    0.8621   0.24085  -179.96    0.0648
        480    0.8519   0.22798   178.52    0.0683
        500    0.9022   0.22994   179.32    0.0676
        550    0.9421   0.23260  -179.39    0.0677
        600    0.8950   0.23413   178.96    0.0657
        650    0.9091   0.24047  -177.65    0.0667
        700    0.9075   0.24300  -177.51    0.0674
        750    0.9072   0.24696  -176.36    0.0661
        800    0.9259   0.25682  -175.21    0.0649
        850    0.9380   0.26552  -177.20    0.0637
        900    0.9535   0.25428  -174.72    0.0663
        950    0.9438   0.26549  -173.45    0.0649
       1000    0.9562   0.27696  -172.76    0.0625
       1050    0.9758   0.27478  -172.90    0.0636
       1100    0.9720   0.27596  -171.85    0.0643
       1150    0.9856   0.27531  -171.68    0.0673
       1200    0.9945   0.28220  -169.87    0.0660
       1250    1.0053   0.29178  -169.73    0.0639
       1300    1.0447   0.29126  -168.52    0.0671
       1350    1.0231   0.29459  -169.28    0.0664
       1400    1.0188   0.28995  -167.06    0.0691
       1450    1.0624   0.30541  -165.03    0.0688
       1500    1.0672   0.31554  -165.85    0.0653
       1550    1.0612   0.31877  -166.74    0.0650
       1600    1.0576   0.31924  -165.04    0.0671
       1650    1.0804   0.32579  -164.72    0.0659
       1700    1.0825   0.33114  -163.37    0.0629
       1750    1.0865   0.34533  -161.67    0.0654
       1800    1.0741   0.33583  -164.15    0.0650
       1850    1.0753   0.33307  -162.70    0.0671
       1900    1.0874   0.34965  -158.20    0.0707
       1950    1.1068   0.35360  -156.38    0.0720
       2000    1.1451   0.35645  -159.60    0.0705

