! Filename:  P:\Prog\Test\Noise\ATS_data\Testdata_Net\06 Compressed Noise after Statistics\BFU550_APG2013_43_D05_08p0V_015mA_NF_CM01_D.sf
! Date/Time: Fri 26/Apr/2013 13:07:23
! BFU550_APG2013_43_D05_08p0V_1to35mA_NF_CM01_Bias6_R.sf
! Noise Parameter Data File
! BFU550_APG2013_43_D05_08p0V_1to35mA_NF_CM01
! Date/time: Thu Apr 25 17:34:01 2013
! VAR V_out= 8.000000
! VAR I_out= 14.995000
! VAR V_in= 0.814100
! VAR I_in= 0.157800
! Device data file deembeded for feedlines and parallel
! Original file: \06 Compressed Noise after Statistics\BFU550_APG2013_43_D05_08p0V_015mA_NF_CM01_R.sf
! Feed-files: PR047V01_250413_Feed1.s2p, PR047V01_250413_Feed2.s2p
! Parallel-file: PR047V01_250413_Par.s2p
# MHz S MA R 50
!  Freq-MHz   S11-mag  S11-arg   S21-mag  S21-arg   S12-mag  S12-arg   S22-mag  S22-arg
        400    0.5415  -131.58    15.424   108.97  0.040033    48.12   0.46563   -63.90
        420   0.54089  -134.22    14.831   107.55  0.040852    47.88   0.45081   -65.17
        433   0.53986  -135.91    14.462   106.64  0.041324    47.80   0.44132   -65.85
        440   0.53979  -136.82    14.274   106.15   0.04163    47.76   0.43668   -66.20
        460   0.53941  -139.16    13.755   104.86  0.042365    47.58   0.42445   -67.25
        480   0.53938  -141.37    13.277   103.63  0.043054    47.52   0.41159   -68.22
        500    0.5385  -143.51     12.82   102.47  0.043743    47.48   0.40064   -69.12
        550    0.5365  -148.51    11.806    99.59  0.045243    47.67   0.37337   -71.02
        600   0.53652  -152.65    10.951    97.18  0.047128    47.86   0.35418   -72.91
        650    0.5369  -156.47     10.18    94.93   0.04885    48.12   0.33709   -74.62
        700    0.5361  -159.66    9.5124    92.92  0.050546    48.52   0.32199   -75.88
        750   0.53711  -162.97    8.9293    90.96   0.05231    48.88   0.30965   -77.36
        800   0.53666  -165.73    8.4107    89.14  0.053991    49.25   0.29843   -78.72
        850   0.53702  -168.40     7.943    87.43  0.055686    49.71   0.28777   -79.82
        900   0.53582  -171.07    7.5222    85.79  0.057497    50.17   0.28063   -81.02
        950   0.53818  -173.24    7.1558    84.25  0.059321    50.57   0.27357   -82.15
       1000   0.53672  -175.46    6.8144    82.71   0.06117    50.95   0.26737   -83.11
       1050   0.53801  -177.76    6.5001    81.22   0.06301    51.27   0.26291   -84.22
       1100   0.53882  -179.43    6.2175    79.87  0.064952    51.62   0.25825   -85.06
       1150   0.53861   178.48    5.9538    78.48  0.066796    51.88   0.25396   -86.06
       1200   0.53962   176.52    5.7139    77.11   0.06864    52.10   0.25136   -87.14
       1250   0.54089   175.06    5.4959    75.91  0.070618    52.42   0.24784   -87.81
       1300   0.54015   173.16    5.2896    74.62  0.072558    52.59   0.24627   -88.90
       1350   0.54102   171.60    5.1026    73.41   0.07451    52.81   0.24451   -89.81
       1400   0.54234   170.13    4.9292    72.21  0.076537    52.99     0.242   -90.53
       1450   0.54243   168.20    4.7595    70.92  0.078487    53.07   0.24224   -91.59
       1500   0.54387   166.83    4.6032    69.73  0.080488    53.12   0.24162   -92.58
       1550   0.54285   165.46    4.4567    68.61  0.082467    53.20    0.2399   -93.31
       1600   0.54401   163.71    4.3127    67.42  0.084311    53.23   0.24073   -94.27
       1650   0.54506   162.84    4.1903    66.42  0.086464    53.38   0.24004   -95.00
       1700   0.54549   161.40    4.0723    65.35  0.088499    53.39   0.23967   -95.89
       1750   0.54616   159.69    3.9528    64.22  0.090371    53.34   0.24038   -97.08
       1800   0.54918   158.79    3.8557    63.15  0.092643    53.39   0.23993   -97.70
       1850   0.54886   157.12    3.7462    61.96   0.09455    53.24   0.24237   -98.66
       1900   0.55016   155.90    3.6449    60.94  0.096429    53.20   0.24314   -99.85
       1950   0.55014   155.11    3.5577    59.97  0.098478    53.22   0.24235  -100.38
       2000   0.55093   153.64    3.4615    58.91   0.10023    53.19   0.24399  -101.39

!  
! Device Noise Parameters
!  Freq-MHz   Fmin-dB  Gopt-mag  Gopt-arg   Rn-Ohm_normalized
        400    0.9336   0.16298   174.62    0.0844
        420    0.8670   0.20600   176.66    0.0706
        433    0.8794   0.19393   176.66    0.0732
        440    0.8663   0.20450   177.99    0.0693
        460    0.8743   0.23735  -177.58    0.0645
        480    0.8797   0.19918   177.23    0.0712
        500    0.9253   0.20243   177.02    0.0712
        550    0.9232   0.19370   173.53    0.0804
        600    0.8760   0.20652  -179.09    0.0728
        650    0.9204   0.21090   179.71    0.0723
        700    0.9406   0.21823   179.63    0.0705
        750    0.9156   0.22656  -177.19    0.0696
        800    0.9430   0.22560  -178.24    0.0709
        850    0.9485   0.23754   178.86    0.0682
        900    0.9502   0.23506  -176.72    0.0694
        950    0.9520   0.24109  -176.54    0.0684
       1000    0.9660   0.25622  -177.39    0.0650
       1050    0.9745   0.24940  -178.21    0.0682
       1100    0.9716   0.25843  -175.64    0.0667
       1150    1.0034   0.25586  -175.03    0.0680
       1200    1.0169   0.26012  -173.58    0.0689
       1250    1.0189   0.26725  -172.94    0.0683
       1300    1.0247   0.27152  -171.78    0.0697
       1350    0.9936   0.27379  -172.19    0.0729
       1400    1.0344   0.27455  -171.75    0.0697
       1450    1.0950   0.29440  -168.92    0.0660
       1500    1.0633   0.29000  -170.53    0.0697
       1550    1.0583   0.29215  -170.52    0.0695
       1600    1.0635   0.29796  -169.57    0.0698
       1650    1.0634   0.30823  -169.28    0.0669
       1700    1.0505   0.31180  -168.57    0.0721
       1750    1.0947   0.31476  -163.18    0.0701
       1800    1.0414   0.33732  -168.92    0.0619
       1850    1.0777   0.32216  -166.34    0.0678
       1900    1.0919   0.32071  -164.88    0.0732
       1950    1.1471   0.34175  -163.42    0.0652
       2000    1.1358   0.33823  -163.74    0.0707

