! SIEMENS Small Signal Semiconductors
! BAT15-03W
! Si Schottky Diode in SOD323
! IF = 1 mA     
! S-Parameters:                                         May  1996
# GHz  S  MA  R  50
!  f          S11
! GHz     MAG     ANG
 0.050  0.21442  171.3  
 0.100  0.19570  175.7  
 0.150  0.19031  173.9  
 0.200  0.19588  172.3  
 0.250  0.19495  170.3  
 0.300  0.19309  167.8  
 0.400  0.19702  164.3  
 0.500  0.20041  160.6  
 0.600  0.20369  156.6  
 0.800  0.21204  150.0  
 1.000  0.22205  143.8  
 1.200  0.23328  138.3  
 1.500  0.24927  131.0  
 2.000  0.27991  120.5  
 2.500  0.30990  111.6  
 3.000  0.34390  104.1  
 3.500  0.37298   97.2  
 4.000  0.40170   91.3  
 4.500  0.43346   85.9  
 5.000  0.46305   80.8  
 5.500  0.48910   76.3  
 6.000  0.51595   72.2  
 7.000  0.56064   64.2  
 8.000  0.60537   56.8  
 9.000  0.64841   50.2  
10.000  0.68859   44.3  
11.000  0.72471   39.2  
12.000  0.73129   35.3  
13.000  0.73229   33.7  
14.000  0.76023   30.6  
15.000  0.78114   20.5  
!
! SIEMENS AG  Semiconductor Group, Munich
