! SIEMENS Small Signal Semiconductors
! BAT15-03W
! Si Schottky Diode in SOD323
! VR = 2 V     
! S-Parameters:                                         May  1996
# GHz  S  MA  R  50
!  f          S11
! GHz     MAG     ANG
 0.050  0.97965    0.8  
 0.100  0.99433   -0.7  
 0.150  0.99999   -0.8  
 0.200  0.99960   -1.6  
 0.250  0.99736   -2.0  
 0.300  0.99765   -2.4  
 0.400  0.99876   -3.0  
 0.500  0.99992   -4.1  
 0.600  0.99821   -4.8  
 0.800  0.99984   -6.3  
 1.000  0.99831   -7.9  
 1.200  0.99717   -9.5  
 1.500  0.99610  -12.1  
 2.000  0.99588  -16.5  
 2.500  0.99494  -21.3  
 3.000  0.99360  -26.5  
 3.500  0.99370  -32.3  
 4.000  0.98853  -38.6  
 4.500  0.98442  -45.5  
 5.000  0.97818  -53.1  
 5.500  0.97479  -61.7  
 6.000  0.96828  -71.3  
 7.000  0.96587  -95.1  
 8.000  0.94389 -126.6  
 9.000  0.90470 -166.0  
10.000  0.87491  157.0  
11.000  0.89704  122.3  
12.000  0.89658   95.9  
13.000  0.88662   79.6  
14.000  0.91534   66.9  
15.000  0.87485   53.0  
!
! SIEMENS AG  Semiconductor Group, Munich
