! SIEMENS Small Signal Semiconductors
! BAT15-03W
! Si Schottky Diode in SOD323
! IF = 0.3 mA     
! S-Parameters:                                         May  1996
# GHz  S  MA  R  50
!  f          S11
! GHz     MAG     ANG
 0.050  0.32107    0.9  
 0.100  0.33080    0.2  
 0.150  0.33567   -0.5  
 0.200  0.33065   -2.4  
 0.250  0.33078   -1.3  
 0.300  0.33351   -1.4  
 0.400  0.33068   -1.8  
 0.500  0.32967   -2.3  
 0.600  0.32767   -2.6  
 0.800  0.32520   -3.7  
 1.000  0.32081   -4.4  
 1.200  0.31547   -5.4  
 1.500  0.30544   -7.4  
 2.000  0.28767  -10.1  
 2.500  0.26765  -13.3  
 3.000  0.23868  -16.0  
 3.500  0.21048  -18.1  
 4.000  0.17756  -20.1  
 4.500  0.14155  -18.9  
 5.000  0.10557  -14.8  
 5.500  0.07063    0.2  
 6.000  0.05370   38.4  
 7.000  0.12014   81.4  
 8.000  0.22767   79.9  
 9.000  0.33921   72.7  
10.000  0.45274   65.0  
11.000  0.56277   57.5  
12.000  0.62684   51.7  
13.000  0.66834   48.0  
14.000  0.72722   44.2  
15.000  0.76680   34.4  
!
! SIEMENS AG  Semiconductor Group, Munich
