# Hz S DB R 50
! CMT, M5065, 19127446, 23.4.5/2
! Date: 25/9/2024 16:14:58
! Data: Format (Calibration Info)
! Freq	S11:dB/Ang(--)	S21:dB/Ang(--)	S12:dB/Ang(--)	S22:dB/Ang(--)
6.00000000000E+08	-6.32084635049E+00	9.43231510016E+01	-6.60166055784E+00	-5.21433252671E+01	-6.69691189919E+00	-5.20875697908E+01	-4.03760766650E+00	-2.36062651119E+01
6.00300000000E+08	-6.30139828815E+00	9.33124905631E+01	-6.53571348046E+00	-5.31858822779E+01	-6.67519189802E+00	-5.31679245163E+01	-4.06319723234E+00	-2.49178236441E+01
6.00600000000E+08	-6.30716565502E+00	9.23101069397E+01	-6.52005236113E+00	-5.43675747079E+01	-6.65172795859E+00	-5.43892581156E+01	-4.09367322033E+00	-2.62821235509E+01
6.00900000000E+08	-6.30064234006E+00	9.12271586395E+01	-6.49183222037E+00	-5.54928331592E+01	-6.60591424197E+00	-5.55673089481E+01	-4.10757578852E+00	-2.76176576047E+01
6.01200000000E+08	-6.31774851838E+00	9.00664524321E+01	-6.47560890253E+00	-5.66918022522E+01	-6.59170963195E+00	-5.66596284974E+01	-4.14124556447E+00	-2.88778534654E+01
6.01500000000E+08	-6.31414482740E+00	8.89906470409E+01	-6.44161603466E+00	-5.78310014706E+01	-6.56848568423E+00	-5.78725610847E+01	-4.17429643014E+00	-3.02459589826E+01
6.01800000000E+08	-6.30853893368E+00	8.78543953829E+01	-6.41009634340E+00	-5.90933640217E+01	-6.53890606007E+00	-5.89651822684E+01	-4.19680808279E+00	-3.14951537223E+01
6.02100000000E+08	-6.32063354328E+00	8.68312811139E+01	-6.40972870258E+00	-6.01710595999E+01	-6.51313662751E+00	-6.01007376824E+01	-4.23145391193E+00	-3.28211581044E+01
6.02400000000E+08	-6.30716772957E+00	8.57205806971E+01	-6.35163352239E+00	-6.13676983187E+01	-6.48311644095E+00	-6.12942795148E+01	-4.25394070025E+00	-3.42229527015E+01
6.02700000000E+08	-6.31956288939E+00	8.46869122128E+01	-6.32850466407E+00	-6.25210685250E+01	-6.43588615305E+00	-6.25127012445E+01	-4.26847777781E+00	-3.55707674895E+01
6.03000000000E+08	-6.32478224091E+00	8.35910919995E+01	-6.31728939294E+00	-6.36948657615E+01	-6.41974307100E+00	-6.35685970823E+01	-4.29593778895E+00	-3.68029994741E+01
6.03300000000E+08	-6.33116677720E+00	8.25627181069E+01	-6.28163021992E+00	-6.48135243672E+01	-6.39012216545E+00	-6.48047196179E+01	-4.32702097981E+00	-3.82242955975E+01
6.03600000000E+08	-6.32456735202E+00	8.14982683012E+01	-6.24678559432E+00	-6.60040625624E+01	-6.35355399795E+00	-6.59473991547E+01	-4.33827616165E+00	-3.95254315360E+01
6.03900000000E+08	-6.33525792614E+00	8.03748694846E+01	-6.22793019898E+00	-6.71353775444E+01	-6.33750965043E+00	-6.70337144061E+01	-4.38707361274E+00	-4.08424324601E+01
6.04200000000E+08	-6.32871771272E+00	7.92610670898E+01	-6.18635974389E+00	-6.83739983008E+01	-6.30289160671E+00	-6.82464753674E+01	-4.40459138562E+00	-4.22123078413E+01
6.04500000000E+08	-6.34992957219E+00	7.82198701587E+01	-6.18153252644E+00	-6.94917160287E+01	-6.28513428053E+00	-6.93167843696E+01	-4.44485765963E+00	-4.34740359965E+01
6.04800000000E+08	-6.34570957023E+00	7.70549962384E+01	-6.14705883340E+00	-7.07959086980E+01	-6.24560555036E+00	-7.05785717110E+01	-4.46208107254E+00	-4.48723986350E+01
6.05100000000E+08	-6.34341633800E+00	7.60279388380E+01	-6.12034877304E+00	-7.19078734291E+01	-6.22379891997E+00	-7.17115653693E+01	-4.49713438583E+00	-4.62284476311E+01
6.05400000000E+08	-6.36054791231E+00	7.48593924483E+01	-6.10637566759E+00	-7.31416727903E+01	-6.18870884411E+00	-7.28749334177E+01	-4.52485378856E+00	-4.75504361576E+01
6.05700000000E+08	-6.36893229794E+00	7.37983782650E+01	-6.08591404955E+00	-7.43119337297E+01	-6.16463979022E+00	-7.40179564140E+01	-4.55158542561E+00	-4.88299234872E+01
6.06000000000E+08	-6.36256741420E+00	7.27853464243E+01	-6.05208209154E+00	-7.54692540440E+01	-6.15008943520E+00	-7.52007484906E+01	-4.58957844752E+00	-5.02196250367E+01
6.06300000000E+08	-6.36576516970E+00	7.16834561651E+01	-6.01900337202E+00	-7.67134866912E+01	-6.11982764381E+00	-7.62580657172E+01	-4.61981345869E+00	-5.15017164736E+01
6.06600000000E+08	-6.36375879248E+00	7.06055444500E+01	-5.99018341959E+00	-7.78867025445E+01	-6.07972148932E+00	-7.75076522504E+01	-4.64436578748E+00	-5.28614704572E+01
6.06900000000E+08	-6.37297928853E+00	6.95286474460E+01	-5.98039767097E+00	-7.89850613659E+01	-6.05348111301E+00	-7.87164421234E+01	-4.68214182140E+00	-5.42494724996E+01
6.07200000000E+08	-6.37609458711E+00	6.83517211297E+01	-5.94513033680E+00	-8.03054828610E+01	-6.02229681714E+00	-7.99115888554E+01	-4.69233056243E+00	-5.56510237705E+01
6.07500000000E+08	-6.39898230370E+00	6.73205171845E+01	-5.93265073800E+00	-8.14330162095E+01	-6.00324688456E+00	-8.10255278931E+01	-4.74305914737E+00	-5.69003138371E+01
6.07800000000E+08	-6.40171373461E+00	6.62139152006E+01	-5.91152196456E+00	-8.27076318445E+01	-5.97667738662E+00	-8.23187827270E+01	-4.76888565555E+00	-5.83342725934E+01
6.08100000000E+08	-6.41020550657E+00	6.51555688215E+01	-5.89068886470E+00	-8.38680067309E+01	-5.94237623283E+00	-8.35125998780E+01	-4.79543889484E+00	-5.96978419169E+01
6.08400000000E+08	-6.42288487506E+00	6.40719106356E+01	-5.86120520221E+00	-8.50383502001E+01	-5.93736927530E+00	-8.46054950846E+01	-4.84973521666E+00	-6.09337755183E+01
6.08700000000E+08	-6.41299650134E+00	6.30107061365E+01	-5.82388324624E+00	-8.62058341304E+01	-5.90545933056E+00	-8.57782285890E+01	-4.88156696508E+00	-6.23388104802E+01
6.09000000000E+08	-6.42824118553E+00	6.18016462944E+01	-5.81874954460E+00	-8.75171655357E+01	-5.87662425746E+00	-8.71067379235E+01	-4.90816254539E+00	-6.38173698378E+01
6.09300000000E+08	-6.43733813043E+00	6.08409954604E+01	-5.77796204568E+00	-8.86611368723E+01	-5.85058926511E+00	-8.82024522335E+01	-4.93423899281E+00	-6.50655179552E+01
6.09600000000E+08	-6.44709397541E+00	5.97337519475E+01	-5.76953052540E+00	-8.98199401497E+01	-5.82620668659E+00	-8.93893916353E+01	-4.97916454743E+00	-6.64355670041E+01
6.09900000000E+08	-6.46730958011E+00	5.86347231898E+01	-5.75373035924E+00	-9.10533133882E+01	-5.79243141107E+00	-9.06212548968E+01	-5.00705199532E+00	-6.78465183133E+01
6.10200000000E+08	-6.45905284959E+00	5.74950240933E+01	-5.72437727936E+00	-9.22898937416E+01	-5.76321240038E+00	-9.18060804359E+01	-5.03006748307E+00	-6.91573612188E+01
6.10500000000E+08	-6.46307552184E+00	5.65268425231E+01	-5.69861561257E+00	-9.33913428310E+01	-5.75314000772E+00	-9.30530762063E+01	-5.09068969101E+00	-7.06056109719E+01
6.10800000000E+08	-6.48743381708E+00	5.53446588844E+01	-5.68585086177E+00	-9.47388244422E+01	-5.72748542922E+00	-9.41683460064E+01	-5.11565433201E+00	-7.18690755204E+01
6.11100000000E+08	-6.48756478446E+00	5.42779393141E+01	-5.66194519171E+00	-9.58778771045E+01	-5.70131240575E+00	-9.53827267547E+01	-5.15367046805E+00	-7.32204381412E+01
6.11400000000E+08	-6.50744630061E+00	5.32425487181E+01	-5.64333532773E+00	-9.70422764992E+01	-5.67386437692E+00	-9.65379394551E+01	-5.18038550238E+00	-7.45972149690E+01
6.11700000000E+08	-6.50142560658E+00	5.21697398208E+01	-5.61833189698E+00	-9.82111096452E+01	-5.64644812982E+00	-9.78479797897E+01	-5.21553863233E+00	-7.59884973535E+01
6.12000000000E+08	-6.52444738557E+00	5.10531887242E+01	-5.60067363471E+00	-9.94146465910E+01	-5.61831079498E+00	-9.89934403020E+01	-5.25376282641E+00	-7.73958139349E+01
6.12300000000E+08	-6.53135427682E+00	4.99664036233E+01	-5.57810661187E+00	-1.00685885637E+02	-5.60064134280E+00	-1.00230403370E+02	-5.29285742479E+00	-7.87199439315E+01
6.12600000000E+08	-6.52433681386E+00	4.87444484977E+01	-5.54222120314E+00	-1.01984507050E+02	-5.58426240037E+00	-1.01413763927E+02	-5.33626023838E+00	-8.00720649571E+01
6.12900000000E+08	-6.55103403121E+00	4.76525520732E+01	-5.53600683543E+00	-1.03240084869E+02	-5.53600449771E+00	-1.02555380411E+02	-5.34727576804E+00	-8.12981921693E+01
6.13200000000E+08	-6.54701995633E+00	4.66208272754E+01	-5.49405889945E+00	-1.04401191739E+02	-5.53282370030E+00	-1.03746518549E+02	-5.40418611855E+00	-8.26996527557E+01
6.13500000000E+08	-6.56190403748E+00	4.56306745074E+01	-5.48525934220E+00	-1.05552692735E+02	-5.51031973213E+00	-1.04934314550E+02	-5.43183899018E+00	-8.40231354943E+01
6.13800000000E+08	-6.58068188749E+00	4.44560392665E+01	-5.46802286882E+00	-1.06772937100E+02	-5.48485155392E+00	-1.06294049485E+02	-5.47135862736E+00	-8.55018433619E+01
6.14100000000E+08	-6.58849040482E+00	4.33943780130E+01	-5.44415346303E+00	-1.07922662366E+02	-5.45854299933E+00	-1.07448576895E+02	-5.50911205630E+00	-8.68981195674E+01
6.14400000000E+08	-6.61330402411E+00	4.21939376495E+01	-5.44040065928E+00	-1.09312617515E+02	-5.42896251355E+00	-1.08728111566E+02	-5.54049293051E+00	-8.82602572522E+01
6.14700000000E+08	-6.61688134674E+00	4.12054096506E+01	-5.40848602375E+00	-1.10373285228E+02	-5.40455444272E+00	-1.09893592687E+02	-5.57608145195E+00	-8.95918166058E+01
6.15000000000E+08	-6.63629323329E+00	4.00301658200E+01	-5.40932178588E+00	-1.11660766050E+02	-5.38856219308E+00	-1.11125395906E+02	-5.62003166945E+00	-9.09258192516E+01
6.15300000000E+08	-6.64472468916E+00	3.89659094853E+01	-5.38562525766E+00	-1.12874778323E+02	-5.35585184224E+00	-1.12281442263E+02	-5.65680426914E+00	-9.22420172007E+01
6.15600000000E+08	-6.64077670190E+00	3.78734288531E+01	-5.35057724930E+00	-1.14058227739E+02	-5.35130188925E+00	-1.13521782011E+02	-5.70587411473E+00	-9.35820342237E+01
6.15900000000E+08	-6.66217063046E+00	3.68028906262E+01	-5.33794847220E+00	-1.15300500545E+02	-5.32694176660E+00	-1.14723694713E+02	-5.74230064165E+00	-9.48670761851E+01
6.16200000000E+08	-6.67880360002E+00	3.56157398928E+01	-5.31853784481E+00	-1.16570857504E+02	-5.30097453011E+00	-1.16109099650E+02	-5.77534754569E+00	-9.64288997759E+01
6.16500000000E+08	-6.68822385295E+00	3.45485283139E+01	-5.29338364500E+00	-1.17765893060E+02	-5.27661174173E+00	-1.17203281126E+02	-5.80216322054E+00	-9.76498091353E+01
6.16800000000E+08	-6.69222768047E+00	3.33905911638E+01	-5.27663468026E+00	-1.19001586940E+02	-5.25985424130E+00	-1.18431561118E+02	-5.84933987486E+00	-9.90722209894E+01
6.17100000000E+08	-6.71686427729E+00	3.23257741651E+01	-5.27313242163E+00	-1.20281597430E+02	-5.24669850524E+00	-1.19705403462E+02	-5.89223332986E+00	-1.00461173952E+02
6.17400000000E+08	-6.72502863661E+00	3.12418146534E+01	-5.24942012080E+00	-1.21404687759E+02	-5.22104199924E+00	-1.20866687255E+02	-5.92931582967E+00	-1.01665266925E+02
6.17700000000E+08	-6.75008812695E+00	3.01075124531E+01	-5.23644775924E+00	-1.22709507974E+02	-5.21627050030E+00	-1.22074025604E+02	-5.97486988418E+00	-1.03066776618E+02
6.18000000000E+08	-6.75843573957E+00	2.89636969360E+01	-5.22215182634E+00	-1.23949998476E+02	-5.17197951801E+00	-1.23405016422E+02	-5.98777748696E+00	-1.04455357236E+02
6.18300000000E+08	-6.77234799955E+00	2.80439849840E+01	-5.20286988265E+00	-1.24984655368E+02	-5.16044104285E+00	-1.24584516236E+02	-6.04604293767E+00	-1.05795783830E+02
6.18600000000E+08	-6.77920378784E+00	2.69125615237E+01	-5.17889548759E+00	-1.26239190256E+02	-5.14403601775E+00	-1.25796621804E+02	-6.08231475911E+00	-1.07126203979E+02
6.18900000000E+08	-6.78481997324E+00	2.58388326353E+01	-5.15369435972E+00	-1.27491363722E+02	-5.14071184998E+00	-1.27046622980E+02	-6.13508174435E+00	-1.08412142261E+02
6.19200000000E+08	-6.81308752865E+00	2.45752287743E+01	-5.15024357073E+00	-1.28782007083E+02	-5.10322435860E+00	-1.28278457471E+02	-6.16681204100E+00	-1.09849945269E+02
6.19500000000E+08	-6.82993808187E+00	2.34686978560E+01	-5.14060125169E+00	-1.30061961415E+02	-5.08466775120E+00	-1.29485546275E+02	-6.20255751551E+00	-1.11099594952E+02
6.19800000000E+08	-6.84080033475E+00	2.24312430123E+01	-5.11395783399E+00	-1.31189298575E+02	-5.07440125134E+00	-1.30837421501E+02	-6.24952696730E+00	-1.12541290576E+02
6.20100000000E+08	-6.86088891226E+00	2.13109403464E+01	-5.10422021340E+00	-1.32397980855E+02	-5.06165792996E+00	-1.31911392376E+02	-6.29358229512E+00	-1.13760641796E+02
6.20400000000E+08	-6.86923988216E+00	2.02519310773E+01	-5.08872376592E+00	-1.33601751786E+02	-5.03745526724E+00	-1.33211996203E+02	-6.33459268959E+00	-1.15101381355E+02
6.20700000000E+08	-6.88675654581E+00	1.91048058591E+01	-5.07091263523E+00	-1.34893122172E+02	-5.01212915121E+00	-1.34514092245E+02	-6.35202360636E+00	-1.16500294097E+02
6.21000000000E+08	-6.89289505797E+00	1.79943101149E+01	-5.04473214211E+00	-1.36103173364E+02	-4.98738820933E+00	-1.35750897104E+02	-6.39517120297E+00	-1.17885519407E+02
6.21300000000E+08	-6.92172325553E+00	1.68254730080E+01	-5.04191080060E+00	-1.37298188579E+02	-4.98764474446E+00	-1.36890751607E+02	-6.44140949561E+00	-1.19028264343E+02
6.21600000000E+08	-6.93804896368E+00	1.57538646764E+01	-5.03802483036E+00	-1.38559697868E+02	-4.97267518449E+00	-1.38088756822E+02	-6.49384349055E+00	-1.20335145625E+02
6.21900000000E+08	-6.96401037839E+00	1.46602938985E+01	-5.01982491315E+00	-1.39794411359E+02	-4.93763357300E+00	-1.39396158748E+02	-6.50564120077E+00	-1.21759101634E+02
6.22200000000E+08	-6.95244078057E+00	1.35233194813E+01	-4.99229416738E+00	-1.41051240550E+02	-4.92485085757E+00	-1.40597177597E+02	-6.55200445200E+00	-1.23046774797E+02
6.22500000000E+08	-6.99088460804E+00	1.24498733748E+01	-4.99530354864E+00	-1.42184616533E+02	-4.91140394694E+00	-1.41765813010E+02	-6.59524837836E+00	-1.24288119900E+02
6.22800000000E+08	-7.00404897248E+00	1.12743952641E+01	-4.97066271824E+00	-1.43471680422E+02	-4.89633677114E+00	-1.43136313495E+02	-6.64048607080E+00	-1.25695248394E+02
6.23100000000E+08	-7.02392876459E+00	1.02108852125E+01	-4.95778888129E+00	-1.44696873335E+02	-4.89500471516E+00	-1.44367464113E+02	-6.68108612020E+00	-1.27021390175E+02
6.23400000000E+08	-7.04634148796E+00	9.07919766495E+00	-4.95193441414E+00	-1.45980740823E+02	-4.85431261492E+00	-1.45583608581E+02	-6.70610906485E+00	-1.28258425456E+02
6.23700000000E+08	-7.06652465385E+00	8.02486541908E+00	-4.93817540402E+00	-1.47117738618E+02	-4.85568290933E+00	-1.46793744240E+02	-6.77201259542E+00	-1.29516757562E+02
6.24000000000E+08	-7.07034934594E+00	6.84336151234E+00	-4.91915352703E+00	-1.48365772741E+02	-4.83667088850E+00	-1.48008422747E+02	-6.80423411310E+00	-1.30785678954E+02
6.24300000000E+08	-7.09877512305E+00	5.73512016290E+00	-4.91356898030E+00	-1.49620979713E+02	-4.81706208141E+00	-1.49347470419E+02	-6.83833504236E+00	-1.32199010389E+02
6.24600000000E+08	-7.10117426836E+00	4.59984224553E+00	-4.88985009594E+00	-1.50846193031E+02	-4.81262213098E+00	-1.50545366800E+02	-6.88049242514E+00	-1.33386863149E+02
6.24900000000E+08	-7.13565930417E+00	3.48848774065E+00	-4.88537814768E+00	-1.52038428619E+02	-4.79760921645E+00	-1.51814951779E+02	-6.92875341588E+00	-1.34802547295E+02
6.25200000000E+08	-7.15897918956E+00	2.34382662205E+00	-4.87191140532E+00	-1.53335893212E+02	-4.78057036221E+00	-1.52915348469E+02	-6.96116812025E+00	-1.35986609947E+02
6.25500000000E+08	-7.16181623437E+00	1.16022930247E+00	-4.86524090626E+00	-1.54601556550E+02	-4.77786421860E+00	-1.54285017373E+02	-7.01658021527E+00	-1.37331087000E+02
6.25800000000E+08	-7.17617694609E+00	7.41095299471E-02	-4.84475836054E+00	-1.55749609438E+02	-4.76478531858E+00	-1.55462957397E+02	-7.05885115294E+00	-1.38493653570E+02
6.26100000000E+08	-7.19386717491E+00	-9.90525409851E-01	-4.83448550587E+00	-1.56924392095E+02	-4.74398460937E+00	-1.56791999665E+02	-7.08415396161E+00	-1.39864475122E+02
6.26400000000E+08	-7.21860811361E+00	-2.17487250017E+00	-4.82401468411E+00	-1.58231186314E+02	-4.73896797319E+00	-1.57834248062E+02	-7.13376585616E+00	-1.41014176584E+02
6.26700000000E+08	-7.24246453653E+00	-3.21051045640E+00	-4.80170946946E+00	-1.59386351051E+02	-4.72584043522E+00	-1.59297324139E+02	-7.16448794675E+00	-1.42406313333E+02
6.27000000000E+08	-7.24856057456E+00	-4.38265637828E+00	-4.79386155450E+00	-1.60665564587E+02	-4.70436574260E+00	-1.60486034850E+02	-7.19901114913E+00	-1.43663762909E+02
6.27300000000E+08	-7.29236685520E+00	-5.47050907853E+00	-4.79752537921E+00	-1.61888089592E+02	-4.69852543062E+00	-1.61753402394E+02	-7.25742689480E+00	-1.44956978241E+02
6.27600000000E+08	-7.29941063786E+00	-6.56507862864E+00	-4.78265268847E+00	-1.63039469113E+02	-4.68519775392E+00	-1.62930047483E+02	-7.29155870045E+00	-1.46187649605E+02
6.27900000000E+08	-7.32332876650E+00	-7.68696637289E+00	-4.77384553974E+00	-1.64265773430E+02	-4.67166068387E+00	-1.64148136478E+02	-7.33013769002E+00	-1.47307309702E+02
6.28200000000E+08	-7.34017474529E+00	-8.89256869867E+00	-4.75910584824E+00	-1.65561290832E+02	-4.66542744789E+00	-1.65471896701E+02	-7.37754524925E+00	-1.48645340658E+02
6.28500000000E+08	-7.36710744740E+00	-1.00270178065E+01	-4.76041701661E+00	-1.66825230168E+02	-4.64603665275E+00	-1.66671922911E+02	-7.41236978877E+00	-1.49851471502E+02
6.28800000000E+08	-7.38188083132E+00	-1.11936552564E+01	-4.74115930092E+00	-1.68090632894E+02	-4.63598905653E+00	-1.67933459058E+02	-7.44044232420E+00	-1.51134115464E+02
6.29100000000E+08	-7.39338351655E+00	-1.23261737956E+01	-4.72255300093E+00	-1.69306761636E+02	-4.63062671321E+00	-1.69238737112E+02	-7.49700592016E+00	-1.52385919116E+02
6.29400000000E+08	-7.40757529399E+00	-1.34559669977E+01	-4.70421184036E+00	-1.70505873549E+02	-4.61964042065E+00	-1.70326992239E+02	-7.53736724035E+00	-1.53474678105E+02
6.29700000000E+08	-7.43644884466E+00	-1.45560824280E+01	-4.70892564536E+00	-1.71677884059E+02	-4.58971150817E+00	-1.71712829987E+02	-7.54349444022E+00	-1.54827032288E+02
6.30000000000E+08	-7.45528142656E+00	-1.57279009711E+01	-4.69141615452E+00	-1.72943733655E+02	-4.60861974185E+00	-1.72940825571E+02	-7.61933014885E+00	-1.56123084588E+02
6.30300000000E+08	-7.47902149751E+00	-1.68716538806E+01	-4.69366211660E+00	-1.74172768959E+02	-4.59555790127E+00	-1.74253721255E+02	-7.65038015821E+00	-1.57361282267E+02
6.30600000000E+08	-7.50471453283E+00	-1.80705205190E+01	-4.68403032966E+00	-1.75407285861E+02	-4.57669430095E+00	-1.75448796639E+02	-7.68458447933E+00	-1.58526364169E+02
6.30900000000E+08	-7.51269803619E+00	-1.91273612030E+01	-4.66006213122E+00	-1.76565733756E+02	-4.56819364719E+00	-1.76686364518E+02	-7.72012079611E+00	-1.59640454777E+02
6.31200000000E+08	-7.53230661129E+00	-2.02924576627E+01	-4.65052977516E+00	-1.77774083586E+02	-4.56239712442E+00	-1.77921221759E+02	-7.76501529342E+00	-1.60861751752E+02
6.31500000000E+08	-7.55884814487E+00	-2.14684544067E+01	-4.64696537780E+00	-1.79088461756E+02	-4.53259386889E+00	-1.79139720812E+02	-7.79788670400E+00	-1.62064709912E+02
6.31800000000E+08	-7.58947955938E+00	-2.25613256749E+01	-4.64799939816E+00	1.79754159493E+02	-4.54537897887E+00	1.79632557667E+02	-7.84030820891E+00	-1.63288676349E+02
6.32100000000E+08	-7.61470496127E+00	-2.37575911672E+01	-4.65058114057E+00	1.78483562501E+02	-4.53348562443E+00	1.78333748527E+02	-7.87763179427E+00	-1.64488832260E+02
6.32400000000E+08	-7.62239611648E+00	-2.49536004376E+01	-4.62404793144E+00	1.77216402134E+02	-4.51877505064E+00	1.77116174957E+02	-7.90816243768E+00	-1.65694131358E+02
6.32700000000E+08	-7.64988675453E+00	-2.60415420202E+01	-4.61734564746E+00	1.76008073940E+02	-4.49906807647E+00	1.75887884527E+02	-7.94914970262E+00	-1.66832530305E+02
6.33000000000E+08	-7.67136184486E+00	-2.72538404675E+01	-4.62174124607E+00	1.74721010677E+02	-4.51268104378E+00	1.74699805636E+02	-8.00288717525E+00	-1.67865964522E+02
6.33300000000E+08	-7.69531723036E+00	-2.84557721295E+01	-4.59920458193E+00	1.73474355268E+02	-4.48947873408E+00	1.73454369719E+02	-8.01952798643E+00	-1.69003094284E+02
6.33600000000E+08	-7.72320284663E+00	-2.94151155550E+01	-4.60501733213E+00	1.72393835227E+02	-4.47300986882E+00	1.72082149640E+02	-8.05882076601E+00	-1.70303937757E+02
6.33900000000E+08	-7.73180658935E+00	-3.06618167533E+01	-4.57775692927E+00	1.71153617913E+02	-4.47845331598E+00	1.70909650246E+02	-8.10172407595E+00	-1.71481919858E+02
6.34200000000E+08	-7.77054080492E+00	-3.18031776267E+01	-4.59377209412E+00	1.69924244269E+02	-4.48259381011E+00	1.69631506003E+02	-8.14601923016E+00	-1.72626753418E+02
6.34500000000E+08	-7.78872436594E+00	-3.28345517815E+01	-4.57683295930E+00	1.68775799813E+02	-4.46311935574E+00	1.68389240568E+02	-8.17785327929E+00	-1.73803451144E+02
6.34800000000E+08	-7.81281026921E+00	-3.40562117013E+01	-4.56662192488E+00	1.67531858839E+02	-4.45489111461E+00	1.67196798132E+02	-8.20488784717E+00	-1.74897179049E+02
