! Infineon Technologies  Discrete & RF Semiconductors
! BFP183
! VCE = 5.0 V,  IC =  2.5 mA
! Common Emitter S-Parameters:                            Jan 2016
# GHz  S  MA  R  50
!  f         S11            S21            S12            S22
! GHz     MAG   ANG      MAG   ANG      MAG   ANG      MAG   ANG
 0.010  0.9087   -1.9   8.277  178.8  0.0019   88.8  0.9968   -0.8
 0.015  0.9067   -2.9   8.255  178.3  0.0030   89.6  0.9924   -1.2
 0.020  0.9051   -4.0   8.234  177.8  0.0042   89.9  0.9881   -1.6
 0.025  0.9031   -5.0   8.238  177.0  0.0053   89.2  0.9884   -2.0
 0.030  0.9015   -6.1   8.243  176.3  0.0063   88.8  0.9887   -2.4
 0.035  0.9001   -7.1   8.250  175.5  0.0074   88.5  0.9890   -2.8
 0.040  0.8990   -8.1   8.259  174.7  0.0085   88.2  0.9894   -3.1
 0.045  0.8982   -9.2   8.269  174.0  0.0095   88.0  0.9898   -3.5
 0.050  0.8977  -10.2   8.280  173.2  0.0106   87.9  0.9903   -3.9
 0.055  0.8956  -11.2   8.258  172.6  0.0116   86.2  0.9888   -4.3
 0.060  0.8937  -12.2   8.237  171.9  0.0126   84.9  0.9873   -4.7
 0.065  0.8922  -13.2   8.217  171.3  0.0137   83.7  0.9859   -5.1
 0.070  0.8909  -14.2   8.198  170.6  0.0147   82.7  0.9845   -5.4
 0.075  0.8899  -15.2   8.180  169.9  0.0158   81.8  0.9831   -5.8
 0.080  0.8891  -16.2   8.163  169.3  0.0168   81.0  0.9818   -6.2
 0.085  0.8887  -17.3   8.147  168.6  0.0178   80.3  0.9806   -6.6
 0.090  0.8885  -18.3   8.133  167.9  0.0189   79.7  0.9794   -7.0
 0.095  0.8886  -19.3   8.119  167.3  0.0199   79.2  0.9782   -7.4
 0.100  0.8890  -20.3   8.107  166.6  0.0210   78.7  0.9771   -7.8
 0.105  0.8869  -21.3   8.086  165.9  0.0220   77.9  0.9757   -8.2
 0.110  0.8850  -22.3   8.067  165.3  0.0229   77.2  0.9743   -8.6
 0.115  0.8834  -23.2   8.048  164.6  0.0239   76.5  0.9729   -8.9
 0.120  0.8821  -24.2   8.031  164.0  0.0249   75.9  0.9716   -9.3
 0.125  0.8811  -25.2   8.014  163.3  0.0259   75.3  0.9704   -9.7
 0.130  0.8803  -26.2   7.999  162.6  0.0269   74.8  0.9691  -10.1
 0.135  0.8797  -27.2   7.985  161.9  0.0278   74.3  0.9680  -10.5
 0.140  0.8794  -28.2   7.972  161.3  0.0288   73.8  0.9668  -10.8
 0.145  0.8794  -29.2   7.960  160.6  0.0298   73.4  0.9657  -11.2
 0.150  0.8797  -30.2   7.949  159.9  0.0308   73.0  0.9647  -11.6
 0.155  0.8765  -31.2   7.929  159.3  0.0317   72.4  0.9624  -11.9
 0.160  0.8735  -32.1   7.911  158.6  0.0326   71.8  0.9601  -12.3
 0.165  0.8707  -33.1   7.893  158.0  0.0334   71.2  0.9578  -12.6
 0.170  0.8683  -34.1   7.876  157.3  0.0343   70.6  0.9556  -13.0
 0.175  0.8660  -35.0   7.860  156.7  0.0352   70.1  0.9534  -13.3
 0.180  0.8640  -36.0   7.846  156.0  0.0361   69.6  0.9513  -13.7
 0.185  0.8623  -37.0   7.832  155.4  0.0370   69.2  0.9491  -14.0
 0.190  0.8609  -38.0   7.819  154.7  0.0379   68.7  0.9471  -14.4
 0.195  0.8596  -39.0   7.808  154.1  0.0388   68.3  0.9450  -14.7
 0.200  0.8587  -40.0   7.797  153.4  0.0397   67.9  0.9430  -15.1
 0.220  0.8507  -43.6   7.646  151.1  0.0430   66.0  0.9329  -16.4
 0.240  0.8460  -47.2   7.508  148.7  0.0464   64.3  0.9232  -17.7
 0.260  0.8391  -50.7   7.389  146.5  0.0496   62.5  0.9125  -18.9
 0.280  0.8298  -54.0   7.286  144.4  0.0526   60.6  0.9006  -20.0
 0.300  0.8234  -57.5   7.192  142.3  0.0556   58.9  0.8890  -21.1
 0.320  0.8090  -60.7   7.058  140.2  0.0579   57.0  0.8777  -22.0
 0.340  0.7972  -63.9   6.933  138.1  0.0602   55.3  0.8666  -23.0
 0.360  0.7880  -67.3   6.818  135.9  0.0625   53.7  0.8557  -24.0
 0.380  0.7816  -70.7   6.714  133.6  0.0650   52.3  0.8451  -25.0
 0.400  0.7781  -74.2   6.620  131.3  0.0674   50.9  0.8348  -26.0
 0.420  0.7661  -77.0   6.479  129.6  0.0691   49.4  0.8235  -26.7
 0.440  0.7559  -79.8   6.344  127.9  0.0708   47.9  0.8124  -27.5
 0.450  0.7516  -81.3   6.278  127.0  0.0717   47.2  0.8068  -27.9
 0.460  0.7477  -82.8   6.214  126.1  0.0726   46.6  0.8013  -28.3
 0.480  0.7415  -85.8   6.091  124.2  0.0744   45.2  0.7905  -29.1
 0.500  0.7373  -88.8   5.975  122.3  0.0763   44.0  0.7798  -29.9
 0.520  0.7289  -91.3   5.857  120.9  0.0775   42.9  0.7705  -30.5
 0.540  0.7219  -93.8   5.743  119.5  0.0788   41.8  0.7613  -31.0
 0.560  0.7163  -96.4   5.633  118.0  0.0801   40.7  0.7521  -31.6
 0.580  0.7122  -99.0   5.527  116.4  0.0814   39.7  0.7431  -32.2
 0.600  0.7096 -101.6   5.425  114.8  0.0827   38.7  0.7341  -32.8
 0.620  0.7009 -103.8   5.315  113.6  0.0835   37.8  0.7262  -33.2
 0.640  0.6934 -106.1   5.207  112.3  0.0844   36.9  0.7183  -33.7
 0.660  0.6870 -108.5   5.101  110.9  0.0853   36.1  0.7105  -34.1
 0.680  0.6817 -110.9   4.999  109.6  0.0862   35.2  0.7027  -34.5
 0.700  0.6777 -113.3   4.900  108.1  0.0871   34.4  0.6950  -35.0
 0.720  0.6717 -115.3   4.818  106.9  0.0877   33.6  0.6886  -35.4
 0.740  0.6665 -117.3   4.738  105.7  0.0883   32.8  0.6822  -35.7
 0.760  0.6621 -119.4   4.660  104.4  0.0890   32.0  0.6758  -36.1
 0.780  0.6587 -121.5   4.585  103.1  0.0896   31.3  0.6695  -36.5
 0.800  0.6561 -123.6   4.512  101.8  0.0903   30.5  0.6632  -36.9
 0.820  0.6511 -125.4   4.439  100.8  0.0908   30.0  0.6573  -37.2
 0.840  0.6467 -127.3   4.366   99.8  0.0912   29.4  0.6514  -37.5
 0.860  0.6430 -129.2   4.296   98.7  0.0917   28.9  0.6456  -37.8
 0.880  0.6401 -131.1   4.227   97.6  0.0922   28.4  0.6397  -38.2
 0.900  0.6378 -133.0   4.159   96.5  0.0927   27.9  0.6339  -38.5
 0.920  0.6345 -134.8   4.087   95.5  0.0929   27.3  0.6291  -38.8
 0.940  0.6319 -136.7   4.016   94.5  0.0930   26.7  0.6244  -39.1
 0.960  0.6299 -138.5   3.946   93.5  0.0932   26.2  0.6197  -39.4
 0.980  0.6286 -140.4   3.878   92.4  0.0934   25.6  0.6150  -39.8
 1.000  0.6280 -142.3   3.811   91.3  0.0936   25.0  0.6103  -40.1
 1.020  0.6252 -143.9   3.756   90.4  0.0939   24.6  0.6064  -40.4
 1.040  0.6229 -145.4   3.702   89.5  0.0942   24.2  0.6026  -40.6
 1.060  0.6210 -147.0   3.648   88.5  0.0945   23.9  0.5987  -40.9
 1.080  0.6196 -148.6   3.596   87.5  0.0949   23.5  0.5949  -41.1
 1.100  0.6187 -150.2   3.545   86.5  0.0952   23.1  0.5911  -41.4
 1.120  0.6162 -151.6   3.490   85.7  0.0953   22.7  0.5882  -41.7
 1.140  0.6140 -153.0   3.435   85.0  0.0954   22.2  0.5853  -41.9
 1.160  0.6122 -154.4   3.381   84.2  0.0955   21.8  0.5824  -42.2
 1.180  0.6108 -155.9   3.328   83.4  0.0957   21.3  0.5796  -42.4
 1.200  0.6098 -157.3   3.275   82.5  0.0958   20.9  0.5767  -42.7
 1.220  0.6097 -158.7   3.229   81.7  0.0959   20.6  0.5739  -43.0
 1.240  0.6100 -160.0   3.183   81.0  0.0960   20.4  0.5712  -43.2
 1.260  0.6106 -161.4   3.138   80.2  0.0960   20.1  0.5684  -43.5
 1.280  0.6116 -162.7   3.094   79.3  0.0961   19.9  0.5657  -43.7
 1.300  0.6129 -164.1   3.050   78.5  0.0962   19.6  0.5630  -44.0
 1.320  0.6110 -165.3   3.012   77.8  0.0963   19.3  0.5610  -44.3
 1.340  0.6095 -166.6   2.974   77.0  0.0963   19.0  0.5590  -44.5
 1.360  0.6082 -167.9   2.937   76.2  0.0964   18.8  0.5570  -44.8
 1.380  0.6072 -169.1   2.901   75.4  0.0964   18.5  0.5551  -45.0
 1.400  0.6065 -170.4   2.865   74.6  0.0965   18.2  0.5531  -45.3
 1.420  0.6065 -171.6   2.831   73.9  0.0965   18.0  0.5510  -45.5
 1.440  0.6068 -172.8   2.797   73.1  0.0965   17.9  0.5489  -45.7
 1.460  0.6073 -174.0   2.764   72.3  0.0966   17.7  0.5468  -46.0
 1.480  0.6081 -175.2   2.731   71.5  0.0966   17.6  0.5447  -46.2
 1.500  0.6092 -176.4   2.699   70.7  0.0966   17.4  0.5426  -46.4
 1.520  0.6088 -177.6   2.668   70.1  0.0966   17.2  0.5411  -46.6
 1.540  0.6086 -178.8   2.637   69.4  0.0966   17.0  0.5397  -46.9
 1.560  0.6087 -179.9   2.606   68.7  0.0967   16.8  0.5382  -47.1
 1.580  0.6090  178.9   2.576   68.0  0.0967   16.6  0.5367  -47.4
 1.600  0.6096  177.7   2.546   67.3  0.0967   16.4  0.5353  -47.6
 1.620  0.6094  176.5   2.518   66.6  0.0965   16.3  0.5332  -47.9
 1.640  0.6095  175.4   2.490   65.9  0.0963   16.3  0.5312  -48.3
 1.660  0.6098  174.2   2.463   65.2  0.0962   16.2  0.5291  -48.6
 1.680  0.6104  173.1   2.436   64.5  0.0960   16.2  0.5271  -49.0
 1.700  0.6112  171.9   2.409   63.8  0.0958   16.1  0.5251  -49.3
 1.720  0.6115  170.9   2.384   63.1  0.0958   16.1  0.5233  -49.5
 1.740  0.6119  169.9   2.359   62.5  0.0958   16.1  0.5216  -49.8
 1.760  0.6126  168.9   2.334   61.8  0.0958   16.0  0.5198  -50.0
 1.780  0.6134  167.9   2.310   61.1  0.0958   16.0  0.5180  -50.3
 1.800  0.6144  166.9   2.286   60.4  0.0958   16.0  0.5163  -50.5
 1.820  0.6143  166.0   2.263   59.8  0.0957   15.9  0.5153  -50.8
 1.840  0.6143  165.1   2.239   59.2  0.0956   15.8  0.5144  -51.1
 1.860  0.6145  164.2   2.216   58.6  0.0956   15.6  0.5134  -51.3
 1.880  0.6148  163.3   2.194   58.0  0.0955   15.5  0.5125  -51.6
 1.900  0.6153  162.4   2.171   57.4  0.0954   15.4  0.5116  -51.9
 1.920  0.6160  161.5   2.147   56.8  0.0955   15.4  0.5106  -52.2
 1.940  0.6168  160.6   2.124   56.2  0.0955   15.4  0.5096  -52.5
 1.960  0.6178  159.7   2.101   55.5  0.0956   15.4  0.5087  -52.7
 1.980  0.6190  158.8   2.078   54.9  0.0956   15.4  0.5077  -53.0
 2.000  0.6203  157.9   2.055   54.2  0.0957   15.4  0.5068  -53.3
 2.020  0.6211  157.0   2.036   53.6  0.0957   15.4  0.5059  -53.6
 2.040  0.6220  156.2   2.018   53.1  0.0956   15.4  0.5050  -54.0
 2.060  0.6231  155.3   2.000   52.5  0.0956   15.4  0.5042  -54.3
 2.080  0.6243  154.4   1.982   51.9  0.0956   15.4  0.5033  -54.6
 2.100  0.6256  153.6   1.964   51.3  0.0955   15.4  0.5025  -54.9
 2.120  0.6271  152.7   1.946   50.7  0.0955   15.3  0.5017  -55.3
 2.140  0.6288  151.8   1.929   50.0  0.0955   15.3  0.5009  -55.6
 2.160  0.6305  151.0   1.912   49.4  0.0955   15.3  0.5001  -55.9
 2.180  0.6325  150.1   1.895   48.8  0.0954   15.3  0.4993  -56.3
 2.200  0.6345  149.3   1.878   48.1  0.0954   15.3  0.4986  -56.6
 2.220  0.6351  148.5   1.862   47.6  0.0954   15.4  0.4977  -57.0
 2.240  0.6358  147.7   1.845   47.1  0.0953   15.4  0.4968  -57.3
 2.260  0.6366  147.0   1.829   46.5  0.0953   15.5  0.4959  -57.7
 2.280  0.6376  146.2   1.813   46.0  0.0953   15.5  0.4950  -58.0
 2.300  0.6387  145.4   1.797   45.5  0.0952   15.6  0.4942  -58.4
 2.320  0.6398  144.6   1.782   44.9  0.0952   15.7  0.4934  -58.7
 2.340  0.6411  143.9   1.766   44.4  0.0952   15.7  0.4926  -59.1
 2.360  0.6425  143.1   1.751   43.8  0.0952   15.8  0.4918  -59.5
 2.380  0.6441  142.4   1.736   43.2  0.0951   15.8  0.4910  -59.8
 2.400  0.6457  141.6   1.721   42.6  0.0951   15.9  0.4903  -60.2
 2.420  0.6470  140.9   1.706   42.1  0.0951   16.0  0.4895  -60.5
 2.440  0.6485  140.2   1.692   41.6  0.0952   16.1  0.4887  -60.9
 2.460  0.6500  139.4   1.678   41.1  0.0952   16.2  0.4879  -61.2
 2.480  0.6517  138.7   1.664   40.5  0.0953   16.3  0.4872  -61.6
 2.500  0.6534  138.0   1.650   40.0  0.0953   16.4  0.4864  -61.9
 2.520  0.6552  137.3   1.636   39.5  0.0954   16.5  0.4857  -62.3
 2.540  0.6572  136.6   1.622   38.9  0.0954   16.6  0.4850  -62.6
 2.560  0.6592  135.9   1.609   38.4  0.0955   16.7  0.4843  -63.0
 2.580  0.6614  135.2   1.595   37.8  0.0955   16.8  0.4836  -63.3
 2.600  0.6636  134.5   1.582   37.2  0.0956   16.9  0.4830  -63.7
 2.620  0.6643  133.8   1.570   36.7  0.0957   17.0  0.4823  -64.1
 2.640  0.6651  133.2   1.557   36.1  0.0958   17.1  0.4817  -64.5
 2.660  0.6660  132.5   1.545   35.6  0.0959   17.2  0.4810  -64.8
 2.680  0.6669  131.8   1.533   35.1  0.0960   17.3  0.4804  -65.2
 2.700  0.6680  131.2   1.522   34.5  0.0961   17.4  0.4798  -65.6
 2.720  0.6691  130.5   1.510   33.9  0.0962   17.5  0.4793  -66.0
 2.740  0.6704  129.9   1.499   33.4  0.0963   17.6  0.4787  -66.4
 2.760  0.6717  129.2   1.487   32.8  0.0964   17.7  0.4782  -66.7
 2.780  0.6731  128.5   1.476   32.2  0.0965   17.8  0.4777  -67.1
 2.800  0.6746  127.9   1.465   31.6  0.0966   17.9  0.4772  -67.5
 2.820  0.6756  127.3   1.455   31.1  0.0967   18.0  0.4766  -67.9
 2.840  0.6767  126.7   1.445   30.7  0.0968   18.1  0.4761  -68.3
 2.860  0.6778  126.0   1.435   30.2  0.0969   18.2  0.4756  -68.8
 2.880  0.6790  125.4   1.425   29.7  0.0970   18.3  0.4751  -69.2
 2.900  0.6803  124.8   1.415   29.2  0.0971   18.4  0.4747  -69.6
 2.920  0.6817  124.2   1.406   28.7  0.0972   18.5  0.4743  -70.0
 2.940  0.6832  123.6   1.396   28.2  0.0973   18.6  0.4739  -70.4
 2.960  0.6847  123.0   1.387   27.7  0.0974   18.7  0.4735  -70.9
 2.980  0.6863  122.4   1.377   27.2  0.0975   18.8  0.4731  -71.3
 3.000  0.6880  121.8   1.368   26.7  0.0976   18.9  0.4728  -71.7
 3.100  0.6921  119.1   1.320   24.7  0.0989   19.5  0.4711  -73.8
 3.200  0.6977  116.4   1.273   22.5  0.1002   20.1  0.4701  -76.0
 3.300  0.7048  113.8   1.229   20.2  0.1015   20.7  0.4698  -78.2
 3.400  0.7134  111.2   1.187   17.7  0.1028   21.3  0.4702  -80.3
 3.500  0.7234  108.7   1.147   15.0  0.1041   21.9  0.4712  -82.5
 3.600  0.7276  106.6   1.111   13.2  0.1060   22.4  0.4698  -85.1
 3.700  0.7327  104.6   1.076   11.2  0.1079   22.8  0.4693  -87.7
 3.800  0.7387  102.6   1.043    9.2  0.1098   23.3  0.4698  -90.3
 3.900  0.7455  100.6   1.010    6.9  0.1118   23.7  0.4713  -92.9
 4.000  0.7533   98.7   0.980    4.6  0.1137   24.1  0.4738  -95.5
 4.100  0.7566   96.9   0.950    2.9  0.1161   24.3  0.4724  -98.3
 4.200  0.7606   95.0   0.922    1.1  0.1184   24.4  0.4721 -101.0
 4.300  0.7654   93.2   0.894   -0.8  0.1208   24.5  0.4730 -103.8
 4.400  0.7709   91.5   0.868   -2.8  0.1231   24.7  0.4749 -106.6
 4.500  0.7772   89.7   0.842   -4.9  0.1255   24.8  0.4779 -109.3
 4.600  0.7800   88.3   0.819   -6.2  0.1283   25.1  0.4778 -112.0
 4.700  0.7833   86.9   0.796   -7.6  0.1311   25.4  0.4787 -114.6
 4.800  0.7871   85.5   0.773   -9.1  0.1339   25.7  0.4806 -117.2
 4.900  0.7913   84.2   0.751  -10.6  0.1368   26.0  0.4835 -119.8
 5.000  0.7960   82.8   0.730  -12.3  0.1396   26.3  0.4874 -122.4
 5.100  0.7990   81.6   0.713  -13.6  0.1439   25.7  0.4905 -125.1
 5.200  0.8024   80.4   0.695  -15.0  0.1483   25.2  0.4948 -127.8
 5.300  0.8061   79.2   0.679  -16.5  0.1526   24.7  0.5001 -130.4
 5.400  0.8101   78.1   0.663  -18.0  0.1570   24.2  0.5064 -133.0
 5.500  0.8145   76.9   0.647  -19.6  0.1614   23.8  0.5137 -135.5
 5.600  0.8172   75.7   0.631  -20.8  0.1649   23.1  0.5166 -138.1
 5.700  0.8202   74.6   0.616  -22.0  0.1684   22.4  0.5204 -140.6
 5.800  0.8235   73.5   0.601  -23.3  0.1719   21.7  0.5254 -143.1
 5.900  0.8271   72.3   0.586  -24.7  0.1754   21.1  0.5313 -145.6
 6.000  0.8311   71.2   0.572  -26.1  0.1790   20.5  0.5381 -148.0
!
!  f       NFmin   Gammaopt  rn/50
! GHz       dB    MAG  ANG    -
!
! noise parameter not available yet for this operation point!
!
! (c) 2016  Infineon Technologies AG, Munich
