! Infineon Technologies  Discrete & RF Semiconductors
! BFP181
! VCE = 3.5 V,  IC =  2.5 mA
! Common Emitter S-Parameters:                            Jan 2016
# GHz  S  MA  R  50
!  f         S11            S21            S12            S22
! GHz     MAG   ANG      MAG   ANG      MAG   ANG      MAG   ANG
 0.010  0.9184   -1.3   7.815  179.1  0.0011   83.4  0.9962   -0.5
 0.015  0.9220   -1.9   7.816  178.8  0.0019   88.4  0.9957   -0.7
 0.020  0.9256   -2.4   7.818  178.5  0.0027   90.5  0.9952   -1.0
 0.025  0.9246   -3.0   7.808  178.0  0.0034   89.6  0.9947   -1.3
 0.030  0.9237   -3.5   7.799  177.4  0.0042   89.0  0.9943   -1.6
 0.035  0.9229   -4.1   7.791  176.9  0.0049   88.5  0.9939   -1.8
 0.040  0.9222   -4.7   7.783  176.3  0.0057   88.2  0.9935   -2.1
 0.045  0.9215   -5.2   7.776  175.8  0.0064   88.0  0.9931   -2.4
 0.050  0.9210   -5.8   7.770  175.2  0.0072   87.8  0.9928   -2.7
 0.055  0.9195   -6.4   7.760  174.7  0.0078   86.9  0.9926   -3.0
 0.060  0.9180   -7.0   7.751  174.3  0.0085   86.1  0.9924   -3.2
 0.065  0.9167   -7.6   7.742  173.8  0.0091   85.4  0.9922   -3.5
 0.070  0.9154   -8.2   7.734  173.4  0.0097   84.8  0.9921   -3.7
 0.075  0.9143   -8.8   7.726  172.9  0.0104   84.3  0.9919   -4.0
 0.080  0.9133   -9.4   7.718  172.5  0.0110   83.8  0.9918   -4.3
 0.085  0.9123  -10.0   7.712  172.0  0.0117   83.4  0.9917   -4.5
 0.090  0.9115  -10.6   7.705  171.5  0.0123   83.0  0.9917   -4.8
 0.095  0.9107  -11.2   7.699  171.1  0.0130   82.7  0.9916   -5.0
 0.100  0.9101  -11.8   7.694  170.6  0.0136   82.4  0.9916   -5.3
 0.105  0.9090  -12.3   7.685  170.1  0.0143   81.9  0.9904   -5.5
 0.110  0.9080  -12.9   7.677  169.7  0.0149   81.5  0.9892   -5.8
 0.115  0.9071  -13.4   7.670  169.2  0.0156   81.1  0.9880   -6.0
 0.120  0.9063  -14.0   7.663  168.7  0.0162   80.7  0.9869   -6.3
 0.125  0.9055  -14.5   7.656  168.3  0.0169   80.4  0.9858   -6.5
 0.130  0.9048  -15.1   7.650  167.8  0.0176   80.1  0.9847   -6.8
 0.135  0.9043  -15.6   7.644  167.3  0.0182   79.8  0.9836   -7.0
 0.140  0.9038  -16.2   7.639  166.8  0.0189   79.5  0.9825   -7.3
 0.145  0.9033  -16.7   7.635  166.4  0.0195   79.2  0.9814   -7.5
 0.150  0.9030  -17.3   7.631  165.9  0.0202   79.0  0.9804   -7.8
 0.155  0.9012  -17.9   7.623  165.4  0.0208   78.7  0.9795   -8.0
 0.160  0.8995  -18.5   7.616  165.0  0.0215   78.4  0.9786   -8.3
 0.165  0.8979  -19.1   7.610  164.5  0.0221   78.1  0.9777   -8.5
 0.170  0.8965  -19.8   7.604  164.0  0.0228   77.8  0.9769   -8.8
 0.175  0.8951  -20.4   7.598  163.6  0.0234   77.5  0.9760   -9.0
 0.180  0.8938  -21.0   7.593  163.1  0.0241   77.3  0.9752   -9.3
 0.185  0.8927  -21.6   7.589  162.6  0.0247   77.0  0.9744   -9.5
 0.190  0.8916  -22.2   7.584  162.1  0.0254   76.8  0.9736   -9.8
 0.195  0.8906  -22.9   7.581  161.7  0.0260   76.6  0.9728  -10.0
 0.200  0.8898  -23.5   7.578  161.2  0.0267   76.4  0.9721  -10.3
 0.220  0.8825  -25.6   7.523  159.4  0.0291   75.0  0.9665  -11.3
 0.240  0.8763  -27.7   7.476  157.5  0.0316   73.8  0.9612  -12.3
 0.260  0.8700  -29.9   7.427  155.9  0.0339   72.5  0.9556  -13.2
 0.280  0.8634  -32.1   7.373  154.4  0.0362   71.1  0.9497  -14.1
 0.300  0.8582  -34.3   7.325  152.9  0.0385   69.9  0.9440  -15.0
 0.320  0.8478  -36.3   7.242  151.2  0.0405   68.5  0.9375  -15.8
 0.340  0.8385  -38.4   7.166  149.4  0.0425   67.2  0.9311  -16.7
 0.360  0.8303  -40.5   7.096  147.6  0.0446   66.0  0.9250  -17.5
 0.380  0.8233  -42.6   7.034  145.8  0.0466   65.0  0.9191  -18.4
 0.400  0.8174  -44.8   6.979  143.9  0.0487   64.0  0.9134  -19.3
 0.420  0.8047  -46.8   6.892  142.4  0.0505   62.8  0.9061  -20.0
 0.440  0.7929  -48.8   6.810  140.8  0.0524   61.7  0.8989  -20.7
 0.450  0.7874  -49.9   6.771  140.0  0.0533   61.2  0.8954  -21.1
 0.460  0.7822  -50.9   6.733  139.2  0.0542   60.7  0.8919  -21.4
 0.480  0.7726  -53.1   6.662  137.6  0.0561   59.7  0.8850  -22.2
 0.500  0.7641  -55.3   6.596  135.9  0.0580   58.8  0.8782  -22.9
 0.520  0.7535  -57.1   6.521  134.6  0.0594   57.8  0.8707  -23.6
 0.540  0.7436  -59.0   6.450  133.2  0.0609   56.8  0.8632  -24.2
 0.560  0.7346  -60.9   6.383  131.8  0.0623   55.9  0.8559  -24.9
 0.580  0.7264  -62.9   6.319  130.4  0.0638   55.0  0.8488  -25.6
 0.600  0.7191  -64.9   6.260  128.9  0.0653   54.2  0.8417  -26.3
 0.620  0.7090  -66.6   6.163  127.7  0.0665   53.3  0.8348  -26.8
 0.640  0.6995  -68.4   6.068  126.5  0.0677   52.5  0.8280  -27.4
 0.660  0.6908  -70.2   5.976  125.2  0.0690   51.7  0.8213  -27.9
 0.680  0.6827  -72.1   5.887  123.9  0.0702   50.9  0.8146  -28.4
 0.700  0.6754  -74.0   5.802  122.5  0.0715   50.2  0.8080  -29.0
 0.720  0.6654  -75.6   5.733  121.4  0.0726   49.5  0.8016  -29.4
 0.740  0.6559  -77.2   5.665  120.2  0.0736   48.7  0.7952  -29.9
 0.760  0.6470  -78.8   5.601  119.0  0.0747   48.0  0.7889  -30.4
 0.780  0.6386  -80.6   5.539  117.8  0.0758   47.4  0.7826  -30.8
 0.800  0.6308  -82.3   5.479  116.5  0.0769   46.7  0.7764  -31.3
 0.820  0.6218  -83.9   5.408  115.5  0.0779   46.0  0.7708  -31.7
 0.840  0.6133  -85.5   5.340  114.4  0.0789   45.4  0.7653  -32.1
 0.860  0.6053  -87.2   5.273  113.3  0.0799   44.7  0.7598  -32.5
 0.880  0.5978  -88.9   5.208  112.2  0.0809   44.1  0.7544  -32.9
 0.900  0.5909  -90.7   5.145  111.0  0.0819   43.5  0.7490  -33.3
 0.920  0.5832  -92.3   5.078  110.0  0.0825   43.0  0.7437  -33.7
 0.940  0.5760  -93.9   5.013  109.0  0.0832   42.5  0.7385  -34.0
 0.960  0.5693  -95.6   4.949  108.0  0.0839   42.0  0.7333  -34.4
 0.980  0.5630  -97.3   4.887  107.0  0.0845   41.6  0.7281  -34.8
 1.000  0.5573  -99.0   4.826  105.9  0.0852   41.1  0.7230  -35.2
 1.020  0.5492 -100.6   4.773  104.9  0.0859   40.6  0.7184  -35.5
 1.040  0.5414 -102.3   4.722  103.9  0.0866   40.1  0.7138  -35.9
 1.060  0.5342 -104.0   4.672  102.9  0.0873   39.6  0.7092  -36.2
 1.080  0.5275 -105.7   4.624  101.9  0.0881   39.1  0.7046  -36.6
 1.100  0.5212 -107.5   4.577  100.8  0.0888   38.6  0.7001  -36.9
 1.120  0.5154 -108.9   4.519  100.0  0.0893   38.1  0.6959  -37.2
 1.140  0.5099 -110.4   4.462   99.2  0.0898   37.7  0.6917  -37.5
 1.160  0.5048 -111.9   4.406   98.3  0.0903   37.2  0.6875  -37.8
 1.180  0.5000 -113.4   4.350   97.5  0.0908   36.7  0.6833  -38.2
 1.200  0.4955 -114.9   4.296   96.6  0.0913   36.3  0.6792  -38.5
 1.220  0.4908 -116.4   4.245   95.8  0.0917   36.0  0.6753  -38.8
 1.240  0.4864 -118.0   4.195   95.0  0.0921   35.7  0.6714  -39.0
 1.260  0.4825 -119.6   4.145   94.2  0.0926   35.5  0.6676  -39.3
 1.280  0.4789 -121.2   4.097   93.4  0.0930   35.2  0.6637  -39.5
 1.300  0.4757 -122.9   4.049   92.5  0.0934   34.9  0.6599  -39.8
 1.320  0.4693 -124.3   4.005   91.7  0.0939   34.6  0.6567  -40.1
 1.340  0.4633 -125.8   3.962   91.0  0.0943   34.3  0.6535  -40.4
 1.360  0.4575 -127.3   3.919   90.2  0.0948   33.9  0.6504  -40.6
 1.380  0.4521 -128.8   3.878   89.3  0.0952   33.6  0.6472  -40.9
 1.400  0.4470 -130.4   3.837   88.5  0.0957   33.3  0.6441  -41.2
 1.420  0.4442 -131.9   3.799   87.7  0.0961   33.1  0.6409  -41.4
 1.440  0.4417 -133.4   3.762   86.9  0.0965   32.9  0.6377  -41.6
 1.460  0.4395 -135.0   3.726   86.1  0.0968   32.8  0.6345  -41.8
 1.480  0.4376 -136.5   3.690   85.3  0.0972   32.6  0.6314  -42.0
 1.500  0.4361 -138.1   3.655   84.5  0.0976   32.4  0.6282  -42.2
 1.520  0.4327 -139.3   3.615   83.8  0.0980   32.1  0.6258  -42.4
 1.540  0.4296 -140.6   3.575   83.1  0.0984   31.8  0.6234  -42.6
 1.560  0.4266 -141.8   3.535   82.4  0.0987   31.6  0.6210  -42.9
 1.580  0.4238 -143.1   3.496   81.7  0.0991   31.3  0.6186  -43.1
 1.600  0.4213 -144.4   3.458   81.0  0.0995   31.0  0.6162  -43.3
 1.620  0.4183 -146.0   3.424   80.3  0.1000   30.8  0.6138  -43.6
 1.640  0.4156 -147.6   3.390   79.6  0.1005   30.6  0.6115  -43.9
 1.660  0.4133 -149.2   3.357   78.9  0.1009   30.4  0.6091  -44.1
 1.680  0.4113 -150.8   3.324   78.2  0.1014   30.2  0.6068  -44.4
 1.700  0.4096 -152.5   3.292   77.5  0.1019   30.0  0.6045  -44.7
 1.720  0.4079 -153.9   3.262   76.8  0.1022   29.8  0.6022  -44.9
 1.740  0.4064 -155.4   3.232   76.1  0.1025   29.7  0.6000  -45.1
 1.760  0.4051 -156.9   3.203   75.4  0.1027   29.5  0.5978  -45.4
 1.780  0.4042 -158.3   3.174   74.7  0.1030   29.4  0.5955  -45.6
 1.800  0.4035 -159.8   3.146   74.0  0.1033   29.2  0.5933  -45.8
 1.820  0.4015 -161.1   3.118   73.4  0.1036   29.0  0.5913  -46.1
 1.840  0.3997 -162.4   3.091   72.8  0.1040   28.7  0.5893  -46.3
 1.860  0.3982 -163.7   3.064   72.1  0.1043   28.5  0.5873  -46.6
 1.880  0.3968 -165.1   3.038   71.5  0.1047   28.2  0.5853  -46.8
 1.900  0.3957 -166.4   3.012   70.8  0.1050   28.0  0.5833  -47.1
 1.920  0.3939 -167.8   2.983   70.2  0.1053   27.9  0.5814  -47.3
 1.940  0.3923 -169.2   2.954   69.6  0.1055   27.8  0.5794  -47.5
 1.960  0.3909 -170.6   2.925   68.9  0.1058   27.8  0.5775  -47.8
 1.980  0.3898 -172.0   2.897   68.3  0.1060   27.7  0.5756  -48.0
 2.000  0.3889 -173.4   2.869   67.6  0.1063   27.6  0.5737  -48.2
 2.020  0.3886 -174.6   2.844   67.0  0.1066   27.4  0.5721  -48.5
 2.040  0.3886 -175.8   2.819   66.5  0.1069   27.3  0.5704  -48.7
 2.060  0.3887 -177.1   2.795   65.9  0.1072   27.1  0.5688  -49.0
 2.080  0.3889 -178.3   2.770   65.3  0.1075   27.0  0.5672  -49.2
 2.100  0.3894 -179.5   2.747   64.7  0.1078   26.8  0.5657  -49.5
 2.120  0.3900  179.3   2.723   64.1  0.1082   26.7  0.5641  -49.7
 2.140  0.3908  178.1   2.700   63.4  0.1085   26.5  0.5625  -50.0
 2.160  0.3918  176.9   2.677   62.8  0.1088   26.4  0.5610  -50.3
 2.180  0.3929  175.7   2.654   62.2  0.1091   26.2  0.5594  -50.5
 2.200  0.3942  174.5   2.632   61.5  0.1094   26.1  0.5579  -50.8
 2.220  0.3940  173.3   2.612   61.0  0.1096   26.0  0.5564  -51.1
 2.240  0.3940  172.1   2.593   60.4  0.1099   25.9  0.5549  -51.3
 2.260  0.3941  170.9   2.573   59.9  0.1101   25.8  0.5533  -51.6
 2.280  0.3944  169.7   2.554   59.4  0.1104   25.7  0.5518  -51.8
 2.300  0.3949  168.5   2.535   58.8  0.1106   25.6  0.5504  -52.1
 2.320  0.3956  167.3   2.516   58.2  0.1108   25.5  0.5489  -52.3
 2.340  0.3964  166.1   2.498   57.7  0.1111   25.4  0.5474  -52.6
 2.360  0.3974  164.9   2.480   57.1  0.1113   25.3  0.5460  -52.9
 2.380  0.3986  163.8   2.462   56.5  0.1116   25.2  0.5445  -53.1
 2.400  0.3999  162.6   2.444   55.9  0.1118   25.1  0.5431  -53.4
 2.420  0.4008  161.6   2.425   55.4  0.1121   25.0  0.5416  -53.7
 2.440  0.4018  160.6   2.406   54.9  0.1123   25.0  0.5401  -53.9
 2.460  0.4030  159.7   2.387   54.4  0.1126   24.9  0.5386  -54.2
 2.480  0.4042  158.7   2.368   53.9  0.1129   24.8  0.5371  -54.5
 2.500  0.4056  157.7   2.349   53.4  0.1131   24.7  0.5356  -54.7
 2.520  0.4071  156.8   2.331   52.8  0.1134   24.7  0.5341  -55.0
 2.540  0.4087  155.8   2.313   52.3  0.1137   24.6  0.5327  -55.3
 2.560  0.4104  154.9   2.295   51.7  0.1140   24.5  0.5312  -55.5
 2.580  0.4122  153.9   2.277   51.2  0.1142   24.5  0.5298  -55.8
 2.600  0.4141  153.0   2.260   50.6  0.1145   24.4  0.5284  -56.1
 2.620  0.4151  152.0   2.244   50.1  0.1148   24.3  0.5274  -56.4
 2.640  0.4162  151.0   2.228   49.5  0.1151   24.2  0.5263  -56.7
 2.660  0.4174  150.1   2.213   49.0  0.1154   24.1  0.5253  -56.9
 2.680  0.4188  149.1   2.197   48.4  0.1157   24.0  0.5243  -57.2
 2.700  0.4203  148.1   2.182   47.8  0.1160   23.9  0.5233  -57.5
 2.720  0.4219  147.2   2.167   47.3  0.1163   23.8  0.5223  -57.8
 2.740  0.4236  146.2   2.153   46.7  0.1166   23.7  0.5213  -58.0
 2.760  0.4254  145.3   2.138   46.1  0.1169   23.6  0.5204  -58.3
 2.780  0.4273  144.3   2.124   45.5  0.1172   23.5  0.5194  -58.6
 2.800  0.4294  143.4   2.110   44.9  0.1175   23.4  0.5185  -58.9
 2.820  0.4307  142.5   2.096   44.4  0.1177   23.3  0.5172  -59.2
 2.840  0.4322  141.7   2.083   44.0  0.1180   23.2  0.5160  -59.5
 2.860  0.4337  140.8   2.069   43.5  0.1182   23.1  0.5147  -59.8
 2.880  0.4353  140.0   2.056   43.0  0.1185   23.0  0.5135  -60.0
 2.900  0.4371  139.2   2.043   42.5  0.1187   22.9  0.5123  -60.3
 2.920  0.4389  138.3   2.030   42.0  0.1189   22.8  0.5111  -60.6
 2.940  0.4408  137.5   2.017   41.5  0.1192   22.7  0.5099  -60.9
 2.960  0.4428  136.7   2.004   41.0  0.1194   22.6  0.5087  -61.2
 2.980  0.4448  135.9   1.991   40.4  0.1197   22.5  0.5076  -61.5
 3.000  0.4470  135.1   1.979   39.9  0.1199   22.4  0.5064  -61.8
 3.100  0.4537  131.4   1.915   37.8  0.1215   22.0  0.5023  -63.4
 3.200  0.4623  127.7   1.853   35.6  0.1231   21.6  0.4986  -65.0
 3.300  0.4727  124.3   1.794   33.2  0.1247   21.2  0.4952  -66.6
 3.400  0.4847  120.9   1.739   30.7  0.1263   20.9  0.4923  -68.2
 3.500  0.4983  117.8   1.687   28.0  0.1279   20.5  0.4898  -69.9
 3.600  0.5060  115.0   1.639   26.0  0.1293   20.1  0.4854  -71.7
 3.700  0.5149  112.3   1.593   24.0  0.1308   19.8  0.4815  -73.6
 3.800  0.5249  109.8   1.549   21.8  0.1322   19.5  0.4782  -75.5
 3.900  0.5359  107.3   1.508   19.4  0.1337   19.1  0.4753  -77.4
 4.000  0.5479  104.9   1.469   17.0  0.1351   18.8  0.4730  -79.3
 4.100  0.5553  102.8   1.429   15.2  0.1366   18.4  0.4699  -81.3
 4.200  0.5635  100.7   1.391   13.3  0.1381   18.0  0.4674  -83.4
 4.300  0.5724   98.7   1.355   11.3  0.1396   17.6  0.4655  -85.4
 4.400  0.5820   96.7   1.320    9.1  0.1411   17.2  0.4642  -87.5
 4.500  0.5922   94.8   1.287    6.9  0.1426   16.8  0.4635  -89.6
 4.600  0.5986   93.2   1.255    5.3  0.1441   16.5  0.4611  -91.7
 4.700  0.6054   91.6   1.224    3.6  0.1455   16.3  0.4594  -93.8
 4.800  0.6128   90.0   1.194    1.8  0.1470   16.0  0.4583  -95.9
 4.900  0.6205   88.5   1.165   -0.1  0.1484   15.7  0.4578  -98.0
 5.000  0.6287   87.0   1.138   -2.1  0.1499   15.5  0.4579 -100.1
 5.100  0.6335   85.6   1.112   -3.7  0.1522   15.2  0.4576 -102.3
 5.200  0.6387   84.3   1.088   -5.3  0.1546   14.9  0.4579 -104.5
 5.300  0.6443   82.9   1.064   -7.0  0.1569   14.6  0.4590 -106.7
 5.400  0.6502   81.6   1.041   -8.8  0.1593   14.3  0.4607 -108.8
 5.500  0.6564   80.3   1.019  -10.7  0.1616   14.0  0.4630 -111.0
 5.600  0.6626   79.0   0.997  -12.2  0.1637   13.5  0.4639 -113.2
 5.700  0.6691   77.8   0.976  -13.7  0.1658   13.0  0.4656 -115.5
 5.800  0.6759   76.6   0.956  -15.4  0.1679   12.5  0.4680 -117.7
 5.900  0.6830   75.4   0.937  -17.0  0.1701   12.0  0.4710 -119.9
 6.000  0.6904   74.2   0.918  -18.8  0.1722   11.5  0.4747 -122.0
!
!  f       NFmin   Gammaopt  rn/50
! GHz       dB    MAG  ANG    -
!
! noise parameter not available yet for this operation point!
!
! (c) 2016  Infineon Technologies AG, Munich
