! Infineon Technologies  Discrete & RF Semiconductors
! BFP181
! VCE = 2.0 V,  IC =  10 mA
! Common Emitter S-Parameters:                            Jan 2016
# GHz  S  MA  R  50
!  f         S11            S21            S12            S22
! GHz     MAG   ANG      MAG   ANG      MAG   ANG      MAG   ANG
 0.010  0.7231   -3.4  20.643  177.7  0.0014   80.1  0.9706   -1.0
 0.015  0.7251   -5.2  20.676  176.7  0.0021   82.8  0.9690   -1.6
 0.020  0.7279   -7.0  20.716  175.7  0.0028   84.2  0.9675   -2.3
 0.025  0.7249   -8.6  20.647  174.5  0.0035   83.9  0.9662   -2.9
 0.030  0.7225  -10.1  20.587  173.4  0.0041   83.7  0.9650   -3.5
 0.035  0.7206  -11.7  20.536  172.2  0.0048   83.5  0.9639   -4.1
 0.040  0.7192  -13.3  20.493  171.0  0.0055   83.4  0.9630   -4.8
 0.045  0.7184  -14.9  20.459  169.8  0.0061   83.3  0.9621   -5.4
 0.050  0.7182  -16.5  20.434  168.6  0.0068   83.2  0.9614   -6.0
 0.055  0.7122  -18.1  20.293  167.6  0.0074   81.6  0.9579   -6.5
 0.060  0.7068  -19.7  20.158  166.6  0.0079   80.3  0.9546   -7.1
 0.065  0.7019  -21.3  20.030  165.5  0.0085   79.1  0.9513   -7.6
 0.070  0.6976  -22.9  19.909  164.5  0.0091   78.1  0.9481   -8.2
 0.075  0.6938  -24.5  19.794  163.4  0.0097   77.2  0.9450   -8.7
 0.080  0.6906  -26.2  19.686  162.3  0.0103   76.4  0.9419   -9.3
 0.085  0.6880  -27.9  19.586  161.2  0.0108   75.7  0.9390   -9.8
 0.090  0.6861  -29.6  19.492  160.1  0.0114   75.1  0.9361  -10.4
 0.095  0.6847  -31.3  19.406  159.0  0.0120   74.5  0.9334  -10.9
 0.100  0.6839  -33.0  19.327  157.9  0.0126   74.0  0.9307  -11.5
 0.105  0.6790  -34.4  19.186  157.0  0.0132   73.0  0.9258  -11.9
 0.110  0.6745  -35.8  19.050  156.0  0.0138   72.1  0.9209  -12.4
 0.115  0.6705  -37.2  18.919  155.1  0.0143   71.3  0.9161  -12.8
 0.120  0.6668  -38.6  18.794  154.1  0.0149   70.5  0.9114  -13.3
 0.125  0.6636  -40.1  18.674  153.1  0.0155   69.8  0.9067  -13.7
 0.130  0.6607  -41.5  18.560  152.1  0.0161   69.2  0.9020  -14.2
 0.135  0.6584  -43.0  18.451  151.1  0.0167   68.6  0.8975  -14.7
 0.140  0.6564  -44.5  18.349  150.1  0.0173   68.0  0.8929  -15.1
 0.145  0.6549  -46.0  18.252  149.0  0.0179   67.5  0.8885  -15.6
 0.150  0.6539  -47.5  18.161  148.0  0.0185   67.0  0.8841  -16.1
 0.155  0.6483  -48.8  18.009  147.2  0.0189   66.5  0.8792  -16.4
 0.160  0.6431  -50.2  17.861  146.4  0.0194   66.1  0.8743  -16.8
 0.165  0.6383  -51.5  17.716  145.6  0.0198   65.7  0.8695  -17.1
 0.170  0.6338  -52.9  17.575  144.8  0.0202   65.3  0.8647  -17.5
 0.175  0.6297  -54.3  17.438  143.9  0.0206   64.9  0.8599  -17.8
 0.180  0.6260  -55.8  17.305  143.1  0.0211   64.5  0.8552  -18.2
 0.185  0.6227  -57.2  17.175  142.2  0.0215   64.2  0.8505  -18.5
 0.190  0.6197  -58.7  17.050  141.3  0.0219   63.8  0.8458  -18.9
 0.195  0.6172  -60.1  16.928  140.4  0.0224   63.5  0.8412  -19.2
 0.200  0.6151  -61.6  16.811  139.5  0.0228   63.2  0.8366  -19.6
 0.220  0.5977  -66.3  16.172  136.6  0.0241   61.4  0.8172  -20.7
 0.240  0.5845  -71.2  15.576  133.5  0.0255   59.8  0.7982  -21.8
 0.260  0.5711  -75.8  15.030  130.8  0.0268   58.3  0.7802  -22.7
 0.280  0.5567  -80.2  14.514  128.5  0.0279   57.0  0.7630  -23.5
 0.300  0.5458  -84.8  14.024  126.0  0.0290   55.8  0.7459  -24.2
 0.320  0.5315  -88.2  13.540  124.2  0.0299   54.9  0.7323  -24.6
 0.340  0.5191  -91.7  13.070  122.2  0.0308   54.1  0.7188  -25.1
 0.360  0.5088  -95.4  12.616  120.1  0.0317   53.3  0.7053  -25.5
 0.380  0.5007  -99.2  12.181  117.9  0.0326   52.5  0.6918  -26.0
 0.400  0.4948 -103.1  11.765  115.5  0.0335   51.8  0.6784  -26.5
 0.420  0.4847 -106.0  11.382  114.1  0.0343   51.2  0.6688  -26.7
 0.440  0.4760 -109.0  11.007  112.6  0.0350   50.6  0.6593  -26.9
 0.450  0.4721 -110.5  10.822  111.8  0.0354   50.3  0.6545  -27.0
 0.460  0.4686 -112.1  10.640  111.0  0.0358   50.0  0.6498  -27.1
 0.480  0.4626 -115.3  10.281  109.3  0.0365   49.5  0.6402  -27.4
 0.500  0.4581 -118.6   9.932  107.5  0.0373   49.0  0.6307  -27.6
 0.520  0.4514 -121.1   9.664  106.4  0.0379   48.9  0.6236  -27.7
 0.540  0.4455 -123.7   9.400  105.2  0.0385   48.7  0.6165  -27.9
 0.560  0.4406 -126.3   9.140  103.9  0.0390   48.6  0.6094  -28.0
 0.580  0.4366 -129.0   8.886  102.5  0.0396   48.4  0.6024  -28.2
 0.600  0.4336 -131.7   8.636  101.1  0.0402   48.3  0.5953  -28.3
 0.620  0.4297 -133.8   8.407  100.2  0.0408   48.3  0.5905  -28.4
 0.640  0.4265 -135.9   8.180   99.2  0.0413   48.3  0.5857  -28.5
 0.660  0.4237 -138.0   7.956   98.1  0.0419   48.4  0.5810  -28.6
 0.680  0.4216 -140.1   7.735   97.0  0.0424   48.4  0.5762  -28.7
 0.700  0.4201 -142.3   7.517   95.8  0.0430   48.4  0.5714  -28.8
 0.720  0.4172 -144.1   7.358   94.9  0.0435   48.4  0.5679  -28.9
 0.740  0.4147 -146.0   7.200   94.0  0.0440   48.3  0.5644  -29.0
 0.760  0.4126 -147.8   7.044   93.1  0.0444   48.3  0.5608  -29.0
 0.780  0.4110 -149.7   6.891   92.1  0.0449   48.2  0.5573  -29.1
 0.800  0.4098 -151.6   6.739   91.1  0.0454   48.2  0.5538  -29.2
 0.820  0.4076 -153.2   6.602   90.4  0.0461   48.2  0.5511  -29.3
 0.840  0.4057 -154.8   6.466   89.6  0.0468   48.2  0.5485  -29.5
 0.860  0.4040 -156.4   6.332   88.9  0.0476   48.1  0.5458  -29.6
 0.880  0.4028 -158.0   6.198   88.0  0.0483   48.1  0.5432  -29.8
 0.900  0.4018 -159.6   6.066   87.2  0.0490   48.1  0.5405  -29.9
 0.920  0.4014 -161.2   5.948   86.5  0.0494   48.1  0.5384  -30.0
 0.940  0.4014 -162.8   5.831   85.7  0.0498   48.1  0.5362  -30.1
 0.960  0.4017 -164.3   5.715   84.9  0.0502   48.0  0.5341  -30.3
 0.980  0.4022 -165.9   5.600   84.1  0.0506   48.0  0.5319  -30.4
 1.000  0.4031 -167.5   5.487   83.2  0.0510   48.0  0.5298  -30.5
 1.020  0.4019 -168.9   5.396   82.5  0.0516   48.1  0.5281  -30.6
 1.040  0.4010 -170.4   5.305   81.8  0.0523   48.2  0.5264  -30.8
 1.060  0.4003 -171.8   5.216   81.1  0.0529   48.3  0.5248  -30.9
 1.080  0.3999 -173.3   5.127   80.4  0.0536   48.4  0.5231  -31.1
 1.100  0.3997 -174.7   5.039   79.6  0.0542   48.5  0.5214  -31.2
 1.120  0.3997 -175.9   4.954   79.0  0.0548   48.5  0.5202  -31.4
 1.140  0.4000 -177.2   4.870   78.4  0.0554   48.5  0.5190  -31.6
 1.160  0.4004 -178.4   4.786   77.8  0.0560   48.4  0.5178  -31.8
 1.180  0.4010 -179.7   4.703   77.2  0.0566   48.4  0.5167  -32.0
 1.200  0.4018  179.1   4.620   76.5  0.0572   48.4  0.5155  -32.2
 1.220  0.4019  178.0   4.549   75.9  0.0577   48.5  0.5144  -32.4
 1.240  0.4022  176.9   4.479   75.3  0.0582   48.5  0.5132  -32.6
 1.260  0.4026  175.9   4.409   74.7  0.0587   48.6  0.5121  -32.7
 1.280  0.4031  174.8   4.340   74.1  0.0592   48.6  0.5110  -32.9
 1.300  0.4038  173.7   4.271   73.4  0.0597   48.7  0.5099  -33.1
 1.320  0.4034  172.5   4.214   72.9  0.0603   48.8  0.5088  -33.3
 1.340  0.4031  171.3   4.158   72.3  0.0609   48.9  0.5078  -33.5
 1.360  0.4031  170.1   4.102   71.7  0.0616   48.9  0.5068  -33.7
 1.380  0.4032  168.9   4.047   71.1  0.0622   49.0  0.5057  -33.9
 1.400  0.4035  167.7   3.992   70.5  0.0628   49.1  0.5047  -34.1
 1.420  0.4044  166.8   3.940   69.9  0.0634   49.0  0.5040  -34.3
 1.440  0.4055  165.9   3.889   69.3  0.0640   49.0  0.5033  -34.5
 1.460  0.4066  165.0   3.838   68.6  0.0647   48.9  0.5026  -34.7
 1.480  0.4079  164.1   3.787   68.0  0.0653   48.9  0.5020  -34.9
 1.500  0.4092  163.2   3.737   67.3  0.0659   48.8  0.5013  -35.1
 1.520  0.4101  162.2   3.691   66.8  0.0665   48.7  0.5004  -35.3
 1.540  0.4111  161.3   3.646   66.3  0.0671   48.7  0.4996  -35.6
 1.560  0.4123  160.3   3.601   65.8  0.0676   48.6  0.4988  -35.8
 1.580  0.4135  159.3   3.556   65.2  0.0682   48.6  0.4979  -36.1
 1.600  0.4149  158.4   3.512   64.7  0.0688   48.5  0.4971  -36.3
 1.620  0.4157  157.5   3.470   64.1  0.0695   48.5  0.4965  -36.6
 1.640  0.4166  156.5   3.429   63.6  0.0702   48.5  0.4958  -36.9
 1.660  0.4176  155.6   3.388   63.0  0.0708   48.5  0.4952  -37.1
 1.680  0.4188  154.7   3.347   62.4  0.0715   48.5  0.4946  -37.4
 1.700  0.4200  153.8   3.307   61.8  0.0722   48.5  0.4940  -37.7
 1.720  0.4219  153.0   3.270   61.3  0.0728   48.5  0.4931  -38.0
 1.740  0.4239  152.2   3.234   60.8  0.0733   48.4  0.4922  -38.2
 1.760  0.4260  151.4   3.198   60.2  0.0739   48.4  0.4913  -38.5
 1.780  0.4282  150.6   3.162   59.7  0.0744   48.3  0.4905  -38.7
 1.800  0.4304  149.8   3.126   59.1  0.0750   48.3  0.4896  -39.0
 1.820  0.4312  149.1   3.093   58.6  0.0757   48.2  0.4890  -39.3
 1.840  0.4321  148.3   3.060   58.1  0.0764   48.1  0.4884  -39.5
 1.860  0.4331  147.6   3.027   57.6  0.0770   47.9  0.4878  -39.8
 1.880  0.4341  146.8   2.994   57.1  0.0777   47.8  0.4872  -40.0
 1.900  0.4352  146.1   2.962   56.6  0.0784   47.7  0.4866  -40.3
 1.920  0.4361  145.4   2.929   56.1  0.0790   47.6  0.4860  -40.6
 1.940  0.4371  144.6   2.897   55.6  0.0796   47.6  0.4854  -40.9
 1.960  0.4381  143.9   2.865   55.1  0.0801   47.5  0.4848  -41.1
 1.980  0.4392  143.1   2.833   54.6  0.0807   47.5  0.4842  -41.4
 2.000  0.4404  142.4   2.801   54.1  0.0813   47.4  0.4836  -41.7
 2.020  0.4417  141.7   2.776   53.6  0.0819   47.3  0.4829  -42.0
 2.040  0.4431  140.9   2.751   53.2  0.0825   47.2  0.4822  -42.3
 2.060  0.4446  140.2   2.726   52.7  0.0831   47.1  0.4816  -42.6
 2.080  0.4461  139.5   2.701   52.2  0.0837   47.1  0.4809  -42.9
 2.100  0.4477  138.8   2.677   51.7  0.0843   47.0  0.4803  -43.2
 2.120  0.4494  138.1   2.653   51.2  0.0850   46.9  0.4797  -43.5
 2.140  0.4512  137.4   2.629   50.7  0.0856   46.8  0.4791  -43.8
 2.160  0.4530  136.7   2.605   50.2  0.0862   46.8  0.4785  -44.1
 2.180  0.4549  136.0   2.581   49.6  0.0868   46.7  0.4779  -44.4
 2.200  0.4568  135.3   2.558   49.1  0.0874   46.6  0.4773  -44.7
 2.220  0.4581  134.6   2.536   48.7  0.0880   46.5  0.4767  -45.0
 2.240  0.4596  133.9   2.514   48.2  0.0887   46.4  0.4761  -45.3
 2.260  0.4610  133.2   2.492   47.8  0.0893   46.3  0.4755  -45.6
 2.280  0.4626  132.5   2.471   47.4  0.0899   46.2  0.4749  -45.9
 2.300  0.4642  131.8   2.449   46.9  0.0905   46.1  0.4743  -46.2
 2.320  0.4659  131.2   2.428   46.4  0.0912   46.0  0.4738  -46.6
 2.340  0.4676  130.5   2.407   46.0  0.0918   46.0  0.4732  -46.9
 2.360  0.4694  129.8   2.386   45.5  0.0924   45.9  0.4727  -47.2
 2.380  0.4713  129.2   2.365   45.0  0.0931   45.8  0.4722  -47.5
 2.400  0.4732  128.5   2.344   44.5  0.0937   45.7  0.4717  -47.8
 2.420  0.4751  127.9   2.325   44.1  0.0943   45.6  0.4708  -48.1
 2.440  0.4770  127.4   2.306   43.7  0.0948   45.5  0.4700  -48.5
 2.460  0.4790  126.8   2.287   43.2  0.0954   45.4  0.4691  -48.8
 2.480  0.4810  126.3   2.268   42.8  0.0960   45.2  0.4683  -49.1
 2.500  0.4830  125.7   2.249   42.3  0.0965   45.1  0.4675  -49.4
 2.520  0.4851  125.2   2.231   41.9  0.0971   45.0  0.4667  -49.8
 2.540  0.4872  124.7   2.212   41.4  0.0977   44.9  0.4659  -50.1
 2.560  0.4894  124.1   2.194   41.0  0.0983   44.8  0.4651  -50.4
 2.580  0.4916  123.6   2.176   40.5  0.0988   44.7  0.4643  -50.8
 2.600  0.4939  123.1   2.158   40.0  0.0994   44.6  0.4636  -51.1
 2.620  0.4957  122.6   2.141   39.5  0.1000   44.5  0.4630  -51.5
 2.640  0.4975  122.0   2.125   39.1  0.1006   44.3  0.4624  -51.8
 2.660  0.4994  121.5   2.108   38.6  0.1012   44.2  0.4619  -52.2
 2.680  0.5013  120.9   2.092   38.1  0.1018   44.1  0.4613  -52.5
 2.700  0.5033  120.4   2.076   37.6  0.1023   43.9  0.4608  -52.9
 2.720  0.5053  119.9   2.060   37.2  0.1029   43.8  0.4603  -53.3
 2.740  0.5073  119.3   2.044   36.7  0.1035   43.7  0.4598  -53.6
 2.760  0.5094  118.8   2.028   36.1  0.1041   43.5  0.4594  -54.0
 2.780  0.5115  118.3   2.012   35.6  0.1047   43.4  0.4589  -54.3
 2.800  0.5137  117.8   1.997   35.1  0.1053   43.3  0.4585  -54.7
 2.820  0.5151  117.3   1.984   34.7  0.1059   43.2  0.4576  -55.0
 2.840  0.5165  116.7   1.970   34.3  0.1065   43.1  0.4568  -55.4
 2.860  0.5179  116.2   1.957   33.9  0.1071   43.0  0.4559  -55.7
 2.880  0.5194  115.6   1.944   33.5  0.1077   42.8  0.4551  -56.0
 2.900  0.5210  115.1   1.931   33.1  0.1082   42.7  0.4543  -56.4
 2.920  0.5226  114.6   1.918   32.6  0.1088   42.6  0.4535  -56.7
 2.940  0.5242  114.1   1.905   32.2  0.1094   42.5  0.4527  -57.1
 2.960  0.5259  113.5   1.892   31.8  0.1100   42.4  0.4520  -57.4
 2.980  0.5276  113.0   1.880   31.3  0.1106   42.3  0.4512  -57.8
 3.000  0.5294  112.5   1.867   30.9  0.1112   42.2  0.4505  -58.1
 3.100  0.5371  110.2   1.806   29.0  0.1140   41.5  0.4467  -60.0
 3.200  0.5457  107.9   1.747   27.1  0.1169   40.8  0.4434  -62.0
 3.300  0.5552  105.7   1.691   25.0  0.1197   40.2  0.4407  -64.0
 3.400  0.5654  103.6   1.636   22.7  0.1226   39.6  0.4385  -66.0
 3.500  0.5763  101.6   1.585   20.3  0.1255   39.0  0.4368  -68.0
 3.600  0.5841   99.8   1.539   18.6  0.1283   38.2  0.4330  -70.1
 3.700  0.5924   98.0   1.494   16.8  0.1311   37.4  0.4299  -72.3
 3.800  0.6013   96.3   1.450   14.8  0.1340   36.6  0.4274  -74.5
 3.900  0.6108   94.6   1.409   12.8  0.1369   35.9  0.4255  -76.7
 4.000  0.6207   93.0   1.369   10.6  0.1398   35.2  0.4242  -78.9
 4.100  0.6266   91.4   1.331    8.9  0.1423   34.4  0.4210  -81.2
 4.200  0.6330   89.9   1.295    7.1  0.1449   33.6  0.4185  -83.5
 4.300  0.6398   88.4   1.260    5.3  0.1475   32.8  0.4167  -85.8
 4.400  0.6470   86.9   1.226    3.3  0.1501   32.0  0.4156  -88.1
 4.500  0.6547   85.5   1.194    1.2  0.1528   31.3  0.4152  -90.5
 4.600  0.6600   84.2   1.165   -0.2  0.1553   30.6  0.4130  -92.8
 4.700  0.6657   82.9   1.137   -1.8  0.1579   29.9  0.4115  -95.2
 4.800  0.6716   81.6   1.110   -3.4  0.1605   29.3  0.4107  -97.6
 4.900  0.6780   80.3   1.083   -5.0  0.1631   28.6  0.4106  -99.9
 5.000  0.6846   79.1   1.058   -6.8  0.1657   28.0  0.4112 -102.3
 5.100  0.6883   78.0   1.034   -8.3  0.1686   27.2  0.4116 -104.7
 5.200  0.6922   76.9   1.010   -9.9  0.1715   26.4  0.4126 -107.2
 5.300  0.6964   75.8   0.987  -11.5  0.1745   25.6  0.4145 -109.6
 5.400  0.7008   74.8   0.965  -13.2  0.1775   24.9  0.4170 -112.0
 5.500  0.7055   73.7   0.944  -15.0  0.1805   24.2  0.4203 -114.3
 5.600  0.7105   72.6   0.924  -16.4  0.1831   23.3  0.4217 -116.7
 5.700  0.7157   71.6   0.905  -17.8  0.1858   22.5  0.4239 -119.2
 5.800  0.7211   70.6   0.886  -19.3  0.1885   21.7  0.4268 -121.5
 5.900  0.7268   69.6   0.868  -20.9  0.1913   20.9  0.4304 -123.9
 6.000  0.7327   68.6   0.850  -22.5  0.1941   20.1  0.4348 -126.2
!
!  f       NFmin   Gammaopt  rn/50
! GHz       dB    MAG  ANG    -
!
! noise parameter not available yet for this operation point!
!
! (c) 2016  Infineon Technologies AG, Munich
