! Infineon Technologies  Discrete & RF Semiconductors
! BFP183W
! VCE = 3.0 V,  IC =  30 mA
! Common Emitter S-Parameters:                            Jan 2016
# GHz  S  MA  R  50
!  f         S11            S21            S12            S22
! GHz     MAG   ANG      MAG   ANG      MAG   ANG      MAG   ANG
 0.010  0.3610  -12.9  46.080  174.3  0.0018   85.1  0.9437   -3.8
 0.015  0.3598  -19.2  45.878  172.4  0.0028   81.5  0.9373   -5.9
 0.020  0.3629  -25.4  45.730  170.4  0.0039   79.8  0.9323   -8.1
 0.025  0.3667  -31.4  45.430  168.1  0.0046   80.5  0.9260  -10.1
 0.030  0.3745  -37.3  45.206  165.7  0.0054   81.0  0.9209  -12.2
 0.035  0.3763  -43.0  44.535  163.5  0.0062   77.8  0.9090  -14.0
 0.040  0.3817  -48.5  43.930  161.3  0.0070   75.4  0.8981  -15.9
 0.045  0.3906  -53.8  43.392  159.0  0.0079   73.5  0.8882  -17.8
 0.050  0.4027  -58.9  42.925  156.7  0.0087   71.9  0.8793  -19.8
 0.055  0.4019  -63.1  42.071  155.2  0.0092   70.1  0.8632  -21.0
 0.060  0.4032  -67.2  41.246  153.7  0.0098   68.6  0.8474  -22.3
 0.065  0.4067  -71.4  40.452  152.1  0.0104   67.2  0.8321  -23.6
 0.070  0.4122  -75.4  39.692  150.4  0.0109   65.9  0.8173  -25.0
 0.075  0.4196  -79.3  38.967  148.6  0.0115   64.8  0.8030  -26.4
 0.080  0.4290  -83.0  38.279  146.8  0.0121   63.8  0.7891  -27.9
 0.085  0.4401  -86.6  37.631  145.0  0.0126   62.8  0.7759  -29.4
 0.090  0.4529  -90.0  37.024  143.0  0.0132   62.0  0.7631  -31.0
 0.095  0.4671  -93.2  36.460  141.1  0.0138   61.2  0.7510  -32.6
 0.100  0.4827  -96.2  35.941  139.0  0.0144   60.5  0.7395  -34.3
 0.105  0.4840  -98.6  35.209  137.9  0.0148   59.5  0.7259  -35.1
 0.110  0.4862 -101.0  34.490  136.8  0.0151   58.5  0.7125  -35.9
 0.115  0.4892 -103.4  33.784  135.7  0.0155   57.6  0.6992  -36.8
 0.120  0.4931 -105.8  33.092  134.5  0.0158   56.7  0.6860  -37.6
 0.125  0.4978 -108.1  32.416  133.2  0.0162   55.9  0.6730  -38.6
 0.130  0.5033 -110.3  31.756  131.9  0.0166   55.1  0.6603  -39.5
 0.135  0.5095 -112.5  31.113  130.5  0.0170   54.3  0.6477  -40.5
 0.140  0.5165 -114.7  30.488  129.1  0.0173   53.6  0.6353  -41.5
 0.145  0.5241 -116.8  29.883  127.6  0.0177   52.9  0.6231  -42.6
 0.150  0.5325 -118.8  29.299  126.1  0.0181   52.2  0.6111  -43.7
 0.155  0.5340 -120.3  28.756  125.4  0.0183   51.9  0.6011  -44.1
 0.160  0.5359 -121.8  28.217  124.6  0.0186   51.6  0.5911  -44.6
 0.165  0.5381 -123.2  27.683  123.9  0.0188   51.3  0.5812  -45.1
 0.170  0.5406 -124.7  27.154  123.1  0.0190   51.0  0.5713  -45.6
 0.175  0.5436 -126.1  26.632  122.2  0.0192   50.7  0.5615  -46.1
 0.180  0.5468 -127.5  26.114  121.3  0.0195   50.4  0.5517  -46.6
 0.185  0.5504 -128.9  25.604  120.4  0.0197   50.2  0.5419  -47.1
 0.190  0.5543 -130.3  25.100  119.5  0.0199   49.9  0.5322  -47.7
 0.195  0.5585 -131.7  24.603  118.5  0.0202   49.7  0.5226  -48.3
 0.200  0.5630 -133.0  24.113  117.5  0.0204   49.4  0.5130  -48.9
 0.220  0.5696 -137.0  22.584  115.3  0.0212   48.8  0.4842  -50.1
 0.240  0.5788 -140.8  21.094  112.8  0.0221   48.3  0.4557  -51.5
 0.260  0.5859 -144.2  19.766  110.6  0.0228   48.1  0.4310  -52.6
 0.280  0.5902 -147.1  18.581  108.7  0.0235   48.0  0.4098  -53.3
 0.300  0.5960 -150.0  17.418  106.6  0.0241   47.9  0.3886  -54.1
 0.320  0.5968 -152.0  16.622  105.5  0.0246   48.1  0.3750  -54.4
 0.340  0.5983 -154.0  15.833  104.2  0.0251   48.2  0.3614  -54.7
 0.360  0.6006 -156.0  15.052  102.8  0.0256   48.4  0.3479  -55.1
 0.380  0.6035 -158.0  14.282  101.3  0.0261   48.6  0.3343  -55.5
 0.400  0.6072 -159.9  13.522   99.6  0.0266   48.7  0.3208  -55.9
 0.420  0.6085 -161.3  13.012   98.7  0.0272   49.2  0.3124  -56.0
 0.440  0.6101 -162.6  12.505   97.8  0.0278   49.6  0.3040  -56.1
 0.450  0.6111 -163.3  12.253   97.3  0.0281   49.8  0.2998  -56.1
 0.460  0.6121 -164.0  12.001   96.7  0.0285   50.0  0.2957  -56.2
 0.480  0.6144 -165.4  11.502   95.6  0.0291   50.4  0.2873  -56.3
 0.500  0.6171 -166.7  11.008   94.4  0.0297   50.8  0.2789  -56.4
 0.520  0.6177 -167.7  10.652   93.7  0.0303   51.3  0.2738  -56.4
 0.540  0.6184 -168.6  10.297   93.0  0.0309   51.7  0.2687  -56.4
 0.560  0.6193 -169.6   9.944   92.2  0.0316   52.1  0.2636  -56.5
 0.580  0.6204 -170.5   9.593   91.3  0.0322   52.5  0.2585  -56.5
 0.600  0.6217 -171.5   9.245   90.4  0.0328   52.9  0.2534  -56.5
 0.620  0.6226 -172.4   8.997   89.8  0.0335   53.2  0.2499  -56.6
 0.640  0.6237 -173.4   8.750   89.2  0.0342   53.5  0.2465  -56.7
 0.660  0.6249 -174.3   8.505   88.5  0.0348   53.8  0.2430  -56.7
 0.680  0.6263 -175.2   8.260   87.8  0.0355   54.0  0.2396  -56.8
 0.700  0.6279 -176.1   8.017   87.0  0.0362   54.3  0.2361  -56.9
 0.720  0.6277 -176.8   7.815   86.4  0.0368   54.7  0.2338  -57.0
 0.740  0.6276 -177.5   7.614   85.9  0.0374   55.1  0.2314  -57.1
 0.760  0.6276 -178.1   7.414   85.2  0.0379   55.5  0.2291  -57.1
 0.780  0.6277 -178.8   7.214   84.6  0.0385   55.8  0.2267  -57.2
 0.800  0.6279 -179.5   7.016   83.9  0.0391   56.2  0.2244  -57.3
 0.820  0.6282  179.9   6.863   83.4  0.0398   56.4  0.2226  -57.4
 0.840  0.6286  179.3   6.711   82.9  0.0405   56.5  0.2208  -57.5
 0.860  0.6290  178.7   6.560   82.3  0.0412   56.7  0.2191  -57.7
 0.880  0.6295  178.1   6.409   81.7  0.0419   56.9  0.2173  -57.8
 0.900  0.6301  177.5   6.259   81.1  0.0426   57.0  0.2155  -57.9
 0.920  0.6298  177.0   6.133   80.6  0.0432   57.2  0.2145  -58.1
 0.940  0.6295  176.4   6.008   80.2  0.0439   57.5  0.2136  -58.2
 0.960  0.6293  175.9   5.883   79.7  0.0445   57.7  0.2126  -58.4
 0.980  0.6291  175.3   5.758   79.1  0.0452   57.9  0.2117  -58.5
 1.000  0.6290  174.8   5.634   78.6  0.0458   58.1  0.2107  -58.7
 1.020  0.6298  174.3   5.537   78.1  0.0465   58.2  0.2100  -58.9
 1.040  0.6307  173.8   5.440   77.7  0.0472   58.4  0.2093  -59.1
 1.060  0.6317  173.2   5.344   77.2  0.0480   58.5  0.2085  -59.4
 1.080  0.6327  172.7   5.248   76.6  0.0487   58.6  0.2078  -59.6
 1.100  0.6337  172.2   5.152   76.1  0.0494   58.7  0.2071  -59.8
 1.120  0.6342  171.7   5.065   75.7  0.0502   58.8  0.2065  -60.0
 1.140  0.6347  171.2   4.978   75.2  0.0509   58.9  0.2059  -60.2
 1.160  0.6352  170.8   4.891   74.8  0.0517   58.9  0.2052  -60.5
 1.180  0.6359  170.3   4.805   74.3  0.0524   59.0  0.2046  -60.7
 1.200  0.6365  169.8   4.719   73.8  0.0532   59.1  0.2040  -60.9
 1.220  0.6366  169.3   4.648   73.3  0.0539   59.2  0.2037  -61.1
 1.240  0.6367  168.8   4.577   72.8  0.0546   59.3  0.2033  -61.4
 1.260  0.6368  168.3   4.506   72.3  0.0553   59.5  0.2030  -61.6
 1.280  0.6370  167.8   4.436   71.8  0.0560   59.6  0.2027  -61.9
 1.300  0.6373  167.3   4.366   71.3  0.0567   59.7  0.2024  -62.1
 1.320  0.6372  166.9   4.306   70.9  0.0574   59.7  0.2024  -62.4
 1.340  0.6371  166.5   4.245   70.5  0.0581   59.7  0.2023  -62.7
 1.360  0.6370  166.2   4.185   70.1  0.0588   59.8  0.2023  -62.9
 1.380  0.6370  165.8   4.126   69.6  0.0595   59.8  0.2023  -63.2
 1.400  0.6370  165.4   4.066   69.2  0.0602   59.8  0.2023  -63.5
 1.420  0.6376  165.0   4.013   68.8  0.0610   59.9  0.2022  -63.8
 1.440  0.6383  164.6   3.961   68.4  0.0618   59.9  0.2022  -64.1
 1.460  0.6389  164.2   3.908   68.0  0.0625   60.0  0.2022  -64.4
 1.480  0.6397  163.8   3.856   67.5  0.0633   60.0  0.2021  -64.7
 1.500  0.6404  163.4   3.804   67.1  0.0641   60.1  0.2021  -65.0
 1.520  0.6410  162.9   3.757   66.7  0.0648   60.1  0.2021  -65.3
 1.540  0.6416  162.5   3.711   66.2  0.0655   60.1  0.2021  -65.7
 1.560  0.6423  162.0   3.665   65.8  0.0661   60.1  0.2021  -66.0
 1.580  0.6430  161.6   3.619   65.3  0.0668   60.1  0.2022  -66.4
 1.600  0.6437  161.1   3.573   64.8  0.0675   60.1  0.2022  -66.7
 1.620  0.6438  160.7   3.532   64.4  0.0683   60.1  0.2022  -67.0
 1.640  0.6440  160.3   3.490   64.1  0.0690   60.1  0.2023  -67.3
 1.660  0.6442  160.0   3.449   63.7  0.0698   60.1  0.2024  -67.7
 1.680  0.6444  159.6   3.408   63.3  0.0705   60.1  0.2024  -68.0
 1.700  0.6447  159.2   3.367   62.9  0.0713   60.1  0.2025  -68.3
 1.720  0.6450  158.8   3.329   62.5  0.0721   60.1  0.2027  -68.6
 1.740  0.6453  158.4   3.291   62.1  0.0729   60.0  0.2030  -68.9
 1.760  0.6456  158.1   3.254   61.7  0.0736   60.0  0.2033  -69.3
 1.780  0.6459  157.7   3.216   61.2  0.0744   59.9  0.2035  -69.6
 1.800  0.6463  157.3   3.179   60.8  0.0752   59.9  0.2038  -69.9
 1.820  0.6461  156.9   3.145   60.4  0.0759   59.8  0.2041  -70.3
 1.840  0.6460  156.5   3.111   60.0  0.0766   59.8  0.2045  -70.6
 1.860  0.6458  156.0   3.078   59.6  0.0772   59.7  0.2048  -71.0
 1.880  0.6458  155.6   3.044   59.1  0.0779   59.7  0.2051  -71.3
 1.900  0.6457  155.2   3.011   58.7  0.0786   59.6  0.2055  -71.7
 1.920  0.6464  154.9   2.982   58.3  0.0793   59.6  0.2056  -72.1
 1.940  0.6472  154.5   2.953   58.0  0.0801   59.6  0.2058  -72.5
 1.960  0.6479  154.2   2.925   57.6  0.0808   59.5  0.2059  -73.0
 1.980  0.6487  153.8   2.896   57.2  0.0816   59.5  0.2061  -73.4
 2.000  0.6495  153.5   2.868   56.8  0.0823   59.5  0.2063  -73.8
 2.020  0.6500  153.2   2.842   56.4  0.0830   59.4  0.2066  -74.1
 2.040  0.6505  152.8   2.817   56.1  0.0837   59.4  0.2069  -74.5
 2.060  0.6510  152.5   2.791   55.7  0.0845   59.3  0.2072  -74.8
 2.080  0.6516  152.2   2.766   55.3  0.0852   59.2  0.2076  -75.2
 2.100  0.6522  151.8   2.740   54.9  0.0859   59.1  0.2079  -75.5
 2.120  0.6528  151.5   2.715   54.5  0.0866   59.1  0.2083  -75.9
 2.140  0.6534  151.2   2.690   54.1  0.0873   59.0  0.2086  -76.2
 2.160  0.6540  150.9   2.665   53.7  0.0881   58.9  0.2090  -76.5
 2.180  0.6547  150.5   2.641   53.3  0.0888   58.9  0.2093  -76.9
 2.200  0.6554  150.2   2.616   52.9  0.0895   58.8  0.2097  -77.2
 2.220  0.6557  149.8   2.594   52.5  0.0902   58.7  0.2099  -77.6
 2.240  0.6561  149.5   2.572   52.2  0.0910   58.6  0.2101  -78.1
 2.260  0.6564  149.1   2.550   51.8  0.0917   58.5  0.2103  -78.5
 2.280  0.6568  148.7   2.528   51.4  0.0924   58.4  0.2106  -79.0
 2.300  0.6573  148.3   2.506   51.0  0.0931   58.3  0.2108  -79.4
 2.320  0.6577  148.0   2.484   50.6  0.0939   58.2  0.2111  -79.9
 2.340  0.6582  147.6   2.463   50.2  0.0946   58.2  0.2113  -80.3
 2.360  0.6587  147.2   2.441   49.8  0.0953   58.1  0.2116  -80.7
 2.380  0.6592  146.9   2.420   49.4  0.0961   58.0  0.2119  -81.2
 2.400  0.6598  146.5   2.399   49.0  0.0968   57.9  0.2122  -81.6
 2.420  0.6602  146.2   2.381   48.6  0.0975   57.8  0.2126  -82.0
 2.440  0.6607  145.8   2.362   48.3  0.0983   57.7  0.2131  -82.4
 2.460  0.6611  145.5   2.344   47.9  0.0990   57.6  0.2135  -82.8
 2.480  0.6616  145.2   2.326   47.6  0.0998   57.5  0.2140  -83.3
 2.500  0.6621  144.8   2.308   47.2  0.1005   57.4  0.2145  -83.7
 2.520  0.6627  144.5   2.290   46.8  0.1013   57.3  0.2149  -84.1
 2.540  0.6632  144.2   2.272   46.4  0.1020   57.2  0.2154  -84.5
 2.560  0.6638  143.9   2.254   46.0  0.1028   57.1  0.2160  -84.9
 2.580  0.6644  143.5   2.237   45.6  0.1035   57.0  0.2165  -85.3
 2.600  0.6650  143.2   2.219   45.2  0.1043   56.9  0.2170  -85.7
 2.620  0.6657  142.8   2.203   44.9  0.1050   56.8  0.2173  -86.2
 2.640  0.6664  142.5   2.187   44.5  0.1057   56.7  0.2176  -86.6
 2.660  0.6672  142.1   2.170   44.2  0.1065   56.6  0.2178  -87.1
 2.680  0.6680  141.8   2.154   43.8  0.1072   56.4  0.2182  -87.5
 2.700  0.6688  141.4   2.138   43.5  0.1079   56.3  0.2185  -88.0
 2.720  0.6696  141.1   2.123   43.1  0.1086   56.2  0.2188  -88.4
 2.740  0.6705  140.7   2.107   42.7  0.1093   56.1  0.2192  -88.9
 2.760  0.6714  140.4   2.091   42.4  0.1101   56.0  0.2195  -89.3
 2.780  0.6723  140.0   2.076   42.0  0.1108   55.9  0.2199  -89.8
 2.800  0.6732  139.7   2.060   41.6  0.1115   55.8  0.2203  -90.2
 2.820  0.6740  139.4   2.046   41.3  0.1122   55.7  0.2208  -90.7
 2.840  0.6748  139.1   2.032   40.9  0.1130   55.6  0.2212  -91.1
 2.860  0.6756  138.8   2.018   40.6  0.1137   55.5  0.2217  -91.6
 2.880  0.6764  138.5   2.004   40.3  0.1145   55.3  0.2222  -92.0
 2.900  0.6772  138.2   1.991   39.9  0.1152   55.2  0.2227  -92.5
 2.920  0.6781  137.9   1.977   39.6  0.1159   55.1  0.2233  -92.9
 2.940  0.6790  137.6   1.963   39.2  0.1167   55.0  0.2238  -93.4
 2.960  0.6799  137.3   1.950   38.8  0.1174   54.9  0.2244  -93.8
 2.980  0.6808  137.0   1.936   38.5  0.1182   54.8  0.2249  -94.3
 3.000  0.6817  136.7   1.923   38.1  0.1189   54.7  0.2255  -94.7
 3.100  0.6849  135.1   1.866   36.4  0.1224   54.1  0.2278  -97.1
 3.200  0.6886  133.5   1.810   34.6  0.1260   53.5  0.2304  -99.4
 3.300  0.6925  131.9   1.755   32.9  0.1296   52.8  0.2337 -101.8
 3.400  0.6969  130.4   1.701   31.0  0.1332   52.2  0.2374 -104.2
 3.500  0.7013  129.0   1.654   29.3  0.1367   51.7  0.2399 -106.6
 3.600  0.7061  127.6   1.608   27.6  0.1402   51.2  0.2429 -109.0
 3.700  0.7078  126.0   1.559   26.0  0.1430   50.3  0.2458 -111.5
 3.800  0.7100  124.4   1.512   24.3  0.1458   49.5  0.2492 -114.0
 3.900  0.7162  123.3   1.476   22.7  0.1497   48.9  0.2542 -116.6
 4.000  0.7227  122.3   1.441   21.0  0.1536   48.4  0.2596 -119.0
 4.100  0.7246  121.1   1.405   19.5  0.1569   47.7  0.2640 -121.5
 4.200  0.7267  119.9   1.369   18.0  0.1603   47.0  0.2688 -123.9
 4.300  0.7292  118.7   1.335   16.4  0.1636   46.3  0.2741 -126.2
 4.400  0.7321  117.5   1.302   14.7  0.1670   45.6  0.2799 -128.5
 4.500  0.7352  116.3   1.270   12.9  0.1704   45.0  0.2860 -130.6
 4.600  0.7373  115.2   1.240   11.6  0.1736   44.3  0.2915 -132.8
 4.700  0.7397  114.2   1.211   10.3  0.1768   43.6  0.2974 -134.9
 4.800  0.7423  113.2   1.183    9.0  0.1800   42.9  0.3038 -136.9
 4.900  0.7452  112.1   1.155    7.5  0.1832   42.3  0.3104 -138.8
 5.000  0.7483  111.1   1.128    6.0  0.1865   41.7  0.3174 -140.6
 5.100  0.7488  110.3   1.105    4.8  0.1897   41.0  0.3232 -142.4
 5.200  0.7495  109.5   1.082    3.6  0.1929   40.3  0.3294 -144.1
 5.300  0.7503  108.8   1.059    2.3  0.1961   39.6  0.3358 -145.8
 5.400  0.7513  108.0   1.037    1.0  0.1993   38.9  0.3425 -147.4
 5.500  0.7524  107.2   1.016   -0.4  0.2026   38.3  0.3495 -148.9
 5.600  0.7525  106.4   0.997   -1.5  0.2057   37.6  0.3554 -150.3
 5.700  0.7528  105.5   0.978   -2.7  0.2089   37.0  0.3615 -151.7
 5.800  0.7533  104.7   0.959   -3.9  0.2121   36.4  0.3678 -153.0
 5.900  0.7539  103.8   0.941   -5.1  0.2153   35.8  0.3742 -154.3
 6.000  0.7547  103.0   0.923   -6.4  0.2185   35.2  0.3809 -155.5
!
!  f       NFmin   Gammaopt  rn/50
! GHz       dB    MAG  ANG    -
!
! noise parameter not available yet for this operation point!
!
! (c) 2016  Infineon Technologies AG, Munich
