! Infineon Technologies  Discrete & RF Semiconductors
! BFP183
! VCE = 2.0 V,  IC =  60 mA
! Common Emitter S-Parameters:                            Jan 2016
# GHz  S  MA  R  50
!  f         S11            S21            S12            S22
! GHz     MAG   ANG      MAG   ANG      MAG   ANG      MAG   ANG
 0.010  0.1086  -83.4  36.469  171.5  0.0026   60.0  0.7132   -6.5
 0.015  0.1558  -94.1  35.884  167.5  0.0037   64.5  0.7015  -10.0
 0.020  0.2059  -99.7  35.484  163.3  0.0048   66.9  0.6925  -13.6
 0.025  0.2370 -107.1  34.255  160.3  0.0056   65.0  0.6713  -16.0
 0.030  0.2711 -112.7  33.129  157.0  0.0065   63.5  0.6515  -18.6
 0.035  0.3071 -117.0  32.116  153.6  0.0073   62.4  0.6330  -21.4
 0.040  0.3446 -120.4  31.228  149.9  0.0081   61.5  0.6161  -24.2
 0.045  0.3830 -123.1  30.474  146.0  0.0090   60.8  0.6008  -27.3
 0.050  0.4221 -125.3  29.866  142.0  0.0098   60.2  0.5873  -30.5
 0.055  0.4346 -128.2  28.810  140.6  0.0102   58.5  0.5695  -31.5
 0.060  0.4481 -130.9  27.773  139.0  0.0107   57.0  0.5518  -32.6
 0.065  0.4625 -133.4  26.759  137.3  0.0111   55.6  0.5344  -33.8
 0.070  0.4778 -135.8  25.769  135.5  0.0115   54.3  0.5171  -35.0
 0.075  0.4939 -138.0  24.806  133.6  0.0120   53.1  0.5002  -36.3
 0.080  0.5107 -140.1  23.874  131.5  0.0124   52.0  0.4835  -37.8
 0.085  0.5281 -142.1  22.977  129.2  0.0129   51.0  0.4672  -39.3
 0.090  0.5460 -143.9  22.119  126.8  0.0134   50.0  0.4512  -40.9
 0.095  0.5645 -145.6  21.304  124.1  0.0138   49.1  0.4356  -42.6
 0.100  0.5835 -147.2  20.538  121.3  0.0143   48.3  0.4204  -44.5
 0.105  0.5887 -148.5  19.966  120.5  0.0145   48.0  0.4105  -44.9
 0.110  0.5942 -149.8  19.399  119.6  0.0148   47.6  0.4006  -45.2
 0.115  0.6000 -151.0  18.837  118.6  0.0150   47.3  0.3908  -45.6
 0.120  0.6061 -152.3  18.281  117.6  0.0153   47.0  0.3809  -46.1
 0.125  0.6125 -153.5  17.730  116.5  0.0155   46.7  0.3711  -46.5
 0.130  0.6191 -154.6  17.187  115.4  0.0158   46.4  0.3613  -47.0
 0.135  0.6260 -155.8  16.650  114.2  0.0160   46.2  0.3515  -47.5
 0.140  0.6331 -156.9  16.122  112.9  0.0163   45.9  0.3418  -48.0
 0.145  0.6405 -158.0  15.602  111.5  0.0165   45.7  0.3321  -48.5
 0.150  0.6481 -159.1  15.092  110.0  0.0168   45.4  0.3224  -49.1
 0.155  0.6501 -159.8  14.750  109.4  0.0169   45.5  0.3168  -49.2
 0.160  0.6521 -160.6  14.410  108.9  0.0171   45.5  0.3112  -49.3
 0.165  0.6543 -161.3  14.071  108.2  0.0172   45.6  0.3056  -49.4
 0.170  0.6566 -162.0  13.733  107.6  0.0173   45.7  0.3000  -49.5
 0.175  0.6590 -162.8  13.398  106.9  0.0174   45.7  0.2944  -49.6
 0.180  0.6615 -163.5  13.064  106.2  0.0176   45.8  0.2888  -49.8
 0.185  0.6641 -164.2  12.733  105.5  0.0177   45.8  0.2832  -49.9
 0.190  0.6668 -164.9  12.404  104.7  0.0178   45.9  0.2776  -50.0
 0.195  0.6696 -165.6  12.077  103.9  0.0180   45.9  0.2720  -50.2
 0.200  0.6725 -166.3  11.753  103.0  0.0181   46.0  0.2664  -50.3
 0.220  0.6773 -168.4  10.876  101.2  0.0189   47.0  0.2532  -50.2
 0.240  0.6829 -170.4  10.011   99.1  0.0197   47.9  0.2401  -50.1
 0.260  0.6866 -172.3   9.278   97.3  0.0206   48.8  0.2288  -50.0
 0.280  0.6884 -174.0   8.671   95.8  0.0215   49.8  0.2195  -49.8
 0.300  0.6908 -175.7   8.069   94.2  0.0225   50.7  0.2102  -49.6
 0.320  0.6922 -176.9   7.674   93.2  0.0232   51.6  0.2052  -49.5
 0.340  0.6940 -178.1   7.281   92.2  0.0240   52.5  0.2001  -49.3
 0.360  0.6960 -179.3   6.891   91.0  0.0247   53.3  0.1951  -49.2
 0.380  0.6983  179.6   6.505   89.7  0.0255   54.1  0.1900  -49.1
 0.400  0.7009  178.4   6.122   88.2  0.0262   54.8  0.1850  -48.9
 0.420  0.7009  177.5   5.875   87.4  0.0269   55.2  0.1823  -48.9
 0.440  0.7010  176.6   5.629   86.6  0.0277   55.5  0.1795  -48.9
 0.450  0.7012  176.1   5.506   86.1  0.0280   55.7  0.1781  -48.9
 0.460  0.7014  175.6   5.384   85.6  0.0284   55.8  0.1768  -49.0
 0.480  0.7019  174.7   5.140   84.6  0.0292   56.1  0.1740  -49.0
 0.500  0.7026  173.8   4.899   83.5  0.0299   56.4  0.1713  -49.0
 0.520  0.7034  173.0   4.743   82.8  0.0309   57.1  0.1699  -49.1
 0.540  0.7043  172.1   4.589   82.0  0.0319   57.7  0.1685  -49.3
 0.560  0.7054  171.3   4.435   81.2  0.0330   58.2  0.1671  -49.4
 0.580  0.7066  170.4   4.282   80.3  0.0340   58.8  0.1657  -49.6
 0.600  0.7080  169.6   4.130   79.4  0.0350   59.3  0.1643  -49.7
 0.620  0.7076  168.8   4.008   78.7  0.0358   59.6  0.1634  -49.9
 0.640  0.7073  168.1   3.886   78.1  0.0366   59.9  0.1625  -50.2
 0.660  0.7071  167.3   3.764   77.3  0.0373   60.1  0.1617  -50.4
 0.680  0.7070  166.6   3.644   76.5  0.0381   60.4  0.1608  -50.7
 0.700  0.7071  165.8   3.524   75.7  0.0389   60.6  0.1599  -50.9
 0.720  0.7077  165.1   3.438   75.1  0.0398   60.7  0.1595  -51.2
 0.740  0.7083  164.5   3.353   74.4  0.0407   60.8  0.1590  -51.6
 0.760  0.7091  163.8   3.269   73.7  0.0416   60.9  0.1586  -51.9
 0.780  0.7100  163.2   3.185   73.0  0.0425   61.0  0.1582  -52.3
 0.800  0.7109  162.5   3.101   72.2  0.0434   61.1  0.1578  -52.6
 0.820  0.7114  161.9   3.034   71.6  0.0444   61.1  0.1575  -53.1
 0.840  0.7120  161.3   2.967   71.0  0.0454   61.2  0.1572  -53.6
 0.860  0.7126  160.7   2.900   70.4  0.0464   61.2  0.1570  -54.1
 0.880  0.7134  160.1   2.834   69.8  0.0474   61.3  0.1567  -54.6
 0.900  0.7142  159.5   2.768   69.1  0.0484   61.3  0.1565  -55.1
 0.920  0.7142  158.8   2.711   68.5  0.0492   61.4  0.1562  -55.6
 0.940  0.7143  158.0   2.655   67.8  0.0500   61.5  0.1558  -56.1
 0.960  0.7146  157.3   2.598   67.1  0.0508   61.5  0.1555  -56.5
 0.980  0.7149  156.5   2.542   66.4  0.0516   61.6  0.1552  -57.0
 1.000  0.7154  155.8   2.487   65.7  0.0524   61.7  0.1549  -57.5
 1.020  0.7164  155.2   2.443   65.1  0.0534   61.7  0.1549  -58.0
 1.040  0.7176  154.7   2.399   64.5  0.0544   61.7  0.1549  -58.5
 1.060  0.7187  154.1   2.356   63.8  0.0553   61.6  0.1550  -59.0
 1.080  0.7200  153.6   2.313   63.1  0.0563   61.6  0.1550  -59.5
 1.100  0.7213  153.0   2.270   62.4  0.0573   61.6  0.1551  -60.0
 1.120  0.7212  152.4   2.232   61.9  0.0583   61.4  0.1553  -60.5
 1.140  0.7211  151.8   2.193   61.4  0.0593   61.2  0.1554  -61.1
 1.160  0.7211  151.2   2.155   60.9  0.0602   61.0  0.1556  -61.6
 1.180  0.7212  150.6   2.118   60.4  0.0612   60.9  0.1558  -62.2
 1.200  0.7214  150.0   2.080   59.8  0.0622   60.7  0.1560  -62.7
 1.220  0.7215  149.4   2.047   59.2  0.0631   60.6  0.1562  -63.3
 1.240  0.7217  148.8   2.013   58.6  0.0640   60.5  0.1564  -63.9
 1.260  0.7220  148.3   1.980   57.9  0.0650   60.5  0.1567  -64.6
 1.280  0.7224  147.7   1.947   57.3  0.0659   60.4  0.1569  -65.2
 1.300  0.7228  147.1   1.915   56.6  0.0668   60.3  0.1572  -65.8
 1.320  0.7236  146.5   1.890   56.1  0.0678   60.2  0.1572  -66.4
 1.340  0.7246  145.9   1.865   55.6  0.0687   60.2  0.1572  -67.0
 1.360  0.7256  145.3   1.840   55.1  0.0697   60.1  0.1573  -67.7
 1.380  0.7266  144.7   1.815   54.5  0.0706   60.1  0.1573  -68.3
 1.400  0.7278  144.1   1.791   54.0  0.0716   60.0  0.1574  -68.9
 1.420  0.7289  143.6   1.766   53.4  0.0726   59.9  0.1576  -69.5
 1.440  0.7300  143.2   1.742   52.7  0.0735   59.7  0.1578  -70.1
 1.460  0.7312  142.7   1.718   52.1  0.0745   59.6  0.1580  -70.6
 1.480  0.7324  142.3   1.694   51.4  0.0754   59.4  0.1582  -71.2
 1.500  0.7337  141.8   1.670   50.7  0.0764   59.3  0.1585  -71.8
 1.520  0.7342  141.2   1.649   50.2  0.0773   59.1  0.1587  -72.4
 1.540  0.7347  140.6   1.628   49.7  0.0782   59.0  0.1590  -73.0
 1.560  0.7354  140.0   1.608   49.1  0.0790   58.8  0.1592  -73.6
 1.580  0.7361  139.4   1.587   48.6  0.0799   58.7  0.1595  -74.2
 1.600  0.7369  138.8   1.567   48.0  0.0808   58.5  0.1598  -74.8
 1.620  0.7376  138.2   1.548   47.5  0.0819   58.4  0.1601  -75.6
 1.640  0.7383  137.6   1.529   46.9  0.0829   58.3  0.1604  -76.4
 1.660  0.7391  137.1   1.510   46.4  0.0840   58.1  0.1607  -77.1
 1.680  0.7400  136.5   1.492   45.8  0.0850   58.0  0.1610  -77.9
 1.700  0.7410  135.9   1.473   45.2  0.0861   57.9  0.1614  -78.7
 1.720  0.7418  135.4   1.456   44.7  0.0869   57.7  0.1614  -79.4
 1.740  0.7427  134.9   1.439   44.2  0.0877   57.5  0.1614  -80.1
 1.760  0.7436  134.3   1.423   43.6  0.0886   57.3  0.1615  -80.8
 1.780  0.7446  133.8   1.406   43.1  0.0894   57.2  0.1616  -81.5
 1.800  0.7457  133.3   1.390   42.5  0.0902   57.0  0.1617  -82.2
 1.820  0.7457  132.8   1.375   42.0  0.0911   56.8  0.1620  -82.8
 1.840  0.7457  132.3   1.360   41.5  0.0920   56.5  0.1622  -83.4
 1.860  0.7457  131.9   1.345   41.0  0.0929   56.3  0.1625  -84.0
 1.880  0.7458  131.4   1.331   40.5  0.0938   56.1  0.1629  -84.6
 1.900  0.7460  130.9   1.316   40.0  0.0947   55.9  0.1632  -85.2
 1.920  0.7469  130.3   1.301   39.5  0.0956   55.7  0.1637  -85.9
 1.940  0.7479  129.8   1.287   38.9  0.0964   55.5  0.1642  -86.6
 1.960  0.7490  129.2   1.272   38.4  0.0973   55.3  0.1647  -87.3
 1.980  0.7502  128.7   1.258   37.8  0.0981   55.1  0.1652  -88.0
 2.000  0.7514  128.1   1.244   37.2  0.0990   54.9  0.1658  -88.7
 2.020  0.7520  127.6   1.232   36.7  0.0999   54.7  0.1659  -89.5
 2.040  0.7526  127.1   1.221   36.2  0.1008   54.5  0.1661  -90.3
 2.060  0.7532  126.6   1.209   35.7  0.1017   54.3  0.1663  -91.1
 2.080  0.7539  126.2   1.198   35.2  0.1026   54.1  0.1665  -91.9
 2.100  0.7547  125.7   1.187   34.7  0.1035   53.9  0.1668  -92.7
 2.120  0.7555  125.2   1.176   34.2  0.1044   53.7  0.1671  -93.5
 2.140  0.7564  124.7   1.165   33.7  0.1053   53.5  0.1674  -94.3
 2.160  0.7573  124.3   1.154   33.1  0.1062   53.3  0.1678  -95.0
 2.180  0.7583  123.8   1.143   32.6  0.1071   53.1  0.1682  -95.8
 2.200  0.7593  123.3   1.132   32.0  0.1080   52.9  0.1686  -96.6
 2.220  0.7602  122.8   1.122   31.6  0.1089   52.7  0.1690  -97.3
 2.240  0.7612  122.2   1.113   31.1  0.1097   52.5  0.1695  -98.1
 2.260  0.7622  121.7   1.103   30.7  0.1106   52.2  0.1700  -98.8
 2.280  0.7633  121.2   1.094   30.2  0.1115   52.0  0.1705  -99.5
 2.300  0.7644  120.7   1.084   29.8  0.1123   51.8  0.1711 -100.2
 2.320  0.7656  120.2   1.075   29.3  0.1132   51.6  0.1716 -100.9
 2.340  0.7669  119.6   1.065   28.8  0.1141   51.4  0.1722 -101.6
 2.360  0.7682  119.1   1.056   28.3  0.1149   51.2  0.1729 -102.3
 2.380  0.7696  118.6   1.047   27.8  0.1158   51.0  0.1735 -103.0
 2.400  0.7711  118.1   1.038   27.3  0.1167   50.8  0.1742 -103.7
 2.420  0.7720  117.7   1.029   26.9  0.1175   50.6  0.1745 -104.5
 2.440  0.7730  117.2   1.020   26.4  0.1184   50.4  0.1748 -105.3
 2.460  0.7740  116.8   1.011   25.9  0.1192   50.2  0.1751 -106.1
 2.480  0.7751  116.4   1.002   25.5  0.1200   50.0  0.1755 -106.9
 2.500  0.7762  115.9   0.994   25.0  0.1209   49.8  0.1759 -107.6
 2.520  0.7774  115.5   0.985   24.5  0.1217   49.6  0.1764 -108.4
 2.540  0.7786  115.1   0.976   24.0  0.1226   49.4  0.1769 -109.2
 2.560  0.7798  114.6   0.968   23.5  0.1234   49.2  0.1774 -110.0
 2.580  0.7811  114.2   0.959   23.0  0.1243   49.0  0.1779 -110.7
 2.600  0.7824  113.8   0.951   22.5  0.1251   48.8  0.1785 -111.5
 2.620  0.7828  113.3   0.944   22.1  0.1259   48.5  0.1792 -112.3
 2.640  0.7833  112.9   0.936   21.6  0.1267   48.3  0.1799 -113.0
 2.660  0.7838  112.4   0.929   21.1  0.1274   48.0  0.1807 -113.8
 2.680  0.7843  112.0   0.921   20.7  0.1282   47.8  0.1815 -114.5
 2.700  0.7849  111.5   0.914   20.2  0.1290   47.6  0.1823 -115.3
 2.720  0.7855  111.1   0.907   19.7  0.1298   47.3  0.1832 -116.0
 2.740  0.7862  110.6   0.900   19.2  0.1306   47.1  0.1841 -116.8
 2.760  0.7870  110.2   0.893   18.7  0.1314   46.9  0.1850 -117.5
 2.780  0.7878  109.7   0.886   18.2  0.1322   46.6  0.1859 -118.2
 2.800  0.7886  109.3   0.879   17.7  0.1330   46.4  0.1869 -118.9
 2.820  0.7896  108.9   0.872   17.3  0.1338   46.2  0.1875 -119.7
 2.840  0.7906  108.5   0.865   16.9  0.1346   46.0  0.1881 -120.4
 2.860  0.7916  108.0   0.859   16.5  0.1354   45.7  0.1887 -121.2
 2.880  0.7927  107.6   0.852   16.1  0.1362   45.5  0.1894 -121.9
 2.900  0.7938  107.2   0.845   15.7  0.1370   45.3  0.1901 -122.7
 2.920  0.7950  106.8   0.839   15.3  0.1378   45.1  0.1908 -123.4
 2.940  0.7962  106.3   0.832   14.8  0.1386   44.9  0.1916 -124.1
 2.960  0.7975  105.9   0.826   14.4  0.1394   44.7  0.1924 -124.9
 2.980  0.7988  105.5   0.819   14.0  0.1402   44.5  0.1932 -125.6
 3.000  0.8001  105.1   0.813   13.5  0.1410   44.3  0.1941 -126.3
 3.100  0.8020  103.2   0.785   11.8  0.1446   43.2  0.1983 -130.1
 3.200  0.8049  101.3   0.758    9.9  0.1482   42.1  0.2034 -133.7
 3.300  0.8086   99.4   0.732    8.0  0.1519   41.0  0.2093 -137.1
 3.400  0.8132   97.5   0.707    5.9  0.1556   40.0  0.2158 -140.4
 3.500  0.8186   95.7   0.683    3.6  0.1594   39.1  0.2230 -143.4
 3.600  0.8212   94.1   0.662    2.2  0.1627   37.9  0.2286 -146.7
 3.700  0.8245   92.5   0.642    0.7  0.1661   36.8  0.2350 -149.9
 3.800  0.8284   91.0   0.622   -1.0  0.1695   35.7  0.2420 -152.9
 3.900  0.8329   89.4   0.603   -2.7  0.1730   34.6  0.2496 -155.7
 4.000  0.8380   87.9   0.584   -4.5  0.1765   33.6  0.2578 -158.3
 4.100  0.8389   86.4   0.567   -5.8  0.1794   32.5  0.2643 -161.2
 4.200  0.8403   85.0   0.550   -7.2  0.1824   31.4  0.2715 -163.9
 4.300  0.8423   83.5   0.534   -8.6  0.1854   30.4  0.2792 -166.5
 4.400  0.8448   82.0   0.518  -10.2  0.1885   29.4  0.2875 -169.0
 4.500  0.8479   80.6   0.502  -11.8  0.1916   28.4  0.2963 -171.3
 4.600  0.8490   79.5   0.489  -12.5  0.1945   27.6  0.3025 -173.6
 4.700  0.8505   78.3   0.477  -13.3  0.1974   26.7  0.3091 -175.9
 4.800  0.8523   77.2   0.464  -14.1  0.2003   25.9  0.3162 -178.0
 4.900  0.8545   76.1   0.451  -14.9  0.2033   25.2  0.3237  179.9
 5.000  0.8569   75.0   0.439  -15.8  0.2063   24.4  0.3316  178.0
 5.100  0.8575   73.9   0.430  -16.7  0.2097   23.2  0.3396  176.1
 5.200  0.8583   72.8   0.421  -17.6  0.2132   22.0  0.3479  174.3
 5.300  0.8595   71.8   0.413  -18.5  0.2167   20.9  0.3565  172.7
 5.400  0.8610   70.7   0.404  -19.5  0.2204   19.8  0.3655  171.0
 5.500  0.8628   69.6   0.396  -20.5  0.2241   18.7  0.3747  169.5
 5.600  0.8647   68.7   0.388  -21.1  0.2265   17.6  0.3818  167.8
 5.700  0.8669   67.8   0.381  -21.7  0.2290   16.6  0.3892  166.2
 5.800  0.8693   66.9   0.373  -22.4  0.2315   15.5  0.3970  164.6
 5.900  0.8718   66.1   0.365  -23.1  0.2341   14.5  0.4050  163.1
 6.000  0.8746   65.2   0.358  -23.8  0.2368   13.5  0.4133  161.6
!
!  f       NFmin   Gammaopt  rn/50
! GHz       dB    MAG  ANG    -
!
! noise parameter not available yet for this operation point!
!
! (c) 2016  Infineon Technologies AG, Munich
