! Infineon Technologies  Discrete & RF Semiconductors
! BFP196
! VCE = 1.0 V,  IC =  20mA
! Common Emitter S-Parameters:                            Jan 2016
# GHz  S  MA  R  50
!  f         S11            S21            S12            S22
! GHz     MAG   ANG      MAG   ANG      MAG   ANG      MAG   ANG
 0.010  0.4841  -25.2  44.101  170.7  0.0060   80.0  0.9381  -12.5
 0.015  0.4826  -36.4  42.798  165.7  0.0089   74.7  0.9129  -18.1
 0.020  0.4993  -47.3  41.841  160.4  0.0118   72.0  0.8967  -23.9
 0.025  0.4889  -55.9  40.183  157.3  0.0136   66.8  0.8570  -27.9
 0.030  0.4899  -64.6  38.648  154.0  0.0156   62.9  0.8219  -32.3
 0.035  0.5020  -73.2  37.254  150.5  0.0176   59.9  0.7921  -37.1
 0.040  0.5247  -81.1  36.015  146.6  0.0196   57.5  0.7681  -42.2
 0.045  0.5565  -88.3  34.949  142.5  0.0216   55.5  0.7505  -47.5
 0.050  0.5960  -94.6  34.072  138.2  0.0237   53.9  0.7398  -53.1
 0.055  0.5909  -98.6  32.799  136.8  0.0245   52.3  0.7116  -55.3
 0.060  0.5888 -102.7  31.547  135.3  0.0254   50.8  0.6845  -57.7
 0.065  0.5896 -106.8  30.319  133.6  0.0263   49.4  0.6587  -60.2
 0.070  0.5935 -110.9  29.118  131.8  0.0271   48.1  0.6342  -63.0
 0.075  0.6003 -114.9  27.948  129.9  0.0280   46.9  0.6114  -65.9
 0.080  0.6099 -118.7  26.812  127.8  0.0290   45.7  0.5903  -69.1
 0.085  0.6223 -122.5  25.716  125.5  0.0299   44.7  0.5713  -72.6
 0.090  0.6372 -126.1  24.664  123.0  0.0308   43.6  0.5543  -76.2
 0.095  0.6544 -129.5  23.663  120.3  0.0318   42.7  0.5398  -80.1
 0.100  0.6739 -132.7  22.719  117.4  0.0327   41.8  0.5278  -84.1
 0.105  0.6740 -134.4  22.052  116.6  0.0331   41.3  0.5149  -85.6
 0.110  0.6746 -136.2  21.390  115.8  0.0335   40.8  0.5024  -87.1
 0.115  0.6759 -137.9  20.733  114.9  0.0339   40.3  0.4902  -88.7
 0.120  0.6779 -139.7  20.081  113.9  0.0343   39.9  0.4784  -90.4
 0.125  0.6804 -141.4  19.435  112.9  0.0347   39.4  0.4671  -92.2
 0.130  0.6835 -143.1  18.796  111.8  0.0351   39.0  0.4563  -94.0
 0.135  0.6873 -144.8  18.164  110.6  0.0355   38.5  0.4459  -96.0
 0.140  0.6916 -146.4  17.540  109.4  0.0359   38.1  0.4361  -98.0
 0.145  0.6965 -148.1  16.925  108.0  0.0363   37.7  0.4269 -100.2
 0.150  0.7020 -149.7  16.320  106.6  0.0367   37.3  0.4183 -102.4
 0.155  0.7025 -150.7  15.945  106.1  0.0369   37.4  0.4117 -103.5
 0.160  0.7032 -151.8  15.571  105.5  0.0372   37.4  0.4052 -104.6
 0.165  0.7042 -152.8  15.199  104.9  0.0374   37.5  0.3989 -105.8
 0.170  0.7054 -153.9  14.829  104.3  0.0377   37.5  0.3928 -107.0
 0.175  0.7068 -154.9  14.460  103.6  0.0379   37.6  0.3868 -108.3
 0.180  0.7084 -155.9  14.094  102.9  0.0382   37.6  0.3811 -109.6
 0.185  0.7103 -157.0  13.730  102.2  0.0384   37.7  0.3755 -110.9
 0.190  0.7124 -158.0  13.367  101.5  0.0387   37.7  0.3702 -112.3
 0.195  0.7147 -159.0  13.008  100.7  0.0389   37.8  0.3650 -113.7
 0.200  0.7173 -160.0  12.651   99.8  0.0392   37.8  0.3601 -115.1
 0.220  0.7176 -162.8  11.657   98.2  0.0402   38.2  0.3454 -118.8
 0.240  0.7196 -165.5  10.675   96.2  0.0412   38.5  0.3322 -122.8
 0.260  0.7215 -167.9   9.864   94.5  0.0422   39.0  0.3222 -126.2
 0.280  0.7227 -170.0   9.218   93.2  0.0433   39.7  0.3148 -128.8
 0.300  0.7248 -172.0   8.578   91.7  0.0444   40.3  0.3080 -131.6
 0.320  0.7247 -173.5   8.161   90.8  0.0455   41.0  0.3029 -133.5
 0.340  0.7251 -175.1   7.745   89.9  0.0466   41.6  0.2981 -135.5
 0.360  0.7260 -176.6   7.332   88.8  0.0477   42.2  0.2938 -137.6
 0.380  0.7275 -178.2   6.922   87.6  0.0488   42.8  0.2898 -139.7
 0.400  0.7295 -179.7   6.515   86.3  0.0499   43.4  0.2862 -141.9
 0.420  0.7292  179.3   6.252   85.6  0.0510   44.0  0.2839 -143.2
 0.440  0.7292  178.3   5.990   84.7  0.0521   44.6  0.2818 -144.5
 0.450  0.7293  177.7   5.860   84.3  0.0527   44.9  0.2808 -145.2
 0.460  0.7294  177.2   5.729   83.8  0.0532   45.2  0.2798 -145.9
 0.480  0.7298  176.2   5.470   82.9  0.0544   45.7  0.2780 -147.2
 0.500  0.7305  175.2   5.213   81.8  0.0555   46.2  0.2763 -148.6
 0.520  0.7307  174.1   5.040   81.1  0.0569   46.7  0.2753 -149.5
 0.540  0.7312  173.1   4.868   80.3  0.0583   47.2  0.2744 -150.4
 0.560  0.7320  172.0   4.697   79.4  0.0597   47.6  0.2735 -151.3
 0.580  0.7330  171.0   4.528   78.5  0.0611   48.1  0.2727 -152.3
 0.600  0.7342  169.9   4.359   77.5  0.0625   48.5  0.2720 -153.2
 0.620  0.7345  169.0   4.237   76.8  0.0638   48.8  0.2718 -153.9
 0.640  0.7350  168.1   4.116   76.0  0.0650   49.1  0.2716 -154.6
 0.660  0.7357  167.1   3.996   75.1  0.0663   49.3  0.2715 -155.3
 0.680  0.7366  166.2   3.876   74.2  0.0675   49.6  0.2714 -156.0
 0.700  0.7377  165.3   3.758   73.3  0.0688   49.8  0.2714 -156.7
 0.720  0.7378  164.5   3.664   72.7  0.0703   50.0  0.2715 -157.3
 0.740  0.7381  163.8   3.571   72.1  0.0718   50.1  0.2716 -157.9
 0.760  0.7385  163.0   3.478   71.4  0.0734   50.3  0.2717 -158.4
 0.780  0.7390  162.3   3.385   70.7  0.0749   50.5  0.2719 -159.0
 0.800  0.7396  161.5   3.293   70.0  0.0764   50.6  0.2721 -159.6
 0.820  0.7386  160.7   3.219   69.4  0.0778   50.8  0.2721 -160.1
 0.840  0.7376  159.9   3.146   68.8  0.0793   50.9  0.2720 -160.6
 0.860  0.7369  159.1   3.073   68.1  0.0807   51.0  0.2720 -161.1
 0.880  0.7363  158.3   3.000   67.4  0.0822   51.2  0.2721 -161.6
 0.900  0.7358  157.5   2.928   66.7  0.0836   51.3  0.2721 -162.1
 0.920  0.7361  156.6   2.871   66.1  0.0850   51.3  0.2726 -162.5
 0.940  0.7365  155.8   2.814   65.4  0.0864   51.3  0.2731 -162.8
 0.960  0.7372  154.9   2.757   64.7  0.0877   51.4  0.2737 -163.2
 0.980  0.7379  154.1   2.701   64.0  0.0891   51.4  0.2742 -163.5
 1.000  0.7389  153.2   2.645   63.3  0.0905   51.4  0.2748 -163.9
 1.020  0.7399  152.5   2.598   62.7  0.0919   51.4  0.2755 -164.2
 1.040  0.7409  151.9   2.551   62.1  0.0934   51.4  0.2763 -164.6
 1.060  0.7421  151.2   2.505   61.4  0.0948   51.3  0.2771 -164.9
 1.080  0.7433  150.6   2.459   60.7  0.0963   51.3  0.2778 -165.3
 1.100  0.7447  149.9   2.413   60.0  0.0977   51.3  0.2786 -165.6
 1.120  0.7457  149.1   2.374   59.4  0.0992   51.3  0.2792 -165.9
 1.140  0.7468  148.4   2.335   58.8  0.1006   51.2  0.2798 -166.3
 1.160  0.7480  147.6   2.296   58.1  0.1021   51.2  0.2804 -166.6
 1.180  0.7494  146.9   2.258   57.5  0.1035   51.1  0.2811 -167.0
 1.200  0.7509  146.1   2.220   56.8  0.1050   51.1  0.2817 -167.3
 1.220  0.7508  145.5   2.186   56.2  0.1065   50.9  0.2822 -167.6
 1.240  0.7508  144.9   2.152   55.7  0.1080   50.8  0.2828 -167.9
 1.260  0.7508  144.2   2.118   55.1  0.1094   50.6  0.2833 -168.1
 1.280  0.7510  143.6   2.084   54.4  0.1109   50.5  0.2838 -168.4
 1.300  0.7512  143.0   2.051   53.8  0.1124   50.3  0.2844 -168.7
 1.320  0.7519  142.3   2.021   53.3  0.1138   50.2  0.2851 -168.9
 1.340  0.7527  141.7   1.992   52.8  0.1151   50.0  0.2859 -169.1
 1.360  0.7537  141.0   1.963   52.2  0.1165   49.9  0.2866 -169.4
 1.380  0.7547  140.4   1.934   51.7  0.1178   49.7  0.2874 -169.6
 1.400  0.7558  139.7   1.905   51.1  0.1192   49.6  0.2881 -169.8
 1.420  0.7554  139.1   1.883   50.5  0.1206   49.5  0.2891 -170.1
 1.440  0.7551  138.6   1.862   49.9  0.1221   49.4  0.2901 -170.3
 1.460  0.7548  138.0   1.840   49.3  0.1235   49.2  0.2911 -170.6
 1.480  0.7546  137.5   1.819   48.6  0.1250   49.1  0.2922 -170.8
 1.500  0.7545  136.9   1.798   48.0  0.1264   49.0  0.2932 -171.1
 1.520  0.7558  136.3   1.772   47.5  0.1279   48.8  0.2943 -171.4
 1.540  0.7572  135.7   1.747   46.9  0.1294   48.7  0.2953 -171.8
 1.560  0.7586  135.0   1.722   46.3  0.1309   48.5  0.2964 -172.1
 1.580  0.7602  134.4   1.697   45.7  0.1324   48.4  0.2975 -172.5
 1.600  0.7618  133.8   1.672   45.1  0.1339   48.2  0.2986 -172.8
 1.620  0.7623  133.1   1.653   44.5  0.1353   48.0  0.2993 -173.1
 1.640  0.7628  132.4   1.634   43.9  0.1367   47.8  0.3001 -173.5
 1.660  0.7635  131.6   1.615   43.3  0.1380   47.6  0.3008 -173.8
 1.680  0.7644  130.9   1.596   42.6  0.1394   47.4  0.3016 -174.2
 1.700  0.7653  130.2   1.578   42.0  0.1408   47.2  0.3024 -174.5
 1.720  0.7662  129.7   1.563   41.6  0.1421   47.0  0.3033 -174.6
 1.740  0.7671  129.2   1.549   41.1  0.1434   46.7  0.3042 -174.8
 1.760  0.7681  128.7   1.534   40.6  0.1447   46.5  0.3050 -174.9
 1.780  0.7691  128.2   1.519   40.2  0.1460   46.3  0.3059 -175.1
 1.800  0.7702  127.7   1.505   39.7  0.1473   46.1  0.3068 -175.2
 1.820  0.7706  127.1   1.489   39.2  0.1487   45.9  0.3083 -175.5
 1.840  0.7711  126.5   1.473   38.6  0.1501   45.6  0.3099 -175.8
 1.860  0.7717  125.9   1.457   38.1  0.1515   45.4  0.3114 -176.0
 1.880  0.7724  125.3   1.441   37.5  0.1529   45.2  0.3129 -176.3
 1.900  0.7732  124.7   1.425   36.9  0.1543   45.0  0.3145 -176.6
 1.920  0.7741  124.2   1.410   36.4  0.1557   44.7  0.3156 -177.0
 1.940  0.7750  123.6   1.395   35.9  0.1570   44.5  0.3167 -177.3
 1.960  0.7761  123.1   1.380   35.4  0.1584   44.2  0.3179 -177.7
 1.980  0.7771  122.5   1.366   34.8  0.1597   44.0  0.3190 -178.0
 2.000  0.7783  122.0   1.351   34.3  0.1611   43.7  0.3202 -178.4
 2.020  0.7782  121.4   1.339   33.8  0.1624   43.5  0.3213 -178.7
 2.040  0.7782  120.9   1.326   33.3  0.1637   43.2  0.3224 -178.9
 2.060  0.7783  120.3   1.314   32.8  0.1650   43.0  0.3235 -179.2
 2.080  0.7784  119.8   1.302   32.3  0.1663   42.8  0.3246 -179.5
 2.100  0.7786  119.2   1.290   31.8  0.1676   42.6  0.3258 -179.7
 2.120  0.7789  118.6   1.278   31.3  0.1689   42.3  0.3269 -180.0
 2.140  0.7793  118.1   1.267   30.8  0.1702   42.1  0.3280  179.8
 2.160  0.7797  117.5   1.255   30.2  0.1715   41.9  0.3292  179.5
 2.180  0.7802  117.0   1.243   29.7  0.1728   41.7  0.3303  179.3
 2.200  0.7808  116.4   1.232   29.1  0.1741   41.5  0.3315  179.0
 2.220  0.7819  115.8   1.222   28.6  0.1753   41.2  0.3330  178.6
 2.240  0.7831  115.2   1.212   28.1  0.1765   41.0  0.3344  178.3
 2.260  0.7844  114.7   1.202   27.6  0.1777   40.7  0.3359  177.9
 2.280  0.7857  114.1   1.193   27.1  0.1789   40.5  0.3374  177.6
 2.300  0.7871  113.5   1.183   26.6  0.1802   40.2  0.3389  177.3
 2.320  0.7886  113.0   1.174   26.1  0.1814   40.0  0.3404  176.9
 2.340  0.7902  112.4   1.164   25.5  0.1826   39.7  0.3419  176.6
 2.360  0.7919  111.8   1.155   25.0  0.1838   39.5  0.3435  176.3
 2.380  0.7936  111.3   1.146   24.5  0.1851   39.2  0.3450  175.9
 2.400  0.7954  110.7   1.137   23.9  0.1863   39.0  0.3466  175.6
 2.420  0.7959  110.2   1.128   23.5  0.1875   38.7  0.3478  175.3
 2.440  0.7965  109.7   1.119   23.0  0.1887   38.5  0.3491  175.0
 2.460  0.7971  109.2   1.110   22.6  0.1899   38.2  0.3504  174.8
 2.480  0.7978  108.7   1.101   22.1  0.1911   37.9  0.3516  174.5
 2.500  0.7985  108.2   1.093   21.7  0.1923   37.7  0.3529  174.2
 2.520  0.7994  107.7   1.084   21.2  0.1935   37.4  0.3542  174.0
 2.540  0.8002  107.2   1.075   20.8  0.1947   37.1  0.3555  173.7
 2.560  0.8012  106.7   1.067   20.3  0.1959   36.9  0.3568  173.4
 2.580  0.8021  106.2   1.058   19.8  0.1972   36.6  0.3581  173.2
 2.600  0.8032  105.7   1.050   19.3  0.1984   36.4  0.3594  172.9
 2.620  0.8038  105.2   1.043   18.9  0.1995   36.1  0.3611  172.6
 2.640  0.8045  104.8   1.035   18.5  0.2006   35.9  0.3628  172.2
 2.660  0.8052  104.3   1.028   18.1  0.2017   35.6  0.3645  171.9
 2.680  0.8060  103.8   1.021   17.7  0.2029   35.4  0.3662  171.5
 2.700  0.8068  103.3   1.013   17.2  0.2040   35.1  0.3679  171.2
 2.720  0.8077  102.9   1.006   16.8  0.2051   34.9  0.3697  170.9
 2.740  0.8087  102.4   0.999   16.4  0.2063   34.6  0.3715  170.6
 2.760  0.8096  101.9   0.992   15.9  0.2074   34.4  0.3732  170.2
 2.780  0.8107  101.5   0.985   15.5  0.2086   34.1  0.3750  169.9
 2.800  0.8118  101.0   0.978   15.0  0.2097   33.9  0.3768  169.6
 2.820  0.8122  100.5   0.971   14.6  0.2107   33.6  0.3782  169.3
 2.840  0.8127  100.1   0.963   14.2  0.2117   33.3  0.3797  169.0
 2.860  0.8132   99.6   0.956   13.7  0.2128   33.0  0.3812  168.7
 2.880  0.8137   99.2   0.949   13.3  0.2138   32.7  0.3826  168.4
 2.900  0.8143   98.7   0.942   12.9  0.2148   32.5  0.3841  168.1
 2.920  0.8150   98.2   0.935   12.4  0.2159   32.2  0.3856  167.8
 2.940  0.8157   97.8   0.928   12.0  0.2169   31.9  0.3871  167.5
 2.960  0.8165   97.3   0.921   11.5  0.2180   31.6  0.3886  167.3
 2.980  0.8173   96.9   0.914   11.1  0.2190   31.4  0.3902  167.0
 3.000  0.8182   96.4   0.907   10.6  0.2201   31.1  0.3917  166.7
 3.100  0.8204   94.4   0.879    9.0  0.2244   29.7  0.3995  165.1
 3.200  0.8237   92.4   0.852    7.3  0.2289   28.4  0.4076  163.5
 3.300  0.8279   90.4   0.825    5.5  0.2335   27.1  0.4160  162.0
 3.400  0.8331   88.4   0.800    3.6  0.2382   25.9  0.4247  160.5
 3.500  0.8393   86.5   0.775    1.5  0.2430   24.7  0.4336  159.1
 3.600  0.8400   84.7   0.754    0.1  0.2467   23.5  0.4415  157.6
 3.700  0.8416   83.0   0.733   -1.3  0.2506   22.3  0.4497  156.2
 3.800  0.8439   81.2   0.713   -2.9  0.2545   21.1  0.4581  154.8
 3.900  0.8471   79.4   0.694   -4.5  0.2586   20.0  0.4668  153.5
 4.000  0.8510   77.7   0.675   -6.2  0.2627   18.9  0.4758  152.2
 4.100  0.8516   76.2   0.660   -7.4  0.2664   17.7  0.4823  150.8
 4.200  0.8529   74.6   0.646   -8.6  0.2703   16.5  0.4891  149.5
 4.300  0.8547   73.1   0.631   -9.9  0.2742   15.4  0.4961  148.3
 4.400  0.8572   71.6   0.618  -11.3  0.2782   14.3  0.5034  147.0
 4.500  0.8602   70.1   0.604  -12.7  0.2824   13.2  0.5109  145.8
 4.600  0.8606   68.8   0.593  -13.7  0.2856   12.1  0.5167  144.6
 4.700  0.8614   67.6   0.582  -14.7  0.2889   11.0  0.5226  143.5
 4.800  0.8626   66.3   0.572  -15.7  0.2923    9.9  0.5288  142.4
 4.900  0.8642   65.1   0.561  -16.8  0.2958    8.8  0.5351  141.3
 5.000  0.8663   63.8   0.551  -17.9  0.2994    7.8  0.5417  140.2
 5.100  0.8675   62.7   0.542  -18.7  0.3027    6.7  0.5477  139.0
 5.200  0.8691   61.5   0.534  -19.5  0.3060    5.6  0.5539  137.8
 5.300  0.8710   60.4   0.525  -20.3  0.3095    4.5  0.5604  136.6
 5.400  0.8732   59.2   0.517  -21.2  0.3131    3.5  0.5671  135.4
 5.500  0.8758   58.1   0.509  -22.1  0.3168    2.5  0.5740  134.3
 5.600  0.8747   57.0   0.503  -22.8  0.3197    1.3  0.5791  133.1
 5.700  0.8739   55.9   0.497  -23.6  0.3226    0.1  0.5845  132.0
 5.800  0.8735   54.7   0.491  -24.3  0.3258   -1.0  0.5900  130.8
 5.900  0.8734   53.6   0.486  -25.1  0.3290   -2.2  0.5959  129.7
 6.000  0.8736   52.5   0.480  -25.9  0.3324   -3.3  0.6019  128.6
!
!  f       NFmin   Gammaopt  rn/50
! GHz       dB    MAG  ANG    -
!
! noise parameter not available yet for this operation point!
!
! (c) 2016  Infineon Technologies AG, Munich
