! Infineon Technologies  Discrete & RF Semiconductors
! BFP183
! VCE = 1.0 V,  IC =  20 mA
! Common Emitter S-Parameters:                            Jan 2016
# GHz  S  MA  R  50
!  f         S11            S21            S12            S22
! GHz     MAG   ANG      MAG   ANG      MAG   ANG      MAG   ANG
 0.010  0.4311  -12.2  35.067  175.0  0.0026   86.3  0.9257   -4.2
 0.015  0.4295  -18.3  34.928  172.6  0.0038   82.7  0.9173   -6.3
 0.020  0.4328  -24.4  34.851  170.2  0.0050   80.8  0.9101   -8.5
 0.025  0.4272  -29.9  34.320  167.9  0.0062   77.9  0.8983  -10.4
 0.030  0.4258  -35.6  33.846  165.5  0.0073   75.9  0.8875  -12.3
 0.035  0.4284  -41.2  33.432  163.1  0.0085   74.4  0.8778  -14.3
 0.040  0.4351  -46.7  33.079  160.6  0.0096   73.3  0.8691  -16.3
 0.045  0.4457  -52.0  32.790  158.1  0.0108   72.5  0.8615  -18.4
 0.050  0.4599  -57.0  32.566  155.5  0.0120   71.8  0.8551  -20.5
 0.055  0.4555  -61.0  31.851  154.0  0.0127   69.3  0.8387  -21.7
 0.060  0.4533  -65.0  31.160  152.4  0.0135   67.1  0.8227  -23.0
 0.065  0.4534  -69.0  30.494  150.7  0.0143   65.1  0.8072  -24.4
 0.070  0.4557  -73.1  29.854  149.0  0.0151   63.3  0.7921  -25.7
 0.075  0.4602  -77.0  29.244  147.2  0.0159   61.7  0.7775  -27.2
 0.080  0.4669  -80.9  28.663  145.3  0.0167   60.3  0.7634  -28.7
 0.085  0.4757  -84.6  28.115  143.3  0.0175   59.0  0.7498  -30.2
 0.090  0.4864  -88.2  27.601  141.3  0.0183   57.8  0.7368  -31.8
 0.095  0.4989  -91.7  27.124  139.2  0.0192   56.7  0.7244  -33.5
 0.100  0.5131  -94.9  26.684  137.0  0.0200   55.7  0.7126  -35.2
 0.105  0.5126  -97.4  26.123  135.9  0.0204   55.0  0.6991  -35.9
 0.110  0.5131  -99.9  25.571  134.8  0.0208   54.3  0.6857  -36.7
 0.115  0.5146 -102.4  25.029  133.6  0.0212   53.6  0.6725  -37.5
 0.120  0.5171 -104.8  24.498  132.4  0.0216   53.0  0.6594  -38.4
 0.125  0.5204 -107.3  23.979  131.1  0.0221   52.4  0.6464  -39.3
 0.130  0.5248 -109.7  23.472  129.8  0.0225   51.8  0.6336  -40.2
 0.135  0.5300 -112.0  22.978  128.4  0.0229   51.2  0.6210  -41.1
 0.140  0.5361 -114.4  22.498  127.0  0.0233   50.6  0.6085  -42.1
 0.145  0.5430 -116.6  22.034  125.5  0.0238   50.1  0.5963  -43.1
 0.150  0.5508 -118.8  21.585  123.9  0.0242   49.6  0.5842  -44.2
 0.155  0.5517 -120.4  21.183  123.2  0.0245   49.2  0.5746  -44.6
 0.160  0.5530 -122.0  20.785  122.4  0.0248   48.8  0.5650  -45.1
 0.165  0.5548 -123.6  20.391  121.6  0.0251   48.4  0.5555  -45.5
 0.170  0.5570 -125.2  20.001  120.8  0.0254   48.0  0.5459  -46.0
 0.175  0.5596 -126.8  19.615  119.9  0.0257   47.6  0.5365  -46.5
 0.180  0.5627 -128.4  19.233  119.0  0.0260   47.2  0.5270  -47.0
 0.185  0.5661 -129.9  18.857  118.1  0.0263   46.8  0.5177  -47.6
 0.190  0.5700 -131.4  18.485  117.1  0.0266   46.5  0.5083  -48.1
 0.195  0.5743 -132.9  18.119  116.1  0.0269   46.1  0.4990  -48.7
 0.200  0.5789 -134.4  17.759  115.1  0.0272   45.8  0.4898  -49.3
 0.220  0.5822 -138.7  16.569  112.7  0.0280   45.3  0.4627  -50.3
 0.240  0.5888 -142.9  15.412  110.0  0.0287   44.8  0.4358  -51.5
 0.260  0.5930 -146.5  14.420  107.6  0.0295   44.5  0.4121  -52.4
 0.280  0.5937 -149.6  13.576  105.7  0.0304   44.2  0.3916  -52.9
 0.300  0.5960 -152.6  12.748  103.6  0.0313   44.0  0.3711  -53.5
 0.320  0.5965 -154.9  12.152  102.4  0.0319   44.2  0.3582  -53.7
 0.340  0.5979 -157.3  11.563  101.0  0.0326   44.4  0.3453  -54.0
 0.360  0.6004 -159.6  10.981   99.5  0.0332   44.6  0.3324  -54.3
 0.380  0.6038 -161.8  10.407   97.8  0.0339   44.7  0.3195  -54.6
 0.400  0.6081 -164.1   9.844   95.9  0.0345   44.9  0.3066  -54.9
 0.420  0.6088 -165.8   9.458   95.0  0.0352   45.1  0.2991  -55.0
 0.440  0.6100 -167.4   9.074   93.9  0.0359   45.2  0.2917  -55.1
 0.450  0.6107 -168.2   8.884   93.4  0.0362   45.3  0.2879  -55.1
 0.460  0.6116 -169.0   8.694   92.8  0.0366   45.3  0.2842  -55.2
 0.480  0.6138 -170.7   8.317   91.6  0.0373   45.5  0.2768  -55.3
 0.500  0.6165 -172.3   7.944   90.3  0.0380   45.6  0.2693  -55.4
 0.520  0.6166 -173.6   7.695   89.5  0.0387   46.0  0.2644  -55.4
 0.540  0.6171 -174.9   7.447   88.6  0.0394   46.4  0.2595  -55.4
 0.560  0.6178 -176.2   7.202   87.7  0.0402   46.8  0.2546  -55.5
 0.580  0.6189 -177.5   6.958   86.7  0.0409   47.2  0.2497  -55.5
 0.600  0.6203 -178.8   6.717   85.6  0.0416   47.6  0.2448  -55.5
 0.620  0.6202 -179.8   6.520   84.9  0.0423   47.9  0.2414  -55.6
 0.640  0.6203  179.2   6.324   84.1  0.0430   48.1  0.2380  -55.7
 0.660  0.6207  178.1   6.130   83.3  0.0436   48.4  0.2346  -55.7
 0.680  0.6212  177.1   5.937   82.4  0.0443   48.7  0.2312  -55.8
 0.700  0.6219  176.1   5.745   81.5  0.0450   48.9  0.2278  -55.9
 0.720  0.6225  175.1   5.609   80.8  0.0458   49.2  0.2255  -56.0
 0.740  0.6232  174.1   5.473   80.2  0.0465   49.4  0.2232  -56.1
 0.760  0.6242  173.2   5.338   79.4  0.0473   49.6  0.2208  -56.3
 0.780  0.6253  172.2   5.204   78.7  0.0480   49.9  0.2185  -56.4
 0.800  0.6266  171.2   5.071   77.9  0.0488   50.1  0.2162  -56.5
 0.820  0.6265  170.4   4.963   77.3  0.0497   50.3  0.2148  -56.6
 0.840  0.6265  169.6   4.855   76.7  0.0506   50.4  0.2133  -56.8
 0.860  0.6266  168.9   4.748   76.1  0.0516   50.5  0.2119  -56.9
 0.880  0.6268  168.1   4.641   75.5  0.0525   50.7  0.2104  -57.1
 0.900  0.6271  167.3   4.535   74.8  0.0534   50.8  0.2090  -57.2
 0.920  0.6283  166.4   4.442   74.2  0.0541   50.9  0.2078  -57.4
 0.940  0.6296  165.5   4.349   73.5  0.0549   51.0  0.2065  -57.7
 0.960  0.6311  164.6   4.256   72.8  0.0556   51.0  0.2053  -57.9
 0.980  0.6327  163.8   4.165   72.1  0.0564   51.1  0.2040  -58.2
 1.000  0.6345  162.9   4.074   71.3  0.0571   51.2  0.2028  -58.4
 1.020  0.6351  162.2   4.002   70.7  0.0580   51.3  0.2019  -58.6
 1.040  0.6358  161.5   3.931   70.1  0.0589   51.4  0.2009  -58.9
 1.060  0.6366  160.8   3.861   69.5  0.0597   51.5  0.2000  -59.1
 1.080  0.6375  160.1   3.791   68.8  0.0606   51.6  0.1990  -59.4
 1.100  0.6385  159.4   3.721   68.1  0.0615   51.7  0.1981  -59.6
 1.120  0.6387  158.7   3.656   67.6  0.0623   51.7  0.1974  -59.9
 1.140  0.6389  158.0   3.592   67.1  0.0631   51.7  0.1968  -60.2
 1.160  0.6393  157.4   3.528   66.5  0.0638   51.7  0.1961  -60.5
 1.180  0.6398  156.7   3.464   66.0  0.0646   51.7  0.1954  -60.8
 1.200  0.6403  156.0   3.401   65.4  0.0654   51.7  0.1948  -61.1
 1.220  0.6407  155.3   3.347   64.8  0.0663   51.7  0.1943  -61.5
 1.240  0.6412  154.7   3.293   64.3  0.0672   51.7  0.1938  -61.8
 1.260  0.6418  154.0   3.239   63.7  0.0680   51.7  0.1933  -62.2
 1.280  0.6425  153.4   3.186   63.0  0.0689   51.7  0.1929  -62.5
 1.300  0.6433  152.7   3.133   62.4  0.0698   51.7  0.1924  -62.9
 1.320  0.6442  152.0   3.090   61.9  0.0706   51.7  0.1920  -63.3
 1.340  0.6453  151.3   3.047   61.4  0.0714   51.7  0.1916  -63.7
 1.360  0.6464  150.6   3.004   60.9  0.0722   51.6  0.1912  -64.1
 1.380  0.6476  149.9   2.962   60.3  0.0730   51.6  0.1908  -64.5
 1.400  0.6489  149.2   2.920   59.8  0.0738   51.6  0.1904  -64.9
 1.420  0.6495  148.6   2.880   59.2  0.0747   51.6  0.1900  -65.2
 1.440  0.6501  148.0   2.840   58.6  0.0756   51.5  0.1896  -65.6
 1.460  0.6508  147.4   2.801   57.9  0.0765   51.5  0.1892  -65.9
 1.480  0.6516  146.8   2.762   57.3  0.0774   51.4  0.1889  -66.3
 1.500  0.6524  146.2   2.723   56.6  0.0783   51.4  0.1885  -66.6
 1.520  0.6528  145.6   2.690   56.1  0.0792   51.3  0.1883  -67.1
 1.540  0.6533  145.0   2.658   55.6  0.0800   51.2  0.1882  -67.5
 1.560  0.6538  144.3   2.626   55.1  0.0809   51.0  0.1880  -68.0
 1.580  0.6544  143.7   2.594   54.6  0.0817   50.9  0.1879  -68.4
 1.600  0.6551  143.1   2.562   54.1  0.0826   50.8  0.1878  -68.9
 1.620  0.6555  142.5   2.530   53.6  0.0834   50.7  0.1875  -69.4
 1.640  0.6560  141.9   2.498   53.0  0.0842   50.6  0.1872  -69.9
 1.660  0.6565  141.4   2.466   52.5  0.0851   50.6  0.1869  -70.4
 1.680  0.6571  140.8   2.435   51.9  0.0859   50.5  0.1866  -70.9
 1.700  0.6578  140.2   2.404   51.3  0.0867   50.4  0.1863  -71.4
 1.720  0.6594  139.7   2.376   50.8  0.0875   50.3  0.1860  -71.9
 1.740  0.6610  139.1   2.349   50.3  0.0883   50.2  0.1858  -72.4
 1.760  0.6627  138.6   2.322   49.8  0.0891   50.0  0.1855  -73.0
 1.780  0.6645  138.0   2.295   49.2  0.0899   49.9  0.1853  -73.5
 1.800  0.6663  137.5   2.268   48.7  0.0907   49.8  0.1851  -74.0
 1.820  0.6664  136.9   2.244   48.2  0.0915   49.6  0.1849  -74.5
 1.840  0.6666  136.3   2.220   47.7  0.0924   49.5  0.1847  -74.9
 1.860  0.6668  135.8   2.196   47.2  0.0932   49.3  0.1846  -75.4
 1.880  0.6671  135.2   2.172   46.7  0.0941   49.2  0.1844  -75.8
 1.900  0.6675  134.6   2.149   46.2  0.0949   49.0  0.1843  -76.3
 1.920  0.6686  134.0   2.125   45.7  0.0957   48.9  0.1844  -76.8
 1.940  0.6699  133.4   2.100   45.2  0.0965   48.7  0.1845  -77.4
 1.960  0.6711  132.9   2.076   44.7  0.0972   48.6  0.1847  -77.9
 1.980  0.6725  132.3   2.053   44.1  0.0980   48.4  0.1848  -78.5
 2.000  0.6739  131.7   2.029   43.6  0.0988   48.3  0.1850  -79.0
 2.020  0.6748  131.2   2.010   43.1  0.0996   48.1  0.1847  -79.6
 2.040  0.6758  130.6   1.991   42.7  0.1005   48.0  0.1844  -80.2
 2.060  0.6769  130.1   1.973   42.2  0.1013   47.9  0.1841  -80.8
 2.080  0.6780  129.6   1.954   41.7  0.1022   47.7  0.1839  -81.5
 2.100  0.6792  129.1   1.936   41.2  0.1030   47.6  0.1837  -82.1
 2.120  0.6804  128.6   1.918   40.7  0.1038   47.4  0.1835  -82.7
 2.140  0.6816  128.0   1.900   40.2  0.1047   47.3  0.1833  -83.3
 2.160  0.6830  127.5   1.882   39.7  0.1055   47.2  0.1831  -83.9
 2.180  0.6844  127.0   1.865   39.1  0.1064   47.0  0.1830  -84.6
 2.200  0.6858  126.5   1.847   38.6  0.1072   46.9  0.1829  -85.2
 2.220  0.6868  126.0   1.831   38.2  0.1080   46.7  0.1828  -85.8
 2.240  0.6878  125.4   1.815   37.7  0.1088   46.5  0.1828  -86.4
 2.260  0.6890  124.9   1.800   37.2  0.1095   46.3  0.1828  -87.0
 2.280  0.6901  124.4   1.784   36.8  0.1103   46.1  0.1828  -87.6
 2.300  0.6914  123.8   1.768   36.3  0.1111   46.0  0.1828  -88.3
 2.320  0.6927  123.3   1.753   35.8  0.1119   45.8  0.1828  -88.9
 2.340  0.6940  122.8   1.738   35.3  0.1126   45.6  0.1829  -89.5
 2.360  0.6954  122.2   1.723   34.8  0.1134   45.4  0.1830  -90.1
 2.380  0.6969  121.7   1.708   34.3  0.1142   45.3  0.1831  -90.7
 2.400  0.6984  121.2   1.693   33.8  0.1150   45.1  0.1832  -91.3
 2.420  0.6995  120.7   1.678   33.4  0.1158   44.9  0.1831  -92.0
 2.440  0.7006  120.3   1.663   32.9  0.1165   44.8  0.1830  -92.6
 2.460  0.7017  119.8   1.648   32.5  0.1173   44.6  0.1830  -93.3
 2.480  0.7029  119.4   1.633   32.0  0.1180   44.4  0.1830  -94.0
 2.500  0.7042  118.9   1.618   31.6  0.1188   44.3  0.1830  -94.7
 2.520  0.7054  118.5   1.603   31.1  0.1195   44.1  0.1830  -95.3
 2.540  0.7068  118.0   1.589   30.6  0.1203   44.0  0.1831  -96.0
 2.560  0.7081  117.6   1.575   30.1  0.1211   43.8  0.1832  -96.7
 2.580  0.7095  117.1   1.560   29.6  0.1218   43.7  0.1833  -97.3
 2.600  0.7110  116.7   1.546   29.1  0.1226   43.5  0.1834  -98.0
 2.620  0.7118  116.2   1.534   28.6  0.1233   43.3  0.1836  -98.7
 2.640  0.7127  115.7   1.522   28.2  0.1240   43.1  0.1839  -99.3
 2.660  0.7136  115.3   1.511   27.7  0.1247   42.9  0.1842 -100.0
 2.680  0.7146  114.8   1.499   27.2  0.1255   42.7  0.1845 -100.7
 2.700  0.7156  114.3   1.488   26.7  0.1262   42.5  0.1848 -101.3
 2.720  0.7167  113.9   1.476   26.3  0.1269   42.3  0.1852 -102.0
 2.740  0.7178  113.4   1.465   25.7  0.1276   42.1  0.1856 -102.6
 2.760  0.7190  112.9   1.454   25.2  0.1283   42.0  0.1860 -103.3
 2.780  0.7202  112.5   1.443   24.7  0.1291   41.8  0.1864 -104.0
 2.800  0.7215  112.0   1.432   24.2  0.1298   41.6  0.1869 -104.6
 2.820  0.7228  111.6   1.421   23.8  0.1305   41.4  0.1870 -105.3
 2.840  0.7241  111.2   1.411   23.4  0.1313   41.2  0.1870 -106.1
 2.860  0.7254  110.8   1.400   23.0  0.1320   41.0  0.1871 -106.8
 2.880  0.7268  110.4   1.390   22.6  0.1327   40.9  0.1873 -107.5
 2.900  0.7282  110.0   1.379   22.2  0.1335   40.7  0.1875 -108.3
 2.920  0.7296  109.6   1.369   21.8  0.1342   40.5  0.1877 -109.0
 2.940  0.7311  109.2   1.358   21.3  0.1350   40.3  0.1879 -109.7
 2.960  0.7326  108.8   1.348   20.9  0.1357   40.1  0.1882 -110.5
 2.980  0.7341  108.4   1.338   20.4  0.1365   40.0  0.1885 -111.2
 3.000  0.7357  108.0   1.328   20.0  0.1372   39.8  0.1888 -111.9
 3.100  0.7393  106.0   1.282   18.2  0.1405   38.8  0.1908 -115.5
 3.200  0.7437  104.0   1.238   16.2  0.1438   37.9  0.1935 -119.0
 3.300  0.7491  102.0   1.195   14.1  0.1472   37.0  0.1969 -122.5
 3.400  0.7553  100.1   1.153   11.9  0.1506   36.1  0.2011 -125.8
 3.500  0.7624   98.2   1.114    9.5  0.1540   35.3  0.2058 -128.9
 3.600  0.7662   96.5   1.080    7.9  0.1571   34.3  0.2094 -132.4
 3.700  0.7706   94.9   1.048    6.2  0.1602   33.3  0.2137 -135.7
 3.800  0.7756   93.3   1.016    4.4  0.1634   32.3  0.2188 -138.9
 3.900  0.7813   91.7   0.985    2.4  0.1666   31.4  0.2245 -142.0
 4.000  0.7875   90.1   0.956    0.4  0.1699   30.5  0.2308 -144.9
 4.100  0.7898   88.6   0.928   -1.1  0.1725   29.5  0.2357 -148.0
 4.200  0.7927   87.1   0.901   -2.8  0.1751   28.6  0.2413 -150.9
 4.300  0.7961   85.6   0.875   -4.5  0.1778   27.7  0.2474 -153.7
 4.400  0.8000   84.2   0.849   -6.3  0.1805   26.8  0.2542 -156.4
 4.500  0.8044   82.7   0.825   -8.3  0.1833   25.9  0.2614 -158.9
 4.600  0.8066   81.5   0.804   -9.5  0.1859   25.2  0.2668 -161.3
 4.700  0.8091   80.4   0.784  -10.7  0.1886   24.5  0.2726 -163.7
 4.800  0.8120   79.3   0.764  -12.0  0.1913   23.8  0.2789 -165.9
 4.900  0.8151   78.1   0.744  -13.4  0.1940   23.1  0.2856 -168.1
 5.000  0.8186   77.0   0.725  -14.8  0.1968   22.5  0.2927 -170.1
 5.100  0.8207   76.0   0.709  -16.1  0.2002   21.4  0.3007 -172.2
 5.200  0.8231   74.9   0.693  -17.5  0.2036   20.4  0.3091 -174.1
 5.300  0.8258   73.9   0.677  -18.9  0.2071   19.4  0.3178 -176.0
 5.400  0.8287   72.9   0.662  -20.4  0.2107   18.4  0.3268 -177.7
 5.500  0.8319   71.9   0.647  -22.0  0.2143   17.5  0.3361 -179.4
 5.600  0.8349   70.9   0.633  -23.1  0.2166   16.5  0.3435  178.7
 5.700  0.8382   70.0   0.620  -24.2  0.2189   15.5  0.3512  177.0
 5.800  0.8417   69.1   0.607  -25.4  0.2213   14.6  0.3592  175.3
 5.900  0.8455   68.1   0.594  -26.7  0.2238   13.6  0.3675  173.6
 6.000  0.8494   67.2   0.582  -28.0  0.2263   12.7  0.3761  172.1
!
!  f       NFmin   Gammaopt  rn/50
! GHz       dB    MAG  ANG    -
!
! noise parameter not available yet for this operation point!
!
! (c) 2016  Infineon Technologies AG, Munich
