! Infineon Technologies  Discrete & RF Semiconductors
! BFP193
! VCE = 4.0 V,  IC =  4.0 mA
! Common Emitter S-Parameters:                            Jan 2016
# GHz  S  MA  R  50
!  f         S11            S21            S12            S22
! GHz     MAG   ANG      MAG   ANG      MAG   ANG      MAG   ANG
 0.010  0.8610   -4.5  12.855  178.3  0.0034   88.9  0.9903   -1.8
 0.015  0.8600   -6.5  12.725  176.4  0.0053   85.6  0.9878   -2.7
 0.020  0.8600   -8.5  12.610  174.4  0.0072   84.1  0.9855   -3.6
 0.025  0.8564  -10.5  12.558  173.2  0.0090   82.3  0.9828   -4.5
 0.030  0.8538  -12.6  12.513  172.0  0.0107   81.1  0.9804   -5.4
 0.035  0.8524  -14.7  12.472  170.7  0.0125   80.3  0.9783   -6.3
 0.040  0.8521  -16.8  12.438  169.5  0.0143   79.6  0.9763   -7.2
 0.045  0.8530  -18.8  12.410  168.2  0.0160   79.1  0.9746   -8.1
 0.050  0.8549  -20.9  12.387  167.0  0.0178   78.7  0.9732   -9.0
 0.055  0.8474  -22.8  12.310  165.9  0.0194   77.1  0.9676   -9.8
 0.060  0.8409  -24.7  12.237  164.7  0.0210   75.8  0.9622  -10.6
 0.065  0.8354  -26.7  12.170  163.5  0.0226   74.7  0.9570  -11.4
 0.070  0.8309  -28.7  12.108  162.4  0.0242   73.7  0.9519  -12.2
 0.075  0.8274  -30.7  12.051  161.2  0.0258   72.8  0.9471  -13.0
 0.080  0.8249  -32.7  11.999  160.0  0.0274   72.0  0.9425  -13.9
 0.085  0.8235  -34.8  11.952  158.8  0.0290   71.3  0.9380  -14.7
 0.090  0.8231  -36.8  11.911  157.6  0.0306   70.7  0.9338  -15.6
 0.095  0.8237  -38.9  11.875  156.3  0.0323   70.2  0.9298  -16.4
 0.100  0.8254  -40.9  11.845  155.1  0.0339   69.7  0.9260  -17.3
 0.105  0.8182  -42.6  11.729  154.0  0.0352   68.4  0.9190  -17.9
 0.110  0.8117  -44.4  11.617  152.9  0.0365   67.3  0.9122  -18.6
 0.115  0.8060  -46.2  11.510  151.8  0.0378   66.2  0.9055  -19.3
 0.120  0.8011  -48.0  11.407  150.7  0.0391   65.1  0.8989  -19.9
 0.125  0.7970  -49.8  11.308  149.5  0.0404   64.2  0.8924  -20.6
 0.130  0.7938  -51.7  11.215  148.3  0.0418   63.3  0.8861  -21.3
 0.135  0.7914  -53.6  11.126  147.1  0.0431   62.4  0.8799  -22.0
 0.140  0.7898  -55.4  11.042  145.9  0.0445   61.6  0.8738  -22.7
 0.145  0.7891  -57.3  10.964  144.7  0.0458   60.9  0.8679  -23.5
 0.150  0.7892  -59.2  10.890  143.4  0.0472   60.2  0.8621  -24.2
 0.155  0.7845  -60.7  10.787  142.6  0.0482   59.4  0.8554  -24.7
 0.160  0.7803  -62.3  10.685  141.8  0.0492   58.6  0.8487  -25.2
 0.165  0.7768  -63.8  10.587  140.9  0.0502   57.9  0.8421  -25.7
 0.170  0.7738  -65.4  10.490  140.1  0.0512   57.2  0.8355  -26.2
 0.175  0.7714  -67.0  10.396  139.2  0.0522   56.5  0.8291  -26.7
 0.180  0.7695  -68.6  10.304  138.3  0.0532   55.8  0.8227  -27.3
 0.185  0.7683  -70.2  10.215  137.4  0.0543   55.2  0.8163  -27.8
 0.190  0.7677  -71.8  10.128  136.5  0.0553   54.6  0.8101  -28.4
 0.195  0.7677  -73.4  10.044  135.6  0.0563   54.0  0.8039  -28.9
 0.200  0.7683  -75.0   9.963  134.6  0.0574   53.4  0.7978  -29.5
 0.220  0.7486  -80.6   9.551  131.4  0.0602   50.8  0.7712  -31.1
 0.240  0.7363  -86.3   9.171  128.0  0.0632   48.4  0.7451  -32.8
 0.260  0.7262  -91.6   8.815  125.0  0.0657   46.4  0.7213  -34.3
 0.280  0.7161  -96.3   8.469  122.5  0.0678   44.8  0.6994  -35.6
 0.300  0.7110 -101.1   8.140  119.8  0.0700   43.3  0.6779  -36.9
 0.320  0.6990 -104.7   7.839  118.1  0.0714   41.9  0.6601  -37.6
 0.340  0.6899 -108.3   7.545  116.3  0.0728   40.6  0.6425  -38.3
 0.360  0.6836 -112.1   7.260  114.3  0.0742   39.3  0.6249  -39.1
 0.380  0.6803 -115.9   6.984  112.1  0.0757   38.1  0.6075  -39.9
 0.400  0.6800 -119.7   6.719  109.8  0.0772   36.9  0.5902  -40.8
 0.420  0.6716 -122.5   6.489  108.3  0.0781   36.1  0.5784  -41.2
 0.440  0.6648 -125.4   6.263  106.8  0.0790   35.3  0.5667  -41.6
 0.450  0.6620 -126.8   6.152  105.9  0.0794   34.9  0.5609  -41.8
 0.460  0.6597 -128.3   6.042  105.1  0.0799   34.5  0.5550  -42.0
 0.480  0.6563 -131.2   5.827  103.3  0.0808   33.7  0.5433  -42.4
 0.500  0.6547 -134.2   5.618  101.3  0.0817   33.0  0.5317  -42.9
 0.520  0.6510 -136.5   5.463  100.1  0.0822   32.5  0.5228  -43.2
 0.540  0.6483 -138.9   5.311   98.8  0.0827   32.1  0.5140  -43.6
 0.560  0.6468 -141.3   5.162   97.4  0.0832   31.6  0.5052  -43.9
 0.580  0.6465 -143.7   5.016   95.9  0.0838   31.1  0.4964  -44.3
 0.600  0.6472 -146.1   4.873   94.4  0.0843   30.7  0.4876  -44.7
 0.620  0.6452 -148.0   4.749   93.3  0.0847   30.4  0.4813  -45.0
 0.640  0.6438 -149.9   4.627   92.2  0.0850   30.2  0.4751  -45.2
 0.660  0.6432 -151.9   4.507   91.0  0.0854   29.9  0.4688  -45.5
 0.680  0.6433 -153.8   4.388   89.8  0.0857   29.7  0.4626  -45.8
 0.700  0.6442 -155.7   4.272   88.5  0.0861   29.4  0.4564  -46.1
 0.720  0.6419 -157.3   4.170   87.6  0.0865   29.2  0.4518  -46.3
 0.740  0.6400 -158.8   4.070   86.7  0.0868   29.0  0.4473  -46.6
 0.760  0.6387 -160.4   3.970   85.7  0.0872   28.8  0.4428  -46.9
 0.780  0.6378 -162.0   3.872   84.7  0.0875   28.6  0.4382  -47.1
 0.800  0.6374 -163.6   3.775   83.6  0.0879   28.4  0.4337  -47.4
 0.820  0.6357 -164.9   3.694   82.8  0.0883   28.4  0.4308  -47.6
 0.840  0.6343 -166.2   3.614   81.9  0.0887   28.4  0.4279  -47.8
 0.860  0.6332 -167.5   3.535   81.0  0.0890   28.3  0.4250  -48.1
 0.880  0.6325 -168.9   3.457   80.0  0.0894   28.3  0.4221  -48.3
 0.900  0.6321 -170.2   3.380   79.0  0.0898   28.3  0.4192  -48.5
 0.920  0.6319 -171.6   3.317   78.2  0.0900   28.3  0.4171  -48.7
 0.940  0.6321 -173.0   3.255   77.3  0.0902   28.3  0.4149  -49.0
 0.960  0.6326 -174.4   3.194   76.5  0.0904   28.3  0.4128  -49.2
 0.980  0.6336 -175.8   3.134   75.5  0.0906   28.3  0.4107  -49.5
 1.000  0.6349 -177.2   3.074   74.6  0.0908   28.3  0.4086  -49.7
 1.020  0.6351 -178.5   3.023   73.9  0.0911   28.4  0.4064  -50.0
 1.040  0.6355 -179.7   2.973   73.1  0.0913   28.5  0.4042  -50.4
 1.060  0.6363  179.0   2.924   72.3  0.0916   28.7  0.4020  -50.7
 1.080  0.6374  177.8   2.874   71.5  0.0918   28.8  0.3999  -51.1
 1.100  0.6388  176.5   2.826   70.7  0.0921   28.9  0.3977  -51.4
 1.120  0.6399  175.5   2.781   70.0  0.0923   29.0  0.3962  -51.8
 1.140  0.6411  174.4   2.737   69.2  0.0926   29.2  0.3948  -52.1
 1.160  0.6426  173.4   2.692   68.4  0.0928   29.3  0.3933  -52.5
 1.180  0.6442  172.4   2.649   67.6  0.0931   29.5  0.3919  -52.8
 1.200  0.6461  171.4   2.606   66.8  0.0933   29.6  0.3905  -53.2
 1.220  0.6448  170.5   2.567   66.1  0.0937   29.7  0.3890  -53.5
 1.240  0.6436  169.5   2.528   65.4  0.0941   29.9  0.3875  -53.8
 1.260  0.6426  168.6   2.490   64.7  0.0944   30.0  0.3861  -54.2
 1.280  0.6418  167.6   2.452   64.0  0.0948   30.2  0.3846  -54.5
 1.300  0.6412  166.7   2.414   63.2  0.0952   30.3  0.3832  -54.8
 1.320  0.6421  165.7   2.380   62.6  0.0955   30.5  0.3824  -55.2
 1.340  0.6431  164.7   2.346   61.9  0.0959   30.7  0.3817  -55.6
 1.360  0.6444  163.7   2.313   61.3  0.0962   30.9  0.3810  -55.9
 1.380  0.6458  162.7   2.280   60.6  0.0966   31.1  0.3803  -56.3
 1.400  0.6475  161.7   2.247   59.9  0.0969   31.3  0.3796  -56.7
 1.420  0.6479  160.9   2.220   59.3  0.0973   31.6  0.3783  -57.1
 1.440  0.6485  160.2   2.194   58.7  0.0977   31.9  0.3770  -57.6
 1.460  0.6491  159.4   2.168   58.0  0.0981   32.3  0.3758  -58.0
 1.480  0.6499  158.7   2.142   57.4  0.0985   32.6  0.3745  -58.5
 1.500  0.6508  157.9   2.117   56.7  0.0989   32.9  0.3733  -58.9
 1.520  0.6519  157.0   2.089   56.0  0.0994   33.0  0.3724  -59.3
 1.540  0.6531  156.1   2.060   55.4  0.0999   33.2  0.3716  -59.7
 1.560  0.6545  155.2   2.033   54.7  0.1003   33.3  0.3707  -60.1
 1.580  0.6560  154.3   2.005   53.9  0.1008   33.5  0.3699  -60.5
 1.600  0.6577  153.4   1.978   53.2  0.1013   33.6  0.3691  -60.9
 1.620  0.6580  152.6   1.955   52.6  0.1018   33.9  0.3682  -61.3
 1.640  0.6584  151.7   1.931   52.0  0.1023   34.2  0.3674  -61.7
 1.660  0.6590  150.9   1.908   51.4  0.1028   34.4  0.3666  -62.2
 1.680  0.6597  150.0   1.886   50.8  0.1033   34.7  0.3658  -62.6
 1.700  0.6605  149.2   1.863   50.1  0.1038   35.0  0.3650  -63.0
 1.720  0.6616  148.5   1.845   49.5  0.1044   35.1  0.3651  -63.4
 1.740  0.6628  147.8   1.827   49.0  0.1050   35.2  0.3652  -63.8
 1.760  0.6641  147.2   1.810   48.4  0.1057   35.3  0.3654  -64.2
 1.780  0.6655  146.5   1.792   47.8  0.1063   35.4  0.3655  -64.6
 1.800  0.6670  145.8   1.775   47.2  0.1069   35.5  0.3657  -65.0
 1.820  0.6681  145.1   1.757   46.6  0.1075   35.8  0.3652  -65.6
 1.840  0.6693  144.4   1.739   46.0  0.1081   36.1  0.3647  -66.1
 1.860  0.6705  143.7   1.722   45.4  0.1086   36.3  0.3642  -66.7
 1.880  0.6719  143.0   1.704   44.7  0.1092   36.6  0.3638  -67.2
 1.900  0.6734  142.3   1.687   44.1  0.1098   36.9  0.3634  -67.8
 1.920  0.6743  141.6   1.669   43.6  0.1106   37.0  0.3625  -68.2
 1.940  0.6753  140.9   1.652   43.0  0.1114   37.1  0.3616  -68.7
 1.960  0.6764  140.3   1.634   42.5  0.1122   37.3  0.3607  -69.1
 1.980  0.6775  139.6   1.617   41.9  0.1130   37.4  0.3598  -69.6
 2.000  0.6788  138.9   1.600   41.3  0.1138   37.5  0.3590  -70.0
 2.020  0.6790  138.2   1.585   40.8  0.1146   37.7  0.3587  -70.5
 2.040  0.6793  137.6   1.569   40.2  0.1154   37.9  0.3585  -71.0
 2.060  0.6797  136.9   1.554   39.7  0.1161   38.0  0.3582  -71.6
 2.080  0.6802  136.3   1.539   39.2  0.1169   38.2  0.3580  -72.1
 2.100  0.6808  135.6   1.524   38.6  0.1177   38.4  0.3579  -72.6
 2.120  0.6815  135.0   1.509   38.0  0.1185   38.5  0.3577  -73.1
 2.140  0.6822  134.3   1.495   37.4  0.1192   38.7  0.3576  -73.6
 2.160  0.6831  133.7   1.480   36.8  0.1200   38.9  0.3576  -74.2
 2.180  0.6840  133.0   1.466   36.2  0.1208   39.0  0.3575  -74.7
 2.200  0.6850  132.4   1.452   35.6  0.1216   39.2  0.3575  -75.2
 2.220  0.6864  131.7   1.441   35.1  0.1224   39.3  0.3571  -75.8
 2.240  0.6879  131.1   1.430   34.5  0.1233   39.5  0.3567  -76.4
 2.260  0.6895  130.4   1.419   34.0  0.1241   39.6  0.3564  -76.9
 2.280  0.6912  129.7   1.408   33.5  0.1250   39.7  0.3561  -77.5
 2.300  0.6930  129.1   1.397   32.9  0.1258   39.9  0.3559  -78.1
 2.320  0.6949  128.4   1.387   32.3  0.1267   40.0  0.3557  -78.7
 2.340  0.6968  127.7   1.376   31.8  0.1275   40.1  0.3555  -79.3
 2.360  0.6989  127.1   1.366   31.2  0.1284   40.3  0.3554  -79.8
 2.380  0.7011  126.4   1.356   30.6  0.1292   40.4  0.3553  -80.4
 2.400  0.7033  125.8   1.346   30.0  0.1301   40.5  0.3552  -81.0
 2.420  0.7039  125.2   1.334   29.5  0.1311   40.6  0.3547  -81.6
 2.440  0.7045  124.6   1.323   29.1  0.1321   40.6  0.3542  -82.2
 2.460  0.7052  124.0   1.311   28.6  0.1332   40.7  0.3537  -82.8
 2.480  0.7060  123.3   1.300   28.1  0.1342   40.8  0.3533  -83.3
 2.500  0.7069  122.7   1.288   27.7  0.1352   40.9  0.3529  -83.9
 2.520  0.7079  122.1   1.277   27.2  0.1362   40.9  0.3526  -84.5
 2.540  0.7089  121.5   1.266   26.7  0.1372   41.0  0.3523  -85.1
 2.560  0.7100  120.9   1.255   26.1  0.1383   41.1  0.3520  -85.7
 2.580  0.7112  120.3   1.244   25.6  0.1393   41.1  0.3518  -86.3
 2.600  0.7125  119.7   1.233   25.1  0.1403   41.2  0.3516  -86.9
 2.620  0.7135  119.1   1.224   24.7  0.1414   41.2  0.3514  -87.5
 2.640  0.7145  118.6   1.216   24.2  0.1424   41.2  0.3513  -88.1
 2.660  0.7156  118.0   1.207   23.8  0.1435   41.3  0.3512  -88.8
 2.680  0.7168  117.4   1.199   23.3  0.1445   41.3  0.3511  -89.4
 2.700  0.7181  116.9   1.191   22.9  0.1456   41.3  0.3511  -90.0
 2.720  0.7194  116.3   1.182   22.4  0.1467   41.3  0.3511  -90.6
 2.740  0.7208  115.8   1.174   21.9  0.1477   41.3  0.3512  -91.2
 2.760  0.7223  115.2   1.166   21.5  0.1488   41.4  0.3513  -91.9
 2.780  0.7238  114.7   1.158   21.0  0.1498   41.4  0.3514  -92.5
 2.800  0.7254  114.1   1.150   20.5  0.1509   41.4  0.3516  -93.1
 2.820  0.7263  113.6   1.141   20.0  0.1521   41.4  0.3516  -93.8
 2.840  0.7273  113.1   1.133   19.6  0.1533   41.4  0.3516  -94.4
 2.860  0.7284  112.6   1.124   19.1  0.1544   41.4  0.3516  -95.1
 2.880  0.7295  112.2   1.115   18.6  0.1556   41.4  0.3517  -95.8
 2.900  0.7306  111.7   1.107   18.1  0.1568   41.3  0.3519  -96.5
 2.920  0.7318  111.2   1.099   17.6  0.1580   41.3  0.3521  -97.1
 2.940  0.7331  110.7   1.090   17.1  0.1592   41.3  0.3524  -97.8
 2.960  0.7344  110.2   1.082   16.6  0.1603   41.3  0.3527  -98.5
 2.980  0.7357  109.8   1.074   16.1  0.1615   41.3  0.3530  -99.1
 3.000  0.7371  109.3   1.066   15.6  0.1627   41.3  0.3534  -99.8
 3.100  0.7409  107.0   1.030   13.9  0.1689   40.9  0.3529 -103.3
 3.200  0.7460  104.7   0.995   12.1  0.1750   40.6  0.3536 -106.7
 3.300  0.7521  102.5   0.961   10.1  0.1812   40.3  0.3557 -110.2
 3.400  0.7595  100.3   0.928    8.0  0.1874   40.0  0.3590 -113.6
 3.500  0.7679   98.1   0.897    5.8  0.1936   39.7  0.3636 -116.9
 3.600  0.7705   96.1   0.872    4.3  0.2005   38.9  0.3659 -120.7
 3.700  0.7741   94.2   0.847    2.7  0.2074   38.1  0.3698 -124.5
 3.800  0.7785   92.3   0.823    1.0  0.2143   37.3  0.3753 -128.1
 3.900  0.7838   90.4   0.799   -0.8  0.2213   36.6  0.3822 -131.7
 4.000  0.7899   88.5   0.777   -2.7  0.2283   36.0  0.3906 -135.1
 4.100  0.7930   86.8   0.757   -4.0  0.2350   34.8  0.3950 -138.7
 4.200  0.7968   85.1   0.738   -5.3  0.2418   33.7  0.4008 -142.1
 4.300  0.8013   83.5   0.719   -6.7  0.2486   32.7  0.4081 -145.5
 4.400  0.8065   81.8   0.700   -8.2  0.2556   31.7  0.4167 -148.7
 4.500  0.8123   80.2   0.682   -9.8  0.2626   30.8  0.4266 -151.8
 4.600  0.8139   78.8   0.667  -10.8  0.2686   29.6  0.4320 -155.0
 4.700  0.8161   77.4   0.652  -11.9  0.2747   28.4  0.4386 -158.2
 4.800  0.8187   76.0   0.637  -13.0  0.2809   27.3  0.4466 -161.3
 4.900  0.8218   74.7   0.623  -14.2  0.2872   26.2  0.4558 -164.2
 5.000  0.8253   73.3   0.609  -15.4  0.2936   25.2  0.4662 -167.0
 5.100  0.8272   72.0   0.597  -16.1  0.2993   23.9  0.4707 -169.9
 5.200  0.8296   70.7   0.585  -16.9  0.3051   22.7  0.4764 -172.8
 5.300  0.8323   69.4   0.573  -17.6  0.3111   21.5  0.4832 -175.6
 5.400  0.8355   68.2   0.561  -18.5  0.3172   20.4  0.4912 -178.4
 5.500  0.8391   66.9   0.549  -19.3  0.3234   19.3  0.5003  179.0
 5.600  0.8386   65.8   0.541  -19.9  0.3286   17.9  0.5060  176.4
 5.700  0.8384   64.7   0.532  -20.6  0.3341   16.6  0.5127  173.9
 5.800  0.8386   63.7   0.524  -21.2  0.3396   15.3  0.5204  171.5
 5.900  0.8390   62.6   0.516  -21.9  0.3454   14.1  0.5290  169.2
 6.000  0.8397   61.5   0.508  -22.6  0.3513   12.9  0.5384  166.9
!
!  f       NFmin   Gammaopt  rn/50
! GHz       dB    MAG  ANG    -
!
! noise parameter not available yet for this operation point!
!
! (c) 2016  Infineon Technologies AG, Munich
