! Infineon Technologies  Discrete & RF Semiconductors
! BFP182W
! VCE = 8.0 V,  IC =  10 mA
! Common Emitter S-Parameters:                            Jan 2016
# GHz  S  MA  R  50
!  f         S11            S21            S12            S22
! GHz     MAG   ANG      MAG   ANG      MAG   ANG      MAG   ANG
 0.100  0.6824  -35.9  22.197  153.4  0.0176   73.1  0.9011  -16.7
 0.105  0.6746  -37.3  21.952  152.4  0.0183   72.5  0.8936  -17.2
 0.110  0.6672  -38.8  21.714  151.4  0.0190   71.9  0.8862  -17.8
 0.115  0.6602  -40.2  21.482  150.4  0.0197   71.3  0.8788  -18.4
 0.120  0.6537  -41.7  21.257  149.3  0.0204   70.8  0.8716  -18.9
 0.125  0.6476  -43.3  21.040  148.3  0.0211   70.3  0.8644  -19.5
 0.130  0.6420  -44.8  20.830  147.2  0.0218   69.8  0.8573  -20.1
 0.135  0.6369  -46.4  20.628  146.1  0.0225   69.4  0.8504  -20.7
 0.140  0.6323  -48.0  20.434  144.9  0.0232   69.0  0.8435  -21.3
 0.145  0.6282  -49.6  20.248  143.8  0.0239   68.7  0.8367  -22.0
 0.150  0.6246  -51.3  20.070  142.6  0.0246   68.3  0.8300  -22.6
 0.155  0.6177  -52.5  19.842  141.8  0.0251   67.8  0.8227  -23.0
 0.160  0.6111  -53.7  19.619  141.0  0.0256   67.4  0.8154  -23.4
 0.165  0.6047  -55.0  19.399  140.1  0.0262   67.0  0.8082  -23.8
 0.170  0.5987  -56.3  19.184  139.3  0.0267   66.6  0.8011  -24.2
 0.175  0.5930  -57.6  18.973  138.4  0.0272   66.2  0.7939  -24.6
 0.180  0.5875  -58.9  18.767  137.5  0.0278   65.8  0.7868  -25.0
 0.185  0.5824  -60.3  18.566  136.6  0.0283   65.4  0.7798  -25.5
 0.190  0.5777  -61.7  18.369  135.6  0.0288   65.1  0.7728  -25.9
 0.195  0.5733  -63.1  18.177  134.7  0.0294   64.7  0.7658  -26.3
 0.200  0.5692  -64.5  17.991  133.7  0.0299   64.4  0.7589  -26.8
 0.220  0.5475  -68.8  17.185  131.1  0.0317   63.4  0.7330  -27.9
 0.240  0.5292  -73.5  16.420  128.2  0.0334   62.5  0.7074  -29.1
 0.260  0.5123  -77.7  15.702  125.5  0.0350   61.8  0.6845  -30.0
 0.280  0.4957  -81.4  15.015  123.3  0.0363   61.1  0.6641  -30.7
 0.300  0.4814  -85.4  14.354  120.8  0.0377   60.5  0.6439  -31.4
 0.320  0.4658  -88.4  13.799  119.2  0.0390   60.3  0.6280  -31.7
 0.340  0.4516  -91.7  13.254  117.6  0.0403   60.2  0.6120  -32.0
 0.360  0.4390  -95.1  12.722  115.7  0.0415   60.1  0.5961  -32.3
 0.380  0.4280  -98.7  12.204  113.8  0.0428   59.9  0.5803  -32.6
 0.400  0.4188 -102.5  11.702  111.6  0.0441   59.8  0.5644  -33.0
 0.420  0.4097 -104.9  11.312  110.5  0.0453   59.8  0.5540  -33.1
 0.440  0.4013 -107.4  10.927  109.3  0.0464   59.9  0.5436  -33.2
 0.450  0.3974 -108.6  10.737  108.6  0.0470   59.9  0.5384  -33.2
 0.460  0.3937 -109.9  10.548  108.0  0.0476   59.9  0.5333  -33.2
 0.480  0.3869 -112.6  10.174  106.6  0.0487   60.0  0.5229  -33.3
 0.500  0.3810 -115.4   9.806  105.1  0.0499   60.0  0.5125  -33.4
 0.520  0.3749 -117.5   9.518  104.2  0.0511   60.2  0.5053  -33.4
 0.540  0.3693 -119.6   9.233  103.2  0.0523   60.4  0.4981  -33.4
 0.560  0.3643 -121.8   8.951  102.2  0.0535   60.6  0.4909  -33.5
 0.580  0.3598 -124.1   8.672  101.1  0.0547   60.8  0.4837  -33.5
 0.600  0.3559 -126.4   8.396   99.9  0.0559   61.0  0.4765  -33.5
 0.620  0.3521 -128.1   8.173   99.1  0.0570   61.2  0.4716  -33.4
 0.640  0.3486 -129.9   7.952   98.2  0.0581   61.5  0.4667  -33.4
 0.660  0.3454 -131.6   7.733   97.4  0.0593   61.7  0.4618  -33.3
 0.680  0.3426 -133.5   7.516   96.4  0.0604   61.9  0.4569  -33.3
 0.700  0.3401 -135.3   7.301   95.4  0.0615   62.1  0.4520  -33.2
 0.720  0.3379 -136.9   7.136   94.7  0.0626   62.3  0.4483  -33.2
 0.740  0.3361 -138.6   6.972   94.1  0.0638   62.6  0.4446  -33.2
 0.760  0.3345 -140.2   6.809   93.3  0.0649   62.8  0.4410  -33.3
 0.780  0.3331 -141.9   6.648   92.6  0.0661   63.0  0.4373  -33.3
 0.800  0.3321 -143.6   6.487   91.8  0.0672   63.2  0.4336  -33.3
 0.820  0.3290 -144.9   6.349   91.2  0.0685   63.4  0.4309  -33.2
 0.840  0.3260 -146.2   6.211   90.6  0.0697   63.5  0.4282  -33.2
 0.860  0.3232 -147.6   6.074   90.0  0.0710   63.7  0.4254  -33.1
 0.880  0.3206 -148.9   5.938   89.3  0.0722   63.9  0.4227  -33.1
 0.900  0.3182 -150.3   5.803   88.6  0.0735   64.0  0.4200  -33.0
 0.920  0.3182 -151.5   5.698   88.0  0.0747   64.2  0.4180  -33.1
 0.940  0.3182 -152.7   5.593   87.5  0.0758   64.4  0.4161  -33.2
 0.960  0.3185 -154.0   5.489   86.9  0.0770   64.6  0.4141  -33.2
 0.980  0.3189 -155.2   5.386   86.2  0.0781   64.7  0.4122  -33.3
 1.000  0.3194 -156.4   5.283   85.6  0.0793   64.9  0.4102  -33.4
 1.020  0.3185 -157.4   5.198   85.2  0.0805   65.0  0.4085  -33.5
 1.040  0.3176 -158.4   5.113   84.7  0.0818   65.1  0.4069  -33.5
 1.060  0.3169 -159.4   5.028   84.2  0.0830   65.2  0.4052  -33.6
 1.080  0.3163 -160.4   4.944   83.7  0.0842   65.3  0.4036  -33.7
 1.100  0.3157 -161.5   4.860   83.2  0.0854   65.4  0.4019  -33.7
 1.120  0.3153 -162.5   4.777   82.7  0.0867   65.5  0.4003  -33.8
 1.140  0.3150 -163.5   4.693   82.2  0.0879   65.6  0.3986  -33.9
 1.160  0.3148 -164.5   4.611   81.6  0.0891   65.6  0.3970  -34.0
 1.180  0.3146 -165.6   4.529   81.0  0.0904   65.7  0.3953  -34.0
 1.200  0.3146 -166.6   4.447   80.4  0.0916   65.8  0.3937  -34.1
 1.220  0.3143 -167.4   4.386   80.0  0.0928   65.9  0.3928  -34.2
 1.240  0.3140 -168.2   4.326   79.6  0.0941   66.0  0.3919  -34.3
 1.260  0.3139 -169.1   4.266   79.2  0.0953   66.0  0.3909  -34.4
 1.280  0.3137 -169.9   4.206   78.7  0.0965   66.1  0.3900  -34.5
 1.300  0.3137 -170.7   4.147   78.3  0.0977   66.2  0.3891  -34.5
 1.320  0.3137 -171.5   4.087   77.8  0.0990   66.2  0.3882  -34.6
 1.340  0.3138 -172.3   4.028   77.3  0.1002   66.3  0.3872  -34.7
 1.360  0.3139 -173.2   3.970   76.8  0.1014   66.4  0.3863  -34.8
 1.380  0.3141 -174.0   3.911   76.3  0.1027   66.4  0.3854  -34.9
 1.400  0.3144 -174.8   3.853   75.8  0.1039   66.5  0.3845  -35.0
 1.420  0.3148 -175.4   3.805   75.4  0.1052   66.6  0.3837  -35.2
 1.440  0.3152 -176.1   3.757   75.0  0.1064   66.7  0.3829  -35.4
 1.460  0.3157 -176.7   3.709   74.5  0.1077   66.7  0.3821  -35.6
 1.480  0.3162 -177.4   3.661   74.1  0.1089   66.8  0.3814  -35.8
 1.500  0.3167 -178.0   3.614   73.6  0.1102   66.9  0.3806  -36.0
 1.520  0.3168 -178.8   3.573   73.2  0.1115   66.9  0.3800  -36.1
 1.540  0.3169 -179.6   3.531   72.8  0.1128   66.9  0.3794  -36.2
 1.560  0.3171  179.7   3.490   72.4  0.1141   67.0  0.3789  -36.2
 1.580  0.3173  178.9   3.450   71.9  0.1154   67.0  0.3783  -36.3
 1.600  0.3176  178.1   3.409   71.5  0.1167   67.0  0.3777  -36.4
 1.620  0.3180  177.6   3.373   71.1  0.1180   67.0  0.3773  -36.6
 1.640  0.3184  177.0   3.338   70.8  0.1193   67.1  0.3768  -36.8
 1.660  0.3189  176.5   3.303   70.4  0.1206   67.1  0.3764  -36.9
 1.680  0.3193  175.9   3.268   70.0  0.1219   67.1  0.3759  -37.1
 1.700  0.3198  175.4   3.233   69.7  0.1232   67.2  0.3755  -37.3
 1.720  0.3204  174.8   3.198   69.3  0.1245   67.2  0.3751  -37.5
 1.740  0.3209  174.3   3.163   68.9  0.1258   67.2  0.3747  -37.7
 1.760  0.3215  173.8   3.129   68.4  0.1271   67.2  0.3742  -37.8
 1.780  0.3222  173.2   3.094   68.0  0.1284   67.3  0.3738  -38.0
 1.800  0.3228  172.7   3.060   67.6  0.1297   67.3  0.3734  -38.2
 1.820  0.3229  172.1   3.031   67.3  0.1310   67.3  0.3732  -38.4
 1.840  0.3230  171.4   3.003   66.9  0.1323   67.3  0.3730  -38.6
 1.860  0.3232  170.8   2.975   66.5  0.1335   67.3  0.3727  -38.8
 1.880  0.3234  170.2   2.946   66.2  0.1348   67.3  0.3725  -39.0
 1.900  0.3237  169.5   2.918   65.8  0.1361   67.3  0.3723  -39.2
 1.920  0.3240  168.9   2.890   65.4  0.1374   67.3  0.3721  -39.5
 1.940  0.3243  168.3   2.863   65.0  0.1387   67.3  0.3719  -39.7
 1.960  0.3247  167.7   2.835   64.6  0.1399   67.3  0.3718  -39.9
 1.980  0.3251  167.0   2.807   64.2  0.1412   67.3  0.3716  -40.1
 2.000  0.3256  166.4   2.780   63.8  0.1425   67.3  0.3714  -40.3
 2.020  0.3258  166.0   2.757   63.5  0.1438   67.3  0.3715  -40.5
 2.040  0.3260  165.5   2.734   63.1  0.1451   67.3  0.3717  -40.8
 2.060  0.3263  165.1   2.711   62.8  0.1464   67.3  0.3718  -41.0
 2.080  0.3265  164.7   2.689   62.4  0.1477   67.3  0.3720  -41.2
 2.100  0.3268  164.2   2.666   62.1  0.1490   67.2  0.3722  -41.5
 2.120  0.3271  163.8   2.644   61.7  0.1504   67.2  0.3723  -41.7
 2.140  0.3274  163.4   2.621   61.3  0.1517   67.2  0.3725  -41.9
 2.160  0.3278  163.0   2.599   61.0  0.1530   67.2  0.3727  -42.1
 2.180  0.3281  162.5   2.577   60.6  0.1543   67.2  0.3729  -42.4
 2.200  0.3285  162.1   2.555   60.2  0.1556   67.2  0.3731  -42.6
 2.220  0.3289  161.7   2.536   59.9  0.1570   67.2  0.3731  -42.9
 2.240  0.3293  161.2   2.518   59.6  0.1584   67.2  0.3731  -43.1
 2.260  0.3297  160.8   2.499   59.3  0.1597   67.1  0.3732  -43.4
 2.280  0.3301  160.3   2.481   58.9  0.1611   67.1  0.3732  -43.6
 2.300  0.3306  159.9   2.462   58.6  0.1625   67.1  0.3733  -43.9
 2.320  0.3310  159.4   2.444   58.3  0.1639   67.1  0.3733  -44.2
 2.340  0.3315  159.0   2.426   57.9  0.1653   67.1  0.3734  -44.4
 2.360  0.3320  158.6   2.408   57.6  0.1666   67.0  0.3734  -44.7
 2.380  0.3326  158.1   2.390   57.3  0.1680   67.0  0.3735  -44.9
 2.400  0.3331  157.7   2.372   56.9  0.1694   67.0  0.3736  -45.2
 2.420  0.3333  157.2   2.353   56.6  0.1707   67.0  0.3736  -45.3
 2.440  0.3336  156.6   2.335   56.2  0.1719   66.9  0.3736  -45.5
 2.460  0.3339  156.1   2.316   55.8  0.1732   66.9  0.3736  -45.6
 2.480  0.3342  155.5   2.297   55.5  0.1744   66.8  0.3736  -45.8
 2.500  0.3346  155.0   2.279   55.1  0.1757   66.8  0.3736  -45.9
 2.520  0.3354  154.6   2.265   54.8  0.1771   66.7  0.3737  -46.2
 2.540  0.3362  154.2   2.252   54.6  0.1785   66.7  0.3737  -46.5
 2.560  0.3370  153.9   2.238   54.3  0.1799   66.6  0.3738  -46.7
 2.580  0.3379  153.5   2.225   54.0  0.1813   66.6  0.3739  -47.0
 2.600  0.3387  153.1   2.212   53.7  0.1827   66.5  0.3740  -47.3
 2.620  0.3396  152.8   2.198   53.4  0.1841   66.4  0.3741  -47.6
 2.640  0.3405  152.4   2.185   53.1  0.1855   66.4  0.3742  -47.9
 2.660  0.3414  152.0   2.172   52.8  0.1869   66.3  0.3743  -48.2
 2.680  0.3423  151.7   2.159   52.5  0.1883   66.3  0.3745  -48.4
 2.700  0.3432  151.3   2.145   52.2  0.1897   66.2  0.3746  -48.7
 2.720  0.3442  150.9   2.132   51.9  0.1911   66.2  0.3748  -49.0
 2.740  0.3451  150.6   2.119   51.6  0.1925   66.1  0.3749  -49.3
 2.760  0.3461  150.2   2.107   51.3  0.1939   66.1  0.3751  -49.6
 2.780  0.3471  149.9   2.094   51.0  0.1953   66.0  0.3753  -49.8
 2.800  0.3481  149.5   2.081   50.7  0.1967   66.0  0.3754  -50.1
 2.820  0.3491  149.2   2.068   50.3  0.1981   65.9  0.3756  -50.4
 2.840  0.3501  148.8   2.056   50.0  0.1995   65.9  0.3758  -50.7
 2.860  0.3511  148.5   2.043   49.7  0.2009   65.8  0.3761  -51.0
 2.880  0.3522  148.1   2.030   49.3  0.2023   65.8  0.3763  -51.2
 2.900  0.3532  147.8   2.018   49.0  0.2037   65.7  0.3765  -51.5
 2.920  0.3543  147.4   2.006   48.6  0.2051   65.7  0.3768  -51.8
 2.940  0.3554  147.1   1.993   48.3  0.2065   65.6  0.3770  -52.1
 2.960  0.3565  146.8   1.981   47.9  0.2079   65.6  0.3773  -52.3
 2.980  0.3576  146.4   1.969   47.6  0.2093   65.5  0.3775  -52.6
 3.000  0.3587  146.1   1.957   47.2  0.2107   65.5  0.3778  -52.9
 3.100  0.3609  144.4   1.910   45.9  0.2182   65.1  0.3779  -54.5
 3.200  0.3633  142.7   1.865   44.5  0.2257   64.7  0.3783  -56.0
 3.300  0.3661  141.0   1.821   43.0  0.2332   64.4  0.3790  -57.6
 3.400  0.3692  139.4   1.778   41.5  0.2408   64.0  0.3800  -59.2
 3.500  0.3726  137.8   1.736   39.9  0.2483   63.7  0.3812  -60.7
 3.600  0.3792  135.9   1.700   38.5  0.2555   63.1  0.3812  -62.3
 3.700  0.3862  134.0   1.665   37.1  0.2628   62.6  0.3815  -64.0
 3.800  0.3935  132.2   1.631   35.6  0.2700   62.1  0.3821  -65.6
 3.900  0.4013  130.5   1.598   34.1  0.2773   61.6  0.3830  -67.2
 4.000  0.4094  128.8   1.566   32.5  0.2846   61.2  0.3842  -68.8
 4.100  0.4112  127.1   1.535   31.4  0.2916   60.6  0.3829  -70.7
 4.200  0.4134  125.5   1.505   30.2  0.2986   60.0  0.3821  -72.6
 4.300  0.4159  123.8   1.476   28.9  0.3057   59.4  0.3817  -74.6
 4.400  0.4188  122.2   1.447   27.6  0.3128   58.8  0.3817  -76.5
 4.500  0.4220  120.6   1.419   26.3  0.3199   58.3  0.3822  -78.4
 4.600  0.4286  119.5   1.397   25.1  0.3274   57.8  0.3811  -80.1
 4.700  0.4353  118.4   1.375   23.9  0.3350   57.2  0.3803  -81.8
 4.800  0.4423  117.3   1.353   22.7  0.3426   56.7  0.3798  -83.5
 4.900  0.4493  116.3   1.333   21.4  0.3503   56.3  0.3797  -85.2
 5.000  0.4565  115.3   1.313   20.1  0.3579   55.8  0.3799  -86.9
 5.100  0.4595  113.8   1.293   19.0  0.3661   55.2  0.3800  -88.5
 5.200  0.4628  112.3   1.274   17.9  0.3743   54.6  0.3804  -90.1
 5.300  0.4665  110.8   1.255   16.8  0.3825   54.1  0.3811  -91.7
 5.400  0.4704  109.3   1.237   15.6  0.3908   53.6  0.3820  -93.2
 5.500  0.4747  107.9   1.219   14.4  0.3991   53.1  0.3833  -94.8
 5.600  0.4778  106.6   1.200   13.4  0.4080   52.4  0.3844  -96.4
 5.700  0.4812  105.3   1.182   12.3  0.4170   51.8  0.3859  -98.0
 5.800  0.4848  104.1   1.164   11.3  0.4260   51.2  0.3876  -99.6
 5.900  0.4886  102.8   1.147   10.1  0.4351   50.6  0.3897 -101.2
 6.000  0.4927  101.6   1.130    9.0  0.4442   50.0  0.3920 -102.7
!
!  f       NFmin   Gammaopt  rn/50
! GHz       dB    MAG  ANG    -
 0.450      1.50  0.26   43   0.28
 0.900      1.60  0.24   87   0.22
 1.800      2.10  0.20  170   0.20
!
! (c) 2016  Infineon Technologies AG, Munich
