! Infineon Technologies  Discrete & RF Semiconductors
! BFP193W
! VCE = 3.0 V,  IC =  3.0 mA
! Common Emitter S-Parameters:                            Jan 2016
# GHz  S  MA  R  50
!  f         S11            S21            S12            S22
! GHz     MAG   ANG      MAG   ANG      MAG   ANG      MAG   ANG
 0.010  0.8892   -3.8   9.898  177.0  0.0041   89.6  0.9994   -1.0
 0.015  0.8882   -5.8   9.917  176.2  0.0061   86.3  0.9988   -2.3
 0.020  0.8883   -7.8   9.938  175.5  0.0082   84.6  0.9988   -3.6
 0.025  0.8844   -9.6   9.927  174.4  0.0103   84.1  0.9936   -4.4
 0.030  0.8815  -11.5   9.920  173.3  0.0125   83.8  0.9885   -5.2
 0.035  0.8797  -13.4   9.890  172.2  0.0144   82.6  0.9860   -6.0
 0.040  0.8789  -15.4   9.864  171.1  0.0164   81.7  0.9837   -6.9
 0.045  0.8791  -17.4   9.842  169.9  0.0183   81.0  0.9816   -7.7
 0.050  0.8804  -19.3   9.823  168.8  0.0203   80.4  0.9797   -8.6
 0.055  0.8751  -21.1   9.767  167.8  0.0221   78.5  0.9754   -9.3
 0.060  0.8706  -22.9   9.713  166.7  0.0239   77.0  0.9713  -10.1
 0.065  0.8669  -24.7   9.663  165.7  0.0258   75.6  0.9673  -10.8
 0.070  0.8642  -26.5   9.617  164.6  0.0277   74.4  0.9635  -11.6
 0.075  0.8623  -28.4   9.573  163.6  0.0295   73.4  0.9599  -12.3
 0.080  0.8614  -30.2   9.533  162.5  0.0314   72.5  0.9564  -13.1
 0.085  0.8613  -32.1   9.496  161.4  0.0333   71.7  0.9531  -13.9
 0.090  0.8621  -33.9   9.463  160.3  0.0352   71.0  0.9500  -14.6
 0.095  0.8639  -35.8   9.433  159.2  0.0371   70.4  0.9471  -15.4
 0.100  0.8665  -37.6   9.407  158.1  0.0390   69.8  0.9443  -16.2
 0.105  0.8618  -39.2   9.341  157.1  0.0405   68.6  0.9385  -16.9
 0.110  0.8578  -40.9   9.278  156.2  0.0420   67.5  0.9329  -17.6
 0.115  0.8546  -42.6   9.218  155.2  0.0436   66.5  0.9273  -18.3
 0.120  0.8520  -44.3   9.161  154.2  0.0451   65.6  0.9220  -19.0
 0.125  0.8503  -46.0   9.106  153.1  0.0467   64.7  0.9167  -19.7
 0.130  0.8492  -47.7   9.055  152.1  0.0482   63.9  0.9117  -20.4
 0.135  0.8490  -49.4   9.006  151.1  0.0498   63.1  0.9067  -21.2
 0.140  0.8495  -51.1   8.960  150.0  0.0514   62.4  0.9019  -21.9
 0.145  0.8507  -52.8   8.918  149.0  0.0530   61.7  0.8973  -22.6
 0.150  0.8527  -54.5   8.878  147.9  0.0546   61.1  0.8928  -23.4
 0.155  0.8480  -55.9   8.800  147.1  0.0558   60.2  0.8866  -23.9
 0.160  0.8439  -57.4   8.723  146.3  0.0571   59.4  0.8806  -24.5
 0.165  0.8404  -58.9   8.649  145.4  0.0583   58.6  0.8745  -25.0
 0.170  0.8374  -60.4   8.576  144.6  0.0596   57.8  0.8686  -25.5
 0.175  0.8349  -61.9   8.505  143.7  0.0608   57.1  0.8628  -26.1
 0.180  0.8331  -63.4   8.436  142.9  0.0621   56.4  0.8570  -26.7
 0.185  0.8318  -64.9   8.369  142.0  0.0634   55.7  0.8513  -27.2
 0.190  0.8311  -66.4   8.304  141.1  0.0647   55.0  0.8457  -27.8
 0.195  0.8310  -67.9   8.242  140.1  0.0660   54.4  0.8402  -28.4
 0.200  0.8314  -69.4   8.181  139.2  0.0673   53.8  0.8348  -29.0
 0.220  0.8217  -74.4   7.909  136.5  0.0712   51.0  0.8125  -30.9
 0.240  0.8184  -79.5   7.656  133.5  0.0752   48.5  0.7912  -32.9
 0.260  0.8130  -84.3   7.399  130.7  0.0786   46.3  0.7695  -34.6
 0.280  0.8042  -88.8   7.132  128.1  0.0814   44.1  0.7470  -35.9
 0.300  0.8005  -93.4   6.881  125.2  0.0843   42.1  0.7249  -37.4
 0.320  0.7902  -96.9   6.651  123.4  0.0861   40.3  0.7074  -38.4
 0.340  0.7828 -100.4   6.429  121.4  0.0879   38.5  0.6901  -39.5
 0.360  0.7784 -104.0   6.214  119.3  0.0898   36.8  0.6731  -40.6
 0.380  0.7771 -107.6   6.009  117.1  0.0918   35.2  0.6563  -41.8
 0.400  0.7789 -111.2   5.813  114.7  0.0939   33.7  0.6398  -43.0
 0.420  0.7731 -113.9   5.633  113.2  0.0950   32.5  0.6273  -43.7
 0.440  0.7690 -116.5   5.457  111.7  0.0961   31.3  0.6150  -44.4
 0.450  0.7675 -117.9   5.371  110.8  0.0967   30.8  0.6088  -44.8
 0.460  0.7665 -119.3   5.286  110.0  0.0973   30.2  0.6027  -45.1
 0.480  0.7659 -122.0   5.119  108.2  0.0985   29.1  0.5906  -45.9
 0.500  0.7669 -124.7   4.958  106.3  0.0997   28.0  0.5785  -46.7
 0.520  0.7633 -126.8   4.821  105.1  0.1003   27.1  0.5692  -47.2
 0.540  0.7608 -128.9   4.685  103.9  0.1008   26.2  0.5599  -47.8
 0.560  0.7592 -131.0   4.552  102.6  0.1014   25.3  0.5507  -48.4
 0.580  0.7587 -133.1   4.422  101.2  0.1021   24.5  0.5416  -49.0
 0.600  0.7592 -135.2   4.294   99.7  0.1027   23.6  0.5325  -49.6
 0.620  0.7573 -136.9   4.192   98.7  0.1030   23.0  0.5259  -50.0
 0.640  0.7559 -138.5   4.091   97.6  0.1033   22.3  0.5193  -50.4
 0.660  0.7553 -140.2   3.992   96.5  0.1036   21.7  0.5128  -50.8
 0.680  0.7552 -141.8   3.894   95.3  0.1039   21.1  0.5063  -51.3
 0.700  0.7558 -143.5   3.798   94.1  0.1042   20.5  0.4998  -51.7
 0.720  0.7536 -144.9   3.709   93.2  0.1043   20.0  0.4953  -52.1
 0.740  0.7519 -146.2   3.621   92.2  0.1045   19.4  0.4908  -52.6
 0.760  0.7505 -147.6   3.535   91.2  0.1047   18.9  0.4863  -53.0
 0.780  0.7496 -149.0   3.449   90.1  0.1048   18.3  0.4819  -53.4
 0.800  0.7492 -150.4   3.365   89.0  0.1050   17.8  0.4775  -53.9
 0.820  0.7486 -151.6   3.296   88.2  0.1050   17.4  0.4739  -54.3
 0.840  0.7484 -152.7   3.228   87.4  0.1050   17.0  0.4703  -54.7
 0.860  0.7484 -153.9   3.161   86.5  0.1050   16.7  0.4667  -55.1
 0.880  0.7487 -155.0   3.094   85.6  0.1050   16.3  0.4631  -55.5
 0.900  0.7494 -156.2   3.028   84.7  0.1050   15.9  0.4596  -55.9
 0.920  0.7487 -157.2   2.969   84.0  0.1049   15.6  0.4572  -56.3
 0.940  0.7482 -158.1   2.910   83.2  0.1049   15.2  0.4548  -56.8
 0.960  0.7480 -159.1   2.852   82.5  0.1048   14.9  0.4525  -57.2
 0.980  0.7479 -160.0   2.794   81.6  0.1048   14.5  0.4502  -57.7
 1.000  0.7481 -161.0   2.737   80.8  0.1047   14.2  0.4479  -58.1
 1.020  0.7482 -161.9   2.693   80.1  0.1046   14.0  0.4460  -58.5
 1.040  0.7484 -162.8   2.649   79.4  0.1045   13.7  0.4442  -58.8
 1.060  0.7488 -163.7   2.605   78.7  0.1044   13.5  0.4423  -59.2
 1.080  0.7494 -164.6   2.563   77.9  0.1043   13.2  0.4405  -59.5
 1.100  0.7502 -165.5   2.520   77.1  0.1042   13.0  0.4387  -59.9
 1.120  0.7496 -166.3   2.478   76.4  0.1041   12.8  0.4380  -60.3
 1.140  0.7492 -167.2   2.437   75.7  0.1040   12.5  0.4373  -60.7
 1.160  0.7489 -168.0   2.396   75.0  0.1038   12.3  0.4366  -61.2
 1.180  0.7488 -168.9   2.355   74.3  0.1037   12.0  0.4359  -61.6
 1.200  0.7488 -169.7   2.315   73.5  0.1036   11.8  0.4353  -62.0
 1.220  0.7494 -170.5   2.281   72.9  0.1033   11.7  0.4342  -62.4
 1.240  0.7501 -171.2   2.248   72.2  0.1031   11.7  0.4331  -62.9
 1.260  0.7509 -172.0   2.214   71.5  0.1028   11.6  0.4320  -63.3
 1.280  0.7519 -172.7   2.182   70.8  0.1026   11.6  0.4309  -63.8
 1.300  0.7530 -173.5   2.149   70.1  0.1023   11.5  0.4299  -64.2
 1.320  0.7528 -174.1   2.120   69.5  0.1021   11.4  0.4295  -64.7
 1.340  0.7528 -174.7   2.091   68.9  0.1019   11.3  0.4291  -65.1
 1.360  0.7528 -175.3   2.063   68.3  0.1017   11.1  0.4287  -65.6
 1.380  0.7528 -175.9   2.035   67.7  0.1015   11.0  0.4284  -66.0
 1.400  0.7530 -176.5   2.007   67.0  0.1013   10.9  0.4281  -66.5
 1.420  0.7532 -177.1   1.982   66.5  0.1009   10.9  0.4271  -67.0
 1.440  0.7535 -177.7   1.957   65.9  0.1006   11.0  0.4262  -67.4
 1.460  0.7539 -178.4   1.932   65.4  0.1002   11.0  0.4253  -67.9
 1.480  0.7543 -179.0   1.907   64.8  0.0999   11.1  0.4244  -68.3
 1.500  0.7549 -179.6   1.883   64.2  0.0995   11.1  0.4236  -68.8
 1.520  0.7553  179.8   1.861   63.6  0.0993   11.1  0.4237  -69.2
 1.540  0.7557  179.1   1.838   63.0  0.0990   11.2  0.4238  -69.6
 1.560  0.7562  178.5   1.816   62.3  0.0988   11.2  0.4239  -69.9
 1.580  0.7569  177.8   1.795   61.7  0.0985   11.3  0.4240  -70.3
 1.600  0.7576  177.2   1.773   61.0  0.0983   11.3  0.4242  -70.7
 1.620  0.7581  176.7   1.753   60.5  0.0980   11.4  0.4241  -71.2
 1.640  0.7587  176.1   1.733   60.0  0.0976   11.4  0.4241  -71.8
 1.660  0.7594  175.6   1.714   59.4  0.0973   11.5  0.4241  -72.3
 1.680  0.7601  175.0   1.694   58.9  0.0969   11.5  0.4242  -72.9
 1.700  0.7609  174.5   1.675   58.3  0.0966   11.6  0.4243  -73.4
 1.720  0.7607  174.0   1.656   57.7  0.0965   11.7  0.4238  -73.8
 1.740  0.7606  173.5   1.637   57.2  0.0963   11.9  0.4234  -74.2
 1.760  0.7605  172.9   1.618   56.6  0.0962   12.0  0.4230  -74.7
 1.780  0.7605  172.4   1.599   56.0  0.0960   12.2  0.4226  -75.1
 1.800  0.7606  171.9   1.581   55.4  0.0959   12.3  0.4222  -75.5
 1.820  0.7603  171.3   1.565   54.9  0.0957   12.4  0.4229  -75.9
 1.840  0.7600  170.7   1.548   54.4  0.0954   12.5  0.4236  -76.3
 1.860  0.7598  170.2   1.532   53.8  0.0952   12.7  0.4244  -76.8
 1.880  0.7597  169.6   1.516   53.3  0.0949   12.8  0.4251  -77.2
 1.900  0.7597  169.0   1.500   52.7  0.0947   12.9  0.4259  -77.6
 1.920  0.7602  168.5   1.486   52.2  0.0945   13.0  0.4265  -78.1
 1.940  0.7608  168.0   1.472   51.7  0.0943   13.2  0.4270  -78.6
 1.960  0.7615  167.6   1.458   51.2  0.0942   13.3  0.4277  -79.0
 1.980  0.7622  167.1   1.444   50.7  0.0940   13.5  0.4283  -79.5
 2.000  0.7629  166.6   1.430   50.2  0.0938   13.6  0.4290  -80.0
 2.020  0.7633  166.1   1.417   49.7  0.0936   13.8  0.4293  -80.5
 2.040  0.7638  165.7   1.404   49.3  0.0934   14.0  0.4296  -81.0
 2.060  0.7644  165.2   1.392   48.8  0.0932   14.2  0.4299  -81.5
 2.080  0.7650  164.8   1.379   48.3  0.0929   14.5  0.4303  -82.0
 2.100  0.7656  164.3   1.367   47.8  0.0927   14.7  0.4307  -82.5
 2.120  0.7663  163.8   1.354   47.3  0.0925   14.9  0.4311  -83.0
 2.140  0.7671  163.4   1.342   46.7  0.0923   15.1  0.4315  -83.4
 2.160  0.7679  162.9   1.330   46.2  0.0921   15.4  0.4320  -83.9
 2.180  0.7687  162.5   1.318   45.7  0.0919   15.6  0.4325  -84.4
 2.200  0.7696  162.0   1.306   45.1  0.0917   15.8  0.4331  -84.9
 2.220  0.7697  161.5   1.295   44.7  0.0916   16.0  0.4339  -85.4
 2.240  0.7699  161.1   1.284   44.2  0.0915   16.3  0.4347  -85.9
 2.260  0.7701  160.6   1.273   43.8  0.0914   16.5  0.4356  -86.4
 2.280  0.7704  160.2   1.262   43.3  0.0913   16.8  0.4365  -86.8
 2.300  0.7707  159.7   1.251   42.9  0.0912   17.0  0.4374  -87.3
 2.320  0.7711  159.3   1.240   42.4  0.0911   17.3  0.4384  -87.8
 2.340  0.7715  158.8   1.230   41.9  0.0911   17.5  0.4394  -88.3
 2.360  0.7719  158.4   1.219   41.4  0.0910   17.8  0.4404  -88.8
 2.380  0.7724  157.9   1.208   40.9  0.0909   18.0  0.4414  -89.2
 2.400  0.7730  157.5   1.198   40.4  0.0908   18.3  0.4425  -89.7
 2.420  0.7735  157.1   1.189   40.0  0.0908   18.7  0.4427  -90.2
 2.440  0.7739  156.7   1.179   39.5  0.0908   19.0  0.4429  -90.7
 2.460  0.7745  156.2   1.170   39.1  0.0908   19.4  0.4432  -91.2
 2.480  0.7751  155.8   1.161   38.6  0.0908   19.7  0.4435  -91.7
 2.500  0.7757  155.4   1.152   38.2  0.0908   20.1  0.4438  -92.3
 2.520  0.7763  155.0   1.143   37.7  0.0908   20.5  0.4442  -92.8
 2.540  0.7770  154.6   1.134   37.3  0.0908   20.8  0.4446  -93.3
 2.560  0.7778  154.1   1.125   36.8  0.0908   21.2  0.4450  -93.8
 2.580  0.7786  153.7   1.117   36.3  0.0908   21.5  0.4455  -94.3
 2.600  0.7794  153.3   1.108   35.8  0.0908   21.9  0.4460  -94.8
 2.620  0.7800  152.9   1.100   35.4  0.0909   22.2  0.4470  -95.3
 2.640  0.7806  152.5   1.092   35.0  0.0911   22.6  0.4481  -95.7
 2.660  0.7813  152.1   1.083   34.6  0.0912   22.9  0.4492  -96.2
 2.680  0.7820  151.7   1.075   34.2  0.0913   23.2  0.4503  -96.7
 2.700  0.7828  151.2   1.067   33.7  0.0915   23.6  0.4515  -97.1
 2.720  0.7836  150.8   1.059   33.3  0.0916   23.9  0.4527  -97.6
 2.740  0.7844  150.4   1.051   32.9  0.0917   24.2  0.4539  -98.0
 2.760  0.7853  150.0   1.044   32.4  0.0919   24.5  0.4551  -98.5
 2.780  0.7862  149.6   1.036   32.0  0.0920   24.9  0.4564  -99.0
 2.800  0.7872  149.2   1.028   31.5  0.0922   25.2  0.4577  -99.4
 2.820  0.7877  148.8   1.021   31.1  0.0924   25.6  0.4584  -99.9
 2.840  0.7882  148.4   1.013   30.7  0.0926   25.9  0.4591 -100.4
 2.860  0.7888  148.1   1.006   30.3  0.0929   26.3  0.4598 -100.9
 2.880  0.7894  147.7   0.999   29.9  0.0931   26.6  0.4606 -101.5
 2.900  0.7901  147.3   0.992   29.4  0.0933   27.0  0.4614 -102.0
 2.920  0.7907  146.9   0.985   29.0  0.0935   27.3  0.4622 -102.5
 2.940  0.7915  146.5   0.978   28.6  0.0938   27.7  0.4631 -103.0
 2.960  0.7922  146.2   0.971   28.1  0.0940   28.0  0.4640 -103.5
 2.980  0.7930  145.8   0.964   27.7  0.0943   28.4  0.4650 -104.0
 3.000  0.7938  145.4   0.957   27.2  0.0945   28.7  0.4660 -104.5
 3.100  0.7964  143.5   0.926   25.3  0.0964   30.4  0.4707 -107.0
 3.200  0.7998  141.6   0.897   23.2  0.0983   32.0  0.4762 -109.4
 3.300  0.8037  139.7   0.869   21.3  0.1008   33.4  0.4817 -112.0
 3.400  0.8084  137.8   0.842   19.3  0.1034   34.8  0.4882 -114.5
 3.500  0.8120  136.1   0.816   17.6  0.1063   36.1  0.4947 -116.9
 3.600  0.8163  134.5   0.790   15.7  0.1092   37.4  0.5021 -119.3
 3.700  0.8189  132.7   0.766   14.1  0.1123   38.3  0.5082 -122.0
 3.800  0.8223  131.0   0.743   12.3  0.1154   39.2  0.5153 -124.6
 3.900  0.8255  129.4   0.720   10.7  0.1194   40.0  0.5220 -127.1
 4.000  0.8293  127.9   0.698    9.0  0.1234   40.7  0.5296 -129.6
 4.100  0.8298  126.5   0.678    7.8  0.1276   41.0  0.5357 -132.2
 4.200  0.8308  125.1   0.659    6.4  0.1319   41.4  0.5429 -134.7
 4.300  0.8324  123.7   0.640    5.0  0.1361   41.7  0.5511 -137.1
 4.400  0.8344  122.3   0.621    3.6  0.1404   41.9  0.5602 -139.5
 4.500  0.8369  120.9   0.603    2.0  0.1446   42.2  0.5703 -141.8
 4.600  0.8368  119.7   0.586    1.1  0.1493   42.1  0.5754 -144.1
 4.700  0.8370  118.5   0.570    0.2  0.1540   42.1  0.5815 -146.4
 4.800  0.8376  117.4   0.554   -0.8  0.1587   42.0  0.5884 -148.6
 4.900  0.8386  116.2   0.538   -1.9  0.1634   42.0  0.5961 -150.7
 5.000  0.8399  115.0   0.522   -3.0  0.1681   41.9  0.6047 -152.8
 5.100  0.8393  114.1   0.510   -3.6  0.1730   41.5  0.6097 -154.7
 5.200  0.8389  113.2   0.497   -4.2  0.1778   41.1  0.6154 -156.6
 5.300  0.8387  112.2   0.485   -4.9  0.1827   40.7  0.6218 -158.5
 5.400  0.8387  111.3   0.473   -5.6  0.1876   40.3  0.6288 -160.3
 5.500  0.8389  110.4   0.461   -6.3  0.1925   40.0  0.6364 -162.1
 5.600  0.8402  109.5   0.453   -6.6  0.1975   39.5  0.6409 -163.8
 5.700  0.8418  108.6   0.444   -6.9  0.2025   39.1  0.6460 -165.4
 5.800  0.8435  107.7   0.436   -7.2  0.2075   38.6  0.6515 -167.0
 5.900  0.8454  106.8   0.427   -7.6  0.2125   38.2  0.6576 -168.6
 6.000  0.8476  105.9   0.419   -7.9  0.2175   37.8  0.6642 -170.2
!
!  f       NFmin   Gammaopt  rn/50
! GHz       dB    MAG  ANG    -
!
! noise parameter not available yet for this operation point!
!
! (c) 2016  Infineon Technologies AG, Munich
