! Infineon Technologies  Discrete & RF Semiconductors
! BFP196
! VCE = 3.5 V,  IC =  25mA
! Common Emitter S-Parameters:                            Jan 2016
# GHz  S  MA  R  50
!  f         S11            S21            S12            S22
! GHz     MAG   ANG      MAG   ANG      MAG   ANG      MAG   ANG
 0.010  0.4745  -22.0  51.093  171.4  0.0042   83.2  0.9401  -10.4
 0.015  0.4750  -32.2  49.792  166.8  0.0063   78.0  0.9191  -15.1
 0.020  0.4902  -42.0  48.826  162.0  0.0085   75.4  0.9045  -19.9
 0.025  0.4787  -49.8  47.114  159.1  0.0100   70.7  0.8703  -23.4
 0.030  0.4763  -57.8  45.536  155.9  0.0116   67.3  0.8396  -27.2
 0.035  0.4832  -65.7  44.105  152.5  0.0132   64.6  0.8130  -31.3
 0.040  0.4990  -73.3  42.836  149.0  0.0148   62.6  0.7907  -35.6
 0.045  0.5230  -80.3  41.745  145.2  0.0165   60.9  0.7731  -40.2
 0.050  0.5540  -86.6  40.845  141.2  0.0181   59.6  0.7606  -44.9
 0.055  0.5478  -90.8  39.404  139.7  0.0188   57.7  0.7330  -46.8
 0.060  0.5445  -95.1  37.991  138.2  0.0196   56.0  0.7063  -48.9
 0.065  0.5443  -99.3  36.609  136.5  0.0203   54.4  0.6805  -51.1
 0.070  0.5471 -103.6  35.262  134.6  0.0211   52.9  0.6558  -53.5
 0.075  0.5529 -107.8  33.954  132.6  0.0219   51.6  0.6324  -56.0
 0.080  0.5617 -111.9  32.689  130.5  0.0227   50.3  0.6103  -58.8
 0.085  0.5732 -115.9  31.473  128.2  0.0235   49.1  0.5898  -61.7
 0.090  0.5873 -119.6  30.311  125.7  0.0243   48.0  0.5709  -64.9
 0.095  0.6038 -123.2  29.211  123.1  0.0252   47.0  0.5538  -68.2
 0.100  0.6226 -126.6  28.179  120.2  0.0260   46.0  0.5388  -71.8
 0.105  0.6224 -128.5  27.375  119.4  0.0264   45.6  0.5246  -73.0
 0.110  0.6230 -130.4  26.578  118.5  0.0268   45.2  0.5106  -74.3
 0.115  0.6242 -132.3  25.788  117.5  0.0271   44.9  0.4970  -75.7
 0.120  0.6260 -134.1  25.005  116.5  0.0275   44.5  0.4836  -77.1
 0.125  0.6286 -136.0  24.230  115.4  0.0279   44.2  0.4705  -78.6
 0.130  0.6318 -137.9  23.464  114.3  0.0283   43.9  0.4578  -80.2
 0.135  0.6356 -139.7  22.709  113.1  0.0287   43.5  0.4455  -81.9
 0.140  0.6401 -141.5  21.964  111.8  0.0290   43.2  0.4336  -83.7
 0.145  0.6452 -143.3  21.231  110.4  0.0294   42.9  0.4221  -85.6
 0.150  0.6509 -145.0  20.512  108.9  0.0298   42.6  0.4111  -87.6
 0.155  0.6510 -146.1  20.052  108.3  0.0301   42.6  0.4032  -88.5
 0.160  0.6513 -147.3  19.595  107.8  0.0304   42.6  0.3954  -89.5
 0.165  0.6519 -148.4  19.139  107.2  0.0306   42.6  0.3877  -90.5
 0.170  0.6528 -149.5  18.686  106.5  0.0309   42.6  0.3802  -91.6
 0.175  0.6539 -150.7  18.235  105.9  0.0312   42.7  0.3727  -92.7
 0.180  0.6552 -151.8  17.787  105.2  0.0315   42.7  0.3655  -93.8
 0.185  0.6568 -152.9  17.341  104.4  0.0318   42.7  0.3584  -95.0
 0.190  0.6587 -154.0  16.898  103.7  0.0320   42.7  0.3514  -96.3
 0.195  0.6608 -155.1  16.459  102.9  0.0323   42.7  0.3446  -97.6
 0.200  0.6631 -156.2  16.023  102.0  0.0326   42.7  0.3380  -98.9
 0.220  0.6641 -159.3  14.779  100.3  0.0336   43.2  0.3186 -102.2
 0.240  0.6671 -162.5  13.550   98.3  0.0345   43.8  0.3003 -105.9
 0.260  0.6694 -165.0  12.533   96.5  0.0356   44.5  0.2862 -109.1
 0.280  0.6701 -167.0  11.718   95.1  0.0367   45.4  0.2757 -111.7
 0.300  0.6717 -169.0  10.910   93.6  0.0378   46.3  0.2657 -114.5
 0.320  0.6720 -170.8  10.382   92.7  0.0389   46.9  0.2583 -116.4
 0.340  0.6730 -172.6   9.857   91.7  0.0400   47.5  0.2511 -118.3
 0.360  0.6746 -174.4   9.336   90.7  0.0411   48.0  0.2443 -120.4
 0.380  0.6769 -176.2   8.818   89.5  0.0423   48.5  0.2378 -122.6
 0.400  0.6799 -178.0   8.304   88.1  0.0434   49.0  0.2317 -124.9
 0.420  0.6794 -179.1   7.971   87.3  0.0447   49.6  0.2280 -126.3
 0.440  0.6791  179.8   7.639   86.5  0.0459   50.1  0.2245 -127.8
 0.450  0.6790  179.2   7.474   86.1  0.0465   50.3  0.2228 -128.6
 0.460  0.6791  178.6   7.309   85.6  0.0472   50.6  0.2212 -129.4
 0.480  0.6793  177.5   6.981   84.6  0.0484   51.1  0.2180 -131.0
 0.500  0.6798  176.4   6.655   83.5  0.0497   51.5  0.2150 -132.6
 0.520  0.6803  175.3   6.435   82.8  0.0510   51.9  0.2133 -133.6
 0.540  0.6811  174.2   6.215   82.0  0.0523   52.2  0.2116 -134.7
 0.560  0.6821  173.1   5.997   81.2  0.0535   52.6  0.2100 -135.8
 0.580  0.6834  172.0   5.780   80.3  0.0548   52.9  0.2085 -136.9
 0.600  0.6849  170.9   5.565   79.3  0.0561   53.2  0.2071 -138.0
 0.620  0.6851  170.0   5.407   78.6  0.0574   53.5  0.2063 -138.8
 0.640  0.6854  169.0   5.250   77.8  0.0586   53.8  0.2056 -139.7
 0.660  0.6859  168.1   5.094   77.0  0.0599   54.1  0.2049 -140.5
 0.680  0.6866  167.1   4.939   76.2  0.0611   54.3  0.2043 -141.3
 0.700  0.6875  166.2   4.785   75.3  0.0624   54.6  0.2037 -142.2
 0.720  0.6874  165.5   4.664   74.7  0.0639   54.6  0.2033 -142.9
 0.740  0.6875  164.8   4.544   74.1  0.0654   54.7  0.2030 -143.6
 0.760  0.6876  164.0   4.424   73.5  0.0668   54.7  0.2027 -144.2
 0.780  0.6878  163.3   4.305   72.8  0.0683   54.8  0.2024 -144.9
 0.800  0.6882  162.6   4.186   72.1  0.0698   54.8  0.2021 -145.6
 0.820  0.6876  161.8   4.093   71.5  0.0712   54.9  0.2018 -146.2
 0.840  0.6872  161.0   4.001   70.9  0.0727   55.0  0.2016 -146.7
 0.860  0.6869  160.2   3.909   70.2  0.0741   55.0  0.2014 -147.3
 0.880  0.6867  159.4   3.818   69.5  0.0756   55.1  0.2012 -147.8
 0.900  0.6867  158.6   3.727   68.8  0.0770   55.2  0.2010 -148.4
 0.920  0.6872  157.7   3.654   68.2  0.0784   55.2  0.2013 -148.8
 0.940  0.6878  156.9   3.580   67.6  0.0797   55.2  0.2016 -149.2
 0.960  0.6886  156.0   3.508   67.0  0.0811   55.3  0.2020 -149.7
 0.980  0.6896  155.2   3.436   66.3  0.0824   55.3  0.2023 -150.1
 1.000  0.6907  154.3   3.364   65.6  0.0838   55.3  0.2027 -150.5
 1.020  0.6916  153.6   3.303   65.0  0.0852   55.3  0.2034 -150.9
 1.040  0.6927  153.0   3.243   64.4  0.0865   55.2  0.2040 -151.3
 1.060  0.6938  152.3   3.183   63.8  0.0879   55.2  0.2047 -151.7
 1.080  0.6950  151.7   3.123   63.2  0.0892   55.1  0.2054 -152.1
 1.100  0.6963  151.0   3.064   62.5  0.0906   55.1  0.2061 -152.5
 1.120  0.6969  150.3   3.013   61.9  0.0920   55.0  0.2066 -152.9
 1.140  0.6976  149.5   2.963   61.4  0.0934   55.0  0.2071 -153.3
 1.160  0.6984  148.8   2.912   60.8  0.0948   54.9  0.2077 -153.8
 1.180  0.6993  148.0   2.863   60.1  0.0962   54.9  0.2082 -154.2
 1.200  0.7004  147.3   2.813   59.5  0.0976   54.8  0.2088 -154.6
 1.220  0.7011  146.6   2.769   58.9  0.0991   54.6  0.2093 -155.0
 1.240  0.7018  145.9   2.726   58.3  0.1006   54.5  0.2099 -155.3
 1.260  0.7027  145.2   2.682   57.7  0.1020   54.3  0.2104 -155.7
 1.280  0.7037  144.5   2.640   57.1  0.1035   54.2  0.2109 -156.0
 1.300  0.7048  143.8   2.597   56.4  0.1050   54.0  0.2115 -156.4
 1.320  0.7051  143.2   2.560   55.9  0.1063   53.8  0.2122 -156.6
 1.340  0.7055  142.5   2.523   55.4  0.1076   53.6  0.2129 -156.8
 1.360  0.7060  141.9   2.486   54.9  0.1088   53.4  0.2136 -157.1
 1.380  0.7065  141.2   2.449   54.4  0.1101   53.2  0.2143 -157.3
 1.400  0.7072  140.6   2.413   53.9  0.1114   53.0  0.2150 -157.5
 1.420  0.7070  140.0   2.384   53.3  0.1128   52.9  0.2160 -157.8
 1.440  0.7069  139.4   2.356   52.7  0.1142   52.8  0.2171 -158.1
 1.460  0.7069  138.9   2.328   52.1  0.1157   52.6  0.2182 -158.4
 1.480  0.7070  138.3   2.300   51.5  0.1171   52.5  0.2192 -158.7
 1.500  0.7071  137.7   2.272   50.9  0.1185   52.4  0.2203 -159.0
 1.520  0.7089  137.1   2.240   50.4  0.1199   52.2  0.2213 -159.4
 1.540  0.7108  136.4   2.208   49.8  0.1213   51.9  0.2223 -159.8
 1.560  0.7128  135.8   2.176   49.2  0.1228   51.7  0.2233 -160.2
 1.580  0.7148  135.1   2.144   48.6  0.1242   51.5  0.2243 -160.5
 1.600  0.7170  134.5   2.113   48.0  0.1256   51.3  0.2253 -160.9
 1.620  0.7179  133.8   2.088   47.5  0.1268   51.1  0.2259 -161.3
 1.640  0.7190  133.0   2.064   46.9  0.1280   50.9  0.2265 -161.6
 1.660  0.7201  132.3   2.039   46.4  0.1292   50.7  0.2271 -162.0
 1.680  0.7214  131.5   2.015   45.8  0.1304   50.6  0.2277 -162.3
 1.700  0.7228  130.8   1.991   45.2  0.1316   50.4  0.2283 -162.7
 1.720  0.7232  130.3   1.972   44.8  0.1330   50.1  0.2294 -162.9
 1.740  0.7236  129.8   1.952   44.3  0.1345   49.9  0.2304 -163.1
 1.760  0.7241  129.2   1.933   43.8  0.1359   49.6  0.2315 -163.2
 1.780  0.7247  128.7   1.914   43.4  0.1374   49.3  0.2325 -163.4
 1.800  0.7253  128.2   1.895   42.9  0.1388   49.1  0.2336 -163.6
 1.820  0.7261  127.7   1.875   42.4  0.1401   48.9  0.2351 -163.9
 1.840  0.7269  127.2   1.855   41.8  0.1415   48.7  0.2365 -164.3
 1.860  0.7278  126.8   1.836   41.3  0.1428   48.5  0.2380 -164.6
 1.880  0.7288  126.3   1.816   40.7  0.1442   48.4  0.2395 -164.9
 1.900  0.7298  125.8   1.797   40.1  0.1455   48.2  0.2410 -165.2
 1.920  0.7309  125.2   1.778   39.6  0.1468   47.9  0.2420 -165.6
 1.940  0.7321  124.6   1.758   39.1  0.1481   47.6  0.2430 -166.1
 1.960  0.7334  123.9   1.739   38.6  0.1494   47.3  0.2440 -166.5
 1.980  0.7348  123.3   1.720   38.0  0.1507   47.1  0.2451 -167.0
 2.000  0.7363  122.7   1.701   37.5  0.1520   46.8  0.2461 -167.4
 2.020  0.7364  122.1   1.685   37.0  0.1532   46.6  0.2472 -167.7
 2.040  0.7366  121.6   1.669   36.6  0.1544   46.3  0.2483 -168.0
 2.060  0.7368  121.0   1.653   36.1  0.1557   46.1  0.2494 -168.2
 2.080  0.7372  120.5   1.637   35.6  0.1569   45.8  0.2505 -168.5
 2.100  0.7375  119.9   1.621   35.1  0.1581   45.6  0.2516 -168.8
 2.120  0.7380  119.4   1.606   34.6  0.1593   45.4  0.2528 -169.0
 2.140  0.7385  118.8   1.590   34.1  0.1606   45.2  0.2539 -169.3
 2.160  0.7391  118.3   1.575   33.6  0.1618   44.9  0.2550 -169.6
 2.180  0.7398  117.7   1.560   33.0  0.1631   44.7  0.2562 -169.8
 2.200  0.7405  117.2   1.545   32.5  0.1643   44.5  0.2573 -170.1
 2.220  0.7419  116.6   1.532   32.0  0.1655   44.2  0.2587 -170.5
 2.240  0.7434  116.1   1.520   31.5  0.1667   44.0  0.2601 -171.0
 2.260  0.7449  115.6   1.507   31.0  0.1679   43.7  0.2615 -171.4
 2.280  0.7465  115.0   1.495   30.5  0.1691   43.5  0.2629 -171.8
 2.300  0.7482  114.5   1.482   30.0  0.1703   43.2  0.2644 -172.3
 2.320  0.7499  113.9   1.470   29.4  0.1715   43.0  0.2658 -172.7
 2.340  0.7517  113.4   1.458   28.9  0.1727   42.7  0.2673 -173.1
 2.360  0.7536  112.9   1.446   28.3  0.1740   42.5  0.2688 -173.5
 2.380  0.7555  112.3   1.435   27.8  0.1752   42.2  0.2703 -173.9
 2.400  0.7575  111.8   1.423   27.2  0.1764   42.0  0.2718 -174.3
 2.420  0.7577  111.3   1.411   26.8  0.1776   41.7  0.2731 -174.6
 2.440  0.7581  110.7   1.399   26.3  0.1787   41.4  0.2744 -174.9
 2.460  0.7584  110.2   1.387   25.9  0.1799   41.2  0.2757 -175.2
 2.480  0.7589  109.7   1.375   25.5  0.1810   40.9  0.2770 -175.5
 2.500  0.7594  109.1   1.363   25.0  0.1822   40.6  0.2783 -175.8
 2.520  0.7600  108.6   1.352   24.5  0.1834   40.3  0.2796 -176.1
 2.540  0.7606  108.1   1.340   24.1  0.1845   40.1  0.2809 -176.4
 2.560  0.7613  107.6   1.329   23.6  0.1857   39.8  0.2822 -176.6
 2.580  0.7621  107.0   1.317   23.1  0.1869   39.6  0.2836 -176.9
 2.600  0.7629  106.5   1.306   22.6  0.1881   39.3  0.2849 -177.2
 2.620  0.7640  106.0   1.297   22.2  0.1892   39.0  0.2865 -177.6
 2.640  0.7652  105.5   1.288   21.8  0.1902   38.8  0.2881 -178.0
 2.660  0.7665  105.0   1.279   21.3  0.1913   38.5  0.2898 -178.4
 2.680  0.7678  104.6   1.270   20.9  0.1924   38.3  0.2914 -178.9
 2.700  0.7692  104.1   1.261   20.5  0.1935   38.0  0.2931 -179.3
 2.720  0.7706  103.6   1.252   20.0  0.1945   37.8  0.2947 -179.7
 2.740  0.7721  103.1   1.243   19.6  0.1956   37.5  0.2964  180.0
 2.760  0.7736  102.6   1.234   19.1  0.1967   37.3  0.2981  179.6
 2.780  0.7752  102.2   1.226   18.7  0.1978   37.0  0.2999  179.2
 2.800  0.7768  101.7   1.217   18.2  0.1989   36.8  0.3016  178.8
 2.820  0.7774  101.3   1.208   17.8  0.1999   36.5  0.3031  178.5
 2.840  0.7781  100.8   1.198   17.3  0.2010   36.2  0.3045  178.2
 2.860  0.7788  100.4   1.189   16.9  0.2021   36.0  0.3060  177.8
 2.880  0.7796   99.9   1.180   16.4  0.2031   35.7  0.3075  177.5
 2.900  0.7804   99.5   1.171   16.0  0.2042   35.4  0.3090  177.2
 2.920  0.7813   99.0   1.161   15.5  0.2053   35.1  0.3105  176.9
 2.940  0.7822   98.6   1.152   15.1  0.2063   34.9  0.3120  176.6
 2.960  0.7832   98.2   1.144   14.6  0.2074   34.6  0.3135  176.3
 2.980  0.7842   97.7   1.135   14.1  0.2085   34.4  0.3151  176.0
 3.000  0.7852   97.3   1.126   13.6  0.2096   34.1  0.3166  175.7
 3.100  0.7884   95.3   1.089   11.9  0.2139   32.7  0.3243  173.8
 3.200  0.7926   93.3   1.053   10.2  0.2183   31.4  0.3324  172.0
 3.300  0.7977   91.3   1.018    8.3  0.2228   30.1  0.3408  170.3
 3.400  0.8037   89.4   0.984    6.3  0.2274   28.9  0.3495  168.7
 3.500  0.8106   87.5   0.952    4.1  0.2321   27.7  0.3584  167.2
 3.600  0.8118   85.7   0.925    2.6  0.2359   26.5  0.3665  165.5
 3.700  0.8139   83.9   0.899    1.1  0.2399   25.3  0.3749  163.9
 3.800  0.8167   82.1   0.874   -0.6  0.2439   24.1  0.3836  162.4
 3.900  0.8203   80.4   0.849   -2.3  0.2481   23.0  0.3925  160.9
 4.000  0.8247   78.6   0.825   -4.2  0.2523   21.9  0.4017  159.5
 4.100  0.8267   77.1   0.805   -5.5  0.2561   20.7  0.4088  158.1
 4.200  0.8292   75.6   0.785   -6.9  0.2601   19.5  0.4161  156.7
 4.300  0.8322   74.2   0.766   -8.4  0.2642   18.3  0.4236  155.3
 4.400  0.8358   72.7   0.747  -10.0  0.2683   17.2  0.4314  154.0
 4.500  0.8399   71.3   0.729  -11.6  0.2726   16.1  0.4394  152.8
 4.600  0.8406   70.0   0.714  -12.6  0.2759   15.0  0.4460  151.6
 4.700  0.8418   68.6   0.699  -13.7  0.2793   13.9  0.4527  150.4
 4.800  0.8434   67.3   0.685  -14.9  0.2829   12.8  0.4597  149.2
 4.900  0.8455   65.9   0.671  -16.1  0.2865   11.8  0.4668  148.1
 5.000  0.8481   64.6   0.657  -17.3  0.2902   10.8  0.4741  147.0
 5.100  0.8505   63.4   0.646  -18.3  0.2935    9.7  0.4805  145.7
 5.200  0.8533   62.2   0.634  -19.3  0.2970    8.6  0.4872  144.4
 5.300  0.8564   61.0   0.623  -20.4  0.3005    7.5  0.4941  143.1
 5.400  0.8599   59.9   0.613  -21.5  0.3042    6.4  0.5012  141.9
 5.500  0.8638   58.7   0.602  -22.6  0.3079    5.4  0.5086  140.7
 5.600  0.8630   57.6   0.593  -23.5  0.3109    4.2  0.5143  139.5
 5.700  0.8625   56.5   0.584  -24.4  0.3141    3.0  0.5202  138.3
 5.800  0.8623   55.3   0.576  -25.4  0.3174    1.8  0.5264  137.1
 5.900  0.8624   54.2   0.567  -26.4  0.3208    0.7  0.5327  135.9
 6.000  0.8629   53.1   0.559  -27.4  0.3243   -0.4  0.5393  134.8
!
!  f       NFmin   Gammaopt  rn/50
! GHz       dB    MAG  ANG    -
!
! noise parameter not available yet for this operation point!
!
! (c) 2016  Infineon Technologies AG, Munich
