! Infineon Technologies  Discrete & RF Semiconductors
! BFP196W
! VCE = 1.0 V,  IC =  15mA
! Common Emitter S-Parameters:                            Jan 2016
# GHz  S  MA  R  50
!  f         S11            S21            S12            S22
! GHz     MAG   ANG      MAG   ANG      MAG   ANG      MAG   ANG
 0.010  0.5676  -21.1  37.183  169.7  0.0067   79.9  0.9502  -11.1
 0.015  0.5688  -31.5  36.870  166.1  0.0101   75.4  0.9322  -16.5
 0.020  0.5885  -41.6  36.706  162.4  0.0136   73.2  0.9228  -22.1
 0.025  0.5954  -50.7  35.773  158.6  0.0164   69.6  0.8992  -27.0
 0.030  0.6167  -59.3  35.006  154.6  0.0193   67.1  0.8825  -32.1
 0.035  0.6149  -66.6  33.726  151.5  0.0214   62.9  0.8492  -36.1
 0.040  0.6230  -73.9  32.551  148.2  0.0235   59.4  0.8204  -40.4
 0.045  0.6408  -80.8  31.492  144.7  0.0257   56.5  0.7964  -45.0
 0.050  0.6674  -87.3  30.561  140.9  0.0280   54.1  0.7779  -49.8
 0.055  0.6616  -91.3  29.481  139.5  0.0289   51.9  0.7501  -51.9
 0.060  0.6590  -95.3  28.421  138.0  0.0298   49.9  0.7235  -54.2
 0.065  0.6597  -99.4  27.382  136.3  0.0307   48.0  0.6981  -56.7
 0.070  0.6637 -103.4  26.367  134.6  0.0317   46.2  0.6741  -59.3
 0.075  0.6710 -107.4  25.380  132.7  0.0327   44.5  0.6516  -62.2
 0.080  0.6813 -111.2  24.422  130.6  0.0337   42.9  0.6308  -65.2
 0.085  0.6946 -114.9  23.499  128.4  0.0348   41.5  0.6119  -68.4
 0.090  0.7108 -118.5  22.614  126.0  0.0359   40.1  0.5951  -71.8
 0.095  0.7295 -121.9  21.771  123.4  0.0370   38.7  0.5805  -75.4
 0.100  0.7507 -125.1  20.977  120.6  0.0381   37.5  0.5683  -79.2
 0.105  0.7508 -127.0  20.387  119.7  0.0385   36.7  0.5546  -80.7
 0.110  0.7518 -128.9  19.801  118.8  0.0389   35.9  0.5412  -82.3
 0.115  0.7535 -130.8  19.221  117.9  0.0393   35.2  0.5283  -84.0
 0.120  0.7561 -132.6  18.646  116.9  0.0397   34.4  0.5159  -85.7
 0.125  0.7594 -134.5  18.077  115.8  0.0401   33.7  0.5040  -87.5
 0.130  0.7636 -136.3  17.516  114.6  0.0405   33.0  0.4926  -89.4
 0.135  0.7685 -138.1  16.962  113.4  0.0410   32.3  0.4818  -91.5
 0.140  0.7741 -139.9  16.416  112.1  0.0414   31.6  0.4716  -93.5
 0.145  0.7806 -141.7  15.879  110.7  0.0419   31.0  0.4620  -95.7
 0.150  0.7877 -143.4  15.353  109.2  0.0423   30.3  0.4532  -98.0
 0.155  0.7875 -144.4  14.997  108.7  0.0425   30.0  0.4459  -99.1
 0.160  0.7875 -145.4  14.642  108.2  0.0426   29.7  0.4389 -100.2
 0.165  0.7878 -146.4  14.289  107.6  0.0428   29.4  0.4320 -101.4
 0.170  0.7884 -147.4  13.937  107.0  0.0429   29.1  0.4253 -102.6
 0.175  0.7891 -148.4  13.586  106.4  0.0431   28.8  0.4187 -103.9
 0.180  0.7901 -149.4  13.237  105.8  0.0432   28.5  0.4124 -105.2
 0.185  0.7914 -150.4  12.890  105.1  0.0434   28.2  0.4063 -106.5
 0.190  0.7929 -151.4  12.545  104.4  0.0436   28.0  0.4004 -107.8
 0.195  0.7946 -152.4  12.202  103.6  0.0437   27.7  0.3948 -109.3
 0.200  0.7966 -153.4  11.861  102.8  0.0439   27.4  0.3894 -110.7
 0.220  0.8004 -156.0  10.987  101.1  0.0445   26.9  0.3753 -114.2
 0.240  0.8059 -158.6  10.124   99.2  0.0451   26.4  0.3627 -117.9
 0.260  0.8085 -160.9   9.376   97.5  0.0456   26.1  0.3512 -121.2
 0.280  0.8077 -162.8   8.737   96.2  0.0460   26.0  0.3402 -124.0
 0.300  0.8077 -164.7   8.104   94.7  0.0464   26.0  0.3300 -127.0
 0.320  0.8082 -166.0   7.710   93.8  0.0468   26.2  0.3250 -128.8
 0.340  0.8090 -167.3   7.318   92.9  0.0472   26.4  0.3204 -130.7
 0.360  0.8103 -168.6   6.929   91.8  0.0477   26.6  0.3161 -132.6
 0.380  0.8121 -169.9   6.542   90.6  0.0481   26.8  0.3122 -134.6
 0.400  0.8142 -171.2   6.159   89.2  0.0485   27.0  0.3087 -136.6
 0.420  0.8142 -172.2   5.918   88.5  0.0489   27.4  0.3064 -137.9
 0.440  0.8145 -173.2   5.678   87.7  0.0493   27.7  0.3042 -139.1
 0.450  0.8147 -173.7   5.558   87.2  0.0494   27.9  0.3032 -139.8
 0.460  0.8150 -174.2   5.439   86.8  0.0496   28.0  0.3022 -140.4
 0.480  0.8157 -175.2   5.202   85.8  0.0500   28.4  0.3003 -141.8
 0.500  0.8167 -176.2   4.966   84.8  0.0504   28.7  0.2986 -143.1
 0.520  0.8164 -176.9   4.801   84.2  0.0509   29.1  0.2974 -143.9
 0.540  0.8162 -177.6   4.636   83.5  0.0513   29.5  0.2964 -144.8
 0.560  0.8162 -178.2   4.472   82.8  0.0518   29.9  0.2953 -145.7
 0.580  0.8162 -178.9   4.309   82.0  0.0522   30.2  0.2944 -146.5
 0.600  0.8164 -179.6   4.147   81.2  0.0527   30.6  0.2935 -147.4
 0.620  0.8178  179.8   4.035   80.6  0.0531   31.1  0.2929 -148.0
 0.640  0.8192  179.2   3.923   80.0  0.0536   31.6  0.2924 -148.6
 0.660  0.8208  178.5   3.811   79.4  0.0540   32.1  0.2919 -149.1
 0.680  0.8224  177.9   3.700   78.7  0.0545   32.5  0.2914 -149.7
 0.700  0.8242  177.3   3.590   78.0  0.0549   33.0  0.2910 -150.3
 0.720  0.8230  176.8   3.497   77.4  0.0555   33.4  0.2913 -150.7
 0.740  0.8219  176.3   3.405   76.9  0.0560   33.9  0.2916 -151.2
 0.760  0.8209  175.7   3.313   76.2  0.0566   34.3  0.2919 -151.6
 0.780  0.8199  175.2   3.222   75.6  0.0571   34.7  0.2922 -152.1
 0.800  0.8190  174.7   3.131   74.9  0.0577   35.1  0.2926 -152.5
 0.820  0.8191  174.1   3.062   74.4  0.0583   35.5  0.2929 -152.9
 0.840  0.8193  173.6   2.994   73.8  0.0588   35.8  0.2933 -153.3
 0.860  0.8195  173.0   2.926   73.2  0.0594   36.2  0.2936 -153.6
 0.880  0.8199  172.5   2.858   72.6  0.0599   36.6  0.2940 -154.0
 0.900  0.8203  171.9   2.791   72.0  0.0605   36.9  0.2944 -154.4
 0.920  0.8202  171.5   2.734   71.5  0.0610   37.3  0.2951 -154.7
 0.940  0.8201  171.1   2.678   71.0  0.0615   37.7  0.2957 -155.0
 0.960  0.8201  170.6   2.622   70.4  0.0621   38.1  0.2964 -155.3
 0.980  0.8201  170.2   2.566   69.9  0.0626   38.5  0.2971 -155.6
 1.000  0.8202  169.8   2.510   69.3  0.0631   38.9  0.2978 -155.9
 1.020  0.8208  169.4   2.468   68.8  0.0638   39.1  0.2984 -156.1
 1.040  0.8215  169.0   2.426   68.2  0.0644   39.4  0.2990 -156.3
 1.060  0.8222  168.6   2.384   67.7  0.0651   39.6  0.2996 -156.5
 1.080  0.8230  168.2   2.342   67.1  0.0657   39.8  0.3003 -156.7
 1.100  0.8238  167.8   2.301   66.5  0.0664   40.0  0.3009 -156.9
 1.120  0.8242  167.4   2.262   66.0  0.0671   40.3  0.3018 -157.1
 1.140  0.8246  166.9   2.224   65.5  0.0678   40.5  0.3027 -157.2
 1.160  0.8251  166.5   2.185   65.0  0.0684   40.8  0.3036 -157.4
 1.180  0.8256  166.0   2.147   64.5  0.0691   41.1  0.3045 -157.5
 1.200  0.8262  165.6   2.109   63.9  0.0698   41.3  0.3054 -157.7
 1.220  0.8258  165.2   2.078   63.4  0.0704   41.6  0.3063 -157.9
 1.240  0.8254  164.8   2.047   62.9  0.0711   41.9  0.3073 -158.1
 1.260  0.8250  164.3   2.017   62.3  0.0717   42.2  0.3082 -158.3
 1.280  0.8248  163.9   1.986   61.8  0.0724   42.5  0.3092 -158.5
 1.300  0.8245  163.5   1.956   61.2  0.0730   42.8  0.3101 -158.7
 1.320  0.8250  163.1   1.928   60.7  0.0737   43.0  0.3111 -158.9
 1.340  0.8255  162.7   1.901   60.2  0.0743   43.2  0.3120 -159.0
 1.360  0.8261  162.4   1.873   59.7  0.0750   43.4  0.3130 -159.2
 1.380  0.8267  162.0   1.846   59.2  0.0756   43.6  0.3139 -159.3
 1.400  0.8273  161.6   1.819   58.7  0.0763   43.8  0.3149 -159.5
 1.420  0.8276  161.3   1.795   58.3  0.0770   44.0  0.3159 -159.7
 1.440  0.8280  161.0   1.772   57.8  0.0777   44.3  0.3169 -159.9
 1.460  0.8284  160.6   1.748   57.4  0.0784   44.5  0.3179 -160.0
 1.480  0.8288  160.3   1.725   56.9  0.0791   44.7  0.3189 -160.2
 1.500  0.8292  160.0   1.702   56.4  0.0798   44.9  0.3199 -160.4
 1.520  0.8296  159.6   1.682   55.9  0.0806   45.0  0.3208 -160.5
 1.540  0.8300  159.2   1.661   55.4  0.0813   45.2  0.3218 -160.7
 1.560  0.8305  158.8   1.641   54.8  0.0821   45.3  0.3227 -160.8
 1.580  0.8310  158.4   1.621   54.3  0.0828   45.5  0.3237 -161.0
 1.600  0.8315  158.0   1.601   53.7  0.0836   45.6  0.3246 -161.1
 1.620  0.8315  157.6   1.583   53.3  0.0843   45.7  0.3260 -161.3
 1.640  0.8315  157.2   1.565   52.8  0.0850   45.8  0.3274 -161.4
 1.660  0.8316  156.8   1.547   52.4  0.0858   46.0  0.3289 -161.6
 1.680  0.8317  156.4   1.530   51.9  0.0865   46.1  0.3303 -161.7
 1.700  0.8319  156.0   1.512   51.4  0.0872   46.2  0.3317 -161.9
 1.720  0.8316  155.7   1.496   51.0  0.0881   46.3  0.3328 -162.1
 1.740  0.8313  155.3   1.479   50.5  0.0889   46.4  0.3339 -162.2
 1.760  0.8311  155.0   1.463   50.1  0.0898   46.5  0.3351 -162.4
 1.780  0.8309  154.6   1.447   49.6  0.0906   46.6  0.3362 -162.5
 1.800  0.8307  154.3   1.431   49.1  0.0915   46.7  0.3373 -162.7
 1.820  0.8305  153.9   1.416   48.6  0.0922   46.8  0.3384 -162.8
 1.840  0.8303  153.5   1.402   48.2  0.0930   46.9  0.3395 -163.0
 1.860  0.8301  153.2   1.388   47.7  0.0937   47.0  0.3407 -163.1
 1.880  0.8300  152.8   1.373   47.2  0.0945   47.1  0.3418 -163.3
 1.900  0.8299  152.4   1.359   46.7  0.0952   47.2  0.3429 -163.4
 1.920  0.8307  152.0   1.345   46.3  0.0960   47.3  0.3441 -163.5
 1.940  0.8316  151.7   1.332   45.8  0.0969   47.3  0.3453 -163.7
 1.960  0.8324  151.3   1.319   45.4  0.0977   47.4  0.3465 -163.8
 1.980  0.8334  151.0   1.305   45.0  0.0986   47.4  0.3477 -164.0
 2.000  0.8343  150.6   1.292   44.5  0.0994   47.5  0.3489 -164.1
 2.020  0.8344  150.3   1.281   44.1  0.1002   47.5  0.3503 -164.3
 2.040  0.8346  149.9   1.270   43.7  0.1010   47.5  0.3518 -164.5
 2.060  0.8348  149.6   1.259   43.3  0.1018   47.6  0.3532 -164.7
 2.080  0.8350  149.3   1.248   42.8  0.1026   47.6  0.3547 -164.8
 2.100  0.8352  148.9   1.237   42.4  0.1034   47.6  0.3562 -165.0
 2.120  0.8355  148.6   1.226   42.0  0.1043   47.6  0.3576 -165.2
 2.140  0.8358  148.3   1.215   41.5  0.1051   47.6  0.3591 -165.4
 2.160  0.8361  148.0   1.204   41.0  0.1059   47.7  0.3606 -165.6
 2.180  0.8364  147.6   1.194   40.6  0.1067   47.7  0.3620 -165.7
 2.200  0.8368  147.3   1.183   40.1  0.1075   47.7  0.3635 -165.9
 2.220  0.8371  146.9   1.173   39.7  0.1083   47.7  0.3648 -166.1
 2.240  0.8375  146.6   1.163   39.3  0.1092   47.7  0.3661 -166.3
 2.260  0.8379  146.2   1.153   38.8  0.1100   47.6  0.3674 -166.5
 2.280  0.8383  145.9   1.143   38.4  0.1109   47.6  0.3687 -166.7
 2.300  0.8387  145.5   1.134   37.9  0.1117   47.6  0.3700 -166.9
 2.320  0.8392  145.1   1.124   37.5  0.1125   47.6  0.3714 -167.1
 2.340  0.8397  144.8   1.114   37.0  0.1134   47.6  0.3727 -167.2
 2.360  0.8403  144.4   1.105   36.6  0.1142   47.5  0.3740 -167.4
 2.380  0.8409  144.1   1.095   36.1  0.1151   47.5  0.3754 -167.6
 2.400  0.8415  143.7   1.086   35.6  0.1159   47.5  0.3767 -167.8
 2.420  0.8416  143.4   1.078   35.2  0.1168   47.5  0.3783 -168.0
 2.440  0.8416  143.1   1.070   34.8  0.1177   47.5  0.3799 -168.3
 2.460  0.8418  142.7   1.062   34.4  0.1186   47.4  0.3815 -168.5
 2.480  0.8419  142.4   1.054   34.0  0.1195   47.4  0.3831 -168.7
 2.500  0.8421  142.1   1.046   33.6  0.1204   47.4  0.3847 -168.9
 2.520  0.8423  141.8   1.039   33.2  0.1213   47.4  0.3863 -169.1
 2.540  0.8425  141.5   1.031   32.8  0.1222   47.4  0.3879 -169.4
 2.560  0.8427  141.1   1.023   32.4  0.1231   47.3  0.3895 -169.6
 2.580  0.8430  140.8   1.016   31.9  0.1240   47.3  0.3912 -169.8
 2.600  0.8433  140.5   1.008   31.5  0.1249   47.3  0.3928 -170.0
 2.620  0.8439  140.2   1.001   31.1  0.1258   47.2  0.3943 -170.2
 2.640  0.8446  139.8   0.994   30.8  0.1266   47.2  0.3958 -170.4
 2.660  0.8452  139.5   0.987   30.4  0.1275   47.1  0.3973 -170.6
 2.680  0.8459  139.1   0.980   30.0  0.1284   47.0  0.3988 -170.8
 2.700  0.8467  138.8   0.973   29.7  0.1292   46.9  0.4003 -171.0
 2.720  0.8474  138.5   0.966   29.3  0.1301   46.9  0.4018 -171.2
 2.740  0.8482  138.1   0.959   28.9  0.1310   46.8  0.4033 -171.3
 2.760  0.8491  137.8   0.952   28.5  0.1319   46.7  0.4048 -171.5
 2.780  0.8499  137.4   0.946   28.1  0.1327   46.7  0.4064 -171.7
 2.800  0.8508  137.1   0.939   27.7  0.1336   46.6  0.4079 -171.9
 2.820  0.8507  136.8   0.932   27.3  0.1345   46.5  0.4096 -172.2
 2.840  0.8507  136.5   0.926   27.0  0.1354   46.4  0.4113 -172.4
 2.860  0.8507  136.2   0.919   26.6  0.1363   46.3  0.4130 -172.7
 2.880  0.8507  135.9   0.913   26.2  0.1372   46.2  0.4147 -173.0
 2.900  0.8508  135.5   0.907   25.9  0.1381   46.1  0.4164 -173.2
 2.920  0.8509  135.2   0.900   25.5  0.1391   46.0  0.4181 -173.5
 2.940  0.8510  134.9   0.894   25.1  0.1400   45.9  0.4199 -173.7
 2.960  0.8511  134.6   0.887   24.7  0.1409   45.8  0.4216 -174.0
 2.980  0.8512  134.3   0.881   24.3  0.1418   45.7  0.4233 -174.2
 3.000  0.8514  134.0   0.875   23.9  0.1427   45.6  0.4251 -174.5
 3.100  0.8553  132.4   0.850   22.1  0.1470   45.0  0.4331 -175.7
 3.200  0.8599  130.8   0.825   20.2  0.1513   44.5  0.4412 -176.8
 3.300  0.8628  129.2   0.801   18.5  0.1556   44.0  0.4499 -178.1
 3.400  0.8663  127.6   0.777   16.7  0.1600   43.5  0.4588 -179.3
 3.500  0.8674  126.1   0.754   15.1  0.1639   43.0  0.4663  179.6
 3.600  0.8691  124.7   0.731   13.5  0.1679   42.5  0.4739  178.5
 3.700  0.8690  123.2   0.708   12.0  0.1714   41.6  0.4814  177.1
 3.800  0.8694  121.8   0.685   10.5  0.1749   40.7  0.4892  175.8
 3.900  0.8729  120.5   0.669    9.0  0.1798   40.2  0.5004  174.8
 4.000  0.8768  119.3   0.653    7.5  0.1848   39.7  0.5118  173.8
 4.100  0.8768  118.0   0.637    6.4  0.1887   38.9  0.5205  172.5
 4.200  0.8772  116.8   0.621    5.2  0.1927   38.1  0.5296  171.2
 4.300  0.8780  115.5   0.605    3.9  0.1968   37.3  0.5388  170.0
 4.400  0.8792  114.3   0.589    2.6  0.2008   36.6  0.5484  168.8
 4.500  0.8809  113.0   0.574    1.2  0.2049   35.9  0.5581  167.6
 4.600  0.8797  112.0   0.561    0.4  0.2084   35.1  0.5643  166.4
 4.700  0.8788  111.0   0.548   -0.5  0.2119   34.4  0.5707  165.2
 4.800  0.8782  109.9   0.536   -1.4  0.2155   33.7  0.5773  164.1
 4.900  0.8779  108.9   0.523   -2.3  0.2191   33.0  0.5841  163.0
 5.000  0.8778  107.9   0.511   -3.3  0.2227   32.3  0.5912  161.9
 5.100  0.8769  107.1   0.501   -3.9  0.2264   31.6  0.5979  161.0
 5.200  0.8762  106.3   0.492   -4.5  0.2302   30.8  0.6047  160.1
 5.300  0.8756  105.6   0.482   -5.2  0.2341   30.1  0.6117  159.2
 5.400  0.8752  104.8   0.472   -5.9  0.2379   29.5  0.6188  158.3
 5.500  0.8750  104.0   0.463   -6.6  0.2418   28.8  0.6260  157.5
 5.600  0.8734  103.1   0.456   -7.0  0.2454   28.1  0.6306  156.7
 5.700  0.8720  102.3   0.450   -7.4  0.2490   27.3  0.6354  155.8
 5.800  0.8708  101.4   0.443   -7.9  0.2526   26.6  0.6403  155.0
 5.900  0.8698  100.6   0.437   -8.3  0.2563   26.0  0.6453  154.2
 6.000  0.8690   99.7   0.430   -8.8  0.2600   25.3  0.6505  153.4
!
!  f       NFmin   Gammaopt  rn/50
! GHz       dB    MAG  ANG    -
!
! noise parameter not available yet for this operation point!
!
! (c) 2016  Infineon Technologies AG, Munich
