! Infineon Technologies  Discrete & RF Semiconductors
! BFP183
! VCE = 2.0 V,  IC =  15 mA
! Common Emitter S-Parameters:                            Jan 2016
# GHz  S  MA  R  50
!  f         S11            S21            S12            S22
! GHz     MAG   ANG      MAG   ANG      MAG   ANG      MAG   ANG
 0.010  0.5619   -6.7  31.819  176.5  0.0018   83.6  0.9746   -2.6
 0.015  0.5605  -10.5  31.803  174.9  0.0028   84.1  0.9710   -3.9
 0.020  0.5616  -14.4  31.814  173.2  0.0039   84.3  0.9679   -5.2
 0.025  0.5556  -17.5  31.591  171.5  0.0048   82.8  0.9618   -6.5
 0.030  0.5513  -20.7  31.398  169.7  0.0058   81.8  0.9562   -7.7
 0.035  0.5488  -24.0  31.234  167.9  0.0067   81.1  0.9511   -9.0
 0.040  0.5480  -27.2  31.101  166.1  0.0076   80.6  0.9465  -10.3
 0.045  0.5490  -30.5  30.999  164.3  0.0086   80.1  0.9424  -11.7
 0.050  0.5517  -33.7  30.928  162.5  0.0095   79.8  0.9388  -13.0
 0.055  0.5455  -36.5  30.507  161.2  0.0102   77.2  0.9285  -14.0
 0.060  0.5405  -39.3  30.103  159.8  0.0110   74.9  0.9185  -15.0
 0.065  0.5369  -42.1  29.717  158.4  0.0117   73.0  0.9088  -16.1
 0.070  0.5346  -45.0  29.349  156.9  0.0125   71.2  0.8995  -17.1
 0.075  0.5337  -47.9  29.001  155.4  0.0133   69.7  0.8904  -18.2
 0.080  0.5341  -50.8  28.673  153.9  0.0141   68.4  0.8817  -19.3
 0.085  0.5360  -53.7  28.365  152.4  0.0149   67.2  0.8733  -20.5
 0.090  0.5391  -56.6  28.079  150.8  0.0157   66.1  0.8652  -21.6
 0.095  0.5437  -59.4  27.815  149.1  0.0165   65.1  0.8575  -22.8
 0.100  0.5495  -62.2  27.573  147.5  0.0173   64.2  0.8502  -24.0
 0.105  0.5447  -64.5  27.178  146.4  0.0178   63.4  0.8400  -24.7
 0.110  0.5409  -66.9  26.793  145.3  0.0184   62.7  0.8299  -25.4
 0.115  0.5380  -69.3  26.419  144.2  0.0189   62.0  0.8199  -26.2
 0.120  0.5361  -71.8  26.055  143.0  0.0194   61.4  0.8101  -26.9
 0.125  0.5351  -74.2  25.703  141.8  0.0200   60.7  0.8004  -27.7
 0.130  0.5352  -76.6  25.362  140.5  0.0205   60.2  0.7909  -28.5
 0.135  0.5362  -79.1  25.034  139.2  0.0211   59.6  0.7815  -29.3
 0.140  0.5381  -81.5  24.719  137.9  0.0216   59.1  0.7723  -30.2
 0.145  0.5410  -83.9  24.417  136.6  0.0222   58.6  0.7633  -31.0
 0.150  0.5449  -86.3  24.129  135.2  0.0227   58.1  0.7544  -31.9
 0.155  0.5421  -88.1  23.786  134.4  0.0231   57.5  0.7452  -32.4
 0.160  0.5399  -89.9  23.449  133.5  0.0234   56.9  0.7360  -32.9
 0.165  0.5382  -91.7  23.117  132.6  0.0238   56.4  0.7268  -33.4
 0.170  0.5370  -93.5  22.790  131.7  0.0242   55.8  0.7177  -33.9
 0.175  0.5364  -95.4  22.470  130.8  0.0246   55.3  0.7087  -34.4
 0.180  0.5363  -97.2  22.156  129.8  0.0250   54.8  0.6998  -35.0
 0.185  0.5368  -99.0  21.848  128.8  0.0253   54.3  0.6909  -35.5
 0.190  0.5378 -100.9  21.546  127.8  0.0257   53.8  0.6820  -36.1
 0.195  0.5394 -102.7  21.252  126.8  0.0261   53.4  0.6733  -36.7
 0.200  0.5415 -104.5  20.965  125.7  0.0265   52.9  0.6646  -37.3
 0.220  0.5394 -109.7  19.788  123.1  0.0274   51.3  0.6350  -38.6
 0.240  0.5418 -114.9  18.657  120.1  0.0284   49.9  0.6058  -40.0
 0.260  0.5436 -119.7  17.672  117.5  0.0294   48.8  0.5795  -41.1
 0.280  0.5438 -124.2  16.809  115.3  0.0305   48.1  0.5560  -41.9
 0.300  0.5473 -128.6  15.973  112.9  0.0316   47.4  0.5326  -42.7
 0.320  0.5440 -131.8  15.283  111.4  0.0323   47.1  0.5161  -43.1
 0.340  0.5425 -135.1  14.605  109.7  0.0330   46.9  0.4996  -43.5
 0.360  0.5428 -138.4  13.941  107.8  0.0336   46.7  0.4831  -43.9
 0.380  0.5448 -141.7  13.293  105.8  0.0343   46.4  0.4667  -44.3
 0.400  0.5486 -144.9  12.663  103.6  0.0350   46.2  0.4503  -44.8
 0.420  0.5463 -147.2  12.194  102.5  0.0356   45.9  0.4398  -44.9
 0.440  0.5449 -149.6  11.730  101.3  0.0362   45.7  0.4293  -45.1
 0.450  0.5445 -150.8  11.500  100.7  0.0365   45.6  0.4241  -45.2
 0.460  0.5444 -152.0  11.272  100.0  0.0368   45.5  0.4188  -45.3
 0.480  0.5448 -154.3  10.819   98.6  0.0374   45.2  0.4084  -45.4
 0.500  0.5462 -156.7  10.374   97.1  0.0380   45.0  0.3979  -45.6
 0.520  0.5461 -158.4  10.064   96.2  0.0386   45.2  0.3911  -45.6
 0.540  0.5465 -160.1   9.757   95.2  0.0393   45.5  0.3842  -45.7
 0.560  0.5473 -161.8   9.452   94.2  0.0399   45.7  0.3774  -45.7
 0.580  0.5486 -163.4   9.151   93.1  0.0406   45.9  0.3705  -45.8
 0.600  0.5504 -165.1   8.854   91.9  0.0412   46.1  0.3637  -45.8
 0.620  0.5503 -166.6   8.601   91.1  0.0418   46.3  0.3589  -45.8
 0.640  0.5505 -168.0   8.349   90.3  0.0424   46.4  0.3541  -45.8
 0.660  0.5511 -169.5   8.099   89.4  0.0431   46.6  0.3492  -45.9
 0.680  0.5520 -170.9   7.851   88.4  0.0437   46.7  0.3444  -45.9
 0.700  0.5533 -172.4   7.606   87.4  0.0443   46.9  0.3396  -45.9
 0.720  0.5533 -173.6   7.432   86.7  0.0449   47.0  0.3365  -45.9
 0.740  0.5535 -174.7   7.259   85.9  0.0455   47.2  0.3334  -46.0
 0.760  0.5539 -175.9   7.088   85.1  0.0460   47.3  0.3302  -46.0
 0.780  0.5546 -177.0   6.918   84.2  0.0466   47.5  0.3271  -46.1
 0.800  0.5555 -178.2   6.750   83.3  0.0472   47.6  0.3240  -46.1
 0.820  0.5553 -179.3   6.605   82.7  0.0479   47.7  0.3212  -46.1
 0.840  0.5553  179.6   6.461   82.1  0.0486   47.9  0.3183  -46.2
 0.860  0.5555  178.4   6.318   81.4  0.0494   48.0  0.3155  -46.2
 0.880  0.5560  177.3   6.175   80.7  0.0501   48.2  0.3126  -46.3
 0.900  0.5566  176.2   6.034   80.0  0.0508   48.3  0.3098  -46.3
 0.920  0.5571  175.2   5.909   79.3  0.0513   48.5  0.3078  -46.4
 0.940  0.5577  174.2   5.786   78.7  0.0519   48.6  0.3058  -46.5
 0.960  0.5586  173.1   5.663   77.9  0.0524   48.8  0.3037  -46.7
 0.980  0.5596  172.1   5.541   77.2  0.0530   48.9  0.3017  -46.8
 1.000  0.5608  171.1   5.420   76.4  0.0535   49.1  0.2997  -46.9
 1.020  0.5618  170.2   5.326   75.8  0.0543   49.2  0.2982  -47.1
 1.040  0.5629  169.2   5.232   75.2  0.0551   49.3  0.2967  -47.2
 1.060  0.5641  168.3   5.139   74.5  0.0560   49.3  0.2951  -47.4
 1.080  0.5656  167.4   5.047   73.9  0.0568   49.4  0.2936  -47.5
 1.100  0.5671  166.5   4.955   73.2  0.0576   49.5  0.2921  -47.7
 1.120  0.5664  165.7   4.871   72.7  0.0583   49.5  0.2910  -47.9
 1.140  0.5659  164.9   4.787   72.2  0.0589   49.5  0.2900  -48.0
 1.160  0.5654  164.1   4.704   71.6  0.0596   49.5  0.2889  -48.2
 1.180  0.5651  163.3   4.621   71.1  0.0602   49.5  0.2879  -48.3
 1.200  0.5649  162.5   4.539   70.5  0.0609   49.5  0.2868  -48.5
 1.220  0.5660  161.8   4.468   69.9  0.0616   49.5  0.2859  -48.7
 1.240  0.5673  161.0   4.398   69.4  0.0623   49.6  0.2849  -49.0
 1.260  0.5686  160.3   4.328   68.8  0.0631   49.6  0.2840  -49.2
 1.280  0.5701  159.5   4.258   68.1  0.0638   49.7  0.2830  -49.5
 1.300  0.5716  158.8   4.189   67.5  0.0645   49.7  0.2821  -49.7
 1.320  0.5721  158.0   4.132   67.0  0.0652   49.7  0.2813  -49.9
 1.340  0.5726  157.2   4.076   66.5  0.0659   49.6  0.2806  -50.2
 1.360  0.5733  156.5   4.019   66.0  0.0665   49.6  0.2798  -50.4
 1.380  0.5741  155.7   3.964   65.4  0.0672   49.5  0.2791  -50.7
 1.400  0.5750  154.9   3.908   64.9  0.0679   49.5  0.2783  -50.9
 1.420  0.5760  154.3   3.855   64.3  0.0687   49.5  0.2775  -51.1
 1.440  0.5771  153.6   3.802   63.7  0.0695   49.5  0.2767  -51.4
 1.460  0.5782  153.0   3.749   63.1  0.0702   49.6  0.2759  -51.6
 1.480  0.5794  152.3   3.697   62.5  0.0710   49.6  0.2751  -51.9
 1.500  0.5807  151.7   3.646   61.8  0.0718   49.6  0.2743  -52.1
 1.520  0.5817  151.0   3.601   61.3  0.0725   49.5  0.2737  -52.4
 1.540  0.5828  150.3   3.557   60.8  0.0733   49.5  0.2732  -52.7
 1.560  0.5839  149.6   3.513   60.3  0.0740   49.4  0.2726  -53.0
 1.580  0.5852  148.9   3.469   59.8  0.0748   49.4  0.2720  -53.3
 1.600  0.5865  148.2   3.426   59.3  0.0755   49.3  0.2715  -53.6
 1.620  0.5872  147.5   3.383   58.8  0.0762   49.3  0.2708  -54.0
 1.640  0.5880  146.7   3.340   58.3  0.0769   49.2  0.2701  -54.4
 1.660  0.5890  146.0   3.297   57.8  0.0775   49.2  0.2694  -54.7
 1.680  0.5900  145.2   3.255   57.2  0.0782   49.1  0.2687  -55.1
 1.700  0.5911  144.5   3.213   56.7  0.0789   49.1  0.2680  -55.5
 1.720  0.5926  144.0   3.177   56.2  0.0797   49.0  0.2672  -55.8
 1.740  0.5941  143.4   3.141   55.7  0.0804   48.9  0.2665  -56.1
 1.760  0.5957  142.9   3.105   55.1  0.0812   48.9  0.2657  -56.5
 1.780  0.5973  142.3   3.069   54.6  0.0819   48.8  0.2649  -56.8
 1.800  0.5990  141.8   3.034   54.0  0.0827   48.7  0.2642  -57.1
 1.820  0.5992  141.2   3.000   53.5  0.0835   48.6  0.2637  -57.4
 1.840  0.5995  140.6   2.967   53.1  0.0843   48.4  0.2633  -57.8
 1.860  0.5999  139.9   2.933   52.6  0.0851   48.3  0.2628  -58.1
 1.880  0.6003  139.3   2.900   52.1  0.0859   48.1  0.2623  -58.5
 1.900  0.6008  138.7   2.867   51.6  0.0867   48.0  0.2619  -58.8
 1.920  0.6020  138.1   2.836   51.1  0.0873   47.9  0.2615  -59.2
 1.940  0.6033  137.5   2.806   50.6  0.0879   47.8  0.2611  -59.6
 1.960  0.6046  136.8   2.775   50.1  0.0884   47.8  0.2607  -59.9
 1.980  0.6060  136.2   2.745   49.6  0.0890   47.7  0.2603  -60.3
 2.000  0.6075  135.6   2.715   49.1  0.0896   47.6  0.2599  -60.7
 2.020  0.6083  135.0   2.689   48.6  0.0903   47.5  0.2593  -61.1
 2.040  0.6092  134.4   2.664   48.2  0.0911   47.4  0.2586  -61.5
 2.060  0.6102  133.8   2.639   47.7  0.0918   47.3  0.2580  -62.0
 2.080  0.6112  133.3   2.614   47.2  0.0926   47.1  0.2574  -62.4
 2.100  0.6123  132.7   2.589   46.7  0.0933   47.0  0.2569  -62.8
 2.120  0.6135  132.1   2.564   46.2  0.0941   46.9  0.2563  -63.3
 2.140  0.6147  131.5   2.540   45.7  0.0948   46.8  0.2558  -63.7
 2.160  0.6160  130.9   2.516   45.2  0.0956   46.7  0.2552  -64.1
 2.180  0.6173  130.4   2.492   44.6  0.0963   46.6  0.2547  -64.6
 2.200  0.6187  129.8   2.468   44.1  0.0971   46.5  0.2542  -65.0
 2.220  0.6199  129.2   2.446   43.7  0.0978   46.4  0.2537  -65.5
 2.240  0.6212  128.7   2.425   43.2  0.0985   46.2  0.2532  -65.9
 2.260  0.6226  128.2   2.403   42.8  0.0992   46.1  0.2528  -66.4
 2.280  0.6240  127.6   2.382   42.4  0.0999   45.9  0.2523  -66.8
 2.300  0.6255  127.1   2.361   41.9  0.1006   45.8  0.2519  -67.3
 2.320  0.6270  126.5   2.340   41.4  0.1013   45.6  0.2515  -67.7
 2.340  0.6285  126.0   2.319   41.0  0.1020   45.5  0.2511  -68.2
 2.360  0.6302  125.5   2.299   40.5  0.1027   45.4  0.2507  -68.7
 2.380  0.6319  124.9   2.278   40.0  0.1034   45.2  0.2503  -69.1
 2.400  0.6336  124.4   2.258   39.5  0.1041   45.1  0.2500  -69.6
 2.420  0.6349  123.9   2.239   39.1  0.1048   45.0  0.2494  -70.1
 2.440  0.6362  123.4   2.219   38.7  0.1055   44.8  0.2488  -70.6
 2.460  0.6376  122.9   2.200   38.2  0.1061   44.7  0.2482  -71.0
 2.480  0.6390  122.4   2.181   37.8  0.1068   44.5  0.2476  -71.5
 2.500  0.6405  121.9   2.162   37.3  0.1075   44.4  0.2470  -72.0
 2.520  0.6420  121.4   2.144   36.9  0.1082   44.2  0.2465  -72.5
 2.540  0.6435  120.9   2.125   36.4  0.1089   44.1  0.2460  -73.0
 2.560  0.6451  120.5   2.107   36.0  0.1095   44.0  0.2455  -73.5
 2.580  0.6468  120.0   2.088   35.5  0.1102   43.8  0.2450  -74.0
 2.600  0.6485  119.5   2.070   35.0  0.1109   43.7  0.2445  -74.5
 2.620  0.6498  119.0   2.054   34.5  0.1116   43.5  0.2441  -75.0
 2.640  0.6512  118.5   2.038   34.1  0.1123   43.4  0.2436  -75.5
 2.660  0.6526  118.1   2.022   33.6  0.1130   43.2  0.2432  -76.1
 2.680  0.6540  117.6   2.006   33.1  0.1136   43.0  0.2429  -76.6
 2.700  0.6555  117.1   1.990   32.6  0.1143   42.9  0.2425  -77.1
 2.720  0.6571  116.7   1.975   32.2  0.1150   42.7  0.2422  -77.7
 2.740  0.6587  116.2   1.959   31.7  0.1157   42.6  0.2418  -78.2
 2.760  0.6603  115.7   1.944   31.1  0.1164   42.4  0.2415  -78.7
 2.780  0.6620  115.3   1.929   30.6  0.1171   42.3  0.2413  -79.3
 2.800  0.6637  114.8   1.914   30.1  0.1178   42.1  0.2410  -79.8
 2.820  0.6647  114.4   1.900   29.7  0.1184   42.0  0.2405  -80.3
 2.840  0.6658  113.9   1.886   29.3  0.1190   41.8  0.2399  -80.9
 2.860  0.6669  113.5   1.872   29.0  0.1196   41.7  0.2394  -81.4
 2.880  0.6680  113.0   1.859   28.6  0.1202   41.5  0.2389  -82.0
 2.900  0.6692  112.6   1.845   28.2  0.1208   41.4  0.2385  -82.5
 2.920  0.6704  112.1   1.831   27.8  0.1215   41.2  0.2380  -83.1
 2.940  0.6716  111.7   1.818   27.4  0.1221   41.1  0.2376  -83.6
 2.960  0.6729  111.3   1.804   26.9  0.1227   41.0  0.2372  -84.2
 2.980  0.6742  110.8   1.791   26.5  0.1233   40.8  0.2369  -84.7
 3.000  0.6756  110.4   1.778   26.1  0.1239   40.7  0.2365  -85.3
 3.100  0.6809  108.3   1.717   24.3  0.1270   39.8  0.2348  -88.2
 3.200  0.6870  106.3   1.658   22.4  0.1301   39.0  0.2338  -91.2
 3.300  0.6940  104.3   1.601   20.4  0.1332   38.2  0.2334  -94.2
 3.400  0.7018  102.4   1.546   18.2  0.1364   37.4  0.2336  -97.1
 3.500  0.7104  100.5   1.493   15.8  0.1396   36.7  0.2344 -100.1
 3.600  0.7156   98.7   1.449   14.1  0.1425   35.8  0.2340 -103.3
 3.700  0.7215   97.0   1.406   12.3  0.1454   34.9  0.2344 -106.6
 3.800  0.7281   95.2   1.364   10.4  0.1484   34.0  0.2355 -109.8
 3.900  0.7353   93.6   1.324    8.4  0.1514   33.2  0.2374 -113.0
 4.000  0.7432   91.9   1.286    6.3  0.1544   32.4  0.2400 -116.1
 4.100  0.7470   90.4   1.249    4.7  0.1570   31.5  0.2410 -119.4
 4.200  0.7512   89.0   1.214    3.0  0.1597   30.6  0.2428 -122.6
 4.300  0.7560   87.6   1.179    1.2  0.1623   29.8  0.2453 -125.8
 4.400  0.7612   86.2   1.146   -0.8  0.1651   29.0  0.2486 -129.0
 4.500  0.7668   84.8   1.114   -2.8  0.1678   28.2  0.2526 -132.0
 4.600  0.7689   83.6   1.085   -4.1  0.1703   27.6  0.2551 -134.8
 4.700  0.7714   82.4   1.057   -5.4  0.1729   27.0  0.2582 -137.5
 4.800  0.7742   81.2   1.029   -6.8  0.1755   26.4  0.2618 -140.1
 4.900  0.7773   80.1   1.002   -8.3  0.1781   25.8  0.2659 -142.6
 5.000  0.7808   78.9   0.976   -9.9  0.1807   25.3  0.2706 -145.1
 5.100  0.7844   77.8   0.954  -11.3  0.1840   24.3  0.2768 -147.7
 5.200  0.7882   76.8   0.933  -12.8  0.1873   23.3  0.2835 -150.2
 5.300  0.7923   75.7   0.913  -14.4  0.1907   22.4  0.2908 -152.6
 5.400  0.7966   74.7   0.893  -16.0  0.1942   21.5  0.2985 -154.9
 5.500  0.8012   73.7   0.874  -17.7  0.1977   20.6  0.3067 -157.0
 5.600  0.8049   72.7   0.855  -19.0  0.2001   19.6  0.3126 -159.4
 5.700  0.8089   71.7   0.837  -20.3  0.2026   18.7  0.3190 -161.6
 5.800  0.8131   70.7   0.819  -21.7  0.2051   17.8  0.3258 -163.8
 5.900  0.8176   69.8   0.801  -23.1  0.2077   16.9  0.3332 -165.9
 6.000  0.8223   68.8   0.784  -24.6  0.2103   16.0  0.3409 -167.9
!
!  f       NFmin   Gammaopt  rn/50
! GHz       dB    MAG  ANG    -
!
! noise parameter not available yet for this operation point!
!
! (c) 2016  Infineon Technologies AG, Munich
