! Infineon Technologies  Discrete & RF Semiconductors
! BFP181
! VCE = 0.75V,  IC =  6.0 mA
! Common Emitter S-Parameters:                            Jan 2016
# GHz  S  MA  R  50
!  f         S11            S21            S12            S22
! GHz     MAG   ANG      MAG   ANG      MAG   ANG      MAG   ANG
 0.010  0.8058   -3.2  14.711  178.1  0.0018   83.2  0.9643   -1.2
 0.015  0.8082   -4.9  14.742  177.1  0.0029   82.8  0.9631   -1.8
 0.020  0.8112   -6.5  14.777  176.2  0.0040   82.6  0.9621   -2.5
 0.025  0.8076   -8.0  14.740  175.1  0.0050   82.7  0.9603   -3.1
 0.030  0.8046   -9.5  14.709  173.9  0.0060   82.8  0.9586   -3.8
 0.035  0.8022  -11.0  14.683  172.8  0.0070   82.9  0.9570   -4.4
 0.040  0.8003  -12.5  14.664  171.6  0.0080   82.9  0.9555   -5.0
 0.045  0.7989  -14.0  14.650  170.5  0.0090   83.0  0.9541   -5.7
 0.050  0.7981  -15.5  14.643  169.3  0.0100   83.0  0.9529   -6.3
 0.055  0.7930  -16.9  14.552  168.3  0.0108   81.3  0.9497   -6.9
 0.060  0.7885  -18.4  14.464  167.4  0.0117   79.9  0.9466   -7.5
 0.065  0.7845  -19.8  14.381  166.4  0.0125   78.6  0.9436   -8.0
 0.070  0.7809  -21.3  14.302  165.4  0.0134   77.5  0.9407   -8.6
 0.075  0.7779  -22.8  14.228  164.4  0.0143   76.6  0.9379   -9.2
 0.080  0.7755  -24.3  14.157  163.4  0.0151   75.7  0.9352   -9.8
 0.085  0.7735  -25.8  14.092  162.4  0.0160   74.9  0.9326  -10.4
 0.090  0.7721  -27.4  14.030  161.4  0.0169   74.3  0.9301  -11.0
 0.095  0.7713  -28.9  13.973  160.3  0.0177   73.7  0.9277  -11.6
 0.100  0.7710  -30.4  13.921  159.3  0.0186   73.1  0.9254  -12.2
 0.105  0.7656  -31.7  13.835  158.4  0.0194   72.2  0.9205  -12.7
 0.110  0.7606  -33.1  13.753  157.4  0.0202   71.3  0.9158  -13.2
 0.115  0.7560  -34.5  13.675  156.5  0.0211   70.6  0.9110  -13.7
 0.120  0.7519  -35.8  13.600  155.5  0.0219   69.9  0.9064  -14.2
 0.125  0.7482  -37.2  13.530  154.5  0.0227   69.2  0.9018  -14.7
 0.130  0.7450  -38.7  13.463  153.5  0.0235   68.6  0.8973  -15.2
 0.135  0.7422  -40.1  13.401  152.5  0.0244   68.0  0.8929  -15.7
 0.140  0.7399  -41.5  13.342  151.5  0.0252   67.5  0.8885  -16.2
 0.145  0.7381  -43.0  13.288  150.5  0.0261   67.0  0.8842  -16.8
 0.150  0.7367  -44.4  13.238  149.5  0.0269   66.5  0.8800  -17.3
 0.155  0.7314  -45.7  13.138  148.7  0.0276   65.9  0.8752  -17.7
 0.160  0.7265  -46.9  13.041  148.0  0.0282   65.3  0.8704  -18.1
 0.165  0.7219  -48.2  12.946  147.2  0.0289   64.8  0.8656  -18.5
 0.170  0.7177  -49.5  12.853  146.4  0.0296   64.2  0.8609  -19.0
 0.175  0.7138  -50.8  12.763  145.5  0.0302   63.7  0.8563  -19.4
 0.180  0.7104  -52.2  12.676  144.7  0.0309   63.2  0.8517  -19.8
 0.185  0.7073  -53.5  12.591  143.9  0.0316   62.8  0.8471  -20.3
 0.190  0.7047  -54.9  12.509  143.0  0.0322   62.3  0.8426  -20.7
 0.195  0.7024  -56.2  12.430  142.2  0.0329   61.9  0.8382  -21.1
 0.200  0.7005  -57.6  12.354  141.3  0.0336   61.5  0.8338  -21.6
 0.220  0.6821  -61.9  11.921  138.5  0.0356   59.3  0.8147  -22.8
 0.240  0.6677  -66.5  11.519  135.5  0.0377   57.3  0.7960  -24.1
 0.260  0.6528  -70.9  11.150  132.8  0.0396   55.6  0.7777  -25.3
 0.280  0.6365  -75.2  10.805  130.4  0.0414   54.2  0.7597  -26.3
 0.300  0.6241  -79.7  10.480  127.8  0.0431   52.8  0.7420  -27.3
 0.320  0.6069  -83.1  10.131  125.8  0.0443   51.6  0.7265  -27.9
 0.340  0.5919  -86.7   9.795  123.8  0.0455   50.4  0.7111  -28.6
 0.360  0.5794  -90.4   9.473  121.5  0.0468   49.3  0.6957  -29.3
 0.380  0.5694  -94.3   9.166  119.1  0.0480   48.2  0.6805  -30.0
 0.400  0.5621  -98.3   8.876  116.6  0.0493   47.2  0.6654  -30.7
 0.420  0.5507 -101.2   8.602  115.2  0.0502   46.3  0.6544  -31.1
 0.440  0.5406 -104.1   8.333  113.7  0.0511   45.5  0.6434  -31.4
 0.450  0.5362 -105.6   8.201  112.9  0.0516   45.1  0.6379  -31.6
 0.460  0.5321 -107.2   8.071  112.1  0.0521   44.7  0.6324  -31.8
 0.480  0.5252 -110.4   7.815  110.3  0.0530   43.9  0.6214  -32.2
 0.500  0.5199 -113.6   7.567  108.5  0.0540   43.2  0.6105  -32.6
 0.520  0.5127 -116.1   7.369  107.3  0.0548   42.8  0.6025  -32.8
 0.540  0.5064 -118.6   7.175  106.0  0.0556   42.4  0.5945  -33.1
 0.560  0.5012 -121.2   6.985  104.6  0.0563   42.0  0.5866  -33.3
 0.580  0.4971 -123.9   6.799  103.2  0.0571   41.6  0.5786  -33.5
 0.600  0.4940 -126.6   6.617  101.7  0.0579   41.2  0.5707  -33.8
 0.620  0.4874 -128.8   6.443  100.7  0.0584   40.9  0.5645  -34.0
 0.640  0.4815 -131.0   6.271   99.6  0.0589   40.7  0.5583  -34.1
 0.660  0.4763 -133.3   6.102   98.4  0.0594   40.4  0.5521  -34.3
 0.680  0.4719 -135.6   5.935   97.2  0.0599   40.2  0.5460  -34.4
 0.700  0.4683 -138.0   5.771   95.9  0.0604   39.9  0.5398  -34.6
 0.720  0.4646 -139.9   5.649   95.0  0.0610   39.8  0.5352  -34.7
 0.740  0.4614 -141.9   5.529   94.0  0.0616   39.6  0.5306  -34.8
 0.760  0.4588 -143.8   5.411   93.0  0.0622   39.5  0.5259  -34.9
 0.780  0.4567 -145.8   5.295   91.9  0.0628   39.3  0.5213  -35.0
 0.800  0.4551 -147.8   5.180   90.8  0.0634   39.2  0.5167  -35.1
 0.820  0.4525 -149.4   5.077   90.0  0.0640   39.1  0.5132  -35.2
 0.840  0.4503 -151.1   4.976   89.2  0.0646   39.1  0.5097  -35.4
 0.860  0.4484 -152.7   4.875   88.3  0.0653   39.0  0.5062  -35.5
 0.880  0.4470 -154.4   4.776   87.4  0.0659   39.0  0.5027  -35.7
 0.900  0.4459 -156.1   4.678   86.5  0.0665   38.9  0.4992  -35.8
 0.920  0.4450 -157.6   4.589   85.7  0.0669   38.8  0.4966  -36.0
 0.940  0.4445 -159.1   4.502   85.0  0.0673   38.7  0.4939  -36.1
 0.960  0.4442 -160.5   4.415   84.1  0.0678   38.7  0.4913  -36.3
 0.980  0.4443 -162.0   4.329   83.3  0.0682   38.6  0.4887  -36.4
 1.000  0.4446 -163.5   4.244   82.4  0.0686   38.5  0.4861  -36.6
 1.020  0.4437 -165.0   4.175   81.7  0.0693   38.5  0.4840  -36.8
 1.040  0.4432 -166.5   4.106   80.9  0.0700   38.5  0.4819  -36.9
 1.060  0.4429 -167.9   4.038   80.1  0.0707   38.4  0.4798  -37.1
 1.080  0.4430 -169.4   3.971   79.3  0.0714   38.4  0.4778  -37.2
 1.100  0.4433 -170.9   3.905   78.4  0.0721   38.4  0.4757  -37.4
 1.120  0.4416 -172.1   3.841   77.8  0.0725   38.4  0.4739  -37.6
 1.140  0.4400 -173.4   3.777   77.1  0.0729   38.4  0.4722  -37.8
 1.160  0.4387 -174.7   3.713   76.5  0.0732   38.3  0.4705  -38.0
 1.180  0.4376 -175.9   3.650   75.8  0.0736   38.3  0.4687  -38.2
 1.200  0.4367 -177.2   3.588   75.1  0.0740   38.3  0.4670  -38.4
 1.220  0.4372 -178.3   3.534   74.4  0.0746   38.3  0.4655  -38.6
 1.240  0.4378 -179.5   3.480   73.8  0.0752   38.3  0.4640  -38.8
 1.260  0.4386  179.4   3.427   73.1  0.0757   38.2  0.4625  -39.0
 1.280  0.4396  178.2   3.374   72.3  0.0763   38.2  0.4611  -39.2
 1.300  0.4408  177.1   3.322   71.6  0.0769   38.2  0.4596  -39.4
 1.320  0.4405  176.0   3.277   71.0  0.0775   38.2  0.4583  -39.6
 1.340  0.4403  174.8   3.232   70.4  0.0781   38.2  0.4571  -39.8
 1.360  0.4403  173.7   3.188   69.8  0.0788   38.1  0.4559  -40.0
 1.380  0.4405  172.5   3.144   69.2  0.0794   38.1  0.4546  -40.2
 1.400  0.4409  171.4   3.101   68.5  0.0800   38.1  0.4534  -40.4
 1.420  0.4418  170.4   3.060   67.8  0.0805   38.2  0.4524  -40.6
 1.440  0.4428  169.4   3.020   67.1  0.0810   38.2  0.4513  -40.8
 1.460  0.4440  168.4   2.981   66.4  0.0815   38.3  0.4503  -41.0
 1.480  0.4453  167.5   2.942   65.7  0.0820   38.3  0.4493  -41.2
 1.500  0.4467  166.5   2.903   64.9  0.0825   38.4  0.4483  -41.4
 1.520  0.4475  165.4   2.868   64.4  0.0830   38.4  0.4474  -41.6
 1.540  0.4485  164.3   2.833   63.8  0.0835   38.4  0.4465  -41.9
 1.560  0.4496  163.2   2.798   63.3  0.0840   38.3  0.4456  -42.1
 1.580  0.4509  162.2   2.763   62.7  0.0845   38.3  0.4447  -42.4
 1.600  0.4523  161.1   2.729   62.1  0.0850   38.3  0.4438  -42.6
 1.620  0.4527  160.1   2.696   61.5  0.0856   38.3  0.4428  -42.9
 1.640  0.4532  159.2   2.664   60.9  0.0862   38.3  0.4419  -43.2
 1.660  0.4539  158.2   2.631   60.3  0.0869   38.2  0.4409  -43.4
 1.680  0.4547  157.3   2.600   59.7  0.0875   38.2  0.4400  -43.7
 1.700  0.4556  156.3   2.568   59.0  0.0881   38.2  0.4391  -44.0
 1.720  0.4565  155.5   2.541   58.4  0.0887   38.2  0.4383  -44.3
 1.740  0.4574  154.6   2.514   57.9  0.0893   38.1  0.4375  -44.6
 1.760  0.4584  153.8   2.488   57.3  0.0900   38.1  0.4367  -44.8
 1.780  0.4596  153.0   2.462   56.7  0.0906   38.0  0.4360  -45.1
 1.800  0.4608  152.2   2.436   56.1  0.0912   38.0  0.4352  -45.4
 1.820  0.4621  151.5   2.412   55.6  0.0918   37.9  0.4343  -45.7
 1.840  0.4636  150.7   2.388   55.1  0.0924   37.8  0.4334  -46.0
 1.860  0.4651  150.0   2.364   54.6  0.0930   37.7  0.4325  -46.2
 1.880  0.4666  149.2   2.340   54.0  0.0936   37.6  0.4317  -46.5
 1.900  0.4683  148.5   2.317   53.5  0.0942   37.5  0.4308  -46.8
 1.920  0.4688  147.6   2.292   53.0  0.0948   37.5  0.4303  -47.1
 1.940  0.4695  146.7   2.266   52.4  0.0955   37.5  0.4298  -47.4
 1.960  0.4702  145.9   2.241   51.9  0.0961   37.4  0.4293  -47.7
 1.980  0.4711  145.0   2.217   51.3  0.0968   37.4  0.4288  -48.0
 2.000  0.4721  144.1   2.192   50.7  0.0974   37.4  0.4283  -48.3
 2.020  0.4736  143.4   2.171   50.2  0.0980   37.4  0.4275  -48.6
 2.040  0.4752  142.7   2.150   49.7  0.0985   37.3  0.4266  -48.9
 2.060  0.4769  141.9   2.129   49.2  0.0991   37.3  0.4258  -49.2
 2.080  0.4786  141.2   2.109   48.7  0.0996   37.2  0.4250  -49.6
 2.100  0.4805  140.5   2.089   48.1  0.1002   37.2  0.4242  -49.9
 2.120  0.4823  139.8   2.069   47.6  0.1008   37.2  0.4235  -50.2
 2.140  0.4843  139.1   2.049   47.0  0.1013   37.1  0.4227  -50.5
 2.160  0.4863  138.5   2.029   46.5  0.1019   37.1  0.4220  -50.9
 2.180  0.4884  137.8   2.009   45.9  0.1024   37.0  0.4212  -51.2
 2.200  0.4906  137.1   1.990   45.3  0.1030   37.0  0.4205  -51.5
 2.220  0.4919  136.4   1.974   44.8  0.1036   36.9  0.4198  -51.8
 2.240  0.4932  135.7   1.958   44.4  0.1042   36.8  0.4191  -52.2
 2.260  0.4946  135.0   1.942   43.9  0.1048   36.7  0.4184  -52.5
 2.280  0.4961  134.4   1.927   43.4  0.1054   36.6  0.4178  -52.9
 2.300  0.4976  133.7   1.911   42.9  0.1060   36.5  0.4172  -53.2
 2.320  0.4993  133.0   1.896   42.5  0.1067   36.4  0.4165  -53.6
 2.340  0.5009  132.4   1.881   42.0  0.1073   36.3  0.4159  -53.9
 2.360  0.5027  131.7   1.866   41.4  0.1079   36.2  0.4153  -54.3
 2.380  0.5045  131.1   1.851   40.9  0.1085   36.1  0.4148  -54.6
 2.400  0.5064  130.4   1.836   40.4  0.1091   36.0  0.4142  -55.0
 2.420  0.5079  129.8   1.820   39.9  0.1097   35.9  0.4133  -55.3
 2.440  0.5096  129.1   1.804   39.5  0.1102   35.8  0.4125  -55.7
 2.460  0.5112  128.5   1.789   39.0  0.1108   35.8  0.4117  -56.0
 2.480  0.5130  127.9   1.773   38.5  0.1113   35.7  0.4109  -56.4
 2.500  0.5147  127.2   1.758   38.0  0.1119   35.6  0.4101  -56.7
 2.520  0.5166  126.6   1.743   37.5  0.1125   35.5  0.4093  -57.1
 2.540  0.5185  126.0   1.727   37.0  0.1130   35.4  0.4085  -57.4
 2.560  0.5205  125.4   1.713   36.5  0.1136   35.4  0.4078  -57.8
 2.580  0.5225  124.8   1.698   35.9  0.1141   35.3  0.4070  -58.1
 2.600  0.5246  124.2   1.683   35.4  0.1147   35.2  0.4063  -58.5
 2.620  0.5259  123.7   1.671   34.9  0.1153   35.1  0.4057  -58.9
 2.640  0.5273  123.1   1.659   34.5  0.1158   35.0  0.4052  -59.3
 2.660  0.5287  122.6   1.647   34.0  0.1164   34.8  0.4047  -59.7
 2.680  0.5301  122.0   1.635   33.5  0.1170   34.7  0.4042  -60.1
 2.700  0.5316  121.5   1.624   33.0  0.1175   34.6  0.4037  -60.5
 2.720  0.5332  121.0   1.612   32.5  0.1181   34.5  0.4033  -60.9
 2.740  0.5348  120.5   1.601   32.0  0.1187   34.3  0.4029  -61.4
 2.760  0.5364  119.9   1.589   31.5  0.1193   34.2  0.4025  -61.8
 2.780  0.5381  119.4   1.578   31.0  0.1198   34.1  0.4021  -62.2
 2.800  0.5398  118.9   1.567   30.5  0.1204   34.0  0.4017  -62.6
 2.820  0.5417  118.3   1.556   30.1  0.1210   33.9  0.4007  -63.0
 2.840  0.5437  117.7   1.545   29.6  0.1215   33.8  0.3998  -63.4
 2.860  0.5457  117.1   1.534   29.2  0.1221   33.7  0.3989  -63.8
 2.880  0.5478  116.6   1.523   28.7  0.1227   33.6  0.3980  -64.1
 2.900  0.5499  116.0   1.512   28.2  0.1232   33.5  0.3971  -64.5
 2.920  0.5521  115.4   1.501   27.8  0.1238   33.4  0.3963  -64.9
 2.940  0.5544  114.9   1.490   27.3  0.1244   33.3  0.3954  -65.3
 2.960  0.5566  114.3   1.480   26.8  0.1250   33.2  0.3946  -65.7
 2.980  0.5590  113.7   1.469   26.3  0.1255   33.1  0.3938  -66.1
 3.000  0.5614  113.2   1.459   25.8  0.1261   33.0  0.3930  -66.5
 3.100  0.5681  110.8   1.410   23.9  0.1290   32.4  0.3898  -68.7
 3.200  0.5757  108.5   1.364   21.8  0.1319   31.8  0.3873  -70.9
 3.300  0.5842  106.3   1.319   19.6  0.1348   31.3  0.3853  -73.2
 3.400  0.5936  104.1   1.276   17.3  0.1377   30.8  0.3839  -75.4
 3.500  0.6038  102.0   1.235   14.8  0.1406   30.3  0.3831  -77.7
 3.600  0.6105  100.1   1.199   13.0  0.1433   29.5  0.3798  -80.1
 3.700  0.6179   98.3   1.165   11.2  0.1460   28.7  0.3772  -82.5
 3.800  0.6258   96.5   1.132    9.2  0.1488   28.0  0.3753  -85.0
 3.900  0.6344   94.7   1.100    7.1  0.1516   27.3  0.3741  -87.4
 4.000  0.6436   93.0   1.070    4.9  0.1544   26.6  0.3736  -89.9
 4.100  0.6484   91.4   1.041    3.2  0.1568   25.8  0.3714  -92.5
 4.200  0.6537   89.8   1.012    1.4  0.1592   25.1  0.3700  -95.1
 4.300  0.6595   88.3   0.985   -0.5  0.1616   24.3  0.3693  -97.7
 4.400  0.6657   86.8   0.959   -2.5  0.1641   23.6  0.3694 -100.4
 4.500  0.6724   85.3   0.934   -4.6  0.1666   22.9  0.3703 -103.0
 4.600  0.6780   84.0   0.911   -6.1  0.1690   22.2  0.3694 -105.6
 4.700  0.6839   82.7   0.889   -7.6  0.1714   21.6  0.3692 -108.2
 4.800  0.6902   81.4   0.867   -9.2  0.1739   21.0  0.3698 -110.8
 4.900  0.6968   80.1   0.846  -10.9  0.1763   20.4  0.3712 -113.3
 5.000  0.7038   78.9   0.826  -12.7  0.1788   19.8  0.3733 -115.9
 5.100  0.7075   77.8   0.807  -14.1  0.1816   19.1  0.3751 -118.5
 5.200  0.7114   76.6   0.788  -15.6  0.1844   18.3  0.3777 -121.0
 5.300  0.7156   75.5   0.770  -17.1  0.1873   17.6  0.3810 -123.5
 5.400  0.7201   74.4   0.752  -18.7  0.1902   17.0  0.3851 -126.0
 5.500  0.7249   73.3   0.735  -20.4  0.1931   16.3  0.3898 -128.4
 5.600  0.7294   72.2   0.719  -21.7  0.1954   15.4  0.3926 -130.9
 5.700  0.7342   71.2   0.704  -23.1  0.1978   14.6  0.3962 -133.4
 5.800  0.7392   70.1   0.689  -24.5  0.2002   13.8  0.4005 -135.8
 5.900  0.7444   69.1   0.674  -26.0  0.2027   13.0  0.4055 -138.1
 6.000  0.7499   68.1   0.660  -27.5  0.2052   12.2  0.4111 -140.4
!
!  f       NFmin   Gammaopt  rn/50
! GHz       dB    MAG  ANG    -
!
! noise parameter not available yet for this operation point!
!
! (c) 2016  Infineon Technologies AG, Munich
