! Infineon Technologies  Discrete & RF Semiconductors
! BFP193W
! VCE = 8.0 V,  IC =  8.0 mA
! Common Emitter S-Parameters:                            Jan 2016
# GHz  S  MA  R  50
!  f         S11            S21            S12            S22
! GHz     MAG   ANG      MAG   ANG      MAG   ANG      MAG   ANG
 0.010  0.7853   -6.1  22.746  175.5  0.0036   88.0  0.9836   -2.4
 0.015  0.7851   -9.3  22.766  174.2  0.0054   85.7  0.9790   -4.4
 0.020  0.7872  -12.4  22.796  173.0  0.0072   84.5  0.9757   -6.5
 0.025  0.7832  -15.5  22.678  171.4  0.0089   82.9  0.9710   -8.0
 0.030  0.7815  -18.6  22.577  169.8  0.0106   81.8  0.9669   -9.5
 0.035  0.7770  -21.6  22.424  168.2  0.0123   79.3  0.9596  -11.0
 0.040  0.7746  -24.6  22.288  166.5  0.0141   77.4  0.9530  -12.5
 0.045  0.7743  -27.6  22.172  164.9  0.0158   76.0  0.9470  -14.0
 0.050  0.7762  -30.6  22.074  163.2  0.0176   74.8  0.9417  -15.5
 0.055  0.7677  -33.2  21.809  161.9  0.0189   72.8  0.9312  -16.7
 0.060  0.7608  -35.9  21.556  160.5  0.0202   71.2  0.9210  -17.9
 0.065  0.7555  -38.6  21.315  159.1  0.0216   69.7  0.9113  -19.2
 0.070  0.7520  -41.3  21.087  157.7  0.0229   68.4  0.9021  -20.4
 0.075  0.7502  -44.1  20.873  156.2  0.0243   67.2  0.8933  -21.7
 0.080  0.7501  -46.8  20.673  154.7  0.0256   66.1  0.8850  -23.1
 0.085  0.7518  -49.6  20.486  153.2  0.0270   65.2  0.8771  -24.4
 0.090  0.7552  -52.3  20.315  151.7  0.0284   64.4  0.8698  -25.8
 0.095  0.7603  -55.0  20.158  150.1  0.0298   63.6  0.8629  -27.2
 0.100  0.7671  -57.7  20.017  148.5  0.0312   62.9  0.8566  -28.6
 0.105  0.7600  -59.8  19.743  147.4  0.0322   61.6  0.8453  -29.6
 0.110  0.7540  -62.0  19.476  146.3  0.0331   60.4  0.8343  -30.5
 0.115  0.7490  -64.2  19.217  145.2  0.0341   59.3  0.8236  -31.6
 0.120  0.7451  -66.4  18.965  144.0  0.0351   58.2  0.8131  -32.6
 0.125  0.7424  -68.6  18.721  142.8  0.0362   57.2  0.8028  -33.7
 0.130  0.7408  -70.8  18.486  141.6  0.0372   56.2  0.7929  -34.8
 0.135  0.7403  -73.1  18.259  140.4  0.0382   55.3  0.7832  -35.9
 0.140  0.7410  -75.3  18.041  139.1  0.0393   54.5  0.7739  -37.0
 0.145  0.7428  -77.6  17.833  137.7  0.0403   53.7  0.7649  -38.2
 0.150  0.7457  -79.8  17.634  136.4  0.0414   52.9  0.7562  -39.4
 0.155  0.7413  -81.5  17.383  135.6  0.0420   52.1  0.7463  -40.1
 0.160  0.7376  -83.2  17.135  134.7  0.0426   51.4  0.7364  -40.8
 0.165  0.7345  -85.0  16.891  133.9  0.0433   50.6  0.7267  -41.5
 0.170  0.7322  -86.8  16.652  133.0  0.0439   49.9  0.7171  -42.2
 0.175  0.7305  -88.5  16.416  132.0  0.0445   49.2  0.7076  -42.9
 0.180  0.7295  -90.3  16.185  131.1  0.0452   48.5  0.6983  -43.7
 0.185  0.7293  -92.1  15.959  130.1  0.0458   47.9  0.6891  -44.5
 0.190  0.7297  -93.9  15.737  129.1  0.0465   47.2  0.6800  -45.3
 0.195  0.7309  -95.6  15.520  128.1  0.0471   46.6  0.6710  -46.1
 0.200  0.7327  -97.4  15.309  127.0  0.0478   46.0  0.6622  -47.0
 0.220  0.7260 -102.7  14.519  124.4  0.0497   43.8  0.6308  -49.2
 0.240  0.7254 -108.0  13.762  121.5  0.0517   41.8  0.6004  -51.7
 0.260  0.7237 -112.6  13.054  118.9  0.0532   40.1  0.5722  -53.8
 0.280  0.7188 -116.7  12.379  116.6  0.0544   38.6  0.5456  -55.4
 0.300  0.7177 -120.9  11.726  114.1  0.0555   37.2  0.5195  -57.2
 0.320  0.7128 -123.9  11.235  112.6  0.0563   36.2  0.5010  -58.2
 0.340  0.7099 -127.0  10.751  111.0  0.0570   35.2  0.4828  -59.4
 0.360  0.7091 -130.1  10.277  109.3  0.0578   34.2  0.4647  -60.6
 0.380  0.7103 -133.1   9.813  107.4  0.0587   33.2  0.4468  -61.9
 0.400  0.7135 -136.2   9.361  105.3  0.0595   32.3  0.4292  -63.3
 0.420  0.7108 -138.3   9.029  104.2  0.0600   31.9  0.4172  -64.0
 0.440  0.7091 -140.5   8.700  103.0  0.0606   31.5  0.4053  -64.8
 0.450  0.7087 -141.6   8.537  102.3  0.0608   31.3  0.3994  -65.2
 0.460  0.7085 -142.7   8.376  101.6  0.0611   31.1  0.3935  -65.6
 0.480  0.7088 -144.8   8.056  100.2  0.0617   30.8  0.3817  -66.5
 0.500  0.7102 -147.0   7.742   98.7  0.0622   30.4  0.3701  -67.4
 0.520  0.7083 -148.6   7.500   97.8  0.0625   30.2  0.3619  -67.9
 0.540  0.7070 -150.2   7.261   96.9  0.0628   29.9  0.3537  -68.5
 0.560  0.7063 -151.9   7.023   95.8  0.0631   29.7  0.3456  -69.1
 0.580  0.7061 -153.5   6.788   94.8  0.0634   29.4  0.3375  -69.7
 0.600  0.7065 -155.1   6.555   93.6  0.0637   29.2  0.3294  -70.4
 0.620  0.7068 -156.3   6.385   92.8  0.0641   29.2  0.3237  -70.8
 0.640  0.7073 -157.5   6.217   92.1  0.0645   29.1  0.3180  -71.2
 0.660  0.7082 -158.7   6.049   91.2  0.0648   29.1  0.3124  -71.7
 0.680  0.7094 -159.9   5.883   90.3  0.0652   29.0  0.3067  -72.1
 0.700  0.7109 -161.1   5.719   89.4  0.0656   29.0  0.3011  -72.6
 0.720  0.7094 -162.1   5.577   88.7  0.0659   29.0  0.2973  -73.0
 0.740  0.7081 -163.1   5.436   88.0  0.0661   29.0  0.2936  -73.4
 0.760  0.7070 -164.2   5.296   87.2  0.0664   29.1  0.2898  -73.9
 0.780  0.7061 -165.2   5.156   86.4  0.0666   29.1  0.2861  -74.3
 0.800  0.7055 -166.2   5.018   85.6  0.0669   29.1  0.2824  -74.8
 0.820  0.7056 -167.1   4.912   85.0  0.0672   29.2  0.2795  -75.2
 0.840  0.7058 -167.9   4.806   84.3  0.0675   29.3  0.2767  -75.5
 0.860  0.7062 -168.8   4.700   83.7  0.0678   29.3  0.2738  -75.9
 0.880  0.7068 -169.6   4.596   82.9  0.0681   29.4  0.2710  -76.3
 0.900  0.7075 -170.5   4.492   82.2  0.0684   29.5  0.2682  -76.7
 0.920  0.7073 -171.2   4.402   81.6  0.0687   29.6  0.2662  -77.1
 0.940  0.7071 -171.9   4.313   81.1  0.0690   29.8  0.2643  -77.5
 0.960  0.7071 -172.7   4.225   80.5  0.0692   29.9  0.2623  -77.9
 0.980  0.7072 -173.4   4.137   79.9  0.0695   30.1  0.2604  -78.4
 1.000  0.7074 -174.1   4.049   79.2  0.0698   30.2  0.2585  -78.8
 1.020  0.7079 -174.8   3.981   78.6  0.0701   30.3  0.2570  -79.1
 1.040  0.7085 -175.5   3.913   78.1  0.0705   30.4  0.2555  -79.4
 1.060  0.7092 -176.3   3.846   77.5  0.0708   30.6  0.2540  -79.7
 1.080  0.7101 -177.0   3.779   76.8  0.0712   30.7  0.2525  -80.0
 1.100  0.7110 -177.7   3.713   76.2  0.0715   30.8  0.2510  -80.3
 1.120  0.7111 -178.4   3.650   75.7  0.0718   31.0  0.2504  -80.6
 1.140  0.7112 -179.0   3.588   75.1  0.0721   31.1  0.2498  -81.0
 1.160  0.7114 -179.7   3.525   74.6  0.0725   31.3  0.2492  -81.3
 1.180  0.7118  179.7   3.464   74.0  0.0728   31.4  0.2486  -81.7
 1.200  0.7122  179.0   3.402   73.4  0.0731   31.6  0.2480  -82.0
 1.220  0.7124  178.5   3.351   72.9  0.0734   31.8  0.2474  -82.4
 1.240  0.7127  177.9   3.301   72.4  0.0738   32.0  0.2467  -82.8
 1.260  0.7131  177.4   3.251   71.8  0.0741   32.3  0.2461  -83.2
 1.280  0.7135  176.8   3.201   71.3  0.0745   32.5  0.2455  -83.6
 1.300  0.7140  176.3   3.152   70.7  0.0748   32.7  0.2449  -84.0
 1.320  0.7141  175.8   3.109   70.2  0.0752   32.9  0.2445  -84.4
 1.340  0.7143  175.3   3.067   69.7  0.0755   33.0  0.2441  -84.8
 1.360  0.7145  174.8   3.024   69.2  0.0759   33.2  0.2437  -85.3
 1.380  0.7148  174.3   2.982   68.7  0.0762   33.3  0.2434  -85.7
 1.400  0.7151  173.8   2.940   68.2  0.0766   33.5  0.2430  -86.1
 1.420  0.7149  173.3   2.902   67.7  0.0770   33.7  0.2427  -86.5
 1.440  0.7148  172.8   2.864   67.2  0.0773   33.9  0.2423  -86.9
 1.460  0.7147  172.3   2.827   66.7  0.0777   34.2  0.2420  -87.2
 1.480  0.7147  171.8   2.789   66.2  0.0780   34.4  0.2417  -87.6
 1.500  0.7147  171.3   2.752   65.7  0.0784   34.6  0.2414  -88.0
 1.520  0.7153  170.8   2.719   65.2  0.0788   34.8  0.2416  -88.3
 1.540  0.7160  170.3   2.686   64.7  0.0792   35.0  0.2418  -88.5
 1.560  0.7167  169.7   2.653   64.2  0.0797   35.2  0.2420  -88.8
 1.580  0.7175  169.2   2.620   63.6  0.0801   35.4  0.2423  -89.0
 1.600  0.7183  168.7   2.588   63.1  0.0805   35.6  0.2425  -89.3
 1.620  0.7183  168.3   2.558   62.7  0.0809   35.8  0.2428  -89.8
 1.640  0.7183  167.9   2.529   62.3  0.0812   35.9  0.2432  -90.3
 1.660  0.7184  167.4   2.499   61.8  0.0816   36.1  0.2435  -90.8
 1.680  0.7185  167.0   2.470   61.4  0.0819   36.2  0.2439  -91.3
 1.700  0.7187  166.6   2.441   60.9  0.0823   36.4  0.2443  -91.8
 1.720  0.7196  166.2   2.414   60.5  0.0828   36.6  0.2441  -92.2
 1.740  0.7206  165.7   2.387   60.0  0.0833   36.8  0.2439  -92.6
 1.760  0.7216  165.3   2.360   59.6  0.0838   36.9  0.2437  -92.9
 1.780  0.7226  164.8   2.333   59.1  0.0843   37.1  0.2436  -93.3
 1.800  0.7237  164.4   2.307   58.6  0.0848   37.3  0.2434  -93.7
 1.820  0.7231  163.9   2.283   58.1  0.0853   37.5  0.2439  -94.0
 1.840  0.7225  163.4   2.258   57.6  0.0857   37.6  0.2443  -94.3
 1.860  0.7219  163.0   2.234   57.1  0.0862   37.8  0.2448  -94.6
 1.880  0.7214  162.5   2.211   56.6  0.0866   37.9  0.2453  -94.9
 1.900  0.7210  162.0   2.187   56.1  0.0871   38.1  0.2458  -95.2
 1.920  0.7214  161.6   2.166   55.7  0.0876   38.2  0.2466  -95.6
 1.940  0.7218  161.2   2.146   55.3  0.0881   38.3  0.2474  -96.0
 1.960  0.7223  160.7   2.125   54.9  0.0885   38.5  0.2482  -96.4
 1.980  0.7228  160.3   2.105   54.4  0.0890   38.6  0.2490  -96.8
 2.000  0.7233  159.9   2.085   54.0  0.0895   38.7  0.2498  -97.2
 2.020  0.7239  159.5   2.067   53.6  0.0900   38.8  0.2502  -97.6
 2.040  0.7245  159.1   2.048   53.2  0.0905   39.0  0.2506  -98.0
 2.060  0.7252  158.8   2.030   52.8  0.0910   39.1  0.2510  -98.4
 2.080  0.7258  158.4   2.012   52.4  0.0915   39.2  0.2515  -98.9
 2.100  0.7266  158.0   1.994   51.9  0.0919   39.3  0.2519  -99.3
 2.120  0.7273  157.6   1.976   51.5  0.0924   39.4  0.2524  -99.7
 2.140  0.7281  157.2   1.958   51.1  0.0929   39.6  0.2529 -100.1
 2.160  0.7289  156.9   1.940   50.6  0.0934   39.7  0.2534 -100.5
 2.180  0.7297  156.5   1.922   50.2  0.0939   39.8  0.2539 -100.9
 2.200  0.7306  156.1   1.905   49.7  0.0944   39.9  0.2544 -101.3
 2.220  0.7306  155.7   1.889   49.3  0.0949   40.0  0.2552 -101.7
 2.240  0.7307  155.3   1.873   48.9  0.0955   40.1  0.2561 -102.1
 2.260  0.7308  155.0   1.857   48.5  0.0960   40.2  0.2569 -102.5
 2.280  0.7309  154.6   1.841   48.1  0.0965   40.3  0.2578 -102.9
 2.300  0.7310  154.2   1.825   47.6  0.0970   40.4  0.2587 -103.2
 2.320  0.7312  153.8   1.809   47.2  0.0976   40.5  0.2595 -103.6
 2.340  0.7315  153.4   1.793   46.8  0.0981   40.6  0.2604 -104.0
 2.360  0.7317  153.1   1.778   46.3  0.0986   40.7  0.2613 -104.4
 2.380  0.7320  152.7   1.762   45.9  0.0992   40.8  0.2623 -104.7
 2.400  0.7323  152.3   1.747   45.4  0.0997   40.9  0.2632 -105.1
 2.420  0.7328  151.9   1.734   45.0  0.1003   41.0  0.2637 -105.6
 2.440  0.7332  151.6   1.721   44.6  0.1009   41.1  0.2642 -106.0
 2.460  0.7337  151.2   1.708   44.2  0.1014   41.2  0.2647 -106.5
 2.480  0.7343  150.8   1.695   43.8  0.1020   41.3  0.2653 -106.9
 2.500  0.7349  150.4   1.682   43.4  0.1026   41.4  0.2658 -107.4
 2.520  0.7355  150.1   1.669   43.0  0.1032   41.5  0.2664 -107.8
 2.540  0.7361  149.7   1.656   42.6  0.1038   41.6  0.2670 -108.3
 2.560  0.7368  149.3   1.644   42.2  0.1043   41.7  0.2676 -108.7
 2.580  0.7375  149.0   1.631   41.7  0.1049   41.8  0.2683 -109.2
 2.600  0.7382  148.6   1.619   41.3  0.1055   41.9  0.2689 -109.6
 2.620  0.7387  148.2   1.607   40.9  0.1061   42.0  0.2699 -110.0
 2.640  0.7393  147.9   1.596   40.5  0.1067   42.0  0.2709 -110.4
 2.660  0.7399  147.5   1.584   40.2  0.1073   42.1  0.2720 -110.8
 2.680  0.7406  147.2   1.572   39.8  0.1079   42.1  0.2730 -111.2
 2.700  0.7412  146.8   1.561   39.4  0.1085   42.2  0.2741 -111.5
 2.720  0.7419  146.4   1.550   39.0  0.1092   42.2  0.2752 -111.9
 2.740  0.7427  146.1   1.538   38.6  0.1098   42.3  0.2763 -112.3
 2.760  0.7434  145.7   1.527   38.1  0.1104   42.3  0.2774 -112.7
 2.780  0.7442  145.4   1.516   37.7  0.1110   42.4  0.2785 -113.0
 2.800  0.7450  145.0   1.505   37.3  0.1116   42.4  0.2796 -113.4
 2.820  0.7455  144.7   1.495   36.9  0.1122   42.4  0.2803 -113.9
 2.840  0.7460  144.3   1.485   36.6  0.1128   42.5  0.2810 -114.3
 2.860  0.7466  144.0   1.475   36.2  0.1135   42.5  0.2818 -114.7
 2.880  0.7472  143.6   1.465   35.8  0.1141   42.6  0.2826 -115.2
 2.900  0.7478  143.3   1.455   35.4  0.1147   42.6  0.2833 -115.6
 2.920  0.7485  143.0   1.445   35.0  0.1153   42.6  0.2841 -116.1
 2.940  0.7491  142.6   1.435   34.6  0.1159   42.7  0.2850 -116.5
 2.960  0.7498  142.3   1.425   34.2  0.1166   42.7  0.2858 -116.9
 2.980  0.7506  141.9   1.416   33.8  0.1172   42.8  0.2866 -117.4
 3.000  0.7513  141.6   1.406   33.4  0.1178   42.8  0.2875 -117.8
 3.100  0.7552  139.9   1.363   31.6  0.1210   42.9  0.2931 -119.9
 3.200  0.7597  138.2   1.321   29.6  0.1243   42.9  0.2990 -122.0
 3.300  0.7633  136.5   1.281   27.7  0.1278   42.9  0.3040 -124.2
 3.400  0.7676  134.8   1.243   25.7  0.1314   42.9  0.3095 -126.3
 3.500  0.7720  133.3   1.207   24.0  0.1348   42.8  0.3162 -128.3
 3.600  0.7769  131.8   1.173   22.2  0.1382   42.8  0.3232 -130.3
 3.700  0.7791  130.2   1.140   20.5  0.1414   42.6  0.3296 -132.6
 3.800  0.7820  128.6   1.108   18.7  0.1446   42.4  0.3366 -134.8
 3.900  0.7855  127.2   1.077   17.0  0.1482   42.2  0.3437 -136.9
 4.000  0.7895  125.9   1.046   15.3  0.1518   42.0  0.3512 -138.9
 4.100  0.7907  124.6   1.018   13.9  0.1553   41.7  0.3587 -141.1
 4.200  0.7923  123.4   0.991   12.4  0.1587   41.3  0.3667 -143.2
 4.300  0.7943  122.2   0.965   10.8  0.1622   41.0  0.3752 -145.2
 4.400  0.7967  120.9   0.940    9.2  0.1657   40.7  0.3841 -147.1
 4.500  0.7994  119.7   0.915    7.4  0.1692   40.4  0.3934 -148.9
 4.600  0.8001  118.6   0.893    6.2  0.1728   40.0  0.4004 -150.8
 4.700  0.8011  117.4   0.871    5.0  0.1764   39.6  0.4078 -152.6
 4.800  0.8024  116.3   0.849    3.7  0.1800   39.3  0.4156 -154.4
 4.900  0.8040  115.2   0.828    2.3  0.1836   38.9  0.4238 -156.1
 5.000  0.8059  114.1   0.808    0.9  0.1872   38.6  0.4324 -157.7
 5.100  0.8061  113.3   0.790   -0.1  0.1909   38.1  0.4397 -159.2
 5.200  0.8065  112.5   0.773   -1.1  0.1946   37.7  0.4472 -160.7
 5.300  0.8070  111.8   0.756   -2.1  0.1984   37.2  0.4550 -162.1
 5.400  0.8076  111.0   0.739   -3.2  0.2021   36.8  0.4631 -163.5
 5.500  0.8084  110.2   0.722   -4.4  0.2059   36.4  0.4715 -164.8
 5.600  0.8095  109.3   0.708   -5.3  0.2098   35.9  0.4783 -166.2
 5.700  0.8107  108.4   0.694   -6.2  0.2137   35.5  0.4854 -167.5
 5.800  0.8121  107.6   0.681   -7.1  0.2177   35.0  0.4927 -168.8
 5.900  0.8138  106.7   0.667   -8.1  0.2216   34.6  0.5002 -170.0
 6.000  0.8156  105.8   0.654   -9.1  0.2256   34.2  0.5080 -171.2
!
!  f       NFmin   Gammaopt  rn/50
! GHz       dB    MAG  ANG    -
 0.450      1.25  0.23  133   0.12
 0.900      1.30  0.35  156   0.11
 1.800      2.00  0.55 -155   0.13
!
! (c) 2016  Infineon Technologies AG, Munich
