! Infineon Technologies  Discrete & RF Semiconductors
! BFP183
! VCE = 1.0 V,  IC =  25 mA
! Common Emitter S-Parameters:                            Jan 2016
# GHz  S  MA  R  50
!  f         S11            S21            S12            S22
! GHz     MAG   ANG      MAG   ANG      MAG   ANG      MAG   ANG
 0.010  0.3461  -17.6  36.513  174.0  0.0027   83.4  0.8741   -5.2
 0.015  0.3504  -26.4  36.251  171.0  0.0041   80.1  0.8657   -7.8
 0.020  0.3627  -34.8  36.088  168.0  0.0056   78.5  0.8591  -10.5
 0.025  0.3589  -42.0  35.334  165.4  0.0067   75.7  0.8430  -12.7
 0.030  0.3608  -49.2  34.655  162.7  0.0078   73.7  0.8283  -15.0
 0.035  0.3683  -56.3  34.056  159.9  0.0090   72.2  0.8148  -17.3
 0.040  0.3812  -63.0  33.541  157.0  0.0101   71.1  0.8028  -19.7
 0.045  0.3988  -69.1  33.114  154.0  0.0113   70.2  0.7923  -22.2
 0.050  0.4207  -74.7  32.778  151.0  0.0124   69.4  0.7833  -24.8
 0.055  0.4209  -79.1  31.887  149.5  0.0130   66.9  0.7642  -26.1
 0.060  0.4235  -83.4  31.021  147.8  0.0136   64.6  0.7456  -27.4
 0.065  0.4285  -87.6  30.181  146.1  0.0143   62.6  0.7273  -28.8
 0.070  0.4358  -91.8  29.371  144.3  0.0149   60.7  0.7095  -30.3
 0.075  0.4453  -95.7  28.591  142.4  0.0156   59.0  0.6922  -31.8
 0.080  0.4568  -99.5  27.846  140.3  0.0163   57.4  0.6755  -33.5
 0.085  0.4702 -103.1  27.138  138.2  0.0170   55.9  0.6593  -35.2
 0.090  0.4854 -106.5  26.469  135.9  0.0177   54.6  0.6437  -37.0
 0.095  0.5021 -109.6  25.843  133.6  0.0184   53.3  0.6288  -38.8
 0.100  0.5203 -112.6  25.263  131.1  0.0191   52.2  0.6146  -40.8
 0.105  0.5225 -114.9  24.666  130.1  0.0195   51.6  0.6015  -41.5
 0.110  0.5254 -117.1  24.076  129.1  0.0199   51.1  0.5885  -42.2
 0.115  0.5292 -119.4  23.495  128.0  0.0203   50.5  0.5756  -42.9
 0.120  0.5338 -121.5  22.922  126.8  0.0207   50.0  0.5627  -43.7
 0.125  0.5391 -123.7  22.360  125.6  0.0211   49.5  0.5500  -44.5
 0.130  0.5452 -125.8  21.808  124.4  0.0215   49.0  0.5374  -45.4
 0.135  0.5520 -127.9  21.267  123.0  0.0220   48.6  0.5250  -46.3
 0.140  0.5595 -129.9  20.738  121.6  0.0224   48.1  0.5126  -47.2
 0.145  0.5676 -131.8  20.222  120.1  0.0228   47.7  0.5004  -48.2
 0.150  0.5764 -133.7  19.720  118.6  0.0232   47.3  0.4884  -49.2
 0.155  0.5777 -135.1  19.310  117.9  0.0234   47.0  0.4796  -49.6
 0.160  0.5794 -136.5  18.904  117.2  0.0236   46.7  0.4708  -49.9
 0.165  0.5814 -137.8  18.500  116.5  0.0239   46.4  0.4620  -50.3
 0.170  0.5837 -139.2  18.100  115.7  0.0241   46.2  0.4533  -50.8
 0.175  0.5864 -140.5  17.703  114.9  0.0243   45.9  0.4446  -51.2
 0.180  0.5893 -141.8  17.310  114.0  0.0245   45.6  0.4359  -51.6
 0.185  0.5926 -143.2  16.921  113.1  0.0247   45.4  0.4272  -52.1
 0.190  0.5962 -144.5  16.536  112.2  0.0250   45.1  0.4186  -52.6
 0.195  0.6001 -145.7  16.155  111.2  0.0252   44.8  0.4100  -53.1
 0.200  0.6043 -147.0  15.780  110.2  0.0254   44.6  0.4014  -53.6
 0.220  0.6094 -150.4  14.663  108.0  0.0262   44.2  0.3774  -54.4
 0.240  0.6165 -153.7  13.570  105.5  0.0270   43.8  0.3534  -55.4
 0.260  0.6214 -156.6  12.644  103.3  0.0278   43.8  0.3333  -56.1
 0.280  0.6235 -159.2  11.868  101.7  0.0285   44.1  0.3170  -56.5
 0.300  0.6268 -161.7  11.104   99.8  0.0293   44.4  0.3007  -56.9
 0.320  0.6280 -163.6  10.570   98.7  0.0300   44.8  0.2904  -57.1
 0.340  0.6298 -165.5  10.041   97.4  0.0307   45.2  0.2801  -57.2
 0.360  0.6324 -167.4   9.517   96.0  0.0313   45.6  0.2698  -57.4
 0.380  0.6357 -169.3   8.999   94.4  0.0320   46.0  0.2595  -57.6
 0.400  0.6396 -171.2   8.489   92.7  0.0327   46.3  0.2492  -57.8
 0.420  0.6405 -172.6   8.151   91.8  0.0335   46.7  0.2431  -57.9
 0.440  0.6418 -174.0   7.814   90.9  0.0342   47.0  0.2370  -57.9
 0.450  0.6426 -174.7   7.647   90.4  0.0346   47.2  0.2339  -57.9
 0.460  0.6435 -175.4   7.480   89.9  0.0350   47.4  0.2308  -58.0
 0.480  0.6456 -176.8   7.148   88.7  0.0357   47.7  0.2247  -58.0
 0.500  0.6481 -178.2   6.820   87.5  0.0365   48.0  0.2186  -58.1
 0.520  0.6481 -179.2   6.608   86.7  0.0372   48.5  0.2149  -58.2
 0.540  0.6483  179.8   6.396   85.9  0.0380   48.9  0.2112  -58.3
 0.560  0.6487  178.7   6.187   85.0  0.0387   49.3  0.2075  -58.3
 0.580  0.6493  177.7   5.978   84.1  0.0395   49.7  0.2038  -58.4
 0.600  0.6501  176.7   5.772   83.1  0.0402   50.1  0.2001  -58.5
 0.620  0.6504  175.8   5.603   82.4  0.0410   50.5  0.1979  -58.6
 0.640  0.6508  174.9   5.434   81.7  0.0418   50.8  0.1957  -58.7
 0.660  0.6514  173.9   5.266   80.9  0.0425   51.2  0.1934  -58.7
 0.680  0.6522  173.0   5.100   80.1  0.0433   51.5  0.1912  -58.8
 0.700  0.6531  172.1   4.934   79.2  0.0441   51.8  0.1890  -58.9
 0.720  0.6528  171.2   4.816   78.6  0.0449   51.9  0.1873  -59.1
 0.740  0.6527  170.4   4.700   77.9  0.0457   52.0  0.1857  -59.2
 0.760  0.6527  169.5   4.583   77.2  0.0466   52.0  0.1840  -59.4
 0.780  0.6528  168.7   4.468   76.5  0.0474   52.1  0.1824  -59.5
 0.800  0.6531  167.8   4.353   75.7  0.0482   52.2  0.1807  -59.7
 0.820  0.6543  167.1   4.255   75.1  0.0491   52.5  0.1796  -60.0
 0.840  0.6555  166.4   4.158   74.5  0.0500   52.7  0.1785  -60.2
 0.860  0.6569  165.6   4.061   73.9  0.0509   52.9  0.1774  -60.5
 0.880  0.6583  164.9   3.964   73.3  0.0518   53.2  0.1764  -60.8
 0.900  0.6599  164.2   3.868   72.6  0.0527   53.4  0.1753  -61.1
 0.920  0.6604  163.3   3.788   72.0  0.0535   53.5  0.1743  -61.4
 0.940  0.6610  162.5   3.709   71.3  0.0543   53.7  0.1733  -61.8
 0.960  0.6618  161.6   3.630   70.6  0.0550   53.8  0.1723  -62.1
 0.980  0.6627  160.8   3.552   69.9  0.0558   53.9  0.1713  -62.5
 1.000  0.6638  159.9   3.474   69.1  0.0566   54.0  0.1703  -62.8
 1.020  0.6643  159.3   3.412   68.5  0.0576   54.0  0.1696  -63.1
 1.040  0.6649  158.6   3.350   67.9  0.0586   54.0  0.1690  -63.4
 1.060  0.6655  158.0   3.288   67.3  0.0595   54.1  0.1684  -63.8
 1.080  0.6663  157.3   3.227   66.6  0.0605   54.1  0.1677  -64.1
 1.100  0.6671  156.7   3.166   65.9  0.0615   54.1  0.1671  -64.4
 1.120  0.6671  156.1   3.113   65.4  0.0624   54.0  0.1668  -64.8
 1.140  0.6672  155.4   3.059   64.9  0.0632   53.9  0.1666  -65.2
 1.160  0.6673  154.8   3.006   64.4  0.0641   53.8  0.1663  -65.6
 1.180  0.6676  154.1   2.953   63.9  0.0649   53.7  0.1660  -66.0
 1.200  0.6679  153.5   2.901   63.3  0.0658   53.6  0.1658  -66.4
 1.220  0.6689  152.9   2.856   62.7  0.0667   53.6  0.1656  -66.9
 1.240  0.6700  152.3   2.812   62.2  0.0675   53.6  0.1653  -67.3
 1.260  0.6711  151.7   2.767   61.6  0.0684   53.7  0.1651  -67.8
 1.280  0.6723  151.1   2.724   60.9  0.0692   53.7  0.1649  -68.2
 1.300  0.6736  150.5   2.680   60.3  0.0701   53.7  0.1647  -68.7
 1.320  0.6737  149.8   2.644   59.8  0.0710   53.7  0.1645  -69.1
 1.340  0.6739  149.2   2.609   59.3  0.0720   53.7  0.1642  -69.5
 1.360  0.6741  148.5   2.574   58.7  0.0729   53.8  0.1640  -70.0
 1.380  0.6745  147.9   2.539   58.2  0.0739   53.8  0.1638  -70.4
 1.400  0.6749  147.2   2.504   57.6  0.0748   53.8  0.1636  -70.8
 1.420  0.6762  146.7   2.470   57.0  0.0757   53.7  0.1636  -71.2
 1.440  0.6775  146.2   2.436   56.4  0.0765   53.6  0.1637  -71.6
 1.460  0.6789  145.7   2.403   55.8  0.0774   53.4  0.1637  -72.1
 1.480  0.6803  145.2   2.370   55.2  0.0782   53.3  0.1637  -72.5
 1.500  0.6818  144.7   2.337   54.5  0.0791   53.2  0.1638  -72.9
 1.520  0.6822  144.0   2.308   54.0  0.0800   53.1  0.1639  -73.4
 1.540  0.6827  143.3   2.279   53.5  0.0810   52.9  0.1639  -74.0
 1.560  0.6833  142.7   2.251   53.0  0.0819   52.8  0.1640  -74.5
 1.580  0.6839  142.0   2.222   52.4  0.0829   52.6  0.1641  -75.1
 1.600  0.6847  141.3   2.194   51.9  0.0838   52.5  0.1642  -75.6
 1.620  0.6854  140.7   2.165   51.4  0.0846   52.4  0.1641  -76.1
 1.640  0.6862  140.1   2.136   50.8  0.0855   52.3  0.1641  -76.6
 1.660  0.6870  139.6   2.108   50.3  0.0863   52.1  0.1640  -77.2
 1.680  0.6879  139.0   2.079   49.7  0.0872   52.0  0.1640  -77.7
 1.700  0.6889  138.4   2.051   49.1  0.0880   51.9  0.1640  -78.2
 1.720  0.6901  137.9   2.028   48.6  0.0889   51.8  0.1639  -78.9
 1.740  0.6914  137.3   2.005   48.1  0.0897   51.7  0.1639  -79.5
 1.760  0.6928  136.8   1.982   47.5  0.0906   51.6  0.1638  -80.2
 1.780  0.6942  136.2   1.959   47.0  0.0914   51.5  0.1638  -80.8
 1.800  0.6957  135.7   1.937   46.4  0.0923   51.4  0.1638  -81.5
 1.820  0.6957  135.2   1.916   45.9  0.0931   51.2  0.1637  -82.0
 1.840  0.6958  134.7   1.895   45.5  0.0940   51.0  0.1637  -82.6
 1.860  0.6960  134.1   1.874   45.0  0.0948   50.9  0.1636  -83.1
 1.880  0.6962  133.6   1.854   44.5  0.0957   50.7  0.1636  -83.7
 1.900  0.6965  133.1   1.833   44.0  0.0965   50.5  0.1636  -84.2
 1.920  0.6971  132.5   1.812   43.5  0.0974   50.3  0.1639  -84.8
 1.940  0.6978  131.9   1.791   43.0  0.0983   50.2  0.1643  -85.4
 1.960  0.6986  131.3   1.770   42.4  0.0993   50.0  0.1646  -86.1
 1.980  0.6995  130.7   1.749   41.9  0.1002   49.9  0.1650  -86.7
 2.000  0.7004  130.1   1.729   41.3  0.1011   49.7  0.1654  -87.3
 2.020  0.7014  129.6   1.714   40.8  0.1019   49.5  0.1654  -88.0
 2.040  0.7025  129.2   1.698   40.4  0.1028   49.4  0.1655  -88.6
 2.060  0.7036  128.7   1.683   39.9  0.1036   49.2  0.1655  -89.3
 2.080  0.7047  128.2   1.668   39.4  0.1045   49.0  0.1656  -90.0
 2.100  0.7059  127.8   1.653   38.9  0.1053   48.9  0.1657  -90.6
 2.120  0.7071  127.3   1.638   38.4  0.1061   48.7  0.1659  -91.3
 2.140  0.7084  126.9   1.623   37.8  0.1070   48.6  0.1660  -91.9
 2.160  0.7097  126.4   1.609   37.3  0.1078   48.4  0.1662  -92.6
 2.180  0.7111  126.0   1.594   36.8  0.1087   48.2  0.1664  -93.2
 2.200  0.7125  125.5   1.580   36.2  0.1095   48.1  0.1666  -93.9
 2.220  0.7133  125.0   1.566   35.8  0.1103   47.9  0.1668  -94.6
 2.240  0.7142  124.4   1.552   35.3  0.1112   47.7  0.1669  -95.3
 2.260  0.7152  123.9   1.538   34.9  0.1120   47.5  0.1672  -96.0
 2.280  0.7163  123.3   1.524   34.4  0.1128   47.3  0.1674  -96.7
 2.300  0.7174  122.8   1.510   34.0  0.1137   47.1  0.1676  -97.4
 2.320  0.7185  122.2   1.497   33.5  0.1145   46.9  0.1679  -98.1
 2.340  0.7197  121.7   1.483   33.0  0.1154   46.7  0.1682  -98.8
 2.360  0.7210  121.2   1.470   32.5  0.1162   46.6  0.1686  -99.4
 2.380  0.7224  120.6   1.456   32.0  0.1171   46.4  0.1689 -100.1
 2.400  0.7238  120.1   1.443   31.5  0.1179   46.2  0.1693 -100.8
 2.420  0.7248  119.6   1.431   31.1  0.1186   46.0  0.1695 -101.5
 2.440  0.7259  119.2   1.419   30.6  0.1194   45.8  0.1697 -102.2
 2.460  0.7271  118.7   1.407   30.1  0.1201   45.6  0.1699 -102.9
 2.480  0.7283  118.3   1.395   29.7  0.1209   45.4  0.1702 -103.5
 2.500  0.7295  117.8   1.384   29.2  0.1216   45.2  0.1704 -104.2
 2.520  0.7308  117.4   1.372   28.7  0.1224   45.0  0.1708 -104.9
 2.540  0.7321  116.9   1.361   28.2  0.1231   44.8  0.1711 -105.6
 2.560  0.7334  116.5   1.349   27.7  0.1239   44.7  0.1714 -106.3
 2.580  0.7348  116.0   1.338   27.2  0.1246   44.5  0.1718 -106.9
 2.600  0.7363  115.6   1.327   26.7  0.1254   44.3  0.1722 -107.6
 2.620  0.7370  115.1   1.316   26.2  0.1261   44.1  0.1727 -108.4
 2.640  0.7377  114.7   1.306   25.8  0.1269   43.8  0.1732 -109.1
 2.660  0.7385  114.2   1.295   25.3  0.1276   43.6  0.1738 -109.9
 2.680  0.7393  113.8   1.285   24.8  0.1284   43.4  0.1743 -110.6
 2.700  0.7401  113.3   1.275   24.3  0.1291   43.2  0.1749 -111.4
 2.720  0.7410  112.9   1.265   23.8  0.1299   42.9  0.1756 -112.1
 2.740  0.7420  112.4   1.255   23.3  0.1306   42.7  0.1762 -112.8
 2.760  0.7430  112.0   1.245   22.8  0.1314   42.5  0.1769 -113.6
 2.780  0.7440  111.5   1.235   22.2  0.1321   42.3  0.1777 -114.3
 2.800  0.7451  111.1   1.225   21.7  0.1329   42.1  0.1784 -115.0
 2.820  0.7460  110.7   1.216   21.3  0.1336   41.9  0.1788 -115.7
 2.840  0.7469  110.2   1.207   20.9  0.1343   41.7  0.1792 -116.4
 2.860  0.7478  109.8   1.198   20.5  0.1350   41.6  0.1797 -117.1
 2.880  0.7488  109.4   1.189   20.1  0.1358   41.4  0.1802 -117.8
 2.900  0.7498  108.9   1.181   19.7  0.1365   41.2  0.1807 -118.6
 2.920  0.7509  108.5   1.172   19.3  0.1372   41.1  0.1812 -119.2
 2.940  0.7520  108.1   1.163   18.9  0.1379   40.9  0.1818 -119.9
 2.960  0.7532  107.7   1.155   18.5  0.1387   40.7  0.1823 -120.6
 2.980  0.7544  107.2   1.146   18.0  0.1394   40.6  0.1830 -121.3
 3.000  0.7556  106.8   1.138   17.6  0.1401   40.4  0.1836 -122.0
 3.100  0.7593  104.9   1.098   15.8  0.1436   39.4  0.1872 -125.6
 3.200  0.7638  102.9   1.060   13.9  0.1471   38.4  0.1915 -129.1
 3.300  0.7692  101.0   1.023   11.9  0.1507   37.4  0.1965 -132.5
 3.400  0.7754   99.1   0.987    9.7  0.1543   36.6  0.2021 -135.6
 3.500  0.7825   97.3   0.953    7.3  0.1580   35.7  0.2083 -138.6
 3.600  0.7858   95.7   0.924    5.7  0.1611   34.6  0.2132 -142.0
 3.700  0.7897   94.0   0.896    4.1  0.1643   33.6  0.2188 -145.1
 3.800  0.7943   92.4   0.869    2.3  0.1676   32.6  0.2251 -148.2
 3.900  0.7994   90.9   0.843    0.4  0.1709   31.6  0.2319 -151.0
 4.000  0.8052   89.3   0.818   -1.6  0.1742   30.7  0.2393 -153.7
 4.100  0.8071   87.8   0.794   -3.0  0.1768   29.7  0.2454 -156.6
 4.200  0.8096   86.3   0.770   -4.6  0.1795   28.7  0.2521 -159.4
 4.300  0.8126   84.9   0.747   -6.2  0.1822   27.7  0.2594 -162.1
 4.400  0.8161   83.4   0.725   -8.0  0.1850   26.7  0.2671 -164.6
 4.500  0.8201   82.0   0.703   -9.8  0.1878   25.8  0.2754 -166.9
 4.600  0.8216   80.8   0.685  -10.9  0.1906   25.1  0.2814 -169.2
 4.700  0.8234   79.7   0.668  -12.0  0.1934   24.4  0.2878 -171.4
 4.800  0.8256   78.6   0.651  -13.2  0.1962   23.7  0.2946 -173.4
 4.900  0.8281   77.4   0.634  -14.5  0.1990   23.0  0.3018 -175.4
 5.000  0.8309   76.3   0.617  -15.8  0.2019   22.4  0.3093 -177.3
 5.100  0.8335   75.3   0.604  -17.0  0.2053   21.3  0.3176 -179.2
 5.200  0.8363   74.3   0.591  -18.3  0.2087   20.2  0.3262  179.0
 5.300  0.8394   73.3   0.578  -19.6  0.2122   19.2  0.3351  177.3
 5.400  0.8427   72.3   0.566  -21.0  0.2158   18.2  0.3443  175.7
 5.500  0.8463   71.3   0.554  -22.4  0.2194   17.2  0.3538  174.2
 5.600  0.8483   70.4   0.542  -23.4  0.2217   16.1  0.3613  172.4
 5.700  0.8505   69.5   0.531  -24.3  0.2241   15.1  0.3691  170.7
 5.800  0.8529   68.6   0.519  -25.4  0.2265   14.1  0.3773  169.1
 5.900  0.8555   67.7   0.508  -26.5  0.2290   13.1  0.3857  167.6
 6.000  0.8583   66.8   0.497  -27.6  0.2316   12.1  0.3944  166.1
!
!  f       NFmin   Gammaopt  rn/50
! GHz       dB    MAG  ANG    -
!
! noise parameter not available yet for this operation point!
!
! (c) 2016  Infineon Technologies AG, Munich
