! Infineon Technologies  Discrete & RF Semiconductors
! BFP181
! VCE = 3.0 V,  IC =  1.5 mA
! Common Emitter S-Parameters:                            Jan 2016
# GHz  S  MA  R  50
!  f         S11            S21            S12            S22
! GHz     MAG   ANG      MAG   ANG      MAG   ANG      MAG   ANG
 0.010  0.9465   -1.0   5.009  179.5  0.0011   84.2  0.9980   -0.4
 0.015  0.9502   -1.5   5.008  179.3  0.0018   89.8  0.9944   -0.6
 0.020  0.9540   -2.0   5.007  179.0  0.0025   92.3  0.9909   -0.8
 0.025  0.9528   -2.3   5.010  178.5  0.0033   91.3  0.9915   -1.0
 0.030  0.9516   -2.7   5.013  178.1  0.0041   90.7  0.9921   -1.2
 0.035  0.9504   -3.0   5.016  177.6  0.0049   90.3  0.9927   -1.4
 0.040  0.9493   -3.4   5.020  177.2  0.0058   90.0  0.9933   -1.6
 0.045  0.9482   -3.7   5.024  176.7  0.0066   89.8  0.9940   -1.8
 0.050  0.9472   -4.1   5.028  176.3  0.0074   89.6  0.9946   -2.0
 0.055  0.9461   -4.6   5.021  175.9  0.0080   88.3  0.9945   -2.2
 0.060  0.9451   -5.1   5.014  175.6  0.0086   87.2  0.9945   -2.4
 0.065  0.9441   -5.6   5.008  175.2  0.0092   86.2  0.9945   -2.6
 0.070  0.9432   -6.0   5.001  174.8  0.0098   85.3  0.9945   -2.8
 0.075  0.9424   -6.5   4.995  174.5  0.0104   84.6  0.9945   -3.1
 0.080  0.9416   -7.0   4.989  174.1  0.0110   83.9  0.9945   -3.3
 0.085  0.9409   -7.5   4.983  173.7  0.0117   83.3  0.9945   -3.5
 0.090  0.9403   -8.0   4.978  173.3  0.0123   82.7  0.9946   -3.7
 0.095  0.9398   -8.5   4.972  173.0  0.0129   82.2  0.9946   -3.9
 0.100  0.9393   -9.0   4.967  172.6  0.0135   81.8  0.9947   -4.1
 0.105  0.9391   -9.4   4.963  172.2  0.0142   81.8  0.9942   -4.3
 0.110  0.9390   -9.9   4.960  171.8  0.0150   81.8  0.9937   -4.5
 0.115  0.9389  -10.4   4.957  171.4  0.0157   81.8  0.9932   -4.7
 0.120  0.9388  -10.8   4.954  171.0  0.0164   81.8  0.9927   -4.9
 0.125  0.9389  -11.3   4.952  170.7  0.0172   81.8  0.9922   -5.1
 0.130  0.9390  -11.7   4.949  170.3  0.0179   81.8  0.9918   -5.3
 0.135  0.9391  -12.2   4.947  169.9  0.0186   81.8  0.9914   -5.5
 0.140  0.9393  -12.6   4.945  169.5  0.0193   81.8  0.9909   -5.7
 0.145  0.9396  -13.1   4.943  169.1  0.0201   81.8  0.9905   -5.9
 0.150  0.9399  -13.5   4.942  168.7  0.0208   81.8  0.9901   -6.1
 0.155  0.9383  -13.9   4.943  168.3  0.0215   81.5  0.9895   -6.3
 0.160  0.9367  -14.4   4.944  167.9  0.0222   81.2  0.9889   -6.5
 0.165  0.9352  -14.8   4.946  167.6  0.0230   81.0  0.9883   -6.7
 0.170  0.9338  -15.3   4.948  167.2  0.0237   80.7  0.9878   -6.9
 0.175  0.9324  -15.7   4.950  166.8  0.0244   80.5  0.9872   -7.1
 0.180  0.9311  -16.2   4.952  166.4  0.0251   80.3  0.9867   -7.3
 0.185  0.9298  -16.6   4.954  166.0  0.0258   80.1  0.9861   -7.5
 0.190  0.9286  -17.1   4.957  165.7  0.0266   79.9  0.9856   -7.7
 0.195  0.9275  -17.5   4.960  165.3  0.0273   79.7  0.9851   -7.9
 0.200  0.9264  -18.0   4.963  164.9  0.0280   79.5  0.9846   -8.1
 0.220  0.9247  -19.7   4.925  163.5  0.0305   77.8  0.9816   -8.9
 0.240  0.9237  -21.4   4.890  162.0  0.0329   76.3  0.9788   -9.8
 0.260  0.9203  -23.1   4.863  160.7  0.0355   75.2  0.9761  -10.6
 0.280  0.9143  -24.9   4.844  159.4  0.0381   74.3  0.9735  -11.3
 0.300  0.9092  -26.6   4.827  158.2  0.0407   73.5  0.9710  -12.0
 0.320  0.9027  -28.3   4.805  156.6  0.0431   72.3  0.9669  -12.7
 0.340  0.8970  -30.0   4.786  155.1  0.0455   71.1  0.9630  -13.5
 0.360  0.8921  -31.7   4.770  153.5  0.0479   70.1  0.9593  -14.2
 0.380  0.8880  -33.4   4.759  151.9  0.0503   69.2  0.9557  -14.9
 0.400  0.8847  -35.2   4.751  150.3  0.0527   68.4  0.9523  -15.7
 0.420  0.8759  -36.8   4.711  148.9  0.0549   67.1  0.9475  -16.4
 0.440  0.8679  -38.5   4.673  147.6  0.0571   65.9  0.9428  -17.1
 0.450  0.8642  -39.4   4.656  146.9  0.0582   65.3  0.9405  -17.5
 0.460  0.8606  -40.2   4.639  146.2  0.0594   64.8  0.9382  -17.8
 0.480  0.8541  -41.9   4.607  144.7  0.0616   63.8  0.9338  -18.6
 0.500  0.8484  -43.7   4.578  143.3  0.0639   62.8  0.9296  -19.3
 0.520  0.8409  -45.2   4.538  142.1  0.0658   61.8  0.9245  -19.9
 0.540  0.8341  -46.8   4.501  140.9  0.0677   60.8  0.9196  -20.6
 0.560  0.8278  -48.4   4.465  139.7  0.0697   59.9  0.9147  -21.2
 0.580  0.8222  -50.0   4.431  138.5  0.0716   59.0  0.9100  -21.8
 0.600  0.8173  -51.6   4.400  137.2  0.0736   58.2  0.9054  -22.5
 0.620  0.8095  -53.1   4.353  136.0  0.0753   57.3  0.9005  -23.1
 0.640  0.8023  -54.7   4.308  134.8  0.0770   56.5  0.8956  -23.6
 0.660  0.7957  -56.3   4.265  133.6  0.0788   55.7  0.8908  -24.2
 0.680  0.7897  -57.9   4.224  132.3  0.0805   54.9  0.8862  -24.8
 0.700  0.7843  -59.5   4.185  131.0  0.0823   54.2  0.8816  -25.4
 0.720  0.7748  -61.0   4.157  129.8  0.0838   53.3  0.8766  -25.9
 0.740  0.7658  -62.4   4.130  128.6  0.0852   52.5  0.8716  -26.4
 0.760  0.7574  -64.0   4.105  127.4  0.0867   51.7  0.8667  -26.9
 0.780  0.7494  -65.5   4.082  126.2  0.0883   50.9  0.8619  -27.5
 0.800  0.7421  -67.1   4.061  125.0  0.0898   50.1  0.8572  -28.0
 0.820  0.7330  -68.6   4.026  123.9  0.0911   49.3  0.8520  -28.5
 0.840  0.7245  -70.2   3.993  122.8  0.0924   48.5  0.8469  -29.0
 0.860  0.7164  -71.7   3.961  121.7  0.0937   47.8  0.8418  -29.5
 0.880  0.7090  -73.4   3.931  120.6  0.0950   47.0  0.8368  -30.0
 0.900  0.7021  -75.0   3.902  119.4  0.0963   46.3  0.8319  -30.5
 0.920  0.6946  -76.4   3.862  118.4  0.0973   45.6  0.8268  -30.9
 0.940  0.6875  -77.9   3.823  117.4  0.0983   44.9  0.8217  -31.4
 0.960  0.6809  -79.4   3.785  116.3  0.0993   44.2  0.8167  -31.9
 0.980  0.6748  -80.9   3.748  115.3  0.1003   43.6  0.8118  -32.3
 1.000  0.6691  -82.4   3.713  114.2  0.1013   42.9  0.8069  -32.8
 1.020  0.6616  -83.8   3.683  113.2  0.1023   42.3  0.8025  -33.2
 1.040  0.6545  -85.3   3.654  112.1  0.1033   41.7  0.7982  -33.6
 1.060  0.6478  -86.7   3.627  111.1  0.1043   41.1  0.7939  -34.0
 1.080  0.6416  -88.3   3.601  110.0  0.1054   40.6  0.7896  -34.4
 1.100  0.6358  -89.8   3.576  108.9  0.1064   40.0  0.7854  -34.8
 1.120  0.6293  -91.0   3.537  108.1  0.1072   39.3  0.7814  -35.2
 1.140  0.6232  -92.3   3.500  107.2  0.1080   38.6  0.7774  -35.6
 1.160  0.6173  -93.6   3.463  106.4  0.1089   38.0  0.7734  -36.0
 1.180  0.6117  -94.9   3.426  105.5  0.1097   37.3  0.7695  -36.5
 1.200  0.6065  -96.2   3.391  104.6  0.1106   36.7  0.7656  -36.9
 1.220  0.6010  -97.6   3.358  103.8  0.1113   36.2  0.7616  -37.2
 1.240  0.5958  -99.0   3.326  102.9  0.1119   35.8  0.7577  -37.6
 1.260  0.5911 -100.4   3.294  102.0  0.1126   35.3  0.7538  -37.9
 1.280  0.5866 -101.8   3.264  101.1  0.1133   34.8  0.7499  -38.3
 1.300  0.5826 -103.3   3.234  100.2  0.1140   34.4  0.7460  -38.6
 1.320  0.5751 -104.6   3.205   99.4  0.1146   33.9  0.7425  -39.0
 1.340  0.5679 -105.8   3.176   98.5  0.1153   33.4  0.7391  -39.3
 1.360  0.5611 -107.2   3.148   97.6  0.1159   32.9  0.7357  -39.7
 1.380  0.5545 -108.5   3.121   96.7  0.1165   32.5  0.7323  -40.0
 1.400  0.5482 -109.9   3.095   95.8  0.1172   32.0  0.7290  -40.4
 1.420  0.5436 -111.4   3.073   95.0  0.1177   31.6  0.7252  -40.7
 1.440  0.5394 -113.0   3.052   94.1  0.1182   31.2  0.7215  -41.0
 1.460  0.5356 -114.5   3.032   93.3  0.1187   30.8  0.7178  -41.2
 1.480  0.5322 -116.1   3.012   92.4  0.1192   30.4  0.7141  -41.5
 1.500  0.5292 -117.7   2.993   91.5  0.1197   30.0  0.7104  -41.8
 1.520  0.5239 -119.0   2.964   90.7  0.1202   29.6  0.7079  -42.1
 1.540  0.5189 -120.3   2.936   89.9  0.1207   29.3  0.7054  -42.3
 1.560  0.5142 -121.6   2.909   89.1  0.1212   28.9  0.7029  -42.6
 1.580  0.5097 -122.9   2.882   88.3  0.1217   28.6  0.7004  -42.8
 1.600  0.5055 -124.3   2.856   87.5  0.1222   28.2  0.6979  -43.1
 1.620  0.5009 -125.8   2.834   86.7  0.1225   27.8  0.6944  -43.4
 1.640  0.4966 -127.3   2.813   85.9  0.1227   27.5  0.6909  -43.8
 1.660  0.4927 -128.8   2.793   85.1  0.1230   27.1  0.6874  -44.1
 1.680  0.4892 -130.4   2.772   84.3  0.1233   26.8  0.6839  -44.5
 1.700  0.4860 -132.0   2.753   83.5  0.1236   26.4  0.6805  -44.8
 1.720  0.4823 -133.4   2.731   82.7  0.1239   26.1  0.6777  -45.0
 1.740  0.4790 -134.8   2.710   81.9  0.1241   25.8  0.6749  -45.3
 1.760  0.4759 -136.3   2.690   81.1  0.1244   25.5  0.6721  -45.5
 1.780  0.4732 -137.7   2.670   80.3  0.1247   25.2  0.6694  -45.8
 1.800  0.4707 -139.2   2.650   79.5  0.1250   24.9  0.6666  -46.0
 1.820  0.4680 -140.6   2.629   78.8  0.1252   24.5  0.6640  -46.3
 1.840  0.4655 -142.0   2.609   78.2  0.1254   24.2  0.6614  -46.6
 1.860  0.4634 -143.4   2.589   77.5  0.1256   23.8  0.6588  -46.9
 1.880  0.4615 -144.9   2.570   76.8  0.1258   23.5  0.6562  -47.2
 1.900  0.4599 -146.3   2.551   76.1  0.1260   23.1  0.6537  -47.5
 1.920  0.4561 -147.6   2.529   75.4  0.1263   22.9  0.6515  -47.7
 1.940  0.4524 -148.8   2.507   74.7  0.1266   22.7  0.6494  -48.0
 1.960  0.4491 -150.1   2.485   74.0  0.1269   22.5  0.6472  -48.2
 1.980  0.4459 -151.5   2.464   73.3  0.1272   22.3  0.6451  -48.5
 2.000  0.4430 -152.8   2.443   72.6  0.1275   22.1  0.6430  -48.7
 2.020  0.4408 -154.1   2.423   72.0  0.1277   21.8  0.6410  -49.0
 2.040  0.4388 -155.4   2.404   71.3  0.1279   21.5  0.6390  -49.2
 2.060  0.4370 -156.8   2.385   70.6  0.1281   21.3  0.6371  -49.5
 2.080  0.4355 -158.1   2.367   70.0  0.1283   21.0  0.6351  -49.8
 2.100  0.4343 -159.5   2.348   69.3  0.1285   20.7  0.6332  -50.1
 2.120  0.4332 -160.8   2.330   68.6  0.1287   20.4  0.6312  -50.4
 2.140  0.4325 -162.2   2.313   67.9  0.1289   20.1  0.6293  -50.6
 2.160  0.4319 -163.6   2.295   67.2  0.1291   19.9  0.6274  -50.9
 2.180  0.4316 -164.9   2.279   66.4  0.1293   19.6  0.6256  -51.2
 2.200  0.4316 -166.3   2.262   65.7  0.1295   19.3  0.6237  -51.5
 2.220  0.4302 -167.6   2.246   65.1  0.1296   19.1  0.6218  -51.8
 2.240  0.4290 -168.8   2.230   64.5  0.1297   18.9  0.6198  -52.0
 2.260  0.4280 -170.1   2.214   63.9  0.1299   18.7  0.6179  -52.3
 2.280  0.4273 -171.4   2.199   63.3  0.1300   18.5  0.6160  -52.6
 2.300  0.4267 -172.7   2.184   62.7  0.1301   18.2  0.6142  -52.9
 2.320  0.4264 -174.0   2.169   62.1  0.1303   18.0  0.6123  -53.2
 2.340  0.4263 -175.2   2.154   61.4  0.1304   17.8  0.6105  -53.4
 2.360  0.4264 -176.5   2.140   60.8  0.1305   17.6  0.6086  -53.7
 2.380  0.4267 -177.8   2.126   60.2  0.1307   17.4  0.6068  -54.0
 2.400  0.4272 -179.1   2.112   59.5  0.1308   17.2  0.6050  -54.3
 2.420  0.4269  179.7   2.097   59.0  0.1309   17.0  0.6032  -54.6
 2.440  0.4267  178.5   2.081   58.4  0.1310   16.9  0.6014  -54.8
 2.460  0.4267  177.2   2.066   57.8  0.1310   16.7  0.5997  -55.1
 2.480  0.4270  176.0   2.052   57.3  0.1311   16.6  0.5979  -55.3
 2.500  0.4274  174.8   2.037   56.7  0.1312   16.4  0.5961  -55.6
 2.520  0.4280  173.6   2.022   56.1  0.1313   16.2  0.5944  -55.8
 2.540  0.4288  172.4   2.008   55.5  0.1313   16.1  0.5927  -56.1
 2.560  0.4298  171.2   1.994   54.9  0.1314   15.9  0.5910  -56.4
 2.580  0.4310  170.0   1.981   54.3  0.1315   15.8  0.5893  -56.6
 2.600  0.4324  168.8   1.967   53.7  0.1316   15.6  0.5876  -56.9
 2.620  0.4326  167.7   1.954   53.1  0.1317   15.4  0.5863  -57.2
 2.640  0.4329  166.6   1.941   52.5  0.1317   15.3  0.5850  -57.5
 2.660  0.4334  165.5   1.928   51.9  0.1318   15.1  0.5837  -57.8
 2.680  0.4341  164.5   1.916   51.3  0.1318   15.0  0.5825  -58.0
 2.700  0.4349  163.4   1.903   50.7  0.1319   14.8  0.5812  -58.3
 2.720  0.4359  162.3   1.891   50.1  0.1319   14.6  0.5800  -58.6
 2.740  0.4370  161.3   1.879   49.4  0.1320   14.5  0.5788  -58.9
 2.760  0.4382  160.2   1.868   48.8  0.1321   14.3  0.5776  -59.2
 2.780  0.4396  159.1   1.856   48.2  0.1321   14.2  0.5764  -59.5
 2.800  0.4412  158.1   1.845   47.5  0.1322   14.0  0.5752  -59.8
 2.820  0.4419  157.1   1.833   47.0  0.1323   13.8  0.5738  -60.1
 2.840  0.4428  156.0   1.822   46.4  0.1323   13.7  0.5724  -60.4
 2.860  0.4438  155.0   1.811   45.9  0.1324   13.5  0.5710  -60.7
 2.880  0.4450  153.9   1.800   45.3  0.1324   13.4  0.5696  -60.9
 2.900  0.4463  152.9   1.789   44.7  0.1325   13.2  0.5683  -61.2
 2.920  0.4478  151.9   1.778   44.2  0.1325   13.0  0.5669  -61.5
 2.940  0.4494  150.9   1.768   43.6  0.1326   12.9  0.5656  -61.8
 2.960  0.4511  149.9   1.757   43.0  0.1327   12.7  0.5643  -62.1
 2.980  0.4530  148.9   1.747   42.4  0.1327   12.6  0.5630  -62.4
 3.000  0.4550  147.9   1.737   41.8  0.1328   12.4  0.5617  -62.7
 3.100  0.4586  143.5   1.682   39.5  0.1333   12.0  0.5575  -64.2
 3.200  0.4649  139.1   1.630   37.1  0.1339   11.5  0.5537  -65.7
 3.300  0.4738  134.9   1.581   34.5  0.1344   11.1  0.5504  -67.3
 3.400  0.4851  130.9   1.535   31.7  0.1349   10.6  0.5474  -68.8
 3.500  0.4987  127.1   1.493   28.8  0.1355   10.2  0.5448  -70.4
 3.600  0.5057  123.9   1.450   26.7  0.1357    9.9  0.5406  -72.2
 3.700  0.5142  120.8   1.409   24.5  0.1360    9.5  0.5369  -74.0
 3.800  0.5241  117.9   1.370   22.1  0.1362    9.2  0.5338  -75.9
 3.900  0.5354  115.0   1.334   19.6  0.1365    8.8  0.5312  -77.7
 4.000  0.5479  112.3   1.300   17.0  0.1367    8.5  0.5292  -79.6
 4.100  0.5544  109.7   1.264   15.1  0.1370    8.3  0.5262  -81.6
 4.200  0.5620  107.2   1.230   13.0  0.1373    8.1  0.5238  -83.6
 4.300  0.5706  104.8   1.198   10.9  0.1377    7.8  0.5220  -85.6
 4.400  0.5803  102.4   1.168    8.6  0.1380    7.6  0.5209  -87.7
 4.500  0.5909  100.1   1.139    6.2  0.1383    7.4  0.5205  -89.7
 4.600  0.5977   98.2   1.111    4.5  0.1389    7.4  0.5182  -91.8
 4.700  0.6052   96.3   1.084    2.8  0.1395    7.5  0.5165  -93.9
 4.800  0.6133   94.4   1.058    0.9  0.1402    7.5  0.5156  -96.0
 4.900  0.6221   92.6   1.033   -1.0  0.1408    7.6  0.5153  -98.1
 5.000  0.6314   90.9   1.009   -3.0  0.1414    7.6  0.5158 -100.2
 5.100  0.6359   89.4   0.985   -4.7  0.1430    7.6  0.5158 -102.4
 5.200  0.6409   87.8   0.961   -6.4  0.1446    7.7  0.5165 -104.6
 5.300  0.6463   86.3   0.939   -8.2  0.1463    7.7  0.5180 -106.7
 5.400  0.6522   84.8   0.917  -10.1  0.1479    7.8  0.5203 -108.9
 5.500  0.6585   83.4   0.897  -12.1  0.1495    7.8  0.5232 -111.0
 5.600  0.6654   82.0   0.878  -13.6  0.1515    7.6  0.5238 -113.2
 5.700  0.6726   80.7   0.859  -15.1  0.1534    7.4  0.5252 -115.5
 5.800  0.6801   79.4   0.841  -16.7  0.1554    7.2  0.5274 -117.7
 5.900  0.6881   78.1   0.824  -18.4  0.1573    7.0  0.5304 -119.8
 6.000  0.6963   76.9   0.807  -20.1  0.1593    6.8  0.5341 -122.0
!
!  f       NFmin   Gammaopt  rn/50
! GHz       dB    MAG  ANG    -
!
! noise parameter not available yet for this operation point!
!
! (c) 2016  Infineon Technologies AG, Munich
