! Infineon Technologies  Discrete & RF Semiconductors
! BFP196
! VCE = 1.5 V,  IC =  80mA
! Common Emitter S-Parameters:                            Jan 2016
# GHz  S  MA  R  50
!  f         S11            S21            S12            S22
! GHz     MAG   ANG      MAG   ANG      MAG   ANG      MAG   ANG
 0.010  0.1977 -107.6  70.058  164.9  0.0037   71.9  0.7616  -20.9
 0.015  0.2748 -116.5  66.235  158.2  0.0053   68.8  0.7258  -29.8
 0.020  0.3556 -121.4  63.433  150.7  0.0070   67.1  0.7091  -39.4
 0.025  0.3897 -127.2  59.437  147.7  0.0078   63.3  0.6599  -44.4
 0.030  0.4271 -132.1  55.625  144.3  0.0087   60.2  0.6164  -50.1
 0.035  0.4672 -136.2  52.035  140.5  0.0096   57.7  0.5798  -56.6
 0.040  0.5092 -139.6  48.719  136.0  0.0105   55.6  0.5517  -63.8
 0.045  0.5527 -142.4  45.734  131.0  0.0115   53.9  0.5332  -71.7
 0.050  0.5974 -144.9  43.150  125.3  0.0124   52.4  0.5255  -80.0
 0.055  0.6043 -147.0  41.232  124.2  0.0128   52.2  0.5052  -82.5
 0.060  0.6120 -149.1  39.331  123.1  0.0132   52.1  0.4859  -85.3
 0.065  0.6206 -151.2  37.447  121.8  0.0137   51.9  0.4679  -88.3
 0.070  0.6298 -153.1  35.584  120.4  0.0141   51.8  0.4513  -91.5
 0.075  0.6398 -155.0  33.745  118.8  0.0145   51.7  0.4361  -94.9
 0.080  0.6505 -156.9  31.936  117.0  0.0149   51.5  0.4227  -98.6
 0.085  0.6619 -158.7  30.160  115.0  0.0153   51.4  0.4110 -102.5
 0.090  0.6739 -160.4  28.424  112.8  0.0158   51.3  0.4014 -106.6
 0.095  0.6865 -162.1  26.735  110.3  0.0162   51.2  0.3940 -110.9
 0.100  0.6996 -163.7  25.105  107.5  0.0166   51.1  0.3888 -115.3
 0.105  0.7019 -164.5  24.311  106.9  0.0170   51.4  0.3827 -116.9
 0.110  0.7044 -165.3  23.520  106.3  0.0173   51.7  0.3769 -118.5
 0.115  0.7070 -166.1  22.732  105.6  0.0177   51.9  0.3715 -120.1
 0.120  0.7097 -166.9  21.947  104.9  0.0181   52.2  0.3663 -121.8
 0.125  0.7125 -167.6  21.166  104.2  0.0184   52.4  0.3615 -123.5
 0.130  0.7155 -168.4  20.388  103.3  0.0188   52.7  0.3570 -125.3
 0.135  0.7186 -169.2  19.616  102.4  0.0192   52.9  0.3528 -127.2
 0.140  0.7219 -169.9  18.848  101.5  0.0196   53.1  0.3491 -129.0
 0.145  0.7252 -170.7  18.086  100.4  0.0199   53.3  0.3457 -131.0
 0.150  0.7287 -171.4  17.331   99.3  0.0203   53.5  0.3427 -132.9
 0.155  0.7287 -171.9  16.910   98.9  0.0207   54.0  0.3402 -133.9
 0.160  0.7287 -172.4  16.489   98.5  0.0210   54.5  0.3379 -134.9
 0.165  0.7288 -172.9  16.070   98.0  0.0214   54.9  0.3356 -135.9
 0.170  0.7289 -173.4  15.652   97.6  0.0217   55.4  0.3335 -136.9
 0.175  0.7291 -173.9  15.234   97.1  0.0221   55.8  0.3315 -138.0
 0.180  0.7294 -174.4  14.818   96.6  0.0224   56.2  0.3295 -139.1
 0.185  0.7297 -174.9  14.403   96.0  0.0228   56.7  0.3277 -140.1
 0.190  0.7300 -175.4  13.989   95.5  0.0232   57.0  0.3260 -141.2
 0.195  0.7304 -175.9  13.577   94.9  0.0235   57.4  0.3245 -142.3
 0.200  0.7309 -176.4  13.167   94.2  0.0239   57.8  0.3230 -143.4
 0.220  0.7335 -178.0  12.107   93.0  0.0257   58.9  0.3187 -146.3
 0.240  0.7367 -179.5  11.053   91.5  0.0275   59.8  0.3152 -149.4
 0.260  0.7388  179.2  10.186   90.2  0.0291   60.6  0.3127 -151.7
 0.280  0.7396  178.1   9.502   89.3  0.0306   61.5  0.3108 -153.5
 0.300  0.7406  177.1   8.821   88.1  0.0320   62.2  0.3091 -155.2
 0.320  0.7408  176.1   8.386   87.4  0.0337   62.8  0.3078 -156.5
 0.340  0.7413  175.0   7.953   86.6  0.0354   63.4  0.3067 -157.8
 0.360  0.7420  174.0   7.521   85.8  0.0370   63.9  0.3057 -159.1
 0.380  0.7429  172.9   7.091   84.8  0.0387   64.4  0.3049 -160.5
 0.400  0.7441  171.9   6.664   83.7  0.0404   64.8  0.3043 -161.8
 0.420  0.7442  171.1   6.396   83.1  0.0420   65.0  0.3039 -162.6
 0.440  0.7445  170.4   6.129   82.4  0.0436   65.2  0.3037 -163.5
 0.450  0.7446  170.0   5.995   82.0  0.0444   65.3  0.3035 -163.9
 0.460  0.7448  169.6   5.862   81.6  0.0452   65.4  0.3034 -164.3
 0.480  0.7454  168.9   5.597   80.8  0.0468   65.5  0.3033 -165.2
 0.500  0.7460  168.1   5.333   79.9  0.0484   65.7  0.3032 -166.0
 0.520  0.7455  167.3   5.154   79.2  0.0503   65.7  0.3032 -166.6
 0.540  0.7451  166.5   4.976   78.5  0.0522   65.8  0.3033 -167.2
 0.560  0.7448  165.7   4.799   77.7  0.0540   65.8  0.3033 -167.7
 0.580  0.7447  164.9   4.623   76.9  0.0559   65.9  0.3035 -168.3
 0.600  0.7448  164.1   4.448   76.0  0.0578   65.9  0.3036 -168.9
 0.620  0.7455  163.3   4.323   75.3  0.0594   65.9  0.3038 -169.3
 0.640  0.7463  162.5   4.199   74.7  0.0610   65.9  0.3041 -169.8
 0.660  0.7473  161.8   4.076   73.9  0.0627   65.8  0.3043 -170.2
 0.680  0.7484  161.0   3.953   73.1  0.0643   65.8  0.3046 -170.7
 0.700  0.7496  160.2   3.831   72.3  0.0659   65.8  0.3049 -171.1
 0.720  0.7501  159.6   3.735   71.8  0.0678   65.6  0.3053 -171.5
 0.740  0.7507  159.0   3.640   71.2  0.0696   65.3  0.3056 -171.8
 0.760  0.7514  158.3   3.545   70.6  0.0715   65.1  0.3060 -172.2
 0.780  0.7521  157.7   3.450   70.0  0.0733   64.9  0.3064 -172.5
 0.800  0.7530  157.1   3.356   69.3  0.0752   64.7  0.3068 -172.9
 0.820  0.7514  156.4   3.281   68.7  0.0769   64.5  0.3070 -173.3
 0.840  0.7499  155.7   3.206   68.1  0.0787   64.3  0.3072 -173.7
 0.860  0.7486  154.9   3.132   67.5  0.0804   64.1  0.3074 -174.0
 0.880  0.7473  154.2   3.058   66.8  0.0822   64.0  0.3077 -174.4
 0.900  0.7462  153.5   2.984   66.1  0.0839   63.8  0.3079 -174.8
 0.920  0.7472  152.8   2.926   65.5  0.0855   63.6  0.3084 -175.1
 0.940  0.7483  152.0   2.867   65.0  0.0871   63.4  0.3088 -175.3
 0.960  0.7495  151.3   2.810   64.4  0.0887   63.2  0.3093 -175.6
 0.980  0.7508  150.5   2.752   63.8  0.0903   63.1  0.3098 -175.8
 1.000  0.7523  149.8   2.695   63.1  0.0919   62.9  0.3103 -176.1
 1.020  0.7524  149.2   2.647   62.5  0.0936   62.6  0.3111 -176.4
 1.040  0.7525  148.7   2.599   61.9  0.0953   62.4  0.3120 -176.6
 1.060  0.7527  148.1   2.552   61.3  0.0971   62.2  0.3129 -176.9
 1.080  0.7530  147.6   2.505   60.6  0.0988   61.9  0.3137 -177.1
 1.100  0.7534  147.0   2.458   59.9  0.1005   61.7  0.3146 -177.4
 1.120  0.7548  146.3   2.418   59.4  0.1021   61.4  0.3152 -177.7
 1.140  0.7562  145.6   2.377   58.8  0.1037   61.1  0.3157 -177.9
 1.160  0.7578  145.0   2.337   58.3  0.1054   60.8  0.3163 -178.2
 1.180  0.7595  144.3   2.298   57.7  0.1070   60.6  0.3169 -178.4
 1.200  0.7613  143.6   2.258   57.1  0.1086   60.3  0.3175 -178.7
 1.220  0.7604  142.9   2.223   56.5  0.1103   60.0  0.3180 -178.9
 1.240  0.7597  142.3   2.189   56.0  0.1120   59.7  0.3186 -179.2
 1.260  0.7590  141.6   2.155   55.4  0.1137   59.4  0.3191 -179.4
 1.280  0.7585  141.0   2.121   54.7  0.1154   59.1  0.3196 -179.7
 1.300  0.7580  140.3   2.087   54.1  0.1171   58.8  0.3202 -179.9
 1.320  0.7585  139.8   2.058   53.6  0.1186   58.5  0.3207  179.9
 1.340  0.7590  139.2   2.029   53.1  0.1201   58.2  0.3213  179.7
 1.360  0.7597  138.7   2.001   52.6  0.1216   57.9  0.3218  179.4
 1.380  0.7603  138.1   1.972   52.1  0.1231   57.7  0.3224  179.2
 1.400  0.7611  137.6   1.944   51.5  0.1246   57.4  0.3229  179.0
 1.420  0.7615  136.9   1.922   51.0  0.1263   57.1  0.3237  178.8
 1.440  0.7620  136.3   1.900   50.4  0.1280   56.8  0.3244  178.6
 1.460  0.7626  135.6   1.879   49.9  0.1297   56.5  0.3252  178.4
 1.480  0.7633  135.0   1.857   49.3  0.1314   56.3  0.3260  178.2
 1.500  0.7641  134.3   1.836   48.7  0.1331   56.0  0.3268  178.0
 1.520  0.7653  133.7   1.810   48.1  0.1346   55.7  0.3277  177.7
 1.540  0.7666  133.1   1.783   47.6  0.1360   55.4  0.3285  177.5
 1.560  0.7680  132.6   1.757   47.0  0.1375   55.1  0.3294  177.2
 1.580  0.7695  132.0   1.732   46.3  0.1390   54.8  0.3303  177.0
 1.600  0.7710  131.4   1.706   45.7  0.1405   54.5  0.3312  176.7
 1.620  0.7713  130.8   1.686   45.2  0.1420   54.2  0.3319  176.4
 1.640  0.7716  130.1   1.666   44.6  0.1434   53.8  0.3326  176.1
 1.660  0.7721  129.5   1.646   44.1  0.1449   53.5  0.3333  175.9
 1.680  0.7726  128.8   1.626   43.5  0.1463   53.2  0.3340  175.6
 1.700  0.7733  128.2   1.607   42.9  0.1478   52.9  0.3347  175.3
 1.720  0.7743  127.7   1.593   42.5  0.1493   52.5  0.3355  175.1
 1.740  0.7754  127.1   1.579   42.0  0.1509   52.2  0.3363  175.0
 1.760  0.7766  126.6   1.565   41.6  0.1525   51.9  0.3370  174.8
 1.780  0.7778  126.0   1.551   41.2  0.1540   51.5  0.3378  174.7
 1.800  0.7791  125.5   1.537   40.7  0.1556   51.2  0.3386  174.5
 1.820  0.7791  125.0   1.521   40.2  0.1571   50.9  0.3398  174.3
 1.840  0.7792  124.5   1.504   39.6  0.1586   50.5  0.3409  174.1
 1.860  0.7793  124.0   1.488   39.1  0.1601   50.2  0.3421  173.8
 1.880  0.7795  123.5   1.472   38.5  0.1616   49.9  0.3433  173.6
 1.900  0.7797  123.0   1.456   37.9  0.1631   49.6  0.3445  173.4
 1.920  0.7808  122.4   1.441   37.4  0.1645   49.3  0.3455  173.1
 1.940  0.7820  121.9   1.425   36.9  0.1659   48.9  0.3465  172.8
 1.960  0.7833  121.3   1.410   36.4  0.1673   48.6  0.3476  172.4
 1.980  0.7847  120.8   1.395   35.9  0.1687   48.3  0.3486  172.1
 2.000  0.7861  120.2   1.380   35.4  0.1701   48.0  0.3497  171.8
 2.020  0.7860  119.7   1.367   34.9  0.1714   47.7  0.3506  171.6
 2.040  0.7860  119.1   1.355   34.5  0.1727   47.3  0.3515  171.3
 2.060  0.7860  118.6   1.342   34.0  0.1740   47.0  0.3524  171.1
 2.080  0.7861  118.0   1.330   33.5  0.1754   46.7  0.3533  170.8
 2.100  0.7863  117.5   1.318   33.0  0.1767   46.4  0.3543  170.6
 2.120  0.7865  117.0   1.306   32.5  0.1780   46.1  0.3552  170.3
 2.140  0.7868  116.4   1.293   31.9  0.1794   45.8  0.3561  170.1
 2.160  0.7872  115.9   1.282   31.4  0.1807   45.5  0.3571  169.9
 2.180  0.7877  115.3   1.270   30.9  0.1820   45.2  0.3580  169.6
 2.200  0.7882  114.8   1.258   30.3  0.1834   44.9  0.3590  169.4
 2.220  0.7889  114.2   1.248   29.8  0.1847   44.6  0.3603  169.1
 2.240  0.7897  113.7   1.238   29.4  0.1859   44.2  0.3615  168.8
 2.260  0.7906  113.1   1.228   28.9  0.1872   43.9  0.3628  168.4
 2.280  0.7915  112.6   1.219   28.4  0.1885   43.6  0.3641  168.1
 2.300  0.7925  112.0   1.209   27.9  0.1898   43.3  0.3654  167.8
 2.320  0.7936  111.5   1.199   27.4  0.1911   43.0  0.3667  167.5
 2.340  0.7948  110.9   1.190   26.9  0.1924   42.7  0.3681  167.2
 2.360  0.7960  110.4   1.180   26.4  0.1937   42.4  0.3694  166.9
 2.380  0.7973  109.8   1.171   25.8  0.1950   42.1  0.3707  166.6
 2.400  0.7987  109.3   1.162   25.3  0.1963   41.8  0.3721  166.3
 2.420  0.7992  108.8   1.153   24.9  0.1974   41.5  0.3731  166.0
 2.440  0.7998  108.3   1.144   24.5  0.1985   41.1  0.3742  165.8
 2.460  0.8004  107.8   1.135   24.0  0.1997   40.8  0.3752  165.5
 2.480  0.8011  107.3   1.126   23.6  0.2008   40.5  0.3763  165.3
 2.500  0.8019  106.8   1.117   23.1  0.2020   40.2  0.3774  165.0
 2.520  0.8027  106.3   1.108   22.7  0.2031   39.8  0.3784  164.8
 2.540  0.8035  105.9   1.099   22.2  0.2043   39.5  0.3795  164.5
 2.560  0.8045  105.4   1.090   21.8  0.2055   39.2  0.3806  164.3
 2.580  0.8055  104.9   1.082   21.3  0.2066   38.9  0.3817  164.0
 2.600  0.8065  104.4   1.073   20.8  0.2078   38.6  0.3828  163.8
 2.620  0.8069  103.9   1.066   20.4  0.2089   38.3  0.3843  163.5
 2.640  0.8073  103.5   1.058   20.0  0.2101   38.0  0.3858  163.2
 2.660  0.8078  103.0   1.051   19.6  0.2112   37.7  0.3873  162.9
 2.680  0.8083  102.5   1.044   19.2  0.2124   37.4  0.3888  162.6
 2.700  0.8089  102.0   1.037   18.8  0.2136   37.1  0.3904  162.3
 2.720  0.8096  101.6   1.030   18.3  0.2148   36.8  0.3919  162.0
 2.740  0.8103  101.1   1.023   17.9  0.2159   36.5  0.3935  161.7
 2.760  0.8110  100.6   1.016   17.5  0.2171   36.2  0.3950  161.5
 2.780  0.8118  100.2   1.009   17.0  0.2183   35.9  0.3966  161.2
 2.800  0.8127   99.7   1.002   16.6  0.2195   35.6  0.3982  160.9
 2.820  0.8131   99.3   0.995   16.2  0.2205   35.3  0.3993  160.6
 2.840  0.8136   98.8   0.988   15.8  0.2215   35.0  0.4005  160.3
 2.860  0.8141   98.4   0.981   15.3  0.2225   34.6  0.4016  160.1
 2.880  0.8147   98.0   0.974   14.9  0.2235   34.3  0.4028  159.8
 2.900  0.8153   97.5   0.967   14.5  0.2245   34.0  0.4040  159.5
 2.920  0.8159   97.1   0.960   14.0  0.2255   33.7  0.4052  159.3
 2.940  0.8166   96.7   0.953   13.6  0.2266   33.4  0.4064  159.0
 2.960  0.8174   96.3   0.946   13.1  0.2276   33.1  0.4076  158.7
 2.980  0.8182   95.8   0.940   12.7  0.2287   32.8  0.4088  158.5
 3.000  0.8190   95.4   0.933   12.2  0.2297   32.5  0.4100  158.2
 3.100  0.8211   93.4   0.904   10.6  0.2337   31.0  0.4167  156.7
 3.200  0.8242   91.4   0.876    8.9  0.2379   29.5  0.4236  155.3
 3.300  0.8283   89.5   0.849    7.1  0.2422   28.0  0.4308  154.0
 3.400  0.8334   87.5   0.823    5.2  0.2467   26.6  0.4383  152.7
 3.500  0.8394   85.6   0.798    3.1  0.2513   25.3  0.4459  151.4
 3.600  0.8401   83.9   0.777    1.7  0.2546   24.0  0.4525  150.1
 3.700  0.8415   82.1   0.756    0.2  0.2581   22.7  0.4593  148.8
 3.800  0.8437   80.4   0.736   -1.3  0.2617   21.4  0.4663  147.5
 3.900  0.8467   78.7   0.717   -3.0  0.2655   20.2  0.4735  146.3
 4.000  0.8504   77.0   0.698   -4.7  0.2693   19.0  0.4810  145.1
 4.100  0.8508   75.5   0.683   -5.9  0.2727   17.8  0.4862  143.9
 4.200  0.8518   74.0   0.668   -7.2  0.2761   16.5  0.4916  142.8
 4.300  0.8534   72.5   0.654   -8.5  0.2797   15.4  0.4972  141.7
 4.400  0.8556   71.0   0.640   -9.9  0.2835   14.2  0.5029  140.6
 4.500  0.8584   69.5   0.626  -11.3  0.2873   13.1  0.5089  139.5
 4.600  0.8593   68.3   0.615  -12.3  0.2901   12.0  0.5134  138.5
 4.700  0.8606   67.0   0.605  -13.3  0.2931   10.8  0.5181  137.4
 4.800  0.8623   65.8   0.594  -14.4  0.2962    9.7  0.5229  136.4
 4.900  0.8643   64.6   0.584  -15.5  0.2993    8.7  0.5279  135.5
 5.000  0.8668   63.4   0.574  -16.7  0.3026    7.6  0.5330  134.5
 5.100  0.8679   62.2   0.565  -17.6  0.3056    6.5  0.5379  133.4
 5.200  0.8694   61.1   0.556  -18.5  0.3087    5.4  0.5430  132.4
 5.300  0.8712   59.9   0.547  -19.4  0.3120    4.3  0.5483  131.4
 5.400  0.8734   58.7   0.539  -20.3  0.3153    3.2  0.5537  130.4
 5.500  0.8759   57.6   0.530  -21.3  0.3188    2.2  0.5593  129.4
 5.600  0.8750   56.5   0.524  -22.1  0.3214    1.0  0.5637  128.4
 5.700  0.8743   55.4   0.519  -23.0  0.3242   -0.1  0.5682  127.4
 5.800  0.8740   54.4   0.513  -23.9  0.3271   -1.3  0.5729  126.4
 5.900  0.8740   53.3   0.508  -24.8  0.3301   -2.4  0.5778  125.4
 6.000  0.8743   52.2   0.503  -25.7  0.3333   -3.5  0.5829  124.4
!
!  f       NFmin   Gammaopt  rn/50
! GHz       dB    MAG  ANG    -
!
! noise parameter not available yet for this operation point!
!
! (c) 2016  Infineon Technologies AG, Munich
