! Infineon Technologies  Discrete & RF Semiconductors
! BFP181
! VCE = 2.0 V,  IC =  80 mA
! Common Emitter S-Parameters:                            Jan 2016
# GHz  S  MA  R  50
!  f         S11            S21            S12            S22
! GHz     MAG   ANG      MAG   ANG      MAG   ANG      MAG   ANG
 0.010  0.9700   -0.9   2.804  179.7  0.0012   89.2  0.9979   -0.3
 0.015  0.9683   -1.1   2.813  179.6  0.0021   90.1  0.9978   -0.4
 0.020  0.9666   -1.4   2.823  179.5  0.0030   90.4  0.9977   -0.6
 0.025  0.9676   -1.7   2.827  179.1  0.0038   90.4  0.9977   -0.8
 0.030  0.9686   -2.0   2.831  178.7  0.0045   90.5  0.9976   -1.0
 0.035  0.9696   -2.3   2.835  178.2  0.0053   90.5  0.9976   -1.1
 0.040  0.9707   -2.6   2.839  177.8  0.0061   90.5  0.9976   -1.3
 0.045  0.9718   -2.9   2.843  177.4  0.0068   90.5  0.9976   -1.5
 0.050  0.9729   -3.2   2.848  177.0  0.0076   90.5  0.9976   -1.7
 0.055  0.9717   -3.6   2.840  176.7  0.0083   89.5  0.9975   -1.9
 0.060  0.9706   -3.9   2.833  176.4  0.0090   88.6  0.9973   -2.0
 0.065  0.9694   -4.3   2.826  176.1  0.0097   87.8  0.9972   -2.2
 0.070  0.9684   -4.6   2.818  175.9  0.0104   87.2  0.9971   -2.3
 0.075  0.9673   -5.0   2.811  175.6  0.0111   86.6  0.9970   -2.5
 0.080  0.9663   -5.4   2.804  175.3  0.0118   86.1  0.9968   -2.7
 0.085  0.9654   -5.7   2.797  175.0  0.0125   85.7  0.9967   -2.8
 0.090  0.9644   -6.1   2.790  174.7  0.0132   85.3  0.9967   -3.0
 0.095  0.9635   -6.4   2.783  174.4  0.0139   84.9  0.9966   -3.1
 0.100  0.9627   -6.8   2.776  174.1  0.0146   84.6  0.9965   -3.3
 0.105  0.9625   -7.1   2.780  173.8  0.0154   84.4  0.9962   -3.4
 0.110  0.9624   -7.5   2.783  173.4  0.0161   84.3  0.9960   -3.6
 0.115  0.9623   -7.8   2.787  173.1  0.0169   84.1  0.9958   -3.7
 0.120  0.9622   -8.2   2.791  172.8  0.0177   84.0  0.9955   -3.9
 0.125  0.9622   -8.5   2.795  172.4  0.0184   83.9  0.9953   -4.0
 0.130  0.9622   -8.8   2.799  172.1  0.0192   83.8  0.9951   -4.2
 0.135  0.9622   -9.2   2.803  171.8  0.0200   83.7  0.9949   -4.3
 0.140  0.9623   -9.5   2.807  171.5  0.0208   83.6  0.9947   -4.5
 0.145  0.9624   -9.9   2.812  171.1  0.0215   83.5  0.9945   -4.6
 0.150  0.9625  -10.2   2.816  170.8  0.0223   83.4  0.9943   -4.8
 0.155  0.9618  -10.6   2.816  170.5  0.0230   83.1  0.9941   -5.0
 0.160  0.9612  -10.9   2.815  170.2  0.0237   82.8  0.9938   -5.1
 0.165  0.9606  -11.3   2.815  169.9  0.0245   82.5  0.9936   -5.3
 0.170  0.9601  -11.6   2.815  169.6  0.0252   82.2  0.9934   -5.5
 0.175  0.9596  -12.0   2.815  169.3  0.0259   81.9  0.9932   -5.6
 0.180  0.9591  -12.4   2.815  169.0  0.0266   81.7  0.9930   -5.8
 0.185  0.9587  -12.7   2.815  168.7  0.0273   81.4  0.9928   -6.0
 0.190  0.9583  -13.1   2.815  168.4  0.0281   81.2  0.9926   -6.2
 0.195  0.9579  -13.4   2.816  168.1  0.0288   81.0  0.9925   -6.3
 0.200  0.9576  -13.8   2.816  167.8  0.0295   80.8  0.9923   -6.5
 0.220  0.9568  -15.1   2.798  166.6  0.0322   79.9  0.9906   -7.1
 0.240  0.9565  -16.4   2.781  165.4  0.0349   79.1  0.9890   -7.8
 0.260  0.9552  -17.8   2.777  164.3  0.0377   78.1  0.9878   -8.4
 0.280  0.9527  -19.1   2.784  163.3  0.0408   77.0  0.9869   -9.1
 0.300  0.9508  -20.5   2.793  162.3  0.0439   76.1  0.9862   -9.7
 0.320  0.9465  -21.8   2.787  160.9  0.0465   75.0  0.9840  -10.3
 0.340  0.9427  -23.2   2.782  159.6  0.0491   74.1  0.9819  -10.9
 0.360  0.9395  -24.5   2.779  158.2  0.0518   73.2  0.9799  -11.6
 0.380  0.9367  -25.8   2.777  156.9  0.0544   72.4  0.9780  -12.2
 0.400  0.9345  -27.2   2.777  155.5  0.0571   71.7  0.9763  -12.8
 0.420  0.9285  -28.5   2.757  154.3  0.0597   70.6  0.9737  -13.4
 0.440  0.9229  -29.9   2.737  153.1  0.0623   69.7  0.9713  -14.0
 0.450  0.9203  -30.6   2.728  152.5  0.0637   69.2  0.9701  -14.3
 0.460  0.9179  -31.2   2.719  151.9  0.0650   68.8  0.9690  -14.6
 0.480  0.9134  -32.6   2.703  150.7  0.0676   68.0  0.9667  -15.2
 0.500  0.9094  -34.0   2.687  149.5  0.0703   67.2  0.9646  -15.8
 0.520  0.9054  -35.3   2.677  148.4  0.0727   66.2  0.9618  -16.4
 0.540  0.9019  -36.6   2.669  147.4  0.0750   65.2  0.9591  -17.0
 0.560  0.8988  -37.9   2.661  146.3  0.0774   64.3  0.9566  -17.5
 0.580  0.8962  -39.2   2.654  145.2  0.0799   63.5  0.9541  -18.1
 0.600  0.8941  -40.5   2.648  144.1  0.0823   62.7  0.9517  -18.7
 0.620  0.8888  -41.8   2.633  143.0  0.0846   61.8  0.9484  -19.3
 0.640  0.8839  -43.0   2.619  141.9  0.0869   61.0  0.9452  -19.8
 0.660  0.8795  -44.3   2.606  140.7  0.0893   60.2  0.9420  -20.4
 0.680  0.8755  -45.6   2.595  139.6  0.0916   59.5  0.9390  -21.0
 0.700  0.8719  -46.9   2.584  138.4  0.0940   58.8  0.9361  -21.6
 0.720  0.8647  -48.2   2.577  137.3  0.0959   57.9  0.9328  -22.1
 0.740  0.8579  -49.5   2.570  136.2  0.0978   57.0  0.9296  -22.6
 0.760  0.8516  -50.8   2.565  135.1  0.0997   56.2  0.9264  -23.1
 0.780  0.8457  -52.1   2.560  134.0  0.1016   55.4  0.9233  -23.7
 0.800  0.8403  -53.5   2.557  132.9  0.1036   54.6  0.9203  -24.2
 0.820  0.8339  -54.8   2.542  131.9  0.1055   53.7  0.9167  -24.7
 0.840  0.8279  -56.1   2.528  130.8  0.1075   52.9  0.9132  -25.3
 0.860  0.8224  -57.4   2.514  129.8  0.1095   52.1  0.9097  -25.8
 0.880  0.8173  -58.7   2.502  128.7  0.1115   51.3  0.9064  -26.4
 0.900  0.8127  -60.1   2.490  127.6  0.1135   50.5  0.9031  -26.9
 0.920  0.8068  -61.3   2.469  126.7  0.1150   49.8  0.8995  -27.4
 0.940  0.8013  -62.6   2.448  125.7  0.1166   49.1  0.8960  -27.8
 0.960  0.7961  -63.8   2.428  124.7  0.1182   48.4  0.8925  -28.3
 0.980  0.7914  -65.1   2.409  123.7  0.1198   47.7  0.8891  -28.8
 1.000  0.7870  -66.4   2.391  122.7  0.1214   47.1  0.8857  -29.3
 1.020  0.7811  -67.6   2.381  121.7  0.1230   46.3  0.8823  -29.7
 1.040  0.7755  -68.9   2.371  120.6  0.1247   45.6  0.8789  -30.2
 1.060  0.7703  -70.2   2.363  119.6  0.1263   44.9  0.8756  -30.6
 1.080  0.7655  -71.5   2.355  118.6  0.1280   44.2  0.8723  -31.1
 1.100  0.7611  -72.8   2.348  117.5  0.1297   43.5  0.8691  -31.5
 1.120  0.7550  -73.9   2.332  116.6  0.1310   42.7  0.8660  -32.0
 1.140  0.7491  -75.1   2.317  115.8  0.1324   42.0  0.8629  -32.4
 1.160  0.7436  -76.3   2.302  114.9  0.1338   41.2  0.8599  -32.9
 1.180  0.7384  -77.5   2.288  114.0  0.1352   40.5  0.8569  -33.4
 1.200  0.7335  -78.7   2.274  113.1  0.1366   39.8  0.8540  -33.9
 1.220  0.7278  -80.0   2.259  112.2  0.1377   39.2  0.8504  -34.3
 1.240  0.7224  -81.2   2.245  111.2  0.1388   38.5  0.8469  -34.7
 1.260  0.7174  -82.5   2.231  110.3  0.1399   37.9  0.8434  -35.1
 1.280  0.7128  -83.9   2.218  109.3  0.1410   37.3  0.8400  -35.5
 1.300  0.7085  -85.2   2.206  108.3  0.1422   36.7  0.8366  -35.9
 1.320  0.7017  -86.4   2.193  107.4  0.1431   36.1  0.8330  -36.3
 1.340  0.6952  -87.5   2.180  106.5  0.1441   35.5  0.8295  -36.8
 1.360  0.6890  -88.7   2.167  105.6  0.1450   34.9  0.8260  -37.2
 1.380  0.6831  -90.0   2.155  104.7  0.1460   34.3  0.8226  -37.7
 1.400  0.6775  -91.2   2.144  103.8  0.1470   33.7  0.8192  -38.1
 1.420  0.6724  -92.6   2.138  102.9  0.1478   33.1  0.8156  -38.4
 1.440  0.6677  -94.1   2.132  101.9  0.1487   32.6  0.8121  -38.8
 1.460  0.6635  -95.5   2.127  101.0  0.1495   32.1  0.8086  -39.1
 1.480  0.6597  -97.0   2.122  100.0  0.1504   31.5  0.8051  -39.5
 1.500  0.6563  -98.5   2.118   99.1  0.1513   31.0  0.8016  -39.8
 1.520  0.6492  -99.6   2.102   98.3  0.1520   30.5  0.7991  -40.1
 1.540  0.6424 -100.7   2.087   97.4  0.1528   29.9  0.7966  -40.5
 1.560  0.6359 -101.9   2.073   96.6  0.1535   29.4  0.7941  -40.8
 1.580  0.6296 -103.1   2.059   95.7  0.1543   28.9  0.7916  -41.2
 1.600  0.6236 -104.3   2.045   94.8  0.1551   28.4  0.7892  -41.5
 1.620  0.6191 -105.6   2.034   94.0  0.1556   27.9  0.7854  -41.9
 1.640  0.6150 -107.0   2.023   93.1  0.1561   27.3  0.7816  -42.2
 1.660  0.6112 -108.4   2.013   92.2  0.1567   26.8  0.7779  -42.6
 1.680  0.6078 -109.8   2.003   91.4  0.1572   26.3  0.7742  -43.0
 1.700  0.6048 -111.2   1.994   90.5  0.1578   25.8  0.7705  -43.4
 1.720  0.5997 -112.5   1.981   89.7  0.1583   25.4  0.7676  -43.7
 1.740  0.5949 -113.7   1.967   88.8  0.1589   25.0  0.7647  -44.0
 1.760  0.5904 -115.0   1.955   88.0  0.1595   24.5  0.7618  -44.3
 1.780  0.5863 -116.4   1.943   87.1  0.1600   24.1  0.7589  -44.6
 1.800  0.5824 -117.7   1.931   86.2  0.1606   23.7  0.7561  -44.9
 1.820  0.5787 -119.0   1.921   85.5  0.1611   23.1  0.7534  -45.3
 1.840  0.5754 -120.3   1.910   84.7  0.1616   22.5  0.7507  -45.6
 1.860  0.5723 -121.6   1.901   83.9  0.1622   21.9  0.7481  -46.0
 1.880  0.5695 -123.0   1.891   83.2  0.1627   21.4  0.7455  -46.3
 1.900  0.5671 -124.3   1.882   82.4  0.1633   20.8  0.7429  -46.7
 1.920  0.5618 -125.5   1.869   81.6  0.1637   20.5  0.7407  -47.0
 1.940  0.5567 -126.7   1.857   80.8  0.1642   20.1  0.7385  -47.2
 1.960  0.5519 -128.0   1.844   80.0  0.1646   19.8  0.7363  -47.5
 1.980  0.5473 -129.2   1.832   79.2  0.1650   19.4  0.7341  -47.7
 2.000  0.5430 -130.5   1.821   78.4  0.1655   19.1  0.7319  -48.0
 2.020  0.5389 -131.8   1.810   77.7  0.1656   18.7  0.7293  -48.3
 2.040  0.5351 -133.1   1.798   76.9  0.1657   18.2  0.7267  -48.7
 2.060  0.5315 -134.5   1.788   76.1  0.1659   17.8  0.7241  -49.0
 2.080  0.5283 -135.8   1.777   75.3  0.1660   17.4  0.7216  -49.3
 2.100  0.5253 -137.2   1.767   74.6  0.1662   16.9  0.7191  -49.7
 2.120  0.5227 -138.6   1.757   73.8  0.1663   16.5  0.7166  -50.0
 2.140  0.5204 -140.0   1.747   73.0  0.1665   16.1  0.7141  -50.4
 2.160  0.5184 -141.4   1.738   72.2  0.1667   15.7  0.7117  -50.7
 2.180  0.5167 -142.9   1.729   71.3  0.1669   15.2  0.7093  -51.0
 2.200  0.5153 -144.3   1.721   70.5  0.1671   14.8  0.7069  -51.4
 2.220  0.5123 -145.5   1.710   69.9  0.1672   14.4  0.7049  -51.7
 2.240  0.5096 -146.8   1.699   69.2  0.1674   14.0  0.7028  -52.0
 2.260  0.5071 -148.0   1.689   68.5  0.1675   13.6  0.7008  -52.3
 2.280  0.5048 -149.3   1.679   67.9  0.1677   13.2  0.6988  -52.6
 2.300  0.5028 -150.6   1.669   67.2  0.1678   12.8  0.6969  -52.9
 2.320  0.5011 -151.9   1.659   66.5  0.1680   12.4  0.6949  -53.2
 2.340  0.4996 -153.2   1.649   65.8  0.1682   12.0  0.6930  -53.5
 2.360  0.4984 -154.5   1.640   65.1  0.1684   11.6  0.6911  -53.8
 2.380  0.4974 -155.8   1.631   64.4  0.1686   11.2  0.6892  -54.1
 2.400  0.4967 -157.1   1.622   63.7  0.1688   10.8  0.6873  -54.4
 2.420  0.4947 -158.4   1.612   63.1  0.1686   10.5  0.6848  -54.7
 2.440  0.4930 -159.7   1.603   62.4  0.1684   10.2  0.6824  -54.9
 2.460  0.4915 -161.0   1.593   61.8  0.1682    9.9  0.6800  -55.2
 2.480  0.4902 -162.3   1.584   61.1  0.1681    9.6  0.6775  -55.5
 2.500  0.4892 -163.6   1.575   60.4  0.1679    9.4  0.6751  -55.8
 2.520  0.4885 -164.9   1.566   59.8  0.1677    9.1  0.6728  -56.1
 2.540  0.4880 -166.2   1.557   59.1  0.1676    8.8  0.6704  -56.3
 2.560  0.4878 -167.6   1.549   58.4  0.1674    8.5  0.6680  -56.6
 2.580  0.4879 -168.9   1.541   57.7  0.1673    8.2  0.6657  -56.9
 2.600  0.4882 -170.2   1.533   57.0  0.1671    7.9  0.6634  -57.2
 2.620  0.4868 -171.4   1.523   56.3  0.1671    7.6  0.6623  -57.5
 2.640  0.4855 -172.6   1.514   55.6  0.1672    7.2  0.6612  -57.8
 2.660  0.4845 -173.8   1.504   55.0  0.1672    6.9  0.6602  -58.1
 2.680  0.4838 -175.0   1.495   54.3  0.1673    6.6  0.6591  -58.4
 2.700  0.4832 -176.3   1.486   53.6  0.1673    6.2  0.6581  -58.7
 2.720  0.4829 -177.5   1.477   52.8  0.1674    5.9  0.6571  -59.0
 2.740  0.4827 -178.7   1.469   52.1  0.1675    5.6  0.6561  -59.3
 2.760  0.4828 -180.0   1.461   51.4  0.1675    5.3  0.6552  -59.6
 2.780  0.4832  178.8   1.453   50.6  0.1676    4.9  0.6542  -59.9
 2.800  0.4837  177.6   1.445   49.9  0.1677    4.6  0.6533  -60.2
 2.820  0.4831  176.4   1.438   49.3  0.1674    4.3  0.6514  -60.5
 2.840  0.4828  175.2   1.431   48.6  0.1670    4.1  0.6496  -60.8
 2.860  0.4826  174.0   1.424   48.0  0.1667    3.8  0.6478  -61.1
 2.880  0.4827  172.8   1.418   47.4  0.1664    3.5  0.6460  -61.4
 2.900  0.4830  171.6   1.411   46.7  0.1661    3.3  0.6442  -61.7
 2.920  0.4835  170.4   1.405   46.1  0.1657    3.0  0.6424  -62.0
 2.940  0.4842  169.2   1.399   45.4  0.1654    2.7  0.6406  -62.4
 2.960  0.4851  168.0   1.393   44.7  0.1651    2.4  0.6389  -62.7
 2.980  0.4863  166.8   1.387   44.1  0.1648    2.2  0.6372  -63.0
 3.000  0.4876  165.6   1.382   43.4  0.1645    1.9  0.6355  -63.3
 3.100  0.4857  160.5   1.340   40.8  0.1636    0.9  0.6311  -64.8
 3.200  0.4878  155.3   1.301   38.0  0.1628   -0.2  0.6272  -66.4
 3.300  0.4937  150.3   1.264   35.1  0.1621   -1.2  0.6238  -67.9
 3.400  0.5034  145.4   1.232   32.0  0.1614   -2.2  0.6208  -69.5
 3.500  0.5166  140.7   1.203   28.8  0.1607   -3.3  0.6183  -71.1
 3.600  0.5211  136.8   1.168   26.5  0.1589   -4.0  0.6140  -72.9
 3.700  0.5279  132.9   1.136   24.0  0.1571   -4.7  0.6103  -74.7
 3.800  0.5371  129.2   1.105   21.4  0.1553   -5.4  0.6072  -76.6
 3.900  0.5485  125.6   1.077   18.6  0.1535   -6.1  0.6048  -78.4
 4.000  0.5619  122.2   1.052   15.7  0.1518   -6.9  0.6030  -80.3
 4.100  0.5674  119.2   1.022   13.6  0.1501   -7.3  0.6008  -82.3
 4.200  0.5744  116.4   0.994   11.4  0.1484   -7.8  0.5994  -84.4
 4.300  0.5828  113.6   0.967    9.1  0.1467   -8.2  0.5988  -86.5
 4.400  0.5925  110.8   0.941    6.6  0.1451   -8.7  0.5990  -88.5
 4.500  0.6036  108.2   0.918    4.0  0.1434   -9.2  0.5999  -90.6
 4.600  0.6096  105.9   0.895    2.2  0.1418   -9.0  0.5973  -92.7
 4.700  0.6166  103.6   0.873    0.4  0.1402   -8.7  0.5956  -94.9
 4.800  0.6246  101.3   0.852   -1.5  0.1387   -8.4  0.5947  -97.0
 4.900  0.6335   99.1   0.832   -3.6  0.1371   -8.2  0.5946  -99.2
 5.000  0.6433   97.0   0.813   -5.7  0.1355   -7.9  0.5954 -101.3
 5.100  0.6482   95.2   0.793   -7.4  0.1355   -7.3  0.5953 -103.5
 5.200  0.6536   93.4   0.775   -9.1  0.1354   -6.8  0.5961 -105.6
 5.300  0.6597   91.7   0.757  -11.0  0.1354   -6.2  0.5976 -107.8
 5.400  0.6664   90.0   0.739  -12.9  0.1354   -5.7  0.6001 -109.9
 5.500  0.6737   88.3   0.723  -14.9  0.1354   -5.1  0.6033 -112.0
 5.600  0.6796   86.8   0.705  -16.4  0.1362   -4.7  0.6041 -114.3
 5.700  0.6860   85.3   0.688  -17.9  0.1371   -4.3  0.6058 -116.5
 5.800  0.6929   83.8   0.672  -19.6  0.1379   -3.9  0.6084 -118.7
 5.900  0.7002   82.3   0.655  -21.3  0.1387   -3.5  0.6119 -120.9
 6.000  0.7080   80.9   0.640  -23.1  0.1396   -3.1  0.6163 -123.1
!
!  f       NFmin   Gammaopt  rn/50
! GHz       dB    MAG  ANG    -
!
! noise parameter not available yet for this operation point!
!
! (c) 2016  Infineon Technologies AG, Munich
