! Infineon Technologies  Discrete & RF Semiconductors
! BFP181
! VCE = 0.50V,  IC =  90 mA
! Common Emitter S-Parameters:                            Jan 2016
# GHz  S  MA  R  50
!  f         S11            S21            S12            S22
! GHz     MAG   ANG      MAG   ANG      MAG   ANG      MAG   ANG
 0.010  0.9614   -1.0   3.118  179.6  0.0022   90.4  0.9982   -0.5
 0.015  0.9674   -1.5   3.146  179.4  0.0032   88.4  0.9947   -0.6
 0.020  0.9735   -1.9   3.174  179.2  0.0042   87.3  0.9913   -0.8
 0.025  0.9720   -2.3   3.169  178.7  0.0053   87.9  0.9920   -1.1
 0.030  0.9706   -2.6   3.165  178.3  0.0065   88.3  0.9928   -1.3
 0.035  0.9692   -3.0   3.161  177.8  0.0076   88.6  0.9936   -1.6
 0.040  0.9678   -3.4   3.157  177.3  0.0087   88.8  0.9944   -1.8
 0.045  0.9665   -3.7   3.153  176.9  0.0099   89.0  0.9952   -2.1
 0.050  0.9652   -4.1   3.150  176.4  0.0110   89.1  0.9960   -2.3
 0.055  0.9642   -4.6   3.145  176.0  0.0120   88.3  0.9958   -2.5
 0.060  0.9633   -5.0   3.139  175.7  0.0131   87.6  0.9957   -2.7
 0.065  0.9624   -5.5   3.134  175.3  0.0141   87.0  0.9955   -2.9
 0.070  0.9616   -5.9   3.129  174.9  0.0152   86.5  0.9954   -3.1
 0.075  0.9609   -6.4   3.124  174.6  0.0162   86.1  0.9952   -3.3
 0.080  0.9602   -6.9   3.120  174.2  0.0173   85.7  0.9951   -3.6
 0.085  0.9596   -7.3   3.115  173.8  0.0183   85.3  0.9950   -3.8
 0.090  0.9590   -7.8   3.111  173.4  0.0194   85.0  0.9949   -4.0
 0.095  0.9585   -8.2   3.106  173.1  0.0204   84.7  0.9949   -4.2
 0.100  0.9581   -8.7   3.102  172.7  0.0215   84.5  0.9948   -4.4
 0.105  0.9576   -9.1   3.105  172.3  0.0226   84.0  0.9943   -4.6
 0.110  0.9571   -9.5   3.107  171.9  0.0236   83.5  0.9938   -4.9
 0.115  0.9566  -10.0   3.110  171.6  0.0247   83.1  0.9933   -5.1
 0.120  0.9562  -10.4   3.114  171.2  0.0258   82.7  0.9928   -5.3
 0.125  0.9559  -10.8   3.117  170.8  0.0268   82.3  0.9923   -5.5
 0.130  0.9556  -11.2   3.120  170.4  0.0279   81.9  0.9918   -5.8
 0.135  0.9554  -11.6   3.124  170.0  0.0290   81.6  0.9914   -6.0
 0.140  0.9552  -12.1   3.127  169.7  0.0301   81.3  0.9910   -6.2
 0.145  0.9551  -12.5   3.131  169.3  0.0311   81.1  0.9906   -6.5
 0.150  0.9550  -12.9   3.135  168.9  0.0322   80.8  0.9902   -6.7
 0.155  0.9540  -13.3   3.131  168.5  0.0332   80.5  0.9897   -6.9
 0.160  0.9531  -13.7   3.128  168.2  0.0343   80.3  0.9893   -7.1
 0.165  0.9522  -14.1   3.124  167.8  0.0353   80.0  0.9889   -7.4
 0.170  0.9513  -14.5   3.121  167.4  0.0364   79.8  0.9885   -7.6
 0.175  0.9505  -14.9   3.117  167.1  0.0374   79.6  0.9881   -7.8
 0.180  0.9498  -15.3   3.114  166.7  0.0384   79.4  0.9877   -8.0
 0.185  0.9491  -15.7   3.111  166.3  0.0395   79.2  0.9873   -8.2
 0.190  0.9484  -16.1   3.108  165.9  0.0405   79.0  0.9870   -8.5
 0.195  0.9478  -16.5   3.106  165.6  0.0416   78.9  0.9866   -8.7
 0.200  0.9472  -16.9   3.103  165.2  0.0426   78.7  0.9863   -8.9
 0.220  0.9456  -18.6   3.087  163.7  0.0468   77.3  0.9836   -9.8
 0.240  0.9448  -20.3   3.073  162.2  0.0510   76.2  0.9811  -10.7
 0.260  0.9419  -22.1   3.068  160.9  0.0552   75.0  0.9786  -11.5
 0.280  0.9370  -23.9   3.073  159.6  0.0594   73.8  0.9759  -12.4
 0.300  0.9331  -25.7   3.078  158.4  0.0636   72.8  0.9735  -13.3
 0.320  0.9274  -27.2   3.060  156.9  0.0673   71.5  0.9696  -14.1
 0.340  0.9224  -28.8   3.044  155.3  0.0710   70.3  0.9660  -15.0
 0.360  0.9180  -30.3   3.031  153.8  0.0747   69.2  0.9626  -15.8
 0.380  0.9144  -31.9   3.020  152.2  0.0785   68.3  0.9593  -16.6
 0.400  0.9114  -33.5   3.011  150.6  0.0823   67.4  0.9563  -17.5
 0.420  0.9038  -35.1   2.986  149.2  0.0857   66.1  0.9517  -18.3
 0.440  0.8970  -36.8   2.963  147.8  0.0891   64.9  0.9473  -19.0
 0.450  0.8938  -37.6   2.952  147.1  0.0908   64.4  0.9452  -19.4
 0.460  0.8908  -38.4   2.941  146.4  0.0926   63.9  0.9431  -19.8
 0.480  0.8855  -40.1   2.922  145.0  0.0961   62.8  0.9390  -20.6
 0.500  0.8809  -41.8   2.904  143.5  0.0996   61.9  0.9351  -21.4
 0.520  0.8740  -43.3   2.890  142.2  0.1028   60.7  0.9303  -22.1
 0.540  0.8677  -44.9   2.877  141.0  0.1060   59.6  0.9257  -22.9
 0.560  0.8620  -46.4   2.866  139.7  0.1093   58.6  0.9212  -23.7
 0.580  0.8570  -48.0   2.856  138.4  0.1126   57.6  0.9169  -24.4
 0.600  0.8527  -49.6   2.848  137.1  0.1159   56.7  0.9128  -25.2
 0.620  0.8453  -51.1   2.823  135.9  0.1187   55.7  0.9073  -25.9
 0.640  0.8384  -52.6   2.798  134.6  0.1215   54.7  0.9020  -26.6
 0.660  0.8322  -54.2   2.776  133.4  0.1243   53.8  0.8968  -27.3
 0.680  0.8265  -55.7   2.754  132.1  0.1272   52.9  0.8918  -28.1
 0.700  0.8215  -57.3   2.734  130.8  0.1301   52.0  0.8869  -28.8
 0.720  0.8127  -58.8   2.718  129.6  0.1324   51.1  0.8813  -29.4
 0.740  0.8045  -60.3   2.704  128.4  0.1348   50.1  0.8759  -30.1
 0.760  0.7968  -61.8   2.691  127.1  0.1372   49.3  0.8706  -30.7
 0.780  0.7897  -63.3   2.679  125.9  0.1396   48.4  0.8653  -31.3
 0.800  0.7832  -64.9   2.669  124.6  0.1421   47.6  0.8602  -32.0
 0.820  0.7765  -66.3   2.643  123.5  0.1442   46.6  0.8549  -32.6
 0.840  0.7702  -67.7   2.619  122.3  0.1464   45.7  0.8497  -33.2
 0.860  0.7644  -69.2   2.595  121.2  0.1486   44.8  0.8445  -33.8
 0.880  0.7591  -70.6   2.572  120.0  0.1509   43.9  0.8395  -34.5
 0.900  0.7543  -72.1   2.551  118.8  0.1532   43.0  0.8346  -35.1
 0.920  0.7469  -73.5   2.528  117.8  0.1550   42.2  0.8295  -35.6
 0.940  0.7400  -74.9   2.506  116.7  0.1568   41.4  0.8245  -36.2
 0.960  0.7335  -76.3   2.485  115.6  0.1587   40.7  0.8196  -36.8
 0.980  0.7275  -77.8   2.464  114.5  0.1606   39.9  0.8148  -37.3
 1.000  0.7220  -79.3   2.445  113.4  0.1625   39.2  0.8100  -37.9
 1.020  0.7153  -80.7   2.428  112.3  0.1642   38.4  0.8051  -38.4
 1.040  0.7090  -82.2   2.412  111.2  0.1659   37.6  0.8003  -38.9
 1.060  0.7032  -83.7   2.397  110.1  0.1676   36.9  0.7956  -39.4
 1.080  0.6978  -85.2   2.383  108.9  0.1693   36.1  0.7909  -40.0
 1.100  0.6930  -86.7   2.370  107.8  0.1711   35.4  0.7863  -40.5
 1.120  0.6864  -88.0   2.349  106.9  0.1726   34.6  0.7818  -41.0
 1.140  0.6801  -89.3   2.328  105.9  0.1740   33.8  0.7774  -41.6
 1.160  0.6742  -90.6   2.309  105.0  0.1756   33.0  0.7731  -42.2
 1.180  0.6686  -91.9   2.289  104.0  0.1771   32.2  0.7689  -42.7
 1.200  0.6634  -93.3   2.271  103.0  0.1787   31.4  0.7647  -43.3
 1.220  0.6570  -94.7   2.253  102.0  0.1797   30.8  0.7600  -43.7
 1.240  0.6511  -96.2   2.236  101.0  0.1808   30.2  0.7553  -44.1
 1.260  0.6456  -97.7   2.220  100.0  0.1819   29.6  0.7507  -44.5
 1.280  0.6406  -99.3   2.204   99.0  0.1830   29.0  0.7461  -45.0
 1.300  0.6360 -100.8   2.189   98.0  0.1841   28.4  0.7415  -45.4
 1.320  0.6293 -102.0   2.171   97.1  0.1851   27.7  0.7370  -45.9
 1.340  0.6228 -103.3   2.154   96.2  0.1861   27.1  0.7326  -46.3
 1.360  0.6167 -104.6   2.138   95.2  0.1871   26.5  0.7283  -46.8
 1.380  0.6109 -105.9   2.122   94.3  0.1881   25.8  0.7240  -47.3
 1.400  0.6054 -107.3   2.107   93.3  0.1892   25.2  0.7197  -47.8
 1.420  0.6006 -108.9   2.095   92.4  0.1895   24.7  0.7147  -48.1
 1.440  0.5963 -110.4   2.083   91.4  0.1899   24.2  0.7097  -48.5
 1.460  0.5924 -112.0   2.072   90.5  0.1902   23.7  0.7047  -48.8
 1.480  0.5889 -113.7   2.061   89.5  0.1906   23.2  0.6997  -49.2
 1.500  0.5860 -115.3   2.051   88.5  0.1910   22.7  0.6948  -49.5
 1.520  0.5810 -116.6   2.033   87.7  0.1918   22.2  0.6919  -49.8
 1.540  0.5762 -117.8   2.014   86.8  0.1927   21.6  0.6890  -50.2
 1.560  0.5718 -119.1   1.997   86.0  0.1935   21.1  0.6861  -50.5
 1.580  0.5676 -120.5   1.980   85.1  0.1944   20.6  0.6832  -50.9
 1.600  0.5638 -121.8   1.963   84.2  0.1953   20.1  0.6804  -51.2
 1.620  0.5596 -123.1   1.949   83.4  0.1956   19.6  0.6759  -51.6
 1.640  0.5556 -124.5   1.935   82.6  0.1959   19.0  0.6714  -52.0
 1.660  0.5520 -125.9   1.921   81.8  0.1962   18.5  0.6670  -52.4
 1.680  0.5488 -127.3   1.908   80.9  0.1965   17.9  0.6626  -52.9
 1.700  0.5458 -128.7   1.895   80.1  0.1969   17.4  0.6582  -53.3
 1.720  0.5415 -130.1   1.880   79.2  0.1974   17.0  0.6554  -53.6
 1.740  0.5376 -131.5   1.866   78.3  0.1980   16.6  0.6527  -53.9
 1.760  0.5340 -132.9   1.853   77.4  0.1985   16.3  0.6499  -54.1
 1.780  0.5307 -134.3   1.840   76.5  0.1990   15.9  0.6472  -54.4
 1.800  0.5278 -135.8   1.827   75.6  0.1996   15.5  0.6445  -54.7
 1.820  0.5255 -137.2   1.815   74.9  0.1998   15.0  0.6410  -55.1
 1.840  0.5235 -138.6   1.803   74.1  0.2001   14.4  0.6376  -55.4
 1.860  0.5219 -140.0   1.792   73.4  0.2004   13.9  0.6342  -55.8
 1.880  0.5205 -141.4   1.781   72.7  0.2007   13.3  0.6308  -56.2
 1.900  0.5195 -142.8   1.770   71.9  0.2010   12.8  0.6274  -56.6
 1.920  0.5152 -144.1   1.756   71.1  0.2013   12.5  0.6250  -56.8
 1.940  0.5111 -145.4   1.742   70.3  0.2017   12.2  0.6226  -57.1
 1.960  0.5074 -146.8   1.729   69.5  0.2021   11.9  0.6202  -57.3
 1.980  0.5039 -148.1   1.716   68.6  0.2024   11.6  0.6179  -57.6
 2.000  0.5007 -149.5   1.703   67.8  0.2028   11.3  0.6155  -57.8
 2.020  0.4981 -150.8   1.691   67.1  0.2027   10.9  0.6126  -58.1
 2.040  0.4957 -152.0   1.678   66.4  0.2027   10.4  0.6096  -58.5
 2.060  0.4936 -153.3   1.666   65.6  0.2027   10.0  0.6067  -58.8
 2.080  0.4917 -154.6   1.655   64.9  0.2027    9.6  0.6039  -59.2
 2.100  0.4901 -156.0   1.643   64.1  0.2027    9.2  0.6010  -59.6
 2.120  0.4887 -157.3   1.632   63.4  0.2027    8.7  0.5982  -59.9
 2.140  0.4876 -158.6   1.622   62.6  0.2027    8.3  0.5954  -60.3
 2.160  0.4868 -159.9   1.611   61.8  0.2027    7.9  0.5926  -60.7
 2.180  0.4862 -161.3   1.601   61.0  0.2027    7.4  0.5898  -61.0
 2.200  0.4859 -162.6   1.591   60.2  0.2028    7.0  0.5871  -61.4
 2.220  0.4844 -163.9   1.581   59.6  0.2029    6.6  0.5850  -61.7
 2.240  0.4832 -165.1   1.570   58.9  0.2030    6.2  0.5830  -62.0
 2.260  0.4822 -166.4   1.560   58.3  0.2031    5.8  0.5810  -62.3
 2.280  0.4814 -167.6   1.550   57.6  0.2032    5.4  0.5790  -62.7
 2.300  0.4808 -168.9   1.541   57.0  0.2033    5.0  0.5770  -63.0
 2.320  0.4805 -170.2   1.531   56.3  0.2034    4.7  0.5750  -63.3
 2.340  0.4805 -171.5   1.522   55.6  0.2035    4.3  0.5730  -63.6
 2.360  0.4806 -172.8   1.513   54.9  0.2037    3.9  0.5711  -63.9
 2.380  0.4810 -174.0   1.505   54.2  0.2038    3.5  0.5692  -64.3
 2.400  0.4817 -175.3   1.496   53.5  0.2040    3.1  0.5673  -64.6
 2.420  0.4809 -176.5   1.486   52.9  0.2036    2.9  0.5647  -64.9
 2.440  0.4803 -177.7   1.476   52.2  0.2031    2.6  0.5622  -65.1
 2.460  0.4799 -179.0   1.466   51.6  0.2027    2.4  0.5596  -65.4
 2.480  0.4798  179.8   1.456   51.0  0.2023    2.1  0.5571  -65.7
 2.500  0.4799  178.6   1.447   50.3  0.2019    1.9  0.5545  -66.0
 2.520  0.4802  177.4   1.437   49.6  0.2015    1.6  0.5520  -66.2
 2.540  0.4807  176.1   1.428   49.0  0.2011    1.4  0.5495  -66.5
 2.560  0.4814  174.9   1.419   48.3  0.2007    1.1  0.5470  -66.8
 2.580  0.4823  173.7   1.411   47.6  0.2003    0.9  0.5446  -67.1
 2.600  0.4835  172.5   1.402   46.9  0.1999    0.6  0.5421  -67.4
 2.620  0.4833  171.4   1.393   46.2  0.1999    0.3  0.5411  -67.7
 2.640  0.4833  170.3   1.384   45.6  0.2000   -0.0  0.5401  -68.0
 2.660  0.4835  169.2   1.375   44.9  0.2000   -0.3  0.5391  -68.3
 2.680  0.4838  168.2   1.367   44.2  0.2001   -0.6  0.5382  -68.7
 2.700  0.4843  167.1   1.359   43.6  0.2001   -0.9  0.5372  -69.0
 2.720  0.4850  166.0   1.350   42.9  0.2002   -1.2  0.5363  -69.3
 2.740  0.4858  164.9   1.343   42.2  0.2003   -1.5  0.5354  -69.6
 2.760  0.4868  163.8   1.335   41.4  0.2003   -1.8  0.5345  -70.0
 2.780  0.4880  162.8   1.327   40.7  0.2004   -2.1  0.5337  -70.3
 2.800  0.4894  161.7   1.320   40.0  0.2005   -2.4  0.5328  -70.6
 2.820  0.4897  160.6   1.313   39.4  0.2001   -2.7  0.5309  -70.9
 2.840  0.4901  159.6   1.306   38.8  0.1997   -3.0  0.5289  -71.2
 2.860  0.4907  158.5   1.299   38.2  0.1993   -3.3  0.5270  -71.6
 2.880  0.4914  157.4   1.292   37.6  0.1989   -3.5  0.5251  -71.9
 2.900  0.4924  156.3   1.286   37.0  0.1985   -3.8  0.5232  -72.2
 2.920  0.4935  155.3   1.279   36.4  0.1981   -4.1  0.5214  -72.6
 2.940  0.4948  154.2   1.273   35.7  0.1977   -4.4  0.5195  -72.9
 2.960  0.4962  153.2   1.267   35.1  0.1973   -4.7  0.5177  -73.2
 2.980  0.4978  152.1   1.261   34.4  0.1970   -5.0  0.5159  -73.6
 3.000  0.4996  151.1   1.255   33.8  0.1966   -5.3  0.5141  -73.9
 3.100  0.5019  146.6   1.215   31.3  0.1958   -6.2  0.5103  -75.5
 3.200  0.5072  142.2   1.178   28.7  0.1950   -7.1  0.5069  -77.2
 3.300  0.5154  137.9   1.143   25.8  0.1942   -8.0  0.5039  -78.9
 3.400  0.5264  133.8   1.112   22.9  0.1935   -9.0  0.5014  -80.6
 3.500  0.5401  129.8   1.083   19.7  0.1929   -9.9  0.4993  -82.3
 3.600  0.5455  126.5   1.052   17.5  0.1908  -10.7  0.4952  -84.3
 3.700  0.5526  123.2   1.023   15.1  0.1887  -11.5  0.4917  -86.4
 3.800  0.5615  120.1   0.996   12.7  0.1866  -12.4  0.4889  -88.5
 3.900  0.5720  117.0   0.970   10.0  0.1846  -13.2  0.4867  -90.6
 4.000  0.5841  114.1   0.947    7.3  0.1826  -14.1  0.4852  -92.7
 4.100  0.5900  111.5   0.921    5.3  0.1806  -14.8  0.4841  -95.0
 4.200  0.5971  109.0   0.896    3.2  0.1786  -15.5  0.4838  -97.2
 4.300  0.6053  106.5   0.873    0.9  0.1767  -16.2  0.4843  -99.5
 4.400  0.6146  104.1   0.851   -1.4  0.1748  -16.9  0.4855 -101.8
 4.500  0.6249  101.8   0.830   -3.9  0.1729  -17.7  0.4874 -104.0
 4.600  0.6306   99.8   0.808   -5.6  0.1708  -17.8  0.4863 -106.3
 4.700  0.6370   97.9   0.788   -7.4  0.1686  -17.9  0.4860 -108.6
 4.800  0.6441   96.0   0.767   -9.2  0.1665  -17.9  0.4865 -110.9
 4.900  0.6519   94.1   0.748  -11.2  0.1643  -18.0  0.4878 -113.2
 5.000  0.6604   92.3   0.730  -13.3  0.1622  -18.1  0.4899 -115.5
 5.100  0.6651   90.7   0.714  -14.9  0.1616  -17.7  0.4913 -117.8
 5.200  0.6703   89.2   0.698  -16.6  0.1611  -17.4  0.4935 -120.1
 5.300  0.6759   87.7   0.682  -18.4  0.1605  -17.0  0.4964 -122.4
 5.400  0.6820   86.2   0.668  -20.3  0.1599  -16.7  0.5002 -124.7
 5.500  0.6886   84.7   0.654  -22.2  0.1594  -16.3  0.5047 -126.9
 5.600  0.6938   83.3   0.639  -23.5  0.1596  -16.1  0.5068 -129.3
 5.700  0.6995   81.9   0.625  -25.0  0.1598  -15.9  0.5098 -131.6
 5.800  0.7056   80.5   0.611  -26.4  0.1600  -15.7  0.5136 -133.9
 5.900  0.7120   79.1   0.597  -28.0  0.1602  -15.5  0.5183 -136.2
 6.000  0.7189   77.8   0.584  -29.6  0.1604  -15.3  0.5237 -138.4
!
!  f       NFmin   Gammaopt  rn/50
! GHz       dB    MAG  ANG    -
!
! noise parameter not available yet for this operation point!
!
! (c) 2016  Infineon Technologies AG, Munich
