! Infineon Technologies  Discrete & RF Semiconductors
! BFP183
! VCE = 1.0 V,  IC =  2.0 mA
! Common Emitter S-Parameters:                            Jan 2016
# GHz  S  MA  R  50
!  f         S11            S21            S12            S22
! GHz     MAG   ANG      MAG   ANG      MAG   ANG      MAG   ANG
 0.010  0.9160   -1.9   6.827  179.0  0.0027   87.6  0.9975   -0.9
 0.015  0.9168   -3.1   6.825  178.4  0.0040   85.0  0.9973   -1.3
 0.020  0.9180   -4.2   6.823  177.8  0.0054   83.7  0.9971   -1.8
 0.025  0.9147   -5.3   6.821  177.0  0.0069   84.4  0.9960   -2.2
 0.030  0.9117   -6.3   6.820  176.2  0.0084   84.8  0.9949   -2.7
 0.035  0.9090   -7.4   6.821  175.4  0.0098   85.1  0.9939   -3.1
 0.040  0.9067   -8.4   6.823  174.6  0.0113   85.3  0.9929   -3.5
 0.045  0.9046   -9.5   6.826  173.8  0.0128   85.5  0.9920   -4.0
 0.050  0.9029  -10.6   6.831  173.0  0.0143   85.6  0.9912   -4.4
 0.055  0.9009  -11.6   6.812  172.3  0.0156   84.3  0.9896   -4.8
 0.060  0.8991  -12.7   6.794  171.6  0.0170   83.1  0.9881   -5.3
 0.065  0.8977  -13.7   6.777  171.0  0.0183   82.2  0.9867   -5.7
 0.070  0.8965  -14.7   6.760  170.3  0.0197   81.4  0.9853   -6.1
 0.075  0.8956  -15.8   6.745  169.6  0.0210   80.6  0.9840   -6.5
 0.080  0.8951  -16.8   6.731  168.9  0.0224   80.0  0.9827   -7.0
 0.085  0.8948  -17.9   6.718  168.2  0.0237   79.5  0.9814   -7.4
 0.090  0.8948  -18.9   6.706  167.5  0.0251   79.0  0.9803   -7.8
 0.095  0.8952  -20.0   6.694  166.8  0.0264   78.5  0.9792   -8.3
 0.100  0.8958  -21.0   6.684  166.1  0.0278   78.1  0.9781   -8.7
 0.105  0.8934  -22.0   6.664  165.4  0.0291   77.3  0.9763   -9.1
 0.110  0.8914  -23.0   6.645  164.8  0.0304   76.5  0.9746   -9.5
 0.115  0.8896  -24.1   6.627  164.1  0.0317   75.8  0.9729  -10.0
 0.120  0.8881  -25.1   6.610  163.4  0.0331   75.2  0.9712  -10.4
 0.125  0.8869  -26.1   6.594  162.7  0.0344   74.6  0.9697  -10.8
 0.130  0.8859  -27.2   6.579  162.1  0.0357   74.0  0.9681  -11.3
 0.135  0.8853  -28.2   6.565  161.4  0.0371   73.5  0.9667  -11.7
 0.140  0.8849  -29.2   6.552  160.7  0.0384   73.1  0.9653  -12.1
 0.145  0.8849  -30.3   6.539  160.0  0.0398   72.6  0.9639  -12.6
 0.150  0.8851  -31.3   6.528  159.3  0.0411   72.2  0.9626  -13.0
 0.155  0.8821  -32.3   6.513  158.6  0.0423   71.5  0.9601  -13.4
 0.160  0.8793  -33.3   6.499  158.0  0.0434   70.9  0.9576  -13.8
 0.165  0.8768  -34.3   6.486  157.3  0.0446   70.2  0.9552  -14.2
 0.170  0.8746  -35.2   6.474  156.6  0.0458   69.7  0.9528  -14.6
 0.175  0.8726  -36.2   6.463  156.0  0.0469   69.1  0.9505  -15.0
 0.180  0.8709  -37.3   6.453  155.3  0.0481   68.6  0.9482  -15.4
 0.185  0.8695  -38.3   6.443  154.6  0.0493   68.1  0.9460  -15.8
 0.190  0.8683  -39.3   6.434  154.0  0.0505   67.6  0.9438  -16.2
 0.195  0.8674  -40.3   6.427  153.3  0.0517   67.1  0.9417  -16.6
 0.200  0.8668  -41.3   6.420  152.6  0.0529   66.7  0.9396  -17.0
 0.220  0.8591  -45.0   6.304  150.2  0.0571   64.5  0.9284  -18.5
 0.240  0.8551  -48.8   6.200  147.7  0.0613   62.6  0.9178  -19.9
 0.260  0.8492  -52.4   6.100  145.4  0.0654   60.7  0.9062  -21.3
 0.280  0.8411  -55.9   6.002  143.2  0.0692   58.8  0.8935  -22.4
 0.300  0.8361  -59.5   5.913  141.0  0.0731   57.1  0.8812  -23.6
 0.320  0.8207  -62.7   5.798  138.9  0.0761   55.1  0.8690  -24.7
 0.340  0.8079  -66.0   5.691  136.7  0.0792   53.3  0.8572  -25.7
 0.360  0.7979  -69.5   5.593  134.5  0.0823   51.5  0.8456  -26.9
 0.380  0.7909  -73.0   5.504  132.1  0.0855   50.0  0.8344  -28.0
 0.400  0.7868  -76.5   5.424  129.7  0.0888   48.5  0.8235  -29.2
 0.420  0.7756  -79.4   5.306  128.0  0.0909   46.9  0.8113  -30.1
 0.440  0.7664  -82.3   5.193  126.2  0.0931   45.4  0.7993  -31.0
 0.450  0.7625  -83.8   5.139  125.3  0.0942   44.6  0.7933  -31.4
 0.460  0.7592  -85.3   5.086  124.4  0.0953   43.9  0.7874  -31.9
 0.480  0.7542  -88.4   4.983  122.5  0.0976   42.5  0.7758  -32.8
 0.500  0.7514  -91.5   4.887  120.5  0.0999   41.2  0.7644  -33.8
 0.520  0.7430  -94.0   4.790  119.1  0.1014   40.0  0.7542  -34.4
 0.540  0.7359  -96.5   4.697  117.6  0.1029   38.8  0.7440  -35.1
 0.560  0.7303  -99.0   4.607  116.0  0.1045   37.7  0.7340  -35.8
 0.580  0.7262 -101.6   4.520  114.4  0.1061   36.6  0.7240  -36.5
 0.600  0.7235 -104.2   4.437  112.7  0.1077   35.5  0.7142  -37.2
 0.620  0.7162 -106.5   4.344  111.4  0.1087   34.5  0.7059  -37.7
 0.640  0.7100 -108.8   4.254  110.1  0.1098   33.5  0.6977  -38.2
 0.660  0.7049 -111.1   4.166  108.7  0.1109   32.5  0.6895  -38.7
 0.680  0.7011 -113.5   4.080  107.3  0.1120   31.5  0.6814  -39.3
 0.700  0.6985 -115.9   3.997  105.8  0.1132   30.6  0.6734  -39.8
 0.720  0.6923 -117.9   3.929  104.6  0.1140   29.7  0.6663  -40.2
 0.740  0.6870 -120.0   3.863  103.4  0.1148   28.8  0.6592  -40.7
 0.760  0.6826 -122.1   3.799  102.1  0.1156   28.0  0.6522  -41.2
 0.780  0.6791 -124.2   3.737  100.8  0.1165   27.1  0.6452  -41.6
 0.800  0.6765 -126.3   3.677   99.4  0.1174   26.3  0.6382  -42.1
 0.820  0.6721 -128.2   3.616   98.4  0.1180   25.6  0.6322  -42.5
 0.840  0.6685 -130.1   3.555   97.3  0.1185   24.9  0.6262  -42.8
 0.860  0.6657 -132.0   3.497   96.2  0.1191   24.2  0.6202  -43.2
 0.880  0.6635 -134.0   3.439   95.0  0.1198   23.6  0.6142  -43.6
 0.900  0.6622 -135.9   3.383   93.8  0.1204   22.9  0.6083  -44.0
 0.920  0.6597 -137.7   3.325   92.8  0.1205   22.3  0.6030  -44.4
 0.940  0.6579 -139.5   3.268   91.8  0.1206   21.7  0.5977  -44.7
 0.960  0.6568 -141.3   3.212   90.7  0.1208   21.1  0.5924  -45.1
 0.980  0.6563 -143.1   3.158   89.6  0.1209   20.5  0.5872  -45.5
 1.000  0.6564 -144.9   3.104   88.5  0.1211   19.9  0.5820  -45.9
 1.020  0.6535 -146.4   3.059   87.5  0.1214   19.4  0.5781  -46.2
 1.040  0.6511 -148.0   3.014   86.5  0.1217   18.9  0.5743  -46.5
 1.060  0.6491 -149.5   2.971   85.5  0.1221   18.3  0.5704  -46.8
 1.080  0.6476 -151.0   2.928   84.5  0.1224   17.8  0.5666  -47.2
 1.100  0.6466 -152.6   2.887   83.4  0.1228   17.3  0.5628  -47.5
 1.120  0.6445 -154.0   2.843   82.6  0.1229   16.8  0.5597  -47.9
 1.140  0.6428 -155.4   2.799   81.8  0.1229   16.3  0.5565  -48.2
 1.160  0.6415 -156.8   2.756   81.0  0.1230   15.7  0.5534  -48.6
 1.180  0.6405 -158.3   2.714   80.2  0.1231   15.2  0.5504  -48.9
 1.200  0.6400 -159.7   2.672   79.3  0.1232   14.7  0.5473  -49.3
 1.220  0.6392 -161.0   2.634   78.5  0.1232   14.4  0.5442  -49.6
 1.240  0.6388 -162.3   2.596   77.7  0.1231   14.0  0.5411  -49.9
 1.260  0.6387 -163.6   2.558   76.9  0.1231   13.7  0.5381  -50.1
 1.280  0.6389 -164.9   2.521   76.0  0.1230   13.3  0.5350  -50.4
 1.300  0.6394 -166.2   2.485   75.1  0.1230   13.0  0.5320  -50.7
 1.320  0.6377 -167.5   2.454   74.3  0.1229   12.6  0.5298  -51.0
 1.340  0.6364 -168.7   2.423   73.6  0.1229   12.2  0.5276  -51.3
 1.360  0.6354 -170.0   2.393   72.8  0.1228   11.9  0.5254  -51.7
 1.380  0.6347 -171.3   2.363   71.9  0.1227   11.5  0.5232  -52.0
 1.400  0.6343 -172.6   2.334   71.1  0.1227   11.1  0.5211  -52.3
 1.420  0.6349 -173.7   2.306   70.3  0.1224   10.9  0.5187  -52.6
 1.440  0.6357 -174.9   2.279   69.5  0.1222   10.7  0.5163  -52.8
 1.460  0.6368 -176.0   2.252   68.7  0.1219   10.5  0.5139  -53.1
 1.480  0.6382 -177.2   2.226   67.9  0.1217   10.3  0.5116  -53.3
 1.500  0.6398 -178.3   2.200   67.0  0.1214   10.1  0.5092  -53.6
 1.520  0.6398 -179.4   2.175   66.3  0.1214    9.9  0.5078  -53.9
 1.540  0.6400  179.4   2.150   65.6  0.1214    9.7  0.5064  -54.1
 1.560  0.6405  178.3   2.126   64.8  0.1215    9.4  0.5050  -54.4
 1.580  0.6412  177.1   2.102   64.1  0.1215    9.2  0.5036  -54.6
 1.600  0.6422  176.0   2.078   63.3  0.1215    9.0  0.5022  -54.9
 1.620  0.6418  174.9   2.055   62.6  0.1212    8.8  0.5001  -55.3
 1.640  0.6417  173.9   2.032   62.0  0.1209    8.6  0.4980  -55.7
 1.660  0.6418  172.8   2.010   61.3  0.1206    8.4  0.4959  -56.1
 1.680  0.6421  171.8   1.988   60.6  0.1203    8.2  0.4939  -56.5
 1.700  0.6426  170.7   1.966   59.9  0.1200    8.0  0.4919  -56.9
 1.720  0.6433  169.7   1.945   59.2  0.1198    7.9  0.4901  -57.2
 1.740  0.6442  168.7   1.925   58.5  0.1196    7.8  0.4883  -57.5
 1.760  0.6453  167.7   1.904   57.7  0.1195    7.8  0.4865  -57.7
 1.780  0.6466  166.8   1.885   57.0  0.1193    7.7  0.4848  -58.0
 1.800  0.6481  165.8   1.865   56.2  0.1191    7.6  0.4830  -58.3
 1.820  0.6477  164.9   1.846   55.6  0.1188    7.4  0.4818  -58.7
 1.840  0.6474  163.9   1.827   55.0  0.1185    7.2  0.4806  -59.0
 1.860  0.6473  163.0   1.809   54.3  0.1183    6.9  0.4794  -59.4
 1.880  0.6474  162.0   1.790   53.7  0.1180    6.7  0.4782  -59.7
 1.900  0.6476  161.1   1.772   53.0  0.1177    6.5  0.4771  -60.1
 1.920  0.6481  160.2   1.753   52.4  0.1176    6.5  0.4762  -60.4
 1.940  0.6488  159.3   1.735   51.8  0.1174    6.5  0.4752  -60.7
 1.960  0.6496  158.4   1.717   51.1  0.1173    6.4  0.4743  -61.0
 1.980  0.6506  157.5   1.699   50.5  0.1171    6.4  0.4734  -61.3
 2.000  0.6518  156.6   1.681   49.8  0.1170    6.4  0.4725  -61.6
 2.020  0.6525  155.8   1.665   49.2  0.1168    6.3  0.4717  -62.0
 2.040  0.6534  154.9   1.650   48.6  0.1166    6.2  0.4708  -62.4
 2.060  0.6544  154.1   1.634   48.0  0.1163    6.1  0.4700  -62.8
 2.080  0.6556  153.2   1.619   47.4  0.1161    6.0  0.4692  -63.1
 2.100  0.6569  152.4   1.604   46.7  0.1159    6.0  0.4685  -63.5
 2.120  0.6583  151.6   1.589   46.1  0.1157    5.9  0.4677  -63.9
 2.140  0.6599  150.8   1.575   45.4  0.1155    5.8  0.4670  -64.3
 2.160  0.6616  149.9   1.560   44.8  0.1152    5.7  0.4663  -64.7
 2.180  0.6634  149.1   1.546   44.1  0.1150    5.6  0.4657  -65.1
 2.200  0.6654  148.3   1.532   43.4  0.1148    5.5  0.4650  -65.5
 2.220  0.6660  147.5   1.519   42.9  0.1146    5.5  0.4641  -65.9
 2.240  0.6667  146.7   1.506   42.3  0.1143    5.5  0.4633  -66.3
 2.260  0.6675  146.0   1.493   41.7  0.1141    5.5  0.4624  -66.7
 2.280  0.6684  145.2   1.481   41.2  0.1139    5.5  0.4616  -67.1
 2.300  0.6695  144.4   1.469   40.6  0.1136    5.5  0.4608  -67.5
 2.320  0.6707  143.6   1.456   40.0  0.1134    5.6  0.4600  -67.9
 2.340  0.6720  142.9   1.444   39.4  0.1132    5.6  0.4593  -68.4
 2.360  0.6734  142.1   1.432   38.8  0.1130    5.6  0.4586  -68.8
 2.380  0.6749  141.4   1.421   38.1  0.1127    5.6  0.4579  -69.2
 2.400  0.6766  140.6   1.409   37.5  0.1125    5.6  0.4572  -69.6
 2.420  0.6777  139.9   1.397   37.0  0.1123    5.7  0.4565  -70.0
 2.440  0.6790  139.2   1.385   36.5  0.1121    5.7  0.4558  -70.4
 2.460  0.6803  138.5   1.374   35.9  0.1119    5.8  0.4551  -70.8
 2.480  0.6818  137.8   1.362   35.4  0.1117    5.8  0.4545  -71.2
 2.500  0.6833  137.2   1.351   34.9  0.1115    5.9  0.4539  -71.6
 2.520  0.6849  136.5   1.340   34.3  0.1113    6.0  0.4533  -72.0
 2.540  0.6867  135.8   1.329   33.7  0.1111    6.0  0.4527  -72.4
 2.560  0.6885  135.1   1.318   33.2  0.1109    6.1  0.4521  -72.8
 2.580  0.6904  134.5   1.307   32.6  0.1107    6.1  0.4516  -73.2
 2.600  0.6924  133.8   1.296   32.0  0.1105    6.2  0.4511  -73.6
 2.620  0.6931  133.1   1.286   31.5  0.1104    6.3  0.4505  -74.0
 2.640  0.6939  132.4   1.277   30.9  0.1104    6.4  0.4500  -74.5
 2.660  0.6948  131.8   1.267   30.3  0.1103    6.5  0.4495  -74.9
 2.680  0.6958  131.1   1.258   29.8  0.1102    6.6  0.4490  -75.3
 2.700  0.6969  130.4   1.248   29.2  0.1101    6.7  0.4485  -75.8
 2.720  0.6980  129.8   1.239   28.6  0.1101    6.9  0.4481  -76.2
 2.740  0.6993  129.1   1.230   28.0  0.1100    7.0  0.4477  -76.7
 2.760  0.7007  128.4   1.221   27.4  0.1099    7.1  0.4473  -77.1
 2.780  0.7021  127.8   1.213   26.8  0.1099    7.2  0.4469  -77.6
 2.800  0.7037  127.1   1.204   26.2  0.1098    7.3  0.4466  -78.0
 2.820  0.7047  126.5   1.195   25.7  0.1097    7.4  0.4462  -78.5
 2.840  0.7059  125.9   1.186   25.3  0.1097    7.5  0.4459  -79.0
 2.860  0.7070  125.3   1.177   24.8  0.1096    7.5  0.4456  -79.4
 2.880  0.7083  124.7   1.168   24.3  0.1095    7.6  0.4454  -79.9
 2.900  0.7097  124.1   1.159   23.8  0.1094    7.7  0.4452  -80.4
 2.920  0.7111  123.5   1.151   23.3  0.1094    7.8  0.4450  -80.9
 2.940  0.7126  122.9   1.142   22.8  0.1093    7.9  0.4448  -81.4
 2.960  0.7141  122.4   1.134   22.3  0.1092    7.9  0.4447  -81.8
 2.980  0.7158  121.8   1.125   21.7  0.1092    8.0  0.4446  -82.3
 3.000  0.7175  121.2   1.117   21.2  0.1091    8.1  0.4445  -82.8
 3.100  0.7211  118.5   1.078   19.1  0.1097    8.9  0.4438  -85.3
 3.200  0.7262  115.9   1.040   16.9  0.1103    9.6  0.4439  -87.7
 3.300  0.7329  113.3   1.004   14.5  0.1109   10.3  0.4448  -90.2
 3.400  0.7410  110.8   0.969   11.9  0.1115   11.1  0.4465  -92.7
 3.500  0.7505  108.3   0.937    9.2  0.1122   11.8  0.4491  -95.1
 3.600  0.7545  106.2   0.907    7.4  0.1135   12.5  0.4488  -98.0
 3.700  0.7595  104.0   0.879    5.5  0.1149   13.3  0.4497 -100.9
 3.800  0.7656  102.0   0.851    3.4  0.1163   13.9  0.4518 -103.8
 3.900  0.7727   99.9   0.824    1.2  0.1177   14.6  0.4549 -106.6
 4.000  0.7807   97.9   0.799   -1.1  0.1191   15.3  0.4592 -109.4
 4.100  0.7833   96.1   0.775   -2.8  0.1212   15.7  0.4597 -112.4
 4.200  0.7867   94.3   0.751   -4.6  0.1234   16.1  0.4615 -115.4
 4.300  0.7909   92.6   0.729   -6.4  0.1255   16.5  0.4646 -118.4
 4.400  0.7958   90.8   0.707   -8.5  0.1276   16.8  0.4689 -121.3
 4.500  0.8014   89.1   0.686  -10.6  0.1298   17.2  0.4744 -124.2
 4.600  0.8026   87.7   0.667  -11.8  0.1325   17.7  0.4759 -127.0
 4.700  0.8043   86.2   0.648  -13.0  0.1353   18.1  0.4785 -129.8
 4.800  0.8065   84.8   0.629  -14.4  0.1380   18.6  0.4823 -132.6
 4.900  0.8091   83.4   0.611  -15.8  0.1407   19.0  0.4872 -135.3
 5.000  0.8123   82.0   0.593  -17.3  0.1435   19.4  0.4932 -138.0
 5.100  0.8154   80.8   0.578  -18.5  0.1479   19.0  0.4977 -140.7
 5.200  0.8188   79.6   0.564  -19.7  0.1524   18.6  0.5034 -143.4
 5.300  0.8225   78.5   0.550  -21.0  0.1569   18.3  0.5100 -145.9
 5.400  0.8266   77.3   0.536  -22.4  0.1613   17.9  0.5177 -148.5
 5.500  0.8310   76.2   0.522  -23.8  0.1658   17.6  0.5264 -150.9
 5.600  0.8341   75.0   0.510  -24.8  0.1693   16.9  0.5303 -153.5
 5.700  0.8376   73.8   0.497  -25.8  0.1729   16.2  0.5353 -156.0
 5.800  0.8414   72.7   0.485  -26.9  0.1765   15.6  0.5413 -158.4
 5.900  0.8455   71.5   0.474  -28.1  0.1801   15.0  0.5483 -160.9
 6.000  0.8500   70.4   0.462  -29.3  0.1837   14.4  0.5562 -163.2
!
!  f       NFmin   Gammaopt  rn/50
! GHz       dB    MAG  ANG    -
!
! noise parameter not available yet for this operation point!
!
! (c) 2016  Infineon Technologies AG, Munich
