! Infineon Technologies  Discrete & RF Semiconductors
! BFP183
! VCE = 2.5 V,  IC =  12 mA
! Common Emitter S-Parameters:                            Jan 2016
# GHz  S  MA  R  50
!  f         S11            S21            S12            S22
! GHz     MAG   ANG      MAG   ANG      MAG   ANG      MAG   ANG
 0.010  0.6283   -5.6  28.120  177.0  0.0019   79.8  0.9798   -2.2
 0.015  0.6299   -8.5  28.113  175.5  0.0030   80.1  0.9784   -3.3
 0.020  0.6330  -11.3  28.125  174.1  0.0041   80.2  0.9773   -4.5
 0.025  0.6283  -14.0  27.966  172.6  0.0050   80.4  0.9724   -5.6
 0.030  0.6250  -16.7  27.827  171.0  0.0059   80.5  0.9679   -6.7
 0.035  0.6231  -19.4  27.709  169.5  0.0068   80.6  0.9637   -7.8
 0.040  0.6227  -22.1  27.611  167.9  0.0077   80.7  0.9599   -8.9
 0.045  0.6236  -24.9  27.534  166.3  0.0086   80.8  0.9564  -10.0
 0.050  0.6260  -27.6  27.479  164.7  0.0095   80.8  0.9533  -11.1
 0.055  0.6189  -30.0  27.178  163.4  0.0103   78.5  0.9451  -12.0
 0.060  0.6128  -32.4  26.891  162.2  0.0110   76.6  0.9371  -12.9
 0.065  0.6079  -34.8  26.617  160.9  0.0118   74.9  0.9294  -13.9
 0.070  0.6041  -37.3  26.357  159.5  0.0126   73.4  0.9219  -14.8
 0.075  0.6015  -39.8  26.112  158.2  0.0134   72.1  0.9147  -15.8
 0.080  0.6000  -42.4  25.882  156.8  0.0142   71.0  0.9078  -16.8
 0.085  0.5997  -44.9  25.668  155.4  0.0150   69.9  0.9011  -17.8
 0.090  0.6006  -47.5  25.469  153.9  0.0158   69.0  0.8947  -18.8
 0.095  0.6027  -50.0  25.286  152.5  0.0166   68.2  0.8886  -19.9
 0.100  0.6059  -52.5  25.120  151.0  0.0174   67.4  0.8828  -20.9
 0.105  0.6007  -54.5  24.814  149.9  0.0180   66.4  0.8740  -21.6
 0.110  0.5963  -56.6  24.517  148.9  0.0187   65.5  0.8653  -22.3
 0.115  0.5927  -58.7  24.229  147.8  0.0193   64.7  0.8567  -23.0
 0.120  0.5899  -60.9  23.950  146.6  0.0200   63.9  0.8483  -23.8
 0.125  0.5879  -63.0  23.681  145.5  0.0206   63.1  0.8401  -24.5
 0.130  0.5867  -65.2  23.421  144.3  0.0213   62.4  0.8319  -25.3
 0.135  0.5864  -67.3  23.172  143.1  0.0219   61.8  0.8240  -26.1
 0.140  0.5870  -69.5  22.933  141.8  0.0226   61.1  0.8161  -26.9
 0.145  0.5883  -71.7  22.706  140.6  0.0232   60.6  0.8085  -27.7
 0.150  0.5905  -73.8  22.489  139.3  0.0239   60.0  0.8010  -28.5
 0.155  0.5859  -75.6  22.216  138.5  0.0243   59.4  0.7925  -29.0
 0.160  0.5819  -77.4  21.948  137.6  0.0247   58.8  0.7841  -29.5
 0.165  0.5785  -79.2  21.685  136.7  0.0252   58.3  0.7757  -30.0
 0.170  0.5756  -81.0  21.427  135.8  0.0256   57.7  0.7675  -30.6
 0.175  0.5734  -82.8  21.175  134.9  0.0260   57.2  0.7592  -31.1
 0.180  0.5717  -84.7  20.928  133.9  0.0265   56.7  0.7511  -31.7
 0.185  0.5707  -86.6  20.688  133.0  0.0269   56.2  0.7430  -32.2
 0.190  0.5702  -88.5  20.453  132.0  0.0273   55.7  0.7350  -32.8
 0.195  0.5704  -90.3  20.225  130.9  0.0278   55.2  0.7271  -33.4
 0.200  0.5712  -92.2  20.003  129.9  0.0282   54.8  0.7192  -34.0
 0.220  0.5655  -97.7  18.990  127.1  0.0295   52.9  0.6903  -35.4
 0.240  0.5652 -103.3  18.027  124.1  0.0308   51.2  0.6619  -36.9
 0.260  0.5645 -108.3  17.169  121.4  0.0321   50.0  0.6360  -38.1
 0.280  0.5618 -112.6  16.392  119.1  0.0332   49.1  0.6122  -39.1
 0.300  0.5623 -117.0  15.643  116.7  0.0343   48.3  0.5886  -40.1
 0.320  0.5552 -120.5  15.003  115.0  0.0351   47.5  0.5712  -40.6
 0.340  0.5502 -124.1  14.377  113.2  0.0358   46.7  0.5539  -41.2
 0.360  0.5474 -127.7  13.767  111.3  0.0366   46.0  0.5367  -41.7
 0.380  0.5469 -131.4  13.174  109.1  0.0374   45.3  0.5194  -42.3
 0.400  0.5485 -135.0  12.601  106.8  0.0382   44.6  0.5023  -43.0
 0.420  0.5454 -137.6  12.146  105.6  0.0387   44.2  0.4905  -43.2
 0.440  0.5435 -140.3  11.697  104.3  0.0393   43.9  0.4787  -43.4
 0.450  0.5430 -141.6  11.475  103.6  0.0395   43.7  0.4728  -43.6
 0.460  0.5427 -143.0  11.255  102.9  0.0398   43.6  0.4669  -43.7
 0.480  0.5432 -145.6  10.819  101.4  0.0404   43.2  0.4551  -43.9
 0.500  0.5448 -148.3  10.392   99.8  0.0409   42.9  0.4433  -44.2
 0.520  0.5439 -150.2  10.088   98.8  0.0416   43.0  0.4355  -44.3
 0.540  0.5435 -152.1   9.788   97.8  0.0422   43.2  0.4277  -44.4
 0.560  0.5438 -154.1   9.491   96.6  0.0429   43.3  0.4199  -44.5
 0.580  0.5447 -156.0   9.198   95.5  0.0435   43.5  0.4121  -44.7
 0.600  0.5462 -157.9   8.909   94.2  0.0442   43.6  0.4043  -44.8
 0.620  0.5447 -159.5   8.659   93.4  0.0447   43.7  0.3989  -44.8
 0.640  0.5437 -161.1   8.411   92.5  0.0452   43.7  0.3935  -44.9
 0.660  0.5431 -162.8   8.165   91.5  0.0458   43.8  0.3882  -44.9
 0.680  0.5429 -164.4   7.922   90.6  0.0463   43.8  0.3828  -45.0
 0.700  0.5432 -166.0   7.681   89.5  0.0468   43.9  0.3774  -45.0
 0.720  0.5429 -167.4   7.506   88.7  0.0473   43.9  0.3735  -45.1
 0.740  0.5429 -168.8   7.333   87.9  0.0479   43.9  0.3696  -45.1
 0.760  0.5432 -170.3   7.161   87.1  0.0484   43.8  0.3658  -45.2
 0.780  0.5439 -171.7   6.991   86.2  0.0490   43.8  0.3619  -45.2
 0.800  0.5449 -173.1   6.823   85.3  0.0495   43.8  0.3580  -45.3
 0.820  0.5446 -174.2   6.679   84.7  0.0502   44.0  0.3550  -45.4
 0.840  0.5446 -175.4   6.536   84.0  0.0509   44.2  0.3520  -45.4
 0.860  0.5448 -176.5   6.393   83.3  0.0515   44.4  0.3489  -45.5
 0.880  0.5452 -177.7   6.252   82.6  0.0522   44.5  0.3459  -45.5
 0.900  0.5458 -178.8   6.112   81.8  0.0529   44.7  0.3429  -45.6
 0.920  0.5463 -180.0   5.988   81.1  0.0534   44.8  0.3404  -45.7
 0.940  0.5471  178.8   5.864   80.4  0.0539   44.9  0.3379  -45.9
 0.960  0.5481  177.6   5.742   79.7  0.0543   45.1  0.3354  -46.0
 0.980  0.5493  176.5   5.620   78.9  0.0548   45.2  0.3329  -46.2
 1.000  0.5508  175.3   5.500   78.1  0.0553   45.3  0.3304  -46.3
 1.020  0.5515  174.4   5.405   77.5  0.0560   45.4  0.3286  -46.4
 1.040  0.5523  173.5   5.311   76.8  0.0567   45.5  0.3268  -46.5
 1.060  0.5533  172.5   5.218   76.1  0.0573   45.6  0.3251  -46.7
 1.080  0.5544  171.6   5.126   75.4  0.0580   45.7  0.3233  -46.8
 1.100  0.5556  170.7   5.034   74.7  0.0587   45.8  0.3215  -46.9
 1.120  0.5558  169.7   4.949   74.2  0.0593   45.8  0.3202  -47.1
 1.140  0.5562  168.7   4.864   73.6  0.0599   45.8  0.3189  -47.2
 1.160  0.5568  167.8   4.780   73.0  0.0605   45.9  0.3177  -47.4
 1.180  0.5575  166.8   4.696   72.4  0.0611   45.9  0.3164  -47.5
 1.200  0.5584  165.8   4.613   71.8  0.0617   45.9  0.3151  -47.7
 1.220  0.5591  165.0   4.541   71.3  0.0623   46.0  0.3139  -47.9
 1.240  0.5599  164.3   4.470   70.7  0.0629   46.1  0.3126  -48.2
 1.260  0.5607  163.5   4.399   70.1  0.0636   46.1  0.3114  -48.4
 1.280  0.5617  162.8   4.328   69.5  0.0642   46.2  0.3102  -48.7
 1.300  0.5628  162.0   4.258   68.9  0.0648   46.3  0.3090  -48.9
 1.320  0.5631  161.2   4.199   68.4  0.0655   46.4  0.3080  -49.1
 1.340  0.5636  160.4   4.141   67.8  0.0663   46.4  0.3071  -49.3
 1.360  0.5641  159.5   4.083   67.3  0.0670   46.5  0.3061  -49.5
 1.380  0.5648  158.7   4.026   66.7  0.0678   46.5  0.3052  -49.7
 1.400  0.5656  157.9   3.969   66.1  0.0685   46.6  0.3042  -49.9
 1.420  0.5661  157.2   3.916   65.5  0.0691   46.5  0.3034  -50.1
 1.440  0.5667  156.6   3.863   64.9  0.0698   46.4  0.3026  -50.4
 1.460  0.5673  155.9   3.811   64.3  0.0704   46.3  0.3018  -50.6
 1.480  0.5680  155.3   3.759   63.7  0.0711   46.2  0.3010  -50.9
 1.500  0.5688  154.6   3.708   63.0  0.0717   46.1  0.3002  -51.1
 1.520  0.5693  153.8   3.663   62.5  0.0723   46.1  0.2995  -51.4
 1.540  0.5698  153.0   3.618   62.0  0.0729   46.2  0.2989  -51.6
 1.560  0.5705  152.3   3.573   61.5  0.0736   46.2  0.2982  -51.9
 1.580  0.5713  151.5   3.528   60.9  0.0742   46.3  0.2975  -52.1
 1.600  0.5722  150.7   3.484   60.4  0.0748   46.3  0.2969  -52.4
 1.620  0.5735  150.0   3.439   59.9  0.0755   46.3  0.2961  -52.7
 1.640  0.5750  149.2   3.395   59.4  0.0762   46.3  0.2953  -53.1
 1.660  0.5765  148.5   3.351   58.8  0.0768   46.3  0.2945  -53.4
 1.680  0.5781  147.7   3.307   58.3  0.0775   46.3  0.2938  -53.8
 1.700  0.5798  147.0   3.264   57.7  0.0782   46.3  0.2930  -54.1
 1.720  0.5810  146.4   3.228   57.2  0.0789   46.3  0.2921  -54.4
 1.740  0.5823  145.8   3.193   56.7  0.0795   46.3  0.2911  -54.7
 1.760  0.5837  145.1   3.158   56.2  0.0802   46.2  0.2902  -55.1
 1.780  0.5851  144.5   3.123   55.6  0.0808   46.2  0.2893  -55.4
 1.800  0.5866  143.9   3.088   55.1  0.0815   46.2  0.2884  -55.7
 1.820  0.5872  143.3   3.055   54.6  0.0822   46.1  0.2878  -56.0
 1.840  0.5878  142.6   3.022   54.2  0.0828   46.0  0.2873  -56.3
 1.860  0.5885  142.0   2.990   53.7  0.0835   45.9  0.2868  -56.7
 1.880  0.5893  141.3   2.957   53.2  0.0841   45.8  0.2862  -57.0
 1.900  0.5901  140.7   2.925   52.7  0.0848   45.7  0.2857  -57.3
 1.920  0.5911  140.0   2.893   52.2  0.0855   45.6  0.2853  -57.7
 1.940  0.5923  139.3   2.860   51.7  0.0862   45.5  0.2848  -58.0
 1.960  0.5935  138.6   2.828   51.2  0.0869   45.4  0.2844  -58.4
 1.980  0.5948  137.9   2.797   50.6  0.0876   45.3  0.2840  -58.7
 2.000  0.5962  137.2   2.765   50.1  0.0883   45.2  0.2836  -59.1
 2.020  0.5972  136.6   2.739   49.7  0.0890   45.1  0.2829  -59.5
 2.040  0.5982  136.1   2.713   49.2  0.0896   45.1  0.2822  -59.9
 2.060  0.5993  135.5   2.687   48.7  0.0903   45.0  0.2815  -60.3
 2.080  0.6005  135.0   2.661   48.3  0.0910   44.9  0.2809  -60.6
 2.100  0.6017  134.4   2.636   47.8  0.0916   44.8  0.2802  -61.0
 2.120  0.6030  133.9   2.610   47.3  0.0923   44.8  0.2796  -61.4
 2.140  0.6043  133.3   2.585   46.8  0.0930   44.7  0.2790  -61.8
 2.160  0.6057  132.8   2.560   46.3  0.0937   44.6  0.2784  -62.2
 2.180  0.6071  132.2   2.535   45.7  0.0943   44.6  0.2778  -62.6
 2.200  0.6086  131.7   2.511   45.2  0.0950   44.5  0.2772  -63.0
 2.220  0.6098  131.1   2.489   44.8  0.0957   44.4  0.2766  -63.4
 2.240  0.6111  130.5   2.468   44.3  0.0964   44.3  0.2760  -63.9
 2.260  0.6124  129.9   2.446   43.9  0.0970   44.2  0.2754  -64.3
 2.280  0.6138  129.3   2.425   43.4  0.0977   44.0  0.2749  -64.7
 2.300  0.6153  128.8   2.404   43.0  0.0984   43.9  0.2743  -65.2
 2.320  0.6168  128.2   2.383   42.5  0.0991   43.8  0.2738  -65.6
 2.340  0.6184  127.6   2.362   42.0  0.0998   43.7  0.2733  -66.1
 2.360  0.6201  127.0   2.342   41.5  0.1004   43.6  0.2728  -66.5
 2.380  0.6218  126.5   2.321   41.0  0.1011   43.5  0.2724  -67.0
 2.400  0.6236  125.9   2.301   40.5  0.1018   43.4  0.2719  -67.4
 2.420  0.6253  125.4   2.281   40.1  0.1024   43.3  0.2712  -67.8
 2.440  0.6271  124.9   2.261   39.6  0.1031   43.2  0.2706  -68.3
 2.460  0.6289  124.4   2.242   39.2  0.1037   43.1  0.2700  -68.7
 2.480  0.6308  123.9   2.223   38.8  0.1043   42.9  0.2694  -69.1
 2.500  0.6327  123.4   2.203   38.3  0.1049   42.8  0.2688  -69.6
 2.520  0.6347  122.9   2.184   37.8  0.1056   42.7  0.2682  -70.0
 2.540  0.6367  122.4   2.165   37.4  0.1062   42.6  0.2676  -70.5
 2.560  0.6388  121.9   2.146   36.9  0.1068   42.5  0.2671  -70.9
 2.580  0.6409  121.4   2.128   36.4  0.1075   42.4  0.2665  -71.4
 2.600  0.6431  120.9   2.109   35.9  0.1081   42.3  0.2660  -71.8
 2.620  0.6438  120.4   2.093   35.5  0.1088   42.1  0.2655  -72.3
 2.640  0.6445  119.9   2.076   35.0  0.1094   42.0  0.2650  -72.8
 2.660  0.6453  119.4   2.060   34.5  0.1101   41.8  0.2646  -73.3
 2.680  0.6461  118.9   2.045   34.1  0.1107   41.7  0.2641  -73.8
 2.700  0.6470  118.4   2.029   33.6  0.1114   41.5  0.2637  -74.3
 2.720  0.6480  117.9   2.013   33.1  0.1121   41.4  0.2633  -74.8
 2.740  0.6490  117.4   1.998   32.6  0.1127   41.2  0.2629  -75.3
 2.760  0.6500  116.9   1.982   32.1  0.1134   41.1  0.2626  -75.8
 2.780  0.6511  116.4   1.967   31.6  0.1140   40.9  0.2622  -76.3
 2.800  0.6522  115.9   1.952   31.1  0.1147   40.8  0.2619  -76.8
 2.820  0.6535  115.4   1.938   30.7  0.1153   40.7  0.2613  -77.3
 2.840  0.6548  115.0   1.923   30.3  0.1159   40.5  0.2607  -77.8
 2.860  0.6562  114.5   1.909   29.9  0.1166   40.4  0.2602  -78.3
 2.880  0.6576  114.0   1.895   29.5  0.1172   40.3  0.2596  -78.9
 2.900  0.6591  113.6   1.881   29.1  0.1178   40.1  0.2591  -79.4
 2.920  0.6606  113.1   1.867   28.7  0.1184   40.0  0.2586  -79.9
 2.940  0.6621  112.7   1.853   28.2  0.1190   39.9  0.2582  -80.4
 2.960  0.6637  112.2   1.839   27.8  0.1197   39.7  0.2577  -80.9
 2.980  0.6653  111.8   1.826   27.3  0.1203   39.6  0.2573  -81.5
 3.000  0.6670  111.3   1.812   26.9  0.1209   39.5  0.2569  -82.0
 3.100  0.6726  109.2   1.750   25.1  0.1239   38.7  0.2548  -84.7
 3.200  0.6791  107.2   1.691   23.2  0.1270   38.0  0.2534  -87.5
 3.300  0.6865  105.2   1.633   21.1  0.1300   37.3  0.2525  -90.2
 3.400  0.6946  103.2   1.578   18.9  0.1331   36.6  0.2522  -93.0
 3.500  0.7036  101.3   1.525   16.5  0.1362   36.0  0.2525  -95.8
 3.600  0.7088   99.5   1.479   14.8  0.1390   35.2  0.2516  -98.9
 3.700  0.7146   97.8   1.435   13.0  0.1419   34.3  0.2514 -102.0
 3.800  0.7212   96.0   1.392   11.1  0.1448   33.6  0.2520 -105.2
 3.900  0.7283   94.4   1.351    9.1  0.1477   32.8  0.2533 -108.2
 4.000  0.7361   92.7   1.312    7.0  0.1507   32.1  0.2553 -111.3
 4.100  0.7399   91.2   1.274    5.4  0.1532   31.2  0.2555 -114.5
 4.200  0.7441   89.7   1.237    3.7  0.1558   30.4  0.2566 -117.7
 4.300  0.7489   88.3   1.202    1.9  0.1583   29.6  0.2584 -120.9
 4.400  0.7541   86.8   1.167    0.0  0.1610   28.8  0.2610 -124.0
 4.500  0.7598   85.4   1.134   -2.0  0.1636   28.0  0.2644 -127.0
 4.600  0.7622   84.2   1.105   -3.3  0.1661   27.4  0.2665 -129.7
 4.700  0.7649   83.0   1.077   -4.7  0.1686   26.9  0.2692 -132.4
 4.800  0.7680   81.8   1.049   -6.2  0.1712   26.4  0.2724 -135.1
 4.900  0.7715   80.6   1.022   -7.7  0.1737   25.9  0.2762 -137.6
 5.000  0.7752   79.4   0.996   -9.3  0.1763   25.4  0.2806 -140.1
 5.100  0.7792   78.3   0.974  -10.7  0.1796   24.4  0.2863 -142.8
 5.200  0.7835   77.3   0.953  -12.2  0.1830   23.5  0.2926 -145.4
 5.300  0.7880   76.2   0.932  -13.7  0.1865   22.5  0.2994 -147.8
 5.400  0.7928   75.2   0.912  -15.3  0.1900   21.7  0.3068 -150.2
 5.500  0.7978   74.2   0.893  -17.0  0.1935   20.8  0.3147 -152.4
 5.600  0.8005   73.2   0.873  -18.3  0.1961   19.9  0.3202 -154.8
 5.700  0.8035   72.2   0.853  -19.6  0.1987   19.0  0.3262 -157.2
 5.800  0.8068   71.2   0.834  -21.1  0.2013   18.2  0.3327 -159.4
 5.900  0.8103   70.2   0.816  -22.5  0.2041   17.3  0.3398 -161.6
 6.000  0.8140   69.2   0.798  -24.1  0.2068   16.5  0.3473 -163.7
!
!  f       NFmin   Gammaopt  rn/50
! GHz       dB    MAG  ANG    -
!
! noise parameter not available yet for this operation point!
!
! (c) 2016  Infineon Technologies AG, Munich
