! Infineon Technologies  Discrete & RF Semiconductors
! BFP193
! VCE = 8.0 V,  IC =  70 mA
! Common Emitter S-Parameters:                            Jan 2016
# GHz  S  MA  R  50
!  f         S11            S21            S12            S22
! GHz     MAG   ANG      MAG   ANG      MAG   ANG      MAG   ANG
 0.010  0.4650  -17.4  63.620  171.4  0.0028   76.4  0.8591   -7.2
 0.015  0.4588  -25.2  61.961  167.1  0.0041   75.1  0.8458  -10.8
 0.020  0.4613  -33.1  60.668  162.6  0.0055   74.4  0.8360  -14.6
 0.025  0.4495  -39.7  58.696  159.8  0.0065   71.3  0.8105  -17.3
 0.030  0.4439  -46.7  56.868  156.9  0.0075   69.1  0.7868  -20.2
 0.035  0.4450  -53.6  55.201  153.8  0.0085   67.3  0.7653  -23.3
 0.040  0.4525  -60.5  53.709  150.4  0.0095   66.0  0.7462  -26.5
 0.045  0.4663  -67.0  52.406  147.0  0.0106   64.9  0.7294  -29.9
 0.050  0.4857  -73.1  51.308  143.3  0.0116   64.0  0.7154  -33.4
 0.055  0.4759  -77.0  49.610  141.8  0.0122   63.0  0.6930  -34.8
 0.060  0.4684  -81.1  47.946  140.3  0.0128   62.1  0.6709  -36.2
 0.065  0.4634  -85.3  46.320  138.6  0.0135   61.3  0.6494  -37.8
 0.070  0.4608  -89.5  44.736  136.8  0.0141   60.6  0.6283  -39.4
 0.075  0.4609  -93.8  43.198  134.9  0.0147   59.9  0.6078  -41.2
 0.080  0.4634  -98.1  41.712  132.9  0.0154   59.3  0.5880  -43.1
 0.085  0.4686 -102.3  40.283  130.7  0.0160   58.7  0.5688  -45.2
 0.090  0.4761 -106.3  38.918  128.3  0.0166   58.1  0.5504  -47.3
 0.095  0.4860 -110.2  37.624  125.8  0.0173   57.7  0.5328  -49.6
 0.100  0.4980 -114.0  36.408  123.1  0.0179   57.2  0.5162  -52.1
 0.105  0.4962 -116.1  35.403  122.2  0.0183   57.0  0.5028  -52.8
 0.110  0.4951 -118.3  34.408  121.3  0.0187   56.7  0.4895  -53.5
 0.115  0.4948 -120.5  33.421  120.3  0.0191   56.5  0.4762  -54.3
 0.120  0.4951 -122.6  32.445  119.3  0.0195   56.3  0.4631  -55.2
 0.125  0.4962 -124.8  31.481  118.2  0.0198   56.1  0.4501  -56.0
 0.130  0.4979 -126.9  30.529  117.0  0.0202   55.9  0.4372  -57.0
 0.135  0.5003 -129.1  29.590  115.8  0.0206   55.7  0.4244  -58.0
 0.140  0.5035 -131.2  28.666  114.4  0.0210   55.5  0.4117  -59.0
 0.145  0.5073 -133.3  27.759  113.0  0.0214   55.4  0.3992  -60.1
 0.150  0.5117 -135.3  26.870  111.5  0.0218   55.2  0.3868  -61.3
 0.155  0.5114 -136.5  26.281  110.9  0.0222   55.3  0.3790  -61.7
 0.160  0.5113 -137.8  25.694  110.4  0.0225   55.4  0.3713  -62.2
 0.165  0.5114 -139.0  25.110  109.7  0.0229   55.5  0.3636  -62.7
 0.170  0.5118 -140.2  24.529  109.1  0.0232   55.5  0.3559  -63.2
 0.175  0.5124 -141.4  23.952  108.4  0.0236   55.6  0.3483  -63.7
 0.180  0.5133 -142.7  23.378  107.7  0.0240   55.7  0.3406  -64.3
 0.185  0.5144 -143.9  22.807  107.0  0.0243   55.8  0.3331  -64.8
 0.190  0.5157 -145.1  22.241  106.2  0.0247   55.9  0.3255  -65.4
 0.195  0.5172 -146.3  21.679  105.4  0.0250   55.9  0.3180  -66.0
 0.200  0.5190 -147.5  21.122  104.5  0.0254   56.0  0.3105  -66.7
 0.220  0.5181 -151.1  19.522  102.7  0.0267   56.3  0.2888  -67.8
 0.240  0.5193 -154.8  17.944  100.7  0.0280   56.7  0.2673  -69.0
 0.260  0.5211 -157.8  16.627   98.9  0.0293   57.3  0.2501  -70.1
 0.280  0.5226 -160.1  15.556   97.5  0.0306   58.1  0.2370  -71.1
 0.300  0.5250 -162.4  14.496   96.0  0.0319   58.9  0.2241  -72.1
 0.320  0.5239 -164.4  13.801   95.2  0.0333   59.5  0.2150  -72.6
 0.340  0.5234 -166.3  13.110   94.2  0.0347   60.1  0.2059  -73.1
 0.360  0.5235 -168.3  12.422   93.2  0.0360   60.6  0.1969  -73.6
 0.380  0.5243 -170.2  11.739   92.0  0.0374   61.1  0.1878  -74.2
 0.400  0.5256 -172.2  11.062   90.7  0.0388   61.5  0.1788  -74.9
 0.420  0.5260 -173.5  10.620   89.9  0.0402   61.8  0.1735  -75.3
 0.440  0.5267 -174.9  10.179   89.1  0.0417   62.2  0.1683  -75.7
 0.450  0.5272 -175.5   9.960   88.7  0.0424   62.3  0.1657  -76.0
 0.460  0.5277 -176.2   9.741   88.2  0.0431   62.5  0.1630  -76.2
 0.480  0.5290 -177.5   9.306   87.3  0.0446   62.7  0.1578  -76.7
 0.500  0.5305 -178.8   8.873   86.2  0.0460   63.0  0.1526  -77.2
 0.520  0.5307 -179.9   8.582   85.5  0.0476   63.2  0.1495  -77.6
 0.540  0.5312  179.1   8.291   84.8  0.0492   63.3  0.1463  -78.0
 0.560  0.5318  178.0   8.003   84.0  0.0508   63.4  0.1432  -78.4
 0.580  0.5325  177.0   7.715   83.2  0.0524   63.6  0.1401  -78.8
 0.600  0.5335  175.9   7.430   82.3  0.0540   63.7  0.1370  -79.3
 0.620  0.5336  174.9   7.221   81.6  0.0555   63.8  0.1349  -79.7
 0.640  0.5339  174.0   7.014   80.9  0.0569   63.9  0.1328  -80.1
 0.660  0.5344  173.0   6.808   80.2  0.0584   64.0  0.1307  -80.5
 0.680  0.5350  172.1   6.603   79.4  0.0598   64.1  0.1287  -81.0
 0.700  0.5357  171.1   6.399   78.5  0.0613   64.2  0.1266  -81.4
 0.720  0.5366  170.3   6.240   78.0  0.0628   64.1  0.1251  -81.9
 0.740  0.5376  169.4   6.081   77.4  0.0643   63.9  0.1236  -82.3
 0.760  0.5387  168.6   5.923   76.8  0.0658   63.8  0.1221  -82.8
 0.780  0.5399  167.7   5.766   76.2  0.0673   63.7  0.1207  -83.3
 0.800  0.5413  166.9   5.609   75.5  0.0688   63.6  0.1192  -83.8
 0.820  0.5408  166.1   5.485   74.9  0.0704   63.6  0.1181  -84.2
 0.840  0.5404  165.3   5.361   74.3  0.0720   63.5  0.1171  -84.6
 0.860  0.5401  164.4   5.238   73.7  0.0737   63.5  0.1160  -85.0
 0.880  0.5399  163.6   5.115   73.1  0.0753   63.4  0.1149  -85.4
 0.900  0.5398  162.8   4.993   72.4  0.0769   63.4  0.1139  -85.8
 0.920  0.5399  162.0   4.895   71.9  0.0783   63.3  0.1133  -86.3
 0.940  0.5402  161.2   4.798   71.3  0.0798   63.2  0.1126  -86.8
 0.960  0.5405  160.3   4.701   70.8  0.0812   63.1  0.1120  -87.3
 0.980  0.5410  159.5   4.605   70.2  0.0827   63.0  0.1114  -87.9
 1.000  0.5416  158.7   4.509   69.6  0.0841   62.9  0.1108  -88.4
 1.020  0.5435  158.1   4.429   69.1  0.0856   62.8  0.1103  -89.0
 1.040  0.5454  157.5   4.349   68.5  0.0871   62.6  0.1098  -89.7
 1.060  0.5474  156.9   4.270   67.9  0.0885   62.5  0.1094  -90.3
 1.080  0.5495  156.4   4.191   67.3  0.0900   62.3  0.1089  -90.9
 1.100  0.5516  155.8   4.113   66.7  0.0915   62.2  0.1085  -91.6
 1.120  0.5519  155.0   4.047   66.2  0.0931   62.1  0.1081  -92.2
 1.140  0.5524  154.2   3.980   65.7  0.0947   61.9  0.1077  -92.9
 1.160  0.5529  153.4   3.915   65.1  0.0963   61.8  0.1073  -93.5
 1.180  0.5535  152.6   3.849   64.6  0.0979   61.6  0.1069  -94.2
 1.200  0.5543  151.8   3.784   64.0  0.0995   61.5  0.1065  -94.8
 1.220  0.5548  151.2   3.724   63.5  0.1009   61.2  0.1064  -95.3
 1.240  0.5553  150.5   3.665   63.0  0.1024   61.0  0.1062  -95.9
 1.260  0.5559  149.9   3.606   62.4  0.1038   60.7  0.1061  -96.4
 1.280  0.5566  149.2   3.547   61.9  0.1053   60.4  0.1060  -97.0
 1.300  0.5573  148.6   3.489   61.3  0.1067   60.2  0.1059  -97.5
 1.320  0.5577  148.1   3.439   60.8  0.1081   60.0  0.1060  -98.1
 1.340  0.5582  147.6   3.389   60.4  0.1095   59.8  0.1061  -98.7
 1.360  0.5588  147.0   3.339   59.9  0.1110   59.6  0.1062  -99.3
 1.380  0.5594  146.5   3.289   59.4  0.1124   59.4  0.1064  -99.9
 1.400  0.5600  146.0   3.240   58.9  0.1138   59.2  0.1065 -100.5
 1.420  0.5603  145.4   3.202   58.4  0.1153   59.0  0.1065 -101.2
 1.440  0.5607  144.7   3.164   57.9  0.1167   58.8  0.1065 -101.9
 1.460  0.5611  144.1   3.127   57.3  0.1182   58.6  0.1065 -102.6
 1.480  0.5616  143.4   3.090   56.8  0.1196   58.4  0.1065 -103.3
 1.500  0.5622  142.8   3.053   56.2  0.1211   58.2  0.1065 -104.0
 1.520  0.5641  142.2   3.011   55.7  0.1226   58.0  0.1065 -104.7
 1.540  0.5661  141.7   2.969   55.2  0.1240   57.7  0.1065 -105.4
 1.560  0.5681  141.1   2.927   54.7  0.1255   57.5  0.1065 -106.2
 1.580  0.5702  140.6   2.886   54.1  0.1269   57.3  0.1065 -106.9
 1.600  0.5723  140.0   2.845   53.6  0.1284   57.1  0.1066 -107.6
 1.620  0.5727  139.3   2.813   53.1  0.1297   56.9  0.1065 -108.3
 1.640  0.5731  138.6   2.780   52.6  0.1310   56.6  0.1065 -109.0
 1.660  0.5737  137.8   2.748   52.1  0.1324   56.4  0.1064 -109.7
 1.680  0.5744  137.1   2.717   51.5  0.1337   56.1  0.1064 -110.4
 1.700  0.5751  136.4   2.685   51.0  0.1350   55.9  0.1064 -111.1
 1.720  0.5760  135.9   2.658   50.6  0.1365   55.6  0.1068 -111.7
 1.740  0.5770  135.4   2.631   50.1  0.1379   55.3  0.1072 -112.4
 1.760  0.5781  134.8   2.605   49.7  0.1394   55.0  0.1076 -113.0
 1.780  0.5792  134.3   2.578   49.3  0.1408   54.7  0.1080 -113.6
 1.800  0.5803  133.8   2.552   48.8  0.1423   54.4  0.1084 -114.2
 1.820  0.5822  133.3   2.526   48.3  0.1437   54.2  0.1088 -115.1
 1.840  0.5841  132.8   2.499   47.8  0.1452   53.9  0.1092 -115.9
 1.860  0.5860  132.3   2.473   47.2  0.1466   53.7  0.1097 -116.8
 1.880  0.5881  131.8   2.448   46.7  0.1481   53.5  0.1102 -117.7
 1.900  0.5901  131.3   2.422   46.1  0.1495   53.3  0.1107 -118.5
 1.920  0.5908  130.8   2.396   45.7  0.1508   53.0  0.1108 -119.4
 1.940  0.5916  130.3   2.371   45.2  0.1521   52.7  0.1109 -120.2
 1.960  0.5924  129.9   2.345   44.7  0.1534   52.4  0.1110 -121.1
 1.980  0.5932  129.4   2.320   44.3  0.1548   52.2  0.1112 -121.9
 2.000  0.5941  128.9   2.295   43.8  0.1561   51.9  0.1114 -122.8
 2.020  0.5948  128.4   2.274   43.4  0.1574   51.6  0.1117 -123.5
 2.040  0.5957  127.8   2.253   42.9  0.1587   51.4  0.1121 -124.3
 2.060  0.5965  127.3   2.232   42.5  0.1601   51.1  0.1125 -125.0
 2.080  0.5974  126.7   2.211   42.0  0.1614   50.9  0.1129 -125.7
 2.100  0.5984  126.2   2.191   41.5  0.1627   50.7  0.1133 -126.5
 2.120  0.5994  125.6   2.170   41.0  0.1640   50.4  0.1138 -127.2
 2.140  0.6005  125.1   2.150   40.5  0.1654   50.2  0.1142 -127.9
 2.160  0.6016  124.6   2.130   40.0  0.1667   49.9  0.1147 -128.6
 2.180  0.6028  124.0   2.110   39.5  0.1681   49.7  0.1152 -129.3
 2.200  0.6040  123.5   2.090   39.0  0.1694   49.5  0.1157 -130.0
 2.220  0.6053  123.0   2.073   38.6  0.1707   49.2  0.1161 -130.9
 2.240  0.6067  122.4   2.057   38.1  0.1719   48.9  0.1165 -131.8
 2.260  0.6081  121.9   2.040   37.6  0.1732   48.6  0.1169 -132.7
 2.280  0.6096  121.3   2.024   37.2  0.1745   48.4  0.1174 -133.6
 2.300  0.6111  120.8   2.008   36.7  0.1758   48.1  0.1179 -134.5
 2.320  0.6127  120.3   1.992   36.2  0.1771   47.8  0.1184 -135.4
 2.340  0.6144  119.8   1.976   35.7  0.1784   47.6  0.1189 -136.2
 2.360  0.6161  119.2   1.960   35.2  0.1797   47.3  0.1195 -137.1
 2.380  0.6178  118.7   1.944   34.7  0.1810   47.1  0.1201 -138.0
 2.400  0.6196  118.2   1.929   34.2  0.1823   46.8  0.1207 -138.8
 2.420  0.6208  117.7   1.913   33.8  0.1834   46.5  0.1212 -139.6
 2.440  0.6221  117.3   1.898   33.4  0.1846   46.3  0.1218 -140.4
 2.460  0.6235  116.8   1.882   32.9  0.1857   46.0  0.1224 -141.2
 2.480  0.6248  116.3   1.867   32.5  0.1869   45.7  0.1230 -141.9
 2.500  0.6262  115.9   1.852   32.0  0.1881   45.5  0.1236 -142.7
 2.520  0.6277  115.4   1.836   31.6  0.1892   45.2  0.1243 -143.5
 2.540  0.6292  115.0   1.821   31.1  0.1904   44.9  0.1250 -144.2
 2.560  0.6307  114.5   1.806   30.7  0.1915   44.7  0.1256 -144.9
 2.580  0.6323  114.1   1.792   30.2  0.1927   44.4  0.1264 -145.7
 2.600  0.6339  113.6   1.777   29.7  0.1939   44.2  0.1271 -146.4
 2.620  0.6348  113.1   1.764   29.3  0.1950   43.9  0.1279 -147.3
 2.640  0.6358  112.6   1.752   28.9  0.1961   43.7  0.1287 -148.1
 2.660  0.6368  112.1   1.739   28.5  0.1972   43.4  0.1295 -149.0
 2.680  0.6378  111.7   1.727   28.1  0.1984   43.2  0.1304 -149.9
 2.700  0.6389  111.2   1.714   27.7  0.1995   42.9  0.1313 -150.7
 2.720  0.6400  110.7   1.702   27.3  0.2006   42.7  0.1322 -151.5
 2.740  0.6412  110.2   1.690   26.8  0.2018   42.4  0.1331 -152.3
 2.760  0.6424  109.7   1.678   26.4  0.2029   42.2  0.1341 -153.1
 2.780  0.6437  109.3   1.666   25.9  0.2041   41.9  0.1351 -153.9
 2.800  0.6450  108.8   1.654   25.5  0.2052   41.7  0.1361 -154.7
 2.820  0.6463  108.4   1.642   25.1  0.2063   41.4  0.1370 -155.4
 2.840  0.6477  108.0   1.630   24.7  0.2075   41.2  0.1379 -156.1
 2.860  0.6491  107.6   1.619   24.2  0.2086   40.9  0.1388 -156.8
 2.880  0.6505  107.1   1.607   23.8  0.2098   40.6  0.1397 -157.5
 2.900  0.6519  106.7   1.596   23.3  0.2109   40.4  0.1407 -158.2
 2.920  0.6534  106.3   1.584   22.9  0.2121   40.1  0.1416 -158.8
 2.940  0.6549  105.9   1.573   22.4  0.2133   39.9  0.1426 -159.5
 2.960  0.6565  105.5   1.562   22.0  0.2144   39.6  0.1436 -160.1
 2.980  0.6581  105.1   1.551   21.5  0.2156   39.3  0.1447 -160.8
 3.000  0.6597  104.7   1.540   21.0  0.2168   39.1  0.1457 -161.4
 3.100  0.6653  102.8   1.491   19.3  0.2216   37.8  0.1509 -165.0
 3.200  0.6716  100.9   1.443   17.6  0.2265   36.5  0.1567 -168.3
 3.300  0.6787   99.0   1.397   15.7  0.2316   35.3  0.1629 -171.4
 3.400  0.6865   97.2   1.353   13.7  0.2367   34.2  0.1696 -174.3
 3.500  0.6949   95.4   1.310   11.5  0.2419   33.1  0.1767 -176.9
 3.600  0.6990   93.7   1.275    9.9  0.2465   31.8  0.1840 -179.7
 3.700  0.7037   92.0   1.240    8.2  0.2511   30.6  0.1917  177.7
 3.800  0.7090   90.3   1.207    6.5  0.2559   29.4  0.1998  175.3
 3.900  0.7150   88.6   1.175    4.6  0.2608   28.3  0.2082  173.1
 4.000  0.7215   87.0   1.144    2.6  0.2658   27.2  0.2169  171.1
 4.100  0.7265   85.5   1.117    1.1  0.2698   25.9  0.2238  168.9
 4.200  0.7319   84.0   1.090   -0.4  0.2740   24.7  0.2310  166.8
 4.300  0.7379   82.5   1.064   -2.1  0.2783   23.5  0.2384  164.9
 4.400  0.7443   81.1   1.039   -3.8  0.2827   22.3  0.2461  163.1
 4.500  0.7512   79.7   1.015   -5.6  0.2872   21.2  0.2541  161.4
 4.600  0.7546   78.4   0.994   -6.9  0.2907   20.1  0.2608  159.7
 4.700  0.7583   77.2   0.974   -8.3  0.2943   19.0  0.2676  158.1
 4.800  0.7624   75.9   0.954   -9.7  0.2981   18.0  0.2747  156.5
 4.900  0.7668   74.7   0.935  -11.2  0.3019   17.0  0.2820  155.1
 5.000  0.7716   73.5   0.917  -12.7  0.3058   16.0  0.2894  153.7
 5.100  0.7748   72.3   0.898  -13.9  0.3093   14.9  0.2958  152.1
 5.200  0.7783   71.1   0.879  -15.1  0.3129   13.8  0.3024  150.5
 5.300  0.7822   69.9   0.861  -16.3  0.3166   12.8  0.3093  149.1
 5.400  0.7864   68.8   0.843  -17.6  0.3204   11.8  0.3163  147.7
 5.500  0.7909   67.6   0.825  -19.0  0.3243   10.8  0.3235  146.3
 5.600  0.7918   66.6   0.811  -20.1  0.3277    9.7  0.3297  144.9
 5.700  0.7930   65.6   0.798  -21.3  0.3312    8.6  0.3361  143.6
 5.800  0.7944   64.6   0.786  -22.5  0.3349    7.5  0.3426  142.4
 5.900  0.7961   63.6   0.773  -23.8  0.3386    6.4  0.3493  141.2
 6.000  0.7980   62.6   0.761  -25.1  0.3425    5.4  0.3562  140.0
!
!  f       NFmin   Gammaopt  rn/50
! GHz       dB    MAG  ANG    -
!
! noise parameter not available yet for this operation point!
!
! (c) 2016  Infineon Technologies AG, Munich
