! Infineon Technologies  Discrete & RF Semiconductors
! BFP181
! VCE = 2.5 V,  IC =  90 mA
! Common Emitter S-Parameters:                            Jan 2016
# GHz  S  MA  R  50
!  f         S11            S21            S12            S22
! GHz     MAG   ANG      MAG   ANG      MAG   ANG      MAG   ANG
 0.010  0.9654   -0.8   3.155  179.7  0.0014   80.0  0.9978   -0.3
 0.015  0.9693   -1.3   3.142  179.5  0.0020   87.2  0.9947   -0.4
 0.020  0.9733   -1.7   3.129  179.3  0.0027   90.9  0.9916   -0.6
 0.025  0.9723   -2.0   3.134  178.9  0.0035   90.8  0.9924   -0.8
 0.030  0.9713   -2.3   3.138  178.5  0.0042   90.7  0.9932   -1.0
 0.035  0.9703   -2.5   3.143  178.1  0.0050   90.6  0.9940   -1.2
 0.040  0.9693   -2.8   3.148  177.7  0.0058   90.6  0.9948   -1.3
 0.045  0.9684   -3.1   3.154  177.3  0.0065   90.5  0.9956   -1.5
 0.050  0.9675   -3.4   3.159  176.9  0.0073   90.5  0.9964   -1.7
 0.055  0.9668   -3.8   3.156  176.6  0.0080   89.5  0.9965   -1.9
 0.060  0.9661   -4.2   3.153  176.3  0.0087   88.7  0.9967   -2.0
 0.065  0.9655   -4.5   3.150  176.0  0.0094   88.0  0.9968   -2.2
 0.070  0.9650   -4.9   3.147  175.7  0.0101   87.4  0.9969   -2.3
 0.075  0.9644   -5.3   3.144  175.4  0.0108   86.9  0.9971   -2.5
 0.080  0.9639   -5.7   3.142  175.1  0.0116   86.5  0.9973   -2.7
 0.085  0.9635   -6.1   3.139  174.8  0.0123   86.1  0.9974   -2.8
 0.090  0.9631   -6.4   3.137  174.5  0.0130   85.7  0.9976   -3.0
 0.095  0.9627   -6.8   3.134  174.2  0.0137   85.4  0.9978   -3.1
 0.100  0.9624   -7.2   3.132  173.9  0.0144   85.1  0.9980   -3.3
 0.105  0.9619   -7.5   3.129  173.6  0.0151   84.6  0.9976   -3.5
 0.110  0.9614   -7.9   3.127  173.3  0.0159   84.2  0.9971   -3.6
 0.115  0.9610   -8.2   3.124  172.9  0.0166   83.8  0.9967   -3.8
 0.120  0.9606   -8.6   3.122  172.6  0.0174   83.4  0.9963   -4.0
 0.125  0.9603   -8.9   3.120  172.3  0.0181   83.1  0.9958   -4.1
 0.130  0.9599   -9.3   3.118  172.0  0.0189   82.8  0.9954   -4.3
 0.135  0.9596   -9.6   3.116  171.7  0.0196   82.5  0.9950   -4.5
 0.140  0.9594  -10.0   3.114  171.3  0.0204   82.3  0.9946   -4.7
 0.145  0.9592  -10.3   3.112  171.0  0.0211   82.0  0.9943   -4.8
 0.150  0.9590  -10.7   3.110  170.7  0.0219   81.8  0.9939   -5.0
 0.155  0.9581  -11.1   3.113  170.4  0.0226   81.6  0.9937   -5.2
 0.160  0.9572  -11.4   3.116  170.1  0.0233   81.5  0.9934   -5.3
 0.165  0.9564  -11.8   3.120  169.7  0.0240   81.4  0.9932   -5.5
 0.170  0.9555  -12.1   3.123  169.4  0.0247   81.2  0.9930   -5.7
 0.175  0.9548  -12.5   3.127  169.1  0.0254   81.1  0.9928   -5.8
 0.180  0.9540  -12.9   3.130  168.8  0.0261   81.0  0.9926   -6.0
 0.185  0.9534  -13.2   3.134  168.5  0.0268   80.9  0.9924   -6.2
 0.190  0.9527  -13.6   3.138  168.1  0.0275   80.8  0.9922   -6.4
 0.195  0.9521  -13.9   3.142  167.8  0.0282   80.7  0.9921   -6.5
 0.200  0.9515  -14.3   3.146  167.5  0.0289   80.6  0.9919   -6.7
 0.220  0.9498  -15.7   3.132  166.3  0.0316   79.7  0.9904   -7.3
 0.240  0.9487  -17.1   3.119  165.0  0.0343   79.0  0.9890   -8.0
 0.260  0.9475  -18.5   3.106  163.9  0.0370   78.1  0.9875   -8.6
 0.280  0.9462  -19.9   3.094  162.9  0.0397   76.9  0.9859   -9.3
 0.300  0.9455  -21.3   3.082  161.9  0.0425   75.9  0.9845   -9.9
 0.320  0.9406  -22.7   3.076  160.5  0.0451   74.7  0.9822  -10.5
 0.340  0.9362  -24.0   3.071  159.1  0.0478   73.7  0.9801  -11.2
 0.360  0.9323  -25.4   3.068  157.8  0.0504   72.8  0.9781  -11.8
 0.380  0.9290  -26.8   3.067  156.4  0.0531   72.0  0.9762  -12.5
 0.400  0.9263  -28.2   3.068  155.0  0.0558   71.2  0.9744  -13.1
 0.420  0.9201  -29.6   3.052  153.8  0.0582   70.1  0.9714  -13.7
 0.440  0.9145  -31.0   3.038  152.5  0.0606   69.2  0.9685  -14.3
 0.450  0.9118  -31.7   3.031  151.9  0.0619   68.7  0.9670  -14.6
 0.460  0.9094  -32.4   3.025  151.3  0.0631   68.3  0.9657  -14.9
 0.480  0.9048  -33.8   3.014  150.0  0.0655   67.5  0.9630  -15.6
 0.500  0.9009  -35.3   3.004  148.7  0.0680   66.7  0.9604  -16.2
 0.520  0.8961  -36.6   2.988  147.6  0.0704   65.6  0.9574  -16.8
 0.540  0.8918  -37.9   2.972  146.6  0.0727   64.6  0.9546  -17.4
 0.560  0.8879  -39.2   2.958  145.5  0.0751   63.7  0.9518  -18.0
 0.580  0.8845  -40.5   2.944  144.4  0.0776   62.8  0.9491  -18.6
 0.600  0.8815  -41.8   2.932  143.3  0.0800   62.0  0.9466  -19.2
 0.620  0.8763  -43.1   2.909  142.2  0.0821   61.1  0.9432  -19.8
 0.640  0.8716  -44.5   2.888  141.1  0.0841   60.3  0.9399  -20.3
 0.660  0.8673  -45.8   2.867  140.0  0.0863   59.5  0.9367  -20.9
 0.680  0.8636  -47.2   2.847  138.9  0.0884   58.7  0.9336  -21.4
 0.700  0.8603  -48.6   2.829  137.7  0.0905   58.0  0.9306  -22.0
 0.720  0.8526  -49.9   2.819  136.6  0.0923   57.1  0.9270  -22.5
 0.740  0.8454  -51.1   2.811  135.5  0.0942   56.3  0.9234  -23.0
 0.760  0.8386  -52.4   2.803  134.4  0.0961   55.5  0.9199  -23.5
 0.780  0.8322  -53.8   2.797  133.3  0.0980   54.7  0.9165  -24.1
 0.800  0.8263  -55.1   2.791  132.2  0.0999   54.0  0.9132  -24.6
 0.820  0.8195  -56.4   2.776  131.1  0.1017   53.2  0.9094  -25.1
 0.840  0.8131  -57.7   2.763  130.0  0.1035   52.4  0.9057  -25.6
 0.860  0.8071  -59.1   2.750  128.9  0.1053   51.6  0.9020  -26.1
 0.880  0.8016  -60.4   2.738  127.7  0.1071   50.8  0.8984  -26.7
 0.900  0.7966  -61.8   2.728  126.6  0.1090   50.1  0.8949  -27.2
 0.920  0.7910  -63.1   2.708  125.6  0.1105   49.3  0.8908  -27.7
 0.940  0.7858  -64.4   2.688  124.6  0.1120   48.6  0.8868  -28.1
 0.960  0.7809  -65.7   2.670  123.6  0.1135   47.8  0.8828  -28.6
 0.980  0.7766  -67.0   2.652  122.6  0.1150   47.1  0.8789  -29.1
 1.000  0.7726  -68.4   2.635  121.6  0.1166   46.4  0.8750  -29.6
 1.020  0.7651  -69.7   2.624  120.6  0.1180   45.7  0.8714  -30.1
 1.040  0.7580  -71.0   2.614  119.5  0.1195   45.0  0.8679  -30.5
 1.060  0.7513  -72.4   2.604  118.4  0.1209   44.4  0.8644  -31.0
 1.080  0.7451  -73.8   2.596  117.4  0.1224   43.7  0.8610  -31.4
 1.100  0.7393  -75.2   2.588  116.3  0.1239   43.1  0.8576  -31.9
 1.120  0.7333  -76.3   2.567  115.5  0.1250   42.3  0.8541  -32.4
 1.140  0.7276  -77.5   2.546  114.6  0.1262   41.5  0.8507  -32.8
 1.160  0.7222  -78.6   2.526  113.8  0.1274   40.8  0.8473  -33.3
 1.180  0.7171  -79.8   2.506  112.9  0.1286   40.0  0.8440  -33.8
 1.200  0.7123  -81.0   2.487  112.0  0.1298   39.3  0.8407  -34.3
 1.220  0.7073  -82.3   2.469  111.1  0.1309   38.7  0.8371  -34.7
 1.240  0.7027  -83.6   2.451  110.2  0.1319   38.1  0.8335  -35.1
 1.260  0.6984  -84.9   2.434  109.3  0.1330   37.5  0.8300  -35.5
 1.280  0.6945  -86.2   2.417  108.3  0.1341   36.9  0.8265  -35.9
 1.300  0.6909  -87.5   2.401  107.4  0.1352   36.3  0.8230  -36.3
 1.320  0.6837  -88.6   2.385  106.5  0.1361   35.7  0.8195  -36.7
 1.340  0.6768  -89.8   2.369  105.7  0.1370   35.1  0.8161  -37.1
 1.360  0.6702  -91.0   2.354  104.8  0.1379   34.5  0.8127  -37.5
 1.380  0.6639  -92.2   2.340  103.9  0.1388   34.0  0.8093  -37.9
 1.400  0.6579  -93.4   2.326  103.0  0.1397   33.4  0.8060  -38.3
 1.420  0.6521  -94.8   2.315  102.1  0.1404   32.9  0.8027  -38.6
 1.440  0.6467  -96.2   2.304  101.2  0.1412   32.4  0.7993  -38.9
 1.460  0.6417  -97.7   2.294  100.3  0.1419   31.9  0.7960  -39.3
 1.480  0.6371  -99.1   2.285   99.3  0.1426   31.5  0.7927  -39.6
 1.500  0.6329 -100.6   2.276   98.4  0.1434   31.0  0.7895  -39.9
 1.520  0.6273 -101.8   2.258   97.6  0.1442   30.5  0.7870  -40.2
 1.540  0.6220 -103.0   2.240   96.8  0.1450   30.0  0.7845  -40.6
 1.560  0.6170 -104.3   2.223   95.9  0.1458   29.5  0.7820  -40.9
 1.580  0.6122 -105.5   2.206   95.1  0.1467   29.1  0.7795  -41.3
 1.600  0.6078 -106.8   2.190   94.2  0.1475   28.6  0.7771  -41.6
 1.620  0.6023 -108.1   2.180   93.4  0.1480   28.1  0.7734  -42.0
 1.640  0.5971 -109.5   2.170   92.5  0.1485   27.5  0.7697  -42.3
 1.660  0.5922 -110.9   2.161   91.6  0.1490   27.0  0.7661  -42.7
 1.680  0.5877 -112.3   2.152   90.8  0.1495   26.5  0.7625  -43.0
 1.700  0.5836 -113.7   2.144   89.9  0.1500   26.0  0.7589  -43.4
 1.720  0.5787 -115.1   2.131   89.0  0.1504   25.6  0.7559  -43.7
 1.740  0.5742 -116.4   2.119   88.1  0.1508   25.2  0.7528  -44.0
 1.760  0.5700 -117.8   2.107   87.2  0.1512   24.7  0.7498  -44.3
 1.780  0.5662 -119.3   2.096   86.3  0.1517   24.3  0.7469  -44.6
 1.800  0.5627 -120.7   2.085   85.4  0.1521   23.9  0.7439  -44.9
 1.820  0.5587 -122.0   2.073   84.7  0.1525   23.4  0.7410  -45.3
 1.840  0.5550 -123.4   2.062   83.9  0.1529   22.9  0.7381  -45.6
 1.860  0.5517 -124.7   2.050   83.1  0.1533   22.3  0.7353  -46.0
 1.880  0.5486 -126.1   2.039   82.4  0.1537   21.8  0.7325  -46.3
 1.900  0.5459 -127.5   2.029   81.6  0.1541   21.3  0.7297  -46.7
 1.920  0.5416 -128.7   2.014   80.9  0.1544   21.0  0.7273  -46.9
 1.940  0.5375 -129.9   1.998   80.1  0.1547   20.6  0.7249  -47.2
 1.960  0.5336 -131.2   1.984   79.4  0.1550   20.3  0.7225  -47.4
 1.980  0.5300 -132.4   1.969   78.6  0.1554   19.9  0.7202  -47.7
 2.000  0.5267 -133.7   1.955   77.8  0.1557   19.6  0.7178  -47.9
 2.020  0.5227 -134.9   1.941   77.1  0.1559   19.2  0.7155  -48.2
 2.040  0.5189 -136.2   1.927   76.4  0.1562   18.8  0.7133  -48.5
 2.060  0.5154 -137.4   1.913   75.7  0.1564   18.4  0.7110  -48.9
 2.080  0.5122 -138.7   1.900   74.9  0.1566   17.9  0.7088  -49.2
 2.100  0.5092 -140.0   1.887   74.2  0.1569   17.5  0.7067  -49.5
 2.120  0.5064 -141.3   1.874   73.4  0.1572   17.1  0.7045  -49.9
 2.140  0.5040 -142.7   1.862   72.7  0.1574   16.7  0.7024  -50.2
 2.160  0.5018 -144.0   1.850   71.9  0.1577   16.3  0.7003  -50.5
 2.180  0.4998 -145.3   1.838   71.1  0.1580   15.9  0.6982  -50.9
 2.200  0.4982 -146.7   1.827   70.3  0.1583   15.5  0.6961  -51.2
 2.220  0.4952 -148.0   1.816   69.6  0.1583   15.1  0.6939  -51.5
 2.240  0.4924 -149.3   1.805   69.0  0.1584   14.8  0.6917  -51.8
 2.260  0.4899 -150.6   1.795   68.3  0.1584   14.4  0.6895  -52.1
 2.280  0.4876 -152.0   1.785   67.6  0.1585   14.1  0.6874  -52.4
 2.300  0.4857 -153.3   1.775   66.9  0.1586   13.7  0.6852  -52.7
 2.320  0.4840 -154.7   1.765   66.3  0.1586   13.4  0.6831  -53.0
 2.340  0.4825 -156.1   1.756   65.5  0.1587   13.0  0.6810  -53.3
 2.360  0.4814 -157.4   1.747   64.8  0.1588   12.7  0.6789  -53.6
 2.380  0.4805 -158.8   1.738   64.1  0.1589   12.3  0.6768  -53.9
 2.400  0.4799 -160.2   1.729   63.4  0.1590   12.0  0.6748  -54.2
 2.420  0.4783 -161.5   1.717   62.8  0.1590   11.7  0.6726  -54.5
 2.440  0.4769 -162.8   1.706   62.2  0.1589   11.5  0.6705  -54.7
 2.460  0.4758 -164.1   1.695   61.5  0.1589   11.2  0.6683  -55.0
 2.480  0.4749 -165.4   1.684   60.9  0.1589   10.9  0.6662  -55.3
 2.500  0.4743 -166.8   1.673   60.3  0.1589   10.7  0.6641  -55.5
 2.520  0.4740 -168.1   1.662   59.6  0.1588   10.4  0.6620  -55.8
 2.540  0.4739 -169.4   1.652   58.9  0.1588   10.1  0.6599  -56.1
 2.560  0.4740 -170.7   1.642   58.3  0.1588    9.8  0.6579  -56.3
 2.580  0.4744 -172.1   1.632   57.6  0.1588    9.6  0.6558  -56.6
 2.600  0.4751 -173.4   1.622   56.9  0.1588    9.3  0.6538  -56.9
 2.620  0.4740 -174.6   1.612   56.2  0.1587    9.0  0.6524  -57.2
 2.640  0.4732 -175.8   1.603   55.6  0.1586    8.7  0.6511  -57.5
 2.660  0.4726 -177.0   1.593   54.9  0.1586    8.5  0.6497  -57.8
 2.680  0.4721 -178.2   1.584   54.2  0.1585    8.2  0.6484  -58.1
 2.700  0.4719 -179.4   1.575   53.5  0.1584    7.9  0.6471  -58.4
 2.720  0.4719  179.4   1.566   52.9  0.1583    7.6  0.6458  -58.7
 2.740  0.4721  178.2   1.558   52.2  0.1583    7.3  0.6446  -59.0
 2.760  0.4725  177.0   1.550   51.4  0.1582    7.1  0.6433  -59.3
 2.780  0.4731  175.8   1.542   50.7  0.1582    6.8  0.6421  -59.6
 2.800  0.4739  174.6   1.534   50.0  0.1581    6.5  0.6409  -59.9
 2.820  0.4735  173.5   1.525   49.4  0.1579    6.2  0.6393  -60.2
 2.840  0.4733  172.3   1.517   48.8  0.1578    6.0  0.6378  -60.5
 2.860  0.4734  171.2   1.508   48.2  0.1576    5.7  0.6362  -60.8
 2.880  0.4736  170.0   1.500   47.6  0.1574    5.4  0.6347  -61.0
 2.900  0.4739  168.9   1.492   46.9  0.1573    5.2  0.6331  -61.3
 2.920  0.4745  167.7   1.484   46.3  0.1571    4.9  0.6316  -61.6
 2.940  0.4753  166.6   1.477   45.7  0.1569    4.6  0.6302  -61.9
 2.960  0.4762  165.5   1.469   45.0  0.1568    4.3  0.6287  -62.2
 2.980  0.4774  164.3   1.462   44.4  0.1566    4.1  0.6272  -62.5
 3.000  0.4787  163.2   1.455   43.7  0.1565    3.8  0.6258  -62.8
 3.100  0.4775  158.1   1.411   41.1  0.1558    2.9  0.6215  -64.3
 3.200  0.4801  153.0   1.369   38.4  0.1552    2.1  0.6176  -65.9
 3.300  0.4864  148.0   1.331   35.5  0.1547    1.2  0.6141  -67.4
 3.400  0.4963  143.2   1.297   32.5  0.1541    0.3  0.6111  -69.0
 3.500  0.5095  138.6   1.266   29.3  0.1536   -0.6  0.6086  -70.6
 3.600  0.5148  134.8   1.229   27.0  0.1522   -1.2  0.6041  -72.4
 3.700  0.5223  131.1   1.195   24.6  0.1507   -1.8  0.6003  -74.2
 3.800  0.5319  127.5   1.162   22.0  0.1493   -2.4  0.5970  -76.0
 3.900  0.5435  124.1   1.132   19.3  0.1480   -3.1  0.5943  -77.8
 4.000  0.5570  120.8   1.105   16.5  0.1466   -3.7  0.5923  -79.7
 4.100  0.5624  117.8   1.074   14.4  0.1453   -4.0  0.5896  -81.7
 4.200  0.5693  114.9   1.045   12.2  0.1440   -4.3  0.5877  -83.8
 4.300  0.5777  112.1   1.018    9.9  0.1427   -4.6  0.5865  -85.8
 4.400  0.5874  109.3   0.992    7.5  0.1415   -5.0  0.5861  -87.8
 4.500  0.5984  106.7   0.968    4.9  0.1402   -5.3  0.5864  -89.9
 4.600  0.6042  104.4   0.943    3.2  0.1391   -5.1  0.5842  -92.0
 4.700  0.6109  102.2   0.920    1.3  0.1380   -4.9  0.5829  -94.1
 4.800  0.6185  100.1   0.897   -0.6  0.1369   -4.7  0.5823  -96.3
 4.900  0.6270   97.9   0.875   -2.6  0.1358   -4.5  0.5826  -98.4
 5.000  0.6363   95.9   0.855   -4.7  0.1347   -4.3  0.5836 -100.5
 5.100  0.6416   94.2   0.834   -6.4  0.1351   -3.8  0.5835 -102.7
 5.200  0.6475   92.5   0.814   -8.2  0.1355   -3.2  0.5842 -104.8
 5.300  0.6540   90.8   0.795  -10.0  0.1360   -2.7  0.5858 -107.0
 5.400  0.6610   89.2   0.777  -12.0  0.1364   -2.2  0.5881 -109.1
 5.500  0.6685   87.6   0.760  -14.0  0.1369   -1.7  0.5913 -111.2
 5.600  0.6742   86.0   0.743  -15.5  0.1381   -1.4  0.5916 -113.4
 5.700  0.6804   84.5   0.726  -17.0  0.1393   -1.1  0.5928 -115.7
 5.800  0.6871   83.0   0.709  -18.6  0.1405   -0.8  0.5949 -117.9
 5.900  0.6943   81.5   0.693  -20.3  0.1417   -0.6  0.5979 -120.1
 6.000  0.7019   80.0   0.678  -22.0  0.1429   -0.3  0.6018 -122.3
!
!  f       NFmin   Gammaopt  rn/50
! GHz       dB    MAG  ANG    -
!
! noise parameter not available yet for this operation point!
!
! (c) 2016  Infineon Technologies AG, Munich
