! Infineon Technologies  Discrete & RF Semiconductors
! BFP183
! VCE = 5.0 V,  IC =  40 mA
! Common Emitter S-Parameters:                            Jan 2016
# GHz  S  MA  R  50
!  f         S11            S21            S12            S22
! GHz     MAG   ANG      MAG   ANG      MAG   ANG      MAG   ANG
 0.010  0.4317  -10.4  45.808  174.8  0.0016   81.0  0.9299   -3.1
 0.015  0.4327  -16.1  45.648  172.6  0.0023   82.6  0.9247   -4.9
 0.020  0.4379  -21.7  45.555  170.4  0.0030   83.5  0.9204   -6.8
 0.025  0.4314  -26.6  44.912  168.2  0.0039   80.1  0.9103   -8.4
 0.030  0.4282  -31.5  44.337  165.9  0.0048   78.0  0.9009  -10.0
 0.035  0.4282  -36.6  43.833  163.6  0.0056   76.5  0.8923  -11.7
 0.040  0.4314  -41.5  43.402  161.3  0.0065   75.5  0.8845  -13.4
 0.045  0.4379  -46.4  43.046  158.8  0.0074   74.6  0.8774  -15.1
 0.050  0.4474  -51.1  42.768  156.4  0.0083   74.0  0.8712  -16.9
 0.055  0.4415  -54.8  41.864  154.9  0.0088   71.9  0.8566  -18.0
 0.060  0.4375  -58.5  40.991  153.3  0.0093   70.1  0.8423  -19.0
 0.065  0.4354  -62.3  40.148  151.7  0.0098   68.4  0.8283  -20.2
 0.070  0.4352  -66.1  39.340  150.0  0.0103   67.0  0.8146  -21.3
 0.075  0.4369  -69.9  38.567  148.3  0.0109   65.6  0.8013  -22.5
 0.080  0.4405  -73.7  37.832  146.4  0.0114   64.4  0.7883  -23.8
 0.085  0.4460  -77.4  37.138  144.5  0.0120   63.3  0.7758  -25.1
 0.090  0.4533  -80.9  36.486  142.6  0.0125   62.3  0.7636  -26.4
 0.095  0.4623  -84.4  35.879  140.5  0.0130   61.4  0.7519  -27.8
 0.100  0.4729  -87.7  35.319  138.4  0.0136   60.5  0.7406  -29.2
 0.105  0.4705  -90.2  34.611  137.3  0.0140   59.8  0.7283  -29.8
 0.110  0.4691  -92.7  33.916  136.2  0.0143   59.1  0.7160  -30.4
 0.115  0.4685  -95.2  33.234  135.1  0.0147   58.5  0.7038  -31.0
 0.120  0.4689  -97.8  32.566  133.9  0.0151   57.9  0.6917  -31.6
 0.125  0.4702 -100.3  31.913  132.6  0.0154   57.3  0.6797  -32.3
 0.130  0.4723 -102.8  31.276  131.3  0.0158   56.8  0.6678  -33.0
 0.135  0.4754 -105.2  30.657  129.9  0.0162   56.2  0.6560  -33.7
 0.140  0.4793 -107.7  30.055  128.5  0.0165   55.7  0.6443  -34.4
 0.145  0.4841 -110.1  29.472  127.0  0.0169   55.3  0.6327  -35.2
 0.150  0.4897 -112.4  28.910  125.5  0.0173   54.8  0.6212  -36.0
 0.155  0.4896 -114.1  28.380  124.8  0.0175   54.6  0.6123  -36.3
 0.160  0.4898 -115.7  27.855  124.0  0.0177   54.5  0.6034  -36.6
 0.165  0.4905 -117.4  27.335  123.2  0.0180   54.3  0.5946  -36.9
 0.170  0.4916 -119.0  26.821  122.3  0.0182   54.2  0.5857  -37.3
 0.175  0.4931 -120.6  26.313  121.5  0.0184   54.1  0.5769  -37.6
 0.180  0.4950 -122.3  25.811  120.6  0.0186   53.9  0.5681  -38.0
 0.185  0.4972 -123.9  25.315  119.6  0.0188   53.8  0.5593  -38.3
 0.190  0.4999 -125.5  24.827  118.7  0.0191   53.7  0.5505  -38.7
 0.195  0.5030 -127.0  24.346  117.7  0.0193   53.5  0.5418  -39.1
 0.200  0.5064 -128.6  23.873  116.6  0.0195   53.4  0.5331  -39.5
 0.220  0.5086 -133.3  22.291  114.2  0.0202   52.6  0.5076  -40.0
 0.240  0.5141 -137.8  20.752  111.5  0.0209   51.9  0.4822  -40.6
 0.260  0.5178 -141.9  19.441  109.2  0.0217   51.7  0.4601  -41.0
 0.280  0.5186 -145.5  18.334  107.3  0.0224   51.8  0.4414  -41.1
 0.300  0.5215 -149.0  17.247  105.3  0.0232   52.0  0.4227  -41.2
 0.320  0.5212 -151.4  16.450  104.1  0.0239   52.4  0.4113  -41.1
 0.340  0.5218 -153.8  15.661  102.7  0.0247   52.7  0.3999  -41.1
 0.360  0.5233 -156.2  14.882  101.2  0.0254   53.0  0.3885  -41.0
 0.380  0.5258 -158.6  14.115   99.5  0.0262   53.3  0.3771  -40.9
 0.400  0.5291 -160.9  13.361   97.6  0.0269   53.6  0.3657  -40.8
 0.420  0.5289 -162.6  12.837   96.7  0.0276   53.8  0.3588  -40.7
 0.440  0.5291 -164.4  12.316   95.7  0.0283   53.9  0.3520  -40.6
 0.450  0.5295 -165.2  12.057   95.2  0.0286   54.0  0.3485  -40.5
 0.460  0.5299 -166.1  11.799   94.6  0.0290   54.1  0.3451  -40.5
 0.480  0.5311 -167.8  11.287   93.5  0.0297   54.3  0.3383  -40.3
 0.500  0.5328 -169.5  10.780   92.2  0.0304   54.4  0.3314  -40.2
 0.520  0.5330 -170.9  10.447   91.4  0.0311   54.9  0.3272  -40.1
 0.540  0.5335 -172.3  10.116   90.6  0.0319   55.3  0.3229  -40.0
 0.560  0.5343 -173.7   9.787   89.7  0.0326   55.8  0.3187  -39.9
 0.580  0.5354 -175.1   9.461   88.7  0.0334   56.2  0.3144  -39.8
 0.600  0.5369 -176.5   9.138   87.7  0.0341   56.6  0.3102  -39.7
 0.620  0.5367 -177.6   8.871   87.0  0.0348   56.8  0.3074  -39.6
 0.640  0.5366 -178.7   8.606   86.3  0.0355   57.0  0.3046  -39.6
 0.660  0.5368 -179.7   8.342   85.5  0.0362   57.2  0.3019  -39.5
 0.680  0.5372  179.2   8.080   84.7  0.0369   57.3  0.2991  -39.5
 0.700  0.5377  178.1   7.819   83.8  0.0376   57.5  0.2963  -39.4
 0.720  0.5382  177.1   7.636   83.2  0.0384   57.6  0.2945  -39.4
 0.740  0.5390  176.0   7.454   82.5  0.0391   57.7  0.2927  -39.5
 0.760  0.5399  175.0   7.273   81.9  0.0399   57.8  0.2909  -39.5
 0.780  0.5409  173.9   7.093   81.1  0.0406   57.9  0.2891  -39.6
 0.800  0.5422  172.9   6.914   80.4  0.0414   58.0  0.2873  -39.6
 0.820  0.5428  172.1   6.764   79.9  0.0423   58.0  0.2859  -39.7
 0.840  0.5434  171.2   6.614   79.3  0.0432   58.1  0.2844  -39.8
 0.860  0.5442  170.4   6.465   78.7  0.0442   58.1  0.2830  -39.9
 0.880  0.5452  169.5   6.317   78.1  0.0451   58.2  0.2815  -40.0
 0.900  0.5462  168.7   6.169   77.4  0.0460   58.2  0.2801  -40.1
 0.920  0.5470  167.8   6.041   76.8  0.0466   58.3  0.2790  -40.3
 0.940  0.5480  166.9   5.913   76.2  0.0473   58.4  0.2779  -40.4
 0.960  0.5491  166.0   5.786   75.6  0.0479   58.6  0.2767  -40.6
 0.980  0.5503  165.2   5.659   74.9  0.0486   58.7  0.2756  -40.7
 1.000  0.5517  164.3   5.534   74.2  0.0492   58.8  0.2745  -40.9
 1.020  0.5527  163.5   5.436   73.6  0.0501   58.8  0.2736  -41.1
 1.040  0.5538  162.7   5.339   73.1  0.0510   58.7  0.2726  -41.3
 1.060  0.5550  161.9   5.242   72.5  0.0519   58.7  0.2717  -41.4
 1.080  0.5564  161.1   5.146   71.8  0.0528   58.6  0.2707  -41.6
 1.100  0.5578  160.3   5.051   71.2  0.0537   58.6  0.2698  -41.8
 1.120  0.5571  159.6   4.965   70.7  0.0545   58.5  0.2693  -42.0
 1.140  0.5565  158.9   4.879   70.3  0.0553   58.3  0.2687  -42.3
 1.160  0.5559  158.3   4.793   69.8  0.0560   58.2  0.2682  -42.5
 1.180  0.5555  157.6   4.708   69.2  0.0568   58.1  0.2676  -42.8
 1.200  0.5551  156.9   4.623   68.7  0.0576   58.0  0.2671  -43.0
 1.220  0.5565  156.3   4.550   68.2  0.0584   58.0  0.2665  -43.3
 1.240  0.5581  155.6   4.478   67.6  0.0592   58.0  0.2658  -43.6
 1.260  0.5596  155.0   4.406   67.1  0.0601   58.1  0.2652  -43.8
 1.280  0.5613  154.3   4.334   66.5  0.0609   58.1  0.2646  -44.1
 1.300  0.5630  153.7   4.263   65.9  0.0617   58.1  0.2640  -44.4
 1.320  0.5639  153.0   4.205   65.4  0.0625   58.0  0.2635  -44.7
 1.340  0.5649  152.3   4.147   65.0  0.0633   58.0  0.2631  -45.0
 1.360  0.5660  151.7   4.089   64.5  0.0642   57.9  0.2627  -45.2
 1.380  0.5672  151.0   4.031   64.0  0.0650   57.9  0.2622  -45.5
 1.400  0.5684  150.3   3.974   63.5  0.0658   57.8  0.2618  -45.8
 1.420  0.5690  149.7   3.920   63.0  0.0667   57.7  0.2612  -46.1
 1.440  0.5697  149.1   3.867   62.4  0.0675   57.5  0.2607  -46.3
 1.460  0.5705  148.6   3.814   61.8  0.0684   57.4  0.2601  -46.6
 1.480  0.5713  148.0   3.761   61.2  0.0692   57.2  0.2595  -46.8
 1.500  0.5722  147.4   3.709   60.6  0.0701   57.1  0.2590  -47.1
 1.520  0.5723  146.7   3.664   60.2  0.0709   56.9  0.2587  -47.5
 1.540  0.5726  146.0   3.618   59.7  0.0717   56.8  0.2584  -47.9
 1.560  0.5729  145.4   3.573   59.3  0.0725   56.6  0.2581  -48.2
 1.580  0.5732  144.7   3.529   58.8  0.0733   56.5  0.2578  -48.6
 1.600  0.5737  144.0   3.484   58.3  0.0741   56.3  0.2575  -49.0
 1.620  0.5752  143.3   3.440   57.8  0.0749   56.1  0.2570  -49.4
 1.640  0.5768  142.7   3.396   57.3  0.0757   56.0  0.2565  -49.8
 1.660  0.5785  142.0   3.352   56.8  0.0766   55.8  0.2560  -50.3
 1.680  0.5802  141.4   3.308   56.2  0.0774   55.7  0.2556  -50.7
 1.700  0.5820  140.7   3.265   55.7  0.0782   55.5  0.2551  -51.1
 1.720  0.5836  140.2   3.229   55.2  0.0790   55.4  0.2545  -51.5
 1.740  0.5852  139.7   3.192   54.7  0.0798   55.3  0.2538  -51.8
 1.760  0.5869  139.1   3.156   54.2  0.0806   55.3  0.2532  -52.2
 1.780  0.5886  138.6   3.121   53.7  0.0814   55.2  0.2526  -52.5
 1.800  0.5904  138.1   3.085   53.2  0.0822   55.1  0.2520  -52.9
 1.820  0.5908  137.6   3.050   52.8  0.0830   54.9  0.2516  -53.3
 1.840  0.5912  137.0   3.016   52.3  0.0838   54.6  0.2513  -53.6
 1.860  0.5917  136.5   2.981   51.9  0.0845   54.4  0.2509  -54.0
 1.880  0.5922  135.9   2.947   51.4  0.0853   54.1  0.2505  -54.3
 1.900  0.5928  135.4   2.913   50.9  0.0861   53.9  0.2502  -54.7
 1.920  0.5943  134.8   2.882   50.4  0.0869   53.8  0.2499  -55.1
 1.940  0.5959  134.3   2.851   50.0  0.0876   53.6  0.2496  -55.5
 1.960  0.5975  133.7   2.820   49.5  0.0884   53.5  0.2494  -56.0
 1.980  0.5992  133.2   2.789   49.0  0.0891   53.3  0.2491  -56.4
 2.000  0.6009  132.6   2.759   48.5  0.0899   53.2  0.2489  -56.8
 2.020  0.6016  132.1   2.733   48.1  0.0907   53.0  0.2482  -57.2
 2.040  0.6024  131.6   2.708   47.6  0.0915   52.9  0.2476  -57.7
 2.060  0.6032  131.1   2.682   47.2  0.0923   52.7  0.2470  -58.2
 2.080  0.6041  130.5   2.657   46.7  0.0931   52.6  0.2464  -58.6
 2.100  0.6050  130.0   2.632   46.2  0.0938   52.4  0.2458  -59.1
 2.120  0.6060  129.5   2.607   45.7  0.0946   52.3  0.2452  -59.5
 2.140  0.6070  129.0   2.583   45.2  0.0954   52.1  0.2446  -60.0
 2.160  0.6080  128.5   2.558   44.7  0.0962   52.0  0.2441  -60.5
 2.180  0.6091  128.0   2.534   44.2  0.0970   51.8  0.2435  -60.9
 2.200  0.6103  127.5   2.510   43.7  0.0978   51.7  0.2430  -61.4
 2.220  0.6117  127.0   2.488   43.3  0.0985   51.5  0.2426  -61.9
 2.240  0.6131  126.5   2.466   42.9  0.0993   51.3  0.2421  -62.4
 2.260  0.6146  125.9   2.444   42.5  0.1000   51.1  0.2417  -62.9
 2.280  0.6161  125.4   2.422   42.0  0.1007   50.9  0.2413  -63.3
 2.300  0.6177  124.9   2.401   41.6  0.1015   50.7  0.2409  -63.8
 2.320  0.6193  124.4   2.379   41.2  0.1022   50.5  0.2406  -64.3
 2.340  0.6210  123.9   2.358   40.7  0.1030   50.3  0.2402  -64.8
 2.360  0.6227  123.4   2.337   40.2  0.1037   50.1  0.2399  -65.3
 2.380  0.6245  122.9   2.316   39.8  0.1045   49.9  0.2396  -65.8
 2.400  0.6263  122.4   2.295   39.3  0.1052   49.7  0.2393  -66.3
 2.420  0.6277  121.9   2.276   38.9  0.1059   49.5  0.2386  -66.8
 2.440  0.6291  121.4   2.256   38.5  0.1066   49.3  0.2380  -67.3
 2.460  0.6305  121.0   2.237   38.1  0.1073   49.1  0.2373  -67.8
 2.480  0.6320  120.5   2.218   37.6  0.1079   48.9  0.2367  -68.3
 2.500  0.6336  120.0   2.199   37.2  0.1086   48.7  0.2361  -68.8
 2.520  0.6351  119.6   2.180   36.8  0.1093   48.5  0.2355  -69.3
 2.540  0.6368  119.1   2.161   36.3  0.1100   48.3  0.2349  -69.8
 2.560  0.6384  118.6   2.143   35.8  0.1107   48.2  0.2344  -70.3
 2.580  0.6401  118.2   2.124   35.4  0.1114   48.0  0.2338  -70.8
 2.600  0.6419  117.7   2.106   34.9  0.1121   47.8  0.2333  -71.3
 2.620  0.6430  117.3   2.090   34.5  0.1128   47.6  0.2329  -71.9
 2.640  0.6442  116.8   2.073   34.0  0.1134   47.4  0.2324  -72.4
 2.660  0.6455  116.4   2.057   33.6  0.1141   47.2  0.2320  -73.0
 2.680  0.6467  115.9   2.041   33.1  0.1148   47.0  0.2317  -73.5
 2.700  0.6480  115.5   2.025   32.6  0.1154   46.8  0.2313  -74.1
 2.720  0.6494  115.0   2.009   32.2  0.1161   46.6  0.2310  -74.6
 2.740  0.6507  114.6   1.993   31.7  0.1168   46.4  0.2307  -75.2
 2.760  0.6522  114.2   1.978   31.2  0.1174   46.2  0.2304  -75.8
 2.780  0.6536  113.7   1.962   30.7  0.1181   46.0  0.2301  -76.3
 2.800  0.6551  113.3   1.947   30.2  0.1188   45.8  0.2299  -76.9
 2.820  0.6561  112.8   1.933   29.8  0.1195   45.6  0.2293  -77.4
 2.840  0.6572  112.4   1.918   29.5  0.1202   45.4  0.2287  -78.0
 2.860  0.6583  111.9   1.904   29.1  0.1209   45.2  0.2281  -78.6
 2.880  0.6595  111.5   1.890   28.7  0.1216   45.1  0.2276  -79.1
 2.900  0.6607  111.0   1.876   28.3  0.1223   44.9  0.2271  -79.7
 2.920  0.6619  110.6   1.862   27.9  0.1230   44.7  0.2266  -80.2
 2.940  0.6632  110.1   1.848   27.5  0.1237   44.5  0.2261  -80.8
 2.960  0.6645  109.7   1.834   27.1  0.1244   44.3  0.2256  -81.4
 2.980  0.6659  109.2   1.821   26.7  0.1251   44.2  0.2252  -81.9
 3.000  0.6673  108.8   1.807   26.3  0.1258   44.0  0.2248  -82.5
 3.100  0.6732  106.8   1.746   24.5  0.1289   43.0  0.2228  -85.5
 3.200  0.6798  104.9   1.686   22.6  0.1321   42.0  0.2215  -88.6
 3.300  0.6872  103.0   1.629   20.6  0.1354   41.1  0.2208  -91.7
 3.400  0.6954  101.2   1.574   18.4  0.1386   40.2  0.2207  -94.8
 3.500  0.7042   99.4   1.521   16.1  0.1419   39.4  0.2213  -97.9
 3.600  0.7094   97.7   1.476   14.5  0.1448   38.3  0.2205 -101.3
 3.700  0.7152   96.1   1.432   12.7  0.1478   37.3  0.2204 -104.7
 3.800  0.7216   94.5   1.389   10.9  0.1508   36.3  0.2212 -108.1
 3.900  0.7286   92.9   1.348    9.0  0.1538   35.4  0.2227 -111.4
 4.000  0.7361   91.3   1.309    6.9  0.1569   34.5  0.2249 -114.7
 4.100  0.7397   89.8   1.271    5.3  0.1594   33.5  0.2256 -118.1
 4.200  0.7437   88.4   1.235    3.6  0.1619   32.5  0.2271 -121.4
 4.300  0.7482   86.9   1.199    1.9  0.1645   31.6  0.2294 -124.7
 4.400  0.7532   85.5   1.165   -0.0  0.1671   30.7  0.2324 -127.9
 4.500  0.7587   84.1   1.132   -2.0  0.1698   29.8  0.2361 -131.0
 4.600  0.7616   82.9   1.104   -3.3  0.1723   29.1  0.2383 -133.8
 4.700  0.7649   81.8   1.076   -4.7  0.1748   28.4  0.2410 -136.6
 4.800  0.7684   80.6   1.048   -6.1  0.1774   27.8  0.2443 -139.3
 4.900  0.7723   79.5   1.022   -7.6  0.1799   27.1  0.2482 -142.0
 5.000  0.7764   78.4   0.996   -9.2  0.1825   26.5  0.2525 -144.5
 5.100  0.7795   77.4   0.974  -10.6  0.1858   25.4  0.2585 -147.1
 5.200  0.7828   76.3   0.952  -12.0  0.1891   24.4  0.2650 -149.7
 5.300  0.7863   75.3   0.931  -13.5  0.1925   23.5  0.2720 -152.1
 5.400  0.7901   74.3   0.911  -15.1  0.1959   22.5  0.2795 -154.3
 5.500  0.7942   73.3   0.891  -16.7  0.1994   21.6  0.2874 -156.5
 5.600  0.7980   72.4   0.872  -18.0  0.2017   20.6  0.2932 -158.9
 5.700  0.8021   71.5   0.854  -19.3  0.2040   19.7  0.2995 -161.1
 5.800  0.8063   70.6   0.837  -20.7  0.2064   18.7  0.3063 -163.3
 5.900  0.8108   69.7   0.820  -22.1  0.2088   17.8  0.3134 -165.4
 6.000  0.8154   68.8   0.803  -23.6  0.2113   16.9  0.3210 -167.4
!
!  f       NFmin   Gammaopt  rn/50
! GHz       dB    MAG  ANG    -
!
! noise parameter not available yet for this operation point!
!
! (c) 2016  Infineon Technologies AG, Munich
