! Infineon Technologies  Discrete & RF Semiconductors
! BFP181
! VCE = 0.50V,  IC =  70 mA
! Common Emitter S-Parameters:                            Jan 2016
# GHz  S  MA  R  50
!  f         S11            S21            S12            S22
! GHz     MAG   ANG      MAG   ANG      MAG   ANG      MAG   ANG
 0.010  0.9690   -1.0   2.497  179.6  0.0021   89.1  0.9986   -0.3
 0.015  0.9727   -1.3   2.493  179.5  0.0031   88.4  0.9959   -0.5
 0.020  0.9764   -1.5   2.490  179.4  0.0041   88.1  0.9932   -0.7
 0.025  0.9760   -1.8   2.493  178.9  0.0052   88.2  0.9937   -0.9
 0.030  0.9756   -2.2   2.495  178.5  0.0063   88.3  0.9943   -1.1
 0.035  0.9752   -2.5   2.498  178.0  0.0074   88.3  0.9949   -1.4
 0.040  0.9749   -2.9   2.501  177.6  0.0086   88.4  0.9955   -1.6
 0.045  0.9746   -3.2   2.505  177.1  0.0097   88.4  0.9961   -1.8
 0.050  0.9744   -3.6   2.508  176.7  0.0108   88.4  0.9967   -2.0
 0.055  0.9729   -4.0   2.505  176.4  0.0119   87.5  0.9966   -2.2
 0.060  0.9715   -4.4   2.502  176.0  0.0129   86.8  0.9965   -2.4
 0.065  0.9702   -4.8   2.498  175.7  0.0140   86.2  0.9964   -2.6
 0.070  0.9688   -5.2   2.495  175.3  0.0151   85.7  0.9963   -2.8
 0.075  0.9676   -5.6   2.492  175.0  0.0161   85.2  0.9962   -3.0
 0.080  0.9663   -6.0   2.490  174.7  0.0172   84.8  0.9961   -3.2
 0.085  0.9652   -6.4   2.487  174.3  0.0183   84.4  0.9961   -3.4
 0.090  0.9640   -6.8   2.484  174.0  0.0194   84.1  0.9960   -3.6
 0.095  0.9629   -7.2   2.482  173.6  0.0204   83.9  0.9960   -3.8
 0.100  0.9619   -7.6   2.479  173.3  0.0215   83.6  0.9960   -4.0
 0.105  0.9621   -8.0   2.478  173.0  0.0225   83.3  0.9957   -4.2
 0.110  0.9623   -8.4   2.477  172.6  0.0236   83.1  0.9953   -4.4
 0.115  0.9626   -8.7   2.476  172.3  0.0246   82.8  0.9950   -4.6
 0.120  0.9629   -9.1   2.475  171.9  0.0257   82.6  0.9947   -4.8
 0.125  0.9633   -9.5   2.474  171.6  0.0267   82.4  0.9944   -5.0
 0.130  0.9637   -9.9   2.473  171.3  0.0277   82.2  0.9941   -5.2
 0.135  0.9641  -10.3   2.472  170.9  0.0288   82.0  0.9938   -5.4
 0.140  0.9646  -10.6   2.472  170.6  0.0298   81.9  0.9936   -5.6
 0.145  0.9651  -11.0   2.471  170.2  0.0309   81.7  0.9933   -5.8
 0.150  0.9657  -11.4   2.471  169.9  0.0319   81.6  0.9931   -6.0
 0.155  0.9648  -11.8   2.473  169.5  0.0330   81.4  0.9928   -6.2
 0.160  0.9638  -12.2   2.475  169.2  0.0341   81.1  0.9925   -6.4
 0.165  0.9630  -12.5   2.477  168.8  0.0352   80.9  0.9923   -6.6
 0.170  0.9622  -12.9   2.480  168.4  0.0363   80.7  0.9920   -6.8
 0.175  0.9614  -13.3   2.482  168.0  0.0374   80.5  0.9918   -7.0
 0.180  0.9606  -13.7   2.485  167.7  0.0385   80.3  0.9916   -7.2
 0.185  0.9599  -14.1   2.487  167.3  0.0396   80.2  0.9914   -7.4
 0.190  0.9593  -14.4   2.490  166.9  0.0407   80.0  0.9912   -7.6
 0.195  0.9587  -14.8   2.493  166.6  0.0418   79.8  0.9910   -7.8
 0.200  0.9581  -15.2   2.496  166.2  0.0429   79.7  0.9908   -8.0
 0.220  0.9562  -16.6   2.476  164.9  0.0469   78.4  0.9883   -8.8
 0.240  0.9549  -18.1   2.458  163.6  0.0509   77.4  0.9860   -9.7
 0.260  0.9528  -19.5   2.447  162.3  0.0550   76.2  0.9840  -10.5
 0.280  0.9498  -21.0   2.442  161.2  0.0592   75.0  0.9823  -11.2
 0.300  0.9474  -22.5   2.439  160.1  0.0634   73.9  0.9808  -12.0
 0.320  0.9427  -24.0   2.434  158.6  0.0673   72.7  0.9780  -12.8
 0.340  0.9387  -25.5   2.430  157.1  0.0712   71.6  0.9753  -13.5
 0.360  0.9353  -27.0   2.429  155.6  0.0752   70.7  0.9728  -14.3
 0.380  0.9326  -28.6   2.428  154.1  0.0791   69.8  0.9705  -15.0
 0.400  0.9306  -30.1   2.430  152.6  0.0831   69.0  0.9684  -15.8
 0.420  0.9228  -31.6   2.416  151.3  0.0867   67.8  0.9645  -16.5
 0.440  0.9156  -33.0   2.402  150.0  0.0903   66.7  0.9608  -17.3
 0.450  0.9122  -33.8   2.396  149.3  0.0922   66.1  0.9590  -17.7
 0.460  0.9090  -34.5   2.391  148.6  0.0940   65.6  0.9573  -18.1
 0.480  0.9030  -36.1   2.380  147.3  0.0977   64.7  0.9539  -18.8
 0.500  0.8977  -37.6   2.371  145.9  0.1014   63.8  0.9507  -19.6
 0.520  0.8932  -38.9   2.357  144.7  0.1048   62.7  0.9470  -20.3
 0.540  0.8892  -40.3   2.344  143.6  0.1082   61.7  0.9435  -21.0
 0.560  0.8857  -41.6   2.331  142.4  0.1116   60.7  0.9401  -21.7
 0.580  0.8827  -43.0   2.320  141.2  0.1151   59.8  0.9368  -22.4
 0.600  0.8802  -44.4   2.310  140.0  0.1186   58.9  0.9337  -23.1
 0.620  0.8740  -45.8   2.292  138.8  0.1215   57.9  0.9296  -23.8
 0.640  0.8682  -47.2   2.274  137.6  0.1245   57.0  0.9257  -24.4
 0.660  0.8631  -48.6   2.258  136.3  0.1275   56.1  0.9219  -25.1
 0.680  0.8584  -50.0   2.243  135.1  0.1305   55.3  0.9182  -25.8
 0.700  0.8543  -51.5   2.229  133.8  0.1335   54.5  0.9147  -26.5
 0.720  0.8470  -52.9   2.221  132.6  0.1362   53.5  0.9102  -27.1
 0.740  0.8402  -54.2   2.214  131.5  0.1390   52.6  0.9057  -27.7
 0.760  0.8339  -55.6   2.208  130.3  0.1419   51.7  0.9014  -28.3
 0.780  0.8281  -57.1   2.203  129.1  0.1447   50.8  0.8972  -29.0
 0.800  0.8228  -58.5   2.199  127.9  0.1476   50.0  0.8931  -29.6
 0.820  0.8162  -59.9   2.187  126.7  0.1501   49.1  0.8881  -30.2
 0.840  0.8101  -61.2   2.175  125.6  0.1527   48.2  0.8832  -30.8
 0.860  0.8044  -62.6   2.164  124.4  0.1553   47.3  0.8784  -31.4
 0.880  0.7993  -64.1   2.155  123.2  0.1579   46.4  0.8737  -32.0
 0.900  0.7946  -65.5   2.146  122.0  0.1606   45.6  0.8691  -32.6
 0.920  0.7882  -66.9   2.129  120.9  0.1626   44.7  0.8643  -33.2
 0.940  0.7822  -68.2   2.113  119.8  0.1646   43.9  0.8596  -33.8
 0.960  0.7768  -69.6   2.097  118.7  0.1667   43.0  0.8550  -34.4
 0.980  0.7717  -71.1   2.083  117.6  0.1688   42.2  0.8505  -35.0
 1.000  0.7672  -72.5   2.069  116.5  0.1709   41.4  0.8461  -35.6
 1.020  0.7602  -73.8   2.057  115.4  0.1729   40.6  0.8417  -36.1
 1.040  0.7535  -75.0   2.047  114.3  0.1749   39.8  0.8374  -36.7
 1.060  0.7472  -76.3   2.037  113.2  0.1769   39.1  0.8331  -37.2
 1.080  0.7413  -77.7   2.027  112.0  0.1790   38.3  0.8289  -37.7
 1.100  0.7358  -79.0   2.019  110.9  0.1811   37.6  0.8248  -38.3
 1.120  0.7294  -80.3   2.002  110.0  0.1829   36.7  0.8208  -38.9
 1.140  0.7233  -81.6   1.985  109.1  0.1847   35.8  0.8169  -39.5
 1.160  0.7177  -82.9   1.969  108.2  0.1865   35.0  0.8130  -40.1
 1.180  0.7124  -84.2   1.953  107.3  0.1884   34.1  0.8093  -40.7
 1.200  0.7075  -85.6   1.938  106.3  0.1903   33.3  0.8056  -41.3
 1.220  0.7024  -86.9   1.925  105.3  0.1916   32.7  0.8011  -41.7
 1.240  0.6977  -88.2   1.912  104.3  0.1929   32.0  0.7967  -42.2
 1.260  0.6933  -89.5   1.900  103.3  0.1943   31.4  0.7923  -42.6
 1.280  0.6893  -90.8   1.888  102.3  0.1956   30.8  0.7879  -43.1
 1.300  0.6856  -92.1   1.877  101.3  0.1970   30.2  0.7836  -43.5
 1.320  0.6792  -93.3   1.863  100.4  0.1982   29.5  0.7796  -44.0
 1.340  0.6731  -94.6   1.850   99.4  0.1995   28.9  0.7756  -44.4
 1.360  0.6674  -95.9   1.838   98.5  0.2008   28.2  0.7717  -44.9
 1.380  0.6620  -97.2   1.826   97.5  0.2021   27.5  0.7678  -45.4
 1.400  0.6569  -98.5   1.814   96.5  0.2034   26.9  0.7640  -45.9
 1.420  0.6517  -99.9   1.806   95.5  0.2042   26.3  0.7595  -46.2
 1.440  0.6469 -101.3   1.799   94.6  0.2049   25.8  0.7551  -46.6
 1.460  0.6425 -102.8   1.792   93.6  0.2057   25.2  0.7507  -46.9
 1.480  0.6385 -104.2   1.786   92.6  0.2066   24.7  0.7463  -47.3
 1.500  0.6349 -105.7   1.780   91.6  0.2074   24.1  0.7419  -47.6
 1.520  0.6281 -106.9   1.765   90.7  0.2084   23.5  0.7390  -48.0
 1.540  0.6216 -108.1   1.751   89.8  0.2095   23.0  0.7362  -48.4
 1.560  0.6153 -109.4   1.737   88.9  0.2106   22.5  0.7334  -48.7
 1.580  0.6094 -110.7   1.724   87.9  0.2117   21.9  0.7306  -49.1
 1.600  0.6038 -112.0   1.711   87.0  0.2128   21.4  0.7279  -49.5
 1.620  0.5999 -113.4   1.703   86.2  0.2132   20.8  0.7232  -49.9
 1.640  0.5963 -114.8   1.696   85.3  0.2136   20.2  0.7186  -50.4
 1.660  0.5931 -116.3   1.689   84.4  0.2140   19.6  0.7140  -50.8
 1.680  0.5903 -117.7   1.682   83.6  0.2145   19.0  0.7095  -51.2
 1.700  0.5879 -119.2   1.676   82.7  0.2150   18.4  0.7050  -51.7
 1.720  0.5826 -120.6   1.666   81.8  0.2155   18.0  0.7017  -52.0
 1.740  0.5777 -122.0   1.656   80.9  0.2161   17.5  0.6983  -52.3
 1.760  0.5731 -123.5   1.647   79.9  0.2166   17.1  0.6950  -52.6
 1.780  0.5689 -125.0   1.638   79.0  0.2172   16.6  0.6918  -52.9
 1.800  0.5651 -126.5   1.630   78.0  0.2178   16.2  0.6885  -53.2
 1.820  0.5622 -127.8   1.620   77.2  0.2182   15.6  0.6849  -53.6
 1.840  0.5595 -129.1   1.610   76.4  0.2185   15.0  0.6814  -54.0
 1.860  0.5572 -130.5   1.600   75.6  0.2189   14.4  0.6778  -54.4
 1.880  0.5551 -131.8   1.591   74.8  0.2194   13.8  0.6743  -54.9
 1.900  0.5534 -133.2   1.582   74.0  0.2198   13.2  0.6709  -55.3
 1.920  0.5492 -134.4   1.570   73.2  0.2203   12.8  0.6683  -55.6
 1.940  0.5453 -135.7   1.558   72.4  0.2208   12.5  0.6657  -55.8
 1.960  0.5416 -136.9   1.546   71.6  0.2213   12.1  0.6631  -56.1
 1.980  0.5381 -138.2   1.535   70.7  0.2218   11.8  0.6606  -56.3
 2.000  0.5350 -139.5   1.524   69.9  0.2223   11.4  0.6580  -56.6
 2.020  0.5316 -140.8   1.514   69.1  0.2224   10.9  0.6553  -57.0
 2.040  0.5286 -142.1   1.504   68.4  0.2225   10.4  0.6525  -57.3
 2.060  0.5257 -143.4   1.495   67.6  0.2226    9.9  0.6499  -57.7
 2.080  0.5232 -144.7   1.486   66.8  0.2227    9.4  0.6472  -58.0
 2.100  0.5209 -146.0   1.477   66.0  0.2229    8.9  0.6446  -58.4
 2.120  0.5189 -147.4   1.468   65.2  0.2231    8.5  0.6420  -58.8
 2.140  0.5172 -148.7   1.460   64.4  0.2232    8.0  0.6394  -59.2
 2.160  0.5158 -150.1   1.452   63.6  0.2234    7.5  0.6368  -59.5
 2.180  0.5147 -151.4   1.444   62.7  0.2237    7.0  0.6343  -59.9
 2.200  0.5139 -152.8   1.437   61.9  0.2239    6.5  0.6318  -60.3
 2.220  0.5116 -154.0   1.428   61.2  0.2239    6.0  0.6293  -60.6
 2.240  0.5096 -155.3   1.419   60.5  0.2239    5.6  0.6268  -61.0
 2.260  0.5078 -156.5   1.410   59.9  0.2240    5.1  0.6243  -61.3
 2.280  0.5062 -157.8   1.402   59.2  0.2240    4.7  0.6219  -61.6
 2.300  0.5049 -159.0   1.394   58.5  0.2241    4.2  0.6195  -62.0
 2.320  0.5038 -160.3   1.386   57.7  0.2242    3.8  0.6171  -62.3
 2.340  0.5030 -161.6   1.378   57.0  0.2242    3.3  0.6147  -62.7
 2.360  0.5024 -162.8   1.370   56.3  0.2243    2.9  0.6123  -63.0
 2.380  0.5021 -164.1   1.363   55.5  0.2245    2.4  0.6100  -63.3
 2.400  0.5020 -165.4   1.356   54.8  0.2246    2.0  0.6077  -63.7
 2.420  0.5005 -166.7   1.348   54.1  0.2243    1.7  0.6053  -64.0
 2.440  0.4992 -167.9   1.339   53.5  0.2239    1.4  0.6028  -64.2
 2.460  0.4982 -169.2   1.332   52.8  0.2236    1.0  0.6004  -64.5
 2.480  0.4974 -170.5   1.324   52.1  0.2233    0.7  0.5980  -64.8
 2.500  0.4969 -171.8   1.316   51.4  0.2230    0.4  0.5957  -65.1
 2.520  0.4966 -173.1   1.309   50.8  0.2227    0.1  0.5933  -65.4
 2.540  0.4966 -174.3   1.301   50.1  0.2224   -0.2  0.5910  -65.6
 2.560  0.4968 -175.6   1.294   49.3  0.2221   -0.6  0.5886  -65.9
 2.580  0.4973 -176.9   1.288   48.6  0.2218   -0.9  0.5863  -66.2
 2.600  0.4980 -178.2   1.281   47.9  0.2215   -1.2  0.5840  -66.5
 2.620  0.4970 -179.4   1.273   47.2  0.2214   -1.5  0.5827  -66.8
 2.640  0.4962  179.5   1.265   46.5  0.2213   -1.9  0.5814  -67.1
 2.660  0.4956  178.3   1.258   45.9  0.2212   -2.2  0.5801  -67.4
 2.680  0.4952  177.1   1.250   45.2  0.2211   -2.6  0.5788  -67.8
 2.700  0.4950  176.0   1.243   44.5  0.2210   -2.9  0.5775  -68.1
 2.720  0.4950  174.8   1.236   43.7  0.2210   -3.3  0.5763  -68.4
 2.740  0.4953  173.6   1.229   43.0  0.2209   -3.6  0.5751  -68.7
 2.760  0.4957  172.4   1.223   42.3  0.2209   -4.0  0.5739  -69.0
 2.780  0.4963  171.3   1.216   41.5  0.2208   -4.3  0.5727  -69.4
 2.800  0.4972  170.1   1.210   40.8  0.2208   -4.7  0.5715  -69.7
 2.820  0.4973  169.0   1.204   40.2  0.2204   -5.1  0.5698  -70.0
 2.840  0.4976  167.9   1.198   39.5  0.2201   -5.5  0.5681  -70.4
 2.860  0.4980  166.7   1.192   38.9  0.2197   -5.8  0.5664  -70.7
 2.880  0.4987  165.6   1.187   38.2  0.2194   -6.2  0.5648  -71.0
 2.900  0.4995  164.5   1.182   37.6  0.2190   -6.6  0.5632  -71.4
 2.920  0.5006  163.4   1.176   36.9  0.2187   -7.0  0.5615  -71.7
 2.940  0.5018  162.3   1.171   36.2  0.2184   -7.3  0.5600  -72.1
 2.960  0.5032  161.2   1.166   35.6  0.2181   -7.7  0.5584  -72.4
 2.980  0.5048  160.1   1.162   34.9  0.2178   -8.1  0.5568  -72.8
 3.000  0.5066  159.0   1.157   34.2  0.2175   -8.5  0.5553  -73.1
 3.100  0.5061  154.2   1.121   31.6  0.2162   -9.7  0.5515  -74.7
 3.200  0.5092  149.4   1.088   28.7  0.2150  -10.9  0.5482  -76.3
 3.300  0.5159  144.6   1.058   25.8  0.2139  -12.1  0.5453  -78.0
 3.400  0.5259  140.1   1.031   22.6  0.2128  -13.3  0.5429  -79.6
 3.500  0.5392  135.7   1.007   19.3  0.2119  -14.5  0.5409  -81.3
 3.600  0.5443  132.2   0.978   17.0  0.2086  -15.5  0.5364  -83.3
 3.700  0.5514  128.7   0.950   14.6  0.2053  -16.6  0.5325  -85.3
 3.800  0.5605  125.3   0.924   12.0  0.2021  -17.7  0.5293  -87.4
 3.900  0.5714  122.1   0.901    9.3  0.1989  -18.8  0.5269  -89.5
 4.000  0.5841  119.0   0.879    6.4  0.1959  -20.0  0.5251  -91.6
 4.100  0.5892  116.1   0.855    4.3  0.1927  -20.8  0.5236  -93.9
 4.200  0.5957  113.3   0.831    2.2  0.1896  -21.6  0.5230  -96.1
 4.300  0.6036  110.6   0.810   -0.1  0.1865  -22.5  0.5231  -98.4
 4.400  0.6128  107.9   0.789   -2.6  0.1834  -23.4  0.5241 -100.6
 4.500  0.6234  105.3   0.770   -5.1  0.1804  -24.3  0.5259 -102.9
 4.600  0.6292  103.1   0.751   -6.8  0.1770  -24.5  0.5252 -105.2
 4.700  0.6358  101.0   0.732   -8.6  0.1736  -24.8  0.5253 -107.5
 4.800  0.6432   99.0   0.714  -10.5  0.1703  -25.0  0.5262 -109.8
 4.900  0.6515   97.0   0.696  -12.4  0.1669  -25.2  0.5280 -112.0
 5.000  0.6606   95.0   0.680  -14.5  0.1635  -25.5  0.5306 -114.3
 5.100  0.6652   93.3   0.664  -16.1  0.1617  -25.2  0.5320 -116.6
 5.200  0.6704   91.7   0.648  -17.8  0.1600  -24.8  0.5343 -118.9
 5.300  0.6761   90.1   0.632  -19.6  0.1582  -24.4  0.5374 -121.2
 5.400  0.6823   88.5   0.618  -21.5  0.1564  -24.1  0.5414 -123.5
 5.500  0.6891   86.9   0.604  -23.5  0.1547  -23.7  0.5462 -125.7
 5.600  0.6948   85.4   0.590  -24.9  0.1541  -23.2  0.5476 -128.1
 5.700  0.7010   83.9   0.577  -26.3  0.1535  -22.8  0.5499 -130.4
 5.800  0.7077   82.5   0.564  -27.8  0.1529  -22.3  0.5531 -132.7
 5.900  0.7148   81.1   0.551  -29.4  0.1524  -21.8  0.5573 -135.0
 6.000  0.7223   79.7   0.539  -31.0  0.1518  -21.3  0.5623 -137.3
!
!  f       NFmin   Gammaopt  rn/50
! GHz       dB    MAG  ANG    -
!
! noise parameter not available yet for this operation point!
!
! (c) 2016  Infineon Technologies AG, Munich
