! Infineon Technologies  Discrete & RF Semiconductors
! BFP196
! VCE = 0.75V,  IC =  20mA
! Common Emitter S-Parameters:                            Jan 2016
# GHz  S  MA  R  50
!  f         S11            S21            S12            S22
! GHz     MAG   ANG      MAG   ANG      MAG   ANG      MAG   ANG
 0.010  0.4807  -28.2  43.793  169.6  0.0067   81.0  0.9286  -14.5
 0.015  0.4818  -40.7  42.269  164.3  0.0102   73.3  0.9010  -20.9
 0.020  0.5052  -52.6  41.136  158.6  0.0138   69.5  0.8853  -27.6
 0.025  0.4949  -61.4  39.319  155.5  0.0158   64.8  0.8408  -32.0
 0.030  0.4967  -70.4  37.628  152.1  0.0178   61.1  0.8019  -36.8
 0.035  0.5105  -79.2  36.080  148.4  0.0199   58.2  0.7692  -42.1
 0.040  0.5353  -87.2  34.695  144.4  0.0220   55.8  0.7436  -47.9
 0.045  0.5698  -94.5  33.493  140.1  0.0242   53.9  0.7259  -53.9
 0.050  0.6122 -100.8  32.494  135.5  0.0264   52.3  0.7167  -60.2
 0.055  0.6082 -104.8  31.220  134.1  0.0272   50.6  0.6887  -62.6
 0.060  0.6071 -108.8  29.964  132.7  0.0279   49.1  0.6620  -65.2
 0.065  0.6089 -112.7  28.730  131.1  0.0287   47.6  0.6367  -67.9
 0.070  0.6137 -116.7  27.521  129.3  0.0296   46.2  0.6131  -71.0
 0.075  0.6213 -120.6  26.339  127.4  0.0304   44.8  0.5913  -74.2
 0.080  0.6317 -124.3  25.189  125.4  0.0313   43.6  0.5715  -77.7
 0.085  0.6448 -127.9  24.075  123.1  0.0321   42.4  0.5540  -81.4
 0.090  0.6602 -131.4  23.002  120.6  0.0330   41.3  0.5389  -85.3
 0.095  0.6780 -134.7  21.977  117.9  0.0339   40.2  0.5266  -89.5
 0.100  0.6979 -137.8  21.006  114.9  0.0348   39.2  0.5171  -93.8
 0.105  0.6981 -139.4  20.371  114.2  0.0352   38.8  0.5058  -95.4
 0.110  0.6989 -141.0  19.740  113.4  0.0355   38.5  0.4949  -97.0
 0.115  0.7002 -142.6  19.112  112.5  0.0359   38.1  0.4845  -98.7
 0.120  0.7020 -144.2  18.490  111.6  0.0363   37.8  0.4744 -100.5
 0.125  0.7044 -145.8  17.872  110.6  0.0366   37.4  0.4649 -102.4
 0.130  0.7074 -147.4  17.259  109.6  0.0370   37.1  0.4559 -104.4
 0.135  0.7108 -148.9  16.653  108.5  0.0374   36.7  0.4475 -106.4
 0.140  0.7148 -150.5  16.053  107.3  0.0378   36.4  0.4396 -108.5
 0.145  0.7193 -152.0  15.462  106.0  0.0381   36.1  0.4323 -110.7
 0.150  0.7243 -153.5  14.878  104.6  0.0385   35.8  0.4257 -112.9
 0.155  0.7246 -154.4  14.533  104.1  0.0388   35.8  0.4203 -114.0
 0.160  0.7252 -155.3  14.190  103.6  0.0390   35.8  0.4150 -115.2
 0.165  0.7259 -156.3  13.848  103.0  0.0393   35.9  0.4100 -116.4
 0.170  0.7268 -157.2  13.507  102.4  0.0396   35.9  0.4051 -117.7
 0.175  0.7278 -158.1  13.167  101.8  0.0398   35.9  0.4004 -118.9
 0.180  0.7291 -159.0  12.829  101.2  0.0401   35.9  0.3959 -120.2
 0.185  0.7306 -159.9  12.493  100.5  0.0404   35.9  0.3916 -121.6
 0.190  0.7322 -160.8  12.159   99.8  0.0407   36.0  0.3876 -122.9
 0.195  0.7340 -161.7  11.827   99.0  0.0409   36.0  0.3837 -124.3
 0.200  0.7360 -162.6  11.497   98.2  0.0412   36.0  0.3801 -125.7
 0.220  0.7361 -165.2  10.586   96.7  0.0423   36.5  0.3689 -129.3
 0.240  0.7378 -167.9   9.685   94.8  0.0434   36.9  0.3594 -133.2
 0.260  0.7399 -170.1   8.940   93.2  0.0444   37.5  0.3522 -136.4
 0.280  0.7418 -172.0   8.346   92.0  0.0455   38.2  0.3467 -138.8
 0.300  0.7446 -173.9   7.757   90.5  0.0465   38.9  0.3418 -141.3
 0.320  0.7447 -175.3   7.378   89.7  0.0476   39.7  0.3382 -143.1
 0.340  0.7453 -176.8   7.001   88.8  0.0487   40.5  0.3349 -144.9
 0.360  0.7464 -178.2   6.626   87.7  0.0498   41.2  0.3319 -146.7
 0.380  0.7479 -179.7   6.254   86.6  0.0509   41.9  0.3293 -148.6
 0.400  0.7499  178.9   5.884   85.3  0.0520   42.6  0.3271 -150.5
 0.420  0.7499  177.9   5.648   84.6  0.0532   43.2  0.3255 -151.7
 0.440  0.7501  176.9   5.414   83.8  0.0544   43.8  0.3240 -152.9
 0.450  0.7503  176.3   5.297   83.3  0.0550   44.0  0.3233 -153.5
 0.460  0.7505  175.8   5.180   82.9  0.0556   44.3  0.3227 -154.1
 0.480  0.7512  174.8   4.948   81.9  0.0568   44.8  0.3215 -155.4
 0.500  0.7521  173.8   4.717   80.9  0.0580   45.3  0.3205 -156.6
 0.520  0.7509  172.8   4.560   80.1  0.0594   45.9  0.3199 -157.4
 0.540  0.7499  171.8   4.404   79.3  0.0609   46.5  0.3194 -158.2
 0.560  0.7492  170.9   4.249   78.5  0.0624   47.0  0.3190 -159.0
 0.580  0.7486  169.9   4.095   77.5  0.0638   47.5  0.3186 -159.8
 0.600  0.7483  168.9   3.942   76.5  0.0653   48.0  0.3183 -160.6
 0.620  0.7492  167.9   3.830   75.8  0.0666   48.2  0.3182 -161.2
 0.640  0.7502  166.9   3.719   75.0  0.0679   48.3  0.3181 -161.8
 0.660  0.7515  165.9   3.609   74.2  0.0693   48.5  0.3181 -162.5
 0.680  0.7531  165.0   3.500   73.3  0.0706   48.7  0.3181 -163.1
 0.700  0.7548  164.0   3.391   72.4  0.0719   48.8  0.3181 -163.7
 0.720  0.7554  163.4   3.307   71.8  0.0734   49.0  0.3184 -164.2
 0.740  0.7561  162.8   3.223   71.2  0.0750   49.1  0.3187 -164.7
 0.760  0.7569  162.1   3.139   70.5  0.0765   49.2  0.3190 -165.2
 0.780  0.7577  161.5   3.056   69.8  0.0781   49.4  0.3194 -165.7
 0.800  0.7587  160.9   2.973   69.1  0.0796   49.5  0.3198 -166.2
 0.820  0.7569  160.0   2.908   68.5  0.0811   49.7  0.3198 -166.7
 0.840  0.7552  159.2   2.844   67.8  0.0826   49.8  0.3198 -167.1
 0.860  0.7538  158.3   2.780   67.2  0.0842   50.0  0.3199 -167.6
 0.880  0.7525  157.4   2.716   66.4  0.0857   50.2  0.3199 -168.0
 0.900  0.7514  156.5   2.653   65.7  0.0872   50.3  0.3200 -168.5
 0.920  0.7518  155.7   2.600   65.1  0.0887   50.4  0.3206 -168.9
 0.940  0.7524  155.0   2.548   64.5  0.0902   50.4  0.3213 -169.2
 0.960  0.7530  154.2   2.496   63.8  0.0916   50.5  0.3219 -169.6
 0.980  0.7539  153.5   2.444   63.1  0.0931   50.5  0.3226 -169.9
 1.000  0.7548  152.7   2.393   62.4  0.0946   50.6  0.3233 -170.3
 1.020  0.7558  152.0   2.351   61.8  0.0961   50.6  0.3240 -170.6
 1.040  0.7568  151.3   2.309   61.2  0.0977   50.6  0.3247 -170.9
 1.060  0.7580  150.7   2.267   60.5  0.0992   50.5  0.3254 -171.3
 1.080  0.7593  150.0   2.226   59.8  0.1008   50.5  0.3262 -171.6
 1.100  0.7607  149.3   2.185   59.1  0.1023   50.5  0.3269 -171.9
 1.120  0.7615  148.6   2.150   58.5  0.1037   50.4  0.3274 -172.2
 1.140  0.7624  147.9   2.114   57.9  0.1051   50.3  0.3279 -172.5
 1.160  0.7634  147.1   2.079   57.3  0.1065   50.3  0.3285 -172.9
 1.180  0.7645  146.4   2.044   56.7  0.1079   50.2  0.3290 -173.2
 1.200  0.7658  145.7   2.010   56.0  0.1093   50.1  0.3296 -173.5
 1.220  0.7660  145.0   1.980   55.4  0.1109   49.9  0.3302 -173.8
 1.240  0.7664  144.4   1.950   54.8  0.1124   49.7  0.3309 -174.1
 1.260  0.7668  143.7   1.920   54.1  0.1140   49.5  0.3316 -174.4
 1.280  0.7674  143.1   1.891   53.5  0.1155   49.4  0.3322 -174.7
 1.300  0.7680  142.4   1.862   52.8  0.1171   49.2  0.3329 -175.0
 1.320  0.7690  141.8   1.835   52.3  0.1185   49.1  0.3336 -175.2
 1.340  0.7700  141.2   1.808   51.8  0.1199   49.0  0.3342 -175.4
 1.360  0.7711  140.6   1.781   51.2  0.1214   48.8  0.3349 -175.7
 1.380  0.7723  140.0   1.754   50.7  0.1228   48.7  0.3356 -175.9
 1.400  0.7736  139.4   1.728   50.1  0.1242   48.6  0.3363 -176.1
 1.420  0.7727  138.8   1.709   49.5  0.1257   48.5  0.3372 -176.3
 1.440  0.7719  138.2   1.690   48.9  0.1272   48.4  0.3381 -176.5
 1.460  0.7712  137.5   1.671   48.3  0.1288   48.2  0.3390 -176.8
 1.480  0.7706  136.9   1.652   47.7  0.1303   48.1  0.3399 -177.0
 1.500  0.7701  136.3   1.634   47.1  0.1318   48.0  0.3408 -177.2
 1.520  0.7718  135.7   1.612   46.5  0.1333   47.8  0.3417 -177.5
 1.540  0.7735  135.0   1.589   45.9  0.1347   47.5  0.3426 -177.8
 1.560  0.7754  134.4   1.567   45.4  0.1362   47.3  0.3436 -178.2
 1.580  0.7773  133.7   1.546   44.7  0.1376   47.1  0.3445 -178.5
 1.600  0.7794  133.1   1.524   44.1  0.1391   46.9  0.3455 -178.8
 1.620  0.7793  132.4   1.506   43.5  0.1405   46.7  0.3462 -179.1
 1.640  0.7792  131.8   1.489   42.9  0.1419   46.5  0.3470 -179.4
 1.660  0.7793  131.1   1.471   42.3  0.1434   46.3  0.3477 -179.8
 1.680  0.7794  130.5   1.454   41.7  0.1448   46.2  0.3485  179.9
 1.700  0.7797  129.8   1.437   41.1  0.1462   46.0  0.3493  179.6
 1.720  0.7808  129.2   1.423   40.7  0.1476   45.8  0.3501  179.4
 1.740  0.7819  128.6   1.410   40.2  0.1490   45.5  0.3509  179.2
 1.760  0.7831  128.1   1.397   39.7  0.1504   45.3  0.3517  179.1
 1.780  0.7844  127.5   1.383   39.3  0.1518   45.0  0.3525  178.9
 1.800  0.7858  126.9   1.370   38.8  0.1532   44.8  0.3533  178.7
 1.820  0.7860  126.4   1.356   38.2  0.1547   44.6  0.3548  178.4
 1.840  0.7864  125.8   1.342   37.7  0.1562   44.3  0.3563  178.2
 1.860  0.7867  125.3   1.328   37.1  0.1576   44.1  0.3578  177.9
 1.880  0.7872  124.7   1.314   36.5  0.1591   43.9  0.3593  177.7
 1.900  0.7877  124.2   1.300   35.9  0.1606   43.7  0.3608  177.4
 1.920  0.7888  123.6   1.287   35.4  0.1619   43.4  0.3619  177.1
 1.940  0.7900  123.0   1.273   34.9  0.1632   43.2  0.3629  176.8
 1.960  0.7912  122.5   1.260   34.4  0.1645   42.9  0.3640  176.4
 1.980  0.7926  121.9   1.247   33.8  0.1659   42.7  0.3651  176.1
 2.000  0.7940  121.3   1.234   33.3  0.1672   42.4  0.3662  175.8
 2.020  0.7936  120.8   1.223   32.8  0.1685   42.2  0.3672  175.5
 2.040  0.7933  120.2   1.212   32.4  0.1698   41.9  0.3682  175.3
 2.060  0.7931  119.7   1.201   31.9  0.1711   41.7  0.3692  175.0
 2.080  0.7929  119.1   1.190   31.4  0.1724   41.4  0.3702  174.8
 2.100  0.7928  118.6   1.180   30.9  0.1738   41.2  0.3713  174.5
 2.120  0.7928  118.0   1.169   30.4  0.1751   41.0  0.3723  174.3
 2.140  0.7929  117.5   1.159   29.8  0.1764   40.8  0.3733  174.0
 2.160  0.7930  116.9   1.148   29.3  0.1777   40.5  0.3744  173.8
 2.180  0.7932  116.3   1.138   28.8  0.1791   40.3  0.3754  173.5
 2.200  0.7935  115.8   1.128   28.2  0.1804   40.1  0.3765  173.3
 2.220  0.7946  115.2   1.119   27.7  0.1816   39.8  0.3779  173.0
 2.240  0.7958  114.7   1.110   27.2  0.1829   39.6  0.3793  172.6
 2.260  0.7971  114.1   1.101   26.7  0.1841   39.3  0.3807  172.3
 2.280  0.7985  113.6   1.093   26.2  0.1854   39.0  0.3822  171.9
 2.300  0.7999  113.0   1.084   25.7  0.1866   38.8  0.3836  171.6
 2.320  0.8014  112.5   1.075   25.2  0.1879   38.5  0.3851  171.3
 2.340  0.8029  111.9   1.067   24.6  0.1891   38.2  0.3866  171.0
 2.360  0.8046  111.4   1.058   24.1  0.1904   38.0  0.3881  170.6
 2.380  0.8063  110.8   1.050   23.6  0.1916   37.7  0.3896  170.3
 2.400  0.8081  110.3   1.042   23.0  0.1929   37.5  0.3911  170.0
 2.420  0.8085  109.8   1.034   22.6  0.1940   37.2  0.3922  169.7
 2.440  0.8090  109.3   1.026   22.2  0.1952   36.9  0.3934  169.5
 2.460  0.8096  108.8   1.018   21.8  0.1963   36.7  0.3946  169.2
 2.480  0.8102  108.3   1.010   21.3  0.1975   36.4  0.3957  169.0
 2.500  0.8108  107.8   1.002   20.9  0.1986   36.1  0.3969  168.7
 2.520  0.8116  107.3   0.994   20.4  0.1998   35.8  0.3981  168.5
 2.540  0.8124  106.8   0.987   20.0  0.2010   35.6  0.3993  168.2
 2.560  0.8132  106.3   0.979   19.5  0.2021   35.3  0.4005  168.0
 2.580  0.8141  105.8   0.972   19.1  0.2033   35.1  0.4017  167.7
 2.600  0.8151  105.3   0.964   18.6  0.2045   34.8  0.4029  167.5
 2.620  0.8155  104.8   0.957   18.2  0.2057   34.5  0.4045  167.2
 2.640  0.8159  104.3   0.951   17.8  0.2068   34.3  0.4062  166.9
 2.660  0.8164  103.8   0.944   17.3  0.2080   34.0  0.4079  166.5
 2.680  0.8169  103.3   0.937   16.9  0.2091   33.8  0.4096  166.2
 2.700  0.8175  102.8   0.931   16.5  0.2103   33.5  0.4112  165.9
 2.720  0.8182  102.3   0.924   16.0  0.2115   33.3  0.4130  165.6
 2.740  0.8189  101.8   0.918   15.6  0.2126   33.0  0.4147  165.3
 2.760  0.8197  101.3   0.912   15.1  0.2138   32.8  0.4164  165.0
 2.780  0.8206  100.8   0.905   14.7  0.2150   32.5  0.4181  164.7
 2.800  0.8215  100.3   0.899   14.2  0.2162   32.3  0.4199  164.4
 2.820  0.8217   99.9   0.893   13.8  0.2172   32.0  0.4212  164.1
 2.840  0.8219   99.4   0.886   13.4  0.2182   31.7  0.4226  163.8
 2.860  0.8222   99.0   0.880   12.9  0.2192   31.4  0.4239  163.5
 2.880  0.8226   98.5   0.874   12.5  0.2203   31.1  0.4253  163.3
 2.900  0.8229   98.1   0.868   12.1  0.2213   30.8  0.4266  163.0
 2.920  0.8234   97.7   0.862   11.6  0.2223   30.5  0.4280  162.7
 2.940  0.8239   97.2   0.856   11.2  0.2234   30.2  0.4294  162.4
 2.960  0.8244   96.8   0.850   10.7  0.2244   30.0  0.4308  162.1
 2.980  0.8250   96.3   0.844   10.3  0.2254   29.7  0.4322  161.9
 3.000  0.8256   95.9   0.838    9.8  0.2265   29.4  0.4336  161.6
 3.100  0.8279   93.9   0.812    8.3  0.2308   28.0  0.4409  160.1
 3.200  0.8311   92.0   0.787    6.7  0.2352   26.7  0.4484  158.6
 3.300  0.8353   90.0   0.763    5.0  0.2397   25.4  0.4563  157.1
 3.400  0.8404   88.1   0.739    3.1  0.2443   24.2  0.4644  155.7
 3.500  0.8465   86.2   0.716    1.2  0.2491   23.0  0.4728  154.4
 3.600  0.8464   84.4   0.698   -0.2  0.2527   21.8  0.4801  153.0
 3.700  0.8471   82.6   0.680   -1.6  0.2565   20.6  0.4877  151.6
 3.800  0.8487   80.8   0.663   -3.1  0.2604   19.4  0.4956  150.3
 3.900  0.8510   79.1   0.646   -4.6  0.2643   18.3  0.5038  149.0
 4.000  0.8542   77.3   0.630   -6.3  0.2684   17.2  0.5122  147.7
 4.100  0.8550   75.7   0.617   -7.5  0.2719   16.0  0.5180  146.4
 4.200  0.8565   74.2   0.604   -8.7  0.2755   14.8  0.5241  145.2
 4.300  0.8585   72.7   0.591   -9.9  0.2793   13.7  0.5304  144.0
 4.400  0.8612   71.1   0.578  -11.2  0.2831   12.6  0.5369  142.8
 4.500  0.8645   69.6   0.566  -12.6  0.2871   11.5  0.5437  141.7
 4.600  0.8644   68.4   0.557  -13.5  0.2901   10.4  0.5488  140.6
 4.700  0.8647   67.1   0.548  -14.5  0.2932    9.3  0.5541  139.4
 4.800  0.8654   65.9   0.539  -15.5  0.2964    8.2  0.5596  138.3
 4.900  0.8666   64.6   0.530  -16.5  0.2998    7.1  0.5653  137.3
 5.000  0.8681   63.4   0.522  -17.6  0.3032    6.1  0.5712  136.2
 5.100  0.8696   62.2   0.514  -18.3  0.3064    5.0  0.5766  135.1
 5.200  0.8714   61.0   0.507  -19.0  0.3096    3.9  0.5823  133.9
 5.300  0.8736   59.8   0.499  -19.8  0.3130    2.9  0.5881  132.8
 5.400  0.8762   58.7   0.491  -20.5  0.3165    1.8  0.5942  131.8
 5.500  0.8791   57.5   0.484  -21.3  0.3201    0.8  0.6005  130.7
 5.600  0.8779   56.4   0.479  -22.1  0.3228   -0.4  0.6050  129.5
 5.700  0.8769   55.4   0.475  -22.9  0.3257   -1.6  0.6098  128.4
 5.800  0.8763   54.3   0.471  -23.7  0.3286   -2.7  0.6148  127.3
 5.900  0.8759   53.3   0.466  -24.5  0.3318   -3.9  0.6200  126.2
 6.000  0.8759   52.2   0.462  -25.3  0.3350   -5.0  0.6255  125.1
!
!  f       NFmin   Gammaopt  rn/50
! GHz       dB    MAG  ANG    -
!
! noise parameter not available yet for this operation point!
!
! (c) 2016  Infineon Technologies AG, Munich
