! Infineon Technologies  Discrete & RF Semiconductors
! BFP181
! VCE = 1.0 V,  IC =  6.0 mA
! Common Emitter S-Parameters:                            Jan 2016
# GHz  S  MA  R  50
!  f         S11            S21            S12            S22
! GHz     MAG   ANG      MAG   ANG      MAG   ANG      MAG   ANG
 0.010  0.8080   -2.9  15.078  178.2  0.0015   88.9  0.9786   -0.9
 0.015  0.8109   -4.2  15.073  177.4  0.0024   85.6  0.9770   -1.5
 0.020  0.8141   -5.4  15.071  176.6  0.0034   84.2  0.9755   -2.1
 0.025  0.8113   -6.6  15.049  175.6  0.0042   84.5  0.9744   -2.6
 0.030  0.8089   -7.8  15.031  174.6  0.0051   84.7  0.9733   -3.2
 0.035  0.8068   -9.1  15.019  173.6  0.0059   84.8  0.9724   -3.7
 0.040  0.8051  -10.3  15.011  172.5  0.0068   85.0  0.9715   -4.3
 0.045  0.8038  -11.6  15.007  171.5  0.0076   85.0  0.9708   -4.8
 0.050  0.8029  -12.8  15.009  170.5  0.0085   85.1  0.9701   -5.4
 0.055  0.7984  -14.1  14.935  169.6  0.0092   83.5  0.9674   -5.9
 0.060  0.7942  -15.5  14.864  168.7  0.0100   82.2  0.9649   -6.4
 0.065  0.7905  -16.8  14.797  167.8  0.0107   81.0  0.9624   -6.9
 0.070  0.7873  -18.2  14.733  166.9  0.0115   80.0  0.9600   -7.4
 0.075  0.7845  -19.5  14.674  166.0  0.0122   79.2  0.9576   -8.0
 0.080  0.7822  -20.9  14.618  165.1  0.0130   78.4  0.9554   -8.5
 0.085  0.7803  -22.3  14.565  164.2  0.0137   77.7  0.9532   -9.0
 0.090  0.7789  -23.7  14.517  163.3  0.0145   77.1  0.9511   -9.5
 0.095  0.7779  -25.1  14.472  162.3  0.0152   76.5  0.9490  -10.1
 0.100  0.7774  -26.5  14.431  161.4  0.0160   76.0  0.9471  -10.6
 0.105  0.7731  -27.7  14.355  160.6  0.0167   75.2  0.9434  -11.0
 0.110  0.7690  -28.9  14.282  159.7  0.0175   74.4  0.9398  -11.5
 0.115  0.7654  -30.1  14.212  158.9  0.0183   73.7  0.9362  -11.9
 0.120  0.7621  -31.4  14.146  158.0  0.0190   73.1  0.9327  -12.4
 0.125  0.7592  -32.6  14.082  157.1  0.0198   72.5  0.9292  -12.9
 0.130  0.7566  -33.9  14.022  156.3  0.0205   71.9  0.9258  -13.3
 0.135  0.7544  -35.2  13.965  155.4  0.0213   71.4  0.9225  -13.8
 0.140  0.7525  -36.4  13.912  154.5  0.0221   71.0  0.9192  -14.3
 0.145  0.7511  -37.7  13.862  153.6  0.0228   70.5  0.9160  -14.7
 0.150  0.7500  -39.0  13.815  152.7  0.0236   70.1  0.9128  -15.2
 0.155  0.7449  -40.2  13.734  151.9  0.0242   69.5  0.9087  -15.6
 0.160  0.7401  -41.3  13.654  151.2  0.0248   68.9  0.9047  -16.0
 0.165  0.7356  -42.5  13.578  150.4  0.0254   68.3  0.9006  -16.3
 0.170  0.7314  -43.7  13.504  149.6  0.0260   67.8  0.8967  -16.7
 0.175  0.7275  -44.9  13.432  148.9  0.0266   67.3  0.8927  -17.1
 0.180  0.7240  -46.1  13.363  148.1  0.0272   66.8  0.8888  -17.5
 0.185  0.7208  -47.3  13.296  147.3  0.0278   66.4  0.8850  -17.9
 0.190  0.7179  -48.6  13.233  146.4  0.0285   65.9  0.8812  -18.3
 0.195  0.7154  -49.8  13.171  145.6  0.0291   65.5  0.8774  -18.7
 0.200  0.7132  -51.1  13.113  144.8  0.0297   65.1  0.8737  -19.1
 0.220  0.6968  -55.0  12.722  142.1  0.0316   63.1  0.8557  -20.4
 0.240  0.6838  -59.1  12.361  139.2  0.0334   61.2  0.8383  -21.8
 0.260  0.6711  -63.1  12.026  136.6  0.0353   59.6  0.8215  -23.0
 0.280  0.6583  -67.0  11.704  134.4  0.0371   58.1  0.8053  -23.9
 0.300  0.6488  -71.1  11.401  132.1  0.0389   56.7  0.7894  -24.9
 0.320  0.6304  -74.3  11.061  130.1  0.0402   55.4  0.7749  -25.6
 0.340  0.6142  -77.7  10.734  128.0  0.0414   54.1  0.7605  -26.3
 0.360  0.6002  -81.3  10.424  125.8  0.0427   52.9  0.7462  -27.0
 0.380  0.5886  -85.0  10.130  123.4  0.0441   51.8  0.7321  -27.8
 0.400  0.5797  -88.9   9.854  120.9  0.0454   50.8  0.7181  -28.6
 0.420  0.5666  -91.8   9.568  119.4  0.0463   49.9  0.7064  -29.0
 0.440  0.5549  -94.8   9.289  117.8  0.0472   49.0  0.6948  -29.5
 0.450  0.5497  -96.3   9.153  116.9  0.0477   48.6  0.6890  -29.7
 0.460  0.5449  -97.9   9.018  116.0  0.0482   48.2  0.6832  -29.9
 0.480  0.5365 -101.1   8.756  114.2  0.0491   47.4  0.6717  -30.4
 0.500  0.5298 -104.4   8.503  112.3  0.0501   46.6  0.6602  -30.9
 0.520  0.5207 -106.7   8.296  111.1  0.0508   46.1  0.6514  -31.2
 0.540  0.5125 -109.0   8.093  109.8  0.0515   45.6  0.6427  -31.5
 0.560  0.5051 -111.5   7.894  108.4  0.0522   45.1  0.6339  -31.8
 0.580  0.4987 -113.9   7.700  107.0  0.0529   44.7  0.6252  -32.1
 0.600  0.4933 -116.5   7.511  105.5  0.0536   44.2  0.6165  -32.4
 0.620  0.4872 -118.6   7.324  104.5  0.0543   43.9  0.6101  -32.6
 0.640  0.4817 -120.8   7.140  103.4  0.0551   43.5  0.6038  -32.8
 0.660  0.4770 -123.1   6.959  102.2  0.0558   43.2  0.5974  -33.0
 0.680  0.4730 -125.4   6.780  101.0  0.0566   42.9  0.5910  -33.2
 0.700  0.4698 -127.7   6.605   99.7  0.0573   42.6  0.5847  -33.4
 0.720  0.4644 -129.7   6.472   98.7  0.0578   42.4  0.5798  -33.5
 0.740  0.4596 -131.7   6.340   97.7  0.0583   42.1  0.5750  -33.7
 0.760  0.4554 -133.8   6.211   96.7  0.0588   41.9  0.5701  -33.8
 0.780  0.4518 -135.9   6.083   95.6  0.0593   41.6  0.5653  -34.0
 0.800  0.4488 -138.0   5.958   94.5  0.0598   41.4  0.5604  -34.1
 0.820  0.4456 -139.8   5.841   93.7  0.0604   41.3  0.5564  -34.2
 0.840  0.4428 -141.6   5.725   92.8  0.0610   41.2  0.5524  -34.4
 0.860  0.4405 -143.5   5.611   91.9  0.0616   41.0  0.5485  -34.5
 0.880  0.4387 -145.3   5.498   90.9  0.0622   40.9  0.5445  -34.7
 0.900  0.4373 -147.2   5.387   89.9  0.0628   40.8  0.5405  -34.8
 0.920  0.4346 -149.0   5.284   89.1  0.0632   40.7  0.5372  -34.9
 0.940  0.4324 -150.9   5.182   88.3  0.0636   40.6  0.5340  -35.1
 0.960  0.4306 -152.8   5.082   87.4  0.0640   40.5  0.5307  -35.2
 0.980  0.4293 -154.7   4.982   86.5  0.0644   40.4  0.5275  -35.4
 1.000  0.4285 -156.6   4.884   85.6  0.0648   40.3  0.5242  -35.5
 1.020  0.4270 -158.1   4.807   84.9  0.0654   40.3  0.5218  -35.7
 1.040  0.4257 -159.5   4.730   84.1  0.0660   40.3  0.5194  -35.9
 1.060  0.4248 -161.0   4.655   83.3  0.0666   40.4  0.5170  -36.0
 1.080  0.4241 -162.5   4.581   82.5  0.0672   40.4  0.5146  -36.2
 1.100  0.4237 -164.0   4.507   81.6  0.0678   40.4  0.5122  -36.4
 1.120  0.4221 -165.4   4.433   81.0  0.0684   40.3  0.5101  -36.6
 1.140  0.4208 -166.8   4.360   80.3  0.0690   40.2  0.5081  -36.8
 1.160  0.4198 -168.2   4.288   79.6  0.0696   40.1  0.5060  -36.9
 1.180  0.4190 -169.6   4.216   78.9  0.0702   40.0  0.5039  -37.1
 1.200  0.4184 -171.0   4.145   78.2  0.0708   39.9  0.5019  -37.3
 1.220  0.4183 -172.1   4.084   77.6  0.0713   39.9  0.5003  -37.5
 1.240  0.4184 -173.2   4.023   76.9  0.0718   39.9  0.4986  -37.6
 1.260  0.4186 -174.4   3.962   76.2  0.0724   39.9  0.4970  -37.8
 1.280  0.4190 -175.5   3.902   75.5  0.0729   39.9  0.4954  -37.9
 1.300  0.4195 -176.6   3.843   74.8  0.0734   39.9  0.4938  -38.1
 1.320  0.4192 -177.9   3.794   74.2  0.0739   39.9  0.4923  -38.3
 1.340  0.4192 -179.2   3.746   73.6  0.0744   40.0  0.4907  -38.5
 1.360  0.4194  179.5   3.698   73.0  0.0748   40.0  0.4892  -38.8
 1.380  0.4198  178.2   3.651   72.4  0.0753   40.1  0.4877  -39.0
 1.400  0.4204  176.9   3.604   71.8  0.0758   40.1  0.4862  -39.2
 1.420  0.4209  175.9   3.557   71.1  0.0764   40.1  0.4849  -39.4
 1.440  0.4216  174.9   3.511   70.5  0.0770   40.1  0.4835  -39.6
 1.460  0.4224  173.9   3.466   69.8  0.0775   40.0  0.4822  -39.7
 1.480  0.4233  172.9   3.421   69.0  0.0781   40.0  0.4808  -39.9
 1.500  0.4244  171.9   3.376   68.3  0.0787   40.0  0.4795  -40.1
 1.520  0.4240  170.8   3.336   67.7  0.0792   39.9  0.4788  -40.3
 1.540  0.4238  169.7   3.295   67.2  0.0798   39.9  0.4780  -40.6
 1.560  0.4237  168.6   3.256   66.6  0.0803   39.8  0.4773  -40.8
 1.580  0.4238  167.5   3.216   66.0  0.0809   39.8  0.4766  -41.1
 1.600  0.4240  166.4   3.177   65.4  0.0814   39.7  0.4759  -41.3
 1.620  0.4249  165.3   3.138   64.8  0.0820   39.6  0.4748  -41.6
 1.640  0.4259  164.2   3.099   64.2  0.0826   39.5  0.4736  -41.8
 1.660  0.4271  163.1   3.060   63.6  0.0831   39.5  0.4725  -42.1
 1.680  0.4285  162.1   3.022   63.0  0.0837   39.4  0.4714  -42.3
 1.700  0.4300  161.0   2.984   62.4  0.0843   39.3  0.4703  -42.6
 1.720  0.4312  160.0   2.952   61.8  0.0848   39.3  0.4694  -42.8
 1.740  0.4326  159.1   2.921   61.2  0.0853   39.3  0.4686  -43.1
 1.760  0.4340  158.1   2.889   60.6  0.0859   39.4  0.4677  -43.3
 1.780  0.4356  157.1   2.859   60.0  0.0864   39.4  0.4668  -43.6
 1.800  0.4373  156.2   2.828   59.4  0.0869   39.4  0.4660  -43.8
 1.820  0.4378  155.3   2.798   58.9  0.0875   39.3  0.4650  -44.0
 1.840  0.4383  154.5   2.768   58.4  0.0881   39.2  0.4639  -44.3
 1.860  0.4390  153.6   2.739   57.8  0.0887   39.1  0.4629  -44.5
 1.880  0.4397  152.8   2.710   57.3  0.0893   39.0  0.4619  -44.8
 1.900  0.4406  151.9   2.681   56.7  0.0899   38.9  0.4609  -45.0
 1.920  0.4415  151.1   2.653   56.2  0.0904   38.9  0.4601  -45.3
 1.940  0.4425  150.3   2.625   55.7  0.0909   38.9  0.4593  -45.6
 1.960  0.4436  149.5   2.597   55.1  0.0914   38.8  0.4586  -45.8
 1.980  0.4447  148.7   2.569   54.6  0.0919   38.8  0.4578  -46.1
 2.000  0.4460  147.9   2.542   54.0  0.0924   38.8  0.4571  -46.4
 2.020  0.4473  147.1   2.519   53.5  0.0930   38.7  0.4563  -46.7
 2.040  0.4487  146.3   2.497   53.0  0.0936   38.7  0.4554  -47.0
 2.060  0.4502  145.5   2.474   52.5  0.0942   38.6  0.4546  -47.3
 2.080  0.4518  144.8   2.452   52.0  0.0948   38.6  0.4538  -47.6
 2.100  0.4535  144.0   2.430   51.5  0.0954   38.5  0.4530  -47.9
 2.120  0.4552  143.2   2.408   51.0  0.0960   38.5  0.4523  -48.2
 2.140  0.4570  142.4   2.387   50.5  0.0966   38.4  0.4515  -48.6
 2.160  0.4590  141.7   2.365   49.9  0.0972   38.4  0.4508  -48.9
 2.180  0.4609  140.9   2.344   49.4  0.0978   38.3  0.4500  -49.2
 2.200  0.4630  140.2   2.323   48.8  0.0984   38.3  0.4493  -49.5
 2.220  0.4641  139.4   2.303   48.3  0.0990   38.2  0.4486  -49.8
 2.240  0.4653  138.7   2.283   47.9  0.0996   38.1  0.4478  -50.1
 2.260  0.4665  137.9   2.263   47.4  0.1001   38.0  0.4471  -50.4
 2.280  0.4678  137.1   2.244   46.9  0.1007   37.9  0.4464  -50.7
 2.300  0.4692  136.4   2.224   46.4  0.1013   37.8  0.4457  -51.0
 2.320  0.4707  135.6   2.205   45.9  0.1019   37.7  0.4450  -51.3
 2.340  0.4723  134.9   2.186   45.4  0.1025   37.7  0.4443  -51.7
 2.360  0.4740  134.2   2.167   44.9  0.1030   37.6  0.4437  -52.0
 2.380  0.4757  133.4   2.149   44.3  0.1036   37.5  0.4430  -52.3
 2.400  0.4775  132.7   2.130   43.8  0.1042   37.4  0.4424  -52.6
 2.420  0.4790  132.1   2.113   43.4  0.1047   37.3  0.4415  -52.9
 2.440  0.4807  131.4   2.095   42.9  0.1052   37.2  0.4406  -53.2
 2.460  0.4823  130.8   2.078   42.4  0.1058   37.2  0.4397  -53.6
 2.480  0.4840  130.2   2.061   42.0  0.1063   37.1  0.4389  -53.9
 2.500  0.4858  129.6   2.045   41.5  0.1068   37.0  0.4380  -54.2
 2.520  0.4876  129.0   2.028   41.0  0.1073   36.9  0.4372  -54.6
 2.540  0.4895  128.4   2.012   40.5  0.1078   36.8  0.4364  -54.9
 2.560  0.4915  127.8   1.995   40.0  0.1084   36.8  0.4356  -55.2
 2.580  0.4935  127.2   1.979   39.5  0.1089   36.7  0.4348  -55.6
 2.600  0.4955  126.6   1.963   39.0  0.1094   36.6  0.4340  -55.9
 2.620  0.4972  126.0   1.948   38.5  0.1100   36.5  0.4333  -56.3
 2.640  0.4990  125.4   1.933   38.0  0.1106   36.4  0.4327  -56.6
 2.660  0.5008  124.8   1.918   37.6  0.1111   36.3  0.4321  -57.0
 2.680  0.5027  124.3   1.903   37.1  0.1117   36.1  0.4314  -57.3
 2.700  0.5046  123.7   1.889   36.5  0.1123   36.0  0.4308  -57.7
 2.720  0.5065  123.1   1.874   36.0  0.1129   35.9  0.4303  -58.0
 2.740  0.5086  122.6   1.860   35.5  0.1135   35.8  0.4297  -58.4
 2.760  0.5106  122.0   1.846   35.0  0.1140   35.7  0.4291  -58.8
 2.780  0.5127  121.4   1.832   34.4  0.1146   35.6  0.4286  -59.1
 2.800  0.5149  120.9   1.818   33.9  0.1152   35.5  0.4281  -59.5
 2.820  0.5164  120.3   1.806   33.5  0.1157   35.4  0.4272  -59.9
 2.840  0.5181  119.7   1.794   33.1  0.1163   35.3  0.4262  -60.2
 2.860  0.5197  119.1   1.782   32.6  0.1168   35.2  0.4253  -60.6
 2.880  0.5214  118.5   1.770   32.2  0.1173   35.1  0.4244  -60.9
 2.900  0.5232  117.9   1.758   31.8  0.1178   35.0  0.4235  -61.3
 2.920  0.5250  117.3   1.747   31.3  0.1184   34.9  0.4227  -61.6
 2.940  0.5269  116.7   1.735   30.9  0.1189   34.8  0.4218  -62.0
 2.960  0.5289  116.1   1.724   30.4  0.1194   34.7  0.4210  -62.4
 2.980  0.5309  115.6   1.712   30.0  0.1200   34.6  0.4202  -62.7
 3.000  0.5329  115.0   1.701   29.5  0.1205   34.5  0.4194  -63.1
 3.100  0.5406  112.5   1.645   27.6  0.1233   33.9  0.4158  -65.1
 3.200  0.5492  110.2   1.591   25.6  0.1261   33.3  0.4126  -67.1
 3.300  0.5588  107.9   1.539   23.5  0.1289   32.7  0.4101  -69.2
 3.400  0.5692  105.6   1.490   21.2  0.1317   32.2  0.4080  -71.3
 3.500  0.5805  103.5   1.443   18.7  0.1345   31.7  0.4065  -73.4
 3.600  0.5874  101.6   1.402   16.9  0.1371   31.0  0.4029  -75.6
 3.700  0.5950   99.7   1.362   15.0  0.1398   30.3  0.4000  -77.8
 3.800  0.6031   97.9   1.323   12.9  0.1425   29.6  0.3976  -80.1
 3.900  0.6119   96.1   1.287   10.8  0.1452   28.9  0.3959  -82.4
 4.000  0.6212   94.4   1.252    8.5  0.1479   28.3  0.3948  -84.7
 4.100  0.6271   92.7   1.217    6.8  0.1503   27.6  0.3921  -87.1
 4.200  0.6336   91.1   1.183    5.1  0.1526   26.8  0.3902  -89.5
 4.300  0.6406   89.4   1.151    3.2  0.1550   26.1  0.3889  -92.0
 4.400  0.6481   87.8   1.120    1.2  0.1575   25.5  0.3883  -94.4
 4.500  0.6561   86.3   1.090   -0.9  0.1599   24.8  0.3885  -96.9
 4.600  0.6615   84.9   1.063   -2.4  0.1622   24.2  0.3869  -99.3
 4.700  0.6672   83.6   1.037   -4.0  0.1646   23.5  0.3861 -101.7
 4.800  0.6733   82.3   1.012   -5.7  0.1670   22.9  0.3859 -104.2
 4.900  0.6797   81.0   0.988   -7.5  0.1694   22.4  0.3864 -106.6
 5.000  0.6865   79.7   0.965   -9.3  0.1718   21.8  0.3876 -109.0
 5.100  0.6904   78.6   0.943  -10.7  0.1745   21.1  0.3886 -111.5
 5.200  0.6946   77.5   0.922  -12.2  0.1773   20.3  0.3903 -114.0
 5.300  0.6991   76.4   0.901  -13.8  0.1801   19.6  0.3927 -116.4
 5.400  0.7038   75.4   0.881  -15.5  0.1829   19.0  0.3958 -118.8
 5.500  0.7087   74.3   0.862  -17.2  0.1858   18.3  0.3996 -121.2
 5.600  0.7138   73.2   0.843  -18.6  0.1882   17.5  0.4019 -123.7
 5.700  0.7191   72.1   0.824  -20.0  0.1907   16.7  0.4049 -126.1
 5.800  0.7247   71.0   0.806  -21.6  0.1932   15.9  0.4086 -128.5
 5.900  0.7305   69.9   0.789  -23.1  0.1957   15.1  0.4130 -130.8
 6.000  0.7366   68.9   0.772  -24.8  0.1983   14.4  0.4181 -133.1
!
!  f       NFmin   Gammaopt  rn/50
! GHz       dB    MAG  ANG    -
!
! noise parameter not available yet for this operation point!
!
! (c) 2016  Infineon Technologies AG, Munich
