! Infineon Technologies  Discrete & RF Semiconductors
! BFP196W
! VCE = 0.50V,  IC =  30mA
! Common Emitter S-Parameters:                            Jan 2016
# GHz  S  MA  R  50
!  f         S11            S21            S12            S22
! GHz     MAG   ANG      MAG   ANG      MAG   ANG      MAG   ANG
 0.010  0.3680  -57.8  51.515  162.0  0.0086   73.3  0.8382  -26.1
 0.015  0.4172  -77.8  48.855  155.6  0.0122   64.8  0.7964  -37.5
 0.020  0.5044  -92.2  46.865  148.6  0.0160   60.3  0.7890  -49.7
 0.025  0.5498 -102.9  43.759  143.5  0.0181   54.9  0.7484  -58.9
 0.030  0.6113 -111.8  41.056  137.6  0.0203   50.7  0.7288  -68.8
 0.035  0.6303 -118.2  38.246  134.6  0.0214   47.3  0.6906  -75.0
 0.040  0.6568 -124.2  35.554  131.2  0.0226   44.2  0.6613  -81.8
 0.045  0.6898 -129.7  33.008  127.3  0.0238   41.5  0.6420  -89.1
 0.050  0.7285 -134.6  30.645  122.7  0.0251   39.0  0.6337  -96.7
 0.055  0.7320 -137.0  29.284  121.7  0.0255   37.8  0.6160  -99.5
 0.060  0.7368 -139.3  27.932  120.7  0.0258   36.7  0.5998 -102.5
 0.065  0.7428 -141.7  26.591  119.5  0.0262   35.6  0.5854 -105.6
 0.070  0.7501 -143.9  25.262  118.2  0.0266   34.6  0.5727 -108.8
 0.075  0.7584 -146.2  23.947  116.8  0.0270   33.6  0.5620 -112.2
 0.080  0.7679 -148.4  22.648  115.2  0.0275   32.6  0.5533 -115.7
 0.085  0.7785 -150.5  21.369  113.5  0.0279   31.6  0.5468 -119.3
 0.090  0.7902 -152.6  20.113  111.4  0.0283   30.7  0.5425 -123.0
 0.095  0.8028 -154.6  18.884  109.2  0.0288   29.8  0.5404 -126.8
 0.100  0.8164 -156.5  17.690  106.6  0.0292   28.9  0.5407 -130.5
 0.105  0.8179 -157.5  17.125  106.0  0.0294   28.7  0.5362 -132.0
 0.110  0.8196 -158.4  16.561  105.5  0.0295   28.5  0.5320 -133.5
 0.115  0.8216 -159.4  15.999  104.8  0.0297   28.3  0.5282 -135.0
 0.120  0.8238 -160.4  15.440  104.2  0.0298   28.1  0.5248 -136.5
 0.125  0.8262 -161.3  14.882  103.4  0.0300   27.9  0.5217 -138.1
 0.130  0.8289 -162.3  14.327  102.6  0.0302   27.7  0.5191 -139.7
 0.135  0.8317 -163.2  13.775  101.8  0.0303   27.5  0.5168 -141.3
 0.140  0.8348 -164.2  13.227  100.9  0.0305   27.4  0.5150 -142.9
 0.145  0.8382 -165.1  12.682   99.9  0.0306   27.2  0.5135 -144.5
 0.150  0.8417 -166.0  12.141   98.8  0.0308   27.0  0.5125 -146.1
 0.155  0.8420 -166.5  11.842   98.5  0.0309   27.2  0.5111 -146.9
 0.160  0.8423 -166.9  11.543   98.2  0.0311   27.4  0.5099 -147.7
 0.165  0.8426 -167.4  11.244   97.8  0.0312   27.6  0.5087 -148.6
 0.170  0.8431 -167.9  10.946   97.5  0.0314   27.8  0.5076 -149.4
 0.175  0.8435 -168.4  10.648   97.1  0.0315   28.0  0.5067 -150.2
 0.180  0.8441 -168.8  10.351   96.7  0.0317   28.2  0.5058 -151.0
 0.185  0.8447 -169.3  10.054   96.2  0.0318   28.3  0.5051 -151.9
 0.190  0.8453 -169.8   9.758   95.8  0.0320   28.5  0.5044 -152.7
 0.195  0.8460 -170.2   9.463   95.3  0.0321   28.7  0.5039 -153.6
 0.200  0.8468 -170.7   9.168   94.8  0.0323   28.9  0.5035 -154.4
 0.220  0.8488 -172.0   8.464   93.6  0.0329   29.8  0.5014 -156.5
 0.240  0.8512 -173.3   7.764   92.2  0.0335   30.6  0.5000 -158.6
 0.260  0.8520 -174.5   7.163   91.0  0.0341   31.6  0.4983 -160.4
 0.280  0.8510 -175.5   6.656   90.2  0.0346   32.6  0.4960 -161.9
 0.300  0.8502 -176.5   6.152   89.3  0.0352   33.7  0.4941 -163.5
 0.320  0.8504 -177.3   5.848   88.6  0.0359   34.6  0.4938 -164.4
 0.340  0.8508 -178.1   5.545   87.9  0.0367   35.4  0.4936 -165.3
 0.360  0.8513 -178.9   5.242   87.1  0.0375   36.3  0.4935 -166.3
 0.380  0.8520 -179.7   4.942   86.1  0.0382   37.0  0.4935 -167.2
 0.400  0.8529  179.5   4.642   85.1  0.0390   37.8  0.4937 -168.1
 0.420  0.8531  178.9   4.460   84.5  0.0397   38.7  0.4938 -168.8
 0.440  0.8534  178.3   4.278   83.9  0.0405   39.5  0.4939 -169.4
 0.450  0.8536  178.0   4.188   83.6  0.0409   39.9  0.4940 -169.8
 0.460  0.8538  177.7   4.097   83.2  0.0413   40.3  0.4941 -170.1
 0.480  0.8543  177.1   3.917   82.5  0.0420   41.1  0.4944 -170.7
 0.500  0.8549  176.5   3.737   81.7  0.0428   41.8  0.4947 -171.4
 0.520  0.8544  176.0   3.613   81.2  0.0437   42.4  0.4945 -171.9
 0.540  0.8540  175.5   3.490   80.6  0.0445   43.0  0.4944 -172.4
 0.560  0.8536  175.0   3.367   80.0  0.0454   43.5  0.4942 -172.8
 0.580  0.8533  174.5   3.244   79.4  0.0462   44.1  0.4942 -173.3
 0.600  0.8531  174.0   3.122   78.7  0.0471   44.6  0.4941 -173.8
 0.620  0.8541  173.5   3.037   78.2  0.0480   45.2  0.4940 -174.1
 0.640  0.8553  173.0   2.953   77.7  0.0488   45.7  0.4940 -174.5
 0.660  0.8564  172.5   2.869   77.1  0.0497   46.3  0.4940 -174.8
 0.680  0.8577  172.0   2.785   76.5  0.0505   46.8  0.4940 -175.2
 0.700  0.8590  171.5   2.701   75.9  0.0514   47.3  0.4940 -175.5
 0.720  0.8579  171.1   2.633   75.4  0.0524   47.8  0.4942 -175.8
 0.740  0.8568  170.7   2.566   74.9  0.0534   48.2  0.4945 -176.1
 0.760  0.8558  170.4   2.498   74.4  0.0544   48.6  0.4947 -176.3
 0.780  0.8548  170.0   2.431   73.9  0.0554   49.0  0.4950 -176.6
 0.800  0.8538  169.6   2.364   73.3  0.0564   49.4  0.4953 -176.9
 0.820  0.8541  169.2   2.312   72.8  0.0574   49.7  0.4956 -177.2
 0.840  0.8545  168.8   2.261   72.3  0.0584   49.9  0.4960 -177.5
 0.860  0.8549  168.3   2.210   71.8  0.0594   50.2  0.4963 -177.7
 0.880  0.8553  167.9   2.159   71.3  0.0604   50.5  0.4967 -178.0
 0.900  0.8558  167.5   2.108   70.7  0.0614   50.7  0.4971 -178.3
 0.920  0.8551  167.1   2.066   70.2  0.0623   50.9  0.4974 -178.5
 0.940  0.8544  166.8   2.025   69.8  0.0632   51.2  0.4978 -178.8
 0.960  0.8537  166.4   1.983   69.3  0.0641   51.4  0.4982 -179.0
 0.980  0.8531  166.1   1.942   68.7  0.0650   51.6  0.4985 -179.3
 1.000  0.8525  165.7   1.901   68.2  0.0659   51.8  0.4989 -179.5
 1.020  0.8534  165.3   1.870   67.7  0.0670   51.9  0.4990 -179.7
 1.040  0.8544  164.9   1.839   67.2  0.0681   52.1  0.4991 -179.9
 1.060  0.8554  164.6   1.809   66.8  0.0691   52.2  0.4992  180.0
 1.080  0.8564  164.2   1.778   66.2  0.0702   52.4  0.4994  179.8
 1.100  0.8575  163.8   1.748   65.7  0.0713   52.5  0.4995  179.6
 1.120  0.8576  163.4   1.720   65.2  0.0723   52.6  0.4998  179.4
 1.140  0.8578  163.1   1.691   64.8  0.0734   52.7  0.5002  179.2
 1.160  0.8579  162.7   1.663   64.3  0.0744   52.8  0.5005  179.0
 1.180  0.8582  162.4   1.635   63.7  0.0755   52.9  0.5008  178.8
 1.200  0.8584  162.0   1.607   63.2  0.0765   53.0  0.5012  178.6
 1.220  0.8585  161.6   1.584   62.7  0.0775   53.1  0.5016  178.4
 1.240  0.8586  161.2   1.561   62.2  0.0785   53.1  0.5020  178.2
 1.260  0.8588  160.8   1.539   61.7  0.0796   53.2  0.5024  178.1
 1.280  0.8590  160.4   1.516   61.2  0.0806   53.2  0.5028  177.9
 1.300  0.8592  160.0   1.494   60.7  0.0816   53.3  0.5032  177.7
 1.320  0.8591  159.6   1.474   60.3  0.0826   53.3  0.5035  177.5
 1.340  0.8591  159.3   1.454   59.8  0.0836   53.4  0.5039  177.3
 1.360  0.8590  158.9   1.434   59.4  0.0846   53.4  0.5042  177.2
 1.380  0.8591  158.6   1.414   58.9  0.0856   53.5  0.5046  177.0
 1.400  0.8591  158.2   1.394   58.4  0.0866   53.5  0.5049  176.8
 1.420  0.8591  157.9   1.377   58.0  0.0877   53.5  0.5050  176.6
 1.440  0.8591  157.6   1.359   57.6  0.0887   53.5  0.5050  176.4
 1.460  0.8591  157.3   1.342   57.2  0.0898   53.6  0.5051  176.3
 1.480  0.8592  157.0   1.325   56.7  0.0908   53.6  0.5052  176.1
 1.500  0.8593  156.7   1.308   56.3  0.0919   53.6  0.5053  175.9
 1.520  0.8593  156.3   1.293   55.8  0.0929   53.6  0.5056  175.7
 1.540  0.8593  155.9   1.278   55.3  0.0940   53.6  0.5059  175.6
 1.560  0.8594  155.6   1.263   54.8  0.0950   53.5  0.5062  175.4
 1.580  0.8595  155.2   1.248   54.2  0.0961   53.5  0.5066  175.3
 1.600  0.8597  154.8   1.233   53.7  0.0971   53.5  0.5069  175.1
 1.620  0.8598  154.4   1.219   53.3  0.0981   53.4  0.5073  174.9
 1.640  0.8599  154.0   1.206   52.8  0.0991   53.4  0.5078  174.8
 1.660  0.8600  153.7   1.193   52.4  0.1000   53.3  0.5082  174.6
 1.680  0.8602  153.3   1.179   51.9  0.1010   53.3  0.5087  174.5
 1.700  0.8604  152.9   1.166   51.4  0.1020   53.2  0.5091  174.3
 1.720  0.8603  152.6   1.155   51.0  0.1031   53.1  0.5098  174.1
 1.740  0.8602  152.3   1.143   50.6  0.1042   53.0  0.5105  173.9
 1.760  0.8602  152.0   1.132   50.2  0.1054   53.0  0.5112  173.8
 1.780  0.8602  151.7   1.121   49.8  0.1065   52.9  0.5119  173.6
 1.800  0.8602  151.4   1.110   49.4  0.1076   52.8  0.5126  173.4
 1.820  0.8600  151.0   1.099   49.0  0.1086   52.7  0.5129  173.2
 1.840  0.8599  150.6   1.088   48.5  0.1097   52.7  0.5132  173.1
 1.860  0.8598  150.3   1.077   48.0  0.1107   52.6  0.5135  172.9
 1.880  0.8598  149.9   1.067   47.6  0.1118   52.6  0.5138  172.8
 1.900  0.8598  149.5   1.056   47.1  0.1128   52.5  0.5141  172.6
 1.920  0.8602  149.2   1.047   46.7  0.1138   52.4  0.5146  172.4
 1.940  0.8607  148.8   1.037   46.3  0.1149   52.3  0.5150  172.3
 1.960  0.8612  148.5   1.028   45.9  0.1159   52.1  0.5155  172.1
 1.980  0.8617  148.1   1.019   45.4  0.1170   52.0  0.5159  172.0
 2.000  0.8623  147.8   1.010   45.0  0.1180   51.9  0.5164  171.8
 2.020  0.8623  147.5   1.002   44.6  0.1190   51.8  0.5170  171.6
 2.040  0.8622  147.2   0.994   44.2  0.1200   51.6  0.5177  171.5
 2.060  0.8623  146.8   0.986   43.8  0.1210   51.5  0.5183  171.3
 2.080  0.8623  146.5   0.979   43.4  0.1220   51.4  0.5189  171.1
 2.100  0.8624  146.2   0.971   43.0  0.1230   51.3  0.5196  170.9
 2.120  0.8625  145.9   0.963   42.6  0.1240   51.2  0.5202  170.8
 2.140  0.8626  145.6   0.956   42.2  0.1250   51.0  0.5209  170.6
 2.160  0.8627  145.2   0.948   41.8  0.1260   50.9  0.5216  170.4
 2.180  0.8629  144.9   0.940   41.3  0.1270   50.8  0.5222  170.3
 2.200  0.8631  144.6   0.933   40.9  0.1280   50.7  0.5229  170.1
 2.220  0.8632  144.3   0.926   40.5  0.1290   50.5  0.5234  169.9
 2.240  0.8634  143.9   0.919   40.1  0.1301   50.4  0.5238  169.8
 2.260  0.8635  143.6   0.912   39.7  0.1311   50.3  0.5243  169.6
 2.280  0.8637  143.2   0.904   39.3  0.1321   50.1  0.5248  169.4
 2.300  0.8640  142.9   0.897   38.9  0.1331   50.0  0.5252  169.2
 2.320  0.8642  142.6   0.890   38.5  0.1342   49.8  0.5257  169.1
 2.340  0.8645  142.2   0.883   38.0  0.1352   49.7  0.5262  168.9
 2.360  0.8649  141.9   0.877   37.6  0.1362   49.6  0.5267  168.7
 2.380  0.8652  141.5   0.870   37.2  0.1373   49.4  0.5272  168.6
 2.400  0.8656  141.2   0.863   36.7  0.1383   49.3  0.5277  168.4
 2.420  0.8654  140.9   0.857   36.4  0.1393   49.1  0.5285  168.2
 2.440  0.8653  140.6   0.852   36.0  0.1403   49.0  0.5294  168.0
 2.460  0.8652  140.2   0.846   35.6  0.1413   48.8  0.5302  167.8
 2.480  0.8652  139.9   0.841   35.3  0.1423   48.7  0.5311  167.6
 2.500  0.8651  139.6   0.836   34.9  0.1433   48.5  0.5320  167.4
 2.520  0.8651  139.3   0.830   34.5  0.1443   48.4  0.5328  167.3
 2.540  0.8651  139.0   0.825   34.2  0.1454   48.2  0.5337  167.1
 2.560  0.8651  138.6   0.820   33.8  0.1464   48.1  0.5346  166.9
 2.580  0.8652  138.3   0.814   33.4  0.1474   47.9  0.5355  166.7
 2.600  0.8653  138.0   0.809   33.0  0.1484   47.8  0.5364  166.5
 2.620  0.8657  137.7   0.804   32.7  0.1493   47.6  0.5371  166.3
 2.640  0.8661  137.3   0.799   32.3  0.1503   47.5  0.5378  166.2
 2.660  0.8666  137.0   0.793   32.0  0.1512   47.3  0.5386  166.0
 2.680  0.8671  136.7   0.788   31.6  0.1522   47.1  0.5393  165.9
 2.700  0.8676  136.3   0.783   31.3  0.1531   47.0  0.5400  165.7
 2.720  0.8681  136.0   0.778   30.9  0.1541   46.8  0.5408  165.5
 2.740  0.8687  135.7   0.773   30.5  0.1550   46.7  0.5415  165.4
 2.760  0.8693  135.4   0.768   30.2  0.1560   46.5  0.5423  165.2
 2.780  0.8699  135.0   0.763   29.8  0.1569   46.4  0.5430  165.1
 2.800  0.8706  134.7   0.758   29.4  0.1579   46.2  0.5438  164.9
 2.820  0.8707  134.4   0.753   29.0  0.1589   46.0  0.5447  164.7
 2.840  0.8709  134.1   0.749   28.7  0.1598   45.8  0.5456  164.5
 2.860  0.8711  133.8   0.744   28.3  0.1608   45.6  0.5465  164.3
 2.880  0.8713  133.5   0.740   28.0  0.1617   45.5  0.5475  164.1
 2.900  0.8716  133.2   0.736   27.6  0.1627   45.3  0.5484  163.9
 2.920  0.8718  132.9   0.731   27.2  0.1636   45.1  0.5494  163.7
 2.940  0.8721  132.6   0.727   26.9  0.1646   44.9  0.5503  163.5
 2.960  0.8724  132.3   0.723   26.5  0.1656   44.7  0.5513  163.3
 2.980  0.8727  132.0   0.718   26.1  0.1665   44.6  0.5522  163.1
 3.000  0.8731  131.7   0.714   25.7  0.1675   44.4  0.5532  162.9
 3.100  0.8736  130.1   0.695   24.1  0.1718   43.4  0.5571  161.9
 3.200  0.8747  128.5   0.676   22.5  0.1762   42.5  0.5612  161.0
 3.300  0.8770  127.0   0.660   20.8  0.1806   41.6  0.5668  160.0
 3.400  0.8798  125.6   0.645   19.1  0.1850   40.8  0.5725  159.1
 3.500  0.8811  124.1   0.628   17.7  0.1887   40.0  0.5756  158.3
 3.600  0.8830  122.7   0.611   16.3  0.1925   39.2  0.5788  157.5
 3.700  0.8818  121.3   0.595   14.8  0.1956   38.1  0.5829  156.4
 3.800  0.8812  119.8   0.580   13.3  0.1988   37.1  0.5871  155.4
 3.900  0.8833  118.6   0.569   12.2  0.2036   36.4  0.5945  154.7
 4.000  0.8858  117.4   0.558   11.0  0.2084   35.7  0.6019  154.0
 4.100  0.8850  116.2   0.547    9.9  0.2119   34.8  0.6072  153.0
 4.200  0.8846  114.9   0.536    8.7  0.2154   33.9  0.6126  152.1
 4.300  0.8846  113.7   0.525    7.5  0.2190   33.0  0.6182  151.2
 4.400  0.8851  112.4   0.514    6.2  0.2226   32.1  0.6239  150.3
 4.500  0.8859  111.2   0.504    4.9  0.2263   31.3  0.6298  149.4
 4.600  0.8844  110.2   0.495    4.2  0.2292   30.5  0.6327  148.5
 4.700  0.8831  109.3   0.486    3.4  0.2322   29.6  0.6358  147.7
 4.800  0.8821  108.3   0.477    2.6  0.2352   28.8  0.6390  146.9
 4.900  0.8813  107.4   0.469    1.8  0.2382   28.1  0.6423  146.0
 5.000  0.8808  106.4   0.460    1.0  0.2413   27.3  0.6458  145.2
 5.100  0.8806  105.7   0.453    0.4  0.2446   26.6  0.6494  144.6
 5.200  0.8805  105.0   0.447   -0.3  0.2479   25.8  0.6530  144.1
 5.300  0.8806  104.2   0.441   -0.9  0.2513   25.1  0.6567  143.5
 5.400  0.8808  103.5   0.434   -1.6  0.2547   24.5  0.6605  142.9
 5.500  0.8811  102.8   0.428   -2.3  0.2582   23.8  0.6643  142.4
 5.600  0.8784  101.9   0.424   -2.8  0.2613   23.1  0.6667  141.8
 5.700  0.8759  101.1   0.420   -3.2  0.2645   22.3  0.6691  141.3
 5.800  0.8736  100.2   0.417   -3.7  0.2677   21.6  0.6715  140.7
 5.900  0.8715   99.4   0.413   -4.2  0.2710   21.0  0.6741  140.2
 6.000  0.8696   98.5   0.409   -4.7  0.2743   20.3  0.6767  139.6
!
!  f       NFmin   Gammaopt  rn/50
! GHz       dB    MAG  ANG    -
!
! noise parameter not available yet for this operation point!
!
! (c) 2016  Infineon Technologies AG, Munich
