! Infineon Technologies  Discrete & RF Semiconductors
! BFP193
! VCE = 0.50V,  IC =  5.0 mA
! Common Emitter S-Parameters:                            Jan 2016
# GHz  S  MA  R  50
!  f         S11            S21            S12            S22
! GHz     MAG   ANG      MAG   ANG      MAG   ANG      MAG   ANG
 0.010  0.8146   -7.0  15.471  176.9  0.0065   86.9  0.9792   -3.9
 0.015  0.8097  -10.2  15.286  174.3  0.0098   82.8  0.9758   -5.8
 0.020  0.8074  -13.5  15.133  171.7  0.0131   80.7  0.9736   -7.8
 0.025  0.8001  -16.7  15.023  169.9  0.0161   78.2  0.9645   -9.6
 0.030  0.7954  -20.0  14.927  168.1  0.0192   76.5  0.9563  -11.4
 0.035  0.7934  -23.4  14.847  166.2  0.0222   75.3  0.9491  -13.3
 0.040  0.7940  -26.7  14.783  164.4  0.0253   74.3  0.9429  -15.2
 0.045  0.7973  -30.0  14.734  162.5  0.0283   73.6  0.9378  -17.1
 0.050  0.8033  -33.3  14.701  160.6  0.0314   73.0  0.9337  -19.0
 0.055  0.7906  -36.1  14.491  159.1  0.0337   70.7  0.9203  -20.5
 0.060  0.7797  -38.9  14.290  157.6  0.0360   68.8  0.9076  -21.9
 0.065  0.7709  -41.8  14.100  156.1  0.0384   67.0  0.8954  -23.5
 0.070  0.7641  -44.8  13.920  154.5  0.0408   65.5  0.8840  -25.1
 0.075  0.7594  -47.9  13.750  152.9  0.0433   64.2  0.8732  -26.7
 0.080  0.7569  -50.9  13.593  151.2  0.0457   63.0  0.8631  -28.3
 0.085  0.7565  -54.0  13.447  149.5  0.0482   61.9  0.8538  -30.0
 0.090  0.7584  -57.1  13.313  147.8  0.0507   60.9  0.8452  -31.7
 0.095  0.7623  -60.1  13.192  146.0  0.0532   60.0  0.8374  -33.5
 0.100  0.7684  -63.1  13.083  144.2  0.0557   59.2  0.8304  -35.3
 0.105  0.7592  -65.3  12.864  143.0  0.0572   57.9  0.8175  -36.3
 0.110  0.7512  -67.6  12.650  141.8  0.0588   56.7  0.8049  -37.4
 0.115  0.7443  -69.9  12.442  140.6  0.0604   55.5  0.7926  -38.5
 0.120  0.7386  -72.2  12.240  139.3  0.0620   54.4  0.7806  -39.7
 0.125  0.7342  -74.6  12.045  137.9  0.0636   53.3  0.7689  -40.9
 0.130  0.7311  -76.9  11.856  136.6  0.0653   52.3  0.7576  -42.1
 0.135  0.7293  -79.4  11.675  135.1  0.0670   51.4  0.7466  -43.3
 0.140  0.7287  -81.8  11.501  133.7  0.0687   50.5  0.7360  -44.6
 0.145  0.7295  -84.2  11.334  132.2  0.0704   49.6  0.7257  -45.9
 0.150  0.7315  -86.6  11.176  130.6  0.0721   48.8  0.7159  -47.3
 0.155  0.7272  -88.4  11.009  129.8  0.0730   48.0  0.7055  -48.1
 0.160  0.7236  -90.1  10.845  128.9  0.0740   47.2  0.6952  -48.9
 0.165  0.7207  -91.9  10.683  128.0  0.0749   46.5  0.6851  -49.8
 0.170  0.7185  -93.8  10.523  127.1  0.0759   45.7  0.6752  -50.7
 0.175  0.7170  -95.6  10.367  126.1  0.0769   45.0  0.6654  -51.6
 0.180  0.7163  -97.4  10.214  125.1  0.0778   44.3  0.6558  -52.5
 0.185  0.7163  -99.2  10.063  124.1  0.0788   43.6  0.6464  -53.5
 0.190  0.7170 -101.1   9.916  123.1  0.0798   43.0  0.6371  -54.4
 0.195  0.7184 -102.9   9.772  122.0  0.0809   42.3  0.6281  -55.5
 0.200  0.7206 -104.7   9.632  120.9  0.0819   41.7  0.6192  -56.5
 0.220  0.7070 -110.2   9.048  118.1  0.0842   39.4  0.5844  -59.1
 0.240  0.7000 -115.8   8.489  114.9  0.0866   37.3  0.5509  -62.0
 0.260  0.6954 -120.7   8.003  112.1  0.0888   35.7  0.5227  -64.6
 0.280  0.6910 -124.9   7.579  109.8  0.0906   34.5  0.4991  -66.6
 0.300  0.6903 -129.1   7.167  107.3  0.0925   33.4  0.4761  -68.9
 0.320  0.6840 -132.4   6.857  105.8  0.0936   32.5  0.4578  -70.2
 0.340  0.6800 -135.7   6.552  104.2  0.0946   31.7  0.4398  -71.6
 0.360  0.6783 -139.1   6.253  102.4  0.0957   30.8  0.4221  -73.1
 0.380  0.6789 -142.4   5.961  100.5  0.0969   30.0  0.4047  -74.8
 0.400  0.6819 -145.8   5.676   98.3  0.0980   29.2  0.3877  -76.6
 0.420  0.6786 -148.0   5.460   97.1  0.0987   28.8  0.3761  -77.7
 0.440  0.6762 -150.1   5.246   95.8  0.0994   28.3  0.3646  -78.8
 0.450  0.6754 -151.2   5.140   95.1  0.0997   28.1  0.3589  -79.4
 0.460  0.6749 -152.3   5.035   94.4  0.1001   27.9  0.3533  -80.0
 0.480  0.6745 -154.5   4.827   92.9  0.1008   27.5  0.3421  -81.2
 0.500  0.6751 -156.7   4.623   91.2  0.1015   27.1  0.3311  -82.6
 0.520  0.6740 -158.5   4.479   90.2  0.1020   26.9  0.3236  -83.5
 0.540  0.6735 -160.3   4.336   89.0  0.1026   26.7  0.3161  -84.4
 0.560  0.6737 -162.0   4.195   87.8  0.1031   26.4  0.3088  -85.4
 0.580  0.6745 -163.8   4.056   86.6  0.1037   26.2  0.3016  -86.4
 0.600  0.6760 -165.6   3.919   85.2  0.1042   26.0  0.2944  -87.5
 0.620  0.6751 -167.1   3.815   84.2  0.1047   25.9  0.2893  -88.3
 0.640  0.6747 -168.7   3.712   83.2  0.1051   25.9  0.2843  -89.1
 0.660  0.6747 -170.2   3.610   82.1  0.1056   25.8  0.2794  -89.9
 0.680  0.6753 -171.8   3.510   80.9  0.1060   25.8  0.2745  -90.8
 0.700  0.6763 -173.3   3.411   79.7  0.1065   25.7  0.2697  -91.7
 0.720  0.6755 -174.5   3.328   78.9  0.1071   25.7  0.2662  -92.4
 0.740  0.6750 -175.6   3.246   78.0  0.1077   25.7  0.2628  -93.2
 0.760  0.6747 -176.8   3.164   77.1  0.1083   25.8  0.2594  -93.9
 0.780  0.6748 -177.9   3.084   76.2  0.1089   25.8  0.2561  -94.7
 0.800  0.6751 -179.1   3.004   75.2  0.1095   25.8  0.2528  -95.5
 0.820  0.6743  179.8   2.939   74.4  0.1101   25.9  0.2503  -96.1
 0.840  0.6738  178.7   2.875   73.6  0.1107   26.0  0.2479  -96.7
 0.860  0.6736  177.5   2.811   72.8  0.1114   26.0  0.2455  -97.3
 0.880  0.6736  176.4   2.748   71.9  0.1120   26.1  0.2431  -98.0
 0.900  0.6739  175.3   2.685   71.0  0.1126   26.2  0.2408  -98.6
 0.920  0.6735  174.2   2.634   70.3  0.1131   26.3  0.2393  -99.2
 0.940  0.6733  173.2   2.583   69.5  0.1135   26.4  0.2378  -99.9
 0.960  0.6734  172.1   2.532   68.7  0.1140   26.5  0.2364 -100.5
 0.980  0.6737  171.1   2.482   67.9  0.1144   26.6  0.2350 -101.1
 1.000  0.6742  170.0   2.433   67.0  0.1149   26.7  0.2336 -101.8
 1.020  0.6753  169.1   2.392   66.3  0.1154   26.8  0.2324 -102.5
 1.040  0.6765  168.1   2.351   65.5  0.1160   26.9  0.2313 -103.2
 1.060  0.6779  167.2   2.311   64.7  0.1165   27.0  0.2302 -103.9
 1.080  0.6795  166.2   2.271   63.9  0.1171   27.1  0.2291 -104.6
 1.100  0.6813  165.3   2.232   63.0  0.1176   27.2  0.2281 -105.3
 1.120  0.6817  164.4   2.196   62.3  0.1182   27.4  0.2274 -106.0
 1.140  0.6822  163.6   2.160   61.6  0.1188   27.6  0.2268 -106.6
 1.160  0.6828  162.7   2.125   60.9  0.1193   27.8  0.2262 -107.3
 1.180  0.6836  161.9   2.090   60.2  0.1199   28.0  0.2256 -108.0
 1.200  0.6846  161.0   2.055   59.4  0.1205   28.2  0.2251 -108.7
 1.220  0.6850  160.2   2.024   58.7  0.1213   28.3  0.2245 -109.3
 1.240  0.6856  159.4   1.993   58.1  0.1221   28.4  0.2240 -109.9
 1.260  0.6863  158.7   1.962   57.4  0.1228   28.6  0.2235 -110.4
 1.280  0.6871  157.9   1.931   56.6  0.1236   28.7  0.2230 -111.0
 1.300  0.6880  157.1   1.901   55.9  0.1244   28.8  0.2225 -111.6
 1.320  0.6886  156.3   1.875   55.3  0.1249   28.9  0.2227 -112.2
 1.340  0.6893  155.5   1.848   54.7  0.1255   29.0  0.2230 -112.7
 1.360  0.6901  154.8   1.822   54.1  0.1260   29.0  0.2233 -113.3
 1.380  0.6911  154.0   1.797   53.5  0.1266   29.1  0.2236 -113.8
 1.400  0.6922  153.2   1.771   52.8  0.1271   29.2  0.2239 -114.4
 1.420  0.6926  152.5   1.752   52.1  0.1279   29.4  0.2239 -115.0
 1.440  0.6930  151.8   1.733   51.5  0.1288   29.6  0.2239 -115.7
 1.460  0.6936  151.1   1.714   50.8  0.1296   29.8  0.2239 -116.3
 1.480  0.6943  150.4   1.696   50.1  0.1305   30.0  0.2240 -117.0
 1.500  0.6951  149.7   1.678   49.4  0.1313   30.2  0.2241 -117.6
 1.520  0.6966  149.0   1.655   48.8  0.1321   30.3  0.2242 -118.2
 1.540  0.6981  148.4   1.632   48.1  0.1328   30.4  0.2243 -118.8
 1.560  0.6998  147.7   1.609   47.4  0.1336   30.4  0.2245 -119.3
 1.580  0.7016  147.1   1.586   46.7  0.1343   30.5  0.2246 -119.9
 1.600  0.7034  146.4   1.564   46.0  0.1351   30.6  0.2248 -120.5
 1.620  0.7040  145.6   1.548   45.4  0.1358   30.7  0.2250 -121.0
 1.640  0.7048  144.8   1.532   44.8  0.1366   30.9  0.2252 -121.6
 1.660  0.7057  143.9   1.516   44.2  0.1373   31.0  0.2255 -122.1
 1.680  0.7067  143.1   1.500   43.5  0.1381   31.2  0.2257 -122.7
 1.700  0.7079  142.3   1.485   42.9  0.1388   31.3  0.2260 -123.2
 1.720  0.7080  141.7   1.470   42.4  0.1399   31.3  0.2266 -123.7
 1.740  0.7082  141.0   1.454   41.9  0.1409   31.4  0.2273 -124.2
 1.760  0.7085  140.4   1.439   41.4  0.1420   31.4  0.2279 -124.7
 1.780  0.7088  139.7   1.424   40.9  0.1430   31.5  0.2286 -125.2
 1.800  0.7093  139.1   1.409   40.4  0.1441   31.5  0.2293 -125.7
 1.820  0.7113  138.5   1.396   39.7  0.1449   31.6  0.2303 -126.4
 1.840  0.7134  137.9   1.382   39.1  0.1458   31.7  0.2313 -127.2
 1.860  0.7156  137.3   1.369   38.4  0.1466   31.8  0.2323 -127.9
 1.880  0.7179  136.8   1.357   37.7  0.1475   31.9  0.2334 -128.6
 1.900  0.7202  136.2   1.344   37.0  0.1483   32.0  0.2345 -129.3
 1.920  0.7201  135.6   1.330   36.5  0.1494   32.0  0.2349 -129.9
 1.940  0.7202  134.9   1.316   36.0  0.1506   32.1  0.2353 -130.5
 1.960  0.7203  134.3   1.302   35.4  0.1517   32.1  0.2357 -131.1
 1.980  0.7205  133.6   1.288   34.9  0.1529   32.2  0.2362 -131.7
 2.000  0.7208  133.0   1.274   34.3  0.1540   32.2  0.2367 -132.3
 2.020  0.7212  132.4   1.262   33.8  0.1549   32.2  0.2377 -132.9
 2.040  0.7218  131.8   1.251   33.3  0.1559   32.2  0.2388 -133.4
 2.060  0.7224  131.2   1.240   32.7  0.1568   32.3  0.2398 -134.0
 2.080  0.7230  130.7   1.228   32.2  0.1577   32.3  0.2409 -134.5
 2.100  0.7238  130.1   1.217   31.6  0.1586   32.3  0.2420 -135.1
 2.120  0.7246  129.5   1.206   31.1  0.1596   32.3  0.2432 -135.6
 2.140  0.7255  128.9   1.195   30.5  0.1605   32.3  0.2443 -136.1
 2.160  0.7264  128.3   1.184   29.9  0.1614   32.4  0.2455 -136.7
 2.180  0.7275  127.8   1.174   29.3  0.1624   32.4  0.2467 -137.2
 2.200  0.7286  127.2   1.163   28.7  0.1633   32.4  0.2479 -137.7
 2.220  0.7296  126.6   1.154   28.2  0.1644   32.4  0.2488 -138.4
 2.240  0.7307  126.0   1.145   27.7  0.1655   32.4  0.2498 -139.1
 2.260  0.7319  125.4   1.136   27.1  0.1666   32.4  0.2508 -139.8
 2.280  0.7332  124.8   1.128   26.6  0.1677   32.4  0.2519 -140.5
 2.300  0.7345  124.2   1.119   26.1  0.1688   32.3  0.2529 -141.2
 2.320  0.7359  123.6   1.111   25.5  0.1699   32.3  0.2541 -141.9
 2.340  0.7374  123.0   1.102   24.9  0.1710   32.3  0.2552 -142.6
 2.360  0.7390  122.4   1.094   24.4  0.1721   32.3  0.2564 -143.3
 2.380  0.7407  121.8   1.086   23.8  0.1732   32.3  0.2576 -143.9
 2.400  0.7424  121.2   1.078   23.2  0.1743   32.3  0.2589 -144.6
 2.420  0.7428  120.6   1.069   22.8  0.1754   32.2  0.2600 -145.2
 2.440  0.7433  120.1   1.061   22.3  0.1765   32.2  0.2611 -145.7
 2.460  0.7439  119.5   1.053   21.9  0.1776   32.1  0.2623 -146.3
 2.480  0.7445  118.9   1.044   21.4  0.1787   32.1  0.2635 -146.9
 2.500  0.7452  118.4   1.036   20.9  0.1798   32.0  0.2647 -147.4
 2.520  0.7460  117.8   1.028   20.5  0.1810   31.9  0.2659 -148.0
 2.540  0.7468  117.3   1.020   20.0  0.1821   31.9  0.2672 -148.5
 2.560  0.7478  116.7   1.012   19.5  0.1832   31.8  0.2685 -149.0
 2.580  0.7487  116.2   1.004   19.0  0.1843   31.8  0.2698 -149.6
 2.600  0.7498  115.6   0.996   18.5  0.1854   31.7  0.2711 -150.1
 2.620  0.7510  115.1   0.989   18.1  0.1865   31.6  0.2725 -150.7
 2.640  0.7522  114.6   0.982   17.6  0.1877   31.6  0.2739 -151.4
 2.660  0.7535  114.1   0.975   17.2  0.1888   31.5  0.2754 -152.0
 2.680  0.7548  113.6   0.968   16.7  0.1899   31.4  0.2769 -152.6
 2.700  0.7562  113.1   0.962   16.3  0.1910   31.3  0.2784 -153.2
 2.720  0.7576  112.6   0.955   15.8  0.1922   31.3  0.2799 -153.8
 2.740  0.7591  112.1   0.948   15.3  0.1933   31.2  0.2815 -154.4
 2.760  0.7607  111.6   0.942   14.9  0.1944   31.1  0.2831 -155.0
 2.780  0.7623  111.1   0.935   14.4  0.1956   31.1  0.2847 -155.5
 2.800  0.7640  110.6   0.929   13.9  0.1967   31.0  0.2864 -156.1
 2.820  0.7646  110.1   0.922   13.5  0.1979   30.9  0.2880 -156.7
 2.840  0.7652  109.6   0.916   13.1  0.1990   30.8  0.2895 -157.3
 2.860  0.7659  109.1   0.909   12.6  0.2002   30.7  0.2911 -157.9
 2.880  0.7666  108.7   0.903   12.2  0.2014   30.5  0.2928 -158.5
 2.900  0.7674  108.2   0.896   11.7  0.2025   30.4  0.2945 -159.1
 2.920  0.7683  107.7   0.890   11.3  0.2037   30.3  0.2962 -159.7
 2.940  0.7692  107.2   0.884   10.8  0.2049   30.2  0.2979 -160.2
 2.960  0.7701  106.8   0.877   10.4  0.2061   30.1  0.2997 -160.8
 2.980  0.7711  106.3   0.871    9.9  0.2072   30.0  0.3015 -161.3
 3.000  0.7722  105.8   0.865    9.4  0.2084   29.9  0.3033 -161.9
 3.100  0.7753  103.7   0.838    7.8  0.2142   29.2  0.3114 -164.8
 3.200  0.7795  101.6   0.812    6.2  0.2201   28.6  0.3202 -167.5
 3.300  0.7846   99.5   0.787    4.4  0.2260   27.9  0.3297 -170.0
 3.400  0.7908   97.5   0.763    2.5  0.2319   27.4  0.3398 -172.4
 3.500  0.7980   95.5   0.739    0.5  0.2379   26.8  0.3505 -174.7
 3.600  0.7992   93.6   0.719   -0.9  0.2438   25.8  0.3603 -177.4
 3.700  0.8013   91.7   0.700   -2.3  0.2498   24.9  0.3709  180.0
 3.800  0.8042   89.9   0.681   -3.8  0.2558   24.0  0.3822  177.5
 3.900  0.8080   88.0   0.662   -5.4  0.2619   23.1  0.3942  175.3
 4.000  0.8126   86.2   0.644   -7.1  0.2681   22.3  0.4067  173.1
 4.100  0.8153   84.6   0.630   -8.2  0.2732   21.2  0.4156  170.8
 4.200  0.8186   83.0   0.616   -9.4  0.2785   20.1  0.4252  168.5
 4.300  0.8225   81.4   0.602  -10.7  0.2838   19.1  0.4354  166.4
 4.400  0.8271   79.8   0.589  -11.9  0.2893   18.1  0.4462  164.3
 4.500  0.8323   78.3   0.576  -13.3  0.2948   17.1  0.4575  162.4
 4.600  0.8328   77.0   0.566  -14.1  0.2994   16.0  0.4658  160.4
 4.700  0.8336   75.6   0.557  -14.9  0.3040   15.0  0.4746  158.4
 4.800  0.8350   74.3   0.547  -15.7  0.3088   14.0  0.4839  156.5
 4.900  0.8368   73.0   0.538  -16.6  0.3137   13.0  0.4938  154.7
 5.000  0.8390   71.7   0.529  -17.5  0.3186   12.1  0.5041  153.0
 5.100  0.8404   70.5   0.520  -18.1  0.3230   11.0  0.5108  151.1
 5.200  0.8422   69.3   0.511  -18.7  0.3275    9.9  0.5181  149.2
 5.300  0.8444   68.1   0.502  -19.3  0.3321    8.8  0.5260  147.4
 5.400  0.8469   66.9   0.494  -19.9  0.3369    7.8  0.5343  145.6
 5.500  0.8498   65.7   0.485  -20.6  0.3417    6.8  0.5432  143.9
 5.600  0.8489   64.6   0.480  -21.2  0.3456    5.6  0.5496  142.2
 5.700  0.8482   63.5   0.476  -21.8  0.3497    4.4  0.5565  140.5
 5.800  0.8479   62.5   0.471  -22.4  0.3539    3.3  0.5638  138.9
 5.900  0.8478   61.4   0.466  -23.0  0.3583    2.2  0.5716  137.3
 6.000  0.8481   60.3   0.462  -23.6  0.3628    1.1  0.5798  135.8
!
!  f       NFmin   Gammaopt  rn/50
! GHz       dB    MAG  ANG    -
!
! noise parameter not available yet for this operation point!
!
! (c) 2016  Infineon Technologies AG, Munich
