! Infineon Technologies  Discrete & RF Semiconductors
! BFP193
! VCE = 2.0 V,  IC =  40 mA
! Common Emitter S-Parameters:                            Jan 2016
# GHz  S  MA  R  50
!  f         S11            S21            S12            S22
! GHz     MAG   ANG      MAG   ANG      MAG   ANG      MAG   ANG
 0.010  0.3106  -23.1  56.015  172.0  0.0029   83.2  0.9066   -8.0
 0.015  0.3131  -33.2  54.579  167.7  0.0042   78.1  0.8925  -11.7
 0.020  0.3250  -42.8  53.465  163.2  0.0056   75.4  0.8823  -15.6
 0.025  0.3233  -51.1  51.782  160.4  0.0067   72.2  0.8546  -18.4
 0.030  0.3284  -59.3  50.228  157.5  0.0079   69.9  0.8292  -21.5
 0.035  0.3400  -67.2  48.816  154.3  0.0090   68.1  0.8062  -24.7
 0.040  0.3575  -74.3  47.560  151.0  0.0102   66.8  0.7858  -28.1
 0.045  0.3800  -80.8  46.470  147.5  0.0113   65.8  0.7684  -31.6
 0.050  0.4067  -86.4  45.560  143.9  0.0125   64.9  0.7540  -35.3
 0.055  0.4058  -90.8  44.069  142.4  0.0131   63.7  0.7298  -36.8
 0.060  0.4073  -95.2  42.609  140.8  0.0138   62.6  0.7062  -38.4
 0.065  0.4112  -99.5  41.184  139.2  0.0144   61.6  0.6832  -40.2
 0.070  0.4173 -103.8  39.797  137.4  0.0150   60.7  0.6609  -42.0
 0.075  0.4257 -107.8  38.453  135.4  0.0157   59.9  0.6393  -44.0
 0.080  0.4362 -111.8  37.156  133.3  0.0163   59.1  0.6185  -46.1
 0.085  0.4485 -115.5  35.910  131.1  0.0169   58.4  0.5987  -48.4
 0.090  0.4627 -119.0  34.723  128.7  0.0176   57.8  0.5798  -50.8
 0.095  0.4785 -122.2  33.599  126.2  0.0182   57.2  0.5620  -53.4
 0.100  0.4957 -125.3  32.546  123.5  0.0189   56.6  0.5454  -56.1
 0.105  0.4971 -127.2  31.657  122.6  0.0193   56.3  0.5311  -57.0
 0.110  0.4991 -129.2  30.775  121.7  0.0197   56.0  0.5169  -57.9
 0.115  0.5016 -131.1  29.902  120.7  0.0202   55.7  0.5029  -58.8
 0.120  0.5047 -133.0  29.038  119.7  0.0206   55.5  0.4890  -59.8
 0.125  0.5083 -134.8  28.185  118.6  0.0210   55.2  0.4753  -60.9
 0.130  0.5125 -136.7  27.342  117.4  0.0214   55.0  0.4618  -62.0
 0.135  0.5172 -138.5  26.512  116.1  0.0218   54.7  0.4484  -63.2
 0.140  0.5224 -140.3  25.695  114.8  0.0223   54.5  0.4353  -64.5
 0.145  0.5280 -142.0  24.893  113.4  0.0227   54.3  0.4224  -65.9
 0.150  0.5342 -143.7  24.107  111.9  0.0231   54.1  0.4097  -67.3
 0.155  0.5355 -144.8  23.579  111.3  0.0234   54.2  0.4013  -67.9
 0.160  0.5370 -145.9  23.054  110.7  0.0238   54.3  0.3929  -68.5
 0.165  0.5387 -147.0  22.531  110.1  0.0241   54.4  0.3846  -69.1
 0.170  0.5405 -148.1  22.011  109.4  0.0245   54.5  0.3763  -69.8
 0.175  0.5426 -149.2  21.495  108.7  0.0248   54.6  0.3681  -70.5
 0.180  0.5449 -150.3  20.982  107.9  0.0252   54.7  0.3599  -71.2
 0.185  0.5474 -151.4  20.472  107.2  0.0255   54.8  0.3518  -72.0
 0.190  0.5500 -152.4  19.967  106.4  0.0259   54.8  0.3438  -72.8
 0.195  0.5529 -153.5  19.466  105.5  0.0262   54.9  0.3358  -73.6
 0.200  0.5559 -154.5  18.969  104.6  0.0266   55.0  0.3279  -74.5
 0.220  0.5584 -157.5  17.543  102.8  0.0280   55.7  0.3047  -76.4
 0.240  0.5624 -160.5  16.136  100.8  0.0295   56.3  0.2819  -78.6
 0.260  0.5656 -163.1  14.956   99.0  0.0308   56.8  0.2637  -80.6
 0.280  0.5674 -165.3  13.991   97.5  0.0321   57.1  0.2499  -82.1
 0.300  0.5700 -167.4  13.036   95.9  0.0334   57.4  0.2362  -83.8
 0.320  0.5705 -169.1  12.410   95.0  0.0348   58.1  0.2263  -84.8
 0.340  0.5716 -170.7  11.786   94.1  0.0362   58.7  0.2165  -85.8
 0.360  0.5731 -172.4  11.167   93.0  0.0376   59.3  0.2067  -87.0
 0.380  0.5750 -174.1  10.551   91.8  0.0390   59.8  0.1970  -88.3
 0.400  0.5775 -175.7   9.941   90.5  0.0404   60.3  0.1875  -89.7
 0.420  0.5780 -176.8   9.545   89.7  0.0418   60.7  0.1818  -90.6
 0.440  0.5787 -178.0   9.152   88.9  0.0432   61.0  0.1761  -91.5
 0.450  0.5791 -178.5   8.956   88.4  0.0439   61.2  0.1733  -92.0
 0.460  0.5796 -179.1   8.760   87.9  0.0446   61.4  0.1705  -92.5
 0.480  0.5807  179.8   8.371   86.9  0.0460   61.7  0.1650  -93.6
 0.500  0.5821  178.7   7.985   85.8  0.0474   62.0  0.1595  -94.7
 0.520  0.5824  177.7   7.723   85.1  0.0491   62.2  0.1562  -95.5
 0.540  0.5829  176.7   7.461   84.3  0.0507   62.3  0.1529  -96.3
 0.560  0.5836  175.6   7.202   83.5  0.0524   62.4  0.1496  -97.1
 0.580  0.5845  174.6   6.943   82.6  0.0540   62.6  0.1464  -98.0
 0.600  0.5856  173.6   6.687   81.7  0.0557   62.7  0.1432  -98.9
 0.620  0.5858  172.7   6.499   81.0  0.0571   62.9  0.1410  -99.6
 0.640  0.5862  171.7   6.312   80.3  0.0586   63.0  0.1389 -100.3
 0.660  0.5867  170.8   6.126   79.6  0.0600   63.1  0.1368 -101.1
 0.680  0.5874  169.8   5.942   78.8  0.0615   63.3  0.1347 -101.8
 0.700  0.5882  168.9   5.758   77.9  0.0629   63.4  0.1326 -102.6
 0.720  0.5887  168.2   5.614   77.3  0.0645   63.3  0.1312 -103.3
 0.740  0.5893  167.4   5.471   76.8  0.0661   63.2  0.1297 -104.0
 0.760  0.5900  166.7   5.329   76.1  0.0677   63.1  0.1283 -104.7
 0.780  0.5908  165.9   5.187   75.5  0.0693   63.0  0.1270 -105.4
 0.800  0.5917  165.2   5.046   74.8  0.0709   62.9  0.1256 -106.2
 0.820  0.5918  164.5   4.933   74.2  0.0725   62.9  0.1244 -106.8
 0.840  0.5920  163.7   4.821   73.6  0.0740   62.9  0.1232 -107.4
 0.860  0.5923  163.0   4.709   73.0  0.0756   62.9  0.1221 -108.0
 0.880  0.5927  162.2   4.598   72.3  0.0771   62.9  0.1209 -108.6
 0.900  0.5932  161.5   4.488   71.6  0.0787   62.9  0.1198 -109.2
 0.920  0.5934  160.7   4.401   71.1  0.0802   62.8  0.1194 -109.8
 0.940  0.5937  159.9   4.315   70.5  0.0816   62.6  0.1189 -110.5
 0.960  0.5941  159.1   4.229   69.9  0.0831   62.5  0.1185 -111.1
 0.980  0.5946  158.3   4.143   69.3  0.0845   62.4  0.1181 -111.8
 1.000  0.5952  157.5   4.058   68.7  0.0860   62.3  0.1177 -112.4
 1.020  0.5962  156.8   3.987   68.1  0.0876   62.2  0.1175 -113.1
 1.040  0.5973  156.1   3.916   67.6  0.0893   62.0  0.1173 -113.7
 1.060  0.5985  155.4   3.845   67.0  0.0909   61.9  0.1171 -114.4
 1.080  0.5997  154.7   3.775   66.3  0.0926   61.8  0.1169 -115.0
 1.100  0.6011  154.0   3.705   65.7  0.0942   61.7  0.1167 -115.7
 1.120  0.6021  153.3   3.643   65.2  0.0956   61.6  0.1165 -116.3
 1.140  0.6032  152.7   3.582   64.6  0.0971   61.4  0.1164 -116.9
 1.160  0.6044  152.0   3.521   64.0  0.0985   61.3  0.1162 -117.5
 1.180  0.6057  151.4   3.460   63.4  0.1000   61.2  0.1161 -118.1
 1.200  0.6070  150.7   3.400   62.8  0.1014   61.1  0.1160 -118.7
 1.220  0.6068  150.1   3.347   62.3  0.1031   60.9  0.1160 -119.3
 1.240  0.6066  149.4   3.295   61.8  0.1048   60.6  0.1160 -119.9
 1.260  0.6065  148.8   3.243   61.2  0.1064   60.4  0.1161 -120.5
 1.280  0.6065  148.1   3.191   60.7  0.1081   60.2  0.1161 -121.1
 1.300  0.6066  147.5   3.140   60.1  0.1098   60.0  0.1162 -121.7
 1.320  0.6082  146.9   3.095   59.6  0.1111   59.8  0.1165 -122.2
 1.340  0.6098  146.3   3.050   59.2  0.1125   59.5  0.1168 -122.7
 1.360  0.6115  145.8   3.005   58.7  0.1138   59.3  0.1171 -123.2
 1.380  0.6132  145.2   2.960   58.2  0.1152   59.1  0.1174 -123.7
 1.400  0.6150  144.6   2.916   57.7  0.1165   58.9  0.1177 -124.2
 1.420  0.6149  144.0   2.883   57.2  0.1180   58.7  0.1181 -124.8
 1.440  0.6149  143.5   2.850   56.6  0.1196   58.4  0.1185 -125.4
 1.460  0.6150  142.9   2.817   56.1  0.1211   58.2  0.1189 -126.0
 1.480  0.6151  142.4   2.784   55.5  0.1227   58.0  0.1194 -126.5
 1.500  0.6153  141.8   2.752   54.9  0.1242   57.8  0.1198 -127.1
 1.520  0.6168  141.2   2.713   54.4  0.1257   57.6  0.1201 -127.8
 1.540  0.6184  140.6   2.675   53.8  0.1273   57.4  0.1203 -128.5
 1.560  0.6201  140.1   2.637   53.2  0.1288   57.2  0.1206 -129.2
 1.580  0.6218  139.5   2.599   52.6  0.1304   57.1  0.1210 -129.8
 1.600  0.6236  138.9   2.562   52.0  0.1319   56.9  0.1213 -130.5
 1.620  0.6238  138.2   2.533   51.5  0.1333   56.6  0.1215 -131.1
 1.640  0.6242  137.6   2.503   51.0  0.1348   56.4  0.1217 -131.7
 1.660  0.6246  136.9   2.474   50.5  0.1362   56.2  0.1219 -132.4
 1.680  0.6250  136.3   2.446   49.9  0.1377   55.9  0.1221 -133.0
 1.700  0.6256  135.6   2.417   49.4  0.1391   55.7  0.1223 -133.6
 1.720  0.6272  135.0   2.393   49.0  0.1405   55.4  0.1230 -134.1
 1.740  0.6288  134.4   2.369   48.5  0.1419   55.1  0.1238 -134.5
 1.760  0.6306  133.9   2.345   48.1  0.1433   54.8  0.1245 -134.9
 1.780  0.6324  133.3   2.321   47.7  0.1448   54.6  0.1252 -135.4
 1.800  0.6342  132.7   2.297   47.2  0.1462   54.3  0.1260 -135.8
 1.820  0.6347  132.3   2.273   46.7  0.1477   54.1  0.1268 -136.5
 1.840  0.6352  131.8   2.250   46.2  0.1492   53.8  0.1277 -137.2
 1.860  0.6357  131.4   2.226   45.6  0.1506   53.6  0.1286 -137.9
 1.880  0.6363  130.9   2.203   45.1  0.1521   53.4  0.1295 -138.6
 1.900  0.6369  130.5   2.180   44.5  0.1536   53.2  0.1304 -139.3
 1.920  0.6382  130.0   2.157   44.0  0.1550   52.9  0.1309 -140.1
 1.940  0.6396  129.4   2.135   43.6  0.1563   52.6  0.1314 -140.8
 1.960  0.6411  128.9   2.112   43.1  0.1577   52.3  0.1319 -141.5
 1.980  0.6426  128.3   2.090   42.6  0.1590   52.0  0.1324 -142.3
 2.000  0.6442  127.8   2.068   42.1  0.1604   51.7  0.1330 -143.0
 2.020  0.6445  127.3   2.049   41.6  0.1618   51.4  0.1337 -143.6
 2.040  0.6448  126.8   2.030   41.2  0.1632   51.2  0.1344 -144.1
 2.060  0.6452  126.3   2.012   40.7  0.1646   50.9  0.1351 -144.7
 2.080  0.6456  125.8   1.993   40.2  0.1660   50.7  0.1358 -145.3
 2.100  0.6461  125.2   1.975   39.8  0.1674   50.4  0.1365 -145.8
 2.120  0.6466  124.7   1.956   39.3  0.1688   50.2  0.1373 -146.4
 2.140  0.6472  124.2   1.938   38.8  0.1702   50.0  0.1380 -146.9
 2.160  0.6478  123.7   1.920   38.3  0.1716   49.7  0.1388 -147.4
 2.180  0.6485  123.2   1.903   37.7  0.1730   49.5  0.1396 -148.0
 2.200  0.6492  122.7   1.885   37.2  0.1744   49.3  0.1404 -148.5
 2.220  0.6504  122.2   1.870   36.7  0.1757   49.0  0.1412 -149.2
 2.240  0.6517  121.7   1.855   36.3  0.1770   48.7  0.1420 -150.0
 2.260  0.6531  121.1   1.840   35.8  0.1783   48.5  0.1428 -150.7
 2.280  0.6545  120.6   1.825   35.3  0.1796   48.2  0.1437 -151.4
 2.300  0.6559  120.1   1.810   34.8  0.1809   48.0  0.1445 -152.2
 2.320  0.6574  119.6   1.796   34.4  0.1822   47.7  0.1454 -152.9
 2.340  0.6589  119.1   1.781   33.9  0.1835   47.4  0.1463 -153.6
 2.360  0.6605  118.6   1.767   33.3  0.1848   47.2  0.1473 -154.2
 2.380  0.6622  118.1   1.753   32.8  0.1861   46.9  0.1482 -154.9
 2.400  0.6639  117.6   1.739   32.3  0.1874   46.7  0.1492 -155.6
 2.420  0.6650  117.1   1.725   31.9  0.1886   46.4  0.1501 -156.2
 2.440  0.6662  116.6   1.711   31.5  0.1897   46.2  0.1510 -156.8
 2.460  0.6675  116.1   1.697   31.1  0.1909   45.9  0.1519 -157.4
 2.480  0.6688  115.6   1.683   30.6  0.1921   45.6  0.1529 -158.0
 2.500  0.6701  115.1   1.669   30.2  0.1933   45.4  0.1539 -158.5
 2.520  0.6715  114.6   1.655   29.7  0.1945   45.1  0.1548 -159.1
 2.540  0.6730  114.1   1.641   29.3  0.1957   44.8  0.1558 -159.7
 2.560  0.6745  113.7   1.628   28.8  0.1969   44.6  0.1568 -160.2
 2.580  0.6760  113.2   1.614   28.4  0.1981   44.3  0.1579 -160.8
 2.600  0.6776  112.7   1.601   27.9  0.1993   44.1  0.1589 -161.3
 2.620  0.6787  112.2   1.590   27.5  0.2005   43.8  0.1601 -162.0
 2.640  0.6798  111.7   1.579   27.1  0.2017   43.6  0.1612 -162.7
 2.660  0.6810  111.3   1.568   26.7  0.2029   43.3  0.1624 -163.3
 2.680  0.6822  110.8   1.557   26.3  0.2041   43.0  0.1637 -164.0
 2.700  0.6835  110.3   1.546   25.8  0.2053   42.8  0.1649 -164.6
 2.720  0.6848  109.9   1.535   25.4  0.2065   42.5  0.1662 -165.3
 2.740  0.6862  109.4   1.524   25.0  0.2077   42.2  0.1674 -165.9
 2.760  0.6876  108.9   1.514   24.5  0.2089   42.0  0.1687 -166.5
 2.780  0.6891  108.5   1.503   24.1  0.2102   41.7  0.1701 -167.1
 2.800  0.6906  108.0   1.493   23.6  0.2114   41.5  0.1714 -167.7
 2.820  0.6914  107.6   1.482   23.2  0.2126   41.2  0.1725 -168.3
 2.840  0.6923  107.2   1.471   22.7  0.2137   41.0  0.1737 -168.8
 2.860  0.6932  106.8   1.461   22.3  0.2149   40.7  0.1748 -169.3
 2.880  0.6941  106.4   1.450   21.8  0.2161   40.4  0.1760 -169.9
 2.900  0.6951  106.0   1.440   21.4  0.2173   40.2  0.1772 -170.4
 2.920  0.6961  105.6   1.429   20.9  0.2185   39.9  0.1784 -170.9
 2.940  0.6971  105.2   1.419   20.5  0.2197   39.7  0.1796 -171.4
 2.960  0.6982  104.8   1.409   20.0  0.2209   39.4  0.1808 -171.9
 2.980  0.6993  104.4   1.399   19.5  0.2221   39.1  0.1820 -172.4
 3.000  0.7004  104.0   1.389   19.0  0.2233   38.9  0.1833 -172.9
 3.100  0.7048  102.0   1.345   17.4  0.2283   37.6  0.1898 -175.7
 3.200  0.7100  100.1   1.302   15.7  0.2335   36.3  0.1967 -178.3
 3.300  0.7161   98.2   1.260   13.8  0.2387   35.1  0.2040  179.3
 3.400  0.7228   96.3   1.219   11.9  0.2441   33.9  0.2116  177.0
 3.500  0.7304   94.5   1.180    9.8  0.2495   32.8  0.2195  174.9
 3.600  0.7339   92.8   1.150    8.2  0.2543   31.5  0.2277  172.6
 3.700  0.7380   91.1   1.120    6.5  0.2593   30.2  0.2362  170.5
 3.800  0.7428   89.5   1.092    4.7  0.2643   29.0  0.2450  168.5
 3.900  0.7482   87.8   1.064    2.9  0.2695   27.8  0.2541  166.6
 4.000  0.7542   86.2   1.038    0.9  0.2748   26.7  0.2635  164.9
 4.100  0.7582   84.7   1.013   -0.5  0.2788   25.4  0.2708  163.0
 4.200  0.7627   83.3   0.989   -2.0  0.2830   24.2  0.2783  161.1
 4.300  0.7676   81.8   0.965   -3.6  0.2873   23.0  0.2861  159.4
 4.400  0.7731   80.4   0.942   -5.2  0.2917   21.8  0.2942  157.8
 4.500  0.7790   79.0   0.920   -6.9  0.2962   20.7  0.3025  156.2
 4.600  0.7812   77.7   0.901   -8.2  0.2998   19.6  0.3095  154.6
 4.700  0.7837   76.5   0.883   -9.5  0.3035   18.5  0.3166  153.2
 4.800  0.7867   75.2   0.866  -10.8  0.3073   17.4  0.3240  151.7
 4.900  0.7900   73.9   0.849  -12.2  0.3113   16.3  0.3316  150.4
 5.000  0.7937   72.7   0.832  -13.7  0.3153   15.3  0.3393  149.1
 5.100  0.7966   71.5   0.815  -14.8  0.3189   14.2  0.3459  147.6
 5.200  0.7998   70.3   0.799  -16.0  0.3227   13.1  0.3528  146.1
 5.300  0.8034   69.1   0.783  -17.2  0.3265   12.1  0.3598  144.7
 5.400  0.8073   67.9   0.767  -18.5  0.3304   11.1  0.3671  143.4
 5.500  0.8116   66.7   0.752  -19.8  0.3345   10.1  0.3746  142.1
 5.600  0.8125   65.7   0.741  -20.8  0.3379    8.9  0.3809  140.8
 5.700  0.8136   64.7   0.730  -21.9  0.3414    7.8  0.3874  139.5
 5.800  0.8150   63.7   0.719  -22.9  0.3451    6.7  0.3940  138.3
 5.900  0.8166   62.7   0.708  -24.1  0.3489    5.6  0.4009  137.1
 6.000  0.8185   61.7   0.698  -25.2  0.3528    4.5  0.4079  135.9
!
!  f       NFmin   Gammaopt  rn/50
! GHz       dB    MAG  ANG    -
!
! noise parameter not available yet for this operation point!
!
! (c) 2016  Infineon Technologies AG, Munich
