! Infineon Technologies  Discrete & RF Semiconductors
! BFP196
! VCE = 2.0 V,  IC =  70mA
! Common Emitter S-Parameters:                            Jan 2016
# GHz  S  MA  R  50
!  f         S11            S21            S12            S22
! GHz     MAG   ANG      MAG   ANG      MAG   ANG      MAG   ANG
 0.010  0.1908  -76.7  73.232  166.4  0.0037   76.1  0.8348  -17.7
 0.015  0.2501  -92.6  69.758  160.2  0.0051   71.0  0.8004  -25.4
 0.020  0.3210 -101.9  67.185  153.4  0.0066   68.2  0.7816  -33.6
 0.025  0.3475 -110.3  63.346  150.3  0.0076   64.6  0.7321  -38.1
 0.030  0.3803 -117.3  59.709  146.9  0.0086   61.8  0.6878  -43.2
 0.035  0.4179 -123.2  56.315  143.0  0.0096   59.7  0.6496  -49.0
 0.040  0.4591 -128.0  53.209  138.7  0.0107   57.9  0.6189  -55.4
 0.045  0.5031 -132.0  50.444  133.9  0.0117   56.5  0.5966  -62.4
 0.050  0.5491 -135.4  48.080  128.5  0.0128   55.3  0.5838  -69.8
 0.055  0.5556 -138.0  46.009  127.3  0.0132   54.7  0.5598  -72.1
 0.060  0.5632 -140.6  43.958  126.1  0.0136   54.1  0.5367  -74.6
 0.065  0.5719 -143.1  41.931  124.7  0.0140   53.6  0.5148  -77.3
 0.070  0.5816 -145.5  39.930  123.2  0.0145   53.1  0.4941  -80.2
 0.075  0.5924 -147.9  37.961  121.5  0.0149   52.6  0.4748  -83.4
 0.080  0.6041 -150.1  36.029  119.6  0.0153   52.2  0.4571  -86.9
 0.085  0.6167 -152.3  34.139  117.5  0.0157   51.7  0.4412  -90.6
 0.090  0.6301 -154.3  32.300  115.2  0.0162   51.3  0.4273  -94.5
 0.095  0.6443 -156.3  30.520  112.6  0.0166   51.0  0.4156  -98.8
 0.100  0.6593 -158.2  28.810  109.7  0.0170   50.6  0.4062 -103.2
 0.105  0.6615 -159.1  27.911  109.1  0.0174   50.9  0.3977 -104.7
 0.110  0.6639 -160.1  27.015  108.4  0.0178   51.1  0.3894 -106.3
 0.115  0.6665 -161.0  26.124  107.7  0.0181   51.3  0.3815 -108.0
 0.120  0.6693 -161.9  25.236  106.9  0.0185   51.5  0.3739 -109.7
 0.125  0.6722 -162.9  24.353  106.1  0.0189   51.8  0.3666 -111.5
 0.130  0.6753 -163.8  23.476  105.3  0.0193   52.0  0.3597 -113.4
 0.135  0.6785 -164.7  22.604  104.3  0.0197   52.2  0.3533 -115.3
 0.140  0.6820 -165.5  21.740  103.3  0.0200   52.3  0.3472 -117.4
 0.145  0.6855 -166.4  20.882  102.2  0.0204   52.5  0.3416 -119.4
 0.150  0.6893 -167.3  20.033  101.0  0.0208   52.7  0.3365 -121.6
 0.155  0.6893 -167.9  19.551  100.6  0.0211   53.1  0.3329 -122.6
 0.160  0.6895 -168.5  19.070  100.2  0.0215   53.5  0.3294 -123.7
 0.165  0.6897 -169.2  18.590   99.7  0.0218   53.9  0.3260 -124.8
 0.170  0.6900 -169.8  18.111   99.2  0.0221   54.3  0.3227 -125.9
 0.175  0.6903 -170.4  17.634   98.7  0.0224   54.6  0.3195 -127.1
 0.180  0.6908 -171.0  17.158   98.2  0.0228   55.0  0.3165 -128.2
 0.185  0.6913 -171.6  16.684   97.6  0.0231   55.3  0.3136 -129.4
 0.190  0.6919 -172.3  16.211   97.0  0.0234   55.7  0.3109 -130.6
 0.195  0.6926 -172.9  15.741   96.4  0.0238   56.0  0.3083 -131.9
 0.200  0.6934 -173.5  15.272   95.7  0.0241   56.3  0.3058 -133.1
 0.220  0.6967 -175.2  14.045   94.4  0.0256   57.4  0.2986 -136.4
 0.240  0.7007 -176.9  12.827   92.9  0.0271   58.4  0.2925 -139.8
 0.260  0.7033 -178.4  11.826   91.5  0.0286   59.3  0.2879 -142.7
 0.280  0.7042 -179.7  11.038   90.5  0.0303   60.3  0.2844 -144.9
 0.300  0.7055  179.1  10.253   89.3  0.0320   61.1  0.2813 -147.1
 0.320  0.7061  178.0   9.750   88.6  0.0336   61.7  0.2791 -148.7
 0.340  0.7069  176.8   9.249   87.8  0.0352   62.3  0.2771 -150.2
 0.360  0.7080  175.7   8.749   86.9  0.0367   62.8  0.2754 -151.8
 0.380  0.7094  174.5   8.252   85.9  0.0383   63.3  0.2738 -153.5
 0.400  0.7111  173.4   7.758   84.8  0.0399   63.7  0.2725 -155.1
 0.420  0.7114  172.6   7.446   84.2  0.0414   63.9  0.2715 -156.1
 0.440  0.7118  171.8   7.135   83.5  0.0429   64.1  0.2706 -157.1
 0.450  0.7120  171.3   6.980   83.1  0.0436   64.2  0.2702 -157.6
 0.460  0.7123  170.9   6.825   82.7  0.0444   64.3  0.2698 -158.1
 0.480  0.7130  170.1   6.516   81.9  0.0459   64.5  0.2691 -159.2
 0.500  0.7139  169.3   6.209   81.0  0.0474   64.7  0.2685 -160.2
 0.520  0.7134  168.5   6.000   80.3  0.0491   64.9  0.2684 -160.9
 0.540  0.7130  167.6   5.791   79.6  0.0509   65.1  0.2683 -161.6
 0.560  0.7128  166.8   5.584   78.8  0.0526   65.2  0.2682 -162.4
 0.580  0.7128  165.9   5.377   78.0  0.0544   65.4  0.2682 -163.1
 0.600  0.7129  165.1   5.172   77.1  0.0561   65.5  0.2682 -163.8
 0.620  0.7132  164.3   5.025   76.4  0.0578   65.3  0.2683 -164.3
 0.640  0.7137  163.6   4.879   75.8  0.0595   65.2  0.2684 -164.8
 0.660  0.7143  162.8   4.733   75.0  0.0611   65.0  0.2686 -165.3
 0.680  0.7150  162.1   4.589   74.2  0.0628   64.8  0.2687 -165.8
 0.700  0.7158  161.3   4.445   73.4  0.0645   64.7  0.2689 -166.3
 0.720  0.7157  160.6   4.334   72.9  0.0662   64.6  0.2691 -166.7
 0.740  0.7158  159.9   4.223   72.3  0.0679   64.5  0.2694 -167.2
 0.760  0.7159  159.3   4.112   71.8  0.0696   64.4  0.2697 -167.6
 0.780  0.7162  158.6   4.002   71.1  0.0713   64.3  0.2700 -168.1
 0.800  0.7165  157.9   3.892   70.5  0.0730   64.2  0.2703 -168.5
 0.820  0.7165  157.3   3.807   69.9  0.0747   64.1  0.2704 -168.9
 0.840  0.7165  156.6   3.723   69.3  0.0764   63.9  0.2706 -169.3
 0.860  0.7167  156.0   3.639   68.7  0.0781   63.8  0.2707 -169.7
 0.880  0.7169  155.3   3.556   68.0  0.0798   63.7  0.2709 -170.1
 0.900  0.7172  154.7   3.473   67.3  0.0815   63.6  0.2711 -170.5
 0.920  0.7172  153.9   3.404   66.8  0.0831   63.3  0.2716 -170.8
 0.940  0.7173  153.0   3.335   66.2  0.0847   63.1  0.2721 -171.1
 0.960  0.7176  152.2   3.267   65.6  0.0863   62.9  0.2726 -171.3
 0.980  0.7180  151.3   3.199   65.0  0.0879   62.6  0.2732 -171.6
 1.000  0.7186  150.5   3.131   64.4  0.0895   62.4  0.2737 -171.9
 1.020  0.7195  149.9   3.074   63.8  0.0911   62.2  0.2743 -172.2
 1.040  0.7205  149.3   3.018   63.2  0.0927   62.0  0.2749 -172.5
 1.060  0.7216  148.8   2.962   62.6  0.0942   61.8  0.2755 -172.8
 1.080  0.7228  148.2   2.907   61.9  0.0958   61.7  0.2762 -173.1
 1.100  0.7240  147.6   2.852   61.2  0.0974   61.5  0.2768 -173.4
 1.120  0.7258  146.9   2.805   60.7  0.0990   61.3  0.2774 -173.7
 1.140  0.7278  146.2   2.758   60.1  0.1006   61.1  0.2780 -173.9
 1.160  0.7299  145.5   2.712   59.6  0.1023   60.9  0.2786 -174.2
 1.180  0.7320  144.8   2.666   59.0  0.1039   60.7  0.2793 -174.4
 1.200  0.7343  144.1   2.620   58.4  0.1055   60.5  0.2799 -174.7
 1.220  0.7331  143.5   2.579   57.9  0.1071   60.1  0.2806 -175.0
 1.240  0.7321  142.8   2.539   57.3  0.1088   59.8  0.2812 -175.2
 1.260  0.7311  142.2   2.499   56.7  0.1104   59.4  0.2819 -175.5
 1.280  0.7302  141.5   2.459   56.1  0.1121   59.1  0.2826 -175.7
 1.300  0.7294  140.9   2.419   55.5  0.1137   58.8  0.2833 -176.0
 1.320  0.7301  140.3   2.384   55.0  0.1152   58.5  0.2839 -176.2
 1.340  0.7309  139.6   2.350   54.5  0.1167   58.3  0.2844 -176.4
 1.360  0.7318  139.0   2.316   54.0  0.1183   58.0  0.2850 -176.7
 1.380  0.7327  138.3   2.282   53.5  0.1198   57.7  0.2856 -176.9
 1.400  0.7338  137.7   2.248   53.0  0.1213   57.5  0.2862 -177.1
 1.420  0.7336  137.2   2.223   52.5  0.1228   57.2  0.2871 -177.3
 1.440  0.7335  136.8   2.197   51.9  0.1244   56.9  0.2879 -177.5
 1.460  0.7335  136.3   2.172   51.4  0.1259   56.6  0.2888 -177.8
 1.480  0.7335  135.9   2.148   50.8  0.1275   56.3  0.2897 -178.0
 1.500  0.7335  135.4   2.123   50.2  0.1290   56.0  0.2906 -178.2
 1.520  0.7351  134.8   2.092   49.7  0.1305   55.7  0.2915 -178.5
 1.540  0.7368  134.2   2.061   49.1  0.1321   55.4  0.2923 -178.8
 1.560  0.7386  133.5   2.031   48.5  0.1336   55.1  0.2932 -179.0
 1.580  0.7404  132.9   2.000   47.9  0.1352   54.9  0.2941 -179.3
 1.600  0.7424  132.3   1.970   47.3  0.1367   54.6  0.2950 -179.6
 1.620  0.7423  131.6   1.947   46.8  0.1381   54.3  0.2957 -179.9
 1.640  0.7424  130.9   1.924   46.3  0.1395   54.1  0.2964  179.8
 1.660  0.7425  130.3   1.902   45.7  0.1409   53.8  0.2971  179.6
 1.680  0.7428  129.6   1.879   45.2  0.1423   53.5  0.2979  179.3
 1.700  0.7431  128.9   1.857   44.6  0.1437   53.3  0.2986  179.0
 1.720  0.7440  128.3   1.839   44.2  0.1451   52.9  0.2993  178.8
 1.740  0.7450  127.7   1.822   43.7  0.1466   52.6  0.3000  178.7
 1.760  0.7461  127.2   1.804   43.2  0.1481   52.2  0.3006  178.5
 1.780  0.7473  126.6   1.787   42.8  0.1495   51.8  0.3013  178.4
 1.800  0.7485  126.0   1.770   42.3  0.1510   51.5  0.3020  178.2
 1.820  0.7491  125.5   1.751   41.8  0.1525   51.2  0.3033  177.9
 1.840  0.7497  125.0   1.733   41.3  0.1541   50.9  0.3047  177.7
 1.860  0.7504  124.6   1.714   40.7  0.1556   50.6  0.3061  177.4
 1.880  0.7512  124.1   1.696   40.2  0.1572   50.3  0.3074  177.2
 1.900  0.7520  123.6   1.678   39.6  0.1587   50.0  0.3088  176.9
 1.920  0.7531  123.1   1.660   39.1  0.1600   49.7  0.3097  176.6
 1.940  0.7543  122.5   1.643   38.6  0.1613   49.3  0.3107  176.3
 1.960  0.7555  122.0   1.625   38.1  0.1626   49.0  0.3116  175.9
 1.980  0.7568  121.4   1.608   37.5  0.1640   48.7  0.3125  175.6
 2.000  0.7582  120.9   1.591   37.0  0.1653   48.4  0.3135  175.3
 2.020  0.7581  120.3   1.576   36.6  0.1666   48.1  0.3145  175.0
 2.040  0.7581  119.8   1.561   36.1  0.1679   47.8  0.3154  174.8
 2.060  0.7582  119.2   1.546   35.6  0.1692   47.5  0.3164  174.5
 2.080  0.7583  118.7   1.532   35.2  0.1706   47.1  0.3173  174.3
 2.100  0.7585  118.1   1.517   34.7  0.1719   46.8  0.3183  174.0
 2.120  0.7588  117.6   1.503   34.2  0.1732   46.5  0.3193  173.8
 2.140  0.7591  117.0   1.488   33.7  0.1746   46.3  0.3203  173.5
 2.160  0.7596  116.5   1.474   33.2  0.1759   46.0  0.3213  173.3
 2.180  0.7600  115.9   1.460   32.6  0.1772   45.7  0.3223  173.0
 2.200  0.7606  115.4   1.446   32.1  0.1786   45.4  0.3233  172.8
 2.220  0.7616  114.8   1.435   31.6  0.1798   45.1  0.3246  172.5
 2.240  0.7628  114.3   1.424   31.1  0.1811   44.7  0.3259  172.2
 2.260  0.7640  113.7   1.413   30.6  0.1823   44.4  0.3272  171.8
 2.280  0.7652  113.2   1.402   30.1  0.1835   44.1  0.3285  171.5
 2.300  0.7666  112.6   1.391   29.6  0.1848   43.8  0.3298  171.2
 2.320  0.7680  112.1   1.380   29.1  0.1860   43.5  0.3311  170.9
 2.340  0.7695  111.5   1.370   28.5  0.1873   43.2  0.3324  170.6
 2.360  0.7710  111.0   1.359   28.0  0.1886   42.9  0.3338  170.3
 2.380  0.7726  110.4   1.349   27.5  0.1898   42.6  0.3351  170.0
 2.400  0.7743  109.9   1.339   26.9  0.1911   42.3  0.3365  169.7
 2.420  0.7748  109.4   1.328   26.5  0.1922   42.0  0.3376  169.4
 2.440  0.7753  108.9   1.317   26.1  0.1934   41.7  0.3387  169.1
 2.460  0.7758  108.5   1.306   25.7  0.1945   41.3  0.3397  168.9
 2.480  0.7764  108.0   1.295   25.2  0.1956   41.0  0.3408  168.6
 2.500  0.7771  107.5   1.284   24.8  0.1968   40.7  0.3420  168.3
 2.520  0.7778  107.0   1.273   24.3  0.1979   40.4  0.3431  168.1
 2.540  0.7786  106.5   1.263   23.9  0.1991   40.1  0.3442  167.8
 2.560  0.7795  106.1   1.252   23.4  0.2003   39.8  0.3453  167.5
 2.580  0.7804  105.6   1.241   23.0  0.2014   39.5  0.3465  167.3
 2.600  0.7813  105.1   1.231   22.5  0.2026   39.2  0.3476  167.0
 2.620  0.7821  104.6   1.222   22.1  0.2037   38.9  0.3491  166.7
 2.640  0.7830  104.1   1.213   21.7  0.2048   38.6  0.3507  166.4
 2.660  0.7839  103.6   1.204   21.3  0.2059   38.3  0.3522  166.1
 2.680  0.7849  103.2   1.195   20.9  0.2070   38.0  0.3538  165.8
 2.700  0.7860  102.7   1.187   20.4  0.2081   37.7  0.3554  165.5
 2.720  0.7871  102.2   1.178   20.0  0.2092   37.4  0.3570  165.2
 2.740  0.7882  101.7   1.169   19.6  0.2103   37.1  0.3586  164.9
 2.760  0.7894  101.2   1.161   19.1  0.2114   36.8  0.3602  164.6
 2.780  0.7907  100.8   1.152   18.7  0.2126   36.5  0.3618  164.3
 2.800  0.7920  100.3   1.144   18.2  0.2137   36.2  0.3634  164.0
 2.820  0.7924   99.9   1.136   17.8  0.2147   35.9  0.3646  163.7
 2.840  0.7929   99.5   1.128   17.4  0.2157   35.6  0.3658  163.4
 2.860  0.7935   99.0   1.120   16.9  0.2168   35.2  0.3670  163.1
 2.880  0.7940   98.6   1.112   16.5  0.2178   34.9  0.3682  162.9
 2.900  0.7947   98.2   1.104   16.1  0.2188   34.6  0.3694  162.6
 2.920  0.7953   97.8   1.096   15.6  0.2199   34.3  0.3706  162.3
 2.940  0.7960   97.4   1.088   15.2  0.2209   34.0  0.3718  162.0
 2.960  0.7968   96.9   1.080   14.7  0.2220   33.7  0.3731  161.7
 2.980  0.7976   96.5   1.073   14.3  0.2230   33.4  0.3743  161.5
 3.000  0.7984   96.1   1.065   13.8  0.2241   33.1  0.3756  161.2
 3.100  0.8012   94.1   1.031   12.2  0.2282   31.6  0.3825  159.7
 3.200  0.8049   92.1   0.998   10.4  0.2324   30.2  0.3896  158.2
 3.300  0.8095   90.2   0.966    8.5  0.2367   28.8  0.3969  156.8
 3.400  0.8152   88.2   0.935    6.5  0.2412   27.5  0.4045  155.5
 3.500  0.8217   86.3   0.905    4.4  0.2458   26.2  0.4123  154.2
 3.600  0.8230   84.5   0.880    2.9  0.2493   24.9  0.4191  152.8
 3.700  0.8250   82.8   0.856    1.4  0.2529   23.6  0.4262  151.5
 3.800  0.8279   81.0   0.833   -0.2  0.2566   22.3  0.4335  150.2
 3.900  0.8315   79.3   0.810   -2.0  0.2604   21.1  0.4410  148.9
 4.000  0.8358   77.6   0.788   -3.8  0.2644   19.9  0.4487  147.7
 4.100  0.8366   76.1   0.770   -5.0  0.2678   18.7  0.4541  146.5
 4.200  0.8380   74.7   0.752   -6.3  0.2713   17.4  0.4598  145.3
 4.300  0.8400   73.2   0.735   -7.6  0.2749   16.3  0.4656  144.1
 4.400  0.8425   71.7   0.718   -9.0  0.2786   15.1  0.4716  143.0
 4.500  0.8455   70.3   0.702  -10.5  0.2824   14.0  0.4778  141.9
 4.600  0.8465   69.0   0.689  -11.7  0.2853   12.9  0.4826  140.9
 4.700  0.8480   67.7   0.677  -12.9  0.2884   11.7  0.4875  139.8
 4.800  0.8499   66.4   0.665  -14.1  0.2915   10.6  0.4926  138.8
 4.900  0.8523   65.2   0.653  -15.4  0.2947    9.6  0.4978  137.9
 5.000  0.8550   63.9   0.642  -16.8  0.2981    8.5  0.5032  136.9
 5.100  0.8569   62.7   0.630  -17.7  0.3011    7.4  0.5083  135.8
 5.200  0.8592   61.6   0.619  -18.6  0.3041    6.3  0.5136  134.8
 5.300  0.8618   60.5   0.608  -19.5  0.3073    5.3  0.5191  133.7
 5.400  0.8648   59.3   0.597  -20.5  0.3106    4.2  0.5247  132.7
 5.500  0.8681   58.2   0.586  -21.5  0.3140    3.2  0.5305  131.7
 5.600  0.8668   57.1   0.578  -22.4  0.3167    2.0  0.5352  130.6
 5.700  0.8658   55.9   0.571  -23.4  0.3194    0.8  0.5400  129.6
 5.800  0.8652   54.8   0.564  -24.4  0.3224   -0.3  0.5450  128.6
 5.900  0.8649   53.6   0.557  -25.4  0.3254   -1.5  0.5502  127.6
 6.000  0.8649   52.5   0.550  -26.5  0.3286   -2.6  0.5555  126.6
!
!  f       NFmin   Gammaopt  rn/50
! GHz       dB    MAG  ANG    -
!
! noise parameter not available yet for this operation point!
!
! (c) 2016  Infineon Technologies AG, Munich
