! Infineon Technologies  Discrete & RF Semiconductors
! BFP183
! VCE = 8.0 V,  IC =  3.0 mA
! Common Emitter S-Parameters:                            Jan 2016
# GHz  S  MA  R  50
!  f         S11            S21            S12            S22
! GHz     MAG   ANG      MAG   ANG      MAG   ANG      MAG   ANG
 0.010  0.9007   -2.0   9.643  178.7  0.0019   82.0  0.9969   -0.8
 0.015  0.9003   -3.2   9.634  178.2  0.0029   86.7  0.9917   -1.2
 0.020  0.9002   -4.4   9.626  177.6  0.0040   89.0  0.9866   -1.7
 0.025  0.8976   -5.5   9.610  176.8  0.0050   87.7  0.9868   -2.1
 0.030  0.8954   -6.6   9.595  176.0  0.0061   86.8  0.9871   -2.5
 0.035  0.8935   -7.7   9.582  175.2  0.0071   86.2  0.9874   -3.0
 0.040  0.8919   -8.9   9.571  174.4  0.0081   85.7  0.9877   -3.4
 0.045  0.8907  -10.0   9.562  173.6  0.0092   85.4  0.9881   -3.8
 0.050  0.8898  -11.1   9.555  172.8  0.0102   85.1  0.9886   -4.2
 0.055  0.8879  -12.1   9.533  172.1  0.0112   83.9  0.9871   -4.6
 0.060  0.8862  -13.0   9.513  171.4  0.0121   82.9  0.9857   -5.1
 0.065  0.8848  -14.0   9.494  170.8  0.0131   82.0  0.9843   -5.5
 0.070  0.8837  -15.0   9.476  170.1  0.0141   81.3  0.9829   -5.9
 0.075  0.8828  -16.0   9.459  169.4  0.0150   80.6  0.9817   -6.3
 0.080  0.8822  -17.0   9.444  168.7  0.0160   80.0  0.9804   -6.8
 0.085  0.8818  -17.9   9.431  168.0  0.0170   79.5  0.9793   -7.2
 0.090  0.8817  -18.9   9.418  167.3  0.0179   79.1  0.9782   -7.6
 0.095  0.8819  -19.9   9.407  166.6  0.0189   78.7  0.9771   -8.1
 0.100  0.8823  -20.9   9.398  165.9  0.0199   78.3  0.9761   -8.5
 0.105  0.8794  -21.9   9.368  165.2  0.0209   77.4  0.9741   -8.9
 0.110  0.8767  -23.0   9.339  164.5  0.0219   76.6  0.9721   -9.3
 0.115  0.8744  -24.1   9.312  163.8  0.0229   75.9  0.9702   -9.7
 0.120  0.8724  -25.1   9.286  163.1  0.0239   75.2  0.9684  -10.1
 0.125  0.8706  -26.2   9.261  162.4  0.0249   74.6  0.9666  -10.5
 0.130  0.8692  -27.3   9.238  161.7  0.0259   74.0  0.9648  -10.9
 0.135  0.8681  -28.4   9.216  161.0  0.0269   73.5  0.9631  -11.3
 0.140  0.8673  -29.4   9.196  160.3  0.0279   73.0  0.9614  -11.7
 0.145  0.8668  -30.5   9.177  159.6  0.0289   72.5  0.9598  -12.1
 0.150  0.8666  -31.6   9.159  158.9  0.0299   72.1  0.9582  -12.5
 0.155  0.8636  -32.6   9.133  158.3  0.0307   71.6  0.9556  -12.9
 0.160  0.8609  -33.6   9.108  157.6  0.0316   71.1  0.9530  -13.2
 0.165  0.8585  -34.6   9.084  157.0  0.0324   70.6  0.9505  -13.6
 0.170  0.8563  -35.6   9.061  156.3  0.0332   70.2  0.9480  -13.9
 0.175  0.8544  -36.6   9.040  155.6  0.0341   69.7  0.9455  -14.3
 0.180  0.8528  -37.7   9.020  155.0  0.0349   69.3  0.9431  -14.6
 0.185  0.8514  -38.7   9.001  154.3  0.0358   69.0  0.9407  -15.0
 0.190  0.8503  -39.7   8.983  153.6  0.0366   68.6  0.9384  -15.4
 0.195  0.8495  -40.8   8.966  153.0  0.0375   68.2  0.9361  -15.7
 0.200  0.8490  -41.8   8.951  152.3  0.0383   67.9  0.9338  -16.1
 0.220  0.8369  -45.4   8.795  149.9  0.0413   65.6  0.9221  -17.5
 0.240  0.8281  -49.1   8.655  147.4  0.0443   63.7  0.9109  -19.0
 0.260  0.8198  -52.7   8.514  145.1  0.0471   61.8  0.8987  -20.2
 0.280  0.8115  -56.2   8.366  143.0  0.0497   60.0  0.8852  -21.4
 0.300  0.8063  -59.8   8.229  140.8  0.0524   58.3  0.8721  -22.5
 0.320  0.7911  -62.9   8.053  138.8  0.0546   56.4  0.8599  -23.4
 0.340  0.7784  -66.2   7.887  136.7  0.0568   54.7  0.8479  -24.4
 0.360  0.7683  -69.5   7.733  134.5  0.0591   53.1  0.8362  -25.4
 0.380  0.7608  -72.9   7.590  132.3  0.0614   51.7  0.8247  -26.4
 0.400  0.7561  -76.4   7.459  129.9  0.0638   50.3  0.8135  -27.5
 0.420  0.7438  -79.3   7.297  128.2  0.0652   48.9  0.8019  -28.2
 0.440  0.7334  -82.3   7.141  126.5  0.0667   47.5  0.7904  -29.0
 0.450  0.7290  -83.8   7.065  125.6  0.0675   46.8  0.7847  -29.3
 0.460  0.7251  -85.4   6.992  124.7  0.0683   46.2  0.7790  -29.7
 0.480  0.7190  -88.5   6.850  122.8  0.0698   44.9  0.7678  -30.5
 0.500  0.7150  -91.7   6.716  120.8  0.0714   43.7  0.7567  -31.3
 0.520  0.7053  -94.2   6.586  119.4  0.0725   42.6  0.7465  -31.8
 0.540  0.6971  -96.8   6.460  118.0  0.0736   41.6  0.7363  -32.4
 0.560  0.6903  -99.5   6.339  116.5  0.0748   40.5  0.7262  -33.0
 0.580  0.6850 -102.2   6.221  114.9  0.0759   39.6  0.7161  -33.6
 0.600  0.6813 -104.9   6.109  113.3  0.0771   38.6  0.7062  -34.2
 0.620  0.6745 -107.1   5.972  112.1  0.0778   37.8  0.6979  -34.6
 0.640  0.6686 -109.3   5.838  110.9  0.0784   37.1  0.6896  -35.0
 0.660  0.6638 -111.5   5.706  109.6  0.0791   36.3  0.6813  -35.4
 0.680  0.6600 -113.8   5.578  108.2  0.0798   35.6  0.6731  -35.9
 0.700  0.6573 -116.1   5.453  106.8  0.0805   34.9  0.6649  -36.3
 0.720  0.6503 -118.0   5.358  105.7  0.0811   34.2  0.6584  -36.6
 0.740  0.6441 -120.0   5.265  104.5  0.0818   33.5  0.6519  -37.0
 0.760  0.6387 -122.0   5.174  103.3  0.0824   32.8  0.6455  -37.4
 0.780  0.6340 -124.0   5.085  102.1  0.0831   32.1  0.6391  -37.7
 0.800  0.6302 -126.1   4.999  100.8  0.0838   31.4  0.6327  -38.1
 0.820  0.6262 -127.9   4.912   99.8  0.0843   30.9  0.6274  -38.4
 0.840  0.6229 -129.8   4.826   98.8  0.0848   30.4  0.6220  -38.6
 0.860  0.6202 -131.6   4.742   97.8  0.0853   29.9  0.6167  -38.9
 0.880  0.6182 -133.5   4.659   96.7  0.0859   29.4  0.6114  -39.1
 0.900  0.6168 -135.4   4.578   95.6  0.0864   28.9  0.6061  -39.4
 0.920  0.6132 -137.2   4.500   94.7  0.0866   28.5  0.6015  -39.7
 0.940  0.6103 -139.1   4.424   93.7  0.0868   28.0  0.5969  -39.9
 0.960  0.6080 -141.0   4.349   92.7  0.0870   27.6  0.5924  -40.2
 0.980  0.6064 -142.9   4.275   91.7  0.0873   27.1  0.5878  -40.5
 1.000  0.6054 -144.8   4.203   90.6  0.0875   26.7  0.5833  -40.8
 1.020  0.6033 -146.4   4.141   89.7  0.0879   26.4  0.5792  -41.1
 1.040  0.6017 -147.9   4.081   88.8  0.0882   26.0  0.5750  -41.3
 1.060  0.6005 -149.5   4.022   87.9  0.0886   25.7  0.5709  -41.6
 1.080  0.5998 -151.1   3.963   86.9  0.0889   25.3  0.5668  -41.8
 1.100  0.5995 -152.7   3.906   85.9  0.0893   25.0  0.5627  -42.1
 1.120  0.5971 -154.1   3.845   85.2  0.0894   24.6  0.5599  -42.4
 1.140  0.5951 -155.5   3.786   84.4  0.0894   24.2  0.5571  -42.6
 1.160  0.5935 -156.9   3.726   83.6  0.0895   23.9  0.5544  -42.9
 1.180  0.5921 -158.3   3.668   82.8  0.0895   23.5  0.5516  -43.1
 1.200  0.5912 -159.7   3.610   82.0  0.0896   23.1  0.5489  -43.4
 1.220  0.5900 -161.0   3.559   81.3  0.0897   22.9  0.5460  -43.6
 1.240  0.5892 -162.4   3.509   80.5  0.0899   22.8  0.5432  -43.8
 1.260  0.5887 -163.7   3.460   79.7  0.0900   22.6  0.5404  -44.1
 1.280  0.5885 -165.1   3.411   78.9  0.0902   22.5  0.5375  -44.3
 1.300  0.5886 -166.4   3.363   78.1  0.0903   22.3  0.5347  -44.5
 1.320  0.5872 -167.7   3.319   77.4  0.0904   22.1  0.5325  -44.7
 1.340  0.5860 -169.0   3.276   76.7  0.0905   21.9  0.5303  -45.0
 1.360  0.5852 -170.3   3.234   75.9  0.0905   21.8  0.5281  -45.2
 1.380  0.5846 -171.6   3.191   75.2  0.0906   21.6  0.5259  -45.5
 1.400  0.5844 -172.9   3.150   74.4  0.0907   21.4  0.5237  -45.7
 1.420  0.5843 -174.0   3.111   73.7  0.0908   21.3  0.5215  -45.9
 1.440  0.5844 -175.1   3.073   72.9  0.0909   21.1  0.5192  -46.1
 1.460  0.5847 -176.3   3.035   72.2  0.0909   21.0  0.5170  -46.4
 1.480  0.5853 -177.4   2.998   71.4  0.0910   20.8  0.5148  -46.6
 1.500  0.5861 -178.5   2.961   70.6  0.0911   20.7  0.5126  -46.8
 1.520  0.5864 -179.6   2.925   70.0  0.0912   20.6  0.5111  -47.0
 1.540  0.5870  179.4   2.889   69.4  0.0912   20.4  0.5097  -47.3
 1.560  0.5877  178.3   2.854   68.7  0.0913   20.3  0.5083  -47.5
 1.580  0.5887  177.3   2.819   68.1  0.0913   20.1  0.5068  -47.8
 1.600  0.5898  176.2   2.784   67.4  0.0914   20.0  0.5054  -48.0
 1.620  0.5903  175.1   2.753   66.8  0.0915   20.0  0.5039  -48.3
 1.640  0.5910  174.0   2.722   66.1  0.0916   20.0  0.5025  -48.6
 1.660  0.5920  172.9   2.691   65.5  0.0918   19.9  0.5010  -48.9
 1.680  0.5931  171.8   2.661   64.8  0.0919   19.9  0.4996  -49.2
 1.700  0.5945  170.7   2.631   64.1  0.0920   19.9  0.4982  -49.5
 1.720  0.5947  169.6   2.604   63.5  0.0921   19.8  0.4967  -49.7
 1.740  0.5950  168.6   2.577   62.8  0.0922   19.8  0.4951  -50.0
 1.760  0.5956  167.5   2.551   62.2  0.0923   19.7  0.4936  -50.2
 1.780  0.5964  166.5   2.525   61.5  0.0924   19.7  0.4921  -50.5
 1.800  0.5974  165.4   2.499   60.8  0.0925   19.6  0.4906  -50.7
 1.820  0.5972  164.6   2.473   60.2  0.0925   19.5  0.4894  -51.0
 1.840  0.5972  163.7   2.447   59.6  0.0925   19.5  0.4882  -51.3
 1.860  0.5973  162.9   2.422   59.0  0.0926   19.4  0.4870  -51.5
 1.880  0.5975  162.0   2.397   58.3  0.0926   19.4  0.4859  -51.8
 1.900  0.5979  161.2   2.372   57.7  0.0926   19.3  0.4847  -52.1
 1.920  0.5980  160.2   2.347   57.1  0.0927   19.3  0.4836  -52.4
 1.940  0.5983  159.2   2.322   56.5  0.0928   19.4  0.4825  -52.6
 1.960  0.5988  158.2   2.298   55.9  0.0930   19.4  0.4814  -52.9
 1.980  0.5995  157.2   2.274   55.3  0.0931   19.5  0.4803  -53.1
 2.000  0.6003  156.2   2.250   54.7  0.0932   19.5  0.4792  -53.4
 2.020  0.6010  155.4   2.229   54.2  0.0933   19.5  0.4783  -53.7
 2.040  0.6019  154.6   2.207   53.6  0.0933   19.5  0.4774  -54.0
 2.060  0.6029  153.8   2.186   53.0  0.0934   19.5  0.4765  -54.3
 2.080  0.6040  153.0   2.166   52.5  0.0934   19.5  0.4756  -54.7
 2.100  0.6052  152.2   2.145   51.9  0.0935   19.4  0.4747  -55.0
 2.120  0.6065  151.4   2.125   51.3  0.0936   19.4  0.4739  -55.3
 2.140  0.6080  150.6   2.105   50.7  0.0936   19.4  0.4730  -55.6
 2.160  0.6095  149.9   2.085   50.1  0.0937   19.4  0.4722  -56.0
 2.180  0.6112  149.1   2.065   49.4  0.0937   19.4  0.4714  -56.3
 2.200  0.6130  148.3   2.046   48.8  0.0938   19.4  0.4706  -56.6
 2.220  0.6138  147.5   2.029   48.3  0.0939   19.5  0.4697  -56.9
 2.240  0.6148  146.7   2.012   47.8  0.0940   19.5  0.4687  -57.3
 2.260  0.6159  145.9   1.996   47.3  0.0941   19.6  0.4678  -57.6
 2.280  0.6171  145.1   1.979   46.7  0.0942   19.6  0.4670  -58.0
 2.300  0.6184  144.3   1.963   46.2  0.0943   19.7  0.4661  -58.3
 2.320  0.6198  143.5   1.947   45.7  0.0945   19.8  0.4652  -58.7
 2.340  0.6214  142.7   1.931   45.1  0.0946   19.8  0.4644  -59.0
 2.360  0.6231  141.9   1.915   44.6  0.0947   19.9  0.4636  -59.4
 2.380  0.6249  141.1   1.899   44.0  0.0948   19.9  0.4628  -59.7
 2.400  0.6268  140.3   1.884   43.4  0.0949   20.0  0.4620  -60.1
 2.420  0.6282  139.6   1.867   42.9  0.0951   20.1  0.4612  -60.4
 2.440  0.6296  139.0   1.851   42.4  0.0952   20.1  0.4603  -60.8
 2.460  0.6312  138.3   1.834   41.9  0.0954   20.2  0.4595  -61.1
 2.480  0.6328  137.7   1.818   41.4  0.0956   20.3  0.4587  -61.4
 2.500  0.6345  137.0   1.802   40.9  0.0957   20.4  0.4579  -61.8
 2.520  0.6363  136.4   1.786   40.4  0.0959   20.4  0.4572  -62.1
 2.540  0.6382  135.7   1.770   39.9  0.0961   20.5  0.4564  -62.5
 2.560  0.6402  135.1   1.755   39.3  0.0963   20.6  0.4557  -62.8
 2.580  0.6422  134.4   1.739   38.8  0.0964   20.6  0.4550  -63.2
 2.600  0.6443  133.8   1.724   38.2  0.0966   20.7  0.4543  -63.5
 2.620  0.6452  133.1   1.711   37.7  0.0968   20.8  0.4535  -63.9
 2.640  0.6461  132.4   1.698   37.2  0.0969   20.8  0.4528  -64.3
 2.660  0.6472  131.8   1.686   36.7  0.0971   20.9  0.4521  -64.6
 2.680  0.6483  131.1   1.673   36.1  0.0973   21.0  0.4513  -65.0
 2.700  0.6495  130.4   1.661   35.6  0.0974   21.1  0.4507  -65.4
 2.720  0.6509  129.7   1.648   35.1  0.0976   21.1  0.4500  -65.8
 2.740  0.6523  129.1   1.636   34.5  0.0978   21.2  0.4493  -66.1
 2.760  0.6538  128.4   1.624   33.9  0.0980   21.3  0.4487  -66.5
 2.780  0.6553  127.8   1.613   33.4  0.0981   21.3  0.4481  -66.9
 2.800  0.6570  127.1   1.601   32.8  0.0983   21.4  0.4475  -67.3
 2.820  0.6582  126.5   1.589   32.3  0.0985   21.5  0.4470  -67.7
 2.840  0.6594  125.9   1.577   31.9  0.0988   21.5  0.4464  -68.1
 2.860  0.6607  125.3   1.566   31.4  0.0990   21.6  0.4460  -68.5
 2.880  0.6621  124.7   1.554   30.9  0.0992   21.7  0.4455  -68.9
 2.900  0.6635  124.1   1.543   30.4  0.0994   21.8  0.4450  -69.3
 2.920  0.6650  123.5   1.532   29.9  0.0997   21.8  0.4446  -69.7
 2.940  0.6666  122.9   1.521   29.4  0.0999   21.9  0.4442  -70.1
 2.960  0.6683  122.4   1.510   28.9  0.1001   22.0  0.4438  -70.5
 2.980  0.6700  121.8   1.499   28.3  0.1004   22.0  0.4434  -70.9
 3.000  0.6718  121.2   1.488   27.8  0.1006   22.1  0.4431  -71.3
 3.100  0.6764  118.6   1.437   25.8  0.1021   22.5  0.4411  -73.4
 3.200  0.6824  116.0   1.387   23.7  0.1036   22.9  0.4398  -75.6
 3.300  0.6898  113.4   1.340   21.4  0.1051   23.2  0.4390  -77.7
 3.400  0.6986  110.9   1.295   19.0  0.1066   23.6  0.4389  -79.9
 3.500  0.7086  108.5   1.252   16.4  0.1081   23.9  0.4394  -82.0
 3.600  0.7133  106.4   1.213   14.6  0.1102   24.1  0.4375  -84.5
 3.700  0.7189  104.3   1.175   12.6  0.1124   24.4  0.4365  -87.1
 3.800  0.7254  102.3   1.139   10.6  0.1145   24.6  0.4364  -89.7
 3.900  0.7329  100.3   1.104    8.3  0.1167   24.8  0.4372  -92.2
 4.000  0.7412   98.3   1.071    6.0  0.1188   25.0  0.4388  -94.8
 4.100  0.7444   96.5   1.040    4.3  0.1210   25.0  0.4378  -97.6
 4.200  0.7483   94.7   1.009    2.5  0.1232   24.9  0.4377 -100.3
 4.300  0.7529   93.0   0.980    0.6  0.1255   24.9  0.4387 -103.1
 4.400  0.7582   91.2   0.952   -1.4  0.1277   24.8  0.4407 -105.8
 4.500  0.7642   89.5   0.925   -3.5  0.1299   24.8  0.4437 -108.5
 4.600  0.7672   88.1   0.900   -4.9  0.1325   25.0  0.4438 -111.1
 4.700  0.7706   86.7   0.875   -6.3  0.1352   25.2  0.4448 -113.7
 4.800  0.7744   85.4   0.851   -7.8  0.1378   25.4  0.4468 -116.3
 4.900  0.7787   84.0   0.828   -9.4  0.1405   25.5  0.4497 -118.9
 5.000  0.7834   82.7   0.805  -11.1  0.1431   25.7  0.4534 -121.4
 5.100  0.7865   81.5   0.785  -12.5  0.1472   25.1  0.4562 -124.1
 5.200  0.7899   80.3   0.766  -13.9  0.1512   24.5  0.4600 -126.8
 5.300  0.7937   79.2   0.748  -15.4  0.1553   24.0  0.4648 -129.4
 5.400  0.7978   78.0   0.729  -17.0  0.1594   23.5  0.4706 -131.9
 5.500  0.8022   76.9   0.712  -18.7  0.1635   23.0  0.4772 -134.4
 5.600  0.8061   75.8   0.696  -19.9  0.1667   22.3  0.4806 -137.0
 5.700  0.8104   74.7   0.681  -21.2  0.1699   21.6  0.4849 -139.5
 5.800  0.8149   73.6   0.665  -22.5  0.1732   20.9  0.4901 -142.0
 5.900  0.8197   72.6   0.650  -23.9  0.1765   20.2  0.4963 -144.4
 6.000  0.8248   71.5   0.636  -25.3  0.1798   19.6  0.5033 -146.8
!
!  f       NFmin   Gammaopt  rn/50
! GHz       dB    MAG  ANG    -
 0.450      1.10  0.37   35   0.30
 0.900      1.15  0.34   85   0.23
 1.800      1.90  0.35  160   0.13
!
! (c) 2016  Infineon Technologies AG, Munich
