! Infineon Technologies  Discrete & RF Semiconductors
! BFP183W
! VCE = 10.0V,  IC =  2.5 mA
! Common Emitter S-Parameters:                            Jan 2016
# GHz  S  MA  R  50
!  f         S11            S21            S12            S22
! GHz     MAG   ANG      MAG   ANG      MAG   ANG      MAG   ANG
 0.010  0.9203   -2.0   8.305  177.8  0.0023   87.5  0.9940   -0.9
 0.015  0.9194   -3.0   8.329  177.5  0.0035   85.4  0.9911   -1.3
 0.020  0.9188   -4.0   8.353  177.3  0.0048   84.4  0.9882   -1.8
 0.025  0.9185   -5.0   8.353  176.7  0.0059   84.0  0.9902   -2.2
 0.030  0.9186   -6.1   8.353  176.1  0.0070   83.7  0.9923   -2.6
 0.035  0.9176   -7.1   8.349  175.4  0.0082   83.7  0.9915   -3.0
 0.040  0.9169   -8.1   8.346  174.7  0.0094   83.6  0.9908   -3.5
 0.045  0.9164   -9.2   8.344  174.0  0.0106   83.6  0.9902   -3.9
 0.050  0.9163  -10.2   8.343  173.3  0.0118   83.6  0.9896   -4.4
 0.055  0.9147  -11.2   8.325  172.7  0.0129   82.6  0.9881   -4.8
 0.060  0.9133  -12.1   8.308  172.0  0.0139   81.7  0.9867   -5.2
 0.065  0.9122  -13.1   8.292  171.4  0.0150   81.0  0.9853   -5.6
 0.070  0.9113  -14.1   8.277  170.7  0.0161   80.3  0.9839   -6.1
 0.075  0.9107  -15.0   8.264  170.1  0.0172   79.8  0.9826   -6.5
 0.080  0.9104  -16.0   8.251  169.4  0.0183   79.3  0.9814   -6.9
 0.085  0.9103  -17.0   8.239  168.8  0.0193   78.9  0.9802   -7.3
 0.090  0.9105  -18.0   8.229  168.1  0.0204   78.5  0.9791   -7.8
 0.095  0.9110  -18.9   8.219  167.5  0.0215   78.1  0.9780   -8.2
 0.100  0.9117  -19.9   8.211  166.8  0.0226   77.8  0.9770   -8.6
 0.105  0.9090  -20.9   8.191  166.2  0.0237   77.1  0.9751   -9.0
 0.110  0.9066  -21.9   8.173  165.5  0.0247   76.5  0.9733   -9.4
 0.115  0.9044  -22.9   8.156  164.8  0.0258   75.9  0.9715   -9.8
 0.120  0.9025  -23.9   8.139  164.2  0.0269   75.4  0.9698  -10.2
 0.125  0.9009  -24.9   8.124  163.5  0.0280   74.9  0.9681  -10.6
 0.130  0.8995  -25.9   8.110  162.9  0.0291   74.4  0.9664  -11.0
 0.135  0.8984  -26.9   8.097  162.2  0.0301   74.0  0.9649  -11.5
 0.140  0.8976  -27.9   8.085  161.5  0.0312   73.6  0.9633  -11.9
 0.145  0.8971  -28.9   8.074  160.9  0.0323   73.2  0.9618  -12.3
 0.150  0.8969  -29.9   8.064  160.2  0.0334   72.9  0.9604  -12.7
 0.155  0.8940  -30.8   8.036  159.6  0.0344   72.2  0.9579  -13.1
 0.160  0.8914  -31.7   8.009  159.0  0.0353   71.6  0.9554  -13.5
 0.165  0.8890  -32.7   7.983  158.4  0.0363   71.0  0.9529  -13.8
 0.170  0.8868  -33.6   7.957  157.7  0.0373   70.5  0.9505  -14.2
 0.175  0.8849  -34.6   7.933  157.1  0.0383   70.0  0.9482  -14.6
 0.180  0.8832  -35.5   7.910  156.5  0.0392   69.5  0.9458  -15.0
 0.185  0.8817  -36.4   7.887  155.8  0.0402   69.0  0.9436  -15.4
 0.190  0.8805  -37.4   7.866  155.2  0.0412   68.5  0.9413  -15.8
 0.195  0.8795  -38.3   7.845  154.5  0.0422   68.1  0.9391  -16.2
 0.200  0.8788  -39.3   7.826  153.9  0.0432   67.7  0.9370  -16.6
 0.220  0.8708  -42.8   7.715  151.8  0.0467   65.6  0.9260  -18.0
 0.240  0.8662  -46.4   7.614  149.6  0.0502   63.7  0.9156  -19.5
 0.260  0.8589  -49.9   7.497  147.3  0.0536   61.9  0.9045  -20.8
 0.280  0.8489  -53.3   7.363  145.0  0.0567   60.0  0.8926  -22.0
 0.300  0.8419  -56.8   7.243  142.5  0.0599   58.4  0.8812  -23.3
 0.320  0.8299  -59.8   7.105  140.7  0.0624   56.6  0.8688  -24.3
 0.340  0.8202  -62.8   6.974  138.8  0.0649   54.9  0.8567  -25.4
 0.360  0.8129  -65.9   6.851  136.9  0.0675   53.3  0.8449  -26.5
 0.380  0.8080  -69.0   6.736  134.9  0.0701   51.8  0.8334  -27.6
 0.400  0.8055  -72.2   6.629  132.8  0.0728   50.5  0.8222  -28.8
 0.420  0.7947  -74.8   6.496  131.2  0.0746   49.1  0.8109  -29.6
 0.440  0.7857  -77.5   6.368  129.5  0.0765   47.8  0.7997  -30.4
 0.450  0.7818  -78.8   6.306  128.6  0.0774   47.2  0.7941  -30.8
 0.460  0.7783  -80.2   6.246  127.7  0.0784   46.6  0.7886  -31.2
 0.480  0.7728  -83.0   6.130  125.9  0.0803   45.4  0.7778  -32.0
 0.500  0.7691  -85.8   6.021  124.0  0.0823   44.3  0.7671  -32.9
 0.520  0.7612  -88.1   5.902  122.7  0.0835   43.1  0.7573  -33.5
 0.540  0.7546  -90.5   5.786  121.3  0.0848   42.0  0.7477  -34.2
 0.560  0.7493  -92.8   5.674  119.8  0.0861   40.8  0.7381  -34.9
 0.580  0.7453  -95.3   5.566  118.4  0.0874   39.8  0.7286  -35.6
 0.600  0.7426  -97.7   5.461  116.8  0.0888   38.7  0.7193  -36.3
 0.620  0.7358  -99.7   5.361  115.6  0.0897   37.9  0.7111  -36.8
 0.640  0.7300 -101.8   5.262  114.4  0.0907   37.1  0.7030  -37.3
 0.660  0.7251 -103.9   5.167  113.1  0.0917   36.3  0.6949  -37.8
 0.680  0.7211 -106.0   5.074  111.8  0.0927   35.5  0.6869  -38.3
 0.700  0.7182 -108.1   4.984  110.4  0.0937   34.8  0.6789  -38.8
 0.720  0.7131 -109.8   4.889  109.3  0.0944   34.1  0.6720  -39.3
 0.740  0.7086 -111.6   4.796  108.3  0.0951   33.3  0.6651  -39.8
 0.760  0.7048 -113.4   4.705  107.1  0.0958   32.6  0.6583  -40.3
 0.780  0.7017 -115.2   4.615  105.9  0.0965   31.9  0.6515  -40.8
 0.800  0.6993 -117.0   4.528  104.7  0.0972   31.2  0.6448  -41.3
 0.820  0.6945 -118.6   4.452  103.7  0.0977   30.6  0.6391  -41.6
 0.840  0.6902 -120.3   4.376  102.8  0.0982   30.0  0.6334  -42.0
 0.860  0.6865 -122.0   4.302  101.7  0.0987   29.4  0.6277  -42.4
 0.880  0.6835 -123.7   4.230  100.7  0.0993   28.8  0.6221  -42.7
 0.900  0.6810 -125.4   4.159   99.6  0.0998   28.2  0.6165  -43.1
 0.920  0.6781 -126.7   4.088   98.8  0.1001   27.7  0.6120  -43.5
 0.940  0.6755 -128.1   4.019   97.9  0.1003   27.2  0.6075  -43.8
 0.960  0.6734 -129.4   3.950   97.1  0.1006   26.8  0.6030  -44.2
 0.980  0.6715 -130.7   3.882   96.1  0.1009   26.3  0.5986  -44.6
 1.000  0.6701 -132.1   3.815   95.2  0.1012   25.8  0.5942  -45.0
 1.020  0.6687 -133.4   3.761   94.4  0.1015   25.4  0.5905  -45.3
 1.040  0.6675 -134.7   3.707   93.6  0.1018   25.0  0.5868  -45.6
 1.060  0.6668 -135.9   3.654   92.8  0.1021   24.5  0.5831  -45.9
 1.080  0.6663 -137.2   3.602   91.9  0.1025   24.1  0.5794  -46.2
 1.100  0.6662 -138.5   3.551   91.0  0.1028   23.7  0.5758  -46.5
 1.120  0.6642 -139.7   3.499   90.3  0.1030   23.3  0.5727  -46.8
 1.140  0.6625 -140.9   3.448   89.5  0.1031   22.9  0.5697  -47.2
 1.160  0.6611 -142.1   3.397   88.7  0.1033   22.6  0.5667  -47.5
 1.180  0.6600 -143.3   3.347   87.9  0.1034   22.2  0.5637  -47.9
 1.200  0.6592 -144.5   3.297   87.1  0.1036   21.8  0.5607  -48.2
 1.220  0.6580 -145.6   3.253   86.4  0.1036   21.6  0.5580  -48.5
 1.240  0.6571 -146.7   3.210   85.7  0.1036   21.3  0.5552  -48.8
 1.260  0.6564 -147.7   3.168   84.9  0.1037   21.1  0.5525  -49.0
 1.280  0.6559 -148.8   3.126   84.2  0.1037   20.8  0.5498  -49.3
 1.300  0.6557 -149.9   3.084   83.4  0.1037   20.6  0.5471  -49.6
 1.320  0.6543 -150.8   3.044   82.8  0.1038   20.3  0.5452  -49.9
 1.340  0.6532 -151.7   3.005   82.1  0.1039   20.0  0.5433  -50.2
 1.360  0.6521 -152.7   2.966   81.4  0.1039   19.8  0.5415  -50.4
 1.380  0.6513 -153.6   2.928   80.7  0.1040   19.5  0.5396  -50.7
 1.400  0.6506 -154.5   2.890   80.0  0.1041   19.2  0.5378  -51.0
 1.420  0.6500 -155.4   2.856   79.4  0.1040   19.1  0.5354  -51.3
 1.440  0.6496 -156.3   2.821   78.8  0.1039   18.9  0.5331  -51.6
 1.460  0.6493 -157.2   2.788   78.2  0.1038   18.8  0.5307  -52.0
 1.480  0.6492 -158.1   2.754   77.6  0.1037   18.6  0.5284  -52.3
 1.500  0.6493 -159.0   2.721   77.0  0.1036   18.5  0.5261  -52.6
 1.520  0.6488 -159.9   2.692   76.3  0.1037   18.4  0.5246  -52.8
 1.540  0.6484 -160.9   2.663   75.7  0.1037   18.2  0.5231  -53.1
 1.560  0.6482 -161.8   2.635   75.0  0.1038   18.1  0.5216  -53.3
 1.580  0.6482 -162.8   2.607   74.3  0.1038   17.9  0.5202  -53.6
 1.600  0.6484 -163.7   2.579   73.6  0.1039   17.8  0.5187  -53.8
 1.620  0.6477 -164.5   2.552   73.1  0.1038   17.7  0.5171  -54.1
 1.640  0.6471 -165.3   2.524   72.6  0.1037   17.6  0.5156  -54.5
 1.660  0.6467 -166.1   2.497   72.0  0.1036   17.4  0.5141  -54.8
 1.680  0.6464 -166.9   2.471   71.5  0.1035   17.3  0.5126  -55.2
 1.700  0.6462 -167.7   2.444   70.9  0.1034   17.2  0.5111  -55.5
 1.720  0.6461 -168.5   2.419   70.3  0.1034   17.2  0.5101  -55.7
 1.740  0.6460 -169.3   2.394   69.7  0.1033   17.1  0.5092  -56.0
 1.760  0.6461 -170.0   2.369   69.1  0.1033   17.1  0.5082  -56.2
 1.780  0.6464 -170.8   2.344   68.5  0.1032   17.0  0.5072  -56.5
 1.800  0.6467 -171.6   2.320   67.9  0.1032   17.0  0.5063  -56.7
 1.820  0.6461 -172.3   2.297   67.3  0.1031   17.0  0.5057  -57.0
 1.840  0.6457 -173.0   2.274   66.8  0.1031   17.0  0.5052  -57.3
 1.860  0.6453 -173.8   2.251   66.2  0.1030   16.9  0.5046  -57.6
 1.880  0.6451 -174.5   2.228   65.6  0.1030   16.9  0.5041  -57.9
 1.900  0.6449 -175.2   2.206   65.0  0.1029   16.9  0.5036  -58.2
 1.920  0.6449 -175.9   2.186   64.5  0.1029   16.8  0.5026  -58.5
 1.940  0.6451 -176.6   2.167   63.9  0.1028   16.8  0.5016  -58.9
 1.960  0.6453 -177.3   2.148   63.4  0.1028   16.7  0.5007  -59.2
 1.980  0.6456 -178.0   2.129   62.9  0.1027   16.7  0.4997  -59.6
 2.000  0.6460 -178.7   2.110   62.3  0.1027   16.6  0.4988  -59.9
 2.020  0.6462 -179.3   2.091   61.8  0.1026   16.6  0.4983  -60.2
 2.040  0.6464 -179.9   2.073   61.3  0.1025   16.6  0.4978  -60.5
 2.060  0.6468  179.5   2.055   60.8  0.1025   16.6  0.4973  -60.8
 2.080  0.6472  178.8   2.037   60.3  0.1024   16.6  0.4968  -61.1
 2.100  0.6476  178.2   2.019   59.8  0.1023   16.6  0.4963  -61.4
 2.120  0.6482  177.6   2.001   59.3  0.1022   16.5  0.4959  -61.8
 2.140  0.6488  177.0   1.984   58.8  0.1021   16.5  0.4954  -62.1
 2.160  0.6495  176.4   1.966   58.2  0.1021   16.5  0.4950  -62.4
 2.180  0.6503  175.8   1.949   57.7  0.1020   16.5  0.4946  -62.7
 2.200  0.6511  175.2   1.932   57.1  0.1019   16.5  0.4942  -63.0
 2.220  0.6509  174.6   1.917   56.6  0.1019   16.5  0.4937  -63.3
 2.240  0.6508  174.0   1.901   56.2  0.1018   16.6  0.4933  -63.7
 2.260  0.6508  173.4   1.886   55.7  0.1018   16.6  0.4929  -64.0
 2.280  0.6508  172.8   1.871   55.2  0.1017   16.6  0.4925  -64.4
 2.300  0.6509  172.2   1.856   54.7  0.1017   16.6  0.4921  -64.7
 2.320  0.6511  171.6   1.841   54.2  0.1017   16.7  0.4917  -65.1
 2.340  0.6513  171.0   1.827   53.7  0.1016   16.7  0.4913  -65.4
 2.360  0.6516  170.4   1.812   53.2  0.1016   16.7  0.4910  -65.8
 2.380  0.6520  169.8   1.798   52.6  0.1015   16.8  0.4907  -66.1
 2.400  0.6525  169.2   1.784   52.1  0.1015   16.8  0.4904  -66.5
 2.420  0.6528  168.6   1.770   51.7  0.1014   16.9  0.4900  -66.8
 2.440  0.6532  168.1   1.757   51.2  0.1014   17.0  0.4897  -67.2
 2.460  0.6536  167.5   1.743   50.7  0.1013   17.1  0.4893  -67.5
 2.480  0.6541  167.0   1.730   50.3  0.1013   17.2  0.4890  -67.9
 2.500  0.6546  166.4   1.717   49.8  0.1012   17.3  0.4887  -68.2
 2.520  0.6553  165.9   1.704   49.3  0.1011   17.5  0.4885  -68.5
 2.540  0.6559  165.3   1.691   48.8  0.1011   17.6  0.4882  -68.9
 2.560  0.6567  164.8   1.678   48.3  0.1010   17.7  0.4879  -69.2
 2.580  0.6574  164.2   1.666   47.8  0.1010   17.8  0.4877  -69.6
 2.600  0.6583  163.7   1.653   47.3  0.1009   17.9  0.4875  -69.9
 2.620  0.6588  163.2   1.642   46.9  0.1009   18.0  0.4872  -70.2
 2.640  0.6593  162.6   1.630   46.4  0.1010   18.1  0.4870  -70.6
 2.660  0.6599  162.1   1.619   46.0  0.1010   18.2  0.4867  -70.9
 2.680  0.6605  161.6   1.608   45.5  0.1011   18.3  0.4865  -71.3
 2.700  0.6612  161.0   1.597   45.1  0.1011   18.4  0.4863  -71.6
 2.720  0.6619  160.5   1.586   44.6  0.1012   18.5  0.4861  -72.0
 2.740  0.6627  160.0   1.575   44.1  0.1012   18.6  0.4859  -72.3
 2.760  0.6636  159.5   1.564   43.7  0.1013   18.7  0.4858  -72.7
 2.780  0.6645  158.9   1.554   43.2  0.1013   18.8  0.4856  -73.0
 2.800  0.6655  158.4   1.543   42.7  0.1014   18.9  0.4855  -73.4
 2.820  0.6659  157.9   1.532   42.3  0.1015   19.0  0.4856  -73.8
 2.840  0.6663  157.4   1.522   41.8  0.1015   19.1  0.4858  -74.2
 2.860  0.6667  157.0   1.511   41.4  0.1016   19.2  0.4860  -74.5
 2.880  0.6673  156.5   1.501   41.0  0.1017   19.3  0.4862  -74.9
 2.900  0.6678  156.0   1.491   40.5  0.1017   19.5  0.4864  -75.3
 2.920  0.6684  155.5   1.481   40.1  0.1018   19.6  0.4866  -75.7
 2.940  0.6691  155.0   1.471   39.6  0.1019   19.7  0.4869  -76.1
 2.960  0.6698  154.6   1.461   39.1  0.1020   19.8  0.4872  -76.4
 2.980  0.6705  154.1   1.451   38.7  0.1020   19.9  0.4875  -76.8
 3.000  0.6713  153.6   1.441   38.2  0.1021   20.0  0.4878  -77.2
 3.100  0.6746  151.3   1.400   36.2  0.1027   20.8  0.4876  -79.1
 3.200  0.6789  149.0   1.360   34.1  0.1033   21.6  0.4879  -81.0
 3.300  0.6827  146.7   1.319   32.0  0.1041   22.4  0.4892  -83.0
 3.400  0.6876  144.5   1.279   29.7  0.1049   23.1  0.4910  -85.0
 3.500  0.6924  142.4   1.242   27.8  0.1056   23.8  0.4913  -87.1
 3.600  0.6981  140.4   1.206   25.7  0.1063   24.5  0.4923  -89.2
 3.700  0.7005  138.4   1.173   23.8  0.1072   25.2  0.4943  -91.5
 3.800  0.7037  136.4   1.141   21.7  0.1082   25.9  0.4970  -93.7
 3.900  0.7084  134.7   1.112   19.9  0.1101   26.9  0.4998  -96.0
 4.000  0.7138  133.0   1.085   18.1  0.1121   27.8  0.5033  -98.2
 4.100  0.7164  131.3   1.056   16.4  0.1142   28.4  0.5056 -100.6
 4.200  0.7197  129.6   1.029   14.6  0.1163   29.0  0.5088 -102.9
 4.300  0.7235  127.9   1.002   12.8  0.1184   29.6  0.5129 -105.3
 4.400  0.7280  126.2   0.977   10.8  0.1206   30.2  0.5178 -107.6
 4.500  0.7331  124.6   0.953    8.7  0.1227   30.7  0.5235 -109.8
 4.600  0.7349  123.3   0.929    7.3  0.1254   31.1  0.5266 -112.1
 4.700  0.7371  121.9   0.905    5.9  0.1281   31.5  0.5306 -114.4
 4.800  0.7397  120.6   0.881    4.4  0.1308   31.9  0.5354 -116.7
 4.900  0.7426  119.3   0.859    2.8  0.1335   32.3  0.5410 -118.9
 5.000  0.7460  118.0   0.837    1.1  0.1362   32.6  0.5474 -121.1
 5.100  0.7471  117.0   0.817   -0.1  0.1394   32.7  0.5509 -123.3
 5.200  0.7484  115.9   0.798   -1.4  0.1427   32.9  0.5553 -125.5
 5.300  0.7500  114.9   0.779   -2.7  0.1459   33.0  0.5604 -127.6
 5.400  0.7518  113.9   0.761   -4.1  0.1492   33.1  0.5662 -129.7
 5.500  0.7539  112.9   0.743   -5.6  0.1524   33.2  0.5728 -131.7
 5.600  0.7543  111.9   0.726   -6.6  0.1561   33.1  0.5765 -133.6
 5.700  0.7550  110.9   0.710   -7.7  0.1598   33.0  0.5809 -135.5
 5.800  0.7559  109.9   0.694   -8.9  0.1635   32.9  0.5858 -137.3
 5.900  0.7570  108.9   0.678  -10.1  0.1672   32.8  0.5914 -139.1
 6.000  0.7584  107.9   0.663  -11.3  0.1709   32.7  0.5975 -140.9
!
!  f       NFmin   Gammaopt  rn/50
! GHz       dB    MAG  ANG    -
!
! noise parameter not available yet for this operation point!
!
! (c) 2016  Infineon Technologies AG, Munich
