! Infineon Technologies  Discrete & RF Semiconductors
! BFP196
! VCE = 1.0 V,  IC = 5.0mA
! Common Emitter S-Parameters:                            Jan 2016
# GHz  S  MA  R  50
!  f         S11            S21            S12            S22
! GHz     MAG   ANG      MAG   ANG      MAG   ANG      MAG   ANG
 0.010  0.8070   -9.0  15.767  176.3  0.0075   86.0  0.9845   -4.8
 0.015  0.8038  -13.3  15.575  173.3  0.0112   82.6  0.9769   -6.9
 0.020  0.8053  -17.7  15.428  170.2  0.0150   80.9  0.9706   -9.1
 0.025  0.7936  -21.7  15.256  168.1  0.0183   77.0  0.9589  -11.2
 0.030  0.7859  -25.8  15.106  165.9  0.0217   74.3  0.9485  -13.3
 0.035  0.7823  -29.9  14.978  163.7  0.0251   72.3  0.9395  -15.5
 0.040  0.7828  -34.1  14.872  161.5  0.0286   70.8  0.9319  -17.8
 0.045  0.7874  -38.2  14.789  159.2  0.0320   69.6  0.9256  -20.0
 0.050  0.7960  -42.3  14.730  156.9  0.0355   68.7  0.9209  -22.3
 0.055  0.7816  -45.6  14.458  155.3  0.0378   66.2  0.9042  -23.8
 0.060  0.7697  -48.9  14.197  153.7  0.0402   63.9  0.8882  -25.4
 0.065  0.7607  -52.4  13.948  152.0  0.0426   61.9  0.8728  -27.0
 0.070  0.7544  -55.9  13.712  150.2  0.0451   60.1  0.8582  -28.7
 0.075  0.7511  -59.5  13.489  148.4  0.0476   58.5  0.8444  -30.5
 0.080  0.7507  -63.1  13.280  146.5  0.0501   57.1  0.8314  -32.3
 0.085  0.7533  -66.7  13.087  144.6  0.0527   55.8  0.8192  -34.1
 0.090  0.7587  -70.2  12.908  142.6  0.0553   54.6  0.8079  -36.0
 0.095  0.7671  -73.7  12.746  140.5  0.0579   53.6  0.7975  -38.0
 0.100  0.7782  -77.1  12.601  138.4  0.0605   52.6  0.7881  -40.0
 0.105  0.7701  -79.5  12.349  137.2  0.0618   51.2  0.7737  -41.0
 0.110  0.7633  -81.9  12.103  136.0  0.0631   49.9  0.7596  -42.0
 0.115  0.7578  -84.3  11.862  134.8  0.0645   48.7  0.7457  -43.1
 0.120  0.7538  -86.8  11.627  133.5  0.0659   47.5  0.7320  -44.2
 0.125  0.7512  -89.2  11.399  132.1  0.0673   46.4  0.7187  -45.4
 0.130  0.7499  -91.8  11.177  130.7  0.0688   45.3  0.7057  -46.6
 0.135  0.7502  -94.3  10.962  129.2  0.0702   44.2  0.6930  -47.8
 0.140  0.7518  -96.8  10.755  127.6  0.0717   43.2  0.6806  -49.1
 0.145  0.7549  -99.2  10.556  126.1  0.0733   42.2  0.6685  -50.4
 0.150  0.7594 -101.7  10.366  124.4  0.0748   41.3  0.6569  -51.8
 0.155  0.7561 -103.4  10.185  123.6  0.0755   40.5  0.6462  -52.5
 0.160  0.7535 -105.2  10.007  122.7  0.0763   39.8  0.6355  -53.3
 0.165  0.7517 -107.0   9.831  121.8  0.0770   39.1  0.6250  -54.1
 0.170  0.7506 -108.8   9.657  120.9  0.0778   38.4  0.6146  -54.9
 0.175  0.7502 -110.5   9.486  120.0  0.0786   37.7  0.6043  -55.7
 0.180  0.7505 -112.3   9.317  119.0  0.0793   37.0  0.5941  -56.6
 0.185  0.7515 -114.1   9.151  118.0  0.0801   36.3  0.5841  -57.4
 0.190  0.7533 -115.9   8.989  116.9  0.0810   35.7  0.5743  -58.4
 0.195  0.7558 -117.6   8.829  115.8  0.0818   35.0  0.5646  -59.3
 0.200  0.7590 -119.4   8.673  114.7  0.0826   34.4  0.5550  -60.3
 0.220  0.7492 -124.6   8.088  112.1  0.0843   32.3  0.5233  -62.6
 0.240  0.7457 -129.9   7.523  109.0  0.0861   30.3  0.4925  -65.1
 0.260  0.7441 -134.4   7.046  106.3  0.0876   28.7  0.4671  -67.3
 0.280  0.7421 -138.2   6.645  104.1  0.0889   27.4  0.4466  -69.0
 0.300  0.7434 -142.0   6.254  101.7  0.0902   26.2  0.4266  -70.9
 0.320  0.7393 -144.9   5.972  100.3  0.0908   25.4  0.4111  -72.0
 0.340  0.7370 -147.7   5.693   98.8  0.0913   24.5  0.3958  -73.3
 0.360  0.7366 -150.6   5.419   97.2  0.0919   23.7  0.3807  -74.6
 0.380  0.7381 -153.5   5.149   95.3  0.0926   22.9  0.3658  -76.0
 0.400  0.7415 -156.4   4.886   93.3  0.0932   22.1  0.3511  -77.6
 0.420  0.7396 -158.3   4.695   92.1  0.0934   21.6  0.3424  -78.5
 0.440  0.7384 -160.2   4.505   90.9  0.0936   21.2  0.3338  -79.4
 0.450  0.7382 -161.2   4.412   90.2  0.0937   20.9  0.3295  -79.9
 0.460  0.7382 -162.2   4.318   89.5  0.0938   20.7  0.3252  -80.4
 0.480  0.7387 -164.1   4.134   88.0  0.0941   20.3  0.3168  -81.4
 0.500  0.7401 -166.0   3.953   86.4  0.0943   19.8  0.3085  -82.5
 0.520  0.7395 -167.6   3.824   85.3  0.0945   19.6  0.3038  -83.2
 0.540  0.7395 -169.3   3.697   84.2  0.0947   19.4  0.2992  -84.0
 0.560  0.7401 -170.9   3.572   83.0  0.0950   19.2  0.2947  -84.7
 0.580  0.7413 -172.6   3.448   81.7  0.0952   19.0  0.2902  -85.5
 0.600  0.7431 -174.2   3.326   80.3  0.0954   18.8  0.2857  -86.3
 0.620  0.7423 -175.6   3.234   79.3  0.0954   18.8  0.2827  -87.0
 0.640  0.7420 -176.9   3.144   78.3  0.0955   18.7  0.2798  -87.8
 0.660  0.7420 -178.3   3.054   77.2  0.0955   18.7  0.2770  -88.5
 0.680  0.7425 -179.6   2.966   76.1  0.0956   18.6  0.2742  -89.3
 0.700  0.7434  179.0   2.879   74.9  0.0956   18.6  0.2714  -90.1
 0.720  0.7436  177.9   2.808   74.1  0.0958   18.6  0.2696  -90.8
 0.740  0.7442  176.8   2.737   73.2  0.0960   18.6  0.2679  -91.5
 0.760  0.7450  175.6   2.668   72.3  0.0962   18.7  0.2662  -92.2
 0.780  0.7461  174.5   2.598   71.4  0.0964   18.7  0.2646  -92.9
 0.800  0.7475  173.4   2.530   70.4  0.0966   18.7  0.2630  -93.6
 0.820  0.7458  172.4   2.473   69.6  0.0967   18.9  0.2618  -94.3
 0.840  0.7443  171.4   2.417   68.8  0.0967   19.1  0.2606  -94.9
 0.860  0.7430  170.4   2.361   67.9  0.0968   19.3  0.2595  -95.6
 0.880  0.7420  169.3   2.306   67.0  0.0968   19.5  0.2584  -96.3
 0.900  0.7412  168.3   2.252   66.0  0.0969   19.7  0.2573  -97.0
 0.920  0.7421  167.3   2.208   65.2  0.0970   19.8  0.2575  -97.6
 0.940  0.7433  166.3   2.165   64.4  0.0972   19.9  0.2578  -98.2
 0.960  0.7446  165.3   2.122   63.6  0.0973   20.0  0.2581  -98.7
 0.980  0.7462  164.4   2.080   62.7  0.0975   20.1  0.2584  -99.3
 1.000  0.7480  163.4   2.038   61.8  0.0976   20.2  0.2587  -99.9
 1.020  0.7493  162.5   2.002   61.0  0.0978   20.4  0.2592 -100.5
 1.040  0.7507  161.6   1.967   60.2  0.0979   20.7  0.2598 -101.2
 1.060  0.7524  160.7   1.932   59.4  0.0981   20.9  0.2603 -101.8
 1.080  0.7542  159.8   1.897   58.6  0.0982   21.2  0.2610 -102.5
 1.100  0.7562  158.9   1.863   57.7  0.0984   21.4  0.2616 -103.1
 1.120  0.7562  158.0   1.831   57.0  0.0986   21.6  0.2623 -103.7
 1.140  0.7564  157.1   1.799   56.3  0.0988   21.9  0.2631 -104.4
 1.160  0.7567  156.3   1.767   55.5  0.0990   22.1  0.2638 -105.0
 1.180  0.7573  155.4   1.736   54.7  0.0992   22.4  0.2647 -105.6
 1.200  0.7580  154.5   1.705   53.9  0.0994   22.6  0.2655 -106.2
 1.220  0.7585  153.7   1.679   53.2  0.0998   22.8  0.2663 -106.8
 1.240  0.7591  153.0   1.653   52.6  0.1002   23.0  0.2672 -107.4
 1.260  0.7599  152.2   1.627   51.9  0.1007   23.3  0.2681 -108.0
 1.280  0.7608  151.5   1.601   51.1  0.1011   23.5  0.2690 -108.5
 1.300  0.7618  150.7   1.576   50.4  0.1015   23.7  0.2699 -109.1
 1.320  0.7628  149.9   1.554   49.8  0.1017   23.9  0.2714 -109.6
 1.340  0.7640  149.1   1.532   49.1  0.1019   24.2  0.2730 -110.1
 1.360  0.7653  148.4   1.510   48.4  0.1021   24.4  0.2746 -110.6
 1.380  0.7667  147.6   1.488   47.7  0.1023   24.7  0.2762 -111.1
 1.400  0.7683  146.8   1.467   47.0  0.1025   24.9  0.2778 -111.6
 1.420  0.7685  146.1   1.450   46.4  0.1030   25.3  0.2790 -112.3
 1.440  0.7687  145.5   1.433   45.7  0.1036   25.7  0.2802 -112.9
 1.460  0.7691  144.8   1.416   45.0  0.1041   26.1  0.2815 -113.6
 1.480  0.7695  144.2   1.399   44.3  0.1046   26.5  0.2828 -114.3
 1.500  0.7701  143.5   1.383   43.6  0.1052   26.9  0.2842 -114.9
 1.520  0.7709  142.8   1.363   42.9  0.1058   27.2  0.2853 -115.6
 1.540  0.7719  142.1   1.344   42.2  0.1064   27.4  0.2865 -116.2
 1.560  0.7729  141.3   1.324   41.5  0.1069   27.7  0.2876 -116.8
 1.580  0.7741  140.6   1.305   40.8  0.1075   27.9  0.2888 -117.5
 1.600  0.7754  139.9   1.286   40.0  0.1081   28.2  0.2901 -118.1
 1.620  0.7762  139.1   1.271   39.4  0.1087   28.5  0.2909 -118.8
 1.640  0.7772  138.3   1.257   38.7  0.1093   28.9  0.2918 -119.5
 1.660  0.7783  137.6   1.243   38.1  0.1099   29.2  0.2927 -120.2
 1.680  0.7795  136.8   1.229   37.4  0.1105   29.6  0.2936 -120.8
 1.700  0.7809  136.0   1.215   36.7  0.1111   29.9  0.2946 -121.5
 1.720  0.7820  135.4   1.203   36.2  0.1119   30.1  0.2964 -122.0
 1.740  0.7831  134.8   1.191   35.7  0.1127   30.3  0.2981 -122.4
 1.760  0.7843  134.1   1.179   35.1  0.1135   30.5  0.2999 -122.9
 1.780  0.7857  133.5   1.167   34.6  0.1143   30.7  0.3018 -123.4
 1.800  0.7871  132.9   1.155   34.0  0.1151   30.9  0.3036 -123.8
 1.820  0.7880  132.3   1.143   33.4  0.1159   31.2  0.3058 -124.5
 1.840  0.7891  131.7   1.130   32.8  0.1167   31.5  0.3080 -125.1
 1.860  0.7902  131.0   1.118   32.1  0.1176   31.8  0.3103 -125.8
 1.880  0.7914  130.4   1.106   31.5  0.1184   32.0  0.3126 -126.5
 1.900  0.7927  129.8   1.094   30.8  0.1192   32.3  0.3150 -127.1
 1.920  0.7935  129.2   1.081   30.2  0.1202   32.4  0.3160 -127.7
 1.940  0.7943  128.6   1.068   29.7  0.1211   32.5  0.3171 -128.3
 1.960  0.7953  128.1   1.055   29.1  0.1221   32.7  0.3182 -128.9
 1.980  0.7963  127.5   1.043   28.5  0.1230   32.8  0.3193 -129.5
 2.000  0.7974  126.9   1.030   27.9  0.1240   32.9  0.3205 -130.1
 2.020  0.7977  126.3   1.020   27.4  0.1250   33.0  0.3225 -130.7
 2.040  0.7982  125.6   1.011   26.9  0.1259   33.2  0.3245 -131.2
 2.060  0.7987  125.0   1.001   26.4  0.1269   33.3  0.3265 -131.8
 2.080  0.7993  124.4   0.992   25.8  0.1279   33.5  0.3286 -132.3
 2.100  0.8000  123.7   0.982   25.3  0.1288   33.6  0.3306 -132.8
 2.120  0.8009  123.1   0.973   24.7  0.1298   33.8  0.3328 -133.4
 2.140  0.8018  122.5   0.964   24.2  0.1308   33.9  0.3349 -133.9
 2.160  0.8028  121.8   0.955   23.6  0.1318   34.0  0.3371 -134.4
 2.180  0.8039  121.2   0.946   23.0  0.1327   34.2  0.3393 -134.9
 2.200  0.8051  120.6   0.937   22.4  0.1337   34.3  0.3415 -135.4
 2.220  0.8060  120.0   0.929   21.9  0.1348   34.4  0.3432 -136.1
 2.240  0.8069  119.4   0.921   21.3  0.1359   34.5  0.3450 -136.8
 2.260  0.8080  118.8   0.914   20.8  0.1370   34.6  0.3468 -137.4
 2.280  0.8092  118.1   0.906   20.2  0.1381   34.6  0.3487 -138.1
 2.300  0.8104  117.5   0.898   19.7  0.1392   34.7  0.3506 -138.7
 2.320  0.8117  116.9   0.891   19.1  0.1404   34.8  0.3526 -139.4
 2.340  0.8132  116.3   0.884   18.5  0.1415   34.9  0.3546 -140.0
 2.360  0.8147  115.7   0.876   17.9  0.1426   34.9  0.3567 -140.7
 2.380  0.8163  115.1   0.869   17.3  0.1437   35.0  0.3588 -141.3
 2.400  0.8180  114.5   0.862   16.7  0.1448   35.1  0.3609 -141.9
 2.420  0.8183  113.9   0.854   16.3  0.1460   35.1  0.3628 -142.5
 2.440  0.8186  113.4   0.847   15.9  0.1473   35.1  0.3647 -143.1
 2.460  0.8191  112.8   0.839   15.5  0.1485   35.0  0.3666 -143.6
 2.480  0.8196  112.3   0.832   15.0  0.1498   35.0  0.3686 -144.2
 2.500  0.8202  111.7   0.824   14.6  0.1510   35.0  0.3707 -144.8
 2.520  0.8208  111.1   0.817   14.2  0.1522   35.0  0.3727 -145.3
 2.540  0.8216  110.6   0.810   13.7  0.1535   35.0  0.3748 -145.9
 2.560  0.8224  110.0   0.802   13.2  0.1547   34.9  0.3769 -146.4
 2.580  0.8233  109.5   0.795   12.8  0.1560   34.9  0.3791 -147.0
 2.600  0.8243  108.9   0.788   12.3  0.1572   34.9  0.3813 -147.5
 2.620  0.8252  108.3   0.782   11.9  0.1584   34.8  0.3832 -148.1
 2.640  0.8261  107.8   0.776   11.5  0.1597   34.8  0.3852 -148.8
 2.660  0.8272  107.2   0.770   11.1  0.1609   34.7  0.3873 -149.4
 2.680  0.8283  106.7   0.763   10.7  0.1622   34.7  0.3893 -150.0
 2.700  0.8294  106.1   0.757   10.2  0.1634   34.6  0.3915 -150.6
 2.720  0.8307  105.6   0.751    9.8  0.1646   34.6  0.3936 -151.2
 2.740  0.8320  105.0   0.746    9.4  0.1659   34.5  0.3958 -151.8
 2.760  0.8335  104.5   0.740    8.9  0.1671   34.5  0.3981 -152.4
 2.780  0.8349  103.9   0.734    8.5  0.1684   34.4  0.4004 -152.9
 2.800  0.8365  103.4   0.728    8.0  0.1696   34.4  0.4027 -153.5
 2.820  0.8367  102.9   0.722    7.6  0.1709   34.3  0.4049 -154.1
 2.840  0.8369  102.5   0.717    7.2  0.1722   34.1  0.4072 -154.7
 2.860  0.8372  102.0   0.711    6.8  0.1735   34.0  0.4095 -155.2
 2.880  0.8375  101.5   0.706    6.4  0.1748   33.9  0.4118 -155.8
 2.900  0.8379  101.0   0.701    6.0  0.1761   33.8  0.4142 -156.3
 2.920  0.8383  100.6   0.695    5.6  0.1774   33.7  0.4166 -156.9
 2.940  0.8388  100.1   0.690    5.2  0.1787   33.5  0.4190 -157.4
 2.960  0.8394   99.6   0.685    4.8  0.1800   33.4  0.4215 -158.0
 2.980  0.8400   99.2   0.679    4.3  0.1813   33.3  0.4240 -158.5
 3.000  0.8407   98.7   0.674    3.9  0.1826   33.2  0.4266 -159.0
 3.100  0.8429   96.5   0.651    2.6  0.1887   32.2  0.4356 -162.0
 3.200  0.8463   94.3   0.629    1.2  0.1948   31.3  0.4457 -164.8
 3.300  0.8509   92.1   0.607   -0.3  0.2010   30.5  0.4569 -167.6
 3.400  0.8567   90.0   0.585   -2.0  0.2072   29.7  0.4691 -170.1
 3.500  0.8637   87.9   0.564   -3.7  0.2135   28.9  0.4822 -172.6
 3.600  0.8635   86.0   0.548   -4.8  0.2192   27.8  0.4919 -175.3
 3.700  0.8643   84.1   0.532   -5.9  0.2250   26.7  0.5027 -177.8
 3.800  0.8661   82.2   0.516   -7.1  0.2308   25.7  0.5144  179.7
 3.900  0.8687   80.4   0.501   -8.4  0.2367   24.7  0.5270  177.4
 4.000  0.8723   78.5   0.486   -9.8  0.2427   23.8  0.5404  175.2
 4.100  0.8724   76.9   0.476  -10.5  0.2481   22.5  0.5484  172.9
 4.200  0.8732   75.3   0.466  -11.2  0.2536   21.3  0.5572  170.7
 4.300  0.8747   73.7   0.456  -12.0  0.2592   20.1  0.5669  168.5
 4.400  0.8769   72.1   0.447  -12.8  0.2650   19.0  0.5773  166.4
 4.500  0.8797   70.5   0.437  -13.6  0.2708   17.9  0.5885  164.4
 4.600  0.8794   69.2   0.431  -14.0  0.2752   16.6  0.5952  162.4
 4.700  0.8796   67.9   0.425  -14.4  0.2798   15.4  0.6026  160.5
 4.800  0.8803   66.5   0.419  -14.9  0.2845   14.2  0.6106  158.6
 4.900  0.8814   65.2   0.413  -15.3  0.2893   13.0  0.6193  156.8
 5.000  0.8830   63.9   0.407  -15.8  0.2942   11.9  0.6286  155.0
 5.100  0.8837   62.7   0.403  -16.1  0.2983   10.6  0.6344  153.1
 5.200  0.8848   61.4   0.399  -16.5  0.3026    9.4  0.6409  151.3
 5.300  0.8864   60.2   0.394  -16.8  0.3069    8.2  0.6480  149.5
 5.400  0.8883   59.0   0.390  -17.1  0.3115    7.0  0.6558  147.8
 5.500  0.8906   57.8   0.386  -17.5  0.3161    5.9  0.6641  146.1
 5.600  0.8887   56.7   0.384  -18.0  0.3196    4.6  0.6687  144.4
 5.700  0.8871   55.5   0.382  -18.4  0.3233    3.2  0.6739  142.8
 5.800  0.8858   54.4   0.381  -18.9  0.3272    2.0  0.6796  141.2
 5.900  0.8849   53.2   0.379  -19.4  0.3312    0.7  0.6858  139.6
 6.000  0.8844   52.1   0.377  -19.9  0.3354   -0.5  0.6926  138.0
!
!  f       NFmin   Gammaopt  rn/50
! GHz       dB    MAG  ANG    -
!
! noise parameter not available yet for this operation point!
!
! (c) 2016  Infineon Technologies AG, Munich
