! Infineon Technologies  Discrete & RF Semiconductors
! BFP196
! VCE = 1.0 V,  IC =  40mA
! Common Emitter S-Parameters:                            Jan 2016
# GHz  S  MA  R  50
!  f         S11            S21            S12            S22
! GHz     MAG   ANG      MAG   ANG      MAG   ANG      MAG   ANG
 0.010  0.2787  -51.6  60.660  166.9  0.0052   75.5  0.8751  -18.3
 0.015  0.3134  -70.0  57.829  160.7  0.0075   69.3  0.8393  -26.1
 0.020  0.3728  -83.6  55.734  154.0  0.0099   66.1  0.8202  -34.4
 0.025  0.3879  -93.4  52.618  150.9  0.0111   62.0  0.7690  -39.1
 0.030  0.4133 -102.2  49.673  147.5  0.0124   58.7  0.7239  -44.5
 0.035  0.4473 -109.9  46.931  143.6  0.0137   56.0  0.6859  -50.6
 0.040  0.4881 -116.4  44.430  139.2  0.0150   53.8  0.6563  -57.2
 0.045  0.5341 -121.8  42.214  134.4  0.0163   52.0  0.6363  -64.4
 0.050  0.5841 -126.3  40.328  129.1  0.0177   50.4  0.6269  -71.9
 0.055  0.5877 -129.4  38.608  127.9  0.0182   49.6  0.6020  -74.4
 0.060  0.5929 -132.4  36.906  126.6  0.0187   48.8  0.5782  -77.0
 0.065  0.5998 -135.3  35.224  125.2  0.0192   48.0  0.5559  -79.9
 0.070  0.6082 -138.2  33.566  123.7  0.0197   47.3  0.5350  -83.0
 0.075  0.6181 -141.0  31.935  122.0  0.0203   46.7  0.5159  -86.4
 0.080  0.6295 -143.7  30.335  120.1  0.0208   46.0  0.4987  -90.0
 0.085  0.6422 -146.3  28.773  118.0  0.0213   45.4  0.4836  -93.9
 0.090  0.6562 -148.8  27.253  115.6  0.0218   44.9  0.4708  -98.0
 0.095  0.6713 -151.2  25.784  113.0  0.0224   44.3  0.4606 -102.2
 0.100  0.6876 -153.5  24.375  110.1  0.0229   43.8  0.4530 -106.7
 0.105  0.6899 -154.7  23.612  109.5  0.0232   43.9  0.4444 -108.3
 0.110  0.6926 -155.8  22.851  108.8  0.0236   44.0  0.4362 -109.9
 0.115  0.6955 -157.0  22.095  108.1  0.0239   44.1  0.4284 -111.6
 0.120  0.6987 -158.1  21.342  107.3  0.0242   44.2  0.4210 -113.4
 0.125  0.7021 -159.2  20.593  106.5  0.0245   44.3  0.4140 -115.2
 0.130  0.7059 -160.4  19.849  105.6  0.0249   44.4  0.4074 -117.1
 0.135  0.7099 -161.5  19.110  104.6  0.0252   44.5  0.4013 -119.1
 0.140  0.7141 -162.6  18.377  103.6  0.0255   44.5  0.3956 -121.1
 0.145  0.7186 -163.6  17.650  102.4  0.0259   44.6  0.3905 -123.2
 0.150  0.7234 -164.7  16.931  101.2  0.0262   44.7  0.3859 -125.3
 0.155  0.7234 -165.3  16.527  100.8  0.0265   45.1  0.3822 -126.4
 0.160  0.7235 -166.0  16.123  100.3  0.0268   45.4  0.3787 -127.4
 0.165  0.7237 -166.6  15.721   99.8  0.0271   45.8  0.3753 -128.5
 0.170  0.7240 -167.2  15.320   99.3  0.0273   46.1  0.3720 -129.7
 0.175  0.7244 -167.9  14.920   98.8  0.0276   46.5  0.3689 -130.8
 0.180  0.7248 -168.5  14.522   98.3  0.0279   46.8  0.3659 -132.0
 0.185  0.7254 -169.1  14.124   97.7  0.0282   47.2  0.3631 -133.2
 0.190  0.7260 -169.7  13.729   97.1  0.0285   47.5  0.3604 -134.4
 0.195  0.7267 -170.4  13.335   96.4  0.0288   47.8  0.3579 -135.6
 0.200  0.7275 -171.0  12.943   95.7  0.0291   48.1  0.3556 -136.8
 0.220  0.7288 -173.1  11.908   94.3  0.0306   49.0  0.3487 -140.1
 0.240  0.7311 -175.2  10.882   92.7  0.0321   49.7  0.3429 -143.5
 0.260  0.7331 -176.8  10.033   91.3  0.0335   50.6  0.3388 -146.2
 0.280  0.7345 -178.1   9.357   90.2  0.0348   51.5  0.3357 -148.3
 0.300  0.7362 -179.3   8.685   89.0  0.0361   52.4  0.3330 -150.4
 0.320  0.7364  179.4   8.260   88.3  0.0376   53.2  0.3308 -151.9
 0.340  0.7369  178.1   7.837   87.5  0.0390   54.0  0.3289 -153.4
 0.360  0.7379  176.8   7.415   86.6  0.0405   54.7  0.3272 -155.0
 0.380  0.7392  175.5   6.996   85.5  0.0420   55.3  0.3257 -156.5
 0.400  0.7409  174.2   6.579   84.4  0.0435   55.9  0.3245 -158.1
 0.420  0.7419  173.4   6.314   83.7  0.0451   56.4  0.3237 -159.1
 0.440  0.7431  172.6   6.050   83.0  0.0466   56.9  0.3229 -160.0
 0.450  0.7437  172.2   5.918   82.6  0.0474   57.1  0.3226 -160.5
 0.460  0.7444  171.8   5.787   82.2  0.0482   57.4  0.3223 -161.0
 0.480  0.7458  171.0   5.525   81.4  0.0497   57.8  0.3218 -162.0
 0.500  0.7474  170.2   5.265   80.4  0.0513   58.2  0.3213 -163.0
 0.520  0.7462  169.3   5.089   79.7  0.0531   58.5  0.3210 -163.7
 0.540  0.7452  168.4   4.914   79.0  0.0549   58.7  0.3208 -164.4
 0.560  0.7443  167.6   4.740   78.2  0.0566   59.0  0.3206 -165.0
 0.580  0.7436  166.7   4.566   77.3  0.0584   59.2  0.3205 -165.7
 0.600  0.7431  165.8   4.394   76.4  0.0602   59.4  0.3204 -166.4
 0.620  0.7434  165.0   4.269   75.7  0.0618   59.5  0.3206 -166.9
 0.640  0.7439  164.2   4.145   75.0  0.0634   59.6  0.3208 -167.5
 0.660  0.7446  163.4   4.022   74.3  0.0649   59.7  0.3210 -168.0
 0.680  0.7454  162.6   3.899   73.5  0.0665   59.7  0.3212 -168.6
 0.700  0.7463  161.8   3.777   72.6  0.0681   59.8  0.3215 -169.1
 0.720  0.7467  161.1   3.683   72.0  0.0698   59.8  0.3218 -169.5
 0.740  0.7472  160.4   3.589   71.5  0.0715   59.8  0.3221 -170.0
 0.760  0.7478  159.8   3.495   70.8  0.0733   59.7  0.3224 -170.4
 0.780  0.7485  159.1   3.402   70.2  0.0750   59.7  0.3227 -170.9
 0.800  0.7493  158.4   3.309   69.5  0.0767   59.7  0.3231 -171.3
 0.820  0.7484  157.6   3.235   68.9  0.0785   59.6  0.3232 -171.7
 0.840  0.7476  156.8   3.162   68.3  0.0803   59.5  0.3234 -172.1
 0.860  0.7469  156.1   3.089   67.7  0.0821   59.4  0.3236 -172.5
 0.880  0.7464  155.3   3.017   67.0  0.0839   59.4  0.3238 -172.9
 0.900  0.7460  154.5   2.945   66.3  0.0857   59.3  0.3240 -173.3
 0.920  0.7464  153.8   2.888   65.7  0.0872   59.2  0.3245 -173.6
 0.940  0.7469  153.0   2.830   65.1  0.0888   59.0  0.3249 -173.9
 0.960  0.7475  152.3   2.774   64.5  0.0903   58.9  0.3254 -174.2
 0.980  0.7482  151.5   2.717   63.9  0.0919   58.8  0.3259 -174.5
 1.000  0.7491  150.8   2.661   63.2  0.0934   58.7  0.3264 -174.8
 1.020  0.7491  150.2   2.614   62.6  0.0951   58.5  0.3271 -175.1
 1.040  0.7492  149.6   2.567   62.0  0.0967   58.4  0.3279 -175.4
 1.060  0.7494  149.0   2.521   61.4  0.0984   58.2  0.3286 -175.7
 1.080  0.7497  148.4   2.475   60.7  0.1000   58.0  0.3293 -176.0
 1.100  0.7500  147.8   2.429   60.0  0.1017   57.9  0.3301 -176.3
 1.120  0.7518  147.1   2.390   59.5  0.1033   57.7  0.3306 -176.6
 1.140  0.7536  146.3   2.351   58.9  0.1049   57.5  0.3310 -176.9
 1.160  0.7556  145.6   2.312   58.3  0.1066   57.3  0.3315 -177.1
 1.180  0.7578  144.9   2.274   57.7  0.1082   57.1  0.3320 -177.4
 1.200  0.7600  144.2   2.236   57.1  0.1098   56.9  0.3325 -177.7
 1.220  0.7595  143.5   2.201   56.5  0.1115   56.6  0.3330 -178.0
 1.240  0.7590  142.8   2.167   55.9  0.1132   56.4  0.3334 -178.3
 1.260  0.7587  142.2   2.133   55.3  0.1149   56.1  0.3339 -178.5
 1.280  0.7585  141.5   2.099   54.7  0.1166   55.8  0.3344 -178.8
 1.300  0.7584  140.8   2.065   54.0  0.1183   55.6  0.3349 -179.1
 1.320  0.7586  140.3   2.036   53.5  0.1198   55.3  0.3355 -179.3
 1.340  0.7588  139.7   2.008   53.0  0.1212   55.0  0.3361 -179.5
 1.360  0.7592  139.2   1.979   52.5  0.1227   54.7  0.3367 -179.8
 1.380  0.7595  138.6   1.951   52.0  0.1241   54.5  0.3374 -180.0
 1.400  0.7600  138.1   1.923   51.5  0.1256   54.2  0.3380  179.8
 1.420  0.7599  137.5   1.901   51.0  0.1272   54.0  0.3388  179.6
 1.440  0.7599  136.9   1.879   50.4  0.1288   53.7  0.3396  179.4
 1.460  0.7600  136.3   1.857   49.9  0.1305   53.5  0.3404  179.1
 1.480  0.7602  135.7   1.835   49.3  0.1321   53.3  0.3412  178.9
 1.500  0.7605  135.1   1.814   48.7  0.1337   53.1  0.3420  178.7
 1.520  0.7619  134.5   1.788   48.1  0.1353   52.8  0.3429  178.4
 1.540  0.7634  133.9   1.762   47.6  0.1369   52.5  0.3439  178.1
 1.560  0.7650  133.3   1.736   47.0  0.1385   52.2  0.3448  177.9
 1.580  0.7667  132.7   1.710   46.3  0.1401   52.0  0.3457  177.6
 1.600  0.7685  132.1   1.685   45.7  0.1417   51.7  0.3467  177.3
 1.620  0.7688  131.4   1.666   45.1  0.1432   51.4  0.3473  177.0
 1.640  0.7692  130.8   1.647   44.5  0.1446   51.1  0.3479  176.7
 1.660  0.7696  130.1   1.629   43.9  0.1461   50.8  0.3485  176.4
 1.680  0.7702  129.5   1.610   43.3  0.1475   50.6  0.3491  176.1
 1.700  0.7709  128.8   1.592   42.7  0.1490   50.3  0.3497  175.8
 1.720  0.7721  128.2   1.577   42.3  0.1505   50.0  0.3503  175.6
 1.740  0.7735  127.6   1.562   41.9  0.1519   49.7  0.3509  175.4
 1.760  0.7749  127.1   1.547   41.5  0.1534   49.4  0.3515  175.3
 1.780  0.7763  126.5   1.532   41.0  0.1548   49.1  0.3522  175.1
 1.800  0.7779  125.9   1.517   40.6  0.1563   48.8  0.3528  174.9
 1.820  0.7779  125.4   1.502   40.1  0.1578   48.5  0.3542  174.7
 1.840  0.7779  124.9   1.486   39.5  0.1594   48.3  0.3556  174.4
 1.860  0.7780  124.5   1.471   39.0  0.1609   48.0  0.3570  174.2
 1.880  0.7782  124.0   1.456   38.4  0.1625   47.8  0.3584  173.9
 1.900  0.7784  123.5   1.441   37.8  0.1640   47.5  0.3598  173.7
 1.920  0.7791  122.9   1.426   37.3  0.1653   47.2  0.3608  173.4
 1.940  0.7798  122.4   1.411   36.8  0.1665   46.8  0.3617  173.1
 1.960  0.7806  121.8   1.397   36.3  0.1678   46.5  0.3627  172.7
 1.980  0.7815  121.3   1.382   35.8  0.1691   46.2  0.3637  172.4
 2.000  0.7825  120.7   1.368   35.3  0.1704   45.9  0.3647  172.1
 2.020  0.7825  120.1   1.355   34.8  0.1718   45.6  0.3656  171.9
 2.040  0.7827  119.6   1.343   34.3  0.1731   45.3  0.3665  171.6
 2.060  0.7829  119.0   1.331   33.8  0.1745   45.0  0.3674  171.4
 2.080  0.7831  118.5   1.318   33.3  0.1759   44.7  0.3683  171.1
 2.100  0.7835  117.9   1.306   32.8  0.1772   44.4  0.3692  170.9
 2.120  0.7839  117.3   1.294   32.3  0.1786   44.1  0.3701  170.6
 2.140  0.7844  116.8   1.282   31.8  0.1800   43.8  0.3711  170.4
 2.160  0.7849  116.2   1.270   31.2  0.1814   43.5  0.3720  170.2
 2.180  0.7856  115.7   1.259   30.7  0.1828   43.3  0.3730  169.9
 2.200  0.7863  115.1   1.247   30.1  0.1842   43.0  0.3739  169.7
 2.220  0.7872  114.5   1.237   29.6  0.1854   42.7  0.3752  169.4
 2.240  0.7882  114.0   1.228   29.1  0.1867   42.4  0.3765  169.0
 2.260  0.7893  113.4   1.218   28.7  0.1879   42.1  0.3778  168.7
 2.280  0.7904  112.9   1.209   28.2  0.1892   41.8  0.3791  168.4
 2.300  0.7916  112.3   1.199   27.6  0.1904   41.5  0.3805  168.1
 2.320  0.7929  111.8   1.190   27.1  0.1917   41.2  0.3818  167.8
 2.340  0.7942  111.2   1.181   26.6  0.1930   40.9  0.3832  167.4
 2.360  0.7956  110.7   1.172   26.1  0.1942   40.6  0.3845  167.1
 2.380  0.7971  110.1   1.163   25.5  0.1955   40.3  0.3859  166.8
 2.400  0.7987  109.6   1.154   25.0  0.1968   40.0  0.3873  166.5
 2.420  0.7990  109.1   1.145   24.6  0.1980   39.7  0.3883  166.2
 2.440  0.7993  108.6   1.135   24.2  0.1991   39.4  0.3893  166.0
 2.460  0.7997  108.1   1.126   23.7  0.2003   39.1  0.3902  165.7
 2.480  0.8002  107.6   1.117   23.3  0.2015   38.8  0.3912  165.4
 2.500  0.8007  107.1   1.108   22.8  0.2027   38.5  0.3922  165.2
 2.520  0.8013  106.6   1.099   22.4  0.2039   38.2  0.3933  164.9
 2.540  0.8020  106.1   1.090   21.9  0.2051   37.9  0.3943  164.7
 2.560  0.8027  105.6   1.081   21.5  0.2063   37.6  0.3953  164.4
 2.580  0.8035  105.1   1.073   21.0  0.2075   37.3  0.3964  164.2
 2.600  0.8043  104.6   1.064   20.5  0.2087   37.0  0.3974  163.9
 2.620  0.8051  104.1   1.057   20.1  0.2098   36.7  0.3989  163.6
 2.640  0.8059  103.7   1.049   19.7  0.2109   36.4  0.4005  163.3
 2.660  0.8068  103.2   1.042   19.3  0.2119   36.1  0.4021  163.0
 2.680  0.8077  102.7   1.035   18.9  0.2130   35.8  0.4036  162.7
 2.700  0.8086  102.3   1.028   18.5  0.2141   35.5  0.4052  162.4
 2.720  0.8097  101.8   1.021   18.0  0.2152   35.2  0.4068  162.1
 2.740  0.8108  101.4   1.014   17.6  0.2163   34.9  0.4084  161.8
 2.760  0.8119  100.9   1.007   17.2  0.2175   34.6  0.4100  161.6
 2.780  0.8131  100.5   1.000   16.7  0.2186   34.3  0.4117  161.3
 2.800  0.8143  100.0   0.993   16.3  0.2197   34.0  0.4133  161.0
 2.820  0.8146   99.6   0.986   15.9  0.2207   33.7  0.4145  160.7
 2.840  0.8150   99.1   0.978   15.5  0.2218   33.4  0.4157  160.4
 2.860  0.8154   98.7   0.971   15.0  0.2229   33.0  0.4169  160.2
 2.880  0.8158   98.2   0.964   14.6  0.2239   32.7  0.4181  159.9
 2.900  0.8163   97.8   0.957   14.1  0.2250   32.4  0.4193  159.6
 2.920  0.8169   97.4   0.950   13.7  0.2261   32.1  0.4206  159.4
 2.940  0.8175   96.9   0.943   13.2  0.2272   31.8  0.4218  159.1
 2.960  0.8182   96.5   0.936   12.8  0.2283   31.5  0.4231  158.8
 2.980  0.8189   96.0   0.929   12.3  0.2294   31.2  0.4243  158.6
 3.000  0.8196   95.6   0.922   11.8  0.2305   30.9  0.4256  158.3
 3.100  0.8214   93.6   0.894   10.3  0.2345   29.4  0.4323  156.9
 3.200  0.8242   91.7   0.867    8.6  0.2387   28.0  0.4392  155.4
 3.300  0.8279   89.7   0.841    6.9  0.2431   26.7  0.4465  154.1
 3.400  0.8326   87.8   0.816    5.1  0.2475   25.4  0.4539  152.8
 3.500  0.8382   85.9   0.791    3.1  0.2521   24.1  0.4616  151.5
 3.600  0.8389   84.1   0.770    1.7  0.2555   22.8  0.4681  150.1
 3.700  0.8404   82.4   0.750    0.2  0.2590   21.6  0.4749  148.8
 3.800  0.8428   80.6   0.730   -1.4  0.2627   20.3  0.4819  147.5
 3.900  0.8459   78.8   0.711   -3.1  0.2664   19.2  0.4891  146.3
 4.000  0.8498   77.1   0.693   -4.9  0.2703   18.0  0.4966  145.1
 4.100  0.8506   75.6   0.679   -6.1  0.2737   16.8  0.5018  143.9
 4.200  0.8520   74.2   0.665   -7.4  0.2771   15.5  0.5072  142.7
 4.300  0.8539   72.7   0.651   -8.7  0.2807   14.4  0.5128  141.5
 4.400  0.8564   71.2   0.638  -10.1  0.2845   13.2  0.5186  140.4
 4.500  0.8594   69.8   0.625  -11.5  0.2883   12.1  0.5246  139.3
 4.600  0.8597   68.5   0.614  -12.5  0.2911   11.0  0.5291  138.3
 4.700  0.8605   67.3   0.602  -13.5  0.2941    9.8  0.5338  137.3
 4.800  0.8617   66.0   0.591  -14.5  0.2972    8.7  0.5387  136.3
 4.900  0.8633   64.8   0.581  -15.6  0.3003    7.7  0.5437  135.3
 5.000  0.8653   63.5   0.570  -16.7  0.3036    6.6  0.5488  134.4
 5.100  0.8669   62.3   0.561  -17.7  0.3066    5.5  0.5537  133.3
 5.200  0.8689   61.2   0.553  -18.6  0.3097    4.4  0.5589  132.2
 5.300  0.8713   60.0   0.544  -19.7  0.3129    3.4  0.5642  131.2
 5.400  0.8740   58.8   0.536  -20.7  0.3162    2.3  0.5697  130.1
 5.500  0.8771   57.7   0.528  -21.8  0.3196    1.3  0.5754  129.1
 5.600  0.8752   56.6   0.522  -22.6  0.3223    0.1  0.5797  128.1
 5.700  0.8736   55.5   0.516  -23.4  0.3251   -1.0  0.5841  127.1
 5.800  0.8723   54.5   0.511  -24.2  0.3280   -2.2  0.5888  126.1
 5.900  0.8714   53.4   0.505  -25.0  0.3310   -3.3  0.5936  125.1
 6.000  0.8707   52.3   0.500  -25.9  0.3342   -4.4  0.5986  124.1
!
!  f       NFmin   Gammaopt  rn/50
! GHz       dB    MAG  ANG    -
!
! noise parameter not available yet for this operation point!
!
! (c) 2016  Infineon Technologies AG, Munich
