! Infineon Technologies  Discrete & RF Semiconductors
! BFP196
! VCE = 3.5 V,  IC =  15mA
! Common Emitter S-Parameters:                            Jan 2016
# GHz  S  MA  R  50
!  f         S11            S21            S12            S22
! GHz     MAG   ANG      MAG   ANG      MAG   ANG      MAG   ANG
 0.010  0.6066  -15.1  37.329  173.5  0.0047   85.5  0.9617   -7.7
 0.015  0.6026  -22.1  36.614  169.6  0.0070   80.6  0.9477  -11.2
 0.020  0.6076  -29.0  36.073  165.6  0.0094   78.2  0.9373  -14.7
 0.025  0.5928  -35.0  35.206  162.9  0.0114   73.2  0.9130  -17.6
 0.030  0.5849  -41.3  34.420  160.1  0.0134   69.7  0.8912  -20.7
 0.035  0.5841  -47.6  33.719  157.2  0.0154   67.2  0.8721  -24.0
 0.040  0.5904  -53.9  33.110  154.2  0.0175   65.2  0.8560  -27.3
 0.045  0.6037  -60.0  32.597  151.0  0.0196   63.6  0.8429  -30.8
 0.050  0.6235  -65.8  32.185  147.8  0.0217   62.4  0.8330  -34.4
 0.055  0.6117  -69.9  31.239  146.2  0.0227   60.3  0.8080  -36.2
 0.060  0.6031  -74.1  30.319  144.5  0.0238   58.5  0.7838  -38.0
 0.065  0.5978  -78.4  29.427  142.8  0.0248   56.7  0.7605  -40.0
 0.070  0.5959  -82.7  28.564  140.9  0.0259   55.2  0.7382  -42.1
 0.075  0.5974  -87.1  27.735  138.8  0.0270   53.7  0.7169  -44.3
 0.080  0.6024  -91.4  26.942  136.7  0.0282   52.4  0.6968  -46.7
 0.085  0.6107  -95.6  26.189  134.5  0.0293   51.2  0.6779  -49.2
 0.090  0.6223  -99.7  25.479  132.1  0.0305   50.0  0.6604  -51.8
 0.095  0.6368 -103.6  24.815  129.6  0.0316   49.0  0.6444  -54.6
 0.100  0.6542 -107.3  24.202  126.9  0.0328   48.0  0.6299  -57.5
 0.105  0.6506 -109.6  23.570  125.9  0.0333   47.2  0.6144  -58.6
 0.110  0.6481 -111.9  22.945  124.9  0.0338   46.5  0.5991  -59.7
 0.115  0.6466 -114.2  22.328  123.8  0.0342   45.8  0.5841  -60.9
 0.120  0.6461 -116.5  21.720  122.7  0.0347   45.0  0.5693  -62.2
 0.125  0.6468 -118.9  21.120  121.5  0.0352   44.4  0.5548  -63.5
 0.130  0.6485 -121.2  20.531  120.2  0.0357   43.7  0.5407  -64.9
 0.135  0.6512 -123.5  19.952  118.9  0.0362   43.0  0.5268  -66.3
 0.140  0.6550 -125.7  19.385  117.4  0.0368   42.4  0.5133  -67.9
 0.145  0.6598 -128.0  18.830  115.9  0.0373   41.8  0.5003  -69.5
 0.150  0.6656 -130.2  18.290  114.3  0.0378   41.2  0.4876  -71.2
 0.155  0.6646 -131.6  17.904  113.7  0.0381   40.9  0.4779  -72.0
 0.160  0.6640 -133.0  17.520  113.0  0.0384   40.6  0.4683  -72.8
 0.165  0.6638 -134.4  17.139  112.3  0.0387   40.2  0.4588  -73.7
 0.170  0.6640 -135.8  16.761  111.5  0.0391   39.9  0.4494  -74.6
 0.175  0.6646 -137.2  16.386  110.8  0.0394   39.6  0.4401  -75.5
 0.180  0.6656 -138.6  16.013  109.9  0.0397   39.3  0.4310  -76.5
 0.185  0.6670 -140.0  15.644  109.1  0.0400   39.0  0.4220  -77.6
 0.190  0.6688 -141.4  15.279  108.2  0.0404   38.8  0.4131  -78.6
 0.195  0.6710 -142.8  14.917  107.3  0.0407   38.5  0.4044  -79.7
 0.200  0.6736 -144.2  14.560  106.3  0.0410   38.2  0.3958  -80.9
 0.220  0.6732 -148.0  13.477  104.3  0.0420   37.9  0.3701  -83.5
 0.240  0.6758 -151.8  12.413  101.9  0.0429   37.6  0.3453  -86.5
 0.260  0.6774 -155.1  11.524   99.8  0.0438   37.5  0.3256  -89.1
 0.280  0.6771 -158.0  10.797   98.3  0.0447   37.6  0.3104  -91.2
 0.300  0.6785 -160.8  10.078   96.5  0.0456   37.8  0.2957  -93.5
 0.320  0.6782 -162.9   9.597   95.5  0.0465   38.1  0.2846  -95.0
 0.340  0.6788 -164.9   9.118   94.4  0.0474   38.5  0.2738  -96.7
 0.360  0.6803 -167.0   8.644   93.1  0.0482   38.8  0.2632  -98.5
 0.380  0.6827 -169.1   8.174   91.8  0.0491   39.1  0.2529 -100.4
 0.400  0.6859 -171.1   7.710   90.2  0.0500   39.4  0.2429 -102.5
 0.420  0.6853 -172.5   7.401   89.3  0.0508   39.9  0.2369 -103.7
 0.440  0.6851 -173.8   7.093   88.4  0.0516   40.3  0.2309 -105.1
 0.450  0.6852 -174.5   6.940   87.9  0.0520   40.5  0.2280 -105.7
 0.460  0.6853 -175.2   6.788   87.4  0.0525   40.8  0.2252 -106.4
 0.480  0.6859 -176.5   6.485   86.2  0.0533   41.2  0.2195 -107.9
 0.500  0.6869 -177.9   6.185   85.0  0.0541   41.6  0.2140 -109.4
 0.520  0.6866 -179.2   5.981   84.2  0.0551   42.1  0.2110 -110.4
 0.540  0.6866  179.5   5.779   83.3  0.0561   42.5  0.2081 -111.4
 0.560  0.6870  178.3   5.578   82.4  0.0572   42.9  0.2053 -112.4
 0.580  0.6877  177.0   5.379   81.4  0.0582   43.3  0.2025 -113.4
 0.600  0.6888  175.7   5.181   80.3  0.0592   43.7  0.1998 -114.5
 0.620  0.6890  174.6   5.036   79.5  0.0602   44.1  0.1979 -115.3
 0.640  0.6895  173.4   4.893   78.7  0.0612   44.4  0.1961 -116.1
 0.660  0.6902  172.3   4.750   77.9  0.0623   44.8  0.1943 -116.9
 0.680  0.6912  171.1   4.608   77.0  0.0633   45.1  0.1926 -117.8
 0.700  0.6925  170.0   4.468   76.0  0.0643   45.4  0.1909 -118.6
 0.720  0.6932  169.2   4.356   75.4  0.0654   45.6  0.1898 -119.4
 0.740  0.6940  168.3   4.244   74.7  0.0665   45.8  0.1888 -120.1
 0.760  0.6950  167.5   4.134   74.0  0.0675   46.0  0.1878 -120.9
 0.780  0.6961  166.6   4.023   73.2  0.0686   46.1  0.1868 -121.7
 0.800  0.6974  165.8   3.914   72.4  0.0697   46.3  0.1859 -122.5
 0.820  0.6961  164.9   3.826   71.8  0.0709   46.6  0.1852 -123.1
 0.840  0.6950  164.0   3.739   71.1  0.0721   46.9  0.1845 -123.7
 0.860  0.6941  163.2   3.652   70.4  0.0733   47.2  0.1839 -124.3
 0.880  0.6933  162.3   3.566   69.7  0.0745   47.4  0.1832 -125.0
 0.900  0.6927  161.4   3.480   68.9  0.0757   47.7  0.1826 -125.6
 0.920  0.6938  160.5   3.412   68.3  0.0768   47.9  0.1827 -126.1
 0.940  0.6950  159.6   3.345   67.6  0.0779   48.0  0.1828 -126.7
 0.960  0.6963  158.7   3.278   66.9  0.0789   48.2  0.1829 -127.2
 0.980  0.6979  157.9   3.212   66.2  0.0800   48.3  0.1830 -127.8
 1.000  0.6996  157.0   3.146   65.4  0.0811   48.5  0.1832 -128.3
 1.020  0.7007  156.3   3.089   64.8  0.0824   48.6  0.1837 -128.8
 1.040  0.7020  155.6   3.032   64.2  0.0836   48.7  0.1842 -129.3
 1.060  0.7034  154.9   2.976   63.5  0.0849   48.7  0.1847 -129.8
 1.080  0.7048  154.2   2.920   62.8  0.0861   48.8  0.1852 -130.3
 1.100  0.7064  153.5   2.865   62.1  0.0874   48.9  0.1857 -130.8
 1.120  0.7062  152.7   2.818   61.5  0.0886   49.0  0.1861 -131.3
 1.140  0.7062  151.9   2.770   60.9  0.0898   49.0  0.1865 -131.8
 1.160  0.7063  151.1   2.724   60.3  0.0910   49.1  0.1869 -132.3
 1.180  0.7066  150.3   2.677   59.7  0.0922   49.1  0.1874 -132.8
 1.200  0.7070  149.5   2.631   59.0  0.0934   49.2  0.1878 -133.3
 1.220  0.7071  148.7   2.590   58.4  0.0946   49.1  0.1884 -133.7
 1.240  0.7073  148.0   2.549   57.8  0.0958   49.1  0.1890 -134.1
 1.260  0.7077  147.2   2.509   57.2  0.0971   49.0  0.1896 -134.6
 1.280  0.7082  146.5   2.469   56.6  0.0983   49.0  0.1902 -135.0
 1.300  0.7088  145.7   2.429   55.9  0.0995   48.9  0.1908 -135.4
 1.320  0.7103  145.1   2.394   55.4  0.1007   48.9  0.1916 -135.7
 1.340  0.7120  144.4   2.360   54.8  0.1018   48.8  0.1924 -136.0
 1.360  0.7137  143.8   2.325   54.3  0.1030   48.8  0.1932 -136.3
 1.380  0.7155  143.1   2.291   53.7  0.1041   48.7  0.1940 -136.6
 1.400  0.7174  142.5   2.257   53.1  0.1053   48.7  0.1948 -136.9
 1.420  0.7169  141.9   2.230   52.5  0.1066   48.7  0.1959 -137.3
 1.440  0.7165  141.3   2.204   51.9  0.1078   48.7  0.1971 -137.7
 1.460  0.7162  140.6   2.178   51.3  0.1091   48.6  0.1983 -138.1
 1.480  0.7160  140.0   2.152   50.7  0.1103   48.6  0.1994 -138.5
 1.500  0.7158  139.4   2.126   50.1  0.1116   48.6  0.2006 -138.9
 1.520  0.7170  138.8   2.095   49.5  0.1128   48.5  0.2014 -139.4
 1.540  0.7184  138.1   2.065   48.9  0.1140   48.4  0.2023 -139.9
 1.560  0.7198  137.5   2.035   48.3  0.1153   48.2  0.2032 -140.4
 1.580  0.7213  136.8   2.005   47.7  0.1165   48.1  0.2041 -140.9
 1.600  0.7229  136.2   1.975   47.0  0.1177   48.0  0.2050 -141.4
 1.620  0.7232  135.6   1.952   46.4  0.1190   47.9  0.2058 -141.9
 1.640  0.7236  134.9   1.930   45.8  0.1202   47.8  0.2065 -142.4
 1.660  0.7241  134.3   1.908   45.2  0.1215   47.7  0.2073 -142.9
 1.680  0.7247  133.6   1.886   44.6  0.1227   47.6  0.2081 -143.3
 1.700  0.7254  133.0   1.864   44.0  0.1240   47.5  0.2089 -143.8
 1.720  0.7266  132.3   1.845   43.6  0.1252   47.3  0.2101 -144.1
 1.740  0.7279  131.7   1.827   43.1  0.1265   47.2  0.2112 -144.3
 1.760  0.7293  131.0   1.808   42.6  0.1277   47.0  0.2124 -144.6
 1.780  0.7307  130.4   1.790   42.2  0.1290   46.9  0.2135 -144.8
 1.800  0.7323  129.7   1.772   41.7  0.1302   46.7  0.2147 -145.1
 1.820  0.7334  129.1   1.753   41.1  0.1315   46.6  0.2163 -145.6
 1.840  0.7345  128.5   1.734   40.5  0.1328   46.5  0.2180 -146.1
 1.860  0.7357  128.0   1.716   39.9  0.1340   46.3  0.2196 -146.6
 1.880  0.7370  127.4   1.697   39.3  0.1353   46.2  0.2213 -147.0
 1.900  0.7384  126.8   1.679   38.7  0.1366   46.1  0.2230 -147.5
 1.920  0.7395  126.3   1.661   38.2  0.1377   45.9  0.2239 -148.0
 1.940  0.7407  125.7   1.642   37.7  0.1389   45.7  0.2247 -148.5
 1.960  0.7419  125.2   1.624   37.2  0.1400   45.5  0.2256 -149.0
 1.980  0.7432  124.6   1.606   36.6  0.1412   45.3  0.2266 -149.5
 2.000  0.7446  124.1   1.588   36.1  0.1423   45.1  0.2275 -150.0
 2.020  0.7447  123.5   1.573   35.6  0.1435   44.9  0.2288 -150.4
 2.040  0.7449  123.0   1.558   35.1  0.1447   44.8  0.2301 -150.7
 2.060  0.7451  122.4   1.543   34.6  0.1458   44.6  0.2314 -151.1
 2.080  0.7455  121.9   1.528   34.1  0.1470   44.4  0.2327 -151.4
 2.100  0.7459  121.3   1.513   33.6  0.1482   44.3  0.2340 -151.7
 2.120  0.7463  120.7   1.498   33.0  0.1494   44.1  0.2353 -152.1
 2.140  0.7469  120.2   1.484   32.5  0.1505   44.0  0.2367 -152.4
 2.160  0.7475  119.6   1.469   31.9  0.1517   43.8  0.2380 -152.8
 2.180  0.7481  119.1   1.455   31.4  0.1529   43.6  0.2393 -153.1
 2.200  0.7489  118.5   1.441   30.8  0.1541   43.5  0.2407 -153.4
 2.220  0.7501  117.9   1.429   30.3  0.1553   43.3  0.2421 -153.9
 2.240  0.7513  117.3   1.417   29.8  0.1565   43.1  0.2434 -154.5
 2.260  0.7527  116.7   1.406   29.3  0.1576   42.9  0.2448 -155.0
 2.280  0.7541  116.1   1.394   28.8  0.1588   42.7  0.2463 -155.5
 2.300  0.7556  115.5   1.383   28.3  0.1600   42.5  0.2477 -156.0
 2.320  0.7572  114.9   1.371   27.7  0.1612   42.3  0.2492 -156.5
 2.340  0.7589  114.3   1.360   27.2  0.1624   42.1  0.2506 -157.0
 2.360  0.7606  113.7   1.349   26.6  0.1636   41.9  0.2521 -157.5
 2.380  0.7625  113.1   1.338   26.1  0.1648   41.7  0.2537 -158.0
 2.400  0.7644  112.5   1.327   25.5  0.1660   41.5  0.2552 -158.5
 2.420  0.7649  112.0   1.316   25.1  0.1671   41.3  0.2567 -158.9
 2.440  0.7654  111.5   1.305   24.6  0.1683   41.1  0.2581 -159.3
 2.460  0.7659  111.0   1.294   24.2  0.1694   40.8  0.2596 -159.7
 2.480  0.7666  110.4   1.283   23.8  0.1705   40.6  0.2611 -160.1
 2.500  0.7673  109.9   1.272   23.3  0.1717   40.4  0.2627 -160.5
 2.520  0.7681  109.4   1.262   22.8  0.1728   40.2  0.2642 -160.8
 2.540  0.7689  108.9   1.251   22.4  0.1740   40.0  0.2657 -161.2
 2.560  0.7698  108.4   1.241   21.9  0.1751   39.8  0.2673 -161.6
 2.580  0.7707  107.9   1.230   21.4  0.1762   39.6  0.2688 -161.9
 2.600  0.7717  107.4   1.220   20.9  0.1774   39.4  0.2704 -162.3
 2.620  0.7727  106.9   1.211   20.5  0.1785   39.2  0.2720 -162.8
 2.640  0.7738  106.4   1.202   20.1  0.1796   38.9  0.2737 -163.3
 2.660  0.7750  105.9   1.193   19.6  0.1807   38.7  0.2754 -163.8
 2.680  0.7762  105.4   1.184   19.2  0.1818   38.5  0.2770 -164.3
 2.700  0.7775  104.9   1.175   18.7  0.1830   38.3  0.2788 -164.8
 2.720  0.7789  104.4   1.166   18.3  0.1841   38.0  0.2805 -165.3
 2.740  0.7802  103.9   1.158   17.8  0.1852   37.8  0.2822 -165.7
 2.760  0.7817  103.4   1.149   17.4  0.1863   37.6  0.2840 -166.2
 2.780  0.7832  102.9   1.140   16.9  0.1875   37.4  0.2858 -166.6
 2.800  0.7848  102.4   1.132   16.4  0.1886   37.2  0.2876 -167.1
 2.820  0.7855  101.9   1.123   16.0  0.1897   37.0  0.2893 -167.5
 2.840  0.7862  101.5   1.115   15.5  0.1908   36.7  0.2911 -167.9
 2.860  0.7870  101.0   1.106   15.1  0.1918   36.5  0.2928 -168.3
 2.880  0.7878  100.6   1.098   14.6  0.1929   36.2  0.2946 -168.7
 2.900  0.7887  100.1   1.089   14.1  0.1940   36.0  0.2964 -169.1
 2.920  0.7896   99.7   1.081   13.7  0.1951   35.8  0.2982 -169.5
 2.940  0.7906   99.2   1.072   13.2  0.1962   35.6  0.3000 -169.9
 2.960  0.7916   98.8   1.064   12.7  0.1973   35.3  0.3018 -170.3
 2.980  0.7927   98.3   1.056   12.2  0.1984   35.1  0.3036 -170.6
 3.000  0.7938   97.9   1.048   11.7  0.1995   34.9  0.3055 -171.0
 3.100  0.7971   95.9   1.013   10.0  0.2042   33.6  0.3137 -173.3
 3.200  0.8014   93.8   0.979    8.3  0.2089   32.4  0.3224 -175.6
 3.300  0.8068   91.8   0.946    6.3  0.2138   31.2  0.3316 -177.6
 3.400  0.8131   89.8   0.914    4.3  0.2187   30.1  0.3412 -179.6
 3.500  0.8203   87.9   0.883    2.1  0.2237   29.0  0.3512  178.5
 3.600  0.8216   86.1   0.857    0.6  0.2280   27.8  0.3604  176.5
 3.700  0.8238   84.2   0.832   -0.9  0.2325   26.7  0.3701  174.6
 3.800  0.8268   82.4   0.808   -2.5  0.2370   25.6  0.3801  172.8
 3.900  0.8306   80.6   0.784   -4.3  0.2416   24.5  0.3905  171.1
 4.000  0.8353   78.8   0.761   -6.1  0.2463   23.5  0.4012  169.5
 4.100  0.8363   77.2   0.742   -7.3  0.2505   22.3  0.4093  167.7
 4.200  0.8380   75.7   0.724   -8.7  0.2548   21.1  0.4177  166.1
 4.300  0.8402   74.2   0.706  -10.0  0.2592   20.0  0.4265  164.4
 4.400  0.8431   72.6   0.688  -11.5  0.2637   18.9  0.4357  162.9
 4.500  0.8465   71.1   0.671  -13.0  0.2683   17.9  0.4451  161.4
 4.600  0.8479   69.8   0.657  -14.0  0.2720   16.7  0.4529  159.9
 4.700  0.8498   68.4   0.643  -15.1  0.2759   15.6  0.4611  158.4
 4.800  0.8521   67.1   0.629  -16.3  0.2798   14.5  0.4695  156.9
 4.900  0.8549   65.8   0.616  -17.5  0.2839   13.4  0.4782  155.5
 5.000  0.8581   64.5   0.603  -18.7  0.2880   12.4  0.4872  154.2
 5.100  0.8596   63.3   0.592  -19.5  0.2917   11.3  0.4945  152.6
 5.200  0.8616   62.2   0.580  -20.4  0.2954   10.2  0.5021  151.1
 5.300  0.8638   61.0   0.569  -21.3  0.2993    9.1  0.5101  149.7
 5.400  0.8664   59.8   0.558  -22.2  0.3033    8.0  0.5184  148.3
 5.500  0.8694   58.7   0.547  -23.2  0.3074    7.0  0.5270  146.9
 5.600  0.8685   57.6   0.540  -24.0  0.3107    5.7  0.5332  145.5
 5.700  0.8680   56.5   0.533  -24.9  0.3142    4.5  0.5398  144.0
 5.800  0.8677   55.3   0.526  -25.7  0.3178    3.3  0.5466  142.7
 5.900  0.8679   54.2   0.520  -26.6  0.3215    2.1  0.5538  141.3
 6.000  0.8683   53.1   0.513  -27.5  0.3254    1.0  0.5613  140.0
!
!  f       NFmin   Gammaopt  rn/50
! GHz       dB    MAG  ANG    -
!
! noise parameter not available yet for this operation point!
!
! (c) 2016  Infineon Technologies AG, Munich
