! Infineon Technologies  Discrete & RF Semiconductors
! BFP183
! VCE = 2.0 V,  IC =  1.2 mA
! Common Emitter S-Parameters:                            Jan 2016
# GHz  S  MA  R  50
!  f         S11            S21            S12            S22
! GHz     MAG   ANG      MAG   ANG      MAG   ANG      MAG   ANG
 0.010  0.9529   -1.4   4.245  179.3  0.0023   84.3  0.9996   -0.6
 0.015  0.9507   -2.3   4.254  178.8  0.0035   86.7  0.9952   -0.8
 0.020  0.9487   -3.2   4.264  178.4  0.0048   87.8  0.9909   -1.1
 0.025  0.9479   -4.0   4.259  177.8  0.0060   88.3  0.9914   -1.4
 0.030  0.9472   -4.8   4.254  177.1  0.0072   88.6  0.9919   -1.7
 0.035  0.9468   -5.6   4.249  176.5  0.0084   88.8  0.9924   -2.0
 0.040  0.9465   -6.4   4.245  175.9  0.0096   89.0  0.9930   -2.2
 0.045  0.9464   -7.2   4.242  175.2  0.0108   89.1  0.9936   -2.5
 0.050  0.9465   -8.0   4.239  174.6  0.0120   89.2  0.9942   -2.8
 0.055  0.9448   -8.7   4.231  174.1  0.0131   87.7  0.9935   -3.1
 0.060  0.9432   -9.5   4.224  173.6  0.0143   86.4  0.9928   -3.4
 0.065  0.9418  -10.2   4.217  173.1  0.0154   85.4  0.9922   -3.6
 0.070  0.9405  -10.9   4.210  172.5  0.0166   84.4  0.9916   -3.9
 0.075  0.9394  -11.7   4.204  172.0  0.0178   83.6  0.9910   -4.2
 0.080  0.9385  -12.4   4.198  171.5  0.0189   82.9  0.9904   -4.5
 0.085  0.9377  -13.2   4.192  171.0  0.0201   82.3  0.9898   -4.8
 0.090  0.9371  -13.9   4.187  170.5  0.0213   81.7  0.9893   -5.0
 0.095  0.9366  -14.7   4.182  169.9  0.0224   81.2  0.9888   -5.3
 0.100  0.9363  -15.4   4.177  169.4  0.0236   80.8  0.9883   -5.6
 0.105  0.9351  -16.2   4.173  168.8  0.0248   80.1  0.9877   -5.9
 0.110  0.9341  -17.0   4.169  168.3  0.0259   79.4  0.9872   -6.2
 0.115  0.9332  -17.8   4.165  167.7  0.0271   78.8  0.9867   -6.4
 0.120  0.9326  -18.6   4.162  167.2  0.0283   78.3  0.9862   -6.7
 0.125  0.9321  -19.4   4.160  166.6  0.0294   77.7  0.9858   -7.0
 0.130  0.9318  -20.2   4.157  166.0  0.0306   77.3  0.9853   -7.3
 0.135  0.9317  -21.0   4.155  165.5  0.0318   76.8  0.9849   -7.6
 0.140  0.9317  -21.8   4.154  164.9  0.0329   76.4  0.9845   -7.8
 0.145  0.9320  -22.6   4.153  164.4  0.0341   76.1  0.9841   -8.1
 0.150  0.9324  -23.4   4.152  163.8  0.0353   75.7  0.9838   -8.4
 0.155  0.9304  -24.1   4.146  163.3  0.0364   75.2  0.9826   -8.7
 0.160  0.9285  -24.9   4.141  162.7  0.0375   74.8  0.9815   -8.9
 0.165  0.9268  -25.6   4.135  162.2  0.0386   74.3  0.9803   -9.2
 0.170  0.9253  -26.4   4.131  161.7  0.0398   73.9  0.9792   -9.4
 0.175  0.9239  -27.1   4.126  161.2  0.0409   73.5  0.9781   -9.7
 0.180  0.9227  -27.9   4.122  160.6  0.0420   73.2  0.9771  -10.0
 0.185  0.9216  -28.6   4.118  160.1  0.0431   72.8  0.9760  -10.2
 0.190  0.9207  -29.4   4.115  159.6  0.0442   72.5  0.9750  -10.5
 0.195  0.9200  -30.1   4.112  159.0  0.0454   72.2  0.9740  -10.7
 0.200  0.9194  -30.9   4.109  158.5  0.0465   71.9  0.9730  -11.0
 0.220  0.9144  -33.7   4.076  156.4  0.0507   69.9  0.9675  -12.0
 0.240  0.9116  -36.6   4.048  154.4  0.0549   68.2  0.9623  -13.1
 0.260  0.9072  -39.5   4.023  152.4  0.0588   66.5  0.9563  -14.1
 0.280  0.9014  -42.5   3.999  150.6  0.0625   64.7  0.9494  -15.0
 0.300  0.8981  -45.6   3.979  148.7  0.0662   63.2  0.9427  -15.9
 0.320  0.8879  -48.3   3.922  146.8  0.0695   61.3  0.9359  -16.8
 0.340  0.8797  -51.0   3.870  144.8  0.0728   59.6  0.9293  -17.6
 0.360  0.8735  -53.7   3.822  142.8  0.0762   58.1  0.9230  -18.5
 0.380  0.8693  -56.5   3.780  140.7  0.0796   56.7  0.9168  -19.4
 0.400  0.8672  -59.3   3.742  138.6  0.0831   55.4  0.9109  -20.3
 0.420  0.8567  -61.9   3.685  136.9  0.0857   53.8  0.9034  -21.1
 0.440  0.8479  -64.5   3.632  135.2  0.0884   52.3  0.8961  -21.8
 0.450  0.8441  -65.8   3.607  134.3  0.0898   51.5  0.8925  -22.2
 0.460  0.8409  -67.2   3.582  133.4  0.0912   50.8  0.8890  -22.6
 0.480  0.8357  -69.9   3.536  131.6  0.0940   49.5  0.8820  -23.4
 0.500  0.8325  -72.6   3.493  129.7  0.0969   48.2  0.8752  -24.2
 0.520  0.8239  -75.0   3.451  128.2  0.0990   46.8  0.8680  -24.8
 0.540  0.8167  -77.4   3.411  126.7  0.1012   45.5  0.8608  -25.5
 0.560  0.8111  -79.8   3.374  125.2  0.1034   44.3  0.8538  -26.1
 0.580  0.8069  -82.3   3.339  123.6  0.1056   43.1  0.8469  -26.8
 0.600  0.8042  -84.8   3.307  122.0  0.1079   41.9  0.8401  -27.5
 0.620  0.7957  -87.0   3.254  120.6  0.1095   40.8  0.8335  -28.0
 0.640  0.7884  -89.3   3.203  119.2  0.1111   39.6  0.8269  -28.6
 0.660  0.7824  -91.5   3.154  117.8  0.1128   38.6  0.8205  -29.2
 0.680  0.7776  -93.9   3.108  116.2  0.1145   37.5  0.8141  -29.7
 0.700  0.7741  -96.2   3.063  114.7  0.1163   36.5  0.8078  -30.3
 0.720  0.7677  -98.2   3.022  113.4  0.1173   35.4  0.8018  -30.8
 0.740  0.7622 -100.2   2.983  112.1  0.1184   34.4  0.7960  -31.2
 0.760  0.7576 -102.2   2.945  110.8  0.1195   33.3  0.7901  -31.7
 0.780  0.7540 -104.2   2.909  109.4  0.1206   32.3  0.7843  -32.2
 0.800  0.7514 -106.3   2.875  108.0  0.1218   31.3  0.7786  -32.7
 0.820  0.7458 -108.1   2.831  106.9  0.1229   30.4  0.7738  -33.1
 0.840  0.7410 -110.0   2.789  105.7  0.1240   29.5  0.7690  -33.5
 0.860  0.7369 -111.8   2.747  104.5  0.1251   28.7  0.7643  -33.9
 0.880  0.7337 -113.7   2.707  103.3  0.1263   27.8  0.7596  -34.4
 0.900  0.7312 -115.6   2.668  102.0  0.1275   27.0  0.7549  -34.8
 0.920  0.7266 -117.4   2.629  100.9  0.1280   26.1  0.7502  -35.2
 0.940  0.7227 -119.3   2.592   99.8  0.1285   25.3  0.7456  -35.6
 0.960  0.7196 -121.2   2.555   98.7  0.1290   24.5  0.7410  -36.0
 0.980  0.7173 -123.1   2.520   97.5  0.1295   23.6  0.7364  -36.5
 1.000  0.7158 -125.0   2.485   96.3  0.1301   22.8  0.7319  -36.9
 1.020  0.7117 -126.7   2.456   95.2  0.1305   22.1  0.7280  -37.3
 1.040  0.7083 -128.4   2.429   94.1  0.1309   21.4  0.7241  -37.6
 1.060  0.7056 -130.2   2.402   93.0  0.1314   20.7  0.7202  -38.0
 1.080  0.7034 -131.9   2.376   91.8  0.1318   20.0  0.7163  -38.3
 1.100  0.7020 -133.7   2.351   90.6  0.1323   19.3  0.7125  -38.7
 1.120  0.6982 -135.3   2.320   89.7  0.1325   18.6  0.7096  -39.1
 1.140  0.6949 -136.9   2.290   88.8  0.1328   17.9  0.7066  -39.5
 1.160  0.6922 -138.5   2.260   87.9  0.1331   17.2  0.7038  -39.8
 1.180  0.6901 -140.2   2.231   87.0  0.1334   16.5  0.7009  -40.2
 1.200  0.6885 -141.8   2.202   86.0  0.1337   15.8  0.6981  -40.6
 1.220  0.6865 -143.3   2.174   85.1  0.1337   15.2  0.6948  -40.9
 1.240  0.6850 -144.7   2.147   84.2  0.1338   14.7  0.6916  -41.2
 1.260  0.6840 -146.2   2.121   83.2  0.1338   14.1  0.6883  -41.6
 1.280  0.6834 -147.7   2.095   82.2  0.1339   13.6  0.6851  -41.9
 1.300  0.6833 -149.2   2.070   81.2  0.1340   13.0  0.6819  -42.2
 1.320  0.6798 -150.6   2.047   80.3  0.1339   12.5  0.6793  -42.5
 1.340  0.6768 -152.0   2.024   79.5  0.1338   12.0  0.6767  -42.9
 1.360  0.6741 -153.4   2.001   78.6  0.1337   11.5  0.6741  -43.2
 1.380  0.6718 -154.8   1.979   77.6  0.1337   11.0  0.6716  -43.6
 1.400  0.6700 -156.2   1.958   76.7  0.1336   10.5  0.6691  -43.9
 1.420  0.6704 -157.6   1.937   75.8  0.1334   10.1  0.6666  -44.2
 1.440  0.6712 -159.0   1.917   75.0  0.1331    9.7  0.6641  -44.5
 1.460  0.6724 -160.4   1.897   74.1  0.1329    9.2  0.6616  -44.7
 1.480  0.6740 -161.7   1.878   73.1  0.1327    8.8  0.6591  -45.0
 1.500  0.6760 -163.1   1.859   72.2  0.1325    8.4  0.6566  -45.3
 1.520  0.6748 -164.5   1.838   71.4  0.1323    7.9  0.6549  -45.6
 1.540  0.6741 -165.8   1.818   70.7  0.1321    7.5  0.6532  -45.9
 1.560  0.6737 -167.2   1.797   69.9  0.1319    7.0  0.6516  -46.3
 1.580  0.6736 -168.5   1.777   69.0  0.1317    6.6  0.6499  -46.6
 1.600  0.6740 -169.9   1.758   68.2  0.1315    6.1  0.6483  -46.9
 1.620  0.6723 -171.1   1.738   67.5  0.1312    5.8  0.6462  -47.3
 1.640  0.6709 -172.2   1.718   66.7  0.1308    5.4  0.6442  -47.6
 1.660  0.6698 -173.4   1.699   66.0  0.1305    5.1  0.6422  -48.0
 1.680  0.6689 -174.6   1.680   65.2  0.1301    4.7  0.6402  -48.3
 1.700  0.6684 -175.8   1.661   64.4  0.1298    4.4  0.6382  -48.7
 1.720  0.6688 -176.9   1.645   63.6  0.1295    4.1  0.6365  -49.0
 1.740  0.6694 -178.0   1.630   62.9  0.1292    3.8  0.6349  -49.3
 1.760  0.6703 -179.1   1.614   62.1  0.1289    3.6  0.6333  -49.5
 1.780  0.6714  179.8   1.600   61.3  0.1286    3.3  0.6317  -49.8
 1.800  0.6728  178.7   1.585   60.5  0.1283    3.0  0.6301  -50.1
 1.820  0.6728  177.6   1.570   59.8  0.1278    2.6  0.6290  -50.4
 1.840  0.6732  176.4   1.555   59.1  0.1274    2.3  0.6279  -50.8
 1.860  0.6737  175.3   1.540   58.4  0.1269    1.9  0.6268  -51.1
 1.880  0.6746  174.1   1.526   57.6  0.1264    1.6  0.6257  -51.5
 1.900  0.6757  173.0   1.512   56.9  0.1260    1.2  0.6247  -51.8
 1.920  0.6748  171.9   1.498   56.2  0.1256    1.0  0.6236  -52.1
 1.940  0.6740  170.9   1.484   55.5  0.1253    0.8  0.6226  -52.4
 1.960  0.6736  169.8   1.470   54.8  0.1249    0.7  0.6215  -52.7
 1.980  0.6733  168.8   1.457   54.0  0.1246    0.5  0.6205  -53.0
 2.000  0.6733  167.7   1.444   53.3  0.1242    0.3  0.6195  -53.3
 2.020  0.6734  166.8   1.430   52.7  0.1236    0.1  0.6182  -53.7
 2.040  0.6737  165.8   1.417   52.0  0.1230   -0.1  0.6170  -54.0
 2.060  0.6742  164.9   1.403   51.4  0.1224   -0.3  0.6157  -54.4
 2.080  0.6749  164.0   1.390   50.7  0.1219   -0.6  0.6145  -54.8
 2.100  0.6758  163.0   1.377   50.0  0.1213   -0.8  0.6134  -55.2
 2.120  0.6768  162.1   1.364   49.3  0.1207   -1.0  0.6122  -55.6
 2.140  0.6780  161.2   1.352   48.6  0.1201   -1.2  0.6111  -55.9
 2.160  0.6794  160.2   1.339   47.9  0.1195   -1.4  0.6100  -56.3
 2.180  0.6810  159.3   1.327   47.1  0.1190   -1.7  0.6089  -56.7
 2.200  0.6827  158.4   1.315   46.4  0.1184   -1.9  0.6079  -57.1
 2.220  0.6829  157.5   1.305   45.8  0.1179   -2.0  0.6073  -57.5
 2.240  0.6833  156.6   1.295   45.2  0.1175   -2.2  0.6066  -57.9
 2.260  0.6839  155.6   1.285   44.6  0.1170   -2.3  0.6061  -58.2
 2.280  0.6847  154.7   1.275   44.0  0.1166   -2.4  0.6055  -58.6
 2.300  0.6856  153.8   1.265   43.4  0.1161   -2.5  0.6050  -59.0
 2.320  0.6867  152.9   1.256   42.8  0.1156   -2.7  0.6045  -59.4
 2.340  0.6880  152.0   1.246   42.2  0.1152   -2.8  0.6040  -59.8
 2.360  0.6894  151.1   1.237   41.5  0.1147   -2.9  0.6035  -60.1
 2.380  0.6910  150.2   1.228   40.9  0.1143   -3.1  0.6031  -60.5
 2.400  0.6928  149.3   1.219   40.2  0.1138   -3.2  0.6027  -60.9
 2.420  0.6934  148.5   1.208   39.6  0.1132   -3.2  0.6016  -61.3
 2.440  0.6942  147.7   1.198   39.1  0.1126   -3.2  0.6005  -61.6
 2.460  0.6952  146.9   1.187   38.5  0.1120   -3.2  0.5994  -62.0
 2.480  0.6962  146.1   1.177   37.9  0.1114   -3.2  0.5983  -62.4
 2.500  0.6974  145.3   1.167   37.3  0.1108   -3.2  0.5973  -62.8
 2.520  0.6987  144.5   1.157   36.7  0.1103   -3.1  0.5963  -63.2
 2.540  0.7002  143.7   1.147   36.1  0.1097   -3.1  0.5953  -63.5
 2.560  0.7017  143.0   1.137   35.5  0.1091   -3.1  0.5943  -63.9
 2.580  0.7035  142.2   1.128   34.8  0.1085   -3.1  0.5934  -64.3
 2.600  0.7053  141.4   1.118   34.2  0.1079   -3.1  0.5925  -64.7
 2.620  0.7060  140.6   1.110   33.6  0.1074   -3.1  0.5923  -65.1
 2.640  0.7069  139.9   1.101   33.1  0.1070   -3.1  0.5921  -65.5
 2.660  0.7079  139.1   1.093   32.5  0.1065   -3.0  0.5919  -65.9
 2.680  0.7090  138.4   1.085   31.9  0.1061   -3.0  0.5917  -66.3
 2.700  0.7102  137.6   1.078   31.3  0.1056   -3.0  0.5916  -66.6
 2.720  0.7115  136.9   1.070   30.7  0.1052   -3.0  0.5915  -67.0
 2.740  0.7130  136.1   1.062   30.1  0.1047   -3.0  0.5914  -67.4
 2.760  0.7146  135.4   1.055   29.5  0.1043   -2.9  0.5914  -67.8
 2.780  0.7163  134.6   1.047   28.8  0.1038   -2.9  0.5914  -68.2
 2.800  0.7181  133.9   1.040   28.2  0.1034   -2.9  0.5914  -68.6
 2.820  0.7186  133.2   1.032   27.7  0.1029   -2.8  0.5906  -69.1
 2.840  0.7192  132.5   1.025   27.1  0.1024   -2.6  0.5899  -69.5
 2.860  0.7199  131.9   1.018   26.6  0.1019   -2.5  0.5892  -70.0
 2.880  0.7207  131.2   1.010   26.1  0.1014   -2.3  0.5886  -70.4
 2.900  0.7216  130.5   1.003   25.5  0.1009   -2.2  0.5880  -70.9
 2.920  0.7226  129.9   0.996   24.9  0.1005   -2.0  0.5874  -71.3
 2.940  0.7236  129.2   0.989   24.4  0.1000   -1.9  0.5869  -71.8
 2.960  0.7248  128.5   0.982   23.8  0.0995   -1.7  0.5864  -72.3
 2.980  0.7261  127.9   0.976   23.2  0.0990   -1.6  0.5859  -72.7
 3.000  0.7275  127.2   0.969   22.6  0.0985   -1.4  0.5855  -73.2
 3.100  0.7298  124.2   0.934   20.5  0.0974   -0.2  0.5845  -75.5
 3.200  0.7340  121.3   0.900   18.2  0.0962    1.0  0.5844  -77.7
 3.300  0.7401  118.3   0.868   15.8  0.0952    2.2  0.5852  -80.0
 3.400  0.7482  115.5   0.838   13.1  0.0942    3.5  0.5870  -82.3
 3.500  0.7580  112.7   0.809   10.3  0.0932    4.8  0.5896  -84.5
 3.600  0.7619  110.3   0.784    8.4  0.0934    6.5  0.5880  -87.2
 3.700  0.7671  107.9   0.760    6.5  0.0936    8.2  0.5877  -89.9
 3.800  0.7737  105.6   0.736    4.3  0.0939    9.9  0.5888  -92.6
 3.900  0.7814  103.3   0.714    2.1  0.0943   11.6  0.5911  -95.3
 4.000  0.7904  101.1   0.693   -0.3  0.0948   13.3  0.5948  -98.0
 4.100  0.7920   99.1   0.671   -1.9  0.0966   14.7  0.5940 -100.9
 4.200  0.7946   97.1   0.650   -3.7  0.0984   16.0  0.5947 -103.8
 4.300  0.7982   95.2   0.629   -5.6  0.1003   17.3  0.5969 -106.7
 4.400  0.8026   93.2   0.609   -7.6  0.1022   18.5  0.6006 -109.5
 4.500  0.8080   91.3   0.590   -9.7  0.1042   19.7  0.6058 -112.3
 4.600  0.8102   89.8   0.572  -10.8  0.1072   21.0  0.6048 -115.1
 4.700  0.8130   88.4   0.554  -11.9  0.1103   22.2  0.6051 -117.8
 4.800  0.8163   86.9   0.536  -13.2  0.1134   23.4  0.6069 -120.6
 4.900  0.8201   85.5   0.518  -14.5  0.1166   24.5  0.6101 -123.3
 5.000  0.8244   84.1   0.501  -15.9  0.1198   25.5  0.6146 -126.0
 5.100  0.8263   82.8   0.489  -16.9  0.1251   25.3  0.6159 -128.7
 5.200  0.8286   81.5   0.478  -18.0  0.1304   25.1  0.6186 -131.4
 5.300  0.8313   80.2   0.466  -19.2  0.1358   24.9  0.6226 -134.1
 5.400  0.8345   78.9   0.455  -20.3  0.1411   24.8  0.6279 -136.7
 5.500  0.8381   77.6   0.444  -21.6  0.1464   24.6  0.6346 -139.3
 5.600  0.8413   76.4   0.433  -22.4  0.1506   23.9  0.6367 -141.9
 5.700  0.8449   75.2   0.423  -23.3  0.1548   23.3  0.6401 -144.5
 5.800  0.8488   74.0   0.412  -24.3  0.1591   22.7  0.6448 -147.0
 5.900  0.8531   72.9   0.402  -25.3  0.1633   22.1  0.6508 -149.5
 6.000  0.8577   71.7   0.392  -26.3  0.1676   21.6  0.6580 -152.0
!
!  f       NFmin   Gammaopt  rn/50
! GHz       dB    MAG  ANG    -
!
! noise parameter not available yet for this operation point!
!
! (c) 2016  Infineon Technologies AG, Munich
