! Infineon Technologies  Discrete & RF Semiconductors
! BFP193
! VCE = 0.75V,  IC =  70 mA
! Common Emitter S-Parameters:                            Jan 2016
# GHz  S  MA  R  50
!  f         S11            S21            S12            S22
! GHz     MAG   ANG      MAG   ANG      MAG   ANG      MAG   ANG
 0.010  0.2287 -124.6  38.833  163.6  0.0055   60.8  0.4284  -28.3
 0.015  0.3086 -128.3  36.395  156.8  0.0076   59.3  0.4105  -40.5
 0.020  0.3893 -130.5  34.533  149.2  0.0097   58.4  0.4121  -53.1
 0.025  0.4271 -135.3  32.253  146.3  0.0108   55.4  0.3871  -60.0
 0.030  0.4673 -139.3  30.071  142.9  0.0120   53.0  0.3685  -67.8
 0.035  0.5095 -142.6  28.009  139.0  0.0131   51.1  0.3573  -76.2
 0.040  0.5531 -145.4  26.096  134.5  0.0143   49.4  0.3542  -85.0
 0.045  0.5978 -147.8  24.366  129.4  0.0155   48.0  0.3594  -93.7
 0.050  0.6435 -149.9  22.862  123.5  0.0167   46.8  0.3726 -102.0
 0.055  0.6511 -151.7  21.833  122.5  0.0172   46.6  0.3648 -105.1
 0.060  0.6593 -153.4  20.812  121.3  0.0177   46.5  0.3580 -108.3
 0.065  0.6681 -155.1  19.799  120.1  0.0183   46.3  0.3524 -111.6
 0.070  0.6774 -156.7  18.798  118.7  0.0188   46.1  0.3481 -115.0
 0.075  0.6873 -158.3  17.808  117.1  0.0193   46.0  0.3450 -118.5
 0.080  0.6977 -159.9  16.833  115.4  0.0198   45.9  0.3432 -122.1
 0.085  0.7086 -161.4  15.876  113.5  0.0203   45.7  0.3427 -125.6
 0.090  0.7199 -162.8  14.939  111.3  0.0209   45.6  0.3436 -129.2
 0.095  0.7318 -164.2  14.026  108.8  0.0214   45.5  0.3457 -132.7
 0.100  0.7440 -165.6  13.143  106.0  0.0219   45.4  0.3492 -136.2
 0.105  0.7467 -166.3  12.723  105.4  0.0223   45.8  0.3476 -137.6
 0.110  0.7494 -167.1  12.304  104.8  0.0227   46.1  0.3462 -139.0
 0.115  0.7524 -167.8  11.886  104.2  0.0232   46.4  0.3451 -140.4
 0.120  0.7554 -168.6  11.470  103.5  0.0236   46.8  0.3441 -141.9
 0.125  0.7586 -169.3  11.056  102.7  0.0240   47.1  0.3434 -143.3
 0.130  0.7618 -170.0  10.644  101.9  0.0244   47.4  0.3428 -144.7
 0.135  0.7652 -170.7  10.235  101.0  0.0248   47.7  0.3425 -146.2
 0.140  0.7687 -171.4   9.828  100.1  0.0253   48.0  0.3424 -147.6
 0.145  0.7724 -172.1   9.424   99.0  0.0257   48.2  0.3426 -149.1
 0.150  0.7761 -172.8   9.023   97.9  0.0261   48.5  0.3429 -150.5
 0.155  0.7762 -173.3   8.804   97.5  0.0265   49.0  0.3424 -151.2
 0.160  0.7763 -173.7   8.585   97.1  0.0269   49.5  0.3419 -152.0
 0.165  0.7765 -174.2   8.367   96.6  0.0274   49.9  0.3414 -152.7
 0.170  0.7767 -174.6   8.149   96.2  0.0278   50.4  0.3411 -153.5
 0.175  0.7770 -175.1   7.932   95.7  0.0282   50.8  0.3408 -154.2
 0.180  0.7773 -175.5   7.716   95.2  0.0287   51.2  0.3405 -155.0
 0.185  0.7777 -176.0   7.500   94.6  0.0291   51.6  0.3403 -155.7
 0.190  0.7781 -176.4   7.285   94.1  0.0295   52.0  0.3402 -156.5
 0.195  0.7786 -176.9   7.070   93.4  0.0300   52.4  0.3401 -157.2
 0.200  0.7791 -177.3   6.857   92.8  0.0304   52.8  0.3401 -158.0
 0.220  0.7809 -178.6   6.305   91.5  0.0320   53.7  0.3393 -160.0
 0.240  0.7832 -179.9   5.757   90.1  0.0335   54.5  0.3390 -162.1
 0.260  0.7850  178.9   5.304   88.7  0.0353   55.6  0.3389 -163.7
 0.280  0.7860  177.8   4.945   87.6  0.0374   57.0  0.3389 -165.0
 0.300  0.7874  176.8   4.587   86.4  0.0395   58.2  0.3390 -166.3
 0.320  0.7879  175.9   4.362   85.7  0.0414   58.9  0.3390 -167.2
 0.340  0.7886  174.9   4.139   84.8  0.0433   59.6  0.3390 -168.1
 0.360  0.7895  174.0   3.916   83.9  0.0452   60.2  0.3392 -169.0
 0.380  0.7906  173.0   3.694   82.9  0.0471   60.8  0.3394 -169.9
 0.400  0.7919  172.1   3.474   81.7  0.0490   61.3  0.3397 -170.8
 0.420  0.7918  171.4   3.337   81.0  0.0509   61.6  0.3398 -171.4
 0.440  0.7917  170.8   3.200   80.3  0.0528   62.0  0.3399 -172.1
 0.450  0.7918  170.4   3.132   79.9  0.0537   62.1  0.3399 -172.4
 0.460  0.7918  170.1   3.063   79.5  0.0547   62.3  0.3400 -172.7
 0.480  0.7920  169.5   2.928   78.6  0.0566   62.5  0.3402 -173.4
 0.500  0.7923  168.8   2.793   77.6  0.0585   62.8  0.3404 -174.0
 0.520  0.7920  168.0   2.700   76.9  0.0605   63.0  0.3408 -174.4
 0.540  0.7919  167.2   2.608   76.1  0.0625   63.2  0.3412 -174.9
 0.560  0.7919  166.4   2.516   75.2  0.0644   63.3  0.3417 -175.3
 0.580  0.7921  165.6   2.425   74.3  0.0664   63.5  0.3421 -175.8
 0.600  0.7924  164.8   2.335   73.3  0.0684   63.6  0.3426 -176.2
 0.620  0.7918  164.1   2.271   72.6  0.0704   63.6  0.3430 -176.6
 0.640  0.7913  163.4   2.207   71.8  0.0725   63.6  0.3434 -177.0
 0.660  0.7909  162.6   2.143   70.9  0.0745   63.6  0.3439 -177.4
 0.680  0.7907  161.9   2.080   70.0  0.0766   63.6  0.3443 -177.8
 0.700  0.7906  161.2   2.018   69.1  0.0786   63.6  0.3448 -178.2
 0.720  0.7909  160.6   1.969   68.5  0.0806   63.4  0.3453 -178.5
 0.740  0.7912  160.0   1.921   67.9  0.0826   63.2  0.3458 -178.8
 0.760  0.7917  159.5   1.873   67.3  0.0845   63.0  0.3463 -179.1
 0.780  0.7922  158.9   1.825   66.6  0.0865   62.9  0.3469 -179.4
 0.800  0.7928  158.3   1.777   65.9  0.0885   62.7  0.3474 -179.7
 0.820  0.7925  157.6   1.740   65.3  0.0906   62.6  0.3477  180.0
 0.840  0.7922  156.9   1.703   64.6  0.0928   62.4  0.3480  179.7
 0.860  0.7921  156.3   1.667   63.9  0.0949   62.3  0.3483  179.3
 0.880  0.7921  155.6   1.631   63.2  0.0971   62.2  0.3487  179.0
 0.900  0.7922  154.9   1.595   62.5  0.0992   62.1  0.3490  178.7
 0.920  0.7923  154.2   1.566   61.9  0.1011   61.9  0.3497  178.4
 0.940  0.7924  153.5   1.536   61.3  0.1030   61.8  0.3505  178.1
 0.960  0.7927  152.9   1.507   60.6  0.1049   61.6  0.3512  177.9
 0.980  0.7931  152.2   1.479   59.9  0.1068   61.4  0.3519  177.6
 1.000  0.7936  151.5   1.450   59.2  0.1087   61.3  0.3527  177.3
 1.020  0.7945  150.9   1.426   58.5  0.1107   61.1  0.3534  177.0
 1.040  0.7954  150.3   1.402   57.9  0.1127   60.9  0.3540  176.7
 1.060  0.7965  149.6   1.379   57.2  0.1147   60.7  0.3547  176.5
 1.080  0.7977  149.0   1.355   56.4  0.1167   60.6  0.3554  176.2
 1.100  0.7989  148.4   1.332   55.7  0.1187   60.4  0.3561  175.9
 1.120  0.7995  147.8   1.311   55.1  0.1207   60.1  0.3566  175.6
 1.140  0.8003  147.1   1.290   54.6  0.1227   59.9  0.3572  175.4
 1.160  0.8011  146.5   1.270   54.0  0.1246   59.6  0.3578  175.1
 1.180  0.8021  145.8   1.249   53.3  0.1266   59.3  0.3583  174.9
 1.200  0.8031  145.2   1.229   52.7  0.1286   59.1  0.3589  174.6
 1.220  0.8024  144.6   1.213   52.1  0.1306   58.8  0.3595  174.3
 1.240  0.8017  144.1   1.196   51.5  0.1326   58.5  0.3601  174.1
 1.260  0.8011  143.5   1.180   50.9  0.1346   58.2  0.3607  173.8
 1.280  0.8006  143.0   1.164   50.3  0.1366   57.9  0.3614  173.6
 1.300  0.8002  142.4   1.148   49.7  0.1386   57.6  0.3620  173.3
 1.320  0.8008  141.8   1.133   49.2  0.1404   57.3  0.3628  173.0
 1.340  0.8014  141.3   1.118   48.7  0.1422   57.1  0.3636  172.8
 1.360  0.8021  140.7   1.103   48.2  0.1440   56.8  0.3644  172.5
 1.380  0.8029  140.2   1.088   47.6  0.1458   56.5  0.3653  172.3
 1.400  0.8038  139.6   1.073   47.1  0.1476   56.3  0.3661  172.0
 1.420  0.8033  139.0   1.063   46.5  0.1495   56.0  0.3667  171.8
 1.440  0.8030  138.4   1.053   45.9  0.1514   55.8  0.3673  171.6
 1.460  0.8027  137.9   1.044   45.3  0.1534   55.5  0.3679  171.3
 1.480  0.8024  137.3   1.034   44.6  0.1553   55.2  0.3686  171.1
 1.500  0.8023  136.7   1.025   44.0  0.1572   55.0  0.3692  170.9
 1.520  0.8034  136.2   1.011   43.5  0.1590   54.7  0.3702  170.6
 1.540  0.8046  135.6   0.996   42.9  0.1608   54.3  0.3712  170.3
 1.560  0.8059  135.1   0.982   42.4  0.1626   54.0  0.3722  170.1
 1.580  0.8073  134.5   0.968   41.8  0.1645   53.7  0.3733  169.8
 1.600  0.8087  134.0   0.954   41.2  0.1663   53.4  0.3743  169.5
 1.620  0.8090  133.3   0.945   40.6  0.1680   53.1  0.3749  169.2
 1.640  0.8095  132.7   0.937   40.1  0.1698   52.9  0.3756  168.9
 1.660  0.8101  132.0   0.928   39.5  0.1715   52.6  0.3762  168.6
 1.680  0.8107  131.4   0.919   38.9  0.1733   52.3  0.3769  168.3
 1.700  0.8115  130.7   0.911   38.3  0.1750   52.1  0.3776  168.0
 1.720  0.8121  130.2   0.904   37.9  0.1767   51.7  0.3784  167.8
 1.740  0.8127  129.6   0.897   37.4  0.1785   51.4  0.3792  167.6
 1.760  0.8134  129.1   0.890   36.9  0.1803   51.0  0.3800  167.3
 1.780  0.8142  128.5   0.883   36.5  0.1820   50.6  0.3809  167.1
 1.800  0.8150  128.0   0.876   36.0  0.1838   50.3  0.3817  166.9
 1.820  0.8152  127.5   0.868   35.5  0.1856   50.0  0.3828  166.6
 1.840  0.8155  127.1   0.861   34.9  0.1873   49.7  0.3840  166.3
 1.860  0.8158  126.6   0.853   34.4  0.1891   49.4  0.3851  166.1
 1.880  0.8162  126.2   0.845   33.9  0.1908   49.2  0.3862  165.8
 1.900  0.8166  125.7   0.838   33.3  0.1926   48.9  0.3874  165.5
 1.920  0.8168  125.1   0.831   32.8  0.1942   48.6  0.3886  165.2
 1.940  0.8170  124.6   0.823   32.4  0.1959   48.2  0.3897  164.9
 1.960  0.8174  124.0   0.816   31.9  0.1976   47.9  0.3909  164.6
 1.980  0.8178  123.5   0.809   31.4  0.1992   47.6  0.3921  164.3
 2.000  0.8183  122.9   0.802   30.9  0.2009   47.3  0.3933  164.0
 2.020  0.8181  122.4   0.796   30.5  0.2025   47.0  0.3943  163.7
 2.040  0.8180  121.9   0.789   30.0  0.2040   46.6  0.3954  163.4
 2.060  0.8179  121.4   0.783   29.5  0.2056   46.3  0.3964  163.1
 2.080  0.8179  120.9   0.777   29.1  0.2072   46.0  0.3975  162.9
 2.100  0.8179  120.3   0.770   28.6  0.2088   45.7  0.3985  162.6
 2.120  0.8181  119.8   0.764   28.1  0.2104   45.4  0.3996  162.3
 2.140  0.8182  119.3   0.758   27.6  0.2120   45.1  0.4007  162.0
 2.160  0.8185  118.8   0.752   27.1  0.2136   44.8  0.4018  161.7
 2.180  0.8188  118.3   0.746   26.6  0.2152   44.5  0.4029  161.5
 2.200  0.8192  117.8   0.740   26.1  0.2168   44.2  0.4040  161.2
 2.220  0.8198  117.3   0.736   25.7  0.2183   43.9  0.4053  160.9
 2.240  0.8205  116.8   0.731   25.3  0.2198   43.5  0.4065  160.5
 2.260  0.8212  116.2   0.727   24.8  0.2213   43.2  0.4078  160.2
 2.280  0.8220  115.7   0.723   24.4  0.2228   42.9  0.4091  159.9
 2.300  0.8229  115.2   0.719   24.0  0.2243   42.6  0.4104  159.6
 2.320  0.8238  114.7   0.715   23.5  0.2258   42.3  0.4117  159.3
 2.340  0.8248  114.1   0.711   23.1  0.2273   42.0  0.4130  158.9
 2.360  0.8259  113.6   0.707   22.6  0.2288   41.7  0.4144  158.6
 2.380  0.8270  113.1   0.703   22.2  0.2304   41.4  0.4157  158.3
 2.400  0.8282  112.6   0.699   21.7  0.2319   41.1  0.4171  158.0
 2.420  0.8278  112.1   0.694   21.3  0.2332   40.8  0.4182  157.7
 2.440  0.8275  111.6   0.690   21.0  0.2346   40.5  0.4192  157.4
 2.460  0.8273  111.1   0.685   20.6  0.2359   40.1  0.4203  157.1
 2.480  0.8271  110.6   0.680   20.2  0.2373   39.8  0.4214  156.8
 2.500  0.8270  110.1   0.676   19.8  0.2387   39.5  0.4225  156.5
 2.520  0.8269  109.6   0.671   19.4  0.2400   39.2  0.4236  156.2
 2.540  0.8269  109.1   0.666   19.0  0.2414   38.9  0.4247  155.9
 2.560  0.8270  108.6   0.662   18.6  0.2428   38.6  0.4259  155.6
 2.580  0.8271  108.1   0.657   18.2  0.2442   38.3  0.4270  155.3
 2.600  0.8273  107.6   0.653   17.8  0.2456   38.0  0.4282  155.0
 2.620  0.8276  107.1   0.650   17.5  0.2469   37.7  0.4297  154.7
 2.640  0.8279  106.7   0.646   17.1  0.2481   37.4  0.4311  154.4
 2.660  0.8283  106.2   0.643   16.8  0.2494   37.1  0.4326  154.1
 2.680  0.8288  105.8   0.640   16.4  0.2507   36.8  0.4341  153.8
 2.700  0.8293  105.3   0.636   16.1  0.2520   36.5  0.4356  153.5
 2.720  0.8298  104.8   0.633   15.7  0.2533   36.2  0.4371  153.2
 2.740  0.8304  104.4   0.630   15.4  0.2546   35.9  0.4387  152.9
 2.760  0.8311  103.9   0.626   15.0  0.2559   35.6  0.4402  152.7
 2.780  0.8318  103.5   0.623   14.7  0.2573   35.3  0.4417  152.4
 2.800  0.8326  103.0   0.620   14.3  0.2586   35.0  0.4433  152.1
 2.820  0.8327  102.6   0.617   14.0  0.2598   34.7  0.4445  151.8
 2.840  0.8328  102.2   0.614   13.6  0.2611   34.4  0.4458  151.5
 2.860  0.8330  101.8   0.610   13.3  0.2623   34.0  0.4471  151.2
 2.880  0.8332  101.4   0.607   12.9  0.2635   33.7  0.4483  150.8
 2.900  0.8334  100.9   0.604   12.5  0.2648   33.4  0.4496  150.5
 2.920  0.8337  100.5   0.601   12.2  0.2661   33.1  0.4509  150.2
 2.940  0.8340  100.1   0.598   11.8  0.2673   32.8  0.4523  149.9
 2.960  0.8344   99.7   0.595   11.4  0.2686   32.5  0.4536  149.6
 2.980  0.8348   99.3   0.592   11.1  0.2699   32.2  0.4549  149.3
 3.000  0.8353   98.9   0.589   10.7  0.2712   31.9  0.4563  149.0
 3.100  0.8356   97.0   0.576    9.4  0.2763   30.4  0.4627  147.5
 3.200  0.8369   95.1   0.562    8.1  0.2816   29.0  0.4694  146.1
 3.300  0.8391   93.2   0.550    6.8  0.2870   27.6  0.4765  144.7
 3.400  0.8422   91.3   0.537    5.3  0.2926   26.3  0.4837  143.3
 3.500  0.8462   89.4   0.525    3.8  0.2984   25.0  0.4913  142.0
 3.600  0.8462   87.7   0.516    2.8  0.3026   23.6  0.4983  140.6
 3.700  0.8469   86.0   0.508    1.7  0.3069   22.2  0.5055  139.2
 3.800  0.8484   84.3   0.500    0.7  0.3114   20.8  0.5130  137.9
 3.900  0.8506   82.7   0.492   -0.4  0.3161   19.5  0.5208  136.6
 4.000  0.8535   81.0   0.484   -1.6  0.3210   18.2  0.5289  135.3
 4.100  0.8526   79.6   0.478   -2.5  0.3243   16.9  0.5338  134.0
 4.200  0.8522   78.2   0.472   -3.4  0.3278   15.6  0.5389  132.7
 4.300  0.8523   76.8   0.466   -4.4  0.3314   14.3  0.5444  131.4
 4.400  0.8529   75.4   0.461   -5.3  0.3352   13.1  0.5500  130.1
 4.500  0.8540   74.0   0.455   -6.3  0.3392   11.9  0.5560  128.9
 4.600  0.8542   72.8   0.452   -7.1  0.3421   10.7  0.5601  127.7
 4.700  0.8547   71.6   0.448   -7.9  0.3451    9.6  0.5645  126.6
 4.800  0.8557   70.3   0.445   -8.7  0.3482    8.5  0.5691  125.5
 4.900  0.8570   69.1   0.442   -9.5  0.3515    7.4  0.5739  124.4
 5.000  0.8587   67.9   0.439  -10.3  0.3549    6.3  0.5789  123.3
 5.100  0.8591   66.8   0.436  -10.9  0.3579    5.2  0.5830  122.1
 5.200  0.8598   65.7   0.434  -11.5  0.3610    4.1  0.5874  121.0
 5.300  0.8608   64.7   0.431  -12.1  0.3642    3.1  0.5920  119.9
 5.400  0.8621   63.6   0.428  -12.8  0.3675    2.0  0.5968  118.8
 5.500  0.8637   62.5   0.426  -13.4  0.3710    1.0  0.6018  117.7
 5.600  0.8620   61.5   0.425  -14.1  0.3735   -0.2  0.6052  116.6
 5.700  0.8606   60.5   0.425  -14.8  0.3761   -1.3  0.6088  115.5
 5.800  0.8595   59.6   0.424  -15.6  0.3790   -2.5  0.6127  114.4
 5.900  0.8586   58.6   0.423  -16.3  0.3819   -3.6  0.6167  113.4
 6.000  0.8579   57.6   0.423  -17.0  0.3850   -4.7  0.6210  112.3
!
!  f       NFmin   Gammaopt  rn/50
! GHz       dB    MAG  ANG    -
!
! noise parameter not available yet for this operation point!
!
! (c) 2016  Infineon Technologies AG, Munich
