! Infineon Technologies  Discrete & RF Semiconductors
! BFP181
! VCE = 0.75V,  IC =  3.0 mA
! Common Emitter S-Parameters:                            Jan 2016
# GHz  S  MA  R  50
!  f         S11            S21            S12            S22
! GHz     MAG   ANG      MAG   ANG      MAG   ANG      MAG   ANG
 0.010  0.8949   -1.6   9.071  179.0  0.0017   85.1  0.9908   -0.7
 0.015  0.8974   -2.6   9.080  178.5  0.0028   85.9  0.9921   -1.2
 0.020  0.9002   -3.5   9.090  178.1  0.0039   86.3  0.9935   -1.6
 0.025  0.8992   -4.2   9.078  177.4  0.0048   86.4  0.9922   -2.0
 0.030  0.8985   -5.0   9.068  176.7  0.0056   86.4  0.9910   -2.4
 0.035  0.8978   -5.7   9.059  176.0  0.0065   86.4  0.9898   -2.7
 0.040  0.8973   -6.5   9.051  175.2  0.0074   86.5  0.9887   -3.1
 0.045  0.8970   -7.2   9.045  174.5  0.0082   86.5  0.9876   -3.5
 0.050  0.8968   -8.0   9.040  173.8  0.0091   86.5  0.9865   -3.9
 0.055  0.8945   -8.8   9.020  173.2  0.0100   85.2  0.9856   -4.3
 0.060  0.8924   -9.6   9.001  172.6  0.0109   84.1  0.9847   -4.6
 0.065  0.8905  -10.5   8.983  172.0  0.0118   83.1  0.9838   -5.0
 0.070  0.8888  -11.3   8.966  171.4  0.0127   82.3  0.9830   -5.4
 0.075  0.8872  -12.1   8.950  170.8  0.0136   81.6  0.9822   -5.7
 0.080  0.8859  -12.9   8.935  170.2  0.0145   81.0  0.9815   -6.1
 0.085  0.8847  -13.8   8.921  169.6  0.0154   80.5  0.9808   -6.5
 0.090  0.8837  -14.6   8.908  168.9  0.0163   80.0  0.9802   -6.9
 0.095  0.8829  -15.5   8.896  168.3  0.0172   79.6  0.9796   -7.2
 0.100  0.8823  -16.3   8.885  167.7  0.0181   79.2  0.9790   -7.6
 0.105  0.8802  -17.0   8.867  167.1  0.0190   78.7  0.9772   -7.9
 0.110  0.8782  -17.8   8.850  166.5  0.0199   78.3  0.9754   -8.3
 0.115  0.8763  -18.6   8.834  165.9  0.0207   77.9  0.9736   -8.6
 0.120  0.8747  -19.3   8.819  165.3  0.0216   77.5  0.9719   -9.0
 0.125  0.8731  -20.1   8.805  164.7  0.0225   77.2  0.9702   -9.3
 0.130  0.8718  -20.8   8.792  164.1  0.0234   76.9  0.9685   -9.7
 0.135  0.8705  -21.6   8.780  163.4  0.0243   76.6  0.9669  -10.0
 0.140  0.8695  -22.4   8.769  162.8  0.0251   76.3  0.9653  -10.4
 0.145  0.8686  -23.1   8.759  162.2  0.0260   76.0  0.9638  -10.7
 0.150  0.8678  -23.9   8.750  161.6  0.0269   75.8  0.9623  -11.1
 0.155  0.8646  -24.7   8.729  161.0  0.0277   75.3  0.9604  -11.4
 0.160  0.8617  -25.5   8.709  160.4  0.0286   74.9  0.9586  -11.8
 0.165  0.8588  -26.3   8.690  159.9  0.0294   74.4  0.9567  -12.1
 0.170  0.8562  -27.2   8.672  159.3  0.0303   74.0  0.9550  -12.5
 0.175  0.8538  -28.0   8.655  158.7  0.0311   73.6  0.9532  -12.8
 0.180  0.8515  -28.8   8.638  158.1  0.0320   73.3  0.9515  -13.2
 0.185  0.8494  -29.7   8.623  157.5  0.0328   72.9  0.9498  -13.5
 0.190  0.8475  -30.5   8.608  156.9  0.0337   72.6  0.9482  -13.9
 0.195  0.8457  -31.4   8.595  156.3  0.0345   72.3  0.9466  -14.2
 0.200  0.8442  -32.2   8.582  155.7  0.0354   72.0  0.9450  -14.6
 0.220  0.8344  -35.2   8.464  153.4  0.0382   70.0  0.9345  -15.9
 0.240  0.8271  -38.3   8.359  151.1  0.0411   68.2  0.9246  -17.2
 0.260  0.8178  -41.3   8.260  149.0  0.0438   66.6  0.9147  -18.5
 0.280  0.8062  -44.2   8.163  147.1  0.0465   65.1  0.9046  -19.6
 0.300  0.7967  -47.1   8.076  145.1  0.0492   63.7  0.8950  -20.8
 0.320  0.7819  -49.6   7.931  143.2  0.0515   62.2  0.8840  -21.8
 0.340  0.7688  -52.3   7.795  141.2  0.0538   60.8  0.8733  -22.8
 0.360  0.7572  -55.0   7.668  139.1  0.0561   59.5  0.8628  -23.8
 0.380  0.7475  -57.7   7.552  137.0  0.0584   58.3  0.8527  -24.8
 0.400  0.7395  -60.6   7.447  134.8  0.0608   57.2  0.8428  -25.9
 0.420  0.7251  -62.9   7.304  133.2  0.0626   55.8  0.8320  -26.7
 0.440  0.7120  -65.3   7.168  131.5  0.0645   54.5  0.8213  -27.5
 0.450  0.7059  -66.6   7.102  130.6  0.0654   53.9  0.8161  -27.9
 0.460  0.7002  -67.9   7.038  129.8  0.0664   53.3  0.8109  -28.3
 0.480  0.6898  -70.4   6.914  128.0  0.0683   52.2  0.8005  -29.1
 0.500  0.6808  -73.1   6.798  126.1  0.0702   51.1  0.7904  -30.0
 0.520  0.6690  -75.3   6.683  124.7  0.0715   50.1  0.7802  -30.6
 0.540  0.6582  -77.6   6.573  123.2  0.0729   49.2  0.7701  -31.3
 0.560  0.6485  -80.0   6.467  121.7  0.0743   48.3  0.7602  -31.9
 0.580  0.6400  -82.4   6.366  120.2  0.0757   47.4  0.7503  -32.6
 0.600  0.6326  -84.9   6.269  118.6  0.0771   46.6  0.7405  -33.3
 0.620  0.6221  -86.9   6.147  117.4  0.0781   45.8  0.7319  -33.8
 0.640  0.6123  -88.9   6.028  116.1  0.0791   45.1  0.7234  -34.3
 0.660  0.6032  -91.0   5.911  114.8  0.0801   44.3  0.7149  -34.8
 0.680  0.5950  -93.1   5.798  113.4  0.0811   43.6  0.7065  -35.4
 0.700  0.5877  -95.3   5.689  112.0  0.0821   42.9  0.6981  -35.9
 0.720  0.5791  -97.1   5.598  110.9  0.0831   42.3  0.6909  -36.3
 0.740  0.5710  -99.0   5.510  109.8  0.0841   41.6  0.6838  -36.7
 0.760  0.5637 -101.0   5.424  108.6  0.0851   41.0  0.6767  -37.1
 0.780  0.5569 -103.0   5.340  107.4  0.0861   40.4  0.6696  -37.5
 0.800  0.5509 -105.0   5.259  106.1  0.0871   39.8  0.6626  -37.9
 0.820  0.5438 -106.9   5.174  105.1  0.0879   39.3  0.6566  -38.2
 0.840  0.5372 -108.8   5.091  104.0  0.0886   38.7  0.6507  -38.6
 0.860  0.5313 -110.8   5.010  103.0  0.0894   38.2  0.6448  -38.9
 0.880  0.5261 -112.8   4.931  101.9  0.0902   37.7  0.6389  -39.2
 0.900  0.5215 -114.9   4.853  100.7  0.0910   37.2  0.6330  -39.6
 0.920  0.5154 -116.6   4.774   99.8  0.0916   36.8  0.6275  -39.9
 0.940  0.5098 -118.4   4.697   98.8  0.0922   36.4  0.6221  -40.2
 0.960  0.5046 -120.1   4.621   97.8  0.0928   36.0  0.6166  -40.5
 0.980  0.4999 -122.0   4.547   96.8  0.0934   35.7  0.6112  -40.9
 1.000  0.4958 -123.8   4.474   95.7  0.0940   35.3  0.6058  -41.2
 1.020  0.4902 -125.6   4.413   94.8  0.0946   35.0  0.6013  -41.5
 1.040  0.4852 -127.4   4.354   93.8  0.0951   34.6  0.5968  -41.7
 1.060  0.4806 -129.3   4.296   92.8  0.0957   34.3  0.5923  -42.0
 1.080  0.4765 -131.2   4.239   91.8  0.0963   33.9  0.5878  -42.2
 1.100  0.4730 -133.1   4.183   90.8  0.0969   33.6  0.5833  -42.5
 1.120  0.4691 -134.6   4.123   90.1  0.0974   33.2  0.5794  -42.8
 1.140  0.4656 -136.2   4.063   89.3  0.0979   32.8  0.5755  -43.0
 1.160  0.4624 -137.7   4.004   88.5  0.0984   32.4  0.5717  -43.3
 1.180  0.4596 -139.3   3.946   87.7  0.0989   32.1  0.5678  -43.6
 1.200  0.4571 -140.9   3.889   86.9  0.0994   31.7  0.5640  -43.9
 1.220  0.4544 -142.4   3.837   86.1  0.0998   31.5  0.5605  -44.1
 1.240  0.4520 -143.8   3.785   85.3  0.1001   31.3  0.5569  -44.3
 1.260  0.4500 -145.3   3.734   84.5  0.1005   31.0  0.5534  -44.6
 1.280  0.4482 -146.8   3.684   83.7  0.1008   30.8  0.5499  -44.8
 1.300  0.4467 -148.3   3.635   82.8  0.1012   30.6  0.5464  -45.0
 1.320  0.4425 -149.8   3.592   82.1  0.1017   30.4  0.5435  -45.3
 1.340  0.4386 -151.3   3.550   81.4  0.1022   30.2  0.5405  -45.5
 1.360  0.4351 -152.8   3.508   80.6  0.1028   30.1  0.5376  -45.8
 1.380  0.4318 -154.4   3.467   79.9  0.1033   29.9  0.5347  -46.0
 1.400  0.4289 -156.0   3.426   79.1  0.1038   29.7  0.5318  -46.3
 1.420  0.4294 -157.5   3.386   78.4  0.1041   29.5  0.5292  -46.5
 1.440  0.4301 -158.9   3.347   77.6  0.1044   29.3  0.5265  -46.7
 1.460  0.4311 -160.3   3.309   76.9  0.1047   29.2  0.5239  -46.8
 1.480  0.4324 -161.8   3.271   76.1  0.1050   29.0  0.5213  -47.0
 1.500  0.4339 -163.2   3.234   75.3  0.1053   28.8  0.5187  -47.2
 1.520  0.4316 -164.4   3.197   74.7  0.1057   28.7  0.5168  -47.4
 1.540  0.4294 -165.7   3.159   74.0  0.1061   28.5  0.5148  -47.6
 1.560  0.4275 -166.9   3.123   73.3  0.1065   28.4  0.5129  -47.8
 1.580  0.4258 -168.2   3.087   72.6  0.1069   28.2  0.5110  -48.0
 1.600  0.4243 -169.5   3.051   71.9  0.1073   28.1  0.5091  -48.2
 1.620  0.4237 -170.8   3.018   71.2  0.1077   28.0  0.5071  -48.5
 1.640  0.4232 -172.2   2.985   70.6  0.1081   27.9  0.5052  -48.8
 1.660  0.4231 -173.5   2.952   69.9  0.1085   27.7  0.5032  -49.0
 1.680  0.4231 -174.9   2.920   69.2  0.1089   27.6  0.5013  -49.3
 1.700  0.4234 -176.2   2.888   68.5  0.1093   27.5  0.4994  -49.6
 1.720  0.4238 -177.5   2.859   67.9  0.1097   27.4  0.4976  -49.8
 1.740  0.4245 -178.8   2.830   67.2  0.1101   27.3  0.4958  -50.0
 1.760  0.4253  179.9   2.801   66.6  0.1106   27.2  0.4940  -50.3
 1.780  0.4264  178.7   2.773   65.9  0.1110   27.1  0.4922  -50.5
 1.800  0.4277  177.4   2.745   65.2  0.1114   27.0  0.4904  -50.7
 1.820  0.4267  176.3   2.719   64.6  0.1117   26.8  0.4885  -50.9
 1.840  0.4258  175.1   2.693   64.0  0.1121   26.6  0.4867  -51.2
 1.860  0.4251  174.0   2.667   63.4  0.1124   26.5  0.4849  -51.4
 1.880  0.4246  172.8   2.642   62.8  0.1128   26.3  0.4830  -51.7
 1.900  0.4242  171.7   2.617   62.2  0.1131   26.1  0.4812  -51.9
 1.920  0.4248  170.5   2.590   61.6  0.1135   26.0  0.4797  -52.1
 1.940  0.4255  169.3   2.563   61.0  0.1139   26.0  0.4783  -52.3
 1.960  0.4264  168.1   2.536   60.4  0.1144   25.9  0.4769  -52.6
 1.980  0.4275  167.0   2.509   59.7  0.1148   25.9  0.4754  -52.8
 2.000  0.4288  165.8   2.483   59.1  0.1152   25.8  0.4740  -53.0
 2.020  0.4292  164.8   2.461   58.6  0.1155   25.7  0.4726  -53.3
 2.040  0.4298  163.8   2.439   58.0  0.1159   25.6  0.4712  -53.6
 2.060  0.4305  162.9   2.418   57.4  0.1162   25.5  0.4698  -53.9
 2.080  0.4313  161.9   2.397   56.9  0.1165   25.4  0.4685  -54.1
 2.100  0.4323  160.9   2.376   56.3  0.1168   25.2  0.4671  -54.4
 2.120  0.4333  160.0   2.355   55.7  0.1172   25.1  0.4658  -54.7
 2.140  0.4345  159.0   2.335   55.1  0.1175   25.0  0.4644  -55.0
 2.160  0.4358  158.1   2.315   54.5  0.1178   24.9  0.4631  -55.3
 2.180  0.4373  157.1   2.295   53.8  0.1182   24.8  0.4618  -55.6
 2.200  0.4388  156.2   2.275   53.2  0.1185   24.7  0.4605  -55.9
 2.220  0.4395  155.2   2.256   52.7  0.1189   24.6  0.4592  -56.2
 2.240  0.4404  154.3   2.238   52.2  0.1192   24.5  0.4580  -56.5
 2.260  0.4414  153.3   2.220   51.7  0.1196   24.4  0.4568  -56.8
 2.280  0.4425  152.3   2.202   51.1  0.1200   24.3  0.4556  -57.0
 2.300  0.4437  151.4   2.184   50.6  0.1203   24.2  0.4544  -57.3
 2.320  0.4451  150.4   2.166   50.1  0.1207   24.2  0.4532  -57.6
 2.340  0.4466  149.5   2.149   49.5  0.1211   24.1  0.4520  -57.9
 2.360  0.4482  148.6   2.132   49.0  0.1215   24.0  0.4508  -58.2
 2.380  0.4499  147.6   2.115   48.4  0.1218   23.9  0.4496  -58.5
 2.400  0.4517  146.7   2.098   47.8  0.1222   23.8  0.4485  -58.8
 2.420  0.4534  145.9   2.081   47.3  0.1225   23.7  0.4472  -59.1
 2.440  0.4553  145.1   2.065   46.8  0.1228   23.7  0.4459  -59.4
 2.460  0.4572  144.3   2.048   46.3  0.1231   23.6  0.4446  -59.7
 2.480  0.4592  143.5   2.032   45.8  0.1234   23.5  0.4433  -59.9
 2.500  0.4614  142.7   2.015   45.3  0.1237   23.4  0.4421  -60.2
 2.520  0.4636  141.9   1.999   44.8  0.1240   23.4  0.4408  -60.5
 2.540  0.4658  141.1   1.984   44.2  0.1243   23.3  0.4396  -60.8
 2.560  0.4682  140.3   1.968   43.7  0.1246   23.2  0.4383  -61.1
 2.580  0.4707  139.6   1.952   43.2  0.1249   23.2  0.4371  -61.4
 2.600  0.4732  138.8   1.937   42.6  0.1252   23.1  0.4359  -61.7
 2.620  0.4742  138.0   1.923   42.1  0.1256   23.0  0.4351  -62.0
 2.640  0.4753  137.2   1.909   41.5  0.1260   22.9  0.4342  -62.4
 2.660  0.4765  136.4   1.895   41.0  0.1264   22.9  0.4334  -62.7
 2.680  0.4778  135.6   1.881   40.5  0.1268   22.8  0.4326  -63.0
 2.700  0.4792  134.8   1.867   39.9  0.1272   22.7  0.4318  -63.3
 2.720  0.4807  134.1   1.854   39.3  0.1277   22.6  0.4310  -63.7
 2.740  0.4822  133.3   1.841   38.8  0.1281   22.5  0.4303  -64.0
 2.760  0.4839  132.5   1.828   38.2  0.1285   22.5  0.4295  -64.3
 2.780  0.4856  131.8   1.815   37.6  0.1289   22.4  0.4288  -64.7
 2.800  0.4874  131.0   1.802   37.0  0.1293   22.3  0.4281  -65.0
 2.820  0.4890  130.3   1.790   36.5  0.1296   22.2  0.4269  -65.3
 2.840  0.4907  129.6   1.778   36.1  0.1300   22.1  0.4257  -65.7
 2.860  0.4925  128.9   1.767   35.6  0.1303   22.0  0.4245  -66.0
 2.880  0.4944  128.2   1.755   35.2  0.1307   21.9  0.4234  -66.3
 2.900  0.4963  127.5   1.744   34.7  0.1310   21.7  0.4222  -66.7
 2.920  0.4983  126.9   1.733   34.2  0.1314   21.6  0.4211  -67.0
 2.940  0.5003  126.2   1.722   33.7  0.1317   21.5  0.4200  -67.4
 2.960  0.5024  125.5   1.711   33.2  0.1321   21.4  0.4189  -67.7
 2.980  0.5046  124.9   1.700   32.7  0.1324   21.3  0.4178  -68.1
 3.000  0.5069  124.2   1.689   32.2  0.1328   21.2  0.4167  -68.4
 3.100  0.5140  121.2   1.633   30.2  0.1348   20.8  0.4131  -70.3
 3.200  0.5225  118.3   1.580   28.0  0.1369   20.4  0.4100  -72.2
 3.300  0.5323  115.5   1.529   25.7  0.1390   20.0  0.4074  -74.1
 3.400  0.5433  112.8   1.480   23.2  0.1410   19.6  0.4052  -76.0
 3.500  0.5555  110.2   1.435   20.6  0.1431   19.2  0.4035  -78.0
 3.600  0.5629  107.9   1.394   18.7  0.1449   18.7  0.3997  -80.1
 3.700  0.5713  105.6   1.354   16.7  0.1468   18.2  0.3964  -82.3
 3.800  0.5805  103.5   1.317   14.6  0.1486   17.7  0.3937  -84.5
 3.900  0.5905  101.3   1.281   12.4  0.1505   17.3  0.3916  -86.7
 4.000  0.6013   99.3   1.247   10.0  0.1524   16.8  0.3901  -88.9
 4.100  0.6069   97.4   1.213    8.2  0.1540   16.2  0.3877  -91.2
 4.200  0.6131   95.5   1.179    6.4  0.1557   15.6  0.3859  -93.6
 4.300  0.6201   93.6   1.147    4.4  0.1574   15.1  0.3847  -96.0
 4.400  0.6276   91.8   1.117    2.3  0.1591   14.5  0.3843  -98.4
 4.500  0.6358   90.0   1.088    0.1  0.1608   14.0  0.3845 -100.8
 4.600  0.6418   88.6   1.062   -1.5  0.1624   13.6  0.3832 -103.1
 4.700  0.6483   87.2   1.036   -3.1  0.1640   13.2  0.3826 -105.5
 4.800  0.6551   85.8   1.011   -4.8  0.1656   12.8  0.3826 -107.8
 4.900  0.6623   84.4   0.988   -6.6  0.1673   12.4  0.3833 -110.2
 5.000  0.6698   83.1   0.965   -8.5  0.1689   12.0  0.3846 -112.5
 5.100  0.6736   81.8   0.943  -10.0  0.1713   11.6  0.3858 -114.9
 5.200  0.6777   80.6   0.922  -11.6  0.1738   11.1  0.3877 -117.3
 5.300  0.6821   79.3   0.901  -13.3  0.1763   10.7  0.3903 -119.6
 5.400  0.6868   78.1   0.882  -15.0  0.1787   10.3  0.3935 -121.9
 5.500  0.6919   76.9   0.863  -16.8  0.1812    9.9  0.3973 -124.2
 5.600  0.6971   75.7   0.844  -18.2  0.1833    9.3  0.3997 -126.6
 5.700  0.7027   74.6   0.826  -19.8  0.1853    8.6  0.4027 -129.0
 5.800  0.7085   73.4   0.809  -21.3  0.1874    8.0  0.4065 -131.3
 5.900  0.7145   72.3   0.792  -23.0  0.1896    7.4  0.4109 -133.6
 6.000  0.7209   71.2   0.776  -24.7  0.1917    6.8  0.4159 -135.8
!
!  f       NFmin   Gammaopt  rn/50
! GHz       dB    MAG  ANG    -
!
! noise parameter not available yet for this operation point!
!
! (c) 2016  Infineon Technologies AG, Munich
