! Infineon Technologies  Discrete & RF Semiconductors
! BFP183
! VCE = 1.0 V,  IC =  2.5 mA
! Common Emitter S-Parameters:                            Jan 2016
# GHz  S  MA  R  50
!  f         S11            S21            S12            S22
! GHz     MAG   ANG      MAG   ANG      MAG   ANG      MAG   ANG
 0.010  0.8958   -2.5   8.258  178.8  0.0026   86.7  0.9964   -1.0
 0.015  0.8945   -3.7   8.307  178.1  0.0040   88.1  0.9918   -1.5
 0.020  0.8936   -4.9   8.357  177.5  0.0055   88.8  0.9872   -2.0
 0.025  0.8908   -6.1   8.352  176.6  0.0070   87.7  0.9873   -2.5
 0.030  0.8884   -7.3   8.348  175.8  0.0085   87.0  0.9874   -3.0
 0.035  0.8864   -8.5   8.346  174.9  0.0099   86.5  0.9876   -3.6
 0.040  0.8849   -9.7   8.347  174.0  0.0114   86.1  0.9879   -4.1
 0.045  0.8837  -11.0   8.349  173.2  0.0129   85.8  0.9883   -4.6
 0.050  0.8829  -12.2   8.353  172.3  0.0144   85.6  0.9888   -5.1
 0.055  0.8808  -13.3   8.317  171.6  0.0157   84.0  0.9869   -5.6
 0.060  0.8789  -14.4   8.283  170.8  0.0170   82.7  0.9850   -6.1
 0.065  0.8774  -15.5   8.250  170.1  0.0183   81.5  0.9832   -6.6
 0.070  0.8763  -16.6   8.218  169.4  0.0196   80.6  0.9815   -7.1
 0.075  0.8754  -17.7   8.187  168.6  0.0209   79.7  0.9799   -7.6
 0.080  0.8749  -18.8   8.158  167.9  0.0223   78.9  0.9784   -8.1
 0.085  0.8747  -19.9   8.131  167.1  0.0236   78.2  0.9769   -8.6
 0.090  0.8748  -21.0   8.105  166.3  0.0249   77.6  0.9755   -9.1
 0.095  0.8752  -22.1   8.080  165.6  0.0263   77.1  0.9742   -9.6
 0.100  0.8760  -23.2   8.057  164.8  0.0276   76.6  0.9729  -10.1
 0.105  0.8728  -24.4   8.038  164.0  0.0288   75.7  0.9704  -10.6
 0.110  0.8701  -25.5   8.021  163.3  0.0301   74.9  0.9680  -11.1
 0.115  0.8676  -26.7   8.005  162.5  0.0313   74.1  0.9657  -11.5
 0.120  0.8656  -27.9   7.991  161.7  0.0325   73.5  0.9634  -12.0
 0.125  0.8639  -29.0   7.978  161.0  0.0338   72.8  0.9612  -12.5
 0.130  0.8625  -30.2   7.966  160.2  0.0351   72.2  0.9591  -13.0
 0.135  0.8616  -31.4   7.956  159.4  0.0363   71.7  0.9570  -13.5
 0.140  0.8610  -32.6   7.948  158.7  0.0376   71.1  0.9551  -14.0
 0.145  0.8607  -33.8   7.941  157.9  0.0388   70.7  0.9531  -14.5
 0.150  0.8609  -35.0   7.935  157.1  0.0401   70.2  0.9513  -15.0
 0.155  0.8576  -36.1   7.903  156.4  0.0412   69.6  0.9481  -15.4
 0.160  0.8545  -37.1   7.873  155.7  0.0423   68.9  0.9449  -15.8
 0.165  0.8517  -38.2   7.843  155.1  0.0434   68.4  0.9418  -16.3
 0.170  0.8493  -39.3   7.815  154.4  0.0445   67.8  0.9387  -16.7
 0.175  0.8472  -40.4   7.787  153.7  0.0457   67.3  0.9356  -17.1
 0.180  0.8453  -41.5   7.761  153.0  0.0468   66.8  0.9327  -17.5
 0.185  0.8438  -42.6   7.736  152.2  0.0479   66.3  0.9297  -18.0
 0.190  0.8426  -43.7   7.713  151.5  0.0490   65.8  0.9269  -18.4
 0.195  0.8417  -44.8   7.690  150.8  0.0502   65.4  0.9241  -18.9
 0.200  0.8411  -45.9   7.669  150.1  0.0513   65.0  0.9213  -19.3
 0.220  0.8314  -49.9   7.499  147.6  0.0552   62.5  0.9078  -20.8
 0.240  0.8259  -54.0   7.344  145.0  0.0592   60.3  0.8950  -22.4
 0.260  0.8181  -58.0   7.211  142.5  0.0630   58.3  0.8811  -23.8
 0.280  0.8075  -62.0   7.096  140.2  0.0667   56.3  0.8657  -25.1
 0.300  0.8009  -66.0   6.993  137.8  0.0704   54.6  0.8508  -26.5
 0.320  0.7862  -69.3   6.832  135.7  0.0728   52.7  0.8361  -27.6
 0.340  0.7743  -72.8   6.680  133.5  0.0753   51.0  0.8218  -28.7
 0.360  0.7652  -76.3   6.538  131.3  0.0778   49.4  0.8078  -29.9
 0.380  0.7592  -79.9   6.407  128.9  0.0804   47.8  0.7941  -31.1
 0.400  0.7562  -83.6   6.287  126.4  0.0831   46.4  0.7808  -32.3
 0.420  0.7448  -86.4   6.128  124.8  0.0849   44.9  0.7680  -33.1
 0.440  0.7353  -89.4   5.974  123.1  0.0869   43.4  0.7553  -34.0
 0.450  0.7313  -90.9   5.899  122.2  0.0878   42.7  0.7490  -34.4
 0.460  0.7278  -92.4   5.826  121.3  0.0888   42.0  0.7428  -34.9
 0.480  0.7223  -95.4   5.684  119.4  0.0908   40.6  0.7305  -35.8
 0.500  0.7189  -98.5   5.548  117.4  0.0929   39.3  0.7184  -36.7
 0.520  0.7104 -101.1   5.433  116.0  0.0942   38.2  0.7079  -37.3
 0.540  0.7034 -103.8   5.321  114.5  0.0956   37.1  0.6976  -37.9
 0.560  0.6980 -106.5   5.212  113.0  0.0969   36.0  0.6873  -38.5
 0.580  0.6943 -109.3   5.108  111.4  0.0984   35.0  0.6770  -39.1
 0.600  0.6921 -112.1   5.008  109.7  0.0998   34.0  0.6669  -39.8
 0.620  0.6855 -114.3   4.899  108.5  0.1005   33.1  0.6580  -40.3
 0.640  0.6800 -116.5   4.792  107.2  0.1013   32.3  0.6492  -40.8
 0.660  0.6755 -118.8   4.687  105.8  0.1020   31.4  0.6404  -41.3
 0.680  0.6721 -121.1   4.586  104.4  0.1028   30.6  0.6316  -41.8
 0.700  0.6698 -123.4   4.487  102.9  0.1036   29.8  0.6229  -42.3
 0.720  0.6647 -125.4   4.406  101.8  0.1041   29.1  0.6157  -42.7
 0.740  0.6604 -127.4   4.327  100.6  0.1046   28.3  0.6085  -43.1
 0.760  0.6569 -129.5   4.250   99.4  0.1052   27.6  0.6013  -43.5
 0.780  0.6543 -131.5   4.174   98.1  0.1057   26.9  0.5942  -44.0
 0.800  0.6525 -133.6   4.101   96.8  0.1063   26.2  0.5871  -44.4
 0.820  0.6489 -135.5   4.025   95.8  0.1067   25.7  0.5810  -44.7
 0.840  0.6459 -137.3   3.951   94.8  0.1072   25.1  0.5750  -45.1
 0.860  0.6437 -139.2   3.877   93.7  0.1077   24.6  0.5690  -45.5
 0.880  0.6421 -141.1   3.805   92.6  0.1081   24.0  0.5630  -45.8
 0.900  0.6413 -143.0   3.735   91.5  0.1086   23.5  0.5570  -46.2
 0.920  0.6398 -144.6   3.667   90.6  0.1088   23.0  0.5524  -46.5
 0.940  0.6387 -146.2   3.599   89.6  0.1090   22.4  0.5478  -46.8
 0.960  0.6382 -147.8   3.533   88.7  0.1092   21.9  0.5433  -47.1
 0.980  0.6381 -149.4   3.467   87.7  0.1095   21.3  0.5387  -47.5
 1.000  0.6386 -151.0   3.403   86.6  0.1097   20.8  0.5342  -47.8
 1.020  0.6358 -152.5   3.351   85.7  0.1101   20.4  0.5305  -48.1
 1.040  0.6334 -154.1   3.299   84.7  0.1104   20.0  0.5268  -48.3
 1.060  0.6315 -155.6   3.248   83.8  0.1108   19.5  0.5231  -48.6
 1.080  0.6301 -157.1   3.199   82.7  0.1112   19.1  0.5195  -48.8
 1.100  0.6291 -158.7   3.150   81.7  0.1116   18.7  0.5158  -49.1
 1.120  0.6276 -160.1   3.102   81.0  0.1117   18.3  0.5131  -49.4
 1.140  0.6264 -161.4   3.054   80.3  0.1117   17.9  0.5104  -49.7
 1.160  0.6255 -162.8   3.006   79.5  0.1118   17.5  0.5077  -50.0
 1.180  0.6251 -164.2   2.959   78.7  0.1119   17.1  0.5050  -50.4
 1.200  0.6250 -165.6   2.913   77.9  0.1120   16.7  0.5024  -50.7
 1.220  0.6248 -166.9   2.871   77.1  0.1120   16.4  0.4995  -51.0
 1.240  0.6250 -168.2   2.830   76.3  0.1121   16.1  0.4965  -51.3
 1.260  0.6254 -169.5   2.789   75.5  0.1121   15.8  0.4936  -51.5
 1.280  0.6262 -170.8   2.749   74.6  0.1122   15.5  0.4907  -51.8
 1.300  0.6273 -172.1   2.710   73.7  0.1122   15.2  0.4878  -52.1
 1.320  0.6263 -173.3   2.675   73.0  0.1122   15.0  0.4857  -52.4
 1.340  0.6255 -174.5   2.641   72.2  0.1122   14.7  0.4835  -52.7
 1.360  0.6251 -175.6   2.608   71.5  0.1121   14.5  0.4814  -53.0
 1.380  0.6248 -176.8   2.575   70.7  0.1121   14.2  0.4793  -53.3
 1.400  0.6249 -178.0   2.542   69.9  0.1121   14.0  0.4772  -53.6
 1.420  0.6251 -179.1   2.511   69.1  0.1119   13.9  0.4748  -53.9
 1.440  0.6254  179.8   2.481   68.4  0.1117   13.7  0.4724  -54.1
 1.460  0.6260  178.8   2.451   67.6  0.1115   13.6  0.4700  -54.4
 1.480  0.6269  177.7   2.422   66.7  0.1113   13.4  0.4676  -54.6
 1.500  0.6279  176.6   2.393   65.9  0.1111   13.3  0.4652  -54.9
 1.520  0.6280  175.6   2.365   65.3  0.1111   13.1  0.4635  -55.2
 1.540  0.6284  174.5   2.338   64.6  0.1111   13.0  0.4618  -55.5
 1.560  0.6289  173.5   2.311   63.9  0.1110   12.8  0.4602  -55.7
 1.580  0.6296  172.4   2.284   63.2  0.1110   12.7  0.4585  -56.0
 1.600  0.6306  171.4   2.258   62.5  0.1110   12.5  0.4569  -56.3
 1.620  0.6308  170.4   2.231   61.9  0.1108   12.4  0.4550  -56.7
 1.640  0.6312  169.4   2.205   61.2  0.1106   12.4  0.4530  -57.1
 1.660  0.6318  168.5   2.179   60.6  0.1104   12.3  0.4511  -57.4
 1.680  0.6326  167.5   2.153   59.9  0.1102   12.3  0.4493  -57.8
 1.700  0.6335  166.5   2.128   59.2  0.1100   12.2  0.4474  -58.2
 1.720  0.6344  165.5   2.104   58.5  0.1101   12.2  0.4461  -58.5
 1.740  0.6355  164.5   2.081   57.8  0.1101   12.1  0.4448  -58.7
 1.760  0.6368  163.5   2.057   57.1  0.1102   12.1  0.4435  -59.0
 1.780  0.6382  162.5   2.035   56.4  0.1102   12.0  0.4422  -59.2
 1.800  0.6399  161.5   2.012   55.7  0.1103   12.0  0.4409  -59.5
 1.820  0.6404  160.7   1.991   55.1  0.1103   11.9  0.4400  -59.9
 1.840  0.6411  159.9   1.971   54.5  0.1102   11.7  0.4392  -60.2
 1.860  0.6418  159.0   1.951   53.9  0.1102   11.6  0.4384  -60.6
 1.880  0.6428  158.2   1.931   53.3  0.1101   11.4  0.4376  -60.9
 1.900  0.6438  157.4   1.911   52.7  0.1101   11.3  0.4368  -61.3
 1.920  0.6436  156.5   1.890   52.1  0.1101   11.3  0.4358  -61.6
 1.940  0.6436  155.7   1.870   51.4  0.1100   11.3  0.4349  -61.9
 1.960  0.6438  154.8   1.850   50.8  0.1100   11.3  0.4339  -62.1
 1.980  0.6441  154.0   1.830   50.1  0.1099   11.3  0.4330  -62.4
 2.000  0.6445  153.1   1.810   49.4  0.1099   11.3  0.4321  -62.7
 2.020  0.6451  152.3   1.794   48.8  0.1098   11.3  0.4310  -63.1
 2.040  0.6458  151.5   1.777   48.3  0.1097   11.3  0.4299  -63.5
 2.060  0.6466  150.7   1.761   47.7  0.1096   11.3  0.4289  -63.9
 2.080  0.6476  149.9   1.746   47.1  0.1095   11.3  0.4279  -64.3
 2.100  0.6486  149.2   1.730   46.5  0.1094   11.3  0.4268  -64.7
 2.120  0.6498  148.4   1.715   45.9  0.1094   11.3  0.4258  -65.1
 2.140  0.6512  147.6   1.699   45.2  0.1093   11.3  0.4249  -65.5
 2.160  0.6526  146.8   1.684   44.6  0.1092   11.3  0.4239  -65.9
 2.180  0.6541  146.1   1.670   44.0  0.1091   11.3  0.4230  -66.3
 2.200  0.6558  145.3   1.655   43.3  0.1090   11.3  0.4221  -66.7
 2.220  0.6568  144.5   1.640   42.8  0.1090   11.3  0.4216  -67.1
 2.240  0.6580  143.8   1.626   42.3  0.1090   11.3  0.4212  -67.5
 2.260  0.6593  143.0   1.612   41.8  0.1090   11.3  0.4207  -67.9
 2.280  0.6606  142.3   1.598   41.3  0.1090   11.3  0.4203  -68.3
 2.300  0.6621  141.5   1.584   40.7  0.1090   11.3  0.4199  -68.7
 2.320  0.6637  140.8   1.570   40.2  0.1090   11.3  0.4195  -69.1
 2.340  0.6655  140.0   1.556   39.6  0.1090   11.3  0.4192  -69.5
 2.360  0.6673  139.3   1.543   39.1  0.1090   11.3  0.4188  -69.9
 2.380  0.6692  138.5   1.529   38.5  0.1090   11.3  0.4185  -70.3
 2.400  0.6713  137.8   1.516   37.9  0.1090   11.3  0.4182  -70.7
 2.420  0.6726  137.1   1.503   37.4  0.1089   11.4  0.4172  -71.1
 2.440  0.6740  136.4   1.491   36.9  0.1089   11.5  0.4161  -71.5
 2.460  0.6755  135.8   1.479   36.3  0.1088   11.7  0.4151  -71.9
 2.480  0.6771  135.1   1.466   35.8  0.1088   11.8  0.4141  -72.4
 2.500  0.6788  134.4   1.454   35.2  0.1087   11.9  0.4132  -72.8
 2.520  0.6806  133.7   1.442   34.7  0.1087   12.0  0.4122  -73.2
 2.540  0.6825  133.1   1.431   34.1  0.1086   12.1  0.4113  -73.6
 2.560  0.6845  132.4   1.419   33.5  0.1086   12.3  0.4104  -74.0
 2.580  0.6865  131.8   1.407   32.9  0.1085   12.4  0.4095  -74.5
 2.600  0.6887  131.1   1.396   32.3  0.1085   12.5  0.4087  -74.9
 2.620  0.6894  130.5   1.385   31.8  0.1086   12.6  0.4085  -75.3
 2.640  0.6901  129.9   1.374   31.2  0.1088   12.6  0.4083  -75.8
 2.660  0.6910  129.3   1.363   30.7  0.1089   12.7  0.4081  -76.2
 2.680  0.6919  128.7   1.352   30.1  0.1090   12.7  0.4080  -76.7
 2.700  0.6929  128.1   1.342   29.6  0.1091   12.8  0.4078  -77.1
 2.720  0.6940  127.5   1.331   29.0  0.1093   12.8  0.4078  -77.5
 2.740  0.6951  126.9   1.321   28.4  0.1094   12.9  0.4077  -78.0
 2.760  0.6963  126.3   1.311   27.8  0.1095   12.9  0.4076  -78.4
 2.780  0.6976  125.7   1.301   27.2  0.1097   13.0  0.4076  -78.9
 2.800  0.6990  125.1   1.291   26.6  0.1098   13.0  0.4076  -79.3
 2.820  0.6997  124.5   1.282   26.1  0.1099   13.1  0.4069  -79.8
 2.840  0.7004  123.9   1.273   25.7  0.1100   13.2  0.4062  -80.3
 2.860  0.7012  123.3   1.264   25.2  0.1100   13.3  0.4056  -80.8
 2.880  0.7022  122.7   1.256   24.7  0.1101   13.4  0.4050  -81.3
 2.900  0.7031  122.1   1.247   24.2  0.1102   13.6  0.4044  -81.8
 2.920  0.7042  121.5   1.238   23.7  0.1103   13.7  0.4039  -82.3
 2.940  0.7053  120.9   1.230   23.2  0.1104   13.8  0.4034  -82.8
 2.960  0.7065  120.3   1.221   22.7  0.1104   13.9  0.4029  -83.3
 2.980  0.7078  119.7   1.213   22.2  0.1105   14.0  0.4024  -83.8
 3.000  0.7092  119.1   1.205   21.7  0.1106   14.1  0.4020  -84.3
 3.100  0.7135  116.6   1.163   19.7  0.1120   14.6  0.4013  -86.8
 3.200  0.7193  114.0   1.122   17.5  0.1133   15.1  0.4014  -89.3
 3.300  0.7264  111.6   1.083   15.2  0.1147   15.6  0.4023  -91.8
 3.400  0.7348  109.2   1.046   12.7  0.1161   16.1  0.4039  -94.2
 3.500  0.7445  106.8   1.011   10.0  0.1175   16.6  0.4062  -96.7
 3.600  0.7483  104.7   0.979    8.2  0.1193   16.9  0.4064  -99.6
 3.700  0.7530  102.7   0.949    6.3  0.1211   17.2  0.4076 -102.5
 3.800  0.7586  100.7   0.919    4.3  0.1230   17.5  0.4099 -105.4
 3.900  0.7652   98.7   0.891    2.1  0.1248   17.8  0.4132 -108.3
 4.000  0.7726   96.8   0.864   -0.2  0.1266   18.1  0.4175 -111.1
 4.100  0.7756   95.1   0.837   -1.8  0.1287   18.2  0.4187 -114.1
 4.200  0.7792   93.3   0.811   -3.6  0.1309   18.3  0.4211 -117.1
 4.300  0.7836   91.6   0.785   -5.5  0.1330   18.4  0.4247 -120.1
 4.400  0.7886   90.0   0.761   -7.5  0.1352   18.5  0.4293 -123.0
 4.500  0.7943   88.3   0.737   -9.6  0.1373   18.6  0.4350 -125.8
 4.600  0.7960   86.9   0.717  -10.8  0.1401   18.8  0.4365 -128.6
 4.700  0.7982   85.5   0.697  -12.1  0.1429   19.0  0.4389 -131.4
 4.800  0.8009   84.1   0.678  -13.5  0.1458   19.2  0.4425 -134.2
 4.900  0.8040   82.8   0.659  -15.0  0.1486   19.4  0.4470 -136.9
 5.000  0.8076   81.4   0.640  -16.5  0.1514   19.6  0.4525 -139.5
 5.100  0.8110   80.3   0.625  -17.8  0.1556   19.1  0.4576 -142.2
 5.200  0.8147   79.1   0.609  -19.1  0.1598   18.6  0.4636 -144.8
 5.300  0.8188   78.0   0.595  -20.5  0.1641   18.1  0.4707 -147.4
 5.400  0.8231   76.9   0.580  -22.0  0.1683   17.7  0.4786 -149.9
 5.500  0.8278   75.8   0.566  -23.5  0.1726   17.3  0.4874 -152.3
 5.600  0.8303   74.7   0.553  -24.5  0.1758   16.6  0.4925 -154.8
 5.700  0.8332   73.5   0.539  -25.7  0.1791   15.9  0.4985 -157.3
 5.800  0.8364   72.4   0.526  -26.8  0.1824   15.2  0.5054 -159.7
 5.900  0.8399   71.3   0.514  -28.0  0.1857   14.6  0.5132 -162.0
 6.000  0.8437   70.2   0.501  -29.3  0.1890   14.0  0.5218 -164.3
!
!  f       NFmin   Gammaopt  rn/50
! GHz       dB    MAG  ANG    -
!
! noise parameter not available yet for this operation point!
!
! (c) 2016  Infineon Technologies AG, Munich
