! Infineon Technologies  Discrete & RF Semiconductors
! BFP193
! VCE = 4.0 V,  IC =  6.0 mA
! Common Emitter S-Parameters:                            Jan 2016
# GHz  S  MA  R  50
!  f         S11            S21            S12            S22
! GHz     MAG   ANG      MAG   ANG      MAG   ANG      MAG   ANG
 0.010  0.8101   -5.3  18.122  177.7  0.0033   89.2  0.9854   -2.4
 0.015  0.8079   -7.8  17.846  175.5  0.0050   86.7  0.9820   -3.6
 0.020  0.8074  -10.4  17.597  173.2  0.0067   85.4  0.9790   -4.8
 0.025  0.8022  -12.9  17.518  171.7  0.0084   82.6  0.9743   -6.0
 0.030  0.7985  -15.4  17.452  170.2  0.0101   80.8  0.9700   -7.1
 0.035  0.7964  -18.0  17.397  168.7  0.0119   79.5  0.9661   -8.3
 0.040  0.7959  -20.5  17.354  167.2  0.0136   78.5  0.9626   -9.5
 0.045  0.7970  -23.1  17.323  165.7  0.0154   77.8  0.9595  -10.7
 0.050  0.7996  -25.6  17.304  164.2  0.0171   77.2  0.9569  -11.9
 0.055  0.7901  -27.9  17.140  162.9  0.0186   75.3  0.9487  -12.9
 0.060  0.7819  -30.2  16.986  161.6  0.0201   73.8  0.9407  -13.9
 0.065  0.7750  -32.6  16.841  160.2  0.0216   72.4  0.9331  -14.9
 0.070  0.7695  -35.0  16.705  158.8  0.0231   71.2  0.9257  -15.9
 0.075  0.7653  -37.5  16.579  157.5  0.0246   70.2  0.9187  -17.0
 0.080  0.7626  -40.0  16.463  156.0  0.0261   69.3  0.9119  -18.0
 0.085  0.7613  -42.4  16.357  154.6  0.0277   68.5  0.9055  -19.1
 0.090  0.7615  -44.9  16.261  153.2  0.0292   67.7  0.8994  -20.2
 0.095  0.7631  -47.4  16.176  151.7  0.0308   67.1  0.8936  -21.3
 0.100  0.7661  -49.9  16.102  150.2  0.0323   66.5  0.8882  -22.4
 0.105  0.7582  -51.8  15.887  149.1  0.0333   65.3  0.8787  -23.1
 0.110  0.7511  -53.8  15.677  148.0  0.0343   64.1  0.8692  -23.9
 0.115  0.7450  -55.8  15.474  146.8  0.0354   63.0  0.8600  -24.6
 0.120  0.7397  -57.8  15.278  145.6  0.0364   61.9  0.8509  -25.4
 0.125  0.7354  -59.9  15.088  144.4  0.0375   61.0  0.8419  -26.2
 0.130  0.7321  -62.0  14.905  143.1  0.0385   60.0  0.8332  -27.0
 0.135  0.7297  -64.1  14.730  141.8  0.0396   59.2  0.8246  -27.8
 0.140  0.7284  -66.2  14.563  140.5  0.0407   58.3  0.8161  -28.7
 0.145  0.7280  -68.3  14.403  139.2  0.0418   57.5  0.8079  -29.5
 0.150  0.7286  -70.4  14.251  137.8  0.0429   56.8  0.7998  -30.4
 0.155  0.7226  -72.1  14.082  137.0  0.0437   56.1  0.7913  -30.9
 0.160  0.7172  -73.7  13.916  136.1  0.0445   55.4  0.7829  -31.5
 0.165  0.7125  -75.4  13.753  135.2  0.0453   54.7  0.7745  -32.1
 0.170  0.7084  -77.2  13.594  134.3  0.0461   54.1  0.7662  -32.6
 0.175  0.7049  -78.9  13.438  133.4  0.0469   53.5  0.7580  -33.2
 0.180  0.7021  -80.7  13.286  132.4  0.0477   52.9  0.7499  -33.8
 0.185  0.7000  -82.4  13.137  131.4  0.0485   52.3  0.7419  -34.5
 0.190  0.6985  -84.2  12.992  130.5  0.0493   51.8  0.7339  -35.1
 0.195  0.6977  -86.0  12.852  129.4  0.0502   51.2  0.7261  -35.7
 0.200  0.6976  -87.8  12.715  128.4  0.0510   50.7  0.7183  -36.4
 0.220  0.6817  -93.4  12.065  125.4  0.0530   48.5  0.6869  -38.0
 0.240  0.6725  -99.2  11.451  122.2  0.0550   46.5  0.6561  -39.8
 0.260  0.6655 -104.4  10.891  119.3  0.0570   44.9  0.6296  -41.3
 0.280  0.6586 -109.0  10.368  117.0  0.0587   43.6  0.6071  -42.4
 0.300  0.6561 -113.7   9.864  114.4  0.0605   42.4  0.5849  -43.7
 0.320  0.6461 -117.2   9.471  112.8  0.0615   41.5  0.5668  -44.3
 0.340  0.6385 -120.8   9.085  111.1  0.0626   40.6  0.5488  -44.9
 0.360  0.6335 -124.5   8.708  109.3  0.0636   39.8  0.5309  -45.5
 0.380  0.6312 -128.2   8.341  107.3  0.0647   39.0  0.5130  -46.2
 0.400  0.6315 -131.9   7.985  105.1  0.0658   38.2  0.4952  -47.0
 0.420  0.6262 -134.4   7.696  103.8  0.0665   37.7  0.4833  -47.4
 0.440  0.6222 -137.0   7.410  102.4  0.0672   37.3  0.4714  -47.7
 0.450  0.6206 -138.3   7.270  101.7  0.0675   37.0  0.4655  -47.9
 0.460  0.6194 -139.6   7.130  100.9  0.0679   36.8  0.4596  -48.1
 0.480  0.6179 -142.2   6.855   99.3  0.0686   36.3  0.4477  -48.6
 0.500  0.6177 -144.8   6.586   97.5  0.0693   35.9  0.4359  -49.0
 0.520  0.6142 -146.9   6.389   96.4  0.0699   35.8  0.4280  -49.2
 0.540  0.6115 -149.1   6.194   95.3  0.0706   35.7  0.4201  -49.5
 0.560  0.6097 -151.3   6.001   94.0  0.0712   35.5  0.4122  -49.8
 0.580  0.6088 -153.5   5.812   92.7  0.0719   35.4  0.4043  -50.0
 0.600  0.6088 -155.7   5.626   91.3  0.0725   35.3  0.3964  -50.3
 0.620  0.6084 -157.4   5.477   90.4  0.0731   35.3  0.3909  -50.5
 0.640  0.6085 -159.1   5.330   89.4  0.0737   35.3  0.3854  -50.7
 0.660  0.6092 -160.8   5.185   88.3  0.0744   35.2  0.3799  -50.9
 0.680  0.6104 -162.5   5.041   87.2  0.0750   35.2  0.3745  -51.2
 0.700  0.6121 -164.2   4.900   86.0  0.0756   35.2  0.3690  -51.4
 0.720  0.6105 -165.5   4.781   85.2  0.0762   35.3  0.3650  -51.6
 0.740  0.6091 -166.9   4.662   84.4  0.0768   35.4  0.3610  -51.8
 0.760  0.6082 -168.2   4.545   83.5  0.0775   35.6  0.3570  -52.0
 0.780  0.6075 -169.6   4.428   82.6  0.0781   35.7  0.3531  -52.2
 0.800  0.6072 -170.9   4.313   81.6  0.0787   35.8  0.3491  -52.4
 0.820  0.6059 -172.2   4.222   80.8  0.0793   35.9  0.3462  -52.6
 0.840  0.6050 -173.5   4.132   80.0  0.0799   36.1  0.3432  -52.8
 0.860  0.6043 -174.8   4.042   79.2  0.0805   36.2  0.3403  -52.9
 0.880  0.6040 -176.1   3.954   78.3  0.0811   36.4  0.3374  -53.1
 0.900  0.6040 -177.4   3.866   77.4  0.0817   36.5  0.3345  -53.3
 0.920  0.6034 -178.6   3.794   76.7  0.0823   36.6  0.3322  -53.6
 0.940  0.6032 -179.8   3.722   75.9  0.0829   36.7  0.3300  -53.8
 0.960  0.6031  179.1   3.651   75.1  0.0834   36.7  0.3278  -54.1
 0.980  0.6033  177.9   3.581   74.3  0.0840   36.8  0.3255  -54.3
 1.000  0.6038  176.7   3.512   73.4  0.0846   36.9  0.3233  -54.6
 1.020  0.6049  175.5   3.452   72.7  0.0852   37.1  0.3213  -54.9
 1.040  0.6062  174.4   3.392   72.0  0.0859   37.3  0.3194  -55.2
 1.060  0.6077  173.3   3.332   71.3  0.0865   37.6  0.3175  -55.5
 1.080  0.6095  172.1   3.273   70.5  0.0872   37.8  0.3155  -55.9
 1.100  0.6115  171.0   3.215   69.7  0.0878   38.0  0.3136  -56.2
 1.120  0.6119  170.1   3.163   69.0  0.0885   38.2  0.3122  -56.5
 1.140  0.6125  169.1   3.112   68.4  0.0891   38.4  0.3109  -56.9
 1.160  0.6132  168.2   3.061   67.7  0.0898   38.5  0.3095  -57.2
 1.180  0.6141  167.2   3.010   66.9  0.0904   38.7  0.3082  -57.6
 1.200  0.6152  166.3   2.960   66.2  0.0911   38.9  0.3069  -57.9
 1.220  0.6149  165.4   2.913   65.6  0.0918   39.0  0.3057  -58.2
 1.240  0.6147  164.5   2.867   64.9  0.0925   39.2  0.3046  -58.5
 1.260  0.6146  163.7   2.821   64.3  0.0933   39.3  0.3034  -58.8
 1.280  0.6147  162.8   2.775   63.6  0.0940   39.5  0.3022  -59.1
 1.300  0.6150  161.9   2.730   62.9  0.0947   39.6  0.3011  -59.4
 1.320  0.6161  161.1   2.691   62.3  0.0954   39.7  0.3006  -59.8
 1.340  0.6173  160.3   2.653   61.8  0.0961   39.8  0.3000  -60.2
 1.360  0.6186  159.5   2.615   61.2  0.0967   40.0  0.2995  -60.6
 1.380  0.6200  158.7   2.577   60.5  0.0974   40.1  0.2990  -61.0
 1.400  0.6216  157.9   2.539   59.9  0.0981   40.2  0.2985  -61.4
 1.420  0.6219  157.1   2.509   59.3  0.0989   40.4  0.2975  -61.8
 1.440  0.6223  156.3   2.480   58.7  0.0997   40.6  0.2965  -62.2
 1.460  0.6228  155.5   2.451   58.1  0.1005   40.7  0.2956  -62.7
 1.480  0.6234  154.7   2.422   57.4  0.1013   40.9  0.2946  -63.1
 1.500  0.6242  153.9   2.393   56.8  0.1021   41.1  0.2937  -63.5
 1.520  0.6258  153.1   2.361   56.2  0.1030   41.2  0.2930  -63.9
 1.540  0.6274  152.4   2.328   55.5  0.1039   41.2  0.2922  -64.3
 1.560  0.6292  151.6   2.297   54.9  0.1047   41.3  0.2915  -64.7
 1.580  0.6311  150.9   2.265   54.2  0.1056   41.3  0.2908  -65.1
 1.600  0.6331  150.1   2.234   53.5  0.1065   41.4  0.2901  -65.5
 1.620  0.6332  149.3   2.208   52.9  0.1072   41.5  0.2894  -65.9
 1.640  0.6335  148.4   2.183   52.4  0.1080   41.6  0.2886  -66.3
 1.660  0.6339  147.6   2.158   51.8  0.1087   41.8  0.2879  -66.7
 1.680  0.6344  146.7   2.133   51.2  0.1095   41.9  0.2872  -67.1
 1.700  0.6351  145.9   2.108   50.6  0.1102   42.0  0.2865  -67.5
 1.720  0.6362  145.3   2.088   50.1  0.1112   42.0  0.2862  -67.9
 1.740  0.6374  144.6   2.068   49.6  0.1122   42.1  0.2859  -68.3
 1.760  0.6386  144.0   2.049   49.0  0.1131   42.1  0.2856  -68.8
 1.780  0.6400  143.3   2.029   48.5  0.1141   42.2  0.2853  -69.2
 1.800  0.6414  142.7   2.010   47.9  0.1151   42.2  0.2851  -69.6
 1.820  0.6430  142.1   1.989   47.3  0.1161   42.3  0.2846  -70.2
 1.840  0.6447  141.4   1.969   46.8  0.1170   42.4  0.2841  -70.8
 1.860  0.6464  140.8   1.948   46.2  0.1180   42.5  0.2836  -71.4
 1.880  0.6483  140.1   1.928   45.6  0.1189   42.6  0.2832  -72.0
 1.900  0.6502  139.5   1.908   45.0  0.1199   42.7  0.2828  -72.6
 1.920  0.6503  138.8   1.887   44.5  0.1209   42.7  0.2820  -73.1
 1.940  0.6505  138.2   1.866   43.9  0.1219   42.7  0.2811  -73.5
 1.960  0.6508  137.5   1.846   43.4  0.1230   42.8  0.2803  -74.0
 1.980  0.6511  136.9   1.825   42.8  0.1240   42.8  0.2796  -74.4
 2.000  0.6516  136.2   1.805   42.2  0.1250   42.8  0.2788  -74.9
 2.020  0.6524  135.6   1.788   41.7  0.1259   42.8  0.2788  -75.4
 2.040  0.6532  135.0   1.771   41.2  0.1268   42.8  0.2788  -75.9
 2.060  0.6541  134.4   1.755   40.7  0.1278   42.8  0.2789  -76.5
 2.080  0.6551  133.8   1.738   40.1  0.1287   42.8  0.2789  -77.0
 2.100  0.6561  133.2   1.722   39.6  0.1296   42.9  0.2790  -77.5
 2.120  0.6572  132.6   1.706   39.0  0.1305   42.9  0.2791  -78.0
 2.140  0.6584  132.0   1.690   38.5  0.1314   42.9  0.2793  -78.5
 2.160  0.6597  131.4   1.674   37.9  0.1324   42.9  0.2794  -79.1
 2.180  0.6610  130.8   1.658   37.3  0.1333   42.9  0.2796  -79.6
 2.200  0.6624  130.2   1.643   36.7  0.1342   42.9  0.2798  -80.1
 2.220  0.6633  129.6   1.630   36.2  0.1353   42.9  0.2791  -80.7
 2.240  0.6643  128.9   1.617   35.7  0.1363   42.9  0.2784  -81.3
 2.260  0.6654  128.3   1.604   35.2  0.1374   42.8  0.2778  -81.9
 2.280  0.6665  127.7   1.592   34.6  0.1384   42.8  0.2772  -82.5
 2.300  0.6677  127.0   1.579   34.1  0.1395   42.8  0.2766  -83.2
 2.320  0.6691  126.4   1.567   33.6  0.1406   42.8  0.2761  -83.8
 2.340  0.6704  125.8   1.555   33.0  0.1416   42.8  0.2756  -84.4
 2.360  0.6719  125.1   1.543   32.4  0.1427   42.7  0.2751  -85.0
 2.380  0.6735  124.5   1.531   31.9  0.1437   42.7  0.2747  -85.7
 2.400  0.6751  123.9   1.519   31.3  0.1448   42.7  0.2743  -86.3
 2.420  0.6761  123.3   1.506   30.9  0.1458   42.6  0.2742  -86.9
 2.440  0.6771  122.7   1.494   30.4  0.1469   42.6  0.2741  -87.5
 2.460  0.6783  122.1   1.481   30.0  0.1479   42.5  0.2741  -88.1
 2.480  0.6795  121.6   1.469   29.5  0.1489   42.5  0.2741  -88.7
 2.500  0.6807  121.0   1.457   29.0  0.1499   42.4  0.2741  -89.3
 2.520  0.6821  120.4   1.445   28.6  0.1510   42.4  0.2741  -89.9
 2.540  0.6835  119.8   1.433   28.1  0.1520   42.3  0.2742  -90.5
 2.560  0.6849  119.2   1.421   27.6  0.1530   42.3  0.2743  -91.1
 2.580  0.6865  118.7   1.409   27.1  0.1541   42.2  0.2744  -91.7
 2.600  0.6881  118.1   1.397   26.6  0.1551   42.2  0.2746  -92.3
 2.620  0.6893  117.6   1.387   26.2  0.1562   42.1  0.2741  -93.0
 2.640  0.6906  117.0   1.377   25.7  0.1573   42.1  0.2737  -93.6
 2.660  0.6919  116.5   1.368   25.3  0.1584   42.0  0.2733  -94.3
 2.680  0.6933  116.0   1.358   24.8  0.1595   41.9  0.2730  -95.0
 2.700  0.6947  115.4   1.348   24.3  0.1606   41.8  0.2727  -95.7
 2.720  0.6962  114.9   1.339   23.9  0.1617   41.8  0.2724  -96.4
 2.740  0.6978  114.4   1.330   23.4  0.1628   41.7  0.2722  -97.0
 2.760  0.6994  113.8   1.320   22.9  0.1639   41.6  0.2720  -97.7
 2.780  0.7011  113.3   1.311   22.4  0.1650   41.6  0.2718  -98.4
 2.800  0.7028  112.8   1.302   21.9  0.1661   41.5  0.2717  -99.1
 2.820  0.7038  112.3   1.292   21.5  0.1672   41.4  0.2720  -99.8
 2.840  0.7049  111.9   1.283   21.0  0.1684   41.3  0.2723 -100.5
 2.860  0.7061  111.4   1.274   20.6  0.1695   41.2  0.2726 -101.1
 2.880  0.7072  111.0   1.264   20.1  0.1706   41.1  0.2730 -101.8
 2.900  0.7085  110.5   1.255   19.6  0.1717   41.0  0.2734 -102.5
 2.920  0.7097  110.1   1.246   19.2  0.1729   40.9  0.2739 -103.1
 2.940  0.7110  109.6   1.237   18.7  0.1740   40.8  0.2744 -103.8
 2.960  0.7124  109.2   1.228   18.2  0.1751   40.7  0.2749 -104.5
 2.980  0.7138  108.7   1.219   17.7  0.1763   40.6  0.2755 -105.1
 3.000  0.7152  108.3   1.210   17.2  0.1774   40.5  0.2761 -105.8
 3.100  0.7194  106.1   1.170   15.5  0.1831   39.8  0.2763 -109.5
 3.200  0.7246  104.0   1.131   13.6  0.1887   39.1  0.2776 -113.1
 3.300  0.7308  101.8   1.093   11.6  0.1944   38.5  0.2801 -116.7
 3.400  0.7380   99.7   1.057    9.5  0.2002   37.9  0.2836 -120.2
 3.500  0.7462   97.7   1.022    7.2  0.2059   37.4  0.2881 -123.6
 3.600  0.7497   95.8   0.993    5.6  0.2120   36.5  0.2913 -127.5
 3.700  0.7541   93.8   0.965    3.9  0.2182   35.6  0.2958 -131.3
 3.800  0.7594   91.9   0.938    2.1  0.2244   34.7  0.3016 -135.0
 3.900  0.7654   90.0   0.912    0.2  0.2306   33.9  0.3086 -138.5
 4.000  0.7723   88.2   0.887   -1.8  0.2369   33.2  0.3167 -141.9
 4.100  0.7759   86.6   0.864   -3.2  0.2427   32.1  0.3218 -145.4
 4.200  0.7801   84.9   0.842   -4.6  0.2486   31.0  0.3280 -148.8
 4.300  0.7850   83.3   0.821   -6.2  0.2546   29.9  0.3354 -152.0
 4.400  0.7904   81.8   0.800   -7.8  0.2607   28.9  0.3437 -155.1
 4.500  0.7965   80.2   0.780   -9.5  0.2668   28.0  0.3530 -158.0
 4.600  0.7986   78.9   0.763  -10.7  0.2721   26.9  0.3598 -161.1
 4.700  0.8011   77.6   0.747  -11.9  0.2775   25.8  0.3677 -164.0
 4.800  0.8040   76.3   0.731  -13.1  0.2831   24.7  0.3764 -166.8
 4.900  0.8073   75.0   0.715  -14.4  0.2887   23.7  0.3860 -169.5
 5.000  0.8110   73.7   0.700  -15.8  0.2944   22.7  0.3964 -172.0
 5.100  0.8136   72.4   0.684  -16.7  0.2995   21.5  0.4025 -174.8
 5.200  0.8166   71.2   0.669  -17.7  0.3048   20.4  0.4095 -177.5
 5.300  0.8200   69.9   0.654  -18.7  0.3101   19.3  0.4174  179.9
 5.400  0.8238   68.7   0.639  -19.7  0.3156   18.2  0.4261  177.4
 5.500  0.8279   67.5   0.624  -20.8  0.3212   17.2  0.4356  175.0
 5.600  0.8282   66.4   0.614  -21.6  0.3260   15.9  0.4421  172.6
 5.700  0.8288   65.2   0.604  -22.5  0.3310   14.7  0.4493  170.2
 5.800  0.8297   64.1   0.594  -23.4  0.3361   13.5  0.4573  168.0
 5.900  0.8310   62.9   0.585  -24.3  0.3414   12.3  0.4660  165.8
 6.000  0.8326   61.8   0.575  -25.2  0.3468   11.2  0.4753  163.7
!
!  f       NFmin   Gammaopt  rn/50
! GHz       dB    MAG  ANG    -
 0.450      1.20  0.25  114   0.13
 0.900      1.25  0.37  150   0.12
 1.800      2.00  0.55 -158   0.12
!
! (c) 2016  Infineon Technologies AG, Munich
