! Infineon Technologies  Discrete & RF Semiconductors
! BFP181
! VCE = 5.0 V,  IC =  6.0 mA
! Common Emitter S-Parameters:                            Jan 2016
# GHz  S  MA  R  50
!  f         S11            S21            S12            S22
! GHz     MAG   ANG      MAG   ANG      MAG   ANG      MAG   ANG
 0.010  0.8411   -2.1  15.236  178.1  0.0011   77.2  0.9888   -0.7
 0.015  0.8438   -3.0  15.258  177.6  0.0019   90.1  0.9862   -1.1
 0.020  0.8467   -3.8  15.280  177.2  0.0027   95.3  0.9837   -1.6
 0.025  0.8448   -4.7  15.268  176.4  0.0034   92.6  0.9835   -2.0
 0.030  0.8431   -5.6  15.258  175.6  0.0041   90.8  0.9834   -2.5
 0.035  0.8417   -6.5  15.251  174.9  0.0048   89.5  0.9833   -2.9
 0.040  0.8404   -7.5  15.247  174.1  0.0055   88.6  0.9833   -3.3
 0.045  0.8394   -8.4  15.246  173.3  0.0062   87.9  0.9833   -3.8
 0.050  0.8386   -9.3  15.248  172.5  0.0069   87.3  0.9834   -4.2
 0.055  0.8358  -10.2  15.195  171.8  0.0075   86.0  0.9821   -4.6
 0.060  0.8333  -11.1  15.145  171.2  0.0080   84.9  0.9808   -5.0
 0.065  0.8309  -12.0  15.096  170.5  0.0086   83.9  0.9795   -5.4
 0.070  0.8288  -13.0  15.050  169.8  0.0092   83.0  0.9783   -5.8
 0.075  0.8269  -13.9  15.006  169.1  0.0097   82.3  0.9772   -6.2
 0.080  0.8252  -14.8  14.964  168.4  0.0103   81.6  0.9760   -6.6
 0.085  0.8238  -15.8  14.924  167.7  0.0109   81.0  0.9750   -7.0
 0.090  0.8225  -16.7  14.886  167.0  0.0114   80.4  0.9740   -7.4
 0.095  0.8215  -17.7  14.851  166.3  0.0120   79.9  0.9730   -7.8
 0.100  0.8207  -18.6  14.818  165.6  0.0126   79.5  0.9721   -8.2
 0.105  0.8175  -19.5  14.777  164.9  0.0132   78.9  0.9697   -8.6
 0.110  0.8145  -20.4  14.738  164.2  0.0138   78.3  0.9674   -8.9
 0.115  0.8117  -21.4  14.702  163.5  0.0143   77.8  0.9651   -9.3
 0.120  0.8091  -22.3  14.667  162.8  0.0149   77.3  0.9628   -9.7
 0.125  0.8068  -23.2  14.635  162.1  0.0155   76.9  0.9605  -10.0
 0.130  0.8046  -24.2  14.606  161.4  0.0161   76.5  0.9584  -10.4
 0.135  0.8027  -25.1  14.578  160.7  0.0167   76.1  0.9562  -10.8
 0.140  0.8010  -26.1  14.553  159.9  0.0172   75.7  0.9541  -11.1
 0.145  0.7996  -27.0  14.530  159.2  0.0178   75.4  0.9520  -11.5
 0.150  0.7983  -28.0  14.509  158.5  0.0184   75.1  0.9500  -11.9
 0.155  0.7945  -28.9  14.458  157.9  0.0189   74.5  0.9472  -12.2
 0.160  0.7909  -29.7  14.409  157.2  0.0195   74.0  0.9445  -12.6
 0.165  0.7875  -30.6  14.362  156.6  0.0200   73.5  0.9418  -12.9
 0.170  0.7842  -31.5  14.317  155.9  0.0205   73.0  0.9391  -13.3
 0.175  0.7812  -32.4  14.273  155.2  0.0211   72.5  0.9365  -13.6
 0.180  0.7783  -33.3  14.232  154.6  0.0216   72.1  0.9339  -14.0
 0.185  0.7757  -34.2  14.192  153.9  0.0222   71.6  0.9314  -14.3
 0.190  0.7732  -35.1  14.154  153.3  0.0227   71.2  0.9288  -14.7
 0.195  0.7709  -36.0  14.119  152.6  0.0233   70.9  0.9264  -15.0
 0.200  0.7688  -36.9  14.085  151.9  0.0238   70.5  0.9239  -15.4
 0.220  0.7572  -40.1  13.762  149.5  0.0255   68.8  0.9115  -16.6
 0.240  0.7481  -43.4  13.463  147.1  0.0273   67.4  0.8996  -17.9
 0.260  0.7367  -46.6  13.208  144.8  0.0291   66.0  0.8876  -19.0
 0.280  0.7228  -49.8  12.990  142.7  0.0309   64.6  0.8753  -20.0
 0.300  0.7111  -53.1  12.790  140.5  0.0328   63.4  0.8634  -21.1
 0.320  0.6930  -55.8  12.508  138.5  0.0342   62.1  0.8506  -21.9
 0.340  0.6766  -58.6  12.242  136.5  0.0356   61.0  0.8379  -22.7
 0.360  0.6619  -61.6  11.992  134.3  0.0370   59.9  0.8255  -23.6
 0.380  0.6490  -64.7  11.760  132.1  0.0384   58.9  0.8132  -24.5
 0.400  0.6381  -67.9  11.546  129.8  0.0398   58.0  0.8011  -25.4
 0.420  0.6234  -70.3  11.268  128.3  0.0408   56.9  0.7899  -26.0
 0.440  0.6098  -72.9  10.999  126.7  0.0418   55.9  0.7787  -26.5
 0.450  0.6035  -74.2  10.868  125.9  0.0423   55.3  0.7731  -26.8
 0.460  0.5975  -75.5  10.739  125.0  0.0428   54.9  0.7676  -27.1
 0.480  0.5865  -78.3  10.488  123.2  0.0439   53.9  0.7566  -27.8
 0.500  0.5769  -81.1  10.248  121.4  0.0449   53.0  0.7457  -28.4
 0.520  0.5661  -83.2  10.039  120.1  0.0458   52.4  0.7367  -28.8
 0.540  0.5560  -85.4   9.836  118.8  0.0467   51.8  0.7278  -29.3
 0.560  0.5468  -87.7   9.638  117.4  0.0476   51.2  0.7189  -29.7
 0.580  0.5385  -90.0   9.446  115.9  0.0485   50.6  0.7100  -30.2
 0.600  0.5311  -92.4   9.261  114.4  0.0494   50.1  0.7012  -30.7
 0.620  0.5203  -94.4   9.055  113.3  0.0501   49.7  0.6934  -31.0
 0.640  0.5102  -96.5   8.854  112.1  0.0508   49.3  0.6857  -31.4
 0.660  0.5008  -98.7   8.656  110.8  0.0514   48.9  0.6780  -31.7
 0.680  0.4922 -101.0   8.462  109.6  0.0521   48.5  0.6703  -32.0
 0.700  0.4843 -103.3   8.273  108.2  0.0528   48.1  0.6626  -32.4
 0.720  0.4761 -105.2   8.129  107.2  0.0535   47.7  0.6566  -32.6
 0.740  0.4684 -107.1   7.987  106.1  0.0542   47.4  0.6506  -32.8
 0.760  0.4613 -109.1   7.849  105.0  0.0548   47.1  0.6446  -33.0
 0.780  0.4547 -111.2   7.713  103.8  0.0555   46.7  0.6386  -33.3
 0.800  0.4488 -113.3   7.581  102.6  0.0562   46.4  0.6326  -33.5
 0.820  0.4417 -115.1   7.443  101.7  0.0568   46.2  0.6273  -33.7
 0.840  0.4351 -116.9   7.308  100.8  0.0574   45.9  0.6219  -33.9
 0.860  0.4290 -118.8   7.174   99.9  0.0579   45.7  0.6166  -34.1
 0.880  0.4233 -120.8   7.042   98.9  0.0585   45.4  0.6113  -34.3
 0.900  0.4182 -122.8   6.912   97.9  0.0591   45.2  0.6060  -34.5
 0.920  0.4137 -124.7   6.790   97.1  0.0596   45.0  0.6019  -34.7
 0.940  0.4097 -126.6   6.670   96.3  0.0601   44.8  0.5978  -34.9
 0.960  0.4061 -128.5   6.551   95.4  0.0605   44.7  0.5937  -35.1
 0.980  0.4030 -130.5   6.434   94.5  0.0610   44.5  0.5896  -35.3
 1.000  0.4004 -132.5   6.318   93.6  0.0615   44.3  0.5855  -35.5
 1.020  0.3965 -134.0   6.225   92.8  0.0622   44.1  0.5821  -35.7
 1.040  0.3929 -135.6   6.133   92.0  0.0629   44.0  0.5788  -35.8
 1.060  0.3896 -137.2   6.042   91.2  0.0635   43.8  0.5754  -36.0
 1.080  0.3866 -138.8   5.953   90.3  0.0642   43.7  0.5721  -36.1
 1.100  0.3839 -140.5   5.865   89.4  0.0649   43.5  0.5687  -36.3
 1.120  0.3798 -142.1   5.774   88.7  0.0653   43.3  0.5660  -36.5
 1.140  0.3760 -143.7   5.684   88.0  0.0657   43.2  0.5634  -36.7
 1.160  0.3726 -145.4   5.594   87.3  0.0662   43.0  0.5608  -36.9
 1.180  0.3694 -147.1   5.506   86.6  0.0666   42.9  0.5581  -37.1
 1.200  0.3666 -148.8   5.418   85.8  0.0670   42.7  0.5555  -37.3
 1.220  0.3651 -150.2   5.340   85.1  0.0675   42.7  0.5532  -37.5
 1.240  0.3638 -151.7   5.264   84.5  0.0680   42.6  0.5509  -37.7
 1.260  0.3628 -153.2   5.188   83.8  0.0686   42.6  0.5486  -37.8
 1.280  0.3620 -154.6   5.112   83.0  0.0691   42.5  0.5464  -38.0
 1.300  0.3614 -156.1   5.038   82.3  0.0696   42.5  0.5441  -38.2
 1.320  0.3588 -157.7   4.975   81.7  0.0701   42.5  0.5419  -38.4
 1.340  0.3564 -159.2   4.912   81.0  0.0706   42.5  0.5396  -38.6
 1.360  0.3543 -160.8   4.851   80.4  0.0711   42.4  0.5374  -38.7
 1.380  0.3525 -162.5   4.789   79.7  0.0716   42.4  0.5352  -38.9
 1.400  0.3510 -164.1   4.729   79.0  0.0721   42.4  0.5330  -39.1
 1.420  0.3516 -165.4   4.673   78.4  0.0726   42.3  0.5312  -39.3
 1.440  0.3523 -166.6   4.617   77.7  0.0731   42.2  0.5294  -39.4
 1.460  0.3533 -167.8   4.562   77.1  0.0737   42.1  0.5276  -39.6
 1.480  0.3544 -169.1   4.507   76.4  0.0742   42.0  0.5259  -39.7
 1.500  0.3556 -170.3   4.453   75.7  0.0747   41.9  0.5241  -39.9
 1.520  0.3535 -171.7   4.399   75.1  0.0752   41.8  0.5226  -40.1
 1.540  0.3517 -173.1   4.346   74.5  0.0757   41.7  0.5212  -40.3
 1.560  0.3500 -174.5   4.293   73.9  0.0763   41.5  0.5197  -40.5
 1.580  0.3485 -175.9   4.241   73.3  0.0768   41.4  0.5182  -40.7
 1.600  0.3473 -177.3   4.189   72.7  0.0773   41.3  0.5168  -40.9
 1.620  0.3473 -178.7   4.141   72.1  0.0779   41.4  0.5152  -41.1
 1.640  0.3475  179.9   4.093   71.5  0.0785   41.4  0.5137  -41.3
 1.660  0.3480  178.5   4.046   70.9  0.0791   41.5  0.5121  -41.6
 1.680  0.3486  177.2   3.999   70.3  0.0797   41.5  0.5105  -41.8
 1.700  0.3494  175.8   3.953   69.7  0.0803   41.6  0.5090  -42.0
 1.720  0.3503  174.6   3.911   69.1  0.0808   41.5  0.5075  -42.2
 1.740  0.3515  173.4   3.870   68.6  0.0812   41.4  0.5061  -42.4
 1.760  0.3527  172.2   3.829   68.0  0.0817   41.3  0.5047  -42.6
 1.780  0.3541  171.0   3.789   67.4  0.0821   41.2  0.5032  -42.8
 1.800  0.3557  169.8   3.749   66.8  0.0826   41.1  0.5018  -43.0
 1.820  0.3557  168.9   3.711   66.3  0.0831   41.0  0.5006  -43.2
 1.840  0.3559  167.9   3.674   65.8  0.0836   41.0  0.4994  -43.5
 1.860  0.3561  167.0   3.637   65.3  0.0842   40.9  0.4982  -43.7
 1.880  0.3565  166.0   3.600   64.8  0.0847   40.9  0.4970  -44.0
 1.900  0.3569  165.1   3.564   64.3  0.0852   40.8  0.4958  -44.2
 1.920  0.3574  164.0   3.527   63.8  0.0858   40.7  0.4948  -44.4
 1.940  0.3580  162.8   3.490   63.3  0.0863   40.6  0.4938  -44.6
 1.960  0.3588  161.7   3.453   62.7  0.0869   40.5  0.4928  -44.9
 1.980  0.3597  160.5   3.417   62.2  0.0874   40.4  0.4919  -45.1
 2.000  0.3608  159.4   3.381   61.6  0.0880   40.3  0.4909  -45.3
 2.020  0.3617  158.4   3.350   61.1  0.0885   40.2  0.4898  -45.6
 2.040  0.3626  157.4   3.320   60.6  0.0890   40.2  0.4887  -45.8
 2.060  0.3637  156.5   3.290   60.1  0.0895   40.1  0.4876  -46.1
 2.080  0.3649  155.5   3.260   59.6  0.0900   40.1  0.4865  -46.3
 2.100  0.3662  154.6   3.230   59.0  0.0905   40.0  0.4854  -46.6
 2.120  0.3676  153.6   3.201   58.5  0.0911   40.0  0.4844  -46.8
 2.140  0.3691  152.7   3.171   57.9  0.0916   39.9  0.4833  -47.1
 2.160  0.3706  151.7   3.143   57.4  0.0921   39.9  0.4823  -47.4
 2.180  0.3723  150.8   3.114   56.8  0.0926   39.8  0.4812  -47.6
 2.200  0.3741  149.9   3.086   56.2  0.0931   39.8  0.4802  -47.9
 2.220  0.3754  149.0   3.061   55.8  0.0936   39.7  0.4792  -48.2
 2.240  0.3767  148.1   3.035   55.3  0.0942   39.6  0.4782  -48.5
 2.260  0.3782  147.2   3.010   54.9  0.0947   39.5  0.4773  -48.7
 2.280  0.3798  146.3   2.986   54.4  0.0953   39.3  0.4763  -49.0
 2.300  0.3814  145.5   2.961   53.9  0.0958   39.2  0.4754  -49.3
 2.320  0.3831  144.6   2.937   53.5  0.0964   39.1  0.4744  -49.6
 2.340  0.3849  143.7   2.912   53.0  0.0969   39.0  0.4735  -49.8
 2.360  0.3868  142.9   2.888   52.5  0.0975   38.9  0.4726  -50.1
 2.380  0.3888  142.0   2.865   52.0  0.0980   38.8  0.4717  -50.4
 2.400  0.3909  141.2   2.841   51.5  0.0986   38.7  0.4708  -50.7
 2.420  0.3928  140.4   2.818   51.1  0.0991   38.6  0.4696  -51.0
 2.440  0.3947  139.6   2.795   50.6  0.0996   38.6  0.4684  -51.2
 2.460  0.3967  138.8   2.773   50.2  0.1001   38.5  0.4672  -51.5
 2.480  0.3988  138.0   2.750   49.7  0.1006   38.4  0.4661  -51.8
 2.500  0.4010  137.2   2.728   49.2  0.1010   38.3  0.4649  -52.1
 2.520  0.4032  136.4   2.706   48.8  0.1015   38.3  0.4638  -52.4
 2.540  0.4055  135.6   2.684   48.3  0.1020   38.2  0.4626  -52.6
 2.560  0.4079  134.9   2.662   47.8  0.1025   38.1  0.4615  -52.9
 2.580  0.4104  134.1   2.640   47.3  0.1030   38.1  0.4604  -53.2
 2.600  0.4129  133.4   2.619   46.8  0.1035   38.0  0.4593  -53.5
 2.620  0.4143  132.7   2.599   46.3  0.1040   37.9  0.4585  -53.8
 2.640  0.4159  132.1   2.580   45.9  0.1045   37.7  0.4578  -54.1
 2.660  0.4174  131.4   2.561   45.4  0.1051   37.6  0.4570  -54.4
 2.680  0.4190  130.8   2.542   44.9  0.1056   37.4  0.4563  -54.7
 2.700  0.4207  130.1   2.523   44.4  0.1061   37.3  0.4555  -55.0
 2.720  0.4224  129.5   2.504   43.9  0.1066   37.1  0.4548  -55.3
 2.740  0.4242  128.9   2.485   43.4  0.1071   37.0  0.4541  -55.7
 2.760  0.4260  128.2   2.467   42.9  0.1077   36.9  0.4534  -56.0
 2.780  0.4279  127.6   2.449   42.4  0.1082   36.7  0.4528  -56.3
 2.800  0.4298  127.0   2.431   41.9  0.1087   36.6  0.4521  -56.6
 2.820  0.4317  126.3   2.415   41.5  0.1092   36.5  0.4510  -56.9
 2.840  0.4336  125.7   2.399   41.0  0.1097   36.4  0.4499  -57.2
 2.860  0.4356  125.0   2.383   40.6  0.1103   36.3  0.4488  -57.5
 2.880  0.4376  124.3   2.367   40.2  0.1108   36.2  0.4478  -57.8
 2.900  0.4397  123.7   2.352   39.7  0.1113   36.1  0.4467  -58.1
 2.920  0.4419  123.0   2.336   39.3  0.1118   36.0  0.4457  -58.4
 2.940  0.4441  122.4   2.321   38.8  0.1123   36.0  0.4446  -58.7
 2.960  0.4464  121.7   2.306   38.3  0.1129   35.9  0.4436  -59.0
 2.980  0.4487  121.1   2.291   37.9  0.1134   35.8  0.4426  -59.3
 3.000  0.4511  120.5   2.276   37.4  0.1139   35.7  0.4416  -59.6
 3.100  0.4596  117.7   2.202   35.5  0.1164   35.1  0.4374  -61.3
 3.200  0.4692  114.9   2.131   33.5  0.1189   34.5  0.4335  -63.0
 3.300  0.4799  112.3   2.062   31.4  0.1214   33.9  0.4301  -64.8
 3.400  0.4915  109.8   1.996   29.1  0.1240   33.3  0.4270  -66.6
 3.500  0.5040  107.4   1.934   26.7  0.1265   32.8  0.4244  -68.4
 3.600  0.5127  105.3   1.879   24.9  0.1289   32.1  0.4201  -70.3
 3.700  0.5221  103.3   1.827   23.1  0.1314   31.4  0.4163  -72.2
 3.800  0.5321  101.3   1.776   21.1  0.1338   30.7  0.4130  -74.2
 3.900  0.5427   99.4   1.728   19.0  0.1363   30.0  0.4101  -76.2
 4.000  0.5539   97.6   1.682   16.8  0.1388   29.4  0.4078  -78.2
 4.100  0.5605   95.9   1.636   15.1  0.1410   28.7  0.4042  -80.3
 4.200  0.5676   94.1   1.591   13.3  0.1432   27.9  0.4012  -82.5
 4.300  0.5753   92.5   1.548   11.4  0.1454   27.2  0.3987  -84.7
 4.400  0.5834   90.9   1.507    9.4  0.1476   26.6  0.3969  -86.9
 4.500  0.5919   89.3   1.468    7.3  0.1499   25.9  0.3956  -89.1
 4.600  0.5985   87.9   1.433    5.8  0.1521   25.3  0.3930  -91.2
 4.700  0.6054   86.5   1.399    4.2  0.1543   24.7  0.3909  -93.3
 4.800  0.6127   85.1   1.367    2.6  0.1565   24.2  0.3893  -95.5
 4.900  0.6203   83.8   1.335    0.8  0.1587   23.6  0.3883  -97.6
 5.000  0.6283   82.5   1.305   -1.0  0.1609   23.1  0.3879  -99.8
 5.100  0.6336   81.3   1.277   -2.5  0.1634   22.4  0.3879 -102.1
 5.200  0.6392   80.2   1.249   -4.1  0.1660   21.8  0.3885 -104.3
 5.300  0.6451   79.1   1.223   -5.8  0.1686   21.1  0.3898 -106.6
 5.400  0.6512   78.0   1.197   -7.6  0.1712   20.5  0.3916 -108.8
 5.500  0.6575   76.9   1.173   -9.4  0.1738   19.9  0.3940 -111.0
 5.600  0.6631   75.8   1.148  -10.9  0.1760   19.1  0.3950 -113.3
 5.700  0.6689   74.6   1.124  -12.4  0.1783   18.4  0.3966 -115.6
 5.800  0.6749   73.5   1.101  -13.9  0.1806   17.6  0.3988 -117.8
 5.900  0.6813   72.5   1.078  -15.6  0.1829   16.9  0.4016 -120.0
 6.000  0.6878   71.4   1.057  -17.3  0.1853   16.2  0.4050 -122.2
!
!  f       NFmin   Gammaopt  rn/50
! GHz       dB    MAG  ANG    -
!
! noise parameter not available yet for this operation point!
!
! (c) 2016  Infineon Technologies AG, Munich
