! Infineon Technologies  Discrete & RF Semiconductors
! BFP193
! VCE = 3.5 V,  IC =  6.0 mA
! Common Emitter S-Parameters:                            Jan 2016
# GHz  S  MA  R  50
!  f         S11            S21            S12            S22
! GHz     MAG   ANG      MAG   ANG      MAG   ANG      MAG   ANG
 0.010  0.8064   -5.6  18.126  177.6  0.0033   88.8  0.9858   -2.5
 0.015  0.8042   -8.0  17.904  175.4  0.0050   84.7  0.9824   -3.6
 0.020  0.8034  -10.5  17.709  173.1  0.0067   82.7  0.9794   -4.8
 0.025  0.7983  -13.0  17.615  171.6  0.0085   80.8  0.9744   -6.0
 0.030  0.7947  -15.6  17.534  170.1  0.0104   79.5  0.9699   -7.2
 0.035  0.7928  -18.2  17.464  168.6  0.0122   78.6  0.9657   -8.4
 0.040  0.7924  -20.8  17.406  167.1  0.0140   78.0  0.9620   -9.6
 0.045  0.7937  -23.3  17.360  165.6  0.0159   77.5  0.9588  -10.9
 0.050  0.7966  -25.9  17.326  164.1  0.0177   77.1  0.9560  -12.1
 0.055  0.7868  -28.2  17.156  162.8  0.0191   75.2  0.9475  -13.1
 0.060  0.7783  -30.6  16.995  161.5  0.0206   73.6  0.9393  -14.1
 0.065  0.7712  -33.0  16.844  160.1  0.0220   72.3  0.9314  -15.1
 0.070  0.7655  -35.5  16.702  158.8  0.0235   71.0  0.9237  -16.2
 0.075  0.7612  -38.0  16.569  157.4  0.0250   70.0  0.9164  -17.2
 0.080  0.7584  -40.5  16.447  156.0  0.0265   69.0  0.9095  -18.3
 0.085  0.7571  -43.0  16.335  154.5  0.0280   68.2  0.9028  -19.4
 0.090  0.7572  -45.6  16.233  153.1  0.0295   67.4  0.8965  -20.5
 0.095  0.7588  -48.1  16.141  151.6  0.0310   66.7  0.8905  -21.7
 0.100  0.7619  -50.6  16.061  150.1  0.0325   66.1  0.8849  -22.8
 0.105  0.7545  -52.5  15.844  149.0  0.0335   64.9  0.8753  -23.5
 0.110  0.7479  -54.5  15.633  147.8  0.0346   63.8  0.8659  -24.3
 0.115  0.7423  -56.5  15.429  146.6  0.0357   62.7  0.8567  -25.0
 0.120  0.7375  -58.6  15.232  145.4  0.0367   61.7  0.8476  -25.8
 0.125  0.7338  -60.6  15.041  144.2  0.0378   60.7  0.8386  -26.6
 0.130  0.7309  -62.7  14.858  142.9  0.0389   59.8  0.8298  -27.4
 0.135  0.7291  -64.8  14.683  141.6  0.0400   59.0  0.8212  -28.2
 0.140  0.7282  -66.9  14.515  140.3  0.0411   58.2  0.8128  -29.1
 0.145  0.7283  -69.0  14.355  138.9  0.0423   57.4  0.8045  -29.9
 0.150  0.7294  -71.1  14.204  137.5  0.0434   56.7  0.7964  -30.8
 0.155  0.7236  -72.8  14.037  136.7  0.0442   56.0  0.7878  -31.3
 0.160  0.7185  -74.4  13.873  135.8  0.0449   55.3  0.7792  -31.9
 0.165  0.7140  -76.2  13.712  134.9  0.0457   54.6  0.7708  -32.5
 0.170  0.7101  -77.9  13.555  134.0  0.0465   54.0  0.7624  -33.0
 0.175  0.7069  -79.6  13.400  133.1  0.0472   53.3  0.7541  -33.6
 0.180  0.7044  -81.4  13.250  132.2  0.0480   52.7  0.7458  -34.2
 0.185  0.7025  -83.2  13.103  131.2  0.0488   52.2  0.7377  -34.9
 0.190  0.7013  -84.9  12.960  130.2  0.0496   51.6  0.7296  -35.5
 0.195  0.7008  -86.7  12.820  129.2  0.0504   51.0  0.7217  -36.1
 0.200  0.7009  -88.5  12.685  128.2  0.0512   50.5  0.7138  -36.8
 0.220  0.6837  -94.2  12.020  125.3  0.0533   48.4  0.6828  -38.4
 0.240  0.6736 -100.1  11.391  122.0  0.0555   46.4  0.6524  -40.2
 0.260  0.6657 -105.3  10.827  119.1  0.0574   44.8  0.6261  -41.6
 0.280  0.6575 -109.7  10.309  116.8  0.0590   43.4  0.6035  -42.8
 0.300  0.6532 -114.2   9.810  114.2  0.0607   42.1  0.5811  -44.0
 0.320  0.6436 -117.7   9.416  112.6  0.0617   41.2  0.5628  -44.6
 0.340  0.6365 -121.4   9.029  110.9  0.0627   40.3  0.5446  -45.3
 0.360  0.6320 -125.1   8.651  109.0  0.0637   39.5  0.5265  -46.0
 0.380  0.6302 -128.8   8.283  107.0  0.0648   38.7  0.5085  -46.7
 0.400  0.6311 -132.6   7.927  104.8  0.0658   37.9  0.4905  -47.5
 0.420  0.6260 -135.1   7.638  103.5  0.0665   37.5  0.4786  -47.9
 0.440  0.6221 -137.6   7.353  102.1  0.0673   37.1  0.4668  -48.3
 0.450  0.6206 -138.9   7.213  101.4  0.0676   36.9  0.4609  -48.5
 0.460  0.6194 -140.2   7.073  100.7  0.0680   36.7  0.4550  -48.7
 0.480  0.6180 -142.8   6.798   99.0  0.0688   36.4  0.4432  -49.1
 0.500  0.6179 -145.4   6.529   97.3  0.0695   36.0  0.4314  -49.6
 0.520  0.6150 -147.5   6.332   96.2  0.0702   35.9  0.4237  -49.8
 0.540  0.6129 -149.6   6.138   95.1  0.0709   35.7  0.4161  -50.1
 0.560  0.6116 -151.7   5.946   93.9  0.0717   35.6  0.4084  -50.3
 0.580  0.6112 -153.9   5.757   92.6  0.0724   35.4  0.4007  -50.5
 0.600  0.6116 -156.0   5.571   91.2  0.0731   35.3  0.3931  -50.8
 0.620  0.6106 -157.7   5.426   90.2  0.0736   35.3  0.3877  -51.0
 0.640  0.6101 -159.5   5.282   89.2  0.0741   35.3  0.3822  -51.2
 0.660  0.6101 -161.2   5.140   88.1  0.0747   35.4  0.3768  -51.4
 0.680  0.6108 -163.0   5.000   87.0  0.0752   35.4  0.3713  -51.6
 0.700  0.6120 -164.7   4.862   85.8  0.0757   35.4  0.3659  -51.8
 0.720  0.6107 -166.1   4.745   85.0  0.0764   35.4  0.3619  -52.0
 0.740  0.6098 -167.4   4.628   84.2  0.0771   35.4  0.3580  -52.2
 0.760  0.6092 -168.8   4.513   83.3  0.0779   35.3  0.3540  -52.4
 0.780  0.6089 -170.1   4.398   82.4  0.0786   35.3  0.3500  -52.7
 0.800  0.6090 -171.5   4.285   81.4  0.0793   35.3  0.3461  -52.9
 0.820  0.6083 -172.8   4.194   80.6  0.0799   35.5  0.3430  -53.1
 0.840  0.6079 -174.1   4.103   79.8  0.0805   35.6  0.3399  -53.3
 0.860  0.6079 -175.4   4.013   78.9  0.0811   35.8  0.3368  -53.5
 0.880  0.6081 -176.7   3.925   78.0  0.0817   35.9  0.3337  -53.7
 0.900  0.6087 -178.0   3.837   77.1  0.0823   36.1  0.3306  -53.9
 0.920  0.6086 -179.2   3.764   76.4  0.0828   36.3  0.3283  -54.2
 0.940  0.6088  179.6   3.691   75.7  0.0832   36.5  0.3260  -54.4
 0.960  0.6093  178.5   3.620   74.9  0.0837   36.7  0.3237  -54.7
 0.980  0.6100  177.3   3.548   74.1  0.0841   36.9  0.3215  -54.9
 1.000  0.6110  176.1   3.478   73.3  0.0846   37.1  0.3192  -55.2
 1.020  0.6111  175.0   3.419   72.6  0.0852   37.3  0.3175  -55.5
 1.040  0.6114  174.0   3.360   71.9  0.0859   37.4  0.3159  -55.8
 1.060  0.6119  172.9   3.302   71.2  0.0865   37.6  0.3142  -56.1
 1.080  0.6126  171.9   3.245   70.4  0.0872   37.7  0.3125  -56.5
 1.100  0.6135  170.8   3.188   69.6  0.0878   37.9  0.3109  -56.8
 1.120  0.6136  169.8   3.136   68.9  0.0885   38.1  0.3096  -57.1
 1.140  0.6138  168.8   3.084   68.2  0.0892   38.3  0.3083  -57.5
 1.160  0.6142  167.7   3.032   67.5  0.0899   38.4  0.3070  -57.8
 1.180  0.6149  166.7   2.981   66.8  0.0906   38.6  0.3057  -58.2
 1.200  0.6157  165.7   2.931   66.0  0.0913   38.8  0.3044  -58.5
 1.220  0.6155  164.9   2.886   65.4  0.0920   39.0  0.3031  -58.8
 1.240  0.6153  164.0   2.841   64.7  0.0928   39.1  0.3019  -59.1
 1.260  0.6154  163.2   2.797   64.1  0.0935   39.3  0.3007  -59.5
 1.280  0.6155  162.3   2.753   63.4  0.0943   39.4  0.2994  -59.8
 1.300  0.6158  161.5   2.709   62.7  0.0950   39.6  0.2982  -60.1
 1.320  0.6172  160.7   2.669   62.1  0.0956   39.7  0.2978  -60.5
 1.340  0.6187  160.0   2.630   61.5  0.0963   39.8  0.2973  -60.9
 1.360  0.6203  159.2   2.591   60.9  0.0969   39.8  0.2969  -61.2
 1.380  0.6220  158.5   2.552   60.3  0.0976   39.9  0.2965  -61.6
 1.400  0.6238  157.7   2.514   59.6  0.0982   40.0  0.2961  -62.0
 1.420  0.6239  156.9   2.486   59.0  0.0990   40.2  0.2952  -62.4
 1.440  0.6242  156.1   2.458   58.4  0.0999   40.4  0.2944  -62.8
 1.460  0.6246  155.4   2.430   57.8  0.1007   40.5  0.2935  -63.3
 1.480  0.6251  154.6   2.402   57.2  0.1016   40.7  0.2927  -63.7
 1.500  0.6257  153.8   2.375   56.6  0.1024   40.9  0.2919  -64.1
 1.520  0.6271  153.0   2.343   56.0  0.1032   41.0  0.2911  -64.5
 1.540  0.6287  152.2   2.312   55.3  0.1040   41.1  0.2903  -64.9
 1.560  0.6304  151.4   2.280   54.7  0.1049   41.1  0.2896  -65.3
 1.580  0.6322  150.6   2.250   54.0  0.1057   41.2  0.2888  -65.7
 1.600  0.6341  149.8   2.219   53.3  0.1065   41.3  0.2881  -66.1
 1.620  0.6345  149.0   2.194   52.7  0.1074   41.4  0.2871  -66.6
 1.640  0.6349  148.3   2.170   52.2  0.1083   41.6  0.2862  -67.0
 1.660  0.6355  147.5   2.145   51.6  0.1091   41.7  0.2853  -67.5
 1.680  0.6362  146.8   2.121   51.0  0.1100   41.9  0.2844  -67.9
 1.700  0.6370  146.0   2.097   50.4  0.1109   42.0  0.2835  -68.4
 1.720  0.6383  145.3   2.075   49.9  0.1118   42.0  0.2831  -68.8
 1.740  0.6398  144.6   2.053   49.4  0.1128   42.0  0.2827  -69.2
 1.760  0.6413  143.9   2.032   48.8  0.1137   42.1  0.2823  -69.7
 1.780  0.6429  143.2   2.010   48.3  0.1147   42.1  0.2819  -70.1
 1.800  0.6446  142.5   1.989   47.7  0.1156   42.1  0.2816  -70.5
 1.820  0.6452  141.9   1.969   47.1  0.1165   42.2  0.2813  -71.1
 1.840  0.6459  141.3   1.950   46.5  0.1174   42.3  0.2810  -71.7
 1.860  0.6467  140.6   1.931   45.9  0.1183   42.5  0.2808  -72.3
 1.880  0.6476  140.0   1.912   45.3  0.1192   42.6  0.2806  -72.9
 1.900  0.6485  139.4   1.893   44.7  0.1201   42.7  0.2804  -73.5
 1.920  0.6501  138.7   1.872   44.2  0.1212   42.7  0.2797  -74.0
 1.940  0.6517  138.0   1.852   43.7  0.1222   42.7  0.2789  -74.4
 1.960  0.6534  137.3   1.831   43.1  0.1233   42.8  0.2782  -74.9
 1.980  0.6553  136.7   1.811   42.6  0.1243   42.8  0.2776  -75.3
 2.000  0.6572  136.0   1.791   42.0  0.1254   42.8  0.2769  -75.8
 2.020  0.6576  135.4   1.775   41.5  0.1264   42.8  0.2768  -76.3
 2.040  0.6581  134.8   1.758   41.0  0.1273   42.8  0.2767  -76.9
 2.060  0.6586  134.1   1.742   40.5  0.1283   42.8  0.2767  -77.4
 2.080  0.6592  133.5   1.726   39.9  0.1292   42.8  0.2766  -77.9
 2.100  0.6599  132.9   1.710   39.4  0.1302   42.9  0.2766  -78.4
 2.120  0.6607  132.3   1.694   38.8  0.1312   42.9  0.2766  -79.0
 2.140  0.6616  131.6   1.679   38.3  0.1321   42.9  0.2767  -79.5
 2.160  0.6625  131.0   1.663   37.7  0.1331   42.9  0.2767  -80.0
 2.180  0.6635  130.4   1.648   37.1  0.1340   42.9  0.2768  -80.6
 2.200  0.6646  129.8   1.633   36.5  0.1350   42.9  0.2769  -81.1
 2.220  0.6659  129.2   1.620   36.0  0.1361   42.9  0.2764  -81.7
 2.240  0.6672  128.6   1.606   35.5  0.1371   42.9  0.2759  -82.3
 2.260  0.6687  127.9   1.593   34.9  0.1382   42.8  0.2755  -82.9
 2.280  0.6702  127.3   1.580   34.4  0.1392   42.8  0.2750  -83.6
 2.300  0.6717  126.7   1.568   33.9  0.1403   42.8  0.2746  -84.2
 2.320  0.6734  126.1   1.555   33.3  0.1414   42.8  0.2743  -84.8
 2.340  0.6751  125.5   1.543   32.7  0.1424   42.8  0.2740  -85.4
 2.360  0.6770  124.9   1.530   32.2  0.1435   42.7  0.2737  -86.0
 2.380  0.6788  124.3   1.518   31.6  0.1445   42.7  0.2734  -86.7
 2.400  0.6808  123.7   1.506   31.0  0.1456   42.7  0.2732  -87.3
 2.420  0.6815  123.1   1.493   30.6  0.1466   42.6  0.2729  -87.9
 2.440  0.6823  122.6   1.481   30.1  0.1477   42.6  0.2727  -88.5
 2.460  0.6832  122.0   1.469   29.7  0.1487   42.5  0.2725  -89.1
 2.480  0.6841  121.4   1.456   29.3  0.1498   42.4  0.2723  -89.7
 2.500  0.6851  120.9   1.444   28.8  0.1508   42.4  0.2722  -90.3
 2.520  0.6861  120.3   1.432   28.3  0.1519   42.3  0.2721  -91.0
 2.540  0.6873  119.8   1.420   27.9  0.1529   42.3  0.2720  -91.6
 2.560  0.6884  119.2   1.408   27.4  0.1540   42.2  0.2720  -92.2
 2.580  0.6897  118.7   1.397   26.9  0.1550   42.2  0.2720  -92.8
 2.600  0.6910  118.1   1.385   26.4  0.1561   42.1  0.2720  -93.4
 2.620  0.6923  117.6   1.375   25.9  0.1572   42.0  0.2717  -94.1
 2.640  0.6936  117.0   1.365   25.5  0.1583   41.9  0.2715  -94.8
 2.660  0.6950  116.5   1.356   25.0  0.1593   41.8  0.2713  -95.4
 2.680  0.6965  116.0   1.346   24.6  0.1604   41.8  0.2711  -96.1
 2.700  0.6980  115.4   1.337   24.1  0.1615   41.7  0.2710  -96.8
 2.720  0.6996  114.9   1.327   23.6  0.1626   41.6  0.2709  -97.5
 2.740  0.7012  114.4   1.318   23.1  0.1637   41.5  0.2709  -98.2
 2.760  0.7029  113.8   1.309   22.6  0.1647   41.5  0.2709  -98.8
 2.780  0.7047  113.3   1.300   22.1  0.1658   41.4  0.2709  -99.5
 2.800  0.7065  112.8   1.291   21.6  0.1669   41.3  0.2710 -100.2
 2.820  0.7071  112.3   1.282   21.2  0.1680   41.2  0.2712 -100.9
 2.840  0.7078  111.9   1.272   20.7  0.1692   41.1  0.2715 -101.6
 2.860  0.7086  111.4   1.263   20.3  0.1703   41.0  0.2718 -102.3
 2.880  0.7094  110.9   1.254   19.8  0.1715   40.9  0.2721 -103.0
 2.900  0.7102  110.4   1.244   19.3  0.1726   40.8  0.2725 -103.7
 2.920  0.7111  110.0   1.235   18.9  0.1737   40.7  0.2729 -104.4
 2.940  0.7120  109.5   1.226   18.4  0.1749   40.7  0.2733 -105.1
 2.960  0.7130  109.0   1.218   17.9  0.1760   40.6  0.2738 -105.7
 2.980  0.7140  108.6   1.209   17.4  0.1772   40.5  0.2743 -106.4
 3.000  0.7151  108.1   1.200   16.9  0.1783   40.4  0.2749 -107.1
 3.100  0.7195  105.9   1.160   15.2  0.1840   39.7  0.2752 -110.8
 3.200  0.7250  103.8   1.122   13.3  0.1898   39.0  0.2767 -114.4
 3.300  0.7314  101.6   1.085   11.3  0.1956   38.4  0.2792 -118.0
 3.400  0.7389   99.5   1.049    9.2  0.2014   37.8  0.2828 -121.5
 3.500  0.7473   97.5   1.015    6.9  0.2072   37.2  0.2875 -124.9
 3.600  0.7509   95.6   0.986    5.3  0.2132   36.3  0.2913 -128.8
 3.700  0.7553   93.7   0.958    3.6  0.2193   35.4  0.2965 -132.5
 3.800  0.7605   91.9   0.931    1.9  0.2254   34.5  0.3029 -136.2
 3.900  0.7665   90.1   0.905   -0.0  0.2316   33.8  0.3104 -139.6
 4.000  0.7732   88.3   0.880   -2.0  0.2378   33.0  0.3190 -142.9
 4.100  0.7766   86.7   0.858   -3.4  0.2437   31.9  0.3241 -146.4
 4.200  0.7806   85.0   0.836   -4.8  0.2496   30.8  0.3303 -149.8
 4.300  0.7852   83.4   0.815   -6.3  0.2557   29.7  0.3377 -153.0
 4.400  0.7905   81.9   0.794   -7.9  0.2618   28.7  0.3461 -156.1
 4.500  0.7963   80.3   0.774   -9.6  0.2680   27.8  0.3554 -159.0
 4.600  0.7988   78.9   0.757  -10.8  0.2733   26.7  0.3622 -162.1
 4.700  0.8017   77.6   0.741  -12.0  0.2787   25.6  0.3699 -165.0
 4.800  0.8051   76.2   0.725  -13.3  0.2843   24.5  0.3786 -167.8
 4.900  0.8089   74.9   0.710  -14.6  0.2899   23.5  0.3881 -170.5
 5.000  0.8132   73.6   0.695  -16.0  0.2956   22.5  0.3985 -173.0
 5.100  0.8160   72.3   0.680  -16.9  0.3007   21.3  0.4048 -175.8
 5.200  0.8193   71.0   0.664  -17.9  0.3059   20.2  0.4121 -178.4
 5.300  0.8229   69.8   0.649  -18.9  0.3112   19.1  0.4202  179.0
 5.400  0.8270   68.5   0.635  -20.0  0.3167   18.0  0.4291  176.6
 5.500  0.8314   67.3   0.620  -21.1  0.3222   17.0  0.4388  174.2
 5.600  0.8305   66.2   0.610  -21.9  0.3270   15.7  0.4452  171.8
 5.700  0.8300   65.0   0.600  -22.7  0.3319   14.5  0.4524  169.4
 5.800  0.8298   63.9   0.590  -23.5  0.3369   13.3  0.4603  167.2
 5.900  0.8299   62.7   0.580  -24.3  0.3422   12.1  0.4689  165.0
 6.000  0.8304   61.6   0.570  -25.2  0.3475   11.0  0.4782  162.9
!
!  f       NFmin   Gammaopt  rn/50
! GHz       dB    MAG  ANG    -
 0.450      1.20  0.25  114   0.13
 0.900      1.25  0.37  150   0.12
 1.800      2.00  0.55 -158   0.12
!
! (c) 2016  Infineon Technologies AG, Munich
