! Infineon Technologies  Discrete & RF Semiconductors
! BFP183
! VCE = 2.5 V,  IC =  20 mA
! Common Emitter S-Parameters:                            Jan 2016
# GHz  S  MA  R  50
!  f         S11            S21            S12            S22
! GHz     MAG   ANG      MAG   ANG      MAG   ANG      MAG   ANG
 0.010  0.4877   -8.0  36.897  176.0  0.0016   79.1  0.9662   -2.8
 0.015  0.4867  -12.2  36.820  174.2  0.0025   78.4  0.9610   -4.3
 0.020  0.4884  -16.4  36.780  172.4  0.0034   78.0  0.9565   -5.8
 0.025  0.4834  -20.2  36.443  170.5  0.0043   77.6  0.9496   -7.2
 0.030  0.4806  -24.1  36.147  168.6  0.0052   77.4  0.9433   -8.6
 0.035  0.4801  -28.0  35.891  166.7  0.0061   77.2  0.9375  -10.0
 0.040  0.4818  -32.0  35.677  164.7  0.0071   77.1  0.9323  -11.5
 0.045  0.4857  -35.8  35.505  162.7  0.0080   77.0  0.9278  -12.9
 0.050  0.4918  -39.6  35.377  160.7  0.0089   76.9  0.9238  -14.4
 0.055  0.4856  -42.7  34.815  159.3  0.0095   74.9  0.9119  -15.4
 0.060  0.4810  -46.0  34.275  157.8  0.0101   73.1  0.9003  -16.5
 0.065  0.4778  -49.2  33.758  156.3  0.0108   71.5  0.8890  -17.6
 0.070  0.4763  -52.5  33.264  154.8  0.0114   70.1  0.8781  -18.7
 0.075  0.4763  -55.8  32.796  153.2  0.0120   68.8  0.8675  -19.9
 0.080  0.4779  -59.1  32.353  151.6  0.0127   67.7  0.8573  -21.0
 0.085  0.4811  -62.4  31.938  149.9  0.0133   66.6  0.8474  -22.2
 0.090  0.4858  -65.6  31.550  148.2  0.0140   65.7  0.8379  -23.5
 0.095  0.4920  -68.7  31.192  146.4  0.0146   64.9  0.8288  -24.7
 0.100  0.4997  -71.8  30.864  144.6  0.0153   64.1  0.8201  -26.0
 0.105  0.4965  -74.2  30.362  143.5  0.0158   63.2  0.8087  -26.7
 0.110  0.4942  -76.6  29.872  142.4  0.0163   62.3  0.7974  -27.4
 0.115  0.4928  -79.1  29.393  141.2  0.0168   61.4  0.7862  -28.1
 0.120  0.4923  -81.5  28.927  140.0  0.0173   60.6  0.7751  -28.9
 0.125  0.4927  -83.9  28.474  138.8  0.0178   59.9  0.7642  -29.7
 0.130  0.4939  -86.4  28.035  137.5  0.0183   59.2  0.7535  -30.5
 0.135  0.4961  -88.8  27.610  136.2  0.0188   58.5  0.7429  -31.3
 0.140  0.4991  -91.2  27.200  134.8  0.0193   57.9  0.7324  -32.1
 0.145  0.5030  -93.6  26.806  133.4  0.0198   57.3  0.7221  -33.0
 0.150  0.5078  -95.9  26.428  132.0  0.0203   56.7  0.7120  -33.9
 0.155  0.5064  -97.7  26.012  131.2  0.0206   56.2  0.7027  -34.3
 0.160  0.5056  -99.6  25.602  130.4  0.0209   55.7  0.6934  -34.8
 0.165  0.5053 -101.4  25.197  129.5  0.0213   55.2  0.6841  -35.2
 0.170  0.5055 -103.2  24.798  128.6  0.0216   54.7  0.6749  -35.7
 0.175  0.5062 -105.1  24.406  127.7  0.0219   54.3  0.6658  -36.2
 0.180  0.5074 -106.9  24.020  126.7  0.0223   53.8  0.6567  -36.7
 0.185  0.5092 -108.7  23.640  125.7  0.0226   53.4  0.6476  -37.2
 0.190  0.5115 -110.5  23.268  124.7  0.0229   53.0  0.6386  -37.7
 0.195  0.5142 -112.3  22.904  123.7  0.0233   52.6  0.6297  -38.2
 0.200  0.5175 -114.1  22.547  122.6  0.0236   52.2  0.6208  -38.8
 0.220  0.5180 -119.5  21.209  120.0  0.0244   51.3  0.5918  -39.9
 0.240  0.5229 -124.8  19.919  117.1  0.0251   50.5  0.5631  -41.2
 0.260  0.5269 -129.4  18.796  114.5  0.0260   50.0  0.5373  -42.2
 0.280  0.5284 -133.4  17.812  112.4  0.0269   49.7  0.5143  -42.7
 0.300  0.5325 -137.3  16.855  110.1  0.0279   49.5  0.4914  -43.3
 0.320  0.5301 -140.2  16.109  108.7  0.0285   49.3  0.4764  -43.5
 0.340  0.5291 -143.1  15.373  107.1  0.0291   49.2  0.4615  -43.8
 0.360  0.5295 -146.0  14.650  105.4  0.0296   49.0  0.4466  -44.0
 0.380  0.5312 -148.8  13.941  103.6  0.0302   48.8  0.4316  -44.3
 0.400  0.5342 -151.7  13.249  101.5  0.0308   48.7  0.4167  -44.6
 0.420  0.5342 -153.8  12.747  100.5  0.0315   48.6  0.4073  -44.6
 0.440  0.5348 -155.9  12.249   99.3  0.0322   48.6  0.3980  -44.7
 0.450  0.5354 -156.9  12.003   98.7  0.0325   48.5  0.3933  -44.7
 0.460  0.5362 -158.0  11.757   98.1  0.0328   48.5  0.3886  -44.7
 0.480  0.5383 -160.0  11.271   96.8  0.0335   48.5  0.3793  -44.8
 0.500  0.5411 -162.1  10.791   95.3  0.0342   48.4  0.3699  -44.8
 0.520  0.5414 -163.7  10.463   94.4  0.0349   48.8  0.3637  -44.8
 0.540  0.5422 -165.2  10.138   93.5  0.0356   49.2  0.3575  -44.8
 0.560  0.5433 -166.7   9.815   92.6  0.0364   49.5  0.3514  -44.7
 0.580  0.5448 -168.3   9.495   91.5  0.0371   49.9  0.3452  -44.7
 0.600  0.5467 -169.8   9.179   90.4  0.0378   50.2  0.3390  -44.7
 0.620  0.5461 -171.2   8.912   89.6  0.0384   50.4  0.3349  -44.7
 0.640  0.5459 -172.6   8.647   88.8  0.0390   50.6  0.3307  -44.7
 0.660  0.5459 -173.9   8.383   88.0  0.0396   50.8  0.3266  -44.6
 0.680  0.5463 -175.3   8.121   87.1  0.0402   51.0  0.3224  -44.6
 0.700  0.5470 -176.7   7.862   86.1  0.0408   51.2  0.3183  -44.6
 0.720  0.5472 -177.8   7.679   85.4  0.0415   51.4  0.3155  -44.6
 0.740  0.5475 -178.9   7.498   84.7  0.0422   51.5  0.3127  -44.6
 0.760  0.5481 -179.9   7.318   83.9  0.0428   51.7  0.3098  -44.7
 0.780  0.5489  179.0   7.139   83.1  0.0435   51.9  0.3070  -44.7
 0.800  0.5498  177.9   6.962   82.3  0.0442   52.0  0.3042  -44.7
 0.820  0.5497  177.0   6.813   81.7  0.0450   52.1  0.3021  -44.8
 0.840  0.5498  176.1   6.664   81.1  0.0459   52.1  0.3001  -44.8
 0.860  0.5500  175.3   6.516   80.5  0.0467   52.2  0.2980  -44.9
 0.880  0.5503  174.4   6.369   79.8  0.0476   52.2  0.2960  -44.9
 0.900  0.5507  173.5   6.223   79.1  0.0484   52.3  0.2939  -45.0
 0.920  0.5512  172.5   6.094   78.5  0.0490   52.4  0.2921  -45.1
 0.940  0.5519  171.4   5.967   77.8  0.0497   52.6  0.2903  -45.2
 0.960  0.5528  170.4   5.839   77.1  0.0503   52.7  0.2886  -45.3
 0.980  0.5539  169.3   5.713   76.4  0.0510   52.9  0.2868  -45.4
 1.000  0.5551  168.3   5.588   75.7  0.0516   53.0  0.2850  -45.5
 1.020  0.5562  167.4   5.492   75.1  0.0524   53.1  0.2837  -45.7
 1.040  0.5574  166.4   5.396   74.5  0.0533   53.1  0.2824  -45.8
 1.060  0.5588  165.5   5.300   73.8  0.0541   53.2  0.2812  -46.0
 1.080  0.5603  164.5   5.206   73.2  0.0550   53.2  0.2799  -46.1
 1.100  0.5620  163.6   5.112   72.5  0.0558   53.3  0.2786  -46.3
 1.120  0.5619  162.8   5.025   72.0  0.0565   53.3  0.2777  -46.5
 1.140  0.5618  162.1   4.938   71.5  0.0571   53.2  0.2768  -46.7
 1.160  0.5619  161.3   4.852   71.0  0.0578   53.2  0.2759  -46.8
 1.180  0.5620  160.6   4.766   70.5  0.0584   53.1  0.2750  -47.0
 1.200  0.5623  159.8   4.680   69.9  0.0591   53.1  0.2741  -47.2
 1.220  0.5633  159.1   4.605   69.4  0.0599   53.1  0.2731  -47.5
 1.240  0.5644  158.4   4.530   68.8  0.0607   53.1  0.2722  -47.7
 1.260  0.5656  157.7   4.456   68.2  0.0614   53.1  0.2713  -48.0
 1.280  0.5669  157.0   4.382   67.6  0.0622   53.1  0.2703  -48.2
 1.300  0.5682  156.3   4.309   67.0  0.0630   53.1  0.2694  -48.5
 1.320  0.5685  155.6   4.251   66.5  0.0638   53.2  0.2687  -48.7
 1.340  0.5689  154.8   4.192   66.0  0.0647   53.3  0.2680  -48.9
 1.360  0.5694  154.1   4.135   65.5  0.0655   53.3  0.2673  -49.2
 1.380  0.5699  153.3   4.077   64.9  0.0664   53.4  0.2667  -49.4
 1.400  0.5706  152.6   4.020   64.4  0.0672   53.5  0.2660  -49.6
 1.420  0.5719  152.0   3.965   63.8  0.0679   53.4  0.2654  -49.9
 1.440  0.5733  151.4   3.911   63.2  0.0686   53.3  0.2649  -50.1
 1.460  0.5747  150.9   3.857   62.7  0.0694   53.1  0.2644  -50.4
 1.480  0.5762  150.3   3.804   62.0  0.0701   53.0  0.2638  -50.6
 1.500  0.5777  149.7   3.751   61.4  0.0708   52.9  0.2633  -50.9
 1.520  0.5784  149.0   3.705   60.9  0.0715   52.8  0.2627  -51.2
 1.540  0.5792  148.3   3.659   60.5  0.0723   52.7  0.2621  -51.5
 1.560  0.5800  147.6   3.613   60.0  0.0730   52.6  0.2615  -51.8
 1.580  0.5810  146.9   3.568   59.5  0.0738   52.5  0.2610  -52.1
 1.600  0.5820  146.2   3.523   59.0  0.0745   52.4  0.2604  -52.4
 1.620  0.5827  145.6   3.478   58.5  0.0754   52.3  0.2599  -52.8
 1.640  0.5835  145.0   3.433   58.0  0.0763   52.3  0.2594  -53.2
 1.660  0.5844  144.3   3.389   57.5  0.0771   52.2  0.2590  -53.6
 1.680  0.5853  143.7   3.345   57.0  0.0780   52.2  0.2585  -54.0
 1.700  0.5863  143.1   3.301   56.5  0.0789   52.1  0.2581  -54.4
 1.720  0.5881  142.5   3.265   56.0  0.0796   52.0  0.2573  -54.7
 1.740  0.5900  141.8   3.229   55.5  0.0803   51.9  0.2565  -55.1
 1.760  0.5919  141.2   3.193   55.0  0.0809   51.7  0.2557  -55.4
 1.780  0.5939  140.5   3.158   54.4  0.0816   51.6  0.2550  -55.8
 1.800  0.5960  139.9   3.123   53.9  0.0823   51.5  0.2542  -56.1
 1.820  0.5964  139.3   3.088   53.4  0.0830   51.3  0.2538  -56.4
 1.840  0.5968  138.8   3.054   53.0  0.0838   51.2  0.2534  -56.8
 1.860  0.5973  138.2   3.020   52.5  0.0845   51.0  0.2530  -57.1
 1.880  0.5978  137.7   2.986   52.0  0.0853   50.9  0.2526  -57.5
 1.900  0.5984  137.1   2.952   51.5  0.0860   50.7  0.2522  -57.8
 1.920  0.5993  136.5   2.919   51.0  0.0868   50.6  0.2518  -58.2
 1.940  0.6003  136.0   2.886   50.5  0.0875   50.5  0.2514  -58.6
 1.960  0.6013  135.4   2.853   50.0  0.0883   50.5  0.2510  -59.0
 1.980  0.6024  134.9   2.820   49.5  0.0890   50.4  0.2507  -59.4
 2.000  0.6036  134.3   2.788   49.0  0.0898   50.3  0.2503  -59.8
 2.020  0.6047  133.7   2.762   48.6  0.0905   50.1  0.2497  -60.2
 2.040  0.6058  133.2   2.736   48.1  0.0913   50.0  0.2490  -60.6
 2.060  0.6070  132.6   2.710   47.6  0.0920   49.9  0.2484  -61.1
 2.080  0.6082  132.1   2.684   47.2  0.0928   49.7  0.2478  -61.5
 2.100  0.6095  131.5   2.659   46.7  0.0935   49.6  0.2472  -61.9
 2.120  0.6109  131.0   2.634   46.2  0.0942   49.4  0.2467  -62.4
 2.140  0.6123  130.4   2.609   45.7  0.0950   49.3  0.2461  -62.8
 2.160  0.6138  129.9   2.584   45.2  0.0957   49.2  0.2455  -63.2
 2.180  0.6153  129.3   2.559   44.6  0.0965   49.0  0.2450  -63.7
 2.200  0.6169  128.8   2.535   44.1  0.0972   48.9  0.2445  -64.1
 2.220  0.6181  128.3   2.513   43.7  0.0979   48.7  0.2440  -64.6
 2.240  0.6194  127.7   2.491   43.3  0.0987   48.6  0.2435  -65.0
 2.260  0.6207  127.2   2.469   42.9  0.0994   48.4  0.2431  -65.5
 2.280  0.6220  126.7   2.448   42.4  0.1002   48.2  0.2427  -66.0
 2.300  0.6234  126.1   2.426   42.0  0.1009   48.1  0.2422  -66.5
 2.320  0.6249  125.6   2.405   41.6  0.1016   47.9  0.2418  -67.0
 2.340  0.6264  125.1   2.384   41.1  0.1024   47.8  0.2415  -67.4
 2.360  0.6280  124.5   2.363   40.6  0.1031   47.6  0.2411  -67.9
 2.380  0.6296  124.0   2.342   40.2  0.1039   47.4  0.2407  -68.4
 2.400  0.6313  123.5   2.321   39.7  0.1046   47.3  0.2404  -68.9
 2.420  0.6327  123.0   2.301   39.3  0.1053   47.1  0.2398  -69.4
 2.440  0.6341  122.5   2.282   38.9  0.1060   47.0  0.2391  -69.9
 2.460  0.6355  122.0   2.262   38.4  0.1067   46.8  0.2385  -70.3
 2.480  0.6370  121.5   2.243   38.0  0.1073   46.6  0.2379  -70.8
 2.500  0.6386  121.0   2.224   37.5  0.1080   46.5  0.2373  -71.3
 2.520  0.6402  120.5   2.205   37.1  0.1087   46.3  0.2368  -71.8
 2.540  0.6419  120.0   2.186   36.6  0.1094   46.2  0.2362  -72.3
 2.560  0.6436  119.5   2.167   36.2  0.1101   46.0  0.2357  -72.8
 2.580  0.6453  119.0   2.148   35.7  0.1108   45.9  0.2352  -73.3
 2.600  0.6471  118.5   2.130   35.2  0.1115   45.7  0.2347  -73.8
 2.620  0.6481  118.1   2.113   34.8  0.1122   45.5  0.2343  -74.3
 2.640  0.6490  117.6   2.096   34.3  0.1128   45.3  0.2339  -74.9
 2.660  0.6501  117.2   2.079   33.8  0.1135   45.1  0.2336  -75.4
 2.680  0.6511  116.8   2.063   33.4  0.1141   44.9  0.2332  -75.9
 2.700  0.6522  116.3   2.046   32.9  0.1148   44.7  0.2329  -76.5
 2.720  0.6534  115.9   2.030   32.4  0.1154   44.5  0.2326  -77.0
 2.740  0.6546  115.5   2.014   31.9  0.1161   44.3  0.2323  -77.6
 2.760  0.6558  115.0   1.998   31.4  0.1168   44.1  0.2321  -78.1
 2.780  0.6570  114.6   1.982   30.9  0.1174   43.9  0.2318  -78.7
 2.800  0.6583  114.2   1.966   30.4  0.1181   43.7  0.2316  -79.2
 2.820  0.6597  113.8   1.952   30.0  0.1188   43.5  0.2310  -79.7
 2.840  0.6612  113.3   1.937   29.6  0.1194   43.4  0.2305  -80.3
 2.860  0.6627  112.9   1.923   29.2  0.1201   43.2  0.2300  -80.9
 2.880  0.6642  112.4   1.909   28.8  0.1208   43.1  0.2295  -81.4
 2.900  0.6658  112.0   1.895   28.4  0.1214   42.9  0.2290  -82.0
 2.920  0.6674  111.5   1.881   28.0  0.1221   42.8  0.2285  -82.5
 2.940  0.6691  111.1   1.868   27.6  0.1228   42.6  0.2281  -83.1
 2.960  0.6708  110.7   1.854   27.2  0.1235   42.5  0.2277  -83.7
 2.980  0.6725  110.2   1.840   26.7  0.1241   42.3  0.2273  -84.2
 3.000  0.6743  109.8   1.827   26.3  0.1248   42.2  0.2269  -84.8
 3.100  0.6793  107.8   1.765   24.5  0.1279   41.3  0.2252  -87.8
 3.200  0.6852  105.8   1.704   22.6  0.1311   40.4  0.2240  -90.8
 3.300  0.6919  103.8   1.646   20.6  0.1343   39.5  0.2236  -93.9
 3.400  0.6994  101.9   1.590   18.4  0.1375   38.7  0.2237  -97.0
 3.500  0.7077  100.0   1.536   16.1  0.1407   37.9  0.2245 -100.0
 3.600  0.7128   98.3   1.490   14.5  0.1436   36.9  0.2239 -103.3
 3.700  0.7186   96.6   1.446   12.7  0.1466   36.0  0.2241 -106.6
 3.800  0.7250   95.0   1.402   10.9  0.1497   35.1  0.2250 -109.9
 3.900  0.7319   93.4   1.361    8.9  0.1527   34.2  0.2266 -113.2
 4.000  0.7394   91.8   1.321    6.8  0.1558   33.4  0.2290 -116.4
 4.100  0.7433   90.3   1.284    5.2  0.1583   32.4  0.2300 -119.7
 4.200  0.7476   88.8   1.247    3.5  0.1608   31.5  0.2318 -123.0
 4.300  0.7525   87.4   1.212    1.8  0.1634   30.6  0.2343 -126.2
 4.400  0.7578   85.9   1.178   -0.1  0.1660   29.7  0.2376 -129.4
 4.500  0.7636   84.5   1.145   -2.1  0.1687   28.9  0.2415 -132.4
 4.600  0.7668   83.3   1.116   -3.4  0.1713   28.2  0.2440 -135.2
 4.700  0.7703   82.1   1.087   -4.8  0.1738   27.6  0.2470 -137.9
 4.800  0.7741   81.0   1.059   -6.3  0.1764   27.0  0.2505 -140.5
 4.900  0.7783   79.8   1.032   -7.8  0.1791   26.4  0.2546 -143.1
 5.000  0.7827   78.7   1.006   -9.4  0.1817   25.8  0.2592 -145.6
 5.100  0.7857   77.7   0.984  -10.8  0.1850   24.8  0.2653 -148.2
 5.200  0.7889   76.6   0.962  -12.2  0.1883   23.8  0.2719 -150.7
 5.300  0.7923   75.6   0.940  -13.7  0.1917   22.9  0.2789 -153.0
 5.400  0.7960   74.6   0.920  -15.3  0.1951   22.0  0.2865 -155.3
 5.500  0.8000   73.6   0.900  -16.9  0.1986   21.1  0.2944 -157.4
 5.600  0.8037   72.6   0.881  -18.2  0.2009   20.1  0.3004 -159.8
 5.700  0.8077   71.6   0.862  -19.5  0.2033   19.2  0.3069 -162.0
 5.800  0.8119   70.6   0.843  -20.9  0.2058   18.2  0.3139 -164.2
 5.900  0.8163   69.7   0.825  -22.4  0.2083   17.3  0.3212 -166.2
 6.000  0.8210   68.7   0.808  -23.9  0.2108   16.4  0.3290 -168.2
!
!  f       NFmin   Gammaopt  rn/50
! GHz       dB    MAG  ANG    -
!
! noise parameter not available yet for this operation point!
!
! (c) 2016  Infineon Technologies AG, Munich
