! Infineon Technologies  Discrete & RF Semiconductors
! BFP181
! VCE = 1.0 V,  IC =  1.2 mA
! Common Emitter S-Parameters:                            Jan 2016
# GHz  S  MA  R  50
!  f         S11            S21            S12            S22
! GHz     MAG   ANG      MAG   ANG      MAG   ANG      MAG   ANG
 0.010  0.9559   -1.0   4.068  179.6  0.0016   91.0  0.9982   -0.3
 0.015  0.9559   -1.4   4.077  179.4  0.0025   90.0  0.9944   -0.5
 0.020  0.9559   -1.8   4.086  179.2  0.0034   89.6  0.9907   -0.8
 0.025  0.9556   -2.2   4.092  178.7  0.0042   90.2  0.9914   -1.0
 0.030  0.9554   -2.6   4.099  178.3  0.0051   90.7  0.9920   -1.2
 0.035  0.9552   -3.0   4.106  177.8  0.0059   91.0  0.9927   -1.5
 0.040  0.9550   -3.5   4.113  177.3  0.0068   91.2  0.9934   -1.7
 0.045  0.9549   -3.9   4.120  176.9  0.0076   91.4  0.9942   -1.9
 0.050  0.9549   -4.3   4.128  176.4  0.0085   91.5  0.9949   -2.1
 0.055  0.9540   -4.8   4.119  176.0  0.0093   89.9  0.9948   -2.3
 0.060  0.9532   -5.2   4.111  175.7  0.0101   88.5  0.9946   -2.5
 0.065  0.9524   -5.7   4.103  175.3  0.0109   87.4  0.9945   -2.8
 0.070  0.9517   -6.1   4.094  174.9  0.0117   86.4  0.9944   -3.0
 0.075  0.9511   -6.6   4.086  174.6  0.0125   85.5  0.9943   -3.2
 0.080  0.9505   -7.1   4.079  174.2  0.0133   84.7  0.9942   -3.4
 0.085  0.9500   -7.5   4.071  173.8  0.0141   84.0  0.9942   -3.6
 0.090  0.9495   -8.0   4.063  173.5  0.0150   83.4  0.9941   -3.9
 0.095  0.9491   -8.4   4.056  173.1  0.0158   82.9  0.9941   -4.1
 0.100  0.9488   -8.9   4.049  172.7  0.0166   82.4  0.9941   -4.3
 0.105  0.9477   -9.3   4.050  172.3  0.0174   82.1  0.9936   -4.5
 0.110  0.9467   -9.8   4.052  171.9  0.0183   81.9  0.9932   -4.7
 0.115  0.9457  -10.2   4.054  171.6  0.0191   81.7  0.9927   -4.9
 0.120  0.9448  -10.7   4.056  171.2  0.0200   81.4  0.9923   -5.1
 0.125  0.9439  -11.1   4.058  170.8  0.0208   81.3  0.9918   -5.3
 0.130  0.9431  -11.5   4.060  170.4  0.0217   81.1  0.9914   -5.5
 0.135  0.9423  -12.0   4.063  170.0  0.0225   80.9  0.9910   -5.7
 0.140  0.9416  -12.4   4.065  169.7  0.0234   80.8  0.9906   -5.9
 0.145  0.9410  -12.9   4.068  169.3  0.0242   80.6  0.9903   -6.1
 0.150  0.9404  -13.3   4.071  168.9  0.0251   80.5  0.9899   -6.3
 0.155  0.9397  -13.7   4.071  168.5  0.0259   80.3  0.9894   -6.5
 0.160  0.9391  -14.2   4.071  168.1  0.0267   80.1  0.9888   -6.7
 0.165  0.9386  -14.6   4.071  167.8  0.0276   79.8  0.9883   -7.0
 0.170  0.9380  -15.0   4.072  167.4  0.0284   79.7  0.9878   -7.2
 0.175  0.9376  -15.4   4.072  167.0  0.0292   79.5  0.9874   -7.4
 0.180  0.9372  -15.9   4.073  166.6  0.0300   79.3  0.9869   -7.6
 0.185  0.9368  -16.3   4.074  166.2  0.0308   79.1  0.9865   -7.8
 0.190  0.9365  -16.7   4.075  165.9  0.0317   79.0  0.9860   -8.1
 0.195  0.9363  -17.2   4.076  165.5  0.0325   78.8  0.9856   -8.3
 0.200  0.9361  -17.6   4.078  165.1  0.0333   78.7  0.9852   -8.5
 0.220  0.9345  -19.3   4.040  163.7  0.0365   77.4  0.9824   -9.3
 0.240  0.9338  -21.0   4.005  162.2  0.0397   76.4  0.9797  -10.1
 0.260  0.9309  -22.7   3.985  160.9  0.0430   75.3  0.9772  -10.9
 0.280  0.9260  -24.5   3.982  159.6  0.0463   74.2  0.9748  -11.6
 0.300  0.9220  -26.4   3.980  158.3  0.0496   73.2  0.9726  -12.4
 0.320  0.9155  -28.0   3.962  156.7  0.0524   72.0  0.9685  -13.2
 0.340  0.9097  -29.7   3.947  155.2  0.0553   70.8  0.9647  -14.0
 0.360  0.9048  -31.4   3.935  153.6  0.0582   69.8  0.9610  -14.8
 0.380  0.9006  -33.1   3.926  152.0  0.0611   68.9  0.9575  -15.6
 0.400  0.8972  -34.8   3.920  150.4  0.0640   68.1  0.9542  -16.4
 0.420  0.8883  -36.4   3.882  149.1  0.0665   66.7  0.9495  -17.1
 0.440  0.8800  -38.0   3.847  147.8  0.0691   65.5  0.9449  -17.9
 0.450  0.8762  -38.9   3.830  147.1  0.0704   64.9  0.9427  -18.2
 0.460  0.8725  -39.7   3.813  146.4  0.0717   64.3  0.9405  -18.6
 0.480  0.8658  -41.4   3.782  145.0  0.0743   63.2  0.9363  -19.3
 0.500  0.8598  -43.1   3.753  143.6  0.0770   62.2  0.9322  -20.1
 0.520  0.8532  -44.7   3.728  142.4  0.0795   61.1  0.9275  -20.8
 0.540  0.8471  -46.2   3.704  141.1  0.0820   60.1  0.9230  -21.4
 0.560  0.8418  -47.8   3.683  139.9  0.0846   59.2  0.9186  -22.1
 0.580  0.8371  -49.5   3.663  138.6  0.0871   58.3  0.9143  -22.8
 0.600  0.8331  -51.1   3.645  137.3  0.0897   57.5  0.9102  -23.5
 0.620  0.8250  -52.6   3.611  136.1  0.0917   56.6  0.9050  -24.1
 0.640  0.8176  -54.1   3.578  134.8  0.0938   55.7  0.8998  -24.7
 0.660  0.8107  -55.7   3.547  133.6  0.0958   54.9  0.8948  -25.3
 0.680  0.8044  -57.3   3.518  132.3  0.0979   54.1  0.8899  -26.0
 0.700  0.7988  -58.9   3.491  131.0  0.1000   53.3  0.8851  -26.6
 0.720  0.7899  -60.4   3.470  129.8  0.1018   52.4  0.8800  -27.2
 0.740  0.7815  -61.9   3.452  128.6  0.1036   51.5  0.8750  -27.7
 0.760  0.7737  -63.5   3.434  127.4  0.1055   50.7  0.8700  -28.3
 0.780  0.7665  -65.1   3.418  126.1  0.1073   49.9  0.8652  -28.9
 0.800  0.7599  -66.7   3.404  124.9  0.1092   49.1  0.8604  -29.5
 0.820  0.7529  -68.2   3.373  123.8  0.1108   48.2  0.8547  -30.0
 0.840  0.7464  -69.7   3.344  122.7  0.1125   47.3  0.8491  -30.6
 0.860  0.7404  -71.2   3.316  121.5  0.1142   46.4  0.8436  -31.2
 0.880  0.7349  -72.7   3.289  120.4  0.1159   45.5  0.8382  -31.7
 0.900  0.7300  -74.3   3.264  119.2  0.1176   44.7  0.8328  -32.3
 0.920  0.7224  -75.7   3.229  118.2  0.1188   44.0  0.8277  -32.8
 0.940  0.7153  -77.2   3.194  117.2  0.1200   43.2  0.8227  -33.3
 0.960  0.7086  -78.7   3.161  116.1  0.1213   42.5  0.8177  -33.8
 0.980  0.7024  -80.2   3.128  115.1  0.1225   41.8  0.8128  -34.4
 1.000  0.6967  -81.7   3.097  114.0  0.1238   41.1  0.8080  -34.9
 1.020  0.6891  -83.1   3.073  113.0  0.1251   40.4  0.8034  -35.3
 1.040  0.6819  -84.5   3.051  111.9  0.1265   39.8  0.7988  -35.8
 1.060  0.6751  -86.0   3.029  110.9  0.1278   39.1  0.7943  -36.2
 1.080  0.6688  -87.5   3.008  109.8  0.1292   38.5  0.7898  -36.6
 1.100  0.6629  -89.0   2.989  108.7  0.1306   37.9  0.7854  -37.1
 1.120  0.6563  -90.3   2.960  107.8  0.1316   37.1  0.7814  -37.6
 1.140  0.6501  -91.5   2.932  106.9  0.1327   36.4  0.7775  -38.0
 1.160  0.6442  -92.8   2.905  106.0  0.1337   35.6  0.7737  -38.5
 1.180  0.6386  -94.2   2.879  105.1  0.1348   34.9  0.7699  -38.9
 1.200  0.6334  -95.5   2.853  104.1  0.1359   34.2  0.7661  -39.4
 1.220  0.6281  -96.9   2.828  103.2  0.1367   33.7  0.7619  -39.8
 1.240  0.6232  -98.4   2.803  102.3  0.1375   33.1  0.7577  -40.1
 1.260  0.6187  -99.9   2.779  101.3  0.1384   32.6  0.7536  -40.5
 1.280  0.6146 -101.4   2.755  100.4  0.1392   32.1  0.7495  -40.9
 1.300  0.6109 -102.9   2.733   99.4  0.1401   31.6  0.7454  -41.3
 1.320  0.6032 -104.2   2.710   98.5  0.1409   31.0  0.7415  -41.7
 1.340  0.5959 -105.5   2.687   97.6  0.1416   30.5  0.7376  -42.1
 1.360  0.5889 -106.8   2.665   96.7  0.1424   30.0  0.7337  -42.5
 1.380  0.5822 -108.2   2.644   95.8  0.1432   29.4  0.7299  -42.9
 1.400  0.5758 -109.6   2.623   94.9  0.1440   28.9  0.7261  -43.3
 1.420  0.5720 -111.2   2.606   94.0  0.1444   28.4  0.7220  -43.6
 1.440  0.5687 -112.8   2.589   93.1  0.1448   27.9  0.7178  -43.9
 1.460  0.5658 -114.4   2.573   92.2  0.1452   27.5  0.7137  -44.2
 1.480  0.5634 -116.0   2.558   91.2  0.1456   27.0  0.7097  -44.5
 1.500  0.5614 -117.6   2.543   90.3  0.1460   26.5  0.7056  -44.8
 1.520  0.5549 -118.9   2.520   89.5  0.1467   26.1  0.7029  -45.1
 1.540  0.5487 -120.3   2.498   88.7  0.1474   25.6  0.7002  -45.4
 1.560  0.5427 -121.7   2.476   87.9  0.1481   25.2  0.6975  -45.7
 1.580  0.5372 -123.1   2.455   87.0  0.1488   24.8  0.6948  -46.0
 1.600  0.5319 -124.5   2.434   86.2  0.1495   24.4  0.6922  -46.3
 1.620  0.5285 -125.9   2.416   85.4  0.1495   24.0  0.6881  -46.7
 1.640  0.5255 -127.3   2.398   84.6  0.1496   23.5  0.6840  -47.0
 1.660  0.5227 -128.8   2.381   83.8  0.1496   23.1  0.6799  -47.4
 1.680  0.5204 -130.2   2.364   82.9  0.1496   22.6  0.6759  -47.7
 1.700  0.5183 -131.7   2.348   82.1  0.1497   22.2  0.6719  -48.1
 1.720  0.5140 -133.1   2.328   81.3  0.1501   21.9  0.6690  -48.4
 1.740  0.5100 -134.4   2.309   80.5  0.1506   21.6  0.6661  -48.6
 1.760  0.5063 -135.8   2.291   79.7  0.1510   21.3  0.6633  -48.9
 1.780  0.5030 -137.3   2.273   78.8  0.1515   21.0  0.6604  -49.1
 1.800  0.4999 -138.7   2.255   78.0  0.1519   20.7  0.6576  -49.4
 1.820  0.4978 -140.0   2.238   77.3  0.1521   20.2  0.6546  -49.7
 1.840  0.4960 -141.3   2.220   76.6  0.1524   19.8  0.6515  -50.1
 1.860  0.4945 -142.6   2.204   75.9  0.1526   19.3  0.6485  -50.4
 1.880  0.4932 -144.0   2.187   75.1  0.1528   18.9  0.6456  -50.8
 1.900  0.4922 -145.3   2.171   74.4  0.1531   18.4  0.6426  -51.1
 1.920  0.4883 -146.6   2.153   73.7  0.1535   18.1  0.6405  -51.3
 1.940  0.4847 -148.0   2.136   73.0  0.1539   17.9  0.6384  -51.6
 1.960  0.4814 -149.4   2.120   72.2  0.1543   17.6  0.6364  -51.8
 1.980  0.4784 -150.8   2.103   71.5  0.1547   17.4  0.6343  -52.1
 2.000  0.4756 -152.2   2.087   70.7  0.1551   17.1  0.6323  -52.3
 2.020  0.4731 -153.5   2.071   70.0  0.1551   16.8  0.6299  -52.6
 2.040  0.4709 -154.7   2.056   69.3  0.1552   16.4  0.6276  -52.9
 2.060  0.4688 -156.0   2.040   68.6  0.1552   16.1  0.6252  -53.2
 2.080  0.4671 -157.3   2.025   67.9  0.1553   15.8  0.6229  -53.5
 2.100  0.4655 -158.7   2.011   67.2  0.1553   15.4  0.6206  -53.8
 2.120  0.4643 -160.0   1.996   66.5  0.1554   15.1  0.6183  -54.1
 2.140  0.4632 -161.3   1.982   65.8  0.1555   14.8  0.6160  -54.4
 2.160  0.4624 -162.6   1.968   65.0  0.1555   14.5  0.6138  -54.8
 2.180  0.4619 -164.0   1.955   64.3  0.1556   14.1  0.6115  -55.1
 2.200  0.4616 -165.3   1.942   63.5  0.1557   13.8  0.6093  -55.4
 2.220  0.4601 -166.6   1.928   62.9  0.1558   13.5  0.6074  -55.7
 2.240  0.4588 -167.8   1.915   62.3  0.1559   13.2  0.6055  -56.0
 2.260  0.4578 -169.1   1.901   61.7  0.1560   12.9  0.6036  -56.3
 2.280  0.4569 -170.4   1.888   61.0  0.1561   12.6  0.6018  -56.5
 2.300  0.4563 -171.7   1.875   60.4  0.1562   12.3  0.6000  -56.8
 2.320  0.4560 -173.0   1.862   59.8  0.1564   12.0  0.5981  -57.1
 2.340  0.4558 -174.2   1.850   59.1  0.1565   11.7  0.5963  -57.4
 2.360  0.4559 -175.5   1.838   58.4  0.1566   11.4  0.5945  -57.7
 2.380  0.4562 -176.8   1.826   57.8  0.1568   11.1  0.5928  -58.0
 2.400  0.4568 -178.1   1.814   57.1  0.1569   10.8  0.5910  -58.3
 2.420  0.4564 -179.3   1.801   56.5  0.1568   10.6  0.5888  -58.6
 2.440  0.4562  179.4   1.789   55.9  0.1566   10.4  0.5867  -58.8
 2.460  0.4562  178.2   1.777   55.3  0.1565   10.2  0.5845  -59.1
 2.480  0.4564  176.9   1.765   54.7  0.1564   10.0  0.5824  -59.4
 2.500  0.4569  175.7   1.753   54.1  0.1562    9.9  0.5803  -59.6
 2.520  0.4575  174.4   1.742   53.4  0.1561    9.7  0.5782  -59.9
 2.540  0.4584  173.2   1.731   52.8  0.1560    9.5  0.5761  -60.2
 2.560  0.4595  171.9   1.719   52.1  0.1558    9.3  0.5740  -60.4
 2.580  0.4608  170.7   1.709   51.5  0.1557    9.1  0.5720  -60.7
 2.600  0.4623  169.5   1.698   50.8  0.1556    8.9  0.5699  -61.0
 2.620  0.4625  168.5   1.686   50.2  0.1557    8.7  0.5688  -61.3
 2.640  0.4628  167.4   1.675   49.6  0.1557    8.5  0.5676  -61.6
 2.660  0.4633  166.4   1.663   49.0  0.1558    8.3  0.5665  -61.9
 2.680  0.4639  165.3   1.652   48.3  0.1559    8.1  0.5654  -62.2
 2.700  0.4647  164.3   1.641   47.7  0.1559    7.8  0.5644  -62.5
 2.720  0.4656  163.3   1.630   47.1  0.1560    7.6  0.5633  -62.8
 2.740  0.4667  162.2   1.620   46.4  0.1561    7.4  0.5622  -63.1
 2.760  0.4679  161.2   1.609   45.7  0.1561    7.2  0.5612  -63.4
 2.780  0.4693  160.2   1.599   45.1  0.1562    7.0  0.5602  -63.7
 2.800  0.4708  159.2   1.589   44.4  0.1563    6.8  0.5592  -64.0
 2.820  0.4711  158.1   1.580   43.8  0.1561    6.6  0.5576  -64.3
 2.840  0.4716  157.1   1.571   43.3  0.1560    6.4  0.5560  -64.6
 2.860  0.4723  156.0   1.562   42.7  0.1558    6.2  0.5544  -64.9
 2.880  0.4731  154.9   1.553   42.1  0.1557    6.0  0.5528  -65.2
 2.900  0.4741  153.9   1.544   41.5  0.1555    5.8  0.5513  -65.5
 2.920  0.4752  152.8   1.536   40.9  0.1554    5.6  0.5498  -65.8
 2.940  0.4765  151.8   1.528   40.3  0.1552    5.4  0.5482  -66.2
 2.960  0.4779  150.8   1.520   39.7  0.1551    5.2  0.5467  -66.5
 2.980  0.4795  149.7   1.512   39.0  0.1549    5.0  0.5453  -66.8
 3.000  0.4813  148.7   1.504   38.4  0.1548    4.8  0.5438  -67.1
 3.100  0.4843  144.3   1.456   36.0  0.1548    4.2  0.5396  -68.7
 3.200  0.4902  139.9   1.411   33.5  0.1548    3.6  0.5358  -70.3
 3.300  0.4989  135.6   1.369   30.8  0.1548    3.0  0.5324  -71.9
 3.400  0.5102  131.6   1.330   28.0  0.1548    2.4  0.5294  -73.5
 3.500  0.5239  127.7   1.294   25.0  0.1549    1.8  0.5269  -75.2
 3.600  0.5305  124.5   1.257   22.9  0.1543    1.3  0.5229  -77.1
 3.700  0.5387  121.4   1.221   20.6  0.1537    0.8  0.5194  -79.0
 3.800  0.5485  118.4   1.188   18.2  0.1531    0.3  0.5166  -81.0
 3.900  0.5597  115.6   1.157   15.7  0.1526   -0.3  0.5143  -82.9
 4.000  0.5722  112.8   1.128   13.0  0.1520   -0.8  0.5127  -84.9
 4.100  0.5785  110.2   1.097   11.0  0.1515   -1.1  0.5105  -87.0
 4.200  0.5859  107.6   1.067    8.9  0.1511   -1.4  0.5090  -89.2
 4.300  0.5945  105.1   1.039    6.7  0.1506   -1.8  0.5082  -91.3
 4.400  0.6042  102.7   1.012    4.4  0.1502   -2.1  0.5082  -93.5
 4.500  0.6149  100.4   0.987    1.9  0.1497   -2.4  0.5088  -95.6
 4.600  0.6206   98.5   0.962    0.2  0.1493   -2.3  0.5068  -97.8
 4.700  0.6269   96.6   0.938   -1.5  0.1490   -2.2  0.5055 -100.0
 4.800  0.6339   94.8   0.914   -3.4  0.1486   -2.2  0.5050 -102.2
 4.900  0.6415   93.0   0.892   -5.4  0.1483   -2.1  0.5052 -104.4
 5.000  0.6498   91.2   0.871   -7.4  0.1479   -2.0  0.5062 -106.6
 5.100  0.6545   89.7   0.851   -9.0  0.1489   -1.8  0.5068 -108.9
 5.200  0.6596   88.2   0.832  -10.7  0.1499   -1.6  0.5081 -111.1
 5.300  0.6652   86.7   0.813  -12.4  0.1508   -1.4  0.5103 -113.3
 5.400  0.6712   85.2   0.796  -14.3  0.1518   -1.2  0.5132 -115.5
 5.500  0.6776   83.8   0.779  -16.2  0.1528   -1.0  0.5168 -117.7
 5.600  0.6833   82.4   0.761  -17.7  0.1542   -1.0  0.5182 -120.0
 5.700  0.6895   81.0   0.743  -19.2  0.1556   -1.1  0.5204 -122.3
 5.800  0.6960   79.6   0.726  -20.8  0.1571   -1.1  0.5234 -124.6
 5.900  0.7030   78.2   0.709  -22.5  0.1585   -1.2  0.5273 -126.8
 6.000  0.7103   76.9   0.693  -24.3  0.1599   -1.2  0.5319 -129.0
!
!  f       NFmin   Gammaopt  rn/50
! GHz       dB    MAG  ANG    -
!
! noise parameter not available yet for this operation point!
!
! (c) 2016  Infineon Technologies AG, Munich
