! Infineon Technologies  Discrete & RF Semiconductors
! BFP181
! VCE = 8.0 V,  IC =  20 mA
! Common Emitter S-Parameters:                            Jan 2016
# GHz  S  MA  R  50
!  f         S11            S21            S12            S22
! GHz     MAG   ANG      MAG   ANG      MAG   ANG      MAG   ANG
 0.010  0.6972   -3.2  26.744  176.4  0.0012   77.4  0.9598   -0.8
 0.015  0.6980   -5.3  26.696  175.6  0.0016   76.6  0.9588   -1.5
 0.020  0.6997   -7.3  26.654  174.7  0.0020   76.1  0.9580   -2.2
 0.025  0.6968   -9.0  26.558  173.5  0.0027   78.1  0.9560   -2.9
 0.030  0.6946  -10.8  26.473  172.3  0.0034   79.3  0.9542   -3.6
 0.035  0.6930  -12.6  26.401  171.1  0.0041   80.1  0.9525   -4.2
 0.040  0.6921  -14.3  26.340  169.9  0.0048   80.7  0.9510   -4.9
 0.045  0.6918  -16.1  26.292  168.6  0.0055   81.1  0.9496   -5.6
 0.050  0.6922  -17.9  26.255  167.4  0.0062   81.4  0.9483   -6.3
 0.055  0.6858  -19.5  26.044  166.3  0.0066   80.1  0.9443   -6.9
 0.060  0.6799  -21.1  25.841  165.2  0.0071   79.0  0.9404   -7.4
 0.065  0.6746  -22.7  25.649  164.1  0.0075   78.0  0.9367   -8.0
 0.070  0.6698  -24.4  25.466  163.0  0.0079   77.1  0.9330   -8.6
 0.075  0.6657  -26.1  25.292  161.9  0.0084   76.3  0.9294   -9.2
 0.080  0.6621  -27.8  25.129  160.7  0.0088   75.6  0.9259   -9.8
 0.085  0.6591  -29.5  24.976  159.6  0.0093   74.9  0.9225  -10.4
 0.090  0.6567  -31.3  24.834  158.4  0.0097   74.3  0.9192  -11.0
 0.095  0.6549  -33.0  24.702  157.2  0.0102   73.8  0.9160  -11.6
 0.100  0.6537  -34.8  24.581  156.0  0.0106   73.3  0.9129  -12.2
 0.105  0.6475  -36.3  24.366  155.0  0.0111   72.3  0.9074  -12.6
 0.110  0.6418  -37.8  24.159  154.0  0.0116   71.4  0.9019  -13.1
 0.115  0.6365  -39.3  23.959  153.0  0.0121   70.5  0.8964  -13.5
 0.120  0.6316  -40.8  23.768  151.9  0.0126   69.7  0.8910  -13.9
 0.125  0.6273  -42.4  23.584  150.9  0.0131   69.0  0.8857  -14.4
 0.130  0.6234  -44.0  23.409  149.8  0.0136   68.3  0.8804  -14.8
 0.135  0.6200  -45.6  23.242  148.7  0.0142   67.7  0.8752  -15.3
 0.140  0.6170  -47.2  23.083  147.6  0.0147   67.1  0.8701  -15.8
 0.145  0.6146  -48.9  22.934  146.4  0.0152   66.6  0.8649  -16.2
 0.150  0.6127  -50.5  22.793  145.3  0.0157   66.1  0.8599  -16.7
 0.155  0.6067  -51.8  22.572  144.5  0.0160   65.7  0.8545  -17.0
 0.160  0.6009  -53.1  22.355  143.7  0.0164   65.4  0.8491  -17.3
 0.165  0.5955  -54.4  22.143  142.8  0.0167   65.0  0.8438  -17.7
 0.170  0.5904  -55.8  21.936  142.0  0.0170   64.7  0.8384  -18.0
 0.175  0.5857  -57.2  21.733  141.1  0.0173   64.3  0.8331  -18.3
 0.180  0.5813  -58.6  21.536  140.2  0.0177   64.0  0.8279  -18.7
 0.185  0.5772  -60.0  21.344  139.3  0.0180   63.7  0.8226  -19.0
 0.190  0.5735  -61.5  21.158  138.4  0.0183   63.4  0.8174  -19.4
 0.195  0.5702  -62.9  20.977  137.5  0.0187   63.2  0.8122  -19.7
 0.200  0.5673  -64.4  20.802  136.5  0.0190   62.9  0.8071  -20.1
 0.220  0.5494  -69.0  19.907  133.7  0.0202   61.6  0.7877  -21.0
 0.240  0.5354  -74.0  19.064  130.7  0.0214   60.5  0.7686  -22.0
 0.260  0.5211  -78.5  18.304  128.0  0.0225   59.4  0.7507  -22.8
 0.280  0.5054  -82.6  17.607  125.8  0.0235   58.2  0.7340  -23.4
 0.300  0.4926  -87.0  16.940  123.3  0.0245   57.1  0.7173  -24.0
 0.320  0.4782  -90.4  16.310  121.6  0.0253   56.6  0.7043  -24.3
 0.340  0.4655  -94.0  15.697  119.7  0.0260   56.1  0.6913  -24.6
 0.360  0.4548  -97.8  15.102  117.7  0.0268   55.6  0.6783  -24.9
 0.380  0.4462 -101.7  14.527  115.5  0.0275   55.2  0.6653  -25.2
 0.400  0.4397 -105.8  13.975  113.1  0.0283   54.8  0.6524  -25.5
 0.420  0.4300 -108.5  13.509  111.8  0.0289   54.6  0.6438  -25.7
 0.440  0.4214 -111.4  13.050  110.4  0.0296   54.3  0.6351  -25.8
 0.450  0.4174 -112.8  12.823  109.7  0.0299   54.2  0.6308  -25.9
 0.460  0.4138 -114.3  12.598  109.0  0.0302   54.1  0.6265  -26.0
 0.480  0.4074 -117.4  12.156  107.4  0.0309   53.9  0.6178  -26.1
 0.500  0.4021 -120.5  11.724  105.7  0.0315   53.7  0.6092  -26.3
 0.520  0.3961 -122.9  11.398  104.7  0.0322   53.6  0.6033  -26.4
 0.540  0.3908 -125.3  11.075  103.5  0.0329   53.6  0.5973  -26.5
 0.560  0.3863 -127.8  10.757  102.4  0.0337   53.5  0.5914  -26.7
 0.580  0.3825 -130.4  10.444  101.1  0.0344   53.5  0.5854  -26.8
 0.600  0.3795 -133.0  10.136   99.8  0.0351   53.4  0.5795  -26.9
 0.620  0.3749 -135.2   9.861   98.9  0.0357   53.4  0.5753  -27.0
 0.640  0.3708 -137.4   9.588   98.0  0.0362   53.4  0.5711  -27.0
 0.660  0.3673 -139.7   9.317   97.0  0.0368   53.5  0.5668  -27.1
 0.680  0.3643 -142.0   9.050   95.9  0.0373   53.5  0.5626  -27.1
 0.700  0.3620 -144.3   8.786   94.8  0.0379   53.5  0.5584  -27.2
 0.720  0.3598 -146.1   8.593   94.0  0.0384   53.6  0.5556  -27.3
 0.740  0.3579 -147.9   8.401   93.2  0.0389   53.7  0.5528  -27.4
 0.760  0.3564 -149.8   8.212   92.3  0.0394   53.8  0.5500  -27.4
 0.780  0.3553 -151.6   8.024   91.4  0.0399   53.9  0.5472  -27.5
 0.800  0.3546 -153.5   7.838   90.5  0.0404   54.0  0.5444  -27.6
 0.820  0.3526 -155.1   7.677   89.8  0.0412   54.1  0.5420  -27.7
 0.840  0.3509 -156.7   7.518   89.1  0.0420   54.2  0.5395  -27.8
 0.860  0.3494 -158.4   7.359   88.4  0.0427   54.2  0.5371  -27.8
 0.880  0.3483 -160.0   7.202   87.6  0.0435   54.3  0.5346  -27.9
 0.900  0.3474 -161.7   7.046   86.8  0.0443   54.4  0.5322  -28.0
 0.920  0.3461 -163.3   6.907   86.1  0.0448   54.4  0.5304  -28.1
 0.940  0.3451 -164.9   6.768   85.4  0.0453   54.4  0.5286  -28.3
 0.960  0.3444 -166.5   6.631   84.7  0.0457   54.5  0.5267  -28.4
 0.980  0.3439 -168.1   6.495   84.0  0.0462   54.5  0.5249  -28.6
 1.000  0.3437 -169.7   6.360   83.2  0.0467   54.5  0.5231  -28.7
 1.020  0.3432 -171.0   6.257   82.6  0.0476   54.5  0.5217  -28.9
 1.040  0.3430 -172.3   6.154   81.9  0.0485   54.5  0.5202  -29.0
 1.060  0.3429 -173.7   6.052   81.3  0.0494   54.5  0.5188  -29.2
 1.080  0.3429 -175.0   5.951   80.6  0.0503   54.5  0.5174  -29.3
 1.100  0.3432 -176.3   5.851   79.9  0.0512   54.5  0.5160  -29.5
 1.120  0.3434 -177.6   5.753   79.4  0.0517   54.4  0.5149  -29.7
 1.140  0.3437 -179.0   5.655   78.8  0.0522   54.3  0.5139  -29.9
 1.160  0.3443  179.7   5.558   78.2  0.0526   54.3  0.5128  -30.1
 1.180  0.3450  178.4   5.462   77.6  0.0531   54.2  0.5117  -30.3
 1.200  0.3459  177.1   5.366   77.0  0.0536   54.1  0.5107  -30.5
 1.220  0.3464  176.2   5.282   76.5  0.0543   54.1  0.5098  -30.7
 1.240  0.3470  175.2   5.199   75.9  0.0550   54.1  0.5088  -30.9
 1.260  0.3476  174.3   5.116   75.3  0.0557   54.1  0.5079  -31.1
 1.280  0.3484  173.4   5.034   74.7  0.0564   54.1  0.5070  -31.3
 1.300  0.3492  172.5   4.952   74.1  0.0571   54.1  0.5061  -31.5
 1.320  0.3487  171.3   4.887   73.6  0.0577   54.1  0.5051  -31.7
 1.340  0.3484  170.2   4.822   73.1  0.0583   54.1  0.5041  -31.9
 1.360  0.3482  169.0   4.757   72.5  0.0590   54.0  0.5031  -32.1
 1.380  0.3482  167.9   4.693   72.0  0.0596   54.0  0.5022  -32.3
 1.400  0.3483  166.7   4.629   71.4  0.0602   54.0  0.5012  -32.5
 1.420  0.3496  165.8   4.568   70.8  0.0609   54.0  0.5005  -32.7
 1.440  0.3510  165.0   4.508   70.2  0.0615   54.0  0.4998  -32.9
 1.460  0.3525  164.2   4.449   69.6  0.0622   54.0  0.4991  -33.1
 1.480  0.3541  163.3   4.390   69.0  0.0628   54.0  0.4985  -33.3
 1.500  0.3557  162.5   4.331   68.4  0.0635   54.0  0.4978  -33.5
 1.520  0.3567  161.4   4.277   67.9  0.0642   53.9  0.4972  -33.7
 1.540  0.3579  160.2   4.223   67.4  0.0649   53.7  0.4965  -34.0
 1.560  0.3592  159.1   4.169   66.9  0.0657   53.6  0.4959  -34.2
 1.580  0.3607  158.0   4.116   66.4  0.0664   53.4  0.4953  -34.5
 1.600  0.3623  156.9   4.063   65.9  0.0671   53.3  0.4947  -34.7
 1.620  0.3625  156.0   4.013   65.4  0.0678   53.3  0.4941  -35.0
 1.640  0.3628  155.0   3.963   64.9  0.0685   53.2  0.4934  -35.3
 1.660  0.3631  154.1   3.914   64.4  0.0691   53.2  0.4928  -35.5
 1.680  0.3636  153.1   3.865   63.8  0.0698   53.1  0.4922  -35.8
 1.700  0.3642  152.2   3.816   63.3  0.0705   53.1  0.4916  -36.1
 1.720  0.3663  151.4   3.775   62.8  0.0711   53.0  0.4908  -36.3
 1.740  0.3684  150.7   3.735   62.3  0.0717   52.9  0.4900  -36.6
 1.760  0.3706  150.0   3.695   61.8  0.0724   52.9  0.4892  -36.8
 1.780  0.3728  149.2   3.655   61.3  0.0730   52.8  0.4884  -37.1
 1.800  0.3751  148.5   3.616   60.8  0.0736   52.7  0.4876  -37.3
 1.820  0.3757  147.7   3.580   60.4  0.0743   52.6  0.4870  -37.6
 1.840  0.3764  147.0   3.543   59.9  0.0750   52.5  0.4864  -37.9
 1.860  0.3771  146.2   3.507   59.4  0.0757   52.3  0.4858  -38.1
 1.880  0.3779  145.5   3.472   59.0  0.0764   52.2  0.4853  -38.4
 1.900  0.3788  144.7   3.436   58.5  0.0771   52.1  0.4847  -38.7
 1.920  0.3802  143.9   3.398   58.1  0.0777   52.0  0.4841  -39.0
 1.940  0.3816  143.2   3.360   57.6  0.0783   51.9  0.4835  -39.3
 1.960  0.3831  142.4   3.323   57.2  0.0788   51.7  0.4829  -39.5
 1.980  0.3847  141.6   3.285   56.7  0.0794   51.6  0.4824  -39.8
 2.000  0.3863  140.9   3.248   56.2  0.0800   51.5  0.4818  -40.1
 2.020  0.3881  140.2   3.218   55.8  0.0806   51.4  0.4811  -40.4
 2.040  0.3899  139.5   3.188   55.3  0.0813   51.3  0.4804  -40.7
 2.060  0.3918  138.9   3.158   54.9  0.0819   51.2  0.4797  -41.0
 2.080  0.3938  138.2   3.129   54.4  0.0826   51.0  0.4790  -41.3
 2.100  0.3958  137.6   3.099   53.9  0.0832   50.9  0.4783  -41.5
 2.120  0.3978  136.9   3.070   53.4  0.0838   50.8  0.4776  -41.8
 2.140  0.3999  136.3   3.041   52.9  0.0845   50.7  0.4770  -42.1
 2.160  0.4021  135.6   3.013   52.4  0.0851   50.6  0.4763  -42.4
 2.180  0.4043  135.0   2.984   51.9  0.0858   50.5  0.4757  -42.7
 2.200  0.4065  134.4   2.956   51.4  0.0864   50.4  0.4751  -43.0
 2.220  0.4080  133.7   2.931   51.0  0.0871   50.2  0.4744  -43.3
 2.240  0.4096  133.0   2.907   50.6  0.0878   50.1  0.4736  -43.6
 2.260  0.4112  132.3   2.883   50.2  0.0885   49.9  0.4729  -44.0
 2.280  0.4129  131.7   2.859   49.7  0.0892   49.7  0.4722  -44.3
 2.300  0.4146  131.0   2.835   49.3  0.0899   49.6  0.4715  -44.6
 2.320  0.4164  130.3   2.811   48.8  0.0906   49.4  0.4708  -44.9
 2.340  0.4182  129.6   2.788   48.4  0.0913   49.3  0.4702  -45.2
 2.360  0.4201  129.0   2.764   47.9  0.0920   49.1  0.4695  -45.6
 2.380  0.4221  128.3   2.741   47.5  0.0927   48.9  0.4689  -45.9
 2.400  0.4241  127.7   2.718   47.0  0.0934   48.8  0.4683  -46.2
 2.420  0.4258  127.1   2.695   46.6  0.0940   48.7  0.4674  -46.5
 2.440  0.4276  126.5   2.672   46.2  0.0945   48.5  0.4665  -46.8
 2.460  0.4293  125.9   2.650   45.8  0.0951   48.4  0.4656  -47.1
 2.480  0.4312  125.4   2.627   45.3  0.0957   48.3  0.4647  -47.5
 2.500  0.4331  124.8   2.605   44.9  0.0962   48.1  0.4639  -47.8
 2.520  0.4350  124.2   2.582   44.5  0.0968   48.0  0.4630  -48.1
 2.540  0.4370  123.7   2.560   44.0  0.0974   47.9  0.4622  -48.4
 2.560  0.4390  123.1   2.538   43.5  0.0980   47.7  0.4614  -48.8
 2.580  0.4410  122.5   2.517   43.1  0.0985   47.6  0.4606  -49.1
 2.600  0.4431  122.0   2.495   42.6  0.0991   47.5  0.4598  -49.4
 2.620  0.4449  121.5   2.477   42.2  0.0997   47.3  0.4591  -49.7
 2.640  0.4468  121.0   2.458   41.8  0.1003   47.1  0.4584  -50.1
 2.660  0.4487  120.5   2.440   41.3  0.1009   47.0  0.4578  -50.4
 2.680  0.4506  119.9   2.423   40.9  0.1015   46.8  0.4572  -50.8
 2.700  0.4526  119.4   2.405   40.5  0.1021   46.6  0.4565  -51.1
 2.720  0.4546  118.9   2.387   40.0  0.1027   46.5  0.4559  -51.5
 2.740  0.4566  118.5   2.370   39.6  0.1033   46.3  0.4554  -51.8
 2.760  0.4587  118.0   2.352   39.1  0.1039   46.1  0.4548  -52.2
 2.780  0.4608  117.5   2.335   38.7  0.1045   46.0  0.4542  -52.5
 2.800  0.4629  117.0   2.318   38.2  0.1051   45.8  0.4537  -52.9
 2.820  0.4648  116.5   2.302   37.8  0.1057   45.7  0.4528  -53.2
 2.840  0.4668  116.0   2.286   37.4  0.1063   45.5  0.4519  -53.6
 2.860  0.4688  115.5   2.270   37.0  0.1069   45.4  0.4511  -53.9
 2.880  0.4708  115.0   2.254   36.6  0.1075   45.2  0.4502  -54.2
 2.900  0.4729  114.5   2.238   36.2  0.1081   45.1  0.4494  -54.5
 2.920  0.4750  114.0   2.222   35.8  0.1088   44.9  0.4485  -54.9
 2.940  0.4772  113.5   2.207   35.3  0.1094   44.8  0.4477  -55.2
 2.960  0.4793  113.0   2.191   34.9  0.1100   44.7  0.4469  -55.5
 2.980  0.4816  112.6   2.176   34.4  0.1106   44.5  0.4462  -55.9
 3.000  0.4838  112.1   2.161   34.0  0.1112   44.4  0.4454  -56.2
 3.100  0.4919  109.8   2.091   32.2  0.1140   43.5  0.4414  -58.0
 3.200  0.5008  107.6   2.024   30.4  0.1169   42.7  0.4378  -59.9
 3.300  0.5104  105.4   1.958   28.3  0.1197   41.9  0.4348  -61.8
 3.400  0.5207  103.4   1.896   26.2  0.1226   41.2  0.4322  -63.8
 3.500  0.5317  101.4   1.836   23.9  0.1255   40.5  0.4301  -65.7
 3.600  0.5405   99.6   1.784   22.2  0.1282   39.6  0.4258  -67.7
 3.700  0.5499   97.9   1.734   20.4  0.1310   38.7  0.4220  -69.8
 3.800  0.5597   96.3   1.686   18.5  0.1338   37.8  0.4187  -71.8
 3.900  0.5699   94.7   1.639   16.5  0.1366   37.0  0.4160  -74.0
 4.000  0.5806   93.2   1.595   14.4  0.1394   36.2  0.4139  -76.1
 4.100  0.5866   91.6   1.552   12.8  0.1418   35.3  0.4101  -78.3
 4.200  0.5931   90.1   1.510   11.0  0.1442   34.5  0.4070  -80.5
 4.300  0.5999   88.5   1.470    9.2  0.1467   33.7  0.4045  -82.8
 4.400  0.6072   87.0   1.432    7.2  0.1492   32.9  0.4026  -85.1
 4.500  0.6149   85.6   1.395    5.2  0.1517   32.1  0.4014  -87.4
 4.600  0.6214   84.3   1.361    3.7  0.1541   31.4  0.3988  -89.6
 4.700  0.6282   83.0   1.328    2.2  0.1565   30.6  0.3968  -91.9
 4.800  0.6353   81.8   1.296    0.6  0.1590   29.9  0.3955  -94.1
 4.900  0.6426   80.6   1.265   -1.1  0.1615   29.3  0.3947  -96.4
 5.000  0.6503   79.4   1.235   -2.9  0.1640   28.6  0.3946  -98.7
 5.100  0.6552   78.3   1.207   -4.4  0.1667   27.8  0.3944 -101.1
 5.200  0.6603   77.2   1.180   -5.9  0.1695   27.0  0.3948 -103.4
 5.300  0.6657   76.2   1.154   -7.5  0.1723   26.2  0.3959 -105.8
 5.400  0.6713   75.1   1.129   -9.2  0.1751   25.5  0.3977 -108.1
 5.500  0.6771   74.1   1.105  -10.9  0.1780   24.8  0.4001 -110.4
 5.600  0.6824   73.1   1.083  -12.3  0.1805   23.9  0.4011 -112.8
 5.700  0.6879   72.1   1.061  -13.8  0.1831   23.0  0.4028 -115.1
 5.800  0.6936   71.2   1.040  -15.3  0.1857   22.1  0.4051 -117.4
 5.900  0.6995   70.2   1.020  -16.9  0.1883   21.3  0.4081 -119.7
 6.000  0.7056   69.3   1.001  -18.5  0.1910   20.5  0.4118 -122.0
!
!  f       NFmin   Gammaopt  rn/50
! GHz       dB    MAG  ANG    -
!
! noise parameter not available yet for this operation point!
!
! (c) 2016  Infineon Technologies AG, Munich
