! Infineon Technologies  Discrete & RF Semiconductors
! BFP193
! VCE = 10.0V,  IC =  10 mA
! Common Emitter S-Parameters:                            Jan 2016
# GHz  S  MA  R  50
!  f         S11            S21            S12            S22
! GHz     MAG   ANG      MAG   ANG      MAG   ANG      MAG   ANG
 0.010  0.7892   -6.3  26.472  176.6  0.0032   83.5  0.9654   -3.2
 0.015  0.7866   -9.2  26.101  174.1  0.0048   82.6  0.9608   -4.7
 0.020  0.7860  -12.2  25.779  171.6  0.0064   82.1  0.9569   -6.2
 0.025  0.7779  -15.1  25.549  169.9  0.0079   79.6  0.9499   -7.7
 0.030  0.7719  -18.1  25.341  168.2  0.0094   77.8  0.9435   -9.1
 0.035  0.7680  -21.1  25.156  166.5  0.0109   76.6  0.9378  -10.6
 0.040  0.7662  -24.1  24.993  164.8  0.0124   75.6  0.9327  -12.1
 0.045  0.7665  -27.1  24.855  163.0  0.0139   74.9  0.9283  -13.7
 0.050  0.7689  -30.1  24.740  161.2  0.0154   74.3  0.9245  -15.2
 0.055  0.7573  -32.6  24.410  159.8  0.0166   72.4  0.9131  -16.3
 0.060  0.7473  -35.2  24.096  158.3  0.0179   70.7  0.9020  -17.5
 0.065  0.7387  -37.8  23.797  156.9  0.0191   69.3  0.8913  -18.7
 0.070  0.7318  -40.5  23.514  155.3  0.0204   68.0  0.8810  -19.9
 0.075  0.7264  -43.2  23.249  153.8  0.0217   66.9  0.8712  -21.2
 0.080  0.7228  -46.0  23.001  152.2  0.0230   65.9  0.8618  -22.5
 0.085  0.7208  -48.7  22.771  150.6  0.0243   65.1  0.8528  -23.8
 0.090  0.7206  -51.5  22.560  148.9  0.0256   64.3  0.8442  -25.1
 0.095  0.7220  -54.3  22.368  147.2  0.0269   63.5  0.8362  -26.5
 0.100  0.7252  -57.1  22.196  145.5  0.0282   62.9  0.8286  -27.9
 0.105  0.7156  -59.1  21.835  144.4  0.0290   61.9  0.8168  -28.7
 0.110  0.7069  -61.2  21.483  143.2  0.0299   60.9  0.8051  -29.5
 0.115  0.6991  -63.3  21.140  142.0  0.0307   60.0  0.7936  -30.4
 0.120  0.6923  -65.4  20.806  140.8  0.0316   59.1  0.7823  -31.2
 0.125  0.6865  -67.6  20.482  139.5  0.0324   58.3  0.7711  -32.1
 0.130  0.6816  -69.8  20.169  138.2  0.0333   57.5  0.7602  -33.0
 0.135  0.6779  -72.1  19.867  136.8  0.0342   56.7  0.7494  -34.0
 0.140  0.6751  -74.3  19.577  135.4  0.0350   56.0  0.7389  -35.0
 0.145  0.6735  -76.6  19.298  134.0  0.0359   55.3  0.7286  -36.0
 0.150  0.6729  -78.9  19.032  132.5  0.0368   54.7  0.7185  -37.0
 0.155  0.6671  -80.6  18.755  131.7  0.0373   54.2  0.7091  -37.5
 0.160  0.6618  -82.3  18.482  130.9  0.0379   53.6  0.6998  -38.1
 0.165  0.6572  -84.1  18.213  130.0  0.0384   53.1  0.6906  -38.7
 0.170  0.6531  -85.8  17.949  129.1  0.0390   52.6  0.6814  -39.2
 0.175  0.6497  -87.6  17.688  128.2  0.0395   52.1  0.6724  -39.8
 0.180  0.6470  -89.5  17.432  127.3  0.0401   51.7  0.6633  -40.5
 0.185  0.6449  -91.3  17.181  126.3  0.0406   51.2  0.6544  -41.1
 0.190  0.6435  -93.1  16.935  125.4  0.0412   50.8  0.6455  -41.7
 0.195  0.6427  -95.0  16.694  124.3  0.0417   50.3  0.6368  -42.4
 0.200  0.6426  -96.8  16.458  123.3  0.0423   49.9  0.6281  -43.1
 0.220  0.6253 -102.5  15.506  120.5  0.0440   48.3  0.5956  -44.7
 0.240  0.6143 -108.4  14.597  117.3  0.0456   46.8  0.5637  -46.4
 0.260  0.6069 -113.6  13.795  114.5  0.0472   45.8  0.5362  -48.0
 0.280  0.6005 -117.9  13.076  112.4  0.0486   45.1  0.5130  -49.2
 0.300  0.5977 -122.4  12.377  110.1  0.0500   44.5  0.4900  -50.5
 0.320  0.5891 -125.6  11.844  108.7  0.0509   44.2  0.4729  -51.0
 0.340  0.5824 -128.9  11.318  107.2  0.0518   43.8  0.4559  -51.6
 0.360  0.5777 -132.3  10.800  105.6  0.0527   43.5  0.4389  -52.2
 0.380  0.5750 -135.7  10.292  103.8  0.0536   43.2  0.4219  -52.8
 0.400  0.5744 -139.1   9.796  101.8  0.0545   42.9  0.4050  -53.5
 0.420  0.5699 -141.4   9.427  100.6  0.0554   42.8  0.3941  -53.8
 0.440  0.5664 -143.8   9.063   99.4  0.0563   42.8  0.3833  -54.1
 0.450  0.5650 -145.0   8.882   98.7  0.0567   42.7  0.3779  -54.3
 0.460  0.5639 -146.2   8.703   98.1  0.0571   42.7  0.3724  -54.5
 0.480  0.5624 -148.7   8.348   96.6  0.0580   42.7  0.3616  -54.8
 0.500  0.5619 -151.1   7.999   95.0  0.0589   42.6  0.3508  -55.2
 0.520  0.5595 -153.1   7.754   94.0  0.0598   42.7  0.3434  -55.4
 0.540  0.5577 -155.1   7.511   93.0  0.0608   42.9  0.3360  -55.6
 0.560  0.5566 -157.1   7.270   91.9  0.0617   43.0  0.3286  -55.9
 0.580  0.5562 -159.1   7.033   90.7  0.0627   43.1  0.3212  -56.1
 0.600  0.5565 -161.1   6.798   89.5  0.0636   43.2  0.3138  -56.4
 0.620  0.5554 -162.7   6.615   88.6  0.0644   43.4  0.3087  -56.6
 0.640  0.5548 -164.3   6.434   87.7  0.0652   43.5  0.3036  -56.7
 0.660  0.5546 -166.0   6.254   86.8  0.0661   43.7  0.2986  -56.9
 0.680  0.5549 -167.6   6.077   85.8  0.0669   43.8  0.2935  -57.1
 0.700  0.5556 -169.2   5.901   84.7  0.0677   44.0  0.2884  -57.3
 0.720  0.5555 -170.4   5.756   84.0  0.0687   44.1  0.2848  -57.5
 0.740  0.5556 -171.6   5.613   83.2  0.0697   44.3  0.2811  -57.6
 0.760  0.5559 -172.9   5.470   82.4  0.0707   44.4  0.2775  -57.8
 0.780  0.5565 -174.1   5.328   81.6  0.0717   44.6  0.2738  -58.0
 0.800  0.5574 -175.3   5.188   80.7  0.0727   44.7  0.2702  -58.2
 0.820  0.5554 -176.5   5.073   80.0  0.0737   44.9  0.2676  -58.3
 0.840  0.5537 -177.7   4.959   79.3  0.0746   45.0  0.2650  -58.4
 0.860  0.5523 -178.9   4.846   78.5  0.0756   45.2  0.2624  -58.6
 0.880  0.5511  179.8   4.733   77.7  0.0765   45.3  0.2598  -58.7
 0.900  0.5501  178.6   4.622   76.9  0.0775   45.5  0.2572  -58.8
 0.920  0.5506  177.5   4.535   76.2  0.0784   45.6  0.2553  -59.0
 0.940  0.5513  176.3   4.448   75.5  0.0793   45.7  0.2535  -59.2
 0.960  0.5523  175.2   4.362   74.8  0.0802   45.8  0.2516  -59.5
 0.980  0.5534  174.1   4.277   74.1  0.0811   45.9  0.2498  -59.7
 1.000  0.5548  173.0   4.193   73.3  0.0820   46.0  0.2479  -59.9
 1.020  0.5553  172.0   4.120   72.7  0.0830   46.1  0.2461  -60.2
 1.040  0.5559  171.1   4.048   72.0  0.0840   46.3  0.2444  -60.5
 1.060  0.5567  170.1   3.976   71.3  0.0851   46.4  0.2426  -60.8
 1.080  0.5577  169.2   3.905   70.6  0.0861   46.6  0.2408  -61.1
 1.100  0.5588  168.2   3.834   69.9  0.0871   46.7  0.2391  -61.4
 1.120  0.5596  167.2   3.773   69.3  0.0881   46.8  0.2377  -61.7
 1.140  0.5606  166.3   3.712   68.7  0.0891   47.0  0.2364  -62.0
 1.160  0.5618  165.3   3.651   68.0  0.0902   47.1  0.2350  -62.3
 1.180  0.5631  164.4   3.591   67.4  0.0912   47.3  0.2336  -62.7
 1.200  0.5646  163.4   3.532   66.7  0.0922   47.4  0.2323  -63.0
 1.220  0.5640  162.5   3.476   66.1  0.0933   47.4  0.2311  -63.3
 1.240  0.5636  161.7   3.421   65.6  0.0943   47.4  0.2300  -63.6
 1.260  0.5633  160.8   3.366   65.0  0.0954   47.3  0.2288  -63.8
 1.280  0.5631  160.0   3.312   64.3  0.0964   47.3  0.2276  -64.1
 1.300  0.5631  159.1   3.258   63.7  0.0975   47.3  0.2265  -64.4
 1.320  0.5643  158.3   3.211   63.2  0.0984   47.4  0.2258  -64.8
 1.340  0.5655  157.5   3.164   62.6  0.0994   47.4  0.2251  -65.2
 1.360  0.5669  156.7   3.118   62.1  0.1003   47.5  0.2244  -65.6
 1.380  0.5684  156.0   3.072   61.5  0.1013   47.5  0.2237  -66.0
 1.400  0.5700  155.2   3.026   60.9  0.1022   47.6  0.2230  -66.4
 1.420  0.5708  154.5   2.992   60.3  0.1033   47.6  0.2221  -66.8
 1.440  0.5717  153.8   2.958   59.8  0.1045   47.6  0.2212  -67.2
 1.460  0.5727  153.1   2.924   59.2  0.1056   47.7  0.2204  -67.6
 1.480  0.5738  152.4   2.890   58.6  0.1068   47.7  0.2195  -68.0
 1.500  0.5750  151.7   2.857   58.0  0.1079   47.7  0.2187  -68.4
 1.520  0.5758  150.9   2.817   57.4  0.1090   47.6  0.2179  -68.8
 1.540  0.5766  150.2   2.777   56.8  0.1102   47.6  0.2171  -69.2
 1.560  0.5776  149.4   2.738   56.2  0.1113   47.5  0.2163  -69.6
 1.580  0.5786  148.7   2.699   55.6  0.1125   47.5  0.2156  -70.0
 1.600  0.5798  147.9   2.660   54.9  0.1136   47.4  0.2148  -70.4
 1.620  0.5810  147.1   2.630   54.4  0.1146   47.4  0.2141  -70.8
 1.640  0.5823  146.4   2.600   53.8  0.1157   47.4  0.2134  -71.2
 1.660  0.5836  145.6   2.570   53.3  0.1167   47.3  0.2128  -71.6
 1.680  0.5851  144.9   2.541   52.7  0.1178   47.3  0.2121  -72.0
 1.700  0.5867  144.1   2.512   52.1  0.1188   47.3  0.2115  -72.4
 1.720  0.5877  143.5   2.487   51.6  0.1199   47.2  0.2114  -72.8
 1.740  0.5887  142.9   2.461   51.2  0.1210   47.1  0.2112  -73.2
 1.760  0.5899  142.2   2.436   50.7  0.1220   46.9  0.2111  -73.6
 1.780  0.5910  141.6   2.412   50.2  0.1231   46.8  0.2110  -74.0
 1.800  0.5923  141.0   2.387   49.7  0.1242   46.7  0.2109  -74.4
 1.820  0.5934  140.4   2.362   49.1  0.1253   46.7  0.2104  -75.0
 1.840  0.5945  139.8   2.338   48.6  0.1265   46.7  0.2099  -75.7
 1.860  0.5957  139.3   2.314   48.0  0.1276   46.6  0.2094  -76.3
 1.880  0.5969  138.7   2.290   47.4  0.1288   46.6  0.2089  -77.0
 1.900  0.5982  138.1   2.266   46.8  0.1299   46.6  0.2085  -77.6
 1.920  0.5991  137.5   2.243   46.3  0.1311   46.5  0.2076  -78.1
 1.940  0.6001  136.9   2.219   45.8  0.1323   46.3  0.2067  -78.6
 1.960  0.6012  136.2   2.196   45.3  0.1335   46.2  0.2058  -79.1
 1.980  0.6023  135.6   2.174   44.7  0.1347   46.0  0.2049  -79.6
 2.000  0.6035  135.0   2.151   44.2  0.1359   45.9  0.2041  -80.1
 2.020  0.6040  134.4   2.131   43.7  0.1370   45.8  0.2038  -80.6
 2.040  0.6046  133.7   2.110   43.3  0.1380   45.7  0.2035  -81.1
 2.060  0.6053  133.1   2.090   42.8  0.1391   45.6  0.2033  -81.6
 2.080  0.6061  132.5   2.070   42.3  0.1402   45.5  0.2030  -82.2
 2.100  0.6069  131.8   2.050   41.8  0.1412   45.4  0.2028  -82.7
 2.120  0.6078  131.2   2.031   41.3  0.1423   45.3  0.2026  -83.2
 2.140  0.6088  130.6   2.011   40.7  0.1434   45.3  0.2024  -83.7
 2.160  0.6098  129.9   1.992   40.2  0.1445   45.2  0.2022  -84.3
 2.180  0.6109  129.3   1.973   39.7  0.1455   45.1  0.2020  -84.8
 2.200  0.6121  128.7   1.954   39.1  0.1466   45.0  0.2019  -85.3
 2.220  0.6135  128.1   1.939   38.6  0.1477   44.9  0.2013  -85.9
 2.240  0.6149  127.5   1.924   38.1  0.1488   44.7  0.2008  -86.6
 2.260  0.6164  126.9   1.909   37.6  0.1499   44.6  0.2003  -87.2
 2.280  0.6180  126.3   1.894   37.1  0.1510   44.4  0.1998  -87.9
 2.300  0.6197  125.8   1.879   36.6  0.1521   44.3  0.1993  -88.5
 2.320  0.6214  125.2   1.865   36.1  0.1532   44.1  0.1988  -89.2
 2.340  0.6231  124.6   1.850   35.5  0.1544   44.0  0.1984  -89.8
 2.360  0.6250  124.0   1.836   35.0  0.1555   43.9  0.1980  -90.5
 2.380  0.6268  123.5   1.822   34.5  0.1566   43.7  0.1976  -91.1
 2.400  0.6288  122.9   1.808   33.9  0.1577   43.6  0.1973  -91.8
 2.420  0.6298  122.4   1.793   33.5  0.1587   43.4  0.1970  -92.4
 2.440  0.6308  121.8   1.778   33.0  0.1598   43.3  0.1967  -93.1
 2.460  0.6320  121.3   1.763   32.6  0.1608   43.1  0.1964  -93.7
 2.480  0.6331  120.7   1.748   32.1  0.1619   43.0  0.1962  -94.4
 2.500  0.6343  120.2   1.733   31.6  0.1629   42.8  0.1959  -95.0
 2.520  0.6356  119.6   1.718   31.2  0.1640   42.7  0.1957  -95.7
 2.540  0.6370  119.1   1.704   30.7  0.1650   42.5  0.1956  -96.3
 2.560  0.6384  118.6   1.689   30.2  0.1661   42.4  0.1954  -97.0
 2.580  0.6398  118.0   1.675   29.7  0.1671   42.2  0.1953  -97.6
 2.600  0.6413  117.5   1.661   29.2  0.1682   42.1  0.1952  -98.3
 2.620  0.6428  117.0   1.650   28.8  0.1693   41.9  0.1949  -99.0
 2.640  0.6443  116.5   1.638   28.3  0.1703   41.8  0.1945  -99.7
 2.660  0.6459  116.0   1.627   27.9  0.1714   41.6  0.1942 -100.4
 2.680  0.6476  115.5   1.616   27.5  0.1724   41.5  0.1940 -101.2
 2.700  0.6493  115.0   1.605   27.0  0.1735   41.3  0.1938 -101.9
 2.720  0.6510  114.5   1.594   26.6  0.1745   41.2  0.1936 -102.6
 2.740  0.6528  114.0   1.583   26.1  0.1756   41.0  0.1934 -103.3
 2.760  0.6546  113.6   1.572   25.6  0.1767   40.9  0.1933 -104.0
 2.780  0.6565  113.1   1.562   25.2  0.1777   40.7  0.1932 -104.8
 2.800  0.6584  112.6   1.551   24.7  0.1788   40.6  0.1931 -105.5
 2.820  0.6594  112.2   1.539   24.3  0.1799   40.4  0.1931 -106.2
 2.840  0.6604  111.7   1.528   23.8  0.1810   40.3  0.1932 -107.0
 2.860  0.6614  111.3   1.516   23.4  0.1821   40.1  0.1933 -107.7
 2.880  0.6625  110.8   1.505   22.9  0.1832   39.9  0.1935 -108.4
 2.900  0.6636  110.4   1.494   22.4  0.1843   39.8  0.1937 -109.2
 2.920  0.6648  109.9   1.483   22.0  0.1854   39.6  0.1939 -109.9
 2.940  0.6660  109.5   1.472   21.5  0.1865   39.5  0.1941 -110.6
 2.960  0.6672  109.1   1.461   21.0  0.1876   39.3  0.1944 -111.4
 2.980  0.6685  108.6   1.450   20.5  0.1887   39.2  0.1947 -112.1
 3.000  0.6698  108.2   1.439   20.0  0.1898   39.0  0.1950 -112.8
 3.100  0.6750  106.1   1.393   18.3  0.1948   38.1  0.1953 -116.7
 3.200  0.6810  104.0   1.347   16.4  0.1998   37.2  0.1966 -120.6
 3.300  0.6880  101.9   1.304   14.4  0.2049   36.4  0.1987 -124.5
 3.400  0.6959   99.9   1.262   12.3  0.2100   35.6  0.2018 -128.2
 3.500  0.7046   97.9   1.222   10.0  0.2152   34.8  0.2056 -131.8
 3.600  0.7085   96.1   1.188    8.3  0.2203   33.7  0.2093 -135.8
 3.700  0.7132   94.3   1.156    6.5  0.2256   32.7  0.2140 -139.6
 3.800  0.7185   92.5   1.124    4.7  0.2309   31.8  0.2196 -143.3
 3.900  0.7245   90.7   1.094    2.7  0.2362   30.9  0.2260 -146.7
 4.000  0.7312   89.0   1.065    0.6  0.2416   30.0  0.2332 -150.0
 4.100  0.7364   87.4   1.039   -0.9  0.2465   28.9  0.2387 -153.3
 4.200  0.7422   85.8   1.013   -2.4  0.2514   27.8  0.2450 -156.5
 4.300  0.7486   84.2   0.989   -4.1  0.2565   26.8  0.2521 -159.5
 4.400  0.7556   82.6   0.965   -5.8  0.2616   25.8  0.2597 -162.3
 4.500  0.7631   81.1   0.942   -7.6  0.2668   24.9  0.2680 -165.0
 4.600  0.7665   79.8   0.921   -8.9  0.2711   23.9  0.2750 -167.7
 4.700  0.7703   78.5   0.901  -10.3  0.2755   22.9  0.2827 -170.3
 4.800  0.7745   77.3   0.881  -11.8  0.2800   21.9  0.2909 -172.8
 4.900  0.7791   76.0   0.862  -13.3  0.2846   21.0  0.2995 -175.1
 5.000  0.7840   74.8   0.844  -14.9  0.2892   20.1  0.3087 -177.3
 5.100  0.7873   73.5   0.825  -16.0  0.2936   19.0  0.3151 -179.9
 5.200  0.7909   72.3   0.807  -17.2  0.2982   18.0  0.3222  177.7
 5.300  0.7949   71.0   0.788  -18.4  0.3028   16.9  0.3298  175.3
 5.400  0.7993   69.8   0.770  -19.7  0.3075   16.0  0.3380  173.0
 5.500  0.8040   68.6   0.753  -21.0  0.3123   15.0  0.3466  170.9
 5.600  0.8050   67.5   0.740  -22.0  0.3166   13.8  0.3539  168.8
 5.700  0.8064   66.3   0.727  -23.1  0.3210   12.7  0.3616  166.7
 5.800  0.8080   65.2   0.714  -24.2  0.3255   11.6  0.3698  164.8
 5.900  0.8100   64.0   0.702  -25.3  0.3301   10.5  0.3784  162.9
 6.000  0.8123   62.9   0.690  -26.5  0.3349    9.5  0.3874  161.1
!
!  f       NFmin   Gammaopt  rn/50
! GHz       dB    MAG  ANG    -
!
! noise parameter not available yet for this operation point!
!
! (c) 2016  Infineon Technologies AG, Munich
