! Infineon Technologies  Discrete & RF Semiconductors
! BFP183
! VCE = 2.0 V,  IC =  30 mA
! Common Emitter S-Parameters:                            Jan 2016
# GHz  S  MA  R  50
!  f         S11            S21            S12            S22
! GHz     MAG   ANG      MAG   ANG      MAG   ANG      MAG   ANG
 0.010  0.3368  -13.8  41.481  174.9  0.0017   76.9  0.9233   -3.7
 0.015  0.3390  -20.7  41.307  172.5  0.0026   81.1  0.9181   -5.7
 0.020  0.3460  -27.4  41.209  170.0  0.0036   83.1  0.9141   -7.7
 0.025  0.3428  -33.6  40.581  167.7  0.0044   79.3  0.9025   -9.4
 0.030  0.3436  -39.8  40.021  165.3  0.0052   76.7  0.8917  -11.1
 0.035  0.3483  -45.9  39.530  162.9  0.0061   74.8  0.8818  -12.9
 0.040  0.3570  -51.8  39.113  160.4  0.0069   73.4  0.8728  -14.7
 0.045  0.3692  -57.3  38.771  157.9  0.0078   72.3  0.8646  -16.6
 0.050  0.3846  -62.5  38.506  155.3  0.0086   71.4  0.8574  -18.5
 0.055  0.3829  -66.7  37.642  153.8  0.0092   69.4  0.8416  -19.6
 0.060  0.3832  -71.0  36.805  152.2  0.0097   67.6  0.8262  -20.7
 0.065  0.3857  -75.2  35.998  150.5  0.0103   66.0  0.8111  -21.9
 0.070  0.3902  -79.4  35.222  148.8  0.0109   64.6  0.7963  -23.1
 0.075  0.3968  -83.4  34.480  147.0  0.0115   63.3  0.7819  -24.4
 0.080  0.4052  -87.3  33.774  145.1  0.0121   62.2  0.7680  -25.7
 0.085  0.4154  -91.0  33.105  143.2  0.0127   61.2  0.7544  -27.1
 0.090  0.4272  -94.5  32.478  141.1  0.0134   60.2  0.7413  -28.5
 0.095  0.4406  -97.8  31.893  139.0  0.0140   59.4  0.7286  -30.0
 0.100  0.4553 -100.9  31.353  136.8  0.0146   58.6  0.7165  -31.5
 0.105  0.4567 -103.3  30.700  135.7  0.0150   58.0  0.7039  -32.1
 0.110  0.4590 -105.7  30.057  134.7  0.0153   57.4  0.6913  -32.7
 0.115  0.4620 -108.1  29.426  133.5  0.0157   56.9  0.6789  -33.4
 0.120  0.4659 -110.5  28.807  132.3  0.0160   56.4  0.6665  -34.1
 0.125  0.4705 -112.8  28.201  131.1  0.0164   55.9  0.6543  -34.8
 0.130  0.4758 -115.0  27.609  129.8  0.0167   55.4  0.6421  -35.5
 0.135  0.4819 -117.2  27.031  128.4  0.0171   55.0  0.6301  -36.2
 0.140  0.4887 -119.4  26.470  127.0  0.0175   54.5  0.6181  -37.0
 0.145  0.4961 -121.5  25.925  125.5  0.0178   54.1  0.6063  -37.9
 0.150  0.5042 -123.5  25.398  124.0  0.0182   53.7  0.5946  -38.7
 0.155  0.5056 -125.1  24.919  123.3  0.0184   53.4  0.5856  -39.0
 0.160  0.5073 -126.6  24.445  122.5  0.0187   53.0  0.5766  -39.3
 0.165  0.5094 -128.2  23.975  121.7  0.0189   52.7  0.5677  -39.6
 0.170  0.5119 -129.7  23.509  120.9  0.0192   52.4  0.5588  -40.0
 0.175  0.5148 -131.3  23.049  120.0  0.0194   52.1  0.5498  -40.3
 0.180  0.5180 -132.8  22.595  119.1  0.0196   51.7  0.5410  -40.7
 0.185  0.5216 -134.3  22.146  118.2  0.0199   51.5  0.5321  -41.0
 0.190  0.5255 -135.7  21.704  117.2  0.0201   51.2  0.5232  -41.4
 0.195  0.5298 -137.2  21.268  116.2  0.0204   50.9  0.5144  -41.8
 0.200  0.5344 -138.6  20.839  115.1  0.0206   50.6  0.5056  -42.2
 0.220  0.5402 -142.4  19.441  112.8  0.0214   50.3  0.4799  -42.8
 0.240  0.5483 -146.0  18.081  110.1  0.0221   50.1  0.4543  -43.4
 0.260  0.5551 -149.4  16.917  107.8  0.0229   49.9  0.4324  -43.8
 0.280  0.5601 -152.5  15.928  106.0  0.0238   49.8  0.4143  -43.9
 0.300  0.5668 -155.5  14.957  103.9  0.0246   49.7  0.3961  -44.1
 0.320  0.5670 -157.6  14.261  102.7  0.0252   50.1  0.3849  -44.1
 0.340  0.5679 -159.7  13.572  101.4  0.0258   50.4  0.3737  -44.0
 0.360  0.5696 -161.8  12.891   99.9  0.0265   50.7  0.3624  -44.0
 0.380  0.5721 -163.9  12.219   98.2  0.0271   51.0  0.3512  -43.9
 0.400  0.5753 -165.9  11.559   96.4  0.0277   51.3  0.3400  -43.9
 0.420  0.5754 -167.5  11.101   95.5  0.0285   51.5  0.3332  -43.8
 0.440  0.5759 -169.1  10.647   94.5  0.0292   51.7  0.3265  -43.7
 0.450  0.5764 -169.9  10.421   93.9  0.0296   51.8  0.3231  -43.6
 0.460  0.5769 -170.7  10.196   93.4  0.0300   51.9  0.3197  -43.6
 0.480  0.5783 -172.2   9.749   92.2  0.0307   52.0  0.3130  -43.4
 0.500  0.5802 -173.8   9.307   90.9  0.0315   52.2  0.3062  -43.3
 0.520  0.5806 -175.0   9.017   90.1  0.0322   52.8  0.3020  -43.2
 0.540  0.5813 -176.3   8.728   89.2  0.0328   53.3  0.2978  -43.1
 0.560  0.5823 -177.5   8.442   88.3  0.0335   53.8  0.2936  -43.1
 0.580  0.5836 -178.8   8.158   87.3  0.0341   54.3  0.2894  -43.0
 0.600  0.5851  180.0   7.876   86.3  0.0348   54.8  0.2852  -42.9
 0.620  0.5859  179.0   7.648   85.6  0.0356   55.1  0.2825  -42.9
 0.640  0.5869  177.9   7.421   84.9  0.0363   55.4  0.2797  -42.8
 0.660  0.5881  176.9   7.196   84.2  0.0371   55.7  0.2770  -42.8
 0.680  0.5894  175.8   6.972   83.4  0.0378   55.9  0.2742  -42.7
 0.700  0.5910  174.8   6.749   82.5  0.0386   56.2  0.2715  -42.7
 0.720  0.5912  173.9   6.588   81.8  0.0394   56.3  0.2698  -42.8
 0.740  0.5915  173.1   6.428   81.2  0.0402   56.3  0.2681  -42.8
 0.760  0.5919  172.2   6.270   80.4  0.0410   56.4  0.2664  -42.9
 0.780  0.5925  171.4   6.112   79.7  0.0418   56.4  0.2647  -42.9
 0.800  0.5932  170.5   5.955   78.9  0.0426   56.5  0.2630  -43.0
 0.820  0.5946  169.7   5.826   78.4  0.0435   56.6  0.2617  -43.1
 0.840  0.5962  169.0   5.697   77.8  0.0443   56.7  0.2604  -43.2
 0.860  0.5979  168.2   5.569   77.2  0.0452   56.8  0.2591  -43.3
 0.880  0.5996  167.5   5.442   76.6  0.0460   56.9  0.2578  -43.4
 0.900  0.6015  166.7   5.315   76.0  0.0469   57.0  0.2565  -43.5
 0.920  0.6013  165.8   5.202   75.4  0.0476   57.1  0.2554  -43.7
 0.940  0.6013  164.9   5.089   74.7  0.0483   57.3  0.2542  -43.9
 0.960  0.6015  164.0   4.977   74.0  0.0489   57.4  0.2531  -44.0
 0.980  0.6018  163.1   4.866   73.3  0.0496   57.5  0.2519  -44.2
 1.000  0.6022  162.2   4.756   72.5  0.0503   57.6  0.2508  -44.4
 1.020  0.6027  161.5   4.673   71.9  0.0512   57.6  0.2500  -44.6
 1.040  0.6032  160.7   4.590   71.4  0.0522   57.7  0.2492  -44.9
 1.060  0.6039  160.0   4.508   70.8  0.0531   57.7  0.2484  -45.1
 1.080  0.6046  159.2   4.426   70.1  0.0541   57.8  0.2476  -45.4
 1.100  0.6055  158.5   4.345   69.5  0.0550   57.8  0.2468  -45.6
 1.120  0.6058  157.9   4.271   69.0  0.0557   57.7  0.2463  -45.8
 1.140  0.6062  157.3   4.197   68.5  0.0565   57.7  0.2458  -46.1
 1.160  0.6066  156.6   4.123   68.0  0.0572   57.6  0.2453  -46.3
 1.180  0.6071  156.0   4.050   67.5  0.0580   57.6  0.2449  -46.6
 1.200  0.6077  155.4   3.977   66.9  0.0587   57.5  0.2444  -46.8
 1.220  0.6086  154.8   3.914   66.4  0.0595   57.4  0.2439  -47.1
 1.240  0.6096  154.2   3.851   65.8  0.0603   57.3  0.2434  -47.4
 1.260  0.6107  153.5   3.788   65.3  0.0612   57.3  0.2429  -47.8
 1.280  0.6119  152.9   3.726   64.7  0.0620   57.2  0.2425  -48.1
 1.300  0.6131  152.3   3.664   64.1  0.0628   57.1  0.2420  -48.4
 1.320  0.6139  151.6   3.615   63.6  0.0636   57.1  0.2415  -48.7
 1.340  0.6148  150.8   3.566   63.1  0.0644   57.1  0.2409  -49.1
 1.360  0.6157  150.1   3.518   62.6  0.0653   57.1  0.2404  -49.4
 1.380  0.6168  149.3   3.470   62.1  0.0661   57.1  0.2399  -49.8
 1.400  0.6180  148.6   3.422   61.6  0.0669   57.1  0.2394  -50.1
 1.420  0.6185  148.1   3.375   61.0  0.0678   57.0  0.2390  -50.4
 1.440  0.6189  147.6   3.328   60.5  0.0687   56.9  0.2387  -50.7
 1.460  0.6195  147.2   3.281   59.9  0.0697   56.7  0.2384  -51.0
 1.480  0.6201  146.7   3.235   59.2  0.0706   56.6  0.2380  -51.3
 1.500  0.6207  146.2   3.189   58.6  0.0715   56.5  0.2377  -51.6
 1.520  0.6219  145.6   3.151   58.1  0.0723   56.4  0.2374  -52.0
 1.540  0.6232  145.0   3.113   57.6  0.0731   56.3  0.2372  -52.4
 1.560  0.6245  144.3   3.075   57.1  0.0738   56.1  0.2369  -52.7
 1.580  0.6259  143.7   3.038   56.6  0.0746   56.0  0.2367  -53.1
 1.600  0.6274  143.1   3.001   56.1  0.0754   55.9  0.2365  -53.5
 1.620  0.6282  142.4   2.962   55.6  0.0762   55.7  0.2361  -54.0
 1.640  0.6290  141.7   2.923   55.1  0.0770   55.4  0.2357  -54.4
 1.660  0.6300  141.1   2.884   54.6  0.0777   55.2  0.2354  -54.9
 1.680  0.6310  140.4   2.846   54.0  0.0785   55.0  0.2350  -55.3
 1.700  0.6321  139.7   2.808   53.5  0.0793   54.8  0.2347  -55.8
 1.720  0.6325  139.2   2.776   53.0  0.0801   54.8  0.2341  -56.2
 1.740  0.6329  138.6   2.744   52.5  0.0810   54.8  0.2336  -56.6
 1.760  0.6334  138.1   2.712   52.0  0.0818   54.9  0.2330  -57.1
 1.780  0.6339  137.5   2.680   51.4  0.0827   54.9  0.2325  -57.5
 1.800  0.6345  137.0   2.649   50.9  0.0835   54.9  0.2320  -57.9
 1.820  0.6358  136.5   2.620   50.4  0.0843   54.7  0.2317  -58.3
 1.840  0.6371  136.0   2.591   50.0  0.0851   54.4  0.2315  -58.7
 1.860  0.6385  135.4   2.563   49.5  0.0860   54.2  0.2312  -59.0
 1.880  0.6400  134.9   2.534   49.0  0.0868   54.0  0.2310  -59.4
 1.900  0.6415  134.4   2.506   48.5  0.0876   53.8  0.2308  -59.8
 1.920  0.6424  133.9   2.477   48.0  0.0883   53.6  0.2306  -60.3
 1.940  0.6434  133.3   2.449   47.5  0.0891   53.5  0.2305  -60.8
 1.960  0.6444  132.8   2.421   47.0  0.0898   53.3  0.2304  -61.2
 1.980  0.6455  132.2   2.393   46.5  0.0906   53.2  0.2303  -61.7
 2.000  0.6467  131.7   2.365   46.0  0.0913   53.0  0.2302  -62.2
 2.020  0.6475  131.2   2.343   45.6  0.0921   52.8  0.2297  -62.7
 2.040  0.6484  130.7   2.322   45.1  0.0929   52.6  0.2292  -63.2
 2.060  0.6493  130.2   2.301   44.7  0.0937   52.5  0.2287  -63.7
 2.080  0.6502  129.6   2.280   44.2  0.0945   52.3  0.2282  -64.3
 2.100  0.6513  129.1   2.259   43.7  0.0953   52.1  0.2277  -64.8
 2.120  0.6523  128.6   2.238   43.2  0.0962   51.9  0.2273  -65.3
 2.140  0.6534  128.1   2.217   42.7  0.0970   51.8  0.2269  -65.8
 2.160  0.6546  127.6   2.196   42.2  0.0978   51.6  0.2264  -66.3
 2.180  0.6558  127.1   2.176   41.7  0.0986   51.5  0.2261  -66.9
 2.200  0.6571  126.6   2.156   41.2  0.0994   51.3  0.2257  -67.4
 2.220  0.6583  126.1   2.137   40.8  0.1002   51.1  0.2254  -67.9
 2.240  0.6595  125.6   2.118   40.3  0.1009   50.9  0.2250  -68.4
 2.260  0.6607  125.0   2.099   39.9  0.1017   50.8  0.2247  -69.0
 2.280  0.6620  124.5   2.080   39.5  0.1025   50.6  0.2245  -69.5
 2.300  0.6634  124.0   2.061   39.0  0.1032   50.4  0.2242  -70.0
 2.320  0.6648  123.5   2.042   38.5  0.1040   50.2  0.2240  -70.6
 2.340  0.6663  123.0   2.024   38.1  0.1048   50.1  0.2237  -71.1
 2.360  0.6678  122.5   2.005   37.6  0.1056   49.9  0.2235  -71.6
 2.380  0.6694  122.0   1.987   37.1  0.1063   49.8  0.2234  -72.2
 2.400  0.6710  121.5   1.969   36.6  0.1071   49.6  0.2232  -72.7
 2.420  0.6719  121.0   1.952   36.2  0.1078   49.4  0.2227  -73.3
 2.440  0.6729  120.6   1.935   35.7  0.1086   49.2  0.2223  -73.8
 2.460  0.6739  120.1   1.919   35.3  0.1093   49.0  0.2218  -74.4
 2.480  0.6750  119.6   1.902   34.9  0.1100   48.8  0.2214  -74.9
 2.500  0.6761  119.2   1.885   34.4  0.1107   48.6  0.2210  -75.5
 2.520  0.6773  118.7   1.869   33.9  0.1115   48.4  0.2207  -76.0
 2.540  0.6785  118.3   1.853   33.5  0.1122   48.2  0.2203  -76.6
 2.560  0.6797  117.8   1.837   33.0  0.1129   48.1  0.2200  -77.2
 2.580  0.6810  117.4   1.821   32.5  0.1137   47.9  0.2197  -77.7
 2.600  0.6823  116.9   1.805   32.0  0.1144   47.7  0.2194  -78.3
 2.620  0.6837  116.4   1.791   31.6  0.1151   47.5  0.2192  -78.9
 2.640  0.6852  116.0   1.776   31.1  0.1158   47.3  0.2189  -79.5
 2.660  0.6867  115.5   1.762   30.7  0.1165   47.1  0.2188  -80.1
 2.680  0.6882  115.1   1.748   30.2  0.1171   46.9  0.2186  -80.7
 2.700  0.6898  114.6   1.734   29.7  0.1178   46.7  0.2184  -81.3
 2.720  0.6915  114.2   1.720   29.3  0.1185   46.5  0.2183  -82.0
 2.740  0.6931  113.7   1.706   28.8  0.1192   46.3  0.2182  -82.6
 2.760  0.6948  113.3   1.693   28.3  0.1199   46.1  0.2182  -83.2
 2.780  0.6966  112.8   1.679   27.8  0.1206   45.9  0.2181  -83.8
 2.800  0.6984  112.4   1.666   27.3  0.1213   45.7  0.2181  -84.4
 2.820  0.6993  112.0   1.654   26.9  0.1220   45.5  0.2177  -85.0
 2.840  0.7003  111.6   1.642   26.5  0.1227   45.3  0.2174  -85.6
 2.860  0.7012  111.1   1.630   26.1  0.1234   45.2  0.2170  -86.3
 2.880  0.7023  110.7   1.619   25.7  0.1241   45.0  0.2167  -86.9
 2.900  0.7033  110.3   1.607   25.3  0.1248   44.8  0.2165  -87.5
 2.920  0.7044  109.9   1.595   24.9  0.1255   44.7  0.2162  -88.2
 2.940  0.7056  109.4   1.584   24.5  0.1262   44.5  0.2160  -88.8
 2.960  0.7067  109.0   1.573   24.1  0.1269   44.3  0.2158  -89.4
 2.980  0.7080  108.6   1.561   23.6  0.1276   44.2  0.2156  -90.1
 3.000  0.7092  108.2   1.550   23.2  0.1283   44.0  0.2155  -90.7
 3.100  0.7139  106.2   1.496   21.4  0.1316   43.0  0.2147  -94.0
 3.200  0.7193  104.3   1.444   19.5  0.1349   42.0  0.2147  -97.4
 3.300  0.7257  102.3   1.394   17.4  0.1382   41.0  0.2154 -100.7
 3.400  0.7328  100.4   1.345   15.2  0.1416   40.2  0.2168 -104.0
 3.500  0.7407   98.6   1.299   12.8  0.1450   39.3  0.2189 -107.2
 3.600  0.7453   96.9   1.260   11.2  0.1481   38.3  0.2196 -110.7
 3.700  0.7506   95.2   1.223    9.4  0.1512   37.3  0.2212 -114.2
 3.800  0.7564   93.6   1.187    7.6  0.1544   36.3  0.2235 -117.6
 3.900  0.7629   92.0   1.152    5.7  0.1576   35.4  0.2266 -121.0
 4.000  0.7700   90.4   1.118    3.6  0.1608   34.5  0.2305 -124.2
 4.100  0.7729   89.0   1.086    2.1  0.1634   33.5  0.2328 -127.6
 4.200  0.7762   87.5   1.054    0.4  0.1660   32.5  0.2359 -130.9
 4.300  0.7801   86.1   1.024   -1.3  0.1687   31.6  0.2398 -134.2
 4.400  0.7844   84.7   0.994   -3.2  0.1714   30.7  0.2445 -137.3
 4.500  0.7892   83.3   0.966   -5.1  0.1742   29.8  0.2498 -140.3
 4.600  0.7917   82.2   0.941   -6.4  0.1770   29.1  0.2534 -143.1
 4.700  0.7945   81.0   0.916   -7.7  0.1797   28.4  0.2576 -145.8
 4.800  0.7976   79.9   0.892   -9.1  0.1825   27.8  0.2623 -148.4
 4.900  0.8010   78.8   0.869  -10.5  0.1854   27.1  0.2676 -150.9
 5.000  0.8047   77.7   0.846  -12.1  0.1882   26.5  0.2733 -153.3
 5.100  0.8071   76.6   0.827  -13.4  0.1915   25.4  0.2802 -155.8
 5.200  0.8097   75.6   0.808  -14.8  0.1949   24.4  0.2876 -158.1
 5.300  0.8127   74.6   0.790  -16.3  0.1983   23.3  0.2954 -160.4
 5.400  0.8158   73.5   0.773  -17.8  0.2018   22.3  0.3037 -162.5
 5.500  0.8193   72.5   0.756  -19.4  0.2054   21.4  0.3124 -164.5
 5.600  0.8226   71.5   0.739  -20.6  0.2079   20.4  0.3190 -166.8
 5.700  0.8261   70.6   0.723  -21.9  0.2104   19.4  0.3261 -168.9
 5.800  0.8299   69.7   0.707  -23.2  0.2130   18.4  0.3337 -171.0
 5.900  0.8339   68.7   0.692  -24.6  0.2157   17.5  0.3416 -173.0
 6.000  0.8381   67.8   0.677  -26.0  0.2184   16.6  0.3500 -174.9
!
!  f       NFmin   Gammaopt  rn/50
! GHz       dB    MAG  ANG    -
!
! noise parameter not available yet for this operation point!
!
! (c) 2016  Infineon Technologies AG, Munich
