! Infineon Technologies  Discrete & RF Semiconductors
! BFP196W
! VCE = 2.5 V,  IC =  10mA
! Common Emitter S-Parameters:                            Jan 2016
# GHz  S  MA  R  50
!  f         S11            S21            S12            S22
! GHz     MAG   ANG      MAG   ANG      MAG   ANG      MAG   ANG
 0.010  0.6916  -13.0  28.022  172.2  0.0057   82.7  0.9726   -6.6
 0.015  0.6888  -19.6  28.064  169.9  0.0087   79.1  0.9638   -9.8
 0.020  0.6952  -26.2  28.152  167.6  0.0117   77.3  0.9581  -13.0
 0.025  0.6975  -32.4  27.790  164.7  0.0143   75.2  0.9448  -16.1
 0.030  0.7078  -38.4  27.499  161.8  0.0169   73.8  0.9344  -19.3
 0.035  0.6994  -44.0  26.925  159.2  0.0191   70.2  0.9141  -22.0
 0.040  0.6977  -49.6  26.411  156.4  0.0214   67.4  0.8959  -24.8
 0.045  0.7028  -55.2  25.959  153.5  0.0237   65.2  0.8800  -27.8
 0.050  0.7145  -60.7  25.575  150.6  0.0260   63.3  0.8665  -30.8
 0.055  0.7031  -64.5  24.893  149.1  0.0273   60.8  0.8438  -32.4
 0.060  0.6948  -68.4  24.231  147.4  0.0286   58.5  0.8218  -34.2
 0.065  0.6900  -72.4  23.589  145.7  0.0299   56.3  0.8005  -36.0
 0.070  0.6885  -76.5  22.970  143.9  0.0313   54.4  0.7801  -37.9
 0.075  0.6904  -80.5  22.375  142.0  0.0327   52.7  0.7607  -39.9
 0.080  0.6958  -84.5  21.806  139.9  0.0341   51.1  0.7422  -42.0
 0.085  0.7045  -88.4  21.266  137.8  0.0356   49.6  0.7247  -44.2
 0.090  0.7163  -92.2  20.757  135.6  0.0371   48.2  0.7084  -46.5
 0.095  0.7312  -95.9  20.281  133.2  0.0386   47.0  0.6934  -49.0
 0.100  0.7490  -99.4  19.840  130.8  0.0401   45.8  0.6796  -51.5
 0.105  0.7459 -101.8  19.368  129.8  0.0407   44.7  0.6641  -52.6
 0.110  0.7441 -104.1  18.903  128.7  0.0414   43.6  0.6488  -53.8
 0.115  0.7435 -106.5  18.445  127.6  0.0420   42.5  0.6337  -55.0
 0.120  0.7443 -108.9  17.994  126.4  0.0427   41.5  0.6190  -56.2
 0.125  0.7464 -111.3  17.552  125.1  0.0434   40.5  0.6046  -57.6
 0.130  0.7497 -113.7  17.118  123.8  0.0441   39.5  0.5905  -58.9
 0.135  0.7543 -116.0  16.694  122.5  0.0448   38.5  0.5768  -60.4
 0.140  0.7601 -118.3  16.279  121.0  0.0455   37.6  0.5635  -61.9
 0.145  0.7672 -120.6  15.876  119.5  0.0463   36.8  0.5506  -63.5
 0.150  0.7754 -122.8  15.484  117.9  0.0470   35.9  0.5382  -65.2
 0.155  0.7736 -124.2  15.157  117.2  0.0473   35.3  0.5279  -65.9
 0.160  0.7722 -125.6  14.832  116.6  0.0476   34.7  0.5177  -66.7
 0.165  0.7714 -127.0  14.509  115.8  0.0479   34.1  0.5076  -67.5
 0.170  0.7710 -128.4  14.188  115.1  0.0481   33.6  0.4975  -68.3
 0.175  0.7710 -129.9  13.870  114.3  0.0484   33.0  0.4876  -69.2
 0.180  0.7716 -131.3  13.555  113.5  0.0487   32.5  0.4778  -70.0
 0.185  0.7726 -132.7  13.243  112.6  0.0491   31.9  0.4681  -71.0
 0.190  0.7741 -134.1  12.933  111.7  0.0494   31.4  0.4586  -71.9
 0.195  0.7760 -135.5  12.627  110.8  0.0497   30.8  0.4492  -72.9
 0.200  0.7784 -136.9  12.325  109.8  0.0500   30.3  0.4399  -74.0
 0.220  0.7814 -140.6  11.479  107.8  0.0509   28.9  0.4153  -76.5
 0.240  0.7876 -144.3  10.649  105.4  0.0518   27.6  0.3917  -79.3
 0.260  0.7909 -147.4   9.920  103.3  0.0525   26.7  0.3701  -81.6
 0.280  0.7901 -150.0   9.281  101.6  0.0530   26.0  0.3502  -83.4
 0.300  0.7909 -152.6   8.652   99.7  0.0535   25.3  0.3307  -85.4
 0.320  0.7902 -154.5   8.242   98.6  0.0538   25.0  0.3199  -86.8
 0.340  0.7904 -156.5   7.835   97.4  0.0541   24.6  0.3092  -88.2
 0.360  0.7915 -158.4   7.432   96.1  0.0545   24.3  0.2988  -89.8
 0.380  0.7935 -160.3   7.033   94.6  0.0548   23.9  0.2886  -91.5
 0.400  0.7964 -162.2   6.640   92.9  0.0551   23.6  0.2787  -93.3
 0.420  0.7961 -163.5   6.383   92.0  0.0554   23.6  0.2727  -94.3
 0.440  0.7962 -164.8   6.128   91.1  0.0557   23.6  0.2668  -95.4
 0.450  0.7964 -165.5   6.002   90.6  0.0558   23.5  0.2638  -95.9
 0.460  0.7967 -166.1   5.875   90.1  0.0559   23.5  0.2609  -96.5
 0.480  0.7976 -167.4   5.624   89.0  0.0562   23.5  0.2552  -97.7
 0.500  0.7989 -168.7   5.375   87.8  0.0565   23.5  0.2496  -98.9
 0.520  0.7992 -169.6   5.197   87.1  0.0567   23.6  0.2464  -99.7
 0.540  0.7998 -170.5   5.019   86.3  0.0569   23.7  0.2432 -100.5
 0.560  0.8006 -171.5   4.843   85.4  0.0571   23.9  0.2401 -101.4
 0.580  0.8015 -172.4   4.668   84.5  0.0573   24.0  0.2370 -102.2
 0.600  0.8027 -173.3   4.494   83.5  0.0575   24.1  0.2340 -103.1
 0.620  0.8034 -174.1   4.373   82.9  0.0577   24.4  0.2322 -103.7
 0.640  0.8043 -174.9   4.252   82.2  0.0580   24.6  0.2304 -104.3
 0.660  0.8053 -175.8   4.133   81.5  0.0582   24.9  0.2287 -104.9
 0.680  0.8065 -176.6   4.013   80.7  0.0585   25.1  0.2270 -105.6
 0.700  0.8079 -177.4   3.895   79.9  0.0587   25.4  0.2253 -106.2
 0.720  0.8068 -178.0   3.796   79.3  0.0590   25.7  0.2249 -106.8
 0.740  0.8059 -178.7   3.697   78.6  0.0592   25.9  0.2246 -107.4
 0.760  0.8050 -179.3   3.598   77.9  0.0595   26.2  0.2243 -108.0
 0.780  0.8043 -180.0   3.500   77.2  0.0597   26.4  0.2240 -108.6
 0.800  0.8036  179.4   3.403   76.4  0.0600   26.7  0.2237 -109.2
 0.820  0.8035  178.8   3.328   75.8  0.0602   27.0  0.2235 -109.7
 0.840  0.8035  178.2   3.253   75.2  0.0604   27.3  0.2234 -110.3
 0.860  0.8036  177.7   3.179   74.6  0.0606   27.6  0.2233 -110.8
 0.880  0.8038  177.1   3.105   74.0  0.0608   27.9  0.2232 -111.4
 0.900  0.8040  176.5   3.032   73.3  0.0610   28.2  0.2231 -111.9
 0.920  0.8039  176.0   2.970   72.7  0.0613   28.5  0.2238 -112.4
 0.940  0.8039  175.5   2.909   72.2  0.0616   28.8  0.2245 -112.8
 0.960  0.8039  175.0   2.848   71.6  0.0618   29.1  0.2252 -113.3
 0.980  0.8040  174.5   2.787   71.0  0.0621   29.4  0.2260 -113.7
 1.000  0.8041  174.0   2.727   70.3  0.0624   29.7  0.2267 -114.2
 1.020  0.8051  173.5   2.680   69.7  0.0627   30.0  0.2274 -114.5
 1.040  0.8062  173.0   2.634   69.2  0.0630   30.3  0.2282 -114.9
 1.060  0.8074  172.5   2.588   68.6  0.0634   30.7  0.2290 -115.2
 1.080  0.8086  172.0   2.542   67.9  0.0637   31.0  0.2297 -115.6
 1.100  0.8099  171.5   2.496   67.3  0.0640   31.3  0.2305 -115.9
 1.120  0.8100  171.0   2.453   66.8  0.0643   31.6  0.2318 -116.2
 1.140  0.8101  170.6   2.410   66.3  0.0647   31.9  0.2331 -116.6
 1.160  0.8103  170.1   2.367   65.7  0.0650   32.2  0.2344 -116.9
 1.180  0.8105  169.7   2.324   65.2  0.0654   32.5  0.2357 -117.3
 1.200  0.8108  169.2   2.282   64.6  0.0657   32.8  0.2370 -117.6
 1.220  0.8107  168.7   2.248   64.1  0.0660   33.1  0.2383 -118.0
 1.240  0.8107  168.2   2.214   63.5  0.0664   33.5  0.2396 -118.4
 1.260  0.8107  167.8   2.181   62.9  0.0667   33.8  0.2409 -118.8
 1.280  0.8108  167.3   2.147   62.3  0.0671   34.2  0.2422 -119.2
 1.300  0.8109  166.8   2.114   61.7  0.0674   34.5  0.2435 -119.6
 1.320  0.8115  166.4   2.084   61.2  0.0678   34.8  0.2449 -119.9
 1.340  0.8121  165.9   2.055   60.7  0.0682   35.1  0.2462 -120.3
 1.360  0.8128  165.5   2.025   60.1  0.0686   35.4  0.2476 -120.6
 1.380  0.8135  165.0   1.996   59.6  0.0690   35.7  0.2490 -120.9
 1.400  0.8143  164.6   1.967   59.0  0.0694   36.0  0.2504 -121.2
 1.420  0.8146  164.2   1.941   58.5  0.0699   36.4  0.2519 -121.6
 1.440  0.8149  163.9   1.915   58.1  0.0703   36.7  0.2534 -122.0
 1.460  0.8152  163.5   1.889   57.6  0.0708   37.1  0.2550 -122.4
 1.480  0.8156  163.2   1.864   57.1  0.0712   37.4  0.2565 -122.8
 1.500  0.8160  162.8   1.838   56.6  0.0717   37.8  0.2581 -123.2
 1.520  0.8166  162.4   1.815   56.1  0.0722   38.0  0.2595 -123.5
 1.540  0.8172  161.9   1.792   55.5  0.0727   38.3  0.2610 -123.8
 1.560  0.8178  161.5   1.770   55.0  0.0731   38.5  0.2624 -124.1
 1.580  0.8185  161.0   1.747   54.4  0.0736   38.8  0.2638 -124.4
 1.600  0.8193  160.6   1.725   53.8  0.0741   39.0  0.2653 -124.7
 1.620  0.8196  160.2   1.705   53.4  0.0745   39.3  0.2671 -125.1
 1.640  0.8199  159.8   1.685   52.9  0.0749   39.6  0.2690 -125.5
 1.660  0.8203  159.4   1.665   52.5  0.0754   39.9  0.2708 -125.9
 1.680  0.8207  159.0   1.645   52.0  0.0758   40.2  0.2727 -126.2
 1.700  0.8212  158.6   1.625   51.5  0.0762   40.5  0.2746 -126.6
 1.720  0.8209  158.3   1.607   51.0  0.0768   40.8  0.2762 -126.9
 1.740  0.8206  157.9   1.590   50.5  0.0774   41.0  0.2778 -127.3
 1.760  0.8203  157.6   1.572   50.0  0.0780   41.3  0.2794 -127.6
 1.780  0.8201  157.2   1.555   49.5  0.0786   41.5  0.2811 -128.0
 1.800  0.8199  156.9   1.538   49.0  0.0792   41.8  0.2827 -128.3
 1.820  0.8200  156.5   1.521   48.5  0.0798   42.0  0.2843 -128.6
 1.840  0.8201  156.1   1.505   48.1  0.0804   42.2  0.2858 -128.9
 1.860  0.8203  155.7   1.488   47.6  0.0810   42.5  0.2874 -129.2
 1.880  0.8205  155.3   1.472   47.1  0.0816   42.7  0.2890 -129.5
 1.900  0.8207  154.9   1.456   46.6  0.0822   42.9  0.2906 -129.8
 1.920  0.8213  154.5   1.442   46.2  0.0828   43.1  0.2924 -130.1
 1.940  0.8220  154.1   1.428   45.7  0.0834   43.3  0.2942 -130.5
 1.960  0.8228  153.8   1.414   45.2  0.0840   43.6  0.2960 -130.8
 1.980  0.8235  153.4   1.400   44.8  0.0846   43.8  0.2979 -131.1
 2.000  0.8243  153.0   1.386   44.3  0.0852   44.0  0.2997 -131.4
 2.020  0.8246  152.6   1.373   43.9  0.0858   44.2  0.3015 -131.8
 2.040  0.8248  152.3   1.361   43.4  0.0865   44.3  0.3034 -132.1
 2.060  0.8251  151.9   1.348   43.0  0.0871   44.5  0.3052 -132.5
 2.080  0.8255  151.6   1.336   42.6  0.0878   44.7  0.3071 -132.9
 2.100  0.8259  151.2   1.323   42.1  0.0884   44.8  0.3090 -133.2
 2.120  0.8263  150.9   1.311   41.6  0.0891   45.0  0.3109 -133.6
 2.140  0.8267  150.5   1.299   41.2  0.0897   45.1  0.3128 -133.9
 2.160  0.8272  150.2   1.287   40.7  0.0904   45.3  0.3147 -134.2
 2.180  0.8277  149.8   1.275   40.2  0.0910   45.5  0.3167 -134.6
 2.200  0.8282  149.5   1.263   39.7  0.0917   45.6  0.3186 -134.9
 2.220  0.8284  149.1   1.252   39.3  0.0924   45.7  0.3204 -135.2
 2.240  0.8287  148.8   1.241   38.8  0.0932   45.8  0.3222 -135.6
 2.260  0.8289  148.4   1.230   38.4  0.0939   45.9  0.3239 -135.9
 2.280  0.8293  148.0   1.220   38.0  0.0946   46.1  0.3257 -136.3
 2.300  0.8296  147.6   1.209   37.5  0.0953   46.2  0.3276 -136.6
 2.320  0.8300  147.3   1.198   37.0  0.0961   46.3  0.3294 -136.9
 2.340  0.8304  146.9   1.188   36.6  0.0968   46.4  0.3312 -137.2
 2.360  0.8309  146.5   1.178   36.1  0.0975   46.5  0.3331 -137.6
 2.380  0.8314  146.2   1.167   35.6  0.0983   46.6  0.3349 -137.9
 2.400  0.8319  145.8   1.157   35.1  0.0990   46.7  0.3368 -138.2
 2.420  0.8321  145.4   1.148   34.7  0.0998   46.8  0.3387 -138.6
 2.440  0.8323  145.1   1.139   34.3  0.1006   46.9  0.3406 -139.0
 2.460  0.8325  144.7   1.130   33.9  0.1013   47.0  0.3425 -139.4
 2.480  0.8327  144.4   1.121   33.5  0.1021   47.1  0.3445 -139.8
 2.500  0.8330  144.0   1.112   33.0  0.1029   47.2  0.3464 -140.2
 2.520  0.8333  143.7   1.103   32.6  0.1037   47.3  0.3484 -140.6
 2.540  0.8337  143.3   1.095   32.2  0.1045   47.3  0.3504 -141.0
 2.560  0.8341  143.0   1.086   31.7  0.1052   47.4  0.3524 -141.4
 2.580  0.8345  142.6   1.078   31.3  0.1060   47.5  0.3545 -141.7
 2.600  0.8349  142.3   1.069   30.8  0.1068   47.6  0.3565 -142.1
 2.620  0.8357  142.0   1.061   30.4  0.1076   47.6  0.3583 -142.4
 2.640  0.8365  141.6   1.053   30.0  0.1084   47.7  0.3602 -142.8
 2.660  0.8374  141.3   1.045   29.7  0.1093   47.7  0.3620 -143.1
 2.680  0.8383  140.9   1.037   29.3  0.1101   47.8  0.3639 -143.5
 2.700  0.8392  140.6   1.029   28.9  0.1109   47.8  0.3658 -143.8
 2.720  0.8402  140.3   1.021   28.5  0.1117   47.8  0.3677 -144.1
 2.740  0.8412  139.9   1.013   28.1  0.1125   47.9  0.3696 -144.4
 2.760  0.8422  139.6   1.005   27.6  0.1134   47.9  0.3715 -144.8
 2.780  0.8432  139.2   0.998   27.2  0.1142   48.0  0.3735 -145.1
 2.800  0.8443  138.9   0.990   26.8  0.1150   48.0  0.3754 -145.4
 2.820  0.8446  138.6   0.983   26.4  0.1159   48.0  0.3773 -145.8
 2.840  0.8448  138.3   0.976   26.1  0.1168   48.0  0.3793 -146.2
 2.860  0.8451  137.9   0.969   25.7  0.1176   48.0  0.3813 -146.6
 2.880  0.8455  137.6   0.962   25.3  0.1185   48.0  0.3833 -147.1
 2.900  0.8458  137.3   0.955   24.9  0.1194   47.9  0.3853 -147.5
 2.920  0.8462  137.0   0.948   24.5  0.1203   47.9  0.3873 -147.9
 2.940  0.8466  136.7   0.941   24.1  0.1212   47.9  0.3893 -148.2
 2.960  0.8470  136.3   0.934   23.7  0.1220   47.9  0.3914 -148.6
 2.980  0.8475  136.0   0.928   23.3  0.1229   47.9  0.3935 -149.0
 3.000  0.8480  135.7   0.921   22.9  0.1238   47.9  0.3956 -149.4
 3.100  0.8506  134.0   0.892   21.1  0.1281   47.7  0.4054 -151.2
 3.200  0.8539  132.4   0.863   19.2  0.1325   47.5  0.4157 -153.0
 3.300  0.8572  130.8   0.836   17.5  0.1369   47.2  0.4254 -155.0
 3.400  0.8612  129.2   0.810   15.6  0.1413   47.0  0.4356 -156.9
 3.500  0.8637  127.7   0.783   14.0  0.1455   46.6  0.4451 -158.6
 3.600  0.8668  126.2   0.756   12.2  0.1498   46.3  0.4549 -160.2
 3.700  0.8670  124.6   0.732   10.7  0.1536   45.7  0.4635 -162.2
 3.800  0.8679  123.1   0.708    9.0  0.1575   45.1  0.4727 -164.2
 3.900  0.8713  121.8   0.689    7.6  0.1628   44.7  0.4857 -165.8
 4.000  0.8752  120.6   0.670    6.2  0.1681   44.3  0.4991 -167.4
 4.100  0.8751  119.3   0.652    5.0  0.1725   43.5  0.5087 -169.3
 4.200  0.8755  118.0   0.634    3.8  0.1770   42.8  0.5188 -171.2
 4.300  0.8764  116.6   0.617    2.5  0.1815   42.2  0.5295 -173.0
 4.400  0.8777  115.3   0.600    1.1  0.1860   41.5  0.5406 -174.7
 4.500  0.8795  114.0   0.583   -0.4  0.1905   40.9  0.5522 -176.3
 4.600  0.8785  113.0   0.568   -1.2  0.1945   40.1  0.5593 -178.0
 4.700  0.8777  112.0   0.554   -2.1  0.1986   39.3  0.5669 -179.6
 4.800  0.8772  110.9   0.539   -3.0  0.2027   38.6  0.5749  178.8
 4.900  0.8770  109.9   0.525   -4.0  0.2068   37.9  0.5833  177.2
 5.000  0.8771  108.9   0.511   -5.0  0.2110   37.2  0.5922  175.7
 5.100  0.8766  108.1   0.500   -5.5  0.2150   36.4  0.5998  174.4
 5.200  0.8764  107.3   0.489   -6.0  0.2191   35.6  0.6076  173.1
 5.300  0.8763  106.4   0.478   -6.5  0.2233   34.9  0.6158  171.8
 5.400  0.8763  105.6   0.468   -7.0  0.2274   34.2  0.6243  170.6
 5.500  0.8766  104.8   0.457   -7.6  0.2316   33.5  0.6330  169.4
 5.600  0.8751  103.9   0.449   -7.9  0.2356   32.7  0.6381  168.3
 5.700  0.8738  103.0   0.441   -8.3  0.2396   31.9  0.6435  167.1
 5.800  0.8728  102.1   0.434   -8.6  0.2437   31.2  0.6491  166.0
 5.900  0.8719  101.2   0.426   -9.0  0.2478   30.5  0.6549  165.0
 6.000  0.8713  100.3   0.418   -9.4  0.2520   29.8  0.6610  163.9
!
!  f       NFmin   Gammaopt  rn/50
! GHz       dB    MAG  ANG    -
!
! noise parameter not available yet for this operation point!
!
! (c) 2016  Infineon Technologies AG, Munich
