! Infineon Technologies  Discrete & RF Semiconductors
! BFP181
! VCE = 10.0V,  IC =  17 mA
! Common Emitter S-Parameters:                            Jan 2016
# GHz  S  MA  R  50
!  f         S11            S21            S12            S22
! GHz     MAG   ANG      MAG   ANG      MAG   ANG      MAG   ANG
 0.010  0.7612   -2.9  25.884  176.1  0.0014   59.0  0.9553   -0.8
 0.015  0.7645   -4.4  25.744  175.5  0.0019   67.3  0.9551   -1.4
 0.020  0.7683   -5.9  25.606  174.9  0.0025   72.0  0.9550   -2.1
 0.025  0.7656   -7.3  25.532  173.9  0.0031   75.1  0.9535   -2.7
 0.030  0.7633   -8.7  25.466  172.8  0.0038   77.2  0.9521   -3.4
 0.035  0.7615  -10.2  25.409  171.8  0.0044   78.7  0.9509   -4.0
 0.040  0.7602  -11.6  25.360  170.7  0.0050   79.8  0.9497   -4.6
 0.045  0.7594  -13.1  25.320  169.7  0.0057   80.6  0.9487   -5.3
 0.050  0.7590  -14.5  25.289  168.6  0.0063   81.3  0.9478   -5.9
 0.055  0.7535  -15.9  25.137  167.6  0.0068   79.5  0.9445   -6.4
 0.060  0.7485  -17.3  24.992  166.6  0.0073   77.9  0.9413   -7.0
 0.065  0.7440  -18.8  24.855  165.6  0.0078   76.5  0.9382   -7.5
 0.070  0.7399  -20.3  24.726  164.6  0.0083   75.3  0.9352   -8.1
 0.075  0.7364  -21.7  24.605  163.5  0.0088   74.2  0.9323   -8.7
 0.080  0.7333  -23.2  24.493  162.5  0.0093   73.3  0.9294   -9.2
 0.085  0.7307  -24.7  24.388  161.4  0.0098   72.4  0.9267   -9.8
 0.090  0.7287  -26.2  24.292  160.4  0.0103   71.6  0.9240  -10.4
 0.095  0.7271  -27.8  24.204  159.3  0.0108   70.9  0.9215  -10.9
 0.100  0.7261  -29.3  24.125  158.2  0.0113   70.3  0.9190  -11.5
 0.105  0.7201  -30.6  23.943  157.3  0.0118   70.0  0.9143  -11.9
 0.110  0.7145  -31.8  23.766  156.4  0.0123   69.7  0.9096  -12.4
 0.115  0.7092  -33.1  23.596  155.5  0.0128   69.4  0.9050  -12.8
 0.120  0.7043  -34.4  23.433  154.5  0.0133   69.1  0.9005  -13.2
 0.125  0.6998  -35.7  23.275  153.6  0.0138   68.9  0.8960  -13.7
 0.130  0.6957  -37.1  23.124  152.6  0.0144   68.7  0.8916  -14.1
 0.135  0.6919  -38.4  22.980  151.6  0.0149   68.4  0.8872  -14.6
 0.140  0.6885  -39.8  22.843  150.6  0.0154   68.3  0.8829  -15.1
 0.145  0.6856  -41.2  22.712  149.6  0.0159   68.1  0.8786  -15.5
 0.150  0.6830  -42.6  22.589  148.6  0.0164   67.9  0.8744  -16.0
 0.155  0.6766  -43.8  22.406  147.8  0.0168   67.4  0.8695  -16.4
 0.160  0.6706  -45.0  22.228  147.0  0.0171   66.9  0.8646  -16.7
 0.165  0.6649  -46.3  22.054  146.2  0.0175   66.4  0.8598  -17.1
 0.170  0.6594  -47.5  21.885  145.4  0.0179   66.0  0.8550  -17.5
 0.175  0.6543  -48.8  21.721  144.5  0.0182   65.5  0.8502  -17.8
 0.180  0.6496  -50.1  21.561  143.7  0.0186   65.1  0.8455  -18.2
 0.185  0.6452  -51.4  21.406  142.8  0.0190   64.7  0.8408  -18.6
 0.190  0.6411  -52.8  21.256  141.9  0.0194   64.3  0.8362  -19.0
 0.195  0.6374  -54.1  21.112  141.0  0.0197   64.0  0.8316  -19.4
 0.200  0.6340  -55.5  20.972  140.1  0.0201   63.6  0.8270  -19.8
 0.220  0.6153  -59.5  20.182  137.3  0.0213   62.2  0.8075  -20.8
 0.240  0.5997  -63.7  19.443  134.4  0.0225   61.0  0.7884  -21.9
 0.260  0.5839  -67.7  18.765  131.8  0.0237   59.9  0.7706  -22.9
 0.280  0.5670  -71.5  18.126  129.6  0.0250   58.9  0.7540  -23.7
 0.300  0.5528  -75.5  17.516  127.2  0.0263   58.1  0.7376  -24.5
 0.320  0.5345  -78.6  16.916  125.4  0.0272   57.4  0.7241  -24.9
 0.340  0.5179  -81.8  16.334  123.4  0.0281   56.8  0.7106  -25.4
 0.360  0.5030  -85.3  15.773  121.3  0.0290   56.2  0.6971  -25.9
 0.380  0.4901  -89.0  15.235  119.0  0.0299   55.6  0.6837  -26.4
 0.400  0.4793  -92.8  14.722  116.6  0.0308   55.1  0.6704  -26.9
 0.420  0.4664  -95.6  14.249  115.2  0.0315   54.6  0.6602  -27.1
 0.440  0.4546  -98.5  13.785  113.8  0.0323   54.2  0.6500  -27.4
 0.450  0.4492 -100.0  13.556  113.0  0.0326   54.0  0.6449  -27.5
 0.460  0.4441 -101.5  13.330  112.2  0.0330   53.8  0.6398  -27.6
 0.480  0.4348 -104.7  12.886  110.5  0.0338   53.4  0.6296  -27.8
 0.500  0.4270 -108.0  12.454  108.7  0.0345   53.0  0.6194  -28.1
 0.520  0.4193 -110.2  12.123  107.6  0.0351   53.0  0.6123  -28.2
 0.540  0.4122 -112.4  11.796  106.5  0.0357   53.0  0.6053  -28.4
 0.560  0.4057 -114.7  11.474  105.3  0.0364   52.9  0.5982  -28.5
 0.580  0.3999 -117.1  11.157  104.0  0.0370   52.9  0.5912  -28.7
 0.600  0.3949 -119.6  10.846  102.7  0.0376   52.9  0.5841  -28.8
 0.620  0.3879 -121.7  10.559  101.8  0.0382   52.9  0.5791  -28.9
 0.640  0.3814 -123.8  10.275  100.8  0.0387   52.8  0.5741  -29.0
 0.660  0.3755 -126.1   9.994   99.8  0.0393   52.8  0.5690  -29.2
 0.680  0.3702 -128.3   9.717   98.7  0.0398   52.7  0.5640  -29.3
 0.700  0.3655 -130.7   9.443   97.6  0.0404   52.7  0.5590  -29.4
 0.720  0.3604 -132.7   9.243   96.8  0.0411   52.7  0.5553  -29.5
 0.740  0.3557 -134.7   9.044   95.9  0.0418   52.7  0.5517  -29.6
 0.760  0.3515 -136.8   8.848   95.0  0.0426   52.6  0.5480  -29.6
 0.780  0.3477 -138.9   8.654   94.1  0.0433   52.6  0.5444  -29.7
 0.800  0.3445 -141.1   8.462   93.1  0.0440   52.6  0.5407  -29.8
 0.820  0.3420 -142.8   8.289   92.4  0.0447   52.5  0.5378  -29.9
 0.840  0.3399 -144.5   8.118   91.6  0.0454   52.4  0.5350  -30.0
 0.860  0.3380 -146.3   7.948   90.8  0.0462   52.3  0.5321  -30.1
 0.880  0.3365 -148.0   7.780   90.0  0.0469   52.2  0.5293  -30.2
 0.900  0.3353 -149.8   7.614   89.1  0.0476   52.1  0.5264  -30.3
 0.920  0.3329 -151.6   7.465   88.4  0.0481   52.2  0.5241  -30.4
 0.940  0.3309 -153.4   7.316   87.7  0.0487   52.3  0.5217  -30.5
 0.960  0.3292 -155.2   7.169   86.9  0.0492   52.3  0.5194  -30.6
 0.980  0.3278 -157.0   7.023   86.1  0.0498   52.4  0.5170  -30.7
 1.000  0.3268 -158.9   6.879   85.3  0.0503   52.5  0.5147  -30.8
 1.020  0.3256 -160.4   6.768   84.7  0.0510   52.6  0.5128  -30.9
 1.040  0.3247 -161.9   6.657   84.0  0.0516   52.6  0.5110  -31.1
 1.060  0.3240 -163.4   6.548   83.3  0.0523   52.7  0.5091  -31.2
 1.080  0.3235 -165.0   6.439   82.6  0.0529   52.7  0.5073  -31.4
 1.100  0.3232 -166.5   6.332   81.9  0.0536   52.8  0.5054  -31.5
 1.120  0.3220 -167.9   6.227   81.4  0.0542   52.7  0.5040  -31.7
 1.140  0.3211 -169.4   6.123   80.8  0.0548   52.6  0.5027  -31.8
 1.160  0.3203 -170.8   6.019   80.2  0.0555   52.6  0.5013  -32.0
 1.180  0.3198 -172.2   5.916   79.6  0.0561   52.5  0.5000  -32.1
 1.200  0.3194 -173.7   5.814   79.0  0.0567   52.4  0.4986  -32.3
 1.220  0.3195 -174.9   5.724   78.4  0.0573   52.4  0.4975  -32.5
 1.240  0.3197 -176.2   5.635   77.9  0.0579   52.4  0.4963  -32.7
 1.260  0.3202 -177.4   5.546   77.3  0.0585   52.3  0.4952  -32.9
 1.280  0.3207 -178.7   5.458   76.6  0.0591   52.3  0.4941  -33.1
 1.300  0.3214 -179.9   5.371   76.0  0.0597   52.3  0.4930  -33.3
 1.320  0.3204  178.9   5.301   75.5  0.0605   52.2  0.4918  -33.5
 1.340  0.3196  177.7   5.232   75.0  0.0613   52.1  0.4907  -33.7
 1.360  0.3189  176.5   5.163   74.5  0.0620   52.1  0.4895  -33.8
 1.380  0.3184  175.2   5.094   73.9  0.0628   52.0  0.4884  -34.0
 1.400  0.3180  174.0   5.026   73.4  0.0636   51.9  0.4872  -34.2
 1.420  0.3192  172.9   4.961   72.8  0.0642   51.9  0.4864  -34.4
 1.440  0.3204  171.8   4.897   72.2  0.0648   51.8  0.4855  -34.6
 1.460  0.3218  170.7   4.833   71.6  0.0655   51.8  0.4847  -34.7
 1.480  0.3233  169.7   4.770   71.0  0.0661   51.7  0.4838  -34.9
 1.500  0.3249  168.6   4.708   70.3  0.0667   51.7  0.4830  -35.1
 1.520  0.3249  167.6   4.650   69.8  0.0674   51.6  0.4822  -35.3
 1.540  0.3250  166.6   4.592   69.3  0.0681   51.5  0.4815  -35.6
 1.560  0.3253  165.6   4.534   68.8  0.0687   51.5  0.4808  -35.8
 1.580  0.3256  164.6   4.477   68.3  0.0694   51.4  0.4800  -36.1
 1.600  0.3260  163.6   4.420   67.8  0.0701   51.3  0.4793  -36.3
 1.620  0.3270  162.4   4.366   67.3  0.0708   51.2  0.4784  -36.6
 1.640  0.3282  161.3   4.312   66.8  0.0715   51.1  0.4774  -36.8
 1.660  0.3294  160.2   4.259   66.2  0.0723   51.1  0.4765  -37.1
 1.680  0.3309  159.0   4.206   65.7  0.0730   51.0  0.4756  -37.3
 1.700  0.3324  157.9   4.153   65.1  0.0737   50.9  0.4747  -37.6
 1.720  0.3338  157.0   4.108   64.6  0.0743   50.8  0.4737  -37.8
 1.740  0.3353  156.2   4.064   64.1  0.0749   50.7  0.4728  -38.1
 1.760  0.3368  155.3   4.019   63.6  0.0755   50.7  0.4719  -38.3
 1.780  0.3384  154.4   3.976   63.0  0.0761   50.6  0.4709  -38.6
 1.800  0.3401  153.6   3.932   62.5  0.0767   50.5  0.4700  -38.8
 1.820  0.3408  152.7   3.892   62.1  0.0774   50.4  0.4693  -39.0
 1.840  0.3416  151.8   3.851   61.6  0.0782   50.2  0.4687  -39.2
 1.860  0.3425  150.9   3.811   61.1  0.0789   50.1  0.4680  -39.5
 1.880  0.3435  150.0   3.771   60.7  0.0797   49.9  0.4673  -39.7
 1.900  0.3445  149.1   3.732   60.2  0.0804   49.8  0.4667  -39.9
 1.920  0.3464  148.2   3.691   59.8  0.0810   49.7  0.4660  -40.2
 1.940  0.3483  147.4   3.651   59.3  0.0816   49.6  0.4653  -40.5
 1.960  0.3503  146.5   3.611   58.9  0.0823   49.5  0.4647  -40.7
 1.980  0.3524  145.6   3.571   58.4  0.0829   49.4  0.4640  -41.0
 2.000  0.3546  144.8   3.531   57.9  0.0835   49.3  0.4634  -41.3
 2.020  0.3559  144.0   3.499   57.5  0.0842   49.2  0.4625  -41.6
 2.040  0.3573  143.3   3.467   57.0  0.0848   49.0  0.4616  -41.9
 2.060  0.3587  142.5   3.435   56.6  0.0855   48.9  0.4608  -42.2
 2.080  0.3602  141.8   3.403   56.1  0.0861   48.8  0.4599  -42.5
 2.100  0.3617  141.1   3.372   55.6  0.0868   48.6  0.4591  -42.8
 2.120  0.3633  140.3   3.341   55.1  0.0875   48.5  0.4583  -43.1
 2.140  0.3650  139.6   3.310   54.6  0.0881   48.4  0.4575  -43.4
 2.160  0.3667  138.9   3.279   54.1  0.0888   48.2  0.4567  -43.7
 2.180  0.3685  138.2   3.249   53.6  0.0894   48.1  0.4559  -44.0
 2.200  0.3703  137.5   3.219   53.1  0.0901   48.0  0.4551  -44.3
 2.220  0.3718  136.8   3.192   52.7  0.0907   47.9  0.4544  -44.6
 2.240  0.3733  136.1   3.165   52.3  0.0914   47.7  0.4537  -44.9
 2.260  0.3748  135.4   3.138   51.9  0.0920   47.6  0.4530  -45.2
 2.280  0.3765  134.7   3.111   51.4  0.0927   47.5  0.4524  -45.4
 2.300  0.3781  134.0   3.085   51.0  0.0933   47.4  0.4517  -45.7
 2.320  0.3799  133.3   3.058   50.6  0.0939   47.3  0.4511  -46.0
 2.340  0.3816  132.7   3.032   50.1  0.0946   47.1  0.4504  -46.3
 2.360  0.3835  132.0   3.006   49.6  0.0952   47.0  0.4498  -46.6
 2.380  0.3854  131.4   2.981   49.2  0.0959   46.9  0.4492  -46.9
 2.400  0.3873  130.7   2.955   48.7  0.0965   46.8  0.4486  -47.2
 2.420  0.3894  130.1   2.931   48.3  0.0971   46.6  0.4475  -47.5
 2.440  0.3915  129.4   2.907   47.9  0.0977   46.4  0.4465  -47.8
 2.460  0.3937  128.8   2.884   47.5  0.0983   46.3  0.4455  -48.1
 2.480  0.3960  128.2   2.860   47.1  0.0989   46.1  0.4444  -48.4
 2.500  0.3982  127.6   2.837   46.6  0.0995   45.9  0.4434  -48.7
 2.520  0.4006  127.0   2.814   46.2  0.1001   45.8  0.4424  -49.0
 2.540  0.4029  126.4   2.791   45.8  0.1008   45.6  0.4415  -49.4
 2.560  0.4053  125.8   2.768   45.3  0.1014   45.4  0.4405  -49.7
 2.580  0.4078  125.2   2.745   44.9  0.1020   45.3  0.4395  -50.0
 2.600  0.4103  124.6   2.723   44.4  0.1026   45.1  0.4386  -50.3
 2.620  0.4121  124.0   2.702   44.0  0.1032   44.9  0.4379  -50.6
 2.640  0.4139  123.4   2.681   43.5  0.1038   44.8  0.4373  -51.0
 2.660  0.4158  122.8   2.661   43.1  0.1043   44.6  0.4366  -51.3
 2.680  0.4177  122.3   2.641   42.6  0.1049   44.4  0.4360  -51.6
 2.700  0.4196  121.7   2.620   42.2  0.1055   44.3  0.4354  -51.9
 2.720  0.4216  121.1   2.600   41.7  0.1061   44.1  0.4348  -52.3
 2.740  0.4237  120.6   2.581   41.3  0.1067   44.0  0.4342  -52.6
 2.760  0.4257  120.0   2.561   40.8  0.1072   43.8  0.4337  -52.9
 2.780  0.4278  119.4   2.541   40.3  0.1078   43.7  0.4331  -53.3
 2.800  0.4300  118.9   2.522   39.8  0.1084   43.5  0.4326  -53.6
 2.820  0.4320  118.3   2.505   39.4  0.1090   43.3  0.4315  -53.9
 2.840  0.4340  117.8   2.488   39.0  0.1097   43.2  0.4304  -54.2
 2.860  0.4361  117.3   2.472   38.6  0.1103   43.0  0.4294  -54.6
 2.880  0.4382  116.7   2.455   38.2  0.1109   42.9  0.4284  -54.9
 2.900  0.4403  116.2   2.438   37.8  0.1115   42.7  0.4273  -55.2
 2.920  0.4425  115.7   2.422   37.4  0.1122   42.6  0.4263  -55.6
 2.940  0.4447  115.1   2.406   37.0  0.1128   42.4  0.4253  -55.9
 2.960  0.4470  114.6   2.390   36.6  0.1134   42.3  0.4243  -56.2
 2.980  0.4493  114.1   2.374   36.1  0.1141   42.1  0.4234  -56.6
 3.000  0.4516  113.6   2.358   35.7  0.1147   42.0  0.4224  -56.9
 3.100  0.4602  111.3   2.282   33.9  0.1175   41.1  0.4181  -58.7
 3.200  0.4695  109.1   2.209   32.0  0.1203   40.3  0.4142  -60.5
 3.300  0.4795  106.9   2.138   30.0  0.1231   39.5  0.4108  -62.4
 3.400  0.4902  104.9   2.070   27.9  0.1259   38.7  0.4078  -64.3
 3.500  0.5014  102.9   2.005   25.6  0.1288   38.0  0.4052  -66.2
 3.600  0.5105  101.1   1.948   23.9  0.1314   37.1  0.4008  -68.1
 3.700  0.5201   99.3   1.894   22.1  0.1341   36.2  0.3970  -70.1
 3.800  0.5302   97.6   1.841   20.2  0.1368   35.3  0.3936  -72.2
 3.900  0.5407   96.0   1.790   18.1  0.1395   34.5  0.3907  -74.2
 4.000  0.5517   94.4   1.742   16.0  0.1423   33.7  0.3883  -76.3
 4.100  0.5588   92.7   1.695   14.4  0.1446   32.8  0.3845  -78.5
 4.200  0.5664   91.1   1.649   12.6  0.1468   32.0  0.3813  -80.7
 4.300  0.5745   89.5   1.605   10.8  0.1492   31.2  0.3787  -82.9
 4.400  0.5829   88.0   1.563    8.8  0.1515   30.4  0.3766  -85.2
 4.500  0.5918   86.5   1.522    6.8  0.1539   29.6  0.3752  -87.5
 4.600  0.5981   85.2   1.486    5.3  0.1562   28.8  0.3725  -89.7
 4.700  0.6046   84.0   1.450    3.8  0.1585   28.1  0.3702  -91.8
 4.800  0.6115   82.8   1.416    2.2  0.1608   27.4  0.3686  -94.0
 4.900  0.6186   81.6   1.383    0.5  0.1631   26.7  0.3675  -96.3
 5.000  0.6259   80.5   1.351   -1.3  0.1655   26.0  0.3669  -98.5
 5.100  0.6311   79.4   1.321   -2.8  0.1681   25.2  0.3669 -100.8
 5.200  0.6365   78.3   1.292   -4.3  0.1707   24.4  0.3675 -103.1
 5.300  0.6421   77.2   1.265   -5.9  0.1734   23.6  0.3687 -105.4
 5.400  0.6479   76.1   1.238   -7.6  0.1761   22.9  0.3705 -107.7
 5.500  0.6540   75.1   1.212   -9.4  0.1788   22.2  0.3728 -109.9
 5.600  0.6603   74.1   1.187  -10.9  0.1811   21.4  0.3739 -112.3
 5.700  0.6668   73.1   1.163  -12.4  0.1835   20.6  0.3757 -114.6
 5.800  0.6735   72.1   1.139  -13.9  0.1858   19.8  0.3780 -117.0
 5.900  0.6803   71.1   1.117  -15.6  0.1883   19.0  0.3810 -119.2
 6.000  0.6874   70.2   1.095  -17.3  0.1907   18.3  0.3846 -121.5
!
!  f       NFmin   Gammaopt  rn/50
! GHz       dB    MAG  ANG    -
!
! noise parameter not available yet for this operation point!
!
! (c) 2016  Infineon Technologies AG, Munich
