! Infineon Technologies  Discrete & RF Semiconductors
! BFP183
! VCE = 10.0V,  IC =  25 mA
! Common Emitter S-Parameters:                            Jan 2016
# GHz  S  MA  R  50
!  f         S11            S21            S12            S22
! GHz     MAG   ANG      MAG   ANG      MAG   ANG      MAG   ANG
 0.010  0.6628   -5.6  38.532  175.4  0.0017   69.1  0.9426   -2.4
 0.015  0.6621   -8.9  38.321  174.0  0.0026   70.3  0.9405   -3.8
 0.020  0.6636  -12.2  38.134  172.5  0.0036   70.8  0.9390   -5.3
 0.025  0.6570  -15.1  37.844  170.8  0.0044   72.1  0.9329   -6.5
 0.030  0.6521  -18.1  37.587  169.1  0.0053   72.9  0.9272   -7.8
 0.035  0.6491  -21.1  37.364  167.4  0.0061   73.6  0.9219   -9.1
 0.040  0.6478  -24.1  37.175  165.6  0.0070   74.0  0.9171  -10.4
 0.045  0.6483  -27.2  37.022  163.9  0.0078   74.4  0.9128  -11.7
 0.050  0.6507  -30.2  36.903  162.1  0.0087   74.7  0.9090  -13.0
 0.055  0.6416  -32.6  36.397  160.8  0.0093   72.9  0.8988  -14.0
 0.060  0.6337  -35.1  35.913  159.4  0.0100   71.3  0.8889  -15.0
 0.065  0.6270  -37.6  35.449  157.9  0.0106   70.0  0.8793  -16.1
 0.070  0.6215  -40.2  35.009  156.5  0.0113   68.8  0.8700  -17.2
 0.075  0.6174  -42.8  34.591  155.0  0.0119   67.7  0.8610  -18.3
 0.080  0.6145  -45.5  34.198  153.5  0.0126   66.7  0.8523  -19.4
 0.085  0.6130  -48.2  33.829  151.9  0.0133   65.8  0.8439  -20.5
 0.090  0.6128  -50.9  33.487  150.3  0.0140   65.1  0.8359  -21.7
 0.095  0.6140  -53.5  33.171  148.7  0.0146   64.4  0.8283  -22.9
 0.100  0.6165  -56.2  32.882  147.0  0.0153   63.7  0.8210  -24.1
 0.105  0.6088  -58.2  32.396  145.9  0.0159   63.0  0.8110  -24.8
 0.110  0.6018  -60.3  31.921  144.8  0.0164   62.3  0.8011  -25.5
 0.115  0.5957  -62.5  31.458  143.7  0.0170   61.7  0.7913  -26.2
 0.120  0.5905  -64.7  31.008  142.5  0.0176   61.2  0.7816  -27.0
 0.125  0.5861  -66.9  30.572  141.3  0.0182   60.6  0.7721  -27.8
 0.130  0.5826  -69.1  30.149  140.1  0.0188   60.1  0.7627  -28.6
 0.135  0.5800  -71.4  29.741  138.8  0.0193   59.7  0.7535  -29.4
 0.140  0.5783  -73.7  29.347  137.5  0.0199   59.2  0.7445  -30.2
 0.145  0.5776  -76.0  28.969  136.2  0.0205   58.8  0.7355  -31.0
 0.150  0.5778  -78.3  28.608  134.8  0.0211   58.4  0.7268  -31.9
 0.155  0.5732  -80.0  28.194  134.0  0.0214   57.9  0.7178  -32.4
 0.160  0.5691  -81.8  27.786  133.1  0.0217   57.4  0.7088  -32.9
 0.165  0.5656  -83.5  27.385  132.3  0.0220   56.9  0.6999  -33.3
 0.170  0.5626  -85.3  26.990  131.4  0.0224   56.4  0.6910  -33.9
 0.175  0.5602  -87.1  26.602  130.4  0.0227   55.9  0.6822  -34.4
 0.180  0.5583  -89.0  26.221  129.5  0.0230   55.5  0.6734  -34.9
 0.185  0.5570  -90.8  25.847  128.5  0.0233   55.0  0.6647  -35.5
 0.190  0.5563  -92.6  25.481  127.5  0.0236   54.6  0.6561  -36.0
 0.195  0.5561  -94.5  25.123  126.5  0.0240   54.2  0.6475  -36.6
 0.200  0.5565  -96.3  24.774  125.4  0.0243   53.8  0.6390  -37.2
 0.220  0.5449 -101.6  23.381  122.7  0.0253   52.5  0.6099  -38.5
 0.240  0.5381 -107.0  22.045  119.7  0.0262   51.3  0.5811  -39.9
 0.260  0.5320 -111.9  20.863  117.1  0.0272   50.4  0.5555  -40.9
 0.280  0.5252 -116.2  19.804  115.1  0.0283   50.0  0.5329  -41.6
 0.300  0.5214 -120.6  18.774  112.8  0.0293   49.5  0.5103  -42.3
 0.320  0.5143 -124.0  17.962  111.3  0.0300   49.3  0.4948  -42.6
 0.340  0.5090 -127.4  17.164  109.7  0.0307   49.2  0.4792  -43.0
 0.360  0.5056 -130.9  16.380  107.9  0.0314   49.1  0.4637  -43.4
 0.380  0.5042 -134.5  15.614  106.0  0.0321   48.9  0.4483  -43.8
 0.400  0.5046 -138.0  14.868  103.8  0.0328   48.8  0.4328  -44.2
 0.420  0.5006 -140.5  14.314  102.7  0.0335   48.8  0.4226  -44.3
 0.440  0.4976 -143.0  13.765  101.5  0.0342   48.7  0.4125  -44.4
 0.450  0.4965 -144.2  13.493  100.9  0.0346   48.7  0.4074  -44.4
 0.460  0.4956 -145.5  13.222  100.3  0.0350   48.7  0.4023  -44.5
 0.480  0.4945 -148.0  12.687   98.9  0.0357   48.6  0.3922  -44.6
 0.500  0.4944 -150.6  12.159   97.4  0.0364   48.6  0.3820  -44.7
 0.520  0.4925 -152.5  11.795   96.5  0.0371   48.7  0.3753  -44.7
 0.540  0.4912 -154.5  11.435   95.6  0.0378   48.9  0.3686  -44.7
 0.560  0.4905 -156.4  11.078   94.5  0.0385   49.0  0.3619  -44.7
 0.580  0.4903 -158.4  10.724   93.5  0.0392   49.1  0.3552  -44.7
 0.600  0.4907 -160.3  10.375   92.3  0.0399   49.2  0.3485  -44.7
 0.620  0.4897 -161.8  10.079   91.6  0.0406   49.5  0.3440  -44.7
 0.640  0.4891 -163.3   9.785   90.8  0.0413   49.8  0.3395  -44.7
 0.660  0.4888 -164.9   9.493   89.9  0.0421   50.1  0.3349  -44.6
 0.680  0.4888 -166.4   9.203   89.0  0.0428   50.3  0.3304  -44.6
 0.700  0.4892 -167.9   8.916   88.1  0.0435   50.6  0.3259  -44.6
 0.720  0.4879 -169.3   8.710   87.4  0.0440   50.6  0.3228  -44.6
 0.740  0.4870 -170.8   8.505   86.7  0.0446   50.6  0.3197  -44.6
 0.760  0.4863 -172.2   8.302   85.9  0.0451   50.7  0.3167  -44.7
 0.780  0.4859 -173.7   8.101   85.1  0.0457   50.7  0.3136  -44.7
 0.800  0.4859 -175.1   7.901   84.2  0.0462   50.7  0.3105  -44.7
 0.820  0.4865 -176.1   7.733   83.6  0.0471   50.8  0.3080  -44.7
 0.840  0.4873 -177.1   7.565   83.0  0.0480   50.8  0.3055  -44.8
 0.860  0.4882 -178.1   7.399   82.4  0.0488   50.9  0.3031  -44.8
 0.880  0.4892 -179.1   7.233   81.7  0.0497   50.9  0.3006  -44.9
 0.900  0.4904  179.9   7.069   81.0  0.0506   51.0  0.2981  -44.9
 0.920  0.4895  178.7   6.924   80.4  0.0513   51.1  0.2962  -45.0
 0.940  0.4887  177.5   6.779   79.7  0.0519   51.2  0.2942  -45.1
 0.960  0.4882  176.2   6.635   79.0  0.0526   51.4  0.2923  -45.2
 0.980  0.4880  175.0   6.493   78.3  0.0532   51.5  0.2903  -45.3
 1.000  0.4879  173.8   6.351   77.6  0.0539   51.6  0.2884  -45.4
 1.020  0.4895  172.8   6.241   77.0  0.0547   51.6  0.2869  -45.5
 1.040  0.4913  171.8   6.131   76.4  0.0555   51.7  0.2854  -45.6
 1.060  0.4932  170.8   6.022   75.7  0.0564   51.7  0.2839  -45.8
 1.080  0.4953  169.9   5.914   75.1  0.0572   51.8  0.2824  -45.9
 1.100  0.4975  168.9   5.807   74.4  0.0580   51.8  0.2809  -46.0
 1.120  0.4974  168.0   5.708   73.9  0.0587   51.8  0.2799  -46.1
 1.140  0.4974  167.2   5.609   73.4  0.0594   51.8  0.2789  -46.3
 1.160  0.4975  166.3   5.511   72.9  0.0601   51.9  0.2778  -46.4
 1.180  0.4978  165.5   5.413   72.4  0.0608   51.9  0.2768  -46.6
 1.200  0.4981  164.6   5.316   71.8  0.0615   51.9  0.2758  -46.7
 1.220  0.4989  163.9   5.232   71.3  0.0623   51.9  0.2747  -46.9
 1.240  0.4997  163.2   5.148   70.7  0.0632   51.9  0.2736  -47.2
 1.260  0.5006  162.6   5.064   70.1  0.0640   51.8  0.2725  -47.4
 1.280  0.5016  161.9   4.981   69.5  0.0649   51.8  0.2715  -47.7
 1.300  0.5027  161.2   4.899   68.9  0.0657   51.8  0.2704  -47.9
 1.320  0.5027  160.3   4.833   68.4  0.0664   51.8  0.2696  -48.1
 1.340  0.5028  159.3   4.768   68.0  0.0671   51.8  0.2688  -48.3
 1.360  0.5030  158.4   4.702   67.5  0.0679   51.7  0.2679  -48.5
 1.380  0.5034  157.4   4.638   67.0  0.0686   51.7  0.2671  -48.7
 1.400  0.5039  156.5   4.573   66.5  0.0693   51.7  0.2663  -48.9
 1.420  0.5054  155.8   4.511   65.9  0.0701   51.6  0.2655  -49.1
 1.440  0.5070  155.1   4.450   65.3  0.0709   51.5  0.2648  -49.3
 1.460  0.5087  154.4   4.389   64.7  0.0718   51.5  0.2640  -49.6
 1.480  0.5104  153.7   4.328   64.1  0.0726   51.4  0.2633  -49.8
 1.500  0.5122  153.0   4.268   63.5  0.0734   51.3  0.2625  -50.0
 1.520  0.5132  152.3   4.216   63.0  0.0741   51.2  0.2619  -50.3
 1.540  0.5142  151.7   4.164   62.6  0.0749   51.1  0.2614  -50.6
 1.560  0.5154  151.0   4.113   62.1  0.0756   51.1  0.2608  -50.8
 1.580  0.5165  150.4   4.062   61.6  0.0764   51.0  0.2602  -51.1
 1.600  0.5178  149.7   4.011   61.1  0.0771   50.9  0.2597  -51.4
 1.620  0.5187  148.9   3.960   60.6  0.0779   50.7  0.2589  -51.8
 1.640  0.5197  148.1   3.909   60.1  0.0787   50.6  0.2582  -52.2
 1.660  0.5208  147.4   3.858   59.6  0.0796   50.4  0.2574  -52.5
 1.680  0.5219  146.6   3.807   59.1  0.0804   50.3  0.2567  -52.9
 1.700  0.5232  145.8   3.757   58.6  0.0812   50.1  0.2560  -53.3
 1.720  0.5250  145.2   3.716   58.1  0.0820   50.0  0.2551  -53.6
 1.740  0.5269  144.6   3.675   57.6  0.0828   49.9  0.2542  -53.9
 1.760  0.5288  144.0   3.634   57.1  0.0835   49.8  0.2533  -54.1
 1.780  0.5308  143.5   3.593   56.5  0.0843   49.7  0.2525  -54.4
 1.800  0.5328  142.9   3.553   56.0  0.0851   49.6  0.2516  -54.7
 1.820  0.5335  142.3   3.515   55.6  0.0858   49.4  0.2510  -55.0
 1.840  0.5343  141.7   3.477   55.1  0.0866   49.3  0.2505  -55.3
 1.860  0.5351  141.2   3.440   54.7  0.0873   49.1  0.2500  -55.7
 1.880  0.5360  140.6   3.402   54.2  0.0881   49.0  0.2494  -56.0
 1.900  0.5369  140.0   3.365   53.7  0.0888   48.8  0.2489  -56.3
 1.920  0.5376  139.4   3.327   53.2  0.0895   48.7  0.2484  -56.7
 1.940  0.5384  138.7   3.290   52.8  0.0902   48.6  0.2480  -57.0
 1.960  0.5393  138.1   3.252   52.3  0.0909   48.4  0.2476  -57.4
 1.980  0.5402  137.4   3.215   51.8  0.0916   48.3  0.2471  -57.7
 2.000  0.5412  136.8   3.178   51.3  0.0923   48.2  0.2467  -58.1
 2.020  0.5423  136.2   3.148   50.9  0.0930   48.0  0.2460  -58.5
 2.040  0.5435  135.6   3.119   50.4  0.0938   47.9  0.2452  -58.9
 2.060  0.5447  135.1   3.090   50.0  0.0945   47.8  0.2445  -59.3
 2.080  0.5460  134.5   3.061   49.5  0.0953   47.6  0.2438  -59.7
 2.100  0.5474  133.9   3.032   49.1  0.0960   47.5  0.2431  -60.1
 2.120  0.5488  133.3   3.003   48.6  0.0967   47.3  0.2424  -60.5
 2.140  0.5502  132.8   2.975   48.1  0.0975   47.2  0.2417  -60.9
 2.160  0.5517  132.2   2.947   47.6  0.0982   47.1  0.2411  -61.4
 2.180  0.5533  131.7   2.919   47.1  0.0990   46.9  0.2404  -61.8
 2.200  0.5549  131.1   2.891   46.6  0.0997   46.8  0.2398  -62.2
 2.220  0.5562  130.5   2.866   46.2  0.1004   46.6  0.2392  -62.6
 2.240  0.5575  129.9   2.841   45.8  0.1011   46.4  0.2386  -63.0
 2.260  0.5589  129.3   2.816   45.3  0.1019   46.3  0.2380  -63.5
 2.280  0.5603  128.7   2.791   44.9  0.1026   46.1  0.2374  -63.9
 2.300  0.5618  128.2   2.767   44.4  0.1033   45.9  0.2368  -64.3
 2.320  0.5633  127.6   2.743   44.0  0.1040   45.8  0.2363  -64.8
 2.340  0.5649  127.0   2.718   43.5  0.1047   45.6  0.2357  -65.2
 2.360  0.5666  126.4   2.694   43.1  0.1055   45.4  0.2352  -65.6
 2.380  0.5683  125.9   2.671   42.6  0.1062   45.3  0.2347  -66.1
 2.400  0.5701  125.3   2.647   42.1  0.1069   45.1  0.2342  -66.5
 2.420  0.5717  124.8   2.624   41.7  0.1076   44.9  0.2334  -66.9
 2.440  0.5734  124.3   2.602   41.3  0.1083   44.7  0.2326  -67.4
 2.460  0.5751  123.9   2.580   40.9  0.1090   44.5  0.2318  -67.8
 2.480  0.5768  123.4   2.558   40.4  0.1097   44.3  0.2311  -68.3
 2.500  0.5786  122.9   2.536   40.0  0.1104   44.1  0.2303  -68.8
 2.520  0.5804  122.4   2.514   39.6  0.1111   43.9  0.2296  -69.2
 2.540  0.5822  122.0   2.492   39.1  0.1119   43.7  0.2289  -69.7
 2.560  0.5841  121.5   2.471   38.6  0.1126   43.6  0.2282  -70.2
 2.580  0.5860  121.1   2.449   38.2  0.1133   43.4  0.2275  -70.6
 2.600  0.5880  120.6   2.428   37.7  0.1140   43.2  0.2268  -71.1
 2.620  0.5893  120.1   2.409   37.3  0.1146   43.0  0.2262  -71.6
 2.640  0.5907  119.6   2.390   36.8  0.1153   42.8  0.2257  -72.1
 2.660  0.5921  119.1   2.371   36.4  0.1159   42.7  0.2252  -72.6
 2.680  0.5936  118.6   2.353   35.9  0.1165   42.5  0.2247  -73.2
 2.700  0.5951  118.1   2.334   35.4  0.1171   42.3  0.2242  -73.7
 2.720  0.5967  117.6   2.316   35.0  0.1178   42.2  0.2237  -74.2
 2.740  0.5983  117.1   2.298   34.5  0.1184   42.0  0.2232  -74.7
 2.760  0.5999  116.7   2.280   34.0  0.1190   41.8  0.2228  -75.2
 2.780  0.6016  116.2   2.262   33.5  0.1197   41.7  0.2224  -75.8
 2.800  0.6033  115.7   2.244   33.0  0.1203   41.5  0.2220  -76.3
 2.820  0.6046  115.2   2.228   32.6  0.1209   41.3  0.2213  -76.8
 2.840  0.6060  114.8   2.212   32.2  0.1215   41.1  0.2206  -77.3
 2.860  0.6074  114.3   2.196   31.9  0.1221   40.9  0.2199  -77.8
 2.880  0.6088  113.9   2.180   31.5  0.1227   40.8  0.2193  -78.3
 2.900  0.6103  113.4   2.164   31.1  0.1233   40.6  0.2186  -78.9
 2.920  0.6118  113.0   2.149   30.7  0.1239   40.4  0.2180  -79.4
 2.940  0.6133  112.5   2.133   30.3  0.1246   40.2  0.2174  -79.9
 2.960  0.6149  112.1   2.118   29.8  0.1252   40.0  0.2168  -80.4
 2.980  0.6165  111.6   2.102   29.4  0.1258   39.9  0.2162  -81.0
 3.000  0.6182  111.2   2.087   29.0  0.1264   39.7  0.2157  -81.5
 3.100  0.6248  109.1   2.017   27.2  0.1294   38.8  0.2131  -84.3
 3.200  0.6322  107.1   1.950   25.4  0.1323   37.9  0.2110  -87.2
 3.300  0.6404  105.2   1.884   23.4  0.1354   37.0  0.2094  -90.1
 3.400  0.6493  103.3   1.821   21.2  0.1384   36.2  0.2084  -93.0
 3.500  0.6589  101.4   1.761   18.9  0.1415   35.4  0.2079  -96.0
 3.600  0.6649   99.7   1.709   17.2  0.1442   34.4  0.2063  -99.2
 3.700  0.6715   98.0   1.658   15.5  0.1470   33.4  0.2054 -102.4
 3.800  0.6786   96.3   1.609   13.6  0.1498   32.5  0.2052 -105.6
 3.900  0.6863   94.7   1.561   11.6  0.1526   31.6  0.2056 -108.9
 4.000  0.6946   93.1   1.516    9.5  0.1555   30.7  0.2066 -112.1
 4.100  0.6989   91.6   1.473    7.9  0.1577   29.8  0.2066 -115.4
 4.200  0.7038   90.1   1.430    6.2  0.1600   28.9  0.2073 -118.8
 4.300  0.7091   88.6   1.389    4.5  0.1623   28.0  0.2086 -122.1
 4.400  0.7149   87.1   1.350    2.6  0.1647   27.1  0.2107 -125.3
 4.500  0.7211   85.7   1.312    0.6  0.1671   26.3  0.2134 -128.5
 4.600  0.7242   84.5   1.279   -0.7  0.1693   25.7  0.2150 -131.2
 4.700  0.7276   83.3   1.246   -2.1  0.1716   25.1  0.2171 -133.9
 4.800  0.7313   82.2   1.215   -3.6  0.1738   24.5  0.2197 -136.5
 4.900  0.7353   81.0   1.184   -5.1  0.1761   23.9  0.2227 -139.0
 5.000  0.7396   79.9   1.154   -6.7  0.1784   23.3  0.2261 -141.5
 5.100  0.7439   78.9   1.129   -8.1  0.1815   22.4  0.2315 -144.2
 5.200  0.7484   77.8   1.104   -9.7  0.1845   21.5  0.2374 -146.7
 5.300  0.7531   76.8   1.081  -11.2  0.1877   20.6  0.2438 -149.1
 5.400  0.7581   75.8   1.058  -12.9  0.1909   19.7  0.2505 -151.3
 5.500  0.7633   74.8   1.036  -14.6  0.1941   18.9  0.2576 -153.5
 5.600  0.7676   73.8   1.014  -16.0  0.1962   18.0  0.2629 -155.9
 5.700  0.7722   72.8   0.993  -17.4  0.1984   17.0  0.2686 -158.2
 5.800  0.7770   71.9   0.973  -18.9  0.2006   16.1  0.2748 -160.3
 5.900  0.7820   70.9   0.953  -20.4  0.2029   15.3  0.2813 -162.4
 6.000  0.7872   70.0   0.934  -22.0  0.2052   14.4  0.2882 -164.4
!
!  f       NFmin   Gammaopt  rn/50
! GHz       dB    MAG  ANG    -
!
! noise parameter not available yet for this operation point!
!
! (c) 2016  Infineon Technologies AG, Munich
