! Infineon Technologies  Discrete & RF Semiconductors
! BFP183W
! VCE = 3.0 V,  IC =  6.0 mA
! Common Emitter S-Parameters:                            Jan 2016
# GHz  S  MA  R  50
!  f         S11            S21            S12            S22
! GHz     MAG   ANG      MAG   ANG      MAG   ANG      MAG   ANG
 0.010  0.7941   -3.8  17.769  177.0  0.0021   88.0  0.9902   -1.7
 0.015  0.7925   -5.6  17.796  176.3  0.0034   88.2  0.9861   -2.5
 0.020  0.7916   -7.4  17.826  175.7  0.0048   88.3  0.9823   -3.4
 0.025  0.7912   -9.3  17.820  174.7  0.0059   87.3  0.9831   -4.3
 0.030  0.7917  -11.1  17.819  173.6  0.0070   86.6  0.9841   -5.1
 0.035  0.7885  -12.9  17.760  172.5  0.0082   84.2  0.9815   -5.9
 0.040  0.7861  -14.6  17.707  171.4  0.0094   82.4  0.9791   -6.7
 0.045  0.7845  -16.4  17.661  170.2  0.0107   81.0  0.9770   -7.6
 0.050  0.7836  -18.2  17.622  169.1  0.0119   79.9  0.9750   -8.4
 0.055  0.7793  -19.9  17.525  168.1  0.0129   78.6  0.9706   -9.1
 0.060  0.7758  -21.6  17.434  167.1  0.0139   77.5  0.9663   -9.9
 0.065  0.7729  -23.3  17.347  166.1  0.0150   76.5  0.9622  -10.6
 0.070  0.7708  -25.1  17.266  165.1  0.0160   75.7  0.9582  -11.4
 0.075  0.7693  -26.8  17.191  164.1  0.0170   75.0  0.9544  -12.2
 0.080  0.7686  -28.6  17.121  163.1  0.0180   74.3  0.9508  -12.9
 0.085  0.7686  -30.4  17.056  162.0  0.0191   73.7  0.9474  -13.7
 0.090  0.7694  -32.1  16.997  161.0  0.0201   73.2  0.9442  -14.5
 0.095  0.7708  -33.9  16.944  160.0  0.0212   72.7  0.9411  -15.3
 0.100  0.7730  -35.6  16.896  158.9  0.0222   72.3  0.9382  -16.1
 0.105  0.7682  -37.2  16.781  158.0  0.0231   71.2  0.9323  -16.8
 0.110  0.7640  -38.8  16.670  157.1  0.0240   70.2  0.9266  -17.5
 0.115  0.7604  -40.4  16.564  156.1  0.0249   69.3  0.9209  -18.1
 0.120  0.7573  -42.0  16.462  155.2  0.0258   68.5  0.9155  -18.8
 0.125  0.7549  -43.6  16.365  154.2  0.0267   67.7  0.9101  -19.5
 0.130  0.7532  -45.3  16.272  153.2  0.0276   66.9  0.9049  -20.3
 0.135  0.7520  -46.9  16.185  152.2  0.0285   66.2  0.8998  -21.0
 0.140  0.7515  -48.6  16.102  151.2  0.0294   65.6  0.8949  -21.7
 0.145  0.7516  -50.2  16.024  150.2  0.0304   65.0  0.8901  -22.5
 0.150  0.7523  -51.9  15.951  149.2  0.0313   64.4  0.8855  -23.2
 0.155  0.7476  -53.3  15.815  148.4  0.0320   63.6  0.8791  -23.7
 0.160  0.7434  -54.7  15.682  147.6  0.0327   62.9  0.8727  -24.3
 0.165  0.7397  -56.2  15.552  146.8  0.0334   62.2  0.8664  -24.8
 0.170  0.7364  -57.7  15.425  146.0  0.0341   61.6  0.8602  -25.3
 0.175  0.7337  -59.1  15.301  145.2  0.0348   60.9  0.8541  -25.9
 0.180  0.7314  -60.6  15.180  144.3  0.0355   60.3  0.8480  -26.5
 0.185  0.7296  -62.1  15.063  143.5  0.0362   59.7  0.8421  -27.0
 0.190  0.7283  -63.6  14.950  142.6  0.0369   59.2  0.8362  -27.6
 0.195  0.7275  -65.1  14.840  141.7  0.0377   58.6  0.8304  -28.2
 0.200  0.7272  -66.6  14.733  140.8  0.0384   58.1  0.8247  -28.8
 0.220  0.7174  -71.6  14.247  138.1  0.0408   55.8  0.8010  -30.7
 0.240  0.7130  -76.6  13.794  135.3  0.0433   53.7  0.7782  -32.7
 0.260  0.7070  -81.4  13.332  132.6  0.0454   51.9  0.7554  -34.4
 0.280  0.6981  -85.8  12.853  130.1  0.0471   50.1  0.7321  -35.8
 0.300  0.6936  -90.4  12.401  127.4  0.0489   48.4  0.7093  -37.4
 0.320  0.6833  -93.8  11.992  125.7  0.0501   47.0  0.6906  -38.4
 0.340  0.6756  -97.4  11.595  123.8  0.0513   45.6  0.6722  -39.4
 0.360  0.6706 -101.0  11.210  121.8  0.0526   44.3  0.6540  -40.5
 0.380  0.6682 -104.6  10.841  119.7  0.0539   43.1  0.6360  -41.6
 0.400  0.6685 -108.3  10.487  117.4  0.0552   41.9  0.6183  -42.8
 0.420  0.6622 -111.0  10.167  116.0  0.0560   41.1  0.6043  -43.4
 0.440  0.6575 -113.8   9.854  114.6  0.0569   40.2  0.5903  -44.0
 0.450  0.6556 -115.2   9.700  113.8  0.0573   39.8  0.5834  -44.3
 0.460  0.6542 -116.6   9.547  113.0  0.0577   39.4  0.5764  -44.6
 0.480  0.6526 -119.4   9.248  111.4  0.0586   38.7  0.5626  -45.3
 0.500  0.6525 -122.2   8.957  109.6  0.0595   37.9  0.5489  -46.0
 0.520  0.6486 -124.3   8.711  108.5  0.0601   37.3  0.5385  -46.4
 0.540  0.6455 -126.4   8.469  107.3  0.0606   36.8  0.5282  -46.9
 0.560  0.6432 -128.5   8.231  106.1  0.0612   36.2  0.5179  -47.4
 0.580  0.6419 -130.6   7.996  104.8  0.0618   35.7  0.5077  -47.9
 0.600  0.6414 -132.7   7.766  103.4  0.0624   35.2  0.4975  -48.4
 0.620  0.6390 -134.5   7.580  102.5  0.0628   34.9  0.4899  -48.7
 0.640  0.6372 -136.2   7.396  101.5  0.0631   34.6  0.4822  -49.0
 0.660  0.6360 -138.0   7.215  100.5  0.0635   34.4  0.4746  -49.3
 0.680  0.6354 -139.8   7.036   99.4  0.0638   34.1  0.4670  -49.6
 0.700  0.6355 -141.6   6.859   98.3  0.0642   33.8  0.4594  -49.9
 0.720  0.6328 -143.0   6.701   97.5  0.0646   33.6  0.4536  -50.2
 0.740  0.6306 -144.5   6.544   96.6  0.0650   33.3  0.4478  -50.4
 0.760  0.6287 -146.0   6.389   95.7  0.0653   33.1  0.4420  -50.7
 0.780  0.6272 -147.4   6.235   94.8  0.0657   32.8  0.4363  -51.0
 0.800  0.6262 -148.9   6.083   93.8  0.0661   32.6  0.4305  -51.3
 0.820  0.6253 -150.2   5.960   93.1  0.0665   32.5  0.4260  -51.5
 0.840  0.6247 -151.5   5.838   92.3  0.0669   32.4  0.4214  -51.7
 0.860  0.6244 -152.7   5.717   91.5  0.0672   32.3  0.4169  -51.9
 0.880  0.6244 -154.0   5.597   90.7  0.0676   32.2  0.4124  -52.2
 0.900  0.6247 -155.3   5.478   89.8  0.0680   32.1  0.4079  -52.4
 0.920  0.6240 -156.3   5.373   89.2  0.0682   32.0  0.4048  -52.6
 0.940  0.6234 -157.2   5.268   88.5  0.0684   32.0  0.4016  -52.8
 0.960  0.6230 -158.2   5.164   87.8  0.0687   31.9  0.3985  -53.0
 0.980  0.6228 -159.1   5.060   87.1  0.0689   31.9  0.3954  -53.3
 1.000  0.6228 -160.1   4.958   86.4  0.0691   31.8  0.3923  -53.5
 1.020  0.6227 -161.0   4.878   85.8  0.0694   31.8  0.3896  -53.7
 1.040  0.6228 -161.9   4.799   85.1  0.0698   31.7  0.3870  -53.9
 1.060  0.6230 -162.9   4.720   84.5  0.0701   31.7  0.3843  -54.1
 1.080  0.6234 -163.8   4.642   83.8  0.0705   31.6  0.3817  -54.3
 1.100  0.6239 -164.7   4.565   83.1  0.0708   31.6  0.3790  -54.5
 1.120  0.6239 -165.6   4.490   82.5  0.0710   31.6  0.3769  -54.7
 1.140  0.6240 -166.6   4.416   81.9  0.0713   31.7  0.3749  -55.0
 1.160  0.6244 -167.5   4.343   81.3  0.0715   31.7  0.3729  -55.2
 1.180  0.6248 -168.5   4.270   80.7  0.0718   31.8  0.3708  -55.5
 1.200  0.6255 -169.4   4.197   80.0  0.0720   31.8  0.3688  -55.7
 1.220  0.6248 -170.1   4.136   79.4  0.0723   31.9  0.3671  -55.9
 1.240  0.6243 -170.9   4.075   78.9  0.0726   32.0  0.3655  -56.1
 1.260  0.6238 -171.6   4.014   78.3  0.0728   32.1  0.3638  -56.4
 1.280  0.6235 -172.4   3.954   77.6  0.0731   32.2  0.3621  -56.6
 1.300  0.6232 -173.1   3.895   77.0  0.0734   32.3  0.3605  -56.8
 1.320  0.6235 -173.8   3.844   76.5  0.0737   32.4  0.3594  -57.0
 1.340  0.6240 -174.5   3.792   76.0  0.0740   32.4  0.3583  -57.2
 1.360  0.6245 -175.1   3.742   75.4  0.0743   32.5  0.3572  -57.5
 1.380  0.6251 -175.8   3.691   74.9  0.0746   32.5  0.3562  -57.7
 1.400  0.6258 -176.5   3.641   74.3  0.0749   32.6  0.3551  -57.9
 1.420  0.6256 -177.1   3.594   73.8  0.0752   32.8  0.3538  -58.2
 1.440  0.6255 -177.8   3.547   73.3  0.0755   32.9  0.3525  -58.5
 1.460  0.6255 -178.4   3.500   72.8  0.0757   33.1  0.3512  -58.7
 1.480  0.6256 -179.1   3.454   72.2  0.0760   33.2  0.3500  -59.0
 1.500  0.6257 -179.7   3.408   71.7  0.0763   33.4  0.3487  -59.3
 1.520  0.6262  179.6   3.368   71.2  0.0766   33.5  0.3479  -59.5
 1.540  0.6269  179.0   3.329   70.7  0.0769   33.6  0.3472  -59.8
 1.560  0.6276  178.3   3.290   70.1  0.0773   33.8  0.3464  -60.0
 1.580  0.6283  177.7   3.251   69.6  0.0776   33.9  0.3456  -60.3
 1.600  0.6292  177.0   3.213   69.0  0.0779   34.0  0.3449  -60.5
 1.620  0.6292  176.4   3.176   68.6  0.0782   34.1  0.3442  -60.8
 1.640  0.6293  175.8   3.140   68.1  0.0785   34.2  0.3435  -61.1
 1.660  0.6295  175.1   3.103   67.7  0.0787   34.2  0.3428  -61.4
 1.680  0.6297  174.5   3.067   67.2  0.0790   34.3  0.3421  -61.7
 1.700  0.6300  173.9   3.031   66.7  0.0793   34.4  0.3414  -62.0
 1.720  0.6301  173.4   2.998   66.2  0.0797   34.5  0.3408  -62.2
 1.740  0.6304  172.8   2.966   65.7  0.0801   34.7  0.3403  -62.5
 1.760  0.6306  172.3   2.933   65.2  0.0806   34.8  0.3398  -62.7
 1.780  0.6309  171.7   2.901   64.7  0.0810   35.0  0.3392  -63.0
 1.800  0.6313  171.2   2.869   64.2  0.0814   35.1  0.3387  -63.2
 1.820  0.6310  170.6   2.838   63.7  0.0818   35.2  0.3386  -63.5
 1.840  0.6308  170.0   2.808   63.3  0.0821   35.3  0.3384  -63.8
 1.860  0.6307  169.5   2.778   62.8  0.0825   35.3  0.3383  -64.0
 1.880  0.6306  168.9   2.748   62.3  0.0828   35.4  0.3382  -64.3
 1.900  0.6306  168.3   2.718   61.8  0.0832   35.5  0.3381  -64.6
 1.920  0.6315  167.8   2.693   61.4  0.0836   35.6  0.3378  -64.9
 1.940  0.6323  167.3   2.668   60.9  0.0839   35.7  0.3375  -65.2
 1.960  0.6333  166.9   2.643   60.5  0.0843   35.9  0.3372  -65.6
 1.980  0.6343  166.4   2.618   60.1  0.0846   36.0  0.3370  -65.9
 2.000  0.6353  165.9   2.594   59.6  0.0850   36.1  0.3367  -66.2
 2.020  0.6356  165.4   2.571   59.2  0.0854   36.2  0.3365  -66.5
 2.040  0.6359  165.0   2.548   58.8  0.0857   36.3  0.3363  -66.8
 2.060  0.6363  164.5   2.526   58.3  0.0861   36.4  0.3361  -67.1
 2.080  0.6367  164.1   2.503   57.9  0.0864   36.6  0.3360  -67.4
 2.100  0.6372  163.6   2.481   57.5  0.0868   36.7  0.3358  -67.7
 2.120  0.6377  163.1   2.458   57.0  0.0872   36.8  0.3357  -68.1
 2.140  0.6382  162.7   2.436   56.5  0.0875   36.9  0.3355  -68.4
 2.160  0.6388  162.2   2.414   56.1  0.0879   37.0  0.3354  -68.7
 2.180  0.6394  161.8   2.393   55.6  0.0882   37.1  0.3353  -69.0
 2.200  0.6401  161.3   2.371   55.1  0.0886   37.2  0.3352  -69.3
 2.220  0.6404  160.8   2.351   54.7  0.0890   37.3  0.3351  -69.7
 2.240  0.6408  160.4   2.331   54.3  0.0894   37.3  0.3349  -70.0
 2.260  0.6412  159.9   2.311   53.9  0.0899   37.4  0.3348  -70.4
 2.280  0.6417  159.4   2.291   53.5  0.0903   37.5  0.3347  -70.8
 2.300  0.6422  158.9   2.272   53.0  0.0907   37.6  0.3346  -71.1
 2.320  0.6428  158.5   2.252   52.6  0.0911   37.6  0.3346  -71.5
 2.340  0.6434  158.0   2.233   52.2  0.0915   37.7  0.3345  -71.9
 2.360  0.6440  157.5   2.214   51.7  0.0920   37.8  0.3344  -72.3
 2.380  0.6447  157.1   2.195   51.3  0.0924   37.8  0.3344  -72.6
 2.400  0.6454  156.6   2.176   50.8  0.0928   37.9  0.3344  -73.0
 2.420  0.6458  156.2   2.159   50.4  0.0933   38.0  0.3343  -73.3
 2.440  0.6462  155.8   2.143   50.0  0.0937   38.1  0.3343  -73.7
 2.460  0.6467  155.3   2.127   49.6  0.0942   38.2  0.3343  -74.0
 2.480  0.6472  154.9   2.111   49.2  0.0946   38.3  0.3343  -74.4
 2.500  0.6477  154.5   2.095   48.7  0.0951   38.4  0.3342  -74.8
 2.520  0.6483  154.1   2.079   48.3  0.0956   38.5  0.3343  -75.1
 2.540  0.6489  153.7   2.063   47.9  0.0960   38.6  0.3343  -75.5
 2.560  0.6495  153.2   2.047   47.4  0.0965   38.7  0.3343  -75.8
 2.580  0.6502  152.8   2.031   47.0  0.0969   38.8  0.3343  -76.2
 2.600  0.6509  152.4   2.016   46.5  0.0974   38.9  0.3344  -76.5
 2.620  0.6515  152.0   2.002   46.1  0.0979   39.0  0.3344  -76.9
 2.640  0.6521  151.6   1.987   45.8  0.0984   39.0  0.3344  -77.2
 2.660  0.6528  151.2   1.973   45.4  0.0989   39.1  0.3344  -77.6
 2.680  0.6535  150.7   1.959   45.0  0.0994   39.1  0.3345  -78.0
 2.700  0.6542  150.3   1.944   44.6  0.0999   39.2  0.3345  -78.4
 2.720  0.6549  149.9   1.930   44.2  0.1004   39.3  0.3346  -78.7
 2.740  0.6557  149.5   1.916   43.8  0.1009   39.3  0.3347  -79.1
 2.760  0.6566  149.1   1.902   43.4  0.1014   39.4  0.3348  -79.5
 2.780  0.6574  148.7   1.889   43.0  0.1019   39.4  0.3349  -79.8
 2.800  0.6583  148.3   1.875   42.6  0.1024   39.5  0.3350  -80.2
 2.820  0.6588  147.9   1.862   42.2  0.1029   39.5  0.3352  -80.6
 2.840  0.6593  147.5   1.850   41.8  0.1033   39.6  0.3354  -81.0
 2.860  0.6598  147.1   1.837   41.5  0.1038   39.6  0.3356  -81.4
 2.880  0.6604  146.7   1.824   41.1  0.1043   39.6  0.3358  -81.8
 2.900  0.6610  146.3   1.812   40.7  0.1047   39.7  0.3360  -82.2
 2.920  0.6616  145.9   1.800   40.3  0.1052   39.7  0.3363  -82.5
 2.940  0.6623  145.5   1.787   39.9  0.1057   39.7  0.3365  -82.9
 2.960  0.6630  145.1   1.775   39.4  0.1062   39.7  0.3368  -83.3
 2.980  0.6637  144.7   1.763   39.0  0.1066   39.8  0.3371  -83.7
 3.000  0.6645  144.3   1.751   38.6  0.1071   39.8  0.3374  -84.1
 3.100  0.6689  142.4   1.699   36.8  0.1098   40.1  0.3384  -86.2
 3.200  0.6740  140.5   1.649   34.8  0.1126   40.3  0.3399  -88.3
 3.300  0.6790  138.6   1.600   32.9  0.1153   40.4  0.3420  -90.4
 3.400  0.6847  136.8   1.552   30.8  0.1181   40.4  0.3445  -92.4
 3.500  0.6886  135.2   1.508   29.1  0.1207   40.4  0.3460  -94.6
 3.600  0.6931  133.6   1.466   27.3  0.1233   40.4  0.3480  -96.7
 3.700  0.6953  131.8   1.421   25.5  0.1255   40.2  0.3499  -99.1
 3.800  0.6981  130.1   1.378   23.6  0.1277   40.0  0.3523 -101.4
 3.900  0.7039  128.7   1.345   21.9  0.1311   40.0  0.3563 -103.8
 4.000  0.7101  127.3   1.314   20.1  0.1346   40.0  0.3608 -106.1
 4.100  0.7124  125.9   1.281   18.6  0.1376   39.8  0.3640 -108.5
 4.200  0.7151  124.5   1.248   17.0  0.1406   39.5  0.3679 -110.9
 4.300  0.7182  123.1   1.217   15.3  0.1436   39.3  0.3724 -113.3
 4.400  0.7218  121.7   1.187   13.5  0.1466   39.1  0.3775 -115.6
 4.500  0.7258  120.3   1.158   11.6  0.1496   38.9  0.3832 -117.8
 4.600  0.7280  119.2   1.130   10.3  0.1526   38.6  0.3876 -120.1
 4.700  0.7305  118.1   1.104    8.9  0.1557   38.3  0.3926 -122.3
 4.800  0.7333  117.0   1.077    7.4  0.1587   38.0  0.3982 -124.4
 4.900  0.7364  115.9   1.052    5.9  0.1618   37.8  0.4044 -126.5
 5.000  0.7397  114.8   1.027    4.3  0.1648   37.5  0.4110 -128.5
 5.100  0.7402  113.9   1.004    3.1  0.1680   37.1  0.4158 -130.5
 5.200  0.7409  113.0   0.982    1.8  0.1711   36.7  0.4212 -132.5
 5.300  0.7418  112.1   0.960    0.4  0.1743   36.3  0.4270 -134.4
 5.400  0.7429  111.2   0.939   -1.0  0.1775   35.9  0.4333 -136.2
 5.500  0.7441  110.3   0.918   -2.5  0.1807   35.5  0.4400 -138.0
 5.600  0.7447  109.4   0.899   -3.6  0.1841   35.1  0.4453 -139.7
 5.700  0.7455  108.6   0.881   -4.7  0.1874   34.7  0.4510 -141.3
 5.800  0.7465  107.7   0.862   -5.9  0.1908   34.4  0.4570 -142.9
 5.900  0.7476  106.9   0.844   -7.1  0.1942   34.0  0.4633 -144.4
 6.000  0.7489  106.0   0.827   -8.4  0.1976   33.7  0.4700 -145.9
!
!  f       NFmin   Gammaopt  rn/50
! GHz       dB    MAG  ANG    -
 0.450      1.20  0.21   41   0.24
 0.900      1.25  0.24  101   0.21
 1.800      2.00  0.32  175   0.14
!
! (c) 2016  Infineon Technologies AG, Munich
