! Infineon Technologies  Discrete & RF Semiconductors
! BFP181
! VCE = 6.0 V,  IC =  40 mA
! Common Emitter S-Parameters:                            Jan 2016
# GHz  S  MA  R  50
!  f         S11            S21            S12            S22
! GHz     MAG   ANG      MAG   ANG      MAG   ANG      MAG   ANG
 0.010  0.9866   -0.7   1.448  179.8  0.0013   84.3  0.9999   -0.2
 0.015  0.9867   -0.9   1.443  179.8  0.0021   87.4  0.9971   -0.3
 0.020  0.9869   -1.0   1.438  179.7  0.0030   88.7  0.9944   -0.4
 0.025  0.9867   -1.2   1.439  179.3  0.0037   89.8  0.9950   -0.6
 0.030  0.9865   -1.5   1.441  179.0  0.0044   90.5  0.9957   -0.7
 0.035  0.9863   -1.7   1.442  178.6  0.0050   91.1  0.9964   -0.9
 0.040  0.9861   -1.9   1.444  178.2  0.0057   91.5  0.9970   -1.0
 0.045  0.9859   -2.2   1.445  177.9  0.0064   91.8  0.9977   -1.2
 0.050  0.9858   -2.4   1.447  177.5  0.0071   92.1  0.9984   -1.3
 0.055  0.9854   -2.7   1.446  177.3  0.0077   90.9  0.9983   -1.4
 0.060  0.9850   -3.0   1.446  177.0  0.0084   89.9  0.9982   -1.5
 0.065  0.9846   -3.2   1.445  176.8  0.0090   89.1  0.9982   -1.7
 0.070  0.9842   -3.5   1.444  176.5  0.0096   88.4  0.9981   -1.8
 0.075  0.9839   -3.8   1.444  176.3  0.0103   87.7  0.9980   -1.9
 0.080  0.9835   -4.1   1.443  176.1  0.0109   87.1  0.9980   -2.0
 0.085  0.9832   -4.4   1.443  175.8  0.0116   86.6  0.9979   -2.1
 0.090  0.9830   -4.6   1.442  175.6  0.0122   86.2  0.9979   -2.3
 0.095  0.9827   -4.9   1.441  175.3  0.0129   85.8  0.9978   -2.4
 0.100  0.9825   -5.2   1.441  175.1  0.0135   85.4  0.9978   -2.5
 0.105  0.9824   -5.4   1.440  174.8  0.0142   85.3  0.9977   -2.6
 0.110  0.9824   -5.7   1.439  174.6  0.0149   85.1  0.9975   -2.7
 0.115  0.9823   -5.9   1.438  174.3  0.0157   85.0  0.9974   -2.9
 0.120  0.9823   -6.1   1.437  174.1  0.0164   84.9  0.9973   -3.0
 0.125  0.9823   -6.3   1.436  173.8  0.0171   84.8  0.9972   -3.1
 0.130  0.9823   -6.6   1.435  173.5  0.0178   84.7  0.9971   -3.2
 0.135  0.9823   -6.8   1.434  173.3  0.0185   84.6  0.9970   -3.3
 0.140  0.9823   -7.0   1.433  173.0  0.0193   84.5  0.9969   -3.5
 0.145  0.9823   -7.3   1.432  172.8  0.0200   84.5  0.9968   -3.6
 0.150  0.9824   -7.5   1.431  172.5  0.0207   84.4  0.9967   -3.7
 0.155  0.9821   -7.8   1.432  172.2  0.0214   84.2  0.9967   -3.8
 0.160  0.9819   -8.0   1.434  172.0  0.0221   84.0  0.9966   -3.9
 0.165  0.9816   -8.3   1.435  171.7  0.0227   83.8  0.9966   -4.1
 0.170  0.9814   -8.5   1.437  171.5  0.0234   83.6  0.9966   -4.2
 0.175  0.9812   -8.8   1.439  171.2  0.0241   83.5  0.9965   -4.3
 0.180  0.9810   -9.1   1.440  170.9  0.0248   83.3  0.9965   -4.4
 0.185  0.9809   -9.3   1.442  170.7  0.0255   83.2  0.9965   -4.5
 0.190  0.9807   -9.6   1.444  170.4  0.0261   83.1  0.9965   -4.7
 0.195  0.9806   -9.8   1.445  170.2  0.0268   82.9  0.9965   -4.8
 0.200  0.9805  -10.1   1.447  169.9  0.0275   82.8  0.9965   -4.9
 0.220  0.9799  -11.1   1.445  168.9  0.0301   81.9  0.9958   -5.4
 0.240  0.9796  -12.1   1.443  167.9  0.0327   81.2  0.9952   -5.9
 0.260  0.9792  -13.1   1.439  167.0  0.0354   80.4  0.9946   -6.5
 0.280  0.9788  -14.0   1.435  166.3  0.0383   79.6  0.9941   -7.0
 0.300  0.9786  -15.0   1.430  165.5  0.0411   78.9  0.9937   -7.5
 0.320  0.9758  -16.0   1.430  164.4  0.0438   78.1  0.9929   -8.0
 0.340  0.9733  -16.9   1.430  163.2  0.0464   77.3  0.9921   -8.5
 0.360  0.9711  -17.9   1.431  162.1  0.0491   76.6  0.9914   -8.9
 0.380  0.9691  -18.9   1.433  160.9  0.0518   76.0  0.9908   -9.4
 0.400  0.9675  -19.9   1.435  159.8  0.0545   75.5  0.9902   -9.9
 0.420  0.9643  -20.9   1.433  158.8  0.0570   74.6  0.9890  -10.4
 0.440  0.9614  -22.0   1.432  157.7  0.0594   73.7  0.9879  -10.9
 0.450  0.9600  -22.5   1.432  157.2  0.0607   73.3  0.9873  -11.1
 0.460  0.9588  -23.1   1.432  156.7  0.0619   72.9  0.9868  -11.4
 0.480  0.9565  -24.1   1.432  155.6  0.0644   72.2  0.9858  -11.9
 0.500  0.9546  -25.2   1.432  154.6  0.0669   71.5  0.9849  -12.4
 0.520  0.9519  -26.1   1.429  153.7  0.0695   70.6  0.9836  -12.9
 0.540  0.9494  -27.1   1.427  152.7  0.0720   69.8  0.9824  -13.4
 0.560  0.9472  -28.0   1.425  151.8  0.0746   69.1  0.9812  -13.8
 0.580  0.9452  -29.0   1.423  150.8  0.0772   68.4  0.9801  -14.3
 0.600  0.9435  -29.9   1.422  149.9  0.0798   67.7  0.9791  -14.8
 0.620  0.9412  -30.9   1.414  149.0  0.0821   67.0  0.9776  -15.3
 0.640  0.9393  -32.0   1.407  148.0  0.0844   66.3  0.9763  -15.8
 0.660  0.9377  -33.0   1.400  147.1  0.0868   65.7  0.9749  -16.2
 0.680  0.9363  -34.1   1.393  146.2  0.0891   65.1  0.9737  -16.7
 0.700  0.9353  -35.1   1.387  145.2  0.0915   64.5  0.9725  -17.2
 0.720  0.9312  -36.1   1.387  144.3  0.0937   63.7  0.9708  -17.6
 0.740  0.9273  -37.0   1.387  143.3  0.0959   63.0  0.9692  -18.1
 0.760  0.9237  -38.0   1.388  142.4  0.0981   62.2  0.9676  -18.5
 0.780  0.9204  -39.0   1.389  141.4  0.1004   61.6  0.9661  -19.0
 0.800  0.9173  -40.0   1.391  140.5  0.1026   60.9  0.9646  -19.4
 0.820  0.9140  -41.0   1.389  139.5  0.1049   60.1  0.9625  -19.9
 0.840  0.9111  -42.0   1.387  138.5  0.1071   59.4  0.9605  -20.4
 0.860  0.9084  -43.0   1.385  137.6  0.1094   58.6  0.9586  -20.8
 0.880  0.9059  -44.0   1.384  136.6  0.1118   58.0  0.9567  -21.3
 0.900  0.9038  -45.0   1.383  135.6  0.1141   57.3  0.9549  -21.8
 0.920  0.8995  -46.0   1.379  134.7  0.1160   56.6  0.9530  -22.2
 0.940  0.8955  -47.1   1.376  133.8  0.1179   55.8  0.9511  -22.7
 0.960  0.8918  -48.2   1.373  132.9  0.1198   55.1  0.9493  -23.1
 0.980  0.8885  -49.2   1.370  132.0  0.1217   54.5  0.9476  -23.6
 1.000  0.8854  -50.3   1.368  131.1  0.1237   53.8  0.9459  -24.0
 1.020  0.8815  -51.3   1.367  130.1  0.1258   53.1  0.9439  -24.4
 1.040  0.8778  -52.3   1.366  129.1  0.1279   52.4  0.9421  -24.9
 1.060  0.8745  -53.3   1.365  128.2  0.1300   51.7  0.9402  -25.3
 1.080  0.8714  -54.4   1.365  127.2  0.1321   51.0  0.9384  -25.8
 1.100  0.8686  -55.4   1.365  126.2  0.1343   50.4  0.9367  -26.2
 1.120  0.8637  -56.4   1.360  125.4  0.1360   49.6  0.9347  -26.7
 1.140  0.8590  -57.4   1.355  124.7  0.1377   48.9  0.9327  -27.2
 1.160  0.8546  -58.4   1.350  123.9  0.1394   48.1  0.9309  -27.6
 1.180  0.8505  -59.4   1.345  123.1  0.1411   47.4  0.9290  -28.1
 1.200  0.8466  -60.4   1.341  122.3  0.1429   46.7  0.9273  -28.6
 1.220  0.8425  -61.4   1.338  121.4  0.1445   46.1  0.9249  -29.0
 1.240  0.8386  -62.5   1.336  120.5  0.1461   45.5  0.9226  -29.4
 1.260  0.8350  -63.6   1.333  119.5  0.1477   44.9  0.9203  -29.8
 1.280  0.8317  -64.6   1.332  118.6  0.1494   44.4  0.9181  -30.2
 1.300  0.8287  -65.7   1.330  117.7  0.1510   43.8  0.9159  -30.6
 1.320  0.8239  -66.7   1.324  116.9  0.1525   43.1  0.9134  -31.0
 1.340  0.8193  -67.6   1.319  116.0  0.1539   42.5  0.9109  -31.4
 1.360  0.8149  -68.6   1.314  115.1  0.1554   41.8  0.9085  -31.9
 1.380  0.8108  -69.6   1.309  114.3  0.1570   41.2  0.9061  -32.3
 1.400  0.8069  -70.6   1.304  113.4  0.1585   40.6  0.9038  -32.7
 1.420  0.8023  -71.7   1.304  112.5  0.1598   40.0  0.9012  -33.1
 1.440  0.7981  -72.9   1.304  111.6  0.1611   39.4  0.8987  -33.5
 1.460  0.7942  -74.0   1.304  110.7  0.1624   38.8  0.8962  -33.8
 1.480  0.7906  -75.2   1.305  109.8  0.1637   38.3  0.8937  -34.2
 1.500  0.7873  -76.4   1.306  108.9  0.1651   37.7  0.8913  -34.6
 1.520  0.7816  -77.4   1.300  108.0  0.1666   37.2  0.8895  -34.9
 1.540  0.7762  -78.3   1.294  107.2  0.1680   36.6  0.8878  -35.3
 1.560  0.7710  -79.3   1.289  106.3  0.1695   36.1  0.8860  -35.6
 1.580  0.7660  -80.3   1.284  105.4  0.1710   35.6  0.8844  -36.0
 1.600  0.7612  -81.3   1.279  104.5  0.1725   35.1  0.8827  -36.3
 1.620  0.7574  -82.5   1.277  103.7  0.1735   34.5  0.8799  -36.7
 1.640  0.7540  -83.6   1.276  102.8  0.1746   33.8  0.8772  -37.1
 1.660  0.7508  -84.8   1.275  102.0  0.1757   33.2  0.8746  -37.6
 1.680  0.7480  -86.0   1.274  101.1  0.1768   32.6  0.8720  -38.0
 1.700  0.7455  -87.2   1.273  100.3  0.1779   32.0  0.8694  -38.4
 1.720  0.7389  -88.4   1.271   99.3  0.1789   31.5  0.8669  -38.7
 1.740  0.7327  -89.6   1.270   98.3  0.1799   30.9  0.8645  -39.1
 1.760  0.7268  -90.8   1.269   97.3  0.1809   30.4  0.8620  -39.4
 1.780  0.7212  -92.0   1.269   96.3  0.1820   29.9  0.8597  -39.8
 1.800  0.7160  -93.3   1.269   95.3  0.1830   29.4  0.8573  -40.1
 1.820  0.7120  -94.5   1.266   94.5  0.1839   28.7  0.8548  -40.5
 1.840  0.7082  -95.7   1.264   93.7  0.1849   28.1  0.8524  -40.9
 1.860  0.7048  -96.9   1.262   92.9  0.1858   27.5  0.8500  -41.2
 1.880  0.7018  -98.2   1.260   92.1  0.1868   26.8  0.8476  -41.6
 1.900  0.6990  -99.4   1.258   91.3  0.1878   26.2  0.8453  -42.0
 1.920  0.6931 -100.4   1.253   90.5  0.1886   25.7  0.8434  -42.3
 1.940  0.6875 -101.4   1.248   89.6  0.1894   25.2  0.8416  -42.6
 1.960  0.6820 -102.4   1.244   88.7  0.1902   24.7  0.8398  -42.9
 1.980  0.6768 -103.4   1.240   87.9  0.1911   24.3  0.8380  -43.2
 2.000  0.6718 -104.5   1.236   87.0  0.1919   23.8  0.8362  -43.5
 2.020  0.6671 -105.6   1.229   86.2  0.1926   23.2  0.8340  -43.9
 2.040  0.6627 -106.7   1.223   85.4  0.1932   22.7  0.8318  -44.2
 2.060  0.6586 -107.8   1.217   84.7  0.1939   22.1  0.8296  -44.6
 2.080  0.6546 -108.9   1.211   83.9  0.1946   21.6  0.8275  -45.0
 2.100  0.6510 -110.0   1.205   83.0  0.1953   21.0  0.8254  -45.3
 2.120  0.6476 -111.2   1.199   82.2  0.1961   20.5  0.8234  -45.7
 2.140  0.6444 -112.4   1.194   81.4  0.1968   20.0  0.8213  -46.1
 2.160  0.6415 -113.5   1.189   80.6  0.1976   19.4  0.8194  -46.4
 2.180  0.6389 -114.7   1.184   79.7  0.1984   18.9  0.8174  -46.8
 2.200  0.6366 -115.9   1.180   78.9  0.1992   18.4  0.8155  -47.2
 2.220  0.6319 -117.1   1.177   78.1  0.1995   17.9  0.8132  -47.5
 2.240  0.6274 -118.3   1.173   77.4  0.1997   17.3  0.8109  -47.9
 2.260  0.6232 -119.5   1.170   76.6  0.2000   16.8  0.8086  -48.2
 2.280  0.6193 -120.7   1.167   75.9  0.2003   16.3  0.8063  -48.6
 2.300  0.6157 -122.0   1.165   75.1  0.2006   15.8  0.8041  -48.9
 2.320  0.6124 -123.2   1.162   74.3  0.2010   15.3  0.8019  -49.3
 2.340  0.6094 -124.5   1.160   73.5  0.2013   14.7  0.7998  -49.6
 2.360  0.6067 -125.8   1.158   72.8  0.2017   14.2  0.7977  -50.0
 2.380  0.6043 -127.1   1.157   72.0  0.2021   13.7  0.7956  -50.3
 2.400  0.6022 -128.4   1.155   71.2  0.2025   13.2  0.7935  -50.7
 2.420  0.5986 -129.6   1.149   70.5  0.2027   12.8  0.7911  -51.0
 2.440  0.5953 -130.9   1.144   69.8  0.2029   12.3  0.7888  -51.3
 2.460  0.5922 -132.1   1.138   69.1  0.2031   11.9  0.7865  -51.6
 2.480  0.5894 -133.4   1.133   68.4  0.2033   11.5  0.7842  -51.9
 2.500  0.5870 -134.7   1.128   67.7  0.2035   11.0  0.7819  -52.2
 2.520  0.5848 -136.0   1.123   67.0  0.2037   10.6  0.7797  -52.5
 2.540  0.5829 -137.3   1.119   66.2  0.2040   10.2  0.7775  -52.8
 2.560  0.5813 -138.6   1.114   65.5  0.2042    9.8  0.7752  -53.1
 2.580  0.5801 -139.9   1.110   64.7  0.2045    9.3  0.7731  -53.4
 2.600  0.5791 -141.2   1.106   64.0  0.2048    8.9  0.7709  -53.7
 2.620  0.5755 -142.4   1.102   63.2  0.2049    8.4  0.7696  -54.0
 2.640  0.5721 -143.6   1.098   62.4  0.2050    7.9  0.7684  -54.3
 2.660  0.5690 -144.9   1.094   61.6  0.2052    7.5  0.7672  -54.6
 2.680  0.5662 -146.1   1.090   60.8  0.2053    7.0  0.7660  -55.0
 2.700  0.5636 -147.4   1.087   60.0  0.2055    6.5  0.7649  -55.3
 2.720  0.5613 -148.6   1.084   59.2  0.2056    6.0  0.7637  -55.6
 2.740  0.5593 -149.9   1.081   58.4  0.2058    5.5  0.7626  -55.9
 2.760  0.5576 -151.2   1.078   57.6  0.2060    5.1  0.7615  -56.3
 2.780  0.5562 -152.5   1.075   56.7  0.2063    4.6  0.7604  -56.6
 2.800  0.5550 -153.8   1.073   55.9  0.2065    4.1  0.7594  -56.9
 2.820  0.5526 -155.0   1.068   55.2  0.2063    3.6  0.7577  -57.2
 2.840  0.5505 -156.2   1.063   54.5  0.2061    3.2  0.7560  -57.5
 2.860  0.5486 -157.5   1.058   53.8  0.2059    2.7  0.7543  -57.8
 2.880  0.5469 -158.7   1.054   53.1  0.2058    2.3  0.7526  -58.2
 2.900  0.5455 -159.9   1.049   52.4  0.2056    1.8  0.7510  -58.5
 2.920  0.5444 -161.2   1.045   51.7  0.2055    1.3  0.7494  -58.8
 2.940  0.5435 -162.4   1.041   51.0  0.2054    0.9  0.7478  -59.1
 2.960  0.5429 -163.7   1.037   50.3  0.2053    0.4  0.7463  -59.4
 2.980  0.5426 -164.9   1.034   49.5  0.2052   -0.0  0.7447  -59.8
 3.000  0.5425 -166.2   1.030   48.8  0.2051   -0.5  0.7432  -60.1
 3.100  0.5299 -171.9   1.003   45.7  0.2036   -2.4  0.7390  -61.7
 3.200  0.5228 -177.8   0.979   42.5  0.2023   -4.3  0.7354  -63.2
 3.300  0.5214  176.1   0.959   39.1  0.2012   -6.2  0.7324  -64.8
 3.400  0.5257  170.1   0.941   35.5  0.2003   -8.1  0.7299  -66.4
 3.500  0.5357  164.3   0.928   31.9  0.1997  -10.1  0.7280  -68.0
 3.600  0.5341  159.4   0.903   29.2  0.1958  -11.5  0.7224  -69.8
 3.700  0.5364  154.5   0.880   26.4  0.1919  -13.0  0.7175  -71.7
 3.800  0.5426  149.6   0.859   23.5  0.1883  -14.5  0.7134  -73.6
 3.900  0.5526  144.9   0.841   20.4  0.1847  -16.1  0.7100  -75.5
 4.000  0.5662  140.4   0.825   17.2  0.1813  -17.7  0.7075  -77.4
 4.100  0.5687  136.5   0.803   14.9  0.1773  -18.7  0.7050  -79.4
 4.200  0.5738  132.6   0.783   12.4  0.1733  -19.8  0.7034  -81.5
 4.300  0.5815  128.8   0.765    9.9  0.1693  -20.9  0.7027  -83.5
 4.400  0.5917  125.1   0.747    7.2  0.1655  -22.1  0.7028  -85.6
 4.500  0.6042  121.6   0.732    4.4  0.1617  -23.3  0.7039  -87.6
 4.600  0.6088  118.7   0.713    2.5  0.1574  -23.7  0.7016  -89.7
 4.700  0.6150  115.8   0.694    0.5  0.1532  -24.0  0.7003  -91.8
 4.800  0.6226  113.0   0.677   -1.6  0.1490  -24.4  0.6999  -93.9
 4.900  0.6318  110.3   0.660   -3.8  0.1447  -24.9  0.7004  -96.0
 5.000  0.6423  107.6   0.645   -6.1  0.1405  -25.3  0.7019  -98.1
 5.100  0.6471  105.4   0.628   -7.8  0.1375  -24.7  0.7014 -100.3
 5.200  0.6530  103.1   0.612   -9.6  0.1346  -24.1  0.7018 -102.4
 5.300  0.6597  101.0   0.597  -11.6  0.1317  -23.5  0.7033 -104.6
 5.400  0.6674   98.9   0.582  -13.6  0.1288  -22.8  0.7057 -106.8
 5.500  0.6760   96.8   0.568  -15.7  0.1259  -22.1  0.7092 -108.9
 5.600  0.6821   94.9   0.555  -17.1  0.1245  -21.2  0.7091 -111.1
 5.700  0.6889   93.1   0.542  -18.6  0.1232  -20.2  0.7102 -113.4
 5.800  0.6964   91.3   0.530  -20.1  0.1219  -19.3  0.7123 -115.6
 5.900  0.7045   89.6   0.518  -21.7  0.1206  -18.3  0.7155 -117.8
 6.000  0.7133   87.9   0.507  -23.4  0.1194  -17.3  0.7197 -120.0
!
!  f       NFmin   Gammaopt  rn/50
! GHz       dB    MAG  ANG    -
!
! noise parameter not available yet for this operation point!
!
! (c) 2016  Infineon Technologies AG, Munich
