! Infineon Technologies  Discrete & RF Semiconductors
! BFP193
! VCE = 6.0 V,  IC =  30 mA
! Common Emitter S-Parameters:                            Jan 2016
# GHz  S  MA  R  50
!  f         S11            S21            S12            S22
! GHz     MAG   ANG      MAG   ANG      MAG   ANG      MAG   ANG
 0.010  0.5231  -13.2  51.548  173.4  0.0028   84.2  0.9353   -6.1
 0.015  0.5209  -18.7  50.382  169.8  0.0042   81.2  0.9246   -9.0
 0.020  0.5235  -24.2  49.426  166.0  0.0056   79.7  0.9164  -12.0
 0.025  0.5115  -29.6  48.306  163.5  0.0067   76.5  0.8968  -14.4
 0.030  0.5043  -35.2  47.280  160.9  0.0079   74.3  0.8788  -16.9
 0.035  0.5021  -41.0  46.354  158.3  0.0091   72.6  0.8626  -19.5
 0.040  0.5049  -46.7  45.534  155.5  0.0102   71.3  0.8481  -22.2
 0.045  0.5127  -52.3  44.826  152.6  0.0114   70.3  0.8357  -24.9
 0.050  0.5252  -57.7  44.236  149.6  0.0126   69.5  0.8252  -27.8
 0.055  0.5138  -61.4  43.036  148.1  0.0134   67.8  0.8037  -29.2
 0.060  0.5046  -65.2  41.868  146.5  0.0142   66.2  0.7827  -30.8
 0.065  0.4977  -69.1  40.735  144.7  0.0150   64.8  0.7623  -32.4
 0.070  0.4932  -73.2  39.641  142.9  0.0158   63.6  0.7425  -34.1
 0.075  0.4913  -77.3  38.588  141.0  0.0166   62.5  0.7235  -35.9
 0.080  0.4918  -81.4  37.580  139.0  0.0175   61.4  0.7051  -37.8
 0.085  0.4948  -85.4  36.620  136.9  0.0183   60.5  0.6876  -39.7
 0.090  0.5003  -89.4  35.713  134.7  0.0191   59.7  0.6710  -41.8
 0.095  0.5082  -93.3  34.863  132.4  0.0200   58.9  0.6552  -44.0
 0.100  0.5184  -97.1  34.074  129.9  0.0208   58.2  0.6405  -46.3
 0.105  0.5144  -99.4  33.229  128.9  0.0213   57.6  0.6256  -47.1
 0.110  0.5114 -101.8  32.395  127.9  0.0218   57.1  0.6109  -48.0
 0.115  0.5092 -104.2  31.572  126.8  0.0223   56.6  0.5963  -48.8
 0.120  0.5079 -106.6  30.761  125.6  0.0227   56.1  0.5819  -49.8
 0.125  0.5075 -109.1  29.964  124.4  0.0232   55.7  0.5676  -50.8
 0.130  0.5080 -111.5  29.180  123.1  0.0237   55.2  0.5535  -51.8
 0.135  0.5095 -113.9  28.411  121.8  0.0242   54.8  0.5396  -52.9
 0.140  0.5118 -116.3  27.659  120.4  0.0247   54.4  0.5259  -54.0
 0.145  0.5150 -118.7  26.926  118.9  0.0252   54.0  0.5124  -55.2
 0.150  0.5191 -121.0  26.211  117.3  0.0257   53.6  0.4992  -56.5
 0.155  0.5179 -122.5  25.678  116.7  0.0260   53.5  0.4897  -57.0
 0.160  0.5170 -124.0  25.148  116.0  0.0264   53.4  0.4802  -57.6
 0.165  0.5165 -125.5  24.623  115.3  0.0267   53.4  0.4708  -58.2
 0.170  0.5163 -127.0  24.100  114.5  0.0271   53.3  0.4615  -58.8
 0.175  0.5165 -128.5  23.583  113.8  0.0274   53.2  0.4522  -59.4
 0.180  0.5170 -130.0  23.069  113.0  0.0277   53.2  0.4429  -60.0
 0.185  0.5180 -131.5  22.560  112.1  0.0281   53.1  0.4337  -60.7
 0.190  0.5192 -133.0  22.056  111.3  0.0284   53.0  0.4246  -61.4
 0.195  0.5208 -134.5  21.558  110.4  0.0288   53.0  0.4155  -62.1
 0.200  0.5228 -136.0  21.065  109.4  0.0291   52.9  0.4065  -62.9
 0.220  0.5195 -140.3  19.536  107.4  0.0301   52.9  0.3789  -64.4
 0.240  0.5192 -144.6  18.035  105.0  0.0312   52.8  0.3516  -66.1
 0.260  0.5195 -148.2  16.773  103.0  0.0324   53.1  0.3294  -67.6
 0.280  0.5194 -151.1  15.734  101.4  0.0337   53.7  0.3120  -68.7
 0.300  0.5206 -154.0  14.708   99.6  0.0351   54.3  0.2948  -70.0
 0.320  0.5195 -156.4  14.015   98.6  0.0363   54.8  0.2824  -70.6
 0.340  0.5193 -158.8  13.327   97.5  0.0375   55.4  0.2701  -71.3
 0.360  0.5200 -161.2  12.645   96.3  0.0388   55.8  0.2578  -72.0
 0.380  0.5217 -163.6  11.969   94.9  0.0400   56.3  0.2455  -72.8
 0.400  0.5242 -166.0  11.300   93.4  0.0412   56.7  0.2333  -73.7
 0.420  0.5248 -167.5  10.853   92.6  0.0425   57.0  0.2260  -74.2
 0.440  0.5256 -168.9  10.409   91.7  0.0438   57.3  0.2187  -74.7
 0.450  0.5262 -169.6  10.188   91.2  0.0445   57.5  0.2150  -74.9
 0.460  0.5269 -170.3   9.968   90.7  0.0452   57.6  0.2114  -75.2
 0.480  0.5284 -171.8   9.529   89.6  0.0465   57.9  0.2041  -75.8
 0.500  0.5303 -173.2   9.095   88.4  0.0478   58.1  0.1969  -76.4
 0.520  0.5298 -174.5   8.801   87.7  0.0492   58.4  0.1923  -76.8
 0.540  0.5295 -175.8   8.508   86.9  0.0506   58.7  0.1877  -77.3
 0.560  0.5296 -177.2   8.217   86.1  0.0521   58.9  0.1832  -77.7
 0.580  0.5299 -178.5   7.928   85.2  0.0535   59.2  0.1786  -78.2
 0.600  0.5305 -179.8   7.641   84.2  0.0549   59.4  0.1741  -78.7
 0.620  0.5302  179.2   7.427   83.5  0.0562   59.5  0.1710  -79.1
 0.640  0.5301  178.1   7.215   82.8  0.0575   59.6  0.1679  -79.5
 0.660  0.5301  177.1   7.003   82.0  0.0589   59.7  0.1648  -79.9
 0.680  0.5303  176.0   6.793   81.2  0.0602   59.7  0.1617  -80.3
 0.700  0.5307  175.0   6.585   80.3  0.0615   59.8  0.1586  -80.8
 0.720  0.5323  174.0   6.421   79.7  0.0631   59.8  0.1563  -81.2
 0.740  0.5340  173.1   6.258   79.1  0.0646   59.9  0.1541  -81.6
 0.760  0.5358  172.2   6.095   78.4  0.0662   59.9  0.1518  -82.0
 0.780  0.5379  171.2   5.934   77.7  0.0677   60.0  0.1495  -82.4
 0.800  0.5400  170.3   5.773   77.0  0.0693   60.0  0.1473  -82.8
 0.820  0.5386  169.4   5.645   76.4  0.0707   60.0  0.1455  -83.2
 0.840  0.5374  168.4   5.518   75.8  0.0722   60.1  0.1437  -83.5
 0.860  0.5363  167.5   5.392   75.2  0.0736   60.1  0.1419  -83.9
 0.880  0.5353  166.5   5.266   74.5  0.0751   60.2  0.1401  -84.3
 0.900  0.5345  165.6   5.141   73.8  0.0765   60.2  0.1383  -84.7
 0.920  0.5355  164.8   5.041   73.3  0.0778   60.2  0.1372  -85.1
 0.940  0.5365  164.1   4.942   72.7  0.0791   60.1  0.1362  -85.5
 0.960  0.5377  163.3   4.842   72.1  0.0805   60.1  0.1351  -85.9
 0.980  0.5390  162.6   4.744   71.5  0.0818   60.0  0.1340  -86.4
 1.000  0.5403  161.8   4.646   70.9  0.0831   60.0  0.1330  -86.8
 1.020  0.5415  161.0   4.564   70.3  0.0846   59.9  0.1322  -87.4
 1.040  0.5429  160.2   4.482   69.8  0.0862   59.8  0.1314  -88.1
 1.060  0.5444  159.4   4.400   69.2  0.0877   59.8  0.1306  -88.7
 1.080  0.5459  158.6   4.319   68.5  0.0893   59.7  0.1298  -89.3
 1.100  0.5476  157.8   4.239   67.9  0.0908   59.6  0.1290  -90.0
 1.120  0.5485  157.0   4.170   67.4  0.0922   59.5  0.1282  -90.5
 1.140  0.5496  156.1   4.102   66.8  0.0936   59.4  0.1274  -91.0
 1.160  0.5507  155.3   4.034   66.3  0.0949   59.4  0.1266  -91.5
 1.180  0.5520  154.4   3.967   65.7  0.0963   59.3  0.1258  -92.1
 1.200  0.5534  153.6   3.900   65.1  0.0977   59.2  0.1250  -92.6
 1.220  0.5520  153.0   3.838   64.6  0.0991   59.0  0.1246  -93.0
 1.240  0.5506  152.4   3.775   64.0  0.1006   58.8  0.1242  -93.5
 1.260  0.5493  151.9   3.714   63.5  0.1020   58.6  0.1238  -93.9
 1.280  0.5481  151.3   3.652   62.9  0.1035   58.4  0.1234  -94.4
 1.300  0.5469  150.7   3.591   62.3  0.1049   58.2  0.1230  -94.8
 1.320  0.5493  150.0   3.540   61.8  0.1063   58.0  0.1229  -95.4
 1.340  0.5517  149.4   3.489   61.4  0.1077   57.9  0.1227  -96.0
 1.360  0.5542  148.7   3.439   60.9  0.1090   57.7  0.1226  -96.5
 1.380  0.5568  148.0   3.389   60.4  0.1104   57.6  0.1225  -97.1
 1.400  0.5595  147.4   3.339   59.9  0.1118   57.4  0.1224  -97.7
 1.420  0.5598  146.8   3.300   59.4  0.1132   57.2  0.1222  -98.3
 1.440  0.5601  146.2   3.261   58.9  0.1147   57.0  0.1221  -98.9
 1.460  0.5605  145.7   3.222   58.3  0.1161   56.8  0.1219  -99.6
 1.480  0.5610  145.1   3.184   57.8  0.1176   56.6  0.1218 -100.2
 1.500  0.5615  144.5   3.146   57.2  0.1190   56.4  0.1217 -100.8
 1.520  0.5629  143.9   3.102   56.7  0.1205   56.2  0.1214 -101.5
 1.540  0.5644  143.2   3.059   56.1  0.1219   56.0  0.1211 -102.1
 1.560  0.5660  142.6   3.016   55.6  0.1234   55.8  0.1209 -102.8
 1.580  0.5676  141.9   2.973   55.0  0.1248   55.6  0.1206 -103.4
 1.600  0.5693  141.3   2.931   54.4  0.1263   55.4  0.1204 -104.1
 1.620  0.5708  140.6   2.897   53.9  0.1277   55.2  0.1201 -104.7
 1.640  0.5723  139.9   2.864   53.4  0.1291   55.0  0.1199 -105.3
 1.660  0.5740  139.2   2.830   52.9  0.1304   54.8  0.1196 -106.0
 1.680  0.5757  138.6   2.797   52.4  0.1318   54.7  0.1194 -106.6
 1.700  0.5775  137.9   2.764   51.9  0.1332   54.5  0.1192 -107.2
 1.720  0.5782  137.3   2.736   51.5  0.1344   54.2  0.1195 -107.8
 1.740  0.5790  136.7   2.709   51.0  0.1357   54.0  0.1198 -108.4
 1.760  0.5798  136.2   2.682   50.6  0.1369   53.7  0.1201 -108.9
 1.780  0.5807  135.6   2.655   50.2  0.1382   53.5  0.1205 -109.5
 1.800  0.5817  135.0   2.628   49.7  0.1394   53.2  0.1208 -110.1
 1.820  0.5828  134.6   2.601   49.2  0.1409   53.0  0.1210 -111.0
 1.840  0.5839  134.2   2.574   48.7  0.1423   52.8  0.1212 -111.9
 1.860  0.5850  133.7   2.547   48.1  0.1438   52.6  0.1215 -112.8
 1.880  0.5862  133.3   2.520   47.6  0.1452   52.5  0.1218 -113.6
 1.900  0.5874  132.9   2.494   47.0  0.1467   52.3  0.1221 -114.5
 1.920  0.5882  132.3   2.467   46.6  0.1480   52.0  0.1219 -115.3
 1.940  0.5891  131.7   2.441   46.1  0.1492   51.8  0.1218 -116.1
 1.960  0.5901  131.0   2.415   45.6  0.1505   51.5  0.1217 -116.8
 1.980  0.5911  130.4   2.389   45.2  0.1517   51.3  0.1216 -117.6
 2.000  0.5922  129.8   2.363   44.7  0.1530   51.0  0.1215 -118.4
 2.020  0.5928  129.3   2.341   44.3  0.1543   50.8  0.1217 -119.1
 2.040  0.5934  128.7   2.320   43.8  0.1555   50.5  0.1220 -119.8
 2.060  0.5941  128.2   2.298   43.3  0.1568   50.3  0.1223 -120.4
 2.080  0.5948  127.6   2.277   42.8  0.1581   50.0  0.1226 -121.1
 2.100  0.5956  127.1   2.255   42.4  0.1594   49.8  0.1229 -121.8
 2.120  0.5965  126.5   2.234   41.9  0.1606   49.6  0.1232 -122.5
 2.140  0.5974  126.0   2.214   41.4  0.1619   49.4  0.1236 -123.1
 2.160  0.5983  125.5   2.193   40.9  0.1632   49.1  0.1239 -123.8
 2.180  0.5993  124.9   2.172   40.3  0.1645   48.9  0.1243 -124.4
 2.200  0.6004  124.4   2.152   39.8  0.1658   48.7  0.1247 -125.1
 2.220  0.6019  123.9   2.135   39.3  0.1671   48.5  0.1249 -126.0
 2.240  0.6034  123.3   2.118   38.9  0.1684   48.2  0.1251 -126.9
 2.260  0.6049  122.8   2.101   38.4  0.1697   48.0  0.1254 -127.8
 2.280  0.6066  122.3   2.084   37.9  0.1710   47.7  0.1256 -128.8
 2.300  0.6082  121.8   2.067   37.4  0.1723   47.5  0.1260 -129.7
 2.320  0.6099  121.2   2.051   37.0  0.1736   47.3  0.1263 -130.6
 2.340  0.6117  120.7   2.034   36.5  0.1749   47.1  0.1267 -131.5
 2.360  0.6135  120.2   2.018   35.9  0.1762   46.8  0.1271 -132.3
 2.380  0.6154  119.7   2.002   35.4  0.1775   46.6  0.1275 -133.2
 2.400  0.6173  119.2   1.986   34.9  0.1788   46.4  0.1280 -134.1
 2.420  0.6184  118.7   1.970   34.5  0.1799   46.1  0.1284 -134.9
 2.440  0.6195  118.2   1.954   34.1  0.1810   45.9  0.1289 -135.6
 2.460  0.6206  117.7   1.938   33.6  0.1822   45.6  0.1294 -136.4
 2.480  0.6218  117.2   1.922   33.2  0.1833   45.4  0.1299 -137.1
 2.500  0.6231  116.7   1.907   32.7  0.1844   45.1  0.1304 -137.9
 2.520  0.6244  116.2   1.891   32.3  0.1855   44.9  0.1309 -138.6
 2.540  0.6257  115.7   1.876   31.8  0.1867   44.6  0.1315 -139.3
 2.560  0.6271  115.2   1.860   31.4  0.1878   44.4  0.1321 -140.1
 2.580  0.6285  114.7   1.845   30.9  0.1890   44.1  0.1327 -140.8
 2.600  0.6300  114.2   1.830   30.4  0.1901   43.9  0.1333 -141.5
 2.620  0.6311  113.7   1.817   30.0  0.1913   43.6  0.1339 -142.4
 2.640  0.6322  113.3   1.804   29.6  0.1924   43.4  0.1345 -143.3
 2.660  0.6333  112.8   1.791   29.2  0.1936   43.1  0.1352 -144.2
 2.680  0.6345  112.3   1.778   28.8  0.1948   42.8  0.1359 -145.1
 2.700  0.6357  111.9   1.765   28.4  0.1959   42.6  0.1367 -145.9
 2.720  0.6370  111.4   1.753   28.0  0.1971   42.3  0.1374 -146.8
 2.740  0.6383  111.0   1.740   27.5  0.1983   42.0  0.1382 -147.6
 2.760  0.6397  110.5   1.728   27.1  0.1995   41.8  0.1391 -148.5
 2.780  0.6411  110.1   1.715   26.6  0.2007   41.5  0.1399 -149.3
 2.800  0.6425  109.6   1.703   26.2  0.2019   41.3  0.1408 -150.1
 2.820  0.6438  109.2   1.691   25.8  0.2030   41.0  0.1416 -150.8
 2.840  0.6452  108.8   1.678   25.4  0.2041   40.8  0.1424 -151.5
 2.860  0.6466  108.4   1.666   24.9  0.2053   40.6  0.1432 -152.2
 2.880  0.6481  108.0   1.654   24.5  0.2064   40.3  0.1440 -152.9
 2.900  0.6496  107.6   1.642   24.1  0.2075   40.1  0.1449 -153.6
 2.920  0.6511  107.2   1.630   23.6  0.2086   39.8  0.1458 -154.3
 2.940  0.6526  106.8   1.619   23.2  0.2098   39.6  0.1467 -154.9
 2.960  0.6542  106.4   1.607   22.7  0.2109   39.4  0.1476 -155.6
 2.980  0.6558  106.0   1.595   22.3  0.2121   39.1  0.1485 -156.3
 3.000  0.6574  105.6   1.584   21.8  0.2132   38.9  0.1495 -156.9
 3.100  0.6622  103.6   1.534   20.1  0.2181   37.7  0.1542 -160.6
 3.200  0.6678  101.6   1.485   18.3  0.2232   36.5  0.1595 -164.1
 3.300  0.6742   99.6   1.437   16.4  0.2283   35.3  0.1654 -167.4
 3.400  0.6814   97.7   1.392   14.4  0.2335   34.2  0.1717 -170.4
 3.500  0.6893   95.8   1.348   12.2  0.2388   33.2  0.1785 -173.2
 3.600  0.6938   94.0   1.312   10.6  0.2434   31.9  0.1856 -176.1
 3.700  0.6990   92.3   1.276    8.9  0.2480   30.7  0.1931 -178.9
 3.800  0.7049   90.6   1.242    7.1  0.2528   29.5  0.2010  178.6
 3.900  0.7113   88.9   1.209    5.2  0.2577   28.4  0.2093  176.3
 4.000  0.7183   87.3   1.178    3.2  0.2627   27.3  0.2179  174.2
 4.100  0.7240   85.8   1.150    1.7  0.2669   26.1  0.2247  171.9
 4.200  0.7301   84.4   1.122    0.1  0.2711   24.9  0.2318  169.7
 4.300  0.7367   83.0   1.096   -1.5  0.2755   23.8  0.2392  167.7
 4.400  0.7437   81.6   1.070   -3.3  0.2800   22.7  0.2469  165.8
 4.500  0.7512   80.2   1.046   -5.1  0.2846   21.6  0.2549  164.0
 4.600  0.7539   78.9   1.024   -6.4  0.2882   20.5  0.2616  162.2
 4.700  0.7569   77.6   1.002   -7.8  0.2918   19.4  0.2685  160.5
 4.800  0.7603   76.4   0.981   -9.3  0.2956   18.3  0.2756  159.0
 4.900  0.7641   75.1   0.961  -10.8  0.2995   17.2  0.2830  157.4
 5.000  0.7682   73.9   0.941  -12.4  0.3035   16.2  0.2905  156.0
 5.100  0.7720   72.7   0.922  -13.6  0.3071   15.2  0.2969  154.3
 5.200  0.7762   71.6   0.904  -14.8  0.3108   14.1  0.3036  152.7
 5.300  0.7806   70.4   0.886  -16.1  0.3146   13.1  0.3105  151.1
 5.400  0.7853   69.3   0.868  -17.5  0.3184   12.2  0.3177  149.6
 5.500  0.7904   68.2   0.851  -18.9  0.3224   11.2  0.3250  148.2
 5.600  0.7912   67.1   0.837  -19.9  0.3259   10.1  0.3312  146.8
 5.700  0.7922   66.1   0.823  -21.0  0.3295    9.0  0.3376  145.4
 5.800  0.7935   65.0   0.810  -22.1  0.3332    7.9  0.3442  144.1
 5.900  0.7951   64.0   0.797  -23.3  0.3370    6.8  0.3510  142.8
 6.000  0.7970   62.9   0.784  -24.5  0.3410    5.8  0.3579  141.6
!
!  f       NFmin   Gammaopt  rn/50
! GHz       dB    MAG  ANG    -
 0.450      1.90  0.40  180   0.09
 0.900      1.95  0.43 -173   0.11
 1.800      2.40  0.58 -144   0.24
!
! (c) 2016  Infineon Technologies AG, Munich
