! Infineon Technologies  Discrete & RF Semiconductors
! BFP183
! VCE = 6.0 V,  IC =  2.5 mA
! Common Emitter S-Parameters:                            Jan 2016
# GHz  S  MA  R  50
!  f         S11            S21            S12            S22
! GHz     MAG   ANG      MAG   ANG      MAG   ANG      MAG   ANG
 0.010  0.9105   -1.8   8.196  178.8  0.0019   86.3  0.9971   -0.8
 0.015  0.9079   -3.0   8.239  178.2  0.0031   89.1  0.9925   -1.1
 0.020  0.9056   -4.2   8.283  177.7  0.0043   90.3  0.9879   -1.5
 0.025  0.9041   -5.2   8.278  177.0  0.0053   89.1  0.9880   -1.9
 0.030  0.9029   -6.2   8.275  176.2  0.0064   88.2  0.9882   -2.3
 0.035  0.9020   -7.1   8.272  175.5  0.0074   87.6  0.9885   -2.7
 0.040  0.9013   -8.1   8.272  174.8  0.0084   87.1  0.9887   -3.0
 0.045  0.9009   -9.1   8.272  174.0  0.0095   86.8  0.9890   -3.4
 0.050  0.9007  -10.1   8.274  173.3  0.0105   86.5  0.9894   -3.8
 0.055  0.8988  -11.0   8.243  172.7  0.0115   85.1  0.9880   -4.2
 0.060  0.8971  -12.0   8.213  172.0  0.0125   83.8  0.9867   -4.6
 0.065  0.8957  -13.0   8.184  171.4  0.0135   82.8  0.9854   -5.0
 0.070  0.8945  -13.9   8.156  170.7  0.0145   81.9  0.9842   -5.3
 0.075  0.8936  -14.9   8.130  170.1  0.0155   81.1  0.9830   -5.7
 0.080  0.8929  -15.8   8.104  169.4  0.0165   80.5  0.9819   -6.1
 0.085  0.8925  -16.8   8.079  168.7  0.0175   79.8  0.9808   -6.5
 0.090  0.8923  -17.8   8.056  168.1  0.0186   79.3  0.9798   -6.9
 0.095  0.8924  -18.7   8.033  167.4  0.0196   78.8  0.9788   -7.3
 0.100  0.8927  -19.7   8.012  166.7  0.0206   78.4  0.9778   -7.7
 0.105  0.8900  -20.7   8.003  166.0  0.0216   77.7  0.9763   -8.1
 0.110  0.8876  -21.7   7.995  165.4  0.0226   77.0  0.9748   -8.5
 0.115  0.8854  -22.7   7.988  164.7  0.0235   76.5  0.9734   -8.8
 0.120  0.8836  -23.7   7.982  164.1  0.0245   75.9  0.9720   -9.2
 0.125  0.8820  -24.7   7.978  163.4  0.0255   75.4  0.9706   -9.6
 0.130  0.8806  -25.7   7.974  162.7  0.0265   75.0  0.9693  -10.0
 0.135  0.8796  -26.7   7.971  162.1  0.0275   74.5  0.9680  -10.3
 0.140  0.8788  -27.8   7.970  161.4  0.0285   74.1  0.9668  -10.7
 0.145  0.8783  -28.8   7.969  160.8  0.0295   73.7  0.9656  -11.1
 0.150  0.8781  -29.8   7.970  160.1  0.0305   73.4  0.9645  -11.5
 0.155  0.8755  -30.7   7.943  159.5  0.0314   72.8  0.9623  -11.8
 0.160  0.8732  -31.7   7.917  158.9  0.0323   72.2  0.9602  -12.2
 0.165  0.8710  -32.6   7.891  158.2  0.0331   71.6  0.9580  -12.5
 0.170  0.8692  -33.6   7.867  157.6  0.0340   71.0  0.9559  -12.8
 0.175  0.8675  -34.6   7.844  156.9  0.0349   70.5  0.9539  -13.2
 0.180  0.8662  -35.5   7.821  156.3  0.0358   70.0  0.9519  -13.5
 0.185  0.8650  -36.5   7.800  155.7  0.0367   69.6  0.9499  -13.9
 0.190  0.8641  -37.5   7.780  155.0  0.0376   69.1  0.9479  -14.2
 0.195  0.8635  -38.4   7.760  154.4  0.0385   68.7  0.9460  -14.6
 0.200  0.8631  -39.4   7.742  153.7  0.0394   68.3  0.9441  -14.9
 0.220  0.8536  -42.8   7.609  151.4  0.0426   66.2  0.9342  -16.2
 0.240  0.8473  -46.3   7.489  149.0  0.0459   64.5  0.9248  -17.4
 0.260  0.8391  -49.9   7.390  146.8  0.0491   62.7  0.9143  -18.6
 0.280  0.8291  -53.4   7.310  144.7  0.0521   60.8  0.9027  -19.8
 0.300  0.8225  -57.1   7.240  142.5  0.0552   59.2  0.8914  -20.9
 0.320  0.8090  -60.2   7.099  140.5  0.0574   57.4  0.8799  -21.8
 0.340  0.7979  -63.4   6.967  138.4  0.0597   55.7  0.8686  -22.8
 0.360  0.7894  -66.6   6.845  136.2  0.0621   54.1  0.8576  -23.8
 0.380  0.7834  -69.9   6.733  134.0  0.0645   52.6  0.8469  -24.8
 0.400  0.7801  -73.3   6.631  131.7  0.0669   51.3  0.8364  -25.9
 0.420  0.7684  -76.0   6.485  130.1  0.0686   49.8  0.8256  -26.6
 0.440  0.7585  -78.9   6.345  128.4  0.0703   48.4  0.8149  -27.3
 0.450  0.7543  -80.3   6.277  127.5  0.0712   47.7  0.8096  -27.7
 0.460  0.7506  -81.8   6.211  126.6  0.0721   47.0  0.8044  -28.1
 0.480  0.7445  -84.7   6.082  124.7  0.0739   45.7  0.7940  -28.8
 0.500  0.7405  -87.7   5.961  122.8  0.0757   44.5  0.7837  -29.6
 0.520  0.7307  -90.2   5.853  121.4  0.0770   43.4  0.7746  -30.2
 0.540  0.7224  -92.7   5.749  119.9  0.0783   42.3  0.7655  -30.7
 0.560  0.7155  -95.4   5.649  118.4  0.0796   41.2  0.7566  -31.3
 0.580  0.7101  -98.0   5.554  116.8  0.0810   40.2  0.7477  -31.9
 0.600  0.7063 -100.7   5.462  115.2  0.0824   39.2  0.7389  -32.5
 0.620  0.6984 -103.0   5.353  113.9  0.0832   38.3  0.7306  -33.0
 0.640  0.6916 -105.3   5.247  112.6  0.0841   37.3  0.7224  -33.4
 0.660  0.6860 -107.7   5.144  111.2  0.0850   36.4  0.7143  -33.9
 0.680  0.6816 -110.1   5.045  109.8  0.0859   35.6  0.7062  -34.4
 0.700  0.6784 -112.5   4.948  108.3  0.0868   34.7  0.6981  -34.9
 0.720  0.6724 -114.5   4.867  107.1  0.0874   33.9  0.6914  -35.3
 0.740  0.6671 -116.5   4.789  105.9  0.0880   33.2  0.6847  -35.6
 0.760  0.6628 -118.6   4.712  104.7  0.0887   32.4  0.6780  -36.0
 0.780  0.6593 -120.7   4.638  103.4  0.0893   31.7  0.6713  -36.4
 0.800  0.6567 -122.8   4.566  102.1  0.0900   31.0  0.6647  -36.8
 0.820  0.6523 -124.7   4.486  101.1  0.0904   30.3  0.6589  -37.1
 0.840  0.6485 -126.6   4.407  100.1  0.0909   29.7  0.6532  -37.4
 0.860  0.6455 -128.5   4.329   99.1  0.0913   29.1  0.6475  -37.7
 0.880  0.6432 -130.4   4.253   98.0  0.0918   28.4  0.6418  -38.1
 0.900  0.6417 -132.4   4.178   96.9  0.0923   27.8  0.6361  -38.4
 0.920  0.6381 -134.1   4.104   96.0  0.0926   27.3  0.6318  -38.7
 0.940  0.6351 -135.8   4.031   95.0  0.0930   26.8  0.6275  -39.0
 0.960  0.6327 -137.5   3.959   94.0  0.0933   26.3  0.6233  -39.3
 0.980  0.6308 -139.2   3.889   92.9  0.0936   25.8  0.6190  -39.6
 1.000  0.6295 -140.9   3.820   91.8  0.0940   25.3  0.6148  -39.9
 1.020  0.6263 -142.6   3.766   90.9  0.0943   24.9  0.6109  -40.2
 1.040  0.6237 -144.3   3.713   89.9  0.0945   24.5  0.6070  -40.4
 1.060  0.6216 -146.0   3.661   88.9  0.0948   24.0  0.6032  -40.7
 1.080  0.6201 -147.8   3.610   87.9  0.0951   23.6  0.5993  -40.9
 1.100  0.6192 -149.5   3.560   86.9  0.0954   23.2  0.5955  -41.2
 1.120  0.6169 -150.9   3.506   86.1  0.0955   22.7  0.5928  -41.5
 1.140  0.6149 -152.3   3.453   85.4  0.0957   22.3  0.5902  -41.8
 1.160  0.6134 -153.7   3.401   84.6  0.0958   21.8  0.5875  -42.0
 1.180  0.6121 -155.1   3.349   83.7  0.0959   21.4  0.5849  -42.3
 1.200  0.6113 -156.5   3.298   82.9  0.0961   20.9  0.5823  -42.6
 1.220  0.6108 -157.9   3.253   82.1  0.0962   20.6  0.5793  -42.8
 1.240  0.6106 -159.3   3.208   81.3  0.0963   20.4  0.5764  -43.1
 1.260  0.6109 -160.7   3.164   80.5  0.0963   20.1  0.5734  -43.3
 1.280  0.6115 -162.1   3.121   79.7  0.0964   19.9  0.5705  -43.6
 1.300  0.6124 -163.5   3.078   78.8  0.0965   19.6  0.5676  -43.8
 1.320  0.6101 -164.8   3.041   78.1  0.0966   19.4  0.5655  -44.1
 1.340  0.6081 -166.1   3.004   77.3  0.0966   19.1  0.5633  -44.3
 1.360  0.6065 -167.4   2.967   76.5  0.0967   18.9  0.5612  -44.6
 1.380  0.6051 -168.8   2.931   75.7  0.0967   18.6  0.5591  -44.8
 1.400  0.6041 -170.1   2.896   74.9  0.0968   18.4  0.5570  -45.1
 1.420  0.6046 -171.3   2.862   74.2  0.0968   18.2  0.5544  -45.3
 1.440  0.6054 -172.4   2.829   73.4  0.0968   18.0  0.5519  -45.5
 1.460  0.6064 -173.6   2.796   72.6  0.0967   17.9  0.5493  -45.8
 1.480  0.6077 -174.7   2.764   71.8  0.0967   17.7  0.5467  -46.0
 1.500  0.6092 -175.9   2.732   71.0  0.0967   17.5  0.5442  -46.2
 1.520  0.6082 -177.0   2.700   70.4  0.0966   17.4  0.5425  -46.5
 1.540  0.6075 -178.2   2.668   69.7  0.0965   17.2  0.5408  -46.7
 1.560  0.6070 -179.3   2.636   69.0  0.0965   17.1  0.5392  -47.0
 1.580  0.6067  179.5   2.605   68.3  0.0964   16.9  0.5375  -47.2
 1.600  0.6067  178.4   2.574   67.6  0.0963   16.8  0.5359  -47.5
 1.620  0.6063  177.3   2.544   67.0  0.0962   16.7  0.5339  -47.8
 1.640  0.6062  176.2   2.515   66.3  0.0961   16.6  0.5319  -48.2
 1.660  0.6062  175.0   2.486   65.6  0.0961   16.5  0.5299  -48.5
 1.680  0.6066  173.9   2.457   64.9  0.0960   16.4  0.5279  -48.9
 1.700  0.6071  172.8   2.429   64.2  0.0959   16.3  0.5260  -49.2
 1.720  0.6081  171.8   2.403   63.5  0.0960   16.2  0.5247  -49.4
 1.740  0.6094  170.7   2.376   62.9  0.0961   16.2  0.5235  -49.6
 1.760  0.6108  169.7   2.351   62.2  0.0961   16.1  0.5222  -49.9
 1.780  0.6124  168.7   2.325   61.5  0.0962   16.1  0.5209  -50.1
 1.800  0.6142  167.7   2.300   60.8  0.0963   16.0  0.5197  -50.3
 1.820  0.6142  166.8   2.276   60.2  0.0962   15.8  0.5188  -50.6
 1.840  0.6143  165.9   2.252   59.6  0.0962   15.6  0.5179  -50.9
 1.860  0.6146  165.0   2.229   59.0  0.0961   15.5  0.5171  -51.1
 1.880  0.6151  164.1   2.206   58.3  0.0961   15.3  0.5162  -51.4
 1.900  0.6157  163.2   2.183   57.7  0.0960   15.1  0.5154  -51.7
 1.920  0.6160  162.3   2.161   57.1  0.0960   15.1  0.5144  -52.0
 1.940  0.6166  161.3   2.139   56.5  0.0960   15.2  0.5134  -52.3
 1.960  0.6172  160.4   2.117   55.8  0.0959   15.2  0.5124  -52.5
 1.980  0.6181  159.4   2.095   55.2  0.0959   15.3  0.5114  -52.8
 2.000  0.6191  158.5   2.074   54.5  0.0959   15.3  0.5104  -53.1
 2.020  0.6193  157.6   2.055   53.9  0.0959   15.3  0.5092  -53.4
 2.040  0.6197  156.7   2.037   53.4  0.0958   15.3  0.5079  -53.7
 2.060  0.6202  155.9   2.018   52.8  0.0958   15.4  0.5067  -54.1
 2.080  0.6209  155.0   2.000   52.2  0.0957   15.4  0.5055  -54.4
 2.100  0.6217  154.1   1.982   51.6  0.0957   15.4  0.5043  -54.7
 2.120  0.6227  153.2   1.965   51.0  0.0957   15.4  0.5032  -55.1
 2.140  0.6238  152.4   1.947   50.4  0.0956   15.4  0.5020  -55.4
 2.160  0.6250  151.5   1.930   49.8  0.0956   15.5  0.5009  -55.7
 2.180  0.6264  150.7   1.913   49.1  0.0955   15.5  0.4998  -56.1
 2.200  0.6279  149.8   1.896   48.5  0.0955   15.5  0.4987  -56.4
 2.220  0.6289  149.0   1.879   48.0  0.0955   15.5  0.4981  -56.7
 2.240  0.6301  148.2   1.862   47.5  0.0955   15.6  0.4976  -57.1
 2.260  0.6313  147.4   1.846   46.9  0.0955   15.6  0.4970  -57.4
 2.280  0.6327  146.6   1.830   46.4  0.0955   15.6  0.4965  -57.8
 2.300  0.6342  145.9   1.813   45.8  0.0955   15.7  0.4960  -58.1
 2.320  0.6359  145.1   1.797   45.3  0.0956   15.7  0.4955  -58.5
 2.340  0.6376  144.3   1.781   44.7  0.0956   15.7  0.4951  -58.8
 2.360  0.6394  143.5   1.766   44.1  0.0956   15.7  0.4946  -59.2
 2.380  0.6414  142.8   1.750   43.5  0.0956   15.8  0.4942  -59.5
 2.400  0.6435  142.0   1.735   42.9  0.0956   15.8  0.4938  -59.9
 2.420  0.6443  141.3   1.721   42.4  0.0956   15.9  0.4926  -60.2
 2.440  0.6453  140.5   1.706   41.9  0.0956   16.0  0.4914  -60.6
 2.460  0.6463  139.8   1.692   41.4  0.0956   16.2  0.4902  -60.9
 2.480  0.6475  139.1   1.679   40.9  0.0956   16.3  0.4890  -61.3
 2.500  0.6488  138.4   1.665   40.4  0.0955   16.4  0.4879  -61.6
 2.520  0.6501  137.6   1.651   39.8  0.0955   16.5  0.4867  -62.0
 2.540  0.6516  136.9   1.638   39.3  0.0955   16.6  0.4856  -62.3
 2.560  0.6532  136.2   1.624   38.7  0.0955   16.8  0.4845  -62.7
 2.580  0.6548  135.5   1.611   38.2  0.0955   16.9  0.4835  -63.0
 2.600  0.6566  134.8   1.598   37.6  0.0955   17.0  0.4824  -63.4
 2.620  0.6578  134.1   1.586   37.1  0.0956   17.1  0.4821  -63.8
 2.640  0.6591  133.5   1.573   36.5  0.0957   17.1  0.4818  -64.2
 2.660  0.6605  132.8   1.561   36.0  0.0958   17.2  0.4815  -64.5
 2.680  0.6620  132.1   1.549   35.5  0.0959   17.3  0.4812  -64.9
 2.700  0.6635  131.5   1.537   34.9  0.0960   17.4  0.4809  -65.3
 2.720  0.6652  130.8   1.525   34.3  0.0962   17.4  0.4807  -65.7
 2.740  0.6669  130.1   1.514   33.8  0.0963   17.5  0.4805  -66.1
 2.760  0.6688  129.5   1.502   33.2  0.0964   17.6  0.4803  -66.4
 2.780  0.6707  128.8   1.491   32.6  0.0965   17.6  0.4801  -66.8
 2.800  0.6727  128.2   1.480   32.0  0.0966   17.7  0.4800  -67.2
 2.820  0.6735  127.6   1.470   31.5  0.0967   17.8  0.4792  -67.6
 2.840  0.6744  126.9   1.460   31.1  0.0968   18.0  0.4783  -68.0
 2.860  0.6754  126.3   1.450   30.6  0.0970   18.1  0.4775  -68.4
 2.880  0.6764  125.7   1.440   30.1  0.0971   18.2  0.4767  -68.8
 2.900  0.6776  125.1   1.430   29.6  0.0972   18.4  0.4760  -69.2
 2.920  0.6788  124.5   1.420   29.1  0.0973   18.5  0.4753  -69.6
 2.940  0.6801  123.8   1.410   28.6  0.0974   18.6  0.4746  -70.1
 2.960  0.6814  123.2   1.401   28.1  0.0976   18.7  0.4739  -70.5
 2.980  0.6829  122.6   1.391   27.6  0.0977   18.9  0.4732  -70.9
 3.000  0.6844  122.0   1.382   27.1  0.0978   19.0  0.4726  -71.3
 3.100  0.6884  119.3   1.334   25.1  0.0991   19.6  0.4708  -73.4
 3.200  0.6939  116.7   1.287   22.9  0.1004   20.2  0.4696  -75.6
 3.300  0.7008  114.1   1.243   20.6  0.1017   20.8  0.4691  -77.7
 3.400  0.7091  111.6   1.201   18.1  0.1031   21.3  0.4693  -79.9
 3.500  0.7188  109.1   1.161   15.4  0.1044   21.9  0.4701  -82.0
 3.600  0.7231  106.9   1.125   13.6  0.1062   22.3  0.4688  -84.6
 3.700  0.7284  104.8   1.090   11.6  0.1080   22.8  0.4685  -87.2
 3.800  0.7346  102.7   1.056    9.6  0.1098   23.2  0.4691  -89.8
 3.900  0.7419  100.6   1.024    7.3  0.1117   23.6  0.4707  -92.3
 4.000  0.7501   98.6   0.993    5.0  0.1135   24.0  0.4732  -94.9
 4.100  0.7534   96.8   0.962    3.3  0.1158   24.2  0.4723  -97.7
 4.200  0.7574   95.0   0.932    1.5  0.1181   24.3  0.4726 -100.5
 4.300  0.7621   93.3   0.903   -0.4  0.1205   24.4  0.4739 -103.2
 4.400  0.7676   91.5   0.876   -2.4  0.1228   24.6  0.4764 -106.0
 4.500  0.7737   89.8   0.849   -4.6  0.1251   24.7  0.4799 -108.7
 4.600  0.7765   88.4   0.826   -6.0  0.1279   25.0  0.4792 -111.3
 4.700  0.7797   87.0   0.803   -7.4  0.1306   25.4  0.4796 -113.9
 4.800  0.7834   85.6   0.780   -8.9  0.1334   25.7  0.4809 -116.5
 4.900  0.7875   84.3   0.758  -10.5  0.1362   26.0  0.4833 -119.1
 5.000  0.7921   82.9   0.737  -12.2  0.1390   26.3  0.4866 -121.7
 5.100  0.7951   81.7   0.720  -13.5  0.1434   25.7  0.4894 -124.4
 5.200  0.7984   80.4   0.704  -14.9  0.1477   25.2  0.4932 -127.1
 5.300  0.8021   79.2   0.688  -16.4  0.1521   24.7  0.4981 -129.7
 5.400  0.8062   78.0   0.672  -17.9  0.1565   24.2  0.5041 -132.3
 5.500  0.8106   76.8   0.657  -19.5  0.1609   23.8  0.5110 -134.8
 5.600  0.8142   75.7   0.640  -20.6  0.1642   23.1  0.5146 -137.4
 5.700  0.8181   74.7   0.623  -21.8  0.1675   22.4  0.5192 -139.9
 5.800  0.8222   73.6   0.606  -23.1  0.1709   21.7  0.5249 -142.4
 5.900  0.8266   72.6   0.590  -24.4  0.1743   21.0  0.5315 -144.8
 6.000  0.8313   71.6   0.574  -25.8  0.1777   20.4  0.5390 -147.2
!
!  f       NFmin   Gammaopt  rn/50
! GHz       dB    MAG  ANG    -
!
! noise parameter not available yet for this operation point!
!
! (c) 2016  Infineon Technologies AG, Munich
