! Infineon Technologies  Discrete & RF Semiconductors
! BFP196
! VCE = 0.75V,  IC = 5.0mA
! Common Emitter S-Parameters:                            Jan 2016
# GHz  S  MA  R  50
!  f         S11            S21            S12            S22
! GHz     MAG   ANG      MAG   ANG      MAG   ANG      MAG   ANG
 0.010  0.8029   -9.8  15.826  175.9  0.0084   86.8  0.9832   -5.5
 0.015  0.7992  -14.3  15.579  172.8  0.0126   82.5  0.9738   -8.0
 0.020  0.8005  -18.9  15.379  169.6  0.0168   80.4  0.9663  -10.5
 0.025  0.7883  -23.2  15.179  167.4  0.0206   76.1  0.9529  -12.8
 0.030  0.7807  -27.6  15.003  165.1  0.0244   73.1  0.9411  -15.2
 0.035  0.7777  -32.0  14.852  162.7  0.0283   70.9  0.9310  -17.6
 0.040  0.7794  -36.5  14.726  160.4  0.0322   69.3  0.9225  -20.1
 0.045  0.7858  -40.9  14.625  157.9  0.0361   68.0  0.9158  -22.6
 0.050  0.7968  -45.2  14.551  155.5  0.0401   67.0  0.9109  -25.1
 0.055  0.7809  -48.6  14.260  153.9  0.0425   64.4  0.8923  -26.8
 0.060  0.7678  -52.1  13.982  152.2  0.0451   62.2  0.8745  -28.5
 0.065  0.7577  -55.7  13.716  150.4  0.0477   60.1  0.8575  -30.3
 0.070  0.7507  -59.3  13.464  148.5  0.0503   58.3  0.8414  -32.2
 0.075  0.7468  -63.1  13.226  146.6  0.0530   56.7  0.8262  -34.1
 0.080  0.7461  -66.9  13.004  144.7  0.0557   55.2  0.8120  -36.1
 0.085  0.7486  -70.6  12.797  142.6  0.0585   53.9  0.7988  -38.2
 0.090  0.7543  -74.3  12.608  140.5  0.0613   52.6  0.7867  -40.3
 0.095  0.7631  -78.0  12.436  138.3  0.0641   51.5  0.7758  -42.5
 0.100  0.7749  -81.5  12.282  136.1  0.0669   50.5  0.7660  -44.8
 0.105  0.7670  -83.9  12.015  135.0  0.0682   49.2  0.7510  -45.9
 0.110  0.7604  -86.3  11.752  133.8  0.0695   47.9  0.7363  -47.0
 0.115  0.7552  -88.7  11.495  132.6  0.0709   46.7  0.7219  -48.2
 0.120  0.7514  -91.2  11.243  131.3  0.0723   45.5  0.7078  -49.4
 0.125  0.7490  -93.7  10.997  129.9  0.0738   44.4  0.6940  -50.7
 0.130  0.7481  -96.2  10.758  128.5  0.0752   43.3  0.6806  -52.0
 0.135  0.7486  -98.7  10.525  127.0  0.0767   42.3  0.6676  -53.4
 0.140  0.7505 -101.2  10.300  125.5  0.0782   41.3  0.6550  -54.9
 0.145  0.7538 -103.7  10.082  123.9  0.0797   40.3  0.6428  -56.4
 0.150  0.7586 -106.2   9.873  122.2  0.0813   39.4  0.6311  -57.9
 0.155  0.7552 -107.9   9.696  121.4  0.0820   38.6  0.6204  -58.7
 0.160  0.7525 -109.7   9.522  120.6  0.0827   37.9  0.6098  -59.5
 0.165  0.7505 -111.5   9.349  119.7  0.0834   37.1  0.5993  -60.4
 0.170  0.7493 -113.3   9.179  118.8  0.0842   36.4  0.5890  -61.3
 0.175  0.7487 -115.0   9.011  117.8  0.0849   35.7  0.5788  -62.2
 0.180  0.7489 -116.8   8.845  116.9  0.0857   35.0  0.5687  -63.2
 0.185  0.7498 -118.6   8.682  115.9  0.0865   34.3  0.5589  -64.2
 0.190  0.7515 -120.4   8.522  114.8  0.0873   33.6  0.5492  -65.2
 0.195  0.7538 -122.1   8.365  113.7  0.0881   33.0  0.5397  -66.3
 0.200  0.7569 -123.9   8.211  112.6  0.0889   32.3  0.5304  -67.4
 0.220  0.7484 -128.9   7.649  110.0  0.0905   30.3  0.4989  -70.1
 0.240  0.7457 -134.0   7.106  107.0  0.0921   28.3  0.4685  -73.1
 0.260  0.7450 -138.3   6.641  104.4  0.0935   26.8  0.4437  -75.7
 0.280  0.7438 -141.8   6.245  102.3  0.0946   25.5  0.4237  -77.8
 0.300  0.7454 -145.3   5.858  100.0  0.0957   24.3  0.4043  -80.1
 0.320  0.7422 -148.1   5.590   98.6  0.0963   23.5  0.3902  -81.4
 0.340  0.7407 -150.9   5.325   97.1  0.0969   22.7  0.3762  -82.8
 0.360  0.7410 -153.7   5.064   95.4  0.0975   21.9  0.3626  -84.4
 0.380  0.7430 -156.4   4.808   93.6  0.0981   21.1  0.3492  -86.0
 0.400  0.7468 -159.2   4.558   91.5  0.0988   20.3  0.3361  -87.8
 0.420  0.7451 -161.0   4.379   90.4  0.0990   19.9  0.3281  -88.9
 0.440  0.7441 -162.8   4.202   89.2  0.0993   19.5  0.3201  -90.1
 0.450  0.7438 -163.7   4.114   88.6  0.0994   19.3  0.3162  -90.7
 0.460  0.7438 -164.6   4.027   87.9  0.0995   19.1  0.3124  -91.3
 0.480  0.7443 -166.4   3.854   86.5  0.0998   18.7  0.3048  -92.6
 0.500  0.7455 -168.2   3.683   85.0  0.1000   18.3  0.2973  -94.0
 0.520  0.7438 -169.8   3.564   84.0  0.1001   18.2  0.2929  -95.0
 0.540  0.7428 -171.4   3.445   82.8  0.1003   18.0  0.2885  -95.9
 0.560  0.7423 -173.0   3.329   81.7  0.1004   17.9  0.2842  -97.0
 0.580  0.7423 -174.6   3.213   80.4  0.1006   17.7  0.2801  -98.0
 0.600  0.7430 -176.2   3.100   79.0  0.1007   17.6  0.2760  -99.1
 0.620  0.7436 -177.5   3.014   78.1  0.1008   17.5  0.2736  -99.9
 0.640  0.7446 -178.7   2.929   77.1  0.1008   17.5  0.2713 -100.8
 0.660  0.7460 -180.0   2.844   76.0  0.1009   17.4  0.2690 -101.6
 0.680  0.7477  178.7   2.761   74.9  0.1009   17.4  0.2668 -102.5
 0.700  0.7498  177.5   2.679   73.7  0.1010   17.3  0.2646 -103.4
 0.720  0.7495  176.5   2.612   72.9  0.1013   17.3  0.2634 -104.1
 0.740  0.7494  175.4   2.545   72.0  0.1016   17.3  0.2623 -104.9
 0.760  0.7495  174.4   2.479   71.1  0.1019   17.3  0.2612 -105.6
 0.780  0.7499  173.3   2.414   70.1  0.1022   17.3  0.2602 -106.3
 0.800  0.7506  172.3   2.349   69.1  0.1025   17.3  0.2592 -107.1
 0.820  0.7497  171.3   2.298   68.3  0.1027   17.4  0.2585 -107.7
 0.840  0.7490  170.3   2.247   67.5  0.1028   17.6  0.2579 -108.3
 0.860  0.7486  169.3   2.197   66.6  0.1030   17.7  0.2573 -108.9
 0.880  0.7484  168.3   2.147   65.7  0.1031   17.9  0.2567 -109.5
 0.900  0.7484  167.3   2.098   64.7  0.1033   18.0  0.2562 -110.1
 0.920  0.7486  166.3   2.058   63.9  0.1033   18.2  0.2567 -110.7
 0.940  0.7491  165.2   2.018   63.1  0.1033   18.3  0.2573 -111.4
 0.960  0.7499  164.2   1.978   62.3  0.1034   18.5  0.2578 -112.0
 0.980  0.7509  163.1   1.939   61.4  0.1034   18.6  0.2585 -112.7
 1.000  0.7521  162.1   1.900   60.5  0.1034   18.8  0.2591 -113.3
 1.020  0.7535  161.3   1.866   59.7  0.1035   19.1  0.2599 -113.9
 1.040  0.7551  160.4   1.832   59.0  0.1037   19.3  0.2606 -114.6
 1.060  0.7569  159.6   1.798   58.1  0.1038   19.6  0.2615 -115.2
 1.080  0.7588  158.8   1.765   57.3  0.1040   19.8  0.2623 -115.9
 1.100  0.7608  158.0   1.732   56.4  0.1041   20.1  0.2632 -116.5
 1.120  0.7613  157.2   1.704   55.7  0.1043   20.3  0.2642 -117.1
 1.140  0.7619  156.3   1.676   55.0  0.1045   20.5  0.2652 -117.8
 1.160  0.7628  155.5   1.648   54.2  0.1046   20.7  0.2663 -118.4
 1.180  0.7638  154.6   1.621   53.4  0.1048   20.9  0.2674 -119.0
 1.200  0.7649  153.8   1.594   52.6  0.1050   21.1  0.2685 -119.6
 1.220  0.7654  153.0   1.569   51.9  0.1054   21.4  0.2695 -120.1
 1.240  0.7661  152.2   1.544   51.2  0.1058   21.6  0.2705 -120.7
 1.260  0.7669  151.3   1.520   50.5  0.1062   21.9  0.2715 -121.2
 1.280  0.7679  150.5   1.496   49.7  0.1066   22.1  0.2726 -121.8
 1.300  0.7690  149.7   1.472   48.9  0.1070   22.4  0.2737 -122.3
 1.320  0.7698  149.0   1.451   48.3  0.1073   22.6  0.2754 -122.8
 1.340  0.7708  148.3   1.431   47.6  0.1077   22.8  0.2772 -123.2
 1.360  0.7719  147.5   1.411   47.0  0.1080   23.1  0.2790 -123.7
 1.380  0.7731  146.8   1.391   46.3  0.1084   23.3  0.2808 -124.2
 1.400  0.7744  146.1   1.371   45.6  0.1087   23.5  0.2826 -124.6
 1.420  0.7744  145.4   1.355   44.9  0.1092   23.9  0.2841 -125.2
 1.440  0.7745  144.8   1.338   44.3  0.1096   24.3  0.2857 -125.9
 1.460  0.7746  144.1   1.322   43.6  0.1101   24.6  0.2872 -126.5
 1.480  0.7749  143.5   1.307   42.8  0.1106   25.0  0.2889 -127.1
 1.500  0.7753  142.8   1.291   42.1  0.1111   25.4  0.2905 -127.7
 1.520  0.7764  142.1   1.272   41.4  0.1116   25.6  0.2920 -128.2
 1.540  0.7777  141.4   1.253   40.8  0.1121   25.9  0.2935 -128.8
 1.560  0.7791  140.8   1.234   40.1  0.1127   26.1  0.2950 -129.3
 1.580  0.7805  140.1   1.215   39.3  0.1132   26.4  0.2965 -129.8
 1.600  0.7821  139.4   1.197   38.6  0.1137   26.6  0.2981 -130.3
 1.620  0.7835  138.6   1.184   38.0  0.1143   26.8  0.2994 -130.9
 1.640  0.7851  137.8   1.171   37.3  0.1148   27.1  0.3008 -131.4
 1.660  0.7868  137.0   1.158   36.7  0.1154   27.3  0.3022 -132.0
 1.680  0.7886  136.3   1.145   36.0  0.1159   27.6  0.3036 -132.6
 1.700  0.7906  135.5   1.132   35.3  0.1165   27.8  0.3051 -133.1
 1.720  0.7909  134.8   1.121   34.8  0.1174   28.0  0.3068 -133.5
 1.740  0.7913  134.2   1.111   34.3  0.1182   28.2  0.3086 -133.9
 1.760  0.7918  133.5   1.100   33.8  0.1191   28.5  0.3103 -134.3
 1.780  0.7924  132.9   1.089   33.2  0.1199   28.7  0.3121 -134.7
 1.800  0.7931  132.2   1.079   32.7  0.1208   28.9  0.3139 -135.1
 1.820  0.7939  131.6   1.067   32.1  0.1216   29.2  0.3163 -135.7
 1.840  0.7948  131.0   1.056   31.5  0.1225   29.4  0.3188 -136.4
 1.860  0.7958  130.4   1.044   30.8  0.1233   29.7  0.3213 -137.0
 1.880  0.7968  129.8   1.033   30.2  0.1242   29.9  0.3239 -137.6
 1.900  0.7980  129.2   1.022   29.5  0.1250   30.2  0.3265 -138.2
 1.920  0.7988  128.6   1.011   28.9  0.1260   30.3  0.3277 -138.8
 1.940  0.7997  128.0   0.999   28.3  0.1270   30.5  0.3289 -139.4
 1.960  0.8007  127.5   0.988   27.7  0.1279   30.6  0.3302 -140.0
 1.980  0.8018  126.9   0.977   27.1  0.1289   30.8  0.3315 -140.6
 2.000  0.8029  126.3   0.966   26.5  0.1299   30.9  0.3328 -141.2
 2.020  0.8030  125.7   0.957   26.0  0.1308   31.0  0.3350 -141.7
 2.040  0.8031  125.1   0.947   25.5  0.1318   31.2  0.3372 -142.1
 2.060  0.8033  124.5   0.938   24.9  0.1327   31.3  0.3394 -142.5
 2.080  0.8036  123.9   0.929   24.4  0.1337   31.4  0.3416 -143.0
 2.100  0.8040  123.3   0.919   23.8  0.1346   31.6  0.3439 -143.4
 2.120  0.8045  122.7   0.910   23.3  0.1356   31.7  0.3461 -143.8
 2.140  0.8051  122.1   0.901   22.7  0.1365   31.8  0.3484 -144.3
 2.160  0.8058  121.5   0.892   22.1  0.1375   32.0  0.3507 -144.7
 2.180  0.8066  120.9   0.884   21.5  0.1384   32.1  0.3531 -145.1
 2.200  0.8074  120.3   0.875   20.9  0.1394   32.2  0.3554 -145.5
 2.220  0.8086  119.7   0.868   20.4  0.1405   32.3  0.3573 -146.2
 2.240  0.8099  119.0   0.861   19.9  0.1417   32.3  0.3593 -146.8
 2.260  0.8113  118.4   0.854   19.5  0.1428   32.4  0.3613 -147.5
 2.280  0.8128  117.8   0.847   19.0  0.1440   32.5  0.3633 -148.1
 2.300  0.8144  117.1   0.840   18.5  0.1451   32.5  0.3654 -148.7
 2.320  0.8161  116.5   0.833   17.9  0.1462   32.6  0.3676 -149.4
 2.340  0.8178  115.9   0.827   17.4  0.1474   32.6  0.3698 -150.0
 2.360  0.8197  115.2   0.820   16.9  0.1485   32.7  0.3720 -150.6
 2.380  0.8217  114.6   0.813   16.3  0.1497   32.7  0.3743 -151.2
 2.400  0.8238  114.0   0.807   15.8  0.1508   32.8  0.3766 -151.8
 2.420  0.8241  113.5   0.800   15.4  0.1520   32.8  0.3787 -152.3
 2.440  0.8245  112.9   0.793   14.9  0.1532   32.8  0.3808 -152.8
 2.460  0.8249  112.4   0.785   14.5  0.1543   32.7  0.3830 -153.3
 2.480  0.8255  111.8   0.778   14.0  0.1555   32.7  0.3852 -153.8
 2.500  0.8261  111.3   0.771   13.6  0.1567   32.7  0.3874 -154.3
 2.520  0.8268  110.7   0.764   13.1  0.1579   32.7  0.3896 -154.7
 2.540  0.8275  110.2   0.757   12.6  0.1591   32.7  0.3919 -155.2
 2.560  0.8283  109.7   0.751   12.1  0.1602   32.6  0.3941 -155.7
 2.580  0.8292  109.1   0.744   11.6  0.1614   32.6  0.3965 -156.1
 2.600  0.8302  108.6   0.737   11.1  0.1626   32.6  0.3988 -156.6
 2.620  0.8308  108.1   0.732   10.7  0.1639   32.5  0.4008 -157.2
 2.640  0.8314  107.6   0.727   10.3  0.1651   32.5  0.4029 -157.8
 2.660  0.8321  107.0   0.722    9.9  0.1664   32.4  0.4050 -158.4
 2.680  0.8329  106.5   0.717    9.5  0.1677   32.3  0.4071 -159.0
 2.700  0.8337  106.0   0.712    9.1  0.1689   32.3  0.4093 -159.5
 2.720  0.8347  105.5   0.707    8.7  0.1702   32.2  0.4115 -160.1
 2.740  0.8356  104.9   0.702    8.3  0.1715   32.2  0.4138 -160.7
 2.760  0.8367  104.4   0.698    7.9  0.1728   32.1  0.4161 -161.2
 2.780  0.8378  103.9   0.693    7.4  0.1740   32.1  0.4184 -161.8
 2.800  0.8390  103.4   0.688    7.0  0.1753   32.0  0.4208 -162.3
 2.820  0.8394  102.9   0.683    6.6  0.1765   31.9  0.4232 -162.8
 2.840  0.8399  102.4   0.677    6.2  0.1778   31.7  0.4256 -163.3
 2.860  0.8405  101.9   0.672    5.8  0.1790   31.6  0.4280 -163.8
 2.880  0.8411  101.4   0.666    5.4  0.1802   31.5  0.4305 -164.3
 2.900  0.8417  100.9   0.661    5.0  0.1815   31.3  0.4330 -164.8
 2.920  0.8425  100.4   0.656    4.6  0.1827   31.2  0.4355 -165.3
 2.940  0.8433  100.0   0.651    4.2  0.1840   31.1  0.4380 -165.8
 2.960  0.8441   99.5   0.645    3.8  0.1852   30.9  0.4406 -166.3
 2.980  0.8450   99.0   0.640    3.3  0.1865   30.8  0.4433 -166.7
 3.000  0.8460   98.5   0.635    2.9  0.1877   30.7  0.4459 -167.2
 3.100  0.8481   96.3   0.614    1.6  0.1937   29.8  0.4555 -169.9
 3.200  0.8515   94.1   0.593    0.3  0.1998   28.9  0.4661 -172.5
 3.300  0.8561   91.9   0.573   -1.2  0.2059   28.0  0.4776 -175.0
 3.400  0.8619   89.8   0.553   -2.7  0.2120   27.2  0.4900 -177.4
 3.500  0.8689   87.7   0.534   -4.4  0.2182   26.5  0.5031 -179.6
 3.600  0.8683   85.8   0.519   -5.3  0.2237   25.4  0.5126  177.9
 3.700  0.8687   83.9   0.505   -6.3  0.2292   24.4  0.5231  175.5
 3.800  0.8700   82.0   0.491   -7.3  0.2348   23.4  0.5345  173.3
 3.900  0.8723   80.2   0.477   -8.4  0.2405   22.4  0.5466  171.1
 4.000  0.8755   78.3   0.463   -9.5  0.2462   21.5  0.5595  169.0
 4.100  0.8755   76.7   0.454  -10.2  0.2514   20.2  0.5672  166.9
 4.200  0.8762   75.0   0.446  -11.0  0.2567   19.0  0.5757  164.8
 4.300  0.8775   73.4   0.437  -11.7  0.2622   17.8  0.5849  162.7
 4.400  0.8796   71.8   0.428  -12.6  0.2677   16.7  0.5949  160.8
 4.500  0.8824   70.2   0.420  -13.4  0.2734   15.6  0.6055  158.9
 4.600  0.8815   68.9   0.415  -13.8  0.2776   14.4  0.6121  157.1
 4.700  0.8811   67.6   0.411  -14.1  0.2820   13.2  0.6192  155.3
 4.800  0.8812   66.3   0.406  -14.5  0.2864   12.1  0.6269  153.6
 4.900  0.8817   65.0   0.402  -14.9  0.2910   11.0  0.6352  151.9
 5.000  0.8826   63.7   0.397  -15.3  0.2957    9.9  0.6440  150.3
 5.100  0.8834   62.5   0.393  -15.7  0.2997    8.7  0.6494  148.5
 5.200  0.8846   61.2   0.389  -16.0  0.3039    7.4  0.6554  146.8
 5.300  0.8863   60.0   0.386  -16.4  0.3082    6.3  0.6620  145.1
 5.400  0.8883   58.8   0.382  -16.8  0.3126    5.1  0.6692  143.4
 5.500  0.8907   57.6   0.378  -17.2  0.3171    4.0  0.6769  141.8
 5.600  0.8888   56.5   0.378  -17.6  0.3205    2.7  0.6812  140.2
 5.700  0.8872   55.4   0.377  -18.0  0.3240    1.4  0.6860  138.6
 5.800  0.8860   54.2   0.377  -18.4  0.3277    0.1  0.6914  137.1
 5.900  0.8851   53.1   0.376  -18.8  0.3315   -1.1  0.6972  135.6
 6.000  0.8845   52.0   0.376  -19.2  0.3355   -2.3  0.7035  134.1
!
!  f       NFmin   Gammaopt  rn/50
! GHz       dB    MAG  ANG    -
!
! noise parameter not available yet for this operation point!
!
! (c) 2016  Infineon Technologies AG, Munich
