! Infineon Technologies  Discrete & RF Semiconductors
! BFP181
! VCE = 2.5 V,  IC =  3.0 mA
! Common Emitter S-Parameters:                            Jan 2016
# GHz  S  MA  R  50
!  f         S11            S21            S12            S22
! GHz     MAG   ANG      MAG   ANG      MAG   ANG      MAG   ANG
 0.010  0.9006   -1.5   9.122  179.0  0.0013   85.3  0.9945   -0.6
 0.015  0.9041   -2.1   9.097  178.7  0.0022   85.1  0.9957   -0.9
 0.020  0.9076   -2.7   9.073  178.3  0.0031   85.0  0.9970   -1.2
 0.025  0.9071   -3.3   9.073  177.7  0.0038   86.0  0.9961   -1.5
 0.030  0.9068   -4.0   9.073  177.1  0.0045   86.7  0.9952   -1.8
 0.035  0.9066   -4.6   9.075  176.5  0.0051   87.2  0.9943   -2.1
 0.040  0.9065   -5.3   9.077  175.9  0.0058   87.6  0.9935   -2.4
 0.045  0.9065   -5.9   9.081  175.3  0.0065   87.9  0.9927   -2.7
 0.050  0.9066   -6.6   9.085  174.7  0.0072   88.1  0.9919   -3.0
 0.055  0.9044   -7.3   9.070  174.2  0.0079   86.8  0.9913   -3.3
 0.060  0.9022   -8.0   9.056  173.7  0.0085   85.7  0.9907   -3.6
 0.065  0.9002   -8.7   9.043  173.2  0.0092   84.7  0.9901   -3.9
 0.070  0.8984   -9.4   9.030  172.6  0.0099   83.9  0.9895   -4.2
 0.075  0.8967  -10.1   9.018  172.1  0.0105   83.2  0.9890   -4.4
 0.080  0.8951  -10.8   9.007  171.6  0.0112   82.6  0.9885   -4.7
 0.085  0.8936  -11.5   8.997  171.1  0.0119   82.0  0.9880   -5.0
 0.090  0.8923  -12.2   8.987  170.5  0.0125   81.5  0.9875   -5.3
 0.095  0.8911  -12.9   8.978  170.0  0.0132   81.1  0.9871   -5.6
 0.100  0.8901  -13.6   8.970  169.5  0.0139   80.7  0.9867   -5.9
 0.105  0.8887  -14.3   8.956  169.0  0.0146   80.3  0.9855   -6.2
 0.110  0.8874  -14.9   8.942  168.4  0.0153   79.9  0.9843   -6.5
 0.115  0.8862  -15.6   8.929  167.9  0.0159   79.5  0.9831   -6.8
 0.120  0.8851  -16.2   8.917  167.4  0.0166   79.2  0.9819   -7.1
 0.125  0.8842  -16.9   8.906  166.8  0.0173   78.8  0.9808   -7.3
 0.130  0.8833  -17.5   8.895  166.3  0.0180   78.6  0.9797   -7.6
 0.135  0.8826  -18.2   8.885  165.7  0.0187   78.3  0.9786   -7.9
 0.140  0.8820  -18.9   8.876  165.2  0.0193   78.0  0.9775   -8.2
 0.145  0.8816  -19.5   8.868  164.6  0.0200   77.8  0.9765   -8.5
 0.150  0.8812  -20.2   8.861  164.1  0.0207   77.6  0.9755   -8.8
 0.155  0.8789  -20.8   8.851  163.6  0.0213   77.2  0.9741   -9.1
 0.160  0.8767  -21.5   8.843  163.1  0.0219   76.9  0.9726   -9.3
 0.165  0.8747  -22.2   8.834  162.5  0.0225   76.6  0.9712   -9.6
 0.170  0.8727  -22.8   8.827  162.0  0.0231   76.3  0.9698   -9.9
 0.175  0.8709  -23.5   8.820  161.5  0.0237   76.0  0.9685  -10.1
 0.180  0.8691  -24.1   8.814  161.0  0.0244   75.8  0.9671  -10.4
 0.185  0.8675  -24.8   8.809  160.5  0.0250   75.5  0.9658  -10.7
 0.190  0.8660  -25.5   8.805  159.9  0.0256   75.3  0.9645  -11.0
 0.195  0.8647  -26.1   8.801  159.4  0.0262   75.0  0.9633  -11.2
 0.200  0.8634  -26.8   8.798  158.9  0.0268   74.8  0.9620  -11.5
 0.220  0.8555  -29.3   8.693  156.9  0.0291   73.2  0.9554  -12.6
 0.240  0.8492  -31.7   8.599  154.9  0.0315   71.8  0.9491  -13.7
 0.260  0.8414  -34.2   8.506  153.1  0.0338   70.4  0.9423  -14.8
 0.280  0.8321  -36.5   8.412  151.4  0.0361   69.0  0.9349  -15.7
 0.300  0.8242  -38.9   8.325  149.7  0.0384   67.8  0.9277  -16.7
 0.320  0.8111  -41.2   8.217  147.9  0.0404   66.3  0.9195  -17.5
 0.340  0.7993  -43.5   8.117  146.0  0.0424   65.0  0.9116  -18.4
 0.360  0.7889  -46.0   8.026  144.1  0.0445   63.7  0.9038  -19.3
 0.380  0.7800  -48.5   7.944  142.1  0.0465   62.6  0.8963  -20.2
 0.400  0.7726  -51.0   7.872  140.1  0.0486   61.6  0.8890  -21.1
 0.420  0.7594  -53.2   7.750  138.5  0.0501   60.4  0.8801  -21.8
 0.440  0.7472  -55.4   7.634  136.9  0.0516   59.2  0.8714  -22.6
 0.450  0.7416  -56.6   7.579  136.1  0.0523   58.7  0.8671  -23.0
 0.460  0.7363  -57.8   7.525  135.3  0.0531   58.1  0.8629  -23.3
 0.480  0.7267  -60.1   7.421  133.6  0.0546   57.1  0.8545  -24.1
 0.500  0.7183  -62.6   7.325  131.8  0.0562   56.1  0.8462  -24.9
 0.520  0.7070  -64.5   7.221  130.5  0.0576   55.2  0.8378  -25.5
 0.540  0.6965  -66.5   7.120  129.1  0.0590   54.4  0.8296  -26.1
 0.560  0.6868  -68.5   7.024  127.7  0.0605   53.6  0.8214  -26.7
 0.580  0.6780  -70.6   6.933  126.2  0.0619   52.8  0.8134  -27.4
 0.600  0.6701  -72.7   6.846  124.7  0.0634   52.1  0.8054  -28.0
 0.620  0.6601  -74.4   6.727  123.5  0.0644   51.3  0.7981  -28.5
 0.640  0.6507  -76.2   6.611  122.3  0.0654   50.5  0.7909  -29.0
 0.660  0.6420  -78.1   6.498  121.0  0.0664   49.8  0.7837  -29.5
 0.680  0.6339  -80.0   6.389  119.7  0.0674   49.0  0.7766  -30.0
 0.700  0.6266  -81.9   6.283  118.3  0.0684   48.3  0.7695  -30.5
 0.720  0.6163  -83.7   6.198  117.1  0.0693   47.6  0.7630  -30.9
 0.740  0.6065  -85.5   6.116  116.0  0.0703   46.9  0.7565  -31.3
 0.760  0.5975  -87.4   6.036  114.7  0.0712   46.3  0.7501  -31.7
 0.780  0.5891  -89.4   5.960  113.5  0.0721   45.6  0.7437  -32.1
 0.800  0.5814  -91.4   5.886  112.2  0.0731   45.0  0.7373  -32.5
 0.820  0.5723  -93.1   5.802  111.2  0.0739   44.5  0.7314  -32.8
 0.840  0.5638  -94.8   5.721  110.1  0.0748   44.0  0.7256  -33.2
 0.860  0.5558  -96.6   5.641  109.0  0.0756   43.5  0.7198  -33.6
 0.880  0.5483  -98.4   5.563  107.9  0.0764   43.0  0.7140  -33.9
 0.900  0.5414 -100.3   5.488  106.7  0.0773   42.5  0.7083  -34.3
 0.920  0.5338 -102.0   5.407  105.8  0.0778   42.0  0.7028  -34.6
 0.940  0.5267 -103.8   5.327  104.8  0.0783   41.6  0.6973  -35.0
 0.960  0.5201 -105.7   5.249  103.8  0.0788   41.1  0.6918  -35.3
 0.980  0.5141 -107.6   5.173  102.8  0.0794   40.6  0.6863  -35.6
 1.000  0.5087 -109.5   5.098  101.7  0.0799   40.2  0.6809  -36.0
 1.020  0.5020 -111.1   5.036  100.8  0.0806   39.8  0.6765  -36.3
 1.040  0.4956 -112.7   4.975   99.8  0.0812   39.4  0.6721  -36.5
 1.060  0.4897 -114.4   4.915   98.8  0.0819   39.0  0.6677  -36.8
 1.080  0.4842 -116.1   4.857   97.8  0.0825   38.7  0.6633  -37.1
 1.100  0.4792 -117.9   4.801   96.8  0.0832   38.3  0.6590  -37.4
 1.120  0.4740 -119.3   4.736   96.0  0.0837   37.9  0.6553  -37.7
 1.140  0.4692 -120.8   4.672   95.3  0.0843   37.5  0.6517  -38.0
 1.160  0.4646 -122.3   4.608   94.5  0.0848   37.1  0.6480  -38.2
 1.180  0.4604 -123.8   4.546   93.6  0.0854   36.7  0.6444  -38.5
 1.200  0.4565 -125.4   4.484   92.8  0.0859   36.3  0.6408  -38.8
 1.220  0.4535 -127.0   4.426   92.0  0.0863   36.1  0.6372  -39.0
 1.240  0.4508 -128.6   4.369   91.3  0.0867   35.9  0.6336  -39.3
 1.260  0.4485 -130.2   4.313   90.5  0.0871   35.6  0.6301  -39.5
 1.280  0.4465 -131.8   4.257   89.6  0.0875   35.4  0.6265  -39.8
 1.300  0.4449 -133.5   4.203   88.8  0.0879   35.2  0.6230  -40.0
 1.320  0.4398 -134.9   4.155   88.1  0.0883   35.0  0.6200  -40.2
 1.340  0.4350 -136.4   4.107   87.4  0.0887   34.8  0.6170  -40.5
 1.360  0.4304 -137.8   4.061   86.6  0.0891   34.6  0.6141  -40.7
 1.380  0.4262 -139.4   4.014   85.9  0.0895   34.4  0.6111  -41.0
 1.400  0.4222 -140.9   3.969   85.1  0.0899   34.2  0.6082  -41.2
 1.420  0.4205 -142.5   3.925   84.4  0.0903   34.0  0.6056  -41.4
 1.440  0.4191 -144.1   3.882   83.6  0.0907   33.8  0.6029  -41.6
 1.460  0.4180 -145.7   3.840   82.8  0.0911   33.6  0.6003  -41.8
 1.480  0.4173 -147.3   3.798   82.0  0.0915   33.4  0.5977  -42.0
 1.500  0.4169 -148.9   3.757   81.2  0.0919   33.2  0.5951  -42.2
 1.520  0.4130 -150.2   3.715   80.6  0.0923   33.0  0.5931  -42.4
 1.540  0.4094 -151.4   3.673   79.9  0.0927   32.8  0.5910  -42.6
 1.560  0.4059 -152.7   3.631   79.3  0.0930   32.6  0.5890  -42.9
 1.580  0.4026 -154.1   3.590   78.6  0.0934   32.4  0.5870  -43.1
 1.600  0.3996 -155.4   3.550   77.9  0.0938   32.2  0.5850  -43.3
 1.620  0.3985 -156.9   3.514   77.2  0.0942   32.1  0.5827  -43.5
 1.640  0.3976 -158.4   3.478   76.5  0.0947   32.0  0.5804  -43.8
 1.660  0.3970 -159.9   3.443   75.8  0.0951   31.8  0.5782  -44.0
 1.680  0.3967 -161.4   3.408   75.1  0.0956   31.7  0.5759  -44.3
 1.700  0.3967 -162.9   3.374   74.4  0.0960   31.6  0.5737  -44.5
 1.720  0.3954 -164.3   3.342   73.7  0.0963   31.5  0.5716  -44.7
 1.740  0.3943 -165.8   3.310   73.1  0.0966   31.3  0.5695  -44.9
 1.760  0.3934 -167.2   3.278   72.4  0.0969   31.2  0.5674  -45.2
 1.780  0.3928 -168.6   3.247   71.7  0.0972   31.0  0.5654  -45.4
 1.800  0.3925 -170.1   3.217   71.0  0.0975   30.9  0.5633  -45.6
 1.820  0.3920 -171.4   3.187   70.4  0.0979   30.7  0.5614  -45.8
 1.840  0.3917 -172.6   3.156   69.8  0.0982   30.6  0.5596  -46.1
 1.860  0.3915 -173.9   3.127   69.2  0.0986   30.4  0.5578  -46.3
 1.880  0.3916 -175.1   3.097   68.6  0.0989   30.3  0.5559  -46.6
 1.900  0.3918 -176.4   3.068   68.0  0.0993   30.1  0.5541  -46.8
 1.920  0.3906 -177.6   3.038   67.4  0.0996   30.0  0.5525  -47.0
 1.940  0.3896 -178.9   3.008   66.8  0.1000   29.9  0.5510  -47.2
 1.960  0.3888  179.8   2.979   66.2  0.1003   29.9  0.5494  -47.5
 1.980  0.3881  178.6   2.950   65.5  0.1007   29.8  0.5478  -47.7
 2.000  0.3877  177.3   2.921   64.9  0.1010   29.7  0.5463  -47.9
 2.020  0.3878  176.1   2.895   64.4  0.1013   29.6  0.5449  -48.2
 2.040  0.3880  175.0   2.869   63.8  0.1017   29.5  0.5435  -48.4
 2.060  0.3884  173.8   2.844   63.2  0.1020   29.4  0.5421  -48.7
 2.080  0.3889  172.6   2.819   62.7  0.1024   29.3  0.5407  -48.9
 2.100  0.3896  171.5   2.794   62.1  0.1027   29.2  0.5393  -49.2
 2.120  0.3905  170.3   2.769   61.5  0.1031   29.2  0.5379  -49.4
 2.140  0.3915  169.2   2.745   60.9  0.1034   29.1  0.5366  -49.7
 2.160  0.3927  168.1   2.721   60.3  0.1038   29.0  0.5353  -50.0
 2.180  0.3940  166.9   2.697   59.6  0.1041   28.9  0.5339  -50.2
 2.200  0.3955  165.8   2.674   59.0  0.1045   28.8  0.5326  -50.5
 2.220  0.3958  164.7   2.653   58.5  0.1048   28.7  0.5313  -50.8
 2.240  0.3963  163.6   2.633   58.0  0.1052   28.6  0.5300  -51.0
 2.260  0.3970  162.6   2.612   57.5  0.1055   28.5  0.5286  -51.3
 2.280  0.3977  161.5   2.592   57.0  0.1059   28.4  0.5274  -51.5
 2.300  0.3986  160.4   2.572   56.5  0.1062   28.3  0.5261  -51.8
 2.320  0.3997  159.4   2.553   55.9  0.1065   28.3  0.5248  -52.0
 2.340  0.4009  158.3   2.533   55.4  0.1069   28.2  0.5235  -52.3
 2.360  0.4022  157.3   2.514   54.8  0.1072   28.1  0.5223  -52.6
 2.380  0.4036  156.2   2.495   54.3  0.1076   28.0  0.5210  -52.8
 2.400  0.4052  155.2   2.476   53.7  0.1079   27.9  0.5198  -53.1
 2.420  0.4066  154.3   2.456   53.2  0.1082   27.8  0.5184  -53.4
 2.440  0.4082  153.3   2.436   52.7  0.1085   27.8  0.5170  -53.6
 2.460  0.4098  152.4   2.417   52.2  0.1088   27.7  0.5157  -53.9
 2.480  0.4116  151.5   2.398   51.7  0.1091   27.7  0.5143  -54.2
 2.500  0.4134  150.6   2.379   51.2  0.1094   27.6  0.5130  -54.4
 2.520  0.4154  149.7   2.360   50.7  0.1098   27.5  0.5116  -54.7
 2.540  0.4174  148.8   2.341   50.1  0.1101   27.5  0.5103  -55.0
 2.560  0.4196  147.9   2.322   49.6  0.1104   27.4  0.5090  -55.2
 2.580  0.4218  147.1   2.304   49.1  0.1107   27.4  0.5077  -55.5
 2.600  0.4242  146.2   2.286   48.5  0.1110   27.3  0.5064  -55.8
 2.620  0.4256  145.3   2.270   48.0  0.1114   27.2  0.5054  -56.1
 2.640  0.4271  144.4   2.253   47.5  0.1117   27.1  0.5045  -56.4
 2.660  0.4287  143.5   2.237   47.0  0.1121   27.0  0.5035  -56.7
 2.680  0.4304  142.6   2.221   46.4  0.1124   26.9  0.5026  -57.0
 2.700  0.4322  141.8   2.206   45.9  0.1128   26.8  0.5017  -57.3
 2.720  0.4341  140.9   2.190   45.4  0.1132   26.8  0.5008  -57.6
 2.740  0.4361  140.0   2.175   44.8  0.1135   26.7  0.4999  -57.9
 2.760  0.4382  139.2   2.160   44.2  0.1139   26.6  0.4990  -58.2
 2.780  0.4404  138.3   2.145   43.7  0.1142   26.5  0.4981  -58.5
 2.800  0.4427  137.5   2.130   43.1  0.1146   26.4  0.4973  -58.8
 2.820  0.4439  136.7   2.116   42.6  0.1149   26.3  0.4962  -59.1
 2.840  0.4452  135.9   2.102   42.2  0.1153   26.2  0.4950  -59.4
 2.860  0.4466  135.1   2.088   41.7  0.1156   26.2  0.4939  -59.7
 2.880  0.4480  134.4   2.075   41.2  0.1160   26.1  0.4928  -60.0
 2.900  0.4495  133.6   2.061   40.7  0.1163   26.0  0.4917  -60.3
 2.920  0.4511  132.8   2.048   40.2  0.1167   25.9  0.4907  -60.6
 2.940  0.4528  132.1   2.035   39.7  0.1170   25.8  0.4896  -60.9
 2.960  0.4546  131.3   2.022   39.2  0.1174   25.8  0.4886  -61.2
 2.980  0.4565  130.5   2.009   38.7  0.1177   25.7  0.4875  -61.5
 3.000  0.4584  129.8   1.996   38.2  0.1181   25.6  0.4865  -61.8
 3.100  0.4660  126.4   1.931   36.2  0.1199   25.2  0.4824  -63.4
 3.200  0.4752  123.1   1.869   34.0  0.1217   24.8  0.4787  -65.0
 3.300  0.4858  120.0   1.809   31.7  0.1235   24.5  0.4753  -66.7
 3.400  0.4979  117.0   1.753   29.2  0.1254   24.1  0.4724  -68.4
 3.500  0.5113  114.1   1.700   26.6  0.1272   23.8  0.4699  -70.1
 3.600  0.5192  111.6   1.651   24.7  0.1290   23.3  0.4658  -72.0
 3.700  0.5280  109.2   1.604   22.7  0.1308   22.9  0.4622  -73.9
 3.800  0.5378  106.8   1.560   20.6  0.1326   22.4  0.4591  -75.8
 3.900  0.5484  104.6   1.517   18.4  0.1345   22.0  0.4565  -77.7
 4.000  0.5598  102.4   1.477   16.0  0.1363   21.6  0.4545  -79.7
 4.100  0.5666  100.3   1.436   14.2  0.1380   21.1  0.4512  -81.8
 4.200  0.5741   98.2   1.397   12.2  0.1398   20.7  0.4485  -83.9
 4.300  0.5824   96.2   1.359   10.2  0.1416   20.2  0.4464  -86.1
 4.400  0.5914   94.3   1.324    8.1  0.1433   19.8  0.4450  -88.2
 4.500  0.6010   92.4   1.290    5.8  0.1451   19.4  0.4442  -90.4
 4.600  0.6072   90.9   1.259    4.2  0.1468   19.0  0.4420  -92.5
 4.700  0.6138   89.3   1.229    2.6  0.1486   18.7  0.4404  -94.6
 4.800  0.6208   87.9   1.200    0.8  0.1504   18.3  0.4394  -96.8
 4.900  0.6283   86.4   1.172   -1.0  0.1521   17.9  0.4390  -98.9
 5.000  0.6361   85.0   1.145   -2.9  0.1539   17.6  0.4392 -101.1
 5.100  0.6414   83.7   1.119   -4.5  0.1563   17.2  0.4392 -103.3
 5.200  0.6470   82.4   1.094   -6.1  0.1587   16.7  0.4398 -105.6
 5.300  0.6529   81.2   1.070   -7.8  0.1611   16.3  0.4411 -107.8
 5.400  0.6592   79.9   1.047   -9.6  0.1635   15.9  0.4431 -110.0
 5.500  0.6657   78.7   1.025  -11.5  0.1659   15.5  0.4457 -112.2
 5.600  0.6710   77.5   1.003  -13.0  0.1682   14.9  0.4467 -114.5
 5.700  0.6766   76.4   0.982  -14.5  0.1705   14.3  0.4485 -116.7
 5.800  0.6825   75.3   0.962  -16.1  0.1729   13.7  0.4509 -119.0
 5.900  0.6886   74.2   0.943  -17.8  0.1752   13.1  0.4540 -121.2
 6.000  0.6950   73.1   0.924  -19.5  0.1776   12.6  0.4578 -123.4
!
!  f       NFmin   Gammaopt  rn/50
! GHz       dB    MAG  ANG    -
 0.450      1.40  0.56   17   0.36
 0.900      1.50  0.45   35   0.34
 1.800      1.85  0.25   82   0.36
!
! (c) 2016  Infineon Technologies AG, Munich
