! Infineon Technologies  Discrete & RF Semiconductors
! BFP193
! VCE = 0.75V,  IC =  12 mA
! Common Emitter S-Parameters:                            Jan 2016
# GHz  S  MA  R  50
!  f         S11            S21            S12            S22
! GHz     MAG   ANG      MAG   ANG      MAG   ANG      MAG   ANG
 0.010  0.6422  -11.6  30.326  174.9  0.0047   84.6  0.9591   -6.1
 0.015  0.6351  -16.8  29.835  171.5  0.0072   80.3  0.9510   -9.0
 0.020  0.6332  -22.0  29.452  168.0  0.0098   78.2  0.9454  -12.0
 0.025  0.6217  -26.9  28.938  165.6  0.0118   74.7  0.9273  -14.5
 0.030  0.6148  -31.9  28.476  163.2  0.0138   72.2  0.9110  -17.1
 0.035  0.6128  -37.0  28.067  160.7  0.0159   70.4  0.8968  -19.8
 0.040  0.6157  -42.1  27.715  158.1  0.0179   68.9  0.8845  -22.6
 0.045  0.6234  -47.1  27.420  155.4  0.0200   67.8  0.8745  -25.5
 0.050  0.6357  -52.0  27.186  152.7  0.0221   66.9  0.8666  -28.4
 0.055  0.6231  -55.6  26.533  151.1  0.0235   64.9  0.8456  -30.1
 0.060  0.6130  -59.4  25.902  149.5  0.0249   63.1  0.8254  -31.8
 0.065  0.6056  -63.2  25.293  147.7  0.0263   61.5  0.8060  -33.7
 0.070  0.6010  -67.1  24.708  145.9  0.0278   60.1  0.7875  -35.6
 0.075  0.5993  -71.1  24.149  144.0  0.0293   58.8  0.7700  -37.7
 0.080  0.6005  -75.1  23.618  142.0  0.0308   57.6  0.7535  -39.8
 0.085  0.6046  -79.0  23.117  140.0  0.0323   56.6  0.7380  -42.0
 0.090  0.6114  -82.9  22.648  137.8  0.0338   55.6  0.7237  -44.3
 0.095  0.6210  -86.7  22.212  135.5  0.0353   54.7  0.7106  -46.7
 0.100  0.6332  -90.3  21.812  133.2  0.0368   53.9  0.6988  -49.2
 0.105  0.6274  -92.7  21.306  132.1  0.0375   52.9  0.6831  -50.3
 0.110  0.6227  -95.2  20.808  131.0  0.0382   52.0  0.6677  -51.4
 0.115  0.6192  -97.7  20.318  129.8  0.0389   51.1  0.6525  -52.6
 0.120  0.6169 -100.3  19.838  128.6  0.0396   50.3  0.6377  -53.9
 0.125  0.6158 -102.8  19.367  127.3  0.0403   49.4  0.6231  -55.2
 0.130  0.6160 -105.4  18.906  125.9  0.0411   48.6  0.6089  -56.5
 0.135  0.6173 -107.9  18.457  124.5  0.0418   47.9  0.5951  -58.0
 0.140  0.6199 -110.4  18.019  123.0  0.0426   47.1  0.5816  -59.5
 0.145  0.6237 -112.9  17.595  121.4  0.0433   46.4  0.5686  -61.1
 0.150  0.6286 -115.4  17.184  119.8  0.0441   45.7  0.5560  -62.7
 0.155  0.6269 -117.0  16.849  119.1  0.0445   45.3  0.5456  -63.5
 0.160  0.6257 -118.6  16.517  118.4  0.0449   45.0  0.5353  -64.3
 0.165  0.6250 -120.2  16.188  117.6  0.0453   44.6  0.5251  -65.2
 0.170  0.6247 -121.8  15.861  116.8  0.0458   44.3  0.5151  -66.1
 0.175  0.6250 -123.4  15.538  116.0  0.0462   44.0  0.5051  -67.0
 0.180  0.6257 -125.0  15.218  115.1  0.0466   43.6  0.4953  -68.0
 0.185  0.6269 -126.6  14.902  114.2  0.0470   43.3  0.4857  -69.0
 0.190  0.6287 -128.2  14.589  113.3  0.0474   43.0  0.4762  -70.0
 0.195  0.6308 -129.7  14.281  112.3  0.0479   42.7  0.4669  -71.1
 0.200  0.6335 -131.3  13.977  111.3  0.0483   42.4  0.4577  -72.2
 0.220  0.6312 -135.9  12.992  109.0  0.0498   41.5  0.4281  -74.8
 0.240  0.6330 -140.4  12.032  106.4  0.0513   40.7  0.3995  -77.8
 0.260  0.6340 -144.4  11.220  104.1  0.0525   40.3  0.3760  -80.4
 0.280  0.6328 -147.8  10.544  102.3  0.0536   40.3  0.3568  -82.6
 0.300  0.6338 -151.2   9.880  100.2  0.0547   40.3  0.3383  -85.0
 0.320  0.6323 -153.6   9.419   99.1  0.0557   40.4  0.3242  -86.5
 0.340  0.6319 -156.0   8.961   97.9  0.0568   40.4  0.3103  -88.1
 0.360  0.6326 -158.4   8.509   96.5  0.0578   40.5  0.2967  -89.8
 0.380  0.6344 -160.8   8.061   95.0  0.0589   40.5  0.2834  -91.7
 0.400  0.6373 -163.2   7.620   93.3  0.0599   40.6  0.2704  -93.8
 0.420  0.6363 -164.8   7.319   92.4  0.0610   40.9  0.2624  -95.0
 0.440  0.6357 -166.3   7.020   91.3  0.0620   41.3  0.2545  -96.3
 0.450  0.6356 -167.1   6.871   90.8  0.0625   41.4  0.2506  -96.9
 0.460  0.6356 -167.9   6.723   90.2  0.0631   41.6  0.2467  -97.6
 0.480  0.6360 -169.4   6.430   89.0  0.0641   41.9  0.2391  -99.1
 0.500  0.6369 -171.0   6.139   87.7  0.0652   42.2  0.2316 -100.6
 0.520  0.6363 -172.4   5.941   86.8  0.0663   42.5  0.2268 -101.6
 0.540  0.6361 -173.8   5.745   85.9  0.0674   42.7  0.2222 -102.6
 0.560  0.6362 -175.1   5.551   85.0  0.0686   43.0  0.2176 -103.7
 0.580  0.6367 -176.5   5.358   83.9  0.0697   43.3  0.2130 -104.8
 0.600  0.6376 -177.9   5.167   82.8  0.0708   43.5  0.2086 -106.0
 0.620  0.6383 -179.1   5.024   82.0  0.0720   43.8  0.2053 -107.0
 0.640  0.6393  179.7   4.882   81.2  0.0731   44.1  0.2021 -107.9
 0.660  0.6406  178.5   4.741   80.3  0.0743   44.4  0.1990 -109.0
 0.680  0.6421  177.4   4.601   79.3  0.0754   44.7  0.1959 -110.0
 0.700  0.6439  176.2   4.463   78.3  0.0766   45.0  0.1929 -111.1
 0.720  0.6436  175.2   4.353   77.7  0.0779   45.2  0.1907 -111.9
 0.740  0.6436  174.2   4.243   77.0  0.0792   45.4  0.1885 -112.8
 0.760  0.6437  173.3   4.134   76.3  0.0805   45.6  0.1864 -113.6
 0.780  0.6440  172.3   4.026   75.5  0.0818   45.8  0.1843 -114.5
 0.800  0.6445  171.3   3.918   74.7  0.0831   46.0  0.1823 -115.4
 0.820  0.6441  170.4   3.832   74.0  0.0844   46.1  0.1807 -116.2
 0.840  0.6438  169.5   3.746   73.4  0.0857   46.3  0.1792 -116.9
 0.860  0.6437  168.6   3.661   72.6  0.0871   46.4  0.1776 -117.7
 0.880  0.6437  167.7   3.577   71.9  0.0884   46.6  0.1762 -118.5
 0.900  0.6439  166.8   3.493   71.1  0.0897   46.7  0.1747 -119.3
 0.920  0.6445  165.9   3.425   70.5  0.0909   46.8  0.1739 -119.9
 0.940  0.6452  165.1   3.358   69.8  0.0922   46.9  0.1731 -120.6
 0.960  0.6461  164.2   3.291   69.1  0.0934   47.0  0.1724 -121.3
 0.980  0.6471  163.4   3.225   68.4  0.0947   47.1  0.1716 -121.9
 1.000  0.6483  162.5   3.159   67.7  0.0959   47.2  0.1709 -122.6
 1.020  0.6488  161.7   3.104   67.1  0.0972   47.3  0.1704 -123.3
 1.040  0.6494  160.9   3.049   66.4  0.0985   47.4  0.1700 -124.0
 1.060  0.6501  160.2   2.995   65.7  0.0999   47.4  0.1696 -124.7
 1.080  0.6509  159.4   2.941   65.0  0.1012   47.5  0.1692 -125.4
 1.100  0.6519  158.6   2.888   64.3  0.1025   47.6  0.1689 -126.1
 1.120  0.6531  157.9   2.841   63.7  0.1038   47.6  0.1686 -126.7
 1.140  0.6545  157.1   2.794   63.1  0.1052   47.7  0.1683 -127.3
 1.160  0.6559  156.4   2.748   62.5  0.1065   47.7  0.1681 -127.9
 1.180  0.6574  155.6   2.702   61.9  0.1079   47.8  0.1678 -128.5
 1.200  0.6591  154.9   2.656   61.2  0.1092   47.8  0.1676 -129.1
 1.220  0.6590  154.1   2.616   60.6  0.1107   47.8  0.1675 -129.7
 1.240  0.6591  153.3   2.576   60.0  0.1121   47.7  0.1674 -130.3
 1.260  0.6592  152.6   2.536   59.4  0.1136   47.7  0.1673 -130.8
 1.280  0.6595  151.8   2.496   58.8  0.1150   47.6  0.1672 -131.4
 1.300  0.6599  151.0   2.457   58.1  0.1165   47.6  0.1672 -132.0
 1.320  0.6601  150.4   2.422   57.6  0.1177   47.5  0.1675 -132.5
 1.340  0.6603  149.8   2.388   57.1  0.1189   47.5  0.1678 -133.0
 1.360  0.6606  149.2   2.353   56.5  0.1202   47.4  0.1681 -133.6
 1.380  0.6610  148.6   2.319   56.0  0.1214   47.4  0.1685 -134.1
 1.400  0.6614  148.0   2.285   55.4  0.1226   47.3  0.1688 -134.6
 1.420  0.6622  147.4   2.260   54.8  0.1240   47.3  0.1692 -135.1
 1.440  0.6630  146.8   2.234   54.2  0.1255   47.3  0.1696 -135.6
 1.460  0.6640  146.1   2.209   53.6  0.1269   47.2  0.1701 -136.2
 1.480  0.6650  145.5   2.185   53.0  0.1284   47.2  0.1705 -136.7
 1.500  0.6661  144.9   2.160   52.4  0.1298   47.2  0.1710 -137.2
 1.520  0.6671  144.2   2.130   51.8  0.1312   47.1  0.1712 -137.8
 1.540  0.6683  143.6   2.100   51.3  0.1325   47.0  0.1715 -138.4
 1.560  0.6695  142.9   2.070   50.7  0.1339   46.8  0.1718 -139.1
 1.580  0.6708  142.3   2.040   50.0  0.1352   46.7  0.1721 -139.7
 1.600  0.6722  141.6   2.011   49.4  0.1366   46.6  0.1724 -140.3
 1.620  0.6728  140.9   1.989   48.8  0.1379   46.5  0.1727 -140.9
 1.640  0.6736  140.2   1.966   48.2  0.1392   46.5  0.1729 -141.5
 1.660  0.6744  139.6   1.944   47.6  0.1406   46.4  0.1732 -142.0
 1.680  0.6753  138.9   1.923   47.0  0.1419   46.4  0.1736 -142.6
 1.700  0.6763  138.2   1.901   46.4  0.1432   46.3  0.1739 -143.2
 1.720  0.6771  137.6   1.882   46.0  0.1446   46.1  0.1747 -143.6
 1.740  0.6779  137.0   1.864   45.5  0.1461   46.0  0.1754 -143.9
 1.760  0.6789  136.5   1.845   45.0  0.1475   45.8  0.1762 -144.3
 1.780  0.6798  135.9   1.827   44.6  0.1490   45.7  0.1770 -144.6
 1.800  0.6809  135.3   1.809   44.1  0.1504   45.5  0.1778 -145.0
 1.820  0.6820  134.7   1.791   43.5  0.1517   45.4  0.1788 -145.6
 1.840  0.6831  134.2   1.773   43.0  0.1531   45.2  0.1798 -146.1
 1.860  0.6843  133.6   1.755   42.4  0.1544   45.1  0.1808 -146.7
 1.880  0.6856  133.1   1.737   41.8  0.1558   44.9  0.1818 -147.3
 1.900  0.6869  132.5   1.720   41.2  0.1571   44.8  0.1829 -147.8
 1.920  0.6880  131.9   1.702   40.7  0.1584   44.6  0.1834 -148.4
 1.940  0.6892  131.3   1.685   40.2  0.1598   44.4  0.1840 -149.0
 1.960  0.6905  130.7   1.667   39.7  0.1611   44.3  0.1845 -149.6
 1.980  0.6918  130.1   1.650   39.1  0.1625   44.1  0.1851 -150.1
 2.000  0.6932  129.5   1.633   38.6  0.1638   43.9  0.1857 -150.7
 2.020  0.6936  129.0   1.618   38.1  0.1651   43.7  0.1866 -151.2
 2.040  0.6940  128.5   1.603   37.6  0.1665   43.5  0.1875 -151.7
 2.060  0.6945  127.9   1.589   37.1  0.1678   43.4  0.1884 -152.2
 2.080  0.6951  127.4   1.574   36.6  0.1692   43.2  0.1893 -152.7
 2.100  0.6957  126.9   1.560   36.1  0.1705   43.0  0.1902 -153.2
 2.120  0.6964  126.4   1.546   35.6  0.1719   42.8  0.1912 -153.7
 2.140  0.6971  125.8   1.532   35.1  0.1732   42.7  0.1921 -154.2
 2.160  0.6979  125.3   1.518   34.5  0.1746   42.5  0.1931 -154.7
 2.180  0.6987  124.8   1.504   34.0  0.1759   42.4  0.1941 -155.1
 2.200  0.6996  124.3   1.490   33.4  0.1773   42.2  0.1951 -155.6
 2.220  0.7008  123.7   1.478   32.9  0.1786   42.0  0.1961 -156.2
 2.240  0.7020  123.2   1.467   32.4  0.1799   41.8  0.1971 -156.8
 2.260  0.7033  122.6   1.455   31.9  0.1811   41.6  0.1982 -157.4
 2.280  0.7047  122.0   1.444   31.4  0.1824   41.4  0.1992 -158.0
 2.300  0.7062  121.5   1.433   30.9  0.1837   41.2  0.2003 -158.5
 2.320  0.7077  120.9   1.421   30.4  0.1850   41.0  0.2014 -159.1
 2.340  0.7093  120.4   1.410   29.8  0.1863   40.8  0.2025 -159.7
 2.360  0.7109  119.8   1.399   29.3  0.1876   40.6  0.2037 -160.2
 2.380  0.7126  119.2   1.389   28.8  0.1889   40.4  0.2048 -160.8
 2.400  0.7144  118.7   1.378   28.2  0.1902   40.2  0.2060 -161.3
 2.420  0.7149  118.2   1.367   27.8  0.1914   40.0  0.2070 -161.8
 2.440  0.7155  117.6   1.356   27.3  0.1926   39.8  0.2080 -162.3
 2.460  0.7162  117.1   1.345   26.9  0.1937   39.6  0.2091 -162.8
 2.480  0.7169  116.5   1.335   26.4  0.1949   39.4  0.2101 -163.3
 2.500  0.7177  116.0   1.324   26.0  0.1961   39.2  0.2112 -163.8
 2.520  0.7186  115.4   1.313   25.5  0.1973   39.0  0.2123 -164.3
 2.540  0.7195  114.9   1.303   25.1  0.1985   38.8  0.2134 -164.8
 2.560  0.7205  114.4   1.293   24.6  0.1997   38.7  0.2145 -165.3
 2.580  0.7215  113.8   1.282   24.1  0.2009   38.5  0.2157 -165.7
 2.600  0.7226  113.3   1.272   23.6  0.2021   38.3  0.2168 -166.2
 2.620  0.7232  112.8   1.263   23.2  0.2033   38.1  0.2181 -166.7
 2.640  0.7238  112.4   1.254   22.7  0.2044   37.9  0.2195 -167.3
 2.660  0.7245  111.9   1.245   22.3  0.2056   37.6  0.2209 -167.8
 2.680  0.7252  111.4   1.237   21.9  0.2067   37.4  0.2223 -168.3
 2.700  0.7259  110.9   1.228   21.4  0.2079   37.2  0.2237 -168.8
 2.720  0.7268  110.5   1.219   21.0  0.2091   37.0  0.2252 -169.3
 2.740  0.7276  110.0   1.211   20.5  0.2103   36.8  0.2266 -169.8
 2.760  0.7285  109.5   1.203   20.1  0.2114   36.6  0.2281 -170.3
 2.780  0.7295  109.1   1.194   19.6  0.2126   36.4  0.2296 -170.8
 2.800  0.7305  108.6   1.186   19.1  0.2138   36.2  0.2311 -171.3
 2.820  0.7315  108.2   1.178   18.7  0.2150   36.0  0.2325 -171.8
 2.840  0.7326  107.7   1.170   18.2  0.2162   35.7  0.2339 -172.3
 2.860  0.7337  107.3   1.162   17.8  0.2174   35.5  0.2353 -172.8
 2.880  0.7348  106.9   1.154   17.3  0.2186   35.3  0.2367 -173.3
 2.900  0.7360  106.5   1.147   16.9  0.2199   35.1  0.2382 -173.8
 2.920  0.7372  106.1   1.139   16.4  0.2211   34.9  0.2397 -174.3
 2.940  0.7385  105.6   1.131   15.9  0.2223   34.6  0.2411 -174.7
 2.960  0.7398  105.2   1.124   15.5  0.2235   34.4  0.2426 -175.2
 2.980  0.7411  104.8   1.116   15.0  0.2248   34.2  0.2442 -175.6
 3.000  0.7425  104.4   1.109   14.5  0.2260   34.0  0.2457 -176.1
 3.100  0.7457  102.4   1.074   12.9  0.2313   32.9  0.2530 -178.5
 3.200  0.7498  100.3   1.039   11.1  0.2368   31.8  0.2607  179.3
 3.300  0.7549   98.3   1.006    9.2  0.2423   30.8  0.2688  177.2
 3.400  0.7608   96.3   0.974    7.2  0.2479   29.8  0.2772  175.2
 3.500  0.7677   94.4   0.943    5.1  0.2535   28.9  0.2859  173.3
 3.600  0.7706   92.6   0.919    3.6  0.2584   27.7  0.2948  171.2
 3.700  0.7743   90.9   0.895    2.0  0.2635   26.5  0.3041  169.1
 3.800  0.7786   89.2   0.872    0.4  0.2687   25.3  0.3138  167.2
 3.900  0.7837   87.5   0.850   -1.4  0.2739   24.3  0.3237  165.5
 4.000  0.7894   85.8   0.829   -3.2  0.2793   23.2  0.3340  163.8
 4.100  0.7912   84.3   0.810   -4.5  0.2836   22.0  0.3421  161.9
 4.200  0.7936   82.8   0.791   -5.9  0.2880   20.9  0.3505  160.1
 4.300  0.7966   81.3   0.772   -7.3  0.2925   19.7  0.3592  158.5
 4.400  0.8001   79.8   0.754   -8.8  0.2972   18.7  0.3683  156.8
 4.500  0.8041   78.3   0.737  -10.4  0.3019   17.6  0.3776  155.3
 4.600  0.8068   77.0   0.723  -11.5  0.3058   16.5  0.3851  153.7
 4.700  0.8099   75.7   0.710  -12.7  0.3097   15.4  0.3930  152.2
 4.800  0.8134   74.5   0.696  -14.0  0.3138   14.4  0.4011  150.7
 4.900  0.8173   73.2   0.684  -15.3  0.3180   13.4  0.4094  149.3
 5.000  0.8216   72.0   0.671  -16.6  0.3223   12.4  0.4180  147.9
 5.100  0.8231   70.8   0.659  -17.5  0.3261   11.3  0.4251  146.3
 5.200  0.8249   69.7   0.647  -18.5  0.3300   10.3  0.4325  144.8
 5.300  0.8271   68.5   0.635  -19.5  0.3340    9.3  0.4401  143.4
 5.400  0.8296   67.3   0.623  -20.5  0.3381    8.3  0.4481  142.0
 5.500  0.8324   66.2   0.612  -21.6  0.3423    7.3  0.4563  140.6
 5.600  0.8323   65.1   0.603  -22.4  0.3458    6.1  0.4629  139.2
 5.700  0.8325   64.1   0.594  -23.2  0.3494    5.0  0.4697  137.8
 5.800  0.8330   63.0   0.586  -24.0  0.3532    3.9  0.4768  136.5
 5.900  0.8338   62.0   0.577  -24.9  0.3571    2.8  0.4841  135.2
 6.000  0.8348   60.9   0.569  -25.8  0.3611    1.7  0.4917  133.9
!
!  f       NFmin   Gammaopt  rn/50
! GHz       dB    MAG  ANG    -
!
! noise parameter not available yet for this operation point!
!
! (c) 2016  Infineon Technologies AG, Munich
