! Infineon Technologies  Discrete & RF Semiconductors
! BFP196
! VCE = 3.5 V,  IC =  60mA
! Common Emitter S-Parameters:                            Jan 2016
# GHz  S  MA  R  50
!  f         S11            S21            S12            S22
! GHz     MAG   ANG      MAG   ANG      MAG   ANG      MAG   ANG
 0.010  0.2580  -46.2  73.750  167.8  0.0036   79.4  0.8735  -15.3
 0.015  0.2867  -64.0  70.946  162.0  0.0054   72.9  0.8434  -22.1
 0.020  0.3370  -77.5  68.935  155.7  0.0072   69.7  0.8260  -29.3
 0.025  0.3483  -87.4  65.344  152.6  0.0082   65.5  0.7789  -33.5
 0.030  0.3693  -96.5  61.961  149.2  0.0092   62.2  0.7364  -38.2
 0.035  0.3984 -104.3  58.823  145.4  0.0102   59.6  0.6995  -43.4
 0.040  0.4339 -111.1  55.969  141.3  0.0113   57.5  0.6691  -49.2
 0.045  0.4745 -116.7  53.446  136.6  0.0123   55.7  0.6461  -55.5
 0.050  0.5189 -121.4  51.302  131.6  0.0134   54.2  0.6313  -62.1
 0.055  0.5224 -124.7  49.176  130.4  0.0139   53.6  0.6052  -64.3
 0.060  0.5276 -127.9  47.074  129.0  0.0144   53.1  0.5801  -66.6
 0.065  0.5344 -131.1  45.001  127.6  0.0148   52.5  0.5560  -69.1
 0.070  0.5428 -134.2  42.960  126.0  0.0153   52.1  0.5332  -71.9
 0.075  0.5527 -137.1  40.955  124.2  0.0158   51.6  0.5117  -74.9
 0.080  0.5641 -140.0  38.993  122.3  0.0163   51.2  0.4917  -78.2
 0.085  0.5768 -142.7  37.081  120.1  0.0168   50.8  0.4734  -81.7
 0.090  0.5907 -145.3  35.226  117.8  0.0172   50.4  0.4571  -85.5
 0.095  0.6059 -147.8  33.438  115.1  0.0177   50.0  0.4430  -89.6
 0.100  0.6221 -150.2  31.729  112.2  0.0182   49.7  0.4312  -93.9
 0.105  0.6240 -151.5  30.751  111.5  0.0185   49.9  0.4209  -95.4
 0.110  0.6262 -152.7  29.778  110.8  0.0189   50.0  0.4108  -96.9
 0.115  0.6287 -154.0  28.810  110.1  0.0192   50.2  0.4011  -98.5
 0.120  0.6316 -155.2  27.848  109.2  0.0196   50.4  0.3917 -100.2
 0.125  0.6346 -156.4  26.891  108.4  0.0199   50.5  0.3826 -102.0
 0.130  0.6380 -157.6  25.941  107.4  0.0202   50.7  0.3740 -103.8
 0.135  0.6417 -158.8  24.998  106.4  0.0206   50.8  0.3657 -105.8
 0.140  0.6456 -160.0  24.064  105.3  0.0209   50.9  0.3579 -107.8
 0.145  0.6498 -161.2  23.139  104.2  0.0213   51.1  0.3506 -109.9
 0.150  0.6543 -162.3  22.225  102.9  0.0216   51.2  0.3437 -112.1
 0.155  0.6548 -163.0  21.698  102.5  0.0219   51.5  0.3390 -113.2
 0.160  0.6554 -163.8  21.172  102.0  0.0223   51.8  0.3344 -114.3
 0.165  0.6561 -164.5  20.647  101.5  0.0226   52.1  0.3299 -115.4
 0.170  0.6569 -165.2  20.125  101.0  0.0229   52.4  0.3255 -116.6
 0.175  0.6578 -166.0  19.604  100.4  0.0232   52.6  0.3213 -117.8
 0.180  0.6588 -166.7  19.084   99.9  0.0236   52.9  0.3172 -119.0
 0.185  0.6599 -167.4  18.567   99.2  0.0239   53.2  0.3133 -120.2
 0.190  0.6611 -168.2  18.052   98.6  0.0242   53.4  0.3095 -121.5
 0.195  0.6625 -168.9  17.540   97.9  0.0246   53.7  0.3059 -122.9
 0.200  0.6639 -169.6  17.030   97.2  0.0249   53.9  0.3025 -124.2
 0.220  0.6653 -171.6  15.673   95.8  0.0263   55.2  0.2922 -127.7
 0.240  0.6675 -173.5  14.326   94.2  0.0277   56.4  0.2832 -131.4
 0.260  0.6702 -175.2  13.217   92.8  0.0291   57.3  0.2765 -134.6
 0.280  0.6730 -176.6  12.340   91.7  0.0305   57.9  0.2715 -136.9
 0.300  0.6762 -178.0  11.469   90.4  0.0319   58.5  0.2671 -139.4
 0.320  0.6766 -179.3  10.908   89.7  0.0334   59.3  0.2637 -141.2
 0.340  0.6773  179.4  10.348   88.9  0.0350   60.0  0.2606 -143.0
 0.360  0.6784  178.1   9.791   88.0  0.0366   60.7  0.2578 -144.8
 0.380  0.6798  176.8   9.236   87.0  0.0381   61.3  0.2552 -146.7
 0.400  0.6816  175.5   8.685   85.9  0.0397   61.9  0.2529 -148.6
 0.420  0.6813  174.6   8.333   85.2  0.0412   62.2  0.2515 -149.8
 0.440  0.6812  173.8   7.983   84.5  0.0427   62.4  0.2503 -150.9
 0.450  0.6812  173.3   7.808   84.1  0.0434   62.5  0.2497 -151.5
 0.460  0.6812  172.9   7.633   83.7  0.0441   62.6  0.2491 -152.1
 0.480  0.6814  172.1   7.286   82.9  0.0456   62.8  0.2480 -153.3
 0.500  0.6817  171.2   6.940   81.9  0.0471   63.0  0.2471 -154.5
 0.520  0.6821  170.3   6.708   81.2  0.0488   63.2  0.2467 -155.3
 0.540  0.6826  169.4   6.478   80.5  0.0505   63.4  0.2463 -156.1
 0.560  0.6833  168.6   6.248   79.8  0.0522   63.5  0.2460 -157.0
 0.580  0.6842  167.7   6.020   79.0  0.0539   63.7  0.2458 -157.8
 0.600  0.6852  166.8   5.793   78.1  0.0556   63.8  0.2456 -158.6
 0.620  0.6850  166.0   5.628   77.4  0.0571   63.8  0.2454 -159.2
 0.640  0.6850  165.2   5.464   76.8  0.0586   63.9  0.2453 -159.8
 0.660  0.6851  164.3   5.300   76.0  0.0602   63.9  0.2452 -160.4
 0.680  0.6854  163.5   5.138   75.2  0.0617   64.0  0.2451 -161.0
 0.700  0.6858  162.7   4.976   74.4  0.0632   64.0  0.2451 -161.6
 0.720  0.6869  162.0   4.852   73.9  0.0648   63.8  0.2454 -162.1
 0.740  0.6880  161.3   4.729   73.3  0.0665   63.7  0.2457 -162.6
 0.760  0.6893  160.5   4.607   72.8  0.0681   63.5  0.2460 -163.1
 0.780  0.6907  159.8   4.485   72.1  0.0698   63.3  0.2463 -163.6
 0.800  0.6922  159.1   4.363   71.5  0.0714   63.2  0.2467 -164.1
 0.820  0.6912  158.4   4.265   70.9  0.0731   63.0  0.2467 -164.5
 0.840  0.6903  157.7   4.168   70.3  0.0748   62.9  0.2467 -165.0
 0.860  0.6895  156.9   4.071   69.7  0.0765   62.8  0.2468 -165.4
 0.880  0.6888  156.2   3.975   69.1  0.0782   62.6  0.2468 -165.9
 0.900  0.6882  155.5   3.879   68.4  0.0799   62.5  0.2469 -166.3
 0.920  0.6887  154.7   3.802   67.9  0.0814   62.3  0.2473 -166.6
 0.940  0.6892  153.9   3.726   67.3  0.0830   62.2  0.2477 -166.9
 0.960  0.6900  153.1   3.650   66.7  0.0845   62.1  0.2481 -167.3
 0.980  0.6908  152.3   3.575   66.1  0.0861   61.9  0.2486 -167.6
 1.000  0.6918  151.5   3.500   65.5  0.0876   61.8  0.2490 -167.9
 1.020  0.6927  150.9   3.438   64.9  0.0892   61.6  0.2497 -168.2
 1.040  0.6936  150.3   3.376   64.3  0.0907   61.4  0.2505 -168.5
 1.060  0.6947  149.6   3.314   63.7  0.0923   61.2  0.2513 -168.8
 1.080  0.6958  149.0   3.253   63.1  0.0938   61.0  0.2520 -169.1
 1.100  0.6970  148.4   3.192   62.4  0.0954   60.8  0.2528 -169.4
 1.120  0.6977  147.7   3.139   61.9  0.0970   60.6  0.2533 -169.7
 1.140  0.6985  147.0   3.086   61.4  0.0986   60.4  0.2539 -170.0
 1.160  0.6995  146.4   3.033   60.8  0.1001   60.2  0.2544 -170.3
 1.180  0.7005  145.7   2.981   60.3  0.1017   60.0  0.2549 -170.6
 1.200  0.7016  145.0   2.929   59.7  0.1033   59.8  0.2555 -170.9
 1.220  0.7010  144.3   2.884   59.2  0.1049   59.5  0.2560 -171.2
 1.240  0.7004  143.6   2.839   58.6  0.1065   59.2  0.2565 -171.5
 1.260  0.7000  143.0   2.795   58.0  0.1081   58.9  0.2570 -171.9
 1.280  0.6996  142.3   2.751   57.4  0.1097   58.6  0.2575 -172.2
 1.300  0.6994  141.6   2.707   56.8  0.1113   58.3  0.2580 -172.5
 1.320  0.7009  141.0   2.667   56.3  0.1128   58.0  0.2587 -172.7
 1.340  0.7025  140.4   2.627   55.8  0.1143   57.8  0.2594 -172.9
 1.360  0.7042  139.9   2.588   55.3  0.1157   57.6  0.2601 -173.2
 1.380  0.7060  139.3   2.548   54.8  0.1172   57.3  0.2608 -173.4
 1.400  0.7078  138.7   2.509   54.3  0.1187   57.1  0.2615 -173.6
 1.420  0.7073  138.1   2.480   53.8  0.1202   56.8  0.2624 -173.8
 1.440  0.7068  137.5   2.452   53.2  0.1218   56.5  0.2633 -174.0
 1.460  0.7064  137.0   2.424   52.7  0.1233   56.2  0.2641 -174.2
 1.480  0.7061  136.4   2.396   52.1  0.1249   56.0  0.2650 -174.4
 1.500  0.7058  135.8   2.368   51.5  0.1264   55.7  0.2659 -174.6
 1.520  0.7075  135.2   2.335   51.0  0.1279   55.4  0.2667 -174.9
 1.540  0.7094  134.6   2.301   50.4  0.1293   55.1  0.2676 -175.2
 1.560  0.7113  133.9   2.268   49.8  0.1308   54.8  0.2685 -175.5
 1.580  0.7132  133.3   2.236   49.2  0.1322   54.6  0.2693 -175.8
 1.600  0.7153  132.7   2.203   48.6  0.1337   54.3  0.2702 -176.1
 1.620  0.7153  132.1   2.177   48.1  0.1351   54.0  0.2709 -176.4
 1.640  0.7154  131.4   2.150   47.6  0.1365   53.7  0.2716 -176.7
 1.660  0.7155  130.8   2.124   47.0  0.1379   53.4  0.2723 -177.1
 1.680  0.7158  130.1   2.099   46.5  0.1394   53.1  0.2730 -177.4
 1.700  0.7161  129.5   2.073   45.9  0.1408   52.8  0.2737 -177.7
 1.720  0.7179  129.0   2.053   45.5  0.1422   52.5  0.2744 -177.9
 1.740  0.7197  128.4   2.033   45.1  0.1437   52.1  0.2751 -178.0
 1.760  0.7216  127.9   2.014   44.7  0.1451   51.8  0.2757 -178.2
 1.780  0.7236  127.3   1.994   44.2  0.1466   51.5  0.2764 -178.3
 1.800  0.7256  126.8   1.975   43.8  0.1480   51.2  0.2771 -178.5
 1.820  0.7260  126.2   1.954   43.3  0.1494   50.9  0.2785 -178.8
 1.840  0.7266  125.7   1.932   42.8  0.1508   50.7  0.2800 -179.0
 1.860  0.7271  125.1   1.911   42.2  0.1522   50.4  0.2814 -179.3
 1.880  0.7278  124.6   1.891   41.7  0.1536   50.2  0.2828 -179.5
 1.900  0.7285  124.0   1.870   41.1  0.1550   49.9  0.2843 -179.8
 1.920  0.7291  123.5   1.850   40.6  0.1563   49.6  0.2852  179.9
 1.940  0.7298  123.0   1.830   40.1  0.1576   49.2  0.2861  179.5
 1.960  0.7305  122.4   1.810   39.6  0.1589   48.9  0.2871  179.2
 1.980  0.7313  121.9   1.791   39.1  0.1603   48.6  0.2880  178.8
 2.000  0.7321  121.4   1.771   38.6  0.1616   48.3  0.2890  178.5
 2.020  0.7324  120.9   1.754   38.1  0.1629   48.0  0.2900  178.2
 2.040  0.7327  120.3   1.738   37.7  0.1642   47.7  0.2910  178.0
 2.060  0.7331  119.8   1.721   37.2  0.1655   47.4  0.2919  177.7
 2.080  0.7335  119.3   1.705   36.7  0.1668   47.1  0.2929  177.4
 2.100  0.7341  118.7   1.688   36.2  0.1681   46.8  0.2939  177.2
 2.120  0.7346  118.2   1.672   35.7  0.1695   46.5  0.2949  176.9
 2.140  0.7353  117.7   1.656   35.2  0.1708   46.2  0.2959  176.7
 2.160  0.7360  117.2   1.640   34.7  0.1721   45.9  0.2970  176.4
 2.180  0.7368  116.6   1.625   34.1  0.1735   45.7  0.2980  176.2
 2.200  0.7376  116.1   1.609   33.6  0.1748   45.4  0.2990  175.9
 2.220  0.7386  115.5   1.596   33.1  0.1760   45.1  0.3003  175.6
 2.240  0.7397  115.0   1.583   32.6  0.1772   44.8  0.3015  175.2
 2.260  0.7409  114.4   1.570   32.2  0.1785   44.5  0.3028  174.9
 2.280  0.7421  113.9   1.557   31.7  0.1797   44.2  0.3041  174.5
 2.300  0.7434  113.3   1.544   31.2  0.1809   43.8  0.3054  174.2
 2.320  0.7448  112.8   1.532   30.6  0.1822   43.6  0.3067  173.9
 2.340  0.7462  112.2   1.519   30.1  0.1834   43.3  0.3081  173.6
 2.360  0.7477  111.7   1.507   29.6  0.1847   43.0  0.3094  173.2
 2.380  0.7493  111.1   1.495   29.0  0.1859   42.7  0.3107  172.9
 2.400  0.7509  110.6   1.483   28.5  0.1872   42.4  0.3121  172.6
 2.420  0.7516  110.1   1.471   28.1  0.1883   42.1  0.3132  172.3
 2.440  0.7524  109.6   1.459   27.7  0.1895   41.8  0.3143  172.0
 2.460  0.7532  109.1   1.446   27.2  0.1906   41.5  0.3154  171.8
 2.480  0.7541  108.5   1.434   26.8  0.1918   41.2  0.3166  171.5
 2.500  0.7551  108.0   1.422   26.3  0.1929   40.9  0.3177  171.2
 2.520  0.7561  107.5   1.411   25.9  0.1941   40.6  0.3189  171.0
 2.540  0.7572  107.0   1.399   25.4  0.1953   40.3  0.3200  170.7
 2.560  0.7583  106.5   1.387   25.0  0.1964   40.0  0.3212  170.4
 2.580  0.7595  106.0   1.375   24.5  0.1976   39.7  0.3223  170.2
 2.600  0.7608  105.5   1.364   24.0  0.1988   39.4  0.3235  169.9
 2.620  0.7617  105.0   1.354   23.6  0.1999   39.1  0.3250  169.6
 2.640  0.7626  104.6   1.345   23.2  0.2010   38.8  0.3266  169.2
 2.660  0.7636  104.1   1.335   22.8  0.2021   38.5  0.3281  168.9
 2.680  0.7646  103.6   1.326   22.4  0.2032   38.2  0.3297  168.6
 2.700  0.7657  103.2   1.316   21.9  0.2043   37.9  0.3313  168.3
 2.720  0.7668  102.7   1.307   21.5  0.2054   37.6  0.3329  167.9
 2.740  0.7680  102.3   1.297   21.1  0.2065   37.3  0.3345  167.6
 2.760  0.7692  101.8   1.288   20.6  0.2076   37.1  0.3361  167.3
 2.780  0.7705  101.4   1.279   20.2  0.2088   36.8  0.3377  167.0
 2.800  0.7718  100.9   1.270   19.7  0.2099   36.5  0.3393  166.7
 2.820  0.7724  100.5   1.260   19.3  0.2109   36.2  0.3405  166.4
 2.840  0.7730  100.1   1.251   18.9  0.2119   35.9  0.3418  166.1
 2.860  0.7736   99.6   1.242   18.4  0.2129   35.6  0.3430  165.8
 2.880  0.7743   99.2   1.232   18.0  0.2139   35.3  0.3443  165.5
 2.900  0.7751   98.8   1.223   17.6  0.2150   35.0  0.3455  165.2
 2.920  0.7759   98.4   1.214   17.1  0.2160   34.7  0.3468  164.9
 2.940  0.7767   98.0   1.205   16.7  0.2170   34.4  0.3481  164.6
 2.960  0.7775   97.5   1.196   16.2  0.2181   34.1  0.3494  164.4
 2.980  0.7785   97.1   1.187   15.8  0.2191   33.8  0.3507  164.1
 3.000  0.7794   96.7   1.178   15.3  0.2202   33.5  0.3520  163.8
 3.100  0.7826   94.7   1.140   13.6  0.2241   32.0  0.3588  162.2
 3.200  0.7868   92.7   1.103   11.9  0.2283   30.5  0.3660  160.7
 3.300  0.7919   90.7   1.068   10.0  0.2325   29.1  0.3733  159.2
 3.400  0.7980   88.7   1.033    8.0  0.2369   27.7  0.3809  157.8
 3.500  0.8050   86.8   1.000    5.8  0.2414   26.4  0.3887  156.5
 3.600  0.8068   85.1   0.972    4.3  0.2450   25.1  0.3956  155.1
 3.700  0.8093   83.3   0.944    2.7  0.2487   23.9  0.4028  153.7
 3.800  0.8125   81.6   0.918    1.0  0.2525   22.7  0.4102  152.3
 3.900  0.8165   79.9   0.892   -0.8  0.2564   21.5  0.4179  151.0
 4.000  0.8212   78.2   0.867   -2.7  0.2604   20.4  0.4257  149.8
 4.100  0.8227   76.7   0.846   -4.0  0.2638   19.2  0.4312  148.6
 4.200  0.8247   75.1   0.826   -5.3  0.2673   17.9  0.4369  147.3
 4.300  0.8273   73.6   0.806   -6.8  0.2709   16.8  0.4427  146.2
 4.400  0.8305   72.1   0.787   -8.2  0.2746   15.6  0.4488  145.0
 4.500  0.8343   70.6   0.768   -9.8  0.2784   14.5  0.4550  143.9
 4.600  0.8350   69.4   0.754  -11.0  0.2813   13.4  0.4600  142.8
 4.700  0.8360   68.1   0.740  -12.2  0.2843   12.3  0.4652  141.8
 4.800  0.8375   66.9   0.726  -13.5  0.2874   11.2  0.4706  140.8
 4.900  0.8394   65.6   0.713  -14.8  0.2906   10.1  0.4761  139.8
 5.000  0.8416   64.4   0.700  -16.2  0.2939    9.1  0.4817  138.8
 5.100  0.8441   63.2   0.687  -17.2  0.2970    8.0  0.4870  137.7
 5.200  0.8470   62.1   0.675  -18.3  0.3002    6.9  0.4924  136.6
 5.300  0.8503   61.0   0.663  -19.4  0.3035    5.9  0.4981  135.5
 5.400  0.8538   59.8   0.651  -20.6  0.3069    4.8  0.5038  134.5
 5.500  0.8577   58.7   0.639  -21.8  0.3104    3.8  0.5098  133.5
 5.600  0.8572   57.5   0.630  -22.8  0.3131    2.6  0.5144  132.4
 5.700  0.8570   56.4   0.622  -23.8  0.3159    1.5  0.5191  131.4
 5.800  0.8572   55.2   0.613  -24.8  0.3189    0.3  0.5241  130.4
 5.900  0.8577   54.1   0.605  -25.9  0.3220   -0.8  0.5292  129.4
 6.000  0.8586   52.9   0.597  -27.0  0.3252   -1.9  0.5344  128.4
!
!  f       NFmin   Gammaopt  rn/50
! GHz       dB    MAG  ANG    -
!
! noise parameter not available yet for this operation point!
!
! (c) 2016  Infineon Technologies AG, Munich
