! Infineon Technologies  Discrete & RF Semiconductors
! BFP183W
! VCE = 8.0 V,  IC =  15 mA
! Common Emitter S-Parameters:                            Jan 2016
# GHz  S  MA  R  50
!  f         S11            S21            S12            S22
! GHz     MAG   ANG      MAG   ANG      MAG   ANG      MAG   ANG
 0.010  0.6519   -5.6  33.594  175.3  0.0020   89.3  0.9721   -2.6
 0.015  0.6501   -8.6  33.516  174.3  0.0030   87.2  0.9675   -4.0
 0.020  0.6501  -11.7  33.450  173.2  0.0040   86.2  0.9635   -5.4
 0.025  0.6496  -14.7  33.381  171.7  0.0050   84.0  0.9625   -6.7
 0.030  0.6508  -17.6  33.334  170.2  0.0061   82.5  0.9621   -8.1
 0.035  0.6473  -20.4  33.094  168.7  0.0071   80.0  0.9559   -9.4
 0.040  0.6454  -23.2  32.877  167.1  0.0080   78.2  0.9502  -10.7
 0.045  0.6450  -26.0  32.684  165.6  0.0090   76.7  0.9450  -12.0
 0.050  0.6461  -28.8  32.516  164.0  0.0100   75.5  0.9403  -13.3
 0.055  0.6392  -31.3  32.161  162.7  0.0108   74.0  0.9309  -14.4
 0.060  0.6335  -33.8  31.821  161.5  0.0115   72.7  0.9217  -15.5
 0.065  0.6290  -36.4  31.498  160.2  0.0123   71.6  0.9130  -16.6
 0.070  0.6259  -39.0  31.191  158.8  0.0130   70.6  0.9045  -17.7
 0.075  0.6241  -41.6  30.902  157.5  0.0138   69.7  0.8964  -18.8
 0.080  0.6235  -44.3  30.630  156.1  0.0146   69.0  0.8887  -20.0
 0.085  0.6243  -46.9  30.377  154.7  0.0154   68.3  0.8814  -21.2
 0.090  0.6265  -49.5  30.142  153.2  0.0161   67.6  0.8745  -22.4
 0.095  0.6299  -52.1  29.927  151.8  0.0169   67.0  0.8679  -23.7
 0.100  0.6346  -54.7  29.731  150.3  0.0177   66.5  0.8618  -24.9
 0.105  0.6293  -56.8  29.345  149.2  0.0183   65.4  0.8515  -25.7
 0.110  0.6248  -58.9  28.969  148.1  0.0189   64.5  0.8414  -26.6
 0.115  0.6212  -61.0  28.605  147.0  0.0195   63.5  0.8316  -27.5
 0.120  0.6185  -63.2  28.251  145.9  0.0202   62.7  0.8219  -28.4
 0.125  0.6166  -65.4  27.909  144.7  0.0208   61.8  0.8124  -29.3
 0.130  0.6157  -67.6  27.579  143.5  0.0214   61.1  0.8031  -30.2
 0.135  0.6156  -69.8  27.261  142.3  0.0221   60.3  0.7941  -31.2
 0.140  0.6165  -72.0  26.957  141.0  0.0227   59.7  0.7852  -32.2
 0.145  0.6183  -74.1  26.665  139.7  0.0234   59.0  0.7766  -33.2
 0.150  0.6209  -76.3  26.388  138.4  0.0240   58.4  0.7683  -34.2
 0.155  0.6171  -78.0  26.031  137.6  0.0244   57.8  0.7590  -34.8
 0.160  0.6137  -79.7  25.678  136.8  0.0248   57.2  0.7497  -35.4
 0.165  0.6110  -81.4  25.331  136.0  0.0252   56.6  0.7406  -36.0
 0.170  0.6088  -83.1  24.990  135.1  0.0257   56.1  0.7315  -36.6
 0.175  0.6071  -84.9  24.655  134.2  0.0261   55.5  0.7225  -37.3
 0.180  0.6060  -86.6  24.325  133.3  0.0265   55.0  0.7136  -38.0
 0.185  0.6055  -88.4  24.002  132.4  0.0269   54.5  0.7048  -38.6
 0.190  0.6055  -90.1  23.685  131.4  0.0273   54.0  0.6961  -39.3
 0.195  0.6061  -91.9  23.376  130.4  0.0278   53.6  0.6876  -40.1
 0.200  0.6073  -93.6  23.073  129.4  0.0282   53.1  0.6791  -40.8
 0.220  0.6011  -99.0  21.931  126.8  0.0294   51.2  0.6480  -42.7
 0.240  0.6004 -104.5  20.839  123.9  0.0306   49.4  0.6176  -44.7
 0.260  0.5993 -109.4  19.810  121.3  0.0317   48.1  0.5898  -46.4
 0.280  0.5962 -113.7  18.820  119.1  0.0327   47.1  0.5641  -47.7
 0.300  0.5966 -118.1  17.861  116.6  0.0337   46.2  0.5387  -49.1
 0.320  0.5915 -121.2  17.134  115.1  0.0344   45.6  0.5202  -49.9
 0.340  0.5881 -124.3  16.419  113.6  0.0350   45.0  0.5018  -50.7
 0.360  0.5864 -127.4  15.717  111.8  0.0357   44.4  0.4835  -51.6
 0.380  0.5865 -130.6  15.031  110.0  0.0363   43.8  0.4653  -52.6
 0.400  0.5884 -133.7  14.363  107.9  0.0370   43.3  0.4473  -53.6
 0.420  0.5861 -135.9  13.856  106.8  0.0376   43.2  0.4350  -54.0
 0.440  0.5848 -138.1  13.353  105.6  0.0382   43.1  0.4227  -54.4
 0.450  0.5844 -139.2  13.105  105.0  0.0384   43.0  0.4165  -54.6
 0.460  0.5843 -140.4  12.858  104.4  0.0387   43.0  0.4104  -54.8
 0.480  0.5846 -142.6  12.368  103.0  0.0393   42.9  0.3981  -55.3
 0.500  0.5859 -144.8  11.887  101.5  0.0399   42.8  0.3859  -55.8
 0.520  0.5846 -146.5  11.523  100.6  0.0404   42.9  0.3775  -56.1
 0.540  0.5837 -148.2  11.162   99.7  0.0409   43.0  0.3692  -56.4
 0.560  0.5834 -149.8  10.805   98.7  0.0415   43.0  0.3608  -56.7
 0.580  0.5835 -151.5  10.450   97.6  0.0420   43.1  0.3524  -57.0
 0.600  0.5842 -153.2  10.100   96.5  0.0425   43.2  0.3441  -57.3
 0.620  0.5841 -154.5   9.839   95.8  0.0430   43.4  0.3382  -57.5
 0.640  0.5843 -155.8   9.579   95.0  0.0434   43.5  0.3324  -57.6
 0.660  0.5848 -157.2   9.322   94.2  0.0439   43.7  0.3265  -57.8
 0.680  0.5856 -158.5   9.066   93.4  0.0443   43.8  0.3207  -58.0
 0.700  0.5867 -159.8   8.812   92.5  0.0448   44.0  0.3148  -58.2
 0.720  0.5856 -160.9   8.595   91.8  0.0453   44.2  0.3104  -58.4
 0.740  0.5848 -161.9   8.379   91.1  0.0459   44.3  0.3060  -58.5
 0.760  0.5841 -163.0   8.165   90.4  0.0464   44.5  0.3016  -58.7
 0.780  0.5837 -164.0   7.952   89.6  0.0470   44.6  0.2972  -58.9
 0.800  0.5834 -165.1   7.740   88.8  0.0475   44.8  0.2928  -59.1
 0.820  0.5836 -166.1   7.577   88.2  0.0481   44.9  0.2895  -59.2
 0.840  0.5839 -167.0   7.414   87.6  0.0486   45.0  0.2862  -59.3
 0.860  0.5844 -168.0   7.252   87.0  0.0492   45.2  0.2829  -59.5
 0.880  0.5851 -168.9   7.091   86.4  0.0497   45.3  0.2796  -59.6
 0.900  0.5859 -169.9   6.931   85.7  0.0503   45.4  0.2763  -59.7
 0.920  0.5852 -170.6   6.793   85.2  0.0508   45.6  0.2741  -59.9
 0.940  0.5846 -171.3   6.655   84.6  0.0513   45.9  0.2719  -60.0
 0.960  0.5841 -172.1   6.517   84.1  0.0517   46.1  0.2696  -60.2
 0.980  0.5836 -172.8   6.381   83.5  0.0522   46.4  0.2674  -60.3
 1.000  0.5833 -173.5   6.245   82.9  0.0527   46.6  0.2652  -60.5
 1.020  0.5840 -174.2   6.141   82.4  0.0533   46.8  0.2634  -60.7
 1.040  0.5847 -174.9   6.038   81.8  0.0539   46.9  0.2616  -60.9
 1.060  0.5855 -175.7   5.935   81.3  0.0544   47.1  0.2597  -61.0
 1.080  0.5865 -176.4   5.833   80.7  0.0550   47.2  0.2579  -61.2
 1.100  0.5875 -177.1   5.732   80.1  0.0556   47.4  0.2561  -61.4
 1.120  0.5881 -177.8   5.636   79.6  0.0562   47.5  0.2547  -61.6
 1.140  0.5888 -178.5   5.540   79.1  0.0569   47.6  0.2533  -61.7
 1.160  0.5896 -179.2   5.445   78.6  0.0575   47.6  0.2520  -61.9
 1.180  0.5905 -179.9   5.350   78.1  0.0582   47.7  0.2506  -62.0
 1.200  0.5915  179.4   5.256   77.5  0.0588   47.8  0.2492  -62.2
 1.220  0.5910  178.8   5.177   77.0  0.0594   48.0  0.2481  -62.4
 1.240  0.5906  178.2   5.098   76.5  0.0599   48.3  0.2470  -62.6
 1.260  0.5903  177.5   5.020   76.0  0.0605   48.5  0.2459  -62.7
 1.280  0.5900  176.9   4.942   75.5  0.0610   48.7  0.2448  -62.9
 1.300  0.5898  176.3   4.864   75.0  0.0616   48.9  0.2437  -63.1
 1.320  0.5901  175.8   4.797   74.6  0.0622   49.0  0.2430  -63.3
 1.340  0.5905  175.3   4.730   74.1  0.0628   49.1  0.2423  -63.5
 1.360  0.5909  174.7   4.664   73.7  0.0634   49.3  0.2416  -63.8
 1.380  0.5913  174.2   4.598   73.2  0.0640   49.4  0.2409  -64.0
 1.400  0.5918  173.7   4.532   72.7  0.0646   49.5  0.2402  -64.2
 1.420  0.5922  173.2   4.473   72.3  0.0652   49.6  0.2396  -64.4
 1.440  0.5927  172.7   4.415   71.9  0.0659   49.7  0.2389  -64.6
 1.460  0.5933  172.1   4.357   71.5  0.0665   49.8  0.2383  -64.9
 1.480  0.5939  171.6   4.299   71.0  0.0672   49.9  0.2377  -65.1
 1.500  0.5945  171.1   4.241   70.6  0.0678   50.0  0.2371  -65.3
 1.520  0.5945  170.6   4.190   70.1  0.0684   50.1  0.2366  -65.6
 1.540  0.5945  170.0   4.139   69.7  0.0690   50.1  0.2361  -65.8
 1.560  0.5945  169.5   4.088   69.2  0.0695   50.2  0.2356  -66.1
 1.580  0.5946  168.9   4.037   68.7  0.0701   50.2  0.2352  -66.3
 1.600  0.5948  168.4   3.987   68.2  0.0707   50.3  0.2347  -66.6
 1.620  0.5953  167.9   3.941   67.8  0.0713   50.4  0.2343  -66.9
 1.640  0.5959  167.4   3.895   67.4  0.0719   50.4  0.2340  -67.2
 1.660  0.5965  167.0   3.850   67.0  0.0726   50.5  0.2337  -67.4
 1.680  0.5971  166.5   3.804   66.6  0.0732   50.5  0.2333  -67.7
 1.700  0.5978  166.0   3.759   66.2  0.0738   50.6  0.2330  -68.0
 1.720  0.5985  165.5   3.718   65.8  0.0745   50.6  0.2328  -68.2
 1.740  0.5992  165.0   3.677   65.3  0.0752   50.7  0.2325  -68.5
 1.760  0.5999  164.6   3.636   64.9  0.0759   50.7  0.2323  -68.7
 1.780  0.6007  164.1   3.595   64.5  0.0766   50.8  0.2321  -69.0
 1.800  0.6015  163.6   3.555   64.0  0.0773   50.8  0.2319  -69.2
 1.820  0.6011  163.2   3.517   63.6  0.0779   50.8  0.2319  -69.5
 1.840  0.6008  162.7   3.479   63.2  0.0785   50.8  0.2320  -69.8
 1.860  0.6005  162.3   3.441   62.8  0.0790   50.9  0.2321  -70.0
 1.880  0.6002  161.8   3.403   62.3  0.0796   50.9  0.2321  -70.3
 1.900  0.6000  161.4   3.366   61.9  0.0802   50.9  0.2322  -70.6
 1.920  0.6005  160.9   3.334   61.5  0.0809   50.9  0.2320  -70.9
 1.940  0.6010  160.5   3.303   61.1  0.0816   50.9  0.2318  -71.2
 1.960  0.6016  160.0   3.272   60.7  0.0823   50.9  0.2316  -71.6
 1.980  0.6022  159.6   3.241   60.3  0.0830   50.9  0.2314  -71.9
 2.000  0.6028  159.1   3.210   59.9  0.0837   50.9  0.2312  -72.2
 2.020  0.6033  158.7   3.181   59.5  0.0843   50.9  0.2312  -72.5
 2.040  0.6037  158.3   3.152   59.2  0.0849   50.9  0.2312  -72.8
 2.060  0.6043  158.0   3.124   58.8  0.0856   50.9  0.2313  -73.1
 2.080  0.6048  157.6   3.096   58.4  0.0862   50.9  0.2313  -73.4
 2.100  0.6054  157.2   3.067   58.0  0.0868   50.9  0.2313  -73.7
 2.120  0.6060  156.8   3.039   57.6  0.0874   50.9  0.2314  -74.0
 2.140  0.6066  156.4   3.011   57.2  0.0880   50.9  0.2314  -74.3
 2.160  0.6072  156.1   2.983   56.8  0.0887   50.9  0.2315  -74.6
 2.180  0.6079  155.7   2.956   56.4  0.0893   50.9  0.2315  -74.9
 2.200  0.6086  155.3   2.928   56.0  0.0899   50.9  0.2316  -75.2
 2.220  0.6091  154.9   2.903   55.6  0.0906   50.8  0.2316  -75.6
 2.240  0.6095  154.5   2.879   55.3  0.0912   50.8  0.2315  -75.9
 2.260  0.6101  154.1   2.854   54.9  0.0919   50.7  0.2315  -76.3
 2.280  0.6106  153.7   2.830   54.5  0.0925   50.7  0.2315  -76.7
 2.300  0.6112  153.2   2.806   54.1  0.0932   50.6  0.2315  -77.1
 2.320  0.6118  152.8   2.782   53.7  0.0939   50.6  0.2315  -77.4
 2.340  0.6125  152.4   2.758   53.3  0.0945   50.5  0.2316  -77.8
 2.360  0.6132  152.0   2.734   52.9  0.0952   50.5  0.2316  -78.2
 2.380  0.6139  151.6   2.710   52.4  0.0958   50.4  0.2316  -78.5
 2.400  0.6146  151.2   2.687   52.0  0.0965   50.4  0.2317  -78.9
 2.420  0.6150  150.8   2.666   51.6  0.0972   50.4  0.2319  -79.3
 2.440  0.6155  150.5   2.646   51.3  0.0978   50.3  0.2320  -79.6
 2.460  0.6159  150.1   2.626   50.9  0.0985   50.3  0.2322  -80.0
 2.480  0.6164  149.7   2.605   50.6  0.0991   50.2  0.2324  -80.3
 2.500  0.6169  149.3   2.585   50.2  0.0998   50.2  0.2326  -80.7
 2.520  0.6175  149.0   2.565   49.8  0.1005   50.2  0.2328  -81.0
 2.540  0.6180  148.6   2.545   49.4  0.1011   50.1  0.2330  -81.4
 2.560  0.6186  148.2   2.525   49.0  0.1018   50.1  0.2332  -81.7
 2.580  0.6193  147.9   2.506   48.6  0.1024   50.0  0.2335  -82.1
 2.600  0.6199  147.5   2.486   48.2  0.1031   50.0  0.2337  -82.4
 2.620  0.6205  147.1   2.468   47.9  0.1038   49.9  0.2337  -82.8
 2.640  0.6212  146.8   2.450   47.5  0.1044   49.9  0.2338  -83.2
 2.660  0.6219  146.4   2.433   47.2  0.1051   49.8  0.2339  -83.6
 2.680  0.6226  146.0   2.415   46.8  0.1058   49.8  0.2339  -84.0
 2.700  0.6234  145.6   2.398   46.5  0.1064   49.7  0.2340  -84.4
 2.720  0.6241  145.3   2.380   46.1  0.1071   49.7  0.2341  -84.8
 2.740  0.6249  144.9   2.363   45.7  0.1078   49.6  0.2342  -85.2
 2.760  0.6258  144.5   2.346   45.4  0.1085   49.6  0.2343  -85.6
 2.780  0.6266  144.2   2.329   45.0  0.1091   49.5  0.2345  -86.0
 2.800  0.6275  143.8   2.312   44.6  0.1098   49.5  0.2346  -86.4
 2.820  0.6283  143.5   2.296   44.3  0.1105   49.4  0.2348  -86.8
 2.840  0.6291  143.1   2.280   43.9  0.1111   49.3  0.2350  -87.2
 2.860  0.6299  142.8   2.265   43.5  0.1118   49.2  0.2352  -87.6
 2.880  0.6308  142.4   2.249   43.2  0.1124   49.1  0.2355  -88.0
 2.900  0.6317  142.1   2.234   42.8  0.1131   49.0  0.2357  -88.4
 2.920  0.6326  141.7   2.218   42.4  0.1138   48.9  0.2360  -88.8
 2.940  0.6335  141.4   2.203   42.1  0.1144   48.9  0.2362  -89.2
 2.960  0.6344  141.1   2.188   41.7  0.1151   48.8  0.2365  -89.6
 2.980  0.6354  140.7   2.173   41.3  0.1157   48.7  0.2368  -90.0
 3.000  0.6364  140.4   2.158   40.9  0.1164   48.6  0.2371  -90.4
 3.100  0.6405  138.7   2.095   39.2  0.1195   48.2  0.2384  -92.6
 3.200  0.6452  137.0   2.033   37.4  0.1227   47.8  0.2400  -94.8
 3.300  0.6497  135.3   1.972   35.7  0.1261   47.3  0.2421  -97.0
 3.400  0.6547  133.6   1.912   33.8  0.1295   46.9  0.2445  -99.2
 3.500  0.6587  132.1   1.858   32.1  0.1325   46.5  0.2460 -101.4
 3.600  0.6632  130.7   1.806   30.4  0.1356   46.1  0.2479 -103.5
 3.700  0.6651  129.1   1.752   28.8  0.1382   45.4  0.2498 -106.0
 3.800  0.6676  127.5   1.699   27.0  0.1408   44.7  0.2522 -108.5
 3.900  0.6742  126.3   1.660   25.4  0.1444   44.3  0.2560 -110.9
 4.000  0.6811  125.1   1.622   23.8  0.1480   44.0  0.2603 -113.2
 4.100  0.6841  123.8   1.582   22.3  0.1510   43.4  0.2637 -115.6
 4.200  0.6874  122.4   1.544   20.8  0.1541   42.7  0.2675 -118.0
 4.300  0.6912  121.1   1.506   19.1  0.1571   42.1  0.2718 -120.3
 4.400  0.6953  119.8   1.470   17.4  0.1602   41.6  0.2766 -122.5
 4.500  0.6997  118.5   1.435   15.6  0.1633   41.0  0.2817 -124.7
 4.600  0.7015  117.5   1.401   14.3  0.1663   40.4  0.2864 -126.8
 4.700  0.7035  116.5   1.368   13.0  0.1693   39.9  0.2915 -128.9
 4.800  0.7057  115.5   1.335   11.5  0.1723   39.3  0.2970 -130.9
 4.900  0.7082  114.5   1.304   10.1  0.1753   38.8  0.3028 -132.8
 5.000  0.7108  113.5   1.273    8.5  0.1783   38.3  0.3089 -134.7
 5.100  0.7123  112.6   1.247    7.3  0.1812   37.7  0.3142 -136.5
 5.200  0.7140  111.8   1.222    6.0  0.1841   37.1  0.3198 -138.2
 5.300  0.7158  110.9   1.197    4.6  0.1871   36.5  0.3257 -139.9
 5.400  0.7178  110.1   1.173    3.3  0.1900   35.9  0.3318 -141.5
 5.500  0.7199  109.2   1.150    1.8  0.1930   35.4  0.3382 -143.1
 5.600  0.7205  108.4   1.128    0.6  0.1959   34.8  0.3439 -144.5
 5.700  0.7213  107.6   1.106   -0.6  0.1989   34.3  0.3498 -145.9
 5.800  0.7222  106.8   1.085   -1.8  0.2018   33.7  0.3559 -147.2
 5.900  0.7233  106.0   1.065   -3.1  0.2048   33.2  0.3622 -148.5
 6.000  0.7245  105.2   1.045   -4.5  0.2078   32.7  0.3687 -149.7
!
!  f       NFmin   Gammaopt  rn/50
! GHz       dB    MAG  ANG    -
!
! noise parameter not available yet for this operation point!
!
! (c) 2016  Infineon Technologies AG, Munich
