! Infineon Technologies  Discrete & RF Semiconductors
! BFP183
! VCE = 1.0 V,  IC =  45 mA
! Common Emitter S-Parameters:                            Jan 2016
# GHz  S  MA  R  50
!  f         S11            S21            S12            S22
! GHz     MAG   ANG      MAG   ANG      MAG   ANG      MAG   ANG
 0.010  0.1366  -76.9  33.874  170.2  0.0035   66.2  0.6719   -9.7
 0.015  0.1889  -90.1  33.209  165.6  0.0053   67.7  0.6555  -14.5
 0.020  0.2469  -97.4  32.764  160.9  0.0072   68.4  0.6441  -19.6
 0.025  0.2778 -105.7  31.393  157.8  0.0082   64.7  0.6179  -22.8
 0.030  0.3132 -112.2  30.124  154.4  0.0092   61.9  0.5938  -26.3
 0.035  0.3519 -117.4  28.969  150.7  0.0102   59.6  0.5721  -30.1
 0.040  0.3929 -121.5  27.944  146.7  0.0112   57.7  0.5531  -34.1
 0.045  0.4355 -124.8  27.061  142.5  0.0123   56.1  0.5370  -38.4
 0.050  0.4793 -127.5  26.337  138.0  0.0133   54.8  0.5242  -43.0
 0.055  0.4903 -130.4  25.328  136.6  0.0138   53.2  0.5047  -44.5
 0.060  0.5024 -133.1  24.336  135.1  0.0143   51.7  0.4856  -46.1
 0.065  0.5157 -135.7  23.361  133.5  0.0148   50.3  0.4669  -47.9
 0.070  0.5299 -138.1  22.407  131.7  0.0153   49.0  0.4487  -49.7
 0.075  0.5450 -140.4  21.476  129.8  0.0158   47.8  0.4310  -51.8
 0.080  0.5610 -142.6  20.571  127.7  0.0163   46.7  0.4139  -54.0
 0.085  0.5778 -144.7  19.696  125.5  0.0168   45.6  0.3974  -56.4
 0.090  0.5953 -146.6  18.855  123.0  0.0173   44.6  0.3818  -59.0
 0.095  0.6134 -148.5  18.052  120.3  0.0179   43.7  0.3669  -61.8
 0.100  0.6321 -150.2  17.294  117.3  0.0184   42.8  0.3531  -64.9
 0.105  0.6365 -151.4  16.794  116.5  0.0187   42.6  0.3434  -65.8
 0.110  0.6412 -152.6  16.297  115.7  0.0190   42.3  0.3337  -66.7
 0.115  0.6461 -153.8  15.804  114.8  0.0193   42.1  0.3242  -67.6
 0.120  0.6513 -154.9  15.315  113.9  0.0196   41.9  0.3147  -68.7
 0.125  0.6568 -156.0  14.830  112.9  0.0199   41.7  0.3054  -69.7
 0.130  0.6625 -157.1  14.351  111.8  0.0202   41.5  0.2961  -70.9
 0.135  0.6685 -158.2  13.876  110.6  0.0205   41.3  0.2870  -72.1
 0.140  0.6747 -159.3  13.408  109.4  0.0208   41.2  0.2781  -73.4
 0.145  0.6811 -160.4  12.946  108.1  0.0211   41.0  0.2692  -74.8
 0.150  0.6878 -161.4  12.491  106.7  0.0214   40.8  0.2606  -76.3
 0.155  0.6893 -162.1  12.199  106.2  0.0215   40.9  0.2553  -76.9
 0.160  0.6909 -162.9  11.907  105.6  0.0217   41.1  0.2500  -77.5
 0.165  0.6926 -163.6  11.617  105.0  0.0218   41.2  0.2447  -78.1
 0.170  0.6944 -164.3  11.328  104.4  0.0220   41.4  0.2394  -78.8
 0.175  0.6964 -165.0  11.041  103.8  0.0221   41.5  0.2342  -79.5
 0.180  0.6984 -165.7  10.755  103.1  0.0223   41.7  0.2290  -80.2
 0.185  0.7005 -166.4  10.470  102.4  0.0224   41.8  0.2239  -80.9
 0.190  0.7028 -167.1  10.188  101.6  0.0226   41.9  0.2188  -81.7
 0.195  0.7051 -167.8   9.907  100.8  0.0227   42.1  0.2137  -82.5
 0.200  0.7076 -168.5   9.628  100.0  0.0229   42.2  0.2087  -83.4
 0.220  0.7114 -170.4   8.888   98.3  0.0237   43.0  0.1955  -85.3
 0.240  0.7161 -172.4   8.157   96.3  0.0244   43.7  0.1826  -87.6
 0.260  0.7190 -174.0   7.546   94.6  0.0252   44.5  0.1719  -89.6
 0.280  0.7200 -175.5   7.049   93.1  0.0259   45.5  0.1634  -91.2
 0.300  0.7215 -176.9   6.557   91.5  0.0267   46.5  0.1551  -93.1
 0.320  0.7227 -178.0   6.234   90.6  0.0275   47.5  0.1503  -94.1
 0.340  0.7241 -179.1   5.912   89.5  0.0284   48.4  0.1456  -95.2
 0.360  0.7258  179.8   5.593   88.4  0.0293   49.2  0.1410  -96.4
 0.380  0.7278  178.7   5.276   87.1  0.0301   50.0  0.1364  -97.6
 0.400  0.7300  177.6   4.962   85.6  0.0310   50.8  0.1319  -98.9
 0.420  0.7303  176.7   4.760   84.8  0.0318   51.2  0.1294  -99.8
 0.440  0.7308  175.7   4.559   84.0  0.0327   51.6  0.1270 -100.7
 0.450  0.7312  175.2   4.458   83.5  0.0331   51.8  0.1258 -101.2
 0.460  0.7316  174.8   4.358   83.0  0.0335   52.0  0.1246 -101.7
 0.480  0.7325  173.8   4.159   82.0  0.0344   52.4  0.1222 -102.7
 0.500  0.7336  172.9   3.962   80.9  0.0352   52.7  0.1199 -103.7
 0.520  0.7335  172.1   3.834   80.1  0.0362   53.2  0.1188 -104.5
 0.540  0.7335  171.2   3.707   79.3  0.0373   53.7  0.1177 -105.3
 0.560  0.7337  170.4   3.581   78.4  0.0383   54.2  0.1166 -106.2
 0.580  0.7340  169.5   3.455   77.5  0.0394   54.7  0.1156 -107.0
 0.600  0.7345  168.7   3.331   76.5  0.0404   55.1  0.1146 -107.9
 0.620  0.7352  168.0   3.234   75.8  0.0413   55.5  0.1141 -108.5
 0.640  0.7360  167.3   3.138   75.2  0.0422   55.9  0.1135 -109.2
 0.660  0.7369  166.7   3.042   74.4  0.0431   56.2  0.1130 -109.9
 0.680  0.7379  166.0   2.947   73.6  0.0440   56.6  0.1125 -110.5
 0.700  0.7390  165.3   2.852   72.8  0.0449   56.9  0.1120 -111.2
 0.720  0.7391  164.6   2.784   72.1  0.0459   57.1  0.1121 -111.7
 0.740  0.7392  164.0   2.717   71.4  0.0469   57.3  0.1121 -112.2
 0.760  0.7395  163.3   2.650   70.6  0.0480   57.5  0.1122 -112.7
 0.780  0.7398  162.7   2.583   69.8  0.0490   57.7  0.1123 -113.2
 0.800  0.7403  162.0   2.517   69.0  0.0500   57.9  0.1124 -113.7
 0.820  0.7405  161.4   2.462   68.4  0.0511   57.9  0.1128 -114.2
 0.840  0.7408  160.8   2.407   67.8  0.0522   57.8  0.1131 -114.6
 0.860  0.7412  160.1   2.353   67.2  0.0532   57.8  0.1135 -115.1
 0.880  0.7416  159.5   2.299   66.5  0.0543   57.7  0.1139 -115.5
 0.900  0.7422  158.9   2.245   65.8  0.0554   57.7  0.1143 -116.0
 0.920  0.7425  158.2   2.197   65.1  0.0564   57.9  0.1147 -116.6
 0.940  0.7429  157.5   2.150   64.5  0.0574   58.0  0.1151 -117.2
 0.960  0.7434  156.8   2.103   63.7  0.0584   58.2  0.1155 -117.8
 0.980  0.7441  156.1   2.056   63.0  0.0594   58.4  0.1159 -118.3
 1.000  0.7448  155.4   2.010   62.2  0.0604   58.5  0.1163 -118.9
 1.020  0.7450  154.8   1.974   61.6  0.0615   58.4  0.1169 -119.4
 1.040  0.7453  154.2   1.938   60.9  0.0626   58.2  0.1176 -119.8
 1.060  0.7457  153.6   1.902   60.2  0.0637   58.1  0.1183 -120.3
 1.080  0.7462  153.0   1.867   59.5  0.0648   58.0  0.1189 -120.8
 1.100  0.7467  152.4   1.832   58.8  0.0659   57.9  0.1196 -121.2
 1.120  0.7473  151.8   1.801   58.3  0.0669   57.8  0.1204 -121.7
 1.140  0.7479  151.2   1.770   57.7  0.0679   57.8  0.1211 -122.1
 1.160  0.7486  150.7   1.740   57.2  0.0690   57.7  0.1219 -122.6
 1.180  0.7494  150.1   1.709   56.6  0.0700   57.7  0.1227 -123.1
 1.200  0.7503  149.5   1.679   56.0  0.0710   57.6  0.1235 -123.5
 1.220  0.7504  148.9   1.653   55.3  0.0721   57.5  0.1245 -124.0
 1.240  0.7506  148.3   1.627   54.7  0.0732   57.4  0.1254 -124.4
 1.260  0.7508  147.7   1.601   54.0  0.0743   57.3  0.1264 -124.9
 1.280  0.7512  147.1   1.576   53.2  0.0754   57.2  0.1274 -125.4
 1.300  0.7516  146.5   1.551   52.5  0.0765   57.1  0.1284 -125.8
 1.320  0.7521  146.0   1.530   52.0  0.0775   57.0  0.1293 -126.3
 1.340  0.7527  145.5   1.510   51.5  0.0785   56.9  0.1303 -126.8
 1.360  0.7533  145.0   1.489   50.9  0.0795   56.7  0.1313 -127.3
 1.380  0.7540  144.5   1.469   50.4  0.0805   56.6  0.1322 -127.8
 1.400  0.7548  144.0   1.449   49.8  0.0815   56.5  0.1332 -128.3
 1.420  0.7556  143.5   1.430   49.1  0.0825   56.3  0.1340 -128.7
 1.440  0.7565  143.0   1.411   48.5  0.0836   56.2  0.1349 -129.1
 1.460  0.7575  142.4   1.392   47.8  0.0846   56.0  0.1358 -129.5
 1.480  0.7585  141.9   1.373   47.0  0.0857   55.9  0.1366 -129.9
 1.500  0.7596  141.4   1.355   46.3  0.0867   55.7  0.1375 -130.3
 1.520  0.7600  140.8   1.339   45.8  0.0878   55.6  0.1385 -130.7
 1.540  0.7605  140.2   1.323   45.3  0.0889   55.4  0.1395 -131.1
 1.560  0.7611  139.5   1.308   44.7  0.0899   55.3  0.1405 -131.5
 1.580  0.7618  138.9   1.292   44.2  0.0910   55.1  0.1416 -131.9
 1.600  0.7626  138.3   1.277   43.6  0.0921   55.0  0.1426 -132.3
 1.620  0.7636  137.7   1.261   43.0  0.0930   54.9  0.1436 -132.8
 1.640  0.7646  137.1   1.244   42.5  0.0940   54.7  0.1447 -133.2
 1.660  0.7657  136.5   1.228   41.9  0.0949   54.6  0.1458 -133.6
 1.680  0.7669  135.9   1.212   41.3  0.0959   54.4  0.1468 -134.1
 1.700  0.7682  135.3   1.196   40.7  0.0968   54.3  0.1479 -134.5
 1.720  0.7692  134.9   1.182   40.1  0.0978   54.1  0.1491 -135.1
 1.740  0.7702  134.5   1.168   39.5  0.0988   53.9  0.1504 -135.6
 1.760  0.7713  134.1   1.155   38.9  0.0999   53.7  0.1516 -136.1
 1.780  0.7724  133.7   1.141   38.3  0.1009   53.6  0.1529 -136.7
 1.800  0.7735  133.3   1.128   37.7  0.1019   53.4  0.1542 -137.2
 1.820  0.7732  132.7   1.116   37.2  0.1029   53.1  0.1552 -137.7
 1.840  0.7730  132.2   1.104   36.7  0.1040   52.9  0.1561 -138.2
 1.860  0.7729  131.6   1.092   36.1  0.1050   52.6  0.1571 -138.7
 1.880  0.7728  131.1   1.081   35.6  0.1061   52.3  0.1581 -139.2
 1.900  0.7728  130.5   1.069   35.0  0.1071   52.1  0.1591 -139.7
 1.920  0.7729  130.0   1.056   34.4  0.1080   51.9  0.1604 -140.1
 1.940  0.7731  129.4   1.044   33.9  0.1089   51.7  0.1616 -140.5
 1.960  0.7734  128.9   1.031   33.3  0.1099   51.6  0.1629 -140.9
 1.980  0.7737  128.3   1.019   32.7  0.1108   51.4  0.1642 -141.3
 2.000  0.7741  127.8   1.007   32.1  0.1117   51.2  0.1655 -141.7
 2.020  0.7749  127.3   0.998   31.6  0.1127   51.0  0.1668 -142.3
 2.040  0.7757  126.8   0.989   31.1  0.1137   50.8  0.1680 -142.9
 2.060  0.7765  126.3   0.980   30.6  0.1147   50.5  0.1693 -143.4
 2.080  0.7775  125.8   0.971   30.1  0.1156   50.3  0.1706 -144.0
 2.100  0.7785  125.3   0.962   29.6  0.1166   50.1  0.1720 -144.6
 2.120  0.7795  124.8   0.953   29.1  0.1176   49.9  0.1733 -145.1
 2.140  0.7806  124.3   0.945   28.6  0.1186   49.7  0.1746 -145.6
 2.160  0.7818  123.8   0.936   28.0  0.1196   49.5  0.1760 -146.2
 2.180  0.7830  123.3   0.927   27.5  0.1206   49.3  0.1774 -146.7
 2.200  0.7843  122.8   0.919   26.9  0.1216   49.1  0.1788 -147.2
 2.220  0.7850  122.3   0.911   26.5  0.1225   48.9  0.1801 -147.7
 2.240  0.7858  121.8   0.903   26.0  0.1235   48.6  0.1814 -148.3
 2.260  0.7867  121.3   0.895   25.5  0.1244   48.4  0.1828 -148.8
 2.280  0.7876  120.8   0.887   25.1  0.1254   48.1  0.1841 -149.3
 2.300  0.7886  120.3   0.880   24.6  0.1263   47.9  0.1855 -149.8
 2.320  0.7896  119.8   0.872   24.1  0.1273   47.7  0.1869 -150.3
 2.340  0.7907  119.4   0.864   23.6  0.1282   47.5  0.1882 -150.8
 2.360  0.7918  118.9   0.857   23.1  0.1292   47.2  0.1896 -151.3
 2.380  0.7930  118.4   0.849   22.6  0.1301   47.0  0.1911 -151.7
 2.400  0.7943  117.9   0.842   22.1  0.1311   46.8  0.1925 -152.2
 2.420  0.7953  117.4   0.835   21.6  0.1320   46.6  0.1938 -152.7
 2.440  0.7963  116.9   0.828   21.2  0.1328   46.3  0.1951 -153.2
 2.460  0.7974  116.5   0.820   20.7  0.1337   46.1  0.1964 -153.7
 2.480  0.7985  116.0   0.813   20.2  0.1345   45.9  0.1978 -154.2
 2.500  0.7997  115.5   0.806   19.8  0.1354   45.7  0.1991 -154.7
 2.520  0.8010  115.1   0.799   19.3  0.1362   45.4  0.2005 -155.2
 2.540  0.8023  114.6   0.792   18.8  0.1371   45.2  0.2019 -155.6
 2.560  0.8036  114.1   0.786   18.2  0.1380   45.0  0.2033 -156.1
 2.580  0.8050  113.7   0.779   17.7  0.1388   44.8  0.2047 -156.5
 2.600  0.8065  113.2   0.772   17.2  0.1397   44.6  0.2061 -157.0
 2.620  0.8068  112.7   0.766   16.7  0.1405   44.3  0.2077 -157.5
 2.640  0.8071  112.3   0.760   16.3  0.1414   44.1  0.2093 -158.0
 2.660  0.8074  111.8   0.753   15.8  0.1422   43.8  0.2110 -158.5
 2.680  0.8078  111.4   0.747   15.3  0.1430   43.6  0.2126 -159.0
 2.700  0.8083  110.9   0.741   14.8  0.1439   43.3  0.2143 -159.4
 2.720  0.8088  110.5   0.735   14.4  0.1447   43.1  0.2159 -159.9
 2.740  0.8093  110.0   0.729   13.9  0.1456   42.8  0.2176 -160.4
 2.760  0.8099  109.6   0.724   13.3  0.1464   42.6  0.2193 -160.8
 2.780  0.8106  109.1   0.718   12.8  0.1472   42.3  0.2211 -161.3
 2.800  0.8113  108.7   0.712   12.3  0.1481   42.1  0.2228 -161.7
 2.820  0.8118  108.3   0.706   11.9  0.1489   41.9  0.2243 -162.2
 2.840  0.8124  107.9   0.701   11.5  0.1497   41.7  0.2257 -162.7
 2.860  0.8130  107.5   0.695   11.2  0.1505   41.4  0.2272 -163.2
 2.880  0.8137  107.1   0.690   10.8  0.1513   41.2  0.2287 -163.7
 2.900  0.8144  106.6   0.685   10.4  0.1521   41.0  0.2303 -164.1
 2.920  0.8151  106.2   0.679   10.0  0.1529   40.8  0.2318 -164.6
 2.940  0.8159  105.8   0.674    9.6  0.1537   40.6  0.2333 -165.1
 2.960  0.8167  105.4   0.669    9.2  0.1545   40.4  0.2349 -165.5
 2.980  0.8176  105.0   0.663    8.7  0.1553   40.2  0.2365 -166.0
 3.000  0.8185  104.6   0.658    8.3  0.1561   40.0  0.2381 -166.4
 3.100  0.8204  102.7   0.635    6.7  0.1598   38.8  0.2460 -168.8
 3.200  0.8232  100.8   0.613    5.0  0.1635   37.6  0.2543 -171.1
 3.300  0.8269   98.9   0.592    3.1  0.1674   36.5  0.2630 -173.2
 3.400  0.8315   97.0   0.571    1.1  0.1713   35.4  0.2721 -175.2
 3.500  0.8369   95.2   0.551   -1.0  0.1752   34.4  0.2814 -177.0
 3.600  0.8393   93.6   0.534   -2.2  0.1785   33.2  0.2898 -179.2
 3.700  0.8423   92.0   0.518   -3.5  0.1818   31.9  0.2986  178.7
 3.800  0.8460   90.4   0.502   -4.9  0.1852   30.8  0.3077  176.8
 3.900  0.8504   88.8   0.486   -6.3  0.1887   29.7  0.3172  174.9
 4.000  0.8554   87.2   0.471   -7.9  0.1923   28.6  0.3270  173.2
 4.100  0.8554   85.8   0.457   -8.9  0.1950   27.5  0.3349  171.2
 4.200  0.8559   84.3   0.444   -9.9  0.1978   26.3  0.3432  169.3
 4.300  0.8570   82.9   0.430  -11.1  0.2007   25.3  0.3518  167.5
 4.400  0.8586   81.4   0.417  -12.2  0.2036   24.2  0.3608  165.8
 4.500  0.8607   80.0   0.404  -13.5  0.2066   23.2  0.3701  164.2
 4.600  0.8610   78.9   0.395  -14.0  0.2093   22.3  0.3765  162.5
 4.700  0.8616   77.8   0.385  -14.5  0.2121   21.5  0.3833  160.9
 4.800  0.8626   76.7   0.376  -15.1  0.2149   20.7  0.3903  159.4
 4.900  0.8638   75.6   0.367  -15.7  0.2178   19.9  0.3976  157.8
 5.000  0.8654   74.5   0.358  -16.3  0.2207   19.1  0.4052  156.4
 5.100  0.8666   73.4   0.352  -16.8  0.2238   17.9  0.4127  155.1
 5.200  0.8682   72.4   0.346  -17.3  0.2271   16.8  0.4204  153.8
 5.300  0.8700   71.3   0.341  -17.9  0.2304   15.6  0.4283  152.5
 5.400  0.8722   70.3   0.335  -18.4  0.2338   14.6  0.4364  151.3
 5.500  0.8746   69.2   0.329  -19.0  0.2373   13.5  0.4447  150.2
 5.600  0.8755   68.3   0.324  -19.4  0.2394   12.4  0.4510  148.9
 5.700  0.8766   67.3   0.319  -19.8  0.2415   11.4  0.4576  147.6
 5.800  0.8779   66.4   0.315  -20.2  0.2438   10.3  0.4644  146.3
 5.900  0.8795   65.4   0.310  -20.7  0.2461    9.3  0.4715  145.1
 6.000  0.8813   64.5   0.305  -21.1  0.2485    8.3  0.4787  143.9
!
!  f       NFmin   Gammaopt  rn/50
! GHz       dB    MAG  ANG    -
!
! noise parameter not available yet for this operation point!
!
! (c) 2016  Infineon Technologies AG, Munich
