! Infineon Technologies  Discrete & RF Semiconductors
! BFP181
! VCE = 2.0 V,  IC =  70 mA
! Common Emitter S-Parameters:                            Jan 2016
# GHz  S  MA  R  50
!  f         S11            S21            S12            S22
! GHz     MAG   ANG      MAG   ANG      MAG   ANG      MAG   ANG
 0.010  0.9720   -0.7   2.488  179.8  0.0013   92.0  0.9988   -0.3
 0.015  0.9751   -1.0   2.489  179.6  0.0021   85.2  0.9959   -0.4
 0.020  0.9782   -1.3   2.491  179.5  0.0030   82.2  0.9930   -0.5
 0.025  0.9768   -1.6   2.494  179.1  0.0037   84.6  0.9938   -0.7
 0.030  0.9754   -1.8   2.497  178.7  0.0044   86.2  0.9945   -0.9
 0.035  0.9740   -2.1   2.500  178.3  0.0051   87.4  0.9953   -1.1
 0.040  0.9726   -2.4   2.504  177.9  0.0059   88.3  0.9961   -1.2
 0.045  0.9713   -2.6   2.507  177.5  0.0066   88.9  0.9969   -1.4
 0.050  0.9700   -2.9   2.511  177.1  0.0073   89.5  0.9977   -1.6
 0.055  0.9697   -3.2   2.508  176.8  0.0080   88.6  0.9976   -1.7
 0.060  0.9694   -3.6   2.504  176.5  0.0088   87.9  0.9975   -1.9
 0.065  0.9692   -3.9   2.501  176.2  0.0095   87.2  0.9974   -2.0
 0.070  0.9690   -4.3   2.497  175.9  0.0103   86.7  0.9974   -2.2
 0.075  0.9688   -4.6   2.494  175.7  0.0110   86.2  0.9973   -2.3
 0.080  0.9687   -5.0   2.491  175.4  0.0117   85.8  0.9973   -2.5
 0.085  0.9686   -5.3   2.488  175.1  0.0125   85.5  0.9972   -2.6
 0.090  0.9685   -5.7   2.485  174.8  0.0132   85.1  0.9972   -2.8
 0.095  0.9685   -6.0   2.482  174.5  0.0140   84.9  0.9971   -2.9
 0.100  0.9685   -6.4   2.479  174.2  0.0147   84.6  0.9971   -3.1
 0.105  0.9682   -6.7   2.479  173.9  0.0154   84.3  0.9968   -3.2
 0.110  0.9679   -7.1   2.479  173.6  0.0162   84.1  0.9965   -3.4
 0.115  0.9676   -7.4   2.479  173.3  0.0169   83.9  0.9962   -3.5
 0.120  0.9673   -7.8   2.479  173.0  0.0177   83.7  0.9960   -3.7
 0.125  0.9671   -8.1   2.480  172.7  0.0184   83.5  0.9957   -3.8
 0.130  0.9670   -8.5   2.480  172.4  0.0192   83.4  0.9955   -4.0
 0.135  0.9669   -8.8   2.480  172.1  0.0199   83.2  0.9952   -4.1
 0.140  0.9668   -9.2   2.481  171.8  0.0207   83.1  0.9950   -4.3
 0.145  0.9667   -9.5   2.481  171.5  0.0214   82.9  0.9947   -4.4
 0.150  0.9667   -9.9   2.482  171.2  0.0222   82.8  0.9945   -4.6
 0.155  0.9660  -10.2   2.484  170.9  0.0229   82.6  0.9944   -4.8
 0.160  0.9653  -10.5   2.485  170.6  0.0237   82.4  0.9943   -4.9
 0.165  0.9646  -10.9   2.487  170.3  0.0244   82.2  0.9941   -5.1
 0.170  0.9640  -11.2   2.489  170.0  0.0252   82.0  0.9940   -5.2
 0.175  0.9634  -11.5   2.491  169.7  0.0259   81.9  0.9940   -5.4
 0.180  0.9628  -11.8   2.493  169.4  0.0267   81.7  0.9939   -5.6
 0.185  0.9623  -12.1   2.495  169.1  0.0274   81.6  0.9938   -5.7
 0.190  0.9617  -12.5   2.497  168.8  0.0282   81.5  0.9937   -5.9
 0.195  0.9613  -12.8   2.499  168.5  0.0289   81.3  0.9937   -6.0
 0.200  0.9608  -13.1   2.501  168.2  0.0297   81.2  0.9936   -6.2
 0.220  0.9605  -14.3   2.480  167.1  0.0324   80.3  0.9920   -6.8
 0.240  0.9607  -15.6   2.460  165.9  0.0351   79.6  0.9905   -7.4
 0.260  0.9597  -16.8   2.451  164.8  0.0379   78.8  0.9895   -8.0
 0.280  0.9576  -18.1   2.451  163.9  0.0410   77.8  0.9891   -8.6
 0.300  0.9559  -19.4   2.452  163.0  0.0440   77.0  0.9887   -9.2
 0.320  0.9518  -20.7   2.452  161.7  0.0467   75.9  0.9867   -9.8
 0.340  0.9482  -22.0   2.452  160.4  0.0494   74.9  0.9849  -10.4
 0.360  0.9451  -23.3   2.455  159.0  0.0521   74.0  0.9831  -11.0
 0.380  0.9426  -24.7   2.458  157.7  0.0548   73.2  0.9814  -11.6
 0.400  0.9405  -26.0   2.463  156.4  0.0575   72.5  0.9799  -12.2
 0.420  0.9352  -27.2   2.451  155.3  0.0601   71.4  0.9775  -12.8
 0.440  0.9303  -28.4   2.439  154.1  0.0627   70.4  0.9753  -13.4
 0.450  0.9280  -29.1   2.434  153.5  0.0640   70.0  0.9742  -13.6
 0.460  0.9259  -29.7   2.429  152.9  0.0654   69.5  0.9731  -13.9
 0.480  0.9219  -30.9   2.419  151.8  0.0680   68.7  0.9711  -14.5
 0.500  0.9183  -32.2   2.411  150.6  0.0707   67.9  0.9691  -15.1
 0.520  0.9151  -33.4   2.400  149.6  0.0732   67.0  0.9669  -15.7
 0.540  0.9124  -34.6   2.390  148.5  0.0757   66.1  0.9648  -16.3
 0.560  0.9100  -35.8   2.381  147.4  0.0783   65.3  0.9627  -16.8
 0.580  0.9081  -37.1   2.373  146.4  0.0808   64.6  0.9608  -17.4
 0.600  0.9066  -38.3   2.365  145.3  0.0834   63.9  0.9590  -18.0
 0.620  0.9015  -39.5   2.349  144.2  0.0857   63.0  0.9560  -18.5
 0.640  0.8968  -40.7   2.334  143.2  0.0881   62.1  0.9531  -19.1
 0.660  0.8926  -42.0   2.320  142.1  0.0904   61.2  0.9503  -19.6
 0.680  0.8887  -43.2   2.307  141.0  0.0928   60.5  0.9476  -20.2
 0.700  0.8853  -44.5   2.294  139.9  0.0952   59.7  0.9450  -20.7
 0.720  0.8789  -45.8   2.290  138.8  0.0973   58.8  0.9421  -21.2
 0.740  0.8729  -47.1   2.287  137.7  0.0994   58.0  0.9393  -21.7
 0.760  0.8673  -48.4   2.285  136.6  0.1016   57.1  0.9366  -22.3
 0.780  0.8623  -49.7   2.284  135.5  0.1037   56.4  0.9340  -22.8
 0.800  0.8577  -51.1   2.283  134.4  0.1059   55.6  0.9314  -23.3
 0.820  0.8522  -52.3   2.273  133.4  0.1078   54.7  0.9279  -23.8
 0.840  0.8472  -53.5   2.264  132.3  0.1098   53.9  0.9245  -24.3
 0.860  0.8424  -54.7   2.256  131.2  0.1117   53.1  0.9212  -24.8
 0.880  0.8381  -55.9   2.249  130.2  0.1137   52.3  0.9180  -25.4
 0.900  0.8341  -57.1   2.242  129.1  0.1157   51.5  0.9148  -25.9
 0.920  0.8286  -58.3   2.229  128.1  0.1173   50.7  0.9114  -26.4
 0.940  0.8236  -59.6   2.216  127.2  0.1190   50.0  0.9080  -26.9
 0.960  0.8189  -60.8   2.204  126.2  0.1207   49.2  0.9047  -27.4
 0.980  0.8146  -62.1   2.193  125.2  0.1224   48.5  0.9015  -27.9
 1.000  0.8107  -63.4   2.182  124.2  0.1241   47.8  0.8983  -28.4
 1.020  0.8046  -64.6   2.171  123.2  0.1258   47.1  0.8950  -28.9
 1.040  0.7988  -65.8   2.162  122.2  0.1275   46.4  0.8918  -29.3
 1.060  0.7934  -67.1   2.152  121.2  0.1293   45.7  0.8887  -29.8
 1.080  0.7884  -68.3   2.144  120.1  0.1310   45.0  0.8856  -30.2
 1.100  0.7838  -69.6   2.136  119.1  0.1328   44.4  0.8826  -30.7
 1.120  0.7769  -70.7   2.121  118.2  0.1342   43.6  0.8797  -31.2
 1.140  0.7703  -71.9   2.107  117.4  0.1356   42.9  0.8768  -31.7
 1.160  0.7640  -73.1   2.093  116.5  0.1371   42.1  0.8740  -32.2
 1.180  0.7581  -74.3   2.080  115.6  0.1385   41.4  0.8713  -32.7
 1.200  0.7525  -75.5   2.067  114.7  0.1400   40.7  0.8686  -33.2
 1.220  0.7479  -76.7   2.056  113.8  0.1412   40.1  0.8652  -33.6
 1.240  0.7437  -77.9   2.045  112.8  0.1424   39.5  0.8618  -34.0
 1.260  0.7398  -79.2   2.035  111.9  0.1437   38.9  0.8584  -34.4
 1.280  0.7363  -80.4   2.025  111.0  0.1449   38.3  0.8551  -34.8
 1.300  0.7331  -81.7   2.016  110.0  0.1462   37.7  0.8518  -35.2
 1.320  0.7262  -82.8   2.004  109.1  0.1474   37.1  0.8487  -35.6
 1.340  0.7196  -83.9   1.993  108.2  0.1485   36.4  0.8457  -36.0
 1.360  0.7133  -85.0   1.982  107.3  0.1497   35.8  0.8427  -36.5
 1.380  0.7072  -86.1   1.972  106.3  0.1510   35.2  0.8397  -36.9
 1.400  0.7014  -87.3   1.962  105.4  0.1522   34.6  0.8368  -37.3
 1.420  0.6968  -88.6   1.956  104.5  0.1531   34.0  0.8333  -37.6
 1.440  0.6926  -90.0   1.951  103.6  0.1540   33.5  0.8299  -38.0
 1.460  0.6888  -91.3   1.947  102.7  0.1549   33.0  0.8265  -38.3
 1.480  0.6854  -92.7   1.943  101.7  0.1559   32.4  0.8231  -38.7
 1.500  0.6824  -94.1   1.939  100.8  0.1568   31.9  0.8197  -39.0
 1.520  0.6762  -95.3   1.925  100.0  0.1577   31.3  0.8173  -39.3
 1.540  0.6702  -96.4   1.912   99.1  0.1586   30.8  0.8149  -39.7
 1.560  0.6645  -97.6   1.899   98.3  0.1595   30.3  0.8125  -40.0
 1.580  0.6592  -98.9   1.886   97.4  0.1604   29.7  0.8102  -40.4
 1.600  0.6541 -100.1   1.874   96.5  0.1613   29.2  0.8079  -40.7
 1.620  0.6482 -101.4   1.867   95.6  0.1619   28.6  0.8040  -41.1
 1.640  0.6427 -102.8   1.861   94.8  0.1625   28.0  0.8002  -41.5
 1.660  0.6376 -104.2   1.855   93.9  0.1632   27.4  0.7964  -41.9
 1.680  0.6329 -105.6   1.849   93.0  0.1638   26.9  0.7927  -42.4
 1.700  0.6285 -107.0   1.844   92.1  0.1645   26.3  0.7890  -42.8
 1.720  0.6230 -108.3   1.835   91.2  0.1651   25.9  0.7863  -43.1
 1.740  0.6179 -109.7   1.826   90.3  0.1657   25.4  0.7835  -43.4
 1.760  0.6131 -111.0   1.817   89.4  0.1663   25.0  0.7808  -43.7
 1.780  0.6087 -112.4   1.809   88.4  0.1669   24.5  0.7782  -44.0
 1.800  0.6046 -113.8   1.802   87.5  0.1675   24.1  0.7755  -44.3
 1.820  0.6012 -115.1   1.792   86.8  0.1679   23.5  0.7725  -44.7
 1.840  0.5982 -116.4   1.782   86.0  0.1684   22.9  0.7696  -45.1
 1.860  0.5954 -117.7   1.772   85.2  0.1688   22.4  0.7666  -45.4
 1.880  0.5929 -119.0   1.763   84.5  0.1693   21.8  0.7638  -45.8
 1.900  0.5908 -120.3   1.754   83.7  0.1698   21.2  0.7609  -46.2
 1.920  0.5853 -121.4   1.742   82.9  0.1703   20.8  0.7587  -46.5
 1.940  0.5801 -122.5   1.730   82.1  0.1709   20.4  0.7565  -46.8
 1.960  0.5750 -123.6   1.719   81.3  0.1715   19.9  0.7544  -47.0
 1.980  0.5702 -124.7   1.708   80.4  0.1720   19.5  0.7522  -47.3
 2.000  0.5656 -125.9   1.697   79.6  0.1726   19.1  0.7501  -47.6
 2.020  0.5610 -127.2   1.687   78.8  0.1729   18.7  0.7477  -47.9
 2.040  0.5568 -128.5   1.677   78.1  0.1731   18.2  0.7453  -48.2
 2.060  0.5528 -129.8   1.668   77.3  0.1734   17.8  0.7430  -48.6
 2.080  0.5491 -131.1   1.658   76.5  0.1737   17.3  0.7406  -48.9
 2.100  0.5457 -132.5   1.650   75.8  0.1740   16.9  0.7383  -49.2
 2.120  0.5426 -133.8   1.641   75.0  0.1743   16.4  0.7361  -49.6
 2.140  0.5398 -135.2   1.633   74.2  0.1746   16.0  0.7338  -49.9
 2.160  0.5374 -136.6   1.625   73.3  0.1749   15.6  0.7316  -50.2
 2.180  0.5352 -138.0   1.617   72.5  0.1753   15.1  0.7294  -50.6
 2.200  0.5334 -139.4   1.610   71.7  0.1756   14.7  0.7272  -50.9
 2.220  0.5305 -140.6   1.600   71.0  0.1757   14.3  0.7249  -51.2
 2.240  0.5279 -141.8   1.591   70.3  0.1757   13.8  0.7225  -51.5
 2.260  0.5255 -143.1   1.581   69.7  0.1758   13.4  0.7202  -51.8
 2.280  0.5234 -144.3   1.572   69.0  0.1759   13.0  0.7179  -52.2
 2.300  0.5215 -145.5   1.563   68.2  0.1760   12.5  0.7157  -52.5
 2.320  0.5198 -146.8   1.554   67.5  0.1761   12.1  0.7134  -52.8
 2.340  0.5184 -148.1   1.546   66.8  0.1762   11.7  0.7112  -53.1
 2.360  0.5173 -149.3   1.538   66.1  0.1763   11.3  0.7090  -53.4
 2.380  0.5164 -150.6   1.530   65.3  0.1765   10.8  0.7068  -53.8
 2.400  0.5158 -151.9   1.522   64.6  0.1766   10.4  0.7047  -54.1
 2.420  0.5133 -153.2   1.513   63.9  0.1765   10.1  0.7024  -54.4
 2.440  0.5111 -154.6   1.505   63.3  0.1765    9.8  0.7002  -54.6
 2.460  0.5091 -155.9   1.497   62.6  0.1764    9.4  0.6980  -54.9
 2.480  0.5074 -157.3   1.489   61.9  0.1763    9.1  0.6958  -55.2
 2.500  0.5061 -158.7   1.481   61.2  0.1763    8.8  0.6936  -55.5
 2.520  0.5050 -160.0   1.474   60.5  0.1762    8.5  0.6914  -55.8
 2.540  0.5042 -161.4   1.467   59.8  0.1762    8.2  0.6893  -56.0
 2.560  0.5037 -162.8   1.459   59.1  0.1762    7.8  0.6871  -56.3
 2.580  0.5035 -164.2   1.453   58.4  0.1761    7.5  0.6850  -56.6
 2.600  0.5036 -165.6   1.446   57.7  0.1761    7.2  0.6829  -56.9
 2.620  0.5020 -166.8   1.437   57.0  0.1760    6.8  0.6815  -57.2
 2.640  0.5005 -168.0   1.429   56.3  0.1760    6.5  0.6802  -57.5
 2.660  0.4993 -169.2   1.420   55.7  0.1759    6.1  0.6789  -57.8
 2.680  0.4984 -170.4   1.412   55.0  0.1759    5.8  0.6775  -58.1
 2.700  0.4976 -171.6   1.404   54.2  0.1758    5.4  0.6763  -58.4
 2.720  0.4971 -172.8   1.396   53.5  0.1758    5.0  0.6750  -58.7
 2.740  0.4968 -174.0   1.388   52.8  0.1757    4.7  0.6737  -59.1
 2.760  0.4967 -175.3   1.381   52.1  0.1757    4.3  0.6725  -59.4
 2.780  0.4968 -176.5   1.374   51.3  0.1757    4.0  0.6713  -59.7
 2.800  0.4972 -177.7   1.367   50.6  0.1757    3.6  0.6701  -60.0
 2.820  0.4962 -178.9   1.360   50.0  0.1755    3.3  0.6685  -60.3
 2.840  0.4954  179.8   1.354   49.3  0.1753    2.9  0.6669  -60.6
 2.860  0.4949  178.6   1.348   48.7  0.1750    2.6  0.6653  -60.9
 2.880  0.4946  177.3   1.342   48.0  0.1748    2.3  0.6638  -61.2
 2.900  0.4945  176.0   1.336   47.3  0.1746    2.0  0.6623  -61.5
 2.920  0.4947  174.8   1.330   46.6  0.1744    1.6  0.6607  -61.8
 2.940  0.4951  173.5   1.324   46.0  0.1742    1.3  0.6593  -62.2
 2.960  0.4958  172.3   1.319   45.3  0.1741    1.0  0.6578  -62.5
 2.980  0.4967  171.0   1.314   44.6  0.1739    0.6  0.6563  -62.8
 3.000  0.4978  169.8   1.309   43.9  0.1737    0.3  0.6549  -63.1
 3.100  0.4943  164.5   1.269   41.2  0.1725   -0.9  0.6506  -64.6
 3.200  0.4949  159.2   1.232   38.4  0.1714   -2.0  0.6467  -66.1
 3.300  0.4998  154.0   1.199   35.3  0.1704   -3.2  0.6434  -67.7
 3.400  0.5088  148.9   1.168   32.1  0.1695   -4.4  0.6404  -69.2
 3.500  0.5216  144.0   1.142   28.8  0.1686   -5.6  0.6380  -70.8
 3.600  0.5255  140.0   1.109   26.4  0.1662   -6.4  0.6333  -72.6
 3.700  0.5318  136.1   1.078   23.9  0.1638   -7.3  0.6293  -74.5
 3.800  0.5406  132.3   1.049   21.2  0.1615   -8.2  0.6259  -76.3
 3.900  0.5517  128.6   1.023   18.4  0.1592   -9.1  0.6232  -78.2
 4.000  0.5650  125.1   0.999   15.5  0.1570  -10.1  0.6212  -80.1
 4.100  0.5700  121.9   0.971   13.4  0.1548  -10.6  0.6188  -82.2
 4.200  0.5766  118.9   0.945   11.2  0.1525  -11.0  0.6171  -84.2
 4.300  0.5850  115.8   0.920    8.8  0.1503  -11.5  0.6163  -86.3
 4.400  0.5948  112.9   0.897    6.3  0.1481  -12.0  0.6163  -88.4
 4.500  0.6062  110.1   0.875    3.7  0.1459  -12.5  0.6171  -90.5
 4.600  0.6111  107.7   0.853    1.9  0.1437  -12.3  0.6150  -92.6
 4.700  0.6171  105.3   0.832    0.1  0.1416  -12.2  0.6137  -94.7
 4.800  0.6242  102.9   0.812   -1.9  0.1394  -12.0  0.6132  -96.9
 4.900  0.6323  100.6   0.793   -3.9  0.1373  -11.9  0.6136  -99.0
 5.000  0.6414   98.4   0.775   -6.1  0.1351  -11.7  0.6148 -101.1
 5.100  0.6471   96.5   0.756   -7.8  0.1346  -11.1  0.6147 -103.3
 5.200  0.6534   94.7   0.737   -9.6  0.1340  -10.4  0.6155 -105.5
 5.300  0.6604   92.9   0.720  -11.5  0.1335   -9.8  0.6173 -107.7
 5.400  0.6680   91.2   0.703  -13.4  0.1331   -9.1  0.6199 -109.9
 5.500  0.6762   89.5   0.687  -15.5  0.1326   -8.5  0.6234 -112.0
 5.600  0.6818   87.9   0.671  -17.0  0.1332   -7.9  0.6237 -114.2
 5.700  0.6879   86.4   0.655  -18.5  0.1338   -7.3  0.6250 -116.5
 5.800  0.6945   84.9   0.640  -20.1  0.1344   -6.7  0.6272 -118.7
 5.900  0.7016   83.4   0.626  -21.8  0.1350   -6.1  0.6304 -120.9
 6.000  0.7092   81.9   0.612  -23.6  0.1356   -5.5  0.6345 -123.1
!
!  f       NFmin   Gammaopt  rn/50
! GHz       dB    MAG  ANG    -
!
! noise parameter not available yet for this operation point!
!
! (c) 2016  Infineon Technologies AG, Munich
