! Infineon Technologies  Discrete & RF Semiconductors
! BFP196
! VCE = 6.0 V,  IC =  60mA
! Common Emitter S-Parameters:                            Jan 2016
# GHz  S  MA  R  50
!  f         S11            S21            S12            S22
! GHz     MAG   ANG      MAG   ANG      MAG   ANG      MAG   ANG
 0.010  0.3641  -33.8  75.012  168.0  0.0038   81.3  0.8709  -14.7
 0.015  0.3755  -48.4  71.949  162.4  0.0055   74.7  0.8417  -21.2
 0.020  0.4092  -61.4  69.638  156.3  0.0072   71.2  0.8241  -28.1
 0.025  0.4052  -70.8  66.214  153.2  0.0083   66.4  0.7791  -32.3
 0.030  0.4122  -80.2  62.998  149.9  0.0094   62.8  0.7388  -36.9
 0.035  0.4297  -89.0  60.025  146.1  0.0106   59.9  0.7038  -42.1
 0.040  0.4565  -97.0  57.332  142.0  0.0118   57.6  0.6751  -47.7
 0.045  0.4910 -103.9  54.961  137.5  0.0130   55.7  0.6535  -53.8
 0.050  0.5318 -109.9  52.954  132.7  0.0142   54.2  0.6397  -60.2
 0.055  0.5308 -113.6  50.791  131.4  0.0147   53.4  0.6135  -62.3
 0.060  0.5320 -117.3  48.656  130.1  0.0152   52.7  0.5882  -64.7
 0.065  0.5354 -120.9  46.550  128.6  0.0158   52.0  0.5639  -67.2
 0.070  0.5410 -124.5  44.480  126.9  0.0163   51.3  0.5409  -69.9
 0.075  0.5486 -128.0  42.449  125.1  0.0168   50.7  0.5192  -72.9
 0.080  0.5582 -131.4  40.464  123.2  0.0174   50.2  0.4990  -76.2
 0.085  0.5697 -134.7  38.532  121.0  0.0179   49.6  0.4805  -79.7
 0.090  0.5829 -137.8  36.661  118.6  0.0184   49.1  0.4640  -83.4
 0.095  0.5978 -140.8  34.862  115.9  0.0190   48.6  0.4496  -87.4
 0.100  0.6143 -143.6  33.145  113.0  0.0195   48.2  0.4376  -91.7
 0.105  0.6153 -145.1  32.131  112.3  0.0198   48.3  0.4269  -93.1
 0.110  0.6167 -146.5  31.122  111.6  0.0201   48.4  0.4165  -94.6
 0.115  0.6185 -148.0  30.119  110.8  0.0205   48.5  0.4064  -96.2
 0.120  0.6207 -149.5  29.121  110.0  0.0208   48.6  0.3967  -97.9
 0.125  0.6233 -150.9  28.130  109.1  0.0211   48.7  0.3872  -99.6
 0.130  0.6263 -152.3  27.146  108.1  0.0214   48.8  0.3782 -101.5
 0.135  0.6296 -153.8  26.171  107.1  0.0217   48.9  0.3696 -103.4
 0.140  0.6334 -155.2  25.204  106.0  0.0221   49.0  0.3614 -105.4
 0.145  0.6375 -156.5  24.248  104.8  0.0224   49.1  0.3536 -107.5
 0.150  0.6420 -157.9  23.303  103.5  0.0227   49.2  0.3464 -109.7
 0.155  0.6423 -158.7  22.751  103.0  0.0230   49.6  0.3413 -110.8
 0.160  0.6427 -159.5  22.201  102.6  0.0233   49.9  0.3364 -111.9
 0.165  0.6433 -160.3  21.653  102.1  0.0235   50.3  0.3315 -113.0
 0.170  0.6439 -161.1  21.106  101.5  0.0238   50.7  0.3268 -114.2
 0.175  0.6447 -161.9  20.562  101.0  0.0241   51.0  0.3223 -115.4
 0.180  0.6456 -162.7  20.019  100.4  0.0244   51.3  0.3179 -116.6
 0.185  0.6467 -163.5  19.478   99.8  0.0247   51.7  0.3136 -117.9
 0.190  0.6478 -164.2  18.940   99.1  0.0249   52.0  0.3095 -119.2
 0.195  0.6491 -165.0  18.405   98.4  0.0252   52.3  0.3056 -120.5
 0.200  0.6505 -165.8  17.872   97.7  0.0255   52.6  0.3018 -121.9
 0.220  0.6514 -168.1  16.455   96.3  0.0269   53.3  0.2909 -125.4
 0.240  0.6533 -170.4  15.048   94.7  0.0283   53.9  0.2813 -129.2
 0.260  0.6558 -172.5  13.889   93.3  0.0298   54.8  0.2741 -132.4
 0.280  0.6584 -174.2  12.970   92.1  0.0313   55.9  0.2690 -134.9
 0.300  0.6616 -175.9  12.058   90.8  0.0328   56.9  0.2644 -137.5
 0.320  0.6613 -177.2  11.465   90.1  0.0343   57.7  0.2607 -139.3
 0.340  0.6614 -178.5  10.874   89.3  0.0358   58.4  0.2573 -141.1
 0.360  0.6618 -179.9  10.285   88.4  0.0373   59.0  0.2542 -143.0
 0.380  0.6626  178.8   9.699   87.4  0.0388   59.6  0.2514 -144.9
 0.400  0.6637  177.5   9.116   86.3  0.0403   60.2  0.2488 -146.9
 0.420  0.6634  176.5   8.750   85.6  0.0417   60.5  0.2473 -148.1
 0.440  0.6634  175.6   8.385   84.9  0.0431   60.9  0.2458 -149.4
 0.450  0.6634  175.1   8.203   84.5  0.0438   61.0  0.2452 -150.0
 0.460  0.6635  174.6   8.021   84.1  0.0446   61.2  0.2445 -150.6
 0.480  0.6638  173.7   7.659   83.3  0.0460   61.4  0.2434 -151.9
 0.500  0.6643  172.7   7.299   82.3  0.0474   61.7  0.2423 -153.2
 0.520  0.6644  171.7   7.054   81.6  0.0490   61.9  0.2417 -154.0
 0.540  0.6646  170.8   6.811   80.9  0.0507   62.0  0.2412 -154.8
 0.560  0.6651  169.8   6.568   80.2  0.0523   62.1  0.2408 -155.7
 0.580  0.6657  168.9   6.327   79.4  0.0540   62.3  0.2404 -156.5
 0.600  0.6665  167.9   6.087   78.5  0.0556   62.4  0.2400 -157.3
 0.620  0.6667  167.0   5.916   77.8  0.0571   62.5  0.2398 -157.9
 0.640  0.6671  166.1   5.746   77.2  0.0587   62.5  0.2397 -158.6
 0.660  0.6677  165.3   5.577   76.4  0.0602   62.6  0.2396 -159.2
 0.680  0.6684  164.4   5.409   75.6  0.0618   62.6  0.2395 -159.9
 0.700  0.6693  163.5   5.242   74.8  0.0633   62.7  0.2395 -160.5
 0.720  0.6704  162.8   5.109   74.3  0.0650   62.6  0.2397 -161.0
 0.740  0.6715  162.1   4.976   73.7  0.0667   62.4  0.2399 -161.6
 0.760  0.6727  161.5   4.844   73.2  0.0683   62.3  0.2401 -162.1
 0.780  0.6741  160.8   4.712   72.5  0.0700   62.2  0.2403 -162.7
 0.800  0.6755  160.1   4.581   71.9  0.0717   62.1  0.2406 -163.2
 0.820  0.6742  159.2   4.479   71.4  0.0733   61.9  0.2406 -163.7
 0.840  0.6730  158.4   4.378   70.8  0.0750   61.8  0.2406 -164.1
 0.860  0.6720  157.5   4.277   70.2  0.0766   61.7  0.2407 -164.6
 0.880  0.6711  156.7   4.176   69.6  0.0783   61.5  0.2407 -165.0
 0.900  0.6704  155.8   4.076   68.9  0.0799   61.4  0.2408 -165.5
 0.920  0.6714  155.1   3.995   68.4  0.0814   61.3  0.2412 -165.8
 0.940  0.6725  154.4   3.915   67.8  0.0828   61.1  0.2416 -166.2
 0.960  0.6737  153.8   3.835   67.2  0.0843   61.0  0.2420 -166.5
 0.980  0.6750  153.1   3.756   66.6  0.0857   60.9  0.2424 -166.9
 1.000  0.6764  152.4   3.677   66.0  0.0872   60.8  0.2428 -167.2
 1.020  0.6768  151.7   3.611   65.4  0.0888   60.6  0.2434 -167.5
 1.040  0.6774  151.0   3.545   64.8  0.0904   60.4  0.2441 -167.8
 1.060  0.6780  150.4   3.480   64.2  0.0921   60.2  0.2448 -168.2
 1.080  0.6787  149.7   3.415   63.6  0.0937   60.1  0.2454 -168.5
 1.100  0.6795  149.0   3.351   62.9  0.0953   59.9  0.2461 -168.8
 1.120  0.6806  148.3   3.295   62.4  0.0968   59.7  0.2467 -169.1
 1.140  0.6818  147.6   3.240   61.8  0.0983   59.5  0.2473 -169.4
 1.160  0.6831  146.8   3.185   61.3  0.0999   59.3  0.2479 -169.8
 1.180  0.6845  146.1   3.130   60.7  0.1014   59.1  0.2486 -170.1
 1.200  0.6860  145.4   3.076   60.1  0.1029   58.9  0.2492 -170.4
 1.220  0.6860  144.7   3.028   59.6  0.1046   58.6  0.2497 -170.7
 1.240  0.6862  144.0   2.981   59.0  0.1062   58.4  0.2502 -171.0
 1.260  0.6864  143.4   2.934   58.5  0.1079   58.1  0.2507 -171.3
 1.280  0.6868  142.7   2.887   57.9  0.1095   57.8  0.2512 -171.6
 1.300  0.6872  142.0   2.840   57.3  0.1112   57.6  0.2517 -171.9
 1.320  0.6877  141.4   2.799   56.8  0.1125   57.3  0.2523 -172.1
 1.340  0.6883  140.8   2.757   56.3  0.1139   57.1  0.2529 -172.3
 1.360  0.6890  140.2   2.716   55.8  0.1152   56.9  0.2534 -172.4
 1.380  0.6897  139.6   2.676   55.3  0.1166   56.6  0.2540 -172.6
 1.400  0.6905  139.0   2.635   54.8  0.1179   56.4  0.2546 -172.8
 1.420  0.6903  138.4   2.604   54.3  0.1195   56.1  0.2555 -173.1
 1.440  0.6901  137.8   2.574   53.7  0.1211   55.8  0.2563 -173.3
 1.460  0.6900  137.3   2.544   53.2  0.1227   55.5  0.2572 -173.6
 1.480  0.6900  136.7   2.514   52.6  0.1243   55.3  0.2581 -173.8
 1.500  0.6901  136.1   2.484   52.0  0.1259   55.0  0.2590 -174.1
 1.520  0.6924  135.5   2.449   51.5  0.1273   54.7  0.2599 -174.4
 1.540  0.6947  134.9   2.414   51.0  0.1288   54.5  0.2608 -174.7
 1.560  0.6971  134.3   2.379   50.4  0.1302   54.2  0.2617 -175.1
 1.580  0.6996  133.8   2.344   49.9  0.1317   53.9  0.2626 -175.4
 1.600  0.7021  133.2   2.310   49.3  0.1331   53.7  0.2635 -175.7
 1.620  0.7024  132.5   2.282   48.8  0.1346   53.4  0.2641 -176.0
 1.640  0.7029  131.8   2.255   48.3  0.1360   53.1  0.2648 -176.3
 1.660  0.7035  131.1   2.228   47.7  0.1375   52.8  0.2655 -176.7
 1.680  0.7041  130.4   2.201   47.2  0.1389   52.6  0.2661 -177.0
 1.700  0.7049  129.7   2.174   46.6  0.1404   52.3  0.2668 -177.3
 1.720  0.7052  129.2   2.153   46.2  0.1417   52.0  0.2675 -177.5
 1.740  0.7055  128.6   2.132   45.7  0.1430   51.6  0.2681 -177.6
 1.760  0.7059  128.1   2.111   45.3  0.1443   51.3  0.2688 -177.8
 1.780  0.7064  127.5   2.091   44.9  0.1457   51.0  0.2694 -177.9
 1.800  0.7069  127.0   2.070   44.4  0.1470   50.7  0.2701 -178.1
 1.820  0.7079  126.5   2.048   43.9  0.1485   50.4  0.2715 -178.4
 1.840  0.7090  126.0   2.027   43.4  0.1499   50.1  0.2728 -178.6
 1.860  0.7101  125.6   2.006   42.8  0.1514   49.8  0.2742 -178.9
 1.880  0.7113  125.1   1.985   42.3  0.1529   49.6  0.2756 -179.1
 1.900  0.7125  124.6   1.964   41.7  0.1544   49.3  0.2770 -179.4
 1.920  0.7134  124.1   1.942   41.2  0.1558   49.0  0.2779 -179.8
 1.940  0.7144  123.5   1.921   40.7  0.1571   48.7  0.2788  179.9
 1.960  0.7154  123.0   1.899   40.2  0.1585   48.4  0.2797  179.5
 1.980  0.7165  122.4   1.878   39.7  0.1598   48.1  0.2807  179.2
 2.000  0.7177  121.9   1.857   39.2  0.1612   47.8  0.2816  178.8
 2.020  0.7180  121.3   1.840   38.8  0.1625   47.5  0.2825  178.5
 2.040  0.7183  120.8   1.822   38.3  0.1637   47.2  0.2835  178.3
 2.060  0.7187  120.2   1.805   37.8  0.1650   46.9  0.2844  178.0
 2.080  0.7191  119.7   1.788   37.4  0.1663   46.6  0.2853  177.8
 2.100  0.7196  119.1   1.771   36.9  0.1676   46.3  0.2863  177.5
 2.120  0.7202  118.6   1.755   36.4  0.1688   46.1  0.2872  177.3
 2.140  0.7209  118.0   1.738   35.9  0.1701   45.8  0.2882  177.0
 2.160  0.7216  117.5   1.722   35.4  0.1714   45.5  0.2892  176.8
 2.180  0.7224  116.9   1.705   34.8  0.1727   45.3  0.2901  176.5
 2.200  0.7232  116.4   1.689   34.3  0.1740   45.0  0.2911  176.3
 2.220  0.7244  115.8   1.675   33.8  0.1752   44.7  0.2924  175.9
 2.240  0.7256  115.3   1.661   33.3  0.1765   44.4  0.2936  175.6
 2.260  0.7270  114.7   1.648   32.9  0.1777   44.1  0.2949  175.2
 2.280  0.7284  114.1   1.634   32.4  0.1789   43.7  0.2962  174.9
 2.300  0.7298  113.6   1.621   31.9  0.1802   43.4  0.2975  174.6
 2.320  0.7314  113.0   1.608   31.3  0.1814   43.2  0.2988  174.2
 2.340  0.7330  112.5   1.595   30.8  0.1827   42.9  0.3001  173.9
 2.360  0.7346  111.9   1.582   30.3  0.1840   42.6  0.3014  173.6
 2.380  0.7364  111.3   1.569   29.7  0.1852   42.3  0.3028  173.2
 2.400  0.7382  110.8   1.556   29.2  0.1865   42.0  0.3041  172.9
 2.420  0.7390  110.3   1.543   28.8  0.1876   41.7  0.3052  172.6
 2.440  0.7398  109.8   1.530   28.4  0.1887   41.4  0.3063  172.3
 2.460  0.7407  109.3   1.517   27.9  0.1899   41.1  0.3074  172.0
 2.480  0.7416  108.8   1.504   27.5  0.1910   40.8  0.3085  171.8
 2.500  0.7426  108.3   1.491   27.0  0.1921   40.5  0.3096  171.5
 2.520  0.7436  107.8   1.478   26.6  0.1933   40.2  0.3107  171.2
 2.540  0.7447  107.3   1.465   26.1  0.1944   39.9  0.3118  170.9
 2.560  0.7459  106.8   1.453   25.7  0.1956   39.6  0.3129  170.6
 2.580  0.7471  106.3   1.440   25.2  0.1967   39.3  0.3141  170.4
 2.600  0.7484  105.8   1.428   24.7  0.1979   39.0  0.3152  170.1
 2.620  0.7493  105.3   1.418   24.3  0.1989   38.7  0.3167  169.8
 2.640  0.7502  104.8   1.408   23.9  0.2000   38.4  0.3182  169.4
 2.660  0.7512  104.4   1.398   23.5  0.2011   38.1  0.3197  169.1
 2.680  0.7522  103.9   1.388   23.1  0.2021   37.8  0.3213  168.8
 2.700  0.7533  103.4   1.378   22.6  0.2032   37.5  0.3228  168.5
 2.720  0.7544  103.0   1.368   22.2  0.2043   37.2  0.3244  168.1
 2.740  0.7556  102.5   1.359   21.8  0.2053   36.9  0.3259  167.8
 2.760  0.7568  102.0   1.349   21.3  0.2064   36.7  0.3275  167.5
 2.780  0.7581  101.6   1.339   20.9  0.2075   36.4  0.3291  167.2
 2.800  0.7594  101.1   1.330   20.4  0.2086   36.1  0.3307  166.9
 2.820  0.7599  100.7   1.320   20.0  0.2096   35.8  0.3319  166.6
 2.840  0.7604  100.3   1.310   19.5  0.2106   35.5  0.3332  166.3
 2.860  0.7609   99.9   1.301   19.1  0.2116   35.2  0.3344  166.0
 2.880  0.7615   99.5   1.291   18.6  0.2127   34.9  0.3356  165.7
 2.900  0.7622   99.0   1.281   18.2  0.2137   34.6  0.3369  165.4
 2.920  0.7628   98.6   1.272   17.7  0.2147   34.3  0.3382  165.1
 2.940  0.7635   98.2   1.263   17.3  0.2158   34.0  0.3394  164.8
 2.960  0.7643   97.8   1.253   16.8  0.2168   33.8  0.3407  164.6
 2.980  0.7651   97.4   1.244   16.3  0.2178   33.5  0.3420  164.3
 3.000  0.7659   97.0   1.235   15.8  0.2189   33.2  0.3433  164.0
 3.100  0.7700   94.9   1.195   14.2  0.2228   31.7  0.3500  162.4
 3.200  0.7750   92.9   1.157   12.4  0.2269   30.2  0.3570  160.9
 3.300  0.7811   90.9   1.119   10.6  0.2312   28.8  0.3642  159.4
 3.400  0.7880   88.9   1.083    8.6  0.2355   27.5  0.3716  158.0
 3.500  0.7959   87.0   1.048    6.5  0.2400   26.2  0.3793  156.6
 3.600  0.7976   85.2   1.018    5.0  0.2435   24.9  0.3861  155.2
 3.700  0.8000   83.5   0.989    3.4  0.2470   23.7  0.3930  153.8
 3.800  0.8032   81.7   0.960    1.7  0.2507   22.5  0.4003  152.4
 3.900  0.8071   80.0   0.933   -0.1  0.2545   21.3  0.4077  151.1
 4.000  0.8117   78.3   0.906   -2.0  0.2584   20.2  0.4153  149.9
 4.100  0.8136   76.8   0.885   -3.4  0.2617   19.0  0.4207  148.7
 4.200  0.8161   75.3   0.864   -4.8  0.2652   17.7  0.4264  147.4
 4.300  0.8191   73.9   0.844   -6.3  0.2688   16.6  0.4322  146.3
 4.400  0.8226   72.4   0.824   -7.9  0.2725   15.4  0.4382  145.1
 4.500  0.8267   71.0   0.805   -9.6  0.2763   14.3  0.4444  144.0
 4.600  0.8278   69.7   0.789  -10.8  0.2792   13.2  0.4492  143.0
 4.700  0.8294   68.5   0.774  -12.0  0.2823   12.1  0.4542  141.9
 4.800  0.8313   67.2   0.759  -13.3  0.2854   11.0  0.4593  140.9
 4.900  0.8337   65.9   0.745  -14.6  0.2887    9.9  0.4646  140.0
 5.000  0.8364   64.7   0.731  -16.0  0.2920    8.9  0.4700  139.0
 5.100  0.8389   63.5   0.717  -17.1  0.2950    7.8  0.4751  137.9
 5.200  0.8418   62.4   0.704  -18.2  0.2980    6.8  0.4804  136.8
 5.300  0.8451   61.3   0.691  -19.3  0.3012    5.7  0.4859  135.8
 5.400  0.8486   60.1   0.678  -20.6  0.3044    4.7  0.4915  134.8
 5.500  0.8525   59.0   0.666  -21.8  0.3078    3.7  0.4973  133.8
 5.600  0.8520   57.9   0.656  -22.8  0.3104    2.5  0.5018  132.8
 5.700  0.8518   56.7   0.647  -23.8  0.3132    1.4  0.5065  131.7
 5.800  0.8519   55.6   0.638  -24.9  0.3161    0.2  0.5113  130.7
 5.900  0.8524   54.4   0.629  -26.0  0.3192   -0.9  0.5163  129.8
 6.000  0.8532   53.3   0.620  -27.1  0.3223   -2.0  0.5214  128.8
!
!  f       NFmin   Gammaopt  rn/50
! GHz       dB    MAG  ANG    -
!
! noise parameter not available yet for this operation point!
!
! (c) 2016  Infineon Technologies AG, Munich
