! Infineon Technologies  Discrete & RF Semiconductors
! BFP196W
! VCE = 1.0 V,  IC =  25mA
! Common Emitter S-Parameters:                            Jan 2016
# GHz  S  MA  R  50
!  f         S11            S21            S12            S22
! GHz     MAG   ANG      MAG   ANG      MAG   ANG      MAG   ANG
 0.010  0.4073  -33.7  50.458  167.3  0.0061   77.5  0.9205  -15.2
 0.015  0.4240  -49.1  49.447  162.7  0.0090   72.3  0.8942  -22.3
 0.020  0.4678  -62.4  48.769  157.9  0.0120   69.7  0.8826  -29.8
 0.025  0.4939  -73.5  46.896  153.4  0.0141   64.8  0.8481  -36.1
 0.030  0.5365  -83.2  45.332  148.6  0.0162   61.2  0.8247  -42.9
 0.035  0.5487  -91.1  43.080  145.4  0.0177   57.3  0.7846  -47.7
 0.040  0.5707  -98.5  40.975  141.9  0.0192   54.0  0.7505  -52.9
 0.045  0.6016 -105.3  39.039  138.1  0.0208   51.2  0.7233  -58.6
 0.050  0.6399 -111.3  37.299  133.8  0.0225   48.8  0.7038  -64.7
 0.055  0.6422 -114.8  35.808  132.6  0.0230   47.2  0.6770  -67.1
 0.060  0.6469 -118.2  34.336  131.2  0.0236   45.6  0.6515  -69.7
 0.065  0.6538 -121.5  32.885  129.7  0.0241   44.1  0.6274  -72.5
 0.070  0.6629 -124.8  31.457  128.1  0.0247   42.7  0.6050  -75.5
 0.075  0.6741 -128.0  30.057  126.3  0.0253   41.3  0.5843  -78.7
 0.080  0.6873 -131.0  28.689  124.4  0.0259   40.0  0.5657  -82.2
 0.085  0.7024 -134.0  27.356  122.3  0.0265   38.8  0.5492  -85.9
 0.090  0.7193 -136.8  26.065  119.9  0.0271   37.6  0.5352  -89.8
 0.095  0.7378 -139.5  24.822  117.3  0.0278   36.5  0.5237  -93.9
 0.100  0.7578 -142.0  23.634  114.5  0.0284   35.4  0.5150  -98.1
 0.105  0.7596 -143.4  22.920  113.8  0.0286   34.9  0.5044  -99.8
 0.110  0.7619 -144.8  22.211  113.0  0.0289   34.5  0.4943 -101.5
 0.115  0.7646 -146.2  21.505  112.2  0.0291   34.1  0.4847 -103.3
 0.120  0.7678 -147.6  20.804  111.4  0.0294   33.6  0.4755 -105.1
 0.125  0.7714 -149.0  20.108  110.4  0.0296   33.2  0.4669 -107.1
 0.130  0.7755 -150.3  19.417  109.5  0.0299   32.8  0.4588 -109.1
 0.135  0.7800 -151.7  18.733  108.4  0.0301   32.4  0.4514 -111.2
 0.140  0.7849 -153.0  18.056  107.3  0.0304   32.0  0.4445 -113.3
 0.145  0.7903 -154.3  17.386  106.0  0.0306   31.6  0.4383 -115.5
 0.150  0.7960 -155.6  16.725  104.7  0.0309   31.2  0.4327 -117.8
 0.155  0.7960 -156.3  16.325  104.3  0.0310   31.1  0.4281 -118.9
 0.160  0.7962 -157.0  15.926  103.9  0.0312   31.1  0.4236 -120.1
 0.165  0.7965 -157.8  15.527  103.4  0.0313   31.0  0.4193 -121.2
 0.170  0.7969 -158.5  15.130  102.9  0.0315   31.0  0.4152 -122.4
 0.175  0.7974 -159.2  14.734  102.4  0.0316   30.9  0.4113 -123.7
 0.180  0.7981 -159.9  14.339  101.9  0.0317   30.9  0.4075 -124.9
 0.185  0.7989 -160.7  13.946  101.3  0.0319   30.8  0.4040 -126.2
 0.190  0.7998 -161.4  13.553  100.7  0.0320   30.8  0.4007 -127.5
 0.195  0.8008 -162.1  13.163  100.1  0.0322   30.7  0.3975 -128.8
 0.200  0.8020 -162.8  12.774   99.4  0.0323   30.7  0.3946 -130.1
 0.220  0.8057 -164.8  11.808   98.0  0.0329   30.9  0.3865 -133.3
 0.240  0.8103 -166.7  10.851   96.3  0.0335   31.1  0.3796 -136.6
 0.260  0.8130 -168.4  10.027   94.9  0.0340   31.5  0.3733 -139.5
 0.280  0.8132 -169.7   9.332   93.8  0.0345   32.2  0.3670 -142.0
 0.300  0.8139 -171.0   8.641   92.6  0.0350   32.8  0.3614 -144.5
 0.320  0.8143 -172.1   8.217   91.8  0.0355   33.5  0.3590 -146.0
 0.340  0.8150 -173.2   7.795   91.0  0.0360   34.2  0.3568 -147.6
 0.360  0.8160 -174.3   7.375   90.0  0.0365   34.9  0.3549 -149.1
 0.380  0.8173 -175.4   6.956   89.0  0.0371   35.6  0.3533 -150.7
 0.400  0.8189 -176.5   6.541   87.8  0.0376   36.2  0.3519 -152.3
 0.420  0.8190 -177.2   6.283   87.2  0.0383   37.0  0.3509 -153.3
 0.440  0.8192 -177.9   6.027   86.5  0.0390   37.8  0.3501 -154.4
 0.450  0.8194 -178.3   5.899   86.1  0.0393   38.1  0.3497 -154.9
 0.460  0.8196 -178.7   5.771   85.7  0.0397   38.5  0.3493 -155.4
 0.480  0.8201 -179.4   5.516   84.9  0.0404   39.2  0.3487 -156.5
 0.500  0.8207  179.9   5.263   84.0  0.0411   39.9  0.3482 -157.5
 0.520  0.8207  179.3   5.088   83.4  0.0418   40.5  0.3475 -158.2
 0.540  0.8209  178.7   4.913   82.9  0.0425   41.0  0.3469 -158.9
 0.560  0.8211  178.0   4.739   82.2  0.0432   41.5  0.3464 -159.7
 0.580  0.8215  177.4   4.566   81.5  0.0440   42.0  0.3459 -160.4
 0.600  0.8219  176.8   4.393   80.8  0.0447   42.5  0.3454 -161.1
 0.620  0.8237  176.3   4.274   80.3  0.0454   43.1  0.3452 -161.6
 0.640  0.8256  175.8   4.155   79.7  0.0461   43.6  0.3450 -162.1
 0.660  0.8276  175.3   4.036   79.2  0.0468   44.2  0.3448 -162.5
 0.680  0.8296  174.8   3.918   78.6  0.0476   44.7  0.3447 -163.0
 0.700  0.8317  174.3   3.800   77.9  0.0483   45.2  0.3446 -163.5
 0.720  0.8298  173.8   3.703   77.4  0.0491   45.7  0.3448 -163.9
 0.740  0.8280  173.3   3.607   76.9  0.0498   46.1  0.3450 -164.2
 0.760  0.8262  172.8   3.510   76.3  0.0506   46.6  0.3452 -164.6
 0.780  0.8245  172.3   3.414   75.7  0.0513   47.0  0.3454 -164.9
 0.800  0.8228  171.8   3.319   75.1  0.0521   47.4  0.3456 -165.3
 0.820  0.8231  171.4   3.246   74.6  0.0529   47.7  0.3460 -165.6
 0.840  0.8234  171.0   3.173   74.1  0.0537   47.9  0.3464 -166.0
 0.860  0.8237  170.5   3.100   73.6  0.0546   48.1  0.3468 -166.3
 0.880  0.8242  170.1   3.027   73.1  0.0554   48.4  0.3473 -166.7
 0.900  0.8246  169.7   2.955   72.5  0.0562   48.6  0.3477 -167.0
 0.920  0.8244  169.3   2.896   72.0  0.0570   48.9  0.3481 -167.2
 0.940  0.8243  168.9   2.838   71.6  0.0578   49.3  0.3485 -167.5
 0.960  0.8242  168.5   2.779   71.1  0.0587   49.6  0.3489 -167.7
 0.980  0.8242  168.1   2.721   70.5  0.0595   49.9  0.3494 -168.0
 1.000  0.8242  167.7   2.663   70.0  0.0603   50.2  0.3498 -168.2
 1.020  0.8250  167.3   2.618   69.5  0.0612   50.4  0.3501 -168.4
 1.040  0.8258  166.9   2.573   69.0  0.0621   50.6  0.3503 -168.6
 1.060  0.8267  166.5   2.529   68.5  0.0629   50.8  0.3506 -168.8
 1.080  0.8276  166.1   2.484   68.0  0.0638   51.0  0.3509 -169.0
 1.100  0.8285  165.7   2.440   67.4  0.0647   51.2  0.3512 -169.2
 1.120  0.8289  165.3   2.399   67.0  0.0656   51.3  0.3517 -169.4
 1.140  0.8293  164.9   2.358   66.5  0.0665   51.4  0.3522 -169.6
 1.160  0.8297  164.5   2.317   66.0  0.0675   51.5  0.3527 -169.7
 1.180  0.8302  164.1   2.276   65.5  0.0684   51.6  0.3533 -169.9
 1.200  0.8307  163.7   2.236   65.0  0.0693   51.7  0.3538 -170.1
 1.220  0.8298  163.3   2.204   64.5  0.0702   51.9  0.3544 -170.3
 1.240  0.8289  162.9   2.171   64.0  0.0711   52.1  0.3549 -170.5
 1.260  0.8280  162.6   2.139   63.5  0.0720   52.3  0.3555 -170.6
 1.280  0.8272  162.2   2.108   63.0  0.0729   52.5  0.3561 -170.8
 1.300  0.8264  161.8   2.076   62.4  0.0738   52.7  0.3567 -171.0
 1.320  0.8268  161.5   2.047   62.0  0.0747   52.8  0.3573 -171.1
 1.340  0.8273  161.1   2.018   61.5  0.0756   52.9  0.3579 -171.3
 1.360  0.8278  160.8   1.990   61.1  0.0764   52.9  0.3585 -171.4
 1.380  0.8283  160.4   1.961   60.6  0.0773   53.0  0.3591 -171.6
 1.400  0.8289  160.1   1.933   60.1  0.0782   53.1  0.3597 -171.7
 1.420  0.8293  159.7   1.908   59.7  0.0791   53.1  0.3603 -171.9
 1.440  0.8298  159.4   1.883   59.3  0.0800   53.2  0.3608 -172.1
 1.460  0.8302  159.0   1.858   58.8  0.0808   53.2  0.3614 -172.2
 1.480  0.8308  158.7   1.834   58.4  0.0817   53.3  0.3619 -172.4
 1.500  0.8313  158.3   1.809   57.9  0.0826   53.3  0.3625 -172.6
 1.520  0.8318  157.9   1.787   57.4  0.0835   53.3  0.3630 -172.7
 1.540  0.8323  157.5   1.765   56.9  0.0844   53.3  0.3635 -172.8
 1.560  0.8329  157.0   1.744   56.4  0.0852   53.3  0.3640 -173.0
 1.580  0.8335  156.6   1.722   55.9  0.0861   53.3  0.3645 -173.1
 1.600  0.8342  156.2   1.701   55.4  0.0870   53.3  0.3650 -173.2
 1.620  0.8339  155.9   1.681   55.0  0.0880   53.3  0.3659 -173.3
 1.640  0.8337  155.6   1.662   54.6  0.0889   53.3  0.3667 -173.5
 1.660  0.8335  155.2   1.642   54.2  0.0899   53.4  0.3676 -173.6
 1.680  0.8333  154.9   1.622   53.7  0.0908   53.4  0.3684 -173.8
 1.700  0.8331  154.6   1.603   53.3  0.0918   53.4  0.3693 -173.9
 1.720  0.8332  154.3   1.587   52.9  0.0928   53.4  0.3702 -174.1
 1.740  0.8333  154.0   1.570   52.4  0.0938   53.3  0.3711 -174.2
 1.760  0.8334  153.6   1.554   52.0  0.0947   53.3  0.3719 -174.4
 1.780  0.8335  153.3   1.538   51.6  0.0957   53.2  0.3728 -174.5
 1.800  0.8337  153.0   1.522   51.1  0.0967   53.2  0.3737 -174.7
 1.820  0.8337  152.6   1.507   50.7  0.0976   53.2  0.3742 -174.8
 1.840  0.8337  152.2   1.491   50.2  0.0985   53.2  0.3748 -175.0
 1.860  0.8338  151.9   1.476   49.7  0.0994   53.1  0.3753 -175.1
 1.880  0.8339  151.5   1.461   49.3  0.1003   53.1  0.3759 -175.3
 1.900  0.8340  151.1   1.446   48.8  0.1012   53.1  0.3764 -175.4
 1.920  0.8349  150.7   1.432   48.4  0.1022   53.1  0.3772 -175.5
 1.940  0.8358  150.4   1.419   47.9  0.1031   53.0  0.3779 -175.6
 1.960  0.8367  150.0   1.405   47.5  0.1041   53.0  0.3787 -175.8
 1.980  0.8377  149.7   1.391   47.1  0.1050   52.9  0.3794 -175.9
 2.000  0.8387  149.3   1.378   46.6  0.1060   52.9  0.3802 -176.0
 2.020  0.8385  149.0   1.366   46.2  0.1069   52.8  0.3812 -176.2
 2.040  0.8383  148.7   1.355   45.8  0.1078   52.7  0.3822 -176.3
 2.060  0.8382  148.3   1.343   45.4  0.1087   52.6  0.3832 -176.5
 2.080  0.8381  148.0   1.332   45.0  0.1096   52.6  0.3842 -176.6
 2.100  0.8380  147.7   1.320   44.6  0.1105   52.5  0.3852 -176.8
 2.120  0.8379  147.4   1.309   44.2  0.1115   52.4  0.3862 -176.9
 2.140  0.8379  147.1   1.297   43.7  0.1124   52.3  0.3872 -177.1
 2.160  0.8379  146.7   1.286   43.3  0.1133   52.2  0.3883 -177.2
 2.180  0.8379  146.4   1.275   42.9  0.1142   52.2  0.3893 -177.4
 2.200  0.8379  146.1   1.264   42.4  0.1151   52.1  0.3903 -177.5
 2.220  0.8381  145.7   1.254   42.0  0.1160   52.0  0.3911 -177.7
 2.240  0.8383  145.4   1.243   41.6  0.1170   51.9  0.3919 -177.8
 2.260  0.8386  145.0   1.233   41.2  0.1179   51.8  0.3928 -178.0
 2.280  0.8389  144.7   1.222   40.8  0.1189   51.7  0.3936 -178.1
 2.300  0.8393  144.3   1.212   40.3  0.1198   51.6  0.3944 -178.3
 2.320  0.8396  144.0   1.202   39.9  0.1207   51.5  0.3952 -178.5
 2.340  0.8400  143.6   1.192   39.5  0.1217   51.4  0.3961 -178.6
 2.360  0.8404  143.3   1.182   39.0  0.1226   51.3  0.3969 -178.8
 2.380  0.8409  142.9   1.172   38.6  0.1236   51.2  0.3978 -178.9
 2.400  0.8414  142.6   1.162   38.1  0.1245   51.1  0.3986 -179.1
 2.420  0.8415  142.3   1.154   37.7  0.1254   51.0  0.3998 -179.3
 2.440  0.8415  142.0   1.145   37.3  0.1264   50.9  0.4009 -179.5
 2.460  0.8417  141.7   1.137   37.0  0.1273   50.8  0.4021 -179.7
 2.480  0.8418  141.4   1.129   36.6  0.1282   50.6  0.4032 -179.8
 2.500  0.8419  141.0   1.121   36.2  0.1291   50.5  0.4044  180.0
 2.520  0.8421  140.7   1.113   35.8  0.1301   50.4  0.4056  179.8
 2.540  0.8423  140.4   1.105   35.4  0.1310   50.3  0.4067  179.6
 2.560  0.8426  140.1   1.097   34.9  0.1319   50.2  0.4079  179.5
 2.580  0.8428  139.8   1.089   34.5  0.1329   50.1  0.4091  179.3
 2.600  0.8431  139.5   1.081   34.1  0.1338   50.0  0.4103  179.1
 2.620  0.8436  139.2   1.073   33.8  0.1347   49.9  0.4114  178.9
 2.640  0.8441  138.8   1.066   33.4  0.1356   49.7  0.4125  178.8
 2.660  0.8446  138.5   1.058   33.0  0.1366   49.6  0.4136  178.6
 2.680  0.8452  138.1   1.050   32.7  0.1375   49.5  0.4147  178.5
 2.700  0.8458  137.8   1.043   32.3  0.1384   49.3  0.4158  178.3
 2.720  0.8465  137.5   1.035   31.9  0.1393   49.2  0.4169  178.2
 2.740  0.8471  137.1   1.028   31.6  0.1402   49.1  0.4180  178.0
 2.760  0.8478  136.8   1.021   31.2  0.1412   48.9  0.4192  177.9
 2.780  0.8485  136.4   1.013   30.8  0.1421   48.8  0.4203  177.7
 2.800  0.8493  136.1   1.006   30.4  0.1430   48.7  0.4214  177.6
 2.820  0.8496  135.8   0.999   30.1  0.1439   48.5  0.4227  177.4
 2.840  0.8498  135.5   0.993   29.7  0.1449   48.4  0.4240  177.2
 2.860  0.8501  135.2   0.986   29.3  0.1458   48.2  0.4254  177.0
 2.880  0.8505  134.9   0.980   29.0  0.1467   48.0  0.4267  176.7
 2.900  0.8508  134.6   0.973   28.6  0.1476   47.9  0.4280  176.5
 2.920  0.8512  134.3   0.967   28.2  0.1486   47.7  0.4294  176.3
 2.940  0.8516  134.0   0.961   27.9  0.1495   47.6  0.4307  176.1
 2.960  0.8520  133.7   0.954   27.5  0.1504   47.4  0.4321  175.9
 2.980  0.8524  133.4   0.948   27.1  0.1514   47.3  0.4334  175.7
 3.000  0.8529  133.1   0.942   26.7  0.1523   47.1  0.4348  175.5
 3.100  0.8547  131.5   0.915   25.0  0.1566   46.3  0.4407  174.6
 3.200  0.8571  129.9   0.889   23.2  0.1610   45.5  0.4468  173.7
 3.300  0.8594  128.4   0.863   21.5  0.1653   44.8  0.4537  172.6
 3.400  0.8623  126.9   0.837   19.6  0.1697   44.1  0.4608  171.6
 3.500  0.8643  125.5   0.814   18.0  0.1733   43.3  0.4666  170.8
 3.600  0.8668  124.1   0.791   16.3  0.1770   42.5  0.4724  170.0
 3.700  0.8658  122.7   0.767   14.7  0.1804   41.6  0.4785  168.9
 3.800  0.8653  121.2   0.744   13.1  0.1839   40.7  0.4848  167.8
 3.900  0.8688  119.9   0.729   11.7  0.1885   40.0  0.4940  167.0
 4.000  0.8727  118.6   0.714   10.2  0.1932   39.4  0.5033  166.3
 4.100  0.8723  117.4   0.696    9.0  0.1969   38.5  0.5107  165.2
 4.200  0.8722  116.2   0.679    7.7  0.2005   37.6  0.5184  164.2
 4.300  0.8726  114.9   0.662    6.3  0.2043   36.8  0.5261  163.1
 4.400  0.8733  113.7   0.646    4.9  0.2081   36.0  0.5341  162.2
 4.500  0.8745  112.5   0.630    3.4  0.2119   35.2  0.5422  161.2
 4.600  0.8737  111.5   0.617    2.5  0.2151   34.4  0.5474  160.2
 4.700  0.8732  110.6   0.604    1.5  0.2184   33.6  0.5527  159.3
 4.800  0.8729  109.6   0.591    0.5  0.2217   32.9  0.5581  158.3
 4.900  0.8728  108.7   0.578   -0.5  0.2251   32.1  0.5637  157.4
 5.000  0.8730  107.7   0.566   -1.6  0.2285   31.4  0.5695  156.5
 5.100  0.8719  106.9   0.555   -2.3  0.2320   30.7  0.5754  155.8
 5.200  0.8709  106.2   0.545   -3.1  0.2355   29.9  0.5813  155.1
 5.300  0.8701  105.4   0.534   -3.8  0.2391   29.2  0.5873  154.4
 5.400  0.8695  104.7   0.523   -4.7  0.2427   28.6  0.5934  153.8
 5.500  0.8690  103.9   0.513   -5.5  0.2463   27.9  0.5996  153.1
 5.600  0.8677  103.0   0.506   -6.1  0.2496   27.1  0.6037  152.4
 5.700  0.8666  102.1   0.499   -6.7  0.2530   26.4  0.6079  151.8
 5.800  0.8657  101.3   0.492   -7.3  0.2564   25.7  0.6122  151.1
 5.900  0.8651  100.4   0.485   -7.9  0.2599   25.0  0.6166  150.4
 6.000  0.8646   99.5   0.478   -8.6  0.2634   24.3  0.6210  149.8
!
!  f       NFmin   Gammaopt  rn/50
! GHz       dB    MAG  ANG    -
!
! noise parameter not available yet for this operation point!
!
! (c) 2016  Infineon Technologies AG, Munich
