! Infineon Technologies  Discrete & RF Semiconductors
! BFP181
! VCE = 2.0 V,  IC =  3.0 mA
! Common Emitter S-Parameters:                            Jan 2016
# GHz  S  MA  R  50
!  f         S11            S21            S12            S22
! GHz     MAG   ANG      MAG   ANG      MAG   ANG      MAG   ANG
 0.010  0.8979   -1.5   9.050  179.1  0.0013   89.3  0.9943   -0.6
 0.015  0.8995   -2.3   9.090  178.7  0.0020   86.1  0.9950   -0.9
 0.020  0.9013   -3.0   9.130  178.3  0.0027   84.5  0.9957   -1.2
 0.025  0.9012   -3.6   9.131  177.7  0.0035   86.2  0.9949   -1.5
 0.030  0.9012   -4.3   9.132  177.0  0.0043   87.3  0.9941   -1.8
 0.035  0.9013   -4.9   9.135  176.4  0.0051   88.1  0.9934   -2.1
 0.040  0.9015   -5.5   9.139  175.8  0.0059   88.7  0.9926   -2.5
 0.045  0.9018   -6.2   9.144  175.1  0.0067   89.1  0.9920   -2.8
 0.050  0.9022   -6.8   9.150  174.5  0.0075   89.4  0.9913   -3.1
 0.055  0.9003   -7.5   9.124  174.0  0.0081   88.2  0.9906   -3.4
 0.060  0.8986   -8.2   9.098  173.5  0.0087   87.1  0.9900   -3.7
 0.065  0.8970   -8.9   9.074  173.0  0.0093   86.2  0.9893   -4.0
 0.070  0.8955   -9.7   9.050  172.5  0.0099   85.4  0.9887   -4.3
 0.075  0.8942  -10.4   9.027  171.9  0.0105   84.7  0.9881   -4.5
 0.080  0.8931  -11.1   9.004  171.4  0.0111   84.1  0.9876   -4.8
 0.085  0.8920  -11.8   8.983  170.9  0.0118   83.5  0.9870   -5.1
 0.090  0.8911  -12.5   8.962  170.4  0.0124   83.0  0.9865   -5.4
 0.095  0.8904  -13.3   8.941  169.8  0.0130   82.5  0.9861   -5.7
 0.100  0.8898  -14.0   8.922  169.3  0.0136   82.1  0.9856   -6.0
 0.105  0.8881  -14.6   8.916  168.8  0.0143   81.4  0.9844   -6.3
 0.110  0.8866  -15.3   8.911  168.2  0.0151   80.7  0.9832   -6.6
 0.115  0.8851  -15.9   8.906  167.7  0.0158   80.1  0.9820   -6.9
 0.120  0.8838  -16.6   8.903  167.1  0.0165   79.5  0.9809   -7.2
 0.125  0.8825  -17.2   8.900  166.6  0.0173   79.0  0.9798   -7.5
 0.130  0.8814  -17.9   8.898  166.0  0.0180   78.5  0.9787   -7.8
 0.135  0.8804  -18.5   8.897  165.5  0.0188   78.1  0.9776   -8.1
 0.140  0.8795  -19.2   8.896  164.9  0.0195   77.7  0.9766   -8.4
 0.145  0.8788  -19.8   8.897  164.4  0.0203   77.3  0.9756   -8.7
 0.150  0.8781  -20.5   8.898  163.8  0.0210   77.0  0.9746   -9.0
 0.155  0.8758  -21.2   8.882  163.3  0.0217   76.7  0.9731   -9.3
 0.160  0.8737  -21.9   8.866  162.8  0.0224   76.4  0.9717   -9.6
 0.165  0.8717  -22.5   8.851  162.3  0.0231   76.1  0.9702   -9.9
 0.170  0.8698  -23.2   8.837  161.7  0.0238   75.8  0.9688  -10.2
 0.175  0.8680  -23.9   8.823  161.2  0.0244   75.6  0.9674  -10.4
 0.180  0.8663  -24.6   8.811  160.7  0.0251   75.3  0.9661  -10.7
 0.185  0.8648  -25.3   8.799  160.2  0.0258   75.1  0.9647  -11.0
 0.190  0.8634  -26.0   8.787  159.7  0.0265   74.9  0.9634  -11.3
 0.195  0.8621  -26.7   8.777  159.1  0.0272   74.7  0.9622  -11.6
 0.200  0.8610  -27.4   8.767  158.6  0.0279   74.5  0.9609  -11.9
 0.220  0.8539  -29.9   8.651  156.6  0.0301   72.8  0.9540  -12.9
 0.240  0.8484  -32.4   8.545  154.5  0.0324   71.4  0.9475  -14.0
 0.260  0.8407  -35.0   8.465  152.7  0.0346   69.9  0.9404  -15.0
 0.280  0.8307  -37.6   8.406  151.0  0.0368   68.5  0.9327  -16.0
 0.300  0.8225  -40.2   8.354  149.3  0.0391   67.2  0.9254  -17.0
 0.320  0.8086  -42.5   8.237  147.4  0.0411   65.8  0.9165  -17.9
 0.340  0.7961  -44.9   8.130  145.4  0.0432   64.6  0.9079  -18.7
 0.360  0.7850  -47.3   8.032  143.4  0.0452   63.5  0.8995  -19.6
 0.380  0.7753  -49.8   7.944  141.4  0.0473   62.4  0.8913  -20.6
 0.400  0.7672  -52.4   7.867  139.3  0.0494   61.5  0.8833  -21.5
 0.420  0.7550  -54.5   7.733  137.8  0.0509   60.2  0.8746  -22.2
 0.440  0.7438  -56.7   7.604  136.3  0.0525   59.0  0.8660  -22.9
 0.450  0.7386  -57.8   7.542  135.5  0.0533   58.4  0.8618  -23.3
 0.460  0.7337  -58.9   7.481  134.7  0.0541   57.8  0.8576  -23.7
 0.480  0.7248  -61.2   7.365  133.0  0.0557   56.7  0.8493  -24.4
 0.500  0.7171  -63.6   7.254  131.3  0.0573   55.7  0.8412  -25.2
 0.520  0.7055  -65.6   7.150  129.9  0.0586   54.7  0.8332  -25.8
 0.540  0.6947  -67.7   7.049  128.5  0.0600   53.7  0.8252  -26.4
 0.560  0.6849  -69.8   6.953  127.1  0.0614   52.8  0.8173  -27.0
 0.580  0.6761  -72.0   6.862  125.6  0.0628   51.9  0.8096  -27.7
 0.600  0.6683  -74.3   6.775  124.1  0.0642   51.1  0.8019  -28.3
 0.620  0.6577  -76.1   6.660  122.8  0.0653   50.4  0.7941  -28.8
 0.640  0.6477  -78.0   6.549  121.6  0.0664   49.6  0.7863  -29.3
 0.660  0.6385  -79.9   6.441  120.2  0.0675   48.9  0.7787  -29.9
 0.680  0.6299  -81.9   6.337  118.8  0.0686   48.3  0.7710  -30.4
 0.700  0.6222  -83.9   6.236  117.4  0.0697   47.6  0.7635  -31.0
 0.720  0.6119  -85.6   6.152  116.3  0.0706   46.9  0.7566  -31.4
 0.740  0.6022  -87.4   6.070  115.1  0.0715   46.3  0.7498  -31.7
 0.760  0.5932  -89.3   5.990  113.9  0.0724   45.7  0.7430  -32.1
 0.780  0.5847  -91.2   5.914  112.7  0.0734   45.1  0.7362  -32.5
 0.800  0.5769  -93.1   5.840  111.4  0.0743   44.5  0.7295  -32.9
 0.820  0.5681  -94.8   5.754  110.4  0.0751   43.9  0.7236  -33.2
 0.840  0.5599  -96.6   5.670  109.3  0.0759   43.3  0.7177  -33.6
 0.860  0.5522  -98.4   5.588  108.3  0.0767   42.7  0.7118  -34.0
 0.880  0.5451 -100.3   5.508  107.1  0.0775   42.2  0.7059  -34.3
 0.900  0.5386 -102.2   5.430  106.0  0.0783   41.6  0.7001  -34.7
 0.920  0.5317 -103.9   5.345  105.1  0.0788   41.1  0.6949  -35.0
 0.940  0.5252 -105.7   5.261  104.1  0.0792   40.7  0.6897  -35.3
 0.960  0.5193 -107.5   5.179  103.2  0.0797   40.3  0.6846  -35.6
 0.980  0.5139 -109.4   5.098  102.1  0.0802   39.8  0.6794  -36.0
 1.000  0.5091 -111.3   5.019  101.1  0.0807   39.4  0.6743  -36.3
 1.020  0.5026 -112.8   4.956  100.2  0.0814   39.1  0.6700  -36.6
 1.040  0.4964 -114.4   4.895   99.2  0.0820   38.7  0.6657  -36.8
 1.060  0.4906 -116.0   4.835   98.2  0.0827   38.4  0.6615  -37.1
 1.080  0.4852 -117.6   4.777   97.2  0.0833   38.1  0.6572  -37.4
 1.100  0.4802 -119.3   4.720   96.2  0.0840   37.8  0.6530  -37.7
 1.120  0.4749 -120.9   4.655   95.4  0.0846   37.4  0.6494  -38.0
 1.140  0.4699 -122.4   4.592   94.7  0.0851   37.0  0.6458  -38.3
 1.160  0.4653 -124.1   4.529   93.9  0.0857   36.6  0.6422  -38.5
 1.180  0.4611 -125.7   4.467   93.0  0.0862   36.3  0.6386  -38.8
 1.200  0.4573 -127.4   4.406   92.2  0.0868   35.9  0.6350  -39.1
 1.220  0.4541 -128.9   4.349   91.4  0.0872   35.7  0.6316  -39.3
 1.240  0.4512 -130.3   4.292   90.7  0.0877   35.4  0.6282  -39.6
 1.260  0.4486 -131.8   4.236   89.9  0.0881   35.2  0.6249  -39.8
 1.280  0.4464 -133.4   4.181   89.0  0.0886   34.9  0.6215  -40.1
 1.300  0.4444 -134.9   4.127   88.2  0.0890   34.7  0.6182  -40.3
 1.320  0.4395 -136.4   4.081   87.5  0.0894   34.4  0.6152  -40.5
 1.340  0.4348 -137.9   4.036   86.7  0.0898   34.1  0.6122  -40.8
 1.360  0.4305 -139.5   3.992   86.0  0.0902   33.9  0.6092  -41.0
 1.380  0.4265 -141.1   3.948   85.2  0.0906   33.6  0.6063  -41.3
 1.400  0.4229 -142.7   3.905   84.4  0.0910   33.3  0.6033  -41.5
 1.420  0.4207 -144.3   3.863   83.6  0.0914   33.2  0.6005  -41.7
 1.440  0.4188 -145.9   3.821   82.9  0.0918   33.1  0.5978  -41.9
 1.460  0.4172 -147.5   3.780   82.1  0.0921   33.0  0.5950  -42.1
 1.480  0.4160 -149.1   3.740   81.2  0.0925   32.9  0.5922  -42.3
 1.500  0.4151 -150.7   3.701   80.4  0.0929   32.8  0.5895  -42.5
 1.520  0.4126 -152.1   3.660   79.8  0.0933   32.6  0.5874  -42.7
 1.540  0.4104 -153.5   3.619   79.1  0.0937   32.4  0.5853  -42.9
 1.560  0.4085 -155.0   3.579   78.4  0.0940   32.3  0.5832  -43.1
 1.580  0.4068 -156.4   3.539   77.7  0.0944   32.1  0.5812  -43.3
 1.600  0.4054 -157.9   3.500   77.0  0.0948   31.9  0.5791  -43.5
 1.620  0.4032 -159.3   3.463   76.3  0.0951   31.8  0.5765  -43.8
 1.640  0.4012 -160.7   3.427   75.7  0.0954   31.6  0.5740  -44.0
 1.660  0.3994 -162.2   3.392   75.0  0.0957   31.5  0.5714  -44.3
 1.680  0.3979 -163.6   3.357   74.3  0.0960   31.3  0.5689  -44.5
 1.700  0.3967 -165.1   3.322   73.6  0.0963   31.2  0.5664  -44.8
 1.720  0.3961 -166.5   3.288   73.0  0.0966   31.1  0.5645  -45.0
 1.740  0.3958 -167.8   3.255   72.3  0.0970   31.1  0.5627  -45.2
 1.760  0.3957 -169.2   3.222   71.7  0.0973   31.0  0.5609  -45.4
 1.780  0.3958 -170.5   3.189   71.0  0.0977   31.0  0.5590  -45.6
 1.800  0.3961 -171.9   3.157   70.3  0.0980   30.9  0.5572  -45.8
 1.820  0.3960 -173.0   3.127   69.7  0.0984   30.7  0.5554  -46.1
 1.840  0.3961 -174.1   3.097   69.1  0.0989   30.5  0.5537  -46.3
 1.860  0.3964 -175.2   3.068   68.5  0.0993   30.2  0.5519  -46.6
 1.880  0.3968 -176.3   3.039   67.9  0.0998   30.0  0.5502  -46.8
 1.900  0.3973 -177.4   3.010   67.3  0.1002   29.8  0.5485  -47.1
 1.920  0.3965 -178.7   2.981   66.7  0.1006   29.7  0.5471  -47.3
 1.940  0.3958 -180.0   2.952   66.1  0.1009   29.6  0.5458  -47.5
 1.960  0.3954  178.7   2.924   65.5  0.1013   29.5  0.5445  -47.8
 1.980  0.3952  177.4   2.896   64.9  0.1016   29.4  0.5431  -48.0
 2.000  0.3952  176.1   2.868   64.3  0.1020   29.3  0.5418  -48.2
 2.020  0.3950  174.9   2.843   63.8  0.1023   29.2  0.5403  -48.5
 2.040  0.3949  173.7   2.818   63.2  0.1026   29.2  0.5387  -48.7
 2.060  0.3950  172.6   2.793   62.6  0.1030   29.1  0.5372  -49.0
 2.080  0.3953  171.4   2.769   62.1  0.1033   29.0  0.5357  -49.2
 2.100  0.3957  170.2   2.745   61.5  0.1036   28.9  0.5342  -49.5
 2.120  0.3963  169.0   2.721   60.9  0.1039   28.9  0.5327  -49.7
 2.140  0.3971  167.9   2.698   60.3  0.1042   28.8  0.5313  -50.0
 2.160  0.3980  166.7   2.674   59.7  0.1046   28.7  0.5298  -50.3
 2.180  0.3991  165.6   2.652   59.0  0.1049   28.7  0.5283  -50.5
 2.200  0.4004  164.4   2.629   58.4  0.1052   28.6  0.5269  -50.8
 2.220  0.4009  163.3   2.608   57.9  0.1056   28.5  0.5257  -51.1
 2.240  0.4015  162.2   2.587   57.4  0.1060   28.4  0.5245  -51.3
 2.260  0.4023  161.2   2.566   56.9  0.1063   28.3  0.5233  -51.6
 2.280  0.4032  160.1   2.545   56.3  0.1067   28.2  0.5221  -51.8
 2.300  0.4043  159.0   2.525   55.8  0.1071   28.1  0.5210  -52.1
 2.320  0.4055  158.0   2.504   55.3  0.1075   28.0  0.5198  -52.3
 2.340  0.4069  156.9   2.485   54.7  0.1079   27.9  0.5187  -52.6
 2.360  0.4083  155.9   2.465   54.2  0.1082   27.8  0.5175  -52.9
 2.380  0.4100  154.8   2.445   53.6  0.1086   27.7  0.5164  -53.1
 2.400  0.4117  153.8   2.426   53.0  0.1090   27.6  0.5153  -53.4
 2.420  0.4131  152.8   2.407   52.5  0.1093   27.5  0.5138  -53.7
 2.440  0.4146  151.9   2.388   52.0  0.1096   27.5  0.5123  -53.9
 2.460  0.4163  150.9   2.370   51.5  0.1098   27.4  0.5108  -54.2
 2.480  0.4180  150.0   2.352   51.0  0.1101   27.4  0.5093  -54.5
 2.500  0.4199  149.0   2.334   50.5  0.1104   27.3  0.5078  -54.8
 2.520  0.4218  148.1   2.316   50.0  0.1107   27.3  0.5063  -55.1
 2.540  0.4239  147.2   2.298   49.4  0.1110   27.2  0.5049  -55.3
 2.560  0.4261  146.3   2.280   48.9  0.1112   27.2  0.5034  -55.6
 2.580  0.4284  145.4   2.263   48.4  0.1115   27.1  0.5020  -55.9
 2.600  0.4308  144.5   2.246   47.8  0.1118   27.1  0.5006  -56.2
 2.620  0.4320  143.7   2.229   47.3  0.1121   27.0  0.4998  -56.5
 2.640  0.4333  142.9   2.213   46.8  0.1125   26.9  0.4990  -56.8
 2.660  0.4346  142.1   2.196   46.3  0.1128   26.8  0.4983  -57.1
 2.680  0.4361  141.3   2.180   45.7  0.1132   26.7  0.4975  -57.3
 2.700  0.4376  140.5   2.164   45.2  0.1135   26.5  0.4968  -57.6
 2.720  0.4392  139.7   2.148   44.7  0.1139   26.4  0.4961  -57.9
 2.740  0.4409  138.9   2.133   44.1  0.1142   26.3  0.4954  -58.2
 2.760  0.4427  138.1   2.117   43.5  0.1146   26.2  0.4947  -58.5
 2.780  0.4446  137.4   2.102   43.0  0.1149   26.1  0.4940  -58.8
 2.800  0.4465  136.6   2.087   42.4  0.1153   26.0  0.4933  -59.1
 2.820  0.4481  135.8   2.074   41.9  0.1156   25.9  0.4920  -59.4
 2.840  0.4498  135.0   2.060   41.5  0.1160   25.9  0.4908  -59.7
 2.860  0.4516  134.2   2.047   41.0  0.1163   25.8  0.4895  -60.0
 2.880  0.4535  133.4   2.034   40.5  0.1167   25.8  0.4883  -60.3
 2.900  0.4554  132.6   2.022   40.0  0.1170   25.7  0.4871  -60.6
 2.920  0.4575  131.8   2.009   39.5  0.1173   25.7  0.4859  -60.9
 2.940  0.4596  131.1   1.997   39.0  0.1177   25.6  0.4847  -61.2
 2.960  0.4618  130.3   1.984   38.5  0.1180   25.6  0.4835  -61.5
 2.980  0.4641  129.5   1.972   38.0  0.1184   25.5  0.4823  -61.8
 3.000  0.4665  128.8   1.960   37.5  0.1187   25.5  0.4812  -62.1
 3.100  0.4736  125.5   1.896   35.5  0.1206   25.1  0.4772  -63.8
 3.200  0.4823  122.2   1.834   33.3  0.1226   24.7  0.4736  -65.5
 3.300  0.4924  119.1   1.776   31.0  0.1245   24.3  0.4704  -67.2
 3.400  0.5040  116.1   1.720   28.5  0.1264   24.0  0.4676  -68.9
 3.500  0.5168  113.3   1.668   25.9  0.1284   23.6  0.4653  -70.7
 3.600  0.5251  110.9   1.620   24.0  0.1302   23.1  0.4613  -72.6
 3.700  0.5343  108.5   1.574   22.0  0.1321   22.6  0.4579  -74.5
 3.800  0.5444  106.3   1.530   19.8  0.1340   22.2  0.4549  -76.4
 3.900  0.5552  104.1   1.488   17.6  0.1358   21.7  0.4525  -78.4
 4.000  0.5669  102.0   1.449   15.2  0.1377   21.3  0.4506  -80.4
 4.100  0.5737   99.9   1.409   13.4  0.1393   20.8  0.4475  -82.5
 4.200  0.5812   97.9   1.371   11.5  0.1410   20.3  0.4450  -84.6
 4.300  0.5895   96.0   1.334    9.5  0.1426   19.9  0.4432  -86.8
 4.400  0.5984   94.0   1.298    7.4  0.1442   19.4  0.4419  -88.9
 4.500  0.6079   92.2   1.265    5.2  0.1459   19.0  0.4413  -91.1
 4.600  0.6136   90.7   1.235    3.6  0.1477   18.7  0.4390  -93.2
 4.700  0.6197   89.1   1.205    2.0  0.1496   18.3  0.4373  -95.4
 4.800  0.6262   87.7   1.177    0.3  0.1514   18.0  0.4362  -97.6
 4.900  0.6332   86.2   1.150   -1.5  0.1533   17.7  0.4357  -99.7
 5.000  0.6405   84.8   1.124   -3.4  0.1551   17.4  0.4359 -101.9
 5.100  0.6454   83.5   1.099   -5.0  0.1575   16.9  0.4361 -104.2
 5.200  0.6507   82.2   1.074   -6.6  0.1600   16.5  0.4370 -106.4
 5.300  0.6563   80.9   1.050   -8.3  0.1625   16.0  0.4385 -108.7
 5.400  0.6623   79.6   1.028  -10.1  0.1649   15.6  0.4407 -110.9
 5.500  0.6685   78.4   1.006  -12.0  0.1674   15.2  0.4436 -113.1
 5.600  0.6753   77.2   0.984  -13.5  0.1697   14.6  0.4449 -115.4
 5.700  0.6825   76.0   0.963  -15.1  0.1720   14.0  0.4469 -117.7
 5.800  0.6899   74.9   0.942  -16.7  0.1743   13.4  0.4495 -119.9
 5.900  0.6976   73.8   0.923  -18.4  0.1766   12.8  0.4529 -122.1
 6.000  0.7055   72.7   0.904  -20.2  0.1790   12.2  0.4569 -124.3
!
!  f       NFmin   Gammaopt  rn/50
! GHz       dB    MAG  ANG    -
 0.450      1.40  0.56   17   0.36
 0.900      1.50  0.45   35   0.34
 1.800      1.85  0.25   82   0.36
!
! (c) 2016  Infineon Technologies AG, Munich
