! Infineon Technologies  Discrete & RF Semiconductors
! BFP196
! VCE = 1.7 V,  IC =  10mA
! Common Emitter S-Parameters:                            Jan 2016
# GHz  S  MA  R  50
!  f         S11            S21            S12            S22
! GHz     MAG   ANG      MAG   ANG      MAG   ANG      MAG   ANG
 0.010  0.6799  -12.7  27.872  174.7  0.0057   84.1  0.9741   -6.6
 0.015  0.6731  -18.6  27.491  171.1  0.0085   79.3  0.9637   -9.6
 0.020  0.6735  -24.6  27.222  167.4  0.0114   76.9  0.9560  -12.6
 0.025  0.6601  -29.9  26.689  164.9  0.0138   73.3  0.9361  -15.2
 0.030  0.6526  -35.4  26.208  162.3  0.0162   70.8  0.9181  -18.0
 0.035  0.6512  -40.9  25.783  159.7  0.0187   68.9  0.9024  -20.8
 0.040  0.6558  -46.4  25.415  156.9  0.0211   67.5  0.8890  -23.7
 0.045  0.6664  -51.8  25.107  154.1  0.0236   66.3  0.8779  -26.7
 0.050  0.6827  -57.0  24.862  151.2  0.0261   65.4  0.8693  -29.8
 0.055  0.6692  -60.8  24.218  149.6  0.0275   63.0  0.8469  -31.5
 0.060  0.6588  -64.7  23.595  147.9  0.0289   60.8  0.8252  -33.2
 0.065  0.6515  -68.7  22.993  146.1  0.0303   58.9  0.8043  -35.1
 0.070  0.6474  -72.8  22.414  144.2  0.0318   57.1  0.7844  -37.0
 0.075  0.6468  -76.9  21.861  142.3  0.0333   55.5  0.7653  -39.1
 0.080  0.6494  -81.1  21.335  140.2  0.0348   54.0  0.7473  -41.2
 0.085  0.6554  -85.1  20.838  138.0  0.0364   52.6  0.7304  -43.4
 0.090  0.6646  -89.1  20.373  135.8  0.0379   51.4  0.7147  -45.8
 0.095  0.6769  -92.9  19.941  133.4  0.0395   50.3  0.7002  -48.3
 0.100  0.6921  -96.6  19.545  130.9  0.0411   49.2  0.6871  -50.8
 0.105  0.6868  -99.0  19.073  129.8  0.0417   48.1  0.6712  -51.9
 0.110  0.6827 -101.5  18.608  128.7  0.0424   47.1  0.6556  -53.0
 0.115  0.6800 -103.9  18.150  127.5  0.0431   46.1  0.6402  -54.1
 0.120  0.6784 -106.4  17.700  126.3  0.0438   45.1  0.6251  -55.3
 0.125  0.6782 -108.9  17.259  125.0  0.0445   44.1  0.6103  -56.6
 0.130  0.6793 -111.4  16.827  123.6  0.0452   43.2  0.5958  -58.0
 0.135  0.6816 -113.9  16.406  122.2  0.0459   42.3  0.5816  -59.4
 0.140  0.6852 -116.4  15.995  120.7  0.0466   41.5  0.5679  -60.8
 0.145  0.6901 -118.8  15.596  119.1  0.0473   40.6  0.5545  -62.4
 0.150  0.6962 -121.2  15.210  117.4  0.0481   39.8  0.5415  -64.0
 0.155  0.6944 -122.7  14.905  116.7  0.0485   39.3  0.5313  -64.7
 0.160  0.6932 -124.2  14.603  116.0  0.0488   38.8  0.5211  -65.5
 0.165  0.6924 -125.8  14.302  115.2  0.0492   38.3  0.5111  -66.3
 0.170  0.6921 -127.3  14.005  114.4  0.0496   37.9  0.5011  -67.1
 0.175  0.6923 -128.8  13.710  113.6  0.0500   37.4  0.4913  -68.0
 0.180  0.6930 -130.4  13.418  112.7  0.0503   37.0  0.4816  -68.9
 0.185  0.6942 -131.9  13.130  111.8  0.0507   36.5  0.4720  -69.8
 0.190  0.6959 -133.4  12.844  110.9  0.0511   36.1  0.4625  -70.7
 0.195  0.6981 -134.9  12.563  109.9  0.0515   35.6  0.4532  -71.8
 0.200  0.7007 -136.4  12.285  108.9  0.0519   35.2  0.4440  -72.8
 0.220  0.6988 -140.9  11.394  106.7  0.0530   34.2  0.4159  -75.1
 0.240  0.7013 -145.4  10.523  104.1  0.0542   33.2  0.3886  -77.7
 0.260  0.7032 -149.2   9.794  101.8  0.0552   32.5  0.3662  -80.2
 0.280  0.7030 -152.3   9.194  100.0  0.0559   32.2  0.3483  -82.2
 0.300  0.7048 -155.4   8.604   98.0  0.0566   31.8  0.3309  -84.5
 0.320  0.7036 -157.7   8.198   96.9  0.0573   31.8  0.3183  -85.8
 0.340  0.7036 -160.1   7.795   95.6  0.0580   31.8  0.3058  -87.2
 0.360  0.7047 -162.4   7.397   94.3  0.0587   31.8  0.2935  -88.7
 0.380  0.7070 -164.7   7.003   92.7  0.0594   31.8  0.2815  -90.4
 0.400  0.7105 -167.0   6.615   91.0  0.0601   31.8  0.2697  -92.2
 0.420  0.7095 -168.5   6.350   90.1  0.0606   32.1  0.2627  -93.2
 0.440  0.7089 -170.1   6.086   89.0  0.0611   32.3  0.2558  -94.3
 0.450  0.7088 -170.8   5.955   88.5  0.0614   32.5  0.2524  -94.9
 0.460  0.7089 -171.6   5.824   87.9  0.0617   32.6  0.2490  -95.4
 0.480  0.7094 -173.2   5.565   86.7  0.0622   32.8  0.2423  -96.6
 0.500  0.7104 -174.7   5.309   85.4  0.0627   33.1  0.2357  -97.9
 0.520  0.7100 -176.1   5.137   84.5  0.0635   33.4  0.2319  -98.8
 0.540  0.7100 -177.5   4.966   83.6  0.0643   33.6  0.2282  -99.7
 0.560  0.7104 -178.8   4.797   82.6  0.0650   33.9  0.2246 -100.6
 0.580  0.7113  179.8   4.630   81.5  0.0658   34.2  0.2210 -101.5
 0.600  0.7125  178.4   4.464   80.3  0.0666   34.4  0.2175 -102.5
 0.620  0.7125  177.2   4.340   79.5  0.0674   34.8  0.2152 -103.3
 0.640  0.7128  176.1   4.218   78.6  0.0681   35.1  0.2129 -104.0
 0.660  0.7134  174.9   4.096   77.6  0.0689   35.5  0.2107 -104.8
 0.680  0.7143  173.8   3.975   76.7  0.0696   35.9  0.2085 -105.7
 0.700  0.7155  172.6   3.856   75.6  0.0704   36.2  0.2064 -106.5
 0.720  0.7159  171.7   3.759   74.9  0.0712   36.5  0.2050 -107.3
 0.740  0.7165  170.8   3.663   74.2  0.0720   36.7  0.2037 -108.1
 0.760  0.7172  170.0   3.568   73.4  0.0728   37.0  0.2024 -108.9
 0.780  0.7181  169.1   3.473   72.6  0.0736   37.3  0.2012 -109.7
 0.800  0.7192  168.2   3.379   71.8  0.0744   37.5  0.2000 -110.5
 0.820  0.7185  167.2   3.302   71.1  0.0753   37.8  0.1991 -111.1
 0.840  0.7180  166.2   3.226   70.3  0.0762   38.1  0.1983 -111.6
 0.860  0.7177  165.3   3.150   69.6  0.0770   38.4  0.1974 -112.2
 0.880  0.7176  164.3   3.075   68.8  0.0779   38.6  0.1966 -112.8
 0.900  0.7177  163.3   3.001   67.9  0.0788   38.9  0.1958 -113.4
 0.920  0.7183  162.4   2.943   67.2  0.0796   39.2  0.1959 -113.9
 0.940  0.7190  161.5   2.884   66.5  0.0805   39.4  0.1960 -114.4
 0.960  0.7199  160.6   2.827   65.8  0.0813   39.6  0.1962 -114.9
 0.980  0.7210  159.7   2.770   65.1  0.0822   39.9  0.1963 -115.4
 1.000  0.7223  158.8   2.713   64.3  0.0830   40.1  0.1965 -115.9
 1.020  0.7231  158.0   2.665   63.6  0.0839   40.3  0.1970 -116.4
 1.040  0.7240  157.2   2.617   62.9  0.0848   40.5  0.1975 -116.9
 1.060  0.7251  156.5   2.569   62.2  0.0857   40.7  0.1980 -117.5
 1.080  0.7263  155.7   2.522   61.5  0.0866   40.9  0.1985 -118.0
 1.100  0.7276  154.9   2.475   60.7  0.0875   41.1  0.1990 -118.5
 1.120  0.7287  154.1   2.434   60.1  0.0885   41.2  0.1995 -119.0
 1.140  0.7299  153.3   2.393   59.4  0.0895   41.4  0.2001 -119.6
 1.160  0.7313  152.6   2.353   58.8  0.0905   41.5  0.2006 -120.1
 1.180  0.7328  151.8   2.313   58.1  0.0915   41.7  0.2012 -120.7
 1.200  0.7344  151.0   2.273   57.4  0.0925   41.8  0.2018 -121.2
 1.220  0.7334  150.2   2.238   56.8  0.0935   41.9  0.2023 -121.7
 1.240  0.7325  149.5   2.202   56.1  0.0946   42.0  0.2028 -122.2
 1.260  0.7317  148.7   2.168   55.4  0.0956   42.1  0.2033 -122.7
 1.280  0.7310  148.0   2.133   54.7  0.0967   42.2  0.2038 -123.2
 1.300  0.7305  147.2   2.099   54.0  0.0977   42.3  0.2044 -123.7
 1.320  0.7323  146.5   2.069   53.5  0.0986   42.4  0.2055 -124.1
 1.340  0.7343  145.9   2.039   52.9  0.0996   42.5  0.2065 -124.5
 1.360  0.7363  145.2   2.009   52.4  0.1005   42.5  0.2076 -124.9
 1.380  0.7385  144.6   1.979   51.8  0.1015   42.6  0.2087 -125.3
 1.400  0.7407  143.9   1.950   51.2  0.1024   42.7  0.2098 -125.7
 1.420  0.7402  143.2   1.927   50.6  0.1035   42.7  0.2109 -126.2
 1.440  0.7397  142.5   1.904   50.0  0.1046   42.8  0.2121 -126.8
 1.460  0.7394  141.9   1.881   49.3  0.1058   42.8  0.2132 -127.3
 1.480  0.7392  141.2   1.859   48.7  0.1069   42.9  0.2144 -127.8
 1.500  0.7391  140.5   1.837   48.0  0.1080   42.9  0.2156 -128.3
 1.520  0.7405  139.8   1.811   47.4  0.1091   43.0  0.2165 -128.9
 1.540  0.7421  139.1   1.785   46.7  0.1102   43.1  0.2174 -129.4
 1.560  0.7438  138.5   1.759   46.1  0.1114   43.1  0.2184 -130.0
 1.580  0.7455  137.8   1.733   45.4  0.1125   43.2  0.2193 -130.5
 1.600  0.7474  137.1   1.708   44.7  0.1136   43.3  0.2203 -131.1
 1.620  0.7477  136.4   1.688   44.1  0.1146   43.3  0.2211 -131.6
 1.640  0.7481  135.6   1.668   43.5  0.1156   43.3  0.2219 -132.2
 1.660  0.7486  134.9   1.649   42.9  0.1166   43.3  0.2228 -132.7
 1.680  0.7493  134.1   1.629   42.3  0.1176   43.3  0.2236 -133.2
 1.700  0.7501  133.4   1.610   41.7  0.1186   43.3  0.2245 -133.7
 1.720  0.7514  132.8   1.593   41.2  0.1199   43.2  0.2259 -134.0
 1.740  0.7528  132.2   1.576   40.7  0.1211   43.2  0.2273 -134.3
 1.760  0.7543  131.7   1.560   40.2  0.1224   43.1  0.2287 -134.6
 1.780  0.7559  131.1   1.543   39.7  0.1236   43.1  0.2302 -134.9
 1.800  0.7575  130.5   1.527   39.2  0.1249   43.0  0.2316 -135.2
 1.820  0.7586  130.0   1.511   38.6  0.1261   43.0  0.2334 -135.8
 1.840  0.7598  129.4   1.496   38.0  0.1273   42.9  0.2353 -136.3
 1.860  0.7610  128.9   1.480   37.4  0.1284   42.9  0.2371 -136.8
 1.880  0.7623  128.3   1.465   36.8  0.1296   42.8  0.2390 -137.4
 1.900  0.7637  127.8   1.450   36.2  0.1308   42.8  0.2409 -137.9
 1.920  0.7643  127.2   1.434   35.7  0.1319   42.7  0.2418 -138.4
 1.940  0.7650  126.6   1.419   35.1  0.1330   42.6  0.2428 -139.0
 1.960  0.7657  126.0   1.403   34.6  0.1340   42.5  0.2437 -139.5
 1.980  0.7666  125.4   1.388   34.0  0.1351   42.4  0.2447 -140.0
 2.000  0.7675  124.8   1.373   33.4  0.1362   42.3  0.2457 -140.5
 2.020  0.7675  124.2   1.360   32.9  0.1374   42.2  0.2471 -141.0
 2.040  0.7677  123.6   1.346   32.4  0.1386   42.1  0.2486 -141.4
 2.060  0.7679  123.1   1.333   31.9  0.1398   42.0  0.2500 -141.9
 2.080  0.7682  122.5   1.320   31.4  0.1410   41.9  0.2515 -142.4
 2.100  0.7685  121.9   1.307   30.8  0.1422   41.8  0.2530 -142.8
 2.120  0.7690  121.3   1.294   30.3  0.1435   41.7  0.2545 -143.3
 2.140  0.7695  120.7   1.281   29.7  0.1447   41.7  0.2560 -143.7
 2.160  0.7701  120.2   1.269   29.2  0.1459   41.6  0.2575 -144.1
 2.180  0.7707  119.6   1.256   28.6  0.1471   41.5  0.2590 -144.6
 2.200  0.7715  119.0   1.244   28.0  0.1483   41.4  0.2606 -145.0
 2.220  0.7726  118.4   1.234   27.5  0.1494   41.3  0.2621 -145.6
 2.240  0.7738  117.8   1.224   27.0  0.1505   41.1  0.2637 -146.1
 2.260  0.7751  117.2   1.214   26.4  0.1517   41.0  0.2653 -146.7
 2.280  0.7765  116.6   1.204   25.9  0.1528   40.8  0.2669 -147.2
 2.300  0.7779  116.0   1.195   25.4  0.1539   40.7  0.2686 -147.7
 2.320  0.7795  115.4   1.185   24.8  0.1550   40.5  0.2702 -148.3
 2.340  0.7811  114.8   1.176   24.2  0.1561   40.4  0.2719 -148.8
 2.360  0.7828  114.2   1.166   23.7  0.1573   40.3  0.2736 -149.3
 2.380  0.7846  113.6   1.157   23.1  0.1584   40.1  0.2753 -149.8
 2.400  0.7865  113.0   1.148   22.5  0.1595   40.0  0.2771 -150.3
 2.420  0.7871  112.5   1.138   22.1  0.1607   39.8  0.2787 -150.8
 2.440  0.7879  112.0   1.128   21.6  0.1619   39.7  0.2803 -151.3
 2.460  0.7886  111.5   1.118   21.2  0.1631   39.5  0.2820 -151.8
 2.480  0.7895  110.9   1.108   20.7  0.1644   39.3  0.2836 -152.3
 2.500  0.7904  110.4   1.099   20.3  0.1656   39.2  0.2853 -152.8
 2.520  0.7913  109.9   1.089   19.8  0.1668   39.0  0.2870 -153.2
 2.540  0.7924  109.4   1.079   19.3  0.1680   38.9  0.2887 -153.7
 2.560  0.7934  108.9   1.070   18.8  0.1692   38.7  0.2905 -154.2
 2.580  0.7946  108.4   1.060   18.3  0.1705   38.5  0.2922 -154.6
 2.600  0.7958  107.9   1.051   17.8  0.1717   38.4  0.2940 -155.1
 2.620  0.7965  107.4   1.043   17.4  0.1728   38.2  0.2958 -155.6
 2.640  0.7973  106.9   1.035   16.9  0.1739   38.0  0.2976 -156.1
 2.660  0.7981  106.4   1.028   16.5  0.1750   37.9  0.2994 -156.7
 2.680  0.7990  105.8   1.020   16.0  0.1761   37.7  0.3012 -157.2
 2.700  0.7999  105.3   1.012   15.6  0.1772   37.5  0.3031 -157.7
 2.720  0.8009  104.8   1.005   15.1  0.1783   37.4  0.3050 -158.2
 2.740  0.8020  104.3   0.997   14.7  0.1795   37.2  0.3069 -158.7
 2.760  0.8031  103.8   0.990   14.2  0.1806   37.0  0.3089 -159.1
 2.780  0.8043  103.3   0.982   13.7  0.1817   36.9  0.3108 -159.6
 2.800  0.8056  102.8   0.975   13.2  0.1828   36.7  0.3128 -160.1
 2.820  0.8062  102.3   0.968   12.8  0.1839   36.5  0.3146 -160.6
 2.840  0.8069  101.9   0.960   12.4  0.1851   36.3  0.3165 -161.1
 2.860  0.8077  101.4   0.953   12.0  0.1863   36.0  0.3183 -161.6
 2.880  0.8085  100.9   0.946   11.5  0.1874   35.8  0.3202 -162.1
 2.900  0.8093  100.4   0.938   11.1  0.1886   35.6  0.3222 -162.6
 2.920  0.8102  100.0   0.931   10.6  0.1897   35.4  0.3241 -163.0
 2.940  0.8112   99.5   0.924   10.2  0.1909   35.2  0.3261 -163.5
 2.960  0.8122   99.0   0.917    9.7  0.1921   35.0  0.3281 -164.0
 2.980  0.8133   98.6   0.910    9.3  0.1932   34.8  0.3301 -164.4
 3.000  0.8144   98.1   0.903    8.8  0.1944   34.6  0.3321 -164.9
 3.100  0.8171   96.0   0.872    7.2  0.1994   33.4  0.3409 -167.5
 3.200  0.8210   93.9   0.842    5.5  0.2045   32.3  0.3504 -169.9
 3.300  0.8259   91.8   0.813    3.6  0.2097   31.2  0.3605 -172.3
 3.400  0.8319   89.7   0.784    1.6  0.2149   30.2  0.3711 -174.4
 3.500  0.8390   87.7   0.757   -0.5  0.2202   29.2  0.3823 -176.5
 3.600  0.8400   85.9   0.736   -1.8  0.2249   28.1  0.3921 -178.8
 3.700  0.8418   84.0   0.714   -3.2  0.2297   27.0  0.4025  179.1
 3.800  0.8445   82.2   0.694   -4.7  0.2346   26.0  0.4135  177.1
 3.900  0.8480   80.4   0.674   -6.2  0.2395   25.0  0.4249  175.1
 4.000  0.8524   78.6   0.654   -7.9  0.2445   24.0  0.4368  173.3
 4.100  0.8529   77.0   0.638   -9.0  0.2492   22.8  0.4456  171.3
 4.200  0.8541   75.5   0.622  -10.2  0.2540   21.6  0.4549  169.4
 4.300  0.8559   73.9   0.606  -11.5  0.2588   20.5  0.4646  167.6
 4.400  0.8583   72.3   0.590  -12.8  0.2638   19.4  0.4749  165.9
 4.500  0.8614   70.8   0.575  -14.2  0.2689   18.3  0.4855  164.2
 4.600  0.8623   69.5   0.564  -15.1  0.2729   17.1  0.4934  162.4
 4.700  0.8636   68.2   0.552  -16.0  0.2770   16.0  0.5018  160.7
 4.800  0.8654   66.9   0.541  -16.9  0.2812   14.8  0.5106  159.1
 4.900  0.8676   65.6   0.530  -17.9  0.2856   13.8  0.5198  157.5
 5.000  0.8703   64.3   0.519  -18.9  0.2900   12.7  0.5294  156.0
 5.100  0.8711   63.1   0.510  -19.6  0.2939   11.5  0.5365  154.3
 5.200  0.8723   61.8   0.502  -20.2  0.2980   10.3  0.5441  152.6
 5.300  0.8739   60.6   0.494  -20.9  0.3021    9.2  0.5521  150.9
 5.400  0.8758   59.4   0.485  -21.7  0.3064    8.1  0.5606  149.3
 5.500  0.8782   58.2   0.477  -22.4  0.3108    7.0  0.5695  147.8
 5.600  0.8774   57.0   0.471  -23.0  0.3143    5.7  0.5758  146.2
 5.700  0.8770   55.9   0.466  -23.6  0.3179    4.5  0.5826  144.7
 5.800  0.8769   54.7   0.460  -24.2  0.3216    3.3  0.5897  143.3
 5.900  0.8772   53.6   0.454  -24.8  0.3256    2.1  0.5972  141.8
 6.000  0.8779   52.4   0.449  -25.5  0.3296    0.9  0.6051  140.4
!
!  f       NFmin   Gammaopt  rn/50
! GHz       dB    MAG  ANG    -
!
! noise parameter not available yet for this operation point!
!
! (c) 2016  Infineon Technologies AG, Munich
