! Infineon Technologies  Discrete & RF Semiconductors
! BFP193
! VCE = 1.5 V,  IC =  5.0 mA
! Common Emitter S-Parameters:                            Jan 2016
# GHz  S  MA  R  50
!  f         S11            S21            S12            S22
! GHz     MAG   ANG      MAG   ANG      MAG   ANG      MAG   ANG
 0.010  0.8223   -5.5  15.542  177.8  0.0039   88.7  0.9876   -2.5
 0.015  0.8189   -8.0  15.406  175.6  0.0059   85.9  0.9839   -3.7
 0.020  0.8171  -10.6  15.293  173.3  0.0079   84.5  0.9807   -4.9
 0.025  0.8115  -13.1  15.219  171.8  0.0100   81.9  0.9762   -6.1
 0.030  0.8074  -15.7  15.156  170.4  0.0121   80.2  0.9720   -7.3
 0.035  0.8050  -18.3  15.102  168.9  0.0142   79.0  0.9684   -8.6
 0.040  0.8042  -20.8  15.058  167.4  0.0163   78.1  0.9652   -9.8
 0.045  0.8050  -23.4  15.025  165.9  0.0184   77.4  0.9624  -11.0
 0.050  0.8075  -26.0  15.002  164.4  0.0205   76.9  0.9601  -12.3
 0.055  0.7988  -28.3  14.854  163.1  0.0222   75.0  0.9517  -13.3
 0.060  0.7913  -30.6  14.713  161.8  0.0239   73.4  0.9435  -14.3
 0.065  0.7852  -33.0  14.580  160.5  0.0257   72.0  0.9357  -15.4
 0.070  0.7805  -35.4  14.455  159.1  0.0274   70.8  0.9282  -16.5
 0.075  0.7772  -37.9  14.339  157.7  0.0292   69.7  0.9210  -17.5
 0.080  0.7753  -40.3  14.231  156.3  0.0309   68.7  0.9141  -18.6
 0.085  0.7748  -42.8  14.132  154.9  0.0327   67.9  0.9076  -19.8
 0.090  0.7758  -45.2  14.041  153.4  0.0345   67.1  0.9014  -20.9
 0.095  0.7781  -47.7  13.960  152.0  0.0363   66.4  0.8956  -22.0
 0.100  0.7819  -50.1  13.888  150.5  0.0381   65.8  0.8902  -23.2
 0.105  0.7736  -52.1  13.712  149.4  0.0393   64.5  0.8805  -24.0
 0.110  0.7662  -54.1  13.541  148.2  0.0406   63.3  0.8710  -24.8
 0.115  0.7598  -56.1  13.377  147.0  0.0418   62.1  0.8617  -25.6
 0.120  0.7544  -58.2  13.218  145.8  0.0431   61.0  0.8526  -26.4
 0.125  0.7499  -60.3  13.065  144.5  0.0444   60.0  0.8436  -27.2
 0.130  0.7465  -62.4  12.919  143.2  0.0457   59.0  0.8348  -28.1
 0.135  0.7441  -64.5  12.779  141.9  0.0471   58.1  0.8262  -29.0
 0.140  0.7427  -66.7  12.647  140.6  0.0484   57.3  0.8178  -29.9
 0.145  0.7424  -68.8  12.521  139.2  0.0497   56.5  0.8096  -30.8
 0.150  0.7432  -71.0  12.403  137.8  0.0511   55.7  0.8016  -31.7
 0.155  0.7381  -72.7  12.256  137.0  0.0520   54.9  0.7929  -32.3
 0.160  0.7337  -74.4  12.111  136.1  0.0528   54.2  0.7844  -32.9
 0.165  0.7299  -76.2  11.969  135.2  0.0537   53.5  0.7759  -33.5
 0.170  0.7268  -77.9  11.830  134.3  0.0546   52.8  0.7675  -34.1
 0.175  0.7244  -79.7  11.694  133.4  0.0555   52.1  0.7592  -34.7
 0.180  0.7227  -81.5  11.561  132.5  0.0564   51.5  0.7510  -35.4
 0.185  0.7217  -83.2  11.431  131.5  0.0573   50.9  0.7428  -36.0
 0.190  0.7214  -85.0  11.305  130.5  0.0582   50.3  0.7348  -36.7
 0.195  0.7218  -86.8  11.182  129.5  0.0592   49.7  0.7269  -37.4
 0.200  0.7229  -88.6  11.062  128.5  0.0601   49.1  0.7191  -38.1
 0.220  0.7070  -94.1  10.482  125.5  0.0625   46.8  0.6881  -39.8
 0.240  0.6979  -99.9   9.935  122.1  0.0650   44.6  0.6578  -41.6
 0.260  0.6900 -105.1   9.453  119.2  0.0672   42.9  0.6313  -43.2
 0.280  0.6813 -109.8   9.022  116.8  0.0691   41.4  0.6082  -44.6
 0.300  0.6773 -114.6   8.608  114.1  0.0711   40.1  0.5855  -46.0
 0.320  0.6678 -118.0   8.263  112.5  0.0722   39.1  0.5664  -46.7
 0.340  0.6609 -121.6   7.925  110.8  0.0732   38.1  0.5473  -47.5
 0.360  0.6564 -125.2   7.595  108.9  0.0743   37.1  0.5284  -48.4
 0.380  0.6546 -128.8   7.274  106.8  0.0755   36.2  0.5096  -49.3
 0.400  0.6554 -132.4   6.963  104.6  0.0766   35.3  0.4909  -50.3
 0.420  0.6508 -135.0   6.708  103.3  0.0773   34.7  0.4791  -50.8
 0.440  0.6474 -137.5   6.456  101.9  0.0780   34.1  0.4673  -51.3
 0.450  0.6463 -138.9   6.332  101.1  0.0784   33.9  0.4614  -51.5
 0.460  0.6454 -140.2   6.209  100.3  0.0787   33.6  0.4555  -51.8
 0.480  0.6448 -142.8   5.966   98.7  0.0795   33.0  0.4438  -52.3
 0.500  0.6455 -145.4   5.729   96.9  0.0802   32.5  0.4321  -52.9
 0.520  0.6425 -147.4   5.560   95.8  0.0809   32.2  0.4242  -53.2
 0.540  0.6403 -149.5   5.392   94.6  0.0816   32.0  0.4163  -53.5
 0.560  0.6389 -151.6   5.228   93.3  0.0822   31.7  0.4085  -53.8
 0.580  0.6383 -153.6   5.066   91.9  0.0829   31.5  0.4006  -54.2
 0.600  0.6386 -155.7   4.907   90.5  0.0836   31.2  0.3928  -54.5
 0.620  0.6374 -157.6   4.779   89.5  0.0840   31.1  0.3869  -54.8
 0.640  0.6369 -159.4   4.653   88.5  0.0845   30.9  0.3809  -55.1
 0.660  0.6370 -161.3   4.528   87.4  0.0849   30.8  0.3750  -55.4
 0.680  0.6378 -163.1   4.405   86.2  0.0854   30.6  0.3691  -55.7
 0.700  0.6393 -165.0   4.284   85.0  0.0858   30.5  0.3632  -56.0
 0.720  0.6385 -166.3   4.182   84.2  0.0863   30.5  0.3590  -56.3
 0.740  0.6381 -167.7   4.081   83.3  0.0868   30.5  0.3549  -56.6
 0.760  0.6380 -169.0   3.980   82.4  0.0872   30.6  0.3507  -56.9
 0.780  0.6382 -170.4   3.881   81.4  0.0877   30.6  0.3465  -57.2
 0.800  0.6388 -171.7   3.783   80.4  0.0882   30.6  0.3424  -57.5
 0.820  0.6365 -172.9   3.700   79.6  0.0887   30.7  0.3391  -57.8
 0.840  0.6345 -174.2   3.619   78.8  0.0892   30.8  0.3359  -58.0
 0.860  0.6328 -175.5   3.537   77.9  0.0896   31.0  0.3326  -58.3
 0.880  0.6314 -176.7   3.457   77.0  0.0901   31.1  0.3293  -58.6
 0.900  0.6303 -178.0   3.378   76.0  0.0906   31.2  0.3261  -58.9
 0.920  0.6317 -179.2   3.314   75.3  0.0910   31.3  0.3240  -59.2
 0.940  0.6333  179.6   3.251   74.5  0.0914   31.4  0.3220  -59.5
 0.960  0.6353  178.4   3.189   73.7  0.0919   31.5  0.3199  -59.8
 0.980  0.6374  177.3   3.127   72.9  0.0923   31.6  0.3178  -60.2
 1.000  0.6399  176.1   3.066   72.0  0.0927   31.7  0.3158  -60.5
 1.020  0.6403  175.0   3.013   71.3  0.0932   31.9  0.3141  -60.9
 1.040  0.6410  174.0   2.960   70.6  0.0937   32.1  0.3124  -61.2
 1.060  0.6418  172.9   2.908   69.8  0.0943   32.3  0.3108  -61.6
 1.080  0.6429  171.9   2.856   69.0  0.0948   32.5  0.3091  -62.0
 1.100  0.6442  170.8   2.805   68.2  0.0953   32.7  0.3075  -62.4
 1.120  0.6438  169.9   2.760   67.5  0.0958   32.8  0.3063  -62.8
 1.140  0.6436  168.9   2.715   66.8  0.0962   32.9  0.3051  -63.2
 1.160  0.6435  168.0   2.670   66.0  0.0967   33.1  0.3039  -63.5
 1.180  0.6436  167.0   2.626   65.2  0.0971   33.2  0.3027  -63.9
 1.200  0.6439  166.1   2.583   64.4  0.0976   33.3  0.3015  -64.3
 1.220  0.6439  165.2   2.544   63.8  0.0983   33.4  0.3005  -64.7
 1.240  0.6441  164.3   2.505   63.1  0.0990   33.6  0.2995  -65.0
 1.260  0.6444  163.4   2.467   62.4  0.0996   33.7  0.2985  -65.4
 1.280  0.6449  162.5   2.429   61.7  0.1003   33.9  0.2975  -65.7
 1.300  0.6456  161.6   2.391   61.0  0.1010   34.0  0.2965  -66.1
 1.320  0.6464  160.8   2.357   60.4  0.1015   34.1  0.2959  -66.6
 1.340  0.6473  160.0   2.323   59.8  0.1020   34.2  0.2954  -67.0
 1.360  0.6483  159.2   2.289   59.1  0.1024   34.4  0.2949  -67.5
 1.380  0.6494  158.4   2.256   58.5  0.1029   34.5  0.2944  -67.9
 1.400  0.6507  157.6   2.223   57.8  0.1034   34.6  0.2939  -68.4
 1.420  0.6514  156.9   2.198   57.2  0.1041   34.8  0.2928  -68.9
 1.440  0.6521  156.2   2.174   56.6  0.1049   35.1  0.2918  -69.3
 1.460  0.6530  155.4   2.150   56.0  0.1056   35.3  0.2908  -69.8
 1.480  0.6539  154.7   2.126   55.3  0.1064   35.6  0.2898  -70.3
 1.500  0.6550  154.0   2.102   54.7  0.1071   35.8  0.2888  -70.8
 1.520  0.6562  153.2   2.073   54.0  0.1078   36.0  0.2881  -71.3
 1.540  0.6575  152.3   2.045   53.4  0.1086   36.1  0.2875  -71.7
 1.560  0.6589  151.5   2.016   52.7  0.1093   36.3  0.2868  -72.2
 1.580  0.6605  150.7   1.989   51.9  0.1101   36.4  0.2862  -72.6
 1.600  0.6622  149.9   1.961   51.2  0.1108   36.6  0.2856  -73.1
 1.620  0.6628  149.1   1.939   50.6  0.1115   36.8  0.2847  -73.6
 1.640  0.6636  148.3   1.917   50.0  0.1123   37.0  0.2837  -74.1
 1.660  0.6644  147.4   1.895   49.4  0.1130   37.2  0.2828  -74.7
 1.680  0.6654  146.6   1.873   48.8  0.1138   37.4  0.2820  -75.2
 1.700  0.6666  145.8   1.852   48.2  0.1145   37.6  0.2811  -75.7
 1.720  0.6681  145.1   1.834   47.7  0.1153   37.7  0.2811  -76.1
 1.740  0.6697  144.5   1.816   47.2  0.1161   37.8  0.2811  -76.6
 1.760  0.6713  143.8   1.798   46.7  0.1170   37.8  0.2811  -77.0
 1.780  0.6731  143.2   1.780   46.1  0.1178   37.9  0.2811  -77.5
 1.800  0.6749  142.5   1.762   45.6  0.1186   38.0  0.2812  -77.9
 1.820  0.6753  141.9   1.743   45.0  0.1195   38.1  0.2811  -78.6
 1.840  0.6758  141.2   1.725   44.4  0.1204   38.3  0.2811  -79.2
 1.860  0.6764  140.6   1.707   43.7  0.1214   38.4  0.2811  -79.9
 1.880  0.6771  139.9   1.689   43.1  0.1223   38.6  0.2811  -80.5
 1.900  0.6779  139.3   1.671   42.4  0.1232   38.7  0.2812  -81.2
 1.920  0.6789  138.6   1.653   41.9  0.1241   38.7  0.2807  -81.7
 1.940  0.6800  137.9   1.636   41.3  0.1251   38.7  0.2802  -82.2
 1.960  0.6811  137.2   1.619   40.8  0.1260   38.8  0.2798  -82.7
 1.980  0.6824  136.5   1.602   40.2  0.1270   38.8  0.2793  -83.2
 2.000  0.6838  135.8   1.585   39.6  0.1279   38.8  0.2789  -83.7
 2.020  0.6843  135.2   1.571   39.1  0.1288   38.9  0.2788  -84.3
 2.040  0.6849  134.6   1.556   38.6  0.1298   39.0  0.2788  -84.9
 2.060  0.6856  134.0   1.542   38.0  0.1307   39.1  0.2787  -85.4
 2.080  0.6863  133.4   1.528   37.5  0.1317   39.1  0.2787  -86.0
 2.100  0.6871  132.8   1.514   36.9  0.1326   39.2  0.2787  -86.6
 2.120  0.6880  132.2   1.500   36.4  0.1336   39.3  0.2788  -87.2
 2.140  0.6889  131.7   1.487   35.8  0.1345   39.4  0.2789  -87.8
 2.160  0.6899  131.1   1.473   35.2  0.1355   39.4  0.2790  -88.3
 2.180  0.6910  130.5   1.460   34.6  0.1364   39.5  0.2791  -88.9
 2.200  0.6922  129.9   1.447   34.0  0.1374   39.6  0.2793  -89.5
 2.220  0.6932  129.2   1.435   33.5  0.1384   39.6  0.2792  -90.2
 2.240  0.6943  128.6   1.423   33.0  0.1394   39.6  0.2792  -90.8
 2.260  0.6955  127.9   1.412   32.5  0.1403   39.7  0.2792  -91.5
 2.280  0.6968  127.3   1.400   31.9  0.1413   39.7  0.2792  -92.1
 2.300  0.6982  126.6   1.389   31.4  0.1423   39.7  0.2793  -92.8
 2.320  0.6996  126.0   1.378   30.9  0.1433   39.7  0.2794  -93.5
 2.340  0.7012  125.3   1.367   30.3  0.1443   39.7  0.2795  -94.1
 2.360  0.7028  124.7   1.356   29.8  0.1452   39.8  0.2797  -94.8
 2.380  0.7046  124.0   1.345   29.2  0.1462   39.8  0.2799  -95.4
 2.400  0.7064  123.4   1.334   28.6  0.1472   39.8  0.2802  -96.1
 2.420  0.7070  122.8   1.323   28.1  0.1483   39.8  0.2800  -96.8
 2.440  0.7077  122.3   1.312   27.7  0.1494   39.8  0.2799  -97.4
 2.460  0.7084  121.7   1.302   27.2  0.1505   39.8  0.2799  -98.1
 2.480  0.7092  121.1   1.291   26.7  0.1516   39.8  0.2798  -98.8
 2.500  0.7101  120.6   1.280   26.3  0.1527   39.7  0.2798  -99.5
 2.520  0.7110  120.0   1.270   25.8  0.1539   39.7  0.2799 -100.1
 2.540  0.7120  119.5   1.260   25.3  0.1550   39.7  0.2799 -100.8
 2.560  0.7131  118.9   1.249   24.7  0.1561   39.7  0.2801 -101.5
 2.580  0.7142  118.4   1.239   24.2  0.1572   39.7  0.2802 -102.1
 2.600  0.7154  117.8   1.229   23.7  0.1583   39.7  0.2804 -102.8
 2.620  0.7166  117.3   1.220   23.3  0.1594   39.6  0.2806 -103.5
 2.640  0.7179  116.7   1.211   22.8  0.1605   39.6  0.2808 -104.2
 2.660  0.7192  116.2   1.202   22.4  0.1615   39.5  0.2810 -104.9
 2.680  0.7206  115.7   1.194   21.9  0.1626   39.5  0.2813 -105.6
 2.700  0.7220  115.2   1.185   21.4  0.1637   39.4  0.2817 -106.3
 2.720  0.7235  114.7   1.176   21.0  0.1648   39.4  0.2821 -107.0
 2.740  0.7251  114.1   1.168   20.5  0.1659   39.3  0.2825 -107.7
 2.760  0.7267  113.6   1.160   20.0  0.1669   39.3  0.2829 -108.4
 2.780  0.7284  113.1   1.151   19.5  0.1680   39.2  0.2835 -109.1
 2.800  0.7301  112.6   1.143   19.0  0.1691   39.2  0.2840 -109.8
 2.820  0.7308  112.1   1.135   18.6  0.1703   39.1  0.2844 -110.5
 2.840  0.7316  111.7   1.127   18.1  0.1715   39.1  0.2849 -111.2
 2.860  0.7324  111.2   1.119   17.7  0.1727   39.0  0.2854 -112.0
 2.880  0.7333  110.7   1.111   17.2  0.1739   38.9  0.2859 -112.7
 2.900  0.7342  110.2   1.103   16.7  0.1751   38.8  0.2865 -113.4
 2.920  0.7351  109.8   1.095   16.3  0.1763   38.8  0.2871 -114.1
 2.940  0.7362  109.3   1.087   15.8  0.1775   38.7  0.2878 -114.8
 2.960  0.7372  108.8   1.079   15.3  0.1787   38.6  0.2885 -115.5
 2.980  0.7383  108.4   1.072   14.8  0.1799   38.6  0.2893 -116.2
 3.000  0.7395  107.9   1.064   14.3  0.1811   38.5  0.2901 -116.9
 3.100  0.7435  105.7   1.029   12.6  0.1871   37.9  0.2922 -120.6
 3.200  0.7486  103.5   0.995   10.8  0.1931   37.3  0.2955 -124.3
 3.300  0.7547  101.4   0.962    8.9  0.1991   36.7  0.3000 -127.9
 3.400  0.7619   99.3   0.930    6.8  0.2051   36.2  0.3056 -131.4
 3.500  0.7701   97.2   0.899    4.6  0.2112   35.7  0.3123 -134.7
 3.600  0.7727   95.2   0.874    3.1  0.2177   34.8  0.3179 -138.5
 3.700  0.7761   93.3   0.849    1.5  0.2242   33.9  0.3249 -142.1
 3.800  0.7804   91.4   0.825   -0.3  0.2307   33.0  0.3331 -145.6
 3.900  0.7856   89.5   0.801   -2.1  0.2373   32.2  0.3425 -148.9
 4.000  0.7917   87.6   0.779   -4.0  0.2440   31.5  0.3530 -152.0
 4.100  0.7945   86.0   0.759   -5.3  0.2500   30.4  0.3595 -155.3
 4.200  0.7979   84.4   0.740   -6.6  0.2561   29.3  0.3673 -158.5
 4.300  0.8020   82.8   0.721   -8.0  0.2622   28.2  0.3760 -161.6
 4.400  0.8067   81.2   0.703   -9.5  0.2685   27.2  0.3859 -164.5
 4.500  0.8120   79.6   0.685  -11.0  0.2748   26.3  0.3966 -167.2
 4.600  0.8138   78.2   0.671  -12.0  0.2803   25.1  0.4039 -170.1
 4.700  0.8160   76.9   0.657  -13.1  0.2858   24.0  0.4122 -172.9
 4.800  0.8186   75.6   0.643  -14.2  0.2915   22.9  0.4214 -175.6
 4.900  0.8217   74.2   0.630  -15.4  0.2973   21.8  0.4316 -178.2
 5.000  0.8253   72.9   0.617  -16.6  0.3032   20.8  0.4425  179.4
 5.100  0.8278   71.7   0.604  -17.4  0.3084   19.6  0.4491  176.8
 5.200  0.8307   70.4   0.592  -18.2  0.3137   18.4  0.4565  174.3
 5.300  0.8339   69.2   0.579  -19.0  0.3191   17.3  0.4648  171.8
 5.400  0.8376   68.0   0.567  -19.9  0.3246   16.2  0.4740  169.5
 5.500  0.8416   66.8   0.555  -20.8  0.3303   15.2  0.4839  167.2
 5.600  0.8410   65.7   0.546  -21.4  0.3350   13.9  0.4906  164.9
 5.700  0.8407   64.6   0.538  -22.1  0.3399   12.6  0.4980  162.7
 5.800  0.8407   63.5   0.529  -22.7  0.3450   11.4  0.5062  160.6
 5.900  0.8411   62.4   0.520  -23.4  0.3502   10.2  0.5150  158.5
 6.000  0.8417   61.3   0.512  -24.1  0.3556    9.0  0.5245  156.5
!
!  f       NFmin   Gammaopt  rn/50
! GHz       dB    MAG  ANG    -
!
! noise parameter not available yet for this operation point!
!
! (c) 2016  Infineon Technologies AG, Munich
