! Infineon Technologies  Discrete & RF Semiconductors
! BFP183
! VCE = 10.0V,  IC =  5.0 mA
! Common Emitter S-Parameters:                            Jan 2016
# GHz  S  MA  R  50
!  f         S11            S21            S12            S22
! GHz     MAG   ANG      MAG   ANG      MAG   ANG      MAG   ANG
 0.010  0.8650   -2.6  14.547  178.1  0.0020   78.0  0.9898   -1.1
 0.015  0.8632   -4.0  14.578  177.3  0.0029   81.4  0.9851   -1.7
 0.020  0.8620   -5.5  14.612  176.6  0.0039   83.1  0.9805   -2.3
 0.025  0.8594   -6.8  14.594  175.7  0.0049   83.2  0.9800   -2.9
 0.030  0.8572   -8.2  14.580  174.7  0.0059   83.3  0.9797   -3.4
 0.035  0.8556   -9.5  14.570  173.8  0.0069   83.4  0.9794   -4.0
 0.040  0.8544  -10.9  14.563  172.9  0.0079   83.4  0.9792   -4.6
 0.045  0.8536  -12.2  14.561  171.9  0.0089   83.5  0.9791   -5.1
 0.050  0.8534  -13.6  14.562  171.0  0.0099   83.5  0.9791   -5.7
 0.055  0.8499  -14.9  14.488  170.2  0.0108   81.7  0.9764   -6.3
 0.060  0.8469  -16.1  14.416  169.4  0.0118   80.2  0.9738   -6.8
 0.065  0.8443  -17.4  14.347  168.6  0.0128   79.0  0.9713   -7.4
 0.070  0.8421  -18.7  14.282  167.7  0.0137   77.9  0.9688   -7.9
 0.075  0.8403  -20.0  14.219  166.9  0.0147   76.9  0.9665   -8.5
 0.080  0.8390  -21.3  14.160  166.0  0.0157   76.1  0.9643   -9.1
 0.085  0.8380  -22.6  14.103  165.2  0.0167   75.4  0.9621   -9.7
 0.090  0.8376  -23.9  14.050  164.3  0.0176   74.7  0.9601  -10.2
 0.095  0.8375  -25.2  14.000  163.5  0.0186   74.1  0.9581  -10.8
 0.100  0.8379  -26.5  13.953  162.6  0.0196   73.6  0.9563  -11.4
 0.105  0.8336  -27.7  13.901  161.8  0.0204   72.9  0.9529  -11.9
 0.110  0.8296  -29.0  13.852  161.0  0.0212   72.3  0.9495  -12.4
 0.115  0.8261  -30.3  13.806  160.1  0.0220   71.8  0.9463  -12.9
 0.120  0.8229  -31.6  13.763  159.3  0.0228   71.2  0.9431  -13.4
 0.125  0.8202  -32.9  13.723  158.5  0.0236   70.7  0.9400  -14.0
 0.130  0.8179  -34.2  13.685  157.6  0.0244   70.3  0.9369  -14.5
 0.135  0.8161  -35.5  13.651  156.8  0.0252   69.8  0.9340  -15.0
 0.140  0.8146  -36.8  13.620  155.9  0.0260   69.4  0.9311  -15.5
 0.145  0.8136  -38.1  13.591  155.1  0.0268   69.1  0.9283  -16.1
 0.150  0.8130  -39.4  13.566  154.2  0.0276   68.7  0.9256  -16.6
 0.155  0.8091  -40.5  13.491  153.5  0.0283   68.1  0.9213  -17.0
 0.160  0.8055  -41.7  13.418  152.8  0.0290   67.5  0.9170  -17.5
 0.165  0.8022  -42.9  13.347  152.0  0.0297   67.0  0.9128  -17.9
 0.170  0.7993  -44.0  13.278  151.3  0.0305   66.5  0.9087  -18.4
 0.175  0.7967  -45.2  13.211  150.5  0.0312   66.0  0.9046  -18.8
 0.180  0.7945  -46.4  13.147  149.8  0.0319   65.5  0.9006  -19.3
 0.185  0.7925  -47.6  13.085  149.0  0.0326   65.0  0.8966  -19.7
 0.190  0.7910  -48.8  13.025  148.3  0.0333   64.6  0.8927  -20.2
 0.195  0.7898  -50.0  12.968  147.5  0.0341   64.2  0.8888  -20.6
 0.200  0.7889  -51.2  12.913  146.7  0.0348   63.8  0.8850  -21.1
 0.220  0.7742  -55.4  12.562  144.1  0.0374   61.6  0.8688  -22.6
 0.240  0.7638  -59.7  12.238  141.3  0.0401   59.7  0.8532  -24.2
 0.260  0.7526  -64.0  11.952  138.8  0.0425   57.7  0.8363  -25.6
 0.280  0.7404  -68.2  11.696  136.4  0.0447   55.8  0.8180  -26.9
 0.300  0.7325  -72.6  11.462  133.9  0.0470   54.0  0.8001  -28.2
 0.320  0.7158  -75.9  11.143  131.9  0.0484   52.5  0.7836  -29.1
 0.340  0.7016  -79.4  10.839  129.8  0.0499   51.2  0.7674  -30.1
 0.360  0.6902  -83.1  10.550  127.6  0.0514   49.9  0.7514  -31.1
 0.380  0.6816  -86.8  10.277  125.3  0.0530   48.7  0.7356  -32.2
 0.400  0.6759  -90.6  10.023  122.8  0.0545   47.5  0.7201  -33.3
 0.420  0.6640  -93.6   9.738  121.3  0.0555   46.3  0.7070  -33.9
 0.440  0.6540  -96.6   9.460  119.7  0.0566   45.2  0.6940  -34.6
 0.450  0.6496  -98.2   9.324  118.8  0.0571   44.6  0.6875  -34.9
 0.460  0.6458  -99.7   9.190  117.9  0.0577   44.1  0.6811  -35.3
 0.480  0.6396 -102.9   8.929  116.1  0.0588   43.0  0.6683  -36.0
 0.500  0.6355 -106.2   8.677  114.2  0.0599   42.0  0.6556  -36.7
 0.520  0.6283 -108.7   8.477  112.9  0.0608   41.3  0.6452  -37.1
 0.540  0.6223 -111.2   8.282  111.6  0.0616   40.6  0.6349  -37.5
 0.560  0.6176 -113.8   8.092  110.2  0.0625   40.0  0.6246  -38.0
 0.580  0.6141 -116.4   7.906  108.7  0.0634   39.3  0.6144  -38.4
 0.600  0.6119 -119.0   7.726  107.2  0.0643   38.7  0.6042  -38.9
 0.620  0.6051 -121.2   7.541  106.1  0.0648   38.1  0.5959  -39.2
 0.640  0.5993 -123.4   7.358  104.9  0.0653   37.5  0.5876  -39.5
 0.660  0.5944 -125.7   7.179  103.7  0.0658   36.9  0.5794  -39.8
 0.680  0.5905 -128.1   7.004  102.4  0.0663   36.3  0.5711  -40.2
 0.700  0.5875 -130.4   6.832  101.0  0.0668   35.7  0.5629  -40.5
 0.720  0.5828 -132.3   6.698  100.0  0.0672   35.3  0.5564  -40.7
 0.740  0.5787 -134.2   6.566   99.0  0.0677   34.8  0.5499  -41.0
 0.760  0.5752 -136.1   6.437   97.9  0.0681   34.4  0.5434  -41.3
 0.780  0.5724 -138.0   6.310   96.8  0.0686   34.0  0.5369  -41.5
 0.800  0.5703 -140.0   6.185   95.6  0.0690   33.6  0.5304  -41.8
 0.820  0.5672 -141.7   6.064   94.8  0.0695   33.4  0.5252  -42.0
 0.840  0.5646 -143.5   5.945   93.9  0.0700   33.2  0.5200  -42.2
 0.860  0.5626 -145.2   5.827   93.0  0.0704   33.0  0.5148  -42.4
 0.880  0.5611 -147.0   5.711   92.0  0.0709   32.8  0.5096  -42.6
 0.900  0.5601 -148.8   5.596   91.0  0.0714   32.6  0.5044  -42.8
 0.920  0.5580 -150.4   5.489   90.2  0.0717   32.4  0.5005  -43.0
 0.940  0.5563 -152.0   5.383   89.3  0.0720   32.2  0.4967  -43.2
 0.960  0.5551 -153.6   5.278   88.5  0.0724   31.9  0.4928  -43.3
 0.980  0.5543 -155.2   5.175   87.6  0.0727   31.7  0.4890  -43.5
 1.000  0.5539 -156.8   5.073   86.6  0.0730   31.5  0.4851  -43.7
 1.020  0.5526 -158.3   4.993   85.8  0.0734   31.4  0.4819  -43.9
 1.040  0.5518 -159.8   4.913   85.0  0.0738   31.2  0.4787  -44.1
 1.060  0.5512 -161.2   4.835   84.2  0.0742   31.1  0.4755  -44.3
 1.080  0.5511 -162.7   4.757   83.3  0.0746   30.9  0.4724  -44.5
 1.100  0.5513 -164.2   4.681   82.4  0.0750   30.8  0.4692  -44.7
 1.120  0.5503 -165.5   4.606   81.8  0.0753   30.6  0.4668  -44.9
 1.140  0.5496 -166.8   4.532   81.1  0.0756   30.4  0.4643  -45.1
 1.160  0.5492 -168.1   4.458   80.4  0.0759   30.3  0.4619  -45.2
 1.180  0.5491 -169.4   4.385   79.7  0.0762   30.1  0.4595  -45.4
 1.200  0.5492 -170.7   4.313   79.0  0.0765   29.9  0.4571  -45.6
 1.220  0.5486 -171.9   4.249   78.3  0.0767   29.9  0.4547  -45.8
 1.240  0.5483 -173.1   4.185   77.6  0.0770   29.8  0.4522  -46.0
 1.260  0.5482 -174.3   4.122   76.9  0.0772   29.8  0.4498  -46.2
 1.280  0.5484 -175.5   4.060   76.2  0.0775   29.7  0.4474  -46.4
 1.300  0.5488 -176.7   3.998   75.4  0.0777   29.7  0.4450  -46.6
 1.320  0.5479 -177.8   3.947   74.8  0.0780   29.7  0.4431  -46.8
 1.340  0.5473 -178.9   3.896   74.1  0.0783   29.7  0.4413  -47.0
 1.360  0.5469  179.9   3.845   73.5  0.0786   29.7  0.4394  -47.3
 1.380  0.5466  178.8   3.795   72.8  0.0789   29.7  0.4375  -47.5
 1.400  0.5466  177.7   3.746   72.1  0.0792   29.7  0.4357  -47.7
 1.420  0.5471  176.7   3.699   71.4  0.0795   29.7  0.4338  -47.9
 1.440  0.5478  175.6   3.653   70.8  0.0799   29.7  0.4320  -48.0
 1.460  0.5487  174.6   3.607   70.1  0.0802   29.6  0.4301  -48.2
 1.480  0.5498  173.5   3.562   69.3  0.0806   29.6  0.4283  -48.3
 1.500  0.5510  172.5   3.517   68.6  0.0809   29.6  0.4264  -48.5
 1.520  0.5508  171.5   3.473   68.0  0.0812   29.6  0.4250  -48.7
 1.540  0.5508  170.5   3.430   67.4  0.0815   29.6  0.4236  -49.0
 1.560  0.5509  169.4   3.387   66.8  0.0819   29.5  0.4222  -49.2
 1.580  0.5512  168.4   3.345   66.2  0.0822   29.5  0.4208  -49.5
 1.600  0.5517  167.4   3.303   65.6  0.0825   29.5  0.4194  -49.7
 1.620  0.5524  166.4   3.264   65.0  0.0828   29.6  0.4178  -50.0
 1.640  0.5534  165.5   3.224   64.5  0.0830   29.7  0.4161  -50.3
 1.660  0.5544  164.5   3.186   63.9  0.0833   29.7  0.4145  -50.6
 1.680  0.5556  163.6   3.147   63.3  0.0835   29.8  0.4129  -50.9
 1.700  0.5570  162.6   3.109   62.7  0.0838   29.9  0.4113  -51.2
 1.720  0.5583  161.7   3.074   62.1  0.0842   29.9  0.4100  -51.4
 1.740  0.5597  160.9   3.040   61.5  0.0846   29.9  0.4087  -51.7
 1.760  0.5613  160.0   3.006   60.9  0.0849   29.9  0.4074  -51.9
 1.780  0.5630  159.2   2.972   60.2  0.0853   29.9  0.4061  -52.2
 1.800  0.5648  158.3   2.939   59.6  0.0857   29.9  0.4048  -52.4
 1.820  0.5646  157.5   2.908   59.1  0.0861   29.8  0.4041  -52.6
 1.840  0.5646  156.7   2.877   58.6  0.0864   29.7  0.4034  -52.9
 1.860  0.5646  155.8   2.846   58.1  0.0868   29.7  0.4027  -53.1
 1.880  0.5648  155.0   2.815   57.5  0.0871   29.6  0.4020  -53.4
 1.900  0.5651  154.2   2.785   57.0  0.0875   29.5  0.4013  -53.6
 1.920  0.5663  153.3   2.755   56.4  0.0879   29.5  0.4005  -53.9
 1.940  0.5676  152.5   2.726   55.9  0.0883   29.6  0.3996  -54.2
 1.960  0.5690  151.6   2.697   55.3  0.0886   29.6  0.3988  -54.4
 1.980  0.5706  150.8   2.668   54.7  0.0890   29.7  0.3980  -54.7
 2.000  0.5723  149.9   2.640   54.1  0.0894   29.7  0.3972  -55.0
 2.020  0.5732  149.1   2.616   53.6  0.0897   29.7  0.3960  -55.3
 2.040  0.5742  148.4   2.592   53.1  0.0901   29.8  0.3949  -55.6
 2.060  0.5753  147.6   2.569   52.6  0.0904   29.8  0.3938  -55.9
 2.080  0.5765  146.9   2.545   52.0  0.0907   29.9  0.3927  -56.3
 2.100  0.5778  146.2   2.522   51.5  0.0910   29.9  0.3915  -56.6
 2.120  0.5792  145.4   2.499   50.9  0.0914   29.9  0.3905  -56.9
 2.140  0.5807  144.7   2.477   50.4  0.0917   30.0  0.3894  -57.2
 2.160  0.5823  144.0   2.454   49.8  0.0920   30.0  0.3883  -57.5
 2.180  0.5839  143.2   2.432   49.2  0.0924   30.1  0.3872  -57.9
 2.200  0.5857  142.5   2.410   48.6  0.0927   30.1  0.3862  -58.2
 2.220  0.5867  141.8   2.389   48.1  0.0931   30.1  0.3856  -58.5
 2.240  0.5879  141.1   2.367   47.7  0.0935   30.0  0.3850  -58.9
 2.260  0.5891  140.4   2.346   47.2  0.0938   30.0  0.3844  -59.2
 2.280  0.5904  139.7   2.325   46.7  0.0942   30.0  0.3838  -59.6
 2.300  0.5918  139.0   2.305   46.2  0.0946   29.9  0.3833  -59.9
 2.320  0.5933  138.3   2.284   45.7  0.0950   29.9  0.3827  -60.3
 2.340  0.5949  137.6   2.264   45.1  0.0954   29.9  0.3822  -60.6
 2.360  0.5965  136.9   2.244   44.6  0.0957   29.9  0.3817  -61.0
 2.380  0.5983  136.2   2.224   44.1  0.0961   29.8  0.3812  -61.3
 2.400  0.6001  135.5   2.204   43.5  0.0965   29.8  0.3807  -61.7
 2.420  0.6015  134.9   2.186   43.1  0.0969   29.8  0.3796  -62.1
 2.440  0.6029  134.2   2.168   42.6  0.0973   29.9  0.3784  -62.4
 2.460  0.6045  133.6   2.150   42.1  0.0978   29.9  0.3773  -62.8
 2.480  0.6061  132.9   2.133   41.7  0.0982   30.0  0.3762  -63.1
 2.500  0.6078  132.3   2.115   41.2  0.0986   30.0  0.3751  -63.5
 2.520  0.6095  131.7   2.098   40.7  0.0990   30.0  0.3740  -63.8
 2.540  0.6114  131.1   2.081   40.2  0.0994   30.1  0.3730  -64.2
 2.560  0.6133  130.4   2.064   39.7  0.0999   30.1  0.3719  -64.6
 2.580  0.6153  129.8   2.047   39.2  0.1003   30.2  0.3709  -64.9
 2.600  0.6173  129.2   2.030   38.7  0.1007   30.2  0.3699  -65.3
 2.620  0.6185  128.6   2.014   38.2  0.1011   30.1  0.3694  -65.7
 2.640  0.6197  128.0   1.998   37.7  0.1014   30.1  0.3690  -66.1
 2.660  0.6210  127.5   1.982   37.2  0.1018   30.0  0.3686  -66.4
 2.680  0.6223  126.9   1.966   36.7  0.1022   30.0  0.3682  -66.8
 2.700  0.6237  126.3   1.950   36.2  0.1025   29.9  0.3678  -67.2
 2.720  0.6252  125.7   1.934   35.7  0.1029   29.9  0.3674  -67.6
 2.740  0.6267  125.2   1.919   35.1  0.1033   29.8  0.3671  -68.0
 2.760  0.6283  124.6   1.904   34.6  0.1037   29.8  0.3667  -68.3
 2.780  0.6300  124.1   1.889   34.1  0.1040   29.7  0.3664  -68.7
 2.800  0.6317  123.5   1.874   33.5  0.1044   29.7  0.3661  -69.1
 2.820  0.6328  122.9   1.861   33.1  0.1048   29.7  0.3652  -69.5
 2.840  0.6340  122.3   1.848   32.6  0.1053   29.7  0.3643  -69.9
 2.860  0.6352  121.8   1.835   32.2  0.1057   29.7  0.3634  -70.3
 2.880  0.6365  121.2   1.823   31.7  0.1061   29.7  0.3625  -70.8
 2.900  0.6378  120.6   1.810   31.3  0.1065   29.8  0.3617  -71.2
 2.920  0.6392  120.1   1.798   30.8  0.1070   29.8  0.3608  -71.6
 2.940  0.6407  119.5   1.785   30.3  0.1074   29.8  0.3600  -72.0
 2.960  0.6422  118.9   1.773   29.9  0.1078   29.8  0.3592  -72.4
 2.980  0.6438  118.4   1.761   29.4  0.1083   29.8  0.3585  -72.9
 3.000  0.6455  117.8   1.749   28.9  0.1087   29.8  0.3577  -73.3
 3.100  0.6507  115.4   1.689   27.0  0.1110   29.6  0.3553  -75.5
 3.200  0.6571  113.0   1.631   25.0  0.1132   29.4  0.3534  -77.6
 3.300  0.6646  110.6   1.576   22.8  0.1155   29.2  0.3521  -79.9
 3.400  0.6732  108.3   1.523   20.5  0.1177   29.0  0.3512  -82.1
 3.500  0.6829  106.1   1.472   18.0  0.1200   28.8  0.3509  -84.3
 3.600  0.6885  104.1   1.427   16.2  0.1224   28.5  0.3492  -86.9
 3.700  0.6948  102.2   1.383   14.3  0.1248   28.1  0.3483  -89.5
 3.800  0.7020  100.3   1.341   12.3  0.1272   27.8  0.3481  -92.2
 3.900  0.7099   98.4   1.300   10.2  0.1296   27.5  0.3486  -94.8
 4.000  0.7185   96.6   1.262    7.9  0.1320   27.2  0.3499  -97.4
 4.100  0.7222   95.0   1.225    6.2  0.1342   26.8  0.3491 -100.2
 4.200  0.7266   93.3   1.189    4.5  0.1364   26.4  0.3491 -103.0
 4.300  0.7315   91.7   1.155    2.6  0.1386   26.0  0.3500 -105.7
 4.400  0.7370   90.2   1.122    0.6  0.1408   25.6  0.3516 -108.5
 4.500  0.7430   88.6   1.090   -1.5  0.1430   25.2  0.3541 -111.2
 4.600  0.7463   87.2   1.062   -2.9  0.1455   25.0  0.3540 -113.8
 4.700  0.7501   85.9   1.034   -4.3  0.1480   24.8  0.3547 -116.5
 4.800  0.7543   84.5   1.007   -5.9  0.1505   24.6  0.3561 -119.1
 4.900  0.7589   83.2   0.981   -7.5  0.1530   24.5  0.3582 -121.7
 5.000  0.7639   81.9   0.956   -9.2  0.1555   24.3  0.3611 -124.2
 5.100  0.7676   80.8   0.934  -10.6  0.1591   23.6  0.3651 -126.9
 5.200  0.7717   79.6   0.913  -12.1  0.1627   22.9  0.3698 -129.5
 5.300  0.7760   78.5   0.892  -13.7  0.1664   22.2  0.3754 -132.1
 5.400  0.7807   77.4   0.872  -15.3  0.1700   21.6  0.3816 -134.6
 5.500  0.7856   76.3   0.853  -17.0  0.1737   21.0  0.3886 -137.0
 5.600  0.7897   75.2   0.833  -18.3  0.1764   20.3  0.3930 -139.5
 5.700  0.7940   74.2   0.813  -19.7  0.1792   19.5  0.3981 -142.0
 5.800  0.7986   73.1   0.794  -21.2  0.1820   18.8  0.4040 -144.4
 5.900  0.8035   72.1   0.775  -22.7  0.1848   18.2  0.4105 -146.7
 6.000  0.8086   71.1   0.757  -24.3  0.1876   17.5  0.4177 -149.0
!
!  f       NFmin   Gammaopt  rn/50
! GHz       dB    MAG  ANG    -
!
! noise parameter not available yet for this operation point!
!
! (c) 2016  Infineon Technologies AG, Munich
