! Infineon Technologies  Discrete & RF Semiconductors
! BFP183
! VCE = 6.0 V,  IC =  1.0 mA
! Common Emitter S-Parameters:                            Jan 2016
# GHz  S  MA  R  50
!  f         S11            S21            S12            S22
! GHz     MAG   ANG      MAG   ANG      MAG   ANG      MAG   ANG
 0.010  0.9688   -1.2   3.452  179.4  0.0021   84.1  0.9995   -0.5
 0.015  0.9678   -1.9   3.452  179.1  0.0032   85.0  0.9973   -0.7
 0.020  0.9670   -2.7   3.452  178.7  0.0043   85.5  0.9952   -0.9
 0.025  0.9657   -3.4   3.451  178.1  0.0054   86.1  0.9952   -1.1
 0.030  0.9645   -4.0   3.450  177.5  0.0066   86.5  0.9952   -1.4
 0.035  0.9634   -4.7   3.449  177.0  0.0077   86.7  0.9953   -1.6
 0.040  0.9625   -5.4   3.449  176.4  0.0088   86.9  0.9953   -1.8
 0.045  0.9617   -6.0   3.449  175.8  0.0100   87.1  0.9954   -2.1
 0.050  0.9610   -6.7   3.450  175.2  0.0111   87.2  0.9955   -2.3
 0.055  0.9599   -7.3   3.446  174.7  0.0121   86.3  0.9948   -2.5
 0.060  0.9589   -8.0   3.442  174.3  0.0131   85.5  0.9941   -2.8
 0.065  0.9581   -8.6   3.438  173.8  0.0142   84.8  0.9934   -3.0
 0.070  0.9573   -9.3   3.435  173.3  0.0152   84.2  0.9928   -3.3
 0.075  0.9567   -9.9   3.432  172.9  0.0162   83.7  0.9921   -3.5
 0.080  0.9562  -10.5   3.429  172.4  0.0173   83.3  0.9915   -3.7
 0.085  0.9558  -11.2   3.426  171.9  0.0183   82.9  0.9909   -4.0
 0.090  0.9556  -11.8   3.423  171.4  0.0193   82.5  0.9903   -4.2
 0.095  0.9554  -12.5   3.421  171.0  0.0204   82.2  0.9898   -4.5
 0.100  0.9554  -13.1   3.419  170.5  0.0214   81.9  0.9892   -4.7
 0.105  0.9543  -13.8   3.415  170.0  0.0225   81.2  0.9890   -4.9
 0.110  0.9534  -14.5   3.410  169.5  0.0236   80.7  0.9888   -5.2
 0.115  0.9527  -15.2   3.406  169.0  0.0247   80.1  0.9887   -5.4
 0.120  0.9520  -15.9   3.403  168.6  0.0259   79.6  0.9885   -5.7
 0.125  0.9516  -16.6   3.399  168.1  0.0270   79.2  0.9884   -5.9
 0.130  0.9512  -17.4   3.396  167.6  0.0281   78.8  0.9883   -6.1
 0.135  0.9511  -18.1   3.393  167.1  0.0292   78.4  0.9882   -6.4
 0.140  0.9510  -18.8   3.391  166.6  0.0303   78.0  0.9881   -6.6
 0.145  0.9511  -19.5   3.388  166.1  0.0315   77.7  0.9880   -6.9
 0.150  0.9514  -20.2   3.386  165.6  0.0326   77.4  0.9880   -7.1
 0.155  0.9499  -20.9   3.386  165.1  0.0336   77.0  0.9872   -7.3
 0.160  0.9485  -21.6   3.387  164.6  0.0345   76.6  0.9865   -7.5
 0.165  0.9472  -22.3   3.388  164.2  0.0355   76.2  0.9857   -7.7
 0.170  0.9461  -22.9   3.389  163.7  0.0365   75.9  0.9850   -7.9
 0.175  0.9451  -23.6   3.391  163.2  0.0375   75.5  0.9842   -8.1
 0.180  0.9442  -24.3   3.392  162.7  0.0385   75.2  0.9835   -8.4
 0.185  0.9435  -25.0   3.394  162.2  0.0394   74.9  0.9828   -8.6
 0.190  0.9429  -25.7   3.396  161.8  0.0404   74.6  0.9821   -8.8
 0.195  0.9425  -26.4   3.398  161.3  0.0414   74.4  0.9815   -9.0
 0.200  0.9422  -27.1   3.401  160.8  0.0424   74.1  0.9808   -9.2
 0.220  0.9382  -29.6   3.375  158.9  0.0462   71.9  0.9773  -10.1
 0.240  0.9359  -32.1   3.352  157.1  0.0501   70.1  0.9741  -11.0
 0.260  0.9319  -34.6   3.327  155.3  0.0539   68.6  0.9697  -11.9
 0.280  0.9262  -37.2   3.299  153.7  0.0578   67.3  0.9640  -12.6
 0.300  0.9222  -39.7   3.274  152.1  0.0617   66.2  0.9585  -13.4
 0.320  0.9136  -42.2   3.244  150.2  0.0649   64.4  0.9537  -14.2
 0.340  0.9067  -44.7   3.218  148.3  0.0682   62.7  0.9491  -15.0
 0.360  0.9017  -47.3   3.195  146.4  0.0716   61.2  0.9446  -15.8
 0.380  0.8985  -49.9   3.176  144.5  0.0750   59.8  0.9404  -16.6
 0.400  0.8971  -52.5   3.160  142.5  0.0784   58.6  0.9363  -17.4
 0.420  0.8877  -54.8   3.124  140.9  0.0811   57.0  0.9302  -18.1
 0.440  0.8798  -57.2   3.090  139.2  0.0838   55.5  0.9243  -18.9
 0.450  0.8764  -58.4   3.074  138.4  0.0852   54.8  0.9214  -19.2
 0.460  0.8734  -59.6   3.058  137.6  0.0866   54.1  0.9185  -19.6
 0.480  0.8685  -62.0   3.030  135.8  0.0895   52.7  0.9129  -20.3
 0.500  0.8653  -64.5   3.004  134.1  0.0924   51.5  0.9074  -21.1
 0.520  0.8572  -66.7   2.971  132.6  0.0946   50.2  0.9016  -21.7
 0.540  0.8504  -68.9   2.941  131.1  0.0968   48.9  0.8958  -22.3
 0.560  0.8449  -71.2   2.912  129.6  0.0991   47.7  0.8902  -22.9
 0.580  0.8408  -73.5   2.885  128.1  0.1014   46.5  0.8846  -23.6
 0.600  0.8380  -75.8   2.861  126.5  0.1038   45.4  0.8792  -24.2
 0.620  0.8311  -77.9   2.818  125.2  0.1056   44.2  0.8737  -24.7
 0.640  0.8252  -80.0   2.777  123.8  0.1075   43.0  0.8683  -25.3
 0.660  0.8205  -82.1   2.738  122.4  0.1094   41.9  0.8629  -25.8
 0.680  0.8169  -84.2   2.700  121.0  0.1113   40.8  0.8577  -26.3
 0.700  0.8145  -86.4   2.664  119.5  0.1133   39.8  0.8525  -26.9
 0.720  0.8069  -88.3   2.637  118.2  0.1147   38.7  0.8476  -27.4
 0.740  0.8002  -90.2   2.611  116.9  0.1161   37.7  0.8428  -27.8
 0.760  0.7944  -92.2   2.586  115.5  0.1176   36.7  0.8380  -28.3
 0.780  0.7896  -94.2   2.563  114.1  0.1191   35.8  0.8333  -28.8
 0.800  0.7857  -96.2   2.542  112.7  0.1206   34.8  0.8287  -29.3
 0.820  0.7795  -98.1   2.512  111.5  0.1217   33.8  0.8238  -29.7
 0.840  0.7742 -100.1   2.483  110.3  0.1229   32.9  0.8190  -30.2
 0.860  0.7698 -102.0   2.456  109.0  0.1241   31.9  0.8143  -30.7
 0.880  0.7663 -104.0   2.429  107.7  0.1253   31.0  0.8096  -31.1
 0.900  0.7637 -106.0   2.404  106.4  0.1266   30.1  0.8049  -31.6
 0.920  0.7584 -107.8   2.374  105.3  0.1272   29.2  0.8005  -32.0
 0.940  0.7539 -109.7   2.344  104.2  0.1277   28.3  0.7961  -32.4
 0.960  0.7502 -111.6   2.316  103.1  0.1284   27.4  0.7918  -32.8
 0.980  0.7473 -113.5   2.289  101.9  0.1290   26.6  0.7875  -33.3
 1.000  0.7453 -115.4   2.262  100.7  0.1297   25.7  0.7832  -33.7
 1.020  0.7403 -117.2   2.238   99.6  0.1303   24.9  0.7795  -34.1
 1.040  0.7360 -118.9   2.215   98.4  0.1310   24.2  0.7758  -34.4
 1.060  0.7324 -120.7   2.193   97.2  0.1316   23.4  0.7722  -34.8
 1.080  0.7295 -122.6   2.172   96.0  0.1323   22.6  0.7686  -35.2
 1.100  0.7274 -124.4   2.152   94.8  0.1330   21.9  0.7650  -35.6
 1.120  0.7229 -125.9   2.125   93.9  0.1333   21.1  0.7621  -36.0
 1.140  0.7190 -127.5   2.098   93.0  0.1335   20.4  0.7592  -36.4
 1.160  0.7156 -129.0   2.072   92.0  0.1338   19.6  0.7564  -36.8
 1.180  0.7127 -130.6   2.046   91.0  0.1342   18.9  0.7536  -37.2
 1.200  0.7104 -132.2   2.021   90.0  0.1345   18.1  0.7508  -37.6
 1.220  0.7080 -133.7   1.997   89.1  0.1347   17.5  0.7477  -37.9
 1.240  0.7062 -135.3   1.974   88.1  0.1349   16.8  0.7446  -38.2
 1.260  0.7049 -136.9   1.952   87.1  0.1351   16.2  0.7416  -38.6
 1.280  0.7041 -138.4   1.930   86.1  0.1353   15.5  0.7385  -38.9
 1.300  0.7038 -140.0   1.909   85.1  0.1356   14.9  0.7355  -39.2
 1.320  0.7006 -141.4   1.887   84.2  0.1356   14.4  0.7331  -39.5
 1.340  0.6979 -142.8   1.866   83.3  0.1357   13.8  0.7308  -39.9
 1.360  0.6956 -144.2   1.845   82.4  0.1357   13.3  0.7285  -40.2
 1.380  0.6937 -145.7   1.825   81.5  0.1358   12.7  0.7262  -40.6
 1.400  0.6923 -147.1   1.805   80.5  0.1359   12.2  0.7240  -40.9
 1.420  0.6912 -148.5   1.787   79.6  0.1357   11.7  0.7214  -41.2
 1.440  0.6905 -149.9   1.770   78.7  0.1356   11.1  0.7187  -41.5
 1.460  0.6903 -151.4   1.753   77.8  0.1354   10.6  0.7161  -41.8
 1.480  0.6905 -152.8   1.737   76.9  0.1353   10.0  0.7136  -42.1
 1.500  0.6911 -154.2   1.721   75.9  0.1352    9.5  0.7110  -42.4
 1.520  0.6887 -155.6   1.702   75.1  0.1351    9.0  0.7095  -42.7
 1.540  0.6868 -156.9   1.684   74.3  0.1351    8.5  0.7080  -43.0
 1.560  0.6852 -158.3   1.667   73.4  0.1351    8.1  0.7066  -43.3
 1.580  0.6841 -159.7   1.649   72.6  0.1350    7.6  0.7051  -43.6
 1.600  0.6833 -161.1   1.632   71.7  0.1350    7.1  0.7037  -43.9
 1.620  0.6816 -162.4   1.617   70.9  0.1346    6.7  0.7014  -44.3
 1.640  0.6802 -163.8   1.602   70.1  0.1343    6.3  0.6991  -44.6
 1.660  0.6792 -165.1   1.588   69.3  0.1339    5.8  0.6968  -45.0
 1.680  0.6786 -166.5   1.574   68.5  0.1335    5.4  0.6945  -45.3
 1.700  0.6784 -167.8   1.560   67.7  0.1332    5.0  0.6923  -45.7
 1.720  0.6779 -169.1   1.546   66.9  0.1328    4.6  0.6904  -46.0
 1.740  0.6778 -170.4   1.533   66.1  0.1324    4.3  0.6885  -46.3
 1.760  0.6780 -171.7   1.520   65.3  0.1320    3.9  0.6867  -46.5
 1.780  0.6785 -173.0   1.507   64.4  0.1316    3.6  0.6848  -46.8
 1.800  0.6794 -174.3   1.495   63.6  0.1312    3.2  0.6830  -47.1
 1.820  0.6790 -175.4   1.481   62.9  0.1307    2.8  0.6818  -47.4
 1.840  0.6789 -176.6   1.468   62.2  0.1303    2.4  0.6806  -47.8
 1.860  0.6790 -177.7   1.454   61.5  0.1298    1.9  0.6794  -48.1
 1.880  0.6794 -178.9   1.441   60.7  0.1293    1.5  0.6783  -48.5
 1.900  0.6801 -180.0   1.428   60.0  0.1289    1.1  0.6772  -48.8
 1.920  0.6790  178.9   1.415   59.3  0.1285    0.8  0.6760  -49.1
 1.940  0.6782  177.8   1.403   58.5  0.1282    0.5  0.6749  -49.4
 1.960  0.6776  176.8   1.391   57.8  0.1278    0.3  0.6737  -49.7
 1.980  0.6773  175.7   1.379   57.0  0.1275   -0.0  0.6726  -50.0
 2.000  0.6772  174.6   1.367   56.2  0.1271   -0.3  0.6715  -50.3
 2.020  0.6772  173.6   1.354   55.5  0.1266   -0.6  0.6704  -50.7
 2.040  0.6774  172.5   1.341   54.9  0.1260   -0.8  0.6693  -51.0
 2.060  0.6778  171.5   1.329   54.2  0.1255   -1.1  0.6683  -51.4
 2.080  0.6784  170.4   1.316   53.5  0.1249   -1.4  0.6673  -51.7
 2.100  0.6792  169.4   1.304   52.8  0.1244   -1.7  0.6663  -52.1
 2.120  0.6803  168.4   1.292   52.0  0.1239   -2.0  0.6653  -52.4
 2.140  0.6816  167.4   1.280   51.3  0.1234   -2.2  0.6644  -52.8
 2.160  0.6831  166.3   1.269   50.5  0.1228   -2.5  0.6634  -53.2
 2.180  0.6849  165.3   1.257   49.8  0.1223   -2.8  0.6626  -53.5
 2.200  0.6868  164.3   1.246   49.0  0.1218   -3.1  0.6617  -53.9
 2.220  0.6864  163.3   1.237   48.4  0.1212   -3.3  0.6608  -54.3
 2.240  0.6862  162.3   1.227   47.8  0.1205   -3.4  0.6598  -54.7
 2.260  0.6862  161.3   1.218   47.2  0.1199   -3.6  0.6590  -55.0
 2.280  0.6864  160.4   1.209   46.6  0.1192   -3.8  0.6581  -55.4
 2.300  0.6868  159.4   1.200   46.0  0.1186   -4.0  0.6573  -55.8
 2.320  0.6874  158.4   1.191   45.3  0.1179   -4.2  0.6565  -56.2
 2.340  0.6883  157.4   1.183   44.7  0.1173   -4.3  0.6557  -56.6
 2.360  0.6893  156.4   1.174   44.0  0.1167   -4.5  0.6550  -56.9
 2.380  0.6905  155.5   1.166   43.4  0.1160   -4.7  0.6543  -57.3
 2.400  0.6919  154.5   1.158   42.7  0.1154   -4.9  0.6536  -57.7
 2.420  0.6927  153.6   1.148   42.1  0.1148   -5.0  0.6527  -58.0
 2.440  0.6937  152.8   1.138   41.5  0.1142   -5.0  0.6518  -58.4
 2.460  0.6948  151.9   1.128   41.0  0.1135   -5.1  0.6509  -58.7
 2.480  0.6961  151.1   1.118   40.3  0.1129   -5.2  0.6501  -59.1
 2.500  0.6976  150.3   1.108   39.7  0.1123   -5.2  0.6492  -59.4
 2.520  0.6992  149.4   1.098   39.1  0.1117   -5.3  0.6484  -59.8
 2.540  0.7009  148.6   1.089   38.5  0.1111   -5.4  0.6477  -60.1
 2.560  0.7028  147.7   1.079   37.8  0.1104   -5.5  0.6469  -60.5
 2.580  0.7048  146.9   1.070   37.2  0.1098   -5.5  0.6462  -60.8
 2.600  0.7070  146.1   1.061   36.5  0.1092   -5.6  0.6455  -61.2
 2.620  0.7076  145.3   1.054   35.9  0.1086   -5.6  0.6450  -61.6
 2.640  0.7084  144.4   1.046   35.3  0.1081   -5.7  0.6444  -62.0
 2.660  0.7093  143.6   1.039   34.7  0.1075   -5.7  0.6440  -62.4
 2.680  0.7103  142.7   1.032   34.1  0.1070   -5.7  0.6435  -62.8
 2.700  0.7115  141.9   1.025   33.5  0.1064   -5.7  0.6431  -63.1
 2.720  0.7129  141.1   1.019   32.9  0.1058   -5.8  0.6427  -63.5
 2.740  0.7144  140.3   1.012   32.2  0.1053   -5.8  0.6423  -63.9
 2.760  0.7160  139.4   1.006   31.6  0.1047   -5.8  0.6420  -64.3
 2.780  0.7179  138.6   0.999   31.0  0.1042   -5.9  0.6417  -64.7
 2.800  0.7198  137.8   0.993   30.3  0.1036   -5.9  0.6414  -65.1
 2.820  0.7202  137.1   0.986   29.8  0.1030   -5.8  0.6409  -65.5
 2.840  0.7207  136.4   0.979   29.3  0.1024   -5.8  0.6405  -66.0
 2.860  0.7214  135.7   0.971   28.7  0.1018   -5.7  0.6402  -66.4
 2.880  0.7221  134.9   0.964   28.2  0.1012   -5.7  0.6398  -66.8
 2.900  0.7230  134.2   0.957   27.6  0.1005   -5.6  0.6395  -67.2
 2.920  0.7240  133.5   0.951   27.1  0.0999   -5.5  0.6392  -67.7
 2.940  0.7251  132.8   0.944   26.5  0.0993   -5.5  0.6390  -68.1
 2.960  0.7263  132.1   0.937   26.0  0.0987   -5.4  0.6388  -68.5
 2.980  0.7276  131.4   0.930   25.4  0.0981   -5.4  0.6386  -69.0
 3.000  0.7290  130.7   0.924   24.8  0.0975   -5.3  0.6385  -69.4
 3.100  0.7307  127.5   0.891   22.6  0.0955   -4.2  0.6373  -71.6
 3.200  0.7347  124.4   0.860   20.3  0.0936   -3.0  0.6371  -73.8
 3.300  0.7408  121.3   0.830   17.8  0.0917   -1.8  0.6378  -76.0
 3.400  0.7490  118.3   0.801   15.2  0.0898   -0.5  0.6394  -78.1
 3.500  0.7593  115.3   0.775   12.3  0.0880    0.8  0.6419  -80.3
 3.600  0.7624  112.8   0.750   10.4  0.0875    2.8  0.6398  -82.9
 3.700  0.7669  110.3   0.725    8.4  0.0871    4.9  0.6390  -85.5
 3.800  0.7729  107.8   0.702    6.2  0.0868    7.0  0.6395  -88.1
 3.900  0.7802  105.4   0.679    3.9  0.0866    9.1  0.6413  -90.7
 4.000  0.7890  103.0   0.658    1.4  0.0866   11.2  0.6445  -93.3
 4.100  0.7907  101.0   0.638   -0.2  0.0881   13.1  0.6426  -96.1
 4.200  0.7935   98.9   0.618   -1.9  0.0896   15.0  0.6422  -98.9
 4.300  0.7972   96.9   0.599   -3.7  0.0913   16.7  0.6434 -101.7
 4.400  0.8019   95.0   0.581   -5.6  0.0930   18.4  0.6461 -104.5
 4.500  0.8075   93.0   0.563   -7.6  0.0948   20.1  0.6503 -107.2
 4.600  0.8097   91.4   0.546   -8.7  0.0977   21.8  0.6485 -109.9
 4.700  0.8124   89.9   0.529  -10.0  0.1006   23.4  0.6482 -112.6
 4.800  0.8158   88.3   0.513  -11.3  0.1036   24.9  0.6493 -115.3
 4.900  0.8197   86.8   0.497  -12.6  0.1067   26.4  0.6518 -118.0
 5.000  0.8242   85.3   0.481  -14.1  0.1099   27.7  0.6558 -120.7
 5.100  0.8262   83.9   0.469  -15.1  0.1153   27.6  0.6564 -123.4
 5.200  0.8286   82.6   0.457  -16.1  0.1207   27.6  0.6584 -126.1
 5.300  0.8316   81.2   0.446  -17.2  0.1261   27.5  0.6618 -128.7
 5.400  0.8349   79.8   0.434  -18.4  0.1315   27.5  0.6667 -131.3
 5.500  0.8388   78.5   0.423  -19.6  0.1369   27.4  0.6729 -133.9
 5.600  0.8418   77.3   0.413  -20.4  0.1415   26.8  0.6737 -136.5
 5.700  0.8452   76.1   0.404  -21.2  0.1460   26.2  0.6760 -139.1
 5.800  0.8490   74.9   0.394  -22.1  0.1506   25.6  0.6795 -141.6
 5.900  0.8532   73.7   0.384  -23.0  0.1552   25.1  0.6844 -144.1
 6.000  0.8577   72.5   0.375  -24.0  0.1598   24.6  0.6906 -146.6
!
!  f       NFmin   Gammaopt  rn/50
! GHz       dB    MAG  ANG    -
!
! noise parameter not available yet for this operation point!
!
! (c) 2016  Infineon Technologies AG, Munich
