! Infineon Technologies  Discrete & RF Semiconductors
! BFP193
! VCE = 0.50V,  IC =  20 mA
! Common Emitter S-Parameters:                            Jan 2016
# GHz  S  MA  R  50
!  f         S11            S21            S12            S22
! GHz     MAG   ANG      MAG   ANG      MAG   ANG      MAG   ANG
 0.010  0.4856  -22.7  39.279  171.0  0.0060   82.4  0.8758  -11.6
 0.015  0.4818  -32.9  38.059  166.2  0.0090   77.7  0.8554  -16.9
 0.020  0.4934  -43.0  37.124  161.1  0.0121   75.3  0.8428  -22.5
 0.025  0.4826  -50.9  35.749  158.2  0.0141   70.3  0.8090  -26.4
 0.030  0.4811  -58.9  34.472  155.1  0.0162   66.6  0.7792  -30.6
 0.035  0.4892  -66.9  33.306  151.7  0.0183   63.8  0.7540  -35.1
 0.040  0.5062  -74.4  32.262  148.1  0.0205   61.5  0.7338  -39.9
 0.045  0.5314  -81.4  31.353  144.3  0.0227   59.7  0.7190  -45.0
 0.050  0.5636  -87.6  30.590  140.3  0.0249   58.2  0.7100  -50.2
 0.055  0.5578  -91.7  29.509  138.9  0.0259   56.4  0.6843  -52.4
 0.060  0.5549  -95.9  28.449  137.3  0.0268   54.7  0.6597  -54.7
 0.065  0.5551 -100.1  27.411  135.6  0.0278   53.1  0.6363  -57.2
 0.070  0.5582 -104.3  26.399  133.8  0.0289   51.7  0.6142  -59.9
 0.075  0.5642 -108.4  25.414  131.9  0.0299   50.3  0.5936  -62.8
 0.080  0.5730 -112.4  24.461  129.8  0.0310   49.1  0.5746  -65.9
 0.085  0.5846 -116.3  23.544  127.5  0.0320   47.9  0.5574  -69.3
 0.090  0.5987 -120.0  22.666  125.1  0.0331   46.8  0.5422  -72.8
 0.095  0.6152 -123.5  21.833  122.4  0.0342   45.8  0.5291  -76.4
 0.100  0.6339 -126.8  21.050  119.6  0.0353   44.8  0.5183  -80.3
 0.105  0.6336 -128.7  20.448  118.8  0.0357   44.4  0.5054  -81.8
 0.110  0.6340 -130.6  19.850  117.9  0.0362   44.1  0.4929  -83.4
 0.115  0.6351 -132.6  19.257  116.9  0.0366   43.7  0.4807  -85.0
 0.120  0.6370 -134.5  18.670  116.0  0.0371   43.3  0.4690  -86.8
 0.125  0.6395 -136.4  18.088  114.9  0.0375   43.0  0.4578  -88.6
 0.130  0.6427 -138.2  17.514  113.8  0.0380   42.7  0.4470  -90.5
 0.135  0.6466 -140.1  16.946  112.6  0.0384   42.3  0.4367  -92.5
 0.140  0.6512 -141.9  16.387  111.3  0.0389   42.0  0.4270  -94.6
 0.145  0.6564 -143.7  15.837  109.9  0.0393   41.7  0.4179  -96.8
 0.150  0.6623 -145.5  15.296  108.4  0.0398   41.4  0.4095  -99.1
 0.155  0.6626 -146.6  14.955  107.8  0.0401   41.3  0.4029 -100.2
 0.160  0.6631 -147.6  14.615  107.3  0.0405   41.1  0.3965 -101.4
 0.165  0.6638 -148.7  14.277  106.7  0.0408   41.0  0.3903 -102.5
 0.170  0.6647 -149.7  13.940  106.0  0.0411   40.9  0.3842 -103.8
 0.175  0.6659 -150.7  13.605  105.4  0.0414   40.7  0.3783 -105.0
 0.180  0.6673 -151.8  13.272  104.7  0.0418   40.6  0.3726 -106.3
 0.185  0.6689 -152.8  12.941  103.9  0.0421   40.5  0.3671 -107.6
 0.190  0.6707 -153.9  12.613  103.2  0.0424   40.3  0.3618 -109.0
 0.195  0.6727 -154.9  12.287  102.4  0.0428   40.2  0.3568 -110.4
 0.200  0.6750 -155.9  11.963  101.5  0.0431   40.1  0.3519 -111.9
 0.220  0.6759 -159.0  11.031   99.8  0.0444   40.8  0.3363 -115.8
 0.240  0.6787 -162.2  10.112   97.7  0.0457   41.4  0.3223 -120.0
 0.260  0.6813 -164.7   9.351   95.9  0.0469   41.9  0.3116 -123.6
 0.280  0.6828 -166.8   8.741   94.5  0.0481   42.4  0.3035 -126.5
 0.300  0.6851 -168.8   8.137   93.0  0.0493   42.8  0.2962 -129.6
 0.320  0.6851 -170.5   7.745   92.1  0.0506   43.5  0.2906 -131.6
 0.340  0.6856 -172.1   7.354   91.1  0.0520   44.2  0.2854 -133.8
 0.360  0.6867 -173.8   6.967   90.0  0.0533   44.9  0.2805 -136.0
 0.380  0.6884 -175.5   6.582   88.7  0.0546   45.5  0.2761 -138.3
 0.400  0.6907 -177.1   6.201   87.3  0.0560   46.1  0.2722 -140.6
 0.420  0.6906 -178.2   5.953   86.5  0.0575   46.6  0.2695 -142.0
 0.440  0.6907 -179.4   5.706   85.7  0.0590   47.0  0.2670 -143.5
 0.450  0.6908 -180.0   5.583   85.3  0.0598   47.3  0.2658 -144.3
 0.460  0.6911  179.5   5.461   84.8  0.0605   47.5  0.2646 -145.0
 0.480  0.6918  178.3   5.216   83.9  0.0621   47.9  0.2625 -146.5
 0.500  0.6927  177.2   4.974   82.8  0.0636   48.3  0.2605 -148.1
 0.520  0.6931  176.2   4.809   82.0  0.0652   48.8  0.2593 -149.2
 0.540  0.6937  175.2   4.645   81.2  0.0667   49.3  0.2582 -150.3
 0.560  0.6945  174.3   4.482   80.3  0.0683   49.7  0.2573 -151.4
 0.580  0.6955  173.3   4.320   79.3  0.0698   50.2  0.2564 -152.6
 0.600  0.6967  172.3   4.159   78.3  0.0714   50.6  0.2556 -153.7
 0.620  0.6968  171.4   4.044   77.6  0.0730   50.9  0.2551 -154.6
 0.640  0.6971  170.5   3.929   76.8  0.0746   51.2  0.2547 -155.5
 0.660  0.6976  169.6   3.815   76.0  0.0761   51.4  0.2543 -156.3
 0.680  0.6983  168.7   3.702   75.2  0.0777   51.7  0.2540 -157.2
 0.700  0.6991  167.8   3.590   74.3  0.0793   51.9  0.2538 -158.1
 0.720  0.6999  167.1   3.501   73.7  0.0811   51.9  0.2536 -158.8
 0.740  0.7008  166.4   3.413   73.0  0.0829   52.0  0.2535 -159.5
 0.760  0.7018  165.7   3.326   72.4  0.0846   52.0  0.2534 -160.2
 0.780  0.7029  165.0   3.239   71.7  0.0864   52.1  0.2534 -160.9
 0.800  0.7041  164.3   3.152   70.9  0.0882   52.1  0.2534 -161.6
 0.820  0.7019  163.5   3.083   70.3  0.0899   52.2  0.2531 -162.2
 0.840  0.6998  162.6   3.014   69.6  0.0916   52.3  0.2529 -162.8
 0.860  0.6978  161.8   2.946   69.0  0.0934   52.4  0.2527 -163.4
 0.880  0.6960  160.9   2.878   68.2  0.0951   52.5  0.2525 -164.0
 0.900  0.6944  160.1   2.810   67.5  0.0968   52.6  0.2524 -164.6
 0.920  0.6957  159.3   2.757   66.9  0.0984   52.6  0.2526 -165.1
 0.940  0.6972  158.6   2.704   66.3  0.1000   52.7  0.2528 -165.5
 0.960  0.6988  157.8   2.651   65.7  0.1015   52.7  0.2530 -166.0
 0.980  0.7005  157.1   2.599   65.0  0.1031   52.8  0.2532 -166.4
 1.000  0.7023  156.3   2.547   64.3  0.1047   52.8  0.2535 -166.9
 1.020  0.7029  155.7   2.503   63.7  0.1064   52.7  0.2541 -167.4
 1.040  0.7036  155.0   2.458   63.1  0.1081   52.6  0.2547 -167.8
 1.060  0.7044  154.4   2.415   62.4  0.1098   52.5  0.2553 -168.3
 1.080  0.7053  153.7   2.371   61.7  0.1115   52.4  0.2559 -168.7
 1.100  0.7063  153.1   2.328   61.0  0.1132   52.3  0.2565 -169.2
 1.120  0.7066  152.4   2.291   60.4  0.1149   52.3  0.2569 -169.6
 1.140  0.7069  151.8   2.254   59.9  0.1166   52.2  0.2573 -170.1
 1.160  0.7073  151.1   2.218   59.3  0.1183   52.2  0.2577 -170.5
 1.180  0.7079  150.5   2.182   58.6  0.1200   52.1  0.2581 -171.0
 1.200  0.7085  149.8   2.146   58.0  0.1217   52.1  0.2585 -171.4
 1.220  0.7083  149.1   2.113   57.4  0.1235   51.9  0.2588 -171.8
 1.240  0.7081  148.5   2.081   56.8  0.1252   51.7  0.2592 -172.1
 1.260  0.7081  147.8   2.049   56.1  0.1270   51.5  0.2595 -172.5
 1.280  0.7082  147.2   2.017   55.5  0.1287   51.4  0.2599 -172.8
 1.300  0.7083  146.5   1.985   54.8  0.1305   51.2  0.2603 -173.2
 1.320  0.7093  145.9   1.957   54.3  0.1321   51.0  0.2610 -173.5
 1.340  0.7103  145.3   1.929   53.8  0.1337   50.9  0.2616 -173.9
 1.360  0.7114  144.8   1.902   53.3  0.1352   50.7  0.2623 -174.2
 1.380  0.7126  144.2   1.874   52.8  0.1368   50.6  0.2630 -174.6
 1.400  0.7139  143.6   1.847   52.2  0.1384   50.4  0.2637 -174.9
 1.420  0.7141  143.0   1.828   51.6  0.1401   50.3  0.2643 -175.2
 1.440  0.7144  142.4   1.808   51.0  0.1418   50.2  0.2648 -175.5
 1.460  0.7148  141.8   1.789   50.4  0.1435   50.0  0.2654 -175.9
 1.480  0.7153  141.2   1.771   49.8  0.1452   49.9  0.2660 -176.2
 1.500  0.7158  140.6   1.752   49.2  0.1469   49.8  0.2666 -176.5
 1.520  0.7167  140.0   1.727   48.6  0.1486   49.5  0.2675 -176.9
 1.540  0.7176  139.4   1.702   48.1  0.1502   49.3  0.2683 -177.3
 1.560  0.7187  138.7   1.678   47.5  0.1519   49.1  0.2692 -177.6
 1.580  0.7198  138.1   1.653   46.8  0.1535   48.8  0.2701 -178.0
 1.600  0.7210  137.5   1.629   46.2  0.1552   48.6  0.2710 -178.4
 1.620  0.7222  136.8   1.613   45.6  0.1567   48.4  0.2715 -178.8
 1.640  0.7236  136.2   1.597   45.1  0.1582   48.2  0.2720 -179.1
 1.660  0.7250  135.5   1.581   44.5  0.1596   48.0  0.2725 -179.5
 1.680  0.7265  134.9   1.565   43.9  0.1611   47.8  0.2730 -179.8
 1.700  0.7281  134.2   1.549   43.3  0.1626   47.6  0.2735  179.8
 1.720  0.7283  133.7   1.534   42.9  0.1642   47.4  0.2740  179.6
 1.740  0.7286  133.3   1.520   42.4  0.1658   47.1  0.2745  179.4
 1.760  0.7289  132.8   1.506   41.9  0.1675   46.9  0.2750  179.1
 1.780  0.7292  132.4   1.491   41.5  0.1691   46.6  0.2756  178.9
 1.800  0.7296  131.9   1.477   41.0  0.1707   46.4  0.2761  178.7
 1.820  0.7302  131.4   1.462   40.5  0.1723   46.2  0.2773  178.4
 1.840  0.7308  130.8   1.447   39.9  0.1738   45.9  0.2786  178.1
 1.860  0.7316  130.3   1.433   39.4  0.1754   45.7  0.2798  177.7
 1.880  0.7324  129.7   1.418   38.8  0.1769   45.4  0.2810  177.4
 1.900  0.7332  129.2   1.404   38.2  0.1785   45.2  0.2823  177.1
 1.920  0.7344  128.7   1.390   37.7  0.1800   45.0  0.2833  176.7
 1.940  0.7357  128.2   1.376   37.2  0.1815   44.7  0.2844  176.4
 1.960  0.7370  127.6   1.362   36.7  0.1830   44.5  0.2854  176.0
 1.980  0.7384  127.1   1.348   36.1  0.1845   44.2  0.2865  175.7
 2.000  0.7399  126.6   1.334   35.6  0.1860   44.0  0.2876  175.3
 2.020  0.7400  126.0   1.322   35.1  0.1875   43.8  0.2886  175.0
 2.040  0.7401  125.5   1.311   34.7  0.1890   43.5  0.2896  174.6
 2.060  0.7403  124.9   1.299   34.2  0.1904   43.3  0.2906  174.3
 2.080  0.7405  124.4   1.288   33.7  0.1919   43.0  0.2916  174.0
 2.100  0.7408  123.8   1.277   33.2  0.1934   42.8  0.2926  173.6
 2.120  0.7412  123.3   1.266   32.7  0.1949   42.6  0.2937  173.3
 2.140  0.7417  122.7   1.255   32.2  0.1964   42.4  0.2947  173.0
 2.160  0.7422  122.2   1.244   31.7  0.1979   42.1  0.2958  172.6
 2.180  0.7428  121.6   1.233   31.1  0.1994   41.9  0.2968  172.3
 2.200  0.7435  121.1   1.222   30.6  0.2009   41.7  0.2979  172.0
 2.220  0.7441  120.6   1.213   30.1  0.2023   41.4  0.2991  171.6
 2.240  0.7448  120.0   1.203   29.6  0.2036   41.2  0.3003  171.2
 2.260  0.7456  119.5   1.194   29.2  0.2050   40.9  0.3015  170.9
 2.280  0.7464  119.0   1.185   28.7  0.2063   40.6  0.3027  170.5
 2.300  0.7473  118.4   1.176   28.1  0.2077   40.4  0.3040  170.1
 2.320  0.7483  117.9   1.167   27.6  0.2091   40.1  0.3052  169.7
 2.340  0.7493  117.4   1.159   27.1  0.2104   39.8  0.3065  169.4
 2.360  0.7503  116.8   1.150   26.6  0.2118   39.6  0.3078  169.0
 2.380  0.7515  116.3   1.141   26.0  0.2132   39.3  0.3091  168.7
 2.400  0.7527  115.8   1.133   25.5  0.2146   39.1  0.3104  168.3
 2.420  0.7533  115.3   1.125   25.1  0.2159   38.8  0.3114  168.0
 2.440  0.7539  114.8   1.116   24.7  0.2171   38.6  0.3124  167.7
 2.460  0.7546  114.3   1.108   24.2  0.2184   38.3  0.3135  167.3
 2.480  0.7553  113.8   1.100   23.8  0.2197   38.0  0.3145  167.0
 2.500  0.7561  113.3   1.092   23.3  0.2210   37.8  0.3156  166.7
 2.520  0.7569  112.8   1.084   22.9  0.2223   37.5  0.3166  166.4
 2.540  0.7578  112.3   1.076   22.4  0.2236   37.2  0.3177  166.1
 2.560  0.7588  111.8   1.068   22.0  0.2249   37.0  0.3188  165.8
 2.580  0.7598  111.3   1.060   21.5  0.2262   36.7  0.3199  165.5
 2.600  0.7609  110.8   1.052   21.0  0.2275   36.5  0.3210  165.2
 2.620  0.7614  110.3   1.045   20.6  0.2287   36.2  0.3225  164.9
 2.640  0.7620  109.9   1.039   20.2  0.2299   36.0  0.3240  164.5
 2.660  0.7627  109.4   1.032   19.8  0.2311   35.7  0.3255  164.2
 2.680  0.7634  108.9   1.025   19.4  0.2323   35.5  0.3270  163.9
 2.700  0.7641  108.4   1.019   19.0  0.2335   35.2  0.3285  163.6
 2.720  0.7649  108.0   1.012   18.5  0.2348   35.0  0.3300  163.2
 2.740  0.7658  107.5   1.006   18.1  0.2360   34.7  0.3315  162.9
 2.760  0.7666  107.0   1.000   17.7  0.2372   34.5  0.3331  162.6
 2.780  0.7676  106.6   0.993   17.2  0.2385   34.2  0.3346  162.3
 2.800  0.7686  106.1   0.987   16.8  0.2397   34.0  0.3362  162.0
 2.820  0.7692  105.7   0.980   16.4  0.2409   33.7  0.3375  161.6
 2.840  0.7697  105.3   0.973   16.0  0.2421   33.5  0.3388  161.3
 2.860  0.7704  104.8   0.967   15.5  0.2433   33.2  0.3402  161.0
 2.880  0.7711  104.4   0.960   15.1  0.2446   32.9  0.3415  160.6
 2.900  0.7718  104.0   0.953   14.7  0.2458   32.7  0.3428  160.3
 2.920  0.7725  103.6   0.947   14.2  0.2470   32.4  0.3442  159.9
 2.940  0.7733  103.2   0.940   13.8  0.2483   32.2  0.3456  159.6
 2.960  0.7742  102.7   0.934   13.3  0.2495   31.9  0.3470  159.3
 2.980  0.7751  102.3   0.927   12.9  0.2507   31.6  0.3484  158.9
 3.000  0.7760  101.9   0.921   12.4  0.2520   31.4  0.3498  158.6
 3.100  0.7787  100.0   0.895   10.9  0.2571   30.1  0.3569  157.0
 3.200  0.7822   98.0   0.869    9.3  0.2624   28.8  0.3642  155.5
 3.300  0.7867   96.1   0.844    7.5  0.2677   27.6  0.3718  154.1
 3.400  0.7920   94.3   0.819    5.7  0.2732   26.4  0.3796  152.7
 3.500  0.7981   92.4   0.796    3.8  0.2788   25.3  0.3876  151.4
 3.600  0.7992   90.7   0.777    2.4  0.2833   24.0  0.3956  149.9
 3.700  0.8011   89.0   0.758    0.9  0.2879   22.7  0.4038  148.4
 3.800  0.8037   87.3   0.740   -0.7  0.2927   21.5  0.4123  147.0
 3.900  0.8069   85.6   0.723   -2.4  0.2976   20.3  0.4210  145.6
 4.000  0.8109   83.9   0.706   -4.1  0.3026   19.1  0.4300  144.3
 4.100  0.8122   82.4   0.692   -5.3  0.3062   17.9  0.4363  142.9
 4.200  0.8141   81.0   0.678   -6.5  0.3100   16.7  0.4429  141.6
 4.300  0.8165   79.5   0.665   -7.8  0.3138   15.5  0.4497  140.3
 4.400  0.8194   78.0   0.652   -9.2  0.3179   14.3  0.4567  139.0
 4.500  0.8228   76.6   0.639  -10.6  0.3220   13.2  0.4639  137.8
 4.600  0.8240   75.4   0.629  -11.6  0.3251   12.1  0.4695  136.6
 4.700  0.8256   74.1   0.619  -12.6  0.3284   11.0  0.4754  135.4
 4.800  0.8276   72.9   0.609  -13.6  0.3317   10.0  0.4814  134.3
 4.900  0.8299   71.7   0.599  -14.7  0.3352    8.9  0.4876  133.2
 5.000  0.8326   70.5   0.590  -15.8  0.3388    7.9  0.4940  132.1
 5.100  0.8340   69.3   0.581  -16.7  0.3421    6.9  0.4995  130.9
 5.200  0.8358   68.1   0.571  -17.6  0.3454    5.8  0.5053  129.7
 5.300  0.8380   66.9   0.562  -18.5  0.3489    4.8  0.5112  128.5
 5.400  0.8405   65.7   0.553  -19.4  0.3525    3.9  0.5174  127.4
 5.500  0.8434   64.5   0.544  -20.4  0.3562    2.9  0.5237  126.3
 5.600  0.8427   63.5   0.539  -21.2  0.3592    1.8  0.5286  125.2
 5.700  0.8422   62.5   0.533  -22.0  0.3624    0.6  0.5337  124.0
 5.800  0.8420   61.5   0.528  -22.8  0.3656   -0.5  0.5391  122.9
 5.900  0.8421   60.5   0.523  -23.6  0.3691   -1.5  0.5446  121.9
 6.000  0.8424   59.5   0.518  -24.4  0.3726   -2.6  0.5503  120.8
!
!  f       NFmin   Gammaopt  rn/50
! GHz       dB    MAG  ANG    -
!
! noise parameter not available yet for this operation point!
!
! (c) 2016  Infineon Technologies AG, Munich
