! Infineon Technologies  Discrete & RF Semiconductors
! BFP193
! VCE = 2.5 V,  IC =  6.0 mA
! Common Emitter S-Parameters:                            Jan 2016
# GHz  S  MA  R  50
!  f         S11            S21            S12            S22
! GHz     MAG   ANG      MAG   ANG      MAG   ANG      MAG   ANG
 0.010  0.8014   -5.8  18.132  177.6  0.0035   90.9  0.9855   -2.6
 0.015  0.7980   -8.3  17.895  175.3  0.0054   87.3  0.9808   -3.8
 0.020  0.7961  -10.9  17.687  173.0  0.0074   85.6  0.9766   -5.0
 0.025  0.7906  -13.6  17.605  171.5  0.0092   82.9  0.9718   -6.2
 0.030  0.7869  -16.3  17.536  169.9  0.0110   81.1  0.9674   -7.5
 0.035  0.7849  -19.0  17.479  168.4  0.0128   79.8  0.9635   -8.8
 0.040  0.7847  -21.7  17.436  166.8  0.0146   78.9  0.9601  -10.0
 0.045  0.7863  -24.4  17.405  165.3  0.0164   78.1  0.9572  -11.3
 0.050  0.7896  -27.1  17.387  163.7  0.0182   77.5  0.9547  -12.6
 0.055  0.7800  -29.4  17.204  162.4  0.0197   75.5  0.9459  -13.6
 0.060  0.7717  -31.8  17.029  161.1  0.0212   73.7  0.9373  -14.7
 0.065  0.7648  -34.2  16.864  159.7  0.0228   72.2  0.9291  -15.7
 0.070  0.7593  -36.7  16.709  158.3  0.0243   70.9  0.9212  -16.8
 0.075  0.7552  -39.2  16.564  156.9  0.0259   69.8  0.9137  -17.9
 0.080  0.7525  -41.7  16.429  155.5  0.0274   68.7  0.9064  -19.0
 0.085  0.7513  -44.2  16.304  154.0  0.0290   67.8  0.8996  -20.2
 0.090  0.7516  -46.8  16.190  152.5  0.0306   67.0  0.8931  -21.3
 0.095  0.7533  -49.3  16.088  151.0  0.0322   66.3  0.8870  -22.5
 0.100  0.7565  -51.8  15.996  149.5  0.0338   65.6  0.8812  -23.7
 0.105  0.7486  -53.8  15.775  148.4  0.0348   64.4  0.8711  -24.4
 0.110  0.7416  -55.8  15.560  147.2  0.0359   63.3  0.8612  -25.2
 0.115  0.7356  -57.9  15.351  146.0  0.0370   62.2  0.8515  -26.0
 0.120  0.7305  -60.0  15.149  144.8  0.0381   61.2  0.8419  -26.8
 0.125  0.7264  -62.1  14.955  143.6  0.0392   60.3  0.8325  -27.6
 0.130  0.7233  -64.2  14.767  142.3  0.0403   59.4  0.8232  -28.4
 0.135  0.7213  -66.4  14.587  140.9  0.0414   58.6  0.8141  -29.2
 0.140  0.7203  -68.6  14.416  139.6  0.0425   57.8  0.8052  -30.1
 0.145  0.7203  -70.7  14.252  138.2  0.0437   57.0  0.7965  -31.0
 0.150  0.7213  -72.9  14.097  136.8  0.0448   56.3  0.7880  -31.9
 0.155  0.7159  -74.6  13.925  136.0  0.0455   55.5  0.7790  -32.5
 0.160  0.7111  -76.3  13.755  135.1  0.0463   54.7  0.7702  -33.0
 0.165  0.7070  -78.1  13.589  134.2  0.0470   53.9  0.7614  -33.6
 0.170  0.7035  -79.8  13.427  133.3  0.0478   53.2  0.7527  -34.2
 0.175  0.7007  -81.6  13.267  132.4  0.0486   52.5  0.7440  -34.9
 0.180  0.6986  -83.4  13.112  131.4  0.0493   51.8  0.7355  -35.5
 0.185  0.6972  -85.2  12.960  130.5  0.0501   51.1  0.7270  -36.2
 0.190  0.6964  -87.0  12.811  129.5  0.0509   50.4  0.7187  -36.8
 0.195  0.6964  -88.8  12.667  128.4  0.0517   49.8  0.7104  -37.5
 0.200  0.6970  -90.6  12.527  127.4  0.0525   49.2  0.7023  -38.2
 0.220  0.6812  -96.3  11.853  124.5  0.0546   47.2  0.6716  -39.8
 0.240  0.6723 -102.1  11.214  121.2  0.0568   45.3  0.6414  -41.6
 0.260  0.6649 -107.3  10.650  118.3  0.0588   43.8  0.6153  -43.0
 0.280  0.6565 -111.9  10.144  115.9  0.0605   42.5  0.5928  -44.2
 0.300  0.6523 -116.5   9.657  113.3  0.0623   41.4  0.5705  -45.4
 0.320  0.6436 -120.0   9.266  111.8  0.0632   40.6  0.5520  -46.0
 0.340  0.6373 -123.6   8.883  110.1  0.0642   39.8  0.5336  -46.7
 0.360  0.6336 -127.3   8.508  108.3  0.0651   39.0  0.5152  -47.4
 0.380  0.6326 -131.0   8.142  106.3  0.0661   38.2  0.4970  -48.2
 0.400  0.6342 -134.7   7.787  104.1  0.0671   37.5  0.4788  -49.0
 0.420  0.6287 -137.1   7.500  102.8  0.0678   37.1  0.4669  -49.4
 0.440  0.6243 -139.6   7.216  101.4  0.0685   36.6  0.4550  -49.8
 0.450  0.6225 -140.9   7.076  100.7  0.0688   36.4  0.4491  -50.0
 0.460  0.6211 -142.1   6.938  100.0  0.0692   36.2  0.4432  -50.2
 0.480  0.6191 -144.7   6.664   98.3  0.0699   35.8  0.4314  -50.6
 0.500  0.6183 -147.2   6.396   96.6  0.0706   35.4  0.4196  -51.1
 0.520  0.6164 -149.2   6.202   95.5  0.0713   35.3  0.4120  -51.4
 0.540  0.6154 -151.3   6.010   94.4  0.0720   35.2  0.4044  -51.6
 0.560  0.6151 -153.3   5.821   93.2  0.0727   35.1  0.3968  -51.9
 0.580  0.6155 -155.4   5.634   92.0  0.0734   35.0  0.3892  -52.2
 0.600  0.6168 -157.4   5.450   90.6  0.0741   34.9  0.3816  -52.5
 0.620  0.6157 -159.1   5.307   89.7  0.0746   34.9  0.3762  -52.7
 0.640  0.6151 -160.7   5.166   88.7  0.0752   34.9  0.3709  -52.9
 0.660  0.6151 -162.4   5.027   87.6  0.0757   35.0  0.3656  -53.1
 0.680  0.6155 -164.0   4.890   86.5  0.0763   35.0  0.3602  -53.4
 0.700  0.6165 -165.7   4.754   85.3  0.0768   35.0  0.3549  -53.6
 0.720  0.6157 -167.1   4.638   84.5  0.0775   35.0  0.3508  -53.8
 0.740  0.6153 -168.5   4.523   83.6  0.0781   35.0  0.3468  -54.1
 0.760  0.6153 -169.8   4.409   82.7  0.0788   35.0  0.3427  -54.3
 0.780  0.6156 -171.2   4.296   81.7  0.0794   35.0  0.3386  -54.5
 0.800  0.6163 -172.6   4.184   80.7  0.0801   35.0  0.3346  -54.8
 0.820  0.6142 -173.8   4.095   79.9  0.0807   35.2  0.3315  -55.0
 0.840  0.6125 -175.1   4.008   79.2  0.0813   35.4  0.3283  -55.2
 0.860  0.6110 -176.4   3.921   78.3  0.0820   35.6  0.3252  -55.4
 0.880  0.6098 -177.6   3.834   77.5  0.0826   35.8  0.3221  -55.7
 0.900  0.6089 -178.9   3.749   76.6  0.0832   36.0  0.3190  -55.9
 0.920  0.6097  179.9   3.678   75.9  0.0837   36.2  0.3170  -56.2
 0.940  0.6108  178.7   3.607   75.1  0.0842   36.3  0.3151  -56.4
 0.960  0.6121  177.5   3.536   74.4  0.0848   36.5  0.3132  -56.7
 0.980  0.6137  176.4   3.467   73.5  0.0853   36.6  0.3112  -56.9
 1.000  0.6156  175.2   3.398   72.7  0.0858   36.8  0.3093  -57.2
 1.020  0.6162  174.2   3.339   72.0  0.0865   37.0  0.3076  -57.5
 1.040  0.6169  173.2   3.280   71.3  0.0872   37.1  0.3060  -57.9
 1.060  0.6179  172.1   3.222   70.6  0.0880   37.3  0.3043  -58.2
 1.080  0.6190  171.1   3.164   69.8  0.0887   37.4  0.3027  -58.6
 1.100  0.6204  170.1   3.107   69.0  0.0894   37.6  0.3011  -58.9
 1.120  0.6211  169.2   3.057   68.3  0.0900   37.8  0.2997  -59.3
 1.140  0.6219  168.2   3.008   67.7  0.0906   38.0  0.2983  -59.6
 1.160  0.6230  167.3   2.959   67.0  0.0913   38.1  0.2969  -60.0
 1.180  0.6241  166.3   2.911   66.2  0.0919   38.3  0.2955  -60.3
 1.200  0.6255  165.4   2.863   65.5  0.0925   38.5  0.2941  -60.7
 1.220  0.6255  164.5   2.818   64.9  0.0933   38.6  0.2930  -61.0
 1.240  0.6257  163.6   2.774   64.2  0.0941   38.7  0.2919  -61.4
 1.260  0.6260  162.7   2.730   63.6  0.0949   38.9  0.2908  -61.7
 1.280  0.6265  161.8   2.687   62.9  0.0957   39.0  0.2898  -62.1
 1.300  0.6271  160.9   2.644   62.2  0.0965   39.1  0.2887  -62.4
 1.320  0.6280  160.1   2.607   61.6  0.0971   39.2  0.2884  -62.8
 1.340  0.6290  159.3   2.570   61.0  0.0978   39.4  0.2880  -63.2
 1.360  0.6302  158.5   2.534   60.3  0.0984   39.5  0.2877  -63.5
 1.380  0.6314  157.7   2.498   59.7  0.0991   39.7  0.2874  -63.9
 1.400  0.6328  156.9   2.462   59.0  0.0997   39.8  0.2871  -64.3
 1.420  0.6325  156.2   2.433   58.4  0.1005   39.9  0.2862  -64.7
 1.440  0.6323  155.5   2.404   57.8  0.1013   40.1  0.2854  -65.2
 1.460  0.6322  154.7   2.375   57.2  0.1022   40.2  0.2845  -65.6
 1.480  0.6322  154.0   2.347   56.6  0.1030   40.4  0.2837  -66.1
 1.500  0.6323  153.3   2.319   56.0  0.1038   40.5  0.2829  -66.5
 1.520  0.6336  152.5   2.288   55.4  0.1048   40.6  0.2820  -66.9
 1.540  0.6350  151.8   2.257   54.7  0.1057   40.8  0.2811  -67.4
 1.560  0.6365  151.0   2.226   54.1  0.1067   40.9  0.2802  -67.8
 1.580  0.6382  150.3   2.195   53.4  0.1076   41.1  0.2793  -68.3
 1.600  0.6399  149.5   2.165   52.7  0.1086   41.2  0.2784  -68.7
 1.620  0.6408  148.7   2.141   52.1  0.1095   41.3  0.2775  -69.2
 1.640  0.6419  147.9   2.117   51.6  0.1103   41.5  0.2765  -69.6
 1.660  0.6430  147.0   2.093   51.0  0.1112   41.6  0.2756  -70.1
 1.680  0.6444  146.2   2.069   50.4  0.1120   41.8  0.2748  -70.5
 1.700  0.6458  145.4   2.046   49.8  0.1129   41.9  0.2739  -71.0
 1.720  0.6468  144.7   2.025   49.3  0.1138   41.9  0.2737  -71.4
 1.740  0.6480  144.0   2.004   48.8  0.1147   41.9  0.2735  -71.9
 1.760  0.6492  143.3   1.984   48.2  0.1155   41.9  0.2733  -72.3
 1.780  0.6506  142.6   1.963   47.7  0.1164   41.9  0.2731  -72.8
 1.800  0.6520  141.9   1.943   47.1  0.1173   41.9  0.2729  -73.2
 1.820  0.6529  141.3   1.923   46.5  0.1182   42.0  0.2727  -73.8
 1.840  0.6538  140.7   1.904   45.9  0.1192   42.1  0.2726  -74.4
 1.860  0.6548  140.2   1.884   45.3  0.1201   42.3  0.2724  -75.1
 1.880  0.6559  139.6   1.865   44.7  0.1211   42.4  0.2724  -75.7
 1.900  0.6570  139.0   1.846   44.1  0.1220   42.5  0.2723  -76.3
 1.920  0.6580  138.3   1.826   43.6  0.1230   42.5  0.2716  -76.8
 1.940  0.6591  137.7   1.807   43.1  0.1241   42.5  0.2709  -77.3
 1.960  0.6602  137.0   1.787   42.5  0.1251   42.4  0.2702  -77.7
 1.980  0.6615  136.4   1.768   42.0  0.1262   42.4  0.2695  -78.2
 2.000  0.6628  135.7   1.749   41.4  0.1272   42.4  0.2689  -78.7
 2.020  0.6634  135.1   1.733   40.9  0.1282   42.4  0.2688  -79.2
 2.040  0.6642  134.5   1.718   40.4  0.1292   42.4  0.2687  -79.8
 2.060  0.6650  133.9   1.702   39.9  0.1301   42.5  0.2687  -80.3
 2.080  0.6659  133.2   1.687   39.3  0.1311   42.5  0.2686  -80.9
 2.100  0.6668  132.6   1.672   38.8  0.1321   42.5  0.2686  -81.5
 2.120  0.6678  132.0   1.657   38.2  0.1331   42.5  0.2687  -82.0
 2.140  0.6689  131.4   1.642   37.7  0.1341   42.5  0.2687  -82.6
 2.160  0.6701  130.8   1.627   37.1  0.1350   42.6  0.2688  -83.1
 2.180  0.6714  130.2   1.612   36.5  0.1360   42.6  0.2689  -83.7
 2.200  0.6727  129.6   1.598   35.9  0.1370   42.6  0.2690  -84.2
 2.220  0.6736  129.0   1.585   35.4  0.1380   42.6  0.2686  -84.8
 2.240  0.6745  128.3   1.572   34.9  0.1391   42.6  0.2682  -85.5
 2.260  0.6756  127.7   1.558   34.4  0.1401   42.5  0.2679  -86.1
 2.280  0.6767  127.1   1.546   33.8  0.1412   42.5  0.2676  -86.7
 2.300  0.6779  126.4   1.533   33.3  0.1422   42.5  0.2673  -87.4
 2.320  0.6792  125.8   1.520   32.8  0.1432   42.5  0.2670  -88.0
 2.340  0.6806  125.2   1.508   32.2  0.1443   42.5  0.2668  -88.7
 2.360  0.6820  124.5   1.495   31.7  0.1453   42.4  0.2667  -89.3
 2.380  0.6836  123.9   1.483   31.1  0.1464   42.4  0.2665  -90.0
 2.400  0.6852  123.3   1.471   30.5  0.1474   42.4  0.2664  -90.6
 2.420  0.6862  122.7   1.459   30.1  0.1485   42.3  0.2662  -91.2
 2.440  0.6872  122.2   1.447   29.6  0.1495   42.3  0.2661  -91.9
 2.460  0.6882  121.6   1.435   29.1  0.1506   42.2  0.2660  -92.5
 2.480  0.6894  121.1   1.424   28.7  0.1517   42.1  0.2660  -93.2
 2.500  0.6906  120.5   1.412   28.2  0.1527   42.1  0.2659  -93.8
 2.520  0.6919  120.0   1.401   27.7  0.1538   42.0  0.2659  -94.4
 2.540  0.6932  119.4   1.389   27.2  0.1549   42.0  0.2660  -95.1
 2.560  0.6946  118.9   1.378   26.7  0.1560   41.9  0.2661  -95.7
 2.580  0.6961  118.3   1.367   26.2  0.1570   41.9  0.2662  -96.4
 2.600  0.6976  117.8   1.356   25.7  0.1581   41.8  0.2663  -97.0
 2.620  0.6988  117.3   1.346   25.3  0.1592   41.7  0.2661  -97.7
 2.640  0.7000  116.7   1.336   24.8  0.1603   41.6  0.2660  -98.4
 2.660  0.7013  116.2   1.327   24.3  0.1615   41.5  0.2658  -99.1
 2.680  0.7027  115.7   1.317   23.9  0.1626   41.4  0.2658  -99.8
 2.700  0.7041  115.2   1.308   23.4  0.1637   41.3  0.2657 -100.4
 2.720  0.7056  114.7   1.298   22.9  0.1648   41.2  0.2657 -101.1
 2.740  0.7071  114.1   1.289   22.4  0.1659   41.2  0.2658 -101.8
 2.760  0.7087  113.6   1.280   21.9  0.1671   41.1  0.2658 -102.5
 2.780  0.7104  113.1   1.271   21.4  0.1682   41.0  0.2659 -103.2
 2.800  0.7121  112.6   1.262   20.9  0.1693   40.9  0.2661 -103.9
 2.820  0.7127  112.1   1.253   20.5  0.1704   40.8  0.2664 -104.6
 2.840  0.7134  111.6   1.244   20.0  0.1716   40.7  0.2667 -105.3
 2.860  0.7141  111.1   1.235   19.6  0.1727   40.6  0.2671 -106.0
 2.880  0.7149  110.7   1.226   19.1  0.1739   40.5  0.2675 -106.7
 2.900  0.7157  110.2   1.217   18.7  0.1750   40.4  0.2680 -107.4
 2.920  0.7166  109.7   1.208   18.2  0.1762   40.3  0.2685 -108.1
 2.940  0.7175  109.2   1.200   17.8  0.1773   40.3  0.2690 -108.8
 2.960  0.7185  108.8   1.191   17.3  0.1785   40.2  0.2696 -109.5
 2.980  0.7195  108.3   1.182   16.8  0.1796   40.1  0.2702 -110.2
 3.000  0.7206  107.8   1.174   16.3  0.1808   40.0  0.2709 -110.9
 3.100  0.7255  105.6   1.135   14.6  0.1866   39.3  0.2719 -114.6
 3.200  0.7314  103.5   1.097   12.8  0.1924   38.6  0.2740 -118.3
 3.300  0.7383  101.4   1.060   10.8  0.1982   38.0  0.2773 -121.9
 3.400  0.7462   99.3   1.025    8.7  0.2041   37.4  0.2816 -125.4
 3.500  0.7550   97.3   0.991    6.5  0.2100   36.8  0.2869 -128.8
 3.600  0.7581   95.4   0.963    4.9  0.2161   35.8  0.2913 -132.7
 3.700  0.7621   93.5   0.936    3.3  0.2222   34.9  0.2969 -136.4
 3.800  0.7668   91.6   0.910    1.5  0.2284   34.1  0.3038 -140.0
 3.900  0.7724   89.8   0.885   -0.3  0.2346   33.3  0.3118 -143.4
 4.000  0.7787   88.0   0.861   -2.3  0.2409   32.5  0.3208 -146.6
 4.100  0.7820   86.3   0.839   -3.7  0.2467   31.3  0.3266 -150.0
 4.200  0.7860   84.7   0.818   -5.1  0.2526   30.2  0.3334 -153.3
 4.300  0.7907   83.1   0.797   -6.7  0.2586   29.2  0.3414 -156.5
 4.400  0.7959   81.5   0.777   -8.3  0.2647   28.2  0.3503 -159.5
 4.500  0.8018   79.9   0.757  -10.0  0.2709   27.2  0.3601 -162.3
 4.600  0.8037   78.6   0.741  -11.1  0.2762   26.0  0.3670 -165.3
 4.700  0.8061   77.2   0.724  -12.3  0.2815   24.9  0.3749 -168.2
 4.800  0.8089   75.9   0.709  -13.6  0.2870   23.8  0.3836 -170.9
 4.900  0.8121   74.6   0.693  -14.8  0.2925   22.8  0.3932 -173.5
 5.000  0.8157   73.3   0.678  -16.2  0.2982   21.8  0.4036 -176.0
 5.100  0.8182   72.1   0.664  -17.1  0.3033   20.6  0.4102 -178.7
 5.200  0.8211   70.9   0.650  -18.0  0.3085   19.5  0.4178  178.7
 5.300  0.8244   69.7   0.636  -18.9  0.3138   18.4  0.4261  176.2
 5.400  0.8280   68.5   0.622  -19.9  0.3193   17.3  0.4352  173.8
 5.500  0.8320   67.3   0.609  -20.9  0.3248   16.3  0.4451  171.5
 5.600  0.8317   66.2   0.599  -21.7  0.3296   15.0  0.4519  169.2
 5.700  0.8317   65.0   0.589  -22.5  0.3346   13.8  0.4595  166.9
 5.800  0.8320   63.9   0.579  -23.4  0.3397   12.6  0.4677  164.7
 5.900  0.8327   62.7   0.570  -24.3  0.3449   11.4  0.4766  162.6
 6.000  0.8337   61.6   0.560  -25.2  0.3503   10.3  0.4861  160.6
!
!  f       NFmin   Gammaopt  rn/50
! GHz       dB    MAG  ANG    -
 0.450      1.20  0.25  114   0.13
 0.900      1.25  0.37  150   0.12
 1.800      2.00  0.55 -158   0.12
!
! (c) 2016  Infineon Technologies AG, Munich
