! Infineon Technologies  Discrete & RF Semiconductors
! BFP193W
! VCE = 3.0 V,  IC =  15 mA
! Common Emitter S-Parameters:                            Jan 2016
# GHz  S  MA  R  50
!  f         S11            S21            S12            S22
! GHz     MAG   ANG      MAG   ANG      MAG   ANG      MAG   ANG
 0.010  0.5936  -10.7  35.863  174.0  0.0034   86.9  0.9706   -4.3
 0.015  0.5948  -16.2  35.761  172.0  0.0051   82.6  0.9642   -7.3
 0.020  0.6014  -21.6  35.705  169.9  0.0068   80.4  0.9606  -10.4
 0.025  0.5994  -26.8  35.397  167.5  0.0085   79.5  0.9493  -12.8
 0.030  0.6024  -32.0  35.152  165.1  0.0102   78.9  0.9397  -15.2
 0.035  0.5979  -36.8  34.626  162.9  0.0116   75.6  0.9256  -17.5
 0.040  0.5976  -41.6  34.152  160.6  0.0131   73.0  0.9130  -19.9
 0.045  0.6014  -46.3  33.734  158.3  0.0146   71.0  0.9020  -22.3
 0.050  0.6094  -51.0  33.373  155.9  0.0161   69.3  0.8927  -24.8
 0.055  0.6011  -54.7  32.678  154.4  0.0170   67.0  0.8742  -26.3
 0.060  0.5953  -58.4  32.006  152.8  0.0180   65.0  0.8564  -27.9
 0.065  0.5921  -62.2  31.360  151.2  0.0190   63.2  0.8393  -29.6
 0.070  0.5915  -66.1  30.741  149.4  0.0200   61.5  0.8230  -31.3
 0.075  0.5936  -69.9  30.151  147.7  0.0210   60.0  0.8074  -33.2
 0.080  0.5984  -73.7  29.591  145.8  0.0221   58.7  0.7926  -35.0
 0.085  0.6056  -77.4  29.063  143.9  0.0231   57.5  0.7788  -37.0
 0.090  0.6154  -81.0  28.570  141.9  0.0242   56.4  0.7658  -39.0
 0.095  0.6275  -84.5  28.112  139.8  0.0252   55.3  0.7538  -41.1
 0.100  0.6418  -87.8  27.691  137.7  0.0263   54.4  0.7429  -43.2
 0.105  0.6415  -88.0  27.116  136.6  0.0269   53.3  0.7278  -44.3
 0.110  0.6412  -88.3  26.551  135.5  0.0275   52.3  0.7129  -45.4
 0.115  0.6409  -88.5  25.995  134.4  0.0281   51.3  0.6984  -46.6
 0.120  0.6407  -88.7  25.451  133.2  0.0287   50.4  0.6841  -47.8
 0.125  0.6404  -88.9  24.919  131.9  0.0293   49.5  0.6702  -49.1
 0.130  0.6402  -89.2  24.399  130.6  0.0299   48.6  0.6566  -50.5
 0.135  0.6399  -89.4  23.892  129.3  0.0306   47.8  0.6434  -51.9
 0.140  0.6397  -89.6  23.400  127.8  0.0312   47.0  0.6306  -53.3
 0.145  0.6395  -89.9  22.922  126.3  0.0319   46.2  0.6182  -54.8
 0.150  0.6393  -90.1  22.461  124.8  0.0325   45.5  0.6063  -56.4
 0.155  0.6314  -93.9  22.036  124.1  0.0328   45.0  0.5954  -57.1
 0.160  0.6262  -97.7  21.615  123.3  0.0331   44.5  0.5846  -57.9
 0.165  0.6239 -101.6  21.198  122.5  0.0335   44.0  0.5739  -58.7
 0.170  0.6245 -105.5  20.785  121.7  0.0338   43.5  0.5634  -59.6
 0.175  0.6280 -109.4  20.376  120.9  0.0341   43.0  0.5529  -60.4
 0.180  0.6343 -113.2  19.972  120.0  0.0345   42.5  0.5426  -61.3
 0.185  0.6434 -116.9  19.573  119.1  0.0348   42.0  0.5325  -62.3
 0.190  0.6551 -120.5  19.179  118.1  0.0351   41.6  0.5225  -63.2
 0.195  0.6693 -124.0  18.791  117.1  0.0355   41.1  0.5126  -64.3
 0.200  0.6858 -127.3  18.408  116.1  0.0358   40.7  0.5029  -65.3
 0.220  0.6855 -131.5  17.225  113.9  0.0367   39.4  0.4734  -67.7
 0.240  0.6888 -135.7  16.072  111.3  0.0377   38.2  0.4449  -70.5
 0.260  0.6924 -139.4  15.049  109.1  0.0385   37.4  0.4193  -72.9
 0.280  0.6949 -142.5  14.138  107.3  0.0392   36.9  0.3961  -74.8
 0.300  0.6995 -145.6  13.242  105.3  0.0399   36.4  0.3733  -76.9
 0.320  0.6988 -147.7  12.630  104.2  0.0404   36.2  0.3587  -78.1
 0.340  0.6990 -149.9  12.024  102.9  0.0410   36.0  0.3443  -79.5
 0.360  0.7003 -152.0  11.424  101.5  0.0415   35.8  0.3301  -81.0
 0.380  0.7025 -154.2  10.832   99.9  0.0421   35.7  0.3162  -82.6
 0.400  0.7057 -156.3  10.249   98.2  0.0426   35.5  0.3025  -84.3
 0.420  0.7057 -157.8   9.861   97.3  0.0431   35.7  0.2937  -85.3
 0.440  0.7061 -159.3   9.475   96.4  0.0435   35.9  0.2850  -86.3
 0.450  0.7065 -160.1   9.283   95.9  0.0437   36.0  0.2807  -86.9
 0.460  0.7071 -160.8   9.092   95.3  0.0440   36.1  0.2764  -87.5
 0.480  0.7085 -162.3   8.712   94.2  0.0444   36.3  0.2679  -88.6
 0.500  0.7104 -163.8   8.336   93.0  0.0449   36.5  0.2595  -89.9
 0.520  0.7101 -164.9   8.066   92.3  0.0454   36.7  0.2537  -90.7
 0.540  0.7100 -165.9   7.797   91.5  0.0459   36.9  0.2480  -91.5
 0.560  0.7101 -167.0   7.529   90.7  0.0464   37.1  0.2423  -92.4
 0.580  0.7105 -168.0   7.264   89.8  0.0469   37.3  0.2367  -93.3
 0.600  0.7111 -169.1   7.000   88.8  0.0474   37.5  0.2311  -94.3
 0.620  0.7124 -170.0   6.812   88.2  0.0479   37.9  0.2273  -95.0
 0.640  0.7138 -171.0   6.625   87.6  0.0484   38.2  0.2235  -95.6
 0.660  0.7154 -171.9   6.439   86.9  0.0488   38.6  0.2198  -96.3
 0.680  0.7172 -172.8   6.254   86.2  0.0493   39.0  0.2161  -97.1
 0.700  0.7192 -173.7   6.070   85.4  0.0498   39.3  0.2124  -97.8
 0.720  0.7183 -174.5   5.917   84.8  0.0504   39.7  0.2101  -98.3
 0.740  0.7176 -175.2   5.764   84.2  0.0509   40.0  0.2077  -98.9
 0.760  0.7170 -176.0   5.612   83.6  0.0515   40.4  0.2054  -99.4
 0.780  0.7165 -176.7   5.461   82.9  0.0520   40.8  0.2032 -100.0
 0.800  0.7162 -177.5   5.311   82.2  0.0526   41.1  0.2009 -100.6
 0.820  0.7163 -178.1   5.195   81.7  0.0531   41.3  0.1993 -101.1
 0.840  0.7166 -178.7   5.080   81.1  0.0536   41.6  0.1978 -101.7
 0.860  0.7169 -179.3   4.965   80.5  0.0541   41.8  0.1962 -102.3
 0.880  0.7172 -179.9   4.851   79.9  0.0546   42.0  0.1947 -102.8
 0.900  0.7177  179.5   4.737   79.3  0.0551   42.2  0.1932 -103.4
 0.920  0.7175  178.9   4.642   78.8  0.0557   42.5  0.1921 -103.9
 0.940  0.7174  178.4   4.547   78.3  0.0563   42.8  0.1911 -104.5
 0.960  0.7174  177.8   4.453   77.8  0.0568   43.1  0.1901 -105.0
 0.980  0.7174  177.3   4.359   77.3  0.0574   43.4  0.1891 -105.5
 1.000  0.7175  176.7   4.265   76.7  0.0580   43.7  0.1881 -106.1
 1.020  0.7183  176.2   4.193   76.2  0.0586   43.9  0.1873 -106.5
 1.040  0.7191  175.7   4.120   75.7  0.0592   44.2  0.1866 -106.8
 1.060  0.7200  175.2   4.049   75.2  0.0599   44.4  0.1858 -107.2
 1.080  0.7209  174.7   3.977   74.7  0.0605   44.6  0.1850 -107.5
 1.100  0.7219  174.2   3.906   74.1  0.0611   44.8  0.1843 -107.9
 1.120  0.7218  173.7   3.839   73.6  0.0618   45.0  0.1841 -108.2
 1.140  0.7217  173.1   3.773   73.2  0.0624   45.3  0.1840 -108.6
 1.160  0.7216  172.6   3.707   72.7  0.0631   45.5  0.1838 -108.9
 1.180  0.7217  172.0   3.641   72.1  0.0637   45.7  0.1836 -109.3
 1.200  0.7218  171.5   3.575   71.6  0.0644   45.9  0.1835 -109.6
 1.220  0.7225  171.1   3.521   71.1  0.0651   46.1  0.1836 -110.0
 1.240  0.7233  170.6   3.468   70.6  0.0657   46.4  0.1836 -110.4
 1.260  0.7241  170.2   3.415   70.1  0.0664   46.6  0.1837 -110.8
 1.280  0.7249  169.7   3.362   69.6  0.0670   46.8  0.1838 -111.2
 1.300  0.7258  169.3   3.310   69.1  0.0677   47.0  0.1839 -111.6
 1.320  0.7259  168.9   3.265   68.7  0.0684   47.1  0.1840 -112.0
 1.340  0.7260  168.5   3.220   68.2  0.0691   47.3  0.1841 -112.4
 1.360  0.7262  168.0   3.176   67.8  0.0697   47.4  0.1842 -112.8
 1.380  0.7264  167.6   3.131   67.3  0.0704   47.6  0.1844 -113.2
 1.400  0.7267  167.2   3.087   66.8  0.0711   47.7  0.1845 -113.6
 1.420  0.7267  166.8   3.047   66.4  0.0718   47.9  0.1846 -113.9
 1.440  0.7268  166.3   3.007   66.0  0.0725   48.1  0.1847 -114.2
 1.460  0.7269  165.9   2.968   65.6  0.0731   48.3  0.1848 -114.6
 1.480  0.7270  165.4   2.928   65.1  0.0738   48.4  0.1849 -114.9
 1.500  0.7272  165.0   2.889   64.7  0.0745   48.6  0.1850 -115.2
 1.520  0.7276  164.6   2.854   64.2  0.0752   48.7  0.1854 -115.4
 1.540  0.7280  164.1   2.819   63.8  0.0759   48.8  0.1859 -115.6
 1.560  0.7285  163.7   2.784   63.3  0.0766   49.0  0.1863 -115.9
 1.580  0.7290  163.2   2.749   62.8  0.0773   49.1  0.1868 -116.1
 1.600  0.7296  162.8   2.715   62.3  0.0780   49.2  0.1872 -116.3
 1.620  0.7299  162.4   2.683   61.9  0.0787   49.3  0.1880 -116.7
 1.640  0.7302  162.1   2.651   61.5  0.0793   49.4  0.1888 -117.1
 1.660  0.7305  161.7   2.620   61.1  0.0800   49.4  0.1896 -117.4
 1.680  0.7309  161.4   2.588   60.6  0.0806   49.5  0.1905 -117.8
 1.700  0.7313  161.0   2.557   60.2  0.0813   49.6  0.1913 -118.2
 1.720  0.7319  160.6   2.529   59.8  0.0821   49.7  0.1915 -118.6
 1.740  0.7325  160.3   2.502   59.3  0.0829   49.8  0.1917 -119.0
 1.760  0.7331  159.9   2.474   58.9  0.0836   49.8  0.1919 -119.3
 1.780  0.7337  159.6   2.447   58.5  0.0844   49.9  0.1921 -119.7
 1.800  0.7344  159.2   2.420   58.0  0.0852   50.0  0.1923 -120.1
 1.820  0.7339  158.8   2.394   57.6  0.0859   50.0  0.1928 -120.3
 1.840  0.7334  158.3   2.368   57.1  0.0866   50.1  0.1933 -120.5
 1.860  0.7330  157.9   2.343   56.7  0.0874   50.1  0.1939 -120.7
 1.880  0.7326  157.4   2.317   56.2  0.0881   50.2  0.1944 -120.9
 1.900  0.7323  157.0   2.292   55.7  0.0888   50.2  0.1949 -121.1
 1.920  0.7328  156.6   2.271   55.3  0.0895   50.2  0.1959 -121.4
 1.940  0.7334  156.3   2.250   54.9  0.0902   50.2  0.1970 -121.7
 1.960  0.7340  155.9   2.229   54.5  0.0910   50.3  0.1980 -121.9
 1.980  0.7346  155.6   2.208   54.1  0.0917   50.3  0.1991 -122.2
 2.000  0.7353  155.2   2.187   53.7  0.0924   50.3  0.2001 -122.5
 2.020  0.7357  154.9   2.167   53.3  0.0931   50.3  0.2007 -122.9
 2.040  0.7361  154.5   2.148   52.9  0.0939   50.3  0.2014 -123.2
 2.060  0.7365  154.2   2.129   52.5  0.0946   50.4  0.2021 -123.5
 2.080  0.7370  153.9   2.109   52.1  0.0953   50.4  0.2027 -123.9
 2.100  0.7374  153.5   2.090   51.7  0.0960   50.4  0.2034 -124.2
 2.120  0.7379  153.2   2.071   51.3  0.0968   50.4  0.2041 -124.6
 2.140  0.7385  152.9   2.052   50.9  0.0975   50.4  0.2048 -124.9
 2.160  0.7390  152.6   2.033   50.5  0.0982   50.5  0.2055 -125.2
 2.180  0.7396  152.2   2.015   50.0  0.0990   50.5  0.2062 -125.6
 2.200  0.7402  151.9   1.996   49.6  0.0997   50.5  0.2069 -125.9
 2.220  0.7404  151.5   1.979   49.2  0.1004   50.5  0.2079 -126.2
 2.240  0.7406  151.2   1.962   48.9  0.1012   50.5  0.2089 -126.5
 2.260  0.7408  150.8   1.946   48.5  0.1019   50.5  0.2098 -126.8
 2.280  0.7411  150.5   1.929   48.1  0.1027   50.5  0.2108 -127.1
 2.300  0.7414  150.1   1.913   47.7  0.1034   50.4  0.2118 -127.3
 2.320  0.7417  149.7   1.896   47.3  0.1042   50.4  0.2128 -127.6
 2.340  0.7421  149.4   1.880   46.9  0.1049   50.4  0.2138 -127.9
 2.360  0.7424  149.0   1.864   46.5  0.1057   50.4  0.2149 -128.2
 2.380  0.7429  148.7   1.848   46.0  0.1064   50.4  0.2159 -128.4
 2.400  0.7433  148.3   1.832   45.6  0.1072   50.4  0.2169 -128.7
 2.420  0.7436  147.9   1.818   45.2  0.1080   50.4  0.2177 -129.1
 2.440  0.7439  147.6   1.804   44.8  0.1087   50.3  0.2184 -129.4
 2.460  0.7442  147.2   1.790   44.5  0.1095   50.3  0.2192 -129.8
 2.480  0.7446  146.9   1.777   44.1  0.1103   50.3  0.2200 -130.2
 2.500  0.7450  146.5   1.763   43.7  0.1110   50.2  0.2207 -130.5
 2.520  0.7454  146.2   1.749   43.3  0.1118   50.2  0.2215 -130.9
 2.540  0.7458  145.8   1.736   42.9  0.1126   50.2  0.2223 -131.2
 2.560  0.7463  145.5   1.722   42.5  0.1134   50.2  0.2232 -131.6
 2.580  0.7468  145.1   1.709   42.0  0.1141   50.1  0.2240 -132.0
 2.600  0.7473  144.8   1.696   41.6  0.1149   50.1  0.2248 -132.3
 2.620  0.7480  144.5   1.684   41.3  0.1157   50.0  0.2260 -132.6
 2.640  0.7488  144.1   1.672   40.9  0.1165   50.0  0.2272 -132.9
 2.660  0.7496  143.8   1.661   40.5  0.1173   49.9  0.2283 -133.2
 2.680  0.7504  143.5   1.649   40.2  0.1181   49.9  0.2295 -133.5
 2.700  0.7512  143.1   1.638   39.8  0.1188   49.8  0.2307 -133.8
 2.720  0.7521  142.8   1.626   39.4  0.1196   49.7  0.2319 -134.1
 2.740  0.7530  142.5   1.615   39.1  0.1204   49.7  0.2331 -134.4
 2.760  0.7539  142.2   1.603   38.7  0.1212   49.6  0.2344 -134.6
 2.780  0.7548  141.8   1.592   38.3  0.1220   49.6  0.2356 -134.9
 2.800  0.7558  141.5   1.581   37.9  0.1228   49.5  0.2368 -135.2
 2.820  0.7561  141.2   1.570   37.5  0.1235   49.4  0.2377 -135.6
 2.840  0.7564  140.9   1.559   37.2  0.1243   49.4  0.2386 -135.9
 2.860  0.7567  140.6   1.548   36.8  0.1250   49.3  0.2395 -136.3
 2.880  0.7570  140.3   1.537   36.4  0.1258   49.3  0.2404 -136.7
 2.900  0.7573  140.0   1.526   36.1  0.1265   49.2  0.2414 -137.0
 2.920  0.7577  139.7   1.515   35.7  0.1272   49.1  0.2423 -137.4
 2.940  0.7581  139.4   1.505   35.3  0.1280   49.1  0.2433 -137.7
 2.960  0.7585  139.1   1.494   34.9  0.1287   49.0  0.2442 -138.1
 2.980  0.7589  138.8   1.483   34.5  0.1295   49.0  0.2452 -138.5
 3.000  0.7594  138.5   1.473   34.1  0.1302   48.9  0.2462 -138.8
 3.100  0.7619  136.8   1.430   32.4  0.1340   48.4  0.2526 -140.4
 3.200  0.7651  135.2   1.389   30.5  0.1378   48.0  0.2591 -142.0
 3.300  0.7694  133.6   1.347   28.7  0.1417   47.6  0.2648 -143.8
 3.400  0.7743  132.1   1.306   26.8  0.1457   47.2  0.2707 -145.5
 3.500  0.7785  130.6   1.270   25.2  0.1495   46.7  0.2777 -147.1
 3.600  0.7831  129.2   1.236   23.5  0.1534   46.3  0.2850 -148.7
 3.700  0.7848  127.7   1.200   21.8  0.1568   45.7  0.2916 -150.6
 3.800  0.7870  126.2   1.166   19.9  0.1603   45.1  0.2986 -152.4
 3.900  0.7901  124.9   1.134   18.3  0.1641   44.5  0.3062 -154.0
 4.000  0.7936  123.6   1.102   16.7  0.1679   44.0  0.3141 -155.6
 4.100  0.7948  122.4   1.074   15.3  0.1714   43.4  0.3219 -157.3
 4.200  0.7964  121.2   1.047   13.9  0.1750   42.8  0.3300 -158.9
 4.300  0.7984  120.0   1.021   12.4  0.1785   42.3  0.3383 -160.4
 4.400  0.8007  118.8   0.996   10.8  0.1821   41.7  0.3469 -161.9
 4.500  0.8033  117.6   0.971    9.1  0.1857   41.2  0.3557 -163.3
 4.600  0.8039  116.6   0.948    7.9  0.1891   40.6  0.3629 -164.8
 4.700  0.8048  115.6   0.925    6.7  0.1926   40.0  0.3703 -166.2
 4.800  0.8059  114.5   0.903    5.4  0.1960   39.5  0.3779 -167.6
 4.900  0.8073  113.5   0.881    4.1  0.1995   38.9  0.3858 -168.9
 5.000  0.8089  112.5   0.860    2.7  0.2030   38.4  0.3938 -170.2
 5.100  0.8091  111.7   0.842    1.7  0.2065   37.8  0.4007 -171.3
 5.200  0.8095  110.9   0.825    0.6  0.2101   37.1  0.4078 -172.4
 5.300  0.8100  110.1   0.808   -0.5  0.2137   36.5  0.4150 -173.5
 5.400  0.8107  109.3   0.791   -1.6  0.2173   36.0  0.4224 -174.5
 5.500  0.8115  108.5   0.775   -2.8  0.2209   35.4  0.4299 -175.5
 5.600  0.8125  107.7   0.761   -3.7  0.2246   34.8  0.4365 -176.5
 5.700  0.8138  106.8   0.747   -4.7  0.2283   34.3  0.4432 -177.6
 5.800  0.8152  106.0   0.734   -5.7  0.2320   33.8  0.4501 -178.5
 5.900  0.8168  105.1   0.720   -6.7  0.2357   33.3  0.4571 -179.5
 6.000  0.8185  104.3   0.707   -7.8  0.2395   32.8  0.4642  179.6
!
!  f       NFmin   Gammaopt  rn/50
! GHz       dB    MAG  ANG    -
!
! noise parameter not available yet for this operation point!
!
! (c) 2016  Infineon Technologies AG, Munich
