! Infineon Technologies  Discrete & RF Semiconductors
! BFP196
! VCE = 8.0 V,  IC =  60mA
! Common Emitter S-Parameters:                            Jan 2016
# GHz  S  MA  R  50
!  f         S11            S21            S12            S22
! GHz     MAG   ANG      MAG   ANG      MAG   ANG      MAG   ANG
 0.010  0.4388  -28.9  74.301  168.2  0.0038   79.9  0.8603  -14.2
 0.015  0.4413  -41.4  71.358  162.8  0.0057   74.0  0.8318  -20.5
 0.020  0.4641  -53.3  69.110  156.9  0.0076   71.1  0.8141  -27.2
 0.025  0.4521  -62.2  65.816  153.9  0.0087   66.7  0.7713  -31.3
 0.030  0.4516  -71.4  62.728  150.5  0.0099   63.2  0.7330  -35.9
 0.035  0.4625  -80.4  59.877  146.8  0.0111   60.5  0.6999  -41.0
 0.040  0.4840  -88.7  57.300  142.8  0.0123   58.4  0.6728  -46.5
 0.045  0.5149  -96.2  55.034  138.3  0.0135   56.6  0.6525  -52.5
 0.050  0.5536 -102.8  53.119  133.6  0.0147   55.1  0.6395  -58.7
 0.055  0.5491 -106.6  50.975  132.3  0.0152   54.1  0.6135  -60.8
 0.060  0.5470 -110.4  48.860  130.9  0.0157   53.2  0.5884  -63.2
 0.065  0.5474 -114.2  46.776  129.4  0.0162   52.3  0.5643  -65.7
 0.070  0.5502 -118.0  44.727  127.7  0.0167   51.5  0.5414  -68.4
 0.075  0.5554 -121.8  42.721  125.9  0.0173   50.7  0.5199  -71.4
 0.080  0.5629 -125.4  40.761  123.9  0.0178   50.0  0.4999  -74.6
 0.085  0.5726 -129.0  38.856  121.7  0.0183   49.3  0.4817  -78.1
 0.090  0.5845 -132.4  37.014  119.3  0.0188   48.7  0.4653  -81.9
 0.095  0.5984 -135.7  35.244  116.6  0.0194   48.1  0.4511  -85.9
 0.100  0.6141 -138.8  33.559  113.7  0.0199   47.5  0.4392  -90.1
 0.105  0.6141 -140.4  32.536  113.0  0.0203   47.5  0.4284  -91.5
 0.110  0.6147 -142.0  31.518  112.3  0.0206   47.6  0.4179  -93.1
 0.115  0.6157 -143.6  30.506  111.5  0.0210   47.6  0.4078  -94.7
 0.120  0.6172 -145.2  29.500  110.6  0.0213   47.7  0.3979  -96.3
 0.125  0.6192 -146.8  28.501  109.7  0.0217   47.7  0.3884  -98.1
 0.130  0.6216 -148.4  27.509  108.7  0.0221   47.8  0.3793  -99.9
 0.135  0.6246 -150.0  26.527  107.7  0.0224   47.8  0.3706 -101.9
 0.140  0.6280 -151.5  25.554  106.5  0.0228   47.8  0.3624 -103.9
 0.145  0.6318 -153.1  24.591  105.3  0.0231   47.9  0.3546 -106.0
 0.150  0.6361 -154.6  23.641  104.0  0.0235   47.9  0.3473 -108.2
 0.155  0.6366 -155.5  23.087  103.5  0.0238   48.1  0.3422 -109.3
 0.160  0.6372 -156.4  22.535  103.1  0.0241   48.4  0.3371 -110.4
 0.165  0.6380 -157.2  21.985  102.6  0.0245   48.6  0.3323 -111.6
 0.170  0.6389 -158.1  21.436  102.0  0.0248   48.8  0.3275 -112.7
 0.175  0.6400 -159.0  20.889  101.5  0.0251   49.1  0.3229 -114.0
 0.180  0.6412 -159.9  20.344  100.9  0.0254   49.3  0.3185 -115.2
 0.185  0.6425 -160.7  19.802  100.3  0.0257   49.5  0.3142 -116.5
 0.190  0.6440 -161.6  19.262   99.6  0.0261   49.7  0.3100 -117.8
 0.195  0.6457 -162.4  18.725   98.9  0.0264   49.9  0.3061 -119.2
 0.200  0.6475 -163.3  18.190   98.2  0.0267   50.1  0.3023 -120.6
 0.220  0.6467 -165.9  16.743   96.8  0.0280   51.3  0.2910 -124.2
 0.240  0.6472 -168.5  15.308   95.1  0.0293   52.5  0.2809 -128.0
 0.260  0.6481 -170.7  14.128   93.6  0.0307   53.6  0.2733 -131.2
 0.280  0.6488 -172.5  13.195   92.5  0.0320   54.6  0.2677 -133.7
 0.300  0.6502 -174.3  12.267   91.2  0.0333   55.6  0.2627 -136.3
 0.320  0.6505 -175.7  11.666   90.5  0.0348   56.2  0.2589 -138.1
 0.340  0.6513 -177.2  11.068   89.6  0.0362   56.8  0.2555 -140.0
 0.360  0.6524 -178.6  10.472   88.7  0.0377   57.3  0.2523 -142.0
 0.380  0.6540 -180.0   9.879   87.7  0.0391   57.8  0.2494 -144.0
 0.400  0.6559  178.6   9.290   86.5  0.0406   58.3  0.2468 -146.0
 0.420  0.6556  177.5   8.913   85.9  0.0421   58.8  0.2450 -147.2
 0.440  0.6554  176.5   8.538   85.1  0.0435   59.3  0.2434 -148.5
 0.450  0.6554  175.9   8.350   84.8  0.0442   59.5  0.2426 -149.1
 0.460  0.6555  175.4   8.163   84.4  0.0450   59.7  0.2419 -149.7
 0.480  0.6559  174.4   7.791   83.5  0.0464   60.1  0.2405 -151.0
 0.500  0.6564  173.3   7.420   82.6  0.0479   60.5  0.2392 -152.3
 0.520  0.6567  172.3   7.175   81.9  0.0495   60.7  0.2386 -153.2
 0.540  0.6571  171.4   6.931   81.2  0.0511   60.9  0.2382 -154.1
 0.560  0.6578  170.4   6.688   80.4  0.0528   61.0  0.2377 -154.9
 0.580  0.6586  169.5   6.447   79.6  0.0544   61.2  0.2373 -155.8
 0.600  0.6596  168.5   6.207   78.7  0.0560   61.3  0.2370 -156.7
 0.620  0.6597  167.6   6.031   78.1  0.0575   61.3  0.2369 -157.4
 0.640  0.6601  166.7   5.856   77.4  0.0590   61.3  0.2368 -158.0
 0.660  0.6605  165.9   5.681   76.7  0.0606   61.4  0.2367 -158.7
 0.680  0.6611  165.0   5.508   75.9  0.0621   61.4  0.2367 -159.3
 0.700  0.6619  164.1   5.335   75.1  0.0636   61.4  0.2367 -160.0
 0.720  0.6620  163.4   5.200   74.6  0.0652   61.4  0.2367 -160.5
 0.740  0.6622  162.7   5.065   74.0  0.0669   61.3  0.2368 -161.0
 0.760  0.6625  162.1   4.931   73.4  0.0685   61.3  0.2368 -161.6
 0.780  0.6629  161.4   4.798   72.8  0.0702   61.2  0.2369 -162.1
 0.800  0.6634  160.7   4.665   72.1  0.0718   61.2  0.2370 -162.6
 0.820  0.6624  159.9   4.562   71.6  0.0734   61.1  0.2370 -163.1
 0.840  0.6615  159.0   4.460   71.0  0.0750   60.9  0.2370 -163.6
 0.860  0.6608  158.2   4.358   70.4  0.0767   60.8  0.2370 -164.0
 0.880  0.6602  157.3   4.256   69.8  0.0783   60.7  0.2370 -164.5
 0.900  0.6598  156.5   4.155   69.1  0.0799   60.6  0.2371 -165.0
 0.920  0.6606  155.7   4.072   68.5  0.0815   60.4  0.2376 -165.4
 0.940  0.6616  154.9   3.989   68.0  0.0831   60.3  0.2380 -165.7
 0.960  0.6627  154.2   3.907   67.4  0.0846   60.2  0.2385 -166.1
 0.980  0.6639  153.4   3.825   66.8  0.0862   60.0  0.2390 -166.4
 1.000  0.6652  152.6   3.744   66.1  0.0878   59.9  0.2395 -166.8
 1.020  0.6664  152.0   3.677   65.5  0.0894   59.8  0.2401 -167.1
 1.040  0.6676  151.4   3.611   65.0  0.0909   59.6  0.2407 -167.4
 1.060  0.6689  150.8   3.545   64.4  0.0925   59.5  0.2413 -167.7
 1.080  0.6703  150.2   3.479   63.7  0.0940   59.3  0.2420 -168.0
 1.100  0.6717  149.6   3.414   63.1  0.0956   59.2  0.2426 -168.3
 1.120  0.6725  148.8   3.357   62.6  0.0971   59.0  0.2431 -168.7
 1.140  0.6734  148.0   3.301   62.1  0.0987   58.8  0.2436 -169.0
 1.160  0.6744  147.3   3.245   61.5  0.1002   58.6  0.2441 -169.4
 1.180  0.6755  146.5   3.189   61.0  0.1018   58.4  0.2447 -169.7
 1.200  0.6768  145.7   3.134   60.4  0.1033   58.2  0.2452 -170.1
 1.220  0.6769  145.1   3.085   59.9  0.1049   57.9  0.2457 -170.4
 1.240  0.6770  144.4   3.037   59.3  0.1065   57.6  0.2461 -170.7
 1.260  0.6772  143.8   2.988   58.7  0.1080   57.3  0.2466 -171.0
 1.280  0.6775  143.1   2.941   58.1  0.1096   57.1  0.2471 -171.3
 1.300  0.6779  142.5   2.893   57.5  0.1112   56.8  0.2476 -171.6
 1.320  0.6789  141.9   2.851   57.0  0.1126   56.5  0.2481 -171.8
 1.340  0.6801  141.3   2.809   56.5  0.1140   56.3  0.2486 -172.0
 1.360  0.6813  140.6   2.767   56.0  0.1155   56.0  0.2491 -172.2
 1.380  0.6825  140.0   2.725   55.5  0.1169   55.7  0.2496 -172.4
 1.400  0.6839  139.4   2.684   55.0  0.1183   55.5  0.2501 -172.6
 1.420  0.6835  138.8   2.653   54.5  0.1198   55.3  0.2510 -172.9
 1.440  0.6831  138.3   2.622   54.0  0.1213   55.0  0.2519 -173.1
 1.460  0.6829  137.7   2.591   53.4  0.1229   54.8  0.2528 -173.4
 1.480  0.6826  137.2   2.560   52.9  0.1244   54.6  0.2538 -173.6
 1.500  0.6825  136.6   2.530   52.3  0.1259   54.4  0.2547 -173.9
 1.520  0.6840  136.0   2.494   51.8  0.1274   54.1  0.2556 -174.2
 1.540  0.6857  135.4   2.458   51.2  0.1289   53.8  0.2566 -174.5
 1.560  0.6874  134.7   2.422   50.7  0.1303   53.5  0.2575 -174.9
 1.580  0.6891  134.1   2.387   50.1  0.1318   53.3  0.2584 -175.2
 1.600  0.6910  133.5   2.352   49.5  0.1333   53.0  0.2594 -175.5
 1.620  0.6925  132.8   2.324   49.0  0.1348   52.7  0.2599 -175.8
 1.640  0.6941  132.2   2.297   48.4  0.1362   52.5  0.2604 -176.1
 1.660  0.6958  131.5   2.270   47.9  0.1377   52.2  0.2609 -176.5
 1.680  0.6975  130.9   2.243   47.3  0.1391   51.9  0.2614 -176.8
 1.700  0.6994  130.2   2.216   46.7  0.1406   51.7  0.2619 -177.1
 1.720  0.6999  129.6   2.195   46.3  0.1419   51.4  0.2627 -177.3
 1.740  0.7005  129.0   2.173   45.8  0.1432   51.1  0.2635 -177.4
 1.760  0.7011  128.3   2.152   45.4  0.1445   50.8  0.2643 -177.6
 1.780  0.7019  127.7   2.131   45.0  0.1458   50.5  0.2651 -177.7
 1.800  0.7027  127.1   2.110   44.5  0.1471   50.2  0.2659 -177.9
 1.820  0.7029  126.6   2.087   44.0  0.1485   49.9  0.2672 -178.2
 1.840  0.7032  126.1   2.064   43.5  0.1499   49.6  0.2684 -178.5
 1.860  0.7036  125.7   2.042   43.0  0.1513   49.3  0.2697 -178.8
 1.880  0.7040  125.2   2.019   42.4  0.1528   49.1  0.2710 -179.1
 1.900  0.7044  124.7   1.997   41.9  0.1542   48.8  0.2723 -179.4
 1.920  0.7053  124.2   1.975   41.4  0.1555   48.5  0.2732 -179.7
 1.940  0.7063  123.6   1.953   41.0  0.1568   48.2  0.2741  179.9
 1.960  0.7073  123.1   1.932   40.5  0.1581   47.9  0.2750  179.6
 1.980  0.7084  122.5   1.910   40.0  0.1594   47.6  0.2760  179.2
 2.000  0.7095  122.0   1.889   39.5  0.1607   47.3  0.2769  178.9
 2.020  0.7100  121.5   1.871   39.0  0.1620   47.0  0.2778  178.6
 2.040  0.7106  120.9   1.854   38.6  0.1633   46.7  0.2787  178.4
 2.060  0.7112  120.4   1.837   38.1  0.1646   46.4  0.2796  178.1
 2.080  0.7119  119.8   1.819   37.6  0.1658   46.1  0.2806  177.8
 2.100  0.7126  119.3   1.802   37.1  0.1671   45.8  0.2815  177.6
 2.120  0.7134  118.7   1.785   36.6  0.1684   45.5  0.2824  177.3
 2.140  0.7143  118.2   1.769   36.1  0.1698   45.2  0.2833  177.1
 2.160  0.7152  117.7   1.752   35.6  0.1711   44.9  0.2843  176.8
 2.180  0.7162  117.1   1.735   35.0  0.1724   44.7  0.2852  176.6
 2.200  0.7173  116.6   1.719   34.5  0.1737   44.4  0.2862  176.3
 2.220  0.7185  116.0   1.705   34.0  0.1749   44.1  0.2874  175.9
 2.240  0.7197  115.5   1.692   33.5  0.1761   43.8  0.2886  175.6
 2.260  0.7210  114.9   1.678   33.1  0.1773   43.5  0.2899  175.2
 2.280  0.7224  114.4   1.665   32.6  0.1785   43.2  0.2911  174.9
 2.300  0.7239  113.8   1.651   32.1  0.1797   43.0  0.2924  174.6
 2.320  0.7254  113.3   1.638   31.5  0.1809   42.7  0.2936  174.2
 2.340  0.7270  112.7   1.625   31.0  0.1821   42.4  0.2949  173.9
 2.360  0.7286  112.2   1.612   30.5  0.1833   42.1  0.2962  173.6
 2.380  0.7303  111.6   1.600   29.9  0.1846   41.9  0.2975  173.2
 2.400  0.7321  111.1   1.587   29.4  0.1858   41.6  0.2988  172.9
 2.420  0.7329  110.6   1.573   29.0  0.1869   41.3  0.2998  172.6
 2.440  0.7338  110.1   1.560   28.6  0.1881   41.0  0.3009  172.3
 2.460  0.7348  109.6   1.547   28.1  0.1892   40.7  0.3019  172.0
 2.480  0.7358  109.1   1.533   27.7  0.1903   40.4  0.3030  171.8
 2.500  0.7368  108.6   1.520   27.2  0.1915   40.1  0.3041  171.5
 2.520  0.7380  108.1   1.507   26.8  0.1926   39.8  0.3051  171.2
 2.540  0.7391  107.6   1.494   26.3  0.1938   39.5  0.3062  170.9
 2.560  0.7404  107.1   1.481   25.9  0.1950   39.2  0.3073  170.6
 2.580  0.7417  106.6   1.469   25.4  0.1961   38.9  0.3084  170.4
 2.600  0.7430  106.1   1.456   24.9  0.1973   38.6  0.3095  170.1
 2.620  0.7437  105.6   1.445   24.5  0.1983   38.3  0.3110  169.8
 2.640  0.7445  105.1   1.435   24.1  0.1994   38.0  0.3125  169.4
 2.660  0.7454  104.6   1.425   23.7  0.2005   37.7  0.3139  169.1
 2.680  0.7462  104.2   1.414   23.3  0.2015   37.4  0.3155  168.7
 2.700  0.7472  103.7   1.404   22.8  0.2026   37.2  0.3170  168.4
 2.720  0.7482  103.2   1.394   22.4  0.2037   36.9  0.3185  168.1
 2.740  0.7492  102.7   1.384   22.0  0.2047   36.6  0.3200  167.8
 2.760  0.7503  102.2   1.374   21.5  0.2058   36.3  0.3216  167.4
 2.780  0.7515  101.8   1.364   21.1  0.2069   36.1  0.3231  167.1
 2.800  0.7527  101.3   1.354   20.6  0.2080   35.8  0.3247  166.8
 2.820  0.7533  100.9   1.344   20.2  0.2090   35.5  0.3259  166.5
 2.840  0.7540  100.5   1.334   19.7  0.2100   35.2  0.3272  166.2
 2.860  0.7546  100.0   1.324   19.3  0.2110   34.9  0.3284  165.9
 2.880  0.7554   99.6   1.315   18.8  0.2120   34.6  0.3296  165.7
 2.900  0.7561   99.2   1.305   18.4  0.2131   34.3  0.3309  165.4
 2.920  0.7570   98.8   1.295   17.9  0.2141   34.0  0.3322  165.1
 2.940  0.7578   98.4   1.286   17.5  0.2151   33.7  0.3334  164.8
 2.960  0.7587   97.9   1.277   17.0  0.2162   33.4  0.3347  164.5
 2.980  0.7596   97.5   1.267   16.5  0.2172   33.1  0.3360  164.3
 3.000  0.7606   97.1   1.258   16.0  0.2183   32.8  0.3373  164.0
 3.100  0.7645   95.1   1.217   14.4  0.2222   31.3  0.3439  162.4
 3.200  0.7693   93.1   1.177   12.6  0.2262   29.8  0.3507  160.8
 3.300  0.7750   91.2   1.138   10.7  0.2304   28.4  0.3578  159.3
 3.400  0.7816   89.3   1.100    8.7  0.2347   27.1  0.3651  157.9
 3.500  0.7891   87.4   1.064    6.6  0.2391   25.8  0.3726  156.5
 3.600  0.7910   85.6   1.034    5.1  0.2425   24.5  0.3793  155.1
 3.700  0.7938   83.8   1.005    3.4  0.2461   23.3  0.3861  153.7
 3.800  0.7972   82.1   0.977    1.7  0.2498   22.2  0.3932  152.4
 3.900  0.8014   80.3   0.950   -0.2  0.2535   21.0  0.4005  151.1
 4.000  0.8064   78.6   0.924   -2.1  0.2574   19.9  0.4080  149.9
 4.100  0.8086   77.1   0.902   -3.5  0.2607   18.7  0.4134  148.7
 4.200  0.8114   75.6   0.881   -4.9  0.2642   17.5  0.4190  147.5
 4.300  0.8147   74.1   0.860   -6.4  0.2677   16.3  0.4247  146.3
 4.400  0.8185   72.7   0.840   -8.0  0.2713   15.2  0.4306  145.2
 4.500  0.8229   71.2   0.821   -9.6  0.2751   14.1  0.4367  144.1
 4.600  0.8248   69.9   0.805  -10.8  0.2780   13.0  0.4415  143.1
 4.700  0.8271   68.7   0.789  -12.0  0.2811   11.9  0.4464  142.0
 4.800  0.8297   67.4   0.773  -13.3  0.2842   10.8  0.4515  141.0
 4.900  0.8328   66.1   0.758  -14.6  0.2875    9.7  0.4568  140.1
 5.000  0.8363   64.9   0.743  -16.0  0.2908    8.7  0.4621  139.1
 5.100  0.8379   63.7   0.729  -17.1  0.2937    7.6  0.4671  138.0
 5.200  0.8399   62.5   0.716  -18.2  0.2967    6.6  0.4722  137.0
 5.300  0.8423   61.3   0.702  -19.4  0.2999    5.5  0.4775  135.9
 5.400  0.8450   60.2   0.690  -20.6  0.3031    4.5  0.4830  134.9
 5.500  0.8481   59.0   0.677  -21.9  0.3064    3.5  0.4886  133.9
 5.600  0.8477   57.9   0.667  -22.9  0.3090    2.3  0.4930  132.9
 5.700  0.8477   56.8   0.657  -24.0  0.3117    1.2  0.4976  131.9
 5.800  0.8479   55.7   0.647  -25.0  0.3146    0.1  0.5023  130.9
 5.900  0.8485   54.6   0.638  -26.2  0.3175   -1.0  0.5071  129.9
 6.000  0.8494   53.5   0.629  -27.3  0.3206   -2.1  0.5121  129.0
!
!  f       NFmin   Gammaopt  rn/50
! GHz       dB    MAG  ANG    -
!
! noise parameter not available yet for this operation point!
!
! (c) 2016  Infineon Technologies AG, Munich
