! Infineon Technologies  Discrete & RF Semiconductors
! BFP181
! VCE = 5.0 V,  IC =  8.0 mA
! Common Emitter S-Parameters:                            Jan 2016
# GHz  S  MA  R  50
!  f         S11            S21            S12            S22
! GHz     MAG   ANG      MAG   ANG      MAG   ANG      MAG   ANG
 0.010  0.8005   -2.4  18.498  177.8  0.0010   88.8  0.9853   -0.8
 0.015  0.8016   -3.5  18.415  177.3  0.0017   91.4  0.9830   -1.3
 0.020  0.8029   -4.5  18.333  176.7  0.0025   92.4  0.9808   -1.8
 0.025  0.8014   -5.6  18.316  175.8  0.0031   90.4  0.9802   -2.3
 0.030  0.8002   -6.7  18.304  174.9  0.0037   89.1  0.9798   -2.8
 0.035  0.7992   -7.7  18.295  174.1  0.0043   88.1  0.9794   -3.3
 0.040  0.7986   -8.8  18.292  173.2  0.0049   87.4  0.9790   -3.8
 0.045  0.7982   -9.9  18.292  172.3  0.0055   86.9  0.9788   -4.3
 0.050  0.7981  -11.0  18.297  171.4  0.0061   86.4  0.9786   -4.8
 0.055  0.7941  -12.1  18.224  170.6  0.0067   84.6  0.9767   -5.3
 0.060  0.7904  -13.3  18.155  169.8  0.0072   83.1  0.9749   -5.7
 0.065  0.7869  -14.4  18.088  169.0  0.0078   81.8  0.9731   -6.2
 0.070  0.7839  -15.5  18.026  168.2  0.0084   80.7  0.9714   -6.6
 0.075  0.7811  -16.7  17.967  167.4  0.0090   79.7  0.9697   -7.1
 0.080  0.7786  -17.9  17.912  166.6  0.0096   78.9  0.9681   -7.5
 0.085  0.7765  -19.0  17.860  165.8  0.0101   78.1  0.9666   -8.0
 0.090  0.7747  -20.2  17.812  165.0  0.0107   77.4  0.9651   -8.5
 0.095  0.7732  -21.4  17.768  164.1  0.0113   76.8  0.9637   -8.9
 0.100  0.7721  -22.6  17.727  163.3  0.0119   76.3  0.9624   -9.4
 0.105  0.7689  -23.6  17.648  162.5  0.0125   75.7  0.9592   -9.8
 0.110  0.7660  -24.7  17.572  161.7  0.0131   75.2  0.9561  -10.2
 0.115  0.7634  -25.7  17.499  161.0  0.0137   74.8  0.9530  -10.6
 0.120  0.7610  -26.7  17.430  160.2  0.0143   74.3  0.9499  -11.0
 0.125  0.7588  -27.8  17.364  159.4  0.0149   74.0  0.9469  -11.4
 0.130  0.7569  -28.8  17.301  158.6  0.0155   73.6  0.9439  -11.8
 0.135  0.7553  -29.9  17.242  157.8  0.0161   73.3  0.9410  -12.2
 0.140  0.7539  -31.0  17.186  156.9  0.0167   73.0  0.9382  -12.7
 0.145  0.7528  -32.0  17.134  156.1  0.0173   72.7  0.9354  -13.1
 0.150  0.7519  -33.1  17.085  155.3  0.0179   72.4  0.9326  -13.5
 0.155  0.7469  -34.1  17.004  154.6  0.0183   72.0  0.9291  -13.9
 0.160  0.7421  -35.1  16.925  153.9  0.0188   71.6  0.9256  -14.2
 0.165  0.7376  -36.1  16.849  153.1  0.0192   71.3  0.9221  -14.6
 0.170  0.7332  -37.2  16.776  152.4  0.0197   70.9  0.9187  -15.0
 0.175  0.7292  -38.2  16.706  151.7  0.0201   70.6  0.9153  -15.4
 0.180  0.7254  -39.3  16.638  150.9  0.0205   70.3  0.9120  -15.7
 0.185  0.7218  -40.3  16.573  150.2  0.0210   69.9  0.9087  -16.1
 0.190  0.7185  -41.4  16.511  149.4  0.0214   69.7  0.9054  -16.5
 0.195  0.7154  -42.5  16.452  148.7  0.0219   69.4  0.9022  -16.9
 0.200  0.7126  -43.6  16.396  147.9  0.0223   69.1  0.8990  -17.3
 0.220  0.6970  -47.1  15.963  145.3  0.0240   67.1  0.8830  -18.5
 0.240  0.6841  -50.8  15.566  142.5  0.0257   65.3  0.8673  -19.8
 0.260  0.6710  -54.4  15.192  140.1  0.0274   63.8  0.8524  -21.0
 0.280  0.6572  -58.0  14.827  138.0  0.0289   62.5  0.8381  -21.9
 0.300  0.6460  -61.7  14.484  135.8  0.0305   61.4  0.8240  -22.9
 0.320  0.6281  -64.6  14.095  133.8  0.0317   60.2  0.8102  -23.6
 0.340  0.6118  -67.6  13.723  131.8  0.0328   59.1  0.7966  -24.3
 0.360  0.5974  -70.7  13.370  129.6  0.0340   58.1  0.7831  -25.1
 0.380  0.5848  -74.1  13.038  127.3  0.0352   57.1  0.7697  -25.9
 0.400  0.5743  -77.5  12.727  124.9  0.0364   56.2  0.7565  -26.7
 0.420  0.5598  -80.1  12.387  123.4  0.0373   55.3  0.7449  -27.2
 0.440  0.5466  -82.9  12.056  121.8  0.0381   54.5  0.7334  -27.7
 0.450  0.5405  -84.3  11.894  120.9  0.0386   54.1  0.7276  -27.9
 0.460  0.5347  -85.8  11.735  120.1  0.0390   53.8  0.7219  -28.2
 0.480  0.5242  -88.8  11.425  118.3  0.0399   53.0  0.7105  -28.7
 0.500  0.5152  -91.9  11.127  116.4  0.0408   52.3  0.6991  -29.3
 0.520  0.5043  -94.1  10.871  115.2  0.0415   51.9  0.6900  -29.6
 0.540  0.4942  -96.5  10.619  113.9  0.0422   51.4  0.6808  -30.0
 0.560  0.4849  -98.9  10.374  112.5  0.0430   51.0  0.6717  -30.3
 0.580  0.4766 -101.4  10.135  111.1  0.0437   50.6  0.6627  -30.6
 0.600  0.4692 -104.0   9.902  109.6  0.0444   50.2  0.6536  -31.0
 0.620  0.4611 -106.1   9.662  108.6  0.0451   49.8  0.6467  -31.2
 0.640  0.4536 -108.2   9.424  107.5  0.0458   49.5  0.6399  -31.4
 0.660  0.4467 -110.4   9.191  106.4  0.0464   49.2  0.6331  -31.6
 0.680  0.4406 -112.7   8.961  105.2  0.0471   48.8  0.6262  -31.9
 0.700  0.4351 -115.0   8.735  103.9  0.0478   48.5  0.6194  -32.1
 0.720  0.4280 -116.9   8.568  102.9  0.0484   48.3  0.6141  -32.3
 0.740  0.4214 -118.9   8.404  101.9  0.0490   48.1  0.6088  -32.4
 0.760  0.4154 -121.0   8.243  100.9  0.0497   47.9  0.6035  -32.6
 0.780  0.4099 -123.1   8.085   99.8  0.0503   47.8  0.5983  -32.7
 0.800  0.4050 -125.3   7.929   98.7  0.0509   47.6  0.5930  -32.9
 0.820  0.4005 -127.2   7.779   97.9  0.0514   47.5  0.5886  -33.0
 0.840  0.3964 -129.1   7.630   97.0  0.0520   47.4  0.5841  -33.2
 0.860  0.3927 -131.0   7.483   96.1  0.0525   47.2  0.5797  -33.3
 0.880  0.3895 -133.0   7.338   95.2  0.0531   47.1  0.5753  -33.5
 0.900  0.3868 -135.0   7.195   94.2  0.0536   47.0  0.5709  -33.6
 0.920  0.3825 -136.8   7.063   93.4  0.0541   46.9  0.5674  -33.7
 0.940  0.3786 -138.7   6.932   92.6  0.0547   46.8  0.5638  -33.9
 0.960  0.3751 -140.6   6.803   91.7  0.0552   46.6  0.5603  -34.0
 0.980  0.3720 -142.5   6.676   90.8  0.0558   46.5  0.5568  -34.2
 1.000  0.3694 -144.5   6.550   89.9  0.0563   46.4  0.5533  -34.3
 1.020  0.3669 -146.1   6.448   89.2  0.0570   46.4  0.5504  -34.4
 1.040  0.3648 -147.8   6.347   88.4  0.0576   46.3  0.5475  -34.6
 1.060  0.3629 -149.5   6.246   87.6  0.0583   46.3  0.5447  -34.7
 1.080  0.3614 -151.2   6.148   86.8  0.0589   46.2  0.5418  -34.9
 1.100  0.3602 -152.9   6.050   86.0  0.0596   46.2  0.5389  -35.0
 1.120  0.3581 -154.3   5.953   85.4  0.0600   46.2  0.5367  -35.2
 1.140  0.3561 -155.8   5.857   84.8  0.0605   46.1  0.5344  -35.4
 1.160  0.3545 -157.2   5.762   84.1  0.0609   46.1  0.5322  -35.5
 1.180  0.3530 -158.7   5.668   83.5  0.0614   46.0  0.5300  -35.7
 1.200  0.3518 -160.2   5.574   82.8  0.0618   46.0  0.5278  -35.9
 1.220  0.3510 -161.6   5.491   82.2  0.0623   45.9  0.5259  -36.1
 1.240  0.3504 -163.0   5.408   81.5  0.0628   45.9  0.5240  -36.2
 1.260  0.3500 -164.5   5.326   80.9  0.0634   45.8  0.5221  -36.4
 1.280  0.3498 -165.9   5.245   80.2  0.0639   45.8  0.5203  -36.5
 1.300  0.3498 -167.3   5.164   79.5  0.0644   45.7  0.5184  -36.7
 1.320  0.3491 -168.7   5.098   78.9  0.0650   45.8  0.5167  -36.9
 1.340  0.3486 -170.2   5.033   78.3  0.0655   45.8  0.5149  -37.0
 1.360  0.3484 -171.6   4.968   77.7  0.0661   45.9  0.5132  -37.2
 1.380  0.3483 -173.1   4.904   77.1  0.0666   45.9  0.5115  -37.3
 1.400  0.3485 -174.5   4.840   76.5  0.0672   46.0  0.5098  -37.5
 1.420  0.3481 -175.7   4.779   75.9  0.0678   45.9  0.5083  -37.7
 1.440  0.3478 -176.9   4.719   75.3  0.0684   45.7  0.5069  -37.9
 1.460  0.3477 -178.1   4.659   74.6  0.0691   45.6  0.5054  -38.0
 1.480  0.3477 -179.3   4.600   74.0  0.0697   45.4  0.5039  -38.2
 1.500  0.3479  179.5   4.542   73.3  0.0703   45.3  0.5025  -38.4
 1.520  0.3478  178.3   4.487   72.8  0.0708   45.3  0.5015  -38.6
 1.540  0.3479  177.1   4.432   72.2  0.0714   45.3  0.5005  -38.8
 1.560  0.3482  175.8   4.378   71.7  0.0719   45.4  0.4995  -38.9
 1.580  0.3486  174.6   4.324   71.1  0.0725   45.4  0.4986  -39.1
 1.600  0.3492  173.4   4.270   70.5  0.0730   45.4  0.4976  -39.3
 1.620  0.3489  172.2   4.221   69.9  0.0736   45.3  0.4963  -39.6
 1.640  0.3487  170.9   4.172   69.4  0.0742   45.3  0.4950  -39.8
 1.660  0.3488  169.7   4.124   68.8  0.0749   45.2  0.4938  -40.1
 1.680  0.3490  168.4   4.076   68.2  0.0755   45.2  0.4925  -40.3
 1.700  0.3493  167.2   4.028   67.6  0.0761   45.1  0.4913  -40.6
 1.720  0.3507  166.1   3.984   67.1  0.0766   45.1  0.4901  -40.8
 1.740  0.3522  165.1   3.941   66.5  0.0771   45.0  0.4890  -41.0
 1.760  0.3539  164.0   3.898   66.0  0.0777   45.0  0.4878  -41.2
 1.780  0.3556  162.9   3.855   65.4  0.0782   44.9  0.4866  -41.4
 1.800  0.3575  161.9   3.813   64.8  0.0787   44.9  0.4855  -41.6
 1.820  0.3585  161.0   3.774   64.3  0.0793   44.8  0.4845  -41.8
 1.840  0.3597  160.1   3.736   63.8  0.0799   44.7  0.4834  -42.0
 1.860  0.3609  159.2   3.698   63.3  0.0806   44.5  0.4824  -42.3
 1.880  0.3622  158.3   3.660   62.8  0.0812   44.4  0.4814  -42.5
 1.900  0.3636  157.4   3.622   62.3  0.0818   44.3  0.4804  -42.7
 1.920  0.3644  156.4   3.584   61.8  0.0824   44.2  0.4796  -42.9
 1.940  0.3653  155.3   3.546   61.3  0.0829   44.1  0.4788  -43.2
 1.960  0.3664  154.3   3.508   60.8  0.0835   44.1  0.4780  -43.4
 1.980  0.3675  153.3   3.470   60.3  0.0840   44.0  0.4772  -43.7
 2.000  0.3688  152.3   3.433   59.8  0.0846   43.9  0.4764  -43.9
 2.020  0.3700  151.4   3.401   59.3  0.0852   43.8  0.4754  -44.2
 2.040  0.3713  150.5   3.370   58.9  0.0858   43.7  0.4745  -44.5
 2.060  0.3727  149.7   3.339   58.4  0.0864   43.6  0.4735  -44.7
 2.080  0.3742  148.8   3.308   57.9  0.0870   43.6  0.4725  -45.0
 2.100  0.3757  148.0   3.278   57.4  0.0875   43.5  0.4716  -45.3
 2.120  0.3774  147.1   3.247   56.9  0.0881   43.4  0.4707  -45.6
 2.140  0.3791  146.3   3.217   56.3  0.0887   43.3  0.4698  -45.8
 2.160  0.3809  145.4   3.188   55.8  0.0893   43.3  0.4689  -46.1
 2.180  0.3827  144.6   3.158   55.3  0.0899   43.2  0.4680  -46.4
 2.200  0.3847  143.8   3.129   54.7  0.0905   43.1  0.4671  -46.7
 2.220  0.3861  143.0   3.103   54.3  0.0911   43.0  0.4662  -47.0
 2.240  0.3876  142.1   3.077   53.8  0.0916   42.9  0.4653  -47.2
 2.260  0.3891  141.3   3.051   53.4  0.0922   42.8  0.4644  -47.5
 2.280  0.3908  140.5   3.025   52.9  0.0928   42.8  0.4635  -47.8
 2.300  0.3925  139.7   3.000   52.4  0.0933   42.7  0.4626  -48.0
 2.320  0.3943  138.9   2.975   52.0  0.0939   42.6  0.4617  -48.3
 2.340  0.3962  138.1   2.950   51.5  0.0945   42.5  0.4608  -48.6
 2.360  0.3981  137.3   2.925   51.0  0.0951   42.5  0.4600  -48.9
 2.380  0.4001  136.6   2.900   50.5  0.0956   42.4  0.4591  -49.1
 2.400  0.4022  135.8   2.876   50.0  0.0962   42.3  0.4583  -49.4
 2.420  0.4039  135.1   2.853   49.6  0.0968   42.2  0.4572  -49.7
 2.440  0.4056  134.4   2.829   49.2  0.0974   42.0  0.4562  -50.0
 2.460  0.4074  133.8   2.806   48.7  0.0980   41.9  0.4551  -50.3
 2.480  0.4093  133.1   2.784   48.3  0.0986   41.8  0.4541  -50.6
 2.500  0.4112  132.4   2.761   47.8  0.0991   41.7  0.4531  -50.9
 2.520  0.4132  131.8   2.738   47.4  0.0997   41.6  0.4521  -51.2
 2.540  0.4152  131.1   2.716   46.9  0.1003   41.4  0.4511  -51.5
 2.560  0.4173  130.5   2.694   46.5  0.1009   41.3  0.4501  -51.8
 2.580  0.4194  129.8   2.672   46.0  0.1015   41.2  0.4492  -52.1
 2.600  0.4216  129.2   2.650   45.5  0.1021   41.1  0.4482  -52.4
 2.620  0.4235  128.6   2.630   45.1  0.1026   41.0  0.4474  -52.7
 2.640  0.4254  128.0   2.611   44.6  0.1031   40.9  0.4467  -53.0
 2.660  0.4274  127.3   2.591   44.1  0.1037   40.7  0.4459  -53.3
 2.680  0.4295  126.7   2.572   43.7  0.1042   40.6  0.4452  -53.7
 2.700  0.4316  126.1   2.553   43.2  0.1047   40.5  0.4445  -54.0
 2.720  0.4337  125.5   2.534   42.7  0.1052   40.4  0.4438  -54.3
 2.740  0.4359  124.9   2.515   42.2  0.1057   40.2  0.4431  -54.6
 2.760  0.4381  124.4   2.497   41.7  0.1063   40.1  0.4424  -55.0
 2.780  0.4404  123.8   2.478   41.2  0.1068   40.0  0.4417  -55.3
 2.800  0.4427  123.2   2.460   40.7  0.1073   39.9  0.4411  -55.6
 2.820  0.4444  122.6   2.443   40.3  0.1078   39.8  0.4401  -55.9
 2.840  0.4462  122.0   2.427   39.9  0.1084   39.7  0.4390  -56.2
 2.860  0.4480  121.4   2.410   39.5  0.1089   39.5  0.4380  -56.5
 2.880  0.4499  120.8   2.394   39.1  0.1095   39.4  0.4370  -56.8
 2.900  0.4518  120.2   2.378   38.7  0.1100   39.3  0.4360  -57.1
 2.920  0.4538  119.7   2.362   38.2  0.1106   39.2  0.4351  -57.4
 2.940  0.4558  119.1   2.346   37.8  0.1111   39.0  0.4341  -57.8
 2.960  0.4579  118.5   2.330   37.4  0.1117   38.9  0.4332  -58.1
 2.980  0.4600  118.0   2.315   36.9  0.1122   38.8  0.4322  -58.4
 3.000  0.4621  117.4   2.299   36.5  0.1128   38.7  0.4313  -58.7
 3.100  0.4707  114.8   2.225   34.7  0.1155   38.0  0.4272  -60.4
 3.200  0.4803  112.2   2.153   32.7  0.1183   37.3  0.4235  -62.2
 3.300  0.4909  109.8   2.084   30.6  0.1211   36.7  0.4203  -64.0
 3.400  0.5022  107.4   2.018   28.4  0.1239   36.1  0.4174  -65.8
 3.500  0.5144  105.2   1.955   26.0  0.1267   35.5  0.4150  -67.7
 3.600  0.5231  103.2   1.899   24.3  0.1292   34.7  0.4107  -69.6
 3.700  0.5323  101.3   1.846   22.4  0.1318   33.9  0.4068  -71.6
 3.800  0.5422   99.5   1.794   20.5  0.1343   33.2  0.4035  -73.6
 3.900  0.5525   97.7   1.744   18.5  0.1369   32.5  0.4006  -75.6
 4.000  0.5634   96.0   1.697   16.3  0.1395   31.8  0.3983  -77.7
 4.100  0.5700   94.3   1.651   14.6  0.1418   31.0  0.3946  -79.8
 4.200  0.5770   92.6   1.607   12.8  0.1441   30.2  0.3915  -82.0
 4.300  0.5845   91.0   1.564   10.9  0.1464   29.5  0.3890  -84.2
 4.400  0.5925   89.4   1.523    8.9  0.1487   28.8  0.3871  -86.4
 4.500  0.6009   87.9   1.484    6.8  0.1511   28.1  0.3857  -88.7
 4.600  0.6069   86.5   1.448    5.3  0.1534   27.4  0.3832  -90.8
 4.700  0.6132   85.2   1.413    3.8  0.1556   26.8  0.3812  -93.0
 4.800  0.6198   83.9   1.379    2.1  0.1579   26.1  0.3797  -95.2
 4.900  0.6267   82.6   1.346    0.4  0.1603   25.5  0.3788  -97.4
 5.000  0.6340   81.3   1.315   -1.4  0.1626   24.9  0.3785  -99.6
 5.100  0.6388   80.2   1.286   -2.9  0.1653   24.2  0.3785 -101.9
 5.200  0.6438   79.0   1.258   -4.5  0.1679   23.5  0.3790 -104.2
 5.300  0.6491   77.9   1.231   -6.2  0.1706   22.8  0.3802 -106.5
 5.400  0.6546   76.9   1.205   -7.9  0.1734   22.1  0.3820 -108.8
 5.500  0.6604   75.8   1.180   -9.7  0.1761   21.5  0.3844 -111.0
 5.600  0.6668   74.7   1.156  -11.1  0.1784   20.7  0.3854 -113.3
 5.700  0.6735   73.7   1.132  -12.6  0.1807   19.8  0.3871 -115.6
 5.800  0.6803   72.7   1.110  -14.2  0.1831   19.0  0.3893 -117.9
 5.900  0.6874   71.7   1.088  -15.8  0.1855   18.3  0.3922 -120.2
 6.000  0.6947   70.7   1.067  -17.5  0.1879   17.5  0.3957 -122.4
!
!  f       NFmin   Gammaopt  rn/50
! GHz       dB    MAG  ANG    -
!
! noise parameter not available yet for this operation point!
!
! (c) 2016  Infineon Technologies AG, Munich
