! Infineon Technologies  Discrete & RF Semiconductors
! BFP410
! VCE =  1.5 V,  IC =  1.5 mA
! Common Emitter S-Parameters:                            Nov 2015
# GHz  S  MA  R  50
!  f         S11            S21            S12            S22
! GHz     MAG   ANG      MAG   ANG      MAG   ANG      MAG   ANG
 0.010  0.9430    0.2   5.340  179.5  0.0004  137.8  0.9997    0.5
 0.015  0.9393   -0.3   5.359  179.3  0.0009   93.0  0.9971    0.2
 0.020  0.9356   -0.9   5.378  179.2  0.0016   82.9  0.9945   -0.1
 0.025  0.9350   -1.2   5.375  178.9  0.0019   84.5  0.9949   -0.3
 0.030  0.9345   -1.5   5.372  178.5  0.0022   85.7  0.9953   -0.5
 0.035  0.9339   -1.7   5.369  178.2  0.0025   86.6  0.9958   -0.7
 0.040  0.9334   -2.0   5.366  177.9  0.0029   87.3  0.9962   -0.8
 0.045  0.9330   -2.3   5.363  177.5  0.0032   87.8  0.9966   -1.0
 0.050  0.9325   -2.6   5.361  177.2  0.0035   88.3  0.9971   -1.2
 0.055  0.9324   -2.9   5.364  177.0  0.0039   88.0  0.9970   -1.4
 0.060  0.9324   -3.1   5.366  176.9  0.0043   87.7  0.9969   -1.5
 0.065  0.9324   -3.4   5.369  176.7  0.0046   87.5  0.9968   -1.7
 0.070  0.9324   -3.7   5.371  176.6  0.0050   87.3  0.9967   -1.9
 0.075  0.9324   -4.0   5.374  176.4  0.0054   87.1  0.9966   -2.0
 0.080  0.9324   -4.2   5.377  176.2  0.0058   86.9  0.9966   -2.2
 0.085  0.9325   -4.5   5.379  176.1  0.0062   86.8  0.9965   -2.4
 0.090  0.9326   -4.8   5.382  175.9  0.0065   86.7  0.9965   -2.6
 0.095  0.9327   -5.0   5.385  175.8  0.0069   86.6  0.9964   -2.7
 0.100  0.9328   -5.3   5.388  175.6  0.0073   86.5  0.9964   -2.9
 0.105  0.9325   -5.6   5.388  175.4  0.0077   86.4  0.9963   -3.0
 0.110  0.9323   -5.8   5.388  175.1  0.0080   86.3  0.9962   -3.2
 0.115  0.9321   -6.1   5.388  174.9  0.0084   86.1  0.9961   -3.3
 0.120  0.9319   -6.4   5.388  174.6  0.0087   86.1  0.9960   -3.5
 0.125  0.9317   -6.6   5.389  174.4  0.0091   86.0  0.9959   -3.6
 0.130  0.9316   -6.9   5.389  174.2  0.0095   85.9  0.9958   -3.8
 0.135  0.9315   -7.2   5.390  173.9  0.0098   85.8  0.9957   -3.9
 0.140  0.9314   -7.5   5.390  173.7  0.0102   85.7  0.9956   -4.1
 0.145  0.9313   -7.7   5.391  173.4  0.0105   85.7  0.9956   -4.2
 0.150  0.9312   -8.0   5.392  173.2  0.0109   85.6  0.9955   -4.4
 0.155  0.9311   -8.3   5.391  173.0  0.0113   85.4  0.9952   -4.5
 0.160  0.9311   -8.5   5.391  172.8  0.0116   85.2  0.9949   -4.7
 0.165  0.9310   -8.8   5.391  172.6  0.0120   85.0  0.9947   -4.8
 0.170  0.9310   -9.1   5.390  172.4  0.0123   84.8  0.9944   -5.0
 0.175  0.9310   -9.4   5.390  172.2  0.0127   84.7  0.9941   -5.1
 0.180  0.9311   -9.6   5.390  171.9  0.0131   84.5  0.9939   -5.2
 0.185  0.9311   -9.9   5.390  171.7  0.0134   84.4  0.9936   -5.4
 0.190  0.9312  -10.2   5.390  171.5  0.0138   84.3  0.9934   -5.5
 0.195  0.9313  -10.4   5.390  171.3  0.0141   84.1  0.9931   -5.7
 0.200  0.9314  -10.7   5.390  171.1  0.0145   84.0  0.9929   -5.8
 0.220  0.9299  -11.7   5.379  170.1  0.0160   83.4  0.9918   -6.4
 0.240  0.9288  -12.8   5.369  169.1  0.0175   82.8  0.9909   -7.1
 0.260  0.9275  -13.8   5.366  168.2  0.0189   82.2  0.9897   -7.7
 0.280  0.9262  -14.9   5.368  167.3  0.0203   81.6  0.9880   -8.2
 0.300  0.9252  -16.0   5.371  166.5  0.0217   81.0  0.9865   -8.8
 0.320  0.9239  -17.1   5.364  165.6  0.0231   80.3  0.9848   -9.4
 0.340  0.9230  -18.2   5.359  164.7  0.0246   79.8  0.9832  -10.0
 0.360  0.9216  -19.2   5.351  163.8  0.0260   79.1  0.9815  -10.6
 0.380  0.9198  -20.3   5.339  162.9  0.0275   78.5  0.9795  -11.1
 0.400  0.9184  -21.4   5.328  162.0  0.0289   77.9  0.9776  -11.7
 0.420  0.9166  -22.5   5.318  161.1  0.0303   77.3  0.9756  -12.3
 0.440  0.9150  -23.6   5.309  160.2  0.0317   76.8  0.9738  -12.9
 0.450  0.9144  -24.1   5.305  159.8  0.0324   76.5  0.9729  -13.2
 0.460  0.9133  -24.7   5.300  159.3  0.0331   76.2  0.9717  -13.5
 0.480  0.9113  -25.8   5.290  158.4  0.0346   75.6  0.9693  -14.0
 0.500  0.9096  -26.9   5.281  157.5  0.0360   75.0  0.9670  -14.6
 0.520  0.9070  -28.0   5.263  156.6  0.0373   74.3  0.9642  -15.2
 0.540  0.9048  -29.0   5.246  155.6  0.0387   73.6  0.9615  -15.8
 0.560  0.9028  -30.1   5.231  154.7  0.0401   72.9  0.9590  -16.3
 0.580  0.9011  -31.1   5.217  153.8  0.0414   72.4  0.9565  -16.9
 0.600  0.8998  -32.2   5.205  152.8  0.0428   71.8  0.9541  -17.5
 0.620  0.8969  -33.3   5.190  152.0  0.0441   71.1  0.9510  -18.1
 0.640  0.8944  -34.3   5.177  151.2  0.0455   70.5  0.9480  -18.6
 0.660  0.8921  -35.4   5.164  150.4  0.0469   69.9  0.9451  -19.2
 0.680  0.8902  -36.5   5.152  149.5  0.0482   69.3  0.9423  -19.7
 0.700  0.8886  -37.6   5.142  148.7  0.0496   68.8  0.9396  -20.3
 0.720  0.8857  -38.6   5.119  147.9  0.0509   68.2  0.9363  -20.8
 0.740  0.8831  -39.7   5.098  147.0  0.0521   67.6  0.9330  -21.3
 0.760  0.8807  -40.8   5.077  146.2  0.0534   67.0  0.9298  -21.8
 0.780  0.8787  -41.8   5.057  145.4  0.0547   66.4  0.9267  -22.4
 0.800  0.8770  -42.9   5.039  144.5  0.0560   65.9  0.9237  -22.9
 0.820  0.8738  -44.0   5.020  143.7  0.0572   65.2  0.9201  -23.4
 0.840  0.8709  -45.0   5.002  142.8  0.0585   64.5  0.9165  -24.0
 0.860  0.8683  -46.1   4.985  142.0  0.0598   63.9  0.9130  -24.5
 0.880  0.8661  -47.2   4.969  141.2  0.0610   63.3  0.9096  -25.1
 0.900  0.8641  -48.3   4.954  140.3  0.0623   62.7  0.9063  -25.6
 0.920  0.8606  -49.3   4.931  139.5  0.0635   62.1  0.9024  -26.1
 0.940  0.8573  -50.4   4.910  138.7  0.0646   61.5  0.8985  -26.6
 0.960  0.8544  -51.5   4.889  137.9  0.0658   60.9  0.8947  -27.1
 0.980  0.8518  -52.5   4.869  137.1  0.0670   60.3  0.8910  -27.6
 1.000  0.8494  -53.6   4.850  136.3  0.0682   59.8  0.8873  -28.1
 1.020  0.8461  -54.6   4.828  135.5  0.0693   59.2  0.8834  -28.6
 1.040  0.8430  -55.7   4.807  134.7  0.0705   58.6  0.8795  -29.1
 1.060  0.8402  -56.7   4.787  133.9  0.0716   58.0  0.8757  -29.6
 1.080  0.8377  -57.7   4.767  133.1  0.0727   57.4  0.8720  -30.1
 1.100  0.8355  -58.8   4.749  132.3  0.0739   56.9  0.8683  -30.6
 1.120  0.8319  -59.8   4.726  131.5  0.0750   56.3  0.8643  -31.1
 1.140  0.8286  -60.9   4.704  130.8  0.0760   55.7  0.8603  -31.5
 1.160  0.8256  -62.0   4.683  130.0  0.0771   55.2  0.8564  -32.0
 1.180  0.8229  -63.0   4.662  129.2  0.0782   54.6  0.8525  -32.5
 1.200  0.8204  -64.1   4.643  128.4  0.0793   54.1  0.8487  -33.0
 1.220  0.8170  -65.1   4.619  127.7  0.0803   53.5  0.8446  -33.4
 1.240  0.8138  -66.1   4.597  126.9  0.0812   52.9  0.8405  -33.9
 1.260  0.8109  -67.1   4.575  126.1  0.0822   52.3  0.8365  -34.3
 1.280  0.8083  -68.2   4.553  125.4  0.0832   51.8  0.8325  -34.8
 1.300  0.8059  -69.2   4.533  124.6  0.0842   51.2  0.8286  -35.2
 1.320  0.8020  -70.2   4.507  123.9  0.0851   50.6  0.8244  -35.7
 1.340  0.7984  -71.2   4.481  123.1  0.0860   50.0  0.8202  -36.1
 1.360  0.7950  -72.2   4.457  122.3  0.0869   49.5  0.8160  -36.6
 1.380  0.7919  -73.3   4.433  121.6  0.0878   48.9  0.8119  -37.0
 1.400  0.7890  -74.3   4.410  120.8  0.0887   48.4  0.8079  -37.5
 1.420  0.7859  -75.2   4.388  120.1  0.0896   47.9  0.8040  -37.9
 1.440  0.7829  -76.2   4.366  119.5  0.0904   47.4  0.8001  -38.3
 1.460  0.7802  -77.2   4.345  118.8  0.0913   46.9  0.7963  -38.7
 1.480  0.7778  -78.1   4.325  118.1  0.0922   46.4  0.7925  -39.1
 1.500  0.7755  -79.1   4.305  117.4  0.0931   45.9  0.7887  -39.5
 1.520  0.7719  -80.1   4.283  116.7  0.0939   45.3  0.7845  -39.9
 1.540  0.7686  -81.2   4.261  116.0  0.0947   44.8  0.7803  -40.3
 1.560  0.7656  -82.2   4.241  115.3  0.0955   44.3  0.7762  -40.7
 1.580  0.7628  -83.2   4.220  114.5  0.0963   43.7  0.7721  -41.2
 1.600  0.7602  -84.3   4.201  113.8  0.0971   43.2  0.7681  -41.6
 1.620  0.7569  -85.2   4.179  113.2  0.0978   42.7  0.7644  -42.0
 1.640  0.7538  -86.2   4.157  112.5  0.0986   42.3  0.7607  -42.3
 1.660  0.7509  -87.1   4.136  111.8  0.0993   41.8  0.7570  -42.7
 1.680  0.7482  -88.0   4.116  111.2  0.1000   41.3  0.7534  -43.0
 1.700  0.7457  -89.0   4.096  110.5  0.1008   40.9  0.7498  -43.4
 1.720  0.7426  -89.9   4.072  109.9  0.1015   40.4  0.7461  -43.8
 1.740  0.7398  -90.9   4.049  109.2  0.1021   40.0  0.7423  -44.1
 1.760  0.7372  -91.9   4.026  108.5  0.1028   39.5  0.7387  -44.5
 1.780  0.7347  -92.8   4.004  107.9  0.1035   39.0  0.7350  -44.9
 1.800  0.7325  -93.8   3.982  107.2  0.1042   38.6  0.7314  -45.3
 1.820  0.7293  -94.8   3.962  106.6  0.1048   38.1  0.7274  -45.7
 1.840  0.7263  -95.7   3.943  106.0  0.1055   37.7  0.7235  -46.0
 1.860  0.7235  -96.7   3.924  105.4  0.1062   37.2  0.7196  -46.4
 1.880  0.7210  -97.7   3.906  104.7  0.1068   36.7  0.7157  -46.8
 1.900  0.7186  -98.7   3.888  104.1  0.1075   36.3  0.7119  -47.2
 1.920  0.7158  -99.6   3.866  103.5  0.1080   35.9  0.7083  -47.5
 1.940  0.7131 -100.5   3.845  102.9  0.1086   35.4  0.7047  -47.8
 1.960  0.7106 -101.4   3.824  102.3  0.1092   35.0  0.7011  -48.2
 1.980  0.7082 -102.3   3.804  101.7  0.1097   34.5  0.6975  -48.5
 2.000  0.7061 -103.2   3.784  101.1  0.1103   34.1  0.6940  -48.8
 2.020  0.7026 -104.1   3.764  100.5  0.1108   33.6  0.6901  -49.1
 2.040  0.6993 -105.0   3.744   99.9  0.1113   33.2  0.6863  -49.5
 2.060  0.6962 -106.0   3.724   99.3  0.1118   32.7  0.6825  -49.8
 2.080  0.6933 -106.9   3.705   98.7  0.1123   32.3  0.6787  -50.1
 2.100  0.6906 -107.9   3.687   98.1  0.1128   31.9  0.6750  -50.5
 2.120  0.6880 -108.8   3.668   97.5  0.1133   31.4  0.6712  -50.8
 2.140  0.6857 -109.8   3.651   96.8  0.1138   31.0  0.6675  -51.1
 2.160  0.6835 -110.7   3.633   96.2  0.1143   30.5  0.6638  -51.5
 2.180  0.6816 -111.7   3.616   95.5  0.1149   30.1  0.6601  -51.8
 2.200  0.6798 -112.7   3.600   94.9  0.1154   29.7  0.6565  -52.2
 2.220  0.6765 -113.6   3.581   94.3  0.1158   29.3  0.6528  -52.5
 2.240  0.6733 -114.5   3.561   93.8  0.1162   28.8  0.6490  -52.8
 2.260  0.6703 -115.4   3.543   93.2  0.1166   28.4  0.6453  -53.1
 2.280  0.6675 -116.4   3.524   92.7  0.1170   28.0  0.6416  -53.4
 2.300  0.6648 -117.3   3.506   92.1  0.1175   27.6  0.6380  -53.7
 2.320  0.6623 -118.3   3.488   91.5  0.1179   27.1  0.6343  -54.0
 2.340  0.6601 -119.2   3.471   90.9  0.1183   26.7  0.6307  -54.3
 2.360  0.6579 -120.2   3.454   90.3  0.1188   26.3  0.6271  -54.7
 2.380  0.6560 -121.1   3.437   89.7  0.1192   25.9  0.6235  -55.0
 2.400  0.6543 -122.1   3.421   89.1  0.1197   25.5  0.6199  -55.3
 2.420  0.6515 -123.0   3.402   88.6  0.1200   25.1  0.6162  -55.6
 2.440  0.6488 -123.9   3.384   88.0  0.1202   24.7  0.6125  -55.9
 2.460  0.6463 -124.9   3.365   87.5  0.1205   24.2  0.6088  -56.2
 2.480  0.6440 -125.8   3.347   86.9  0.1208   23.8  0.6052  -56.5
 2.500  0.6418 -126.8   3.330   86.3  0.1211   23.4  0.6015  -56.8
 2.520  0.6399 -127.7   3.313   85.8  0.1214   23.0  0.5979  -57.1
 2.540  0.6381 -128.7   3.296   85.2  0.1217   22.6  0.5943  -57.4
 2.560  0.6365 -129.7   3.279   84.6  0.1221   22.2  0.5907  -57.7
 2.580  0.6350 -130.6   3.263   84.0  0.1224   21.8  0.5871  -58.1
 2.600  0.6338 -131.6   3.247   83.4  0.1227   21.4  0.5836  -58.4
 2.620  0.6313 -132.5   3.230   82.9  0.1229   21.0  0.5802  -58.7
 2.640  0.6289 -133.4   3.212   82.4  0.1231   20.7  0.5769  -59.0
 2.660  0.6267 -134.3   3.195   81.9  0.1233   20.3  0.5735  -59.2
 2.680  0.6247 -135.2   3.179   81.3  0.1235   20.0  0.5702  -59.5
 2.700  0.6228 -136.1   3.162   80.8  0.1237   19.6  0.5669  -59.8
 2.720  0.6210 -137.0   3.146   80.3  0.1240   19.3  0.5636  -60.1
 2.740  0.6195 -137.9   3.130   79.7  0.1242   18.9  0.5603  -60.4
 2.760  0.6180 -138.8   3.114   79.2  0.1244   18.6  0.5570  -60.7
 2.780  0.6168 -139.8   3.099   78.7  0.1247   18.2  0.5537  -61.0
 2.800  0.6157 -140.7   3.084   78.1  0.1249   17.9  0.5505  -61.3
 2.820  0.6138 -141.6   3.068   77.6  0.1250   17.6  0.5474  -61.6
 2.840  0.6121 -142.4   3.052   77.1  0.1252   17.2  0.5442  -61.8
 2.860  0.6105 -143.3   3.037   76.6  0.1253   16.9  0.5411  -62.1
 2.880  0.6090 -144.2   3.021   76.1  0.1255   16.5  0.5380  -62.3
 2.900  0.6077 -145.1   3.006   75.6  0.1256   16.2  0.5349  -62.6
 2.920  0.6066 -146.0   2.991   75.1  0.1258   15.8  0.5318  -62.9
 2.940  0.6055 -146.9   2.976   74.6  0.1260   15.5  0.5287  -63.2
 2.960  0.6047 -147.8   2.962   74.1  0.1261   15.2  0.5257  -63.4
 2.980  0.6040 -148.7   2.948   73.5  0.1263   14.8  0.5226  -63.7
 3.000  0.6034 -149.6   2.934   73.0  0.1265   14.5  0.5196  -64.0
 3.100  0.5941 -153.7   2.857   70.8  0.1266   13.0  0.5059  -65.2
 3.200  0.5879 -157.9   2.784   68.5  0.1267   11.6  0.4924  -66.4
 3.300  0.5849 -162.1   2.717   66.0  0.1270   10.1  0.4792  -67.7
 3.400  0.5851 -166.4   2.654   63.5  0.1273    8.6  0.4662  -69.1
 3.500  0.5885 -170.6   2.597   60.8  0.1277    7.2  0.4535  -70.6
 3.600  0.5841 -174.3   2.533   58.8  0.1276    6.0  0.4418  -71.8
 3.700  0.5821 -178.0   2.473   56.6  0.1275    4.9  0.4304  -73.0
 3.800  0.5827  178.2   2.416   54.4  0.1274    3.7  0.4192  -74.3
 3.900  0.5857  174.5   2.364   52.0  0.1274    2.6  0.4082  -75.7
 4.000  0.5912  170.8   2.315   49.6  0.1275    1.4  0.3974  -77.2
 4.100  0.5900  167.7   2.258   47.7  0.1270    0.4  0.3873  -78.7
 4.200  0.5905  164.6   2.204   45.7  0.1266   -0.6  0.3774  -80.2
 4.300  0.5927  161.5   2.153   43.5  0.1262   -1.6  0.3678  -81.8
 4.400  0.5965  158.5   2.105   41.3  0.1258   -2.7  0.3585  -83.5
 4.500  0.6021  155.5   2.060   39.0  0.1255   -3.7  0.3496  -85.3
 4.600  0.6014  153.1   2.011   37.3  0.1248   -4.4  0.3426  -86.7
 4.700  0.6018  150.7   1.965   35.5  0.1241   -5.2  0.3357  -88.2
 4.800  0.6032  148.3   1.920   33.6  0.1235   -5.9  0.3292  -89.7
 4.900  0.6057  145.9   1.877   31.7  0.1228   -6.6  0.3228  -91.3
 5.000  0.6092  143.6   1.837   29.6  0.1222   -7.4  0.3167  -92.9
 5.100  0.6092  141.5   1.798   28.0  0.1215   -7.9  0.3107  -94.1
 5.200  0.6099  139.5   1.760   26.4  0.1208   -8.5  0.3049  -95.4
 5.300  0.6114  137.4   1.724   24.7  0.1201   -9.0  0.2992  -96.8
 5.400  0.6138  135.3   1.690   22.9  0.1195   -9.5  0.2937  -98.2
 5.500  0.6169  133.3   1.657   21.0  0.1188  -10.1  0.2884  -99.6
 5.600  0.6188  131.4   1.626   19.5  0.1182  -10.4  0.2824 -101.1
 5.700  0.6214  129.5   1.596   17.9  0.1177  -10.7  0.2765 -102.6
 5.800  0.6246  127.6   1.567   16.3  0.1171  -10.9  0.2709 -104.2
 5.900  0.6285  125.7   1.540   14.6  0.1166  -11.2  0.2655 -105.9
 6.000  0.6331  123.9   1.514   12.9  0.1160  -11.5  0.2603 -107.6
 6.100  0.6361  122.1   1.488   11.4  0.1159  -11.7  0.2556 -109.5
 6.200  0.6397  120.4   1.464    9.9  0.1158  -11.8  0.2512 -111.4
 6.300  0.6439  118.7   1.440    8.3  0.1158  -12.0  0.2470 -113.4
 6.400  0.6487  117.0   1.418    6.6  0.1157  -12.1  0.2432 -115.5
 6.500  0.6540  115.3   1.397    4.9  0.1156  -12.3  0.2397 -117.6
 6.600  0.6570  113.8   1.375    3.4  0.1159  -12.4  0.2359 -119.3
 6.800  0.6643  110.8   1.333    0.2  0.1165  -12.6  0.2290 -123.0
 7.000  0.6733  107.9   1.296   -3.1  0.1171  -12.8  0.2231 -126.8
 7.200  0.6775  104.9   1.258   -6.0  0.1186  -13.3  0.2140 -131.2
 7.400  0.6835  101.9   1.224   -9.2  0.1201  -13.8  0.2063 -135.9
 7.600  0.6886   98.6   1.187  -12.4  0.1216  -14.5  0.1982 -141.5
 7.800  0.6933   95.1   1.149  -15.7  0.1230  -15.5  0.1906 -148.2
 8.000  0.7006   91.7   1.115  -19.2  0.1244  -16.4  0.1858 -155.4
 8.200  0.7036   88.1   1.074  -22.0  0.1247  -17.3  0.1789 -163.1
 8.400  0.7094   84.6   1.036  -24.9  0.1250  -18.2  0.1753 -171.2
 8.600  0.7189   81.5   1.002  -27.7  0.1254  -19.0  0.1732  180.0
 8.800  0.7315   78.7   0.970  -30.3  0.1259  -19.5  0.1733  170.5
 9.000  0.7458   76.0   0.941  -33.1  0.1263  -20.0  0.1782  161.2
 9.200  0.7672   74.0   0.914  -35.6  0.1273  -20.4  0.1899  151.4
 9.400  0.7895   72.1   0.888  -38.2  0.1282  -20.7  0.2065  142.9
 9.600  0.8096   70.2   0.858  -40.9  0.1295  -21.1  0.2285  136.2
 9.800  0.8276   68.3   0.824  -43.6  0.1311  -21.6  0.2544  131.1
10.000  0.8465   66.5   0.792  -46.6  0.1327  -22.1  0.2820  126.9
10.200  0.8501   65.2   0.760  -48.4  0.1351  -22.8  0.3060  123.8
10.400  0.8542   63.9   0.729  -50.4  0.1375  -23.4  0.3307  121.2
10.600  0.8507   63.2   0.703  -52.2  0.1397  -24.4  0.3530  118.9
10.800  0.8394   63.2   0.682  -53.5  0.1418  -25.7  0.3727  116.8
11.000  0.8281   63.2   0.662  -55.0  0.1440  -27.0  0.3929  115.0
11.200  0.8186   63.4   0.656  -55.9  0.1444  -28.2  0.4040  114.5
11.400  0.8091   63.5   0.651  -56.9  0.1448  -29.4  0.4152  113.9
11.600  0.8125   63.0   0.645  -59.1  0.1458  -30.6  0.4271  114.0
11.800  0.8288   61.9   0.642  -62.5  0.1474  -31.9  0.4396  114.6
12.000  0.8454   60.9   0.641  -66.0  0.1491  -33.1  0.4522  115.1
!
!  f       NFmin   Gammaopt  rn/50
! GHz       dB    MAG  ANG    -
 0.450      0.83  0.58    8   0.37
 0.900      0.80  0.56   23   0.31
 1.800      1.07  0.45   56   0.26
 2.400      1.14  0.41   67   0.25
 5.500      2.37  0.40 -150   0.18
10.000      4.33  0.72  -58   2.98
!
! (c) 2015  Infineon Technologies AG, Munich
