! Infineon Technologies  Discrete & RF Semiconductors
! BFP405F
! VCE =  1.0 V,  IC =  8.0 mA
! Common Emitter S-Parameters:                            Nov 2015
# GHz  S  MA  R  50
!  f         S11            S21            S12            S22
! GHz     MAG   ANG      MAG   ANG      MAG   ANG      MAG   ANG
 0.030  0.7503   -2.1  18.959  177.7  0.0025   91.5  0.9781   -0.9
 0.035  0.7488   -2.5  18.996  177.5  0.0020   96.5  0.9782   -1.1
 0.040  0.7473   -3.0  19.033  177.3  0.0016  104.4  0.9784   -1.2
 0.045  0.7471   -3.6  19.121  176.7  0.0017   63.2  0.9808   -1.6
 0.050  0.7470   -4.2  19.210  176.2  0.0025   38.3  0.9832   -1.9
 0.055  0.7474   -4.4  19.121  175.9  0.0029   59.7  0.9816   -1.8
 0.060  0.7479   -4.5  19.032  175.6  0.0036   74.4  0.9801   -1.7
 0.065  0.7475   -5.0  19.047  175.0  0.0042   55.9  0.9789   -2.0
 0.070  0.7472   -5.6  19.064  174.5  0.0052   43.2  0.9777   -2.4
 0.075  0.7461   -5.9  19.016  174.2  0.0042   73.2  0.9798   -2.7
 0.080  0.7450   -6.3  18.969  173.9  0.0047  106.7  0.9820   -2.9
 0.085  0.7467   -6.8  19.007  173.8  0.0045   98.8  0.9801   -3.0
 0.090  0.7485   -7.3  19.045  173.7  0.0043   90.1  0.9782   -3.2
 0.095  0.7487   -7.6  19.001  173.3  0.0037  101.5  0.9795   -3.6
 0.100  0.7490   -7.9  18.957  172.9  0.0032  116.8  0.9809   -3.9
 0.105  0.7479   -8.3  18.953  172.6  0.0028   98.1  0.9803   -3.9
 0.110  0.7469   -8.7  18.949  172.2  0.0027   75.7  0.9798   -4.0
 0.115  0.7459   -9.1  18.935  172.0  0.0039   75.3  0.9784   -4.1
 0.120  0.7450   -9.5  18.921  171.7  0.0051   75.1  0.9771   -4.3
 0.125  0.7446   -9.9  18.924  171.2  0.0044   72.7  0.9767   -4.6
 0.130  0.7442  -10.3  18.929  170.8  0.0037   69.4  0.9764   -5.0
 0.135  0.7428  -10.6  18.944  170.6  0.0048   73.9  0.9764   -5.2
 0.140  0.7414  -11.0  18.960  170.4  0.0060   76.6  0.9765   -5.3
 0.145  0.7414  -11.5  18.956  170.1  0.0058   83.8  0.9752   -5.4
 0.150  0.7414  -12.0  18.952  169.7  0.0056   91.6  0.9740   -5.6
 0.155  0.7404  -12.4  18.936  169.3  0.0059   90.5  0.9735   -5.8
 0.160  0.7395  -12.7  18.921  168.9  0.0062   89.4  0.9730   -6.0
 0.165  0.7386  -13.1  18.906  168.5  0.0065   88.5  0.9725   -6.2
 0.170  0.7378  -13.5  18.893  168.1  0.0068   87.7  0.9720   -6.4
 0.175  0.7369  -13.8  18.881  167.7  0.0071   86.9  0.9715   -6.6
 0.180  0.7361  -14.2  18.870  167.2  0.0074   86.2  0.9710   -6.8
 0.185  0.7353  -14.6  18.859  166.8  0.0077   85.5  0.9706   -7.0
 0.190  0.7346  -15.0  18.850  166.4  0.0080   84.9  0.9701   -7.2
 0.195  0.7339  -15.3  18.841  166.0  0.0083   84.3  0.9697   -7.4
 0.200  0.7332  -15.7  18.834  165.6  0.0086   83.8  0.9693   -7.6
 0.220  0.7298  -17.2  18.698  164.3  0.0089   81.4  0.9664   -8.4
 0.240  0.7270  -18.7  18.571  163.0  0.0092   79.2  0.9636   -9.1
 0.260  0.7231  -20.1  18.465  161.7  0.0097   79.0  0.9601   -9.9
 0.280  0.7181  -21.6  18.380  160.3  0.0106   80.6  0.9559  -10.6
 0.300  0.7137  -23.1  18.307  158.9  0.0114   82.0  0.9518  -11.3
 0.320  0.7089  -24.6  18.159  157.6  0.0118   78.8  0.9476  -12.0
 0.340  0.7045  -26.1  18.021  156.3  0.0123   75.9  0.9435  -12.7
 0.360  0.6995  -27.5  17.892  155.0  0.0128   74.5  0.9395  -13.4
 0.380  0.6938  -29.0  17.773  153.7  0.0133   74.6  0.9356  -14.1
 0.400  0.6885  -30.5  17.664  152.4  0.0139   74.6  0.9318  -14.8
 0.420  0.6841  -31.8  17.514  151.2  0.0146   75.0  0.9264  -15.4
 0.440  0.6801  -33.2  17.373  149.9  0.0153   75.3  0.9212  -16.1
 0.450  0.6782  -33.9  17.305  149.3  0.0157   75.5  0.9186  -16.4
 0.460  0.6753  -34.5  17.224  148.7  0.0161   75.0  0.9158  -16.7
 0.480  0.6697  -35.9  17.067  147.5  0.0170   74.1  0.9104  -17.4
 0.500  0.6645  -37.2  16.918  146.3  0.0178   73.2  0.9050  -18.0
 0.520  0.6573  -38.5  16.745  145.2  0.0185   73.1  0.8991  -18.5
 0.540  0.6505  -39.8  16.579  144.0  0.0192   72.9  0.8933  -19.1
 0.560  0.6440  -41.1  16.420  142.9  0.0198   72.8  0.8876  -19.7
 0.580  0.6379  -42.4  16.267  141.7  0.0205   72.7  0.8819  -20.2
 0.600  0.6321  -43.8  16.122  140.5  0.0212   72.6  0.8764  -20.8
 0.620  0.6254  -45.0  15.960  139.5  0.0217   72.0  0.8707  -21.3
 0.640  0.6191  -46.1  15.804  138.5  0.0222   71.4  0.8650  -21.8
 0.660  0.6129  -47.3  15.652  137.4  0.0226   70.8  0.8594  -22.3
 0.680  0.6071  -48.6  15.506  136.4  0.0231   70.2  0.8539  -22.9
 0.700  0.6015  -49.8  15.365  135.3  0.0236   69.7  0.8484  -23.4
 0.720  0.5948  -50.9  15.183  134.3  0.0240   69.4  0.8421  -23.9
 0.740  0.5884  -52.1  15.005  133.4  0.0245   69.1  0.8358  -24.3
 0.760  0.5822  -53.3  14.832  132.4  0.0249   68.8  0.8296  -24.8
 0.780  0.5762  -54.5  14.664  131.3  0.0254   68.6  0.8235  -25.3
 0.800  0.5705  -55.7  14.500  130.3  0.0258   68.3  0.8174  -25.8
 0.820  0.5640  -56.7  14.344  129.4  0.0263   68.2  0.8118  -26.2
 0.840  0.5577  -57.7  14.191  128.5  0.0269   68.2  0.8062  -26.6
 0.860  0.5516  -58.8  14.041  127.6  0.0274   68.1  0.8006  -27.0
 0.880  0.5456  -59.9  13.896  126.7  0.0280   68.1  0.7951  -27.5
 0.900  0.5399  -61.0  13.754  125.7  0.0285   68.0  0.7896  -27.9
 0.920  0.5340  -62.0  13.594  124.9  0.0290   67.5  0.7837  -28.3
 0.940  0.5283  -63.1  13.437  124.1  0.0295   67.1  0.7779  -28.7
 0.960  0.5227  -64.1  13.282  123.2  0.0300   66.6  0.7721  -29.1
 0.980  0.5174  -65.2  13.131  122.4  0.0305   66.2  0.7664  -29.5
 1.000  0.5122  -66.3  12.982  121.5  0.0310   65.8  0.7607  -29.9
 1.020  0.5064  -67.2  12.834  120.8  0.0314   65.2  0.7553  -30.2
 1.040  0.5008  -68.1  12.689  120.1  0.0319   64.7  0.7499  -30.5
 1.060  0.4952  -69.1  12.545  119.3  0.0323   64.1  0.7445  -30.8
 1.080  0.4898  -70.0  12.403  118.6  0.0328   63.6  0.7392  -31.2
 1.100  0.4846  -71.0  12.264  117.8  0.0332   63.1  0.7339  -31.5
 1.120  0.4793  -71.9  12.130  117.1  0.0336   63.3  0.7289  -31.8
 1.140  0.4741  -72.9  11.998  116.4  0.0340   63.4  0.7238  -32.0
 1.160  0.4691  -73.9  11.868  115.7  0.0344   63.6  0.7188  -32.3
 1.180  0.4642  -74.9  11.739  115.0  0.0348   63.7  0.7139  -32.6
 1.200  0.4594  -75.9  11.613  114.2  0.0352   63.9  0.7089  -32.9
 1.220  0.4543  -76.7  11.484  113.5  0.0355   63.5  0.7040  -33.2
 1.240  0.4494  -77.6  11.357  112.8  0.0358   63.2  0.6991  -33.5
 1.260  0.4445  -78.5  11.231  112.1  0.0360   62.8  0.6942  -33.8
 1.280  0.4397  -79.4  11.107  111.4  0.0363   62.4  0.6893  -34.1
 1.300  0.4351  -80.3  10.985  110.7  0.0366   62.1  0.6845  -34.4
 1.320  0.4309  -81.1  10.865  110.1  0.0371   62.1  0.6800  -34.7
 1.340  0.4269  -82.0  10.747  109.6  0.0375   62.1  0.6754  -34.9
 1.360  0.4229  -82.9  10.629  109.0  0.0380   62.0  0.6709  -35.2
 1.380  0.4191  -83.8  10.513  108.4  0.0384   62.0  0.6664  -35.4
 1.400  0.4153  -84.7  10.398  107.8  0.0389   62.0  0.6619  -35.7
 1.420  0.4111  -85.5  10.291  107.3  0.0393   61.7  0.6578  -35.9
 1.440  0.4070  -86.3  10.184  106.8  0.0397   61.5  0.6538  -36.1
 1.460  0.4029  -87.1  10.078  106.2  0.0402   61.3  0.6497  -36.4
 1.480  0.3990  -87.9   9.974  105.7  0.0406   61.0  0.6456  -36.6
 1.500  0.3951  -88.8   9.870  105.1  0.0410   60.8  0.6416  -36.8
 1.520  0.3915  -89.6   9.770  104.6  0.0413   60.8  0.6377  -37.0
 1.540  0.3881  -90.5   9.671  104.1  0.0417   60.8  0.6339  -37.2
 1.560  0.3847  -91.3   9.573  103.5  0.0420   60.7  0.6301  -37.5
 1.580  0.3814  -92.2   9.476  103.0  0.0424   60.7  0.6262  -37.7
 1.600  0.3782  -93.1   9.380  102.4  0.0427   60.7  0.6224  -37.9
 1.620  0.3750  -93.8   9.284  101.9  0.0429   60.8  0.6184  -38.1
 1.640  0.3718  -94.5   9.188  101.4  0.0432   60.9  0.6145  -38.3
 1.660  0.3687  -95.2   9.094  100.9  0.0434   61.1  0.6105  -38.4
 1.680  0.3656  -95.9   8.999  100.4  0.0437   61.2  0.6065  -38.6
 1.700  0.3626  -96.6   8.906   99.9  0.0439   61.3  0.6026  -38.8
 1.720  0.3594  -97.4   8.821   99.4  0.0442   61.1  0.5992  -39.0
 1.740  0.3563  -98.2   8.736   99.0  0.0445   60.9  0.5959  -39.3
 1.760  0.3532  -99.1   8.652   98.5  0.0449   60.6  0.5925  -39.5
 1.780  0.3502  -99.9   8.569   98.0  0.0452   60.4  0.5892  -39.8
 1.800  0.3473 -100.8   8.486   97.5  0.0455   60.2  0.5859  -40.0
 1.820  0.3446 -101.5   8.410   97.1  0.0460   60.1  0.5824  -40.2
 1.840  0.3420 -102.2   8.333   96.7  0.0465   60.1  0.5789  -40.3
 1.860  0.3395 -102.9   8.258   96.3  0.0469   60.0  0.5754  -40.5
 1.880  0.3370 -103.6   8.183   95.8  0.0474   60.0  0.5720  -40.6
 1.900  0.3345 -104.3   8.108   95.4  0.0479   59.9  0.5685  -40.8
 1.920  0.3322 -105.1   8.038   95.0  0.0481   59.9  0.5660  -41.1
 1.940  0.3300 -105.9   7.969   94.6  0.0482   59.9  0.5635  -41.4
 1.960  0.3279 -106.8   7.900   94.2  0.0484   60.0  0.5610  -41.6
 1.980  0.3258 -107.6   7.831   93.7  0.0485   60.0  0.5585  -41.9
 2.000  0.3238 -108.5   7.763   93.3  0.0487   60.0  0.5560  -42.2
 2.020  0.3213 -109.2   7.694   92.9  0.0490   59.9  0.5532  -42.4
 2.040  0.3189 -109.9   7.625   92.5  0.0493   59.7  0.5504  -42.6
 2.060  0.3166 -110.6   7.556   92.1  0.0497   59.6  0.5476  -42.7
 2.080  0.3143 -111.4   7.488   91.6  0.0500   59.4  0.5448  -42.9
 2.100  0.3120 -112.1   7.420   91.2  0.0503   59.3  0.5420  -43.1
 2.120  0.3100 -112.8   7.355   90.8  0.0507   59.1  0.5394  -43.3
 2.140  0.3080 -113.5   7.291   90.5  0.0511   58.8  0.5367  -43.5
 2.160  0.3060 -114.2   7.226   90.1  0.0516   58.6  0.5341  -43.7
 2.180  0.3041 -114.9   7.163   89.7  0.0520   58.4  0.5315  -43.9
 2.200  0.3023 -115.6   7.099   89.3  0.0524   58.2  0.5289  -44.1
 2.220  0.3005 -116.2   7.040   89.0  0.0527   58.2  0.5265  -44.2
 2.240  0.2988 -116.9   6.982   88.6  0.0530   58.3  0.5241  -44.4
 2.260  0.2971 -117.6   6.924   88.3  0.0533   58.3  0.5217  -44.5
 2.280  0.2954 -118.2   6.866   88.0  0.0536   58.4  0.5193  -44.7
 2.300  0.2938 -118.9   6.808   87.6  0.0539   58.4  0.5169  -44.8
 2.320  0.2918 -119.5   6.755   87.3  0.0543   58.4  0.5147  -45.0
 2.340  0.2898 -120.2   6.702   86.9  0.0547   58.5  0.5126  -45.2
 2.360  0.2879 -120.9   6.649   86.5  0.0550   58.5  0.5105  -45.3
 2.380  0.2860 -121.5   6.596   86.2  0.0554   58.6  0.5083  -45.5
 2.400  0.2842 -122.2   6.544   85.8  0.0558   58.6  0.5062  -45.7
 2.420  0.2827 -122.8   6.492   85.5  0.0561   58.5  0.5043  -45.8
 2.440  0.2813 -123.5   6.440   85.1  0.0563   58.5  0.5024  -46.0
 2.460  0.2798 -124.1   6.389   84.8  0.0566   58.4  0.5005  -46.1
 2.480  0.2784 -124.7   6.337   84.5  0.0568   58.4  0.4986  -46.3
 2.500  0.2771 -125.4   6.286   84.1  0.0571   58.3  0.4967  -46.4
 2.520  0.2755 -126.0   6.238   83.8  0.0575   58.2  0.4949  -46.6
 2.540  0.2738 -126.6   6.189   83.5  0.0578   58.2  0.4931  -46.7
 2.560  0.2723 -127.2   6.141   83.2  0.0582   58.1  0.4913  -46.9
 2.580  0.2707 -127.9   6.094   82.9  0.0585   58.1  0.4896  -47.0
 2.600  0.2692 -128.5   6.046   82.6  0.0589   58.0  0.4878  -47.2
 2.620  0.2680 -129.1   6.003   82.3  0.0592   57.9  0.4860  -47.3
 2.640  0.2669 -129.7   5.960   82.0  0.0595   57.8  0.4842  -47.4
 2.660  0.2658 -130.3   5.917   81.7  0.0599   57.6  0.4823  -47.5
 2.680  0.2647 -130.9   5.874   81.3  0.0602   57.5  0.4805  -47.6
 2.700  0.2637 -131.5   5.832   81.0  0.0605   57.4  0.4787  -47.7
 2.720  0.2626 -132.0   5.792   80.7  0.0608   57.5  0.4772  -47.9
 2.740  0.2614 -132.6   5.752   80.5  0.0610   57.5  0.4757  -48.0
 2.760  0.2603 -133.1   5.712   80.2  0.0613   57.6  0.4742  -48.2
 2.780  0.2593 -133.7   5.673   79.9  0.0615   57.6  0.4728  -48.3
 2.800  0.2582 -134.2   5.633   79.6  0.0618   57.7  0.4713  -48.5
 2.820  0.2573 -134.8   5.593   79.3  0.0622   57.6  0.4698  -48.6
 2.840  0.2565 -135.3   5.553   79.1  0.0627   57.6  0.4683  -48.8
 2.860  0.2557 -135.9   5.513   78.8  0.0631   57.5  0.4668  -48.9
 2.880  0.2549 -136.5   5.474   78.6  0.0636   57.5  0.4653  -49.1
 2.900  0.2542 -137.1   5.434   78.3  0.0640   57.4  0.4638  -49.2
 2.920  0.2530 -137.7   5.399   78.0  0.0642   57.5  0.4624  -49.3
 2.940  0.2518 -138.3   5.364   77.8  0.0644   57.5  0.4611  -49.5
 2.960  0.2507 -138.9   5.329   77.5  0.0647   57.6  0.4597  -49.6
 2.980  0.2496 -139.5   5.295   77.2  0.0649   57.6  0.4584  -49.8
 3.000  0.2485 -140.1   5.260   76.9  0.0651   57.7  0.4570  -49.9
 3.100  0.2445 -142.8   5.088   75.5  0.0672   56.7  0.4504  -50.5
 3.200  0.2396 -145.7   4.927   74.2  0.0685   56.7  0.4445  -51.2
 3.300  0.2372 -148.0   4.785   72.9  0.0706   56.9  0.4390  -51.6
 3.400  0.2324 -151.1   4.637   71.7  0.0725   56.5  0.4348  -52.4
 3.500  0.2300 -153.1   4.508   70.5  0.0736   55.7  0.4310  -52.8
 3.600  0.2266 -155.7   4.380   69.3  0.0750   56.1  0.4262  -53.3
 3.700  0.2244 -158.4   4.261   68.2  0.0769   55.3  0.4217  -53.6
 3.800  0.2229 -161.0   4.146   67.1  0.0793   55.4  0.4185  -54.2
 3.900  0.2215 -163.2   4.046   65.9  0.0803   55.2  0.4142  -54.7
 4.000  0.2193 -165.5   3.946   64.8  0.0826   55.1  0.4114  -55.1
 4.100  0.2187 -167.9   3.849   63.7  0.0843   54.4  0.4066  -55.5
 4.200  0.2166 -170.4   3.758   62.7  0.0854   54.2  0.4028  -55.8
 4.300  0.2187 -172.5   3.675   61.6  0.0871   54.0  0.3988  -56.4
 4.400  0.2168 -174.9   3.593   60.6  0.0890   53.6  0.3965  -56.8
 4.500  0.2181 -176.7   3.513   59.6  0.0913   53.2  0.3932  -57.0
 4.600  0.2180 -179.3   3.436   58.4  0.0930   52.7  0.3893  -57.3
 4.700  0.2189  179.2   3.366   57.5  0.0939   52.5  0.3848  -57.7
 4.800  0.2206  176.4   3.299   56.5  0.0961   52.1  0.3824  -58.1
 4.900  0.2217  174.9   3.232   55.6  0.0980   52.1  0.3778  -58.5
 5.000  0.2218  172.7   3.171   54.5  0.0997   51.6  0.3746  -59.0
 5.100  0.2223  170.8   3.108   53.5  0.1015   51.2  0.3709  -59.2
 5.200  0.2242  168.8   3.052   52.5  0.1034   50.6  0.3672  -59.6
 5.300  0.2253  166.7   2.996   51.5  0.1052   50.5  0.3637  -60.0
 5.400  0.2261  165.3   2.943   50.6  0.1072   50.1  0.3611  -60.4
 5.500  0.2271  163.3   2.890   49.5  0.1086   49.5  0.3583  -60.6
 5.600  0.2274  161.5   2.841   48.6  0.1109   49.4  0.3550  -61.0
 5.700  0.2298  159.5   2.791   47.6  0.1121   48.9  0.3511  -61.3
 5.800  0.2301  158.0   2.746   46.6  0.1143   48.5  0.3485  -61.7
 5.900  0.2315  156.2   2.702   45.7  0.1159   48.0  0.3455  -62.0
 6.000  0.2317  154.5   2.656   44.8  0.1175   47.7  0.3434  -62.3
 6.100  0.2333  152.7   2.612   43.8  0.1192   47.5  0.3394  -62.4
 6.200  0.2344  150.9   2.570   42.8  0.1209   46.8  0.3367  -62.8
 6.300  0.2361  148.9   2.532   41.9  0.1228   46.4  0.3327  -63.1
 6.400  0.2359  147.3   2.492   41.0  0.1243   46.0  0.3303  -63.4
 6.500  0.2383  145.0   2.452   40.0  0.1261   45.6  0.3271  -63.6
 6.600  0.2396  143.4   2.417   39.1  0.1280   45.3  0.3239  -63.8
 6.800  0.2435  139.5   2.345   37.2  0.1316   44.4  0.3174  -64.1
 7.000  0.2470  135.7   2.278   35.4  0.1351   43.7  0.3095  -63.9
 7.200  0.2540  131.9   2.213   33.7  0.1385   42.9  0.2996  -64.1
 7.400  0.2631  128.9   2.154   32.0  0.1426   42.3  0.2895  -64.3
 7.600  0.2718  126.1   2.100   30.4  0.1464   41.6  0.2793  -64.3
 7.800  0.2835  123.6   2.048   28.7  0.1506   40.3  0.2658  -64.4
 8.000  0.2965  121.6   1.999   27.0  0.1544   39.5  0.2508  -64.6
 8.200  0.3121  119.8   1.955   25.4  0.1585   38.4  0.2322  -64.7
 8.400  0.3279  118.2   1.913   23.7  0.1626   37.4  0.2136  -64.8
 8.600  0.3437  116.7   1.873   22.0  0.1665   36.3  0.1930  -64.9
 8.800  0.3594  115.4   1.833   20.3  0.1701   35.2  0.1703  -64.9
 9.000  0.3753  114.2   1.795   18.5  0.1738   34.2  0.1477  -64.9
 9.200  0.3895  113.0   1.759   16.9  0.1775   33.1  0.1239  -65.4
 9.400  0.4038  111.8   1.725   15.3  0.1813   32.1  0.1001  -66.0
 9.600  0.4171  110.7   1.692   13.6  0.1852   31.0  0.0757  -67.6
 9.800  0.4294  109.4   1.661   11.9  0.1893   29.8  0.0510  -71.2
10.000  0.4419  108.3   1.631   10.1  0.1934   28.7  0.0268  -81.7
10.200  0.4532  106.6   1.600    8.4  0.1968   27.3  0.0123 -159.9
10.400  0.4649  104.9   1.570    6.6  0.2003   26.0  0.0325  146.3
10.600  0.4757  103.0   1.540    4.8  0.2034   24.7  0.0594  138.2
10.800  0.4858  101.0   1.509    3.0  0.2060   23.4  0.0875  136.4
11.000  0.4965   99.0   1.479    1.1  0.2087   22.2  0.1156  135.5
11.200  0.5042   97.0   1.444   -0.4  0.2106   21.1  0.1400  137.5
11.400  0.5124   95.0   1.410   -2.1  0.2127   19.9  0.1646  138.9
11.600  0.5179   93.4   1.378   -3.5  0.2149   19.0  0.1869  141.4
11.800  0.5202   92.1   1.348   -4.7  0.2175   18.3  0.2075  144.9
12.000  0.5228   90.8   1.318   -5.9  0.2200   17.6  0.2288  147.8
!
!  f       NFmin   Gammaopt  rn/50
! GHz       dB    MAG  ANG    -
 0.450      1.52  0.27    6   0.33
 0.900      1.54  0.24   12   0.32
 1.500      1.60  0.23   17   0.29
 1.900      1.63  0.21   23   0.30
 2.400      1.77  0.20   31   0.33
 3.000      1.84  0.18   45   0.31
 3.500      1.90  0.16   52   0.30
 4.500      2.05  0.13   55   0.20
 5.500      2.24  0.07   59   0.06
!
! (c) 2015  Infineon Technologies AG, Munich
