! Infineon Technologies  Discrete & RF Semiconductors
! BFP410
! VCE =  1.0 V,  IC =  24 mA
! Common Emitter S-Parameters:                            Nov 2015
# GHz  S  MA  R  50
!  f         S11            S21            S12            S22
! GHz     MAG   ANG      MAG   ANG      MAG   ANG      MAG   ANG
 0.010  0.4162   -1.8  37.563  179.7  0.0013  123.6  0.9058    3.1
 0.015  0.4198   -3.8  37.780  178.2  0.0014  105.2  0.9130    1.0
 0.020  0.4240   -5.8  38.021  176.8  0.0017   91.2  0.9213   -1.0
 0.025  0.4233   -7.1  37.939  176.0  0.0020   89.9  0.9222   -1.7
 0.030  0.4227   -8.4  37.865  175.2  0.0022   88.9  0.9233   -2.4
 0.035  0.4224   -9.7  37.798  174.4  0.0025   88.2  0.9245   -3.1
 0.040  0.4224  -11.1  37.739  173.5  0.0028   87.5  0.9258   -3.7
 0.045  0.4225  -12.4  37.688  172.7  0.0030   87.0  0.9272   -4.4
 0.050  0.4229  -13.7  37.644  171.9  0.0033   86.6  0.9288   -5.1
 0.055  0.4213  -15.1  37.562  171.2  0.0036   85.7  0.9272   -5.7
 0.060  0.4200  -16.5  37.486  170.4  0.0039   84.9  0.9256   -6.3
 0.065  0.4190  -17.9  37.417  169.7  0.0042   84.2  0.9242   -7.0
 0.070  0.4182  -19.3  37.354  168.9  0.0045   83.6  0.9229   -7.6
 0.075  0.4176  -20.7  37.297  168.2  0.0048   83.1  0.9217   -8.2
 0.080  0.4173  -22.1  37.247  167.4  0.0051   82.6  0.9206   -8.9
 0.085  0.4173  -23.6  37.203  166.7  0.0054   82.2  0.9196   -9.5
 0.090  0.4175  -25.0  37.165  165.9  0.0057   81.8  0.9187  -10.1
 0.095  0.4180  -26.4  37.134  165.2  0.0060   81.5  0.9179  -10.8
 0.100  0.4187  -27.8  37.110  164.4  0.0063   81.2  0.9173  -11.4
 0.105  0.4173  -29.0  36.947  163.7  0.0066   80.6  0.9142  -12.0
 0.110  0.4161  -30.3  36.791  162.9  0.0069   80.0  0.9112  -12.6
 0.115  0.4150  -31.6  36.640  162.2  0.0071   79.5  0.9083  -13.1
 0.120  0.4142  -32.8  36.496  161.4  0.0074   79.0  0.9055  -13.7
 0.125  0.4136  -34.1  36.358  160.7  0.0077   78.6  0.9028  -14.3
 0.130  0.4132  -35.4  36.227  159.9  0.0080   78.2  0.9002  -14.9
 0.135  0.4130  -36.7  36.102  159.1  0.0083   77.8  0.8977  -15.5
 0.140  0.4130  -37.9  35.984  158.4  0.0085   77.4  0.8952  -16.1
 0.145  0.4132  -39.2  35.872  157.6  0.0088   77.1  0.8929  -16.7
 0.150  0.4136  -40.5  35.767  156.8  0.0091   76.8  0.8907  -17.3
 0.155  0.4124  -41.7  35.589  156.1  0.0093   76.4  0.8869  -17.8
 0.160  0.4114  -42.9  35.415  155.5  0.0096   76.0  0.8831  -18.3
 0.165  0.4105  -44.1  35.247  154.8  0.0098   75.6  0.8794  -18.8
 0.170  0.4098  -45.3  35.083  154.1  0.0101   75.2  0.8758  -19.3
 0.175  0.4094  -46.5  34.924  153.4  0.0103   74.8  0.8723  -19.8
 0.180  0.4091  -47.7  34.770  152.7  0.0106   74.5  0.8688  -20.4
 0.185  0.4089  -49.0  34.622  152.0  0.0108   74.2  0.8654  -20.9
 0.190  0.4090  -50.2  34.479  151.3  0.0111   73.9  0.8620  -21.4
 0.195  0.4093  -51.4  34.341  150.6  0.0113   73.6  0.8588  -22.0
 0.200  0.4097  -52.6  34.208  149.9  0.0116   73.3  0.8556  -22.5
 0.220  0.4048  -57.0  33.398  147.4  0.0126   71.9  0.8393  -24.4
 0.240  0.4025  -61.5  32.656  144.8  0.0135   70.7  0.8240  -26.3
 0.260  0.4002  -65.9  31.930  142.3  0.0144   69.6  0.8080  -28.1
 0.280  0.3979  -70.0  31.206  140.0  0.0153   68.6  0.7910  -29.8
 0.300  0.3976  -74.2  30.534  137.6  0.0161   67.6  0.7747  -31.5
 0.320  0.3949  -77.9  29.772  135.6  0.0169   66.7  0.7580  -32.9
 0.340  0.3939  -81.7  29.047  133.6  0.0176   65.8  0.7419  -34.4
 0.360  0.3925  -85.3  28.329  131.6  0.0183   65.0  0.7259  -35.8
 0.380  0.3904  -88.6  27.612  129.7  0.0190   64.2  0.7099  -37.1
 0.400  0.3897  -92.0  26.926  127.7  0.0197   63.5  0.6943  -38.4
 0.420  0.3877  -95.1  26.243  126.1  0.0203   63.0  0.6795  -39.5
 0.440  0.3869  -98.2  25.582  124.4  0.0209   62.4  0.6650  -40.6
 0.450  0.3869  -99.7  25.260  123.5  0.0212   62.2  0.6578  -41.2
 0.460  0.3858 -101.1  24.940  122.8  0.0215   61.9  0.6507  -41.7
 0.480  0.3845 -104.1  24.313  121.2  0.0220   61.5  0.6366  -42.7
 0.500  0.3841 -107.0  23.705  119.6  0.0226   61.0  0.6228  -43.8
 0.520  0.3824 -109.4  23.130  118.4  0.0231   60.7  0.6103  -44.6
 0.540  0.3813 -111.7  22.566  117.0  0.0237   60.3  0.5979  -45.3
 0.560  0.3809 -114.1  22.015  115.7  0.0242   60.0  0.5856  -46.2
 0.580  0.3812 -116.5  21.477  114.2  0.0248   59.7  0.5734  -47.0
 0.600  0.3821 -118.9  20.953  112.7  0.0253   59.4  0.5614  -47.9
 0.620  0.3809 -121.0  20.482  111.7  0.0258   59.2  0.5510  -48.5
 0.640  0.3802 -123.1  20.018  110.7  0.0263   59.0  0.5408  -49.2
 0.660  0.3801 -125.1  19.561  109.6  0.0267   58.8  0.5306  -49.9
 0.680  0.3804 -127.2  19.112  108.4  0.0272   58.6  0.5204  -50.6
 0.700  0.3812 -129.3  18.670  107.2  0.0277   58.4  0.5104  -51.4
 0.720  0.3805 -131.0  18.274  106.3  0.0282   58.3  0.5016  -51.9
 0.740  0.3800 -132.7  17.882  105.4  0.0287   58.1  0.4929  -52.5
 0.760  0.3800 -134.4  17.495  104.4  0.0291   58.0  0.4843  -53.0
 0.780  0.3802 -136.1  17.114  103.4  0.0296   57.9  0.4757  -53.6
 0.800  0.3808 -137.8  16.738  102.3  0.0301   57.8  0.4671  -54.2
 0.820  0.3810 -139.3  16.415  101.5  0.0306   57.7  0.4597  -54.7
 0.840  0.3815 -140.8  16.095  100.7  0.0310   57.5  0.4523  -55.2
 0.860  0.3822 -142.3  15.778   99.8  0.0315   57.4  0.4449  -55.7
 0.880  0.3832 -143.8  15.465   98.9  0.0319   57.3  0.4376  -56.2
 0.900  0.3844 -145.3  15.156   98.0  0.0324   57.2  0.4303  -56.8
 0.920  0.3842 -146.6  14.873   97.3  0.0328   57.2  0.4236  -57.2
 0.940  0.3843 -147.9  14.593   96.6  0.0333   57.1  0.4170  -57.6
 0.960  0.3845 -149.3  14.315   95.9  0.0337   57.1  0.4104  -58.1
 0.980  0.3850 -150.6  14.039   95.1  0.0342   57.0  0.4038  -58.5
 1.000  0.3856 -151.9  13.766   94.3  0.0346   57.0  0.3972  -59.0
 1.020  0.3860 -153.0  13.531   93.7  0.0351   56.9  0.3917  -59.4
 1.040  0.3865 -154.2  13.297   93.0  0.0355   56.9  0.3862  -59.8
 1.060  0.3872 -155.3  13.065   92.3  0.0360   56.8  0.3808  -60.2
 1.080  0.3880 -156.4  12.835   91.6  0.0364   56.8  0.3753  -60.6
 1.100  0.3890 -157.5  12.607   90.9  0.0369   56.7  0.3699  -61.0
 1.120  0.3894 -158.5  12.406   90.3  0.0374   56.6  0.3649  -61.4
 1.140  0.3899 -159.6  12.206   89.7  0.0379   56.6  0.3599  -61.8
 1.160  0.3906 -160.6  12.008   89.1  0.0383   56.5  0.3550  -62.2
 1.180  0.3914 -161.7  11.810   88.5  0.0388   56.5  0.3500  -62.7
 1.200  0.3923 -162.7  11.615   87.8  0.0393   56.4  0.3451  -63.1
 1.220  0.3927 -163.6  11.440   87.3  0.0398   56.3  0.3408  -63.4
 1.240  0.3931 -164.5  11.266   86.7  0.0402   56.3  0.3366  -63.8
 1.260  0.3937 -165.5  11.093   86.1  0.0407   56.2  0.3323  -64.1
 1.280  0.3943 -166.4  10.921   85.5  0.0411   56.2  0.3281  -64.4
 1.300  0.3951 -167.3  10.751   84.9  0.0416   56.1  0.3239  -64.8
 1.320  0.3955 -168.1  10.595   84.4  0.0420   56.1  0.3199  -65.1
 1.340  0.3960 -169.0  10.439   83.9  0.0425   56.0  0.3160  -65.5
 1.360  0.3966 -169.8  10.284   83.4  0.0429   56.0  0.3120  -65.9
 1.380  0.3973 -170.7  10.130   82.9  0.0434   55.9  0.3081  -66.2
 1.400  0.3981 -171.5   9.977   82.3  0.0438   55.9  0.3042  -66.6
 1.420  0.3983 -172.2   9.846   81.8  0.0443   55.8  0.3008  -66.9
 1.440  0.3986 -173.0   9.716   81.4  0.0448   55.8  0.2975  -67.1
 1.460  0.3990 -173.7   9.586   80.9  0.0452   55.7  0.2942  -67.4
 1.480  0.3994 -174.5   9.457   80.4  0.0457   55.7  0.2908  -67.7
 1.500  0.3999 -175.2   9.329   79.9  0.0462   55.6  0.2875  -68.0
 1.520  0.4006 -175.9   9.212   79.4  0.0467   55.5  0.2844  -68.3
 1.540  0.4014 -176.7   9.095   79.0  0.0472   55.4  0.2813  -68.7
 1.560  0.4022 -177.4   8.979   78.5  0.0477   55.3  0.2782  -69.0
 1.580  0.4031 -178.2   8.864   78.0  0.0482   55.2  0.2752  -69.3
 1.600  0.4041 -178.9   8.749   77.5  0.0487   55.1  0.2721  -69.7
 1.620  0.4044 -179.6   8.646   77.1  0.0492   55.0  0.2693  -70.0
 1.640  0.4048  179.7   8.544   76.7  0.0496   54.9  0.2665  -70.3
 1.660  0.4052  178.9   8.442   76.2  0.0501   54.8  0.2637  -70.6
 1.680  0.4057  178.2   8.341   75.8  0.0505   54.7  0.2609  -70.9
 1.700  0.4063  177.5   8.240   75.3  0.0510   54.6  0.2581  -71.2
 1.720  0.4067  176.9   8.143   74.9  0.0515   54.5  0.2556  -71.5
 1.740  0.4071  176.3   8.046   74.5  0.0519   54.4  0.2532  -71.7
 1.760  0.4076  175.8   7.950   74.1  0.0524   54.3  0.2508  -72.0
 1.780  0.4081  175.2   7.854   73.6  0.0528   54.2  0.2483  -72.3
 1.800  0.4086  174.6   7.758   73.2  0.0533   54.1  0.2459  -72.6
 1.820  0.4092  174.0   7.675   72.8  0.0538   54.0  0.2433  -73.0
 1.840  0.4099  173.3   7.592   72.4  0.0543   53.9  0.2407  -73.3
 1.860  0.4106  172.7   7.509   72.0  0.0548   53.8  0.2381  -73.7
 1.880  0.4114  172.0   7.427   71.5  0.0553   53.7  0.2355  -74.1
 1.900  0.4122  171.4   7.345   71.1  0.0558   53.6  0.2329  -74.5
 1.920  0.4123  170.8   7.271   70.7  0.0563   53.5  0.2307  -74.7
 1.940  0.4125  170.2   7.196   70.4  0.0568   53.4  0.2285  -74.9
 1.960  0.4127  169.7   7.123   70.0  0.0572   53.2  0.2263  -75.1
 1.980  0.4130  169.1   7.049   69.6  0.0577   53.1  0.2242  -75.4
 2.000  0.4133  168.5   6.976   69.2  0.0582   53.0  0.2220  -75.6
 2.020  0.4137  167.9   6.909   68.8  0.0587   52.8  0.2197  -75.9
 2.040  0.4142  167.3   6.842   68.5  0.0591   52.7  0.2174  -76.2
 2.060  0.4148  166.8   6.775   68.1  0.0596   52.6  0.2151  -76.6
 2.080  0.4153  166.2   6.709   67.7  0.0601   52.4  0.2128  -76.9
 2.100  0.4159  165.6   6.643   67.3  0.0605   52.3  0.2105  -77.3
 2.120  0.4166  165.1   6.577   66.9  0.0610   52.1  0.2082  -77.6
 2.140  0.4173  164.5   6.512   66.5  0.0615   52.0  0.2060  -78.0
 2.160  0.4180  163.9   6.447   66.1  0.0620   51.9  0.2037  -78.3
 2.180  0.4188  163.4   6.382   65.6  0.0624   51.7  0.2014  -78.7
 2.200  0.4196  162.8   6.318   65.2  0.0629   51.6  0.1992  -79.1
 2.220  0.4202  162.3   6.262   64.9  0.0634   51.5  0.1970  -79.5
 2.240  0.4208  161.7   6.207   64.5  0.0638   51.3  0.1948  -79.8
 2.260  0.4215  161.2   6.151   64.2  0.0643   51.2  0.1927  -80.2
 2.280  0.4222  160.7   6.096   63.8  0.0648   51.0  0.1905  -80.6
 2.300  0.4229  160.1   6.042   63.5  0.0652   50.9  0.1884  -81.0
 2.320  0.4237  159.6   5.987   63.1  0.0657   50.7  0.1862  -81.4
 2.340  0.4245  159.1   5.933   62.7  0.0662   50.6  0.1841  -81.8
 2.360  0.4253  158.5   5.878   62.4  0.0667   50.5  0.1820  -82.2
 2.380  0.4262  158.0   5.825   62.0  0.0671   50.3  0.1799  -82.7
 2.400  0.4271  157.5   5.771   61.6  0.0676   50.2  0.1778  -83.1
 2.420  0.4280  157.0   5.723   61.3  0.0681   50.0  0.1757  -83.5
 2.440  0.4290  156.5   5.676   60.9  0.0685   49.9  0.1737  -83.9
 2.460  0.4299  155.9   5.628   60.6  0.0690   49.7  0.1716  -84.4
 2.480  0.4310  155.4   5.581   60.2  0.0694   49.5  0.1696  -84.8
 2.500  0.4320  154.9   5.534   59.9  0.0699   49.4  0.1676  -85.3
 2.520  0.4331  154.4   5.488   59.5  0.0704   49.2  0.1655  -85.7
 2.540  0.4342  153.9   5.441   59.1  0.0708   49.1  0.1635  -86.2
 2.560  0.4354  153.4   5.395   58.8  0.0713   48.9  0.1616  -86.7
 2.580  0.4366  152.9   5.349   58.4  0.0717   48.8  0.1596  -87.2
 2.600  0.4378  152.4   5.303   58.0  0.0722   48.6  0.1576  -87.7
 2.620  0.4387  151.9   5.262   57.7  0.0727   48.5  0.1558  -88.2
 2.640  0.4396  151.5   5.222   57.4  0.0731   48.3  0.1540  -88.7
 2.660  0.4406  151.0   5.182   57.1  0.0736   48.2  0.1522  -89.2
 2.680  0.4416  150.5   5.142   56.7  0.0740   48.1  0.1505  -89.7
 2.700  0.4426  150.1   5.102   56.4  0.0745   47.9  0.1487  -90.3
 2.720  0.4436  149.6   5.062   56.1  0.0750   47.8  0.1470  -90.8
 2.740  0.4447  149.2   5.023   55.7  0.0754   47.7  0.1453  -91.4
 2.760  0.4458  148.7   4.983   55.4  0.0759   47.5  0.1436  -92.0
 2.780  0.4469  148.3   4.944   55.1  0.0763   47.4  0.1419  -92.6
 2.800  0.4481  147.8   4.905   54.7  0.0768   47.3  0.1402  -93.2
 2.820  0.4492  147.4   4.870   54.4  0.0773   47.1  0.1386  -93.8
 2.840  0.4502  146.9   4.835   54.1  0.0777   46.9  0.1370  -94.3
 2.860  0.4514  146.5   4.800   53.8  0.0782   46.8  0.1354  -94.9
 2.880  0.4525  146.1   4.766   53.4  0.0786   46.6  0.1338  -95.5
 2.900  0.4536  145.7   4.731   53.1  0.0791   46.4  0.1323  -96.1
 2.920  0.4548  145.3   4.697   52.8  0.0796   46.3  0.1307  -96.7
 2.940  0.4560  144.8   4.663   52.4  0.0800   46.1  0.1292  -97.4
 2.960  0.4573  144.4   4.629   52.1  0.0805   45.9  0.1277  -98.0
 2.980  0.4585  144.0   4.595   51.8  0.0809   45.8  0.1262  -98.7
 3.000  0.4598  143.6   4.561   51.4  0.0814   45.6  0.1247  -99.4
 3.100  0.4650  141.5   4.417   50.0  0.0836   44.7  0.1178 -102.6
 3.200  0.4709  139.5   4.276   48.5  0.0858   43.8  0.1112 -106.2
 3.300  0.4773  137.6   4.138   46.9  0.0881   43.0  0.1052 -110.3
 3.400  0.4842  135.7   4.003   45.2  0.0903   42.2  0.0998 -114.8
 3.500  0.4917  133.8   3.872   43.4  0.0926   41.4  0.0950 -119.8
 3.600  0.4971  132.0   3.762   42.0  0.0948   40.4  0.0902 -124.9
 3.700  0.5031  130.2   3.654   40.6  0.0969   39.5  0.0863 -130.5
 3.800  0.5095  128.5   3.548   39.1  0.0991   38.6  0.0832 -136.5
 3.900  0.5163  126.8   3.445   37.4  0.1014   37.7  0.0811 -143.0
 4.000  0.5236  125.2   3.345   35.7  0.1036   36.9  0.0801 -149.7
 4.100  0.5282  123.7   3.257   34.4  0.1055   35.9  0.0803 -156.3
 4.200  0.5330  122.3   3.171   33.0  0.1074   34.9  0.0815 -162.7
 4.300  0.5382  120.9   3.087   31.5  0.1094   33.9  0.0837 -168.9
 4.400  0.5438  119.5   3.005   29.9  0.1114   33.0  0.0868 -174.7
 4.500  0.5496  118.2   2.925   28.3  0.1134   32.1  0.0908  179.9
 4.600  0.5523  117.0   2.856   27.1  0.1152   31.2  0.0934  176.0
 4.700  0.5552  115.9   2.788   25.8  0.1171   30.3  0.0963  172.4
 4.800  0.5584  114.7   2.721   24.5  0.1190   29.4  0.0996  169.0
 4.900  0.5617  113.6   2.656   23.1  0.1209   28.5  0.1033  165.8
 5.000  0.5653  112.5   2.593   21.6  0.1228   27.7  0.1072  162.9
 5.100  0.5679  111.4   2.539   20.4  0.1245   26.8  0.1094  159.9
 5.200  0.5707  110.3   2.486   19.2  0.1263   25.9  0.1119  157.1
 5.300  0.5737  109.2   2.434   17.9  0.1281   25.0  0.1147  154.3
 5.400  0.5769  108.2   2.384   16.6  0.1299   24.2  0.1177  151.8
 5.500  0.5803  107.1   2.335   15.2  0.1317   23.4  0.1210  149.3
 5.600  0.5842  106.0   2.291   14.0  0.1334   22.5  0.1247  146.3
 5.700  0.5883  104.9   2.247   12.7  0.1352   21.6  0.1287  143.5
 5.800  0.5926  103.8   2.205   11.4  0.1370   20.7  0.1330  140.8
 5.900  0.5971  102.7   2.165   10.0  0.1388   19.8  0.1376  138.3
 6.000  0.6019  101.6   2.125    8.6  0.1407   19.0  0.1424  136.0
 6.100  0.6063  100.5   2.087    7.4  0.1424   18.0  0.1470  134.0
 6.200  0.6108   99.4   2.051    6.1  0.1441   17.1  0.1518  132.1
 6.300  0.6156   98.4   2.016    4.8  0.1459   16.1  0.1567  130.3
 6.400  0.6206   97.3   1.981    3.4  0.1477   15.2  0.1618  128.6
 6.500  0.6258   96.3   1.948    2.0  0.1496   14.3  0.1670  127.0
 6.600  0.6293   95.3   1.917    0.7  0.1514   13.3  0.1698  125.1
 6.800  0.6368   93.3   1.858   -1.9  0.1552   11.5  0.1759  121.5
 7.000  0.6450   91.4   1.803   -4.7  0.1592    9.7  0.1826  118.1
 7.200  0.6501   89.2   1.749   -7.3  0.1628    7.4  0.1912  114.3
 7.400  0.6561   87.1   1.699  -10.1  0.1666    5.2  0.2005  110.8
 7.600  0.6619   84.7   1.646  -13.0  0.1696    2.8  0.2119  107.5
 7.800  0.6678   82.1   1.590  -15.8  0.1719    0.3  0.2254  104.4
 8.000  0.6750   79.6   1.538  -18.9  0.1745   -2.1  0.2394  101.7
 8.200  0.6818   76.8   1.480  -21.3  0.1750   -4.3  0.2539   98.6
 8.400  0.6902   74.0   1.425  -23.9  0.1757   -6.4  0.2692   95.8
 8.600  0.7019   71.6   1.376  -26.3  0.1763   -8.3  0.2863   92.9
 8.800  0.7165   69.6   1.331  -28.5  0.1768   -9.9  0.3055   90.1
 9.000  0.7320   67.6   1.288  -30.8  0.1775  -11.5  0.3253   87.6
 9.200  0.7538   66.1   1.251  -32.9  0.1783  -13.0  0.3498   85.3
 9.400  0.7761   64.7   1.217  -35.1  0.1793  -14.5  0.3748   83.3
 9.600  0.7960   63.2   1.176  -37.4  0.1800  -16.1  0.3988   81.7
 9.800  0.8137   61.7   1.130  -39.6  0.1806  -17.6  0.4217   80.4
10.000  0.8319   60.3   1.086  -42.0  0.1813  -19.2  0.4448   79.2
10.200  0.8349   59.2   1.048  -43.4  0.1824  -20.5  0.4570   78.1
10.400  0.8382   58.1   1.011  -44.9  0.1836  -21.7  0.4694   77.0
10.600  0.8340   57.5   0.983  -46.3  0.1847  -23.1  0.4772   76.3
10.800  0.8220   57.6   0.962  -47.4  0.1858  -24.7  0.4801   75.9
11.000  0.8100   57.7   0.942  -48.6  0.1871  -26.2  0.4831   75.5
11.200  0.7999   57.9   0.939  -49.7  0.1880  -27.5  0.4815   76.6
11.400  0.7898   58.2   0.937  -50.8  0.1891  -28.8  0.4801   77.7
11.600  0.7923   57.8   0.932  -53.1  0.1908  -30.5  0.4841   78.9
11.800  0.8077   57.0   0.926  -56.6  0.1933  -32.8  0.4938   80.2
12.000  0.8233   56.1   0.923  -60.2  0.1961  -35.0  0.5037   81.5
!
!  f       NFmin   Gammaopt  rn/50
! GHz       dB    MAG  ANG    -
 0.450      1.85  0.17 -160   0.18
 0.900      1.85  0.20 -157   0.16
 1.800      2.00  0.24 -139   0.19
 2.400      2.00  0.28 -125   0.24
 5.500      2.89  0.46 -101   0.50
10.000      4.02  0.72  -45   2.79
!
! (c) 2015  Infineon Technologies AG, Munich
