! Infineon Technologies  Discrete & RF Semiconductors
! BFP405
! VCE =  3.5 V,  IC =  20 mA
! Common Emitter S-Parameters:                            Jan 2016
# GHz  S  MA  R  50
!  f         S11            S21            S12            S22
! GHz     MAG   ANG      MAG   ANG      MAG   ANG      MAG   ANG
 0.010  0.5859   -0.2  28.614 -178.7  0.0004  167.0  0.9426    3.3
 0.015  0.5893   -0.8  28.492  179.1  0.0005  116.0  0.9503    2.1
 0.020  0.5928   -1.3  28.412  176.9  0.0008   93.1  0.9584    0.9
 0.025  0.5923   -1.9  28.341  176.6  0.0009   91.5  0.9605    0.6
 0.030  0.5919   -2.5  28.272  176.3  0.0011   90.2  0.9626    0.3
 0.035  0.5916   -3.1  28.203  176.0  0.0012   89.3  0.9647    0.0
 0.040  0.5913   -3.7  28.134  175.7  0.0013   88.5  0.9668   -0.2
 0.045  0.5911   -4.3  28.067  175.4  0.0015   87.9  0.9690   -0.5
 0.050  0.5910   -4.9  28.000  175.1  0.0016   87.4  0.9712   -0.8
 0.055  0.5904   -5.5  27.987  174.6  0.0017   86.4  0.9714   -1.1
 0.060  0.5898   -6.1  27.976  174.1  0.0019   85.6  0.9715   -1.3
 0.065  0.5893   -6.6  27.967  173.6  0.0020   84.9  0.9717   -1.6
 0.070  0.5888   -7.2  27.961  173.1  0.0021   84.3  0.9719   -1.8
 0.075  0.5884   -7.8  27.956  172.7  0.0022   83.7  0.9722   -2.1
 0.080  0.5881   -8.4  27.953  172.2  0.0024   83.2  0.9724   -2.3
 0.085  0.5878   -9.0  27.953  171.7  0.0025   82.8  0.9727   -2.6
 0.090  0.5876   -9.5  27.954  171.2  0.0026   82.4  0.9730   -2.8
 0.095  0.5874  -10.1  27.957  170.7  0.0028   82.0  0.9733   -3.1
 0.100  0.5873  -10.7  27.963  170.2  0.0029   81.7  0.9736   -3.3
 0.105  0.5864  -11.2  27.921  169.8  0.0030   81.8  0.9730   -3.5
 0.110  0.5856  -11.8  27.881  169.4  0.0031   81.8  0.9723   -3.7
 0.115  0.5848  -12.3  27.842  169.0  0.0033   81.9  0.9717   -4.0
 0.120  0.5841  -12.9  27.804  168.6  0.0034   81.9  0.9711   -4.2
 0.125  0.5835  -13.4  27.768  168.2  0.0035   82.0  0.9705   -4.4
 0.130  0.5829  -14.0  27.734  167.8  0.0036   82.0  0.9699   -4.6
 0.135  0.5823  -14.5  27.700  167.3  0.0037   82.1  0.9694   -4.8
 0.140  0.5818  -15.1  27.668  166.9  0.0039   82.1  0.9688   -5.1
 0.145  0.5814  -15.6  27.638  166.5  0.0040   82.2  0.9683   -5.3
 0.150  0.5810  -16.2  27.609  166.1  0.0041   82.2  0.9678   -5.5
 0.155  0.5797  -16.7  27.557  165.6  0.0042   82.0  0.9670   -5.7
 0.160  0.5785  -17.2  27.507  165.2  0.0043   81.7  0.9661   -5.9
 0.165  0.5773  -17.8  27.458  164.7  0.0044   81.5  0.9653   -6.1
 0.170  0.5762  -18.3  27.411  164.3  0.0045   81.3  0.9645   -6.3
 0.175  0.5751  -18.8  27.366  163.8  0.0046   81.1  0.9638   -6.5
 0.180  0.5740  -19.4  27.323  163.4  0.0048   81.0  0.9630   -6.7
 0.185  0.5731  -19.9  27.281  162.9  0.0049   80.8  0.9622   -6.9
 0.190  0.5721  -20.4  27.241  162.4  0.0050   80.6  0.9615   -7.1
 0.195  0.5712  -21.0  27.203  162.0  0.0051   80.5  0.9607   -7.3
 0.200  0.5704  -21.5  27.167  161.5  0.0052   80.3  0.9600   -7.5
 0.220  0.5648  -23.7  26.980  159.8  0.0057   79.5  0.9535   -8.3
 0.240  0.5600  -25.9  26.819  158.0  0.0062   78.9  0.9471   -9.0
 0.260  0.5552  -28.0  26.603  156.3  0.0067   78.3  0.9428   -9.7
 0.280  0.5504  -30.0  26.328  154.7  0.0072   77.8  0.9404  -10.4
 0.300  0.5463  -32.0  26.074  153.1  0.0077   77.3  0.9382  -11.0
 0.320  0.5400  -33.9  25.763  151.5  0.0081   76.5  0.9319  -11.7
 0.340  0.5342  -35.8  25.473  149.8  0.0086   75.8  0.9258  -12.4
 0.360  0.5285  -37.7  25.196  148.2  0.0090   75.2  0.9198  -13.0
 0.380  0.5229  -39.6  24.929  146.7  0.0095   74.6  0.9137  -13.5
 0.400  0.5178  -41.6  24.681  145.1  0.0099   74.1  0.9078  -14.1
 0.420  0.5111  -43.4  24.347  143.6  0.0103   73.6  0.9020  -14.7
 0.440  0.5048  -45.2  24.030  142.2  0.0107   73.1  0.8962  -15.2
 0.450  0.5019  -46.1  23.877  141.4  0.0109   72.9  0.8934  -15.5
 0.460  0.4986  -47.0  23.729  140.7  0.0111   72.6  0.8903  -15.8
 0.480  0.4923  -48.7  23.442  139.4  0.0115   72.2  0.8842  -16.3
 0.500  0.4865  -50.5  23.168  138.0  0.0119   71.7  0.8782  -16.8
 0.520  0.4793  -52.1  22.826  136.8  0.0123   71.2  0.8722  -17.2
 0.540  0.4725  -53.8  22.495  135.5  0.0126   70.8  0.8664  -17.7
 0.560  0.4661  -55.5  22.175  134.2  0.0130   70.4  0.8605  -18.2
 0.580  0.4601  -57.2  21.868  132.8  0.0133   70.0  0.8547  -18.6
 0.600  0.4545  -59.0  21.573  131.4  0.0137   69.6  0.8490  -19.1
 0.620  0.4479  -60.5  21.264  130.3  0.0140   69.2  0.8432  -19.5
 0.640  0.4417  -62.0  20.963  129.3  0.0143   68.9  0.8374  -19.8
 0.660  0.4357  -63.5  20.670  128.1  0.0147   68.5  0.8316  -20.2
 0.680  0.4301  -65.1  20.385  127.0  0.0150   68.2  0.8259  -20.6
 0.700  0.4248  -66.7  20.108  125.8  0.0153   67.9  0.8202  -21.0
 0.720  0.4185  -68.1  19.820  124.8  0.0156   67.6  0.8149  -21.3
 0.740  0.4124  -69.5  19.537  123.8  0.0159   67.4  0.8096  -21.6
 0.760  0.4066  -71.0  19.262  122.7  0.0162   67.2  0.8044  -21.9
 0.780  0.4010  -72.5  18.993  121.6  0.0165   66.9  0.7992  -22.3
 0.800  0.3958  -74.1  18.731  120.5  0.0168   66.7  0.7940  -22.6
 0.820  0.3905  -75.4  18.467  119.6  0.0171   66.5  0.7891  -22.9
 0.840  0.3853  -76.8  18.207  118.7  0.0174   66.4  0.7842  -23.2
 0.860  0.3804  -78.1  17.953  117.7  0.0177   66.2  0.7793  -23.5
 0.880  0.3757  -79.5  17.704  116.7  0.0180   66.0  0.7744  -23.8
 0.900  0.3713  -81.0  17.460  115.7  0.0183   65.9  0.7696  -24.1
 0.920  0.3660  -82.3  17.217  114.9  0.0186   65.7  0.7652  -24.3
 0.940  0.3609  -83.6  16.978  114.1  0.0189   65.6  0.7608  -24.6
 0.960  0.3560  -84.9  16.742  113.2  0.0191   65.4  0.7564  -24.8
 0.980  0.3513  -86.3  16.511  112.3  0.0194   65.3  0.7521  -25.1
 1.000  0.3468  -87.7  16.283  111.4  0.0197   65.1  0.7477  -25.3
 1.020  0.3424  -89.0  16.069  110.7  0.0200   65.0  0.7437  -25.5
 1.040  0.3381  -90.2  15.858  109.9  0.0203   64.9  0.7396  -25.8
 1.060  0.3341  -91.6  15.649  109.1  0.0205   64.7  0.7356  -26.0
 1.080  0.3302  -92.9  15.443  108.3  0.0208   64.6  0.7316  -26.3
 1.100  0.3265  -94.3  15.241  107.5  0.0211   64.5  0.7276  -26.5
 1.120  0.3225  -95.5  15.042  106.8  0.0214   64.4  0.7239  -26.7
 1.140  0.3187  -96.7  14.846  106.2  0.0217   64.3  0.7201  -26.9
 1.160  0.3150  -97.9  14.651  105.5  0.0219   64.3  0.7164  -27.2
 1.180  0.3115  -99.2  14.459  104.7  0.0222   64.2  0.7127  -27.4
 1.200  0.3081 -100.5  14.269  104.0  0.0225   64.1  0.7090  -27.6
 1.220  0.3046 -101.7  14.092  103.4  0.0228   64.0  0.7056  -27.8
 1.240  0.3013 -102.9  13.916  102.7  0.0230   63.9  0.7021  -28.0
 1.260  0.2980 -104.1  13.742  102.0  0.0233   63.9  0.6987  -28.1
 1.280  0.2949 -105.3  13.571  101.3  0.0235   63.8  0.6953  -28.3
 1.300  0.2920 -106.6  13.401  100.6  0.0238   63.7  0.6919  -28.5
 1.320  0.2891 -107.8  13.242  100.0  0.0241   63.6  0.6887  -28.7
 1.340  0.2864 -109.1  13.084   99.4  0.0244   63.5  0.6855  -28.9
 1.360  0.2838 -110.3  12.927   98.8  0.0246   63.5  0.6823  -29.1
 1.380  0.2813 -111.6  12.772   98.2  0.0249   63.4  0.6791  -29.3
 1.400  0.2790 -112.9  12.619   97.5  0.0252   63.3  0.6759  -29.5
 1.420  0.2762 -114.0  12.473   96.9  0.0255   63.2  0.6730  -29.7
 1.440  0.2736 -115.2  12.328   96.4  0.0258   63.2  0.6701  -29.8
 1.460  0.2710 -116.3  12.184   95.8  0.0260   63.1  0.6672  -30.0
 1.480  0.2686 -117.5  12.041   95.2  0.0263   63.1  0.6643  -30.1
 1.500  0.2663 -118.7  11.900   94.6  0.0266   63.0  0.6614  -30.3
 1.520  0.2642 -119.8  11.772   94.1  0.0269   62.9  0.6587  -30.5
 1.540  0.2623 -121.0  11.645   93.6  0.0271   62.8  0.6559  -30.7
 1.560  0.2605 -122.1  11.519   93.0  0.0274   62.8  0.6532  -30.8
 1.580  0.2587 -123.3  11.394   92.5  0.0276   62.7  0.6505  -31.0
 1.600  0.2571 -124.5  11.270   91.9  0.0279   62.6  0.6478  -31.2
 1.620  0.2555 -125.6  11.150   91.4  0.0282   62.6  0.6452  -31.4
 1.640  0.2540 -126.6  11.031   90.9  0.0285   62.6  0.6427  -31.5
 1.660  0.2526 -127.7  10.912   90.4  0.0287   62.5  0.6401  -31.7
 1.680  0.2513 -128.8  10.795   89.9  0.0290   62.5  0.6375  -31.8
 1.700  0.2501 -129.9  10.678   89.4  0.0293   62.5  0.6350  -32.0
 1.720  0.2485 -131.0  10.567   88.9  0.0296   62.4  0.6327  -32.2
 1.740  0.2469 -132.1  10.456   88.4  0.0299   62.3  0.6303  -32.3
 1.760  0.2455 -133.3  10.346   87.9  0.0301   62.3  0.6280  -32.5
 1.780  0.2441 -134.4  10.237   87.4  0.0304   62.2  0.6256  -32.6
 1.800  0.2429 -135.6  10.129   86.9  0.0307   62.1  0.6233  -32.8
 1.820  0.2418 -136.7  10.031   86.5  0.0310   62.0  0.6210  -32.9
 1.840  0.2408 -137.7   9.934   86.0  0.0313   62.0  0.6187  -33.1
 1.860  0.2398 -138.8   9.838   85.6  0.0315   61.9  0.6164  -33.2
 1.880  0.2390 -139.9   9.742   85.2  0.0318   61.9  0.6142  -33.4
 1.900  0.2382 -141.0   9.647   84.7  0.0321   61.8  0.6119  -33.5
 1.920  0.2372 -142.1   9.557   84.3  0.0324   61.7  0.6098  -33.7
 1.940  0.2363 -143.2   9.467   83.8  0.0327   61.6  0.6076  -33.8
 1.960  0.2354 -144.3   9.378   83.4  0.0329   61.5  0.6055  -34.0
 1.980  0.2347 -145.4   9.289   83.0  0.0332   61.4  0.6033  -34.1
 2.000  0.2340 -146.5   9.201   82.5  0.0335   61.3  0.6012  -34.3
 2.020  0.2333 -147.5   9.120   82.1  0.0338   61.2  0.5992  -34.4
 2.040  0.2326 -148.4   9.040   81.7  0.0341   61.2  0.5971  -34.6
 2.060  0.2320 -149.4   8.960   81.3  0.0343   61.1  0.5951  -34.7
 2.080  0.2315 -150.4   8.880   80.9  0.0346   61.0  0.5931  -34.8
 2.100  0.2310 -151.4   8.801   80.5  0.0349   61.0  0.5911  -35.0
 2.120  0.2306 -152.4   8.722   80.1  0.0352   60.9  0.5890  -35.1
 2.140  0.2303 -153.4   8.644   79.6  0.0355   60.9  0.5870  -35.3
 2.160  0.2301 -154.4   8.567   79.2  0.0357   60.8  0.5850  -35.4
 2.180  0.2299 -155.4   8.490   78.8  0.0360   60.8  0.5830  -35.6
 2.200  0.2298 -156.4   8.413   78.3  0.0363   60.7  0.5810  -35.7
 2.220  0.2295 -157.3   8.345   77.9  0.0366   60.6  0.5791  -35.9
 2.240  0.2293 -158.3   8.277   77.6  0.0369   60.5  0.5772  -36.0
 2.260  0.2292 -159.2   8.210   77.2  0.0372   60.4  0.5753  -36.2
 2.280  0.2291 -160.2   8.143   76.8  0.0375   60.3  0.5734  -36.3
 2.300  0.2290 -161.1   8.076   76.4  0.0377   60.2  0.5715  -36.5
 2.320  0.2291 -162.0   8.010   76.0  0.0380   60.1  0.5696  -36.6
 2.340  0.2292 -163.0   7.944   75.6  0.0383   60.0  0.5677  -36.8
 2.360  0.2293 -163.9   7.879   75.2  0.0386   59.9  0.5658  -37.0
 2.380  0.2295 -164.9   7.814   74.8  0.0389   59.8  0.5640  -37.1
 2.400  0.2298 -165.8   7.749   74.4  0.0392   59.7  0.5621  -37.3
 2.420  0.2297 -166.6   7.690   74.1  0.0395   59.6  0.5603  -37.4
 2.440  0.2296 -167.5   7.632   73.7  0.0398   59.5  0.5585  -37.6
 2.460  0.2295 -168.3   7.573   73.4  0.0401   59.4  0.5566  -37.7
 2.480  0.2295 -169.2   7.515   73.0  0.0404   59.4  0.5548  -37.8
 2.500  0.2296 -170.0   7.458   72.7  0.0407   59.3  0.5530  -38.0
 2.520  0.2297 -170.8   7.400   72.3  0.0410   59.2  0.5512  -38.1
 2.540  0.2298 -171.7   7.343   71.9  0.0413   59.1  0.5494  -38.3
 2.560  0.2300 -172.5   7.287   71.6  0.0416   59.1  0.5476  -38.4
 2.580  0.2303 -173.4   7.230   71.2  0.0419   59.0  0.5458  -38.6
 2.600  0.2306 -174.2   7.174   70.8  0.0422   58.9  0.5440  -38.7
 2.620  0.2309 -175.0   7.124   70.5  0.0425   58.8  0.5422  -38.8
 2.640  0.2312 -175.8   7.074   70.1  0.0428   58.7  0.5405  -39.0
 2.660  0.2316 -176.6   7.024   69.8  0.0431   58.6  0.5387  -39.1
 2.680  0.2321 -177.4   6.975   69.5  0.0434   58.4  0.5370  -39.3
 2.700  0.2325 -178.2   6.925   69.1  0.0437   58.3  0.5352  -39.4
 2.720  0.2331 -179.0   6.876   68.8  0.0440   58.2  0.5335  -39.6
 2.740  0.2336 -179.8   6.828   68.4  0.0443   58.1  0.5317  -39.7
 2.760  0.2342  179.5   6.779   68.0  0.0446   58.0  0.5300  -39.9
 2.780  0.2349  178.7   6.731   67.7  0.0449   57.9  0.5282  -40.0
 2.800  0.2356  177.9   6.683   67.3  0.0452   57.8  0.5265  -40.2
 2.820  0.2359  177.2   6.638   67.0  0.0455   57.7  0.5248  -40.3
 2.840  0.2363  176.4   6.594   66.6  0.0458   57.5  0.5230  -40.5
 2.860  0.2367  175.7   6.550   66.3  0.0461   57.4  0.5213  -40.6
 2.880  0.2372  174.9   6.506   66.0  0.0464   57.3  0.5196  -40.8
 2.900  0.2377  174.2   6.462   65.6  0.0467   57.2  0.5179  -40.9
 2.920  0.2382  173.5   6.419   65.3  0.0471   57.1  0.5161  -41.1
 2.940  0.2388  172.8   6.376   64.9  0.0474   56.9  0.5144  -41.2
 2.960  0.2394  172.0   6.333   64.5  0.0477   56.8  0.5127  -41.4
 2.980  0.2400  171.3   6.290   64.2  0.0480   56.7  0.5110  -41.5
 3.000  0.2407  170.6   6.248   63.8  0.0483   56.6  0.5093  -41.7
 3.100  0.2432  167.1   6.064   62.4  0.0498   55.9  0.5005  -42.4
 3.200  0.2466  163.6   5.884   60.8  0.0513   55.2  0.4918  -43.2
 3.300  0.2508  160.3   5.708   59.2  0.0528   54.5  0.4832  -44.0
 3.400  0.2559  157.1   5.537   57.4  0.0544   53.9  0.4746  -44.8
 3.500  0.2617  154.0   5.372   55.6  0.0559   53.3  0.4662  -45.6
 3.600  0.2658  150.9   5.227   54.2  0.0574   52.5  0.4580  -46.4
 3.700  0.2706  147.9   5.085   52.8  0.0589   51.8  0.4498  -47.2
 3.800  0.2761  145.0   4.947   51.2  0.0604   51.0  0.4418  -48.0
 3.900  0.2823  142.2   4.812   49.6  0.0619   50.3  0.4339  -48.8
 4.000  0.2891  139.6   4.682   47.9  0.0634   49.7  0.4260  -49.7
 4.100  0.2951  137.2   4.567   46.6  0.0649   48.9  0.4186  -50.6
 4.200  0.3017  134.9   4.454   45.2  0.0664   48.1  0.4114  -51.4
 4.300  0.3087  132.6   4.344   43.8  0.0679   47.3  0.4042  -52.4
 4.400  0.3161  130.5   4.236   42.3  0.0694   46.6  0.3971  -53.3
 4.500  0.3240  128.5   4.132   40.7  0.0709   45.9  0.3902  -54.3
 4.600  0.3305  126.9   4.039   39.4  0.0723   45.1  0.3836  -55.2
 4.700  0.3373  125.4   3.948   38.1  0.0737   44.2  0.3772  -56.0
 4.800  0.3443  123.9   3.859   36.7  0.0752   43.5  0.3708  -57.0
 4.900  0.3516  122.5   3.772   35.3  0.0766   42.7  0.3645  -57.9
 5.000  0.3590  121.1   3.688   33.8  0.0781   42.0  0.3583  -58.9
 5.100  0.3643  120.0   3.614   32.6  0.0795   41.2  0.3529  -59.7
 5.200  0.3697  119.0   3.542   31.4  0.0809   40.4  0.3475  -60.4
 5.300  0.3753  118.0   3.472   30.1  0.0823   39.6  0.3422  -61.2
 5.400  0.3809  117.0   3.403   28.8  0.0837   38.9  0.3370  -62.1
 5.500  0.3867  116.1   3.336   27.4  0.0851   38.2  0.3318  -62.9
 5.600  0.3901  115.2   3.277   26.2  0.0865   37.4  0.3267  -63.6
 5.700  0.3935  114.3   3.220   25.0  0.0880   36.6  0.3217  -64.3
 5.800  0.3971  113.4   3.164   23.8  0.0894   35.9  0.3168  -65.0
 5.900  0.4007  112.5   3.110   22.4  0.0909   35.2  0.3119  -65.7
 6.000  0.4045  111.6   3.057   21.1  0.0924   34.5  0.3070  -66.5
 6.100  0.4069  110.4   3.009   19.9  0.0939   33.6  0.3020  -67.3
 6.200  0.4095  109.3   2.962   18.6  0.0953   32.8  0.2970  -68.1
 6.300  0.4123  108.1   2.917   17.3  0.0968   32.0  0.2921  -68.9
 6.400  0.4152  107.0   2.873   16.0  0.0984   31.3  0.2873  -69.7
 6.500  0.4183  105.9   2.831   14.6  0.0999   30.5  0.2825  -70.6
 6.600  0.4203  104.3   2.785   13.3  0.1014   29.6  0.2774  -71.3
 6.800  0.4252  101.2   2.697   10.7  0.1043   27.8  0.2675  -72.8
 7.000  0.4314   98.1   2.615    7.9  0.1074   26.2  0.2577  -74.4
 7.200  0.4391   94.8   2.535    5.4  0.1102   24.3  0.2479  -75.9
 7.400  0.4482   91.7   2.460    2.7  0.1132   22.5  0.2382  -77.5
 7.600  0.4602   88.8   2.389    0.1  0.1159   20.6  0.2273  -79.1
 7.800  0.4751   86.1   2.319   -2.4  0.1184   18.5  0.2152  -80.8
 8.000  0.4910   83.5   2.254   -5.1  0.1211   16.6  0.2032  -82.7
 8.200  0.5087   81.5   2.188   -7.4  0.1230   14.7  0.1852  -84.0
 8.400  0.5270   79.7   2.126   -9.8  0.1250   12.9  0.1672  -85.5
 8.600  0.5451   78.1   2.069  -12.3  0.1269   11.1  0.1469  -87.2
 8.800  0.5628   76.7   2.017  -14.7  0.1289    9.4  0.1241  -89.1
 9.000  0.5809   75.4   1.969  -17.2  0.1309    7.7  0.1016  -92.0
 9.200  0.5988   73.7   1.917  -19.9  0.1324    5.9  0.0771  -96.2
 9.400  0.6173   72.1   1.870  -22.7  0.1341    4.2  0.0534 -104.1
 9.600  0.6317   70.0   1.814  -25.3  0.1357    2.6  0.0325 -124.3
 9.800  0.6427   67.4   1.748  -27.7  0.1371    1.1  0.0241 -176.0
10.000  0.6549   64.9   1.686  -30.3  0.1386   -0.4  0.0379  141.7
!
!  f       NFmin   Gammaopt  rn/50
! GHz       dB    MAG  ANG    -
!
! noise parameter not available yet for this operation point!
!
! (c) 2016  Infineon Technologies AG, Munich
