! Infineon Technologies  Discrete & RF Semiconductors
! BFP405F
! VCE =  2.5 V,  IC =  19 mA
! Common Emitter S-Parameters:                            Nov 2015
# GHz  S  MA  R  50
!  f         S11            S21            S12            S22
! GHz     MAG   ANG      MAG   ANG      MAG   ANG      MAG   ANG
 0.030  0.5770   -3.1  28.285  176.6  0.0015  119.3  0.9636   -0.2
 0.035  0.5769   -3.5  28.305  176.2  0.0014  110.3  0.9667   -0.5
 0.040  0.5769   -4.0  28.327  175.9  0.0014  100.6  0.9698   -0.7
 0.045  0.5754   -4.9  28.417  175.2  0.0022   70.0  0.9719   -0.9
 0.050  0.5741   -5.9  28.511  174.6  0.0032   57.1  0.9741   -1.1
 0.055  0.5761   -6.3  28.391  174.2  0.0023   58.5  0.9714   -1.3
 0.060  0.5781   -6.6  28.273  173.8  0.0014   61.7  0.9687   -1.5
 0.065  0.5793   -7.4  28.261  173.2  0.0039  100.9  0.9735   -2.0
 0.070  0.5807   -8.2  28.253  172.5  0.0068  108.4  0.9783   -2.5
 0.075  0.5754   -8.7  28.173  172.1  0.0064   78.8  0.9739   -2.7
 0.080  0.5702   -9.2  28.095  171.7  0.0076   52.5  0.9696   -2.9
 0.085  0.5734   -9.6  28.135  171.4  0.0047   68.6  0.9721   -3.1
 0.090  0.5766  -10.0  28.176  171.2  0.0030  113.2  0.9746   -3.3
 0.095  0.5758  -10.5  28.092  170.7  0.0027  105.5  0.9733   -3.4
 0.100  0.5750  -11.0  28.010  170.2  0.0024   95.9  0.9721   -3.5
 0.105  0.5739  -11.6  27.990  169.7  0.0023  102.5  0.9723   -3.7
 0.110  0.5728  -12.3  27.973  169.2  0.0022  109.7  0.9725   -3.9
 0.115  0.5717  -12.8  27.944  168.9  0.0023   83.2  0.9729   -4.2
 0.120  0.5706  -13.3  27.916  168.5  0.0028   62.7  0.9733   -4.4
 0.125  0.5707  -13.9  27.887  167.9  0.0028   95.0  0.9709   -4.6
 0.130  0.5708  -14.5  27.861  167.3  0.0036  119.6  0.9685   -4.9
 0.135  0.5676  -15.1  27.864  167.0  0.0039  110.8  0.9692   -5.1
 0.140  0.5645  -15.7  27.868  166.7  0.0043  103.5  0.9700   -5.2
 0.145  0.5644  -16.2  27.833  166.2  0.0046   88.3  0.9682   -5.4
 0.150  0.5644  -16.7  27.801  165.7  0.0052   75.7  0.9665   -5.7
 0.155  0.5631  -17.2  27.749  165.2  0.0053   76.8  0.9654   -5.9
 0.160  0.5618  -17.8  27.699  164.7  0.0054   77.9  0.9643   -6.1
 0.165  0.5606  -18.3  27.652  164.2  0.0055   79.0  0.9633   -6.3
 0.170  0.5594  -18.8  27.607  163.6  0.0055   80.0  0.9622   -6.5
 0.175  0.5583  -19.4  27.564  163.1  0.0056   81.0  0.9612   -6.7
 0.180  0.5573  -19.9  27.523  162.6  0.0057   82.0  0.9602   -7.0
 0.185  0.5562  -20.5  27.484  162.1  0.0058   83.0  0.9592   -7.2
 0.190  0.5553  -21.0  27.448  161.6  0.0059   83.9  0.9582   -7.4
 0.195  0.5544  -21.6  27.415  161.0  0.0060   84.7  0.9572   -7.6
 0.200  0.5535  -22.1  27.383  160.5  0.0061   85.6  0.9562   -7.8
 0.220  0.5487  -24.1  27.043  158.8  0.0068   84.0  0.9518   -8.5
 0.240  0.5445  -26.1  26.728  157.1  0.0075   82.7  0.9476   -9.2
 0.260  0.5391  -28.1  26.433  155.3  0.0079   81.0  0.9425   -9.9
 0.280  0.5323  -30.0  26.159  153.6  0.0080   78.8  0.9365  -10.6
 0.300  0.5261  -32.0  25.910  151.8  0.0081   76.7  0.9306  -11.3
 0.320  0.5193  -33.8  25.555  150.2  0.0084   75.6  0.9250  -11.9
 0.340  0.5130  -35.7  25.220  148.6  0.0087   74.5  0.9196  -12.6
 0.360  0.5066  -37.5  24.891  147.0  0.0092   74.7  0.9144  -13.2
 0.380  0.4999  -39.4  24.566  145.5  0.0097   75.9  0.9096  -13.8
 0.400  0.4938  -41.3  24.260  143.9  0.0102   77.0  0.9048  -14.4
 0.420  0.4872  -43.0  23.905  142.5  0.0107   76.3  0.8971  -14.9
 0.440  0.4809  -44.7  23.565  141.0  0.0112   75.7  0.8896  -15.4
 0.450  0.4780  -45.6  23.401  140.3  0.0115   75.4  0.8858  -15.7
 0.460  0.4745  -46.4  23.216  139.6  0.0116   74.7  0.8826  -16.0
 0.480  0.4677  -47.9  22.854  138.3  0.0117   73.4  0.8764  -16.5
 0.500  0.4613  -49.5  22.506  136.9  0.0118   72.1  0.8702  -17.0
 0.520  0.4536  -51.0  22.150  135.7  0.0122   72.3  0.8638  -17.4
 0.540  0.4462  -52.5  21.804  134.5  0.0125   72.4  0.8574  -17.8
 0.560  0.4392  -54.1  21.468  133.2  0.0129   72.6  0.8511  -18.2
 0.580  0.4325  -55.8  21.142  131.9  0.0132   72.8  0.8448  -18.6
 0.600  0.4262  -57.5  20.828  130.6  0.0136   72.9  0.8386  -19.0
 0.620  0.4197  -58.8  20.509  129.6  0.0139   72.9  0.8329  -19.3
 0.640  0.4134  -60.1  20.196  128.5  0.0142   72.9  0.8272  -19.7
 0.660  0.4073  -61.5  19.890  127.5  0.0146   72.8  0.8215  -20.0
 0.680  0.4014  -62.9  19.592  126.3  0.0149   72.8  0.8159  -20.4
 0.700  0.3958  -64.3  19.301  125.2  0.0152   72.8  0.8103  -20.7
 0.720  0.3900  -65.5  18.987  124.3  0.0155   72.6  0.8048  -21.0
 0.740  0.3843  -66.8  18.678  123.3  0.0158   72.5  0.7993  -21.3
 0.760  0.3789  -68.1  18.375  122.3  0.0161   72.4  0.7939  -21.6
 0.780  0.3736  -69.5  18.077  121.3  0.0164   72.2  0.7884  -21.9
 0.800  0.3686  -70.9  17.786  120.2  0.0167   72.1  0.7830  -22.2
 0.820  0.3629  -72.0  17.524  119.4  0.0171   72.0  0.7783  -22.5
 0.840  0.3574  -73.2  17.266  118.6  0.0174   71.8  0.7736  -22.7
 0.860  0.3519  -74.3  17.011  117.7  0.0178   71.7  0.7689  -23.0
 0.880  0.3467  -75.5  16.761  116.8  0.0181   71.6  0.7642  -23.2
 0.900  0.3416  -76.8  16.514  115.9  0.0185   71.5  0.7596  -23.5
 0.920  0.3371  -77.9  16.268  115.2  0.0190   71.3  0.7549  -23.7
 0.940  0.3327  -79.0  16.024  114.4  0.0195   71.2  0.7502  -24.0
 0.960  0.3284  -80.1  15.784  113.6  0.0200   71.1  0.7456  -24.2
 0.980  0.3243  -81.2  15.546  112.8  0.0205   70.9  0.7409  -24.5
 1.000  0.3203  -82.4  15.312  112.0  0.0210   70.8  0.7363  -24.7
 1.020  0.3159  -83.4  15.095  111.4  0.0212   70.7  0.7322  -24.9
 1.040  0.3116  -84.4  14.879  110.7  0.0214   70.6  0.7282  -25.1
 1.060  0.3074  -85.5  14.666  110.0  0.0217   70.4  0.7241  -25.4
 1.080  0.3034  -86.6  14.454  109.3  0.0219   70.3  0.7201  -25.6
 1.100  0.2994  -87.7  14.245  108.6  0.0221   70.2  0.7161  -25.8
 1.120  0.2959  -88.7  14.055  108.0  0.0224   70.5  0.7123  -25.9
 1.140  0.2925  -89.8  13.867  107.4  0.0227   70.7  0.7084  -26.1
 1.160  0.2892  -90.9  13.681  106.7  0.0231   71.0  0.7046  -26.2
 1.180  0.2861  -92.0  13.496  106.1  0.0234   71.3  0.7008  -26.4
 1.200  0.2830  -93.1  13.313  105.4  0.0237   71.5  0.6970  -26.5
 1.220  0.2796  -94.1  13.140  104.8  0.0240   71.1  0.6935  -26.7
 1.240  0.2762  -95.1  12.968  104.2  0.0242   70.8  0.6901  -26.9
 1.260  0.2730  -96.1  12.797  103.6  0.0245   70.5  0.6866  -27.0
 1.280  0.2698  -97.1  12.628  103.0  0.0247   70.1  0.6831  -27.2
 1.300  0.2667  -98.2  12.460  102.4  0.0250   69.8  0.6797  -27.4
 1.320  0.2642  -99.1  12.304  101.9  0.0253   70.0  0.6766  -27.6
 1.340  0.2618 -100.0  12.149  101.4  0.0257   70.3  0.6734  -27.8
 1.360  0.2595 -101.0  11.995  100.9  0.0260   70.5  0.6703  -27.9
 1.380  0.2572 -101.9  11.841  100.4  0.0264   70.7  0.6672  -28.1
 1.400  0.2550 -102.9  11.689   99.9  0.0267   70.9  0.6641  -28.3
 1.420  0.2524 -103.8  11.550   99.4  0.0271   70.7  0.6612  -28.4
 1.440  0.2498 -104.8  11.412   99.0  0.0274   70.5  0.6582  -28.6
 1.460  0.2473 -105.7  11.274   98.5  0.0278   70.3  0.6553  -28.7
 1.480  0.2449 -106.7  11.138   98.0  0.0281   70.1  0.6523  -28.9
 1.500  0.2425 -107.7  11.002   97.5  0.0285   69.9  0.6494  -29.0
 1.520  0.2407 -108.6  10.879   97.1  0.0287   70.1  0.6466  -29.1
 1.540  0.2390 -109.6  10.756   96.6  0.0289   70.4  0.6439  -29.3
 1.560  0.2373 -110.5  10.634   96.2  0.0292   70.6  0.6411  -29.4
 1.580  0.2357 -111.5  10.513   95.7  0.0294   70.8  0.6384  -29.6
 1.600  0.2342 -112.5  10.392   95.2  0.0296   71.0  0.6356  -29.7
 1.620  0.2325 -113.2  10.274   94.8  0.0301   70.8  0.6330  -29.8
 1.640  0.2308 -114.0  10.157   94.4  0.0305   70.7  0.6303  -30.0
 1.660  0.2292 -114.7  10.040   93.9  0.0310   70.5  0.6277  -30.1
 1.680  0.2276 -115.5   9.924   93.5  0.0314   70.4  0.6250  -30.3
 1.700  0.2260 -116.3   9.808   93.0  0.0319   70.2  0.6224  -30.4
 1.720  0.2245 -117.3   9.705   92.6  0.0321   70.5  0.6197  -30.6
 1.740  0.2230 -118.3   9.603   92.2  0.0322   70.8  0.6171  -30.8
 1.760  0.2216 -119.3   9.502   91.8  0.0324   71.1  0.6145  -30.9
 1.780  0.2203 -120.3   9.401   91.4  0.0325   71.4  0.6118  -31.1
 1.800  0.2190 -121.3   9.300   91.0  0.0327   71.7  0.6092  -31.3
 1.820  0.2177 -122.0   9.208   90.7  0.0331   71.6  0.6068  -31.4
 1.840  0.2164 -122.8   9.117   90.3  0.0334   71.6  0.6044  -31.6
 1.860  0.2152 -123.6   9.026   89.9  0.0338   71.5  0.6020  -31.7
 1.880  0.2140 -124.3   8.935   89.6  0.0341   71.5  0.5996  -31.9
 1.900  0.2128 -125.1   8.845   89.2  0.0345   71.4  0.5972  -32.0
 1.920  0.2122 -126.0   8.763   88.8  0.0348   71.2  0.5954  -32.2
 1.940  0.2116 -126.8   8.681   88.5  0.0351   71.1  0.5936  -32.4
 1.960  0.2110 -127.7   8.600   88.1  0.0355   70.9  0.5918  -32.7
 1.980  0.2105 -128.6   8.519   87.7  0.0358   70.8  0.5901  -32.9
 2.000  0.2101 -129.5   8.438   87.3  0.0361   70.6  0.5883  -33.1
 2.020  0.2091 -130.2   8.358   87.0  0.0363   70.4  0.5862  -33.3
 2.040  0.2082 -131.0   8.278   86.6  0.0366   70.2  0.5842  -33.4
 2.060  0.2072 -131.8   8.198   86.2  0.0368   70.0  0.5821  -33.6
 2.080  0.2063 -132.5   8.119   85.9  0.0371   69.8  0.5801  -33.7
 2.100  0.2055 -133.3   8.040   85.5  0.0373   69.6  0.5780  -33.9
 2.120  0.2045 -134.1   7.966   85.2  0.0379   69.8  0.5760  -34.0
 2.140  0.2035 -134.9   7.893   84.8  0.0384   69.9  0.5740  -34.2
 2.160  0.2026 -135.7   7.820   84.5  0.0390   70.1  0.5720  -34.3
 2.180  0.2017 -136.5   7.747   84.2  0.0395   70.2  0.5700  -34.5
 2.200  0.2008 -137.3   7.674   83.8  0.0401   70.4  0.5680  -34.6
 2.220  0.2005 -138.0   7.607   83.5  0.0403   70.1  0.5662  -34.7
 2.240  0.2002 -138.8   7.540   83.2  0.0405   69.8  0.5645  -34.9
 2.260  0.1999 -139.5   7.473   82.9  0.0407   69.4  0.5627  -35.0
 2.280  0.1997 -140.3   7.406   82.6  0.0409   69.1  0.5610  -35.2
 2.300  0.1995 -141.0   7.340   82.3  0.0411   68.8  0.5592  -35.3
 2.320  0.1985 -141.6   7.279   82.0  0.0414   68.8  0.5578  -35.5
 2.340  0.1976 -142.3   7.219   81.7  0.0416   68.8  0.5564  -35.7
 2.360  0.1967 -143.0   7.158   81.4  0.0419   68.7  0.5550  -35.8
 2.380  0.1958 -143.6   7.098   81.1  0.0421   68.7  0.5537  -36.0
 2.400  0.1949 -144.3   7.038   80.8  0.0424   68.7  0.5523  -36.2
 2.420  0.1945 -145.0   6.980   80.5  0.0427   68.8  0.5507  -36.3
 2.440  0.1942 -145.7   6.922   80.3  0.0429   69.0  0.5491  -36.4
 2.460  0.1939 -146.3   6.864   80.0  0.0432   69.1  0.5476  -36.6
 2.480  0.1936 -147.0   6.806   79.7  0.0434   69.3  0.5460  -36.7
 2.500  0.1933 -147.7   6.748   79.4  0.0437   69.4  0.5444  -36.8
 2.520  0.1927 -148.3   6.694   79.1  0.0442   69.2  0.5429  -36.9
 2.540  0.1920 -149.0   6.640   78.9  0.0448   68.9  0.5414  -37.0
 2.560  0.1914 -149.6   6.586   78.6  0.0453   68.7  0.5400  -37.2
 2.580  0.1909 -150.3   6.532   78.3  0.0459   68.5  0.5385  -37.3
 2.600  0.1903 -150.9   6.478   78.0  0.0464   68.3  0.5370  -37.4
 2.620  0.1902 -151.5   6.430   77.7  0.0465   68.6  0.5357  -37.5
 2.640  0.1902 -152.1   6.382   77.5  0.0466   68.8  0.5344  -37.6
 2.660  0.1902 -152.7   6.334   77.2  0.0466   69.1  0.5332  -37.7
 2.680  0.1902 -153.3   6.286   76.9  0.0467   69.3  0.5319  -37.8
 2.700  0.1902 -153.9   6.238   76.6  0.0468   69.6  0.5306  -37.9
 2.720  0.1897 -154.5   6.194   76.4  0.0474   69.3  0.5295  -38.1
 2.740  0.1892 -155.1   6.150   76.1  0.0480   69.0  0.5284  -38.2
 2.760  0.1887 -155.7   6.106   75.9  0.0486   68.7  0.5273  -38.4
 2.780  0.1882 -156.3   6.062   75.6  0.0492   68.4  0.5262  -38.5
 2.800  0.1878 -156.9   6.018   75.4  0.0498   68.1  0.5251  -38.7
 2.820  0.1877 -157.4   5.973   75.1  0.0500   68.2  0.5241  -38.8
 2.840  0.1876 -158.0   5.928   74.9  0.0502   68.3  0.5232  -38.9
 2.860  0.1875 -158.5   5.884   74.6  0.0503   68.3  0.5222  -39.1
 2.880  0.1874 -159.1   5.839   74.4  0.0505   68.4  0.5213  -39.2
 2.900  0.1874 -159.6   5.795   74.1  0.0507   68.5  0.5203  -39.3
 2.920  0.1872 -160.2   5.756   73.9  0.0511   68.4  0.5191  -39.5
 2.940  0.1871 -160.7   5.718   73.6  0.0516   68.4  0.5179  -39.6
 2.960  0.1869 -161.3   5.679   73.4  0.0520   68.3  0.5167  -39.8
 2.980  0.1868 -161.8   5.640   73.1  0.0525   68.3  0.5156  -39.9
 3.000  0.1867 -162.4   5.602   72.9  0.0529   68.2  0.5144  -40.1
 3.100  0.1863 -164.9   5.412   71.7  0.0538   67.4  0.5095  -40.6
 3.200  0.1852 -168.0   5.233   70.5  0.0559   67.1  0.5055  -41.3
 3.300  0.1851 -170.0   5.075   69.4  0.0571   67.5  0.5014  -41.9
 3.400  0.1841 -173.0   4.913   68.3  0.0588   66.8  0.4980  -42.5
 3.500  0.1834 -174.9   4.775   67.2  0.0604   66.5  0.4946  -43.0
 3.600  0.1836 -177.4   4.630   66.2  0.0620   65.8  0.4918  -43.5
 3.700  0.1840 -179.8   4.501   65.2  0.0639   65.5  0.4885  -43.9
 3.800  0.1842  178.0   4.377   64.1  0.0653   65.2  0.4859  -44.4
 3.900  0.1848  175.6   4.264   63.1  0.0668   65.1  0.4833  -45.0
 4.000  0.1847  173.8   4.155   62.2  0.0686   64.9  0.4811  -45.3
 4.100  0.1867  171.6   4.052   61.1  0.0703   64.1  0.4777  -45.8
 4.200  0.1869  168.8   3.951   60.3  0.0723   64.0  0.4745  -46.3
 4.300  0.1903  167.3   3.862   59.2  0.0738   63.7  0.4720  -46.8
 4.400  0.1898  164.9   3.775   58.3  0.0757   63.9  0.4695  -47.3
 4.500  0.1923  163.5   3.687   57.4  0.0772   63.0  0.4671  -47.6
 4.600  0.1937  161.1   3.604   56.4  0.0791   62.2  0.4644  -48.0
 4.700  0.1959  159.9   3.527   55.6  0.0806   62.3  0.4609  -48.3
 4.800  0.1986  157.8   3.456   54.6  0.0823   61.8  0.4589  -48.9
 4.900  0.2000  156.7   3.384   53.8  0.0838   61.4  0.4560  -49.2
 5.000  0.2015  154.6   3.318   52.8  0.0858   61.2  0.4532  -49.6
 5.100  0.2033  153.2   3.251   51.9  0.0870   60.7  0.4504  -50.0
 5.200  0.2053  151.6   3.192   51.0  0.0891   60.1  0.4471  -50.5
 5.300  0.2074  150.0   3.132   50.0  0.0906   59.9  0.4444  -51.0
 5.400  0.2082  148.8   3.074   49.2  0.0925   59.3  0.4425  -51.4
 5.500  0.2103  147.1   3.019   48.3  0.0951   59.1  0.4403  -51.7
 5.600  0.2114  145.8   2.966   47.4  0.0962   58.3  0.4381  -52.1
 5.700  0.2148  144.1   2.914   46.5  0.0979   58.0  0.4345  -52.5
 5.800  0.2154  142.9   2.867   45.6  0.0997   57.7  0.4329  -53.0
 5.900  0.2173  141.5   2.818   44.7  0.1010   57.2  0.4305  -53.3
 6.000  0.2178  140.0   2.770   43.9  0.1030   56.7  0.4289  -53.7
 6.100  0.2199  138.5   2.723   43.0  0.1045   56.4  0.4256  -53.9
 6.200  0.2215  137.0   2.678   42.1  0.1065   55.8  0.4237  -54.4
 6.300  0.2236  135.4   2.638   41.2  0.1083   55.4  0.4203  -54.8
 6.400  0.2241  133.8   2.596   40.3  0.1098   54.8  0.4186  -55.1
 6.500  0.2272  131.9   2.553   39.5  0.1111   54.5  0.4166  -55.5
 6.600  0.2287  130.4   2.516   38.6  0.1128   54.1  0.4137  -55.7
 6.800  0.2331  127.1   2.440   36.9  0.1160   53.4  0.4083  -56.2
 7.000  0.2382  123.8   2.369   35.3  0.1197   52.5  0.4023  -56.4
 7.200  0.2454  120.8   2.302   33.7  0.1234   51.6  0.3940  -56.9
 7.400  0.2543  118.3   2.240   32.2  0.1272   51.0  0.3862  -57.3
 7.600  0.2637  116.1   2.183   30.7  0.1309   50.3  0.3772  -57.6
 7.800  0.2747  114.4   2.130   29.1  0.1349   49.2  0.3659  -58.2
 8.000  0.2871  112.7   2.079   27.6  0.1386   48.1  0.3521  -58.7
 8.200  0.3016  111.8   2.036   26.1  0.1425   47.1  0.3353  -59.3
 8.400  0.3163  110.9   1.994   24.5  0.1464   46.1  0.3186  -59.9
 8.600  0.3310  110.1   1.954   22.9  0.1505   45.1  0.2997  -60.5
 8.800  0.3458  109.4   1.915   21.3  0.1547   44.0  0.2787  -61.3
 9.000  0.3606  108.7   1.878   19.7  0.1590   43.0  0.2577  -62.2
 9.200  0.3744  107.9   1.844   18.1  0.1628   41.8  0.2341  -63.5
 9.400  0.3883  107.2   1.812   16.5  0.1667   40.7  0.2106  -65.1
 9.600  0.4015  106.5   1.781   14.9  0.1708   39.6  0.1866  -67.4
 9.800  0.4139  105.7   1.752   13.2  0.1752   38.4  0.1622  -70.6
10.000  0.4264  104.9   1.724   11.5  0.1796   37.2  0.1384  -74.9
10.200  0.4383  103.5   1.695    9.8  0.1836   35.8  0.1132  -81.4
10.400  0.4504  102.1   1.667    8.0  0.1877   34.4  0.0903  -91.5
10.600  0.4620  100.6   1.638    6.2  0.1912   33.0  0.0735 -108.5
10.800  0.4733   98.7   1.607    4.2  0.1942   31.5  0.0680 -132.3
11.000  0.4850   97.0   1.578    2.2  0.1973   30.1  0.0750 -155.7
11.200  0.4943   95.1   1.541    0.5  0.1995   28.8  0.0955 -169.0
11.400  0.5041   93.2   1.505   -1.3  0.2019   27.4  0.1192 -177.3
11.600  0.5110   91.7   1.471   -2.8  0.2043   26.3  0.1450  178.9
11.800  0.5147   90.4   1.436   -4.2  0.2068   25.5  0.1715  177.8
12.000  0.5187   89.1   1.403   -5.6  0.2094   24.6  0.1981  176.9
!
!  f       NFmin   Gammaopt  rn/50
! GHz       dB    MAG  ANG    -
 0.450      2.19  0.03   -9   0.50
 0.900      2.21  0.01  -43   0.33
 1.500      2.26  0.02  -82   0.27
 1.900      2.32  0.03 -109   0.39
 2.400      2.46  0.03 -113   0.24
 3.000      2.56  0.05 -115   0.11
 3.500      2.63  0.07 -116   0.14
 4.500      2.86  0.13 -104   0.46
 5.500      3.17  0.23  -88   0.49
!
! (c) 2015  Infineon Technologies AG, Munich
