! Infineon Technologies  Discrete & RF Semiconductors
! BFP450
! VCE =  3.0 V,  IC = 0.12 A
! Common Emitter S-Parameters:                            Nov 2015
# GHz  S  MA  R  50
!  f         S11            S21            S12            S22
! GHz     MAG   ANG      MAG   ANG      MAG   ANG      MAG   ANG
 0.030  0.2931 -148.8  81.533  162.8  0.0038   81.8  0.8088  -23.5
 0.035  0.3155 -147.9  80.356  160.1  0.0043   78.5  0.8015  -27.7
 0.040  0.3380 -147.2  79.358  157.4  0.0049   76.0  0.7985  -31.9
 0.045  0.3597 -147.1  77.917  154.7  0.0053   73.4  0.7885  -35.9
 0.050  0.3815 -147.0  76.649  152.0  0.0057   71.1  0.7824  -39.9
 0.055  0.4030 -147.7  74.915  149.8  0.0061   70.4  0.7711  -43.6
 0.060  0.4245 -148.3  73.297  147.5  0.0066   69.8  0.7630  -47.3
 0.065  0.4410 -148.5  71.540  145.2  0.0070   68.8  0.7507  -50.8
 0.070  0.4575 -148.6  69.908  142.7  0.0074   67.9  0.7413  -54.4
 0.075  0.4735 -149.4  68.237  140.9  0.0077   66.6  0.7295  -57.6
 0.080  0.4896 -150.2  66.638  139.0  0.0080   65.4  0.7201  -60.9
 0.085  0.5017 -150.9  64.918  137.2  0.0083   64.3  0.7085  -63.9
 0.090  0.5139 -151.5  63.266  135.3  0.0086   63.3  0.6989  -66.9
 0.095  0.5250 -152.5  61.671  133.7  0.0088   62.3  0.6880  -69.7
 0.100  0.5362 -153.4  60.127  132.0  0.0091   61.4  0.6787  -72.5
 0.105  0.5457 -154.1  58.658  130.5  0.0093   61.0  0.6689  -75.0
 0.110  0.5553 -154.7  57.229  129.0  0.0095   60.7  0.6604  -77.6
 0.115  0.5638 -155.6  55.768  127.7  0.0097   60.3  0.6513  -80.0
 0.120  0.5724 -156.4  54.337  126.3  0.0100   59.9  0.6434  -82.5
 0.125  0.5803 -156.9  53.016  125.0  0.0102   59.3  0.6351  -84.7
 0.130  0.5883 -157.4  51.722  123.7  0.0104   58.8  0.6278  -87.0
 0.135  0.5943 -158.2  50.502  122.6  0.0106   58.5  0.6202  -89.0
 0.140  0.6004 -158.9  49.302  121.4  0.0109   58.2  0.6133  -91.1
 0.145  0.6070 -159.6  48.121  120.4  0.0111   58.2  0.6065  -93.0
 0.150  0.6137 -160.2  46.957  119.3  0.0113   58.2  0.6004  -95.0
 0.155  0.6174 -160.7  45.977  118.6  0.0115   58.1  0.5936  -96.5
 0.160  0.6212 -161.3  45.003  117.9  0.0116   57.9  0.5872  -98.0
 0.165  0.6250 -161.8  44.037  117.1  0.0118   57.8  0.5813  -99.5
 0.170  0.6288 -162.3  43.079  116.3  0.0120   57.7  0.5757 -101.0
 0.175  0.6327 -162.8  42.129  115.5  0.0121   57.6  0.5706 -102.6
 0.180  0.6367 -163.3  41.189  114.7  0.0123   57.4  0.5659 -104.2
 0.185  0.6407 -163.8  40.258  113.8  0.0125   57.3  0.5617 -105.9
 0.190  0.6447 -164.3  39.338  112.8  0.0127   57.2  0.5579 -107.5
 0.195  0.6488 -164.8  38.428  111.8  0.0128   57.1  0.5546 -109.2
 0.200  0.6530 -165.3  37.531  110.8  0.0130   57.0  0.5518 -110.9
 0.220  0.6606 -166.8  34.917  108.7  0.0136   57.1  0.5374 -115.4
 0.240  0.6686 -168.4  32.358  106.3  0.0143   57.2  0.5265 -120.2
 0.260  0.6756 -169.7  30.129  104.1  0.0149   57.5  0.5178 -124.3
 0.280  0.6815 -170.9  28.201  102.3  0.0156   57.7  0.5100 -127.9
 0.300  0.6876 -172.1  26.303  100.3  0.0162   58.0  0.5043 -131.5
 0.320  0.6907 -173.1  24.860   99.0  0.0168   58.4  0.4990 -134.3
 0.340  0.6941 -174.1  23.431   97.6  0.0175   58.8  0.4949 -137.1
 0.360  0.6967 -175.0  22.163   96.2  0.0181   59.2  0.4915 -139.6
 0.380  0.6985 -175.8  21.049   95.0  0.0188   59.5  0.4886 -141.9
 0.400  0.7004 -176.6  19.947   93.6  0.0194   59.8  0.4864 -144.2
 0.420  0.7026 -177.3  19.059   92.6  0.0201   60.1  0.4843 -146.1
 0.440  0.7048 -178.0  18.177   91.6  0.0208   60.4  0.4827 -148.0
 0.450  0.7060 -178.4  17.739   91.0  0.0211   60.5  0.4821 -148.9
 0.460  0.7067 -178.7  17.377   90.6  0.0214   60.7  0.4815 -149.7
 0.480  0.7081 -179.4  16.655   89.7  0.0221   61.0  0.4804 -151.3
 0.500  0.7097  179.9  15.938   88.8  0.0227   61.3  0.4798 -152.9
 0.520  0.7108  179.3  15.387   88.1  0.0234   61.5  0.4790 -154.2
 0.540  0.7120  178.8  14.838   87.4  0.0240   61.6  0.4785 -155.5
 0.560  0.7132  178.2  14.292   86.6  0.0247   61.7  0.4782 -156.9
 0.580  0.7145  177.7  13.748   85.8  0.0253   61.9  0.4782 -158.2
 0.600  0.7159  177.1  13.208   84.9  0.0260   62.0  0.4784 -159.5
 0.620  0.7163  176.6  12.810   84.3  0.0267   62.1  0.4783 -160.5
 0.640  0.7168  176.1  12.414   83.7  0.0274   62.2  0.4783 -161.5
 0.660  0.7174  175.7  12.018   83.1  0.0281   62.3  0.4785 -162.6
 0.680  0.7180  175.2  11.625   82.4  0.0288   62.4  0.4788 -163.6
 0.700  0.7186  174.7  11.233   81.7  0.0295   62.5  0.4793 -164.6
 0.720  0.7191  174.2  10.934   81.2  0.0302   62.5  0.4795 -165.5
 0.740  0.7197  173.8  10.636   80.6  0.0309   62.6  0.4798 -166.4
 0.760  0.7203  173.3  10.339   80.1  0.0315   62.6  0.4803 -167.2
 0.780  0.7210  172.9  10.043   79.4  0.0322   62.7  0.4808 -168.1
 0.800  0.7217  172.4   9.748   78.8  0.0329   62.7  0.4815 -169.0
 0.820  0.7222  172.0   9.517   78.4  0.0336   62.7  0.4819 -169.7
 0.840  0.7227  171.6   9.287   77.9  0.0343   62.7  0.4824 -170.5
 0.860  0.7232  171.2   9.058   77.4  0.0350   62.6  0.4830 -171.2
 0.880  0.7238  170.8   8.829   76.9  0.0357   62.6  0.4837 -172.0
 0.900  0.7244  170.4   8.601   76.4  0.0364   62.6  0.4844 -172.7
 0.920  0.7248  170.0   8.413   76.0  0.0371   62.5  0.4849 -173.4
 0.940  0.7252  169.6   8.225   75.5  0.0378   62.5  0.4855 -174.1
 0.960  0.7257  169.2   8.038   75.0  0.0384   62.4  0.4861 -174.7
 0.980  0.7262  168.8   7.851   74.5  0.0391   62.4  0.4868 -175.4
 1.000  0.7267  168.4   7.665   74.0  0.0398   62.3  0.4876 -176.1
 1.020  0.7272  168.0   7.518   73.6  0.0405   62.2  0.4881 -176.7
 1.040  0.7277  167.7   7.371   73.2  0.0412   62.1  0.4887 -177.3
 1.060  0.7282  167.3   7.225   72.8  0.0419   62.0  0.4894 -177.8
 1.080  0.7287  167.0   7.079   72.4  0.0426   61.9  0.4901 -178.4
 1.100  0.7293  166.6   6.934   71.9  0.0433   61.8  0.4908 -179.0
 1.120  0.7297  166.2   6.806   71.5  0.0440   61.7  0.4914 -179.6
 1.140  0.7301  165.9   6.679   71.1  0.0447   61.5  0.4921  179.9
 1.160  0.7305  165.5   6.552   70.7  0.0453   61.4  0.4928  179.3
 1.180  0.7310  165.2   6.425   70.3  0.0460   61.2  0.4935  178.8
 1.200  0.7315  164.8   6.299   69.8  0.0467   61.1  0.4943  178.2
 1.220  0.7317  164.4   6.195   69.4  0.0474   61.0  0.4948  177.7
 1.240  0.7320  164.1   6.092   69.0  0.0481   60.8  0.4954  177.2
 1.260  0.7323  163.7   5.989   68.6  0.0488   60.7  0.4960  176.6
 1.280  0.7326  163.4   5.886   68.2  0.0495   60.5  0.4966  176.1
 1.300  0.7329  163.0   5.783   67.8  0.0502   60.4  0.4973  175.6
 1.320  0.7333  162.7   5.692   67.4  0.0509   60.2  0.4979  175.1
 1.340  0.7337  162.3   5.602   67.1  0.0516   60.1  0.4986  174.6
 1.360  0.7341  162.0   5.512   66.7  0.0522   59.9  0.4993  174.2
 1.380  0.7346  161.6   5.422   66.3  0.0529   59.8  0.5000  173.7
 1.400  0.7351  161.3   5.332   65.9  0.0536   59.6  0.5008  173.2
 1.420  0.7356  161.0   5.256   65.6  0.0543   59.4  0.5015  172.7
 1.440  0.7361  160.6   5.179   65.2  0.0550   59.2  0.5021  172.3
 1.460  0.7366  160.3   5.103   64.9  0.0556   59.0  0.5029  171.8
 1.480  0.7372  159.9   5.028   64.5  0.0563   58.9  0.5036  171.4
 1.500  0.7378  159.6   4.952   64.1  0.0570   58.7  0.5044  170.9
 1.520  0.7381  159.3   4.885   63.8  0.0577   58.5  0.5050  170.5
 1.540  0.7384  159.0   4.819   63.4  0.0583   58.3  0.5056  170.0
 1.560  0.7387  158.6   4.752   63.1  0.0590   58.1  0.5062  169.6
 1.580  0.7390  158.3   4.686   62.7  0.0596   58.0  0.5069  169.1
 1.600  0.7394  158.0   4.620   62.3  0.0603   57.8  0.5076  168.7
 1.620  0.7398  157.7   4.562   62.0  0.0610   57.6  0.5083  168.3
 1.640  0.7403  157.3   4.504   61.6  0.0617   57.4  0.5090  167.9
 1.660  0.7408  157.0   4.446   61.3  0.0623   57.2  0.5097  167.4
 1.680  0.7413  156.6   4.388   61.0  0.0630   57.0  0.5104  167.0
 1.700  0.7419  156.3   4.330   60.6  0.0637   56.8  0.5112  166.6
 1.720  0.7421  156.0   4.277   60.2  0.0644   56.6  0.5117  166.2
 1.740  0.7422  155.7   4.224   59.9  0.0651   56.4  0.5122  165.8
 1.760  0.7424  155.3   4.171   59.5  0.0657   56.2  0.5128  165.4
 1.780  0.7427  155.0   4.118   59.1  0.0664   56.0  0.5134  165.0
 1.800  0.7429  154.7   4.066   58.7  0.0671   55.8  0.5140  164.6
 1.820  0.7432  154.4   4.019   58.4  0.0678   55.6  0.5147  164.2
 1.840  0.7436  154.1   3.972   58.0  0.0684   55.4  0.5155  163.8
 1.860  0.7439  153.8   3.926   57.7  0.0691   55.2  0.5163  163.4
 1.880  0.7443  153.5   3.879   57.4  0.0697   55.0  0.5171  163.0
 1.900  0.7447  153.2   3.833   57.0  0.0704   54.8  0.5179  162.6
 1.920  0.7449  152.9   3.792   56.7  0.0710   54.6  0.5184  162.2
 1.940  0.7450  152.6   3.751   56.3  0.0717   54.3  0.5189  161.8
 1.960  0.7452  152.2   3.710   56.0  0.0723   54.1  0.5194  161.4
 1.980  0.7455  151.9   3.670   55.7  0.0730   53.8  0.5199  161.0
 2.000  0.7457  151.6   3.629   55.3  0.0736   53.6  0.5205  160.6
 2.020  0.7459  151.3   3.593   55.0  0.0742   53.4  0.5210  160.2
 2.040  0.7461  151.0   3.556   54.7  0.0748   53.1  0.5216  159.8
 2.060  0.7463  150.6   3.520   54.4  0.0754   52.9  0.5221  159.4
 2.080  0.7465  150.3   3.484   54.0  0.0761   52.6  0.5227  159.0
 2.100  0.7468  150.0   3.448   53.7  0.0767   52.4  0.5233  158.6
 2.120  0.7471  149.7   3.413   53.3  0.0773   52.2  0.5240  158.2
 2.140  0.7474  149.4   3.377   53.0  0.0779   52.0  0.5247  157.9
 2.160  0.7478  149.0   3.342   52.6  0.0786   51.7  0.5253  157.5
 2.180  0.7481  148.7   3.306   52.3  0.0792   51.5  0.5261  157.1
 2.200  0.7485  148.4   3.271   51.9  0.0798   51.3  0.5268  156.7
 2.220  0.7486  148.1   3.241   51.6  0.0804   51.1  0.5274  156.3
 2.240  0.7488  147.8   3.211   51.3  0.0810   50.8  0.5280  156.0
 2.260  0.7489  147.5   3.181   51.0  0.0816   50.6  0.5286  155.6
 2.280  0.7491  147.2   3.151   50.7  0.0823   50.4  0.5293  155.2
 2.300  0.7493  146.8   3.121   50.4  0.0829   50.2  0.5300  154.8
 2.320  0.7496  146.5   3.092   50.1  0.0835   49.9  0.5307  154.5
 2.340  0.7498  146.2   3.062   49.7  0.0841   49.7  0.5314  154.1
 2.360  0.7501  145.9   3.033   49.4  0.0848   49.5  0.5321  153.7
 2.380  0.7504  145.6   3.003   49.0  0.0854   49.3  0.5329  153.4
 2.400  0.7507  145.3   2.974   48.7  0.0860   49.1  0.5337  153.0
 2.420  0.7508  145.0   2.948   48.4  0.0866   48.9  0.5343  152.6
 2.440  0.7509  144.7   2.923   48.1  0.0872   48.6  0.5349  152.3
 2.460  0.7510  144.4   2.898   47.8  0.0878   48.4  0.5356  151.9
 2.480  0.7511  144.1   2.872   47.4  0.0884   48.1  0.5362  151.5
 2.500  0.7513  143.8   2.847   47.1  0.0890   47.9  0.5369  151.2
 2.520  0.7514  143.6   2.822   46.8  0.0896   47.7  0.5376  150.8
 2.540  0.7516  143.3   2.797   46.5  0.0902   47.5  0.5384  150.5
 2.560  0.7518  143.0   2.772   46.1  0.0908   47.2  0.5391  150.1
 2.580  0.7521  142.7   2.748   45.8  0.0914   47.0  0.5399  149.8
 2.600  0.7523  142.4   2.723   45.4  0.0920   46.8  0.5407  149.4
 2.620  0.7525  142.1   2.702   45.1  0.0926   46.5  0.5413  149.0
 2.640  0.7526  141.8   2.681   44.8  0.0931   46.3  0.5419  148.7
 2.660  0.7528  141.5   2.660   44.5  0.0937   46.0  0.5426  148.3
 2.680  0.7531  141.2   2.639   44.2  0.0943   45.8  0.5432  148.0
 2.700  0.7533  140.9   2.619   43.9  0.0949   45.6  0.5439  147.6
 2.720  0.7536  140.7   2.598   43.6  0.0955   45.3  0.5446  147.3
 2.740  0.7538  140.4   2.577   43.3  0.0960   45.1  0.5453  146.9
 2.760  0.7541  140.1   2.557   43.0  0.0966   44.9  0.5461  146.6
 2.780  0.7545  139.8   2.536   42.6  0.0972   44.6  0.5468  146.2
 2.800  0.7548  139.5   2.516   42.3  0.0978   44.4  0.5476  145.9
 2.820  0.7551  139.2   2.497   42.0  0.0984   44.1  0.5482  145.6
 2.840  0.7554  138.9   2.479   41.7  0.0989   43.9  0.5489  145.3
 2.860  0.7558  138.6   2.461   41.4  0.0995   43.7  0.5495  144.9
 2.880  0.7561  138.3   2.442   41.1  0.1001   43.4  0.5502  144.6
 2.900  0.7565  138.0   2.424   40.8  0.1006   43.2  0.5509  144.3
 2.920  0.7569  137.8   2.406   40.4  0.1012   42.9  0.5516  144.0
 2.940  0.7573  137.5   2.388   40.1  0.1018   42.7  0.5523  143.7
 2.960  0.7578  137.2   2.370   39.8  0.1023   42.5  0.5531  143.3
 2.980  0.7582  136.9   2.352   39.4  0.1029   42.2  0.5538  143.0
 3.000  0.7587  136.6   2.334   39.1  0.1035   42.0  0.5546  142.7
 3.100  0.7603  135.1   2.256   37.7  0.1059   40.6  0.5574  141.2
 3.200  0.7624  133.6   2.179   36.3  0.1084   39.3  0.5607  139.7
 3.300  0.7650  132.1   2.104   34.7  0.1110   38.1  0.5642  138.3
 3.400  0.7681  130.7   2.031   33.0  0.1136   36.9  0.5682  136.8
 3.500  0.7717  129.2   1.959   31.2  0.1162   35.8  0.5725  135.4
 3.600  0.7739  127.9   1.900   29.9  0.1183   34.6  0.5759  134.1
 3.700  0.7765  126.6   1.842   28.6  0.1204   33.4  0.5796  132.8
 3.800  0.7795  125.3   1.785   27.1  0.1226   32.2  0.5836  131.5
 3.900  0.7829  124.0   1.729   25.5  0.1248   31.1  0.5879  130.2
 4.000  0.7867  122.7   1.675   23.9  0.1271   30.0  0.5925  129.0
 4.100  0.7884  121.6   1.630   22.7  0.1290   28.9  0.5959  127.8
 4.200  0.7903  120.5   1.585   21.5  0.1309   27.9  0.5996  126.6
 4.300  0.7926  119.4   1.542   20.2  0.1329   26.8  0.6035  125.5
 4.400  0.7952  118.3   1.499   18.8  0.1349   25.9  0.6076  124.3
 4.500  0.7980  117.2   1.457   17.4  0.1369   24.9  0.6120  123.2
 4.600  0.7988  116.2   1.423   16.2  0.1388   23.8  0.6146  122.1
 4.700  0.7998  115.1   1.390   15.0  0.1408   22.8  0.6174  121.0
 4.800  0.8012  114.1   1.357   13.7  0.1428   21.8  0.6204  119.9
 4.900  0.8028  113.0   1.325   12.4  0.1448   20.8  0.6236  118.8
 5.000  0.8046  112.0   1.294   11.0  0.1469   19.9  0.6271  117.7
 5.100  0.8042  111.0   1.267    9.9  0.1487   18.8  0.6287  116.6
 5.200  0.8040  110.0   1.240    8.7  0.1505   17.7  0.6304  115.5
 5.300  0.8041  108.9   1.214    7.4  0.1523   16.7  0.6325  114.4
 5.400  0.8045  107.9   1.188    6.1  0.1542   15.7  0.6347  113.3
 5.500  0.8051  106.9   1.163    4.8  0.1562   14.7  0.6372  112.2
 5.600  0.8049  106.1   1.142    3.7  0.1579   13.7  0.6384  111.0
 5.700  0.8049  105.2   1.121    2.6  0.1597   12.7  0.6398  109.9
 5.800  0.8050  104.4   1.101    1.4  0.1616   11.7  0.6415  108.8
 5.900  0.8053  103.5   1.081    0.2  0.1635   10.7  0.6434  107.6
 6.000  0.8058  102.7   1.062   -1.0  0.1654    9.8  0.6456  106.5
 6.100  0.8070  101.9   1.046   -2.2  0.1671    8.7  0.6471  105.5
 6.200  0.8084  101.0   1.031   -3.4  0.1688    7.6  0.6489  104.4
 6.300  0.8100  100.2   1.016   -4.7  0.1706    6.5  0.6508  103.4
 6.400  0.8117   99.3   1.002   -6.0  0.1725    5.4  0.6529  102.4
 6.500  0.8136   98.5   0.988   -7.4  0.1744    4.4  0.6553  101.4
 6.600  0.8150   97.5   0.973   -8.7  0.1760    3.2  0.6568  100.5
 6.800  0.8186   95.5   0.945  -11.3  0.1794    1.0  0.6602   98.7
 7.000  0.8232   93.6   0.919  -14.1  0.1830   -1.2  0.6643   97.0
 7.200  0.8259   91.3   0.890  -16.7  0.1853   -3.6  0.6685   95.1
 7.400  0.8298   89.1   0.864  -19.5  0.1879   -6.0  0.6735   93.1
 7.600  0.8327   86.8   0.836  -22.1  0.1900   -8.4  0.6800   90.9
 7.800  0.8346   84.3   0.808  -24.6  0.1915  -10.7  0.6884   88.5
 8.000  0.8381   81.9   0.782  -27.3  0.1934  -13.0  0.6980   86.1
 8.200  0.8407   79.4   0.755  -29.7  0.1934  -15.4  0.7068   83.4
 8.400  0.8449   77.0   0.729  -32.3  0.1936  -17.7  0.7171   80.9
 8.600  0.8484   74.6   0.704  -34.6  0.1933  -20.0  0.7256   78.4
 8.800  0.8513   72.2   0.678  -36.7  0.1923  -22.1  0.7320   76.0
 9.000  0.8557   69.9   0.654  -39.0  0.1915  -24.3  0.7398   73.6
 9.200  0.8598   68.1   0.629  -40.7  0.1897  -25.9  0.7456   71.7
 9.400  0.8647   66.3   0.605  -42.6  0.1881  -27.5  0.7521   69.8
 9.600  0.8702   64.9   0.584  -44.2  0.1867  -28.9  0.7613   68.2
 9.800  0.8757   63.8   0.567  -45.5  0.1853  -30.2  0.7728   67.0
10.000  0.8815   62.8   0.550  -46.8  0.1840  -31.5  0.7846   65.7
10.200  0.8836   62.3   0.537  -47.6  0.1836  -32.1  0.7890   65.7
10.400  0.8859   61.8   0.524  -48.5  0.1832  -32.7  0.7933   65.7
10.600  0.8868   61.3   0.515  -49.4  0.1834  -33.3  0.7951   65.9
10.800  0.8864   60.8   0.508  -50.3  0.1841  -34.0  0.7942   66.2
11.000  0.8861   60.4   0.502  -51.2  0.1849  -34.6  0.7934   66.6
11.200  0.8818   59.7   0.498  -52.7  0.1909  -34.7  0.7815   66.1
11.400  0.8777   59.0   0.494  -54.1  0.1969  -34.8  0.7698   65.5
11.600  0.8728   58.4   0.492  -55.6  0.2023  -36.1  0.7639   64.6
11.800  0.8672   57.7   0.493  -57.0  0.2073  -38.3  0.7642   63.4
12.000  0.8617   57.0   0.494  -58.4  0.2127  -40.5  0.7648   62.2
!
!  f       NFmin   Gammaopt  rn/50
! GHz       dB    MAG  ANG    -
 0.450      2.31  0.66 -172   0.07
 0.900      2.37  0.69 -166   0.09
 1.900      2.46  0.70 -149   0.19
 2.400      2.55  0.70 -139   0.27
!
! (c) 2015  Infineon Technologies AG, Munich
