! Infineon Technologies  Discrete & RF Semiconductors
! BFP405
! VCE =  2.0 V,  IC =  2.0 mA
! Common Emitter S-Parameters:                            Jan 2016
# GHz  S  MA  R  50
!  f         S11            S21            S12            S22
! GHz     MAG   ANG      MAG   ANG      MAG   ANG      MAG   ANG
 0.010  0.9177    0.8   6.756 -177.3  0.0009    7.3  1.0000    0.8
 0.015  0.9250    0.2   6.704 -179.1  0.0006   41.5  0.9967    0.5
 0.020  0.9324   -0.4   6.659  179.0  0.0007   87.9  0.9935    0.1
 0.025  0.9309   -0.7   6.656  178.9  0.0009   87.7  0.9940   -0.0
 0.030  0.9295   -0.9   6.654  178.8  0.0011   87.6  0.9945   -0.2
 0.035  0.9280   -1.2   6.651  178.7  0.0012   87.5  0.9950   -0.3
 0.040  0.9266   -1.5   6.648  178.6  0.0014   87.5  0.9955   -0.4
 0.045  0.9252   -1.7   6.646  178.5  0.0016   87.4  0.9961   -0.6
 0.050  0.9238   -2.0   6.643  178.4  0.0018   87.4  0.9966   -0.7
 0.055  0.9239   -2.2   6.647  178.2  0.0020   87.6  0.9967   -0.8
 0.060  0.9240   -2.4   6.651  177.9  0.0022   87.8  0.9967   -0.9
 0.065  0.9242   -2.5   6.655  177.7  0.0023   88.0  0.9968   -1.1
 0.070  0.9243   -2.7   6.659  177.5  0.0025   88.1  0.9968   -1.2
 0.075  0.9245   -2.9   6.663  177.2  0.0027   88.2  0.9969   -1.3
 0.080  0.9247   -3.1   6.668  177.0  0.0029   88.3  0.9970   -1.4
 0.085  0.9248   -3.3   6.672  176.8  0.0031   88.4  0.9970   -1.5
 0.090  0.9250   -3.4   6.677  176.6  0.0032   88.5  0.9971   -1.7
 0.095  0.9252   -3.6   6.681  176.3  0.0034   88.5  0.9972   -1.8
 0.100  0.9254   -3.8   6.686  176.1  0.0036   88.6  0.9973   -1.9
 0.105  0.9250   -4.0   6.685  176.0  0.0038   88.4  0.9970   -2.0
 0.110  0.9247   -4.1   6.683  175.8  0.0040   88.1  0.9967   -2.1
 0.115  0.9244   -4.3   6.682  175.7  0.0041   87.9  0.9965   -2.2
 0.120  0.9240   -4.5   6.681  175.5  0.0043   87.7  0.9962   -2.3
 0.125  0.9237   -4.6   6.680  175.4  0.0045   87.6  0.9959   -2.4
 0.130  0.9234   -4.8   6.678  175.3  0.0047   87.4  0.9956   -2.5
 0.135  0.9231   -5.0   6.677  175.1  0.0049   87.3  0.9954   -2.6
 0.140  0.9228   -5.2   6.676  175.0  0.0050   87.1  0.9951   -2.7
 0.145  0.9225   -5.3   6.675  174.8  0.0052   87.0  0.9949   -2.8
 0.150  0.9222   -5.5   6.674  174.7  0.0054   86.9  0.9946   -2.9
 0.155  0.9220   -5.7   6.673  174.5  0.0056   86.8  0.9945   -3.0
 0.160  0.9219   -5.9   6.672  174.3  0.0058   86.8  0.9945   -3.1
 0.165  0.9217   -6.0   6.671  174.1  0.0059   86.7  0.9944   -3.2
 0.170  0.9216   -6.2   6.671  173.9  0.0061   86.7  0.9943   -3.3
 0.175  0.9215   -6.4   6.670  173.8  0.0063   86.6  0.9943   -3.4
 0.180  0.9214   -6.6   6.670  173.6  0.0065   86.6  0.9942   -3.6
 0.185  0.9213   -6.8   6.669  173.4  0.0067   86.5  0.9941   -3.7
 0.190  0.9212   -6.9   6.669  173.2  0.0068   86.5  0.9941   -3.8
 0.195  0.9211   -7.1   6.668  173.0  0.0070   86.4  0.9940   -3.9
 0.200  0.9210   -7.3   6.668  172.8  0.0072   86.4  0.9940   -4.0
 0.220  0.9199   -8.0   6.676  172.1  0.0078   86.1  0.9906   -4.4
 0.240  0.9190   -8.7   6.685  171.4  0.0085   85.8  0.9873   -4.9
 0.260  0.9186   -9.5   6.685  170.7  0.0092   85.4  0.9870   -5.3
 0.280  0.9186  -10.3   6.676  170.0  0.0100   84.9  0.9896   -5.6
 0.300  0.9189  -11.1   6.668  169.4  0.0108   84.5  0.9923   -5.9
 0.320  0.9172  -11.8   6.653  168.7  0.0115   84.1  0.9906   -6.3
 0.340  0.9157  -12.5   6.639  168.0  0.0122   83.7  0.9889   -6.7
 0.360  0.9148  -13.3   6.634  167.2  0.0129   83.3  0.9876   -7.1
 0.380  0.9146  -14.1   6.638  166.5  0.0136   82.9  0.9865   -7.5
 0.400  0.9145  -14.9   6.643  165.7  0.0143   82.5  0.9855   -7.9
 0.420  0.9127  -15.6   6.628  165.0  0.0150   82.1  0.9848   -8.3
 0.440  0.9111  -16.3   6.614  164.3  0.0157   81.7  0.9840   -8.6
 0.450  0.9103  -16.7   6.607  163.9  0.0161   81.5  0.9837   -8.8
 0.460  0.9097  -17.1   6.606  163.6  0.0165   81.3  0.9831   -9.0
 0.480  0.9085  -17.8   6.606  162.9  0.0172   80.9  0.9818   -9.4
 0.500  0.9075  -18.6   6.606  162.2  0.0179   80.6  0.9806   -9.8
 0.520  0.9054  -19.3   6.590  161.5  0.0186   80.1  0.9793  -10.2
 0.540  0.9035  -20.0   6.576  160.7  0.0193   79.7  0.9780  -10.6
 0.560  0.9017  -20.8   6.562  160.0  0.0200   79.3  0.9768  -11.0
 0.580  0.9001  -21.5   6.549  159.2  0.0207   78.9  0.9756  -11.4
 0.600  0.8986  -22.2   6.538  158.5  0.0214   78.5  0.9745  -11.8
 0.620  0.8966  -22.9   6.525  157.8  0.0221   78.0  0.9729  -12.2
 0.640  0.8947  -23.7   6.513  157.2  0.0228   77.6  0.9714  -12.6
 0.660  0.8930  -24.4   6.501  156.5  0.0236   77.2  0.9699  -12.9
 0.680  0.8914  -25.2   6.491  155.9  0.0243   76.9  0.9685  -13.3
 0.700  0.8900  -25.9   6.481  155.2  0.0250   76.5  0.9671  -13.7
 0.720  0.8877  -26.7   6.470  154.5  0.0257   76.1  0.9654  -14.1
 0.740  0.8855  -27.4   6.459  153.8  0.0264   75.6  0.9637  -14.5
 0.760  0.8835  -28.2   6.450  153.0  0.0270   75.2  0.9621  -14.8
 0.780  0.8816  -28.9   6.441  152.3  0.0277   74.9  0.9605  -15.2
 0.800  0.8799  -29.7   6.434  151.6  0.0284   74.5  0.9589  -15.6
 0.820  0.8772  -30.4   6.418  150.9  0.0291   74.0  0.9569  -16.0
 0.840  0.8747  -31.2   6.403  150.2  0.0298   73.6  0.9550  -16.4
 0.860  0.8723  -31.9   6.389  149.6  0.0304   73.2  0.9531  -16.7
 0.880  0.8700  -32.7   6.376  148.9  0.0311   72.8  0.9513  -17.1
 0.900  0.8679  -33.4   6.364  148.2  0.0318   72.4  0.9495  -17.5
 0.920  0.8651  -34.1   6.345  147.5  0.0325   72.0  0.9475  -17.9
 0.940  0.8625  -34.8   6.328  146.8  0.0332   71.6  0.9455  -18.3
 0.960  0.8599  -35.5   6.311  146.1  0.0338   71.2  0.9436  -18.6
 0.980  0.8575  -36.3   6.295  145.4  0.0345   70.8  0.9417  -19.0
 1.000  0.8553  -37.0   6.280  144.7  0.0352   70.4  0.9398  -19.4
 1.020  0.8525  -37.8   6.264  144.0  0.0359   70.0  0.9375  -19.8
 1.040  0.8498  -38.5   6.248  143.4  0.0365   69.6  0.9353  -20.2
 1.060  0.8473  -39.3   6.234  142.7  0.0372   69.2  0.9331  -20.5
 1.080  0.8449  -40.0   6.220  142.1  0.0378   68.8  0.9309  -20.9
 1.100  0.8427  -40.8   6.207  141.4  0.0385   68.4  0.9288  -21.3
 1.120  0.8392  -41.5   6.186  140.8  0.0391   68.0  0.9264  -21.7
 1.140  0.8359  -42.3   6.165  140.1  0.0397   67.6  0.9240  -22.0
 1.160  0.8327  -43.0   6.145  139.5  0.0404   67.2  0.9217  -22.4
 1.180  0.8297  -43.7   6.126  138.8  0.0410   66.8  0.9194  -22.7
 1.200  0.8268  -44.5   6.108  138.2  0.0416   66.4  0.9171  -23.1
 1.220  0.8237  -45.2   6.087  137.5  0.0422   66.0  0.9147  -23.4
 1.240  0.8207  -45.9   6.067  136.9  0.0428   65.6  0.9123  -23.8
 1.260  0.8179  -46.6   6.048  136.2  0.0435   65.2  0.9099  -24.1
 1.280  0.8152  -47.4   6.030  135.6  0.0441   64.8  0.9076  -24.5
 1.300  0.8126  -48.1   6.012  134.9  0.0447   64.4  0.9053  -24.8
 1.320  0.8093  -48.8   5.992  134.3  0.0453   64.0  0.9026  -25.2
 1.340  0.8061  -49.6   5.973  133.6  0.0459   63.6  0.9000  -25.5
 1.360  0.8031  -50.3   5.955  133.0  0.0465   63.2  0.8975  -25.9
 1.380  0.8002  -51.0   5.938  132.3  0.0471   62.8  0.8949  -26.2
 1.400  0.7974  -51.8   5.921  131.7  0.0477   62.4  0.8924  -26.6
 1.420  0.7938  -52.5   5.898  131.1  0.0483   62.0  0.8897  -26.9
 1.440  0.7904  -53.3   5.877  130.5  0.0489   61.7  0.8871  -27.2
 1.460  0.7870  -54.0   5.855  129.9  0.0494   61.3  0.8845  -27.6
 1.480  0.7839  -54.7   5.835  129.2  0.0500   60.9  0.8819  -27.9
 1.500  0.7808  -55.5   5.815  128.6  0.0506   60.6  0.8794  -28.2
 1.520  0.7770  -56.2   5.796  128.0  0.0512   60.2  0.8767  -28.5
 1.540  0.7734  -57.0   5.778  127.4  0.0517   59.8  0.8740  -28.9
 1.560  0.7699  -57.7   5.760  126.8  0.0523   59.4  0.8714  -29.2
 1.580  0.7665  -58.4   5.743  126.2  0.0528   59.0  0.8688  -29.6
 1.600  0.7632  -59.2   5.727  125.6  0.0534   58.6  0.8662  -29.9
 1.620  0.7601  -59.9   5.704  125.0  0.0539   58.2  0.8634  -30.2
 1.640  0.7570  -60.6   5.682  124.4  0.0545   57.9  0.8607  -30.5
 1.660  0.7541  -61.3   5.660  123.8  0.0550   57.5  0.8580  -30.9
 1.680  0.7513  -62.0   5.639  123.2  0.0556   57.1  0.8553  -31.2
 1.700  0.7486  -62.7   5.619  122.6  0.0561   56.8  0.8526  -31.5
 1.720  0.7447  -63.4   5.596  122.0  0.0566   56.4  0.8499  -31.8
 1.740  0.7410  -64.2   5.573  121.4  0.0571   56.0  0.8471  -32.1
 1.760  0.7374  -65.0   5.551  120.8  0.0577   55.6  0.8444  -32.4
 1.780  0.7339  -65.7   5.529  120.2  0.0582   55.3  0.8418  -32.7
 1.800  0.7306  -66.5   5.508  119.6  0.0587   54.9  0.8391  -33.0
 1.820  0.7273  -67.2   5.487  119.0  0.0592   54.5  0.8363  -33.3
 1.840  0.7240  -67.9   5.467  118.5  0.0597   54.2  0.8335  -33.6
 1.860  0.7209  -68.6   5.447  117.9  0.0602   53.9  0.8308  -33.9
 1.880  0.7179  -69.4   5.428  117.4  0.0607   53.5  0.8280  -34.2
 1.900  0.7150  -70.1   5.409  116.8  0.0612   53.2  0.8253  -34.5
 1.920  0.7114  -70.8   5.387  116.2  0.0617   52.8  0.8225  -34.8
 1.940  0.7079  -71.6   5.365  115.7  0.0621   52.5  0.8197  -35.1
 1.960  0.7045  -72.4   5.344  115.1  0.0626   52.1  0.8170  -35.4
 1.980  0.7013  -73.1   5.324  114.6  0.0630   51.7  0.8142  -35.7
 2.000  0.6982  -73.9   5.304  114.0  0.0635   51.4  0.8115  -36.0
 2.020  0.6945  -74.6   5.282  113.5  0.0639   51.0  0.8086  -36.3
 2.040  0.6909  -75.3   5.261  112.9  0.0644   50.7  0.8058  -36.5
 2.060  0.6874  -76.0   5.241  112.4  0.0648   50.4  0.8029  -36.8
 2.080  0.6840  -76.7   5.221  111.8  0.0653   50.0  0.8001  -37.1
 2.100  0.6808  -77.4   5.201  111.3  0.0657   49.7  0.7973  -37.4
 2.120  0.6776  -78.1   5.182  110.7  0.0662   49.4  0.7945  -37.7
 2.140  0.6745  -78.9   5.163  110.2  0.0666   49.0  0.7918  -37.9
 2.160  0.6716  -79.6   5.145  109.6  0.0671   48.7  0.7890  -38.2
 2.180  0.6687  -80.4   5.127  109.1  0.0675   48.4  0.7863  -38.5
 2.200  0.6660  -81.1   5.110  108.5  0.0680   48.1  0.7836  -38.8
 2.220  0.6624  -81.8   5.089  108.0  0.0684   47.8  0.7807  -39.1
 2.240  0.6589  -82.5   5.068  107.5  0.0688   47.4  0.7778  -39.3
 2.260  0.6555  -83.2   5.048  107.0  0.0692   47.1  0.7750  -39.6
 2.280  0.6522  -84.0   5.027  106.5  0.0696   46.7  0.7721  -39.9
 2.300  0.6490  -84.7   5.008  106.0  0.0700   46.4  0.7693  -40.2
 2.320  0.6460  -85.5   4.989  105.4  0.0704   46.1  0.7665  -40.5
 2.340  0.6430  -86.2   4.970  104.9  0.0708   45.7  0.7637  -40.7
 2.360  0.6402  -87.0   4.951  104.4  0.0713   45.4  0.7610  -41.0
 2.380  0.6374  -87.7   4.934  103.8  0.0717   45.1  0.7582  -41.3
 2.400  0.6348  -88.5   4.916  103.3  0.0721   44.8  0.7555  -41.6
 2.420  0.6313  -89.2   4.895  102.8  0.0725   44.5  0.7527  -41.9
 2.440  0.6280  -89.9   4.875  102.3  0.0728   44.2  0.7499  -42.1
 2.460  0.6247  -90.6   4.855  101.8  0.0732   43.9  0.7471  -42.4
 2.480  0.6215  -91.4   4.835  101.3  0.0736   43.6  0.7443  -42.6
 2.500  0.6185  -92.1   4.816  100.8  0.0740   43.3  0.7415  -42.9
 2.520  0.6155  -92.9   4.797  100.2  0.0744   43.0  0.7388  -43.1
 2.540  0.6126  -93.6   4.779   99.7  0.0747   42.7  0.7360  -43.4
 2.560  0.6099  -94.4   4.761   99.2  0.0751   42.4  0.7333  -43.7
 2.580  0.6072  -95.1   4.743   98.6  0.0755   42.1  0.7306  -43.9
 2.600  0.6047  -95.9   4.726   98.1  0.0759   41.8  0.7279  -44.2
 2.620  0.6016  -96.6   4.707   97.6  0.0762   41.5  0.7250  -44.5
 2.640  0.5986  -97.3   4.689   97.2  0.0766   41.2  0.7222  -44.7
 2.660  0.5956  -98.0   4.671   96.7  0.0769   40.9  0.7193  -45.0
 2.680  0.5928  -98.8   4.654   96.2  0.0773   40.6  0.7165  -45.2
 2.700  0.5901  -99.5   4.636   95.7  0.0776   40.3  0.7137  -45.5
 2.720  0.5874 -100.3   4.619   95.3  0.0780   40.0  0.7109  -45.7
 2.740  0.5849 -101.0   4.603   94.8  0.0783   39.7  0.7081  -46.0
 2.760  0.5825 -101.8   4.587   94.3  0.0787   39.4  0.7054  -46.3
 2.780  0.5801 -102.5   4.571   93.8  0.0790   39.1  0.7026  -46.5
 2.800  0.5779 -103.3   4.555   93.3  0.0794   38.8  0.6999  -46.8
 2.820  0.5748 -104.0   4.536   92.8  0.0797   38.5  0.6971  -47.0
 2.840  0.5717 -104.7   4.518   92.3  0.0800   38.2  0.6943  -47.3
 2.860  0.5688 -105.5   4.500   91.8  0.0803   37.9  0.6915  -47.5
 2.880  0.5659 -106.2   4.482   91.3  0.0807   37.6  0.6887  -47.7
 2.900  0.5631 -107.0   4.464   90.8  0.0810   37.3  0.6859  -48.0
 2.920  0.5605 -107.7   4.447   90.3  0.0813   37.0  0.6832  -48.2
 2.940  0.5579 -108.5   4.430   89.8  0.0816   36.7  0.6805  -48.5
 2.960  0.5554 -109.2   4.414   89.3  0.0819   36.5  0.6777  -48.7
 2.980  0.5531 -110.0   4.398   88.8  0.0823   36.2  0.6750  -49.0
 3.000  0.5508 -110.8   4.382   88.3  0.0826   35.9  0.6723  -49.2
 3.100  0.5336 -114.3   4.289   86.1  0.0838   34.5  0.6580  -50.3
 3.200  0.5186 -118.0   4.202   83.9  0.0850   33.1  0.6439  -51.4
 3.300  0.5059 -121.9   4.122   81.5  0.0862   31.8  0.6301  -52.6
 3.400  0.4956 -126.0   4.050   79.0  0.0875   30.5  0.6166  -53.9
 3.500  0.4880 -130.3   3.985   76.5  0.0889   29.2  0.6034  -55.2
 3.600  0.4741 -134.0   3.898   74.5  0.0897   28.0  0.5904  -56.2
 3.700  0.4622 -137.9   3.816   72.4  0.0906   26.8  0.5776  -57.3
 3.800  0.4525 -141.9   3.739   70.2  0.0915   25.7  0.5649  -58.4
 3.900  0.4453 -146.2   3.668   67.9  0.0924   24.5  0.5525  -59.6
 4.000  0.4405 -150.5   3.603   65.5  0.0934   23.4  0.5404  -60.8
 4.100  0.4314 -154.4   3.525   63.6  0.0940   22.3  0.5292  -61.8
 4.200  0.4245 -158.4   3.451   61.7  0.0946   21.3  0.5183  -62.8
 4.300  0.4197 -162.6   3.380   59.6  0.0952   20.2  0.5074  -63.9
 4.400  0.4171 -166.8   3.315   57.5  0.0959   19.2  0.4968  -65.0
 4.500  0.4169 -171.1   3.254   55.3  0.0966   18.2  0.4864  -66.2
 4.600  0.4143 -174.7   3.184   53.6  0.0970   17.3  0.4770  -67.2
 4.700  0.4133 -178.2   3.118   51.8  0.0974   16.4  0.4677  -68.2
 4.800  0.4139  178.2   3.055   49.9  0.0979   15.5  0.4586  -69.2
 4.900  0.4162  174.6   2.994   48.0  0.0983   14.7  0.4496  -70.3
 5.000  0.4200  171.1   2.938   46.0  0.0988   13.8  0.4408  -71.4
 5.100  0.4209  168.3   2.880   44.4  0.0991   13.1  0.4331  -72.2
 5.200  0.4229  165.5   2.825   42.8  0.0994   12.4  0.4255  -73.1
 5.300  0.4258  162.8   2.772   41.2  0.0997   11.7  0.4181  -73.9
 5.400  0.4297  160.1   2.721   39.4  0.1001   11.0  0.4107  -74.9
 5.500  0.4345  157.4   2.673   37.6  0.1004   10.3  0.4034  -75.8
 5.600  0.4355  155.2   2.626   36.1  0.1007    9.7  0.3965  -76.6
 5.700  0.4371  153.0   2.582   34.6  0.1011    9.2  0.3897  -77.4
 5.800  0.4394  150.9   2.539   33.0  0.1015    8.6  0.3830  -78.2
 5.900  0.4423  148.7   2.498   31.4  0.1018    8.1  0.3764  -79.0
 6.000  0.4458  146.6   2.459   29.7  0.1022    7.5  0.3698  -79.9
 6.100  0.4457  144.6   2.421   28.2  0.1027    7.0  0.3635  -80.8
 6.200  0.4462  142.5   2.385   26.7  0.1033    6.4  0.3572  -81.6
 6.300  0.4473  140.5   2.350   25.2  0.1039    5.9  0.3511  -82.6
 6.400  0.4489  138.5   2.318   23.6  0.1044    5.4  0.3451  -83.5
 6.500  0.4511  136.5   2.287   21.9  0.1050    4.9  0.3391  -84.5
 6.600  0.4499  134.2   2.250   20.4  0.1056    4.4  0.3329  -85.3
 6.800  0.4497  129.7   2.181   17.2  0.1068    3.3  0.3208  -87.1
 7.000  0.4523  125.2   2.119   13.9  0.1080    2.3  0.3090  -89.0
 7.200  0.4555  120.4   2.055   11.0  0.1094    1.2  0.2973  -90.8
 7.400  0.4617  115.8   1.997    8.0  0.1109    0.1  0.2859  -92.8
 7.600  0.4717  111.2   1.941    5.0  0.1123   -1.1  0.2734  -94.8
 7.800  0.4854  106.9   1.888    2.1  0.1136   -2.3  0.2598  -96.9
 8.000  0.5016  102.8   1.839   -1.0  0.1150   -3.6  0.2467  -99.3
 8.200  0.5185   99.2   1.785   -3.7  0.1159   -4.9  0.2280 -101.6
 8.400  0.5374   95.8   1.734   -6.6  0.1168   -6.1  0.2097 -104.4
 8.600  0.5558   92.9   1.688   -9.4  0.1177   -7.3  0.1897 -107.8
 8.800  0.5733   90.4   1.646  -12.2  0.1186   -8.4  0.1683 -112.2
 9.000  0.5918   88.0   1.607  -15.1  0.1195   -9.5  0.1481 -117.9
 9.200  0.6086   85.5   1.564  -18.1  0.1203  -10.7  0.1277 -125.7
 9.400  0.6266   83.1   1.525  -21.2  0.1211  -11.8  0.1106 -136.3
 9.600  0.6399   80.3   1.478  -24.1  0.1218  -12.9  0.0990 -150.2
 9.800  0.6492   77.1   1.423  -27.0  0.1226  -13.8  0.0951 -166.6
10.000  0.6604   74.0   1.372  -30.0  0.1233  -14.7  0.0993  177.0
!
!  f       NFmin   Gammaopt  rn/50
! GHz       dB    MAG  ANG    -
 0.900      0.86  0.58   15   0.42
 1.800      1.21  0.46   27   0.37
 2.400      1.43  0.38   38   0.36
 3.000      1.47  0.38   52   0.33
 4.000      1.69  0.25   80   0.26
 5.000      2.05  0.21  114   0.21
!
! (c) 2016  Infineon Technologies AG, Munich
