! Infineon Technologies  Discrete & RF Semiconductors
! BFP405
! VCE =  0.5 V,  IC =  3.5 mA
! Common Emitter S-Parameters:                            Jan 2016
# GHz  S  MA  R  50
!  f         S11            S21            S12            S22
! GHz     MAG   ANG      MAG   ANG      MAG   ANG      MAG   ANG
 0.010  0.8764    0.8  10.364 -177.0  0.0002   31.4  0.9820    0.5
 0.015  0.8771   -0.1  10.342 -179.1  0.0006   83.4  0.9830   -0.0
 0.020  0.8780   -1.0  10.334  178.8  0.0010   92.5  0.9840   -0.5
 0.025  0.8778   -1.3  10.330  178.7  0.0012   91.8  0.9842   -0.7
 0.030  0.8775   -1.7  10.326  178.5  0.0015   91.3  0.9843   -0.8
 0.035  0.8774   -2.0  10.323  178.4  0.0017   90.9  0.9845   -1.0
 0.040  0.8772   -2.4  10.319  178.2  0.0020   90.7  0.9847   -1.2
 0.045  0.8771   -2.7  10.315  178.1  0.0022   90.5  0.9849   -1.3
 0.050  0.8770   -3.1  10.312  177.9  0.0025   90.3  0.9851   -1.5
 0.055  0.8767   -3.3  10.319  177.6  0.0028   89.8  0.9851   -1.7
 0.060  0.8763   -3.6  10.325  177.3  0.0030   89.4  0.9851   -1.9
 0.065  0.8760   -3.8  10.333  177.0  0.0033   89.0  0.9851   -2.0
 0.070  0.8757   -4.1  10.340  176.7  0.0036   88.7  0.9851   -2.2
 0.075  0.8755   -4.3  10.348  176.3  0.0038   88.5  0.9851   -2.4
 0.080  0.8752   -4.5  10.356  176.0  0.0041   88.3  0.9851   -2.6
 0.085  0.8749   -4.8  10.364  175.7  0.0044   88.1  0.9851   -2.8
 0.090  0.8747   -5.0  10.373  175.4  0.0047   87.9  0.9852   -2.9
 0.095  0.8745   -5.3  10.382  175.1  0.0049   87.7  0.9852   -3.1
 0.100  0.8743   -5.5  10.391  174.8  0.0052   87.6  0.9853   -3.3
 0.105  0.8741   -5.8  10.388  174.6  0.0055   87.3  0.9850   -3.5
 0.110  0.8739   -6.1  10.386  174.4  0.0058   87.0  0.9846   -3.6
 0.115  0.8737   -6.4  10.384  174.1  0.0061   86.8  0.9843   -3.8
 0.120  0.8735   -6.7  10.382  173.9  0.0064   86.6  0.9840   -4.0
 0.125  0.8734   -6.9  10.380  173.7  0.0066   86.4  0.9836   -4.1
 0.130  0.8733   -7.2  10.378  173.5  0.0069   86.2  0.9833   -4.3
 0.135  0.8732   -7.5  10.376  173.3  0.0072   86.0  0.9830   -4.5
 0.140  0.8731   -7.8  10.375  173.0  0.0075   85.9  0.9828   -4.7
 0.145  0.8730   -8.1  10.373  172.8  0.0078   85.7  0.9825   -4.8
 0.150  0.8730   -8.4  10.372  172.6  0.0081   85.6  0.9822   -5.0
 0.155  0.8725   -8.7  10.367  172.3  0.0084   85.4  0.9819   -5.2
 0.160  0.8720   -8.9  10.362  172.0  0.0086   85.3  0.9817   -5.3
 0.165  0.8715   -9.2  10.358  171.8  0.0089   85.1  0.9814   -5.5
 0.170  0.8710   -9.5  10.354  171.5  0.0091   85.0  0.9812   -5.7
 0.175  0.8706   -9.7  10.350  171.2  0.0094   84.9  0.9810   -5.8
 0.180  0.8701  -10.0  10.346  170.9  0.0097   84.7  0.9808   -6.0
 0.185  0.8697  -10.3  10.343  170.6  0.0099   84.6  0.9806   -6.2
 0.190  0.8693  -10.6  10.340  170.4  0.0102   84.5  0.9804   -6.4
 0.195  0.8690  -10.8  10.337  170.1  0.0104   84.4  0.9802   -6.5
 0.200  0.8686  -11.1  10.334  169.8  0.0107   84.3  0.9800   -6.7
 0.220  0.8671  -12.3  10.343  168.8  0.0118   83.5  0.9772   -7.4
 0.240  0.8659  -13.4  10.356  167.8  0.0129   82.8  0.9745   -8.1
 0.260  0.8645  -14.6  10.342  166.8  0.0140   82.1  0.9729   -8.7
 0.280  0.8629  -15.7  10.302  165.9  0.0150   81.3  0.9724   -9.4
 0.300  0.8617  -16.8  10.265  164.9  0.0160   80.6  0.9721  -10.0
 0.320  0.8589  -17.9  10.228  163.9  0.0170   80.0  0.9694  -10.6
 0.340  0.8564  -19.0  10.195  162.9  0.0181   79.5  0.9668  -11.3
 0.360  0.8543  -20.1  10.171  161.9  0.0191   78.9  0.9643  -11.9
 0.380  0.8525  -21.3  10.158  160.8  0.0202   78.2  0.9617  -12.6
 0.400  0.8511  -22.5  10.148  159.8  0.0212   77.6  0.9593  -13.3
 0.420  0.8479  -23.5  10.102  158.8  0.0222   77.0  0.9567  -13.9
 0.440  0.8449  -24.6  10.058  157.8  0.0232   76.5  0.9541  -14.5
 0.450  0.8435  -25.1  10.038  157.3  0.0237   76.2  0.9529  -14.8
 0.460  0.8421  -25.6  10.024  156.8  0.0242   75.9  0.9513  -15.1
 0.480  0.8396  -26.7   9.999  155.9  0.0252   75.3  0.9483  -15.8
 0.500  0.8373  -27.8   9.977  154.9  0.0262   74.7  0.9453  -16.4
 0.520  0.8332  -28.9   9.927  153.9  0.0272   74.0  0.9417  -17.0
 0.540  0.8293  -30.0   9.880  153.0  0.0281   73.4  0.9381  -17.6
 0.560  0.8258  -31.1   9.836  152.0  0.0291   72.8  0.9347  -18.2
 0.580  0.8226  -32.2   9.795  151.0  0.0300   72.2  0.9314  -18.9
 0.600  0.8197  -33.3   9.757  150.0  0.0310   71.7  0.9282  -19.5
 0.620  0.8157  -34.3   9.708  149.1  0.0320   71.0  0.9241  -20.1
 0.640  0.8119  -35.4   9.661  148.2  0.0329   70.4  0.9201  -20.7
 0.660  0.8084  -36.5   9.617  147.3  0.0339   69.7  0.9162  -21.3
 0.680  0.8052  -37.5   9.575  146.4  0.0348   69.2  0.9125  -22.0
 0.700  0.8023  -38.6   9.536  145.5  0.0358   68.6  0.9088  -22.6
 0.720  0.7976  -39.6   9.488  144.6  0.0366   68.0  0.9046  -23.1
 0.740  0.7931  -40.7   9.442  143.7  0.0375   67.5  0.9005  -23.7
 0.760  0.7889  -41.7   9.398  142.8  0.0383   67.0  0.8964  -24.3
 0.780  0.7850  -42.8   9.357  141.8  0.0392   66.5  0.8925  -24.8
 0.800  0.7814  -43.9   9.318  140.9  0.0400   66.0  0.8886  -25.4
 0.820  0.7767  -44.9   9.264  140.0  0.0408   65.4  0.8841  -25.9
 0.840  0.7722  -45.9   9.212  139.2  0.0416   64.9  0.8796  -26.5
 0.860  0.7680  -47.0   9.162  138.3  0.0424   64.3  0.8753  -27.0
 0.880  0.7640  -48.0   9.114  137.4  0.0432   63.8  0.8710  -27.5
 0.900  0.7603  -49.1   9.069  136.5  0.0440   63.3  0.8668  -28.1
 0.920  0.7553  -50.1   9.010  135.7  0.0448   62.7  0.8620  -28.6
 0.940  0.7505  -51.1   8.954  134.9  0.0456   62.2  0.8573  -29.2
 0.960  0.7459  -52.1   8.899  134.0  0.0464   61.7  0.8526  -29.8
 0.980  0.7416  -53.1   8.846  133.2  0.0472   61.2  0.8481  -30.3
 1.000  0.7375  -54.1   8.795  132.3  0.0480   60.7  0.8436  -30.9
 1.020  0.7328  -55.1   8.741  131.5  0.0487   60.2  0.8389  -31.4
 1.040  0.7284  -56.1   8.689  130.7  0.0495   59.7  0.8343  -31.9
 1.060  0.7241  -57.1   8.639  129.9  0.0502   59.2  0.8297  -32.4
 1.080  0.7202  -58.2   8.590  129.1  0.0510   58.8  0.8252  -32.9
 1.100  0.7164  -59.2   8.543  128.3  0.0517   58.3  0.8208  -33.4
 1.120  0.7112  -60.2   8.485  127.6  0.0523   57.8  0.8160  -33.9
 1.140  0.7062  -61.1   8.428  126.8  0.0530   57.3  0.8113  -34.3
 1.160  0.7014  -62.1   8.372  126.1  0.0536   56.8  0.8066  -34.8
 1.180  0.6969  -63.1   8.318  125.3  0.0543   56.4  0.8020  -35.3
 1.200  0.6925  -64.1   8.266  124.5  0.0549   55.9  0.7975  -35.8
 1.220  0.6878  -65.0   8.210  123.8  0.0556   55.5  0.7927  -36.2
 1.240  0.6833  -65.9   8.156  123.0  0.0562   55.0  0.7880  -36.7
 1.260  0.6789  -66.9   8.103  122.2  0.0569   54.6  0.7833  -37.1
 1.280  0.6748  -67.8   8.051  121.5  0.0575   54.2  0.7786  -37.5
 1.300  0.6708  -68.8   8.001  120.7  0.0582   53.8  0.7740  -38.0
 1.320  0.6660  -69.8   7.947  120.0  0.0588   53.4  0.7692  -38.4
 1.340  0.6613  -70.7   7.894  119.3  0.0594   52.9  0.7645  -38.9
 1.360  0.6569  -71.7   7.842  118.6  0.0600   52.5  0.7598  -39.4
 1.380  0.6527  -72.7   7.792  117.8  0.0606   52.1  0.7552  -39.8
 1.400  0.6486  -73.7   7.743  117.1  0.0612   51.7  0.7506  -40.3
 1.420  0.6441  -74.6   7.689  116.4  0.0617   51.3  0.7460  -40.7
 1.440  0.6398  -75.5   7.635  115.7  0.0623   50.9  0.7415  -41.0
 1.460  0.6357  -76.5   7.583  115.0  0.0628   50.5  0.7369  -41.4
 1.480  0.6318  -77.4   7.532  114.3  0.0634   50.2  0.7325  -41.8
 1.500  0.6280  -78.4   7.482  113.6  0.0639   49.8  0.7280  -42.2
 1.520  0.6235  -79.3   7.433  113.0  0.0644   49.4  0.7235  -42.6
 1.540  0.6191  -80.2   7.384  112.3  0.0649   49.0  0.7190  -43.0
 1.560  0.6148  -81.2   7.337  111.6  0.0654   48.6  0.7146  -43.4
 1.580  0.6108  -82.1   7.290  111.0  0.0659   48.3  0.7102  -43.8
 1.600  0.6069  -83.1   7.245  110.3  0.0664   47.9  0.7058  -44.2
 1.620  0.6027  -84.0   7.194  109.7  0.0669   47.5  0.7013  -44.6
 1.640  0.5987  -84.8   7.143  109.0  0.0674   47.1  0.6968  -44.9
 1.660  0.5948  -85.7   7.094  108.4  0.0680   46.7  0.6924  -45.3
 1.680  0.5911  -86.6   7.045  107.8  0.0685   46.4  0.6880  -45.7
 1.700  0.5875  -87.5   6.997  107.1  0.0690   46.0  0.6836  -46.1
 1.720  0.5834  -88.4   6.948  106.5  0.0695   45.7  0.6794  -46.5
 1.740  0.5795  -89.3   6.900  105.9  0.0699   45.3  0.6753  -46.8
 1.760  0.5757  -90.2   6.852  105.3  0.0704   45.0  0.6712  -47.2
 1.780  0.5720  -91.2   6.806  104.6  0.0708   44.6  0.6671  -47.5
 1.800  0.5685  -92.1   6.760  104.0  0.0713   44.3  0.6630  -47.9
 1.820  0.5650  -93.0   6.716  103.4  0.0717   44.0  0.6589  -48.2
 1.840  0.5617  -93.9   6.672  102.9  0.0721   43.7  0.6548  -48.5
 1.860  0.5585  -94.8   6.630  102.3  0.0726   43.4  0.6508  -48.8
 1.880  0.5554  -95.8   6.587  101.7  0.0730   43.1  0.6467  -49.2
 1.900  0.5525  -96.7   6.546  101.1  0.0734   42.8  0.6427  -49.5
 1.920  0.5486  -97.6   6.502  100.5  0.0738   42.5  0.6387  -49.8
 1.940  0.5449  -98.5   6.459  100.0  0.0742   42.1  0.6347  -50.2
 1.960  0.5413  -99.4   6.416   99.4  0.0747   41.8  0.6307  -50.5
 1.980  0.5379 -100.4   6.374   98.8  0.0751   41.5  0.6267  -50.9
 2.000  0.5346 -101.3   6.333   98.2  0.0755   41.2  0.6228  -51.2
 2.020  0.5311 -102.1   6.291   97.7  0.0759   40.9  0.6190  -51.5
 2.040  0.5277 -103.0   6.249   97.2  0.0762   40.6  0.6152  -51.8
 2.060  0.5245 -103.9   6.208   96.6  0.0766   40.3  0.6113  -52.1
 2.080  0.5213 -104.7   6.167   96.1  0.0769   40.0  0.6076  -52.4
 2.100  0.5183 -105.6   6.127   95.5  0.0773   39.8  0.6038  -52.7
 2.120  0.5154 -106.5   6.087   95.0  0.0776   39.5  0.6000  -53.0
 2.140  0.5127 -107.4   6.048   94.4  0.0780   39.2  0.5963  -53.3
 2.160  0.5101 -108.3   6.010   93.9  0.0784   38.9  0.5926  -53.6
 2.180  0.5076 -109.3   5.972   93.3  0.0787   38.7  0.5889  -53.9
 2.200  0.5052 -110.2   5.935   92.7  0.0791   38.4  0.5852  -54.2
 2.220  0.5022 -111.0   5.898   92.2  0.0794   38.1  0.5815  -54.5
 2.240  0.4992 -111.9   5.861   91.7  0.0798   37.8  0.5779  -54.8
 2.260  0.4964 -112.8   5.824   91.2  0.0801   37.6  0.5743  -55.1
 2.280  0.4937 -113.6   5.788   90.7  0.0805   37.3  0.5707  -55.4
 2.300  0.4912 -114.5   5.752   90.2  0.0808   37.0  0.5671  -55.7
 2.320  0.4887 -115.4   5.717   89.7  0.0812   36.8  0.5635  -56.0
 2.340  0.4864 -116.3   5.682   89.2  0.0815   36.5  0.5599  -56.3
 2.360  0.4842 -117.2   5.648   88.7  0.0819   36.2  0.5564  -56.6
 2.380  0.4821 -118.2   5.614   88.1  0.0822   36.0  0.5528  -56.9
 2.400  0.4801 -119.1   5.581   87.6  0.0826   35.7  0.5493  -57.2
 2.420  0.4775 -119.9   5.546   87.1  0.0829   35.5  0.5459  -57.4
 2.440  0.4750 -120.7   5.512   86.7  0.0832   35.2  0.5425  -57.7
 2.460  0.4726 -121.5   5.478   86.2  0.0835   35.0  0.5391  -57.9
 2.480  0.4703 -122.4   5.445   85.7  0.0839   34.7  0.5358  -58.2
 2.500  0.4680 -123.2   5.412   85.2  0.0842   34.5  0.5324  -58.5
 2.520  0.4659 -124.0   5.379   84.7  0.0845   34.2  0.5291  -58.7
 2.540  0.4639 -124.9   5.347   84.2  0.0848   34.0  0.5257  -59.0
 2.560  0.4620 -125.8   5.315   83.7  0.0851   33.8  0.5224  -59.3
 2.580  0.4602 -126.6   5.284   83.2  0.0855   33.5  0.5191  -59.5
 2.600  0.4585 -127.5   5.253   82.7  0.0858   33.3  0.5158  -59.8
 2.620  0.4563 -128.4   5.223   82.3  0.0861   33.1  0.5125  -60.1
 2.640  0.4542 -129.2   5.192   81.8  0.0864   32.8  0.5092  -60.3
 2.660  0.4522 -130.1   5.163   81.3  0.0867   32.6  0.5059  -60.6
 2.680  0.4503 -131.0   5.133   80.9  0.0870   32.4  0.5026  -60.9
 2.700  0.4485 -131.9   5.104   80.4  0.0873   32.1  0.4993  -61.2
 2.720  0.4469 -132.8   5.075   79.9  0.0876   31.9  0.4960  -61.4
 2.740  0.4453 -133.7   5.047   79.5  0.0879   31.7  0.4928  -61.7
 2.760  0.4439 -134.6   5.019   79.0  0.0882   31.4  0.4895  -62.0
 2.780  0.4425 -135.5   4.991   78.5  0.0885   31.2  0.4863  -62.3
 2.800  0.4413 -136.4   4.964   78.0  0.0888   31.0  0.4831  -62.6
 2.820  0.4394 -137.2   4.935   77.6  0.0891   30.8  0.4800  -62.8
 2.840  0.4375 -138.1   4.907   77.1  0.0893   30.5  0.4769  -63.1
 2.860  0.4358 -138.9   4.879   76.7  0.0896   30.3  0.4738  -63.3
 2.880  0.4341 -139.7   4.851   76.2  0.0899   30.1  0.4707  -63.6
 2.900  0.4326 -140.6   4.824   75.8  0.0901   29.9  0.4676  -63.9
 2.920  0.4311 -141.4   4.797   75.3  0.0904   29.7  0.4646  -64.1
 2.940  0.4297 -142.3   4.770   74.8  0.0907   29.4  0.4615  -64.4
 2.960  0.4284 -143.2   4.744   74.4  0.0909   29.2  0.4585  -64.7
 2.980  0.4273 -144.0   4.718   73.9  0.0912   29.0  0.4554  -64.9
 3.000  0.4262 -144.9   4.692   73.4  0.0915   28.8  0.4524  -65.2
 3.100  0.4167 -148.9   4.563   71.5  0.0926   27.7  0.4376  -66.3
 3.200  0.4093 -153.0   4.439   69.5  0.0938   26.7  0.4229  -67.5
 3.300  0.4042 -157.3   4.321   67.3  0.0950   25.7  0.4085  -68.8
 3.400  0.4013 -161.6   4.209   65.1  0.0962   24.7  0.3942  -70.1
 3.500  0.4007 -166.0   4.104   62.7  0.0975   23.8  0.3802  -71.6
 3.600  0.3953 -169.9   3.996   60.9  0.0985   22.9  0.3676  -72.8
 3.700  0.3918 -173.8   3.892   59.0  0.0994   22.0  0.3551  -74.0
 3.800  0.3902 -177.9   3.793   57.1  0.1004   21.2  0.3428  -75.4
 3.900  0.3905  178.1   3.698   55.0  0.1015   20.3  0.3307  -76.8
 4.000  0.3927  174.1   3.609   52.8  0.1025   19.5  0.3189  -78.4
 4.100  0.3925  170.6   3.520   51.2  0.1034   18.7  0.3085  -79.6
 4.200  0.3938  167.1   3.435   49.5  0.1042   17.9  0.2983  -81.0
 4.300  0.3965  163.6   3.352   47.7  0.1051   17.1  0.2882  -82.4
 4.400  0.4007  160.2   3.273   45.8  0.1061   16.3  0.2784  -83.9
 4.500  0.4062  156.9   3.198   43.8  0.1070   15.5  0.2687  -85.5
 4.600  0.4095  154.2   3.125   42.3  0.1078   14.8  0.2603  -86.8
 4.700  0.4137  151.6   3.054   40.7  0.1085   14.0  0.2520  -88.2
 4.800  0.4188  149.0   2.985   39.0  0.1093   13.3  0.2438  -89.6
 4.900  0.4247  146.4   2.919   37.2  0.1102   12.6  0.2359  -91.2
 5.000  0.4314  144.0   2.856   35.4  0.1110   11.9  0.2281  -92.9
 5.100  0.4358  142.0   2.797   34.0  0.1118   11.2  0.2212  -94.1
 5.200  0.4407  140.1   2.739   32.5  0.1125   10.6  0.2145  -95.3
 5.300  0.4461  138.2   2.683   31.0  0.1133   10.0  0.2078  -96.6
 5.400  0.4520  136.3   2.630   29.4  0.1141    9.3  0.2012  -98.0
 5.500  0.4583  134.5   2.578   27.8  0.1149    8.7  0.1948  -99.5
 5.600  0.4609  132.9   2.531   26.5  0.1158    8.1  0.1884 -100.7
 5.700  0.4639  131.3   2.485   25.1  0.1166    7.5  0.1822 -101.9
 5.800  0.4673  129.8   2.440   23.6  0.1175    6.9  0.1760 -103.3
 5.900  0.4710  128.2   2.397   22.1  0.1184    6.3  0.1699 -104.7
 6.000  0.4750  126.7   2.356   20.6  0.1193    5.7  0.1640 -106.3
 6.100  0.4763  125.1   2.317   19.2  0.1203    5.1  0.1582 -107.8
 6.200  0.4780  123.5   2.280   17.8  0.1212    4.4  0.1525 -109.3
 6.300  0.4801  121.9   2.245   16.3  0.1222    3.8  0.1470 -111.0
 6.400  0.4826  120.3   2.211   14.8  0.1232    3.2  0.1416 -112.8
 6.500  0.4854  118.7   2.178   13.2  0.1242    2.6  0.1363 -114.8
 6.600  0.4856  116.8   2.142   11.8  0.1252    1.9  0.1308 -116.6
 6.800  0.4877  113.0   2.072    9.0  0.1272    0.6  0.1201 -120.6
 7.000  0.4919  109.3   2.009    5.9  0.1293   -0.6  0.1102 -125.3
 7.200  0.4981  105.5   1.948    3.1  0.1314   -2.2  0.1003 -130.6
 7.400  0.5065  101.7   1.891    0.1  0.1337   -3.7  0.0915 -137.0
 7.600  0.5179   98.1   1.836   -2.8  0.1356   -5.3  0.0822 -145.1
 7.800  0.5322   94.6   1.782   -5.6  0.1373   -7.0  0.0730 -155.8
 8.000  0.5484   91.3   1.732   -8.6  0.1391   -8.7  0.0671 -168.9
 8.200  0.5657   88.5   1.675  -11.3  0.1398  -10.4  0.0609  172.9
 8.400  0.5842   85.9   1.622  -14.1  0.1407  -12.1  0.0617  153.1
 8.600  0.6021   83.5   1.573  -16.8  0.1415  -13.6  0.0700  134.7
 8.800  0.6190   81.5   1.527  -19.3  0.1422  -15.0  0.0847  120.5
 9.000  0.6367   79.5   1.485  -22.0  0.1429  -16.4  0.1030  110.9
 9.200  0.6518   77.3   1.440  -24.8  0.1433  -17.8  0.1235  104.5
 9.400  0.6679   75.2   1.398  -27.7  0.1438  -19.1  0.1451   99.9
 9.600  0.6793   72.8   1.350  -30.3  0.1442  -20.3  0.1669   96.9
 9.800  0.6867   70.0   1.297  -32.7  0.1445  -21.4  0.1885   94.9
10.000  0.6957   67.2   1.246  -35.2  0.1448  -22.5  0.2102   93.3
!
!  f       NFmin   Gammaopt  rn/50
! GHz       dB    MAG  ANG    -
!
! noise parameter not available yet for this operation point!
!
! (c) 2016  Infineon Technologies AG, Munich
