! Infineon Technologies  Discrete & RF Semiconductors
! BFP405F
! VCE =  2.0 V,  IC =  15 mA
! Common Emitter S-Parameters:                            Nov 2015
# GHz  S  MA  R  50
!  f         S11            S21            S12            S22
! GHz     MAG   ANG      MAG   ANG      MAG   ANG      MAG   ANG
 0.030  0.6290   -2.6  26.120  176.9  0.0009  119.6  0.9695   -0.6
 0.035  0.6291   -3.2  26.146  176.6  0.0011  121.7  0.9714   -0.7
 0.040  0.6292   -3.8  26.172  176.3  0.0013  123.1  0.9733   -0.8
 0.045  0.6259   -4.5  26.265  175.6  0.0013   40.2  0.9726   -1.2
 0.050  0.6228   -5.3  26.361  175.0  0.0027   11.7  0.9720   -1.6
 0.055  0.6269   -5.6  26.253  174.7  0.0016   68.3  0.9748   -1.8
 0.060  0.6310   -5.9  26.146  174.3  0.0028  122.0  0.9776   -1.9
 0.065  0.6270   -6.5  26.137  173.7  0.0019  106.0  0.9762   -2.1
 0.070  0.6230   -7.2  26.131  173.0  0.0014   72.5  0.9749   -2.3
 0.075  0.6227   -7.7  26.060  172.6  0.0029   71.1  0.9754   -2.5
 0.080  0.6225   -8.3  25.991  172.2  0.0044   70.6  0.9759   -2.6
 0.085  0.6229   -8.6  26.031  172.0  0.0031   67.0  0.9755   -2.8
 0.090  0.6234   -8.9  26.071  171.9  0.0019   58.5  0.9751   -3.1
 0.095  0.6248   -9.4  26.000  171.5  0.0025   76.2  0.9749   -3.4
 0.100  0.6263   -9.8  25.931  171.0  0.0032   86.6  0.9748   -3.7
 0.105  0.6245  -10.4  25.913  170.5  0.0024   90.6  0.9739   -3.8
 0.110  0.6227  -11.0  25.897  170.0  0.0017   98.1  0.9730   -4.0
 0.115  0.6227  -11.6  25.874  169.7  0.0023   92.4  0.9747   -4.2
 0.120  0.6227  -12.2  25.852  169.4  0.0029   89.1  0.9764   -4.4
 0.125  0.6215  -12.6  25.833  168.9  0.0026   90.4  0.9759   -4.7
 0.130  0.6204  -13.1  25.817  168.3  0.0023   92.0  0.9754   -5.0
 0.135  0.6194  -13.5  25.823  168.0  0.0038   83.5  0.9748   -5.1
 0.140  0.6185  -13.9  25.830  167.8  0.0054   79.9  0.9743   -5.2
 0.145  0.6169  -14.5  25.808  167.4  0.0049   84.2  0.9721   -5.4
 0.150  0.6154  -15.1  25.787  166.9  0.0045   89.4  0.9699   -5.6
 0.155  0.6144  -15.6  25.746  166.4  0.0048   86.3  0.9691   -5.8
 0.160  0.6134  -16.0  25.707  165.9  0.0051   83.6  0.9684   -6.0
 0.165  0.6124  -16.5  25.670  165.4  0.0054   81.2  0.9677   -6.2
 0.170  0.6115  -17.0  25.635  165.0  0.0057   79.1  0.9670   -6.4
 0.175  0.6106  -17.4  25.602  164.5  0.0060   77.1  0.9663   -6.6
 0.180  0.6098  -17.9  25.570  164.0  0.0063   75.4  0.9656   -6.8
 0.185  0.6090  -18.4  25.540  163.5  0.0067   73.8  0.9649   -7.0
 0.190  0.6083  -18.9  25.513  163.0  0.0070   72.4  0.9642   -7.2
 0.195  0.6076  -19.3  25.487  162.5  0.0074   71.2  0.9635   -7.4
 0.200  0.6069  -19.8  25.463  162.0  0.0077   70.0  0.9629   -7.6
 0.220  0.6013  -21.7  25.188  160.4  0.0075   70.7  0.9585   -8.4
 0.240  0.5963  -23.5  24.933  158.8  0.0072   71.5  0.9543   -9.1
 0.260  0.5910  -25.3  24.700  157.2  0.0074   72.7  0.9492   -9.8
 0.280  0.5854  -27.1  24.491  155.5  0.0079   74.1  0.9431  -10.5
 0.300  0.5803  -28.8  24.302  153.8  0.0085   75.3  0.9372  -11.2
 0.320  0.5736  -30.6  24.008  152.3  0.0091   76.7  0.9325  -11.9
 0.340  0.5675  -32.4  23.731  150.8  0.0098   77.9  0.9279  -12.6
 0.360  0.5613  -34.1  23.463  149.3  0.0102   77.7  0.9228  -13.2
 0.380  0.5547  -35.9  23.202  147.7  0.0105   76.3  0.9173  -13.9
 0.400  0.5487  -37.6  22.958  146.2  0.0107   74.9  0.9119  -14.6
 0.420  0.5422  -39.1  22.661  144.9  0.0113   75.6  0.9056  -15.1
 0.440  0.5361  -40.7  22.376  143.5  0.0118   76.2  0.8994  -15.6
 0.450  0.5332  -41.5  22.239  142.8  0.0121   76.5  0.8963  -15.9
 0.460  0.5297  -42.2  22.084  142.1  0.0123   76.2  0.8932  -16.2
 0.480  0.5230  -43.7  21.783  140.8  0.0128   75.6  0.8870  -16.7
 0.500  0.5167  -45.2  21.494  139.4  0.0133   75.0  0.8809  -17.3
 0.520  0.5091  -46.6  21.186  138.2  0.0136   75.0  0.8746  -17.7
 0.540  0.5017  -48.1  20.888  137.0  0.0139   75.1  0.8683  -18.2
 0.560  0.4947  -49.6  20.599  135.8  0.0143   75.1  0.8620  -18.6
 0.580  0.4881  -51.1  20.320  134.5  0.0146   75.2  0.8558  -19.0
 0.600  0.4818  -52.7  20.051  133.2  0.0149   75.2  0.8497  -19.5
 0.620  0.4749  -53.9  19.772  132.2  0.0153   74.7  0.8439  -19.9
 0.640  0.4682  -55.2  19.499  131.1  0.0157   74.2  0.8381  -20.3
 0.660  0.4618  -56.4  19.233  130.0  0.0162   73.8  0.8324  -20.7
 0.680  0.4556  -57.7  18.975  128.9  0.0166   73.4  0.8267  -21.1
 0.700  0.4496  -59.1  18.723  127.8  0.0170   73.0  0.8211  -21.5
 0.720  0.4432  -60.3  18.438  126.9  0.0174   72.5  0.8153  -21.8
 0.740  0.4370  -61.5  18.158  125.9  0.0178   72.0  0.8095  -22.2
 0.760  0.4310  -62.8  17.884  124.9  0.0183   71.5  0.8037  -22.5
 0.780  0.4252  -64.1  17.615  123.9  0.0187   71.0  0.7980  -22.9
 0.800  0.4196  -65.4  17.352  122.8  0.0191   70.6  0.7923  -23.2
 0.820  0.4136  -66.5  17.113  121.9  0.0194   70.6  0.7871  -23.5
 0.840  0.4078  -67.5  16.877  121.1  0.0197   70.6  0.7820  -23.8
 0.860  0.4022  -68.7  16.646  120.2  0.0201   70.6  0.7769  -24.1
 0.880  0.3966  -69.8  16.419  119.3  0.0204   70.6  0.7718  -24.4
 0.900  0.3913  -71.0  16.196  118.3  0.0207   70.6  0.7667  -24.7
 0.920  0.3863  -72.0  15.968  117.6  0.0211   70.5  0.7617  -25.0
 0.940  0.3814  -73.1  15.743  116.8  0.0215   70.3  0.7567  -25.2
 0.960  0.3767  -74.2  15.520  116.0  0.0218   70.2  0.7518  -25.5
 0.980  0.3721  -75.3  15.300  115.2  0.0222   70.1  0.7468  -25.8
 1.000  0.3677  -76.5  15.084  114.4  0.0226   70.0  0.7419  -26.1
 1.020  0.3626  -77.4  14.880  113.7  0.0229   69.9  0.7374  -26.3
 1.040  0.3577  -78.4  14.677  113.1  0.0231   69.8  0.7329  -26.5
 1.060  0.3529  -79.4  14.477  112.4  0.0234   69.7  0.7285  -26.8
 1.080  0.3481  -80.4  14.279  111.6  0.0236   69.6  0.7240  -27.0
 1.100  0.3435  -81.5  14.083  110.9  0.0239   69.5  0.7196  -27.2
 1.120  0.3393  -82.5  13.902  110.3  0.0244   69.4  0.7156  -27.4
 1.140  0.3353  -83.5  13.723  109.6  0.0249   69.3  0.7117  -27.6
 1.160  0.3313  -84.5  13.546  108.9  0.0253   69.2  0.7077  -27.8
 1.180  0.3274  -85.5  13.371  108.2  0.0258   69.1  0.7037  -28.0
 1.200  0.3237  -86.6  13.198  107.5  0.0263   69.0  0.6998  -28.2
 1.220  0.3197  -87.5  13.031  106.9  0.0265   68.8  0.6959  -28.4
 1.240  0.3157  -88.4  12.866  106.3  0.0268   68.7  0.6920  -28.6
 1.260  0.3118  -89.4  12.703  105.7  0.0270   68.5  0.6881  -28.7
 1.280  0.3080  -90.3  12.541  105.1  0.0273   68.4  0.6842  -28.9
 1.300  0.3043  -91.3  12.380  104.4  0.0275   68.2  0.6803  -29.1
 1.320  0.3013  -92.2  12.229  103.9  0.0279   68.3  0.6767  -29.3
 1.340  0.2984  -93.0  12.079  103.4  0.0282   68.4  0.6731  -29.5
 1.360  0.2956  -93.9  11.930  102.9  0.0286   68.4  0.6695  -29.6
 1.380  0.2928  -94.9  11.782  102.3  0.0289   68.5  0.6659  -29.8
 1.400  0.2901  -95.8  11.635  101.8  0.0293   68.6  0.6623  -30.0
 1.420  0.2870  -96.7  11.501  101.3  0.0295   68.6  0.6592  -30.2
 1.440  0.2839  -97.5  11.368  100.8  0.0298   68.7  0.6562  -30.3
 1.460  0.2809  -98.4  11.236  100.3  0.0300   68.7  0.6531  -30.5
 1.480  0.2780  -99.4  11.105   99.8  0.0303   68.8  0.6500  -30.6
 1.500  0.2752 -100.3  10.975   99.3  0.0305   68.8  0.6470  -30.8
 1.520  0.2728 -101.1  10.854   98.8  0.0308   68.8  0.6440  -31.0
 1.540  0.2704 -102.0  10.734   98.4  0.0310   68.9  0.6409  -31.1
 1.560  0.2681 -102.9  10.615   97.9  0.0313   68.9  0.6379  -31.3
 1.580  0.2659 -103.8  10.496   97.4  0.0315   69.0  0.6348  -31.4
 1.600  0.2637 -104.7  10.378   96.9  0.0318   69.0  0.6318  -31.6
 1.620  0.2615 -105.5  10.262   96.5  0.0322   68.8  0.6287  -31.8
 1.640  0.2594 -106.2  10.146   96.0  0.0326   68.7  0.6257  -31.9
 1.660  0.2573 -107.0  10.032   95.6  0.0329   68.5  0.6226  -32.1
 1.680  0.2553 -107.8   9.917   95.1  0.0333   68.4  0.6196  -32.2
 1.700  0.2533 -108.6   9.804   94.6  0.0337   68.2  0.6165  -32.4
 1.720  0.2512 -109.5   9.704   94.2  0.0340   68.2  0.6137  -32.6
 1.740  0.2491 -110.4   9.604   93.8  0.0343   68.2  0.6109  -32.7
 1.760  0.2471 -111.3   9.505   93.4  0.0346   68.3  0.6081  -32.9
 1.780  0.2451 -112.2   9.406   92.9  0.0349   68.3  0.6053  -33.0
 1.800  0.2432 -113.1   9.308   92.5  0.0352   68.3  0.6025  -33.2
 1.820  0.2415 -113.8   9.218   92.2  0.0357   68.3  0.6000  -33.3
 1.840  0.2399 -114.6   9.128   91.8  0.0361   68.4  0.5974  -33.5
 1.860  0.2383 -115.3   9.038   91.4  0.0366   68.4  0.5949  -33.6
 1.880  0.2368 -116.1   8.949   91.1  0.0370   68.5  0.5924  -33.8
 1.900  0.2353 -116.9   8.860   90.7  0.0375   68.5  0.5899  -33.9
 1.920  0.2340 -117.7   8.779   90.3  0.0378   68.8  0.5879  -34.1
 1.940  0.2328 -118.6   8.698   89.9  0.0380   69.0  0.5858  -34.4
 1.960  0.2316 -119.5   8.617   89.5  0.0383   69.3  0.5838  -34.6
 1.980  0.2305 -120.3   8.537   89.1  0.0385   69.5  0.5818  -34.9
 2.000  0.2294 -121.2   8.457   88.7  0.0388   69.8  0.5798  -35.1
 2.020  0.2282 -121.9   8.378   88.4  0.0391   69.4  0.5776  -35.3
 2.040  0.2270 -122.7   8.299   88.0  0.0393   69.1  0.5754  -35.4
 2.060  0.2258 -123.4   8.221   87.6  0.0396   68.7  0.5732  -35.6
 2.080  0.2247 -124.1   8.143   87.3  0.0398   68.4  0.5710  -35.7
 2.100  0.2236 -124.9   8.065   86.9  0.0401   68.0  0.5688  -35.9
 2.120  0.2223 -125.7   7.991   86.6  0.0404   67.8  0.5667  -36.1
 2.140  0.2210 -126.5   7.918   86.2  0.0407   67.6  0.5645  -36.2
 2.160  0.2198 -127.3   7.845   85.8  0.0411   67.5  0.5624  -36.4
 2.180  0.2186 -128.1   7.772   85.5  0.0414   67.3  0.5603  -36.5
 2.200  0.2175 -128.9   7.700   85.1  0.0417   67.1  0.5582  -36.7
 2.220  0.2165 -129.6   7.633   84.8  0.0422   67.2  0.5563  -36.8
 2.240  0.2155 -130.4   7.567   84.5  0.0427   67.3  0.5544  -36.9
 2.260  0.2145 -131.2   7.501   84.2  0.0431   67.5  0.5524  -37.1
 2.280  0.2136 -131.9   7.435   83.9  0.0436   67.6  0.5505  -37.2
 2.300  0.2127 -132.7   7.369   83.6  0.0441   67.7  0.5486  -37.3
 2.320  0.2120 -133.3   7.308   83.3  0.0442   67.6  0.5468  -37.5
 2.340  0.2112 -133.9   7.247   83.0  0.0443   67.5  0.5451  -37.7
 2.360  0.2105 -134.5   7.187   82.7  0.0443   67.5  0.5434  -37.8
 2.380  0.2099 -135.2   7.126   82.3  0.0444   67.4  0.5416  -38.0
 2.400  0.2092 -135.8   7.066   82.0  0.0445   67.3  0.5399  -38.2
 2.420  0.2082 -136.5   7.008   81.7  0.0450   67.1  0.5383  -38.3
 2.440  0.2071 -137.2   6.950   81.4  0.0455   67.0  0.5367  -38.4
 2.460  0.2062 -137.9   6.893   81.1  0.0459   66.8  0.5351  -38.6
 2.480  0.2052 -138.6   6.835   80.8  0.0464   66.7  0.5335  -38.7
 2.500  0.2043 -139.3   6.778   80.5  0.0469   66.5  0.5319  -38.8
 2.520  0.2034 -139.9   6.724   80.2  0.0471   66.5  0.5306  -38.9
 2.540  0.2025 -140.5   6.670   80.0  0.0473   66.4  0.5294  -39.1
 2.560  0.2017 -141.1   6.616   79.7  0.0476   66.4  0.5281  -39.2
 2.580  0.2009 -141.8   6.562   79.4  0.0478   66.3  0.5269  -39.4
 2.600  0.2001 -142.4   6.508   79.1  0.0480   66.3  0.5256  -39.5
 2.620  0.1996 -143.1   6.460   78.8  0.0483   66.5  0.5240  -39.6
 2.640  0.1991 -143.8   6.412   78.6  0.0486   66.6  0.5223  -39.7
 2.660  0.1986 -144.4   6.364   78.3  0.0489   66.8  0.5207  -39.9
 2.680  0.1981 -145.1   6.316   78.0  0.0492   66.9  0.5190  -40.0
 2.700  0.1977 -145.8   6.269   77.7  0.0495   67.1  0.5174  -40.1
 2.720  0.1972 -146.4   6.225   77.4  0.0499   66.9  0.5163  -40.2
 2.740  0.1967 -147.0   6.180   77.2  0.0503   66.8  0.5152  -40.4
 2.760  0.1962 -147.5   6.136   76.9  0.0507   66.6  0.5142  -40.5
 2.780  0.1957 -148.1   6.092   76.7  0.0511   66.5  0.5131  -40.7
 2.800  0.1953 -148.7   6.048   76.4  0.0515   66.3  0.5120  -40.8
 2.820  0.1950 -149.3   6.004   76.1  0.0517   66.2  0.5108  -40.9
 2.840  0.1947 -149.8   5.960   75.9  0.0520   66.2  0.5096  -41.0
 2.860  0.1945 -150.4   5.916   75.6  0.0522   66.1  0.5085  -41.2
 2.880  0.1942 -150.9   5.872   75.4  0.0525   66.1  0.5073  -41.3
 2.900  0.1940 -151.5   5.828   75.1  0.0527   66.0  0.5061  -41.4
 2.920  0.1935 -152.1   5.789   74.9  0.0532   66.0  0.5050  -41.5
 2.940  0.1929 -152.7   5.750   74.6  0.0537   65.9  0.5038  -41.7
 2.960  0.1924 -153.3   5.712   74.4  0.0542   65.9  0.5027  -41.8
 2.980  0.1920 -153.9   5.673   74.1  0.0547   65.8  0.5015  -42.0
 3.000  0.1915 -154.5   5.635   73.9  0.0552   65.8  0.5004  -42.1
 3.100  0.1899 -157.1   5.442   72.7  0.0560   65.3  0.4949  -42.7
 3.200  0.1878 -160.3   5.266   71.4  0.0579   65.2  0.4902  -43.4
 3.300  0.1870 -162.5   5.108   70.3  0.0601   64.7  0.4857  -43.9
 3.400  0.1849 -165.7   4.946   69.2  0.0614   64.6  0.4824  -44.6
 3.500  0.1840 -167.7   4.805   68.0  0.0638   64.4  0.4795  -45.0
 3.600  0.1834 -170.4   4.662   67.0  0.0651   63.9  0.4752  -45.4
 3.700  0.1823 -172.9   4.535   65.9  0.0667   63.9  0.4725  -45.9
 3.800  0.1828 -175.2   4.408   64.9  0.0679   63.5  0.4693  -46.4
 3.900  0.1826 -177.2   4.295   63.9  0.0701   63.5  0.4661  -47.0
 4.000  0.1823 -179.3   4.188   62.9  0.0715   62.9  0.4643  -47.3
 4.100  0.1832  178.1   4.083   61.9  0.0733   62.0  0.4597  -47.8
 4.200  0.1828  175.6   3.984   61.0  0.0746   61.9  0.4573  -48.2
 4.300  0.1859  173.6   3.892   59.9  0.0765   61.8  0.4537  -48.7
 4.400  0.1855  170.9   3.803   59.0  0.0784   61.3  0.4520  -49.2
 4.500  0.1876  169.5   3.717   58.1  0.0798   60.7  0.4492  -49.4
 4.600  0.1882  166.8   3.633   57.0  0.0815   60.8  0.4459  -49.9
 4.700  0.1903  165.6   3.557   56.1  0.0833   60.3  0.4421  -50.2
 4.800  0.1922  163.2   3.484   55.2  0.0851   60.1  0.4403  -50.7
 4.900  0.1937  162.0   3.413   54.4  0.0870   59.6  0.4371  -51.0
 5.000  0.1956  160.0   3.346   53.3  0.0879   59.1  0.4341  -51.5
 5.100  0.1968  158.2   3.280   52.5  0.0906   58.8  0.4312  -51.9
 5.200  0.1990  156.5   3.220   51.5  0.0924   58.4  0.4280  -52.3
 5.300  0.2009  154.6   3.158   50.6  0.0935   57.9  0.4254  -52.7
 5.400  0.2014  153.4   3.102   49.7  0.0954   57.5  0.4232  -53.1
 5.500  0.2038  151.7   3.046   48.8  0.0982   57.2  0.4206  -53.4
 5.600  0.2047  150.2   2.992   47.8  0.0988   56.6  0.4180  -53.8
 5.700  0.2071  148.5   2.940   46.9  0.1011   56.1  0.4150  -54.2
 5.800  0.2082  147.1   2.892   46.0  0.1028   55.3  0.4130  -54.6
 5.900  0.2103  145.3   2.843   45.2  0.1037   55.3  0.4099  -54.9
 6.000  0.2107  143.9   2.795   44.3  0.1062   54.8  0.4083  -55.3
 6.100  0.2119  142.2   2.747   43.4  0.1078   54.6  0.4057  -55.5
 6.200  0.2136  140.7   2.703   42.5  0.1093   54.2  0.4032  -56.0
 6.300  0.2160  138.9   2.663   41.6  0.1112   53.5  0.3999  -56.3
 6.400  0.2160  137.2   2.620   40.7  0.1126   53.1  0.3978  -56.7
 6.500  0.2191  135.4   2.577   39.8  0.1146   52.6  0.3952  -56.9
 6.600  0.2204  133.8   2.539   39.0  0.1161   52.1  0.3921  -57.2
 6.800  0.2253  130.2   2.464   37.3  0.1193   51.4  0.3872  -57.6
 7.000  0.2298  126.8   2.391   35.6  0.1229   50.6  0.3810  -57.8
 7.200  0.2370  123.5   2.323   34.0  0.1269   49.9  0.3716  -58.2
 7.400  0.2458  120.9   2.261   32.4  0.1301   49.1  0.3637  -58.6
 7.600  0.2556  118.6   2.204   30.9  0.1346   48.2  0.3545  -58.8
 7.800  0.2667  116.7   2.151   29.4  0.1384   47.4  0.3423  -59.2
 8.000  0.2791  115.1   2.099   27.8  0.1422   46.4  0.3285  -59.7
 8.200  0.2941  113.9   2.055   26.3  0.1460   45.2  0.3114  -60.1
 8.400  0.3091  112.8   2.012   24.6  0.1499   44.1  0.2943  -60.6
 8.600  0.3243  111.9   1.971   23.0  0.1539   43.1  0.2750  -61.2
 8.800  0.3395  111.0   1.932   21.4  0.1580   42.0  0.2536  -61.8
 9.000  0.3548  110.3   1.894   19.8  0.1621   41.0  0.2321  -62.5
 9.200  0.3688  109.5   1.859   18.2  0.1661   39.9  0.2085  -63.7
 9.400  0.3829  108.8   1.825   16.6  0.1702   38.8  0.1851  -65.1
 9.600  0.3962  107.9   1.793   15.0  0.1743   37.6  0.1609  -67.2
 9.800  0.4086  107.0   1.763   13.3  0.1784   36.3  0.1363  -70.4
10.000  0.4212  106.1   1.735   11.5  0.1825   35.1  0.1123  -74.9
10.200  0.4334  104.6   1.704    9.8  0.1863   33.7  0.0873  -82.6
10.400  0.4459  103.2   1.675    8.0  0.1901   32.4  0.0650  -95.9
10.600  0.4575  101.5   1.645    6.2  0.1935   31.1  0.0518 -121.0
10.800  0.4686   99.6   1.613    4.3  0.1965   29.7  0.0549 -152.1
11.000  0.4801   97.8   1.583    2.4  0.1996   28.3  0.0707 -174.3
11.200  0.4892   95.8   1.546    0.7  0.2018   27.0  0.0952  175.8
11.400  0.4989   93.8   1.510   -1.1  0.2040   25.7  0.1215  170.0
11.600  0.5056   92.3   1.476   -2.6  0.2064   24.6  0.1478  168.4
11.800  0.5091   91.0   1.442   -3.9  0.2089   23.8  0.1735  169.0
12.000  0.5129   89.8   1.409   -5.3  0.2114   22.9  0.1992  169.4
!
!  f       NFmin   Gammaopt  rn/50
! GHz       dB    MAG  ANG    -
 0.450      1.97  0.11    2   0.35
 0.900      1.99  0.10    4   0.33
 1.500      2.03  0.08    8   0.23
 1.900      2.09  0.06   10   0.28
 2.400      2.24  0.04   13   0.42
 3.000      2.32  0.03    6   0.36
 3.500      2.38  0.01  -46   0.48
 4.500      2.58  0.08  -93   0.25
 5.500      2.83  0.16  -88   0.10
!
! (c) 2015  Infineon Technologies AG, Munich
