! Infineon Technologies  Discrete & RF Semiconductors
! BFP420F
!
! VCE =  2.0 V,  IC =  10 mA
! Common Emitter S-Parameters:                            Sep 2011
# GHz  S  MA  R  50
!  f         S11            S21            S12            S22
! GHz     MAG   ANG      MAG   ANG      MAG   ANG      MAG   ANG
 0.030  0.6844   -5.0  26.233  175.3  0.0026   91.5  0.9772   -2.8
 0.040  0.6802   -6.4  26.227  173.9  0.0035   87.6  0.9769   -3.8
 0.050  0.6744   -7.9  25.946  172.2  0.0041   89.5  0.9756   -4.9
 0.060  0.6814  -10.4  25.973  171.4  0.0050   85.6  0.9743   -5.9
 0.070  0.6804  -12.1  25.952  170.2  0.0061   87.6  0.9722   -6.9
 0.080  0.6732  -13.5  25.636  168.7  0.0068   85.0  0.9693   -7.8
 0.090  0.6718  -15.2  25.600  167.5  0.0078   82.8  0.9663   -8.8
 0.100  0.6684  -16.7  25.581  166.1  0.0086   82.7  0.9629   -9.8
 0.110  0.6721  -18.3  25.171  165.1  0.0094   82.1  0.9597  -10.7
 0.120  0.6653  -20.2  25.209  163.5  0.0102   81.7  0.9558  -11.7
 0.130  0.6660  -21.7  24.885  162.4  0.0111   80.4  0.9515  -12.6
 0.140  0.6635  -23.2  24.708  161.2  0.0118   80.6  0.9471  -13.5
 0.150  0.6609  -25.0  24.577  160.1  0.0126   79.5  0.9429  -14.4
 0.200  0.6502  -32.8  23.670  154.8  0.0165   76.3  0.9187  -18.8
 0.250  0.6327  -40.4  22.663  149.5  0.0198   73.4  0.8896  -22.9
 0.300  0.6160  -47.5  21.821  144.7  0.0234   70.8  0.8615  -26.6
 0.350  0.5995  -54.3  20.819  140.3  0.0264   68.4  0.8289  -30.1
 0.400  0.5833  -60.8  19.818  136.0  0.0292   66.2  0.7978  -33.3
 0.450  0.5673  -66.7  18.929  132.3  0.0318   64.2  0.7672  -36.3
 0.500  0.5509  -72.4  17.980  128.7  0.0341   62.5  0.7355  -39.0
 0.600  0.5208  -83.3  16.275  122.2  0.0382   59.6  0.6758  -44.0
 0.700  0.4976  -92.7  14.849  116.6  0.0419   57.4  0.6247  -48.2
 0.800  0.4780 -101.4  13.509  111.5  0.0451   55.8  0.5766  -52.0
 0.900  0.4602 -108.9  12.319  107.4  0.0479   54.5  0.5337  -55.2
 1.000  0.4489 -115.9  11.343  103.6  0.0507   53.8  0.4962  -58.2
 1.100  0.4368 -122.2  10.472  100.1  0.0531   53.0  0.4618  -60.9
 1.200  0.4278 -128.1   9.641   96.9  0.0556   52.5  0.4332  -63.6
 1.300  0.4208 -133.0   8.982   94.3  0.0580   52.2  0.4071  -65.8
 1.400  0.4176 -137.9   8.404   91.8  0.0604   52.0  0.3838  -68.3
 1.500  0.4111 -142.6   7.850   89.0  0.0627   51.8  0.3617  -70.2
 1.600  0.4079 -146.5   7.324   87.0  0.0649   51.6  0.3426  -72.6
 1.700  0.4053 -150.0   6.924   85.2  0.0672   51.6  0.3248  -74.6
 1.800  0.4052 -153.3   6.566   83.4  0.0696   51.6  0.3101  -76.8
 1.900  0.4035 -157.0   6.223   81.1  0.0719   51.5  0.2966  -78.8
 2.000  0.4010 -159.8   5.854   79.5  0.0742   51.3  0.2844  -81.0
 2.200  0.4011 -164.9   5.354   76.5  0.0788   51.3  0.2652  -85.0
 2.400  0.3980 -169.6   4.860   73.3  0.0837   50.9  0.2502  -88.7
 2.600  0.3992 -173.7   4.491   70.8  0.0883   50.9  0.2375  -92.3
 2.800  0.3988 -177.7   4.167   68.0  0.0935   50.4  0.2285  -95.6
 3.000  0.3994  178.4   3.879   65.6  0.0982   50.2  0.2204  -98.8
 3.500  0.4035  170.3   3.320   59.7  0.1109   49.0  0.2064 -105.8
 4.000  0.4082  162.8   2.908   54.1  0.1239   47.3  0.1958 -111.9
 4.500  0.4153  156.5   2.593   48.8  0.1371   45.3  0.1837 -117.6
 5.000  0.4206  151.1   2.343   43.6  0.1500   43.0  0.1703 -123.2
 5.500  0.4250  145.4   2.140   38.5  0.1629   40.5  0.1545 -129.6
 6.000  0.4327  139.4   1.971   33.4  0.1756   37.9  0.1358 -137.3
 6.500  0.4439  133.2   1.825   28.4  0.1878   35.1  0.1192 -149.1
 7.000  0.4582  126.9   1.697   23.3  0.2000   32.2  0.1030 -163.7
 7.500  0.4800  121.9   1.585   18.5  0.2126   29.3  0.0959  176.3
 8.000  0.5048  117.5   1.482   13.7  0.2243   25.9  0.1056  151.6
 8.500  0.5332  113.4   1.384    8.9  0.2338   22.4  0.1359  128.0
 9.000  0.5614  109.9   1.295    4.6  0.2419   19.2  0.1830  112.0
 9.500  0.5888  106.6   1.216    0.8  0.2494   16.3  0.2418  103.4
10.000  0.6196  102.8   1.146   -2.7  0.2570   13.6  0.3062   99.1
!
!  f       NFmin   Gammaopt  rn/50
! GHz       dB    MAG  ANG    -
 0.450      1.18  0.02   48   0.13
 0.900      1.19  0.06   87   0.14
 1.900      1.33  0.14  155   0.27
 2.400      1.39  0.15  158   0.17
 3.500      1.66  0.20  179   0.18
!
! (c) 2011  Infineon Technologies AG, Munich
