! Infineon Technologies  Discrete & RF Semiconductors
! BFP420
! VCE =  3.5 V,  IC =  3.0 mA
! Common Emitter S-Parameters:                            Jan 2016
# GHz  S  MA  R  50
!  f         S11            S21            S12            S22
! GHz     MAG   ANG      MAG   ANG      MAG   ANG      MAG   ANG
 0.010  0.9043   -1.4  10.398  179.1  0.0005   61.3  0.9909    0.2
 0.015  0.9012   -1.5  10.264  178.9  0.0012   73.3  0.9911   -0.4
 0.020  0.8982   -1.7  10.131  178.7  0.0020   76.3  0.9913   -0.9
 0.025  0.8982   -2.2  10.134  178.3  0.0024   78.2  0.9913   -1.1
 0.030  0.8982   -2.6  10.138  178.0  0.0029   79.5  0.9912   -1.4
 0.035  0.8983   -3.1  10.142  177.6  0.0033   80.5  0.9912   -1.6
 0.040  0.8985   -3.6  10.146  177.2  0.0037   81.2  0.9912   -1.9
 0.045  0.8987   -4.0  10.151  176.9  0.0042   81.8  0.9913   -2.2
 0.050  0.8990   -4.5  10.156  176.5  0.0046   82.3  0.9913   -2.4
 0.055  0.8986   -4.9  10.158  176.2  0.0050   82.4  0.9910   -2.6
 0.060  0.8983   -5.4  10.161  175.8  0.0055   82.5  0.9908   -2.9
 0.065  0.8980   -5.8  10.164  175.5  0.0059   82.6  0.9906   -3.1
 0.070  0.8978   -6.3  10.167  175.2  0.0063   82.7  0.9904   -3.4
 0.075  0.8976   -6.7  10.171  174.8  0.0067   82.8  0.9902   -3.6
 0.080  0.8975   -7.1  10.175  174.5  0.0072   82.8  0.9900   -3.9
 0.085  0.8974   -7.6  10.179  174.2  0.0076   82.9  0.9898   -4.1
 0.090  0.8974   -8.0  10.184  173.9  0.0080   82.9  0.9897   -4.4
 0.095  0.8974   -8.5  10.189  173.5  0.0085   83.0  0.9896   -4.6
 0.100  0.8975   -8.9  10.194  173.2  0.0089   83.0  0.9895   -4.9
 0.105  0.8968   -9.3  10.189  172.9  0.0093   82.8  0.9890   -5.1
 0.110  0.8961   -9.8  10.184  172.5  0.0098   82.6  0.9885   -5.4
 0.115  0.8955  -10.2  10.179  172.2  0.0102   82.4  0.9880   -5.6
 0.120  0.8950  -10.7  10.175  171.8  0.0107   82.2  0.9875   -5.9
 0.125  0.8945  -11.1  10.171  171.5  0.0111   82.1  0.9871   -6.1
 0.130  0.8940  -11.6  10.167  171.2  0.0116   82.0  0.9866   -6.4
 0.135  0.8936  -12.0  10.164  170.8  0.0120   81.8  0.9862   -6.6
 0.140  0.8933  -12.5  10.161  170.5  0.0125   81.7  0.9858   -6.9
 0.145  0.8930  -12.9  10.158  170.1  0.0129   81.6  0.9855   -7.1
 0.150  0.8928  -13.4  10.156  169.8  0.0134   81.5  0.9851   -7.4
 0.155  0.8923  -13.8  10.148  169.5  0.0138   81.2  0.9845   -7.6
 0.160  0.8919  -14.3  10.141  169.1  0.0143   81.0  0.9838   -7.9
 0.165  0.8916  -14.7  10.134  168.8  0.0147   80.8  0.9832   -8.1
 0.170  0.8912  -15.2  10.128  168.4  0.0152   80.6  0.9827   -8.4
 0.175  0.8910  -15.6  10.122  168.1  0.0156   80.4  0.9821   -8.6
 0.180  0.8908  -16.0  10.116  167.8  0.0160   80.2  0.9815   -8.8
 0.185  0.8906  -16.5  10.110  167.4  0.0165   80.0  0.9810   -9.1
 0.190  0.8905  -16.9  10.105  167.1  0.0169   79.8  0.9805   -9.3
 0.195  0.8905  -17.4  10.100  166.7  0.0174   79.7  0.9800   -9.6
 0.200  0.8905  -17.8  10.096  166.4  0.0178   79.5  0.9795   -9.8
 0.220  0.8870  -19.6  10.049  165.0  0.0196   78.4  0.9764  -10.8
 0.240  0.8843  -21.3  10.008  163.6  0.0213   77.5  0.9736  -11.7
 0.260  0.8818  -23.1   9.974  162.3  0.0230   76.6  0.9704  -12.7
 0.280  0.8793  -24.9   9.945  161.0  0.0247   75.8  0.9667  -13.6
 0.300  0.8778  -26.7   9.921  159.8  0.0263   75.0  0.9633  -14.6
 0.320  0.8741  -28.4   9.874  158.5  0.0280   74.0  0.9591  -15.6
 0.340  0.8712  -30.1   9.831  157.2  0.0297   73.1  0.9551  -16.5
 0.360  0.8680  -31.9   9.783  155.9  0.0313   72.2  0.9507  -17.5
 0.380  0.8647  -33.6   9.730  154.6  0.0328   71.3  0.9459  -18.4
 0.400  0.8621  -35.3   9.682  153.3  0.0344   70.4  0.9414  -19.3
 0.420  0.8577  -37.0   9.625  152.1  0.0360   69.5  0.9364  -20.2
 0.440  0.8541  -38.7   9.572  150.8  0.0375   68.7  0.9315  -21.1
 0.450  0.8526  -39.6   9.547  150.2  0.0383   68.3  0.9292  -21.5
 0.460  0.8504  -40.4   9.513  149.6  0.0390   67.8  0.9263  -21.9
 0.480  0.8466  -42.1   9.449  148.3  0.0405   66.9  0.9206  -22.8
 0.500  0.8435  -43.8   9.390  147.0  0.0420   66.1  0.9152  -23.7
 0.520  0.8377  -45.4   9.318  145.8  0.0433   65.2  0.9090  -24.5
 0.540  0.8327  -47.1   9.251  144.7  0.0447   64.3  0.9030  -25.4
 0.560  0.8283  -48.8   9.187  143.4  0.0461   63.4  0.8972  -26.2
 0.580  0.8247  -50.5   9.127  142.2  0.0474   62.6  0.8917  -27.1
 0.600  0.8218  -52.2   9.072  141.0  0.0488   61.9  0.8863  -28.0
 0.620  0.8162  -53.7   8.995  139.9  0.0500   61.0  0.8796  -28.8
 0.640  0.8112  -55.3   8.922  138.8  0.0513   60.2  0.8731  -29.5
 0.660  0.8069  -56.9   8.852  137.6  0.0526   59.4  0.8667  -30.3
 0.680  0.8031  -58.5   8.786  136.5  0.0538   58.6  0.8605  -31.1
 0.700  0.8000  -60.1   8.723  135.3  0.0551   57.9  0.8544  -31.9
 0.720  0.7946  -61.6   8.640  134.3  0.0562   57.1  0.8476  -32.6
 0.740  0.7897  -63.1   8.561  133.2  0.0573   56.4  0.8410  -33.3
 0.760  0.7854  -64.7   8.484  132.1  0.0584   55.7  0.8345  -34.1
 0.780  0.7817  -66.2   8.410  131.0  0.0595   55.0  0.8281  -34.8
 0.800  0.7785  -67.8   8.340  129.9  0.0606   54.3  0.8219  -35.6
 0.820  0.7732  -69.2   8.262  128.9  0.0616   53.6  0.8151  -36.3
 0.840  0.7684  -70.7   8.186  127.9  0.0625   52.9  0.8084  -37.0
 0.860  0.7642  -72.2   8.113  126.9  0.0635   52.2  0.8019  -37.7
 0.880  0.7604  -73.7   8.043  125.9  0.0645   51.5  0.7954  -38.4
 0.900  0.7572  -75.2   7.975  124.8  0.0655   50.9  0.7891  -39.1
 0.920  0.7522  -76.6   7.899  123.9  0.0664   50.2  0.7824  -39.7
 0.940  0.7476  -78.1   7.825  123.0  0.0673   49.6  0.7757  -40.4
 0.960  0.7435  -79.5   7.753  122.0  0.0682   48.9  0.7692  -41.0
 0.980  0.7399  -81.0   7.683  121.1  0.0692   48.3  0.7627  -41.7
 1.000  0.7368  -82.5   7.615  120.1  0.0701   47.7  0.7564  -42.4
 1.020  0.7324  -83.8   7.540  119.2  0.0709   47.1  0.7500  -43.0
 1.040  0.7284  -85.2   7.467  118.4  0.0716   46.5  0.7436  -43.6
 1.060  0.7248  -86.5   7.396  117.5  0.0724   45.9  0.7374  -44.2
 1.080  0.7216  -87.9   7.326  116.5  0.0732   45.4  0.7312  -44.8
 1.100  0.7188  -89.3   7.259  115.6  0.0740   44.8  0.7251  -45.4
 1.120  0.7143  -90.6   7.188  114.8  0.0747   44.2  0.7186  -46.0
 1.140  0.7101  -91.9   7.118  113.9  0.0754   43.7  0.7123  -46.6
 1.160  0.7064  -93.3   7.051  113.0  0.0761   43.2  0.7060  -47.2
 1.180  0.7030  -94.6   6.984  112.1  0.0768   42.6  0.6997  -47.8
 1.200  0.7000  -96.0   6.920  111.2  0.0775   42.1  0.6936  -48.4
 1.220  0.6962  -97.2   6.853  110.4  0.0781   41.6  0.6876  -48.9
 1.240  0.6928  -98.4   6.787  109.7  0.0787   41.1  0.6817  -49.5
 1.260  0.6896  -99.7   6.723  108.9  0.0793   40.6  0.6759  -50.0
 1.280  0.6868 -100.9   6.660  108.1  0.0799   40.1  0.6701  -50.5
 1.300  0.6843 -102.2   6.598  107.3  0.0805   39.6  0.6644  -51.1
 1.320  0.6807 -103.4   6.535  106.5  0.0810   39.1  0.6586  -51.6
 1.340  0.6775 -104.7   6.473  105.7  0.0816   38.6  0.6529  -52.1
 1.360  0.6746 -105.9   6.412  104.9  0.0821   38.1  0.6473  -52.6
 1.380  0.6720 -107.2   6.352  104.1  0.0826   37.7  0.6417  -53.1
 1.400  0.6698 -108.5   6.294  103.3  0.0832   37.2  0.6361  -53.6
 1.420  0.6667 -109.6   6.236  102.6  0.0837   36.8  0.6306  -54.1
 1.440  0.6638 -110.8   6.179  101.9  0.0842   36.3  0.6252  -54.5
 1.460  0.6612 -111.9   6.123  101.2  0.0847   35.9  0.6198  -55.0
 1.480  0.6589 -113.0   6.067  100.5  0.0853   35.5  0.6144  -55.5
 1.500  0.6568 -114.2   6.013   99.8  0.0858   35.1  0.6091  -56.0
 1.520  0.6540 -115.3   5.957   99.1  0.0862   34.7  0.6040  -56.4
 1.540  0.6515 -116.4   5.902   98.4  0.0866   34.2  0.5988  -56.9
 1.560  0.6492 -117.5   5.848   97.7  0.0870   33.8  0.5938  -57.3
 1.580  0.6472 -118.7   5.795   97.0  0.0874   33.4  0.5887  -57.7
 1.600  0.6454 -119.8   5.743   96.3  0.0878   33.0  0.5837  -58.2
 1.620  0.6425 -120.9   5.692   95.7  0.0882   32.6  0.5788  -58.6
 1.640  0.6398 -122.0   5.642   95.0  0.0886   32.3  0.5739  -59.1
 1.660  0.6374 -123.1   5.593   94.4  0.0890   31.9  0.5691  -59.5
 1.680  0.6352 -124.3   5.545   93.7  0.0894   31.6  0.5643  -59.9
 1.700  0.6333 -125.4   5.497   93.0  0.0898   31.2  0.5595  -60.4
 1.720  0.6311 -126.4   5.445   92.4  0.0901   30.8  0.5549  -60.8
 1.740  0.6291 -127.4   5.394   91.8  0.0904   30.5  0.5504  -61.2
 1.760  0.6273 -128.4   5.344   91.1  0.0907   30.1  0.5459  -61.6
 1.780  0.6256 -129.4   5.294   90.5  0.0911   29.8  0.5414  -62.0
 1.800  0.6242 -130.4   5.245   89.8  0.0914   29.4  0.5370  -62.4
 1.820  0.6220 -131.4   5.200   89.2  0.0917   29.1  0.5324  -62.8
 1.840  0.6200 -132.5   5.157   88.6  0.0920   28.7  0.5279  -63.2
 1.860  0.6182 -133.5   5.113   88.0  0.0924   28.4  0.5234  -63.6
 1.880  0.6167 -134.5   5.070   87.4  0.0927   28.0  0.5189  -64.1
 1.900  0.6153 -135.6   5.028   86.8  0.0930   27.7  0.5145  -64.5
 1.920  0.6132 -136.5   4.985   86.2  0.0933   27.4  0.5105  -64.8
 1.940  0.6113 -137.4   4.943   85.7  0.0936   27.1  0.5066  -65.2
 1.960  0.6095 -138.3   4.902   85.1  0.0938   26.8  0.5026  -65.5
 1.980  0.6079 -139.3   4.861   84.5  0.0941   26.5  0.4987  -65.8
 2.000  0.6064 -140.2   4.820   83.9  0.0944   26.2  0.4948  -66.2
 2.020  0.6044 -141.1   4.781   83.4  0.0946   25.9  0.4908  -66.5
 2.040  0.6025 -142.1   4.743   82.9  0.0949   25.6  0.4868  -66.9
 2.060  0.6008 -143.0   4.704   82.3  0.0951   25.3  0.4829  -67.2
 2.080  0.5993 -143.9   4.667   81.8  0.0953   25.1  0.4789  -67.6
 2.100  0.5979 -144.9   4.629   81.2  0.0956   24.8  0.4750  -68.0
 2.120  0.5967 -145.9   4.593   80.6  0.0958   24.5  0.4711  -68.3
 2.140  0.5956 -146.8   4.556   80.1  0.0961   24.2  0.4672  -68.7
 2.160  0.5948 -147.8   4.520   79.5  0.0963   23.9  0.4634  -69.1
 2.180  0.5940 -148.7   4.485   78.9  0.0965   23.7  0.4595  -69.5
 2.200  0.5935 -149.7   4.450   78.3  0.0968   23.4  0.4557  -69.9
 2.220  0.5920 -150.6   4.415   77.8  0.0970   23.1  0.4520  -70.2
 2.240  0.5906 -151.5   4.381   77.3  0.0972   22.9  0.4484  -70.6
 2.260  0.5893 -152.3   4.347   76.8  0.0973   22.6  0.4447  -70.9
 2.280  0.5882 -153.2   4.313   76.3  0.0975   22.3  0.4411  -71.2
 2.300  0.5873 -154.1   4.280   75.8  0.0977   22.0  0.4375  -71.6
 2.320  0.5865 -155.0   4.247   75.3  0.0979   21.8  0.4339  -71.9
 2.340  0.5858 -155.9   4.215   74.7  0.0981   21.5  0.4303  -72.3
 2.360  0.5852 -156.8   4.182   74.2  0.0983   21.2  0.4268  -72.7
 2.380  0.5848 -157.7   4.150   73.7  0.0985   21.0  0.4232  -73.0
 2.400  0.5846 -158.6   4.119   73.1  0.0987   20.7  0.4197  -73.4
 2.420  0.5837 -159.5   4.089   72.6  0.0988   20.5  0.4164  -73.7
 2.440  0.5829 -160.3   4.059   72.2  0.0990   20.2  0.4130  -74.1
 2.460  0.5822 -161.2   4.029   71.7  0.0991   20.0  0.4097  -74.4
 2.480  0.5817 -162.0   3.999   71.2  0.0993   19.8  0.4064  -74.8
 2.500  0.5813 -162.9   3.970   70.7  0.0994   19.5  0.4032  -75.1
 2.520  0.5810 -163.7   3.941   70.2  0.0996   19.3  0.3999  -75.5
 2.540  0.5808 -164.6   3.912   69.7  0.0997   19.1  0.3966  -75.9
 2.560  0.5808 -165.5   3.884   69.2  0.0999   18.9  0.3934  -76.2
 2.580  0.5809 -166.3   3.856   68.7  0.1000   18.6  0.3902  -76.6
 2.600  0.5812 -167.2   3.828   68.2  0.1002   18.4  0.3870  -77.0
 2.620  0.5804 -168.0   3.801   67.8  0.1003   18.2  0.3840  -77.3
 2.640  0.5797 -168.8   3.773   67.3  0.1004   18.0  0.3810  -77.6
 2.660  0.5791 -169.5   3.746   66.9  0.1005   17.8  0.3780  -77.9
 2.680  0.5786 -170.3   3.720   66.4  0.1007   17.6  0.3751  -78.3
 2.700  0.5782 -171.1   3.693   66.0  0.1008   17.4  0.3721  -78.6
 2.720  0.5779 -171.9   3.667   65.5  0.1009   17.3  0.3692  -78.9
 2.740  0.5777 -172.7   3.641   65.0  0.1010   17.1  0.3662  -79.3
 2.760  0.5776 -173.4   3.615   64.6  0.1012   16.9  0.3633  -79.6
 2.780  0.5777 -174.2   3.589   64.1  0.1013   16.7  0.3604  -79.9
 2.800  0.5778 -175.0   3.564   63.6  0.1014   16.5  0.3575  -80.3
 2.820  0.5776 -175.7   3.540   63.2  0.1015   16.3  0.3548  -80.6
 2.840  0.5774 -176.4   3.517   62.8  0.1016   16.1  0.3521  -80.9
 2.860  0.5774 -177.2   3.493   62.3  0.1017   15.9  0.3494  -81.2
 2.880  0.5775 -177.9   3.470   61.9  0.1018   15.7  0.3467  -81.6
 2.900  0.5776 -178.6   3.447   61.5  0.1019   15.5  0.3440  -81.9
 2.920  0.5778 -179.3   3.425   61.0  0.1020   15.4  0.3413  -82.2
 2.940  0.5782  180.0   3.402   60.6  0.1021   15.2  0.3387  -82.6
 2.960  0.5786  179.2   3.380   60.1  0.1022   15.0  0.3360  -82.9
 2.980  0.5791  178.5   3.358   59.7  0.1023   14.8  0.3334  -83.2
 3.000  0.5797  177.8   3.336   59.2  0.1024   14.6  0.3308  -83.6
 3.100  0.5783  174.4   3.233   57.3  0.1028   13.8  0.3185  -85.2
 3.200  0.5790  171.1   3.134   55.3  0.1031   13.1  0.3065  -87.0
 3.300  0.5816  167.7   3.039   53.2  0.1035   12.4  0.2947  -88.9
 3.400  0.5861  164.4   2.948   51.0  0.1040   11.6  0.2834  -91.0
 3.500  0.5926  161.2   2.862   48.6  0.1044   10.9  0.2724  -93.2
 3.600  0.5937  158.4   2.782   46.9  0.1048   10.3  0.2630  -95.1
 3.700  0.5963  155.5   2.704   45.0  0.1052    9.7  0.2539  -97.2
 3.800  0.6002  152.7   2.629   43.1  0.1057    9.1  0.2451  -99.4
 3.900  0.6056  150.0   2.557   41.1  0.1061    8.6  0.2367 -101.8
 4.000  0.6124  147.3   2.489   38.9  0.1066    8.0  0.2288 -104.3
 4.100  0.6142  145.1   2.422   37.3  0.1070    7.5  0.2220 -106.6
 4.200  0.6168  142.8   2.358   35.5  0.1074    6.9  0.2157 -109.1
 4.300  0.6205  140.6   2.296   33.7  0.1078    6.4  0.2097 -111.7
 4.400  0.6250  138.4   2.236   31.8  0.1082    5.8  0.2042 -114.4
 4.500  0.6304  136.3   2.179   29.8  0.1086    5.3  0.1992 -117.3
 4.600  0.6313  134.6   2.125   28.4  0.1090    4.9  0.1946 -119.6
 4.700  0.6328  132.8   2.072   26.9  0.1094    4.5  0.1904 -122.0
 4.800  0.6349  131.1   2.021   25.3  0.1098    4.2  0.1865 -124.5
 4.900  0.6375  129.4   1.972   23.6  0.1102    3.8  0.1829 -127.1
 5.000  0.6407  127.7   1.924   21.9  0.1106    3.4  0.1798 -129.8
 5.100  0.6419  126.1   1.882   20.5  0.1110    3.1  0.1765 -132.4
 5.200  0.6435  124.5   1.841   19.1  0.1114    2.7  0.1735 -135.0
 5.300  0.6457  122.9   1.801   17.6  0.1118    2.4  0.1710 -137.8
 5.400  0.6484  121.3   1.762   16.0  0.1122    2.0  0.1688 -140.6
 5.500  0.6516  119.7   1.725   14.4  0.1126    1.7  0.1671 -143.5
 5.600  0.6542  118.1   1.692   13.0  0.1132    1.4  0.1651 -146.4
 5.700  0.6573  116.6   1.660   11.6  0.1138    1.2  0.1634 -149.4
 5.800  0.6608  115.1   1.629   10.2  0.1144    0.9  0.1623 -152.4
 5.900  0.6648  113.6   1.600    8.7  0.1150    0.7  0.1616 -155.4
 6.000  0.6693  112.1   1.571    7.1  0.1156    0.4  0.1613 -158.5
 6.100  0.6727  110.7   1.544    5.7  0.1166    0.1  0.1605 -161.4
 6.200  0.6765  109.4   1.518    4.3  0.1175   -0.3  0.1601 -164.4
 6.300  0.6807  108.0   1.492    2.8  0.1185   -0.6  0.1602 -167.4
 6.400  0.6852  106.7   1.468    1.3  0.1195   -0.9  0.1607 -170.4
 6.500  0.6901  105.4   1.445   -0.3  0.1205   -1.2  0.1616 -173.3
 6.600  0.6927  104.1   1.422   -1.7  0.1217   -1.6  0.1613 -176.0
 6.800  0.6988  101.5   1.378   -4.6  0.1241   -2.4  0.1619  178.5
 7.000  0.7064   99.0   1.338   -7.7  0.1266   -3.2  0.1639  173.2
 7.200  0.7097   96.3   1.296  -10.5  0.1293   -4.4  0.1671  167.5
 7.400  0.7146   93.7   1.258  -13.5  0.1321   -5.5  0.1719  162.1
 7.600  0.7189   90.9   1.218  -16.5  0.1345   -6.9  0.1776  156.4
 7.800  0.7230   87.9   1.177  -19.6  0.1365   -8.5  0.1845  150.5
 8.000  0.7290   84.9   1.139  -22.8  0.1387  -10.1  0.1932  145.1
 8.200  0.7327   81.8   1.095  -25.4  0.1393  -11.6  0.2015  138.4
 8.400  0.7385   78.8   1.054  -28.3  0.1399  -13.1  0.2123  132.4
 8.600  0.7474   75.9   1.017  -31.0  0.1405  -14.4  0.2264  126.5
 8.800  0.7592   73.2   0.983  -33.4  0.1410  -15.4  0.2439  120.9
 9.000  0.7728   70.5   0.951  -36.0  0.1415  -16.4  0.2634  116.1
 9.200  0.7928   68.4   0.922  -38.3  0.1424  -17.2  0.2876  112.3
 9.400  0.8138   66.4   0.895  -40.6  0.1433  -18.1  0.3129  109.2
 9.600  0.8324   64.7   0.865  -43.0  0.1445  -19.0  0.3383  106.7
 9.800  0.8483   63.2   0.831  -45.4  0.1461  -19.9  0.3635  104.7
10.000  0.8648   61.8   0.799  -48.0  0.1476  -20.8  0.3892  102.9
!
!  f       NFmin   Gammaopt  rn/50
! GHz       dB    MAG  ANG    -
 0.900      0.57  0.35   33   0.18
 1.800      1.02  0.20   79   0.14
 2.400      1.10  0.23  104   0.14
 3.000      1.25  0.24  144   0.11
 4.000      1.46  0.33 -159   0.10
 5.000      1.90  0.39 -128   0.22
 6.000      2.46  0.48 -107   0.35
!
! (c) 2016  Infineon Technologies AG, Munich
