! Infineon Technologies  Discrete & RF Semiconductors
! BFP420
! VCE =  3.5 V,  IC =  15 mA
! Common Emitter S-Parameters:                            Jan 2016
# GHz  S  MA  R  50
!  f         S11            S21            S12            S22
! GHz     MAG   ANG      MAG   ANG      MAG   ANG      MAG   ANG
 0.010  0.6010   -2.0  35.533  178.7  0.0010   63.5  0.9452    1.4
 0.015  0.6025   -3.1  35.037  177.7  0.0014   66.8  0.9501   -0.3
 0.020  0.6042   -4.1  34.553  176.6  0.0018   68.6  0.9557   -1.9
 0.025  0.6037   -5.2  34.492  175.9  0.0021   70.5  0.9554   -2.5
 0.030  0.6033   -6.3  34.437  175.2  0.0025   71.8  0.9553   -3.1
 0.035  0.6032   -7.4  34.387  174.5  0.0028   72.8  0.9552   -3.6
 0.040  0.6033   -8.4  34.343  173.7  0.0032   73.6  0.9552   -4.2
 0.045  0.6037   -9.5  34.304  173.0  0.0035   74.3  0.9554   -4.8
 0.050  0.6042  -10.6  34.270  172.3  0.0039   74.8  0.9556   -5.4
 0.055  0.6025  -11.7  34.195  171.6  0.0042   75.1  0.9539   -6.0
 0.060  0.6011  -12.8  34.124  171.0  0.0046   75.3  0.9523   -6.5
 0.065  0.5998  -13.9  34.058  170.3  0.0049   75.5  0.9508   -7.1
 0.070  0.5988  -15.0  33.997  169.6  0.0053   75.6  0.9494   -7.7
 0.075  0.5980  -16.1  33.941  168.9  0.0056   75.8  0.9481   -8.3
 0.080  0.5975  -17.2  33.890  168.2  0.0060   75.9  0.9469   -8.9
 0.085  0.5971  -18.3  33.843  167.6  0.0063   76.0  0.9458   -9.4
 0.090  0.5970  -19.4  33.801  166.9  0.0067   76.1  0.9447  -10.0
 0.095  0.5971  -20.5  33.764  166.2  0.0070   76.2  0.9438  -10.6
 0.100  0.5974  -21.6  33.732  165.5  0.0074   76.3  0.9430  -11.2
 0.105  0.5957  -22.6  33.612  164.8  0.0077   76.0  0.9403  -11.7
 0.110  0.5942  -23.6  33.496  164.2  0.0081   75.7  0.9377  -12.3
 0.115  0.5928  -24.7  33.385  163.5  0.0084   75.4  0.9352  -12.8
 0.120  0.5917  -25.7  33.278  162.8  0.0088   75.2  0.9328  -13.4
 0.125  0.5908  -26.7  33.176  162.2  0.0091   74.9  0.9304  -13.9
 0.130  0.5900  -27.7  33.079  161.5  0.0094   74.7  0.9282  -14.5
 0.135  0.5894  -28.8  32.986  160.8  0.0098   74.5  0.9260  -15.0
 0.140  0.5891  -29.8  32.898  160.1  0.0101   74.3  0.9239  -15.6
 0.145  0.5889  -30.9  32.815  159.4  0.0105   74.2  0.9219  -16.1
 0.150  0.5889  -31.9  32.737  158.7  0.0108   74.0  0.9200  -16.7
 0.155  0.5870  -32.9  32.599  158.1  0.0111   73.6  0.9167  -17.2
 0.160  0.5853  -33.9  32.465  157.5  0.0114   73.2  0.9135  -17.7
 0.165  0.5838  -34.9  32.335  156.9  0.0117   72.9  0.9103  -18.2
 0.170  0.5824  -35.9  32.209  156.2  0.0120   72.6  0.9072  -18.7
 0.175  0.5813  -36.9  32.086  155.6  0.0123   72.3  0.9042  -19.2
 0.180  0.5803  -37.9  31.967  155.0  0.0127   72.0  0.9013  -19.7
 0.185  0.5795  -38.9  31.852  154.3  0.0130   71.7  0.8984  -20.2
 0.190  0.5789  -40.0  31.742  153.7  0.0133   71.4  0.8956  -20.8
 0.195  0.5784  -41.0  31.635  153.1  0.0136   71.1  0.8929  -21.3
 0.200  0.5782  -42.0  31.532  152.4  0.0139   70.9  0.8902  -21.8
 0.220  0.5700  -45.7  30.902  150.1  0.0151   69.5  0.8759  -23.6
 0.240  0.5644  -49.6  30.325  147.6  0.0163   68.3  0.8625  -25.5
 0.260  0.5587  -53.3  29.763  145.3  0.0174   67.2  0.8484  -27.3
 0.280  0.5528  -56.8  29.205  143.2  0.0184   66.1  0.8333  -29.0
 0.300  0.5491  -60.5  28.691  140.9  0.0194   65.1  0.8190  -30.8
 0.320  0.5421  -63.9  28.076  139.0  0.0204   64.0  0.8036  -32.3
 0.340  0.5370  -67.3  27.495  136.9  0.0213   63.1  0.7887  -33.9
 0.360  0.5320  -70.6  26.913  135.0  0.0222   62.1  0.7739  -35.4
 0.380  0.5266  -73.6  26.324  133.1  0.0231   61.2  0.7590  -36.8
 0.400  0.5227  -76.7  25.763  131.2  0.0239   60.4  0.7445  -38.2
 0.420  0.5167  -79.6  25.186  129.6  0.0246   59.6  0.7299  -39.4
 0.440  0.5120  -82.6  24.630  127.9  0.0253   58.9  0.7157  -40.7
 0.450  0.5102  -84.1  24.360  127.0  0.0257   58.6  0.7087  -41.4
 0.460  0.5074  -85.5  24.082  126.2  0.0260   58.3  0.7017  -42.0
 0.480  0.5028  -88.2  23.539  124.7  0.0267   57.7  0.6880  -43.1
 0.500  0.4993  -91.0  23.015  123.0  0.0274   57.1  0.6746  -44.3
 0.520  0.4940  -93.3  22.506  121.7  0.0280   56.5  0.6619  -45.2
 0.540  0.4896  -95.7  22.008  120.4  0.0286   56.0  0.6493  -46.2
 0.560  0.4860  -98.2  21.523  119.0  0.0291   55.4  0.6369  -47.2
 0.580  0.4833 -100.6  21.051  117.5  0.0297   54.9  0.6248  -48.2
 0.600  0.4815 -103.1  20.594  116.0  0.0303   54.4  0.6128  -49.3
 0.620  0.4774 -105.2  20.159  114.9  0.0308   54.1  0.6018  -50.1
 0.640  0.4739 -107.3  19.732  113.8  0.0314   53.7  0.5910  -50.9
 0.660  0.4711 -109.4  19.313  112.6  0.0319   53.4  0.5802  -51.7
 0.680  0.4689 -111.6  18.903  111.4  0.0325   53.1  0.5696  -52.5
 0.700  0.4674 -113.8  18.501  110.1  0.0330   52.8  0.5591  -53.4
 0.720  0.4645 -115.6  18.127  109.1  0.0335   52.5  0.5497  -54.1
 0.740  0.4620 -117.4  17.759  108.1  0.0339   52.3  0.5405  -54.8
 0.760  0.4600 -119.3  17.396  107.1  0.0344   52.0  0.5313  -55.5
 0.780  0.4584 -121.1  17.039  106.0  0.0348   51.7  0.5222  -56.3
 0.800  0.4574 -123.0  16.688  104.9  0.0353   51.5  0.5132  -57.1
 0.820  0.4554 -124.6  16.376  104.1  0.0357   51.3  0.5052  -57.7
 0.840  0.4538 -126.2  16.068  103.2  0.0362   51.2  0.4973  -58.3
 0.860  0.4525 -127.8  15.763  102.3  0.0366   51.0  0.4894  -58.9
 0.880  0.4516 -129.5  15.462  101.4  0.0371   50.9  0.4816  -59.5
 0.900  0.4511 -131.1  15.166  100.4  0.0375   50.7  0.4738  -60.2
 0.920  0.4496 -132.6  14.898   99.7  0.0379   50.6  0.4667  -60.8
 0.940  0.4485 -134.0  14.633   98.9  0.0383   50.5  0.4597  -61.3
 0.960  0.4476 -135.5  14.370   98.1  0.0388   50.3  0.4526  -61.9
 0.980  0.4471 -137.0  14.111   97.3  0.0392   50.2  0.4457  -62.6
 1.000  0.4468 -138.5  13.854   96.4  0.0396   50.1  0.4388  -63.2
 1.020  0.4458 -139.7  13.622   95.7  0.0400   50.0  0.4328  -63.7
 1.040  0.4449 -141.0  13.392   95.0  0.0404   49.9  0.4269  -64.2
 1.060  0.4443 -142.2  13.164   94.3  0.0409   49.9  0.4210  -64.8
 1.080  0.4439 -143.5  12.939   93.6  0.0413   49.8  0.4151  -65.3
 1.100  0.4437 -144.7  12.715   92.8  0.0417   49.7  0.4093  -65.9
 1.120  0.4432 -145.9  12.514   92.2  0.0421   49.6  0.4038  -66.4
 1.140  0.4430 -147.1  12.315   91.5  0.0425   49.5  0.3983  -67.0
 1.160  0.4429 -148.3  12.118   90.8  0.0430   49.5  0.3928  -67.5
 1.180  0.4430 -149.5  11.922   90.1  0.0434   49.4  0.3874  -68.1
 1.200  0.4433 -150.7  11.728   89.4  0.0438   49.3  0.3820  -68.7
 1.220  0.4428 -151.7  11.554   88.8  0.0442   49.2  0.3773  -69.1
 1.240  0.4425 -152.8  11.381   88.3  0.0446   49.2  0.3725  -69.6
 1.260  0.4424 -153.8  11.209   87.7  0.0451   49.1  0.3678  -70.0
 1.280  0.4424 -154.9  11.039   87.0  0.0455   49.1  0.3632  -70.5
 1.300  0.4425 -155.9  10.870   86.4  0.0459   49.0  0.3585  -71.0
 1.320  0.4424 -156.9  10.717   85.9  0.0463   48.9  0.3542  -71.5
 1.340  0.4425 -157.9  10.566   85.3  0.0468   48.9  0.3500  -72.0
 1.360  0.4427 -158.8  10.416   84.7  0.0472   48.8  0.3458  -72.5
 1.380  0.4430 -159.8  10.266   84.1  0.0477   48.8  0.3416  -73.1
 1.400  0.4435 -160.8  10.118   83.5  0.0481   48.7  0.3374  -73.6
 1.420  0.4433 -161.7   9.985   83.0  0.0485   48.6  0.3335  -74.0
 1.440  0.4432 -162.5   9.852   82.5  0.0489   48.6  0.3295  -74.5
 1.460  0.4433 -163.4   9.721   82.0  0.0494   48.5  0.3256  -74.9
 1.480  0.4434 -164.2   9.590   81.4  0.0498   48.5  0.3218  -75.4
 1.500  0.4436 -165.1   9.460   80.9  0.0502   48.4  0.3179  -75.9
 1.520  0.4437 -165.9   9.340   80.4  0.0506   48.3  0.3144  -76.3
 1.540  0.4440 -166.7   9.222   79.9  0.0510   48.2  0.3110  -76.8
 1.560  0.4443 -167.6   9.103   79.4  0.0515   48.2  0.3076  -77.2
 1.580  0.4447 -168.4   8.986   78.9  0.0519   48.1  0.3042  -77.7
 1.600  0.4452 -169.2   8.869   78.4  0.0523   48.0  0.3008  -78.2
 1.620  0.4452 -170.0   8.764   77.9  0.0527   47.9  0.2975  -78.6
 1.640  0.4452 -170.8   8.660   77.5  0.0531   47.9  0.2943  -79.1
 1.660  0.4454 -171.7   8.556   77.0  0.0536   47.8  0.2910  -79.5
 1.680  0.4457 -172.5   8.453   76.5  0.0540   47.8  0.2878  -80.0
 1.700  0.4460 -173.3   8.350   76.0  0.0544   47.7  0.2846  -80.5
 1.720  0.4462 -174.0   8.253   75.6  0.0548   47.6  0.2817  -80.9
 1.740  0.4464 -174.7   8.156   75.1  0.0553   47.5  0.2789  -81.4
 1.760  0.4467 -175.3   8.060   74.7  0.0557   47.5  0.2760  -81.8
 1.780  0.4471 -176.0   7.965   74.2  0.0562   47.4  0.2732  -82.2
 1.800  0.4475 -176.7   7.870   73.7  0.0566   47.3  0.2704  -82.7
 1.820  0.4478 -177.5   7.784   73.3  0.0570   47.2  0.2675  -83.2
 1.840  0.4481 -178.2   7.697   72.8  0.0575   47.1  0.2646  -83.7
 1.860  0.4486 -179.0   7.612   72.4  0.0579   47.1  0.2617  -84.3
 1.880  0.4491 -179.7   7.527   72.0  0.0584   47.0  0.2589  -84.8
 1.900  0.4497  179.5   7.442   71.5  0.0588   46.9  0.2561  -85.4
 1.920  0.4496  178.9   7.365   71.1  0.0592   46.8  0.2536  -85.8
 1.940  0.4495  178.3   7.288   70.7  0.0597   46.7  0.2511  -86.2
 1.960  0.4494  177.6   7.211   70.3  0.0601   46.7  0.2486  -86.6
 1.980  0.4494  177.0   7.135   69.9  0.0606   46.6  0.2461  -87.0
 2.000  0.4495  176.4   7.059   69.5  0.0610   46.5  0.2436  -87.4
 2.020  0.4497  175.8   6.991   69.1  0.0614   46.4  0.2411  -87.9
 2.040  0.4500  175.1   6.924   68.7  0.0619   46.3  0.2387  -88.4
 2.060  0.4503  174.5   6.856   68.3  0.0623   46.2  0.2363  -88.8
 2.080  0.4506  173.9   6.790   67.9  0.0627   46.1  0.2339  -89.4
 2.100  0.4511  173.2   6.723   67.5  0.0631   46.0  0.2315  -89.9
 2.120  0.4515  172.6   6.657   67.1  0.0636   45.9  0.2291  -90.4
 2.140  0.4521  172.0   6.591   66.6  0.0640   45.8  0.2268  -90.9
 2.160  0.4527  171.3   6.526   66.2  0.0644   45.7  0.2245  -91.5
 2.180  0.4533  170.7   6.461   65.8  0.0649   45.6  0.2222  -92.0
 2.200  0.4540  170.1   6.396   65.3  0.0653   45.5  0.2199  -92.6
 2.220  0.4544  169.5   6.339   65.0  0.0657   45.4  0.2177  -93.1
 2.240  0.4549  168.9   6.282   64.6  0.0662   45.2  0.2155  -93.6
 2.260  0.4554  168.3   6.225   64.2  0.0666   45.1  0.2133  -94.2
 2.280  0.4559  167.7   6.168   63.9  0.0670   45.0  0.2112  -94.7
 2.300  0.4565  167.1   6.112   63.5  0.0674   44.9  0.2090  -95.3
 2.320  0.4572  166.5   6.056   63.1  0.0679   44.8  0.2069  -95.9
 2.340  0.4579  166.0   6.000   62.7  0.0683   44.6  0.2048  -96.5
 2.360  0.4587  165.4   5.944   62.3  0.0687   44.5  0.2028  -97.1
 2.380  0.4595  164.8   5.889   61.9  0.0692   44.4  0.2007  -97.7
 2.400  0.4603  164.2   5.834   61.5  0.0696   44.3  0.1987  -98.3
 2.420  0.4611  163.6   5.785   61.2  0.0700   44.2  0.1967  -98.9
 2.440  0.4620  163.1   5.737   60.8  0.0705   44.0  0.1948  -99.5
 2.460  0.4629  162.5   5.689   60.5  0.0709   43.9  0.1928 -100.1
 2.480  0.4639  162.0   5.641   60.1  0.0713   43.8  0.1909 -100.7
 2.500  0.4649  161.4   5.593   59.7  0.0717   43.6  0.1890 -101.4
 2.520  0.4659  160.9   5.546   59.4  0.0722   43.5  0.1872 -102.0
 2.540  0.4670  160.3   5.498   59.0  0.0726   43.4  0.1853 -102.7
 2.560  0.4681  159.8   5.451   58.6  0.0730   43.2  0.1835 -103.4
 2.580  0.4693  159.2   5.405   58.2  0.0735   43.1  0.1818 -104.1
 2.600  0.4705  158.7   5.358   57.8  0.0739   43.0  0.1800 -104.8
 2.620  0.4712  158.2   5.316   57.5  0.0743   42.9  0.1783 -105.4
 2.640  0.4719  157.7   5.274   57.2  0.0748   42.7  0.1766 -106.1
 2.660  0.4726  157.2   5.233   56.8  0.0752   42.6  0.1749 -106.7
 2.680  0.4734  156.7   5.191   56.5  0.0756   42.5  0.1733 -107.4
 2.700  0.4742  156.2   5.150   56.2  0.0760   42.4  0.1716 -108.1
 2.720  0.4750  155.7   5.109   55.8  0.0765   42.3  0.1700 -108.8
 2.740  0.4759  155.2   5.068   55.5  0.0769   42.1  0.1685 -109.5
 2.760  0.4769  154.7   5.027   55.1  0.0773   42.0  0.1669 -110.2
 2.780  0.4778  154.2   4.986   54.8  0.0778   41.9  0.1654 -111.0
 2.800  0.4788  153.7   4.946   54.4  0.0782   41.8  0.1639 -111.7
 2.820  0.4797  153.2   4.910   54.1  0.0786   41.7  0.1624 -112.4
 2.840  0.4806  152.8   4.874   53.8  0.0790   41.5  0.1610 -113.1
 2.860  0.4815  152.3   4.839   53.4  0.0795   41.4  0.1596 -113.8
 2.880  0.4825  151.9   4.803   53.1  0.0799   41.2  0.1581 -114.5
 2.900  0.4835  151.4   4.768   52.8  0.0803   41.1  0.1568 -115.2
 2.920  0.4845  151.0   4.733   52.4  0.0807   40.9  0.1554 -116.0
 2.940  0.4856  150.5   4.698   52.1  0.0811   40.8  0.1541 -116.7
 2.960  0.4866  150.1   4.663   51.7  0.0816   40.7  0.1528 -117.5
 2.980  0.4878  149.6   4.628   51.4  0.0820   40.5  0.1515 -118.3
 3.000  0.4889  149.2   4.594   51.0  0.0824   40.4  0.1503 -119.1
 3.100  0.4935  146.9   4.445   49.6  0.0844   39.6  0.1443 -123.2
 3.200  0.4989  144.6   4.298   48.0  0.0865   38.8  0.1390 -127.6
 3.300  0.5051  142.4   4.155   46.4  0.0885   38.1  0.1347 -132.4
 3.400  0.5120  140.3   4.016   44.6  0.0906   37.4  0.1313 -137.4
 3.500  0.5196  138.2   3.881   42.7  0.0927   36.7  0.1290 -142.7
 3.600  0.5244  136.2   3.769   41.3  0.0947   35.8  0.1270 -147.4
 3.700  0.5299  134.3   3.658   39.9  0.0967   35.0  0.1258 -152.3
 3.800  0.5359  132.4   3.551   38.3  0.0988   34.2  0.1256 -157.1
 3.900  0.5425  130.6   3.446   36.7  0.1008   33.4  0.1263 -162.0
 4.000  0.5496  128.8   3.344   34.9  0.1029   32.7  0.1279 -166.8
 4.100  0.5535  127.3   3.254   33.6  0.1047   31.8  0.1294 -171.0
 4.200  0.5578  125.7   3.165   32.2  0.1065   30.8  0.1316 -175.0
 4.300  0.5626  124.2   3.079   30.7  0.1084   30.0  0.1344 -178.9
 4.400  0.5676  122.7   2.995   29.1  0.1103   29.1  0.1378  177.3
 4.500  0.5731  121.3   2.913   27.5  0.1122   28.3  0.1418  173.8
 4.600  0.5754  120.1   2.842   26.3  0.1139   27.5  0.1440  170.7
 4.700  0.5780  118.9   2.772   25.1  0.1156   26.6  0.1466  167.8
 4.800  0.5809  117.7   2.704   23.7  0.1174   25.8  0.1496  164.9
 4.900  0.5840  116.6   2.637   22.4  0.1191   25.1  0.1529  162.2
 5.000  0.5873  115.4   2.572   20.9  0.1209   24.3  0.1566  159.6
 5.100  0.5899  114.2   2.517   19.7  0.1225   23.4  0.1597  157.1
 5.200  0.5927  112.9   2.462   18.5  0.1241   22.6  0.1630  154.6
 5.300  0.5958  111.7   2.409   17.2  0.1257   21.8  0.1666  152.3
 5.400  0.5992  110.5   2.357   15.8  0.1273   21.0  0.1705  150.0
 5.500  0.6028  109.3   2.307   14.4  0.1290   20.2  0.1747  147.9
 5.600  0.6064  108.1   2.263   13.2  0.1306   19.4  0.1784  145.7
 5.700  0.6104  106.9   2.220   12.0  0.1322   18.5  0.1824  143.5
 5.800  0.6145  105.7   2.178   10.7  0.1338   17.7  0.1867  141.4
 5.900  0.6190  104.5   2.138    9.4  0.1355   17.0  0.1911  139.5
 6.000  0.6237  103.3   2.098    8.0  0.1372   16.2  0.1958  137.6
 6.100  0.6278  102.2   2.061    6.8  0.1389   15.3  0.1995  135.7
 6.200  0.6321  101.1   2.025    5.5  0.1406   14.4  0.2034  133.8
 6.300  0.6366  100.1   1.990    4.2  0.1423   13.5  0.2075  132.0
 6.400  0.6414   99.0   1.956    2.8  0.1441   12.6  0.2118  130.3
 6.500  0.6463   98.0   1.923    1.4  0.1459   11.8  0.2163  128.7
 6.600  0.6491   96.9   1.892    0.1  0.1476   10.8  0.2190  126.9
 6.800  0.6555   94.7   1.833   -2.6  0.1512    9.0  0.2251  123.5
 7.000  0.6628   92.6   1.778   -5.4  0.1549    7.2  0.2320  120.2
 7.200  0.6669   90.3   1.724   -8.0  0.1581    5.0  0.2403  117.0
 7.400  0.6721   88.0   1.673  -10.8  0.1616    2.9  0.2492  114.1
 7.600  0.6773   85.6   1.620  -13.5  0.1643    0.7  0.2592  111.1
 7.800  0.6827   83.0   1.564  -16.4  0.1664   -1.7  0.2705  108.0
 8.000  0.6895   80.4   1.512  -19.4  0.1688   -4.0  0.2825  105.2
 8.200  0.6960   77.6   1.454  -21.9  0.1690   -6.1  0.2962  101.6
 8.400  0.7041   74.8   1.399  -24.5  0.1694   -8.2  0.3109   98.3
 8.600  0.7152   72.2   1.349  -26.9  0.1697  -10.0  0.3283   95.2
 8.800  0.7291   69.8   1.302  -29.1  0.1699  -11.5  0.3482   92.4
 9.000  0.7442   67.4   1.257  -31.5  0.1702  -13.1  0.3690   89.8
 9.200  0.7652   65.5   1.221  -33.5  0.1708  -14.5  0.3926   87.8
 9.400  0.7869   63.8   1.187  -35.7  0.1715  -15.8  0.4166   86.1
 9.600  0.8063   62.2   1.147  -37.8  0.1723  -17.2  0.4390   84.6
 9.800  0.8229   60.9   1.103  -40.0  0.1731  -18.7  0.4598   83.2
10.000  0.8400   59.6   1.060  -42.3  0.1740  -20.1  0.4808   81.9
!
!  f       NFmin   Gammaopt  rn/50
! GHz       dB    MAG  ANG    -
 0.900      1.06  0.09 -152   0.13
 1.800      1.36  0.18 -147   0.12
 2.400      1.49  0.17 -148   0.14
 3.000      1.53  0.25 -138   0.14
 4.000      1.67  0.38 -119   0.20
 5.000      2.14  0.44 -103   0.32
 6.000      2.48  0.50  -88   0.47
!
! (c) 2016  Infineon Technologies AG, Munich
