! Infineon Technologies  Discrete & RF Semiconductors
! BFP420
! VCE =  1.5 V,  IC =  2.0 mA
! Common Emitter S-Parameters:                            Jan 2016
# GHz  S  MA  R  50
!  f         S11            S21            S12            S22
! GHz     MAG   ANG      MAG   ANG      MAG   ANG      MAG   ANG
 0.010  0.9293   -1.1   7.041  179.4  0.0013  101.1  0.9931    0.0
 0.015  0.9292   -1.3   6.942  179.3  0.0018   90.7  0.9938   -0.5
 0.020  0.9292   -1.6   6.844  179.1  0.0024   85.1  0.9945   -0.9
 0.025  0.9290   -2.0   6.850  178.7  0.0029   86.3  0.9945   -1.2
 0.030  0.9289   -2.4   6.857  178.4  0.0034   87.2  0.9945   -1.4
 0.035  0.9287   -2.8   6.864  178.0  0.0039   87.8  0.9945   -1.7
 0.040  0.9287   -3.2   6.872  177.6  0.0045   88.3  0.9945   -1.9
 0.045  0.9287   -3.6   6.879  177.3  0.0050   88.7  0.9945   -2.2
 0.050  0.9287   -4.0   6.887  176.9  0.0055   89.0  0.9946   -2.4
 0.055  0.9280   -4.4   6.890  176.6  0.0060   88.4  0.9943   -2.6
 0.060  0.9274   -4.8   6.893  176.3  0.0066   87.9  0.9941   -2.9
 0.065  0.9268   -5.2   6.896  176.0  0.0071   87.5  0.9938   -3.1
 0.070  0.9263   -5.6   6.900  175.7  0.0077   87.1  0.9936   -3.4
 0.075  0.9258   -5.9   6.903  175.4  0.0082   86.8  0.9934   -3.6
 0.080  0.9254   -6.3   6.907  175.1  0.0088   86.5  0.9933   -3.8
 0.085  0.9250   -6.7   6.911  174.8  0.0093   86.3  0.9931   -4.1
 0.090  0.9246   -7.1   6.915  174.5  0.0099   86.1  0.9929   -4.3
 0.095  0.9243   -7.5   6.919  174.2  0.0104   85.9  0.9928   -4.6
 0.100  0.9240   -7.9   6.924  173.9  0.0110   85.7  0.9927   -4.8
 0.105  0.9237   -8.3   6.922  173.6  0.0116   85.3  0.9923   -5.0
 0.110  0.9234   -8.7   6.920  173.3  0.0121   85.0  0.9918   -5.3
 0.115  0.9232   -9.1   6.918  172.9  0.0127   84.7  0.9914   -5.5
 0.120  0.9230   -9.5   6.916  172.6  0.0132   84.4  0.9910   -5.8
 0.125  0.9228   -9.9   6.915  172.3  0.0138   84.1  0.9907   -6.0
 0.130  0.9227  -10.3   6.914  172.0  0.0144   83.9  0.9903   -6.3
 0.135  0.9227  -10.7   6.913  171.7  0.0149   83.7  0.9900   -6.5
 0.140  0.9227  -11.1   6.912  171.3  0.0155   83.5  0.9897   -6.8
 0.145  0.9227  -11.5   6.911  171.0  0.0160   83.3  0.9894   -7.0
 0.150  0.9228  -11.9   6.911  170.7  0.0166   83.1  0.9891   -7.3
 0.155  0.9225  -12.3   6.908  170.4  0.0171   82.8  0.9885   -7.5
 0.160  0.9223  -12.7   6.905  170.1  0.0177   82.6  0.9879   -7.8
 0.165  0.9221  -13.1   6.902  169.8  0.0182   82.3  0.9874   -8.0
 0.170  0.9220  -13.5   6.900  169.5  0.0188   82.1  0.9868   -8.2
 0.175  0.9219  -13.8   6.897  169.2  0.0193   81.8  0.9863   -8.4
 0.180  0.9218  -14.2   6.895  168.9  0.0198   81.6  0.9858   -8.7
 0.185  0.9218  -14.6   6.893  168.6  0.0204   81.4  0.9853   -8.9
 0.190  0.9218  -15.0   6.891  168.3  0.0209   81.2  0.9848   -9.1
 0.195  0.9219  -15.4   6.889  168.0  0.0215   81.1  0.9843   -9.4
 0.200  0.9220  -15.8   6.888  167.7  0.0220   80.9  0.9839   -9.6
 0.220  0.9195  -17.4   6.862  166.4  0.0242   79.9  0.9813  -10.6
 0.240  0.9177  -18.9   6.839  165.1  0.0263   79.1  0.9790  -11.5
 0.260  0.9156  -20.5   6.821  163.8  0.0285   78.2  0.9762  -12.5
 0.280  0.9133  -22.1   6.808  162.6  0.0306   77.2  0.9729  -13.4
 0.300  0.9117  -23.7   6.798  161.4  0.0327   76.4  0.9699  -14.4
 0.320  0.9090  -25.3   6.774  160.2  0.0348   75.4  0.9662  -15.3
 0.340  0.9069  -26.9   6.753  159.1  0.0369   74.4  0.9627  -16.2
 0.360  0.9048  -28.5   6.728  157.9  0.0389   73.5  0.9588  -17.2
 0.380  0.9025  -30.0   6.699  156.7  0.0409   72.6  0.9546  -18.1
 0.400  0.9009  -31.5   6.673  155.5  0.0429   71.8  0.9506  -19.0
 0.420  0.8972  -33.1   6.642  154.3  0.0449   70.8  0.9462  -19.9
 0.440  0.8941  -34.6   6.614  153.1  0.0469   69.9  0.9419  -20.8
 0.450  0.8928  -35.4   6.601  152.5  0.0479   69.5  0.9399  -21.2
 0.460  0.8909  -36.2   6.582  151.9  0.0488   69.0  0.9373  -21.6
 0.480  0.8877  -37.7   6.547  150.7  0.0507   68.2  0.9322  -22.5
 0.500  0.8851  -39.2   6.515  149.5  0.0526   67.4  0.9273  -23.4
 0.520  0.8807  -40.7   6.475  148.4  0.0544   66.4  0.9217  -24.3
 0.540  0.8769  -42.2   6.437  147.3  0.0562   65.5  0.9162  -25.1
 0.560  0.8737  -43.8   6.401  146.1  0.0580   64.6  0.9110  -26.0
 0.580  0.8712  -45.3   6.368  145.0  0.0599   63.8  0.9060  -26.9
 0.600  0.8693  -46.9   6.338  143.8  0.0617   63.0  0.9012  -27.8
 0.620  0.8646  -48.3   6.294  142.7  0.0633   62.1  0.8950  -28.6
 0.640  0.8605  -49.8   6.252  141.7  0.0649   61.2  0.8890  -29.4
 0.660  0.8569  -51.2   6.212  140.6  0.0666   60.4  0.8831  -30.2
 0.680  0.8539  -52.7   6.174  139.5  0.0682   59.6  0.8775  -31.1
 0.700  0.8514  -54.2   6.139  138.4  0.0699   58.9  0.8720  -31.9
 0.720  0.8466  -55.6   6.090  137.4  0.0714   58.1  0.8656  -32.6
 0.740  0.8424  -57.0   6.043  136.4  0.0729   57.2  0.8594  -33.4
 0.760  0.8387  -58.5   5.997  135.3  0.0744   56.5  0.8533  -34.1
 0.780  0.8355  -59.9   5.954  134.3  0.0760   55.7  0.8474  -34.9
 0.800  0.8329  -61.4   5.913  133.2  0.0775   55.0  0.8416  -35.7
 0.820  0.8283  -62.8   5.866  132.2  0.0788   54.2  0.8352  -36.4
 0.840  0.8242  -64.2   5.821  131.2  0.0802   53.4  0.8289  -37.1
 0.860  0.8206  -65.6   5.777  130.2  0.0815   52.7  0.8227  -37.8
 0.880  0.8175  -67.0   5.736  129.2  0.0829   52.0  0.8166  -38.6
 0.900  0.8149  -68.4   5.696  128.2  0.0843   51.3  0.8107  -39.3
 0.920  0.8106  -69.8   5.650  127.3  0.0855   50.6  0.8042  -40.0
 0.940  0.8067  -71.1   5.606  126.4  0.0868   49.8  0.7978  -40.7
 0.960  0.8034  -72.5   5.563  125.4  0.0880   49.1  0.7915  -41.4
 0.980  0.8004  -73.9   5.522  124.5  0.0893   48.5  0.7853  -42.2
 1.000  0.7980  -75.3   5.482  123.5  0.0906   47.8  0.7793  -42.9
 1.020  0.7937  -76.6   5.435  122.6  0.0917   47.1  0.7730  -43.5
 1.040  0.7898  -77.8   5.390  121.8  0.0928   46.4  0.7669  -44.1
 1.060  0.7863  -79.1   5.346  120.9  0.0939   45.8  0.7608  -44.8
 1.080  0.7831  -80.4   5.303  120.0  0.0950   45.1  0.7548  -45.4
 1.100  0.7804  -81.7   5.261  119.1  0.0961   44.5  0.7489  -46.1
 1.120  0.7764  -83.0   5.216  118.2  0.0971   43.9  0.7426  -46.7
 1.140  0.7727  -84.3   5.172  117.4  0.0981   43.2  0.7363  -47.3
 1.160  0.7695  -85.6   5.129  116.5  0.0991   42.6  0.7301  -48.0
 1.180  0.7666  -86.9   5.087  115.6  0.1002   42.0  0.7241  -48.6
 1.200  0.7642  -88.2   5.047  114.7  0.1012   41.4  0.7181  -49.3
 1.220  0.7605  -89.4   5.005  113.9  0.1021   40.8  0.7122  -49.9
 1.240  0.7571  -90.6   4.964  113.1  0.1029   40.2  0.7063  -50.4
 1.260  0.7540  -91.9   4.923  112.3  0.1038   39.6  0.7005  -51.0
 1.280  0.7513  -93.1   4.884  111.4  0.1047   39.0  0.6948  -51.6
 1.300  0.7490  -94.4   4.846  110.6  0.1056   38.4  0.6892  -52.2
 1.320  0.7455  -95.6   4.805  109.8  0.1063   37.8  0.6834  -52.8
 1.340  0.7422  -96.8   4.765  109.0  0.1071   37.3  0.6776  -53.3
 1.360  0.7393  -98.0   4.726  108.2  0.1078   36.7  0.6719  -53.9
 1.380  0.7368  -99.3   4.688  107.4  0.1086   36.1  0.6663  -54.5
 1.400  0.7346 -100.5   4.651  106.6  0.1094   35.6  0.6607  -55.1
 1.420  0.7315 -101.6   4.613  105.9  0.1101   35.1  0.6552  -55.6
 1.440  0.7286 -102.7   4.575  105.2  0.1108   34.5  0.6497  -56.1
 1.460  0.7260 -103.8   4.538  104.5  0.1115   34.0  0.6443  -56.6
 1.480  0.7237 -105.0   4.502  103.7  0.1123   33.5  0.6390  -57.2
 1.500  0.7217 -106.1   4.467  103.0  0.1130   33.0  0.6337  -57.7
 1.520  0.7189 -107.2   4.431  102.3  0.1135   32.5  0.6284  -58.2
 1.540  0.7164 -108.4   4.395  101.6  0.1141   31.9  0.6232  -58.7
 1.560  0.7142 -109.5   4.360  100.8  0.1147   31.4  0.6180  -59.2
 1.580  0.7123 -110.6   4.326  100.1  0.1152   30.9  0.6129  -59.7
 1.600  0.7106 -111.8   4.293   99.3  0.1158   30.4  0.6078  -60.2
 1.620  0.7076 -112.9   4.258   98.6  0.1164   29.9  0.6028  -60.7
 1.640  0.7048 -114.0   4.224   98.0  0.1169   29.5  0.5979  -61.1
 1.660  0.7023 -115.1   4.191   97.3  0.1175   29.0  0.5930  -61.6
 1.680  0.7001 -116.2   4.158   96.6  0.1181   28.6  0.5881  -62.1
 1.700  0.6981 -117.3   4.126   95.9  0.1187   28.1  0.5833  -62.6
 1.720  0.6957 -118.3   4.091   95.3  0.1191   27.6  0.5787  -63.0
 1.740  0.6934 -119.3   4.057   94.6  0.1196   27.2  0.5741  -63.5
 1.760  0.6914 -120.3   4.024   94.0  0.1200   26.7  0.5695  -63.9
 1.780  0.6897 -121.4   3.991   93.3  0.1204   26.3  0.5650  -64.3
 1.800  0.6881 -122.4   3.958   92.6  0.1209   25.8  0.5605  -64.8
 1.820  0.6858 -123.4   3.928   92.0  0.1213   25.4  0.5558  -65.3
 1.840  0.6837 -124.5   3.899   91.3  0.1217   25.0  0.5511  -65.7
 1.860  0.6818 -125.6   3.870   90.7  0.1221   24.5  0.5465  -66.2
 1.880  0.6802 -126.6   3.841   90.1  0.1226   24.1  0.5419  -66.7
 1.900  0.6788 -127.7   3.813   89.4  0.1230   23.7  0.5373  -67.2
 1.920  0.6766 -128.6   3.783   88.8  0.1233   23.3  0.5331  -67.6
 1.940  0.6746 -129.6   3.754   88.2  0.1237   22.9  0.5290  -67.9
 1.960  0.6728 -130.5   3.725   87.6  0.1241   22.5  0.5249  -68.3
 1.980  0.6712 -131.5   3.696   87.0  0.1244   22.1  0.5208  -68.7
 2.000  0.6697 -132.4   3.668   86.4  0.1248   21.7  0.5167  -69.1
 2.020  0.6674 -133.3   3.641   85.8  0.1251   21.3  0.5126  -69.5
 2.040  0.6652 -134.3   3.614   85.3  0.1253   20.9  0.5085  -69.9
 2.060  0.6633 -135.2   3.588   84.7  0.1256   20.5  0.5044  -70.3
 2.080  0.6615 -136.2   3.562   84.1  0.1259   20.2  0.5003  -70.7
 2.100  0.6599 -137.1   3.536   83.6  0.1262   19.8  0.4963  -71.1
 2.120  0.6585 -138.1   3.510   83.0  0.1265   19.4  0.4923  -71.5
 2.140  0.6572 -139.1   3.486   82.4  0.1268   19.0  0.4883  -72.0
 2.160  0.6562 -140.0   3.461   81.7  0.1271   18.6  0.4844  -72.4
 2.180  0.6554 -141.0   3.437   81.1  0.1274   18.3  0.4805  -72.8
 2.200  0.6547 -142.0   3.413   80.5  0.1277   17.9  0.4766  -73.3
 2.220  0.6528 -142.9   3.388   80.0  0.1279   17.5  0.4728  -73.7
 2.240  0.6510 -143.8   3.364   79.4  0.1281   17.2  0.4690  -74.1
 2.260  0.6494 -144.7   3.339   78.9  0.1282   16.8  0.4652  -74.5
 2.280  0.6479 -145.6   3.315   78.4  0.1284   16.4  0.4615  -74.9
 2.300  0.6466 -146.6   3.292   77.8  0.1286   16.1  0.4578  -75.3
 2.320  0.6455 -147.5   3.268   77.2  0.1288   15.7  0.4541  -75.7
 2.340  0.6445 -148.4   3.245   76.7  0.1290   15.4  0.4504  -76.1
 2.360  0.6438 -149.3   3.222   76.1  0.1293   15.0  0.4467  -76.5
 2.380  0.6431 -150.3   3.200   75.5  0.1295   14.7  0.4431  -77.0
 2.400  0.6427 -151.2   3.178   74.9  0.1297   14.3  0.4395  -77.4
 2.420  0.6414 -152.1   3.156   74.4  0.1298   14.0  0.4360  -77.8
 2.440  0.6402 -153.0   3.134   73.9  0.1299   13.6  0.4326  -78.1
 2.460  0.6392 -153.9   3.113   73.4  0.1300   13.3  0.4291  -78.5
 2.480  0.6384 -154.8   3.092   72.9  0.1301   13.0  0.4257  -78.9
 2.500  0.6377 -155.7   3.071   72.3  0.1302   12.6  0.4223  -79.3
 2.520  0.6372 -156.6   3.050   71.8  0.1303   12.3  0.4190  -79.7
 2.540  0.6368 -157.5   3.030   71.3  0.1304   12.0  0.4156  -80.1
 2.560  0.6366 -158.4   3.009   70.7  0.1305   11.7  0.4123  -80.5
 2.580  0.6366 -159.3   2.990   70.2  0.1307   11.3  0.4090  -81.0
 2.600  0.6367 -160.2   2.970   69.6  0.1308   11.0  0.4057  -81.4
 2.620  0.6356 -161.0   2.950   69.1  0.1308   10.7  0.4026  -81.8
 2.640  0.6347 -161.8   2.930   68.7  0.1309   10.4  0.3995  -82.1
 2.660  0.6338 -162.6   2.910   68.2  0.1309   10.2  0.3964  -82.5
 2.680  0.6331 -163.4   2.890   67.7  0.1310    9.9  0.3934  -82.8
 2.700  0.6326 -164.2   2.871   67.2  0.1311    9.6  0.3903  -83.2
 2.720  0.6321 -165.0   2.852   66.7  0.1311    9.3  0.3873  -83.6
 2.740  0.6318 -165.9   2.833   66.2  0.1312    9.0  0.3843  -84.0
 2.760  0.6316 -166.7   2.814   65.7  0.1313    8.8  0.3813  -84.4
 2.780  0.6315 -167.5   2.795   65.1  0.1313    8.5  0.3784  -84.8
 2.800  0.6316 -168.3   2.777   64.6  0.1314    8.2  0.3754  -85.2
 2.820  0.6310 -169.1   2.760   64.2  0.1314    7.9  0.3726  -85.6
 2.840  0.6305 -169.8   2.743   63.7  0.1314    7.7  0.3698  -85.9
 2.860  0.6301 -170.6   2.726   63.3  0.1314    7.4  0.3670  -86.3
 2.880  0.6299 -171.4   2.709   62.8  0.1314    7.1  0.3643  -86.7
 2.900  0.6297 -172.1   2.692   62.3  0.1314    6.8  0.3616  -87.0
 2.920  0.6297 -172.9   2.676   61.8  0.1314    6.6  0.3588  -87.4
 2.940  0.6298 -173.7   2.660   61.4  0.1314    6.3  0.3561  -87.8
 2.960  0.6300 -174.5   2.644   60.9  0.1315    6.0  0.3534  -88.2
 2.980  0.6303 -175.2   2.628   60.4  0.1315    5.8  0.3508  -88.6
 3.000  0.6307 -176.0   2.612   59.9  0.1315    5.5  0.3481  -89.0
 3.100  0.6276 -179.5   2.534   57.9  0.1312    4.4  0.3356  -90.9
 3.200  0.6268  176.9   2.459   55.7  0.1309    3.2  0.3236  -92.9
 3.300  0.6285  173.4   2.387   53.5  0.1307    2.1  0.3119  -95.0
 3.400  0.6326  169.9   2.320   51.1  0.1305    0.9  0.3007  -97.3
 3.500  0.6390  166.4   2.257   48.5  0.1304   -0.2  0.2901  -99.8
 3.600  0.6387  163.4   2.195   46.6  0.1300   -1.1  0.2809 -101.9
 3.700  0.6401  160.4   2.135   44.6  0.1297   -1.9  0.2721 -104.2
 3.800  0.6433  157.4   2.079   42.5  0.1294   -2.8  0.2638 -106.7
 3.900  0.6481  154.5   2.025   40.3  0.1291   -3.6  0.2560 -109.3
 4.000  0.6547  151.6   1.974   38.0  0.1288   -4.5  0.2487 -112.0
 4.100  0.6554  149.2   1.921   36.3  0.1283   -5.2  0.2426 -114.4
 4.200  0.6572  146.8   1.871   34.4  0.1277   -5.9  0.2369 -117.0
 4.300  0.6602  144.5   1.822   32.5  0.1272   -6.6  0.2317 -119.6
 4.400  0.6643  142.1   1.775   30.4  0.1268   -7.4  0.2271 -122.4
 4.500  0.6695  139.8   1.731   28.3  0.1263   -8.1  0.2230 -125.3
 4.600  0.6696  137.9   1.688   26.8  0.1257   -8.6  0.2192 -127.7
 4.700  0.6705  136.1   1.647   25.1  0.1252   -9.0  0.2158 -130.1
 4.800  0.6720  134.3   1.607   23.5  0.1246   -9.5  0.2128 -132.7
 4.900  0.6743  132.4   1.568   21.7  0.1240  -10.0  0.2102 -135.2
 5.000  0.6772  130.6   1.531   19.8  0.1235  -10.5  0.2081 -137.9
 5.100  0.6778  128.9   1.498   18.4  0.1230  -10.8  0.2057 -140.4
 5.200  0.6791  127.2   1.465   16.9  0.1225  -11.1  0.2036 -143.0
 5.300  0.6809  125.5   1.434   15.3  0.1220  -11.5  0.2020 -145.6
 5.400  0.6834  123.8   1.404   13.7  0.1216  -11.8  0.2009 -148.2
 5.500  0.6864  122.1   1.375   12.0  0.1211  -12.1  0.2001 -150.9
 5.600  0.6886  120.5   1.349   10.6  0.1209  -12.3  0.1990 -153.6
 5.700  0.6913  118.9   1.323    9.1  0.1207  -12.4  0.1984 -156.4
 5.800  0.6946  117.3   1.298    7.6  0.1204  -12.6  0.1982 -159.2
 5.900  0.6984  115.7   1.275    6.0  0.1202  -12.7  0.1985 -161.9
 6.000  0.7027  114.1   1.252    4.4  0.1200  -12.9  0.1993 -164.7
 6.100  0.7057  112.7   1.231    3.0  0.1203  -13.0  0.1995 -167.4
 6.200  0.7092  111.2   1.210    1.5  0.1206  -13.2  0.2000 -170.0
 6.300  0.7132  109.8   1.190   -0.1  0.1208  -13.3  0.2010 -172.6
 6.400  0.7175  108.4   1.171   -1.7  0.1211  -13.5  0.2025 -175.2
 6.500  0.7223  107.0   1.153   -3.3  0.1214  -13.6  0.2043 -177.8
 6.600  0.7246  105.6   1.134   -4.7  0.1221  -13.8  0.2049  179.7
 6.800  0.7304  102.9   1.100   -7.8  0.1234  -14.1  0.2073  174.9
 7.000  0.7378  100.3   1.068  -11.0  0.1248  -14.5  0.2111  170.2
 7.200  0.7408   97.5   1.035  -13.9  0.1266  -15.2  0.2156  165.1
 7.400  0.7456   94.8   1.006  -17.0  0.1285  -15.9  0.2218  160.2
 7.600  0.7493   91.8   0.974  -20.1  0.1301  -16.8  0.2285  155.1
 7.800  0.7523   88.8   0.941  -23.1  0.1315  -18.0  0.2361  149.9
 8.000  0.7574   85.7   0.910  -26.4  0.1329  -19.1  0.2456  145.0
 8.200  0.7595   82.5   0.875  -29.1  0.1330  -20.2  0.2537  139.2
 8.400  0.7640   79.4   0.842  -32.0  0.1332  -21.3  0.2643  133.7
 8.600  0.7718   76.4   0.811  -34.7  0.1334  -22.1  0.2781  128.4
 8.800  0.7827   73.6   0.783  -37.1  0.1335  -22.7  0.2953  123.2
 9.000  0.7954   70.9   0.757  -39.7  0.1337  -23.3  0.3146  118.7
 9.200  0.8142   68.8   0.733  -41.9  0.1346  -23.7  0.3392  115.0
 9.400  0.8340   66.8   0.711  -44.3  0.1355  -24.2  0.3650  111.8
 9.600  0.8518   65.0   0.686  -46.6  0.1367  -24.7  0.3913  109.2
 9.800  0.8672   63.5   0.658  -48.9  0.1382  -25.3  0.4179  106.9
10.000  0.8832   62.0   0.632  -51.4  0.1398  -25.9  0.4450  104.9
!
!  f       NFmin   Gammaopt  rn/50
! GHz       dB    MAG  ANG    -
 0.900      0.53  0.47   33   0.22
 1.800      1.03  0.29   77   0.17
 2.400      1.13  0.31  102   0.16
 3.000      1.32  0.31  136   0.12
 4.000      1.57  0.37 -168   0.10
 5.000      1.96  0.42 -129   0.28
 6.000      2.72  0.51 -111   0.37
!
! (c) 2016  Infineon Technologies AG, Munich
