! Infineon Technologies  Discrete & RF Semiconductors
! BFP420F
!
! VCE =  3.5 V,  IC =  3.0 mA
! Common Emitter S-Parameters:                            Sep 2011
# GHz  S  MA  R  50
!  f         S11            S21            S12            S22
! GHz     MAG   ANG      MAG   ANG      MAG   ANG      MAG   ANG
 0.030  0.8857   -2.2  10.373  177.2  0.0026   82.8  0.9887   -0.5
 0.040  0.8844   -2.9  10.377  176.4  0.0033   83.0  0.9915   -0.8
 0.050  0.8832   -4.4  10.291  175.2  0.0043   85.3  0.9909   -2.1
 0.060  0.8820   -5.6  10.316  175.1  0.0051   85.0  0.9922   -2.7
 0.070  0.8812   -6.2  10.350  174.5  0.0059   83.2  0.9913   -3.2
 0.080  0.8855   -7.2  10.249  173.6  0.0068   83.8  0.9905   -3.9
 0.090  0.8767   -8.0  10.286  172.9  0.0077   84.0  0.9895   -4.3
 0.100  0.8783   -9.0  10.319  172.0  0.0086   82.7  0.9877   -4.8
 0.110  0.8810   -9.9  10.185  171.5  0.0094   84.0  0.9866   -5.3
 0.120  0.8770  -10.9  10.263  170.4  0.0102   82.0  0.9856   -5.8
 0.130  0.8774  -11.5  10.178  169.8  0.0110   82.4  0.9839   -6.4
 0.140  0.8736  -12.4  10.150  169.1  0.0118   81.6  0.9822   -6.9
 0.150  0.8731  -13.1  10.145  168.4  0.0127   81.8  0.9799   -7.4
 0.200  0.8687  -17.5  10.008  165.2  0.0169   79.7  0.9735   -9.8
 0.250  0.8519  -21.6   9.879  161.6  0.0208   77.4  0.9535  -12.3
 0.300  0.8498  -26.0   9.760  158.3  0.0249   75.2  0.9553  -14.3
 0.350  0.8393  -30.1   9.587  155.1  0.0287   73.1  0.9394  -16.6
 0.400  0.8263  -34.1   9.390  151.8  0.0322   71.0  0.9251  -18.7
 0.450  0.8164  -37.9   9.216  148.8  0.0358   69.0  0.9119  -20.8
 0.500  0.8008  -41.8   8.998  145.9  0.0391   67.0  0.8955  -22.8
 0.600  0.7715  -49.2   8.578  140.0  0.0450   63.1  0.8617  -26.6
 0.700  0.7438  -56.4   8.208  134.7  0.0507   59.8  0.8289  -30.1
 0.800  0.7155  -63.2   7.779  129.6  0.0554   56.7  0.7942  -33.3
 0.900  0.6862  -69.4   7.352  125.2  0.0596   53.8  0.7595  -36.3
 1.000  0.6621  -75.5   6.987  121.0  0.0634   51.5  0.7269  -39.1
 1.100  0.6363  -81.2   6.630  116.9  0.0666   49.0  0.6948  -41.6
 1.200  0.6133  -86.7   6.249  113.1  0.0694   47.1  0.6653  -43.9
 1.300  0.5942  -91.6   5.938  110.0  0.0719   45.3  0.6377  -46.0
 1.400  0.5780  -96.7   5.661  106.9  0.0742   43.8  0.6118  -48.0
 1.500  0.5590 -101.4   5.369  103.4  0.0762   42.4  0.5867  -49.7
 1.600  0.5442 -106.0   5.082  100.8  0.0779   41.1  0.5643  -51.6
 1.700  0.5308 -110.1   4.862   98.5  0.0795   40.1  0.5424  -53.2
 1.800  0.5224 -114.0   4.659   96.1  0.0811   39.3  0.5237  -54.8
 1.900  0.5121 -118.2   4.456   93.1  0.0825   38.4  0.5060  -56.2
 2.000  0.5013 -121.8   4.227   91.1  0.0837   37.5  0.4900  -57.9
 2.200  0.4896 -128.4   3.925   87.2  0.0860   36.5  0.4621  -60.6
 2.400  0.4767 -134.7   3.605   83.2  0.0883   35.4  0.4394  -63.3
 2.600  0.4707 -140.4   3.363   79.9  0.0901   34.9  0.4193  -65.7
 2.800  0.4650 -145.9   3.145   76.4  0.0923   34.4  0.4037  -68.1
 3.000  0.4599 -151.1   2.950   73.3  0.0941   34.1  0.3890  -70.4
 3.500  0.4565 -162.6   2.559   66.2  0.0993   33.8  0.3629  -75.3
 4.000  0.4574 -173.1   2.269   59.4  0.1048   33.8  0.3434  -79.7
 4.500  0.4644  177.7   2.040   53.1  0.1112   33.9  0.3269  -83.7
 5.000  0.4703  169.5   1.856   47.1  0.1179   33.9  0.3111  -87.4
 5.500  0.4754  161.5   1.708   41.2  0.1255   33.8  0.2934  -91.1
 6.000  0.4801  153.5   1.580   35.5  0.1338   33.6  0.2726  -95.0
 6.500  0.4904  145.2   1.468   30.0  0.1425   33.0  0.2494  -99.8
 7.000  0.5032  137.2   1.372   24.5  0.1521   32.3  0.2245 -104.5
 7.500  0.5246  130.4   1.287   19.4  0.1634   31.5  0.1993 -111.3
 8.000  0.5480  124.3   1.210   14.2  0.1756   29.8  0.1693 -122.2
 8.500  0.5731  118.8   1.136    9.0  0.1868   27.6  0.1353 -140.8
 9.000  0.5972  114.4   1.069    4.4  0.1976   25.3  0.1165 -171.0
 9.500  0.6218  110.5   1.009    0.0  0.2081   23.0  0.1418  155.7
10.000  0.6510  106.3   0.953   -4.1  0.2187   20.5  0.2038  135.5
!
!  f       NFmin   Gammaopt  rn/50
! GHz       dB    MAG  ANG    -
 0.450      0.85  0.40   15   0.19
 0.900      0.90  0.38   35   0.21
 1.900      1.14  0.29   89   0.16
 2.400      1.25  0.29  101   0.16
 3.500      1.61  0.32  139   0.17
!
! (c) 2011  Infineon Technologies AG, Munich
