! Infineon Technologies  Discrete & RF Semiconductors
! BFP420F
!
! VCE =  3.0 V,  IC =  25 mA
! Common Emitter S-Parameters:                            Sep 2011
# GHz  S  MA  R  50
!  f         S11            S21            S12            S22
! GHz     MAG   ANG      MAG   ANG      MAG   ANG      MAG   ANG
 0.030  0.4346   -7.1  43.744  173.1  0.0021   89.1  0.9504   -3.3
 0.040  0.4335   -9.2  43.532  171.1  0.0028   86.8  0.9505   -4.7
 0.050  0.4313  -11.9  42.871  168.9  0.0032   82.2  0.9486   -6.1
 0.060  0.4320  -15.1  42.721  167.4  0.0039   82.3  0.9456   -7.5
 0.070  0.4338  -17.8  42.414  165.7  0.0050   84.0  0.9418   -8.9
 0.080  0.4315  -19.8  41.719  163.8  0.0053   82.0  0.9363  -10.1
 0.090  0.4246  -22.0  41.399  162.2  0.0060   81.7  0.9309  -11.4
 0.100  0.4275  -24.6  41.120  160.2  0.0066   80.5  0.9246  -12.6
 0.110  0.4290  -26.8  40.280  158.8  0.0072   81.1  0.9177  -13.8
 0.120  0.4227  -29.5  40.034  156.8  0.0077   81.3  0.9108  -15.1
 0.130  0.4222  -31.5  39.306  155.4  0.0084   79.6  0.9037  -16.2
 0.140  0.4207  -34.1  38.773  153.9  0.0090   78.8  0.8956  -17.3
 0.150  0.4182  -36.4  38.320  152.4  0.0097   77.9  0.8880  -18.4
 0.200  0.4101  -47.4  35.766  145.9  0.0124   75.4  0.8472  -23.4
 0.250  0.3989  -57.5  33.212  139.8  0.0147   72.5  0.8031  -27.7
 0.300  0.3890  -66.9  31.058  134.6  0.0173   70.6  0.7627  -31.6
 0.350  0.3802  -75.3  28.858  129.9  0.0193   69.0  0.7214  -34.9
 0.400  0.3722  -83.1  26.851  125.7  0.0213   68.0  0.6839  -37.7
 0.450  0.3647  -90.1  25.126  122.0  0.0231   66.8  0.6492  -40.2
 0.500  0.3568  -96.5  23.435  118.6  0.0248   65.9  0.6157  -42.5
 0.600  0.3481 -108.1  20.590  112.7  0.0280   64.9  0.5569  -46.4
 0.700  0.3409 -117.8  18.352  107.7  0.0310   64.1  0.5100  -49.7
 0.800  0.3379 -126.0  16.406  103.3  0.0339   63.8  0.4682  -52.5
 0.900  0.3341 -132.8  14.765   99.8  0.0367   63.6  0.4323  -54.8
 1.000  0.3351 -138.8  13.451   96.7  0.0395   63.6  0.4018  -57.2
 1.100  0.3333 -144.3  12.315   93.7  0.0423   63.4  0.3746  -59.3
 1.200  0.3332 -149.0  11.267   91.0  0.0451   63.4  0.3516  -61.5
 1.300  0.3334 -153.2  10.442   88.9  0.0479   63.3  0.3313  -63.3
 1.400  0.3368 -157.0   9.730   86.8  0.0507   63.3  0.3130  -65.4
 1.500  0.3362 -161.0   9.058   84.4  0.0535   63.1  0.2955  -67.1
 1.600  0.3381 -163.8   8.427   82.7  0.0562   62.9  0.2805  -69.2
 1.700  0.3396 -166.6   7.947   81.2  0.0590   62.8  0.2662  -71.1
 1.800  0.3435 -169.1   7.524   79.6  0.0619   62.8  0.2545  -73.2
 1.900  0.3444 -172.1   7.116   77.5  0.0648   62.5  0.2437  -75.1
 2.000  0.3449 -174.3   6.686   76.2  0.0674   62.1  0.2342  -77.3
 2.200  0.3485 -178.1   6.094   73.7  0.0730   61.7  0.2191  -81.3
 2.400  0.3488  178.1   5.524   70.9  0.0788   60.9  0.2076  -85.1
 2.600  0.3517  174.7   5.096   68.7  0.0843   60.3  0.1977  -88.8
 2.800  0.3536  171.4   4.721   66.1  0.0902   59.4  0.1911  -92.1
 3.000  0.3554  168.3   4.389   64.0  0.0957   58.6  0.1852  -95.5
 3.500  0.3612  161.5   3.746   58.7  0.1099   56.4  0.1752 -102.6
 4.000  0.3667  155.3   3.273   53.5  0.1242   53.7  0.1677 -108.9
 4.500  0.3750  150.0   2.911   48.6  0.1385   50.9  0.1576 -114.5
 5.000  0.3795  145.6   2.627   43.8  0.1524   47.9  0.1457 -120.3
 5.500  0.3853  140.8   2.396   39.0  0.1660   44.7  0.1307 -126.5
 6.000  0.3923  135.4   2.204   34.2  0.1793   41.6  0.1123 -134.3
 6.500  0.4054  129.7   2.038   29.4  0.1919   38.3  0.0957 -147.1
 7.000  0.4203  123.9   1.892   24.6  0.2043   35.0  0.0797 -163.8
 7.500  0.4421  119.6   1.765   20.0  0.2169   31.7  0.0740  171.8
 8.000  0.4682  115.9   1.649   15.3  0.2287   28.0  0.0883  143.3
 8.500  0.4991  112.4   1.540   10.7  0.2381   24.2  0.1245  119.7
 9.000  0.5300  109.2   1.441    6.6  0.2462   20.8  0.1752  105.3
 9.500  0.5606  106.1   1.353    2.8  0.2536   17.8  0.2346   98.3
10.000  0.5938  102.4   1.277   -0.6  0.2610   14.9  0.2980   94.9
!
!  f       NFmin   Gammaopt  rn/50
! GHz       dB    MAG  ANG    -
 0.450      1.66  0.23 -177   0.10
 0.900      1.68  0.25 -175   0.13
 1.900      1.81  0.32 -166   0.14
 2.400      1.87  0.32 -160   0.12
 3.500      2.10  0.32 -151   0.17
!
! (c) 2011  Infineon Technologies AG, Munich
