! Infineon Technologies  Discrete & RF Semiconductors
! BFP420F
!
! VCE =  1.0 V,  IC =  3.0 mA
! Common Emitter S-Parameters:                            Sep 2011
# GHz  S  MA  R  50
!  f         S11            S21            S12            S22
! GHz     MAG   ANG      MAG   ANG      MAG   ANG      MAG   ANG
 0.030  0.8771   -2.7  10.313  177.1  0.0035   88.1  0.9880   -1.0
 0.040  0.8763   -3.5  10.326  176.2  0.0046   87.9  0.9909   -1.6
 0.050  0.8738   -5.0  10.242  175.0  0.0057   86.7  0.9893   -3.0
 0.060  0.8706   -5.9  10.266  174.7  0.0070   86.7  0.9902   -3.8
 0.070  0.8712   -7.2  10.295  174.1  0.0081   87.1  0.9895   -4.5
 0.080  0.8726   -8.0  10.197  173.0  0.0091   85.9  0.9879   -5.2
 0.090  0.8708   -9.1  10.236  172.3  0.0105   85.4  0.9866   -5.8
 0.100  0.8679  -10.3  10.264  171.2  0.0116   84.4  0.9845   -6.5
 0.110  0.8703  -11.2  10.137  170.6  0.0126   84.0  0.9828   -7.1
 0.120  0.8670  -12.1  10.208  169.5  0.0136   83.2  0.9812   -7.8
 0.130  0.8649  -13.0  10.123  168.7  0.0149   83.1  0.9793   -8.6
 0.140  0.8637  -14.0  10.090  167.9  0.0159   82.1  0.9771   -9.2
 0.150  0.8643  -14.9  10.080  167.1  0.0172   81.7  0.9742   -9.9
 0.200  0.8564  -19.8   9.924  163.5  0.0225   78.8  0.9646  -13.1
 0.250  0.8398  -24.4   9.759  159.5  0.0277   75.9  0.9407  -16.3
 0.300  0.8341  -29.4   9.607  155.8  0.0331   73.5  0.9370  -19.1
 0.350  0.8222  -33.8   9.391  152.3  0.0379   70.7  0.9165  -22.0
 0.400  0.8078  -38.4   9.157  148.7  0.0425   68.3  0.8968  -24.8
 0.450  0.7952  -42.6   8.945  145.4  0.0469   66.0  0.8786  -27.4
 0.500  0.7789  -46.8   8.691  142.3  0.0510   63.7  0.8566  -30.0
 0.600  0.7465  -55.0   8.196  136.0  0.0583   59.3  0.8122  -34.9
 0.700  0.7170  -62.6   7.764  130.5  0.0649   55.6  0.7698  -39.3
 0.800  0.6884  -69.8   7.289  125.3  0.0703   52.2  0.7267  -43.3
 0.900  0.6590  -76.4   6.829  120.8  0.0749   49.2  0.6851  -46.9
 1.000  0.6366  -82.8   6.444  116.7  0.0790   46.7  0.6467  -50.3
 1.100  0.6125  -88.7   6.071  112.6  0.0825   44.2  0.6100  -53.4
 1.200  0.5915  -94.3   5.690  108.9  0.0854   42.3  0.5775  -56.3
 1.300  0.5737  -99.5   5.379  105.9  0.0879   40.6  0.5472  -58.8
 1.400  0.5599 -104.5   5.107  102.9  0.0903   39.1  0.5197  -61.3
 1.500  0.5439 -109.4   4.829   99.6  0.0922   37.6  0.4929  -63.5
 1.600  0.5323 -113.9   4.555   97.1  0.0940   36.4  0.4701  -65.8
 1.700  0.5210 -117.9   4.345   94.9  0.0956   35.5  0.4478  -67.8
 1.800  0.5153 -121.7   4.157   92.6  0.0971   34.7  0.4293  -69.9
 1.900  0.5071 -125.9   3.970   89.8  0.0985   33.9  0.4118  -71.8
 2.000  0.4996 -129.4   3.762   87.9  0.0997   33.1  0.3968  -73.9
 2.200  0.4920 -135.8   3.485   84.1  0.1021   32.1  0.3713  -77.5
 2.400  0.4824 -141.8   3.198   80.2  0.1044   31.1  0.3509  -80.9
 2.600  0.4796 -147.2   2.984   77.0  0.1062   30.7  0.3331  -84.1
 2.800  0.4772 -152.4   2.793   73.7  0.1087   30.2  0.3201  -87.2
 3.000  0.4741 -157.2   2.620   70.7  0.1106   29.9  0.3081  -90.2
 3.500  0.4763 -168.1   2.281   63.5  0.1162   29.6  0.2874  -96.6
 4.000  0.4813 -177.9   2.027   56.7  0.1225   29.4  0.2716 -102.3
 4.500  0.4901  173.4   1.828   50.4  0.1295   29.3  0.2574 -107.6
 5.000  0.4977  165.6   1.668   44.3  0.1369   29.0  0.2428 -112.9
 5.500  0.5038  158.1   1.537   38.3  0.1451   28.7  0.2260 -118.5
 6.000  0.5100  150.5   1.425   32.5  0.1540   28.1  0.2068 -125.0
 6.500  0.5220  142.7   1.327   26.9  0.1633   27.2  0.1873 -133.6
 7.000  0.5351  134.9   1.242   21.3  0.1735   26.2  0.1670 -143.5
 7.500  0.5560  128.4   1.166   16.0  0.1852   25.1  0.1519 -156.9
 8.000  0.5796  122.5   1.095   10.6  0.1971   23.0  0.1444 -176.4
 8.500  0.6037  117.1   1.026    5.4  0.2077   20.5  0.1523  159.7
 9.000  0.6257  112.6   0.961    0.9  0.2173   18.1  0.1837  137.9
 9.500  0.6494  108.8   0.904   -3.2  0.2262   15.9  0.2392  123.4
10.000  0.6755  104.6   0.851   -7.0  0.2353   13.6  0.3081  114.7
!
!  f       NFmin   Gammaopt  rn/50
! GHz       dB    MAG  ANG    -
 0.450      0.85  0.40   15   0.19
 0.900      0.90  0.38   35   0.21
 1.900      1.14  0.29   89   0.16
 2.400      1.25  0.29  101   0.16
 3.500      1.61  0.32  139   0.17
!
! (c) 2011  Infineon Technologies AG, Munich
