! Infineon Technologies  Discrete & RF Semiconductors
! BFP405
! VCE =  4.0 V,  IC =  18 mA
! Common Emitter S-Parameters:                            Jan 2016
# GHz  S  MA  R  50
!  f         S11            S21            S12            S22
! GHz     MAG   ANG      MAG   ANG      MAG   ANG      MAG   ANG
 0.010  0.5930   -0.5  27.845 -178.9  0.0006  -30.4  0.9477    3.2
 0.015  0.6063   -1.0  27.658  178.9  0.0003   29.9  0.9529    2.0
 0.020  0.6197   -1.4  27.512  176.7  0.0006   90.3  0.9586    0.8
 0.025  0.6189   -1.9  27.434  176.4  0.0007   86.9  0.9606    0.5
 0.030  0.6182   -2.4  27.357  176.2  0.0009   84.5  0.9626    0.3
 0.035  0.6176   -2.9  27.280  175.9  0.0010   82.8  0.9646    0.0
 0.040  0.6170   -3.5  27.204  175.6  0.0011   81.5  0.9666   -0.2
 0.045  0.6164   -4.0  27.128  175.4  0.0013   80.4  0.9686   -0.5
 0.050  0.6159   -4.5  27.053  175.1  0.0014   79.6  0.9707   -0.7
 0.055  0.6151   -5.0  27.038  174.7  0.0015   79.7  0.9709   -0.9
 0.060  0.6144   -5.5  27.025  174.2  0.0017   79.8  0.9710   -1.2
 0.065  0.6138   -6.0  27.014  173.8  0.0018   79.9  0.9712   -1.4
 0.070  0.6132   -6.5  27.004  173.3  0.0019   79.9  0.9715   -1.7
 0.075  0.6126   -7.0  26.996  172.9  0.0020   80.0  0.9717   -1.9
 0.080  0.6121   -7.5  26.990  172.4  0.0022   80.0  0.9719   -2.1
 0.085  0.6116   -8.1  26.985  172.0  0.0023   80.1  0.9722   -2.4
 0.090  0.6112   -8.6  26.982  171.5  0.0024   80.1  0.9725   -2.6
 0.095  0.6108   -9.1  26.981  171.1  0.0026   80.2  0.9728   -2.9
 0.100  0.6105   -9.6  26.981  170.6  0.0027   80.2  0.9731   -3.1
 0.105  0.6100  -10.1  26.943  170.2  0.0028   80.0  0.9725   -3.3
 0.110  0.6095  -10.6  26.905  169.8  0.0030   79.9  0.9719   -3.5
 0.115  0.6090  -11.2  26.870  169.4  0.0031   79.7  0.9714   -3.7
 0.120  0.6086  -11.7  26.835  169.1  0.0032   79.6  0.9708   -3.9
 0.125  0.6083  -12.2  26.801  168.7  0.0033   79.5  0.9703   -4.1
 0.130  0.6080  -12.7  26.769  168.3  0.0035   79.4  0.9698   -4.4
 0.135  0.6077  -13.2  26.738  167.9  0.0036   79.3  0.9693   -4.6
 0.140  0.6075  -13.8  26.709  167.5  0.0037   79.2  0.9688   -4.8
 0.145  0.6074  -14.3  26.680  167.1  0.0039   79.1  0.9683   -5.0
 0.150  0.6073  -14.8  26.653  166.7  0.0040   79.0  0.9678   -5.2
 0.155  0.6062  -15.3  26.608  166.3  0.0041   79.0  0.9671   -5.4
 0.160  0.6050  -15.8  26.565  165.9  0.0042   78.9  0.9663   -5.6
 0.165  0.6040  -16.3  26.523  165.5  0.0044   78.9  0.9656   -5.8
 0.170  0.6030  -16.7  26.483  165.0  0.0045   78.9  0.9649   -6.0
 0.175  0.6020  -17.2  26.444  164.6  0.0046   78.8  0.9642   -6.1
 0.180  0.6011  -17.7  26.406  164.2  0.0047   78.8  0.9635   -6.3
 0.185  0.6002  -18.2  26.370  163.8  0.0048   78.8  0.9629   -6.5
 0.190  0.5993  -18.7  26.335  163.3  0.0050   78.7  0.9622   -6.7
 0.195  0.5986  -19.2  26.302  162.9  0.0051   78.7  0.9615   -6.9
 0.200  0.5978  -19.7  26.270  162.5  0.0052   78.7  0.9609   -7.1
 0.220  0.5928  -21.6  26.114  160.8  0.0057   78.0  0.9549   -7.9
 0.240  0.5885  -23.5  25.981  159.1  0.0062   77.5  0.9491   -8.6
 0.260  0.5839  -25.4  25.798  157.6  0.0066   77.1  0.9455   -9.3
 0.280  0.5791  -27.3  25.562  156.0  0.0071   76.9  0.9439   -9.8
 0.300  0.5749  -29.2  25.344  154.5  0.0075   76.7  0.9424  -10.4
 0.320  0.5694  -30.9  25.070  153.0  0.0080   76.1  0.9366  -11.0
 0.340  0.5645  -32.7  24.815  151.4  0.0085   75.5  0.9310  -11.7
 0.360  0.5590  -34.5  24.573  149.9  0.0089   75.0  0.9254  -12.3
 0.380  0.5529  -36.3  24.344  148.3  0.0094   74.5  0.9200  -12.9
 0.400  0.5474  -38.2  24.133  146.8  0.0098   74.0  0.9146  -13.5
 0.420  0.5409  -39.9  23.837  145.4  0.0102   73.5  0.9095  -14.1
 0.440  0.5348  -41.5  23.555  143.9  0.0106   73.1  0.9044  -14.6
 0.450  0.5320  -42.4  23.420  143.2  0.0108   72.9  0.9019  -14.9
 0.460  0.5288  -43.2  23.288  142.6  0.0110   72.6  0.8990  -15.2
 0.480  0.5228  -44.8  23.033  141.2  0.0114   72.1  0.8932  -15.7
 0.500  0.5172  -46.4  22.791  139.9  0.0118   71.6  0.8875  -16.2
 0.520  0.5099  -47.9  22.482  138.7  0.0122   71.2  0.8819  -16.6
 0.540  0.5030  -49.4  22.184  137.4  0.0126   70.8  0.8763  -17.1
 0.560  0.4964  -51.0  21.896  136.2  0.0129   70.4  0.8708  -17.5
 0.580  0.4903  -52.6  21.620  134.8  0.0133   70.0  0.8654  -17.9
 0.600  0.4845  -54.3  21.355  133.5  0.0137   69.7  0.8600  -18.4
 0.620  0.4778  -55.7  21.070  132.4  0.0140   69.4  0.8545  -18.8
 0.640  0.4714  -57.1  20.792  131.3  0.0143   69.0  0.8491  -19.2
 0.660  0.4653  -58.6  20.522  130.2  0.0147   68.7  0.8437  -19.6
 0.680  0.4595  -60.1  20.260  129.1  0.0150   68.4  0.8383  -20.0
 0.700  0.4540  -61.6  20.006  127.9  0.0153   68.1  0.8330  -20.4
 0.720  0.4475  -62.9  19.737  126.9  0.0156   67.8  0.8278  -20.7
 0.740  0.4412  -64.3  19.475  125.9  0.0159   67.6  0.8227  -21.1
 0.760  0.4351  -65.7  19.219  124.8  0.0163   67.4  0.8176  -21.4
 0.780  0.4294  -67.2  18.970  123.7  0.0166   67.1  0.8125  -21.8
 0.800  0.4239  -68.7  18.728  122.6  0.0169   66.9  0.8075  -22.1
 0.820  0.4183  -69.9  18.479  121.7  0.0172   66.7  0.8027  -22.4
 0.840  0.4128  -71.1  18.234  120.8  0.0175   66.5  0.7978  -22.7
 0.860  0.4076  -72.4  17.995  119.8  0.0178   66.3  0.7930  -23.0
 0.880  0.4025  -73.7  17.761  118.8  0.0181   66.2  0.7883  -23.3
 0.900  0.3977  -75.0  17.532  117.8  0.0184   66.0  0.7835  -23.6
 0.920  0.3921  -76.2  17.299  117.0  0.0187   65.8  0.7791  -23.9
 0.940  0.3867  -77.4  17.070  116.1  0.0190   65.6  0.7748  -24.2
 0.960  0.3814  -78.6  16.845  115.2  0.0193   65.4  0.7705  -24.4
 0.980  0.3764  -79.9  16.624  114.3  0.0196   65.3  0.7662  -24.7
 1.000  0.3715  -81.2  16.407  113.4  0.0199   65.1  0.7619  -25.0
 1.020  0.3667  -82.4  16.202  112.7  0.0202   65.0  0.7579  -25.2
 1.040  0.3621  -83.7  15.999  111.9  0.0205   64.8  0.7538  -25.5
 1.060  0.3577  -84.9  15.799  111.1  0.0207   64.7  0.7498  -25.7
 1.080  0.3535  -86.3  15.603  110.3  0.0210   64.5  0.7458  -26.0
 1.100  0.3494  -87.6  15.409  109.5  0.0213   64.4  0.7418  -26.2
 1.120  0.3448  -88.7  15.215  108.8  0.0216   64.3  0.7379  -26.4
 1.140  0.3404  -89.8  15.023  108.1  0.0219   64.2  0.7341  -26.6
 1.160  0.3361  -90.9  14.833  107.4  0.0221   64.1  0.7302  -26.9
 1.180  0.3319  -92.1  14.646  106.7  0.0224   64.0  0.7264  -27.1
 1.200  0.3279  -93.3  14.461  105.9  0.0227   63.9  0.7226  -27.3
 1.220  0.3242  -94.4  14.288  105.3  0.0230   63.8  0.7192  -27.5
 1.240  0.3206  -95.5  14.116  104.6  0.0232   63.7  0.7158  -27.7
 1.260  0.3171  -96.7  13.947  103.9  0.0235   63.7  0.7124  -27.9
 1.280  0.3137  -97.9  13.779  103.2  0.0237   63.6  0.7090  -28.1
 1.300  0.3105  -99.1  13.614  102.5  0.0240   63.5  0.7056  -28.3
 1.320  0.3069 -100.2  13.456  101.9  0.0243   63.4  0.7023  -28.5
 1.340  0.3034 -101.4  13.299  101.3  0.0246   63.3  0.6991  -28.7
 1.360  0.3000 -102.6  13.145  100.6  0.0248   63.2  0.6958  -28.9
 1.380  0.2968 -103.8  12.991  100.0  0.0251   63.1  0.6925  -29.1
 1.400  0.2937 -105.1  12.840   99.3  0.0254   63.0  0.6893  -29.3
 1.420  0.2908 -106.2  12.695   98.7  0.0257   62.9  0.6863  -29.5
 1.440  0.2879 -107.2  12.552   98.2  0.0259   62.9  0.6834  -29.7
 1.460  0.2852 -108.3  12.410   97.6  0.0262   62.8  0.6804  -29.8
 1.480  0.2825 -109.5  12.269   97.0  0.0264   62.8  0.6774  -30.0
 1.500  0.2800 -110.6  12.129   96.4  0.0267   62.7  0.6745  -30.2
 1.520  0.2772 -111.6  12.002   95.9  0.0270   62.6  0.6717  -30.4
 1.540  0.2745 -112.7  11.876   95.3  0.0273   62.6  0.6689  -30.6
 1.560  0.2719 -113.8  11.751   94.8  0.0275   62.5  0.6661  -30.7
 1.580  0.2694 -114.9  11.627   94.2  0.0278   62.5  0.6634  -30.9
 1.600  0.2670 -116.0  11.504   93.6  0.0281   62.4  0.6606  -31.1
 1.620  0.2649 -117.0  11.383   93.1  0.0284   62.3  0.6580  -31.3
 1.640  0.2629 -118.1  11.264   92.6  0.0287   62.2  0.6553  -31.4
 1.660  0.2610 -119.2  11.145   92.1  0.0289   62.2  0.6527  -31.6
 1.680  0.2591 -120.3  11.027   91.5  0.0292   62.1  0.6501  -31.7
 1.700  0.2574 -121.4  10.910   91.0  0.0295   62.0  0.6475  -31.9
 1.720  0.2553 -122.5  10.799   90.5  0.0298   61.9  0.6451  -32.1
 1.740  0.2533 -123.6  10.689   90.0  0.0300   61.9  0.6427  -32.2
 1.760  0.2515 -124.8  10.579   89.5  0.0303   61.8  0.6403  -32.4
 1.780  0.2497 -125.9  10.471   89.0  0.0305   61.8  0.6379  -32.5
 1.800  0.2480 -127.1  10.363   88.5  0.0308   61.7  0.6355  -32.7
 1.820  0.2466 -128.1  10.265   88.1  0.0311   61.6  0.6331  -32.9
 1.840  0.2452 -129.2  10.168   87.6  0.0314   61.5  0.6308  -33.0
 1.860  0.2439 -130.2  10.071   87.1  0.0316   61.5  0.6284  -33.2
 1.880  0.2427 -131.3   9.975   86.7  0.0319   61.4  0.6261  -33.3
 1.900  0.2416 -132.4   9.880   86.2  0.0322   61.3  0.6237  -33.5
 1.920  0.2402 -133.4   9.788   85.8  0.0325   61.2  0.6215  -33.7
 1.940  0.2389 -134.5   9.698   85.3  0.0328   61.1  0.6193  -33.8
 1.960  0.2376 -135.5   9.607   84.9  0.0330   61.1  0.6171  -34.0
 1.980  0.2365 -136.6   9.517   84.5  0.0333   61.0  0.6149  -34.1
 2.000  0.2354 -137.7   9.428   84.0  0.0336   60.9  0.6127  -34.3
 2.020  0.2342 -138.7   9.347   83.6  0.0339   60.8  0.6106  -34.4
 2.040  0.2331 -139.7   9.266   83.2  0.0342   60.8  0.6085  -34.6
 2.060  0.2320 -140.7   9.185   82.8  0.0345   60.7  0.6065  -34.7
 2.080  0.2311 -141.7   9.105   82.4  0.0348   60.6  0.6044  -34.9
 2.100  0.2302 -142.8   9.026   81.9  0.0350   60.5  0.6023  -35.0
 2.120  0.2293 -143.8   8.947   81.5  0.0353   60.5  0.6003  -35.2
 2.140  0.2286 -144.8   8.868   81.1  0.0356   60.4  0.5982  -35.3
 2.160  0.2279 -145.9   8.790   80.6  0.0359   60.3  0.5962  -35.5
 2.180  0.2273 -146.9   8.713   80.2  0.0362   60.3  0.5941  -35.6
 2.200  0.2268 -148.0   8.636   79.7  0.0365   60.2  0.5921  -35.8
 2.220  0.2262 -149.0   8.567   79.3  0.0368   60.1  0.5901  -35.9
 2.240  0.2257 -149.9   8.498   79.0  0.0371   60.0  0.5882  -36.1
 2.260  0.2252 -150.9   8.430   78.6  0.0373   59.9  0.5862  -36.2
 2.280  0.2248 -151.9   8.361   78.2  0.0376   59.8  0.5843  -36.4
 2.300  0.2245 -152.9   8.294   77.8  0.0379   59.7  0.5823  -36.5
 2.320  0.2242 -153.9   8.226   77.4  0.0382   59.6  0.5804  -36.7
 2.340  0.2240 -154.8   8.159   77.0  0.0385   59.6  0.5784  -36.8
 2.360  0.2239 -155.8   8.093   76.6  0.0387   59.5  0.5765  -37.0
 2.380  0.2238 -156.8   8.027   76.2  0.0390   59.4  0.5745  -37.1
 2.400  0.2238 -157.8   7.961   75.8  0.0393   59.3  0.5726  -37.3
 2.420  0.2234 -158.7   7.901   75.4  0.0396   59.2  0.5708  -37.4
 2.440  0.2231 -159.6   7.842   75.1  0.0399   59.1  0.5689  -37.6
 2.460  0.2229 -160.5   7.783   74.7  0.0402   59.0  0.5671  -37.7
 2.480  0.2227 -161.4   7.724   74.3  0.0405   58.9  0.5652  -37.8
 2.500  0.2226 -162.3   7.666   74.0  0.0408   58.8  0.5634  -38.0
 2.520  0.2225 -163.2   7.608   73.6  0.0411   58.7  0.5616  -38.1
 2.540  0.2225 -164.1   7.550   73.2  0.0414   58.7  0.5598  -38.3
 2.560  0.2225 -165.0   7.493   72.8  0.0417   58.6  0.5579  -38.4
 2.580  0.2226 -165.9   7.436   72.4  0.0420   58.5  0.5561  -38.6
 2.600  0.2227 -166.8   7.379   72.0  0.0423   58.4  0.5543  -38.7
 2.620  0.2227 -167.7   7.328   71.7  0.0426   58.3  0.5525  -38.9
 2.640  0.2228 -168.5   7.277   71.3  0.0429   58.2  0.5507  -39.0
 2.660  0.2229 -169.4   7.227   71.0  0.0432   58.1  0.5489  -39.2
 2.680  0.2231 -170.3   7.177   70.7  0.0435   58.0  0.5470  -39.3
 2.700  0.2234 -171.1   7.127   70.3  0.0437   57.9  0.5452  -39.5
 2.720  0.2237 -172.0   7.077   70.0  0.0440   57.8  0.5434  -39.6
 2.740  0.2240 -172.8   7.028   69.6  0.0443   57.7  0.5417  -39.8
 2.760  0.2244 -173.7   6.978   69.2  0.0446   57.6  0.5399  -40.0
 2.780  0.2248 -174.6   6.930   68.9  0.0449   57.5  0.5381  -40.1
 2.800  0.2253 -175.4   6.881   68.5  0.0452   57.4  0.5363  -40.3
 2.820  0.2254 -176.2   6.836   68.2  0.0455   57.3  0.5345  -40.4
 2.840  0.2255 -177.0   6.790   67.8  0.0458   57.1  0.5328  -40.6
 2.860  0.2256 -177.8   6.745   67.5  0.0461   57.0  0.5310  -40.7
 2.880  0.2258 -178.6   6.700   67.2  0.0464   56.9  0.5293  -40.9
 2.900  0.2261 -179.4   6.656   66.8  0.0467   56.8  0.5276  -41.0
 2.920  0.2264  179.8   6.612   66.5  0.0471   56.7  0.5258  -41.2
 2.940  0.2267  179.0   6.568   66.1  0.0474   56.5  0.5241  -41.3
 2.960  0.2271  178.2   6.524   65.7  0.0477   56.4  0.5224  -41.5
 2.980  0.2275  177.4   6.480   65.4  0.0480   56.3  0.5206  -41.6
 3.000  0.2280  176.6   6.437   65.0  0.0483   56.2  0.5189  -41.8
 3.100  0.2296  172.8   6.248   63.6  0.0498   55.5  0.5099  -42.5
 3.200  0.2322  169.0   6.063   62.0  0.0513   54.8  0.5010  -43.3
 3.300  0.2358  165.3   5.883   60.4  0.0528   54.1  0.4922  -44.1
 3.400  0.2403  161.8   5.708   58.6  0.0544   53.5  0.4835  -44.9
 3.500  0.2457  158.4   5.539   56.8  0.0559   52.9  0.4749  -45.7
 3.600  0.2493  155.1   5.390   55.4  0.0574   52.1  0.4666  -46.5
 3.700  0.2538  151.9   5.245   53.9  0.0589   51.4  0.4583  -47.3
 3.800  0.2590  148.8   5.103   52.4  0.0604   50.6  0.4501  -48.1
 3.900  0.2650  145.8   4.965   50.7  0.0619   49.9  0.4421  -49.0
 4.000  0.2716  143.0   4.832   49.0  0.0634   49.3  0.4341  -49.9
 4.100  0.2777  140.4   4.714   47.7  0.0648   48.5  0.4266  -50.7
 4.200  0.2843  137.8   4.598   46.3  0.0663   47.7  0.4192  -51.6
 4.300  0.2915  135.4   4.485   44.8  0.0677   47.0  0.4120  -52.5
 4.400  0.2992  133.2   4.375   43.3  0.0692   46.3  0.4048  -53.4
 4.500  0.3073  131.0   4.268   41.7  0.0707   45.6  0.3977  -54.4
 4.600  0.3137  129.3   4.172   40.4  0.0721   44.8  0.3911  -55.3
 4.700  0.3203  127.6   4.079   39.1  0.0735   43.9  0.3845  -56.1
 4.800  0.3272  126.1   3.988   37.7  0.0750   43.2  0.3781  -57.1
 4.900  0.3343  124.5   3.899   36.2  0.0764   42.4  0.3717  -58.0
 5.000  0.3417  123.1   3.813   34.7  0.0779   41.7  0.3655  -59.0
 5.100  0.3471  122.0   3.736   33.5  0.0793   40.9  0.3600  -59.7
 5.200  0.3526  120.9   3.662   32.3  0.0806   40.1  0.3545  -60.5
 5.300  0.3582  119.9   3.589   31.0  0.0820   39.3  0.3491  -61.3
 5.400  0.3640  118.9   3.517   29.7  0.0834   38.6  0.3438  -62.1
 5.500  0.3698  117.9   3.448   28.3  0.0848   37.9  0.3385  -62.9
 5.600  0.3733  116.9   3.387   27.1  0.0862   37.1  0.3334  -63.6
 5.700  0.3769  116.0   3.328   25.9  0.0876   36.3  0.3283  -64.3
 5.800  0.3806  115.0   3.271   24.7  0.0891   35.6  0.3233  -65.0
 5.900  0.3844  114.1   3.215   23.3  0.0905   34.9  0.3184  -65.7
 6.000  0.3883  113.2   3.161   22.0  0.0920   34.2  0.3135  -66.5
 6.100  0.3908  112.0   3.111   20.8  0.0934   33.3  0.3084  -67.2
 6.200  0.3936  110.8   3.063   19.5  0.0949   32.5  0.3034  -68.0
 6.300  0.3964  109.6   3.016   18.2  0.0964   31.7  0.2985  -68.8
 6.400  0.3995  108.4   2.971   16.9  0.0979   31.0  0.2936  -69.6
 6.500  0.4027  107.3   2.927   15.5  0.0994   30.2  0.2888  -70.5
 6.600  0.4048  105.7   2.880   14.2  0.1008   29.3  0.2837  -71.2
 6.800  0.4098  102.4   2.789   11.6  0.1038   27.6  0.2737  -72.6
 7.000  0.4162   99.3   2.705    8.8  0.1068   26.0  0.2639  -74.2
 7.200  0.4239   96.0   2.623    6.3  0.1096   24.1  0.2541  -75.7
 7.400  0.4330   92.8   2.546    3.6  0.1126   22.3  0.2445  -77.3
 7.600  0.4453   89.8   2.472    1.0  0.1153   20.4  0.2337  -78.9
 7.800  0.4605   87.0   2.400   -1.5  0.1178   18.4  0.2215  -80.5
 8.000  0.4766   84.5   2.333   -4.1  0.1205   16.5  0.2096  -82.4
 8.200  0.4946   82.5   2.265   -6.4  0.1224   14.6  0.1915  -83.7
 8.400  0.5132   80.6   2.201   -8.9  0.1244   12.8  0.1735  -85.2
 8.600  0.5318   79.0   2.142  -11.4  0.1264   11.0  0.1531  -86.8
 8.800  0.5502   77.5   2.089  -13.8  0.1284    9.3  0.1303  -88.7
 9.000  0.5689   76.2   2.040  -16.3  0.1304    7.6  0.1077  -91.4
 9.200  0.5869   74.5   1.987  -19.0  0.1319    5.8  0.0832  -95.2
 9.400  0.6054   72.9   1.938  -21.8  0.1335    4.1  0.0594 -102.1
 9.600  0.6201   70.8   1.880  -24.4  0.1351    2.4  0.0376 -118.4
 9.800  0.6318   68.2   1.813  -26.8  0.1365    1.0  0.0250 -161.8
10.000  0.6447   65.7   1.750  -29.5  0.1380   -0.5  0.0344  149.7
!
!  f       NFmin   Gammaopt  rn/50
! GHz       dB    MAG  ANG    -
!
! noise parameter not available yet for this operation point!
!
! (c) 2016  Infineon Technologies AG, Munich
