! Infineon Technologies  Discrete & RF Semiconductors
! BFP410
! VCE =  1.5 V,  IC =  20 mA
! Common Emitter S-Parameters:                            Nov 2015
# GHz  S  MA  R  50
!  f         S11            S21            S12            S22
! GHz     MAG   ANG      MAG   ANG      MAG   ANG      MAG   ANG
 0.010  0.4737   -0.9  35.878  179.7  0.0011  121.2  0.9380    3.1
 0.015  0.4785   -2.6  35.967  178.3  0.0012  104.2  0.9435    1.2
 0.020  0.4836   -4.2  36.075  177.0  0.0014   91.0  0.9500   -0.7
 0.025  0.4828   -5.2  35.995  176.3  0.0016   89.4  0.9509   -1.3
 0.030  0.4821   -6.2  35.920  175.6  0.0019   88.3  0.9520   -1.8
 0.035  0.4816   -7.2  35.850  174.9  0.0021   87.4  0.9531   -2.4
 0.040  0.4812   -8.2  35.787  174.1  0.0024   86.7  0.9543   -2.9
 0.045  0.4810   -9.2  35.728  173.4  0.0026   86.2  0.9556   -3.5
 0.050  0.4809  -10.2  35.676  172.7  0.0029   85.7  0.9570   -4.0
 0.055  0.4800  -11.3  35.620  172.1  0.0032   85.0  0.9559   -4.5
 0.060  0.4793  -12.3  35.568  171.5  0.0034   84.5  0.9549   -5.0
 0.065  0.4787  -13.4  35.520  170.8  0.0037   84.0  0.9539   -5.5
 0.070  0.4783  -14.4  35.477  170.2  0.0040   83.6  0.9530   -6.0
 0.075  0.4781  -15.5  35.437  169.6  0.0042   83.2  0.9522   -6.5
 0.080  0.4780  -16.6  35.402  168.9  0.0045   82.9  0.9515   -7.1
 0.085  0.4781  -17.6  35.372  168.3  0.0048   82.6  0.9508   -7.6
 0.090  0.4784  -18.7  35.346  167.7  0.0051   82.3  0.9502   -8.1
 0.095  0.4788  -19.7  35.324  167.0  0.0053   82.1  0.9497   -8.6
 0.100  0.4794  -20.8  35.306  166.4  0.0056   81.9  0.9493   -9.1
 0.105  0.4778  -21.8  35.188  165.7  0.0058   81.5  0.9471   -9.6
 0.110  0.4764  -22.8  35.074  165.1  0.0061   81.1  0.9450  -10.0
 0.115  0.4751  -23.8  34.965  164.4  0.0063   80.8  0.9429  -10.5
 0.120  0.4740  -24.8  34.861  163.8  0.0066   80.5  0.9409  -11.0
 0.125  0.4730  -25.9  34.762  163.1  0.0068   80.2  0.9390  -11.4
 0.130  0.4721  -26.9  34.667  162.4  0.0071   79.9  0.9371  -11.9
 0.135  0.4714  -27.9  34.577  161.7  0.0073   79.7  0.9353  -12.4
 0.140  0.4709  -28.9  34.492  161.1  0.0076   79.4  0.9335  -12.8
 0.145  0.4705  -30.0  34.411  160.4  0.0078   79.2  0.9318  -13.3
 0.150  0.4703  -31.0  34.336  159.7  0.0081   79.0  0.9302  -13.8
 0.155  0.4690  -31.9  34.204  159.1  0.0083   78.6  0.9273  -14.2
 0.160  0.4678  -32.9  34.075  158.5  0.0086   78.2  0.9244  -14.7
 0.165  0.4667  -33.8  33.950  157.9  0.0088   77.9  0.9215  -15.1
 0.170  0.4657  -34.8  33.830  157.3  0.0091   77.5  0.9188  -15.6
 0.175  0.4649  -35.8  33.713  156.7  0.0093   77.2  0.9160  -16.0
 0.180  0.4642  -36.7  33.600  156.0  0.0095   76.9  0.9134  -16.5
 0.185  0.4637  -37.7  33.491  155.4  0.0098   76.6  0.9108  -16.9
 0.190  0.4632  -38.7  33.386  154.8  0.0100   76.3  0.9082  -17.4
 0.195  0.4630  -39.6  33.285  154.1  0.0103   76.1  0.9057  -17.8
 0.200  0.4628  -40.6  33.188  153.5  0.0105   75.8  0.9033  -18.3
 0.220  0.4561  -44.3  32.561  151.2  0.0114   74.6  0.8906  -19.9
 0.240  0.4514  -48.0  31.988  148.8  0.0123   73.6  0.8786  -21.5
 0.260  0.4467  -51.6  31.429  146.6  0.0131   72.5  0.8657  -23.0
 0.280  0.4420  -55.1  30.872  144.4  0.0139   71.3  0.8519  -24.4
 0.300  0.4390  -58.6  30.360  142.2  0.0147   70.3  0.8386  -25.9
 0.320  0.4338  -61.9  29.740  140.3  0.0155   69.5  0.8246  -27.2
 0.340  0.4300  -65.3  29.154  138.3  0.0162   68.7  0.8109  -28.5
 0.360  0.4259  -68.5  28.558  136.4  0.0169   68.0  0.7972  -29.8
 0.380  0.4212  -71.6  27.948  134.5  0.0176   67.2  0.7833  -30.9
 0.400  0.4178  -74.7  27.369  132.6  0.0183   66.4  0.7697  -32.1
 0.420  0.4135  -77.5  26.777  131.0  0.0189   65.7  0.7564  -33.1
 0.440  0.4102  -80.4  26.208  129.3  0.0196   65.1  0.7434  -34.2
 0.450  0.4090  -81.8  25.932  128.4  0.0199   64.8  0.7370  -34.7
 0.460  0.4066  -83.2  25.647  127.7  0.0202   64.5  0.7304  -35.2
 0.480  0.4027  -86.0  25.090  126.1  0.0207   64.0  0.7175  -36.1
 0.500  0.3997  -88.9  24.552  124.5  0.0213   63.5  0.7047  -37.1
 0.520  0.3956  -91.2  24.016  123.2  0.0218   63.1  0.6927  -37.8
 0.540  0.3921  -93.6  23.493  121.8  0.0224   62.6  0.6809  -38.6
 0.560  0.3893  -96.1  22.983  120.4  0.0229   62.2  0.6692  -39.4
 0.580  0.3872  -98.5  22.488  118.9  0.0235   61.9  0.6576  -40.2
 0.600  0.3859 -101.0  22.009  117.4  0.0240   61.5  0.6461  -41.0
 0.620  0.3827 -103.1  21.559  116.4  0.0245   61.2  0.6358  -41.6
 0.640  0.3800 -105.3  21.116  115.3  0.0250   60.9  0.6256  -42.3
 0.660  0.3779 -107.5  20.681  114.1  0.0254   60.6  0.6155  -42.9
 0.680  0.3764 -109.8  20.255  112.9  0.0259   60.4  0.6055  -43.6
 0.700  0.3754 -112.0  19.838  111.7  0.0264   60.1  0.5955  -44.3
 0.720  0.3732 -113.8  19.444  110.8  0.0269   59.9  0.5866  -44.8
 0.740  0.3713 -115.6  19.056  109.8  0.0273   59.7  0.5778  -45.3
 0.760  0.3698 -117.5  18.673  108.8  0.0278   59.5  0.5690  -45.8
 0.780  0.3687 -119.3  18.297  107.7  0.0282   59.4  0.5603  -46.3
 0.800  0.3680 -121.2  17.927  106.6  0.0287   59.2  0.5516  -46.9
 0.820  0.3665 -122.9  17.601  105.8  0.0291   59.0  0.5439  -47.4
 0.840  0.3653 -124.6  17.278  104.9  0.0296   58.9  0.5362  -47.8
 0.860  0.3645 -126.3  16.960  104.0  0.0300   58.7  0.5285  -48.3
 0.880  0.3640 -128.1  16.646  103.1  0.0305   58.6  0.5209  -48.8
 0.900  0.3638 -129.8  16.336  102.1  0.0309   58.4  0.5133  -49.3
 0.920  0.3626 -131.3  16.045  101.4  0.0313   58.3  0.5063  -49.7
 0.940  0.3617 -132.8  15.758  100.6  0.0318   58.2  0.4993  -50.1
 0.960  0.3610 -134.3  15.473   99.8  0.0322   58.1  0.4924  -50.5
 0.980  0.3606 -135.8  15.191   99.0  0.0327   58.0  0.4855  -50.9
 1.000  0.3604 -137.3  14.913   98.1  0.0331   57.9  0.4786  -51.3
 1.020  0.3599 -138.6  14.668   97.4  0.0335   57.8  0.4727  -51.6
 1.040  0.3596 -139.9  14.426   96.7  0.0339   57.7  0.4669  -52.0
 1.060  0.3595 -141.3  14.186   96.0  0.0344   57.7  0.4611  -52.4
 1.080  0.3596 -142.6  13.948   95.3  0.0348   57.6  0.4553  -52.7
 1.100  0.3599 -143.9  13.712   94.5  0.0352   57.5  0.4495  -53.1
 1.120  0.3596 -145.1  13.501   93.9  0.0356   57.4  0.4441  -53.4
 1.140  0.3594 -146.3  13.291   93.2  0.0361   57.3  0.4388  -53.8
 1.160  0.3594 -147.6  13.083   92.6  0.0365   57.3  0.4335  -54.2
 1.180  0.3595 -148.8  12.877   91.9  0.0370   57.2  0.4282  -54.5
 1.200  0.3598 -150.0  12.673   91.2  0.0374   57.1  0.4229  -54.9
 1.220  0.3596 -151.1  12.487   90.6  0.0378   57.0  0.4183  -55.2
 1.240  0.3596 -152.1  12.302   90.1  0.0382   56.9  0.4136  -55.4
 1.260  0.3596 -153.2  12.118   89.5  0.0387   56.9  0.4090  -55.7
 1.280  0.3598 -154.2  11.936   88.8  0.0391   56.8  0.4044  -56.0
 1.300  0.3601 -155.3  11.755   88.2  0.0395   56.7  0.3998  -56.3
 1.320  0.3602 -156.3  11.588   87.7  0.0399   56.6  0.3955  -56.6
 1.340  0.3603 -157.3  11.422   87.1  0.0404   56.6  0.3911  -56.9
 1.360  0.3606 -158.4  11.257   86.6  0.0408   56.5  0.3868  -57.2
 1.380  0.3610 -159.4  11.093   86.0  0.0413   56.5  0.3825  -57.5
 1.400  0.3615 -160.4  10.930   85.4  0.0417   56.4  0.3782  -57.8
 1.420  0.3614 -161.3  10.790   84.9  0.0421   56.3  0.3746  -58.0
 1.440  0.3613 -162.2  10.650   84.4  0.0426   56.2  0.3709  -58.2
 1.460  0.3614 -163.0  10.512   83.9  0.0430   56.2  0.3673  -58.4
 1.480  0.3615 -163.9  10.374   83.4  0.0435   56.1  0.3637  -58.7
 1.500  0.3617 -164.8  10.237   82.9  0.0439   56.0  0.3601  -58.9
 1.520  0.3621 -165.6  10.111   82.4  0.0443   55.9  0.3567  -59.2
 1.540  0.3626 -166.5   9.986   81.9  0.0448   55.8  0.3532  -59.4
 1.560  0.3632 -167.3   9.861   81.4  0.0452   55.8  0.3498  -59.7
 1.580  0.3639 -168.2   9.737   80.9  0.0457   55.7  0.3464  -60.0
 1.600  0.3646 -169.0   9.614   80.4  0.0461   55.6  0.3430  -60.3
 1.620  0.3645 -169.9   9.502   80.0  0.0465   55.5  0.3400  -60.5
 1.640  0.3645 -170.7   9.391   79.5  0.0469   55.4  0.3369  -60.7
 1.660  0.3645 -171.6   9.280   79.1  0.0474   55.3  0.3339  -60.9
 1.680  0.3647 -172.4   9.170   78.6  0.0478   55.2  0.3308  -61.2
 1.700  0.3649 -173.3   9.061   78.1  0.0482   55.1  0.3278  -61.4
 1.720  0.3652 -174.0   8.956   77.7  0.0487   55.0  0.3251  -61.6
 1.740  0.3655 -174.7   8.851   77.3  0.0491   54.9  0.3223  -61.8
 1.760  0.3659 -175.4   8.747   76.8  0.0496   54.9  0.3196  -62.0
 1.780  0.3663 -176.1   8.644   76.4  0.0500   54.8  0.3169  -62.3
 1.800  0.3668 -176.8   8.541   75.9  0.0505   54.7  0.3142  -62.5
 1.820  0.3672 -177.6   8.451   75.5  0.0509   54.6  0.3113  -62.8
 1.840  0.3677 -178.3   8.360   75.1  0.0514   54.5  0.3085  -63.0
 1.860  0.3683 -179.1   8.271   74.7  0.0518   54.3  0.3056  -63.3
 1.880  0.3689 -179.8   8.182   74.2  0.0523   54.2  0.3027  -63.5
 1.900  0.3696  179.4   8.093   73.8  0.0527   54.1  0.2999  -63.8
 1.920  0.3695  178.8   8.011   73.4  0.0532   54.0  0.2975  -64.0
 1.940  0.3695  178.1   7.930   73.0  0.0536   53.9  0.2951  -64.1
 1.960  0.3695  177.5   7.849   72.6  0.0541   53.8  0.2927  -64.3
 1.980  0.3696  176.8   7.769   72.2  0.0545   53.7  0.2903  -64.4
 2.000  0.3697  176.2   7.689   71.8  0.0550   53.6  0.2879  -64.6
 2.020  0.3700  175.5   7.616   71.4  0.0554   53.5  0.2854  -64.8
 2.040  0.3704  174.9   7.543   71.0  0.0559   53.3  0.2829  -65.1
 2.060  0.3709  174.2   7.470   70.7  0.0563   53.2  0.2803  -65.3
 2.080  0.3714  173.5   7.398   70.3  0.0567   53.1  0.2778  -65.5
 2.100  0.3719  172.9   7.326   69.9  0.0571   52.9  0.2753  -65.8
 2.120  0.3725  172.2   7.254   69.4  0.0576   52.8  0.2728  -66.0
 2.140  0.3732  171.6   7.183   69.0  0.0580   52.7  0.2703  -66.3
 2.160  0.3739  170.9   7.112   68.6  0.0584   52.5  0.2679  -66.6
 2.180  0.3746  170.2   7.042   68.1  0.0589   52.4  0.2654  -66.8
 2.200  0.3754  169.6   6.972   67.7  0.0593   52.3  0.2629  -67.1
 2.220  0.3759  169.0   6.912   67.4  0.0597   52.2  0.2605  -67.3
 2.240  0.3765  168.4   6.851   67.0  0.0602   52.0  0.2581  -67.6
 2.260  0.3772  167.8   6.791   66.7  0.0606   51.9  0.2557  -67.8
 2.280  0.3778  167.2   6.732   66.3  0.0611   51.8  0.2533  -68.0
 2.300  0.3785  166.6   6.672   66.0  0.0615   51.6  0.2509  -68.3
 2.320  0.3793  166.0   6.613   65.6  0.0620   51.5  0.2486  -68.5
 2.340  0.3801  165.4   6.554   65.2  0.0624   51.4  0.2462  -68.8
 2.360  0.3809  164.8   6.495   64.9  0.0629   51.2  0.2438  -69.1
 2.380  0.3818  164.2   6.437   64.5  0.0633   51.1  0.2415  -69.3
 2.400  0.3827  163.6   6.379   64.1  0.0638   51.0  0.2391  -69.6
 2.420  0.3835  163.0   6.327   63.8  0.0642   50.8  0.2368  -69.9
 2.440  0.3842  162.4   6.274   63.4  0.0647   50.7  0.2345  -70.1
 2.460  0.3851  161.8   6.222   63.1  0.0651   50.5  0.2322  -70.4
 2.480  0.3860  161.2   6.171   62.7  0.0655   50.3  0.2300  -70.7
 2.500  0.3869  160.6   6.119   62.3  0.0659   50.2  0.2277  -70.9
 2.520  0.3878  160.0   6.068   62.0  0.0664   50.0  0.2254  -71.2
 2.540  0.3889  159.4   6.017   61.6  0.0668   49.9  0.2232  -71.5
 2.560  0.3899  158.9   5.967   61.2  0.0672   49.7  0.2209  -71.8
 2.580  0.3910  158.3   5.916   60.8  0.0677   49.6  0.2186  -72.1
 2.600  0.3921  157.7   5.866   60.4  0.0681   49.4  0.2164  -72.4
 2.620  0.3930  157.2   5.821   60.1  0.0685   49.3  0.2143  -72.7
 2.640  0.3939  156.7   5.777   59.8  0.0690   49.1  0.2123  -73.0
 2.660  0.3948  156.2   5.733   59.5  0.0694   49.0  0.2102  -73.3
 2.680  0.3958  155.7   5.689   59.1  0.0698   48.9  0.2082  -73.6
 2.700  0.3968  155.2   5.645   58.8  0.0702   48.7  0.2061  -73.9
 2.720  0.3979  154.7   5.602   58.5  0.0707   48.6  0.2041  -74.2
 2.740  0.3989  154.2   5.558   58.1  0.0711   48.5  0.2021  -74.6
 2.760  0.4000  153.7   5.515   57.8  0.0715   48.3  0.2000  -74.9
 2.780  0.4011  153.2   5.472   57.5  0.0720   48.2  0.1980  -75.3
 2.800  0.4023  152.7   5.429   57.1  0.0724   48.1  0.1960  -75.6
 2.820  0.4033  152.2   5.391   56.8  0.0728   47.9  0.1941  -75.9
 2.840  0.4044  151.7   5.352   56.5  0.0733   47.8  0.1922  -76.2
 2.860  0.4055  151.3   5.314   56.2  0.0737   47.6  0.1903  -76.5
 2.880  0.4066  150.8   5.276   55.8  0.0742   47.4  0.1884  -76.9
 2.900  0.4078  150.3   5.238   55.5  0.0746   47.3  0.1866  -77.2
 2.920  0.4090  149.8   5.201   55.2  0.0750   47.1  0.1847  -77.6
 2.940  0.4102  149.4   5.163   54.8  0.0755   47.0  0.1828  -77.9
 2.960  0.4114  148.9   5.126   54.5  0.0759   46.8  0.1810  -78.3
 2.980  0.4127  148.5   5.089   54.2  0.0764   46.7  0.1791  -78.6
 3.000  0.4140  148.0   5.052   53.8  0.0768   46.5  0.1773  -79.0
 3.100  0.4193  145.7   4.894   52.4  0.0789   45.6  0.1688  -80.7
 3.200  0.4252  143.5   4.738   50.9  0.0810   44.8  0.1605  -82.5
 3.300  0.4317  141.4   4.586   49.3  0.0831   44.0  0.1523  -84.5
 3.400  0.4388  139.3   4.438   47.6  0.0852   43.3  0.1444  -86.8
 3.500  0.4465  137.3   4.294   45.8  0.0873   42.6  0.1367  -89.3
 3.600  0.4522  135.4   4.173   44.4  0.0894   41.7  0.1290  -91.7
 3.700  0.4584  133.5   4.055   42.9  0.0914   40.8  0.1216  -94.5
 3.800  0.4651  131.6   3.939   41.4  0.0935   39.9  0.1144  -97.6
 3.900  0.4722  129.8   3.827   39.7  0.0957   39.1  0.1077 -101.1
 4.000  0.4798  128.1   3.718   38.0  0.0978   38.3  0.1014 -105.0
 4.100  0.4847  126.6   3.621   36.7  0.0997   37.3  0.0958 -109.4
 4.200  0.4900  125.1   3.527   35.3  0.1016   36.3  0.0909 -114.3
 4.300  0.4955  123.6   3.434   33.9  0.1035   35.4  0.0866 -119.8
 4.400  0.5014  122.2   3.344   32.3  0.1054   34.5  0.0833 -125.7
 4.500  0.5076  120.8   3.256   30.7  0.1074   33.6  0.0809 -132.1
 4.600  0.5108  119.6   3.179   29.5  0.1092   32.7  0.0791 -136.8
 4.700  0.5143  118.3   3.104   28.2  0.1110   31.8  0.0778 -141.8
 4.800  0.5180  117.1   3.031   26.8  0.1128   30.9  0.0772 -146.8
 4.900  0.5219  116.0   2.959   25.4  0.1146   30.1  0.0771 -151.9
 5.000  0.5260  114.8   2.889   23.9  0.1165   29.3  0.0777 -157.0
 5.100  0.5288  113.6   2.829   22.7  0.1182   28.4  0.0770 -161.5
 5.200  0.5319  112.5   2.770   21.5  0.1199   27.5  0.0768 -166.1
 5.300  0.5351  111.3   2.713   20.2  0.1216   26.6  0.0770 -170.7
 5.400  0.5386  110.2   2.657   18.8  0.1234   25.8  0.0778 -175.2
 5.500  0.5423  109.1   2.603   17.4  0.1252   25.0  0.0790 -179.6
 5.600  0.5464  107.9   2.554   16.2  0.1269   24.1  0.0800  175.3
 5.700  0.5508  106.8   2.506   14.9  0.1286   23.3  0.0816  170.3
 5.800  0.5553  105.6   2.459   13.6  0.1303   22.4  0.0838  165.5
 5.900  0.5601  104.5   2.414   12.3  0.1320   21.6  0.0866  161.1
 6.000  0.5651  103.4   2.370   10.9  0.1338   20.8  0.0898  156.9
 6.100  0.5697  102.3   2.329    9.7  0.1355   19.9  0.0933  153.3
 6.200  0.5746  101.2   2.288    8.4  0.1373   18.9  0.0971  149.9
 6.300  0.5796  100.1   2.249    7.1  0.1390   18.0  0.1012  146.8
 6.400  0.5849   99.0   2.212    5.7  0.1409   17.2  0.1056  143.9
 6.500  0.5903   98.0   2.175    4.3  0.1427   16.3  0.1102  141.3
 6.600  0.5940   97.0   2.140    3.0  0.1445   15.4  0.1123  138.6
 6.800  0.6020   95.0   2.074    0.4  0.1482   13.5  0.1172  133.5
 7.000  0.6107   93.1   2.013   -2.4  0.1521   11.8  0.1229  128.8
 7.200  0.6159   90.9   1.953   -5.0  0.1557    9.6  0.1304  123.6
 7.400  0.6220   88.8   1.898   -7.8  0.1595    7.4  0.1389  118.9
 7.600  0.6283   86.4   1.840  -10.7  0.1626    5.1  0.1500  114.6
 7.800  0.6353   83.7   1.778  -13.5  0.1652    2.7  0.1635  110.8
 8.000  0.6435   81.1   1.722  -16.6  0.1680    0.3  0.1776  107.5
 8.200  0.6516   78.3   1.658  -19.0  0.1687   -1.8  0.1929  103.7
 8.400  0.6612   75.5   1.598  -21.6  0.1696   -4.0  0.2089  100.4
 8.600  0.6739   73.1   1.543  -24.1  0.1705   -5.8  0.2268   97.1
 8.800  0.6893   70.9   1.494  -26.3  0.1712   -7.5  0.2468   93.7
 9.000  0.7056   68.9   1.447  -28.7  0.1721   -9.1  0.2675   90.8
 9.200  0.7285   67.4   1.407  -30.8  0.1730  -10.6  0.2927   88.2
 9.400  0.7519   66.0   1.368  -33.1  0.1740  -12.1  0.3184   86.1
 9.600  0.7730   64.5   1.324  -35.4  0.1748  -13.7  0.3432   84.4
 9.800  0.7918   63.0   1.273  -37.6  0.1756  -15.3  0.3670   83.1
10.000  0.8112   61.5   1.224  -40.1  0.1765  -16.9  0.3910   81.9
10.200  0.8154   60.4   1.181  -41.7  0.1778  -18.2  0.4045   80.8
10.400  0.8200   59.3   1.139  -43.3  0.1792  -19.4  0.4182   79.9
10.600  0.8167   58.7   1.106  -44.8  0.1805  -20.8  0.4275   79.2
10.800  0.8053   58.8   1.082  -46.0  0.1818  -22.4  0.4322   78.9
11.000  0.7939   58.8   1.058  -47.3  0.1833  -24.0  0.4369   78.6
11.200  0.7833   59.0   1.054  -48.4  0.1841  -25.5  0.4370   79.8
11.400  0.7727   59.3   1.050  -49.5  0.1851  -26.9  0.4374   80.9
11.600  0.7749   58.9   1.043  -51.9  0.1866  -28.7  0.4422   82.2
11.800  0.7900   58.0   1.035  -55.4  0.1887  -30.9  0.4516   83.6
12.000  0.8053   57.1   1.032  -59.0  0.1911  -33.1  0.4612   84.9
!
!  f       NFmin   Gammaopt  rn/50
! GHz       dB    MAG  ANG    -
 0.450      1.73  0.14 -155   0.16
 0.900      1.70  0.14 -156   0.16
 1.800      1.84  0.19 -141   0.17
 2.400      1.84  0.24 -124   0.23
 5.500      2.72  0.43 -103   0.42
10.000      3.83  0.70  -46   2.50
!
! (c) 2015  Infineon Technologies AG, Munich
