! Infineon Technologies  Discrete & RF Semiconductors
! BFP405
! VCE =  0.5 V,  IC =  1.5 mA
! Common Emitter S-Parameters:                            Jan 2016
# GHz  S  MA  R  50
!  f         S11            S21            S12            S22
! GHz     MAG   ANG      MAG   ANG      MAG   ANG      MAG   ANG
 0.010  0.9419    1.1   5.281 -176.9  0.0007   -4.7  0.9997    0.6
 0.015  0.9406    0.3   5.252 -178.8  0.0006   61.5  0.9955    0.3
 0.020  0.9396   -0.6   5.228  179.3  0.0012   93.8  0.9913    0.0
 0.025  0.9399   -0.8   5.226  179.2  0.0014   92.2  0.9917   -0.2
 0.030  0.9402   -1.1   5.225  179.1  0.0016   90.9  0.9921   -0.3
 0.035  0.9405   -1.3   5.223  179.0  0.0017   89.9  0.9926   -0.5
 0.040  0.9408   -1.5   5.222  178.9  0.0019   89.1  0.9930   -0.6
 0.045  0.9411   -1.8   5.220  178.8  0.0021   88.5  0.9934   -0.8
 0.050  0.9415   -2.0   5.219  178.7  0.0023   87.9  0.9939   -0.9
 0.055  0.9412   -2.2   5.223  178.5  0.0026   87.8  0.9940   -1.0
 0.060  0.9409   -2.4   5.227  178.2  0.0029   87.8  0.9940   -1.2
 0.065  0.9406   -2.6   5.232  178.0  0.0032   87.8  0.9941   -1.3
 0.070  0.9404   -2.8   5.236  177.7  0.0035   87.7  0.9941   -1.5
 0.075  0.9401   -2.9   5.240  177.5  0.0038   87.7  0.9942   -1.6
 0.080  0.9399   -3.1   5.245  177.3  0.0041   87.7  0.9943   -1.7
 0.085  0.9396   -3.3   5.250  177.0  0.0044   87.6  0.9944   -1.9
 0.090  0.9394   -3.5   5.254  176.8  0.0047   87.6  0.9945   -2.0
 0.095  0.9392   -3.7   5.259  176.5  0.0050   87.6  0.9946   -2.2
 0.100  0.9390   -3.9   5.264  176.3  0.0053   87.6  0.9947   -2.3
 0.105  0.9388   -4.0   5.264  176.2  0.0056   87.5  0.9944   -2.4
 0.110  0.9386   -4.2   5.263  176.0  0.0058   87.4  0.9941   -2.6
 0.115  0.9385   -4.3   5.263  175.9  0.0061   87.3  0.9938   -2.7
 0.120  0.9383   -4.5   5.263  175.7  0.0064   87.2  0.9936   -2.8
 0.125  0.9381   -4.6   5.263  175.6  0.0066   87.1  0.9933   -2.9
 0.130  0.9380   -4.8   5.262  175.4  0.0069   87.0  0.9930   -3.1
 0.135  0.9378   -4.9   5.262  175.3  0.0072   87.0  0.9928   -3.2
 0.140  0.9377   -5.1   5.262  175.1  0.0075   86.9  0.9925   -3.3
 0.145  0.9375   -5.2   5.262  175.0  0.0077   86.9  0.9922   -3.5
 0.150  0.9374   -5.4   5.262  174.8  0.0080   86.8  0.9920   -3.6
 0.155  0.9371   -5.6   5.261  174.6  0.0083   86.7  0.9919   -3.7
 0.160  0.9367   -5.8   5.260  174.4  0.0085   86.6  0.9918   -3.8
 0.165  0.9364   -6.0   5.260  174.2  0.0088   86.5  0.9917   -4.0
 0.170  0.9361   -6.2   5.259  174.0  0.0091   86.4  0.9915   -4.1
 0.175  0.9358   -6.4   5.258  173.9  0.0093   86.3  0.9914   -4.2
 0.180  0.9356   -6.7   5.258  173.7  0.0096   86.2  0.9913   -4.3
 0.185  0.9353   -6.9   5.257  173.5  0.0099   86.1  0.9913   -4.4
 0.190  0.9351   -7.1   5.257  173.3  0.0102   86.0  0.9912   -4.6
 0.195  0.9348   -7.3   5.256  173.1  0.0104   86.0  0.9911   -4.7
 0.200  0.9346   -7.5   5.256  172.9  0.0107   85.9  0.9910   -4.8
 0.220  0.9334   -8.2   5.265  172.1  0.0117   85.3  0.9875   -5.3
 0.240  0.9324   -8.9   5.274  171.4  0.0128   84.7  0.9842   -5.8
 0.260  0.9326   -9.7   5.275  170.7  0.0139   84.3  0.9836   -6.2
 0.280  0.9339  -10.6   5.268  170.0  0.0150   83.9  0.9859   -6.7
 0.300  0.9355  -11.4   5.262  169.4  0.0161   83.6  0.9883   -7.1
 0.320  0.9335  -12.1   5.251  168.6  0.0171   83.1  0.9864   -7.6
 0.340  0.9317  -12.8   5.240  167.9  0.0182   82.7  0.9846   -8.1
 0.360  0.9304  -13.5   5.237  167.1  0.0192   82.2  0.9830   -8.5
 0.380  0.9297  -14.3   5.241  166.4  0.0203   81.7  0.9816   -9.0
 0.400  0.9292  -15.1   5.246  165.6  0.0214   81.3  0.9803   -9.5
 0.420  0.9276  -15.8   5.233  164.9  0.0224   80.8  0.9792   -9.9
 0.440  0.9261  -16.5   5.220  164.2  0.0235   80.4  0.9781  -10.4
 0.450  0.9254  -16.9   5.214  163.8  0.0240   80.2  0.9776  -10.6
 0.460  0.9250  -17.3   5.213  163.5  0.0245   79.9  0.9768  -10.8
 0.480  0.9242  -18.0   5.212  162.8  0.0256   79.4  0.9753  -11.3
 0.500  0.9236  -18.7   5.212  162.1  0.0267   79.0  0.9739  -11.8
 0.520  0.9218  -19.5   5.200  161.4  0.0278   78.4  0.9721  -12.3
 0.540  0.9202  -20.3   5.189  160.6  0.0288   77.9  0.9704  -12.8
 0.560  0.9187  -21.0   5.179  159.9  0.0299   77.5  0.9687  -13.2
 0.580  0.9174  -21.8   5.169  159.1  0.0309   77.0  0.9671  -13.7
 0.600  0.9163  -22.6   5.161  158.4  0.0320   76.6  0.9656  -14.2
 0.620  0.9142  -23.3   5.151  157.7  0.0331   76.1  0.9636  -14.7
 0.640  0.9122  -24.1   5.142  157.0  0.0341   75.6  0.9617  -15.1
 0.660  0.9104  -24.8   5.134  156.4  0.0352   75.1  0.9598  -15.6
 0.680  0.9088  -25.6   5.127  155.7  0.0362   74.7  0.9580  -16.0
 0.700  0.9073  -26.3   5.120  155.0  0.0373   74.3  0.9562  -16.5
 0.720  0.9051  -27.1   5.110  154.3  0.0383   73.8  0.9540  -16.9
 0.740  0.9032  -27.9   5.102  153.6  0.0393   73.3  0.9519  -17.4
 0.760  0.9013  -28.6   5.094  152.8  0.0403   72.9  0.9499  -17.8
 0.780  0.8997  -29.4   5.086  152.1  0.0413   72.4  0.9478  -18.3
 0.800  0.8982  -30.2   5.080  151.4  0.0423   72.0  0.9459  -18.7
 0.820  0.8958  -30.9   5.068  150.7  0.0433   71.5  0.9434  -19.2
 0.840  0.8935  -31.7   5.056  150.0  0.0443   71.0  0.9409  -19.6
 0.860  0.8914  -32.4   5.045  149.3  0.0453   70.6  0.9385  -20.1
 0.880  0.8894  -33.2   5.035  148.6  0.0463   70.1  0.9361  -20.5
 0.900  0.8876  -33.9   5.026  147.9  0.0473   69.7  0.9338  -21.0
 0.920  0.8850  -34.6   5.012  147.2  0.0483   69.2  0.9313  -21.4
 0.940  0.8826  -35.4   4.999  146.6  0.0493   68.7  0.9288  -21.9
 0.960  0.8803  -36.1   4.987  145.9  0.0503   68.2  0.9263  -22.3
 0.980  0.8782  -36.9   4.976  145.2  0.0513   67.7  0.9239  -22.8
 1.000  0.8762  -37.6   4.965  144.5  0.0523   67.3  0.9216  -23.2
 1.020  0.8735  -38.4   4.952  143.8  0.0533   66.8  0.9188  -23.6
 1.040  0.8710  -39.1   4.940  143.2  0.0542   66.3  0.9160  -24.1
 1.060  0.8687  -39.9   4.929  142.5  0.0552   65.9  0.9133  -24.5
 1.080  0.8665  -40.6   4.918  141.9  0.0561   65.4  0.9107  -25.0
 1.100  0.8644  -41.4   4.908  141.2  0.0571   65.0  0.9081  -25.4
 1.120  0.8612  -42.1   4.892  140.5  0.0580   64.5  0.9053  -25.8
 1.140  0.8581  -42.9   4.877  139.9  0.0589   64.0  0.9025  -26.2
 1.160  0.8552  -43.7   4.862  139.2  0.0598   63.6  0.8997  -26.7
 1.180  0.8525  -44.4   4.848  138.6  0.0608   63.1  0.8970  -27.1
 1.200  0.8499  -45.2   4.835  137.9  0.0617   62.7  0.8944  -27.5
 1.220  0.8469  -45.9   4.819  137.2  0.0626   62.2  0.8914  -27.9
 1.240  0.8441  -46.7   4.803  136.6  0.0635   61.8  0.8884  -28.3
 1.260  0.8414  -47.4   4.788  135.9  0.0644   61.3  0.8854  -28.8
 1.280  0.8389  -48.2   4.774  135.3  0.0653   60.9  0.8825  -29.2
 1.300  0.8365  -48.9   4.760  134.6  0.0662   60.5  0.8797  -29.6
 1.320  0.8334  -49.7   4.745  134.0  0.0671   60.0  0.8765  -30.0
 1.340  0.8304  -50.4   4.731  133.3  0.0679   59.5  0.8733  -30.4
 1.360  0.8276  -51.2   4.717  132.7  0.0688   59.1  0.8701  -30.8
 1.380  0.8250  -52.0   4.704  132.0  0.0697   58.6  0.8670  -31.2
 1.400  0.8225  -52.8   4.691  131.4  0.0706   58.2  0.8639  -31.6
 1.420  0.8193  -53.5   4.674  130.8  0.0714   57.7  0.8608  -32.0
 1.440  0.8163  -54.3   4.658  130.1  0.0722   57.3  0.8578  -32.4
 1.460  0.8134  -55.0   4.642  129.5  0.0730   56.9  0.8548  -32.7
 1.480  0.8106  -55.7   4.627  128.8  0.0739   56.4  0.8518  -33.1
 1.500  0.8080  -56.5   4.613  128.2  0.0747   56.0  0.8489  -33.5
 1.520  0.8045  -57.2   4.599  127.6  0.0755   55.5  0.8457  -33.9
 1.540  0.8011  -58.0   4.585  127.0  0.0763   55.1  0.8426  -34.3
 1.560  0.7979  -58.8   4.571  126.4  0.0771   54.7  0.8395  -34.7
 1.580  0.7948  -59.5   4.558  125.8  0.0779   54.2  0.8364  -35.1
 1.600  0.7919  -60.3   4.546  125.2  0.0787   53.8  0.8334  -35.5
 1.620  0.7888  -61.0   4.529  124.6  0.0795   53.4  0.8300  -35.9
 1.640  0.7859  -61.8   4.512  124.0  0.0803   52.9  0.8267  -36.3
 1.660  0.7830  -62.5   4.495  123.4  0.0811   52.5  0.8233  -36.6
 1.680  0.7804  -63.2   4.479  122.8  0.0819   52.1  0.8200  -37.0
 1.700  0.7778  -64.0   4.464  122.2  0.0827   51.7  0.8168  -37.4
 1.720  0.7743  -64.7   4.447  121.6  0.0834   51.3  0.8136  -37.8
 1.740  0.7710  -65.5   4.430  121.0  0.0841   50.8  0.8105  -38.1
 1.760  0.7677  -66.3   4.413  120.4  0.0848   50.4  0.8073  -38.5
 1.780  0.7646  -67.0   4.397  119.7  0.0856   50.0  0.8043  -38.8
 1.800  0.7617  -67.8   4.382  119.1  0.0863   49.6  0.8012  -39.2
 1.820  0.7586  -68.5   4.367  118.5  0.0870   49.2  0.7980  -39.6
 1.840  0.7557  -69.3   4.353  118.0  0.0876   48.8  0.7948  -39.9
 1.860  0.7528  -70.1   4.339  117.4  0.0883   48.4  0.7916  -40.3
 1.880  0.7502  -70.8   4.325  116.8  0.0890   48.0  0.7885  -40.6
 1.900  0.7476  -71.6   4.312  116.2  0.0897   47.6  0.7854  -41.0
 1.920  0.7441  -72.3   4.296  115.6  0.0904   47.2  0.7822  -41.3
 1.940  0.7407  -73.1   4.280  115.1  0.0911   46.7  0.7790  -41.7
 1.960  0.7374  -73.9   4.265  114.5  0.0918   46.3  0.7758  -42.0
 1.980  0.7342  -74.6   4.250  113.9  0.0925   45.9  0.7727  -42.4
 2.000  0.7312  -75.4   4.236  113.3  0.0932   45.5  0.7696  -42.7
 2.020  0.7278  -76.1   4.219  112.8  0.0938   45.1  0.7663  -43.0
 2.040  0.7245  -76.9   4.203  112.2  0.0944   44.7  0.7630  -43.3
 2.060  0.7213  -77.6   4.187  111.7  0.0950   44.3  0.7597  -43.7
 2.080  0.7183  -78.4   4.172  111.1  0.0956   43.9  0.7564  -44.0
 2.100  0.7153  -79.1   4.157  110.6  0.0962   43.5  0.7532  -44.3
 2.120  0.7125  -79.9   4.142  110.0  0.0969   43.2  0.7500  -44.6
 2.140  0.7098  -80.7   4.127  109.4  0.0975   42.8  0.7468  -45.0
 2.160  0.7073  -81.4   4.114  108.9  0.0981   42.4  0.7436  -45.3
 2.180  0.7049  -82.2   4.100  108.3  0.0988   42.1  0.7405  -45.7
 2.200  0.7026  -83.0   4.087  107.7  0.0994   41.7  0.7374  -46.0
 2.220  0.6991  -83.7   4.071  107.2  0.0999   41.3  0.7340  -46.3
 2.240  0.6958  -84.5   4.055  106.7  0.1005   40.9  0.7307  -46.7
 2.260  0.6925  -85.2   4.040  106.2  0.1011   40.5  0.7274  -47.0
 2.280  0.6894  -86.0   4.024  105.6  0.1016   40.1  0.7241  -47.3
 2.300  0.6864  -86.8   4.010  105.1  0.1022   39.7  0.7208  -47.7
 2.320  0.6836  -87.5   3.995  104.6  0.1028   39.4  0.7176  -48.0
 2.340  0.6808  -88.3   3.981  104.0  0.1033   39.0  0.7144  -48.3
 2.360  0.6782  -89.1   3.967  103.5  0.1039   38.6  0.7112  -48.7
 2.380  0.6758  -89.9   3.954  102.9  0.1045   38.3  0.7080  -49.0
 2.400  0.6734  -90.7   3.941  102.4  0.1051   37.9  0.7049  -49.4
 2.420  0.6701  -91.4   3.925  101.9  0.1056   37.5  0.7017  -49.7
 2.440  0.6669  -92.2   3.910  101.4  0.1061   37.2  0.6985  -50.0
 2.460  0.6638  -92.9   3.895  100.8  0.1066   36.8  0.6953  -50.3
 2.480  0.6609  -93.7   3.880  100.3  0.1070   36.4  0.6921  -50.6
 2.500  0.6580  -94.4   3.866   99.7  0.1075   36.1  0.6889  -50.9
 2.520  0.6553  -95.2   3.852   99.2  0.1080   35.7  0.6858  -51.2
 2.540  0.6526  -96.0   3.839   98.7  0.1086   35.3  0.6827  -51.5
 2.560  0.6501  -96.7   3.825   98.1  0.1091   35.0  0.6796  -51.9
 2.580  0.6478  -97.5   3.813   97.6  0.1096   34.6  0.6765  -52.2
 2.600  0.6455  -98.3   3.800   97.0  0.1101   34.3  0.6735  -52.5
 2.620  0.6426  -99.1   3.786   96.5  0.1105   33.9  0.6702  -52.8
 2.640  0.6397  -99.8   3.772   96.0  0.1110   33.6  0.6669  -53.1
 2.660  0.6370 -100.6   3.758   95.5  0.1115   33.2  0.6636  -53.4
 2.680  0.6344 -101.3   3.745   95.0  0.1119   32.8  0.6604  -53.7
 2.700  0.6319 -102.1   3.732   94.5  0.1124   32.5  0.6571  -54.1
 2.720  0.6296 -102.9   3.719   94.0  0.1129   32.1  0.6539  -54.4
 2.740  0.6273 -103.7   3.707   93.5  0.1133   31.7  0.6507  -54.7
 2.760  0.6252 -104.5   3.694   92.9  0.1138   31.4  0.6476  -55.0
 2.780  0.6232 -105.3   3.683   92.4  0.1143   31.0  0.6444  -55.4
 2.800  0.6213 -106.1   3.671   91.9  0.1148   30.7  0.6413  -55.7
 2.820  0.6182 -106.8   3.657   91.4  0.1152   30.4  0.6381  -56.0
 2.840  0.6152 -107.6   3.643   90.9  0.1156   30.0  0.6349  -56.3
 2.860  0.6123 -108.4   3.629   90.4  0.1160   29.7  0.6318  -56.6
 2.880  0.6096 -109.1   3.615   89.9  0.1164   29.4  0.6286  -56.9
 2.900  0.6069 -109.9   3.602   89.4  0.1168   29.0  0.6255  -57.2
 2.920  0.6043 -110.7   3.589   88.9  0.1172   28.7  0.6224  -57.5
 2.940  0.6019 -111.5   3.576   88.4  0.1176   28.4  0.6193  -57.8
 2.960  0.5996 -112.3   3.564   87.8  0.1180   28.0  0.6162  -58.1
 2.980  0.5974 -113.1   3.552   87.3  0.1184   27.7  0.6131  -58.4
 3.000  0.5953 -113.9   3.540   86.8  0.1188   27.4  0.6101  -58.7
 3.100  0.5784 -117.5   3.465   84.5  0.1201   25.7  0.5936  -60.0
 3.200  0.5639 -121.4   3.396   82.2  0.1215   24.0  0.5775  -61.4
 3.300  0.5522 -125.4   3.333   79.7  0.1231   22.4  0.5617  -62.8
 3.400  0.5432 -129.6   3.277   77.1  0.1247   20.8  0.5463  -64.4
 3.500  0.5373 -133.9   3.227   74.5  0.1264   19.3  0.5313  -66.0
 3.600  0.5234 -137.6   3.156   72.4  0.1271   17.8  0.5167  -67.3
 3.700  0.5118 -141.5   3.090   70.1  0.1279   16.4  0.5023  -68.6
 3.800  0.5028 -145.6   3.029   67.8  0.1288   14.9  0.4883  -70.0
 3.900  0.4963 -149.8   2.973   65.4  0.1298   13.5  0.4745  -71.5
 4.000  0.4926 -154.1   2.922   62.9  0.1308   12.1  0.4611  -73.1
 4.100  0.4841 -158.0   2.858   61.0  0.1311   10.8  0.4486  -74.3
 4.200  0.4779 -162.0   2.798   58.9  0.1314    9.5  0.4364  -75.7
 4.300  0.4740 -166.0   2.742   56.8  0.1318    8.2  0.4244  -77.1
 4.400  0.4726 -170.2   2.689   54.6  0.1323    7.0  0.4127  -78.5
 4.500  0.4737 -174.3   2.641   52.3  0.1328    5.7  0.4013  -80.1
 4.600  0.4711 -177.7   2.584   50.5  0.1328    4.6  0.3911  -81.3
 4.700  0.4703  178.8   2.529   48.6  0.1328    3.5  0.3810  -82.5
 4.800  0.4711  175.4   2.478   46.7  0.1328    2.4  0.3712  -83.9
 4.900  0.4736  172.0   2.429   44.6  0.1329    1.3  0.3615  -85.2
 5.000  0.4778  168.6   2.384   42.5  0.1331    0.2  0.3521  -86.7
 5.100  0.4787  165.9   2.337   40.9  0.1329   -0.7  0.3439  -87.7
 5.200  0.4806  163.2   2.292   39.2  0.1328   -1.6  0.3358  -88.8
 5.300  0.4835  160.6   2.249   37.4  0.1326   -2.4  0.3279  -90.0
 5.400  0.4875  158.0   2.208   35.6  0.1326   -3.3  0.3201  -91.1
 5.500  0.4925  155.4   2.169   33.7  0.1325   -4.2  0.3124  -92.4
 5.600  0.4931  153.2   2.131   32.2  0.1323   -4.9  0.3049  -93.4
 5.700  0.4944  151.1   2.094   30.6  0.1322   -5.6  0.2976  -94.5
 5.800  0.4964  148.9   2.059   28.9  0.1321   -6.4  0.2903  -95.6
 5.900  0.4991  146.8   2.026   27.3  0.1320   -7.1  0.2832  -96.8
 6.000  0.5025  144.7   1.994   25.5  0.1319   -7.8  0.2762  -98.0
 6.100  0.5023  142.7   1.963   24.0  0.1319   -8.4  0.2695  -99.2
 6.200  0.5027  140.7   1.933   22.4  0.1319   -9.1  0.2629 -100.4
 6.300  0.5037  138.7   1.905   20.7  0.1320   -9.7  0.2565 -101.6
 6.400  0.5054  136.7   1.878   19.0  0.1320  -10.4  0.2502 -103.0
 6.500  0.5076  134.7   1.853   17.3  0.1321  -11.0  0.2440 -104.4
 6.600  0.5059  132.5   1.823   15.8  0.1322  -11.6  0.2376 -105.6
 6.800  0.5047  128.0   1.766   12.6  0.1324  -12.8  0.2252 -108.3
 7.000  0.5065  123.6   1.716    9.2  0.1327  -14.0  0.2134 -111.3
 7.200  0.5099  119.0   1.665    6.2  0.1332  -15.2  0.2013 -114.3
 7.400  0.5165  114.6   1.618    3.0  0.1338  -16.5  0.1899 -117.7
 7.600  0.5264  110.2   1.573   -0.2  0.1342  -17.8  0.1773 -121.4
 7.800  0.5395  105.8   1.529   -3.3  0.1345  -19.2  0.1639 -125.7
 8.000  0.5556  101.7   1.490   -6.5  0.1349  -20.6  0.1515 -130.8
 8.200  0.5714   98.1   1.443   -9.3  0.1345  -21.9  0.1342 -136.9
 8.400  0.5894   94.6   1.400  -12.3  0.1341  -23.2  0.1188 -144.6
 8.600  0.6068   91.6   1.360  -15.2  0.1338  -24.4  0.1049 -154.9
 8.800  0.6232   89.0   1.322  -18.0  0.1334  -25.5  0.0944 -168.7
 9.000  0.6407   86.5   1.287  -21.0  0.1331  -26.5  0.0904  175.3
 9.200  0.6552   84.0   1.250  -24.0  0.1327  -27.5  0.0944  159.2
 9.400  0.6709   81.6   1.216  -27.1  0.1323  -28.4  0.1050  145.5
 9.600  0.6819   78.8   1.175  -30.0  0.1319  -29.3  0.1210  135.1
 9.800  0.6890   75.7   1.128  -32.7  0.1316  -30.0  0.1406  127.7
10.000  0.6980   72.6   1.084  -35.7  0.1313  -30.7  0.1619  122.2
!
!  f       NFmin   Gammaopt  rn/50
! GHz       dB    MAG  ANG    -
 0.900      0.79  0.64   15   0.47
 1.800      1.18  0.51   29   0.42
 2.400      1.41  0.42   40   0.39
 3.000      1.48  0.42   55   0.36
 4.000      1.72  0.30   82   0.27
 5.000      2.06  0.26  118   0.21
!
! (c) 2016  Infineon Technologies AG, Munich
