! Infineon Technologies  Discrete & RF Semiconductors
! BFP450
! VCE =  4.0 V,  IC =  90 mA
! Common Emitter S-Parameters:                            Nov 2015
# GHz  S  MA  R  50
!  f         S11            S21            S12            S22
! GHz     MAG   ANG      MAG   ANG      MAG   ANG      MAG   ANG
 0.030  0.2386 -145.7  74.653  164.5  0.0039   62.2  0.7315  -21.1
 0.035  0.2569 -144.1  73.783  162.1  0.0044   63.7  0.7264  -24.7
 0.040  0.2753 -142.7  73.042  159.7  0.0050   64.8  0.7243  -28.4
 0.045  0.2964 -142.6  71.989  157.3  0.0054   63.8  0.7177  -32.0
 0.050  0.3176 -142.6  71.062  154.9  0.0058   63.0  0.7139  -35.6
 0.055  0.3384 -142.8  69.759  152.9  0.0063   62.2  0.7059  -39.0
 0.060  0.3593 -142.9  68.546  150.8  0.0068   61.6  0.7004  -42.4
 0.065  0.3762 -143.3  67.192  148.6  0.0072   61.3  0.6913  -45.6
 0.070  0.3931 -143.6  65.937  146.4  0.0076   61.1  0.6845  -48.9
 0.075  0.4102 -144.1  64.639  144.7  0.0079   60.2  0.6756  -51.9
 0.080  0.4274 -144.5  63.401  142.9  0.0083   59.3  0.6686  -55.0
 0.085  0.4406 -145.2  62.015  141.1  0.0086   58.8  0.6598  -57.8
 0.090  0.4538 -145.8  60.691  139.3  0.0090   58.4  0.6526  -60.7
 0.095  0.4663 -146.6  59.386  137.7  0.0093   58.1  0.6440  -63.3
 0.100  0.4788 -147.4  58.128  136.1  0.0097   57.8  0.6368  -66.0
 0.105  0.4894 -148.2  56.903  134.7  0.0099   57.3  0.6288  -68.5
 0.110  0.5001 -148.9  55.714  133.2  0.0102   56.8  0.6219  -71.0
 0.115  0.5092 -149.8  54.470  131.9  0.0105   56.5  0.6142  -73.4
 0.120  0.5184 -150.6  53.257  130.5  0.0108   56.3  0.6076  -75.8
 0.125  0.5283 -151.2  52.109  129.2  0.0110   55.5  0.6007  -78.0
 0.130  0.5382 -151.8  50.987  127.9  0.0113   54.8  0.5946  -80.2
 0.135  0.5447 -152.7  49.919  126.8  0.0115   54.7  0.5881  -82.2
 0.140  0.5514 -153.5  48.872  125.6  0.0117   54.7  0.5824  -84.3
 0.145  0.5590 -154.2  47.818  124.5  0.0119   54.5  0.5765  -86.2
 0.150  0.5667 -154.8  46.784  123.3  0.0121   54.3  0.5713  -88.2
 0.155  0.5713 -155.4  45.872  122.6  0.0123   54.2  0.5650  -89.7
 0.160  0.5761 -156.1  44.967  121.8  0.0125   54.0  0.5590  -91.2
 0.165  0.5809 -156.7  44.071  121.0  0.0126   53.9  0.5535  -92.8
 0.170  0.5857 -157.3  43.184  120.2  0.0128   53.7  0.5484  -94.4
 0.175  0.5906 -157.9  42.306  119.3  0.0130   53.6  0.5437  -96.0
 0.180  0.5956 -158.5  41.439  118.4  0.0132   53.5  0.5394  -97.6
 0.185  0.6006 -159.0  40.582  117.5  0.0134   53.4  0.5356  -99.3
 0.190  0.6057 -159.6  39.736  116.5  0.0135   53.2  0.5323 -101.0
 0.195  0.6109 -160.2  38.903  115.5  0.0137   53.1  0.5294 -102.7
 0.200  0.6161 -160.7  38.082  114.4  0.0139   53.0  0.5270 -104.4
 0.220  0.6262 -162.5  35.558  112.1  0.0146   53.1  0.5130 -109.1
 0.240  0.6368 -164.2  33.097  109.5  0.0153   53.2  0.5026 -114.0
 0.260  0.6462 -165.8  30.930  107.2  0.0159   53.5  0.4942 -118.3
 0.280  0.6540 -167.3  29.024  105.3  0.0165   53.7  0.4864 -122.1
 0.300  0.6623 -168.7  27.155  103.1  0.0171   54.0  0.4808 -125.9
 0.320  0.6663 -169.8  25.706  101.7  0.0177   54.4  0.4754 -128.8
 0.340  0.6707 -170.9  24.274  100.1  0.0184   54.8  0.4712 -131.8
 0.360  0.6744 -172.0  22.997   98.7  0.0190   55.2  0.4677 -134.5
 0.380  0.6777 -172.9  21.871   97.3  0.0196   55.6  0.4647 -137.0
 0.400  0.6811 -173.9  20.758   95.8  0.0202   55.9  0.4625 -139.5
 0.420  0.6833 -174.7  19.849   94.8  0.0208   56.2  0.4602 -141.5
 0.440  0.6857 -175.6  18.948   93.6  0.0215   56.5  0.4584 -143.6
 0.450  0.6870 -176.0  18.500   93.0  0.0218   56.6  0.4578 -144.6
 0.460  0.6878 -176.4  18.128   92.6  0.0221   56.7  0.4571 -145.5
 0.480  0.6896 -177.1  17.387   91.6  0.0227   57.0  0.4559 -147.2
 0.500  0.6914 -177.8  16.651   90.6  0.0233   57.3  0.4551 -148.9
 0.520  0.6928 -178.4  16.082   89.9  0.0239   57.6  0.4542 -150.3
 0.540  0.6943 -179.1  15.515   89.1  0.0246   57.9  0.4536 -151.7
 0.560  0.6959 -179.7  14.952   88.3  0.0252   58.1  0.4533 -153.2
 0.580  0.6976  179.6  14.392   87.4  0.0259   58.4  0.4533 -154.6
 0.600  0.6994  179.0  13.836   86.4  0.0265   58.6  0.4535 -156.0
 0.620  0.7002  178.5  13.422   85.8  0.0272   58.8  0.4533 -157.1
 0.640  0.7010  178.0  13.010   85.2  0.0278   58.9  0.4533 -158.2
 0.660  0.7019  177.4  12.600   84.5  0.0285   59.0  0.4535 -159.3
 0.680  0.7028  176.9  12.191   83.8  0.0291   59.2  0.4538 -160.4
 0.700  0.7038  176.4  11.785   83.0  0.0298   59.3  0.4543 -161.5
 0.720  0.7045  175.9  11.473   82.4  0.0304   59.4  0.4545 -162.4
 0.740  0.7052  175.4  11.161   81.9  0.0311   59.5  0.4548 -163.3
 0.760  0.7060  174.9  10.851   81.2  0.0317   59.6  0.4553 -164.3
 0.780  0.7069  174.4  10.542   80.6  0.0324   59.7  0.4558 -165.2
 0.800  0.7078  173.9  10.235   79.9  0.0330   59.8  0.4565 -166.1
 0.820  0.7084  173.5   9.994   79.4  0.0337   59.8  0.4569 -166.9
 0.840  0.7090  173.1   9.754   79.0  0.0344   59.8  0.4574 -167.7
 0.860  0.7097  172.6   9.515   78.5  0.0350   59.9  0.4580 -168.5
 0.880  0.7104  172.2   9.276   78.0  0.0357   59.9  0.4587 -169.3
 0.900  0.7112  171.8   9.038   77.4  0.0364   59.9  0.4595 -170.1
 0.920  0.7116  171.4   8.840   76.9  0.0371   59.9  0.4600 -170.8
 0.940  0.7120  170.9   8.643   76.5  0.0377   59.9  0.4606 -171.5
 0.960  0.7124  170.5   8.446   76.0  0.0384   59.8  0.4613 -172.3
 0.980  0.7129  170.0   8.250   75.4  0.0390   59.8  0.4620 -173.0
 1.000  0.7134  169.6   8.055   74.9  0.0397   59.8  0.4628 -173.7
 1.020  0.7140  169.2   7.900   74.5  0.0404   59.7  0.4634 -174.3
 1.040  0.7147  168.9   7.746   74.0  0.0411   59.7  0.4640 -174.9
 1.060  0.7154  168.5   7.592   73.6  0.0417   59.6  0.4646 -175.6
 1.080  0.7161  168.2   7.438   73.1  0.0424   59.6  0.4653 -176.2
 1.100  0.7169  167.8   7.285   72.6  0.0431   59.5  0.4661 -176.8
 1.120  0.7173  167.4   7.151   72.2  0.0438   59.4  0.4668 -177.4
 1.140  0.7178  167.0   7.018   71.8  0.0444   59.3  0.4675 -178.0
 1.160  0.7184  166.6   6.885   71.4  0.0451   59.3  0.4683 -178.6
 1.180  0.7189  166.2   6.753   71.0  0.0457   59.2  0.4691 -179.2
 1.200  0.7195  165.8   6.621   70.5  0.0464   59.1  0.4700 -179.8
 1.220  0.7198  165.4   6.511   70.1  0.0471   59.0  0.4706  179.7
 1.240  0.7201  165.1   6.402   69.7  0.0478   58.8  0.4712  179.2
 1.260  0.7204  164.7   6.292   69.3  0.0484   58.7  0.4718  178.6
 1.280  0.7208  164.4   6.184   68.8  0.0491   58.6  0.4725  178.1
 1.300  0.7212  164.0   6.075   68.4  0.0498   58.5  0.4732  177.6
 1.320  0.7216  163.7   5.980   68.0  0.0505   58.4  0.4738  177.1
 1.340  0.7221  163.3   5.885   67.7  0.0511   58.3  0.4745  176.6
 1.360  0.7226  163.0   5.790   67.3  0.0518   58.1  0.4752  176.0
 1.380  0.7231  162.6   5.696   66.9  0.0524   58.0  0.4760  175.5
 1.400  0.7236  162.3   5.602   66.5  0.0531   57.9  0.4768  175.0
 1.420  0.7241  161.9   5.521   66.1  0.0538   57.7  0.4775  174.5
 1.440  0.7247  161.6   5.441   65.8  0.0545   57.6  0.4783  174.0
 1.460  0.7253  161.2   5.361   65.4  0.0551   57.4  0.4790  173.6
 1.480  0.7259  160.9   5.281   65.0  0.0558   57.3  0.4799  173.1
 1.500  0.7265  160.5   5.201   64.6  0.0565   57.1  0.4807  172.6
 1.520  0.7268  160.2   5.131   64.3  0.0572   56.9  0.4813  172.2
 1.540  0.7271  159.8   5.060   63.9  0.0578   56.8  0.4820  171.7
 1.560  0.7274  159.5   4.990   63.6  0.0585   56.6  0.4827  171.3
 1.580  0.7278  159.1   4.921   63.2  0.0591   56.5  0.4834  170.8
 1.600  0.7282  158.8   4.851   62.8  0.0598   56.3  0.4842  170.4
 1.620  0.7287  158.5   4.789   62.5  0.0604   56.1  0.4849  170.0
 1.640  0.7292  158.2   4.728   62.1  0.0611   55.9  0.4856  169.5
 1.660  0.7297  157.8   4.666   61.7  0.0617   55.7  0.4863  169.1
 1.680  0.7302  157.5   4.605   61.4  0.0624   55.6  0.4871  168.6
 1.700  0.7308  157.2   4.544   61.0  0.0630   55.4  0.4879  168.2
 1.720  0.7309  156.9   4.488   60.6  0.0637   55.2  0.4884  167.8
 1.740  0.7311  156.5   4.433   60.3  0.0643   55.0  0.4890  167.4
 1.760  0.7313  156.2   4.377   59.9  0.0650   54.8  0.4896  166.9
 1.780  0.7315  155.8   4.322   59.5  0.0656   54.6  0.4902  166.5
 1.800  0.7318  155.5   4.267   59.1  0.0663   54.4  0.4909  166.1
 1.820  0.7323  155.2   4.218   58.8  0.0669   54.2  0.4916  165.7
 1.840  0.7328  154.9   4.168   58.4  0.0676   54.0  0.4924  165.3
 1.860  0.7333  154.5   4.119   58.1  0.0682   53.8  0.4932  164.8
 1.880  0.7338  154.2   4.070   57.8  0.0689   53.7  0.4940  164.4
 1.900  0.7344  153.9   4.021   57.4  0.0695   53.5  0.4949  164.0
 1.920  0.7345  153.6   3.978   57.1  0.0701   53.3  0.4954  163.6
 1.940  0.7345  153.3   3.935   56.7  0.0708   53.0  0.4959  163.2
 1.960  0.7346  152.9   3.892   56.4  0.0714   52.8  0.4964  162.8
 1.980  0.7348  152.6   3.849   56.1  0.0721   52.6  0.4970  162.4
 2.000  0.7349  152.3   3.806   55.7  0.0727   52.4  0.4976  162.0
 2.020  0.7351  152.0   3.768   55.4  0.0733   52.2  0.4982  161.6
 2.040  0.7352  151.6   3.729   55.1  0.0739   52.0  0.4988  161.2
 2.060  0.7355  151.3   3.691   54.7  0.0745   51.7  0.4994  160.8
 2.080  0.7357  151.0   3.653   54.4  0.0751   51.5  0.5000  160.4
 2.100  0.7359  150.6   3.615   54.0  0.0757   51.3  0.5007  160.0
 2.120  0.7362  150.3   3.578   53.7  0.0763   51.1  0.5014  159.6
 2.140  0.7365  150.0   3.540   53.3  0.0769   50.9  0.5021  159.2
 2.160  0.7369  149.7   3.502   53.0  0.0775   50.7  0.5028  158.8
 2.180  0.7372  149.3   3.465   52.6  0.0781   50.5  0.5036  158.4
 2.200  0.7376  149.0   3.428   52.2  0.0787   50.3  0.5044  158.0
 2.220  0.7378  148.7   3.396   51.9  0.0793   50.1  0.5050  157.6
 2.240  0.7380  148.4   3.365   51.6  0.0799   49.9  0.5057  157.2
 2.260  0.7383  148.1   3.333   51.3  0.0805   49.6  0.5063  156.8
 2.280  0.7386  147.8   3.302   51.0  0.0811   49.4  0.5070  156.5
 2.300  0.7389  147.4   3.271   50.7  0.0817   49.2  0.5077  156.1
 2.320  0.7392  147.1   3.240   50.4  0.0823   49.0  0.5085  155.7
 2.340  0.7395  146.8   3.209   50.0  0.0830   48.8  0.5092  155.3
 2.360  0.7399  146.5   3.178   49.7  0.0836   48.6  0.5100  155.0
 2.380  0.7403  146.2   3.147   49.3  0.0842   48.4  0.5108  154.6
 2.400  0.7407  145.9   3.116   49.0  0.0848   48.2  0.5116  154.2
 2.420  0.7408  145.6   3.089   48.7  0.0854   48.0  0.5122  153.8
 2.440  0.7409  145.3   3.062   48.4  0.0860   47.7  0.5129  153.4
 2.460  0.7410  145.0   3.036   48.1  0.0866   47.5  0.5136  153.0
 2.480  0.7412  144.7   3.009   47.8  0.0871   47.3  0.5143  152.7
 2.500  0.7414  144.4   2.983   47.5  0.0877   47.1  0.5150  152.3
 2.520  0.7416  144.2   2.956   47.1  0.0883   46.8  0.5158  151.9
 2.540  0.7418  143.9   2.930   46.8  0.0889   46.6  0.5165  151.5
 2.560  0.7420  143.6   2.904   46.5  0.0895   46.4  0.5173  151.2
 2.580  0.7422  143.3   2.878   46.1  0.0901   46.2  0.5182  150.8
 2.600  0.7425  143.0   2.852   45.8  0.0907   46.0  0.5190  150.4
 2.620  0.7427  142.7   2.830   45.5  0.0913   45.8  0.5196  150.1
 2.640  0.7430  142.4   2.808   45.2  0.0918   45.5  0.5203  149.7
 2.660  0.7433  142.1   2.785   44.9  0.0924   45.3  0.5210  149.4
 2.680  0.7436  141.8   2.763   44.6  0.0930   45.0  0.5217  149.0
 2.700  0.7439  141.5   2.741   44.3  0.0936   44.8  0.5224  148.7
 2.720  0.7442  141.3   2.720   43.9  0.0942   44.6  0.5232  148.3
 2.740  0.7445  141.0   2.698   43.6  0.0947   44.4  0.5239  148.0
 2.760  0.7449  140.7   2.676   43.3  0.0953   44.1  0.5247  147.7
 2.780  0.7453  140.4   2.655   42.9  0.0959   43.9  0.5255  147.3
 2.800  0.7457  140.1   2.633   42.6  0.0965   43.7  0.5263  147.0
 2.820  0.7460  139.8   2.614   42.3  0.0971   43.5  0.5269  146.7
 2.840  0.7464  139.5   2.594   42.0  0.0976   43.2  0.5276  146.3
 2.860  0.7467  139.2   2.575   41.7  0.0982   43.0  0.5283  146.0
 2.880  0.7471  138.9   2.556   41.4  0.0987   42.7  0.5290  145.7
 2.900  0.7475  138.6   2.537   41.1  0.0993   42.5  0.5297  145.3
 2.920  0.7480  138.3   2.517   40.7  0.0998   42.3  0.5304  145.0
 2.940  0.7484  138.0   2.498   40.4  0.1004   42.1  0.5312  144.7
 2.960  0.7489  137.7   2.480   40.1  0.1010   41.8  0.5319  144.4
 2.980  0.7494  137.4   2.461   39.7  0.1015   41.6  0.5327  144.0
 3.000  0.7499  137.1   2.442   39.4  0.1021   41.4  0.5335  143.7
 3.100  0.7515  135.6   2.360   38.0  0.1045   40.1  0.5365  142.2
 3.200  0.7536  134.1   2.280   36.5  0.1070   38.8  0.5400  140.7
 3.300  0.7562  132.6   2.201   34.9  0.1095   37.6  0.5438  139.2
 3.400  0.7593  131.2   2.124   33.2  0.1121   36.5  0.5479  137.7
 3.500  0.7629  129.7   2.049   31.4  0.1147   35.4  0.5524  136.3
 3.600  0.7652  128.4   1.987   30.1  0.1167   34.2  0.5560  135.0
 3.700  0.7680  127.0   1.926   28.8  0.1188   33.0  0.5599  133.6
 3.800  0.7711  125.7   1.867   27.4  0.1210   31.9  0.5641  132.3
 3.900  0.7746  124.4   1.808   25.8  0.1232   30.8  0.5686  131.1
 4.000  0.7786  123.1   1.751   24.2  0.1254   29.7  0.5734  129.8
 4.100  0.7804  122.0   1.704   23.0  0.1273   28.6  0.5770  128.6
 4.200  0.7825  120.9   1.657   21.8  0.1292   27.6  0.5808  127.4
 4.300  0.7848  119.8   1.612   20.5  0.1312   26.6  0.5849  126.2
 4.400  0.7875  118.7   1.567   19.1  0.1332   25.6  0.5892  125.0
 4.500  0.7904  117.6   1.523   17.6  0.1352   24.7  0.5938  123.9
 4.600  0.7913  116.6   1.487   16.4  0.1371   23.6  0.5965  122.8
 4.700  0.7925  115.5   1.452   15.2  0.1391   22.6  0.5994  121.7
 4.800  0.7939  114.5   1.417   13.9  0.1411   21.6  0.6026  120.6
 4.900  0.7956  113.4   1.383   12.6  0.1431   20.6  0.6059  119.5
 5.000  0.7975  112.4   1.350   11.2  0.1452   19.7  0.6095  118.4
 5.100  0.7972  111.4   1.321   10.1  0.1469   18.6  0.6111  117.3
 5.200  0.7972  110.3   1.293    8.9  0.1487   17.6  0.6130  116.1
 5.300  0.7974  109.3   1.265    7.6  0.1505   16.6  0.6152  115.0
 5.400  0.7979  108.2   1.238    6.3  0.1524   15.6  0.6175  113.9
 5.500  0.7986  107.2   1.212    5.0  0.1543   14.6  0.6201  112.8
 5.600  0.7985  106.4   1.190    3.9  0.1561   13.6  0.6214  111.6
 5.700  0.7985  105.5   1.169    2.8  0.1579   12.6  0.6230  110.5
 5.800  0.7987  104.7   1.148    1.6  0.1597   11.7  0.6248  109.4
 5.900  0.7991  103.8   1.127    0.4  0.1617   10.7  0.6269  108.2
 6.000  0.7997  103.0   1.107   -0.8  0.1636    9.8  0.6292  107.1
 6.100  0.8009  102.2   1.090   -2.0  0.1653    8.7  0.6309  106.1
 6.200  0.8022  101.3   1.074   -3.2  0.1670    7.6  0.6328  105.0
 6.300  0.8037  100.5   1.059   -4.5  0.1688    6.6  0.6349  104.0
 6.400  0.8054   99.6   1.044   -5.8  0.1707    5.5  0.6372  103.0
 6.500  0.8073   98.8   1.029   -7.2  0.1726    4.5  0.6397  102.0
 6.600  0.8088   97.8   1.013   -8.5  0.1742    3.3  0.6413  101.1
 6.800  0.8126   95.8   0.984  -11.2  0.1775    1.1  0.6451   99.3
 7.000  0.8174   93.9   0.956  -14.0  0.1811   -1.1  0.6494   97.6
 7.200  0.8201   91.6   0.926  -16.6  0.1834   -3.5  0.6538   95.7
 7.400  0.8240   89.3   0.898  -19.4  0.1861   -5.9  0.6590   93.7
 7.600  0.8271   87.0   0.870  -22.1  0.1882   -8.2  0.6656   91.5
 7.800  0.8294   84.6   0.840  -24.6  0.1897  -10.5  0.6742   89.0
 8.000  0.8332   82.2   0.812  -27.3  0.1916  -12.8  0.6841   86.6
 8.200  0.8359   79.7   0.784  -29.7  0.1916  -15.2  0.6933   83.9
 8.400  0.8401   77.3   0.757  -32.2  0.1920  -17.5  0.7040   81.4
 8.600  0.8438   74.9   0.730  -34.5  0.1917  -19.7  0.7128   78.9
 8.800  0.8468   72.5   0.704  -36.7  0.1908  -21.9  0.7197   76.5
 9.000  0.8513   70.1   0.679  -39.0  0.1901  -24.0  0.7278   74.2
 9.200  0.8556   68.3   0.652  -40.8  0.1884  -25.6  0.7341   72.3
 9.400  0.8607   66.5   0.627  -42.7  0.1868  -27.3  0.7411   70.3
 9.600  0.8664   65.1   0.605  -44.3  0.1854  -28.7  0.7507   68.7
 9.800  0.8723   64.0   0.587  -45.6  0.1841  -30.0  0.7625   67.4
10.000  0.8785   63.0   0.570  -47.0  0.1829  -31.3  0.7747   66.1
10.200  0.8808   62.5   0.556  -47.9  0.1824  -31.9  0.7793   66.1
10.400  0.8832   62.0   0.542  -48.8  0.1820  -32.5  0.7840   66.2
10.600  0.8842   61.5   0.532  -49.7  0.1822  -33.1  0.7859   66.4
10.800  0.8838   61.1   0.525  -50.6  0.1829  -33.8  0.7853   66.8
11.000  0.8835   60.7   0.519  -51.5  0.1837  -34.5  0.7846   67.2
11.200  0.8792   60.0   0.514  -53.0  0.1896  -34.6  0.7727   66.6
11.400  0.8751   59.3   0.509  -54.4  0.1955  -34.7  0.7610   66.0
11.600  0.8701   58.6   0.507  -55.9  0.2009  -35.9  0.7551   65.1
11.800  0.8643   57.9   0.507  -57.4  0.2059  -38.1  0.7554   63.9
12.000  0.8586   57.2   0.508  -58.8  0.2112  -40.2  0.7560   62.7
!
!  f       NFmin   Gammaopt  rn/50
! GHz       dB    MAG  ANG    -
 0.450      2.02  0.62 -172   0.07
 0.900      2.06  0.65 -166   0.08
 1.900      2.17  0.67 -150   0.14
 2.400      2.26  0.67 -140   0.21
!
! (c) 2015  Infineon Technologies AG, Munich
