! Infineon Technologies  Discrete & RF Semiconductors
! BFP450
! VCE =  1.0 V,  IC = 0.12 A
! Common Emitter S-Parameters:                            Nov 2015
# GHz  S  MA  R  50
!  f         S11            S21            S12            S22
! GHz     MAG   ANG      MAG   ANG      MAG   ANG      MAG   ANG
 0.030  0.3784 -148.8  72.918  158.7  0.0047   76.7  0.6780  -36.5
 0.035  0.4073 -148.6  71.231  155.5  0.0053   74.0  0.6722  -42.3
 0.040  0.4363 -148.5  69.773  152.2  0.0059   71.8  0.6734  -48.2
 0.045  0.4621 -149.3  67.844  149.2  0.0064   69.4  0.6669  -53.7
 0.050  0.4879 -150.0  66.114  146.0  0.0070   67.4  0.6667  -59.3
 0.055  0.5128 -150.8  64.054  143.5  0.0075   65.5  0.6601  -64.1
 0.060  0.5377 -151.5  62.121  140.9  0.0080   63.8  0.6582  -68.9
 0.065  0.5555 -152.5  60.132  138.4  0.0083   62.8  0.6514  -73.2
 0.070  0.5734 -153.5  58.262  135.8  0.0086   61.8  0.6483  -77.6
 0.075  0.5893 -154.2  56.448  133.9  0.0089   60.1  0.6426  -81.5
 0.080  0.6052 -154.8  54.703  131.8  0.0093   58.5  0.6400  -85.5
 0.085  0.6155 -155.7  52.949  130.1  0.0096   57.6  0.6348  -88.9
 0.090  0.6260 -156.6  51.247  128.2  0.0099   56.7  0.6320  -92.4
 0.095  0.6370 -157.6  49.648  126.6  0.0101   56.0  0.6276  -95.5
 0.100  0.6481 -158.5  48.090  124.9  0.0104   55.4  0.6250  -98.6
 0.105  0.6562 -159.2  46.677  123.5  0.0106   55.1  0.6212 -101.3
 0.110  0.6644 -159.9  45.293  122.0  0.0109   54.9  0.6189 -104.1
 0.115  0.6716 -160.7  43.938  120.8  0.0111   54.7  0.6157 -106.6
 0.120  0.6789 -161.5  42.603  119.5  0.0114   54.5  0.6137 -109.1
 0.125  0.6844 -162.1  41.397  118.3  0.0115   53.8  0.6108 -111.3
 0.130  0.6899 -162.7  40.210  117.0  0.0117   53.1  0.6089 -113.6
 0.135  0.6956 -163.4  39.124  116.0  0.0119   53.1  0.6065 -115.6
 0.140  0.7013 -164.0  38.050  115.0  0.0121   53.1  0.6048 -117.6
 0.145  0.7059 -164.6  37.018  114.0  0.0122   52.7  0.6028 -119.4
 0.150  0.7105 -165.2  35.998  113.0  0.0124   52.4  0.6014 -121.2
 0.155  0.7132 -165.7  35.190  112.4  0.0126   52.5  0.5987 -122.6
 0.160  0.7160 -166.2  34.386  111.8  0.0127   52.5  0.5963 -123.9
 0.165  0.7188 -166.6  33.586  111.1  0.0129   52.6  0.5943 -125.3
 0.170  0.7216 -167.1  32.791  110.4  0.0131   52.7  0.5926 -126.7
 0.175  0.7245 -167.6  32.001  109.7  0.0132   52.7  0.5912 -128.1
 0.180  0.7275 -168.1  31.216  109.0  0.0134   52.8  0.5902 -129.5
 0.185  0.7305 -168.5  30.437  108.2  0.0136   52.8  0.5896 -130.9
 0.190  0.7336 -169.0  29.664  107.3  0.0138   52.9  0.5893 -132.3
 0.195  0.7367 -169.4  28.898  106.4  0.0139   52.9  0.5894 -133.7
 0.200  0.7398 -169.9  28.139  105.5  0.0141   53.0  0.5898 -135.1
 0.220  0.7444 -171.2  26.076  103.7  0.0148   53.4  0.5856 -138.8
 0.240  0.7495 -172.5  24.043  101.7  0.0155   53.8  0.5840 -142.6
 0.260  0.7537 -173.6  22.289   99.8  0.0161   54.3  0.5829 -145.8
 0.280  0.7571 -174.7  20.799   98.3  0.0168   54.9  0.5816 -148.5
 0.300  0.7608 -175.7  19.327   96.5  0.0175   55.4  0.5815 -151.2
 0.320  0.7627 -176.6  18.242   95.4  0.0181   55.9  0.5807 -153.2
 0.340  0.7649 -177.5  17.165   94.2  0.0188   56.5  0.5806 -155.3
 0.360  0.7665 -178.3  16.211   93.0  0.0195   56.9  0.5806 -157.2
 0.380  0.7676 -179.0  15.376   91.9  0.0202   57.3  0.5805 -158.9
 0.400  0.7688 -179.7  14.547   90.7  0.0209   57.7  0.5809 -160.6
 0.420  0.7696  179.7  13.891   89.9  0.0216   58.1  0.5808 -162.0
 0.440  0.7706  179.0  13.238   89.0  0.0223   58.5  0.5811 -163.3
 0.450  0.7711  178.7  12.913   88.5  0.0226   58.7  0.5813 -164.0
 0.460  0.7716  178.4  12.648   88.1  0.0230   58.8  0.5814 -164.6
 0.480  0.7727  177.9  12.119   87.4  0.0237   59.1  0.5817 -165.7
 0.500  0.7738  177.3  11.593   86.5  0.0244   59.4  0.5823 -166.9
 0.520  0.7742  176.8  11.190   85.9  0.0251   59.7  0.5825 -167.9
 0.540  0.7746  176.3  10.789   85.3  0.0258   59.9  0.5828 -168.8
 0.560  0.7751  175.8  10.389   84.6  0.0266   60.2  0.5834 -169.8
 0.580  0.7757  175.3   9.991   83.8  0.0273   60.4  0.5841 -170.7
 0.600  0.7763  174.8   9.595   83.0  0.0280   60.6  0.5849 -171.7
 0.620  0.7765  174.3   9.308   82.5  0.0287   60.7  0.5853 -172.4
 0.640  0.7767  173.9   9.021   82.0  0.0294   60.8  0.5858 -173.2
 0.660  0.7769  173.4   8.735   81.4  0.0302   60.9  0.5863 -173.9
 0.680  0.7772  173.0   8.450   80.8  0.0309   61.0  0.5870 -174.7
 0.700  0.7776  172.5   8.166   80.2  0.0316   61.1  0.5878 -175.4
 0.720  0.7778  172.1   7.949   79.7  0.0323   61.1  0.5882 -176.1
 0.740  0.7780  171.7   7.732   79.2  0.0331   61.2  0.5888 -176.7
 0.760  0.7783  171.2   7.517   78.7  0.0338   61.2  0.5894 -177.4
 0.780  0.7786  170.8   7.301   78.1  0.0346   61.3  0.5900 -178.0
 0.800  0.7790  170.4   7.087   77.5  0.0353   61.3  0.5908 -178.7
 0.820  0.7794  170.0   6.922   77.1  0.0361   61.3  0.5913 -179.3
 0.840  0.7797  169.7   6.757   76.6  0.0368   61.3  0.5919 -179.8
 0.860  0.7802  169.3   6.592   76.2  0.0376   61.3  0.5925  179.6
 0.880  0.7806  169.0   6.428   75.7  0.0383   61.3  0.5932  179.1
 0.900  0.7811  168.6   6.264   75.2  0.0391   61.3  0.5939  178.5
 0.920  0.7811  168.2   6.128   74.8  0.0398   61.2  0.5944  178.0
 0.940  0.7811  167.8   5.993   74.4  0.0406   61.1  0.5950  177.4
 0.960  0.7811  167.5   5.858   73.9  0.0413   61.1  0.5956  176.9
 0.980  0.7812  167.1   5.723   73.5  0.0421   61.0  0.5963  176.3
 1.000  0.7813  166.7   5.589   73.0  0.0428   60.9  0.5970  175.8
 1.020  0.7817  166.3   5.483   72.6  0.0435   60.8  0.5975  175.3
 1.040  0.7821  166.0   5.378   72.2  0.0443   60.7  0.5980  174.8
 1.060  0.7825  165.6   5.273   71.8  0.0450   60.7  0.5986  174.4
 1.080  0.7830  165.3   5.168   71.4  0.0458   60.6  0.5992  173.9
 1.100  0.7835  164.9   5.064   71.0  0.0465   60.5  0.5998  173.4
 1.120  0.7837  164.6   4.972   70.6  0.0472   60.4  0.6003  172.9
 1.140  0.7840  164.2   4.881   70.2  0.0479   60.2  0.6009  172.5
 1.160  0.7843  163.9   4.790   69.8  0.0487   60.1  0.6015  172.0
 1.180  0.7846  163.5   4.699   69.4  0.0494   59.9  0.6022  171.6
 1.200  0.7849  163.2   4.608   69.0  0.0501   59.8  0.6029  171.1
 1.220  0.7850  162.8   4.533   68.6  0.0508   59.7  0.6033  170.7
 1.240  0.7852  162.5   4.458   68.2  0.0516   59.5  0.6037  170.3
 1.260  0.7854  162.1   4.384   67.8  0.0523   59.4  0.6042  169.8
 1.280  0.7856  161.8   4.309   67.4  0.0531   59.2  0.6047  169.4
 1.300  0.7859  161.4   4.235   67.0  0.0538   59.1  0.6052  169.0
 1.320  0.7861  161.1   4.170   66.7  0.0545   58.9  0.6057  168.6
 1.340  0.7864  160.8   4.105   66.3  0.0552   58.8  0.6063  168.2
 1.360  0.7867  160.4   4.040   66.0  0.0560   58.6  0.6069  167.8
 1.380  0.7870  160.1   3.975   65.6  0.0567   58.5  0.6075  167.4
 1.400  0.7873  159.8   3.910   65.2  0.0574   58.3  0.6081  167.0
 1.420  0.7876  159.5   3.855   64.8  0.0581   58.1  0.6087  166.6
 1.440  0.7879  159.2   3.801   64.5  0.0589   57.9  0.6093  166.2
 1.460  0.7883  158.8   3.746   64.1  0.0596   57.7  0.6099  165.8
 1.480  0.7887  158.5   3.692   63.7  0.0604   57.6  0.6106  165.4
 1.500  0.7891  158.2   3.638   63.3  0.0611   57.4  0.6113  165.0
 1.520  0.7892  157.9   3.590   63.0  0.0618   57.2  0.6118  164.6
 1.540  0.7894  157.6   3.542   62.6  0.0625   57.0  0.6123  164.2
 1.560  0.7896  157.2   3.494   62.2  0.0633   56.8  0.6128  163.9
 1.580  0.7898  156.9   3.447   61.9  0.0640   56.6  0.6133  163.5
 1.600  0.7900  156.6   3.399   61.5  0.0647   56.4  0.6139  163.1
 1.620  0.7904  156.3   3.357   61.2  0.0654   56.2  0.6144  162.7
 1.640  0.7908  155.9   3.314   60.8  0.0661   56.0  0.6150  162.3
 1.660  0.7912  155.6   3.272   60.4  0.0668   55.8  0.6156  162.0
 1.680  0.7916  155.2   3.230   60.1  0.0675   55.6  0.6162  161.6
 1.700  0.7921  154.9   3.188   59.7  0.0682   55.4  0.6169  161.2
 1.720  0.7922  154.6   3.150   59.3  0.0689   55.2  0.6173  160.8
 1.740  0.7922  154.3   3.111   59.0  0.0696   54.9  0.6178  160.5
 1.760  0.7923  153.9   3.073   58.6  0.0704   54.7  0.6183  160.1
 1.780  0.7925  153.6   3.035   58.2  0.0711   54.5  0.6188  159.8
 1.800  0.7926  153.3   2.997   57.8  0.0718   54.3  0.6193  159.4
 1.820  0.7929  153.0   2.963   57.5  0.0725   54.1  0.6199  159.1
 1.840  0.7931  152.7   2.930   57.2  0.0732   53.9  0.6205  158.7
 1.860  0.7934  152.5   2.897   56.9  0.0738   53.7  0.6212  158.4
 1.880  0.7938  152.2   2.863   56.5  0.0745   53.5  0.6218  158.0
 1.900  0.7941  151.9   2.830   56.2  0.0752   53.3  0.6225  157.7
 1.920  0.7942  151.6   2.800   55.9  0.0759   53.0  0.6229  157.3
 1.940  0.7943  151.3   2.771   55.5  0.0766   52.8  0.6233  156.9
 1.960  0.7944  150.9   2.741   55.1  0.0773   52.5  0.6237  156.6
 1.980  0.7946  150.6   2.712   54.8  0.0780   52.3  0.6241  156.2
 2.000  0.7948  150.3   2.683   54.4  0.0787   52.0  0.6246  155.8
 2.020  0.7948  150.0   2.656   54.1  0.0793   51.8  0.6250  155.4
 2.040  0.7947  149.6   2.630   53.8  0.0800   51.5  0.6254  155.1
 2.060  0.7948  149.3   2.604   53.4  0.0806   51.3  0.6258  154.7
 2.080  0.7948  149.0   2.577   53.1  0.0813   51.0  0.6262  154.4
 2.100  0.7949  148.6   2.551   52.7  0.0819   50.8  0.6267  154.0
 2.120  0.7950  148.3   2.525   52.4  0.0826   50.6  0.6272  153.7
 2.140  0.7951  148.0   2.499   52.0  0.0832   50.4  0.6277  153.3
 2.160  0.7952  147.7   2.473   51.7  0.0839   50.1  0.6283  153.0
 2.180  0.7954  147.3   2.448   51.3  0.0845   49.9  0.6288  152.6
 2.200  0.7956  147.0   2.422   50.9  0.0852   49.7  0.6294  152.3
 2.220  0.7957  146.7   2.400   50.6  0.0858   49.5  0.6298  152.0
 2.240  0.7959  146.4   2.378   50.3  0.0865   49.2  0.6303  151.6
 2.260  0.7960  146.1   2.356   50.0  0.0871   49.0  0.6308  151.3
 2.280  0.7962  145.8   2.335   49.7  0.0878   48.7  0.6313  150.9
 2.300  0.7964  145.5   2.313   49.3  0.0884   48.5  0.6319  150.6
 2.320  0.7966  145.3   2.291   49.0  0.0891   48.3  0.6324  150.3
 2.340  0.7969  145.0   2.270   48.7  0.0897   48.1  0.6330  149.9
 2.360  0.7971  144.7   2.249   48.3  0.0904   47.8  0.6336  149.6
 2.380  0.7974  144.4   2.227   48.0  0.0910   47.6  0.6343  149.2
 2.400  0.7977  144.1   2.206   47.6  0.0917   47.4  0.6349  148.9
 2.420  0.7976  143.8   2.187   47.3  0.0923   47.1  0.6354  148.6
 2.440  0.7975  143.5   2.169   47.0  0.0929   46.9  0.6359  148.2
 2.460  0.7974  143.2   2.150   46.7  0.0936   46.6  0.6364  147.9
 2.480  0.7973  142.9   2.132   46.3  0.0942   46.4  0.6369  147.5
 2.500  0.7973  142.6   2.114   46.0  0.0948   46.2  0.6375  147.2
 2.520  0.7973  142.3   2.095   45.7  0.0955   45.9  0.6381  146.9
 2.540  0.7973  142.0   2.077   45.4  0.0961   45.7  0.6387  146.5
 2.560  0.7973  141.7   2.059   45.0  0.0967   45.5  0.6393  146.2
 2.580  0.7973  141.4   2.041   44.7  0.0974   45.2  0.6399  145.8
 2.600  0.7974  141.1   2.023   44.3  0.0980   45.0  0.6406  145.5
 2.620  0.7976  140.8   2.008   44.0  0.0986   44.7  0.6411  145.2
 2.640  0.7978  140.5   1.993   43.7  0.0992   44.5  0.6416  144.9
 2.660  0.7980  140.2   1.978   43.4  0.0998   44.2  0.6421  144.5
 2.680  0.7982  139.9   1.963   43.1  0.1004   44.0  0.6426  144.2
 2.700  0.7984  139.6   1.948   42.8  0.1010   43.8  0.6431  143.9
 2.720  0.7987  139.4   1.933   42.4  0.1016   43.5  0.6437  143.6
 2.740  0.7990  139.1   1.918   42.1  0.1023   43.3  0.6443  143.3
 2.760  0.7993  138.8   1.903   41.8  0.1029   43.1  0.6449  142.9
 2.780  0.7996  138.5   1.889   41.4  0.1035   42.8  0.6456  142.6
 2.800  0.8000  138.2   1.874   41.1  0.1041   42.6  0.6462  142.3
 2.820  0.8002  137.9   1.861   40.8  0.1047   42.3  0.6466  142.0
 2.840  0.8005  137.6   1.847   40.5  0.1052   42.1  0.6471  141.7
 2.860  0.8007  137.3   1.834   40.2  0.1058   41.8  0.6476  141.4
 2.880  0.8010  137.0   1.820   39.8  0.1064   41.6  0.6481  141.1
 2.900  0.8013  136.7   1.807   39.5  0.1070   41.3  0.6486  140.7
 2.920  0.8017  136.5   1.794   39.2  0.1076   41.1  0.6491  140.4
 2.940  0.8020  136.2   1.781   38.8  0.1081   40.8  0.6496  140.1
 2.960  0.8024  135.9   1.768   38.5  0.1087   40.6  0.6502  139.8
 2.980  0.8028  135.6   1.755   38.2  0.1093   40.3  0.6508  139.5
 3.000  0.8032  135.3   1.742   37.8  0.1099   40.1  0.6514  139.2
 3.100  0.8040  133.8   1.684   36.4  0.1124   38.7  0.6532  137.8
 3.200  0.8053  132.4   1.628   34.9  0.1150   37.4  0.6553  136.4
 3.300  0.8072  130.9   1.573   33.3  0.1176   36.2  0.6579  135.0
 3.400  0.8096  129.4   1.519   31.6  0.1203   34.9  0.6609  133.6
 3.500  0.8125  128.0   1.466   29.7  0.1230   33.8  0.6642  132.2
 3.600  0.8141  126.7   1.423   28.4  0.1251   32.5  0.6667  131.0
 3.700  0.8160  125.4   1.380   27.0  0.1272   31.3  0.6694  129.7
 3.800  0.8184  124.1   1.338   25.6  0.1294   30.1  0.6725  128.5
 3.900  0.8213  122.8   1.297   24.0  0.1317   29.0  0.6759  127.3
 4.000  0.8245  121.5   1.257   22.4  0.1340   27.9  0.6796  126.1
 4.100  0.8254  120.4   1.224   21.2  0.1359   26.8  0.6822  125.0
 4.200  0.8267  119.3   1.192   20.0  0.1378   25.8  0.6850  123.8
 4.300  0.8282  118.2   1.161   18.7  0.1398   24.8  0.6881  122.7
 4.400  0.8301  117.2   1.130   17.3  0.1418   23.8  0.6915  121.6
 4.500  0.8322  116.1   1.100   15.8  0.1439   22.8  0.6951  120.5
 4.600  0.8324  115.1   1.075   14.7  0.1458   21.7  0.6970  119.4
 4.700  0.8330  114.0   1.051   13.5  0.1478   20.7  0.6992  118.4
 4.800  0.8338  113.0   1.027   12.2  0.1499   19.7  0.7016  117.3
 4.900  0.8349  111.9   1.004   10.9  0.1520   18.7  0.7042  116.2
 5.000  0.8362  110.9   0.981    9.5  0.1541   17.7  0.7071  115.2
 5.100  0.8354  109.9   0.961    8.4  0.1558   16.6  0.7079  114.1
 5.200  0.8348  108.9   0.942    7.2  0.1576   15.5  0.7090  113.0
 5.300  0.8344  107.9   0.923    6.0  0.1595   14.5  0.7104  111.9
 5.400  0.8343  106.9   0.905    4.7  0.1614   13.5  0.7120  110.8
 5.500  0.8345  105.9   0.887    3.4  0.1633   12.5  0.7139  109.7
 5.600  0.8339  105.0   0.872    2.3  0.1651   11.5  0.7145  108.6
 5.700  0.8336  104.2   0.858    1.2  0.1669   10.4  0.7154  107.4
 5.800  0.8334  103.3   0.843    0.0  0.1688    9.4  0.7165  106.3
 5.900  0.8334  102.5   0.829   -1.2  0.1707    8.5  0.7179  105.2
 6.000  0.8336  101.6   0.816   -2.4  0.1727    7.5  0.7196  104.1
 6.100  0.8345  100.8   0.805   -3.6  0.1744    6.4  0.7204  103.1
 6.200  0.8356  100.0   0.794   -4.8  0.1761    5.3  0.7215  102.1
 6.300  0.8369   99.1   0.784   -6.0  0.1779    4.2  0.7228  101.1
 6.400  0.8383   98.3   0.774   -7.3  0.1797    3.1  0.7243  100.1
 6.500  0.8399   97.5   0.764   -8.6  0.1816    2.1  0.7260   99.1
 6.600  0.8411   96.5   0.753   -9.8  0.1831    0.9  0.7269   98.2
 6.800  0.8442   94.5   0.733  -12.5  0.1864   -1.4  0.7292   96.5
 7.000  0.8483   92.5   0.714  -15.2  0.1900   -3.7  0.7322   94.7
 7.200  0.8500   90.2   0.693  -17.8  0.1922   -6.1  0.7353   92.8
 7.400  0.8531   88.0   0.674  -20.6  0.1948   -8.5  0.7392   90.9
 7.600  0.8551   85.7   0.654  -23.3  0.1968  -10.9  0.7445   88.8
 7.800  0.8562   83.3   0.634  -25.7  0.1981  -13.3  0.7517   86.3
 8.000  0.8588   80.9   0.615  -28.3  0.1998  -15.6  0.7603   83.9
 8.200  0.8603   78.5   0.595  -30.6  0.1995  -18.0  0.7673   81.3
 8.400  0.8634   76.1   0.575  -33.0  0.1995  -20.3  0.7759   78.8
 8.600  0.8660   73.7   0.556  -35.3  0.1988  -22.5  0.7823   76.3
 8.800  0.8680   71.3   0.538  -37.3  0.1975  -24.7  0.7866   74.0
 9.000  0.8715   69.0   0.520  -39.4  0.1964  -26.8  0.7921   71.7
 9.200  0.8747   67.2   0.501  -41.1  0.1944  -28.4  0.7958   69.8
 9.400  0.8788   65.5   0.483  -42.9  0.1925  -30.0  0.8004   68.0
 9.600  0.8835   64.1   0.468  -44.3  0.1908  -31.4  0.8077   66.4
 9.800  0.8884   63.1   0.455  -45.5  0.1893  -32.6  0.8175   65.2
10.000  0.8936   62.1   0.443  -46.7  0.1879  -33.8  0.8276   63.9
10.200  0.8954   61.6   0.433  -47.5  0.1874  -34.4  0.8309   63.9
10.400  0.8973   61.1   0.424  -48.3  0.1869  -34.9  0.8342   63.9
10.600  0.8979   60.7   0.417  -49.1  0.1871  -35.5  0.8352   64.1
10.800  0.8972   60.3   0.414  -49.8  0.1878  -36.2  0.8340   64.4
11.000  0.8965   59.9   0.411  -50.5  0.1886  -36.8  0.8328   64.7
11.200  0.8922   59.2   0.408  -51.9  0.1949  -36.9  0.8209   64.2
11.400  0.8880   58.5   0.406  -53.3  0.2012  -37.0  0.8092   63.6
11.600  0.8830   57.9   0.406  -54.7  0.2068  -38.3  0.8034   62.7
11.800  0.8772   57.2   0.408  -56.1  0.2119  -40.5  0.8037   61.4
12.000  0.8716   56.5   0.411  -57.5  0.2174  -42.7  0.8045   60.2
!
!  f       NFmin   Gammaopt  rn/50
! GHz       dB    MAG  ANG    -
 0.450      2.31  0.66 -172   0.07
 0.900      2.37  0.69 -166   0.09
 1.900      2.46  0.70 -149   0.19
 2.400      2.55  0.70 -139   0.27
!
! (c) 2015  Infineon Technologies AG, Munich
