! Infineon Technologies  Discrete & RF Semiconductors
! BFP420
! VCE =  3.5 V,  IC =  30 mA
! Common Emitter S-Parameters:                            Jan 2016
# GHz  S  MA  R  50
!  f         S11            S21            S12            S22
! GHz     MAG   ANG      MAG   ANG      MAG   ANG      MAG   ANG
 0.010  0.3994   -3.9  49.798  178.9  0.0011   80.4  0.9138    2.9
 0.015  0.4008   -5.1  49.155  177.4  0.0013   81.8  0.9220    0.5
 0.020  0.4023   -6.2  48.548  175.8  0.0015   82.8  0.9318   -1.9
 0.025  0.4016   -7.9  48.414  174.9  0.0018   81.5  0.9320   -2.7
 0.030  0.4013   -9.7  48.293  174.0  0.0022   80.5  0.9324   -3.5
 0.035  0.4014  -11.4  48.183  173.1  0.0025   79.9  0.9330   -4.3
 0.040  0.4018  -13.1  48.087  172.1  0.0028   79.3  0.9337   -5.1
 0.045  0.4026  -14.9  48.002  171.2  0.0032   78.9  0.9347   -5.9
 0.050  0.4038  -16.6  47.930  170.3  0.0035   78.6  0.9358   -6.7
 0.055  0.4022  -18.3  47.738  169.4  0.0038   78.3  0.9329   -7.5
 0.060  0.4009  -20.0  47.558  168.5  0.0041   78.1  0.9302   -8.2
 0.065  0.3999  -21.7  47.389  167.6  0.0044   77.9  0.9276   -9.0
 0.070  0.3993  -23.4  47.232  166.7  0.0047   77.8  0.9252   -9.7
 0.075  0.3991  -25.1  47.087  165.8  0.0050   77.6  0.9230  -10.5
 0.080  0.3993  -26.9  46.953  164.9  0.0053   77.5  0.9210  -11.3
 0.085  0.3998  -28.6  46.832  164.0  0.0056   77.4  0.9191  -12.1
 0.090  0.4006  -30.3  46.723  163.1  0.0059   77.3  0.9173  -12.8
 0.095  0.4018  -32.0  46.626  162.1  0.0062   77.2  0.9158  -13.6
 0.100  0.4034  -33.7  46.541  161.2  0.0065   77.1  0.9144  -14.4
 0.105  0.4018  -35.2  46.264  160.4  0.0068   76.6  0.9100  -15.1
 0.110  0.4005  -36.7  45.996  159.6  0.0070   76.1  0.9057  -15.7
 0.115  0.3994  -38.2  45.738  158.8  0.0073   75.6  0.9015  -16.4
 0.120  0.3987  -39.7  45.489  157.9  0.0076   75.2  0.8975  -17.1
 0.125  0.3982  -41.3  45.250  157.1  0.0078   74.8  0.8936  -17.8
 0.130  0.3980  -42.8  45.020  156.3  0.0081   74.4  0.8898  -18.5
 0.135  0.3981  -44.3  44.800  155.4  0.0084   74.0  0.8861  -19.2
 0.140  0.3984  -45.9  44.591  154.5  0.0087   73.7  0.8826  -19.9
 0.145  0.3991  -47.4  44.391  153.7  0.0089   73.4  0.8792  -20.6
 0.150  0.4000  -48.9  44.202  152.8  0.0092   73.1  0.8760  -21.3
 0.155  0.3989  -50.3  43.901  152.1  0.0094   72.7  0.8709  -21.9
 0.160  0.3979  -51.7  43.607  151.4  0.0097   72.2  0.8658  -22.5
 0.165  0.3973  -53.1  43.320  150.6  0.0099   71.8  0.8609  -23.1
 0.170  0.3968  -54.4  43.040  149.9  0.0102   71.5  0.8560  -23.7
 0.175  0.3966  -55.8  42.768  149.1  0.0104   71.1  0.8513  -24.3
 0.180  0.3966  -57.2  42.503  148.4  0.0106   70.7  0.8466  -24.9
 0.185  0.3969  -58.6  42.246  147.6  0.0109   70.4  0.8421  -25.5
 0.190  0.3974  -60.0  41.997  146.8  0.0111   70.1  0.8376  -26.1
 0.195  0.3981  -61.4  41.755  146.0  0.0114   69.8  0.8333  -26.8
 0.200  0.3991  -62.8  41.522  145.2  0.0116   69.5  0.8290  -27.4
 0.220  0.3952  -67.8  40.275  142.6  0.0125   68.3  0.8083  -29.4
 0.240  0.3944  -72.9  39.119  139.8  0.0134   67.3  0.7886  -31.6
 0.260  0.3938  -77.7  38.007  137.2  0.0142   66.3  0.7688  -33.6
 0.280  0.3927  -82.1  36.911  134.8  0.0149   65.3  0.7486  -35.4
 0.300  0.3940  -86.5  35.881  132.3  0.0157   64.5  0.7292  -37.3
 0.320  0.3922  -90.4  34.794  130.3  0.0164   63.8  0.7100  -38.8
 0.340  0.3923  -94.3  33.751  128.2  0.0171   63.2  0.6913  -40.5
 0.360  0.3921  -98.0  32.746  126.2  0.0177   62.6  0.6734  -41.9
 0.380  0.3913 -101.3  31.770  124.3  0.0184   62.0  0.6562  -43.2
 0.400  0.3918 -104.7  30.830  122.3  0.0190   61.4  0.6393  -44.6
 0.420  0.3910 -107.8  29.925  120.7  0.0196   61.0  0.6233  -45.7
 0.440  0.3912 -110.9  29.045  119.1  0.0201   60.6  0.6075  -46.9
 0.450  0.3918 -112.4  28.614  118.2  0.0204   60.4  0.5997  -47.5
 0.460  0.3915 -113.8  28.205  117.5  0.0207   60.2  0.5924  -48.0
 0.480  0.3914 -116.5  27.402  116.0  0.0212   59.9  0.5781  -49.1
 0.500  0.3923 -119.2  26.618  114.4  0.0217   59.6  0.5639  -50.2
 0.520  0.3914 -121.5  25.912  113.2  0.0222   59.4  0.5516  -51.0
 0.540  0.3911 -123.7  25.218  112.0  0.0227   59.2  0.5393  -51.8
 0.560  0.3914 -126.0  24.536  110.7  0.0231   59.0  0.5272  -52.7
 0.580  0.3923 -128.3  23.867  109.3  0.0236   58.9  0.5153  -53.6
 0.600  0.3938 -130.5  23.212  107.9  0.0241   58.7  0.5034  -54.5
 0.620  0.3936 -132.3  22.647  107.0  0.0246   58.6  0.4934  -55.2
 0.640  0.3938 -134.2  22.089  106.0  0.0251   58.5  0.4835  -55.9
 0.660  0.3944 -136.0  21.538  104.9  0.0255   58.5  0.4737  -56.6
 0.680  0.3955 -137.9  20.994  103.8  0.0260   58.4  0.4639  -57.3
 0.700  0.3969 -139.7  20.458  102.7  0.0265   58.3  0.4542  -58.1
 0.720  0.3966 -141.2  19.997  101.9  0.0270   58.3  0.4461  -58.7
 0.740  0.3966 -142.8  19.540  101.0  0.0274   58.3  0.4380  -59.2
 0.760  0.3968 -144.3  19.088  100.1  0.0279   58.2  0.4300  -59.8
 0.780  0.3974 -145.9  18.641   99.1  0.0283   58.2  0.4220  -60.5
 0.800  0.3982 -147.4  18.200   98.1  0.0288   58.2  0.4141  -61.1
 0.820  0.3986 -148.7  17.826   97.4  0.0293   58.2  0.4073  -61.6
 0.840  0.3992 -150.0  17.456   96.6  0.0297   58.1  0.4006  -62.2
 0.860  0.3999 -151.3  17.089   95.8  0.0302   58.1  0.3939  -62.7
 0.880  0.4009 -152.5  16.725   95.0  0.0306   58.0  0.3872  -63.3
 0.900  0.4021 -153.8  16.365   94.1  0.0311   58.0  0.3806  -63.9
 0.920  0.4025 -155.0  16.052   93.5  0.0316   58.0  0.3747  -64.4
 0.940  0.4032 -156.1  15.741   92.8  0.0320   58.0  0.3689  -64.9
 0.960  0.4039 -157.3  15.433   92.1  0.0325   58.0  0.3631  -65.5
 0.980  0.4049 -158.4  15.127   91.4  0.0329   58.0  0.3573  -66.0
 1.000  0.4060 -159.6  14.823   90.6  0.0334   58.0  0.3516  -66.6
 1.020  0.4064 -160.6  14.559   90.0  0.0339   58.0  0.3467  -67.1
 1.040  0.4069 -161.5  14.297   89.4  0.0344   58.0  0.3418  -67.5
 1.060  0.4076 -162.5  14.036   88.8  0.0348   58.0  0.3370  -68.0
 1.080  0.4083 -163.4  13.777   88.1  0.0353   58.0  0.3322  -68.5
 1.100  0.4092 -164.4  13.520   87.4  0.0358   58.0  0.3274  -69.0
 1.120  0.4099 -165.3  13.296   86.9  0.0363   58.0  0.3229  -69.5
 1.140  0.4106 -166.2  13.072   86.3  0.0368   57.9  0.3184  -70.0
 1.160  0.4115 -167.1  12.851   85.7  0.0372   57.9  0.3140  -70.6
 1.180  0.4124 -168.0  12.630   85.1  0.0377   57.8  0.3096  -71.1
 1.200  0.4135 -168.9  12.411   84.5  0.0382   57.8  0.3052  -71.7
 1.220  0.4139 -169.7  12.218   84.0  0.0387   57.8  0.3014  -72.1
 1.240  0.4144 -170.5  12.025   83.5  0.0392   57.7  0.2976  -72.6
 1.260  0.4150 -171.3  11.834   82.9  0.0397   57.7  0.2939  -73.0
 1.280  0.4157 -172.1  11.644   82.4  0.0402   57.6  0.2901  -73.5
 1.300  0.4164 -172.9  11.455   81.8  0.0407   57.6  0.2864  -74.0
 1.320  0.4171 -173.6  11.288   81.3  0.0412   57.6  0.2830  -74.5
 1.340  0.4180 -174.4  11.121   80.8  0.0417   57.5  0.2795  -75.0
 1.360  0.4188 -175.1  10.956   80.3  0.0421   57.5  0.2761  -75.5
 1.380  0.4198 -175.9  10.792   79.8  0.0426   57.4  0.2728  -76.1
 1.400  0.4208 -176.6  10.628   79.2  0.0431   57.4  0.2694  -76.6
 1.420  0.4212 -177.3  10.484   78.8  0.0436   57.3  0.2662  -77.0
 1.440  0.4216 -178.0  10.340   78.3  0.0441   57.2  0.2631  -77.5
 1.460  0.4221 -178.7  10.196   77.9  0.0446   57.2  0.2600  -77.9
 1.480  0.4226 -179.4  10.054   77.4  0.0451   57.1  0.2569  -78.4
 1.500  0.4232  179.9   9.912   76.9  0.0456   57.0  0.2538  -78.9
 1.520  0.4240  179.3   9.783   76.5  0.0461   56.9  0.2510  -79.4
 1.540  0.4248  178.7   9.654   76.0  0.0466   56.8  0.2483  -79.9
 1.560  0.4256  178.1   9.526   75.6  0.0470   56.8  0.2456  -80.4
 1.580  0.4265  177.5   9.398   75.1  0.0475   56.7  0.2429  -80.9
 1.600  0.4275  176.9   9.271   74.6  0.0480   56.6  0.2402  -81.4
 1.620  0.4281  176.2   9.158   74.2  0.0485   56.5  0.2376  -81.9
 1.640  0.4287  175.6   9.045   73.8  0.0490   56.4  0.2349  -82.4
 1.660  0.4294  174.9   8.932   73.4  0.0495   56.3  0.2323  -82.9
 1.680  0.4301  174.3   8.820   72.9  0.0500   56.2  0.2298  -83.4
 1.700  0.4309  173.6   8.709   72.5  0.0505   56.1  0.2272  -83.9
 1.720  0.4312  173.1   8.606   72.1  0.0510   56.0  0.2249  -84.4
 1.740  0.4315  172.6   8.503   71.7  0.0515   55.9  0.2226  -84.8
 1.760  0.4318  172.0   8.400   71.3  0.0520   55.8  0.2203  -85.3
 1.780  0.4322  171.5   8.298   70.8  0.0525   55.7  0.2180  -85.8
 1.800  0.4326  171.0   8.197   70.4  0.0530   55.6  0.2157  -86.3
 1.820  0.4335  170.4   8.105   70.0  0.0535   55.5  0.2134  -86.9
 1.840  0.4345  169.8   8.013   69.7  0.0540   55.4  0.2111  -87.5
 1.860  0.4355  169.3   7.922   69.3  0.0545   55.2  0.2088  -88.1
 1.880  0.4365  168.7   7.831   68.9  0.0550   55.1  0.2065  -88.7
 1.900  0.4376  168.1   7.740   68.5  0.0555   55.0  0.2043  -89.3
 1.920  0.4377  167.6   7.659   68.1  0.0560   54.9  0.2023  -89.7
 1.940  0.4379  167.1   7.577   67.8  0.0565   54.8  0.2003  -90.2
 1.960  0.4381  166.6   7.497   67.4  0.0570   54.6  0.1983  -90.6
 1.980  0.4383  166.1   7.416   67.0  0.0575   54.5  0.1963  -91.0
 2.000  0.4386  165.6   7.336   66.6  0.0580   54.4  0.1943  -91.5
 2.020  0.4391  165.1   7.264   66.3  0.0585   54.2  0.1923  -92.0
 2.040  0.4396  164.5   7.193   65.9  0.0590   54.1  0.1903  -92.6
 2.060  0.4402  164.0   7.122   65.5  0.0595   54.0  0.1884  -93.2
 2.080  0.4407  163.5   7.051   65.2  0.0600   53.8  0.1865  -93.8
 2.100  0.4414  162.9   6.981   64.8  0.0605   53.7  0.1845  -94.3
 2.120  0.4420  162.4   6.910   64.4  0.0610   53.5  0.1827  -95.0
 2.140  0.4428  161.9   6.841   64.0  0.0615   53.4  0.1808  -95.6
 2.160  0.4435  161.3   6.771   63.6  0.0620   53.3  0.1789  -96.2
 2.180  0.4443  160.8   6.702   63.2  0.0625   53.1  0.1771  -96.8
 2.200  0.4451  160.3   6.633   62.8  0.0630   53.0  0.1753  -97.5
 2.220  0.4457  159.8   6.573   62.5  0.0635   52.8  0.1735  -98.1
 2.240  0.4464  159.3   6.513   62.2  0.0640   52.7  0.1718  -98.8
 2.260  0.4471  158.8   6.453   61.8  0.0644   52.5  0.1700  -99.5
 2.280  0.4478  158.4   6.394   61.5  0.0649   52.3  0.1683 -100.1
 2.300  0.4486  157.9   6.335   61.1  0.0654   52.2  0.1666 -100.8
 2.320  0.4493  157.4   6.276   60.8  0.0659   52.0  0.1650 -101.5
 2.340  0.4502  156.9   6.217   60.4  0.0664   51.9  0.1633 -102.3
 2.360  0.4510  156.4   6.158   60.1  0.0668   51.7  0.1617 -103.0
 2.380  0.4519  156.0   6.100   59.7  0.0673   51.5  0.1602 -103.7
 2.400  0.4528  155.5   6.042   59.3  0.0678   51.4  0.1586 -104.5
 2.420  0.4538  155.0   5.991   59.0  0.0683   51.2  0.1570 -105.2
 2.440  0.4548  154.6   5.941   58.6  0.0688   51.1  0.1555 -106.0
 2.460  0.4559  154.1   5.891   58.3  0.0692   50.9  0.1540 -106.7
 2.480  0.4570  153.7   5.841   58.0  0.0697   50.7  0.1525 -107.5
 2.500  0.4581  153.2   5.791   57.6  0.0702   50.6  0.1511 -108.3
 2.520  0.4592  152.8   5.741   57.3  0.0707   50.4  0.1497 -109.1
 2.540  0.4604  152.3   5.692   56.9  0.0712   50.3  0.1483 -109.9
 2.560  0.4616  151.9   5.643   56.5  0.0716   50.1  0.1469 -110.7
 2.580  0.4628  151.4   5.594   56.2  0.0721   50.0  0.1456 -111.5
 2.600  0.4641  151.0   5.545   55.8  0.0726   49.8  0.1443 -112.4
 2.620  0.4649  150.6   5.501   55.5  0.0731   49.6  0.1430 -113.2
 2.640  0.4657  150.1   5.458   55.2  0.0736   49.5  0.1417 -114.0
 2.660  0.4665  149.7   5.414   54.9  0.0740   49.3  0.1405 -114.8
 2.680  0.4674  149.3   5.371   54.6  0.0745   49.1  0.1393 -115.6
 2.700  0.4683  148.9   5.328   54.3  0.0750   49.0  0.1381 -116.5
 2.720  0.4692  148.5   5.285   53.9  0.0755   48.8  0.1370 -117.3
 2.740  0.4701  148.0   5.242   53.6  0.0760   48.7  0.1359 -118.2
 2.760  0.4711  147.6   5.200   53.3  0.0764   48.5  0.1348 -119.1
 2.780  0.4721  147.2   5.157   52.9  0.0769   48.4  0.1337 -120.0
 2.800  0.4731  146.8   5.115   52.6  0.0774   48.2  0.1327 -120.9
 2.820  0.4741  146.4   5.078   52.3  0.0779   48.0  0.1317 -121.8
 2.840  0.4752  146.0   5.040   52.0  0.0783   47.8  0.1306 -122.6
 2.860  0.4763  145.6   5.003   51.7  0.0788   47.7  0.1297 -123.5
 2.880  0.4774  145.2   4.966   51.4  0.0793   47.5  0.1287 -124.4
 2.900  0.4785  144.8   4.930   51.1  0.0797   47.3  0.1278 -125.3
 2.920  0.4796  144.4   4.893   50.7  0.0802   47.2  0.1269 -126.3
 2.940  0.4808  144.1   4.856   50.4  0.0807   47.0  0.1260 -127.2
 2.960  0.4820  143.7   4.820   50.1  0.0812   46.8  0.1252 -128.2
 2.980  0.4832  143.3   4.784   49.7  0.0816   46.7  0.1244 -129.1
 3.000  0.4844  142.9   4.748   49.4  0.0821   46.5  0.1237 -130.1
 3.100  0.4898  140.9   4.594   48.0  0.0843   45.5  0.1200 -135.1
 3.200  0.4958  139.0   4.442   46.6  0.0866   44.5  0.1174 -140.4
 3.300  0.5023  137.1   4.294   45.0  0.0888   43.6  0.1157 -145.9
 3.400  0.5094  135.2   4.148   43.4  0.0911   42.7  0.1152 -151.5
 3.500  0.5170  133.4   4.007   41.6  0.0934   41.9  0.1157 -157.1
 3.600  0.5222  131.6   3.891   40.3  0.0955   40.9  0.1162 -162.1
 3.700  0.5278  129.9   3.777   38.9  0.0977   39.9  0.1176 -167.1
 3.800  0.5339  128.2   3.665   37.4  0.0999   38.9  0.1199 -171.9
 3.900  0.5405  126.6   3.556   35.8  0.1021   38.0  0.1230 -176.5
 4.000  0.5475  125.0   3.450   34.1  0.1044   37.1  0.1268  179.2
 4.100  0.5516  123.6   3.357   32.8  0.1063   36.0  0.1302  175.4
 4.200  0.5559  122.3   3.266   31.5  0.1083   35.0  0.1340  171.8
 4.300  0.5606  120.9   3.177   30.0  0.1103   34.1  0.1384  168.5
 4.400  0.5656  119.6   3.091   28.5  0.1123   33.1  0.1433  165.3
 4.500  0.5709  118.3   3.006   26.9  0.1144   32.2  0.1485  162.4
 4.600  0.5733  117.2   2.933   25.7  0.1162   31.2  0.1517  159.8
 4.700  0.5760  116.1   2.861   24.5  0.1180   30.3  0.1553  157.3
 4.800  0.5788  115.0   2.791   23.3  0.1199   29.4  0.1591  154.9
 4.900  0.5819  114.0   2.722   21.9  0.1218   28.5  0.1632  152.6
 5.000  0.5851  112.9   2.655   20.5  0.1237   27.6  0.1676  150.4
 5.100  0.5878  111.7   2.598   19.4  0.1254   26.7  0.1714  148.2
 5.200  0.5908  110.6   2.543   18.2  0.1271   25.8  0.1754  146.2
 5.300  0.5939  109.4   2.488   16.9  0.1288   24.9  0.1796  144.2
 5.400  0.5974  108.3   2.435   15.6  0.1306   24.0  0.1840  142.3
 5.500  0.6010  107.2   2.383   14.3  0.1324   23.2  0.1886  140.5
 5.600  0.6048  106.0   2.338   13.1  0.1341   22.3  0.1929  138.5
 5.700  0.6089  104.9   2.293   11.9  0.1358   21.4  0.1974  136.6
 5.800  0.6132  103.7   2.250   10.7  0.1375   20.5  0.2021  134.8
 5.900  0.6178  102.6   2.208    9.4  0.1393   19.6  0.2069  133.1
 6.000  0.6226  101.5   2.167    8.0  0.1411   18.8  0.2120  131.5
 6.100  0.6266  100.5   2.129    6.8  0.1428   17.8  0.2160  129.8
 6.200  0.6309   99.5   2.091    5.5  0.1445   16.8  0.2202  128.2
 6.300  0.6353   98.5   2.055    4.2  0.1463   15.8  0.2246  126.6
 6.400  0.6399   97.5   2.020    2.9  0.1481   14.8  0.2292  125.1
 6.500  0.6447   96.5   1.986    1.5  0.1500   13.9  0.2339  123.6
 6.600  0.6477   95.4   1.954    0.3  0.1518   12.9  0.2368  121.9
 6.800  0.6544   93.3   1.894   -2.3  0.1555   11.0  0.2432  118.7
 7.000  0.6619   91.3   1.837   -5.1  0.1593    9.1  0.2504  115.6
 7.200  0.6657   89.1   1.780   -7.7  0.1626    6.8  0.2587  112.7
 7.400  0.6705   86.9   1.727  -10.5  0.1661    4.6  0.2677  110.0
 7.600  0.6755   84.5   1.672  -13.2  0.1688    2.3  0.2778  107.2
 7.800  0.6811   81.9   1.614  -16.0  0.1708   -0.2  0.2891  104.4
 8.000  0.6880   79.4   1.561  -19.0  0.1732   -2.6  0.3010  101.8
 8.200  0.6949   76.7   1.501  -21.4  0.1733   -4.8  0.3149   98.5
 8.400  0.7033   74.0   1.443  -24.0  0.1737   -6.9  0.3297   95.5
 8.600  0.7147   71.5   1.391  -26.4  0.1740   -8.8  0.3471   92.6
 8.800  0.7289   69.1   1.343  -28.6  0.1741  -10.4  0.3671   89.9
 9.000  0.7443   66.8   1.297  -30.9  0.1743  -12.0  0.3879   87.5
 9.200  0.7652   64.9   1.260  -32.9  0.1749  -13.4  0.4114   85.6
 9.400  0.7869   63.2   1.224  -35.0  0.1755  -14.9  0.4353   84.0
 9.600  0.8063   61.6   1.184  -37.1  0.1762  -16.4  0.4575   82.5
 9.800  0.8231   60.3   1.139  -39.2  0.1770  -17.9  0.4780   81.1
10.000  0.8403   59.1   1.095  -41.4  0.1779  -19.4  0.4987   79.8
!
!  f       NFmin   Gammaopt  rn/50
! GHz       dB    MAG  ANG    -
 0.900      1.51  0.26 -155   0.13
 1.800      1.78  0.33 -142   0.14
 2.400      1.96  0.30 -136   0.18
 3.000      1.98  0.38 -127   0.20
 4.000      2.11  0.47 -111   0.31
 5.000      2.57  0.53  -94   0.51
 6.000      3.00  0.57  -82   0.74
!
! (c) 2016  Infineon Technologies AG, Munich
