! Infineon Technologies  Discrete & RF Semiconductors
! BFP420
! VCE =  4.5 V,  IC =  35 mA
! Common Emitter S-Parameters:                            Jan 2016
# GHz  S  MA  R  50
!  f         S11            S21            S12            S22
! GHz     MAG   ANG      MAG   ANG      MAG   ANG      MAG   ANG
 0.010  0.3069   -2.7  50.903  178.7  0.0015   69.0  0.8544    3.4
 0.015  0.3146   -4.2  50.146  177.1  0.0017   57.9  0.8661    1.0
 0.020  0.3225   -5.7  49.429  175.5  0.0019   49.2  0.8792   -1.3
 0.025  0.3223   -7.6  49.269  174.6  0.0021   52.8  0.8799   -2.1
 0.030  0.3225   -9.6  49.121  173.7  0.0023   55.8  0.8807   -2.9
 0.035  0.3230  -11.5  48.986  172.8  0.0026   58.2  0.8817   -3.7
 0.040  0.3239  -13.4  48.862  171.9  0.0028   60.2  0.8829   -4.4
 0.045  0.3252  -15.3  48.750  171.0  0.0031   61.9  0.8842   -5.2
 0.050  0.3268  -17.2  48.651  170.1  0.0033   63.3  0.8857   -6.0
 0.055  0.3259  -19.0  48.455  169.2  0.0036   63.9  0.8833   -6.7
 0.060  0.3254  -20.9  48.271  168.4  0.0038   64.4  0.8809   -7.5
 0.065  0.3252  -22.8  48.098  167.5  0.0041   64.8  0.8788   -8.2
 0.070  0.3253  -24.6  47.936  166.6  0.0043   65.1  0.8768   -9.0
 0.075  0.3258  -26.5  47.786  165.7  0.0046   65.5  0.8749   -9.7
 0.080  0.3266  -28.3  47.647  164.8  0.0049   65.8  0.8732  -10.5
 0.085  0.3278  -30.2  47.520  163.9  0.0051   66.0  0.8717  -11.2
 0.090  0.3293  -32.0  47.404  163.0  0.0054   66.3  0.8703  -12.0
 0.095  0.3311  -33.8  47.301  162.1  0.0056   66.5  0.8690  -12.7
 0.100  0.3333  -35.6  47.209  161.2  0.0059   66.7  0.8679  -13.5
 0.105  0.3323  -37.3  46.931  160.4  0.0061   66.7  0.8639  -14.1
 0.110  0.3316  -38.9  46.662  159.6  0.0064   66.6  0.8600  -14.8
 0.115  0.3311  -40.6  46.403  158.8  0.0066   66.6  0.8562  -15.5
 0.120  0.3310  -42.3  46.152  158.0  0.0069   66.6  0.8525  -16.1
 0.125  0.3311  -43.9  45.911  157.2  0.0071   66.6  0.8489  -16.8
 0.130  0.3315  -45.6  45.680  156.3  0.0074   66.6  0.8454  -17.5
 0.135  0.3322  -47.3  45.459  155.5  0.0076   66.5  0.8421  -18.1
 0.140  0.3331  -48.9  45.247  154.6  0.0079   66.5  0.8389  -18.8
 0.145  0.3344  -50.6  45.046  153.8  0.0081   66.5  0.8358  -19.5
 0.150  0.3359  -52.2  44.855  152.9  0.0084   66.5  0.8328  -20.2
 0.155  0.3355  -53.7  44.553  152.2  0.0086   66.4  0.8281  -20.8
 0.160  0.3354  -55.1  44.258  151.5  0.0089   66.2  0.8235  -21.3
 0.165  0.3354  -56.6  43.969  150.7  0.0091   66.1  0.8189  -21.9
 0.170  0.3357  -58.0  43.688  150.0  0.0093   66.0  0.8145  -22.4
 0.175  0.3362  -59.5  43.414  149.3  0.0095   65.9  0.8101  -23.0
 0.180  0.3369  -60.9  43.148  148.5  0.0098   65.8  0.8058  -23.6
 0.185  0.3378  -62.3  42.889  147.7  0.0100   65.7  0.8016  -24.2
 0.190  0.3389  -63.8  42.638  147.0  0.0102   65.6  0.7975  -24.8
 0.195  0.3403  -65.2  42.395  146.2  0.0105   65.5  0.7934  -25.4
 0.200  0.3418  -66.6  42.160  145.4  0.0107   65.4  0.7895  -26.0
 0.220  0.3402  -71.8  40.906  142.8  0.0115   64.8  0.7705  -27.9
 0.240  0.3414  -77.1  39.745  140.0  0.0122   64.2  0.7524  -30.0
 0.260  0.3429  -82.0  38.624  137.4  0.0130   63.7  0.7341  -31.8
 0.280  0.3442  -86.6  37.516  135.1  0.0137   63.2  0.7154  -33.5
 0.300  0.3476  -91.1  36.473  132.6  0.0144   62.7  0.6974  -35.3
 0.320  0.3482  -95.0  35.379  130.6  0.0150   62.2  0.6797  -36.7
 0.340  0.3504  -99.0  34.332  128.4  0.0156   61.7  0.6624  -38.2
 0.360  0.3521 -102.6  33.320  126.4  0.0162   61.3  0.6458  -39.6
 0.380  0.3531 -105.9  32.330  124.6  0.0168   60.9  0.6298  -40.8
 0.400  0.3552 -109.2  31.376  122.6  0.0174   60.6  0.6141  -42.1
 0.420  0.3561 -112.2  30.463  121.0  0.0180   60.3  0.5993  -43.1
 0.440  0.3580 -115.2  29.575  119.4  0.0185   60.1  0.5847  -44.2
 0.450  0.3593 -116.7  29.140  118.5  0.0188   60.0  0.5775  -44.8
 0.460  0.3595 -118.0  28.724  117.8  0.0190   60.0  0.5708  -45.3
 0.480  0.3604 -120.7  27.906  116.3  0.0195   59.9  0.5575  -46.2
 0.500  0.3622 -123.4  27.109  114.7  0.0200   59.8  0.5444  -47.2
 0.520  0.3624 -125.6  26.397  113.6  0.0205   59.7  0.5330  -47.9
 0.540  0.3632 -127.8  25.695  112.3  0.0210   59.6  0.5217  -48.7
 0.560  0.3645 -129.9  25.006  111.1  0.0214   59.5  0.5105  -49.4
 0.580  0.3663 -132.1  24.330  109.7  0.0219   59.4  0.4993  -50.3
 0.600  0.3686 -134.2  23.668  108.3  0.0224   59.3  0.4883  -51.1
 0.620  0.3690 -136.0  23.094  107.3  0.0229   59.3  0.4791  -51.7
 0.640  0.3699 -137.8  22.527  106.3  0.0234   59.3  0.4700  -52.3
 0.660  0.3710 -139.6  21.967  105.3  0.0238   59.3  0.4609  -52.9
 0.680  0.3726 -141.4  21.415  104.2  0.0243   59.3  0.4519  -53.6
 0.700  0.3745 -143.2  20.872  103.0  0.0248   59.3  0.4429  -54.3
 0.720  0.3750 -144.7  20.405  102.2  0.0253   59.3  0.4353  -54.8
 0.740  0.3758 -146.1  19.942  101.3  0.0257   59.3  0.4278  -55.3
 0.760  0.3768 -147.5  19.484  100.4  0.0262   59.4  0.4203  -55.9
 0.780  0.3780 -149.0  19.031   99.4  0.0266   59.4  0.4129  -56.4
 0.800  0.3795 -150.4  18.584   98.4  0.0271   59.4  0.4055  -57.0
 0.820  0.3801 -151.7  18.203   97.7  0.0276   59.4  0.3992  -57.5
 0.840  0.3809 -152.9  17.825   96.9  0.0280   59.4  0.3930  -58.0
 0.860  0.3819 -154.1  17.450   96.1  0.0285   59.4  0.3868  -58.5
 0.880  0.3831 -155.4  17.079   95.3  0.0289   59.4  0.3806  -59.0
 0.900  0.3844 -156.6  16.711   94.4  0.0294   59.4  0.3744  -59.5
 0.920  0.3853 -157.7  16.393   93.8  0.0299   59.4  0.3689  -60.0
 0.940  0.3863 -158.8  16.076   93.1  0.0304   59.4  0.3634  -60.4
 0.960  0.3875 -159.9  15.762   92.4  0.0308   59.5  0.3579  -60.9
 0.980  0.3888 -161.0  15.451   91.7  0.0313   59.5  0.3525  -61.4
 1.000  0.3902 -162.1  15.142   90.9  0.0318   59.5  0.3471  -61.9
 1.020  0.3909 -163.0  14.874   90.3  0.0323   59.5  0.3425  -62.3
 1.040  0.3916 -164.0  14.607   89.7  0.0328   59.5  0.3380  -62.7
 1.060  0.3925 -164.9  14.342   89.1  0.0332   59.5  0.3335  -63.1
 1.080  0.3934 -165.8  14.079   88.5  0.0337   59.5  0.3290  -63.6
 1.100  0.3945 -166.7  13.817   87.8  0.0342   59.5  0.3245  -64.0
 1.120  0.3954 -167.6  13.588   87.2  0.0347   59.5  0.3202  -64.5
 1.140  0.3964 -168.4  13.359   86.7  0.0351   59.5  0.3160  -64.9
 1.160  0.3974 -169.3  13.133   86.1  0.0356   59.4  0.3118  -65.4
 1.180  0.3986 -170.1  12.908   85.4  0.0360   59.4  0.3076  -65.9
 1.200  0.3998 -171.0  12.684   84.8  0.0365   59.4  0.3034  -66.4
 1.220  0.4005 -171.8  12.487   84.3  0.0370   59.4  0.2998  -66.8
 1.240  0.4013 -172.5  12.292   83.8  0.0375   59.3  0.2962  -67.2
 1.260  0.4022 -173.3  12.098   83.2  0.0380   59.3  0.2926  -67.6
 1.280  0.4031 -174.0  11.904   82.7  0.0385   59.2  0.2891  -68.0
 1.300  0.4041 -174.8  11.712   82.1  0.0390   59.2  0.2855  -68.4
 1.320  0.4049 -175.5  11.542   81.6  0.0395   59.1  0.2822  -68.8
 1.340  0.4058 -176.2  11.372   81.1  0.0400   59.1  0.2789  -69.3
 1.360  0.4067 -177.0  11.203   80.6  0.0405   59.0  0.2757  -69.7
 1.380  0.4077 -177.7  11.035   80.1  0.0410   59.0  0.2724  -70.2
 1.400  0.4088 -178.4  10.868   79.6  0.0415   58.9  0.2692  -70.7
 1.420  0.4092 -179.1  10.721   79.2  0.0420   58.8  0.2662  -71.1
 1.440  0.4097 -179.7  10.574   78.7  0.0425   58.8  0.2632  -71.5
 1.460  0.4103  179.6  10.429   78.3  0.0429   58.7  0.2602  -71.9
 1.480  0.4109  179.0  10.283   77.8  0.0434   58.7  0.2572  -72.4
 1.500  0.4115  178.3  10.139   77.3  0.0439   58.6  0.2542  -72.8
 1.520  0.4123  177.7  10.007   76.9  0.0444   58.5  0.2515  -73.2
 1.540  0.4131  177.1   9.876   76.4  0.0449   58.4  0.2489  -73.7
 1.560  0.4140  176.6   9.745   76.0  0.0454   58.4  0.2462  -74.1
 1.580  0.4149  176.0   9.615   75.5  0.0459   58.3  0.2436  -74.5
 1.600  0.4159  175.4   9.486   75.0  0.0464   58.2  0.2410  -75.0
 1.620  0.4165  174.8   9.370   74.6  0.0469   58.1  0.2384  -75.4
 1.640  0.4172  174.2   9.255   74.2  0.0474   58.0  0.2358  -75.9
 1.660  0.4180  173.5   9.141   73.8  0.0478   57.9  0.2333  -76.3
 1.680  0.4188  172.9   9.027   73.3  0.0483   57.8  0.2307  -76.7
 1.700  0.4196  172.3   8.913   72.9  0.0488   57.7  0.2282  -77.2
 1.720  0.4201  171.8   8.807   72.5  0.0493   57.6  0.2260  -77.6
 1.740  0.4206  171.3   8.702   72.1  0.0498   57.5  0.2237  -78.0
 1.760  0.4212  170.8   8.597   71.7  0.0503   57.3  0.2215  -78.4
 1.780  0.4218  170.3   8.492   71.2  0.0508   57.2  0.2193  -78.8
 1.800  0.4224  169.8   8.388   70.8  0.0513   57.1  0.2171  -79.2
 1.820  0.4232  169.2   8.294   70.4  0.0518   57.0  0.2148  -79.7
 1.840  0.4240  168.7   8.200   70.0  0.0523   56.9  0.2124  -80.2
 1.860  0.4249  168.1   8.107   69.6  0.0529   56.7  0.2101  -80.8
 1.880  0.4258  167.6   8.014   69.2  0.0534   56.6  0.2079  -81.3
 1.900  0.4268  167.0   7.921   68.8  0.0539   56.5  0.2056  -81.9
 1.920  0.4271  166.5   7.838   68.4  0.0544   56.4  0.2036  -82.3
 1.940  0.4274  166.0   7.756   68.1  0.0549   56.3  0.2016  -82.6
 1.960  0.4278  165.5   7.673   67.7  0.0554   56.1  0.1996  -83.0
 1.980  0.4282  165.0   7.592   67.3  0.0559   56.0  0.1977  -83.4
 2.000  0.4286  164.5   7.510   66.9  0.0564   55.9  0.1957  -83.8
 2.020  0.4291  164.0   7.437   66.6  0.0569   55.7  0.1937  -84.3
 2.040  0.4297  163.5   7.364   66.2  0.0574   55.6  0.1917  -84.8
 2.060  0.4302  163.0   7.291   65.9  0.0579   55.5  0.1897  -85.3
 2.080  0.4309  162.4   7.218   65.5  0.0584   55.3  0.1878  -85.8
 2.100  0.4315  161.9   7.146   65.1  0.0588   55.2  0.1858  -86.3
 2.120  0.4322  161.4   7.074   64.8  0.0593   55.0  0.1839  -86.8
 2.140  0.4329  160.9   7.003   64.4  0.0598   54.9  0.1819  -87.4
 2.160  0.4337  160.4   6.932   64.0  0.0603   54.8  0.1800  -87.9
 2.180  0.4345  159.9   6.861   63.6  0.0608   54.6  0.1782  -88.5
 2.200  0.4353  159.4   6.790   63.2  0.0613   54.5  0.1763  -89.1
 2.220  0.4360  158.9   6.729   62.9  0.0618   54.3  0.1744  -89.7
 2.240  0.4368  158.4   6.668   62.6  0.0623   54.2  0.1726  -90.2
 2.260  0.4375  157.9   6.607   62.2  0.0627   54.0  0.1708  -90.8
 2.280  0.4383  157.5   6.546   61.9  0.0632   53.8  0.1690  -91.4
 2.300  0.4392  157.0   6.486   61.5  0.0637   53.7  0.1672  -92.0
 2.320  0.4400  156.5   6.426   61.2  0.0642   53.5  0.1654  -92.6
 2.340  0.4409  156.0   6.366   60.8  0.0647   53.4  0.1636  -93.2
 2.360  0.4419  155.5   6.306   60.5  0.0651   53.2  0.1619  -93.9
 2.380  0.4428  155.1   6.247   60.1  0.0656   53.0  0.1602  -94.5
 2.400  0.4438  154.6   6.188   59.7  0.0661   52.9  0.1585  -95.2
 2.420  0.4448  154.2   6.136   59.4  0.0666   52.7  0.1568  -95.8
 2.440  0.4459  153.7   6.084   59.0  0.0671   52.5  0.1552  -96.5
 2.460  0.4469  153.3   6.032   58.7  0.0675   52.4  0.1536  -97.1
 2.480  0.4480  152.8   5.981   58.4  0.0680   52.2  0.1520  -97.8
 2.500  0.4492  152.4   5.930   58.0  0.0685   52.0  0.1504  -98.5
 2.520  0.4503  151.9   5.879   57.7  0.0690   51.9  0.1488  -99.2
 2.540  0.4515  151.5   5.828   57.3  0.0695   51.7  0.1473  -99.9
 2.560  0.4527  151.1   5.777   56.9  0.0699   51.5  0.1458 -100.7
 2.580  0.4539  150.6   5.727   56.6  0.0704   51.4  0.1443 -101.4
 2.600  0.4552  150.2   5.677   56.2  0.0709   51.2  0.1428 -102.2
 2.620  0.4560  149.8   5.632   55.9  0.0714   51.0  0.1413 -102.9
 2.640  0.4569  149.4   5.588   55.6  0.0719   50.9  0.1399 -103.6
 2.660  0.4578  149.0   5.544   55.3  0.0723   50.7  0.1385 -104.4
 2.680  0.4587  148.5   5.500   55.0  0.0728   50.5  0.1371 -105.1
 2.700  0.4597  148.1   5.456   54.7  0.0733   50.4  0.1357 -105.9
 2.720  0.4606  147.7   5.412   54.3  0.0738   50.2  0.1344 -106.6
 2.740  0.4616  147.3   5.369   54.0  0.0743   50.1  0.1331 -107.4
 2.760  0.4626  146.9   5.325   53.7  0.0747   49.9  0.1318 -108.2
 2.780  0.4636  146.5   5.282   53.3  0.0752   49.8  0.1305 -109.1
 2.800  0.4647  146.1   5.239   53.0  0.0757   49.6  0.1293 -109.9
 2.820  0.4658  145.7   5.201   52.7  0.0762   49.4  0.1280 -110.7
 2.840  0.4668  145.3   5.163   52.4  0.0767   49.2  0.1268 -111.5
 2.860  0.4679  144.9   5.125   52.1  0.0771   49.0  0.1256 -112.3
 2.880  0.4691  144.6   5.087   51.8  0.0776   48.9  0.1244 -113.1
 2.900  0.4702  144.2   5.049   51.5  0.0781   48.7  0.1233 -114.0
 2.920  0.4714  143.8   5.011   51.1  0.0786   48.5  0.1221 -114.9
 2.940  0.4725  143.4   4.974   50.8  0.0791   48.3  0.1210 -115.8
 2.960  0.4737  143.0   4.937   50.5  0.0795   48.1  0.1200 -116.7
 2.980  0.4750  142.7   4.900   50.1  0.0800   48.0  0.1189 -117.6
 3.000  0.4762  142.3   4.863   49.8  0.0805   47.8  0.1179 -118.5
 3.100  0.4817  140.3   4.706   48.4  0.0827   46.8  0.1129 -123.3
 3.200  0.4878  138.4   4.551   47.0  0.0849   45.8  0.1088 -128.6
 3.300  0.4944  136.6   4.399   45.4  0.0872   44.8  0.1056 -134.2
 3.400  0.5015  134.8   4.251   43.8  0.0894   43.9  0.1035 -140.1
 3.500  0.5091  133.0   4.107   42.0  0.0917   43.1  0.1026 -146.2
 3.600  0.5143  131.2   3.989   40.7  0.0938   42.1  0.1019 -151.7
 3.700  0.5201  129.5   3.872   39.3  0.0960   41.1  0.1021 -157.3
 3.800  0.5262  127.8   3.758   37.8  0.0982   40.2  0.1032 -162.8
 3.900  0.5329  126.2   3.647   36.3  0.1004   39.3  0.1053 -168.1
 4.000  0.5399  124.6   3.539   34.6  0.1027   38.4  0.1083 -173.2
 4.100  0.5440  123.2   3.444   33.3  0.1046   37.3  0.1111 -177.6
 4.200  0.5485  121.9   3.351   32.0  0.1066   36.3  0.1144  178.2
 4.300  0.5532  120.6   3.260   30.5  0.1086   35.3  0.1184  174.3
 4.400  0.5582  119.3   3.171   29.0  0.1106   34.3  0.1229  170.6
 4.500  0.5635  118.0   3.085   27.4  0.1127   33.4  0.1278  167.2
 4.600  0.5661  116.9   3.010   26.2  0.1145   32.4  0.1309  164.2
 4.700  0.5690  115.8   2.937   25.0  0.1164   31.5  0.1343  161.4
 4.800  0.5720  114.8   2.865   23.8  0.1183   30.6  0.1381  158.7
 4.900  0.5752  113.7   2.795   22.4  0.1202   29.7  0.1421  156.1
 5.000  0.5786  112.7   2.726   21.0  0.1221   28.8  0.1464  153.7
 5.100  0.5814  111.5   2.668   19.8  0.1238   27.8  0.1501  151.3
 5.200  0.5844  110.4   2.611   18.6  0.1255   26.9  0.1540  148.9
 5.300  0.5876  109.2   2.555   17.4  0.1272   26.0  0.1582  146.8
 5.400  0.5911  108.1   2.501   16.1  0.1290   25.1  0.1626  144.7
 5.500  0.5948  107.0   2.448   14.7  0.1308   24.2  0.1672  142.7
 5.600  0.5986  105.9   2.401   13.6  0.1325   23.3  0.1714  140.6
 5.700  0.6027  104.8   2.356   12.4  0.1342   22.4  0.1759  138.6
 5.800  0.6070  103.7   2.311   11.1  0.1359   21.5  0.1806  136.6
 5.900  0.6115  102.6   2.268    9.8  0.1377   20.6  0.1855  134.8
 6.000  0.6162  101.5   2.226    8.5  0.1395   19.8  0.1905  133.1
 6.100  0.6204  100.5   2.187    7.3  0.1412   18.8  0.1945  131.3
 6.200  0.6247   99.4   2.149    6.0  0.1429   17.8  0.1987  129.5
 6.300  0.6293   98.4   2.112    4.7  0.1447   16.8  0.2031  127.8
 6.400  0.6340   97.4   2.076    3.4  0.1465   15.9  0.2077  126.2
 6.500  0.6390   96.4   2.041    2.0  0.1484   15.0  0.2124  124.7
 6.600  0.6420   95.4   2.008    0.7  0.1502   14.0  0.2153  123.0
 6.800  0.6485   93.3   1.946   -1.9  0.1538   12.0  0.2218  119.6
 7.000  0.6559   91.3   1.888   -4.7  0.1577   10.1  0.2289  116.5
 7.200  0.6602   89.1   1.830   -7.3  0.1610    7.8  0.2374  113.5
 7.400  0.6656   86.9   1.776  -10.0  0.1645    5.6  0.2465  110.7
 7.600  0.6708   84.5   1.719  -12.7  0.1673    3.3  0.2567  107.9
 7.800  0.6763   82.0   1.660  -15.5  0.1694    0.9  0.2681  105.1
 8.000  0.6831   79.5   1.605  -18.5  0.1718   -1.5  0.2802  102.5
 8.200  0.6900   76.8   1.544  -20.9  0.1720   -3.7  0.2945   99.1
 8.400  0.6984   74.1   1.486  -23.5  0.1725   -5.9  0.3098   95.9
 8.600  0.7100   71.6   1.432  -25.9  0.1728   -7.8  0.3276   93.0
 8.800  0.7246   69.2   1.383  -28.1  0.1730   -9.5  0.3479   90.3
 9.000  0.7404   66.9   1.335  -30.4  0.1733  -11.1  0.3690   87.9
 9.200  0.7613   65.0   1.297  -32.4  0.1739  -12.5  0.3928   86.0
 9.400  0.7831   63.3   1.260  -34.6  0.1746  -14.0  0.4169   84.4
 9.600  0.8024   61.7   1.219  -36.7  0.1754  -15.4  0.4394   82.9
 9.800  0.8192   60.4   1.173  -38.8  0.1762  -16.9  0.4601   81.5
10.000  0.8364   59.2   1.128  -41.0  0.1771  -18.4  0.4811   80.3
!
!  f       NFmin   Gammaopt  rn/50
! GHz       dB    MAG  ANG    -
 0.900      1.64  0.30 -155   0.13
 1.800      1.90  0.37 -142   0.15
 2.400      2.10  0.34 -134   0.19
 3.000      2.11  0.40 -126   0.22
 4.000      2.25  0.50 -110   0.35
 5.000      2.73  0.54  -94   0.59
 6.000      3.16  0.59  -82   0.84
!
! (c) 2016  Infineon Technologies AG, Munich
