! Infineon Technologies  Discrete & RF Semiconductors
! BFP405F
! VCE =  1.5 V,  IC =  8.0 mA
! Common Emitter S-Parameters:                            Nov 2015
# GHz  S  MA  R  50
!  f         S11            S21            S12            S22
! GHz     MAG   ANG      MAG   ANG      MAG   ANG      MAG   ANG
 0.030  0.7512   -2.0  19.068  177.6  0.0022  102.7  0.9840   -0.8
 0.035  0.7514   -2.4  19.094  177.4  0.0018   97.4  0.9836   -0.9
 0.040  0.7516   -2.8  19.120  177.2  0.0015   89.6  0.9832   -1.0
 0.045  0.7520   -3.4  19.205  176.6  0.0030   89.9  0.9853   -1.2
 0.050  0.7524   -3.9  19.291  176.1  0.0045   90.0  0.9875   -1.4
 0.055  0.7497   -4.1  19.201  175.9  0.0025   42.7  0.9828   -1.5
 0.060  0.7470   -4.4  19.111  175.6  0.0038  -17.7  0.9781   -1.6
 0.065  0.7484   -4.8  19.117  175.0  0.0011   17.5  0.9801   -1.9
 0.070  0.7499   -5.1  19.125  174.5  0.0024  131.6  0.9822   -2.1
 0.075  0.7496   -5.5  19.077  174.2  0.0030   96.6  0.9828   -2.3
 0.080  0.7493   -5.9  19.030  173.9  0.0042   77.4  0.9834   -2.4
 0.085  0.7496   -6.3  19.068  173.8  0.0034   90.4  0.9845   -2.7
 0.090  0.7500   -6.6  19.106  173.7  0.0029  109.4  0.9856   -3.0
 0.095  0.7494   -7.0  19.058  173.4  0.0030   76.1  0.9821   -3.2
 0.100  0.7489   -7.4  19.010  173.1  0.0040   52.6  0.9787   -3.4
 0.105  0.7481   -7.8  19.006  172.8  0.0041   87.9  0.9793   -3.6
 0.110  0.7473   -8.2  19.002  172.4  0.0055  112.8  0.9799   -3.7
 0.115  0.7464   -8.5  18.993  172.2  0.0054   89.9  0.9805   -3.8
 0.120  0.7455   -8.9  18.984  171.9  0.0061   69.3  0.9812   -3.9
 0.125  0.7462   -9.3  18.983  171.5  0.0056   74.9  0.9818   -4.2
 0.130  0.7469   -9.6  18.984  171.0  0.0051   81.7  0.9824   -4.5
 0.135  0.7451  -10.0  19.004  170.8  0.0046   81.2  0.9825   -4.6
 0.140  0.7434  -10.4  19.025  170.7  0.0042   80.6  0.9827   -4.7
 0.145  0.7438  -10.8  19.021  170.4  0.0038   84.7  0.9805   -4.8
 0.150  0.7442  -11.2  19.018  170.0  0.0035   89.6  0.9784   -5.0
 0.155  0.7432  -11.6  19.004  169.6  0.0040   87.9  0.9779   -5.2
 0.160  0.7422  -11.9  18.991  169.2  0.0044   86.6  0.9774   -5.4
 0.165  0.7413  -12.3  18.978  168.8  0.0049   85.5  0.9769   -5.6
 0.170  0.7403  -12.6  18.967  168.4  0.0054   84.6  0.9764   -5.8
 0.175  0.7394  -13.0  18.956  168.1  0.0059   83.9  0.9760   -5.9
 0.180  0.7386  -13.3  18.946  167.7  0.0064   83.3  0.9755   -6.1
 0.185  0.7377  -13.7  18.937  167.3  0.0069   82.7  0.9751   -6.3
 0.190  0.7369  -14.1  18.929  166.9  0.0073   82.3  0.9746   -6.5
 0.195  0.7361  -14.4  18.922  166.5  0.0078   81.9  0.9742   -6.7
 0.200  0.7354  -14.8  18.916  166.1  0.0083   81.5  0.9738   -6.9
 0.220  0.7325  -16.2  18.780  164.9  0.0085   81.8  0.9722   -7.5
 0.240  0.7301  -17.6  18.652  163.6  0.0086   82.1  0.9708   -8.2
 0.260  0.7266  -19.0  18.550  162.3  0.0089   82.5  0.9681   -8.8
 0.280  0.7223  -20.4  18.473  161.0  0.0092   82.7  0.9642   -9.5
 0.300  0.7183  -21.8  18.406  159.6  0.0095   83.0  0.9605  -10.1
 0.320  0.7137  -23.2  18.265  158.3  0.0105   82.2  0.9568  -10.7
 0.340  0.7094  -24.6  18.133  157.0  0.0116   81.5  0.9532  -11.4
 0.360  0.7049  -26.0  18.014  155.8  0.0123   80.9  0.9497  -12.0
 0.380  0.7001  -27.3  17.906  154.5  0.0127   80.3  0.9465  -12.7
 0.400  0.6957  -28.7  17.807  153.2  0.0131   79.8  0.9433  -13.3
 0.420  0.6909  -30.0  17.665  152.1  0.0135   79.0  0.9387  -13.9
 0.440  0.6865  -31.3  17.531  150.9  0.0139   78.3  0.9342  -14.4
 0.450  0.6844  -31.9  17.466  150.3  0.0141   77.9  0.9320  -14.7
 0.460  0.6814  -32.5  17.386  149.7  0.0145   77.3  0.9293  -15.0
 0.480  0.6757  -33.8  17.233  148.5  0.0152   76.2  0.9241  -15.6
 0.500  0.6704  -35.1  17.087  147.3  0.0160   75.2  0.9190  -16.2
 0.520  0.6638  -36.3  16.924  146.2  0.0166   74.5  0.9142  -16.7
 0.540  0.6575  -37.6  16.767  145.1  0.0173   73.9  0.9095  -17.2
 0.560  0.6515  -38.8  16.616  143.9  0.0179   73.3  0.9049  -17.7
 0.580  0.6458  -40.1  16.473  142.8  0.0186   72.7  0.9004  -18.3
 0.600  0.6405  -41.4  16.336  141.6  0.0192   72.2  0.8959  -18.8
 0.620  0.6339  -42.5  16.182  140.6  0.0196   72.4  0.8903  -19.3
 0.640  0.6276  -43.6  16.032  139.6  0.0201   72.6  0.8848  -19.7
 0.660  0.6215  -44.8  15.888  138.6  0.0205   72.8  0.8793  -20.2
 0.680  0.6157  -45.9  15.748  137.6  0.0210   72.9  0.8739  -20.7
 0.700  0.6101  -47.1  15.614  136.5  0.0214   73.1  0.8686  -21.2
 0.720  0.6034  -48.2  15.437  135.6  0.0219   72.6  0.8631  -21.6
 0.740  0.5969  -49.3  15.264  134.6  0.0223   72.0  0.8577  -22.1
 0.760  0.5907  -50.4  15.095  133.6  0.0228   71.5  0.8523  -22.5
 0.780  0.5847  -51.5  14.931  132.6  0.0232   71.1  0.8470  -22.9
 0.800  0.5789  -52.7  14.772  131.6  0.0237   70.6  0.8417  -23.4
 0.820  0.5725  -53.7  14.620  130.7  0.0242   70.2  0.8365  -23.8
 0.840  0.5663  -54.7  14.472  129.8  0.0247   69.8  0.8313  -24.2
 0.860  0.5603  -55.8  14.327  128.9  0.0251   69.5  0.8262  -24.6
 0.880  0.5544  -56.8  14.186  128.0  0.0256   69.1  0.8211  -25.0
 0.900  0.5488  -57.9  14.049  127.0  0.0261   68.8  0.8161  -25.4
 0.920  0.5430  -58.8  13.891  126.2  0.0265   68.7  0.8107  -25.8
 0.940  0.5374  -59.8  13.737  125.4  0.0269   68.5  0.8053  -26.1
 0.960  0.5320  -60.7  13.585  124.6  0.0272   68.4  0.7999  -26.5
 0.980  0.5267  -61.7  13.435  123.8  0.0276   68.3  0.7946  -26.8
 1.000  0.5215  -62.7  13.289  122.9  0.0280   68.2  0.7893  -27.2
 1.020  0.5155  -63.6  13.145  122.2  0.0283   67.8  0.7844  -27.5
 1.040  0.5095  -64.5  13.002  121.4  0.0286   67.5  0.7795  -27.8
 1.060  0.5037  -65.5  12.862  120.7  0.0289   67.2  0.7746  -28.1
 1.080  0.4981  -66.4  12.724  119.9  0.0292   66.8  0.7697  -28.5
 1.100  0.4926  -67.4  12.589  119.1  0.0295   66.5  0.7649  -28.8
 1.120  0.4875  -68.3  12.454  118.4  0.0300   66.3  0.7602  -29.1
 1.140  0.4824  -69.2  12.321  117.7  0.0305   66.2  0.7555  -29.3
 1.160  0.4775  -70.1  12.190  117.0  0.0310   66.0  0.7509  -29.6
 1.180  0.4727  -71.0  12.060  116.3  0.0315   65.8  0.7462  -29.8
 1.200  0.4681  -72.0  11.933  115.5  0.0320   65.7  0.7416  -30.1
 1.220  0.4629  -72.8  11.805  114.8  0.0322   65.6  0.7371  -30.4
 1.240  0.4577  -73.6  11.679  114.2  0.0325   65.6  0.7326  -30.7
 1.260  0.4527  -74.5  11.554  113.5  0.0327   65.5  0.7282  -31.0
 1.280  0.4477  -75.3  11.431  112.8  0.0330   65.5  0.7237  -31.3
 1.300  0.4429  -76.2  11.310  112.1  0.0332   65.4  0.7193  -31.6
 1.320  0.4387  -77.0  11.190  111.5  0.0336   65.2  0.7152  -31.8
 1.340  0.4346  -77.8  11.071  111.0  0.0339   64.9  0.7110  -32.1
 1.360  0.4306  -78.6  10.953  110.4  0.0343   64.7  0.7069  -32.3
 1.380  0.4266  -79.4  10.837  109.8  0.0346   64.5  0.7028  -32.6
 1.400  0.4228  -80.3  10.721  109.2  0.0350   64.3  0.6987  -32.8
 1.420  0.4182  -81.1  10.613  108.7  0.0355   64.1  0.6948  -33.0
 1.440  0.4137  -81.8  10.506  108.1  0.0360   64.0  0.6910  -33.2
 1.460  0.4093  -82.6  10.401  107.6  0.0365   63.8  0.6871  -33.4
 1.480  0.4050  -83.5  10.296  107.0  0.0370   63.7  0.6832  -33.6
 1.500  0.4007  -84.3  10.192  106.4  0.0375   63.5  0.6794  -33.8
 1.520  0.3971  -85.1  10.091  105.9  0.0377   63.5  0.6757  -34.0
 1.540  0.3936  -85.9   9.991  105.4  0.0379   63.4  0.6721  -34.2
 1.560  0.3902  -86.7   9.892  104.8  0.0380   63.4  0.6685  -34.4
 1.580  0.3869  -87.5   9.794  104.3  0.0382   63.3  0.6648  -34.6
 1.600  0.3836  -88.3   9.697  103.7  0.0384   63.3  0.6612  -34.8
 1.620  0.3801  -89.0   9.600  103.2  0.0387   63.3  0.6574  -35.0
 1.640  0.3768  -89.7   9.503  102.7  0.0390   63.3  0.6537  -35.2
 1.660  0.3734  -90.4   9.407  102.2  0.0392   63.4  0.6500  -35.4
 1.680  0.3701  -91.1   9.312  101.7  0.0395   63.4  0.6462  -35.6
 1.700  0.3669  -91.8   9.218  101.2  0.0398   63.4  0.6425  -35.8
 1.720  0.3635  -92.6   9.131  100.7  0.0401   63.2  0.6391  -36.0
 1.740  0.3602  -93.3   9.045  100.3  0.0405   63.0  0.6357  -36.2
 1.760  0.3569  -94.1   8.959   99.8  0.0408   62.9  0.6323  -36.5
 1.780  0.3537  -94.9   8.874   99.3  0.0412   62.7  0.6290  -36.7
 1.800  0.3506  -95.7   8.789   98.8  0.0415   62.5  0.6256  -36.9
 1.820  0.3477  -96.4   8.711   98.4  0.0419   62.3  0.6224  -37.1
 1.840  0.3449  -97.0   8.634   98.0  0.0423   62.1  0.6192  -37.2
 1.860  0.3421  -97.7   8.557   97.6  0.0427   61.9  0.6160  -37.4
 1.880  0.3393  -98.4   8.480   97.1  0.0431   61.8  0.6129  -37.5
 1.900  0.3366  -99.1   8.404   96.7  0.0435   61.6  0.6097  -37.7
 1.920  0.3341  -99.9   8.333   96.3  0.0437   61.6  0.6073  -38.0
 1.940  0.3316 -100.7   8.263   95.8  0.0440   61.6  0.6048  -38.3
 1.960  0.3292 -101.5   8.193   95.4  0.0442   61.5  0.6024  -38.5
 1.980  0.3269 -102.4   8.124   95.0  0.0445   61.5  0.6000  -38.8
 2.000  0.3246 -103.2   8.055   94.5  0.0447   61.5  0.5976  -39.1
 2.020  0.3220 -103.8   7.984   94.1  0.0451   61.6  0.5949  -39.3
 2.040  0.3195 -104.4   7.913   93.7  0.0455   61.7  0.5921  -39.4
 2.060  0.3170 -105.1   7.842   93.3  0.0459   61.7  0.5894  -39.6
 2.080  0.3145 -105.7   7.772   92.8  0.0463   61.8  0.5866  -39.7
 2.100  0.3121 -106.4   7.702   92.4  0.0467   61.9  0.5839  -39.9
 2.120  0.3098 -107.1   7.636   92.0  0.0470   61.7  0.5813  -40.1
 2.140  0.3075 -107.7   7.570   91.6  0.0473   61.5  0.5787  -40.3
 2.160  0.3053 -108.4   7.504   91.2  0.0475   61.4  0.5761  -40.5
 2.180  0.3031 -109.1   7.439   90.8  0.0478   61.2  0.5736  -40.7
 2.200  0.3010 -109.8   7.374   90.4  0.0481   61.0  0.5710  -40.9
 2.220  0.2990 -110.5   7.313   90.1  0.0484   61.1  0.5687  -41.1
 2.240  0.2970 -111.2   7.253   89.7  0.0486   61.2  0.5664  -41.2
 2.260  0.2951 -111.9   7.193   89.4  0.0489   61.2  0.5641  -41.4
 2.280  0.2932 -112.6   7.133   89.1  0.0491   61.3  0.5618  -41.5
 2.300  0.2914 -113.3   7.074   88.7  0.0494   61.4  0.5595  -41.7
 2.320  0.2893 -113.9   7.019   88.4  0.0498   61.2  0.5574  -41.8
 2.340  0.2872 -114.5   6.964   88.0  0.0502   61.0  0.5553  -42.0
 2.360  0.2851 -115.1   6.910   87.6  0.0507   60.8  0.5532  -42.1
 2.380  0.2831 -115.7   6.856   87.3  0.0511   60.6  0.5511  -42.3
 2.400  0.2811 -116.3   6.802   86.9  0.0515   60.4  0.5490  -42.4
 2.420  0.2793 -116.9   6.748   86.6  0.0518   60.3  0.5469  -42.6
 2.440  0.2776 -117.6   6.694   86.2  0.0521   60.2  0.5448  -42.7
 2.460  0.2759 -118.2   6.641   85.9  0.0524   60.1  0.5427  -42.9
 2.480  0.2742 -118.8   6.588   85.6  0.0527   60.0  0.5407  -43.0
 2.500  0.2726 -119.5   6.535   85.2  0.0530   59.9  0.5386  -43.2
 2.520  0.2710 -120.1   6.485   84.9  0.0533   60.0  0.5369  -43.3
 2.540  0.2695 -120.7   6.436   84.6  0.0536   60.2  0.5353  -43.5
 2.560  0.2680 -121.3   6.386   84.3  0.0539   60.3  0.5336  -43.6
 2.580  0.2665 -121.9   6.337   84.0  0.0542   60.5  0.5320  -43.8
 2.600  0.2650 -122.5   6.288   83.7  0.0545   60.6  0.5303  -43.9
 2.620  0.2637 -123.1   6.243   83.4  0.0548   60.5  0.5284  -44.0
 2.640  0.2624 -123.7   6.198   83.1  0.0551   60.4  0.5266  -44.2
 2.660  0.2611 -124.3   6.153   82.8  0.0554   60.4  0.5247  -44.3
 2.680  0.2599 -124.9   6.108   82.4  0.0557   60.3  0.5229  -44.5
 2.700  0.2587 -125.5   6.064   82.1  0.0560   60.2  0.5210  -44.6
 2.720  0.2572 -126.1   6.023   81.8  0.0563   60.1  0.5195  -44.7
 2.740  0.2557 -126.6   5.982   81.5  0.0566   60.0  0.5180  -44.9
 2.760  0.2542 -127.2   5.941   81.2  0.0568   60.0  0.5165  -45.0
 2.780  0.2527 -127.8   5.900   80.9  0.0571   59.9  0.5150  -45.2
 2.800  0.2513 -128.4   5.860   80.6  0.0574   59.8  0.5135  -45.3
 2.820  0.2503 -129.0   5.819   80.3  0.0577   59.7  0.5122  -45.4
 2.840  0.2493 -129.5   5.777   80.1  0.0580   59.7  0.5109  -45.5
 2.860  0.2483 -130.1   5.736   79.8  0.0583   59.6  0.5097  -45.7
 2.880  0.2474 -130.6   5.695   79.6  0.0586   59.6  0.5084  -45.8
 2.900  0.2465 -131.2   5.654   79.3  0.0589   59.5  0.5071  -45.9
 2.920  0.2453 -131.8   5.617   79.0  0.0592   59.4  0.5056  -46.0
 2.940  0.2441 -132.3   5.580   78.8  0.0595   59.3  0.5041  -46.2
 2.960  0.2429 -132.9   5.544   78.5  0.0597   59.3  0.5027  -46.3
 2.980  0.2417 -133.5   5.507   78.2  0.0600   59.2  0.5012  -46.5
 3.000  0.2406 -134.1   5.471   77.9  0.0603   59.1  0.4997  -46.6
 3.100  0.2349 -136.7   5.294   76.5  0.0623   59.0  0.4936  -47.2
 3.200  0.2288 -139.9   5.125   75.2  0.0636   58.3  0.4870  -47.9
 3.300  0.2259 -142.4   4.978   73.9  0.0653   58.3  0.4827  -48.4
 3.400  0.2204 -145.2   4.824   72.7  0.0666   58.6  0.4771  -49.1
 3.500  0.2177 -147.4   4.692   71.5  0.0688   57.9  0.4737  -49.5
 3.600  0.2137 -150.0   4.557   70.3  0.0708   58.0  0.4688  -49.9
 3.700  0.2108 -152.9   4.432   69.2  0.0717   57.4  0.4645  -50.4
 3.800  0.2082 -155.4   4.313   68.0  0.0736   57.0  0.4611  -50.8
 3.900  0.2063 -157.7   4.206   66.9  0.0744   56.9  0.4565  -51.3
 4.000  0.2042 -160.0   4.103   65.8  0.0763   57.0  0.4537  -51.8
 4.100  0.2030 -162.6   4.005   64.7  0.0780   56.6  0.4490  -52.2
 4.200  0.2004 -165.4   3.907   63.8  0.0797   56.3  0.4460  -52.6
 4.300  0.2018 -167.8   3.821   62.6  0.0813   56.0  0.4417  -53.0
 4.400  0.1991 -170.1   3.736   61.7  0.0831   55.5  0.4386  -53.4
 4.500  0.2008 -172.1   3.652   60.7  0.0846   55.3  0.4356  -53.6
 4.600  0.1990 -175.0   3.573   59.5  0.0863   55.0  0.4316  -54.1
 4.700  0.2007 -176.6   3.498   58.6  0.0882   54.9  0.4273  -54.4
 4.800  0.2009 -179.2   3.429   57.6  0.0901   54.4  0.4250  -54.9
 4.900  0.2020  179.2   3.359   56.7  0.0916   54.3  0.4205  -55.2
 5.000  0.2023  176.8   3.295   55.6  0.0934   53.7  0.4171  -55.6
 5.100  0.2023  174.8   3.230   54.6  0.0953   53.3  0.4137  -56.0
 5.200  0.2035  172.4   3.171   53.6  0.0971   53.1  0.4104  -56.4
 5.300  0.2044  170.4   3.112   52.6  0.0983   52.8  0.4069  -56.8
 5.400  0.2049  168.8   3.058   51.7  0.1000   52.3  0.4047  -57.1
 5.500  0.2062  166.7   3.003   50.7  0.1015   52.0  0.4015  -57.4
 5.600  0.2064  164.9   2.951   49.7  0.1033   51.9  0.3983  -57.8
 5.700  0.2083  162.6   2.901   48.8  0.1049   51.4  0.3951  -58.1
 5.800  0.2093  160.9   2.854   47.8  0.1069   50.9  0.3924  -58.6
 5.900  0.2098  159.1   2.806   46.9  0.1087   50.4  0.3900  -58.8
 6.000  0.2098  157.2   2.759   46.0  0.1102   50.0  0.3876  -59.2
 6.100  0.2113  155.2   2.713   45.0  0.1118   49.7  0.3836  -59.4
 6.200  0.2124  153.5   2.670   44.1  0.1135   49.1  0.3807  -59.8
 6.300  0.2137  151.4   2.629   43.2  0.1152   48.8  0.3774  -60.1
 6.400  0.2132  149.5   2.589   42.2  0.1171   48.3  0.3754  -60.4
 6.500  0.2157  147.1   2.547   41.3  0.1186   47.8  0.3724  -60.7
 6.600  0.2167  145.3   2.511   40.4  0.1201   47.8  0.3691  -61.0
 6.800  0.2206  141.1   2.436   38.6  0.1235   46.9  0.3623  -61.2
 7.000  0.2240  137.1   2.366   36.8  0.1268   46.1  0.3555  -61.2
 7.200  0.2305  133.1   2.298   35.2  0.1304   45.6  0.3456  -61.6
 7.400  0.2391  129.8   2.238   33.5  0.1341   44.6  0.3370  -61.8
 7.600  0.2487  126.9   2.182   31.9  0.1380   44.1  0.3265  -62.1
 7.800  0.2600  124.5   2.129   30.3  0.1415   43.2  0.3144  -62.4
 8.000  0.2727  122.2   2.079   28.6  0.1455   42.2  0.3000  -62.6
 8.200  0.2881  120.5   2.035   27.0  0.1495   41.2  0.2819  -63.0
 8.400  0.3037  118.9   1.992   25.4  0.1536   40.3  0.2638  -63.4
 8.600  0.3194  117.5   1.950   23.7  0.1575   39.3  0.2437  -63.9
 8.800  0.3352  116.3   1.910   22.0  0.1612   38.2  0.2216  -64.4
 9.000  0.3511  115.1   1.872   20.3  0.1650   37.2  0.1995  -65.0
 9.200  0.3653  113.9   1.836   18.7  0.1689   36.0  0.1757  -66.2
 9.400  0.3797  112.8   1.802   17.1  0.1728   34.9  0.1519  -67.7
 9.600  0.3934  111.7   1.770   15.4  0.1768   33.8  0.1276  -70.1
 9.800  0.4064  110.5   1.739   13.6  0.1807   32.7  0.1029  -73.8
10.000  0.4196  109.4   1.710   11.8  0.1848   31.6  0.0790  -79.9
10.200  0.4311  107.7   1.679   10.1  0.1884   30.2  0.0561  -92.7
10.400  0.4430  106.1   1.649    8.3  0.1922   28.9  0.0393 -119.1
10.600  0.4541  104.2   1.618    6.5  0.1955   27.5  0.0405 -160.4
10.800  0.4646  102.1   1.586    4.6  0.1983   26.3  0.0602  174.1
11.000  0.4757  100.1   1.556    2.6  0.2012   25.0  0.0856  162.4
11.200  0.4842   98.0   1.519    1.0  0.2032   23.8  0.1117  158.9
11.400  0.4933   96.0   1.483   -0.7  0.2052   22.6  0.1381  156.8
11.600  0.4996   94.3   1.449   -2.2  0.2075   21.6  0.1633  157.2
11.800  0.5028   93.0   1.416   -3.5  0.2100   20.8  0.1876  159.3
12.000  0.5062   91.7   1.384   -4.9  0.2125   20.0  0.2121  160.8
!
!  f       NFmin   Gammaopt  rn/50
! GHz       dB    MAG  ANG    -
 0.450      1.52  0.27    6   0.33
 0.900      1.54  0.24   12   0.32
 1.500      1.60  0.23   17   0.29
 1.900      1.63  0.21   23   0.30
 2.400      1.77  0.20   31   0.33
 3.000      1.84  0.18   45   0.31
 3.500      1.90  0.16   52   0.30
 4.500      2.05  0.13   55   0.20
 5.500      2.24  0.07   59   0.06
!
! (c) 2015  Infineon Technologies AG, Munich
