! Infineon Technologies  Discrete & RF Semiconductors
! BFP405F
! VCE =  2.5 V,  IC =  13 mA
! Common Emitter S-Parameters:                            Nov 2015
# GHz  S  MA  R  50
!  f         S11            S21            S12            S22
! GHz     MAG   ANG      MAG   ANG      MAG   ANG      MAG   ANG
 0.030  0.6654   -2.2  24.644  176.8  0.0022   90.3  0.9774   -0.4
 0.035  0.6637   -2.7  24.663  176.5  0.0018   98.6  0.9776   -0.6
 0.040  0.6621   -3.3  24.683  176.3  0.0015  110.8  0.9779   -0.8
 0.045  0.6606   -3.9  24.766  175.7  0.0030  136.5  0.9786   -1.0
 0.050  0.6592   -4.6  24.852  175.1  0.0047  144.5  0.9793   -1.1
 0.055  0.6616   -4.9  24.740  174.8  0.0029  127.2  0.9801   -1.4
 0.060  0.6640   -5.1  24.628  174.5  0.0019   80.0  0.9810   -1.7
 0.065  0.6619   -5.6  24.616  173.9  0.0032   66.8  0.9810   -1.9
 0.070  0.6598   -6.1  24.606  173.3  0.0045   61.3  0.9810   -2.1
 0.075  0.6591   -6.5  24.540  173.0  0.0033   52.4  0.9802   -2.2
 0.080  0.6585   -7.0  24.475  172.6  0.0023   34.8  0.9795   -2.4
 0.085  0.6596   -7.4  24.516  172.4  0.0021   59.0  0.9802   -2.8
 0.090  0.6607   -7.8  24.557  172.3  0.0023   83.3  0.9810   -3.1
 0.095  0.6614   -8.3  24.483  171.9  0.0023   64.6  0.9809   -3.2
 0.100  0.6621   -8.8  24.410  171.5  0.0025   47.5  0.9808   -3.3
 0.105  0.6610   -9.3  24.400  171.1  0.0017   75.1  0.9796   -3.4
 0.110  0.6599   -9.8  24.391  170.6  0.0016  121.5  0.9785   -3.6
 0.115  0.6588  -10.3  24.371  170.4  0.0019  107.9  0.9785   -3.8
 0.120  0.6577  -10.8  24.351  170.1  0.0022   98.1  0.9785   -4.1
 0.125  0.6568  -11.1  24.341  169.6  0.0032   91.5  0.9788   -4.3
 0.130  0.6559  -11.5  24.332  169.1  0.0043   88.2  0.9792   -4.5
 0.135  0.6549  -12.0  24.338  168.8  0.0045   82.0  0.9782   -4.6
 0.140  0.6539  -12.5  24.345  168.6  0.0047   76.3  0.9773   -4.8
 0.145  0.6530  -12.9  24.330  168.2  0.0043   83.2  0.9763   -5.0
 0.150  0.6521  -13.3  24.316  167.8  0.0040   91.3  0.9754   -5.2
 0.155  0.6511  -13.7  24.284  167.3  0.0041   89.4  0.9747   -5.4
 0.160  0.6501  -14.2  24.253  166.9  0.0043   87.6  0.9739   -5.6
 0.165  0.6491  -14.6  24.223  166.4  0.0044   85.8  0.9732   -5.8
 0.170  0.6482  -15.1  24.196  166.0  0.0045   84.2  0.9725   -6.0
 0.175  0.6473  -15.5  24.170  165.5  0.0047   82.7  0.9718   -6.1
 0.180  0.6465  -16.0  24.145  165.1  0.0048   81.3  0.9711   -6.3
 0.185  0.6457  -16.4  24.122  164.6  0.0049   80.0  0.9704   -6.5
 0.190  0.6449  -16.9  24.100  164.1  0.0051   78.7  0.9697   -6.7
 0.195  0.6442  -17.3  24.080  163.7  0.0052   77.5  0.9691   -6.9
 0.200  0.6435  -17.8  24.062  163.2  0.0054   76.4  0.9684   -7.1
 0.220  0.6391  -19.4  23.834  161.8  0.0059   75.8  0.9652   -7.8
 0.240  0.6352  -21.1  23.621  160.3  0.0064   75.2  0.9622   -8.5
 0.260  0.6305  -22.7  23.430  158.8  0.0071   76.7  0.9584   -9.1
 0.280  0.6252  -24.4  23.262  157.3  0.0079   79.5  0.9538   -9.8
 0.300  0.6204  -26.1  23.112  155.7  0.0088   81.8  0.9493  -10.4
 0.320  0.6142  -27.6  22.871  154.3  0.0091   79.7  0.9453  -11.0
 0.340  0.6085  -29.1  22.644  152.8  0.0094   77.8  0.9415  -11.7
 0.360  0.6026  -30.7  22.426  151.4  0.0099   76.5  0.9373  -12.3
 0.380  0.5966  -32.3  22.215  150.0  0.0104   75.8  0.9327  -12.9
 0.400  0.5911  -33.9  22.019  148.5  0.0110   75.1  0.9283  -13.5
 0.420  0.5849  -35.3  21.770  147.2  0.0114   75.5  0.9223  -14.0
 0.440  0.5791  -36.8  21.533  145.9  0.0117   75.8  0.9164  -14.5
 0.450  0.5763  -37.5  21.419  145.2  0.0119   76.0  0.9135  -14.8
 0.460  0.5728  -38.2  21.287  144.6  0.0119   75.8  0.9107  -15.1
 0.480  0.5661  -39.6  21.031  143.2  0.0120   75.3  0.9051  -15.6
 0.500  0.5598  -41.1  20.787  141.9  0.0121   74.9  0.8996  -16.2
 0.520  0.5525  -42.4  20.521  140.8  0.0127   74.8  0.8938  -16.6
 0.540  0.5455  -43.7  20.263  139.6  0.0133   74.7  0.8880  -17.1
 0.560  0.5388  -45.1  20.014  138.4  0.0140   74.6  0.8823  -17.5
 0.580  0.5325  -46.5  19.774  137.2  0.0146   74.5  0.8766  -17.9
 0.600  0.5264  -47.9  19.543  135.9  0.0152   74.4  0.8710  -18.4
 0.620  0.5194  -49.0  19.297  134.9  0.0156   74.5  0.8656  -18.8
 0.640  0.5125  -50.2  19.058  133.9  0.0159   74.7  0.8602  -19.2
 0.660  0.5059  -51.3  18.825  132.8  0.0163   74.8  0.8549  -19.6
 0.680  0.4995  -52.6  18.599  131.7  0.0166   74.9  0.8496  -20.0
 0.700  0.4933  -53.8  18.379  130.6  0.0170   75.0  0.8444  -20.4
 0.720  0.4865  -54.9  18.121  129.6  0.0174   73.8  0.8390  -20.8
 0.740  0.4800  -56.1  17.869  128.6  0.0177   72.7  0.8336  -21.1
 0.760  0.4736  -57.3  17.622  127.6  0.0181   71.7  0.8283  -21.5
 0.780  0.4675  -58.5  17.381  126.6  0.0185   70.7  0.8230  -21.8
 0.800  0.4616  -59.8  17.146  125.5  0.0189   69.7  0.8177  -22.2
 0.820  0.4555  -60.8  16.928  124.7  0.0192   70.1  0.8127  -22.5
 0.840  0.4495  -61.8  16.713  123.8  0.0196   70.5  0.8077  -22.8
 0.860  0.4436  -62.8  16.502  122.9  0.0199   70.8  0.8028  -23.1
 0.880  0.4379  -63.8  16.295  122.0  0.0203   71.2  0.7978  -23.4
 0.900  0.4323  -64.9  16.092  121.1  0.0206   71.5  0.7929  -23.7
 0.920  0.4268  -65.9  15.878  120.3  0.0210   71.6  0.7880  -24.0
 0.940  0.4214  -66.9  15.668  119.6  0.0214   71.7  0.7832  -24.3
 0.960  0.4162  -67.9  15.460  118.8  0.0217   71.8  0.7784  -24.6
 0.980  0.4111  -69.0  15.255  117.9  0.0221   71.9  0.7736  -24.9
 1.000  0.4061  -70.1  15.054  117.1  0.0225   72.0  0.7688  -25.2
 1.020  0.4008  -71.0  14.861  116.4  0.0227   71.5  0.7644  -25.4
 1.040  0.3957  -71.9  14.671  115.7  0.0230   71.1  0.7599  -25.7
 1.060  0.3906  -72.8  14.483  115.0  0.0232   70.6  0.7555  -25.9
 1.080  0.3857  -73.7  14.297  114.3  0.0235   70.1  0.7511  -26.2
 1.100  0.3808  -74.7  14.114  113.5  0.0237   69.7  0.7467  -26.4
 1.120  0.3761  -75.6  13.942  112.9  0.0241   69.6  0.7426  -26.6
 1.140  0.3716  -76.6  13.772  112.2  0.0245   69.4  0.7386  -26.8
 1.160  0.3672  -77.6  13.604  111.5  0.0248   69.3  0.7346  -27.0
 1.180  0.3628  -78.6  13.437  110.8  0.0252   69.1  0.7305  -27.2
 1.200  0.3586  -79.6  13.273  110.1  0.0256   69.0  0.7265  -27.4
 1.220  0.3540  -80.4  13.113  109.5  0.0259   68.9  0.7227  -27.6
 1.240  0.3496  -81.3  12.954  108.8  0.0262   68.9  0.7188  -27.8
 1.260  0.3452  -82.1  12.797  108.2  0.0264   68.8  0.7150  -28.0
 1.280  0.3408  -83.0  12.642  107.5  0.0267   68.8  0.7112  -28.2
 1.300  0.3366  -83.9  12.489  106.8  0.0270   68.7  0.7074  -28.4
 1.320  0.3331  -84.7  12.343  106.3  0.0274   68.6  0.7037  -28.6
 1.340  0.3298  -85.5  12.197  105.8  0.0277   68.6  0.7001  -28.8
 1.360  0.3264  -86.3  12.053  105.2  0.0281   68.5  0.6964  -29.1
 1.380  0.3232  -87.1  11.910  104.7  0.0284   68.5  0.6928  -29.3
 1.400  0.3200  -88.0  11.768  104.1  0.0288   68.4  0.6892  -29.5
 1.420  0.3164  -88.8  11.637  103.6  0.0291   68.3  0.6860  -29.6
 1.440  0.3129  -89.7  11.507  103.1  0.0294   68.3  0.6828  -29.8
 1.460  0.3094  -90.5  11.378  102.6  0.0297   68.2  0.6796  -29.9
 1.480  0.3060  -91.4  11.250  102.0  0.0300   68.2  0.6764  -30.1
 1.500  0.3027  -92.3  11.123  101.5  0.0303   68.1  0.6732  -30.2
 1.520  0.2997  -93.1  11.005  101.0  0.0306   68.2  0.6701  -30.4
 1.540  0.2968  -93.9  10.887  100.6  0.0309   68.3  0.6670  -30.5
 1.560  0.2939  -94.7  10.770  100.1  0.0312   68.5  0.6639  -30.7
 1.580  0.2911  -95.5  10.654   99.6  0.0315   68.6  0.6609  -30.8
 1.600  0.2884  -96.4  10.539   99.1  0.0318   68.7  0.6578  -31.0
 1.620  0.2859  -97.1  10.425   98.6  0.0322   68.4  0.6547  -31.2
 1.640  0.2834  -97.8  10.311   98.2  0.0326   68.1  0.6517  -31.4
 1.660  0.2810  -98.5  10.198   97.7  0.0331   67.8  0.6486  -31.5
 1.680  0.2786  -99.3  10.086   97.2  0.0335   67.5  0.6455  -31.7
 1.700  0.2763 -100.0   9.974   96.7  0.0339   67.2  0.6425  -31.9
 1.720  0.2736 -100.8   9.874   96.3  0.0342   67.4  0.6396  -32.1
 1.740  0.2710 -101.6   9.775   95.9  0.0345   67.6  0.6366  -32.3
 1.760  0.2684 -102.5   9.676   95.5  0.0347   67.8  0.6337  -32.4
 1.780  0.2659 -103.3   9.578   95.0  0.0350   68.0  0.6308  -32.6
 1.800  0.2634 -104.2   9.480   94.6  0.0353   68.2  0.6279  -32.8
 1.820  0.2613 -104.9   9.390   94.2  0.0356   68.0  0.6253  -32.9
 1.840  0.2592 -105.6   9.301   93.8  0.0359   67.8  0.6227  -33.1
 1.860  0.2572 -106.3   9.212   93.4  0.0362   67.7  0.6201  -33.2
 1.880  0.2552 -107.0   9.123   93.0  0.0365   67.5  0.6176  -33.4
 1.900  0.2533 -107.7   9.035   92.6  0.0368   67.3  0.6150  -33.5
 1.920  0.2516 -108.5   8.954   92.2  0.0371   67.3  0.6128  -33.7
 1.940  0.2500 -109.3   8.873   91.8  0.0375   67.2  0.6106  -34.0
 1.960  0.2485 -110.2   8.793   91.4  0.0378   67.2  0.6085  -34.2
 1.980  0.2470 -111.0   8.713   91.0  0.0382   67.1  0.6063  -34.5
 2.000  0.2455 -111.9   8.634   90.6  0.0385   67.1  0.6042  -34.7
 2.020  0.2436 -112.6   8.554   90.2  0.0388   67.4  0.6019  -34.8
 2.040  0.2417 -113.4   8.475   89.9  0.0390   67.7  0.5997  -35.0
 2.060  0.2398 -114.1   8.396   89.5  0.0393   68.0  0.5974  -35.1
 2.080  0.2380 -114.9   8.318   89.1  0.0395   68.2  0.5952  -35.3
 2.100  0.2362 -115.7   8.240   88.7  0.0398   68.5  0.5929  -35.4
 2.120  0.2345 -116.4   8.166   88.4  0.0400   68.2  0.5907  -35.6
 2.140  0.2329 -117.2   8.092   88.0  0.0403   67.8  0.5886  -35.8
 2.160  0.2313 -117.9   8.019   87.6  0.0405   67.5  0.5864  -35.9
 2.180  0.2297 -118.7   7.946   87.3  0.0408   67.1  0.5842  -36.1
 2.200  0.2282 -119.5   7.873   86.9  0.0410   66.8  0.5821  -36.3
 2.220  0.2269 -120.2   7.806   86.6  0.0415   66.9  0.5801  -36.4
 2.240  0.2256 -120.9   7.739   86.3  0.0419   66.9  0.5780  -36.6
 2.260  0.2243 -121.6   7.672   86.0  0.0424   67.0  0.5760  -36.7
 2.280  0.2231 -122.3   7.605   85.6  0.0428   67.0  0.5740  -36.9
 2.300  0.2219 -123.0   7.539   85.3  0.0433   67.1  0.5720  -37.0
 2.320  0.2205 -123.6   7.478   85.0  0.0435   66.9  0.5703  -37.2
 2.340  0.2191 -124.1   7.417   84.7  0.0437   66.8  0.5686  -37.3
 2.360  0.2178 -124.7   7.356   84.4  0.0438   66.6  0.5669  -37.5
 2.380  0.2164 -125.3   7.295   84.0  0.0440   66.5  0.5653  -37.6
 2.400  0.2151 -125.9   7.235   83.7  0.0442   66.3  0.5636  -37.8
 2.420  0.2139 -126.6   7.176   83.4  0.0446   66.3  0.5619  -37.9
 2.440  0.2128 -127.4   7.117   83.1  0.0450   66.3  0.5602  -38.0
 2.460  0.2116 -128.1   7.059   82.8  0.0453   66.3  0.5585  -38.2
 2.480  0.2105 -128.8   7.000   82.4  0.0457   66.3  0.5568  -38.3
 2.500  0.2095 -129.6   6.942   82.1  0.0461   66.3  0.5551  -38.4
 2.520  0.2083 -130.2   6.888   81.8  0.0464   66.3  0.5535  -38.5
 2.540  0.2072 -130.8   6.834   81.6  0.0467   66.3  0.5520  -38.7
 2.560  0.2061 -131.4   6.780   81.3  0.0470   66.3  0.5504  -38.8
 2.580  0.2050 -132.0   6.726   81.0  0.0473   66.3  0.5489  -39.0
 2.600  0.2039 -132.6   6.672   80.7  0.0476   66.3  0.5473  -39.1
 2.620  0.2031 -133.3   6.623   80.4  0.0479   66.2  0.5459  -39.2
 2.640  0.2023 -133.9   6.574   80.1  0.0482   66.1  0.5445  -39.3
 2.660  0.2015 -134.6   6.526   79.8  0.0485   66.0  0.5432  -39.5
 2.680  0.2008 -135.3   6.477   79.5  0.0488   65.9  0.5418  -39.6
 2.700  0.2001 -136.0   6.429   79.2  0.0491   65.8  0.5404  -39.7
 2.720  0.1992 -136.6   6.383   78.9  0.0494   65.7  0.5391  -39.9
 2.740  0.1983 -137.1   6.338   78.7  0.0497   65.6  0.5378  -40.0
 2.760  0.1975 -137.7   6.292   78.4  0.0499   65.5  0.5365  -40.2
 2.780  0.1966 -138.3   6.247   78.2  0.0502   65.4  0.5352  -40.3
 2.800  0.1958 -138.9   6.202   77.9  0.0505   65.3  0.5339  -40.5
 2.820  0.1952 -139.5   6.157   77.6  0.0507   65.4  0.5327  -40.6
 2.840  0.1947 -140.1   6.112   77.4  0.0509   65.5  0.5316  -40.7
 2.860  0.1942 -140.7   6.067   77.1  0.0512   65.6  0.5304  -40.8
 2.880  0.1937 -141.3   6.023   76.9  0.0514   65.7  0.5293  -40.9
 2.900  0.1932 -141.9   5.978   76.6  0.0516   65.8  0.5281  -41.0
 2.920  0.1923 -142.5   5.939   76.3  0.0520   65.8  0.5269  -41.2
 2.940  0.1914 -143.2   5.899   76.1  0.0524   65.8  0.5256  -41.3
 2.960  0.1905 -143.8   5.860   75.8  0.0527   65.9  0.5244  -41.5
 2.980  0.1897 -144.4   5.821   75.6  0.0531   65.9  0.5231  -41.6
 3.000  0.1889 -145.1   5.782   75.3  0.0535   65.9  0.5219  -41.8
 3.100  0.1869 -147.6   5.587   74.0  0.0555   64.9  0.5165  -42.3
 3.200  0.1830 -150.9   5.405   72.8  0.0570   65.1  0.5115  -43.0
 3.300  0.1815 -153.2   5.243   71.6  0.0585   64.6  0.5075  -43.4
 3.400  0.1787 -156.5   5.079   70.5  0.0604   64.6  0.5036  -44.2
 3.500  0.1764 -158.7   4.935   69.4  0.0620   64.6  0.4993  -44.6
 3.600  0.1748 -161.5   4.790   68.3  0.0630   64.0  0.4959  -45.1
 3.700  0.1736 -164.2   4.656   67.2  0.0655   63.5  0.4923  -45.5
 3.800  0.1725 -166.7   4.528   66.2  0.0671   63.7  0.4895  -45.9
 3.900  0.1717 -169.4   4.414   65.1  0.0685   62.7  0.4864  -46.5
 4.000  0.1705 -171.4   4.302   64.1  0.0700   62.8  0.4835  -46.8
 4.100  0.1710 -174.2   4.196   63.1  0.0713   62.1  0.4797  -47.3
 4.200  0.1699 -176.8   4.093   62.1  0.0736   61.8  0.4762  -47.8
 4.300  0.1725 -179.0   4.001   61.1  0.0752   61.6  0.4726  -48.2
 4.400  0.1715  178.5   3.910   60.2  0.0768   61.3  0.4703  -48.7
 4.500  0.1723  176.8   3.820   59.3  0.0782   60.9  0.4683  -49.0
 4.600  0.1730  173.7   3.735   58.2  0.0798   60.9  0.4651  -49.4
 4.700  0.1747  172.3   3.656   57.3  0.0815   60.4  0.4608  -49.7
 4.800  0.1764  169.7   3.582   56.4  0.0831   59.8  0.4587  -50.2
 4.900  0.1781  168.0   3.508   55.5  0.0850   59.6  0.4555  -50.6
 5.000  0.1796  165.7   3.440   54.5  0.0867   59.2  0.4525  -51.0
 5.100  0.1800  164.0   3.372   53.6  0.0887   58.7  0.4494  -51.4
 5.200  0.1819  162.0   3.311   52.6  0.0905   58.3  0.4458  -51.8
 5.300  0.1837  160.1   3.248   51.7  0.0920   57.9  0.4431  -52.2
 5.400  0.1844  158.7   3.189   50.8  0.0937   57.5  0.4412  -52.6
 5.500  0.1865  156.6   3.132   49.9  0.0950   57.0  0.4384  -53.0
 5.600  0.1867  154.9   3.077   49.0  0.0965   56.7  0.4357  -53.4
 5.700  0.1893  153.0   3.023   48.1  0.0983   56.1  0.4332  -53.7
 5.800  0.1903  151.5   2.974   47.1  0.1001   55.6  0.4308  -54.1
 5.900  0.1920  149.6   2.924   46.3  0.1021   55.5  0.4286  -54.4
 6.000  0.1919  148.0   2.874   45.4  0.1036   55.0  0.4267  -54.8
 6.100  0.1943  146.3   2.825   44.5  0.1051   54.3  0.4230  -55.0
 6.200  0.1954  144.5   2.780   43.6  0.1065   54.2  0.4210  -55.5
 6.300  0.1973  142.6   2.738   42.7  0.1083   53.8  0.4176  -55.7
 6.400  0.1979  140.9   2.694   41.9  0.1101   53.4  0.4158  -56.3
 6.500  0.1998  138.7   2.650   40.9  0.1117   52.8  0.4132  -56.5
 6.600  0.2017  136.8   2.612   40.1  0.1133   52.6  0.4097  -56.7
 6.800  0.2060  133.1   2.534   38.4  0.1165   51.7  0.4047  -57.2
 7.000  0.2104  129.4   2.460   36.7  0.1202   50.9  0.3985  -57.3
 7.200  0.2173  125.7   2.390   35.1  0.1238   50.1  0.3896  -57.8
 7.400  0.2264  123.0   2.326   33.6  0.1272   49.5  0.3819  -58.1
 7.600  0.2359  120.4   2.268   32.1  0.1311   48.8  0.3723  -58.5
 7.800  0.2469  118.5   2.213   30.5  0.1352   47.7  0.3609  -58.9
 8.000  0.2596  116.6   2.161   28.9  0.1390   46.8  0.3477  -59.4
 8.200  0.2748  115.4   2.116   27.4  0.1428   45.7  0.3306  -59.9
 8.400  0.2902  114.4   2.072   25.8  0.1467   44.7  0.3134  -60.5
 8.600  0.3055  113.4   2.030   24.2  0.1506   43.7  0.2942  -61.1
 8.800  0.3208  112.6   1.990   22.6  0.1545   42.6  0.2728  -61.8
 9.000  0.3362  111.8   1.952   21.0  0.1585   41.6  0.2515  -62.6
 9.200  0.3504  111.0   1.917   19.4  0.1625   40.5  0.2281  -63.9
 9.400  0.3647  110.2   1.883   17.8  0.1665   39.5  0.2049  -65.5
 9.600  0.3784  109.3   1.851   16.2  0.1704   38.3  0.1809  -67.8
 9.800  0.3914  108.4   1.821   14.5  0.1744   37.0  0.1563  -70.9
10.000  0.4046  107.5   1.792   12.7  0.1784   35.7  0.1324  -75.2
10.200  0.4168  106.0   1.761   11.0  0.1824   34.4  0.1074  -81.9
10.400  0.4292  104.6   1.732    9.2  0.1865   33.1  0.0847  -92.4
10.600  0.4410  102.9   1.701    7.4  0.1901   31.7  0.0684 -110.5
10.800  0.4524  100.9   1.669    5.4  0.1931   30.2  0.0643 -135.8
11.000  0.4644   99.0   1.639    3.4  0.1962   28.7  0.0728 -159.5
11.200  0.4737   96.9   1.600    1.7  0.1983   27.5  0.0943 -172.2
11.400  0.4836   95.0   1.563   -0.2  0.2006   26.3  0.1186 -179.9
11.600  0.4905   93.3   1.527   -1.7  0.2029   25.2  0.1444  176.8
11.800  0.4944   92.0   1.492   -3.0  0.2052   24.3  0.1708  176.1
12.000  0.4985   90.7   1.457   -4.4  0.2076   23.4  0.1971  175.6
!
!  f       NFmin   Gammaopt  rn/50
! GHz       dB    MAG  ANG    -
 0.450      1.86  0.14    4   0.33
 0.900      1.88  0.13    7   0.32
 1.500      1.93  0.11   11   0.22
 1.900      1.96  0.10   17   0.27
 2.400      2.11  0.08   24   0.33
 3.000      2.19  0.07   32   0.36
 3.500      2.24  0.04   37   0.47
 4.500      2.43  0.04  -69   0.18
 5.500      2.69  0.13  -87   0.06
!
! (c) 2015  Infineon Technologies AG, Munich
