! Infineon Technologies  Discrete & RF Semiconductors
! BFP405F
! VCE =  3.0 V,  IC =  24 mA
! Common Emitter S-Parameters:                            Nov 2015
# GHz  S  MA  R  50
!  f         S11            S21            S12            S22
! GHz     MAG   ANG      MAG   ANG      MAG   ANG      MAG   ANG
 0.030  0.5250   -3.5  29.727  176.3  0.0022   62.4  0.9602    0.2
 0.035  0.5230   -4.2  29.748  175.9  0.0013   49.8  0.9612   -0.2
 0.040  0.5211   -5.0  29.770  175.6  0.0007    6.5  0.9622   -0.6
 0.045  0.5209   -5.5  29.850  174.9  0.0018  168.2  0.9627   -0.7
 0.050  0.5207   -6.0  29.934  174.2  0.0042  171.2  0.9633   -0.7
 0.055  0.5208   -6.8  29.821  173.8  0.0009  148.4  0.9627   -1.1
 0.060  0.5211   -7.6  29.710  173.3  0.0026    7.2  0.9622   -1.5
 0.065  0.5201   -8.3  29.693  172.6  0.0025   47.3  0.9648   -1.8
 0.070  0.5191   -9.0  29.681  171.9  0.0035   75.9  0.9674   -2.1
 0.075  0.5202   -9.6  29.599  171.5  0.0034   86.8  0.9684   -2.3
 0.080  0.5213  -10.2  29.518  171.0  0.0034   98.0  0.9694   -2.5
 0.085  0.5210  -10.9  29.560  170.7  0.0022   94.3  0.9694   -2.7
 0.090  0.5208  -11.6  29.602  170.4  0.0011   82.9  0.9694   -3.0
 0.095  0.5205  -12.1  29.508  169.9  0.0018   67.5  0.9685   -3.3
 0.100  0.5203  -12.7  29.417  169.3  0.0026   61.0  0.9677   -3.7
 0.105  0.5185  -13.4  29.386  168.8  0.0029   66.5  0.9666   -3.8
 0.110  0.5167  -14.1  29.358  168.3  0.0033   70.8  0.9655   -4.0
 0.115  0.5156  -14.7  29.323  167.9  0.0035   80.6  0.9650   -4.1
 0.120  0.5146  -15.4  29.289  167.4  0.0037   89.4  0.9645   -4.3
 0.125  0.5152  -16.0  29.251  166.8  0.0041   71.8  0.9636   -4.6
 0.130  0.5159  -16.6  29.217  166.2  0.0048   58.3  0.9628   -4.9
 0.135  0.5135  -17.3  29.210  165.9  0.0048   68.7  0.9627   -5.1
 0.140  0.5111  -18.0  29.204  165.5  0.0049   78.9  0.9626   -5.3
 0.145  0.5094  -18.7  29.156  165.0  0.0045   85.3  0.9608   -5.5
 0.150  0.5077  -19.5  29.110  164.4  0.0042   92.8  0.9591   -5.7
 0.155  0.5062  -20.1  29.043  163.9  0.0043   92.4  0.9579   -5.9
 0.160  0.5048  -20.7  28.978  163.3  0.0044   92.1  0.9568   -6.1
 0.165  0.5034  -21.3  28.916  162.7  0.0046   91.7  0.9556   -6.4
 0.170  0.5021  -21.9  28.857  162.2  0.0047   91.4  0.9545   -6.6
 0.175  0.5009  -22.5  28.801  161.6  0.0048   91.1  0.9534   -6.8
 0.180  0.4997  -23.1  28.747  161.1  0.0049   90.8  0.9523   -7.0
 0.185  0.4986  -23.7  28.697  160.5  0.0050   90.5  0.9512   -7.2
 0.190  0.4975  -24.4  28.649  159.9  0.0052   90.3  0.9501   -7.5
 0.195  0.4965  -25.0  28.603  159.4  0.0053   90.0  0.9490   -7.7
 0.200  0.4955  -25.6  28.561  158.8  0.0054   89.8  0.9480   -7.9
 0.220  0.4900  -27.8  28.153  157.0  0.0061   85.5  0.9427   -8.6
 0.240  0.4853  -30.1  27.773  155.1  0.0067   82.0  0.9375   -9.3
 0.260  0.4798  -32.4  27.414  153.3  0.0073   79.4  0.9316  -10.1
 0.280  0.4734  -34.6  27.075  151.4  0.0077   77.3  0.9249  -10.8
 0.300  0.4676  -36.8  26.765  149.5  0.0081   75.5  0.9184  -11.5
 0.320  0.4601  -38.9  26.338  147.9  0.0083   74.7  0.9127  -12.1
 0.340  0.4533  -41.1  25.934  146.2  0.0085   74.0  0.9071  -12.6
 0.360  0.4467  -43.2  25.537  144.5  0.0088   75.1  0.9013  -13.2
 0.380  0.4403  -45.2  25.147  142.9  0.0092   77.8  0.8953  -13.7
 0.400  0.4344  -47.2  24.778  141.2  0.0097   80.3  0.8894  -14.3
 0.420  0.4285  -49.1  24.363  139.8  0.0098   78.3  0.8823  -14.8
 0.440  0.4231  -51.1  23.964  138.3  0.0099   76.3  0.8752  -15.3
 0.450  0.4206  -52.1  23.771  137.5  0.0100   75.3  0.8717  -15.5
 0.460  0.4168  -53.0  23.560  136.8  0.0103   74.6  0.8682  -15.7
 0.480  0.4094  -54.8  23.149  135.4  0.0110   73.2  0.8612  -16.2
 0.500  0.4025  -56.6  22.752  134.0  0.0116   72.0  0.8542  -16.7
 0.520  0.3955  -58.3  22.351  132.8  0.0118   72.0  0.8482  -17.0
 0.540  0.3889  -60.0  21.959  131.6  0.0120   72.0  0.8421  -17.4
 0.560  0.3827  -61.8  21.579  130.3  0.0123   72.1  0.8362  -17.8
 0.580  0.3768  -63.6  21.209  129.0  0.0125   72.1  0.8302  -18.1
 0.600  0.3713  -65.5  20.851  127.6  0.0127   72.1  0.8243  -18.5
 0.620  0.3653  -66.9  20.501  126.6  0.0130   72.0  0.8186  -18.8
 0.640  0.3595  -68.4  20.157  125.6  0.0134   72.0  0.8130  -19.0
 0.660  0.3539  -69.9  19.821  124.5  0.0137   71.9  0.8074  -19.3
 0.680  0.3486  -71.4  19.491  123.4  0.0141   71.9  0.8018  -19.6
 0.700  0.3436  -73.0  19.168  122.3  0.0144   71.8  0.7962  -19.9
 0.720  0.3383  -74.4  18.833  121.4  0.0147   71.8  0.7910  -20.2
 0.740  0.3332  -75.8  18.503  120.4  0.0150   71.8  0.7859  -20.4
 0.760  0.3284  -77.3  18.179  119.5  0.0153   71.9  0.7808  -20.7
 0.780  0.3237  -78.8  17.859  118.5  0.0156   71.9  0.7757  -20.9
 0.800  0.3193  -80.3  17.546  117.4  0.0159   71.9  0.7706  -21.2
 0.820  0.3145  -81.5  17.270  116.6  0.0162   71.9  0.7662  -21.4
 0.840  0.3099  -82.7  16.998  115.8  0.0165   72.0  0.7618  -21.6
 0.860  0.3054  -84.0  16.729  115.0  0.0168   72.0  0.7574  -21.9
 0.880  0.3011  -85.3  16.463  114.1  0.0171   72.1  0.7530  -22.1
 0.900  0.2969  -86.7  16.202  113.2  0.0174   72.1  0.7486  -22.3
 0.920  0.2932  -87.9  15.948  112.5  0.0178   72.2  0.7444  -22.5
 0.940  0.2896  -89.2  15.696  111.8  0.0182   72.3  0.7402  -22.7
 0.960  0.2862  -90.5  15.447  111.1  0.0187   72.4  0.7360  -23.0
 0.980  0.2829  -91.8  15.201  110.3  0.0191   72.5  0.7318  -23.2
 1.000  0.2798  -93.2  14.957  109.5  0.0195   72.6  0.7276  -23.4
 1.020  0.2763  -94.3  14.735  108.9  0.0198   72.3  0.7239  -23.6
 1.040  0.2730  -95.4  14.516  108.2  0.0201   72.0  0.7203  -23.7
 1.060  0.2697  -96.5  14.298  107.6  0.0204   71.7  0.7166  -23.9
 1.080  0.2665  -97.7  14.082  106.9  0.0207   71.5  0.7129  -24.0
 1.100  0.2635  -98.9  13.868  106.2  0.0210   71.2  0.7093  -24.2
 1.120  0.2609 -100.1  13.676  105.6  0.0212   71.4  0.7059  -24.3
 1.140  0.2584 -101.3  13.485  105.0  0.0214   71.5  0.7025  -24.5
 1.160  0.2560 -102.5  13.296  104.4  0.0217   71.7  0.6991  -24.6
 1.180  0.2537 -103.7  13.108  103.8  0.0219   71.8  0.6957  -24.8
 1.200  0.2516 -105.0  12.922  103.1  0.0221   72.0  0.6923  -24.9
 1.220  0.2490 -106.0  12.748  102.6  0.0224   72.1  0.6892  -25.1
 1.240  0.2465 -107.0  12.575  102.0  0.0228   72.1  0.6860  -25.3
 1.260  0.2440 -108.1  12.404  101.4  0.0231   72.2  0.6829  -25.4
 1.280  0.2417 -109.1  12.234  100.8  0.0235   72.2  0.6798  -25.6
 1.300  0.2394 -110.2  12.065  100.2  0.0238   72.3  0.6767  -25.8
 1.320  0.2377 -111.2  11.910   99.7  0.0241   72.2  0.6739  -26.0
 1.340  0.2361 -112.2  11.756   99.3  0.0244   72.0  0.6710  -26.1
 1.360  0.2346 -113.2  11.602   98.8  0.0248   71.9  0.6682  -26.3
 1.380  0.2332 -114.3  11.450   98.3  0.0251   71.7  0.6654  -26.4
 1.400  0.2318 -115.3  11.298   97.8  0.0254   71.6  0.6626  -26.6
 1.420  0.2299 -116.3  11.161   97.4  0.0257   71.8  0.6601  -26.7
 1.440  0.2281 -117.3  11.025   96.9  0.0261   72.1  0.6576  -26.8
 1.460  0.2264 -118.4  10.889   96.5  0.0264   72.3  0.6550  -27.0
 1.480  0.2248 -119.4  10.754   96.0  0.0268   72.5  0.6525  -27.1
 1.500  0.2232 -120.5  10.620   95.5  0.0271   72.7  0.6500  -27.2
 1.520  0.2220 -121.5  10.499   95.1  0.0273   72.6  0.6475  -27.3
 1.540  0.2209 -122.5  10.378   94.7  0.0274   72.5  0.6449  -27.5
 1.560  0.2198 -123.5  10.258   94.2  0.0276   72.5  0.6424  -27.6
 1.580  0.2188 -124.5  10.138   93.8  0.0277   72.4  0.6399  -27.8
 1.600  0.2179 -125.5  10.019   93.3  0.0279   72.3  0.6374  -27.9
 1.620  0.2167 -126.3   9.903   92.9  0.0283   72.2  0.6349  -28.0
 1.640  0.2155 -127.1   9.788   92.5  0.0287   72.1  0.6324  -28.2
 1.660  0.2144 -127.9   9.674   92.1  0.0291   72.1  0.6299  -28.3
 1.680  0.2133 -128.7   9.560   91.7  0.0295   72.0  0.6275  -28.5
 1.700  0.2123 -129.5   9.446   91.3  0.0299   71.9  0.6250  -28.6
 1.720  0.2115 -130.5   9.346   90.9  0.0302   71.9  0.6227  -28.8
 1.740  0.2108 -131.4   9.245   90.5  0.0305   71.9  0.6205  -28.9
 1.760  0.2101 -132.4   9.146   90.1  0.0307   71.9  0.6182  -29.1
 1.780  0.2095 -133.4   9.047   89.7  0.0310   71.9  0.6160  -29.2
 1.800  0.2089 -134.4   8.948   89.3  0.0313   71.9  0.6137  -29.4
 1.820  0.2082 -135.1   8.859   89.0  0.0316   72.0  0.6114  -29.5
 1.840  0.2075 -135.9   8.770   88.6  0.0318   72.1  0.6091  -29.7
 1.860  0.2068 -136.6   8.681   88.3  0.0321   72.2  0.6068  -29.8
 1.880  0.2062 -137.4   8.593   88.0  0.0323   72.3  0.6045  -30.0
 1.900  0.2056 -138.1   8.505   87.6  0.0326   72.4  0.6022  -30.1
 1.920  0.2057 -139.0   8.425   87.3  0.0329   72.0  0.6006  -30.3
 1.940  0.2058 -139.8   8.345   86.9  0.0332   71.7  0.5991  -30.5
 1.960  0.2059 -140.7   8.265   86.5  0.0335   71.3  0.5976  -30.8
 1.980  0.2061 -141.5   8.186   86.2  0.0338   70.9  0.5960  -31.0
 2.000  0.2064 -142.4   8.107   85.8  0.0341   70.6  0.5945  -31.2
 2.020  0.2058 -143.2   8.030   85.5  0.0344   70.8  0.5926  -31.3
 2.040  0.2053 -143.9   7.953   85.1  0.0347   71.0  0.5906  -31.5
 2.060  0.2049 -144.7   7.876   84.8  0.0350   71.1  0.5887  -31.6
 2.080  0.2044 -145.4   7.799   84.5  0.0353   71.3  0.5867  -31.8
 2.100  0.2040 -146.2   7.723   84.1  0.0356   71.5  0.5848  -31.9
 2.120  0.2036 -147.0   7.651   83.8  0.0360   71.6  0.5830  -32.1
 2.140  0.2033 -147.7   7.580   83.4  0.0364   71.7  0.5811  -32.2
 2.160  0.2029 -148.5   7.509   83.1  0.0368   71.9  0.5793  -32.4
 2.180  0.2026 -149.2   7.438   82.8  0.0372   72.0  0.5775  -32.5
 2.200  0.2024 -150.0   7.368   82.4  0.0376   72.1  0.5757  -32.7
 2.220  0.2023 -150.6   7.303   82.1  0.0380   71.9  0.5742  -32.8
 2.240  0.2022 -151.3   7.238   81.9  0.0383   71.6  0.5726  -33.0
 2.260  0.2022 -151.9   7.174   81.6  0.0387   71.4  0.5711  -33.1
 2.280  0.2022 -152.6   7.109   81.3  0.0390   71.1  0.5695  -33.3
 2.300  0.2022 -153.2   7.045   81.0  0.0394   70.9  0.5680  -33.4
 2.320  0.2018 -153.9   6.986   80.7  0.0396   70.9  0.5663  -33.6
 2.340  0.2015 -154.5   6.928   80.4  0.0398   70.9  0.5646  -33.7
 2.360  0.2012 -155.2   6.870   80.1  0.0401   70.8  0.5629  -33.9
 2.380  0.2009 -155.8   6.812   79.8  0.0403   70.8  0.5613  -34.0
 2.400  0.2007 -156.5   6.754   79.5  0.0405   70.8  0.5596  -34.2
 2.420  0.2006 -157.1   6.697   79.2  0.0408   71.0  0.5586  -34.3
 2.440  0.2006 -157.7   6.641   79.0  0.0410   71.2  0.5576  -34.5
 2.460  0.2005 -158.3   6.585   78.7  0.0413   71.3  0.5566  -34.6
 2.480  0.2005 -158.9   6.529   78.4  0.0415   71.5  0.5556  -34.8
 2.500  0.2005 -159.5   6.473   78.1  0.0418   71.7  0.5546  -34.9
 2.520  0.2002 -160.1   6.421   77.8  0.0422   71.3  0.5534  -35.0
 2.540  0.2000 -160.7   6.369   77.6  0.0425   71.0  0.5522  -35.1
 2.560  0.1998 -161.3   6.317   77.3  0.0429   70.7  0.5509  -35.3
 2.580  0.1996 -161.9   6.265   77.1  0.0432   70.3  0.5497  -35.4
 2.600  0.1994 -162.5   6.213   76.8  0.0436   70.0  0.5485  -35.5
 2.620  0.1995 -163.0   6.167   76.5  0.0440   70.0  0.5472  -35.6
 2.640  0.1997 -163.6   6.121   76.3  0.0444   70.0  0.5459  -35.7
 2.660  0.1999 -164.1   6.075   76.0  0.0448   70.1  0.5446  -35.9
 2.680  0.2001 -164.7   6.029   75.8  0.0452   70.1  0.5433  -36.0
 2.700  0.2003 -165.2   5.983   75.5  0.0456   70.1  0.5420  -36.1
 2.720  0.2001 -165.7   5.940   75.2  0.0459   70.0  0.5409  -36.3
 2.740  0.1999 -166.2   5.897   75.0  0.0462   69.9  0.5398  -36.4
 2.760  0.1997 -166.7   5.854   74.7  0.0465   69.9  0.5387  -36.6
 2.780  0.1995 -167.2   5.812   74.5  0.0468   69.8  0.5376  -36.7
 2.800  0.1994 -167.7   5.769   74.2  0.0471   69.7  0.5365  -36.9
 2.820  0.1995 -168.2   5.726   74.0  0.0474   69.8  0.5357  -37.0
 2.840  0.1995 -168.6   5.684   73.7  0.0476   69.9  0.5348  -37.1
 2.860  0.1996 -169.1   5.642   73.5  0.0479   70.1  0.5340  -37.3
 2.880  0.1997 -169.5   5.599   73.2  0.0481   70.2  0.5331  -37.4
 2.900  0.1998 -170.0   5.557   73.0  0.0484   70.3  0.5323  -37.5
 2.920  0.1996 -170.6   5.519   72.8  0.0488   70.1  0.5311  -37.6
 2.940  0.1995 -171.1   5.482   72.5  0.0492   69.9  0.5300  -37.7
 2.960  0.1994 -171.7   5.444   72.3  0.0496   69.8  0.5288  -37.9
 2.980  0.1993 -172.2   5.406   72.0  0.0500   69.6  0.5277  -38.0
 3.000  0.1992 -172.8   5.369   71.8  0.0504   69.4  0.5265  -38.1
 3.100  0.2008 -174.9   5.186   70.6  0.0521   69.1  0.5225  -38.7
 3.200  0.2005 -177.7   5.016   69.5  0.0535   68.3  0.5179  -39.5
 3.300  0.2007 -179.5   4.864   68.3  0.0554   68.8  0.5147  -40.0
 3.400  0.2020  177.8   4.708   67.3  0.0562   68.5  0.5118  -40.7
 3.500  0.2021  175.9   4.575   66.2  0.0586   68.2  0.5087  -41.2
 3.600  0.2021  173.7   4.436   65.2  0.0598   68.1  0.5060  -41.6
 3.700  0.2032  171.4   4.312   64.2  0.0617   67.6  0.5027  -42.1
 3.800  0.2048  169.5   4.192   63.2  0.0632   67.0  0.5011  -42.6
 3.900  0.2053  167.6   4.086   62.1  0.0650   66.7  0.4984  -43.2
 4.000  0.2057  165.8   3.980   61.2  0.0667   66.6  0.4960  -43.7
 4.100  0.2076  163.8   3.881   60.2  0.0684   66.4  0.4927  -44.2
 4.200  0.2087  161.5   3.784   59.4  0.0700   65.7  0.4900  -44.6
 4.300  0.2120  160.2   3.699   58.3  0.0716   65.5  0.4877  -45.2
 4.400  0.2126  158.1   3.613   57.5  0.0731   65.0  0.4852  -45.6
 4.500  0.2149  156.8   3.529   56.6  0.0749   64.5  0.4835  -45.9
 4.600  0.2165  154.7   3.450   55.6  0.0763   64.0  0.4807  -46.4
 4.700  0.2189  153.7   3.376   54.7  0.0779   64.0  0.4772  -46.8
 4.800  0.2218  151.7   3.309   53.8  0.0799   63.4  0.4755  -47.3
 4.900  0.2231  150.7   3.239   52.9  0.0813   63.2  0.4725  -47.7
 5.000  0.2253  149.1   3.176   52.0  0.0834   62.6  0.4705  -48.2
 5.100  0.2265  147.6   3.112   51.1  0.0846   62.3  0.4679  -48.6
 5.200  0.2293  146.3   3.055   50.1  0.0865   61.8  0.4651  -49.0
 5.300  0.2311  144.9   2.996   49.2  0.0885   61.2  0.4622  -49.6
 5.400  0.2320  143.8   2.943   48.4  0.0903   61.0  0.4609  -50.0
 5.500  0.2348  142.4   2.890   47.5  0.0921   60.5  0.4585  -50.3
 5.600  0.2353  141.0   2.839   46.6  0.0935   59.9  0.4560  -50.8
 5.700  0.2380  139.7   2.789   45.7  0.0950   59.7  0.4532  -51.2
 5.800  0.2395  138.5   2.744   44.8  0.0968   59.3  0.4515  -51.6
 5.900  0.2412  137.0   2.697   44.0  0.0981   58.6  0.4494  -52.0
 6.000  0.2421  135.6   2.652   43.1  0.1005   58.1  0.4479  -52.4
 6.100  0.2443  134.3   2.606   42.2  0.1022   58.0  0.4445  -52.7
 6.200  0.2460  132.9   2.564   41.3  0.1032   57.6  0.4428  -53.2
 6.300  0.2486  131.4   2.524   40.5  0.1049   57.2  0.4396  -53.5
 6.400  0.2484  129.9   2.485   39.6  0.1070   56.7  0.4378  -54.0
 6.500  0.2514  128.2   2.444   38.7  0.1083   56.5  0.4355  -54.3
 6.600  0.2532  126.9   2.408   37.9  0.1103   55.8  0.4327  -54.7
 6.800  0.2579  123.8   2.335   36.2  0.1135   54.9  0.4280  -55.2
 7.000  0.2628  120.7   2.268   34.5  0.1169   54.3  0.4225  -55.5
 7.200  0.2701  118.0   2.202   33.0  0.1202   53.6  0.4143  -56.0
 7.400  0.2790  115.7   2.144   31.5  0.1247   52.9  0.4066  -56.6
 7.600  0.2877  113.6   2.088   30.0  0.1285   52.0  0.3974  -57.0
 7.800  0.2985  111.9   2.038   28.4  0.1323   50.8  0.3866  -57.5
 8.000  0.3106  110.5   1.991   26.9  0.1363   50.0  0.3738  -58.2
 8.200  0.3245  109.5   1.949   25.4  0.1402   48.9  0.3571  -58.9
 8.400  0.3385  108.5   1.909   23.9  0.1441   47.9  0.3404  -59.6
 8.600  0.3526  107.8   1.870   22.3  0.1482   46.9  0.3215  -60.4
 8.800  0.3669  107.1   1.835   20.7  0.1524   45.9  0.3002  -61.3
 9.000  0.3812  106.5   1.800   19.1  0.1566   44.9  0.2791  -62.4
 9.200  0.3943  105.8   1.768   17.6  0.1606   43.7  0.2560  -64.0
 9.400  0.4074  105.2   1.737   16.0  0.1646   42.6  0.2331  -65.8
 9.600  0.4199  104.5   1.708   14.4  0.1690   41.5  0.2094  -68.3
 9.800  0.4316  103.7   1.681   12.7  0.1737   40.3  0.1850  -71.5
10.000  0.4435  103.0   1.655   10.9  0.1785   39.1  0.1613  -75.7
10.200  0.4553  101.7   1.627    9.2  0.1822   37.6  0.1361  -81.9
10.400  0.4673  100.4   1.601    7.4  0.1860   36.2  0.1133  -90.8
10.600  0.4787   98.9   1.574    5.6  0.1895   34.7  0.0955 -104.3
10.800  0.4896   97.2   1.544    3.6  0.1927   33.2  0.0863 -122.8
11.000  0.5010   95.6   1.517    1.6  0.1960   31.7  0.0875 -143.0
11.200  0.5102   93.7   1.481   -0.2  0.1984   30.4  0.1039 -157.6
11.400  0.5200   92.0   1.447   -2.0  0.2008   29.1  0.1251 -167.8
11.600  0.5269   90.5   1.413   -3.6  0.2033   28.0  0.1500 -173.1
11.800  0.5308   89.2   1.380   -5.0  0.2057   27.1  0.1766 -175.5
12.000  0.5350   87.9   1.348   -6.4  0.2082   26.2  0.2035 -177.3
!
!  f       NFmin   Gammaopt  rn/50
! GHz       dB    MAG  ANG    -
 0.450      2.43  0.04 -155   0.42
 0.900      2.46  0.05 -147   0.25
 1.500      2.53  0.09 -136   0.33
 1.900      2.62  0.10 -132   0.40
 2.400      2.79  0.12 -128   0.18
 3.000      2.92  0.13 -125   0.16
 3.500      3.04  0.14 -122   0.26
 4.500      3.34  0.18 -108   0.56
 5.500      3.72  0.34  -88   0.53
!
! (c) 2015  Infineon Technologies AG, Munich
