! Infineon Technologies  Discrete & RF Semiconductors
! BFP420
! VCE =  4.5 V,  IC =  2.0 mA
! Common Emitter S-Parameters:                            Jan 2016
# GHz  S  MA  R  50
!  f         S11            S21            S12            S22
! GHz     MAG   ANG      MAG   ANG      MAG   ANG      MAG   ANG
 0.010  0.9501   -1.0   7.155  179.1  0.0010   23.5  0.9917    0.1
 0.015  0.9502   -1.3   7.047  179.1  0.0014   50.5  0.9914   -0.3
 0.020  0.9503   -1.5   6.940  179.0  0.0020   63.6  0.9911   -0.7
 0.025  0.9491   -1.8   6.944  178.7  0.0024   66.9  0.9912   -0.9
 0.030  0.9480   -2.2   6.949  178.3  0.0028   69.2  0.9912   -1.1
 0.035  0.9468   -2.5   6.954  178.0  0.0032   70.9  0.9913   -1.3
 0.040  0.9458   -2.9   6.959  177.7  0.0037   72.2  0.9914   -1.4
 0.045  0.9447   -3.2   6.964  177.3  0.0041   73.2  0.9915   -1.6
 0.050  0.9437   -3.6   6.970  177.0  0.0045   74.1  0.9916   -1.8
 0.055  0.9438   -4.0   6.972  176.7  0.0049   75.2  0.9915   -2.0
 0.060  0.9439   -4.4   6.975  176.5  0.0054   76.2  0.9913   -2.2
 0.065  0.9441   -4.7   6.977  176.2  0.0058   77.0  0.9912   -2.4
 0.070  0.9443   -5.1   6.980  175.9  0.0062   77.7  0.9911   -2.6
 0.075  0.9445   -5.5   6.983  175.6  0.0066   78.3  0.9910   -2.8
 0.080  0.9448   -5.9   6.986  175.4  0.0071   78.9  0.9909   -3.0
 0.085  0.9452   -6.3   6.989  175.1  0.0075   79.4  0.9908   -3.2
 0.090  0.9455   -6.6   6.993  174.8  0.0079   79.8  0.9908   -3.4
 0.095  0.9459   -7.0   6.996  174.6  0.0084   80.2  0.9907   -3.6
 0.100  0.9464   -7.4   7.000  174.3  0.0088   80.5  0.9907   -3.8
 0.105  0.9460   -7.8   6.999  174.0  0.0092   80.5  0.9904   -4.0
 0.110  0.9456   -8.1   6.998  173.7  0.0097   80.4  0.9900   -4.2
 0.115  0.9453   -8.5   6.997  173.4  0.0101   80.4  0.9897   -4.4
 0.120  0.9450   -8.8   6.997  173.1  0.0105   80.4  0.9894   -4.6
 0.125  0.9447   -9.2   6.996  172.9  0.0109   80.3  0.9891   -4.8
 0.130  0.9445   -9.6   6.996  172.6  0.0114   80.3  0.9889   -5.0
 0.135  0.9443   -9.9   6.996  172.3  0.0118   80.3  0.9886   -5.2
 0.140  0.9441  -10.3   6.996  172.0  0.0122   80.2  0.9884   -5.4
 0.145  0.9440  -10.6   6.996  171.7  0.0127   80.2  0.9881   -5.6
 0.150  0.9439  -11.0   6.997  171.4  0.0131   80.2  0.9879   -5.8
 0.155  0.9436  -11.4   6.994  171.1  0.0135   80.1  0.9875   -6.0
 0.160  0.9434  -11.7   6.990  170.8  0.0140   79.9  0.9871   -6.2
 0.165  0.9432  -12.1   6.987  170.6  0.0144   79.8  0.9867   -6.4
 0.170  0.9431  -12.4   6.984  170.3  0.0149   79.7  0.9864   -6.6
 0.175  0.9429  -12.8   6.981  170.0  0.0153   79.6  0.9860   -6.7
 0.180  0.9429  -13.2   6.979  169.7  0.0157   79.5  0.9857   -6.9
 0.185  0.9428  -13.5   6.976  169.4  0.0162   79.4  0.9853   -7.1
 0.190  0.9428  -13.9   6.974  169.2  0.0166   79.4  0.9850   -7.3
 0.195  0.9428  -14.2   6.972  168.9  0.0171   79.3  0.9847   -7.5
 0.200  0.9429  -14.6   6.970  168.6  0.0175   79.2  0.9844   -7.7
 0.220  0.9406  -16.1   6.949  167.4  0.0192   78.5  0.9826   -8.5
 0.240  0.9390  -17.6   6.932  166.2  0.0209   77.9  0.9810   -9.2
 0.260  0.9372  -19.0   6.919  165.1  0.0227   77.2  0.9790  -10.0
 0.280  0.9354  -20.5   6.911  164.0  0.0244   76.5  0.9766  -10.7
 0.300  0.9341  -21.9   6.906  162.9  0.0261   75.9  0.9744  -11.5
 0.320  0.9314  -23.4   6.887  161.8  0.0278   75.1  0.9717  -12.2
 0.340  0.9294  -24.9   6.870  160.7  0.0295   74.3  0.9692  -12.9
 0.360  0.9273  -26.3   6.849  159.6  0.0311   73.6  0.9664  -13.7
 0.380  0.9251  -27.8   6.825  158.5  0.0327   72.9  0.9632  -14.4
 0.400  0.9235  -29.2   6.804  157.4  0.0343   72.2  0.9602  -15.2
 0.420  0.9204  -30.6   6.779  156.3  0.0359   71.4  0.9570  -15.9
 0.440  0.9179  -32.0   6.757  155.2  0.0376   70.7  0.9540  -16.6
 0.450  0.9169  -32.7   6.747  154.6  0.0384   70.4  0.9525  -17.0
 0.460  0.9152  -33.4   6.732  154.1  0.0392   70.0  0.9505  -17.4
 0.480  0.9122  -34.9   6.704  153.0  0.0407   69.2  0.9467  -18.1
 0.500  0.9098  -36.3   6.678  151.9  0.0423   68.5  0.9431  -18.8
 0.520  0.9056  -37.7   6.643  150.8  0.0438   67.7  0.9389  -19.5
 0.540  0.9020  -39.1   6.610  149.7  0.0453   66.9  0.9348  -20.2
 0.560  0.8989  -40.5   6.579  148.6  0.0468   66.1  0.9309  -20.9
 0.580  0.8964  -42.0   6.552  147.5  0.0483   65.4  0.9271  -21.6
 0.600  0.8944  -43.4   6.526  146.4  0.0498   64.8  0.9235  -22.3
 0.620  0.8900  -44.8   6.490  145.4  0.0512   64.0  0.9187  -23.0
 0.640  0.8861  -46.2   6.456  144.4  0.0526   63.2  0.9141  -23.7
 0.660  0.8828  -47.6   6.424  143.4  0.0540   62.4  0.9097  -24.4
 0.680  0.8800  -49.0   6.395  142.3  0.0554   61.7  0.9053  -25.1
 0.700  0.8777  -50.4   6.367  141.3  0.0568   61.0  0.9011  -25.8
 0.720  0.8732  -51.7   6.322  140.3  0.0581   60.2  0.8962  -26.4
 0.740  0.8692  -53.1   6.279  139.3  0.0594   59.5  0.8914  -27.1
 0.760  0.8656  -54.4   6.238  138.3  0.0607   58.8  0.8867  -27.7
 0.780  0.8626  -55.8   6.199  137.3  0.0620   58.1  0.8821  -28.3
 0.800  0.8600  -57.2   6.162  136.3  0.0633   57.5  0.8776  -29.0
 0.820  0.8554  -58.5   6.121  135.4  0.0645   56.8  0.8724  -29.6
 0.840  0.8512  -59.8   6.082  134.4  0.0656   56.1  0.8674  -30.2
 0.860  0.8474  -61.2   6.045  133.5  0.0668   55.4  0.8624  -30.8
 0.880  0.8442  -62.5   6.009  132.5  0.0680   54.7  0.8575  -31.4
 0.900  0.8414  -63.9   5.975  131.5  0.0692   54.1  0.8527  -32.0
 0.920  0.8371  -65.2   5.932  130.6  0.0703   53.4  0.8474  -32.6
 0.940  0.8332  -66.5   5.890  129.7  0.0714   52.8  0.8422  -33.2
 0.960  0.8297  -67.8   5.850  128.8  0.0725   52.1  0.8371  -33.8
 0.980  0.8267  -69.1   5.812  127.8  0.0736   51.5  0.8320  -34.4
 1.000  0.8241  -70.4   5.775  126.9  0.0747   50.9  0.8271  -35.0
 1.020  0.8197  -71.6   5.732  126.1  0.0757   50.2  0.8219  -35.5
 1.040  0.8157  -72.9   5.691  125.2  0.0767   49.6  0.8167  -36.1
 1.060  0.8121  -74.1   5.651  124.4  0.0777   49.0  0.8117  -36.7
 1.080  0.8088  -75.4   5.612  123.5  0.0787   48.4  0.8067  -37.2
 1.100  0.8060  -76.7   5.574  122.6  0.0797   47.8  0.8018  -37.8
 1.120  0.8018  -77.9   5.532  121.7  0.0806   47.2  0.7964  -38.3
 1.140  0.7980  -79.2   5.491  120.9  0.0815   46.6  0.7911  -38.9
 1.160  0.7946  -80.4   5.451  120.0  0.0824   46.0  0.7858  -39.4
 1.180  0.7915  -81.7   5.412  119.1  0.0833   45.4  0.7806  -39.9
 1.200  0.7889  -83.0   5.375  118.2  0.0842   44.8  0.7755  -40.5
 1.220  0.7851  -84.2   5.334  117.4  0.0850   44.2  0.7704  -41.0
 1.240  0.7816  -85.3   5.294  116.6  0.0858   43.6  0.7654  -41.5
 1.260  0.7785  -86.5   5.256  115.8  0.0866   43.1  0.7604  -42.0
 1.280  0.7757  -87.7   5.218  115.0  0.0875   42.5  0.7555  -42.5
 1.300  0.7732  -88.9   5.181  114.2  0.0883   42.0  0.7507  -43.0
 1.320  0.7693  -90.1   5.141  113.4  0.0890   41.4  0.7456  -43.5
 1.340  0.7657  -91.3   5.103  112.6  0.0897   40.9  0.7405  -44.0
 1.360  0.7625  -92.5   5.065  111.8  0.0904   40.4  0.7355  -44.5
 1.380  0.7596  -93.7   5.029  111.0  0.0912   39.8  0.7306  -45.0
 1.400  0.7570  -94.9   4.993  110.2  0.0919   39.3  0.7257  -45.5
 1.420  0.7536  -96.0   4.956  109.5  0.0925   38.8  0.7207  -45.9
 1.440  0.7504  -97.1   4.919  108.8  0.0932   38.3  0.7158  -46.4
 1.460  0.7475  -98.2   4.883  108.1  0.0939   37.8  0.7109  -46.8
 1.480  0.7449  -99.4   4.848  107.3  0.0945   37.3  0.7061  -47.2
 1.500  0.7426 -100.5   4.814  106.6  0.0952   36.8  0.7013  -47.7
 1.520  0.7396 -101.6   4.777  105.9  0.0957   36.3  0.6965  -48.1
 1.540  0.7368 -102.7   4.742  105.1  0.0963   35.8  0.6918  -48.6
 1.560  0.7343 -103.8   4.706  104.4  0.0969   35.3  0.6871  -49.0
 1.580  0.7321 -104.9   4.672  103.6  0.0974   34.8  0.6824  -49.4
 1.600  0.7301 -106.0   4.639  102.8  0.0980   34.3  0.6778  -49.9
 1.620  0.7266 -107.1   4.605  102.1  0.0985   33.8  0.6732  -50.3
 1.640  0.7233 -108.2   4.571  101.5  0.0991   33.4  0.6687  -50.7
 1.660  0.7204 -109.3   4.539  100.8  0.0997   32.9  0.6641  -51.1
 1.680  0.7176 -110.4   4.507  100.1  0.1002   32.4  0.6597  -51.5
 1.700  0.7152 -111.5   4.475   99.4  0.1008   32.0  0.6552  -51.9
 1.720  0.7124 -112.5   4.439   98.7  0.1012   31.6  0.6508  -52.3
 1.740  0.7099 -113.5   4.404   98.1  0.1016   31.1  0.6464  -52.7
 1.760  0.7075 -114.5   4.369   97.4  0.1020   30.7  0.6421  -53.1
 1.780  0.7054 -115.5   4.335   96.7  0.1025   30.2  0.6378  -53.5
 1.800  0.7035 -116.5   4.301   96.0  0.1029   29.8  0.6335  -53.9
 1.820  0.7009 -117.5   4.270   95.4  0.1033   29.4  0.6290  -54.3
 1.840  0.6986 -118.6   4.241   94.7  0.1038   28.9  0.6246  -54.7
 1.860  0.6965 -119.7   4.211   94.0  0.1042   28.5  0.6202  -55.1
 1.880  0.6946 -120.7   4.182   93.4  0.1046   28.1  0.6158  -55.5
 1.900  0.6930 -121.8   4.154   92.7  0.1051   27.7  0.6115  -55.9
 1.920  0.6905 -122.7   4.123   92.1  0.1054   27.3  0.6076  -56.2
 1.940  0.6881 -123.7   4.092   91.5  0.1058   26.9  0.6037  -56.5
 1.960  0.6859 -124.6   4.061   90.9  0.1061   26.5  0.5999  -56.8
 1.980  0.6839 -125.5   4.031   90.3  0.1064   26.1  0.5960  -57.2
 2.000  0.6821 -126.5   4.002   89.7  0.1068   25.7  0.5922  -57.5
 2.020  0.6793 -127.5   3.974   89.1  0.1071   25.3  0.5882  -57.8
 2.040  0.6766 -128.4   3.945   88.6  0.1074   24.9  0.5842  -58.2
 2.060  0.6742 -129.4   3.918   88.0  0.1077   24.6  0.5802  -58.5
 2.080  0.6719 -130.3   3.891   87.4  0.1079   24.2  0.5762  -58.8
 2.100  0.6698 -131.3   3.864   86.8  0.1082   23.8  0.5722  -59.2
 2.120  0.6680 -132.3   3.837   86.2  0.1085   23.5  0.5683  -59.5
 2.140  0.6663 -133.3   3.811   85.6  0.1089   23.1  0.5644  -59.9
 2.160  0.6648 -134.3   3.786   85.0  0.1092   22.7  0.5605  -60.3
 2.180  0.6636 -135.3   3.761   84.3  0.1095   22.4  0.5566  -60.6
 2.200  0.6625 -136.3   3.736   83.7  0.1098   22.0  0.5528  -61.0
 2.220  0.6602 -137.2   3.710   83.2  0.1100   21.6  0.5491  -61.3
 2.240  0.6581 -138.1   3.684   82.6  0.1102   21.3  0.5453  -61.6
 2.260  0.6562 -139.0   3.658   82.1  0.1104   20.9  0.5416  -61.9
 2.280  0.6544 -140.0   3.633   81.5  0.1106   20.5  0.5379  -62.3
 2.300  0.6528 -140.9   3.608   80.9  0.1108   20.2  0.5342  -62.6
 2.320  0.6514 -141.8   3.583   80.4  0.1111   19.8  0.5306  -62.9
 2.340  0.6502 -142.8   3.559   79.8  0.1113   19.5  0.5269  -63.3
 2.360  0.6491 -143.7   3.535   79.2  0.1115   19.1  0.5233  -63.6
 2.380  0.6482 -144.7   3.511   78.6  0.1118   18.8  0.5197  -63.9
 2.400  0.6475 -145.6   3.488   78.0  0.1120   18.4  0.5161  -64.3
 2.420  0.6458 -146.5   3.464   77.5  0.1121   18.1  0.5126  -64.6
 2.440  0.6443 -147.4   3.441   77.0  0.1123   17.8  0.5092  -64.9
 2.460  0.6430 -148.3   3.418   76.5  0.1124   17.4  0.5057  -65.2
 2.480  0.6418 -149.2   3.395   76.0  0.1125   17.1  0.5023  -65.5
 2.500  0.6407 -150.1   3.373   75.4  0.1127   16.8  0.4989  -65.8
 2.520  0.6399 -151.0   3.351   74.9  0.1128   16.5  0.4955  -66.2
 2.540  0.6391 -151.9   3.329   74.4  0.1129   16.2  0.4921  -66.5
 2.560  0.6386 -152.9   3.307   73.8  0.1131   15.8  0.4887  -66.8
 2.580  0.6382 -153.8   3.286   73.3  0.1132   15.5  0.4853  -67.2
 2.600  0.6380 -154.7   3.265   72.7  0.1134   15.2  0.4820  -67.5
 2.620  0.6365 -155.5   3.243   72.2  0.1135   14.9  0.4788  -67.8
 2.640  0.6352 -156.4   3.222   71.8  0.1135   14.6  0.4757  -68.1
 2.660  0.6340 -157.2   3.200   71.3  0.1136   14.4  0.4725  -68.4
 2.680  0.6330 -158.0   3.179   70.8  0.1137   14.1  0.4694  -68.7
 2.700  0.6320 -158.9   3.158   70.3  0.1138   13.8  0.4663  -68.9
 2.720  0.6313 -159.7   3.138   69.8  0.1138   13.5  0.4632  -69.3
 2.740  0.6306 -160.6   3.118   69.3  0.1139   13.2  0.4601  -69.6
 2.760  0.6301 -161.4   3.097   68.8  0.1140   13.0  0.4570  -69.9
 2.780  0.6297 -162.3   3.078   68.2  0.1141   12.7  0.4540  -70.2
 2.800  0.6295 -163.1   3.058   67.7  0.1142   12.4  0.4509  -70.5
 2.820  0.6287 -163.9   3.039   67.2  0.1142   12.1  0.4480  -70.8
 2.840  0.6279 -164.7   3.021   66.8  0.1143   11.9  0.4452  -71.0
 2.860  0.6273 -165.5   3.002   66.3  0.1143   11.6  0.4423  -71.3
 2.880  0.6269 -166.2   2.984   65.8  0.1143   11.4  0.4395  -71.6
 2.900  0.6265 -167.0   2.966   65.4  0.1144   11.1  0.4367  -71.9
 2.920  0.6263 -167.8   2.948   64.9  0.1144   10.8  0.4339  -72.1
 2.940  0.6261 -168.6   2.930   64.4  0.1145   10.6  0.4310  -72.4
 2.960  0.6261 -169.4   2.913   63.9  0.1145   10.3  0.4283  -72.7
 2.980  0.6263 -170.2   2.896   63.4  0.1145   10.1  0.4255  -73.0
 3.000  0.6265 -171.0   2.879   62.9  0.1146    9.8  0.4227  -73.3
 3.100  0.6219 -174.7   2.794   60.9  0.1145    8.7  0.4096  -74.7
 3.200  0.6199 -178.4   2.712   58.7  0.1144    7.6  0.3968  -76.1
 3.300  0.6204  177.9   2.635   56.5  0.1143    6.5  0.3843  -77.7
 3.400  0.6236  174.2   2.562   54.0  0.1143    5.4  0.3720  -79.3
 3.500  0.6293  170.6   2.494   51.5  0.1143    4.3  0.3601  -81.1
 3.600  0.6283  167.5   2.426   49.6  0.1141    3.5  0.3498  -82.6
 3.700  0.6292  164.4   2.361   47.6  0.1139    2.7  0.3398  -84.2
 3.800  0.6320  161.3   2.298   45.5  0.1137    1.9  0.3300  -85.9
 3.900  0.6365  158.2   2.239   43.2  0.1135    1.1  0.3206  -87.7
 4.000  0.6429  155.2   2.184   40.9  0.1134    0.3  0.3115  -89.6
 4.100  0.6432  152.7   2.126   39.1  0.1131   -0.4  0.3037  -91.3
 4.200  0.6448  150.1   2.071   37.3  0.1128   -1.0  0.2962  -93.2
 4.300  0.6477  147.6   2.017   35.3  0.1125   -1.7  0.2890  -95.1
 4.400  0.6517  145.1   1.966   33.3  0.1122   -2.3  0.2821  -97.1
 4.500  0.6570  142.7   1.918   31.1  0.1119   -3.0  0.2756  -99.2
 4.600  0.6570  140.8   1.871   29.6  0.1115   -3.4  0.2697 -101.0
 4.700  0.6577  138.8   1.825   27.9  0.1112   -3.9  0.2640 -102.8
 4.800  0.6592  136.9   1.780   26.3  0.1108   -4.3  0.2586 -104.7
 4.900  0.6614  135.0   1.737   24.5  0.1104   -4.8  0.2536 -106.7
 5.000  0.6643  133.1   1.696   22.6  0.1101   -5.2  0.2488 -108.8
 5.100  0.6650  131.3   1.659   21.2  0.1098   -5.5  0.2439 -110.7
 5.200  0.6663  129.5   1.623   19.6  0.1094   -5.8  0.2394 -112.6
 5.300  0.6683  127.7   1.589   18.1  0.1091   -6.0  0.2351 -114.6
 5.400  0.6709  126.0   1.555   16.4  0.1087   -6.3  0.2311 -116.7
 5.500  0.6742  124.2   1.523   14.7  0.1084   -6.6  0.2274 -118.9
 5.600  0.6762  122.5   1.494   13.3  0.1083   -6.7  0.2236 -121.1
 5.700  0.6788  120.8   1.465   11.8  0.1082   -6.8  0.2201 -123.3
 5.800  0.6820  119.2   1.438   10.3  0.1082   -6.8  0.2169 -125.6
 5.900  0.6857  117.5   1.411    8.7  0.1081   -6.9  0.2141 -128.0
 6.000  0.6900  115.9   1.386    7.0  0.1080   -7.0  0.2117 -130.4
 6.100  0.6930  114.4   1.362    5.6  0.1084   -7.1  0.2090 -132.8
 6.200  0.6966  113.0   1.340    4.1  0.1088   -7.2  0.2066 -135.2
 6.300  0.7005  111.5   1.318    2.6  0.1093   -7.2  0.2046 -137.7
 6.400  0.7049  110.1   1.297    1.0  0.1097   -7.3  0.2030 -140.2
 6.500  0.7097  108.7   1.277   -0.6  0.1101   -7.4  0.2018 -142.8
 6.600  0.7119  107.3   1.256   -2.0  0.1109   -7.5  0.1996 -145.2
 6.800  0.7176  104.5   1.218   -5.1  0.1125   -7.7  0.1963 -150.1
 7.000  0.7249  101.8   1.183   -8.3  0.1141   -7.9  0.1945 -155.2
 7.200  0.7281   99.0   1.147  -11.2  0.1163   -8.5  0.1925 -161.0
 7.400  0.7331   96.2   1.113  -14.3  0.1184   -9.1  0.1925 -166.8
 7.600  0.7370   93.2   1.079  -17.4  0.1204  -10.0  0.1929 -173.0
 7.800  0.7404   90.1   1.042  -20.5  0.1222  -11.0  0.1941 -179.6
 8.000  0.7459   87.0   1.009  -23.8  0.1240  -12.1  0.1978  174.0
 8.200  0.7482   83.7   0.970  -26.5  0.1247  -13.2  0.1988  166.4
 8.400  0.7529   80.5   0.934  -29.4  0.1255  -14.3  0.2033  159.0
 8.600  0.7610   77.5   0.902  -32.1  0.1262  -15.2  0.2113  151.4
 8.800  0.7722   74.6   0.872  -34.6  0.1268  -15.9  0.2234  143.8
 9.000  0.7853   71.9   0.844  -37.3  0.1275  -16.6  0.2391  137.1
 9.200  0.8049   69.7   0.818  -39.6  0.1286  -17.1  0.2610  131.3
 9.400  0.8256   67.6   0.793  -42.1  0.1297  -17.6  0.2852  126.5
 9.600  0.8440   65.8   0.765  -44.6  0.1313  -18.1  0.3110  122.6
 9.800  0.8599   64.3   0.735  -47.0  0.1333  -18.7  0.3379  119.5
10.000  0.8763   62.8   0.706  -49.7  0.1353  -19.3  0.3656  116.9
!
!  f       NFmin   Gammaopt  rn/50
! GHz       dB    MAG  ANG    -
 0.900      0.53  0.47   33   0.22
 1.800      1.03  0.29   77   0.17
 2.400      1.13  0.31  102   0.16
 3.000      1.32  0.31  136   0.12
 4.000      1.57  0.37 -168   0.10
 5.000      1.96  0.42 -129   0.28
 6.000      2.72  0.51 -111   0.37
!
! (c) 2016  Infineon Technologies AG, Munich
