! Infineon Technologies  Discrete & RF Semiconductors
! BFP420
! VCE =  2.5 V,  IC =  12 mA
! Common Emitter S-Parameters:                            Jan 2016
# GHz  S  MA  R  50
!  f         S11            S21            S12            S22
! GHz     MAG   ANG      MAG   ANG      MAG   ANG      MAG   ANG
 0.010  0.6617   -1.7  30.974  179.0  0.0009   72.6  0.9658    1.0
 0.015  0.6656   -2.9  30.567  178.1  0.0013   81.1  0.9691   -0.5
 0.020  0.6698   -4.0  30.168  177.2  0.0018   85.4  0.9730   -2.0
 0.025  0.6679   -4.9  30.137  176.5  0.0022   85.9  0.9727   -2.5
 0.030  0.6662   -5.9  30.111  175.8  0.0026   86.3  0.9724   -3.1
 0.035  0.6647   -6.8  30.089  175.1  0.0030   86.6  0.9723   -3.6
 0.040  0.6634   -7.8  30.072  174.4  0.0034   86.8  0.9722   -4.2
 0.045  0.6623   -8.7  30.059  173.7  0.0038   87.0  0.9723   -4.7
 0.050  0.6613   -9.7  30.051  173.0  0.0042   87.1  0.9724   -5.3
 0.055  0.6601  -10.7  30.001  172.4  0.0046   86.1  0.9708   -5.9
 0.060  0.6592  -11.7  29.955  171.7  0.0050   85.3  0.9694   -6.4
 0.065  0.6585  -12.7  29.913  171.1  0.0054   84.6  0.9680   -7.0
 0.070  0.6579  -13.7  29.874  170.4  0.0058   84.0  0.9667   -7.6
 0.075  0.6576  -14.7  29.839  169.8  0.0062   83.4  0.9655   -8.1
 0.080  0.6575  -15.8  29.809  169.1  0.0067   83.0  0.9644   -8.7
 0.085  0.6575  -16.8  29.782  168.5  0.0071   82.6  0.9634   -9.3
 0.090  0.6578  -17.8  29.759  167.8  0.0075   82.2  0.9625   -9.9
 0.095  0.6583  -18.8  29.739  167.2  0.0079   81.9  0.9617  -10.4
 0.100  0.6590  -19.8  29.724  166.5  0.0083   81.6  0.9610  -11.0
 0.105  0.6572  -20.7  29.633  165.9  0.0087   81.0  0.9586  -11.5
 0.110  0.6556  -21.7  29.546  165.2  0.0091   80.4  0.9562  -12.1
 0.115  0.6541  -22.6  29.462  164.6  0.0095   79.9  0.9539  -12.6
 0.120  0.6529  -23.6  29.381  164.0  0.0099   79.4  0.9517  -13.1
 0.125  0.6518  -24.6  29.305  163.3  0.0102   78.9  0.9496  -13.7
 0.130  0.6509  -25.5  29.232  162.7  0.0106   78.5  0.9476  -14.2
 0.135  0.6502  -26.5  29.162  162.1  0.0110   78.1  0.9456  -14.8
 0.140  0.6497  -27.5  29.097  161.4  0.0114   77.8  0.9438  -15.3
 0.145  0.6494  -28.4  29.035  160.8  0.0118   77.4  0.9420  -15.8
 0.150  0.6492  -29.4  28.977  160.1  0.0122   77.1  0.9403  -16.4
 0.155  0.6474  -30.3  28.871  159.5  0.0126   76.6  0.9372  -16.9
 0.160  0.6459  -31.2  28.768  158.9  0.0129   76.1  0.9343  -17.4
 0.165  0.6444  -32.1  28.669  158.3  0.0133   75.7  0.9313  -17.9
 0.170  0.6432  -33.0  28.572  157.7  0.0136   75.2  0.9285  -18.4
 0.175  0.6421  -34.0  28.478  157.1  0.0140   74.8  0.9257  -18.9
 0.180  0.6411  -34.9  28.388  156.5  0.0144   74.5  0.9230  -19.4
 0.185  0.6404  -35.8  28.301  155.9  0.0147   74.1  0.9204  -19.9
 0.190  0.6398  -36.7  28.217  155.3  0.0151   73.7  0.9179  -20.5
 0.195  0.6394  -37.7  28.136  154.7  0.0154   73.4  0.9154  -21.0
 0.200  0.6391  -38.6  28.058  154.1  0.0158   73.1  0.9130  -21.5
 0.220  0.6302  -42.1  27.560  151.8  0.0171   71.6  0.8998  -23.3
 0.240  0.6236  -45.7  27.107  149.4  0.0184   70.3  0.8876  -25.2
 0.260  0.6173  -49.2  26.663  147.2  0.0197   69.0  0.8744  -27.1
 0.280  0.6108  -52.6  26.218  145.1  0.0209   67.6  0.8603  -28.8
 0.300  0.6065  -56.0  25.810  142.9  0.0221   66.4  0.8470  -30.6
 0.320  0.5991  -59.2  25.312  141.0  0.0232   65.2  0.8322  -32.2
 0.340  0.5935  -62.4  24.843  139.0  0.0243   64.2  0.8180  -33.9
 0.360  0.5878  -65.6  24.366  137.1  0.0253   63.1  0.8037  -35.4
 0.380  0.5817  -68.6  23.878  135.2  0.0262   62.0  0.7892  -36.9
 0.400  0.5771  -71.6  23.416  133.3  0.0272   61.0  0.7752  -38.4
 0.420  0.5701  -74.4  22.931  131.7  0.0281   60.1  0.7608  -39.7
 0.440  0.5646  -77.3  22.466  130.0  0.0290   59.2  0.7469  -41.1
 0.450  0.5623  -78.7  22.241  129.1  0.0294   58.8  0.7401  -41.8
 0.460  0.5592  -80.0  22.005  128.3  0.0298   58.4  0.7330  -42.4
 0.480  0.5539  -82.6  21.544  126.8  0.0306   57.6  0.7192  -43.7
 0.500  0.5498  -85.3  21.101  125.1  0.0314   56.8  0.7057  -45.0
 0.520  0.5434  -87.6  20.659  123.8  0.0321   56.1  0.6926  -46.0
 0.540  0.5379  -90.0  20.228  122.4  0.0327   55.5  0.6797  -47.1
 0.560  0.5334  -92.4  19.810  121.0  0.0334   54.9  0.6671  -48.2
 0.580  0.5298  -94.9  19.405  119.5  0.0340   54.3  0.6548  -49.4
 0.600  0.5272  -97.4  19.013  117.9  0.0347   53.7  0.6427  -50.6
 0.620  0.5224  -99.5  18.627  116.8  0.0353   53.2  0.6313  -51.5
 0.640  0.5182 -101.6  18.249  115.6  0.0359   52.7  0.6200  -52.4
 0.660  0.5148 -103.8  17.878  114.4  0.0364   52.2  0.6088  -53.3
 0.680  0.5122 -106.0  17.515  113.2  0.0370   51.7  0.5979  -54.3
 0.700  0.5103 -108.2  17.161  111.9  0.0376   51.3  0.5871  -55.3
 0.720  0.5065 -110.0  16.827  110.9  0.0381   50.9  0.5772  -56.1
 0.740  0.5031 -111.8  16.498  109.9  0.0386   50.6  0.5675  -56.9
 0.760  0.5003 -113.6  16.174  108.8  0.0392   50.3  0.5578  -57.7
 0.780  0.4979 -115.4  15.856  107.7  0.0397   49.9  0.5483  -58.5
 0.800  0.4961 -117.3  15.544  106.6  0.0402   49.6  0.5389  -59.4
 0.820  0.4933 -119.0  15.260  105.7  0.0406   49.3  0.5303  -60.1
 0.840  0.4910 -120.6  14.980  104.8  0.0411   49.1  0.5218  -60.8
 0.860  0.4891 -122.3  14.704  103.9  0.0415   48.8  0.5133  -61.5
 0.880  0.4876 -124.0  14.432  102.9  0.0420   48.5  0.5050  -62.3
 0.900  0.4865 -125.7  14.164  101.9  0.0424   48.3  0.4967  -63.1
 0.920  0.4845 -127.2  13.920  101.1  0.0428   48.1  0.4891  -63.8
 0.940  0.4828 -128.7  13.678  100.3  0.0433   47.9  0.4816  -64.4
 0.960  0.4814 -130.2  13.439   99.5  0.0437   47.7  0.4742  -65.1
 0.980  0.4804 -131.8  13.203   98.7  0.0442   47.5  0.4668  -65.9
 1.000  0.4797 -133.3  12.970   97.8  0.0446   47.3  0.4595  -66.6
 1.020  0.4782 -134.6  12.757   97.1  0.0450   47.1  0.4530  -67.2
 1.040  0.4770 -135.9  12.547   96.4  0.0454   47.0  0.4466  -67.7
 1.060  0.4761 -137.2  12.338   95.7  0.0459   46.8  0.4402  -68.3
 1.080  0.4754 -138.6  12.131   94.9  0.0463   46.7  0.4339  -69.0
 1.100  0.4749 -139.9  11.927   94.1  0.0467   46.5  0.4276  -69.6
 1.120  0.4738 -141.1  11.741   93.4  0.0471   46.4  0.4216  -70.2
 1.140  0.4729 -142.3  11.557   92.8  0.0475   46.3  0.4157  -70.8
 1.160  0.4723 -143.6  11.375   92.1  0.0480   46.1  0.4098  -71.5
 1.180  0.4718 -144.8  11.194   91.3  0.0484   46.0  0.4040  -72.1
 1.200  0.4716 -146.0  11.015   90.6  0.0488   45.9  0.3982  -72.8
 1.220  0.4708 -147.1  10.854   90.0  0.0492   45.8  0.3931  -73.3
 1.240  0.4702 -148.2  10.694   89.4  0.0496   45.7  0.3880  -73.9
 1.260  0.4697 -149.3  10.535   88.8  0.0500   45.6  0.3830  -74.4
 1.280  0.4694 -150.4  10.377   88.2  0.0504   45.5  0.3780  -75.0
 1.300  0.4693 -151.5  10.221   87.5  0.0508   45.4  0.3730  -75.6
 1.320  0.4688 -152.5  10.079   86.9  0.0512   45.3  0.3684  -76.1
 1.340  0.4684 -153.5   9.938   86.4  0.0516   45.2  0.3638  -76.7
 1.360  0.4681 -154.6   9.798   85.8  0.0520   45.1  0.3592  -77.2
 1.380  0.4680 -155.6   9.659   85.1  0.0524   45.0  0.3547  -77.8
 1.400  0.4681 -156.6   9.521   84.5  0.0528   44.9  0.3502  -78.4
 1.420  0.4677 -157.5   9.397   84.0  0.0532   44.8  0.3460  -78.9
 1.440  0.4674 -158.4   9.275   83.5  0.0536   44.7  0.3418  -79.4
 1.460  0.4673 -159.4   9.153   82.9  0.0541   44.7  0.3376  -80.0
 1.480  0.4672 -160.3   9.031   82.4  0.0545   44.6  0.3335  -80.5
 1.500  0.4673 -161.2   8.911   81.8  0.0549   44.5  0.3294  -81.1
 1.520  0.4672 -162.1   8.799   81.3  0.0553   44.4  0.3257  -81.6
 1.540  0.4673 -162.9   8.687   80.8  0.0557   44.3  0.3220  -82.1
 1.560  0.4674 -163.8   8.576   80.3  0.0561   44.3  0.3184  -82.6
 1.580  0.4676 -164.6   8.466   79.7  0.0565   44.2  0.3148  -83.2
 1.600  0.4680 -165.5   8.357   79.2  0.0569   44.1  0.3112  -83.7
 1.620  0.4679 -166.3   8.259   78.7  0.0573   44.0  0.3077  -84.2
 1.640  0.4679 -167.2   8.161   78.2  0.0577   43.9  0.3042  -84.7
 1.660  0.4679 -168.0   8.064   77.7  0.0581   43.9  0.3008  -85.3
 1.680  0.4681 -168.9   7.968   77.2  0.0585   43.8  0.2974  -85.8
 1.700  0.4684 -169.7   7.872   76.7  0.0589   43.7  0.2940  -86.4
 1.720  0.4682 -170.5   7.781   76.2  0.0593   43.6  0.2909  -86.9
 1.740  0.4681 -171.2   7.691   75.8  0.0597   43.5  0.2879  -87.3
 1.760  0.4681 -172.0   7.601   75.3  0.0602   43.5  0.2848  -87.8
 1.780  0.4682 -172.7   7.512   74.8  0.0606   43.4  0.2818  -88.3
 1.800  0.4683 -173.5   7.423   74.3  0.0610   43.3  0.2788  -88.8
 1.820  0.4686 -174.3   7.342   73.9  0.0614   43.2  0.2758  -89.4
 1.840  0.4690 -175.0   7.262   73.4  0.0618   43.1  0.2728  -90.0
 1.860  0.4695 -175.8   7.182   73.0  0.0622   43.0  0.2698  -90.6
 1.880  0.4701 -176.5   7.102   72.6  0.0626   42.9  0.2669  -91.3
 1.900  0.4707 -177.3   7.023   72.1  0.0630   42.8  0.2640  -91.9
 1.920  0.4704 -178.0   6.951   71.7  0.0634   42.7  0.2614  -92.3
 1.940  0.4701 -178.6   6.879   71.3  0.0639   42.6  0.2588  -92.8
 1.960  0.4699 -179.3   6.808   70.9  0.0643   42.6  0.2561  -93.3
 1.980  0.4698 -179.9   6.737   70.4  0.0648   42.5  0.2536  -93.7
 2.000  0.4697  179.4   6.666   70.0  0.0652   42.4  0.2510  -94.2
 2.020  0.4698  178.7   6.602   69.6  0.0656   42.3  0.2485  -94.7
 2.040  0.4699  178.1   6.539   69.2  0.0660   42.2  0.2459  -95.3
 2.060  0.4701  177.4   6.476   68.8  0.0664   42.1  0.2434  -95.8
 2.080  0.4704  176.7   6.413   68.4  0.0668   42.0  0.2410  -96.4
 2.100  0.4707  176.1   6.350   68.0  0.0672   41.9  0.2385  -97.0
 2.120  0.4711  175.4   6.288   67.6  0.0677   41.8  0.2361  -97.5
 2.140  0.4716  174.8   6.226   67.1  0.0681   41.8  0.2337  -98.1
 2.160  0.4721  174.1   6.165   66.7  0.0685   41.7  0.2313  -98.7
 2.180  0.4727  173.5   6.104   66.3  0.0689   41.6  0.2289  -99.4
 2.200  0.4733  172.8   6.043   65.8  0.0693   41.5  0.2266 -100.0
 2.220  0.4736  172.2   5.989   65.4  0.0697   41.4  0.2244 -100.6
 2.240  0.4741  171.5   5.935   65.1  0.0701   41.2  0.2222 -101.2
 2.260  0.4745  170.9   5.881   64.7  0.0705   41.1  0.2200 -101.8
 2.280  0.4750  170.3   5.828   64.3  0.0709   41.0  0.2178 -102.4
 2.300  0.4756  169.7   5.775   63.9  0.0713   40.9  0.2157 -103.0
 2.320  0.4762  169.1   5.722   63.5  0.0718   40.8  0.2136 -103.7
 2.340  0.4769  168.4   5.670   63.1  0.0722   40.6  0.2115 -104.3
 2.360  0.4777  167.8   5.617   62.7  0.0726   40.5  0.2095 -105.0
 2.380  0.4785  167.2   5.566   62.2  0.0730   40.4  0.2075 -105.7
 2.400  0.4793  166.6   5.514   61.8  0.0734   40.3  0.2055 -106.4
 2.420  0.4799  166.0   5.468   61.4  0.0738   40.2  0.2036 -107.1
 2.440  0.4806  165.4   5.423   61.1  0.0742   40.1  0.2017 -107.7
 2.460  0.4813  164.8   5.377   60.7  0.0746   40.0  0.1998 -108.4
 2.480  0.4821  164.3   5.332   60.4  0.0750   39.8  0.1979 -109.1
 2.500  0.4829  163.7   5.287   60.0  0.0754   39.7  0.1961 -109.8
 2.520  0.4837  163.1   5.242   59.6  0.0758   39.6  0.1943 -110.5
 2.540  0.4847  162.5   5.198   59.2  0.0762   39.5  0.1926 -111.2
 2.560  0.4856  161.9   5.154   58.8  0.0766   39.4  0.1909 -112.0
 2.580  0.4866  161.4   5.110   58.4  0.0770   39.3  0.1892 -112.7
 2.600  0.4877  160.8   5.066   58.0  0.0774   39.2  0.1875 -113.5
 2.620  0.4883  160.3   5.026   57.7  0.0778   39.1  0.1859 -114.2
 2.640  0.4889  159.8   4.987   57.3  0.0782   39.0  0.1842 -114.9
 2.660  0.4895  159.3   4.948   57.0  0.0786   38.9  0.1827 -115.6
 2.680  0.4902  158.7   4.909   56.7  0.0790   38.7  0.1811 -116.3
 2.700  0.4910  158.2   4.870   56.3  0.0794   38.6  0.1796 -117.0
 2.720  0.4917  157.7   4.831   56.0  0.0799   38.5  0.1781 -117.8
 2.740  0.4925  157.2   4.792   55.6  0.0803   38.4  0.1766 -118.5
 2.760  0.4934  156.7   4.754   55.2  0.0807   38.3  0.1752 -119.3
 2.780  0.4943  156.2   4.716   54.9  0.0811   38.2  0.1738 -120.1
 2.800  0.4952  155.7   4.678   54.5  0.0815   38.1  0.1724 -120.9
 2.820  0.4961  155.2   4.644   54.2  0.0819   38.0  0.1710 -121.6
 2.840  0.4970  154.7   4.610   53.9  0.0823   37.8  0.1697 -122.4
 2.860  0.4980  154.2   4.577   53.5  0.0827   37.7  0.1684 -123.1
 2.880  0.4990  153.8   4.543   53.2  0.0831   37.6  0.1672 -123.9
 2.900  0.5001  153.3   4.510   52.9  0.0835   37.4  0.1659 -124.7
 2.920  0.5011  152.8   4.477   52.5  0.0840   37.3  0.1647 -125.4
 2.940  0.5023  152.3   4.444   52.2  0.0844   37.2  0.1635 -126.2
 2.960  0.5034  151.8   4.411   51.8  0.0848   37.0  0.1624 -127.0
 2.980  0.5046  151.4   4.378   51.5  0.0852   36.9  0.1613 -127.9
 3.000  0.5058  150.9   4.346   51.1  0.0856   36.8  0.1602 -128.7
 3.100  0.5101  148.5   4.205   49.6  0.0876   36.0  0.1551 -132.9
 3.200  0.5153  146.2   4.066   48.0  0.0895   35.3  0.1508 -137.4
 3.300  0.5213  144.0   3.932   46.3  0.0915   34.5  0.1476 -142.1
 3.400  0.5281  141.8   3.800   44.5  0.0935   33.9  0.1453 -147.0
 3.500  0.5357  139.6   3.673   42.6  0.0955   33.2  0.1442 -152.0
 3.600  0.5403  137.6   3.566   41.2  0.0974   32.4  0.1432 -156.4
 3.700  0.5455  135.6   3.462   39.7  0.0993   31.6  0.1430 -160.9
 3.800  0.5514  133.6   3.360   38.1  0.1013   30.9  0.1437 -165.3
 3.900  0.5579  131.7   3.261   36.4  0.1032   30.2  0.1452 -169.7
 4.000  0.5650  129.8   3.165   34.6  0.1052   29.5  0.1476 -173.9
 4.100  0.5685  128.2   3.079   33.3  0.1069   28.6  0.1496 -177.6
 4.200  0.5724  126.6   2.995   31.8  0.1087   27.8  0.1523  178.8
 4.300  0.5767  125.0   2.913   30.4  0.1105   27.0  0.1555  175.4
 4.400  0.5815  123.5   2.834   28.8  0.1123   26.2  0.1593  172.1
 4.500  0.5867  122.0   2.756   27.1  0.1141   25.4  0.1635  169.0
 4.600  0.5888  120.8   2.688   25.9  0.1157   24.6  0.1659  166.3
 4.700  0.5911  119.5   2.622   24.6  0.1174   23.8  0.1686  163.6
 4.800  0.5938  118.3   2.557   23.3  0.1191   23.0  0.1717  161.1
 4.900  0.5966  117.1   2.494   21.9  0.1208   22.2  0.1751  158.7
 5.000  0.5998  115.9   2.432   20.4  0.1225   21.5  0.1788  156.3
 5.100  0.6023  114.6   2.380   19.2  0.1240   20.7  0.1819  154.0
 5.200  0.6051  113.4   2.328   18.0  0.1256   19.9  0.1853  151.8
 5.300  0.6081  112.1   2.278   16.7  0.1272   19.2  0.1889  149.7
 5.400  0.6115  110.9   2.229   15.3  0.1288   18.4  0.1928  147.7
 5.500  0.6151  109.7   2.181   13.9  0.1304   17.7  0.1969  145.7
 5.600  0.6186  108.5   2.139   12.7  0.1320   16.9  0.2006  143.6
 5.700  0.6223  107.3   2.099   11.4  0.1335   16.1  0.2046  141.6
 5.800  0.6263  106.1   2.059   10.1  0.1351   15.4  0.2089  139.7
 5.900  0.6306  104.9   2.020    8.8  0.1368   14.6  0.2133  137.9
 6.000  0.6352  103.7   1.983    7.4  0.1384   13.9  0.2180  136.1
 6.100  0.6392  102.6   1.948    6.2  0.1400   13.0  0.2217  134.3
 6.200  0.6434  101.5   1.914    4.9  0.1417   12.1  0.2256  132.6
 6.300  0.6479  100.4   1.881    3.5  0.1434   11.3  0.2297  130.9
 6.400  0.6526   99.3   1.850    2.1  0.1451   10.4  0.2339  129.3
 6.500  0.6576   98.2   1.819    0.7  0.1469    9.6  0.2384  127.7
 6.600  0.6604   97.1   1.790   -0.6  0.1486    8.7  0.2411  126.0
 6.800  0.6666   94.9   1.734   -3.3  0.1522    6.9  0.2473  122.7
 7.000  0.6739   92.7   1.682   -6.1  0.1559    5.2  0.2542  119.5
 7.200  0.6778   90.4   1.630   -8.8  0.1591    3.1  0.2624  116.4
 7.400  0.6828   88.1   1.582  -11.6  0.1625    1.0  0.2713  113.6
 7.600  0.6877   85.7   1.531  -14.4  0.1652   -1.2  0.2812  110.6
 7.800  0.6929   83.1   1.478  -17.2  0.1672   -3.6  0.2922  107.7
 8.000  0.6995   80.5   1.429  -20.2  0.1695   -5.9  0.3040  104.9
 8.200  0.7054   77.7   1.374  -22.7  0.1696   -7.9  0.3171  101.4
 8.400  0.7130   74.9   1.322  -25.4  0.1700  -10.0  0.3314   98.1
 8.600  0.7236   72.2   1.274  -27.8  0.1702  -11.8  0.3483   95.1
 8.800  0.7370   69.7   1.230  -30.0  0.1702  -13.3  0.3679   92.2
 9.000  0.7518   67.3   1.187  -32.4  0.1703  -14.8  0.3882   89.7
 9.200  0.7725   65.4   1.152  -34.4  0.1709  -16.1  0.4115   87.7
 9.400  0.7939   63.7   1.119  -36.6  0.1716  -17.4  0.4352   86.0
 9.600  0.8128   62.1   1.082  -38.7  0.1723  -18.8  0.4574   84.5
 9.800  0.8288   60.8   1.040  -40.8  0.1731  -20.2  0.4781   83.1
10.000  0.8453   59.5   1.000  -43.1  0.1740  -21.6  0.4990   81.8
!
!  f       NFmin   Gammaopt  rn/50
! GHz       dB    MAG  ANG    -
 0.900      0.95  0.03 -151   0.13
 1.800      1.27  0.13 -152   0.12
 2.400      1.38  0.13 -160   0.14
 3.000      1.43  0.22 -145   0.13
 4.000      1.58  0.35 -123   0.17
 5.000      2.03  0.43 -103   0.28
 6.000      2.40  0.47  -91   0.43
!
! (c) 2016  Infineon Technologies AG, Munich
