! Infineon Technologies  Discrete & RF Semiconductors
! BFP405F
! VCE =  3.0 V,  IC =  2.0 mA
! Common Emitter S-Parameters:                            Nov 2015
# GHz  S  MA  R  50
!  f         S11            S21            S12            S22
! GHz     MAG   ANG      MAG   ANG      MAG   ANG      MAG   ANG
 0.030  0.9221   -1.0   6.778  178.5  0.0010   -9.9  0.9966   -0.6
 0.035  0.9208   -1.1   6.781  178.5  0.0009   39.2  0.9960   -0.7
 0.040  0.9195   -1.2   6.784  178.5  0.0014   71.8  0.9954   -0.8
 0.045  0.9198   -1.7   6.818  178.1  0.0011   -1.8  0.9951   -0.8
 0.050  0.9201   -2.1   6.852  177.8  0.0022  -39.4  0.9949   -0.9
 0.055  0.9227   -2.2   6.814  177.7  0.0035   40.5  0.9958   -0.7
 0.060  0.9254   -2.2   6.776  177.6  0.0069   58.8  0.9968   -0.6
 0.065  0.9237   -2.4   6.787  177.2  0.0059   64.0  0.9955   -0.9
 0.070  0.9221   -2.7   6.799  176.9  0.0050   71.2  0.9943   -1.2
 0.075  0.9216   -2.8   6.780  176.8  0.0033  109.0  0.9969   -1.3
 0.080  0.9211   -2.9   6.762  176.6  0.0041  157.4  0.9996   -1.3
 0.085  0.9224   -3.0   6.777  176.7  0.0039  116.0  0.9991   -1.5
 0.090  0.9238   -3.0   6.793  176.8  0.0054   85.8  0.9986   -1.8
 0.095  0.9220   -3.3   6.780  176.7  0.0045  104.7  0.9967   -1.9
 0.100  0.9203   -3.7   6.767  176.5  0.0043  128.7  0.9949   -2.0
 0.105  0.9208   -3.8   6.770  176.3  0.0035   98.1  0.9954   -2.1
 0.110  0.9214   -3.9   6.774  176.1  0.0040   64.9  0.9960   -2.1
 0.115  0.9206   -4.2   6.771  176.1  0.0037   72.9  0.9972   -2.2
 0.120  0.9198   -4.5   6.768  176.0  0.0034   82.4  0.9985   -2.2
 0.125  0.9202   -4.7   6.776  175.7  0.0039   75.4  0.9976   -2.3
 0.130  0.9206   -4.8   6.785  175.5  0.0044   70.0  0.9968   -2.5
 0.135  0.9204   -5.0   6.795  175.6  0.0037   70.1  0.9963   -2.5
 0.140  0.9202   -5.2   6.806  175.6  0.0030   70.3  0.9957   -2.5
 0.145  0.9201   -5.3   6.808  175.4  0.0038   80.7  0.9948   -2.6
 0.150  0.9200   -5.5   6.810  175.3  0.0046   87.5  0.9940   -2.7
 0.155  0.9198   -5.7   6.812  175.1  0.0048   88.1  0.9939   -2.8
 0.160  0.9196   -5.9   6.814  174.8  0.0050   88.6  0.9938   -2.9
 0.165  0.9194   -6.0   6.816  174.6  0.0052   89.1  0.9938   -3.0
 0.170  0.9192   -6.2   6.818  174.4  0.0054   89.5  0.9937   -3.1
 0.175  0.9190   -6.4   6.821  174.1  0.0055   90.0  0.9936   -3.2
 0.180  0.9188   -6.6   6.823  173.9  0.0057   90.4  0.9935   -3.3
 0.185  0.9186   -6.8   6.826  173.7  0.0059   90.7  0.9935   -3.4
 0.190  0.9185   -6.9   6.828  173.5  0.0061   91.1  0.9934   -3.5
 0.195  0.9183   -7.1   6.831  173.2  0.0063   91.4  0.9934   -3.6
 0.200  0.9182   -7.3   6.834  173.0  0.0065   91.7  0.9933   -3.7
 0.220  0.9173   -8.0   6.808  172.4  0.0069   91.1  0.9936   -4.1
 0.240  0.9165   -8.7   6.782  171.9  0.0072   90.5  0.9938   -4.4
 0.260  0.9156   -9.5   6.773  171.2  0.0077   89.2  0.9933   -4.8
 0.280  0.9146  -10.2   6.782  170.5  0.0084   87.4  0.9919   -5.1
 0.300  0.9138  -11.0   6.792  169.8  0.0091   85.9  0.9906   -5.4
 0.320  0.9130  -11.7   6.775  169.1  0.0101   85.1  0.9903   -5.8
 0.340  0.9123  -12.4   6.760  168.4  0.0110   84.5  0.9901   -6.2
 0.360  0.9112  -13.2   6.753  167.8  0.0117   84.2  0.9900   -6.6
 0.380  0.9098  -13.9   6.755  167.1  0.0122   84.1  0.9899   -6.9
 0.400  0.9085  -14.7   6.759  166.4  0.0126   84.0  0.9899   -7.3
 0.420  0.9074  -15.4   6.749  165.7  0.0135   84.6  0.9883   -7.7
 0.440  0.9064  -16.1   6.741  165.0  0.0144   85.2  0.9867   -8.0
 0.450  0.9060  -16.5   6.737  164.7  0.0149   85.4  0.9859   -8.2
 0.460  0.9053  -16.8   6.726  164.4  0.0151   84.8  0.9852   -8.4
 0.480  0.9039  -17.5   6.705  163.7  0.0156   83.8  0.9837   -8.8
 0.500  0.9026  -18.2   6.685  163.1  0.0160   82.8  0.9823   -9.2
 0.520  0.9003  -18.9   6.674  162.4  0.0166   82.0  0.9810   -9.6
 0.540  0.8982  -19.7   6.663  161.7  0.0172   81.3  0.9797   -9.9
 0.560  0.8963  -20.4   6.654  160.9  0.0177   80.7  0.9784  -10.3
 0.580  0.8945  -21.2   6.645  160.2  0.0183   80.1  0.9772  -10.6
 0.600  0.8928  -21.9   6.638  159.5  0.0189   79.5  0.9760  -11.0
 0.620  0.8905  -22.6   6.629  158.9  0.0196   79.5  0.9745  -11.3
 0.640  0.8883  -23.3   6.620  158.2  0.0202   79.4  0.9729  -11.7
 0.660  0.8863  -24.1   6.612  157.6  0.0209   79.4  0.9715  -12.0
 0.680  0.8844  -24.8   6.605  156.9  0.0215   79.3  0.9700  -12.4
 0.700  0.8827  -25.5   6.599  156.3  0.0222   79.3  0.9686  -12.7
 0.720  0.8799  -26.2   6.576  155.6  0.0230   79.0  0.9668  -13.1
 0.740  0.8773  -26.9   6.554  154.9  0.0238   78.6  0.9651  -13.4
 0.760  0.8748  -27.6   6.532  154.2  0.0245   78.3  0.9634  -13.8
 0.780  0.8724  -28.3   6.512  153.5  0.0253   78.1  0.9617  -14.1
 0.800  0.8702  -29.0   6.493  152.8  0.0261   77.8  0.9601  -14.5
 0.820  0.8674  -29.7   6.481  152.1  0.0267   77.3  0.9583  -14.8
 0.840  0.8647  -30.4   6.470  151.5  0.0272   76.9  0.9566  -15.2
 0.860  0.8622  -31.1   6.460  150.8  0.0278   76.4  0.9549  -15.5
 0.880  0.8598  -31.9   6.451  150.2  0.0283   76.0  0.9532  -15.9
 0.900  0.8575  -32.6   6.443  149.5  0.0289   75.6  0.9516  -16.2
 0.920  0.8543  -33.3   6.418  148.9  0.0295   75.3  0.9493  -16.6
 0.940  0.8513  -34.0   6.394  148.2  0.0301   75.0  0.9470  -16.9
 0.960  0.8484  -34.7   6.370  147.6  0.0307   74.7  0.9448  -17.3
 0.980  0.8456  -35.4   6.348  146.9  0.0313   74.4  0.9426  -17.6
 1.000  0.8429  -36.1   6.326  146.3  0.0319   74.1  0.9404  -18.0
 1.020  0.8397  -36.8   6.307  145.7  0.0325   73.6  0.9381  -18.3
 1.040  0.8366  -37.4   6.289  145.0  0.0331   73.0  0.9359  -18.6
 1.060  0.8336  -38.1   6.272  144.4  0.0337   72.5  0.9337  -19.0
 1.080  0.8307  -38.8   6.256  143.7  0.0343   72.1  0.9315  -19.3
 1.100  0.8280  -39.5   6.240  143.1  0.0349   71.6  0.9293  -19.6
 1.120  0.8246  -40.2   6.215  142.5  0.0354   71.4  0.9268  -19.9
 1.140  0.8213  -40.8   6.192  141.8  0.0359   71.2  0.9243  -20.2
 1.160  0.8182  -41.5   6.169  141.2  0.0365   71.0  0.9218  -20.5
 1.180  0.8151  -42.2   6.146  140.5  0.0370   70.8  0.9193  -20.8
 1.200  0.8122  -42.9   6.125  139.9  0.0375   70.6  0.9169  -21.1
 1.220  0.8086  -43.6   6.101  139.3  0.0381   70.3  0.9144  -21.4
 1.240  0.8052  -44.2   6.078  138.6  0.0387   70.0  0.9119  -21.7
 1.260  0.8018  -44.9   6.056  138.0  0.0392   69.7  0.9094  -22.1
 1.280  0.7986  -45.6   6.034  137.3  0.0398   69.5  0.9070  -22.4
 1.300  0.7955  -46.3   6.013  136.7  0.0404   69.2  0.9046  -22.7
 1.320  0.7920  -46.9   5.985  136.2  0.0409   68.7  0.9018  -23.0
 1.340  0.7886  -47.6   5.958  135.6  0.0414   68.2  0.8990  -23.3
 1.360  0.7854  -48.2   5.931  135.0  0.0418   67.8  0.8962  -23.6
 1.380  0.7822  -48.8   5.905  134.5  0.0423   67.3  0.8935  -23.9
 1.400  0.7791  -49.5   5.880  133.9  0.0428   66.9  0.8908  -24.2
 1.420  0.7752  -50.1   5.857  133.3  0.0434   66.7  0.8881  -24.5
 1.440  0.7714  -50.8   5.835  132.8  0.0440   66.6  0.8855  -24.7
 1.460  0.7676  -51.5   5.814  132.2  0.0446   66.4  0.8829  -25.0
 1.480  0.7640  -52.1   5.793  131.6  0.0452   66.3  0.8803  -25.2
 1.500  0.7605  -52.8   5.773  131.0  0.0458   66.1  0.8777  -25.5
 1.520  0.7569  -53.4   5.747  130.4  0.0462   65.8  0.8749  -25.8
 1.540  0.7535  -54.1   5.721  129.9  0.0466   65.4  0.8722  -26.1
 1.560  0.7501  -54.7   5.696  129.3  0.0470   65.1  0.8695  -26.3
 1.580  0.7468  -55.3   5.672  128.8  0.0474   64.8  0.8668  -26.6
 1.600  0.7436  -56.0   5.648  128.2  0.0478   64.5  0.8641  -26.9
 1.620  0.7401  -56.6   5.618  127.7  0.0482   64.2  0.8613  -27.2
 1.640  0.7368  -57.2   5.589  127.1  0.0485   63.9  0.8584  -27.5
 1.660  0.7335  -57.8   5.561  126.5  0.0489   63.6  0.8556  -27.7
 1.680  0.7302  -58.4   5.533  126.0  0.0492   63.3  0.8529  -28.0
 1.700  0.7271  -59.0   5.505  125.4  0.0496   63.0  0.8501  -28.3
 1.720  0.7233  -59.6   5.481  124.9  0.0501   62.6  0.8473  -28.6
 1.740  0.7196  -60.3   5.457  124.3  0.0506   62.3  0.8446  -28.9
 1.760  0.7159  -60.9   5.434  123.8  0.0512   62.0  0.8419  -29.1
 1.780  0.7124  -61.5   5.411  123.2  0.0517   61.6  0.8392  -29.4
 1.800  0.7089  -62.2   5.389  122.7  0.0522   61.3  0.8365  -29.7
 1.820  0.7054  -62.8   5.365  122.2  0.0526   61.1  0.8337  -30.0
 1.840  0.7020  -63.4   5.341  121.8  0.0530   60.9  0.8310  -30.2
 1.860  0.6986  -64.0   5.318  121.3  0.0534   60.6  0.8283  -30.5
 1.880  0.6953  -64.6   5.295  120.8  0.0538   60.4  0.8256  -30.7
 1.900  0.6921  -65.2   5.272  120.3  0.0542   60.2  0.8229  -31.0
 1.920  0.6885  -65.8   5.252  119.7  0.0548   59.9  0.8206  -31.3
 1.940  0.6851  -66.5   5.233  119.2  0.0553   59.7  0.8184  -31.6
 1.960  0.6817  -67.2   5.214  118.6  0.0559   59.4  0.8162  -31.9
 1.980  0.6784  -67.8   5.195  118.1  0.0564   59.1  0.8140  -32.2
 2.000  0.6752  -68.5   5.177  117.5  0.0570   58.9  0.8118  -32.5
 2.020  0.6716  -69.1   5.149  117.0  0.0573   58.6  0.8092  -32.8
 2.040  0.6681  -69.6   5.121  116.5  0.0577   58.3  0.8067  -33.0
 2.060  0.6646  -70.2   5.093  116.0  0.0580   58.0  0.8041  -33.3
 2.080  0.6612  -70.8   5.066  115.5  0.0584   57.7  0.8016  -33.5
 2.100  0.6579  -71.4   5.039  115.0  0.0587   57.4  0.7991  -33.8
 2.120  0.6545  -71.9   5.012  114.5  0.0590   57.2  0.7963  -34.1
 2.140  0.6512  -72.5   4.985  114.1  0.0593   57.0  0.7935  -34.3
 2.160  0.6479  -73.1   4.959  113.6  0.0597   56.7  0.7907  -34.6
 2.180  0.6447  -73.6   4.933  113.1  0.0600   56.5  0.7879  -34.8
 2.200  0.6415  -74.2   4.907  112.6  0.0603   56.3  0.7851  -35.1
 2.220  0.6382  -74.8   4.882  112.2  0.0607   56.1  0.7825  -35.3
 2.240  0.6349  -75.3   4.857  111.7  0.0610   56.0  0.7799  -35.6
 2.260  0.6317  -75.9   4.832  111.3  0.0614   55.8  0.7773  -35.8
 2.280  0.6286  -76.5   4.808  110.8  0.0617   55.7  0.7748  -36.1
 2.300  0.6255  -77.1   4.784  110.4  0.0621   55.5  0.7722  -36.3
 2.320  0.6222  -77.6   4.761  109.9  0.0623   55.1  0.7700  -36.5
 2.340  0.6189  -78.2   4.739  109.5  0.0625   54.8  0.7678  -36.7
 2.360  0.6157  -78.7   4.717  109.0  0.0627   54.4  0.7656  -36.9
 2.380  0.6126  -79.2   4.695  108.6  0.0629   54.1  0.7634  -37.1
 2.400  0.6095  -79.8   4.674  108.1  0.0631   53.7  0.7612  -37.3
 2.420  0.6063  -80.3   4.649  107.7  0.0635   53.5  0.7587  -37.5
 2.440  0.6032  -80.8   4.624  107.2  0.0638   53.3  0.7563  -37.7
 2.460  0.6001  -81.3   4.600  106.8  0.0642   53.1  0.7538  -38.0
 2.480  0.5971  -81.9   4.576  106.3  0.0645   52.9  0.7514  -38.2
 2.500  0.5941  -82.4   4.552  105.9  0.0649   52.7  0.7490  -38.4
 2.520  0.5908  -82.9   4.529  105.5  0.0652   52.6  0.7468  -38.6
 2.540  0.5875  -83.4   4.506  105.1  0.0655   52.4  0.7446  -38.8
 2.560  0.5843  -83.9   4.483  104.7  0.0657   52.3  0.7424  -39.0
 2.580  0.5811  -84.5   4.460  104.2  0.0660   52.1  0.7403  -39.2
 2.600  0.5780  -85.0   4.438  103.8  0.0663   52.0  0.7381  -39.4
 2.620  0.5753  -85.5   4.416  103.4  0.0666   51.8  0.7357  -39.6
 2.640  0.5727  -86.1   4.395  103.0  0.0669   51.7  0.7334  -39.8
 2.660  0.5701  -86.6   4.374  102.6  0.0671   51.5  0.7311  -39.9
 2.680  0.5676  -87.2   4.353  102.1  0.0674   51.4  0.7287  -40.1
 2.700  0.5651  -87.7   4.332  101.7  0.0677   51.2  0.7264  -40.3
 2.720  0.5624  -88.2   4.310  101.3  0.0679   50.9  0.7244  -40.5
 2.740  0.5597  -88.6   4.288  101.0  0.0682   50.7  0.7224  -40.7
 2.760  0.5570  -89.1   4.267  100.6  0.0684   50.4  0.7204  -40.9
 2.780  0.5544  -89.6   4.245  100.2  0.0687   50.2  0.7185  -41.1
 2.800  0.5518  -90.1   4.224   99.8  0.0689   49.9  0.7165  -41.3
 2.820  0.5491  -90.6   4.203   99.4  0.0691   49.8  0.7147  -41.5
 2.840  0.5464  -91.1   4.182   99.1  0.0693   49.7  0.7129  -41.7
 2.860  0.5437  -91.6   4.161   98.7  0.0696   49.6  0.7111  -41.8
 2.880  0.5411  -92.1   4.140   98.4  0.0698   49.5  0.7094  -42.0
 2.900  0.5385  -92.6   4.119   98.0  0.0700   49.4  0.7076  -42.2
 2.920  0.5358  -93.1   4.100   97.6  0.0703   49.2  0.7057  -42.4
 2.940  0.5332  -93.6   4.082   97.3  0.0706   49.1  0.7037  -42.6
 2.960  0.5306  -94.1   4.063   96.9  0.0708   48.9  0.7018  -42.8
 2.980  0.5280  -94.6   4.045   96.5  0.0711   48.8  0.6999  -43.0
 3.000  0.5255  -95.1   4.027   96.1  0.0714   48.6  0.6980  -43.2
 3.100  0.5126  -97.4   3.930   94.2  0.0727   47.6  0.6893  -43.9
 3.200  0.4980 -100.1   3.841   92.4  0.0732   47.4  0.6806  -44.8
 3.300  0.4900 -102.3   3.751   90.8  0.0747   46.7  0.6732  -45.5
 3.400  0.4763 -104.7   3.664   89.1  0.0755   45.6  0.6654  -46.4
 3.500  0.4678 -106.7   3.582   87.6  0.0766   45.3  0.6589  -46.9
 3.600  0.4562 -109.1   3.501   86.0  0.0776   44.8  0.6508  -47.6
 3.700  0.4463 -111.5   3.427   84.4  0.0782   44.1  0.6451  -48.2
 3.800  0.4351 -113.8   3.355   82.9  0.0792   43.7  0.6388  -48.8
 3.900  0.4286 -116.0   3.288   81.4  0.0804   43.4  0.6333  -49.5
 4.000  0.4195 -118.1   3.218   80.0  0.0811   42.9  0.6267  -50.0
 4.100  0.4109 -120.5   3.156   78.5  0.0820   42.9  0.6207  -50.5
 4.200  0.4008 -122.9   3.094   77.2  0.0824   42.3  0.6147  -51.1
 4.300  0.3951 -125.4   3.040   75.7  0.0835   41.6  0.6093  -51.7
 4.400  0.3867 -127.5   2.981   74.4  0.0848   41.6  0.6044  -52.2
 4.500  0.3820 -129.8   2.923   73.2  0.0850   41.5  0.5991  -52.6
 4.600  0.3735 -132.2   2.869   71.7  0.0863   41.0  0.5942  -53.1
 4.700  0.3691 -134.5   2.821   70.4  0.0868   40.6  0.5879  -53.5
 4.800  0.3628 -137.0   2.772   69.2  0.0880   40.6  0.5841  -54.0
 4.900  0.3597 -139.0   2.722   68.0  0.0886   40.1  0.5777  -54.5
 5.000  0.3530 -141.3   2.676   66.7  0.0896   40.0  0.5736  -55.0
 5.100  0.3486 -143.4   2.631   65.4  0.0903   39.5  0.5687  -55.4
 5.200  0.3432 -145.8   2.593   64.1  0.0910   39.5  0.5639  -55.9
 5.300  0.3400 -147.9   2.547   62.9  0.0916   39.1  0.5593  -56.4
 5.400  0.3366 -149.9   2.509   61.7  0.0924   38.9  0.5554  -56.8
 5.500  0.3333 -152.1   2.467   60.5  0.0936   38.8  0.5513  -57.2
 5.600  0.3286 -154.1   2.430   59.3  0.0942   38.7  0.5474  -57.7
 5.700  0.3252 -156.5   2.392   58.1  0.0953   38.3  0.5430  -58.1
 5.800  0.3219 -158.5   2.360   56.9  0.0957   38.2  0.5392  -58.5
 5.900  0.3196 -160.7   2.323   55.9  0.0970   37.9  0.5359  -58.9
 6.000  0.3154 -162.6   2.287   54.7  0.0976   37.8  0.5321  -59.3
 6.100  0.3123 -164.9   2.253   53.5  0.0988   37.8  0.5275  -59.6
 6.200  0.3100 -166.9   2.221   52.4  0.0998   37.7  0.5240  -60.1
 6.300  0.3071 -169.3   2.191   51.3  0.1004   37.6  0.5197  -60.5
 6.400  0.3035 -171.2   2.160   50.2  0.1011   37.4  0.5165  -60.9
 6.500  0.3008 -173.7   2.129   49.1  0.1019   37.3  0.5130  -61.2
 6.600  0.2973 -175.8   2.103   48.0  0.1023   37.0  0.5087  -61.6
 6.800  0.2937  179.6   2.044   45.9  0.1048   37.1  0.5014  -62.1
 7.000  0.2902  174.3   1.991   43.8  0.1062   37.2  0.4928  -62.4
 7.200  0.2890  169.1   1.938   41.8  0.1082   37.2  0.4823  -63.0
 7.400  0.2909  163.8   1.893   39.8  0.1106   37.2  0.4730  -63.6
 7.600  0.2947  159.0   1.849   37.9  0.1134   37.1  0.4625  -64.2
 7.800  0.3018  154.2   1.808   36.0  0.1166   37.1  0.4498  -64.9
 8.000  0.3115  149.8   1.767   34.0  0.1190   36.8  0.4356  -65.6
 8.200  0.3233  145.8   1.733   32.2  0.1221   36.4  0.4186  -66.6
 8.400  0.3365  142.1   1.700   30.3  0.1252   36.0  0.4017  -67.7
 8.600  0.3502  138.7   1.669   28.4  0.1284   35.6  0.3825  -69.0
 8.800  0.3640  135.8   1.637   26.4  0.1317   35.2  0.3611  -70.6
 9.000  0.3787  133.1   1.608   24.4  0.1350   34.8  0.3400  -72.3
 9.200  0.3913  130.7   1.580   22.6  0.1383   34.1  0.3169  -74.7
 9.400  0.4045  128.4   1.554   20.7  0.1417   33.5  0.2945  -77.5
 9.600  0.4168  126.3   1.529   18.7  0.1453   32.8  0.2717  -80.8
 9.800  0.4281  124.3   1.506   16.7  0.1490   32.2  0.2488  -85.0
10.000  0.4399  122.4   1.484   14.7  0.1528   31.5  0.2275  -90.0
10.200  0.4498  120.1   1.459   12.7  0.1563   30.4  0.2063  -96.6
10.400  0.4603  117.9   1.436   10.6  0.1599   29.3  0.1884 -104.6
10.600  0.4700  115.7   1.410    8.4  0.1631   28.2  0.1757 -114.4
10.800  0.4792  113.2   1.383    6.2  0.1659   27.1  0.1697 -125.4
11.000  0.4891  110.9   1.357    3.9  0.1687   26.0  0.1704 -136.8
11.200  0.4969  108.6   1.323    1.9  0.1706   25.0  0.1821 -146.4
11.400  0.5056  106.3   1.291   -0.1  0.1726   24.1  0.1982 -154.7
11.600  0.5123  104.5   1.258   -1.9  0.1746   23.3  0.2197 -160.5
11.800  0.5167  103.1   1.224   -3.5  0.1768   22.6  0.2446 -164.1
12.000  0.5215  101.7   1.191   -5.1  0.1789   22.0  0.2703 -167.1
!
!  f       NFmin   Gammaopt  rn/50
! GHz       dB    MAG  ANG    -
 0.450      1.01  0.58    7   0.45
 0.900      1.03  0.54   15   0.46
 1.500      1.15  0.52   21   0.41
 1.900      1.20  0.49   29   0.40
 2.400      1.39  0.46   38   0.41
 3.000      1.47  0.43   49   0.39
 3.500      1.53  0.42   59   0.36
 4.500      1.72  0.35   76   0.30
 5.500      1.97  0.23   93   0.22
!
! (c) 2015  Infineon Technologies AG, Munich
