! Infineon Technologies  Discrete & RF Semiconductors
! BFP410
! VCE =  4.5 V,  IC =  2.0 mA
! Common Emitter S-Parameters:                            Nov 2015
# GHz  S  MA  R  50
!  f         S11            S21            S12            S22
! GHz     MAG   ANG      MAG   ANG      MAG   ANG      MAG   ANG
 0.010  0.9393    0.3   7.151  179.2  0.0011  -15.7  1.0000    1.2
 0.015  0.9352   -0.0   7.131  179.1  0.0010   28.0  0.9935    0.8
 0.020  0.9311   -0.4   7.112  179.0  0.0015   58.4  0.9871    0.4
 0.025  0.9297   -0.7   7.106  178.7  0.0017   62.4  0.9883    0.2
 0.030  0.9283   -1.1   7.101  178.4  0.0020   65.4  0.9895   -0.0
 0.035  0.9269   -1.4   7.096  178.1  0.0022   67.8  0.9906   -0.2
 0.040  0.9256   -1.8   7.091  177.7  0.0024   69.8  0.9919   -0.4
 0.045  0.9243   -2.1   7.086  177.4  0.0027   71.4  0.9931   -0.6
 0.050  0.9230   -2.5   7.082  177.1  0.0029   72.7  0.9943   -0.8
 0.055  0.9234   -2.8   7.085  176.9  0.0032   73.9  0.9943   -1.0
 0.060  0.9238   -3.1   7.088  176.7  0.0035   74.9  0.9942   -1.1
 0.065  0.9242   -3.4   7.091  176.6  0.0037   75.8  0.9942   -1.3
 0.070  0.9247   -3.7   7.094  176.4  0.0040   76.6  0.9942   -1.5
 0.075  0.9252   -4.0   7.097  176.2  0.0043   77.2  0.9941   -1.6
 0.080  0.9257   -4.3   7.100  176.0  0.0046   77.8  0.9941   -1.8
 0.085  0.9262   -4.6   7.103  175.8  0.0049   78.3  0.9941   -2.0
 0.090  0.9268   -4.9   7.106  175.7  0.0051   78.7  0.9941   -2.2
 0.095  0.9274   -5.2   7.110  175.5  0.0054   79.1  0.9942   -2.3
 0.100  0.9280   -5.5   7.113  175.3  0.0057   79.5  0.9942   -2.5
 0.105  0.9275   -5.8   7.112  175.1  0.0060   79.6  0.9941   -2.6
 0.110  0.9270   -6.1   7.111  174.8  0.0063   79.8  0.9940   -2.8
 0.115  0.9266   -6.3   7.110  174.6  0.0066   79.9  0.9939   -2.9
 0.120  0.9262   -6.6   7.109  174.3  0.0069   80.0  0.9938   -3.1
 0.125  0.9258   -6.9   7.108  174.1  0.0071   80.1  0.9937   -3.2
 0.130  0.9254   -7.2   7.107  173.9  0.0074   80.2  0.9936   -3.3
 0.135  0.9250   -7.5   7.107  173.6  0.0077   80.3  0.9935   -3.5
 0.140  0.9247   -7.7   7.106  173.4  0.0080   80.4  0.9934   -3.6
 0.145  0.9244   -8.0   7.106  173.1  0.0083   80.4  0.9934   -3.8
 0.150  0.9241   -8.3   7.106  172.9  0.0086   80.5  0.9933   -3.9
 0.155  0.9240   -8.6   7.105  172.7  0.0089   80.5  0.9930   -4.0
 0.160  0.9240   -8.9   7.103  172.5  0.0092   80.5  0.9927   -4.2
 0.165  0.9239   -9.2   7.102  172.2  0.0094   80.5  0.9924   -4.3
 0.170  0.9239   -9.5   7.101  172.0  0.0097   80.5  0.9921   -4.5
 0.175  0.9239   -9.8   7.100  171.8  0.0100   80.5  0.9918   -4.6
 0.180  0.9239  -10.0   7.099  171.6  0.0103   80.5  0.9915   -4.7
 0.185  0.9240  -10.3   7.099  171.4  0.0106   80.5  0.9913   -4.9
 0.190  0.9241  -10.6   7.098  171.1  0.0108   80.5  0.9910   -5.0
 0.195  0.9242  -10.9   7.097  170.9  0.0111   80.5  0.9908   -5.2
 0.200  0.9243  -11.2   7.097  170.7  0.0114   80.5  0.9905   -5.3
 0.220  0.9221  -12.3   7.080  169.7  0.0126   80.2  0.9897   -5.9
 0.240  0.9201  -13.4   7.066  168.7  0.0137   79.9  0.9889   -6.4
 0.260  0.9185  -14.5   7.058  167.7  0.0148   79.6  0.9877   -7.0
 0.280  0.9173  -15.6   7.059  166.8  0.0159   79.2  0.9860   -7.5
 0.300  0.9164  -16.8   7.061  165.9  0.0170   78.8  0.9844   -8.0
 0.320  0.9147  -18.0   7.051  165.0  0.0181   78.3  0.9830   -8.5
 0.340  0.9133  -19.1   7.042  164.1  0.0192   77.9  0.9817   -9.0
 0.360  0.9117  -20.3   7.028  163.2  0.0204   77.4  0.9802   -9.6
 0.380  0.9099  -21.4   7.011  162.3  0.0215   76.9  0.9785  -10.1
 0.400  0.9084  -22.5   6.995  161.4  0.0226   76.4  0.9768  -10.6
 0.420  0.9063  -23.6   6.981  160.5  0.0237   75.9  0.9750  -11.1
 0.440  0.9045  -24.7   6.968  159.6  0.0248   75.4  0.9733  -11.6
 0.450  0.9037  -25.3   6.963  159.1  0.0254   75.2  0.9725  -11.9
 0.460  0.9023  -25.9   6.954  158.6  0.0259   74.9  0.9713  -12.2
 0.480  0.8997  -27.0   6.936  157.7  0.0270   74.3  0.9690  -12.7
 0.500  0.8975  -28.1   6.921  156.8  0.0281   73.8  0.9667  -13.2
 0.520  0.8945  -29.2   6.896  155.9  0.0292   73.2  0.9643  -13.7
 0.540  0.8918  -30.3   6.872  154.9  0.0302   72.6  0.9619  -14.3
 0.560  0.8894  -31.4   6.851  153.9  0.0313   72.0  0.9597  -14.8
 0.580  0.8874  -32.6   6.832  153.0  0.0323   71.5  0.9575  -15.4
 0.600  0.8857  -33.7   6.814  152.0  0.0334   71.0  0.9554  -15.9
 0.620  0.8822  -34.8   6.791  151.2  0.0344   70.4  0.9524  -16.4
 0.640  0.8791  -36.0   6.770  150.3  0.0355   69.8  0.9495  -16.9
 0.660  0.8764  -37.1   6.750  149.5  0.0365   69.2  0.9467  -17.4
 0.680  0.8740  -38.2   6.731  148.6  0.0376   68.7  0.9440  -17.9
 0.700  0.8719  -39.4   6.714  147.8  0.0386   68.2  0.9413  -18.4
 0.720  0.8682  -40.5   6.681  146.9  0.0396   67.6  0.9382  -18.9
 0.740  0.8649  -41.5   6.649  146.1  0.0405   67.0  0.9351  -19.4
 0.760  0.8619  -42.6   6.619  145.2  0.0415   66.5  0.9322  -19.8
 0.780  0.8591  -43.7   6.590  144.3  0.0425   66.0  0.9292  -20.3
 0.800  0.8567  -44.8   6.563  143.4  0.0435   65.5  0.9264  -20.8
 0.820  0.8529  -45.9   6.535  142.6  0.0445   64.9  0.9230  -21.3
 0.840  0.8495  -47.0   6.509  141.7  0.0454   64.3  0.9196  -21.7
 0.860  0.8464  -48.1   6.484  140.9  0.0464   63.8  0.9164  -22.2
 0.880  0.8436  -49.3   6.461  140.1  0.0473   63.2  0.9132  -22.7
 0.900  0.8411  -50.4   6.439  139.2  0.0483   62.7  0.9100  -23.2
 0.920  0.8370  -51.5   6.406  138.4  0.0492   62.1  0.9063  -23.7
 0.940  0.8333  -52.5   6.374  137.5  0.0501   61.6  0.9026  -24.1
 0.960  0.8298  -53.6   6.343  136.7  0.0510   61.1  0.8990  -24.6
 0.980  0.8266  -54.7   6.314  135.9  0.0519   60.6  0.8955  -25.0
 1.000  0.8237  -55.8   6.286  135.0  0.0528   60.1  0.8920  -25.5
 1.020  0.8197  -56.9   6.255  134.2  0.0536   59.5  0.8884  -25.9
 1.040  0.8161  -57.9   6.224  133.4  0.0545   59.0  0.8848  -26.4
 1.060  0.8127  -59.0   6.195  132.6  0.0553   58.4  0.8813  -26.8
 1.080  0.8096  -60.1   6.168  131.8  0.0562   57.9  0.8778  -27.3
 1.100  0.8068  -61.2   6.141  131.0  0.0570   57.4  0.8744  -27.7
 1.120  0.8028  -62.3   6.107  130.2  0.0578   56.9  0.8705  -28.1
 1.140  0.7990  -63.3   6.074  129.4  0.0586   56.4  0.8667  -28.6
 1.160  0.7955  -64.4   6.043  128.6  0.0594   55.9  0.8630  -29.0
 1.180  0.7923  -65.5   6.012  127.8  0.0603   55.4  0.8593  -29.5
 1.200  0.7894  -66.6   5.983  127.0  0.0611   54.9  0.8556  -29.9
 1.220  0.7854  -67.6   5.949  126.3  0.0618   54.3  0.8518  -30.3
 1.240  0.7817  -68.7   5.916  125.5  0.0626   53.8  0.8480  -30.7
 1.260  0.7782  -69.7   5.884  124.7  0.0633   53.2  0.8443  -31.1
 1.280  0.7750  -70.7   5.853  124.0  0.0640   52.7  0.8406  -31.5
 1.300  0.7720  -71.8   5.823  123.2  0.0648   52.2  0.8369  -31.9
 1.320  0.7679  -72.8   5.788  122.5  0.0655   51.7  0.8330  -32.3
 1.340  0.7640  -73.9   5.754  121.7  0.0661   51.2  0.8291  -32.7
 1.360  0.7604  -75.0   5.721  121.0  0.0668   50.7  0.8253  -33.1
 1.380  0.7570  -76.0   5.688  120.3  0.0675   50.3  0.8215  -33.5
 1.400  0.7539  -77.1   5.657  119.5  0.0682   49.8  0.8177  -33.9
 1.420  0.7503  -78.0   5.624  118.8  0.0689   49.3  0.8139  -34.3
 1.440  0.7468  -79.0   5.593  118.2  0.0695   48.9  0.8102  -34.6
 1.460  0.7436  -79.9   5.562  117.5  0.0702   48.5  0.8065  -35.0
 1.480  0.7405  -80.8   5.531  116.8  0.0708   48.0  0.8028  -35.3
 1.500  0.7377  -81.8   5.502  116.1  0.0715   47.6  0.7992  -35.7
 1.520  0.7337  -82.9   5.470  115.4  0.0721   47.1  0.7952  -36.1
 1.540  0.7300  -83.9   5.440  114.6  0.0726   46.6  0.7912  -36.4
 1.560  0.7266  -85.0   5.410  113.9  0.0732   46.1  0.7873  -36.8
 1.580  0.7234  -86.1   5.381  113.2  0.0738   45.7  0.7834  -37.1
 1.600  0.7205  -87.2   5.353  112.4  0.0744   45.2  0.7795  -37.5
 1.620  0.7168  -88.1   5.322  111.8  0.0749   44.7  0.7759  -37.8
 1.640  0.7133  -89.1   5.291  111.1  0.0755   44.3  0.7724  -38.2
 1.660  0.7099  -90.1   5.261  110.5  0.0760   43.9  0.7689  -38.5
 1.680  0.7068  -91.0   5.232  109.9  0.0766   43.4  0.7654  -38.9
 1.700  0.7039  -92.0   5.203  109.2  0.0771   43.0  0.7620  -39.2
 1.720  0.7006  -92.9   5.169  108.6  0.0776   42.6  0.7584  -39.5
 1.740  0.6975  -93.9   5.135  107.9  0.0781   42.2  0.7548  -39.8
 1.760  0.6946  -94.8   5.103  107.3  0.0786   41.8  0.7513  -40.2
 1.780  0.6919  -95.7   5.071  106.7  0.0791   41.4  0.7478  -40.5
 1.800  0.6894  -96.7   5.039  106.0  0.0796   41.0  0.7443  -40.8
 1.820  0.6859  -97.7   5.011  105.4  0.0801   40.6  0.7406  -41.1
 1.840  0.6826  -98.6   4.984  104.8  0.0806   40.2  0.7369  -41.4
 1.860  0.6795  -99.6   4.957  104.2  0.0811   39.8  0.7333  -41.8
 1.880  0.6766 -100.6   4.931  103.5  0.0816   39.4  0.7296  -42.1
 1.900  0.6739 -101.6   4.906  102.9  0.0821   39.0  0.7260  -42.4
 1.920  0.6707 -102.5   4.876  102.3  0.0825   38.6  0.7226  -42.7
 1.940  0.6677 -103.4   4.846  101.7  0.0829   38.2  0.7192  -43.0
 1.960  0.6648 -104.3   4.816  101.1  0.0833   37.8  0.7158  -43.2
 1.980  0.6621 -105.2   4.787  100.5  0.0838   37.5  0.7124  -43.5
 2.000  0.6596 -106.1   4.759   99.9  0.0842   37.1  0.7091  -43.8
 2.020  0.6560 -107.0   4.731   99.3  0.0846   36.7  0.7055  -44.1
 2.040  0.6525 -107.9   4.704   98.8  0.0849   36.3  0.7019  -44.4
 2.060  0.6492 -108.9   4.677   98.2  0.0853   36.0  0.6983  -44.6
 2.080  0.6461 -109.8   4.651   97.6  0.0857   35.6  0.6948  -44.9
 2.100  0.6432 -110.8   4.625   97.0  0.0861   35.2  0.6912  -45.2
 2.120  0.6404 -111.8   4.600   96.4  0.0864   34.8  0.6877  -45.5
 2.140  0.6379 -112.7   4.575   95.8  0.0868   34.5  0.6842  -45.8
 2.160  0.6355 -113.7   4.551   95.2  0.0872   34.1  0.6807  -46.1
 2.180  0.6333 -114.7   4.527   94.5  0.0876   33.8  0.6772  -46.4
 2.200  0.6313 -115.7   4.504   93.9  0.0880   33.4  0.6738  -46.7
 2.220  0.6279 -116.6   4.478   93.4  0.0883   33.0  0.6703  -46.9
 2.240  0.6246 -117.5   4.452   92.8  0.0886   32.7  0.6668  -47.2
 2.260  0.6215 -118.4   4.426   92.3  0.0890   32.3  0.6633  -47.5
 2.280  0.6186 -119.3   4.401   91.7  0.0893   32.0  0.6598  -47.7
 2.300  0.6158 -120.2   4.376   91.2  0.0896   31.6  0.6564  -48.0
 2.320  0.6131 -121.2   4.351   90.6  0.0899   31.3  0.6529  -48.2
 2.340  0.6107 -122.1   4.327   90.0  0.0903   30.9  0.6495  -48.5
 2.360  0.6084 -123.1   4.304   89.5  0.0906   30.6  0.6461  -48.8
 2.380  0.6063 -124.0   4.281   88.9  0.0910   30.2  0.6427  -49.0
 2.400  0.6043 -125.0   4.258   88.3  0.0913   29.9  0.6393  -49.3
 2.420  0.6015 -125.9   4.233   87.8  0.0915   29.6  0.6358  -49.5
 2.440  0.5989 -126.8   4.208   87.2  0.0918   29.2  0.6324  -49.8
 2.460  0.5964 -127.8   4.184   86.7  0.0920   28.9  0.6290  -50.1
 2.480  0.5941 -128.7   4.160   86.2  0.0922   28.5  0.6255  -50.3
 2.500  0.5920 -129.7   4.136   85.6  0.0925   28.2  0.6221  -50.6
 2.520  0.5900 -130.6   4.113   85.1  0.0927   27.8  0.6187  -50.8
 2.540  0.5882 -131.6   4.090   84.5  0.0929   27.5  0.6154  -51.1
 2.560  0.5865 -132.6   4.068   83.9  0.0932   27.2  0.6120  -51.4
 2.580  0.5850 -133.5   4.046   83.4  0.0934   26.8  0.6086  -51.6
 2.600  0.5837 -134.5   4.024   82.8  0.0937   26.5  0.6053  -51.9
 2.620  0.5812 -135.4   4.001   82.3  0.0939   26.2  0.6022  -52.1
 2.640  0.5788 -136.3   3.978   81.8  0.0940   25.9  0.5990  -52.3
 2.660  0.5765 -137.2   3.956   81.4  0.0942   25.6  0.5959  -52.6
 2.680  0.5745 -138.1   3.934   80.9  0.0944   25.4  0.5928  -52.8
 2.700  0.5725 -139.0   3.912   80.4  0.0946   25.1  0.5897  -53.0
 2.720  0.5707 -139.9   3.890   79.9  0.0948   24.8  0.5866  -53.3
 2.740  0.5690 -140.9   3.869   79.4  0.0949   24.5  0.5835  -53.5
 2.760  0.5675 -141.8   3.848   78.8  0.0951   24.3  0.5804  -53.7
 2.780  0.5662 -142.8   3.827   78.3  0.0953   24.0  0.5774  -54.0
 2.800  0.5650 -143.7   3.807   77.8  0.0955   23.7  0.5743  -54.2
 2.820  0.5633 -144.6   3.786   77.3  0.0956   23.4  0.5714  -54.4
 2.840  0.5617 -145.4   3.765   76.9  0.0958   23.1  0.5685  -54.6
 2.860  0.5603 -146.3   3.745   76.4  0.0959   22.9  0.5657  -54.8
 2.880  0.5590 -147.1   3.725   75.9  0.0961   22.6  0.5628  -55.1
 2.900  0.5578 -148.0   3.705   75.4  0.0962   22.3  0.5599  -55.3
 2.920  0.5567 -148.9   3.685   74.9  0.0964   22.0  0.5571  -55.5
 2.940  0.5558 -149.8   3.666   74.4  0.0965   21.7  0.5543  -55.7
 2.960  0.5550 -150.6   3.646   73.9  0.0967   21.5  0.5514  -55.9
 2.980  0.5543 -151.5   3.628   73.4  0.0968   21.2  0.5486  -56.2
 3.000  0.5538 -152.4   3.609   72.9  0.0970   20.9  0.5458  -56.4
 3.100  0.5451 -156.5   3.512   70.8  0.0973   19.8  0.5333  -57.3
 3.200  0.5392 -160.6   3.420   68.7  0.0977   18.6  0.5209  -58.3
 3.300  0.5363 -164.9   3.333   66.4  0.0981   17.5  0.5086  -59.4
 3.400  0.5363 -169.2   3.252   63.9  0.0985   16.4  0.4966  -60.5
 3.500  0.5393 -173.4   3.177   61.4  0.0990   15.3  0.4847  -61.6
 3.600  0.5360 -177.0   3.097   59.5  0.0993   14.5  0.4740  -62.5
 3.700  0.5349  179.3   3.021   57.5  0.0995   13.6  0.4635  -63.5
 3.800  0.5360  175.7   2.949   55.3  0.0998   12.8  0.4532  -64.6
 3.900  0.5392  172.1   2.881   53.1  0.1002   12.0  0.4429  -65.7
 4.000  0.5446  168.5   2.818   50.8  0.1005   11.2  0.4329  -66.8
 4.100  0.5442  165.5   2.749   49.0  0.1006   10.5  0.4234  -68.0
 4.200  0.5454  162.5   2.683   47.0  0.1007    9.7  0.4141  -69.2
 4.300  0.5480  159.5   2.620   45.0  0.1009    9.0  0.4050  -70.5
 4.400  0.5521  156.5   2.561   42.9  0.1010    8.2  0.3961  -71.9
 4.500  0.5577  153.6   2.505   40.7  0.1012    7.5  0.3874  -73.3
 4.600  0.5578  151.3   2.446   39.1  0.1012    7.0  0.3804  -74.5
 4.700  0.5588  148.9   2.389   37.4  0.1013    6.4  0.3736  -75.7
 4.800  0.5608  146.6   2.334   35.6  0.1013    5.9  0.3670  -76.9
 4.900  0.5636  144.3   2.281   33.7  0.1013    5.3  0.3606  -78.2
 5.000  0.5674  142.0   2.231   31.8  0.1014    4.8  0.3543  -79.6
 5.100  0.5680  140.0   2.184   30.3  0.1014    4.4  0.3484  -80.6
 5.200  0.5693  138.0   2.139   28.7  0.1014    4.0  0.3425  -81.6
 5.300  0.5713  136.0   2.095   27.1  0.1014    3.6  0.3368  -82.6
 5.400  0.5740  134.0   2.053   25.4  0.1014    3.2  0.3312  -83.7
 5.500  0.5774  132.0   2.013   23.6  0.1014    2.8  0.3257  -84.8
 5.600  0.5796  130.1   1.975   22.1  0.1015    2.6  0.3195  -85.9
 5.700  0.5824  128.2   1.939   20.6  0.1017    2.4  0.3135  -87.0
 5.800  0.5859  126.4   1.904   19.0  0.1018    2.3  0.3075  -88.2
 5.900  0.5899  124.5   1.871   17.4  0.1020    2.1  0.3017  -89.4
 6.000  0.5946  122.7   1.839   15.7  0.1021    1.9  0.2961  -90.7
 6.100  0.5980  121.0   1.808   14.3  0.1027    1.7  0.2909  -92.1
 6.200  0.6018  119.4   1.779   12.8  0.1032    1.6  0.2859  -93.6
 6.300  0.6062  117.7   1.751   11.2  0.1038    1.4  0.2812  -95.1
 6.400  0.6111  116.1   1.724    9.6  0.1043    1.3  0.2766  -96.7
 6.500  0.6164  114.5   1.698    8.0  0.1049    1.1  0.2722  -98.3
 6.600  0.6196  113.0   1.671    6.5  0.1058    0.9  0.2681  -99.6
 6.800  0.6273  110.1   1.621    3.5  0.1075    0.6  0.2602 -102.2
 7.000  0.6365  107.3   1.576    0.2  0.1092    0.3  0.2530 -105.0
 7.200  0.6411  104.3   1.530   -2.7  0.1117   -0.4  0.2428 -108.0
 7.400  0.6474  101.4   1.487   -5.7  0.1142   -1.0  0.2333 -111.2
 7.600  0.6529   98.3   1.444   -8.8  0.1166   -1.9  0.2224 -115.1
 7.800  0.6582   94.9   1.399  -12.1  0.1189   -3.1  0.2107 -120.0
 8.000  0.6657   91.6   1.359  -15.5  0.1213   -4.3  0.2007 -125.4
 8.200  0.6706   88.1   1.311  -18.3  0.1225   -5.6  0.1871 -131.2
 8.400  0.6779   84.6   1.266  -21.2  0.1238   -6.8  0.1757 -137.8
 8.600  0.6888   81.5   1.226  -24.0  0.1250   -7.8  0.1637 -145.5
 8.800  0.7026   78.7   1.190  -26.6  0.1261   -8.7  0.1521 -154.7
 9.000  0.7180   76.1   1.156  -29.4  0.1272   -9.6  0.1450 -165.2
 9.200  0.7405   74.2   1.123  -31.9  0.1285  -10.3  0.1426 -178.4
 9.400  0.7637   72.4   1.093  -34.6  0.1298  -11.0  0.1478  168.7
 9.600  0.7849   70.5   1.058  -37.3  0.1315  -11.8  0.1616  157.6
 9.800  0.8041   68.7   1.019  -40.2  0.1335  -12.5  0.1820  149.0
10.000  0.8241   66.9   0.982  -43.2  0.1355  -13.2  0.2056  142.2
10.200  0.8291   65.6   0.943  -45.2  0.1384  -14.1  0.2282  137.6
10.400  0.8345   64.3   0.906  -47.4  0.1412  -15.0  0.2520  133.9
10.600  0.8320   63.6   0.875  -49.4  0.1439  -16.2  0.2750  130.9
10.800  0.8211   63.5   0.849  -50.9  0.1465  -17.9  0.2971  128.4
11.000  0.8102   63.5   0.824  -52.6  0.1492  -19.5  0.3196  126.3
11.200  0.8002   63.7   0.816  -53.7  0.1495  -21.1  0.3348  125.2
11.400  0.7903   63.8   0.808  -54.8  0.1499  -22.8  0.3502  124.3
11.600  0.7933   63.4   0.801  -57.1  0.1506  -24.3  0.3642  123.9
11.800  0.8095   62.3   0.796  -60.6  0.1516  -25.8  0.3769  124.0
12.000  0.8260   61.3   0.795  -64.1  0.1527  -27.3  0.3895  124.1
!
!  f       NFmin   Gammaopt  rn/50
! GHz       dB    MAG  ANG    -
 0.450      0.86  0.50    7   0.29
 0.900      0.82  0.48   21   0.27
 1.800      1.05  0.37   55   0.23
 2.400      1.09  0.36   63   0.19
 5.500      2.24  0.36 -145   0.21
10.000      3.98  0.70  -56   2.38
!
! (c) 2015  Infineon Technologies AG, Munich
