! Infineon Technologies  Discrete & RF Semiconductors
! BFP450
! VCE =  4.0 V,  IC =  80 mA
! Common Emitter S-Parameters:                            Nov 2015
# GHz  S  MA  R  50
!  f         S11            S21            S12            S22
! GHz     MAG   ANG      MAG   ANG      MAG   ANG      MAG   ANG
 0.030  0.2125 -140.2  72.959  164.7  0.0041   60.8  0.7293  -20.8
 0.035  0.2334 -138.7  72.137  162.4  0.0046   61.1  0.7242  -24.4
 0.040  0.2544 -137.5  71.436  160.0  0.0051   61.3  0.7220  -28.0
 0.045  0.2767 -137.7  70.443  157.7  0.0056   61.0  0.7159  -31.5
 0.050  0.2991 -137.9  69.569  155.3  0.0062   60.7  0.7124  -35.0
 0.055  0.3202 -138.1  68.334  153.3  0.0066   60.6  0.7045  -38.3
 0.060  0.3414 -138.3  67.183  151.3  0.0070   60.5  0.6989  -41.6
 0.065  0.3583 -139.0  65.896  149.2  0.0074   60.4  0.6902  -44.8
 0.070  0.3752 -139.6  64.701  147.0  0.0079   60.4  0.6836  -48.0
 0.075  0.3941 -140.1  63.480  145.3  0.0083   59.5  0.6749  -51.0
 0.080  0.4131 -140.5  62.318  143.5  0.0087   58.6  0.6680  -54.0
 0.085  0.4256 -141.4  60.990  141.8  0.0090   58.1  0.6593  -56.8
 0.090  0.4381 -142.2  59.718  140.0  0.0094   57.6  0.6522  -59.6
 0.095  0.4522 -143.3  58.460  138.4  0.0097   56.8  0.6437  -62.2
 0.100  0.4664 -144.4  57.247  136.8  0.0100   56.1  0.6366  -64.9
 0.105  0.4761 -145.1  56.076  135.3  0.0103   55.7  0.6286  -67.3
 0.110  0.4858 -145.8  54.944  133.8  0.0106   55.4  0.6217  -69.8
 0.115  0.4967 -146.9  53.743  132.5  0.0109   55.3  0.6144  -72.2
 0.120  0.5078 -147.9  52.570  131.2  0.0112   55.2  0.6081  -74.6
 0.125  0.5169 -148.6  51.466  129.9  0.0114   54.6  0.6012  -76.7
 0.130  0.5261 -149.2  50.389  128.6  0.0117   54.1  0.5952  -78.9
 0.135  0.5341 -150.1  49.351  127.5  0.0119   53.9  0.5886  -80.9
 0.140  0.5423 -150.9  48.333  126.3  0.0122   53.7  0.5828  -83.0
 0.145  0.5496 -151.7  47.314  125.2  0.0124   53.3  0.5770  -84.9
 0.150  0.5570 -152.4  46.314  124.0  0.0126   53.0  0.5718  -86.9
 0.155  0.5620 -153.1  45.421  123.3  0.0128   52.9  0.5654  -88.4
 0.160  0.5671 -153.8  44.536  122.5  0.0130   52.7  0.5595  -89.9
 0.165  0.5723 -154.4  43.660  121.7  0.0132   52.6  0.5539  -91.5
 0.170  0.5776 -155.1  42.793  120.8  0.0134   52.4  0.5488  -93.1
 0.175  0.5829 -155.7  41.935  120.0  0.0135   52.3  0.5441  -94.7
 0.180  0.5883 -156.4  41.088  119.0  0.0137   52.2  0.5398  -96.3
 0.185  0.5938 -157.0  40.251  118.1  0.0139   52.1  0.5360  -98.0
 0.190  0.5993 -157.6  39.426  117.1  0.0141   51.9  0.5326  -99.7
 0.195  0.6049 -158.2  38.613  116.1  0.0143   51.8  0.5297 -101.4
 0.200  0.6106 -158.8  37.813  115.0  0.0145   51.7  0.5273 -103.1
 0.220  0.6209 -160.7  35.332  112.7  0.0151   51.8  0.5130 -107.8
 0.240  0.6319 -162.6  32.914  110.1  0.0158   51.9  0.5025 -112.8
 0.260  0.6414 -164.3  30.780  107.8  0.0164   52.1  0.4938 -117.1
 0.280  0.6492 -165.8  28.898  105.8  0.0171   52.2  0.4859 -120.9
 0.300  0.6575 -167.3  27.055  103.6  0.0177   52.4  0.4801 -124.8
 0.320  0.6621 -168.5  25.619  102.2  0.0183   52.8  0.4745 -127.8
 0.340  0.6670 -169.7  24.200  100.6  0.0189   53.1  0.4701 -130.9
 0.360  0.6711 -170.8  22.935   99.1  0.0195   53.5  0.4666 -133.6
 0.380  0.6743 -171.8  21.815   97.7  0.0201   53.8  0.4634 -136.0
 0.400  0.6778 -172.8  20.709   96.2  0.0207   54.1  0.4611 -138.5
 0.420  0.6804 -173.7  19.807   95.2  0.0213   54.5  0.4587 -140.6
 0.440  0.6832 -174.6  18.912   94.0  0.0219   54.8  0.4569 -142.7
 0.450  0.6847 -175.1  18.467   93.4  0.0222   55.0  0.4562 -143.7
 0.460  0.6857 -175.5  18.097   92.9  0.0225   55.2  0.4554 -144.6
 0.480  0.6879 -176.2  17.361   92.0  0.0232   55.5  0.4542 -146.3
 0.500  0.6901 -176.9  16.630   90.9  0.0238   55.8  0.4534 -148.1
 0.520  0.6915 -177.6  16.063   90.2  0.0244   56.1  0.4524 -149.5
 0.540  0.6929 -178.2  15.498   89.4  0.0250   56.4  0.4517 -151.0
 0.560  0.6945 -178.9  14.936   88.6  0.0257   56.6  0.4513 -152.4
 0.580  0.6962 -179.5  14.378   87.7  0.0263   56.9  0.4512 -153.9
 0.600  0.6979  179.8  13.824   86.7  0.0269   57.1  0.4514 -155.3
 0.620  0.6987  179.2  13.411   86.1  0.0275   57.3  0.4512 -156.4
 0.640  0.6995  178.7  13.000   85.4  0.0282   57.4  0.4512 -157.5
 0.660  0.7004  178.1  12.591   84.7  0.0288   57.6  0.4514 -158.6
 0.680  0.7014  177.6  12.184   84.0  0.0295   57.8  0.4517 -159.7
 0.700  0.7024  177.0  11.779   83.2  0.0301   57.9  0.4522 -160.8
 0.720  0.7030  176.5  11.467   82.6  0.0307   58.0  0.4523 -161.8
 0.740  0.7037  176.0  11.156   82.1  0.0314   58.2  0.4526 -162.7
 0.760  0.7044  175.4  10.847   81.4  0.0320   58.3  0.4530 -163.7
 0.780  0.7052  174.9  10.539   80.8  0.0327   58.4  0.4535 -164.6
 0.800  0.7060  174.4  10.232   80.1  0.0333   58.5  0.4542 -165.6
 0.820  0.7067  174.0   9.991   79.6  0.0340   58.5  0.4546 -166.4
 0.840  0.7075  173.6   9.751   79.1  0.0346   58.6  0.4551 -167.2
 0.860  0.7083  173.1   9.512   78.6  0.0353   58.6  0.4557 -168.0
 0.880  0.7091  172.7   9.274   78.1  0.0359   58.7  0.4563 -168.8
 0.900  0.7100  172.3   9.036   77.5  0.0366   58.7  0.4571 -169.6
 0.920  0.7103  171.9   8.839   77.0  0.0373   58.7  0.4576 -170.3
 0.940  0.7107  171.4   8.642   76.6  0.0379   58.7  0.4582 -171.0
 0.960  0.7111  171.0   8.445   76.1  0.0386   58.7  0.4588 -171.8
 0.980  0.7116  170.5   8.250   75.5  0.0392   58.7  0.4595 -172.5
 1.000  0.7121  170.1   8.055   75.0  0.0399   58.7  0.4603 -173.2
 1.020  0.7127  169.7   7.900   74.6  0.0406   58.6  0.4609 -173.8
 1.040  0.7133  169.3   7.746   74.1  0.0412   58.6  0.4615 -174.4
 1.060  0.7140  168.9   7.593   73.7  0.0419   58.5  0.4621 -175.1
 1.080  0.7147  168.5   7.440   73.2  0.0425   58.5  0.4628 -175.7
 1.100  0.7154  168.1   7.287   72.7  0.0432   58.4  0.4636 -176.3
 1.120  0.7160  167.7   7.153   72.3  0.0439   58.3  0.4643 -176.9
 1.140  0.7166  167.3   7.019   71.9  0.0445   58.3  0.4650 -177.5
 1.160  0.7172  167.0   6.886   71.5  0.0452   58.2  0.4657 -178.1
 1.180  0.7179  166.6   6.753   71.1  0.0458   58.2  0.4665 -178.7
 1.200  0.7186  166.2   6.620   70.6  0.0465   58.1  0.4674 -179.3
 1.220  0.7189  165.8   6.510   70.2  0.0472   58.0  0.4680 -179.8
 1.240  0.7192  165.4   6.401   69.8  0.0478   57.9  0.4686  179.6
 1.260  0.7196  165.1   6.292   69.4  0.0485   57.8  0.4693  179.1
 1.280  0.7200  164.7   6.183   68.9  0.0491   57.7  0.4700  178.5
 1.300  0.7204  164.3   6.075   68.5  0.0498   57.6  0.4708  178.0
 1.320  0.7209  163.9   5.979   68.1  0.0505   57.5  0.4715  177.5
 1.340  0.7214  163.6   5.884   67.7  0.0511   57.4  0.4722  177.0
 1.360  0.7219  163.2   5.789   67.3  0.0518   57.2  0.4729  176.4
 1.380  0.7224  162.9   5.694   66.9  0.0524   57.1  0.4737  175.9
 1.400  0.7230  162.5   5.600   66.5  0.0531   57.0  0.4745  175.4
 1.420  0.7233  162.2   5.520   66.1  0.0538   56.9  0.4752  174.9
 1.440  0.7236  161.8   5.439   65.8  0.0544   56.7  0.4759  174.4
 1.460  0.7239  161.5   5.359   65.4  0.0551   56.6  0.4766  174.0
 1.480  0.7243  161.1   5.280   65.0  0.0557   56.4  0.4774  173.5
 1.500  0.7247  160.8   5.200   64.6  0.0564   56.3  0.4782  173.0
 1.520  0.7251  160.5   5.130   64.3  0.0571   56.1  0.4788  172.6
 1.540  0.7255  160.1   5.060   63.9  0.0577   56.0  0.4795  172.1
 1.560  0.7259  159.8   4.990   63.6  0.0584   55.8  0.4802  171.7
 1.580  0.7263  159.4   4.920   63.2  0.0590   55.7  0.4809  171.2
 1.600  0.7268  159.1   4.851   62.8  0.0597   55.5  0.4817  170.8
 1.620  0.7272  158.7   4.789   62.4  0.0604   55.3  0.4824  170.3
 1.640  0.7277  158.4   4.728   62.1  0.0610   55.2  0.4831  169.9
 1.660  0.7282  158.0   4.666   61.7  0.0617   55.0  0.4838  169.4
 1.680  0.7287  157.7   4.605   61.3  0.0623   54.9  0.4846  169.0
 1.700  0.7293  157.3   4.544   60.9  0.0630   54.7  0.4854  168.5
 1.720  0.7296  157.0   4.488   60.6  0.0636   54.5  0.4860  168.1
 1.740  0.7299  156.7   4.431   60.2  0.0643   54.3  0.4866  167.7
 1.760  0.7302  156.4   4.375   59.8  0.0649   54.1  0.4872  167.2
 1.780  0.7305  156.1   4.320   59.5  0.0656   54.0  0.4878  166.8
 1.800  0.7309  155.8   4.264   59.1  0.0662   53.8  0.4885  166.4
 1.820  0.7313  155.5   4.215   58.8  0.0668   53.6  0.4892  166.0
 1.840  0.7317  155.2   4.166   58.4  0.0675   53.4  0.4900  165.6
 1.860  0.7321  154.8   4.117   58.1  0.0681   53.2  0.4908  165.1
 1.880  0.7325  154.5   4.068   57.8  0.0688   53.1  0.4916  164.7
 1.900  0.7330  154.2   4.019   57.4  0.0694   52.9  0.4925  164.3
 1.920  0.7334  153.9   3.976   57.1  0.0700   52.7  0.4930  163.9
 1.940  0.7338  153.5   3.933   56.7  0.0707   52.4  0.4936  163.5
 1.960  0.7343  153.2   3.890   56.3  0.0713   52.2  0.4942  163.1
 1.980  0.7348  152.8   3.847   56.0  0.0720   52.0  0.4948  162.7
 2.000  0.7353  152.5   3.805   55.6  0.0726   51.8  0.4954  162.3
 2.020  0.7353  152.2   3.767   55.3  0.0732   51.6  0.4960  161.9
 2.040  0.7353  151.8   3.728   55.0  0.0738   51.4  0.4966  161.5
 2.060  0.7353  151.5   3.690   54.6  0.0744   51.2  0.4972  161.1
 2.080  0.7354  151.1   3.652   54.3  0.0750   51.0  0.4979  160.7
 2.100  0.7355  150.8   3.614   53.9  0.0756   50.8  0.4985  160.3
 2.120  0.7356  150.5   3.576   53.6  0.0762   50.6  0.4992  159.9
 2.140  0.7357  150.1   3.538   53.2  0.0768   50.4  0.5000  159.5
 2.160  0.7359  149.8   3.501   52.9  0.0774   50.2  0.5007  159.1
 2.180  0.7361  149.4   3.463   52.5  0.0780   50.0  0.5015  158.7
 2.200  0.7363  149.1   3.426   52.1  0.0786   49.8  0.5023  158.3
 2.220  0.7365  148.8   3.394   51.8  0.0792   49.6  0.5029  157.9
 2.240  0.7368  148.5   3.363   51.5  0.0798   49.4  0.5035  157.5
 2.260  0.7371  148.2   3.331   51.2  0.0804   49.1  0.5042  157.1
 2.280  0.7374  147.9   3.300   50.9  0.0810   48.9  0.5049  156.7
 2.300  0.7377  147.6   3.269   50.6  0.0816   48.7  0.5056  156.3
 2.320  0.7380  147.3   3.238   50.3  0.0822   48.5  0.5063  155.9
 2.340  0.7384  147.0   3.207   49.9  0.0829   48.3  0.5070  155.6
 2.360  0.7388  146.7   3.176   49.6  0.0835   48.1  0.5078  155.2
 2.380  0.7392  146.4   3.145   49.2  0.0841   47.9  0.5086  154.8
 2.400  0.7396  146.1   3.114   48.9  0.0847   47.7  0.5094  154.4
 2.420  0.7397  145.8   3.087   48.6  0.0853   47.5  0.5100  154.0
 2.440  0.7399  145.5   3.060   48.3  0.0858   47.2  0.5107  153.7
 2.460  0.7401  145.2   3.034   48.0  0.0864   47.0  0.5114  153.3
 2.480  0.7403  144.9   3.007   47.7  0.0870   46.8  0.5121  152.9
 2.500  0.7405  144.6   2.980   47.4  0.0876   46.6  0.5128  152.5
 2.520  0.7407  144.4   2.954   47.0  0.0882   46.3  0.5136  152.2
 2.540  0.7409  144.1   2.928   46.7  0.0887   46.1  0.5144  151.8
 2.560  0.7412  143.8   2.901   46.4  0.0893   45.9  0.5151  151.4
 2.580  0.7415  143.5   2.875   46.0  0.0899   45.7  0.5160  151.1
 2.600  0.7418  143.2   2.849   45.7  0.0905   45.5  0.5168  150.7
 2.620  0.7420  142.9   2.827   45.4  0.0911   45.3  0.5175  150.3
 2.640  0.7423  142.6   2.805   45.1  0.0916   45.0  0.5181  150.0
 2.660  0.7426  142.3   2.783   44.8  0.0922   44.8  0.5188  149.6
 2.680  0.7429  142.0   2.761   44.5  0.0928   44.6  0.5195  149.3
 2.700  0.7432  141.7   2.739   44.2  0.0933   44.4  0.5203  148.9
 2.720  0.7436  141.4   2.717   43.8  0.0939   44.1  0.5210  148.6
 2.740  0.7440  141.1   2.695   43.5  0.0945   43.9  0.5218  148.2
 2.760  0.7444  140.8   2.674   43.2  0.0950   43.7  0.5226  147.9
 2.780  0.7448  140.5   2.652   42.8  0.0956   43.5  0.5234  147.5
 2.800  0.7452  140.2   2.631   42.5  0.0962   43.3  0.5242  147.2
 2.820  0.7455  139.9   2.612   42.2  0.0968   43.1  0.5248  146.9
 2.840  0.7458  139.6   2.592   41.9  0.0973   42.8  0.5255  146.5
 2.860  0.7461  139.3   2.573   41.6  0.0979   42.6  0.5262  146.2
 2.880  0.7465  139.0   2.554   41.3  0.0984   42.3  0.5269  145.9
 2.900  0.7468  138.7   2.535   41.0  0.0990   42.1  0.5276  145.5
 2.920  0.7472  138.5   2.515   40.6  0.0995   41.9  0.5283  145.2
 2.940  0.7476  138.2   2.496   40.3  0.1001   41.7  0.5291  144.9
 2.960  0.7480  137.9   2.478   40.0  0.1007   41.4  0.5298  144.6
 2.980  0.7484  137.6   2.459   39.6  0.1012   41.2  0.5306  144.2
 3.000  0.7489  137.3   2.440   39.3  0.1018   41.0  0.5314  143.9
 3.100  0.7505  135.8   2.358   37.9  0.1042   39.7  0.5345  142.4
 3.200  0.7527  134.3   2.277   36.5  0.1067   38.4  0.5380  140.8
 3.300  0.7553  132.8   2.198   34.9  0.1092   37.2  0.5418  139.3
 3.400  0.7585  131.3   2.121   33.2  0.1117   36.1  0.5460  137.9
 3.500  0.7622  129.8   2.046   31.4  0.1143   35.0  0.5506  136.4
 3.600  0.7645  128.5   1.984   30.1  0.1164   33.8  0.5543  135.1
 3.700  0.7671  127.1   1.923   28.8  0.1185   32.7  0.5582  133.8
 3.800  0.7702  125.8   1.863   27.3  0.1206   31.6  0.5624  132.5
 3.900  0.7737  124.5   1.805   25.8  0.1229   30.5  0.5669  131.2
 4.000  0.7776  123.2   1.748   24.1  0.1251   29.5  0.5717  130.0
 4.100  0.7795  122.1   1.701   22.9  0.1270   28.4  0.5753  128.8
 4.200  0.7816  121.0   1.654   21.7  0.1289   27.4  0.5791  127.6
 4.300  0.7841  119.9   1.609   20.4  0.1308   26.4  0.5831  126.4
 4.400  0.7868  118.8   1.564   19.0  0.1328   25.4  0.5875  125.2
 4.500  0.7898  117.7   1.520   17.5  0.1348   24.5  0.5920  124.1
 4.600  0.7906  116.7   1.484   16.3  0.1367   23.4  0.5948  123.0
 4.700  0.7916  115.6   1.449   15.1  0.1386   22.4  0.5977  121.9
 4.800  0.7929  114.6   1.415   13.8  0.1406   21.4  0.6009  120.8
 4.900  0.7945  113.5   1.382   12.4  0.1426   20.4  0.6044  119.7
 5.000  0.7963  112.5   1.349   11.0  0.1447   19.5  0.6080  118.6
 5.100  0.7960  111.5   1.320    9.9  0.1464   18.5  0.6096  117.5
 5.200  0.7960  110.4   1.292    8.7  0.1482   17.4  0.6115  116.3
 5.300  0.7962  109.4   1.264    7.5  0.1501   16.4  0.6136  115.2
 5.400  0.7967  108.3   1.237    6.2  0.1520   15.5  0.6159  114.1
 5.500  0.7974  107.3   1.210    4.9  0.1539   14.5  0.6185  113.0
 5.600  0.7974  106.5   1.188    3.8  0.1556   13.5  0.6198  111.8
 5.700  0.7975  105.6   1.167    2.7  0.1574   12.5  0.6215  110.7
 5.800  0.7978  104.8   1.146    1.5  0.1593   11.6  0.6233  109.5
 5.900  0.7983  103.9   1.125    0.3  0.1612   10.6  0.6254  108.3
 6.000  0.7990  103.1   1.105   -1.0  0.1631    9.7  0.6278  107.2
 6.100  0.8003  102.3   1.088   -2.2  0.1648    8.6  0.6295  106.2
 6.200  0.8017  101.4   1.072   -3.4  0.1665    7.5  0.6314  105.1
 6.300  0.8033  100.6   1.057   -4.7  0.1683    6.5  0.6336  104.1
 6.400  0.8051   99.7   1.042   -6.0  0.1702    5.4  0.6359  103.1
 6.500  0.8070   98.9   1.027   -7.4  0.1721    4.4  0.6384  102.1
 6.600  0.8084   97.9   1.011   -8.7  0.1737    3.2  0.6400  101.2
 6.800  0.8120   95.9   0.982  -11.3  0.1770    1.0  0.6438   99.5
 7.000  0.8165   94.0   0.954  -14.1  0.1806   -1.2  0.6481   97.8
 7.200  0.8191   91.7   0.924  -16.8  0.1829   -3.6  0.6526   95.8
 7.400  0.8230   89.4   0.896  -19.6  0.1856   -6.0  0.6579   93.9
 7.600  0.8261   87.1   0.868  -22.3  0.1877   -8.3  0.6646   91.6
 7.800  0.8285   84.7   0.839  -24.8  0.1892  -10.6  0.6731   89.1
 8.000  0.8324   82.3   0.811  -27.5  0.1911  -12.9  0.6829   86.7
 8.200  0.8352   79.8   0.782  -29.8  0.1911  -15.2  0.6922   84.1
 8.400  0.8396   77.3   0.755  -32.4  0.1915  -17.5  0.7029   81.5
 8.600  0.8434   74.9   0.729  -34.7  0.1912  -19.8  0.7117   79.1
 8.800  0.8466   72.5   0.703  -36.9  0.1903  -21.9  0.7187   76.7
 9.000  0.8513   70.1   0.678  -39.2  0.1897  -24.1  0.7270   74.3
 9.200  0.8553   68.3   0.651  -41.0  0.1880  -25.7  0.7333   72.4
 9.400  0.8602   66.5   0.626  -42.9  0.1864  -27.4  0.7404   70.4
 9.600  0.8659   65.1   0.604  -44.5  0.1850  -28.8  0.7500   68.8
 9.800  0.8718   64.0   0.586  -45.8  0.1837  -30.1  0.7618   67.5
10.000  0.8780   63.0   0.569  -47.2  0.1825  -31.4  0.7741   66.2
10.200  0.8803   62.5   0.554  -48.1  0.1820  -32.0  0.7787   66.2
10.400  0.8826   62.0   0.540  -49.0  0.1816  -32.6  0.7834   66.3
10.600  0.8836   61.5   0.530  -49.9  0.1818  -33.2  0.7854   66.5
10.800  0.8833   61.1   0.523  -50.7  0.1825  -33.9  0.7847   66.9
11.000  0.8831   60.7   0.517  -51.6  0.1833  -34.5  0.7841   67.3
11.200  0.8788   60.0   0.512  -53.1  0.1892  -34.6  0.7722   66.7
11.400  0.8746   59.3   0.507  -54.6  0.1951  -34.7  0.7604   66.1
11.600  0.8697   58.6   0.505  -56.1  0.2004  -36.0  0.7545   65.2
11.800  0.8642   57.9   0.506  -57.6  0.2054  -38.2  0.7549   64.0
12.000  0.8588   57.3   0.507  -59.0  0.2107  -40.3  0.7555   62.8
!
!  f       NFmin   Gammaopt  rn/50
! GHz       dB    MAG  ANG    -
 0.450      1.90  0.60 -172   0.07
 0.900      1.96  0.63 -166   0.08
 1.900      2.06  0.65 -150   0.14
 2.400      2.15  0.65 -141   0.20
!
! (c) 2015  Infineon Technologies AG, Munich
