! Infineon Technologies  Discrete & RF Semiconductors
! BFP420F
!
! VCE =  3.5 V,  IC =  8.0 mA
! Common Emitter S-Parameters:                            Sep 2011
# GHz  S  MA  R  50
!  f         S11            S21            S12            S22
! GHz     MAG   ANG      MAG   ANG      MAG   ANG      MAG   ANG
 0.030  0.7360   -4.1  22.422  175.6  0.0025   78.5  0.9766   -2.2
 0.040  0.7354   -5.4  22.411  174.5  0.0032   78.5  0.9758   -2.9
 0.050  0.7344   -6.6  22.191  173.0  0.0040   80.4  0.9756   -3.8
 0.060  0.7322   -8.5  22.211  172.4  0.0048   81.5  0.9750   -4.6
 0.070  0.7332   -9.9  22.207  171.4  0.0055   80.5  0.9730   -5.4
 0.080  0.7265  -11.3  21.939  170.1  0.0064   79.8  0.9712   -6.1
 0.090  0.7279  -12.5  21.953  169.1  0.0070   80.2  0.9692   -6.9
 0.100  0.7260  -13.9  21.961  167.8  0.0078   79.8  0.9671   -7.7
 0.110  0.7284  -15.2  21.641  167.0  0.0086   79.8  0.9644   -8.4
 0.120  0.7261  -16.7  21.713  165.6  0.0093   79.6  0.9620   -9.2
 0.130  0.7216  -18.1  21.465  164.6  0.0102   78.7  0.9590   -9.9
 0.140  0.7187  -19.2  21.328  163.7  0.0109   78.5  0.9560  -10.6
 0.150  0.7190  -20.7  21.248  162.6  0.0116   78.8  0.9529  -11.3
 0.200  0.7089  -27.4  20.643  158.1  0.0153   76.3  0.9359  -14.9
 0.250  0.6935  -33.9  19.978  153.3  0.0186   74.0  0.9147  -18.2
 0.300  0.6800  -40.2  19.427  149.0  0.0219   71.7  0.8933  -21.3
 0.350  0.6632  -46.2  18.717  144.8  0.0249   69.4  0.8686  -24.3
 0.400  0.6459  -51.9  17.975  140.9  0.0278   67.4  0.8438  -27.0
 0.450  0.6313  -57.2  17.337  137.3  0.0304   65.5  0.8194  -29.6
 0.500  0.6138  -62.5  16.619  133.8  0.0328   63.8  0.7926  -32.0
 0.600  0.5808  -72.5  15.291  127.3  0.0371   60.7  0.7408  -36.4
 0.700  0.5532  -81.6  14.141  121.7  0.0411   58.3  0.6954  -40.3
 0.800  0.5277  -89.9  13.015  116.4  0.0443   56.3  0.6502  -43.6
 0.900  0.5046  -97.3  11.983  112.1  0.0472   54.8  0.6089  -46.4
 1.000  0.4881 -104.3  11.123  108.1  0.0499   53.7  0.5723  -49.1
 1.100  0.4712 -110.8  10.331  104.3  0.0523   52.5  0.5382  -51.5
 1.200  0.4578 -116.8   9.561  100.9  0.0547   51.8  0.5088  -53.8
 1.300  0.4468 -122.0   8.949   98.2  0.0569   51.2  0.4822  -55.7
 1.400  0.4395 -127.3   8.407   95.4  0.0591   50.8  0.4575  -57.8
 1.500  0.4300 -132.2   7.876   92.4  0.0612   50.4  0.4342  -59.3
 1.600  0.4239 -136.4   7.365   90.2  0.0632   50.1  0.4138  -61.3
 1.700  0.4176 -140.4   6.978   88.2  0.0652   50.0  0.3947  -62.9
 1.800  0.4159 -144.0   6.626   86.2  0.0673   49.9  0.3783  -64.6
 1.900  0.4121 -148.0   6.287   83.7  0.0694   49.7  0.3632  -66.1
 2.000  0.4072 -151.1   5.922   82.0  0.0713   49.5  0.3495  -67.8
 2.200  0.4058 -156.9   5.427   78.7  0.0753   49.5  0.3268  -70.9
 2.400  0.3999 -162.2   4.933   75.3  0.0796   49.1  0.3089  -73.9
 2.600  0.3995 -166.9   4.560   72.6  0.0835   49.1  0.2931  -76.6
 2.800  0.3975 -171.2   4.231   69.7  0.0879   48.9  0.2816  -79.3
 3.000  0.3972 -175.3   3.940   67.2  0.0921   48.7  0.2710  -81.9
 3.500  0.3992  175.7   3.370   61.1  0.1032   47.9  0.2519  -87.5
 4.000  0.4029  167.5   2.949   55.3  0.1146   46.6  0.2377  -92.4
 4.500  0.4100  160.5   2.628   49.9  0.1264   45.2  0.2235  -96.8
 5.000  0.4143  154.5   2.375   44.7  0.1382   43.3  0.2088 -100.9
 5.500  0.4197  148.5   2.169   39.5  0.1500   41.2  0.1915 -105.1
 6.000  0.4258  142.1   1.996   34.4  0.1618   38.9  0.1707 -109.4
 6.500  0.4370  135.5   1.848   29.4  0.1733   36.5  0.1484 -116.1
 7.000  0.4510  128.9   1.719   24.3  0.1848   34.0  0.1244 -123.3
 7.500  0.4722  123.6   1.606   19.5  0.1971   31.5  0.1017 -135.7
 8.000  0.4968  119.0   1.504   14.7  0.2089   28.4  0.0824 -160.5
 8.500  0.5257  114.8   1.407    9.9  0.2191   25.1  0.0818  159.6
 9.000  0.5536  111.2   1.320    5.5  0.2280   22.1  0.1164  127.8
 9.500  0.5820  107.8   1.242    1.5  0.2365   19.3  0.1746  113.3
10.000  0.6128  103.9   1.172   -2.2  0.2449   16.5  0.2425  106.7
!
!  f       NFmin   Gammaopt  rn/50
! GHz       dB    MAG  ANG    -
 0.450      1.08  0.09   22   0.18
 0.900      1.10  0.10   56   0.15
 1.900      1.26  0.14  138   0.20
 2.400      1.33  0.15  140   0.13
 3.500      1.60  0.20  167   0.13
!
! (c) 2011  Infineon Technologies AG, Munich
