! Infineon Technologies  Discrete & RF Semiconductors
! BFP410
! VCE =  0.5 V,  IC =  1.5 mA
! Common Emitter S-Parameters:                            Nov 2015
# GHz  S  MA  R  50
!  f         S11            S21            S12            S22
! GHz     MAG   ANG      MAG   ANG      MAG   ANG      MAG   ANG
 0.010  0.9369   -0.2   5.292  179.4  0.0008   98.3  0.9937    0.2
 0.015  0.9356   -0.6   5.334  179.2  0.0015   92.5  0.9935   -0.2
 0.020  0.9343   -1.1   5.377  179.0  0.0022   90.4  0.9934   -0.6
 0.025  0.9334   -1.4   5.372  178.6  0.0027   89.4  0.9934   -0.8
 0.030  0.9326   -1.7   5.368  178.3  0.0032   88.8  0.9934   -1.0
 0.035  0.9318   -2.0   5.364  177.9  0.0037   88.3  0.9934   -1.3
 0.040  0.9310   -2.4   5.359  177.5  0.0042   87.9  0.9935   -1.5
 0.045  0.9302   -2.7   5.356  177.2  0.0047   87.6  0.9935   -1.7
 0.050  0.9295   -3.0   5.352  176.8  0.0052   87.4  0.9936   -1.9
 0.055  0.9295   -3.3   5.355  176.6  0.0057   87.2  0.9935   -2.1
 0.060  0.9296   -3.6   5.357  176.4  0.0062   87.1  0.9933   -2.3
 0.065  0.9297   -4.0   5.360  176.3  0.0067   87.0  0.9932   -2.5
 0.070  0.9299   -4.3   5.363  176.1  0.0072   86.9  0.9931   -2.7
 0.075  0.9300   -4.6   5.365  175.9  0.0077   86.8  0.9930   -2.8
 0.080  0.9302   -4.9   5.368  175.7  0.0082   86.7  0.9929   -3.0
 0.085  0.9305   -5.2   5.371  175.5  0.0087   86.7  0.9928   -3.2
 0.090  0.9307   -5.6   5.374  175.4  0.0092   86.6  0.9927   -3.4
 0.095  0.9310   -5.9   5.377  175.2  0.0097   86.5  0.9927   -3.6
 0.100  0.9313   -6.2   5.380  175.0  0.0102   86.5  0.9926   -3.8
 0.105  0.9311   -6.5   5.379  174.7  0.0107   86.2  0.9923   -4.0
 0.110  0.9308   -6.8   5.378  174.5  0.0112   86.0  0.9921   -4.2
 0.115  0.9306   -7.0   5.378  174.2  0.0117   85.7  0.9918   -4.4
 0.120  0.9305   -7.3   5.377  173.9  0.0122   85.5  0.9916   -4.6
 0.125  0.9303   -7.6   5.377  173.7  0.0127   85.3  0.9914   -4.7
 0.130  0.9302   -7.9   5.377  173.4  0.0132   85.1  0.9911   -4.9
 0.135  0.9301   -8.2   5.377  173.1  0.0137   84.9  0.9909   -5.1
 0.140  0.9300   -8.4   5.377  172.8  0.0142   84.8  0.9908   -5.3
 0.145  0.9299   -8.7   5.377  172.6  0.0147   84.6  0.9906   -5.5
 0.150  0.9299   -9.0   5.377  172.3  0.0152   84.5  0.9904   -5.7
 0.155  0.9295   -9.3   5.376  172.1  0.0157   84.3  0.9900   -5.9
 0.160  0.9292   -9.6   5.376  171.8  0.0162   84.0  0.9896   -6.1
 0.165  0.9289   -9.9   5.376  171.6  0.0167   83.8  0.9892   -6.3
 0.170  0.9286  -10.2   5.375  171.3  0.0172   83.7  0.9889   -6.5
 0.175  0.9284  -10.5   5.375  171.1  0.0177   83.5  0.9885   -6.6
 0.180  0.9281  -10.9   5.375  170.9  0.0183   83.3  0.9882   -6.8
 0.185  0.9279  -11.2   5.375  170.6  0.0188   83.1  0.9878   -7.0
 0.190  0.9278  -11.5   5.375  170.4  0.0193   83.0  0.9875   -7.2
 0.195  0.9276  -11.8   5.376  170.1  0.0198   82.8  0.9872   -7.4
 0.200  0.9275  -12.1   5.376  169.9  0.0203   82.7  0.9869   -7.6
 0.220  0.9260  -13.3   5.360  168.8  0.0223   81.9  0.9852   -8.4
 0.240  0.9250  -14.6   5.346  167.7  0.0243   81.2  0.9837   -9.1
 0.260  0.9237  -15.8   5.340  166.7  0.0263   80.5  0.9818   -9.9
 0.280  0.9222  -17.0   5.340  165.7  0.0283   79.7  0.9795  -10.7
 0.300  0.9211  -18.2   5.342  164.7  0.0303   79.0  0.9774  -11.5
 0.320  0.9194  -19.4   5.330  163.7  0.0323   78.3  0.9750  -12.2
 0.340  0.9181  -20.6   5.320  162.8  0.0343   77.6  0.9728  -12.9
 0.360  0.9164  -21.8   5.308  161.8  0.0363   76.9  0.9701  -13.7
 0.380  0.9144  -23.0   5.294  160.7  0.0382   76.0  0.9671  -14.4
 0.400  0.9127  -24.2   5.281  159.7  0.0401   75.3  0.9642  -15.1
 0.420  0.9104  -25.4   5.266  158.7  0.0421   74.6  0.9612  -15.9
 0.440  0.9086  -26.7   5.252  157.8  0.0440   73.9  0.9584  -16.6
 0.450  0.9078  -27.3   5.246  157.3  0.0450   73.6  0.9571  -17.0
 0.460  0.9064  -27.9   5.238  156.8  0.0460   73.2  0.9553  -17.4
 0.480  0.9041  -29.2   5.224  155.7  0.0479   72.5  0.9518  -18.1
 0.500  0.9021  -30.4   5.212  154.7  0.0498   71.8  0.9485  -18.8
 0.520  0.8990  -31.6   5.189  153.7  0.0516   71.0  0.9444  -19.5
 0.540  0.8962  -32.8   5.167  152.7  0.0534   70.2  0.9405  -20.2
 0.560  0.8938  -34.0   5.147  151.7  0.0552   69.4  0.9368  -20.9
 0.580  0.8919  -35.2   5.129  150.6  0.0571   68.7  0.9332  -21.7
 0.600  0.8903  -36.4   5.112  149.6  0.0589   68.1  0.9297  -22.4
 0.620  0.8868  -37.6   5.091  148.7  0.0607   67.3  0.9254  -23.1
 0.640  0.8837  -38.7   5.072  147.9  0.0625   66.6  0.9212  -23.7
 0.660  0.8810  -39.9   5.054  147.0  0.0643   65.9  0.9171  -24.4
 0.680  0.8787  -41.1   5.037  146.1  0.0661   65.2  0.9131  -25.1
 0.700  0.8767  -42.3   5.021  145.2  0.0679   64.6  0.9093  -25.8
 0.720  0.8731  -43.5   4.993  144.3  0.0695   63.8  0.9046  -26.4
 0.740  0.8699  -44.6   4.966  143.4  0.0712   63.1  0.9001  -27.1
 0.760  0.8670  -45.8   4.940  142.5  0.0728   62.4  0.8957  -27.8
 0.780  0.8645  -47.0   4.916  141.5  0.0745   61.7  0.8914  -28.4
 0.800  0.8624  -48.2   4.893  140.6  0.0762   61.1  0.8872  -29.1
 0.820  0.8588  -49.4   4.869  139.7  0.0778   60.4  0.8823  -29.7
 0.840  0.8555  -50.5   4.847  138.8  0.0793   59.7  0.8774  -30.4
 0.860  0.8526  -51.7   4.825  137.9  0.0809   59.0  0.8727  -31.0
 0.880  0.8501  -52.9   4.805  137.0  0.0825   58.3  0.8681  -31.6
 0.900  0.8479  -54.1   4.786  136.1  0.0841   57.7  0.8636  -32.3
 0.920  0.8438  -55.2   4.759  135.2  0.0856   57.0  0.8583  -32.9
 0.940  0.8401  -56.4   4.732  134.4  0.0870   56.3  0.8532  -33.5
 0.960  0.8367  -57.6   4.707  133.5  0.0885   55.7  0.8481  -34.1
 0.980  0.8337  -58.7   4.683  132.6  0.0900   55.0  0.8432  -34.8
 1.000  0.8310  -59.9   4.660  131.7  0.0915   54.4  0.8383  -35.4
 1.020  0.8272  -61.0   4.633  130.9  0.0929   53.7  0.8332  -36.0
 1.040  0.8237  -62.2   4.607  130.0  0.0942   53.1  0.8283  -36.6
 1.060  0.8206  -63.3   4.582  129.2  0.0956   52.4  0.8234  -37.2
 1.080  0.8178  -64.4   4.558  128.4  0.0970   51.8  0.8186  -37.8
 1.100  0.8153  -65.6   4.535  127.5  0.0984   51.2  0.8139  -38.4
 1.120  0.8116  -66.7   4.508  126.7  0.0997   50.6  0.8088  -38.9
 1.140  0.8082  -67.9   4.482  125.9  0.1009   50.0  0.8038  -39.5
 1.160  0.8052  -69.0   4.457  125.1  0.1022   49.4  0.7988  -40.1
 1.180  0.8024  -70.1   4.433  124.2  0.1035   48.8  0.7939  -40.6
 1.200  0.8000  -71.3   4.410  123.4  0.1048   48.2  0.7891  -41.2
 1.220  0.7963  -72.4   4.383  122.6  0.1059   47.5  0.7840  -41.7
 1.240  0.7929  -73.5   4.356  121.8  0.1071   46.9  0.7789  -42.3
 1.260  0.7898  -74.6   4.331  121.0  0.1082   46.2  0.7740  -42.8
 1.280  0.7869  -75.7   4.306  120.2  0.1094   45.6  0.7690  -43.3
 1.300  0.7844  -76.8   4.282  119.4  0.1106   45.0  0.7642  -43.9
 1.320  0.7803  -77.9   4.253  118.7  0.1116   44.4  0.7590  -44.4
 1.340  0.7764  -79.0   4.225  117.9  0.1126   43.8  0.7539  -44.9
 1.360  0.7729  -80.1   4.198  117.1  0.1136   43.3  0.7488  -45.4
 1.380  0.7696  -81.2   4.171  116.4  0.1147   42.7  0.7438  -46.0
 1.400  0.7666  -82.3   4.145  115.6  0.1157   42.2  0.7388  -46.5
 1.420  0.7633  -83.3   4.120  114.9  0.1167   41.6  0.7341  -47.0
 1.440  0.7602  -84.3   4.096  114.2  0.1177   41.1  0.7294  -47.4
 1.460  0.7574  -85.3   4.073  113.5  0.1187   40.6  0.7248  -47.9
 1.480  0.7548  -86.3   4.050  112.8  0.1197   40.0  0.7203  -48.4
 1.500  0.7524  -87.3   4.028  112.1  0.1207   39.5  0.7158  -48.9
 1.520  0.7491  -88.4   4.003  111.4  0.1215   38.9  0.7109  -49.4
 1.540  0.7460  -89.5   3.980  110.6  0.1224   38.4  0.7061  -49.8
 1.560  0.7432  -90.6   3.956  109.9  0.1232   37.8  0.7013  -50.3
 1.580  0.7406  -91.7   3.934  109.2  0.1241   37.2  0.6966  -50.8
 1.600  0.7384  -92.8   3.912  108.4  0.1250   36.7  0.6919  -51.3
 1.620  0.7351  -93.8   3.888  107.7  0.1258   36.2  0.6876  -51.7
 1.640  0.7320  -94.8   3.864  107.1  0.1266   35.7  0.6834  -52.2
 1.660  0.7292  -95.8   3.841  106.4  0.1274   35.2  0.6792  -52.6
 1.680  0.7265  -96.8   3.819  105.7  0.1283   34.8  0.6750  -53.0
 1.700  0.7241  -97.8   3.797  105.0  0.1291   34.3  0.6709  -53.5
 1.720  0.7212  -98.8   3.772  104.4  0.1298   33.8  0.6667  -53.9
 1.740  0.7186  -99.7   3.748  103.7  0.1306   33.3  0.6625  -54.4
 1.760  0.7161 -100.7   3.724  103.0  0.1313   32.8  0.6583  -54.8
 1.780  0.7138 -101.7   3.701  102.4  0.1320   32.4  0.6542  -55.2
 1.800  0.7118 -102.7   3.678  101.7  0.1328   31.9  0.6501  -55.7
 1.820  0.7088 -103.7   3.657  101.1  0.1335   31.4  0.6457  -56.1
 1.840  0.7059 -104.7   3.637  100.4  0.1342   30.9  0.6413  -56.6
 1.860  0.7033 -105.7   3.617   99.8  0.1349   30.4  0.6370  -57.0
 1.880  0.7009 -106.7   3.597   99.2  0.1357   30.0  0.6327  -57.4
 1.900  0.6987 -107.7   3.578   98.5  0.1364   29.5  0.6284  -57.9
 1.920  0.6960 -108.6   3.556   97.9  0.1370   29.1  0.6244  -58.3
 1.940  0.6935 -109.6   3.534   97.3  0.1376   28.6  0.6204  -58.6
 1.960  0.6912 -110.6   3.513   96.7  0.1382   28.2  0.6165  -59.0
 1.980  0.6890 -111.5   3.492   96.0  0.1388   27.7  0.6126  -59.3
 2.000  0.6871 -112.5   3.472   95.4  0.1394   27.3  0.6087  -59.7
 2.020  0.6837 -113.4   3.451   94.8  0.1399   26.8  0.6044  -60.1
 2.040  0.6806 -114.4   3.430   94.2  0.1404   26.4  0.6002  -60.5
 2.060  0.6776 -115.4   3.409   93.6  0.1409   25.9  0.5960  -60.9
 2.080  0.6748 -116.3   3.389   93.0  0.1414   25.5  0.5918  -61.3
 2.100  0.6722 -117.3   3.369   92.3  0.1419   25.0  0.5877  -61.7
 2.120  0.6698 -118.3   3.350   91.7  0.1424   24.6  0.5836  -62.1
 2.140  0.6676 -119.3   3.331   91.1  0.1429   24.1  0.5795  -62.5
 2.160  0.6656 -120.3   3.313   90.4  0.1435   23.7  0.5754  -62.9
 2.180  0.6638 -121.3   3.295   89.8  0.1440   23.2  0.5714  -63.4
 2.200  0.6622 -122.3   3.277   89.1  0.1446   22.8  0.5674  -63.8
 2.220  0.6594 -123.2   3.257   88.5  0.1450   22.4  0.5634  -64.2
 2.240  0.6568 -124.1   3.238   88.0  0.1454   21.9  0.5594  -64.5
 2.260  0.6544 -125.1   3.219   87.4  0.1458   21.5  0.5554  -64.9
 2.280  0.6521 -126.0   3.200   86.9  0.1462   21.1  0.5515  -65.3
 2.300  0.6500 -127.0   3.182   86.3  0.1467   20.7  0.5475  -65.6
 2.320  0.6481 -127.9   3.164   85.7  0.1471   20.3  0.5436  -66.0
 2.340  0.6464 -128.9   3.146   85.1  0.1475   19.8  0.5398  -66.4
 2.360  0.6448 -129.9   3.129   84.5  0.1480   19.4  0.5359  -66.8
 2.380  0.6435 -130.8   3.112   83.9  0.1484   19.0  0.5321  -67.2
 2.400  0.6423 -131.8   3.095   83.3  0.1489   18.6  0.5283  -67.6
 2.420  0.6398 -132.7   3.077   82.8  0.1491   18.2  0.5244  -67.9
 2.440  0.6374 -133.7   3.058   82.2  0.1494   17.8  0.5205  -68.3
 2.460  0.6352 -134.7   3.041   81.7  0.1496   17.4  0.5167  -68.7
 2.480  0.6332 -135.6   3.023   81.1  0.1498   16.9  0.5128  -69.0
 2.500  0.6313 -136.6   3.006   80.5  0.1501   16.5  0.5090  -69.4
 2.520  0.6297 -137.6   2.989   80.0  0.1504   16.1  0.5052  -69.8
 2.540  0.6282 -138.5   2.972   79.4  0.1506   15.7  0.5014  -70.1
 2.560  0.6269 -139.5   2.956   78.8  0.1509   15.3  0.4976  -70.5
 2.580  0.6258 -140.5   2.940   78.2  0.1512   14.9  0.4939  -70.9
 2.600  0.6249 -141.5   2.924   77.6  0.1515   14.5  0.4902  -71.3
 2.620  0.6229 -142.4   2.907   77.1  0.1517   14.1  0.4867  -71.6
 2.640  0.6210 -143.3   2.890   76.6  0.1519   13.8  0.4833  -72.0
 2.660  0.6193 -144.2   2.874   76.1  0.1520   13.4  0.4798  -72.3
 2.680  0.6177 -145.1   2.857   75.6  0.1522   13.1  0.4764  -72.7
 2.700  0.6163 -146.0   2.841   75.0  0.1524   12.7  0.4730  -73.0
 2.720  0.6150 -146.9   2.826   74.5  0.1526   12.4  0.4696  -73.4
 2.740  0.6139 -147.8   2.810   74.0  0.1528   12.0  0.4663  -73.8
 2.760  0.6130 -148.7   2.795   73.4  0.1531   11.7  0.4629  -74.1
 2.780  0.6121 -149.6   2.780   72.9  0.1533   11.3  0.4596  -74.5
 2.800  0.6115 -150.5   2.765   72.3  0.1535   11.0  0.4563  -74.9
 2.820  0.6101 -151.4   2.750   71.8  0.1536   10.6  0.4531  -75.2
 2.840  0.6087 -152.2   2.734   71.3  0.1537   10.3  0.4499  -75.6
 2.860  0.6076 -153.1   2.719   70.8  0.1537    9.9  0.4467  -75.9
 2.880  0.6065 -154.0   2.704   70.3  0.1538    9.6  0.4435  -76.2
 2.900  0.6057 -154.8   2.690   69.8  0.1539    9.2  0.4403  -76.6
 2.920  0.6049 -155.7   2.675   69.3  0.1540    8.9  0.4372  -76.9
 2.940  0.6043 -156.6   2.661   68.8  0.1541    8.5  0.4341  -77.3
 2.960  0.6038 -157.4   2.647   68.3  0.1543    8.2  0.4310  -77.7
 2.980  0.6035 -158.3   2.634   67.7  0.1544    7.8  0.4279  -78.0
 3.000  0.6033 -159.2   2.620   67.2  0.1545    7.5  0.4248  -78.4
 3.100  0.5961 -163.2   2.548   65.0  0.1543    6.0  0.4109  -79.9
 3.200  0.5919 -167.2   2.479   62.7  0.1542    4.5  0.3972  -81.6
 3.300  0.5906 -171.3   2.415   60.3  0.1543    3.1  0.3840  -83.3
 3.400  0.5924 -175.4   2.356   57.8  0.1544    1.6  0.3711  -85.2
 3.500  0.5971 -179.4   2.301   55.1  0.1546    0.1  0.3586  -87.2
 3.600  0.5947  177.1   2.242   53.1  0.1542   -1.1  0.3470  -88.8
 3.700  0.5945  173.6   2.186   50.9  0.1538   -2.3  0.3357  -90.6
 3.800  0.5965  170.1   2.133   48.7  0.1536   -3.5  0.3247  -92.4
 3.900  0.6007  166.7   2.083   46.4  0.1533   -4.7  0.3140  -94.4
 4.000  0.6070  163.3   2.037   43.9  0.1532   -5.9  0.3038  -96.5
 4.100  0.6067  160.5   1.985   42.0  0.1523   -7.0  0.2945  -98.5
 4.200  0.6079  157.6   1.936   40.0  0.1515   -8.0  0.2857 -100.7
 4.300  0.6106  154.8   1.889   37.9  0.1508   -9.1  0.2773 -103.0
 4.400  0.6147  152.0   1.845   35.7  0.1501  -10.2  0.2693 -105.5
 4.500  0.6203  149.3   1.804   33.4  0.1494  -11.3  0.2619 -108.1
 4.600  0.6201  147.1   1.761   31.7  0.1484  -12.1  0.2561 -110.1
 4.700  0.6208  144.9   1.720   30.0  0.1474  -12.8  0.2507 -112.1
 4.800  0.6224  142.7   1.680   28.1  0.1464  -13.6  0.2456 -114.3
 4.900  0.6249  140.6   1.642   26.2  0.1454  -14.4  0.2409 -116.5
 5.000  0.6283  138.4   1.606   24.2  0.1445  -15.2  0.2365 -118.8
 5.100  0.6287  136.5   1.572   22.6  0.1435  -15.8  0.2318 -120.6
 5.200  0.6297  134.6   1.539   21.0  0.1425  -16.4  0.2274 -122.5
 5.300  0.6315  132.7   1.507   19.3  0.1415  -17.0  0.2232 -124.5
 5.400  0.6340  130.8   1.477   17.5  0.1405  -17.6  0.2192 -126.5
 5.500  0.6371  128.9   1.448   15.7  0.1396  -18.2  0.2156 -128.6
 5.600  0.6392  127.1   1.421   14.2  0.1388  -18.6  0.2113 -130.9
 5.700  0.6420  125.3   1.395   12.7  0.1380  -18.9  0.2073 -133.3
 5.800  0.6454  123.5   1.370   11.1  0.1372  -19.3  0.2037 -135.8
 5.900  0.6495  121.7   1.346    9.4  0.1365  -19.7  0.2005 -138.4
 6.000  0.6541  120.0   1.323    7.7  0.1357  -20.1  0.1977 -141.1
 6.100  0.6573  118.4   1.300    6.2  0.1353  -20.4  0.1954 -143.8
 6.200  0.6610  116.7   1.278    4.7  0.1350  -20.6  0.1935 -146.7
 6.300  0.6652  115.1   1.257    3.1  0.1346  -20.9  0.1921 -149.5
 6.400  0.6700  113.6   1.237    1.4  0.1343  -21.1  0.1912 -152.4
 6.500  0.6752  112.0   1.218   -0.3  0.1339  -21.4  0.1908 -155.3
 6.600  0.6781  110.6   1.198   -1.8  0.1340  -21.6  0.1892 -157.8
 6.800  0.6852  107.8   1.162   -4.9  0.1342  -22.1  0.1870 -162.9
 7.000  0.6939  105.0   1.129   -8.2  0.1344  -22.5  0.1864 -168.1
 7.200  0.6983  102.1   1.096  -11.2  0.1353  -23.2  0.1841 -174.3
 7.400  0.7045   99.2   1.067  -14.4  0.1362  -23.9  0.1840  179.5
 7.600  0.7094   96.1   1.035  -17.6  0.1370  -24.9  0.1854  172.8
 7.800  0.7137   92.7   1.001  -20.9  0.1375  -26.0  0.1890  165.7
 8.000  0.7204   89.4   0.971  -24.3  0.1381  -27.1  0.1954  159.0
 8.200  0.7229   86.0   0.934  -27.1  0.1375  -28.0  0.2004  152.1
 8.400  0.7280   82.6   0.900  -30.0  0.1369  -28.9  0.2081  145.6
 8.600  0.7370   79.6   0.869  -32.8  0.1364  -29.5  0.2180  139.1
 8.800  0.7491   76.9   0.840  -35.3  0.1361  -30.0  0.2306  132.6
 9.000  0.7627   74.4   0.813  -38.0  0.1357  -30.4  0.2457  126.9
 9.200  0.7834   72.4   0.789  -40.3  0.1361  -30.7  0.2675  121.5
 9.400  0.8051   70.5   0.766  -42.8  0.1364  -31.0  0.2913  117.0
 9.600  0.8242   68.7   0.739  -45.3  0.1370  -31.4  0.3172  113.4
 9.800  0.8409   66.8   0.709  -47.8  0.1379  -31.9  0.3447  110.7
10.000  0.8584   65.1   0.680  -50.6  0.1388  -32.3  0.3728  108.3
10.200  0.8609   63.9   0.653  -52.2  0.1405  -32.8  0.3947  106.3
10.400  0.8638   62.6   0.627  -54.0  0.1422  -33.3  0.4171  104.5
10.600  0.8596   62.0   0.605  -55.5  0.1436  -34.0  0.4357  103.0
10.800  0.8479   62.1   0.589  -56.7  0.1448  -35.1  0.4505  101.6
11.000  0.8362   62.1   0.572  -58.0  0.1461  -36.2  0.4656  100.3
11.200  0.8270   62.3   0.568  -58.8  0.1465  -36.9  0.4718  100.5
11.400  0.8178   62.4   0.565  -59.7  0.1469  -37.6  0.4779  100.6
11.600  0.8213   62.0   0.561  -61.8  0.1481  -38.6  0.4871  101.2
11.800  0.8376   60.9   0.559  -65.1  0.1502  -39.9  0.4995  102.2
12.000  0.8542   59.9   0.558  -68.5  0.1524  -41.1  0.5120  103.1
!
!  f       NFmin   Gammaopt  rn/50
! GHz       dB    MAG  ANG    -
 0.450      0.83  0.58    8   0.37
 0.900      0.80  0.56   23   0.31
 1.800      1.07  0.45   56   0.26
 2.400      1.14  0.41   67   0.25
 5.500      2.37  0.40 -150   0.18
10.000      4.33  0.72  -58   2.98
!
! (c) 2015  Infineon Technologies AG, Munich
