! Infineon Technologies  Discrete & RF Semiconductors
! BFP405F
! VCE =  3.0 V,  IC =  15 mA
! Common Emitter S-Parameters:                            Nov 2015
# GHz  S  MA  R  50
!  f         S11            S21            S12            S22
! GHz     MAG   ANG      MAG   ANG      MAG   ANG      MAG   ANG
 0.030  0.6344   -2.1  26.164  176.5  0.0024  137.8  0.9720   -0.4
 0.035  0.6334   -2.6  26.170  176.2  0.0021  137.4  0.9733   -0.6
 0.040  0.6324   -3.2  26.177  176.0  0.0019  136.8  0.9746   -0.7
 0.045  0.6304   -3.7  26.257  175.4  0.0018  128.1  0.9774   -0.9
 0.050  0.6284   -4.2  26.339  174.8  0.0017  118.3  0.9803   -1.1
 0.055  0.6284   -4.6  26.214  174.5  0.0007   46.4  0.9771   -1.3
 0.060  0.6284   -5.0  26.089  174.2  0.0018  -17.4  0.9739   -1.5
 0.065  0.6298   -5.7  26.078  173.6  0.0008   38.7  0.9773   -1.7
 0.070  0.6313   -6.3  26.071  172.9  0.0016  107.7  0.9807   -1.9
 0.075  0.6320   -6.8  25.995  172.6  0.0026   86.1  0.9798   -2.2
 0.080  0.6328   -7.2  25.919  172.2  0.0037   76.9  0.9789   -2.5
 0.085  0.6340   -7.7  25.968  172.0  0.0030   82.6  0.9808   -2.9
 0.090  0.6353   -8.2  26.017  171.9  0.0024   91.3  0.9827   -3.2
 0.095  0.6344   -8.5  25.932  171.5  0.0017   87.8  0.9810   -3.2
 0.100  0.6335   -8.9  25.849  171.1  0.0010   79.4  0.9794   -3.3
 0.105  0.6322   -9.6  25.831  170.7  0.0023   94.8  0.9784   -3.4
 0.110  0.6309  -10.3  25.815  170.2  0.0036   99.0  0.9775   -3.6
 0.115  0.6295  -10.7  25.796  169.9  0.0038   97.6  0.9778   -3.8
 0.120  0.6282  -11.2  25.777  169.5  0.0041   96.3  0.9782   -4.0
 0.125  0.6275  -11.6  25.755  169.0  0.0042  103.1  0.9763   -4.2
 0.130  0.6269  -12.1  25.734  168.5  0.0043  109.6  0.9745   -4.5
 0.135  0.6266  -12.6  25.743  168.2  0.0034  105.5  0.9750   -4.7
 0.140  0.6264  -13.2  25.753  168.0  0.0025   98.3  0.9756   -4.8
 0.145  0.6258  -13.6  25.734  167.6  0.0037   87.1  0.9754   -5.0
 0.150  0.6253  -14.1  25.716  167.2  0.0049   81.4  0.9752   -5.2
 0.155  0.6240  -14.5  25.678  166.7  0.0050   82.4  0.9744   -5.4
 0.160  0.6228  -15.0  25.641  166.3  0.0051   83.3  0.9736   -5.6
 0.165  0.6217  -15.4  25.606  165.8  0.0052   84.3  0.9727   -5.8
 0.170  0.6205  -15.9  25.572  165.3  0.0053   85.1  0.9720   -6.0
 0.175  0.6194  -16.3  25.541  164.9  0.0054   86.0  0.9712   -6.1
 0.180  0.6184  -16.8  25.511  164.4  0.0055   86.8  0.9704   -6.3
 0.185  0.6173  -17.2  25.482  163.9  0.0056   87.6  0.9696   -6.5
 0.190  0.6164  -17.7  25.456  163.4  0.0057   88.4  0.9689   -6.7
 0.195  0.6154  -18.1  25.431  163.0  0.0058   89.1  0.9681   -6.9
 0.200  0.6145  -18.6  25.408  162.5  0.0059   89.8  0.9674   -7.1
 0.220  0.6097  -20.3  25.149  161.0  0.0064   83.7  0.9636   -7.8
 0.240  0.6055  -22.0  24.908  159.5  0.0070   78.6  0.9600   -8.5
 0.260  0.6005  -23.7  24.688  157.9  0.0075   77.0  0.9559   -9.1
 0.280  0.5948  -25.4  24.491  156.3  0.0079   78.2  0.9514   -9.8
 0.300  0.5895  -27.1  24.315  154.6  0.0083   79.3  0.9470  -10.4
 0.320  0.5837  -28.7  24.042  153.1  0.0081   78.3  0.9424  -11.0
 0.340  0.5784  -30.4  23.785  151.7  0.0080   77.3  0.9379  -11.6
 0.360  0.5725  -32.0  23.534  150.2  0.0085   76.9  0.9335  -12.2
 0.380  0.5660  -33.6  23.288  148.8  0.0098   76.9  0.9292  -12.8
 0.400  0.5600  -35.2  23.056  147.3  0.0111   77.0  0.9250  -13.4
 0.420  0.5537  -36.7  22.776  146.0  0.0112   76.2  0.9183  -13.9
 0.440  0.5478  -38.2  22.509  144.6  0.0113   75.3  0.9117  -14.4
 0.450  0.5450  -39.0  22.380  143.9  0.0113   74.9  0.9084  -14.7
 0.460  0.5416  -39.7  22.233  143.3  0.0118   74.7  0.9056  -14.9
 0.480  0.5350  -41.1  21.948  141.9  0.0127   74.4  0.9000  -15.4
 0.500  0.5288  -42.5  21.674  140.6  0.0136   74.1  0.8945  -15.9
 0.520  0.5209  -43.9  21.378  139.4  0.0137   74.1  0.8887  -16.3
 0.540  0.5132  -45.3  21.090  138.2  0.0137   74.1  0.8830  -16.8
 0.560  0.5059  -46.7  20.813  137.0  0.0138   74.0  0.8774  -17.2
 0.580  0.4989  -48.2  20.545  135.7  0.0138   74.0  0.8718  -17.6
 0.600  0.4923  -49.7  20.288  134.4  0.0139   74.0  0.8662  -18.1
 0.620  0.4856  -50.8  20.017  133.4  0.0143   74.2  0.8607  -18.5
 0.640  0.4790  -52.0  19.752  132.4  0.0147   74.3  0.8553  -18.8
 0.660  0.4727  -53.2  19.493  131.3  0.0150   74.5  0.8499  -19.2
 0.680  0.4666  -54.4  19.242  130.2  0.0154   74.7  0.8445  -19.5
 0.700  0.4607  -55.7  18.997  129.1  0.0158   74.8  0.8392  -19.9
 0.720  0.4543  -56.8  18.719  128.2  0.0161   74.4  0.8339  -20.2
 0.740  0.4480  -58.0  18.447  127.2  0.0164   74.1  0.8286  -20.6
 0.760  0.4419  -59.2  18.180  126.2  0.0167   73.7  0.8234  -20.9
 0.780  0.4361  -60.4  17.918  125.2  0.0170   73.4  0.8182  -21.3
 0.800  0.4304  -61.7  17.663  124.1  0.0173   73.1  0.8130  -21.6
 0.820  0.4243  -62.7  17.427  123.3  0.0177   72.4  0.8083  -21.9
 0.840  0.4184  -63.7  17.195  122.4  0.0181   71.8  0.8035  -22.2
 0.860  0.4125  -64.7  16.967  121.5  0.0184   71.2  0.7988  -22.4
 0.880  0.4069  -65.7  16.743  120.6  0.0188   70.6  0.7942  -22.7
 0.900  0.4013  -66.8  16.523  119.7  0.0192   70.0  0.7895  -23.0
 0.920  0.3960  -67.8  16.296  118.9  0.0196   70.6  0.7846  -23.3
 0.940  0.3909  -68.8  16.073  118.2  0.0201   71.2  0.7798  -23.5
 0.960  0.3858  -69.9  15.852  117.4  0.0205   71.8  0.7750  -23.8
 0.980  0.3809  -71.0  15.634  116.5  0.0210   72.3  0.7702  -24.1
 1.000  0.3762  -72.1  15.420  115.7  0.0214   72.8  0.7654  -24.4
 1.020  0.3712  -73.0  15.217  115.0  0.0216   72.3  0.7613  -24.6
 1.040  0.3662  -73.9  15.016  114.4  0.0218   71.9  0.7573  -24.8
 1.060  0.3614  -74.8  14.817  113.7  0.0221   71.4  0.7532  -25.1
 1.080  0.3566  -75.7  14.620  112.9  0.0223   70.9  0.7492  -25.3
 1.100  0.3520  -76.7  14.426  112.2  0.0225   70.5  0.7452  -25.5
 1.120  0.3476  -77.6  14.245  111.6  0.0228   70.4  0.7413  -25.7
 1.140  0.3432  -78.5  14.067  110.9  0.0231   70.3  0.7373  -25.9
 1.160  0.3390  -79.5  13.890  110.2  0.0234   70.3  0.7334  -26.0
 1.180  0.3348  -80.5  13.715  109.5  0.0237   70.2  0.7295  -26.2
 1.200  0.3308  -81.5  13.542  108.8  0.0240   70.1  0.7256  -26.4
 1.220  0.3266  -82.4  13.375  108.2  0.0243   70.0  0.7219  -26.6
 1.240  0.3226  -83.2  13.210  107.6  0.0246   69.9  0.7182  -26.8
 1.260  0.3186  -84.1  13.046  107.0  0.0249   69.9  0.7145  -27.0
 1.280  0.3146  -85.1  12.884  106.4  0.0252   69.8  0.7109  -27.2
 1.300  0.3108  -86.0  12.723  105.7  0.0255   69.7  0.7072  -27.4
 1.320  0.3074  -86.8  12.571  105.2  0.0258   69.8  0.7038  -27.6
 1.340  0.3040  -87.6  12.419  104.7  0.0261   69.9  0.7005  -27.8
 1.360  0.3007  -88.5  12.269  104.1  0.0263   70.0  0.6971  -27.9
 1.380  0.2975  -89.3  12.120  103.6  0.0266   70.1  0.6937  -28.1
 1.400  0.2943  -90.2  11.972  103.0  0.0269   70.2  0.6904  -28.3
 1.420  0.2910  -91.0  11.837  102.5  0.0273   70.1  0.6873  -28.5
 1.440  0.2878  -91.8  11.703  102.0  0.0276   69.9  0.6843  -28.6
 1.460  0.2847  -92.7  11.569  101.5  0.0280   69.8  0.6813  -28.8
 1.480  0.2816  -93.5  11.437  101.0  0.0283   69.6  0.6782  -28.9
 1.500  0.2786  -94.4  11.305  100.5  0.0287   69.5  0.6752  -29.1
 1.520  0.2759  -95.2  11.183  100.0  0.0290   69.5  0.6724  -29.3
 1.540  0.2733  -96.1  11.061   99.6  0.0294   69.5  0.6695  -29.4
 1.560  0.2708  -96.9  10.941   99.1  0.0297   69.5  0.6667  -29.6
 1.580  0.2683  -97.8  10.821   98.6  0.0301   69.5  0.6639  -29.7
 1.600  0.2659  -98.7  10.702   98.1  0.0304   69.5  0.6611  -29.9
 1.620  0.2635  -99.4  10.584   97.7  0.0306   69.5  0.6581  -30.1
 1.640  0.2611 -100.1  10.467   97.2  0.0309   69.5  0.6551  -30.2
 1.660  0.2588 -100.8  10.350   96.8  0.0311   69.5  0.6521  -30.4
 1.680  0.2565 -101.6  10.234   96.3  0.0314   69.5  0.6491  -30.5
 1.700  0.2542 -102.3  10.119   95.8  0.0316   69.5  0.6461  -30.7
 1.720  0.2518 -103.1  10.017   95.4  0.0320   69.6  0.6433  -30.9
 1.740  0.2495 -104.0   9.915   95.0  0.0324   69.7  0.6406  -31.1
 1.760  0.2472 -104.9   9.813   94.6  0.0327   69.8  0.6378  -31.2
 1.780  0.2450 -105.8   9.712   94.1  0.0331   69.9  0.6350  -31.4
 1.800  0.2428 -106.7   9.612   93.7  0.0335   70.0  0.6323  -31.6
 1.820  0.2410 -107.4   9.520   93.3  0.0338   69.9  0.6299  -31.7
 1.840  0.2392 -108.1   9.429   93.0  0.0340   69.7  0.6275  -31.8
 1.860  0.2374 -108.8   9.338   92.6  0.0343   69.6  0.6252  -32.0
 1.880  0.2357 -109.5   9.247   92.2  0.0345   69.4  0.6228  -32.1
 1.900  0.2340 -110.2   9.157   91.8  0.0348   69.3  0.6204  -32.2
 1.920  0.2324 -111.1   9.074   91.4  0.0352   69.5  0.6184  -32.4
 1.940  0.2309 -112.0   8.992   91.0  0.0356   69.6  0.6164  -32.7
 1.960  0.2294 -112.9   8.910   90.6  0.0360   69.8  0.6144  -32.9
 1.980  0.2280 -113.9   8.828   90.2  0.0364   69.9  0.6124  -33.2
 2.000  0.2266 -114.8   8.747   89.8  0.0368   70.1  0.6104  -33.4
 2.020  0.2250 -115.5   8.665   89.4  0.0371   69.9  0.6083  -33.5
 2.040  0.2235 -116.2   8.584   89.1  0.0374   69.6  0.6061  -33.7
 2.060  0.2220 -116.9   8.503   88.7  0.0378   69.4  0.6040  -33.8
 2.080  0.2205 -117.6   8.422   88.3  0.0381   69.2  0.6019  -34.0
 2.100  0.2191 -118.3   8.342   87.9  0.0384   69.0  0.5998  -34.1
 2.120  0.2175 -119.1   8.267   87.6  0.0386   69.0  0.5977  -34.3
 2.140  0.2160 -119.9   8.192   87.2  0.0389   69.1  0.5956  -34.5
 2.160  0.2145 -120.7   8.118   86.9  0.0391   69.1  0.5935  -34.6
 2.180  0.2130 -121.5   8.044   86.6  0.0394   69.2  0.5914  -34.8
 2.200  0.2116 -122.3   7.970   86.2  0.0396   69.2  0.5893  -35.0
 2.220  0.2104 -123.0   7.902   85.9  0.0400   69.2  0.5873  -35.1
 2.240  0.2093 -123.7   7.833   85.6  0.0404   69.1  0.5853  -35.3
 2.260  0.2081 -124.4   7.765   85.3  0.0407   69.1  0.5833  -35.4
 2.280  0.2071 -125.2   7.698   84.9  0.0411   69.0  0.5813  -35.6
 2.300  0.2060 -125.9   7.630   84.6  0.0415   69.0  0.5793  -35.7
 2.320  0.2049 -126.5   7.568   84.3  0.0417   69.0  0.5777  -35.9
 2.340  0.2038 -127.2   7.506   84.0  0.0419   69.1  0.5761  -36.1
 2.360  0.2027 -127.8   7.444   83.7  0.0420   69.1  0.5745  -36.2
 2.380  0.2016 -128.4   7.382   83.3  0.0422   69.2  0.5730  -36.4
 2.400  0.2006 -129.1   7.321   83.0  0.0424   69.2  0.5714  -36.6
 2.420  0.1996 -129.8   7.261   82.7  0.0428   68.9  0.5699  -36.7
 2.440  0.1987 -130.5   7.201   82.4  0.0432   68.6  0.5684  -36.8
 2.460  0.1977 -131.2   7.142   82.1  0.0437   68.3  0.5668  -36.9
 2.480  0.1969 -132.0   7.082   81.8  0.0441   68.1  0.5653  -37.0
 2.500  0.1960 -132.7   7.023   81.5  0.0445   67.8  0.5638  -37.1
 2.520  0.1950 -133.3   6.967   81.2  0.0447   67.8  0.5623  -37.2
 2.540  0.1941 -133.9   6.912   81.0  0.0449   67.8  0.5608  -37.3
 2.560  0.1931 -134.5   6.857   80.7  0.0452   67.9  0.5594  -37.5
 2.580  0.1922 -135.1   6.802   80.4  0.0454   67.9  0.5579  -37.6
 2.600  0.1913 -135.7   6.747   80.1  0.0456   67.9  0.5564  -37.7
 2.620  0.1905 -136.4   6.697   79.8  0.0460   67.8  0.5549  -37.8
 2.640  0.1898 -137.0   6.647   79.6  0.0463   67.7  0.5534  -38.0
 2.660  0.1891 -137.7   6.598   79.3  0.0467   67.7  0.5520  -38.1
 2.680  0.1884 -138.4   6.548   79.0  0.0470   67.6  0.5505  -38.3
 2.700  0.1878 -139.1   6.499   78.7  0.0474   67.5  0.5490  -38.4
 2.720  0.1870 -139.7   6.453   78.4  0.0477   67.5  0.5478  -38.5
 2.740  0.1862 -140.3   6.407   78.2  0.0481   67.5  0.5467  -38.6
 2.760  0.1854 -140.9   6.362   77.9  0.0484   67.6  0.5455  -38.8
 2.780  0.1846 -141.6   6.316   77.6  0.0488   67.6  0.5444  -38.9
 2.800  0.1839 -142.2   6.271   77.3  0.0491   67.6  0.5432  -39.0
 2.820  0.1834 -142.8   6.225   77.1  0.0495   67.5  0.5421  -39.1
 2.840  0.1830 -143.4   6.179   76.8  0.0499   67.4  0.5409  -39.3
 2.860  0.1826 -143.9   6.133   76.6  0.0504   67.3  0.5398  -39.4
 2.880  0.1822 -144.5   6.088   76.3  0.0508   67.2  0.5386  -39.6
 2.900  0.1818 -145.1   6.042   76.1  0.0512   67.1  0.5375  -39.7
 2.920  0.1811 -145.7   6.002   75.8  0.0514   67.1  0.5363  -39.9
 2.940  0.1804 -146.3   5.962   75.6  0.0516   67.1  0.5351  -40.0
 2.960  0.1798 -146.9   5.922   75.3  0.0518   67.0  0.5339  -40.2
 2.980  0.1791 -147.5   5.882   75.1  0.0520   67.0  0.5327  -40.3
 3.000  0.1785 -148.1   5.842   74.8  0.0522   67.0  0.5315  -40.5
 3.100  0.1769 -150.9   5.647   73.5  0.0538   66.9  0.5264  -40.9
 3.200  0.1733 -154.1   5.461   72.3  0.0555   66.9  0.5215  -41.6
 3.300  0.1725 -156.6   5.297   71.2  0.0567   66.3  0.5175  -42.1
 3.400  0.1707 -159.9   5.129   70.0  0.0587   66.1  0.5134  -42.8
 3.500  0.1679 -162.0   4.981   69.0  0.0599   65.5  0.5108  -43.3
 3.600  0.1665 -164.8   4.836   67.9  0.0620   65.3  0.5070  -43.7
 3.700  0.1661 -167.6   4.701   66.8  0.0632   64.9  0.5034  -44.1
 3.800  0.1653 -170.0   4.571   65.8  0.0647   64.5  0.5003  -44.8
 3.900  0.1648 -172.3   4.455   64.7  0.0668   64.5  0.4974  -45.2
 4.000  0.1639 -174.8   4.341   63.8  0.0682   63.8  0.4947  -45.5
 4.100  0.1654 -177.2   4.233   62.8  0.0700   63.9  0.4910  -46.1
 4.200  0.1642  179.9   4.130   61.9  0.0717   63.6  0.4879  -46.5
 4.300  0.1665  177.9   4.036   60.8  0.0731   63.1  0.4847  -46.9
 4.400  0.1662  175.1   3.944   59.9  0.0749   62.5  0.4823  -47.4
 4.500  0.1679  173.5   3.853   59.0  0.0764   62.4  0.4797  -47.7
 4.600  0.1684  170.6   3.766   57.9  0.0781   61.8  0.4762  -48.1
 4.700  0.1705  169.2   3.688   57.1  0.0798   61.3  0.4731  -48.5
 4.800  0.1727  166.5   3.613   56.2  0.0813   61.1  0.4706  -49.0
 4.900  0.1739  165.1   3.538   55.3  0.0828   60.8  0.4678  -49.3
 5.000  0.1755  162.9   3.470   54.3  0.0846   60.2  0.4652  -49.8
 5.100  0.1768  161.1   3.400   53.4  0.0868   60.2  0.4622  -50.2
 5.200  0.1777  159.1   3.337   52.5  0.0881   59.4  0.4591  -50.5
 5.300  0.1801  157.3   3.274   51.5  0.0899   59.0  0.4561  -51.1
 5.400  0.1805  155.9   3.215   50.7  0.0914   58.7  0.4548  -51.4
 5.500  0.1828  153.9   3.157   49.8  0.0933   58.6  0.4515  -51.8
 5.600  0.1835  152.5   3.103   48.8  0.0951   57.7  0.4498  -52.2
 5.700  0.1867  150.5   3.048   47.9  0.0965   57.6  0.4459  -52.6
 5.800  0.1876  149.1   2.998   47.1  0.0981   57.1  0.4439  -52.9
 5.900  0.1885  147.3   2.948   46.2  0.1002   56.7  0.4418  -53.3
 6.000  0.1889  145.7   2.897   45.3  0.1014   56.4  0.4400  -53.7
 6.100  0.1913  143.9   2.848   44.4  0.1029   55.8  0.4364  -53.9
 6.200  0.1925  142.3   2.802   43.5  0.1050   55.4  0.4346  -54.4
 6.300  0.1950  140.3   2.759   42.7  0.1062   54.8  0.4316  -54.7
 6.400  0.1949  138.6   2.715   41.8  0.1084   54.5  0.4295  -55.1
 6.500  0.1981  136.5   2.671   40.9  0.1097   54.0  0.4272  -55.4
 6.600  0.1995  134.8   2.632   40.1  0.1117   53.7  0.4245  -55.6
 6.800  0.2037  131.1   2.553   38.4  0.1143   53.1  0.4189  -56.1
 7.000  0.2080  127.2   2.479   36.7  0.1181   52.2  0.4132  -56.3
 7.200  0.2153  123.8   2.408   35.2  0.1214   51.4  0.4048  -56.8
 7.400  0.2241  121.1   2.344   33.6  0.1251   50.5  0.3967  -57.2
 7.600  0.2337  118.7   2.285   32.2  0.1288   50.0  0.3879  -57.6
 7.800  0.2454  116.8   2.230   30.6  0.1332   49.0  0.3768  -58.1
 8.000  0.2575  115.3   2.177   29.1  0.1372   48.1  0.3634  -58.6
 8.200  0.2726  114.2   2.132   27.6  0.1408   47.0  0.3465  -59.2
 8.400  0.2877  113.2   2.089   26.0  0.1445   46.0  0.3296  -59.8
 8.600  0.3029  112.4   2.048   24.4  0.1483   45.0  0.3107  -60.5
 8.800  0.3181  111.6   2.008   22.8  0.1523   43.9  0.2896  -61.3
 9.000  0.3333  110.9   1.970   21.2  0.1564   42.9  0.2686  -62.2
 9.200  0.3476  110.1   1.935   19.6  0.1603   41.8  0.2454  -63.5
 9.400  0.3620  109.4   1.901   18.0  0.1643   40.7  0.2223  -65.2
 9.600  0.3756  108.7   1.869   16.4  0.1684   39.6  0.1984  -67.4
 9.800  0.3884  107.8   1.839   14.7  0.1728   38.4  0.1739  -70.5
10.000  0.4013  107.0   1.811   12.9  0.1772   37.2  0.1500  -74.6
10.200  0.4137  105.5   1.780   11.2  0.1810   35.7  0.1249  -80.7
10.400  0.4263  104.2   1.751    9.4  0.1849   34.3  0.1020  -89.8
10.600  0.4384  102.5   1.720    7.6  0.1884   32.9  0.0840 -104.2
10.800  0.4502  100.6   1.688    5.6  0.1915   31.4  0.0753 -124.9
11.000  0.4624   98.8   1.658    3.6  0.1947   30.0  0.0778 -147.3
11.200  0.4718   96.7   1.620    1.9  0.1967   28.7  0.0954 -162.1
11.400  0.4819   94.8   1.583    0.0  0.1987   27.4  0.1173 -171.8
11.600  0.4889   93.1   1.547   -1.6  0.2010   26.3  0.1424 -176.5
11.800  0.4927   91.7   1.510   -3.0  0.2035   25.3  0.1688 -178.1
12.000  0.4967   90.4   1.475   -4.4  0.2061   24.3  0.1953 -179.3
!
!  f       NFmin   Gammaopt  rn/50
! GHz       dB    MAG  ANG    -
 0.450      1.97  0.11    2   0.35
 0.900      1.99  0.10    4   0.33
 1.500      2.03  0.08    8   0.23
 1.900      2.09  0.06   10   0.28
 2.400      2.24  0.04   13   0.42
 3.000      2.32  0.03    6   0.36
 3.500      2.38  0.01  -46   0.48
 4.500      2.58  0.08  -93   0.25
 5.500      2.83  0.16  -88   0.10
!
! (c) 2015  Infineon Technologies AG, Munich
