! Infineon Technologies  Discrete & RF Semiconductors
! BFP405
! VCE =  2.5 V,  IC =  3.5 mA
! Common Emitter S-Parameters:                            Jan 2016
# GHz  S  MA  R  50
!  f         S11            S21            S12            S22
! GHz     MAG   ANG      MAG   ANG      MAG   ANG      MAG   ANG
 0.010  0.8609    0.5  10.702 -177.4  0.0003  -81.4  0.9928    0.8
 0.015  0.8705   -0.2  10.648 -179.5  0.0002  102.6  0.9922    0.4
 0.020  0.8802   -0.8  10.608  178.4  0.0007  100.9  0.9916   -0.1
 0.025  0.8805   -1.1  10.595  178.3  0.0009   96.3  0.9920   -0.2
 0.030  0.8809   -1.4  10.583  178.2  0.0011   93.3  0.9923   -0.4
 0.035  0.8813   -1.8  10.570  178.1  0.0012   91.2  0.9927   -0.5
 0.040  0.8818   -2.1  10.558  177.9  0.0014   89.6  0.9931   -0.6
 0.045  0.8822   -2.4  10.545  177.8  0.0016   88.4  0.9935   -0.8
 0.050  0.8827   -2.7  10.533  177.7  0.0018   87.4  0.9939   -0.9
 0.055  0.8824   -2.9  10.537  177.4  0.0020   87.6  0.9939   -1.0
 0.060  0.8821   -3.1  10.541  177.2  0.0021   87.8  0.9939   -1.2
 0.065  0.8818   -3.3  10.545  176.9  0.0023   87.9  0.9939   -1.3
 0.070  0.8815   -3.5  10.549  176.7  0.0024   88.0  0.9939   -1.4
 0.075  0.8813   -3.6  10.554  176.4  0.0026   88.1  0.9939   -1.6
 0.080  0.8810   -3.8  10.559  176.1  0.0028   88.2  0.9940   -1.7
 0.085  0.8808   -4.0  10.564  175.9  0.0029   88.3  0.9940   -1.8
 0.090  0.8805   -4.2  10.569  175.6  0.0031   88.4  0.9940   -1.9
 0.095  0.8803   -4.4  10.574  175.4  0.0032   88.4  0.9941   -2.1
 0.100  0.8801   -4.6  10.580  175.1  0.0034   88.5  0.9941   -2.2
 0.105  0.8797   -4.8  10.576  174.9  0.0035   88.2  0.9939   -2.3
 0.110  0.8793   -5.1  10.572  174.7  0.0037   87.8  0.9937   -2.4
 0.115  0.8789   -5.3  10.568  174.5  0.0038   87.5  0.9935   -2.6
 0.120  0.8786   -5.6  10.564  174.3  0.0040   87.3  0.9932   -2.7
 0.125  0.8783   -5.8  10.561  174.2  0.0041   87.0  0.9930   -2.8
 0.130  0.8779   -6.0  10.557  174.0  0.0043   86.8  0.9928   -2.9
 0.135  0.8776   -6.3  10.554  173.8  0.0044   86.6  0.9927   -3.0
 0.140  0.8773   -6.5  10.550  173.6  0.0046   86.4  0.9925   -3.2
 0.145  0.8771   -6.8  10.547  173.4  0.0047   86.2  0.9923   -3.3
 0.150  0.8768   -7.0  10.544  173.2  0.0049   86.0  0.9921   -3.4
 0.155  0.8763   -7.2  10.540  173.0  0.0051   85.9  0.9920   -3.5
 0.160  0.8759   -7.5  10.537  172.7  0.0053   85.8  0.9918   -3.6
 0.165  0.8754   -7.7  10.533  172.5  0.0054   85.7  0.9917   -3.8
 0.170  0.8750   -8.0  10.530  172.3  0.0056   85.6  0.9915   -3.9
 0.175  0.8746   -8.2  10.527  172.1  0.0058   85.5  0.9914   -4.0
 0.180  0.8742   -8.4  10.524  171.8  0.0060   85.4  0.9913   -4.1
 0.185  0.8738   -8.7  10.521  171.6  0.0062   85.3  0.9911   -4.2
 0.190  0.8735   -8.9  10.519  171.4  0.0063   85.2  0.9910   -4.4
 0.195  0.8731   -9.2  10.516  171.1  0.0065   85.2  0.9909   -4.5
 0.200  0.8728   -9.4  10.514  170.9  0.0067   85.1  0.9908   -4.6
 0.220  0.8716  -10.4  10.524  170.0  0.0073   84.7  0.9880   -5.1
 0.240  0.8707  -11.3  10.536  169.1  0.0079   84.4  0.9853   -5.6
 0.260  0.8699  -12.3  10.526  168.2  0.0085   84.0  0.9845   -6.0
 0.280  0.8692  -13.2  10.494  167.5  0.0092   83.6  0.9856   -6.5
 0.300  0.8688  -14.1  10.464  166.7  0.0099   83.2  0.9868   -6.9
 0.320  0.8662  -15.0  10.432  165.8  0.0106   82.6  0.9850   -7.3
 0.340  0.8639  -15.9  10.403  164.9  0.0113   82.1  0.9833   -7.8
 0.360  0.8621  -16.8  10.386  163.9  0.0119   81.7  0.9815   -8.2
 0.380  0.8609  -17.9  10.381  163.0  0.0126   81.3  0.9798   -8.7
 0.400  0.8600  -18.9  10.378  162.1  0.0132   80.9  0.9781   -9.2
 0.420  0.8572  -19.7  10.340  161.2  0.0138   80.4  0.9768   -9.6
 0.440  0.8546  -20.6  10.304  160.3  0.0145   79.9  0.9756  -10.1
 0.450  0.8534  -21.0  10.287  159.9  0.0148   79.7  0.9750  -10.3
 0.460  0.8522  -21.5  10.277  159.5  0.0151   79.4  0.9740  -10.5
 0.480  0.8500  -22.4  10.260  158.6  0.0158   78.8  0.9720  -11.0
 0.500  0.8481  -23.4  10.245  157.8  0.0164   78.3  0.9701  -11.4
 0.520  0.8448  -24.3  10.205  156.9  0.0170   77.8  0.9680  -11.9
 0.540  0.8416  -25.2  10.168  156.1  0.0177   77.3  0.9660  -12.3
 0.560  0.8387  -26.1  10.133  155.2  0.0183   76.9  0.9640  -12.8
 0.580  0.8360  -27.0  10.100  154.3  0.0190   76.5  0.9621  -13.2
 0.600  0.8335  -27.9  10.070  153.4  0.0196   76.1  0.9603  -13.7
 0.620  0.8302  -28.8  10.032  152.6  0.0202   75.6  0.9578  -14.1
 0.640  0.8270  -29.7   9.996  151.8  0.0208   75.1  0.9554  -14.5
 0.660  0.8241  -30.6   9.962  151.0  0.0214   74.7  0.9531  -15.0
 0.680  0.8214  -31.6   9.930  150.2  0.0220   74.3  0.9508  -15.4
 0.700  0.8189  -32.5   9.900  149.4  0.0226   73.9  0.9485  -15.8
 0.720  0.8148  -33.4   9.863  148.6  0.0232   73.4  0.9459  -16.2
 0.740  0.8110  -34.3   9.828  147.7  0.0238   73.0  0.9434  -16.6
 0.760  0.8073  -35.2   9.795  146.9  0.0244   72.5  0.9410  -17.1
 0.780  0.8039  -36.1   9.764  146.1  0.0250   72.1  0.9386  -17.5
 0.800  0.8006  -37.0   9.735  145.2  0.0256   71.7  0.9362  -17.9
 0.820  0.7968  -37.9   9.690  144.4  0.0262   71.2  0.9333  -18.3
 0.840  0.7931  -38.8   9.648  143.6  0.0267   70.8  0.9304  -18.7
 0.860  0.7896  -39.7   9.607  142.8  0.0273   70.4  0.9276  -19.2
 0.880  0.7864  -40.6   9.569  141.9  0.0278   70.0  0.9248  -19.6
 0.900  0.7833  -41.5   9.532  141.1  0.0284   69.6  0.9221  -20.0
 0.920  0.7789  -42.3   9.484  140.3  0.0290   69.1  0.9192  -20.4
 0.940  0.7746  -43.2   9.438  139.6  0.0295   68.7  0.9163  -20.8
 0.960  0.7705  -44.1   9.394  138.8  0.0301   68.3  0.9134  -21.2
 0.980  0.7665  -44.9   9.352  138.0  0.0306   67.9  0.9107  -21.6
 1.000  0.7628  -45.8   9.311  137.2  0.0312   67.5  0.9079  -22.0
 1.020  0.7584  -46.7   9.266  136.5  0.0317   67.1  0.9048  -22.4
 1.040  0.7542  -47.5   9.223  135.7  0.0322   66.7  0.9017  -22.8
 1.060  0.7501  -48.4   9.182  135.0  0.0328   66.3  0.8987  -23.1
 1.080  0.7463  -49.3   9.142  134.3  0.0333   65.9  0.8957  -23.5
 1.100  0.7426  -50.2   9.103  133.5  0.0338   65.5  0.8928  -23.9
 1.120  0.7380  -51.0   9.052  132.8  0.0343   65.1  0.8895  -24.3
 1.140  0.7336  -51.9   9.002  132.1  0.0348   64.7  0.8862  -24.6
 1.160  0.7294  -52.7   8.954  131.4  0.0353   64.3  0.8829  -25.0
 1.180  0.7253  -53.5   8.907  130.6  0.0358   63.9  0.8797  -25.3
 1.200  0.7214  -54.4   8.861  129.9  0.0363   63.5  0.8765  -25.7
 1.220  0.7169  -55.2   8.812  129.2  0.0368   63.1  0.8733  -26.1
 1.240  0.7125  -56.0   8.764  128.5  0.0373   62.8  0.8701  -26.4
 1.260  0.7082  -56.8   8.717  127.8  0.0377   62.4  0.8670  -26.8
 1.280  0.7041  -57.7   8.672  127.0  0.0382   62.0  0.8639  -27.1
 1.300  0.7002  -58.5   8.628  126.3  0.0387   61.7  0.8608  -27.5
 1.320  0.6957  -59.3   8.580  125.6  0.0392   61.3  0.8574  -27.8
 1.340  0.6914  -60.2   8.533  124.9  0.0396   61.0  0.8541  -28.2
 1.360  0.6872  -61.0   8.487  124.2  0.0401   60.6  0.8508  -28.5
 1.380  0.6832  -61.9   8.442  123.5  0.0405   60.2  0.8475  -28.9
 1.400  0.6793  -62.8   8.399  122.8  0.0410   59.9  0.8443  -29.2
 1.420  0.6749  -63.6   8.350  122.2  0.0414   59.5  0.8409  -29.5
 1.440  0.6706  -64.4   8.301  121.5  0.0419   59.2  0.8376  -29.8
 1.460  0.6664  -65.3   8.254  120.8  0.0423   58.9  0.8343  -30.2
 1.480  0.6624  -66.1   8.208  120.2  0.0428   58.5  0.8310  -30.5
 1.500  0.6586  -67.0   8.163  119.5  0.0432   58.2  0.8277  -30.8
 1.520  0.6538  -67.8   8.118  118.9  0.0436   57.8  0.8244  -31.1
 1.540  0.6492  -68.6   8.074  118.2  0.0440   57.5  0.8211  -31.4
 1.560  0.6446  -69.4   8.030  117.6  0.0445   57.2  0.8179  -31.8
 1.580  0.6403  -70.3   7.988  117.0  0.0449   56.8  0.8147  -32.1
 1.600  0.6360  -71.1   7.947  116.3  0.0453   56.5  0.8115  -32.4
 1.620  0.6319  -71.9   7.898  115.7  0.0457   56.2  0.8081  -32.7
 1.640  0.6280  -72.6   7.851  115.1  0.0461   55.9  0.8048  -33.0
 1.660  0.6241  -73.4   7.804  114.5  0.0465   55.6  0.8015  -33.3
 1.680  0.6204  -74.2   7.758  113.8  0.0469   55.3  0.7982  -33.6
 1.700  0.6168  -75.0   7.713  113.2  0.0473   55.0  0.7949  -33.9
 1.720  0.6123  -75.8   7.666  112.6  0.0477   54.7  0.7917  -34.2
 1.740  0.6080  -76.6   7.619  112.0  0.0481   54.3  0.7885  -34.5
 1.760  0.6038  -77.4   7.574  111.4  0.0484   54.0  0.7854  -34.7
 1.780  0.5997  -78.3   7.529  110.7  0.0488   53.7  0.7822  -35.0
 1.800  0.5957  -79.1   7.485  110.1  0.0492   53.4  0.7791  -35.3
 1.820  0.5920  -79.9   7.443  109.6  0.0496   53.1  0.7759  -35.6
 1.840  0.5884  -80.7   7.401  109.0  0.0499   52.9  0.7726  -35.9
 1.860  0.5850  -81.5   7.360  108.4  0.0503   52.6  0.7694  -36.1
 1.880  0.5816  -82.3   7.320  107.9  0.0506   52.4  0.7663  -36.4
 1.900  0.5784  -83.1   7.281  107.3  0.0510   52.1  0.7631  -36.7
 1.920  0.5742  -83.9   7.238  106.7  0.0513   51.8  0.7599  -37.0
 1.940  0.5700  -84.7   7.196  106.2  0.0517   51.5  0.7568  -37.2
 1.960  0.5660  -85.5   7.154  105.6  0.0520   51.2  0.7537  -37.5
 1.980  0.5621  -86.3   7.113  105.0  0.0524   51.0  0.7506  -37.7
 2.000  0.5583  -87.1   7.073  104.4  0.0527   50.7  0.7475  -38.0
 2.020  0.5545  -87.8   7.031  103.9  0.0530   50.4  0.7444  -38.2
 2.040  0.5509  -88.6   6.989  103.4  0.0534   50.2  0.7414  -38.5
 2.060  0.5473  -89.4   6.948  102.8  0.0537   49.9  0.7384  -38.7
 2.080  0.5438  -90.1   6.908  102.3  0.0540   49.6  0.7353  -39.0
 2.100  0.5404  -90.9   6.868  101.8  0.0543   49.4  0.7323  -39.2
 2.120  0.5371  -91.7   6.829  101.2  0.0547   49.1  0.7293  -39.5
 2.140  0.5340  -92.5   6.791  100.7  0.0550   48.8  0.7264  -39.7
 2.160  0.5309  -93.3   6.753  100.1  0.0553   48.6  0.7234  -40.0
 2.180  0.5279  -94.2   6.716   99.6  0.0557   48.3  0.7204  -40.2
 2.200  0.5251  -95.0   6.679   99.0  0.0560   48.1  0.7175  -40.5
 2.220  0.5216  -95.8   6.641   98.5  0.0563   47.8  0.7145  -40.7
 2.240  0.5181  -96.5   6.603   98.0  0.0566   47.6  0.7115  -41.0
 2.260  0.5147  -97.3   6.566   97.5  0.0569   47.3  0.7086  -41.2
 2.280  0.5115  -98.1   6.529   97.0  0.0572   47.1  0.7056  -41.5
 2.300  0.5083  -98.9   6.493   96.5  0.0575   46.8  0.7027  -41.7
 2.320  0.5052  -99.7   6.457   96.0  0.0578   46.6  0.6998  -42.0
 2.340  0.5023 -100.5   6.422   95.5  0.0582   46.3  0.6968  -42.2
 2.360  0.4994 -101.3   6.388   95.0  0.0585   46.1  0.6940  -42.5
 2.380  0.4967 -102.2   6.354   94.4  0.0588   45.8  0.6911  -42.7
 2.400  0.4940 -103.0   6.320   93.9  0.0591   45.6  0.6882  -43.0
 2.420  0.4907 -103.7   6.285   93.4  0.0594   45.4  0.6853  -43.2
 2.440  0.4876 -104.5   6.250   93.0  0.0597   45.2  0.6825  -43.4
 2.460  0.4845 -105.2   6.215   92.5  0.0600   44.9  0.6797  -43.6
 2.480  0.4815 -106.0   6.181   92.0  0.0603   44.7  0.6769  -43.8
 2.500  0.4785 -106.8   6.147   91.6  0.0605   44.5  0.6740  -44.0
 2.520  0.4757 -107.6   6.114   91.1  0.0608   44.3  0.6712  -44.2
 2.540  0.4730 -108.4   6.081   90.6  0.0611   44.1  0.6684  -44.5
 2.560  0.4703 -109.2   6.048   90.1  0.0614   43.9  0.6656  -44.7
 2.580  0.4678 -110.0   6.017   89.6  0.0617   43.7  0.6629  -44.9
 2.600  0.4653 -110.8   5.985   89.1  0.0620   43.5  0.6601  -45.1
 2.620  0.4625 -111.6   5.954   88.7  0.0623   43.3  0.6573  -45.3
 2.640  0.4598 -112.4   5.923   88.2  0.0626   43.1  0.6546  -45.5
 2.660  0.4572 -113.2   5.892   87.8  0.0628   42.9  0.6518  -45.7
 2.680  0.4546 -114.0   5.862   87.3  0.0631   42.6  0.6491  -46.0
 2.700  0.4522 -114.8   5.832   86.9  0.0634   42.4  0.6463  -46.2
 2.720  0.4499 -115.7   5.803   86.4  0.0637   42.2  0.6436  -46.4
 2.740  0.4476 -116.5   5.774   85.9  0.0640   42.0  0.6409  -46.6
 2.760  0.4455 -117.4   5.745   85.5  0.0642   41.8  0.6382  -46.8
 2.780  0.4434 -118.2   5.717   85.0  0.0645   41.6  0.6355  -47.1
 2.800  0.4415 -119.1   5.689   84.5  0.0648   41.4  0.6328  -47.3
 2.820  0.4388 -119.9   5.659   84.1  0.0651   41.2  0.6301  -47.5
 2.840  0.4362 -120.6   5.629   83.6  0.0653   41.0  0.6274  -47.7
 2.860  0.4337 -121.4   5.600   83.2  0.0656   40.8  0.6247  -47.9
 2.880  0.4313 -122.2   5.571   82.7  0.0658   40.6  0.6221  -48.1
 2.900  0.4290 -123.0   5.542   82.3  0.0661   40.4  0.6194  -48.3
 2.920  0.4267 -123.8   5.514   81.8  0.0664   40.2  0.6167  -48.5
 2.940  0.4245 -124.6   5.486   81.3  0.0666   40.0  0.6141  -48.8
 2.960  0.4224 -125.4   5.458   80.9  0.0669   39.8  0.6115  -49.0
 2.980  0.4204 -126.3   5.431   80.4  0.0671   39.6  0.6088  -49.2
 3.000  0.4185 -127.1   5.404   79.9  0.0674   39.4  0.6062  -49.4
 3.100  0.4053 -130.8   5.266   78.0  0.0686   38.4  0.5930  -50.3
 3.200  0.3940 -134.8   5.135   75.9  0.0697   37.4  0.5800  -51.3
 3.300  0.3846 -139.0   5.010   73.8  0.0709   36.4  0.5671  -52.3
 3.400  0.3774 -143.3   4.893   71.6  0.0722   35.5  0.5545  -53.4
 3.500  0.3724 -147.8   4.783   69.2  0.0734   34.6  0.5420  -54.5
 3.600  0.3635 -151.8   4.665   67.4  0.0744   33.7  0.5303  -55.4
 3.700  0.3564 -155.9   4.552   65.5  0.0754   32.9  0.5188  -56.3
 3.800  0.3513 -160.2   4.444   63.5  0.0764   32.1  0.5074  -57.3
 3.900  0.3482 -164.6   4.341   61.5  0.0774   31.3  0.4962  -58.3
 4.000  0.3472 -169.1   4.245   59.3  0.0785   30.5  0.4851  -59.4
 4.100  0.3439 -173.1   4.146   57.6  0.0795   29.7  0.4752  -60.3
 4.200  0.3422 -177.1   4.051   55.9  0.0804   28.9  0.4654  -61.3
 4.300  0.3422  178.9   3.959   54.0  0.0814   28.2  0.4558  -62.3
 4.400  0.3439  174.9   3.872   52.1  0.0824   27.4  0.4463  -63.3
 4.500  0.3473  170.9   3.790   50.1  0.0834   26.7  0.4369  -64.4
 4.600  0.3491  167.6   3.706   48.6  0.0842   26.0  0.4285  -65.3
 4.700  0.3520  164.4   3.624   47.0  0.0851   25.3  0.4201  -66.2
 4.800  0.3560  161.3   3.546   45.3  0.0859   24.6  0.4119  -67.2
 4.900  0.3610  158.2   3.471   43.5  0.0868   23.9  0.4038  -68.2
 5.000  0.3671  155.2   3.399   41.7  0.0877   23.2  0.3958  -69.2
 5.100  0.3707  152.9   3.330   40.3  0.0885   22.6  0.3889  -70.0
 5.200  0.3750  150.6   3.264   38.8  0.0893   21.9  0.3821  -70.8
 5.300  0.3798  148.3   3.200   37.3  0.0902   21.3  0.3754  -71.6
 5.400  0.3852  146.1   3.138   35.7  0.0910   20.7  0.3688  -72.5
 5.500  0.3912  144.0   3.078   34.1  0.0919   20.1  0.3622  -73.4
 5.600  0.3936  142.2   3.023   32.7  0.0928   19.5  0.3560  -74.1
 5.700  0.3964  140.4   2.970   31.3  0.0937   19.0  0.3498  -74.8
 5.800  0.3996  138.6   2.919   29.9  0.0946   18.4  0.3437  -75.5
 5.900  0.4032  136.8   2.870   28.4  0.0956   17.9  0.3377  -76.3
 6.000  0.4071  135.1   2.823   26.8  0.0965   17.4  0.3317  -77.1
 6.100  0.4086  133.3   2.779   25.4  0.0975   16.8  0.3258  -77.9
 6.200  0.4104  131.5   2.736   24.0  0.0985   16.2  0.3200  -78.7
 6.300  0.4127  129.8   2.695   22.6  0.0996   15.6  0.3142  -79.6
 6.400  0.4154  128.0   2.655   21.0  0.1006   15.1  0.3085  -80.5
 6.500  0.4184  126.3   2.618   19.5  0.1017   14.5  0.3029  -81.4
 6.600  0.4185  124.2   2.575   18.1  0.1027   13.9  0.2971  -82.2
 6.800  0.4204  120.0   2.495   15.2  0.1048   12.6  0.2857  -83.8
 7.000  0.4245  115.9   2.421   12.1  0.1070   11.4  0.2745  -85.5
 7.200  0.4299  111.6   2.347    9.3  0.1092   10.0  0.2635  -87.2
 7.400  0.4378  107.4   2.279    6.4  0.1115    8.6  0.2528  -89.0
 7.600  0.4491  103.4   2.214    3.6  0.1137    7.1  0.2408  -90.9
 7.800  0.4640   99.6   2.151    0.9  0.1156    5.5  0.2276  -92.9
 8.000  0.4807   96.1   2.094   -2.0  0.1177    4.0  0.2147  -95.2
 8.200  0.4988   93.1   2.031   -4.6  0.1191    2.4  0.1959  -97.2
 8.400  0.5183   90.3   1.973   -7.4  0.1206    0.9  0.1775  -99.7
 8.600  0.5375   87.9   1.920  -10.1  0.1221   -0.6  0.1570 -102.7
 8.800  0.5562   85.7   1.871  -12.7  0.1235   -2.0  0.1346 -106.7
 9.000  0.5756   83.7   1.826  -15.4  0.1250   -3.4  0.1132 -112.3
 9.200  0.5929   81.4   1.777  -18.2  0.1261   -4.9  0.0915 -120.8
 9.400  0.6111   79.3   1.733  -21.2  0.1273   -6.3  0.0730 -134.0
 9.600  0.6252   76.8   1.681  -24.0  0.1284   -7.6  0.0612 -154.3
 9.800  0.6359   73.8   1.618  -26.6  0.1294   -8.9  0.0602 -179.5
10.000  0.6483   70.9   1.560  -29.5  0.1304  -10.1  0.0700  158.6
!
!  f       NFmin   Gammaopt  rn/50
! GHz       dB    MAG  ANG    -
!
! noise parameter not available yet for this operation point!
!
! (c) 2016  Infineon Technologies AG, Munich
