! Infineon Technologies  Discrete & RF Semiconductors
! BFP405F
! VCE =  4.0 V,  IC =  8.0 mA
! Common Emitter S-Parameters:                            Nov 2015
# GHz  S  MA  R  50
!  f         S11            S21            S12            S22
! GHz     MAG   ANG      MAG   ANG      MAG   ANG      MAG   ANG
 0.030  0.7565   -1.4  18.728  176.7  0.0023   65.7  0.9787   -0.5
 0.035  0.7553   -1.7  18.716  176.6  0.0008   32.3  0.9793   -0.7
 0.040  0.7542   -2.1  18.704  176.5  0.0013  -71.0  0.9800   -0.8
 0.045  0.7540   -2.7  18.780  176.0  0.0016  -49.0  0.9799   -1.0
 0.050  0.7539   -3.3  18.858  175.6  0.0020  -34.9  0.9799   -1.2
 0.055  0.7558   -3.4  18.746  175.4  0.0009   55.1  0.9836   -1.3
 0.060  0.7577   -3.5  18.634  175.2  0.0027  102.9  0.9874   -1.3
 0.065  0.7590   -3.9  18.625  174.7  0.0031  120.9  0.9847   -1.5
 0.070  0.7603   -4.3  18.617  174.2  0.0038  133.5  0.9821   -1.7
 0.075  0.7579   -4.6  18.574  174.0  0.0030   85.6  0.9832   -1.9
 0.080  0.7556   -4.9  18.531  173.7  0.0044   45.8  0.9844   -2.0
 0.085  0.7574   -5.4  18.556  173.6  0.0034   63.3  0.9836   -2.1
 0.090  0.7592   -5.8  18.581  173.6  0.0029   90.5  0.9829   -2.3
 0.095  0.7587   -6.1  18.522  173.4  0.0025   85.3  0.9827   -2.5
 0.100  0.7582   -6.5  18.464  173.1  0.0022   78.5  0.9826   -2.7
 0.105  0.7573   -6.8  18.466  172.7  0.0024   75.8  0.9817   -2.7
 0.110  0.7565   -7.1  18.469  172.4  0.0026   73.6  0.9807   -2.7
 0.115  0.7555   -7.5  18.449  172.2  0.0035   76.6  0.9809   -2.9
 0.120  0.7546   -8.0  18.430  172.0  0.0045   78.3  0.9812   -3.1
 0.125  0.7549   -8.3  18.422  171.6  0.0035   87.4  0.9811   -3.3
 0.130  0.7552   -8.6  18.414  171.2  0.0027  102.6  0.9810   -3.5
 0.135  0.7542   -9.0  18.438  171.1  0.0039   93.4  0.9804   -3.6
 0.140  0.7533   -9.4  18.463  171.0  0.0052   88.7  0.9798   -3.7
 0.145  0.7528   -9.6  18.456  170.7  0.0040   85.6  0.9783   -3.9
 0.150  0.7523   -9.9  18.450  170.4  0.0028   79.8  0.9768   -4.1
 0.155  0.7516  -10.2  18.438  170.0  0.0032   80.8  0.9768   -4.2
 0.160  0.7509  -10.6  18.427  169.7  0.0036   81.6  0.9767   -4.4
 0.165  0.7503  -10.9  18.416  169.3  0.0041   82.2  0.9767   -4.5
 0.170  0.7497  -11.3  18.406  169.0  0.0045   82.7  0.9767   -4.7
 0.175  0.7491  -11.6  18.397  168.6  0.0049   83.1  0.9767   -4.8
 0.180  0.7485  -11.9  18.389  168.2  0.0053   83.4  0.9767   -4.9
 0.185  0.7480  -12.3  18.381  167.9  0.0057   83.7  0.9767   -5.1
 0.190  0.7474  -12.6  18.375  167.5  0.0062   84.0  0.9767   -5.2
 0.195  0.7470  -13.0  18.368  167.2  0.0066   84.2  0.9767   -5.4
 0.200  0.7465  -13.3  18.363  166.8  0.0070   84.4  0.9767   -5.5
 0.220  0.7437  -14.5  18.241  165.7  0.0070   81.2  0.9750   -6.1
 0.240  0.7413  -15.7  18.127  164.6  0.0070   78.0  0.9735   -6.6
 0.260  0.7381  -17.0  18.038  163.4  0.0070   78.4  0.9712   -7.1
 0.280  0.7343  -18.3  17.975  162.1  0.0071   82.2  0.9683   -7.5
 0.300  0.7309  -19.6  17.921  160.9  0.0072   86.0  0.9655   -7.9
 0.320  0.7269  -20.8  17.803  159.8  0.0077   79.8  0.9630   -8.5
 0.340  0.7233  -22.0  17.693  158.6  0.0082   74.4  0.9606   -9.0
 0.360  0.7193  -23.2  17.589  157.4  0.0090   73.3  0.9582   -9.6
 0.380  0.7149  -24.5  17.493  156.2  0.0099   75.5  0.9558  -10.1
 0.400  0.7109  -25.8  17.404  155.0  0.0108   77.4  0.9535  -10.7
 0.420  0.7061  -27.0  17.293  153.9  0.0113   76.1  0.9495  -11.2
 0.440  0.7017  -28.2  17.189  152.8  0.0118   74.9  0.9455  -11.7
 0.450  0.6996  -28.8  17.139  152.2  0.0121   74.4  0.9436  -11.9
 0.460  0.6970  -29.4  17.070  151.7  0.0123   74.3  0.9418  -12.2
 0.480  0.6919  -30.5  16.938  150.6  0.0127   74.2  0.9383  -12.7
 0.500  0.6872  -31.7  16.811  149.5  0.0131   74.1  0.9348  -13.2
 0.520  0.6811  -32.8  16.670  148.5  0.0137   74.6  0.9310  -13.6
 0.540  0.6752  -33.9  16.535  147.4  0.0142   75.1  0.9273  -14.0
 0.560  0.6696  -35.1  16.406  146.3  0.0148   75.6  0.9236  -14.4
 0.580  0.6643  -36.2  16.282  145.2  0.0153   76.0  0.9200  -14.9
 0.600  0.6592  -37.4  16.165  144.1  0.0159   76.4  0.9164  -15.3
 0.620  0.6531  -38.4  16.031  143.2  0.0162   75.1  0.9124  -15.7
 0.640  0.6472  -39.4  15.902  142.2  0.0166   73.9  0.9083  -16.1
 0.660  0.6416  -40.5  15.777  141.2  0.0169   72.7  0.9044  -16.5
 0.680  0.6361  -41.5  15.656  140.2  0.0172   71.5  0.9005  -16.9
 0.700  0.6309  -42.6  15.541  139.2  0.0176   70.4  0.8966  -17.3
 0.720  0.6246  -43.6  15.383  138.3  0.0179   70.5  0.8923  -17.7
 0.740  0.6185  -44.6  15.229  137.3  0.0182   70.7  0.8881  -18.1
 0.760  0.6126  -45.6  15.079  136.4  0.0184   70.8  0.8839  -18.5
 0.780  0.6068  -46.6  14.933  135.4  0.0187   70.9  0.8797  -18.9
 0.800  0.6013  -47.7  14.792  134.4  0.0190   71.0  0.8756  -19.3
 0.820  0.5952  -48.6  14.655  133.6  0.0195   70.9  0.8714  -19.6
 0.840  0.5892  -49.6  14.521  132.7  0.0200   70.7  0.8672  -19.9
 0.860  0.5834  -50.5  14.391  131.8  0.0205   70.6  0.8631  -20.3
 0.880  0.5778  -51.5  14.264  130.9  0.0210   70.5  0.8590  -20.6
 0.900  0.5723  -52.5  14.141  130.0  0.0215   70.4  0.8549  -20.9
 0.920  0.5663  -53.4  13.997  129.2  0.0219   70.2  0.8507  -21.2
 0.940  0.5604  -54.2  13.857  128.4  0.0223   70.0  0.8466  -21.6
 0.960  0.5547  -55.1  13.718  127.6  0.0228   69.8  0.8425  -21.9
 0.980  0.5491  -56.1  13.583  126.8  0.0232   69.6  0.8384  -22.3
 1.000  0.5437  -57.0  13.451  125.9  0.0236   69.4  0.8343  -22.6
 1.020  0.5380  -57.8  13.314  125.2  0.0239   69.1  0.8303  -22.9
 1.040  0.5324  -58.6  13.180  124.5  0.0243   68.8  0.8263  -23.2
 1.060  0.5269  -59.5  13.047  123.7  0.0246   68.5  0.8223  -23.4
 1.080  0.5215  -60.3  12.917  123.0  0.0250   68.3  0.8183  -23.7
 1.100  0.5163  -61.2  12.789  122.2  0.0253   68.0  0.8144  -24.0
 1.120  0.5110  -62.0  12.665  121.5  0.0256   67.8  0.8106  -24.2
 1.140  0.5058  -62.9  12.542  120.8  0.0259   67.6  0.8068  -24.5
 1.160  0.5007  -63.7  12.421  120.1  0.0261   67.4  0.8030  -24.7
 1.180  0.4957  -64.6  12.303  119.3  0.0264   67.3  0.7992  -25.0
 1.200  0.4908  -65.5  12.186  118.6  0.0267   67.1  0.7954  -25.2
 1.220  0.4854  -66.2  12.065  117.9  0.0271   66.9  0.7917  -25.4
 1.240  0.4801  -67.0  11.945  117.2  0.0274   66.6  0.7880  -25.7
 1.260  0.4749  -67.7  11.827  116.5  0.0278   66.4  0.7843  -25.9
 1.280  0.4698  -68.5  11.711  115.8  0.0281   66.2  0.7806  -26.2
 1.300  0.4648  -69.3  11.597  115.1  0.0285   66.0  0.7769  -26.4
 1.320  0.4603  -70.0  11.482  114.5  0.0288   66.1  0.7732  -26.6
 1.340  0.4559  -70.8  11.367  114.0  0.0291   66.2  0.7695  -26.9
 1.360  0.4516  -71.5  11.254  113.4  0.0293   66.3  0.7659  -27.1
 1.380  0.4474  -72.3  11.142  112.8  0.0296   66.4  0.7622  -27.4
 1.400  0.4432  -73.1  11.031  112.2  0.0299   66.5  0.7586  -27.6
 1.420  0.4386  -73.8  10.927  111.6  0.0301   66.4  0.7553  -27.8
 1.440  0.4341  -74.5  10.823  111.1  0.0304   66.2  0.7520  -28.0
 1.460  0.4296  -75.2  10.721  110.5  0.0306   66.1  0.7487  -28.1
 1.480  0.4252  -76.0  10.620  109.9  0.0309   65.9  0.7455  -28.3
 1.500  0.4209  -76.7  10.520  109.3  0.0311   65.8  0.7422  -28.5
 1.520  0.4170  -77.4  10.422  108.8  0.0315   66.0  0.7390  -28.7
 1.540  0.4132  -78.1  10.325  108.3  0.0319   66.1  0.7359  -28.9
 1.560  0.4094  -78.9  10.229  107.7  0.0323   66.3  0.7328  -29.1
 1.580  0.4057  -79.6  10.133  107.2  0.0327   66.4  0.7296  -29.3
 1.600  0.4021  -80.4  10.039  106.6  0.0331   66.6  0.7265  -29.5
 1.620  0.3984  -81.0   9.943  106.1  0.0332   66.4  0.7233  -29.7
 1.640  0.3947  -81.6   9.848  105.6  0.0334   66.3  0.7202  -29.9
 1.660  0.3910  -82.3   9.753  105.1  0.0335   66.1  0.7170  -30.1
 1.680  0.3874  -82.9   9.660  104.5  0.0337   66.0  0.7138  -30.3
 1.700  0.3839  -83.6   9.567  104.0  0.0338   65.8  0.7107  -30.5
 1.720  0.3803  -84.3   9.481  103.5  0.0342   65.6  0.7077  -30.7
 1.740  0.3767  -85.0   9.396  103.1  0.0346   65.4  0.7047  -30.9
 1.760  0.3732  -85.7   9.312  102.6  0.0350   65.2  0.7017  -31.1
 1.780  0.3697  -86.4   9.228  102.1  0.0354   65.1  0.6988  -31.3
 1.800  0.3663  -87.1   9.145  101.6  0.0358   64.9  0.6958  -31.5
 1.820  0.3631  -87.7   9.068  101.2  0.0360   64.9  0.6928  -31.7
 1.840  0.3599  -88.4   8.992  100.7  0.0363   65.0  0.6898  -31.9
 1.860  0.3568  -89.0   8.916  100.3  0.0365   65.0  0.6868  -32.0
 1.880  0.3537  -89.7   8.841   99.9  0.0368   65.1  0.6838  -32.2
 1.900  0.3507  -90.4   8.766   99.4  0.0370   65.1  0.6808  -32.4
 1.920  0.3478  -91.1   8.695   99.0  0.0374   65.1  0.6788  -32.6
 1.940  0.3449  -91.8   8.624   98.5  0.0377   65.0  0.6769  -32.9
 1.960  0.3421  -92.6   8.554   98.1  0.0381   65.0  0.6749  -33.1
 1.980  0.3394  -93.3   8.485   97.7  0.0384   64.9  0.6730  -33.4
 2.000  0.3367  -94.1   8.416   97.2  0.0388   64.9  0.6711  -33.6
 2.020  0.3338  -94.7   8.344   96.8  0.0391   64.7  0.6685  -33.8
 2.040  0.3310  -95.3   8.273   96.3  0.0395   64.5  0.6658  -33.9
 2.060  0.3282  -95.9   8.203   95.9  0.0398   64.4  0.6632  -34.1
 2.080  0.3254  -96.5   8.133   95.5  0.0402   64.2  0.6606  -34.2
 2.100  0.3227  -97.1   8.063   95.0  0.0405   64.0  0.6580  -34.4
 2.120  0.3201  -97.7   7.996   94.6  0.0407   63.9  0.6557  -34.6
 2.140  0.3175  -98.3   7.929   94.2  0.0409   63.8  0.6533  -34.8
 2.160  0.3150  -99.0   7.863   93.8  0.0411   63.8  0.6510  -35.0
 2.180  0.3125  -99.6   7.797   93.4  0.0413   63.7  0.6487  -35.2
 2.200  0.3100 -100.3   7.732   93.0  0.0415   63.6  0.6464  -35.4
 2.220  0.3076 -100.9   7.671   92.7  0.0417   63.7  0.6443  -35.6
 2.240  0.3053 -101.5   7.610   92.3  0.0419   63.7  0.6421  -35.7
 2.260  0.3029 -102.1   7.549   91.9  0.0421   63.8  0.6400  -35.9
 2.280  0.3006 -102.8   7.488   91.6  0.0423   63.8  0.6378  -36.0
 2.300  0.2984 -103.4   7.428   91.2  0.0425   63.9  0.6357  -36.2
 2.320  0.2961 -103.9   7.371   90.9  0.0429   63.8  0.6337  -36.4
 2.340  0.2939 -104.5   7.315   90.5  0.0432   63.6  0.6316  -36.5
 2.360  0.2917 -105.1   7.259   90.1  0.0436   63.5  0.6296  -36.7
 2.380  0.2895 -105.6   7.203   89.8  0.0439   63.3  0.6276  -36.8
 2.400  0.2874 -106.2   7.147   89.4  0.0443   63.2  0.6256  -37.0
 2.420  0.2852 -106.8   7.092   89.1  0.0447   63.3  0.6237  -37.1
 2.440  0.2829 -107.4   7.037   88.7  0.0451   63.3  0.6219  -37.3
 2.460  0.2808 -108.0   6.983   88.4  0.0455   63.4  0.6200  -37.4
 2.480  0.2786 -108.6   6.929   88.1  0.0459   63.4  0.6182  -37.6
 2.500  0.2765 -109.2   6.875   87.7  0.0463   63.5  0.6163  -37.7
 2.520  0.2745 -109.7   6.823   87.4  0.0465   63.2  0.6146  -37.8
 2.540  0.2726 -110.2   6.771   87.0  0.0468   62.9  0.6129  -38.0
 2.560  0.2706 -110.7   6.720   86.7  0.0470   62.7  0.6112  -38.1
 2.580  0.2687 -111.3   6.669   86.4  0.0473   62.4  0.6095  -38.3
 2.600  0.2668 -111.8   6.618   86.0  0.0475   62.1  0.6078  -38.4
 2.620  0.2652 -112.4   6.572   85.7  0.0477   62.3  0.6061  -38.5
 2.640  0.2637 -113.0   6.526   85.4  0.0479   62.5  0.6045  -38.6
 2.660  0.2621 -113.6   6.481   85.1  0.0482   62.6  0.6028  -38.8
 2.680  0.2607 -114.3   6.435   84.7  0.0484   62.8  0.6012  -38.9
 2.700  0.2592 -114.9   6.390   84.4  0.0486   63.0  0.5995  -39.0
 2.720  0.2574 -115.4   6.347   84.1  0.0488   63.0  0.5980  -39.1
 2.740  0.2557 -115.9   6.303   83.8  0.0491   62.9  0.5965  -39.3
 2.760  0.2540 -116.4   6.260   83.5  0.0493   62.9  0.5950  -39.4
 2.780  0.2523 -117.0   6.218   83.2  0.0496   62.8  0.5935  -39.6
 2.800  0.2506 -117.5   6.175   82.9  0.0498   62.8  0.5920  -39.7
 2.820  0.2491 -118.0   6.132   82.6  0.0501   62.7  0.5907  -39.8
 2.840  0.2477 -118.6   6.089   82.4  0.0504   62.6  0.5895  -40.0
 2.860  0.2462 -119.1   6.047   82.1  0.0507   62.4  0.5882  -40.1
 2.880  0.2448 -119.6   6.004   81.8  0.0510   62.3  0.5870  -40.3
 2.900  0.2434 -120.2   5.962   81.5  0.0513   62.2  0.5857  -40.4
 2.920  0.2419 -120.7   5.924   81.2  0.0517   62.1  0.5843  -40.5
 2.940  0.2404 -121.3   5.886   81.0  0.0520   62.0  0.5829  -40.7
 2.960  0.2389 -121.9   5.849   80.7  0.0524   61.8  0.5815  -40.8
 2.980  0.2374 -122.4   5.811   80.4  0.0527   61.7  0.5802  -41.0
 3.000  0.2360 -123.0   5.774   80.1  0.0531   61.6  0.5788  -41.1
 3.100  0.2301 -125.6   5.588   78.6  0.0543   61.6  0.5724  -41.7
 3.200  0.2223 -128.5   5.413   77.3  0.0558   61.4  0.5667  -42.3
 3.300  0.2177 -130.8   5.257   76.0  0.0573   61.6  0.5614  -42.9
 3.400  0.2114 -133.7   5.096   74.7  0.0588   61.3  0.5565  -43.6
 3.500  0.2066 -136.0   4.955   73.5  0.0603   60.7  0.5529  -44.0
 3.600  0.2015 -138.7   4.812   72.3  0.0618   60.9  0.5486  -44.5
 3.700  0.1972 -141.5   4.683   71.2  0.0627   60.1  0.5440  -45.0
 3.800  0.1927 -144.1   4.557   70.0  0.0642   60.2  0.5401  -45.4
 3.900  0.1899 -146.5   4.443   68.9  0.0657   59.7  0.5366  -45.9
 4.000  0.1871 -148.9   4.334   67.9  0.0674   59.8  0.5333  -46.4
 4.100  0.1842 -151.8   4.229   66.7  0.0686   59.0  0.5289  -46.8
 4.200  0.1805 -154.7   4.127   65.7  0.0700   59.5  0.5251  -47.3
 4.300  0.1805 -157.2   4.036   64.6  0.0722   59.0  0.5217  -47.7
 4.400  0.1768 -160.1   3.946   63.6  0.0734   58.6  0.5185  -48.1
 4.500  0.1773 -162.1   3.857   62.6  0.0744   58.5  0.5158  -48.4
 4.600  0.1748 -165.2   3.771   61.5  0.0763   58.5  0.5121  -48.9
 4.700  0.1754 -167.3   3.694   60.6  0.0775   58.0  0.5077  -49.2
 4.800  0.1749 -170.2   3.622   59.5  0.0788   57.5  0.5052  -49.7
 4.900  0.1754 -171.9   3.548   58.6  0.0810   57.5  0.5015  -50.1
 5.000  0.1744 -174.5   3.479   57.6  0.0820   57.0  0.4983  -50.5
 5.100  0.1743 -176.7   3.410   56.6  0.0838   56.9  0.4955  -50.9
 5.200  0.1746 -179.1   3.350   55.6  0.0850   56.5  0.4915  -51.3
 5.300  0.1751  178.6   3.287   54.6  0.0869   56.4  0.4884  -51.8
 5.400  0.1752  176.9   3.228   53.8  0.0879   56.0  0.4866  -52.1
 5.500  0.1757  174.3   3.170   52.8  0.0901   55.3  0.4833  -52.5
 5.600  0.1755  172.3   3.116   51.8  0.0917   55.4  0.4805  -52.8
 5.700  0.1768  169.6   3.062   50.8  0.0932   54.8  0.4775  -53.2
 5.800  0.1769  167.8   3.012   49.9  0.0942   54.4  0.4748  -53.7
 5.900  0.1775  165.5   2.963   49.0  0.0957   54.1  0.4726  -54.0
 6.000  0.1770  163.5   2.912   48.1  0.0976   53.8  0.4704  -54.3
 6.100  0.1782  161.2   2.863   47.1  0.0987   53.1  0.4664  -54.6
 6.200  0.1787  158.8   2.817   46.2  0.1010   52.9  0.4645  -55.1
 6.300  0.1801  156.6   2.775   45.4  0.1019   52.7  0.4612  -55.3
 6.400  0.1795  154.5   2.732   44.4  0.1038   52.4  0.4590  -55.8
 6.500  0.1810  151.9   2.688   43.5  0.1049   52.0  0.4566  -56.0
 6.600  0.1823  149.7   2.649   42.6  0.1066   51.6  0.4534  -56.3
 6.800  0.1850  144.9   2.571   40.9  0.1098   50.8  0.4479  -56.8
 7.000  0.1881  140.1   2.497   39.1  0.1125   50.3  0.4420  -57.0
 7.200  0.1938  135.7   2.426   37.5  0.1159   49.7  0.4331  -57.5
 7.400  0.2022  132.0   2.363   35.9  0.1196   49.2  0.4251  -58.0
 7.600  0.2114  128.6   2.304   34.4  0.1233   48.5  0.4154  -58.4
 7.800  0.2220  125.8   2.250   32.8  0.1272   47.8  0.4050  -58.9
 8.000  0.2349  123.5   2.198   31.2  0.1306   47.0  0.3915  -59.5
 8.200  0.2502  121.8   2.154   29.7  0.1345   46.0  0.3748  -60.2
 8.400  0.2658  120.2   2.111   28.1  0.1383   45.1  0.3582  -60.9
 8.600  0.2814  118.8   2.070   26.5  0.1422   44.2  0.3393  -61.8
 8.800  0.2970  117.6   2.030   24.8  0.1461   43.2  0.3183  -62.8
 9.000  0.3127  116.5   1.993   23.1  0.1501   42.2  0.2974  -63.9
 9.200  0.3272  115.4   1.958   21.5  0.1540   41.2  0.2742  -65.5
 9.400  0.3418  114.4   1.925   19.8  0.1579   40.3  0.2513  -67.4
 9.600  0.3555  113.3   1.894   18.1  0.1618   39.2  0.2277  -69.9
 9.800  0.3685  112.2   1.864   16.4  0.1658   38.0  0.2037  -73.1
10.000  0.3816  111.2   1.836   14.6  0.1698   36.8  0.1806  -77.2
10.200  0.3940  109.6   1.806   12.8  0.1739   35.4  0.1559  -83.0
10.400  0.4067  108.0   1.777   10.9  0.1780   34.1  0.1334  -90.9
10.600  0.4188  106.2   1.747    9.0  0.1816   32.8  0.1152 -102.2
10.800  0.4303  104.1   1.715    7.0  0.1846   31.3  0.1039 -117.3
11.000  0.4424  102.1   1.685    4.9  0.1878   29.9  0.1012 -134.6
11.200  0.4523   99.9   1.645    3.1  0.1899   28.6  0.1132 -148.8
11.400  0.4628   97.9   1.607    1.3  0.1920   27.4  0.1307 -159.7
11.600  0.4702   96.2   1.570   -0.4  0.1944   26.3  0.1536 -166.2
11.800  0.4742   94.8   1.532   -1.9  0.1969   25.3  0.1794 -169.5
12.000  0.4785   93.4   1.495   -3.4  0.1995   24.4  0.2056 -171.9
!
!  f       NFmin   Gammaopt  rn/50
! GHz       dB    MAG  ANG    -
 0.450      1.52  0.27    6   0.33
 0.900      1.54  0.24   12   0.32
 1.500      1.60  0.23   17   0.29
 1.900      1.63  0.21   23   0.30
 2.400      1.77  0.20   31   0.33
 3.000      1.84  0.18   45   0.31
 3.500      1.90  0.16   52   0.30
 4.500      2.05  0.13   55   0.20
 5.500      2.24  0.07   59   0.06
!
! (c) 2015  Infineon Technologies AG, Munich
