! Infineon Technologies  Discrete & RF Semiconductors
! BFP450
! VCE =  2.0 V,  IC = 0.16 A
! Common Emitter S-Parameters:                            Nov 2015
# GHz  S  MA  R  50
!  f         S11            S21            S12            S22
! GHz     MAG   ANG      MAG   ANG      MAG   ANG      MAG   ANG
 0.030  0.3884 -157.5  78.397  161.9  0.0038   82.3  0.7333  -26.8
 0.035  0.4089 -156.8  77.110  159.0  0.0042   78.9  0.7270  -31.6
 0.040  0.4295 -156.2  76.028  156.0  0.0047   76.2  0.7258  -36.4
 0.045  0.4502 -156.5  74.423  153.2  0.0050   75.1  0.7168  -40.9
 0.050  0.4709 -156.7  73.009  150.2  0.0054   74.2  0.7123  -45.5
 0.055  0.4884 -156.7  71.167  147.9  0.0058   72.5  0.7028  -49.6
 0.060  0.5059 -156.7  69.449  145.4  0.0062   71.1  0.6969  -53.8
 0.065  0.5216 -157.3  67.582  143.0  0.0065   69.0  0.6865  -57.7
 0.070  0.5373 -157.8  65.844  140.4  0.0068   67.1  0.6794  -61.7
 0.075  0.5522 -158.1  64.093  138.5  0.0071   65.5  0.6698  -65.2
 0.080  0.5672 -158.3  62.416  136.5  0.0075   64.1  0.6627  -68.8
 0.085  0.5761 -159.1  60.660  134.7  0.0078   63.7  0.6536  -72.1
 0.090  0.5850 -159.8  58.967  132.8  0.0081   63.3  0.6466  -75.4
 0.095  0.5946 -160.4  57.346  131.1  0.0083   62.5  0.6380  -78.3
 0.100  0.6043 -160.9  55.775  129.4  0.0085   61.7  0.6311  -81.3
 0.105  0.6128 -161.4  54.304  127.9  0.0087   61.4  0.6234  -84.0
 0.110  0.6213 -161.9  52.870  126.4  0.0090   61.2  0.6172  -86.8
 0.115  0.6271 -162.5  51.420  125.1  0.0091   60.8  0.6105  -89.3
 0.120  0.6330 -163.0  49.998  123.7  0.0093   60.4  0.6050  -91.9
 0.125  0.6399 -163.5  48.697  122.5  0.0095   60.0  0.5987  -94.2
 0.130  0.6468 -163.9  47.419  121.2  0.0098   59.6  0.5933  -96.5
 0.135  0.6522 -164.6  46.232  120.1  0.0099   59.4  0.5878  -98.6
 0.140  0.6577 -165.2  45.062  119.0  0.0101   59.2  0.5831 -100.7
 0.145  0.6615 -165.8  43.919  117.9  0.0103   59.1  0.5782 -102.7
 0.150  0.6654 -166.3  42.793  116.8  0.0105   59.0  0.5741 -104.7
 0.155  0.6684 -166.7  41.868  116.1  0.0107   59.0  0.5690 -106.2
 0.160  0.6714 -167.1  40.950  115.5  0.0108   59.0  0.5644 -107.7
 0.165  0.6745 -167.5  40.037  114.8  0.0110   59.0  0.5601 -109.2
 0.170  0.6775 -167.9  39.130  114.0  0.0112   59.0  0.5562 -110.7
 0.175  0.6807 -168.3  38.231  113.2  0.0114   59.0  0.5527 -112.3
 0.180  0.6838 -168.7  37.339  112.4  0.0115   59.0  0.5496 -113.8
 0.185  0.6870 -169.1  36.455  111.5  0.0117   59.0  0.5470 -115.4
 0.190  0.6902 -169.4  35.580  110.6  0.0119   59.0  0.5447 -117.1
 0.195  0.6934 -169.8  34.714  109.7  0.0120   59.0  0.5430 -118.7
 0.200  0.6967 -170.2  33.858  108.7  0.0122   59.0  0.5416 -120.3
 0.220  0.7026 -171.5  31.438  106.7  0.0129   59.2  0.5319 -124.6
 0.240  0.7088 -172.8  29.064  104.3  0.0136   59.4  0.5252 -129.0
 0.260  0.7141 -173.9  27.007  102.3  0.0142   59.8  0.5202 -132.9
 0.280  0.7183 -174.8  25.240  100.6  0.0149   60.3  0.5155 -136.2
 0.300  0.7228 -175.7  23.497   98.7  0.0155   60.7  0.5126 -139.5
 0.320  0.7249 -176.5  22.190   97.5  0.0162   61.1  0.5095 -142.0
 0.340  0.7270 -177.3  20.895   96.1  0.0169   61.5  0.5075 -144.5
 0.360  0.7289 -178.1  19.747   94.8  0.0175   61.9  0.5058 -146.8
 0.380  0.7303 -178.8  18.743   93.6  0.0182   62.2  0.5044 -148.9
 0.400  0.7319 -179.5  17.748   92.3  0.0189   62.5  0.5036 -150.9
 0.420  0.7332  179.9  16.949   91.4  0.0196   62.8  0.5027 -152.6
 0.440  0.7346  179.3  16.154   90.3  0.0203   63.1  0.5022 -154.3
 0.450  0.7353  179.0  15.759   89.8  0.0206   63.2  0.5021 -155.1
 0.460  0.7359  178.7  15.435   89.4  0.0210   63.3  0.5018 -155.8
 0.480  0.7373  178.1  14.791   88.6  0.0217   63.5  0.5015 -157.3
 0.500  0.7387  177.5  14.149   87.7  0.0224   63.7  0.5015 -158.7
 0.520  0.7393  177.0  13.658   87.1  0.0231   63.9  0.5014 -159.9
 0.540  0.7400  176.5  13.169   86.4  0.0238   64.0  0.5014 -161.0
 0.560  0.7408  176.0  12.682   85.7  0.0245   64.1  0.5017 -162.2
 0.580  0.7415  175.5  12.197   84.9  0.0252   64.3  0.5022 -163.3
 0.600  0.7424  175.0  11.715   84.0  0.0259   64.4  0.5029 -164.5
 0.620  0.7429  174.6  11.361   83.5  0.0266   64.5  0.5031 -165.4
 0.640  0.7434  174.2  11.008   82.9  0.0273   64.5  0.5035 -166.3
 0.660  0.7440  173.7  10.657   82.3  0.0281   64.6  0.5040 -167.2
 0.680  0.7446  173.3  10.307   81.6  0.0288   64.6  0.5046 -168.1
 0.700  0.7452  172.9   9.958   80.9  0.0295   64.7  0.5053 -169.0
 0.720  0.7457  172.5   9.693   80.4  0.0302   64.7  0.5057 -169.8
 0.740  0.7462  172.1   9.428   79.9  0.0309   64.7  0.5062 -170.6
 0.760  0.7467  171.6   9.164   79.3  0.0316   64.6  0.5067 -171.4
 0.780  0.7473  171.2   8.901   78.7  0.0323   64.6  0.5074 -172.2
 0.800  0.7479  170.8   8.639   78.1  0.0330   64.6  0.5082 -173.0
 0.820  0.7483  170.4   8.435   77.7  0.0337   64.5  0.5087 -173.7
 0.840  0.7487  170.1   8.231   77.2  0.0344   64.5  0.5094 -174.3
 0.860  0.7491  169.7   8.028   76.8  0.0352   64.4  0.5100 -175.0
 0.880  0.7496  169.4   7.826   76.3  0.0359   64.4  0.5108 -175.6
 0.900  0.7501  169.0   7.624   75.8  0.0366   64.3  0.5116 -176.3
 0.920  0.7503  168.6   7.458   75.4  0.0373   64.2  0.5122 -176.9
 0.940  0.7505  168.2   7.291   74.9  0.0380   64.0  0.5129 -177.5
 0.960  0.7507  167.9   7.126   74.5  0.0388   63.9  0.5136 -178.2
 0.980  0.7510  167.5   6.961   74.0  0.0395   63.8  0.5144 -178.8
 1.000  0.7513  167.1   6.796   73.5  0.0402   63.7  0.5152 -179.4
 1.020  0.7516  166.7   6.666   73.1  0.0409   63.6  0.5157 -179.9
 1.040  0.7520  166.4   6.537   72.7  0.0416   63.5  0.5163  179.5
 1.060  0.7524  166.0   6.408   72.3  0.0423   63.4  0.5169  179.0
 1.080  0.7528  165.7   6.279   71.9  0.0430   63.3  0.5176  178.4
 1.100  0.7533  165.3   6.151   71.4  0.0437   63.2  0.5183  177.9
 1.120  0.7537  165.0   6.038   71.0  0.0444   63.0  0.5189  177.4
 1.140  0.7541  164.6   5.926   70.6  0.0451   62.9  0.5196  176.9
 1.160  0.7545  164.3   5.813   70.2  0.0458   62.7  0.5203  176.4
 1.180  0.7549  163.9   5.702   69.8  0.0465   62.6  0.5211  175.9
 1.200  0.7554  163.6   5.590   69.3  0.0472   62.4  0.5219  175.4
 1.220  0.7556  163.3   5.499   68.9  0.0479   62.2  0.5224  174.9
 1.240  0.7558  162.9   5.408   68.6  0.0486   62.0  0.5230  174.4
 1.260  0.7560  162.6   5.317   68.2  0.0494   61.8  0.5236  174.0
 1.280  0.7562  162.2   5.226   67.8  0.0501   61.7  0.5242  173.5
 1.300  0.7565  161.9   5.136   67.4  0.0508   61.5  0.5249  173.0
 1.320  0.7570  161.6   5.056   67.0  0.0515   61.3  0.5255  172.5
 1.340  0.7574  161.3   4.975   66.7  0.0522   61.2  0.5262  172.1
 1.360  0.7579  160.9   4.895   66.3  0.0529   61.0  0.5269  171.6
 1.380  0.7585  160.6   4.816   65.9  0.0536   60.9  0.5276  171.2
 1.400  0.7590  160.3   4.736   65.5  0.0543   60.7  0.5284  170.7
 1.420  0.7594  160.0   4.669   65.2  0.0550   60.5  0.5290  170.3
 1.440  0.7598  159.6   4.602   64.8  0.0557   60.3  0.5296  169.9
 1.460  0.7602  159.3   4.535   64.5  0.0564   60.1  0.5303  169.4
 1.480  0.7607  158.9   4.468   64.1  0.0571   59.9  0.5310  169.0
 1.500  0.7612  158.6   4.402   63.7  0.0578   59.7  0.5317  168.6
 1.520  0.7614  158.3   4.343   63.4  0.0585   59.5  0.5323  168.2
 1.540  0.7617  158.0   4.284   63.0  0.0592   59.3  0.5329  167.8
 1.560  0.7620  157.6   4.226   62.6  0.0598   59.1  0.5335  167.4
 1.580  0.7623  157.3   4.167   62.3  0.0605   58.9  0.5341  167.0
 1.600  0.7626  157.0   4.109   61.9  0.0612   58.7  0.5348  166.6
 1.620  0.7629  156.7   4.057   61.6  0.0619   58.5  0.5355  166.2
 1.640  0.7632  156.4   4.006   61.2  0.0626   58.3  0.5362  165.8
 1.660  0.7635  156.0   3.955   60.8  0.0632   58.1  0.5369  165.3
 1.680  0.7639  155.7   3.904   60.5  0.0639   57.9  0.5377  164.9
 1.700  0.7643  155.4   3.853   60.1  0.0646   57.7  0.5385  164.5
 1.720  0.7644  155.1   3.806   59.8  0.0653   57.5  0.5390  164.1
 1.740  0.7645  154.8   3.759   59.4  0.0660   57.2  0.5395  163.7
 1.760  0.7647  154.4   3.712   59.0  0.0666   57.0  0.5400  163.4
 1.780  0.7649  154.1   3.665   58.7  0.0673   56.7  0.5405  163.0
 1.800  0.7651  153.8   3.619   58.3  0.0680   56.5  0.5411  162.6
 1.820  0.7654  153.5   3.578   58.0  0.0687   56.3  0.5418  162.2
 1.840  0.7656  153.2   3.536   57.6  0.0693   56.0  0.5425  161.8
 1.860  0.7659  152.9   3.495   57.3  0.0700   55.8  0.5432  161.5
 1.880  0.7663  152.6   3.454   57.0  0.0706   55.6  0.5439  161.1
 1.900  0.7666  152.3   3.413   56.6  0.0713   55.4  0.5447  160.7
 1.920  0.7668  152.0   3.377   56.3  0.0720   55.2  0.5452  160.3
 1.940  0.7671  151.7   3.341   55.9  0.0727   54.9  0.5456  159.9
 1.960  0.7674  151.4   3.305   55.6  0.0733   54.7  0.5461  159.6
 1.980  0.7677  151.1   3.269   55.3  0.0740   54.4  0.5467  159.2
 2.000  0.7680  150.8   3.233   54.9  0.0747   54.2  0.5472  158.8
 2.020  0.7680  150.5   3.201   54.6  0.0753   54.0  0.5477  158.4
 2.040  0.7681  150.1   3.169   54.3  0.0760   53.7  0.5483  158.1
 2.060  0.7682  149.8   3.137   53.9  0.0766   53.5  0.5488  157.7
 2.080  0.7683  149.5   3.105   53.6  0.0772   53.2  0.5494  157.3
 2.100  0.7685  149.1   3.073   53.2  0.0779   53.0  0.5500  156.9
 2.120  0.7687  148.8   3.041   52.9  0.0785   52.8  0.5506  156.6
 2.140  0.7689  148.5   3.010   52.5  0.0792   52.6  0.5513  156.2
 2.160  0.7691  148.2   2.978   52.2  0.0798   52.3  0.5520  155.8
 2.180  0.7693  147.8   2.947   51.8  0.0805   52.1  0.5527  155.5
 2.200  0.7696  147.5   2.916   51.4  0.0811   51.9  0.5534  155.1
 2.220  0.7697  147.2   2.889   51.1  0.0817   51.6  0.5539  154.7
 2.240  0.7698  146.9   2.863   50.8  0.0823   51.4  0.5545  154.4
 2.260  0.7699  146.6   2.837   50.5  0.0829   51.1  0.5551  154.0
 2.280  0.7700  146.3   2.810   50.2  0.0836   50.9  0.5557  153.7
 2.300  0.7702  146.0   2.784   49.9  0.0842   50.7  0.5563  153.3
 2.320  0.7704  145.8   2.758   49.6  0.0848   50.4  0.5570  152.9
 2.340  0.7706  145.5   2.732   49.2  0.0854   50.2  0.5576  152.6
 2.360  0.7708  145.2   2.706   48.9  0.0860   50.0  0.5583  152.2
 2.380  0.7710  144.9   2.680   48.5  0.0867   49.7  0.5591  151.9
 2.400  0.7713  144.6   2.654   48.2  0.0873   49.5  0.5598  151.5
 2.420  0.7714  144.3   2.631   47.9  0.0879   49.3  0.5604  151.1
 2.440  0.7714  144.0   2.609   47.6  0.0885   49.0  0.5610  150.8
 2.460  0.7715  143.7   2.586   47.3  0.0891   48.8  0.5616  150.4
 2.480  0.7716  143.4   2.564   46.9  0.0897   48.5  0.5622  150.1
 2.500  0.7718  143.1   2.541   46.6  0.0903   48.3  0.5628  149.7
 2.520  0.7719  142.9   2.519   46.3  0.0909   48.1  0.5635  149.4
 2.540  0.7721  142.6   2.497   46.0  0.0916   47.9  0.5642  149.0
 2.560  0.7723  142.3   2.475   45.6  0.0922   47.6  0.5649  148.7
 2.580  0.7725  142.0   2.453   45.3  0.0928   47.4  0.5656  148.3
 2.600  0.7727  141.7   2.431   44.9  0.0934   47.2  0.5664  148.0
 2.620  0.7729  141.4   2.412   44.6  0.0940   46.9  0.5670  147.7
 2.640  0.7730  141.1   2.394   44.3  0.0945   46.7  0.5676  147.3
 2.660  0.7732  140.8   2.375   44.0  0.0951   46.4  0.5682  147.0
 2.680  0.7734  140.5   2.357   43.7  0.0957   46.2  0.5689  146.7
 2.700  0.7737  140.2   2.339   43.4  0.0963   45.9  0.5696  146.3
 2.720  0.7739  140.0   2.320   43.0  0.0969   45.7  0.5703  146.0
 2.740  0.7742  139.7   2.302   42.7  0.0974   45.4  0.5710  145.7
 2.760  0.7745  139.4   2.284   42.4  0.0980   45.2  0.5717  145.4
 2.780  0.7748  139.1   2.266   42.0  0.0986   44.9  0.5724  145.0
 2.800  0.7751  138.8   2.248   41.7  0.0992   44.7  0.5732  144.7
 2.820  0.7754  138.5   2.232   41.4  0.0998   44.4  0.5737  144.4
 2.840  0.7757  138.2   2.215   41.1  0.1003   44.2  0.5743  144.1
 2.860  0.7760  138.0   2.199   40.8  0.1009   43.9  0.5749  143.7
 2.880  0.7764  137.7   2.183   40.5  0.1015   43.7  0.5755  143.4
 2.900  0.7768  137.4   2.167   40.2  0.1021   43.4  0.5761  143.1
 2.920  0.7772  137.1   2.151   39.8  0.1027   43.2  0.5768  142.8
 2.940  0.7776  136.8   2.135   39.5  0.1032   42.9  0.5774  142.5
 2.960  0.7780  136.6   2.119   39.2  0.1038   42.7  0.5781  142.1
 2.980  0.7784  136.3   2.103   38.8  0.1044   42.4  0.5788  141.8
 3.000  0.7789  136.0   2.087   38.5  0.1050   42.2  0.5795  141.5
 3.100  0.7802  134.5   2.018   37.1  0.1074   40.8  0.5821  140.0
 3.200  0.7820  133.0   1.949   35.6  0.1100   39.5  0.5850  138.6
 3.300  0.7844  131.5   1.883   34.0  0.1125   38.2  0.5883  137.1
 3.400  0.7872  130.1   1.817   32.3  0.1151   37.0  0.5920  135.7
 3.500  0.7906  128.6   1.754   30.5  0.1178   35.9  0.5961  134.3
 3.600  0.7925  127.3   1.701   29.2  0.1199   34.7  0.5993  133.0
 3.700  0.7948  126.0   1.650   27.8  0.1220   33.5  0.6028  131.8
 3.800  0.7974  124.7   1.599   26.4  0.1243   32.3  0.6065  130.5
 3.900  0.8005  123.5   1.549   24.8  0.1265   31.2  0.6106  129.3
 4.000  0.8040  122.2   1.501   23.2  0.1288   30.1  0.6149  128.1
 4.100  0.8055  121.1   1.461   22.0  0.1307   29.0  0.6181  126.9
 4.200  0.8072  120.0   1.422   20.7  0.1326   27.9  0.6216  125.8
 4.300  0.8093  118.9   1.383   19.4  0.1345   26.9  0.6253  124.6
 4.400  0.8116  117.8   1.345   18.0  0.1366   25.9  0.6293  123.5
 4.500  0.8143  116.7   1.308   16.5  0.1386   24.9  0.6335  122.4
 4.600  0.8148  115.7   1.278   15.3  0.1405   23.8  0.6359  121.3
 4.700  0.8156  114.6   1.249   14.1  0.1425   22.8  0.6386  120.2
 4.800  0.8166  113.6   1.220   12.8  0.1445   21.8  0.6415  119.1
 4.900  0.8179  112.5   1.192   11.5  0.1466   20.8  0.6446  118.1
 5.000  0.8195  111.5   1.164   10.1  0.1487   19.8  0.6479  117.0
 5.100  0.8189  110.5   1.140    9.0  0.1505   18.7  0.6493  115.9
 5.200  0.8185  109.5   1.116    7.8  0.1523   17.6  0.6509  114.8
 5.300  0.8184  108.4   1.092    6.6  0.1541   16.6  0.6527  113.7
 5.400  0.8186  107.4   1.069    5.3  0.1560   15.6  0.6548  112.6
 5.500  0.8190  106.4   1.047    4.0  0.1580   14.6  0.6571  111.5
 5.600  0.8186  105.6   1.029    2.9  0.1598   13.6  0.6582  110.4
 5.700  0.8184  104.7   1.011    1.8  0.1616   12.6  0.6596  109.2
 5.800  0.8184  103.9   0.993    0.6  0.1634   11.6  0.6612  108.1
 5.900  0.8185  103.0   0.976   -0.6  0.1653   10.6  0.6631  107.0
 6.000  0.8188  102.2   0.959   -1.8  0.1673    9.7  0.6652  105.9
 6.100  0.8200  101.4   0.945   -3.0  0.1690    8.6  0.6666  104.9
 6.200  0.8215  100.6   0.932   -4.2  0.1707    7.4  0.6681  103.8
 6.300  0.8230   99.7   0.919   -5.5  0.1725    6.3  0.6699  102.8
 6.400  0.8248   98.9   0.906   -6.8  0.1744    5.3  0.6719  101.8
 6.500  0.8267   98.1   0.894   -8.1  0.1763    4.2  0.6741  100.8
 6.600  0.8280   97.1   0.881   -9.4  0.1779    3.0  0.6755   99.9
 6.800  0.8313   95.1   0.855  -12.1  0.1813    0.8  0.6787   98.2
 7.000  0.8355   93.2   0.832  -14.9  0.1849   -1.4  0.6826   96.5
 7.200  0.8377   90.9   0.807  -17.5  0.1872   -3.9  0.6865   94.6
 7.400  0.8412   88.6   0.783  -20.3  0.1898   -6.3  0.6913   92.6
 7.600  0.8438   86.3   0.759  -23.0  0.1918   -8.7  0.6974   90.4
 7.800  0.8456   83.9   0.734  -25.5  0.1933  -11.0  0.7055   87.9
 8.000  0.8488   81.5   0.711  -28.1  0.1951  -13.3  0.7149   85.5
 8.200  0.8509   79.0   0.686  -30.5  0.1951  -15.7  0.7233   82.9
 8.400  0.8546   76.6   0.663  -33.0  0.1953  -18.0  0.7332   80.3
 8.600  0.8577   74.2   0.641  -35.3  0.1949  -20.3  0.7412   77.9
 8.800  0.8603   71.8   0.618  -37.4  0.1938  -22.4  0.7471   75.5
 9.000  0.8644   69.5   0.597  -39.6  0.1929  -24.6  0.7542   73.2
 9.200  0.8681   67.7   0.575  -41.3  0.1911  -26.2  0.7594   71.3
 9.400  0.8727   65.9   0.553  -43.1  0.1895  -27.8  0.7655   69.4
 9.600  0.8777   64.5   0.534  -44.7  0.1880  -29.2  0.7742   67.8
 9.800  0.8828   63.5   0.518  -45.9  0.1865  -30.5  0.7852   66.6
10.000  0.8882   62.5   0.503  -47.2  0.1852  -31.8  0.7967   65.3
10.200  0.8903   62.0   0.492  -48.0  0.1847  -32.4  0.8008   65.3
10.400  0.8924   61.5   0.481  -48.9  0.1843  -32.9  0.8049   65.3
10.600  0.8932   61.0   0.472  -49.7  0.1845  -33.5  0.8064   65.5
10.800  0.8927   60.6   0.467  -50.5  0.1853  -34.2  0.8056   65.8
11.000  0.8922   60.2   0.462  -51.3  0.1861  -34.8  0.8047   66.2
11.200  0.8879   59.5   0.458  -52.8  0.1922  -34.9  0.7930   65.7
11.400  0.8837   58.8   0.455  -54.2  0.1983  -35.0  0.7813   65.1
11.600  0.8788   58.1   0.454  -55.7  0.2038  -36.3  0.7756   64.2
11.800  0.8732   57.4   0.455  -57.1  0.2089  -38.5  0.7760   63.0
12.000  0.8676   56.8   0.457  -58.5  0.2143  -40.7  0.7767   61.8
!
!  f       NFmin   Gammaopt  rn/50
! GHz       dB    MAG  ANG    -
 0.450      2.68  0.71 -172   0.07
 0.900      2.73  0.73 -165   0.10
 1.900      2.84  0.73 -148   0.24
 2.400      2.91  0.73 -138   0.37
!
! (c) 2015  Infineon Technologies AG, Munich
