! Infineon Technologies  Discrete & RF Semiconductors
! BFP405F
! VCE =  3.0 V,  IC =  6.0 mA
! Common Emitter S-Parameters:                            Nov 2015
# GHz  S  MA  R  50
!  f         S11            S21            S12            S22
! GHz     MAG   ANG      MAG   ANG      MAG   ANG      MAG   ANG
 0.030  0.8000   -1.5  15.880  177.3  0.0004  122.8  0.9876   -0.6
 0.035  0.8006   -1.8  15.886  177.2  0.0007   63.8  0.9880   -0.8
 0.040  0.8012   -2.1  15.892  177.1  0.0012   47.2  0.9885   -0.9
 0.045  0.8017   -2.8  15.968  176.7  0.0019   30.7  0.9911   -1.1
 0.050  0.8024   -3.4  16.044  176.3  0.0027   23.5  0.9937   -1.2
 0.055  0.8011   -3.4  15.952  176.1  0.0017   57.5  0.9933   -1.2
 0.060  0.7999   -3.3  15.860  175.9  0.0019  110.1  0.9929   -1.3
 0.065  0.8007   -3.7  15.857  175.4  0.0018  113.3  0.9908   -1.4
 0.070  0.8016   -4.1  15.855  174.9  0.0018  116.7  0.9887   -1.5
 0.075  0.8014   -4.4  15.824  174.7  0.0006   50.6  0.9885   -1.7
 0.080  0.8013   -4.8  15.793  174.5  0.0017  -24.9  0.9883   -1.9
 0.085  0.8013   -5.2  15.817  174.4  0.0014   72.0  0.9890   -2.1
 0.090  0.8014   -5.5  15.842  174.4  0.0035  100.8  0.9897   -2.2
 0.095  0.8026   -5.8  15.795  174.2  0.0033   88.4  0.9887   -2.4
 0.100  0.8039   -6.0  15.749  173.9  0.0032   74.8  0.9878   -2.7
 0.105  0.8017   -6.3  15.756  173.6  0.0034   82.3  0.9881   -2.7
 0.110  0.7995   -6.6  15.764  173.3  0.0037   88.8  0.9884   -2.7
 0.115  0.8009   -6.9  15.751  173.2  0.0036   85.3  0.9892   -2.9
 0.120  0.8023   -7.2  15.739  173.0  0.0035   81.6  0.9901   -3.0
 0.125  0.8010   -7.4  15.732  172.7  0.0036   88.9  0.9889   -3.2
 0.130  0.7998   -7.7  15.726  172.3  0.0038   95.6  0.9877   -3.4
 0.135  0.7990   -8.0  15.751  172.2  0.0042   90.7  0.9884   -3.5
 0.140  0.7983   -8.4  15.776  172.1  0.0046   86.7  0.9892   -3.6
 0.145  0.7972   -8.7  15.775  171.8  0.0053   74.1  0.9877   -3.7
 0.150  0.7961   -9.1  15.774  171.5  0.0062   64.7  0.9863   -3.9
 0.155  0.7957   -9.4  15.767  171.2  0.0062   66.6  0.9859   -4.0
 0.160  0.7953   -9.7  15.761  170.8  0.0063   68.4  0.9856   -4.2
 0.165  0.7950  -10.0  15.755  170.5  0.0063   70.2  0.9852   -4.3
 0.170  0.7947  -10.3  15.750  170.2  0.0064   71.9  0.9849   -4.5
 0.175  0.7944  -10.6  15.745  169.9  0.0065   73.7  0.9845   -4.6
 0.180  0.7941  -10.9  15.741  169.5  0.0066   75.3  0.9842   -4.7
 0.185  0.7938  -11.2  15.738  169.2  0.0066   77.0  0.9839   -4.9
 0.190  0.7936  -11.5  15.735  168.9  0.0067   78.6  0.9835   -5.0
 0.195  0.7934  -11.8  15.732  168.5  0.0068   80.2  0.9832   -5.2
 0.200  0.7932  -12.1  15.730  168.2  0.0069   81.7  0.9829   -5.3
 0.220  0.7904  -13.3  15.644  167.2  0.0070   82.6  0.9821   -5.9
 0.240  0.7878  -14.4  15.563  166.1  0.0071   83.6  0.9815   -6.4
 0.260  0.7850  -15.6  15.503  165.0  0.0073   81.4  0.9798   -6.9
 0.280  0.7817  -16.7  15.464  163.9  0.0078   76.5  0.9769   -7.4
 0.300  0.7787  -17.8  15.431  162.8  0.0083   72.3  0.9742   -7.9
 0.320  0.7755  -19.0  15.350  161.7  0.0089   76.2  0.9727   -8.5
 0.340  0.7726  -20.1  15.275  160.6  0.0095   79.6  0.9714   -9.0
 0.360  0.7694  -21.3  15.206  159.6  0.0102   81.2  0.9694   -9.5
 0.380  0.7657  -22.4  15.143  158.5  0.0109   81.5  0.9670  -10.0
 0.400  0.7624  -23.6  15.085  157.4  0.0117   81.7  0.9646  -10.5
 0.420  0.7589  -24.7  15.009  156.4  0.0122   81.2  0.9615  -11.0
 0.440  0.7556  -25.8  14.939  155.3  0.0127   80.7  0.9585  -11.5
 0.450  0.7541  -26.4  14.905  154.8  0.0130   80.5  0.9570  -11.7
 0.460  0.7516  -26.9  14.856  154.3  0.0134   80.1  0.9553  -11.9
 0.480  0.7469  -28.0  14.762  153.2  0.0142   79.3  0.9520  -12.4
 0.500  0.7424  -29.1  14.672  152.2  0.0150   78.6  0.9487  -12.9
 0.520  0.7369  -30.2  14.571  151.2  0.0153   78.3  0.9452  -13.4
 0.540  0.7317  -31.2  14.475  150.2  0.0156   78.1  0.9418  -13.8
 0.560  0.7267  -32.3  14.383  149.2  0.0159   77.8  0.9385  -14.3
 0.580  0.7220  -33.4  14.296  148.1  0.0162   77.5  0.9352  -14.7
 0.600  0.7175  -34.5  14.213  147.1  0.0165   77.3  0.9320  -15.2
 0.620  0.7121  -35.5  14.118  146.2  0.0172   76.4  0.9283  -15.6
 0.640  0.7069  -36.5  14.027  145.3  0.0179   75.6  0.9246  -16.0
 0.660  0.7019  -37.5  13.940  144.3  0.0185   74.9  0.9210  -16.5
 0.680  0.6971  -38.5  13.857  143.4  0.0192   74.2  0.9174  -16.9
 0.700  0.6926  -39.5  13.777  142.4  0.0199   73.5  0.9139  -17.3
 0.720  0.6866  -40.5  13.655  141.5  0.0203   73.3  0.9097  -17.7
 0.740  0.6809  -41.5  13.537  140.6  0.0207   73.1  0.9056  -18.1
 0.760  0.6753  -42.5  13.422  139.6  0.0212   72.9  0.9016  -18.5
 0.780  0.6699  -43.5  13.310  138.7  0.0216   72.8  0.8976  -19.0
 0.800  0.6648  -44.5  13.203  137.7  0.0220   72.6  0.8936  -19.4
 0.820  0.6591  -45.4  13.100  136.9  0.0223   72.0  0.8897  -19.8
 0.840  0.6536  -46.3  12.999  136.0  0.0227   71.4  0.8859  -20.1
 0.860  0.6482  -47.3  12.901  135.2  0.0230   70.8  0.8821  -20.5
 0.880  0.6430  -48.2  12.807  134.3  0.0234   70.2  0.8783  -20.8
 0.900  0.6380  -49.2  12.715  133.4  0.0237   69.7  0.8746  -21.2
 0.920  0.6322  -50.1  12.602  132.6  0.0241   69.9  0.8703  -21.6
 0.940  0.6265  -51.0  12.492  131.8  0.0245   70.0  0.8661  -21.9
 0.960  0.6210  -51.9  12.385  131.0  0.0249   70.2  0.8618  -22.3
 0.980  0.6156  -52.8  12.279  130.1  0.0253   70.4  0.8577  -22.6
 1.000  0.6104  -53.7  12.177  129.3  0.0257   70.5  0.8535  -23.0
 1.020  0.6048  -54.5  12.067  128.6  0.0262   70.1  0.8494  -23.3
 1.040  0.5993  -55.3  11.958  127.9  0.0267   69.7  0.8454  -23.7
 1.060  0.5940  -56.1  11.852  127.1  0.0271   69.3  0.8414  -24.0
 1.080  0.5887  -57.0  11.747  126.4  0.0276   68.9  0.8374  -24.4
 1.100  0.5836  -57.8  11.645  125.6  0.0281   68.5  0.8334  -24.7
 1.120  0.5782  -58.6  11.544  124.9  0.0285   68.3  0.8294  -25.0
 1.140  0.5729  -59.5  11.446  124.2  0.0290   68.0  0.8253  -25.2
 1.160  0.5677  -60.3  11.349  123.5  0.0294   67.8  0.8213  -25.5
 1.180  0.5626  -61.2  11.253  122.7  0.0299   67.6  0.8174  -25.7
 1.200  0.5577  -62.1  11.160  122.0  0.0303   67.4  0.8134  -26.0
 1.220  0.5523  -62.9  11.059  121.3  0.0306   67.2  0.8094  -26.3
 1.240  0.5470  -63.6  10.960  120.6  0.0310   67.0  0.8055  -26.6
 1.260  0.5417  -64.4  10.862  119.9  0.0313   66.8  0.8016  -26.8
 1.280  0.5366  -65.2  10.766  119.2  0.0317   66.6  0.7977  -27.1
 1.300  0.5316  -66.0  10.672  118.5  0.0320   66.4  0.7938  -27.4
 1.320  0.5269  -66.7  10.576  117.9  0.0322   66.2  0.7900  -27.7
 1.340  0.5222  -67.4  10.480  117.3  0.0324   66.0  0.7862  -27.9
 1.360  0.5177  -68.2  10.386  116.7  0.0327   65.8  0.7824  -28.2
 1.380  0.5132  -68.9  10.294  116.0  0.0329   65.6  0.7786  -28.4
 1.400  0.5088  -69.7  10.202  115.4  0.0331   65.4  0.7748  -28.7
 1.420  0.5040  -70.4  10.113  114.8  0.0335   65.2  0.7713  -28.9
 1.440  0.4993  -71.1  10.025  114.3  0.0339   65.0  0.7679  -29.1
 1.460  0.4946  -71.9   9.937  113.7  0.0344   64.8  0.7644  -29.4
 1.480  0.4901  -72.6   9.851  113.1  0.0348   64.6  0.7610  -29.6
 1.500  0.4856  -73.4   9.766  112.5  0.0352   64.4  0.7576  -29.8
 1.520  0.4813  -74.1   9.681  112.0  0.0354   64.4  0.7541  -30.0
 1.540  0.4772  -74.8   9.597  111.4  0.0356   64.4  0.7507  -30.2
 1.560  0.4731  -75.6   9.514  110.8  0.0359   64.5  0.7472  -30.5
 1.580  0.4690  -76.3   9.432  110.3  0.0361   64.5  0.7438  -30.7
 1.600  0.4651  -77.1   9.351  109.7  0.0363   64.5  0.7404  -30.9
 1.620  0.4611  -77.7   9.267  109.2  0.0366   64.2  0.7369  -31.1
 1.640  0.4572  -78.3   9.184  108.6  0.0370   64.0  0.7333  -31.3
 1.660  0.4533  -79.0   9.102  108.1  0.0373   63.7  0.7298  -31.6
 1.680  0.4495  -79.6   9.021  107.6  0.0377   63.5  0.7263  -31.8
 1.700  0.4457  -80.3   8.940  107.0  0.0380   63.2  0.7228  -32.0
 1.720  0.4417  -81.0   8.864  106.5  0.0383   62.9  0.7197  -32.2
 1.740  0.4377  -81.7   8.789  106.0  0.0387   62.7  0.7165  -32.4
 1.760  0.4338  -82.4   8.715  105.5  0.0390   62.4  0.7134  -32.7
 1.780  0.4300  -83.1   8.641  105.0  0.0394   62.2  0.7103  -32.9
 1.800  0.4262  -83.8   8.568  104.5  0.0397   61.9  0.7072  -33.1
 1.820  0.4229  -84.4   8.500  104.1  0.0399   61.9  0.7042  -33.3
 1.840  0.4197  -85.1   8.432  103.6  0.0402   62.0  0.7011  -33.5
 1.860  0.4165  -85.7   8.364  103.1  0.0404   62.0  0.6981  -33.7
 1.880  0.4134  -86.3   8.297  102.7  0.0407   62.1  0.6951  -33.9
 1.900  0.4103  -87.0   8.231  102.2  0.0409   62.1  0.6921  -34.1
 1.920  0.4069  -87.7   8.168  101.8  0.0414   62.0  0.6895  -34.3
 1.940  0.4036  -88.4   8.106  101.3  0.0418   61.9  0.6869  -34.6
 1.960  0.4003  -89.1   8.044  100.8  0.0423   61.8  0.6843  -34.8
 1.980  0.3971  -89.9   7.983  100.4  0.0427   61.7  0.6818  -35.1
 2.000  0.3939  -90.6   7.922   99.9  0.0432   61.6  0.6792  -35.3
 2.020  0.3907  -91.2   7.857   99.5  0.0435   61.5  0.6767  -35.5
 2.040  0.3875  -91.8   7.793   99.0  0.0438   61.5  0.6742  -35.7
 2.060  0.3844  -92.4   7.730   98.5  0.0442   61.4  0.6717  -35.9
 2.080  0.3813  -93.1   7.667   98.1  0.0445   61.4  0.6692  -36.1
 2.100  0.3783  -93.7   7.604   97.6  0.0448   61.3  0.6667  -36.3
 2.120  0.3752  -94.3   7.543   97.2  0.0450   61.2  0.6639  -36.5
 2.140  0.3722  -95.0   7.483   96.8  0.0452   61.2  0.6611  -36.7
 2.160  0.3693  -95.6   7.423   96.4  0.0454   61.1  0.6583  -36.8
 2.180  0.3664  -96.3   7.364   95.9  0.0456   61.1  0.6555  -37.0
 2.200  0.3635  -97.0   7.305   95.5  0.0458   61.0  0.6527  -37.2
 2.220  0.3607  -97.5   7.249   95.1  0.0460   60.9  0.6505  -37.4
 2.240  0.3580  -98.1   7.193   94.8  0.0462   60.7  0.6482  -37.6
 2.260  0.3553  -98.7   7.138   94.4  0.0464   60.6  0.6460  -37.7
 2.280  0.3526  -99.2   7.083   94.0  0.0466   60.4  0.6438  -37.9
 2.300  0.3500  -99.8   7.028   93.6  0.0468   60.3  0.6416  -38.1
 2.320  0.3475 -100.4   6.977   93.2  0.0471   60.2  0.6395  -38.3
 2.340  0.3450 -100.9   6.926   92.8  0.0474   60.2  0.6373  -38.5
 2.360  0.3425 -101.5   6.875   92.4  0.0476   60.1  0.6352  -38.6
 2.380  0.3401 -102.1   6.825   92.0  0.0479   60.1  0.6331  -38.8
 2.400  0.3377 -102.7   6.775   91.6  0.0482   60.0  0.6310  -39.0
 2.420  0.3354 -103.3   6.724   91.3  0.0484   60.1  0.6289  -39.1
 2.440  0.3330 -103.8   6.673   90.9  0.0486   60.1  0.6268  -39.3
 2.460  0.3308 -104.4   6.622   90.6  0.0488   60.2  0.6247  -39.4
 2.480  0.3285 -105.0   6.571   90.3  0.0490   60.2  0.6226  -39.6
 2.500  0.3263 -105.6   6.521   89.9  0.0492   60.3  0.6205  -39.7
 2.520  0.3243 -106.1   6.474   89.6  0.0495   60.2  0.6186  -39.8
 2.540  0.3223 -106.6   6.427   89.2  0.0498   60.0  0.6167  -40.0
 2.560  0.3203 -107.1   6.380   88.9  0.0501   59.9  0.6148  -40.1
 2.580  0.3183 -107.7   6.333   88.6  0.0504   59.7  0.6129  -40.3
 2.600  0.3164 -108.2   6.287   88.2  0.0507   59.6  0.6110  -40.4
 2.620  0.3142 -108.8   6.245   87.9  0.0510   59.5  0.6091  -40.5
 2.640  0.3120 -109.4   6.202   87.5  0.0514   59.4  0.6073  -40.7
 2.660  0.3098 -110.0   6.160   87.2  0.0517   59.2  0.6054  -40.8
 2.680  0.3077 -110.6   6.119   86.8  0.0521   59.1  0.6036  -41.0
 2.700  0.3056 -111.2   6.077   86.5  0.0524   59.0  0.6017  -41.1
 2.720  0.3036 -111.7   6.037   86.2  0.0528   59.0  0.6000  -41.3
 2.740  0.3016 -112.1   5.998   85.9  0.0531   59.0  0.5983  -41.4
 2.760  0.2996 -112.6   5.958   85.6  0.0535   58.9  0.5966  -41.6
 2.780  0.2976 -113.1   5.919   85.2  0.0538   58.9  0.5950  -41.7
 2.800  0.2957 -113.6   5.880   84.9  0.0542   58.9  0.5933  -41.9
 2.820  0.2939 -114.1   5.840   84.6  0.0544   58.8  0.5918  -42.0
 2.840  0.2921 -114.7   5.800   84.3  0.0546   58.7  0.5903  -42.1
 2.860  0.2903 -115.3   5.760   84.0  0.0548   58.7  0.5887  -42.3
 2.880  0.2886 -115.8   5.720   83.7  0.0550   58.6  0.5872  -42.4
 2.900  0.2869 -116.4   5.681   83.4  0.0552   58.5  0.5857  -42.5
 2.920  0.2852 -116.9   5.646   83.1  0.0555   58.5  0.5841  -42.7
 2.940  0.2835 -117.5   5.611   82.8  0.0558   58.4  0.5824  -42.8
 2.960  0.2818 -118.0   5.576   82.5  0.0562   58.4  0.5808  -43.0
 2.980  0.2802 -118.5   5.541   82.2  0.0565   58.3  0.5791  -43.1
 3.000  0.2786 -119.1   5.507   81.9  0.0568   58.3  0.5775  -43.3
 3.100  0.2716 -121.5   5.332   80.4  0.0580   58.8  0.5706  -43.9
 3.200  0.2630 -124.5   5.169   79.0  0.0591   57.6  0.5641  -44.6
 3.300  0.2576 -126.6   5.022   77.6  0.0604   57.5  0.5589  -45.1
 3.400  0.2489 -129.5   4.873   76.3  0.0617   58.0  0.5538  -45.8
 3.500  0.2438 -131.7   4.743   75.0  0.0632   57.7  0.5488  -46.2
 3.600  0.2373 -134.1   4.607   73.8  0.0641   57.2  0.5436  -46.7
 3.700  0.2327 -136.9   4.485   72.6  0.0665   57.0  0.5388  -47.2
 3.800  0.2271 -139.4   4.366   71.4  0.0678   57.0  0.5350  -47.7
 3.900  0.2236 -141.8   4.262   70.2  0.0691   56.7  0.5308  -48.1
 4.000  0.2187 -144.2   4.159   69.1  0.0707   56.5  0.5266  -48.6
 4.100  0.2164 -146.8   4.058   67.9  0.0714   56.1  0.5224  -49.0
 4.200  0.2112 -149.7   3.963   66.9  0.0732   55.7  0.5182  -49.5
 4.300  0.2104 -152.1   3.877   65.7  0.0745   55.9  0.5141  -50.0
 4.400  0.2059 -154.7   3.793   64.6  0.0760   55.9  0.5106  -50.3
 4.500  0.2051 -156.9   3.706   63.7  0.0772   55.5  0.5074  -50.6
 4.600  0.2029 -159.7   3.626   62.5  0.0790   55.3  0.5037  -51.0
 4.700  0.2023 -161.8   3.553   61.5  0.0808   55.0  0.4991  -51.4
 4.800  0.2006 -164.6   3.483   60.5  0.0817   54.4  0.4961  -51.9
 4.900  0.2003 -166.5   3.415   59.5  0.0834   54.0  0.4920  -52.2
 5.000  0.1990 -169.0   3.348   58.4  0.0852   53.9  0.4888  -52.6
 5.100  0.1988 -171.3   3.283   57.4  0.0860   53.8  0.4854  -53.0
 5.200  0.1982 -173.6   3.224   56.3  0.0877   53.5  0.4813  -53.4
 5.300  0.1982 -175.8   3.166   55.3  0.0892   53.2  0.4779  -53.9
 5.400  0.1974 -177.6   3.110   54.4  0.0905   52.6  0.4755  -54.3
 5.500  0.1974 -179.8   3.055   53.4  0.0924   52.8  0.4726  -54.7
 5.600  0.1976  178.0   3.002   52.4  0.0940   52.5  0.4698  -54.9
 5.700  0.1978  175.4   2.951   51.4  0.0951   51.9  0.4663  -55.3
 5.800  0.1979  173.6   2.904   50.4  0.0970   51.4  0.4633  -55.7
 5.900  0.1974  171.2   2.856   49.5  0.0982   51.5  0.4602  -56.0
 6.000  0.1972  169.2   2.809   48.6  0.0997   50.8  0.4581  -56.4
 6.100  0.1978  166.7   2.762   47.6  0.1010   50.4  0.4540  -56.6
 6.200  0.1978  164.8   2.718   46.6  0.1028   50.2  0.4523  -57.1
 6.300  0.1984  162.1   2.679   45.7  0.1044   49.8  0.4483  -57.4
 6.400  0.1973  160.0   2.636   44.8  0.1055   49.4  0.4460  -57.8
 6.500  0.1982  157.4   2.594   43.8  0.1073   49.3  0.4432  -58.1
 6.600  0.1986  155.3   2.557   42.9  0.1088   49.1  0.4402  -58.3
 6.800  0.2013  150.3   2.482   41.1  0.1119   48.6  0.4340  -58.8
 7.000  0.2033  145.4   2.412   39.3  0.1145   48.0  0.4270  -59.0
 7.200  0.2085  140.9   2.344   37.6  0.1178   47.1  0.4181  -59.4
 7.400  0.2165  136.8   2.283   36.0  0.1212   46.9  0.4100  -59.9
 7.600  0.2253  133.2   2.226   34.4  0.1252   46.2  0.3998  -60.1
 7.800  0.2361  130.2   2.174   32.7  0.1292   45.6  0.3883  -60.8
 8.000  0.2485  127.4   2.124   31.1  0.1323   44.7  0.3749  -61.3
 8.200  0.2637  125.3   2.080   29.5  0.1362   43.8  0.3577  -62.0
 8.400  0.2792  123.4   2.038   27.9  0.1400   42.9  0.3405  -62.7
 8.600  0.2948  121.7   1.998   26.2  0.1439   42.0  0.3212  -63.6
 8.800  0.3105  120.2   1.960   24.5  0.1477   41.1  0.2998  -64.5
 9.000  0.3265  118.8   1.924   22.7  0.1516   40.2  0.2785  -65.7
 9.200  0.3409  117.4   1.890   21.1  0.1553   39.2  0.2550  -67.4
 9.400  0.3555  116.2   1.857   19.4  0.1591   38.2  0.2318  -69.5
 9.600  0.3691  114.9   1.826   17.7  0.1631   37.1  0.2081  -72.2
 9.800  0.3818  113.7   1.796   15.9  0.1675   36.0  0.1842  -75.8
10.000  0.3947  112.5   1.768   14.1  0.1719   35.0  0.1612  -80.4
10.200  0.4067  110.8   1.738   12.3  0.1755   33.6  0.1372  -87.2
10.400  0.4190  109.2   1.709   10.4  0.1791   32.3  0.1159  -96.6
10.600  0.4306  107.2   1.679    8.4  0.1824   31.0  0.1003 -110.2
10.800  0.4417  105.0   1.648    6.5  0.1854   29.6  0.0938 -127.7
11.000  0.4535  102.9   1.618    4.4  0.1885   28.3  0.0968 -145.9
11.200  0.4626  100.7   1.580    2.6  0.1906   27.0  0.1134 -158.8
11.400  0.4723   98.6   1.543    0.7  0.1928   25.8  0.1342 -168.1
11.600  0.4793   96.9   1.507   -1.0  0.1950   24.8  0.1586 -173.1
11.800  0.4832   95.5   1.470   -2.4  0.1972   23.9  0.1848 -175.3
12.000  0.4874   94.2   1.435   -3.9  0.1994   23.0  0.2112 -176.9
!
!  f       NFmin   Gammaopt  rn/50
! GHz       dB    MAG  ANG    -
 0.450      1.38  0.34    6   0.33
 0.900      1.39  0.31   11   0.33
 1.500      1.45  0.29   18   0.31
 1.900      1.48  0.27   24   0.30
 2.400      1.63  0.26   33   0.32
 3.000      1.70  0.24   45   0.31
 3.500      1.75  0.22   54   0.28
 4.500      1.90  0.17   62   0.22
 5.500      2.12  0.09   71   0.09
!
! (c) 2015  Infineon Technologies AG, Munich
