! Infineon Technologies  Discrete & RF Semiconductors
! BFP410
! VCE =  4.0 V,  IC =  13 mA
! Common Emitter S-Parameters:                            Nov 2015
# GHz  S  MA  R  50
!  f         S11            S21            S12            S22
! GHz     MAG   ANG      MAG   ANG      MAG   ANG      MAG   ANG
 0.010  0.6093    1.0  29.302  178.6  0.0007   36.4  0.9593    3.0
 0.015  0.6094   -0.2  29.111  177.7  0.0010   52.0  0.9577    1.5
 0.020  0.6097   -1.4  28.928  176.8  0.0014   59.8  0.9567    0.0
 0.025  0.6090   -2.2  28.851  176.3  0.0016   62.0  0.9582   -0.4
 0.030  0.6084   -2.9  28.776  175.8  0.0018   63.8  0.9598   -0.8
 0.035  0.6079   -3.7  28.704  175.3  0.0020   65.2  0.9614   -1.2
 0.040  0.6075   -4.5  28.634  174.7  0.0022   66.3  0.9630   -1.5
 0.045  0.6072   -5.2  28.566  174.2  0.0024   67.3  0.9647   -1.9
 0.050  0.6070   -6.0  28.501  173.7  0.0026   68.1  0.9664   -2.3
 0.055  0.6064   -6.8  28.466  173.2  0.0028   69.3  0.9658   -2.7
 0.060  0.6058   -7.5  28.432  172.8  0.0031   70.3  0.9652   -3.0
 0.065  0.6054   -8.3  28.401  172.3  0.0033   71.1  0.9646   -3.4
 0.070  0.6050   -9.0  28.371  171.8  0.0035   71.9  0.9641   -3.8
 0.075  0.6048   -9.8  28.344  171.4  0.0037   72.5  0.9636   -4.1
 0.080  0.6047  -10.6  28.318  170.9  0.0040   73.1  0.9632   -4.5
 0.085  0.6047  -11.3  28.294  170.4  0.0042   73.6  0.9628   -4.9
 0.090  0.6048  -12.1  28.272  169.9  0.0044   74.1  0.9625   -5.3
 0.095  0.6050  -12.8  28.252  169.5  0.0047   74.5  0.9622   -5.6
 0.100  0.6053  -13.6  28.234  169.0  0.0049   74.9  0.9619   -6.0
 0.105  0.6041  -14.3  28.176  168.5  0.0051   75.0  0.9608   -6.3
 0.110  0.6031  -15.0  28.119  168.0  0.0053   75.1  0.9598   -6.6
 0.115  0.6021  -15.7  28.065  167.5  0.0056   75.2  0.9587   -7.0
 0.120  0.6012  -16.3  28.013  167.0  0.0058   75.3  0.9577   -7.3
 0.125  0.6004  -17.0  27.963  166.5  0.0060   75.4  0.9568   -7.6
 0.130  0.5996  -17.7  27.916  166.0  0.0062   75.4  0.9558   -7.9
 0.135  0.5990  -18.4  27.870  165.5  0.0064   75.5  0.9549   -8.2
 0.140  0.5984  -19.1  27.826  165.0  0.0067   75.6  0.9541   -8.6
 0.145  0.5980  -19.8  27.785  164.5  0.0069   75.6  0.9532   -8.9
 0.150  0.5976  -20.5  27.746  164.0  0.0071   75.7  0.9524   -9.2
 0.155  0.5963  -21.2  27.682  163.5  0.0073   75.6  0.9508   -9.5
 0.160  0.5951  -21.8  27.620  163.1  0.0075   75.5  0.9492   -9.8
 0.165  0.5939  -22.5  27.561  162.6  0.0078   75.4  0.9476  -10.1
 0.170  0.5928  -23.2  27.503  162.1  0.0080   75.4  0.9461  -10.4
 0.175  0.5919  -23.9  27.446  161.6  0.0082   75.3  0.9446  -10.7
 0.180  0.5910  -24.6  27.392  161.1  0.0084   75.2  0.9431  -11.0
 0.185  0.5901  -25.2  27.340  160.7  0.0086   75.2  0.9417  -11.4
 0.190  0.5894  -25.9  27.290  160.2  0.0089   75.1  0.9403  -11.7
 0.195  0.5888  -26.6  27.241  159.7  0.0091   75.1  0.9389  -12.0
 0.200  0.5882  -27.3  27.195  159.2  0.0093   75.0  0.9375  -12.3
 0.220  0.5826  -29.9  26.866  157.3  0.0101   74.1  0.9305  -13.4
 0.240  0.5781  -32.6  26.569  155.3  0.0110   73.3  0.9238  -14.6
 0.260  0.5731  -35.2  26.284  153.4  0.0118   72.7  0.9163  -15.7
 0.280  0.5673  -37.7  26.006  151.6  0.0127   72.1  0.9078  -16.8
 0.300  0.5627  -40.3  25.755  149.8  0.0135   71.6  0.8997  -17.9
 0.320  0.5566  -42.8  25.418  148.1  0.0143   70.8  0.8910  -18.9
 0.340  0.5515  -45.3  25.103  146.4  0.0150   70.1  0.8825  -19.9
 0.360  0.5459  -47.8  24.772  144.7  0.0157   69.4  0.8737  -20.9
 0.380  0.5395  -50.1  24.422  143.0  0.0164   68.6  0.8645  -21.8
 0.400  0.5340  -52.5  24.093  141.3  0.0171   67.9  0.8555  -22.7
 0.420  0.5278  -54.8  23.735  139.8  0.0178   67.3  0.8462  -23.6
 0.440  0.5224  -57.1  23.393  138.3  0.0185   66.8  0.8372  -24.5
 0.450  0.5201  -58.3  23.229  137.5  0.0188   66.5  0.8327  -24.9
 0.460  0.5166  -59.4  23.049  136.8  0.0191   66.2  0.8278  -25.3
 0.480  0.5103  -61.6  22.700  135.3  0.0197   65.6  0.8182  -26.1
 0.500  0.5047  -63.9  22.367  133.7  0.0203   65.1  0.8088  -26.9
 0.520  0.4980  -65.9  21.997  132.4  0.0209   64.5  0.7995  -27.6
 0.540  0.4920  -67.9  21.639  131.0  0.0214   64.0  0.7904  -28.3
 0.560  0.4866  -70.0  21.294  129.6  0.0220   63.5  0.7813  -29.0
 0.580  0.4818  -72.1  20.962  128.2  0.0225   63.1  0.7724  -29.7
 0.600  0.4777  -74.3  20.643  126.7  0.0231   62.6  0.7636  -30.5
 0.620  0.4714  -76.2  20.312  125.6  0.0236   62.2  0.7549  -31.1
 0.640  0.4656  -78.2  19.988  124.5  0.0241   61.8  0.7462  -31.7
 0.660  0.4604  -80.2  19.673  123.3  0.0247   61.4  0.7376  -32.3
 0.680  0.4558  -82.2  19.366  122.1  0.0252   61.0  0.7291  -32.9
 0.700  0.4517  -84.3  19.068  120.8  0.0257   60.7  0.7207  -33.5
 0.720  0.4466  -86.0  18.756  119.8  0.0262   60.4  0.7128  -34.0
 0.740  0.4419  -87.7  18.450  118.7  0.0266   60.1  0.7049  -34.5
 0.760  0.4375  -89.5  18.150  117.7  0.0271   59.8  0.6971  -35.0
 0.780  0.4337  -91.3  17.857  116.6  0.0275   59.5  0.6893  -35.5
 0.800  0.4302  -93.1  17.571  115.4  0.0280   59.2  0.6816  -36.0
 0.820  0.4260  -94.8  17.302  114.5  0.0284   58.9  0.6743  -36.4
 0.840  0.4221  -96.5  17.037  113.6  0.0288   58.7  0.6671  -36.9
 0.860  0.4186  -98.2  16.777  112.6  0.0293   58.5  0.6599  -37.3
 0.880  0.4154  -99.9  16.521  111.6  0.0297   58.2  0.6527  -37.8
 0.900  0.4127 -101.7  16.271  110.6  0.0301   58.0  0.6456  -38.3
 0.920  0.4090 -103.2  16.022  109.8  0.0305   57.8  0.6388  -38.7
 0.940  0.4056 -104.8  15.776  108.9  0.0309   57.6  0.6320  -39.0
 0.960  0.4024 -106.4  15.533  108.0  0.0313   57.4  0.6253  -39.4
 0.980  0.3997 -108.1  15.295  107.1  0.0317   57.2  0.6186  -39.8
 1.000  0.3972 -109.7  15.060  106.2  0.0321   57.0  0.6119  -40.2
 1.020  0.3944 -111.1  14.842  105.5  0.0325   56.8  0.6060  -40.5
 1.040  0.3919 -112.6  14.626  104.7  0.0329   56.7  0.6002  -40.9
 1.060  0.3896 -114.0  14.413  103.9  0.0333   56.5  0.5944  -41.2
 1.080  0.3876 -115.5  14.203  103.1  0.0337   56.4  0.5886  -41.5
 1.100  0.3858 -117.0  13.996  102.3  0.0341   56.2  0.5828  -41.9
 1.120  0.3833 -118.3  13.802  101.6  0.0345   56.1  0.5773  -42.2
 1.140  0.3811 -119.7  13.609  100.9  0.0349   55.9  0.5719  -42.5
 1.160  0.3791 -121.1  13.419  100.1  0.0352   55.8  0.5664  -42.8
 1.180  0.3773 -122.5  13.231   99.4  0.0356   55.6  0.5610  -43.2
 1.200  0.3757 -123.9  13.046   98.6  0.0360   55.5  0.5556  -43.5
 1.220  0.3739 -125.2  12.872   98.0  0.0364   55.4  0.5508  -43.8
 1.240  0.3723 -126.5  12.699   97.3  0.0368   55.2  0.5460  -44.0
 1.260  0.3709 -127.8  12.529   96.7  0.0371   55.1  0.5412  -44.3
 1.280  0.3696 -129.1  12.359   96.0  0.0375   54.9  0.5364  -44.5
 1.300  0.3686 -130.4  12.192   95.3  0.0379   54.8  0.5316  -44.8
 1.320  0.3669 -131.6  12.033   94.7  0.0383   54.7  0.5271  -45.1
 1.340  0.3653 -132.7  11.875   94.1  0.0387   54.6  0.5226  -45.3
 1.360  0.3639 -133.9  11.718   93.4  0.0390   54.6  0.5182  -45.6
 1.380  0.3627 -135.1  11.563   92.8  0.0394   54.5  0.5137  -45.8
 1.400  0.3616 -136.3  11.410   92.1  0.0398   54.4  0.5093  -46.1
 1.420  0.3604 -137.3  11.273   91.6  0.0402   54.3  0.5054  -46.3
 1.440  0.3592 -138.4  11.137   91.1  0.0405   54.2  0.5015  -46.5
 1.460  0.3582 -139.5  11.002   90.5  0.0409   54.1  0.4976  -46.7
 1.480  0.3574 -140.5  10.868   90.0  0.0412   54.0  0.4937  -47.0
 1.500  0.3566 -141.6  10.735   89.4  0.0416   53.9  0.4898  -47.2
 1.520  0.3558 -142.7  10.611   88.9  0.0420   53.8  0.4860  -47.4
 1.540  0.3552 -143.8  10.488   88.3  0.0424   53.7  0.4823  -47.6
 1.560  0.3547 -144.8  10.366   87.8  0.0427   53.6  0.4786  -47.8
 1.580  0.3543 -145.9  10.245   87.2  0.0431   53.5  0.4748  -48.1
 1.600  0.3541 -147.0  10.125   86.6  0.0435   53.4  0.4711  -48.3
 1.620  0.3529 -148.0  10.013   86.1  0.0439   53.3  0.4678  -48.5
 1.640  0.3518 -149.0   9.903   85.6  0.0442   53.2  0.4646  -48.7
 1.660  0.3508 -150.0   9.793   85.1  0.0446   53.1  0.4613  -48.9
 1.680  0.3500 -151.1   9.683   84.5  0.0449   53.0  0.4580  -49.1
 1.700  0.3492 -152.1   9.575   84.0  0.0453   52.9  0.4548  -49.3
 1.720  0.3488 -153.0   9.469   83.5  0.0457   52.8  0.4518  -49.5
 1.740  0.3486 -153.9   9.364   83.1  0.0461   52.7  0.4488  -49.7
 1.760  0.3484 -154.8   9.259   82.6  0.0464   52.7  0.4458  -49.9
 1.780  0.3483 -155.7   9.155   82.1  0.0468   52.6  0.4428  -50.1
 1.800  0.3483 -156.6   9.052   81.6  0.0472   52.5  0.4398  -50.3
 1.820  0.3477 -157.5   8.961   81.2  0.0476   52.4  0.4367  -50.5
 1.840  0.3473 -158.5   8.871   80.7  0.0480   52.3  0.4335  -50.7
 1.860  0.3469 -159.4   8.781   80.2  0.0483   52.2  0.4304  -50.9
 1.880  0.3466 -160.4   8.692   79.8  0.0487   52.1  0.4273  -51.1
 1.900  0.3464 -161.3   8.603   79.3  0.0491   52.0  0.4242  -51.3
 1.920  0.3458 -162.1   8.520   78.9  0.0495   51.9  0.4216  -51.4
 1.940  0.3453 -163.0   8.437   78.4  0.0499   51.8  0.4190  -51.6
 1.960  0.3449 -163.8   8.354   78.0  0.0502   51.8  0.4164  -51.7
 1.980  0.3445 -164.7   8.272   77.6  0.0506   51.7  0.4138  -51.9
 2.000  0.3442 -165.5   8.191   77.1  0.0510   51.6  0.4112  -52.0
 2.020  0.3438 -166.3   8.116   76.7  0.0514   51.5  0.4085  -52.2
 2.040  0.3435 -167.2   8.041   76.3  0.0517   51.4  0.4058  -52.3
 2.060  0.3433 -168.0   7.967   75.9  0.0521   51.3  0.4031  -52.5
 2.080  0.3431 -168.9   7.893   75.5  0.0525   51.1  0.4004  -52.7
 2.100  0.3431 -169.7   7.819   75.1  0.0528   51.0  0.3977  -52.8
 2.120  0.3431 -170.6   7.746   74.6  0.0532   50.9  0.3950  -53.0
 2.140  0.3431 -171.5   7.673   74.2  0.0536   50.8  0.3923  -53.2
 2.160  0.3433 -172.3   7.601   73.7  0.0540   50.7  0.3896  -53.3
 2.180  0.3435 -173.2   7.529   73.3  0.0543   50.6  0.3869  -53.5
 2.200  0.3438 -174.0   7.458   72.8  0.0547   50.5  0.3842  -53.7
 2.220  0.3437 -174.8   7.395   72.4  0.0551   50.4  0.3816  -53.9
 2.240  0.3437 -175.6   7.333   72.1  0.0554   50.2  0.3790  -54.0
 2.260  0.3438 -176.3   7.271   71.7  0.0558   50.1  0.3764  -54.2
 2.280  0.3440 -177.1   7.209   71.3  0.0562   50.0  0.3738  -54.4
 2.300  0.3442 -177.9   7.147   70.9  0.0565   49.9  0.3713  -54.5
 2.320  0.3444 -178.7   7.086   70.5  0.0569   49.8  0.3687  -54.7
 2.340  0.3447 -179.5   7.025   70.1  0.0573   49.6  0.3661  -54.9
 2.360  0.3451  179.7   6.965   69.7  0.0577   49.5  0.3635  -55.0
 2.380  0.3456  179.0   6.905   69.2  0.0580   49.4  0.3610  -55.2
 2.400  0.3461  178.2   6.845   68.8  0.0584   49.3  0.3584  -55.4
 2.420  0.3465  177.4   6.790   68.4  0.0588   49.2  0.3559  -55.6
 2.440  0.3470  176.7   6.736   68.1  0.0591   49.0  0.3535  -55.7
 2.460  0.3475  175.9   6.682   67.7  0.0595   48.9  0.3510  -55.9
 2.480  0.3481  175.1   6.628   67.3  0.0599   48.8  0.3485  -56.1
 2.500  0.3487  174.4   6.575   66.9  0.0602   48.7  0.3461  -56.3
 2.520  0.3494  173.6   6.522   66.5  0.0606   48.6  0.3436  -56.4
 2.540  0.3502  172.8   6.469   66.1  0.0610   48.4  0.3411  -56.6
 2.560  0.3511  172.1   6.416   65.7  0.0614   48.3  0.3387  -56.8
 2.580  0.3519  171.3   6.364   65.3  0.0617   48.2  0.3362  -57.0
 2.600  0.3529  170.6   6.312   64.9  0.0621   48.1  0.3338  -57.2
 2.620  0.3535  170.0   6.265   64.6  0.0625   48.0  0.3315  -57.4
 2.640  0.3542  169.3   6.219   64.2  0.0628   47.9  0.3293  -57.6
 2.660  0.3549  168.7   6.173   63.9  0.0632   47.8  0.3270  -57.7
 2.680  0.3556  168.0   6.127   63.6  0.0636   47.6  0.3248  -57.9
 2.700  0.3564  167.4   6.081   63.2  0.0639   47.5  0.3226  -58.1
 2.720  0.3572  166.8   6.035   62.9  0.0643   47.4  0.3203  -58.3
 2.740  0.3581  166.2   5.990   62.5  0.0647   47.3  0.3181  -58.5
 2.760  0.3590  165.5   5.945   62.1  0.0651   47.2  0.3159  -58.7
 2.780  0.3600  164.9   5.900   61.8  0.0654   47.1  0.3136  -58.9
 2.800  0.3610  164.3   5.855   61.4  0.0658   47.0  0.3114  -59.1
 2.820  0.3618  163.7   5.814   61.1  0.0662   46.9  0.3094  -59.3
 2.840  0.3626  163.1   5.774   60.7  0.0665   46.7  0.3074  -59.4
 2.860  0.3634  162.5   5.733   60.4  0.0669   46.6  0.3053  -59.6
 2.880  0.3643  161.9   5.693   60.1  0.0673   46.5  0.3033  -59.8
 2.900  0.3652  161.4   5.653   59.7  0.0676   46.3  0.3013  -60.0
 2.920  0.3661  160.8   5.614   59.4  0.0680   46.2  0.2993  -60.2
 2.940  0.3671  160.2   5.574   59.0  0.0684   46.1  0.2973  -60.3
 2.960  0.3681  159.6   5.535   58.6  0.0688   45.9  0.2953  -60.5
 2.980  0.3692  159.1   5.496   58.3  0.0691   45.8  0.2933  -60.7
 3.000  0.3703  158.5   5.457   57.9  0.0695   45.7  0.2913  -60.9
 3.100  0.3746  155.7   5.289   56.4  0.0713   45.0  0.2822  -61.8
 3.200  0.3798  153.0   5.125   54.9  0.0731   44.3  0.2731  -62.7
 3.300  0.3859  150.3   4.965   53.2  0.0749   43.6  0.2641  -63.6
 3.400  0.3927  147.8   4.809   51.5  0.0768   43.0  0.2551  -64.7
 3.500  0.4003  145.3   4.658   49.6  0.0786   42.4  0.2463  -65.8
 3.600  0.4057  143.0   4.530   48.2  0.0804   41.6  0.2378  -66.8
 3.700  0.4117  140.8   4.405   46.7  0.0823   40.9  0.2293  -67.9
 3.800  0.4184  138.7   4.283   45.1  0.0841   40.1  0.2210  -69.1
 3.900  0.4256  136.6   4.164   43.5  0.0860   39.5  0.2127  -70.3
 4.000  0.4333  134.6   4.049   41.7  0.0879   38.8  0.2046  -71.7
 4.100  0.4384  132.8   3.946   40.3  0.0896   37.9  0.1966  -73.2
 4.200  0.4439  131.0   3.845   38.9  0.0914   37.1  0.1887  -74.9
 4.300  0.4499  129.3   3.746   37.4  0.0932   36.3  0.1810  -76.8
 4.400  0.4562  127.6   3.651   35.8  0.0950   35.5  0.1735  -78.7
 4.500  0.4629  126.0   3.558   34.1  0.0968   34.8  0.1662  -80.9
 4.600  0.4665  124.6   3.475   32.8  0.0985   34.0  0.1606  -82.5
 4.700  0.4703  123.3   3.393   31.5  0.1001   33.2  0.1551  -84.3
 4.800  0.4744  121.9   3.314   30.2  0.1018   32.4  0.1498  -86.1
 4.900  0.4788  120.6   3.236   28.7  0.1036   31.6  0.1447  -88.1
 5.000  0.4834  119.3   3.161   27.2  0.1053   30.9  0.1397  -90.3
 5.100  0.4865  118.0   3.096   26.0  0.1068   30.1  0.1349  -91.8
 5.200  0.4899  116.7   3.032   24.6  0.1084   29.2  0.1302  -93.3
 5.300  0.4935  115.5   2.969   23.3  0.1100   28.4  0.1256  -95.0
 5.400  0.4974  114.2   2.909   21.9  0.1116   27.7  0.1211  -96.8
 5.500  0.5015  113.0   2.850   20.4  0.1132   26.9  0.1168  -98.8
 5.600  0.5056  111.7   2.797   19.2  0.1147   26.1  0.1111 -100.9
 5.700  0.5100  110.5   2.745   17.9  0.1163   25.3  0.1056 -103.1
 5.800  0.5145  109.3   2.695   16.6  0.1179   24.6  0.1003 -105.7
 5.900  0.5194  108.1   2.646   15.3  0.1195   23.8  0.0952 -108.5
 6.000  0.5244  106.9   2.599   13.9  0.1211   23.1  0.0904 -111.6
 6.100  0.5292  105.7   2.555   12.6  0.1227   22.2  0.0860 -115.0
 6.200  0.5342  104.6   2.512   11.3  0.1244   21.4  0.0820 -118.7
 6.300  0.5394  103.4   2.470   10.0  0.1261   20.6  0.0784 -122.9
 6.400  0.5448  102.3   2.430    8.6  0.1278   19.8  0.0752 -127.3
 6.500  0.5504  101.2   2.391    7.1  0.1295   19.0  0.0725 -132.2
 6.600  0.5543  100.1   2.353    5.8  0.1313   18.1  0.0692 -135.3
 6.800  0.5627   98.0   2.282    3.2  0.1349   16.5  0.0632 -142.3
 7.000  0.5719   96.0   2.215    0.4  0.1386   14.9  0.0583 -150.7
 7.200  0.5776   93.7   2.150   -2.2  0.1422   12.9  0.0530 -162.2
 7.400  0.5841   91.5   2.089   -5.0  0.1459   10.9  0.0503 -175.5
 7.600  0.5909   89.0   2.027   -7.9  0.1491    8.8  0.0515  168.6
 7.800  0.5984   86.3   1.963  -10.7  0.1520    6.5  0.0577  153.0
 8.000  0.6071   83.7   1.904  -13.8  0.1551    4.3  0.0673  141.2
 8.200  0.6162   80.7   1.836  -16.3  0.1563    2.2  0.0794  129.3
 8.400  0.6270   77.9   1.772  -19.0  0.1577    0.1  0.0939  120.8
 8.600  0.6408   75.3   1.714  -21.5  0.1590   -1.8  0.1108  113.1
 8.800  0.6573   73.1   1.663  -23.8  0.1600   -3.4  0.1305  106.2
 9.000  0.6748   70.9   1.614  -26.3  0.1611   -5.1  0.1515  101.2
 9.200  0.6989   69.4   1.570  -28.6  0.1622   -6.6  0.1773   97.0
 9.400  0.7235   68.0   1.528  -31.0  0.1634   -8.0  0.2038   94.0
 9.600  0.7460   66.5   1.480  -33.3  0.1646   -9.5  0.2298   92.0
 9.800  0.7666   65.0   1.425  -35.8  0.1658  -11.0  0.2552   90.7
10.000  0.7878   63.5   1.373  -38.4  0.1671  -12.5  0.2807   89.7
10.200  0.7934   62.3   1.325  -40.1  0.1689  -13.8  0.2969   88.8
10.400  0.7994   61.1   1.278  -42.0  0.1707  -15.1  0.3132   88.0
10.600  0.7971   60.5   1.240  -43.7  0.1725  -16.6  0.3259   87.6
10.800  0.7864   60.5   1.211  -45.1  0.1743  -18.3  0.3350   87.7
11.000  0.7756   60.5   1.182  -46.6  0.1763  -20.0  0.3440   87.7
11.200  0.7648   60.7   1.174  -47.7  0.1769  -21.7  0.3490   89.0
11.400  0.7539   61.0   1.167  -48.9  0.1777  -23.4  0.3542   90.4
11.600  0.7560   60.6   1.158  -51.2  0.1787  -25.3  0.3617   91.7
11.800  0.7713   59.7   1.151  -54.8  0.1801  -27.3  0.3714   93.1
12.000  0.7867   58.8   1.147  -58.3  0.1817  -29.4  0.3813   94.4
!
!  f       NFmin   Gammaopt  rn/50
! GHz       dB    MAG  ANG    -
 0.450      1.45  0.03 -118   0.16
 0.900      1.42  0.02 -123   0.16
 1.800      1.53  0.08 -148   0.16
 2.400      1.53  0.14 -128   0.21
 5.500      2.40  0.38 -109   0.32
10.000      3.52  0.68  -48   2.04
!
! (c) 2015  Infineon Technologies AG, Munich
