! Infineon Technologies  Discrete & RF Semiconductors
! BFP410
! VCE =  1.5 V,  IC =  10 mA
! Common Emitter S-Parameters:                            Nov 2015
# GHz  S  MA  R  50
!  f         S11            S21            S12            S22
! GHz     MAG   ANG      MAG   ANG      MAG   ANG      MAG   ANG
 0.010  0.6741   -0.5  24.698  179.4  0.0010  103.1  0.9683    1.9
 0.015  0.6724   -1.6  24.778  178.5  0.0011  100.0  0.9705    0.6
 0.020  0.6710   -2.7  24.864  177.7  0.0012   97.5  0.9731   -0.7
 0.025  0.6707   -3.4  24.820  177.1  0.0016   92.8  0.9737   -1.1
 0.030  0.6706   -4.1  24.779  176.6  0.0019   89.9  0.9744   -1.5
 0.035  0.6705   -4.7  24.740  176.0  0.0023   88.0  0.9751   -2.0
 0.040  0.6705   -5.4  24.704  175.4  0.0027   86.5  0.9759   -2.4
 0.045  0.6706   -6.1  24.670  174.9  0.0030   85.4  0.9767   -2.8
 0.050  0.6708   -6.8  24.638  174.3  0.0034   84.6  0.9776   -3.2
 0.055  0.6701   -7.5  24.623  173.9  0.0037   84.5  0.9769   -3.6
 0.060  0.6694   -8.2  24.610  173.4  0.0039   84.5  0.9763   -3.9
 0.065  0.6689   -8.8  24.598  173.0  0.0042   84.4  0.9758   -4.3
 0.070  0.6684   -9.5  24.588  172.5  0.0045   84.4  0.9752   -4.7
 0.075  0.6680  -10.2  24.580  172.1  0.0047   84.3  0.9747   -5.0
 0.080  0.6677  -10.9  24.572  171.6  0.0050   84.3  0.9743   -5.4
 0.085  0.6676  -11.6  24.567  171.2  0.0053   84.3  0.9739   -5.8
 0.090  0.6675  -12.2  24.563  170.7  0.0056   84.2  0.9735   -6.2
 0.095  0.6675  -12.9  24.560  170.3  0.0058   84.2  0.9732   -6.5
 0.100  0.6676  -13.6  24.559  169.8  0.0061   84.2  0.9729   -6.9
 0.105  0.6663  -14.3  24.514  169.3  0.0064   83.7  0.9717   -7.3
 0.110  0.6650  -14.9  24.470  168.8  0.0067   83.3  0.9705   -7.6
 0.115  0.6638  -15.6  24.429  168.3  0.0070   82.9  0.9693   -8.0
 0.120  0.6628  -16.3  24.389  167.8  0.0073   82.6  0.9682   -8.4
 0.125  0.6618  -17.0  24.352  167.3  0.0076   82.3  0.9671   -8.7
 0.130  0.6609  -17.7  24.316  166.8  0.0080   82.0  0.9661   -9.1
 0.135  0.6601  -18.3  24.282  166.2  0.0083   81.7  0.9651   -9.5
 0.140  0.6594  -19.0  24.251  165.7  0.0086   81.5  0.9641   -9.9
 0.145  0.6588  -19.7  24.221  165.2  0.0089   81.2  0.9632  -10.2
 0.150  0.6583  -20.4  24.193  164.7  0.0092   81.0  0.9623  -10.6
 0.155  0.6572  -21.1  24.144  164.2  0.0095   80.6  0.9606  -10.9
 0.160  0.6561  -21.7  24.097  163.8  0.0098   80.3  0.9590  -11.3
 0.165  0.6552  -22.4  24.052  163.3  0.0101   80.0  0.9574  -11.6
 0.170  0.6543  -23.0  24.008  162.8  0.0104   79.7  0.9559  -12.0
 0.175  0.6535  -23.7  23.966  162.3  0.0106   79.4  0.9544  -12.3
 0.180  0.6528  -24.3  23.926  161.8  0.0109   79.1  0.9529  -12.7
 0.185  0.6522  -25.0  23.887  161.4  0.0112   78.9  0.9514  -13.0
 0.190  0.6517  -25.7  23.850  160.9  0.0115   78.6  0.9500  -13.4
 0.195  0.6512  -26.3  23.815  160.4  0.0118   78.4  0.9486  -13.7
 0.200  0.6509  -27.0  23.781  159.9  0.0121   78.2  0.9473  -14.1
 0.220  0.6445  -29.5  23.518  158.0  0.0132   76.9  0.9399  -15.4
 0.240  0.6395  -32.1  23.281  156.1  0.0143   75.9  0.9330  -16.7
 0.260  0.6343  -34.6  23.053  154.2  0.0154   74.8  0.9252  -18.0
 0.280  0.6290  -37.2  22.833  152.4  0.0165   73.7  0.9165  -19.3
 0.300  0.6250  -39.7  22.635  150.6  0.0175   72.8  0.9083  -20.6
 0.320  0.6187  -42.1  22.357  148.9  0.0185   71.8  0.8990  -21.8
 0.340  0.6136  -44.6  22.098  147.3  0.0195   70.9  0.8901  -23.0
 0.360  0.6080  -47.1  21.824  145.6  0.0204   70.0  0.8807  -24.1
 0.380  0.6018  -49.5  21.534  143.9  0.0213   69.1  0.8707  -25.3
 0.400  0.5966  -51.9  21.262  142.2  0.0222   68.2  0.8610  -26.4
 0.420  0.5901  -54.1  20.964  140.7  0.0231   67.4  0.8511  -27.4
 0.440  0.5845  -56.4  20.681  139.1  0.0240   66.7  0.8415  -28.5
 0.450  0.5820  -57.6  20.545  138.3  0.0244   66.3  0.8368  -29.0
 0.460  0.5784  -58.7  20.392  137.6  0.0248   65.9  0.8315  -29.5
 0.480  0.5720  -61.0  20.096  136.1  0.0257   65.1  0.8210  -30.5
 0.500  0.5665  -63.3  19.815  134.5  0.0265   64.3  0.8108  -31.6
 0.520  0.5595  -65.3  19.500  133.2  0.0272   63.6  0.8003  -32.4
 0.540  0.5532  -67.4  19.196  131.8  0.0279   62.9  0.7900  -33.3
 0.560  0.5477  -69.5  18.903  130.4  0.0286   62.3  0.7799  -34.2
 0.580  0.5429  -71.6  18.621  129.0  0.0293   61.7  0.7700  -35.1
 0.600  0.5389  -73.8  18.352  127.5  0.0300   61.1  0.7603  -36.0
 0.620  0.5324  -75.7  18.065  126.4  0.0306   60.5  0.7505  -36.7
 0.640  0.5265  -77.6  17.785  125.2  0.0313   60.0  0.7408  -37.5
 0.660  0.5212  -79.6  17.513  124.0  0.0319   59.4  0.7312  -38.3
 0.680  0.5165  -81.6  17.249  122.8  0.0326   58.9  0.7218  -39.1
 0.700  0.5125  -83.7  16.993  121.5  0.0332   58.4  0.7125  -39.9
 0.720  0.5072  -85.4  16.722  120.5  0.0338   58.0  0.7034  -40.5
 0.740  0.5023  -87.1  16.456  119.4  0.0343   57.5  0.6944  -41.2
 0.760  0.4979  -88.9  16.196  118.3  0.0349   57.1  0.6855  -41.8
 0.780  0.4939  -90.7  15.942  117.2  0.0354   56.7  0.6767  -42.5
 0.800  0.4905  -92.5  15.695  116.0  0.0360   56.3  0.6680  -43.2
 0.820  0.4859  -94.2  15.460  115.1  0.0365   55.9  0.6596  -43.8
 0.840  0.4817  -95.9  15.228  114.1  0.0370   55.5  0.6513  -44.4
 0.860  0.4779  -97.6  15.002  113.1  0.0376   55.1  0.6431  -45.1
 0.880  0.4746  -99.4  14.780  112.1  0.0381   54.7  0.6350  -45.7
 0.900  0.4717 -101.2  14.563  111.0  0.0386   54.3  0.6269  -46.4
 0.920  0.4676 -102.7  14.341  110.2  0.0391   54.0  0.6190  -46.9
 0.940  0.4638 -104.3  14.123  109.3  0.0396   53.7  0.6112  -47.4
 0.960  0.4604 -105.9  13.908  108.4  0.0400   53.4  0.6034  -47.9
 0.980  0.4573 -107.5  13.697  107.5  0.0405   53.1  0.5957  -48.5
 1.000  0.4546 -109.1  13.489  106.5  0.0410   52.8  0.5880  -49.0
 1.020  0.4515 -110.5  13.296  105.7  0.0414   52.5  0.5811  -49.5
 1.040  0.4487 -112.0  13.106  105.0  0.0419   52.3  0.5743  -49.9
 1.060  0.4463 -113.5  12.919  104.2  0.0423   52.1  0.5675  -50.4
 1.080  0.4441 -115.0  12.733  103.3  0.0428   51.8  0.5608  -50.9
 1.100  0.4422 -116.5  12.551  102.5  0.0432   51.6  0.5541  -51.4
 1.120  0.4395 -117.9  12.379  101.8  0.0436   51.4  0.5478  -51.8
 1.140  0.4370 -119.2  12.208  101.0  0.0441   51.1  0.5415  -52.3
 1.160  0.4348 -120.6  12.040  100.3  0.0445   50.9  0.5352  -52.7
 1.180  0.4328 -122.0  11.874   99.5  0.0450   50.7  0.5290  -53.2
 1.200  0.4311 -123.4  11.710   98.7  0.0454   50.5  0.5228  -53.7
 1.220  0.4291 -124.6  11.554   98.1  0.0458   50.3  0.5171  -54.1
 1.240  0.4273 -125.9  11.400   97.4  0.0462   50.1  0.5114  -54.4
 1.260  0.4257 -127.2  11.247   96.7  0.0465   49.9  0.5058  -54.8
 1.280  0.4244 -128.4  11.096   96.0  0.0469   49.7  0.5001  -55.2
 1.300  0.4232 -129.7  10.947   95.3  0.0473   49.5  0.4945  -55.6
 1.320  0.4212 -130.9  10.804   94.7  0.0477   49.4  0.4892  -55.9
 1.340  0.4194 -132.1  10.663   94.1  0.0481   49.2  0.4840  -56.3
 1.360  0.4178 -133.3  10.523   93.4  0.0485   49.1  0.4787  -56.7
 1.380  0.4164 -134.5  10.384   92.8  0.0489   48.9  0.4735  -57.0
 1.400  0.4152 -135.7  10.247   92.1  0.0493   48.8  0.4683  -57.4
 1.420  0.4137 -136.7  10.125   91.6  0.0497   48.7  0.4638  -57.7
 1.440  0.4123 -137.8  10.004   91.0  0.0501   48.5  0.4592  -58.0
 1.460  0.4111 -138.9   9.884   90.5  0.0505   48.4  0.4547  -58.3
 1.480  0.4100 -139.9   9.764   89.9  0.0509   48.2  0.4502  -58.7
 1.500  0.4090 -141.0   9.646   89.3  0.0513   48.1  0.4457  -59.0
 1.520  0.4082 -142.1   9.535   88.7  0.0517   48.0  0.4414  -59.3
 1.540  0.4075 -143.2   9.425   88.2  0.0521   47.8  0.4370  -59.6
 1.560  0.4069 -144.2   9.316   87.6  0.0524   47.7  0.4327  -59.9
 1.580  0.4065 -145.3   9.207   87.0  0.0528   47.5  0.4284  -60.3
 1.600  0.4063 -146.4   9.100   86.4  0.0532   47.4  0.4241  -60.6
 1.620  0.4051 -147.4   9.001   85.9  0.0536   47.3  0.4203  -60.9
 1.640  0.4040 -148.4   8.902   85.4  0.0540   47.2  0.4164  -61.1
 1.660  0.4030 -149.4   8.805   84.8  0.0543   47.0  0.4126  -61.4
 1.680  0.4021 -150.5   8.708   84.3  0.0547   46.9  0.4088  -61.7
 1.700  0.4014 -151.5   8.612   83.7  0.0551   46.8  0.4050  -62.0
 1.720  0.4007 -152.4   8.517   83.2  0.0555   46.7  0.4015  -62.3
 1.740  0.4001 -153.3   8.422   82.7  0.0559   46.6  0.3981  -62.5
 1.760  0.3997 -154.2   8.329   82.2  0.0562   46.4  0.3947  -62.8
 1.780  0.3993 -155.1   8.236   81.7  0.0566   46.3  0.3912  -63.1
 1.800  0.3990 -156.0   8.143   81.2  0.0570   46.2  0.3878  -63.4
 1.820  0.3984 -156.9   8.062   80.8  0.0574   46.1  0.3842  -63.7
 1.840  0.3979 -157.8   7.981   80.3  0.0578   46.0  0.3807  -64.0
 1.860  0.3974 -158.8   7.901   79.8  0.0582   45.8  0.3771  -64.3
 1.880  0.3971 -159.7   7.821   79.4  0.0586   45.7  0.3736  -64.6
 1.900  0.3969 -160.6   7.742   78.9  0.0590   45.6  0.3701  -64.9
 1.920  0.3963 -161.4   7.667   78.5  0.0594   45.5  0.3671  -65.1
 1.940  0.3957 -162.3   7.592   78.0  0.0598   45.4  0.3640  -65.3
 1.960  0.3953 -163.1   7.518   77.5  0.0601   45.3  0.3610  -65.5
 1.980  0.3949 -164.0   7.444   77.1  0.0605   45.2  0.3579  -65.7
 2.000  0.3946 -164.8   7.371   76.6  0.0609   45.1  0.3549  -65.9
 2.020  0.3940 -165.7   7.303   76.2  0.0613   45.0  0.3518  -66.1
 2.040  0.3934 -166.5   7.236   75.8  0.0617   44.8  0.3487  -66.4
 2.060  0.3930 -167.4   7.169   75.3  0.0620   44.7  0.3456  -66.7
 2.080  0.3926 -168.2   7.103   74.9  0.0624   44.6  0.3425  -66.9
 2.100  0.3923 -169.1   7.037   74.5  0.0628   44.5  0.3394  -67.2
 2.120  0.3921 -169.9   6.972   74.0  0.0632   44.4  0.3363  -67.5
 2.140  0.3920 -170.8   6.906   73.5  0.0636   44.2  0.3333  -67.7
 2.160  0.3920 -171.7   6.842   73.1  0.0639   44.1  0.3302  -68.0
 2.180  0.3920 -172.5   6.778   72.6  0.0643   44.0  0.3271  -68.3
 2.200  0.3922 -173.4   6.714   72.1  0.0647   43.9  0.3241  -68.6
 2.220  0.3921 -174.2   6.657   71.7  0.0651   43.8  0.3212  -68.8
 2.240  0.3921 -174.9   6.601   71.3  0.0655   43.6  0.3183  -69.1
 2.260  0.3921 -175.7   6.545   70.9  0.0658   43.5  0.3154  -69.4
 2.280  0.3922 -176.5   6.489   70.5  0.0662   43.4  0.3126  -69.6
 2.300  0.3924 -177.3   6.433   70.1  0.0666   43.2  0.3097  -69.9
 2.320  0.3926 -178.0   6.378   69.7  0.0670   43.1  0.3069  -70.2
 2.340  0.3929 -178.8   6.323   69.3  0.0674   43.0  0.3040  -70.4
 2.360  0.3933 -179.6   6.269   68.9  0.0677   42.8  0.3012  -70.7
 2.380  0.3938  179.7   6.215   68.4  0.0681   42.7  0.2983  -71.0
 2.400  0.3943  178.9   6.161   68.0  0.0685   42.6  0.2955  -71.3
 2.420  0.3946  178.2   6.112   67.6  0.0689   42.5  0.2928  -71.6
 2.440  0.3950  177.4   6.062   67.3  0.0692   42.3  0.2900  -71.8
 2.460  0.3954  176.7   6.013   66.9  0.0696   42.2  0.2873  -72.1
 2.480  0.3959  175.9   5.965   66.5  0.0699   42.1  0.2846  -72.4
 2.500  0.3965  175.2   5.916   66.1  0.0703   41.9  0.2819  -72.6
 2.520  0.3971  174.4   5.868   65.7  0.0707   41.8  0.2792  -72.9
 2.540  0.3978  173.7   5.821   65.3  0.0710   41.7  0.2765  -73.2
 2.560  0.3986  173.0   5.773   64.9  0.0714   41.5  0.2738  -73.5
 2.580  0.3994  172.2   5.726   64.4  0.0717   41.4  0.2712  -73.8
 2.600  0.4003  171.5   5.679   64.0  0.0721   41.3  0.2685  -74.1
 2.620  0.4007  170.8   5.637   63.7  0.0725   41.2  0.2661  -74.4
 2.640  0.4012  170.2   5.595   63.3  0.0728   41.1  0.2637  -74.7
 2.660  0.4017  169.5   5.553   62.9  0.0732   41.0  0.2613  -75.0
 2.680  0.4023  168.9   5.511   62.6  0.0736   40.8  0.2589  -75.3
 2.700  0.4030  168.2   5.470   62.2  0.0739   40.7  0.2565  -75.6
 2.720  0.4036  167.6   5.429   61.8  0.0743   40.6  0.2541  -75.9
 2.740  0.4044  166.9   5.388   61.5  0.0747   40.5  0.2518  -76.2
 2.760  0.4052  166.3   5.348   61.1  0.0751   40.4  0.2494  -76.5
 2.780  0.4060  165.6   5.307   60.7  0.0754   40.3  0.2470  -76.9
 2.800  0.4069  165.0   5.267   60.3  0.0758   40.2  0.2447  -77.2
 2.820  0.4077  164.4   5.230   60.0  0.0762   40.1  0.2425  -77.5
 2.840  0.4084  163.8   5.194   59.6  0.0765   39.9  0.2403  -77.8
 2.860  0.4093  163.2   5.158   59.3  0.0769   39.8  0.2381  -78.1
 2.880  0.4102  162.6   5.121   58.9  0.0773   39.7  0.2359  -78.4
 2.900  0.4111  162.0   5.085   58.6  0.0776   39.5  0.2338  -78.7
 2.920  0.4121  161.4   5.050   58.2  0.0780   39.4  0.2316  -79.0
 2.940  0.4131  160.8   5.014   57.8  0.0784   39.3  0.2294  -79.3
 2.960  0.4142  160.3   4.979   57.5  0.0788   39.2  0.2273  -79.6
 2.980  0.4153  159.7   4.944   57.1  0.0791   39.0  0.2251  -80.0
 3.000  0.4164  159.1   4.909   56.7  0.0795   38.9  0.2230  -80.3
 3.100  0.4204  156.3   4.756   55.2  0.0813   38.2  0.2133  -81.8
 3.200  0.4253  153.6   4.607   53.6  0.0831   37.5  0.2038  -83.5
 3.300  0.4312  151.0   4.462   51.9  0.0850   36.9  0.1945  -85.3
 3.400  0.4380  148.4   4.320   50.0  0.0868   36.3  0.1854  -87.3
 3.500  0.4456  145.9   4.184   48.1  0.0887   35.7  0.1766  -89.5
 3.600  0.4505  143.6   4.067   46.6  0.0905   34.9  0.1680  -91.5
 3.700  0.4562  141.3   3.952   45.1  0.0924   34.2  0.1597  -93.7
 3.800  0.4625  139.1   3.840   43.5  0.0942   33.5  0.1516  -96.2
 3.900  0.4696  137.0   3.732   41.7  0.0961   32.8  0.1439  -99.0
 4.000  0.4772  134.9   3.627   39.9  0.0980   32.2  0.1365 -102.0
 4.100  0.4819  133.1   3.533   38.5  0.0997   31.3  0.1299 -105.3
 4.200  0.4872  131.3   3.441   37.1  0.1014   30.5  0.1238 -109.0
 4.300  0.4928  129.6   3.351   35.5  0.1031   29.7  0.1182 -113.0
 4.400  0.4990  127.9   3.264   33.9  0.1048   28.9  0.1133 -117.4
 4.500  0.5055  126.2   3.179   32.2  0.1066   28.1  0.1091 -122.1
 4.600  0.5085  124.8   3.103   30.9  0.1082   27.3  0.1058 -125.6
 4.700  0.5118  123.3   3.030   29.6  0.1098   26.6  0.1030 -129.4
 4.800  0.5154  121.9   2.957   28.1  0.1114   25.9  0.1006 -133.3
 4.900  0.5193  120.6   2.887   26.7  0.1130   25.2  0.0987 -137.4
 5.000  0.5235  119.2   2.819   25.1  0.1147   24.5  0.0974 -141.7
 5.100  0.5261  117.9   2.760   23.9  0.1162   23.7  0.0951 -145.3
 5.200  0.5289  116.6   2.703   22.6  0.1178   22.9  0.0932 -149.0
 5.300  0.5321  115.3   2.647   21.2  0.1194   22.2  0.0917 -152.9
 5.400  0.5355  114.0   2.592   19.9  0.1210   21.4  0.0906 -156.9
 5.500  0.5391  112.8   2.539   18.4  0.1226   20.7  0.0900 -161.0
 5.600  0.5433  111.5   2.491   17.1  0.1241   19.9  0.0888 -165.9
 5.700  0.5477  110.3   2.444   15.8  0.1257   19.2  0.0882 -170.8
 5.800  0.5524  109.0   2.398   14.5  0.1273   18.4  0.0883 -175.8
 5.900  0.5574  107.8   2.354   13.1  0.1289   17.7  0.0891  179.2
 6.000  0.5626  106.6   2.311   11.6  0.1305   17.0  0.0905  174.4
 6.100  0.5671  105.4   2.271   10.4  0.1321   16.2  0.0923  170.2
 6.200  0.5719  104.2   2.231    9.1  0.1337   15.3  0.0946  166.1
 6.300  0.5769  103.0   2.193    7.7  0.1354   14.5  0.0973  162.3
 6.400  0.5821  101.8   2.157    6.3  0.1371   13.8  0.1005  158.7
 6.500  0.5876  100.7   2.121    4.9  0.1388   13.0  0.1040  155.3
 6.600  0.5912   99.6   2.087    3.6  0.1405   12.1  0.1051  152.2
 6.800  0.5990   97.5   2.023    0.9  0.1441   10.5  0.1083  146.3
 7.000  0.6076   95.4   1.964   -2.0  0.1478    8.9  0.1125  140.7
 7.200  0.6130   93.1   1.905   -4.7  0.1513    6.8  0.1185  134.4
 7.400  0.6194   90.8   1.851   -7.5  0.1550    4.9  0.1258  128.8
 7.600  0.6258   88.3   1.795  -10.4  0.1581    2.7  0.1358  123.4
 7.800  0.6328   85.6   1.736  -13.3  0.1606    0.4  0.1486  118.4
 8.000  0.6411   82.9   1.682  -16.4  0.1634   -1.9  0.1623  114.3
 8.200  0.6489   79.9   1.620  -18.9  0.1642   -4.0  0.1768  109.7
 8.400  0.6583   77.0   1.561  -21.6  0.1651   -6.0  0.1923  105.7
 8.600  0.6710   74.4   1.508  -24.1  0.1660   -7.8  0.2097  101.7
 8.800  0.6864   72.2   1.460  -26.3  0.1667   -9.4  0.2292   97.8
 9.000  0.7028   70.0   1.414  -28.7  0.1675  -10.9  0.2496   94.5
 9.200  0.7258   68.4   1.374  -30.9  0.1684  -12.4  0.2747   91.6
 9.400  0.7492   67.0   1.336  -33.3  0.1694  -13.8  0.3003   89.2
 9.600  0.7703   65.5   1.293  -35.6  0.1703  -15.3  0.3253   87.3
 9.800  0.7893   63.9   1.243  -38.0  0.1711  -16.8  0.3493   86.0
10.000  0.8088   62.4   1.196  -40.5  0.1721  -18.3  0.3736   84.8
10.200  0.8131   61.2   1.154  -42.1  0.1734  -19.5  0.3879   83.7
10.400  0.8178   60.1   1.112  -43.8  0.1749  -20.6  0.4023   82.7
10.600  0.8145   59.5   1.079  -45.3  0.1762  -22.0  0.4126   82.1
10.800  0.8030   59.6   1.054  -46.6  0.1776  -23.6  0.4187   81.8
11.000  0.7915   59.6   1.030  -47.9  0.1791  -25.2  0.4248   81.5
11.200  0.7809   59.8   1.025  -49.0  0.1799  -26.6  0.4262   82.6
11.400  0.7704   60.1   1.021  -50.1  0.1807  -28.0  0.4278   83.7
11.600  0.7726   59.7   1.014  -52.4  0.1821  -29.8  0.4332   85.0
11.800  0.7879   58.8   1.008  -56.0  0.1841  -31.9  0.4426   86.3
12.000  0.8033   57.9   1.005  -59.5  0.1864  -34.0  0.4523   87.6
!
!  f       NFmin   Gammaopt  rn/50
! GHz       dB    MAG  ANG    -
 0.450      1.31  0.05  -19   0.16
 0.900      1.28  0.04    1   0.16
 1.800      1.42  0.03 -159   0.16
 2.400      1.40  0.09 -121   0.17
 5.500      2.27  0.35 -113   0.27
10.000      3.42  0.67  -49   1.87
!
! (c) 2015  Infineon Technologies AG, Munich
