! Infineon Technologies  Discrete & RF Semiconductors
! BFP450
! VCE =  2.5 V,  IC = 0.18 A
! Common Emitter S-Parameters:                            Nov 2015
# GHz  S  MA  R  50
!  f         S11            S21            S12            S22
! GHz     MAG   ANG      MAG   ANG      MAG   ANG      MAG   ANG
 0.030  0.4040 -159.7  77.529  162.6  0.0037   83.8  0.7280  -24.8
 0.035  0.4216 -159.1  76.376  159.8  0.0041   80.7  0.7225  -29.4
 0.040  0.4392 -158.5  75.413  156.9  0.0045   78.1  0.7217  -34.0
 0.045  0.4585 -158.4  73.938  154.1  0.0048   75.4  0.7134  -38.4
 0.050  0.4778 -158.4  72.647  151.2  0.0052   73.1  0.7093  -42.8
 0.055  0.4934 -158.5  70.907  148.9  0.0056   71.8  0.7000  -46.8
 0.060  0.5090 -158.6  69.286  146.5  0.0060   70.7  0.6942  -50.9
 0.065  0.5240 -159.1  67.507  144.1  0.0062   69.2  0.6834  -54.6
 0.070  0.5391 -159.6  65.857  141.5  0.0064   67.7  0.6756  -58.5
 0.075  0.5509 -159.7  64.196  139.6  0.0067   66.8  0.6661  -62.0
 0.080  0.5627 -159.8  62.606  137.7  0.0071   65.9  0.6590  -65.5
 0.085  0.5723 -160.5  60.907  135.9  0.0073   65.0  0.6494  -68.6
 0.090  0.5819 -161.1  59.274  133.9  0.0076   64.1  0.6417  -71.8
 0.095  0.5920 -161.6  57.696  132.2  0.0078   63.6  0.6329  -74.8
 0.100  0.6021 -162.0  56.169  130.5  0.0081   63.2  0.6259  -77.8
 0.105  0.6090 -162.6  54.730  129.0  0.0083   62.7  0.6176  -80.5
 0.110  0.6160 -163.1  53.329  127.5  0.0086   62.3  0.6107  -83.2
 0.115  0.6228 -163.7  51.907  126.2  0.0088   62.0  0.6034  -85.7
 0.120  0.6297 -164.2  50.513  124.8  0.0090   61.7  0.5972  -88.2
 0.125  0.6355 -164.7  49.232  123.5  0.0091   61.3  0.5906  -90.5
 0.130  0.6413 -165.1  47.976  122.2  0.0093   61.0  0.5850  -92.8
 0.135  0.6470 -165.6  46.801  121.1  0.0095   60.8  0.5790  -94.9
 0.140  0.6527 -166.0  45.643  120.0  0.0097   60.7  0.5738  -97.1
 0.145  0.6576 -166.5  44.513  118.9  0.0099   60.5  0.5686  -99.0
 0.150  0.6625 -167.0  43.400  117.8  0.0101   60.4  0.5640 -101.0
 0.155  0.6652 -167.4  42.472  117.1  0.0103   60.4  0.5586 -102.5
 0.160  0.6679 -167.8  41.550  116.4  0.0104   60.4  0.5535 -104.0
 0.165  0.6707 -168.2  40.634  115.7  0.0106   60.3  0.5488 -105.5
 0.170  0.6735 -168.6  39.726  114.9  0.0107   60.3  0.5445 -107.1
 0.175  0.6763 -168.9  38.824  114.1  0.0109   60.3  0.5406 -108.6
 0.180  0.6792 -169.3  37.931  113.3  0.0111   60.3  0.5372 -110.2
 0.185  0.6821 -169.7  37.046  112.4  0.0112   60.3  0.5341 -111.9
 0.190  0.6850 -170.1  36.171  111.5  0.0114   60.2  0.5315 -113.5
 0.195  0.6879 -170.4  35.305  110.5  0.0115   60.2  0.5293 -115.1
 0.200  0.6909 -170.8  34.450  109.5  0.0117   60.2  0.5276 -116.8
 0.220  0.6967 -172.0  32.006  107.4  0.0124   60.6  0.5168 -121.2
 0.240  0.7028 -173.1  29.610  105.0  0.0131   60.9  0.5091 -125.8
 0.260  0.7083 -174.1  27.532  102.9  0.0138   61.3  0.5032 -129.8
 0.280  0.7129 -175.0  25.745  101.2  0.0145   61.7  0.4978 -133.2
 0.300  0.7177 -175.9  23.984   99.3  0.0151   62.1  0.4942 -136.6
 0.320  0.7202 -176.7  22.654   98.0  0.0158   62.5  0.4906 -139.2
 0.340  0.7227 -177.5  21.337   96.6  0.0165   62.8  0.4881 -141.8
 0.360  0.7248 -178.2  20.169   95.2  0.0171   63.2  0.4861 -144.2
 0.380  0.7263 -178.9  19.145   94.0  0.0178   63.5  0.4843 -146.3
 0.400  0.7279 -179.6  18.131   92.7  0.0185   63.8  0.4832 -148.5
 0.420  0.7294  179.8  17.318   91.8  0.0192   64.1  0.4820 -150.3
 0.440  0.7311  179.1  16.509   90.7  0.0199   64.3  0.4812 -152.0
 0.450  0.7319  178.8  16.107   90.2  0.0202   64.4  0.4810 -152.9
 0.460  0.7324  178.5  15.777   89.8  0.0205   64.5  0.4807 -153.6
 0.480  0.7335  178.0  15.119   88.9  0.0212   64.7  0.4803 -155.1
 0.500  0.7346  177.5  14.465   88.0  0.0219   64.9  0.4802 -156.6
 0.520  0.7354  177.0  13.963   87.4  0.0226   65.0  0.4799 -157.8
 0.540  0.7363  176.5  13.463   86.7  0.0233   65.1  0.4798 -159.0
 0.560  0.7372  176.0  12.964   86.0  0.0240   65.2  0.4800 -160.3
 0.580  0.7382  175.5  12.468   85.2  0.0247   65.3  0.4803 -161.5
 0.600  0.7392  175.0  11.975   84.3  0.0254   65.4  0.4809 -162.7
 0.620  0.7396  174.6  11.614   83.8  0.0261   65.4  0.4811 -163.6
 0.640  0.7401  174.2  11.254   83.2  0.0268   65.4  0.4814 -164.6
 0.660  0.7406  173.7  10.895   82.6  0.0275   65.5  0.4818 -165.5
 0.680  0.7411  173.3  10.538   81.9  0.0282   65.5  0.4824 -166.5
 0.700  0.7417  172.9  10.182   81.2  0.0289   65.5  0.4831 -167.4
 0.720  0.7421  172.5   9.911   80.7  0.0296   65.5  0.4835 -168.2
 0.740  0.7425  172.1   9.640   80.1  0.0303   65.5  0.4840 -169.0
 0.760  0.7430  171.6   9.371   79.6  0.0311   65.4  0.4845 -169.9
 0.780  0.7435  171.2   9.102   78.9  0.0318   65.4  0.4852 -170.7
 0.800  0.7441  170.8   8.835   78.3  0.0325   65.4  0.4860 -171.5
 0.820  0.7446  170.4   8.626   77.9  0.0332   65.3  0.4865 -172.2
 0.840  0.7451  170.1   8.418   77.4  0.0339   65.3  0.4871 -172.9
 0.860  0.7456  169.7   8.210   77.0  0.0346   65.2  0.4878 -173.5
 0.880  0.7462  169.4   8.003   76.5  0.0353   65.2  0.4885 -174.2
 0.900  0.7468  169.0   7.796   76.0  0.0360   65.1  0.4893 -174.9
 0.920  0.7469  168.6   7.626   75.6  0.0367   65.0  0.4899 -175.5
 0.940  0.7471  168.2   7.456   75.1  0.0374   64.8  0.4906 -176.2
 0.960  0.7473  167.9   7.286   74.7  0.0382   64.7  0.4913 -176.8
 0.980  0.7475  167.5   7.117   74.2  0.0389   64.6  0.4921 -177.5
 1.000  0.7478  167.1   6.949   73.7  0.0396   64.5  0.4930 -178.1
 1.020  0.7483  166.8   6.816   73.3  0.0403   64.4  0.4935 -178.7
 1.040  0.7488  166.4   6.683   72.9  0.0410   64.2  0.4941 -179.2
 1.060  0.7493  166.1   6.551   72.4  0.0417   64.1  0.4948 -179.8
 1.080  0.7498  165.7   6.419   72.0  0.0424   64.0  0.4955  179.7
 1.100  0.7504  165.4   6.288   71.5  0.0431   63.9  0.4962  179.1
 1.120  0.7508  165.1   6.173   71.1  0.0438   63.7  0.4969  178.6
 1.140  0.7513  164.7   6.059   70.7  0.0445   63.6  0.4975  178.0
 1.160  0.7518  164.4   5.945   70.3  0.0452   63.4  0.4983  177.5
 1.180  0.7523  164.0   5.831   69.9  0.0459   63.3  0.4991  176.9
 1.200  0.7528  163.7   5.718   69.5  0.0466   63.1  0.4999  176.4
 1.220  0.7530  163.3   5.624   69.1  0.0473   62.9  0.5004  175.9
 1.240  0.7532  163.0   5.530   68.7  0.0480   62.7  0.5010  175.4
 1.260  0.7534  162.6   5.437   68.3  0.0487   62.5  0.5015  175.0
 1.280  0.7537  162.3   5.344   67.9  0.0494   62.4  0.5021  174.5
 1.300  0.7540  161.9   5.251   67.5  0.0501   62.2  0.5028  174.0
 1.320  0.7544  161.6   5.169   67.2  0.0508   62.0  0.5034  173.5
 1.340  0.7549  161.3   5.088   66.8  0.0515   61.8  0.5041  173.1
 1.360  0.7554  160.9   5.006   66.5  0.0521   61.6  0.5048  172.6
 1.380  0.7559  160.6   4.925   66.1  0.0528   61.5  0.5055  172.2
 1.400  0.7564  160.3   4.844   65.7  0.0535   61.3  0.5063  171.7
 1.420  0.7568  160.0   4.775   65.3  0.0542   61.1  0.5070  171.2
 1.440  0.7571  159.7   4.706   65.0  0.0549   60.9  0.5076  170.8
 1.460  0.7575  159.3   4.637   64.6  0.0556   60.7  0.5084  170.3
 1.480  0.7580  159.0   4.568   64.2  0.0563   60.5  0.5091  169.9
 1.500  0.7584  158.7   4.500   63.8  0.0570   60.3  0.5099  169.4
 1.520  0.7586  158.4   4.440   63.5  0.0577   60.1  0.5105  169.0
 1.540  0.7589  158.1   4.381   63.1  0.0584   59.9  0.5111  168.6
 1.560  0.7592  157.7   4.321   62.8  0.0590   59.7  0.5117  168.2
 1.580  0.7595  157.4   4.262   62.5  0.0597   59.5  0.5123  167.8
 1.600  0.7598  157.1   4.203   62.1  0.0604   59.3  0.5130  167.4
 1.620  0.7602  156.8   4.150   61.8  0.0611   59.1  0.5137  167.0
 1.640  0.7606  156.5   4.097   61.4  0.0618   58.8  0.5144  166.6
 1.660  0.7611  156.1   4.045   61.0  0.0624   58.6  0.5151  166.2
 1.680  0.7616  155.8   3.992   60.7  0.0631   58.4  0.5158  165.8
 1.700  0.7621  155.5   3.940   60.3  0.0638   58.2  0.5166  165.4
 1.720  0.7621  155.2   3.892   59.9  0.0645   58.0  0.5171  165.0
 1.740  0.7621  154.9   3.844   59.6  0.0652   57.7  0.5176  164.6
 1.760  0.7622  154.6   3.796   59.2  0.0658   57.5  0.5182  164.2
 1.780  0.7622  154.3   3.748   58.8  0.0665   57.3  0.5188  163.8
 1.800  0.7623  154.0   3.701   58.4  0.0672   57.1  0.5194  163.4
 1.820  0.7627  153.7   3.659   58.1  0.0679   56.9  0.5201  163.0
 1.840  0.7632  153.4   3.617   57.8  0.0685   56.6  0.5208  162.6
 1.860  0.7637  153.0   3.575   57.5  0.0692   56.4  0.5216  162.3
 1.880  0.7642  152.7   3.534   57.1  0.0698   56.2  0.5223  161.9
 1.900  0.7647  152.4   3.492   56.8  0.0705   56.0  0.5231  161.5
 1.920  0.7649  152.1   3.455   56.5  0.0712   55.8  0.5235  161.1
 1.940  0.7650  151.8   3.418   56.1  0.0718   55.5  0.5240  160.7
 1.960  0.7652  151.4   3.381   55.7  0.0725   55.3  0.5245  160.3
 1.980  0.7655  151.1   3.344   55.4  0.0731   55.0  0.5250  159.9
 2.000  0.7657  150.8   3.307   55.0  0.0738   54.8  0.5256  159.5
 2.020  0.7657  150.5   3.274   54.7  0.0744   54.5  0.5261  159.1
 2.040  0.7658  150.2   3.241   54.4  0.0750   54.3  0.5267  158.8
 2.060  0.7658  149.8   3.208   54.0  0.0756   54.0  0.5273  158.4
 2.080  0.7659  149.5   3.176   53.7  0.0763   53.8  0.5279  158.0
 2.100  0.7661  149.2   3.143   53.3  0.0769   53.6  0.5285  157.6
 2.120  0.7662  148.9   3.111   53.0  0.0775   53.3  0.5291  157.3
 2.140  0.7664  148.6   3.078   52.6  0.0781   53.1  0.5298  156.9
 2.160  0.7665  148.2   3.046   52.3  0.0787   52.8  0.5305  156.5
 2.180  0.7668  147.9   3.014   51.9  0.0794   52.6  0.5312  156.2
 2.200  0.7670  147.6   2.982   51.5  0.0800   52.4  0.5319  155.8
 2.220  0.7672  147.3   2.955   51.2  0.0806   52.2  0.5325  155.4
 2.240  0.7674  147.0   2.928   50.9  0.0812   51.9  0.5330  155.1
 2.260  0.7676  146.7   2.901   50.6  0.0819   51.7  0.5336  154.7
 2.280  0.7679  146.4   2.874   50.3  0.0825   51.4  0.5343  154.3
 2.300  0.7682  146.1   2.847   50.0  0.0831   51.2  0.5349  153.9
 2.320  0.7684  145.9   2.821   49.7  0.0838   51.0  0.5356  153.6
 2.340  0.7688  145.6   2.794   49.3  0.0844   50.8  0.5363  153.2
 2.360  0.7691  145.3   2.768   49.0  0.0850   50.5  0.5370  152.8
 2.380  0.7694  145.0   2.741   48.6  0.0857   50.3  0.5377  152.5
 2.400  0.7698  144.7   2.715   48.3  0.0863   50.1  0.5385  152.1
 2.420  0.7698  144.4   2.692   48.0  0.0869   49.8  0.5391  151.7
 2.440  0.7698  144.1   2.669   47.7  0.0875   49.6  0.5397  151.4
 2.460  0.7698  143.8   2.646   47.4  0.0881   49.3  0.5404  151.0
 2.480  0.7699  143.5   2.623   47.0  0.0887   49.1  0.5411  150.7
 2.500  0.7700  143.2   2.600   46.7  0.0893   48.9  0.5417  150.3
 2.520  0.7700  143.0   2.577   46.4  0.0899   48.6  0.5425  150.0
 2.540  0.7702  142.7   2.554   46.1  0.0905   48.4  0.5432  149.6
 2.560  0.7703  142.4   2.532   45.7  0.0911   48.2  0.5439  149.3
 2.580  0.7704  142.1   2.509   45.4  0.0917   47.9  0.5447  148.9
 2.600  0.7706  141.8   2.487   45.0  0.0923   47.7  0.5455  148.6
 2.620  0.7708  141.5   2.468   44.7  0.0929   47.4  0.5461  148.3
 2.640  0.7710  141.2   2.449   44.4  0.0934   47.2  0.5467  147.9
 2.660  0.7712  140.9   2.430   44.1  0.0940   46.9  0.5474  147.6
 2.680  0.7714  140.6   2.411   43.8  0.0946   46.7  0.5480  147.2
 2.700  0.7717  140.3   2.392   43.5  0.0952   46.4  0.5487  146.9
 2.720  0.7720  140.1   2.373   43.1  0.0958   46.2  0.5494  146.5
 2.740  0.7723  139.8   2.355   42.8  0.0963   45.9  0.5501  146.2
 2.760  0.7726  139.5   2.336   42.5  0.0969   45.7  0.5509  145.9
 2.780  0.7729  139.2   2.317   42.1  0.0975   45.4  0.5516  145.5
 2.800  0.7733  138.9   2.299   41.8  0.0981   45.2  0.5524  145.2
 2.820  0.7736  138.6   2.282   41.5  0.0987   44.9  0.5530  144.9
 2.840  0.7739  138.3   2.265   41.2  0.0992   44.7  0.5536  144.6
 2.860  0.7742  138.1   2.249   40.9  0.0998   44.5  0.5542  144.3
 2.880  0.7745  137.8   2.232   40.6  0.1004   44.2  0.5548  144.0
 2.900  0.7748  137.5   2.216   40.3  0.1010   44.0  0.5555  143.6
 2.920  0.7752  137.2   2.199   39.9  0.1016   43.7  0.5562  143.3
 2.940  0.7756  136.9   2.183   39.6  0.1021   43.5  0.5568  143.0
 2.960  0.7760  136.7   2.166   39.3  0.1027   43.3  0.5576  142.7
 2.980  0.7764  136.4   2.150   38.9  0.1033   43.0  0.5583  142.4
 3.000  0.7768  136.1   2.134   38.6  0.1039   42.8  0.5590  142.1
 3.100  0.7782  134.6   2.063   37.2  0.1063   41.4  0.5618  140.6
 3.200  0.7801  133.1   1.993   35.7  0.1089   40.1  0.5650  139.2
 3.300  0.7825  131.6   1.925   34.1  0.1114   38.8  0.5685  137.7
 3.400  0.7854  130.2   1.858   32.4  0.1140   37.6  0.5724  136.3
 3.500  0.7889  128.7   1.793   30.6  0.1167   36.4  0.5767  134.9
 3.600  0.7908  127.4   1.739   29.3  0.1188   35.2  0.5800  133.6
 3.700  0.7931  126.1   1.687   27.9  0.1209   34.0  0.5837  132.3
 3.800  0.7958  124.8   1.635   26.4  0.1231   32.8  0.5876  131.1
 3.900  0.7990  123.5   1.584   24.9  0.1253   31.7  0.5918  129.8
 4.000  0.8025  122.2   1.535   23.2  0.1276   30.6  0.5963  128.6
 4.100  0.8040  121.1   1.494   22.0  0.1295   29.5  0.5997  127.4
 4.200  0.8058  120.0   1.454   20.8  0.1314   28.4  0.6033  126.3
 4.300  0.8079  118.9   1.414   19.5  0.1334   27.4  0.6072  125.1
 4.400  0.8102  117.9   1.376   18.1  0.1354   26.4  0.6113  124.0
 4.500  0.8129  116.8   1.338   16.6  0.1374   25.4  0.6156  122.9
 4.600  0.8135  115.8   1.307   15.4  0.1394   24.3  0.6182  121.8
 4.700  0.8143  114.7   1.277   14.2  0.1413   23.3  0.6209  120.7
 4.800  0.8155  113.7   1.247   12.9  0.1434   22.3  0.6239  119.6
 4.900  0.8168  112.6   1.218   11.6  0.1455   21.3  0.6272  118.6
 5.000  0.8185  111.6   1.190   10.2  0.1476   20.4  0.6306  117.5
 5.100  0.8180  110.6   1.165    9.1  0.1493   19.3  0.6321  116.4
 5.200  0.8178  109.6   1.141    7.9  0.1511   18.2  0.6339  115.3
 5.300  0.8178  108.5   1.117    6.6  0.1530   17.2  0.6358  114.2
 5.400  0.8181  107.5   1.094    5.3  0.1549   16.2  0.6381  113.1
 5.500  0.8187  106.5   1.071    4.0  0.1568   15.2  0.6405  112.0
 5.600  0.8184  105.7   1.052    2.9  0.1586   14.2  0.6417  110.9
 5.700  0.8183  104.8   1.033    1.8  0.1604   13.2  0.6432  109.7
 5.800  0.8183  104.0   1.015    0.6  0.1623   12.2  0.6450  108.6
 5.900  0.8185  103.1   0.997   -0.6  0.1642   11.2  0.6470  107.5
 6.000  0.8189  102.3   0.980   -1.9  0.1662   10.3  0.6492  106.4
 6.100  0.8200  101.5   0.966   -3.1  0.1679    9.2  0.6508  105.4
 6.200  0.8212  100.7   0.951   -4.3  0.1697    8.1  0.6526  104.3
 6.300  0.8227   99.8   0.938   -5.6  0.1715    7.0  0.6546  103.3
 6.400  0.8242   99.0   0.925   -6.9  0.1734    5.9  0.6568  102.3
 6.500  0.8260   98.2   0.912   -8.2  0.1753    4.9  0.6592  101.3
 6.600  0.8274   97.2   0.899   -9.5  0.1769    3.7  0.6607  100.4
 6.800  0.8309   95.2   0.873  -12.2  0.1803    1.4  0.6641   98.6
 7.000  0.8354   93.2   0.850  -15.0  0.1840   -0.8  0.6682   96.9
 7.200  0.8378   90.9   0.824  -17.6  0.1863   -3.2  0.6724   95.0
 7.400  0.8416   88.7   0.799  -20.4  0.1889   -5.6  0.6773   93.0
 7.600  0.8441   86.4   0.775  -23.1  0.1910   -8.0  0.6837   90.9
 7.800  0.8457   84.0   0.749  -25.6  0.1925  -10.4  0.6921   88.4
 8.000  0.8487   81.6   0.725  -28.2  0.1944  -12.7  0.7017   86.0
 8.200  0.8511   79.1   0.700  -30.6  0.1944  -15.1  0.7104   83.3
 8.400  0.8551   76.6   0.676  -33.1  0.1946  -17.4  0.7207   80.8
 8.600  0.8583   74.2   0.653  -35.4  0.1943  -19.6  0.7290   78.3
 8.800  0.8607   71.8   0.630  -37.5  0.1932  -21.8  0.7354   75.9
 9.000  0.8646   69.5   0.608  -39.8  0.1924  -23.9  0.7430   73.6
 9.200  0.8685   67.7   0.585  -41.5  0.1906  -25.5  0.7487   71.7
 9.400  0.8732   66.0   0.562  -43.3  0.1890  -27.2  0.7552   69.8
 9.600  0.8785   64.6   0.543  -44.9  0.1876  -28.6  0.7643   68.2
 9.800  0.8838   63.5   0.527  -46.1  0.1863  -29.9  0.7757   67.0
10.000  0.8894   62.5   0.512  -47.4  0.1850  -31.2  0.7875   65.7
10.200  0.8913   62.0   0.500  -48.2  0.1845  -31.8  0.7919   65.7
10.400  0.8932   61.5   0.488  -49.1  0.1841  -32.3  0.7962   65.7
10.600  0.8941   61.0   0.479  -50.0  0.1843  -32.9  0.7980   65.9
10.800  0.8938   60.6   0.474  -50.8  0.1851  -33.6  0.7974   66.3
11.000  0.8936   60.2   0.469  -51.7  0.1859  -34.3  0.7967   66.7
11.200  0.8893   59.5   0.465  -53.1  0.1920  -34.4  0.7850   66.1
11.400  0.8851   58.8   0.462  -54.6  0.1981  -34.5  0.7733   65.5
11.600  0.8801   58.2   0.460  -56.0  0.2036  -35.7  0.7676   64.6
11.800  0.8743   57.5   0.462  -57.4  0.2088  -37.9  0.7681   63.4
12.000  0.8687   56.8   0.463  -58.8  0.2142  -40.1  0.7689   62.2
!
!  f       NFmin   Gammaopt  rn/50
! GHz       dB    MAG  ANG    -
 0.450      2.85  0.72 -171   0.08
 0.900      2.90  0.74 -165   0.10
 1.900      3.01  0.75 -148   0.27
 2.400      3.09  0.74 -138   0.42
!
! (c) 2015  Infineon Technologies AG, Munich
