! Infineon Technologies  Discrete & RF Semiconductors
! BFP420F
!
! VCE =  4.0 V,  IC =  10 mA
! Common Emitter S-Parameters:                            Sep 2011
# GHz  S  MA  R  50
!  f         S11            S21            S12            S22
! GHz     MAG   ANG      MAG   ANG      MAG   ANG      MAG   ANG
 0.030  0.6866   -4.2  26.158  175.0  0.0025   59.6  0.9602   -2.4
 0.040  0.6819   -5.9  26.119  173.8  0.0033   67.4  0.9593   -3.1
 0.050  0.6801   -7.3  25.813  172.2  0.0038   66.4  0.9591   -4.0
 0.060  0.6843   -9.6  25.817  171.5  0.0047   72.1  0.9580   -4.9
 0.070  0.6821  -11.0  25.798  170.4  0.0054   70.2  0.9554   -5.8
 0.080  0.6798  -12.1  25.469  169.0  0.0059   74.0  0.9539   -6.6
 0.090  0.6759  -13.9  25.446  168.0  0.0068   72.4  0.9511   -7.4
 0.100  0.6708  -15.3  25.417  166.6  0.0074   74.0  0.9485   -8.2
 0.110  0.6771  -16.7  25.018  165.6  0.0082   74.3  0.9457   -9.0
 0.120  0.6733  -18.4  25.063  164.1  0.0089   74.9  0.9423   -9.8
 0.130  0.6701  -19.8  24.758  163.1  0.0097   74.4  0.9394  -10.6
 0.140  0.6671  -21.3  24.587  162.0  0.0103   74.3  0.9358  -11.4
 0.150  0.6652  -22.9  24.471  160.9  0.0110   74.2  0.9321  -12.1
 0.200  0.6545  -30.0  23.625  156.0  0.0143   73.0  0.9123  -15.9
 0.250  0.6387  -36.8  22.715  151.0  0.0172   71.0  0.8875  -19.2
 0.300  0.6228  -43.6  21.947  146.5  0.0205   69.5  0.8643  -22.6
 0.350  0.6066  -50.1  21.031  142.2  0.0232   67.5  0.8366  -25.5
 0.400  0.5898  -56.1  20.098  138.1  0.0257   65.8  0.8097  -28.3
 0.450  0.5734  -61.8  19.269  134.4  0.0281   64.3  0.7834  -30.8
 0.500  0.5575  -67.3  18.375  131.0  0.0302   62.8  0.7553  -33.1
 0.600  0.5258  -77.6  16.750  124.5  0.0341   60.2  0.7026  -37.4
 0.700  0.4994  -86.9  15.377  118.9  0.0376   58.4  0.6563  -41.0
 0.800  0.4777  -95.3  14.058  113.8  0.0406   57.0  0.6123  -44.1
 0.900  0.4573 -102.8  12.878  109.6  0.0433   55.8  0.5725  -46.7
 1.000  0.4443 -109.9  11.906  105.8  0.0460   55.1  0.5373  -49.3
 1.100  0.4302 -116.3  11.025  102.2  0.0484   54.3  0.5049  -51.5
 1.200  0.4186 -122.2  10.177   98.9  0.0507   53.9  0.4772  -53.6
 1.300  0.4104 -127.4   9.501   96.2  0.0530   53.6  0.4524  -55.4
 1.400  0.4050 -132.5   8.908   93.6  0.0553   53.4  0.4293  -57.3
 1.500  0.3972 -137.3   8.332   90.8  0.0575   53.2  0.4078  -58.8
 1.600  0.3935 -141.4   7.781   88.7  0.0597   53.0  0.3885  -60.6
 1.700  0.3890 -145.1   7.363   86.8  0.0618   53.0  0.3707  -62.2
 1.800  0.3881 -148.8   6.988   84.9  0.0641   53.0  0.3555  -63.9
 1.900  0.3861 -152.5   6.624   82.5  0.0664   52.9  0.3415  -65.4
 2.000  0.3830 -155.4   6.238   80.8  0.0685   52.7  0.3287  -67.1
 2.200  0.3822 -160.9   5.706   77.8  0.0729   52.7  0.3079  -70.2
 2.400  0.3784 -165.9   5.181   74.5  0.0774   52.4  0.2911  -73.1
 2.600  0.3783 -170.4   4.786   71.9  0.0818   52.3  0.2766  -75.8
 2.800  0.3779 -174.6   4.438   69.1  0.0866   51.9  0.2659  -78.5
 3.000  0.3777 -178.6   4.132   66.6  0.0910   51.6  0.2561  -81.2
 3.500  0.3808  172.9   3.530   60.7  0.1029   50.5  0.2390  -86.8
 4.000  0.3847  165.0   3.086   55.1  0.1150   48.9  0.2258  -91.8
 4.500  0.3925  158.4   2.748   49.8  0.1274   47.1  0.2125  -96.2
 5.000  0.3976  152.8   2.480   44.8  0.1396   45.0  0.1982 -100.3
 5.500  0.4029  147.0   2.264   39.6  0.1518   42.6  0.1811 -104.4
 6.000  0.4098  140.8   2.084   34.7  0.1640   40.1  0.1606 -108.6
 6.500  0.4214  134.3   1.928   29.7  0.1757   37.5  0.1385 -115.2
 7.000  0.4353  127.8   1.792   24.7  0.1874   34.8  0.1144 -122.5
 7.500  0.4576  122.9   1.673   20.0  0.1996   32.1  0.0916 -135.4
 8.000  0.4823  118.5   1.566   15.3  0.2115   28.8  0.0727 -162.8
 8.500  0.5118  114.5   1.466   10.5  0.2216   25.5  0.0758  153.6
 9.000  0.5409  111.0   1.375    6.2  0.2305   22.3  0.1145  122.7
 9.500  0.5705  107.7   1.294    2.3  0.2388   19.5  0.1738  109.7
10.000  0.6021  103.9   1.221   -1.4  0.2471   16.7  0.2413  104.1
!
!  f       NFmin   Gammaopt  rn/50
! GHz       dB    MAG  ANG    -
 0.450      1.18  0.02   48   0.13
 0.900      1.19  0.06   87   0.14
 1.900      1.33  0.14  155   0.27
 2.400      1.39  0.15  158   0.17
 3.500      1.66  0.20  179   0.18
!
! (c) 2011  Infineon Technologies AG, Munich
