! Infineon Technologies  Discrete & RF Semiconductors
! BFP420F
!
! VCE =  4.0 V,  IC =  60 mA
! Common Emitter S-Parameters:                            Sep 2011
# GHz  S  MA  R  50
!  f         S11            S21            S12            S22
! GHz     MAG   ANG      MAG   ANG      MAG   ANG      MAG   ANG
 0.030  0.1770  -12.1  54.110  172.0  0.0021   86.6  0.9016   -2.4
 0.040  0.1767  -16.1  53.760  169.6  0.0026   83.6  0.9045   -4.1
 0.050  0.1751  -19.7  52.823  167.1  0.0029   82.8  0.9045   -5.9
 0.060  0.1842  -25.5  52.559  165.0  0.0035   79.1  0.9017   -7.6
 0.070  0.1831  -29.4  51.937  162.8  0.0042   79.0  0.8965   -9.2
 0.080  0.1850  -32.4  50.968  160.6  0.0045   80.4  0.8911  -10.8
 0.090  0.1839  -37.4  50.315  158.6  0.0051   79.3  0.8834  -12.2
 0.100  0.1873  -42.0  49.744  156.4  0.0056   80.3  0.8753  -13.6
 0.110  0.1898  -44.1  48.574  154.6  0.0060   78.9  0.8667  -14.9
 0.120  0.1900  -49.4  47.972  152.4  0.0064   78.9  0.8579  -16.3
 0.130  0.1945  -52.1  46.901  150.7  0.0069   79.8  0.8486  -17.5
 0.140  0.1966  -55.4  46.043  149.0  0.0073   78.1  0.8386  -18.7
 0.150  0.1992  -58.9  45.275  147.4  0.0078   77.2  0.8291  -19.8
 0.200  0.2145  -74.0  41.230  140.1  0.0100   75.4  0.7794  -24.9
 0.250  0.2253  -86.5  37.453  133.8  0.0120   74.3  0.7295  -28.9
 0.300  0.2382  -97.6  34.369  128.4  0.0140   73.1  0.6864  -32.3
 0.350  0.2497 -106.0  31.434  123.8  0.0157   72.2  0.6444  -35.1
 0.400  0.2586 -113.9  28.859  119.8  0.0173   71.5  0.6082  -37.4
 0.450  0.2661 -120.2  26.700  116.3  0.0190   71.0  0.5758  -39.3
 0.500  0.2721 -125.7  24.677  113.2  0.0205   70.7  0.5450  -41.0
 0.600  0.2842 -135.4  21.377  107.7  0.0235   70.3  0.4936  -43.9
 0.700  0.2931 -142.9  18.851  103.2  0.0265   70.2  0.4537  -46.2
 0.800  0.3004 -148.9  16.735   99.3  0.0294   70.1  0.4186  -48.2
 0.900  0.3061 -153.8  14.978   96.2  0.0323   70.0  0.3889  -49.9
 1.000  0.3142 -158.0  13.593   93.4  0.0353   70.1  0.3635  -51.7
 1.100  0.3185 -162.0  12.411   90.7  0.0382   69.8  0.3410  -53.4
 1.200  0.3223 -165.5  11.330   88.3  0.0411   69.7  0.3219  -55.1
 1.300  0.3263 -168.3  10.482   86.4  0.0440   69.5  0.3049  -56.5
 1.400  0.3325 -170.9   9.755   84.5  0.0469   69.3  0.2893  -58.3
 1.500  0.3342 -174.1   9.079   82.3  0.0499   68.9  0.2745  -59.6
 1.600  0.3375 -175.9   8.437   80.8  0.0527   68.6  0.2615  -61.4
 1.700  0.3409 -178.0   7.954   79.4  0.0556   68.4  0.2489  -62.9
 1.800  0.3462 -179.8   7.530   78.0  0.0586   68.1  0.2386  -64.7
 1.900  0.3487  177.7   7.120   76.0  0.0616   67.6  0.2291  -66.3
 2.000  0.3495  176.2   6.688   74.8  0.0644   67.2  0.2206  -68.3
 2.200  0.3550  173.1   6.099   72.4  0.0702   66.5  0.2072  -71.9
 2.400  0.3564  170.1   5.527   69.7  0.0760   65.4  0.1969  -75.3
 2.600  0.3610  167.5   5.099   67.7  0.0817   64.6  0.1880  -78.7
 2.800  0.3635  164.7   4.724   65.2  0.0877   63.5  0.1822  -81.8
 3.000  0.3657  162.0   4.392   63.1  0.0933   62.5  0.1769  -85.0
 3.500  0.3724  156.2   3.750   58.0  0.1077   59.8  0.1684  -91.7
 4.000  0.3781  150.5   3.275   52.9  0.1221   56.8  0.1622  -97.7
 4.500  0.3863  145.9   2.913   48.2  0.1365   53.7  0.1534 -102.7
 5.000  0.3908  141.8   2.629   43.5  0.1505   50.5  0.1425 -107.7
 5.500  0.3957  137.4   2.397   38.7  0.1641   47.2  0.1281 -112.7
 6.000  0.4032  132.4   2.206   34.0  0.1775   43.9  0.1096 -118.4
 6.500  0.4158  127.0   2.040   29.2  0.1903   40.5  0.0905 -128.6
 7.000  0.4310  121.4   1.894   24.4  0.2028   37.1  0.0703 -142.0
 7.500  0.4528  117.4   1.767   19.9  0.2155   33.8  0.0564 -167.9
 8.000  0.4777  114.0   1.651   15.3  0.2273   30.0  0.0625  152.1
 8.500  0.5080  110.7   1.543   10.8  0.2370   26.3  0.0969  120.7
 9.000  0.5382  107.7   1.445    6.7  0.2455   22.8  0.1486  104.6
 9.500  0.5691  104.9   1.358    3.0  0.2534   19.7  0.2092   97.8
10.000  0.6027  101.2   1.282   -0.5  0.2612   16.8  0.2737   94.9
!
!  f       NFmin   Gammaopt  rn/50
! GHz       dB    MAG  ANG    -
!
! noise parameter not available yet for this operation point!
!
! (c) 2011  Infineon Technologies AG, Munich
