! Infineon Technologies  Discrete & RF Semiconductors
! BFP410
! VCE =  1.5 V,  IC =  13 mA
! Common Emitter S-Parameters:                            Nov 2015
# GHz  S  MA  R  50
!  f         S11            S21            S12            S22
! GHz     MAG   ANG      MAG   ANG      MAG   ANG      MAG   ANG
 0.010  0.6004    0.2  29.014  179.5  0.0008  120.4  0.9601    2.2
 0.015  0.6022   -1.5  29.079  178.4  0.0010  102.6  0.9627    0.7
 0.020  0.6044   -3.1  29.153  177.4  0.0012   90.8  0.9660   -0.8
 0.025  0.6034   -3.9  29.095  176.8  0.0015   90.2  0.9667   -1.3
 0.030  0.6025   -4.7  29.040  176.2  0.0019   89.8  0.9674   -1.7
 0.035  0.6017   -5.5  28.988  175.6  0.0022   89.6  0.9682   -2.2
 0.040  0.6010   -6.3  28.940  174.9  0.0026   89.4  0.9691   -2.6
 0.045  0.6004   -7.1  28.895  174.3  0.0029   89.2  0.9700   -3.1
 0.050  0.6000   -7.9  28.854  173.7  0.0033   89.1  0.9710   -3.5
 0.055  0.5994   -8.7  28.827  173.2  0.0036   88.2  0.9702   -3.9
 0.060  0.5988   -9.5  28.802  172.7  0.0038   87.5  0.9694   -4.4
 0.065  0.5984  -10.3  28.779  172.1  0.0041   86.8  0.9686   -4.8
 0.070  0.5981  -11.1  28.759  171.6  0.0044   86.3  0.9679   -5.2
 0.075  0.5979  -11.9  28.741  171.1  0.0046   85.7  0.9673   -5.6
 0.080  0.5979  -12.7  28.726  170.6  0.0049   85.3  0.9667   -6.1
 0.085  0.5979  -13.5  28.713  170.1  0.0052   84.9  0.9662   -6.5
 0.090  0.5981  -14.3  28.702  169.5  0.0055   84.5  0.9658   -6.9
 0.095  0.5984  -15.1  28.694  169.0  0.0057   84.2  0.9654   -7.4
 0.100  0.5988  -15.9  28.688  168.5  0.0060   83.9  0.9650   -7.8
 0.105  0.5976  -16.7  28.621  167.9  0.0063   83.4  0.9635   -8.2
 0.110  0.5964  -17.4  28.557  167.4  0.0066   82.9  0.9620   -8.6
 0.115  0.5954  -18.2  28.495  166.8  0.0068   82.5  0.9605   -9.0
 0.120  0.5945  -19.0  28.436  166.2  0.0071   82.1  0.9591   -9.4
 0.125  0.5937  -19.7  28.380  165.7  0.0074   81.8  0.9578   -9.8
 0.130  0.5930  -20.5  28.327  165.1  0.0077   81.4  0.9565  -10.2
 0.135  0.5924  -21.3  28.277  164.5  0.0080   81.1  0.9552  -10.6
 0.140  0.5919  -22.0  28.229  164.0  0.0082   80.8  0.9540  -11.0
 0.145  0.5916  -22.8  28.185  163.4  0.0085   80.6  0.9528  -11.4
 0.150  0.5913  -23.6  28.143  162.8  0.0088   80.3  0.9517  -11.8
 0.155  0.5900  -24.3  28.069  162.3  0.0091   79.9  0.9496  -12.2
 0.160  0.5887  -25.1  27.997  161.8  0.0093   79.5  0.9475  -12.6
 0.165  0.5876  -25.9  27.927  161.3  0.0096   79.2  0.9455  -13.0
 0.170  0.5865  -26.6  27.860  160.7  0.0099   78.9  0.9435  -13.3
 0.175  0.5856  -27.4  27.794  160.2  0.0101   78.5  0.9416  -13.7
 0.180  0.5848  -28.1  27.731  159.7  0.0104   78.2  0.9397  -14.1
 0.185  0.5841  -28.9  27.671  159.2  0.0107   78.0  0.9378  -14.5
 0.190  0.5834  -29.7  27.613  158.7  0.0110   77.7  0.9360  -14.9
 0.195  0.5829  -30.4  27.557  158.1  0.0112   77.4  0.9342  -15.3
 0.200  0.5825  -31.2  27.503  157.6  0.0115   77.2  0.9325  -15.7
 0.220  0.5759  -34.2  27.121  155.5  0.0125   76.0  0.9233  -17.2
 0.240  0.5708  -37.2  26.776  153.4  0.0136   75.0  0.9147  -18.6
 0.260  0.5654  -40.1  26.442  151.3  0.0146   74.0  0.9051  -20.0
 0.280  0.5593  -43.0  26.114  149.4  0.0155   72.9  0.8944  -21.4
 0.300  0.5548  -46.0  25.817  147.4  0.0165   71.9  0.8842  -22.7
 0.320  0.5485  -48.7  25.424  145.6  0.0174   70.9  0.8730  -24.0
 0.340  0.5434  -51.4  25.056  143.8  0.0183   69.9  0.8621  -25.2
 0.360  0.5378  -54.1  24.672  142.0  0.0191   69.0  0.8509  -26.5
 0.380  0.5317  -56.7  24.270  140.2  0.0200   68.1  0.8393  -27.6
 0.400  0.5267  -59.4  23.892  138.4  0.0208   67.3  0.8280  -28.8
 0.420  0.5205  -61.8  23.486  136.8  0.0216   66.5  0.8165  -29.9
 0.440  0.5153  -64.3  23.098  135.2  0.0223   65.8  0.8053  -30.9
 0.450  0.5131  -65.6  22.911  134.4  0.0227   65.4  0.7998  -31.5
 0.460  0.5097  -66.8  22.709  133.6  0.0231   65.0  0.7939  -32.0
 0.480  0.5037  -69.3  22.316  132.1  0.0238   64.3  0.7822  -33.0
 0.500  0.4986  -71.9  21.940  130.5  0.0245   63.7  0.7708  -34.0
 0.520  0.4921  -74.0  21.537  129.2  0.0251   63.1  0.7594  -34.8
 0.540  0.4863  -76.2  21.147  127.8  0.0257   62.5  0.7482  -35.7
 0.560  0.4812  -78.5  20.768  126.4  0.0263   61.9  0.7372  -36.6
 0.580  0.4769  -80.8  20.403  124.9  0.0269   61.3  0.7263  -37.5
 0.600  0.4734  -83.1  20.052  123.4  0.0275   60.8  0.7156  -38.4
 0.620  0.4678  -85.1  19.699  122.3  0.0281   60.3  0.7054  -39.1
 0.640  0.4628  -87.2  19.353  121.2  0.0287   59.8  0.6952  -39.9
 0.660  0.4584  -89.3  19.016  120.0  0.0292   59.4  0.6852  -40.6
 0.680  0.4547  -91.4  18.687  118.8  0.0298   58.9  0.6754  -41.4
 0.700  0.4516  -93.6  18.366  117.5  0.0304   58.5  0.6656  -42.2
 0.720  0.4473  -95.4  18.042  116.5  0.0309   58.2  0.6564  -42.8
 0.740  0.4434  -97.2  17.723  115.5  0.0314   57.8  0.6473  -43.4
 0.760  0.4399  -99.0  17.411  114.4  0.0319   57.5  0.6382  -44.0
 0.780  0.4369 -100.9  17.105  113.3  0.0324   57.2  0.6292  -44.6
 0.800  0.4344 -102.8  16.806  112.1  0.0329   56.9  0.6203  -45.3
 0.820  0.4310 -104.5  16.530  111.2  0.0334   56.6  0.6120  -45.8
 0.840  0.4279 -106.2  16.258  110.3  0.0339   56.3  0.6038  -46.4
 0.860  0.4253 -108.0  15.990  109.3  0.0343   56.0  0.5956  -46.9
 0.880  0.4230 -109.7  15.727  108.3  0.0348   55.7  0.5875  -47.5
 0.900  0.4212 -111.5  15.469  107.3  0.0353   55.4  0.5794  -48.1
 0.920  0.4180 -113.1  15.216  106.5  0.0357   55.2  0.5718  -48.6
 0.940  0.4151 -114.7  14.966  105.7  0.0362   55.0  0.5642  -49.1
 0.960  0.4125 -116.3  14.719  104.8  0.0366   54.8  0.5566  -49.6
 0.980  0.4103 -117.9  14.476  103.9  0.0371   54.6  0.5491  -50.1
 1.000  0.4084 -119.6  14.236  103.0  0.0375   54.4  0.5416  -50.6
 1.020  0.4063 -121.0  14.018  102.3  0.0379   54.2  0.5350  -51.0
 1.040  0.4044 -122.4  13.803  101.5  0.0383   54.0  0.5285  -51.4
 1.060  0.4028 -123.9  13.591  100.7  0.0388   53.8  0.5220  -51.8
 1.080  0.4015 -125.3  13.380   99.9  0.0392   53.7  0.5155  -52.3
 1.100  0.4004 -126.8  13.173   99.1  0.0396   53.5  0.5091  -52.7
 1.120  0.3988 -128.1  12.982   98.4  0.0400   53.4  0.5031  -53.1
 1.140  0.3973 -129.5  12.793   97.7  0.0405   53.2  0.4971  -53.5
 1.160  0.3961 -130.8  12.606   97.0  0.0409   53.1  0.4911  -53.9
 1.180  0.3952 -132.1  12.421   96.3  0.0414   52.9  0.4852  -54.4
 1.200  0.3944 -133.5  12.238   95.5  0.0418   52.8  0.4793  -54.8
 1.220  0.3930 -134.7  12.067   94.9  0.0422   52.7  0.4740  -55.1
 1.240  0.3918 -136.0  11.898   94.2  0.0426   52.5  0.4687  -55.5
 1.260  0.3908 -137.2  11.730   93.6  0.0430   52.4  0.4634  -55.8
 1.280  0.3900 -138.4  11.564   92.9  0.0434   52.2  0.4581  -56.1
 1.300  0.3893 -139.7  11.399   92.2  0.0438   52.1  0.4528  -56.5
 1.320  0.3883 -140.8  11.244   91.6  0.0442   52.0  0.4479  -56.8
 1.340  0.3874 -142.0  11.090   91.0  0.0446   51.9  0.4430  -57.2
 1.360  0.3867 -143.1  10.937   90.5  0.0450   51.8  0.4381  -57.5
 1.380  0.3862 -144.3  10.785   89.8  0.0454   51.7  0.4332  -57.8
 1.400  0.3858 -145.4  10.635   89.2  0.0458   51.6  0.4284  -58.2
 1.420  0.3849 -146.4  10.504   88.7  0.0462   51.5  0.4242  -58.5
 1.440  0.3841 -147.4  10.375   88.2  0.0466   51.4  0.4200  -58.7
 1.460  0.3835 -148.4  10.246   87.6  0.0471   51.2  0.4158  -59.0
 1.480  0.3829 -149.5  10.118   87.1  0.0475   51.1  0.4117  -59.3
 1.500  0.3825 -150.5   9.991   86.5  0.0479   51.0  0.4075  -59.6
 1.520  0.3822 -151.5   9.872   86.0  0.0483   50.9  0.4035  -59.9
 1.540  0.3821 -152.5   9.754   85.5  0.0487   50.8  0.3995  -60.2
 1.560  0.3820 -153.4   9.636   84.9  0.0491   50.8  0.3955  -60.5
 1.580  0.3821 -154.4   9.520   84.4  0.0495   50.7  0.3916  -60.8
 1.600  0.3823 -155.4   9.404   83.8  0.0499   50.6  0.3876  -61.1
 1.620  0.3816 -156.4   9.298   83.3  0.0503   50.5  0.3841  -61.4
 1.640  0.3811 -157.3   9.193   82.8  0.0507   50.4  0.3806  -61.6
 1.660  0.3806 -158.3   9.089   82.3  0.0511   50.2  0.3771  -61.9
 1.680  0.3802 -159.2   8.985   81.8  0.0515   50.1  0.3736  -62.2
 1.700  0.3800 -160.2   8.882   81.3  0.0519   50.0  0.3701  -62.5
 1.720  0.3796 -161.0   8.782   80.8  0.0523   49.9  0.3669  -62.7
 1.740  0.3794 -161.9   8.682   80.4  0.0527   49.8  0.3638  -63.0
 1.760  0.3792 -162.7   8.583   79.9  0.0532   49.8  0.3606  -63.2
 1.780  0.3790 -163.6   8.484   79.4  0.0536   49.7  0.3574  -63.5
 1.800  0.3790 -164.4   8.386   78.9  0.0540   49.6  0.3543  -63.7
 1.820  0.3791 -165.3   8.300   78.5  0.0544   49.5  0.3510  -64.0
 1.840  0.3793 -166.2   8.214   78.0  0.0548   49.4  0.3477  -64.3
 1.860  0.3796 -167.1   8.129   77.6  0.0553   49.3  0.3444  -64.6
 1.880  0.3799 -168.0   8.044   77.2  0.0557   49.2  0.3412  -64.9
 1.900  0.3804 -168.9   7.960   76.7  0.0561   49.1  0.3379  -65.2
 1.920  0.3800 -169.6   7.881   76.3  0.0565   49.0  0.3352  -65.4
 1.940  0.3796 -170.4   7.803   75.8  0.0569   48.9  0.3324  -65.6
 1.960  0.3793 -171.1   7.725   75.4  0.0574   48.7  0.3297  -65.7
 1.980  0.3791 -171.9   7.647   75.0  0.0578   48.6  0.3269  -65.9
 2.000  0.3789 -172.6   7.570   74.5  0.0582   48.5  0.3242  -66.1
 2.020  0.3787 -173.4   7.499   74.1  0.0586   48.4  0.3213  -66.3
 2.040  0.3786 -174.2   7.429   73.7  0.0590   48.3  0.3184  -66.6
 2.060  0.3786 -175.0   7.359   73.3  0.0594   48.2  0.3156  -66.8
 2.080  0.3786 -175.8   7.290   72.9  0.0598   48.0  0.3127  -67.1
 2.100  0.3787 -176.6   7.220   72.5  0.0602   47.9  0.3098  -67.3
 2.120  0.3789 -177.4   7.152   72.0  0.0606   47.8  0.3070  -67.6
 2.140  0.3792 -178.2   7.083   71.6  0.0610   47.7  0.3041  -67.9
 2.160  0.3795 -179.0   7.015   71.1  0.0614   47.6  0.3013  -68.1
 2.180  0.3799 -179.8   6.948   70.7  0.0618   47.5  0.2984  -68.4
 2.200  0.3804  179.4   6.881   70.2  0.0622   47.4  0.2956  -68.7
 2.220  0.3806  178.7   6.822   69.8  0.0626   47.3  0.2929  -68.9
 2.240  0.3808  178.0   6.764   69.5  0.0630   47.1  0.2903  -69.2
 2.260  0.3810  177.3   6.705   69.1  0.0634   47.0  0.2876  -69.5
 2.280  0.3814  176.6   6.647   68.7  0.0638   46.9  0.2849  -69.7
 2.300  0.3817  175.9   6.590   68.3  0.0642   46.8  0.2823  -70.0
 2.320  0.3822  175.2   6.532   67.9  0.0647   46.7  0.2796  -70.3
 2.340  0.3827  174.5   6.475   67.5  0.0651   46.5  0.2770  -70.5
 2.360  0.3832  173.8   6.418   67.1  0.0655   46.4  0.2743  -70.8
 2.380  0.3838  173.1   6.362   66.7  0.0659   46.3  0.2717  -71.1
 2.400  0.3845  172.4   6.306   66.3  0.0663   46.2  0.2691  -71.4
 2.420  0.3851  171.7   6.255   65.9  0.0667   46.1  0.2666  -71.7
 2.440  0.3858  171.0   6.204   65.6  0.0671   45.9  0.2640  -71.9
 2.460  0.3865  170.4   6.153   65.2  0.0675   45.8  0.2615  -72.2
 2.480  0.3873  169.7   6.102   64.9  0.0679   45.6  0.2589  -72.5
 2.500  0.3881  169.0   6.052   64.5  0.0683   45.5  0.2564  -72.8
 2.520  0.3890  168.3   6.002   64.1  0.0687   45.3  0.2539  -73.1
 2.540  0.3899  167.7   5.952   63.7  0.0691   45.2  0.2514  -73.4
 2.560  0.3909  167.0   5.903   63.3  0.0695   45.1  0.2489  -73.7
 2.580  0.3919  166.4   5.854   62.9  0.0699   44.9  0.2464  -74.0
 2.600  0.3930  165.7   5.805   62.5  0.0703   44.8  0.2439  -74.3
 2.620  0.3936  165.1   5.761   62.2  0.0707   44.7  0.2416  -74.6
 2.640  0.3942  164.5   5.718   61.8  0.0711   44.5  0.2394  -74.9
 2.660  0.3949  163.9   5.675   61.5  0.0715   44.4  0.2371  -75.2
 2.680  0.3956  163.3   5.632   61.1  0.0719   44.3  0.2349  -75.5
 2.700  0.3963  162.7   5.589   60.8  0.0723   44.2  0.2327  -75.8
 2.720  0.3971  162.1   5.546   60.4  0.0727   44.1  0.2304  -76.1
 2.740  0.3980  161.5   5.504   60.0  0.0731   43.9  0.2282  -76.5
 2.760  0.3988  161.0   5.462   59.7  0.0735   43.8  0.2260  -76.8
 2.780  0.3997  160.4   5.420   59.3  0.0739   43.7  0.2238  -77.2
 2.800  0.4007  159.8   5.378   58.9  0.0743   43.6  0.2216  -77.5
 2.820  0.4016  159.2   5.340   58.6  0.0747   43.5  0.2195  -77.8
 2.840  0.4026  158.7   5.303   58.3  0.0751   43.3  0.2175  -78.1
 2.860  0.4037  158.1   5.265   57.9  0.0755   43.2  0.2154  -78.4
 2.880  0.4047  157.6   5.228   57.6  0.0759   43.0  0.2134  -78.7
 2.900  0.4058  157.0   5.191   57.3  0.0763   42.9  0.2113  -79.1
 2.920  0.4070  156.5   5.154   56.9  0.0767   42.7  0.2093  -79.4
 2.940  0.4081  155.9   5.117   56.6  0.0771   42.6  0.2072  -79.7
 2.960  0.4094  155.4   5.081   56.2  0.0775   42.5  0.2052  -80.1
 2.980  0.4106  154.8   5.044   55.9  0.0779   42.3  0.2032  -80.4
 3.000  0.4119  154.3   5.008   55.5  0.0783   42.2  0.2012  -80.8
 3.100  0.4165  151.7   4.852   54.0  0.0802   41.4  0.1921  -82.4
 3.200  0.4220  149.2   4.699   52.5  0.0822   40.7  0.1831  -84.2
 3.300  0.4282  146.8   4.550   50.8  0.0841   40.0  0.1743  -86.1
 3.400  0.4352  144.4   4.404   49.0  0.0861   39.3  0.1658  -88.2
 3.500  0.4429  142.1   4.264   47.1  0.0881   38.7  0.1575  -90.6
 3.600  0.4482  139.9   4.144   45.7  0.0901   37.9  0.1494  -92.8
 3.700  0.4541  137.8   4.027   44.2  0.0920   37.0  0.1415  -95.3
 3.800  0.4606  135.8   3.913   42.6  0.0940   36.3  0.1339  -98.1
 3.900  0.4677  133.8   3.802   41.0  0.0961   35.5  0.1266 -101.2
 4.000  0.4753  131.9   3.694   39.2  0.0981   34.8  0.1198 -104.7
 4.100  0.4801  130.2   3.598   37.8  0.0999   33.9  0.1137 -108.5
 4.200  0.4854  128.6   3.504   36.4  0.1017   33.0  0.1082 -112.7
 4.300  0.4910  127.0   3.412   34.9  0.1035   32.1  0.1034 -117.4
 4.400  0.4970  125.4   3.323   33.3  0.1053   31.3  0.0993 -122.4
 4.500  0.5034  123.9   3.236   31.6  0.1072   30.5  0.0960 -127.9
 4.600  0.5065  122.5   3.159   30.3  0.1089   29.7  0.0934 -132.0
 4.700  0.5099  121.2   3.084   29.0  0.1106   28.9  0.0914 -136.2
 4.800  0.5135  119.9   3.011   27.7  0.1123   28.1  0.0899 -140.7
 4.900  0.5174  118.6   2.940   26.2  0.1140   27.3  0.0889 -145.3
 5.000  0.5216  117.3   2.870   24.7  0.1158   26.6  0.0885 -149.9
 5.100  0.5244  116.1   2.810   23.5  0.1174   25.7  0.0870 -153.9
 5.200  0.5273  114.9   2.752   22.2  0.1190   24.9  0.0859 -158.1
 5.300  0.5306  113.7   2.695   20.8  0.1207   24.1  0.0853 -162.3
 5.400  0.5340  112.5   2.640   19.5  0.1224   23.3  0.0852 -166.5
 5.500  0.5377  111.3   2.586   18.0  0.1241   22.5  0.0855 -170.8
 5.600  0.5418  110.0   2.537   16.8  0.1257   21.7  0.0854 -175.8
 5.700  0.5462  108.8   2.489   15.5  0.1273   20.9  0.0859  179.2
 5.800  0.5508  107.6   2.443   14.2  0.1289   20.1  0.0871  174.3
 5.900  0.5557  106.4   2.398   12.8  0.1306   19.3  0.0889  169.5
 6.000  0.5608  105.2   2.354   11.4  0.1323   18.6  0.0913  165.0
 6.100  0.5654  104.0   2.313   10.2  0.1340   17.7  0.0940  161.1
 6.200  0.5702  102.9   2.273    8.9  0.1357   16.9  0.0971  157.4
 6.300  0.5752  101.8   2.234    7.6  0.1374   16.0  0.1006  154.0
 6.400  0.5804  100.7   2.196    6.2  0.1391   15.2  0.1045  150.8
 6.500  0.5859   99.6   2.160    4.8  0.1409   14.4  0.1086  147.8
 6.600  0.5897   98.5   2.126    3.5  0.1427   13.5  0.1102  144.9
 6.800  0.5979   96.4   2.060    0.8  0.1463   11.7  0.1143  139.4
 7.000  0.6068   94.4   2.000   -2.1  0.1501   10.0  0.1194  134.3
 7.200  0.6121   92.2   1.940   -4.7  0.1536    7.9  0.1262  128.6
 7.400  0.6184   90.0   1.885   -7.5  0.1574    5.9  0.1342  123.5
 7.600  0.6247   87.5   1.827  -10.4  0.1605    3.7  0.1447  118.7
 7.800  0.6316   84.8   1.767  -13.2  0.1630    1.3  0.1579  114.4
 8.000  0.6398   82.2   1.711  -16.3  0.1658   -1.0  0.1719  110.7
 8.200  0.6478   79.3   1.648  -18.8  0.1665   -3.1  0.1868  106.5
 8.400  0.6575   76.4   1.588  -21.4  0.1675   -5.3  0.2026  102.9
 8.600  0.6704   73.9   1.534  -23.9  0.1684   -7.1  0.2202   99.2
 8.800  0.6860   71.7   1.485  -26.2  0.1690   -8.7  0.2399   95.6
 9.000  0.7025   69.6   1.438  -28.6  0.1698  -10.3  0.2605   92.5
 9.200  0.7257   68.0   1.398  -30.8  0.1707  -11.8  0.2856   89.8
 9.400  0.7493   66.6   1.360  -33.1  0.1717  -13.3  0.3112   87.5
 9.600  0.7705   65.1   1.316  -35.4  0.1727  -14.8  0.3361   85.7
 9.800  0.7893   63.6   1.265  -37.7  0.1735  -16.3  0.3601   84.4
10.000  0.8086   62.1   1.216  -40.2  0.1744  -17.8  0.3842   83.2
10.200  0.8129   60.9   1.173  -41.8  0.1757  -19.1  0.3980   82.1
10.400  0.8175   59.7   1.132  -43.4  0.1771  -20.3  0.4120   81.2
10.600  0.8141   59.1   1.099  -44.9  0.1784  -21.7  0.4216   80.5
10.800  0.8026   59.2   1.074  -46.2  0.1797  -23.3  0.4269   80.2
11.000  0.7911   59.2   1.050  -47.5  0.1812  -24.9  0.4322   79.9
11.200  0.7808   59.5   1.045  -48.6  0.1820  -26.3  0.4329   81.0
11.400  0.7705   59.8   1.041  -49.7  0.1829  -27.7  0.4337   82.1
11.600  0.7727   59.4   1.034  -52.0  0.1843  -29.5  0.4388   83.4
11.800  0.7874   58.5   1.027  -55.6  0.1864  -31.7  0.4483   84.8
12.000  0.8024   57.6   1.024  -59.1  0.1888  -33.8  0.4580   86.1
!
!  f       NFmin   Gammaopt  rn/50
! GHz       dB    MAG  ANG    -
 0.450      1.45  0.03 -118   0.16
 0.900      1.42  0.02 -123   0.16
 1.800      1.53  0.08 -148   0.16
 2.400      1.53  0.14 -128   0.21
 5.500      2.40  0.38 -109   0.32
10.000      3.52  0.68  -48   2.04
!
! (c) 2015  Infineon Technologies AG, Munich
