! Infineon Technologies  Discrete & RF Semiconductors
! BFP420
! VCE =  2.5 V,  IC =  5.0 mA
! Common Emitter S-Parameters:                            Jan 2016
# GHz  S  MA  R  50
!  f         S11            S21            S12            S22
! GHz     MAG   ANG      MAG   ANG      MAG   ANG      MAG   ANG
 0.010  0.8316   -1.8  15.936  179.2  0.0009  102.7  0.9846    0.2
 0.015  0.8342   -2.2  15.735  178.8  0.0014   90.6  0.9865   -0.6
 0.020  0.8368   -2.5  15.534  178.3  0.0019   84.9  0.9885   -1.3
 0.025  0.8365   -3.0  15.535  177.8  0.0024   84.9  0.9883   -1.6
 0.030  0.8362   -3.6  15.538  177.4  0.0028   84.9  0.9882   -2.0
 0.035  0.8360   -4.1  15.541  176.9  0.0033   84.9  0.9881   -2.3
 0.040  0.8359   -4.6  15.546  176.4  0.0038   84.9  0.9880   -2.7
 0.045  0.8359   -5.2  15.551  176.0  0.0042   84.9  0.9880   -3.0
 0.050  0.8359   -5.7  15.558  175.5  0.0047   84.9  0.9880   -3.4
 0.055  0.8351   -6.3  15.555  175.1  0.0051   84.6  0.9874   -3.7
 0.060  0.8344   -6.9  15.553  174.6  0.0056   84.4  0.9869   -4.1
 0.065  0.8338   -7.6  15.552  174.2  0.0060   84.3  0.9864   -4.4
 0.070  0.8332   -8.2  15.552  173.8  0.0065   84.1  0.9859   -4.8
 0.075  0.8328   -8.8  15.553  173.3  0.0069   84.0  0.9854   -5.1
 0.080  0.8325   -9.4  15.554  172.9  0.0074   83.9  0.9850   -5.5
 0.085  0.8323  -10.0  15.556  172.5  0.0078   83.8  0.9847   -5.8
 0.090  0.8322  -10.7  15.560  172.1  0.0083   83.7  0.9843   -6.2
 0.095  0.8321  -11.3  15.564  171.6  0.0087   83.6  0.9841   -6.5
 0.100  0.8322  -11.9  15.569  171.2  0.0092   83.5  0.9838   -6.9
 0.105  0.8311  -12.5  15.552  170.8  0.0097   83.1  0.9829   -7.2
 0.110  0.8302  -13.1  15.536  170.3  0.0101   82.8  0.9819   -7.6
 0.115  0.8293  -13.7  15.520  169.9  0.0106   82.5  0.9811   -7.9
 0.120  0.8285  -14.2  15.506  169.5  0.0110   82.3  0.9802   -8.3
 0.125  0.8278  -14.8  15.492  169.1  0.0115   82.0  0.9794   -8.6
 0.130  0.8271  -15.4  15.479  168.6  0.0120   81.8  0.9786   -8.9
 0.135  0.8266  -16.0  15.467  168.2  0.0124   81.6  0.9779   -9.3
 0.140  0.8261  -16.6  15.456  167.8  0.0129   81.4  0.9772   -9.6
 0.145  0.8258  -17.2  15.446  167.3  0.0133   81.2  0.9765  -10.0
 0.150  0.8255  -17.8  15.437  166.9  0.0138   81.0  0.9759  -10.3
 0.155  0.8246  -18.4  15.416  166.5  0.0142   80.6  0.9747  -10.6
 0.160  0.8238  -18.9  15.395  166.1  0.0147   80.3  0.9735  -11.0
 0.165  0.8231  -19.5  15.375  165.7  0.0151   80.0  0.9724  -11.3
 0.170  0.8224  -20.1  15.356  165.2  0.0156   79.6  0.9713  -11.7
 0.175  0.8219  -20.6  15.338  164.8  0.0160   79.4  0.9702  -12.0
 0.180  0.8214  -21.2  15.321  164.4  0.0164   79.1  0.9691  -12.3
 0.185  0.8210  -21.8  15.304  164.0  0.0169   78.8  0.9681  -12.7
 0.190  0.8207  -22.4  15.289  163.5  0.0173   78.6  0.9671  -13.0
 0.195  0.8205  -22.9  15.274  163.1  0.0178   78.3  0.9662  -13.4
 0.200  0.8203  -23.5  15.260  162.7  0.0182   78.1  0.9653  -13.7
 0.220  0.8153  -25.8  15.137  161.0  0.0199   76.7  0.9596  -15.0
 0.240  0.8116  -28.1  15.027  159.3  0.0216   75.5  0.9543  -16.3
 0.260  0.8074  -30.4  14.927  157.6  0.0233   74.3  0.9484  -17.6
 0.280  0.8026  -32.8  14.834  156.0  0.0250   73.1  0.9419  -18.9
 0.300  0.7991  -35.1  14.754  154.4  0.0266   72.1  0.9358  -20.2
 0.320  0.7938  -37.3  14.625  152.9  0.0282   70.9  0.9283  -21.4
 0.340  0.7897  -39.5  14.507  151.3  0.0297   69.9  0.9213  -22.6
 0.360  0.7851  -41.7  14.380  149.8  0.0312   68.8  0.9137  -23.8
 0.380  0.7800  -43.8  14.243  148.2  0.0327   67.7  0.9057  -25.0
 0.400  0.7760  -46.0  14.116  146.7  0.0341   66.7  0.8980  -26.2
 0.420  0.7697  -48.1  13.968  145.2  0.0355   65.6  0.8896  -27.3
 0.440  0.7645  -50.3  13.830  143.8  0.0369   64.7  0.8815  -28.5
 0.450  0.7623  -51.4  13.764  143.0  0.0376   64.2  0.8776  -29.1
 0.460  0.7591  -52.4  13.686  142.3  0.0382   63.7  0.8730  -29.6
 0.480  0.7534  -54.5  13.535  140.9  0.0395   62.7  0.8642  -30.8
 0.500  0.7487  -56.6  13.393  139.4  0.0408   61.8  0.8556  -31.9
 0.520  0.7417  -58.5  13.229  138.1  0.0419   60.8  0.8462  -32.9
 0.540  0.7356  -60.5  13.071  136.7  0.0431   59.9  0.8370  -33.9
 0.560  0.7303  -62.5  12.921  135.4  0.0442   59.0  0.8280  -34.9
 0.580  0.7259  -64.5  12.779  133.9  0.0454   58.2  0.8194  -35.9
 0.600  0.7224  -66.5  12.645  132.5  0.0466   57.4  0.8110  -37.0
 0.620  0.7154  -68.3  12.482  131.3  0.0476   56.6  0.8015  -37.9
 0.640  0.7092  -70.2  12.325  130.2  0.0486   55.7  0.7923  -38.9
 0.660  0.7037  -72.1  12.173  128.9  0.0496   55.0  0.7833  -39.8
 0.680  0.6989  -74.0  12.027  127.7  0.0506   54.2  0.7745  -40.8
 0.700  0.6950  -75.9  11.887  126.4  0.0516   53.5  0.7659  -41.8
 0.720  0.6889  -77.6  11.726  125.3  0.0524   52.8  0.7569  -42.6
 0.740  0.6835  -79.3  11.569  124.2  0.0533   52.1  0.7480  -43.4
 0.760  0.6786  -81.0  11.416  123.1  0.0542   51.4  0.7393  -44.3
 0.780  0.6744  -82.8  11.268  121.9  0.0550   50.7  0.7307  -45.1
 0.800  0.6709  -84.6  11.125  120.7  0.0559   50.1  0.7223  -46.0
 0.820  0.6654  -86.2  10.980  119.7  0.0566   49.4  0.7137  -46.7
 0.840  0.6604  -87.9  10.838  118.7  0.0573   48.8  0.7053  -47.5
 0.860  0.6560  -89.5  10.700  117.7  0.0580   48.2  0.6970  -48.3
 0.880  0.6522  -91.2  10.566  116.6  0.0588   47.6  0.6888  -49.1
 0.900  0.6489  -92.9  10.435  115.5  0.0595   47.0  0.6808  -49.9
 0.920  0.6442  -94.4  10.300  114.6  0.0601   46.5  0.6727  -50.6
 0.940  0.6399  -96.0  10.167  113.7  0.0608   45.9  0.6648  -51.3
 0.960  0.6361  -97.5  10.037  112.8  0.0614   45.4  0.6569  -52.0
 0.980  0.6328  -99.1   9.909  111.8  0.0621   44.9  0.6491  -52.7
 1.000  0.6300 -100.7   9.785  110.8  0.0627   44.4  0.6415  -53.5
 1.020  0.6259 -102.1   9.659  110.0  0.0633   43.9  0.6342  -54.1
 1.040  0.6221 -103.5   9.536  109.1  0.0638   43.5  0.6269  -54.7
 1.060  0.6187 -105.0   9.414  108.2  0.0644   43.0  0.6198  -55.4
 1.080  0.6158 -106.4   9.295  107.3  0.0649   42.5  0.6127  -56.0
 1.100  0.6132 -107.9   9.178  106.4  0.0655   42.1  0.6057  -56.7
 1.120  0.6096 -109.3   9.062  105.6  0.0660   41.7  0.5986  -57.3
 1.140  0.6064 -110.6   8.949  104.8  0.0665   41.2  0.5916  -57.9
 1.160  0.6035 -112.0   8.837  103.9  0.0670   40.8  0.5847  -58.6
 1.180  0.6010 -113.4   8.727  103.1  0.0675   40.4  0.5778  -59.2
 1.200  0.5988 -114.8   8.619  102.2  0.0680   40.0  0.5710  -59.9
 1.220  0.5959 -116.1   8.515  101.5  0.0685   39.6  0.5648  -60.4
 1.240  0.5932 -117.3   8.412  100.8  0.0689   39.2  0.5586  -61.0
 1.260  0.5909 -118.6   8.311  100.0  0.0694   38.8  0.5524  -61.5
 1.280  0.5888 -119.9   8.211   99.3  0.0698   38.5  0.5463  -62.1
 1.300  0.5871 -121.2   8.112   98.5  0.0703   38.1  0.5403  -62.7
 1.320  0.5846 -122.4   8.017   97.8  0.0707   37.8  0.5344  -63.2
 1.340  0.5823 -123.6   7.923   97.1  0.0711   37.4  0.5285  -63.8
 1.360  0.5802 -124.8   7.830   96.4  0.0714   37.1  0.5226  -64.3
 1.380  0.5785 -126.1   7.738   95.7  0.0718   36.8  0.5168  -64.9
 1.400  0.5770 -127.3   7.648   94.9  0.0722   36.5  0.5111  -65.5
 1.420  0.5747 -128.4   7.562   94.3  0.0726   36.2  0.5056  -66.0
 1.440  0.5725 -129.5   7.478   93.6  0.0730   35.9  0.5002  -66.5
 1.460  0.5706 -130.6   7.394   93.0  0.0733   35.6  0.4948  -67.0
 1.480  0.5690 -131.8   7.312   92.3  0.0737   35.3  0.4894  -67.5
 1.500  0.5675 -132.9   7.230   91.6  0.0741   35.0  0.4841  -68.0
 1.520  0.5659 -134.0   7.150   91.0  0.0744   34.7  0.4792  -68.5
 1.540  0.5646 -135.0   7.071   90.4  0.0748   34.5  0.4743  -68.9
 1.560  0.5634 -136.1   6.993   89.7  0.0751   34.2  0.4694  -69.4
 1.580  0.5625 -137.2   6.916   89.1  0.0755   34.0  0.4646  -69.9
 1.600  0.5617 -138.3   6.840   88.4  0.0758   33.7  0.4598  -70.4
 1.620  0.5598 -139.3   6.769   87.8  0.0761   33.5  0.4551  -70.9
 1.640  0.5580 -140.4   6.699   87.3  0.0764   33.2  0.4504  -71.3
 1.660  0.5565 -141.5   6.630   86.7  0.0768   33.0  0.4457  -71.8
 1.680  0.5552 -142.5   6.561   86.1  0.0771   32.7  0.4411  -72.3
 1.700  0.5540 -143.6   6.493   85.5  0.0774   32.5  0.4365  -72.8
 1.720  0.5528 -144.5   6.425   84.9  0.0777   32.3  0.4323  -73.2
 1.740  0.5517 -145.5   6.357   84.4  0.0780   32.1  0.4281  -73.6
 1.760  0.5507 -146.4   6.291   83.8  0.0783   31.8  0.4240  -74.0
 1.780  0.5499 -147.4   6.224   83.2  0.0786   31.6  0.4198  -74.5
 1.800  0.5493 -148.3   6.159   82.6  0.0789   31.4  0.4157  -74.9
 1.820  0.5482 -149.3   6.099   82.1  0.0792   31.2  0.4115  -75.4
 1.840  0.5473 -150.3   6.039   81.6  0.0795   31.0  0.4073  -75.9
 1.860  0.5465 -151.2   5.979   81.0  0.0797   30.7  0.4032  -76.4
 1.880  0.5459 -152.2   5.920   80.5  0.0800   30.5  0.3991  -76.9
 1.900  0.5454 -153.2   5.862   79.9  0.0803   30.3  0.3950  -77.4
 1.920  0.5441 -154.0   5.806   79.4  0.0806   30.1  0.3913  -77.8
 1.940  0.5429 -154.9   5.751   78.9  0.0809   29.9  0.3877  -78.1
 1.960  0.5417 -155.7   5.696   78.4  0.0811   29.8  0.3840  -78.5
 1.980  0.5408 -156.6   5.642   77.8  0.0814   29.6  0.3804  -78.9
 2.000  0.5399 -157.4   5.588   77.3  0.0817   29.4  0.3768  -79.3
 2.020  0.5388 -158.2   5.538   76.8  0.0820   29.2  0.3732  -79.7
 2.040  0.5378 -159.1   5.489   76.4  0.0822   29.0  0.3697  -80.1
 2.060  0.5369 -160.0   5.440   75.9  0.0825   28.8  0.3662  -80.5
 2.080  0.5362 -160.8   5.391   75.4  0.0828   28.7  0.3627  -81.0
 2.100  0.5355 -161.7   5.343   74.9  0.0830   28.5  0.3592  -81.4
 2.120  0.5350 -162.5   5.295   74.4  0.0833   28.3  0.3558  -81.8
 2.140  0.5346 -163.4   5.248   73.9  0.0836   28.1  0.3524  -82.3
 2.160  0.5344 -164.3   5.201   73.4  0.0839   28.0  0.3489  -82.8
 2.180  0.5342 -165.1   5.154   72.8  0.0841   27.8  0.3456  -83.2
 2.200  0.5342 -166.0   5.108   72.3  0.0844   27.6  0.3422  -83.7
 2.220  0.5336 -166.8   5.065   71.9  0.0846   27.4  0.3390  -84.1
 2.240  0.5331 -167.6   5.022   71.4  0.0849   27.3  0.3357  -84.5
 2.260  0.5328 -168.4   4.980   71.0  0.0851   27.1  0.3325  -85.0
 2.280  0.5325 -169.2   4.938   70.6  0.0854   26.9  0.3294  -85.4
 2.300  0.5324 -170.0   4.896   70.1  0.0856   26.8  0.3262  -85.8
 2.320  0.5323 -170.9   4.855   69.6  0.0859   26.6  0.3231  -86.3
 2.340  0.5324 -171.7   4.813   69.2  0.0861   26.5  0.3199  -86.8
 2.360  0.5325 -172.5   4.773   68.7  0.0864   26.3  0.3168  -87.2
 2.380  0.5328 -173.3   4.732   68.2  0.0866   26.2  0.3138  -87.7
 2.400  0.5332 -174.1   4.692   67.7  0.0869   26.0  0.3107  -88.2
 2.420  0.5330 -174.9   4.655   67.3  0.0871   25.9  0.3078  -88.6
 2.440  0.5329 -175.6   4.618   66.9  0.0873   25.7  0.3049  -89.1
 2.460  0.5330 -176.4   4.581   66.4  0.0876   25.6  0.3021  -89.5
 2.480  0.5331 -177.1   4.545   66.0  0.0878   25.4  0.2992  -89.9
 2.500  0.5333 -177.9   4.509   65.5  0.0880   25.3  0.2964  -90.4
 2.520  0.5336 -178.7   4.473   65.1  0.0882   25.2  0.2936  -90.9
 2.540  0.5340 -179.4   4.437   64.6  0.0884   25.0  0.2908  -91.3
 2.560  0.5344  179.8   4.402   64.2  0.0887   24.9  0.2881  -91.8
 2.580  0.5350  179.1   4.367   63.7  0.0889   24.7  0.2853  -92.3
 2.600  0.5357  178.3   4.332   63.2  0.0891   24.6  0.2826  -92.8
 2.620  0.5356  177.6   4.299   62.8  0.0893   24.5  0.2800  -93.2
 2.640  0.5355  177.0   4.267   62.4  0.0895   24.3  0.2775  -93.7
 2.660  0.5356  176.3   4.235   62.0  0.0898   24.2  0.2749  -94.1
 2.680  0.5357  175.7   4.203   61.6  0.0900   24.1  0.2724  -94.6
 2.700  0.5359  175.0   4.171   61.2  0.0902   23.9  0.2699  -95.0
 2.720  0.5361  174.3   4.139   60.8  0.0904   23.8  0.2674  -95.5
 2.740  0.5364  173.7   4.108   60.4  0.0906   23.7  0.2649  -96.0
 2.760  0.5368  173.0   4.077   60.0  0.0909   23.6  0.2625  -96.5
 2.780  0.5373  172.4   4.046   59.5  0.0911   23.4  0.2600  -97.0
 2.800  0.5378  171.7   4.015   59.1  0.0913   23.3  0.2576  -97.5
 2.820  0.5381  171.1   3.987   58.7  0.0915   23.2  0.2553  -97.9
 2.840  0.5385  170.4   3.959   58.3  0.0918   23.1  0.2531  -98.4
 2.860  0.5390  169.8   3.931   58.0  0.0920   22.9  0.2508  -98.9
 2.880  0.5395  169.2   3.904   57.6  0.0922   22.8  0.2486  -99.3
 2.900  0.5401  168.6   3.877   57.2  0.0924   22.7  0.2464  -99.8
 2.920  0.5407  168.0   3.850   56.8  0.0927   22.6  0.2442 -100.3
 2.940  0.5414  167.3   3.823   56.4  0.0929   22.5  0.2420 -100.8
 2.960  0.5422  166.7   3.796   55.9  0.0931   22.3  0.2399 -101.3
 2.980  0.5430  166.1   3.769   55.5  0.0934   22.2  0.2377 -101.8
 3.000  0.5439  165.5   3.743   55.1  0.0936   22.1  0.2356 -102.3
 3.100  0.5456  162.5   3.624   53.4  0.0947   21.5  0.2255 -104.8
 3.200  0.5488  159.6   3.508   51.6  0.0958   20.9  0.2159 -107.6
 3.300  0.5534  156.7   3.395   49.7  0.0969   20.4  0.2068 -110.6
 3.400  0.5594  153.9   3.287   47.7  0.0980   19.8  0.1984 -113.9
 3.500  0.5667  151.1   3.183   45.5  0.0991   19.3  0.1907 -117.5
 3.600  0.5697  148.6   3.092   43.9  0.1003   18.8  0.1840 -120.6
 3.700  0.5737  146.2   3.003   42.2  0.1014   18.2  0.1779 -124.0
 3.800  0.5787  143.8   2.917   40.5  0.1026   17.7  0.1724 -127.5
 3.900  0.5848  141.4   2.834   38.6  0.1038   17.2  0.1677 -131.3
 4.000  0.5918  139.1   2.754   36.6  0.1050   16.7  0.1637 -135.3
 4.100  0.5944  137.1   2.680   35.1  0.1061   16.1  0.1604 -138.8
 4.200  0.5977  135.2   2.607   33.5  0.1071   15.5  0.1578 -142.5
 4.300  0.6017  133.3   2.537   31.8  0.1082   14.9  0.1559 -146.3
 4.400  0.6063  131.4   2.469   30.1  0.1093   14.4  0.1546 -150.2
 4.500  0.6116  129.5   2.403   28.2  0.1104   13.8  0.1541 -154.1
 4.600  0.6130  128.0   2.344   26.9  0.1114   13.3  0.1529 -157.3
 4.700  0.6149  126.5   2.285   25.5  0.1125   12.8  0.1522 -160.5
 4.800  0.6172  125.0   2.229   24.0  0.1136   12.3  0.1520 -163.7
 4.900  0.6200  123.5   2.173   22.4  0.1146   11.8  0.1523 -166.9
 5.000  0.6231  122.0   2.120   20.8  0.1157   11.3  0.1530 -170.1
 5.100  0.6249  120.6   2.074   19.5  0.1167   10.8  0.1533 -173.2
 5.200  0.6271  119.1   2.029   18.2  0.1178   10.3  0.1541 -176.3
 5.300  0.6297  117.7   1.986   16.8  0.1188    9.8  0.1553 -179.3
 5.400  0.6327  116.3   1.943   15.3  0.1198    9.3  0.1569  177.7
 5.500  0.6361  114.9   1.902   13.8  0.1209    8.8  0.1590  174.8
 5.600  0.6393  113.5   1.866   12.5  0.1220    8.3  0.1605  171.9
 5.700  0.6428  112.1   1.830   11.2  0.1232    7.8  0.1624  169.1
 5.800  0.6467  110.7   1.796    9.8  0.1244    7.3  0.1647  166.3
 5.900  0.6510  109.3   1.762    8.4  0.1255    6.8  0.1673  163.7
 6.000  0.6557  108.0   1.730    6.9  0.1267    6.3  0.1703  161.1
 6.100  0.6593  106.8   1.700    5.6  0.1281    5.7  0.1725  158.6
 6.200  0.6632  105.5   1.670    4.2  0.1294    5.1  0.1751  156.2
 6.300  0.6674  104.3   1.642    2.8  0.1308    4.5  0.1780  153.9
 6.400  0.6719  103.1   1.614    1.3  0.1322    4.0  0.1811  151.7
 6.500  0.6767  101.9   1.588   -0.2  0.1336    3.4  0.1845  149.5
 6.600  0.6793  100.7   1.563   -1.6  0.1351    2.7  0.1865  147.3
 6.800  0.6855   98.3   1.514   -4.4  0.1382    1.4  0.1912  143.0
 7.000  0.6928   95.9   1.470   -7.4  0.1413    0.1  0.1970  139.0
 7.200  0.6965   93.4   1.425  -10.2  0.1443   -1.6  0.2044  134.9
 7.400  0.7015   91.0   1.383  -13.1  0.1475   -3.2  0.2127  131.1
 7.600  0.7059   88.4   1.340  -16.0  0.1501   -5.0  0.2220  127.2
 7.800  0.7103   85.5   1.294  -18.9  0.1521   -7.0  0.2324  123.1
 8.000  0.7164   82.7   1.251  -22.0  0.1543   -8.9  0.2439  119.5
 8.200  0.7212   79.7   1.203  -24.6  0.1547  -10.7  0.2560  114.8
 8.400  0.7279   76.8   1.158  -27.3  0.1552  -12.5  0.2697  110.6
 8.600  0.7377   74.1   1.116  -29.9  0.1556  -14.0  0.2862  106.7
 8.800  0.7504   71.4   1.078  -32.3  0.1558  -15.3  0.3055  103.0
 9.000  0.7645   68.9   1.041  -34.8  0.1561  -16.6  0.3260   99.8
 9.200  0.7845   66.9   1.010  -36.9  0.1568  -17.7  0.3500   97.3
 9.400  0.8054   65.0   0.981  -39.1  0.1575  -18.8  0.3746   95.2
 9.600  0.8239   63.4   0.948  -41.4  0.1584  -20.0  0.3983   93.4
 9.800  0.8397   62.0   0.911  -43.6  0.1595  -21.2  0.4210   91.9
10.000  0.8560   60.6   0.875  -46.1  0.1607  -22.3  0.4439   90.6
!
!  f       NFmin   Gammaopt  rn/50
! GHz       dB    MAG  ANG    -
 0.900      0.66  0.21   31   0.15
 1.800      1.05  0.09   93   0.13
 2.400      1.14  0.14  119   0.13
 3.000      1.24  0.17  165   0.11
 4.000      1.41  0.31 -145   0.12
 5.000      1.85  0.38 -119   0.21
 6.000      2.30  0.45 -101   0.36
!
! (c) 2016  Infineon Technologies AG, Munich
