! Infineon Technologies  Discrete & RF Semiconductors
! BFP420
! VCE =  4.0 V,  IC =  8.0 mA
! Common Emitter S-Parameters:                            Jan 2016
# GHz  S  MA  R  50
!  f         S11            S21            S12            S22
! GHz     MAG   ANG      MAG   ANG      MAG   ANG      MAG   ANG
 0.010  0.7530   -1.3  23.309  178.8  0.0013   29.5  0.9611    0.7
 0.015  0.7557   -2.0  22.956  178.2  0.0016   43.2  0.9633   -0.4
 0.020  0.7585   -2.7  22.605  177.5  0.0019   52.5  0.9658   -1.4
 0.025  0.7581   -3.4  22.585  177.0  0.0023   57.7  0.9657   -1.8
 0.030  0.7577   -4.1  22.567  176.4  0.0027   61.4  0.9657   -2.2
 0.035  0.7575   -4.8  22.550  175.9  0.0031   64.2  0.9657   -2.6
 0.040  0.7574   -5.6  22.536  175.4  0.0035   66.3  0.9658   -3.0
 0.045  0.7575   -6.3  22.523  174.8  0.0039   68.0  0.9659   -3.4
 0.050  0.7576   -7.0  22.513  174.3  0.0043   69.3  0.9661   -3.8
 0.055  0.7565   -7.8  22.494  173.8  0.0047   70.2  0.9652   -4.2
 0.060  0.7555   -8.5  22.476  173.3  0.0051   71.0  0.9644   -4.6
 0.065  0.7547   -9.3  22.460  172.8  0.0054   71.7  0.9637   -5.1
 0.070  0.7540  -10.0  22.446  172.3  0.0058   72.3  0.9630   -5.5
 0.075  0.7534  -10.8  22.433  171.8  0.0062   72.8  0.9624   -5.9
 0.080  0.7530  -11.5  22.423  171.2  0.0066   73.3  0.9618   -6.3
 0.085  0.7527  -12.3  22.414  170.7  0.0070   73.7  0.9612   -6.7
 0.090  0.7525  -13.1  22.407  170.2  0.0073   74.1  0.9607   -7.2
 0.095  0.7525  -13.8  22.401  169.7  0.0077   74.4  0.9603   -7.6
 0.100  0.7526  -14.6  22.398  169.2  0.0081   74.7  0.9599   -8.0
 0.105  0.7513  -15.3  22.356  168.7  0.0085   74.6  0.9585   -8.4
 0.110  0.7502  -16.1  22.316  168.2  0.0089   74.5  0.9571   -8.8
 0.115  0.7492  -16.8  22.277  167.7  0.0092   74.4  0.9558   -9.2
 0.120  0.7483  -17.6  22.241  167.2  0.0096   74.3  0.9546   -9.6
 0.125  0.7475  -18.3  22.205  166.7  0.0100   74.2  0.9534  -10.0
 0.130  0.7469  -19.1  22.172  166.2  0.0104   74.1  0.9522  -10.4
 0.135  0.7464  -19.8  22.141  165.6  0.0108   74.1  0.9511  -10.8
 0.140  0.7460  -20.6  22.111  165.1  0.0111   74.0  0.9500  -11.2
 0.145  0.7457  -21.3  22.083  164.6  0.0115   74.0  0.9490  -11.6
 0.150  0.7456  -22.1  22.057  164.1  0.0119   73.9  0.9480  -12.0
 0.155  0.7443  -22.8  22.007  163.6  0.0123   73.6  0.9462  -12.4
 0.160  0.7430  -23.5  21.959  163.1  0.0126   73.4  0.9445  -12.7
 0.165  0.7419  -24.2  21.913  162.7  0.0130   73.1  0.9427  -13.1
 0.170  0.7409  -24.8  21.868  162.2  0.0134   72.9  0.9411  -13.5
 0.175  0.7400  -25.5  21.825  161.7  0.0137   72.7  0.9394  -13.9
 0.180  0.7391  -26.2  21.783  161.2  0.0141   72.5  0.9378  -14.3
 0.185  0.7384  -26.9  21.743  160.7  0.0145   72.3  0.9363  -14.6
 0.190  0.7379  -27.6  21.704  160.2  0.0149   72.1  0.9348  -15.0
 0.195  0.7374  -28.3  21.667  159.7  0.0152   72.0  0.9333  -15.4
 0.200  0.7370  -29.0  21.632  159.2  0.0156   71.8  0.9319  -15.8
 0.220  0.7296  -31.8  21.379  157.2  0.0170   70.9  0.9239  -17.2
 0.240  0.7240  -34.7  21.152  155.2  0.0183   70.1  0.9164  -18.7
 0.260  0.7185  -37.4  20.934  153.3  0.0197   69.2  0.9081  -20.1
 0.280  0.7129  -40.2  20.722  151.5  0.0210   68.2  0.8989  -21.5
 0.300  0.7089  -42.9  20.531  149.6  0.0223   67.3  0.8902  -23.0
 0.320  0.7023  -45.5  20.267  147.9  0.0235   66.2  0.8802  -24.3
 0.340  0.6972  -48.2  20.020  146.2  0.0248   65.2  0.8706  -25.6
 0.360  0.6916  -50.7  19.763  144.5  0.0260   64.3  0.8606  -26.9
 0.380  0.6854  -53.2  19.494  142.8  0.0271   63.4  0.8502  -28.1
 0.400  0.6805  -55.8  19.243  141.0  0.0282   62.6  0.8402  -29.4
 0.420  0.6729  -58.2  18.962  139.5  0.0292   61.7  0.8295  -30.5
 0.440  0.6665  -60.6  18.694  137.9  0.0303   60.8  0.8191  -31.7
 0.450  0.6638  -61.8  18.566  137.1  0.0308   60.4  0.8141  -32.3
 0.460  0.6602  -63.0  18.421  136.3  0.0313   60.0  0.8086  -32.8
 0.480  0.6538  -65.3  18.141  134.8  0.0322   59.2  0.7978  -34.0
 0.500  0.6486  -67.7  17.874  133.2  0.0332   58.4  0.7873  -35.1
 0.520  0.6411  -69.8  17.587  131.9  0.0340   57.6  0.7764  -36.0
 0.540  0.6345  -72.0  17.309  130.5  0.0348   56.8  0.7657  -37.0
 0.560  0.6289  -74.2  17.041  129.1  0.0356   56.0  0.7553  -38.0
 0.580  0.6242  -76.5  16.783  127.7  0.0365   55.3  0.7451  -39.0
 0.600  0.6205  -78.8  16.537  126.2  0.0373   54.6  0.7351  -40.1
 0.620  0.6136  -80.8  16.268  125.0  0.0380   54.0  0.7249  -40.9
 0.640  0.6075  -82.8  16.007  123.8  0.0387   53.4  0.7148  -41.8
 0.660  0.6022  -84.8  15.753  122.5  0.0394   52.8  0.7049  -42.7
 0.680  0.5976  -86.9  15.507  121.2  0.0401   52.2  0.6952  -43.6
 0.700  0.5938  -89.0  15.269  119.9  0.0408   51.7  0.6856  -44.5
 0.720  0.5882  -90.8  15.019  118.9  0.0414   51.2  0.6763  -45.2
 0.740  0.5831  -92.6  14.775  117.8  0.0420   50.7  0.6671  -46.0
 0.760  0.5786  -94.4  14.536  116.7  0.0426   50.2  0.6580  -46.7
 0.780  0.5747  -96.2  14.302  115.6  0.0432   49.7  0.6490  -47.5
 0.800  0.5714  -98.1  14.074  114.4  0.0438   49.2  0.6402  -48.3
 0.820  0.5669  -99.8  13.855  113.4  0.0443   48.8  0.6318  -48.9
 0.840  0.5629 -101.4  13.640  112.5  0.0449   48.3  0.6234  -49.6
 0.860  0.5594 -103.1  13.429  111.4  0.0454   47.9  0.6152  -50.3
 0.880  0.5563 -104.9  13.222  110.4  0.0460   47.5  0.6070  -51.0
 0.900  0.5538 -106.6  13.020  109.3  0.0465   47.1  0.5989  -51.7
 0.920  0.5498 -108.1  12.823  108.5  0.0470   46.8  0.5911  -52.3
 0.940  0.5462 -109.7  12.629  107.6  0.0475   46.4  0.5834  -52.9
 0.960  0.5431 -111.3  12.438  106.7  0.0479   46.1  0.5758  -53.6
 0.980  0.5403 -112.9  12.250  105.8  0.0484   45.8  0.5683  -54.2
 1.000  0.5380 -114.5  12.066  104.8  0.0489   45.5  0.5608  -54.9
 1.020  0.5349 -115.9  11.889  104.0  0.0493   45.2  0.5540  -55.4
 1.040  0.5322 -117.3  11.715  103.2  0.0497   44.9  0.5472  -55.9
 1.060  0.5298 -118.8  11.543  102.4  0.0502   44.6  0.5404  -56.5
 1.080  0.5277 -120.2  11.373  101.6  0.0506   44.4  0.5337  -57.0
 1.100  0.5260 -121.7  11.206  100.7  0.0510   44.1  0.5271  -57.6
 1.120  0.5235 -123.0  11.048  100.0  0.0514   43.8  0.5207  -58.1
 1.140  0.5213 -124.3  10.891   99.2  0.0518   43.6  0.5144  -58.7
 1.160  0.5194 -125.7  10.737   98.4  0.0522   43.3  0.5081  -59.2
 1.180  0.5177 -127.0  10.584   97.6  0.0526   43.1  0.5018  -59.8
 1.200  0.5164 -128.4  10.434   96.8  0.0530   42.8  0.4956  -60.4
 1.220  0.5143 -129.6  10.294   96.2  0.0534   42.6  0.4900  -60.9
 1.240  0.5125 -130.9  10.156   95.5  0.0538   42.4  0.4844  -61.3
 1.260  0.5109 -132.1  10.019   94.8  0.0542   42.3  0.4788  -61.8
 1.280  0.5095 -133.3   9.884   94.1  0.0546   42.1  0.4733  -62.3
 1.300  0.5084 -134.6   9.750   93.4  0.0550   41.9  0.4678  -62.8
 1.320  0.5067 -135.7   9.625   92.8  0.0554   41.7  0.4626  -63.3
 1.340  0.5053 -136.9   9.500   92.1  0.0557   41.5  0.4574  -63.7
 1.360  0.5040 -138.1   9.377   91.5  0.0561   41.3  0.4523  -64.2
 1.380  0.5029 -139.2   9.255   90.8  0.0564   41.1  0.4472  -64.7
 1.400  0.5021 -140.4   9.135   90.1  0.0568   40.9  0.4421  -65.2
 1.420  0.5006 -141.4   9.024   89.5  0.0571   40.8  0.4373  -65.6
 1.440  0.4993 -142.5   8.914   88.9  0.0575   40.6  0.4326  -66.1
 1.460  0.4982 -143.6   8.804   88.3  0.0578   40.5  0.4279  -66.5
 1.480  0.4972 -144.6   8.696   87.7  0.0582   40.3  0.4232  -66.9
 1.500  0.4964 -145.7   8.589   87.1  0.0585   40.2  0.4185  -67.4
 1.520  0.4956 -146.7   8.487   86.5  0.0588   40.0  0.4142  -67.8
 1.540  0.4950 -147.7   8.386   85.9  0.0592   39.9  0.4100  -68.2
 1.560  0.4946 -148.7   8.286   85.3  0.0595   39.7  0.4057  -68.6
 1.580  0.4943 -149.7   8.186   84.7  0.0599   39.6  0.4015  -69.1
 1.600  0.4941 -150.7   8.088   84.1  0.0602   39.4  0.3973  -69.5
 1.620  0.4930 -151.7   7.998   83.6  0.0606   39.3  0.3932  -69.9
 1.640  0.4920 -152.7   7.908   83.1  0.0609   39.2  0.3892  -70.3
 1.660  0.4912 -153.7   7.819   82.5  0.0613   39.0  0.3852  -70.7
 1.680  0.4905 -154.7   7.731   82.0  0.0616   38.9  0.3812  -71.2
 1.700  0.4900 -155.7   7.644   81.4  0.0620   38.8  0.3772  -71.6
 1.720  0.4894 -156.5   7.559   80.9  0.0623   38.7  0.3735  -72.0
 1.740  0.4889 -157.3   7.475   80.4  0.0626   38.6  0.3699  -72.3
 1.760  0.4884 -158.2   7.392   79.9  0.0630   38.5  0.3663  -72.7
 1.780  0.4881 -159.0   7.309   79.3  0.0633   38.4  0.3627  -73.1
 1.800  0.4879 -159.8   7.227   78.8  0.0636   38.3  0.3591  -73.5
 1.820  0.4875 -160.7   7.152   78.3  0.0640   38.2  0.3555  -73.9
 1.840  0.4873 -161.6   7.078   77.8  0.0643   38.1  0.3519  -74.4
 1.860  0.4872 -162.6   7.004   77.3  0.0647   37.9  0.3484  -74.8
 1.880  0.4872 -163.5   6.931   76.8  0.0650   37.8  0.3448  -75.2
 1.900  0.4873 -164.4   6.858   76.3  0.0654   37.7  0.3413  -75.7
 1.920  0.4865 -165.2   6.789   75.9  0.0657   37.6  0.3382  -76.0
 1.940  0.4858 -165.9   6.721   75.4  0.0661   37.5  0.3351  -76.4
 1.960  0.4852 -166.7   6.653   74.9  0.0664   37.4  0.3320  -76.7
 1.980  0.4846 -167.4   6.585   74.5  0.0668   37.3  0.3289  -77.0
 2.000  0.4842 -168.2   6.518   74.0  0.0671   37.2  0.3258  -77.4
 2.020  0.4837 -169.0   6.458   73.6  0.0674   37.1  0.3227  -77.8
 2.040  0.4832 -169.8   6.398   73.1  0.0678   37.0  0.3196  -78.2
 2.060  0.4829 -170.6   6.338   72.7  0.0681   36.9  0.3166  -78.5
 2.080  0.4827 -171.4   6.279   72.3  0.0684   36.7  0.3135  -78.9
 2.100  0.4825 -172.2   6.220   71.8  0.0687   36.6  0.3105  -79.4
 2.120  0.4825 -173.0   6.162   71.3  0.0691   36.5  0.3075  -79.8
 2.140  0.4825 -173.8   6.104   70.9  0.0694   36.4  0.3045  -80.2
 2.160  0.4826 -174.6   6.046   70.4  0.0697   36.3  0.3015  -80.6
 2.180  0.4829 -175.4   5.989   69.9  0.0701   36.2  0.2985  -81.1
 2.200  0.4832 -176.2   5.932   69.4  0.0704   36.1  0.2956  -81.5
 2.220  0.4831 -176.9   5.880   69.0  0.0707   36.0  0.2928  -81.9
 2.240  0.4830 -177.6   5.829   68.6  0.0711   35.9  0.2900  -82.3
 2.260  0.4831 -178.4   5.777   68.2  0.0714   35.8  0.2872  -82.7
 2.280  0.4832 -179.1   5.726   67.8  0.0718   35.6  0.2844  -83.1
 2.300  0.4834 -179.8   5.676   67.3  0.0721   35.5  0.2817  -83.5
 2.320  0.4837  179.5   5.625   66.9  0.0724   35.4  0.2789  -83.9
 2.340  0.4840  178.8   5.575   66.5  0.0728   35.3  0.2762  -84.4
 2.360  0.4844  178.0   5.525   66.0  0.0731   35.2  0.2735  -84.8
 2.380  0.4849  177.3   5.476   65.6  0.0735   35.1  0.2708  -85.2
 2.400  0.4855  176.6   5.427   65.1  0.0738   35.0  0.2681  -85.7
 2.420  0.4859  175.9   5.383   64.7  0.0741   34.9  0.2655  -86.1
 2.440  0.4863  175.2   5.339   64.3  0.0744   34.8  0.2630  -86.5
 2.460  0.4868  174.6   5.295   63.9  0.0748   34.7  0.2605  -87.0
 2.480  0.4873  173.9   5.252   63.5  0.0751   34.6  0.2579  -87.4
 2.500  0.4880  173.2   5.209   63.1  0.0754   34.5  0.2554  -87.9
 2.520  0.4887  172.6   5.166   62.7  0.0757   34.4  0.2530  -88.4
 2.540  0.4894  171.9   5.123   62.3  0.0760   34.3  0.2505  -88.8
 2.560  0.4902  171.2   5.081   61.9  0.0764   34.2  0.2480  -89.3
 2.580  0.4911  170.6   5.039   61.4  0.0767   34.1  0.2456  -89.8
 2.600  0.4921  169.9   4.997   61.0  0.0770   34.0  0.2432  -90.3
 2.620  0.4924  169.3   4.958   60.6  0.0773   33.9  0.2409  -90.7
 2.640  0.4928  168.7   4.920   60.3  0.0776   33.8  0.2387  -91.2
 2.660  0.4932  168.1   4.882   59.9  0.0780   33.7  0.2364  -91.6
 2.680  0.4937  167.5   4.844   59.6  0.0783   33.6  0.2342  -92.1
 2.700  0.4942  166.9   4.806   59.2  0.0786   33.5  0.2320  -92.5
 2.720  0.4948  166.3   4.769   58.8  0.0789   33.4  0.2298  -93.0
 2.740  0.4954  165.8   4.732   58.4  0.0792   33.3  0.2276  -93.5
 2.760  0.4961  165.2   4.694   58.0  0.0796   33.2  0.2254  -94.0
 2.780  0.4968  164.6   4.658   57.6  0.0799   33.1  0.2232  -94.5
 2.800  0.4976  164.0   4.621   57.2  0.0802   33.0  0.2211  -95.0
 2.820  0.4982  163.4   4.588   56.9  0.0805   32.9  0.2190  -95.4
 2.840  0.4989  162.9   4.555   56.5  0.0809   32.8  0.2170  -95.9
 2.860  0.4996  162.3   4.522   56.2  0.0812   32.7  0.2150  -96.4
 2.880  0.5003  161.7   4.490   55.8  0.0815   32.6  0.2130  -96.8
 2.900  0.5012  161.2   4.457   55.5  0.0818   32.5  0.2110  -97.3
 2.920  0.5020  160.6   4.425   55.1  0.0822   32.4  0.2090  -97.8
 2.940  0.5029  160.1   4.393   54.7  0.0825   32.3  0.2070  -98.3
 2.960  0.5039  159.5   4.361   54.4  0.0828   32.2  0.2051  -98.8
 2.980  0.5049  159.0   4.329   54.0  0.0832   32.1  0.2031  -99.4
 3.000  0.5059  158.4   4.298   53.6  0.0835   32.0  0.2012  -99.9
 3.100  0.5092  155.7   4.160   52.0  0.0851   31.4  0.1919 -102.6
 3.200  0.5135  153.1   4.025   50.4  0.0867   30.8  0.1831 -105.5
 3.300  0.5190  150.5   3.893   48.6  0.0883   30.2  0.1749 -108.7
 3.400  0.5254  148.0   3.766   46.6  0.0900   29.6  0.1672 -112.2
 3.500  0.5329  145.5   3.643   44.6  0.0916   29.1  0.1602 -116.1
 3.600  0.5368  143.2   3.538   43.1  0.0932   28.4  0.1540 -119.6
 3.700  0.5416  141.0   3.435   41.6  0.0949   27.8  0.1484 -123.3
 3.800  0.5472  138.8   3.335   39.9  0.0965   27.2  0.1435 -127.4
 3.900  0.5536  136.6   3.238   38.2  0.0982   26.6  0.1394 -131.7
 4.000  0.5607  134.5   3.144   36.3  0.0999   26.0  0.1361 -136.2
 4.100  0.5641  132.7   3.059   34.9  0.1014   25.3  0.1335 -140.2
 4.200  0.5681  131.0   2.976   33.4  0.1029   24.6  0.1315 -144.4
 4.300  0.5725  129.3   2.896   31.8  0.1044   23.9  0.1303 -148.7
 4.400  0.5775  127.6   2.818   30.1  0.1060   23.2  0.1298 -153.1
 4.500  0.5829  126.0   2.742   28.3  0.1075   22.6  0.1301 -157.4
 4.600  0.5849  124.6   2.675   27.1  0.1089   21.9  0.1295 -161.0
 4.700  0.5873  123.2   2.609   25.7  0.1104   21.2  0.1295 -164.6
 4.800  0.5900  121.9   2.544   24.4  0.1119   20.6  0.1299 -168.2
 4.900  0.5930  120.5   2.481   22.9  0.1134   19.9  0.1309 -171.7
 5.000  0.5964  119.2   2.420   21.4  0.1149   19.3  0.1323 -175.2
 5.100  0.5988  117.8   2.368   20.2  0.1163   18.6  0.1332 -178.6
 5.200  0.6015  116.5   2.317   18.9  0.1177   17.9  0.1346  178.2
 5.300  0.6045  115.1   2.267   17.5  0.1191   17.3  0.1364  174.9
 5.400  0.6079  113.8   2.218   16.1  0.1205   16.6  0.1387  171.8
 5.500  0.6116  112.5   2.171   14.6  0.1219   16.0  0.1413  168.8
 5.600  0.6150  111.2   2.129   13.4  0.1233   15.3  0.1434  165.8
 5.700  0.6188  109.9   2.089   12.1  0.1247   14.7  0.1459  162.8
 5.800  0.6229  108.6   2.049   10.8  0.1261   14.0  0.1487  159.9
 5.900  0.6272  107.3   2.011    9.4  0.1275   13.4  0.1520  157.2
 6.000  0.6319  106.1   1.974    8.0  0.1290   12.8  0.1555  154.6
 6.100  0.6357  104.9   1.939    6.7  0.1306   12.0  0.1582  152.1
 6.200  0.6398  103.8   1.906    5.4  0.1321   11.3  0.1612  149.7
 6.300  0.6441  102.6   1.873    4.0  0.1337   10.5  0.1644  147.4
 6.400  0.6487  101.5   1.842    2.6  0.1354    9.8  0.1679  145.1
 6.500  0.6535  100.4   1.812    1.1  0.1370    9.1  0.1717  143.0
 6.600  0.6564   99.2   1.783   -0.2  0.1386    8.3  0.1739  140.8
 6.800  0.6631   96.9   1.727   -2.9  0.1420    6.7  0.1790  136.6
 7.000  0.6708   94.7   1.676   -5.8  0.1455    5.2  0.1851  132.6
 7.200  0.6744   92.3   1.624   -8.5  0.1487    3.2  0.1928  128.6
 7.400  0.6792   89.9   1.576  -11.4  0.1521    1.3  0.2013  125.0
 7.600  0.6841   87.3   1.527  -14.3  0.1548   -0.7  0.2110  121.3
 7.800  0.6894   84.6   1.475  -17.1  0.1570   -2.9  0.2219  117.6
 8.000  0.6962   82.0   1.427  -20.2  0.1594   -5.0  0.2337  114.2
 8.200  0.7020   79.1   1.372  -22.7  0.1598   -7.0  0.2469  109.8
 8.400  0.7096   76.2   1.320  -25.5  0.1604   -9.0  0.2615  105.8
 8.600  0.7202   73.5   1.273  -28.0  0.1609  -10.7  0.2788  102.1
 8.800  0.7338   70.9   1.229  -30.3  0.1611  -12.2  0.2988   98.6
 9.000  0.7488   68.4   1.188  -32.7  0.1615  -13.6  0.3197   95.6
 9.200  0.7695   66.5   1.154  -34.8  0.1622  -14.8  0.3436   93.3
 9.400  0.7910   64.7   1.121  -37.0  0.1630  -16.1  0.3681   91.4
 9.600  0.8101   63.1   1.084  -39.3  0.1639  -17.4  0.3913   89.7
 9.800  0.8266   61.7   1.042  -41.5  0.1649  -18.7  0.4132   88.4
10.000  0.8436   60.4   1.002  -43.9  0.1660  -20.0  0.4354   87.1
!
!  f       NFmin   Gammaopt  rn/50
! GHz       dB    MAG  ANG    -
 0.900      0.79  0.08   30   0.13
 1.800      1.14  0.06  171   0.12
 2.400      1.24  0.10  160   0.13
 3.000      1.32  0.17 -165   0.12
 4.000      1.46  0.32 -132   0.14
 5.000      1.85  0.39 -110   0.25
 6.000      2.30  0.46  -95   0.37
!
! (c) 2016  Infineon Technologies AG, Munich
