! Infineon Technologies  Discrete & RF Semiconductors
! BFP410
! VCE =  4.0 V,  IC =  10 mA
! Common Emitter S-Parameters:                            Nov 2015
# GHz  S  MA  R  50
!  f         S11            S21            S12            S22
! GHz     MAG   ANG      MAG   ANG      MAG   ANG      MAG   ANG
 0.010  0.6687    1.0  25.064  178.7  0.0008   49.8  0.9664    2.6
 0.015  0.6726   -0.2  24.895  178.0  0.0010   55.3  0.9646    1.3
 0.020  0.6767   -1.4  24.731  177.2  0.0013   58.7  0.9633    0.0
 0.025  0.6761   -2.1  24.673  176.7  0.0015   62.4  0.9646   -0.4
 0.030  0.6757   -2.7  24.616  176.2  0.0017   65.2  0.9660   -0.7
 0.035  0.6753   -3.4  24.562  175.8  0.0019   67.5  0.9674   -1.1
 0.040  0.6750   -4.1  24.509  175.3  0.0021   69.3  0.9689   -1.4
 0.045  0.6748   -4.7  24.457  174.8  0.0023   70.8  0.9704   -1.8
 0.050  0.6747   -5.4  24.408  174.3  0.0025   72.0  0.9719   -2.1
 0.055  0.6741   -6.0  24.387  173.9  0.0028   72.8  0.9714   -2.4
 0.060  0.6736   -6.7  24.367  173.5  0.0030   73.5  0.9710   -2.8
 0.065  0.6732   -7.3  24.348  173.1  0.0033   74.0  0.9706   -3.1
 0.070  0.6728   -8.0  24.331  172.7  0.0035   74.5  0.9702   -3.4
 0.075  0.6725   -8.6  24.315  172.3  0.0038   74.9  0.9698   -3.7
 0.080  0.6724   -9.2  24.300  171.8  0.0041   75.2  0.9695   -4.1
 0.085  0.6723   -9.9  24.286  171.4  0.0043   75.6  0.9693   -4.4
 0.090  0.6723  -10.5  24.274  171.0  0.0046   75.8  0.9690   -4.7
 0.095  0.6723  -11.2  24.263  170.6  0.0048   76.1  0.9688   -5.1
 0.100  0.6725  -11.8  24.253  170.2  0.0051   76.3  0.9686   -5.4
 0.105  0.6713  -12.4  24.213  169.7  0.0053   76.3  0.9678   -5.7
 0.110  0.6701  -13.0  24.174  169.3  0.0056   76.3  0.9669   -6.0
 0.115  0.6690  -13.6  24.137  168.8  0.0058   76.3  0.9661   -6.2
 0.120  0.6680  -14.2  24.102  168.4  0.0061   76.3  0.9654   -6.5
 0.125  0.6671  -14.8  24.068  167.9  0.0063   76.2  0.9646   -6.8
 0.130  0.6663  -15.4  24.036  167.5  0.0065   76.2  0.9639   -7.1
 0.135  0.6655  -16.1  24.005  167.0  0.0068   76.2  0.9632   -7.4
 0.140  0.6648  -16.7  23.976  166.5  0.0070   76.2  0.9625   -7.6
 0.145  0.6641  -17.3  23.948  166.1  0.0073   76.2  0.9618   -7.9
 0.150  0.6636  -17.9  23.922  165.6  0.0075   76.2  0.9612   -8.2
 0.155  0.6626  -18.5  23.879  165.2  0.0077   76.1  0.9599   -8.5
 0.160  0.6617  -19.1  23.837  164.8  0.0080   76.0  0.9586   -8.8
 0.165  0.6608  -19.7  23.796  164.3  0.0082   75.9  0.9574   -9.1
 0.170  0.6600  -20.3  23.756  163.9  0.0084   75.9  0.9562   -9.4
 0.175  0.6593  -20.9  23.718  163.5  0.0086   75.8  0.9550   -9.6
 0.180  0.6587  -21.5  23.682  163.0  0.0089   75.7  0.9538   -9.9
 0.185  0.6581  -22.1  23.646  162.6  0.0091   75.7  0.9527  -10.2
 0.190  0.6576  -22.7  23.612  162.2  0.0093   75.6  0.9516  -10.5
 0.195  0.6572  -23.3  23.579  161.7  0.0096   75.6  0.9505  -10.8
 0.200  0.6568  -23.9  23.548  161.3  0.0098   75.5  0.9494  -11.1
 0.220  0.6515  -26.2  23.319  159.5  0.0107   74.8  0.9438  -12.2
 0.240  0.6472  -28.4  23.112  157.7  0.0116   74.2  0.9385  -13.3
 0.260  0.6425  -30.7  22.919  156.0  0.0124   73.5  0.9324  -14.3
 0.280  0.6373  -33.1  22.735  154.4  0.0133   72.8  0.9255  -15.3
 0.300  0.6332  -35.4  22.569  152.7  0.0142   72.2  0.9188  -16.3
 0.320  0.6270  -37.6  22.328  151.1  0.0150   71.4  0.9116  -17.2
 0.340  0.6217  -39.9  22.105  149.5  0.0159   70.7  0.9047  -18.2
 0.360  0.6163  -42.1  21.869  147.9  0.0167   70.0  0.8974  -19.1
 0.380  0.6106  -44.2  21.619  146.3  0.0174   69.3  0.8896  -20.0
 0.400  0.6056  -46.3  21.387  144.7  0.0182   68.6  0.8821  -20.9
 0.420  0.5992  -48.4  21.122  143.2  0.0190   68.0  0.8741  -21.8
 0.440  0.5936  -50.5  20.871  141.8  0.0197   67.4  0.8664  -22.7
 0.450  0.5911  -51.6  20.751  141.0  0.0201   67.1  0.8626  -23.1
 0.460  0.5875  -52.6  20.616  140.3  0.0204   66.8  0.8583  -23.5
 0.480  0.5810  -54.7  20.355  138.9  0.0211   66.2  0.8497  -24.3
 0.500  0.5752  -56.9  20.108  137.4  0.0218   65.7  0.8413  -25.1
 0.520  0.5682  -58.7  19.822  136.1  0.0224   65.1  0.8329  -25.8
 0.540  0.5618  -60.6  19.546  134.8  0.0231   64.4  0.8246  -26.5
 0.560  0.5561  -62.5  19.281  133.4  0.0237   63.9  0.8164  -27.2
 0.580  0.5510  -64.5  19.026  132.0  0.0244   63.3  0.8083  -28.0
 0.600  0.5465  -66.5  18.784  130.6  0.0250   62.8  0.8004  -28.7
 0.620  0.5397  -68.3  18.520  129.5  0.0256   62.3  0.7921  -29.3
 0.640  0.5335  -70.1  18.263  128.3  0.0261   61.8  0.7839  -29.9
 0.660  0.5279  -72.0  18.013  127.2  0.0267   61.3  0.7758  -30.6
 0.680  0.5228  -73.9  17.771  125.9  0.0272   60.8  0.7678  -31.2
 0.700  0.5183  -75.9  17.538  124.7  0.0278   60.4  0.7599  -31.9
 0.720  0.5125  -77.5  17.279  123.7  0.0283   60.0  0.7522  -32.4
 0.740  0.5072  -79.2  17.026  122.6  0.0288   59.6  0.7445  -32.9
 0.760  0.5023  -80.8  16.779  121.5  0.0294   59.2  0.7370  -33.5
 0.780  0.4978  -82.6  16.539  120.4  0.0299   58.9  0.7294  -34.0
 0.800  0.4938  -84.3  16.305  119.2  0.0304   58.5  0.7220  -34.6
 0.820  0.4886  -85.9  16.080  118.3  0.0309   58.1  0.7148  -35.1
 0.840  0.4838  -87.5  15.859  117.3  0.0313   57.7  0.7076  -35.6
 0.860  0.4793  -89.1  15.643  116.3  0.0318   57.4  0.7005  -36.1
 0.880  0.4753  -90.8  15.432  115.3  0.0322   57.0  0.6934  -36.6
 0.900  0.4717  -92.5  15.225  114.3  0.0327   56.7  0.6864  -37.1
 0.920  0.4669  -94.0  15.010  113.5  0.0331   56.4  0.6795  -37.5
 0.940  0.4625  -95.5  14.798  112.6  0.0336   56.2  0.6727  -37.9
 0.960  0.4584  -97.1  14.589  111.7  0.0340   56.0  0.6659  -38.3
 0.980  0.4547  -98.7  14.385  110.8  0.0345   55.7  0.6591  -38.8
 1.000  0.4513 -100.3  14.184  109.8  0.0349   55.5  0.6524  -39.2
 1.020  0.4477 -101.7  13.992  109.0  0.0353   55.2  0.6463  -39.6
 1.040  0.4444 -103.1  13.803  108.2  0.0357   55.0  0.6403  -39.9
 1.060  0.4413 -104.6  13.616  107.4  0.0361   54.8  0.6343  -40.3
 1.080  0.4386 -106.0  13.433  106.6  0.0365   54.5  0.6283  -40.7
 1.100  0.4361 -107.5  13.252  105.7  0.0369   54.3  0.6224  -41.1
 1.120  0.4327 -108.8  13.079  105.0  0.0373   54.1  0.6167  -41.4
 1.140  0.4296 -110.2  12.908  104.2  0.0377   53.9  0.6110  -41.8
 1.160  0.4268 -111.6  12.739  103.4  0.0381   53.7  0.6053  -42.2
 1.180  0.4242 -113.0  12.573  102.6  0.0385   53.5  0.5997  -42.5
 1.200  0.4218 -114.4  12.409  101.8  0.0389   53.3  0.5941  -42.9
 1.220  0.4190 -115.6  12.252  101.1  0.0393   53.1  0.5890  -43.2
 1.240  0.4164 -116.9  12.097  100.5  0.0396   52.9  0.5840  -43.5
 1.260  0.4140 -118.2  11.944   99.8  0.0400   52.8  0.5789  -43.8
 1.280  0.4118 -119.5  11.793   99.0  0.0403   52.6  0.5739  -44.1
 1.300  0.4098 -120.8  11.643   98.3  0.0407   52.4  0.5689  -44.4
 1.320  0.4074 -122.0  11.497   97.7  0.0411   52.3  0.5642  -44.7
 1.340  0.4052 -123.2  11.353   97.0  0.0415   52.1  0.5594  -44.9
 1.360  0.4032 -124.4  11.209   96.4  0.0418   52.0  0.5547  -45.2
 1.380  0.4014 -125.7  11.068   95.7  0.0422   51.8  0.5500  -45.5
 1.400  0.3997 -126.9  10.928   95.0  0.0426   51.7  0.5453  -45.8
 1.420  0.3978 -128.0  10.803   94.4  0.0430   51.6  0.5411  -46.0
 1.440  0.3960 -129.1  10.678   93.9  0.0433   51.5  0.5368  -46.3
 1.460  0.3943 -130.2  10.555   93.3  0.0437   51.3  0.5326  -46.5
 1.480  0.3928 -131.3  10.433   92.7  0.0440   51.2  0.5284  -46.8
 1.500  0.3915 -132.4  10.312   92.1  0.0444   51.1  0.5242  -47.0
 1.520  0.3900 -133.5  10.197   91.5  0.0447   50.9  0.5202  -47.3
 1.540  0.3887 -134.6  10.083   91.0  0.0451   50.8  0.5162  -47.5
 1.560  0.3876 -135.7   9.971   90.4  0.0454   50.6  0.5122  -47.8
 1.580  0.3866 -136.9   9.859   89.8  0.0458   50.5  0.5082  -48.0
 1.600  0.3857 -138.0   9.748   89.2  0.0461   50.3  0.5042  -48.3
 1.620  0.3841 -139.0   9.645   88.7  0.0465   50.2  0.5007  -48.5
 1.640  0.3826 -140.1   9.542   88.2  0.0468   50.1  0.4972  -48.7
 1.660  0.3812 -141.2   9.440   87.6  0.0472   50.0  0.4937  -48.9
 1.680  0.3800 -142.2   9.339   87.1  0.0475   49.9  0.4902  -49.1
 1.700  0.3789 -143.3   9.239   86.5  0.0479   49.8  0.4867  -49.3
 1.720  0.3778 -144.2   9.140   86.0  0.0482   49.7  0.4834  -49.5
 1.740  0.3769 -145.2   9.041   85.5  0.0486   49.6  0.4802  -49.7
 1.760  0.3760 -146.1   8.943   85.0  0.0489   49.5  0.4769  -50.0
 1.780  0.3753 -147.1   8.845   84.4  0.0493   49.4  0.4736  -50.2
 1.800  0.3746 -148.0   8.749   83.9  0.0496   49.3  0.4704  -50.4
 1.820  0.3736 -149.0   8.664   83.4  0.0500   49.2  0.4670  -50.6
 1.840  0.3727 -150.0   8.579   83.0  0.0503   49.1  0.4636  -50.8
 1.860  0.3720 -151.0   8.495   82.5  0.0507   48.9  0.4602  -51.1
 1.880  0.3713 -152.0   8.411   82.0  0.0510   48.8  0.4569  -51.3
 1.900  0.3708 -153.0   8.328   81.5  0.0514   48.7  0.4535  -51.5
 1.920  0.3698 -153.9   8.249   81.1  0.0518   48.6  0.4507  -51.7
 1.940  0.3689 -154.7   8.170   80.6  0.0521   48.5  0.4478  -51.8
 1.960  0.3681 -155.6   8.091   80.1  0.0525   48.4  0.4450  -52.0
 1.980  0.3674 -156.5   8.013   79.7  0.0528   48.3  0.4422  -52.1
 2.000  0.3668 -157.4   7.936   79.2  0.0532   48.2  0.4394  -52.3
 2.020  0.3659 -158.3   7.865   78.8  0.0535   48.1  0.4365  -52.5
 2.040  0.3652 -159.2   7.795   78.4  0.0539   48.0  0.4335  -52.7
 2.060  0.3645 -160.1   7.725   77.9  0.0542   47.9  0.4306  -52.8
 2.080  0.3639 -161.0   7.655   77.5  0.0546   47.7  0.4277  -53.0
 2.100  0.3634 -161.9   7.586   77.1  0.0549   47.6  0.4248  -53.2
 2.120  0.3630 -162.8   7.518   76.6  0.0552   47.5  0.4219  -53.4
 2.140  0.3627 -163.7   7.449   76.1  0.0556   47.4  0.4190  -53.6
 2.160  0.3625 -164.7   7.382   75.7  0.0559   47.3  0.4161  -53.8
 2.180  0.3623 -165.6   7.315   75.2  0.0563   47.2  0.4132  -54.0
 2.200  0.3623 -166.5   7.248   74.7  0.0566   47.1  0.4103  -54.2
 2.220  0.3619 -167.3   7.188   74.3  0.0570   47.0  0.4075  -54.4
 2.240  0.3617 -168.2   7.128   73.9  0.0573   46.8  0.4048  -54.5
 2.260  0.3615 -169.0   7.068   73.5  0.0577   46.7  0.4020  -54.7
 2.280  0.3613 -169.8   7.009   73.1  0.0580   46.6  0.3993  -54.9
 2.300  0.3613 -170.6   6.950   72.7  0.0584   46.5  0.3965  -55.1
 2.320  0.3613 -171.5   6.891   72.3  0.0588   46.4  0.3938  -55.2
 2.340  0.3614 -172.3   6.833   71.8  0.0591   46.2  0.3910  -55.4
 2.360  0.3616 -173.1   6.775   71.4  0.0595   46.1  0.3883  -55.6
 2.380  0.3619 -174.0   6.718   71.0  0.0598   46.0  0.3855  -55.8
 2.400  0.3622 -174.8   6.661   70.5  0.0602   45.9  0.3828  -56.0
 2.420  0.3622 -175.6   6.609   70.1  0.0605   45.8  0.3802  -56.2
 2.440  0.3623 -176.5   6.557   69.8  0.0609   45.7  0.3775  -56.3
 2.460  0.3625 -177.3   6.505   69.4  0.0612   45.6  0.3749  -56.5
 2.480  0.3627 -178.1   6.453   69.0  0.0615   45.4  0.3722  -56.7
 2.500  0.3631 -178.9   6.402   68.6  0.0618   45.3  0.3696  -56.9
 2.520  0.3635 -179.7   6.351   68.2  0.0622   45.2  0.3670  -57.0
 2.540  0.3639  179.4   6.301   67.8  0.0625   45.1  0.3644  -57.2
 2.560  0.3645  178.6   6.250   67.4  0.0628   45.0  0.3617  -57.4
 2.580  0.3651  177.8   6.201   66.9  0.0632   44.9  0.3591  -57.6
 2.600  0.3658  177.0   6.151   66.5  0.0635   44.8  0.3565  -57.8
 2.620  0.3661  176.3   6.106   66.2  0.0638   44.7  0.3541  -58.0
 2.640  0.3664  175.6   6.060   65.8  0.0642   44.6  0.3518  -58.2
 2.660  0.3668  174.9   6.016   65.4  0.0645   44.5  0.3494  -58.3
 2.680  0.3673  174.2   5.971   65.1  0.0649   44.3  0.3471  -58.5
 2.700  0.3678  173.5   5.926   64.7  0.0652   44.2  0.3447  -58.7
 2.720  0.3683  172.8   5.882   64.3  0.0655   44.1  0.3424  -58.9
 2.740  0.3689  172.1   5.838   64.0  0.0659   44.0  0.3400  -59.1
 2.760  0.3696  171.4   5.795   63.6  0.0662   43.9  0.3377  -59.3
 2.780  0.3703  170.7   5.751   63.2  0.0666   43.8  0.3353  -59.5
 2.800  0.3711  170.0   5.708   62.8  0.0669   43.7  0.3330  -59.7
 2.820  0.3717  169.4   5.669   62.5  0.0672   43.6  0.3308  -59.9
 2.840  0.3724  168.7   5.630   62.1  0.0676   43.5  0.3287  -60.0
 2.860  0.3731  168.1   5.592   61.8  0.0679   43.3  0.3265  -60.2
 2.880  0.3738  167.4   5.554   61.4  0.0683   43.2  0.3244  -60.4
 2.900  0.3746  166.8   5.516   61.1  0.0686   43.1  0.3222  -60.6
 2.920  0.3754  166.2   5.478   60.7  0.0690   43.0  0.3201  -60.8
 2.940  0.3763  165.6   5.440   60.3  0.0693   42.8  0.3179  -60.9
 2.960  0.3772  164.9   5.403   60.0  0.0697   42.7  0.3158  -61.1
 2.980  0.3782  164.3   5.366   59.6  0.0700   42.6  0.3136  -61.3
 3.000  0.3792  163.7   5.329   59.2  0.0704   42.5  0.3115  -61.5
 3.100  0.3826  160.7   5.166   57.7  0.0721   41.8  0.3020  -62.4
 3.200  0.3870  157.8   5.006   56.1  0.0738   41.2  0.2925  -63.3
 3.300  0.3924  154.9   4.851   54.4  0.0755   40.6  0.2832  -64.2
 3.400  0.3987  152.1   4.701   52.5  0.0772   40.0  0.2739  -65.3
 3.500  0.4060  149.4   4.555   50.6  0.0789   39.5  0.2647  -66.4
 3.600  0.4111  146.9   4.429   49.1  0.0806   38.8  0.2559  -67.4
 3.700  0.4170  144.5   4.307   47.6  0.0823   38.1  0.2472  -68.4
 3.800  0.4235  142.2   4.187   46.0  0.0841   37.5  0.2386  -69.6
 3.900  0.4308  139.9   4.072   44.2  0.0858   36.9  0.2301  -70.8
 4.000  0.4387  137.7   3.960   42.4  0.0876   36.3  0.2217  -72.1
 4.100  0.4434  135.8   3.859   41.0  0.0892   35.5  0.2135  -73.6
 4.200  0.4486  133.9   3.761   39.5  0.0909   34.7  0.2055  -75.2
 4.300  0.4543  132.1   3.665   38.0  0.0926   33.9  0.1977  -76.9
 4.400  0.4604  130.3   3.572   36.3  0.0943   33.2  0.1900  -78.8
 4.500  0.4669  128.6   3.482   34.6  0.0960   32.5  0.1826  -80.8
 4.600  0.4704  127.1   3.400   33.3  0.0976   31.7  0.1769  -82.3
 4.700  0.4741  125.6   3.320   32.0  0.0992   31.0  0.1713  -84.0
 4.800  0.4782  124.1   3.242   30.5  0.1008   30.3  0.1658  -85.7
 4.900  0.4826  122.7   3.167   29.1  0.1024   29.6  0.1605  -87.6
 5.000  0.4873  121.3   3.093   27.5  0.1040   28.9  0.1554  -89.6
 5.100  0.4902  119.9   3.029   26.3  0.1055   28.1  0.1505  -90.9
 5.200  0.4934  118.6   2.966   24.9  0.1070   27.3  0.1457  -92.4
 5.300  0.4968  117.3   2.905   23.6  0.1085   26.6  0.1410  -93.9
 5.400  0.5005  116.0   2.846   22.2  0.1100   25.8  0.1364  -95.6
 5.500  0.5045  114.7   2.788   20.7  0.1116   25.1  0.1319  -97.3
 5.600  0.5087  113.4   2.736   19.5  0.1131   24.4  0.1262  -99.1
 5.700  0.5132  112.1   2.685   18.2  0.1145   23.6  0.1205 -101.1
 5.800  0.5179  110.8   2.636   16.8  0.1160   22.9  0.1151 -103.3
 5.900  0.5229  109.5   2.588   15.4  0.1176   22.3  0.1098 -105.7
 6.000  0.5281  108.3   2.542   14.0  0.1191   21.6  0.1048 -108.4
 6.100  0.5328  107.1   2.499   12.7  0.1207   20.8  0.1002 -111.3
 6.200  0.5377  105.9   2.456   11.4  0.1223   20.0  0.0960 -114.5
 6.300  0.5428  104.7   2.415   10.1  0.1240   19.3  0.0920 -117.9
 6.400  0.5482  103.5   2.376    8.7  0.1256   18.5  0.0884 -121.7
 6.500  0.5538  102.4   2.338    7.2  0.1273   17.8  0.0852 -125.7
 6.600  0.5576  101.3   2.301    5.9  0.1290   17.0  0.0816 -128.2
 6.800  0.5659   99.1   2.232    3.2  0.1326   15.4  0.0750 -133.9
 7.000  0.5749   97.0   2.167    0.4  0.1362   13.9  0.0692 -140.6
 7.200  0.5806   94.7   2.103   -2.2  0.1398   11.9  0.0623 -149.7
 7.400  0.5873   92.4   2.045   -5.0  0.1435   10.1  0.0573 -160.8
 7.600  0.5942   89.9   1.984   -7.9  0.1467    8.0  0.0551 -175.4
 7.800  0.6017   87.1   1.921  -10.9  0.1496    5.8  0.0576  167.9
 8.000  0.6106   84.4   1.863  -14.0  0.1526    3.6  0.0643  153.7
 8.200  0.6193   81.4   1.797  -16.5  0.1539    1.5  0.0736  139.4
 8.400  0.6298   78.4   1.734  -19.2  0.1553   -0.5  0.0864  128.8
 8.600  0.6433   75.8   1.678  -21.7  0.1566   -2.3  0.1018  119.4
 8.800  0.6596   73.6   1.627  -24.0  0.1576   -3.9  0.1204  111.2
 9.000  0.6769   71.4   1.579  -26.5  0.1587   -5.5  0.1407  105.2
 9.200  0.7008   69.8   1.536  -28.8  0.1598   -7.0  0.1661  100.4
 9.400  0.7252   68.4   1.495  -31.2  0.1610   -8.4  0.1923   96.8
 9.600  0.7476   66.9   1.448  -33.7  0.1622   -9.8  0.2184   94.6
 9.800  0.7680   65.3   1.395  -36.1  0.1634  -11.3  0.2439   93.2
10.000  0.7889   63.8   1.344  -38.8  0.1648  -12.7  0.2696   92.1
10.200  0.7948   62.6   1.297  -40.6  0.1667  -14.0  0.2864   91.1
10.400  0.8011   61.4   1.250  -42.5  0.1686  -15.3  0.3033   90.3
10.600  0.7990   60.8   1.213  -44.2  0.1705  -16.8  0.3168   89.9
10.800  0.7881   60.8   1.184  -45.5  0.1723  -18.5  0.3269   90.0
11.000  0.7772   60.8   1.155  -47.0  0.1743  -20.2  0.3369   90.1
11.200  0.7665   61.0   1.147  -48.2  0.1749  -21.9  0.3429   91.4
11.400  0.7558   61.3   1.140  -49.4  0.1756  -23.6  0.3491   92.6
11.600  0.7580   60.9   1.132  -51.7  0.1766  -25.4  0.3570   93.9
11.800  0.7732   60.0   1.124  -55.3  0.1779  -27.5  0.3669   95.2
12.000  0.7886   59.1   1.121  -58.8  0.1794  -29.5  0.3769   96.5
!
!  f       NFmin   Gammaopt  rn/50
! GHz       dB    MAG  ANG    -
 0.450      1.31  0.05  -19   0.16
 0.900      1.28  0.04    1   0.16
 1.800      1.42  0.03 -159   0.16
 2.400      1.40  0.09 -121   0.17
 5.500      2.27  0.35 -113   0.27
10.000      3.42  0.67  -49   1.87
!
! (c) 2015  Infineon Technologies AG, Munich
