! Infineon Technologies  Discrete & RF Semiconductors
! BFP405F
! VCE =  3.0 V,  IC =  23 mA
! Common Emitter S-Parameters:                            Nov 2015
# GHz  S  MA  R  50
!  f         S11            S21            S12            S22
! GHz     MAG   ANG      MAG   ANG      MAG   ANG      MAG   ANG
 0.030  0.5335   -3.3  29.574  176.4  0.0017  147.7  0.9580   -0.1
 0.035  0.5332   -3.9  29.589  176.0  0.0016  119.2  0.9612   -0.3
 0.040  0.5329   -4.5  29.605  175.7  0.0018   92.5  0.9644   -0.4
 0.045  0.5319   -5.6  29.692  175.0  0.0028  109.1  0.9679   -0.6
 0.050  0.5311   -6.7  29.784  174.3  0.0039  116.7  0.9715   -0.7
 0.055  0.5324   -7.1  29.665  173.9  0.0022  107.1  0.9680   -1.0
 0.060  0.5338   -7.4  29.547  173.4  0.0009   60.9  0.9646   -1.4
 0.065  0.5307   -7.8  29.526  172.8  0.0009   27.3  0.9664   -1.7
 0.070  0.5276   -8.2  29.509  172.1  0.0012    2.7  0.9682   -1.9
 0.075  0.5284   -9.0  29.428  171.7  0.0018   52.6  0.9675   -2.1
 0.080  0.5292   -9.7  29.348  171.2  0.0029   71.0  0.9669   -2.4
 0.085  0.5291  -10.5  29.392  170.9  0.0035   74.4  0.9681   -2.8
 0.090  0.5291  -11.3  29.436  170.6  0.0042   76.8  0.9693   -3.1
 0.095  0.5288  -11.8  29.342  170.1  0.0037   76.7  0.9686   -3.3
 0.100  0.5286  -12.3  29.250  169.6  0.0032   76.5  0.9680   -3.6
 0.105  0.5288  -12.9  29.225  169.1  0.0031   61.1  0.9684   -3.7
 0.110  0.5290  -13.4  29.203  168.5  0.0032   45.6  0.9688   -3.8
 0.115  0.5270  -14.1  29.167  168.1  0.0027   53.5  0.9686   -4.0
 0.120  0.5251  -14.8  29.132  167.7  0.0022   65.0  0.9685   -4.3
 0.125  0.5248  -15.4  29.098  167.1  0.0027   74.6  0.9671   -4.6
 0.130  0.5246  -16.0  29.068  166.5  0.0032   81.2  0.9657   -4.9
 0.135  0.5232  -16.6  29.062  166.2  0.0043   88.2  0.9652   -5.0
 0.140  0.5219  -17.2  29.058  165.8  0.0054   92.3  0.9647   -5.2
 0.145  0.5202  -18.0  29.013  165.3  0.0047   85.9  0.9632   -5.4
 0.150  0.5187  -18.8  28.971  164.8  0.0040   77.2  0.9617   -5.6
 0.155  0.5175  -19.3  28.908  164.3  0.0041   79.1  0.9606   -5.8
 0.160  0.5164  -19.9  28.847  163.7  0.0042   80.9  0.9596   -6.1
 0.165  0.5153  -20.4  28.789  163.2  0.0043   82.6  0.9585   -6.3
 0.170  0.5142  -21.0  28.733  162.6  0.0044   84.2  0.9575   -6.5
 0.175  0.5132  -21.5  28.680  162.1  0.0045   85.8  0.9565   -6.7
 0.180  0.5123  -22.1  28.630  161.5  0.0046   87.3  0.9555   -7.0
 0.185  0.5113  -22.6  28.582  161.0  0.0047   88.7  0.9545   -7.2
 0.190  0.5105  -23.2  28.537  160.4  0.0049   90.0  0.9535   -7.4
 0.195  0.5097  -23.7  28.495  159.9  0.0050   91.3  0.9525   -7.7
 0.200  0.5089  -24.3  28.455  159.3  0.0051   92.5  0.9516   -7.9
 0.220  0.5031  -26.5  28.062  157.5  0.0056   86.0  0.9468   -8.6
 0.240  0.4980  -28.8  27.697  155.7  0.0061   80.6  0.9422   -9.3
 0.260  0.4921  -31.0  27.353  153.9  0.0066   77.0  0.9363  -10.0
 0.280  0.4853  -33.1  27.029  152.0  0.0070   74.8  0.9291  -10.7
 0.300  0.4791  -35.3  26.735  150.1  0.0074   72.9  0.9220  -11.3
 0.320  0.4725  -37.3  26.324  148.5  0.0077   74.9  0.9166  -11.9
 0.340  0.4665  -39.4  25.935  146.8  0.0080   76.8  0.9114  -12.5
 0.360  0.4601  -41.5  25.554  145.1  0.0084   77.1  0.9056  -13.1
 0.380  0.4533  -43.6  25.180  143.5  0.0091   75.9  0.8993  -13.6
 0.400  0.4472  -45.7  24.825  141.9  0.0097   74.9  0.8930  -14.2
 0.420  0.4407  -47.4  24.421  140.5  0.0100   75.2  0.8864  -14.7
 0.440  0.4345  -49.2  24.033  139.0  0.0103   75.4  0.8798  -15.2
 0.450  0.4316  -50.1  23.845  138.2  0.0104   75.5  0.8765  -15.4
 0.460  0.4281  -51.0  23.641  137.5  0.0105   75.3  0.8730  -15.7
 0.480  0.4213  -52.7  23.242  136.1  0.0108   74.9  0.8662  -16.2
 0.500  0.4150  -54.5  22.858  134.7  0.0111   74.5  0.8594  -16.7
 0.520  0.4077  -56.1  22.465  133.5  0.0116   74.7  0.8534  -17.0
 0.540  0.4007  -57.7  22.082  132.3  0.0120   74.9  0.8474  -17.4
 0.560  0.3941  -59.4  21.709  131.0  0.0125   75.1  0.8415  -17.8
 0.580  0.3878  -61.2  21.347  129.7  0.0129   75.3  0.8356  -18.1
 0.600  0.3819  -63.0  20.997  128.4  0.0134   75.5  0.8297  -18.5
 0.620  0.3757  -64.3  20.651  127.4  0.0137   74.7  0.8241  -18.8
 0.640  0.3697  -65.7  20.311  126.3  0.0140   73.9  0.8185  -19.1
 0.660  0.3639  -67.1  19.978  125.3  0.0144   73.2  0.8129  -19.4
 0.680  0.3583  -68.5  19.653  124.2  0.0147   72.5  0.8073  -19.7
 0.700  0.3530  -70.0  19.335  123.0  0.0150   71.8  0.8018  -20.0
 0.720  0.3476  -71.4  19.004  122.1  0.0152   72.0  0.7965  -20.3
 0.740  0.3425  -72.8  18.678  121.1  0.0154   72.3  0.7912  -20.5
 0.760  0.3376  -74.3  18.357  120.2  0.0156   72.5  0.7860  -20.8
 0.780  0.3329  -75.8  18.042  119.1  0.0158   72.7  0.7807  -21.0
 0.800  0.3284  -77.4  17.733  118.1  0.0160   72.9  0.7755  -21.3
 0.820  0.3235  -78.6  17.458  117.3  0.0164   72.7  0.7710  -21.5
 0.840  0.3187  -79.8  17.187  116.5  0.0167   72.6  0.7665  -21.8
 0.860  0.3141  -81.1  16.920  115.7  0.0171   72.5  0.7621  -22.0
 0.880  0.3096  -82.4  16.656  114.8  0.0174   72.3  0.7576  -22.3
 0.900  0.3053  -83.7  16.396  113.9  0.0178   72.2  0.7532  -22.5
 0.920  0.3015  -84.9  16.142  113.2  0.0182   72.2  0.7489  -22.7
 0.940  0.2978  -86.1  15.890  112.5  0.0186   72.2  0.7446  -22.9
 0.960  0.2943  -87.3  15.641  111.7  0.0190   72.2  0.7403  -23.2
 0.980  0.2909  -88.6  15.395  110.9  0.0194   72.2  0.7361  -23.4
 1.000  0.2876  -89.9  15.152  110.1  0.0198   72.2  0.7318  -23.6
 1.020  0.2837  -91.0  14.930  109.5  0.0199   72.2  0.7280  -23.8
 1.040  0.2800  -92.1  14.709  108.8  0.0201   72.1  0.7242  -24.0
 1.060  0.2763  -93.2  14.491  108.2  0.0202   72.1  0.7204  -24.1
 1.080  0.2728  -94.4  14.274  107.5  0.0204   72.0  0.7166  -24.3
 1.100  0.2694  -95.6  14.060  106.8  0.0205   72.0  0.7128  -24.5
 1.120  0.2664  -96.7  13.867  106.2  0.0209   72.2  0.7093  -24.6
 1.140  0.2636  -97.8  13.675  105.6  0.0213   72.5  0.7059  -24.8
 1.160  0.2608  -98.9  13.485  105.0  0.0216   72.7  0.7024  -24.9
 1.180  0.2581 -100.1  13.296  104.4  0.0220   72.9  0.6990  -25.1
 1.200  0.2556 -101.3  13.109  103.7  0.0224   73.1  0.6955  -25.2
 1.220  0.2527 -102.3  12.934  103.2  0.0226   72.5  0.6925  -25.4
 1.240  0.2499 -103.4  12.761  102.6  0.0228   72.0  0.6894  -25.5
 1.260  0.2472 -104.4  12.588  102.0  0.0230   71.4  0.6864  -25.7
 1.280  0.2446 -105.5  12.418  101.4  0.0232   70.8  0.6834  -25.8
 1.300  0.2421 -106.6  12.248  100.8  0.0234   70.3  0.6804  -26.0
 1.320  0.2403 -107.6  12.091  100.3  0.0239   70.8  0.6773  -26.2
 1.340  0.2386 -108.6  11.936   99.9  0.0244   71.2  0.6742  -26.3
 1.360  0.2370 -109.6  11.780   99.4  0.0248   71.7  0.6711  -26.5
 1.380  0.2354 -110.6  11.626   98.9  0.0253   72.1  0.6681  -26.6
 1.400  0.2339 -111.6  11.473   98.4  0.0258   72.5  0.6650  -26.8
 1.420  0.2319 -112.6  11.334   97.9  0.0260   72.2  0.6623  -26.9
 1.440  0.2299 -113.6  11.197   97.5  0.0262   71.9  0.6596  -27.1
 1.460  0.2280 -114.6  11.060   97.0  0.0264   71.6  0.6569  -27.2
 1.480  0.2262 -115.6  10.923   96.5  0.0266   71.4  0.6543  -27.4
 1.500  0.2245 -116.7  10.788   96.0  0.0268   71.1  0.6516  -27.5
 1.520  0.2232 -117.7  10.665   95.6  0.0272   71.1  0.6492  -27.6
 1.540  0.2219 -118.7  10.542   95.2  0.0276   71.1  0.6468  -27.8
 1.560  0.2207 -119.7  10.420   94.7  0.0281   71.1  0.6444  -27.9
 1.580  0.2196 -120.7  10.299   94.3  0.0285   71.1  0.6420  -28.1
 1.600  0.2185 -121.7  10.178   93.8  0.0289   71.1  0.6396  -28.2
 1.620  0.2172 -122.4  10.061   93.4  0.0290   71.0  0.6370  -28.3
 1.640  0.2159 -123.2   9.945   93.0  0.0292   70.9  0.6344  -28.5
 1.660  0.2147 -124.0   9.830   92.6  0.0293   70.8  0.6318  -28.6
 1.680  0.2135 -124.7   9.715   92.1  0.0295   70.7  0.6292  -28.8
 1.700  0.2124 -125.5   9.600   91.7  0.0296   70.6  0.6266  -28.9
 1.720  0.2113 -126.5   9.499   91.3  0.0300   70.7  0.6243  -29.0
 1.740  0.2102 -127.5   9.399   90.9  0.0305   70.9  0.6219  -29.2
 1.760  0.2092 -128.5   9.299   90.5  0.0309   71.0  0.6196  -29.3
 1.780  0.2083 -129.5   9.200   90.1  0.0314   71.1  0.6173  -29.5
 1.800  0.2074 -130.5   9.101   89.7  0.0318   71.2  0.6150  -29.6
 1.820  0.2066 -131.3   9.010   89.4  0.0320   71.4  0.6128  -29.8
 1.840  0.2059 -132.0   8.919   89.1  0.0323   71.7  0.6106  -29.9
 1.860  0.2052 -132.8   8.828   88.8  0.0325   71.9  0.6084  -30.1
 1.880  0.2046 -133.6   8.738   88.4  0.0328   72.2  0.6063  -30.2
 1.900  0.2040 -134.4   8.648   88.1  0.0330   72.4  0.6041  -30.4
 1.920  0.2037 -135.3   8.567   87.7  0.0333   72.4  0.6023  -30.6
 1.940  0.2035 -136.2   8.486   87.4  0.0336   72.4  0.6006  -30.8
 1.960  0.2033 -137.0   8.406   87.0  0.0340   72.3  0.5989  -31.0
 1.980  0.2031 -137.9   8.326   86.6  0.0343   72.3  0.5971  -31.2
 2.000  0.2030 -138.8   8.246   86.2  0.0346   72.3  0.5954  -31.4
 2.020  0.2025 -139.5   8.167   85.9  0.0349   72.1  0.5936  -31.6
 2.040  0.2020 -140.3   8.089   85.5  0.0352   71.9  0.5917  -31.7
 2.060  0.2015 -141.0   8.011   85.2  0.0354   71.8  0.5899  -31.9
 2.080  0.2011 -141.8   7.933   84.9  0.0357   71.6  0.5880  -32.0
 2.100  0.2007 -142.5   7.856   84.5  0.0360   71.4  0.5862  -32.2
 2.120  0.2001 -143.3   7.783   84.2  0.0364   71.5  0.5844  -32.4
 2.140  0.1995 -144.1   7.710   83.8  0.0367   71.5  0.5825  -32.5
 2.160  0.1990 -144.9   7.638   83.5  0.0371   71.6  0.5807  -32.7
 2.180  0.1985 -145.8   7.566   83.2  0.0374   71.6  0.5788  -32.8
 2.200  0.1981 -146.6   7.494   82.8  0.0378   71.7  0.5770  -33.0
 2.220  0.1979 -147.3   7.429   82.5  0.0381   71.6  0.5753  -33.1
 2.240  0.1977 -148.0   7.363   82.3  0.0384   71.5  0.5735  -33.3
 2.260  0.1976 -148.8   7.298   82.0  0.0388   71.5  0.5718  -33.4
 2.280  0.1975 -149.5   7.234   81.7  0.0391   71.4  0.5700  -33.6
 2.300  0.1974 -150.2   7.169   81.4  0.0394   71.3  0.5683  -33.7
 2.320  0.1971 -150.8   7.109   81.1  0.0398   71.2  0.5668  -33.8
 2.340  0.1968 -151.4   7.048   80.8  0.0402   71.1  0.5654  -34.0
 2.360  0.1966 -152.1   6.988   80.5  0.0406   71.1  0.5639  -34.1
 2.380  0.1963 -152.7   6.929   80.2  0.0410   71.0  0.5625  -34.3
 2.400  0.1961 -153.3   6.869   79.9  0.0414   70.9  0.5610  -34.4
 2.420  0.1959 -153.9   6.812   79.6  0.0416   71.1  0.5597  -34.6
 2.440  0.1957 -154.5   6.756   79.4  0.0418   71.3  0.5584  -34.7
 2.460  0.1955 -155.0   6.700   79.1  0.0421   71.5  0.5571  -34.9
 2.480  0.1953 -155.6   6.644   78.8  0.0423   71.7  0.5558  -35.0
 2.500  0.1952 -156.2   6.588   78.5  0.0425   71.9  0.5545  -35.2
 2.520  0.1948 -156.8   6.534   78.2  0.0428   71.6  0.5532  -35.3
 2.540  0.1944 -157.4   6.481   78.0  0.0430   71.3  0.5519  -35.4
 2.560  0.1941 -157.9   6.428   77.7  0.0433   71.0  0.5506  -35.6
 2.580  0.1937 -158.5   6.375   77.4  0.0435   70.7  0.5493  -35.7
 2.600  0.1934 -159.1   6.322   77.1  0.0438   70.4  0.5480  -35.8
 2.620  0.1934 -159.7   6.275   76.8  0.0443   70.4  0.5468  -35.9
 2.640  0.1934 -160.3   6.227   76.6  0.0448   70.3  0.5456  -36.0
 2.660  0.1935 -160.9   6.180   76.3  0.0452   70.3  0.5445  -36.2
 2.680  0.1935 -161.5   6.133   76.1  0.0457   70.2  0.5433  -36.3
 2.700  0.1936 -162.1   6.086   75.8  0.0462   70.2  0.5421  -36.4
 2.720  0.1935 -162.7   6.043   75.6  0.0465   70.1  0.5412  -36.5
 2.740  0.1933 -163.2   5.999   75.3  0.0468   70.0  0.5403  -36.6
 2.760  0.1932 -163.8   5.956   75.1  0.0471   69.8  0.5394  -36.8
 2.780  0.1932 -164.3   5.913   74.8  0.0474   69.7  0.5385  -36.9
 2.800  0.1931 -164.9   5.870   74.6  0.0477   69.6  0.5376  -37.0
 2.820  0.1932 -165.4   5.826   74.3  0.0480   69.5  0.5366  -37.1
 2.840  0.1933 -165.9   5.783   74.1  0.0483   69.5  0.5355  -37.3
 2.860  0.1934 -166.4   5.739   73.8  0.0485   69.4  0.5345  -37.4
 2.880  0.1935 -166.9   5.696   73.6  0.0488   69.4  0.5334  -37.6
 2.900  0.1936 -167.4   5.653   73.3  0.0491   69.3  0.5324  -37.7
 2.920  0.1933 -167.9   5.615   73.1  0.0495   69.4  0.5313  -37.8
 2.940  0.1931 -168.5   5.577   72.8  0.0499   69.5  0.5302  -38.0
 2.960  0.1928 -169.0   5.539   72.6  0.0502   69.6  0.5290  -38.1
 2.980  0.1926 -169.6   5.502   72.3  0.0506   69.7  0.5279  -38.3
 3.000  0.1924 -170.1   5.464   72.1  0.0510   69.8  0.5268  -38.4
 3.100  0.1931 -172.3   5.280   70.9  0.0518   69.3  0.5226  -39.0
 3.200  0.1939 -175.3   5.104   69.8  0.0539   69.0  0.5180  -39.7
 3.300  0.1937 -176.9   4.951   68.6  0.0552   68.5  0.5144  -40.3
 3.400  0.1944 -179.8   4.793   67.6  0.0572   68.0  0.5111  -40.9
 3.500  0.1935  178.4   4.654   66.5  0.0584   68.1  0.5086  -41.4
 3.600  0.1941  175.9   4.517   65.5  0.0605   67.6  0.5058  -41.8
 3.700  0.1954  173.7   4.388   64.5  0.0617   67.2  0.5026  -42.4
 3.800  0.1963  171.5   4.266   63.5  0.0633   66.7  0.5007  -42.9
 3.900  0.1969  169.6   4.157   62.5  0.0651   66.6  0.4974  -43.4
 4.000  0.1973  167.5   4.050   61.6  0.0673   66.6  0.4950  -43.9
 4.100  0.1986  165.7   3.949   60.5  0.0681   65.8  0.4920  -44.4
 4.200  0.2004  163.3   3.852   59.6  0.0704   65.9  0.4889  -44.8
 4.300  0.2030  161.9   3.765   58.6  0.0714   65.2  0.4866  -45.3
 4.400  0.2040  159.7   3.678   57.8  0.0736   64.5  0.4846  -45.8
 4.500  0.2064  158.5   3.592   56.9  0.0748   64.8  0.4829  -46.1
 4.600  0.2078  156.3   3.510   55.8  0.0770   64.0  0.4792  -46.6
 4.700  0.2102  155.0   3.437   55.0  0.0784   63.5  0.4762  -47.0
 4.800  0.2124  153.2   3.368   54.1  0.0799   63.4  0.4748  -47.5
 4.900  0.2142  152.2   3.297   53.2  0.0817   63.0  0.4714  -47.8
 5.000  0.2161  150.4   3.232   52.2  0.0834   62.6  0.4692  -48.4
 5.100  0.2177  148.9   3.167   51.4  0.0850   62.1  0.4663  -48.7
 5.200  0.2202  147.6   3.110   50.4  0.0872   61.8  0.4634  -49.2
 5.300  0.2225  146.1   3.051   49.5  0.0886   61.2  0.4613  -49.7
 5.400  0.2231  145.0   2.996   48.7  0.0903   60.9  0.4598  -50.1
 5.500  0.2253  143.4   2.942   47.8  0.0924   60.4  0.4571  -50.5
 5.600  0.2269  142.1   2.889   46.9  0.0938   59.9  0.4547  -50.9
 5.700  0.2296  140.8   2.839   46.0  0.0949   59.2  0.4521  -51.3
 5.800  0.2304  139.6   2.793   45.1  0.0974   59.1  0.4497  -51.8
 5.900  0.2324  138.0   2.746   44.3  0.0988   58.7  0.4481  -52.1
 6.000  0.2330  136.7   2.698   43.4  0.1006   58.3  0.4460  -52.5
 6.100  0.2350  135.2   2.652   42.5  0.1024   57.8  0.4432  -52.8
 6.200  0.2363  133.8   2.609   41.6  0.1038   57.3  0.4412  -53.3
 6.300  0.2390  132.3   2.570   40.7  0.1052   56.6  0.4383  -53.6
 6.400  0.2392  130.7   2.528   39.9  0.1073   56.7  0.4367  -54.0
 6.500  0.2427  129.0   2.487   39.0  0.1091   55.9  0.4343  -54.4
 6.600  0.2441  127.7   2.450   38.2  0.1108   55.5  0.4319  -54.6
 6.800  0.2489  124.5   2.377   36.5  0.1137   54.7  0.4267  -55.2
 7.000  0.2538  121.4   2.309   34.8  0.1170   53.9  0.4211  -55.5
 7.200  0.2607  118.5   2.241   33.3  0.1207   53.2  0.4126  -56.1
 7.400  0.2695  116.2   2.181   31.7  0.1243   52.6  0.4049  -56.6
 7.600  0.2790  114.1   2.126   30.3  0.1284   51.6  0.3958  -57.0
 7.800  0.2899  112.3   2.074   28.8  0.1326   50.8  0.3854  -57.5
 8.000  0.3015  110.9   2.025   27.2  0.1363   49.8  0.3722  -58.1
 8.200  0.3156  110.0   1.983   25.7  0.1401   48.7  0.3556  -58.8
 8.400  0.3298  109.1   1.943   24.2  0.1439   47.6  0.3390  -59.5
 8.600  0.3441  108.3   1.904   22.6  0.1479   46.6  0.3201  -60.3
 8.800  0.3586  107.6   1.867   21.0  0.1520   45.6  0.2991  -61.2
 9.000  0.3732  107.0   1.832   19.4  0.1562   44.7  0.2781  -62.2
 9.200  0.3864  106.3   1.799   17.9  0.1603   43.5  0.2549  -63.7
 9.400  0.3997  105.7   1.768   16.3  0.1645   42.4  0.2319  -65.5
 9.600  0.4124  105.0   1.739   14.7  0.1688   41.2  0.2081  -67.9
 9.800  0.4245  104.2   1.711   13.0  0.1733   40.0  0.1838  -71.1
10.000  0.4366  103.5   1.685   11.2  0.1778   38.9  0.1603  -75.3
10.200  0.4485  102.2   1.657    9.5  0.1818   37.4  0.1349  -81.4
10.400  0.4606  101.0   1.630    7.7  0.1859   36.0  0.1117  -90.2
10.600  0.4721   99.5   1.601    5.9  0.1895   34.5  0.0936 -103.7
10.800  0.4832   97.7   1.572    3.9  0.1925   33.0  0.0844 -122.6
11.000  0.4947   96.0   1.544    1.9  0.1957   31.5  0.0858 -143.3
11.200  0.5041   94.1   1.507    0.2  0.1979   30.2  0.1022 -157.9
11.400  0.5140   92.4   1.472   -1.7  0.2002   28.9  0.1233 -168.1
11.600  0.5209   90.9   1.438   -3.3  0.2027   27.8  0.1481 -173.4
11.800  0.5248   89.6   1.405   -4.7  0.2053   26.8  0.1746 -175.7
12.000  0.5289   88.3   1.372   -6.1  0.2080   25.9  0.2014 -177.4
!
!  f       NFmin   Gammaopt  rn/50
! GHz       dB    MAG  ANG    -
 0.450      2.38  0.02 -151   0.44
 0.900      2.41  0.04 -143   0.29
 1.500      2.48  0.07 -134   0.34
 1.900      2.55  0.09 -131   0.43
 2.400      2.73  0.10 -127   0.19
 3.000      2.85  0.11 -124   0.20
 3.500      2.94  0.12 -121   0.31
 4.500      3.22  0.17 -107   0.53
 5.500      3.59  0.31  -88   0.51
!
! (c) 2015  Infineon Technologies AG, Munich
