! Infineon Technologies  Discrete & RF Semiconductors
! BFP405
! VCE =  4.5 V,  IC =  1.8 mA
! Common Emitter S-Parameters:                            Jan 2016
# GHz  S  MA  R  50
!  f         S11            S21            S12            S22
! GHz     MAG   ANG      MAG   ANG      MAG   ANG      MAG   ANG
 0.010  0.9370    0.6   6.295 -177.5  0.0012    0.1  1.0000    0.9
 0.015  0.9409    0.1   6.238 -179.4  0.0010   21.6  0.9951    0.6
 0.020  0.9448   -0.3   6.188  178.7  0.0010   47.7  0.9902    0.2
 0.025  0.9450   -0.5   6.181  178.6  0.0012   52.5  0.9908    0.1
 0.030  0.9453   -0.8   6.174  178.6  0.0013   56.2  0.9915   -0.0
 0.035  0.9455   -1.0   6.167  178.5  0.0015   59.1  0.9921   -0.2
 0.040  0.9458   -1.2   6.161  178.4  0.0017   61.3  0.9928   -0.3
 0.045  0.9461   -1.5   6.154  178.4  0.0018   63.2  0.9934   -0.4
 0.050  0.9464   -1.7   6.147  178.3  0.0020   64.7  0.9941   -0.5
 0.055  0.9458   -1.9   6.149  178.1  0.0021   66.2  0.9941   -0.6
 0.060  0.9453   -2.0   6.152  177.9  0.0023   67.6  0.9941   -0.7
 0.065  0.9447   -2.2   6.155  177.7  0.0024   68.8  0.9940   -0.8
 0.070  0.9442   -2.3   6.157  177.5  0.0025   69.9  0.9940   -0.9
 0.075  0.9437   -2.5   6.160  177.2  0.0026   70.9  0.9940   -1.0
 0.080  0.9431   -2.7   6.163  177.0  0.0028   71.8  0.9940   -1.1
 0.085  0.9426   -2.8   6.166  176.8  0.0029   72.6  0.9940   -1.2
 0.090  0.9421   -3.0   6.169  176.6  0.0030   73.4  0.9940   -1.3
 0.095  0.9416   -3.1   6.172  176.4  0.0032   74.1  0.9940   -1.4
 0.100  0.9411   -3.3   6.175  176.2  0.0033   74.7  0.9940   -1.5
 0.105  0.9410   -3.5   6.173  176.1  0.0034   75.3  0.9938   -1.6
 0.110  0.9410   -3.6   6.171  175.9  0.0036   75.9  0.9936   -1.7
 0.115  0.9409   -3.8   6.169  175.8  0.0037   76.5  0.9934   -1.8
 0.120  0.9408   -4.0   6.167  175.7  0.0039   77.0  0.9932   -1.9
 0.125  0.9408   -4.1   6.165  175.6  0.0040   77.5  0.9931   -2.0
 0.130  0.9408   -4.3   6.163  175.4  0.0041   77.9  0.9929   -2.1
 0.135  0.9407   -4.5   6.161  175.3  0.0043   78.3  0.9927   -2.2
 0.140  0.9407   -4.7   6.160  175.2  0.0044   78.7  0.9925   -2.3
 0.145  0.9407   -4.8   6.158  175.0  0.0046   79.1  0.9924   -2.4
 0.150  0.9407   -5.0   6.156  174.9  0.0047   79.4  0.9922   -2.5
 0.155  0.9404   -5.2   6.155  174.7  0.0048   79.5  0.9922   -2.6
 0.160  0.9402   -5.4   6.154  174.6  0.0050   79.6  0.9921   -2.7
 0.165  0.9399   -5.6   6.153  174.4  0.0051   79.8  0.9921   -2.8
 0.170  0.9397   -5.8   6.152  174.2  0.0053   79.9  0.9921   -2.9
 0.175  0.9394   -5.9   6.151  174.1  0.0054   80.0  0.9921   -2.9
 0.180  0.9392   -6.1   6.151  173.9  0.0055   80.1  0.9921   -3.0
 0.185  0.9390   -6.3   6.150  173.7  0.0057   80.2  0.9920   -3.1
 0.190  0.9388   -6.5   6.149  173.5  0.0058   80.2  0.9920   -3.2
 0.195  0.9386   -6.7   6.149  173.4  0.0060   80.3  0.9920   -3.3
 0.200  0.9384   -6.9   6.148  173.2  0.0061   80.4  0.9920   -3.4
 0.220  0.9376   -7.5   6.155  172.5  0.0067   80.4  0.9887   -3.8
 0.240  0.9368   -8.1   6.164  171.8  0.0074   80.3  0.9853   -4.1
 0.260  0.9365   -8.8   6.164  171.2  0.0080   80.4  0.9852   -4.4
 0.280  0.9367   -9.6   6.158  170.6  0.0087   80.7  0.9882   -4.7
 0.300  0.9370  -10.4   6.152  170.0  0.0094   80.9  0.9912   -5.0
 0.320  0.9357  -11.0   6.140  169.4  0.0100   80.7  0.9897   -5.4
 0.340  0.9345  -11.7   6.128  168.7  0.0106   80.6  0.9881   -5.7
 0.360  0.9339  -12.4   6.126  168.0  0.0112   80.4  0.9870   -6.1
 0.380  0.9339  -13.1   6.132  167.3  0.0119   80.3  0.9861   -6.4
 0.400  0.9340  -13.9   6.139  166.6  0.0125   80.2  0.9853   -6.7
 0.420  0.9323  -14.5   6.124  166.0  0.0131   79.9  0.9848   -7.0
 0.440  0.9307  -15.2   6.111  165.3  0.0137   79.7  0.9844   -7.3
 0.450  0.9300  -15.5   6.104  165.0  0.0140   79.6  0.9842   -7.5
 0.460  0.9293  -15.8   6.104  164.7  0.0143   79.4  0.9837   -7.7
 0.480  0.9280  -16.5   6.105  164.0  0.0150   79.2  0.9827   -8.0
 0.500  0.9269  -17.2   6.107  163.4  0.0156   78.9  0.9818   -8.4
 0.520  0.9252  -17.9   6.095  162.7  0.0162   78.6  0.9809   -8.7
 0.540  0.9236  -18.6   6.084  162.0  0.0168   78.3  0.9800   -9.1
 0.560  0.9222  -19.3   6.074  161.4  0.0175   78.0  0.9792   -9.4
 0.580  0.9209  -20.0   6.064  160.7  0.0181   77.7  0.9784   -9.8
 0.600  0.9198  -20.7   6.056  160.0  0.0187   77.5  0.9776  -10.1
 0.620  0.9180  -21.4   6.046  159.4  0.0193   77.2  0.9764  -10.4
 0.640  0.9163  -22.1   6.036  158.7  0.0199   76.8  0.9753  -10.7
 0.660  0.9147  -22.7   6.027  158.1  0.0205   76.5  0.9741  -11.1
 0.680  0.9132  -23.4   6.019  157.4  0.0211   76.3  0.9731  -11.4
 0.700  0.9119  -24.1   6.012  156.8  0.0217   76.0  0.9720  -11.7
 0.720  0.9097  -24.8   6.004  156.1  0.0223   75.6  0.9707  -12.0
 0.740  0.9076  -25.5   5.997  155.5  0.0229   75.3  0.9695  -12.4
 0.760  0.9056  -26.3   5.991  154.8  0.0236   74.9  0.9682  -12.7
 0.780  0.9038  -27.0   5.986  154.2  0.0242   74.6  0.9671  -13.1
 0.800  0.9021  -27.7   5.981  153.5  0.0248   74.3  0.9659  -13.4
 0.820  0.8998  -28.4   5.969  152.8  0.0254   73.9  0.9645  -13.7
 0.840  0.8977  -29.1   5.957  152.2  0.0260   73.6  0.9630  -14.1
 0.860  0.8957  -29.7   5.947  151.5  0.0266   73.3  0.9617  -14.4
 0.880  0.8938  -30.4   5.937  150.9  0.0272   73.0  0.9603  -14.8
 0.900  0.8920  -31.1   5.928  150.2  0.0278   72.7  0.9590  -15.1
 0.920  0.8895  -31.8   5.914  149.5  0.0284   72.3  0.9575  -15.4
 0.940  0.8871  -32.4   5.902  148.9  0.0290   72.0  0.9561  -15.7
 0.960  0.8849  -33.1   5.890  148.2  0.0296   71.6  0.9547  -16.1
 0.980  0.8828  -33.8   5.878  147.6  0.0302   71.3  0.9533  -16.4
 1.000  0.8808  -34.5   5.868  146.9  0.0308   71.0  0.9519  -16.7
 1.020  0.8783  -35.2   5.856  146.3  0.0314   70.6  0.9502  -17.0
 1.040  0.8759  -35.9   5.844  145.7  0.0320   70.2  0.9485  -17.4
 1.060  0.8737  -36.6   5.833  145.0  0.0325   69.9  0.9469  -17.7
 1.080  0.8716  -37.4   5.823  144.4  0.0331   69.5  0.9453  -18.1
 1.100  0.8696  -38.1   5.813  143.8  0.0337   69.2  0.9437  -18.4
 1.120  0.8664  -38.8   5.796  143.2  0.0343   68.8  0.9419  -18.7
 1.140  0.8633  -39.4   5.781  142.6  0.0349   68.4  0.9401  -19.0
 1.160  0.8604  -40.1   5.765  141.9  0.0354   68.1  0.9383  -19.4
 1.180  0.8575  -40.8   5.751  141.3  0.0360   67.7  0.9366  -19.7
 1.200  0.8548  -41.5   5.737  140.7  0.0366   67.4  0.9349  -20.0
 1.220  0.8519  -42.2   5.720  140.1  0.0372   67.0  0.9330  -20.3
 1.240  0.8490  -42.8   5.704  139.5  0.0377   66.7  0.9311  -20.6
 1.260  0.8463  -43.5   5.689  138.8  0.0383   66.4  0.9293  -20.9
 1.280  0.8438  -44.2   5.674  138.2  0.0388   66.0  0.9275  -21.2
 1.300  0.8413  -44.9   5.660  137.6  0.0394   65.7  0.9257  -21.5
 1.320  0.8382  -45.6   5.644  137.0  0.0399   65.3  0.9236  -21.8
 1.340  0.8351  -46.3   5.629  136.4  0.0405   65.0  0.9216  -22.1
 1.360  0.8322  -47.0   5.614  135.7  0.0410   64.6  0.9196  -22.5
 1.380  0.8294  -47.7   5.600  135.1  0.0416   64.2  0.9176  -22.8
 1.400  0.8268  -48.4   5.587  134.5  0.0421   63.9  0.9156  -23.1
 1.420  0.8235  -49.1   5.569  133.9  0.0426   63.5  0.9135  -23.4
 1.440  0.8204  -49.8   5.552  133.3  0.0431   63.2  0.9114  -23.7
 1.460  0.8174  -50.5   5.535  132.7  0.0437   62.9  0.9093  -23.9
 1.480  0.8145  -51.2   5.519  132.1  0.0442   62.5  0.9072  -24.2
 1.500  0.8117  -51.9   5.504  131.5  0.0447   62.2  0.9052  -24.5
 1.520  0.8082  -52.6   5.489  130.9  0.0452   61.8  0.9031  -24.8
 1.540  0.8049  -53.3   5.475  130.3  0.0457   61.5  0.9010  -25.1
 1.560  0.8016  -54.0   5.461  129.8  0.0463   61.2  0.8989  -25.5
 1.580  0.7985  -54.7   5.448  129.2  0.0468   60.8  0.8969  -25.8
 1.600  0.7955  -55.4   5.435  128.6  0.0473   60.5  0.8949  -26.1
 1.620  0.7925  -56.1   5.416  128.0  0.0478   60.1  0.8926  -26.4
 1.640  0.7895  -56.7   5.398  127.5  0.0483   59.8  0.8904  -26.7
 1.660  0.7867  -57.4   5.381  126.9  0.0488   59.4  0.8882  -26.9
 1.680  0.7840  -58.0   5.363  126.3  0.0493   59.0  0.8860  -27.2
 1.700  0.7814  -58.7   5.347  125.7  0.0498   58.7  0.8838  -27.5
 1.720  0.7777  -59.4   5.328  125.1  0.0503   58.3  0.8816  -27.8
 1.740  0.7741  -60.1   5.309  124.5  0.0508   58.0  0.8795  -28.1
 1.760  0.7706  -60.8   5.291  123.9  0.0513   57.7  0.8773  -28.3
 1.780  0.7672  -61.5   5.274  123.3  0.0518   57.3  0.8752  -28.6
 1.800  0.7639  -62.2   5.257  122.7  0.0523   57.0  0.8731  -28.9
 1.820  0.7608  -62.9   5.240  122.2  0.0528   56.7  0.8707  -29.2
 1.840  0.7578  -63.6   5.224  121.7  0.0532   56.3  0.8684  -29.5
 1.860  0.7549  -64.3   5.208  121.1  0.0537   56.0  0.8661  -29.7
 1.880  0.7522  -65.0   5.192  120.6  0.0541   55.7  0.8638  -30.0
 1.900  0.7495  -65.7   5.177  120.1  0.0546   55.4  0.8615  -30.3
 1.920  0.7459  -66.4   5.159  119.5  0.0551   55.0  0.8592  -30.6
 1.940  0.7423  -67.0   5.142  119.0  0.0555   54.7  0.8570  -30.9
 1.960  0.7389  -67.7   5.125  118.4  0.0560   54.4  0.8548  -31.1
 1.980  0.7356  -68.4   5.109  117.9  0.0564   54.0  0.8526  -31.4
 2.000  0.7324  -69.1   5.093  117.3  0.0569   53.7  0.8504  -31.7
 2.020  0.7289  -69.8   5.074  116.8  0.0573   53.4  0.8480  -31.9
 2.040  0.7255  -70.4   5.056  116.2  0.0577   53.0  0.8456  -32.2
 2.060  0.7222  -71.1   5.039  115.7  0.0581   52.7  0.8432  -32.4
 2.080  0.7190  -71.8   5.021  115.2  0.0586   52.4  0.8409  -32.7
 2.100  0.7159  -72.5   5.004  114.6  0.0590   52.0  0.8386  -32.9
 2.120  0.7128  -73.2   4.988  114.1  0.0594   51.7  0.8362  -33.2
 2.140  0.7099  -73.9   4.972  113.6  0.0598   51.4  0.8339  -33.4
 2.160  0.7072  -74.6   4.957  113.0  0.0602   51.1  0.8316  -33.7
 2.180  0.7045  -75.3   4.942  112.5  0.0607   50.8  0.8294  -33.9
 2.200  0.7019  -76.0   4.927  111.9  0.0611   50.5  0.8271  -34.2
 2.220  0.6983  -76.7   4.909  111.4  0.0615   50.2  0.8246  -34.5
 2.240  0.6948  -77.4   4.891  110.9  0.0619   49.8  0.8222  -34.7
 2.260  0.6914  -78.1   4.874  110.4  0.0623   49.5  0.8198  -35.0
 2.280  0.6882  -78.8   4.857  109.9  0.0627   49.2  0.8174  -35.3
 2.300  0.6850  -79.5   4.841  109.3  0.0631   48.9  0.8150  -35.5
 2.320  0.6819  -80.2   4.825  108.8  0.0635   48.6  0.8127  -35.8
 2.340  0.6789  -80.9   4.809  108.3  0.0639   48.3  0.8103  -36.1
 2.360  0.6761  -81.6   4.794  107.8  0.0643   48.0  0.8080  -36.3
 2.380  0.6733  -82.4   4.779  107.2  0.0647   47.7  0.8057  -36.6
 2.400  0.6707  -83.1   4.765  106.7  0.0651   47.4  0.8034  -36.9
 2.420  0.6672  -83.8   4.747  106.2  0.0655   47.1  0.8010  -37.1
 2.440  0.6639  -84.4   4.729  105.7  0.0658   46.8  0.7986  -37.4
 2.460  0.6606  -85.1   4.712  105.2  0.0662   46.5  0.7962  -37.6
 2.480  0.6575  -85.8   4.695  104.7  0.0666   46.2  0.7938  -37.8
 2.500  0.6544  -86.5   4.679  104.2  0.0669   45.9  0.7915  -38.1
 2.520  0.6514  -87.2   4.663  103.7  0.0673   45.6  0.7891  -38.3
 2.540  0.6485  -87.9   4.647  103.2  0.0677   45.3  0.7868  -38.6
 2.560  0.6457  -88.6   4.632  102.6  0.0680   45.0  0.7845  -38.8
 2.580  0.6431  -89.4   4.617  102.1  0.0684   44.7  0.7822  -39.1
 2.600  0.6405  -90.1   4.602  101.6  0.0688   44.4  0.7799  -39.3
 2.620  0.6373  -90.8   4.586  101.1  0.0691   44.1  0.7774  -39.5
 2.640  0.6341  -91.5   4.570  100.7  0.0695   43.8  0.7749  -39.8
 2.660  0.6310  -92.2   4.555  100.2  0.0698   43.5  0.7724  -40.0
 2.680  0.6281  -92.9   4.540   99.7  0.0701   43.2  0.7699  -40.3
 2.700  0.6252  -93.6   4.526   99.2  0.0705   42.9  0.7674  -40.5
 2.720  0.6224  -94.3   4.511   98.8  0.0708   42.6  0.7650  -40.8
 2.740  0.6198  -95.1   4.497   98.3  0.0712   42.3  0.7625  -41.0
 2.760  0.6172  -95.8   4.483   97.8  0.0715   42.1  0.7601  -41.3
 2.780  0.6148  -96.6   4.470   97.3  0.0719   41.8  0.7577  -41.5
 2.800  0.6124  -97.3   4.457   96.8  0.0722   41.5  0.7553  -41.8
 2.820  0.6091  -98.0   4.441   96.3  0.0725   41.2  0.7528  -42.0
 2.840  0.6060  -98.7   4.425   95.8  0.0728   40.9  0.7503  -42.3
 2.860  0.6029  -99.4   4.409   95.4  0.0731   40.6  0.7478  -42.5
 2.880  0.5999 -100.1   4.394   94.9  0.0735   40.3  0.7454  -42.7
 2.900  0.5970 -100.8   4.378   94.4  0.0738   40.0  0.7429  -43.0
 2.920  0.5942 -101.5   4.364   93.9  0.0741   39.7  0.7405  -43.2
 2.940  0.5915 -102.2   4.349   93.4  0.0744   39.4  0.7381  -43.5
 2.960  0.5889 -102.9   4.335   92.9  0.0747   39.2  0.7357  -43.7
 2.980  0.5863 -103.7   4.321   92.4  0.0751   38.9  0.7333  -44.0
 3.000  0.5839 -104.4   4.308   91.9  0.0754   38.6  0.7309  -44.2
 3.100  0.5659 -107.8   4.224   89.7  0.0766   37.2  0.7179  -45.2
 3.200  0.5499 -111.3   4.147   87.4  0.0778   35.8  0.7051  -46.3
 3.300  0.5362 -115.1   4.076   85.0  0.0791   34.4  0.6926  -47.4
 3.400  0.5249 -119.0   4.013   82.5  0.0804   33.2  0.6804  -48.6
 3.500  0.5162 -123.1   3.958   80.0  0.0818   31.9  0.6684  -49.8
 3.600  0.5005 -126.6   3.877   77.9  0.0826   30.6  0.6563  -50.8
 3.700  0.4869 -130.3   3.801   75.8  0.0835   29.4  0.6444  -51.8
 3.800  0.4754 -134.3   3.730   73.6  0.0844   28.2  0.6327  -52.9
 3.900  0.4662 -138.4   3.666   71.3  0.0854   27.0  0.6212  -54.0
 4.000  0.4595 -142.6   3.607   68.9  0.0864   25.8  0.6100  -55.2
 4.100  0.4486 -146.4   3.532   67.0  0.0870   24.7  0.5994  -56.2
 4.200  0.4399 -150.5   3.461   64.9  0.0876   23.7  0.5891  -57.2
 4.300  0.4333 -154.6   3.395   62.8  0.0882   22.6  0.5789  -58.2
 4.400  0.4292 -158.9   3.334   60.7  0.0889   21.6  0.5689  -59.3
 4.500  0.4274 -163.2   3.277   58.4  0.0896   20.6  0.5591  -60.4
 4.600  0.4230 -166.9   3.209   56.6  0.0900   19.7  0.5500  -61.3
 4.700  0.4204 -170.6   3.145   54.8  0.0904   18.8  0.5410  -62.3
 4.800  0.4196 -174.3   3.083   52.9  0.0908   17.9  0.5322  -63.3
 4.900  0.4206 -178.1   3.026   50.9  0.0912   17.0  0.5236  -64.3
 5.000  0.4234  178.2   2.972   48.8  0.0917   16.1  0.5151  -65.4
 5.100  0.4230  175.3   2.915   47.2  0.0920   15.4  0.5076  -66.2
 5.200  0.4237  172.3   2.859   45.6  0.0922   14.6  0.5002  -67.0
 5.300  0.4255  169.4   2.807   43.9  0.0925   13.9  0.4929  -67.9
 5.400  0.4284  166.5   2.756   42.1  0.0928   13.2  0.4858  -68.8
 5.500  0.4324  163.7   2.709   40.3  0.0931   12.5  0.4787  -69.7
 5.600  0.4324  161.4   2.663   38.8  0.0934   12.0  0.4721  -70.4
 5.700  0.4332  159.0   2.619   37.3  0.0937   11.4  0.4655  -71.2
 5.800  0.4347  156.7   2.577   35.7  0.0940   10.9  0.4591  -72.0
 5.900  0.4369  154.4   2.538   34.0  0.0944   10.4  0.4527  -72.8
 6.000  0.4398  152.1   2.500   32.3  0.0947    9.9  0.4464  -73.6
 6.100  0.4394  150.0   2.462   30.8  0.0952    9.4  0.4402  -74.4
 6.200  0.4397  147.8   2.426   29.2  0.0956    8.9  0.4342  -75.3
 6.300  0.4406  145.7   2.392   27.6  0.0961    8.4  0.4282  -76.2
 6.400  0.4420  143.6   2.360   26.0  0.0966    8.0  0.4224  -77.1
 6.500  0.4441  141.5   2.330   24.3  0.0971    7.5  0.4166  -78.0
 6.600  0.4423  139.1   2.293   22.8  0.0976    7.0  0.4106  -78.8
 6.800  0.4410  134.4   2.225   19.6  0.0987    6.0  0.3987  -80.5
 7.000  0.4428  129.6   2.164   16.2  0.0998    5.1  0.3873  -82.3
 7.200  0.4449  124.7   2.099   13.3  0.1011    4.1  0.3759  -83.9
 7.400  0.4503  119.9   2.039   10.1  0.1024    3.1  0.3649  -85.7
 7.600  0.4593  115.1   1.983    7.1  0.1037    2.0  0.3530  -87.5
 7.800  0.4721  110.4   1.930    4.2  0.1050    0.8  0.3402  -89.4
 8.000  0.4878  106.0   1.881    1.2  0.1064   -0.3  0.3278  -91.4
 8.200  0.5045  102.2   1.828   -1.5  0.1074   -1.4  0.3100  -93.4
 8.400  0.5233   98.6   1.779   -4.4  0.1084   -2.5  0.2926  -95.6
 8.600  0.5420   95.5   1.734   -7.3  0.1094   -3.5  0.2730  -98.2
 8.800  0.5600   92.9   1.693  -10.1  0.1105   -4.6  0.2515 -101.4
 9.000  0.5791   90.4   1.656  -13.0  0.1116   -5.6  0.2308 -105.1
 9.200  0.5959   87.8   1.614  -16.0  0.1125   -6.7  0.2082 -109.8
 9.400  0.6138   85.3   1.578  -19.2  0.1135   -7.7  0.1874 -115.7
 9.600  0.6275   82.4   1.532  -22.2  0.1145   -8.6  0.1689 -123.2
 9.800  0.6376   79.2   1.477  -25.2  0.1154   -9.5  0.1540 -132.6
10.000  0.6498   76.0   1.426  -28.4  0.1164  -10.4  0.1441 -143.6
!
!  f       NFmin   Gammaopt  rn/50
! GHz       dB    MAG  ANG    -
!
! noise parameter not available yet for this operation point!
!
! (c) 2016  Infineon Technologies AG, Munich
