! Infineon Technologies  Discrete & RF Semiconductors
! BFP405
! VCE =  3.5 V,  IC =  4.5 mA
! Common Emitter S-Parameters:                            Jan 2016
# GHz  S  MA  R  50
!  f         S11            S21            S12            S22
! GHz     MAG   ANG      MAG   ANG      MAG   ANG      MAG   ANG
 0.010  0.8421   -0.1  12.889 -177.9  0.0009  -15.5  0.9898    1.2
 0.015  0.8474   -0.3  12.802 -179.9  0.0006   19.3  0.9886    0.6
 0.020  0.8528   -0.5  12.732  178.0  0.0007   66.4  0.9876    0.0
 0.025  0.8531   -0.9  12.709  177.9  0.0009   68.8  0.9881   -0.1
 0.030  0.8535   -1.2  12.686  177.7  0.0010   70.5  0.9886   -0.3
 0.035  0.8539   -1.6  12.664  177.6  0.0012   71.6  0.9891   -0.4
 0.040  0.8544   -2.0  12.641  177.5  0.0014   72.5  0.9896   -0.5
 0.045  0.8549   -2.3  12.618  177.3  0.0015   73.2  0.9902   -0.7
 0.050  0.8554   -2.7  12.596  177.2  0.0017   73.8  0.9907   -0.8
 0.055  0.8552   -2.9  12.598  176.9  0.0018   75.2  0.9907   -1.0
 0.060  0.8550   -3.1  12.600  176.6  0.0020   76.5  0.9907   -1.1
 0.065  0.8548   -3.4  12.602  176.4  0.0021   77.5  0.9907   -1.3
 0.070  0.8546   -3.6  12.604  176.1  0.0023   78.5  0.9908   -1.4
 0.075  0.8545   -3.8  12.607  175.8  0.0024   79.3  0.9908   -1.6
 0.080  0.8543   -4.0  12.610  175.5  0.0025   80.0  0.9909   -1.7
 0.085  0.8542   -4.2  12.614  175.2  0.0027   80.7  0.9909   -1.9
 0.090  0.8541   -4.5  12.618  175.0  0.0028   81.3  0.9910   -2.0
 0.095  0.8540   -4.7  12.622  174.7  0.0030   81.8  0.9910   -2.2
 0.100  0.8539   -4.9  12.626  174.4  0.0031   82.3  0.9911   -2.3
 0.105  0.8536   -5.2  12.618  174.2  0.0032   82.5  0.9908   -2.4
 0.110  0.8533   -5.5  12.611  174.0  0.0034   82.7  0.9905   -2.5
 0.115  0.8531   -5.7  12.604  173.8  0.0035   82.9  0.9903   -2.7
 0.120  0.8529   -6.0  12.597  173.6  0.0037   83.0  0.9900   -2.8
 0.125  0.8526   -6.3  12.590  173.5  0.0038   83.2  0.9897   -2.9
 0.130  0.8525   -6.6  12.583  173.3  0.0040   83.3  0.9895   -3.0
 0.135  0.8523   -6.9  12.576  173.1  0.0041   83.5  0.9892   -3.1
 0.140  0.8521   -7.1  12.570  172.9  0.0043   83.6  0.9890   -3.3
 0.145  0.8520   -7.4  12.563  172.7  0.0044   83.7  0.9887   -3.4
 0.150  0.8519   -7.7  12.557  172.5  0.0046   83.8  0.9885   -3.5
 0.155  0.8513   -7.9  12.550  172.3  0.0047   83.7  0.9883   -3.6
 0.160  0.8508   -8.2  12.544  172.0  0.0049   83.6  0.9882   -3.8
 0.165  0.8503   -8.4  12.538  171.8  0.0050   83.5  0.9880   -3.9
 0.170  0.8498   -8.7  12.532  171.5  0.0052   83.5  0.9878   -4.0
 0.175  0.8493   -8.9  12.526  171.3  0.0053   83.4  0.9877   -4.1
 0.180  0.8488   -9.2  12.521  171.0  0.0055   83.3  0.9875   -4.3
 0.185  0.8484   -9.4  12.515  170.8  0.0056   83.3  0.9874   -4.4
 0.190  0.8479   -9.7  12.510  170.5  0.0058   83.2  0.9873   -4.5
 0.195  0.8475   -9.9  12.506  170.3  0.0059   83.2  0.9871   -4.7
 0.200  0.8471  -10.2  12.501  170.0  0.0061   83.1  0.9870   -4.8
 0.220  0.8447  -11.2  12.502  169.0  0.0067   82.8  0.9839   -5.3
 0.240  0.8426  -12.3  12.506  168.0  0.0074   82.5  0.9808   -5.8
 0.260  0.8413  -13.3  12.490  167.1  0.0080   82.1  0.9799   -6.2
 0.280  0.8406  -14.4  12.452  166.2  0.0085   81.7  0.9812   -6.7
 0.300  0.8403  -15.5  12.417  165.3  0.0091   81.3  0.9826   -7.1
 0.320  0.8375  -16.5  12.370  164.3  0.0097   80.9  0.9803   -7.6
 0.340  0.8349  -17.4  12.326  163.4  0.0103   80.5  0.9780   -8.1
 0.360  0.8328  -18.4  12.297  162.4  0.0109   80.0  0.9760   -8.5
 0.380  0.8312  -19.5  12.283  161.4  0.0116   79.4  0.9743   -9.0
 0.400  0.8298  -20.5  12.272  160.4  0.0122   78.9  0.9726   -9.4
 0.420  0.8267  -21.5  12.218  159.5  0.0128   78.6  0.9709   -9.8
 0.440  0.8239  -22.5  12.167  158.6  0.0133   78.3  0.9692  -10.3
 0.450  0.8226  -23.0  12.143  158.1  0.0136   78.2  0.9684  -10.5
 0.460  0.8210  -23.5  12.127  157.7  0.0139   77.9  0.9673  -10.7
 0.480  0.8180  -24.5  12.098  156.8  0.0145   77.5  0.9651  -11.2
 0.500  0.8153  -25.5  12.071  155.9  0.0151   77.0  0.9630  -11.7
 0.520  0.8114  -26.5  12.013  155.0  0.0157   76.5  0.9606  -12.1
 0.540  0.8078  -27.4  11.959  154.0  0.0162   76.0  0.9583  -12.6
 0.560  0.8044  -28.4  11.908  153.1  0.0168   75.5  0.9560  -13.0
 0.580  0.8012  -29.4  11.860  152.2  0.0173   75.1  0.9538  -13.5
 0.600  0.7983  -30.4  11.815  151.2  0.0179   74.7  0.9516  -13.9
 0.620  0.7941  -31.4  11.760  150.3  0.0184   74.2  0.9489  -14.3
 0.640  0.7901  -32.3  11.708  149.5  0.0190   73.8  0.9462  -14.8
 0.660  0.7864  -33.3  11.659  148.6  0.0195   73.4  0.9436  -15.2
 0.680  0.7829  -34.3  11.613  147.7  0.0201   73.0  0.9411  -15.7
 0.700  0.7796  -35.3  11.569  146.8  0.0206   72.6  0.9386  -16.1
 0.720  0.7750  -36.2  11.512  145.9  0.0211   72.1  0.9357  -16.5
 0.740  0.7706  -37.2  11.459  145.1  0.0216   71.7  0.9329  -16.9
 0.760  0.7665  -38.1  11.407  144.2  0.0222   71.3  0.9301  -17.4
 0.780  0.7625  -39.1  11.359  143.3  0.0227   70.9  0.9274  -17.8
 0.800  0.7588  -40.1  11.313  142.4  0.0232   70.5  0.9247  -18.2
 0.820  0.7542  -41.0  11.250  141.6  0.0237   70.0  0.9215  -18.6
 0.840  0.7497  -41.9  11.190  140.7  0.0242   69.6  0.9183  -19.0
 0.860  0.7455  -42.8  11.132  139.9  0.0248   69.2  0.9152  -19.3
 0.880  0.7415  -43.8  11.077  139.1  0.0253   68.8  0.9121  -19.7
 0.900  0.7376  -44.7  11.024  138.2  0.0258   68.4  0.9091  -20.1
 0.920  0.7327  -45.6  10.958  137.4  0.0263   68.0  0.9059  -20.5
 0.940  0.7279  -46.5  10.894  136.6  0.0267   67.6  0.9027  -20.9
 0.960  0.7234  -47.4  10.832  135.8  0.0272   67.2  0.8995  -21.2
 0.980  0.7190  -48.4  10.772  134.9  0.0276   66.9  0.8964  -21.6
 1.000  0.7148  -49.3  10.715  134.1  0.0281   66.5  0.8933  -22.0
 1.020  0.7100  -50.2  10.652  133.3  0.0286   66.1  0.8900  -22.4
 1.040  0.7054  -51.1  10.591  132.6  0.0290   65.7  0.8867  -22.8
 1.060  0.7010  -52.1  10.532  131.8  0.0295   65.3  0.8835  -23.1
 1.080  0.6967  -53.0  10.475  131.0  0.0299   65.0  0.8803  -23.5
 1.100  0.6927  -54.0  10.420  130.2  0.0304   64.6  0.8772  -23.9
 1.120  0.6873  -54.8  10.351  129.5  0.0308   64.2  0.8738  -24.2
 1.140  0.6821  -55.7  10.284  128.7  0.0313   63.9  0.8703  -24.6
 1.160  0.6770  -56.5  10.219  128.0  0.0317   63.6  0.8670  -24.9
 1.180  0.6721  -57.4  10.156  127.3  0.0322   63.2  0.8636  -25.3
 1.200  0.6673  -58.3  10.094  126.5  0.0326   62.9  0.8603  -25.6
 1.220  0.6625  -59.1  10.027  125.8  0.0330   62.6  0.8569  -25.9
 1.240  0.6579  -60.0   9.962  125.0  0.0334   62.2  0.8535  -26.3
 1.260  0.6534  -60.8   9.898  124.3  0.0338   61.9  0.8502  -26.6
 1.280  0.6491  -61.7   9.836  123.6  0.0342   61.6  0.8469  -27.0
 1.300  0.6449  -62.6   9.776  122.8  0.0346   61.3  0.8436  -27.3
 1.320  0.6400  -63.5   9.713  122.1  0.0350   60.9  0.8402  -27.6
 1.340  0.6352  -64.3   9.650  121.5  0.0354   60.6  0.8368  -27.9
 1.360  0.6305  -65.2   9.590  120.8  0.0357   60.3  0.8334  -28.3
 1.380  0.6260  -66.1   9.530  120.1  0.0361   59.9  0.8300  -28.6
 1.400  0.6217  -67.0   9.472  119.4  0.0365   59.6  0.8267  -28.9
 1.420  0.6170  -67.8   9.407  118.7  0.0369   59.3  0.8233  -29.2
 1.440  0.6124  -68.7   9.344  118.1  0.0373   59.0  0.8199  -29.5
 1.460  0.6079  -69.5   9.281  117.4  0.0376   58.7  0.8166  -29.8
 1.480  0.6036  -70.4   9.221  116.7  0.0380   58.5  0.8132  -30.1
 1.500  0.5994  -71.3   9.161  116.0  0.0384   58.2  0.8099  -30.4
 1.520  0.5946  -72.1   9.103  115.4  0.0388   57.9  0.8066  -30.7
 1.540  0.5899  -72.9   9.046  114.7  0.0391   57.6  0.8033  -31.0
 1.560  0.5853  -73.7   8.990  114.1  0.0395   57.3  0.8000  -31.2
 1.580  0.5808  -74.6   8.935  113.5  0.0398   57.1  0.7967  -31.5
 1.600  0.5765  -75.4   8.881  112.8  0.0402   56.8  0.7935  -31.8
 1.620  0.5722  -76.2   8.819  112.2  0.0405   56.5  0.7903  -32.1
 1.640  0.5681  -77.0   8.759  111.6  0.0409   56.2  0.7870  -32.4
 1.660  0.5640  -77.8   8.699  111.0  0.0412   55.9  0.7838  -32.6
 1.680  0.5601  -78.7   8.641  110.3  0.0416   55.7  0.7807  -32.9
 1.700  0.5563  -79.5   8.583  109.7  0.0419   55.4  0.7775  -33.2
 1.720  0.5518  -80.3   8.524  109.1  0.0422   55.1  0.7744  -33.5
 1.740  0.5475  -81.1   8.465  108.5  0.0426   54.9  0.7713  -33.7
 1.760  0.5432  -81.9   8.408  107.9  0.0429   54.6  0.7682  -34.0
 1.780  0.5391  -82.8   8.351  107.2  0.0433   54.4  0.7651  -34.2
 1.800  0.5351  -83.6   8.296  106.6  0.0436   54.1  0.7621  -34.5
 1.820  0.5312  -84.4   8.243  106.1  0.0439   53.9  0.7589  -34.7
 1.840  0.5273  -85.2   8.191  105.5  0.0442   53.7  0.7557  -35.0
 1.860  0.5236  -86.1   8.140  105.0  0.0445   53.4  0.7525  -35.2
 1.880  0.5200  -86.9   8.089  104.5  0.0448   53.2  0.7494  -35.5
 1.900  0.5165  -87.8   8.039  103.9  0.0451   53.0  0.7462  -35.7
 1.920  0.5126  -88.6   7.986  103.4  0.0454   52.8  0.7432  -36.0
 1.940  0.5088  -89.4   7.933  102.8  0.0457   52.5  0.7403  -36.2
 1.960  0.5052  -90.2   7.881  102.2  0.0461   52.3  0.7373  -36.5
 1.980  0.5016  -91.0   7.829  101.7  0.0464   52.0  0.7344  -36.7
 2.000  0.4981  -91.8   7.779  101.1  0.0467   51.8  0.7315  -37.0
 2.020  0.4943  -92.5   7.729  100.6  0.0470   51.6  0.7286  -37.2
 2.040  0.4906  -93.3   7.679  100.1  0.0473   51.4  0.7257  -37.4
 2.060  0.4870  -94.1   7.630   99.6  0.0476   51.1  0.7228  -37.6
 2.080  0.4835  -94.9   7.581   99.1  0.0479   50.9  0.7199  -37.8
 2.100  0.4801  -95.7   7.533   98.5  0.0481   50.7  0.7170  -38.0
 2.120  0.4767  -96.5   7.486   98.0  0.0484   50.5  0.7141  -38.2
 2.140  0.4735  -97.3   7.439   97.5  0.0487   50.3  0.7112  -38.5
 2.160  0.4704  -98.1   7.393   96.9  0.0490   50.1  0.7084  -38.7
 2.180  0.4673  -99.0   7.348   96.4  0.0493   49.9  0.7055  -38.9
 2.200  0.4644  -99.8   7.303   95.8  0.0496   49.7  0.7027  -39.1
 2.220  0.4610 -100.6   7.258   95.3  0.0499   49.5  0.6999  -39.3
 2.240  0.4577 -101.4   7.213   94.9  0.0502   49.3  0.6971  -39.5
 2.260  0.4545 -102.2   7.169   94.4  0.0504   49.1  0.6944  -39.8
 2.280  0.4514 -103.0   7.125   93.9  0.0507   48.9  0.6916  -40.0
 2.300  0.4483 -103.8   7.082   93.4  0.0510   48.7  0.6889  -40.2
 2.320  0.4454 -104.6   7.039   92.9  0.0513   48.5  0.6861  -40.5
 2.340  0.4425 -105.5   6.997   92.4  0.0516   48.3  0.6834  -40.7
 2.360  0.4398 -106.4   6.956   91.9  0.0518   48.1  0.6807  -40.9
 2.380  0.4371 -107.2   6.915   91.4  0.0521   47.9  0.6780  -41.2
 2.400  0.4346 -108.1   6.874   90.9  0.0524   47.7  0.6753  -41.4
 2.420  0.4317 -108.9   6.832   90.5  0.0527   47.5  0.6726  -41.6
 2.440  0.4288 -109.6   6.791   90.0  0.0529   47.3  0.6700  -41.8
 2.460  0.4260 -110.4   6.750   89.5  0.0532   47.2  0.6673  -42.0
 2.480  0.4233 -111.2   6.709   89.1  0.0535   47.0  0.6647  -42.1
 2.500  0.4207 -112.0   6.669   88.6  0.0537   46.8  0.6621  -42.3
 2.520  0.4182 -112.8   6.630   88.1  0.0540   46.7  0.6594  -42.5
 2.540  0.4157 -113.6   6.591   87.7  0.0543   46.5  0.6568  -42.7
 2.560  0.4134 -114.4   6.552   87.2  0.0546   46.3  0.6542  -42.9
 2.580  0.4111 -115.3   6.514   86.7  0.0548   46.2  0.6516  -43.1
 2.600  0.4089 -116.1   6.476   86.2  0.0551   46.0  0.6490  -43.3
 2.620  0.4063 -116.9   6.440   85.8  0.0554   45.8  0.6464  -43.5
 2.640  0.4038 -117.7   6.404   85.4  0.0556   45.6  0.6438  -43.7
 2.660  0.4014 -118.5   6.368   84.9  0.0559   45.4  0.6413  -43.9
 2.680  0.3990 -119.3   6.333   84.5  0.0561   45.3  0.6387  -44.1
 2.700  0.3968 -120.1   6.298   84.1  0.0564   45.1  0.6361  -44.3
 2.720  0.3946 -121.0   6.263   83.6  0.0567   44.9  0.6336  -44.5
 2.740  0.3925 -121.8   6.229   83.2  0.0569   44.7  0.6311  -44.8
 2.760  0.3905 -122.7   6.195   82.7  0.0572   44.5  0.6285  -45.0
 2.780  0.3885 -123.5   6.162   82.3  0.0574   44.4  0.6260  -45.2
 2.800  0.3867 -124.4   6.129   81.8  0.0577   44.2  0.6235  -45.4
 2.820  0.3843 -125.2   6.095   81.4  0.0580   44.0  0.6210  -45.6
 2.840  0.3819 -126.0   6.061   81.0  0.0582   43.9  0.6186  -45.8
 2.860  0.3796 -126.8   6.027   80.5  0.0585   43.7  0.6161  -46.0
 2.880  0.3774 -127.6   5.994   80.1  0.0588   43.5  0.6137  -46.1
 2.900  0.3752 -128.4   5.961   79.7  0.0590   43.4  0.6113  -46.3
 2.920  0.3732 -129.2   5.928   79.2  0.0593   43.2  0.6088  -46.5
 2.940  0.3712 -130.0   5.896   78.8  0.0596   43.1  0.6064  -46.7
 2.960  0.3693 -130.9   5.864   78.3  0.0599   42.9  0.6040  -46.9
 2.980  0.3674 -131.7   5.832   77.9  0.0601   42.8  0.6016  -47.1
 3.000  0.3657 -132.6   5.801   77.4  0.0604   42.6  0.5992  -47.3
 3.100  0.3548 -136.5   5.648   75.6  0.0616   41.8  0.5870  -48.1
 3.200  0.3456 -140.5   5.501   73.6  0.0628   41.0  0.5749  -49.0
 3.300  0.3383 -144.8   5.360   71.6  0.0640   40.2  0.5630  -49.9
 3.400  0.3329 -149.2   5.227   69.5  0.0652   39.4  0.5512  -50.9
 3.500  0.3296 -153.8   5.101   67.2  0.0664   38.7  0.5396  -51.9
 3.600  0.3224 -157.9   4.973   65.5  0.0675   37.9  0.5288  -52.8
 3.700  0.3168 -162.2   4.849   63.6  0.0686   37.1  0.5182  -53.7
 3.800  0.3131 -166.5   4.731   61.7  0.0698   36.4  0.5077  -54.6
 3.900  0.3112 -171.0   4.619   59.7  0.0709   35.7  0.4973  -55.6
 4.000  0.3113 -175.5   4.512   57.6  0.0721   35.0  0.4871  -56.6
 4.100  0.3100 -179.5   4.405   56.0  0.0732   34.3  0.4778  -57.5
 4.200  0.3102  176.5   4.301   54.4  0.0742   33.5  0.4687  -58.4
 4.300  0.3119  172.5   4.201   52.6  0.0753   32.8  0.4597  -59.3
 4.400  0.3151  168.5   4.105   50.8  0.0764   32.2  0.4508  -60.3
 4.500  0.3198  164.7   4.013   48.9  0.0775   31.5  0.4420  -61.3
 4.600  0.3229  161.6   3.924   47.4  0.0785   30.8  0.4340  -62.2
 4.700  0.3270  158.6   3.837   45.9  0.0795   30.1  0.4262  -63.1
 4.800  0.3320  155.6   3.754   44.3  0.0805   29.5  0.4184  -64.0
 4.900  0.3378  152.8   3.673   42.6  0.0816   28.8  0.4108  -65.0
 5.000  0.3444  150.0   3.596   40.8  0.0826   28.2  0.4033  -66.0
 5.100  0.3487  147.8   3.523   39.5  0.0836   27.6  0.3968  -66.7
 5.200  0.3534  145.7   3.453   38.1  0.0846   26.9  0.3903  -67.5
 5.300  0.3587  143.6   3.385   36.6  0.0856   26.3  0.3839  -68.3
 5.400  0.3644  141.6   3.319   35.1  0.0866   25.7  0.3776  -69.1
 5.500  0.3705  139.7   3.255   33.5  0.0876   25.1  0.3714  -70.0
 5.600  0.3734  138.0   3.198   32.2  0.0886   24.5  0.3655  -70.7
 5.700  0.3766  136.3   3.142   30.8  0.0897   23.9  0.3596  -71.4
 5.800  0.3802  134.6   3.088   29.4  0.0908   23.4  0.3538  -72.1
 5.900  0.3840  133.0   3.036   28.0  0.0918   22.8  0.3480  -72.8
 6.000  0.3882  131.4   2.986   26.5  0.0929   22.3  0.3423  -73.6
 6.100  0.3899  129.7   2.939   25.1  0.0941   21.6  0.3367  -74.4
 6.200  0.3920  128.1   2.893   23.8  0.0952   21.0  0.3311  -75.2
 6.300  0.3944  126.4   2.850   22.3  0.0964   20.4  0.3256  -76.0
 6.400  0.3971  124.8   2.808   20.8  0.0976   19.8  0.3202  -76.9
 6.500  0.4001  123.2   2.768   19.3  0.0988   19.2  0.3148  -77.8
 6.600  0.4008  121.2   2.723   17.9  0.1000   18.5  0.3092  -78.5
 6.800  0.4036  117.1   2.638   15.1  0.1024   17.2  0.2981  -80.1
 7.000  0.4084  113.1   2.560   12.0  0.1048   15.9  0.2873  -81.7
 7.200  0.4145  109.0   2.482    9.3  0.1072   14.4  0.2766  -83.3
 7.400  0.4227  104.9   2.409    6.5  0.1096   12.9  0.2662  -85.0
 7.600  0.4344  101.1   2.340    3.7  0.1120   11.3  0.2546  -86.8
 7.800  0.4494   97.5   2.273    1.0  0.1141    9.6  0.2418  -88.6
 8.000  0.4660   94.1   2.212   -1.8  0.1164    8.0  0.2293  -90.7
 8.200  0.4847   91.3   2.147   -4.3  0.1181    6.4  0.2108  -92.5
 8.400  0.5045   88.7   2.087   -6.9  0.1198    4.8  0.1924  -94.6
 8.600  0.5239   86.4   2.031   -9.5  0.1215    3.2  0.1719  -97.1
 8.800  0.5427   84.5   1.981  -12.1  0.1231    1.7  0.1494 -100.3
 9.000  0.5621   82.6   1.935  -14.8  0.1248    0.2  0.1274 -104.6
 9.200  0.5801   80.5   1.884  -17.6  0.1261   -1.3  0.1042 -110.8
 9.400  0.5989   78.5   1.837  -20.6  0.1274   -2.9  0.0829 -120.3
 9.600  0.6133   76.0   1.782  -23.3  0.1287   -4.3  0.0657 -136.1
 9.800  0.6241   73.0   1.718  -26.0  0.1298   -5.6  0.0569 -160.0
10.000  0.6365   70.2   1.657  -28.8  0.1311   -6.9  0.0599  173.7
!
!  f       NFmin   Gammaopt  rn/50
! GHz       dB    MAG  ANG    -
!
! noise parameter not available yet for this operation point!
!
! (c) 2016  Infineon Technologies AG, Munich
