! Infineon Technologies  Discrete & RF Semiconductors
! BFP540FESD
! VCE =  1.0 V,  IC =  5.0 mA
! Common Emitter S-Parameters:                            Nov 2015
# GHz  S  MA  R  50
!  f         S11            S21            S12            S22
! GHz     MAG   ANG      MAG   ANG      MAG   ANG      MAG   ANG
 0.010  0.8475   -0.5  16.219  178.9  0.0010   97.0  0.9862   -3.6
 0.015  0.8441   -2.1  16.029  178.7  0.0015   95.6  0.9835   -2.6
 0.020  0.8414   -3.8  15.840  178.4  0.0021   94.9  0.9811   -1.6
 0.025  0.8425   -4.2  15.839  177.9  0.0027   93.2  0.9811   -2.0
 0.030  0.8436   -4.5  15.839  177.5  0.0033   92.1  0.9811   -2.4
 0.035  0.8448   -4.9  15.841  177.0  0.0039   91.3  0.9812   -2.9
 0.040  0.8460   -5.2  15.843  176.6  0.0045   90.8  0.9814   -3.3
 0.045  0.8472   -5.6  15.846  176.1  0.0051   90.3  0.9816   -3.7
 0.050  0.8485   -5.9  15.850  175.7  0.0057   90.0  0.9818   -4.1
 0.055  0.8474   -6.5  15.840  175.2  0.0063   89.3  0.9813   -4.5
 0.060  0.8464   -7.1  15.831  174.7  0.0069   88.8  0.9808   -4.9
 0.065  0.8455   -7.7  15.824  174.3  0.0075   88.3  0.9803   -5.3
 0.070  0.8448   -8.3  15.817  173.8  0.0081   87.9  0.9799   -5.7
 0.075  0.8441   -8.9  15.812  173.3  0.0087   87.6  0.9796   -6.1
 0.080  0.8434   -9.5  15.807  172.8  0.0093   87.3  0.9793   -6.6
 0.085  0.8429  -10.2  15.804  172.3  0.0099   87.0  0.9790   -7.0
 0.090  0.8425  -10.8  15.802  171.9  0.0105   86.8  0.9788   -7.4
 0.095  0.8422  -11.4  15.801  171.4  0.0111   86.6  0.9787   -7.8
 0.100  0.8420  -12.0  15.801  170.9  0.0117   86.4  0.9786   -8.2
 0.105  0.8402  -12.7  15.788  170.5  0.0123   85.8  0.9771   -8.6
 0.110  0.8386  -13.4  15.777  170.0  0.0128   85.2  0.9757   -9.0
 0.115  0.8370  -14.1  15.766  169.6  0.0134   84.6  0.9743   -9.4
 0.120  0.8357  -14.9  15.756  169.1  0.0140   84.2  0.9730   -9.7
 0.125  0.8344  -15.6  15.747  168.7  0.0145   83.7  0.9717  -10.1
 0.130  0.8333  -16.3  15.740  168.2  0.0151   83.3  0.9705  -10.5
 0.135  0.8323  -17.0  15.733  167.8  0.0157   82.9  0.9693  -10.9
 0.140  0.8314  -17.7  15.727  167.3  0.0163   82.5  0.9682  -11.3
 0.145  0.8307  -18.5  15.722  166.9  0.0168   82.2  0.9671  -11.7
 0.150  0.8301  -19.2  15.718  166.4  0.0174   81.9  0.9660  -12.1
 0.155  0.8288  -19.7  15.681  165.9  0.0179   81.4  0.9642  -12.5
 0.160  0.8277  -20.3  15.646  165.4  0.0184   81.0  0.9625  -12.9
 0.165  0.8265  -20.8  15.611  165.0  0.0189   80.5  0.9608  -13.3
 0.170  0.8255  -21.4  15.578  164.5  0.0194   80.1  0.9591  -13.6
 0.175  0.8245  -21.9  15.545  164.0  0.0199   79.7  0.9575  -14.0
 0.180  0.8237  -22.5  15.514  163.5  0.0204   79.3  0.9560  -14.4
 0.185  0.8229  -23.0  15.484  163.0  0.0209   79.0  0.9545  -14.8
 0.190  0.8221  -23.6  15.455  162.5  0.0214   78.6  0.9530  -15.2
 0.195  0.8215  -24.1  15.428  162.0  0.0219   78.3  0.9516  -15.6
 0.200  0.8209  -24.7  15.401  161.5  0.0224   78.0  0.9502  -16.0
 0.220  0.8146  -27.0  15.281  159.8  0.0244   76.5  0.9435  -17.6
 0.240  0.8097  -29.4  15.174  158.2  0.0265   75.2  0.9375  -19.2
 0.260  0.8038  -31.8  15.054  156.4  0.0285   73.8  0.9302  -20.7
 0.280  0.7968  -34.3  14.921  154.6  0.0304   72.4  0.9213  -22.1
 0.300  0.7914  -36.8  14.802  152.8  0.0323   71.2  0.9131  -23.6
 0.320  0.7827  -38.9  14.623  151.3  0.0341   69.9  0.9028  -24.9
 0.340  0.7751  -41.1  14.455  149.7  0.0359   68.7  0.8930  -26.3
 0.360  0.7687  -43.3  14.299  148.0  0.0377   67.6  0.8837  -27.7
 0.380  0.7634  -45.5  14.154  146.4  0.0396   66.7  0.8749  -29.1
 0.400  0.7593  -47.8  14.021  144.7  0.0414   65.8  0.8667  -30.5
 0.420  0.7492  -49.9  13.839  143.3  0.0429   64.8  0.8549  -31.7
 0.440  0.7401  -52.0  13.666  141.8  0.0444   63.8  0.8434  -32.9
 0.450  0.7359  -53.1  13.584  141.0  0.0451   63.3  0.8378  -33.5
 0.460  0.7320  -54.1  13.503  140.2  0.0459   62.9  0.8324  -34.2
 0.480  0.7250  -56.4  13.350  138.7  0.0474   62.0  0.8217  -35.5
 0.500  0.7191  -58.6  13.206  137.1  0.0489   61.2  0.8115  -36.8
 0.520  0.7102  -60.5  13.003  135.8  0.0501   60.4  0.8002  -37.8
 0.540  0.7020  -62.4  12.807  134.5  0.0513   59.7  0.7892  -38.9
 0.560  0.6947  -64.4  12.618  133.2  0.0525   58.9  0.7784  -40.0
 0.580  0.6883  -66.4  12.436  131.8  0.0537   58.3  0.7680  -41.1
 0.600  0.6827  -68.5  12.261  130.4  0.0549   57.6  0.7578  -42.3
 0.620  0.6751  -70.1  12.090  129.3  0.0561   56.8  0.7476  -43.2
 0.640  0.6681  -71.8  11.923  128.3  0.0572   56.0  0.7375  -44.2
 0.660  0.6617  -73.5  11.761  127.1  0.0584   55.3  0.7277  -45.2
 0.680  0.6559  -75.2  11.603  126.0  0.0596   54.6  0.7181  -46.2
 0.700  0.6507  -77.0  11.450  124.8  0.0608   53.9  0.7087  -47.2
 0.720  0.6428  -78.8  11.281  123.7  0.0617   53.2  0.6979  -48.1
 0.740  0.6356  -80.7  11.117  122.6  0.0625   52.4  0.6873  -49.1
 0.760  0.6291  -82.6  10.957  121.5  0.0634   51.7  0.6770  -50.1
 0.780  0.6233  -84.5  10.801  120.3  0.0643   51.1  0.6668  -51.1
 0.800  0.6182  -86.5  10.650  119.1  0.0652   50.4  0.6568  -52.1
 0.820  0.6118  -88.0  10.492  118.2  0.0659   49.9  0.6476  -52.8
 0.840  0.6058  -89.5  10.336  117.2  0.0666   49.3  0.6386  -53.6
 0.860  0.6002  -91.0  10.183  116.2  0.0673   48.8  0.6296  -54.3
 0.880  0.5951  -92.6  10.033  115.2  0.0680   48.3  0.6208  -55.1
 0.900  0.5904  -94.2   9.887  114.2  0.0687   47.8  0.6121  -55.9
 0.920  0.5852  -95.6   9.748  113.4  0.0694   47.5  0.6040  -56.6
 0.940  0.5803  -96.9   9.610  112.6  0.0701   47.1  0.5959  -57.3
 0.960  0.5758  -98.3   9.475  111.8  0.0709   46.8  0.5880  -58.0
 0.980  0.5716  -99.8   9.341  110.9  0.0716   46.5  0.5801  -58.7
 1.000  0.5678 -101.2   9.210  110.0  0.0723   46.2  0.5724  -59.5
 1.020  0.5637 -102.6   9.085  109.2  0.0730   45.8  0.5649  -60.2
 1.040  0.5600 -104.1   8.963  108.4  0.0737   45.4  0.5574  -61.0
 1.060  0.5566 -105.5   8.841  107.6  0.0743   45.0  0.5501  -61.8
 1.080  0.5536 -107.0   8.722  106.8  0.0750   44.7  0.5428  -62.6
 1.100  0.5510 -108.5   8.605  105.9  0.0757   44.3  0.5357  -63.4
 1.120  0.5471 -109.8   8.485  105.2  0.0761   43.9  0.5287  -63.9
 1.140  0.5434 -111.1   8.366  104.5  0.0766   43.6  0.5218  -64.5
 1.160  0.5401 -112.4   8.249  103.8  0.0770   43.2  0.5150  -65.1
 1.180  0.5370 -113.7   8.133  103.1  0.0775   42.9  0.5082  -65.7
 1.200  0.5342 -115.1   8.018  102.3  0.0779   42.5  0.5014  -66.3
 1.220  0.5313 -116.1   7.918  101.7  0.0783   42.3  0.4950  -66.8
 1.240  0.5286 -117.1   7.819  101.1  0.0787   42.1  0.4887  -67.3
 1.260  0.5260 -118.2   7.720  100.4  0.0791   41.9  0.4824  -67.8
 1.280  0.5236 -119.2   7.623   99.8  0.0795   41.7  0.4761  -68.4
 1.300  0.5214 -120.3   7.527   99.1  0.0799   41.5  0.4699  -68.9
 1.320  0.5189 -121.5   7.436   98.5  0.0803   41.3  0.4642  -69.6
 1.340  0.5167 -122.7   7.345   97.9  0.0807   41.0  0.4586  -70.3
 1.360  0.5147 -123.9   7.255   97.2  0.0812   40.8  0.4531  -71.1
 1.380  0.5129 -125.1   7.167   96.6  0.0816   40.5  0.4477  -71.8
 1.400  0.5113 -126.3   7.079   95.9  0.0820   40.3  0.4423  -72.6
 1.420  0.5100 -127.4   6.992   95.3  0.0824   40.2  0.4373  -73.1
 1.440  0.5089 -128.6   6.907   94.7  0.0828   40.0  0.4323  -73.6
 1.460  0.5079 -129.7   6.822   94.1  0.0833   39.9  0.4273  -74.1
 1.480  0.5072 -130.9   6.737   93.5  0.0837   39.7  0.4224  -74.7
 1.500  0.5067 -132.0   6.654   92.8  0.0841   39.6  0.4175  -75.2
 1.520  0.5041 -132.9   6.577   92.3  0.0845   39.4  0.4125  -75.7
 1.540  0.5015 -133.8   6.500   91.8  0.0848   39.3  0.4075  -76.1
 1.560  0.4991 -134.7   6.423   91.3  0.0852   39.1  0.4026  -76.6
 1.580  0.4969 -135.6   6.347   90.7  0.0855   39.0  0.3977  -77.1
 1.600  0.4947 -136.5   6.272   90.2  0.0859   38.8  0.3928  -77.6
 1.620  0.4933 -137.5   6.206   89.7  0.0863   38.7  0.3888  -78.3
 1.640  0.4921 -138.4   6.140   89.2  0.0866   38.5  0.3849  -79.0
 1.660  0.4910 -139.4   6.075   88.6  0.0870   38.4  0.3811  -79.7
 1.680  0.4900 -140.4   6.010   88.1  0.0873   38.2  0.3773  -80.4
 1.700  0.4892 -141.4   5.946   87.5  0.0877   38.1  0.3736  -81.1
 1.720  0.4880 -142.2   5.880   87.0  0.0880   38.0  0.3707  -81.5
 1.740  0.4870 -143.0   5.814   86.6  0.0883   38.0  0.3678  -82.0
 1.760  0.4860 -143.7   5.749   86.1  0.0887   37.9  0.3649  -82.4
 1.780  0.4851 -144.5   5.684   85.6  0.0890   37.9  0.3620  -82.8
 1.800  0.4843 -145.3   5.619   85.1  0.0893   37.8  0.3592  -83.3
 1.820  0.4842 -146.0   5.563   84.7  0.0897   37.7  0.3549  -83.7
 1.840  0.4841 -146.8   5.507   84.3  0.0901   37.6  0.3507  -84.1
 1.860  0.4841 -147.5   5.451   83.9  0.0904   37.5  0.3465  -84.5
 1.880  0.4842 -148.3   5.396   83.4  0.0908   37.4  0.3423  -84.9
 1.900  0.4844 -149.0   5.341   83.0  0.0912   37.3  0.3381  -85.3
 1.920  0.4830 -149.9   5.289   82.5  0.0915   37.2  0.3355  -85.9
 1.940  0.4817 -150.9   5.237   82.1  0.0918   37.1  0.3330  -86.4
 1.960  0.4806 -151.8   5.185   81.6  0.0920   36.9  0.3305  -87.0
 1.980  0.4796 -152.8   5.134   81.1  0.0923   36.8  0.3280  -87.6
 2.000  0.4787 -153.7   5.083   80.6  0.0926   36.7  0.3256  -88.2
 2.020  0.4782 -154.2   5.036   80.3  0.0929   36.7  0.3230  -88.6
 2.040  0.4777 -154.8   4.989   79.9  0.0932   36.7  0.3205  -88.9
 2.060  0.4772 -155.3   4.942   79.6  0.0936   36.6  0.3179  -89.3
 2.080  0.4768 -155.9   4.895   79.2  0.0939   36.6  0.3154  -89.6
 2.100  0.4765 -156.4   4.848   78.8  0.0942   36.6  0.3129  -90.0
 2.120  0.4762 -156.9   4.802   78.5  0.0945   36.6  0.3104  -90.4
 2.140  0.4759 -157.5   4.756   78.1  0.0948   36.6  0.3079  -90.8
 2.160  0.4756 -158.0   4.710   77.7  0.0952   36.5  0.3054  -91.2
 2.180  0.4754 -158.6   4.664   77.3  0.0955   36.5  0.3029  -91.6
 2.200  0.4753 -159.1   4.619   76.9  0.0958   36.5  0.3005  -92.0
 2.220  0.4746 -159.8   4.578   76.5  0.0961   36.4  0.2990  -92.4
 2.240  0.4741 -160.5   4.538   76.2  0.0964   36.4  0.2975  -92.9
 2.260  0.4735 -161.2   4.498   75.8  0.0967   36.3  0.2961  -93.3
 2.280  0.4731 -161.8   4.458   75.5  0.0970   36.3  0.2946  -93.7
 2.300  0.4727 -162.5   4.418   75.1  0.0973   36.2  0.2932  -94.2
 2.320  0.4724 -163.2   4.378   74.7  0.0977   36.1  0.2918  -94.6
 2.340  0.4721 -163.9   4.339   74.3  0.0980   36.1  0.2904  -95.1
 2.360  0.4719 -164.6   4.300   73.9  0.0983   36.0  0.2890  -95.6
 2.380  0.4718 -165.3   4.261   73.5  0.0986   36.0  0.2876  -96.0
 2.400  0.4718 -166.0   4.222   73.1  0.0989   35.9  0.2863  -96.5
 2.420  0.4720 -166.5   4.189   72.8  0.0993   35.9  0.2843  -97.0
 2.440  0.4722 -166.9   4.155   72.5  0.0997   35.9  0.2822  -97.5
 2.460  0.4725 -167.4   4.122   72.2  0.1001   35.8  0.2802  -98.1
 2.480  0.4728 -167.8   4.089   71.8  0.1005   35.8  0.2783  -98.6
 2.500  0.4731 -168.3   4.056   71.5  0.1008   35.8  0.2763  -99.2
 2.520  0.4735 -168.8   4.024   71.2  0.1012   35.8  0.2744  -99.7
 2.540  0.4739 -169.2   3.991   70.8  0.1016   35.8  0.2725 -100.3
 2.560  0.4743 -169.7   3.958   70.5  0.1020   35.7  0.2707 -100.8
 2.580  0.4747 -170.1   3.926   70.2  0.1024   35.7  0.2688 -101.4
 2.600  0.4752 -170.6   3.894   69.8  0.1028   35.7  0.2670 -102.0
 2.620  0.4748 -171.1   3.866   69.5  0.1032   35.7  0.2659 -102.3
 2.640  0.4744 -171.5   3.838   69.2  0.1036   35.7  0.2648 -102.5
 2.660  0.4740 -172.0   3.810   68.9  0.1040   35.7  0.2637 -102.8
 2.680  0.4736 -172.4   3.782   68.6  0.1044   35.7  0.2626 -103.0
 2.700  0.4733 -172.9   3.755   68.3  0.1048   35.8  0.2615 -103.3
 2.720  0.4730 -173.4   3.727   68.0  0.1053   35.8  0.2605 -103.5
 2.740  0.4728 -173.8   3.700   67.7  0.1057   35.8  0.2594 -103.8
 2.760  0.4726 -174.3   3.672   67.4  0.1061   35.8  0.2583 -104.1
 2.780  0.4724 -174.7   3.645   67.0  0.1065   35.8  0.2573 -104.3
 2.800  0.4722 -175.2   3.618   66.7  0.1069   35.8  0.2562 -104.6
 2.820  0.4721 -175.6   3.593   66.4  0.1072   35.8  0.2554 -104.9
 2.840  0.4720 -176.0   3.568   66.1  0.1075   35.7  0.2546 -105.2
 2.860  0.4720 -176.5   3.543   65.8  0.1078   35.7  0.2537 -105.6
 2.880  0.4720 -176.9   3.518   65.4  0.1081   35.6  0.2529 -105.9
 2.900  0.4720 -177.3   3.493   65.1  0.1084   35.6  0.2521 -106.2
 2.920  0.4720 -177.7   3.468   64.8  0.1087   35.6  0.2514 -106.6
 2.940  0.4721 -178.1   3.444   64.4  0.1090   35.5  0.2506 -106.9
 2.960  0.4722 -178.6   3.419   64.1  0.1093   35.5  0.2498 -107.2
 2.980  0.4723 -179.0   3.395   63.8  0.1096   35.4  0.2491 -107.6
 3.000  0.4724 -179.4   3.371   63.4  0.1099   35.4  0.2483 -107.9
 3.100  0.4714  178.8   3.271   62.2  0.1119   35.2  0.2449 -109.3
 3.200  0.4708  177.0   3.172   60.9  0.1139   35.0  0.2417 -110.8
 3.300  0.4706  175.3   3.076   59.5  0.1158   34.8  0.2386 -112.3
 3.400  0.4709  173.5   2.981   58.1  0.1178   34.7  0.2357 -113.9
 3.500  0.4717  171.7   2.888   56.5  0.1198   34.5  0.2330 -115.5
 3.600  0.4723  170.5   2.817   55.3  0.1221   34.5  0.2298 -116.8
 3.700  0.4731  169.3   2.747   54.1  0.1244   34.5  0.2267 -118.1
 3.800  0.4741  168.1   2.679   52.8  0.1267   34.5  0.2237 -119.4
 3.900  0.4753  166.9   2.612   51.4  0.1290   34.5  0.2208 -120.8
 4.000  0.4767  165.7   2.547   50.0  0.1313   34.5  0.2181 -122.2
 4.100  0.4760  164.4   2.491   48.8  0.1336   34.1  0.2152 -123.5
 4.200  0.4756  163.0   2.436   47.6  0.1358   33.7  0.2125 -124.9
 4.300  0.4755  161.7   2.382   46.3  0.1381   33.3  0.2098 -126.2
 4.400  0.4756  160.3   2.329   45.0  0.1404   33.0  0.2073 -127.7
 4.500  0.4760  159.0   2.278   43.6  0.1427   32.6  0.2049 -129.1
 4.600  0.4764  157.7   2.236   42.4  0.1453   32.2  0.2023 -130.4
 4.700  0.4769  156.5   2.195   41.2  0.1480   31.8  0.1998 -131.7
 4.800  0.4778  155.2   2.155   39.9  0.1507   31.4  0.1974 -133.1
 4.900  0.4788  154.0   2.116   38.6  0.1533   31.0  0.1951 -134.5
 5.000  0.4801  152.7   2.078   37.2  0.1560   30.6  0.1929 -135.9
 5.100  0.4771  151.2   2.040   36.0  0.1587   30.1  0.1905 -137.9
 5.200  0.4744  149.6   2.003   34.8  0.1614   29.6  0.1883 -140.0
 5.300  0.4721  148.1   1.966   33.6  0.1641   29.2  0.1864 -142.1
 5.400  0.4701  146.5   1.931   32.3  0.1669   28.7  0.1848 -144.3
 5.500  0.4685  144.9   1.897   30.9  0.1696   28.3  0.1834 -146.5
 5.600  0.4684  143.5   1.869   29.8  0.1723   27.8  0.1809 -148.2
 5.700  0.4685  142.1   1.841   28.6  0.1750   27.3  0.1785 -149.9
 5.800  0.4690  140.7   1.814   27.3  0.1777   26.8  0.1762 -151.6
 5.900  0.4697  139.3   1.788   26.1  0.1805   26.4  0.1742 -153.5
 6.000  0.4707  137.9   1.763   24.8  0.1832   25.9  0.1723 -155.3
!
!  f       NFmin   Gammaopt  rn/50
! GHz       dB    MAG  ANG    -
!
! noise parameter not available yet for this operation point!
!
! (c) 2015  Infineon Technologies AG, Munich
