! Infineon Technologies  Discrete & RF Semiconductors
! BFP540FESD
! VCE =  2.5 V,  IC =  70 mA
! Common Emitter S-Parameters:                            Nov 2015
# GHz  S  MA  R  50
!  f         S11            S21            S12            S22
! GHz     MAG   ANG      MAG   ANG      MAG   ANG      MAG   ANG
 0.010  0.1085  -14.8  56.907  177.6  0.0016  119.2  0.8029   -1.1
 0.015  0.1099  -21.2  56.246  176.7  0.0018  109.5  0.8111   -0.7
 0.020  0.1126  -27.3  55.600  175.7  0.0021  102.1  0.8194   -0.4
 0.025  0.1140  -31.3  55.534  174.5  0.0023  100.4  0.8209   -1.6
 0.030  0.1160  -35.2  55.493  173.3  0.0025   98.9  0.8227   -2.7
 0.035  0.1185  -39.0  55.478  172.1  0.0026   97.6  0.8249   -3.9
 0.040  0.1215  -42.6  55.487  170.8  0.0028   96.5  0.8274   -5.0
 0.045  0.1249  -46.0  55.522  169.6  0.0030   95.5  0.8302   -6.2
 0.050  0.1288  -49.2  55.581  168.4  0.0032   94.6  0.8334   -7.3
 0.055  0.1298  -52.8  55.174  167.3  0.0034   92.4  0.8295   -8.3
 0.060  0.1314  -56.3  54.790  166.1  0.0037   90.4  0.8259   -9.3
 0.065  0.1334  -59.7  54.428  164.9  0.0040   88.7  0.8226  -10.3
 0.070  0.1359  -63.0  54.089  163.7  0.0042   87.3  0.8195  -11.3
 0.075  0.1388  -66.1  53.775  162.5  0.0045   86.0  0.8167  -12.4
 0.080  0.1421  -69.2  53.484  161.3  0.0047   84.8  0.8141  -13.4
 0.085  0.1458  -72.0  53.218  160.1  0.0050   83.8  0.8118  -14.4
 0.090  0.1498  -74.8  52.977  158.8  0.0053   82.8  0.8098  -15.5
 0.095  0.1541  -77.4  52.760  157.6  0.0055   82.0  0.8081  -16.5
 0.100  0.1588  -79.8  52.570  156.3  0.0058   81.2  0.8066  -17.6
 0.105  0.1621  -82.3  52.105  155.4  0.0060   80.9  0.8004  -18.4
 0.110  0.1657  -84.8  51.655  154.4  0.0063   80.6  0.7943  -19.1
 0.115  0.1696  -87.1  51.220  153.4  0.0065   80.3  0.7883  -19.9
 0.120  0.1738  -89.3  50.800  152.4  0.0068   80.1  0.7825  -20.7
 0.125  0.1782  -91.4  50.396  151.4  0.0070   79.9  0.7769  -21.6
 0.130  0.1829  -93.4  50.008  150.4  0.0072   79.6  0.7714  -22.4
 0.135  0.1877  -95.3  49.636  149.3  0.0075   79.4  0.7661  -23.2
 0.140  0.1928  -97.1  49.281  148.3  0.0077   79.2  0.7610  -24.1
 0.145  0.1980  -98.8  48.943  147.2  0.0080   79.1  0.7560  -24.9
 0.150  0.2034 -100.4  48.622  146.1  0.0082   78.9  0.7512  -25.8
 0.155  0.2054 -101.9  48.089  145.3  0.0084   78.5  0.7442  -26.4
 0.160  0.2076 -103.3  47.566  144.5  0.0087   78.1  0.7373  -27.1
 0.165  0.2099 -104.8  47.053  143.6  0.0089   77.8  0.7305  -27.7
 0.170  0.2124 -106.1  46.550  142.8  0.0092   77.4  0.7238  -28.4
 0.175  0.2149 -107.5  46.059  141.9  0.0094   77.1  0.7172  -29.0
 0.180  0.2176 -108.8  45.578  141.0  0.0096   76.8  0.7107  -29.7
 0.185  0.2204 -110.1  45.109  140.1  0.0099   76.5  0.7043  -30.4
 0.190  0.2233 -111.4  44.651  139.1  0.0101   76.2  0.6980  -31.1
 0.195  0.2263 -112.6  44.206  138.2  0.0104   76.0  0.6919  -31.9
 0.200  0.2294 -113.8  43.773  137.2  0.0106   75.7  0.6858  -32.6
 0.220  0.2366 -118.3  41.924  134.6  0.0113   74.9  0.6619  -34.7
 0.240  0.2452 -122.5  40.170  131.7  0.0120   74.1  0.6389  -36.9
 0.260  0.2540 -126.3  38.520  129.1  0.0128   73.8  0.6165  -38.8
 0.280  0.2629 -129.8  36.940  126.7  0.0135   73.7  0.5941  -40.2
 0.300  0.2726 -133.1  35.430  124.1  0.0143   73.6  0.5722  -41.8
 0.320  0.2760 -135.7  34.082  122.6  0.0150   73.2  0.5541  -42.8
 0.340  0.2799 -138.2  32.760  120.9  0.0157   72.9  0.5362  -43.9
 0.360  0.2843 -140.7  31.468  119.1  0.0165   72.6  0.5184  -45.0
 0.380  0.2893 -143.0  30.210  117.1  0.0172   72.3  0.5009  -46.3
 0.400  0.2947 -145.3  28.991  115.0  0.0179   72.1  0.4837  -47.6
 0.420  0.2974 -147.1  28.031  113.8  0.0186   71.8  0.4699  -48.3
 0.440  0.3004 -148.8  27.083  112.6  0.0192   71.6  0.4561  -49.1
 0.450  0.3020 -149.7  26.614  111.9  0.0195   71.5  0.4492  -49.4
 0.460  0.3036 -150.5  26.148  111.3  0.0199   71.4  0.4424  -49.9
 0.480  0.3071 -152.2  25.229  109.8  0.0205   71.2  0.4288  -50.7
 0.500  0.3109 -153.8  24.327  108.3  0.0212   71.0  0.4153  -51.6
 0.520  0.3134 -155.1  23.593  107.4  0.0218   71.2  0.4054  -52.0
 0.540  0.3160 -156.4  22.866  106.5  0.0225   71.3  0.3956  -52.5
 0.560  0.3188 -157.7  22.145  105.4  0.0231   71.4  0.3858  -53.0
 0.580  0.3217 -159.0  21.431  104.4  0.0238   71.6  0.3760  -53.5
 0.600  0.3248 -160.2  20.726  103.2  0.0244   71.7  0.3663  -54.0
 0.620  0.3258 -161.3  20.191  102.4  0.0251   72.1  0.3591  -54.4
 0.640  0.3270 -162.3  19.660  101.7  0.0258   72.5  0.3519  -54.8
 0.660  0.3282 -163.4  19.132  100.8  0.0265   72.9  0.3448  -55.2
 0.680  0.3296 -164.5  18.609   99.9  0.0272   73.3  0.3376  -55.6
 0.700  0.3311 -165.5  18.091   99.0  0.0279   73.6  0.3305  -56.0
 0.720  0.3336 -166.4  17.658   98.3  0.0285   73.4  0.3241  -56.5
 0.740  0.3361 -167.3  17.228   97.7  0.0292   73.3  0.3177  -57.0
 0.760  0.3387 -168.2  16.800   96.9  0.0298   73.1  0.3113  -57.6
 0.780  0.3414 -169.1  16.375   96.2  0.0305   72.9  0.3049  -58.1
 0.800  0.3442 -170.0  15.953   95.4  0.0311   72.8  0.2986  -58.7
 0.820  0.3450 -170.7  15.610   94.9  0.0317   72.4  0.2938  -59.0
 0.840  0.3459 -171.5  15.268   94.3  0.0324   72.1  0.2890  -59.2
 0.860  0.3469 -172.2  14.928   93.7  0.0330   71.7  0.2842  -59.5
 0.880  0.3479 -172.9  14.590   93.1  0.0337   71.4  0.2794  -59.8
 0.900  0.3489 -173.6  14.253   92.4  0.0343   71.1  0.2746  -60.1
 0.920  0.3497 -174.2  13.973   91.9  0.0350   71.1  0.2705  -60.4
 0.940  0.3506 -174.8  13.694   91.3  0.0357   71.1  0.2663  -60.7
 0.960  0.3515 -175.5  13.416   90.8  0.0363   71.1  0.2622  -61.0
 0.980  0.3525 -176.1  13.139   90.2  0.0370   71.1  0.2581  -61.3
 1.000  0.3535 -176.7  12.864   89.6  0.0377   71.1  0.2540  -61.6
 1.020  0.3553 -177.2  12.634   89.1  0.0383   71.0  0.2505  -62.1
 1.040  0.3571 -177.8  12.405   88.7  0.0390   70.9  0.2470  -62.7
 1.060  0.3589 -178.3  12.177   88.2  0.0396   70.9  0.2435  -63.3
 1.080  0.3607 -178.8  11.950   87.6  0.0403   70.8  0.2401  -63.9
 1.100  0.3626 -179.3  11.724   87.1  0.0409   70.7  0.2367  -64.5
 1.120  0.3639 -179.9  11.524   86.7  0.0416   70.7  0.2337  -64.8
 1.140  0.3653  179.5  11.324   86.3  0.0424   70.6  0.2307  -65.2
 1.160  0.3667  178.9  11.125   85.8  0.0431   70.6  0.2277  -65.5
 1.180  0.3682  178.4  10.927   85.4  0.0439   70.5  0.2247  -65.8
 1.200  0.3697  177.8  10.729   84.9  0.0446   70.5  0.2217  -66.2
 1.220  0.3693  177.4  10.566   84.5  0.0453   70.4  0.2188  -66.4
 1.240  0.3690  177.0  10.403   84.1  0.0459   70.4  0.2159  -66.5
 1.260  0.3687  176.5  10.241   83.7  0.0466   70.3  0.2130  -66.7
 1.280  0.3684  176.1  10.079   83.3  0.0472   70.3  0.2101  -66.9
 1.300  0.3681  175.7   9.918   82.9  0.0479   70.2  0.2072  -67.1
 1.320  0.3696  175.3   9.774   82.5  0.0484   70.1  0.2046  -67.8
 1.340  0.3711  174.8   9.630   82.1  0.0489   70.0  0.2020  -68.6
 1.360  0.3726  174.4   9.487   81.7  0.0495   69.9  0.1994  -69.4
 1.380  0.3741  173.9   9.344   81.2  0.0500   69.8  0.1969  -70.2
 1.400  0.3757  173.5   9.202   80.8  0.0505   69.7  0.1944  -71.0
 1.420  0.3779  173.2   9.073   80.5  0.0512   69.6  0.1925  -71.4
 1.440  0.3800  172.9   8.943   80.1  0.0518   69.5  0.1906  -71.8
 1.460  0.3822  172.7   8.815   79.8  0.0525   69.4  0.1888  -72.2
 1.480  0.3844  172.4   8.686   79.4  0.0531   69.3  0.1869  -72.7
 1.500  0.3866  172.1   8.558   79.0  0.0538   69.2  0.1851  -73.1
 1.520  0.3863  171.6   8.448   78.7  0.0545   69.1  0.1825  -73.4
 1.540  0.3861  171.1   8.338   78.3  0.0552   69.0  0.1799  -73.8
 1.560  0.3859  170.7   8.228   78.0  0.0559   69.0  0.1773  -74.1
 1.580  0.3857  170.2   8.119   77.7  0.0566   68.9  0.1747  -74.5
 1.600  0.3856  169.7   8.010   77.3  0.0573   68.8  0.1721  -74.9
 1.620  0.3867  169.3   7.912   77.0  0.0580   68.6  0.1706  -75.8
 1.640  0.3878  168.9   7.814   76.6  0.0587   68.5  0.1692  -76.7
 1.660  0.3890  168.6   7.717   76.2  0.0593   68.3  0.1678  -77.6
 1.680  0.3901  168.2   7.620   75.9  0.0600   68.2  0.1665  -78.5
 1.700  0.3913  167.8   7.523   75.5  0.0607   68.0  0.1652  -79.5
 1.720  0.3919  167.5   7.434   75.2  0.0613   67.8  0.1645  -80.1
 1.740  0.3925  167.2   7.346   74.9  0.0619   67.7  0.1638  -80.6
 1.760  0.3931  167.0   7.257   74.6  0.0625   67.5  0.1631  -81.2
 1.780  0.3938  166.7   7.169   74.2  0.0631   67.4  0.1624  -81.7
 1.800  0.3944  166.4   7.081   73.9  0.0637   67.2  0.1618  -82.3
 1.820  0.3950  166.2   7.003   73.6  0.0644   67.1  0.1594  -82.5
 1.840  0.3956  166.0   6.925   73.4  0.0651   67.0  0.1571  -82.8
 1.860  0.3962  165.7   6.848   73.1  0.0657   67.0  0.1547  -83.0
 1.880  0.3969  165.5   6.770   72.8  0.0664   66.9  0.1524  -83.2
 1.900  0.3975  165.3   6.693   72.5  0.0671   66.8  0.1500  -83.5
 1.920  0.3988  164.8   6.620   72.2  0.0678   66.7  0.1495  -84.4
 1.940  0.4001  164.3   6.547   71.9  0.0684   66.6  0.1490  -85.3
 1.960  0.4014  163.9   6.474   71.6  0.0691   66.4  0.1486  -86.2
 1.980  0.4028  163.4   6.401   71.2  0.0697   66.3  0.1482  -87.1
 2.000  0.4042  162.9   6.329   70.9  0.0704   66.2  0.1478  -88.0
 2.020  0.4042  162.7   6.268   70.7  0.0710   66.1  0.1467  -88.4
 2.040  0.4043  162.6   6.208   70.4  0.0717   65.9  0.1456  -88.8
 2.060  0.4043  162.4   6.147   70.2  0.0723   65.8  0.1445  -89.2
 2.080  0.4043  162.3   6.087   69.9  0.0729   65.7  0.1435  -89.6
 2.100  0.4044  162.1   6.027   69.7  0.0735   65.5  0.1424  -90.1
 2.120  0.4044  161.9   5.967   69.4  0.0742   65.4  0.1413  -90.5
 2.140  0.4044  161.8   5.907   69.1  0.0748   65.3  0.1403  -90.9
 2.160  0.4045  161.6   5.847   68.9  0.0754   65.1  0.1393  -91.4
 2.180  0.4045  161.5   5.788   68.6  0.0761   65.0  0.1382  -91.8
 2.200  0.4046  161.3   5.728   68.3  0.0767   64.9  0.1372  -92.3
 2.220  0.4054  160.9   5.677   68.1  0.0773   64.8  0.1371  -92.9
 2.240  0.4062  160.6   5.625   67.8  0.0779   64.6  0.1370  -93.5
 2.260  0.4071  160.2   5.574   67.5  0.0784   64.5  0.1369  -94.2
 2.280  0.4080  159.8   5.523   67.3  0.0790   64.4  0.1368  -94.8
 2.300  0.4088  159.5   5.472   67.0  0.0796   64.2  0.1367  -95.4
 2.320  0.4097  159.1   5.421   66.7  0.0802   64.1  0.1367  -96.0
 2.340  0.4107  158.8   5.370   66.5  0.0808   64.0  0.1367  -96.6
 2.360  0.4116  158.4   5.320   66.2  0.0813   63.8  0.1367  -97.3
 2.380  0.4125  158.1   5.269   65.9  0.0819   63.7  0.1367  -97.9
 2.400  0.4135  157.7   5.219   65.6  0.0825   63.6  0.1367  -98.5
 2.420  0.4139  157.5   5.177   65.4  0.0832   63.5  0.1357  -99.2
 2.440  0.4143  157.4   5.134   65.1  0.0838   63.3  0.1347 -100.0
 2.460  0.4147  157.2   5.092   64.9  0.0845   63.2  0.1337 -100.7
 2.480  0.4151  157.1   5.050   64.6  0.0851   63.1  0.1327 -101.5
 2.500  0.4156  156.9   5.008   64.4  0.0858   63.0  0.1318 -102.3
 2.520  0.4160  156.7   4.966   64.2  0.0865   62.9  0.1309 -103.0
 2.540  0.4164  156.6   4.925   63.9  0.0871   62.7  0.1300 -103.8
 2.560  0.4168  156.4   4.883   63.6  0.0878   62.6  0.1291 -104.7
 2.580  0.4173  156.3   4.841   63.4  0.0884   62.5  0.1283 -105.5
 2.600  0.4177  156.1   4.800   63.1  0.0891   62.4  0.1275 -106.3
 2.620  0.4178  155.9   4.764   62.9  0.0898   62.2  0.1274 -106.6
 2.640  0.4180  155.7   4.728   62.6  0.0905   62.1  0.1273 -106.9
 2.660  0.4181  155.5   4.692   62.4  0.0913   61.9  0.1271 -107.2
 2.680  0.4183  155.3   4.657   62.2  0.0920   61.8  0.1270 -107.5
 2.700  0.4184  155.0   4.621   61.9  0.0927   61.6  0.1269 -107.7
 2.720  0.4186  154.8   4.585   61.7  0.0934   61.5  0.1268 -108.0
 2.740  0.4188  154.6   4.550   61.5  0.0941   61.3  0.1267 -108.3
 2.760  0.4189  154.4   4.515   61.2  0.0949   61.2  0.1266 -108.6
 2.780  0.4191  154.2   4.479   61.0  0.0956   61.0  0.1265 -108.9
 2.800  0.4193  154.0   4.444   60.7  0.0963   60.9  0.1264 -109.2
 2.820  0.4195  153.8   4.412   60.5  0.0968   60.8  0.1265 -109.6
 2.840  0.4197  153.6   4.381   60.2  0.0974   60.7  0.1267 -110.1
 2.860  0.4199  153.4   4.350   60.0  0.0979   60.6  0.1268 -110.5
 2.880  0.4201  153.2   4.318   59.7  0.0985   60.5  0.1270 -111.0
 2.900  0.4203  152.9   4.287   59.5  0.0990   60.4  0.1272 -111.4
 2.920  0.4206  152.7   4.256   59.2  0.0995   60.3  0.1273 -111.9
 2.940  0.4208  152.5   4.225   59.0  0.1001   60.3  0.1275 -112.3
 2.960  0.4210  152.3   4.194   58.7  0.1006   60.2  0.1277 -112.7
 2.980  0.4213  152.1   4.163   58.5  0.1012   60.1  0.1279 -113.2
 3.000  0.4215  151.9   4.132   58.2  0.1017   60.0  0.1281 -113.6
 3.100  0.4218  151.0   4.007   57.2  0.1047   59.1  0.1278 -115.3
 3.200  0.4222  150.1   3.883   56.1  0.1078   58.3  0.1275 -117.0
 3.300  0.4227  149.1   3.761   55.0  0.1108   57.5  0.1274 -118.7
 3.400  0.4233  148.2   3.640   53.8  0.1139   56.7  0.1274 -120.4
 3.500  0.4240  147.3   3.521   52.5  0.1170   56.0  0.1275 -122.1
 3.600  0.4238  146.8   3.432   51.5  0.1203   55.4  0.1263 -123.5
 3.700  0.4236  146.2   3.344   50.5  0.1236   54.8  0.1251 -125.0
 3.800  0.4235  145.7   3.258   49.4  0.1269   54.3  0.1241 -126.5
 3.900  0.4234  145.1   3.172   48.3  0.1303   53.8  0.1231 -128.1
 4.000  0.4233  144.6   3.088   47.1  0.1336   53.3  0.1222 -129.6
 4.100  0.4225  143.7   3.018   46.1  0.1366   52.4  0.1210 -131.1
 4.200  0.4217  142.9   2.948   45.1  0.1397   51.5  0.1200 -132.6
 4.300  0.4211  142.0   2.880   44.0  0.1428   50.6  0.1190 -134.1
 4.400  0.4205  141.2   2.812   42.8  0.1459   49.8  0.1181 -135.7
 4.500  0.4201  140.3   2.746   41.6  0.1491   49.0  0.1173 -137.3
 4.600  0.4207  139.6   2.693   40.5  0.1524   48.2  0.1159 -138.6
 4.700  0.4213  138.9   2.642   39.5  0.1557   47.3  0.1146 -139.9
 4.800  0.4221  138.1   2.591   38.3  0.1591   46.6  0.1133 -141.2
 4.900  0.4228  137.4   2.541   37.1  0.1625   45.8  0.1121 -142.6
 5.000  0.4237  136.7   2.493   35.9  0.1659   45.1  0.1110 -144.0
 5.100  0.4218  135.5   2.446   34.9  0.1691   44.2  0.1104 -146.7
 5.200  0.4201  134.2   2.399   33.8  0.1724   43.2  0.1100 -149.4
 5.300  0.4185  132.9   2.353   32.7  0.1757   42.4  0.1098 -152.1
 5.400  0.4172  131.7   2.309   31.5  0.1791   41.5  0.1099 -154.8
 5.500  0.4161  130.4   2.265   30.3  0.1825   40.7  0.1103 -157.5
 5.600  0.4162  129.3   2.229   29.3  0.1856   39.8  0.1089 -159.6
 5.700  0.4164  128.2   2.195   28.2  0.1887   38.9  0.1076 -161.8
 5.800  0.4168  127.1   2.161   27.1  0.1919   38.0  0.1065 -164.0
 5.900  0.4174  126.0   2.127   26.0  0.1951   37.2  0.1055 -166.2
 6.000  0.4181  124.9   2.095   24.8  0.1984   36.4  0.1047 -168.5
!
!  f       NFmin   Gammaopt  rn/50
! GHz       dB    MAG  ANG    -
!
! noise parameter not available yet for this operation point!
!
! (c) 2015  Infineon Technologies AG, Munich
