! Infineon Technologies  Discrete & RF Semiconductors
! BFP540ESD
! VCE =  1.7 V,  IC =  6.0 mA
! Common Emitter S-Parameters:                            Nov 2015
# GHz  S  MA  R  50
!  f         S11            S21            S12            S22
! GHz     MAG   ANG      MAG   ANG      MAG   ANG      MAG   ANG
 0.010  0.7823   -1.1  17.784  178.9  0.0010   99.8  0.9793   -1.4
 0.015  0.7805   -1.9  17.661  178.7  0.0014   93.7  0.9847   -1.4
 0.020  0.7788   -2.7  17.538  178.5  0.0019   90.5  0.9901   -1.4
 0.025  0.7796   -3.3  17.559  178.0  0.0023   90.3  0.9898   -1.8
 0.030  0.7806   -3.9  17.581  177.5  0.0028   90.1  0.9895   -2.1
 0.035  0.7816   -4.5  17.605  177.0  0.0032   90.0  0.9893   -2.5
 0.040  0.7827   -5.0  17.630  176.5  0.0037   89.9  0.9891   -2.9
 0.045  0.7838   -5.6  17.656  176.0  0.0041   89.9  0.9890   -3.2
 0.050  0.7851   -6.2  17.684  175.5  0.0046   89.8  0.9889   -3.6
 0.055  0.7848   -6.8  17.675  175.1  0.0050   88.8  0.9883   -4.0
 0.060  0.7847   -7.4  17.668  174.6  0.0054   87.9  0.9878   -4.3
 0.065  0.7846   -8.1  17.661  174.2  0.0058   87.1  0.9873   -4.7
 0.070  0.7846   -8.7  17.656  173.8  0.0062   86.5  0.9869   -5.0
 0.075  0.7847   -9.3  17.651  173.4  0.0066   85.9  0.9865   -5.4
 0.080  0.7849   -9.9  17.647  172.9  0.0070   85.4  0.9861   -5.8
 0.085  0.7852  -10.5  17.645  172.5  0.0074   84.9  0.9858   -6.1
 0.090  0.7856  -11.2  17.643  172.1  0.0078   84.5  0.9855   -6.5
 0.095  0.7860  -11.8  17.643  171.6  0.0082   84.1  0.9852   -6.8
 0.100  0.7866  -12.4  17.643  171.2  0.0086   83.8  0.9850   -7.2
 0.105  0.7853  -13.0  17.626  170.8  0.0090   83.6  0.9841   -7.6
 0.110  0.7842  -13.6  17.610  170.3  0.0095   83.4  0.9832   -7.9
 0.115  0.7831  -14.2  17.594  169.9  0.0099   83.3  0.9824   -8.3
 0.120  0.7821  -14.8  17.580  169.4  0.0103   83.1  0.9816   -8.7
 0.125  0.7812  -15.4  17.567  169.0  0.0107   83.0  0.9809   -9.0
 0.130  0.7804  -16.0  17.555  168.6  0.0112   82.8  0.9802   -9.4
 0.135  0.7796  -16.7  17.544  168.1  0.0116   82.7  0.9795   -9.8
 0.140  0.7790  -17.3  17.534  167.7  0.0120   82.6  0.9789  -10.2
 0.145  0.7785  -17.9  17.525  167.2  0.0125   82.5  0.9783  -10.5
 0.150  0.7780  -18.5  17.517  166.8  0.0129   82.4  0.9778  -10.9
 0.155  0.7770  -19.1  17.485  166.4  0.0133   82.2  0.9764  -11.2
 0.160  0.7760  -19.7  17.453  165.9  0.0138   82.0  0.9751  -11.6
 0.165  0.7752  -20.3  17.423  165.5  0.0142   81.8  0.9738  -11.9
 0.170  0.7744  -20.9  17.394  165.0  0.0147   81.6  0.9725  -12.3
 0.175  0.7737  -21.5  17.366  164.6  0.0151   81.5  0.9713  -12.6
 0.180  0.7731  -22.1  17.339  164.1  0.0155   81.3  0.9701  -13.0
 0.185  0.7726  -22.8  17.313  163.7  0.0160   81.2  0.9689  -13.3
 0.190  0.7722  -23.4  17.288  163.2  0.0164   81.1  0.9678  -13.7
 0.195  0.7718  -24.0  17.265  162.8  0.0169   80.9  0.9667  -14.0
 0.200  0.7716  -24.6  17.242  162.3  0.0173   80.8  0.9657  -14.4
 0.220  0.7682  -27.0  17.130  160.6  0.0190   78.9  0.9602  -15.8
 0.240  0.7662  -29.4  17.033  158.9  0.0207   77.4  0.9554  -17.3
 0.260  0.7626  -31.8  16.919  157.2  0.0223   76.2  0.9493  -18.7
 0.280  0.7573  -34.2  16.787  155.5  0.0238   75.2  0.9420  -20.0
 0.300  0.7533  -36.6  16.670  153.8  0.0253   74.3  0.9352  -21.4
 0.320  0.7469  -38.8  16.492  152.2  0.0269   73.0  0.9266  -22.7
 0.340  0.7417  -41.1  16.326  150.7  0.0284   71.8  0.9185  -24.0
 0.360  0.7377  -43.4  16.173  149.0  0.0300   70.8  0.9108  -25.3
 0.380  0.7349  -45.7  16.033  147.4  0.0316   69.8  0.9037  -26.6
 0.400  0.7332  -48.0  15.907  145.7  0.0332   69.0  0.8970  -28.0
 0.420  0.7255  -50.2  15.727  144.2  0.0345   68.0  0.8868  -29.2
 0.440  0.7190  -52.5  15.558  142.7  0.0358   67.0  0.8769  -30.4
 0.450  0.7161  -53.6  15.478  141.9  0.0365   66.6  0.8722  -31.1
 0.460  0.7135  -54.7  15.400  141.2  0.0371   66.2  0.8675  -31.7
 0.480  0.7092  -57.1  15.253  139.6  0.0385   65.4  0.8585  -33.0
 0.500  0.7061  -59.4  15.118  138.0  0.0398   64.6  0.8500  -34.3
 0.520  0.6989  -61.4  14.902  136.7  0.0408   63.5  0.8396  -35.3
 0.540  0.6925  -63.4  14.693  135.3  0.0418   62.4  0.8295  -36.4
 0.560  0.6870  -65.4  14.493  133.9  0.0428   61.4  0.8197  -37.5
 0.580  0.6824  -67.5  14.303  132.5  0.0439   60.4  0.8101  -38.6
 0.600  0.6787  -69.6  14.121  131.0  0.0449   59.5  0.8009  -39.7
 0.620  0.6727  -71.4  13.939  129.9  0.0460   58.8  0.7907  -40.7
 0.640  0.6675  -73.3  13.763  128.7  0.0470   58.1  0.7808  -41.7
 0.660  0.6629  -75.2  13.592  127.5  0.0481   57.4  0.7711  -42.7
 0.680  0.6591  -77.1  13.427  126.3  0.0492   56.8  0.7617  -43.7
 0.700  0.6560  -79.0  13.268  125.1  0.0503   56.2  0.7525  -44.8
 0.720  0.6498  -80.9  13.077  124.0  0.0511   55.3  0.7422  -45.7
 0.740  0.6443  -82.9  12.890  122.8  0.0520   54.5  0.7322  -46.7
 0.760  0.6395  -84.9  12.709  121.7  0.0528   53.7  0.7224  -47.7
 0.780  0.6356  -86.9  12.534  120.4  0.0537   52.9  0.7128  -48.7
 0.800  0.6324  -88.9  12.364  119.2  0.0546   52.1  0.7034  -49.8
 0.820  0.6273  -90.5  12.184  118.2  0.0554   51.5  0.6942  -50.5
 0.840  0.6226  -92.1  12.007  117.2  0.0562   50.9  0.6851  -51.3
 0.860  0.6184  -93.7  11.834  116.2  0.0570   50.3  0.6761  -52.1
 0.880  0.6148  -95.3  11.665  115.2  0.0579   49.7  0.6673  -52.9
 0.900  0.6116  -97.0  11.500  114.1  0.0587   49.2  0.6586  -53.7
 0.920  0.6066  -98.5  11.344  113.2  0.0593   48.8  0.6499  -54.4
 0.940  0.6019 -100.0  11.191  112.3  0.0599   48.3  0.6412  -55.2
 0.960  0.5978 -101.6  11.041  111.4  0.0606   47.9  0.6327  -55.9
 0.980  0.5940 -103.1  10.893  110.5  0.0612   47.5  0.6243  -56.7
 1.000  0.5907 -104.7  10.749  109.5  0.0618   47.1  0.6160  -57.5
 1.020  0.5870 -106.3  10.606  108.7  0.0624   46.7  0.6078  -58.3
 1.040  0.5837 -107.9  10.465  107.8  0.0629   46.2  0.5998  -59.0
 1.060  0.5808 -109.5  10.327  106.9  0.0635   45.8  0.5918  -59.8
 1.080  0.5784 -111.1  10.191  106.0  0.0640   45.4  0.5840  -60.7
 1.100  0.5765 -112.7  10.058  105.1  0.0646   45.0  0.5763  -61.5
 1.120  0.5730 -114.0   9.923  104.4  0.0650   44.5  0.5693  -62.0
 1.140  0.5698 -115.3   9.789  103.6  0.0655   44.1  0.5623  -62.6
 1.160  0.5669 -116.7   9.657  102.9  0.0659   43.6  0.5554  -63.1
 1.180  0.5644 -118.0   9.527  102.1  0.0664   43.1  0.5485  -63.7
 1.200  0.5621 -119.4   9.398  101.3  0.0668   42.7  0.5417  -64.3
 1.220  0.5602 -120.5   9.286  100.7  0.0673   42.4  0.5353  -64.8
 1.240  0.5586 -121.7   9.174  100.0  0.0678   42.0  0.5289  -65.3
 1.260  0.5572 -122.9   9.064   99.4  0.0682   41.7  0.5226  -65.9
 1.280  0.5560 -124.0   8.956   98.7  0.0687   41.3  0.5163  -66.4
 1.300  0.5550 -125.2   8.848   98.0  0.0692   41.0  0.5101  -67.0
 1.320  0.5526 -126.5   8.743   97.3  0.0697   40.8  0.5038  -67.7
 1.340  0.5504 -127.8   8.640   96.6  0.0701   40.6  0.4976  -68.4
 1.360  0.5485 -129.1   8.538   96.0  0.0706   40.3  0.4914  -69.1
 1.380  0.5469 -130.4   8.437   95.2  0.0710   40.1  0.4854  -69.8
 1.400  0.5456 -131.7   8.338   94.5  0.0715   39.9  0.4794  -70.6
 1.420  0.5437 -132.9   8.237   93.9  0.0717   39.7  0.4740  -71.0
 1.440  0.5420 -134.0   8.138   93.3  0.0720   39.5  0.4686  -71.4
 1.460  0.5406 -135.2   8.039   92.6  0.0722   39.3  0.4633  -71.8
 1.480  0.5394 -136.4   7.942   92.0  0.0725   39.1  0.4580  -72.3
 1.500  0.5384 -137.6   7.845   91.3  0.0727   38.9  0.4527  -72.7
 1.520  0.5359 -138.6   7.757   90.7  0.0731   38.6  0.4474  -73.1
 1.540  0.5336 -139.5   7.671   90.2  0.0735   38.3  0.4421  -73.5
 1.560  0.5315 -140.5   7.585   89.6  0.0738   38.1  0.4368  -73.9
 1.580  0.5294 -141.5   7.499   89.0  0.0742   37.8  0.4315  -74.4
 1.600  0.5276 -142.5   7.415   88.4  0.0746   37.5  0.4263  -74.8
 1.620  0.5268 -143.6   7.340   87.8  0.0750   37.3  0.4219  -75.4
 1.640  0.5262 -144.7   7.265   87.2  0.0754   37.0  0.4175  -76.1
 1.660  0.5259 -145.9   7.191   86.6  0.0759   36.8  0.4132  -76.7
 1.680  0.5257 -147.0   7.118   86.0  0.0763   36.5  0.4089  -77.4
 1.700  0.5257 -148.1   7.046   85.4  0.0767   36.3  0.4047  -78.1
 1.720  0.5246 -149.0   6.971   84.9  0.0770   36.1  0.4007  -78.4
 1.740  0.5236 -149.9   6.896   84.4  0.0772   35.9  0.3967  -78.8
 1.760  0.5228 -150.9   6.822   83.9  0.0775   35.8  0.3927  -79.1
 1.780  0.5221 -151.8   6.749   83.3  0.0777   35.6  0.3888  -79.4
 1.800  0.5215 -152.7   6.676   82.8  0.0780   35.4  0.3848  -79.8
 1.820  0.5206 -153.5   6.615   82.3  0.0784   35.3  0.3803  -80.1
 1.840  0.5199 -154.3   6.555   81.9  0.0788   35.2  0.3758  -80.5
 1.860  0.5192 -155.2   6.496   81.4  0.0793   35.2  0.3714  -80.9
 1.880  0.5186 -156.0   6.437   80.9  0.0797   35.1  0.3669  -81.2
 1.900  0.5182 -156.8   6.378   80.4  0.0801   35.0  0.3625  -81.6
 1.920  0.5173 -157.8   6.317   79.9  0.0804   34.8  0.3594  -82.0
 1.940  0.5164 -158.7   6.257   79.4  0.0806   34.5  0.3563  -82.5
 1.960  0.5158 -159.7   6.197   78.9  0.0809   34.3  0.3532  -82.9
 1.980  0.5153 -160.6   6.138   78.3  0.0811   34.0  0.3501  -83.3
 2.000  0.5149 -161.6   6.079   77.8  0.0814   33.8  0.3471  -83.8
 2.020  0.5142 -162.4   6.025   77.4  0.0817   33.7  0.3436  -84.1
 2.040  0.5135 -163.1   5.972   77.0  0.0821   33.6  0.3401  -84.4
 2.060  0.5130 -163.9   5.919   76.6  0.0824   33.4  0.3366  -84.7
 2.080  0.5125 -164.7   5.866   76.1  0.0828   33.3  0.3331  -85.0
 2.100  0.5121 -165.4   5.814   75.7  0.0831   33.2  0.3296  -85.3
 2.120  0.5119 -166.2   5.762   75.3  0.0834   33.1  0.3261  -85.6
 2.140  0.5117 -167.0   5.710   74.8  0.0838   32.9  0.3226  -86.0
 2.160  0.5116 -167.8   5.659   74.3  0.0841   32.8  0.3192  -86.3
 2.180  0.5116 -168.5   5.608   73.9  0.0845   32.7  0.3157  -86.6
 2.200  0.5117 -169.3   5.557   73.4  0.0848   32.6  0.3123  -87.0
 2.220  0.5114 -170.1   5.510   73.0  0.0850   32.5  0.3098  -87.3
 2.240  0.5112 -170.8   5.463   72.6  0.0852   32.4  0.3073  -87.6
 2.260  0.5111 -171.6   5.417   72.2  0.0854   32.3  0.3048  -87.9
 2.280  0.5111 -172.3   5.371   71.7  0.0856   32.2  0.3023  -88.2
 2.300  0.5111 -173.1   5.325   71.3  0.0858   32.0  0.2999  -88.5
 2.320  0.5113 -173.9   5.280   70.9  0.0861   31.9  0.2974  -88.9
 2.340  0.5115 -174.6   5.234   70.4  0.0863   31.8  0.2950  -89.2
 2.360  0.5119 -175.4   5.190   69.9  0.0865   31.7  0.2925  -89.5
 2.380  0.5123 -176.1   5.145   69.5  0.0867   31.6  0.2901  -89.9
 2.400  0.5128 -176.9   5.101   69.0  0.0869   31.5  0.2877  -90.2
 2.420  0.5127 -177.6   5.062   68.6  0.0873   31.4  0.2843  -90.7
 2.440  0.5127 -178.3   5.024   68.2  0.0876   31.3  0.2809  -91.3
 2.460  0.5127 -179.1   4.986   67.8  0.0880   31.1  0.2776  -91.8
 2.480  0.5128 -179.8   4.948   67.4  0.0884   31.0  0.2742  -92.4
 2.500  0.5130  179.5   4.910   66.9  0.0887   30.9  0.2709  -93.0
 2.520  0.5133  178.8   4.873   66.5  0.0891   30.8  0.2677  -93.6
 2.540  0.5137  178.1   4.836   66.1  0.0895   30.6  0.2644  -94.2
 2.560  0.5142  177.3   4.799   65.6  0.0899   30.5  0.2612  -94.8
 2.580  0.5147  176.6   4.762   65.2  0.0902   30.4  0.2580  -95.4
 2.600  0.5153  175.9   4.726   64.7  0.0906   30.3  0.2549  -96.1
 2.620  0.5156  175.3   4.693   64.3  0.0909   30.2  0.2525  -96.4
 2.640  0.5160  174.7   4.661   64.0  0.0913   30.2  0.2500  -96.7
 2.660  0.5165  174.1   4.629   63.6  0.0916   30.1  0.2476  -97.0
 2.680  0.5170  173.5   4.597   63.2  0.0919   30.1  0.2452  -97.3
 2.700  0.5176  172.9   4.565   62.8  0.0922   30.0  0.2428  -97.6
 2.720  0.5182  172.3   4.534   62.4  0.0926   29.9  0.2404  -97.9
 2.740  0.5189  171.7   4.503   62.0  0.0929   29.9  0.2380  -98.2
 2.760  0.5196  171.1   4.471   61.6  0.0932   29.8  0.2356  -98.5
 2.780  0.5204  170.5   4.441   61.2  0.0936   29.8  0.2332  -98.9
 2.800  0.5213  169.9   4.410   60.8  0.0939   29.7  0.2308  -99.2
 2.820  0.5214  169.2   4.380   60.4  0.0941   29.6  0.2284  -99.6
 2.840  0.5216  168.6   4.350   60.0  0.0943   29.5  0.2261 -100.1
 2.860  0.5219  167.9   4.320   59.6  0.0946   29.4  0.2237 -100.6
 2.880  0.5222  167.3   4.290   59.2  0.0948   29.3  0.2214 -101.0
 2.900  0.5226  166.6   4.261   58.8  0.0950   29.2  0.2191 -101.5
 2.920  0.5231  166.0   4.232   58.4  0.0952   29.1  0.2168 -102.0
 2.940  0.5236  165.3   4.203   58.0  0.0954   29.0  0.2145 -102.5
 2.960  0.5242  164.7   4.174   57.6  0.0957   28.9  0.2123 -103.0
 2.980  0.5249  164.0   4.145   57.1  0.0959   28.8  0.2100 -103.6
 3.000  0.5256  163.4   4.117   56.7  0.0961   28.7  0.2078 -104.1
 3.100  0.5275  160.5   3.991   55.0  0.0977   28.1  0.1981 -107.1
 3.200  0.5307  157.7   3.868   53.3  0.0993   27.5  0.1890 -110.3
 3.300  0.5352  154.9   3.749   51.4  0.1009   27.0  0.1806 -113.9
 3.400  0.5409  152.2   3.635   49.3  0.1026   26.4  0.1730 -117.8
 3.500  0.5478  149.5   3.525   47.2  0.1042   25.9  0.1662 -122.1
 3.600  0.5515  147.2   3.424   45.6  0.1054   25.3  0.1609 -126.7
 3.700  0.5561  144.9   3.326   44.0  0.1067   24.7  0.1566 -131.5
 3.800  0.5616  142.6   3.231   42.2  0.1079   24.2  0.1536 -136.6
 3.900  0.5679  140.4   3.139   40.4  0.1092   23.6  0.1517 -141.8
 4.000  0.5750  138.3   3.051   38.4  0.1105   23.1  0.1512 -147.1
 4.100  0.5790  136.3   2.968   36.9  0.1120   22.4  0.1513 -151.2
 4.200  0.5837  134.3   2.887   35.4  0.1135   21.8  0.1522 -155.2
 4.300  0.5891  132.4   2.808   33.8  0.1150   21.1  0.1538 -159.2
 4.400  0.5951  130.5   2.732   32.0  0.1166   20.5  0.1562 -163.1
 4.500  0.6018  128.6   2.658   30.2  0.1181   19.9  0.1592 -166.8
 4.600  0.6055  127.0   2.594   28.8  0.1195   19.5  0.1604 -169.8
 4.700  0.6096  125.3   2.532   27.3  0.1209   19.1  0.1621 -172.8
 4.800  0.6143  123.7   2.472   25.7  0.1223   18.7  0.1642 -175.7
 4.900  0.6194  122.1   2.413   24.1  0.1237   18.3  0.1667 -178.6
 5.000  0.6250  120.6   2.357   22.4  0.1251   17.9  0.1696  178.7
 5.100  0.6282  119.2   2.302   21.1  0.1267   17.4  0.1703  176.1
 5.200  0.6317  117.9   2.249   19.8  0.1283   17.0  0.1713  173.5
 5.300  0.6355  116.5   2.196   18.3  0.1299   16.5  0.1727  171.0
 5.400  0.6398  115.2   2.145   16.9  0.1316   16.1  0.1744  168.4
 5.500  0.6443  113.9   2.096   15.3  0.1332   15.7  0.1765  166.0
 5.600  0.6476  112.8   2.055   14.1  0.1347   15.2  0.1770  163.6
 5.700  0.6511  111.7   2.015   12.9  0.1362   14.7  0.1778  161.2
 5.800  0.6549  110.6   1.976   11.6  0.1377   14.2  0.1790  158.9
 5.900  0.6589  109.5   1.938   10.3  0.1393   13.7  0.1804  156.6
 6.000  0.6632  108.4   1.901    8.9  0.1408   13.2  0.1821  154.3
!
!  f       NFmin   Gammaopt  rn/50
! GHz       dB    MAG  ANG    -
 0.900      0.73  0.05   38   0.12
 1.800      0.95  0.08  153   0.11
 2.400      0.97  0.09  154   0.10
 3.000      1.10  0.19  178   0.09
 4.000      1.28  0.30 -122   0.14
 5.000      1.50  0.42  -99   0.29
 6.000      1.73  0.51 -100   0.43
!
! (c) 2015  Infineon Technologies AG, Munich
