! Infineon Technologies  Discrete & RF Semiconductors
! BFP520
! VCE =  1.0 V,  IC =  4.0 mA
! Common Emitter S-Parameters:                            Oct 2015
# GHz  S  MA  R  50
!  f         S11            S21            S12            S22
! GHz     MAG   ANG      MAG   ANG      MAG   ANG      MAG   ANG
 0.030  0.8933   -1.6  12.028  178.4  0.0017   89.2  0.9815   -1.0
 0.040  0.8924   -2.2  12.018  177.5  0.0022   89.2  0.9820   -1.4
 0.050  0.8934   -2.4  11.950  176.9  0.0026   87.5  0.9822   -1.7
 0.060  0.8936   -3.0  11.946  176.7  0.0033   89.2  0.9825   -2.1
 0.070  0.8899   -3.6  12.038  176.1  0.0039   89.1  0.9828   -2.4
 0.080  0.8892   -4.3  11.993  176.0  0.0043   87.6  0.9830   -2.8
 0.090  0.8920   -4.7  12.011  175.5  0.0049   86.8  0.9826   -3.2
 0.100  0.8923   -5.4  11.941  175.0  0.0054   87.7  0.9823   -3.6
 0.110  0.8916   -5.9  11.964  174.6  0.0059   86.7  0.9822   -3.9
 0.120  0.8916   -6.3  11.991  174.0  0.0065   86.7  0.9818   -4.3
 0.130  0.8909   -6.8  11.976  173.7  0.0070   86.5  0.9816   -4.7
 0.140  0.8917   -7.4  11.994  173.0  0.0075   86.0  0.9812   -5.1
 0.150  0.8898   -7.9  11.961  172.4  0.0081   85.9  0.9807   -5.4
 0.200  0.8865  -10.4  11.952  170.1  0.0108   84.7  0.9782   -7.2
 0.250  0.8840  -13.2  11.911  167.7  0.0135   83.3  0.9749   -9.1
 0.300  0.8791  -15.7  11.844  165.3  0.0161   81.8  0.9708  -10.9
 0.350  0.8747  -18.4  11.780  162.9  0.0188   80.4  0.9655  -12.7
 0.400  0.8687  -21.0  11.694  160.5  0.0214   79.1  0.9598  -14.5
 0.450  0.8628  -23.6  11.608  158.1  0.0239   77.6  0.9537  -16.3
 0.500  0.8558  -26.1  11.507  155.8  0.0265   76.2  0.9462  -18.1
 0.600  0.8412  -31.3  11.314  151.1  0.0315   73.5  0.9298  -21.5
 0.700  0.8235  -36.4  11.076  146.5  0.0363   70.8  0.9113  -25.0
 0.800  0.8042  -41.3  10.800  142.0  0.0409   68.2  0.8910  -28.2
 0.900  0.7846  -46.3  10.540  137.9  0.0453   65.7  0.8691  -31.4
 1.000  0.7637  -51.2  10.260  133.7  0.0495   63.2  0.8463  -34.6
 1.100  0.7415  -56.0   9.960  129.7  0.0534   60.9  0.8228  -37.5
 1.200  0.7191  -60.7   9.670  125.8  0.0572   58.7  0.7987  -40.4
 1.300  0.6979  -65.4   9.375  122.1  0.0607   56.5  0.7743  -43.2
 1.400  0.6757  -70.0   9.073  118.5  0.0640   54.5  0.7496  -45.9
 1.500  0.6536  -74.6   8.793  115.0  0.0671   52.5  0.7261  -48.4
 1.600  0.6310  -79.2   8.505  111.6  0.0701   50.7  0.7016  -50.9
 1.700  0.6119  -83.5   8.229  108.5  0.0729   48.8  0.6792  -53.3
 1.800  0.5926  -88.0   7.963  105.4  0.0756   47.2  0.6562  -55.6
 1.900  0.5732  -92.3   7.709  102.5  0.0780   45.6  0.6340  -57.8
 2.000  0.5551  -96.6   7.466   99.5  0.0805   44.0  0.6124  -59.9
 2.100  0.5363 -100.9   7.222   96.8  0.0826   42.5  0.5913  -61.9
 2.200  0.5208 -105.5   6.995   94.0  0.0848   41.1  0.5709  -64.0
 2.300  0.5047 -109.6   6.778   91.5  0.0868   39.8  0.5508  -66.0
 2.400  0.4915 -114.0   6.574   88.8  0.0889   38.4  0.5313  -68.0
 2.500  0.4769 -118.2   6.370   86.4  0.0907   37.1  0.5123  -69.9
 2.600  0.4650 -122.7   6.177   83.9  0.0926   35.9  0.4939  -71.8
 2.700  0.4524 -126.9   5.995   81.6  0.0943   34.7  0.4757  -73.7
 2.800  0.4424 -131.3   5.822   79.2  0.0961   33.5  0.4580  -75.7
 2.900  0.4327 -135.6   5.655   77.0  0.0977   32.4  0.4408  -77.5
 3.000  0.4255 -140.1   5.496   74.7  0.0994   31.3  0.4240  -79.6
 3.100  0.4150 -144.1   5.342   72.8  0.1008   30.2  0.4082  -81.3
 3.200  0.4066 -148.4   5.195   70.9  0.1022   29.1  0.3927  -83.2
 3.300  0.4005 -152.8   5.053   68.8  0.1037   28.1  0.3777  -85.2
 3.400  0.3968 -157.3   4.919   66.6  0.1052   27.0  0.3632  -87.4
 3.500  0.3956 -161.8   4.793   64.2  0.1067   26.0  0.3492  -89.8
 3.600  0.3903 -165.9   4.667   62.5  0.1078   25.0  0.3356  -91.8
 3.700  0.3870 -170.1   4.545   60.7  0.1090   24.0  0.3224  -93.9
 3.800  0.3858 -174.3   4.428   58.8  0.1102   23.1  0.3097  -96.3
 3.900  0.3867 -178.5   4.316   56.7  0.1114   22.1  0.2975  -98.8
 4.000  0.3896  177.3   4.210   54.6  0.1127   21.2  0.2860 -101.5
 4.100  0.3893  173.7   4.105   53.0  0.1136   20.3  0.2751 -103.7
 4.200  0.3905  170.2   4.003   51.3  0.1146   19.5  0.2647 -106.1
 4.300  0.3932  166.7   3.905   49.5  0.1156   18.6  0.2548 -108.7
 4.400  0.3973  163.2   3.812   47.7  0.1166   17.8  0.2454 -111.5
 4.500  0.4028  159.9   3.722   45.7  0.1177   16.9  0.2366 -114.5
 4.600  0.4045  156.9   3.636   44.2  0.1185   16.2  0.2279 -116.7
 4.700  0.4072  154.0   3.552   42.7  0.1193   15.5  0.2196 -119.1
 4.800  0.4110  151.1   3.471   41.0  0.1202   14.7  0.2116 -121.7
 4.900  0.4158  148.3   3.393   39.3  0.1211   14.0  0.2041 -124.5
 5.000  0.4216  145.6   3.318   37.5  0.1220   13.3  0.1972 -127.5
 5.100  0.4240  143.3   3.247   36.2  0.1229   12.6  0.1906 -129.7
 5.200  0.4271  141.0   3.177   34.8  0.1238   11.9  0.1843 -132.0
 5.300  0.4308  138.8   3.110   33.3  0.1248   11.3  0.1783 -134.5
 5.400  0.4351  136.6   3.045   31.7  0.1258   10.6  0.1726 -137.2
 5.500  0.4401  134.5   2.982   30.1  0.1268   10.0  0.1674 -140.0
 5.600  0.4421  132.7   2.925   28.8  0.1278    9.3  0.1627 -142.6
 5.700  0.4444  130.9   2.869   27.4  0.1288    8.6  0.1584 -145.3
 5.800  0.4473  129.1   2.816   26.0  0.1298    7.9  0.1545 -148.2
 5.900  0.4505  127.4   2.764   24.5  0.1309    7.3  0.1509 -151.2
 6.000  0.4541  125.7   2.713   23.0  0.1320    6.6  0.1478 -154.3
 6.100  0.4565  124.0   2.666   21.7  0.1330    5.9  0.1446 -157.5
 6.200  0.4592  122.3   2.620   20.4  0.1340    5.2  0.1418 -160.7
 6.300  0.4624  120.7   2.575   19.0  0.1350    4.5  0.1395 -164.1
 6.400  0.4659  119.1   2.532   17.6  0.1361    3.8  0.1377 -167.6
 6.500  0.4698  117.5   2.490   16.1  0.1372    3.1  0.1364 -171.1
 6.600  0.4723  115.7   2.449   14.8  0.1382    2.4  0.1344 -174.5
 6.700  0.4753  113.9   2.409   13.5  0.1391    1.7  0.1328 -178.0
 6.800  0.4787  112.2   2.370   12.1  0.1401    1.0  0.1318  178.5
 6.900  0.4825  110.5   2.333   10.7  0.1411    0.3  0.1312  174.9
 7.000  0.4867  108.9   2.297    9.3  0.1422   -0.4  0.1312  171.3
 7.100  0.4905  107.1   2.262    8.0  0.1432   -1.2  0.1310  167.7
 7.200  0.4948  105.3   2.228    6.7  0.1442   -1.9  0.1314  164.0
 7.300  0.4996  103.5   2.195    5.3  0.1452   -2.7  0.1322  160.4
 7.400  0.5048  101.8   2.164    3.9  0.1463   -3.4  0.1336  156.9
 7.500  0.5105  100.2   2.134    2.5  0.1474   -4.1  0.1355  153.5
 7.600  0.5160   98.3   2.101    1.1  0.1482   -5.0  0.1369  149.6
 7.700  0.5220   96.6   2.070   -0.3  0.1491   -5.8  0.1390  145.7
 7.800  0.5285   94.8   2.039   -1.7  0.1500   -6.6  0.1417  142.1
 7.900  0.5355   93.2   2.011   -3.2  0.1509   -7.4  0.1450  138.5
 8.000  0.5429   91.5   1.983   -4.7  0.1519   -8.2  0.1488  135.2
 8.500  0.5787   83.2   1.825  -11.8  0.1547  -12.6  0.1752  117.3
 9.000  0.6198   76.4   1.670  -18.1  0.1554  -16.8  0.2225  103.4
 9.500  0.6636   70.9   1.528  -23.5  0.1546  -19.9  0.2794   95.1
10.000  0.6963   66.4   1.405  -28.3  0.1547  -22.1  0.3296   91.0
10.500  0.7166   63.0   1.308  -31.8  0.1571  -23.5  0.3614   89.1
11.000  0.7255   61.9   1.275  -35.0  0.1650  -25.2  0.3826   89.9
11.500  0.7457   61.5   1.265  -40.8  0.1741  -29.3  0.4076   90.9
12.000  0.7573   59.1   1.204  -47.7  0.1772  -33.9  0.4279   89.9
12.500  0.7417   55.9   1.132  -53.0  0.1802  -37.4  0.4229   86.7
13.000  0.7117   53.8   1.082  -57.7  0.1844  -41.4  0.4038   84.1
13.500  0.7151   52.2   1.065  -63.6  0.1894  -45.8  0.4087   83.5
14.000  0.7416   47.4   1.002  -71.6  0.1878  -52.0  0.4288   79.7
14.500  0.7446   41.4   0.895  -75.9  0.1809  -54.4  0.4293   71.3
15.000  0.7314   37.4   0.863  -77.3  0.1854  -56.0  0.4268   63.3
!
!  f       NFmin   Gammaopt  rn/50
! GHz       dB    MAG  ANG    -
 0.450      1.12  0.53    3   0.34
 0.900      1.09  0.51   11   0.35
 1.900      1.34  0.42   23   0.30
 2.400      1.40  0.38   35   0.29
 3.500      1.35  0.36   58   0.27
!
! (c) 2015  Infineon Technologies AG, Munich
