! Infineon Technologies  Discrete & RF Semiconductors
! BFP540ESD
! VCE =  4.5 V,  IC =  30 mA
! Common Emitter S-Parameters:                            Nov 2015
# GHz  S  MA  R  50
!  f         S11            S21            S12            S22
! GHz     MAG   ANG      MAG   ANG      MAG   ANG      MAG   ANG
 0.010  0.3412   -0.9  44.786  177.2  0.0014   41.5  0.8879   -0.7
 0.015  0.3432   -2.9  44.363  176.7  0.0014   46.2  0.9023   -1.0
 0.020  0.3455   -4.8  43.944  176.2  0.0015   50.5  0.9168   -1.3
 0.025  0.3463   -6.1  43.887  175.4  0.0018   53.1  0.9153   -1.9
 0.030  0.3472   -7.5  43.838  174.6  0.0021   55.0  0.9139   -2.6
 0.035  0.3484   -8.8  43.797  173.9  0.0024   56.3  0.9126   -3.2
 0.040  0.3497  -10.1  43.764  173.1  0.0028   57.4  0.9115   -3.9
 0.045  0.3512  -11.4  43.739  172.3  0.0031   58.2  0.9104   -4.5
 0.050  0.3529  -12.7  43.723  171.5  0.0034   58.9  0.9095   -5.2
 0.055  0.3523  -14.1  43.585  170.8  0.0036   60.5  0.9078   -5.8
 0.060  0.3519  -15.5  43.455  170.1  0.0039   62.0  0.9062   -6.4
 0.065  0.3518  -16.9  43.331  169.3  0.0041   63.2  0.9047   -7.1
 0.070  0.3518  -18.4  43.215  168.6  0.0044   64.4  0.9033   -7.7
 0.075  0.3521  -19.8  43.105  167.8  0.0046   65.4  0.9020   -8.3
 0.080  0.3525  -21.2  43.003  167.1  0.0049   66.3  0.9008   -9.0
 0.085  0.3532  -22.6  42.909  166.4  0.0051   67.1  0.8997   -9.6
 0.090  0.3542  -24.0  42.821  165.6  0.0054   67.8  0.8988  -10.2
 0.095  0.3553  -25.4  42.741  164.9  0.0056   68.5  0.8979  -10.9
 0.100  0.3566  -26.8  42.668  164.1  0.0059   69.1  0.8972  -11.5
 0.105  0.3555  -28.1  42.500  163.4  0.0061   69.2  0.8947  -12.1
 0.110  0.3545  -29.4  42.339  162.7  0.0063   69.3  0.8922  -12.6
 0.115  0.3537  -30.8  42.185  162.0  0.0065   69.4  0.8899  -13.2
 0.120  0.3531  -32.1  42.037  161.2  0.0067   69.5  0.8876  -13.7
 0.125  0.3528  -33.4  41.896  160.5  0.0069   69.6  0.8854  -14.3
 0.130  0.3526  -34.8  41.762  159.8  0.0072   69.6  0.8833  -14.9
 0.135  0.3526  -36.1  41.634  159.0  0.0074   69.7  0.8813  -15.5
 0.140  0.3527  -37.4  41.514  158.3  0.0076   69.8  0.8794  -16.0
 0.145  0.3531  -38.8  41.400  157.6  0.0078   69.8  0.8775  -16.6
 0.150  0.3537  -40.1  41.294  156.8  0.0080   69.9  0.8758  -17.2
 0.155  0.3530  -41.3  41.083  156.1  0.0082   70.0  0.8722  -17.7
 0.160  0.3525  -42.5  40.877  155.5  0.0085   70.1  0.8686  -18.2
 0.165  0.3522  -43.6  40.677  154.8  0.0087   70.2  0.8652  -18.8
 0.170  0.3519  -44.8  40.483  154.2  0.0089   70.3  0.8618  -19.3
 0.175  0.3519  -46.0  40.293  153.5  0.0091   70.4  0.8584  -19.8
 0.180  0.3520  -47.2  40.110  152.8  0.0094   70.4  0.8552  -20.4
 0.185  0.3522  -48.4  39.933  152.1  0.0096   70.5  0.8520  -20.9
 0.190  0.3526  -49.5  39.761  151.4  0.0098   70.6  0.8489  -21.5
 0.195  0.3531  -50.7  39.595  150.7  0.0101   70.6  0.8459  -22.0
 0.200  0.3538  -51.9  39.435  150.0  0.0103   70.7  0.8430  -22.6
 0.220  0.3517  -56.4  38.564  147.6  0.0115   69.6  0.8280  -24.5
 0.240  0.3518  -60.9  37.765  145.0  0.0126   68.7  0.8140  -26.6
 0.260  0.3515  -65.2  36.955  142.6  0.0135   67.7  0.7995  -28.4
 0.280  0.3508  -69.4  36.118  140.3  0.0140   66.5  0.7841  -30.2
 0.300  0.3519  -73.6  35.341  137.9  0.0146   65.4  0.7695  -32.0
 0.320  0.3486  -77.1  34.424  136.1  0.0154   65.2  0.7534  -33.4
 0.340  0.3467  -80.7  33.543  134.2  0.0162   64.9  0.7378  -34.8
 0.360  0.3461  -84.3  32.702  132.1  0.0170   64.7  0.7226  -36.3
 0.380  0.3469  -87.8  31.904  130.0  0.0178   64.6  0.7079  -37.8
 0.400  0.3490  -91.4  31.151  127.8  0.0186   64.4  0.6938  -39.4
 0.420  0.3473  -94.5  30.377  126.3  0.0193   64.3  0.6786  -40.6
 0.440  0.3466  -97.5  29.625  124.7  0.0199   64.2  0.6638  -41.8
 0.450  0.3466  -99.1  29.258  123.9  0.0202   64.2  0.6565  -42.4
 0.460  0.3469 -100.6  28.897  123.0  0.0206   64.1  0.6492  -43.0
 0.480  0.3481 -103.7  28.196  121.2  0.0212   64.1  0.6350  -44.3
 0.500  0.3504 -106.7  27.522  119.4  0.0219   64.0  0.6211  -45.7
 0.520  0.3496 -109.1  26.829  118.2  0.0225   63.5  0.6082  -46.6
 0.540  0.3494 -111.6  26.149  116.9  0.0230   63.0  0.5955  -47.5
 0.560  0.3498 -114.0  25.483  115.5  0.0236   62.6  0.5830  -48.5
 0.580  0.3509 -116.4  24.832  114.1  0.0241   62.1  0.5706  -49.5
 0.600  0.3526 -118.8  24.197  112.6  0.0247   61.7  0.5584  -50.5
 0.620  0.3516 -120.8  23.657  111.6  0.0252   61.8  0.5479  -51.2
 0.640  0.3511 -122.7  23.124  110.5  0.0257   61.9  0.5375  -52.0
 0.660  0.3509 -124.7  22.599  109.5  0.0263   62.0  0.5271  -52.8
 0.680  0.3512 -126.6  22.084  108.3  0.0268   62.1  0.5169  -53.6
 0.700  0.3519 -128.6  21.577  107.1  0.0273   62.2  0.5068  -54.5
 0.720  0.3516 -130.4  21.099  106.2  0.0278   62.0  0.4972  -55.2
 0.740  0.3516 -132.3  20.627  105.2  0.0283   61.8  0.4877  -56.0
 0.760  0.3521 -134.1  20.161  104.2  0.0287   61.6  0.4783  -56.8
 0.780  0.3529 -136.0  19.702  103.2  0.0292   61.4  0.4689  -57.6
 0.800  0.3540 -137.8  19.249  102.1  0.0297   61.2  0.4597  -58.5
 0.820  0.3542 -139.2  18.861  101.4  0.0303   61.2  0.4520  -59.0
 0.840  0.3545 -140.6  18.476  100.6  0.0308   61.1  0.4443  -59.6
 0.860  0.3551 -142.0  18.095   99.8  0.0314   61.1  0.4366  -60.2
 0.880  0.3559 -143.4  17.717   99.0  0.0319   61.0  0.4290  -60.8
 0.900  0.3569 -144.8  17.343   98.1  0.0325   61.0  0.4215  -61.4
 0.920  0.3565 -146.1  17.017   97.4  0.0331   60.9  0.4145  -61.9
 0.940  0.3564 -147.4  16.693   96.7  0.0336   60.9  0.4076  -62.4
 0.960  0.3564 -148.8  16.372   96.0  0.0342   60.8  0.4007  -63.0
 0.980  0.3566 -150.1  16.053   95.2  0.0347   60.8  0.3938  -63.5
 1.000  0.3570 -151.4  15.738   94.4  0.0353   60.7  0.3870  -64.1
 1.020  0.3579 -152.6  15.464   93.8  0.0358   60.7  0.3810  -64.7
 1.040  0.3589 -153.8  15.192   93.2  0.0363   60.7  0.3751  -65.3
 1.060  0.3601 -155.0  14.922   92.5  0.0367   60.6  0.3692  -65.9
 1.080  0.3614 -156.2  14.654   91.8  0.0372   60.6  0.3634  -66.5
 1.100  0.3629 -157.4  14.388   91.1  0.0377   60.6  0.3576  -67.2
 1.120  0.3637 -158.4  14.153   90.6  0.0382   60.5  0.3528  -67.5
 1.140  0.3646 -159.3  13.918   90.0  0.0387   60.5  0.3480  -67.9
 1.160  0.3656 -160.3  13.686   89.5  0.0391   60.4  0.3432  -68.2
 1.180  0.3667 -161.3  13.454   88.9  0.0396   60.4  0.3385  -68.5
 1.200  0.3679 -162.2  13.224   88.3  0.0401   60.3  0.3337  -68.9
 1.220  0.3680 -163.0  13.027   87.8  0.0407   60.3  0.3291  -69.2
 1.240  0.3682 -163.8  12.830   87.3  0.0413   60.3  0.3245  -69.6
 1.260  0.3685 -164.6  12.635   86.8  0.0420   60.3  0.3199  -69.9
 1.280  0.3688 -165.4  12.441   86.3  0.0426   60.3  0.3154  -70.2
 1.300  0.3692 -166.2  12.248   85.7  0.0432   60.3  0.3108  -70.6
 1.320  0.3702 -167.1  12.074   85.2  0.0437   60.2  0.3065  -71.2
 1.340  0.3713 -168.0  11.901   84.7  0.0441   60.2  0.3023  -71.9
 1.360  0.3725 -168.9  11.729   84.2  0.0446   60.1  0.2981  -72.6
 1.380  0.3737 -169.8  11.558   83.7  0.0450   60.1  0.2940  -73.3
 1.400  0.3751 -170.7  11.388   83.2  0.0455   60.0  0.2899  -74.0
 1.420  0.3758 -171.5  11.230   82.7  0.0460   59.9  0.2865  -74.3
 1.440  0.3766 -172.2  11.073   82.3  0.0464   59.8  0.2831  -74.5
 1.460  0.3774 -173.0  10.917   81.8  0.0469   59.8  0.2797  -74.8
 1.480  0.3783 -173.7  10.762   81.3  0.0473   59.7  0.2764  -75.1
 1.500  0.3793 -174.5  10.607   80.8  0.0478   59.6  0.2730  -75.4
 1.520  0.3788 -175.2  10.477   80.4  0.0484   59.5  0.2693  -75.6
 1.540  0.3784 -175.9  10.347   80.0  0.0490   59.4  0.2657  -75.9
 1.560  0.3781 -176.5  10.218   79.5  0.0497   59.2  0.2621  -76.2
 1.580  0.3778 -177.2  10.089   79.1  0.0503   59.1  0.2584  -76.4
 1.600  0.3775 -177.9   9.961   78.6  0.0509   59.0  0.2548  -76.7
 1.620  0.3790 -178.6   9.843   78.2  0.0513   58.8  0.2521  -77.3
 1.640  0.3806 -179.4   9.725   77.8  0.0518   58.7  0.2495  -78.0
 1.660  0.3823  179.9   9.608   77.3  0.0522   58.5  0.2468  -78.6
 1.680  0.3840  179.2   9.491   76.9  0.0527   58.4  0.2443  -79.3
 1.700  0.3858  178.5   9.375   76.4  0.0531   58.2  0.2417  -80.0
 1.720  0.3865  177.9   9.267   76.0  0.0536   58.2  0.2394  -80.2
 1.740  0.3872  177.3   9.159   75.7  0.0541   58.1  0.2370  -80.5
 1.760  0.3880  176.6   9.052   75.3  0.0547   58.1  0.2347  -80.7
 1.780  0.3888  176.0   8.945   74.9  0.0552   58.0  0.2324  -81.0
 1.800  0.3897  175.4   8.838   74.5  0.0557   58.0  0.2301  -81.2
 1.820  0.3897  174.9   8.747   74.2  0.0562   57.9  0.2269  -81.4
 1.840  0.3898  174.4   8.655   73.8  0.0568   57.8  0.2237  -81.5
 1.860  0.3899  174.0   8.565   73.4  0.0573   57.6  0.2204  -81.7
 1.880  0.3900  173.5   8.474   73.1  0.0579   57.5  0.2172  -81.8
 1.900  0.3901  173.0   8.384   72.7  0.0584   57.4  0.2140  -82.0
 1.920  0.3910  172.3   8.296   72.3  0.0589   57.3  0.2126  -82.4
 1.940  0.3920  171.7   8.209   71.9  0.0594   57.1  0.2112  -82.9
 1.960  0.3931  171.0   8.122   71.5  0.0598   57.0  0.2099  -83.4
 1.980  0.3942  170.4   8.035   71.1  0.0603   56.8  0.2085  -83.8
 2.000  0.3953  169.7   7.949   70.7  0.0608   56.7  0.2072  -84.3
 2.020  0.3957  169.2   7.875   70.4  0.0614   56.6  0.2048  -84.5
 2.040  0.3961  168.8   7.801   70.1  0.0620   56.5  0.2024  -84.7
 2.060  0.3965  168.3   7.728   69.7  0.0626   56.3  0.2000  -84.9
 2.080  0.3970  167.8   7.654   69.4  0.0632   56.2  0.1976  -85.2
 2.100  0.3974  167.4   7.581   69.1  0.0637   56.1  0.1953  -85.4
 2.120  0.3979  166.9   7.508   68.7  0.0643   56.0  0.1929  -85.6
 2.140  0.3985  166.5   7.436   68.4  0.0649   55.9  0.1905  -85.8
 2.160  0.3990  166.0   7.364   68.0  0.0655   55.8  0.1881  -86.1
 2.180  0.3996  165.6   7.292   67.7  0.0661   55.7  0.1858  -86.3
 2.200  0.4002  165.1   7.220   67.3  0.0667   55.6  0.1834  -86.6
 2.220  0.4010  164.5   7.157   67.0  0.0672   55.5  0.1819  -86.9
 2.240  0.4019  164.0   7.094   66.7  0.0677   55.3  0.1805  -87.1
 2.260  0.4028  163.5   7.031   66.3  0.0682   55.2  0.1790  -87.4
 2.280  0.4037  162.9   6.968   66.0  0.0687   55.0  0.1776  -87.6
 2.300  0.4047  162.4   6.905   65.7  0.0692   54.9  0.1762  -87.9
 2.320  0.4056  161.8   6.843   65.3  0.0697   54.7  0.1747  -88.2
 2.340  0.4067  161.3   6.781   65.0  0.0702   54.6  0.1733  -88.4
 2.360  0.4078  160.8   6.720   64.6  0.0707   54.5  0.1718  -88.7
 2.380  0.4089  160.2   6.658   64.3  0.0712   54.3  0.1704  -89.0
 2.400  0.4100  159.7   6.597   63.9  0.0717   54.2  0.1690  -89.3
 2.420  0.4110  159.2   6.545   63.6  0.0722   54.0  0.1665  -89.9
 2.440  0.4121  158.7   6.493   63.3  0.0728   53.9  0.1640  -90.5
 2.460  0.4132  158.2   6.441   62.9  0.0733   53.7  0.1615  -91.1
 2.480  0.4144  157.7   6.390   62.6  0.0739   53.5  0.1591  -91.8
 2.500  0.4156  157.2   6.338   62.3  0.0744   53.4  0.1566  -92.4
 2.520  0.4168  156.7   6.287   61.9  0.0749   53.2  0.1542  -93.1
 2.540  0.4180  156.2   6.236   61.6  0.0755   53.1  0.1518  -93.8
 2.560  0.4193  155.7   6.186   61.2  0.0760   52.9  0.1495  -94.6
 2.580  0.4206  155.2   6.135   60.9  0.0766   52.7  0.1471  -95.3
 2.600  0.4219  154.7   6.085   60.5  0.0771   52.6  0.1448  -96.1
 2.620  0.4228  154.3   6.041   60.2  0.0777   52.5  0.1432  -96.3
 2.640  0.4237  154.0   5.997   59.9  0.0782   52.3  0.1415  -96.6
 2.660  0.4247  153.6   5.954   59.6  0.0788   52.2  0.1399  -96.8
 2.680  0.4257  153.2   5.910   59.3  0.0794   52.1  0.1382  -97.1
 2.700  0.4266  152.9   5.867   59.0  0.0799   51.9  0.1366  -97.4
 2.720  0.4276  152.5   5.824   58.6  0.0805   51.8  0.1350  -97.6
 2.740  0.4287  152.2   5.781   58.3  0.0811   51.7  0.1334  -97.9
 2.760  0.4297  151.8   5.738   58.0  0.0817   51.5  0.1317  -98.2
 2.780  0.4307  151.5   5.695   57.6  0.0822   51.4  0.1301  -98.5
 2.800  0.4318  151.1   5.653   57.3  0.0828   51.3  0.1285  -98.8
 2.820  0.4325  150.6   5.613   57.0  0.0832   51.1  0.1270  -99.4
 2.840  0.4332  150.1   5.574   56.7  0.0837   50.9  0.1255 -100.1
 2.860  0.4340  149.6   5.534   56.4  0.0841   50.7  0.1240 -100.8
 2.880  0.4348  149.1   5.495   56.0  0.0845   50.5  0.1226 -101.4
 2.900  0.4357  148.6   5.456   55.7  0.0849   50.3  0.1211 -102.1
 2.920  0.4365  148.1   5.417   55.4  0.0854   50.1  0.1197 -102.9
 2.940  0.4374  147.6   5.378   55.0  0.0858   49.9  0.1183 -103.6
 2.960  0.4383  147.2   5.340   54.7  0.0862   49.8  0.1169 -104.3
 2.980  0.4393  146.7   5.301   54.4  0.0867   49.6  0.1155 -105.1
 3.000  0.4403  146.2   5.263   54.0  0.0871   49.4  0.1142 -105.9
 3.100  0.4458  144.1   5.102   52.6  0.0896   48.3  0.1073 -110.5
 3.200  0.4519  142.0   4.943   51.1  0.0922   47.3  0.1011 -115.6
 3.300  0.4585  140.0   4.789   49.6  0.0948   46.4  0.0959 -121.4
 3.400  0.4657  138.1   4.638   47.9  0.0974   45.5  0.0917 -127.8
 3.500  0.4734  136.2   4.491   46.1  0.1001   44.6  0.0888 -134.7
 3.600  0.4791  134.5   4.364   44.8  0.1021   43.7  0.0878 -142.5
 3.700  0.4852  132.8   4.240   43.4  0.1042   42.9  0.0885 -150.3
 3.800  0.4918  131.1   4.118   41.9  0.1063   42.0  0.0907 -157.8
 3.900  0.4987  129.6   3.999   40.3  0.1084   41.3  0.0945 -164.9
 4.000  0.5060  128.0   3.884   38.6  0.1105   40.5  0.0995 -171.3
 4.100  0.5120  126.4   3.780   37.3  0.1126   39.3  0.1039 -175.9
 4.200  0.5183  124.9   3.679   36.0  0.1147   38.2  0.1090  179.9
 4.300  0.5251  123.4   3.579   34.5  0.1169   37.1  0.1145  176.1
 4.400  0.5321  122.0   3.482   33.0  0.1191   36.0  0.1206  172.6
 4.500  0.5395  120.6   3.388   31.4  0.1214   35.0  0.1270  169.5
 4.600  0.5443  119.3   3.309   30.1  0.1234   34.1  0.1309  166.6
 4.700  0.5493  118.1   3.231   28.8  0.1254   33.3  0.1351  164.0
 4.800  0.5547  116.9   3.155   27.5  0.1274   32.5  0.1396  161.5
 4.900  0.5602  115.7   3.081   26.0  0.1295   31.7  0.1443  159.1
 5.000  0.5660  114.5   3.009   24.5  0.1316   30.9  0.1493  156.9
 5.100  0.5702  113.4   2.940   23.3  0.1336   30.1  0.1519  154.5
 5.200  0.5746  112.2   2.873   22.1  0.1357   29.3  0.1548  152.1
 5.300  0.5793  111.1   2.807   20.8  0.1378   28.5  0.1579  149.9
 5.400  0.5841  110.1   2.743   19.5  0.1400   27.7  0.1612  147.7
 5.500  0.5892  109.0   2.680   18.1  0.1421   27.0  0.1648  145.6
 5.600  0.5934  108.0   2.629   17.0  0.1440   26.2  0.1665  143.3
 5.700  0.5977  107.1   2.579   15.9  0.1459   25.5  0.1685  141.1
 5.800  0.6022  106.1   2.530   14.8  0.1479   24.8  0.1707  138.9
 5.900  0.6068  105.2   2.483   13.6  0.1498   24.1  0.1732  136.8
 6.000  0.6116  104.3   2.436   12.3  0.1518   23.4  0.1759  134.8
!
!  f       NFmin   Gammaopt  rn/50
! GHz       dB    MAG  ANG    -
 0.900      1.41  0.38 -138   0.12
 1.800      1.56  0.40 -142   0.12
 2.400      1.58  0.41 -133   0.14
 3.000      1.70  0.43 -126   0.17
 4.000      1.76  0.52 -104   0.29
 5.000      1.88  0.59  -87   0.46
 6.000      2.22  0.57  -86   0.68
!
! (c) 2015  Infineon Technologies AG, Munich
