! Infineon Technologies  Discrete & RF Semiconductors
! BFP540
! VCE =  2.5 V,  IC =  30 mA
! Common Emitter S-Parameters:                            Nov 2015
# GHz  S  MA  R  50
!  f         S11            S21            S12            S22
! GHz     MAG   ANG      MAG   ANG      MAG   ANG      MAG   ANG
 0.010  0.3653   -2.5  45.875  177.8  0.0012  111.8  0.9331   -1.1
 0.015  0.3669   -4.5  45.756  177.3  0.0013  100.2  0.9484   -1.5
 0.020  0.3689   -6.4  45.642  176.7  0.0015   90.9  0.9638   -1.9
 0.025  0.3688   -7.8  45.555  175.8  0.0018   90.3  0.9618   -2.6
 0.030  0.3689   -9.3  45.479  174.9  0.0020   89.9  0.9600   -3.4
 0.035  0.3693  -10.7  45.414  174.1  0.0023   89.6  0.9583   -4.1
 0.040  0.3698  -12.2  45.359  173.2  0.0026   89.3  0.9568   -4.8
 0.045  0.3707  -13.6  45.316  172.3  0.0028   89.1  0.9555   -5.6
 0.050  0.3717  -15.0  45.283  171.4  0.0031   88.9  0.9543   -6.3
 0.055  0.3705  -16.5  45.140  170.6  0.0034   87.0  0.9520   -7.0
 0.060  0.3695  -18.0  45.007  169.8  0.0036   85.4  0.9499   -7.7
 0.065  0.3688  -19.5  44.882  169.0  0.0039   84.1  0.9479   -8.4
 0.070  0.3684  -21.0  44.766  168.2  0.0041   82.8  0.9460   -9.1
 0.075  0.3682  -22.5  44.660  167.3  0.0044   81.8  0.9443   -9.8
 0.080  0.3682  -24.1  44.563  166.5  0.0046   80.8  0.9428  -10.5
 0.085  0.3686  -25.6  44.474  165.7  0.0049   80.0  0.9414  -11.2
 0.090  0.3692  -27.1  44.396  164.9  0.0052   79.2  0.9401  -12.0
 0.095  0.3700  -28.6  44.326  164.0  0.0054   78.5  0.9390  -12.7
 0.100  0.3711  -30.1  44.266  163.2  0.0057   77.9  0.9380  -13.4
 0.105  0.3700  -31.5  44.063  162.4  0.0060   77.6  0.9346  -14.0
 0.110  0.3692  -32.9  43.868  161.7  0.0063   77.4  0.9314  -14.7
 0.115  0.3686  -34.4  43.681  160.9  0.0066   77.1  0.9282  -15.3
 0.120  0.3682  -35.8  43.502  160.1  0.0069   76.9  0.9252  -16.0
 0.125  0.3680  -37.2  43.331  159.3  0.0072   76.8  0.9223  -16.6
 0.130  0.3681  -38.7  43.169  158.5  0.0075   76.6  0.9195  -17.3
 0.135  0.3684  -40.1  43.015  157.7  0.0078   76.4  0.9169  -18.0
 0.140  0.3689  -41.6  42.869  156.9  0.0081   76.3  0.9144  -18.6
 0.145  0.3697  -43.0  42.732  156.1  0.0084   76.1  0.9120  -19.3
 0.150  0.3707  -44.4  42.603  155.3  0.0087   76.0  0.9097  -20.0
 0.155  0.3698  -45.6  42.358  154.6  0.0090   76.1  0.9052  -20.6
 0.160  0.3690  -46.9  42.119  153.9  0.0093   76.2  0.9008  -21.2
 0.165  0.3685  -48.2  41.886  153.2  0.0095   76.3  0.8965  -21.8
 0.170  0.3681  -49.4  41.660  152.5  0.0098   76.3  0.8923  -22.4
 0.175  0.3679  -50.7  41.440  151.8  0.0101   76.4  0.8882  -23.0
 0.180  0.3678  -52.0  41.226  151.1  0.0104   76.5  0.8842  -23.6
 0.185  0.3680  -53.2  41.019  150.3  0.0107   76.5  0.8804  -24.2
 0.190  0.3683  -54.5  40.819  149.6  0.0109   76.6  0.8766  -24.8
 0.195  0.3688  -55.7  40.626  148.9  0.0112   76.6  0.8729  -25.5
 0.200  0.3695  -57.0  40.440  148.1  0.0115   76.7  0.8693  -26.1
 0.220  0.3679  -61.6  39.430  145.5  0.0125   74.1  0.8514  -28.3
 0.240  0.3687  -66.1  38.504  142.8  0.0135   72.0  0.8347  -30.5
 0.260  0.3689  -70.7  37.569  140.3  0.0144   70.8  0.8171  -32.6
 0.280  0.3686  -75.2  36.606  137.9  0.0153   70.5  0.7983  -34.5
 0.300  0.3706  -79.7  35.708  135.4  0.0161   70.2  0.7803  -36.5
 0.320  0.3672  -83.3  34.694  133.6  0.0169   69.6  0.7614  -38.0
 0.340  0.3653  -86.9  33.717  131.6  0.0176   69.0  0.7432  -39.6
 0.360  0.3648  -90.5  32.781  129.6  0.0184   68.4  0.7255  -41.3
 0.380  0.3658  -94.1  31.890  127.4  0.0191   68.0  0.7084  -43.1
 0.400  0.3682  -97.7  31.048  125.1  0.0199   67.5  0.6921  -44.9
 0.420  0.3666 -100.8  30.221  123.6  0.0205   66.9  0.6753  -46.1
 0.440  0.3661 -103.9  29.415  122.0  0.0212   66.3  0.6589  -47.5
 0.450  0.3662 -105.4  29.021  121.2  0.0215   66.0  0.6508  -48.1
 0.460  0.3666 -107.0  28.632  120.4  0.0218   65.7  0.6428  -48.8
 0.480  0.3682 -110.1  27.875  118.6  0.0225   65.2  0.6272  -50.3
 0.500  0.3709 -113.1  27.145  116.8  0.0231   64.7  0.6119  -51.8
 0.520  0.3703 -115.4  26.423  115.6  0.0237   64.4  0.5981  -52.8
 0.540  0.3704 -117.7  25.713  114.3  0.0243   64.1  0.5845  -53.8
 0.560  0.3710 -120.0  25.016  113.0  0.0248   63.8  0.5711  -54.8
 0.580  0.3723 -122.3  24.334  111.6  0.0254   63.5  0.5579  -55.9
 0.600  0.3741 -124.6  23.667  110.1  0.0260   63.2  0.5449  -57.1
 0.620  0.3734 -126.5  23.115  109.1  0.0266   62.9  0.5335  -57.9
 0.640  0.3731 -128.4  22.570  108.1  0.0271   62.5  0.5221  -58.8
 0.660  0.3733 -130.2  22.033  107.0  0.0277   62.2  0.5110  -59.7
 0.680  0.3738 -132.1  21.503  105.9  0.0282   61.9  0.4999  -60.7
 0.700  0.3747 -134.0  20.983  104.7  0.0288   61.6  0.4890  -61.7
 0.720  0.3751 -135.8  20.501  103.8  0.0294   61.5  0.4792  -62.5
 0.740  0.3758 -137.6  20.023  102.9  0.0300   61.5  0.4695  -63.4
 0.760  0.3769 -139.4  19.551  102.0  0.0306   61.4  0.4599  -64.3
 0.780  0.3784 -141.2  19.085  101.0  0.0312   61.4  0.4504  -65.2
 0.800  0.3803 -143.0  18.625   99.9  0.0318   61.3  0.4410  -66.2
 0.820  0.3803 -144.3  18.241   99.2  0.0323   61.4  0.4330  -66.8
 0.840  0.3804 -145.6  17.861   98.4  0.0327   61.5  0.4251  -67.4
 0.860  0.3808 -146.8  17.484   97.6  0.0332   61.6  0.4172  -68.1
 0.880  0.3814 -148.1  17.110   96.8  0.0336   61.7  0.4094  -68.8
 0.900  0.3821 -149.4  16.740   95.9  0.0341   61.8  0.4016  -69.5
 0.920  0.3819 -150.7  16.419   95.3  0.0347   61.7  0.3946  -70.1
 0.940  0.3819 -151.9  16.100   94.6  0.0353   61.5  0.3876  -70.7
 0.960  0.3820 -153.2  15.783   93.9  0.0359   61.4  0.3806  -71.4
 0.980  0.3824 -154.4  15.469   93.2  0.0365   61.3  0.3737  -72.0
 1.000  0.3829 -155.7  15.157   92.4  0.0371   61.2  0.3669  -72.7
 1.020  0.3837 -156.8  14.889   91.8  0.0376   61.2  0.3610  -73.4
 1.040  0.3846 -157.9  14.623   91.2  0.0381   61.1  0.3551  -74.1
 1.060  0.3857 -159.0  14.358   90.6  0.0386   61.1  0.3493  -74.8
 1.080  0.3869 -160.1  14.096   89.9  0.0391   61.0  0.3435  -75.6
 1.100  0.3883 -161.2  13.835   89.2  0.0396   61.0  0.3378  -76.4
 1.120  0.3890 -162.1  13.602   88.7  0.0402   60.8  0.3329  -76.8
 1.140  0.3897 -163.0  13.371   88.2  0.0408   60.5  0.3281  -77.3
 1.160  0.3906 -163.9  13.140   87.6  0.0414   60.3  0.3232  -77.7
 1.180  0.3915 -164.8  12.911   87.1  0.0420   60.1  0.3184  -78.2
 1.200  0.3926 -165.7  12.683   86.5  0.0426   59.9  0.3136  -78.7
 1.220  0.3929 -166.5  12.493   86.0  0.0431   59.9  0.3089  -79.1
 1.240  0.3932 -167.2  12.304   85.5  0.0436   59.8  0.3043  -79.5
 1.260  0.3936 -168.0  12.116   85.0  0.0441   59.8  0.2997  -80.0
 1.280  0.3941 -168.7  11.929   84.5  0.0446   59.7  0.2951  -80.4
 1.300  0.3946 -169.5  11.743   83.9  0.0451   59.7  0.2905  -80.9
 1.320  0.3957 -170.3  11.573   83.4  0.0457   59.7  0.2865  -81.7
 1.340  0.3969 -171.2  11.405   83.0  0.0462   59.7  0.2825  -82.5
 1.360  0.3981 -172.0  11.237   82.5  0.0468   59.6  0.2786  -83.3
 1.380  0.3995 -172.8  11.069   82.0  0.0473   59.6  0.2748  -84.2
 1.400  0.4009 -173.6  10.903   81.5  0.0479   59.6  0.2710  -85.1
 1.420  0.4018 -174.3  10.753   81.1  0.0484   59.5  0.2676  -85.5
 1.440  0.4027 -175.1  10.603   80.6  0.0490   59.5  0.2641  -85.8
 1.460  0.4038 -175.8  10.455   80.2  0.0495   59.4  0.2607  -86.2
 1.480  0.4049 -176.5  10.306   79.7  0.0501   59.4  0.2573  -86.6
 1.500  0.4060 -177.2  10.159   79.2  0.0506   59.3  0.2539  -87.0
 1.520  0.4054 -177.9  10.031   78.8  0.0511   59.1  0.2503  -87.4
 1.540  0.4049 -178.6   9.904   78.4  0.0516   58.9  0.2467  -87.8
 1.560  0.4044 -179.2   9.778   78.0  0.0521   58.7  0.2432  -88.2
 1.580  0.4040 -179.9   9.652   77.5  0.0526   58.6  0.2396  -88.6
 1.600  0.4037  179.4   9.526   77.1  0.0531   58.4  0.2361  -89.0
 1.620  0.4052  178.7   9.411   76.7  0.0536   58.3  0.2338  -89.8
 1.640  0.4067  178.0   9.297   76.3  0.0541   58.1  0.2315  -90.6
 1.660  0.4083  177.3   9.183   75.8  0.0547   58.0  0.2293  -91.4
 1.680  0.4099  176.7   9.070   75.4  0.0552   57.8  0.2271  -92.2
 1.700  0.4116  176.0   8.957   74.9  0.0557   57.7  0.2250  -93.0
 1.720  0.4122  175.4   8.853   74.5  0.0562   57.7  0.2228  -93.4
 1.740  0.4128  174.9   8.750   74.2  0.0567   57.6  0.2205  -93.7
 1.760  0.4135  174.3   8.647   73.8  0.0572   57.6  0.2183  -94.1
 1.780  0.4142  173.8   8.545   73.4  0.0577   57.5  0.2161  -94.5
 1.800  0.4149  173.2   8.443   73.0  0.0582   57.5  0.2139  -94.9
 1.820  0.4148  172.7   8.355   72.7  0.0588   57.4  0.2105  -95.2
 1.840  0.4146  172.2   8.267   72.3  0.0595   57.3  0.2070  -95.5
 1.860  0.4146  171.6   8.179   71.9  0.0601   57.1  0.2036  -95.8
 1.880  0.4145  171.1   8.092   71.6  0.0608   57.0  0.2002  -96.2
 1.900  0.4145  170.6   8.005   71.2  0.0614   56.9  0.1968  -96.5
 1.920  0.4159  170.0   7.919   70.8  0.0619   56.8  0.1956  -97.0
 1.940  0.4173  169.4   7.834   70.4  0.0624   56.6  0.1945  -97.6
 1.960  0.4187  168.8   7.749   70.0  0.0630   56.5  0.1933  -98.1
 1.980  0.4202  168.3   7.664   69.6  0.0635   56.3  0.1922  -98.6
 2.000  0.4217  167.7   7.580   69.2  0.0640   56.2  0.1911  -99.2
 2.020  0.4220  167.3   7.510   68.9  0.0646   56.0  0.1887  -99.6
 2.040  0.4223  166.8   7.440   68.6  0.0652   55.9  0.1863 -100.0
 2.060  0.4227  166.4   7.370   68.3  0.0657   55.8  0.1839 -100.3
 2.080  0.4230  165.9   7.300   68.0  0.0663   55.6  0.1815 -100.7
 2.100  0.4234  165.5   7.231   67.6  0.0669   55.5  0.1791 -101.2
 2.120  0.4239  165.0   7.161   67.3  0.0675   55.3  0.1768 -101.6
 2.140  0.4243  164.6   7.092   67.0  0.0681   55.2  0.1744 -102.0
 2.160  0.4248  164.2   7.024   66.6  0.0686   55.1  0.1721 -102.5
 2.180  0.4253  163.7   6.955   66.3  0.0692   54.9  0.1697 -102.9
 2.200  0.4258  163.3   6.887   65.9  0.0698   54.8  0.1674 -103.4
 2.220  0.4266  162.8   6.826   65.6  0.0703   54.7  0.1660 -103.8
 2.240  0.4275  162.2   6.765   65.3  0.0709   54.5  0.1647 -104.2
 2.260  0.4283  161.7   6.705   64.9  0.0714   54.4  0.1634 -104.6
 2.280  0.4293  161.2   6.645   64.6  0.0719   54.2  0.1620 -105.0
 2.300  0.4302  160.7   6.585   64.3  0.0724   54.1  0.1607 -105.4
 2.320  0.4312  160.2   6.525   63.9  0.0730   53.9  0.1594 -105.8
 2.340  0.4322  159.6   6.465   63.6  0.0735   53.8  0.1581 -106.3
 2.360  0.4333  159.1   6.406   63.2  0.0740   53.7  0.1568 -106.7
 2.380  0.4344  158.6   6.347   62.9  0.0746   53.5  0.1555 -107.1
 2.400  0.4355  158.1   6.288   62.5  0.0751   53.4  0.1542 -107.6
 2.420  0.4365  157.6   6.237   62.2  0.0757   53.2  0.1521 -108.5
 2.440  0.4375  157.1   6.187   61.9  0.0762   53.0  0.1500 -109.4
 2.460  0.4385  156.7   6.137   61.5  0.0768   52.8  0.1480 -110.3
 2.480  0.4396  156.2   6.087   61.2  0.0773   52.6  0.1460 -111.2
 2.500  0.4407  155.7   6.037   60.9  0.0779   52.5  0.1441 -112.2
 2.520  0.4419  155.3   5.988   60.5  0.0785   52.3  0.1422 -113.2
 2.540  0.4430  154.8   5.939   60.2  0.0790   52.1  0.1403 -114.3
 2.560  0.4442  154.3   5.889   59.8  0.0796   51.9  0.1385 -115.3
 2.580  0.4454  153.9   5.841   59.5  0.0801   51.8  0.1367 -116.4
 2.600  0.4467  153.4   5.792   59.1  0.0807   51.6  0.1350 -117.5
 2.620  0.4476  153.0   5.750   58.8  0.0813   51.4  0.1334 -118.0
 2.640  0.4486  152.7   5.708   58.5  0.0819   51.3  0.1319 -118.5
 2.660  0.4496  152.3   5.666   58.2  0.0826   51.1  0.1304 -119.0
 2.680  0.4506  151.9   5.624   57.9  0.0832   51.0  0.1288 -119.5
 2.700  0.4516  151.6   5.583   57.6  0.0838   50.8  0.1273 -120.0
 2.720  0.4527  151.2   5.541   57.2  0.0844   50.7  0.1258 -120.6
 2.740  0.4537  150.9   5.500   56.9  0.0850   50.5  0.1243 -121.1
 2.760  0.4548  150.5   5.459   56.6  0.0857   50.4  0.1228 -121.7
 2.780  0.4559  150.2   5.419   56.2  0.0863   50.2  0.1214 -122.3
 2.800  0.4570  149.8   5.378   55.9  0.0869   50.1  0.1199 -122.9
 2.820  0.4578  149.3   5.340   55.6  0.0873   49.9  0.1189 -123.8
 2.840  0.4586  148.8   5.303   55.3  0.0878   49.7  0.1180 -124.8
 2.860  0.4594  148.3   5.265   55.0  0.0882   49.5  0.1170 -125.8
 2.880  0.4603  147.8   5.228   54.6  0.0887   49.4  0.1162 -126.8
 2.900  0.4612  147.3   5.191   54.3  0.0891   49.2  0.1153 -127.8
 2.920  0.4621  146.8   5.154   54.0  0.0896   49.0  0.1145 -128.8
 2.940  0.4631  146.3   5.117   53.6  0.0900   48.8  0.1137 -129.8
 2.960  0.4641  145.9   5.081   53.3  0.0905   48.6  0.1130 -130.9
 2.980  0.4651  145.4   5.044   53.0  0.0909   48.5  0.1123 -131.9
 3.000  0.4662  144.9   5.008   52.6  0.0914   48.3  0.1116 -133.0
 3.100  0.4715  142.8   4.852   51.2  0.0940   47.3  0.1082 -138.8
 3.200  0.4774  140.8   4.700   49.7  0.0966   46.4  0.1061 -144.9
 3.300  0.4839  138.9   4.550   48.2  0.0992   45.5  0.1051 -151.2
 3.400  0.4909  137.0   4.405   46.5  0.1018   44.6  0.1055 -157.6
 3.500  0.4985  135.1   4.263   44.7  0.1045   43.8  0.1071 -163.8
 3.600  0.5041  133.4   4.141   43.4  0.1066   42.8  0.1109 -170.0
 3.700  0.5101  131.8   4.022   42.0  0.1087   41.9  0.1159 -175.6
 3.800  0.5164  130.2   3.905   40.5  0.1108   41.0  0.1220  179.2
 3.900  0.5232  128.6   3.791   38.9  0.1129   40.1  0.1289  174.5
 4.000  0.5304  127.1   3.680   37.2  0.1151   39.3  0.1366  170.4
 4.100  0.5361  125.6   3.581   35.9  0.1172   38.1  0.1425  167.4
 4.200  0.5422  124.1   3.484   34.6  0.1193   36.9  0.1489  164.6
 4.300  0.5486  122.7   3.389   33.2  0.1215   35.8  0.1555  162.0
 4.400  0.5553  121.3   3.296   31.7  0.1237   34.7  0.1624  159.7
 4.500  0.5624  119.9   3.205   30.1  0.1260   33.7  0.1696  157.5
 4.600  0.5671  118.6   3.129   28.8  0.1280   32.8  0.1739  155.3
 4.700  0.5722  117.3   3.055   27.5  0.1300   31.9  0.1785  153.3
 4.800  0.5775  116.0   2.982   26.1  0.1320   31.1  0.1833  151.3
 4.900  0.5831  114.7   2.912   24.6  0.1341   30.3  0.1882  149.5
 5.000  0.5890  113.5   2.843   23.1  0.1362   29.5  0.1934  147.7
 5.100  0.5931  112.4   2.778   22.0  0.1382   28.6  0.1961  145.7
 5.200  0.5973  111.3   2.714   20.8  0.1402   27.8  0.1991  143.8
 5.300  0.6018  110.3   2.651   19.5  0.1422   27.0  0.2023  141.9
 5.400  0.6065  109.2   2.589   18.2  0.1443   26.2  0.2057  140.1
 5.500  0.6114  108.2   2.529   16.8  0.1464   25.4  0.2093  138.4
 5.600  0.6151  107.2   2.481   15.7  0.1483   24.6  0.2113  136.5
 5.700  0.6191  106.3   2.433   14.6  0.1502   23.8  0.2136  134.6
 5.800  0.6231  105.3   2.387   13.5  0.1521   23.0  0.2161  132.8
 5.900  0.6274  104.4   2.341   12.3  0.1540   22.2  0.2189  131.0
 6.000  0.6318  103.5   2.297   11.0  0.1560   21.5  0.2218  129.2
!
!  f       NFmin   Gammaopt  rn/50
! GHz       dB    MAG  ANG    -
 0.900      1.41  0.38 -138   0.12
 1.800      1.56  0.40 -142   0.12
 2.400      1.58  0.41 -133   0.14
 3.000      1.70  0.43 -126   0.17
 4.000      1.76  0.52 -104   0.29
 5.000      1.88  0.59  -87   0.46
 6.000      2.22  0.57  -86   0.68
!
! (c) 2015  Infineon Technologies AG, Munich
