! Infineon Technologies  Discrete & RF Semiconductors
! BFP540
! VCE =  4.0 V,  IC =  12 mA
! Common Emitter S-Parameters:                            Nov 2015
# GHz  S  MA  R  50
!  f         S11            S21            S12            S22
! GHz     MAG   ANG      MAG   ANG      MAG   ANG      MAG   ANG
 0.010  0.6296   -1.1  29.244  177.9  0.0009   46.2  0.9546   -1.3
 0.015  0.6314   -2.3  29.072  177.6  0.0010   49.5  0.9602   -1.4
 0.020  0.6335   -3.4  28.901  177.2  0.0012   52.0  0.9658   -1.5
 0.025  0.6334   -4.2  28.861  176.6  0.0016   60.5  0.9658   -2.0
 0.030  0.6335   -4.9  28.824  176.0  0.0020   65.6  0.9658   -2.4
 0.035  0.6337   -5.7  28.790  175.5  0.0024   68.9  0.9659   -2.9
 0.040  0.6340   -6.5  28.759  174.9  0.0028   71.2  0.9660   -3.4
 0.045  0.6344   -7.2  28.731  174.3  0.0033   73.0  0.9662   -3.8
 0.050  0.6349   -8.0  28.706  173.7  0.0037   74.3  0.9665   -4.3
 0.055  0.6343   -8.8  28.662  173.2  0.0040   75.3  0.9654   -4.7
 0.060  0.6338   -9.7  28.620  172.6  0.0044   76.2  0.9644   -5.2
 0.065  0.6334  -10.5  28.580  172.1  0.0047   77.0  0.9635   -5.6
 0.070  0.6332  -11.4  28.544  171.5  0.0051   77.6  0.9626   -6.1
 0.075  0.6331  -12.2  28.510  171.0  0.0054   78.2  0.9618   -6.5
 0.080  0.6331  -13.0  28.478  170.4  0.0057   78.7  0.9610   -7.0
 0.085  0.6333  -13.9  28.449  169.9  0.0061   79.1  0.9603   -7.4
 0.090  0.6336  -14.7  28.423  169.3  0.0064   79.5  0.9597   -7.9
 0.095  0.6341  -15.6  28.400  168.8  0.0068   79.9  0.9591   -8.3
 0.100  0.6347  -16.4  28.379  168.2  0.0071   80.2  0.9586   -8.8
 0.105  0.6329  -17.2  28.319  167.7  0.0074   79.5  0.9571   -9.2
 0.110  0.6313  -18.0  28.262  167.1  0.0077   78.8  0.9556   -9.7
 0.115  0.6298  -18.8  28.207  166.6  0.0080   78.2  0.9542  -10.1
 0.120  0.6284  -19.6  28.154  166.0  0.0083   77.7  0.9528  -10.5
 0.125  0.6272  -20.4  28.105  165.5  0.0086   77.1  0.9515  -10.9
 0.130  0.6261  -21.2  28.057  164.9  0.0090   76.6  0.9502  -11.4
 0.135  0.6250  -22.0  28.013  164.4  0.0093   76.2  0.9490  -11.8
 0.140  0.6242  -22.9  27.971  163.8  0.0096   75.8  0.9478  -12.2
 0.145  0.6234  -23.7  27.932  163.3  0.0099   75.4  0.9467  -12.7
 0.150  0.6228  -24.5  27.895  162.7  0.0102   75.0  0.9457  -13.1
 0.155  0.6215  -25.3  27.814  162.2  0.0105   74.9  0.9435  -13.5
 0.160  0.6203  -26.1  27.734  161.6  0.0108   74.7  0.9414  -13.9
 0.165  0.6193  -26.8  27.658  161.1  0.0112   74.6  0.9394  -14.3
 0.170  0.6184  -27.6  27.583  160.6  0.0115   74.5  0.9374  -14.8
 0.175  0.6175  -28.4  27.511  160.0  0.0118   74.4  0.9354  -15.2
 0.180  0.6168  -29.2  27.442  159.5  0.0121   74.3  0.9335  -15.6
 0.185  0.6162  -30.0  27.375  158.9  0.0124   74.2  0.9317  -16.0
 0.190  0.6158  -30.8  27.310  158.4  0.0128   74.1  0.9299  -16.4
 0.195  0.6154  -31.6  27.248  157.9  0.0131   74.0  0.9281  -16.9
 0.200  0.6152  -32.4  27.189  157.3  0.0134   73.9  0.9264  -17.3
 0.220  0.6106  -35.5  26.853  155.3  0.0146   73.6  0.9173  -18.9
 0.240  0.6077  -38.5  26.553  153.2  0.0157   73.3  0.9090  -20.6
 0.260  0.6034  -41.6  26.234  151.1  0.0169   72.6  0.8997  -22.1
 0.280  0.5975  -44.5  25.892  149.1  0.0182   71.7  0.8892  -23.6
 0.300  0.5932  -47.5  25.583  147.1  0.0195   70.8  0.8794  -25.1
 0.320  0.5856  -50.2  25.148  145.4  0.0205   69.8  0.8670  -26.4
 0.340  0.5793  -53.0  24.736  143.6  0.0215   68.8  0.8552  -27.8
 0.360  0.5744  -55.8  24.349  141.8  0.0225   68.0  0.8438  -29.2
 0.380  0.5710  -58.6  23.988  139.9  0.0236   67.2  0.8330  -30.7
 0.400  0.5689  -61.5  23.654  137.9  0.0246   66.5  0.8227  -32.2
 0.420  0.5613  -64.0  23.245  136.3  0.0255   65.4  0.8098  -33.4
 0.440  0.5548  -66.6  22.855  134.7  0.0263   64.3  0.7973  -34.6
 0.450  0.5520  -67.9  22.666  133.9  0.0268   63.8  0.7912  -35.2
 0.460  0.5495  -69.2  22.482  133.1  0.0272   63.4  0.7851  -35.9
 0.480  0.5453  -71.9  22.129  131.4  0.0281   62.5  0.7734  -37.2
 0.500  0.5424  -74.6  21.797  129.6  0.0290   61.6  0.7620  -38.5
 0.520  0.5358  -76.9  21.373  128.3  0.0297   61.1  0.7497  -39.5
 0.540  0.5300  -79.2  20.961  126.9  0.0305   60.6  0.7376  -40.5
 0.560  0.5252  -81.6  20.561  125.5  0.0312   60.2  0.7258  -41.5
 0.580  0.5213  -84.0  20.174  124.0  0.0320   59.7  0.7142  -42.6
 0.600  0.5183  -86.5  19.801  122.5  0.0327   59.3  0.7029  -43.7
 0.620  0.5134  -88.5  19.454  121.4  0.0333   58.8  0.6919  -44.6
 0.640  0.5091  -90.5  19.114  120.2  0.0339   58.3  0.6810  -45.5
 0.660  0.5055  -92.5  18.783  119.0  0.0345   57.8  0.6703  -46.4
 0.680  0.5025  -94.6  18.460  117.8  0.0351   57.3  0.6597  -47.3
 0.700  0.5002  -96.7  18.146  116.5  0.0357   56.9  0.6494  -48.3
 0.720  0.4955  -98.6  17.810  115.5  0.0363   56.5  0.6389  -49.1
 0.740  0.4915 -100.6  17.480  114.4  0.0369   56.2  0.6285  -50.0
 0.760  0.4880 -102.6  17.156  113.3  0.0374   55.8  0.6183  -50.9
 0.780  0.4851 -104.6  16.839  112.1  0.0380   55.5  0.6082  -51.8
 0.800  0.4828 -106.7  16.529  110.9  0.0386   55.2  0.5983  -52.7
 0.820  0.4792 -108.4  16.239  110.0  0.0391   54.8  0.5893  -53.3
 0.840  0.4759 -110.0  15.954  109.1  0.0396   54.4  0.5804  -54.0
 0.860  0.4731 -111.7  15.672  108.2  0.0401   54.0  0.5715  -54.6
 0.880  0.4708 -113.5  15.395  107.2  0.0406   53.6  0.5628  -55.3
 0.900  0.4688 -115.2  15.122  106.2  0.0411   53.2  0.5541  -56.0
 0.920  0.4653 -116.7  14.872  105.4  0.0417   53.1  0.5459  -56.6
 0.940  0.4622 -118.2  14.624  104.6  0.0423   53.0  0.5377  -57.2
 0.960  0.4594 -119.7  14.379  103.8  0.0428   52.8  0.5296  -57.8
 0.980  0.4569 -121.2  14.138  102.9  0.0434   52.7  0.5215  -58.4
 1.000  0.4547 -122.8  13.900  102.0  0.0440   52.6  0.5135  -59.1
 1.020  0.4529 -124.3  13.682  101.3  0.0445   52.3  0.5061  -59.7
 1.040  0.4514 -125.9  13.466  100.5  0.0449   52.0  0.4987  -60.4
 1.060  0.4503 -127.5  13.253   99.7  0.0454   51.7  0.4914  -61.1
 1.080  0.4495 -129.0  13.043   98.9  0.0458   51.4  0.4842  -61.8
 1.100  0.4490 -130.6  12.835   98.0  0.0463   51.1  0.4770  -62.5
 1.120  0.4475 -131.9  12.641   97.4  0.0467   51.0  0.4709  -62.9
 1.140  0.4462 -133.2  12.449   96.7  0.0471   50.8  0.4649  -63.3
 1.160  0.4452 -134.5  12.259   96.1  0.0474   50.7  0.4589  -63.7
 1.180  0.4444 -135.8  12.070   95.4  0.0478   50.5  0.4529  -64.2
 1.200  0.4438 -137.1  11.883   94.7  0.0482   50.4  0.4469  -64.6
 1.220  0.4426 -138.2  11.719   94.1  0.0487   50.3  0.4412  -65.0
 1.240  0.4416 -139.2  11.556   93.6  0.0491   50.3  0.4356  -65.4
 1.260  0.4408 -140.3  11.395   93.0  0.0496   50.2  0.4300  -65.8
 1.280  0.4401 -141.3  11.235   92.3  0.0500   50.2  0.4244  -66.2
 1.300  0.4395 -142.4  11.076   91.7  0.0505   50.1  0.4188  -66.6
 1.320  0.4388 -143.6  10.929   91.1  0.0509   49.9  0.4134  -67.2
 1.340  0.4384 -144.8  10.783   90.5  0.0512   49.7  0.4080  -67.8
 1.360  0.4381 -145.9  10.639   89.9  0.0516   49.6  0.4026  -68.5
 1.380  0.4380 -147.1  10.495   89.3  0.0519   49.4  0.3973  -69.1
 1.400  0.4381 -148.3  10.353   88.7  0.0523   49.2  0.3921  -69.8
 1.420  0.4376 -149.3  10.219   88.2  0.0528   49.1  0.3875  -70.1
 1.440  0.4373 -150.4  10.085   87.6  0.0534   49.0  0.3830  -70.4
 1.460  0.4371 -151.4   9.953   87.1  0.0539   48.9  0.3784  -70.7
 1.480  0.4371 -152.5   9.821   86.5  0.0545   48.8  0.3739  -71.0
 1.500  0.4372 -153.5   9.691   85.9  0.0550   48.7  0.3694  -71.3
 1.520  0.4358 -154.4   9.574   85.4  0.0554   48.7  0.3649  -71.6
 1.540  0.4344 -155.3   9.458   84.9  0.0557   48.6  0.3605  -71.9
 1.560  0.4332 -156.2   9.343   84.4  0.0561   48.6  0.3561  -72.2
 1.580  0.4321 -157.2   9.229   83.9  0.0564   48.5  0.3516  -72.5
 1.600  0.4311 -158.1   9.115   83.4  0.0568   48.5  0.3472  -72.8
 1.620  0.4315 -159.1   9.013   82.9  0.0572   48.4  0.3436  -73.4
 1.640  0.4320 -160.0   8.912   82.4  0.0577   48.3  0.3401  -73.9
 1.660  0.4327 -161.0   8.811   81.9  0.0581   48.2  0.3365  -74.5
 1.680  0.4334 -161.9   8.711   81.3  0.0586   48.1  0.3330  -75.1
 1.700  0.4343 -162.9   8.612   80.8  0.0590   48.0  0.3296  -75.7
 1.720  0.4339 -163.7   8.515   80.4  0.0595   47.9  0.3264  -76.0
 1.740  0.4336 -164.5   8.418   80.0  0.0600   47.8  0.3233  -76.2
 1.760  0.4334 -165.3   8.322   79.5  0.0604   47.7  0.3201  -76.5
 1.780  0.4333 -166.1   8.226   79.1  0.0609   47.6  0.3169  -76.8
 1.800  0.4333 -166.9   8.131   78.6  0.0614   47.5  0.3138  -77.1
 1.820  0.4329 -167.6   8.051   78.2  0.0618   47.4  0.3099  -77.3
 1.840  0.4326 -168.3   7.971   77.8  0.0621   47.3  0.3059  -77.5
 1.860  0.4324 -169.0   7.892   77.4  0.0625   47.2  0.3020  -77.7
 1.880  0.4322 -169.7   7.813   76.9  0.0628   47.1  0.2980  -77.9
 1.900  0.4321 -170.4   7.735   76.5  0.0632   47.0  0.2941  -78.1
 1.920  0.4322 -171.2   7.656   76.1  0.0637   46.9  0.2918  -78.5
 1.940  0.4324 -172.0   7.578   75.6  0.0641   46.8  0.2896  -78.9
 1.960  0.4327 -172.9   7.500   75.1  0.0646   46.6  0.2874  -79.3
 1.980  0.4331 -173.7   7.422   74.7  0.0650   46.5  0.2852  -79.8
 2.000  0.4336 -174.5   7.345   74.2  0.0655   46.4  0.2830  -80.2
 2.020  0.4336 -175.2   7.278   73.9  0.0659   46.3  0.2800  -80.4
 2.040  0.4336 -175.8   7.211   73.5  0.0664   46.3  0.2771  -80.6
 2.060  0.4337 -176.5   7.144   73.1  0.0668   46.2  0.2741  -80.8
 2.080  0.4338 -177.1   7.078   72.8  0.0673   46.2  0.2712  -81.0
 2.100  0.4341 -177.8   7.012   72.4  0.0677   46.1  0.2683  -81.2
 2.120  0.4343 -178.4   6.946   72.0  0.0682   46.1  0.2653  -81.5
 2.140  0.4346 -179.1   6.880   71.6  0.0686   46.0  0.2624  -81.7
 2.160  0.4350 -179.7   6.815   71.2  0.0691   46.0  0.2594  -81.9
 2.180  0.4354  179.6   6.750   70.8  0.0695   45.9  0.2565  -82.2
 2.200  0.4359  179.0   6.686   70.4  0.0700   45.9  0.2536  -82.4
 2.220  0.4362  178.3   6.628   70.0  0.0704   45.8  0.2516  -82.6
 2.240  0.4365  177.7   6.571   69.7  0.0708   45.7  0.2497  -82.9
 2.260  0.4369  177.0   6.514   69.3  0.0711   45.6  0.2477  -83.1
 2.280  0.4374  176.3   6.457   69.0  0.0715   45.5  0.2458  -83.3
 2.300  0.4379  175.7   6.400   68.6  0.0719   45.4  0.2438  -83.6
 2.320  0.4384  175.0   6.344   68.2  0.0723   45.3  0.2419  -83.8
 2.340  0.4391  174.4   6.287   67.8  0.0727   45.2  0.2400  -84.0
 2.360  0.4398  173.7   6.232   67.4  0.0730   45.1  0.2380  -84.3
 2.380  0.4405  173.1   6.176   67.0  0.0734   45.0  0.2361  -84.5
 2.400  0.4413  172.4   6.121   66.6  0.0738   44.9  0.2342  -84.8
 2.420  0.4418  171.8   6.073   66.2  0.0742   44.8  0.2312  -85.3
 2.440  0.4424  171.1   6.026   65.9  0.0747   44.6  0.2282  -85.8
 2.460  0.4430  170.5   5.978   65.5  0.0751   44.5  0.2253  -86.2
 2.480  0.4437  169.8   5.931   65.2  0.0755   44.4  0.2223  -86.8
 2.500  0.4445  169.2   5.884   64.8  0.0759   44.3  0.2194  -87.3
 2.520  0.4453  168.5   5.838   64.4  0.0764   44.2  0.2165  -87.8
 2.540  0.4461  167.9   5.791   64.0  0.0768   44.0  0.2136  -88.4
 2.560  0.4470  167.3   5.745   63.6  0.0772   43.9  0.2108  -88.9
 2.580  0.4480  166.6   5.699   63.2  0.0777   43.8  0.2079  -89.5
 2.600  0.4490  166.0   5.654   62.8  0.0781   43.7  0.2051  -90.1
 2.620  0.4496  165.5   5.614   62.5  0.0786   43.6  0.2031  -90.3
 2.640  0.4503  165.0   5.574   62.1  0.0791   43.6  0.2010  -90.5
 2.660  0.4510  164.5   5.534   61.8  0.0797   43.5  0.1990  -90.7
 2.680  0.4518  164.0   5.495   61.5  0.0802   43.4  0.1969  -90.9
 2.700  0.4525  163.5   5.455   61.1  0.0807   43.3  0.1949  -91.1
 2.720  0.4533  163.0   5.416   60.8  0.0812   43.3  0.1929  -91.3
 2.740  0.4542  162.6   5.377   60.4  0.0817   43.2  0.1909  -91.5
 2.760  0.4551  162.1   5.339   60.0  0.0823   43.1  0.1888  -91.7
 2.780  0.4560  161.6   5.300   59.7  0.0828   43.1  0.1868  -92.0
 2.800  0.4569  161.1   5.262   59.3  0.0833   43.0  0.1848  -92.2
 2.820  0.4574  160.5   5.225   59.0  0.0836   42.8  0.1828  -92.6
 2.840  0.4580  159.9   5.188   58.6  0.0840   42.7  0.1807  -93.1
 2.860  0.4586  159.4   5.152   58.3  0.0843   42.5  0.1787  -93.6
 2.880  0.4592  158.8   5.115   57.9  0.0847   42.4  0.1767  -94.0
 2.900  0.4599  158.2   5.079   57.6  0.0850   42.2  0.1747  -94.5
 2.920  0.4606  157.7   5.043   57.2  0.0854   42.1  0.1727  -95.0
 2.940  0.4614  157.1   5.007   56.8  0.0857   41.9  0.1707  -95.5
 2.960  0.4622  156.5   4.972   56.5  0.0861   41.8  0.1688  -96.0
 2.980  0.4631  156.0   4.936   56.1  0.0864   41.6  0.1668  -96.6
 3.000  0.4640  155.4   4.901   55.7  0.0868   41.5  0.1649  -97.1
 3.100  0.4682  152.9   4.751   54.2  0.0890   40.7  0.1560 -100.1
 3.200  0.4733  150.4   4.605   52.6  0.0912   40.0  0.1475 -103.4
 3.300  0.4793  148.0   4.463   50.9  0.0935   39.3  0.1397 -107.1
 3.400  0.4861  145.6   4.325   49.1  0.0957   38.6  0.1324 -111.3
 3.500  0.4937  143.3   4.191   47.2  0.0980   38.0  0.1260 -115.9
 3.600  0.4986  141.2   4.072   45.8  0.0998   37.3  0.1208 -121.3
 3.700  0.5041  139.2   3.956   44.3  0.1016   36.7  0.1167 -127.1
 3.800  0.5102  137.2   3.843   42.7  0.1034   36.0  0.1139 -133.3
 3.900  0.5169  135.3   3.733   41.0  0.1053   35.4  0.1126 -139.7
 4.000  0.5242  133.4   3.627   39.2  0.1071   34.8  0.1126 -146.2
 4.100  0.5294  131.6   3.529   37.8  0.1090   33.9  0.1134 -151.2
 4.200  0.5350  129.8   3.434   36.4  0.1110   32.9  0.1150 -156.1
 4.300  0.5412  128.1   3.341   34.9  0.1130   32.1  0.1175 -160.8
 4.400  0.5478  126.4   3.250   33.3  0.1150   31.2  0.1207 -165.3
 4.500  0.5549  124.8   3.162   31.6  0.1170   30.4  0.1246 -169.6
 4.600  0.5594  123.3   3.088   30.3  0.1188   29.7  0.1265 -173.1
 4.700  0.5643  121.9   3.015   28.9  0.1207   28.9  0.1289 -176.4
 4.800  0.5695  120.5   2.944   27.4  0.1225   28.2  0.1317 -179.7
 4.900  0.5750  119.1   2.876   25.9  0.1244   27.6  0.1348  177.2
 5.000  0.5809  117.8   2.809   24.3  0.1263   26.9  0.1384  174.3
 5.100  0.5847  116.6   2.744   23.1  0.1281   26.2  0.1396  171.4
 5.200  0.5887  115.3   2.681   21.8  0.1300   25.6  0.1411  168.6
 5.300  0.5930  114.1   2.619   20.5  0.1318   24.9  0.1430  165.9
 5.400  0.5975  113.0   2.559   19.1  0.1337   24.3  0.1452  163.2
 5.500  0.6023  111.8   2.500   17.7  0.1356   23.7  0.1477  160.6
 5.600  0.6062  110.8   2.452   16.6  0.1373   23.0  0.1485  158.0
 5.700  0.6104  109.7   2.406   15.4  0.1391   22.4  0.1496  155.5
 5.800  0.6147  108.7   2.360   14.2  0.1409   21.8  0.1510  153.0
 5.900  0.6193  107.7   2.315   12.9  0.1427   21.2  0.1527  150.5
 6.000  0.6240  106.7   2.272   11.6  0.1445   20.6  0.1547  148.1
!
!  f       NFmin   Gammaopt  rn/50
! GHz       dB    MAG  ANG    -
 0.900      0.93  0.16 -133   0.11
 1.800      1.11  0.20 -149   0.10
 2.400      1.12  0.20 -146   0.10
 3.000      1.24  0.25 -142   0.11
 4.000      1.35  0.38 -110   0.17
 5.000      1.51  0.47  -91   0.30
 6.000      1.78  0.53  -92   0.49
!
! (c) 2015  Infineon Technologies AG, Munich
