! Infineon Technologies  Discrete & RF Semiconductors
! BFP520
! VCE =  1.0 V,  IC =  20 mA
! Common Emitter S-Parameters:                            Oct 2015
# GHz  S  MA  R  50
!  f         S11            S21            S12            S22
! GHz     MAG   ANG      MAG   ANG      MAG   ANG      MAG   ANG
 0.030  0.6280   -3.2  31.282  177.5  0.0018   96.2  0.9088   -0.8
 0.040  0.6272   -4.6  31.277  176.3  0.0022   92.6  0.9131   -1.5
 0.050  0.6265   -5.2  31.122  175.2  0.0026   90.5  0.9156   -2.3
 0.060  0.6261   -6.6  31.117  174.6  0.0030   90.7  0.9182   -3.1
 0.070  0.6230   -7.8  31.302  173.5  0.0037   90.1  0.9198   -3.8
 0.080  0.6206   -8.9  31.183  172.8  0.0041   88.6  0.9209   -4.6
 0.090  0.6222  -10.3  31.179  171.8  0.0045   87.3  0.9211   -5.4
 0.100  0.6240  -11.0  30.992  170.9  0.0049   86.7  0.9212   -6.2
 0.110  0.6216  -12.4  31.000  170.0  0.0055   85.5  0.9211   -7.0
 0.120  0.6197  -13.5  31.003  168.9  0.0060   84.9  0.9204   -7.7
 0.130  0.6177  -14.1  30.929  168.1  0.0064   83.9  0.9195   -8.4
 0.140  0.6164  -15.4  30.915  167.1  0.0069   84.0  0.9185   -9.2
 0.150  0.6132  -16.5  30.757  166.0  0.0074   83.1  0.9170  -10.0
 0.200  0.6041  -21.7  30.356  161.5  0.0096   80.8  0.9073  -13.6
 0.250  0.5914  -26.9  29.773  157.0  0.0119   79.0  0.8937  -17.2
 0.300  0.5793  -31.9  29.063  152.7  0.0140   76.9  0.8766  -20.6
 0.350  0.5648  -36.8  28.299  148.6  0.0160   75.0  0.8569  -23.8
 0.400  0.5503  -41.5  27.459  144.6  0.0180   73.2  0.8359  -26.9
 0.450  0.5335  -46.0  26.601  140.8  0.0198   71.6  0.8138  -29.7
 0.500  0.5174  -50.4  25.716  137.3  0.0216   70.2  0.7908  -32.5
 0.600  0.4853  -58.9  24.009  130.6  0.0249   67.6  0.7442  -37.5
 0.700  0.4538  -66.8  22.319  124.6  0.0279   65.5  0.6991  -42.1
 0.800  0.4247  -74.2  20.726  119.2  0.0306   63.7  0.6565  -46.0
 0.900  0.3999  -81.3  19.308  114.5  0.0332   62.3  0.6171  -49.6
 1.000  0.3765  -88.0  17.989  110.0  0.0357   61.1  0.5805  -52.9
 1.100  0.3553  -94.5  16.784  106.0  0.0381   60.1  0.5472  -55.9
 1.200  0.3376 -100.8  15.702  102.3  0.0405   59.1  0.5167  -58.7
 1.300  0.3223 -107.0  14.725   98.9  0.0428   58.3  0.4888  -61.3
 1.400  0.3090 -112.8  13.827   95.8  0.0450   57.6  0.4624  -63.8
 1.500  0.2962 -118.9  13.030   92.8  0.0473   56.9  0.4394  -66.2
 1.600  0.2865 -124.6  12.298   90.0  0.0495   56.2  0.4165  -68.5
 1.700  0.2785 -130.0  11.641   87.4  0.0518   55.5  0.3970  -70.7
 1.800  0.2723 -135.3  11.037   85.0  0.0541   54.9  0.3780  -72.9
 1.900  0.2666 -140.8  10.496   82.6  0.0563   54.2  0.3605  -75.0
 2.000  0.2620 -145.8   9.995   80.3  0.0586   53.5  0.3437  -77.1
 2.100  0.2584 -150.8   9.543   78.3  0.0609   52.8  0.3282  -79.1
 2.200  0.2568 -155.9   9.103   76.0  0.0631   52.2  0.3132  -81.3
 2.300  0.2551 -160.6   8.724   74.1  0.0654   51.4  0.2991  -83.4
 2.400  0.2552 -165.3   8.355   72.0  0.0677   50.7  0.2855  -85.7
 2.500  0.2552 -169.8   8.023   70.2  0.0699   50.0  0.2725  -87.9
 2.600  0.2567 -174.3   7.699   68.2  0.0722   49.2  0.2600  -90.3
 2.700  0.2578 -178.2   7.416   66.5  0.0744   48.4  0.2479  -92.6
 2.800  0.2600  177.9   7.139   64.7  0.0767   47.7  0.2362  -95.2
 2.900  0.2634  174.1   6.890   63.0  0.0789   46.8  0.2255  -97.8
 3.000  0.2680  170.4   6.647   61.3  0.0812   46.1  0.2152 -100.7
 3.100  0.2711  166.9   6.438   59.8  0.0834   45.1  0.2058 -103.6
 3.200  0.2751  163.4   6.233   58.3  0.0855   44.1  0.1970 -106.7
 3.300  0.2802  160.1   6.033   56.7  0.0877   43.2  0.1888 -110.1
 3.400  0.2861  156.9   5.838   55.0  0.0899   42.4  0.1813 -113.8
 3.500  0.2929  153.8   5.649   53.1  0.0921   41.6  0.1746 -117.8
 3.600  0.2983  150.8   5.489   51.8  0.0941   40.6  0.1682 -121.7
 3.700  0.3046  147.9   5.332   50.4  0.0961   39.6  0.1627 -125.9
 3.800  0.3115  145.2   5.178   48.9  0.0982   38.7  0.1581 -130.4
 3.900  0.3192  142.5   5.028   47.3  0.1002   37.9  0.1545 -135.1
 4.000  0.3274  140.0   4.883   45.6  0.1023   37.0  0.1520 -140.0
 4.100  0.3338  137.7   4.757   44.3  0.1041   36.0  0.1492 -144.5
 4.200  0.3407  135.6   4.633   42.9  0.1060   35.1  0.1474 -149.1
 4.300  0.3481  133.5   4.512   41.5  0.1079   34.2  0.1466 -153.8
 4.400  0.3559  131.5   4.393   40.0  0.1098   33.3  0.1468 -158.5
 4.500  0.3641  129.5   4.278   38.5  0.1117   32.5  0.1479 -163.2
 4.600  0.3699  127.7   4.178   37.2  0.1135   31.6  0.1471 -167.3
 4.700  0.3760  125.9   4.079   36.0  0.1152   30.7  0.1471 -171.5
 4.800  0.3825  124.2   3.982   34.6  0.1170   29.8  0.1478 -175.6
 4.900  0.3893  122.5   3.888   33.2  0.1188   29.0  0.1493 -179.6
 5.000  0.3965  120.9   3.796   31.7  0.1206   28.2  0.1516  176.4
 5.100  0.4010  119.4   3.715   30.6  0.1224   27.2  0.1517  173.1
 5.200  0.4058  118.0   3.636   29.4  0.1241   26.4  0.1523  169.8
 5.300  0.4109  116.6   3.558   28.2  0.1260   25.5  0.1534  166.5
 5.400  0.4162  115.3   3.482   26.9  0.1278   24.6  0.1550  163.4
 5.500  0.4217  114.0   3.408   25.5  0.1296   23.8  0.1571  160.2
 5.600  0.4244  112.8   3.342   24.4  0.1314   22.9  0.1587  157.5
 5.700  0.4273  111.6   3.278   23.2  0.1331   22.0  0.1606  154.8
 5.800  0.4304  110.4   3.215   21.9  0.1349   21.1  0.1629  152.2
 5.900  0.4337  109.3   3.154   20.6  0.1367   20.2  0.1655  149.7
 6.000  0.4371  108.2   3.095   19.3  0.1385   19.3  0.1684  147.2
 6.100  0.4405  107.0   3.040   18.1  0.1401   18.3  0.1712  144.8
 6.200  0.4440  105.9   2.986   16.9  0.1417   17.4  0.1742  142.5
 6.300  0.4476  104.8   2.934   15.7  0.1434   16.4  0.1775  140.3
 6.400  0.4515  103.7   2.883   14.4  0.1451   15.5  0.1810  138.1
 6.500  0.4555  102.6   2.833   13.1  0.1468   14.6  0.1848  136.0
 6.600  0.4592  101.3   2.786   12.0  0.1483   13.6  0.1880  133.9
 6.700  0.4631   99.9   2.740   10.8  0.1498   12.7  0.1914  131.8
 6.800  0.4673   98.6   2.695    9.6  0.1514   11.7  0.1951  129.7
 6.900  0.4717   97.3   2.651    8.4  0.1529   10.8  0.1990  127.8
 7.000  0.4764   96.1   2.609    7.1  0.1546    9.9  0.2031  125.9
 7.100  0.4812   94.6   2.568    5.9  0.1560    8.9  0.2074  123.9
 7.200  0.4862   93.2   2.529    4.7  0.1574    7.9  0.2119  122.1
 7.300  0.4915   91.8   2.491    3.4  0.1589    7.0  0.2167  120.3
 7.400  0.4972   90.5   2.454    2.2  0.1605    6.0  0.2216  118.6
 7.500  0.5031   89.1   2.419    0.8  0.1621    5.1  0.2267  116.9
 7.600  0.5092   87.7   2.381   -0.4  0.1632    4.0  0.2322  114.9
 7.700  0.5157   86.3   2.344   -1.7  0.1644    2.9  0.2379  112.9
 7.800  0.5224   85.0   2.309   -3.0  0.1657    1.9  0.2439  111.0
 7.900  0.5295   83.6   2.275   -4.3  0.1670    0.9  0.2501  109.2
 8.000  0.5368   82.4   2.242   -5.7  0.1684   -0.1  0.2565  107.5
 8.500  0.5737   75.7   2.055  -12.2  0.1721   -5.6  0.2941   97.8
 9.000  0.6156   70.2   1.876  -18.0  0.1728  -10.5  0.3456   89.8
 9.500  0.6607   65.7   1.711  -22.8  0.1724  -14.3  0.4020   84.2
10.000  0.6947   61.9   1.572  -26.8  0.1727  -17.1  0.4485   80.8
10.500  0.7154   58.8   1.469  -29.5  0.1757  -18.9  0.4735   78.7
11.000  0.7220   57.7   1.445  -32.3  0.1856  -21.2  0.4871   78.8
11.500  0.7374   57.5   1.438  -38.1  0.1963  -26.0  0.5065   79.3
12.000  0.7489   55.5   1.366  -44.6  0.1995  -31.4  0.5237   77.8
12.500  0.7340   52.4   1.288  -49.4  0.2021  -35.4  0.5132   74.0
13.000  0.7026   50.3   1.241  -53.9  0.2067  -39.8  0.4860   71.2
13.500  0.7031   48.9   1.222  -60.0  0.2124  -44.8  0.4865   70.9
14.000  0.7306   44.6   1.146  -67.9  0.2092  -51.6  0.5093   67.4
14.500  0.7370   38.8   1.023  -71.4  0.1999  -54.3  0.5113   59.4
15.000  0.7244   34.9   0.996  -72.6  0.2046  -56.0  0.5043   52.4
!
!  f       NFmin   Gammaopt  rn/50
! GHz       dB    MAG  ANG    -
 0.450      2.01  0.16    1   0.27
 0.900      2.00  0.12    1   0.30
 1.900      2.20  0.10   -2   0.28
 2.400      2.20  0.08   -6   0.28
 3.500      2.15  0.04  -30   0.29
!
! (c) 2015  Infineon Technologies AG, Munich
