! Infineon Technologies  Discrete & RF Semiconductors
! BFP520
! VCE =  1.0 V,  IC =  10 mA
! Common Emitter S-Parameters:                            Oct 2015
# GHz  S  MA  R  50
!  f         S11            S21            S12            S22
! GHz     MAG   ANG      MAG   ANG      MAG   ANG      MAG   ANG
 0.030  0.7712   -2.3  22.772  177.8  0.0016   88.6  0.9536   -1.2
 0.040  0.7721   -3.2  22.748  176.7  0.0021   90.5  0.9551   -1.7
 0.050  0.7691   -3.9  22.618  175.9  0.0024   86.0  0.9559   -2.3
 0.060  0.7720   -4.7  22.606  175.4  0.0032   90.1  0.9575   -2.8
 0.070  0.7723   -5.6  22.764  174.5  0.0037   86.9  0.9576   -3.4
 0.080  0.7679   -6.5  22.669  174.2  0.0042   88.7  0.9581   -4.0
 0.090  0.7704   -7.3  22.672  173.4  0.0047   87.9  0.9580   -4.6
 0.100  0.7695   -8.0  22.536  172.7  0.0052   86.5  0.9576   -5.1
 0.110  0.7674   -8.8  22.561  172.1  0.0056   85.8  0.9573   -5.8
 0.120  0.7670   -9.7  22.574  171.2  0.0061   85.6  0.9569   -6.3
 0.130  0.7657  -10.2  22.540  170.6  0.0067   85.3  0.9561   -6.8
 0.140  0.7660  -11.2  22.551  169.7  0.0072   84.9  0.9555   -7.4
 0.150  0.7626  -11.9  22.458  168.9  0.0077   84.6  0.9545   -8.0
 0.200  0.7578  -15.9  22.311  165.4  0.0101   82.8  0.9483  -10.8
 0.250  0.7480  -19.9  22.075  161.9  0.0126   80.7  0.9403  -13.5
 0.300  0.7395  -23.7  21.761  158.5  0.0150   78.6  0.9297  -16.2
 0.350  0.7297  -27.5  21.425  155.0  0.0173   77.1  0.9176  -18.8
 0.400  0.7164  -31.2  21.049  151.7  0.0196   75.2  0.9041  -21.4
 0.450  0.7036  -34.8  20.640  148.4  0.0218   73.7  0.8897  -23.8
 0.500  0.6893  -38.4  20.213  145.4  0.0239   72.1  0.8736  -26.3
 0.600  0.6608  -45.3  19.354  139.3  0.0279   69.2  0.8396  -30.8
 0.700  0.6303  -52.1  18.422  133.6  0.0315   66.5  0.8042  -35.1
 0.800  0.6002  -58.5  17.479  128.3  0.0349   64.0  0.7686  -39.0
 0.900  0.5709  -64.6  16.603  123.6  0.0380   62.0  0.7333  -42.7
 1.000  0.5420  -70.5  15.730  119.0  0.0410   60.1  0.6988  -46.1
 1.100  0.5154  -76.1  14.890  114.8  0.0437   58.3  0.6659  -49.3
 1.200  0.4899  -81.8  14.113  110.8  0.0463   56.8  0.6344  -52.3
 1.300  0.4668  -87.2  13.384  107.1  0.0488   55.5  0.6050  -55.1
 1.400  0.4452  -92.4  12.690  103.7  0.0511   54.2  0.5762  -57.7
 1.500  0.4245  -97.7  12.063  100.4  0.0534   53.1  0.5503  -60.2
 1.600  0.4058 -102.9  11.469   97.3  0.0556   52.0  0.5244  -62.6
 1.700  0.3898 -107.8  10.922   94.4  0.0578   51.0  0.5019  -64.9
 1.800  0.3761 -112.7  10.416   91.7  0.0599   50.1  0.4796  -67.1
 1.900  0.3623 -117.7   9.953   89.1  0.0620   49.2  0.4589  -69.3
 2.000  0.3504 -122.4   9.524   86.5  0.0641   48.4  0.4388  -71.4
 2.100  0.3390 -127.2   9.121   84.2  0.0662   47.5  0.4203  -73.3
 2.200  0.3301 -132.3   8.733   81.7  0.0683   46.7  0.4023  -75.4
 2.300  0.3214 -137.0   8.392   79.6  0.0703   45.9  0.3852  -77.3
 2.400  0.3150 -141.8   8.064   77.3  0.0723   45.2  0.3687  -79.4
 2.500  0.3087 -146.5   7.759   75.3  0.0743   44.4  0.3530  -81.4
 2.600  0.3045 -151.3   7.464   73.1  0.0763   43.6  0.3377  -83.5
 2.700  0.3005 -155.6   7.202   71.2  0.0783   42.8  0.3229  -85.5
 2.800  0.2982 -159.9   6.948   69.2  0.0803   42.1  0.3086  -87.7
 2.900  0.2965 -164.4   6.715   67.4  0.0823   41.3  0.2952  -89.9
 3.000  0.2966 -168.9   6.489   65.4  0.0843   40.5  0.2823  -92.3
 3.100  0.2951 -173.1   6.289   63.9  0.0862   39.6  0.2703  -94.5
 3.200  0.2952 -177.2   6.095   62.2  0.0881   38.7  0.2587  -97.0
 3.300  0.2968  178.6   5.906   60.5  0.0901   37.9  0.2477  -99.6
 3.400  0.2999  174.6   5.723   58.6  0.0920   37.1  0.2372 -102.6
 3.500  0.3045  170.6   5.547   56.6  0.0940   36.3  0.2274 -105.7
 3.600  0.3068  166.9   5.391   55.1  0.0958   35.4  0.2180 -108.7
 3.700  0.3104  163.4   5.240   53.6  0.0975   34.5  0.2092 -111.9
 3.800  0.3151  159.9   5.092   52.0  0.0993   33.7  0.2012 -115.3
 3.900  0.3210  156.5   4.949   50.2  0.1011   32.9  0.1939 -119.1
 4.000  0.3280  153.2   4.811   48.4  0.1030   32.1  0.1875 -123.1
 4.100  0.3328  150.3   4.688   47.0  0.1046   31.2  0.1812 -126.6
 4.200  0.3385  147.6   4.567   45.6  0.1062   30.4  0.1756 -130.5
 4.300  0.3449  144.9   4.449   44.1  0.1079   29.5  0.1709 -134.5
 4.400  0.3521  142.3   4.335   42.5  0.1096   28.7  0.1670 -138.8
 4.500  0.3599  139.8   4.224   40.8  0.1113   27.9  0.1642 -143.2
 4.600  0.3649  137.5   4.125   39.5  0.1128   27.1  0.1600 -146.9
 4.700  0.3704  135.3   4.027   38.2  0.1143   26.3  0.1566 -150.8
 4.800  0.3765  133.2   3.932   36.7  0.1159   25.5  0.1539 -154.8
 4.900  0.3830  131.1   3.840   35.3  0.1175   24.7  0.1520 -159.0
 5.000  0.3901  129.2   3.751   33.7  0.1191   24.0  0.1509 -163.3
 5.100  0.3941  127.4   3.670   32.5  0.1206   23.2  0.1484 -166.7
 5.200  0.3985  125.6   3.591   31.2  0.1222   22.4  0.1464 -170.2
 5.300  0.4033  123.9   3.514   29.9  0.1238   21.6  0.1451 -173.8
 5.400  0.4084  122.3   3.439   28.6  0.1255   20.8  0.1443 -177.4
 5.500  0.4138  120.6   3.365   27.1  0.1271   20.1  0.1441  178.9
 5.600  0.4167  119.3   3.301   25.9  0.1286   19.2  0.1437  175.7
 5.700  0.4199  117.9   3.237   24.7  0.1302   18.4  0.1438  172.5
 5.800  0.4233  116.6   3.175   23.4  0.1318   17.6  0.1444  169.4
 5.900  0.4269  115.3   3.115   22.0  0.1334   16.8  0.1453  166.2
 6.000  0.4307  114.0   3.057   20.7  0.1351   16.0  0.1468  163.1
 6.100  0.4338  112.7   3.003   19.5  0.1366   15.1  0.1481  160.2
 6.200  0.4372  111.4   2.950   18.3  0.1381   14.2  0.1498  157.2
 6.300  0.4409  110.1   2.899   17.0  0.1396   13.4  0.1519  154.4
 6.400  0.4447  108.8   2.849   15.7  0.1412   12.5  0.1544  151.6
 6.500  0.4488  107.5   2.801   14.3  0.1427   11.7  0.1572  148.9
 6.600  0.4523  106.0   2.754   13.2  0.1441   10.8  0.1593  146.2
 6.700  0.4561  104.6   2.709   11.9  0.1455    9.9  0.1617  143.5
 6.800  0.4602  103.1   2.665   10.7  0.1469    9.1  0.1645  140.9
 6.900  0.4646  101.7   2.622    9.3  0.1484    8.2  0.1677  138.4
 7.000  0.4693  100.3   2.581    8.0  0.1499    7.4  0.1711  136.0
 7.100  0.4737   98.7   2.541    6.8  0.1512    6.5  0.1746  133.6
 7.200  0.4785   97.2   2.502    5.6  0.1526    5.5  0.1784  131.2
 7.300  0.4836   95.7   2.464    4.3  0.1540    4.6  0.1825  129.0
 7.400  0.4890   94.2   2.428    3.0  0.1555    3.7  0.1868  126.8
 7.500  0.4948   92.8   2.393    1.7  0.1569    2.9  0.1914  124.7
 7.600  0.5009   91.2   2.356    0.4  0.1580    1.9  0.1962  122.2
 7.700  0.5073   89.7   2.320   -0.9  0.1592    0.8  0.2013  119.8
 7.800  0.5141   88.3   2.286   -2.3  0.1604   -0.1  0.2068  117.6
 7.900  0.5212   86.8   2.253   -3.7  0.1617   -1.1  0.2125  115.4
 8.000  0.5287   85.4   2.221   -5.1  0.1629   -2.1  0.2186  113.4
 8.500  0.5659   78.2   2.038  -11.7  0.1666   -7.2  0.2547  102.1
 9.000  0.6086   72.3   1.863  -17.7  0.1675  -12.0  0.3061   93.0
 9.500  0.6541   67.5   1.700  -22.6  0.1671  -15.7  0.3632   86.8
10.000  0.6886   63.4   1.563  -26.9  0.1675  -18.3  0.4110   83.2
10.500  0.7094   60.3   1.459  -29.9  0.1704  -20.0  0.4378   81.2
11.000  0.7167   59.2   1.431  -32.8  0.1797  -22.2  0.4530   81.4
11.500  0.7336   59.0   1.422  -38.5  0.1898  -26.9  0.4733   82.1
12.000  0.7447   56.9   1.353  -45.2  0.1931  -32.0  0.4910   80.8
12.500  0.7302   53.7   1.274  -50.1  0.1957  -35.9  0.4816   77.2
13.000  0.6991   51.6   1.225  -54.7  0.2001  -40.2  0.4564   74.4
13.500  0.7003   50.2   1.206  -60.8  0.2056  -45.1  0.4578   74.1
14.000  0.7280   45.7   1.132  -68.7  0.2029  -51.7  0.4798   70.5
14.500  0.7341   39.8   1.012  -72.5  0.1944  -54.3  0.4816   62.4
15.000  0.7210   35.9   0.982  -73.8  0.1989  -56.1  0.4760   55.0
!
!  f       NFmin   Gammaopt  rn/50
! GHz       dB    MAG  ANG    -
 0.450      1.55  0.27    1   0.29
 0.900      1.53  0.25    5   0.31
 1.900      1.71  0.23   12   0.27
 2.400      1.73  0.19   24   0.27
 3.500      1.66  0.17   46   0.26
!
! (c) 2015  Infineon Technologies AG, Munich
