! Infineon Technologies  Discrete & RF Semiconductors
! BFP540ESD
! VCE =  1.0 V,  IC =  25 mA
! Common Emitter S-Parameters:                            Nov 2015
# GHz  S  MA  R  50
!  f         S11            S21            S12            S22
! GHz     MAG   ANG      MAG   ANG      MAG   ANG      MAG   ANG
 0.010  0.4137   -3.3  42.261  178.2  0.0008  105.8  0.9252   -1.6
 0.015  0.4131   -5.3  42.054  177.6  0.0013   99.5  0.9376   -2.1
 0.020  0.4131   -7.3  41.852  177.0  0.0019   96.9  0.9500   -2.6
 0.025  0.4126   -8.9  41.849  176.0  0.0023   92.6  0.9479   -3.4
 0.030  0.4123  -10.4  41.857  175.1  0.0026   89.5  0.9460   -4.3
 0.035  0.4124  -12.0  41.877  174.1  0.0030   87.2  0.9443   -5.1
 0.040  0.4128  -13.6  41.909  173.2  0.0034   85.4  0.9428   -6.0
 0.045  0.4135  -15.1  41.952  172.2  0.0038   84.0  0.9416   -6.8
 0.050  0.4145  -16.7  42.006  171.3  0.0042   82.8  0.9405   -7.7
 0.055  0.4133  -18.3  41.868  170.5  0.0046   82.9  0.9377   -8.5
 0.060  0.4124  -19.9  41.740  169.6  0.0050   83.0  0.9351   -9.3
 0.065  0.4118  -21.5  41.620  168.7  0.0054   83.0  0.9327  -10.2
 0.070  0.4115  -23.2  41.511  167.9  0.0058   83.1  0.9305  -11.0
 0.075  0.4116  -24.8  41.410  167.0  0.0061   83.1  0.9285  -11.8
 0.080  0.4120  -26.4  41.320  166.1  0.0065   83.2  0.9267  -12.6
 0.085  0.4127  -28.0  41.239  165.2  0.0069   83.2  0.9251  -13.5
 0.090  0.4138  -29.6  41.167  164.4  0.0073   83.2  0.9236  -14.3
 0.095  0.4152  -31.2  41.106  163.5  0.0077   83.3  0.9224  -15.2
 0.100  0.4169  -32.8  41.054  162.6  0.0081   83.3  0.9214  -16.0
 0.105  0.4155  -34.3  40.854  161.8  0.0084   82.3  0.9174  -16.8
 0.110  0.4144  -35.8  40.661  161.0  0.0087   81.4  0.9136  -17.5
 0.115  0.4136  -37.3  40.476  160.2  0.0091   80.6  0.9099  -18.3
 0.120  0.4130  -38.8  40.300  159.4  0.0094   79.8  0.9064  -19.1
 0.125  0.4128  -40.3  40.131  158.6  0.0097   79.1  0.9031  -19.8
 0.130  0.4128  -41.8  39.971  157.8  0.0101   78.4  0.8999  -20.6
 0.135  0.4131  -43.3  39.819  156.9  0.0104   77.8  0.8969  -21.4
 0.140  0.4137  -44.8  39.675  156.1  0.0107   77.2  0.8941  -22.2
 0.145  0.4146  -46.3  39.540  155.2  0.0111   76.6  0.8915  -23.0
 0.150  0.4158  -47.8  39.414  154.4  0.0114   76.1  0.8890  -23.8
 0.155  0.4149  -49.1  39.169  153.7  0.0118   75.8  0.8841  -24.5
 0.160  0.4141  -50.5  38.930  152.9  0.0121   75.5  0.8793  -25.2
 0.165  0.4137  -51.8  38.697  152.2  0.0125   75.2  0.8746  -25.9
 0.170  0.4134  -53.2  38.471  151.5  0.0128   74.9  0.8701  -26.6
 0.175  0.4134  -54.5  38.252  150.7  0.0132   74.6  0.8657  -27.3
 0.180  0.4136  -55.9  38.039  149.9  0.0136   74.4  0.8614  -28.0
 0.185  0.4140  -57.2  37.833  149.2  0.0139   74.1  0.8573  -28.8
 0.190  0.4146  -58.5  37.634  148.4  0.0143   73.9  0.8533  -29.5
 0.195  0.4155  -59.9  37.443  147.6  0.0146   73.7  0.8495  -30.2
 0.200  0.4166  -61.2  37.258  146.8  0.0150   73.5  0.8458  -31.0
 0.220  0.4146  -66.1  36.268  144.1  0.0159   71.7  0.8258  -33.5
 0.240  0.4157  -71.0  35.360  141.4  0.0169   70.1  0.8074  -36.1
 0.260  0.4160  -75.7  34.439  138.7  0.0179   68.6  0.7883  -38.6
 0.280  0.4153  -80.2  33.483  136.3  0.0190   67.2  0.7681  -40.9
 0.300  0.4173  -84.8  32.590  133.8  0.0201   65.9  0.7493  -43.4
 0.320  0.4143  -88.4  31.618  132.0  0.0209   65.1  0.7292  -45.2
 0.340  0.4129  -92.0  30.681  130.0  0.0217   64.3  0.7098  -47.1
 0.360  0.4131  -95.6  29.782  127.9  0.0225   63.6  0.6913  -49.1
 0.380  0.4150  -99.2  28.924  125.7  0.0234   62.9  0.6736  -51.2
 0.400  0.4185 -102.7  28.111  123.4  0.0242   62.3  0.6569  -53.4
 0.420  0.4170 -105.8  27.329  121.9  0.0249   61.6  0.6395  -54.9
 0.440  0.4168 -108.9  26.566  120.3  0.0256   61.0  0.6225  -56.5
 0.450  0.4171 -110.4  26.193  119.5  0.0260   60.6  0.6142  -57.4
 0.460  0.4177 -111.9  25.825  118.6  0.0264   60.3  0.6061  -58.2
 0.480  0.4199 -115.0  25.107  116.9  0.0271   59.8  0.5902  -60.0
 0.500  0.4232 -118.0  24.415  115.0  0.0278   59.2  0.5749  -61.9
 0.520  0.4224 -120.2  23.750  113.8  0.0284   59.0  0.5607  -63.1
 0.540  0.4222 -122.4  23.095  112.6  0.0291   58.7  0.5468  -64.4
 0.560  0.4227 -124.6  22.452  111.3  0.0297   58.5  0.5332  -65.7
 0.580  0.4238 -126.8  21.820  110.0  0.0304   58.3  0.5199  -67.1
 0.600  0.4255 -129.0  21.202  108.5  0.0310   58.1  0.5069  -68.6
 0.620  0.4252 -130.9  20.696  107.5  0.0316   57.9  0.4956  -69.7
 0.640  0.4254 -132.8  20.197  106.5  0.0322   57.8  0.4845  -70.9
 0.660  0.4260 -134.7  19.704  105.4  0.0327   57.7  0.4736  -72.1
 0.680  0.4271 -136.5  19.219  104.3  0.0333   57.5  0.4629  -73.4
 0.700  0.4286 -138.4  18.741  103.1  0.0339   57.4  0.4525  -74.7
 0.720  0.4290 -140.1  18.302  102.2  0.0346   57.3  0.4430  -75.8
 0.740  0.4298 -141.7  17.868  101.4  0.0352   57.2  0.4337  -77.0
 0.760  0.4309 -143.3  17.438  100.4  0.0359   57.2  0.4246  -78.2
 0.780  0.4324 -145.0  17.014   99.4  0.0365   57.1  0.4156  -79.5
 0.800  0.4342 -146.6  16.594   98.4  0.0372   57.0  0.4069  -80.8
 0.820  0.4344 -147.8  16.245   97.7  0.0377   56.9  0.3992  -81.7
 0.840  0.4347 -149.1  15.899   96.9  0.0381   56.8  0.3916  -82.5
 0.860  0.4353 -150.3  15.556   96.2  0.0386   56.7  0.3842  -83.5
 0.880  0.4360 -151.6  15.216   95.4  0.0390   56.6  0.3768  -84.4
 0.900  0.4370 -152.8  14.879   94.5  0.0395   56.5  0.3695  -85.4
 0.920  0.4368 -154.0  14.592   93.9  0.0401   56.5  0.3628  -86.3
 0.940  0.4368 -155.2  14.308   93.2  0.0406   56.4  0.3561  -87.2
 0.960  0.4370 -156.4  14.025   92.5  0.0412   56.4  0.3496  -88.2
 0.980  0.4373 -157.6  13.744   91.8  0.0417   56.3  0.3431  -89.2
 1.000  0.4379 -158.8  13.466   91.0  0.0423   56.3  0.3368  -90.2
 1.020  0.4386 -159.9  13.224   90.4  0.0429   56.1  0.3316  -91.2
 1.040  0.4394 -161.0  12.984   89.8  0.0434   55.9  0.3264  -92.3
 1.060  0.4404 -162.1  12.745   89.2  0.0440   55.7  0.3214  -93.3
 1.080  0.4416 -163.1  12.508   88.6  0.0445   55.6  0.3165  -94.5
 1.100  0.4429 -164.2  12.272   87.9  0.0451   55.4  0.3117  -95.6
 1.120  0.4436 -165.1  12.069   87.4  0.0457   55.4  0.3072  -96.2
 1.140  0.4443 -165.9  11.867   86.8  0.0464   55.5  0.3027  -96.9
 1.160  0.4452 -166.8  11.666   86.3  0.0470   55.5  0.2983  -97.6
 1.180  0.4461 -167.6  11.466   85.7  0.0477   55.6  0.2939  -98.3
 1.200  0.4472 -168.5  11.267   85.1  0.0483   55.6  0.2895  -99.0
 1.220  0.4472 -169.2  11.096   84.6  0.0488   55.4  0.2852  -99.8
 1.240  0.4472 -170.0  10.927   84.1  0.0493   55.2  0.2810 -100.5
 1.260  0.4473 -170.7  10.758   83.6  0.0499   55.0  0.2768 -101.3
 1.280  0.4475 -171.5  10.589   83.1  0.0504   54.9  0.2727 -102.2
 1.300  0.4477 -172.2  10.422   82.6  0.0509   54.7  0.2686 -103.0
 1.320  0.4489 -173.0  10.273   82.1  0.0514   54.7  0.2656 -104.1
 1.340  0.4502 -173.8  10.124   81.6  0.0519   54.7  0.2627 -105.1
 1.360  0.4515 -174.6   9.976   81.1  0.0525   54.6  0.2599 -106.2
 1.380  0.4530 -175.3   9.828   80.6  0.0530   54.6  0.2572 -107.4
 1.400  0.4545 -176.1   9.682   80.1  0.0535   54.6  0.2546 -108.5
 1.420  0.4553 -176.7   9.545   79.7  0.0540   54.6  0.2516 -109.1
 1.440  0.4562 -177.4   9.409   79.2  0.0546   54.6  0.2485 -109.8
 1.460  0.4571 -178.0   9.274   78.8  0.0551   54.6  0.2456 -110.4
 1.480  0.4581 -178.7   9.139   78.3  0.0557   54.6  0.2426 -111.1
 1.500  0.4592 -179.3   9.005   77.8  0.0562   54.6  0.2397 -111.8
 1.520  0.4587 -180.0   8.892   77.4  0.0568   54.4  0.2364 -112.5
 1.540  0.4584  179.3   8.780   77.0  0.0574   54.3  0.2332 -113.3
 1.560  0.4580  178.6   8.669   76.5  0.0581   54.1  0.2300 -114.0
 1.580  0.4578  177.9   8.558   76.1  0.0587   54.0  0.2269 -114.8
 1.600  0.4576  177.2   8.447   75.6  0.0593   53.8  0.2238 -115.6
 1.620  0.4590  176.6   8.344   75.2  0.0599   53.6  0.2226 -116.6
 1.640  0.4604  176.0   8.241   74.8  0.0606   53.5  0.2215 -117.5
 1.660  0.4619  175.4   8.139   74.4  0.0612   53.3  0.2204 -118.5
 1.680  0.4635  174.8   8.037   73.9  0.0619   53.2  0.2194 -119.5
 1.700  0.4651  174.2   7.936   73.5  0.0625   53.0  0.2185 -120.5
 1.720  0.4659  173.6   7.844   73.1  0.0630   53.0  0.2167 -121.1
 1.740  0.4668  173.0   7.753   72.8  0.0635   53.1  0.2149 -121.7
 1.760  0.4677  172.5   7.662   72.4  0.0639   53.1  0.2131 -122.3
 1.780  0.4687  171.9   7.571   72.0  0.0644   53.2  0.2113 -123.0
 1.800  0.4697  171.3   7.481   71.6  0.0649   53.2  0.2096 -123.6
 1.820  0.4693  170.8   7.403   71.2  0.0655   53.1  0.2066 -124.3
 1.840  0.4690  170.3   7.325   70.9  0.0662   53.0  0.2036 -125.1
 1.860  0.4687  169.9   7.248   70.5  0.0668   52.8  0.2007 -125.9
 1.880  0.4684  169.4   7.171   70.1  0.0675   52.7  0.1978 -126.7
 1.900  0.4682  168.9   7.094   69.7  0.0681   52.6  0.1950 -127.5
 1.920  0.4693  168.3   7.017   69.3  0.0687   52.4  0.1945 -128.2
 1.940  0.4705  167.7   6.940   68.9  0.0693   52.2  0.1940 -128.9
 1.960  0.4717  167.1   6.864   68.5  0.0698   52.1  0.1935 -129.5
 1.980  0.4730  166.5   6.788   68.1  0.0704   51.9  0.1931 -130.2
 2.000  0.4743  165.9   6.712   67.7  0.0710   51.7  0.1927 -130.9
 2.020  0.4748  165.5   6.650   67.4  0.0716   51.6  0.1908 -131.6
 2.040  0.4754  165.0   6.588   67.1  0.0722   51.4  0.1890 -132.3
 2.060  0.4760  164.6   6.526   66.7  0.0728   51.3  0.1871 -133.0
 2.080  0.4766  164.1   6.464   66.4  0.0734   51.2  0.1854 -133.8
 2.100  0.4772  163.7   6.403   66.1  0.0739   51.1  0.1836 -134.5
 2.120  0.4779  163.2   6.341   65.7  0.0745   51.0  0.1819 -135.3
 2.140  0.4786  162.8   6.280   65.4  0.0751   50.8  0.1802 -136.1
 2.160  0.4793  162.4   6.220   65.0  0.0757   50.7  0.1785 -136.9
 2.180  0.4800  161.9   6.159   64.7  0.0763   50.6  0.1769 -137.7
 2.200  0.4808  161.5   6.099   64.3  0.0769   50.5  0.1753 -138.5
 2.220  0.4815  161.0   6.045   64.0  0.0774   50.3  0.1744 -139.1
 2.240  0.4822  160.5   5.991   63.6  0.0779   50.2  0.1735 -139.7
 2.260  0.4830  160.0   5.937   63.3  0.0785   50.0  0.1726 -140.3
 2.280  0.4838  159.6   5.884   63.0  0.0790   49.9  0.1717 -140.9
 2.300  0.4846  159.1   5.830   62.6  0.0795   49.7  0.1708 -141.6
 2.320  0.4854  158.6   5.777   62.3  0.0800   49.6  0.1700 -142.2
 2.340  0.4863  158.1   5.724   61.9  0.0805   49.4  0.1692 -142.8
 2.360  0.4872  157.6   5.672   61.6  0.0811   49.3  0.1684 -143.5
 2.380  0.4882  157.2   5.619   61.2  0.0816   49.1  0.1676 -144.1
 2.400  0.4892  156.7   5.567   60.8  0.0821   49.0  0.1669 -144.8
 2.420  0.4901  156.2   5.522   60.5  0.0827   48.8  0.1661 -145.9
 2.440  0.4910  155.7   5.476   60.1  0.0833   48.6  0.1654 -147.0
 2.460  0.4920  155.3   5.431   59.8  0.0839   48.5  0.1648 -148.2
 2.480  0.4930  154.8   5.386   59.5  0.0845   48.3  0.1642 -149.3
 2.500  0.4940  154.3   5.342   59.1  0.0851   48.1  0.1637 -150.5
 2.520  0.4950  153.9   5.297   58.8  0.0858   48.0  0.1632 -151.6
 2.540  0.4961  153.4   5.253   58.4  0.0864   47.8  0.1628 -152.8
 2.560  0.4973  152.9   5.209   58.0  0.0870   47.6  0.1625 -154.0
 2.580  0.4984  152.5   5.165   57.7  0.0876   47.5  0.1623 -155.1
 2.600  0.4996  152.0   5.121   57.3  0.0882   47.3  0.1621 -156.3
 2.620  0.5005  151.6   5.083   57.0  0.0888   47.2  0.1612 -157.0
 2.640  0.5014  151.3   5.046   56.7  0.0894   47.0  0.1603 -157.8
 2.660  0.5024  150.9   5.008   56.4  0.0900   46.9  0.1594 -158.5
 2.680  0.5034  150.5   4.971   56.0  0.0906   46.7  0.1585 -159.2
 2.700  0.5044  150.2   4.934   55.7  0.0912   46.6  0.1577 -160.0
 2.720  0.5054  149.8   4.897   55.4  0.0918   46.4  0.1569 -160.8
 2.740  0.5064  149.5   4.860   55.0  0.0924   46.3  0.1561 -161.5
 2.760  0.5074  149.1   4.824   54.7  0.0930   46.2  0.1554 -162.3
 2.780  0.5085  148.8   4.787   54.4  0.0936   46.0  0.1547 -163.1
 2.800  0.5096  148.4   4.751   54.0  0.0942   45.9  0.1540 -163.9
 2.820  0.5105  147.9   4.717   53.7  0.0947   45.7  0.1542 -164.8
 2.840  0.5114  147.4   4.683   53.4  0.0951   45.5  0.1544 -165.7
 2.860  0.5124  146.9   4.650   53.0  0.0956   45.3  0.1546 -166.6
 2.880  0.5134  146.5   4.616   52.7  0.0961   45.2  0.1549 -167.5
 2.900  0.5144  146.0   4.583   52.4  0.0965   45.0  0.1552 -168.4
 2.920  0.5155  145.5   4.550   52.0  0.0970   44.8  0.1556 -169.3
 2.940  0.5166  145.0   4.517   51.7  0.0975   44.6  0.1560 -170.2
 2.960  0.5178  144.5   4.484   51.3  0.0980   44.4  0.1564 -171.1
 2.980  0.5190  144.1   4.451   51.0  0.0984   44.3  0.1569 -172.0
 3.000  0.5202  143.6   4.419   50.6  0.0989   44.1  0.1574 -172.9
 3.100  0.5249  141.6   4.279   49.2  0.1016   43.0  0.1602 -177.3
 3.200  0.5302  139.6   4.142   47.7  0.1043   42.0  0.1638  178.4
 3.300  0.5362  137.6   4.008   46.1  0.1071   41.0  0.1684  174.3
 3.400  0.5428  135.8   3.878   44.3  0.1099   40.1  0.1737  170.5
 3.500  0.5499  133.9   3.751   42.5  0.1127   39.2  0.1798  166.9
 3.600  0.5552  132.2   3.642   41.2  0.1148   38.2  0.1871  163.5
 3.700  0.5609  130.6   3.535   39.7  0.1169   37.3  0.1951  160.5
 3.800  0.5671  128.9   3.430   38.2  0.1190   36.3  0.2035  157.6
 3.900  0.5737  127.3   3.328   36.6  0.1212   35.5  0.2125  155.0
 4.000  0.5808  125.8   3.229   34.9  0.1234   34.6  0.2218  152.6
 4.100  0.5860  124.3   3.140   33.6  0.1255   33.4  0.2282  150.7
 4.200  0.5916  122.8   3.053   32.3  0.1276   32.3  0.2349  149.0
 4.300  0.5975  121.3   2.968   30.8  0.1298   31.2  0.2418  147.3
 4.400  0.6039  119.9   2.884   29.3  0.1320   30.1  0.2489  145.8
 4.500  0.6106  118.5   2.803   27.7  0.1343   29.1  0.2561  144.3
 4.600  0.6144  117.2   2.735   26.4  0.1361   28.2  0.2603  142.7
 4.700  0.6184  115.9   2.669   25.1  0.1379   27.4  0.2648  141.1
 4.800  0.6228  114.6   2.604   23.7  0.1398   26.6  0.2694  139.6
 4.900  0.6275  113.3   2.541   22.2  0.1417   25.8  0.2742  138.2
 5.000  0.6325  112.1   2.480   20.7  0.1436   25.0  0.2792  136.8
 5.100  0.6361  111.0   2.422   19.6  0.1457   24.1  0.2817  135.2
 5.200  0.6399  109.9   2.365   18.4  0.1477   23.3  0.2844  133.7
 5.300  0.6440  108.9   2.309   17.1  0.1499   22.5  0.2872  132.1
 5.400  0.6482  107.8   2.254   15.8  0.1520   21.7  0.2903  130.7
 5.500  0.6527  106.8   2.201   14.4  0.1542   20.9  0.2936  129.2
 5.600  0.6558  105.8   2.159   13.3  0.1561   20.1  0.2956  127.7
 5.700  0.6592  104.8   2.117   12.3  0.1581   19.4  0.2979  126.1
 5.800  0.6627  103.9   2.077   11.1  0.1601   18.6  0.3003  124.6
 5.900  0.6664  102.9   2.037    9.9  0.1621   17.9  0.3030  123.1
 6.000  0.6703  102.0   1.998    8.7  0.1641   17.2  0.3058  121.7
!
!  f       NFmin   Gammaopt  rn/50
! GHz       dB    MAG  ANG    -
 0.900      1.29  0.34 -137   0.12
 1.800      1.44  0.36 -143   0.12
 2.400      1.47  0.37 -133   0.13
 3.000      1.58  0.39 -128   0.15
 4.000      1.65  0.49 -105   0.26
 5.000      1.76  0.57  -87   0.40
 6.000      2.09  0.56  -87   0.63
!
! (c) 2015  Infineon Technologies AG, Munich
