! Infineon Technologies  Discrete & RF Semiconductors
! BFP540
! VCE =  1.5 V,  IC =  5.0 mA
! Common Emitter S-Parameters:                            Nov 2015
# GHz  S  MA  R  50
!  f         S11            S21            S12            S22
! GHz     MAG   ANG      MAG   ANG      MAG   ANG      MAG   ANG
 0.010  0.8111   -1.0  15.327  179.0  0.0009  113.4  0.9811   -1.4
 0.015  0.8130   -1.9  15.286  178.9  0.0013   89.5  0.9859   -1.3
 0.020  0.8151   -2.7  15.246  178.7  0.0019   78.5  0.9908   -1.3
 0.025  0.8151   -3.2  15.248  178.2  0.0024   80.5  0.9907   -1.6
 0.030  0.8152   -3.7  15.252  177.8  0.0029   81.9  0.9906   -2.0
 0.035  0.8153   -4.2  15.256  177.3  0.0033   82.9  0.9905   -2.3
 0.040  0.8155   -4.7  15.261  176.8  0.0038   83.6  0.9905   -2.7
 0.045  0.8157   -5.2  15.268  176.4  0.0043   84.2  0.9905   -3.0
 0.050  0.8160   -5.7  15.275  175.9  0.0048   84.6  0.9905   -3.4
 0.055  0.8156   -6.3  15.268  175.5  0.0052   84.4  0.9899   -3.7
 0.060  0.8152   -6.9  15.261  175.1  0.0057   84.2  0.9893   -4.1
 0.065  0.8149   -7.5  15.255  174.7  0.0061   84.1  0.9888   -4.4
 0.070  0.8147   -8.1  15.250  174.3  0.0066   83.9  0.9883   -4.8
 0.075  0.8146   -8.6  15.245  173.9  0.0070   83.8  0.9878   -5.1
 0.080  0.8146   -9.2  15.241  173.5  0.0075   83.7  0.9874   -5.4
 0.085  0.8147   -9.8  15.238  173.1  0.0079   83.6  0.9870   -5.8
 0.090  0.8148  -10.4  15.236  172.7  0.0084   83.5  0.9866   -6.1
 0.095  0.8151  -11.0  15.235  172.3  0.0088   83.5  0.9863   -6.5
 0.100  0.8154  -11.6  15.234  171.9  0.0093   83.4  0.9860   -6.8
 0.105  0.8144  -12.1  15.224  171.5  0.0098   83.0  0.9853   -7.1
 0.110  0.8134  -12.7  15.216  171.1  0.0102   82.7  0.9846   -7.5
 0.115  0.8126  -13.2  15.208  170.6  0.0107   82.4  0.9840   -7.8
 0.120  0.8118  -13.8  15.201  170.2  0.0112   82.1  0.9833   -8.2
 0.125  0.8111  -14.3  15.194  169.8  0.0116   81.8  0.9828   -8.5
 0.130  0.8104  -14.9  15.189  169.4  0.0121   81.6  0.9822   -8.8
 0.135  0.8099  -15.4  15.184  169.0  0.0126   81.4  0.9817   -9.2
 0.140  0.8094  -16.0  15.180  168.5  0.0131   81.2  0.9812   -9.5
 0.145  0.8089  -16.5  15.177  168.1  0.0135   81.0  0.9808   -9.9
 0.150  0.8086  -17.1  15.175  167.7  0.0140   80.8  0.9804  -10.2
 0.155  0.8076  -17.7  15.151  167.3  0.0144   80.6  0.9793  -10.5
 0.160  0.8066  -18.2  15.128  166.9  0.0149   80.3  0.9782  -10.9
 0.165  0.8058  -18.8  15.106  166.5  0.0153   80.1  0.9771  -11.2
 0.170  0.8050  -19.4  15.085  166.0  0.0158   79.9  0.9761  -11.5
 0.175  0.8043  -19.9  15.064  165.6  0.0162   79.7  0.9750  -11.8
 0.180  0.8037  -20.5  15.045  165.2  0.0166   79.5  0.9741  -12.2
 0.185  0.8031  -21.1  15.026  164.8  0.0171   79.4  0.9731  -12.5
 0.190  0.8027  -21.7  15.008  164.3  0.0175   79.2  0.9722  -12.8
 0.195  0.8023  -22.2  14.990  163.9  0.0180   79.0  0.9713  -13.2
 0.200  0.8020  -22.8  14.974  163.5  0.0184   78.9  0.9705  -13.5
 0.220  0.7992  -25.0  14.890  161.9  0.0200   77.7  0.9660  -14.8
 0.240  0.7975  -27.2  14.818  160.3  0.0217   76.7  0.9621  -16.1
 0.260  0.7946  -29.4  14.735  158.7  0.0234   75.8  0.9569  -17.5
 0.280  0.7905  -31.6  14.641  157.1  0.0251   75.1  0.9506  -18.8
 0.300  0.7876  -33.8  14.558  155.5  0.0269   74.5  0.9447  -20.1
 0.320  0.7820  -35.9  14.422  154.0  0.0286   73.1  0.9371  -21.3
 0.340  0.7774  -38.1  14.297  152.5  0.0303   71.9  0.9300  -22.5
 0.360  0.7740  -40.2  14.181  151.0  0.0320   70.8  0.9233  -23.8
 0.380  0.7716  -42.4  14.076  149.4  0.0337   69.9  0.9170  -25.0
 0.400  0.7704  -44.6  13.982  147.8  0.0354   69.0  0.9112  -26.3
 0.420  0.7633  -46.7  13.848  146.4  0.0368   68.0  0.9021  -27.5
 0.440  0.7573  -48.8  13.722  144.9  0.0381   67.0  0.8933  -28.7
 0.450  0.7546  -49.9  13.663  144.1  0.0388   66.6  0.8891  -29.3
 0.460  0.7523  -50.9  13.606  143.4  0.0395   66.2  0.8850  -29.9
 0.480  0.7483  -53.1  13.500  141.8  0.0409   65.4  0.8770  -31.1
 0.500  0.7455  -55.3  13.403  140.3  0.0423   64.6  0.8695  -32.4
 0.520  0.7386  -57.3  13.230  139.0  0.0437   63.7  0.8598  -33.4
 0.540  0.7325  -59.3  13.065  137.7  0.0450   62.8  0.8503  -34.5
 0.560  0.7273  -61.3  12.906  136.4  0.0464   61.9  0.8412  -35.6
 0.580  0.7231  -63.3  12.754  135.0  0.0478   61.1  0.8323  -36.7
 0.600  0.7198  -65.4  12.610  133.6  0.0492   60.4  0.8238  -37.8
 0.620  0.7136  -67.1  12.463  132.5  0.0503   59.5  0.8144  -38.8
 0.640  0.7080  -68.9  12.321  131.3  0.0514   58.6  0.8052  -39.7
 0.660  0.7031  -70.7  12.184  130.1  0.0525   57.7  0.7963  -40.7
 0.680  0.6989  -72.5  12.052  128.9  0.0536   56.9  0.7876  -41.8
 0.700  0.6954  -74.3  11.926  127.7  0.0547   56.1  0.7792  -42.8
 0.720  0.6892  -76.2  11.773  126.6  0.0558   55.4  0.7692  -43.7
 0.740  0.6837  -78.1  11.625  125.4  0.0568   54.7  0.7594  -44.7
 0.760  0.6791  -80.0  11.482  124.2  0.0579   54.0  0.7499  -45.7
 0.780  0.6751  -81.9  11.343  123.0  0.0590   53.3  0.7406  -46.7
 0.800  0.6720  -83.9  11.210  121.8  0.0601   52.7  0.7315  -47.8
 0.820  0.6667  -85.5  11.060  120.8  0.0608   52.0  0.7225  -48.6
 0.840  0.6620  -87.1  10.913  119.8  0.0614   51.3  0.7136  -49.3
 0.860  0.6577  -88.7  10.769  118.8  0.0621   50.7  0.7048  -50.1
 0.880  0.6541  -90.3  10.629  117.7  0.0628   50.0  0.6962  -51.0
 0.900  0.6509  -92.0  10.493  116.6  0.0635   49.4  0.6877  -51.8
 0.920  0.6457  -93.5  10.358  115.7  0.0643   48.9  0.6793  -52.5
 0.940  0.6409  -95.0  10.225  114.9  0.0652   48.4  0.6710  -53.3
 0.960  0.6365  -96.5  10.095  114.0  0.0660   47.9  0.6629  -54.0
 0.980  0.6326  -98.0   9.967  113.0  0.0669   47.4  0.6548  -54.8
 1.000  0.6292  -99.6   9.842  112.1  0.0677   46.9  0.6469  -55.6
 1.020  0.6249 -101.1   9.720  111.2  0.0683   46.3  0.6387  -56.4
 1.040  0.6210 -102.7   9.600  110.3  0.0690   45.7  0.6307  -57.2
 1.060  0.6176 -104.3   9.482  109.4  0.0696   45.1  0.6228  -58.0
 1.080  0.6146 -105.9   9.367  108.5  0.0702   44.6  0.6150  -58.8
 1.100  0.6122 -107.5   9.255  107.5  0.0709   44.0  0.6073  -59.7
 1.120  0.6087 -108.9   9.138  106.8  0.0713   43.6  0.6002  -60.3
 1.140  0.6055 -110.2   9.022  106.0  0.0718   43.1  0.5931  -60.8
 1.160  0.6027 -111.6   8.907  105.2  0.0722   42.7  0.5861  -61.4
 1.180  0.6002 -113.0   8.795  104.4  0.0727   42.3  0.5791  -62.0
 1.200  0.5981 -114.4   8.684  103.6  0.0731   41.9  0.5722  -62.6
 1.220  0.5959 -115.6   8.585  103.0  0.0736   41.4  0.5657  -63.1
 1.240  0.5940 -116.8   8.487  102.3  0.0741   41.0  0.5592  -63.7
 1.260  0.5923 -118.0   8.390  101.6  0.0746   40.6  0.5528  -64.2
 1.280  0.5909 -119.2   8.294  100.9  0.0751   40.1  0.5464  -64.8
 1.300  0.5897 -120.4   8.200  100.2  0.0756   39.7  0.5401  -65.4
 1.320  0.5868 -121.7   8.106   99.5  0.0760   39.4  0.5337  -66.1
 1.340  0.5843 -122.9   8.013   98.8  0.0763   39.1  0.5274  -66.8
 1.360  0.5820 -124.2   7.921   98.1  0.0767   38.7  0.5212  -67.6
 1.380  0.5800 -125.5   7.830   97.4  0.0770   38.4  0.5150  -68.3
 1.400  0.5783 -126.8   7.741   96.6  0.0774   38.1  0.5090  -69.1
 1.420  0.5761 -128.0   7.653   96.0  0.0778   37.8  0.5034  -69.5
 1.440  0.5742 -129.1   7.566   95.3  0.0783   37.4  0.4978  -69.9
 1.460  0.5725 -130.3   7.480   94.6  0.0787   37.1  0.4922  -70.3
 1.480  0.5710 -131.5   7.395   93.9  0.0792   36.8  0.4866  -70.7
 1.500  0.5698 -132.7   7.311   93.2  0.0796   36.5  0.4811  -71.1
 1.520  0.5670 -133.7   7.232   92.6  0.0800   36.3  0.4758  -71.5
 1.540  0.5643 -134.7   7.153   92.1  0.0804   36.0  0.4706  -72.0
 1.560  0.5618 -135.7   7.075   91.5  0.0809   35.8  0.4653  -72.4
 1.580  0.5595 -136.7   6.998   90.9  0.0813   35.5  0.4602  -72.9
 1.600  0.5573 -137.7   6.921   90.3  0.0817   35.3  0.4550  -73.4
 1.620  0.5563 -138.9   6.854   89.7  0.0819   35.0  0.4502  -74.0
 1.640  0.5556 -140.0   6.788   89.1  0.0822   34.7  0.4454  -74.7
 1.660  0.5551 -141.2   6.723   88.5  0.0824   34.4  0.4407  -75.3
 1.680  0.5548 -142.3   6.659   87.8  0.0827   34.1  0.4360  -76.0
 1.700  0.5548 -143.5   6.595   87.2  0.0829   33.8  0.4314  -76.7
 1.720  0.5531 -144.4   6.526   86.7  0.0832   33.6  0.4274  -77.0
 1.740  0.5516 -145.4   6.457   86.1  0.0835   33.4  0.4234  -77.4
 1.760  0.5502 -146.3   6.389   85.6  0.0838   33.2  0.4194  -77.7
 1.780  0.5489 -147.3   6.321   85.0  0.0841   33.0  0.4154  -78.0
 1.800  0.5478 -148.2   6.254   84.4  0.0844   32.8  0.4114  -78.4
 1.820  0.5467 -149.1   6.200   83.9  0.0848   32.6  0.4067  -78.8
 1.840  0.5456 -149.9   6.146   83.5  0.0852   32.4  0.4019  -79.1
 1.860  0.5447 -150.8   6.092   83.0  0.0856   32.2  0.3972  -79.5
 1.880  0.5440 -151.6   6.039   82.5  0.0860   32.0  0.3926  -79.9
 1.900  0.5433 -152.5   5.986   82.0  0.0864   31.8  0.3879  -80.3
 1.920  0.5421 -153.5   5.931   81.5  0.0866   31.6  0.3846  -80.7
 1.940  0.5410 -154.5   5.876   80.9  0.0868   31.4  0.3813  -81.2
 1.960  0.5400 -155.5   5.822   80.4  0.0871   31.2  0.3780  -81.7
 1.980  0.5393 -156.5   5.769   79.8  0.0873   31.0  0.3748  -82.1
 2.000  0.5387 -157.5   5.716   79.2  0.0875   30.8  0.3716  -82.6
 2.020  0.5379 -158.3   5.666   78.8  0.0878   30.7  0.3679  -82.9
 2.040  0.5372 -159.0   5.617   78.3  0.0881   30.5  0.3643  -83.2
 2.060  0.5366 -159.8   5.568   77.9  0.0884   30.4  0.3607  -83.5
 2.080  0.5361 -160.6   5.520   77.5  0.0887   30.3  0.3571  -83.8
 2.100  0.5357 -161.4   5.472   77.0  0.0889   30.1  0.3535  -84.2
 2.120  0.5354 -162.2   5.424   76.5  0.0892   30.0  0.3499  -84.5
 2.140  0.5352 -163.0   5.376   76.1  0.0895   29.9  0.3463  -84.8
 2.160  0.5351 -163.7   5.329   75.6  0.0898   29.8  0.3427  -85.2
 2.180  0.5351 -164.5   5.282   75.1  0.0901   29.6  0.3391  -85.5
 2.200  0.5352 -165.3   5.236   74.6  0.0904   29.5  0.3356  -85.9
 2.220  0.5345 -166.1   5.192   74.2  0.0906   29.3  0.3329  -86.2
 2.240  0.5340 -166.9   5.149   73.7  0.0908   29.2  0.3303  -86.5
 2.260  0.5335 -167.7   5.105   73.3  0.0911   29.0  0.3276  -86.8
 2.280  0.5332 -168.5   5.063   72.9  0.0913   28.9  0.3250  -87.2
 2.300  0.5329 -169.3   5.020   72.4  0.0915   28.7  0.3224  -87.5
 2.320  0.5328 -170.1   4.978   71.9  0.0917   28.5  0.3198  -87.8
 2.340  0.5327 -170.9   4.936   71.5  0.0919   28.4  0.3171  -88.2
 2.360  0.5328 -171.7   4.894   71.0  0.0922   28.2  0.3146  -88.5
 2.380  0.5329 -172.5   4.853   70.5  0.0924   28.1  0.3120  -88.8
 2.400  0.5332 -173.3   4.812   70.0  0.0926   27.9  0.3094  -89.2
 2.420  0.5330 -174.1   4.776   69.6  0.0929   27.8  0.3059  -89.7
 2.440  0.5329 -174.8   4.740   69.2  0.0931   27.6  0.3023  -90.2
 2.460  0.5329 -175.6   4.704   68.7  0.0934   27.5  0.2988  -90.8
 2.480  0.5330 -176.3   4.669   68.3  0.0937   27.3  0.2954  -91.3
 2.500  0.5331 -177.1   4.634   67.9  0.0939   27.2  0.2919  -91.9
 2.520  0.5334 -177.9   4.599   67.4  0.0942   27.1  0.2885  -92.5
 2.540  0.5338 -178.6   4.565   67.0  0.0945   26.9  0.2852  -93.0
 2.560  0.5342 -179.4   4.531   66.5  0.0948   26.8  0.2818  -93.7
 2.580  0.5348  179.9   4.497   66.1  0.0950   26.6  0.2785  -94.3
 2.600  0.5354  179.1   4.463   65.6  0.0953   26.5  0.2752  -94.9
 2.620  0.5356  178.5   4.433   65.2  0.0956   26.4  0.2727  -95.2
 2.640  0.5360  177.9   4.403   64.8  0.0959   26.3  0.2702  -95.5
 2.660  0.5363  177.2   4.373   64.4  0.0961   26.2  0.2677  -95.8
 2.680  0.5368  176.6   4.343   64.0  0.0964   26.1  0.2652  -96.1
 2.700  0.5373  176.0   4.314   63.6  0.0967   26.0  0.2628  -96.4
 2.720  0.5378  175.4   4.285   63.2  0.0970   26.0  0.2603  -96.7
 2.740  0.5385  174.7   4.256   62.8  0.0973   25.9  0.2578  -97.0
 2.760  0.5391  174.1   4.227   62.4  0.0975   25.8  0.2554  -97.3
 2.780  0.5399  173.5   4.198   61.9  0.0978   25.7  0.2529  -97.7
 2.800  0.5407  172.9   4.170   61.5  0.0981   25.6  0.2505  -98.0
 2.820  0.5406  172.2   4.142   61.1  0.0983   25.5  0.2479  -98.4
 2.840  0.5406  171.6   4.114   60.7  0.0985   25.4  0.2454  -98.9
 2.860  0.5406  170.9   4.086   60.3  0.0987   25.3  0.2428  -99.3
 2.880  0.5408  170.3   4.058   59.9  0.0989   25.2  0.2403  -99.8
 2.900  0.5410  169.6   4.030   59.5  0.0990   25.0  0.2377 -100.3
 2.920  0.5412  168.9   4.003   59.0  0.0992   24.9  0.2352 -100.8
 2.940  0.5416  168.3   3.976   58.6  0.0994   24.8  0.2328 -101.3
 2.960  0.5420  167.6   3.949   58.2  0.0996   24.7  0.2303 -101.8
 2.980  0.5424  167.0   3.922   57.7  0.0998   24.6  0.2278 -102.3
 3.000  0.5430  166.3   3.896   57.3  0.1000   24.5  0.2254 -102.8
 3.100  0.5442  163.3   3.777   55.6  0.1014   24.0  0.2152 -105.6
 3.200  0.5469  160.4   3.662   53.7  0.1028   23.4  0.2055 -108.6
 3.300  0.5510  157.5   3.550   51.8  0.1042   22.9  0.1965 -112.0
 3.400  0.5565  154.6   3.443   49.7  0.1056   22.4  0.1882 -115.6
 3.500  0.5634  151.8   3.341   47.5  0.1070   21.9  0.1807 -119.6
 3.600  0.5662  149.4   3.246   45.9  0.1079   21.4  0.1748 -123.8
 3.700  0.5701  147.0   3.153   44.2  0.1089   20.9  0.1698 -128.4
 3.800  0.5749  144.6   3.063   42.4  0.1099   20.4  0.1660 -133.1
 3.900  0.5807  142.3   2.977   40.4  0.1108   19.9  0.1634 -138.0
 4.000  0.5874  140.0   2.894   38.4  0.1118   19.4  0.1620 -143.1
 4.100  0.5911  137.9   2.815   36.9  0.1131   18.8  0.1615 -147.0
 4.200  0.5955  135.9   2.738   35.3  0.1144   18.2  0.1617 -151.0
 4.300  0.6007  133.9   2.663   33.6  0.1158   17.7  0.1627 -154.9
 4.400  0.6066  131.9   2.590   31.9  0.1171   17.1  0.1644 -158.7
 4.500  0.6132  130.0   2.520   30.0  0.1185   16.6  0.1669 -162.5
 4.600  0.6167  128.3   2.460   28.6  0.1197   16.2  0.1677 -165.5
 4.700  0.6207  126.6   2.401   27.0  0.1209   15.8  0.1690 -168.4
 4.800  0.6252  124.9   2.344   25.4  0.1221   15.4  0.1707 -171.3
 4.900  0.6303  123.2   2.289   23.8  0.1233   15.0  0.1729 -174.1
 5.000  0.6359  121.6   2.236   22.0  0.1245   14.6  0.1754 -176.9
 5.100  0.6386  120.2   2.183   20.7  0.1259   14.2  0.1758 -179.5
 5.200  0.6416  118.8   2.132   19.3  0.1272   13.9  0.1765  178.0
 5.300  0.6450  117.5   2.082   17.9  0.1286   13.6  0.1776  175.5
 5.400  0.6488  116.1   2.033   16.4  0.1299   13.2  0.1790  173.0
 5.500  0.6529  114.8   1.986   14.8  0.1313   12.9  0.1808  170.6
 5.600  0.6562  113.6   1.948   13.6  0.1327   12.5  0.1810  168.2
 5.700  0.6598  112.5   1.910   12.4  0.1342   12.1  0.1815  165.8
 5.800  0.6636  111.3   1.873   11.1  0.1357   11.7  0.1823  163.5
 5.900  0.6677  110.2   1.838    9.7  0.1371   11.3  0.1834  161.1
 6.000  0.6720  109.1   1.803    8.3  0.1386   10.9  0.1848  158.8
!
!  f       NFmin   Gammaopt  rn/50
! GHz       dB    MAG  ANG    -
 0.900      0.69  0.10   42   0.12
 1.800      0.92  0.10  123   0.11
 2.400      0.94  0.12  135   0.10
 3.000      1.10  0.20  165   0.09
 4.000      1.26  0.29 -127   0.15
 5.000      1.53  0.41 -101   0.32
 6.000      1.74  0.53 -100   0.46
!
! (c) 2015  Infineon Technologies AG, Munich
