! Infineon Technologies  Discrete & RF Semiconductors
! BFP540
! VCE = 0.50 V,  IC =  15 mA
! Common Emitter S-Parameters:                            Nov 2015
# GHz  S  MA  R  50
!  f         S11            S21            S12            S22
! GHz     MAG   ANG      MAG   ANG      MAG   ANG      MAG   ANG
 0.010  0.5608   -2.9  32.528  178.3  0.0013   95.4  0.9287   -2.1
 0.015  0.5601   -4.6  32.386  177.7  0.0021   93.1  0.9345   -2.7
 0.020  0.5599   -6.4  32.248  177.0  0.0029   92.0  0.9404   -3.2
 0.025  0.5594   -7.8  32.240  176.1  0.0035   90.4  0.9394   -4.1
 0.030  0.5593   -9.1  32.239  175.3  0.0041   89.2  0.9387   -5.0
 0.035  0.5594  -10.5  32.246  174.4  0.0047   88.3  0.9382   -5.9
 0.040  0.5599  -11.9  32.260  173.5  0.0053   87.7  0.9379   -6.8
 0.045  0.5607  -13.2  32.281  172.7  0.0059   87.1  0.9379   -7.7
 0.050  0.5618  -14.6  32.310  171.8  0.0065   86.7  0.9381   -8.6
 0.055  0.5601  -16.0  32.223  171.0  0.0070   85.4  0.9351   -9.5
 0.060  0.5588  -17.4  32.142  170.2  0.0074   84.3  0.9324  -10.3
 0.065  0.5579  -18.8  32.067  169.4  0.0079   83.3  0.9299  -11.2
 0.070  0.5572  -20.3  31.999  168.6  0.0084   82.4  0.9276  -12.1
 0.075  0.5569  -21.7  31.938  167.7  0.0089   81.6  0.9255  -13.0
 0.080  0.5570  -23.1  31.883  166.9  0.0094   80.9  0.9236  -13.8
 0.085  0.5574  -24.5  31.834  166.1  0.0098   80.3  0.9219  -14.7
 0.090  0.5582  -26.0  31.792  165.3  0.0103   79.7  0.9205  -15.6
 0.095  0.5593  -27.4  31.757  164.4  0.0108   79.2  0.9193  -16.5
 0.100  0.5607  -28.8  31.729  163.6  0.0113   78.7  0.9183  -17.4
 0.105  0.5586  -30.2  31.590  162.8  0.0119   78.1  0.9145  -18.2
 0.110  0.5568  -31.5  31.456  162.1  0.0124   77.6  0.9109  -19.0
 0.115  0.5553  -32.9  31.329  161.3  0.0130   77.1  0.9075  -19.8
 0.120  0.5541  -34.3  31.207  160.5  0.0136   76.7  0.9043  -20.7
 0.125  0.5533  -35.7  31.090  159.7  0.0141   76.3  0.9012  -21.5
 0.130  0.5527  -37.1  30.980  158.9  0.0147   75.9  0.8984  -22.3
 0.135  0.5526  -38.5  30.876  158.1  0.0153   75.6  0.8957  -23.2
 0.140  0.5527  -39.9  30.778  157.3  0.0159   75.3  0.8932  -24.0
 0.145  0.5532  -41.3  30.686  156.5  0.0164   75.0  0.8910  -24.8
 0.150  0.5540  -42.7  30.600  155.7  0.0170   74.7  0.8889  -25.7
 0.155  0.5522  -43.9  30.431  155.0  0.0175   74.0  0.8843  -26.5
 0.160  0.5507  -45.1  30.266  154.3  0.0179   73.3  0.8798  -27.2
 0.165  0.5494  -46.4  30.106  153.6  0.0184   72.7  0.8755  -28.0
 0.170  0.5483  -47.6  29.951  152.9  0.0189   72.1  0.8713  -28.8
 0.175  0.5475  -48.8  29.800  152.2  0.0193   71.6  0.8673  -29.6
 0.180  0.5470  -50.0  29.654  151.5  0.0198   71.0  0.8635  -30.4
 0.185  0.5467  -51.3  29.513  150.7  0.0203   70.5  0.8599  -31.2
 0.190  0.5467  -52.5  29.376  150.0  0.0207   70.0  0.8564  -32.0
 0.195  0.5469  -53.8  29.245  149.3  0.0212   69.5  0.8531  -32.9
 0.200  0.5474  -55.0  29.118  148.5  0.0217   69.1  0.8500  -33.7
 0.220  0.5431  -59.5  28.408  145.9  0.0232   67.3  0.8315  -36.5
 0.240  0.5423  -64.1  27.760  143.1  0.0248   65.7  0.8151  -39.4
 0.260  0.5402  -68.6  27.103  140.5  0.0264   64.4  0.7974  -42.2
 0.280  0.5365  -72.9  26.421  138.1  0.0281   63.2  0.7780  -44.8
 0.300  0.5360  -77.3  25.788  135.6  0.0298   62.2  0.7603  -47.6
 0.320  0.5295  -80.8  25.072  133.8  0.0310   60.8  0.7405  -49.7
 0.340  0.5251  -84.5  24.383  131.8  0.0322   59.6  0.7219  -51.9
 0.360  0.5229  -88.1  23.724  129.8  0.0334   58.4  0.7043  -54.3
 0.380  0.5228  -91.8  23.098  127.6  0.0346   57.3  0.6880  -56.7
 0.400  0.5248  -95.5  22.506  125.3  0.0358   56.3  0.6730  -59.3
 0.420  0.5210  -98.5  21.910  123.8  0.0366   55.6  0.6555  -61.2
 0.440  0.5185 -101.5  21.330  122.1  0.0375   54.8  0.6388  -63.1
 0.450  0.5178 -103.0  21.047  121.3  0.0379   54.5  0.6308  -64.2
 0.460  0.5175 -104.5  20.769  120.4  0.0383   54.2  0.6229  -65.2
 0.480  0.5179 -107.5  20.227  118.6  0.0391   53.5  0.6078  -67.4
 0.500  0.5198 -110.5  19.707  116.7  0.0400   52.9  0.5937  -69.7
 0.520  0.5171 -112.9  19.195  115.5  0.0407   52.3  0.5797  -71.2
 0.540  0.5154 -115.3  18.691  114.3  0.0413   51.6  0.5661  -72.9
 0.560  0.5145 -117.7  18.197  113.0  0.0420   51.0  0.5530  -74.6
 0.580  0.5146 -120.2  17.712  111.6  0.0427   50.5  0.5404  -76.3
 0.600  0.5156 -122.6  17.239  110.1  0.0434   49.9  0.5283  -78.2
 0.620  0.5137 -124.5  16.846  109.1  0.0441   49.6  0.5170  -79.6
 0.640  0.5123 -126.4  16.458  108.1  0.0448   49.2  0.5061  -81.1
 0.660  0.5116 -128.3  16.077  107.0  0.0454   48.9  0.4955  -82.6
 0.680  0.5113 -130.2  15.701  105.8  0.0461   48.6  0.4853  -84.2
 0.700  0.5117 -132.1  15.332  104.6  0.0468   48.3  0.4755  -85.9
 0.720  0.5111 -133.9  14.983  103.7  0.0474   48.0  0.4663  -87.3
 0.740  0.5110 -135.7  14.638  102.7  0.0481   47.8  0.4573  -88.8
 0.760  0.5114 -137.5  14.297  101.7  0.0487   47.5  0.4487  -90.3
 0.780  0.5124 -139.3  13.960  100.7  0.0494   47.2  0.4404  -91.9
 0.800  0.5138 -141.1  13.629   99.6  0.0500   47.0  0.4324  -93.5
 0.820  0.5130 -142.4  13.350   98.9  0.0505   46.8  0.4250  -94.7
 0.840  0.5124 -143.8  13.074   98.1  0.0510   46.5  0.4178  -95.9
 0.860  0.5121 -145.1  12.799   97.3  0.0516   46.3  0.4108  -97.1
 0.880  0.5121 -146.5  12.528   96.5  0.0521   46.1  0.4040  -98.4
 0.900  0.5124 -147.8  12.259   95.6  0.0526   45.9  0.3974  -99.7
 0.920  0.5115 -149.1  12.031   94.9  0.0531   45.9  0.3910 -100.8
 0.940  0.5109 -150.4  11.805   94.2  0.0536   45.8  0.3848 -102.0
 0.960  0.5105 -151.6  11.580   93.5  0.0542   45.8  0.3788 -103.2
 0.980  0.5104 -152.9  11.358   92.8  0.0547   45.7  0.3729 -104.4
 1.000  0.5105 -154.2  11.137   92.0  0.0552   45.7  0.3672 -105.7
 1.020  0.5105 -155.3  10.941   91.4  0.0557   45.6  0.3626 -106.9
 1.040  0.5108 -156.4  10.746   90.7  0.0563   45.5  0.3582 -108.2
 1.060  0.5112 -157.6  10.553   90.0  0.0568   45.3  0.3540 -109.5
 1.080  0.5118 -158.7  10.361   89.3  0.0574   45.2  0.3499 -110.8
 1.100  0.5126 -159.8  10.171   88.6  0.0579   45.1  0.3461 -112.2
 1.120  0.5133 -160.7  10.005   88.1  0.0584   45.0  0.3418 -113.1
 1.140  0.5142 -161.6   9.840   87.5  0.0590   44.8  0.3377 -114.1
 1.160  0.5152 -162.5   9.676   87.0  0.0595   44.7  0.3336 -115.0
 1.180  0.5163 -163.4   9.513   86.4  0.0601   44.5  0.3296 -116.0
 1.200  0.5176 -164.3   9.351   85.8  0.0606   44.4  0.3257 -117.0
 1.220  0.5173 -165.2   9.213   85.3  0.0610   44.4  0.3218 -117.9
 1.240  0.5172 -166.0   9.076   84.7  0.0615   44.5  0.3181 -118.9
 1.260  0.5172 -166.9   8.939   84.2  0.0619   44.5  0.3144 -119.9
 1.280  0.5173 -167.7   8.804   83.6  0.0624   44.6  0.3108 -120.9
 1.300  0.5175 -168.6   8.669   83.0  0.0628   44.6  0.3073 -121.9
 1.320  0.5182 -169.4   8.545   82.5  0.0634   44.5  0.3052 -123.1
 1.340  0.5190 -170.3   8.422   82.0  0.0640   44.4  0.3032 -124.3
 1.360  0.5200 -171.1   8.300   81.5  0.0646   44.2  0.3014 -125.5
 1.380  0.5210 -172.0   8.178   81.0  0.0652   44.1  0.2997 -126.8
 1.400  0.5222 -172.8   8.057   80.4  0.0658   44.0  0.2982 -128.0
 1.420  0.5229 -173.5   7.945   79.9  0.0663   43.9  0.2955 -128.8
 1.440  0.5237 -174.2   7.833   79.4  0.0668   43.8  0.2928 -129.6
 1.460  0.5245 -175.0   7.722   78.9  0.0673   43.8  0.2902 -130.5
 1.480  0.5255 -175.7   7.612   78.4  0.0678   43.7  0.2876 -131.3
 1.500  0.5265 -176.4   7.502   77.9  0.0683   43.6  0.2851 -132.2
 1.520  0.5259 -177.1   7.410   77.5  0.0689   43.5  0.2824 -133.1
 1.540  0.5255 -177.8   7.318   77.0  0.0695   43.4  0.2798 -134.0
 1.560  0.5251 -178.5   7.226   76.6  0.0701   43.4  0.2772 -134.9
 1.580  0.5247 -179.2   7.135   76.1  0.0707   43.3  0.2747 -135.8
 1.600  0.5245 -179.9   7.045   75.6  0.0713   43.2  0.2723 -136.7
 1.620  0.5255  179.4   6.960   75.2  0.0718   43.1  0.2718 -137.6
 1.640  0.5266  178.7   6.875   74.7  0.0723   43.0  0.2714 -138.6
 1.660  0.5278  178.1   6.791   74.3  0.0727   43.0  0.2711 -139.5
 1.680  0.5290  177.4   6.707   73.8  0.0732   42.9  0.2708 -140.5
 1.700  0.5303  176.7   6.624   73.3  0.0737   42.8  0.2706 -141.4
 1.720  0.5310  176.1   6.548   72.9  0.0742   42.7  0.2691 -142.1
 1.740  0.5318  175.6   6.472   72.5  0.0747   42.6  0.2676 -142.8
 1.760  0.5326  175.0   6.397   72.1  0.0752   42.6  0.2662 -143.5
 1.780  0.5335  174.5   6.322   71.7  0.0757   42.5  0.2648 -144.2
 1.800  0.5344  173.9   6.247   71.3  0.0762   42.4  0.2634 -144.9
 1.820  0.5343  173.3   6.182   70.9  0.0769   42.4  0.2611 -145.8
 1.840  0.5342  172.8   6.118   70.5  0.0776   42.3  0.2588 -146.7
 1.860  0.5342  172.2   6.053   70.1  0.0783   42.3  0.2565 -147.6
 1.880  0.5342  171.7   5.990   69.6  0.0790   42.2  0.2544 -148.5
 1.900  0.5343  171.1   5.926   69.2  0.0797   42.2  0.2523 -149.4
 1.920  0.5349  170.5   5.861   68.8  0.0801   42.1  0.2520 -150.0
 1.940  0.5355  169.9   5.796   68.3  0.0805   42.0  0.2517 -150.7
 1.960  0.5362  169.2   5.732   67.9  0.0809   42.0  0.2515 -151.3
 1.980  0.5369  168.6   5.668   67.5  0.0813   41.9  0.2513 -152.0
 2.000  0.5377  168.0   5.604   67.0  0.0817   41.8  0.2511 -152.6
 2.020  0.5382  167.5   5.552   66.7  0.0823   41.7  0.2498 -153.3
 2.040  0.5387  167.0   5.500   66.3  0.0829   41.6  0.2486 -154.1
 2.060  0.5393  166.5   5.449   66.0  0.0835   41.5  0.2474 -154.9
 2.080  0.5399  166.1   5.397   65.6  0.0841   41.3  0.2462 -155.6
 2.100  0.5405  165.6   5.346   65.3  0.0847   41.2  0.2451 -156.4
 2.120  0.5412  165.1   5.295   64.9  0.0854   41.1  0.2441 -157.2
 2.140  0.5419  164.6   5.244   64.6  0.0860   41.0  0.2431 -158.0
 2.160  0.5427  164.2   5.193   64.2  0.0866   40.9  0.2421 -158.8
 2.180  0.5435  163.7   5.143   63.8  0.0872   40.8  0.2412 -159.6
 2.200  0.5443  163.2   5.093   63.4  0.0878   40.7  0.2403 -160.4
 2.220  0.5448  162.7   5.048   63.1  0.0883   40.6  0.2396 -161.0
 2.240  0.5453  162.2   5.003   62.7  0.0888   40.5  0.2390 -161.7
 2.260  0.5459  161.7   4.958   62.4  0.0893   40.4  0.2383 -162.3
 2.280  0.5465  161.1   4.913   62.0  0.0898   40.2  0.2377 -162.9
 2.300  0.5472  160.6   4.869   61.6  0.0902   40.1  0.2372 -163.6
 2.320  0.5479  160.1   4.825   61.3  0.0907   40.0  0.2366 -164.2
 2.340  0.5487  159.6   4.781   60.9  0.0912   39.9  0.2361 -164.8
 2.360  0.5495  159.1   4.737   60.5  0.0917   39.8  0.2357 -165.5
 2.380  0.5503  158.6   4.693   60.1  0.0922   39.7  0.2352 -166.1
 2.400  0.5512  158.1   4.650   59.7  0.0927   39.6  0.2348 -166.8
 2.420  0.5520  157.6   4.612   59.4  0.0933   39.4  0.2348 -167.7
 2.440  0.5529  157.1   4.574   59.0  0.0939   39.2  0.2350 -168.6
 2.460  0.5538  156.6   4.536   58.7  0.0944   39.1  0.2351 -169.5
 2.480  0.5547  156.1   4.498   58.3  0.0950   38.9  0.2353 -170.4
 2.500  0.5557  155.6   4.461   57.9  0.0956   38.7  0.2356 -171.3
 2.520  0.5568  155.1   4.423   57.6  0.0962   38.6  0.2360 -172.2
 2.540  0.5578  154.6   4.386   57.2  0.0968   38.4  0.2364 -173.1
 2.560  0.5589  154.1   4.349   56.8  0.0973   38.2  0.2368 -174.0
 2.580  0.5601  153.6   4.313   56.4  0.0979   38.1  0.2373 -174.9
 2.600  0.5613  153.1   4.276   56.0  0.0985   37.9  0.2379 -175.8
 2.620  0.5621  152.7   4.244   55.7  0.0991   37.8  0.2373 -176.4
 2.640  0.5630  152.3   4.212   55.3  0.0997   37.7  0.2367 -177.1
 2.660  0.5639  151.9   4.181   55.0  0.1002   37.6  0.2361 -177.8
 2.680  0.5648  151.5   4.149   54.6  0.1008   37.5  0.2356 -178.4
 2.700  0.5657  151.1   4.118   54.3  0.1014   37.4  0.2351 -179.1
 2.720  0.5667  150.7   4.087   53.9  0.1020   37.3  0.2346 -179.7
 2.740  0.5677  150.4   4.056   53.5  0.1026   37.2  0.2342  179.6
 2.760  0.5687  150.0   4.025   53.2  0.1031   37.1  0.2338  178.9
 2.780  0.5697  149.6   3.994   52.8  0.1037   37.0  0.2334  178.3
 2.800  0.5708  149.2   3.964   52.4  0.1043   36.9  0.2331  177.6
 2.820  0.5716  148.7   3.936   52.1  0.1048   36.7  0.2337  176.9
 2.840  0.5724  148.2   3.907   51.7  0.1052   36.6  0.2344  176.2
 2.860  0.5733  147.7   3.879   51.4  0.1057   36.4  0.2351  175.6
 2.880  0.5742  147.3   3.852   51.1  0.1061   36.2  0.2358  174.9
 2.900  0.5751  146.8   3.824   50.7  0.1066   36.1  0.2366  174.2
 2.920  0.5761  146.3   3.796   50.4  0.1071   35.9  0.2373  173.6
 2.940  0.5772  145.8   3.769   50.0  0.1075   35.8  0.2382  172.9
 2.960  0.5782  145.3   3.741   49.6  0.1080   35.6  0.2390  172.3
 2.980  0.5793  144.9   3.714   49.3  0.1084   35.5  0.2399  171.6
 3.000  0.5805  144.4   3.687   48.9  0.1089   35.3  0.2408  171.0
 3.100  0.5845  142.3   3.568   47.4  0.1115   34.3  0.2451  167.8
 3.200  0.5892  140.2   3.451   45.8  0.1141   33.4  0.2501  164.6
 3.300  0.5947  138.2   3.338   44.1  0.1167   32.5  0.2559  161.7
 3.400  0.6009  136.2   3.227   42.3  0.1194   31.7  0.2623  158.8
 3.500  0.6079  134.2   3.120   40.4  0.1221   30.9  0.2693  156.1
 3.600  0.6120  132.4   3.028   39.0  0.1240   30.0  0.2771  153.6
 3.700  0.6167  130.7   2.938   37.6  0.1259   29.1  0.2854  151.3
 3.800  0.6220  129.0   2.850   36.0  0.1278   28.2  0.2942  149.1
 3.900  0.6278  127.3   2.764   34.4  0.1297   27.4  0.3034  147.0
 4.000  0.6342  125.6   2.681   32.6  0.1317   26.6  0.3129  145.1
 4.100  0.6386  124.0   2.606   31.3  0.1337   25.5  0.3189  143.5
 4.200  0.6435  122.5   2.532   29.9  0.1356   24.5  0.3252  142.0
 4.300  0.6489  121.0   2.460   28.4  0.1377   23.4  0.3316  140.5
 4.400  0.6547  119.5   2.389   26.8  0.1398   22.5  0.3383  139.1
 4.500  0.6610  118.0   2.321   25.1  0.1419   21.5  0.3452  137.7
 4.600  0.6640  116.7   2.264   23.8  0.1436   20.7  0.3486  136.3
 4.700  0.6674  115.3   2.208   22.5  0.1453   20.0  0.3523  134.9
 4.800  0.6712  114.0   2.153   21.1  0.1470   19.2  0.3561  133.6
 4.900  0.6753  112.7   2.100   19.6  0.1488   18.5  0.3601  132.3
 5.000  0.6797  111.4   2.048   18.1  0.1506   17.8  0.3643  131.0
 5.100  0.6825  110.3   2.000   17.0  0.1525   17.0  0.3661  129.6
 5.200  0.6856  109.1   1.952   15.8  0.1543   16.3  0.3682  128.2
 5.300  0.6889  108.0   1.905   14.5  0.1562   15.6  0.3704  126.9
 5.400  0.6925  106.9   1.860   13.2  0.1582   14.9  0.3728  125.5
 5.500  0.6964  105.8   1.815   11.8  0.1601   14.2  0.3755  124.2
 5.600  0.6993  104.8   1.780   10.7  0.1619   13.4  0.3770  122.8
 5.700  0.7024  103.9   1.746    9.6  0.1637   12.6  0.3788  121.4
 5.800  0.7057  102.9   1.713    8.5  0.1656   11.9  0.3808  120.1
 5.900  0.7092  101.9   1.681    7.3  0.1675   11.1  0.3830  118.7
 6.000  0.7129  101.0   1.649    6.0  0.1694   10.4  0.3854  117.4
!
!  f       NFmin   Gammaopt  rn/50
! GHz       dB    MAG  ANG    -
!
! noise parameter not available yet for this operation point!
!
! (c) 2015  Infineon Technologies AG, Munich
