! Infineon Technologies  Discrete & RF Semiconductors
! BFP540FESD
! VCE =  3.5 V,  IC =  7.0 mA
! Common Emitter S-Parameters:                            Nov 2015
# GHz  S  MA  R  50
!  f         S11            S21            S12            S22
! GHz     MAG   ANG      MAG   ANG      MAG   ANG      MAG   ANG
 0.010  0.8021   -0.5  21.570  178.3  0.0008   57.7  0.9802   -3.5
 0.015  0.7955   -2.1  21.189  178.0  0.0012   75.0  0.9844   -2.5
 0.020  0.7895   -3.8  20.809  177.7  0.0017   83.1  0.9888   -1.6
 0.025  0.7921   -4.2  20.822  177.2  0.0021   83.3  0.9866   -1.9
 0.030  0.7947   -4.6  20.837  176.8  0.0026   83.4  0.9845   -2.3
 0.035  0.7973   -5.0  20.853  176.3  0.0030   83.5  0.9824   -2.6
 0.040  0.8000   -5.3  20.870  175.8  0.0034   83.6  0.9804   -3.0
 0.045  0.8027   -5.7  20.889  175.4  0.0039   83.7  0.9784   -3.3
 0.050  0.8055   -6.1  20.909  174.9  0.0043   83.7  0.9764   -3.7
 0.055  0.8041   -6.7  20.884  174.4  0.0047   82.6  0.9757   -4.1
 0.060  0.8029   -7.3  20.861  173.9  0.0051   81.6  0.9750   -4.5
 0.065  0.8017   -8.0  20.840  173.4  0.0055   80.8  0.9744   -4.8
 0.070  0.8006   -8.6  20.820  173.0  0.0059   80.1  0.9738   -5.2
 0.075  0.7996   -9.2  20.801  172.5  0.0063   79.5  0.9733   -5.6
 0.080  0.7988   -9.9  20.785  172.0  0.0068   79.0  0.9728   -6.0
 0.085  0.7980  -10.5  20.769  171.5  0.0072   78.5  0.9724   -6.4
 0.090  0.7973  -11.1  20.755  171.0  0.0076   78.1  0.9720   -6.7
 0.095  0.7967  -11.8  20.743  170.5  0.0080   77.7  0.9716   -7.1
 0.100  0.7962  -12.4  20.732  170.0  0.0084   77.4  0.9713   -7.5
 0.105  0.7944  -13.1  20.707  169.5  0.0088   77.5  0.9699   -7.9
 0.110  0.7926  -13.8  20.683  169.1  0.0092   77.5  0.9686   -8.2
 0.115  0.7910  -14.6  20.661  168.6  0.0097   77.6  0.9673   -8.6
 0.120  0.7896  -15.3  20.640  168.1  0.0101   77.7  0.9660   -8.9
 0.125  0.7882  -16.0  20.621  167.7  0.0105   77.7  0.9648   -9.3
 0.130  0.7870  -16.8  20.603  167.2  0.0109   77.7  0.9636   -9.6
 0.135  0.7860  -17.5  20.586  166.7  0.0113   77.8  0.9624  -10.0
 0.140  0.7850  -18.2  20.570  166.2  0.0118   77.8  0.9613  -10.4
 0.145  0.7842  -19.0  20.557  165.8  0.0122   77.9  0.9602  -10.7
 0.150  0.7835  -19.7  20.544  165.3  0.0126   77.9  0.9592  -11.1
 0.155  0.7822  -20.3  20.489  164.8  0.0130   77.7  0.9574  -11.5
 0.160  0.7809  -20.8  20.435  164.3  0.0133   77.5  0.9556  -11.8
 0.165  0.7797  -21.4  20.383  163.8  0.0137   77.4  0.9538  -12.2
 0.170  0.7786  -21.9  20.333  163.3  0.0141   77.2  0.9521  -12.5
 0.175  0.7776  -22.5  20.284  162.8  0.0144   77.1  0.9504  -12.9
 0.180  0.7766  -23.0  20.237  162.3  0.0148   76.9  0.9487  -13.2
 0.185  0.7757  -23.6  20.191  161.8  0.0152   76.8  0.9471  -13.6
 0.190  0.7749  -24.2  20.147  161.2  0.0156   76.6  0.9455  -14.0
 0.195  0.7742  -24.7  20.105  160.7  0.0159   76.5  0.9440  -14.3
 0.200  0.7735  -25.3  20.064  160.2  0.0163   76.4  0.9425  -14.7
 0.220  0.7656  -27.7  19.874  158.5  0.0178   75.5  0.9353  -16.1
 0.240  0.7590  -30.1  19.701  156.8  0.0193   74.8  0.9286  -17.5
 0.260  0.7519  -32.5  19.517  155.0  0.0208   73.7  0.9209  -18.8
 0.280  0.7445  -35.0  19.321  153.2  0.0222   72.2  0.9119  -20.0
 0.300  0.7384  -37.5  19.146  151.3  0.0237   70.9  0.9034  -21.3
 0.320  0.7287  -39.6  18.884  149.7  0.0250   69.7  0.8931  -22.4
 0.340  0.7200  -41.8  18.637  148.1  0.0263   68.6  0.8831  -23.6
 0.360  0.7123  -44.0  18.405  146.4  0.0276   67.6  0.8735  -24.8
 0.380  0.7058  -46.3  18.189  144.7  0.0289   66.6  0.8643  -26.0
 0.400  0.7004  -48.6  17.990  143.0  0.0302   65.8  0.8555  -27.3
 0.420  0.6898  -50.6  17.735  141.6  0.0313   65.2  0.8438  -28.3
 0.440  0.6801  -52.7  17.490  140.1  0.0324   64.6  0.8324  -29.3
 0.450  0.6756  -53.7  17.373  139.4  0.0329   64.3  0.8268  -29.9
 0.460  0.6713  -54.8  17.258  138.6  0.0334   64.1  0.8213  -30.4
 0.480  0.6634  -57.0  17.038  137.1  0.0345   63.6  0.8104  -31.5
 0.500  0.6565  -59.2  16.830  135.5  0.0356   63.1  0.7999  -32.6
 0.520  0.6471  -61.1  16.550  134.2  0.0365   62.4  0.7890  -33.4
 0.540  0.6385  -63.1  16.279  133.0  0.0374   61.6  0.7783  -34.3
 0.560  0.6306  -65.1  16.016  131.6  0.0383   61.0  0.7678  -35.2
 0.580  0.6236  -67.1  15.762  130.2  0.0392   60.3  0.7574  -36.1
 0.600  0.6173  -69.2  15.518  128.8  0.0401   59.7  0.7473  -37.0
 0.620  0.6095  -70.7  15.285  127.8  0.0409   59.1  0.7375  -37.7
 0.640  0.6022  -72.3  15.058  126.7  0.0417   58.4  0.7279  -38.5
 0.660  0.5953  -73.9  14.835  125.7  0.0425   57.8  0.7184  -39.2
 0.680  0.5890  -75.6  14.618  124.5  0.0433   57.3  0.7090  -40.0
 0.700  0.5831  -77.3  14.407  123.4  0.0441   56.7  0.6997  -40.8
 0.720  0.5752  -79.1  14.183  122.3  0.0447   56.2  0.6898  -41.5
 0.740  0.5679  -81.0  13.963  121.3  0.0453   55.7  0.6800  -42.2
 0.760  0.5612  -82.9  13.749  120.1  0.0460   55.3  0.6703  -43.0
 0.780  0.5552  -84.9  13.540  119.0  0.0466   54.8  0.6607  -43.7
 0.800  0.5498  -86.9  13.337  117.8  0.0472   54.4  0.6512  -44.5
 0.820  0.5431  -88.3  13.130  116.9  0.0478   54.0  0.6427  -45.0
 0.840  0.5367  -89.8  12.927  116.0  0.0484   53.6  0.6342  -45.6
 0.860  0.5307  -91.2  12.727  115.1  0.0490   53.2  0.6258  -46.1
 0.880  0.5251  -92.8  12.531  114.1  0.0496   52.9  0.6175  -46.7
 0.900  0.5198  -94.3  12.338  113.1  0.0502   52.5  0.6092  -47.3
 0.920  0.5147  -95.6  12.161  112.3  0.0509   52.3  0.6019  -47.8
 0.940  0.5100  -97.0  11.986  111.5  0.0516   52.1  0.5946  -48.3
 0.960  0.5055  -98.4  11.814  110.7  0.0522   51.9  0.5873  -48.8
 0.980  0.5013  -99.8  11.644  109.9  0.0529   51.8  0.5801  -49.3
 1.000  0.4974 -101.2  11.477  109.0  0.0536   51.6  0.5730  -49.8
 1.020  0.4930 -102.6  11.316  108.3  0.0541   51.4  0.5662  -50.3
 1.040  0.4888 -104.0  11.157  107.5  0.0545   51.1  0.5594  -50.9
 1.060  0.4850 -105.5  11.000  106.7  0.0550   50.9  0.5526  -51.4
 1.080  0.4814 -106.9  10.845  105.9  0.0554   50.6  0.5459  -52.0
 1.100  0.4782 -108.4  10.692  105.1  0.0559   50.4  0.5393  -52.6
 1.120  0.4746 -109.7  10.540  104.4  0.0563   50.1  0.5328  -53.0
 1.140  0.4712 -111.0  10.390  103.8  0.0567   49.8  0.5264  -53.4
 1.160  0.4681 -112.4  10.241  103.1  0.0572   49.5  0.5200  -53.8
 1.180  0.4653 -113.7  10.094  102.3  0.0576   49.3  0.5136  -54.2
 1.200  0.4627 -115.1   9.948  101.6  0.0580   49.0  0.5073  -54.6
 1.220  0.4595 -116.1   9.820  101.0  0.0585   48.9  0.5017  -54.9
 1.240  0.4564 -117.1   9.694  100.5  0.0591   48.9  0.4961  -55.2
 1.260  0.4535 -118.1   9.568   99.9  0.0596   48.8  0.4906  -55.5
 1.280  0.4507 -119.1   9.444   99.3  0.0602   48.8  0.4850  -55.9
 1.300  0.4480 -120.1   9.320   98.7  0.0607   48.7  0.4795  -56.2
 1.320  0.4457 -121.3   9.206   98.1  0.0610   48.6  0.4742  -56.7
 1.340  0.4436 -122.5   9.093   97.5  0.0614   48.5  0.4690  -57.2
 1.360  0.4417 -123.7   8.981   96.8  0.0617   48.3  0.4638  -57.8
 1.380  0.4400 -124.9   8.870   96.2  0.0621   48.2  0.4587  -58.3
 1.400  0.4385 -126.1   8.760   95.5  0.0624   48.1  0.4536  -58.9
 1.420  0.4373 -127.3   8.652   95.0  0.0629   48.0  0.4490  -59.2
 1.440  0.4362 -128.4   8.545   94.4  0.0633   47.9  0.4444  -59.6
 1.460  0.4353 -129.6   8.439   93.9  0.0638   47.7  0.4399  -59.9
 1.480  0.4346 -130.8   8.334   93.3  0.0642   47.6  0.4353  -60.2
 1.500  0.4341 -132.0   8.229   92.7  0.0647   47.5  0.4308  -60.6
 1.520  0.4316 -132.9   8.132   92.2  0.0651   47.4  0.4263  -60.9
 1.540  0.4292 -133.7   8.036   91.7  0.0655   47.3  0.4217  -61.1
 1.560  0.4268 -134.6   7.940   91.2  0.0660   47.2  0.4172  -61.4
 1.580  0.4246 -135.5   7.845   90.7  0.0664   47.1  0.4127  -61.7
 1.600  0.4225 -136.4   7.750   90.2  0.0668   47.0  0.4082  -62.0
 1.620  0.4213 -137.4   7.667   89.7  0.0672   46.9  0.4044  -62.5
 1.640  0.4201 -138.4   7.585   89.2  0.0676   46.8  0.4006  -63.0
 1.660  0.4192 -139.4   7.503   88.7  0.0680   46.7  0.3969  -63.5
 1.680  0.4183 -140.5   7.422   88.1  0.0684   46.6  0.3932  -64.1
 1.700  0.4176 -141.5   7.341   87.6  0.0688   46.5  0.3895  -64.6
 1.720  0.4166 -142.3   7.259   87.1  0.0692   46.5  0.3867  -64.9
 1.740  0.4157 -143.1   7.178   86.7  0.0696   46.5  0.3840  -65.2
 1.760  0.4148 -143.8   7.097   86.2  0.0699   46.4  0.3812  -65.5
 1.780  0.4141 -144.6   7.017   85.7  0.0703   46.4  0.3785  -65.8
 1.800  0.4134 -145.4   6.937   85.2  0.0707   46.4  0.3758  -66.1
 1.820  0.4131 -146.1   6.866   84.8  0.0711   46.3  0.3719  -66.3
 1.840  0.4128 -146.8   6.796   84.5  0.0716   46.2  0.3681  -66.5
 1.860  0.4127 -147.6   6.726   84.1  0.0720   46.1  0.3642  -66.7
 1.880  0.4125 -148.3   6.656   83.7  0.0725   46.0  0.3604  -66.9
 1.900  0.4125 -149.0   6.586   83.3  0.0729   45.9  0.3565  -67.1
 1.920  0.4111 -149.9   6.521   82.9  0.0733   45.9  0.3539  -67.5
 1.940  0.4097 -150.9   6.457   82.4  0.0736   45.8  0.3512  -68.0
 1.960  0.4085 -151.8   6.393   81.9  0.0740   45.8  0.3486  -68.4
 1.980  0.4074 -152.7   6.330   81.5  0.0743   45.7  0.3461  -68.8
 2.000  0.4064 -153.7   6.267   81.0  0.0747   45.7  0.3435  -69.3
 2.020  0.4060 -154.2   6.208   80.7  0.0751   45.7  0.3411  -69.5
 2.040  0.4056 -154.8   6.149   80.3  0.0754   45.7  0.3388  -69.8
 2.060  0.4052 -155.3   6.091   80.0  0.0758   45.6  0.3364  -70.0
 2.080  0.4049 -155.9   6.033   79.6  0.0762   45.6  0.3340  -70.2
 2.100  0.4047 -156.4   5.975   79.3  0.0765   45.6  0.3317  -70.5
 2.120  0.4044 -156.9   5.917   78.9  0.0769   45.6  0.3293  -70.7
 2.140  0.4042 -157.5   5.859   78.6  0.0773   45.6  0.3270  -70.9
 2.160  0.4040 -158.0   5.802   78.2  0.0777   45.5  0.3247  -71.2
 2.180  0.4039 -158.6   5.745   77.8  0.0780   45.5  0.3223  -71.4
 2.200  0.4038 -159.1   5.688   77.4  0.0784   45.5  0.3200  -71.7
 2.220  0.4032 -159.8   5.638   77.1  0.0788   45.4  0.3183  -72.0
 2.240  0.4027 -160.6   5.588   76.7  0.0792   45.4  0.3167  -72.3
 2.260  0.4023 -161.3   5.538   76.4  0.0795   45.3  0.3150  -72.7
 2.280  0.4019 -162.0   5.489   76.0  0.0799   45.3  0.3134  -73.0
 2.300  0.4016 -162.8   5.440   75.6  0.0803   45.2  0.3118  -73.3
 2.320  0.4014 -163.5   5.391   75.3  0.0807   45.2  0.3102  -73.6
 2.340  0.4012 -164.3   5.342   74.9  0.0811   45.1  0.3086  -74.0
 2.360  0.4011 -165.0   5.293   74.5  0.0814   45.1  0.3070  -74.3
 2.380  0.4011 -165.8   5.245   74.1  0.0818   45.0  0.3054  -74.7
 2.400  0.4011 -166.5   5.197   73.7  0.0822   45.0  0.3038  -75.0
 2.420  0.4013 -166.9   5.156   73.4  0.0827   45.0  0.3016  -75.3
 2.440  0.4015 -167.4   5.115   73.1  0.0831   45.0  0.2994  -75.7
 2.460  0.4018 -167.8   5.074   72.8  0.0836   45.0  0.2972  -76.1
 2.480  0.4021 -168.2   5.033   72.5  0.0840   45.0  0.2951  -76.4
 2.500  0.4024 -168.7   4.993   72.2  0.0845   45.0  0.2929  -76.8
 2.520  0.4027 -169.1   4.952   71.9  0.0850   45.0  0.2908  -77.2
 2.540  0.4030 -169.5   4.912   71.6  0.0854   45.0  0.2886  -77.5
 2.560  0.4034 -169.9   4.872   71.3  0.0859   45.0  0.2865  -77.9
 2.580  0.4038 -170.4   4.832   70.9  0.0863   45.0  0.2844  -78.3
 2.600  0.4042 -170.8   4.792   70.6  0.0868   45.0  0.2823  -78.7
 2.620  0.4038 -171.2   4.756   70.3  0.0872   45.0  0.2813  -78.9
 2.640  0.4035 -171.7   4.721   70.0  0.0877   45.0  0.2802  -79.0
 2.660  0.4032 -172.1   4.686   69.7  0.0881   45.0  0.2792  -79.2
 2.680  0.4029 -172.6   4.650   69.5  0.0886   45.0  0.2782  -79.4
 2.700  0.4026 -173.0   4.615   69.2  0.0890   44.9  0.2772  -79.6
 2.720  0.4024 -173.5   4.580   68.9  0.0895   44.9  0.2761  -79.8
 2.740  0.4022 -173.9   4.546   68.5  0.0899   44.9  0.2751  -79.9
 2.760  0.4020 -174.4   4.511   68.2  0.0904   44.9  0.2741  -80.1
 2.780  0.4018 -174.8   4.476   67.9  0.0908   44.9  0.2731  -80.3
 2.800  0.4017 -175.3   4.442   67.6  0.0913   44.9  0.2721  -80.5
 2.820  0.4017 -175.7   4.411   67.3  0.0916   44.9  0.2712  -80.8
 2.840  0.4016 -176.2   4.380   67.0  0.0919   44.8  0.2703  -81.0
 2.860  0.4016 -176.6   4.349   66.7  0.0923   44.8  0.2694  -81.3
 2.880  0.4017 -177.1   4.318   66.4  0.0926   44.7  0.2685  -81.6
 2.900  0.4017 -177.5   4.288   66.1  0.0929   44.7  0.2676  -81.8
 2.920  0.4018 -177.9   4.257   65.7  0.0932   44.7  0.2667  -82.1
 2.940  0.4019 -178.4   4.227   65.4  0.0935   44.6  0.2658  -82.4
 2.960  0.4020 -178.8   4.197   65.1  0.0939   44.6  0.2649  -82.6
 2.980  0.4021 -179.3   4.167   64.7  0.0942   44.5  0.2641  -82.9
 3.000  0.4023 -179.7   4.137   64.4  0.0945   44.5  0.2632  -83.2
 3.100  0.4013  178.6   4.012   63.2  0.0967   44.2  0.2596  -84.3
 3.200  0.4007  176.8   3.889   62.0  0.0988   43.9  0.2561  -85.4
 3.300  0.4005  175.1   3.767   60.7  0.1010   43.6  0.2527  -86.5
 3.400  0.4007  173.3   3.648   59.3  0.1031   43.4  0.2494  -87.7
 3.500  0.4012  171.6   3.531   57.8  0.1053   43.1  0.2462  -88.9
 3.600  0.4018  170.5   3.442   56.7  0.1077   43.0  0.2428  -89.8
 3.700  0.4026  169.3   3.354   55.5  0.1101   42.9  0.2395  -90.6
 3.800  0.4035  168.2   3.268   54.3  0.1124   42.8  0.2363  -91.5
 3.900  0.4046  167.0   3.183   53.0  0.1148   42.8  0.2331  -92.5
 4.000  0.4058  165.9   3.100   51.6  0.1172   42.7  0.2300  -93.4
 4.100  0.4049  164.6   3.030   50.5  0.1196   42.1  0.2271  -94.3
 4.200  0.4042  163.3   2.961   49.4  0.1219   41.6  0.2242  -95.3
 4.300  0.4037  162.0   2.893   48.2  0.1243   41.1  0.2214  -96.3
 4.400  0.4035  160.7   2.826   46.9  0.1267   40.6  0.2187  -97.3
 4.500  0.4034  159.4   2.761   45.6  0.1291   40.1  0.2160  -98.3
 4.600  0.4041  158.2   2.708   44.5  0.1318   39.7  0.2133  -99.2
 4.700  0.4050  157.1   2.657   43.3  0.1345   39.3  0.2107 -100.1
 4.800  0.4060  156.0   2.607   42.0  0.1372   38.9  0.2081 -101.0
 4.900  0.4072  154.8   2.558   40.7  0.1400   38.6  0.2056 -101.9
 5.000  0.4086  153.7   2.510   39.4  0.1427   38.2  0.2031 -102.9
 5.100  0.4054  152.2   2.463   38.3  0.1454   37.5  0.1994 -104.4
 5.200  0.4026  150.6   2.417   37.1  0.1481   36.9  0.1959 -106.0
 5.300  0.4000  149.1   2.372   35.9  0.1508   36.3  0.1925 -107.6
 5.400  0.3978  147.5   2.328   34.7  0.1535   35.7  0.1893 -109.3
 5.500  0.3958  145.9   2.285   33.4  0.1563   35.1  0.1862 -111.0
 5.600  0.3957  144.5   2.249   32.3  0.1590   34.5  0.1828 -112.0
 5.700  0.3958  143.1   2.214   31.2  0.1617   33.9  0.1794 -113.1
 5.800  0.3962  141.7   2.180   30.1  0.1644   33.4  0.1762 -114.2
 5.900  0.3968  140.3   2.146   28.9  0.1671   32.8  0.1729 -115.4
 6.000  0.3976  138.9   2.114   27.7  0.1698   32.3  0.1698 -116.6
!
!  f       NFmin   Gammaopt  rn/50
! GHz       dB    MAG  ANG    -
!
! noise parameter not available yet for this operation point!
!
! (c) 2015  Infineon Technologies AG, Munich
