! Infineon Technologies  Discrete & RF Semiconductors
! BFP540FESD
! VCE =  4.5 V,  IC =  20 mA
! Common Emitter S-Parameters:                            Nov 2015
# GHz  S  MA  R  50
!  f         S11            S21            S12            S22
! GHz     MAG   ANG      MAG   ANG      MAG   ANG      MAG   ANG
 0.010  0.4963   -0.2  42.402  176.8  0.0028   17.8  0.8701   -3.1
 0.015  0.4944   -2.6  41.619  176.4  0.0031   21.6  0.8748   -2.3
 0.020  0.4934   -5.1  40.839  175.9  0.0034   24.7  0.8796   -1.6
 0.025  0.4950   -5.9  40.756  175.2  0.0036   28.4  0.8784   -2.2
 0.030  0.4967   -6.7  40.680  174.4  0.0037   31.7  0.8773   -2.8
 0.035  0.4986   -7.5  40.611  173.7  0.0039   34.8  0.8763   -3.4
 0.040  0.5005   -8.3  40.548  173.0  0.0041   37.6  0.8754   -4.0
 0.045  0.5025   -9.1  40.491  172.2  0.0043   40.1  0.8746   -4.6
 0.050  0.5046   -9.9  40.442  171.5  0.0045   42.4  0.8739   -5.2
 0.055  0.5029  -10.9  40.297  170.8  0.0047   45.3  0.8725   -5.8
 0.060  0.5013  -12.0  40.158  170.0  0.0050   47.9  0.8711   -6.4
 0.065  0.5000  -13.0  40.026  169.3  0.0052   50.3  0.8698   -7.0
 0.070  0.4988  -14.1  39.900  168.6  0.0055   52.5  0.8687   -7.6
 0.075  0.4977  -15.1  39.782  167.8  0.0058   54.4  0.8676   -8.2
 0.080  0.4968  -16.2  39.670  167.1  0.0060   56.2  0.8666   -8.8
 0.085  0.4961  -17.3  39.565  166.3  0.0063   57.8  0.8658   -9.4
 0.090  0.4956  -18.4  39.467  165.5  0.0066   59.3  0.8650  -10.0
 0.095  0.4953  -19.4  39.376  164.8  0.0069   60.7  0.8643  -10.6
 0.100  0.4951  -20.5  39.292  164.0  0.0072   61.9  0.8637  -11.2
 0.105  0.4929  -21.6  39.137  163.3  0.0075   62.0  0.8607  -11.7
 0.110  0.4909  -22.7  38.987  162.6  0.0077   62.0  0.8578  -12.2
 0.115  0.4890  -23.8  38.843  162.0  0.0080   62.0  0.8549  -12.8
 0.120  0.4874  -25.0  38.705  161.3  0.0082   62.1  0.8521  -13.3
 0.125  0.4859  -26.1  38.572  160.6  0.0085   62.1  0.8494  -13.8
 0.130  0.4847  -27.3  38.445  159.9  0.0088   62.2  0.8467  -14.3
 0.135  0.4836  -28.4  38.324  159.1  0.0090   62.2  0.8442  -14.9
 0.140  0.4827  -29.6  38.209  158.4  0.0093   62.2  0.8417  -15.4
 0.145  0.4821  -30.7  38.099  157.7  0.0095   62.3  0.8392  -16.0
 0.150  0.4816  -31.9  37.996  157.0  0.0098   62.3  0.8369  -16.5
 0.155  0.4795  -32.7  37.779  156.4  0.0101   62.4  0.8331  -17.0
 0.160  0.4776  -33.6  37.567  155.7  0.0103   62.5  0.8294  -17.5
 0.165  0.4758  -34.4  37.360  155.0  0.0106   62.6  0.8257  -18.0
 0.170  0.4740  -35.3  37.159  154.4  0.0109   62.7  0.8221  -18.4
 0.175  0.4724  -36.2  36.962  153.7  0.0111   62.8  0.8185  -18.9
 0.180  0.4709  -37.1  36.770  153.0  0.0114   62.9  0.8150  -19.4
 0.185  0.4695  -37.9  36.584  152.3  0.0117   63.0  0.8116  -20.0
 0.190  0.4682  -38.8  36.403  151.6  0.0120   63.1  0.8082  -20.5
 0.195  0.4670  -39.7  36.228  150.9  0.0122   63.1  0.8049  -21.0
 0.200  0.4659  -40.6  36.058  150.2  0.0125   63.2  0.8017  -21.5
 0.220  0.4562  -44.1  35.248  147.9  0.0135   63.5  0.7879  -23.3
 0.240  0.4482  -47.7  34.497  145.5  0.0145   63.8  0.7749  -25.1
 0.260  0.4405  -51.4  33.741  143.2  0.0155   63.9  0.7607  -26.7
 0.280  0.4330  -55.0  32.971  141.0  0.0164   63.8  0.7449  -28.2
 0.300  0.4273  -58.7  32.252  138.7  0.0174   63.7  0.7297  -29.7
 0.320  0.4176  -61.4  31.418  137.0  0.0183   63.5  0.7145  -30.9
 0.340  0.4089  -64.2  30.614  135.2  0.0191   63.2  0.6996  -32.1
 0.360  0.4013  -67.2  29.842  133.3  0.0200   63.0  0.6851  -33.4
 0.380  0.3947  -70.3  29.104  131.3  0.0208   62.9  0.6709  -34.7
 0.400  0.3893  -73.4  28.403  129.2  0.0217   62.7  0.6571  -36.1
 0.420  0.3819  -76.0  27.709  127.8  0.0223   62.3  0.6430  -37.0
 0.440  0.3753  -78.7  27.032  126.3  0.0229   62.0  0.6290  -37.9
 0.450  0.3723  -80.0  26.700  125.6  0.0232   61.8  0.6221  -38.4
 0.460  0.3696  -81.4  26.373  124.8  0.0236   61.7  0.6153  -38.9
 0.480  0.3647  -84.3  25.734  123.2  0.0242   61.4  0.6017  -39.9
 0.500  0.3608  -87.2  25.117  121.5  0.0248   61.1  0.5883  -41.0
 0.520  0.3551  -89.4  24.504  120.4  0.0255   61.1  0.5770  -41.6
 0.540  0.3499  -91.6  23.900  119.2  0.0263   61.1  0.5658  -42.3
 0.560  0.3453  -93.9  23.308  118.0  0.0270   61.0  0.5546  -43.0
 0.580  0.3413  -96.3  22.726  116.7  0.0278   61.0  0.5436  -43.7
 0.600  0.3378  -98.7  22.157  115.3  0.0285   61.0  0.5326  -44.4
 0.620  0.3336 -100.5  21.677  114.4  0.0290   61.1  0.5235  -44.9
 0.640  0.3297 -102.3  21.204  113.4  0.0295   61.3  0.5144  -45.5
 0.660  0.3262 -104.2  20.736  112.4  0.0299   61.4  0.5054  -46.1
 0.680  0.3230 -106.1  20.276  111.3  0.0304   61.5  0.4965  -46.7
 0.700  0.3202 -108.1  19.823  110.2  0.0309   61.6  0.4876  -47.3
 0.720  0.3169 -110.1  19.411  109.4  0.0315   61.5  0.4791  -47.9
 0.740  0.3140 -112.2  19.004  108.5  0.0322   61.3  0.4706  -48.4
 0.760  0.3116 -114.4  18.602  107.6  0.0328   61.2  0.4621  -49.0
 0.780  0.3096 -116.5  18.204  106.6  0.0335   61.1  0.4537  -49.7
 0.800  0.3080 -118.7  17.812  105.6  0.0341   61.0  0.4454  -50.3
 0.820  0.3058 -120.2  17.468  104.9  0.0346   61.0  0.4387  -50.6
 0.840  0.3038 -121.7  17.127  104.2  0.0351   60.9  0.4321  -51.0
 0.860  0.3020 -123.2  16.789  103.4  0.0355   60.9  0.4255  -51.3
 0.880  0.3004 -124.7  16.454  102.6  0.0360   60.8  0.4189  -51.7
 0.900  0.2991 -126.3  16.122  101.8  0.0365   60.8  0.4123  -52.1
 0.920  0.2973 -127.6  15.834  101.2  0.0371   60.8  0.4067  -52.4
 0.940  0.2957 -128.9  15.548  100.5  0.0377   60.8  0.4011  -52.8
 0.960  0.2942 -130.3  15.264   99.8  0.0384   60.7  0.3956  -53.1
 0.980  0.2929 -131.6  14.982   99.1  0.0390   60.7  0.3900  -53.4
 1.000  0.2917 -133.0  14.703   98.4  0.0396   60.7  0.3845  -53.8
 1.020  0.2912 -134.3  14.461   97.8  0.0402   60.8  0.3795  -54.3
 1.040  0.2909 -135.6  14.220   97.2  0.0408   60.8  0.3746  -54.7
 1.060  0.2908 -137.0  13.982   96.6  0.0414   60.9  0.3697  -55.2
 1.080  0.2908 -138.3  13.744   96.0  0.0420   60.9  0.3648  -55.7
 1.100  0.2909 -139.6  13.509   95.3  0.0426   61.0  0.3599  -56.2
 1.120  0.2907 -140.9  13.291   94.8  0.0431   61.0  0.3554  -56.5
 1.140  0.2907 -142.2  13.075   94.2  0.0436   61.0  0.3510  -56.7
 1.160  0.2908 -143.4  12.859   93.7  0.0440   60.9  0.3465  -57.0
 1.180  0.2910 -144.7  12.645   93.1  0.0445   60.9  0.3420  -57.3
 1.200  0.2914 -146.0  12.432   92.5  0.0450   60.9  0.3376  -57.6
 1.220  0.2906 -146.8  12.251   92.0  0.0456   60.9  0.3337  -57.8
 1.240  0.2898 -147.7  12.070   91.6  0.0463   60.9  0.3298  -58.0
 1.260  0.2891 -148.5  11.890   91.1  0.0469   60.8  0.3259  -58.2
 1.280  0.2885 -149.4  11.711   90.6  0.0476   60.8  0.3220  -58.4
 1.300  0.2879 -150.2  11.533   90.1  0.0482   60.8  0.3181  -58.6
 1.320  0.2883 -151.2  11.376   89.6  0.0488   60.8  0.3143  -59.1
 1.340  0.2887 -152.3  11.220   89.1  0.0494   60.8  0.3106  -59.7
 1.360  0.2892 -153.3  11.065   88.6  0.0499   60.9  0.3069  -60.2
 1.380  0.2899 -154.3  10.910   88.1  0.0505   60.9  0.3032  -60.8
 1.400  0.2906 -155.3  10.757   87.6  0.0511   60.9  0.2996  -61.4
 1.420  0.2921 -156.1  10.613   87.2  0.0517   60.8  0.2965  -61.7
 1.440  0.2936 -157.0  10.470   86.8  0.0523   60.7  0.2935  -62.0
 1.460  0.2952 -157.8  10.327   86.3  0.0528   60.6  0.2905  -62.3
 1.480  0.2968 -158.6  10.185   85.9  0.0534   60.5  0.2874  -62.7
 1.500  0.2985 -159.4  10.043   85.4  0.0540   60.4  0.2844  -63.0
 1.520  0.2978 -160.2   9.917   85.0  0.0545   60.5  0.2812  -63.2
 1.540  0.2971 -161.0   9.792   84.6  0.0551   60.5  0.2779  -63.4
 1.560  0.2965 -161.8   9.667   84.2  0.0556   60.6  0.2747  -63.6
 1.580  0.2960 -162.6   9.543   83.8  0.0562   60.6  0.2715  -63.9
 1.600  0.2955 -163.4   9.419   83.4  0.0567   60.7  0.2683  -64.1
 1.620  0.2959 -164.2   9.308   83.0  0.0573   60.6  0.2658  -64.7
 1.640  0.2963 -165.0   9.198   82.6  0.0579   60.5  0.2633  -65.3
 1.660  0.2968 -165.8   9.088   82.2  0.0585   60.3  0.2608  -65.9
 1.680  0.2973 -166.6   8.979   81.7  0.0591   60.2  0.2583  -66.5
 1.700  0.2979 -167.4   8.870   81.3  0.0597   60.1  0.2559  -67.1
 1.720  0.2982 -167.9   8.767   81.0  0.0603   60.0  0.2543  -67.5
 1.740  0.2985 -168.5   8.664   80.6  0.0609   60.0  0.2527  -67.8
 1.760  0.2988 -169.0   8.562   80.2  0.0614   59.9  0.2511  -68.2
 1.780  0.2992 -169.6   8.460   79.9  0.0620   59.9  0.2495  -68.5
 1.800  0.2996 -170.1   8.358   79.5  0.0626   59.8  0.2479  -68.9
 1.820  0.3004 -170.6   8.268   79.2  0.0632   59.8  0.2451  -69.1
 1.840  0.3012 -171.1   8.179   78.9  0.0638   59.8  0.2422  -69.2
 1.860  0.3020 -171.5   8.090   78.6  0.0645   59.8  0.2394  -69.4
 1.880  0.3028 -172.0   8.001   78.2  0.0651   59.8  0.2365  -69.5
 1.900  0.3037 -172.5   7.912   77.9  0.0657   59.8  0.2337  -69.7
 1.920  0.3040 -173.3   7.829   77.6  0.0662   59.7  0.2321  -70.3
 1.940  0.3045 -174.2   7.747   77.2  0.0666   59.6  0.2305  -70.8
 1.960  0.3049 -175.0   7.664   76.8  0.0671   59.4  0.2289  -71.4
 1.980  0.3055 -175.9   7.583   76.5  0.0675   59.3  0.2273  -72.0
 2.000  0.3061 -176.7   7.501   76.1  0.0680   59.2  0.2258  -72.6
 2.020  0.3063 -177.0   7.429   75.8  0.0686   59.1  0.2242  -72.8
 2.040  0.3064 -177.4   7.358   75.5  0.0691   59.1  0.2226  -73.1
 2.060  0.3066 -177.7   7.286   75.3  0.0697   59.0  0.2210  -73.3
 2.080  0.3068 -178.0   7.215   75.0  0.0703   58.9  0.2194  -73.6
 2.100  0.3070 -178.4   7.144   74.7  0.0708   58.8  0.2178  -73.9
 2.120  0.3072 -178.7   7.073   74.4  0.0714   58.8  0.2162  -74.1
 2.140  0.3075 -179.0   7.003   74.1  0.0720   58.7  0.2146  -74.4
 2.160  0.3077 -179.3   6.932   73.7  0.0726   58.6  0.2130  -74.6
 2.180  0.3079 -179.7   6.862   73.4  0.0731   58.6  0.2115  -74.9
 2.200  0.3082  180.0   6.792   73.1  0.0737   58.5  0.2099  -75.2
 2.220  0.3087  179.4   6.732   72.8  0.0742   58.4  0.2090  -75.6
 2.240  0.3093  178.8   6.671   72.5  0.0748   58.3  0.2081  -76.1
 2.260  0.3098  178.1   6.611   72.3  0.0753   58.2  0.2072  -76.5
 2.280  0.3105  177.5   6.551   72.0  0.0759   58.2  0.2063  -76.9
 2.300  0.3111  176.9   6.491   71.7  0.0764   58.1  0.2054  -77.4
 2.320  0.3118  176.3   6.432   71.4  0.0770   58.0  0.2046  -77.8
 2.340  0.3125  175.7   6.372   71.1  0.0775   57.9  0.2038  -78.2
 2.360  0.3133  175.1   6.313   70.7  0.0781   57.9  0.2029  -78.7
 2.380  0.3141  174.5   6.254   70.4  0.0786   57.8  0.2021  -79.1
 2.400  0.3149  173.9   6.195   70.1  0.0792   57.7  0.2013  -79.6
 2.420  0.3155  173.6   6.145   69.8  0.0798   57.6  0.1997  -80.0
 2.440  0.3161  173.3   6.094   69.6  0.0804   57.6  0.1981  -80.5
 2.460  0.3167  173.0   6.044   69.3  0.0810   57.5  0.1965  -80.9
 2.480  0.3173  172.8   5.995   69.0  0.0816   57.4  0.1950  -81.4
 2.500  0.3180  172.5   5.945   68.8  0.0822   57.3  0.1934  -81.9
 2.520  0.3186  172.2   5.895   68.5  0.0829   57.3  0.1919  -82.3
 2.540  0.3192  171.9   5.846   68.2  0.0835   57.2  0.1904  -82.8
 2.560  0.3199  171.7   5.796   67.9  0.0841   57.1  0.1889  -83.3
 2.580  0.3205  171.4   5.747   67.6  0.0847   57.1  0.1874  -83.8
 2.600  0.3212  171.1   5.698   67.3  0.0853   57.0  0.1859  -84.3
 2.620  0.3212  170.8   5.655   67.1  0.0859   56.9  0.1853  -84.5
 2.640  0.3212  170.5   5.612   66.8  0.0865   56.8  0.1848  -84.7
 2.660  0.3212  170.1   5.569   66.6  0.0871   56.7  0.1842  -84.9
 2.680  0.3212  169.8   5.526   66.3  0.0877   56.6  0.1836  -85.1
 2.700  0.3212  169.5   5.484   66.1  0.0883   56.5  0.1831  -85.3
 2.720  0.3212  169.2   5.441   65.8  0.0889   56.4  0.1825  -85.5
 2.740  0.3212  168.9   5.399   65.6  0.0895   56.4  0.1820  -85.7
 2.760  0.3213  168.5   5.356   65.3  0.0901   56.3  0.1814  -85.9
 2.780  0.3213  168.2   5.314   65.1  0.0907   56.2  0.1808  -86.1
 2.800  0.3214  167.9   5.272   64.8  0.0913   56.1  0.1803  -86.3
 2.820  0.3216  167.6   5.235   64.5  0.0918   56.0  0.1799  -86.7
 2.840  0.3217  167.3   5.197   64.3  0.0923   55.9  0.1795  -87.0
 2.860  0.3219  167.0   5.160   64.0  0.0928   55.9  0.1791  -87.4
 2.880  0.3221  166.7   5.123   63.8  0.0933   55.8  0.1787  -87.7
 2.900  0.3223  166.4   5.086   63.5  0.0938   55.7  0.1783  -88.1
 2.920  0.3225  166.2   5.049   63.2  0.0944   55.6  0.1779  -88.4
 2.940  0.3227  165.9   5.012   63.0  0.0949   55.5  0.1776  -88.8
 2.960  0.3229  165.6   4.976   62.7  0.0954   55.5  0.1772  -89.2
 2.980  0.3232  165.3   4.939   62.4  0.0959   55.4  0.1768  -89.5
 3.000  0.3234  165.0   4.903   62.1  0.0964   55.3  0.1765  -89.9
 3.100  0.3238  163.7   4.754   61.1  0.0991   54.7  0.1745  -91.2
 3.200  0.3244  162.3   4.606   60.0  0.1019   54.1  0.1726  -92.5
 3.300  0.3252  161.0   4.460   58.8  0.1047   53.5  0.1707  -93.9
 3.400  0.3261  159.7   4.316   57.5  0.1074   53.0  0.1690  -95.3
 3.500  0.3272  158.4   4.174   56.2  0.1102   52.5  0.1674  -96.7
 3.600  0.3273  157.8   4.067   55.2  0.1132   52.0  0.1651  -97.7
 3.700  0.3275  157.2   3.962   54.1  0.1161   51.6  0.1629  -98.8
 3.800  0.3277  156.6   3.857   53.0  0.1191   51.2  0.1608  -99.9
 3.900  0.3279  156.0   3.755   51.8  0.1221   50.8  0.1587 -101.0
 4.000  0.3282  155.4   3.654   50.6  0.1251   50.4  0.1567 -102.1
 4.100  0.3280  154.5   3.570   49.6  0.1279   49.6  0.1546 -103.1
 4.200  0.3279  153.5   3.487   48.6  0.1306   48.8  0.1525 -104.2
 4.300  0.3279  152.6   3.405   47.5  0.1334   48.0  0.1505 -105.3
 4.400  0.3280  151.6   3.325   46.3  0.1363   47.3  0.1485 -106.4
 4.500  0.3282  150.7   3.246   45.1  0.1391   46.6  0.1466 -107.6
 4.600  0.3288  149.9   3.182   44.0  0.1422   45.9  0.1446 -108.5
 4.700  0.3295  149.1   3.120   43.0  0.1454   45.2  0.1426 -109.4
 4.800  0.3303  148.3   3.059   41.8  0.1485   44.6  0.1407 -110.4
 4.900  0.3311  147.5   2.999   40.6  0.1517   44.0  0.1388 -111.4
 5.000  0.3320  146.7   2.940   39.4  0.1549   43.4  0.1370 -112.4
 5.100  0.3297  145.3   2.884   38.4  0.1579   42.5  0.1344 -114.4
 5.200  0.3276  143.8   2.829   37.3  0.1609   41.7  0.1321 -116.4
 5.300  0.3258  142.4   2.775   36.2  0.1639   40.8  0.1299 -118.5
 5.400  0.3241  140.9   2.722   35.0  0.1670   40.1  0.1278 -120.7
 5.500  0.3227  139.4   2.670   33.8  0.1701   39.3  0.1260 -123.0
 5.600  0.3229  138.2   2.627   32.8  0.1731   38.5  0.1232 -124.3
 5.700  0.3232  137.1   2.585   31.7  0.1761   37.7  0.1205 -125.7
 5.800  0.3237  135.9   2.544   30.7  0.1791   37.0  0.1178 -127.1
 5.900  0.3243  134.8   2.503   29.6  0.1821   36.3  0.1152 -128.6
 6.000  0.3250  133.6   2.464   28.4  0.1852   35.6  0.1127 -130.1
!
!  f       NFmin   Gammaopt  rn/50
! GHz       dB    MAG  ANG    -
!
! noise parameter not available yet for this operation point!
!
! (c) 2015  Infineon Technologies AG, Munich
