! Infineon Technologies  Discrete & RF Semiconductors
! BFP540FESD
! VCE =  1.7 V,  IC =  12 mA
! Common Emitter S-Parameters:                            Nov 2015
# GHz  S  MA  R  50
!  f         S11            S21            S12            S22
! GHz     MAG   ANG      MAG   ANG      MAG   ANG      MAG   ANG
 0.010  0.6783   -1.1  31.902  178.1  0.0009  113.7  0.9693   -3.8
 0.015  0.6716   -3.1  31.315  177.7  0.0012   99.3  0.9698   -2.9
 0.020  0.6658   -5.2  30.730  177.2  0.0016   91.3  0.9706   -2.1
 0.025  0.6680   -5.9  30.768  176.5  0.0021   90.9  0.9696   -2.7
 0.030  0.6703   -6.5  30.811  175.9  0.0027   90.6  0.9688   -3.3
 0.035  0.6727   -7.2  30.857  175.2  0.0032   90.5  0.9680   -3.9
 0.040  0.6752   -7.8  30.908  174.5  0.0037   90.4  0.9674   -4.5
 0.045  0.6778   -8.5  30.963  173.9  0.0043   90.3  0.9668   -5.1
 0.050  0.6804   -9.1  31.022  173.2  0.0048   90.2  0.9664   -5.7
 0.055  0.6784  -10.0  30.951  172.5  0.0052   89.2  0.9647   -6.3
 0.060  0.6766  -10.9  30.885  171.8  0.0056   88.3  0.9631   -6.9
 0.065  0.6749  -11.8  30.823  171.2  0.0061   87.6  0.9615   -7.5
 0.070  0.6734  -12.7  30.765  170.5  0.0065   86.9  0.9601   -8.1
 0.075  0.6721  -13.7  30.712  169.8  0.0069   86.4  0.9588   -8.7
 0.080  0.6709  -14.6  30.664  169.1  0.0073   85.8  0.9576   -9.3
 0.085  0.6700  -15.5  30.619  168.4  0.0077   85.4  0.9565   -9.9
 0.090  0.6692  -16.4  30.580  167.7  0.0082   85.0  0.9556  -10.5
 0.095  0.6685  -17.4  30.545  167.0  0.0086   84.6  0.9547  -11.1
 0.100  0.6681  -18.3  30.514  166.3  0.0090   84.3  0.9539  -11.7
 0.105  0.6657  -19.3  30.430  165.7  0.0094   83.1  0.9512  -12.2
 0.110  0.6634  -20.3  30.349  165.0  0.0099   82.1  0.9485  -12.8
 0.115  0.6614  -21.3  30.273  164.4  0.0103   81.1  0.9459  -13.3
 0.120  0.6596  -22.3  30.200  163.7  0.0107   80.2  0.9435  -13.8
 0.125  0.6580  -23.3  30.131  163.1  0.0112   79.3  0.9411  -14.4
 0.130  0.6566  -24.4  30.066  162.4  0.0116   78.6  0.9387  -14.9
 0.135  0.6554  -25.4  30.005  161.8  0.0121   77.9  0.9365  -15.5
 0.140  0.6544  -26.4  29.948  161.1  0.0125   77.2  0.9343  -16.0
 0.145  0.6537  -27.5  29.894  160.5  0.0130   76.6  0.9323  -16.5
 0.150  0.6531  -28.5  29.845  159.8  0.0134   76.0  0.9303  -17.1
 0.155  0.6508  -29.3  29.708  159.2  0.0138   75.8  0.9267  -17.6
 0.160  0.6485  -30.0  29.574  158.5  0.0141   75.7  0.9232  -18.1
 0.165  0.6465  -30.8  29.444  157.9  0.0145   75.5  0.9197  -18.7
 0.170  0.6445  -31.6  29.318  157.3  0.0148   75.4  0.9163  -19.2
 0.175  0.6426  -32.4  29.195  156.6  0.0152   75.3  0.9130  -19.8
 0.180  0.6409  -33.2  29.076  156.0  0.0156   75.1  0.9098  -20.3
 0.185  0.6393  -34.0  28.961  155.3  0.0159   75.0  0.9067  -20.8
 0.190  0.6378  -34.8  28.850  154.6  0.0163   74.9  0.9036  -21.4
 0.195  0.6364  -35.6  28.742  154.0  0.0166   74.8  0.9007  -21.9
 0.200  0.6352  -36.4  28.639  153.3  0.0170   74.7  0.8978  -22.5
 0.220  0.6236  -39.5  28.124  151.2  0.0184   73.5  0.8839  -24.5
 0.240  0.6139  -42.7  27.649  148.9  0.0197   72.5  0.8710  -26.5
 0.260  0.6044  -46.0  27.161  146.7  0.0211   71.6  0.8567  -28.3
 0.280  0.5950  -49.3  26.658  144.5  0.0225   70.6  0.8407  -30.0
 0.300  0.5877  -52.7  26.196  142.2  0.0239   69.7  0.8255  -31.8
 0.320  0.5759  -55.3  25.609  140.5  0.0250   68.4  0.8089  -33.2
 0.340  0.5654  -58.1  25.046  138.6  0.0261   67.1  0.7928  -34.7
 0.360  0.5563  -60.9  24.510  136.7  0.0272   66.0  0.7773  -36.3
 0.380  0.5485  -63.9  24.001  134.8  0.0283   65.0  0.7624  -37.9
 0.400  0.5423  -66.9  23.523  132.7  0.0294   64.0  0.7481  -39.6
 0.420  0.5319  -69.3  23.003  131.3  0.0302   63.2  0.7322  -40.8
 0.440  0.5224  -71.7  22.499  129.7  0.0311   62.4  0.7166  -42.0
 0.450  0.5180  -73.0  22.253  129.0  0.0315   62.1  0.7089  -42.6
 0.460  0.5139  -74.3  22.011  128.2  0.0320   61.7  0.7013  -43.3
 0.480  0.5064  -76.9  21.540  126.5  0.0328   61.0  0.6864  -44.6
 0.500  0.5001  -79.6  21.088  124.8  0.0337   60.4  0.6719  -46.0
 0.520  0.4919  -81.7  20.607  123.6  0.0343   60.1  0.6585  -46.9
 0.540  0.4843  -83.8  20.136  122.3  0.0349   59.8  0.6452  -47.9
 0.560  0.4775  -86.1  19.675  121.0  0.0356   59.5  0.6321  -48.9
 0.580  0.4713  -88.4  19.225  119.6  0.0362   59.2  0.6193  -49.9
 0.600  0.4660  -90.7  18.786  118.2  0.0368   58.9  0.6066  -51.0
 0.620  0.4596  -92.5  18.406  117.2  0.0376   58.5  0.5955  -51.8
 0.640  0.4536  -94.4  18.032  116.2  0.0384   58.1  0.5846  -52.6
 0.660  0.4482  -96.3  17.664  115.1  0.0392   57.7  0.5738  -53.5
 0.680  0.4433  -98.3  17.303  114.0  0.0400   57.3  0.5631  -54.4
 0.700  0.4389 -100.3  16.948  112.8  0.0408   57.0  0.5526  -55.3
 0.720  0.4337 -102.2  16.611  111.9  0.0414   56.8  0.5422  -56.1
 0.740  0.4291 -104.2  16.278  110.9  0.0420   56.6  0.5319  -57.0
 0.760  0.4249 -106.2  15.950  109.9  0.0425   56.4  0.5217  -57.8
 0.780  0.4213 -108.3  15.627  108.9  0.0431   56.3  0.5116  -58.8
 0.800  0.4183 -110.4  15.309  107.8  0.0437   56.1  0.5017  -59.7
 0.820  0.4143 -111.9  15.023  107.0  0.0443   56.0  0.4933  -60.3
 0.840  0.4107 -113.4  14.740  106.3  0.0449   55.8  0.4849  -60.8
 0.860  0.4073 -114.9  14.460  105.4  0.0454   55.7  0.4766  -61.4
 0.880  0.4042 -116.5  14.183  104.6  0.0460   55.5  0.4683  -62.1
 0.900  0.4014 -118.1  13.909  103.7  0.0466   55.4  0.4601  -62.7
 0.920  0.3986 -119.5  13.667  103.0  0.0472   55.2  0.4529  -63.3
 0.940  0.3960 -120.8  13.426  102.3  0.0479   55.0  0.4458  -63.8
 0.960  0.3936 -122.3  13.187  101.6  0.0485   54.8  0.4387  -64.4
 0.980  0.3915 -123.7  12.951  100.9  0.0492   54.7  0.4317  -65.1
 1.000  0.3896 -125.1  12.717  100.1  0.0498   54.5  0.4247  -65.7
 1.020  0.3879 -126.4  12.511   99.5  0.0504   54.4  0.4186  -66.4
 1.040  0.3864 -127.8  12.306   98.8  0.0509   54.3  0.4125  -67.1
 1.060  0.3851 -129.1  12.103   98.1  0.0515   54.1  0.4065  -67.8
 1.080  0.3841 -130.4  11.901   97.4  0.0520   54.0  0.4006  -68.5
 1.100  0.3832 -131.8  11.702   96.7  0.0526   53.9  0.3947  -69.3
 1.120  0.3815 -133.1  11.519   96.1  0.0531   53.8  0.3891  -69.8
 1.140  0.3800 -134.4  11.336   95.6  0.0536   53.7  0.3835  -70.2
 1.160  0.3787 -135.7  11.155   95.0  0.0540   53.7  0.3779  -70.7
 1.180  0.3776 -137.1  10.975   94.3  0.0545   53.6  0.3724  -71.2
 1.200  0.3767 -138.4  10.797   93.7  0.0550   53.5  0.3669  -71.7
 1.220  0.3755 -139.3  10.642   93.2  0.0556   53.6  0.3617  -72.1
 1.240  0.3744 -140.1  10.487   92.7  0.0561   53.7  0.3565  -72.4
 1.260  0.3734 -141.0  10.333   92.2  0.0567   53.7  0.3514  -72.8
 1.280  0.3724 -141.9  10.180   91.7  0.0572   53.8  0.3462  -73.2
 1.300  0.3716 -142.8  10.028   91.1  0.0578   53.9  0.3411  -73.6
 1.320  0.3711 -143.9   9.891   90.6  0.0584   53.8  0.3368  -74.3
 1.340  0.3707 -145.0   9.755   90.1  0.0590   53.8  0.3326  -75.1
 1.360  0.3705 -146.0   9.620   89.5  0.0596   53.7  0.3285  -75.9
 1.380  0.3704 -147.1   9.486   89.0  0.0602   53.7  0.3244  -76.7
 1.400  0.3704 -148.2   9.353   88.4  0.0608   53.6  0.3204  -77.5
 1.420  0.3709 -149.1   9.227   87.9  0.0612   53.6  0.3168  -77.9
 1.440  0.3714 -150.1   9.101   87.5  0.0617   53.6  0.3132  -78.4
 1.460  0.3721 -151.0   8.975   87.0  0.0621   53.6  0.3097  -78.8
 1.480  0.3728 -152.0   8.851   86.5  0.0626   53.6  0.3061  -79.3
 1.500  0.3737 -152.9   8.727   86.0  0.0630   53.6  0.3026  -79.8
 1.520  0.3724 -153.7   8.619   85.6  0.0636   53.5  0.2985  -80.2
 1.540  0.3712 -154.5   8.510   85.2  0.0642   53.5  0.2945  -80.6
 1.560  0.3701 -155.3   8.403   84.8  0.0648   53.4  0.2905  -81.1
 1.580  0.3690 -156.2   8.296   84.3  0.0654   53.4  0.2865  -81.5
 1.600  0.3680 -157.0   8.189   83.9  0.0660   53.3  0.2825  -82.0
 1.620  0.3680 -157.8   8.092   83.5  0.0665   53.3  0.2798  -82.7
 1.640  0.3682 -158.7   7.996   83.1  0.0669   53.2  0.2771  -83.5
 1.660  0.3684 -159.5   7.900   82.6  0.0674   53.2  0.2745  -84.2
 1.680  0.3686 -160.4   7.805   82.2  0.0678   53.1  0.2719  -85.0
 1.700  0.3690 -161.2   7.710   81.7  0.0683   53.1  0.2694  -85.8
 1.720  0.3691 -161.8   7.620   81.3  0.0689   53.0  0.2675  -86.3
 1.740  0.3693 -162.4   7.531   80.9  0.0695   53.0  0.2657  -86.7
 1.760  0.3695 -163.1   7.442   80.5  0.0700   52.9  0.2638  -87.2
 1.780  0.3697 -163.7   7.353   80.1  0.0706   52.9  0.2620  -87.7
 1.800  0.3700 -164.3   7.265   79.7  0.0712   52.8  0.2602  -88.2
 1.820  0.3705 -164.9   7.187   79.4  0.0717   52.8  0.2569  -88.6
 1.840  0.3711 -165.4   7.110   79.0  0.0722   52.7  0.2536  -88.9
 1.860  0.3718 -166.0   7.033   78.7  0.0726   52.7  0.2503  -89.3
 1.880  0.3724 -166.5   6.956   78.4  0.0731   52.6  0.2470  -89.7
 1.900  0.3731 -167.1   6.879   78.0  0.0736   52.6  0.2437  -90.1
 1.920  0.3728 -167.9   6.807   77.6  0.0741   52.5  0.2421  -90.7
 1.940  0.3727 -168.8   6.735   77.3  0.0747   52.5  0.2406  -91.4
 1.960  0.3726 -169.6   6.663   76.9  0.0752   52.4  0.2391  -92.1
 1.980  0.3725 -170.5   6.591   76.5  0.0758   52.4  0.2376  -92.7
 2.000  0.3726 -171.3   6.520   76.1  0.0763   52.3  0.2362  -93.4
 2.020  0.3726 -171.7   6.458   75.8  0.0769   52.3  0.2343  -93.8
 2.040  0.3726 -172.1   6.396   75.5  0.0775   52.2  0.2325  -94.2
 2.060  0.3726 -172.5   6.334   75.2  0.0780   52.2  0.2307  -94.6
 2.080  0.3726 -172.9   6.273   74.9  0.0786   52.2  0.2289  -95.0
 2.100  0.3726 -173.3   6.211   74.6  0.0792   52.1  0.2271  -95.4
 2.120  0.3727 -173.7   6.150   74.3  0.0798   52.1  0.2253  -95.8
 2.140  0.3728 -174.1   6.089   74.0  0.0804   52.1  0.2235  -96.2
 2.160  0.3729 -174.5   6.028   73.7  0.0809   52.1  0.2217  -96.6
 2.180  0.3730 -174.9   5.967   73.3  0.0815   52.0  0.2199  -97.1
 2.200  0.3731 -175.3   5.907   73.0  0.0821   52.0  0.2182  -97.5
 2.220  0.3734 -175.9   5.854   72.7  0.0826   51.9  0.2173  -98.0
 2.240  0.3737 -176.6   5.801   72.4  0.0831   51.9  0.2165  -98.5
 2.260  0.3741 -177.2   5.748   72.1  0.0836   51.8  0.2156  -99.0
 2.280  0.3745 -177.8   5.695   71.8  0.0841   51.8  0.2148  -99.5
 2.300  0.3750 -178.4   5.643   71.5  0.0846   51.7  0.2140 -100.0
 2.320  0.3755 -179.0   5.590   71.2  0.0852   51.6  0.2132 -100.5
 2.340  0.3761 -179.7   5.538   70.8  0.0857   51.6  0.2124 -101.0
 2.360  0.3767  179.7   5.486   70.5  0.0862   51.5  0.2117 -101.5
 2.380  0.3773  179.1   5.435   70.1  0.0867   51.5  0.2109 -102.0
 2.400  0.3780  178.5   5.383   69.8  0.0872   51.4  0.2102 -102.5
 2.420  0.3784  178.2   5.339   69.5  0.0877   51.4  0.2087 -103.1
 2.440  0.3787  177.9   5.296   69.3  0.0883   51.3  0.2073 -103.7
 2.460  0.3791  177.6   5.252   69.0  0.0888   51.3  0.2058 -104.3
 2.480  0.3795  177.3   5.209   68.7  0.0894   51.2  0.2044 -105.0
 2.500  0.3799  177.0   5.166   68.5  0.0899   51.2  0.2030 -105.6
 2.520  0.3803  176.7   5.123   68.2  0.0904   51.2  0.2017 -106.2
 2.540  0.3807  176.4   5.080   67.9  0.0910   51.1  0.2003 -106.9
 2.560  0.3811  176.1   5.037   67.6  0.0915   51.1  0.1990 -107.6
 2.580  0.3816  175.8   4.995   67.3  0.0921   51.0  0.1978 -108.2
 2.600  0.3820  175.5   4.952   67.0  0.0926   51.0  0.1965 -108.9
 2.620  0.3819  175.1   4.915   66.7  0.0932   50.9  0.1958 -109.2
 2.640  0.3819  174.7   4.878   66.5  0.0939   50.9  0.1952 -109.4
 2.660  0.3818  174.3   4.841   66.2  0.0945   50.8  0.1945 -109.7
 2.680  0.3818  173.9   4.804   66.0  0.0951   50.7  0.1938 -110.0
 2.700  0.3818  173.5   4.768   65.7  0.0957   50.6  0.1932 -110.2
 2.720  0.3818  173.2   4.731   65.4  0.0964   50.6  0.1925 -110.5
 2.740  0.3819  172.8   4.695   65.2  0.0970   50.5  0.1919 -110.8
 2.760  0.3819  172.4   4.658   64.9  0.0976   50.4  0.1913 -111.0
 2.780  0.3820  172.0   4.622   64.6  0.0983   50.4  0.1906 -111.3
 2.800  0.3821  171.6   4.586   64.3  0.0989   50.3  0.1900 -111.6
 2.820  0.3822  171.3   4.554   64.0  0.0994   50.3  0.1896 -112.0
 2.840  0.3824  171.0   4.521   63.8  0.0999   50.2  0.1893 -112.3
 2.860  0.3825  170.7   4.489   63.5  0.1003   50.2  0.1889 -112.7
 2.880  0.3827  170.4   4.457   63.2  0.1008   50.1  0.1886 -113.1
 2.900  0.3828  170.1   4.425   63.0  0.1013   50.1  0.1882 -113.5
 2.920  0.3830  169.8   4.393   62.7  0.1018   50.1  0.1879 -113.9
 2.940  0.3832  169.5   4.362   62.4  0.1023   50.0  0.1876 -114.2
 2.960  0.3834  169.2   4.330   62.1  0.1027   50.0  0.1873 -114.6
 2.980  0.3836  168.9   4.298   61.8  0.1032   49.9  0.1870 -115.0
 3.000  0.3838  168.6   4.267   61.5  0.1037   49.9  0.1867 -115.4
 3.100  0.3836  167.2   4.138   60.4  0.1065   49.3  0.1846 -116.9
 3.200  0.3836  165.7   4.010   59.3  0.1092   48.8  0.1827 -118.5
 3.300  0.3839  164.3   3.884   58.1  0.1120   48.3  0.1809 -120.0
 3.400  0.3844  162.8   3.760   56.8  0.1148   47.9  0.1793 -121.7
 3.500  0.3852  161.4   3.638   55.4  0.1176   47.4  0.1778 -123.3
 3.600  0.3856  160.6   3.547   54.4  0.1207   47.0  0.1754 -124.7
 3.700  0.3861  159.8   3.456   53.3  0.1237   46.7  0.1730 -126.1
 3.800  0.3866  159.0   3.367   52.1  0.1268   46.4  0.1708 -127.5
 3.900  0.3872  158.2   3.280   50.9  0.1299   46.1  0.1687 -129.0
 4.000  0.3879  157.4   3.194   49.6  0.1330   45.8  0.1667 -130.5
 4.100  0.3875  156.4   3.121   48.6  0.1359   45.0  0.1645 -131.9
 4.200  0.3872  155.3   3.050   47.5  0.1388   44.2  0.1624 -133.3
 4.300  0.3871  154.3   2.980   46.3  0.1417   43.5  0.1604 -134.8
 4.400  0.3871  153.2   2.911   45.1  0.1446   42.8  0.1586 -136.3
 4.500  0.3872  152.2   2.843   43.9  0.1476   42.1  0.1568 -137.8
 4.600  0.3881  151.2   2.788   42.8  0.1507   41.5  0.1547 -139.1
 4.700  0.3890  150.3   2.734   41.7  0.1537   40.8  0.1527 -140.5
 4.800  0.3901  149.3   2.682   40.5  0.1568   40.2  0.1507 -141.8
 4.900  0.3913  148.3   2.630   39.3  0.1600   39.7  0.1489 -143.2
 5.000  0.3926  147.4   2.580   38.0  0.1631   39.1  0.1471 -144.7
 5.100  0.3899  145.9   2.532   36.9  0.1662   38.3  0.1456 -147.0
 5.200  0.3875  144.5   2.484   35.8  0.1693   37.5  0.1444 -149.4
 5.300  0.3853  142.9   2.438   34.6  0.1724   36.7  0.1435 -151.7
 5.400  0.3834  141.4   2.392   33.4  0.1756   36.0  0.1428 -154.2
 5.500  0.3818  139.9   2.348   32.1  0.1788   35.3  0.1423 -156.6
 5.600  0.3819  138.7   2.311   31.0  0.1818   34.5  0.1404 -158.5
 5.700  0.3822  137.5   2.275   30.0  0.1849   33.8  0.1387 -160.4
 5.800  0.3827  136.2   2.240   28.8  0.1880   33.1  0.1371 -162.4
 5.900  0.3833  135.0   2.206   27.7  0.1911   32.4  0.1357 -164.4
 6.000  0.3841  133.8   2.173   26.5  0.1942   31.7  0.1345 -166.5
!
!  f       NFmin   Gammaopt  rn/50
! GHz       dB    MAG  ANG    -
!
! noise parameter not available yet for this operation point!
!
! (c) 2015  Infineon Technologies AG, Munich
