! Infineon Technologies  Discrete & RF Semiconductors
! BFP540FESD
! VCE =  1.5 V,  IC =  15 mA
! Common Emitter S-Parameters:                            Nov 2015
# GHz  S  MA  R  50
!  f         S11            S21            S12            S22
! GHz     MAG   ANG      MAG   ANG      MAG   ANG      MAG   ANG
 0.010  0.6171   -1.4  36.724  178.0  0.0009  101.8  0.9584   -3.8
 0.015  0.6117   -3.5  36.087  177.5  0.0011  103.8  0.9609   -3.1
 0.020  0.6071   -5.7  35.453  177.0  0.0014  105.1  0.9635   -2.4
 0.025  0.6087   -6.6  35.477  176.2  0.0019   97.5  0.9619   -3.1
 0.030  0.6105   -7.4  35.507  175.5  0.0024   93.0  0.9604   -3.8
 0.035  0.6124   -8.3  35.543  174.7  0.0029   90.0  0.9590   -4.5
 0.040  0.6145   -9.1  35.586  173.9  0.0034   88.0  0.9578   -5.2
 0.045  0.6167  -10.0  35.635  173.2  0.0039   86.5  0.9567   -5.9
 0.050  0.6190  -10.8  35.690  172.4  0.0044   85.3  0.9558   -6.6
 0.055  0.6165  -11.8  35.576  171.6  0.0048   84.6  0.9536   -7.3
 0.060  0.6141  -12.9  35.467  170.9  0.0053   83.9  0.9515   -7.9
 0.065  0.6120  -13.9  35.366  170.1  0.0057   83.4  0.9495   -8.6
 0.070  0.6101  -15.0  35.270  169.3  0.0062   83.0  0.9477   -9.3
 0.075  0.6083  -16.0  35.181  168.5  0.0066   82.6  0.9460  -10.0
 0.080  0.6068  -17.1  35.099  167.8  0.0070   82.2  0.9445  -10.7
 0.085  0.6055  -18.2  35.023  167.0  0.0075   81.9  0.9431  -11.3
 0.090  0.6044  -19.2  34.954  166.2  0.0079   81.7  0.9418  -12.0
 0.095  0.6036  -20.3  34.892  165.4  0.0084   81.4  0.9406  -12.7
 0.100  0.6029  -21.4  34.836  164.6  0.0088   81.2  0.9396  -13.4
 0.105  0.6003  -22.5  34.720  163.9  0.0092   80.7  0.9362  -14.0
 0.110  0.5980  -23.6  34.610  163.2  0.0096   80.1  0.9329  -14.6
 0.115  0.5958  -24.8  34.504  162.5  0.0099   79.7  0.9297  -15.3
 0.120  0.5940  -25.9  34.404  161.8  0.0103   79.2  0.9266  -15.9
 0.125  0.5923  -27.1  34.310  161.0  0.0107   78.8  0.9236  -16.5
 0.130  0.5909  -28.2  34.221  160.3  0.0111   78.5  0.9208  -17.2
 0.135  0.5897  -29.4  34.137  159.6  0.0115   78.1  0.9180  -17.8
 0.140  0.5888  -30.6  34.059  158.9  0.0118   77.8  0.9154  -18.5
 0.145  0.5881  -31.7  33.986  158.1  0.0122   77.5  0.9129  -19.1
 0.150  0.5877  -32.9  33.919  157.4  0.0126   77.2  0.9105  -19.8
 0.155  0.5851  -33.8  33.730  156.7  0.0130   76.9  0.9060  -20.4
 0.160  0.5826  -34.6  33.545  156.1  0.0133   76.5  0.9017  -21.0
 0.165  0.5802  -35.5  33.365  155.4  0.0137   76.2  0.8974  -21.5
 0.170  0.5780  -36.4  33.189  154.7  0.0140   75.9  0.8932  -22.1
 0.175  0.5759  -37.3  33.019  154.0  0.0144   75.6  0.8891  -22.7
 0.180  0.5739  -38.2  32.853  153.3  0.0148   75.4  0.8851  -23.3
 0.185  0.5721  -39.1  32.693  152.6  0.0151   75.1  0.8813  -23.9
 0.190  0.5704  -40.0  32.537  151.9  0.0155   74.9  0.8775  -24.6
 0.195  0.5689  -40.9  32.387  151.1  0.0158   74.6  0.8738  -25.2
 0.200  0.5675  -41.8  32.242  150.4  0.0162   74.4  0.8702  -25.8
 0.220  0.5569  -45.4  31.528  148.0  0.0176   73.2  0.8533  -27.9
 0.240  0.5485  -49.1  30.870  145.6  0.0191   72.2  0.8377  -30.2
 0.260  0.5392  -52.8  30.201  143.2  0.0204   71.0  0.8209  -32.2
 0.280  0.5290  -56.5  29.512  140.9  0.0217   69.6  0.8025  -34.1
 0.300  0.5211  -60.4  28.872  138.5  0.0230   68.3  0.7850  -36.0
 0.320  0.5099  -63.2  28.123  136.8  0.0240   67.3  0.7666  -37.5
 0.340  0.5000  -66.1  27.401  134.9  0.0250   66.3  0.7488  -39.1
 0.360  0.4914  -69.2  26.708  133.0  0.0260   65.4  0.7315  -40.7
 0.380  0.4843  -72.3  26.048  130.9  0.0270   64.6  0.7149  -42.4
 0.400  0.4786  -75.5  25.423  128.8  0.0280   63.8  0.6989  -44.2
 0.420  0.4693  -78.1  24.792  127.4  0.0288   63.2  0.6822  -45.4
 0.440  0.4610  -80.7  24.177  125.9  0.0295   62.7  0.6658  -46.7
 0.450  0.4572  -82.1  23.875  125.1  0.0299   62.4  0.6577  -47.4
 0.460  0.4537  -83.5  23.579  124.3  0.0303   62.2  0.6498  -48.1
 0.480  0.4475  -86.3  23.000  122.6  0.0310   61.7  0.6341  -49.5
 0.500  0.4424  -89.2  22.441  120.9  0.0318   61.2  0.6189  -51.0
 0.520  0.4359  -91.4  21.885  119.8  0.0326   60.8  0.6051  -51.9
 0.540  0.4300  -93.6  21.338  118.6  0.0334   60.4  0.5916  -52.9
 0.560  0.4248  -95.9  20.800  117.3  0.0342   60.0  0.5781  -53.9
 0.580  0.4203  -98.2  20.273  116.0  0.0350   59.6  0.5649  -55.0
 0.600  0.4165 -100.6  19.758  114.6  0.0358   59.3  0.5519  -56.1
 0.620  0.4113 -102.4  19.327  113.7  0.0364   59.0  0.5412  -56.9
 0.640  0.4065 -104.3  18.902  112.7  0.0370   58.6  0.5306  -57.8
 0.660  0.4021 -106.2  18.482  111.6  0.0377   58.3  0.5201  -58.6
 0.680  0.3982 -108.2  18.069  110.5  0.0383   58.0  0.5097  -59.5
 0.700  0.3948 -110.2  17.663  109.4  0.0389   57.7  0.4995  -60.5
 0.720  0.3911 -112.1  17.292  108.5  0.0396   57.6  0.4894  -61.3
 0.740  0.3878 -114.1  16.925  107.6  0.0403   57.5  0.4794  -62.2
 0.760  0.3850 -116.1  16.562  106.7  0.0410   57.4  0.4695  -63.1
 0.780  0.3826 -118.1  16.204  105.7  0.0417   57.3  0.4597  -64.0
 0.800  0.3808 -120.2  15.851  104.7  0.0424   57.2  0.4501  -65.0
 0.820  0.3780 -121.7  15.539  104.0  0.0429   57.2  0.4421  -65.6
 0.840  0.3755 -123.2  15.229  103.2  0.0434   57.2  0.4341  -66.2
 0.860  0.3732 -124.7  14.922  102.5  0.0439   57.1  0.4262  -66.8
 0.880  0.3711 -126.2  14.617  101.6  0.0444   57.1  0.4184  -67.5
 0.900  0.3694 -127.8  14.316  100.8  0.0449   57.1  0.4106  -68.2
 0.920  0.3672 -129.1  14.057  100.2  0.0454   57.1  0.4039  -68.8
 0.940  0.3653 -130.4  13.801   99.5  0.0459   57.1  0.3973  -69.4
 0.960  0.3635 -131.7  13.546   98.8  0.0464   57.0  0.3907  -70.1
 0.980  0.3619 -133.0  13.293   98.1  0.0469   57.0  0.3841  -70.7
 1.000  0.3605 -134.3  13.043   97.3  0.0474   57.0  0.3776  -71.4
 1.020  0.3600 -135.7  12.822   96.7  0.0481   56.9  0.3720  -72.1
 1.040  0.3597 -137.0  12.603   96.1  0.0488   56.7  0.3664  -72.9
 1.060  0.3597 -138.4  12.385   95.5  0.0494   56.6  0.3609  -73.6
 1.080  0.3598 -139.7  12.169   94.9  0.0501   56.5  0.3555  -74.4
 1.100  0.3601 -141.1  11.954   94.2  0.0508   56.4  0.3501  -75.2
 1.120  0.3594 -142.3  11.763   93.7  0.0514   56.4  0.3450  -75.7
 1.140  0.3588 -143.5  11.573   93.1  0.0519   56.4  0.3399  -76.3
 1.160  0.3584 -144.8  11.384   92.6  0.0525   56.3  0.3348  -76.8
 1.180  0.3581 -146.0  11.196   92.0  0.0530   56.3  0.3298  -77.4
 1.200  0.3580 -147.2  11.009   91.4  0.0536   56.3  0.3248  -78.0
 1.220  0.3570 -148.0  10.846   90.9  0.0543   56.3  0.3200  -78.4
 1.240  0.3561 -148.7  10.683   90.4  0.0549   56.3  0.3152  -78.8
 1.260  0.3553 -149.5  10.522   89.9  0.0556   56.4  0.3105  -79.3
 1.280  0.3545 -150.3  10.361   89.4  0.0562   56.4  0.3057  -79.7
 1.300  0.3538 -151.1  10.201   88.9  0.0569   56.4  0.3010  -80.2
 1.320  0.3539 -152.1  10.060   88.4  0.0575   56.3  0.2973  -81.0
 1.340  0.3541 -153.1   9.919   87.9  0.0580   56.2  0.2937  -81.8
 1.360  0.3544 -154.1   9.779   87.4  0.0586   56.2  0.2902  -82.7
 1.380  0.3549 -155.1   9.639   86.9  0.0591   56.1  0.2867  -83.5
 1.400  0.3554 -156.1   9.501   86.4  0.0597   56.0  0.2833  -84.4
 1.420  0.3566 -157.0   9.371   86.0  0.0603   56.0  0.2800  -84.9
 1.440  0.3579 -157.8   9.241   85.5  0.0608   56.0  0.2768  -85.5
 1.460  0.3593 -158.6   9.112   85.1  0.0614   56.0  0.2736  -86.0
 1.480  0.3608 -159.5   8.983   84.6  0.0619   56.0  0.2704  -86.6
 1.500  0.3623 -160.3   8.855   84.1  0.0625   56.0  0.2673  -87.2
 1.520  0.3615 -161.0   8.743   83.7  0.0630   55.9  0.2635  -87.7
 1.540  0.3607 -161.7   8.631   83.3  0.0636   55.9  0.2597  -88.3
 1.560  0.3600 -162.5   8.520   82.9  0.0641   55.8  0.2560  -88.8
 1.580  0.3593 -163.2   8.409   82.5  0.0647   55.8  0.2523  -89.4
 1.600  0.3587 -163.9   8.298   82.1  0.0652   55.7  0.2486  -90.0
 1.620  0.3591 -164.7   8.199   81.7  0.0658   55.7  0.2465  -90.8
 1.640  0.3595 -165.5   8.100   81.3  0.0664   55.7  0.2445  -91.6
 1.660  0.3600 -166.3   8.002   80.9  0.0670   55.7  0.2425  -92.5
 1.680  0.3606 -167.1   7.904   80.4  0.0676   55.7  0.2406  -93.3
 1.700  0.3613 -167.9   7.807   80.0  0.0682   55.7  0.2387  -94.2
 1.720  0.3614 -168.5   7.715   79.7  0.0688   55.6  0.2373  -94.7
 1.740  0.3615 -169.0   7.624   79.3  0.0695   55.5  0.2360  -95.2
 1.760  0.3616 -169.6   7.533   78.9  0.0701   55.5  0.2347  -95.7
 1.780  0.3618 -170.1   7.442   78.6  0.0708   55.4  0.2334  -96.3
 1.800  0.3620 -170.7   7.352   78.2  0.0714   55.3  0.2321  -96.8
 1.820  0.3628 -171.2   7.272   77.9  0.0720   55.4  0.2289  -97.3
 1.840  0.3636 -171.7   7.192   77.5  0.0726   55.4  0.2257  -97.7
 1.860  0.3645 -172.1   7.113   77.2  0.0732   55.5  0.2225  -98.2
 1.880  0.3654 -172.6   7.034   76.9  0.0738   55.5  0.2193  -98.7
 1.900  0.3663 -173.1   6.955   76.5  0.0744   55.6  0.2162  -99.2
 1.920  0.3663 -173.9   6.881   76.2  0.0749   55.4  0.2152  -99.9
 1.940  0.3665 -174.7   6.807   75.8  0.0755   55.3  0.2142 -100.7
 1.960  0.3666 -175.4   6.733   75.4  0.0760   55.1  0.2132 -101.5
 1.980  0.3669 -176.2   6.659   75.1  0.0766   55.0  0.2123 -102.2
 2.000  0.3672 -177.0   6.586   74.7  0.0771   54.8  0.2114 -103.0
 2.020  0.3672 -177.4   6.523   74.4  0.0777   54.7  0.2098 -103.4
 2.040  0.3672 -177.7   6.460   74.1  0.0783   54.7  0.2083 -103.9
 2.060  0.3672 -178.1   6.398   73.9  0.0790   54.6  0.2068 -104.4
 2.080  0.3672 -178.4   6.335   73.6  0.0796   54.5  0.2052 -104.8
 2.100  0.3673 -178.8   6.273   73.3  0.0802   54.5  0.2037 -105.3
 2.120  0.3673 -179.1   6.211   73.0  0.0808   54.4  0.2022 -105.8
 2.140  0.3674 -179.5   6.149   72.7  0.0814   54.4  0.2007 -106.3
 2.160  0.3675 -179.8   6.087   72.3  0.0821   54.3  0.1993 -106.8
 2.180  0.3676  179.8   6.025   72.0  0.0827   54.3  0.1978 -107.3
 2.200  0.3677  179.5   5.964   71.7  0.0833   54.2  0.1964 -107.8
 2.220  0.3681  178.9   5.910   71.4  0.0838   54.1  0.1959 -108.3
 2.240  0.3685  178.3   5.856   71.2  0.0843   54.1  0.1953 -108.9
 2.260  0.3690  177.8   5.803   70.9  0.0848   54.0  0.1948 -109.5
 2.280  0.3695  177.2   5.749   70.6  0.0853   54.0  0.1943 -110.0
 2.300  0.3700  176.6   5.696   70.3  0.0858   53.9  0.1939 -110.6
 2.320  0.3706  176.1   5.643   70.0  0.0864   53.9  0.1934 -111.1
 2.340  0.3712  175.5   5.590   69.7  0.0869   53.8  0.1930 -111.7
 2.360  0.3718  174.9   5.537   69.4  0.0874   53.8  0.1926 -112.3
 2.380  0.3725  174.4   5.485   69.1  0.0879   53.7  0.1922 -112.8
 2.400  0.3732  173.8   5.432   68.8  0.0884   53.7  0.1918 -113.4
 2.420  0.3737  173.5   5.388   68.5  0.0890   53.6  0.1907 -114.1
 2.440  0.3743  173.3   5.344   68.3  0.0896   53.6  0.1897 -114.8
 2.460  0.3748  173.0   5.300   68.0  0.0902   53.5  0.1886 -115.5
 2.480  0.3754  172.7   5.256   67.7  0.0908   53.4  0.1876 -116.2
 2.500  0.3759  172.4   5.212   67.5  0.0914   53.3  0.1866 -116.9
 2.520  0.3765  172.2   5.169   67.2  0.0921   53.3  0.1857 -117.6
 2.540  0.3771  171.9   5.125   66.9  0.0927   53.2  0.1848 -118.3
 2.560  0.3777  171.6   5.082   66.6  0.0933   53.1  0.1839 -119.0
 2.580  0.3783  171.4   5.039   66.3  0.0939   53.1  0.1830 -119.8
 2.600  0.3789  171.1   4.996   66.0  0.0945   53.0  0.1822 -120.5
 2.620  0.3788  170.8   4.958   65.8  0.0952   52.9  0.1816 -120.8
 2.640  0.3787  170.4   4.921   65.5  0.0958   52.9  0.1811 -121.1
 2.660  0.3786  170.1   4.884   65.3  0.0965   52.8  0.1805 -121.4
 2.680  0.3786  169.8   4.846   65.0  0.0972   52.7  0.1799 -121.6
 2.700  0.3785  169.5   4.809   64.8  0.0978   52.6  0.1794 -121.9
 2.720  0.3785  169.1   4.772   64.5  0.0985   52.6  0.1788 -122.2
 2.740  0.3785  168.8   4.735   64.2  0.0992   52.5  0.1783 -122.5
 2.760  0.3785  168.5   4.698   64.0  0.0999   52.4  0.1778 -122.8
 2.780  0.3785  168.1   4.662   63.7  0.1005   52.4  0.1772 -123.1
 2.800  0.3785  167.8   4.625   63.4  0.1012   52.3  0.1767 -123.4
 2.820  0.3786  167.5   4.593   63.1  0.1017   52.2  0.1766 -123.8
 2.840  0.3788  167.2   4.560   62.9  0.1023   52.2  0.1765 -124.2
 2.860  0.3790  166.9   4.528   62.6  0.1028   52.1  0.1764 -124.6
 2.880  0.3791  166.6   4.496   62.4  0.1034   52.0  0.1763 -125.0
 2.900  0.3793  166.3   4.464   62.1  0.1039   51.9  0.1762 -125.4
 2.920  0.3795  166.1   4.432   61.8  0.1044   51.9  0.1761 -125.9
 2.940  0.3797  165.8   4.400   61.6  0.1050   51.8  0.1760 -126.3
 2.960  0.3799  165.5   4.368   61.3  0.1055   51.7  0.1760 -126.7
 2.980  0.3802  165.2   4.337   61.0  0.1061   51.7  0.1759 -127.1
 3.000  0.3804  164.9   4.305   60.7  0.1066   51.6  0.1759 -127.5
 3.100  0.3803  163.6   4.175   59.7  0.1096   51.0  0.1745 -129.1
 3.200  0.3804  162.3   4.046   58.6  0.1126   50.3  0.1732 -130.8
 3.300  0.3807  160.9   3.918   57.4  0.1156   49.8  0.1721 -132.4
 3.400  0.3812  159.6   3.793   56.1  0.1186   49.2  0.1711 -134.1
 3.500  0.3819  158.3   3.669   54.8  0.1216   48.7  0.1703 -135.8
 3.600  0.3824  157.6   3.577   53.8  0.1248   48.3  0.1684 -137.3
 3.700  0.3829  156.9   3.485   52.7  0.1280   47.9  0.1665 -138.8
 3.800  0.3835  156.1   3.395   51.6  0.1312   47.5  0.1648 -140.3
 3.900  0.3841  155.4   3.307   50.4  0.1345   47.1  0.1633 -141.9
 4.000  0.3848  154.7   3.220   49.1  0.1377   46.8  0.1618 -143.5
 4.100  0.3843  153.7   3.147   48.1  0.1407   46.0  0.1600 -145.0
 4.200  0.3839  152.7   3.074   47.0  0.1437   45.2  0.1584 -146.5
 4.300  0.3836  151.7   3.003   45.8  0.1467   44.4  0.1568 -148.1
 4.400  0.3834  150.7   2.934   44.6  0.1497   43.7  0.1554 -149.7
 4.500  0.3834  149.7   2.865   43.4  0.1528   43.0  0.1541 -151.3
 4.600  0.3841  148.8   2.810   42.3  0.1561   42.3  0.1524 -152.8
 4.700  0.3849  148.0   2.756   41.2  0.1594   41.6  0.1507 -154.2
 4.800  0.3858  147.1   2.704   40.1  0.1628   40.9  0.1492 -155.8
 4.900  0.3867  146.3   2.652   38.9  0.1661   40.2  0.1477 -157.3
 5.000  0.3878  145.4   2.602   37.6  0.1695   39.6  0.1464 -158.9
 5.100  0.3855  144.0   2.552   36.5  0.1726   38.7  0.1460 -161.2
 5.200  0.3835  142.6   2.504   35.4  0.1757   37.9  0.1457 -163.6
 5.300  0.3817  141.1   2.456   34.3  0.1788   37.1  0.1458 -165.9
 5.400  0.3801  139.7   2.410   33.1  0.1820   36.3  0.1461 -168.3
 5.500  0.3788  138.2   2.364   31.8  0.1852   35.5  0.1466 -170.6
 5.600  0.3790  137.0   2.327   30.8  0.1882   34.7  0.1452 -172.5
 5.700  0.3794  135.8   2.291   29.7  0.1913   33.9  0.1440 -174.5
 5.800  0.3799  134.6   2.255   28.6  0.1945   33.1  0.1429 -176.5
 5.900  0.3806  133.5   2.221   27.5  0.1976   32.3  0.1420 -178.5
 6.000  0.3815  132.3   2.187   26.3  0.2008   31.6  0.1413  179.4
!
!  f       NFmin   Gammaopt  rn/50
! GHz       dB    MAG  ANG    -
!
! noise parameter not available yet for this operation point!
!
! (c) 2015  Infineon Technologies AG, Munich
