! Infineon Technologies  Discrete & RF Semiconductors
! BFP520
! VCE =  1.0 V,  IC =  40 mA
! Common Emitter S-Parameters:                            Oct 2015
# GHz  S  MA  R  50
!  f         S11            S21            S12            S22
! GHz     MAG   ANG      MAG   ANG      MAG   ANG      MAG   ANG
 0.030  0.4280   -8.2  30.120  177.2  0.0025  107.3  0.6965   -0.5
 0.040  0.4270  -10.3  30.131  175.6  0.0031   99.0  0.7032   -1.6
 0.050  0.4225  -12.6  30.021  174.1  0.0036   92.3  0.7052   -3.4
 0.060  0.4250  -14.9  30.045  173.0  0.0042   91.9  0.7079   -4.7
 0.070  0.4195  -17.1  30.167  171.5  0.0048   88.8  0.7104   -5.9
 0.080  0.4228  -19.2  30.094  170.4  0.0054   88.4  0.7123   -7.1
 0.090  0.4202  -21.8  30.043  168.9  0.0059   86.9  0.7133   -8.3
 0.100  0.4200  -23.7  29.856  167.5  0.0066   86.2  0.7129   -9.6
 0.110  0.4206  -26.2  29.807  166.2  0.0071   83.7  0.7119  -10.8
 0.120  0.4189  -28.8  29.704  164.8  0.0077   82.8  0.7107  -12.0
 0.130  0.4171  -30.6  29.549  163.5  0.0082   82.2  0.7089  -13.2
 0.140  0.4147  -32.9  29.440  162.1  0.0087   81.0  0.7067  -14.4
 0.150  0.4118  -35.2  29.218  160.7  0.0094   80.8  0.7033  -15.7
 0.200  0.4056  -45.4  28.394  154.4  0.0120   76.6  0.6855  -21.2
 0.250  0.3980  -55.4  27.343  148.5  0.0144   73.5  0.6621  -26.5
 0.300  0.3918  -64.5  26.103  143.0  0.0166   70.6  0.6354  -31.2
 0.350  0.3849  -73.2  24.853  137.9  0.0186   68.4  0.6067  -35.6
 0.400  0.3770  -81.1  23.618  133.3  0.0205   66.5  0.5789  -39.4
 0.450  0.3710  -88.6  22.391  129.1  0.0222   64.8  0.5513  -43.0
 0.500  0.3655  -95.4  21.212  125.3  0.0238   63.4  0.5244  -46.3
 0.600  0.3568 -107.7  19.111  118.5  0.0268   61.4  0.4742  -52.1
 0.700  0.3512 -118.3  17.234  112.7  0.0294   59.8  0.4308  -57.0
 0.800  0.3471 -127.7  15.608  107.6  0.0319   58.8  0.3930  -61.2
 0.900  0.3447 -135.8  14.262  103.3  0.0344   58.1  0.3609  -65.0
 1.000  0.3432 -143.0  13.082   99.3  0.0367   57.5  0.3331  -68.5
 1.100  0.3436 -149.4  12.051   95.8  0.0391   56.9  0.3084  -71.9
 1.200  0.3443 -155.3  11.155   92.5  0.0415   56.5  0.2866  -75.1
 1.300  0.3464 -160.7  10.365   89.6  0.0439   56.0  0.2679  -78.3
 1.400  0.3491 -165.6   9.668   86.8  0.0462   55.6  0.2500  -81.3
 1.500  0.3511 -170.2   9.063   84.2  0.0487   55.1  0.2354  -84.4
 1.600  0.3543 -174.7   8.504   81.7  0.0510   54.7  0.2206  -87.6
 1.700  0.3571 -178.5   8.021   79.4  0.0534   54.1  0.2088  -90.7
 1.800  0.3611  177.8   7.580   77.2  0.0558   53.6  0.1972  -93.9
 1.900  0.3639  174.3   7.186   75.1  0.0583   53.0  0.1866  -97.0
 2.000  0.3676  170.9   6.828   73.0  0.0607   52.4  0.1767 -100.5
 2.100  0.3714  167.7   6.504   71.1  0.0631   51.7  0.1677 -103.9
 2.200  0.3763  164.6   6.187   69.0  0.0655   51.1  0.1593 -107.6
 2.300  0.3799  161.8   5.920   67.2  0.0680   50.4  0.1515 -111.4
 2.400  0.3844  159.0   5.659   65.3  0.0704   49.7  0.1443 -115.6
 2.500  0.3883  156.3   5.429   63.6  0.0728   48.9  0.1378 -119.7
 2.600  0.3931  153.7   5.204   61.7  0.0752   48.2  0.1320 -124.2
 2.700  0.3970  151.3   5.006   60.1  0.0775   47.3  0.1267 -128.9
 2.800  0.4016  148.9   4.813   58.3  0.0799   46.5  0.1224 -134.1
 2.900  0.4062  146.6   4.640   56.8  0.0823   45.7  0.1190 -139.4
 3.000  0.4115  144.3   4.472   55.1  0.0847   44.9  0.1167 -145.0
 3.100  0.4162  142.1   4.328   53.7  0.0869   43.8  0.1153 -150.4
 3.200  0.4215  139.9   4.187   52.2  0.0891   42.9  0.1149 -155.8
 3.300  0.4274  137.7   4.049   50.7  0.0914   42.0  0.1155 -161.2
 3.400  0.4338  135.7   3.914   49.0  0.0936   41.1  0.1172 -166.5
 3.500  0.4409  133.7   3.783   47.2  0.0959   40.3  0.1198 -171.6
 3.600  0.4463  131.7   3.674   45.9  0.0979   39.3  0.1226 -176.4
 3.700  0.4523  129.8   3.567   44.5  0.1000   38.3  0.1262  179.0
 3.800  0.4588  127.9   3.462   43.1  0.1021   37.4  0.1306  174.8
 3.900  0.4658  126.1   3.360   41.5  0.1042   36.5  0.1357  170.8
 4.000  0.4732  124.3   3.260   39.9  0.1063   35.6  0.1413  167.1
 4.100  0.4787  122.8   3.174   38.6  0.1081   34.7  0.1461  163.8
 4.200  0.4845  121.2   3.090   37.3  0.1100   33.7  0.1513  160.7
 4.300  0.4907  119.7   3.008   36.0  0.1119   32.8  0.1570  157.8
 4.400  0.4972  118.2   2.927   34.5  0.1139   32.0  0.1630  155.1
 4.500  0.5040  116.8   2.849   33.0  0.1159   31.1  0.1694  152.6
 4.600  0.5086  115.4   2.782   31.8  0.1176   30.2  0.1735  150.1
 4.700  0.5135  114.1   2.716   30.5  0.1194   29.3  0.1779  147.7
 4.800  0.5187  112.7   2.651   29.2  0.1212   28.5  0.1826  145.5
 4.900  0.5241  111.4   2.588   27.9  0.1231   27.6  0.1876  143.3
 5.000  0.5298  110.2   2.526   26.4  0.1249   26.8  0.1928  141.3
 5.100  0.5331  109.0   2.473   25.3  0.1268   25.9  0.1960  139.3
 5.200  0.5366  107.9   2.421   24.1  0.1286   25.0  0.1993  137.3
 5.300  0.5403  106.7   2.370   22.9  0.1305   24.1  0.2029  135.5
 5.400  0.5442  105.6   2.320   21.6  0.1324   23.3  0.2068  133.6
 5.500  0.5483  104.5   2.271   20.3  0.1343   22.4  0.2108  131.9
 5.600  0.5504  103.5   2.228   19.2  0.1361   21.5  0.2141  130.2
 5.700  0.5526  102.5   2.186   18.0  0.1379   20.5  0.2176  128.6
 5.800  0.5551  101.5   2.145   16.7  0.1397   19.6  0.2212  127.1
 5.900  0.5577  100.5   2.105   15.4  0.1416   18.7  0.2250  125.6
 6.000  0.5604   99.5   2.066   14.1  0.1435   17.8  0.2290  124.1
 6.100  0.5627   98.5   2.029   13.0  0.1451   16.8  0.2326  122.6
 6.200  0.5651   97.4   1.993   11.8  0.1467   15.8  0.2364  121.2
 6.300  0.5677   96.4   1.958   10.6  0.1483   14.9  0.2403  119.8
 6.400  0.5704   95.4   1.924    9.3  0.1500   13.9  0.2443  118.5
 6.500  0.5733   94.4   1.891    8.0  0.1518   13.0  0.2485  117.2
 6.600  0.5761   93.2   1.860    6.9  0.1532   12.0  0.2522  115.7
 6.700  0.5791   92.1   1.829    5.7  0.1547   11.0  0.2562  114.4
 6.800  0.5823   90.9   1.800    4.5  0.1563   10.1  0.2603  113.0
 6.900  0.5858   89.8   1.771    3.2  0.1579    9.2  0.2645  111.7
 7.000  0.5895   88.6   1.742    1.9  0.1595    8.3  0.2688  110.5
 7.100  0.5934   87.3   1.716    0.8  0.1609    7.3  0.2735  109.1
 7.200  0.5977   86.1   1.689   -0.4  0.1623    6.2  0.2783  107.8
 7.300  0.6022   84.8   1.664   -1.7  0.1638    5.2  0.2832  106.5
 7.400  0.6071   83.6   1.639   -2.9  0.1653    4.3  0.2883  105.3
 7.500  0.6122   82.4   1.616   -4.3  0.1669    3.3  0.2935  104.1
 7.600  0.6172   81.1   1.590   -5.5  0.1679    2.2  0.2990  102.6
 7.700  0.6226   79.8   1.565   -6.8  0.1690    1.1  0.3048  101.1
 7.800  0.6283   78.5   1.540   -8.1  0.1702    0.1  0.3108   99.7
 7.900  0.6343   77.3   1.517   -9.5  0.1715   -1.0  0.3170   98.3
 8.000  0.6406   76.0   1.494  -10.9  0.1728   -2.0  0.3233   97.0
 8.500  0.6682   69.8   1.367  -17.3  0.1756   -7.4  0.3589   89.3
 9.000  0.6998   64.7   1.245  -22.8  0.1753  -12.2  0.4049   82.8
 9.500  0.7346   60.7   1.135  -27.1  0.1744  -15.8  0.4546   78.5
10.000  0.7589   57.2   1.045  -30.7  0.1747  -18.3  0.4949   76.0
10.500  0.7731   54.7   0.982  -33.1  0.1783  -19.8  0.5163   74.6
11.000  0.7796   53.8   0.972  -35.6  0.1890  -22.1  0.5292   74.9
11.500  0.7947   53.4   0.972  -41.4  0.2003  -27.0  0.5483   75.3
12.000  0.8014   51.2   0.925  -47.8  0.2033  -32.4  0.5633   73.8
12.500  0.7835   48.4   0.875  -52.2  0.2062  -36.2  0.5519   70.5
13.000  0.7541   46.4   0.849  -56.5  0.2116  -40.7  0.5267   67.9
13.500  0.7562   44.8   0.840  -62.8  0.2175  -45.9  0.5274   67.2
14.000  0.7786   40.5   0.785  -70.5  0.2133  -52.8  0.5477   63.7
14.500  0.7791   35.2   0.701  -73.6  0.2035  -55.2  0.5482   56.5
15.000  0.7652   31.7   0.687  -74.5  0.2088  -56.9  0.5420   50.1
!
!  f       NFmin   Gammaopt  rn/50
! GHz       dB    MAG  ANG    -
 0.450      2.90  0.12 -150   0.28
 0.900      2.88  0.14 -145   0.32
 1.900      3.01  0.21 -123   0.34
 2.400      3.00  0.21 -121   0.33
 3.500      2.96  0.21 -107   0.37
!
! (c) 2015  Infineon Technologies AG, Munich
