! Infineon Technologies  Discrete & RF Semiconductors
! BFP540FESD
! VCE =  1.0 V,  IC =  15 mA
! Common Emitter S-Parameters:                            Nov 2015
# GHz  S  MA  R  50
!  f         S11            S21            S12            S22
! GHz     MAG   ANG      MAG   ANG      MAG   ANG      MAG   ANG
 0.010  0.6118   -1.6  36.433  178.1  0.0011   89.0  0.9495   -3.9
 0.015  0.6075   -3.9  35.839  177.5  0.0015   88.4  0.9485   -3.3
 0.020  0.6042   -6.3  35.249  176.9  0.0019   88.1  0.9477   -2.7
 0.025  0.6053   -7.2  35.272  176.1  0.0024   86.3  0.9472   -3.5
 0.030  0.6066   -8.2  35.302  175.3  0.0030   85.1  0.9469   -4.3
 0.035  0.6080   -9.1  35.339  174.5  0.0035   84.3  0.9468   -5.0
 0.040  0.6096  -10.0  35.383  173.7  0.0041   83.7  0.9468   -5.8
 0.045  0.6114  -10.9  35.433  172.9  0.0046   83.3  0.9470   -6.6
 0.050  0.6133  -11.8  35.491  172.1  0.0052   82.9  0.9474   -7.4
 0.055  0.6107  -12.9  35.376  171.3  0.0056   82.8  0.9450   -8.1
 0.060  0.6084  -14.0  35.268  170.5  0.0061   82.7  0.9428   -8.9
 0.065  0.6063  -15.2  35.167  169.7  0.0065   82.6  0.9408   -9.7
 0.070  0.6044  -16.3  35.073  168.9  0.0070   82.5  0.9389  -10.4
 0.075  0.6028  -17.4  34.985  168.1  0.0074   82.4  0.9372  -11.2
 0.080  0.6014  -18.6  34.905  167.3  0.0079   82.4  0.9356  -11.9
 0.085  0.6002  -19.7  34.832  166.5  0.0083   82.3  0.9342  -12.7
 0.090  0.5993  -20.9  34.766  165.6  0.0088   82.3  0.9330  -13.5
 0.095  0.5986  -22.0  34.707  164.8  0.0092   82.2  0.9320  -14.2
 0.100  0.5982  -23.2  34.655  164.0  0.0097   82.2  0.9311  -15.0
 0.105  0.5955  -24.4  34.524  163.3  0.0101   81.1  0.9270  -15.7
 0.110  0.5930  -25.6  34.398  162.5  0.0106   80.2  0.9231  -16.4
 0.115  0.5907  -26.8  34.279  161.8  0.0110   79.3  0.9193  -17.0
 0.120  0.5888  -28.0  34.165  161.0  0.0114   78.5  0.9156  -17.7
 0.125  0.5871  -29.3  34.057  160.3  0.0119   77.7  0.9120  -18.4
 0.130  0.5857  -30.5  33.955  159.5  0.0123   77.0  0.9086  -19.1
 0.135  0.5846  -31.8  33.859  158.7  0.0128   76.3  0.9054  -19.8
 0.140  0.5837  -33.0  33.770  158.0  0.0132   75.7  0.9022  -20.6
 0.145  0.5831  -34.2  33.686  157.2  0.0137   75.1  0.8992  -21.3
 0.150  0.5828  -35.5  33.609  156.4  0.0141   74.6  0.8964  -22.0
 0.155  0.5801  -36.4  33.408  155.7  0.0145   74.4  0.8916  -22.6
 0.160  0.5775  -37.4  33.213  155.0  0.0149   74.1  0.8868  -23.3
 0.165  0.5751  -38.4  33.022  154.3  0.0153   73.9  0.8822  -23.9
 0.170  0.5729  -39.3  32.836  153.6  0.0157   73.7  0.8777  -24.6
 0.175  0.5708  -40.3  32.655  152.9  0.0161   73.5  0.8734  -25.3
 0.180  0.5689  -41.3  32.479  152.2  0.0165   73.3  0.8691  -25.9
 0.185  0.5672  -42.3  32.309  151.4  0.0169   73.2  0.8650  -26.6
 0.190  0.5656  -43.3  32.144  150.7  0.0173   73.0  0.8609  -27.3
 0.195  0.5642  -44.3  31.984  150.0  0.0177   72.9  0.8571  -28.0
 0.200  0.5630  -45.3  31.830  149.2  0.0181   72.7  0.8533  -28.7
 0.220  0.5520  -49.1  31.070  146.8  0.0195   70.8  0.8352  -31.0
 0.240  0.5435  -53.1  30.369  144.2  0.0210   69.2  0.8185  -33.5
 0.260  0.5343  -57.0  29.655  141.8  0.0223   68.0  0.8004  -35.7
 0.280  0.5240  -60.8  28.915  139.4  0.0234   67.2  0.7806  -37.8
 0.300  0.5161  -64.8  28.226  137.0  0.0246   66.4  0.7619  -40.0
 0.320  0.5050  -67.7  27.461  135.2  0.0257   65.6  0.7426  -41.6
 0.340  0.4952  -70.8  26.723  133.4  0.0267   64.8  0.7239  -43.4
 0.360  0.4869  -74.0  26.015  131.4  0.0278   64.1  0.7059  -45.2
 0.380  0.4801  -77.2  25.339  129.4  0.0289   63.5  0.6886  -47.1
 0.400  0.4750  -80.6  24.697  127.2  0.0300   62.9  0.6722  -49.1
 0.420  0.4668  -83.3  24.055  125.8  0.0309   62.2  0.6550  -50.5
 0.440  0.4596  -86.1  23.428  124.3  0.0317   61.5  0.6383  -51.9
 0.450  0.4565  -87.5  23.121  123.5  0.0321   61.1  0.6301  -52.7
 0.460  0.4536  -88.9  22.818  122.7  0.0326   60.8  0.6220  -53.4
 0.480  0.4487  -91.8  22.227  121.1  0.0334   60.2  0.6061  -55.0
 0.500  0.4450  -94.8  21.655  119.3  0.0343   59.6  0.5907  -56.7
 0.520  0.4389  -97.0  21.102  118.2  0.0351   59.3  0.5769  -57.8
 0.540  0.4334  -99.2  20.558  117.0  0.0359   59.0  0.5632  -58.9
 0.560  0.4285 -101.5  20.023  115.7  0.0367   58.7  0.5498  -60.0
 0.580  0.4244 -103.8  19.499  114.4  0.0375   58.5  0.5366  -61.2
 0.600  0.4210 -106.2  18.985  113.0  0.0383   58.2  0.5237  -62.5
 0.620  0.4167 -108.1  18.561  112.1  0.0390   57.9  0.5128  -63.4
 0.640  0.4129 -110.1  18.142  111.1  0.0396   57.7  0.5020  -64.4
 0.660  0.4096 -112.0  17.729  110.1  0.0403   57.4  0.4914  -65.4
 0.680  0.4068 -114.1  17.321  109.0  0.0409   57.1  0.4809  -66.5
 0.700  0.4045 -116.1  16.920  107.9  0.0416   56.9  0.4706  -67.6
 0.720  0.4012 -118.0  16.552  107.1  0.0422   56.8  0.4609  -68.6
 0.740  0.3984 -120.0  16.189  106.2  0.0428   56.6  0.4513  -69.6
 0.760  0.3961 -122.0  15.829  105.3  0.0435   56.5  0.4419  -70.6
 0.780  0.3943 -124.1  15.473  104.3  0.0441   56.4  0.4326  -71.7
 0.800  0.3930 -126.1  15.122  103.3  0.0447   56.3  0.4235  -72.9
 0.820  0.3906 -127.5  14.819  102.6  0.0454   56.1  0.4156  -73.6
 0.840  0.3885 -128.9  14.518  101.8  0.0461   56.0  0.4078  -74.4
 0.860  0.3866 -130.3  14.220  101.1  0.0467   55.8  0.4001  -75.2
 0.880  0.3850 -131.8  13.925  100.2  0.0474   55.7  0.3925  -76.0
 0.900  0.3836 -133.2  13.632   99.4  0.0481   55.5  0.3849  -76.9
 0.920  0.3818 -134.5  13.384   98.8  0.0487   55.6  0.3784  -77.6
 0.940  0.3801 -135.8  13.138   98.2  0.0493   55.6  0.3720  -78.3
 0.960  0.3787 -137.1  12.894   97.5  0.0499   55.7  0.3656  -79.1
 0.980  0.3774 -138.5  12.652   96.8  0.0505   55.7  0.3593  -79.9
 1.000  0.3764 -139.8  12.411   96.1  0.0511   55.8  0.3531  -80.7
 1.020  0.3767 -141.0  12.201   95.5  0.0517   55.7  0.3480  -81.6
 1.040  0.3771 -142.3  11.993   94.9  0.0523   55.7  0.3429  -82.5
 1.060  0.3777 -143.5  11.786   94.3  0.0530   55.6  0.3379  -83.4
 1.080  0.3785 -144.7  11.580   93.7  0.0536   55.6  0.3331  -84.4
 1.100  0.3794 -145.9  11.376   93.0  0.0542   55.5  0.3283  -85.4
 1.120  0.3786 -147.1  11.188   92.5  0.0548   55.5  0.3233  -86.0
 1.140  0.3780 -148.2  11.001   91.9  0.0553   55.5  0.3184  -86.7
 1.160  0.3775 -149.4  10.815   91.4  0.0559   55.5  0.3135  -87.4
 1.180  0.3772 -150.5  10.630   90.8  0.0564   55.5  0.3087  -88.1
 1.200  0.3770 -151.7  10.446   90.2  0.0570   55.5  0.3039  -88.8
 1.220  0.3763 -152.4  10.292   89.7  0.0576   55.4  0.2994  -89.4
 1.240  0.3757 -153.1  10.138   89.3  0.0583   55.2  0.2948  -90.0
 1.260  0.3751 -153.9   9.985   88.8  0.0589   55.1  0.2904  -90.6
 1.280  0.3746 -154.6   9.833   88.3  0.0596   54.9  0.2859  -91.2
 1.300  0.3741 -155.3   9.682   87.8  0.0602   54.8  0.2815  -91.9
 1.320  0.3744 -156.3   9.545   87.3  0.0608   54.8  0.2783  -92.9
 1.340  0.3748 -157.2   9.409   86.8  0.0614   54.9  0.2753  -93.8
 1.360  0.3753 -158.2   9.273   86.3  0.0620   54.9  0.2722  -94.8
 1.380  0.3759 -159.1   9.138   85.8  0.0626   55.0  0.2693  -95.9
 1.400  0.3766 -160.1   9.004   85.3  0.0632   55.0  0.2665  -96.9
 1.420  0.3780 -160.9   8.879   84.9  0.0638   55.0  0.2637  -97.6
 1.440  0.3794 -161.6   8.755   84.5  0.0644   55.0  0.2610  -98.3
 1.460  0.3809 -162.3   8.631   84.1  0.0649   54.9  0.2583  -99.0
 1.480  0.3825 -163.1   8.507   83.6  0.0655   54.9  0.2557  -99.7
 1.500  0.3841 -163.8   8.384   83.2  0.0661   54.9  0.2531 -100.4
 1.520  0.3835 -164.5   8.278   82.8  0.0667   54.8  0.2496 -101.1
 1.540  0.3830 -165.3   8.172   82.4  0.0673   54.7  0.2461 -101.8
 1.560  0.3826 -166.0   8.066   82.0  0.0679   54.7  0.2427 -102.6
 1.580  0.3822 -166.8   7.961   81.5  0.0685   54.6  0.2393 -103.3
 1.600  0.3819 -167.5   7.856   81.1  0.0691   54.5  0.2360 -104.1
 1.620  0.3820 -168.3   7.760   80.7  0.0698   54.5  0.2346 -105.0
 1.640  0.3823 -169.0   7.665   80.3  0.0705   54.4  0.2333 -105.9
 1.660  0.3825 -169.8   7.570   79.9  0.0712   54.4  0.2320 -106.9
 1.680  0.3829 -170.5   7.475   79.5  0.0719   54.3  0.2308 -107.8
 1.700  0.3833 -171.3   7.381   79.1  0.0726   54.3  0.2296 -108.8
 1.720  0.3838 -171.8   7.295   78.8  0.0731   54.3  0.2285 -109.4
 1.740  0.3844 -172.4   7.209   78.4  0.0737   54.3  0.2275 -110.0
 1.760  0.3850 -172.9   7.123   78.0  0.0742   54.4  0.2265 -110.6
 1.780  0.3856 -173.5   7.038   77.7  0.0748   54.4  0.2255 -111.3
 1.800  0.3863 -174.0   6.953   77.3  0.0753   54.4  0.2245 -111.9
 1.820  0.3867 -174.4   6.877   77.0  0.0760   54.3  0.2217 -112.5
 1.840  0.3870 -174.8   6.801   76.6  0.0767   54.2  0.2189 -113.2
 1.860  0.3874 -175.2   6.725   76.3  0.0773   54.1  0.2161 -113.9
 1.880  0.3879 -175.6   6.650   76.0  0.0780   54.0  0.2134 -114.6
 1.900  0.3883 -176.0   6.575   75.6  0.0787   53.9  0.2107 -115.3
 1.920  0.3888 -176.7   6.505   75.3  0.0792   53.8  0.2101 -116.1
 1.940  0.3894 -177.5   6.435   74.9  0.0798   53.7  0.2095 -116.8
 1.960  0.3900 -178.2   6.365   74.5  0.0803   53.7  0.2090 -117.6
 1.980  0.3907 -179.0   6.295   74.2  0.0809   53.6  0.2085 -118.3
 2.000  0.3915 -179.7   6.226   73.8  0.0814   53.5  0.2081 -119.1
 2.020  0.3915  179.9   6.166   73.5  0.0820   53.5  0.2069 -119.7
 2.040  0.3915  179.6   6.107   73.3  0.0827   53.4  0.2057 -120.2
 2.060  0.3915  179.2   6.048   73.0  0.0833   53.4  0.2045 -120.8
 2.080  0.3915  178.9   5.989   72.7  0.0840   53.4  0.2033 -121.4
 2.100  0.3915  178.5   5.930   72.4  0.0846   53.3  0.2022 -122.0
 2.120  0.3916  178.2   5.871   72.1  0.0852   53.3  0.2011 -122.6
 2.140  0.3916  177.8   5.812   71.8  0.0859   53.3  0.2000 -123.2
 2.160  0.3917  177.5   5.754   71.5  0.0865   53.3  0.1989 -123.8
 2.180  0.3918  177.1   5.695   71.2  0.0872   53.2  0.1978 -124.4
 2.200  0.3919  176.8   5.637   70.9  0.0878   53.2  0.1968 -125.0
 2.220  0.3924  176.3   5.586   70.6  0.0883   53.1  0.1966 -125.5
 2.240  0.3929  175.7   5.536   70.4  0.0889   53.1  0.1965 -126.1
 2.260  0.3934  175.2   5.485   70.1  0.0894   53.0  0.1963 -126.6
 2.280  0.3939  174.7   5.435   69.8  0.0900   53.0  0.1962 -127.2
 2.300  0.3945  174.2   5.385   69.5  0.0905   52.9  0.1961 -127.7
 2.320  0.3952  173.7   5.335   69.2  0.0910   52.9  0.1961 -128.2
 2.340  0.3958  173.1   5.285   68.9  0.0916   52.8  0.1960 -128.8
 2.360  0.3965  172.6   5.235   68.6  0.0921   52.8  0.1959 -129.3
 2.380  0.3972  172.1   5.185   68.3  0.0927   52.7  0.1959 -129.9
 2.400  0.3980  171.6   5.136   68.0  0.0932   52.7  0.1959 -130.4
 2.420  0.3984  171.3   5.094   67.7  0.0939   52.6  0.1953 -131.1
 2.440  0.3988  171.1   5.052   67.5  0.0945   52.5  0.1946 -131.8
 2.460  0.3992  170.8   5.011   67.2  0.0952   52.4  0.1941 -132.6
 2.480  0.3996  170.6   4.969   66.9  0.0958   52.3  0.1935 -133.3
 2.500  0.4000  170.3   4.928   66.7  0.0965   52.2  0.1930 -134.1
 2.520  0.4004  170.0   4.886   66.4  0.0972   52.1  0.1925 -134.8
 2.540  0.4009  169.8   4.845   66.1  0.0978   52.1  0.1921 -135.5
 2.560  0.4013  169.5   4.804   65.8  0.0985   52.0  0.1916 -136.3
 2.580  0.4017  169.3   4.763   65.5  0.0991   51.9  0.1913 -137.0
 2.600  0.4022  169.0   4.722   65.2  0.0998   51.8  0.1909 -137.8
 2.620  0.4021  168.7   4.687   65.0  0.1005   51.7  0.1905 -138.1
 2.640  0.4020  168.4   4.652   64.7  0.1012   51.7  0.1901 -138.4
 2.660  0.4020  168.1   4.617   64.5  0.1018   51.6  0.1897 -138.7
 2.680  0.4019  167.8   4.582   64.2  0.1025   51.6  0.1893 -139.1
 2.700  0.4019  167.5   4.547   64.0  0.1032   51.5  0.1890 -139.4
 2.720  0.4019  167.1   4.512   63.7  0.1039   51.4  0.1886 -139.7
 2.740  0.4019  166.8   4.477   63.5  0.1046   51.4  0.1882 -140.0
 2.760  0.4019  166.5   4.443   63.2  0.1052   51.3  0.1879 -140.4
 2.780  0.4019  166.2   4.408   63.0  0.1059   51.3  0.1875 -140.7
 2.800  0.4019  165.9   4.374   62.7  0.1066   51.2  0.1872 -141.0
 2.820  0.4021  165.6   4.343   62.4  0.1071   51.1  0.1873 -141.4
 2.840  0.4022  165.3   4.313   62.2  0.1077   51.0  0.1874 -141.8
 2.860  0.4024  165.0   4.282   61.9  0.1082   50.9  0.1875 -142.1
 2.880  0.4026  164.7   4.252   61.7  0.1087   50.8  0.1876 -142.5
 2.900  0.4028  164.4   4.222   61.4  0.1092   50.7  0.1877 -142.9
 2.920  0.4030  164.2   4.192   61.1  0.1098   50.6  0.1878 -143.3
 2.940  0.4032  163.9   4.162   60.9  0.1103   50.6  0.1880 -143.7
 2.960  0.4034  163.6   4.132   60.6  0.1108   50.5  0.1881 -144.0
 2.980  0.4037  163.3   4.102   60.3  0.1114   50.4  0.1882 -144.4
 3.000  0.4039  163.0   4.072   60.0  0.1119   50.3  0.1884 -144.8
 3.100  0.4041  161.7   3.949   59.0  0.1150   49.7  0.1876 -146.4
 3.200  0.4045  160.5   3.828   57.9  0.1182   49.1  0.1870 -148.0
 3.300  0.4051  159.2   3.708   56.7  0.1213   48.5  0.1866 -149.6
 3.400  0.4058  158.0   3.590   55.4  0.1245   48.0  0.1863 -151.3
 3.500  0.4068  156.7   3.474   54.1  0.1277   47.5  0.1861 -152.9
 3.600  0.4069  156.0   3.388   53.1  0.1310   47.0  0.1846 -154.5
 3.700  0.4071  155.3   3.302   52.0  0.1344   46.6  0.1833 -156.1
 3.800  0.4074  154.6   3.218   50.9  0.1377   46.1  0.1820 -157.8
 3.900  0.4077  153.9   3.135   49.7  0.1410   45.7  0.1810 -159.4
 4.000  0.4081  153.2   3.054   48.4  0.1444   45.3  0.1801 -161.1
 4.100  0.4076  152.2   2.985   47.3  0.1476   44.5  0.1788 -162.7
 4.200  0.4073  151.2   2.917   46.2  0.1508   43.7  0.1776 -164.2
 4.300  0.4070  150.3   2.850   45.1  0.1540   42.9  0.1766 -165.8
 4.400  0.4069  149.3   2.784   43.9  0.1573   42.2  0.1757 -167.5
 4.500  0.4069  148.3   2.720   42.6  0.1606   41.5  0.1749 -169.1
 4.600  0.4078  147.4   2.668   41.5  0.1639   40.7  0.1735 -170.6
 4.700  0.4087  146.5   2.618   40.4  0.1672   40.0  0.1723 -172.2
 4.800  0.4098  145.6   2.568   39.2  0.1705   39.3  0.1712 -173.8
 4.900  0.4109  144.8   2.519   38.0  0.1739   38.6  0.1702 -175.4
 5.000  0.4122  143.9   2.472   36.7  0.1773   38.0  0.1694 -177.0
 5.100  0.4097  142.5   2.425   35.6  0.1806   37.1  0.1698 -179.0
 5.200  0.4075  141.1   2.379   34.5  0.1839   36.3  0.1703  178.9
 5.300  0.4055  139.7   2.335   33.3  0.1873   35.5  0.1711  176.9
 5.400  0.4037  138.3   2.291   32.1  0.1907   34.7  0.1721  175.0
 5.500  0.4022  136.9   2.248   30.8  0.1941   34.0  0.1733  173.0
 5.600  0.4026  135.7   2.213   29.7  0.1972   33.2  0.1727  171.2
 5.700  0.4031  134.5   2.179   28.7  0.2004   32.4  0.1723  169.5
 5.800  0.4038  133.3   2.145   27.5  0.2035   31.6  0.1721  167.7
 5.900  0.4047  132.2   2.113   26.4  0.2068   30.9  0.1720  165.9
 6.000  0.4057  131.0   2.081   25.2  0.2100   30.2  0.1721  164.1
!
!  f       NFmin   Gammaopt  rn/50
! GHz       dB    MAG  ANG    -
!
! noise parameter not available yet for this operation point!
!
! (c) 2015  Infineon Technologies AG, Munich
