! Infineon Technologies  Discrete & RF Semiconductors
! BFP520
! VCE =  1.0 V,  IC =  25 mA
! Common Emitter S-Parameters:                            Oct 2015
# GHz  S  MA  R  50
!  f         S11            S21            S12            S22
! GHz     MAG   ANG      MAG   ANG      MAG   ANG      MAG   ANG
 0.030  0.5694   -4.3  33.210  177.6  0.0019   98.4  0.8851   -0.5
 0.040  0.5690   -5.3  33.217  176.3  0.0022   95.6  0.8905   -1.3
 0.050  0.5641   -6.3  33.075  175.1  0.0027   90.9  0.8943   -2.2
 0.060  0.5679   -7.5  33.077  174.4  0.0031   88.9  0.8972   -3.0
 0.070  0.5630   -8.8  33.273  173.2  0.0036   89.8  0.8995   -3.9
 0.080  0.5646   -9.9  33.165  172.5  0.0041   86.3  0.9007   -4.7
 0.090  0.5649  -11.5  33.149  171.4  0.0046   87.0  0.9015   -5.6
 0.100  0.5643  -12.5  32.961  170.4  0.0051   86.1  0.9016   -6.4
 0.110  0.5627  -13.7  32.972  169.4  0.0055   85.3  0.9018   -7.3
 0.120  0.5598  -14.9  32.963  168.3  0.0060   84.5  0.9013   -8.1
 0.130  0.5583  -16.1  32.865  167.4  0.0064   84.3  0.9004   -8.9
 0.140  0.5569  -17.3  32.852  166.3  0.0069   84.0  0.8992   -9.8
 0.150  0.5526  -18.4  32.669  165.1  0.0074   83.5  0.8976  -10.5
 0.200  0.5433  -24.5  32.172  160.3  0.0096   80.9  0.8870  -14.5
 0.250  0.5309  -30.2  31.464  155.5  0.0117   78.1  0.8714  -18.4
 0.300  0.5189  -35.6  30.608  150.9  0.0138   76.2  0.8520  -22.0
 0.350  0.5037  -41.0  29.674  146.6  0.0158   74.2  0.8302  -25.4
 0.400  0.4882  -46.2  28.676  142.4  0.0176   72.5  0.8068  -28.6
 0.450  0.4729  -51.1  27.662  138.5  0.0194   70.9  0.7827  -31.6
 0.500  0.4568  -55.9  26.636  134.9  0.0211   69.7  0.7577  -34.4
 0.600  0.4271  -65.0  24.670  128.1  0.0241   67.3  0.7083  -39.5
 0.700  0.3984  -73.6  22.774  122.0  0.0270   65.4  0.6614  -44.0
 0.800  0.3730  -81.6  21.028  116.7  0.0297   63.8  0.6181  -48.0
 0.900  0.3509  -89.1  19.490  112.0  0.0322   62.7  0.5786  -51.5
 1.000  0.3317  -96.3  18.080  107.6  0.0346   61.6  0.5425  -54.7
 1.100  0.3154 -103.0  16.811  103.7  0.0370   60.8  0.5101  -57.6
 1.200  0.3008 -109.8  15.678  100.1  0.0393   60.0  0.4805  -60.4
 1.300  0.2899 -116.2  14.662   96.8  0.0417   59.2  0.4537  -63.1
 1.400  0.2804 -122.3  13.747   93.8  0.0440   58.6  0.4284  -65.5
 1.500  0.2714 -128.6  12.927   90.8  0.0463   58.0  0.4066  -67.8
 1.600  0.2650 -134.5  12.183   88.2  0.0486   57.4  0.3850  -70.1
 1.700  0.2603 -139.8  11.518   85.6  0.0509   56.7  0.3667  -72.4
 1.800  0.2567 -145.3  10.907   83.3  0.0532   56.1  0.3488  -74.5
 1.900  0.2541 -150.4  10.361   81.0  0.0555   55.5  0.3323  -76.7
 2.000  0.2521 -155.4   9.862   78.7  0.0578   54.8  0.3166  -78.8
 2.100  0.2514 -160.3   9.409   76.7  0.0601   54.1  0.3022  -80.9
 2.200  0.2524 -165.2   8.968   74.5  0.0625   53.4  0.2882  -83.2
 2.300  0.2527 -169.7   8.589   72.7  0.0648   52.7  0.2749  -85.4
 2.400  0.2545 -174.1   8.221   70.6  0.0672   52.0  0.2620  -87.7
 2.500  0.2559 -178.3   7.891   68.9  0.0694   51.2  0.2499  -90.0
 2.600  0.2587  177.6   7.570   66.9  0.0717   50.4  0.2383  -92.5
 2.700  0.2610  174.1   7.287   65.3  0.0740   49.6  0.2270  -95.0
 2.800  0.2644  170.5   7.011   63.4  0.0763   48.8  0.2162  -97.8
 2.900  0.2687  167.2   6.766   61.8  0.0787   48.0  0.2062 -100.7
 3.000  0.2738  164.0   6.526   60.1  0.0810   47.2  0.1968 -103.8
 3.100  0.2781  160.7   6.320   58.7  0.0832   46.1  0.1882 -106.9
 3.200  0.2832  157.5   6.117   57.2  0.0854   45.2  0.1802 -110.3
 3.300  0.2892  154.4   5.919   55.6  0.0876   44.3  0.1728 -114.0
 3.400  0.2960  151.5   5.726   53.9  0.0899   43.4  0.1663 -118.0
 3.500  0.3035  148.7   5.538   52.1  0.0922   42.6  0.1606 -122.3
 3.600  0.3093  146.0   5.381   50.8  0.0942   41.6  0.1553 -126.6
 3.700  0.3159  143.4   5.227   49.4  0.0962   40.6  0.1508 -131.1
 3.800  0.3231  140.9   5.076   47.9  0.0983   39.7  0.1474 -135.8
 3.900  0.3308  138.5   4.929   46.4  0.1004   38.8  0.1450 -140.8
 4.000  0.3391  136.2   4.786   44.7  0.1025   37.9  0.1437 -145.9
 4.100  0.3457  134.2   4.662   43.4  0.1044   36.9  0.1421 -150.5
 4.200  0.3526  132.2   4.540   42.1  0.1063   36.0  0.1415 -155.3
 4.300  0.3600  130.2   4.421   40.7  0.1082   35.0  0.1418 -160.1
 4.400  0.3677  128.4   4.305   39.2  0.1101   34.1  0.1432 -164.8
 4.500  0.3758  126.7   4.192   37.7  0.1121   33.3  0.1454 -169.4
 4.600  0.3817  124.9   4.093   36.5  0.1139   32.3  0.1456 -173.4
 4.700  0.3879  123.3   3.996   35.2  0.1157   31.4  0.1466 -177.5
 4.800  0.3944  121.6   3.900   33.9  0.1175   30.6  0.1482  178.5
 4.900  0.4012  120.1   3.808   32.5  0.1194   29.7  0.1506  174.6
 5.000  0.4083  118.6   3.717   31.0  0.1212   28.9  0.1536  170.9
 5.100  0.4127  117.2   3.638   29.9  0.1230   27.9  0.1544  167.7
 5.200  0.4174  115.8   3.560   28.7  0.1248   27.0  0.1556  164.6
 5.300  0.4223  114.5   3.484   27.5  0.1267   26.1  0.1573  161.5
 5.400  0.4274  113.2   3.409   26.2  0.1285   25.3  0.1595  158.5
 5.500  0.4327  112.0   3.337   24.9  0.1304   24.5  0.1620  155.6
 5.600  0.4355  110.8   3.273   23.7  0.1322   23.5  0.1640  153.0
 5.700  0.4384  109.7   3.210   22.5  0.1339   22.5  0.1663  150.5
 5.800  0.4415  108.7   3.149   21.3  0.1357   21.6  0.1690  148.1
 5.900  0.4448  107.6   3.090   20.0  0.1376   20.7  0.1719  145.7
 6.000  0.4482  106.5   3.032   18.7  0.1394   19.9  0.1751  143.4
 6.100  0.4514  105.4   2.978   17.5  0.1410   18.9  0.1781  141.2
 6.200  0.4548  104.3   2.925   16.4  0.1427   17.9  0.1814  139.0
 6.300  0.4584  103.2   2.873   15.1  0.1444   16.9  0.1850  136.9
 6.400  0.4621  102.2   2.823   13.9  0.1461   16.0  0.1887  134.9
 6.500  0.4660  101.1   2.774   12.6  0.1479   15.1  0.1928  133.0
 6.600  0.4697   99.8   2.728   11.4  0.1493   14.1  0.1961  130.9
 6.700  0.4736   98.5   2.682   10.2  0.1509   13.1  0.1997  129.0
 6.800  0.4777   97.2   2.638    9.0  0.1524   12.2  0.2035  127.1
 6.900  0.4821   96.0   2.596    7.7  0.1540   11.2  0.2075  125.2
 7.000  0.4867   94.7   2.554    6.4  0.1557   10.3  0.2117  123.5
 7.100  0.4915   93.3   2.515    5.3  0.1571    9.3  0.2161  121.6
 7.200  0.4965   92.0   2.476    4.1  0.1586    8.3  0.2208  119.9
 7.300  0.5018   90.6   2.439    2.9  0.1601    7.3  0.2256  118.2
 7.400  0.5074   89.3   2.403    1.6  0.1616    6.4  0.2307  116.5
 7.500  0.5132   88.0   2.368    0.3  0.1633    5.4  0.2359  115.0
 7.600  0.5194   86.6   2.331   -0.9  0.1644    4.3  0.2414  113.0
 7.700  0.5258   85.3   2.295   -2.2  0.1656    3.3  0.2472  111.1
 7.800  0.5325   83.9   2.260   -3.5  0.1669    2.2  0.2533  109.4
 7.900  0.5395   82.6   2.226   -4.9  0.1682    1.2  0.2596  107.7
 8.000  0.5468   81.3   2.194   -6.3  0.1696    0.1  0.2662  106.0
 8.500  0.5826   74.8   2.010  -12.7  0.1732   -5.4  0.3038   96.7
 9.000  0.6240   69.4   1.834  -18.5  0.1738  -10.3  0.3549   88.9
 9.500  0.6682   65.0   1.672  -23.2  0.1733  -14.1  0.4108   83.5
10.000  0.7015   61.2   1.536  -27.1  0.1737  -16.9  0.4568   80.1
10.500  0.7218   58.3   1.436  -29.8  0.1768  -18.7  0.4815   78.1
11.000  0.7281   57.2   1.413  -32.6  0.1868  -21.0  0.4948   78.2
11.500  0.7433   57.0   1.407  -38.3  0.1977  -25.9  0.5141   78.6
12.000  0.7539   55.0   1.338  -44.9  0.2009  -31.3  0.5312   77.1
12.500  0.7391   51.9   1.261  -49.6  0.2035  -35.2  0.5203   73.4
13.000  0.7082   49.8   1.215  -54.1  0.2082  -39.7  0.4932   70.6
13.500  0.7081   48.4   1.198  -60.2  0.2139  -44.8  0.4935   70.2
14.000  0.7358   44.1   1.123  -68.0  0.2106  -51.6  0.5163   66.7
14.500  0.7415   38.3   1.002  -71.5  0.2011  -54.2  0.5181   58.9
15.000  0.7286   34.5   0.976  -72.7  0.2058  -56.0  0.5110   51.9
!
!  f       NFmin   Gammaopt  rn/50
! GHz       dB    MAG  ANG    -
 0.450      2.26  0.05  -41   0.28
 0.900      2.24  0.05  -56   0.30
 1.900      2.41  0.06  -76   0.30
 2.400      2.41  0.09  -92   0.29
 3.500      2.36  0.10  -92   0.31
!
! (c) 2015  Infineon Technologies AG, Munich
