! Infineon Technologies  Discrete & RF Semiconductors
! BFP540FESD
! VCE = 0.50 V,  IC =  25 mA
! Common Emitter S-Parameters:                            Nov 2015
# GHz  S  MA  R  50
!  f         S11            S21            S12            S22
! GHz     MAG   ANG      MAG   ANG      MAG   ANG      MAG   ANG
 0.010  0.4450   -4.4  43.879  177.5  0.0016   94.7  0.8249   -4.6
 0.015  0.4425   -8.0  43.038  176.4  0.0022   89.4  0.8268   -4.6
 0.020  0.4418  -11.7  42.212  175.3  0.0029   86.5  0.8287   -4.6
 0.025  0.4414  -13.8  42.166  174.1  0.0035   86.4  0.8260   -6.0
 0.030  0.4416  -15.9  42.137  172.9  0.0041   86.3  0.8239   -7.4
 0.035  0.4424  -18.0  42.127  171.8  0.0047   86.2  0.8222   -8.9
 0.040  0.4438  -20.1  42.134  170.6  0.0053   86.2  0.8211  -10.3
 0.045  0.4457  -22.2  42.160  169.4  0.0059   86.1  0.8205  -11.8
 0.050  0.4483  -24.3  42.203  168.2  0.0065   86.1  0.8204  -13.2
 0.055  0.4448  -26.4  41.920  167.1  0.0070   84.3  0.8150  -14.5
 0.060  0.4419  -28.6  41.654  165.9  0.0076   82.7  0.8100  -15.8
 0.065  0.4396  -30.8  41.404  164.8  0.0081   81.4  0.8054  -17.1
 0.070  0.4380  -33.0  41.172  163.6  0.0087   80.2  0.8012  -18.4
 0.075  0.4371  -35.2  40.956  162.4  0.0093   79.2  0.7975  -19.8
 0.080  0.4368  -37.5  40.758  161.3  0.0098   78.3  0.7942  -21.1
 0.085  0.4371  -39.7  40.578  160.1  0.0104   77.5  0.7913  -22.5
 0.090  0.4382  -41.9  40.415  158.8  0.0110   76.8  0.7889  -23.8
 0.095  0.4399  -44.1  40.271  157.6  0.0115   76.1  0.7870  -25.2
 0.100  0.4422  -46.3  40.145  156.4  0.0121   75.5  0.7855  -26.6
 0.105  0.4400  -48.4  39.791  155.4  0.0126   75.0  0.7786  -27.7
 0.110  0.4384  -50.5  39.448  154.5  0.0130   74.4  0.7721  -28.8
 0.115  0.4373  -52.6  39.116  153.5  0.0135   74.0  0.7658  -30.0
 0.120  0.4369  -54.7  38.797  152.5  0.0140   73.5  0.7599  -31.2
 0.125  0.4370  -56.8  38.490  151.5  0.0144   73.1  0.7543  -32.3
 0.130  0.4378  -58.9  38.195  150.4  0.0149   72.7  0.7490  -33.5
 0.135  0.4391  -61.0  37.913  149.4  0.0154   72.4  0.7440  -34.8
 0.140  0.4410  -63.1  37.644  148.3  0.0159   72.0  0.7394  -36.0
 0.145  0.4435  -65.2  37.388  147.2  0.0163   71.7  0.7351  -37.2
 0.150  0.4466  -67.2  37.146  146.1  0.0168   71.4  0.7312  -38.5
 0.155  0.4447  -68.6  36.779  145.3  0.0172   70.8  0.7238  -39.4
 0.160  0.4431  -70.0  36.418  144.5  0.0177   70.3  0.7167  -40.4
 0.165  0.4417  -71.5  36.065  143.7  0.0181   69.8  0.7097  -41.4
 0.170  0.4406  -72.9  35.718  142.9  0.0185   69.3  0.7030  -42.4
 0.175  0.4398  -74.3  35.379  142.1  0.0189   68.9  0.6964  -43.4
 0.180  0.4393  -75.8  35.048  141.3  0.0194   68.5  0.6901  -44.5
 0.185  0.4390  -77.2  34.725  140.4  0.0198   68.0  0.6841  -45.5
 0.190  0.4391  -78.7  34.409  139.5  0.0202   67.6  0.6782  -46.6
 0.195  0.4394  -80.2  34.102  138.6  0.0207   67.3  0.6726  -47.7
 0.200  0.4400  -81.6  33.803  137.7  0.0211   66.9  0.6673  -48.8
 0.220  0.4369  -87.1  32.400  135.0  0.0222   64.9  0.6435  -52.3
 0.240  0.4378  -92.6  31.078  132.0  0.0232   63.1  0.6223  -56.0
 0.260  0.4380  -97.6  29.839  129.3  0.0245   62.0  0.6008  -59.4
 0.280  0.4367 -102.3  28.651  127.0  0.0258   61.7  0.5781  -62.3
 0.300  0.4383 -107.0  27.514  124.5  0.0271   61.4  0.5571  -65.5
 0.320  0.4350 -110.3  26.500  122.9  0.0280   60.5  0.5381  -67.8
 0.340  0.4333 -113.7  25.508  121.2  0.0290   59.6  0.5200  -70.2
 0.360  0.4330 -117.1  24.541  119.4  0.0299   58.8  0.5028  -72.8
 0.380  0.4343 -120.5  23.601  117.4  0.0308   58.1  0.4869  -75.6
 0.400  0.4370 -123.8  22.692  115.2  0.0318   57.4  0.4721  -78.6
 0.420  0.4362 -126.3  21.953  114.0  0.0325   57.4  0.4579  -80.6
 0.440  0.4363 -128.8  21.225  112.7  0.0332   57.3  0.4443  -82.6
 0.450  0.4366 -130.0  20.865  112.0  0.0336   57.3  0.4377  -83.7
 0.460  0.4372 -131.3  20.509  111.3  0.0340   57.3  0.4313  -84.9
 0.480  0.4389 -133.7  19.805  109.8  0.0347   57.2  0.4190  -87.2
 0.500  0.4414 -136.2  19.116  108.2  0.0354   57.2  0.4074  -89.7
 0.520  0.4409 -138.0  18.553  107.3  0.0362   57.3  0.3974  -91.3
 0.540  0.4409 -139.8  17.994  106.3  0.0370   57.5  0.3877  -93.0
 0.560  0.4413 -141.6  17.442  105.3  0.0378   57.6  0.3784  -94.7
 0.580  0.4421 -143.3  16.895  104.2  0.0386   57.7  0.3695  -96.6
 0.600  0.4434 -145.1  16.355  103.0  0.0394   57.8  0.3609  -98.5
 0.620  0.4426 -146.6  15.940  102.2  0.0402   57.6  0.3542  -99.9
 0.640  0.4422 -148.1  15.528  101.4  0.0410   57.4  0.3478 -101.5
 0.660  0.4420 -149.5  15.119  100.5  0.0418   57.2  0.3416 -103.0
 0.680  0.4421 -151.0  14.715   99.6  0.0426   57.0  0.3357 -104.6
 0.700  0.4425 -152.5  14.314   98.6  0.0434   56.8  0.3301 -106.3
 0.720  0.4438 -153.7  13.969   97.9  0.0441   56.8  0.3250 -107.9
 0.740  0.4454 -155.0  13.626   97.2  0.0448   56.9  0.3202 -109.5
 0.760  0.4471 -156.2  13.285   96.5  0.0454   56.9  0.3157 -111.2
 0.780  0.4491 -157.4  12.947   95.7  0.0461   57.0  0.3115 -112.9
 0.800  0.4512 -158.6  12.611   94.9  0.0468   57.0  0.3075 -114.7
 0.820  0.4511 -159.6  12.340   94.3  0.0476   57.2  0.3034 -115.9
 0.840  0.4510 -160.6  12.071   93.7  0.0484   57.3  0.2995 -117.1
 0.860  0.4512 -161.5  11.803   93.1  0.0493   57.5  0.2957 -118.3
 0.880  0.4514 -162.5  11.537   92.4  0.0501   57.7  0.2920 -119.6
 0.900  0.4518 -163.5  11.272   91.7  0.0509   57.8  0.2885 -120.9
 0.920  0.4522 -164.4  11.053   91.2  0.0517   57.8  0.2854 -122.1
 0.940  0.4527 -165.3  10.834   90.6  0.0525   57.8  0.2825 -123.3
 0.960  0.4533 -166.1  10.617   90.1  0.0532   57.8  0.2797 -124.5
 0.980  0.4540 -167.0  10.400   89.5  0.0540   57.8  0.2770 -125.8
 1.000  0.4548 -167.9  10.185   88.9  0.0548   57.8  0.2745 -127.1
 1.020  0.4557 -168.6  10.002   88.4  0.0554   57.8  0.2734 -128.3
 1.040  0.4566 -169.4   9.820   87.9  0.0560   57.8  0.2724 -129.6
 1.060  0.4576 -170.1   9.639   87.4  0.0567   57.7  0.2715 -130.8
 1.080  0.4587 -170.9   9.459   86.9  0.0573   57.7  0.2707 -132.0
 1.100  0.4599 -171.6   9.279   86.3  0.0579   57.7  0.2701 -133.3
 1.120  0.4609 -172.3   9.122   85.9  0.0587   57.6  0.2686 -134.3
 1.140  0.4620 -173.1   8.965   85.4  0.0596   57.6  0.2671 -135.3
 1.160  0.4631 -173.8   8.809   85.0  0.0604   57.5  0.2658 -136.4
 1.180  0.4643 -174.5   8.653   84.5  0.0613   57.5  0.2645 -137.4
 1.200  0.4656 -175.2   8.498   84.0  0.0621   57.4  0.2633 -138.5
 1.220  0.4656 -175.7   8.367   83.6  0.0628   57.5  0.2613 -139.4
 1.240  0.4657 -176.2   8.237   83.2  0.0635   57.6  0.2593 -140.4
 1.260  0.4658 -176.7   8.107   82.7  0.0643   57.6  0.2574 -141.3
 1.280  0.4659 -177.2   7.978   82.3  0.0650   57.7  0.2556 -142.3
 1.300  0.4661 -177.7   7.849   81.8  0.0657   57.8  0.2538 -143.3
 1.320  0.4669 -178.3   7.734   81.4  0.0665   57.7  0.2544 -144.3
 1.340  0.4678 -178.9   7.619   81.0  0.0673   57.7  0.2551 -145.4
 1.360  0.4688 -179.4   7.504   80.6  0.0681   57.6  0.2559 -146.4
 1.380  0.4698  180.0   7.390   80.1  0.0689   57.6  0.2568 -147.4
 1.400  0.4708  179.4   7.276   79.7  0.0697   57.5  0.2577 -148.4
 1.420  0.4724  179.0   7.172   79.3  0.0705   57.4  0.2574 -149.1
 1.440  0.4740  178.6   7.067   79.0  0.0713   57.3  0.2571 -149.9
 1.460  0.4757  178.1   6.964   78.6  0.0720   57.3  0.2569 -150.6
 1.480  0.4774  177.7   6.860   78.2  0.0728   57.2  0.2567 -151.4
 1.500  0.4791  177.3   6.757   77.8  0.0736   57.1  0.2565 -152.1
 1.520  0.4788  176.8   6.672   77.5  0.0743   57.1  0.2556 -153.0
 1.540  0.4785  176.2   6.587   77.1  0.0751   57.1  0.2548 -153.8
 1.560  0.4783  175.7   6.502   76.7  0.0758   57.0  0.2540 -154.7
 1.580  0.4781  175.1   6.417   76.4  0.0766   57.0  0.2533 -155.6
 1.600  0.4780  174.6   6.333   76.0  0.0773   57.0  0.2527 -156.5
 1.620  0.4789  174.1   6.254   75.7  0.0780   56.9  0.2538 -157.2
 1.640  0.4798  173.7   6.175   75.3  0.0787   56.8  0.2550 -157.9
 1.660  0.4808  173.2   6.096   74.9  0.0795   56.6  0.2562 -158.6
 1.680  0.4818  172.8   6.018   74.6  0.0802   56.5  0.2575 -159.3
 1.700  0.4828  172.3   5.940   74.2  0.0809   56.4  0.2588 -160.0
 1.720  0.4833  172.0   5.869   73.9  0.0816   56.4  0.2592 -160.4
 1.740  0.4838  171.6   5.798   73.6  0.0824   56.4  0.2597 -160.8
 1.760  0.4843  171.3   5.728   73.3  0.0831   56.4  0.2601 -161.3
 1.780  0.4848  170.9   5.657   72.9  0.0839   56.4  0.2606 -161.7
 1.800  0.4854  170.6   5.587   72.6  0.0846   56.4  0.2611 -162.1
 1.820  0.4858  170.3   5.526   72.3  0.0854   56.3  0.2603 -162.9
 1.840  0.4861  170.0   5.466   72.0  0.0863   56.2  0.2595 -163.7
 1.860  0.4865  169.8   5.405   71.7  0.0871   56.2  0.2588 -164.5
 1.880  0.4869  169.5   5.345   71.3  0.0880   56.1  0.2581 -165.3
 1.900  0.4873  169.2   5.285   71.0  0.0888   56.0  0.2575 -166.1
 1.920  0.4881  168.7   5.225   70.7  0.0894   55.9  0.2586 -166.5
 1.940  0.4889  168.2   5.165   70.4  0.0900   55.9  0.2597 -166.9
 1.960  0.4898  167.6   5.106   70.1  0.0907   55.8  0.2609 -167.3
 1.980  0.4907  167.1   5.046   69.7  0.0913   55.8  0.2620 -167.7
 2.000  0.4917  166.6   4.987   69.4  0.0919   55.7  0.2632 -168.1
 2.020  0.4917  166.4   4.940   69.2  0.0927   55.6  0.2633 -168.6
 2.040  0.4918  166.2   4.893   68.9  0.0934   55.5  0.2633 -169.0
 2.060  0.4919  165.9   4.846   68.6  0.0942   55.4  0.2634 -169.5
 2.080  0.4919  165.7   4.799   68.4  0.0949   55.3  0.2635 -169.9
 2.100  0.4920  165.5   4.752   68.1  0.0957   55.2  0.2636 -170.4
 2.120  0.4921  165.3   4.705   67.8  0.0965   55.1  0.2638 -170.9
 2.140  0.4922  165.1   4.658   67.6  0.0972   55.1  0.2639 -171.3
 2.160  0.4923  164.8   4.612   67.3  0.0980   55.0  0.2641 -171.8
 2.180  0.4924  164.6   4.565   67.0  0.0987   54.9  0.2643 -172.2
 2.200  0.4925  164.4   4.519   66.7  0.0995   54.8  0.2645 -172.7
 2.220  0.4930  164.0   4.479   66.5  0.1002   54.7  0.2652 -173.0
 2.240  0.4935  163.6   4.439   66.2  0.1010   54.6  0.2659 -173.3
 2.260  0.4941  163.2   4.398   66.0  0.1017   54.5  0.2666 -173.6
 2.280  0.4947  162.8   4.358   65.7  0.1025   54.5  0.2673 -173.9
 2.300  0.4953  162.4   4.318   65.5  0.1032   54.4  0.2681 -174.2
 2.320  0.4959  162.0   4.279   65.2  0.1040   54.3  0.2688 -174.5
 2.340  0.4966  161.6   4.239   64.9  0.1047   54.2  0.2695 -174.8
 2.360  0.4973  161.2   4.199   64.7  0.1055   54.2  0.2703 -175.1
 2.380  0.4980  160.8   4.159   64.4  0.1062   54.1  0.2710 -175.4
 2.400  0.4987  160.4   4.120   64.1  0.1070   54.0  0.2718 -175.7
 2.420  0.4990  160.2   4.087   63.9  0.1078   53.9  0.2724 -176.2
 2.440  0.4992  160.1   4.054   63.6  0.1086   53.8  0.2730 -176.7
 2.460  0.4995  159.9   4.021   63.4  0.1093   53.7  0.2736 -177.1
 2.480  0.4997  159.7   3.988   63.1  0.1101   53.6  0.2743 -177.6
 2.500  0.5000  159.5   3.955   62.9  0.1109   53.5  0.2750 -178.1
 2.520  0.5003  159.4   3.923   62.6  0.1117   53.4  0.2757 -178.5
 2.540  0.5005  159.2   3.890   62.3  0.1125   53.4  0.2764 -179.0
 2.560  0.5008  159.0   3.858   62.1  0.1132   53.3  0.2771 -179.5
 2.580  0.5011  158.9   3.825   61.8  0.1140   53.2  0.2778 -179.9
 2.600  0.5014  158.7   3.793   61.5  0.1148   53.1  0.2786  179.6
 2.620  0.5012  158.5   3.765   61.3  0.1156   53.0  0.2785  179.4
 2.640  0.5010  158.2   3.737   61.0  0.1164   52.8  0.2783  179.2
 2.660  0.5008  158.0   3.710   60.8  0.1172   52.7  0.2782  178.9
 2.680  0.5006  157.7   3.682   60.5  0.1180   52.6  0.2781  178.7
 2.700  0.5004  157.5   3.655   60.3  0.1188   52.5  0.2780  178.5
 2.720  0.5003  157.2   3.627   60.0  0.1197   52.4  0.2779  178.3
 2.740  0.5001  157.0   3.600   59.8  0.1205   52.2  0.2778  178.1
 2.760  0.5000  156.7   3.572   59.5  0.1213   52.1  0.2777  177.8
 2.780  0.4998  156.5   3.545   59.3  0.1221   52.0  0.2776  177.6
 2.800  0.4997  156.2   3.518   59.0  0.1229   51.9  0.2775  177.4
 2.820  0.5000  156.0   3.494   58.8  0.1236   51.8  0.2780  177.2
 2.840  0.5003  155.8   3.469   58.5  0.1243   51.7  0.2784  177.0
 2.860  0.5007  155.5   3.445   58.3  0.1250   51.6  0.2789  176.8
 2.880  0.5010  155.3   3.421   58.0  0.1257   51.5  0.2794  176.6
 2.900  0.5014  155.1   3.397   57.8  0.1264   51.4  0.2799  176.3
 2.920  0.5017  154.9   3.373   57.5  0.1272   51.3  0.2804  176.1
 2.940  0.5021  154.7   3.349   57.3  0.1279   51.3  0.2809  175.9
 2.960  0.5024  154.4   3.325   57.0  0.1286   51.2  0.2814  175.7
 2.980  0.5028  154.2   3.301   56.8  0.1293   51.1  0.2819  175.5
 3.000  0.5032  154.0   3.277   56.5  0.1300   51.0  0.2824  175.3
 3.100  0.5030  152.9   3.181   55.5  0.1337   50.2  0.2826  174.2
 3.200  0.5031  151.8   3.086   54.4  0.1374   49.4  0.2830  173.0
 3.300  0.5033  150.8   2.992   53.2  0.1412   48.7  0.2834  171.9
 3.400  0.5036  149.7   2.899   52.0  0.1450   48.0  0.2840  170.7
 3.500  0.5042  148.6   2.808   50.7  0.1488   47.3  0.2847  169.6
 3.600  0.5039  148.0   2.740   49.7  0.1528   46.7  0.2847  168.4
 3.700  0.5037  147.3   2.674   48.6  0.1568   46.1  0.2849  167.1
 3.800  0.5035  146.7   2.608   47.4  0.1608   45.5  0.2852  165.9
 3.900  0.5034  146.0   2.543   46.2  0.1648   45.0  0.2856  164.6
 4.000  0.5033  145.4   2.480   44.9  0.1688   44.5  0.2862  163.4
 4.100  0.5029  144.5   2.425   43.8  0.1725   43.5  0.2859  162.1
 4.200  0.5027  143.6   2.371   42.7  0.1762   42.5  0.2858  160.9
 4.300  0.5026  142.6   2.319   41.5  0.1800   41.5  0.2858  159.6
 4.400  0.5026  141.7   2.267   40.3  0.1838   40.6  0.2859  158.4
 4.500  0.5027  140.8   2.216   39.0  0.1877   39.7  0.2862  157.1
 4.600  0.5028  140.0   2.175   37.9  0.1914   38.8  0.2853  155.8
 4.700  0.5031  139.1   2.135   36.7  0.1952   38.0  0.2845  154.5
 4.800  0.5035  138.3   2.096   35.5  0.1990   37.1  0.2839  153.2
 4.900  0.5039  137.4   2.058   34.2  0.2029   36.4  0.2835  151.8
 5.000  0.5045  136.6   2.021   32.9  0.2068   35.6  0.2832  150.5
 5.100  0.5022  135.3   1.984   31.8  0.2103   34.6  0.2847  149.2
 5.200  0.5002  134.1   1.947   30.6  0.2139   33.7  0.2864  147.9
 5.300  0.4984  132.8   1.911   29.4  0.2175   32.8  0.2882  146.6
 5.400  0.4969  131.5   1.876   28.2  0.2212   31.9  0.2902  145.3
 5.500  0.4956  130.2   1.842   26.9  0.2249   31.1  0.2923  144.0
 5.600  0.4956  129.0   1.815   25.8  0.2284   30.1  0.2927  142.7
 5.700  0.4959  127.9   1.788   24.7  0.2320   29.2  0.2934  141.3
 5.800  0.4963  126.7   1.762   23.5  0.2356   28.3  0.2941  140.0
 5.900  0.4970  125.6   1.737   22.3  0.2393   27.4  0.2950  138.7
 6.000  0.4978  124.4   1.712   21.1  0.2430   26.6  0.2961  137.4
!
!  f       NFmin   Gammaopt  rn/50
! GHz       dB    MAG  ANG    -
!
! noise parameter not available yet for this operation point!
!
! (c) 2015  Infineon Technologies AG, Munich
