! Infineon Technologies  Discrete & RF Semiconductors
! BFP540FESD
! VCE =  1.5 V,  IC =  70 mA
! Common Emitter S-Parameters:                            Nov 2015
# GHz  S  MA  R  50
!  f         S11            S21            S12            S22
! GHz     MAG   ANG      MAG   ANG      MAG   ANG      MAG   ANG
 0.010  0.0848  -26.7  50.139  177.6  0.0015  121.5  0.6961   -1.8
 0.015  0.0886  -36.0  49.380  176.5  0.0019  112.6  0.7028   -1.7
 0.020  0.0946  -44.3  48.640  175.3  0.0024  107.0  0.7095   -1.7
 0.025  0.0993  -50.3  48.595  173.9  0.0026  101.6  0.7091   -3.1
 0.030  0.1050  -55.7  48.578  172.6  0.0029   97.2  0.7091   -4.5
 0.035  0.1115  -60.6  48.589  171.2  0.0032   93.6  0.7095   -5.9
 0.040  0.1187  -64.8  48.628  169.8  0.0035   90.6  0.7103   -7.2
 0.045  0.1265  -68.6  48.694  168.5  0.0038   88.0  0.7115   -8.6
 0.050  0.1348  -71.9  48.788  167.1  0.0041   85.8  0.7132  -10.0
 0.055  0.1398  -75.9  48.347  165.9  0.0044   85.0  0.7085  -11.2
 0.060  0.1455  -79.7  47.930  164.6  0.0047   84.3  0.7042  -12.4
 0.065  0.1517  -83.1  47.537  163.3  0.0050   83.7  0.7001  -13.6
 0.070  0.1585  -86.3  47.168  162.0  0.0053   83.1  0.6963  -14.8
 0.075  0.1656  -89.2  46.824  160.6  0.0056   82.6  0.6929  -16.0
 0.080  0.1732  -91.9  46.507  159.3  0.0059   82.2  0.6898  -17.2
 0.085  0.1811  -94.3  46.215  157.9  0.0062   81.8  0.6870  -18.5
 0.090  0.1893  -96.5  45.951  156.5  0.0065   81.4  0.6845  -19.8
 0.095  0.1978  -98.5  45.714  155.1  0.0068   81.1  0.6824  -21.0
 0.100  0.2065 -100.4  45.504  153.7  0.0071   80.8  0.6806  -22.3
 0.105  0.2125 -102.5  45.010  152.7  0.0074   79.9  0.6738  -23.2
 0.110  0.2188 -104.6  44.530  151.7  0.0077   79.1  0.6672  -24.1
 0.115  0.2254 -106.5  44.065  150.7  0.0079   78.4  0.6608  -25.0
 0.120  0.2322 -108.3  43.614  149.6  0.0082   77.7  0.6545  -26.0
 0.125  0.2392 -110.0  43.178  148.5  0.0085   77.1  0.6485  -26.9
 0.130  0.2464 -111.6  42.758  147.4  0.0088   76.5  0.6426  -27.9
 0.135  0.2538 -113.1  42.354  146.3  0.0090   75.9  0.6369  -28.9
 0.140  0.2613 -114.5  41.966  145.2  0.0093   75.4  0.6314  -29.9
 0.145  0.2691 -115.8  41.596  144.0  0.0096   74.9  0.6261  -31.0
 0.150  0.2769 -117.1  41.243  142.8  0.0099   74.4  0.6210  -32.0
 0.155  0.2804 -118.3  40.730  142.0  0.0101   73.9  0.6139  -32.7
 0.160  0.2841 -119.5  40.226  141.1  0.0104   73.3  0.6069  -33.5
 0.165  0.2879 -120.7  39.731  140.3  0.0106   72.8  0.6000  -34.2
 0.170  0.2918 -121.8  39.245  139.4  0.0109   72.4  0.5932  -35.0
 0.175  0.2958 -122.9  38.768  138.5  0.0111   71.9  0.5865  -35.8
 0.180  0.2999 -124.0  38.302  137.5  0.0113   71.5  0.5799  -36.6
 0.185  0.3042 -125.0  37.846  136.6  0.0116   71.1  0.5734  -37.4
 0.190  0.3085 -126.1  37.400  135.6  0.0118   70.7  0.5671  -38.3
 0.195  0.3129 -127.0  36.966  134.6  0.0121   70.3  0.5609  -39.1
 0.200  0.3174 -128.0  36.543  133.6  0.0123   69.9  0.5548  -40.0
 0.220  0.3294 -131.7  34.807  131.0  0.0130   70.1  0.5324  -42.4
 0.240  0.3427 -135.1  33.152  128.1  0.0137   70.2  0.5111  -45.0
 0.260  0.3552 -138.2  31.624  125.4  0.0146   69.7  0.4904  -47.2
 0.280  0.3668 -141.2  30.191  123.1  0.0157   68.5  0.4698  -48.9
 0.300  0.3793 -143.9  28.813  120.5  0.0169   67.5  0.4496  -50.7
 0.320  0.3836 -146.1  27.650  119.0  0.0176   67.8  0.4333  -51.9
 0.340  0.3884 -148.2  26.508  117.4  0.0183   68.1  0.4171  -53.3
 0.360  0.3937 -150.3  25.389  115.6  0.0189   68.4  0.4013  -54.7
 0.380  0.3996 -152.3  24.296  113.7  0.0196   68.7  0.3857  -56.3
 0.400  0.4059 -154.3  23.233  111.6  0.0203   68.9  0.3704  -58.0
 0.420  0.4097 -155.8  22.426  110.5  0.0210   68.9  0.3584  -59.0
 0.440  0.4138 -157.3  21.629  109.3  0.0217   68.9  0.3465  -60.0
 0.450  0.4159 -158.0  21.234  108.7  0.0220   68.8  0.3406  -60.5
 0.460  0.4181 -158.7  20.841  108.0  0.0223   68.8  0.3347  -61.1
 0.480  0.4227 -160.1  20.064  106.7  0.0230   68.8  0.3231  -62.2
 0.500  0.4276 -161.5  19.300  105.2  0.0237   68.8  0.3116  -63.5
 0.520  0.4300 -162.5  18.702  104.4  0.0244   68.8  0.3032  -64.1
 0.540  0.4325 -163.5  18.108  103.5  0.0251   68.8  0.2949  -64.8
 0.560  0.4351 -164.5  17.518  102.5  0.0258   68.7  0.2866  -65.5
 0.580  0.4379 -165.4  16.934  101.5  0.0265   68.7  0.2783  -66.3
 0.600  0.4408 -166.4  16.356  100.4  0.0272   68.7  0.2701  -67.1
 0.620  0.4417 -167.4  15.923   99.7  0.0279   68.7  0.2641  -67.7
 0.640  0.4427 -168.3  15.493   98.9  0.0286   68.7  0.2582  -68.4
 0.660  0.4438 -169.3  15.066   98.1  0.0293   68.8  0.2523  -69.1
 0.680  0.4450 -170.3  14.641   97.2  0.0300   68.8  0.2464  -69.8
 0.700  0.4464 -171.2  14.221   96.3  0.0307   68.8  0.2406  -70.6
 0.720  0.4489 -172.0  13.873   95.7  0.0314   68.9  0.2353  -71.4
 0.740  0.4515 -172.7  13.527   95.0  0.0321   69.0  0.2300  -72.3
 0.760  0.4542 -173.4  13.183   94.4  0.0329   69.1  0.2248  -73.2
 0.780  0.4570 -174.2  12.840   93.7  0.0336   69.1  0.2197  -74.1
 0.800  0.4598 -174.9  12.500   92.9  0.0343   69.2  0.2146  -75.1
 0.820  0.4607 -175.5  12.228   92.4  0.0350   69.2  0.2107  -75.7
 0.840  0.4616 -176.2  11.958   91.8  0.0356   69.2  0.2067  -76.2
 0.860  0.4626 -176.8  11.688   91.2  0.0363   69.1  0.2028  -76.8
 0.880  0.4636 -177.5  11.421   90.6  0.0369   69.1  0.1990  -77.5
 0.900  0.4647 -178.1  11.154   89.9  0.0376   69.1  0.1951  -78.1
 0.920  0.4653 -178.7  10.931   89.4  0.0383   69.1  0.1917  -78.6
 0.940  0.4660 -179.2  10.709   88.9  0.0390   69.1  0.1883  -79.2
 0.960  0.4667 -179.8  10.487   88.4  0.0396   69.2  0.1850  -79.8
 0.980  0.4674  179.7  10.267   87.9  0.0403   69.2  0.1816  -80.4
 1.000  0.4682  179.1  10.047   87.3  0.0410   69.2  0.1783  -81.0
 1.020  0.4698  178.7   9.865   86.9  0.0418   69.2  0.1758  -82.0
 1.040  0.4714  178.2   9.685   86.4  0.0425   69.1  0.1734  -83.1
 1.060  0.4730  177.8   9.504   85.9  0.0433   69.1  0.1711  -84.2
 1.080  0.4747  177.3   9.325   85.4  0.0440   69.0  0.1688  -85.3
 1.100  0.4764  176.9   9.146   84.9  0.0448   69.0  0.1666  -86.4
 1.120  0.4780  176.4   8.989   84.5  0.0455   68.9  0.1644  -87.0
 1.140  0.4797  175.8   8.832   84.1  0.0462   68.7  0.1622  -87.6
 1.160  0.4814  175.3   8.676   83.6  0.0468   68.6  0.1601  -88.2
 1.180  0.4831  174.8   8.521   83.2  0.0475   68.5  0.1579  -88.8
 1.200  0.4849  174.3   8.366   82.7  0.0482   68.4  0.1558  -89.5
 1.220  0.4844  173.9   8.236   82.3  0.0489   68.3  0.1533  -90.0
 1.240  0.4839  173.6   8.107   81.9  0.0496   68.2  0.1508  -90.6
 1.260  0.4834  173.2   7.978   81.5  0.0503   68.2  0.1483  -91.1
 1.280  0.4829  172.9   7.850   81.0  0.0510   68.1  0.1458  -91.7
 1.300  0.4825  172.5   7.722   80.6  0.0517   68.0  0.1433  -92.3
 1.320  0.4838  172.1   7.609   80.2  0.0524   67.8  0.1419  -93.5
 1.340  0.4851  171.7   7.496   79.8  0.0531   67.7  0.1407  -94.8
 1.360  0.4864  171.2   7.383   79.4  0.0539   67.5  0.1394  -96.1
 1.380  0.4877  170.8   7.271   79.0  0.0546   67.4  0.1383  -97.4
 1.400  0.4891  170.4   7.159   78.6  0.0553   67.2  0.1372  -98.7
 1.420  0.4908  170.2   7.057   78.3  0.0560   67.2  0.1363  -99.5
 1.440  0.4926  170.0   6.955   77.9  0.0566   67.1  0.1354 -100.3
 1.460  0.4944  169.7   6.854   77.6  0.0573   67.1  0.1345 -101.1
 1.480  0.4961  169.5   6.753   77.2  0.0579   67.0  0.1336 -102.0
 1.500  0.4979  169.3   6.652   76.8  0.0586   67.0  0.1328 -102.8
 1.520  0.4978  168.8   6.567   76.5  0.0594   66.8  0.1308 -103.6
 1.540  0.4978  168.3   6.482   76.1  0.0601   66.7  0.1289 -104.4
 1.560  0.4977  167.9   6.398   75.8  0.0609   66.5  0.1270 -105.2
 1.580  0.4978  167.4   6.313   75.5  0.0616   66.4  0.1251 -106.0
 1.600  0.4978  166.9   6.229   75.1  0.0624   66.2  0.1233 -106.9
 1.620  0.4985  166.5   6.151   74.8  0.0631   66.1  0.1233 -108.2
 1.640  0.4993  166.2   6.073   74.4  0.0638   66.0  0.1234 -109.5
 1.660  0.5000  165.8   5.995   74.0  0.0645   66.0  0.1235 -110.7
 1.680  0.5008  165.5   5.917   73.7  0.0652   65.9  0.1237 -112.0
 1.700  0.5016  165.1   5.840   73.3  0.0659   65.8  0.1239 -113.3
 1.720  0.5021  164.9   5.771   73.0  0.0665   65.6  0.1240 -114.0
 1.740  0.5027  164.6   5.703   72.7  0.0671   65.5  0.1242 -114.7
 1.760  0.5033  164.4   5.635   72.4  0.0676   65.3  0.1244 -115.3
 1.780  0.5038  164.1   5.567   72.1  0.0682   65.2  0.1246 -116.0
 1.800  0.5044  163.9   5.499   71.8  0.0688   65.0  0.1248 -116.7
 1.820  0.5047  163.7   5.439   71.5  0.0696   64.9  0.1231 -117.5
 1.840  0.5051  163.5   5.378   71.2  0.0703   64.8  0.1214 -118.3
 1.860  0.5055  163.3   5.318   70.9  0.0711   64.7  0.1197 -119.1
 1.880  0.5058  163.1   5.258   70.6  0.0718   64.6  0.1180 -119.9
 1.900  0.5062  162.9   5.198   70.3  0.0726   64.5  0.1164 -120.8
 1.920  0.5073  162.5   5.140   70.0  0.0733   64.3  0.1172 -121.8
 1.940  0.5084  162.1   5.082   69.7  0.0739   64.2  0.1180 -122.7
 1.960  0.5095  161.6   5.025   69.4  0.0746   64.0  0.1188 -123.7
 1.980  0.5106  161.2   4.967   69.0  0.0752   63.9  0.1197 -124.6
 2.000  0.5118  160.8   4.910   68.7  0.0759   63.7  0.1206 -125.5
 2.020  0.5119  160.6   4.863   68.5  0.0766   63.6  0.1202 -126.2
 2.040  0.5120  160.4   4.816   68.2  0.0773   63.5  0.1199 -126.8
 2.060  0.5120  160.3   4.770   67.9  0.0780   63.4  0.1195 -127.5
 2.080  0.5121  160.1   4.723   67.7  0.0787   63.3  0.1192 -128.1
 2.100  0.5122  159.9   4.677   67.4  0.0793   63.2  0.1188 -128.8
 2.120  0.5123  159.7   4.630   67.1  0.0800   63.1  0.1185 -129.5
 2.140  0.5124  159.5   4.584   66.9  0.0807   63.1  0.1183 -130.2
 2.160  0.5126  159.4   4.538   66.6  0.0814   63.0  0.1180 -130.8
 2.180  0.5127  159.2   4.492   66.3  0.0821   62.9  0.1177 -131.5
 2.200  0.5128  159.0   4.446   66.0  0.0828   62.8  0.1175 -132.2
 2.220  0.5135  158.7   4.406   65.8  0.0834   62.7  0.1182 -132.7
 2.240  0.5142  158.4   4.367   65.5  0.0841   62.5  0.1188 -133.2
 2.260  0.5149  158.0   4.327   65.3  0.0847   62.4  0.1195 -133.8
 2.280  0.5157  157.7   4.287   65.0  0.0854   62.3  0.1202 -134.3
 2.300  0.5164  157.4   4.248   64.8  0.0860   62.2  0.1209 -134.8
 2.320  0.5172  157.1   4.209   64.5  0.0866   62.1  0.1217 -135.3
 2.340  0.5180  156.7   4.169   64.2  0.0873   61.9  0.1224 -135.8
 2.360  0.5188  156.4   4.130   64.0  0.0879   61.8  0.1231 -136.2
 2.380  0.5197  156.1   4.091   63.7  0.0886   61.7  0.1238 -136.7
 2.400  0.5205  155.8   4.052   63.4  0.0892   61.6  0.1246 -137.2
 2.420  0.5207  155.6   4.019   63.2  0.0898   61.5  0.1246 -138.1
 2.440  0.5209  155.5   3.987   62.9  0.0905   61.4  0.1247 -139.0
 2.460  0.5211  155.3   3.955   62.7  0.0911   61.3  0.1248 -139.9
 2.480  0.5214  155.2   3.922   62.4  0.0918   61.1  0.1250 -140.7
 2.500  0.5216  155.0   3.890   62.2  0.0924   61.0  0.1251 -141.6
 2.520  0.5218  154.8   3.858   62.0  0.0931   60.9  0.1253 -142.5
 2.540  0.5221  154.7   3.826   61.7  0.0937   60.8  0.1256 -143.4
 2.560  0.5223  154.5   3.794   61.4  0.0944   60.7  0.1258 -144.3
 2.580  0.5226  154.4   3.762   61.2  0.0950   60.6  0.1261 -145.1
 2.600  0.5228  154.2   3.730   60.9  0.0957   60.5  0.1264 -146.0
 2.620  0.5228  154.0   3.702   60.7  0.0965   60.3  0.1266 -146.2
 2.640  0.5228  153.8   3.674   60.4  0.0973   60.2  0.1267 -146.5
 2.660  0.5227  153.5   3.646   60.2  0.0981   60.0  0.1269 -146.7
 2.680  0.5227  153.3   3.619   59.9  0.0989   59.9  0.1271 -146.9
 2.700  0.5228  153.1   3.591   59.7  0.0996   59.7  0.1273 -147.2
 2.720  0.5228  152.9   3.564   59.4  0.1004   59.6  0.1275 -147.4
 2.740  0.5228  152.7   3.536   59.2  0.1012   59.4  0.1276 -147.6
 2.760  0.5228  152.4   3.509   58.9  0.1020   59.3  0.1278 -147.8
 2.780  0.5229  152.2   3.481   58.7  0.1028   59.1  0.1280 -148.1
 2.800  0.5229  152.0   3.454   58.4  0.1036   59.0  0.1282 -148.3
 2.820  0.5231  151.8   3.430   58.2  0.1042   58.9  0.1288 -148.6
 2.840  0.5234  151.6   3.406   57.9  0.1047   58.7  0.1293 -148.9
 2.860  0.5236  151.4   3.382   57.7  0.1053   58.6  0.1299 -149.2
 2.880  0.5238  151.2   3.358   57.4  0.1058   58.5  0.1304 -149.5
 2.900  0.5241  151.0   3.334   57.2  0.1064   58.4  0.1310 -149.8
 2.920  0.5243  150.9   3.310   56.9  0.1070   58.3  0.1316 -150.1
 2.940  0.5246  150.7   3.286   56.7  0.1075   58.1  0.1322 -150.4
 2.960  0.5249  150.5   3.262   56.4  0.1081   58.0  0.1327 -150.6
 2.980  0.5251  150.3   3.239   56.2  0.1086   57.9  0.1333 -150.9
 3.000  0.5254  150.1   3.215   55.9  0.1092   57.8  0.1339 -151.2
 3.100  0.5254  149.1   3.119   54.9  0.1125   57.0  0.1349 -152.6
 3.200  0.5256  148.2   3.025   53.8  0.1158   56.1  0.1359 -154.1
 3.300  0.5259  147.2   2.932   52.6  0.1191   55.4  0.1371 -155.5
 3.400  0.5263  146.3   2.840   51.4  0.1224   54.7  0.1383 -156.8
 3.500  0.5269  145.3   2.749   50.1  0.1258   54.0  0.1396 -158.2
 3.600  0.5267  144.7   2.682   49.1  0.1293   53.4  0.1395 -159.8
 3.700  0.5266  144.0   2.615   48.0  0.1328   52.8  0.1395 -161.3
 3.800  0.5266  143.4   2.550   46.9  0.1363   52.3  0.1396 -162.9
 3.900  0.5266  142.7   2.485   45.7  0.1399   51.8  0.1398 -164.4
 4.000  0.5267  142.1   2.422   44.4  0.1434   51.3  0.1401 -166.0
 4.100  0.5258  141.2   2.368   43.4  0.1466   50.3  0.1399 -167.5
 4.200  0.5251  140.3   2.315   42.3  0.1499   49.4  0.1398 -169.0
 4.300  0.5245  139.4   2.262   41.1  0.1532   48.5  0.1398 -170.5
 4.400  0.5240  138.5   2.211   39.9  0.1565   47.6  0.1398 -172.0
 4.500  0.5237  137.6   2.160   38.7  0.1599   46.8  0.1400 -173.5
 4.600  0.5236  136.8   2.119   37.6  0.1635   46.0  0.1394 -175.0
 4.700  0.5236  135.9   2.079   36.4  0.1670   45.1  0.1388 -176.4
 4.800  0.5238  135.1   2.040   35.2  0.1707   44.4  0.1383 -177.9
 4.900  0.5240  134.2   2.002   34.0  0.1743   43.6  0.1380 -179.4
 5.000  0.5244  133.4   1.965   32.7  0.1780   42.9  0.1377  179.1
 5.100  0.5225  132.2   1.929   31.6  0.1813   41.9  0.1391  177.0
 5.200  0.5208  131.0   1.893   30.5  0.1846   40.9  0.1406  175.0
 5.300  0.5193  129.8   1.858   29.4  0.1879   40.0  0.1423  173.0
 5.400  0.5181  128.5   1.823   28.1  0.1913   39.1  0.1442  171.1
 5.500  0.5171  127.3   1.790   26.9  0.1948   38.2  0.1462  169.2
 5.600  0.5164  126.1   1.763   25.8  0.1981   37.3  0.1462  167.3
 5.700  0.5159  125.0   1.737   24.7  0.2015   36.4  0.1464  165.5
 5.800  0.5156  123.8   1.712   23.6  0.2049   35.5  0.1468  163.7
 5.900  0.5156  122.7   1.687   22.4  0.2084   34.6  0.1473  161.8
 6.000  0.5157  121.5   1.663   21.2  0.2119   33.8  0.1479  160.0
!
!  f       NFmin   Gammaopt  rn/50
! GHz       dB    MAG  ANG    -
!
! noise parameter not available yet for this operation point!
!
! (c) 2015  Infineon Technologies AG, Munich
