! Infineon Technologies  Discrete & RF Semiconductors
! BFP540FESD
! VCE =  4.5 V,  IC =  15 mA
! Common Emitter S-Parameters:                            Nov 2015
# GHz  S  MA  R  50
!  f         S11            S21            S12            S22
! GHz     MAG   ANG      MAG   ANG      MAG   ANG      MAG   ANG
 0.010  0.5975   -0.3  36.438  177.1  0.0027   10.0  0.8975   -3.3
 0.015  0.5929   -2.4  35.681  176.8  0.0029   20.0  0.8964   -2.4
 0.020  0.5890   -4.5  34.925  176.4  0.0031   28.7  0.8956   -1.5
 0.025  0.5913   -5.2  34.903  175.7  0.0033   33.4  0.8958   -2.1
 0.030  0.5937   -5.9  34.886  175.1  0.0034   37.6  0.8960   -2.6
 0.035  0.5961   -6.6  34.874  174.4  0.0036   41.4  0.8964   -3.2
 0.040  0.5987   -7.3  34.867  173.7  0.0038   44.8  0.8968   -3.8
 0.045  0.6014   -8.0  34.864  173.1  0.0041   47.9  0.8973   -4.3
 0.050  0.6041   -8.7  34.866  172.4  0.0043   50.6  0.8979   -4.9
 0.055  0.6022   -9.6  34.756  171.7  0.0047   52.0  0.8967   -5.4
 0.060  0.6004  -10.5  34.650  171.1  0.0051   53.2  0.8956   -6.0
 0.065  0.5988  -11.4  34.549  170.4  0.0055   54.3  0.8945   -6.5
 0.070  0.5973  -12.3  34.452  169.8  0.0059   55.2  0.8935   -7.0
 0.075  0.5960  -13.2  34.360  169.1  0.0063   55.9  0.8926   -7.5
 0.080  0.5948  -14.1  34.273  168.4  0.0067   56.6  0.8918   -8.1
 0.085  0.5938  -15.0  34.191  167.7  0.0071   57.2  0.8910   -8.6
 0.090  0.5929  -15.9  34.113  167.1  0.0075   57.8  0.8903   -9.1
 0.095  0.5922  -16.8  34.040  166.4  0.0079   58.3  0.8897   -9.7
 0.100  0.5916  -17.7  33.972  165.7  0.0083   58.7  0.8892  -10.2
 0.105  0.5895  -18.7  33.876  165.1  0.0086   59.6  0.8867  -10.7
 0.110  0.5875  -19.6  33.785  164.4  0.0088   60.4  0.8842  -11.1
 0.115  0.5858  -20.6  33.698  163.8  0.0091   61.1  0.8818  -11.6
 0.120  0.5842  -21.6  33.614  163.2  0.0093   61.9  0.8794  -12.1
 0.125  0.5827  -22.6  33.535  162.5  0.0096   62.6  0.8771  -12.5
 0.130  0.5815  -23.6  33.460  161.9  0.0098   63.2  0.8749  -13.0
 0.135  0.5804  -24.6  33.390  161.2  0.0101   63.8  0.8727  -13.5
 0.140  0.5795  -25.6  33.323  160.6  0.0104   64.4  0.8706  -13.9
 0.145  0.5787  -26.6  33.261  160.0  0.0106   65.0  0.8685  -14.4
 0.150  0.5782  -27.6  33.203  159.3  0.0109   65.5  0.8665  -14.9
 0.155  0.5762  -28.4  33.045  158.7  0.0111   65.6  0.8633  -15.3
 0.160  0.5744  -29.1  32.891  158.1  0.0114   65.6  0.8602  -15.8
 0.165  0.5726  -29.9  32.741  157.5  0.0116   65.7  0.8572  -16.2
 0.170  0.5709  -30.7  32.595  156.8  0.0119   65.7  0.8542  -16.7
 0.175  0.5694  -31.5  32.452  156.2  0.0121   65.8  0.8512  -17.2
 0.180  0.5680  -32.3  32.314  155.6  0.0124   65.8  0.8483  -17.6
 0.185  0.5666  -33.1  32.179  154.9  0.0126   65.9  0.8455  -18.1
 0.190  0.5654  -33.9  32.049  154.3  0.0129   65.9  0.8427  -18.6
 0.195  0.5643  -34.7  31.922  153.7  0.0131   66.0  0.8400  -19.0
 0.200  0.5633  -35.5  31.800  153.0  0.0134   66.0  0.8373  -19.5
 0.220  0.5534  -38.7  31.207  150.8  0.0146   65.6  0.8250  -21.2
 0.240  0.5452  -41.9  30.662  148.6  0.0157   65.3  0.8134  -22.9
 0.260  0.5364  -45.1  30.105  146.4  0.0169   64.7  0.8009  -24.5
 0.280  0.5269  -48.3  29.532  144.2  0.0180   63.9  0.7874  -25.9
 0.300  0.5191  -51.6  29.001  142.0  0.0191   63.2  0.7743  -27.4
 0.320  0.5085  -54.1  28.344  140.3  0.0200   62.7  0.7600  -28.6
 0.340  0.4990  -56.8  27.713  138.5  0.0208   62.2  0.7461  -29.8
 0.360  0.4906  -59.5  27.109  136.7  0.0217   61.7  0.7325  -31.1
 0.380  0.4833  -62.4  26.536  134.7  0.0225   61.3  0.7193  -32.4
 0.400  0.4773  -65.3  25.994  132.7  0.0234   60.9  0.7065  -33.8
 0.420  0.4675  -67.6  25.422  131.3  0.0241   60.8  0.6926  -34.7
 0.440  0.4586  -70.1  24.866  129.8  0.0248   60.7  0.6789  -35.7
 0.450  0.4544  -71.3  24.595  129.1  0.0252   60.6  0.6721  -36.2
 0.460  0.4505  -72.6  24.327  128.3  0.0256   60.6  0.6654  -36.7
 0.480  0.4433  -75.2  23.807  126.7  0.0263   60.5  0.6521  -37.8
 0.500  0.4371  -77.9  23.306  125.0  0.0270   60.4  0.6391  -38.9
 0.520  0.4297  -80.0  22.778  123.8  0.0276   59.9  0.6276  -39.6
 0.540  0.4229  -82.1  22.260  122.6  0.0283   59.5  0.6163  -40.3
 0.560  0.4167  -84.4  21.754  121.3  0.0289   59.1  0.6050  -41.0
 0.580  0.4112  -86.7  21.259  119.9  0.0296   58.7  0.5938  -41.7
 0.600  0.4063  -89.0  20.776  118.5  0.0302   58.3  0.5827  -42.5
 0.620  0.4005  -90.7  20.357  117.5  0.0309   58.5  0.5733  -43.1
 0.640  0.3952  -92.5  19.944  116.5  0.0316   58.6  0.5639  -43.7
 0.660  0.3902  -94.4  19.538  115.5  0.0324   58.7  0.5546  -44.4
 0.680  0.3856  -96.3  19.138  114.4  0.0331   58.9  0.5454  -45.0
 0.700  0.3815  -98.2  18.745  113.3  0.0338   59.0  0.5363  -45.7
 0.720  0.3767 -100.2  18.375  112.4  0.0343   58.8  0.5273  -46.3
 0.740  0.3724 -102.2  18.011  111.5  0.0348   58.6  0.5183  -46.9
 0.760  0.3685 -104.2  17.651  110.5  0.0354   58.4  0.5094  -47.5
 0.780  0.3651 -106.3  17.297  109.5  0.0359   58.2  0.5006  -48.1
 0.800  0.3622 -108.4  16.948  108.4  0.0364   58.0  0.4918  -48.8
 0.820  0.3584 -109.9  16.633  107.6  0.0369   57.9  0.4846  -49.2
 0.840  0.3548 -111.4  16.321  106.9  0.0375   57.7  0.4774  -49.6
 0.860  0.3515 -113.0  16.012  106.0  0.0380   57.6  0.4703  -50.0
 0.880  0.3484 -114.6  15.706  105.2  0.0386   57.5  0.4631  -50.4
 0.900  0.3456 -116.2  15.404  104.3  0.0391   57.4  0.4560  -50.8
 0.920  0.3427 -117.6  15.138  103.6  0.0397   57.4  0.4500  -51.2
 0.940  0.3400 -119.0  14.874  103.0  0.0402   57.3  0.4441  -51.5
 0.960  0.3375 -120.4  14.612  102.3  0.0408   57.3  0.4381  -51.9
 0.980  0.3353 -121.8  14.352  101.6  0.0413   57.2  0.4322  -52.3
 1.000  0.3332 -123.3  14.095  100.8  0.0419   57.2  0.4263  -52.7
 1.020  0.3320 -124.7  13.869  100.2  0.0425   57.3  0.4207  -53.2
 1.040  0.3310 -126.1  13.645   99.5  0.0431   57.4  0.4151  -53.7
 1.060  0.3301 -127.5  13.423   98.8  0.0438   57.4  0.4096  -54.2
 1.080  0.3295 -129.0  13.203   98.1  0.0444   57.5  0.4041  -54.7
 1.100  0.3291 -130.4  12.985   97.4  0.0450   57.6  0.3986  -55.2
 1.120  0.3277 -131.7  12.781   96.9  0.0455   57.5  0.3937  -55.5
 1.140  0.3265 -133.0  12.578   96.3  0.0459   57.4  0.3889  -55.7
 1.160  0.3255 -134.3  12.376   95.7  0.0464   57.4  0.3841  -56.0
 1.180  0.3246 -135.7  12.176   95.1  0.0468   57.3  0.3792  -56.3
 1.200  0.3239 -137.0  11.977   94.5  0.0473   57.2  0.3744  -56.6
 1.220  0.3222 -137.9  11.806   94.0  0.0479   57.2  0.3702  -56.8
 1.240  0.3205 -138.7  11.636   93.5  0.0484   57.2  0.3659  -57.0
 1.260  0.3189 -139.6  11.467   93.0  0.0490   57.1  0.3617  -57.2
 1.280  0.3174 -140.5  11.299   92.5  0.0495   57.1  0.3575  -57.5
 1.300  0.3160 -141.4  11.132   92.0  0.0501   57.1  0.3533  -57.7
 1.320  0.3161 -142.5  10.983   91.5  0.0506   57.1  0.3492  -58.2
 1.340  0.3163 -143.6  10.835   91.0  0.0511   57.1  0.3451  -58.7
 1.360  0.3167 -144.7  10.688   90.4  0.0516   57.2  0.3410  -59.2
 1.380  0.3171 -145.8  10.542   89.9  0.0521   57.2  0.3369  -59.8
 1.400  0.3177 -146.9  10.397   89.3  0.0526   57.2  0.3329  -60.3
 1.420  0.3184 -147.9  10.260   88.9  0.0531   57.2  0.3296  -60.6
 1.440  0.3193 -148.8  10.124   88.4  0.0537   57.1  0.3263  -60.9
 1.460  0.3202 -149.7   9.988   88.0  0.0542   57.1  0.3230  -61.2
 1.480  0.3212 -150.7   9.853   87.5  0.0548   57.0  0.3197  -61.6
 1.500  0.3223 -151.6   9.719   87.0  0.0553   57.0  0.3164  -61.9
 1.520  0.3211 -152.4   9.599   86.6  0.0558   57.0  0.3128  -62.1
 1.540  0.3199 -153.3   9.479   86.2  0.0563   57.1  0.3091  -62.3
 1.560  0.3188 -154.1   9.360   85.8  0.0568   57.1  0.3055  -62.5
 1.580  0.3178 -154.9   9.241   85.3  0.0573   57.2  0.3019  -62.8
 1.600  0.3168 -155.8   9.123   84.9  0.0578   57.2  0.2983  -63.0
 1.620  0.3170 -156.7   9.018   84.5  0.0583   57.2  0.2955  -63.5
 1.640  0.3173 -157.6   8.913   84.1  0.0589   57.2  0.2928  -64.1
 1.660  0.3176 -158.6   8.808   83.6  0.0594   57.1  0.2901  -64.6
 1.680  0.3181 -159.5   8.704   83.2  0.0600   57.1  0.2874  -65.2
 1.700  0.3186 -160.4   8.601   82.7  0.0605   57.1  0.2848  -65.8
 1.720  0.3185 -161.0   8.502   82.3  0.0610   57.0  0.2829  -66.1
 1.740  0.3184 -161.7   8.403   81.9  0.0615   56.9  0.2811  -66.4
 1.760  0.3183 -162.3   8.304   81.5  0.0621   56.9  0.2792  -66.7
 1.780  0.3183 -163.0   8.206   81.1  0.0626   56.8  0.2773  -67.1
 1.800  0.3183 -163.6   8.108   80.7  0.0631   56.7  0.2755  -67.4
 1.820  0.3190 -164.2   8.022   80.4  0.0637   56.7  0.2724  -67.6
 1.840  0.3196 -164.7   7.936   80.0  0.0644   56.7  0.2693  -67.7
 1.860  0.3204 -165.3   7.850   79.7  0.0650   56.8  0.2663  -67.9
 1.880  0.3211 -165.8   7.765   79.4  0.0657   56.8  0.2632  -68.0
 1.900  0.3219 -166.4   7.680   79.0  0.0663   56.8  0.2601  -68.2
 1.920  0.3220 -167.3   7.600   78.6  0.0667   56.7  0.2583  -68.7
 1.940  0.3221 -168.1   7.521   78.3  0.0671   56.6  0.2565  -69.2
 1.960  0.3223 -169.0   7.441   77.9  0.0675   56.5  0.2547  -69.7
 1.980  0.3226 -169.8   7.363   77.5  0.0679   56.4  0.2529  -70.3
 2.000  0.3229 -170.7   7.284   77.1  0.0683   56.3  0.2512  -70.8
 2.020  0.3230 -171.1   7.214   76.8  0.0688   56.3  0.2494  -71.0
 2.040  0.3231 -171.5   7.145   76.5  0.0693   56.2  0.2477  -71.3
 2.060  0.3232 -171.9   7.076   76.2  0.0699   56.2  0.2459  -71.5
 2.080  0.3233 -172.3   7.007   75.9  0.0704   56.1  0.2442  -71.8
 2.100  0.3235 -172.7   6.938   75.6  0.0709   56.1  0.2424  -72.0
 2.120  0.3236 -173.0   6.869   75.3  0.0714   56.1  0.2407  -72.3
 2.140  0.3238 -173.4   6.801   75.0  0.0719   56.0  0.2390  -72.5
 2.160  0.3240 -173.8   6.733   74.7  0.0725   56.0  0.2372  -72.8
 2.180  0.3242 -174.2   6.665   74.3  0.0730   55.9  0.2355  -73.0
 2.200  0.3244 -174.6   6.597   74.0  0.0735   55.9  0.2338  -73.3
 2.220  0.3247 -175.3   6.539   73.7  0.0740   55.8  0.2328  -73.7
 2.240  0.3251 -175.9   6.480   73.4  0.0745   55.8  0.2317  -74.1
 2.260  0.3255 -176.6   6.422   73.1  0.0751   55.7  0.2307  -74.5
 2.280  0.3259 -177.2   6.364   72.8  0.0756   55.6  0.2297  -74.9
 2.300  0.3264 -177.9   6.306   72.5  0.0761   55.5  0.2287  -75.3
 2.320  0.3270 -178.5   6.249   72.2  0.0766   55.5  0.2277  -75.7
 2.340  0.3275 -179.2   6.191   71.9  0.0771   55.4  0.2267  -76.1
 2.360  0.3281 -179.8   6.134   71.6  0.0777   55.3  0.2257  -76.5
 2.380  0.3288  179.5   6.077   71.2  0.0782   55.3  0.2247  -76.9
 2.400  0.3295  178.9   6.020   70.9  0.0787   55.2  0.2238  -77.3
 2.420  0.3299  178.6   5.971   70.6  0.0793   55.1  0.2220  -77.7
 2.440  0.3303  178.3   5.922   70.4  0.0799   55.1  0.2203  -78.1
 2.460  0.3307  178.0   5.874   70.1  0.0805   55.0  0.2185  -78.5
 2.480  0.3312  177.7   5.825   69.8  0.0811   54.9  0.2168  -78.9
 2.500  0.3316  177.4   5.777   69.5  0.0817   54.9  0.2150  -79.4
 2.520  0.3320  177.2   5.729   69.2  0.0823   54.8  0.2133  -79.8
 2.540  0.3325  176.9   5.681   68.9  0.0829   54.8  0.2116  -80.2
 2.560  0.3330  176.6   5.633   68.6  0.0835   54.7  0.2099  -80.7
 2.580  0.3334  176.3   5.586   68.3  0.0841   54.7  0.2083  -81.1
 2.600  0.3339  176.0   5.538   68.0  0.0847   54.6  0.2066  -81.6
 2.620  0.3338  175.6   5.496   67.8  0.0852   54.5  0.2060  -81.8
 2.640  0.3337  175.2   5.455   67.5  0.0858   54.5  0.2053  -82.0
 2.660  0.3336  174.8   5.414   67.3  0.0863   54.4  0.2047  -82.2
 2.680  0.3336  174.4   5.372   67.0  0.0869   54.4  0.2041  -82.3
 2.700  0.3335  174.1   5.331   66.8  0.0874   54.3  0.2034  -82.5
 2.720  0.3335  173.7   5.290   66.5  0.0879   54.2  0.2028  -82.7
 2.740  0.3335  173.3   5.249   66.2  0.0885   54.2  0.2022  -82.9
 2.760  0.3335  172.9   5.208   66.0  0.0890   54.1  0.2015  -83.1
 2.780  0.3335  172.5   5.168   65.7  0.0896   54.1  0.2009  -83.3
 2.800  0.3335  172.1   5.127   65.4  0.0901   54.0  0.2003  -83.5
 2.820  0.3337  171.8   5.091   65.1  0.0906   53.9  0.1998  -83.8
 2.840  0.3338  171.5   5.054   64.9  0.0911   53.8  0.1994  -84.1
 2.860  0.3340  171.1   5.018   64.6  0.0916   53.8  0.1989  -84.5
 2.880  0.3342  170.8   4.982   64.3  0.0921   53.7  0.1985  -84.8
 2.900  0.3344  170.5   4.947   64.1  0.0925   53.6  0.1981  -85.1
 2.920  0.3346  170.2   4.911   63.8  0.0930   53.5  0.1976  -85.5
 2.940  0.3348  169.9   4.875   63.5  0.0935   53.4  0.1972  -85.8
 2.960  0.3350  169.5   4.840   63.2  0.0940   53.4  0.1968  -86.1
 2.980  0.3353  169.2   4.804   62.9  0.0945   53.3  0.1964  -86.5
 3.000  0.3355  168.9   4.769   62.6  0.0950   53.2  0.1960  -86.8
 3.100  0.3357  167.5   4.624   61.5  0.0976   52.6  0.1936  -88.0
 3.200  0.3361  166.1   4.480   60.4  0.1002   52.0  0.1912  -89.2
 3.300  0.3366  164.7   4.338   59.2  0.1028   51.5  0.1889  -90.5
 3.400  0.3374  163.3   4.198   57.9  0.1055   51.0  0.1868  -91.8
 3.500  0.3384  161.9   4.061   56.5  0.1081   50.5  0.1847  -93.1
 3.600  0.3389  161.1   3.957   55.5  0.1110   50.2  0.1821  -94.1
 3.700  0.3395  160.4   3.855   54.4  0.1139   49.9  0.1796  -95.1
 3.800  0.3401  159.6   3.754   53.3  0.1167   49.6  0.1772  -96.1
 3.900  0.3408  158.9   3.655   52.1  0.1196   49.3  0.1748  -97.2
 4.000  0.3415  158.1   3.557   50.9  0.1225   49.0  0.1725  -98.3
 4.100  0.3409  157.0   3.475   49.9  0.1253   48.2  0.1703  -99.3
 4.200  0.3404  156.0   3.394   48.8  0.1280   47.5  0.1681 -100.3
 4.300  0.3400  154.9   3.315   47.6  0.1308   46.8  0.1660 -101.3
 4.400  0.3397  153.9   3.237   46.5  0.1337   46.1  0.1639 -102.3
 4.500  0.3396  152.8   3.160   45.2  0.1365   45.5  0.1619 -103.4
 4.600  0.3408  151.9   3.099   44.1  0.1394   44.8  0.1598 -104.3
 4.700  0.3420  151.1   3.038   43.1  0.1424   44.1  0.1577 -105.2
 4.800  0.3434  150.2   2.979   41.9  0.1454   43.5  0.1557 -106.1
 4.900  0.3448  149.3   2.922   40.7  0.1484   42.9  0.1537 -107.0
 5.000  0.3463  148.5   2.865   39.5  0.1514   42.3  0.1517 -108.0
 5.100  0.3438  147.1   2.810   38.4  0.1545   41.5  0.1488 -109.8
 5.200  0.3415  145.6   2.757   37.4  0.1576   40.7  0.1460 -111.7
 5.300  0.3394  144.1   2.704   36.2  0.1607   40.0  0.1434 -113.7
 5.400  0.3375  142.6   2.652   35.0  0.1638   39.3  0.1410 -115.8
 5.500  0.3359  141.1   2.602   33.8  0.1670   38.6  0.1388 -117.9
 5.600  0.3361  139.9   2.560   32.8  0.1698   37.9  0.1359 -119.0
 5.700  0.3365  138.6   2.520   31.7  0.1727   37.1  0.1330 -120.2
 5.800  0.3370  137.4   2.480   30.7  0.1756   36.4  0.1302 -121.4
 5.900  0.3377  136.1   2.441   29.5  0.1785   35.8  0.1274 -122.7
 6.000  0.3385  134.9   2.403   28.4  0.1814   35.1  0.1247 -124.0
!
!  f       NFmin   Gammaopt  rn/50
! GHz       dB    MAG  ANG    -
!
! noise parameter not available yet for this operation point!
!
! (c) 2015  Infineon Technologies AG, Munich
