! Infineon Technologies  Discrete & RF Semiconductors
! BFP540
! VCE =  3.0 V,  IC =  9.0 mA
! Common Emitter S-Parameters:                            Nov 2015
# GHz  S  MA  R  50
!  f         S11            S21            S12            S22
! GHz     MAG   ANG      MAG   ANG      MAG   ANG      MAG   ANG
 0.010  0.7024   -1.2  24.163  178.4  0.0006   66.9  0.9734   -1.4
 0.015  0.7028   -2.1  24.031  178.2  0.0012   80.5  0.9790   -1.5
 0.020  0.7034   -3.0  23.900  177.9  0.0018   85.0  0.9847   -1.5
 0.025  0.7036   -3.7  23.890  177.3  0.0021   84.2  0.9845   -1.9
 0.030  0.7040   -4.4  23.882  176.8  0.0024   83.6  0.9844   -2.3
 0.035  0.7044   -5.1  23.876  176.2  0.0026   83.1  0.9843   -2.7
 0.040  0.7050   -5.7  23.873  175.6  0.0029   82.7  0.9843   -3.2
 0.045  0.7056   -6.4  23.872  175.1  0.0032   82.4  0.9843   -3.6
 0.050  0.7064   -7.1  23.873  174.5  0.0035   82.1  0.9844   -4.0
 0.055  0.7057   -7.8  23.848  174.0  0.0039   82.0  0.9833   -4.4
 0.060  0.7052   -8.6  23.824  173.5  0.0043   82.0  0.9823   -4.8
 0.065  0.7048   -9.3  23.802  173.0  0.0047   82.0  0.9814   -5.2
 0.070  0.7045  -10.1  23.782  172.5  0.0051   81.9  0.9804   -5.6
 0.075  0.7043  -10.8  23.764  172.0  0.0055   81.9  0.9796   -6.0
 0.080  0.7043  -11.6  23.748  171.5  0.0060   81.9  0.9788   -6.5
 0.085  0.7044  -12.3  23.734  171.0  0.0064   81.8  0.9780   -6.9
 0.090  0.7046  -13.1  23.721  170.5  0.0068   81.8  0.9773   -7.3
 0.095  0.7049  -13.9  23.710  170.0  0.0072   81.8  0.9766   -7.7
 0.100  0.7053  -14.6  23.701  169.5  0.0076   81.8  0.9760   -8.1
 0.105  0.7039  -15.3  23.666  169.0  0.0080   81.6  0.9749   -8.5
 0.110  0.7027  -16.0  23.633  168.5  0.0084   81.4  0.9739   -8.9
 0.115  0.7015  -16.7  23.602  168.0  0.0087   81.2  0.9730   -9.3
 0.120  0.7005  -17.4  23.572  167.5  0.0091   81.0  0.9720   -9.7
 0.125  0.6996  -18.1  23.545  167.0  0.0095   80.9  0.9712  -10.1
 0.130  0.6987  -18.8  23.519  166.5  0.0099   80.8  0.9703  -10.5
 0.135  0.6980  -19.6  23.495  166.0  0.0103   80.6  0.9696  -10.9
 0.140  0.6974  -20.3  23.472  165.5  0.0106   80.5  0.9688  -11.3
 0.145  0.6969  -21.0  23.452  165.0  0.0110   80.4  0.9681  -11.7
 0.150  0.6965  -21.7  23.433  164.5  0.0114   80.3  0.9675  -12.1
 0.155  0.6953  -22.4  23.377  164.0  0.0117   80.1  0.9657  -12.5
 0.160  0.6942  -23.1  23.323  163.5  0.0121   80.0  0.9640  -12.9
 0.165  0.6931  -23.8  23.270  163.0  0.0124   79.9  0.9624  -13.3
 0.170  0.6922  -24.5  23.219  162.5  0.0128   79.7  0.9607  -13.6
 0.175  0.6914  -25.2  23.170  162.0  0.0131   79.6  0.9591  -14.0
 0.180  0.6907  -25.9  23.123  161.5  0.0134   79.5  0.9576  -14.4
 0.185  0.6901  -26.7  23.077  161.0  0.0138   79.4  0.9561  -14.8
 0.190  0.6896  -27.4  23.033  160.5  0.0141   79.3  0.9547  -15.2
 0.195  0.6893  -28.1  22.991  160.0  0.0145   79.2  0.9533  -15.6
 0.200  0.6890  -28.8  22.951  159.5  0.0148   79.1  0.9519  -16.0
 0.220  0.6840  -31.5  22.720  157.6  0.0162   77.2  0.9444  -17.5
 0.240  0.6805  -34.2  22.515  155.7  0.0177   75.6  0.9375  -19.1
 0.260  0.6760  -37.0  22.299  153.8  0.0190   74.4  0.9296  -20.6
 0.280  0.6706  -39.7  22.071  151.9  0.0201   73.4  0.9203  -22.1
 0.300  0.6668  -42.5  21.867  150.0  0.0213   72.5  0.9117  -23.6
 0.320  0.6594  -45.0  21.553  148.3  0.0225   71.3  0.9008  -24.9
 0.340  0.6532  -47.5  21.258  146.6  0.0238   70.3  0.8903  -26.2
 0.360  0.6483  -50.1  20.982  144.9  0.0251   69.3  0.8804  -27.6
 0.380  0.6447  -52.7  20.726  143.0  0.0263   68.5  0.8709  -29.0
 0.400  0.6425  -55.3  20.492  141.2  0.0276   67.7  0.8620  -30.4
 0.420  0.6345  -57.7  20.192  139.7  0.0286   66.7  0.8501  -31.6
 0.440  0.6276  -60.2  19.907  138.1  0.0296   65.7  0.8387  -32.9
 0.450  0.6247  -61.5  19.771  137.3  0.0301   65.3  0.8331  -33.5
 0.460  0.6220  -62.7  19.638  136.5  0.0306   64.8  0.8276  -34.1
 0.480  0.6176  -65.3  19.385  134.8  0.0316   64.0  0.8170  -35.5
 0.500  0.6144  -67.9  19.148  133.1  0.0326   63.2  0.8068  -36.8
 0.520  0.6074  -70.0  18.814  131.8  0.0335   62.3  0.7951  -37.8
 0.540  0.6013  -72.2  18.491  130.4  0.0343   61.4  0.7836  -38.8
 0.560  0.5961  -74.4  18.179  129.0  0.0352   60.6  0.7724  -39.9
 0.580  0.5919  -76.7  17.879  127.5  0.0361   59.8  0.7615  -41.0
 0.600  0.5885  -79.0  17.590  126.0  0.0370   59.1  0.7508  -42.1
 0.620  0.5826  -80.9  17.313  124.9  0.0377   58.4  0.7399  -43.0
 0.640  0.5774  -82.9  17.043  123.7  0.0385   57.7  0.7291  -44.0
 0.660  0.5728  -84.9  16.780  122.5  0.0392   57.1  0.7186  -45.0
 0.680  0.5690  -86.9  16.525  121.3  0.0400   56.5  0.7083  -46.0
 0.700  0.5659  -89.0  16.278  120.0  0.0407   55.9  0.6982  -47.0
 0.720  0.5601  -90.9  16.004  118.9  0.0413   55.5  0.6875  -47.9
 0.740  0.5550  -92.9  15.736  117.8  0.0419   55.1  0.6770  -48.8
 0.760  0.5505  -94.9  15.474  116.6  0.0426   54.7  0.6667  -49.7
 0.780  0.5467  -96.9  15.218  115.4  0.0432   54.4  0.6566  -50.6
 0.800  0.5436  -99.0  14.970  114.2  0.0438   54.0  0.6466  -51.6
 0.820  0.5393 -100.6  14.726  113.3  0.0444   53.7  0.6373  -52.3
 0.840  0.5355 -102.3  14.487  112.3  0.0449   53.4  0.6281  -53.0
 0.860  0.5321 -104.0  14.251  111.3  0.0455   53.1  0.6189  -53.7
 0.880  0.5292 -105.7  14.020  110.3  0.0460   52.8  0.6099  -54.4
 0.900  0.5267 -107.4  13.794  109.2  0.0466   52.5  0.6010  -55.2
 0.920  0.5224 -108.9  13.576  108.4  0.0471   52.0  0.5923  -55.8
 0.940  0.5185 -110.4  13.362  107.6  0.0476   51.5  0.5838  -56.5
 0.960  0.5149 -111.9  13.150  106.7  0.0481   51.0  0.5753  -57.2
 0.980  0.5117 -113.4  12.941  105.8  0.0487   50.5  0.5668  -57.9
 1.000  0.5089 -115.0  12.735  104.9  0.0492   50.0  0.5585  -58.6
 1.020  0.5058 -116.5  12.547  104.1  0.0498   49.7  0.5508  -59.3
 1.040  0.5031 -118.1  12.362  103.3  0.0504   49.4  0.5431  -60.0
 1.060  0.5007 -119.6  12.179  102.5  0.0511   49.1  0.5356  -60.7
 1.080  0.4987 -121.2  11.999  101.7  0.0517   48.9  0.5281  -61.4
 1.100  0.4971 -122.8  11.821  100.8  0.0523   48.6  0.5207  -62.2
 1.120  0.4949 -124.1  11.651  100.1  0.0527   48.4  0.5141  -62.7
 1.140  0.4931 -125.5  11.483   99.4  0.0531   48.2  0.5075  -63.1
 1.160  0.4915 -126.9  11.316   98.7  0.0535   47.9  0.5010  -63.6
 1.180  0.4901 -128.2  11.152   98.0  0.0539   47.7  0.4945  -64.1
 1.200  0.4891 -129.6  10.989   97.2  0.0543   47.5  0.4880  -64.6
 1.220  0.4875 -130.7  10.842   96.6  0.0547   47.3  0.4818  -65.0
 1.240  0.4861 -131.7  10.696   96.0  0.0552   47.0  0.4757  -65.5
 1.260  0.4848 -132.8  10.552   95.3  0.0556   46.8  0.4695  -65.9
 1.280  0.4837 -133.9  10.409   94.7  0.0561   46.6  0.4635  -66.4
 1.300  0.4828 -135.0  10.267   94.0  0.0565   46.4  0.4574  -66.9
 1.320  0.4813 -136.2  10.138   93.4  0.0569   46.2  0.4516  -67.5
 1.340  0.4800 -137.5  10.010   92.8  0.0573   46.0  0.4459  -68.2
 1.360  0.4789 -138.8   9.884   92.2  0.0577   45.8  0.4402  -68.8
 1.380  0.4781 -140.0   9.758   91.6  0.0581   45.6  0.4346  -69.5
 1.400  0.4775 -141.3   9.634   90.9  0.0585   45.4  0.4291  -70.2
 1.420  0.4767 -142.4   9.511   90.3  0.0588   45.3  0.4242  -70.5
 1.440  0.4762 -143.5   9.388   89.7  0.0592   45.1  0.4193  -70.9
 1.460  0.4758 -144.6   9.267   89.1  0.0595   45.0  0.4145  -71.2
 1.480  0.4755 -145.7   9.146   88.5  0.0599   44.8  0.4096  -71.5
 1.500  0.4755 -146.8   9.027   87.9  0.0602   44.7  0.4048  -71.9
 1.520  0.4735 -147.7   8.922   87.4  0.0607   44.5  0.3999  -72.2
 1.540  0.4716 -148.7   8.817   86.9  0.0612   44.4  0.3950  -72.6
 1.560  0.4698 -149.6   8.713   86.4  0.0616   44.2  0.3901  -73.0
 1.580  0.4681 -150.5   8.610   85.8  0.0621   44.1  0.3852  -73.3
 1.600  0.4666 -151.5   8.507   85.3  0.0626   43.9  0.3804  -73.7
 1.620  0.4665 -152.6   8.414   84.8  0.0629   43.8  0.3765  -74.3
 1.640  0.4665 -153.7   8.321   84.2  0.0632   43.6  0.3726  -74.9
 1.660  0.4668 -154.7   8.230   83.7  0.0635   43.5  0.3687  -75.5
 1.680  0.4671 -155.8   8.139   83.1  0.0638   43.3  0.3649  -76.2
 1.700  0.4677 -156.9   8.049   82.5  0.0641   43.2  0.3611  -76.8
 1.720  0.4671 -157.7   7.960   82.1  0.0645   43.1  0.3575  -77.1
 1.740  0.4666 -158.6   7.872   81.6  0.0649   43.0  0.3539  -77.3
 1.760  0.4663 -159.4   7.785   81.2  0.0653   43.0  0.3503  -77.6
 1.780  0.4660 -160.3   7.698   80.7  0.0657   42.9  0.3468  -77.9
 1.800  0.4658 -161.1   7.611   80.2  0.0661   42.8  0.3432  -78.2
 1.820  0.4652 -161.8   7.538   79.8  0.0665   42.8  0.3391  -78.4
 1.840  0.4646 -162.6   7.465   79.3  0.0669   42.8  0.3350  -78.7
 1.860  0.4642 -163.3   7.392   78.9  0.0673   42.7  0.3309  -78.9
 1.880  0.4638 -164.1   7.321   78.5  0.0677   42.7  0.3268  -79.1
 1.900  0.4635 -164.8   7.249   78.0  0.0681   42.7  0.3227  -79.4
 1.920  0.4632 -165.7   7.177   77.5  0.0684   42.5  0.3200  -79.8
 1.940  0.4629 -166.6   7.106   77.1  0.0688   42.3  0.3174  -80.3
 1.960  0.4628 -167.5   7.036   76.6  0.0691   42.2  0.3148  -80.7
 1.980  0.4628 -168.4   6.966   76.1  0.0695   42.0  0.3122  -81.1
 2.000  0.4629 -169.3   6.896   75.6  0.0698   41.8  0.3096  -81.6
 2.020  0.4628 -170.0   6.834   75.2  0.0702   41.7  0.3064  -81.8
 2.040  0.4627 -170.7   6.771   74.8  0.0707   41.6  0.3033  -82.1
 2.060  0.4627 -171.4   6.710   74.4  0.0711   41.5  0.3002  -82.3
 2.080  0.4627 -172.1   6.648   74.1  0.0715   41.5  0.2970  -82.5
 2.100  0.4629 -172.8   6.587   73.6  0.0719   41.4  0.2939  -82.8
 2.120  0.4631 -173.4   6.526   73.2  0.0724   41.3  0.2908  -83.0
 2.140  0.4633 -174.1   6.465   72.8  0.0728   41.2  0.2876  -83.3
 2.160  0.4636 -174.8   6.405   72.4  0.0732   41.2  0.2845  -83.6
 2.180  0.4640 -175.5   6.345   71.9  0.0737   41.1  0.2814  -83.8
 2.200  0.4645 -176.2   6.286   71.5  0.0741   41.0  0.2783  -84.1
 2.220  0.4645 -176.9   6.232   71.1  0.0744   40.9  0.2760  -84.4
 2.240  0.4645 -177.6   6.178   70.8  0.0748   40.8  0.2738  -84.6
 2.260  0.4646 -178.3   6.125   70.4  0.0751   40.7  0.2715  -84.9
 2.280  0.4648 -179.0   6.071   70.0  0.0754   40.5  0.2693  -85.1
 2.300  0.4650 -179.8   6.018   69.6  0.0757   40.4  0.2670  -85.4
 2.320  0.4653  179.5   5.966   69.2  0.0761   40.3  0.2648  -85.7
 2.340  0.4657  178.8   5.913   68.8  0.0764   40.2  0.2626  -85.9
 2.360  0.4662  178.1   5.861   68.4  0.0767   40.1  0.2603  -86.2
 2.380  0.4667  177.4   5.809   67.9  0.0771   40.0  0.2581  -86.5
 2.400  0.4673  176.7   5.758   67.5  0.0774   39.9  0.2559  -86.8
 2.420  0.4675  176.0   5.713   67.1  0.0778   39.8  0.2527  -87.3
 2.440  0.4679  175.4   5.669   66.7  0.0782   39.7  0.2496  -87.8
 2.460  0.4682  174.7   5.625   66.4  0.0786   39.6  0.2465  -88.3
 2.480  0.4687  174.0   5.581   66.0  0.0790   39.5  0.2434  -88.8
 2.500  0.4692  173.4   5.538   65.6  0.0794   39.4  0.2403  -89.3
 2.520  0.4697  172.7   5.494   65.2  0.0799   39.3  0.2372  -89.9
 2.540  0.4704  172.1   5.451   64.8  0.0803   39.3  0.2342  -90.4
 2.560  0.4710  171.4   5.409   64.4  0.0807   39.2  0.2312  -91.0
 2.580  0.4718  170.8   5.366   63.9  0.0811   39.1  0.2282  -91.6
 2.600  0.4726  170.1   5.324   63.5  0.0815   39.0  0.2252  -92.2
 2.620  0.4732  169.6   5.286   63.2  0.0819   38.9  0.2230  -92.4
 2.640  0.4738  169.0   5.249   62.8  0.0824   38.9  0.2208  -92.7
 2.660  0.4744  168.5   5.212   62.5  0.0828   38.8  0.2186  -92.9
 2.680  0.4751  168.0   5.175   62.1  0.0832   38.7  0.2165  -93.2
 2.700  0.4758  167.4   5.138   61.8  0.0836   38.6  0.2143  -93.4
 2.720  0.4766  166.9   5.101   61.4  0.0841   38.6  0.2121  -93.7
 2.740  0.4774  166.4   5.065   61.0  0.0845   38.5  0.2100  -94.0
 2.760  0.4782  165.8   5.029   60.7  0.0849   38.4  0.2078  -94.2
 2.780  0.4791  165.3   4.993   60.3  0.0854   38.4  0.2056  -94.5
 2.800  0.4800  164.8   4.957   59.9  0.0858   38.3  0.2035  -94.8
 2.820  0.4804  164.2   4.923   59.5  0.0862   38.2  0.2013  -95.2
 2.840  0.4808  163.5   4.889   59.2  0.0865   38.1  0.1992  -95.7
 2.860  0.4813  162.9   4.855   58.8  0.0869   38.0  0.1970  -96.1
 2.880  0.4819  162.3   4.821   58.4  0.0872   37.9  0.1949  -96.6
 2.900  0.4825  161.7   4.787   58.1  0.0876   37.8  0.1927  -97.0
 2.920  0.4832  161.1   4.754   57.7  0.0880   37.7  0.1906  -97.5
 2.940  0.4839  160.4   4.721   57.3  0.0883   37.6  0.1885  -98.0
 2.960  0.4847  159.8   4.688   56.9  0.0887   37.5  0.1864  -98.5
 2.980  0.4855  159.2   4.655   56.5  0.0890   37.4  0.1844  -99.0
 3.000  0.4864  158.6   4.623   56.1  0.0894   37.3  0.1823  -99.5
 3.100  0.4897  155.9   4.481   54.5  0.0914   36.6  0.1730 -102.4
 3.200  0.4940  153.3   4.342   52.9  0.0934   35.9  0.1642 -105.7
 3.300  0.4994  150.8   4.208   51.1  0.0954   35.2  0.1560 -109.3
 3.400  0.5057  148.2   4.078   49.2  0.0974   34.6  0.1485 -113.3
 3.500  0.5130  145.8   3.952   47.2  0.0994   34.0  0.1418 -117.7
 3.600  0.5175  143.6   3.840   45.7  0.1010   33.4  0.1364 -122.7
 3.700  0.5227  141.5   3.731   44.2  0.1026   32.8  0.1321 -128.0
 3.800  0.5286  139.4   3.624   42.5  0.1042   32.3  0.1291 -133.6
 3.900  0.5352  137.4   3.521   40.8  0.1059   31.7  0.1273 -139.5
 4.000  0.5425  135.4   3.421   38.9  0.1075   31.2  0.1269 -145.4
 4.100  0.5472  133.5   3.329   37.5  0.1093   30.3  0.1272 -150.0
 4.200  0.5525  131.7   3.238   36.0  0.1112   29.5  0.1284 -154.6
 4.300  0.5583  129.9   3.150   34.5  0.1130   28.7  0.1303 -159.1
 4.400  0.5647  128.1   3.065   32.8  0.1149   27.9  0.1331 -163.4
 4.500  0.5716  126.4   2.982   31.1  0.1168   27.1  0.1365 -167.5
 4.600  0.5756  124.8   2.911   29.8  0.1184   26.5  0.1380 -170.8
 4.700  0.5801  123.3   2.842   28.4  0.1201   25.9  0.1400 -174.0
 4.800  0.5850  121.8   2.775   26.9  0.1217   25.3  0.1424 -177.1
 4.900  0.5903  120.3   2.709   25.3  0.1234   24.7  0.1452  179.9
 5.000  0.5960  118.8   2.646   23.7  0.1251   24.1  0.1484  177.0
 5.100  0.5997  117.5   2.585   22.5  0.1269   23.5  0.1494  174.2
 5.200  0.6037  116.3   2.525   21.2  0.1288   22.8  0.1507  171.4
 5.300  0.6079  115.0   2.467   19.8  0.1306   22.2  0.1523  168.7
 5.400  0.6125  113.8   2.410   18.4  0.1325   21.7  0.1543  166.1
 5.500  0.6173  112.6   2.355   16.9  0.1344   21.1  0.1566  163.5
 5.600  0.6210  111.6   2.310   15.8  0.1362   20.5  0.1571  161.0
 5.700  0.6250  110.5   2.265   14.6  0.1379   20.0  0.1580  158.5
 5.800  0.6291  109.5   2.222   13.3  0.1397   19.4  0.1591  156.1
 5.900  0.6335  108.5   2.180   12.0  0.1415   18.9  0.1605  153.7
 6.000  0.6380  107.5   2.139   10.7  0.1433   18.4  0.1622  151.3
!
!  f       NFmin   Gammaopt  rn/50
! GHz       dB    MAG  ANG    -
 0.900      0.83  0.08 -128   0.11
 1.800      1.03  0.14 -161   0.10
 2.400      1.04  0.14 -156   0.10
 3.000      1.16  0.21 -156   0.10
 4.000      1.29  0.34 -115   0.15
 5.000      1.48  0.45  -92   0.27
 6.000      1.72  0.53  -95   0.50
!
! (c) 2015  Infineon Technologies AG, Munich
