! Infineon Technologies  Discrete & RF Semiconductors
! BFP540
! VCE =  4.5 V,  IC =  6.0 mA
! Common Emitter S-Parameters:                            Nov 2015
# GHz  S  MA  R  50
!  f         S11            S21            S12            S22
! GHz     MAG   ANG      MAG   ANG      MAG   ANG      MAG   ANG
 0.010  0.7944   -0.9  17.913  178.5  0.0017   25.2  0.9669   -1.2
 0.015  0.7927   -1.7  17.794  178.4  0.0017   46.2  0.9731   -1.2
 0.020  0.7911   -2.5  17.675  178.2  0.0020   64.0  0.9793   -1.2
 0.025  0.7921   -3.0  17.674  177.7  0.0024   64.0  0.9788   -1.5
 0.030  0.7933   -3.6  17.674  177.3  0.0028   64.0  0.9784   -1.8
 0.035  0.7944   -4.1  17.675  176.8  0.0032   64.0  0.9780   -2.1
 0.040  0.7957   -4.6  17.677  176.4  0.0036   64.0  0.9776   -2.4
 0.045  0.7970   -5.2  17.681  175.9  0.0040   64.0  0.9772   -2.7
 0.050  0.7984   -5.7  17.685  175.5  0.0044   64.0  0.9769   -3.0
 0.055  0.7982   -6.3  17.674  175.1  0.0047   66.0  0.9761   -3.3
 0.060  0.7980   -6.8  17.664  174.7  0.0050   67.7  0.9754   -3.6
 0.065  0.7979   -7.4  17.655  174.3  0.0053   69.2  0.9747   -3.9
 0.070  0.7979   -8.0  17.646  173.9  0.0056   70.6  0.9740   -4.2
 0.075  0.7980   -8.6  17.639  173.5  0.0059   71.8  0.9734   -4.5
 0.080  0.7982   -9.1  17.632  173.0  0.0062   72.9  0.9728   -4.9
 0.085  0.7984   -9.7  17.627  172.6  0.0065   73.9  0.9722   -5.2
 0.090  0.7987  -10.3  17.622  172.2  0.0069   74.8  0.9716   -5.5
 0.095  0.7991  -10.8  17.618  171.8  0.0072   75.6  0.9711   -5.8
 0.100  0.7996  -11.4  17.615  171.4  0.0075   76.4  0.9706   -6.1
 0.105  0.7983  -12.0  17.598  171.0  0.0078   76.2  0.9701   -6.4
 0.110  0.7971  -12.5  17.582  170.6  0.0082   76.0  0.9697   -6.7
 0.115  0.7960  -13.1  17.567  170.2  0.0085   75.8  0.9693   -7.0
 0.120  0.7949  -13.7  17.553  169.8  0.0089   75.7  0.9689   -7.3
 0.125  0.7940  -14.2  17.540  169.4  0.0092   75.5  0.9685   -7.6
 0.130  0.7931  -14.8  17.527  169.0  0.0095   75.4  0.9682   -7.9
 0.135  0.7923  -15.4  17.516  168.6  0.0099   75.2  0.9679   -8.2
 0.140  0.7915  -16.0  17.505  168.2  0.0102   75.1  0.9676   -8.5
 0.145  0.7909  -16.5  17.495  167.8  0.0106   75.0  0.9673   -8.8
 0.150  0.7903  -17.1  17.486  167.4  0.0109   74.9  0.9671   -9.1
 0.155  0.7892  -17.7  17.458  167.0  0.0113   75.0  0.9660   -9.4
 0.160  0.7882  -18.2  17.431  166.6  0.0117   75.0  0.9649   -9.7
 0.165  0.7873  -18.8  17.405  166.2  0.0121   75.0  0.9639  -10.0
 0.170  0.7864  -19.4  17.379  165.7  0.0125   75.1  0.9628  -10.3
 0.175  0.7857  -19.9  17.355  165.3  0.0129   75.1  0.9618  -10.6
 0.180  0.7850  -20.5  17.331  164.9  0.0134   75.2  0.9609  -11.0
 0.185  0.7844  -21.1  17.309  164.5  0.0138   75.2  0.9599  -11.3
 0.190  0.7838  -21.7  17.287  164.0  0.0142   75.2  0.9590  -11.6
 0.195  0.7834  -22.2  17.267  163.6  0.0146   75.3  0.9582  -11.9
 0.200  0.7830  -22.8  17.247  163.2  0.0150   75.3  0.9573  -12.2
 0.220  0.7810  -24.9  17.139  161.6  0.0162   74.6  0.9530  -13.4
 0.240  0.7801  -27.0  17.043  160.0  0.0175   74.0  0.9492  -14.5
 0.260  0.7773  -29.2  16.939  158.4  0.0188   73.2  0.9442  -15.7
 0.280  0.7725  -31.4  16.826  156.8  0.0202   72.4  0.9380  -16.8
 0.300  0.7689  -33.7  16.726  155.2  0.0216   71.6  0.9322  -18.0
 0.320  0.7625  -35.8  16.569  153.7  0.0229   70.8  0.9253  -19.1
 0.340  0.7572  -37.9  16.423  152.2  0.0243   70.2  0.9188  -20.2
 0.360  0.7529  -40.1  16.289  150.7  0.0256   69.5  0.9125  -21.3
 0.380  0.7497  -42.2  16.167  149.1  0.0270   69.0  0.9067  -22.5
 0.400  0.7476  -44.4  16.057  147.5  0.0283   68.5  0.9012  -23.6
 0.420  0.7402  -46.5  15.898  146.1  0.0295   67.5  0.8927  -24.6
 0.440  0.7338  -48.5  15.748  144.7  0.0306   66.7  0.8845  -25.7
 0.450  0.7309  -49.6  15.677  143.9  0.0312   66.3  0.8805  -26.2
 0.460  0.7283  -50.7  15.609  143.2  0.0318   65.9  0.8765  -26.7
 0.480  0.7239  -52.8  15.480  141.7  0.0330   65.1  0.8689  -27.8
 0.500  0.7205  -55.0  15.361  140.2  0.0342   64.4  0.8616  -28.9
 0.520  0.7134  -56.9  15.164  138.9  0.0352   63.5  0.8526  -29.8
 0.540  0.7072  -58.8  14.975  137.6  0.0363   62.7  0.8439  -30.8
 0.560  0.7017  -60.8  14.794  136.2  0.0374   61.9  0.8354  -31.7
 0.580  0.6971  -62.8  14.622  134.8  0.0384   61.2  0.8271  -32.7
 0.600  0.6933  -64.8  14.459  133.4  0.0395   60.5  0.8191  -33.7
 0.620  0.6873  -66.5  14.286  132.3  0.0404   59.8  0.8104  -34.5
 0.640  0.6820  -68.3  14.118  131.2  0.0413   59.1  0.8018  -35.4
 0.660  0.6773  -70.1  13.956  130.0  0.0422   58.5  0.7935  -36.2
 0.680  0.6733  -71.9  13.800  128.8  0.0432   57.9  0.7853  -37.1
 0.700  0.6699  -73.7  13.650  127.6  0.0441   57.3  0.7773  -38.0
 0.720  0.6632  -75.5  13.468  126.5  0.0448   56.6  0.7680  -38.8
 0.740  0.6572  -77.4  13.292  125.3  0.0456   56.0  0.7590  -39.7
 0.760  0.6519  -79.3  13.121  124.2  0.0464   55.4  0.7500  -40.5
 0.780  0.6473  -81.2  12.955  122.9  0.0471   54.8  0.7413  -41.4
 0.800  0.6435  -83.2  12.796  121.7  0.0479   54.2  0.7327  -42.3
 0.820  0.6381  -84.8  12.625  120.7  0.0487   53.6  0.7244  -42.9
 0.840  0.6331  -86.3  12.457  119.7  0.0495   53.0  0.7162  -43.6
 0.860  0.6287  -87.9  12.293  118.7  0.0503   52.5  0.7080  -44.3
 0.880  0.6247  -89.6  12.134  117.6  0.0511   51.9  0.7000  -45.0
 0.900  0.6213  -91.2  11.979  116.5  0.0519   51.4  0.6921  -45.7
 0.920  0.6159  -92.7  11.825  115.7  0.0524   50.9  0.6840  -46.3
 0.940  0.6108  -94.2  11.673  114.8  0.0529   50.5  0.6761  -46.9
 0.960  0.6062  -95.7  11.524  113.9  0.0534   50.1  0.6681  -47.6
 0.980  0.6020  -97.2  11.377  113.0  0.0539   49.6  0.6603  -48.2
 1.000  0.5983  -98.8  11.234  112.1  0.0544   49.2  0.6526  -48.9
 1.020  0.5935 -100.3  11.090  111.2  0.0550   48.7  0.6450  -49.5
 1.040  0.5892 -101.9  10.949  110.4  0.0556   48.2  0.6375  -50.2
 1.060  0.5853 -103.4  10.810  109.5  0.0562   47.8  0.6301  -50.8
 1.080  0.5818 -105.0  10.674  108.5  0.0569   47.3  0.6228  -51.5
 1.100  0.5788 -106.6  10.541  107.6  0.0575   46.9  0.6156  -52.2
 1.120  0.5757 -107.9  10.407  106.9  0.0579   46.5  0.6090  -52.7
 1.140  0.5729 -109.3  10.275  106.1  0.0583   46.2  0.6024  -53.1
 1.160  0.5705 -110.6  10.145  105.3  0.0587   45.8  0.5958  -53.6
 1.180  0.5683 -112.0  10.017  104.5  0.0591   45.5  0.5893  -54.1
 1.200  0.5665 -113.4   9.891  103.7  0.0595   45.1  0.5828  -54.6
 1.220  0.5634 -114.6   9.776  103.1  0.0600   44.8  0.5766  -55.0
 1.240  0.5606 -115.8   9.662  102.4  0.0606   44.6  0.5705  -55.5
 1.260  0.5580 -117.0   9.550  101.7  0.0611   44.3  0.5643  -55.9
 1.280  0.5556 -118.2   9.439  101.0  0.0617   44.1  0.5583  -56.3
 1.300  0.5535 -119.4   9.329  100.3  0.0622   43.8  0.5522  -56.8
 1.320  0.5509 -120.7   9.222   99.7  0.0625   43.5  0.5460  -57.4
 1.340  0.5486 -122.0   9.117   99.0  0.0628   43.1  0.5399  -58.0
 1.360  0.5465 -123.3   9.013   98.3  0.0631   42.8  0.5339  -58.6
 1.380  0.5448 -124.6   8.910   97.6  0.0634   42.4  0.5279  -59.2
 1.400  0.5433 -125.9   8.809   96.9  0.0637   42.1  0.5220  -59.8
 1.420  0.5409 -127.1   8.706   96.3  0.0640   41.8  0.5167  -60.1
 1.440  0.5388 -128.3   8.603   95.6  0.0644   41.5  0.5114  -60.4
 1.460  0.5369 -129.5   8.502   94.9  0.0647   41.2  0.5061  -60.7
 1.480  0.5352 -130.8   8.403   94.2  0.0651   40.9  0.5008  -61.1
 1.500  0.5338 -132.0   8.304   93.5  0.0654   40.6  0.4956  -61.4
 1.520  0.5312 -132.9   8.213   93.0  0.0658   40.4  0.4907  -61.7
 1.540  0.5287 -133.9   8.122   92.4  0.0663   40.1  0.4858  -62.0
 1.560  0.5263 -134.9   8.033   91.9  0.0667   39.9  0.4809  -62.3
 1.580  0.5241 -135.8   7.944   91.3  0.0672   39.6  0.4761  -62.6
 1.600  0.5221 -136.8   7.856   90.7  0.0676   39.4  0.4712  -62.9
 1.620  0.5208 -138.0   7.779   90.1  0.0679   39.2  0.4666  -63.4
 1.640  0.5197 -139.1   7.704   89.5  0.0681   39.1  0.4620  -63.9
 1.660  0.5189 -140.3   7.629   88.9  0.0684   38.9  0.4575  -64.5
 1.680  0.5182 -141.5   7.555   88.2  0.0686   38.8  0.4530  -65.0
 1.700  0.5178 -142.7   7.482   87.6  0.0689   38.6  0.4485  -65.6
 1.720  0.5164 -143.6   7.403   87.1  0.0691   38.4  0.4446  -65.9
 1.740  0.5152 -144.5   7.324   86.6  0.0694   38.2  0.4407  -66.1
 1.760  0.5140 -145.4   7.247   86.0  0.0696   38.1  0.4368  -66.4
 1.780  0.5131 -146.4   7.169   85.5  0.0699   37.9  0.4329  -66.7
 1.800  0.5122 -147.3   7.093   84.9  0.0701   37.7  0.4290  -67.0
 1.820  0.5110 -148.1   7.029   84.5  0.0706   37.5  0.4247  -67.2
 1.840  0.5099 -149.0   6.966   84.0  0.0710   37.4  0.4204  -67.4
 1.860  0.5089 -149.8   6.903   83.5  0.0715   37.2  0.4161  -67.6
 1.880  0.5081 -150.7   6.841   83.1  0.0719   37.1  0.4118  -67.8
 1.900  0.5073 -151.5   6.779   82.6  0.0724   36.9  0.4075  -68.0
 1.920  0.5057 -152.5   6.717   82.1  0.0727   36.8  0.4044  -68.3
 1.940  0.5043 -153.5   6.656   81.5  0.0730   36.7  0.4013  -68.7
 1.960  0.5030 -154.5   6.595   81.0  0.0732   36.5  0.3982  -69.1
 1.980  0.5019 -155.6   6.535   80.5  0.0735   36.4  0.3951  -69.4
 2.000  0.5009 -156.6   6.475   79.9  0.0738   36.3  0.3921  -69.8
 2.020  0.5001 -157.4   6.418   79.5  0.0741   36.2  0.3887  -70.0
 2.040  0.4995 -158.1   6.362   79.1  0.0744   36.1  0.3852  -70.2
 2.060  0.4989 -158.9   6.306   78.7  0.0747   36.0  0.3818  -70.4
 2.080  0.4984 -159.7   6.250   78.2  0.0750   35.9  0.3784  -70.6
 2.100  0.4980 -160.5   6.195   77.8  0.0753   35.8  0.3750  -70.8
 2.120  0.4977 -161.3   6.140   77.4  0.0757   35.8  0.3716  -71.0
 2.140  0.4975 -162.1   6.085   76.9  0.0760   35.7  0.3682  -71.2
 2.160  0.4974 -162.8   6.031   76.4  0.0763   35.6  0.3648  -71.4
 2.180  0.4973 -163.6   5.977   76.0  0.0766   35.5  0.3614  -71.6
 2.200  0.4974 -164.4   5.924   75.5  0.0769   35.4  0.3580  -71.8
 2.220  0.4966 -165.2   5.875   75.1  0.0771   35.3  0.3555  -72.0
 2.240  0.4958 -166.0   5.825   74.7  0.0773   35.1  0.3530  -72.2
 2.260  0.4952 -166.8   5.777   74.2  0.0775   35.0  0.3505  -72.4
 2.280  0.4946 -167.7   5.728   73.8  0.0777   34.9  0.3481  -72.6
 2.300  0.4942 -168.5   5.680   73.3  0.0779   34.7  0.3456  -72.9
 2.320  0.4938 -169.3   5.632   72.9  0.0782   34.6  0.3431  -73.1
 2.340  0.4936 -170.1   5.585   72.4  0.0784   34.5  0.3407  -73.3
 2.360  0.4935 -171.0   5.538   72.0  0.0786   34.4  0.3382  -73.5
 2.380  0.4934 -171.8   5.491   71.5  0.0788   34.2  0.3357  -73.8
 2.400  0.4935 -172.6   5.445   71.0  0.0790   34.1  0.3333  -74.0
 2.420  0.4934 -173.4   5.404   70.6  0.0793   34.0  0.3298  -74.3
 2.440  0.4934 -174.1   5.364   70.2  0.0797   33.9  0.3262  -74.7
 2.460  0.4935 -174.9   5.324   69.8  0.0800   33.7  0.3227  -75.1
 2.480  0.4937 -175.6   5.284   69.4  0.0804   33.6  0.3192  -75.4
 2.500  0.4940 -176.4   5.245   68.9  0.0807   33.5  0.3157  -75.8
 2.520  0.4943 -177.1   5.206   68.5  0.0810   33.4  0.3123  -76.2
 2.540  0.4948 -177.9   5.167   68.1  0.0814   33.2  0.3088  -76.6
 2.560  0.4953 -178.6   5.128   67.6  0.0817   33.1  0.3053  -77.0
 2.580  0.4959 -179.4   5.090   67.2  0.0821   33.0  0.3019  -77.4
 2.600  0.4966  179.9   5.052   66.7  0.0824   32.9  0.2985  -77.8
 2.620  0.4967  179.3   5.018   66.3  0.0827   32.8  0.2962  -77.9
 2.640  0.4969  178.7   4.984   66.0  0.0830   32.8  0.2939  -78.1
 2.660  0.4972  178.0   4.950   65.6  0.0834   32.7  0.2915  -78.2
 2.680  0.4975  177.4   4.916   65.2  0.0837   32.7  0.2892  -78.4
 2.700  0.4979  176.8   4.883   64.9  0.0840   32.6  0.2869  -78.5
 2.720  0.4983  176.2   4.850   64.5  0.0843   32.5  0.2846  -78.7
 2.740  0.4988  175.5   4.817   64.1  0.0846   32.5  0.2823  -78.8
 2.760  0.4993  174.9   4.784   63.7  0.0850   32.4  0.2800  -79.0
 2.780  0.4999  174.3   4.751   63.3  0.0853   32.4  0.2777  -79.1
 2.800  0.5006  173.7   4.719   62.9  0.0856   32.3  0.2754  -79.3
 2.820  0.5005  173.0   4.687   62.5  0.0858   32.2  0.2729  -79.6
 2.840  0.5005  172.3   4.655   62.1  0.0860   32.1  0.2704  -79.8
 2.860  0.5005  171.7   4.623   61.7  0.0863   32.0  0.2679  -80.1
 2.880  0.5007  171.0   4.592   61.3  0.0865   31.9  0.2654  -80.4
 2.900  0.5009  170.3   4.561   60.9  0.0867   31.8  0.2629  -80.6
 2.920  0.5011  169.6   4.530   60.4  0.0869   31.7  0.2604  -80.9
 2.940  0.5015  168.9   4.499   60.0  0.0871   31.6  0.2579  -81.2
 2.960  0.5019  168.3   4.469   59.6  0.0874   31.5  0.2554  -81.5
 2.980  0.5024  167.6   4.439   59.1  0.0876   31.4  0.2530  -81.8
 3.000  0.5029  166.9   4.409   58.7  0.0878   31.3  0.2505  -82.1
 3.100  0.5045  163.9   4.276   57.0  0.0893   30.8  0.2394  -83.9
 3.200  0.5075  161.0   4.148   55.3  0.0907   30.3  0.2286  -85.8
 3.300  0.5118  158.0   4.023   53.4  0.0922   29.8  0.2180  -87.9
 3.400  0.5173  155.2   3.903   51.4  0.0937   29.3  0.2078  -90.2
 3.500  0.5242  152.4   3.788   49.3  0.0952   28.9  0.1979  -92.8
 3.600  0.5275  150.0   3.681   47.7  0.0964   28.4  0.1890  -95.7
 3.700  0.5318  147.6   3.577   46.1  0.0977   28.0  0.1806  -99.0
 3.800  0.5370  145.2   3.476   44.3  0.0989   27.5  0.1728 -102.5
 3.900  0.5431  142.9   3.379   42.5  0.1001   27.1  0.1657 -106.3
 4.000  0.5500  140.7   3.285   40.5  0.1014   26.7  0.1595 -110.5
 4.100  0.5542  138.6   3.197   39.0  0.1029   26.1  0.1554 -114.0
 4.200  0.5592  136.5   3.112   37.5  0.1044   25.5  0.1518 -117.7
 4.300  0.5649  134.5   3.028   35.8  0.1059   24.9  0.1490 -121.6
 4.400  0.5713  132.5   2.948   34.1  0.1075   24.3  0.1468 -125.6
 4.500  0.5784  130.5   2.870   32.3  0.1090   23.8  0.1454 -129.7
 4.600  0.5821  128.8   2.802   30.9  0.1104   23.4  0.1435 -132.9
 4.700  0.5863  127.1   2.736   29.4  0.1117   23.0  0.1421 -136.2
 4.800  0.5909  125.5   2.673   27.8  0.1131   22.6  0.1412 -139.6
 4.900  0.5961  123.9   2.611   26.2  0.1145   22.2  0.1407 -143.0
 5.000  0.6017  122.3   2.551   24.5  0.1159   21.8  0.1408 -146.4
 5.100  0.6052  120.9   2.492   23.2  0.1176   21.4  0.1391 -149.3
 5.200  0.6091  119.5   2.435   21.8  0.1193   20.9  0.1379 -152.3
 5.300  0.6133  118.2   2.378   20.4  0.1210   20.5  0.1369 -155.3
 5.400  0.6178  116.8   2.324   18.9  0.1227   20.1  0.1364 -158.4
 5.500  0.6227  115.5   2.271   17.3  0.1244   19.7  0.1363 -161.5
 5.600  0.6261  114.4   2.228   16.1  0.1260   19.2  0.1347 -164.3
 5.700  0.6298  113.2   2.185   14.9  0.1277   18.8  0.1334 -167.1
 5.800  0.6337  112.1   2.144   13.6  0.1293   18.3  0.1325 -170.0
 5.900  0.6379  111.0   2.103   12.3  0.1309   17.9  0.1319 -173.0
 6.000  0.6423  109.9   2.064   10.9  0.1326   17.5  0.1317 -175.9
!
!  f       NFmin   Gammaopt  rn/50
! GHz       dB    MAG  ANG    -
 0.900      0.73  0.05   38   0.12
 1.800      0.95  0.08  153   0.11
 2.400      0.97  0.09  154   0.10
 3.000      1.10  0.19  178   0.09
 4.000      1.28  0.30 -122   0.14
 5.000      1.50  0.42  -99   0.29
 6.000      1.73  0.51 -100   0.43
!
! (c) 2015  Infineon Technologies AG, Munich
