! Infineon Technologies  Discrete & RF Semiconductors
! BFP540
! VCE =  1.5 V,  IC =  6.0 mA
! Common Emitter S-Parameters:                            Nov 2015
# GHz  S  MA  R  50
!  f         S11            S21            S12            S22
! GHz     MAG   ANG      MAG   ANG      MAG   ANG      MAG   ANG
 0.010  0.7814   -1.1  17.741  178.9  0.0008   95.6  0.9788   -1.4
 0.015  0.7795   -1.9  17.640  178.7  0.0014   86.5  0.9894   -1.5
 0.020  0.7778   -2.8  17.540  178.4  0.0021   83.1  1.0000   -1.6
 0.025  0.7785   -3.4  17.558  177.9  0.0025   85.0  0.9980   -1.9
 0.030  0.7793   -3.9  17.578  177.4  0.0030   86.2  0.9960   -2.3
 0.035  0.7801   -4.5  17.598  176.9  0.0034   87.2  0.9941   -2.6
 0.040  0.7810   -5.1  17.620  176.5  0.0039   87.9  0.9922   -3.0
 0.045  0.7820   -5.6  17.644  176.0  0.0043   88.5  0.9903   -3.3
 0.050  0.7831   -6.2  17.668  175.5  0.0048   89.0  0.9885   -3.7
 0.055  0.7828   -6.8  17.659  175.1  0.0052   88.5  0.9879   -4.1
 0.060  0.7827   -7.5  17.651  174.6  0.0057   88.0  0.9873   -4.5
 0.065  0.7826   -8.1  17.644  174.2  0.0061   87.6  0.9867   -4.8
 0.070  0.7827   -8.8  17.639  173.7  0.0066   87.3  0.9862   -5.2
 0.075  0.7828   -9.4  17.634  173.3  0.0070   87.0  0.9857   -5.6
 0.080  0.7831  -10.0  17.630  172.9  0.0074   86.8  0.9853   -6.0
 0.085  0.7834  -10.7  17.628  172.4  0.0079   86.5  0.9849   -6.4
 0.090  0.7838  -11.3  17.626  172.0  0.0083   86.3  0.9846   -6.7
 0.095  0.7844  -12.0  17.626  171.5  0.0088   86.2  0.9843   -7.1
 0.100  0.7850  -12.6  17.626  171.1  0.0092   86.0  0.9840   -7.5
 0.105  0.7836  -13.2  17.609  170.7  0.0097   85.5  0.9830   -7.9
 0.110  0.7823  -13.8  17.592  170.2  0.0102   85.1  0.9820   -8.2
 0.115  0.7810  -14.4  17.577  169.8  0.0107   84.6  0.9811   -8.6
 0.120  0.7799  -15.1  17.563  169.3  0.0112   84.3  0.9802   -9.0
 0.125  0.7789  -15.7  17.549  168.9  0.0117   83.9  0.9793   -9.3
 0.130  0.7779  -16.3  17.537  168.4  0.0122   83.6  0.9785   -9.7
 0.135  0.7770  -16.9  17.526  168.0  0.0127   83.3  0.9777  -10.1
 0.140  0.7763  -17.5  17.517  167.5  0.0132   83.1  0.9770  -10.5
 0.145  0.7756  -18.2  17.508  167.1  0.0137   82.8  0.9763  -10.8
 0.150  0.7750  -18.8  17.500  166.6  0.0142   82.6  0.9756  -11.2
 0.155  0.7740  -19.4  17.469  166.2  0.0146   82.0  0.9743  -11.6
 0.160  0.7730  -20.0  17.440  165.7  0.0150   81.3  0.9730  -11.9
 0.165  0.7721  -20.6  17.411  165.3  0.0154   80.8  0.9717  -12.3
 0.170  0.7714  -21.3  17.384  164.8  0.0157   80.2  0.9705  -12.7
 0.175  0.7707  -21.9  17.358  164.4  0.0161   79.7  0.9693  -13.0
 0.180  0.7701  -22.5  17.332  163.9  0.0165   79.2  0.9682  -13.4
 0.185  0.7696  -23.1  17.308  163.5  0.0169   78.7  0.9671  -13.8
 0.190  0.7692  -23.8  17.285  163.0  0.0173   78.3  0.9660  -14.2
 0.195  0.7688  -24.4  17.263  162.6  0.0177   77.8  0.9650  -14.5
 0.200  0.7686  -25.0  17.242  162.1  0.0181   77.4  0.9640  -14.9
 0.220  0.7655  -27.4  17.116  160.4  0.0197   77.2  0.9584  -16.4
 0.240  0.7638  -29.8  17.006  158.7  0.0214   77.0  0.9534  -17.9
 0.260  0.7604  -32.2  16.886  157.0  0.0230   76.3  0.9472  -19.3
 0.280  0.7556  -34.7  16.755  155.2  0.0247   75.2  0.9397  -20.7
 0.300  0.7521  -37.2  16.639  153.5  0.0263   74.2  0.9327  -22.1
 0.320  0.7457  -39.5  16.458  151.9  0.0279   72.7  0.9237  -23.4
 0.340  0.7404  -41.8  16.290  150.3  0.0295   71.4  0.9152  -24.7
 0.360  0.7364  -44.1  16.135  148.7  0.0311   70.2  0.9073  -26.1
 0.380  0.7336  -46.4  15.994  147.0  0.0327   69.2  0.8998  -27.4
 0.400  0.7320  -48.8  15.866  145.3  0.0343   68.2  0.8928  -28.8
 0.420  0.7242  -51.0  15.682  143.8  0.0356   67.2  0.8824  -30.0
 0.440  0.7174  -53.3  15.509  142.3  0.0370   66.2  0.8723  -31.3
 0.450  0.7145  -54.4  15.426  141.6  0.0376   65.8  0.8675  -32.0
 0.460  0.7118  -55.5  15.346  140.8  0.0383   65.4  0.8628  -32.6
 0.480  0.7074  -57.9  15.195  139.2  0.0396   64.6  0.8537  -33.9
 0.500  0.7041  -60.2  15.056  137.6  0.0410   63.8  0.8450  -35.3
 0.520  0.6972  -62.2  14.840  136.3  0.0421   62.8  0.8343  -36.4
 0.540  0.6912  -64.3  14.632  134.9  0.0431   61.9  0.8238  -37.5
 0.560  0.6861  -66.4  14.433  133.5  0.0442   61.0  0.8137  -38.6
 0.580  0.6820  -68.5  14.242  132.1  0.0453   60.2  0.8039  -39.7
 0.600  0.6788  -70.7  14.061  130.6  0.0464   59.4  0.7944  -40.9
 0.620  0.6729  -72.5  13.872  129.5  0.0474   58.6  0.7840  -41.9
 0.640  0.6678  -74.3  13.689  128.3  0.0484   57.9  0.7738  -42.9
 0.660  0.6633  -76.2  13.512  127.1  0.0494   57.2  0.7639  -43.9
 0.680  0.6595  -78.1  13.341  125.9  0.0505   56.5  0.7543  -45.0
 0.700  0.6565  -80.0  13.176  124.6  0.0515   55.9  0.7449  -46.1
 0.720  0.6498  -82.0  12.985  123.5  0.0523   55.1  0.7345  -47.1
 0.740  0.6438  -83.9  12.799  122.3  0.0532   54.4  0.7243  -48.1
 0.760  0.6386  -86.0  12.618  121.2  0.0541   53.7  0.7143  -49.1
 0.780  0.6342  -88.0  12.443  119.9  0.0549   53.0  0.7046  -50.1
 0.800  0.6307  -90.1  12.273  118.7  0.0558   52.3  0.6951  -51.2
 0.820  0.6257  -91.7  12.092  117.7  0.0565   51.6  0.6858  -52.0
 0.840  0.6212  -93.3  11.915  116.7  0.0573   50.9  0.6767  -52.8
 0.860  0.6171  -94.9  11.742  115.7  0.0580   50.2  0.6677  -53.6
 0.880  0.6136  -96.5  11.573  114.7  0.0587   49.5  0.6588  -54.4
 0.900  0.6106  -98.2  11.407  113.6  0.0595   48.9  0.6501  -55.3
 0.920  0.6059  -99.7  11.251  112.7  0.0602   48.4  0.6413  -56.0
 0.940  0.6017 -101.2  11.097  111.9  0.0609   47.9  0.6326  -56.8
 0.960  0.5979 -102.8  10.946  111.0  0.0616   47.5  0.6241  -57.6
 0.980  0.5945 -104.3  10.797  110.0  0.0623   47.0  0.6156  -58.4
 1.000  0.5916 -105.9  10.652  109.1  0.0630   46.6  0.6073  -59.2
 1.020  0.5875 -107.4  10.506  108.3  0.0636   46.1  0.5992  -60.0
 1.040  0.5838 -109.0  10.363  107.4  0.0643   45.5  0.5911  -60.8
 1.060  0.5805 -110.6  10.222  106.5  0.0650   45.0  0.5832  -61.6
 1.080  0.5777 -112.2  10.084  105.6  0.0656   44.5  0.5755  -62.4
 1.100  0.5754 -113.8   9.948  104.7  0.0663   44.0  0.5678  -63.3
 1.120  0.5725 -115.2   9.815  104.0  0.0667   43.6  0.5607  -63.9
 1.140  0.5700 -116.5   9.683  103.2  0.0670   43.2  0.5536  -64.4
 1.160  0.5677 -117.9   9.553  102.5  0.0674   42.8  0.5466  -65.0
 1.180  0.5659 -119.3   9.425  101.7  0.0677   42.5  0.5396  -65.6
 1.200  0.5643 -120.7   9.298  100.9  0.0681   42.1  0.5327  -66.2
 1.220  0.5621 -121.8   9.186  100.3  0.0687   41.8  0.5263  -66.7
 1.240  0.5601 -123.0   9.075   99.6  0.0692   41.5  0.5199  -67.3
 1.260  0.5584 -124.2   8.966   98.9  0.0698   41.2  0.5135  -67.8
 1.280  0.5569 -125.3   8.858   98.2  0.0703   40.9  0.5072  -68.4
 1.300  0.5556 -126.5   8.751   97.5  0.0709   40.6  0.5010  -69.0
 1.320  0.5535 -127.8   8.645   96.9  0.0713   40.3  0.4947  -69.7
 1.340  0.5516 -129.0   8.541   96.2  0.0717   40.0  0.4885  -70.5
 1.360  0.5500 -130.3   8.438   95.5  0.0721   39.7  0.4824  -71.2
 1.380  0.5486 -131.6   8.336   94.8  0.0725   39.4  0.4763  -72.0
 1.400  0.5476 -132.9   8.235   94.1  0.0729   39.1  0.4704  -72.8
 1.420  0.5458 -134.1   8.136   93.5  0.0731   38.9  0.4650  -73.2
 1.440  0.5442 -135.2   8.038   92.9  0.0734   38.7  0.4597  -73.6
 1.460  0.5429 -136.4   7.942   92.2  0.0736   38.5  0.4544  -74.0
 1.480  0.5418 -137.6   7.846   91.6  0.0739   38.3  0.4491  -74.5
 1.500  0.5409 -138.8   7.751   90.9  0.0741   38.1  0.4438  -74.9
 1.520  0.5384 -139.7   7.664   90.3  0.0745   37.8  0.4386  -75.3
 1.540  0.5360 -140.7   7.577   89.8  0.0750   37.6  0.4334  -75.7
 1.560  0.5337 -141.7   7.491   89.2  0.0754   37.3  0.4283  -76.2
 1.580  0.5316 -142.6   7.406   88.6  0.0759   37.1  0.4232  -76.6
 1.600  0.5297 -143.6   7.322   88.0  0.0763   36.8  0.4181  -77.1
 1.620  0.5293 -144.7   7.247   87.4  0.0766   36.6  0.4137  -77.8
 1.640  0.5292 -145.8   7.173   86.8  0.0769   36.4  0.4093  -78.4
 1.660  0.5292 -146.9   7.100   86.2  0.0773   36.1  0.4050  -79.1
 1.680  0.5295 -148.0   7.028   85.6  0.0776   35.9  0.4007  -79.8
 1.700  0.5299 -149.1   6.956   85.0  0.0779   35.7  0.3965  -80.5
 1.720  0.5287 -150.1   6.881   84.5  0.0782   35.5  0.3925  -80.9
 1.740  0.5277 -151.0   6.807   84.0  0.0784   35.3  0.3886  -81.2
 1.760  0.5269 -152.0   6.734   83.5  0.0787   35.2  0.3847  -81.6
 1.780  0.5262 -152.9   6.661   83.0  0.0789   35.0  0.3808  -82.0
 1.800  0.5256 -153.9   6.588   82.5  0.0792   34.8  0.3769  -82.4
 1.820  0.5243 -154.7   6.528   82.0  0.0796   34.7  0.3724  -82.8
 1.840  0.5230 -155.5   6.468   81.5  0.0801   34.6  0.3679  -83.1
 1.860  0.5219 -156.3   6.409   81.0  0.0805   34.5  0.3634  -83.5
 1.880  0.5208 -157.1   6.350   80.5  0.0810   34.4  0.3589  -83.9
 1.900  0.5199 -157.9   6.292   80.0  0.0814   34.3  0.3545  -84.3
 1.920  0.5193 -158.9   6.232   79.5  0.0817   34.1  0.3515  -84.8
 1.940  0.5189 -159.8   6.173   79.0  0.0820   34.0  0.3486  -85.2
 1.960  0.5187 -160.8   6.114   78.5  0.0822   33.8  0.3457  -85.7
 1.980  0.5186 -161.7   6.056   77.9  0.0825   33.7  0.3428  -86.2
 2.000  0.5186 -162.7   5.998   77.4  0.0828   33.5  0.3399  -86.7
 2.020  0.5179 -163.4   5.945   77.0  0.0831   33.4  0.3364  -87.0
 2.040  0.5174 -164.2   5.892   76.6  0.0834   33.2  0.3329  -87.3
 2.060  0.5169 -164.9   5.840   76.2  0.0838   33.1  0.3294  -87.7
 2.080  0.5164 -165.6   5.788   75.7  0.0841   32.9  0.3259  -88.0
 2.100  0.5161 -166.4   5.736   75.3  0.0844   32.8  0.3224  -88.4
 2.120  0.5159 -167.1   5.685   74.9  0.0847   32.6  0.3189  -88.7
 2.140  0.5157 -167.9   5.634   74.4  0.0850   32.5  0.3155  -89.1
 2.160  0.5157 -168.6   5.583   73.9  0.0854   32.4  0.3120  -89.4
 2.180  0.5157 -169.4   5.533   73.5  0.0857   32.2  0.3086  -89.8
 2.200  0.5158 -170.1   5.483   73.0  0.0860   32.1  0.3052  -90.2
 2.220  0.5154 -170.9   5.437   72.6  0.0863   32.0  0.3027  -90.5
 2.240  0.5151 -171.6   5.391   72.2  0.0865   31.8  0.3002  -90.8
 2.260  0.5149 -172.4   5.345   71.8  0.0868   31.7  0.2977  -91.2
 2.280  0.5148 -173.1   5.299   71.3  0.0871   31.6  0.2952  -91.5
 2.300  0.5148 -173.9   5.254   70.9  0.0873   31.4  0.2927  -91.8
 2.320  0.5148 -174.7   5.209   70.5  0.0876   31.3  0.2902  -92.2
 2.340  0.5150 -175.4   5.165   70.0  0.0879   31.2  0.2877  -92.5
 2.360  0.5152 -176.2   5.120   69.5  0.0882   31.1  0.2853  -92.9
 2.380  0.5156 -176.9   5.077   69.1  0.0884   30.9  0.2828  -93.2
 2.400  0.5160 -177.7   5.033   68.6  0.0887   30.8  0.2804  -93.6
 2.420  0.5161 -178.4   4.994   68.2  0.0890   30.7  0.2771  -94.2
 2.440  0.5162 -179.1   4.956   67.8  0.0894   30.6  0.2738  -94.7
 2.460  0.5165 -179.8   4.918   67.4  0.0897   30.5  0.2705  -95.3
 2.480  0.5168  179.5   4.880   67.0  0.0901   30.4  0.2673  -95.9
 2.500  0.5172  178.8   4.843   66.5  0.0904   30.2  0.2641  -96.6
 2.520  0.5177  178.1   4.805   66.1  0.0907   30.1  0.2609  -97.2
 2.540  0.5182  177.4   4.768   65.7  0.0911   30.0  0.2578  -97.8
 2.560  0.5188  176.7   4.732   65.2  0.0914   29.9  0.2547  -98.5
 2.580  0.5195  176.0   4.695   64.8  0.0918   29.8  0.2516  -99.2
 2.600  0.5203  175.3   4.659   64.3  0.0921   29.7  0.2486  -99.9
 2.620  0.5207  174.7   4.627   63.9  0.0924   29.6  0.2462 -100.2
 2.640  0.5212  174.1   4.595   63.6  0.0927   29.6  0.2438 -100.5
 2.660  0.5217  173.5   4.563   63.2  0.0931   29.5  0.2414 -100.8
 2.680  0.5223  172.9   4.532   62.8  0.0934   29.5  0.2390 -101.2
 2.700  0.5229  172.3   4.500   62.4  0.0937   29.4  0.2366 -101.5
 2.720  0.5236  171.7   4.469   62.0  0.0940   29.4  0.2342 -101.9
 2.740  0.5244  171.1   4.438   61.6  0.0943   29.3  0.2319 -102.2
 2.760  0.5252  170.5   4.408   61.2  0.0947   29.3  0.2295 -102.6
 2.780  0.5261  169.9   4.377   60.8  0.0950   29.2  0.2271 -102.9
 2.800  0.5270  169.3   4.347   60.4  0.0953   29.2  0.2248 -103.3
 2.820  0.5270  168.6   4.317   60.0  0.0956   29.1  0.2225 -103.8
 2.840  0.5270  168.0   4.288   59.6  0.0958   29.0  0.2202 -104.3
 2.860  0.5271  167.3   4.259   59.2  0.0961   28.9  0.2179 -104.8
 2.880  0.5272  166.7   4.230   58.8  0.0964   28.8  0.2156 -105.4
 2.900  0.5275  166.0   4.201   58.4  0.0966   28.6  0.2134 -105.9
 2.920  0.5277  165.4   4.172   58.0  0.0969   28.5  0.2112 -106.5
 2.940  0.5281  164.7   4.144   57.6  0.0972   28.4  0.2090 -107.0
 2.960  0.5285  164.1   4.116   57.2  0.0975   28.3  0.2068 -107.6
 2.980  0.5290  163.4   4.088   56.7  0.0977   28.2  0.2046 -108.2
 3.000  0.5296  162.8   4.060   56.3  0.0980   28.1  0.2025 -108.8
 3.100  0.5317  160.0   3.935   54.6  0.0996   27.5  0.1932 -112.0
 3.200  0.5352  157.1   3.813   52.9  0.1012   26.9  0.1847 -115.6
 3.300  0.5399  154.4   3.695   51.0  0.1028   26.3  0.1769 -119.5
 3.400  0.5458  151.7   3.581   49.0  0.1044   25.7  0.1700 -123.7
 3.500  0.5530  149.0   3.472   46.9  0.1060   25.2  0.1641 -128.3
 3.600  0.5565  146.7   3.373   45.3  0.1072   24.6  0.1598 -133.0
 3.700  0.5608  144.4   3.276   43.7  0.1085   24.1  0.1567 -138.0
 3.800  0.5660  142.2   3.183   41.9  0.1098   23.5  0.1547 -143.2
 3.900  0.5720  140.0   3.092   40.1  0.1110   23.0  0.1541 -148.4
 4.000  0.5789  137.9   3.005   38.1  0.1123   22.5  0.1547 -153.6
 4.100  0.5830  135.9   2.923   36.6  0.1137   21.8  0.1557 -157.6
 4.200  0.5879  133.9   2.843   35.1  0.1152   21.2  0.1574 -161.4
 4.300  0.5934  132.0   2.765   33.5  0.1166   20.5  0.1598 -165.2
 4.400  0.5996  130.1   2.690   31.7  0.1181   19.9  0.1629 -168.9
 4.500  0.6065  128.2   2.617   29.9  0.1196   19.3  0.1666 -172.4
 4.600  0.6101  126.6   2.554   28.5  0.1210   18.8  0.1682 -175.3
 4.700  0.6141  125.0   2.493   27.0  0.1223   18.4  0.1702 -178.1
 4.800  0.6186  123.4   2.433   25.4  0.1237   18.0  0.1727  179.1
 4.900  0.6236  121.8   2.376   23.8  0.1251   17.5  0.1755  176.4
 5.000  0.6290  120.3   2.320   22.1  0.1265   17.1  0.1787  173.8
 5.100  0.6320  118.9   2.266   20.8  0.1281   16.6  0.1797  171.3
 5.200  0.6354  117.6   2.212   19.5  0.1297   16.1  0.1810  168.9
 5.300  0.6391  116.2   2.161   18.0  0.1313   15.6  0.1827  166.5
 5.400  0.6432  114.9   2.110   16.6  0.1329   15.2  0.1846  164.2
 5.500  0.6476  113.6   2.061   15.0  0.1345   14.7  0.1869  161.9
 5.600  0.6510  112.5   2.021   13.8  0.1360   14.2  0.1876  159.6
 5.700  0.6546  111.4   1.982   12.6  0.1374   13.8  0.1887  157.3
 5.800  0.6585  110.3   1.943   11.3  0.1389   13.4  0.1900  155.1
 5.900  0.6626  109.2   1.906   10.0  0.1404   12.9  0.1916  152.9
 6.000  0.6670  108.1   1.870    8.6  0.1419   12.5  0.1935  150.7
!
!  f       NFmin   Gammaopt  rn/50
! GHz       dB    MAG  ANG    -
 0.900      0.73  0.05   38   0.12
 1.800      0.95  0.08  153   0.11
 2.400      0.97  0.09  154   0.10
 3.000      1.10  0.19  178   0.09
 4.000      1.28  0.30 -122   0.14
 5.000      1.50  0.42  -99   0.29
 6.000      1.73  0.51 -100   0.43
!
! (c) 2015  Infineon Technologies AG, Munich
