! Infineon Technologies  Discrete & RF Semiconductors
! BFP540FESD
! VCE =  4.5 V,  IC =  3.0 mA
! Common Emitter S-Parameters:                            Nov 2015
# GHz  S  MA  R  50
!  f         S11            S21            S12            S22
! GHz     MAG   ANG      MAG   ANG      MAG   ANG      MAG   ANG
 0.010  0.9339    0.0  10.563  178.9  0.0015   40.9  0.9890   -3.2
 0.015  0.9237   -1.4  10.367  178.8  0.0018   49.0  0.9875   -2.1
 0.020  0.9140   -2.9  10.171  178.7  0.0021   54.8  0.9863   -1.0
 0.025  0.9176   -3.1  10.188  178.4  0.0025   61.2  0.9860   -1.2
 0.030  0.9212   -3.2  10.206  178.1  0.0030   65.7  0.9858   -1.4
 0.035  0.9248   -3.4  10.224  177.7  0.0034   69.1  0.9855   -1.6
 0.040  0.9284   -3.6  10.242  177.4  0.0039   71.7  0.9853   -1.8
 0.045  0.9321   -3.7  10.260  177.1  0.0043   73.7  0.9851   -2.0
 0.050  0.9357   -3.9  10.279  176.8  0.0048   75.3  0.9849   -2.2
 0.055  0.9350   -4.3  10.275  176.5  0.0052   75.8  0.9848   -2.4
 0.060  0.9343   -4.7  10.271  176.2  0.0056   76.1  0.9846   -2.7
 0.065  0.9336   -5.1  10.268  175.8  0.0060   76.5  0.9845   -2.9
 0.070  0.9330   -5.5  10.264  175.5  0.0064   76.8  0.9844   -3.1
 0.075  0.9325   -5.9  10.261  175.2  0.0067   77.0  0.9844   -3.3
 0.080  0.9319   -6.4  10.259  174.9  0.0071   77.3  0.9843   -3.6
 0.085  0.9315   -6.8  10.257  174.6  0.0075   77.5  0.9842   -3.8
 0.090  0.9311   -7.2  10.255  174.2  0.0079   77.7  0.9842   -4.0
 0.095  0.9307   -7.6  10.253  173.9  0.0083   77.8  0.9842   -4.3
 0.100  0.9304   -8.0  10.252  173.6  0.0087   78.0  0.9842   -4.5
 0.105  0.9293   -8.5  10.252  173.3  0.0091   78.0  0.9837   -4.7
 0.110  0.9282   -9.0  10.253  173.0  0.0095   78.1  0.9831   -4.9
 0.115  0.9273   -9.6  10.253  172.7  0.0099   78.1  0.9826   -5.1
 0.120  0.9264  -10.1  10.254  172.4  0.0103   78.1  0.9821   -5.3
 0.125  0.9255  -10.6  10.256  172.0  0.0107   78.1  0.9816   -5.5
 0.130  0.9248  -11.1  10.257  171.7  0.0111   78.1  0.9812   -5.8
 0.135  0.9241  -11.6  10.259  171.4  0.0115   78.2  0.9807   -6.0
 0.140  0.9235  -12.2  10.262  171.1  0.0119   78.2  0.9803   -6.2
 0.145  0.9230  -12.7  10.264  170.8  0.0123   78.2  0.9798   -6.4
 0.150  0.9226  -13.2  10.267  170.5  0.0127   78.2  0.9794   -6.6
 0.155  0.9222  -13.6  10.253  170.1  0.0132   78.1  0.9786   -6.8
 0.160  0.9219  -13.9  10.239  169.8  0.0136   77.9  0.9779   -7.0
 0.165  0.9216  -14.3  10.225  169.4  0.0141   77.8  0.9772   -7.3
 0.170  0.9213  -14.6  10.212  169.1  0.0146   77.7  0.9765   -7.5
 0.175  0.9211  -15.0  10.199  168.7  0.0150   77.6  0.9758   -7.7
 0.180  0.9209  -15.4  10.187  168.4  0.0155   77.5  0.9751   -7.9
 0.185  0.9207  -15.7  10.175  168.0  0.0160   77.4  0.9744   -8.1
 0.190  0.9206  -16.1  10.164  167.6  0.0165   77.4  0.9738   -8.4
 0.195  0.9205  -16.4  10.153  167.3  0.0169   77.3  0.9731   -8.6
 0.200  0.9205  -16.8  10.142  166.9  0.0174   77.2  0.9725   -8.8
 0.220  0.9153  -18.5  10.107  165.7  0.0190   76.4  0.9699   -9.7
 0.240  0.9109  -20.2  10.077  164.5  0.0206   75.7  0.9676  -10.6
 0.260  0.9069  -21.9  10.045  163.2  0.0222   75.2  0.9646  -11.4
 0.280  0.9033  -23.6  10.011  161.9  0.0238   74.9  0.9611  -12.3
 0.300  0.9005  -25.3   9.982  160.6  0.0254   74.6  0.9577  -13.1
 0.320  0.8957  -26.9   9.923  159.4  0.0270   73.6  0.9533  -13.9
 0.340  0.8915  -28.5   9.869  158.1  0.0286   72.8  0.9490  -14.7
 0.360  0.8880  -30.1   9.819  156.9  0.0302   72.0  0.9449  -15.5
 0.380  0.8853  -31.7   9.774  155.6  0.0318   71.3  0.9411  -16.4
 0.400  0.8832  -33.3   9.734  154.3  0.0334   70.7  0.9374  -17.2
 0.420  0.8762  -34.9   9.675  153.1  0.0348   69.7  0.9315  -18.0
 0.440  0.8699  -36.5   9.621  151.9  0.0361   68.7  0.9258  -18.7
 0.450  0.8670  -37.3   9.595  151.3  0.0368   68.3  0.9231  -19.1
 0.460  0.8643  -38.2   9.570  150.7  0.0375   67.9  0.9203  -19.5
 0.480  0.8594  -39.8   9.524  149.4  0.0389   67.1  0.9150  -20.3
 0.500  0.8553  -41.5   9.483  148.2  0.0403   66.3  0.9098  -21.1
 0.520  0.8483  -43.0   9.398  147.1  0.0417   65.7  0.9036  -21.8
 0.540  0.8419  -44.6   9.317  145.9  0.0430   65.1  0.8975  -22.5
 0.560  0.8361  -46.2   9.240  144.7  0.0444   64.5  0.8916  -23.2
 0.580  0.8310  -47.8   9.166  143.5  0.0457   64.0  0.8858  -24.0
 0.600  0.8265  -49.4   9.097  142.3  0.0471   63.5  0.8802  -24.7
 0.620  0.8205  -50.7   9.022  141.3  0.0483   62.6  0.8741  -25.4
 0.640  0.8150  -52.1   8.949  140.3  0.0495   61.7  0.8682  -26.0
 0.660  0.8099  -53.4   8.879  139.3  0.0507   60.9  0.8623  -26.7
 0.680  0.8053  -54.8   8.812  138.3  0.0519   60.1  0.8566  -27.4
 0.700  0.8011  -56.2   8.748  137.3  0.0531   59.3  0.8510  -28.1
 0.720  0.7938  -57.7   8.674  136.3  0.0541   58.6  0.8441  -28.7
 0.740  0.7870  -59.3   8.603  135.2  0.0550   57.9  0.8372  -29.4
 0.760  0.7809  -60.9   8.535  134.1  0.0560   57.3  0.8305  -30.0
 0.780  0.7754  -62.6   8.470  133.0  0.0570   56.6  0.8239  -30.7
 0.800  0.7705  -64.2   8.408  131.9  0.0580   56.0  0.8174  -31.4
 0.820  0.7641  -65.5   8.324  130.9  0.0589   55.4  0.8109  -31.9
 0.840  0.7580  -66.9   8.243  130.0  0.0599   54.7  0.8045  -32.5
 0.860  0.7524  -68.2   8.164  129.0  0.0608   54.1  0.7981  -33.1
 0.880  0.7472  -69.6   8.088  127.9  0.0617   53.6  0.7918  -33.6
 0.900  0.7425  -71.0   8.014  126.9  0.0627   53.0  0.7856  -34.2
 0.920  0.7370  -72.2   7.938  126.1  0.0634   52.5  0.7794  -34.7
 0.940  0.7319  -73.4   7.863  125.3  0.0641   52.0  0.7733  -35.3
 0.960  0.7270  -74.6   7.790  124.4  0.0648   51.5  0.7673  -35.8
 0.980  0.7226  -75.8   7.719  123.6  0.0655   51.0  0.7613  -36.3
 1.000  0.7184  -77.1   7.649  122.7  0.0662   50.5  0.7554  -36.9
 1.020  0.7125  -78.5   7.576  121.9  0.0671   50.0  0.7493  -37.4
 1.040  0.7071  -79.8   7.505  121.0  0.0680   49.5  0.7433  -38.0
 1.060  0.7020  -81.2   7.436  120.1  0.0689   49.1  0.7374  -38.5
 1.080  0.6974  -82.7   7.369  119.2  0.0698   48.6  0.7315  -39.0
 1.100  0.6932  -84.1   7.303  118.3  0.0707   48.2  0.7257  -39.6
 1.120  0.6880  -85.3   7.225  117.6  0.0712   47.7  0.7196  -40.0
 1.140  0.6832  -86.6   7.148  116.8  0.0717   47.1  0.7136  -40.5
 1.160  0.6786  -87.8   7.073  116.0  0.0722   46.6  0.7076  -40.9
 1.180  0.6745  -89.1   6.999  115.2  0.0728   46.1  0.7017  -41.3
 1.200  0.6706  -90.4   6.926  114.4  0.0733   45.6  0.6958  -41.8
 1.220  0.6661  -91.4   6.859  113.7  0.0739   45.2  0.6903  -42.1
 1.240  0.6618  -92.4   6.794  113.0  0.0744   44.9  0.6849  -42.5
 1.260  0.6577  -93.5   6.729  112.3  0.0750   44.5  0.6795  -42.9
 1.280  0.6538  -94.5   6.666  111.6  0.0755   44.1  0.6741  -43.2
 1.300  0.6502  -95.6   6.603  110.9  0.0761   43.8  0.6687  -43.6
 1.320  0.6465  -96.8   6.542  110.2  0.0766   43.4  0.6631  -44.1
 1.340  0.6430  -97.9   6.482  109.5  0.0772   42.9  0.6575  -44.6
 1.360  0.6398  -99.1   6.423  108.8  0.0777   42.5  0.6520  -45.1
 1.380  0.6369 -100.3   6.365  108.0  0.0783   42.1  0.6466  -45.7
 1.400  0.6343 -101.5   6.308  107.3  0.0788   41.7  0.6412  -46.2
 1.420  0.6303 -102.7   6.248  106.6  0.0792   41.3  0.6362  -46.5
 1.440  0.6266 -103.9   6.188  105.9  0.0795   40.9  0.6312  -46.9
 1.460  0.6231 -105.1   6.130  105.2  0.0799   40.5  0.6263  -47.2
 1.480  0.6199 -106.3   6.072  104.4  0.0802   40.1  0.6213  -47.5
 1.500  0.6170 -107.5   6.016  103.7  0.0806   39.7  0.6164  -47.9
 1.520  0.6131 -108.4   5.955  103.1  0.0810   39.6  0.6119  -48.2
 1.540  0.6093 -109.2   5.894  102.6  0.0814   39.5  0.6074  -48.5
 1.560  0.6057 -110.1   5.834  102.0  0.0817   39.3  0.6029  -48.8
 1.580  0.6022 -111.0   5.774  101.4  0.0821   39.2  0.5984  -49.2
 1.600  0.5989 -111.9   5.715  100.8  0.0825   39.1  0.5940  -49.5
 1.620  0.5962 -113.0   5.668  100.2  0.0828   38.8  0.5892  -49.9
 1.640  0.5938 -114.1   5.622   99.6  0.0831   38.4  0.5845  -50.4
 1.660  0.5916 -115.2   5.576   98.9  0.0835   38.1  0.5797  -50.8
 1.680  0.5896 -116.4   5.531   98.3  0.0838   37.7  0.5751  -51.2
 1.700  0.5878 -117.5   5.487   97.6  0.0841   37.4  0.5704  -51.7
 1.720  0.5846 -118.4   5.434   97.0  0.0843   37.1  0.5669  -52.0
 1.740  0.5815 -119.3   5.381   96.4  0.0845   36.9  0.5634  -52.3
 1.760  0.5786 -120.2   5.329   95.8  0.0848   36.6  0.5599  -52.6
 1.780  0.5758 -121.2   5.278   95.2  0.0850   36.4  0.5564  -53.0
 1.800  0.5732 -122.1   5.227   94.6  0.0852   36.1  0.5530  -53.3
 1.820  0.5719 -122.9   5.182   94.2  0.0855   35.9  0.5488  -53.5
 1.840  0.5706 -123.7   5.137   93.7  0.0859   35.7  0.5447  -53.7
 1.860  0.5695 -124.6   5.092   93.2  0.0862   35.6  0.5406  -53.9
 1.880  0.5686 -125.4   5.048   92.8  0.0866   35.4  0.5364  -54.2
 1.900  0.5677 -126.2   5.004   92.3  0.0869   35.2  0.5323  -54.4
 1.920  0.5641 -127.2   4.963   91.7  0.0871   35.0  0.5288  -54.8
 1.940  0.5606 -128.1   4.922   91.1  0.0873   34.8  0.5254  -55.1
 1.960  0.5573 -129.1   4.882   90.5  0.0876   34.5  0.5219  -55.5
 1.980  0.5542 -130.1   4.843   89.9  0.0878   34.3  0.5185  -55.8
 2.000  0.5512 -131.1   4.804   89.3  0.0880   34.1  0.5151  -56.2
 2.020  0.5500 -131.8   4.762   88.9  0.0882   34.0  0.5122  -56.4
 2.040  0.5488 -132.5   4.720   88.5  0.0884   33.8  0.5093  -56.6
 2.060  0.5477 -133.1   4.678   88.0  0.0885   33.7  0.5064  -56.9
 2.080  0.5467 -133.8   4.637   87.6  0.0887   33.5  0.5036  -57.1
 2.100  0.5458 -134.5   4.595   87.2  0.0889   33.4  0.5007  -57.3
 2.120  0.5449 -135.2   4.555   86.7  0.0891   33.3  0.4978  -57.5
 2.140  0.5441 -135.9   4.514   86.2  0.0893   33.1  0.4950  -57.8
 2.160  0.5434 -136.6   4.474   85.8  0.0894   33.0  0.4922  -58.0
 2.180  0.5428 -137.3   4.434   85.3  0.0896   32.8  0.4893  -58.3
 2.200  0.5423 -138.0   4.394   84.8  0.0898   32.7  0.4865  -58.5
 2.220  0.5402 -138.7   4.357   84.4  0.0899   32.6  0.4842  -58.8
 2.240  0.5382 -139.5   4.321   84.0  0.0901   32.4  0.4819  -59.0
 2.260  0.5362 -140.3   4.285   83.5  0.0902   32.3  0.4795  -59.3
 2.280  0.5344 -141.0   4.249   83.1  0.0904   32.2  0.4772  -59.6
 2.300  0.5326 -141.8   4.214   82.6  0.0905   32.0  0.4750  -59.9
 2.320  0.5310 -142.6   4.178   82.2  0.0907   31.9  0.4727  -60.1
 2.340  0.5295 -143.3   4.143   81.7  0.0908   31.8  0.4704  -60.4
 2.360  0.5280 -144.1   4.109   81.3  0.0910   31.7  0.4682  -60.7
 2.380  0.5267 -144.9   4.074   80.8  0.0911   31.5  0.4659  -61.0
 2.400  0.5254 -145.7   4.040   80.3  0.0913   31.4  0.4637  -61.3
 2.420  0.5249 -146.3   4.010   79.9  0.0915   31.3  0.4610  -61.6
 2.440  0.5245 -146.9   3.980   79.6  0.0916   31.3  0.4583  -61.9
 2.460  0.5241 -147.5   3.951   79.2  0.0918   31.2  0.4556  -62.1
 2.480  0.5238 -148.1   3.921   78.8  0.0920   31.1  0.4529  -62.4
 2.500  0.5236 -148.7   3.892   78.5  0.0921   31.0  0.4502  -62.7
 2.520  0.5234 -149.3   3.863   78.1  0.0923   31.0  0.4475  -63.0
 2.540  0.5233 -149.9   3.834   77.7  0.0925   30.9  0.4449  -63.3
 2.560  0.5232 -150.5   3.805   77.3  0.0927   30.8  0.4422  -63.6
 2.580  0.5232 -151.1   3.776   76.9  0.0928   30.8  0.4396  -63.9
 2.600  0.5232 -151.7   3.748   76.5  0.0930   30.7  0.4370  -64.2
 2.620  0.5221 -152.3   3.722   76.2  0.0932   30.7  0.4356  -64.4
 2.640  0.5210 -152.8   3.696   75.8  0.0934   30.6  0.4341  -64.5
 2.660  0.5199 -153.4   3.670   75.5  0.0936   30.6  0.4327  -64.7
 2.680  0.5189 -154.0   3.644   75.1  0.0938   30.6  0.4313  -64.9
 2.700  0.5180 -154.5   3.618   74.8  0.0939   30.5  0.4299  -65.0
 2.720  0.5171 -155.1   3.593   74.4  0.0941   30.5  0.4284  -65.2
 2.740  0.5163 -155.7   3.567   74.0  0.0943   30.5  0.4270  -65.4
 2.760  0.5155 -156.2   3.542   73.7  0.0945   30.5  0.4256  -65.6
 2.780  0.5148 -156.8   3.517   73.3  0.0947   30.4  0.4242  -65.7
 2.800  0.5141 -157.4   3.492   72.9  0.0949   30.4  0.4228  -65.9
 2.820  0.5136 -157.9   3.469   72.5  0.0950   30.3  0.4214  -66.1
 2.840  0.5131 -158.4   3.445   72.2  0.0951   30.3  0.4200  -66.3
 2.860  0.5127 -159.0   3.422   71.8  0.0953   30.2  0.4186  -66.5
 2.880  0.5123 -159.5   3.399   71.4  0.0954   30.1  0.4172  -66.7
 2.900  0.5119 -160.0   3.377   71.0  0.0955   30.0  0.4158  -66.9
 2.920  0.5116 -160.5   3.354   70.6  0.0956   30.0  0.4144  -67.1
 2.940  0.5113 -161.0   3.331   70.2  0.0957   29.9  0.4130  -67.3
 2.960  0.5111 -161.6   3.309   69.8  0.0959   29.8  0.4116  -67.5
 2.980  0.5109 -162.1   3.287   69.4  0.0960   29.8  0.4103  -67.7
 3.000  0.5108 -162.6   3.265   69.0  0.0961   29.7  0.4089  -67.9
 3.100  0.5077 -164.8   3.169   67.6  0.0969   29.6  0.4037  -68.9
 3.200  0.5054 -167.1   3.075   66.1  0.0977   29.5  0.3986  -69.8
 3.300  0.5039 -169.3   2.983   64.6  0.0986   29.4  0.3937  -70.8
 3.400  0.5032 -171.6   2.893   62.9  0.0994   29.3  0.3888  -71.8
 3.500  0.5033 -173.9   2.806   61.1  0.1002   29.2  0.3841  -72.9
 3.600  0.5030 -175.5   2.737   59.8  0.1013   29.4  0.3803  -73.7
 3.700  0.5031 -177.2   2.669   58.5  0.1024   29.6  0.3765  -74.5
 3.800  0.5036 -178.8   2.603   57.1  0.1034   29.8  0.3728  -75.3
 3.900  0.5045  179.5   2.538   55.6  0.1045   29.9  0.3692  -76.1
 4.000  0.5058  177.9   2.475   54.1  0.1056   30.1  0.3657  -76.9
 4.100  0.5040  176.2   2.420   52.9  0.1069   29.9  0.3620  -77.7
 4.200  0.5026  174.6   2.367   51.6  0.1081   29.8  0.3584  -78.6
 4.300  0.5016  172.9   2.315   50.2  0.1094   29.6  0.3549  -79.5
 4.400  0.5011  171.2   2.264   48.8  0.1106   29.5  0.3515  -80.4
 4.500  0.5010  169.5   2.215   47.3  0.1119   29.3  0.3482  -81.3
 4.600  0.5007  168.0   2.174   46.1  0.1136   29.3  0.3451  -82.1
 4.700  0.5007  166.5   2.134   44.8  0.1154   29.4  0.3420  -83.0
 4.800  0.5010  164.9   2.096   43.4  0.1171   29.4  0.3391  -83.9
 4.900  0.5017  163.4   2.058   42.0  0.1189   29.5  0.3362  -84.8
 5.000  0.5028  161.9   2.022   40.6  0.1206   29.5  0.3334  -85.7
 5.100  0.4986  160.2   1.985   39.4  0.1225   29.3  0.3288  -86.9
 5.200  0.4949  158.5   1.950   38.1  0.1244   29.1  0.3244  -88.1
 5.300  0.4916  156.8   1.915   36.8  0.1262   28.9  0.3201  -89.4
 5.400  0.4887  155.1   1.881   35.4  0.1281   28.8  0.3160  -90.7
 5.500  0.4863  153.3   1.849   34.0  0.1300   28.6  0.3121  -92.0
 5.600  0.4858  151.7   1.821   32.9  0.1319   28.5  0.3080  -92.9
 5.700  0.4858  150.1   1.794   31.7  0.1339   28.3  0.3040  -93.7
 5.800  0.4861  148.5   1.768   30.4  0.1358   28.2  0.3001  -94.6
 5.900  0.4867  146.9   1.743   29.2  0.1378   28.1  0.2963  -95.6
 6.000  0.4878  145.3   1.718   27.9  0.1397   28.0  0.2925  -96.5
!
!  f       NFmin   Gammaopt  rn/50
! GHz       dB    MAG  ANG    -
!
! noise parameter not available yet for this operation point!
!
! (c) 2015  Infineon Technologies AG, Munich
