! Infineon Technologies  Discrete & RF Semiconductors
! BFP640ESD
! VCE =  1.0 V,  IC =  8.0 mA
! Common Emitter S-Parameters:                            Jan 2016
# GHz  S  MA  R  50
!  f         S11            S21            S12            S22
! GHz     MAG   ANG      MAG   ANG      MAG   ANG      MAG   ANG
 0.010  0.8837   -2.2  23.576 -179.7  0.0006   35.7  0.9825    1.1
 0.015  0.8825   -2.2  23.575  179.7  0.0008   67.4  0.9895   -0.0
 0.020  0.8814   -2.1  23.576  179.1  0.0011   84.0  0.9969   -1.1
 0.025  0.8805   -2.6  23.572  178.6  0.0014   85.2  0.9965   -1.5
 0.030  0.8796   -3.0  23.570  178.1  0.0018   85.9  0.9961   -1.8
 0.035  0.8788   -3.5  23.569  177.5  0.0021   86.4  0.9958   -2.2
 0.040  0.8781   -4.0  23.571  177.0  0.0024   86.7  0.9955   -2.6
 0.045  0.8774   -4.4  23.575  176.5  0.0028   87.0  0.9953   -2.9
 0.050  0.8768   -4.9  23.580  176.0  0.0031   87.2  0.9951   -3.3
 0.055  0.8766   -5.4  23.586  175.6  0.0034   86.7  0.9946   -3.6
 0.060  0.8764   -5.8  23.593  175.3  0.0037   86.3  0.9941   -3.9
 0.065  0.8762   -6.3  23.601  174.9  0.0040   85.9  0.9937   -4.2
 0.070  0.8762   -6.8  23.610  174.6  0.0043   85.6  0.9933   -4.5
 0.075  0.8762   -7.3  23.619  174.2  0.0046   85.3  0.9929   -4.8
 0.080  0.8762   -7.7  23.630  173.9  0.0050   85.1  0.9925   -5.2
 0.085  0.8763   -8.2  23.641  173.5  0.0053   84.9  0.9922   -5.5
 0.090  0.8765   -8.7  23.654  173.2  0.0056   84.7  0.9919   -5.8
 0.095  0.8767   -9.1  23.667  172.8  0.0059   84.5  0.9916   -6.1
 0.100  0.8770   -9.6  23.681  172.5  0.0062   84.4  0.9914   -6.4
 0.105  0.8759  -10.1  23.661  172.1  0.0065   84.0  0.9905   -6.7
 0.110  0.8749  -10.5  23.642  171.7  0.0068   83.7  0.9897   -7.1
 0.115  0.8739  -11.0  23.625  171.3  0.0071   83.4  0.9888   -7.4
 0.120  0.8729  -11.5  23.609  170.9  0.0074   83.2  0.9880   -7.7
 0.125  0.8721  -11.9  23.593  170.5  0.0077   82.9  0.9873   -8.0
 0.130  0.8713  -12.4  23.579  170.0  0.0081   82.7  0.9866   -8.4
 0.135  0.8705  -12.9  23.567  169.6  0.0084   82.5  0.9859   -8.7
 0.140  0.8698  -13.4  23.555  169.2  0.0087   82.3  0.9852   -9.0
 0.145  0.8692  -13.8  23.545  168.8  0.0090   82.1  0.9846   -9.4
 0.150  0.8686  -14.3  23.536  168.4  0.0093   81.9  0.9840   -9.7
 0.155  0.8677  -14.8  23.509  168.0  0.0096   81.6  0.9829  -10.0
 0.160  0.8668  -15.2  23.484  167.6  0.0099   81.3  0.9817  -10.3
 0.165  0.8660  -15.7  23.459  167.3  0.0102   81.0  0.9806  -10.6
 0.170  0.8653  -16.2  23.435  166.9  0.0105   80.7  0.9796  -10.9
 0.175  0.8646  -16.6  23.413  166.5  0.0107   80.4  0.9785  -11.2
 0.180  0.8640  -17.1  23.391  166.1  0.0110   80.2  0.9775  -11.6
 0.185  0.8634  -17.6  23.370  165.7  0.0113   79.9  0.9766  -11.9
 0.190  0.8629  -18.1  23.351  165.4  0.0116   79.7  0.9756  -12.2
 0.195  0.8625  -18.5  23.332  165.0  0.0119   79.5  0.9747  -12.5
 0.200  0.8621  -19.0  23.315  164.6  0.0122   79.3  0.9738  -12.8
 0.220  0.8565  -20.8  23.150  163.0  0.0134   78.3  0.9684  -14.0
 0.240  0.8518  -22.6  23.003  161.4  0.0146   77.4  0.9634  -15.3
 0.260  0.8468  -24.4  22.872  159.9  0.0158   76.5  0.9579  -16.5
 0.280  0.8415  -26.2  22.756  158.5  0.0169   75.5  0.9518  -17.7
 0.300  0.8372  -28.1  22.654  157.0  0.0180   74.6  0.9462  -18.9
 0.320  0.8311  -29.9  22.478  155.6  0.0190   73.6  0.9390  -20.1
 0.340  0.8258  -31.7  22.316  154.2  0.0201   72.6  0.9322  -21.3
 0.360  0.8201  -33.4  22.140  152.8  0.0211   71.7  0.9251  -22.5
 0.380  0.8139  -35.1  21.951  151.4  0.0221   70.8  0.9175  -23.6
 0.400  0.8084  -36.8  21.776  149.9  0.0231   70.0  0.9103  -24.7
 0.420  0.8013  -38.5  21.583  148.6  0.0241   69.1  0.9024  -25.7
 0.440  0.7949  -40.2  21.401  147.3  0.0251   68.3  0.8949  -26.8
 0.450  0.7920  -41.1  21.314  146.6  0.0256   67.9  0.8912  -27.3
 0.460  0.7883  -41.9  21.208  146.0  0.0261   67.5  0.8869  -27.8
 0.480  0.7814  -43.6  21.004  144.6  0.0270   66.7  0.8786  -28.8
 0.500  0.7752  -45.3  20.811  143.3  0.0279   65.9  0.8705  -29.9
 0.520  0.7673  -46.8  20.585  142.1  0.0287   65.0  0.8614  -30.8
 0.540  0.7600  -48.4  20.369  140.9  0.0295   64.2  0.8525  -31.8
 0.560  0.7533  -50.0  20.162  139.6  0.0303   63.4  0.8438  -32.7
 0.580  0.7471  -51.6  19.965  138.3  0.0311   62.7  0.8354  -33.7
 0.600  0.7416  -53.3  19.778  137.0  0.0319   62.0  0.8272  -34.7
 0.620  0.7336  -54.7  19.560  135.9  0.0326   61.3  0.8185  -35.6
 0.640  0.7260  -56.2  19.349  134.8  0.0334   60.6  0.8099  -36.4
 0.660  0.7189  -57.7  19.146  133.7  0.0341   60.0  0.8016  -37.3
 0.680  0.7124  -59.2  18.949  132.6  0.0349   59.4  0.7934  -38.3
 0.700  0.7063  -60.8  18.761  131.4  0.0356   58.8  0.7855  -39.2
 0.720  0.6991  -62.1  18.538  130.4  0.0362   58.2  0.7768  -40.0
 0.740  0.6922  -63.5  18.321  129.4  0.0369   57.6  0.7683  -40.7
 0.760  0.6858  -64.9  18.110  128.4  0.0375   57.1  0.7600  -41.5
 0.780  0.6798  -66.3  17.905  127.3  0.0382   56.5  0.7518  -42.4
 0.800  0.6742  -67.8  17.706  126.2  0.0388   56.0  0.7437  -43.2
 0.820  0.6673  -69.1  17.506  125.3  0.0394   55.4  0.7356  -43.9
 0.840  0.6607  -70.5  17.312  124.3  0.0399   54.9  0.7277  -44.6
 0.860  0.6545  -71.9  17.122  123.3  0.0405   54.4  0.7199  -45.4
 0.880  0.6487  -73.3  16.937  122.3  0.0411   53.9  0.7122  -46.1
 0.900  0.6433  -74.7  16.758  121.3  0.0417   53.4  0.7046  -46.9
 0.920  0.6367  -75.9  16.565  120.5  0.0422   53.0  0.6967  -47.5
 0.940  0.6304  -77.2  16.376  119.6  0.0427   52.5  0.6890  -48.2
 0.960  0.6244  -78.5  16.191  118.7  0.0433   52.1  0.6813  -48.9
 0.980  0.6187  -79.8  16.009  117.8  0.0438   51.7  0.6737  -49.6
 1.000  0.6134  -81.1  15.832  116.9  0.0443   51.3  0.6662  -50.3
 1.020  0.6077  -82.3  15.653  116.1  0.0448   50.9  0.6591  -50.9
 1.040  0.6024  -83.5  15.477  115.3  0.0452   50.5  0.6521  -51.5
 1.060  0.5973  -84.8  15.304  114.4  0.0457   50.1  0.6452  -52.1
 1.080  0.5924  -86.0  15.134  113.6  0.0461   49.8  0.6383  -52.8
 1.100  0.5879  -87.3  14.968  112.7  0.0466   49.4  0.6315  -53.4
 1.120  0.5827  -88.4  14.803  112.0  0.0470   49.0  0.6248  -54.0
 1.140  0.5777  -89.6  14.642  111.2  0.0474   48.7  0.6181  -54.6
 1.160  0.5730  -90.8  14.482  110.4  0.0479   48.4  0.6116  -55.2
 1.180  0.5685  -92.0  14.326  109.6  0.0483   48.0  0.6050  -55.8
 1.200  0.5643  -93.2  14.172  108.8  0.0487   47.7  0.5986  -56.4
 1.220  0.5596  -94.3  14.019  108.1  0.0491   47.4  0.5925  -56.9
 1.240  0.5551  -95.4  13.868  107.4  0.0495   47.1  0.5864  -57.4
 1.260  0.5508  -96.5  13.719  106.6  0.0498   46.8  0.5804  -58.0
 1.280  0.5468  -97.6  13.572  105.9  0.0502   46.5  0.5745  -58.5
 1.300  0.5429  -98.8  13.428  105.1  0.0506   46.2  0.5686  -59.1
 1.320  0.5386  -99.8  13.282  104.4  0.0510   46.0  0.5628  -59.6
 1.340  0.5345 -100.9  13.137  103.8  0.0513   45.7  0.5571  -60.1
 1.360  0.5306 -102.0  12.995  103.1  0.0517   45.5  0.5514  -60.6
 1.380  0.5269 -103.1  12.854  102.4  0.0520   45.2  0.5457  -61.1
 1.400  0.5234 -104.2  12.715  101.7  0.0524   45.0  0.5401  -61.6
 1.420  0.5198 -105.2  12.590  101.1  0.0527   44.8  0.5351  -62.0
 1.440  0.5163 -106.1  12.466  100.5  0.0531   44.6  0.5300  -62.5
 1.460  0.5130 -107.1  12.344   99.9  0.0534   44.4  0.5251  -63.0
 1.480  0.5098 -108.1  12.223   99.2  0.0538   44.2  0.5201  -63.4
 1.500  0.5068 -109.1  12.104   98.6  0.0541   44.0  0.5152  -63.9
 1.520  0.5037 -110.1  11.985   98.0  0.0544   43.8  0.5105  -64.3
 1.540  0.5008 -111.1  11.867   97.4  0.0547   43.6  0.5057  -64.8
 1.560  0.4980 -112.1  11.750   96.8  0.0551   43.4  0.5011  -65.3
 1.580  0.4954 -113.2  11.635   96.1  0.0554   43.2  0.4964  -65.7
 1.600  0.4929 -114.2  11.521   95.5  0.0557   43.0  0.4918  -66.2
 1.620  0.4898 -115.1  11.414   94.9  0.0560   42.8  0.4875  -66.6
 1.640  0.4869 -116.1  11.308   94.4  0.0563   42.6  0.4832  -67.0
 1.660  0.4840 -117.0  11.203   93.8  0.0567   42.5  0.4789  -67.4
 1.680  0.4813 -118.0  11.099   93.2  0.0570   42.3  0.4746  -67.9
 1.700  0.4788 -119.0  10.997   92.6  0.0573   42.1  0.4704  -68.3
 1.720  0.4764 -119.9  10.891   92.1  0.0576   42.0  0.4666  -68.7
 1.740  0.4741 -120.7  10.786   91.6  0.0579   41.8  0.4629  -69.0
 1.760  0.4720 -121.6  10.682   91.0  0.0583   41.7  0.4591  -69.4
 1.780  0.4699 -122.5  10.579   90.5  0.0586   41.5  0.4554  -69.8
 1.800  0.4680 -123.4  10.477   89.9  0.0589   41.4  0.4517  -70.2
 1.820  0.4657 -124.3  10.386   89.4  0.0592   41.2  0.4477  -70.6
 1.840  0.4635 -125.3  10.297   88.8  0.0595   41.1  0.4437  -71.1
 1.860  0.4615 -126.3  10.208   88.3  0.0599   40.9  0.4398  -71.6
 1.880  0.4596 -127.2  10.120   87.8  0.0602   40.8  0.4359  -72.0
 1.900  0.4578 -128.2  10.033   87.2  0.0605   40.6  0.4320  -72.5
 1.920  0.4558 -129.0   9.947   86.7  0.0608   40.5  0.4286  -72.8
 1.940  0.4539 -129.7   9.861   86.2  0.0611   40.4  0.4252  -73.2
 1.960  0.4521 -130.5   9.776   85.7  0.0614   40.2  0.4218  -73.5
 1.980  0.4504 -131.3   9.691   85.2  0.0617   40.1  0.4184  -73.8
 2.000  0.4487 -132.1   9.608   84.7  0.0620   40.0  0.4150  -74.2
 2.020  0.4468 -133.0   9.530   84.2  0.0623   39.9  0.4115  -74.6
 2.040  0.4451 -133.8   9.452   83.8  0.0626   39.8  0.4081  -75.0
 2.060  0.4434 -134.7   9.375   83.3  0.0629   39.6  0.4046  -75.4
 2.080  0.4418 -135.6   9.299   82.8  0.0632   39.5  0.4012  -75.8
 2.100  0.4403 -136.4   9.224   82.3  0.0635   39.4  0.3978  -76.2
 2.120  0.4390 -137.3   9.149   81.8  0.0638   39.3  0.3944  -76.6
 2.140  0.4377 -138.2   9.075   81.3  0.0641   39.1  0.3911  -77.0
 2.160  0.4366 -139.1   9.001   80.8  0.0644   39.0  0.3877  -77.4
 2.180  0.4355 -140.0   8.929   80.2  0.0647   38.9  0.3844  -77.9
 2.200  0.4346 -140.9   8.857   79.7  0.0650   38.8  0.3811  -78.3
 2.220  0.4332 -141.7   8.790   79.3  0.0653   38.7  0.3779  -78.7
 2.240  0.4319 -142.5   8.722   78.9  0.0656   38.6  0.3748  -79.1
 2.260  0.4307 -143.3   8.656   78.4  0.0660   38.4  0.3716  -79.5
 2.280  0.4295 -144.1   8.590   78.0  0.0663   38.3  0.3685  -79.9
 2.300  0.4285 -145.0   8.524   77.5  0.0666   38.2  0.3654  -80.4
 2.320  0.4275 -145.8   8.459   77.1  0.0669   38.1  0.3624  -80.8
 2.340  0.4266 -146.6   8.395   76.6  0.0672   37.9  0.3593  -81.2
 2.360  0.4258 -147.4   8.331   76.2  0.0676   37.8  0.3563  -81.7
 2.380  0.4251 -148.3   8.268   75.7  0.0679   37.7  0.3533  -82.1
 2.400  0.4245 -149.1   8.205   75.2  0.0682   37.6  0.3503  -82.6
 2.420  0.4237 -149.9   8.145   74.8  0.0685   37.5  0.3474  -83.0
 2.440  0.4230 -150.7   8.085   74.4  0.0688   37.4  0.3445  -83.5
 2.460  0.4224 -151.6   8.026   73.9  0.0691   37.2  0.3416  -83.9
 2.480  0.4218 -152.4   7.968   73.5  0.0694   37.1  0.3387  -84.4
 2.500  0.4214 -153.2   7.909   73.0  0.0696   37.0  0.3359  -84.9
 2.520  0.4210 -154.1   7.852   72.6  0.0699   36.9  0.3330  -85.3
 2.540  0.4208 -154.9   7.795   72.1  0.0702   36.7  0.3302  -85.8
 2.560  0.4206 -155.7   7.738   71.7  0.0705   36.6  0.3275  -86.3
 2.580  0.4205 -156.6   7.682   71.2  0.0708   36.5  0.3247  -86.8
 2.600  0.4205 -157.4   7.626   70.7  0.0711   36.4  0.3220  -87.3
 2.620  0.4200 -158.1   7.573   70.3  0.0714   36.3  0.3195  -87.7
 2.640  0.4195 -158.8   7.521   69.9  0.0717   36.2  0.3169  -88.2
 2.660  0.4191 -159.5   7.469   69.5  0.0720   36.1  0.3144  -88.6
 2.680  0.4187 -160.3   7.418   69.1  0.0723   36.0  0.3120  -89.1
 2.700  0.4184 -161.0   7.366   68.7  0.0726   35.9  0.3095  -89.6
 2.720  0.4182 -161.7   7.315   68.3  0.0730   35.9  0.3070  -90.0
 2.740  0.4181 -162.4   7.265   67.9  0.0733   35.8  0.3046  -90.5
 2.760  0.4180 -163.2   7.215   67.5  0.0736   35.7  0.3022  -91.0
 2.780  0.4180 -163.9   7.165   67.0  0.0739   35.6  0.2999  -91.5
 2.800  0.4180 -164.6   7.116   66.6  0.0742   35.5  0.2975  -92.0
 2.820  0.4179 -165.3   7.070   66.2  0.0745   35.4  0.2953  -92.4
 2.840  0.4179 -166.0   7.024   65.8  0.0748   35.3  0.2932  -92.9
 2.860  0.4179 -166.7   6.979   65.5  0.0751   35.2  0.2911  -93.4
 2.880  0.4180 -167.4   6.934   65.1  0.0754   35.1  0.2890  -93.8
 2.900  0.4181 -168.1   6.889   64.7  0.0757   35.0  0.2869  -94.3
 2.920  0.4184 -168.7   6.845   64.3  0.0761   34.9  0.2848  -94.8
 2.940  0.4186 -169.4   6.801   63.9  0.0764   34.8  0.2828  -95.3
 2.960  0.4190 -170.1   6.757   63.4  0.0767   34.7  0.2808  -95.8
 2.980  0.4193 -170.8   6.714   63.0  0.0770   34.6  0.2788  -96.3
 3.000  0.4198 -171.5   6.671   62.6  0.0773   34.5  0.2768  -96.8
 3.100  0.4192 -174.7   6.473   60.9  0.0789   33.9  0.2672  -99.2
 3.200  0.4200 -178.0   6.281   59.1  0.0805   33.4  0.2582 -101.8
 3.300  0.4221  178.8   6.096   57.1  0.0821   32.8  0.2497 -104.6
 3.400  0.4255  175.6   5.918   55.1  0.0837   32.3  0.2419 -107.5
 3.500  0.4302  172.5   5.748   52.9  0.0853   31.8  0.2347 -110.7
 3.600  0.4320  169.6   5.593   51.3  0.0869   31.1  0.2272 -113.7
 3.700  0.4349  166.7   5.444   49.5  0.0886   30.5  0.2204 -116.9
 3.800  0.4389  163.8   5.299   47.7  0.0902   29.9  0.2142 -120.2
 3.900  0.4439  161.0   5.160   45.7  0.0919   29.3  0.2089 -123.8
 4.000  0.4500  158.3   5.028   43.7  0.0936   28.7  0.2044 -127.5
 4.100  0.4539  155.8   4.896   42.1  0.0951   27.9  0.2000 -131.3
 4.200  0.4585  153.4   4.768   40.5  0.0966   27.2  0.1965 -135.2
 4.300  0.4641  151.0   4.645   38.7  0.0982   26.5  0.1940 -139.3
 4.400  0.4704  148.7   4.526   36.8  0.0997   25.8  0.1925 -143.4
 4.500  0.4774  146.4   4.412   34.9  0.1013   25.1  0.1920 -147.6
 4.600  0.4809  144.6   4.304   33.5  0.1027   24.4  0.1903 -150.8
 4.700  0.4849  142.8   4.198   32.0  0.1042   23.8  0.1893 -154.0
 4.800  0.4894  141.0   4.096   30.5  0.1056   23.2  0.1888 -157.3
 4.900  0.4943  139.3   3.996   28.9  0.1071   22.6  0.1890 -160.6
 5.000  0.4997  137.6   3.900   27.2  0.1086   22.0  0.1898 -163.8
 5.100  0.5029  136.1   3.816   25.9  0.1101   21.3  0.1889 -166.7
 5.200  0.5064  134.7   3.734   24.5  0.1116   20.6  0.1885 -169.7
 5.300  0.5103  133.2   3.655   23.0  0.1131   20.0  0.1885 -172.6
 5.400  0.5144  131.8   3.578   21.5  0.1146   19.3  0.1891 -175.6
 5.500  0.5189  130.4   3.504   19.9  0.1161   18.7  0.1902 -178.5
 5.600  0.5227  129.0   3.438   18.6  0.1177   18.0  0.1909  178.3
 5.700  0.5267  127.7   3.374   17.2  0.1193   17.3  0.1922  175.2
 5.800  0.5311  126.3   3.312   15.8  0.1210   16.7  0.1941  172.1
 5.900  0.5358  125.0   3.252   14.3  0.1226   16.0  0.1965  169.1
 6.000  0.5407  123.7   3.194   12.8  0.1243   15.4  0.1995  166.2
 6.100  0.5445  122.3   3.139   11.4  0.1261   14.6  0.2025  163.6
 6.200  0.5487  121.0   3.086   10.0  0.1278   13.8  0.2060  161.1
 6.300  0.5532  119.6   3.034    8.5  0.1296   13.0  0.2098  158.7
 6.400  0.5579  118.3   2.985    7.0  0.1315   12.2  0.2139  156.4
 6.500  0.5630  117.0   2.938    5.4  0.1333   11.5  0.2184  154.2
 6.600  0.5657  115.5   2.891    4.0  0.1351   10.6  0.2202  152.0
 6.800  0.5723  112.6   2.801    1.0  0.1388    8.9  0.2247  147.8
 7.000  0.5803  109.8   2.720   -2.1  0.1426    7.3  0.2303  143.8
 7.200  0.5869  106.7   2.635   -5.1  0.1461    5.2  0.2383  139.0
 7.400  0.5952  103.7   2.557   -8.2  0.1498    3.3  0.2479  134.5
 7.600  0.6050  100.6   2.475  -11.3  0.1529    1.1  0.2595  129.9
 7.800  0.6165   97.4   2.387  -14.4  0.1554   -1.1  0.2735  125.3
 8.000  0.6299   94.4   2.307  -17.7  0.1582   -3.3  0.2891  121.1
 8.200  0.6398   91.4   2.220  -20.3  0.1594   -5.3  0.3023  116.6
 8.400  0.6515   88.5   2.137  -23.2  0.1607   -7.3  0.3173  112.4
 8.600  0.6650   85.9   2.063  -25.9  0.1622   -9.1  0.3340  108.3
 8.800  0.6801   83.5   1.997  -28.4  0.1636  -10.7  0.3526  104.2
 9.000  0.6964   81.2   1.934  -31.1  0.1651  -12.3  0.3727  100.6
 9.200  0.7192   78.9   1.880  -33.6  0.1665  -14.0  0.3987   97.4
 9.400  0.7431   76.6   1.830  -36.2  0.1681  -15.7  0.4258   94.6
 9.600  0.7646   74.4   1.768  -38.9  0.1693  -17.4  0.4527   92.2
 9.800  0.7839   72.0   1.694  -41.7  0.1701  -19.3  0.4791   90.1
10.000  0.8044   69.8   1.624  -44.7  0.1712  -21.2  0.5060   88.3
!
!  f       NFmin   Gammaopt  rn/50
! GHz       dB    MAG  ANG    -
 0.450      0.63  0.26    9   0.10
 0.900      0.65  0.24   22   0.11
 1.900      0.69  0.18   38   0.11
 2.400      0.73  0.14   55   0.10
 5.500      1.02  0.32 -137   0.13
10.000      1.86  0.60  -80   0.73
!
! (c) 2016  Infineon Technologies AG, Munich
