! Infineon Technologies  Discrete & RF Semiconductors
! BFP640
! VCE =  2.0 V,  IC =  37 mA
! Common Emitter S-Parameters:                            Apr 2013
# GHz  S  MA  R  50
!  f         S11            S21            S12            S22
! GHz     MAG   ANG      MAG   ANG      MAG   ANG      MAG   ANG
 0.030  0.4579   -8.3  55.133  175.2  0.0013   78.6  0.9644   -2.3
 0.040  0.4582  -10.9  55.423  173.6  0.0020   90.7  0.9675   -3.7
 0.050  0.4596  -13.9  56.144  172.0  0.0016   47.8  0.9654   -5.5
 0.060  0.4647  -16.4  56.411  170.1  0.0032   76.9  0.9672   -6.8
 0.070  0.4649  -19.0  56.441  168.4  0.0030   85.7  0.9650   -8.0
 0.080  0.4620  -21.6  56.141  166.6  0.0034   85.9  0.9622   -9.3
 0.090  0.4618  -24.6  55.673  164.9  0.0046   85.2  0.9598  -10.8
 0.100  0.4586  -27.4  55.169  163.3  0.0051   82.2  0.9545  -12.2
 0.110  0.4558  -30.1  54.771  161.6  0.0055   78.6  0.9490  -13.5
 0.120  0.4532  -32.8  54.223  159.9  0.0058   80.9  0.9419  -14.8
 0.130  0.4519  -35.5  53.794  158.4  0.0054   78.8  0.9347  -16.1
 0.140  0.4493  -37.9  53.442  156.8  0.0066   78.0  0.9264  -17.3
 0.150  0.4484  -40.3  53.311  155.3  0.0069   76.5  0.9189  -18.5
 0.200  0.4385  -52.0  51.015  147.8  0.0094   74.3  0.8745  -24.0
 0.250  0.4293  -61.9  48.825  141.3  0.0105   71.0  0.8252  -28.6
 0.300  0.4154  -71.3  46.022  135.3  0.0128   71.0  0.7746  -32.7
 0.350  0.4028  -79.8  43.027  130.2  0.0137   69.3  0.7286  -36.4
 0.400  0.3870  -87.1  40.731  125.6  0.0150   67.4  0.6794  -39.2
 0.450  0.3775  -93.6  38.160  121.5  0.0163   66.7  0.6432  -41.7
 0.500  0.3641  -99.8  35.915  118.0  0.0176   65.3  0.6028  -43.9
 0.600  0.3438 -110.5  31.855  111.9  0.0198   64.2  0.5353  -47.2
 0.700  0.3289 -120.3  28.328  107.0  0.0220   63.2  0.4812  -49.6
 0.800  0.3178 -128.9  25.440  102.8  0.0244   63.4  0.4342  -51.3
 0.900  0.3089 -136.3  23.103   99.3  0.0266   62.6  0.3957  -52.5
 1.000  0.3038 -143.3  21.022   96.2  0.0284   62.5  0.3630  -53.5
 1.100  0.2992 -149.6  19.297   93.4  0.0306   62.2  0.3342  -54.0
 1.200  0.2964 -155.4  17.808   90.8  0.0329   61.7  0.3119  -54.5
 1.300  0.2948 -160.6  16.522   88.5  0.0350   61.4  0.2917  -54.6
 1.400  0.2942 -165.1  15.437   86.4  0.0372   60.8  0.2752  -54.8
 1.500  0.2936 -169.7  14.454   84.3  0.0393   60.1  0.2593  -54.5
 1.600  0.2951 -173.7  13.607   82.3  0.0415   59.7  0.2462  -54.6
 1.700  0.2961 -177.5  12.844   80.5  0.0438   59.0  0.2338  -54.4
 1.800  0.2986  178.8  12.152   78.7  0.0456   58.8  0.2224  -54.5
 1.900  0.3012  175.6  11.548   77.0  0.0481   58.0  0.2117  -54.2
 2.000  0.3045  172.3  10.977   75.3  0.0500   57.5  0.2021  -54.5
 2.100  0.3084  169.8  10.466   73.6  0.0520   56.6  0.1929  -54.9
 2.200  0.3111  166.9  10.000   72.0  0.0543   56.0  0.1850  -54.8
 2.300  0.3139  164.2   9.584   70.5  0.0563   55.4  0.1770  -54.7
 2.400  0.3171  161.5   9.188   68.9  0.0585   54.5  0.1699  -54.6
 2.500  0.3211  159.0   8.826   67.4  0.0606   53.9  0.1620  -54.2
 2.600  0.3253  156.4   8.481   65.9  0.0627   53.1  0.1545  -54.2
 2.700  0.3294  154.2   8.178   64.4  0.0647   52.2  0.1473  -53.7
 2.800  0.3332  151.9   7.892   62.9  0.0667   51.3  0.1397  -53.9
 2.900  0.3385  149.8   7.621   61.4  0.0689   50.7  0.1325  -53.7
 3.000  0.3432  147.6   7.364   60.1  0.0709   49.9  0.1245  -54.1
 3.100  0.3488  145.5   7.125   58.6  0.0730   49.0  0.1175  -54.1
 3.200  0.3538  143.5   6.909   57.2  0.0751   48.2  0.1099  -55.0
 3.300  0.3602  141.5   6.696   55.7  0.0773   47.2  0.1031  -55.4
 3.400  0.3666  139.5   6.499   54.4  0.0789   46.5  0.0953  -56.4
 3.500  0.3726  137.5   6.300   53.0  0.0810   45.3  0.0880  -56.4
 3.600  0.3790  135.7   6.127   51.6  0.0831   44.5  0.0802  -57.4
 3.700  0.3856  134.0   5.954   50.3  0.0851   43.6  0.0723  -58.1
 3.800  0.3919  132.3   5.801   48.9  0.0869   42.8  0.0645  -59.3
 3.900  0.3989  130.5   5.643   47.6  0.0889   41.9  0.0564  -60.5
 4.000  0.4062  128.9   5.490   46.2  0.0908   41.0  0.0489  -62.8
 4.100  0.4120  127.3   5.351   44.9  0.0925   40.1  0.0412  -65.5
 4.200  0.4196  125.8   5.217   43.6  0.0942   39.2  0.0346  -69.7
 4.300  0.4254  124.3   5.092   42.2  0.0961   38.3  0.0279  -74.3
 4.400  0.4332  123.0   4.964   41.0  0.0978   37.3  0.0217  -80.5
 4.500  0.4384  121.6   4.847   39.7  0.0997   36.6  0.0157  -90.2
 4.600  0.4458  120.4   4.734   38.4  0.1015   35.7  0.0110 -107.9
 4.700  0.4505  119.2   4.628   37.2  0.1032   34.7  0.0081 -142.8
 4.800  0.4573  118.1   4.525   35.9  0.1048   33.9  0.0089  174.7
 4.900  0.4624  116.8   4.420   34.6  0.1065   33.1  0.0124  149.7
 5.000  0.4679  115.9   4.330   33.5  0.1083   32.2  0.0167  137.9
 5.100  0.4725  114.7   4.237   32.2  0.1100   31.3  0.0212  129.7
 5.200  0.4764  113.8   4.155   31.0  0.1116   30.5  0.0256  123.7
 5.300  0.4808  112.7   4.065   29.8  0.1133   29.7  0.0303  119.3
 5.400  0.4849  111.8   3.986   28.6  0.1150   28.7  0.0343  114.8
 5.500  0.4889  110.7   3.904   27.4  0.1168   27.9  0.0391  111.4
 5.600  0.4919  109.9   3.833   26.3  0.1183   27.1  0.0432  108.5
 5.700  0.4944  108.9   3.760   25.1  0.1200   26.2  0.0479  105.4
 5.800  0.4979  107.9   3.696   23.9  0.1218   25.3  0.0522  103.6
 5.900  0.5012  107.2   3.628   22.8  0.1236   24.5  0.0568  101.6
 6.000  0.5043  106.2   3.568   21.6  0.1252   23.6  0.0614  100.3
 6.100  0.5091  105.5   3.509   20.4  0.1272   22.7  0.0658   99.4
 6.200  0.5107  104.5   3.452   19.3  0.1288   21.8  0.0706   98.6
 6.300  0.5160  103.6   3.396   18.0  0.1306   20.8  0.0755   97.8
 6.400  0.5187  102.5   3.342   16.8  0.1323   19.9  0.0805   97.1
 6.500  0.5237  101.4   3.290   15.5  0.1340   18.9  0.0856   96.4
 6.600  0.5264  100.3   3.241   14.3  0.1356   18.0  0.0904   95.9
 6.700  0.5313   99.2   3.191   13.1  0.1372   17.0  0.0953   95.1
 6.800  0.5351   98.1   3.140   11.9  0.1388   16.0  0.1001   94.5
 6.900  0.5402   97.0   3.090   10.6  0.1403   15.0  0.1055   93.8
 7.000  0.5436   95.7   3.046    9.3  0.1419   14.0  0.1104   93.8
 7.100  0.5488   94.5   3.000    8.1  0.1434   13.0  0.1156   93.3
 7.200  0.5525   93.3   2.959    6.9  0.1449   12.0  0.1204   93.0
 7.300  0.5574   92.2   2.914    5.5  0.1462   11.0  0.1259   92.3
 7.400  0.5620   90.9   2.871    4.3  0.1476   10.0  0.1310   91.7
 7.500  0.5681   89.7   2.824    2.9  0.1490    9.0  0.1373   90.7
 7.600  0.5728   88.4   2.784    1.7  0.1502    7.9  0.1435   90.3
 7.700  0.5794   87.3   2.744    0.4  0.1515    6.8  0.1496   89.3
 7.800  0.5853   85.9   2.699   -0.9  0.1526    5.8  0.1560   88.4
 7.900  0.5920   84.8   2.657   -2.1  0.1537    4.8  0.1636   87.2
 8.000  0.5987   83.5   2.615   -3.5  0.1547    3.8  0.1707   86.4
 8.500  0.6351   77.8   2.407   -9.8  0.1589   -1.4  0.2137   80.4
 9.000  0.6724   72.5   2.206  -15.5  0.1609   -6.2  0.2671   75.7
 9.500  0.7099   68.0   2.015  -20.4  0.1617  -10.1  0.3228   72.6
10.000  0.7423   64.6   1.856  -24.5  0.1626  -13.3  0.3692   71.5
!
!  f       NFmin   Gammaopt  rn/50
! GHz       dB    MAG  ANG    -
!
! noise parameter not available yet for this operation point!
!
! (c) 2013  Infineon Technologies AG, Munich
