! Infineon Technologies  Discrete & RF Semiconductors
! BFP640FESD
! VCE =  1.0 V,  IC =  20 mA
! Common Emitter S-Parameters:                            Jan 2016
# GHz  S  MA  R  50
!  f         S11            S21            S12            S22
! GHz     MAG   ANG      MAG   ANG      MAG   ANG      MAG   ANG
 0.010  0.7220   -0.8  48.379 -179.6  0.0003  126.5  0.9565    2.7
 0.015  0.7192   -2.2  48.502  179.2  0.0007  100.2  0.9677    0.6
 0.020  0.7168   -3.6  48.645  178.1  0.0012   93.8  0.9802   -1.5
 0.025  0.7159   -4.5  48.650  177.5  0.0015   91.7  0.9809   -2.1
 0.030  0.7153   -5.5  48.661  177.0  0.0017   90.3  0.9816   -2.6
 0.035  0.7148   -6.4  48.676  176.4  0.0020   89.2  0.9825   -3.2
 0.040  0.7145   -7.3  48.695  175.8  0.0023   88.4  0.9834   -3.8
 0.045  0.7144   -8.3  48.720  175.3  0.0025   87.8  0.9845   -4.3
 0.050  0.7145   -9.2  48.749  174.7  0.0028   87.3  0.9856   -4.9
 0.055  0.7131  -10.1  48.723  174.2  0.0031   86.4  0.9845   -5.5
 0.060  0.7119  -10.9  48.702  173.6  0.0033   85.7  0.9834   -6.0
 0.065  0.7108  -11.8  48.686  173.1  0.0036   85.1  0.9825   -6.6
 0.070  0.7099  -12.6  48.674  172.5  0.0039   84.5  0.9816   -7.2
 0.075  0.7092  -13.5  48.666  172.0  0.0041   84.1  0.9809   -7.7
 0.080  0.7086  -14.3  48.663  171.4  0.0044   83.6  0.9802   -8.3
 0.085  0.7082  -15.2  48.664  170.9  0.0047   83.3  0.9797   -8.9
 0.090  0.7079  -16.1  48.670  170.3  0.0050   83.0  0.9792   -9.5
 0.095  0.7078  -16.9  48.680  169.7  0.0052   82.7  0.9789  -10.0
 0.100  0.7079  -17.8  48.695  169.2  0.0055   82.4  0.9786  -10.6
 0.105  0.7062  -18.7  48.590  168.6  0.0058   81.7  0.9764  -11.1
 0.110  0.7047  -19.6  48.491  168.1  0.0060   81.1  0.9742  -11.7
 0.115  0.7034  -20.5  48.396  167.5  0.0063   80.6  0.9722  -12.2
 0.120  0.7023  -21.4  48.306  166.9  0.0065   80.1  0.9703  -12.8
 0.125  0.7013  -22.3  48.221  166.3  0.0068   79.6  0.9684  -13.3
 0.130  0.7005  -23.2  48.141  165.7  0.0071   79.2  0.9666  -13.9
 0.135  0.6998  -24.1  48.065  165.2  0.0073   78.8  0.9649  -14.4
 0.140  0.6994  -25.0  47.995  164.6  0.0076   78.4  0.9633  -15.0
 0.145  0.6991  -25.9  47.930  164.0  0.0078   78.0  0.9618  -15.5
 0.150  0.6990  -26.8  47.870  163.4  0.0081   77.7  0.9604  -16.1
 0.155  0.6973  -27.6  47.734  162.9  0.0083   77.3  0.9575  -16.6
 0.160  0.6958  -28.4  47.603  162.3  0.0086   76.9  0.9547  -17.1
 0.165  0.6945  -29.3  47.475  161.8  0.0088   76.5  0.9520  -17.6
 0.170  0.6933  -30.1  47.352  161.3  0.0091   76.2  0.9494  -18.1
 0.175  0.6922  -30.9  47.233  160.7  0.0093   75.8  0.9468  -18.7
 0.180  0.6913  -31.8  47.118  160.2  0.0095   75.5  0.9443  -19.2
 0.185  0.6905  -32.6  47.007  159.6  0.0098   75.2  0.9419  -19.7
 0.190  0.6898  -33.4  46.901  159.1  0.0100   74.9  0.9396  -20.2
 0.195  0.6893  -34.3  46.799  158.6  0.0103   74.7  0.9374  -20.8
 0.200  0.6890  -35.1  46.701  158.0  0.0105   74.4  0.9352  -21.3
 0.220  0.6817  -38.2  46.001  155.9  0.0114   72.8  0.9227  -23.2
 0.240  0.6765  -41.3  45.364  153.8  0.0123   71.4  0.9112  -25.1
 0.260  0.6711  -44.5  44.744  151.8  0.0132   70.1  0.8988  -27.0
 0.280  0.6656  -47.6  44.128  149.9  0.0140   69.0  0.8853  -28.8
 0.300  0.6621  -50.8  43.560  148.0  0.0148   67.9  0.8728  -30.7
 0.320  0.6552  -53.6  42.838  146.3  0.0156   66.7  0.8584  -32.4
 0.340  0.6499  -56.5  42.156  144.5  0.0163   65.5  0.8447  -34.1
 0.360  0.6447  -59.3  41.464  142.8  0.0170   64.5  0.8308  -35.7
 0.380  0.6394  -62.0  40.757  141.2  0.0177   63.4  0.8164  -37.2
 0.400  0.6355  -64.8  40.084  139.5  0.0184   62.5  0.8026  -38.8
 0.420  0.6294  -67.3  39.351  138.0  0.0190   61.5  0.7883  -40.2
 0.440  0.6245  -69.9  38.647  136.4  0.0196   60.6  0.7745  -41.7
 0.450  0.6226  -71.2  38.306  135.6  0.0199   60.2  0.7678  -42.5
 0.460  0.6193  -72.4  37.952  134.9  0.0202   59.8  0.7606  -43.2
 0.480  0.6135  -74.8  37.262  133.5  0.0207   59.0  0.7466  -44.6
 0.500  0.6088  -77.3  36.596  132.0  0.0212   58.3  0.7330  -46.0
 0.520  0.6028  -79.4  35.910  130.8  0.0217   57.6  0.7194  -47.1
 0.540  0.5976  -81.6  35.240  129.5  0.0221   56.9  0.7060  -48.2
 0.560  0.5933  -83.7  34.587  128.2  0.0226   56.3  0.6930  -49.4
 0.580  0.5899  -86.0  33.953  126.9  0.0230   55.7  0.6802  -50.6
 0.600  0.5873  -88.2  33.339  125.5  0.0235   55.1  0.6678  -51.9
 0.620  0.5822  -90.1  32.733  124.5  0.0239   54.6  0.6558  -52.9
 0.640  0.5778  -92.0  32.137  123.5  0.0243   54.1  0.6440  -53.9
 0.660  0.5741  -93.9  31.552  122.4  0.0246   53.6  0.6324  -55.0
 0.680  0.5710  -95.9  30.978  121.3  0.0250   53.2  0.6210  -56.1
 0.700  0.5686  -97.9  30.416  120.2  0.0254   52.7  0.6099  -57.2
 0.720  0.5647  -99.5  29.875  119.3  0.0257   52.3  0.5994  -58.0
 0.740  0.5612 -101.1  29.341  118.4  0.0261   51.9  0.5890  -58.9
 0.760  0.5582 -102.8  28.816  117.4  0.0264   51.5  0.5787  -59.8
 0.780  0.5556 -104.4  28.298  116.4  0.0268   51.2  0.5686  -60.7
 0.800  0.5535 -106.1  27.790  115.4  0.0271   50.8  0.5587  -61.7
 0.820  0.5507 -107.6  27.329  114.6  0.0274   50.5  0.5495  -62.5
 0.840  0.5482 -109.1  26.873  113.8  0.0276   50.3  0.5405  -63.3
 0.860  0.5461 -110.6  26.423  113.0  0.0279   50.0  0.5315  -64.1
 0.880  0.5444 -112.1  25.978  112.2  0.0281   49.8  0.5227  -64.9
 0.900  0.5431 -113.6  25.539  111.3  0.0284   49.5  0.5140  -65.8
 0.920  0.5406 -114.9  25.129  110.6  0.0287   49.3  0.5059  -66.5
 0.940  0.5384 -116.2  24.723  109.9  0.0289   49.1  0.4978  -67.3
 0.960  0.5364 -117.5  24.321  109.2  0.0292   48.9  0.4899  -68.1
 0.980  0.5348 -118.9  23.923  108.4  0.0294   48.7  0.4821  -68.9
 1.000  0.5334 -120.2  23.530  107.6  0.0297   48.5  0.4743  -69.7
 1.020  0.5318 -121.3  23.173  107.0  0.0299   48.4  0.4674  -70.4
 1.040  0.5304 -122.5  22.819  106.4  0.0302   48.3  0.4605  -71.0
 1.060  0.5292 -123.7  22.468  105.7  0.0304   48.2  0.4538  -71.7
 1.080  0.5282 -124.8  22.119  105.1  0.0307   48.1  0.4470  -72.5
 1.100  0.5275 -126.0  21.774  104.4  0.0309   48.0  0.4404  -73.2
 1.120  0.5262 -127.0  21.459  103.8  0.0311   47.9  0.4343  -73.9
 1.140  0.5250 -128.1  21.146  103.2  0.0314   47.8  0.4283  -74.5
 1.160  0.5240 -129.1  20.835  102.6  0.0316   47.7  0.4223  -75.2
 1.180  0.5232 -130.2  20.527  102.0  0.0319   47.6  0.4164  -76.0
 1.200  0.5226 -131.2  20.222  101.3  0.0321   47.5  0.4106  -76.7
 1.220  0.5218 -132.1  19.945  100.8  0.0323   47.4  0.4055  -77.3
 1.240  0.5211 -133.0  19.670  100.3  0.0325   47.4  0.4004  -77.9
 1.260  0.5205 -134.0  19.397   99.7  0.0328   47.3  0.3953  -78.5
 1.280  0.5201 -134.9  19.125   99.2  0.0330   47.3  0.3903  -79.1
 1.300  0.5198 -135.8  18.855   98.6  0.0332   47.2  0.3853  -79.7
 1.320  0.5189 -136.6  18.604   98.1  0.0334   47.2  0.3806  -80.3
 1.340  0.5181 -137.5  18.354   97.7  0.0336   47.2  0.3760  -80.9
 1.360  0.5174 -138.3  18.106   97.2  0.0338   47.2  0.3714  -81.6
 1.380  0.5169 -139.2  17.859   96.7  0.0340   47.2  0.3668  -82.2
 1.400  0.5164 -140.0  17.613   96.2  0.0342   47.2  0.3623  -82.9
 1.420  0.5158 -140.7  17.399   95.8  0.0344   47.2  0.3584  -83.4
 1.440  0.5153 -141.4  17.186   95.4  0.0346   47.2  0.3546  -83.9
 1.460  0.5149 -142.1  16.975   94.9  0.0349   47.2  0.3508  -84.5
 1.480  0.5146 -142.8  16.764   94.5  0.0351   47.2  0.3470  -85.0
 1.500  0.5143 -143.5  16.554   94.0  0.0353   47.2  0.3433  -85.6
 1.520  0.5141 -144.2  16.358   93.6  0.0355   47.2  0.3400  -86.2
 1.540  0.5140 -144.9  16.162   93.2  0.0357   47.2  0.3366  -86.7
 1.560  0.5140 -145.6  15.968   92.7  0.0360   47.2  0.3334  -87.3
 1.580  0.5141 -146.3  15.774   92.3  0.0362   47.2  0.3301  -87.9
 1.600  0.5142 -147.0  15.582   91.8  0.0364   47.2  0.3269  -88.5
 1.620  0.5136 -147.6  15.409   91.4  0.0366   47.2  0.3240  -89.0
 1.640  0.5131 -148.3  15.236   91.0  0.0368   47.2  0.3211  -89.5
 1.660  0.5126 -148.9  15.064   90.6  0.0370   47.3  0.3182  -90.0
 1.680  0.5122 -149.6  14.892   90.2  0.0372   47.3  0.3153  -90.6
 1.700  0.5119 -150.2  14.722   89.8  0.0374   47.3  0.3125  -91.1
 1.720  0.5119 -150.7  14.559   89.5  0.0376   47.3  0.3101  -91.6
 1.740  0.5120 -151.2  14.396   89.1  0.0378   47.4  0.3076  -92.1
 1.760  0.5121 -151.8  14.234   88.7  0.0381   47.4  0.3052  -92.6
 1.780  0.5122 -152.3  14.073   88.4  0.0383   47.5  0.3029  -93.1
 1.800  0.5124 -152.8  13.912   88.0  0.0385   47.5  0.3005  -93.6
 1.820  0.5122 -153.4  13.771   87.7  0.0387   47.5  0.2983  -94.1
 1.840  0.5120 -154.0  13.630   87.3  0.0389   47.5  0.2961  -94.7
 1.860  0.5119 -154.5  13.490   86.9  0.0392   47.6  0.2939  -95.3
 1.880  0.5118 -155.1  13.351   86.6  0.0394   47.6  0.2918  -95.8
 1.900  0.5118 -155.7  13.212   86.2  0.0396   47.6  0.2897  -96.4
 1.920  0.5114 -156.1  13.083   85.9  0.0398   47.6  0.2878  -96.8
 1.940  0.5111 -156.5  12.954   85.6  0.0400   47.7  0.2859  -97.2
 1.960  0.5108 -157.0  12.825   85.3  0.0403   47.7  0.2841  -97.6
 1.980  0.5105 -157.4  12.697   84.9  0.0405   47.8  0.2822  -98.1
 2.000  0.5103 -157.8  12.569   84.6  0.0407   47.8  0.2804  -98.5
 2.020  0.5100 -158.3  12.454   84.3  0.0409   47.8  0.2788  -99.0
 2.040  0.5098 -158.8  12.340   84.0  0.0412   47.8  0.2772  -99.5
 2.060  0.5097 -159.2  12.226   83.7  0.0414   47.9  0.2757 -100.0
 2.080  0.5095 -159.7  12.112   83.4  0.0416   47.9  0.2741 -100.5
 2.100  0.5094 -160.2  11.999   83.0  0.0418   47.9  0.2726 -101.0
 2.120  0.5093 -160.7  11.886   82.7  0.0421   47.9  0.2711 -101.5
 2.140  0.5093 -161.2  11.773   82.4  0.0423   47.9  0.2697 -102.0
 2.160  0.5093 -161.6  11.661   82.0  0.0425   48.0  0.2682 -102.5
 2.180  0.5093 -162.1  11.549   81.7  0.0428   48.0  0.2668 -103.1
 2.200  0.5094 -162.6  11.438   81.3  0.0430   48.0  0.2654 -103.6
 2.220  0.5093 -163.0  11.342   81.0  0.0432   48.0  0.2642 -104.1
 2.240  0.5093 -163.4  11.245   80.8  0.0435   48.0  0.2630 -104.5
 2.260  0.5093 -163.9  11.150   80.5  0.0437   48.1  0.2618 -105.0
 2.280  0.5094 -164.3  11.054   80.2  0.0439   48.1  0.2607 -105.5
 2.300  0.5094 -164.7  10.958   79.9  0.0441   48.1  0.2596 -106.0
 2.320  0.5095 -165.1  10.863   79.6  0.0444   48.1  0.2585 -106.5
 2.340  0.5096 -165.5  10.769   79.3  0.0446   48.1  0.2574 -107.0
 2.360  0.5097 -166.0  10.674   79.0  0.0448   48.2  0.2563 -107.5
 2.380  0.5099 -166.4  10.580   78.7  0.0451   48.2  0.2552 -108.0
 2.400  0.5101 -166.8  10.486   78.4  0.0453   48.2  0.2542 -108.5
 2.420  0.5102 -167.2  10.403   78.1  0.0455   48.2  0.2533 -109.0
 2.440  0.5103 -167.6  10.320   77.9  0.0458   48.2  0.2525 -109.5
 2.460  0.5104 -168.0  10.237   77.6  0.0460   48.2  0.2517 -109.9
 2.480  0.5106 -168.4  10.155   77.3  0.0462   48.2  0.2509 -110.4
 2.500  0.5107 -168.8  10.072   77.1  0.0464   48.3  0.2501 -110.9
 2.520  0.5109 -169.2   9.990   76.8  0.0467   48.3  0.2494 -111.4
 2.540  0.5112 -169.6   9.909   76.5  0.0469   48.3  0.2486 -111.9
 2.560  0.5114 -170.0   9.827   76.2  0.0471   48.3  0.2479 -112.4
 2.580  0.5117 -170.4   9.746   75.9  0.0474   48.3  0.2472 -112.9
 2.600  0.5120 -170.8   9.665   75.6  0.0476   48.3  0.2465 -113.4
 2.620  0.5121 -171.1   9.593   75.4  0.0478   48.3  0.2460 -113.8
 2.640  0.5123 -171.5   9.521   75.1  0.0481   48.3  0.2455 -114.2
 2.660  0.5124 -171.8   9.449   74.9  0.0483   48.4  0.2450 -114.7
 2.680  0.5126 -172.2   9.377   74.6  0.0485   48.4  0.2445 -115.1
 2.700  0.5128 -172.5   9.305   74.3  0.0487   48.4  0.2441 -115.5
 2.720  0.5130 -172.8   9.234   74.1  0.0490   48.4  0.2436 -116.0
 2.740  0.5133 -173.2   9.162   73.8  0.0492   48.4  0.2432 -116.4
 2.760  0.5135 -173.5   9.091   73.6  0.0494   48.5  0.2428 -116.8
 2.780  0.5138 -173.9   9.021   73.3  0.0497   48.5  0.2424 -117.3
 2.800  0.5141 -174.2   8.950   73.0  0.0499   48.5  0.2420 -117.7
 2.820  0.5144 -174.5   8.888   72.8  0.0501   48.5  0.2417 -118.1
 2.840  0.5147 -174.8   8.826   72.5  0.0504   48.5  0.2413 -118.4
 2.860  0.5150 -175.1   8.765   72.3  0.0506   48.5  0.2410 -118.8
 2.880  0.5153 -175.4   8.703   72.1  0.0509   48.5  0.2407 -119.2
 2.900  0.5157 -175.8   8.642   71.8  0.0511   48.5  0.2404 -119.5
 2.920  0.5160 -176.1   8.581   71.6  0.0513   48.5  0.2401 -119.9
 2.940  0.5164 -176.4   8.520   71.4  0.0516   48.5  0.2398 -120.3
 2.960  0.5168 -176.7   8.459   71.1  0.0518   48.5  0.2395 -120.7
 2.980  0.5172 -177.0   8.398   70.9  0.0521   48.5  0.2393 -121.0
 3.000  0.5176 -177.3   8.338   70.6  0.0523   48.5  0.2390 -121.4
 3.100  0.5178 -178.7   8.092   69.6  0.0536   48.5  0.2378 -122.8
 3.200  0.5183  179.9   7.848   68.6  0.0548   48.5  0.2367 -124.1
 3.300  0.5191  178.5   7.608   67.5  0.0561   48.5  0.2358 -125.5
 3.400  0.5202  177.1   7.370   66.3  0.0573   48.5  0.2350 -126.9
 3.500  0.5216  175.7   7.135   65.1  0.0586   48.5  0.2344 -128.3
 3.600  0.5222  174.5   6.956   64.1  0.0600   48.4  0.2327 -129.3
 3.700  0.5230  173.3   6.780   63.1  0.0614   48.3  0.2310 -130.4
 3.800  0.5240  172.1   6.605   62.0  0.0627   48.2  0.2294 -131.5
 3.900  0.5253  170.9   6.433   60.9  0.0641   48.1  0.2279 -132.6
 4.000  0.5268  169.7   6.264   59.7  0.0655   48.0  0.2265 -133.7
 4.100  0.5283  168.5   6.119   58.7  0.0669   47.7  0.2248 -135.1
 4.200  0.5300  167.4   5.976   57.7  0.0683   47.4  0.2232 -136.6
 4.300  0.5319  166.3   5.834   56.6  0.0696   47.1  0.2218 -138.0
 4.400  0.5340  165.1   5.695   55.4  0.0710   46.8  0.2205 -139.5
 4.500  0.5363  164.0   5.559   54.2  0.0724   46.5  0.2194 -141.0
 4.600  0.5378  163.0   5.436   53.3  0.0736   46.2  0.2175 -142.4
 4.700  0.5394  162.1   5.315   52.3  0.0748   45.9  0.2157 -143.9
 4.800  0.5411  161.1   5.196   51.2  0.0761   45.6  0.2141 -145.3
 4.900  0.5430  160.1   5.078   50.1  0.0773   45.3  0.2126 -146.8
 5.000  0.5451  159.2   4.962   49.0  0.0785   45.0  0.2112 -148.3
 5.100  0.5433  158.4   4.863   48.2  0.0801   44.8  0.2091 -149.0
 5.200  0.5416  157.5   4.764   47.3  0.0817   44.7  0.2070 -149.8
 5.300  0.5400  156.7   4.667   46.4  0.0833   44.5  0.2049 -150.6
 5.400  0.5385  155.8   4.571   45.5  0.0849   44.3  0.2029 -151.4
 5.500  0.5372  155.0   4.476   44.5  0.0865   44.2  0.2009 -152.2
 5.600  0.5386  153.9   4.405   43.5  0.0880   43.5  0.1998 -153.9
 5.700  0.5401  152.9   4.335   42.6  0.0894   42.9  0.1988 -155.6
 5.800  0.5419  151.8   4.267   41.5  0.0909   42.2  0.1980 -157.3
 5.900  0.5438  150.7   4.200   40.5  0.0924   41.6  0.1974 -159.0
 6.000  0.5459  149.7   4.134   39.4  0.0939   41.0  0.1970 -160.7
 6.100  0.5473  148.4   4.065   38.4  0.0951   40.4  0.1958 -162.7
 6.200  0.5490  147.2   3.997   37.3  0.0964   39.9  0.1948 -164.7
 6.300  0.5509  146.0   3.931   36.3  0.0977   39.3  0.1941 -166.8
 6.400  0.5531  144.7   3.866   35.2  0.0989   38.8  0.1936 -168.8
 6.500  0.5556  143.5   3.802   34.0  0.1002   38.3  0.1934 -170.9
 6.600  0.5575  142.4   3.739   33.1  0.1013   37.9  0.1905 -172.9
 6.800  0.5618  140.2   3.617   31.1  0.1036   37.1  0.1855 -177.2
 7.000  0.5670  138.1   3.499   29.0  0.1059   36.3  0.1815  178.4
 7.200  0.5720  136.2   3.389   27.2  0.1087   35.5  0.1751  173.6
 7.400  0.5776  134.3   3.282   25.2  0.1115   34.8  0.1699  168.5
 7.600  0.5858  132.5   3.184   23.2  0.1145   33.7  0.1690  162.5
 7.800  0.5967  130.9   3.094   21.2  0.1177   32.5  0.1727  156.0
 8.000  0.6080  129.3   3.009   19.0  0.1209   31.3  0.1786  149.9
 8.200  0.6171  127.7   2.910   16.9  0.1232   29.7  0.1907  143.8
 8.400  0.6266  126.1   2.815   14.8  0.1255   28.2  0.2046  138.5
 8.600  0.6343  124.6   2.722   12.8  0.1273   26.8  0.2193  133.4
 8.800  0.6399  123.1   2.629   11.1  0.1286   25.5  0.2348  128.5
 9.000  0.6459  121.7   2.539    9.2  0.1300   24.2  0.2518  124.2
 9.200  0.6533  120.4   2.463    8.1  0.1314   23.0  0.2716  120.7
 9.400  0.6610  119.0   2.387    6.8  0.1328   21.8  0.2923  117.7
 9.600  0.6730  117.4   2.319    5.3  0.1340   20.7  0.3163  115.4
 9.800  0.6894  115.6   2.259    3.5  0.1351   19.6  0.3434  113.6
10.000  0.7066  113.8   2.201    1.6  0.1362   18.6  0.3707  112.1
!
!  f       NFmin   Gammaopt  rn/50
! GHz       dB    MAG  ANG    -
 0.450      0.88  0.04 -159   0.09
 2.400      0.91  0.10 -167   0.09
 5.500      1.14  0.24 -175   0.08
10.000      1.67  0.43 -111   0.25
!
! (c) 2016  Infineon Technologies AG, Munich
