! Infineon Technologies  Discrete & RF Semiconductors
! BFP620F
! VCE =  1.0 V,  IC =  33 mA
! Common Emitter S-Parameters:                            Dec 2014
# GHz  S  MA  R  50
!  f         S11            S21            S12            S22
! GHz     MAG   ANG      MAG   ANG      MAG   ANG      MAG   ANG
 0.030  0.6498   -9.3  56.918  174.2  0.0029   91.8  0.9577   -4.8
 0.040  0.6481  -12.0  57.487  172.0  0.0040   89.6  0.9611   -7.1
 0.050  0.6437  -15.4  57.869  169.9  0.0041   57.7  0.9595   -9.7
 0.060  0.6465  -17.5  57.894  168.0  0.0058   85.0  0.9596  -11.5
 0.070  0.6415  -20.0  57.602  165.9  0.0064   89.3  0.9547  -13.7
 0.080  0.6375  -22.9  57.190  163.8  0.0076   77.5  0.9487  -16.0
 0.090  0.6320  -25.6  56.587  161.8  0.0093   76.7  0.9403  -18.1
 0.100  0.6278  -28.1  55.876  159.8  0.0088   74.1  0.9354  -20.0
 0.110  0.6207  -31.0  55.120  157.8  0.0106   78.2  0.9264  -22.3
 0.120  0.6142  -33.8  54.426  156.0  0.0112   79.4  0.9167  -24.3
 0.130  0.6095  -36.3  53.823  154.2  0.0114   77.0  0.9061  -26.3
 0.140  0.6033  -38.7  53.123  152.5  0.0125   75.3  0.8944  -28.3
 0.150  0.5955  -40.9  52.603  150.9  0.0130   74.7  0.8835  -30.1
 0.200  0.5653  -52.0  48.805  143.2  0.0168   70.6  0.8235  -38.8
 0.250  0.5304  -61.9  45.096  136.5  0.0196   68.4  0.7601  -46.4
 0.300  0.5008  -70.8  41.515  130.8  0.0228   65.7  0.6997  -53.2
 0.350  0.4728  -79.1  38.065  125.9  0.0248   64.3  0.6441  -58.9
 0.400  0.4476  -86.4  35.115  121.7  0.0268   63.3  0.5927  -64.1
 0.450  0.4290  -92.6  32.438  118.0  0.0289   62.4  0.5504  -68.9
 0.500  0.4089  -98.7  30.015  114.8  0.0308   61.8  0.5102  -73.1
 0.600  0.3815 -109.5  26.019  109.4  0.0342   61.6  0.4423  -80.7
 0.700  0.3614 -118.4  22.854  105.1  0.0378   61.2  0.3905  -87.5
 0.800  0.3479 -126.1  20.303  101.6  0.0413   61.1  0.3479  -93.5
 0.900  0.3363 -132.8  18.232   98.6  0.0447   61.5  0.3140  -99.4
 1.000  0.3305 -138.8  16.532   96.0  0.0481   61.8  0.2861 -104.8
 1.100  0.3239 -144.2  15.083   93.7  0.0517   61.8  0.2626 -110.4
 1.200  0.3220 -148.9  13.885   91.6  0.0550   61.7  0.2446 -115.5
 1.300  0.3190 -153.3  12.840   89.7  0.0585   61.9  0.2286 -120.9
 1.400  0.3194 -157.2  11.951   88.0  0.0621   61.8  0.2168 -125.9
 1.500  0.3180 -160.8  11.161   86.4  0.0654   61.7  0.2069 -131.1
 1.600  0.3196 -164.2  10.471   84.9  0.0690   61.6  0.2009 -135.8
 1.700  0.3193 -167.2   9.857   83.5  0.0728   61.4  0.1951 -140.6
 1.800  0.3210 -170.0   9.319   82.1  0.0761   61.2  0.1928 -144.8
 1.900  0.3219 -172.6   8.829   80.8  0.0797   61.0  0.1912 -148.8
 2.000  0.3234 -175.1   8.389   79.6  0.0831   60.6  0.1912 -152.2
 2.100  0.3261 -177.4   7.990   78.3  0.0866   60.1  0.1967 -154.2
 2.200  0.3272 -179.5   7.627   77.1  0.0902   59.6  0.1963 -157.0
 2.300  0.3286  178.4   7.295   76.0  0.0938   59.3  0.1961 -159.6
 2.400  0.3297  176.4   6.996   74.8  0.0975   58.8  0.1962 -162.1
 2.500  0.3310  174.6   6.721   73.7  0.1008   58.3  0.1970 -164.2
 2.600  0.3318  172.7   6.463   72.7  0.1043   57.9  0.1972 -166.3
 2.700  0.3330  171.0   6.226   71.6  0.1080   57.5  0.1974 -168.1
 2.800  0.3332  169.2   6.007   70.6  0.1115   56.9  0.1981 -169.7
 2.900  0.3344  167.7   5.799   69.6  0.1149   56.5  0.1989 -171.2
 3.000  0.3350  166.0   5.612   68.5  0.1184   56.0  0.1998 -172.8
 3.100  0.3360  164.7   5.430   67.6  0.1219   55.5  0.1997 -174.2
 3.200  0.3358  163.0   5.264   66.6  0.1255   55.0  0.1999 -175.5
 3.300  0.3368  161.7   5.107   65.6  0.1288   54.3  0.2000 -176.7
 3.400  0.3366  160.2   4.963   64.6  0.1324   53.7  0.2006 -178.1
 3.500  0.3375  158.8   4.824   63.6  0.1358   53.2  0.2000 -179.4
 3.600  0.3376  157.4   4.693   62.6  0.1396   52.6  0.2000  179.4
 3.700  0.3384  156.1   4.572   61.7  0.1429   51.9  0.1997  178.2
 3.800  0.3384  154.7   4.452   60.7  0.1463   51.4  0.1990  176.9
 3.900  0.3394  153.4   4.343   59.8  0.1498   50.7  0.1988  175.6
 4.000  0.3398  152.1   4.236   58.8  0.1532   50.1  0.1980  174.1
 4.100  0.3410  150.9   4.138   57.8  0.1565   49.4  0.1974  172.7
 4.200  0.3422  149.6   4.044   56.9  0.1600   48.8  0.1972  171.0
 4.300  0.3432  148.6   3.956   55.9  0.1635   48.2  0.1968  169.5
 4.400  0.3447  147.4   3.869   55.0  0.1670   47.4  0.1963  167.9
 4.500  0.3457  146.4   3.786   54.0  0.1702   46.7  0.1959  166.2
 4.600  0.3481  145.2   3.708   53.1  0.1738   46.1  0.1960  164.4
 4.700  0.3495  144.2   3.636   52.1  0.1770   45.3  0.1963  162.8
 4.800  0.3519  143.2   3.563   51.2  0.1804   44.7  0.1965  160.9
 4.900  0.3537  142.3   3.493   50.3  0.1838   44.0  0.1969  159.1
 5.000  0.3561  141.3   3.428   49.2  0.1871   43.2  0.1976  157.4
 5.100  0.3580  140.4   3.364   48.3  0.1904   42.5  0.1974  155.7
 5.200  0.3605  139.6   3.303   47.3  0.1937   41.7  0.1982  153.8
 5.300  0.3625  138.8   3.243   46.3  0.1969   41.0  0.1988  152.2
 5.400  0.3654  137.9   3.185   45.3  0.2001   40.2  0.2001  150.6
 5.500  0.3678  137.1   3.127   44.4  0.2031   39.4  0.2009  148.9
 5.600  0.3709  136.3   3.073   43.4  0.2064   38.7  0.2023  147.2
 5.700  0.3731  135.4   3.020   42.4  0.2092   37.9  0.2035  145.6
 5.800  0.3757  134.5   2.970   41.4  0.2122   37.1  0.2045  143.9
 5.900  0.3784  133.6   2.921   40.5  0.2154   36.3  0.2062  142.1
 6.000  0.3810  132.7   2.871   39.5  0.2182   35.5  0.2075  140.6
 6.100  0.3837  131.7   2.823   38.5  0.2209   34.8  0.2086  138.8
 6.200  0.3862  130.8   2.776   37.5  0.2238   34.0  0.2103  137.0
 6.300  0.3891  129.7   2.729   36.5  0.2263   33.2  0.2126  135.1
 6.400  0.3917  128.6   2.686   35.5  0.2289   32.4  0.2145  133.4
 6.500  0.3943  127.5   2.641   34.5  0.2315   31.6  0.2163  131.2
 6.600  0.3969  126.4   2.595   33.6  0.2340   30.9  0.2190  129.4
 6.700  0.3993  125.2   2.554   32.7  0.2363   30.1  0.2208  127.3
 6.800  0.4019  124.0   2.513   31.7  0.2387   29.4  0.2229  125.3
 6.900  0.4051  122.8   2.472   30.8  0.2412   28.6  0.2253  123.1
 7.000  0.4084  121.6   2.431   29.8  0.2437   27.9  0.2281  120.9
 7.100  0.4118  120.4   2.394   29.0  0.2461   27.2  0.2313  118.6
 7.200  0.4153  119.3   2.358   28.0  0.2484   26.5  0.2348  116.4
 7.300  0.4194  118.3   2.322   27.2  0.2509   25.7  0.2393  114.3
 7.400  0.4237  117.2   2.286   26.3  0.2533   25.1  0.2441  112.2
 7.500  0.4291  116.3   2.253   25.4  0.2558   24.3  0.2497  110.1
 7.600  0.4345  115.4   2.221   24.6  0.2584   23.6  0.2557  108.1
 7.700  0.4404  114.5   2.189   23.7  0.2605   22.8  0.2630  106.2
 7.800  0.4465  113.7   2.157   22.9  0.2628   22.0  0.2706  104.3
 7.900  0.4538  112.9   2.126   22.0  0.2649   21.2  0.2791  102.5
 8.000  0.4613  112.1   2.096   21.0  0.2671   20.4  0.2879  100.7
!
!  f       NFmin   Gammaopt  rn/50
! GHz       dB    MAG  ANG    -
 0.450      1.20  0.08 -172   0.17
 0.900      1.23  0.09 -171   0.13
 1.500      1.24  0.14 -149   0.13
 1.800      1.25  0.14 -148   0.14
 1.900      1.26  0.15 -148   0.14
 2.400      1.28  0.15  215   0.16
 3.500      1.34  0.16 -140   0.18
 5.500      1.49  0.23  243   0.14
 6.000      1.53  0.24  260   0.17
!
! (c) 2014  Infineon Technologies AG, Munich
