! Infineon Technologies  Discrete & RF Semiconductors
! BFP640F
! VCE =  3.5 V,  IC =  32 mA
! Common Emitter S-Parameters:                            Apr 2013
# GHz  S  MA  R  50
!  f         S11            S21            S12            S22
! GHz     MAG   ANG      MAG   ANG      MAG   ANG      MAG   ANG
 0.030  0.5547   -4.8  58.924  175.0  0.0016   69.2  0.9778   -1.9
 0.040  0.5511   -6.5  58.778  173.5  0.0016   88.8  0.9767   -3.1
 0.050  0.5497   -7.9  58.954  171.9  0.0024  128.4  0.9774   -4.0
 0.060  0.5469  -10.1  58.642  170.0  0.0023   57.5  0.9753   -5.7
 0.070  0.5457  -12.0  58.418  168.5  0.0035   78.9  0.9752   -6.7
 0.080  0.5439  -13.6  58.199  167.0  0.0034   84.2  0.9733   -7.8
 0.090  0.5404  -15.1  57.771  165.4  0.0036   77.9  0.9679   -8.9
 0.100  0.5370  -16.9  57.406  163.9  0.0048   78.9  0.9624  -10.1
 0.110  0.5335  -18.7  57.023  162.3  0.0057   78.0  0.9568  -11.0
 0.120  0.5304  -20.3  56.622  160.8  0.0056   81.2  0.9517  -12.2
 0.130  0.5266  -22.0  56.087  159.3  0.0049   70.8  0.9464  -13.2
 0.140  0.5212  -23.6  55.601  157.8  0.0059   84.9  0.9375  -14.1
 0.150  0.5164  -25.1  55.195  156.4  0.0064   85.1  0.9307  -15.1
 0.200  0.4929  -32.7  52.398  149.5  0.0083   78.3  0.8916  -19.5
 0.250  0.4669  -39.5  49.267  143.3  0.0101   75.5  0.8468  -23.1
 0.300  0.4380  -45.8  46.194  137.8  0.0118   77.6  0.8038  -26.2
 0.350  0.4118  -51.4  43.086  132.9  0.0131   74.8  0.7612  -28.7
 0.400  0.3838  -56.8  40.275  128.5  0.0145   74.7  0.7205  -30.8
 0.450  0.3626  -61.5  37.560  124.7  0.0165   73.6  0.6837  -32.5
 0.500  0.3398  -65.8  35.136  121.4  0.0177   73.2  0.6513  -33.8
 0.600  0.3026  -74.0  30.894  115.6  0.0204   73.0  0.5915  -35.9
 0.700  0.2711  -81.2  27.395  110.9  0.0229   73.2  0.5427  -37.2
 0.800  0.2456  -88.1  24.507  107.0  0.0257   72.9  0.5017  -38.0
 0.900  0.2247  -94.3  22.137  103.9  0.0282   72.6  0.4668  -38.5
 1.000  0.2073 -100.4  20.123  101.1  0.0306   72.5  0.4380  -38.7
 1.100  0.1924 -106.3  18.445   98.6  0.0335   72.2  0.4122  -38.6
 1.200  0.1804 -111.8  16.998   96.5  0.0360   71.9  0.3919  -38.6
 1.300  0.1704 -117.3  15.758   94.6  0.0384   71.8  0.3728  -38.3
 1.400  0.1632 -122.5  14.686   92.8  0.0412   71.4  0.3573  -38.1
 1.500  0.1556 -127.7  13.742   91.2  0.0436   71.1  0.3434  -37.8
 1.600  0.1512 -132.8  12.915   89.6  0.0464   70.7  0.3316  -37.7
 1.700  0.1475 -137.5  12.183   88.2  0.0489   70.6  0.3203  -37.3
 1.800  0.1442 -142.1  11.519   86.9  0.0516   70.2  0.3113  -37.3
 1.900  0.1424 -146.3  10.937   85.6  0.0540   69.7  0.3022  -37.1
 2.000  0.1404 -150.5  10.406   84.4  0.0566   69.2  0.2950  -37.3
 2.100  0.1438 -154.5   9.923   83.2  0.0591   69.0  0.2861  -38.0
 2.200  0.1424 -158.0   9.486   82.0  0.0619   68.5  0.2812  -38.0
 2.300  0.1419 -161.3   9.072   80.9  0.0644   68.1  0.2753  -38.0
 2.400  0.1414 -164.7   8.702   79.9  0.0669   67.6  0.2711  -38.2
 2.500  0.1407 -167.9   8.363   78.8  0.0694   67.3  0.2673  -38.3
 2.600  0.1402 -170.9   8.046   77.8  0.0719   66.8  0.2640  -38.6
 2.700  0.1400 -173.6   7.753   76.8  0.0743   66.4  0.2612  -38.7
 2.800  0.1400 -176.5   7.484   75.7  0.0769   66.0  0.2589  -39.1
 2.900  0.1399 -178.8   7.230   74.8  0.0794   65.5  0.2570  -39.3
 3.000  0.1397  178.5   6.994   73.9  0.0820   65.0  0.2550  -39.8
 3.100  0.1394  176.1   6.771   72.9  0.0843   64.5  0.2540  -40.1
 3.200  0.1395  173.8   6.564   72.0  0.0869   64.0  0.2524  -40.6
 3.300  0.1394  171.7   6.371   71.1  0.0895   63.5  0.2526  -41.0
 3.400  0.1401  169.3   6.188   70.2  0.0918   63.1  0.2514  -41.4
 3.500  0.1397  167.4   6.015   69.3  0.0945   62.6  0.2514  -41.8
 3.600  0.1399  165.2   5.852   68.5  0.0969   62.1  0.2513  -42.1
 3.700  0.1396  163.5   5.697   67.6  0.0994   61.7  0.2510  -42.5
 3.800  0.1404  161.5   5.555   66.7  0.1020   61.1  0.2507  -42.8
 3.900  0.1409  160.1   5.416   65.9  0.1045   60.6  0.2506  -43.2
 4.000  0.1418  158.0   5.283   65.0  0.1069   60.1  0.2500  -43.5
 4.100  0.1424  156.8   5.160   64.2  0.1095   59.6  0.2491  -43.8
 4.200  0.1437  154.9   5.042   63.4  0.1118   59.1  0.2483  -44.2
 4.300  0.1448  153.6   4.931   62.5  0.1143   58.6  0.2474  -44.5
 4.400  0.1470  152.3   4.823   61.7  0.1169   58.1  0.2467  -44.9
 4.500  0.1478  151.0   4.722   60.9  0.1192   57.5  0.2456  -45.1
 4.600  0.1505  149.8   4.625   60.0  0.1218   57.0  0.2445  -45.4
 4.700  0.1517  148.8   4.530   59.2  0.1244   56.5  0.2431  -45.6
 4.800  0.1540  147.6   4.442   58.4  0.1266   56.0  0.2411  -45.9
 4.900  0.1553  146.5   4.356   57.5  0.1293   55.4  0.2396  -46.1
 5.000  0.1575  145.5   4.274   56.7  0.1317   54.9  0.2382  -46.4
 5.100  0.1590  144.4   4.196   55.9  0.1342   54.3  0.2370  -46.6
 5.200  0.1607  143.4   4.120   55.1  0.1367   53.8  0.2353  -46.5
 5.300  0.1624  142.4   4.046   54.3  0.1388   53.3  0.2337  -46.8
 5.400  0.1646  141.6   3.975   53.4  0.1416   52.7  0.2329  -47.0
 5.500  0.1661  140.5   3.909   52.6  0.1440   52.1  0.2310  -47.3
 5.600  0.1678  139.7   3.842   51.8  0.1464   51.6  0.2301  -47.3
 5.700  0.1691  138.7   3.778   51.0  0.1489   51.0  0.2281  -47.4
 5.800  0.1706  137.6   3.718   50.1  0.1511   50.5  0.2273  -47.6
 5.900  0.1721  136.7   3.656   49.3  0.1535   49.8  0.2260  -47.6
 6.000  0.1731  135.5   3.601   48.4  0.1560   49.3  0.2250  -47.7
 6.100  0.1760  134.6   3.544   47.6  0.1584   48.7  0.2233  -47.8
 6.200  0.1758  133.3   3.487   46.8  0.1606   48.1  0.2223  -48.0
 6.300  0.1791  132.1   3.433   45.9  0.1630   47.5  0.2209  -48.0
 6.400  0.1794  131.2   3.379   45.1  0.1652   46.9  0.2188  -48.1
 6.500  0.1820  129.5   3.328   44.3  0.1676   46.4  0.2171  -48.0
 6.600  0.1838  128.5   3.277   43.4  0.1699   45.8  0.2150  -48.0
 6.700  0.1860  127.0   3.228   42.6  0.1721   45.3  0.2132  -47.9
 6.800  0.1885  125.9   3.178   41.9  0.1743   44.7  0.2116  -47.8
 6.900  0.1913  124.5   3.133   41.1  0.1766   44.2  0.2096  -47.5
 7.000  0.1932  123.3   3.088   40.3  0.1790   43.6  0.2075  -47.2
 7.100  0.1970  122.2   3.042   39.6  0.1812   43.2  0.2044  -46.8
 7.200  0.2001  121.2   3.000   38.9  0.1834   42.6  0.2018  -46.7
 7.300  0.2042  120.3   2.959   38.1  0.1859   42.1  0.1989  -46.3
 7.400  0.2077  119.6   2.920   37.4  0.1882   41.6  0.1957  -45.9
 7.500  0.2131  119.0   2.881   36.7  0.1907   41.1  0.1909  -45.5
 7.600  0.2180  118.3   2.847   35.9  0.1931   40.5  0.1866  -45.1
 7.700  0.2247  118.1   2.813   35.2  0.1957   39.9  0.1814  -44.4
 7.800  0.2312  117.6   2.779   34.5  0.1981   39.3  0.1753  -43.8
 7.900  0.2387  117.3   2.746   33.8  0.2004   38.7  0.1689  -42.8
 8.000  0.2460  117.0   2.715   33.0  0.2029   38.1  0.1620  -42.0
 8.500  0.2913  116.2   2.567   29.2  0.2140   35.0  0.1244  -31.4
 9.000  0.3384  115.2   2.430   25.5  0.2245   32.1  0.0955   -8.8
 9.500  0.3821  113.4   2.311   21.8  0.2353   29.2  0.0922   23.4
10.000  0.4219  111.0   2.202   18.1  0.2463   26.3  0.1098   52.1
!
!  f       NFmin   Gammaopt  rn/50
! GHz       dB    MAG  ANG    -
!
! noise parameter not available yet for this operation point!
!
! (c) 2013  Infineon Technologies AG, Munich
