! Infineon Technologies  Discrete & RF Semiconductors
! BFP640
! VCE =  4.0 V,  IC =  42 mA
! Common Emitter S-Parameters:                            Apr 2013
# GHz  S  MA  R  50
!  f         S11            S21            S12            S22
! GHz     MAG   ANG      MAG   ANG      MAG   ANG      MAG   ANG
 0.030  0.4650   -6.1  64.765  174.4  0.0013   62.0  0.9461   -1.7
 0.040  0.4659   -8.3  64.516  172.9  0.0018   74.6  0.9491   -3.0
 0.050  0.4674  -10.4  64.499  171.5  0.0021   86.0  0.9518   -4.5
 0.060  0.4679  -13.1  64.332  169.7  0.0035   75.9  0.9523   -5.8
 0.070  0.4672  -15.4  64.103  168.3  0.0027   91.9  0.9516   -7.0
 0.080  0.4647  -17.4  63.783  166.7  0.0026   89.6  0.9485   -8.3
 0.090  0.4612  -19.9  63.345  165.1  0.0031   70.4  0.9445   -9.6
 0.100  0.4595  -22.3  62.956  163.6  0.0048   78.2  0.9385  -11.0
 0.110  0.4573  -24.7  62.639  162.0  0.0040   75.5  0.9354  -12.2
 0.120  0.4545  -26.9  62.126  160.4  0.0051   72.0  0.9278  -13.3
 0.130  0.4506  -29.1  61.628  159.0  0.0048   80.4  0.9207  -14.6
 0.140  0.4488  -31.1  61.087  157.5  0.0062   76.3  0.9142  -15.7
 0.150  0.4440  -33.3  60.709  156.0  0.0062   77.1  0.9070  -16.8
 0.200  0.4296  -43.5  57.756  149.0  0.0077   73.2  0.8671  -21.9
 0.250  0.4121  -52.8  54.550  142.5  0.0095   71.0  0.8221  -26.2
 0.300  0.3933  -61.6  51.120  136.8  0.0107   68.7  0.7758  -30.0
 0.350  0.3765  -69.7  47.780  131.7  0.0122   68.1  0.7329  -33.2
 0.400  0.3588  -77.4  44.709  127.1  0.0137   67.8  0.6890  -35.9
 0.450  0.3453  -84.2  41.736  123.1  0.0149   68.1  0.6523  -38.2
 0.500  0.3308  -90.7  39.047  119.5  0.0161   66.2  0.6153  -40.1
 0.600  0.3086 -102.5  34.318  113.3  0.0182   65.7  0.5514  -43.0
 0.700  0.2915 -112.9  30.441  108.2  0.0206   65.2  0.4991  -45.1
 0.800  0.2802 -122.4  27.237  104.0  0.0225   64.4  0.4546  -46.5
 0.900  0.2709 -130.7  24.620  100.3  0.0249   64.8  0.4170  -47.5
 1.000  0.2652 -138.3  22.382   97.2  0.0268   64.1  0.3855  -48.2
 1.100  0.2606 -145.2  20.518   94.4  0.0289   63.8  0.3580  -48.5
 1.200  0.2575 -151.5  18.920   91.8  0.0310   63.2  0.3363  -48.7
 1.300  0.2557 -157.1  17.542   89.5  0.0330   62.8  0.3170  -48.6
 1.400  0.2552 -162.1  16.362   87.3  0.0351   62.3  0.3015  -48.6
 1.500  0.2547 -167.0  15.324   85.3  0.0373   61.8  0.2866  -48.2
 1.600  0.2560 -171.4  14.412   83.3  0.0392   61.4  0.2743  -48.1
 1.700  0.2575 -175.5  13.594   81.5  0.0414   60.7  0.2624  -47.7
 1.800  0.2596 -179.3  12.865   79.7  0.0433   60.0  0.2521  -47.7
 1.900  0.2628  177.1  12.224   78.0  0.0455   59.3  0.2418  -47.4
 2.000  0.2653  173.8  11.625   76.3  0.0474   58.7  0.2330  -47.5
 2.100  0.2701  171.0  11.080   74.7  0.0495   58.1  0.2244  -47.6
 2.200  0.2725  168.0  10.593   73.0  0.0519   57.4  0.2170  -47.5
 2.300  0.2757  165.1  10.144   71.5  0.0536   56.7  0.2098  -47.2
 2.400  0.2789  162.3   9.731   70.0  0.0559   56.1  0.2033  -47.1
 2.500  0.2829  159.7   9.348   68.5  0.0578   55.3  0.1961  -46.8
 2.600  0.2871  157.0   8.990   67.0  0.0599   54.7  0.1891  -46.5
 2.700  0.2911  154.7   8.663   65.6  0.0619   53.9  0.1829  -46.2
 2.800  0.2954  152.3   8.360   64.0  0.0637   52.9  0.1759  -46.2
 2.900  0.3003  150.2   8.077   62.7  0.0659   52.1  0.1692  -46.1
 3.000  0.3052  147.9   7.807   61.3  0.0679   51.2  0.1617  -46.3
 3.100  0.3109  145.8   7.557   59.9  0.0699   50.6  0.1550  -46.4
 3.200  0.3164  143.7   7.326   58.5  0.0719   49.5  0.1479  -46.8
 3.300  0.3221  141.7   7.103   57.1  0.0740   48.8  0.1414  -47.1
 3.400  0.3290  139.7   6.894   55.7  0.0757   47.9  0.1340  -47.6
 3.500  0.3349  137.7   6.693   54.3  0.0776   47.0  0.1274  -47.7
 3.600  0.3417  135.9   6.508   53.0  0.0796   46.2  0.1196  -48.1
 3.700  0.3484  134.1   6.329   51.6  0.0815   45.3  0.1121  -48.3
 3.800  0.3552  132.4   6.163   50.3  0.0834   44.2  0.1046  -48.8
 3.900  0.3618  130.7   6.000   49.0  0.0852   43.5  0.0967  -49.2
 4.000  0.3694  129.0   5.842   47.6  0.0870   42.5  0.0891  -50.0
 4.100  0.3755  127.4   5.695   46.3  0.0889   41.7  0.0815  -50.7
 4.200  0.3835  125.9   5.553   45.0  0.0907   40.8  0.0745  -51.9
 4.300  0.3891  124.4   5.421   43.7  0.0924   39.9  0.0676  -52.6
 4.400  0.3972  123.2   5.289   42.5  0.0942   39.0  0.0614  -53.2
 4.500  0.4027  121.8   5.167   41.2  0.0958   38.1  0.0546  -54.0
 4.600  0.4100  120.6   5.048   39.9  0.0977   37.3  0.0486  -54.4
 4.700  0.4153  119.4   4.933   38.7  0.0993   36.4  0.0426  -54.2
 4.800  0.4220  118.3   4.827   37.4  0.1009   35.6  0.0366  -53.9
 4.900  0.4268  117.1   4.720   36.2  0.1028   34.7  0.0313  -52.5
 5.000  0.4330  116.1   4.622   35.0  0.1046   33.9  0.0262  -50.1
 5.100  0.4376  115.0   4.525   33.8  0.1061   33.0  0.0215  -46.5
 5.200  0.4424  114.1   4.435   32.6  0.1078   32.1  0.0177  -39.2
 5.300  0.4464  113.0   4.343   31.4  0.1095   31.2  0.0139  -27.0
 5.400  0.4510  112.1   4.258   30.2  0.1110   30.4  0.0120   -9.9
 5.500  0.4545  111.1   4.176   29.0  0.1128   29.5  0.0117   14.2
 5.600  0.4580  110.2   4.098   27.9  0.1143   28.7  0.0131   31.8
 5.700  0.4605  109.3   4.022   26.7  0.1161   27.9  0.0165   46.0
 5.800  0.4645  108.3   3.951   25.5  0.1176   27.1  0.0193   55.0
 5.900  0.4675  107.6   3.882   24.4  0.1195   26.3  0.0232   60.6
 6.000  0.4707  106.6   3.817   23.2  0.1211   25.4  0.0269   66.2
 6.100  0.4757  106.0   3.755   22.0  0.1232   24.5  0.0307   69.3
 6.200  0.4772  105.0   3.695   20.9  0.1248   23.6  0.0344   72.9
 6.300  0.4828  104.1   3.636   19.7  0.1264   22.6  0.0389   75.2
 6.400  0.4854  103.1   3.581   18.5  0.1281   21.7  0.0431   77.9
 6.500  0.4905  101.9   3.525   17.2  0.1299   20.7  0.0478   79.4
 6.600  0.4936  100.9   3.469   16.0  0.1314   19.7  0.0522   80.5
 6.700  0.4983   99.8   3.419   14.8  0.1330   18.8  0.0569   81.3
 6.800  0.5027   98.6   3.365   13.6  0.1346   17.8  0.0614   82.2
 6.900  0.5073   97.5   3.315   12.4  0.1362   16.8  0.0664   82.9
 7.000  0.5112   96.3   3.267   11.0  0.1377   15.8  0.0707   84.0
 7.100  0.5161   95.2   3.219    9.8  0.1392   14.9  0.0756   84.5
 7.200  0.5204   93.9   3.172    8.6  0.1407   13.9  0.0799   85.2
 7.300  0.5250   92.8   3.127    7.3  0.1422   12.8  0.0854   85.2
 7.400  0.5297   91.5   3.081    6.1  0.1436   11.9  0.0902   85.2
 7.500  0.5355   90.3   3.035    4.8  0.1449   10.8  0.0965   84.8
 7.600  0.5410   89.0   2.991    3.5  0.1461    9.8  0.1022   84.9
 7.700  0.5477   87.9   2.947    2.2  0.1474    8.7  0.1083   84.4
 7.800  0.5539   86.6   2.901    1.0  0.1486    7.7  0.1145   83.8
 7.900  0.5608   85.5   2.857   -0.3  0.1497    6.7  0.1224   83.1
 8.000  0.5676   84.3   2.814   -1.6  0.1507    5.8  0.1294   82.7
 8.500  0.6057   78.6   2.597   -7.9  0.1552    0.6  0.1728   77.8
 9.000  0.6455   73.3   2.385  -13.7  0.1578   -4.1  0.2272   74.3
 9.500  0.6858   68.9   2.184  -18.6  0.1589   -8.2  0.2842   72.1
10.000  0.7203   65.5   2.017  -22.9  0.1603  -11.5  0.3327   71.7
!
!  f       NFmin   Gammaopt  rn/50
! GHz       dB    MAG  ANG    -
!
! noise parameter not available yet for this operation point!
!
! (c) 2013  Infineon Technologies AG, Munich
