! Infineon Technologies  Discrete & RF Semiconductors
! BFP650
! VCE =  2.5 V,  IC = 0.14 A
! Common Emitter S-Parameters:                            Jan 2016
# GHz  S  MA  R  50
!  f         S11            S21            S12            S22
! GHz     MAG   ANG      MAG   ANG      MAG   ANG      MAG   ANG
 0.030  0.2102 -138.1  90.024  167.1  0.0029   80.0  0.6404  -17.2
 0.035  0.2303 -138.5  89.513  164.8  0.0027   84.4  0.6368  -20.7
 0.040  0.2504 -138.8  89.153  162.4  0.0025   89.6  0.6355  -24.2
 0.045  0.2671 -137.9  87.785  160.1  0.0039   79.3  0.6351  -27.5
 0.050  0.2838 -137.2  86.559  157.8  0.0054   74.6  0.6368  -30.8
 0.055  0.3061 -137.0  85.907  155.8  0.0064   74.8  0.6353  -34.5
 0.060  0.3285 -136.8  85.360  153.8  0.0075   74.9  0.6366  -38.3
 0.065  0.3400 -138.9  83.849  151.8  0.0056   68.1  0.6167  -40.8
 0.070  0.3519 -140.9  82.446  149.7  0.0039   55.0  0.5981  -43.4
 0.075  0.3657 -141.1  81.053  147.8  0.0045   62.8  0.5947  -46.1
 0.080  0.3796 -141.3  79.753  145.8  0.0052   68.6  0.5926  -48.8
 0.085  0.3927 -141.6  78.235  144.2  0.0055   75.8  0.5858  -51.6
 0.090  0.4059 -141.9  76.778  142.6  0.0059   82.2  0.5804  -54.4
 0.095  0.4203 -143.3  75.329  140.9  0.0063   75.9  0.5726  -57.0
 0.100  0.4350 -144.6  73.946  139.2  0.0067   70.4  0.5660  -59.7
 0.105  0.4435 -145.7  72.451  137.7  0.0071   64.0  0.5561  -62.2
 0.110  0.4522 -146.7  71.005  136.2  0.0076   58.4  0.5473  -64.7
 0.115  0.4610 -147.5  69.476  134.9  0.0080   59.6  0.5370  -67.0
 0.120  0.4698 -148.3  67.986  133.5  0.0085   60.6  0.5276  -69.4
 0.125  0.4788 -149.1  66.642  132.2  0.0086   60.8  0.5218  -71.5
 0.130  0.4879 -149.8  65.334  130.8  0.0087   61.0  0.5168  -73.7
 0.135  0.4922 -150.5  64.107  129.7  0.0093   58.0  0.5096  -75.3
 0.140  0.4965 -151.1  62.903  128.6  0.0099   55.3  0.5027  -76.9
 0.145  0.5059 -151.8  61.657  127.5  0.0093   62.4  0.4963  -79.1
 0.150  0.5154 -152.4  60.434  126.4  0.0088   70.3  0.4907  -81.4
 0.155  0.5195 -153.1  59.329  125.6  0.0090   69.7  0.4846  -82.9
 0.160  0.5237 -153.7  58.235  124.8  0.0093   69.1  0.4787  -84.3
 0.165  0.5279 -154.4  57.152  124.0  0.0095   68.5  0.4732  -85.9
 0.170  0.5322 -155.0  56.082  123.2  0.0097   68.0  0.4681  -87.4
 0.175  0.5366 -155.6  55.025  122.3  0.0099   67.5  0.4633  -89.0
 0.180  0.5410 -156.2  53.981  121.4  0.0102   67.0  0.4588  -90.6
 0.185  0.5455 -156.8  52.952  120.4  0.0104   66.5  0.4548  -92.3
 0.190  0.5500 -157.4  51.938  119.4  0.0106   66.0  0.4511  -94.0
 0.195  0.5546 -158.0  50.940  118.4  0.0109   65.6  0.4478  -95.7
 0.200  0.5593 -158.6  49.960  117.3  0.0111   65.2  0.4449  -97.4
 0.220  0.5701 -160.5  46.694  115.0  0.0117   63.5  0.4296 -102.1
 0.240  0.5816 -162.3  43.517  112.3  0.0123   62.0  0.4175 -107.2
 0.260  0.5908 -163.9  40.736  110.0  0.0128   61.9  0.4072 -111.7
 0.280  0.5976 -165.4  38.300  108.2  0.0133   63.0  0.3977 -115.7
 0.300  0.6048 -166.8  35.907  106.1  0.0138   64.0  0.3901 -119.8
 0.320  0.6089 -167.9  34.013  104.7  0.0144   63.3  0.3835 -122.9
 0.340  0.6133 -169.0  32.142  103.1  0.0151   62.7  0.3781 -126.2
 0.360  0.6174 -170.1  30.483  101.7  0.0158   62.5  0.3734 -129.1
 0.380  0.6211 -171.2  29.026  100.5  0.0165   62.7  0.3692 -131.8
 0.400  0.6251 -172.2  27.583   99.2  0.0172   62.8  0.3659 -134.6
 0.420  0.6276 -173.1  26.412   98.2  0.0177   63.7  0.3622 -136.8
 0.440  0.6303 -174.0  25.249   97.2  0.0182   64.6  0.3591 -139.1
 0.450  0.6317 -174.4  24.671   96.6  0.0185   65.0  0.3577 -140.3
 0.460  0.6324 -174.8  24.189   96.2  0.0188   65.2  0.3566 -141.3
 0.480  0.6338 -175.6  23.229   95.3  0.0195   65.4  0.3548 -143.2
 0.500  0.6353 -176.4  22.275   94.4  0.0202   65.7  0.3534 -145.1
 0.520  0.6370 -177.0  21.534   93.8  0.0208   65.8  0.3518 -146.7
 0.540  0.6388 -177.7  20.795   93.1  0.0214   65.8  0.3504 -148.3
 0.560  0.6406 -178.3  20.060   92.4  0.0219   65.9  0.3493 -149.9
 0.580  0.6425 -178.9  19.327   91.6  0.0225   65.9  0.3485 -151.6
 0.600  0.6445 -179.5  18.599   90.8  0.0231   66.0  0.3480 -153.2
 0.620  0.6452  179.9  18.064   90.3  0.0237   65.8  0.3472 -154.5
 0.640  0.6461  179.3  17.531   89.7  0.0243   65.7  0.3465 -155.8
 0.660  0.6469  178.8  17.000   89.1  0.0250   65.6  0.3461 -157.2
 0.680  0.6479  178.2  16.470   88.5  0.0256   65.4  0.3458 -158.5
 0.700  0.6489  177.6  15.943   87.8  0.0262   65.3  0.3457 -159.8
 0.720  0.6497  177.1  15.544   87.3  0.0267   65.4  0.3454 -160.9
 0.740  0.6506  176.6  15.147   86.8  0.0273   65.5  0.3452 -162.0
 0.760  0.6516  176.1  14.750   86.3  0.0278   65.6  0.3451 -163.1
 0.780  0.6526  175.6  14.355   85.8  0.0284   65.7  0.3451 -164.2
 0.800  0.6536  175.1  13.961   85.2  0.0289   65.8  0.3453 -165.3
 0.820  0.6543  174.6  13.645   84.8  0.0296   65.5  0.3450 -166.2
 0.840  0.6550  174.2  13.330   84.4  0.0302   65.1  0.3449 -167.1
 0.860  0.6558  173.7  13.016   83.9  0.0309   64.8  0.3448 -168.1
 0.880  0.6566  173.3  12.703   83.5  0.0315   64.5  0.3448 -169.0
 0.900  0.6574  172.8  12.390   83.0  0.0322   64.2  0.3449 -169.9
 0.920  0.6581  172.4  12.142   82.6  0.0328   64.3  0.3451 -170.7
 0.940  0.6588  172.0  11.895   82.2  0.0334   64.5  0.3453 -171.5
 0.960  0.6596  171.5  11.648   81.8  0.0339   64.6  0.3457 -172.3
 0.980  0.6604  171.1  11.401   81.4  0.0345   64.7  0.3460 -173.1
 1.000  0.6612  170.7  11.156   80.9  0.0351   64.8  0.3465 -173.9
 1.020  0.6616  170.3  10.951   80.5  0.0357   64.5  0.3468 -174.6
 1.040  0.6621  169.9  10.747   80.1  0.0363   64.3  0.3471 -175.3
 1.060  0.6627  169.4  10.544   79.7  0.0370   64.1  0.3475 -176.1
 1.080  0.6632  169.0  10.341   79.3  0.0376   63.8  0.3479 -176.8
 1.100  0.6638  168.6  10.138   78.9  0.0382   63.6  0.3484 -177.5
 1.120  0.6643  168.2   9.968   78.5  0.0388   63.5  0.3486 -178.1
 1.140  0.6648  167.8   9.799   78.1  0.0394   63.4  0.3489 -178.8
 1.160  0.6654  167.5   9.631   77.7  0.0399   63.4  0.3492 -179.4
 1.180  0.6660  167.1   9.463   77.3  0.0405   63.3  0.3495  179.9
 1.200  0.6666  166.7   9.295   76.9  0.0411   63.2  0.3499  179.3
 1.220  0.6672  166.3   9.149   76.5  0.0418   63.0  0.3502  178.7
 1.240  0.6678  165.9   9.004   76.2  0.0425   62.7  0.3506  178.1
 1.260  0.6684  165.6   8.859   75.8  0.0431   62.5  0.3509  177.6
 1.280  0.6690  165.2   8.714   75.4  0.0438   62.3  0.3513  177.0
 1.300  0.6697  164.8   8.570   75.0  0.0445   62.1  0.3518  176.4
 1.320  0.6702  164.4   8.449   74.7  0.0451   61.8  0.3522  175.8
 1.340  0.6707  164.0   8.327   74.3  0.0457   61.6  0.3527  175.3
 1.360  0.6712  163.7   8.207   74.0  0.0462   61.4  0.3532  174.7
 1.380  0.6718  163.3   8.086   73.6  0.0468   61.1  0.3537  174.2
 1.400  0.6724  162.9   7.966   73.2  0.0474   60.9  0.3543  173.6
 1.420  0.6731  162.6   7.859   72.9  0.0480   60.7  0.3547  173.1
 1.440  0.6737  162.2   7.752   72.5  0.0486   60.6  0.3551  172.6
 1.460  0.6744  161.9   7.646   72.2  0.0491   60.4  0.3555  172.2
 1.480  0.6752  161.5   7.540   71.8  0.0497   60.3  0.3559  171.7
 1.500  0.6759  161.2   7.434   71.4  0.0503   60.1  0.3564  171.2
 1.520  0.6763  160.8   7.339   71.1  0.0510   59.9  0.3566  170.7
 1.540  0.6768  160.5   7.245   70.7  0.0516   59.6  0.3569  170.2
 1.560  0.6773  160.1   7.151   70.3  0.0523   59.4  0.3572  169.8
 1.580  0.6778  159.8   7.057   70.0  0.0529   59.2  0.3575  169.3
 1.600  0.6784  159.4   6.963   69.6  0.0536   59.0  0.3579  168.8
 1.620  0.6790  159.0   6.879   69.3  0.0543   58.9  0.3586  168.3
 1.640  0.6796  158.7   6.796   69.0  0.0550   58.8  0.3593  167.8
 1.660  0.6802  158.3   6.713   68.7  0.0558   58.6  0.3600  167.4
 1.680  0.6808  158.0   6.630   68.3  0.0565   58.5  0.3607  166.9
 1.700  0.6815  157.6   6.547   68.0  0.0572   58.4  0.3615  166.4
 1.720  0.6819  157.2   6.473   67.7  0.0576   58.2  0.3620  165.9
 1.740  0.6824  156.9   6.399   67.3  0.0579   58.0  0.3625  165.5
 1.760  0.6829  156.5   6.325   66.9  0.0583   57.9  0.3631  165.0
 1.780  0.6834  156.2   6.252   66.6  0.0586   57.7  0.3637  164.6
 1.800  0.6840  155.8   6.179   66.2  0.0590   57.5  0.3643  164.1
 1.820  0.6840  155.5   6.109   65.9  0.0597   57.3  0.3646  163.7
 1.840  0.6841  155.1   6.040   65.5  0.0604   57.1  0.3650  163.3
 1.860  0.6842  154.8   5.971   65.2  0.0611   56.9  0.3653  162.9
 1.880  0.6843  154.4   5.902   64.9  0.0618   56.7  0.3657  162.5
 1.900  0.6844  154.1   5.833   64.5  0.0625   56.5  0.3661  162.1
 1.920  0.6850  153.8   5.773   64.2  0.0631   56.3  0.3666  161.7
 1.940  0.6856  153.4   5.714   63.8  0.0637   56.1  0.3671  161.3
 1.960  0.6863  153.1   5.655   63.5  0.0644   55.9  0.3676  160.8
 1.980  0.6870  152.7   5.596   63.2  0.0650   55.8  0.3681  160.4
 2.000  0.6877  152.4   5.537   62.8  0.0656   55.6  0.3687  160.0
 2.020  0.6882  152.1   5.485   62.5  0.0661   55.3  0.3692  159.6
 2.040  0.6888  151.8   5.433   62.2  0.0667   55.0  0.3697  159.2
 2.060  0.6894  151.5   5.381   62.0  0.0672   54.7  0.3703  158.8
 2.080  0.6900  151.2   5.330   61.7  0.0678   54.5  0.3708  158.4
 2.100  0.6906  150.9   5.278   61.4  0.0683   54.2  0.3714  158.0
 2.120  0.6912  150.6   5.227   61.1  0.0689   53.9  0.3720  157.6
 2.140  0.6918  150.3   5.176   60.8  0.0694   53.7  0.3726  157.3
 2.160  0.6925  150.0   5.125   60.4  0.0700   53.4  0.3732  156.9
 2.180  0.6932  149.7   5.074   60.1  0.0705   53.2  0.3738  156.5
 2.200  0.6939  149.4   5.023   59.8  0.0711   52.9  0.3745  156.1
 2.220  0.6943  149.1   4.979   59.5  0.0716   52.7  0.3750  155.7
 2.240  0.6947  148.8   4.934   59.2  0.0721   52.5  0.3756  155.3
 2.260  0.6951  148.4   4.890   58.9  0.0726   52.3  0.3762  154.9
 2.280  0.6956  148.1   4.846   58.6  0.0731   52.1  0.3768  154.5
 2.300  0.6960  147.8   4.803   58.2  0.0736   51.9  0.3774  154.1
 2.320  0.6965  147.5   4.759   57.9  0.0741   51.7  0.3781  153.7
 2.340  0.6970  147.2   4.715   57.6  0.0746   51.5  0.3787  153.3
 2.360  0.6976  146.8   4.672   57.2  0.0751   51.4  0.3794  152.9
 2.380  0.6981  146.5   4.629   56.9  0.0756   51.2  0.3801  152.5
 2.400  0.6987  146.2   4.586   56.5  0.0761   51.0  0.3808  152.1
 2.420  0.6991  145.9   4.549   56.2  0.0767   50.7  0.3815  151.7
 2.440  0.6996  145.6   4.511   55.9  0.0772   50.5  0.3821  151.4
 2.460  0.7000  145.3   4.474   55.6  0.0778   50.2  0.3828  151.0
 2.480  0.7005  145.0   4.437   55.3  0.0784   50.0  0.3835  150.7
 2.500  0.7010  144.6   4.400   55.0  0.0789   49.7  0.3842  150.3
 2.520  0.7015  144.3   4.364   54.6  0.0795   49.5  0.3849  150.0
 2.540  0.7021  144.0   4.327   54.3  0.0801   49.2  0.3857  149.6
 2.560  0.7026  143.7   4.290   54.0  0.0806   49.0  0.3864  149.3
 2.580  0.7032  143.4   4.254   53.6  0.0812   48.7  0.3872  148.9
 2.600  0.7038  143.1   4.218   53.3  0.0818   48.5  0.3880  148.6
 2.620  0.7042  142.8   4.186   53.0  0.0823   48.3  0.3887  148.2
 2.640  0.7046  142.5   4.154   52.7  0.0828   48.0  0.3894  147.9
 2.660  0.7051  142.2   4.122   52.4  0.0833   47.8  0.3901  147.5
 2.680  0.7055  141.9   4.090   52.2  0.0838   47.6  0.3908  147.1
 2.700  0.7060  141.6   4.058   51.9  0.0843   47.4  0.3915  146.8
 2.720  0.7065  141.3   4.026   51.6  0.0848   47.1  0.3923  146.4
 2.740  0.7070  141.0   3.995   51.2  0.0854   46.9  0.3930  146.1
 2.760  0.7076  140.7   3.963   50.9  0.0859   46.7  0.3938  145.7
 2.780  0.7081  140.4   3.932   50.6  0.0864   46.5  0.3946  145.4
 2.800  0.7087  140.1   3.901   50.3  0.0869   46.3  0.3954  145.0
 2.820  0.7092  139.8   3.873   50.0  0.0874   46.1  0.3962  144.7
 2.840  0.7096  139.5   3.846   49.7  0.0879   45.9  0.3970  144.4
 2.860  0.7101  139.2   3.818   49.4  0.0884   45.7  0.3978  144.1
 2.880  0.7106  138.9   3.790   49.1  0.0889   45.5  0.3986  143.7
 2.900  0.7112  138.6   3.763   48.8  0.0894   45.3  0.3995  143.4
 2.920  0.7117  138.4   3.736   48.5  0.0899   45.1  0.4003  143.1
 2.940  0.7123  138.1   3.709   48.2  0.0905   44.9  0.4012  142.8
 2.960  0.7129  137.8   3.682   47.9  0.0910   44.7  0.4020  142.5
 2.980  0.7135  137.5   3.655   47.5  0.0915   44.5  0.4029  142.2
 3.000  0.7141  137.2   3.628   47.2  0.0920   44.3  0.4038  141.9
 3.100  0.7164  135.7   3.511   45.9  0.0943   43.0  0.4079  140.4
 3.200  0.7191  134.2   3.397   44.5  0.0967   41.8  0.4123  138.9
 3.300  0.7223  132.8   3.284   43.0  0.0991   40.6  0.4170  137.4
 3.400  0.7260  131.3   3.174   41.3  0.1015   39.5  0.4219  136.0
 3.500  0.7301  129.9   3.067   39.6  0.1040   38.4  0.4271  134.6
 3.600  0.7333  128.5   2.976   38.3  0.1059   37.1  0.4323  133.2
 3.700  0.7369  127.1   2.887   36.9  0.1078   35.9  0.4378  131.9
 3.800  0.7410  125.7   2.800   35.4  0.1098   34.7  0.4435  130.6
 3.900  0.7455  124.3   2.715   33.9  0.1118   33.5  0.4495  129.3
 4.000  0.7504  123.0   2.632   32.2  0.1139   32.4  0.4556  128.1
 4.100  0.7534  121.8   2.560   31.0  0.1157   31.3  0.4603  127.0
 4.200  0.7566  120.6   2.490   29.7  0.1175   30.3  0.4651  125.9
 4.300  0.7602  119.4   2.421   28.4  0.1193   29.3  0.4701  124.8
 4.400  0.7642  118.3   2.353   27.0  0.1212   28.3  0.4753  123.7
 4.500  0.7684  117.1   2.287   25.5  0.1231   27.4  0.4806  122.7
 4.600  0.7703  116.0   2.232   24.4  0.1247   26.4  0.4839  121.6
 4.700  0.7725  115.0   2.178   23.2  0.1264   25.4  0.4874  120.6
 4.800  0.7749  113.9   2.126   22.0  0.1281   24.5  0.4910  119.5
 4.900  0.7776  112.8   2.074   20.7  0.1298   23.6  0.4948  118.5
 5.000  0.7806  111.8   2.023   19.3  0.1316   22.7  0.4988  117.5
 5.100  0.7811  110.8   1.980   18.2  0.1334   21.7  0.5010  116.3
 5.200  0.7818  109.8   1.937   17.0  0.1352   20.7  0.5034  115.1
 5.300  0.7827  108.7   1.896   15.8  0.1370   19.7  0.5060  114.0
 5.400  0.7839  107.7   1.855   14.5  0.1389   18.8  0.5089  112.8
 5.500  0.7854  106.7   1.815   13.2  0.1408   17.9  0.5119  111.7
 5.600  0.7858  105.8   1.780   12.1  0.1425   16.9  0.5146  110.5
 5.700  0.7864  105.0   1.746   11.0  0.1442   15.9  0.5175  109.3
 5.800  0.7871  104.1   1.713    9.8  0.1459   15.0  0.5206  108.1
 5.900  0.7881  103.3   1.680    8.6  0.1477   14.0  0.5239  107.0
 6.000  0.7892  102.4   1.648    7.3  0.1495   13.1  0.5275  105.8
 6.100  0.7912  101.5   1.622    6.1  0.1513   11.9  0.5306  104.8
 6.200  0.7933  100.7   1.596    4.9  0.1531   10.8  0.5338  103.8
 6.300  0.7957   99.8   1.571    3.7  0.1550    9.7  0.5372  102.8
 6.400  0.7982   98.9   1.546    2.4  0.1570    8.6  0.5407  101.9
 6.500  0.8009   98.1   1.523    1.1  0.1590    7.6  0.5444  100.9
 6.600  0.8029   97.1   1.498   -0.1  0.1604    6.4  0.5474  100.0
 6.800  0.8078   95.0   1.451   -2.7  0.1633    4.2  0.5539   98.3
 7.000  0.8136   93.0   1.407   -5.5  0.1664    2.0  0.5608   96.6
 7.200  0.8173   90.6   1.359   -8.2  0.1684   -0.4  0.5671   94.5
 7.400  0.8223   88.3   1.313  -11.0  0.1707   -2.8  0.5741   92.4
 7.600  0.8269   85.8   1.268  -13.7  0.1725   -5.1  0.5818   90.1
 7.800  0.8311   83.4   1.222  -16.3  0.1737   -7.3  0.5904   87.6
 8.000  0.8369   80.9   1.179  -19.1  0.1751   -9.5  0.6002   85.1
 8.200  0.8408   78.4   1.134  -21.4  0.1752  -11.6  0.6098   82.6
 8.400  0.8464   75.8   1.092  -23.9  0.1755  -13.7  0.6204   80.3
 8.600  0.8518   73.5   1.051  -26.2  0.1756  -15.7  0.6316   77.9
 8.800  0.8567   71.2   1.011  -28.3  0.1755  -17.6  0.6433   75.6
 9.000  0.8629   69.0   0.972  -30.5  0.1755  -19.6  0.6561   73.4
 9.200  0.8689   67.3   0.934  -32.3  0.1745  -21.2  0.6680   71.4
 9.400  0.8756   65.5   0.897  -34.2  0.1737  -22.9  0.6807   69.4
 9.600  0.8828   64.1   0.864  -35.8  0.1729  -24.2  0.6923   68.0
 9.800  0.8900   63.0   0.835  -37.1  0.1721  -25.3  0.7025   67.0
10.000  0.8975   61.9   0.806  -38.5  0.1713  -26.4  0.7129   66.0
!
!  f       NFmin   Gammaopt  rn/50
! GHz       dB    MAG  ANG    -
 0.450      1.78  0.64 -171   0.06
 0.900      1.80  0.65 -164   0.07
 1.900      1.98  0.67 -149   0.12
 2.400      2.15  0.65 -140   0.18
 3.500      2.42  0.65 -118   0.33
!
! (c) 2016  Infineon Technologies AG, Munich
