! Infineon Technologies  Discrete & RF Semiconductors
! BFP650
! VCE =  2.5 V,  IC =  75 mA
! Common Emitter S-Parameters:                            Jan 2016
# GHz  S  MA  R  50
!  f         S11            S21            S12            S22
! GHz     MAG   ANG      MAG   ANG      MAG   ANG      MAG   ANG
 0.030  0.2893  -43.5 110.260  166.7  0.0028   49.0  0.9433  -16.4
 0.035  0.2938  -49.0 109.547  164.4  0.0038   62.7  0.9394  -19.2
 0.040  0.3010  -54.3 109.011  162.1  0.0049   70.5  0.9379  -22.1
 0.045  0.3082  -58.9 107.254  159.9  0.0063   84.5  0.9347  -24.5
 0.050  0.3174  -63.3 105.662  157.6  0.0079   93.2  0.9332  -27.0
 0.055  0.3287  -68.2 104.774  155.8  0.0072   91.2  0.9217  -29.7
 0.060  0.3423  -72.7 103.990  154.0  0.0065   88.7  0.9123  -32.4
 0.065  0.3503  -77.8 102.158  152.0  0.0075   79.4  0.8943  -35.4
 0.070  0.3610  -82.6 100.451  150.0  0.0087   72.5  0.8789  -38.6
 0.075  0.3659  -86.1  98.773  148.2  0.0080   68.0  0.8631  -40.9
 0.080  0.3721  -89.5  97.192  146.4  0.0074   62.8  0.8487  -43.2
 0.085  0.3782  -91.7  95.394  144.9  0.0066   61.3  0.8360  -45.1
 0.090  0.3849  -93.8  93.661  143.4  0.0059   59.4  0.8243  -47.0
 0.095  0.3922  -97.2  92.004  141.7  0.0071   57.7  0.8111  -49.3
 0.100  0.4008 -100.5  90.427  140.0  0.0083   56.5  0.7992  -51.7
 0.105  0.4105 -103.4  88.625  138.5  0.0093   58.6  0.7863  -54.2
 0.110  0.4212 -106.2  86.884  137.0  0.0103   60.3  0.7749  -56.8
 0.115  0.4282 -108.5  85.007  135.7  0.0108   63.1  0.7611  -58.9
 0.120  0.4359 -110.8  83.173  134.4  0.0114   65.7  0.7484  -61.0
 0.125  0.4401 -112.7  81.563  133.1  0.0116   60.9  0.7369  -62.6
 0.130  0.4447 -114.5  79.995  131.8  0.0119   56.3  0.7260  -64.2
 0.135  0.4526 -116.3  78.487  130.7  0.0112   58.9  0.7162  -66.0
 0.140  0.4609 -118.1  77.008  129.6  0.0106   61.9  0.7071  -67.8
 0.145  0.4647 -119.8  75.487  128.5  0.0112   63.1  0.6955  -69.5
 0.150  0.4689 -121.5  73.993  127.4  0.0118   64.1  0.6845  -71.2
 0.155  0.4716 -122.9  72.647  126.6  0.0119   63.3  0.6743  -72.5
 0.160  0.4745 -124.3  71.314  125.8  0.0121   62.4  0.6645  -73.8
 0.165  0.4777 -125.6  69.995  125.0  0.0122   61.6  0.6551  -75.2
 0.170  0.4812 -127.0  68.692  124.2  0.0124   60.8  0.6460  -76.7
 0.175  0.4850 -128.3  67.404  123.3  0.0125   60.1  0.6374  -78.1
 0.180  0.4890 -129.6  66.133  122.4  0.0127   59.3  0.6292  -79.6
 0.185  0.4932 -130.9  64.879  121.4  0.0128   58.6  0.6214  -81.2
 0.190  0.4977 -132.2  63.645  120.4  0.0130   57.9  0.6141  -82.7
 0.195  0.5024 -133.4  62.430  119.4  0.0131   57.2  0.6072  -84.3
 0.200  0.5074 -134.6  61.237  118.3  0.0133   56.5  0.6009  -86.0
 0.220  0.5154 -138.3  57.265  116.0  0.0137   57.5  0.5728  -90.4
 0.240  0.5256 -142.0  53.403  113.3  0.0141   58.4  0.5484  -95.2
 0.260  0.5336 -145.1  50.016  111.0  0.0147   58.7  0.5275  -99.5
 0.280  0.5390 -147.8  47.045  109.1  0.0154   58.3  0.5089 -103.3
 0.300  0.5456 -150.4  44.129  107.0  0.0161   58.0  0.4926 -107.4
 0.320  0.5489 -152.5  41.795  105.6  0.0167   57.6  0.4783 -110.5
 0.340  0.5529 -154.6  39.489  104.0  0.0172   57.3  0.4654 -113.8
 0.360  0.5565 -156.4  37.451  102.5  0.0178   56.9  0.4543 -116.8
 0.380  0.5595 -158.1  35.666  101.3  0.0183   56.5  0.4446 -119.6
 0.400  0.5629 -159.7  33.899  100.0  0.0188   56.1  0.4359 -122.4
 0.420  0.5654 -161.1  32.456   99.0  0.0195   56.7  0.4280 -124.8
 0.440  0.5683 -162.5  31.024   97.9  0.0202   57.3  0.4209 -127.2
 0.450  0.5698 -163.2  30.313   97.3  0.0206   57.6  0.4176 -128.5
 0.460  0.5703 -163.8  29.719   96.9  0.0208   57.8  0.4150 -129.6
 0.480  0.5716 -165.1  28.536   96.0  0.0211   58.3  0.4102 -131.8
 0.500  0.5732 -166.3  27.361   95.0  0.0215   58.7  0.4061 -134.0
 0.520  0.5746 -167.3  26.447   94.4  0.0223   58.8  0.4017 -135.8
 0.540  0.5762 -168.2  25.537   93.7  0.0230   59.0  0.3977 -137.5
 0.560  0.5780 -169.2  24.630   92.9  0.0238   59.1  0.3941 -139.4
 0.580  0.5799 -170.2  23.728   92.2  0.0245   59.2  0.3909 -141.2
 0.600  0.5820 -171.1  22.831   91.3  0.0253   59.3  0.3881 -143.1
 0.620  0.5826 -171.9  22.171   90.8  0.0258   59.2  0.3855 -144.5
 0.640  0.5833 -172.7  21.513   90.2  0.0263   59.2  0.3831 -146.0
 0.660  0.5841 -173.5  20.858   89.6  0.0267   59.1  0.3810 -147.5
 0.680  0.5850 -174.3  20.205   89.0  0.0272   59.1  0.3791 -149.0
 0.700  0.5860 -175.1  19.554   88.3  0.0277   59.0  0.3775 -150.5
 0.720  0.5868 -175.8  19.062   87.8  0.0284   59.2  0.3759 -151.7
 0.740  0.5876 -176.5  18.570   87.3  0.0291   59.3  0.3745 -153.0
 0.760  0.5885 -177.1  18.081   86.8  0.0299   59.4  0.3733 -154.2
 0.780  0.5895 -177.8  17.592   86.3  0.0306   59.6  0.3722 -155.4
 0.800  0.5906 -178.5  17.106   85.7  0.0313   59.7  0.3713 -156.7
 0.820  0.5914 -179.1  16.718   85.3  0.0318   59.6  0.3703 -157.8
 0.840  0.5922 -179.6  16.331   84.9  0.0324   59.5  0.3693 -158.8
 0.860  0.5931  179.8  15.945   84.4  0.0329   59.4  0.3686 -159.9
 0.880  0.5941  179.3  15.559   84.0  0.0335   59.3  0.3679 -161.0
 0.900  0.5951  178.7  15.175   83.5  0.0340   59.2  0.3674 -162.1
 0.920  0.5958  178.1  14.870   83.1  0.0346   59.3  0.3670 -163.0
 0.940  0.5965  177.6  14.565   82.7  0.0352   59.4  0.3667 -163.9
 0.960  0.5973  177.0  14.261   82.3  0.0357   59.4  0.3665 -164.9
 0.980  0.5982  176.5  13.958   81.9  0.0363   59.5  0.3663 -165.8
 1.000  0.5991  175.9  13.656   81.4  0.0369   59.6  0.3663 -166.7
 1.020  0.5994  175.4  13.404   81.0  0.0375   59.5  0.3661 -167.6
 1.040  0.5998  174.9  13.152   80.7  0.0380   59.3  0.3660 -168.4
 1.060  0.6002  174.5  12.901   80.3  0.0386   59.2  0.3660 -169.3
 1.080  0.6006  174.0  12.651   79.9  0.0391   59.1  0.3661 -170.1
 1.100  0.6011  173.5  12.401   79.5  0.0397   59.0  0.3662 -171.0
 1.120  0.6019  173.0  12.194   79.1  0.0403   59.0  0.3660 -171.7
 1.140  0.6027  172.6  11.987   78.7  0.0410   58.9  0.3659 -172.5
 1.160  0.6036  172.1  11.781   78.3  0.0416   58.9  0.3658 -173.2
 1.180  0.6045  171.7  11.575   77.9  0.0423   58.8  0.3658 -174.0
 1.200  0.6055  171.2  11.370   77.5  0.0429   58.8  0.3659 -174.7
 1.220  0.6059  170.8  11.190   77.2  0.0434   58.7  0.3660 -175.4
 1.240  0.6063  170.4  11.011   76.8  0.0440   58.6  0.3661 -176.0
 1.260  0.6068  169.9  10.832   76.5  0.0445   58.5  0.3663 -176.7
 1.280  0.6073  169.5  10.653   76.1  0.0451   58.4  0.3665 -177.3
 1.300  0.6078  169.1  10.475   75.7  0.0456   58.3  0.3668 -178.0
 1.320  0.6084  168.7  10.326   75.4  0.0463   58.1  0.3670 -178.6
 1.340  0.6090  168.2  10.178   75.0  0.0469   58.0  0.3673 -179.3
 1.360  0.6096  167.8  10.030   74.7  0.0476   57.8  0.3676 -179.9
 1.380  0.6103  167.3   9.882   74.3  0.0482   57.7  0.3679  179.4
 1.400  0.6110  166.9   9.735   73.9  0.0489   57.5  0.3683  178.8
 1.420  0.6117  166.5   9.604   73.6  0.0494   57.4  0.3686  178.3
 1.440  0.6124  166.1   9.473   73.2  0.0499   57.3  0.3689  177.7
 1.460  0.6131  165.7   9.343   72.9  0.0505   57.1  0.3692  177.2
 1.480  0.6139  165.3   9.213   72.5  0.0510   57.0  0.3696  176.6
 1.500  0.6147  164.9   9.083   72.1  0.0515   56.9  0.3700  176.1
 1.520  0.6153  164.5   8.968   71.8  0.0522   56.8  0.3702  175.5
 1.540  0.6159  164.1   8.852   71.4  0.0528   56.8  0.3704  175.0
 1.560  0.6165  163.8   8.738   71.1  0.0535   56.7  0.3706  174.4
 1.580  0.6171  163.4   8.623   70.8  0.0541   56.7  0.3709  173.9
 1.600  0.6178  163.0   8.509   70.4  0.0548   56.6  0.3712  173.3
 1.620  0.6182  162.6   8.407   70.1  0.0554   56.3  0.3716  172.8
 1.640  0.6187  162.2   8.305   69.8  0.0561   56.0  0.3721  172.2
 1.660  0.6192  161.8   8.203   69.5  0.0567   55.7  0.3725  171.7
 1.680  0.6197  161.4   8.101   69.2  0.0574   55.4  0.3731  171.1
 1.700  0.6203  161.0   8.000   68.9  0.0580   55.1  0.3736  170.6
 1.720  0.6210  160.6   7.909   68.6  0.0586   55.0  0.3741  170.1
 1.740  0.6217  160.2   7.818   68.2  0.0592   54.8  0.3746  169.6
 1.760  0.6225  159.9   7.727   67.8  0.0598   54.7  0.3751  169.1
 1.780  0.6233  159.5   7.637   67.5  0.0604   54.5  0.3757  168.6
 1.800  0.6241  159.1   7.547   67.1  0.0610   54.4  0.3763  168.1
 1.820  0.6243  158.7   7.463   66.8  0.0615   54.2  0.3765  167.7
 1.840  0.6245  158.3   7.380   66.5  0.0620   53.9  0.3767  167.2
 1.860  0.6247  158.0   7.296   66.2  0.0624   53.7  0.3769  166.8
 1.880  0.6250  157.6   7.213   65.8  0.0629   53.5  0.3771  166.3
 1.900  0.6253  157.2   7.130   65.5  0.0634   53.3  0.3774  165.9
 1.920  0.6258  156.8   7.057   65.2  0.0640   53.1  0.3778  165.4
 1.940  0.6263  156.5   6.984   64.8  0.0647   53.0  0.3782  164.9
 1.960  0.6269  156.1   6.911   64.5  0.0653   52.8  0.3786  164.5
 1.980  0.6275  155.8   6.839   64.2  0.0660   52.7  0.3790  164.0
 2.000  0.6281  155.4   6.767   63.8  0.0666   52.5  0.3795  163.5
 2.020  0.6288  155.1   6.703   63.5  0.0671   52.3  0.3800  163.1
 2.040  0.6295  154.8   6.640   63.3  0.0676   52.1  0.3805  162.7
 2.060  0.6302  154.4   6.577   63.0  0.0681   51.9  0.3810  162.2
 2.080  0.6309  154.1   6.514   62.7  0.0686   51.7  0.3815  161.8
 2.100  0.6317  153.8   6.451   62.4  0.0691   51.5  0.3820  161.4
 2.120  0.6325  153.5   6.388   62.1  0.0697   51.3  0.3826  161.0
 2.140  0.6333  153.2   6.326   61.8  0.0702   51.1  0.3832  160.5
 2.160  0.6341  152.8   6.263   61.5  0.0707   51.0  0.3838  160.1
 2.180  0.6349  152.5   6.201   61.2  0.0712   50.8  0.3844  159.7
 2.200  0.6358  152.2   6.139   60.9  0.0717   50.6  0.3851  159.3
 2.220  0.6362  151.9   6.085   60.6  0.0722   50.4  0.3856  158.9
 2.240  0.6367  151.5   6.031   60.3  0.0728   50.2  0.3861  158.5
 2.260  0.6371  151.2   5.977   60.0  0.0733   50.0  0.3867  158.0
 2.280  0.6376  150.9   5.924   59.7  0.0738   49.8  0.3872  157.6
 2.300  0.6381  150.5   5.870   59.4  0.0743   49.6  0.3878  157.2
 2.320  0.6386  150.2   5.817   59.1  0.0749   49.4  0.3884  156.8
 2.340  0.6391  149.9   5.764   58.7  0.0754   49.2  0.3890  156.3
 2.360  0.6397  149.6   5.711   58.4  0.0759   49.0  0.3897  155.9
 2.380  0.6403  149.2   5.658   58.0  0.0765   48.8  0.3903  155.5
 2.400  0.6409  148.9   5.606   57.7  0.0770   48.6  0.3910  155.1
 2.420  0.6414  148.6   5.560   57.4  0.0775   48.4  0.3916  154.7
 2.440  0.6419  148.2   5.515   57.1  0.0781   48.2  0.3923  154.3
 2.460  0.6424  147.9   5.469   56.8  0.0786   48.0  0.3929  153.9
 2.480  0.6430  147.6   5.424   56.5  0.0792   47.8  0.3936  153.6
 2.500  0.6436  147.2   5.379   56.2  0.0797   47.6  0.3943  153.2
 2.520  0.6442  146.9   5.334   55.9  0.0803   47.4  0.3951  152.8
 2.540  0.6448  146.6   5.289   55.6  0.0808   47.2  0.3958  152.4
 2.560  0.6454  146.3   5.245   55.3  0.0814   47.1  0.3965  152.0
 2.580  0.6461  145.9   5.200   54.9  0.0819   46.9  0.3973  151.7
 2.600  0.6468  145.6   5.156   54.6  0.0825   46.7  0.3981  151.3
 2.620  0.6473  145.3   5.117   54.3  0.0830   46.4  0.3987  150.9
 2.640  0.6479  145.0   5.078   54.0  0.0836   46.2  0.3994  150.5
 2.660  0.6485  144.7   5.038   53.7  0.0841   45.9  0.4000  150.1
 2.680  0.6491  144.4   5.000   53.5  0.0846   45.7  0.4007  149.8
 2.700  0.6497  144.0   4.961   53.2  0.0852   45.5  0.4014  149.4
 2.720  0.6504  143.7   4.922   52.9  0.0857   45.2  0.4021  149.0
 2.740  0.6510  143.4   4.884   52.5  0.0863   45.0  0.4028  148.6
 2.760  0.6517  143.1   4.845   52.2  0.0868   44.8  0.4036  148.2
 2.780  0.6524  142.8   4.807   51.9  0.0874   44.5  0.4043  147.9
 2.800  0.6531  142.5   4.769   51.6  0.0879   44.3  0.4051  147.5
 2.820  0.6536  142.2   4.735   51.3  0.0884   44.1  0.4058  147.2
 2.840  0.6541  141.9   4.701   51.0  0.0889   43.9  0.4066  146.8
 2.860  0.6547  141.6   4.667   50.7  0.0894   43.7  0.4074  146.5
 2.880  0.6552  141.3   4.634   50.5  0.0899   43.5  0.4082  146.1
 2.900  0.6558  141.0   4.600   50.2  0.0904   43.3  0.4090  145.8
 2.920  0.6564  140.7   4.567   49.9  0.0909   43.1  0.4098  145.4
 2.940  0.6570  140.4   4.534   49.5  0.0914   42.9  0.4106  145.1
 2.960  0.6576  140.1   4.501   49.2  0.0919   42.7  0.4115  144.8
 2.980  0.6582  139.8   4.468   48.9  0.0924   42.5  0.4123  144.4
 3.000  0.6589  139.5   4.435   48.6  0.0929   42.3  0.4132  144.1
 3.100  0.6617  138.0   4.293   47.3  0.0952   41.0  0.4175  142.5
 3.200  0.6650  136.5   4.153   45.9  0.0975   39.9  0.4221  141.0
 3.300  0.6688  134.9   4.016   44.4  0.0999   38.7  0.4269  139.4
 3.400  0.6730  133.5   3.882   42.8  0.1023   37.6  0.4321  137.9
 3.500  0.6776  132.0   3.751   41.1  0.1047   36.6  0.4376  136.5
 3.600  0.6815  130.6   3.641   39.8  0.1068   35.4  0.4428  135.1
 3.700  0.6859  129.1   3.533   38.5  0.1088   34.2  0.4483  133.7
 3.800  0.6907  127.7   3.427   37.0  0.1110   33.0  0.4540  132.4
 3.900  0.6958  126.4   3.323   35.5  0.1132   32.0  0.4599  131.1
 4.000  0.7014  125.0   3.222   33.9  0.1154   30.9  0.4661  129.8
 4.100  0.7051  123.8   3.134   32.7  0.1170   29.8  0.4710  128.6
 4.200  0.7091  122.5   3.048   31.4  0.1187   28.7  0.4762  127.4
 4.300  0.7134  121.3   2.963   30.1  0.1204   27.7  0.4815  126.2
 4.400  0.7180  120.1   2.880   28.7  0.1222   26.7  0.4871  125.1
 4.500  0.7230  118.9   2.799   27.2  0.1240   25.7  0.4928  124.0
 4.600  0.7254  117.8   2.732   26.1  0.1257   24.8  0.4960  122.8
 4.700  0.7281  116.7   2.665   24.9  0.1274   23.9  0.4995  121.7
 4.800  0.7310  115.6   2.600   23.7  0.1292   23.0  0.5031  120.6
 4.900  0.7342  114.6   2.537   22.4  0.1310   22.1  0.5069  119.5
 5.000  0.7376  113.5   2.474   21.1  0.1328   21.3  0.5109  118.4
 5.100  0.7386  112.5   2.421   20.0  0.1345   20.3  0.5132  117.2
 5.200  0.7398  111.4   2.368   18.8  0.1362   19.3  0.5157  116.0
 5.300  0.7413  110.4   2.317   17.6  0.1380   18.4  0.5185  114.8
 5.400  0.7430  109.3   2.266   16.3  0.1398   17.5  0.5214  113.7
 5.500  0.7450  108.3   2.217   15.0  0.1416   16.6  0.5246  112.5
 5.600  0.7457  107.4   2.174   13.9  0.1432   15.6  0.5269  111.3
 5.700  0.7466  106.6   2.131   12.8  0.1449   14.6  0.5295  110.0
 5.800  0.7477  105.7   2.090   11.7  0.1466   13.6  0.5323  108.8
 5.900  0.7489  104.9   2.049   10.5  0.1484   12.6  0.5353  107.6
 6.000  0.7503  104.0   2.009    9.2  0.1502   11.7  0.5386  106.4
 6.100  0.7526  103.1   1.976    8.0  0.1519   10.6  0.5417  105.4
 6.200  0.7550  102.2   1.944    6.8  0.1536    9.5  0.5450  104.4
 6.300  0.7577  101.3   1.913    5.6  0.1554    8.5  0.5484  103.4
 6.400  0.7605  100.5   1.883    4.3  0.1573    7.5  0.5520  102.4
 6.500  0.7635   99.6   1.854    3.0  0.1592    6.5  0.5558  101.4
 6.600  0.7659   98.6   1.824    1.8  0.1606    5.3  0.5587  100.5
 6.800  0.7714   96.5   1.765   -0.8  0.1637    3.0  0.5648   98.7
 7.000  0.7779   94.5   1.711   -3.5  0.1671    0.7  0.5714   97.0
 7.200  0.7826   92.1   1.651   -6.2  0.1692   -1.6  0.5781   94.9
 7.400  0.7887   89.8   1.595   -9.0  0.1715   -3.8  0.5857   92.8
 7.600  0.7943   87.3   1.539  -11.7  0.1731   -6.1  0.5936   90.5
 7.800  0.7997   84.8   1.482  -14.3  0.1740   -8.3  0.6023   87.9
 8.000  0.8066   82.3   1.429  -17.0  0.1751  -10.6  0.6122   85.4
 8.200  0.8117   79.7   1.374  -19.3  0.1753  -12.7  0.6217   82.9
 8.400  0.8185   77.2   1.322  -21.9  0.1758  -14.8  0.6322   80.6
 8.600  0.8251   74.7   1.272  -24.2  0.1760  -16.8  0.6434   78.2
 8.800  0.8313   72.5   1.222  -26.3  0.1760  -18.8  0.6554   75.8
 9.000  0.8388   70.2   1.175  -28.6  0.1762  -20.8  0.6684   73.5
 9.200  0.8461   68.5   1.128  -30.4  0.1751  -22.3  0.6803   71.4
 9.400  0.8541   66.7   1.082  -32.3  0.1741  -23.9  0.6929   69.5
 9.600  0.8622   65.3   1.042  -33.9  0.1732  -25.2  0.7044   68.0
 9.800  0.8701   64.1   1.005  -35.3  0.1723  -26.3  0.7142   66.9
10.000  0.8783   62.9   0.969  -36.7  0.1714  -27.4  0.7242   65.9
!
!  f       NFmin   Gammaopt  rn/50
! GHz       dB    MAG  ANG    -
 0.450      1.21  0.50 -171   0.06
 0.900      1.23  0.51 -165   0.06
 1.900      1.36  0.53 -151   0.08
 2.400      1.44  0.52 -141   0.10
 3.500      1.65  0.54 -118   0.18
!
! (c) 2016  Infineon Technologies AG, Munich
