! Infineon Technologies  Discrete & RF Semiconductors
! BFP620
! VCE =  1.5 V,  IC =  25 mA
! Common Emitter S-Parameters:                            Nov 2015
# GHz  S  MA  R  50
!  f         S11            S21            S12            S22
! GHz     MAG   ANG      MAG   ANG      MAG   ANG      MAG   ANG
 0.030  0.6275   -6.8  54.046  175.5  0.0024   89.7  0.9740   -3.7
 0.035  0.6258   -7.9  54.142  174.8  0.0028   88.6  0.9752   -4.6
 0.040  0.6243   -9.0  54.247  174.1  0.0032   87.7  0.9767   -5.4
 0.045  0.6231   -9.7  54.137  172.9  0.0035   87.0  0.9772   -6.3
 0.050  0.6220  -10.4  54.052  171.6  0.0039   86.4  0.9780   -7.1
 0.055  0.6226  -11.9  53.959  171.0  0.0042   85.1  0.9772   -8.0
 0.060  0.6235  -13.3  53.871  170.4  0.0046   84.0  0.9767   -8.9
 0.065  0.6219  -14.4  53.895  169.8  0.0050   84.2  0.9760   -9.7
 0.070  0.6206  -15.5  53.923  169.3  0.0054   84.3  0.9754  -10.5
 0.075  0.6189  -16.4  53.699  168.5  0.0057   83.4  0.9738  -11.3
 0.080  0.6173  -17.4  53.487  167.6  0.0061   82.6  0.9725  -12.2
 0.085  0.6171  -18.7  53.421  166.8  0.0064   82.0  0.9705  -13.0
 0.090  0.6172  -20.1  53.367  165.9  0.0068   81.5  0.9688  -13.9
 0.095  0.6157  -21.1  53.172  165.1  0.0072   81.5  0.9666  -14.7
 0.100  0.6145  -22.2  52.989  164.2  0.0076   81.5  0.9645  -15.5
 0.105  0.6099  -23.3  52.910  163.4  0.0079   80.9  0.9618  -16.3
 0.110  0.6055  -24.4  52.842  162.6  0.0083   80.4  0.9593  -17.2
 0.115  0.6063  -25.5  52.640  162.0  0.0086   79.8  0.9565  -18.0
 0.120  0.6074  -26.6  52.444  161.4  0.0090   79.2  0.9539  -18.8
 0.125  0.6061  -27.5  52.224  160.7  0.0093   78.9  0.9508  -19.6
 0.130  0.6049  -28.5  52.013  159.9  0.0096   78.7  0.9478  -20.4
 0.135  0.6017  -29.5  51.799  159.2  0.0099   78.1  0.9445  -21.1
 0.140  0.5987  -30.6  51.594  158.4  0.0103   77.6  0.9413  -21.9
 0.145  0.5979  -31.7  51.393  157.7  0.0106   77.3  0.9377  -22.6
 0.150  0.5974  -32.8  51.199  157.0  0.0109   77.0  0.9342  -23.4
 0.155  0.5947  -33.7  50.933  156.3  0.0112   76.5  0.9295  -24.1
 0.160  0.5921  -34.7  50.673  155.7  0.0115   76.1  0.9249  -24.8
 0.165  0.5897  -35.6  50.420  155.0  0.0119   75.7  0.9204  -25.5
 0.170  0.5874  -36.6  50.174  154.4  0.0122   75.3  0.9161  -26.3
 0.175  0.5853  -37.6  49.935  153.7  0.0125   75.0  0.9120  -27.0
 0.180  0.5834  -38.5  49.702  153.0  0.0128   74.6  0.9080  -27.8
 0.185  0.5817  -39.5  49.477  152.3  0.0131   74.3  0.9042  -28.5
 0.190  0.5801  -40.5  49.259  151.6  0.0135   74.0  0.9005  -29.3
 0.195  0.5787  -41.5  49.049  150.9  0.0138   73.7  0.8970  -30.0
 0.200  0.5775  -42.5  48.846  150.2  0.0141   73.4  0.8936  -30.8
 0.220  0.5663  -46.2  47.718  147.7  0.0152   71.8  0.8739  -33.4
 0.240  0.5575  -50.0  46.686  145.1  0.0163   70.5  0.8561  -36.1
 0.260  0.5482  -53.7  45.638  142.6  0.0174   69.3  0.8375  -38.7
 0.280  0.5381  -57.2  44.550  140.4  0.0185   68.2  0.8177  -41.1
 0.300  0.5300  -60.9  43.534  138.0  0.0195   67.2  0.7995  -43.7
 0.320  0.5204  -64.1  42.411  136.0  0.0204   66.2  0.7795  -45.9
 0.340  0.5124  -67.4  41.342  133.9  0.0213   65.3  0.7606  -48.1
 0.360  0.5046  -70.6  40.294  131.9  0.0221   64.5  0.7419  -50.3
 0.380  0.4966  -73.6  39.253  130.1  0.0229   63.7  0.7231  -52.3
 0.400  0.4900  -76.7  38.255  128.1  0.0237   62.9  0.7052  -54.4
 0.420  0.4812  -79.4  37.241  126.5  0.0245   62.2  0.6873  -56.2
 0.440  0.4735  -82.3  36.257  124.9  0.0252   61.6  0.6702  -58.2
 0.450  0.4701  -83.7  35.777  124.0  0.0256   61.3  0.6620  -59.2
 0.460  0.4661  -85.0  35.313  123.3  0.0259   61.0  0.6537  -60.0
 0.480  0.4588  -87.6  34.401  121.8  0.0266   60.5  0.6375  -61.7
 0.500  0.4525  -90.3  33.513  120.3  0.0273   60.0  0.6218  -63.4
 0.520  0.4453  -92.5  32.699  119.2  0.0279   59.6  0.6069  -64.8
 0.540  0.4388  -94.8  31.898  118.0  0.0286   59.2  0.5923  -66.2
 0.560  0.4331  -97.1  31.111  116.7  0.0292   58.9  0.5781  -67.7
 0.580  0.4281  -99.5  30.341  115.4  0.0299   58.5  0.5644  -69.3
 0.600  0.4238 -102.0  29.587  114.0  0.0305   58.2  0.5511  -71.0
 0.620  0.4183 -104.0  28.906  113.0  0.0311   57.9  0.5385  -72.2
 0.640  0.4134 -106.0  28.233  112.0  0.0316   57.7  0.5261  -73.5
 0.660  0.4090 -108.1  27.569  111.0  0.0322   57.4  0.5140  -74.8
 0.680  0.4051 -110.2  26.915  109.9  0.0327   57.1  0.5021  -76.2
 0.700  0.4018 -112.4  26.272  108.7  0.0333   56.9  0.4906  -77.6
 0.720  0.3979 -114.1  25.716  107.9  0.0339   56.7  0.4803  -78.7
 0.740  0.3943 -115.9  25.165  107.0  0.0344   56.5  0.4703  -79.8
 0.760  0.3911 -117.7  24.621  106.1  0.0350   56.3  0.4604  -81.0
 0.780  0.3882 -119.5  24.083  105.2  0.0355   56.2  0.4507  -82.2
 0.800  0.3858 -121.3  23.551  104.2  0.0361   56.0  0.4412  -83.5
 0.820  0.3827 -122.9  23.088  103.5  0.0366   55.9  0.4327  -84.5
 0.840  0.3799 -124.4  22.629  102.8  0.0372   55.7  0.4242  -85.5
 0.860  0.3774 -126.0  22.174  102.0  0.0377   55.6  0.4160  -86.6
 0.880  0.3752 -127.7  21.723  101.2  0.0383   55.5  0.4079  -87.7
 0.900  0.3733 -129.3  21.276  100.4  0.0388   55.4  0.3999  -88.9
 0.920  0.3712 -130.7  20.897   99.8  0.0393   55.3  0.3929  -89.8
 0.940  0.3694 -132.1  20.520   99.2  0.0399   55.2  0.3859  -90.7
 0.960  0.3677 -133.5  20.146   98.5  0.0404   55.1  0.3791  -91.7
 0.980  0.3663 -134.9  19.775   97.8  0.0410   55.0  0.3724  -92.7
 1.000  0.3651 -136.3  19.407   97.1  0.0415   54.9  0.3658  -93.7
 1.020  0.3635 -137.6  19.079   96.5  0.0420   54.8  0.3599  -94.6
 1.040  0.3620 -138.8  18.753   95.9  0.0425   54.7  0.3541  -95.5
 1.060  0.3608 -140.1  18.429   95.3  0.0431   54.6  0.3484  -96.5
 1.080  0.3597 -141.4  18.107   94.7  0.0436   54.5  0.3428  -97.5
 1.100  0.3588 -142.7  17.788   94.0  0.0441   54.4  0.3373  -98.5
 1.120  0.3573 -143.8  17.511   93.5  0.0446   54.3  0.3321  -99.3
 1.140  0.3559 -145.0  17.236   92.9  0.0452   54.2  0.3270 -100.2
 1.160  0.3547 -146.2  16.962   92.4  0.0457   54.1  0.3219 -101.1
 1.180  0.3536 -147.3  16.689   91.8  0.0463   54.0  0.3169 -102.0
 1.200  0.3527 -148.5  16.419   91.2  0.0468   53.9  0.3120 -102.9
 1.220  0.3521 -149.5  16.183   90.7  0.0473   53.8  0.3078 -103.7
 1.240  0.3516 -150.5  15.948   90.3  0.0479   53.8  0.3038 -104.6
 1.260  0.3512 -151.5  15.714   89.8  0.0484   53.7  0.2997 -105.4
 1.280  0.3509 -152.5  15.481   89.3  0.0490   53.7  0.2958 -106.3
 1.300  0.3507 -153.5  15.249   88.8  0.0495   53.6  0.2919 -107.2
 1.320  0.3504 -154.5  15.047   88.3  0.0500   53.5  0.2881 -108.0
 1.340  0.3502 -155.5  14.846   87.8  0.0506   53.4  0.2843 -108.9
 1.360  0.3501 -156.6  14.647   87.3  0.0511   53.2  0.2807 -109.8
 1.380  0.3501 -157.6  14.448   86.8  0.0517   53.1  0.2770 -110.7
 1.400  0.3502 -158.6  14.251   86.3  0.0522   53.0  0.2735 -111.6
 1.420  0.3495 -159.5  14.066   85.9  0.0527   52.9  0.2705 -112.4
 1.440  0.3489 -160.5  13.883   85.5  0.0533   52.8  0.2675 -113.3
 1.460  0.3484 -161.4  13.700   85.0  0.0538   52.7  0.2646 -114.2
 1.480  0.3479 -162.4  13.517   84.6  0.0544   52.6  0.2617 -115.1
 1.500  0.3476 -163.3  13.336   84.1  0.0549   52.5  0.2589 -116.0
 1.520  0.3475 -164.2  13.174   83.7  0.0554   52.4  0.2559 -116.8
 1.540  0.3474 -165.1  13.012   83.3  0.0559   52.3  0.2530 -117.7
 1.560  0.3475 -166.0  12.851   82.8  0.0565   52.2  0.2502 -118.6
 1.580  0.3476 -166.9  12.690   82.4  0.0570   52.1  0.2474 -119.5
 1.600  0.3478 -167.8  12.531   81.9  0.0575   52.0  0.2447 -120.4
 1.620  0.3478 -168.7  12.387   81.5  0.0581   51.9  0.2425 -121.2
 1.640  0.3479 -169.5  12.244   81.1  0.0586   51.8  0.2404 -122.0
 1.660  0.3481 -170.4  12.102   80.7  0.0592   51.6  0.2384 -122.9
 1.680  0.3484 -171.2  11.960   80.3  0.0597   51.5  0.2364 -123.7
 1.700  0.3487 -172.1  11.819   79.9  0.0603   51.4  0.2344 -124.6
 1.720  0.3486 -172.9  11.692   79.5  0.0608   51.3  0.2320 -125.5
 1.740  0.3486 -173.7  11.566   79.1  0.0614   51.1  0.2297 -126.5
 1.760  0.3486 -174.4  11.440   78.7  0.0619   51.0  0.2275 -127.5
 1.780  0.3487 -175.2  11.315   78.3  0.0625   50.8  0.2253 -128.5
 1.800  0.3489 -176.0  11.190   77.9  0.0630   50.7  0.2232 -129.5
 1.820  0.3491 -176.7  11.072   77.5  0.0635   50.6  0.2215 -130.3
 1.840  0.3493 -177.5  10.954   77.1  0.0640   50.4  0.2198 -131.2
 1.860  0.3496 -178.2  10.837   76.7  0.0646   50.3  0.2182 -132.0
 1.880  0.3499 -179.0  10.721   76.3  0.0651   50.1  0.2166 -132.9
 1.900  0.3503 -179.7  10.605   75.9  0.0656   50.0  0.2151 -133.8
 1.920  0.3506  179.6  10.500   75.5  0.0661   49.9  0.2136 -134.7
 1.940  0.3510  178.8  10.395   75.2  0.0666   49.7  0.2121 -135.6
 1.960  0.3514  178.1  10.290   74.8  0.0672   49.6  0.2107 -136.6
 1.980  0.3519  177.3  10.186   74.4  0.0677   49.4  0.2093 -137.5
 2.000  0.3524  176.6  10.083   74.0  0.0682   49.3  0.2080 -138.5
 2.020  0.3529  176.0   9.991   73.7  0.0687   49.2  0.2068 -139.4
 2.040  0.3534  175.3   9.899   73.4  0.0693   49.0  0.2056 -140.2
 2.060  0.3539  174.7   9.808   73.1  0.0698   48.9  0.2045 -141.1
 2.080  0.3545  174.0   9.717   72.8  0.0704   48.7  0.2034 -142.0
 2.100  0.3552  173.4   9.626   72.4  0.0709   48.6  0.2024 -142.9
 2.120  0.3559  172.7   9.536   72.1  0.0714   48.4  0.2014 -143.9
 2.140  0.3566  172.1   9.445   71.8  0.0720   48.3  0.2005 -144.8
 2.160  0.3574  171.5   9.356   71.4  0.0725   48.2  0.1996 -145.7
 2.180  0.3582  170.8   9.266   71.1  0.0731   48.0  0.1988 -146.7
 2.200  0.3591  170.2   9.177   70.7  0.0736   47.9  0.1980 -147.6
 2.220  0.3594  169.6   9.097   70.4  0.0741   47.7  0.1972 -148.4
 2.240  0.3598  169.0   9.018   70.0  0.0746   47.6  0.1964 -149.3
 2.260  0.3601  168.4   8.939   69.7  0.0752   47.4  0.1956 -150.1
 2.280  0.3606  167.8   8.860   69.3  0.0757   47.2  0.1949 -151.0
 2.300  0.3610  167.2   8.782   69.0  0.0762   47.1  0.1942 -151.9
 2.320  0.3615  166.6   8.704   68.6  0.0767   46.9  0.1936 -152.8
 2.340  0.3621  166.1   8.626   68.2  0.0772   46.8  0.1930 -153.6
 2.360  0.3626  165.5   8.549   67.9  0.0778   46.6  0.1925 -154.5
 2.380  0.3632  164.9   8.472   67.5  0.0783   46.5  0.1920 -155.4
 2.400  0.3639  164.3   8.395   67.1  0.0788   46.3  0.1916 -156.3
 2.420  0.3645  163.8   8.330   66.8  0.0793   46.1  0.1912 -157.1
 2.440  0.3651  163.2   8.265   66.5  0.0799   45.9  0.1909 -157.9
 2.460  0.3658  162.7   8.200   66.2  0.0804   45.8  0.1906 -158.8
 2.480  0.3665  162.1   8.135   65.8  0.0809   45.6  0.1903 -159.6
 2.500  0.3672  161.6   8.071   65.5  0.0814   45.4  0.1901 -160.4
 2.520  0.3680  161.0   8.007   65.2  0.0820   45.3  0.1899 -161.3
 2.540  0.3688  160.5   7.943   64.8  0.0825   45.1  0.1897 -162.1
 2.560  0.3696  160.0   7.879   64.5  0.0830   44.9  0.1896 -162.9
 2.580  0.3705  159.4   7.816   64.2  0.0836   44.8  0.1895 -163.8
 2.600  0.3714  158.9   7.753   63.8  0.0841   44.6  0.1895 -164.6
 2.620  0.3720  158.4   7.695   63.5  0.0846   44.4  0.1893 -165.4
 2.640  0.3727  157.8   7.637   63.2  0.0851   44.2  0.1892 -166.2
 2.660  0.3734  157.3   7.580   62.9  0.0856   44.0  0.1891 -167.0
 2.680  0.3741  156.8   7.522   62.6  0.0861   43.9  0.1890 -167.8
 2.700  0.3749  156.3   7.465   62.3  0.0866   43.7  0.1890 -168.6
 2.720  0.3756  155.8   7.408   61.9  0.0871   43.5  0.1890 -169.5
 2.740  0.3765  155.2   7.352   61.6  0.0877   43.3  0.1891 -170.3
 2.760  0.3773  154.7   7.295   61.3  0.0882   43.1  0.1892 -171.1
 2.780  0.3782  154.2   7.239   60.9  0.0887   43.0  0.1893 -171.9
 2.800  0.3791  153.7   7.183   60.6  0.0892   42.8  0.1895 -172.7
 2.820  0.3798  153.2   7.132   60.3  0.0897   42.6  0.1896 -173.5
 2.840  0.3806  152.7   7.082   60.0  0.0902   42.4  0.1897 -174.3
 2.860  0.3814  152.2   7.032   59.7  0.0907   42.3  0.1898 -175.0
 2.880  0.3822  151.8   6.981   59.4  0.0912   42.1  0.1900 -175.8
 2.900  0.3830  151.3   6.931   59.1  0.0917   41.9  0.1902 -176.6
 2.920  0.3839  150.8   6.882   58.8  0.0922   41.8  0.1904 -177.3
 2.940  0.3848  150.3   6.832   58.5  0.0927   41.6  0.1907 -178.1
 2.960  0.3857  149.8   6.783   58.2  0.0932   41.4  0.1910 -178.9
 2.980  0.3866  149.4   6.734   57.8  0.0937   41.3  0.1913 -179.6
 3.000  0.3876  148.9   6.685   57.5  0.0942   41.1  0.1917  179.6
 3.100  0.3923  146.6   6.478   56.2  0.0966   40.0  0.1941  176.0
 3.200  0.3976  144.4   6.274   54.8  0.0990   39.0  0.1972  172.6
 3.300  0.4035  142.2   6.074   53.4  0.1014   38.0  0.2010  169.2
 3.400  0.4099  140.1   5.879   51.8  0.1039   37.1  0.2054  166.0
 3.500  0.4169  138.1   5.688   50.1  0.1064   36.2  0.2105  162.9
 3.600  0.4241  136.3   5.527   48.8  0.1085   35.1  0.2158  160.1
 3.700  0.4317  134.5   5.368   47.5  0.1107   34.1  0.2216  157.4
 3.800  0.4397  132.8   5.213   46.0  0.1129   33.1  0.2278  154.8
 3.900  0.4481  131.1   5.061   44.5  0.1151   32.1  0.2345  152.4
 4.000  0.4568  129.5   4.913   42.9  0.1174   31.2  0.2416  150.1
 4.100  0.4635  128.1   4.788   41.7  0.1193   30.2  0.2479  148.1
 4.200  0.4705  126.7   4.666   40.4  0.1213   29.2  0.2545  146.2
 4.300  0.4777  125.3   4.546   39.1  0.1234   28.2  0.2614  144.4
 4.400  0.4852  124.0   4.429   37.7  0.1254   27.3  0.2685  142.6
 4.500  0.4930  122.7   4.314   36.2  0.1275   26.4  0.2759  141.0
 4.600  0.4968  121.3   4.215   35.0  0.1294   25.4  0.2801  139.2
 4.700  0.5010  119.9   4.118   33.8  0.1313   24.4  0.2846  137.4
 4.800  0.5054  118.5   4.022   32.5  0.1332   23.5  0.2893  135.7
 4.900  0.5101  117.2   3.929   31.2  0.1352   22.6  0.2943  134.1
 5.000  0.5151  115.9   3.838   29.8  0.1372   21.7  0.2995  132.5
 5.100  0.5173  114.4   3.756   28.6  0.1390   20.7  0.3026  130.7
 5.200  0.5198  112.9   3.675   27.4  0.1408   19.7  0.3060  128.9
 5.300  0.5227  111.5   3.596   26.1  0.1427   18.7  0.3097  127.2
 5.400  0.5259  110.0   3.519   24.8  0.1446   17.8  0.3137  125.5
 5.500  0.5294  108.6   3.444   23.4  0.1465   16.9  0.3179  123.8
 5.600  0.5324  107.4   3.376   22.3  0.1483   15.9  0.3216  122.1
 5.700  0.5356  106.2   3.308   21.1  0.1501   15.0  0.3255  120.5
 5.800  0.5391  105.0   3.243   19.9  0.1519   14.0  0.3297  118.9
 5.900  0.5428  103.8   3.179   18.6  0.1538   13.1  0.3341  117.4
 6.000  0.5467  102.7   3.116   17.3  0.1557   12.2  0.3388  115.9
 6.100  0.5515  101.8   3.063   16.2  0.1574   11.2  0.3430  114.7
 6.200  0.5564  100.9   3.011   15.1  0.1591   10.2  0.3474  113.5
 6.300  0.5615  100.0   2.960   13.9  0.1609    9.3  0.3520  112.3
 6.400  0.5667   99.1   2.910   12.7  0.1627    8.3  0.3567  111.2
 6.500  0.5720   98.2   2.862   11.4  0.1646    7.4  0.3615  110.1
 6.600  0.5763   97.4   2.817   10.2  0.1662    6.3  0.3652  109.0
 6.800  0.5851   95.8   2.731    7.7  0.1696    4.2  0.3729  106.9
 7.000  0.5944   94.2   2.650    5.1  0.1732    2.1  0.3811  104.9
 7.200  0.6015   92.1   2.566    2.6  0.1758   -0.2  0.3903  102.6
 7.400  0.6095   90.1   2.487   -0.1  0.1787   -2.4  0.4001  100.4
 7.600  0.6183   87.7   2.408   -2.8  0.1811   -4.7  0.4110   98.0
 7.800  0.6285   85.0   2.328   -5.5  0.1829   -7.0  0.4232   95.4
 8.000  0.6400   82.4   2.253   -8.4  0.1850   -9.3  0.4362   92.9
 8.200  0.6497   79.2   2.166  -10.8  0.1854  -11.7  0.4503   90.0
 8.400  0.6613   76.0   2.083  -13.5  0.1861  -14.0  0.4654   87.2
 8.600  0.6741   72.9   2.003  -16.0  0.1863  -16.3  0.4818   84.4
 8.800  0.6880   69.9   1.924  -18.3  0.1860  -18.4  0.4995   81.5
 9.000  0.7038   67.0   1.849  -20.8  0.1860  -20.6  0.5184   78.9
 9.200  0.7198   64.9   1.770  -22.6  0.1846  -22.2  0.5374   76.5
 9.400  0.7366   63.0   1.694  -24.6  0.1833  -23.9  0.5572   74.3
 9.600  0.7527   61.6   1.629  -26.3  0.1823  -25.2  0.5747   72.5
 9.800  0.7675   61.0   1.577  -27.6  0.1816  -26.2  0.5894   71.3
10.000  0.7824   60.3   1.525  -29.0  0.1810  -27.2  0.6044   70.1
10.200  0.7894   60.5   1.489  -30.1  0.1818  -28.1  0.6111   69.8
10.400  0.7965   60.6   1.454  -31.3  0.1827  -29.0  0.6178   69.5
10.600  0.8001   60.6   1.426  -32.6  0.1844  -29.9  0.6220   69.3
10.800  0.8003   60.3   1.406  -34.1  0.1870  -31.0  0.6237   69.2
11.000  0.8006   60.0   1.386  -35.7  0.1897  -32.0  0.6253   69.1
11.200  0.7946   58.3   1.359  -37.9  0.1922  -33.8  0.6245   68.2
11.400  0.7893   56.5   1.334  -40.2  0.1950  -35.6  0.6239   67.3
11.600  0.7818   54.4   1.304  -42.3  0.1960  -37.5  0.6248   66.2
11.800  0.7725   52.0   1.269  -44.0  0.1953  -39.4  0.6276   64.9
12.000  0.7647   49.5   1.236  -45.9  0.1949  -41.4  0.6306   63.6
!
!  f       NFmin   Gammaopt  rn/50
! GHz       dB    MAG  ANG    -
 0.450      1.05  0.07 -148   0.10
 0.900      1.05  0.13 -147   0.10
 1.900      1.06  0.16 -140   0.10
 2.400      1.09  0.18 -135   0.11
 3.500      1.13  0.26  -96   0.15
 5.500      1.38  0.31  -84   0.20
10.000      1.78  0.61  -46   0.85
!
! (c) 2015  Infineon Technologies AG, Munich
