! Infineon Technologies  Discrete & RF Semiconductors
! BFP640
! VCE =  1.0 V,  IC =  15 mA
! Common Emitter S-Parameters:                            Apr 2013
# GHz  S  MA  R  50
!  f         S11            S21            S12            S22
! GHz     MAG   ANG      MAG   ANG      MAG   ANG      MAG   ANG
 0.030  0.7852   -4.3  36.945  176.4  0.0023   82.5  0.9887   -2.3
 0.040  0.7835   -5.7  37.003  175.3  0.0023   87.7  0.9904   -3.3
 0.050  0.7823   -7.5  37.349  174.4  0.0044   62.9  0.9921   -4.6
 0.060  0.7838   -8.6  37.125  173.0  0.0052   88.7  0.9915   -5.4
 0.070  0.7782  -10.1  37.136  172.0  0.0053   69.8  0.9878   -6.2
 0.080  0.7779  -11.4  36.998  170.9  0.0057   75.0  0.9857   -7.2
 0.090  0.7760  -12.7  36.963  169.7  0.0049   81.8  0.9859   -8.1
 0.100  0.7749  -14.2  36.766  168.7  0.0065   87.6  0.9837   -9.1
 0.110  0.7711  -15.8  36.780  167.5  0.0075   86.0  0.9808  -10.1
 0.120  0.7703  -17.2  36.513  166.4  0.0076   86.2  0.9773  -11.0
 0.130  0.7684  -18.6  36.374  165.3  0.0082   84.3  0.9753  -12.0
 0.140  0.7664  -19.9  36.071  164.3  0.0089   82.9  0.9719  -12.8
 0.150  0.7646  -21.3  36.099  163.3  0.0098   81.3  0.9680  -13.8
 0.200  0.7501  -28.0  35.190  158.1  0.0128   78.6  0.9468  -18.3
 0.250  0.7310  -34.6  34.328  153.1  0.0154   74.2  0.9215  -22.4
 0.300  0.7126  -40.8  33.180  148.5  0.0181   73.3  0.8921  -26.5
 0.350  0.6916  -47.0  31.944  144.1  0.0205   70.2  0.8626  -30.3
 0.400  0.6695  -52.9  30.836  139.9  0.0227   67.3  0.8266  -33.9
 0.450  0.6478  -58.4  29.629  136.0  0.0251   65.3  0.7970  -37.1
 0.500  0.6238  -64.1  28.476  132.3  0.0267   63.5  0.7605  -40.2
 0.600  0.5812  -74.3  26.144  125.7  0.0305   59.8  0.6964  -45.6
 0.700  0.5423  -83.7  23.987  119.8  0.0334   57.0  0.6371  -50.1
 0.800  0.5076  -92.4  22.044  114.8  0.0360   55.2  0.5815  -54.0
 0.900  0.4779 -100.6  20.352  110.2  0.0387   53.7  0.5325  -57.4
 1.000  0.4542 -108.0  18.781  106.4  0.0409   52.4  0.4893  -60.4
 1.100  0.4333 -114.9  17.422  102.9  0.0433   51.5  0.4514  -62.9
 1.200  0.4150 -121.4  16.226   99.6  0.0454   50.4  0.4178  -65.1
 1.300  0.4008 -127.5  15.159   96.7  0.0472   49.6  0.3875  -67.1
 1.400  0.3888 -133.4  14.244   93.9  0.0494   49.0  0.3624  -68.9
 1.500  0.3790 -138.8  13.406   91.5  0.0515   48.5  0.3378  -70.4
 1.600  0.3724 -144.0  12.673   89.0  0.0534   47.8  0.3172  -72.1
 1.700  0.3662 -149.2  12.004   86.7  0.0554   47.4  0.2965  -73.3
 1.800  0.3627 -153.8  11.391   84.6  0.0575   46.7  0.2794  -75.0
 1.900  0.3606 -158.3  10.854   82.5  0.0596   46.0  0.2624  -76.3
 2.000  0.3592 -162.6  10.353   80.5  0.0614   45.7  0.2471  -78.0
 2.100  0.3594 -166.6   9.875   78.4  0.0635   45.0  0.2332  -79.8
 2.200  0.3580 -170.7   9.455   76.5  0.0657   44.5  0.2193  -81.2
 2.300  0.3582 -174.5   9.064   74.6  0.0676   44.0  0.2068  -82.5
 2.400  0.3587 -178.0   8.704   72.9  0.0696   43.3  0.1948  -84.0
 2.500  0.3604  178.6   8.371   71.1  0.0716   42.6  0.1835  -85.2
 2.600  0.3621  175.2   8.059   69.4  0.0734   42.1  0.1714  -86.9
 2.700  0.3648  172.0   7.771   67.7  0.0755   41.4  0.1600  -88.3
 2.800  0.3669  168.8   7.503   65.9  0.0774   40.6  0.1492  -90.4
 2.900  0.3709  166.0   7.249   64.3  0.0796   40.1  0.1392  -92.7
 3.000  0.3744  163.0   7.010   62.7  0.0815   39.4  0.1297  -95.5
 3.100  0.3786  160.2   6.783   61.1  0.0835   38.6  0.1202  -98.4
 3.200  0.3832  157.4   6.573   59.5  0.0855   38.0  0.1122 -102.1
 3.300  0.3881  154.8   6.374   57.9  0.0875   37.2  0.1044 -105.8
 3.400  0.3939  152.1   6.184   56.4  0.0895   36.3  0.0978 -110.5
 3.500  0.3992  149.7   6.002   54.8  0.0912   35.6  0.0902 -115.2
 3.600  0.4051  147.2   5.831   53.3  0.0931   34.8  0.0843 -121.1
 3.700  0.4112  144.9   5.669   51.8  0.0949   34.0  0.0784 -127.9
 3.800  0.4174  142.6   5.515   50.3  0.0967   33.2  0.0745 -135.1
 3.900  0.4235  140.5   5.365   48.8  0.0986   32.4  0.0719 -142.9
 4.000  0.4303  138.3   5.222   47.4  0.1005   31.6  0.0710 -151.3
 4.100  0.4359  136.3   5.085   46.0  0.1022   30.7  0.0709 -159.3
 4.200  0.4433  134.3   4.955   44.5  0.1039   30.0  0.0723 -166.9
 4.300  0.4491  132.4   4.832   43.1  0.1056   29.1  0.0743 -173.6
 4.400  0.4568  130.7   4.712   41.7  0.1071   28.3  0.0766  179.9
 4.500  0.4616  129.0   4.598   40.3  0.1089   27.6  0.0794  174.3
 4.600  0.4689  127.5   4.490   38.9  0.1107   26.8  0.0828  168.6
 4.700  0.4736  125.9   4.383   37.7  0.1123   26.0  0.0860  163.8
 4.800  0.4806  124.5   4.284   36.3  0.1138   25.2  0.0897  159.2
 4.900  0.4850  123.0   4.188   35.0  0.1154   24.3  0.0928  155.0
 5.000  0.4911  121.8   4.096   33.7  0.1170   23.6  0.0962  151.1
 5.100  0.4953  120.4   4.007   32.4  0.1186   22.8  0.0995  147.3
 5.200  0.4999  119.2   3.924   31.1  0.1204   22.1  0.1025  144.1
 5.300  0.5037  117.9   3.840   29.8  0.1220   21.2  0.1060  140.6
 5.400  0.5079  116.8   3.763   28.6  0.1235   20.4  0.1088  137.6
 5.500  0.5112  115.5   3.687   27.3  0.1251   19.7  0.1124  134.3
 5.600  0.5150  114.5   3.616   26.1  0.1266   18.8  0.1151  131.5
 5.700  0.5172  113.3   3.547   24.9  0.1284   18.2  0.1190  128.4
 5.800  0.5214  112.2   3.481   23.7  0.1298   17.3  0.1224  125.9
 5.900  0.5242  111.3   3.418   22.5  0.1317   16.6  0.1263  123.4
 6.000  0.5273  110.2   3.360   21.2  0.1334   15.9  0.1302  121.4
 6.100  0.5324  109.2   3.303   20.0  0.1352   15.0  0.1344  119.3
 6.200  0.5342  108.2   3.248   18.9  0.1368   14.0  0.1390  117.5
 6.300  0.5394  107.1   3.195   17.6  0.1384   13.1  0.1437  115.7
 6.400  0.5419  106.0   3.144   16.3  0.1402   12.2  0.1485  114.1
 6.500  0.5468  104.7   3.094   15.0  0.1420   11.3  0.1536  112.4
 6.600  0.5496  103.5   3.043   13.7  0.1433   10.4  0.1584  111.0
 6.700  0.5544  102.3   2.997   12.5  0.1447    9.5  0.1633  109.4
 6.800  0.5583  101.0   2.948   11.2  0.1462    8.5  0.1681  108.0
 6.900  0.5628   99.8   2.904    9.9  0.1476    7.6  0.1738  106.6
 7.000  0.5665   98.4   2.859    8.6  0.1494    6.6  0.1788  105.6
 7.100  0.5715   97.2   2.817    7.3  0.1508    5.7  0.1845  104.4
 7.200  0.5753   95.8   2.773    6.0  0.1521    4.7  0.1894  103.4
 7.300  0.5801   94.6   2.733    4.7  0.1533    3.7  0.1951  102.1
 7.400  0.5846   93.2   2.690    3.4  0.1548    2.7  0.2000  101.0
 7.500  0.5902   91.9   2.649    2.0  0.1560    1.7  0.2065   99.5
 7.600  0.5952   90.5   2.608    0.7  0.1571    0.7  0.2130   98.4
 7.700  0.6021   89.3   2.567   -0.6  0.1582   -0.4  0.2191   97.1
 7.800  0.6075   87.9   2.526   -1.9  0.1594   -1.4  0.2255   95.7
 7.900  0.6144   86.6   2.485   -3.2  0.1602   -2.3  0.2329   94.2
 8.000  0.6206   85.3   2.447   -4.6  0.1612   -3.4  0.2400   92.9
 8.500  0.6563   79.0   2.245  -11.1  0.1644   -8.4  0.2820   85.2
 9.000  0.6923   73.3   2.047  -16.9  0.1656  -13.0  0.3333   78.8
 9.500  0.7273   68.4   1.863  -21.8  0.1652  -16.8  0.3861   74.3
10.000  0.7564   64.9   1.712  -25.8  0.1652  -19.7  0.4298   72.2
!
!  f       NFmin   Gammaopt  rn/50
! GHz       dB    MAG  ANG    -
 0.450      0.75  0.16    7   0.02
 0.900      0.77  0.15   15   0.02
 1.500      0.79  0.12   26   0.04
 1.900      0.79  0.09   43   0.04
 2.400      0.82  0.13 -116   0.05
 3.500      0.95  0.19 -105   0.07
 5.500      1.16  0.22 -100   0.12
10.000      1.69  0.57  -57   0.42
!
! (c) 2013  Infineon Technologies AG, Munich
