! Infineon Technologies  Discrete & RF Semiconductors
! BFP640FESD
! VCE =  2.0 V,  IC =  20 mA
! Common Emitter S-Parameters:                            Jan 2016
# GHz  S  MA  R  50
!  f         S11            S21            S12            S22
! GHz     MAG   ANG      MAG   ANG      MAG   ANG      MAG   ANG
 0.010  0.7201   -0.4  48.680  180.0  0.0005   85.1  0.9609    3.1
 0.015  0.7189   -1.7  48.658  179.0  0.0008   91.4  0.9728    1.0
 0.020  0.7181   -3.1  48.652  177.9  0.0012   94.0  0.9860   -1.1
 0.025  0.7171   -3.9  48.629  177.4  0.0014   91.6  0.9867   -1.6
 0.030  0.7162   -4.7  48.610  176.9  0.0016   89.7  0.9875   -2.1
 0.035  0.7155   -5.5  48.594  176.4  0.0017   88.3  0.9884   -2.6
 0.040  0.7149   -6.3  48.582  175.9  0.0019   87.1  0.9893   -3.0
 0.045  0.7145   -7.1  48.574  175.4  0.0021   86.1  0.9903   -3.5
 0.050  0.7142   -7.9  48.569  174.9  0.0023   85.3  0.9914   -4.0
 0.055  0.7132   -8.7  48.551  174.4  0.0025   85.0  0.9906   -4.5
 0.060  0.7124   -9.4  48.536  173.9  0.0028   84.7  0.9898   -5.0
 0.065  0.7117  -10.2  48.525  173.5  0.0030   84.5  0.9891   -5.4
 0.070  0.7111  -11.0  48.517  173.0  0.0032   84.3  0.9884   -5.9
 0.075  0.7106  -11.7  48.513  172.5  0.0034   84.1  0.9879   -6.4
 0.080  0.7103  -12.5  48.512  172.0  0.0037   83.9  0.9874   -6.9
 0.085  0.7100  -13.3  48.514  171.5  0.0039   83.8  0.9870   -7.4
 0.090  0.7100  -14.1  48.520  171.1  0.0041   83.7  0.9866   -7.8
 0.095  0.7100  -14.8  48.529  170.6  0.0044   83.6  0.9863   -8.3
 0.100  0.7102  -15.6  48.542  170.1  0.0046   83.5  0.9861   -8.8
 0.105  0.7088  -16.4  48.456  169.6  0.0048   83.0  0.9843   -9.3
 0.110  0.7075  -17.1  48.375  169.1  0.0050   82.5  0.9826   -9.7
 0.115  0.7063  -17.9  48.298  168.5  0.0052   82.1  0.9809  -10.2
 0.120  0.7053  -18.7  48.224  168.0  0.0054   81.7  0.9793  -10.6
 0.125  0.7044  -19.5  48.155  167.5  0.0056   81.4  0.9778  -11.1
 0.130  0.7036  -20.3  48.090  166.9  0.0059   81.0  0.9763  -11.5
 0.135  0.7030  -21.0  48.029  166.4  0.0061   80.7  0.9749  -12.0
 0.140  0.7025  -21.8  47.972  165.9  0.0063   80.4  0.9735  -12.5
 0.145  0.7021  -22.6  47.919  165.3  0.0065   80.2  0.9722  -12.9
 0.150  0.7019  -23.4  47.871  164.8  0.0067   79.9  0.9710  -13.4
 0.155  0.7005  -24.1  47.761  164.3  0.0069   79.5  0.9687  -13.8
 0.160  0.6993  -24.9  47.654  163.8  0.0071   79.0  0.9665  -14.2
 0.165  0.6982  -25.6  47.550  163.4  0.0073   78.6  0.9643  -14.7
 0.170  0.6971  -26.3  47.450  162.9  0.0075   78.3  0.9621  -15.1
 0.175  0.6962  -27.1  47.353  162.4  0.0077   77.9  0.9600  -15.5
 0.180  0.6955  -27.8  47.260  161.9  0.0080   77.6  0.9580  -16.0
 0.185  0.6948  -28.6  47.170  161.4  0.0082   77.3  0.9560  -16.4
 0.190  0.6942  -29.3  47.084  160.9  0.0084   77.0  0.9541  -16.8
 0.195  0.6938  -30.1  47.001  160.4  0.0086   76.7  0.9522  -17.3
 0.200  0.6935  -30.8  46.922  159.9  0.0088   76.4  0.9504  -17.7
 0.220  0.6866  -33.6  46.329  157.9  0.0096   75.1  0.9400  -19.3
 0.240  0.6815  -36.5  45.791  155.9  0.0103   73.9  0.9304  -21.0
 0.260  0.6765  -39.4  45.267  154.0  0.0111   72.7  0.9199  -22.6
 0.280  0.6713  -42.1  44.744  152.3  0.0118   71.6  0.9085  -24.1
 0.300  0.6678  -44.9  44.263  150.5  0.0125   70.5  0.8977  -25.7
 0.320  0.6609  -47.5  43.639  148.9  0.0131   69.4  0.8853  -27.1
 0.340  0.6555  -50.2  43.052  147.2  0.0138   68.5  0.8735  -28.6
 0.360  0.6499  -52.8  42.442  145.5  0.0144   67.5  0.8613  -30.0
 0.380  0.6441  -55.3  41.804  143.9  0.0150   66.5  0.8487  -31.3
 0.400  0.6396  -57.9  41.199  142.3  0.0156   65.6  0.8365  -32.6
 0.420  0.6333  -60.2  40.539  140.8  0.0162   64.7  0.8238  -33.9
 0.440  0.6280  -62.6  39.907  139.3  0.0167   63.8  0.8115  -35.1
 0.450  0.6258  -63.8  39.602  138.5  0.0170   63.4  0.8055  -35.8
 0.460  0.6225  -65.0  39.276  137.8  0.0172   63.0  0.7990  -36.4
 0.480  0.6166  -67.3  38.640  136.4  0.0177   62.2  0.7864  -37.5
 0.500  0.6118  -69.7  38.028  135.0  0.0182   61.5  0.7740  -38.7
 0.520  0.6052  -71.7  37.381  133.8  0.0186   60.8  0.7615  -39.7
 0.540  0.5994  -73.8  36.751  132.5  0.0191   60.1  0.7491  -40.6
 0.560  0.5944  -75.8  36.139  131.2  0.0195   59.4  0.7370  -41.7
 0.580  0.5901  -78.0  35.546  129.9  0.0200   58.8  0.7252  -42.7
 0.600  0.5867  -80.1  34.974  128.5  0.0204   58.2  0.7136  -43.8
 0.620  0.5812  -81.9  34.387  127.5  0.0208   57.7  0.7023  -44.6
 0.640  0.5763  -83.8  33.811  126.4  0.0211   57.2  0.6911  -45.5
 0.660  0.5721  -85.7  33.247  125.4  0.0215   56.7  0.6801  -46.4
 0.680  0.5685  -87.6  32.694  124.3  0.0218   56.2  0.6693  -47.3
 0.700  0.5655  -89.6  32.155  123.1  0.0222   55.8  0.6587  -48.3
 0.720  0.5610  -91.2  31.620  122.2  0.0225   55.4  0.6485  -49.0
 0.740  0.5569  -92.8  31.093  121.3  0.0228   55.0  0.6384  -49.7
 0.760  0.5533  -94.5  30.574  120.3  0.0232   54.7  0.6285  -50.5
 0.780  0.5502  -96.1  30.064  119.3  0.0235   54.3  0.6186  -51.3
 0.800  0.5475  -97.8  29.564  118.3  0.0238   54.0  0.6089  -52.1
 0.820  0.5438  -99.3  29.100  117.5  0.0241   53.7  0.6000  -52.7
 0.840  0.5405 -100.8  28.643  116.7  0.0244   53.4  0.5911  -53.4
 0.860  0.5376 -102.3  28.191  115.8  0.0246   53.1  0.5824  -54.1
 0.880  0.5351 -103.8  27.746  114.9  0.0249   52.9  0.5737  -54.8
 0.900  0.5329 -105.4  27.308  114.0  0.0252   52.6  0.5651  -55.5
 0.920  0.5298 -106.7  26.887  113.3  0.0254   52.4  0.5569  -56.1
 0.940  0.5270 -108.0  26.470  112.6  0.0257   52.2  0.5489  -56.7
 0.960  0.5245 -109.4  26.057  111.8  0.0259   52.0  0.5408  -57.4
 0.980  0.5222 -110.7  25.650  111.0  0.0262   51.8  0.5329  -58.0
 1.000  0.5203 -112.1  25.247  110.2  0.0264   51.6  0.5250  -58.7
 1.020  0.5182 -113.3  24.881  109.6  0.0266   51.5  0.5181  -59.2
 1.040  0.5163 -114.5  24.519  108.9  0.0269   51.3  0.5112  -59.7
 1.060  0.5146 -115.7  24.160  108.2  0.0271   51.2  0.5044  -60.2
 1.080  0.5131 -116.9  23.805  107.5  0.0274   51.0  0.4976  -60.8
 1.100  0.5119 -118.1  23.453  106.8  0.0276   50.9  0.4908  -61.3
 1.120  0.5101 -119.2  23.127  106.2  0.0278   50.8  0.4845  -61.8
 1.140  0.5084 -120.3  22.803  105.6  0.0280   50.7  0.4782  -62.4
 1.160  0.5070 -121.4  22.481  105.0  0.0282   50.6  0.4720  -62.9
 1.180  0.5057 -122.5  22.163  104.4  0.0284   50.5  0.4658  -63.5
 1.200  0.5046 -123.6  21.847  103.7  0.0286   50.4  0.4597  -64.1
 1.220  0.5034 -124.6  21.557  103.2  0.0288   50.3  0.4543  -64.5
 1.240  0.5023 -125.5  21.269  102.6  0.0290   50.3  0.4490  -65.0
 1.260  0.5014 -126.5  20.983  102.1  0.0293   50.2  0.4437  -65.4
 1.280  0.5006 -127.4  20.699  101.5  0.0295   50.2  0.4384  -65.9
 1.300  0.5000 -128.4  20.417  100.9  0.0297   50.1  0.4331  -66.4
 1.320  0.4988 -129.3  20.151  100.4  0.0299   50.1  0.4281  -66.9
 1.340  0.4977 -130.2  19.887   99.9  0.0301   50.0  0.4232  -67.3
 1.360  0.4967 -131.1  19.624   99.4  0.0303   50.0  0.4183  -67.8
 1.380  0.4958 -132.0  19.363   98.8  0.0305   49.9  0.4134  -68.3
 1.400  0.4951 -132.9  19.104   98.3  0.0307   49.9  0.4085  -68.8
 1.420  0.4941 -133.7  18.876   97.9  0.0309   49.9  0.4043  -69.2
 1.440  0.4932 -134.4  18.650   97.4  0.0311   49.9  0.4002  -69.6
 1.460  0.4924 -135.2  18.424   97.0  0.0313   49.9  0.3961  -70.0
 1.480  0.4916 -135.9  18.200   96.5  0.0315   49.9  0.3920  -70.5
 1.500  0.4910 -136.7  17.977   96.0  0.0317   49.9  0.3879  -70.9
 1.520  0.4907 -137.4  17.770   95.6  0.0319   49.9  0.3842  -71.3
 1.540  0.4906 -138.2  17.564   95.1  0.0321   49.9  0.3805  -71.8
 1.560  0.4905 -138.9  17.360   94.7  0.0323   49.9  0.3768  -72.2
 1.580  0.4904 -139.7  17.156   94.2  0.0325   49.9  0.3731  -72.6
 1.600  0.4905 -140.4  16.954   93.7  0.0327   49.9  0.3695  -73.1
 1.620  0.4896 -141.1  16.769   93.3  0.0329   49.9  0.3663  -73.5
 1.640  0.4888 -141.8  16.586   92.9  0.0331   49.9  0.3631  -73.8
 1.660  0.4881 -142.5  16.403   92.5  0.0333   50.0  0.3599  -74.2
 1.680  0.4874 -143.2  16.221   92.0  0.0335   50.0  0.3567  -74.6
 1.700  0.4868 -143.9  16.040   91.6  0.0337   50.0  0.3535  -75.0
 1.720  0.4865 -144.5  15.863   91.2  0.0339   50.0  0.3507  -75.4
 1.740  0.4863 -145.0  15.686   90.9  0.0341   50.1  0.3479  -75.7
 1.760  0.4862 -145.6  15.510   90.5  0.0344   50.1  0.3452  -76.1
 1.780  0.4861 -146.1  15.335   90.1  0.0346   50.2  0.3424  -76.5
 1.800  0.4860 -146.7  15.160   89.7  0.0348   50.2  0.3397  -76.9
 1.820  0.4857 -147.3  15.010   89.4  0.0350   50.2  0.3371  -77.3
 1.840  0.4854 -148.0  14.860   89.0  0.0352   50.2  0.3345  -77.8
 1.860  0.4852 -148.6  14.711   88.6  0.0354   50.3  0.3319  -78.2
 1.880  0.4851 -149.3  14.562   88.3  0.0356   50.3  0.3293  -78.6
 1.900  0.4850 -149.9  14.414   87.9  0.0358   50.3  0.3268  -79.1
 1.920  0.4846 -150.3  14.273   87.6  0.0360   50.3  0.3246  -79.4
 1.940  0.4842 -150.8  14.133   87.2  0.0362   50.4  0.3225  -79.7
 1.960  0.4839 -151.2  13.993   86.9  0.0365   50.4  0.3203  -80.0
 1.980  0.4836 -151.7  13.854   86.6  0.0367   50.5  0.3181  -80.4
 2.000  0.4833 -152.1  13.715   86.2  0.0369   50.5  0.3160  -80.7
 2.020  0.4829 -152.6  13.591   85.9  0.0371   50.5  0.3140  -81.1
 2.040  0.4826 -153.1  13.468   85.6  0.0373   50.5  0.3121  -81.5
 2.060  0.4823 -153.6  13.345   85.2  0.0375   50.5  0.3101  -81.8
 2.080  0.4820 -154.1  13.223   84.9  0.0377   50.5  0.3082  -82.2
 2.100  0.4818 -154.6  13.101   84.5  0.0379   50.6  0.3063  -82.6
 2.120  0.4816 -155.2  12.979   84.2  0.0381   50.6  0.3044  -83.0
 2.140  0.4814 -155.7  12.859   83.8  0.0383   50.6  0.3025  -83.4
 2.160  0.4813 -156.2  12.738   83.5  0.0385   50.6  0.3007  -83.9
 2.180  0.4812 -156.7  12.618   83.1  0.0387   50.6  0.2988  -84.3
 2.200  0.4812 -157.2  12.499   82.7  0.0389   50.6  0.2970  -84.7
 2.220  0.4810 -157.7  12.394   82.4  0.0391   50.6  0.2954  -85.1
 2.240  0.4808 -158.1  12.290   82.1  0.0393   50.7  0.2938  -85.4
 2.260  0.4806 -158.6  12.185   81.9  0.0396   50.7  0.2923  -85.8
 2.280  0.4805 -159.0  12.081   81.6  0.0398   50.7  0.2907  -86.2
 2.300  0.4804 -159.5  11.978   81.3  0.0400   50.8  0.2892  -86.6
 2.320  0.4803 -160.0  11.875   81.0  0.0402   50.8  0.2877  -87.0
 2.340  0.4803 -160.4  11.772   80.7  0.0404   50.8  0.2861  -87.4
 2.360  0.4803 -160.9  11.669   80.3  0.0407   50.8  0.2847  -87.8
 2.380  0.4803 -161.3  11.567   80.0  0.0409   50.9  0.2832  -88.2
 2.400  0.4804 -161.8  11.465   79.7  0.0411   50.9  0.2817  -88.6
 2.420  0.4805 -162.2  11.375   79.4  0.0413   50.9  0.2804  -89.0
 2.440  0.4806 -162.7  11.285   79.2  0.0415   50.9  0.2792  -89.4
 2.460  0.4807 -163.1  11.195   78.9  0.0418   50.9  0.2780  -89.8
 2.480  0.4808 -163.5  11.105   78.6  0.0420   50.9  0.2767  -90.2
 2.500  0.4810 -164.0  11.016   78.4  0.0422   51.0  0.2755  -90.6
 2.520  0.4812 -164.4  10.927   78.1  0.0424   51.0  0.2743  -91.0
 2.540  0.4814 -164.8  10.838   77.8  0.0426   51.0  0.2732  -91.4
 2.560  0.4817 -165.2  10.749   77.5  0.0429   51.0  0.2720  -91.9
 2.580  0.4820 -165.7  10.661   77.2  0.0431   51.0  0.2708  -92.3
 2.600  0.4823 -166.1  10.573   76.9  0.0433   51.0  0.2697  -92.7
 2.620  0.4823 -166.5  10.494   76.6  0.0435   51.0  0.2688  -93.1
 2.640  0.4823 -166.9  10.416   76.4  0.0437   51.0  0.2679  -93.5
 2.660  0.4823 -167.2  10.337   76.1  0.0440   51.0  0.2670  -93.8
 2.680  0.4824 -167.6  10.259   75.9  0.0442   51.0  0.2661  -94.2
 2.700  0.4824 -168.0  10.181   75.6  0.0444   51.1  0.2652  -94.6
 2.720  0.4825 -168.4  10.103   75.3  0.0446   51.1  0.2643  -95.0
 2.740  0.4826 -168.8  10.026   75.1  0.0448   51.1  0.2635  -95.4
 2.760  0.4828 -169.1   9.949   74.8  0.0451   51.1  0.2626  -95.8
 2.780  0.4829 -169.5   9.872   74.5  0.0453   51.1  0.2618  -96.2
 2.800  0.4831 -169.9   9.795   74.2  0.0455   51.1  0.2610  -96.6
 2.820  0.4834 -170.2   9.727   74.0  0.0457   51.1  0.2604  -96.9
 2.840  0.4836 -170.5   9.660   73.7  0.0460   51.1  0.2598  -97.2
 2.860  0.4839 -170.9   9.593   73.5  0.0462   51.1  0.2591  -97.6
 2.880  0.4842 -171.2   9.526   73.3  0.0464   51.1  0.2585  -97.9
 2.900  0.4846 -171.5   9.459   73.0  0.0466   51.2  0.2579  -98.2
 2.920  0.4849 -171.8   9.392   72.8  0.0469   51.2  0.2574  -98.6
 2.940  0.4853 -172.1   9.326   72.6  0.0471   51.2  0.2568  -98.9
 2.960  0.4856 -172.5   9.259   72.3  0.0473   51.2  0.2562  -99.2
 2.980  0.4860 -172.8   9.193   72.1  0.0476   51.2  0.2557  -99.6
 3.000  0.4864 -173.1   9.127   71.8  0.0478   51.2  0.2551  -99.9
 3.100  0.4866 -174.6   8.856   70.8  0.0490   51.2  0.2530 -101.1
 3.200  0.4871 -176.0   8.589   69.7  0.0501   51.2  0.2509 -102.4
 3.300  0.4880 -177.5   8.324   68.6  0.0513   51.2  0.2490 -103.7
 3.400  0.4891 -179.0   8.063   67.4  0.0524   51.2  0.2472 -105.0
 3.500  0.4906  179.6   7.806   66.1  0.0536   51.2  0.2456 -106.3
 3.600  0.4910  178.3   7.609   65.1  0.0549   51.1  0.2436 -107.2
 3.700  0.4916  177.1   7.415   64.1  0.0562   51.0  0.2416 -108.1
 3.800  0.4924  175.8   7.223   63.0  0.0575   50.9  0.2397 -109.0
 3.900  0.4935  174.6   7.033   61.9  0.0588   50.9  0.2378 -110.0
 4.000  0.4948  173.3   6.847   60.7  0.0601   50.8  0.2360 -110.9
 4.100  0.4964  172.1   6.688   59.7  0.0614   50.5  0.2337 -112.1
 4.200  0.4982  170.9   6.532   58.7  0.0627   50.3  0.2315 -113.4
 4.300  0.5003  169.7   6.378   57.6  0.0640   50.1  0.2294 -114.7
 4.400  0.5025  168.5   6.226   56.4  0.0653   49.8  0.2274 -116.0
 4.500  0.5050  167.3   6.077   55.2  0.0666   49.6  0.2255 -117.3
 4.600  0.5065  166.3   5.943   54.3  0.0678   49.3  0.2229 -118.5
 4.700  0.5081  165.3   5.810   53.3  0.0690   49.0  0.2204 -119.8
 4.800  0.5099  164.3   5.679   52.2  0.0702   48.7  0.2180 -121.1
 4.900  0.5118  163.3   5.551   51.1  0.0714   48.5  0.2158 -122.4
 5.000  0.5139  162.3   5.424   50.0  0.0726   48.2  0.2136 -123.7
 5.100  0.5122  161.5   5.316   49.2  0.0741   48.0  0.2116 -124.2
 5.200  0.5105  160.6   5.209   48.3  0.0756   47.9  0.2097 -124.8
 5.300  0.5090  159.7   5.103   47.5  0.0772   47.8  0.2078 -125.3
 5.400  0.5076  158.9   4.998   46.6  0.0787   47.6  0.2059 -125.9
 5.500  0.5063  158.0   4.895   45.6  0.0802   47.5  0.2040 -126.5
 5.600  0.5077  156.9   4.817   44.6  0.0816   46.9  0.2019 -127.9
 5.700  0.5092  155.8   4.741   43.7  0.0830   46.2  0.2000 -129.4
 5.800  0.5110  154.7   4.667   42.6  0.0844   45.6  0.1982 -130.9
 5.900  0.5129  153.6   4.594   41.6  0.0859   45.1  0.1965 -132.4
 6.000  0.5150  152.5   4.522   40.5  0.0873   44.5  0.1950 -134.0
 6.100  0.5161  151.2   4.448   39.5  0.0885   44.0  0.1924 -135.8
 6.200  0.5175  150.0   4.375   38.5  0.0897   43.4  0.1901 -137.6
 6.300  0.5192  148.7   4.303   37.4  0.0909   42.9  0.1879 -139.5
 6.400  0.5211  147.4   4.233   36.3  0.0922   42.4  0.1860 -141.4
 6.500  0.5232  146.2   4.165   35.2  0.0934   41.9  0.1842 -143.3
 6.600  0.5253  145.1   4.097   34.3  0.0945   41.5  0.1801 -144.9
 6.800  0.5302  142.8   3.965   32.3  0.0968   40.7  0.1723 -148.3
 7.000  0.5358  140.6   3.837   30.2  0.0991   40.0  0.1651 -152.0
 7.200  0.5405  138.7   3.717   28.4  0.1018   39.3  0.1546 -155.9
 7.400  0.5457  136.7   3.601   26.5  0.1046   38.6  0.1450 -160.3
 7.600  0.5540  135.0   3.496   24.5  0.1076   37.7  0.1379 -166.4
 7.800  0.5652  133.4   3.401   22.5  0.1108   36.6  0.1345 -174.0
 8.000  0.5768  131.8   3.310   20.4  0.1141   35.5  0.1336  178.1
 8.200  0.5866  130.2   3.206   18.4  0.1166   33.9  0.1396  169.0
 8.400  0.5969  128.6   3.105   16.2  0.1193   32.4  0.1488  160.9
 8.600  0.6054  127.1   3.008   14.2  0.1214   31.0  0.1597  153.0
 8.800  0.6122  125.6   2.911   12.4  0.1230   29.6  0.1726  145.5
 9.000  0.6194  124.2   2.817   10.5  0.1247   28.3  0.1880  139.1
 9.200  0.6278  122.8   2.736    9.3  0.1263   27.0  0.2070  133.7
 9.400  0.6365  121.5   2.656    8.0  0.1280   25.8  0.2275  129.2
 9.600  0.6491  119.8   2.583    6.4  0.1294   24.6  0.2518  125.7
 9.800  0.6659  117.9   2.519    4.6  0.1305   23.5  0.2794  122.9
10.000  0.6834  116.1   2.457    2.6  0.1317   22.4  0.3076  120.6
!
!  f       NFmin   Gammaopt  rn/50
! GHz       dB    MAG  ANG    -
 0.450      0.88  0.04 -159   0.09
 2.400      0.91  0.10 -167   0.09
 5.500      1.14  0.24 -175   0.08
10.000      1.67  0.43 -111   0.25
!
! (c) 2016  Infineon Technologies AG, Munich
