! Infineon Technologies  Discrete & RF Semiconductors
! BFP640F
! VCE =  3.0 V,  IC =  10 mA
! Common Emitter S-Parameters:                            Apr 2013
# GHz  S  MA  R  50
!  f         S11            S21            S12            S22
! GHz     MAG   ANG      MAG   ANG      MAG   ANG      MAG   ANG
 0.030  0.8507   -2.6  26.770  177.2  0.0015   84.7  0.9947   -1.5
 0.040  0.8501   -3.6  26.762  176.4  0.0022   71.9  0.9944   -2.1
 0.050  0.8489   -4.5  27.096  175.7  0.0034   78.1  0.9970   -2.7
 0.060  0.8460   -5.4  26.959  174.5  0.0031   87.9  0.9931   -3.2
 0.070  0.8451   -6.3  26.986  173.8  0.0039   79.5  0.9928   -3.8
 0.080  0.8427   -7.3  26.949  172.9  0.0048   78.4  0.9925   -4.4
 0.090  0.8441   -8.2  26.848  172.1  0.0053   86.9  0.9913   -5.0
 0.100  0.8428   -9.0  26.766  171.3  0.0059   83.3  0.9894   -5.6
 0.110  0.8416   -9.9  26.736  170.5  0.0054   82.2  0.9896   -6.1
 0.120  0.8394  -10.9  26.688  169.6  0.0061   85.6  0.9870   -6.8
 0.130  0.8373  -11.7  26.586  168.8  0.0071   88.7  0.9847   -7.3
 0.140  0.8366  -12.6  26.515  168.0  0.0076   80.6  0.9839   -7.8
 0.150  0.8356  -13.6  26.461  167.2  0.0077   85.0  0.9812   -8.4
 0.200  0.8254  -17.9  25.982  163.2  0.0103   83.5  0.9708  -11.2
 0.250  0.8111  -22.2  25.537  159.3  0.0133   80.2  0.9553  -13.8
 0.300  0.7966  -26.4  25.001  155.6  0.0156   78.5  0.9384  -16.3
 0.350  0.7779  -30.5  24.452  151.9  0.0178   76.3  0.9197  -18.8
 0.400  0.7587  -34.6  23.872  148.4  0.0201   74.8  0.8974  -21.0
 0.450  0.7388  -38.4  23.204  145.0  0.0224   73.7  0.8771  -23.2
 0.500  0.7193  -42.1  22.499  141.9  0.0242   72.4  0.8526  -25.2
 0.600  0.6746  -49.4  21.213  135.9  0.0281   69.7  0.8063  -28.8
 0.700  0.6313  -56.0  19.886  130.5  0.0312   67.1  0.7594  -31.9
 0.800  0.5862  -62.4  18.653  125.5  0.0346   65.6  0.7156  -34.5
 0.900  0.5473  -68.1  17.438  121.2  0.0375   64.0  0.6723  -36.7
 1.000  0.5121  -73.3  16.275  117.5  0.0401   62.7  0.6338  -38.4
 1.100  0.4765  -78.4  15.278  113.9  0.0427   61.8  0.5987  -39.8
 1.200  0.4479  -83.0  14.312  110.8  0.0450   61.0  0.5667  -41.0
 1.300  0.4203  -87.4  13.452  108.0  0.0474   60.0  0.5378  -41.9
 1.400  0.3971  -91.7  12.682  105.4  0.0496   59.8  0.5119  -42.7
 1.500  0.3747  -95.7  11.985  103.1  0.0515   59.4  0.4885  -43.2
 1.600  0.3544  -99.9  11.375  100.8  0.0540   58.7  0.4688  -43.9
 1.700  0.3379 -103.7  10.794   98.8  0.0560   58.8  0.4486  -44.2
 1.800  0.3227 -107.4  10.264   96.9  0.0583   58.2  0.4331  -44.7
 1.900  0.3086 -111.2   9.798   95.1  0.0605   58.1  0.4171  -45.0
 2.000  0.2975 -114.7   9.363   93.4  0.0624   57.9  0.4042  -45.5
 2.100  0.2891 -118.7   8.961   91.7  0.0648   57.5  0.3903  -46.3
 2.200  0.2803 -121.9   8.586   90.2  0.0666   57.4  0.3791  -46.6
 2.300  0.2707 -125.2   8.239   88.6  0.0687   57.0  0.3691  -46.8
 2.400  0.2629 -128.2   7.919   87.2  0.0709   56.8  0.3606  -47.1
 2.500  0.2541 -131.5   7.632   85.8  0.0731   56.7  0.3533  -47.4
 2.600  0.2483 -134.5   7.354   84.5  0.0751   56.5  0.3461  -47.6
 2.700  0.2421 -137.4   7.099   83.2  0.0773   56.2  0.3401  -47.8
 2.800  0.2365 -140.2   6.857   82.0  0.0793   56.0  0.3339  -48.0
 2.900  0.2319 -142.9   6.636   80.8  0.0815   55.9  0.3298  -48.3
 3.000  0.2266 -145.7   6.432   79.6  0.0836   55.5  0.3248  -48.7
 3.100  0.2223 -148.3   6.232   78.4  0.0858   55.3  0.3215  -48.9
 3.200  0.2179 -150.9   6.046   77.3  0.0879   55.0  0.3178  -49.2
 3.300  0.2151 -153.2   5.875   76.2  0.0900   54.8  0.3159  -49.5
 3.400  0.2112 -156.1   5.713   75.1  0.0923   54.5  0.3130  -49.8
 3.500  0.2087 -158.2   5.557   74.0  0.0946   54.1  0.3112  -50.0
 3.600  0.2058 -160.7   5.412   73.0  0.0965   53.9  0.3092  -50.2
 3.700  0.2037 -162.6   5.269   72.0  0.0988   53.6  0.3071  -50.4
 3.800  0.2015 -165.2   5.144   71.0  0.1011   53.4  0.3050  -50.6
 3.900  0.1998 -167.4   5.022   69.9  0.1031   53.0  0.3040  -50.9
 4.000  0.1987 -169.6   4.899   68.9  0.1054   52.8  0.3017  -51.1
 4.100  0.1975 -171.5   4.788   68.0  0.1075   52.4  0.2998  -51.3
 4.200  0.1977 -173.7   4.678   67.0  0.1097   52.0  0.2973  -51.5
 4.300  0.1969 -175.7   4.580   66.0  0.1119   51.7  0.2953  -51.7
 4.400  0.1979 -177.9   4.482   65.1  0.1143   51.3  0.2934  -52.0
 4.500  0.1971 -179.7   4.393   64.1  0.1163   50.9  0.2919  -52.1
 4.600  0.1988  178.3   4.303   63.2  0.1187   50.6  0.2895  -52.3
 4.700  0.1991  176.5   4.216   62.3  0.1209   50.3  0.2869  -52.4
 4.800  0.2006  174.4   4.137   61.3  0.1231   49.9  0.2844  -52.7
 4.900  0.2011  172.7   4.059   60.4  0.1253   49.4  0.2822  -52.8
 5.000  0.2023  170.8   3.984   59.4  0.1276   49.0  0.2800  -53.0
 5.100  0.2036  169.3   3.910   58.5  0.1298   48.7  0.2778  -53.1
 5.200  0.2044  167.5   3.842   57.6  0.1321   48.3  0.2754  -53.1
 5.300  0.2055  165.9   3.774   56.7  0.1343   47.9  0.2733  -53.4
 5.400  0.2068  164.1   3.711   55.8  0.1366   47.4  0.2720  -53.5
 5.500  0.2083  162.6   3.648   54.8  0.1387   47.0  0.2695  -53.7
 5.600  0.2093  161.1   3.589   53.9  0.1409   46.5  0.2679  -53.7
 5.700  0.2104  159.7   3.527   53.0  0.1433   46.1  0.2651  -53.8
 5.800  0.2113  158.0   3.474   52.1  0.1453   45.7  0.2640  -54.0
 5.900  0.2126  156.6   3.416   51.2  0.1476   45.2  0.2618  -54.0
 6.000  0.2127  154.8   3.368   50.2  0.1497   44.7  0.2604  -54.1
 6.100  0.2154  153.4   3.313   49.4  0.1519   44.2  0.2578  -54.1
 6.200  0.2148  151.8   3.262   48.5  0.1541   43.7  0.2567  -54.3
 6.300  0.2173  150.0   3.211   47.5  0.1562   43.3  0.2545  -54.3
 6.400  0.2175  148.7   3.164   46.7  0.1583   42.7  0.2522  -54.4
 6.500  0.2191  146.6   3.115   45.8  0.1604   42.3  0.2498  -54.3
 6.600  0.2206  145.1   3.068   44.8  0.1625   41.9  0.2470  -54.3
 6.700  0.2221  143.3   3.023   44.0  0.1646   41.4  0.2452  -54.2
 6.800  0.2239  141.6   2.979   43.1  0.1666   40.9  0.2429  -54.1
 6.900  0.2264  139.9   2.936   42.3  0.1689   40.5  0.2405  -53.8
 7.000  0.2277  138.2   2.895   41.4  0.1708   40.1  0.2377  -53.6
 7.100  0.2313  136.7   2.852   40.6  0.1731   39.7  0.2341  -53.3
 7.200  0.2338  135.2   2.814   39.9  0.1753   39.3  0.2310  -53.2
 7.300  0.2380  133.8   2.776   39.0  0.1775   38.8  0.2278  -52.9
 7.400  0.2409  132.4   2.741   38.2  0.1795   38.4  0.2244  -52.7
 7.500  0.2467  131.3   2.704   37.5  0.1819   37.9  0.2193  -52.4
 7.600  0.2513  130.1   2.674   36.7  0.1842   37.4  0.2146  -52.2
 7.700  0.2582  129.2   2.641   35.9  0.1868   36.9  0.2088  -51.7
 7.800  0.2647  128.1   2.609   35.1  0.1890   36.4  0.2023  -51.3
 7.900  0.2720  127.2   2.580   34.3  0.1913   35.9  0.1960  -50.8
 8.000  0.2794  126.4   2.550   33.5  0.1935   35.3  0.1882  -50.2
 8.500  0.3245  123.0   2.412   29.5  0.2042   32.6  0.1466  -44.2
 9.000  0.3700  120.1   2.286   25.5  0.2144   30.0  0.1043  -29.7
 9.500  0.4112  117.1   2.175   21.7  0.2248   27.4  0.0767   -1.6
10.000  0.4484  114.1   2.076   17.7  0.2357   24.7  0.0749   40.4
!
!  f       NFmin   Gammaopt  rn/50
! GHz       dB    MAG  ANG    -
 0.450      0.63  0.20    7   0.06
 0.900      0.63  0.19   19   0.06
 1.500      0.65  0.18   28   0.07
 1.900      0.67  0.17   43   0.08
 2.400      0.70  0.15   55   0.08
 3.500      0.79  0.12   85   0.10
 5.500      0.99  0.13 -177   0.13
10.000      1.54  0.40  -98   0.34
!
! (c) 2013  Infineon Technologies AG, Munich
