! Infineon Technologies  Discrete & RF Semiconductors
! BFP650
! VCE =  2.5 V,  IC =  90 mA
! Common Emitter S-Parameters:                            Jan 2016
# GHz  S  MA  R  50
!  f         S11            S21            S12            S22
! GHz     MAG   ANG      MAG   ANG      MAG   ANG      MAG   ANG
 0.030  0.2197  -54.2 115.329  166.2  0.0043   88.6  0.9332  -15.6
 0.035  0.2312  -61.5 114.522  163.8  0.0047   88.7  0.9294  -18.9
 0.040  0.2461  -68.0 113.916  161.4  0.0052   88.8  0.9286  -22.2
 0.045  0.2584  -74.4 111.977  159.1  0.0050   84.6  0.9167  -25.4
 0.050  0.2737  -80.2 110.226  156.7  0.0048   80.1  0.9077  -28.7
 0.055  0.2889  -83.6 109.169  154.8  0.0054   83.1  0.9008  -31.4
 0.060  0.3050  -86.7 108.232  152.9  0.0061   85.4  0.8960  -34.2
 0.065  0.3153  -91.7 106.168  150.9  0.0060   76.5  0.8747  -37.1
 0.070  0.3279  -96.4 104.239  148.8  0.0061   67.6  0.8558  -40.1
 0.075  0.3390  -98.7 102.387  146.9  0.0061   71.9  0.8468  -42.4
 0.080  0.3506 -100.9 100.647  145.0  0.0062   76.1  0.8392  -44.8
 0.085  0.3622 -104.3  98.621  143.5  0.0070   69.5  0.8209  -47.3
 0.090  0.3751 -107.5  96.667  141.9  0.0079   64.4  0.8043  -49.9
 0.095  0.3804 -110.8  94.821  140.2  0.0086   57.5  0.7881  -52.1
 0.100  0.3869 -114.0  93.058  138.5  0.0095   51.8  0.7731  -54.3
 0.105  0.4001 -115.6  91.102  137.0  0.0092   59.1  0.7670  -56.8
 0.110  0.4136 -117.1  89.209  135.5  0.0090   66.8  0.7624  -59.3
 0.115  0.4191 -118.9  87.185  134.2  0.0091   64.4  0.7481  -61.3
 0.120  0.4250 -120.7  85.210  132.8  0.0092   62.0  0.7348  -63.3
 0.125  0.4326 -122.6  83.461  131.5  0.0093   61.1  0.7226  -65.2
 0.130  0.4406 -124.4  81.754  130.2  0.0095   60.2  0.7113  -67.2
 0.135  0.4471 -125.9  80.133  129.1  0.0099   59.2  0.6986  -68.7
 0.140  0.4540 -127.4  78.542  128.0  0.0104   58.3  0.6865  -70.3
 0.145  0.4595 -128.9  76.911  127.0  0.0105   59.9  0.6757  -72.1
 0.150  0.4652 -130.3  75.306  125.9  0.0107   61.5  0.6656  -73.9
 0.155  0.4682 -131.5  73.892  125.1  0.0108   61.2  0.6553  -75.2
 0.160  0.4715 -132.7  72.492  124.4  0.0109   61.0  0.6454  -76.6
 0.165  0.4749 -133.9  71.105  123.6  0.0110   60.7  0.6358  -78.0
 0.170  0.4786 -135.1  69.733  122.7  0.0111   60.5  0.6267  -79.4
 0.175  0.4824 -136.3  68.377  121.8  0.0112   60.2  0.6179  -80.9
 0.180  0.4865 -137.4  67.038  120.9  0.0113   60.0  0.6096  -82.5
 0.185  0.4907 -138.5  65.716  120.0  0.0114   59.8  0.6017  -84.0
 0.190  0.4951 -139.7  64.412  119.0  0.0115   59.5  0.5943  -85.7
 0.195  0.4997 -140.7  63.129  118.0  0.0116   59.3  0.5874  -87.3
 0.200  0.5045 -141.8  61.867  116.9  0.0117   59.1  0.5810  -89.0
 0.220  0.5135 -145.1  57.764  114.6  0.0126   57.7  0.5542  -93.4
 0.240  0.5241 -148.2  53.768  112.0  0.0135   56.5  0.5310  -98.2
 0.260  0.5327 -150.9  50.279  109.7  0.0141   56.8  0.5116 -102.5
 0.280  0.5388 -153.2  47.237  107.9  0.0146   58.5  0.4946 -106.3
 0.300  0.5458 -155.4  44.246  105.9  0.0150   60.1  0.4799 -110.4
 0.320  0.5501 -157.2  41.879  104.5  0.0155   58.8  0.4673 -113.5
 0.340  0.5550 -158.9  39.539  102.9  0.0160   57.7  0.4560 -116.7
 0.360  0.5588 -160.6  37.471  101.6  0.0167   57.8  0.4458 -119.7
 0.380  0.5616 -162.1  35.663  100.4  0.0175   59.1  0.4361 -122.5
 0.400  0.5647 -163.6  33.871   99.1  0.0183   60.3  0.4274 -125.3
 0.420  0.5671 -164.8  32.421   98.1  0.0189   60.3  0.4204 -127.6
 0.440  0.5698 -166.0  30.981   97.1  0.0194   60.4  0.4142 -130.0
 0.450  0.5712 -166.6  30.265   96.5  0.0197   60.4  0.4113 -131.2
 0.460  0.5718 -167.1  29.670   96.1  0.0199   60.6  0.4087 -132.3
 0.480  0.5731 -168.2  28.484   95.2  0.0204   60.9  0.4040 -134.4
 0.500  0.5746 -169.3  27.305   94.3  0.0209   61.2  0.3999 -136.6
 0.520  0.5761 -170.2  26.390   93.7  0.0215   61.4  0.3961 -138.3
 0.540  0.5776 -171.0  25.477   93.0  0.0222   61.5  0.3926 -140.0
 0.560  0.5794 -171.9  24.569   92.3  0.0228   61.7  0.3895 -141.8
 0.580  0.5812 -172.8  23.665   91.5  0.0235   61.9  0.3868 -143.6
 0.600  0.5832 -173.6  22.765   90.7  0.0241   62.0  0.3845 -145.4
 0.620  0.5840 -174.3  22.105   90.2  0.0247   61.8  0.3823 -146.8
 0.640  0.5848 -175.0  21.447   89.6  0.0253   61.6  0.3804 -148.3
 0.660  0.5858 -175.8  20.791   89.1  0.0259   61.4  0.3788 -149.7
 0.680  0.5869 -176.5  20.137   88.5  0.0265   61.3  0.3774 -151.2
 0.700  0.5880 -177.2  19.486   87.8  0.0271   61.1  0.3762 -152.7
 0.720  0.5889 -177.8  18.996   87.4  0.0277   61.3  0.3748 -153.9
 0.740  0.5899 -178.4  18.506   86.9  0.0283   61.4  0.3736 -155.1
 0.760  0.5910 -179.1  18.018   86.4  0.0290   61.5  0.3726 -156.3
 0.780  0.5921 -179.7  17.532   85.9  0.0296   61.7  0.3717 -157.5
 0.800  0.5933  179.7  17.047   85.3  0.0302   61.8  0.3710 -158.7
 0.820  0.5939  179.2  16.659   84.9  0.0308   61.7  0.3700 -159.7
 0.840  0.5945  178.6  16.273   84.5  0.0314   61.7  0.3692 -160.8
 0.860  0.5951  178.1  15.887   84.0  0.0320   61.6  0.3685 -161.8
 0.880  0.5958  177.5  15.502   83.6  0.0326   61.6  0.3679 -162.9
 0.900  0.5966  177.0  15.118   83.1  0.0332   61.5  0.3674 -163.9
 0.920  0.5974  176.5  14.813   82.7  0.0339   61.6  0.3669 -164.8
 0.940  0.5982  176.0  14.509   82.3  0.0346   61.6  0.3666 -165.7
 0.960  0.5991  175.4  14.205   81.9  0.0353   61.7  0.3663 -166.5
 0.980  0.6000  174.9  13.903   81.5  0.0360   61.7  0.3661 -167.4
 1.000  0.6010  174.4  13.601   81.0  0.0367   61.8  0.3660 -168.3
 1.020  0.6015  173.9  13.351   80.7  0.0371   61.6  0.3660 -169.1
 1.040  0.6021  173.5  13.101   80.3  0.0376   61.4  0.3662 -170.0
 1.060  0.6027  173.0  12.852   80.0  0.0380   61.2  0.3664 -170.8
 1.080  0.6033  172.6  12.603   79.6  0.0385   61.0  0.3666 -171.7
 1.100  0.6040  172.1  12.355   79.2  0.0389   60.8  0.3670 -172.5
 1.120  0.6046  171.7  12.148   78.8  0.0397   60.7  0.3670 -173.2
 1.140  0.6053  171.2  11.941   78.4  0.0404   60.7  0.3670 -173.9
 1.160  0.6060  170.8  11.735   78.0  0.0412   60.6  0.3670 -174.6
 1.180  0.6067  170.3  11.530   77.6  0.0419   60.6  0.3671 -175.3
 1.200  0.6075  169.9  11.325   77.2  0.0427   60.5  0.3673 -176.0
 1.220  0.6080  169.5  11.147   76.9  0.0432   60.3  0.3674 -176.7
 1.240  0.6085  169.1  10.969   76.6  0.0438   60.1  0.3675 -177.3
 1.260  0.6090  168.7  10.791   76.2  0.0443   59.9  0.3677 -178.0
 1.280  0.6096  168.3  10.614   75.9  0.0449   59.8  0.3679 -178.6
 1.300  0.6102  167.9  10.437   75.5  0.0454   59.6  0.3682 -179.3
 1.320  0.6108  167.5  10.288   75.2  0.0460   59.4  0.3684 -179.9
 1.340  0.6114  167.1  10.140   74.8  0.0466   59.2  0.3686  179.5
 1.360  0.6121  166.6   9.992   74.5  0.0473   59.0  0.3689  178.8
 1.380  0.6128  166.2   9.845   74.1  0.0479   58.9  0.3692  178.2
 1.400  0.6135  165.8   9.698   73.7  0.0485   58.7  0.3695  177.6
 1.420  0.6142  165.4   9.567   73.4  0.0491   58.6  0.3699  177.1
 1.440  0.6148  165.1   9.437   73.0  0.0497   58.5  0.3703  176.6
 1.460  0.6155  164.7   9.307   72.7  0.0504   58.4  0.3708  176.0
 1.480  0.6163  164.4   9.178   72.3  0.0510   58.3  0.3713  175.5
 1.500  0.6170  164.0   9.049   71.9  0.0516   58.2  0.3718  175.0
 1.520  0.6175  163.6   8.934   71.6  0.0522   58.0  0.3720  174.5
 1.540  0.6180  163.2   8.819   71.3  0.0527   57.8  0.3722  173.9
 1.560  0.6185  162.9   8.705   71.0  0.0533   57.6  0.3724  173.4
 1.580  0.6190  162.5   8.591   70.6  0.0538   57.5  0.3727  172.8
 1.600  0.6196  162.1   8.477   70.3  0.0544   57.3  0.3730  172.3
 1.620  0.6201  161.7   8.375   70.0  0.0551   57.2  0.3734  171.8
 1.640  0.6206  161.3   8.273   69.7  0.0557   57.1  0.3737  171.3
 1.660  0.6211  160.9   8.172   69.4  0.0564   56.9  0.3742  170.7
 1.680  0.6217  160.5   8.071   69.0  0.0570   56.8  0.3746  170.2
 1.700  0.6223  160.1   7.970   68.7  0.0577   56.7  0.3751  169.7
 1.720  0.6230  159.7   7.880   68.4  0.0582   56.5  0.3756  169.2
 1.740  0.6237  159.4   7.789   68.0  0.0587   56.3  0.3761  168.7
 1.760  0.6245  159.0   7.700   67.6  0.0592   56.1  0.3767  168.3
 1.780  0.6253  158.7   7.610   67.3  0.0597   55.9  0.3773  167.8
 1.800  0.6261  158.3   7.521   66.9  0.0602   55.7  0.3779  167.3
 1.820  0.6263  157.9   7.437   66.6  0.0608   55.6  0.3782  166.9
 1.840  0.6266  157.6   7.354   66.3  0.0614   55.4  0.3786  166.5
 1.860  0.6269  157.2   7.271   66.0  0.0619   55.3  0.3789  166.0
 1.880  0.6272  156.9   7.188   65.6  0.0625   55.1  0.3793  165.6
 1.900  0.6275  156.5   7.105   65.3  0.0631   55.0  0.3797  165.2
 1.920  0.6281  156.1   7.032   65.0  0.0637   54.8  0.3800  164.7
 1.940  0.6286  155.8   6.959   64.7  0.0643   54.5  0.3804  164.3
 1.960  0.6292  155.4   6.887   64.4  0.0650   54.3  0.3808  163.8
 1.980  0.6299  155.1   6.814   64.0  0.0656   54.1  0.3812  163.4
 2.000  0.6305  154.7   6.742   63.7  0.0662   53.9  0.3816  162.9
 2.020  0.6311  154.4   6.679   63.4  0.0668   53.7  0.3820  162.5
 2.040  0.6317  154.1   6.615   63.2  0.0674   53.4  0.3824  162.1
 2.060  0.6324  153.8   6.552   62.9  0.0679   53.2  0.3828  161.6
 2.080  0.6330  153.5   6.489   62.6  0.0685   53.0  0.3833  161.2
 2.100  0.6337  153.1   6.426   62.3  0.0691   52.8  0.3837  160.8
 2.120  0.6344  152.8   6.364   62.0  0.0697   52.5  0.3842  160.4
 2.140  0.6351  152.5   6.301   61.7  0.0702   52.3  0.3847  159.9
 2.160  0.6359  152.2   6.239   61.4  0.0708   52.1  0.3853  159.5
 2.180  0.6366  151.9   6.177   61.1  0.0714   51.9  0.3858  159.1
 2.200  0.6374  151.6   6.115   60.8  0.0720   51.7  0.3864  158.7
 2.220  0.6378  151.3   6.061   60.5  0.0726   51.4  0.3870  158.3
 2.240  0.6382  150.9   6.008   60.2  0.0731   51.2  0.3876  157.9
 2.260  0.6386  150.6   5.955   59.9  0.0737   50.9  0.3883  157.5
 2.280  0.6390  150.3   5.902   59.6  0.0742   50.7  0.3890  157.0
 2.300  0.6395  149.9   5.849   59.3  0.0748   50.4  0.3897  156.6
 2.320  0.6400  149.6   5.796   58.9  0.0753   50.2  0.3904  156.2
 2.340  0.6405  149.3   5.743   58.6  0.0759   49.9  0.3911  155.8
 2.360  0.6410  149.0   5.691   58.3  0.0765   49.7  0.3918  155.4
 2.380  0.6415  148.6   5.639   57.9  0.0770   49.4  0.3926  155.0
 2.400  0.6421  148.3   5.587   57.6  0.0776   49.2  0.3934  154.6
 2.420  0.6427  148.0   5.542   57.3  0.0781   49.0  0.3940  154.2
 2.440  0.6433  147.7   5.496   57.0  0.0785   48.8  0.3947  153.8
 2.460  0.6439  147.3   5.451   56.7  0.0790   48.7  0.3954  153.4
 2.480  0.6445  147.0   5.406   56.4  0.0794   48.5  0.3961  153.1
 2.500  0.6451  146.7   5.361   56.1  0.0799   48.3  0.3968  152.7
 2.520  0.6458  146.4   5.316   55.8  0.0804   48.2  0.3975  152.3
 2.540  0.6465  146.1   5.272   55.5  0.0808   48.0  0.3983  151.9
 2.560  0.6472  145.7   5.227   55.2  0.0813   47.8  0.3990  151.5
 2.580  0.6479  145.4   5.183   54.8  0.0817   47.7  0.3998  151.2
 2.600  0.6487  145.1   5.139   54.5  0.0822   47.5  0.4006  150.8
 2.620  0.6492  144.8   5.100   54.2  0.0827   47.3  0.4012  150.4
 2.640  0.6497  144.5   5.060   53.9  0.0832   47.0  0.4019  150.0
 2.660  0.6502  144.2   5.021   53.6  0.0837   46.8  0.4026  149.6
 2.680  0.6507  143.9   4.982   53.4  0.0843   46.6  0.4033  149.3
 2.700  0.6513  143.6   4.943   53.1  0.0848   46.4  0.4040  148.9
 2.720  0.6518  143.3   4.905   52.8  0.0853   46.1  0.4047  148.5
 2.740  0.6524  143.0   4.866   52.5  0.0858   45.9  0.4055  148.1
 2.760  0.6530  142.7   4.827   52.1  0.0864   45.7  0.4062  147.7
 2.780  0.6537  142.4   4.789   51.8  0.0869   45.5  0.4070  147.4
 2.800  0.6543  142.1   4.751   51.5  0.0874   45.3  0.4078  147.0
 2.820  0.6549  141.8   4.717   51.2  0.0880   45.1  0.4086  146.7
 2.840  0.6555  141.5   4.684   50.9  0.0885   44.8  0.4094  146.3
 2.860  0.6561  141.2   4.650   50.6  0.0891   44.6  0.4102  146.0
 2.880  0.6568  140.9   4.617   50.4  0.0897   44.4  0.4110  145.7
 2.900  0.6574  140.6   4.583   50.1  0.0903   44.2  0.4118  145.3
 2.920  0.6581  140.3   4.550   49.8  0.0909   43.9  0.4127  145.0
 2.940  0.6588  140.0   4.517   49.4  0.0914   43.7  0.4135  144.7
 2.960  0.6595  139.7   4.484   49.1  0.0920   43.5  0.4144  144.3
 2.980  0.6602  139.4   4.452   48.8  0.0926   43.3  0.4153  144.0
 3.000  0.6610  139.1   4.419   48.5  0.0932   43.1  0.4162  143.7
 3.100  0.6638  137.6   4.278   47.2  0.0955   41.8  0.4204  142.1
 3.200  0.6671  136.1   4.139   45.8  0.0978   40.7  0.4249  140.6
 3.300  0.6708  134.6   4.002   44.4  0.1001   39.5  0.4297  139.1
 3.400  0.6750  133.1   3.869   42.8  0.1025   38.4  0.4348  137.6
 3.500  0.6796  131.7   3.738   41.1  0.1049   37.4  0.4402  136.2
 3.600  0.6835  130.2   3.628   39.8  0.1067   36.2  0.4455  134.8
 3.700  0.6878  128.8   3.520   38.4  0.1086   35.0  0.4510  133.4
 3.800  0.6926  127.4   3.414   37.0  0.1106   33.8  0.4567  132.1
 3.900  0.6978  126.0   3.310   35.4  0.1126   32.7  0.4628  130.8
 4.000  0.7034  124.6   3.209   33.8  0.1146   31.6  0.4690  129.5
 4.100  0.7071  123.4   3.122   32.6  0.1164   30.5  0.4738  128.3
 4.200  0.7112  122.2   3.036   31.3  0.1183   29.4  0.4788  127.1
 4.300  0.7155  121.0   2.952   30.0  0.1202   28.4  0.4840  126.0
 4.400  0.7202  119.9   2.870   28.6  0.1222   27.4  0.4893  124.9
 4.500  0.7251  118.7   2.789   27.1  0.1242   26.4  0.4949  123.8
 4.600  0.7275  117.6   2.722   26.0  0.1259   25.4  0.4983  122.7
 4.700  0.7301  116.5   2.655   24.8  0.1276   24.4  0.5019  121.6
 4.800  0.7330  115.4   2.590   23.6  0.1293   23.5  0.5056  120.5
 4.900  0.7362  114.4   2.527   22.3  0.1311   22.6  0.5096  119.4
 5.000  0.7396  113.3   2.464   21.0  0.1329   21.7  0.5137  118.3
 5.100  0.7406  112.3   2.411   19.9  0.1346   20.7  0.5159  117.1
 5.200  0.7418  111.2   2.359   18.8  0.1364   19.7  0.5183  115.9
 5.300  0.7433  110.2   2.307   17.6  0.1382   18.8  0.5209  114.7
 5.400  0.7450  109.2   2.257   16.3  0.1400   17.9  0.5238  113.5
 5.500  0.7469  108.2   2.208   15.0  0.1419   17.0  0.5269  112.3
 5.600  0.7474  107.3   2.165   13.9  0.1436   16.0  0.5294  111.1
 5.700  0.7482  106.4   2.123   12.8  0.1453   15.0  0.5321  109.8
 5.800  0.7491  105.6   2.081   11.6  0.1471   14.1  0.5351  108.6
 5.900  0.7501  104.7   2.041   10.4  0.1489   13.1  0.5383  107.4
 6.000  0.7514  103.8   2.001    9.1  0.1507   12.2  0.5417  106.2
 6.100  0.7538  102.9   1.968    8.0  0.1524   11.1  0.5446  105.2
 6.200  0.7564  102.1   1.936    6.8  0.1542   10.0  0.5478  104.2
 6.300  0.7592  101.2   1.905    5.6  0.1560    8.9  0.5510  103.2
 6.400  0.7621  100.3   1.875    4.3  0.1579    7.9  0.5545  102.2
 6.500  0.7652   99.5   1.846    3.0  0.1598    6.9  0.5581  101.2
 6.600  0.7676   98.4   1.816    1.8  0.1612    5.7  0.5610  100.3
 6.800  0.7731   96.4   1.758   -0.8  0.1643    3.4  0.5672   98.6
 7.000  0.7796   94.3   1.704   -3.6  0.1676    1.2  0.5739   96.9
 7.200  0.7842   92.0   1.644   -6.2  0.1695   -1.2  0.5806   94.8
 7.400  0.7902   89.6   1.588   -9.0  0.1717   -3.5  0.5882   92.7
 7.600  0.7957   87.2   1.533  -11.7  0.1733   -5.8  0.5960   90.4
 7.800  0.8010   84.7   1.476  -14.3  0.1744   -8.1  0.6044   87.8
 8.000  0.8078   82.2   1.423  -17.0  0.1758  -10.4  0.6140   85.3
 8.200  0.8129   79.6   1.368  -19.3  0.1760  -12.5  0.6237   82.8
 8.400  0.8197   77.1   1.316  -21.9  0.1764  -14.6  0.6346   80.4
 8.600  0.8262   74.6   1.266  -24.2  0.1765  -16.6  0.6458   78.0
 8.800  0.8323   72.4   1.217  -26.3  0.1764  -18.6  0.6574   75.7
 9.000  0.8396   70.1   1.170  -28.6  0.1764  -20.6  0.6701   73.5
 9.200  0.8468   68.3   1.124  -30.4  0.1754  -22.2  0.6819   71.4
 9.400  0.8547   66.6   1.078  -32.3  0.1746  -23.8  0.6946   69.4
 9.600  0.8629   65.1   1.038  -33.9  0.1737  -25.1  0.7062   67.9
 9.800  0.8710   63.9   1.002  -35.2  0.1726  -26.1  0.7161   66.8
10.000  0.8795   62.8   0.966  -36.6  0.1716  -27.1  0.7262   65.8
!
!  f       NFmin   Gammaopt  rn/50
! GHz       dB    MAG  ANG    -
 0.450      1.34  0.53 -171   0.06
 0.900      1.36  0.54 -165   0.07
 1.900      1.50  0.57 -150   0.09
 2.400      1.59  0.56 -141   0.12
 3.500      1.78  0.56 -118   0.22
!
! (c) 2016  Infineon Technologies AG, Munich
