! Infineon Technologies  Discrete & RF Semiconductors
! BFP640
! VCE =  3.0 V,  IC =  15 mA
! Common Emitter S-Parameters:                            Apr 2013
# GHz  S  MA  R  50
!  f         S11            S21            S12            S22
! GHz     MAG   ANG      MAG   ANG      MAG   ANG      MAG   ANG
 0.030  0.7872   -3.3  36.771  176.1  0.0017   88.4  0.9912   -1.8
 0.040  0.7870   -4.6  36.705  175.2  0.0021   85.9  0.9924   -2.6
 0.050  0.7854   -5.9  36.911  174.5  0.0018   79.7  0.9900   -3.5
 0.060  0.7825   -7.0  36.759  173.3  0.0020   58.7  0.9896   -4.2
 0.070  0.7834   -8.3  36.689  172.4  0.0034   90.5  0.9912   -5.0
 0.080  0.7806   -9.5  36.600  171.4  0.0042   78.6  0.9884   -5.7
 0.090  0.7797  -10.7  36.504  170.5  0.0048   76.6  0.9887   -6.5
 0.100  0.7789  -11.9  36.373  169.6  0.0058   76.1  0.9857   -7.3
 0.110  0.7782  -13.2  36.351  168.5  0.0057   81.6  0.9853   -8.0
 0.120  0.7767  -14.3  36.125  167.6  0.0066   80.2  0.9828   -8.8
 0.130  0.7754  -15.6  36.030  166.6  0.0065   82.9  0.9806   -9.6
 0.140  0.7733  -16.7  35.853  165.7  0.0069   83.8  0.9778  -10.3
 0.150  0.7708  -18.0  35.909  164.8  0.0083   83.5  0.9749  -11.1
 0.200  0.7592  -23.9  35.139  160.1  0.0101   76.2  0.9586  -14.7
 0.250  0.7437  -29.6  34.305  155.5  0.0119   76.9  0.9381  -18.1
 0.300  0.7259  -35.2  33.360  151.1  0.0147   72.9  0.9143  -21.4
 0.350  0.7070  -40.5  32.327  147.0  0.0170   70.6  0.8901  -24.4
 0.400  0.6854  -46.1  31.449  142.8  0.0192   70.1  0.8612  -27.4
 0.450  0.6642  -51.1  30.311  139.1  0.0212   68.8  0.8350  -30.1
 0.500  0.6413  -56.1  29.267  135.5  0.0224   66.7  0.8040  -32.6
 0.600  0.5988  -65.4  27.058  128.9  0.0259   63.3  0.7466  -37.0
 0.700  0.5568  -74.2  25.037  123.1  0.0287   61.1  0.6937  -40.7
 0.800  0.5172  -82.6  23.179  117.9  0.0311   58.6  0.6408  -43.9
 0.900  0.4853  -90.1  21.454  113.4  0.0334   56.9  0.5948  -46.5
 1.000  0.4560  -97.2  19.886  109.4  0.0355   55.7  0.5532  -48.7
 1.100  0.4303 -104.0  18.502  105.7  0.0377   54.5  0.5158  -50.4
 1.200  0.4070 -110.5  17.286  102.3  0.0396   53.1  0.4835  -51.9
 1.300  0.3886 -116.5  16.170   99.4  0.0413   52.5  0.4532  -53.1
 1.400  0.3740 -122.2  15.202   96.6  0.0435   51.8  0.4290  -54.2
 1.500  0.3594 -127.8  14.334   94.1  0.0452   51.0  0.4053  -54.9
 1.600  0.3484 -133.4  13.566   91.5  0.0471   50.7  0.3845  -55.7
 1.700  0.3396 -138.5  12.860   89.3  0.0488   50.0  0.3654  -56.2
 1.800  0.3332 -143.5  12.216   87.1  0.0507   49.1  0.3483  -56.9
 1.900  0.3281 -148.4  11.648   85.0  0.0524   48.6  0.3322  -57.4
 2.000  0.3233 -153.2  11.122   82.9  0.0544   48.1  0.3171  -58.1
 2.100  0.3221 -157.5  10.621   81.0  0.0561   47.6  0.3030  -58.7
 2.200  0.3192 -161.8  10.182   79.0  0.0580   47.0  0.2899  -59.2
 2.300  0.3180 -165.9   9.761   77.2  0.0595   46.3  0.2782  -59.5
 2.400  0.3164 -170.0   9.384   75.4  0.0613   45.9  0.2674  -59.8
 2.500  0.3163 -173.8   9.027   73.7  0.0630   45.2  0.2562  -60.0
 2.600  0.3161 -177.8   8.703   71.9  0.0651   44.7  0.2450  -60.2
 2.700  0.3180  178.7   8.391   70.3  0.0667   44.1  0.2340  -60.3
 2.800  0.3192  175.2   8.109   68.5  0.0685   43.5  0.2239  -60.8
 2.900  0.3225  172.1   7.838   67.0  0.0703   43.0  0.2140  -61.2
 3.000  0.3250  168.7   7.589   65.4  0.0723   42.3  0.2045  -61.9
 3.100  0.3284  165.6   7.350   63.8  0.0740   41.6  0.1944  -62.3
 3.200  0.3322  162.5   7.126   62.2  0.0757   40.9  0.1856  -63.2
 3.300  0.3367  159.6   6.917   60.6  0.0776   40.1  0.1766  -63.9
 3.400  0.3422  156.7   6.716   59.1  0.0792   39.3  0.1679  -64.9
 3.500  0.3465  153.9   6.526   57.6  0.0812   38.7  0.1589  -65.5
 3.600  0.3523  151.2   6.345   56.1  0.0830   37.9  0.1497  -66.6
 3.700  0.3581  148.7   6.174   54.6  0.0846   37.3  0.1402  -67.5
 3.800  0.3645  146.3   6.008   53.1  0.0861   36.5  0.1316  -68.7
 3.900  0.3705  143.9   5.853   51.7  0.0878   35.7  0.1229  -70.2
 4.000  0.3769  141.5   5.702   50.3  0.0896   35.0  0.1145  -71.9
 4.100  0.3829  139.4   5.557   48.8  0.0913   34.2  0.1059  -73.6
 4.200  0.3903  137.3   5.420   47.4  0.0929   33.4  0.0987  -75.8
 4.300  0.3963  135.3   5.288   46.0  0.0945   32.7  0.0914  -77.9
 4.400  0.4037  133.4   5.161   44.6  0.0961   31.8  0.0846  -80.0
 4.500  0.4090  131.6   5.040   43.3  0.0977   31.1  0.0777  -82.2
 4.600  0.4164  130.0   4.925   41.9  0.0992   30.4  0.0709  -84.6
 4.700  0.4216  128.4   4.811   40.6  0.1007   29.6  0.0648  -86.9
 4.800  0.4284  126.9   4.706   39.2  0.1023   28.8  0.0584  -89.6
 4.900  0.4329  125.3   4.603   37.9  0.1038   28.0  0.0528  -92.1
 5.000  0.4392  124.0   4.506   36.6  0.1053   27.3  0.0474  -95.1
 5.100  0.4438  122.6   4.411   35.3  0.1068   26.6  0.0417  -97.9
 5.200  0.4488  121.4   4.320   34.1  0.1084   25.9  0.0368 -100.4
 5.300  0.4528  120.0   4.232   32.8  0.1099   25.1  0.0316 -104.0
 5.400  0.4576  118.8   4.148   31.6  0.1114   24.3  0.0270 -107.0
 5.500  0.4607  117.5   4.068   30.3  0.1128   23.7  0.0216 -112.5
 5.600  0.4645  116.5   3.991   29.1  0.1144   22.9  0.0171 -118.0
 5.700  0.4672  115.3   3.917   27.9  0.1159   22.2  0.0119 -128.9
 5.800  0.4713  114.2   3.844   26.6  0.1176   21.4  0.0087 -148.1
 5.900  0.4745  113.3   3.779   25.5  0.1192   20.6  0.0069  175.5
 6.000  0.4775  112.1   3.715   24.2  0.1207   20.0  0.0088  142.4
 6.100  0.4826  111.2   3.655   23.0  0.1226   19.1  0.0124  124.8
 6.200  0.4845  110.2   3.594   21.9  0.1241   18.3  0.0170  116.1
 6.300  0.4898  109.0   3.538   20.6  0.1258   17.4  0.0213  110.6
 6.400  0.4924  107.9   3.485   19.3  0.1274   16.6  0.0266  107.6
 6.500  0.4971  106.6   3.431   18.0  0.1289   15.6  0.0320  104.6
 6.600  0.5007  105.4   3.376   16.7  0.1304   14.7  0.0367  103.2
 6.700  0.5052  104.2   3.326   15.5  0.1319   13.9  0.0419  101.1
 6.800  0.5093  102.8   3.274   14.3  0.1333   12.9  0.0463  100.1
 6.900  0.5138  101.6   3.226   13.0  0.1348   12.1  0.0524   98.5
 7.000  0.5178  100.2   3.179   11.7  0.1363   11.1  0.0570   98.5
 7.100  0.5227   99.0   3.133   10.4  0.1378   10.3  0.0628   97.8
 7.200  0.5269   97.7   3.085    9.2  0.1389    9.3  0.0675   97.5
 7.300  0.5316   96.4   3.043    7.8  0.1404    8.4  0.0731   96.3
 7.400  0.5360   95.0   2.997    6.6  0.1419    7.5  0.0778   95.5
 7.500  0.5419   93.7   2.954    5.2  0.1431    6.5  0.0846   94.1
 7.600  0.5473   92.2   2.910    3.9  0.1442    5.5  0.0905   93.5
 7.700  0.5541   91.0   2.865    2.6  0.1455    4.6  0.0967   92.2
 7.800  0.5603   89.6   2.823    1.3  0.1466    3.6  0.1030   90.9
 7.900  0.5673   88.4   2.780    0.0  0.1475    2.6  0.1109   89.5
 8.000  0.5737   87.0   2.739   -1.3  0.1486    1.6  0.1179   88.5
 8.500  0.6118   80.8   2.527   -7.8  0.1528   -3.2  0.1618   81.5
 9.000  0.6510   75.1   2.317  -13.7  0.1550   -7.7  0.2159   76.7
 9.500  0.6902   70.3   2.122  -18.8  0.1558  -11.6  0.2727   73.9
10.000  0.7238   66.7   1.960  -23.2  0.1569  -14.6  0.3214   73.2
!
!  f       NFmin   Gammaopt  rn/50
! GHz       dB    MAG  ANG    -
 0.450      0.75  0.16    7   0.02
 0.900      0.77  0.15   15   0.02
 1.500      0.79  0.12   26   0.04
 1.900      0.79  0.09   43   0.04
 2.400      0.82  0.13 -116   0.05
 3.500      0.95  0.19 -105   0.07
 5.500      1.16  0.22 -100   0.12
10.000      1.69  0.57  -57   0.42
!
! (c) 2013  Infineon Technologies AG, Munich
