! Infineon Technologies  Discrete & RF Semiconductors
! BFP620F
! VCE =  1.3 V,  IC =  80 mA
! Common Emitter S-Parameters:                            Dec 2014
# GHz  S  MA  R  50
!  f         S11            S21            S12            S22
! GHz     MAG   ANG      MAG   ANG      MAG   ANG      MAG   ANG
 0.030  0.2558  -21.6  57.028  174.8  0.0034   85.6  0.8953   -2.9
 0.040  0.2564  -27.1  58.167  172.6  0.0037   87.0  0.9037   -6.0
 0.050  0.2624  -31.0  60.006  170.1  0.0045  103.9  0.9084   -8.7
 0.060  0.2692  -37.0  61.144  167.3  0.0046   82.5  0.9066  -11.8
 0.070  0.2723  -41.2  61.506  164.3  0.0052   86.7  0.9071  -14.5
 0.080  0.2782  -46.7  61.095  161.3  0.0065   85.7  0.9037  -17.5
 0.090  0.2781  -51.5  60.023  158.7  0.0063   84.4  0.8959  -20.2
 0.100  0.2799  -56.4  58.730  156.3  0.0073   80.5  0.8858  -22.9
 0.110  0.2804  -61.1  57.406  153.9  0.0078   76.6  0.8740  -25.6
 0.120  0.2828  -65.6  56.358  151.8  0.0086   77.6  0.8590  -28.2
 0.130  0.2850  -69.4  55.791  149.9  0.0095   76.5  0.8426  -30.5
 0.140  0.2876  -72.9  55.430  147.8  0.0099   78.1  0.8252  -32.9
 0.150  0.2907  -75.9  55.318  145.9  0.0099   76.7  0.8102  -34.9
 0.200  0.3020  -89.9  51.535  136.5  0.0129   74.6  0.7304  -44.4
 0.250  0.3008 -100.7  48.002  129.2  0.0146   72.0  0.6534  -52.1
 0.300  0.2977 -109.1  44.159  123.2  0.0165   69.0  0.5874  -58.6
 0.350  0.2972 -117.0  40.076  118.5  0.0186   71.0  0.5306  -64.0
 0.400  0.2913 -122.9  36.918  114.7  0.0205   69.7  0.4791  -68.7
 0.450  0.2886 -127.8  33.933  111.3  0.0223   69.4  0.4406  -72.8
 0.500  0.2858 -132.9  31.180  108.7  0.0241   69.5  0.4040  -76.7
 0.600  0.2854 -141.3  26.810  104.0  0.0275   69.7  0.3447  -83.4
 0.700  0.2852 -147.8  23.370  100.4  0.0313   70.2  0.3013  -89.4
 0.800  0.2874 -153.3  20.678   97.3  0.0347   70.0  0.2659  -94.8
 0.900  0.2879 -158.0  18.509   94.8  0.0386   70.4  0.2378 -100.3
 1.000  0.2916 -162.1  16.744   92.5  0.0421   70.3  0.2152 -105.5
 1.100  0.2927 -165.8  15.253   90.5  0.0460   70.1  0.1960 -111.1
 1.200  0.2967 -168.9  14.026   88.8  0.0494   69.6  0.1814 -116.2
 1.300  0.2988 -171.9  12.956   87.1  0.0531   69.6  0.1683 -121.9
 1.400  0.3029 -174.4  12.050   85.6  0.0567   69.3  0.1591 -127.2
 1.500  0.3049 -177.0  11.246   84.2  0.0604   68.7  0.1516 -133.0
 1.600  0.3092 -179.2  10.546   82.8  0.0641   68.4  0.1477 -138.1
 1.700  0.3113  178.5   9.923   81.5  0.0678   67.9  0.1439 -143.3
 1.800  0.3148  176.6   9.379   80.3  0.0714   67.5  0.1429 -147.7
 1.900  0.3171  174.7   8.885   79.1  0.0749   67.1  0.1424 -152.1
 2.000  0.3201  172.9   8.443   77.9  0.0787   66.6  0.1436 -155.5
 2.100  0.3240  171.2   8.039   76.8  0.0820   65.7  0.1499 -156.8
 2.200  0.3256  169.6   7.673   75.7  0.0858   65.2  0.1502 -159.7
 2.300  0.3281  168.0   7.339   74.6  0.0892   64.7  0.1508 -162.3
 2.400  0.3298  166.5   7.039   73.5  0.0928   64.0  0.1514 -164.7
 2.500  0.3321  165.0   6.760   72.5  0.0964   63.5  0.1528 -166.8
 2.600  0.3332  163.6   6.499   71.5  0.0997   62.8  0.1537 -168.7
 2.700  0.3348  162.3   6.261   70.6  0.1033   62.2  0.1546 -170.3
 2.800  0.3359  160.9   6.039   69.6  0.1070   61.6  0.1553 -171.8
 2.900  0.3375  159.6   5.832   68.6  0.1103   61.0  0.1565 -173.2
 3.000  0.3382  158.1   5.642   67.5  0.1138   60.3  0.1577 -174.5
 3.100  0.3396  157.1   5.459   66.6  0.1173   59.7  0.1576 -175.8
 3.200  0.3399  155.7   5.291   65.7  0.1208   58.9  0.1583 -177.0
 3.300  0.3409  154.6   5.133   64.7  0.1242   58.2  0.1585 -178.0
 3.400  0.3408  153.3   4.987   63.7  0.1278   57.6  0.1591 -179.2
 3.500  0.3421  152.1   4.848   62.8  0.1313   57.0  0.1589  179.6
 3.600  0.3423  150.8   4.714   61.9  0.1347   56.3  0.1591  178.4
 3.700  0.3432  149.8   4.593   61.0  0.1382   55.6  0.1588  177.3
 3.800  0.3433  148.5   4.472   60.0  0.1417   54.9  0.1587  176.2
 3.900  0.3445  147.4   4.363   59.1  0.1450   54.2  0.1581  174.9
 4.000  0.3448  146.3   4.254   58.2  0.1483   53.5  0.1576  173.5
 4.100  0.3460  145.2   4.155   57.2  0.1518   52.8  0.1573  172.0
 4.200  0.3472  144.0   4.060   56.3  0.1551   52.1  0.1571  170.3
 4.300  0.3484  143.2   3.971   55.4  0.1586   51.3  0.1569  168.9
 4.400  0.3501  142.1   3.884   54.5  0.1620   50.6  0.1565  167.2
 4.500  0.3509  141.2   3.801   53.5  0.1652   49.9  0.1562  165.5
 4.600  0.3531  140.2   3.721   52.7  0.1686   49.2  0.1565  163.7
 4.700  0.3541  139.3   3.648   51.7  0.1721   48.4  0.1567  161.9
 4.800  0.3566  138.4   3.574   50.8  0.1752   47.7  0.1571  159.9
 4.900  0.3584  137.7   3.504   49.9  0.1785   46.9  0.1574  158.0
 5.000  0.3606  136.7   3.438   48.9  0.1819   46.1  0.1585  156.2
 5.100  0.3623  135.9   3.375   47.9  0.1851   45.4  0.1582  154.4
 5.200  0.3647  135.3   3.313   47.0  0.1883   44.6  0.1592  152.5
 5.300  0.3666  134.5   3.252   46.0  0.1916   43.8  0.1601  150.8
 5.400  0.3692  133.7   3.194   45.1  0.1946   43.0  0.1613  149.2
 5.500  0.3714  133.0   3.137   44.1  0.1977   42.2  0.1622  147.2
 5.600  0.3745  132.3   3.082   43.2  0.2007   41.4  0.1636  145.5
 5.700  0.3764  131.5   3.029   42.2  0.2038   40.6  0.1650  143.9
 5.800  0.3787  130.7   2.978   41.2  0.2068   39.8  0.1661  142.2
 5.900  0.3813  129.9   2.928   40.3  0.2097   39.0  0.1679  140.2
 6.000  0.3838  129.0   2.878   39.3  0.2127   38.2  0.1692  138.7
 6.100  0.3865  128.2   2.830   38.4  0.2154   37.4  0.1705  136.9
 6.200  0.3887  127.3   2.783   37.4  0.2181   36.6  0.1725  134.8
 6.300  0.3915  126.3   2.736   36.4  0.2207   35.8  0.1747  132.9
 6.400  0.3941  125.3   2.692   35.4  0.2233   35.0  0.1769  131.2
 6.500  0.3965  124.2   2.648   34.5  0.2257   34.2  0.1789  128.9
 6.600  0.3991  123.3   2.602   33.6  0.2282   33.4  0.1816  126.9
 6.700  0.4015  122.1   2.560   32.7  0.2307   32.7  0.1838  124.7
 6.800  0.4041  121.0   2.520   31.7  0.2332   31.9  0.1863  122.6
 6.900  0.4072  119.8   2.479   30.8  0.2356   31.2  0.1890  120.3
 7.000  0.4105  118.7   2.438   29.9  0.2380   30.4  0.1919  118.0
 7.100  0.4137  117.7   2.401   29.0  0.2404   29.7  0.1956  115.6
 7.200  0.4171  116.6   2.364   28.1  0.2428   28.9  0.1995  113.3
 7.300  0.4212  115.6   2.328   27.3  0.2452   28.2  0.2043  111.1
 7.400  0.4255  114.6   2.293   26.4  0.2476   27.5  0.2094  108.9
 7.500  0.4306  113.7   2.260   25.6  0.2501   26.7  0.2153  106.8
 7.600  0.4358  112.9   2.227   24.8  0.2526   26.0  0.2214  104.8
 7.700  0.4417  112.1   2.195   23.9  0.2549   25.2  0.2291  102.9
 7.800  0.4476  111.4   2.163   23.1  0.2572   24.4  0.2369  101.2
 7.900  0.4547  110.7   2.132   22.2  0.2594   23.6  0.2457   99.3
 8.000  0.4619  110.0   2.102   21.3  0.2616   22.8  0.2548   97.7
!
!  f       NFmin   Gammaopt  rn/50
! GHz       dB    MAG  ANG    -
!
! noise parameter not available yet for this operation point!
!
! (c) 2014  Infineon Technologies AG, Munich
