! Infineon Technologies  Discrete & RF Semiconductors
! BFP620
! VCE =  2.0 V,  IC =  15 mA
! Common Emitter S-Parameters:                            Nov 2015
# GHz  S  MA  R  50
!  f         S11            S21            S12            S22
! GHz     MAG   ANG      MAG   ANG      MAG   ANG      MAG   ANG
 0.030  0.7559   -4.1  38.058  176.6  0.0024   69.3  0.9694   -2.6
 0.035  0.7540   -4.8  38.125  176.1  0.0027   71.6  0.9698   -3.2
 0.040  0.7522   -5.6  38.194  175.6  0.0030   73.4  0.9703   -3.7
 0.045  0.7501   -6.2  38.141  174.6  0.0033   74.1  0.9709   -4.2
 0.050  0.7481   -6.8  38.100  173.6  0.0037   74.6  0.9715   -4.7
 0.055  0.7493   -7.6  38.052  173.3  0.0041   75.4  0.9714   -5.2
 0.060  0.7507   -8.3  38.006  172.9  0.0045   76.1  0.9714   -5.8
 0.065  0.7519   -9.2  38.058  172.6  0.0048   76.7  0.9710   -6.3
 0.070  0.7532  -10.0  38.112  172.3  0.0051   77.3  0.9707   -6.9
 0.075  0.7518  -10.6  37.986  171.7  0.0054   77.7  0.9700   -7.4
 0.080  0.7505  -11.2  37.865  171.1  0.0058   78.0  0.9693   -8.0
 0.085  0.7481  -11.9  37.871  170.5  0.0061   77.5  0.9683   -8.5
 0.090  0.7458  -12.7  37.881  169.9  0.0065   77.1  0.9674   -9.1
 0.095  0.7468  -13.4  37.808  169.3  0.0068   77.2  0.9664   -9.6
 0.100  0.7480  -14.1  37.740  168.6  0.0071   77.2  0.9655  -10.1
 0.105  0.7444  -14.8  37.743  168.0  0.0074   77.8  0.9643  -10.6
 0.110  0.7410  -15.6  37.750  167.5  0.0078   78.3  0.9631  -11.2
 0.115  0.7424  -16.4  37.664  167.1  0.0081   77.8  0.9618  -11.7
 0.120  0.7439  -17.1  37.579  166.7  0.0085   77.4  0.9605  -12.2
 0.125  0.7426  -17.7  37.496  166.2  0.0088   77.2  0.9590  -12.7
 0.130  0.7414  -18.3  37.416  165.6  0.0091   77.0  0.9576  -13.3
 0.135  0.7393  -19.0  37.338  165.1  0.0095   76.9  0.9560  -13.8
 0.140  0.7374  -19.7  37.262  164.6  0.0099   76.9  0.9544  -14.3
 0.145  0.7366  -20.4  37.198  164.1  0.0102   76.7  0.9527  -14.8
 0.150  0.7360  -21.2  37.137  163.5  0.0106   76.5  0.9510  -15.3
 0.155  0.7343  -21.9  37.039  163.0  0.0109   76.2  0.9486  -15.8
 0.160  0.7327  -22.5  36.944  162.5  0.0112   76.0  0.9464  -16.3
 0.165  0.7312  -23.2  36.851  162.0  0.0116   75.8  0.9441  -16.8
 0.170  0.7298  -23.9  36.761  161.5  0.0119   75.6  0.9420  -17.3
 0.175  0.7286  -24.5  36.675  161.0  0.0122   75.4  0.9399  -17.8
 0.180  0.7274  -25.2  36.591  160.5  0.0125   75.2  0.9379  -18.3
 0.185  0.7263  -25.9  36.510  160.0  0.0128   75.0  0.9360  -18.8
 0.190  0.7253  -26.5  36.432  159.4  0.0132   74.8  0.9341  -19.3
 0.195  0.7244  -27.2  36.357  158.9  0.0135   74.7  0.9323  -19.8
 0.200  0.7236  -27.9  36.285  158.4  0.0138   74.5  0.9306  -20.3
 0.220  0.7149  -30.5  35.840  156.4  0.0151   73.5  0.9200  -22.2
 0.240  0.7076  -33.2  35.440  154.3  0.0164   72.7  0.9105  -24.1
 0.260  0.7002  -35.8  35.020  152.4  0.0176   71.7  0.8999  -26.0
 0.280  0.6924  -38.4  34.573  150.5  0.0187   70.7  0.8882  -27.8
 0.300  0.6861  -41.1  34.166  148.5  0.0199   69.8  0.8774  -29.7
 0.320  0.6772  -43.5  33.657  146.7  0.0210   68.9  0.8644  -31.4
 0.340  0.6695  -46.0  33.183  144.8  0.0221   68.1  0.8522  -33.1
 0.360  0.6613  -48.5  32.690  143.1  0.0231   67.2  0.8395  -34.8
 0.380  0.6524  -50.9  32.173  141.4  0.0241   66.4  0.8263  -36.4
 0.400  0.6447  -53.3  31.685  139.6  0.0251   65.6  0.8138  -38.1
 0.420  0.6355  -55.5  31.128  138.0  0.0261   64.8  0.8004  -39.6
 0.440  0.6272  -57.8  30.595  136.4  0.0270   64.0  0.7875  -41.2
 0.450  0.6235  -59.0  30.338  135.6  0.0275   63.6  0.7813  -42.0
 0.460  0.6186  -60.1  30.069  134.9  0.0279   63.2  0.7744  -42.7
 0.480  0.6093  -62.3  29.547  133.4  0.0288   62.5  0.7611  -44.1
 0.500  0.6010  -64.5  29.044  131.9  0.0296   61.8  0.7482  -45.6
 0.520  0.5913  -66.4  28.525  130.7  0.0304   61.1  0.7348  -46.8
 0.540  0.5824  -68.4  28.019  129.4  0.0311   60.5  0.7218  -48.1
 0.560  0.5741  -70.4  27.527  128.1  0.0319   59.9  0.7091  -49.4
 0.580  0.5666  -72.5  27.051  126.7  0.0327   59.3  0.6968  -50.7
 0.600  0.5599  -74.7  26.590  125.3  0.0335   58.8  0.6849  -52.1
 0.620  0.5514  -76.5  26.109  124.2  0.0342   58.3  0.6724  -53.2
 0.640  0.5434  -78.3  25.639  123.1  0.0349   57.8  0.6601  -54.3
 0.660  0.5359  -80.2  25.179  121.9  0.0355   57.3  0.6481  -55.4
 0.680  0.5291  -82.1  24.729  120.7  0.0362   56.8  0.6364  -56.6
 0.700  0.5229  -84.1  24.292  119.4  0.0369   56.4  0.6249  -57.8
 0.720  0.5159  -85.7  23.867  118.5  0.0375   56.0  0.6139  -58.7
 0.740  0.5093  -87.3  23.450  117.5  0.0381   55.6  0.6030  -59.7
 0.760  0.5031  -89.0  23.039  116.4  0.0387   55.2  0.5924  -60.7
 0.780  0.4974  -90.7  22.636  115.4  0.0393   54.9  0.5819  -61.7
 0.800  0.4921  -92.5  22.241  114.3  0.0399   54.5  0.5716  -62.8
 0.820  0.4858  -94.0  21.868  113.5  0.0404   54.2  0.5618  -63.6
 0.840  0.4799  -95.6  21.499  112.6  0.0410   53.9  0.5522  -64.5
 0.860  0.4743  -97.2  21.136  111.8  0.0415   53.6  0.5427  -65.3
 0.880  0.4692  -98.9  20.777  110.8  0.0421   53.3  0.5333  -66.3
 0.900  0.4644 -100.6  20.424  109.9  0.0426   53.0  0.5241  -67.2
 0.920  0.4594 -102.0  20.108  109.2  0.0431   52.7  0.5156  -67.9
 0.940  0.4547 -103.4  19.795  108.4  0.0436   52.5  0.5073  -68.7
 0.960  0.4503 -104.8  19.485  107.6  0.0442   52.3  0.4990  -69.5
 0.980  0.4461 -106.3  19.180  106.8  0.0447   52.0  0.4908  -70.3
 1.000  0.4423 -107.8  18.878  106.0  0.0452   51.8  0.4827  -71.1
 1.020  0.4380 -109.1  18.595  105.3  0.0457   51.6  0.4752  -71.8
 1.040  0.4340 -110.4  18.314  104.6  0.0462   51.3  0.4678  -72.5
 1.060  0.4302 -111.8  18.036  103.9  0.0467   51.1  0.4604  -73.3
 1.080  0.4266 -113.2  17.761  103.2  0.0472   50.9  0.4532  -74.1
 1.100  0.4233 -114.6  17.489  102.4  0.0477   50.7  0.4460  -74.9
 1.120  0.4195 -115.9  17.241  101.8  0.0482   50.5  0.4392  -75.5
 1.140  0.4159 -117.1  16.994  101.1  0.0487   50.3  0.4326  -76.2
 1.160  0.4125 -118.4  16.750  100.5  0.0491   50.1  0.4259  -76.8
 1.180  0.4093 -119.8  16.508   99.8  0.0496   50.0  0.4193  -77.5
 1.200  0.4064 -121.1  16.269   99.1  0.0501   49.8  0.4128  -78.2
 1.220  0.4038 -122.2  16.055   98.6  0.0506   49.7  0.4071  -78.8
 1.240  0.4014 -123.3  15.842   98.0  0.0511   49.6  0.4014  -79.4
 1.260  0.3991 -124.5  15.631   97.5  0.0515   49.4  0.3958  -80.1
 1.280  0.3970 -125.6  15.421   96.9  0.0520   49.3  0.3902  -80.7
 1.300  0.3950 -126.8  15.213   96.3  0.0525   49.2  0.3847  -81.4
 1.320  0.3927 -128.0  15.028   95.8  0.0530   49.0  0.3794  -82.0
 1.340  0.3905 -129.1  14.844   95.2  0.0535   48.8  0.3741  -82.6
 1.360  0.3886 -130.3  14.662   94.7  0.0540   48.6  0.3688  -83.3
 1.380  0.3867 -131.5  14.481   94.1  0.0545   48.5  0.3636  -83.9
 1.400  0.3851 -132.7  14.302   93.5  0.0550   48.3  0.3585  -84.6
 1.420  0.3827 -133.8  14.129   93.0  0.0554   48.2  0.3539  -85.2
 1.440  0.3804 -134.9  13.958   92.5  0.0559   48.0  0.3493  -85.8
 1.460  0.3782 -136.0  13.787   92.0  0.0563   47.9  0.3447  -86.5
 1.480  0.3762 -137.2  13.618   91.4  0.0568   47.7  0.3402  -87.1
 1.500  0.3744 -138.3  13.450   90.9  0.0572   47.6  0.3357  -87.8
 1.520  0.3729 -139.3  13.296   90.4  0.0577   47.5  0.3312  -88.4
 1.540  0.3715 -140.4  13.144   89.9  0.0581   47.4  0.3267  -89.0
 1.560  0.3703 -141.5  12.992   89.4  0.0586   47.2  0.3222  -89.6
 1.580  0.3692 -142.5  12.842   88.9  0.0590   47.1  0.3178  -90.2
 1.600  0.3682 -143.6  12.692   88.4  0.0595   47.0  0.3134  -90.8
 1.620  0.3667 -144.7  12.555   88.0  0.0600   46.9  0.3097  -91.4
 1.640  0.3653 -145.7  12.419   87.5  0.0605   46.8  0.3060  -92.0
 1.660  0.3641 -146.8  12.284   87.1  0.0609   46.6  0.3024  -92.6
 1.680  0.3630 -147.9  12.150   86.6  0.0614   46.5  0.2988  -93.2
 1.700  0.3620 -149.0  12.016   86.1  0.0619   46.4  0.2952  -93.9
 1.720  0.3608 -149.9  11.894   85.7  0.0624   46.2  0.2912  -94.5
 1.740  0.3597 -150.8  11.773   85.2  0.0628   46.1  0.2873  -95.1
 1.760  0.3587 -151.7  11.653   84.7  0.0633   45.9  0.2834  -95.8
 1.780  0.3578 -152.7  11.533   84.3  0.0637   45.8  0.2795  -96.4
 1.800  0.3570 -153.6  11.414   83.8  0.0642   45.6  0.2757  -97.1
 1.820  0.3562 -154.6  11.300   83.4  0.0647   45.5  0.2725  -97.7
 1.840  0.3554 -155.5  11.186   82.9  0.0651   45.4  0.2693  -98.3
 1.860  0.3548 -156.5  11.074   82.5  0.0656   45.2  0.2661  -98.9
 1.880  0.3543 -157.5  10.961   82.1  0.0660   45.1  0.2630  -99.6
 1.900  0.3539 -158.5  10.850   81.6  0.0665   45.0  0.2599 -100.2
 1.920  0.3531 -159.4  10.746   81.2  0.0669   44.9  0.2567 -100.9
 1.940  0.3524 -160.3  10.644   80.8  0.0674   44.7  0.2535 -101.5
 1.960  0.3518 -161.3  10.541   80.4  0.0678   44.6  0.2504 -102.2
 1.980  0.3513 -162.2  10.439   79.9  0.0683   44.4  0.2473 -103.0
 2.000  0.3509 -163.1  10.338   79.5  0.0687   44.3  0.2443 -103.7
 2.020  0.3504 -163.9  10.247   79.2  0.0691   44.2  0.2415 -104.3
 2.040  0.3501 -164.8  10.155   78.8  0.0696   44.0  0.2388 -104.9
 2.060  0.3497 -165.6  10.065   78.5  0.0700   43.9  0.2360 -105.6
 2.080  0.3495 -166.4   9.974   78.1  0.0705   43.8  0.2334 -106.2
 2.100  0.3493 -167.2   9.884   77.7  0.0709   43.7  0.2307 -106.9
 2.120  0.3492 -168.1   9.795   77.4  0.0714   43.6  0.2281 -107.6
 2.140  0.3492 -168.9   9.706   77.0  0.0718   43.4  0.2255 -108.3
 2.160  0.3493 -169.7   9.617   76.6  0.0723   43.3  0.2229 -109.0
 2.180  0.3494 -170.6   9.529   76.2  0.0727   43.2  0.2204 -109.7
 2.200  0.3496 -171.4   9.441   75.8  0.0732   43.1  0.2179 -110.5
 2.220  0.3493 -172.2   9.362   75.4  0.0736   43.0  0.2156 -111.2
 2.240  0.3490 -173.0   9.283   75.1  0.0741   42.8  0.2134 -111.8
 2.260  0.3488 -173.8   9.205   74.7  0.0745   42.7  0.2112 -112.5
 2.280  0.3487 -174.6   9.127   74.3  0.0750   42.5  0.2090 -113.2
 2.300  0.3486 -175.4   9.049   73.9  0.0754   42.4  0.2068 -113.9
 2.320  0.3487 -176.2   8.972   73.5  0.0759   42.2  0.2047 -114.6
 2.340  0.3487 -177.0   8.895   73.1  0.0763   42.1  0.2026 -115.4
 2.360  0.3489 -177.8   8.819   72.7  0.0768   42.0  0.2006 -116.1
 2.380  0.3491 -178.6   8.743   72.3  0.0772   41.8  0.1986 -116.9
 2.400  0.3494 -179.4   8.668   71.9  0.0777   41.7  0.1966 -117.7
 2.420  0.3494  179.9   8.602   71.6  0.0781   41.6  0.1947 -118.4
 2.440  0.3495  179.2   8.537   71.2  0.0786   41.4  0.1929 -119.1
 2.460  0.3496  178.5   8.472   70.9  0.0790   41.3  0.1911 -119.9
 2.480  0.3498  177.8   8.408   70.5  0.0795   41.1  0.1894 -120.6
 2.500  0.3501  177.1   8.343   70.2  0.0799   41.0  0.1876 -121.4
 2.520  0.3504  176.4   8.279   69.8  0.0804   40.8  0.1859 -122.2
 2.540  0.3507  175.8   8.216   69.4  0.0808   40.7  0.1843 -122.9
 2.560  0.3511  175.1   8.153   69.1  0.0813   40.6  0.1826 -123.7
 2.580  0.3515  174.4   8.090   68.7  0.0817   40.4  0.1811 -124.6
 2.600  0.3520  173.7   8.027   68.3  0.0822   40.3  0.1795 -125.4
 2.620  0.3523  173.0   7.969   68.0  0.0826   40.1  0.1779 -126.2
 2.640  0.3526  172.4   7.911   67.7  0.0831   40.0  0.1764 -126.9
 2.660  0.3530  171.7   7.853   67.3  0.0835   39.8  0.1748 -127.7
 2.680  0.3534  171.1   7.795   67.0  0.0840   39.6  0.1734 -128.6
 2.700  0.3538  170.4   7.738   66.7  0.0844   39.5  0.1719 -129.4
 2.720  0.3543  169.8   7.681   66.3  0.0848   39.3  0.1705 -130.2
 2.740  0.3549  169.1   7.624   66.0  0.0853   39.2  0.1691 -131.1
 2.760  0.3555  168.5   7.568   65.6  0.0857   39.0  0.1678 -131.9
 2.780  0.3561  167.8   7.512   65.3  0.0862   38.9  0.1665 -132.8
 2.800  0.3568  167.2   7.456   64.9  0.0866   38.7  0.1652 -133.7
 2.820  0.3572  166.6   7.405   64.6  0.0870   38.5  0.1639 -134.5
 2.840  0.3576  166.0   7.353   64.3  0.0875   38.4  0.1627 -135.4
 2.860  0.3580  165.4   7.302   63.9  0.0879   38.2  0.1615 -136.3
 2.880  0.3585  164.7   7.252   63.6  0.0884   38.1  0.1603 -137.1
 2.900  0.3590  164.1   7.201   63.3  0.0888   37.9  0.1592 -138.0
 2.920  0.3596  163.5   7.151   62.9  0.0892   37.8  0.1581 -139.0
 2.940  0.3602  162.9   7.101   62.6  0.0897   37.6  0.1570 -139.9
 2.960  0.3608  162.3   7.052   62.2  0.0901   37.5  0.1560 -140.8
 2.980  0.3615  161.7   7.002   61.9  0.0906   37.3  0.1550 -141.7
 3.000  0.3622  161.1   6.953   61.5  0.0910   37.2  0.1541 -142.7
 3.100  0.3655  158.2   6.741   60.1  0.0931   36.3  0.1501 -147.3
 3.200  0.3697  155.4   6.534   58.7  0.0952   35.4  0.1472 -152.1
 3.300  0.3748  152.7   6.331   57.1  0.0974   34.6  0.1453 -157.1
 3.400  0.3807  150.1   6.133   55.5  0.0995   33.8  0.1445 -162.2
 3.500  0.3874  147.5   5.940   53.7  0.1017   33.0  0.1449 -167.3
 3.600  0.3939  145.2   5.775   52.4  0.1036   32.1  0.1460 -172.1
 3.700  0.4011  143.0   5.614   51.0  0.1056   31.1  0.1481 -176.7
 3.800  0.4088  140.8   5.456   49.5  0.1076   30.3  0.1511  178.8
 3.900  0.4171  138.8   5.302   47.9  0.1097   29.4  0.1550  174.5
 4.000  0.4259  136.8   5.152   46.2  0.1117   28.6  0.1598  170.4
 4.100  0.4324  135.0   5.023   44.9  0.1134   27.7  0.1643  167.0
 4.200  0.4393  133.3   4.897   43.6  0.1152   26.8  0.1693  163.7
 4.300  0.4466  131.7   4.774   42.2  0.1170   25.9  0.1748  160.6
 4.400  0.4543  130.1   4.653   40.7  0.1188   25.1  0.1809  157.8
 4.500  0.4623  128.5   4.536   39.2  0.1207   24.3  0.1873  155.1
 4.600  0.4660  126.9   4.434   38.0  0.1224   23.4  0.1905  152.5
 4.700  0.4701  125.4   4.334   36.7  0.1242   22.5  0.1942  150.0
 4.800  0.4745  123.9   4.236   35.3  0.1260   21.7  0.1981  147.5
 4.900  0.4792  122.4   4.141   33.9  0.1278   20.9  0.2025  145.2
 5.000  0.4843  120.9   4.048   32.4  0.1296   20.1  0.2071  143.0
 5.100  0.4864  119.3   3.962   31.2  0.1312   19.2  0.2096  140.6
 5.200  0.4889  117.6   3.877   29.9  0.1329   18.3  0.2124  138.2
 5.300  0.4919  116.0   3.795   28.6  0.1346   17.4  0.2156  136.0
 5.400  0.4951  114.5   3.714   27.2  0.1363   16.5  0.2192  133.7
 5.500  0.4988  112.9   3.636   25.8  0.1381   15.7  0.2230  131.6
 5.600  0.5019  111.5   3.564   24.6  0.1397   14.8  0.2264  129.4
 5.700  0.5053  110.2   3.494   23.4  0.1414   13.9  0.2302  127.4
 5.800  0.5090  108.8   3.426   22.2  0.1431   13.1  0.2342  125.3
 5.900  0.5129  107.5   3.359   20.9  0.1448   12.2  0.2385  123.4
 6.000  0.5171  106.2   3.294   19.5  0.1466   11.4  0.2431  121.5
 6.100  0.5221  105.2   3.238   18.4  0.1482   10.5  0.2474  120.0
 6.200  0.5272  104.3   3.184   17.3  0.1499    9.5  0.2519  118.6
 6.300  0.5324  103.3   3.131   16.1  0.1516    8.6  0.2565  117.3
 6.400  0.5378  102.4   3.079   14.9  0.1533    7.8  0.2612  116.0
 6.500  0.5433  101.5   3.029   13.6  0.1551    6.9  0.2661  114.7
 6.600  0.5475  100.6   2.982   12.4  0.1566    5.9  0.2699  113.5
 6.800  0.5564   98.9   2.892    9.8  0.1599    3.9  0.2778  111.1
 7.000  0.5658   97.2   2.808    7.1  0.1633    2.0  0.2861  108.9
 7.200  0.5734   95.0   2.722    4.5  0.1659   -0.2  0.2955  106.3
 7.400  0.5818   92.8   2.643    1.8  0.1688   -2.3  0.3055  103.9
 7.600  0.5909   90.4   2.562   -0.9  0.1711   -4.4  0.3167  101.3
 7.800  0.6011   87.6   2.479   -3.6  0.1730   -6.6  0.3293   98.4
 8.000  0.6127   84.9   2.402   -6.5  0.1751   -8.8  0.3426   95.8
 8.200  0.6230   81.5   2.313   -9.0  0.1758  -11.1  0.3575   92.6
 8.400  0.6354   78.3   2.228  -11.8  0.1767  -13.3  0.3735   89.7
 8.600  0.6488   75.1   2.146  -14.3  0.1772  -15.4  0.3910   86.7
 8.800  0.6635   71.9   2.064  -16.8  0.1773  -17.5  0.4103   83.6
 9.000  0.6800   68.9   1.986  -19.4  0.1776  -19.6  0.4307   80.9
 9.200  0.6970   66.7   1.903  -21.3  0.1765  -21.2  0.4518   78.4
 9.400  0.7150   64.6   1.822  -23.4  0.1756  -22.9  0.4738   76.1
 9.600  0.7322   63.2   1.755  -25.2  0.1749  -24.2  0.4932   74.4
 9.800  0.7478   62.6   1.698  -26.5  0.1744  -25.3  0.5099   73.1
10.000  0.7635   61.9   1.643  -28.0  0.1740  -26.3  0.5267   72.0
10.200  0.7715   62.1   1.606  -29.3  0.1748  -27.3  0.5345   71.8
10.400  0.7796   62.2   1.569  -30.6  0.1757  -28.2  0.5423   71.5
10.600  0.7837   62.2   1.539  -32.1  0.1773  -29.2  0.5471   71.4
10.800  0.7839   61.9   1.516  -33.7  0.1798  -30.2  0.5490   71.5
11.000  0.7842   61.6   1.495  -35.4  0.1823  -31.2  0.5508   71.5
11.200  0.7781   59.8   1.464  -37.7  0.1847  -33.0  0.5501   70.6
11.400  0.7727   58.0   1.435  -40.1  0.1873  -34.7  0.5496   69.7
11.600  0.7653   55.9   1.402  -42.2  0.1883  -36.5  0.5509   68.6
11.800  0.7563   53.4   1.364  -44.0  0.1878  -38.4  0.5542   67.3
12.000  0.7488   50.9   1.328  -46.0  0.1876  -40.4  0.5578   66.0
!
!  f       NFmin   Gammaopt  rn/50
! GHz       dB    MAG  ANG    -
 0.450      0.85  0.11   -3   0.11
 0.900      0.85  0.07    6   0.10
 1.900      0.86  0.04   18   0.10
 2.400      0.90  0.06 -137   0.10
 3.500      0.93  0.11  -97   0.13
 5.500      1.22  0.13  -90   0.15
10.000      1.67  0.60  -49   0.75
!
! (c) 2015  Infineon Technologies AG, Munich
