! Infineon Technologies  Discrete & RF Semiconductors
! BFP620F
! VCE =  1.5 V,  IC =  45 mA
! Common Emitter S-Parameters:                            Dec 2014
# GHz  S  MA  R  50
!  f         S11            S21            S12            S22
! GHz     MAG   ANG      MAG   ANG      MAG   ANG      MAG   ANG
 0.030  0.5558   -8.9  67.257  174.4  0.0024  101.6  0.9501   -3.4
 0.040  0.5541  -11.5  67.208  172.2  0.0031   91.5  0.9571   -5.7
 0.050  0.5518  -14.2  67.068  170.1  0.0033   84.3  0.9580   -7.9
 0.060  0.5465  -16.6  66.758  168.1  0.0038   85.0  0.9554   -9.9
 0.070  0.5450  -19.2  66.367  165.9  0.0056   88.0  0.9558  -12.1
 0.080  0.5402  -21.7  65.863  163.8  0.0051   79.9  0.9478  -14.1
 0.090  0.5375  -24.4  65.181  161.8  0.0063   86.9  0.9452  -16.3
 0.100  0.5303  -26.9  64.458  159.8  0.0073   78.4  0.9353  -18.2
 0.110  0.5242  -29.6  63.674  157.8  0.0083   80.2  0.9272  -20.3
 0.120  0.5194  -32.1  62.851  155.9  0.0088   81.3  0.9171  -22.2
 0.130  0.5129  -34.5  62.128  154.2  0.0098   80.4  0.9059  -24.0
 0.140  0.5085  -36.8  61.202  152.4  0.0101   76.7  0.8950  -25.8
 0.150  0.5023  -39.1  60.485  150.7  0.0103   78.6  0.8831  -27.5
 0.200  0.4737  -49.8  55.846  142.9  0.0128   71.9  0.8199  -35.4
 0.250  0.4419  -59.4  51.359  136.1  0.0158   72.6  0.7551  -42.1
 0.300  0.4142  -68.0  47.068  130.4  0.0179   68.6  0.6934  -48.0
 0.350  0.3892  -75.9  43.077  125.5  0.0198   68.6  0.6361  -52.8
 0.400  0.3673  -83.2  39.616  121.2  0.0217   67.2  0.5848  -57.1
 0.450  0.3490  -89.2  36.510  117.6  0.0235   66.9  0.5412  -60.9
 0.500  0.3318  -95.1  33.743  114.5  0.0253   67.3  0.5006  -64.2
 0.600  0.3071 -105.9  29.175  109.2  0.0286   66.8  0.4319  -70.0
 0.700  0.2884 -114.7  25.588  105.0  0.0319   66.6  0.3783  -74.9
 0.800  0.2763 -122.6  22.707  101.5  0.0354   66.9  0.3335  -79.2
 0.900  0.2660 -129.5  20.376   98.6  0.0385   67.1  0.2971  -83.3
 1.000  0.2606 -135.8  18.463   96.0  0.0422   67.0  0.2665  -86.9
 1.100  0.2549 -141.4  16.838   93.8  0.0454   66.8  0.2399  -90.9
 1.200  0.2535 -146.4  15.496   91.8  0.0488   66.7  0.2185  -94.4
 1.300  0.2508 -151.1  14.331   90.0  0.0520   66.6  0.1982  -98.4
 1.400  0.2516 -155.1  13.330   88.3  0.0555   66.5  0.1826 -102.3
 1.500  0.2505 -159.0  12.450   86.8  0.0589   66.4  0.1684 -106.4
 1.600  0.2523 -162.6  11.678   85.3  0.0624   66.0  0.1580 -110.6
 1.700  0.2522 -165.9  10.994   83.9  0.0657   65.7  0.1477 -115.1
 1.800  0.2546 -168.9  10.393   82.6  0.0690   65.3  0.1416 -119.4
 1.900  0.2554 -171.6   9.846   81.4  0.0725   64.7  0.1363 -123.6
 2.000  0.2573 -174.3   9.360   80.1  0.0758   64.6  0.1331 -127.7
 2.100  0.2603 -176.7   8.914   78.9  0.0790   64.0  0.1376 -130.8
 2.200  0.2615 -178.9   8.510   77.8  0.0823   63.5  0.1352 -134.0
 2.300  0.2634  178.9   8.137   76.7  0.0859   62.9  0.1331 -137.1
 2.400  0.2647  176.8   7.804   75.5  0.0890   62.5  0.1318 -140.0
 2.500  0.2659  174.8   7.497   74.5  0.0924   61.9  0.1308 -142.6
 2.600  0.2671  172.8   7.208   73.5  0.0958   61.5  0.1301 -145.1
 2.700  0.2682  171.1   6.943   72.5  0.0991   60.9  0.1295 -147.2
 2.800  0.2689  169.2   6.699   71.5  0.1026   60.5  0.1293 -149.2
 2.900  0.2701  167.7   6.468   70.5  0.1056   59.9  0.1294 -151.1
 3.000  0.2707  165.8   6.258   69.5  0.1092   59.2  0.1299 -152.7
 3.100  0.2718  164.5   6.056   68.6  0.1124   58.8  0.1291 -154.3
 3.200  0.2718  162.8   5.870   67.6  0.1156   58.2  0.1295 -155.8
 3.300  0.2730  161.4   5.695   66.7  0.1190   57.5  0.1290 -157.0
 3.400  0.2728  159.8   5.533   65.7  0.1222   56.9  0.1291 -158.5
 3.500  0.2737  158.4   5.378   64.8  0.1254   56.3  0.1284 -159.9
 3.600  0.2738  156.9   5.230   63.8  0.1290   55.7  0.1282 -161.2
 3.700  0.2748  155.6   5.094   62.9  0.1321   55.1  0.1274 -162.4
 3.800  0.2750  154.1   4.960   62.0  0.1354   54.4  0.1268 -163.7
 3.900  0.2759  152.8   4.839   61.1  0.1385   53.8  0.1259 -165.2
 4.000  0.2762  151.5   4.719   60.2  0.1417   53.2  0.1246 -166.8
 4.100  0.2774  150.3   4.610   59.2  0.1450   52.6  0.1235 -168.5
 4.200  0.2788  149.0   4.504   58.3  0.1481   51.9  0.1224 -170.5
 4.300  0.2799  148.0   4.405   57.4  0.1516   51.2  0.1215 -172.3
 4.400  0.2813  146.8   4.309   56.5  0.1547   50.6  0.1204 -174.2
 4.500  0.2825  145.8   4.215   55.6  0.1580   49.9  0.1193 -176.2
 4.600  0.2846  144.6   4.128   54.7  0.1611   49.2  0.1185 -178.5
 4.700  0.2858  143.7   4.046   53.7  0.1646   48.5  0.1180  179.4
 4.800  0.2884  142.7   3.965   52.8  0.1677   47.8  0.1175  177.1
 4.900  0.2902  141.9   3.888   52.0  0.1708   47.1  0.1168  174.6
 5.000  0.2923  140.9   3.815   51.0  0.1739   46.3  0.1170  172.4
 5.100  0.2944  140.0   3.744   50.0  0.1771   45.7  0.1160  170.4
 5.200  0.2967  139.3   3.675   49.1  0.1802   44.9  0.1162  167.9
 5.300  0.2988  138.5   3.608   48.2  0.1833   44.2  0.1164  165.8
 5.400  0.3016  137.7   3.545   47.2  0.1863   43.4  0.1170  163.8
 5.500  0.3039  137.0   3.481   46.3  0.1894   42.7  0.1172  161.5
 5.600  0.3071  136.2   3.421   45.4  0.1924   41.9  0.1181  159.3
 5.700  0.3093  135.4   3.363   44.5  0.1952   41.2  0.1189  157.2
 5.800  0.3118  134.6   3.306   43.5  0.1982   40.5  0.1193  155.0
 5.900  0.3146  133.8   3.251   42.6  0.2010   39.7  0.1208  152.6
 6.000  0.3172  132.9   3.197   41.6  0.2039   38.9  0.1217  150.7
 6.100  0.3200  132.0   3.144   40.7  0.2067   38.1  0.1223  148.3
 6.200  0.3226  131.1   3.091   39.7  0.2093   37.3  0.1237  145.8
 6.300  0.3255  130.0   3.041   38.8  0.2117   36.6  0.1257  143.4
 6.400  0.3282  129.0   2.992   37.8  0.2145   35.8  0.1275  141.1
 6.500  0.3310  127.9   2.944   36.9  0.2169   35.1  0.1287  138.2
 6.600  0.3337  126.9   2.893   36.0  0.2195   34.3  0.1312  135.7
 6.700  0.3364  125.6   2.847   35.1  0.2219   33.6  0.1329  132.9
 6.800  0.3392  124.4   2.803   34.1  0.2242   32.9  0.1350  130.3
 6.900  0.3425  123.2   2.758   33.2  0.2267   32.2  0.1372  127.2
 7.000  0.3459  122.0   2.713   32.3  0.2291   31.4  0.1398  124.2
 7.100  0.3494  120.9   2.672   31.5  0.2317   30.7  0.1431  121.2
 7.200  0.3531  119.7   2.632   30.6  0.2342   30.0  0.1467  118.4
 7.300  0.3575  118.7   2.592   29.8  0.2366   29.4  0.1514  115.5
 7.400  0.3620  117.7   2.554   28.9  0.2390   28.7  0.1565  112.9
 7.500  0.3673  116.8   2.518   28.1  0.2414   28.0  0.1624  110.3
 7.600  0.3727  116.0   2.482   27.3  0.2440   27.3  0.1686  108.0
 7.700  0.3789  115.2   2.447   26.4  0.2463   26.5  0.1762  105.7
 7.800  0.3852  114.4   2.412   25.6  0.2487   25.7  0.1841  103.7
 7.900  0.3929  113.7   2.379   24.7  0.2510   24.9  0.1930  101.6
 8.000  0.4006  113.1   2.346   23.8  0.2533   24.1  0.2022   99.7
!
!  f       NFmin   Gammaopt  rn/50
! GHz       dB    MAG  ANG    -
 0.450      1.45  0.18 -172   0.16
 0.900      1.48  0.18 -172   0.14
 1.500      1.49  0.23 -153   0.10
 1.800      1.50  0.23 -152   0.10
 1.900      1.50  0.23 -151   0.11
 2.400      1.52  0.24  213   0.12
 3.500      1.58  0.24  220   0.15
 5.500      1.72  0.29  248   0.19
 6.000      1.76  0.29  261   0.24
!
! (c) 2014  Infineon Technologies AG, Munich
