! Infineon Technologies  Discrete & RF Semiconductors
! BFP620
! VCE =  1.0 V,  IC =  45 mA
! Common Emitter S-Parameters:                            Nov 2015
# GHz  S  MA  R  50
!  f         S11            S21            S12            S22
! GHz     MAG   ANG      MAG   ANG      MAG   ANG      MAG   ANG
 0.030  0.4059  -14.1  71.591  174.5  0.0028   95.4  0.9370   -5.2
 0.035  0.4048  -16.4  71.747  173.3  0.0032   92.7  0.9399   -6.6
 0.040  0.4043  -18.7  71.932  172.2  0.0036   90.6  0.9434   -8.0
 0.045  0.4013  -20.3  71.719  170.6  0.0039   88.4  0.9441   -9.5
 0.050  0.3987  -21.9  71.562  169.0  0.0043   86.5  0.9455  -10.9
 0.055  0.3999  -24.0  71.384  168.0  0.0047   85.8  0.9450  -12.3
 0.060  0.4016  -26.1  71.228  167.0  0.0051   85.2  0.9451  -13.7
 0.065  0.4020  -28.6  71.163  166.0  0.0055   84.4  0.9433  -15.1
 0.070  0.4032  -31.1  71.119  165.0  0.0059   83.7  0.9421  -16.5
 0.075  0.3995  -32.9  70.644  163.8  0.0063   82.4  0.9391  -17.9
 0.080  0.3962  -34.7  70.199  162.6  0.0067   81.2  0.9366  -19.3
 0.085  0.3961  -36.8  69.914  161.4  0.0070   80.8  0.9329  -20.6
 0.090  0.3966  -38.9  69.660  160.2  0.0073   80.5  0.9298  -22.0
 0.095  0.3954  -40.8  69.214  159.0  0.0076   79.6  0.9252  -23.3
 0.100  0.3946  -42.8  68.798  157.8  0.0079   78.7  0.9210  -24.6
 0.105  0.3916  -44.9  68.403  156.7  0.0082   77.7  0.9157  -25.9
 0.110  0.3891  -47.0  68.034  155.6  0.0086   76.7  0.9109  -27.2
 0.115  0.3923  -48.6  67.578  154.7  0.0090   76.3  0.9053  -28.4
 0.120  0.3958  -50.2  67.140  153.7  0.0094   76.0  0.9002  -29.7
 0.125  0.3946  -52.0  66.611  152.7  0.0097   75.4  0.8942  -30.9
 0.130  0.3937  -53.8  66.103  151.7  0.0100   74.8  0.8887  -32.2
 0.135  0.3919  -55.6  65.550  150.7  0.0103   74.2  0.8822  -33.3
 0.140  0.3906  -57.5  65.016  149.7  0.0106   73.7  0.8761  -34.5
 0.145  0.3910  -59.3  64.488  148.8  0.0109   73.3  0.8695  -35.7
 0.150  0.3918  -61.0  63.978  147.8  0.0112   73.0  0.8633  -36.9
 0.155  0.3899  -62.5  63.371  147.0  0.0115   72.5  0.8552  -37.9
 0.160  0.3883  -64.0  62.775  146.2  0.0117   72.0  0.8474  -38.9
 0.165  0.3869  -65.5  62.193  145.4  0.0120   71.5  0.8398  -39.9
 0.170  0.3858  -67.0  61.624  144.5  0.0122   71.0  0.8325  -40.9
 0.175  0.3850  -68.5  61.067  143.7  0.0125   70.6  0.8255  -42.0
 0.180  0.3844  -70.0  60.525  142.8  0.0128   70.1  0.8188  -43.1
 0.185  0.3841  -71.5  59.997  141.9  0.0130   69.7  0.8123  -44.1
 0.190  0.3841  -73.1  59.483  141.0  0.0133   69.3  0.8062  -45.2
 0.195  0.3844  -74.6  58.985  140.1  0.0135   69.0  0.8003  -46.4
 0.200  0.3849  -76.1  58.501  139.2  0.0138   68.6  0.7948  -47.5
 0.220  0.3802  -81.4  56.203  136.5  0.0148   67.3  0.7655  -51.0
 0.240  0.3788  -86.7  54.045  133.5  0.0157   66.2  0.7393  -54.8
 0.260  0.3775  -91.7  51.980  130.8  0.0166   65.3  0.7140  -58.3
 0.280  0.3754  -96.2  49.955  128.4  0.0174   64.6  0.6885  -61.4
 0.300  0.3757 -100.8  48.025  125.8  0.0182   63.9  0.6653  -64.8
 0.320  0.3740 -104.6  46.208  123.8  0.0190   63.3  0.6421  -67.5
 0.340  0.3739 -108.3  44.450  121.7  0.0197   62.8  0.6204  -70.4
 0.360  0.3737 -111.8  42.801  119.8  0.0204   62.3  0.6001  -73.1
 0.380  0.3729 -115.1  41.240  118.1  0.0211   61.9  0.5806  -75.6
 0.400  0.3734 -118.3  39.718  116.3  0.0217   61.6  0.5623  -78.3
 0.420  0.3722 -121.1  38.335  114.9  0.0224   61.3  0.5453  -80.5
 0.440  0.3719 -123.8  36.979  113.3  0.0231   61.0  0.5292  -82.9
 0.450  0.3721 -125.2  36.311  112.5  0.0234   60.9  0.5215  -84.1
 0.460  0.3715 -126.5  35.716  111.9  0.0237   60.8  0.5141  -85.1
 0.480  0.3709 -129.0  34.538  110.6  0.0243   60.7  0.4999  -87.2
 0.500  0.3710 -131.5  33.378  109.3  0.0249   60.5  0.4863  -89.4
 0.520  0.3703 -133.5  32.410  108.3  0.0255   60.4  0.4742  -91.1
 0.540  0.3700 -135.5  31.452  107.3  0.0261   60.4  0.4626  -92.9
 0.560  0.3702 -137.6  30.504  106.3  0.0268   60.3  0.4514  -94.8
 0.580  0.3709 -139.6  29.568  105.1  0.0274   60.3  0.4407  -96.7
 0.600  0.3720 -141.6  28.644  103.9  0.0280   60.2  0.4306  -98.8
 0.620  0.3717 -143.2  27.891  103.1  0.0286   60.2  0.4214 -100.3
 0.640  0.3716 -144.8  27.143  102.3  0.0292   60.1  0.4124 -101.9
 0.660  0.3719 -146.4  26.401  101.4  0.0298   60.1  0.4038 -103.5
 0.680  0.3725 -148.0  25.665  100.5  0.0304   60.0  0.3955 -105.2
 0.700  0.3733 -149.6  24.937   99.5  0.0310   60.0  0.3876 -107.0
 0.720  0.3733 -151.0  24.352   98.8  0.0316   60.0  0.3807 -108.4
 0.740  0.3736 -152.3  23.771   98.1  0.0322   60.0  0.3741 -109.8
 0.760  0.3740 -153.7  23.193   97.4  0.0328   60.0  0.3677 -111.3
 0.780  0.3747 -155.0  22.619   96.6  0.0334   60.0  0.3616 -112.8
 0.800  0.3756 -156.4  22.050   95.8  0.0340   60.0  0.3557 -114.4
 0.820  0.3757 -157.5  21.580   95.2  0.0346   60.0  0.3505 -115.7
 0.840  0.3759 -158.7  21.112   94.6  0.0352   60.0  0.3454 -117.0
 0.860  0.3762 -159.8  20.647   94.0  0.0358   59.9  0.3405 -118.3
 0.880  0.3767 -161.0  20.184   93.4  0.0364   59.9  0.3358 -119.7
 0.900  0.3774 -162.1  19.724   92.7  0.0370   59.9  0.3313 -121.1
 0.920  0.3778 -163.0  19.349   92.2  0.0376   59.8  0.3272 -122.3
 0.940  0.3783 -164.0  18.976   91.7  0.0383   59.8  0.3233 -123.5
 0.960  0.3790 -164.9  18.605   91.1  0.0389   59.7  0.3194 -124.7
 0.980  0.3797 -165.9  18.235   90.6  0.0396   59.7  0.3158 -126.0
 1.000  0.3805 -166.8  17.867   90.0  0.0402   59.6  0.3123 -127.3
 1.020  0.3808 -167.7  17.549   89.5  0.0408   59.5  0.3093 -128.4
 1.040  0.3811 -168.6  17.233   89.0  0.0414   59.4  0.3064 -129.6
 1.060  0.3816 -169.4  16.918   88.4  0.0421   59.4  0.3036 -130.7
 1.080  0.3821 -170.3  16.605   87.9  0.0427   59.3  0.3009 -131.9
 1.100  0.3827 -171.2  16.293   87.3  0.0433   59.2  0.2984 -133.1
 1.120  0.3828 -172.0  16.027   86.9  0.0439   59.1  0.2957 -134.1
 1.140  0.3830 -172.8  15.762   86.4  0.0445   59.0  0.2932 -135.2
 1.160  0.3833 -173.6  15.497   86.0  0.0452   59.0  0.2907 -136.3
 1.180  0.3837 -174.4  15.234   85.5  0.0458   58.9  0.2883 -137.4
 1.200  0.3841 -175.2  14.972   85.0  0.0464   58.8  0.2861 -138.5
 1.220  0.3846 -175.9  14.748   84.6  0.0470   58.7  0.2843 -139.4
 1.240  0.3851 -176.5  14.524   84.2  0.0477   58.6  0.2827 -140.4
 1.260  0.3857 -177.2  14.301   83.7  0.0483   58.6  0.2811 -141.3
 1.280  0.3863 -177.8  14.079   83.3  0.0490   58.5  0.2795 -142.3
 1.300  0.3870 -178.5  13.858   82.8  0.0496   58.4  0.2781 -143.3
 1.320  0.3878 -179.2  13.666   82.4  0.0502   58.3  0.2766 -144.3
 1.340  0.3886 -179.9  13.475   82.0  0.0509   58.1  0.2752 -145.3
 1.360  0.3894  179.5  13.285   81.6  0.0515   58.0  0.2739 -146.3
 1.380  0.3903  178.8  13.096   81.1  0.0522   57.8  0.2727 -147.3
 1.400  0.3913  178.1  12.907   80.7  0.0528   57.7  0.2715 -148.3
 1.420  0.3916  177.5  12.734   80.3  0.0534   57.6  0.2705 -149.2
 1.440  0.3920  176.8  12.562   79.9  0.0540   57.4  0.2696 -150.0
 1.460  0.3924  176.2  12.391   79.5  0.0547   57.3  0.2687 -150.9
 1.480  0.3929  175.5  12.220   79.0  0.0553   57.1  0.2679 -151.8
 1.500  0.3934  174.9  12.050   78.6  0.0559   57.0  0.2672 -152.7
 1.520  0.3940  174.3  11.898   78.2  0.0565   56.9  0.2663 -153.6
 1.540  0.3947  173.7  11.747   77.9  0.0571   56.7  0.2654 -154.4
 1.560  0.3954  173.1  11.596   77.5  0.0578   56.6  0.2646 -155.3
 1.580  0.3961  172.5  11.446   77.1  0.0584   56.4  0.2638 -156.2
 1.600  0.3969  171.9  11.296   76.7  0.0590   56.3  0.2631 -157.1
 1.620  0.3976  171.3  11.161   76.4  0.0596   56.2  0.2627 -157.9
 1.640  0.3983  170.7  11.027   76.0  0.0602   56.0  0.2624 -158.7
 1.660  0.3991  170.2  10.893   75.6  0.0609   55.9  0.2622 -159.4
 1.680  0.3999  169.6  10.760   75.3  0.0615   55.7  0.2620 -160.2
 1.700  0.4008  169.0  10.627   74.9  0.0621   55.6  0.2618 -161.0
 1.720  0.4013  168.5  10.510   74.5  0.0627   55.4  0.2614 -161.9
 1.740  0.4019  167.9  10.393   74.2  0.0634   55.2  0.2610 -162.8
 1.760  0.4024  167.4  10.276   73.8  0.0640   55.0  0.2607 -163.7
 1.780  0.4030  166.8  10.160   73.4  0.0647   54.9  0.2605 -164.6
 1.800  0.4037  166.3  10.045   73.0  0.0653   54.7  0.2603 -165.5
 1.820  0.4044  165.8   9.936   72.7  0.0659   54.5  0.2601 -166.2
 1.840  0.4051  165.3   9.828   72.3  0.0665   54.3  0.2599 -166.9
 1.860  0.4059  164.7   9.720   71.9  0.0671   54.2  0.2598 -167.7
 1.880  0.4067  164.2   9.612   71.6  0.0677   54.0  0.2597 -168.4
 1.900  0.4075  163.7   9.505   71.2  0.0683   53.8  0.2597 -169.1
 1.920  0.4082  163.2   9.408   70.9  0.0689   53.6  0.2598 -169.9
 1.940  0.4088  162.7   9.312   70.5  0.0695   53.4  0.2599 -170.6
 1.960  0.4096  162.1   9.216   70.2  0.0700   53.3  0.2600 -171.4
 1.980  0.4103  161.6   9.120   69.9  0.0706   53.1  0.2602 -172.1
 2.000  0.4111  161.1   9.025   69.5  0.0712   52.9  0.2605 -172.9
 2.020  0.4119  160.6   8.941   69.2  0.0718   52.7  0.2607 -173.6
 2.040  0.4127  160.2   8.857   68.9  0.0724   52.5  0.2609 -174.3
 2.060  0.4135  159.7   8.774   68.6  0.0731   52.4  0.2612 -175.0
 2.080  0.4144  159.3   8.691   68.3  0.0737   52.2  0.2615 -175.6
 2.100  0.4153  158.8   8.608   68.0  0.0743   52.0  0.2618 -176.3
 2.120  0.4162  158.4   8.525   67.7  0.0749   51.8  0.2622 -177.0
 2.140  0.4171  157.9   8.443   67.3  0.0755   51.7  0.2626 -177.7
 2.160  0.4181  157.5   8.360   67.0  0.0762   51.5  0.2631 -178.4
 2.180  0.4191  157.0   8.279   66.6  0.0768   51.4  0.2636 -179.0
 2.200  0.4201  156.6   8.197   66.3  0.0774   51.2  0.2641 -179.7
 2.220  0.4208  156.1   8.124   66.0  0.0780   51.0  0.2644  179.7
 2.240  0.4215  155.7   8.052   65.7  0.0786   50.8  0.2647  179.1
 2.260  0.4222  155.2   7.979   65.3  0.0792   50.6  0.2650  178.5
 2.280  0.4230  154.7   7.907   65.0  0.0797   50.4  0.2654  177.8
 2.300  0.4238  154.3   7.836   64.7  0.0803   50.2  0.2658  177.2
 2.320  0.4246  153.8   7.764   64.3  0.0809   50.0  0.2663  176.6
 2.340  0.4255  153.4   7.693   64.0  0.0815   49.8  0.2667  176.0
 2.360  0.4264  152.9   7.622   63.6  0.0821   49.6  0.2672  175.4
 2.380  0.4273  152.5   7.551   63.3  0.0827   49.4  0.2677  174.8
 2.400  0.4282  152.0   7.481   62.9  0.0833   49.2  0.2683  174.2
 2.420  0.4288  151.6   7.421   62.6  0.0839   49.0  0.2688  173.6
 2.440  0.4295  151.1   7.362   62.3  0.0845   48.8  0.2694  173.1
 2.460  0.4302  150.7   7.303   62.0  0.0851   48.6  0.2700  172.5
 2.480  0.4309  150.3   7.244   61.7  0.0856   48.4  0.2706  172.0
 2.500  0.4316  149.9   7.185   61.4  0.0862   48.2  0.2713  171.4
 2.520  0.4324  149.5   7.127   61.1  0.0868   48.0  0.2720  170.9
 2.540  0.4331  149.0   7.069   60.8  0.0874   47.8  0.2727  170.3
 2.560  0.4339  148.6   7.010   60.5  0.0880   47.6  0.2734  169.8
 2.580  0.4348  148.2   6.953   60.1  0.0886   47.4  0.2741  169.2
 2.600  0.4356  147.8   6.895   59.8  0.0892   47.2  0.2749  168.7
 2.620  0.4364  147.4   6.842   59.5  0.0898   47.0  0.2755  168.2
 2.640  0.4372  147.0   6.790   59.2  0.0903   46.7  0.2761  167.6
 2.660  0.4380  146.6   6.737   58.9  0.0909   46.5  0.2768  167.1
 2.680  0.4389  146.2   6.685   58.6  0.0915   46.3  0.2774  166.6
 2.700  0.4398  145.8   6.633   58.3  0.0920   46.1  0.2781  166.1
 2.720  0.4407  145.4   6.581   58.0  0.0926   45.8  0.2788  165.5
 2.740  0.4416  145.0   6.530   57.7  0.0932   45.6  0.2796  165.0
 2.760  0.4425  144.6   6.478   57.4  0.0937   45.4  0.2803  164.5
 2.780  0.4435  144.2   6.427   57.0  0.0943   45.2  0.2811  164.0
 2.800  0.4445  143.8   6.376   56.7  0.0949   45.0  0.2819  163.5
 2.820  0.4453  143.4   6.330   56.4  0.0954   44.8  0.2826  163.0
 2.840  0.4462  143.0   6.285   56.1  0.0960   44.6  0.2833  162.5
 2.860  0.4471  142.6   6.239   55.8  0.0965   44.4  0.2840  162.0
 2.880  0.4479  142.3   6.194   55.6  0.0971   44.2  0.2847  161.5
 2.900  0.4489  141.9   6.149   55.3  0.0976   44.0  0.2855  161.0
 2.920  0.4498  141.5   6.104   55.0  0.0982   43.8  0.2863  160.5
 2.940  0.4507  141.1   6.059   54.6  0.0987   43.6  0.2871  160.0
 2.960  0.4517  140.7   6.015   54.3  0.0993   43.4  0.2879  159.6
 2.980  0.4527  140.4   5.970   54.0  0.0998   43.2  0.2887  159.1
 3.000  0.4537  140.0   5.926   53.7  0.1004   43.0  0.2896  158.6
 3.100  0.4585  138.1   5.738   52.4  0.1030   41.8  0.2942  156.3
 3.200  0.4638  136.3   5.552   51.1  0.1056   40.6  0.2993  154.0
 3.300  0.4696  134.5   5.370   49.6  0.1082   39.5  0.3048  151.9
 3.400  0.4758  132.8   5.192   48.1  0.1109   38.4  0.3107  149.8
 3.500  0.4824  131.1   5.018   46.4  0.1136   37.4  0.3170  147.8
 3.600  0.4893  129.6   4.872   45.2  0.1158   36.2  0.3232  145.9
 3.700  0.4966  128.1   4.729   43.9  0.1181   35.1  0.3297  144.1
 3.800  0.5041  126.6   4.588   42.5  0.1205   34.0  0.3365  142.4
 3.900  0.5120  125.3   4.451   41.0  0.1229   32.9  0.3436  140.8
 4.000  0.5202  123.9   4.316   39.4  0.1253   31.9  0.3510  139.2
 4.100  0.5266  122.6   4.204   38.2  0.1274   30.8  0.3574  137.8
 4.200  0.5333  121.4   4.093   37.0  0.1295   29.8  0.3640  136.4
 4.300  0.5403  120.2   3.985   35.7  0.1316   28.7  0.3707  135.0
 4.400  0.5474  119.0   3.879   34.3  0.1338   27.8  0.3777  133.7
 4.500  0.5548  117.9   3.775   32.9  0.1360   26.8  0.3849  132.5
 4.600  0.5581  116.6   3.687   31.8  0.1380   25.7  0.3891  131.1
 4.700  0.5617  115.3   3.600   30.6  0.1400   24.7  0.3936  129.7
 4.800  0.5656  114.1   3.515   29.4  0.1420   23.7  0.3983  128.3
 4.900  0.5697  112.8   3.432   28.1  0.1442   22.7  0.4032  127.0
 5.000  0.5741  111.6   3.350   26.7  0.1463   21.7  0.4083  125.7
 5.100  0.5760  110.3   3.277   25.5  0.1481   20.6  0.4113  124.2
 5.200  0.5782  108.9   3.205   24.3  0.1500   19.6  0.4146  122.7
 5.300  0.5807  107.6   3.135   23.1  0.1520   18.6  0.4182  121.2
 5.400  0.5835  106.3   3.067   21.8  0.1540   17.6  0.4221  119.8
 5.500  0.5866  105.0   3.000   20.4  0.1560   16.6  0.4262  118.4
 5.600  0.5892  103.8   2.940   19.3  0.1578   15.5  0.4296  117.0
 5.700  0.5921  102.7   2.881   18.1  0.1596   14.5  0.4333  115.6
 5.800  0.5953  101.5   2.823   16.9  0.1615   13.5  0.4373  114.2
 5.900  0.5986  100.4   2.766   15.7  0.1634   12.5  0.4415  112.8
 6.000  0.6022   99.3   2.711   14.4  0.1654   11.5  0.4459  111.5
 6.100  0.6066   98.4   2.664   13.3  0.1672   10.4  0.4498  110.4
 6.200  0.6111   97.6   2.618   12.2  0.1690    9.4  0.4538  109.3
 6.300  0.6158   96.7   2.573   11.0  0.1708    8.4  0.4580  108.3
 6.400  0.6206   95.9   2.529    9.8  0.1727    7.4  0.4623  107.2
 6.500  0.6255   95.1   2.486    8.6  0.1747    6.4  0.4668  106.2
 6.600  0.6294   94.3   2.446    7.4  0.1763    5.3  0.4701  105.2
 6.800  0.6376   92.7   2.370    4.9  0.1797    3.1  0.4773  103.2
 7.000  0.6463   91.2   2.298    2.3  0.1834    1.0  0.4850  101.2
 7.200  0.6531   89.2   2.224   -0.2  0.1859   -1.5  0.4934   99.1
 7.400  0.6607   87.2   2.155   -2.9  0.1887   -3.8  0.5024   97.0
 7.600  0.6687   84.9   2.084   -5.6  0.1908   -6.2  0.5124   94.7
 7.800  0.6776   82.2   2.010   -8.2  0.1923   -8.6  0.5235   92.2
 8.000  0.6879   79.7   1.941  -11.1  0.1942  -11.0  0.5355   89.8
 8.200  0.6962   76.6   1.863  -13.5  0.1942  -13.4  0.5477   87.0
 8.400  0.7065   73.5   1.789  -16.0  0.1946  -15.8  0.5612   84.4
 8.600  0.7177   70.5   1.718  -18.4  0.1944  -18.1  0.5755   81.7
 8.800  0.7296   67.6   1.648  -20.6  0.1936  -20.2  0.5908   79.0
 9.000  0.7434   64.8   1.582  -23.0  0.1931  -22.4  0.6074   76.4
 9.200  0.7570   62.8   1.513  -24.8  0.1912  -24.0  0.6234   74.2
 9.400  0.7715   60.9   1.446  -26.7  0.1895  -25.6  0.6402   72.0
 9.600  0.7857   59.7   1.390  -28.2  0.1883  -26.9  0.6550   70.4
 9.800  0.7989   59.0   1.345  -29.4  0.1874  -27.8  0.6673   69.2
10.000  0.8122   58.4   1.300  -30.6  0.1866  -28.7  0.6799   68.0
10.200  0.8187   58.6   1.271  -31.6  0.1874  -29.5  0.6852   67.7
10.400  0.8252   58.7   1.242  -32.7  0.1883  -30.4  0.6906   67.4
10.600  0.8284   58.7   1.219  -34.0  0.1901  -31.3  0.6940   67.1
10.800  0.8282   58.4   1.202  -35.4  0.1929  -32.3  0.6953   67.0
11.000  0.8281   58.2   1.186  -36.8  0.1957  -33.3  0.6967   66.8
11.200  0.8216   56.5   1.164  -38.9  0.1984  -35.1  0.6957   65.9
11.400  0.8159   54.8   1.143  -41.1  0.2012  -36.9  0.6949   65.0
11.600  0.8081   52.7   1.119  -43.0  0.2022  -38.8  0.6954   64.0
11.800  0.7986   50.4   1.090  -44.7  0.2014  -40.8  0.6976   62.7
12.000  0.7905   48.0   1.063  -46.5  0.2009  -42.8  0.7001   61.4
!
!  f       NFmin   Gammaopt  rn/50
! GHz       dB    MAG  ANG    -
 0.450      1.42  0.26 -165   0.10
 0.900      1.43  0.29 -153   0.10
 1.900      1.44  0.33 -138   0.12
 2.400      1.45  0.33 -136   0.13
 3.500      1.50  0.39 -104   0.21
 5.500      1.79  0.41  -85   0.29
10.000      2.10  0.65  -43   1.14
!
! (c) 2015  Infineon Technologies AG, Munich
