! Infineon Technologies  Discrete & RF Semiconductors
! BFP640F
! VCE =  3.0 V,  IC =  2.0 mA
! Common Emitter S-Parameters:                            Apr 2013
# GHz  S  MA  R  50
!  f         S11            S21            S12            S22
! GHz     MAG   ANG      MAG   ANG      MAG   ANG      MAG   ANG
 0.030  0.9736   -1.2   6.648  178.9  0.0019   83.3  0.9993   -0.7
 0.040  0.9741   -1.7   6.444  178.6  0.0020   88.0  0.9988   -0.8
 0.050  0.9747   -2.2   6.580  178.4  0.0042   85.8  1.0000   -1.1
 0.060  0.9713   -2.5   6.565  177.7  0.0033   76.5  0.9990   -1.4
 0.070  0.9715   -2.8   6.548  177.4  0.0029   98.8  0.9993   -1.5
 0.080  0.9720   -3.4   6.558  177.1  0.0046   78.7  0.9985   -1.8
 0.090  0.9726   -3.8   6.560  176.8  0.0054   82.7  0.9982   -2.0
 0.100  0.9716   -4.2   6.596  176.5  0.0061   84.0  0.9979   -2.2
 0.110  0.9720   -4.6   6.626  176.1  0.0053   90.9  0.9988   -2.4
 0.120  0.9712   -5.0   6.631  175.7  0.0066   85.9  0.9977   -2.7
 0.130  0.9711   -5.4   6.610  175.4  0.0076   88.1  0.9973   -2.9
 0.140  0.9713   -5.8   6.590  175.1  0.0073   90.0  0.9974   -3.1
 0.150  0.9705   -6.2   6.604  174.8  0.0083   85.8  0.9971   -3.4
 0.200  0.9694   -8.3   6.611  173.0  0.0121   85.9  0.9953   -4.5
 0.250  0.9672  -10.4   6.582  171.2  0.0142   85.2  0.9935   -5.6
 0.300  0.9655  -12.4   6.569  169.4  0.0174   84.9  0.9910   -6.7
 0.350  0.9628  -14.5   6.509  167.8  0.0202   84.1  0.9879   -7.8
 0.400  0.9592  -16.6   6.526  165.9  0.0232   82.8  0.9831   -8.9
 0.450  0.9566  -18.6   6.446  164.2  0.0262   81.6  0.9802  -10.0
 0.500  0.9515  -20.7   6.484  162.5  0.0291   80.0  0.9752  -11.1
 0.600  0.9415  -24.8   6.394  159.0  0.0351   78.1  0.9647  -13.3
 0.700  0.9311  -28.9   6.304  155.8  0.0406   75.3  0.9527  -15.3
 0.800  0.9170  -33.1   6.280  152.3  0.0462   73.1  0.9386  -17.4
 0.900  0.9028  -37.1   6.189  149.1  0.0519   70.7  0.9236  -19.4
 1.000  0.8866  -41.1   6.084  145.9  0.0570   68.1  0.9079  -21.3
 1.100  0.8702  -44.9   5.946  142.8  0.0618   65.6  0.8895  -23.3
 1.200  0.8519  -48.8   5.843  139.7  0.0663   63.4  0.8723  -25.0
 1.300  0.8337  -52.6   5.734  136.8  0.0705   61.2  0.8536  -26.6
 1.400  0.8163  -56.3   5.608  134.0  0.0745   59.1  0.8365  -28.2
 1.500  0.7967  -59.9   5.500  131.2  0.0783   57.1  0.8180  -29.6
 1.600  0.7774  -63.7   5.421  128.5  0.0817   55.2  0.7995  -31.2
 1.700  0.7588  -67.2   5.307  125.8  0.0849   53.4  0.7825  -32.5
 1.800  0.7413  -70.6   5.184  123.3  0.0878   51.7  0.7660  -33.9
 1.900  0.7254  -73.9   5.049  121.1  0.0906   50.1  0.7487  -35.2
 2.000  0.7097  -77.2   4.945  118.7  0.0932   48.6  0.7327  -36.5
 2.100  0.6952  -80.8   4.838  116.2  0.0958   46.8  0.7162  -37.9
 2.200  0.6780  -84.1   4.749  113.8  0.0979   45.4  0.7032  -39.0
 2.300  0.6631  -87.1   4.620  111.7  0.0997   44.2  0.6882  -40.0
 2.400  0.6484  -90.1   4.514  109.6  0.1016   42.8  0.6758  -41.0
 2.500  0.6362  -92.8   4.391  107.6  0.1032   41.8  0.6620  -42.0
 2.600  0.6222  -95.9   4.304  105.6  0.1050   40.6  0.6503  -42.9
 2.700  0.6094  -98.6   4.201  103.7  0.1061   39.6  0.6387  -43.6
 2.800  0.5957 -101.5   4.120  101.7  0.1079   38.7  0.6293  -44.4
 2.900  0.5852 -104.2   4.025   99.9  0.1088   37.8  0.6192  -45.2
 3.000  0.5741 -106.9   3.937   98.2  0.1104   36.9  0.6098  -46.0
 3.100  0.5606 -109.7   3.873   96.2  0.1112   36.1  0.6006  -46.7
 3.200  0.5503 -112.3   3.787   94.5  0.1126   35.4  0.5930  -47.4
 3.300  0.5412 -114.8   3.714   92.9  0.1134   34.7  0.5858  -48.0
 3.400  0.5332 -117.3   3.626   91.4  0.1145   34.0  0.5777  -48.7
 3.500  0.5246 -119.8   3.558   89.8  0.1153   33.4  0.5711  -49.3
 3.600  0.5159 -122.2   3.482   88.2  0.1159   33.0  0.5646  -49.7
 3.700  0.5069 -124.7   3.427   86.7  0.1172   32.4  0.5595  -50.3
 3.800  0.5006 -127.1   3.357   85.2  0.1179   31.9  0.5535  -50.7
 3.900  0.4948 -129.4   3.290   83.8  0.1187   31.4  0.5472  -51.3
 4.000  0.4870 -131.9   3.233   82.2  0.1196   30.8  0.5422  -51.7
 4.100  0.4824 -134.2   3.172   80.9  0.1203   30.5  0.5361  -52.1
 4.200  0.4747 -136.8   3.125   79.4  0.1211   30.1  0.5320  -52.5
 4.300  0.4709 -139.0   3.068   78.0  0.1218   29.7  0.5260  -53.0
 4.400  0.4663 -141.5   3.016   76.7  0.1227   29.2  0.5216  -53.4
 4.500  0.4628 -143.6   2.959   75.4  0.1233   29.0  0.5157  -53.7
 4.600  0.4582 -146.1   2.918   74.0  0.1240   28.6  0.5109  -54.1
 4.700  0.4543 -148.3   2.871   72.7  0.1249   28.2  0.5071  -54.4
 4.800  0.4513 -150.7   2.827   71.4  0.1256   28.0  0.5017  -54.9
 4.900  0.4488 -152.8   2.781   70.1  0.1261   27.7  0.4966  -55.2
 5.000  0.4464 -154.9   2.733   68.9  0.1268   27.5  0.4926  -55.6
 5.100  0.4426 -157.2   2.701   67.5  0.1275   27.1  0.4892  -55.9
 5.200  0.4409 -159.2   2.655   66.3  0.1283   26.9  0.4849  -56.2
 5.300  0.4378 -161.3   2.619   65.1  0.1289   26.7  0.4808  -56.5
 5.400  0.4382 -163.3   2.571   63.9  0.1297   26.6  0.4766  -56.9
 5.500  0.4352 -165.3   2.540   62.6  0.1303   26.4  0.4733  -57.2
 5.600  0.4343 -167.3   2.499   61.4  0.1311   26.1  0.4697  -57.5
 5.700  0.4304 -169.3   2.471   60.2  0.1317   25.9  0.4664  -57.8
 5.800  0.4297 -171.2   2.434   59.0  0.1325   25.7  0.4632  -58.1
 5.900  0.4280 -173.2   2.402   57.8  0.1332   25.5  0.4602  -58.3
 6.000  0.4271 -175.0   2.365   56.6  0.1339   25.4  0.4557  -58.6
 6.100  0.4247 -177.2   2.342   55.4  0.1346   25.1  0.4537  -59.0
 6.200  0.4227 -178.9   2.307   54.3  0.1353   25.1  0.4499  -59.2
 6.300  0.4217  178.9   2.276   53.1  0.1359   24.9  0.4472  -59.5
 6.400  0.4211  177.1   2.242   52.0  0.1369   24.9  0.4420  -59.7
 6.500  0.4178  174.8   2.217   50.9  0.1374   24.7  0.4390  -60.0
 6.600  0.4170  172.7   2.187   49.7  0.1380   24.6  0.4363  -60.2
 6.700  0.4154  170.5   2.159   48.6  0.1388   24.5  0.4324  -60.4
 6.800  0.4158  168.5   2.126   47.6  0.1394   24.4  0.4290  -60.6
 6.900  0.4150  166.3   2.101   46.5  0.1402   24.4  0.4250  -60.6
 7.000  0.4141  164.3   2.074   45.4  0.1408   24.4  0.4213  -60.8
 7.100  0.4136  162.0   2.052   44.4  0.1419   24.4  0.4172  -60.9
 7.200  0.4144  160.0   2.024   43.4  0.1426   24.4  0.4135  -61.1
 7.300  0.4158  157.9   2.001   42.3  0.1436   24.4  0.4095  -61.2
 7.400  0.4177  156.1   1.973   41.3  0.1449   24.5  0.4048  -61.3
 7.500  0.4206  154.0   1.952   40.4  0.1460   24.5  0.3993  -61.5
 7.600  0.4232  152.1   1.930   39.4  0.1471   24.5  0.3943  -61.6
 7.700  0.4276  150.1   1.911   38.4  0.1487   24.3  0.3889  -61.8
 7.800  0.4310  148.2   1.893   37.4  0.1496   24.3  0.3829  -62.1
 7.900  0.4373  146.5   1.869   36.4  0.1512   24.3  0.3750  -62.2
 8.000  0.4419  144.6   1.851   35.4  0.1526   24.2  0.3685  -62.6
 8.500  0.4752  136.7   1.763   30.5  0.1590   23.6  0.3264  -64.2
 9.000  0.5085  130.6   1.679   25.8  0.1661   23.0  0.2753  -66.6
 9.500  0.5382  125.5   1.610   21.2  0.1743   22.4  0.2203  -71.4
10.000  0.5646  121.0   1.548   16.5  0.1840   21.2  0.1623  -81.4
!
!  f       NFmin   Gammaopt  rn/50
! GHz       dB    MAG  ANG    -
 0.450      0.46  0.63   10   0.28
 0.900      0.57  0.59   22   0.27
 1.500      0.67  0.58   31   0.27
 1.900      0.72  0.54   46   0.26
 2.400      0.80  0.51   62   0.26
 3.500      0.94  0.43   82   0.25
 5.500      1.26  0.36  145   0.24
10.000      2.23  0.53 -110   0.45
!
! (c) 2013  Infineon Technologies AG, Munich
