! Infineon Technologies  Discrete & RF Semiconductors
! BFP640
! VCE =  1.0 V,  IC =  50 mA
! Common Emitter S-Parameters:                            Apr 2013
# GHz  S  MA  R  50
!  f         S11            S21            S12            S22
! GHz     MAG   ANG      MAG   ANG      MAG   ANG      MAG   ANG
 0.030  0.1528 -155.8  12.992  173.9  0.0053   22.7  0.1425   -3.8
 0.040  0.1665 -150.9  12.934  171.8  0.0053   26.8  0.1422   -6.6
 0.050  0.1833 -146.8  12.857  169.9  0.0068   42.9  0.1445   -8.7
 0.060  0.2000 -143.4  12.798  167.6  0.0062   32.4  0.1410  -10.9
 0.070  0.2191 -141.7  12.700  165.7  0.0064   27.5  0.1401  -12.3
 0.080  0.2366 -139.7  12.601  163.8  0.0068   36.0  0.1391  -14.6
 0.090  0.2552 -138.9  12.487  161.8  0.0077   39.2  0.1393  -17.0
 0.100  0.2732 -137.9  12.387  159.9  0.0071   47.6  0.1368  -18.8
 0.110  0.2947 -138.1  12.249  157.9  0.0078   47.4  0.1355  -20.6
 0.120  0.3125 -137.8  12.113  156.1  0.0083   47.2  0.1337  -22.6
 0.130  0.3306 -138.0  11.963  154.3  0.0093   46.1  0.1318  -24.6
 0.140  0.3470 -138.1  11.813  152.4  0.0094   47.1  0.1304  -26.3
 0.150  0.3653 -138.8  11.656  150.7  0.0094   50.4  0.1278  -27.9
 0.200  0.4423 -142.2  10.834  142.6  0.0121   53.5  0.1180  -36.3
 0.250  0.5044 -146.5   9.984  135.5  0.0138   51.2  0.1074  -43.0
 0.300  0.5532 -150.8   9.169  129.4  0.0154   53.2  0.0969  -49.4
 0.350  0.5921 -154.7   8.433  124.1  0.0173   53.2  0.0874  -55.7
 0.400  0.6230 -158.3   7.760  119.4  0.0187   53.7  0.0786  -61.2
 0.450  0.6465 -161.7   7.165  115.3  0.0200   53.6  0.0711  -66.2
 0.500  0.6654 -164.8   6.627  111.6  0.0213   54.7  0.0633  -71.0
 0.600  0.6938 -170.0   5.743  105.5  0.0240   54.4  0.0512  -81.6
 0.700  0.7125 -174.7   5.044  100.3  0.0265   55.3  0.0402  -92.3
 0.800  0.7272 -178.5   4.489   96.0  0.0291   55.5  0.0324 -106.5
 0.900  0.7376  177.9   4.033   92.2  0.0316   55.9  0.0264 -124.8
 1.000  0.7462  174.7   3.661   88.8  0.0340   55.8  0.0252 -145.4
 1.100  0.7519  171.8   3.350   85.7  0.0365   55.9  0.0254 -165.4
 1.200  0.7578  169.0   3.084   82.8  0.0390   56.1  0.0281 -178.5
 1.300  0.7620  166.4   2.856   80.1  0.0416   55.6  0.0307  168.9
 1.400  0.7672  163.9   2.660   77.5  0.0442   55.3  0.0343  161.7
 1.500  0.7706  161.5   2.491   75.1  0.0468   55.1  0.0377  152.8
 1.600  0.7749  159.2   2.341   72.6  0.0493   54.3  0.0415  147.9
 1.700  0.7787  156.9   2.205   70.3  0.0518   54.0  0.0460  141.2
 1.800  0.7815  154.8   2.085   68.1  0.0544   53.1  0.0502  138.2
 1.900  0.7849  152.6   1.979   65.9  0.0570   52.6  0.0554  133.8
 2.000  0.7870  150.5   1.881   63.8  0.0594   52.0  0.0595  131.6
 2.100  0.7874  148.8   1.786   61.8  0.0617   51.3  0.0625  131.0
 2.200  0.7884  146.9   1.705   59.8  0.0643   50.4  0.0666  128.5
 2.300  0.7910  144.9   1.632   57.8  0.0667   49.9  0.0709  125.7
 2.400  0.7932  143.1   1.565   55.9  0.0690   48.9  0.0752  123.8
 2.500  0.7953  141.1   1.502   54.0  0.0717   48.0  0.0797  121.1
 2.600  0.7966  139.2   1.442   52.1  0.0738   47.5  0.0849  119.1
 2.700  0.7995  137.4   1.389   50.2  0.0761   46.4  0.0899  116.9
 2.800  0.8008  135.7   1.337   48.4  0.0785   45.5  0.0953  115.6
 2.900  0.8028  133.9   1.291   46.5  0.0807   44.5  0.1010  114.3
 3.000  0.8048  132.1   1.247   44.8  0.0830   43.6  0.1072  113.5
 3.100  0.8071  130.4   1.205   43.1  0.0853   42.7  0.1127  112.3
 3.200  0.8094  128.7   1.166   41.4  0.0874   41.8  0.1182  111.9
 3.300  0.8109  127.0   1.129   39.6  0.0894   40.9  0.1235  111.0
 3.400  0.8141  125.4   1.095   38.0  0.0914   39.9  0.1291  110.6
 3.500  0.8154  123.7   1.062   36.3  0.0935   39.0  0.1345  109.6
 3.600  0.8185  122.2   1.031   34.8  0.0955   38.0  0.1403  109.1
 3.700  0.8207  120.6   1.001   33.2  0.0975   37.1  0.1459  108.4
 3.800  0.8233  119.1   0.973   31.6  0.0993   36.3  0.1516  108.1
 3.900  0.8247  117.6   0.948   30.1  0.1011   35.3  0.1577  107.6
 4.000  0.8272  116.2   0.922   28.5  0.1031   34.4  0.1630  107.5
 4.100  0.8287  114.8   0.898   27.1  0.1048   33.4  0.1678  107.2
 4.200  0.8314  113.4   0.873   25.6  0.1067   32.4  0.1728  107.0
 4.300  0.8328  112.1   0.853   24.1  0.1083   31.7  0.1771  106.8
 4.400  0.8357  110.8   0.832   22.7  0.1101   30.7  0.1812  106.4
 4.500  0.8361  109.6   0.813   21.4  0.1117   30.0  0.1854  106.1
 4.600  0.8390  108.5   0.794   20.0  0.1135   29.1  0.1893  105.6
 4.700  0.8397  107.3   0.775   18.7  0.1151   28.2  0.1932  105.2
 4.800  0.8417  106.2   0.759   17.4  0.1169   27.4  0.1969  104.7
 4.900  0.8421  105.1   0.743   16.1  0.1187   26.6  0.2004  104.1
 5.000  0.8444  104.2   0.728   14.8  0.1204   25.7  0.2037  103.4
 5.100  0.8445  103.1   0.713   13.6  0.1219   24.9  0.2070  102.7
 5.200  0.8463  102.1   0.700   12.3  0.1237   24.0  0.2103  102.0
 5.300  0.8454  101.1   0.686   11.1  0.1256   23.2  0.2135  101.3
 5.400  0.8466  100.1   0.675    9.9  0.1271   22.4  0.2167  100.4
 5.500  0.8463   99.2   0.663    8.7  0.1288   21.6  0.2198   99.5
 5.600  0.8471   98.3   0.651    7.5  0.1306   20.8  0.2230   98.6
 5.700  0.8468   97.3   0.640    6.3  0.1323   20.0  0.2266   97.7
 5.800  0.8479   96.3   0.630    5.0  0.1341   19.1  0.2303   96.9
 5.900  0.8484   95.5   0.621    3.9  0.1360   18.3  0.2343   96.1
 6.000  0.8488   94.5   0.612    2.7  0.1377   17.4  0.2383   95.2
 6.100  0.8505   93.7   0.603    1.5  0.1397   16.5  0.2422   94.5
 6.200  0.8502   92.7   0.595    0.3  0.1414   15.4  0.2461   93.7
 6.300  0.8521   91.7   0.586   -0.9  0.1430   14.4  0.2506   92.8
 6.400  0.8523   90.6   0.579   -2.1  0.1447   13.4  0.2547   92.1
 6.500  0.8547   89.5   0.571   -3.4  0.1462   12.5  0.2590   91.3
 6.600  0.8546   88.5   0.563   -4.7  0.1479   11.5  0.2630   90.6
 6.700  0.8568   87.4   0.556   -5.9  0.1496   10.5  0.2674   89.8
 6.800  0.8581   86.2   0.548   -7.1  0.1509    9.4  0.2715   89.1
 6.900  0.8598   85.2   0.541   -8.3  0.1523    8.5  0.2762   88.3
 7.000  0.8603   83.9   0.534   -9.6  0.1538    7.4  0.2806   87.7
 7.100  0.8625   82.8   0.527  -10.8  0.1551    6.4  0.2847   87.0
 7.200  0.8636   81.6   0.520  -12.0  0.1563    5.4  0.2890   86.3
 7.300  0.8653   80.5   0.514  -13.3  0.1576    4.3  0.2933   85.5
 7.400  0.8665   79.2   0.506  -14.5  0.1589    3.3  0.2977   84.7
 7.500  0.8688   78.0   0.499  -15.8  0.1600    2.3  0.3028   83.8
 7.600  0.8701   76.8   0.492  -17.0  0.1608    1.2  0.3076   83.0
 7.700  0.8728   75.6   0.486  -18.2  0.1618    0.1  0.3127   82.0
 7.800  0.8739   74.3   0.479  -19.4  0.1628   -1.0  0.3176   81.1
 7.900  0.8766   73.2   0.471  -20.6  0.1634   -1.9  0.3237   80.0
 8.000  0.8781   72.0   0.465  -21.8  0.1641   -3.0  0.3288   79.1
 8.500  0.8877   66.4   0.431  -27.3  0.1664   -7.9  0.3615   73.7
 9.000  0.8951   61.5   0.397  -31.9  0.1664  -12.3  0.4008   69.3
 9.500  0.9030   57.5   0.367  -35.3  0.1658  -15.6  0.4406   66.5
10.000  0.9101   54.8   0.345  -37.8  0.1662  -18.0  0.4726   65.7
!
!  f       NFmin   Gammaopt  rn/50
! GHz       dB    MAG  ANG    -
!
! noise parameter not available yet for this operation point!
!
! (c) 2013  Infineon Technologies AG, Munich
