! Infineon Technologies  Discrete & RF Semiconductors
! BFP640ESD
! VCE =  4.0 V,  IC =  1.0 mA
! Common Emitter S-Parameters:                            Jan 2016
# GHz  S  MA  R  50
!  f         S11            S21            S12            S22
! GHz     MAG   ANG      MAG   ANG      MAG   ANG      MAG   ANG
 0.010  0.9884   -1.2   3.589  179.8  0.0005    4.9  0.9943    0.1
 0.015  0.9887   -1.0   3.569  179.8  0.0007   60.2  0.9970   -0.1
 0.020  0.9890   -0.8   3.549  179.9  0.0011   82.2  0.9997   -0.3
 0.025  0.9891   -1.0   3.550  179.6  0.0013   83.7  0.9994   -0.4
 0.030  0.9891   -1.2   3.551  179.3  0.0016   84.8  0.9992   -0.6
 0.035  0.9892   -1.5   3.552  179.0  0.0018   85.6  0.9989   -0.7
 0.040  0.9893   -1.7   3.553  178.8  0.0021   86.2  0.9987   -0.9
 0.045  0.9895   -1.9   3.555  178.5  0.0023   86.6  0.9984   -1.0
 0.050  0.9896   -2.1   3.556  178.2  0.0026   87.0  0.9982   -1.2
 0.055  0.9896   -2.3   3.558  178.1  0.0028   86.7  0.9981   -1.3
 0.060  0.9895   -2.4   3.560  178.0  0.0031   86.4  0.9981   -1.4
 0.065  0.9895   -2.6   3.563  177.8  0.0033   86.2  0.9980   -1.5
 0.070  0.9895   -2.8   3.565  177.7  0.0036   86.0  0.9980   -1.6
 0.075  0.9894   -2.9   3.567  177.6  0.0038   85.8  0.9979   -1.7
 0.080  0.9894   -3.1   3.570  177.5  0.0040   85.7  0.9979   -1.8
 0.085  0.9894   -3.3   3.572  177.4  0.0043   85.5  0.9978   -1.9
 0.090  0.9895   -3.5   3.574  177.2  0.0045   85.4  0.9978   -2.0
 0.095  0.9895   -3.6   3.577  177.1  0.0048   85.3  0.9977   -2.1
 0.100  0.9895   -3.8   3.579  177.0  0.0050   85.2  0.9977   -2.2
 0.105  0.9895   -4.0   3.580  176.8  0.0052   85.2  0.9976   -2.3
 0.110  0.9895   -4.2   3.580  176.6  0.0055   85.1  0.9976   -2.4
 0.115  0.9894   -4.4   3.581  176.5  0.0057   85.1  0.9975   -2.5
 0.120  0.9894   -4.6   3.582  176.3  0.0060   85.1  0.9974   -2.6
 0.125  0.9895   -4.8   3.583  176.1  0.0062   85.1  0.9974   -2.7
 0.130  0.9895   -4.9   3.583  175.9  0.0065   85.1  0.9973   -2.9
 0.135  0.9895   -5.1   3.584  175.7  0.0067   85.0  0.9972   -3.0
 0.140  0.9896   -5.3   3.585  175.6  0.0070   85.0  0.9972   -3.1
 0.145  0.9896   -5.5   3.586  175.4  0.0072   85.0  0.9971   -3.2
 0.150  0.9897   -5.7   3.587  175.2  0.0075   85.0  0.9971   -3.3
 0.155  0.9895   -5.9   3.587  175.0  0.0078   84.9  0.9970   -3.4
 0.160  0.9892   -6.1   3.588  174.9  0.0080   84.7  0.9970   -3.5
 0.165  0.9890   -6.3   3.588  174.7  0.0083   84.6  0.9969   -3.6
 0.170  0.9888   -6.5   3.588  174.6  0.0085   84.5  0.9968   -3.7
 0.175  0.9886   -6.6   3.589  174.4  0.0088   84.4  0.9968   -3.8
 0.180  0.9884   -6.8   3.589  174.3  0.0091   84.3  0.9967   -4.0
 0.185  0.9883   -7.0   3.590  174.1  0.0093   84.2  0.9966   -4.1
 0.190  0.9881   -7.2   3.590  174.0  0.0096   84.1  0.9966   -4.2
 0.195  0.9879   -7.4   3.590  173.8  0.0098   84.0  0.9965   -4.3
 0.200  0.9878   -7.6   3.591  173.7  0.0101   83.9  0.9965   -4.4
 0.220  0.9874   -8.4   3.587  172.9  0.0111   83.3  0.9959   -4.8
 0.240  0.9872   -9.1   3.583  172.2  0.0121   82.8  0.9954   -5.2
 0.260  0.9868   -9.9   3.585  171.5  0.0131   82.3  0.9949   -5.6
 0.280  0.9863  -10.6   3.590  170.8  0.0141   81.9  0.9945   -6.1
 0.300  0.9860  -11.4   3.596  170.2  0.0151   81.5  0.9942   -6.6
 0.320  0.9849  -12.2   3.596  169.6  0.0161   81.1  0.9935   -7.0
 0.340  0.9841  -13.0   3.596  168.9  0.0172   80.8  0.9929   -7.5
 0.360  0.9834  -13.8   3.595  168.3  0.0182   80.3  0.9922   -7.9
 0.380  0.9830  -14.5   3.592  167.6  0.0192   79.8  0.9914   -8.4
 0.400  0.9827  -15.2   3.590  166.9  0.0202   79.3  0.9906   -8.8
 0.420  0.9822  -16.0   3.589  166.3  0.0212   78.8  0.9897   -9.2
 0.440  0.9818  -16.7   3.589  165.6  0.0221   78.3  0.9889   -9.6
 0.450  0.9817  -17.1   3.589  165.3  0.0226   78.1  0.9885   -9.8
 0.460  0.9811  -17.5   3.588  164.9  0.0231   77.8  0.9880  -10.0
 0.480  0.9801  -18.3   3.587  164.2  0.0241   77.4  0.9872  -10.5
 0.500  0.9792  -19.1   3.587  163.5  0.0251   76.9  0.9864  -11.0
 0.520  0.9780  -19.9   3.583  162.8  0.0261   76.3  0.9851  -11.4
 0.540  0.9769  -20.7   3.579  162.1  0.0270   75.7  0.9839  -11.8
 0.560  0.9761  -21.4   3.575  161.4  0.0280   75.2  0.9828  -12.3
 0.580  0.9754  -22.2   3.572  160.7  0.0289   74.7  0.9817  -12.7
 0.600  0.9749  -23.0   3.570  160.0  0.0299   74.2  0.9806  -13.1
 0.620  0.9735  -23.8   3.568  159.4  0.0309   73.7  0.9794  -13.5
 0.640  0.9723  -24.5   3.567  158.8  0.0319   73.2  0.9783  -14.0
 0.660  0.9713  -25.3   3.566  158.1  0.0328   72.7  0.9773  -14.4
 0.680  0.9704  -26.0   3.565  157.5  0.0338   72.2  0.9763  -14.9
 0.700  0.9697  -26.8   3.565  156.9  0.0348   71.8  0.9754  -15.3
 0.720  0.9682  -27.6   3.558  156.2  0.0357   71.2  0.9740  -15.7
 0.740  0.9668  -28.3   3.552  155.5  0.0366   70.7  0.9726  -16.1
 0.760  0.9656  -29.1   3.546  154.9  0.0376   70.2  0.9712  -16.6
 0.780  0.9646  -29.8   3.541  154.2  0.0385   69.7  0.9699  -17.0
 0.800  0.9637  -30.6   3.536  153.5  0.0394   69.2  0.9687  -17.4
 0.820  0.9621  -31.4   3.532  152.8  0.0403   68.7  0.9672  -17.8
 0.840  0.9606  -32.2   3.529  152.2  0.0412   68.1  0.9658  -18.3
 0.860  0.9594  -32.9   3.527  151.5  0.0422   67.6  0.9645  -18.7
 0.880  0.9583  -33.7   3.525  150.9  0.0431   67.2  0.9632  -19.2
 0.900  0.9574  -34.5   3.523  150.2  0.0440   66.7  0.9620  -19.6
 0.920  0.9556  -35.3   3.516  149.6  0.0449   66.2  0.9603  -20.0
 0.940  0.9539  -36.0   3.510  148.9  0.0458   65.6  0.9586  -20.4
 0.960  0.9525  -36.8   3.504  148.3  0.0467   65.1  0.9569  -20.9
 0.980  0.9511  -37.5   3.499  147.6  0.0476   64.7  0.9553  -21.3
 1.000  0.9500  -38.3   3.494  147.0  0.0485   64.2  0.9538  -21.7
 1.020  0.9483  -39.1   3.488  146.4  0.0494   63.7  0.9521  -22.1
 1.040  0.9469  -39.9   3.483  145.7  0.0502   63.1  0.9504  -22.5
 1.060  0.9456  -40.6   3.478  145.1  0.0511   62.6  0.9488  -23.0
 1.080  0.9444  -41.4   3.473  144.4  0.0519   62.2  0.9472  -23.4
 1.100  0.9435  -42.2   3.469  143.8  0.0528   61.7  0.9457  -23.8
 1.120  0.9415  -43.0   3.463  143.1  0.0537   61.2  0.9438  -24.2
 1.140  0.9397  -43.8   3.458  142.4  0.0545   60.7  0.9420  -24.7
 1.160  0.9381  -44.5   3.453  141.8  0.0554   60.2  0.9402  -25.1
 1.180  0.9366  -45.3   3.448  141.1  0.0562   59.8  0.9385  -25.6
 1.200  0.9353  -46.1   3.444  140.4  0.0571   59.3  0.9368  -26.0
 1.220  0.9333  -46.9   3.437  139.8  0.0579   58.8  0.9348  -26.4
 1.240  0.9315  -47.7   3.430  139.1  0.0586   58.2  0.9328  -26.8
 1.260  0.9298  -48.4   3.423  138.5  0.0594   57.7  0.9309  -27.3
 1.280  0.9283  -49.2   3.417  137.8  0.0602   57.2  0.9290  -27.7
 1.300  0.9270  -50.0   3.411  137.2  0.0610   56.7  0.9272  -28.1
 1.320  0.9247  -50.8   3.403  136.5  0.0618   56.2  0.9250  -28.5
 1.340  0.9225  -51.5   3.394  135.9  0.0625   55.7  0.9228  -28.9
 1.360  0.9205  -52.3   3.387  135.2  0.0633   55.2  0.9207  -29.4
 1.380  0.9187  -53.1   3.380  134.6  0.0640   54.8  0.9186  -29.8
 1.400  0.9171  -53.9   3.373  133.9  0.0648   54.3  0.9166  -30.2
 1.420  0.9152  -54.6   3.366  133.3  0.0655   53.8  0.9146  -30.6
 1.440  0.9134  -55.4   3.358  132.7  0.0662   53.4  0.9126  -31.0
 1.460  0.9118  -56.1   3.352  132.2  0.0669   52.9  0.9106  -31.3
 1.480  0.9103  -56.9   3.345  131.6  0.0677   52.4  0.9087  -31.7
 1.500  0.9090  -57.6   3.339  131.0  0.0684   52.0  0.9068  -32.1
 1.520  0.9069  -58.4   3.332  130.3  0.0691   51.5  0.9046  -32.5
 1.540  0.9051  -59.2   3.325  129.6  0.0698   50.9  0.9025  -32.9
 1.560  0.9034  -60.0   3.319  129.0  0.0705   50.4  0.9005  -33.4
 1.580  0.9018  -60.8   3.313  128.3  0.0712   49.9  0.8985  -33.8
 1.600  0.9005  -61.6   3.308  127.6  0.0719   49.4  0.8965  -34.2
 1.620  0.8983  -62.4   3.300  127.0  0.0725   48.9  0.8942  -34.6
 1.640  0.8963  -63.1   3.293  126.4  0.0731   48.5  0.8919  -35.0
 1.660  0.8944  -63.9   3.287  125.8  0.0737   48.1  0.8897  -35.3
 1.680  0.8927  -64.6   3.280  125.2  0.0744   47.6  0.8875  -35.7
 1.700  0.8911  -65.4   3.274  124.6  0.0750   47.2  0.8853  -36.1
 1.720  0.8889  -66.2   3.263  124.0  0.0756   46.7  0.8832  -36.5
 1.740  0.8868  -66.9   3.253  123.4  0.0762   46.3  0.8811  -36.9
 1.760  0.8849  -67.7   3.244  122.8  0.0768   45.9  0.8790  -37.2
 1.780  0.8832  -68.4   3.234  122.2  0.0774   45.4  0.8770  -37.6
 1.800  0.8816  -69.2   3.225  121.6  0.0780   45.0  0.8750  -38.0
 1.820  0.8794  -70.0   3.220  121.0  0.0786   44.5  0.8727  -38.4
 1.840  0.8773  -70.7   3.214  120.4  0.0792   44.1  0.8704  -38.8
 1.860  0.8754  -71.5   3.210  119.9  0.0798   43.7  0.8682  -39.2
 1.880  0.8736  -72.2   3.205  119.3  0.0805   43.2  0.8660  -39.6
 1.900  0.8720  -73.0   3.201  118.7  0.0811   42.8  0.8639  -40.0
 1.920  0.8698  -73.7   3.191  118.1  0.0816   42.3  0.8616  -40.4
 1.940  0.8678  -74.4   3.181  117.5  0.0821   41.9  0.8594  -40.7
 1.960  0.8659  -75.2   3.171  116.9  0.0826   41.5  0.8572  -41.1
 1.980  0.8642  -75.9   3.162  116.3  0.0832   41.0  0.8550  -41.4
 2.000  0.8626  -76.6   3.153  115.7  0.0837   40.6  0.8529  -41.8
 2.020  0.8599  -77.4   3.145  115.1  0.0842   40.1  0.8503  -42.2
 2.040  0.8574  -78.1   3.137  114.5  0.0847   39.7  0.8477  -42.6
 2.060  0.8550  -78.9   3.130  114.0  0.0851   39.3  0.8452  -42.9
 2.080  0.8528  -79.7   3.123  113.4  0.0856   38.8  0.8427  -43.3
 2.100  0.8508  -80.5   3.116  112.8  0.0861   38.4  0.8403  -43.7
 2.120  0.8489  -81.3   3.110  112.2  0.0866   38.0  0.8379  -44.1
 2.140  0.8472  -82.1   3.104  111.6  0.0871   37.5  0.8355  -44.5
 2.160  0.8456  -82.9   3.098  111.0  0.0877   37.1  0.8331  -44.9
 2.180  0.8442  -83.7   3.093  110.4  0.0882   36.7  0.8309  -45.3
 2.200  0.8430  -84.5   3.088  109.8  0.0887   36.3  0.8286  -45.7
 2.220  0.8402  -85.3   3.079  109.2  0.0891   35.9  0.8260  -46.1
 2.240  0.8376  -86.0   3.071  108.6  0.0895   35.4  0.8234  -46.4
 2.260  0.8351  -86.8   3.063  108.1  0.0900   35.0  0.8209  -46.8
 2.280  0.8328  -87.6   3.056  107.5  0.0904   34.6  0.8184  -47.2
 2.300  0.8307  -88.4   3.048  106.9  0.0908   34.1  0.8159  -47.6
 2.320  0.8287  -89.1   3.042  106.3  0.0913   33.7  0.8135  -48.0
 2.340  0.8268  -89.9   3.035  105.7  0.0917   33.3  0.8111  -48.3
 2.360  0.8251  -90.7   3.029  105.1  0.0922   32.9  0.8087  -48.7
 2.380  0.8236  -91.5   3.023  104.5  0.0926   32.5  0.8064  -49.1
 2.400  0.8222  -92.3   3.017  103.9  0.0931   32.1  0.8041  -49.5
 2.420  0.8195  -93.1   3.008  103.3  0.0934   31.7  0.8013  -49.9
 2.440  0.8170  -93.9   2.998  102.8  0.0937   31.2  0.7985  -50.3
 2.460  0.8147  -94.7   2.990  102.2  0.0941   30.8  0.7958  -50.6
 2.480  0.8125  -95.5   2.981  101.6  0.0944   30.3  0.7931  -51.0
 2.500  0.8104  -96.3   2.973  101.0  0.0947   29.9  0.7905  -51.4
 2.520  0.8085  -97.1   2.965  100.5  0.0951   29.5  0.7879  -51.8
 2.540  0.8068  -97.9   2.957   99.9  0.0954   29.1  0.7853  -52.2
 2.560  0.8052  -98.7   2.950   99.3  0.0958   28.6  0.7828  -52.6
 2.580  0.8038  -99.5   2.943   98.7  0.0961   28.2  0.7803  -53.0
 2.600  0.8026 -100.3   2.936   98.1  0.0965   27.8  0.7778  -53.4
 2.620  0.8000 -101.1   2.927   97.6  0.0967   27.4  0.7751  -53.8
 2.640  0.7975 -101.8   2.918   97.0  0.0970   27.0  0.7724  -54.1
 2.660  0.7951 -102.6   2.909   96.5  0.0972   26.6  0.7698  -54.5
 2.680  0.7929 -103.3   2.900   95.9  0.0974   26.2  0.7672  -54.9
 2.700  0.7909 -104.1   2.892   95.3  0.0977   25.8  0.7647  -55.2
 2.720  0.7889 -104.9   2.884   94.8  0.0979   25.4  0.7621  -55.6
 2.740  0.7872 -105.7   2.876   94.2  0.0982   25.0  0.7596  -56.0
 2.760  0.7855 -106.4   2.869   93.6  0.0985   24.7  0.7571  -56.3
 2.780  0.7840 -107.2   2.862   93.1  0.0987   24.3  0.7547  -56.7
 2.800  0.7827 -108.0   2.855   92.5  0.0990   23.9  0.7523  -57.1
 2.820  0.7806 -108.8   2.846   92.0  0.0992   23.5  0.7498  -57.5
 2.840  0.7787 -109.5   2.838   91.4  0.0993   23.1  0.7472  -57.8
 2.860  0.7769 -110.3   2.829   90.9  0.0995   22.7  0.7448  -58.2
 2.880  0.7753 -111.0   2.821   90.3  0.0997   22.3  0.7423  -58.6
 2.900  0.7738 -111.8   2.814   89.8  0.0999   21.9  0.7399  -59.0
 2.920  0.7724 -112.6   2.806   89.2  0.1001   21.5  0.7375  -59.4
 2.940  0.7711 -113.4   2.799   88.7  0.1003   21.2  0.7352  -59.7
 2.960  0.7701 -114.1   2.792   88.1  0.1005   20.8  0.7328  -60.1
 2.980  0.7691 -114.9   2.785   87.6  0.1007   20.4  0.7306  -60.5
 3.000  0.7683 -115.7   2.779   87.0  0.1009   20.0  0.7283  -60.9
 3.100  0.7552 -119.3   2.729   84.5  0.1010   18.3  0.7155  -62.6
 3.200  0.7452 -123.1   2.684   81.8  0.1012   16.7  0.7033  -64.4
 3.300  0.7384 -126.9   2.645   79.1  0.1015   15.0  0.6919  -66.3
 3.400  0.7351 -130.8   2.612   76.3  0.1019   13.3  0.6812  -68.2
 3.500  0.7351 -134.7   2.586   73.5  0.1024   11.7  0.6713  -70.2
 3.600  0.7246 -138.4   2.539   71.0  0.1021   10.4  0.6598  -72.0
 3.700  0.7171 -142.1   2.498   68.5  0.1018    9.0  0.6490  -73.8
 3.800  0.7128 -146.0   2.461   65.9  0.1016    7.7  0.6388  -75.7
 3.900  0.7117 -149.8   2.430   63.2  0.1014    6.4  0.6294  -77.6
 4.000  0.7138 -153.7   2.404   60.4  0.1013    5.0  0.6207  -79.6
 4.100  0.7058 -157.3   2.353   58.0  0.1004    3.9  0.6101  -81.6
 4.200  0.7006 -160.9   2.307   55.5  0.0996    2.7  0.6002  -83.8
 4.300  0.6984 -164.6   2.266   52.9  0.0988    1.5  0.5913  -85.9
 4.400  0.6990 -168.3   2.229   50.2  0.0980    0.3  0.5832  -88.2
 4.500  0.7025 -172.0   2.197   47.4  0.0973   -0.9  0.5760  -90.5
 4.600  0.6977 -175.0   2.146   45.3  0.0959   -1.5  0.5676  -92.5
 4.700  0.6949 -178.0   2.098   43.1  0.0946   -2.2  0.5599  -94.5
 4.800  0.6939  179.0   2.054   40.8  0.0932   -2.9  0.5529  -96.5
 4.900  0.6949  176.0   2.012   38.4  0.0919   -3.6  0.5466  -98.6
 5.000  0.6978  173.0   1.975   35.9  0.0906   -4.3  0.5411 -100.8
 5.100  0.6952  170.5   1.933   34.0  0.0893   -4.4  0.5336 -102.6
 5.200  0.6938  168.1   1.893   32.1  0.0880   -4.5  0.5267 -104.5
 5.300  0.6938  165.6   1.855   30.0  0.0868   -4.6  0.5203 -106.4
 5.400  0.6950  163.2   1.820   27.9  0.0855   -4.7  0.5145 -108.4
 5.500  0.6975  160.7   1.787   25.7  0.0842   -4.8  0.5094 -110.4
 5.600  0.6970  158.5   1.755   23.9  0.0834   -4.3  0.5028 -112.4
 5.700  0.6975  156.3   1.724   22.1  0.0827   -3.8  0.4968 -114.5
 5.800  0.6990  154.1   1.696   20.2  0.0820   -3.3  0.4915 -116.6
 5.900  0.7015  152.0   1.669   18.2  0.0812   -2.7  0.4869 -118.8
 6.000  0.7050  149.8   1.644   16.2  0.0805   -2.2  0.4830 -121.0
 6.100  0.7058  147.8   1.617   14.4  0.0806   -1.5  0.4788 -123.2
 6.200  0.7076  145.8   1.592   12.6  0.0808   -0.7  0.4754 -125.5
 6.300  0.7101  143.8   1.569   10.7  0.0809    0.0  0.4727 -127.8
 6.400  0.7136  141.8   1.547    8.7  0.0811    0.8  0.4708 -130.1
 6.500  0.7179  139.8   1.527    6.7  0.0813    1.5  0.4696 -132.4
 6.600  0.7184  137.8   1.502    4.9  0.0823    2.3  0.4661 -134.6
 6.800  0.7220  133.8   1.457    1.2  0.0843    3.7  0.4611 -138.9
 7.000  0.7290  129.9   1.419   -2.7  0.0863    5.1  0.4588 -143.4
 7.200  0.7310  125.7   1.375   -6.3  0.0900    5.8  0.4518 -148.4
 7.400  0.7370  121.5   1.336  -10.0  0.0937    6.4  0.4484 -153.5
 7.600  0.7423  117.2   1.294  -13.8  0.0976    6.4  0.4447 -159.1
 7.800  0.7474  112.9   1.249  -17.6  0.1019    5.9  0.4420 -165.2
 8.000  0.7566  108.7   1.209  -21.7  0.1061    5.4  0.4442 -171.3
 8.200  0.7587  104.9   1.159  -24.9  0.1098    4.4  0.4394 -177.4
 8.400  0.7640  101.2   1.113  -28.4  0.1134    3.5  0.4397  176.5
 8.600  0.7723   97.7   1.072  -31.8  0.1171    2.6  0.4408  170.2
 8.800  0.7827   94.6   1.035  -34.8  0.1209    1.6  0.4432  163.8
 9.000  0.7954   91.6   1.001  -38.1  0.1246    0.6  0.4511  157.5
 9.200  0.8158   88.6   0.967  -41.0  0.1284   -0.7  0.4647  150.9
 9.400  0.8382   85.8   0.936  -44.2  0.1322   -2.0  0.4841  144.8
 9.600  0.8581   82.9   0.899  -47.4  0.1360   -3.5  0.5082  139.2
 9.800  0.8756   79.9   0.855  -50.7  0.1400   -5.3  0.5364  134.1
10.000  0.8953   77.1   0.814  -54.4  0.1441   -6.9  0.5683  129.6
!
!  f       NFmin   Gammaopt  rn/50
! GHz       dB    MAG  ANG    -
 0.450      0.63  0.83   11   0.40
 0.900      0.70  0.75   24   0.39
 1.900      0.92  0.61   55   0.31
 2.400      1.10  0.54   74   0.29
 5.500      1.99  0.47 -156   0.25
!
! (c) 2016  Infineon Technologies AG, Munich
