! Infineon Technologies  Discrete & RF Semiconductors
! BFP640FESD
! VCE =  1.0 V,  IC =  2.0 mA
! Common Emitter S-Parameters:                            Jan 2016
# GHz  S  MA  R  50
!  f         S11            S21            S12            S22
! GHz     MAG   ANG      MAG   ANG      MAG   ANG      MAG   ANG
 0.010  0.9852   -0.7   6.713  179.6  0.0004   77.1  0.9961    0.1
 0.015  0.9799   -0.7   6.709  179.6  0.0008   85.1  0.9978   -0.3
 0.020  0.9747   -0.8   6.706  179.6  0.0013   87.5  0.9995   -0.7
 0.025  0.9747   -1.1   6.708  179.4  0.0016   88.0  0.9995   -0.8
 0.030  0.9747   -1.3   6.710  179.1  0.0019   88.3  0.9994   -1.0
 0.035  0.9747   -1.6   6.712  178.9  0.0022   88.5  0.9994   -1.1
 0.040  0.9747   -1.8   6.714  178.7  0.0026   88.7  0.9993   -1.2
 0.045  0.9747   -2.1   6.717  178.4  0.0029   88.8  0.9993   -1.4
 0.050  0.9748   -2.3   6.719  178.2  0.0032   88.9  0.9993   -1.5
 0.055  0.9745   -2.5   6.724  178.1  0.0035   88.6  0.9992   -1.6
 0.060  0.9742   -2.7   6.729  177.9  0.0038   88.4  0.9991   -1.8
 0.065  0.9739   -3.0   6.734  177.8  0.0041   88.2  0.9990   -1.9
 0.070  0.9736   -3.2   6.739  177.7  0.0044   88.0  0.9989   -2.1
 0.075  0.9734   -3.4   6.744  177.5  0.0047   87.8  0.9989   -2.2
 0.080  0.9731   -3.6   6.749  177.4  0.0051   87.7  0.9988   -2.4
 0.085  0.9729   -3.8   6.754  177.3  0.0054   87.6  0.9987   -2.5
 0.090  0.9727   -4.1   6.760  177.2  0.0057   87.5  0.9987   -2.7
 0.095  0.9725   -4.3   6.765  177.0  0.0060   87.4  0.9986   -2.8
 0.100  0.9723   -4.5   6.770  176.9  0.0063   87.3  0.9986   -3.0
 0.105  0.9722   -4.8   6.772  176.7  0.0066   87.1  0.9984   -3.2
 0.110  0.9720   -5.0   6.775  176.5  0.0069   86.9  0.9983   -3.3
 0.115  0.9719   -5.3   6.777  176.3  0.0073   86.7  0.9982   -3.5
 0.120  0.9719   -5.5   6.780  176.1  0.0076   86.5  0.9980   -3.6
 0.125  0.9718   -5.8   6.782  175.9  0.0079   86.3  0.9979   -3.8
 0.130  0.9718   -6.1   6.785  175.7  0.0082   86.2  0.9978   -4.0
 0.135  0.9717   -6.3   6.788  175.5  0.0085   86.1  0.9977   -4.1
 0.140  0.9717   -6.6   6.791  175.3  0.0089   85.9  0.9976   -4.3
 0.145  0.9718   -6.8   6.794  175.1  0.0092   85.8  0.9975   -4.4
 0.150  0.9718   -7.1   6.797  174.9  0.0095   85.7  0.9974   -4.6
 0.155  0.9718   -7.3   6.797  174.7  0.0098   85.5  0.9972   -4.7
 0.160  0.9718   -7.5   6.797  174.6  0.0101   85.4  0.9970   -4.9
 0.165  0.9718   -7.8   6.797  174.4  0.0104   85.2  0.9968   -5.0
 0.170  0.9718   -8.0   6.797  174.2  0.0107   85.1  0.9967   -5.2
 0.175  0.9719   -8.2   6.797  174.0  0.0110   85.0  0.9965   -5.3
 0.180  0.9719   -8.4   6.797  173.9  0.0114   84.8  0.9964   -5.5
 0.185  0.9720   -8.6   6.797  173.7  0.0117   84.7  0.9962   -5.6
 0.190  0.9721   -8.9   6.797  173.5  0.0120   84.6  0.9961   -5.8
 0.195  0.9722   -9.1   6.798  173.4  0.0123   84.5  0.9959   -5.9
 0.200  0.9723   -9.3   6.798  173.2  0.0126   84.4  0.9958   -6.1
 0.220  0.9714  -10.3   6.788  172.4  0.0139   83.8  0.9948   -6.7
 0.240  0.9708  -11.2   6.780  171.5  0.0152   83.2  0.9940   -7.3
 0.260  0.9702  -12.2   6.779  170.8  0.0164   82.7  0.9930   -7.9
 0.280  0.9697  -13.1   6.785  170.1  0.0177   82.1  0.9918   -8.5
 0.300  0.9694  -14.1   6.793  169.4  0.0190   81.6  0.9907   -9.1
 0.320  0.9680  -15.0   6.787  168.7  0.0203   80.9  0.9893   -9.7
 0.340  0.9668  -15.9   6.783  168.0  0.0216   80.4  0.9881  -10.3
 0.360  0.9658  -16.9   6.776  167.3  0.0228   79.8  0.9867  -10.9
 0.380  0.9651  -17.8   6.766  166.6  0.0240   79.2  0.9852  -11.5
 0.400  0.9646  -18.7   6.758  165.8  0.0252   78.7  0.9838  -12.1
 0.420  0.9635  -19.6   6.753  165.1  0.0265   78.0  0.9821  -12.7
 0.440  0.9627  -20.5   6.749  164.4  0.0278   77.4  0.9806  -13.2
 0.450  0.9624  -21.0   6.747  164.0  0.0284   77.1  0.9798  -13.5
 0.460  0.9616  -21.5   6.742  163.6  0.0290   76.8  0.9788  -13.8
 0.480  0.9601  -22.4   6.732  162.9  0.0302   76.2  0.9769  -14.5
 0.500  0.9589  -23.4   6.723  162.2  0.0314   75.7  0.9751  -15.1
 0.520  0.9572  -24.3   6.708  161.4  0.0326   75.0  0.9728  -15.7
 0.540  0.9557  -25.2   6.695  160.7  0.0338   74.4  0.9706  -16.3
 0.560  0.9545  -26.2   6.683  159.9  0.0350   73.8  0.9684  -16.8
 0.580  0.9535  -27.1   6.672  159.2  0.0362   73.2  0.9664  -17.4
 0.600  0.9528  -28.0   6.662  158.4  0.0374   72.7  0.9645  -18.0
 0.620  0.9508  -28.9   6.650  157.7  0.0386   72.1  0.9620  -18.6
 0.640  0.9490  -29.9   6.640  157.0  0.0397   71.5  0.9596  -19.2
 0.660  0.9474  -30.8   6.630  156.4  0.0409   70.9  0.9573  -19.7
 0.680  0.9461  -31.8   6.621  155.7  0.0420   70.4  0.9551  -20.3
 0.700  0.9451  -32.7   6.613  155.0  0.0432   69.9  0.9530  -20.9
 0.720  0.9432  -33.6   6.590  154.3  0.0443   69.3  0.9501  -21.5
 0.740  0.9415  -34.5   6.569  153.6  0.0454   68.7  0.9473  -22.0
 0.760  0.9401  -35.3   6.548  152.9  0.0465   68.1  0.9445  -22.6
 0.780  0.9388  -36.2   6.529  152.2  0.0477   67.5  0.9419  -23.2
 0.800  0.9378  -37.1   6.510  151.5  0.0488   67.0  0.9394  -23.8
 0.820  0.9352  -38.0   6.492  150.8  0.0498   66.4  0.9365  -24.4
 0.840  0.9328  -38.9   6.474  150.1  0.0509   65.8  0.9336  -24.9
 0.860  0.9306  -39.8   6.458  149.4  0.0520   65.3  0.9309  -25.5
 0.880  0.9287  -40.7   6.442  148.7  0.0530   64.7  0.9282  -26.0
 0.900  0.9270  -41.6   6.428  148.0  0.0541   64.2  0.9256  -26.6
 0.920  0.9246  -42.5   6.406  147.3  0.0551   63.6  0.9223  -27.1
 0.940  0.9225  -43.4   6.386  146.7  0.0562   63.0  0.9192  -27.7
 0.960  0.9206  -44.3   6.366  146.0  0.0572   62.5  0.9161  -28.2
 0.980  0.9189  -45.2   6.347  145.3  0.0582   61.9  0.9130  -28.8
 1.000  0.9174  -46.1   6.329  144.6  0.0593   61.4  0.9101  -29.3
 1.020  0.9151  -47.0   6.307  143.9  0.0602   60.8  0.9067  -29.9
 1.040  0.9130  -47.8   6.286  143.3  0.0612   60.3  0.9034  -30.4
 1.060  0.9111  -48.7   6.266  142.6  0.0622   59.7  0.9001  -31.0
 1.080  0.9094  -49.6   6.246  141.9  0.0631   59.2  0.8970  -31.5
 1.100  0.9080  -50.5   6.228  141.2  0.0641   58.7  0.8939  -32.1
 1.120  0.9055  -51.4   6.202  140.5  0.0650   58.1  0.8904  -32.6
 1.140  0.9031  -52.2   6.178  139.9  0.0659   57.6  0.8869  -33.2
 1.160  0.9010  -53.1   6.154  139.2  0.0668   57.0  0.8836  -33.7
 1.180  0.8991  -54.0   6.131  138.5  0.0678   56.5  0.8803  -34.3
 1.200  0.8974  -54.9   6.109  137.8  0.0687   56.0  0.8771  -34.8
 1.220  0.8948  -55.7   6.084  137.2  0.0695   55.4  0.8736  -35.3
 1.240  0.8923  -56.6   6.060  136.5  0.0704   54.9  0.8702  -35.9
 1.260  0.8900  -57.4   6.037  135.9  0.0712   54.3  0.8669  -36.4
 1.280  0.8880  -58.3   6.014  135.2  0.0720   53.8  0.8637  -37.0
 1.300  0.8861  -59.1   5.992  134.6  0.0729   53.3  0.8605  -37.5
 1.320  0.8832  -59.9   5.965  134.0  0.0737   52.8  0.8567  -38.0
 1.340  0.8806  -60.8   5.938  133.3  0.0744   52.2  0.8530  -38.5
 1.360  0.8781  -61.6   5.913  132.6  0.0752   51.7  0.8494  -39.0
 1.380  0.8758  -62.5   5.888  132.0  0.0760   51.2  0.8458  -39.6
 1.400  0.8737  -63.3   5.864  131.3  0.0768   50.7  0.8423  -40.1
 1.420  0.8713  -64.1   5.838  130.7  0.0775   50.2  0.8388  -40.6
 1.440  0.8691  -64.8   5.813  130.2  0.0783   49.8  0.8354  -41.0
 1.460  0.8671  -65.6   5.789  129.6  0.0790   49.3  0.8320  -41.5
 1.480  0.8652  -66.3   5.765  129.0  0.0798   48.8  0.8287  -42.0
 1.500  0.8634  -67.1   5.742  128.4  0.0805   48.4  0.8255  -42.5
 1.520  0.8609  -67.9   5.717  127.8  0.0811   47.9  0.8218  -43.0
 1.540  0.8586  -68.7   5.692  127.1  0.0818   47.4  0.8183  -43.5
 1.560  0.8565  -69.5   5.668  126.5  0.0825   46.9  0.8147  -44.0
 1.580  0.8545  -70.4   5.645  125.9  0.0831   46.4  0.8113  -44.6
 1.600  0.8527  -71.2   5.622  125.2  0.0838   45.9  0.8079  -45.1
 1.620  0.8501  -71.9   5.594  124.7  0.0844   45.4  0.8045  -45.6
 1.640  0.8476  -72.7   5.567  124.1  0.0850   45.0  0.8012  -46.0
 1.660  0.8453  -73.4   5.540  123.5  0.0856   44.6  0.7979  -46.5
 1.680  0.8431  -74.2   5.514  123.0  0.0862   44.1  0.7947  -46.9
 1.700  0.8411  -74.9   5.488  122.4  0.0868   43.7  0.7915  -47.4
 1.720  0.8388  -75.6   5.458  121.8  0.0873   43.3  0.7882  -47.9
 1.740  0.8367  -76.4   5.430  121.3  0.0879   42.8  0.7850  -48.3
 1.760  0.8347  -77.1   5.401  120.7  0.0884   42.4  0.7819  -48.8
 1.780  0.8328  -77.9   5.373  120.1  0.0890   42.0  0.7788  -49.2
 1.800  0.8311  -78.6   5.346  119.5  0.0895   41.6  0.7757  -49.7
 1.820  0.8289  -79.3   5.322  119.0  0.0900   41.2  0.7723  -50.2
 1.840  0.8267  -80.0   5.299  118.5  0.0906   40.7  0.7690  -50.6
 1.860  0.8248  -80.7   5.276  118.0  0.0911   40.3  0.7657  -51.1
 1.880  0.8229  -81.5   5.253  117.4  0.0917   39.9  0.7625  -51.5
 1.900  0.8212  -82.2   5.231  116.9  0.0922   39.5  0.7593  -52.0
 1.920  0.8190  -82.8   5.201  116.4  0.0926   39.1  0.7563  -52.4
 1.940  0.8169  -83.5   5.172  115.8  0.0930   38.7  0.7533  -52.8
 1.960  0.8148  -84.1   5.144  115.3  0.0934   38.3  0.7504  -53.3
 1.980  0.8129  -84.8   5.116  114.8  0.0939   37.9  0.7475  -53.7
 2.000  0.8111  -85.4   5.088  114.2  0.0943   37.5  0.7446  -54.1
 2.020  0.8087  -86.1   5.063  113.7  0.0947   37.1  0.7414  -54.5
 2.040  0.8064  -86.7   5.037  113.2  0.0951   36.7  0.7383  -55.0
 2.060  0.8042  -87.4   5.013  112.7  0.0955   36.3  0.7352  -55.4
 2.080  0.8021  -88.1   4.989  112.2  0.0958   35.9  0.7321  -55.8
 2.100  0.8001  -88.8   4.965  111.7  0.0962   35.6  0.7291  -56.3
 2.120  0.7983  -89.4   4.941  111.2  0.0966   35.2  0.7261  -56.7
 2.140  0.7965  -90.1   4.918  110.7  0.0971   34.8  0.7232  -57.1
 2.160  0.7949  -90.8   4.895  110.2  0.0975   34.4  0.7203  -57.6
 2.180  0.7934  -91.5   4.873  109.6  0.0979   34.1  0.7175  -58.0
 2.200  0.7920  -92.2   4.851  109.1  0.0983   33.7  0.7147  -58.5
 2.220  0.7897  -92.8   4.826  108.6  0.0986   33.3  0.7118  -58.9
 2.240  0.7875  -93.5   4.801  108.2  0.0990   33.0  0.7090  -59.3
 2.260  0.7853  -94.1   4.777  107.7  0.0993   32.6  0.7061  -59.7
 2.280  0.7833  -94.7   4.753  107.2  0.0997   32.2  0.7034  -60.1
 2.300  0.7814  -95.4   4.729  106.8  0.1000   31.9  0.7006  -60.5
 2.320  0.7795  -96.0   4.706  106.3  0.1004   31.5  0.6979  -60.9
 2.340  0.7778  -96.6   4.683  105.8  0.1007   31.2  0.6952  -61.3
 2.360  0.7762  -97.3   4.660  105.3  0.1011   30.8  0.6926  -61.8
 2.380  0.7746  -97.9   4.638  104.8  0.1014   30.4  0.6900  -62.2
 2.400  0.7732  -98.6   4.616  104.3  0.1018   30.1  0.6874  -62.6
 2.420  0.7711  -99.2   4.592  103.9  0.1020   29.7  0.6847  -63.0
 2.440  0.7691  -99.8   4.569  103.4  0.1022   29.4  0.6819  -63.4
 2.460  0.7671 -100.5   4.546  103.0  0.1025   29.0  0.6793  -63.8
 2.480  0.7653 -101.1   4.523  102.5  0.1027   28.7  0.6766  -64.2
 2.500  0.7635 -101.7   4.501  102.1  0.1030   28.3  0.6740  -64.6
 2.520  0.7619 -102.3   4.479  101.6  0.1032   28.0  0.6714  -65.0
 2.540  0.7603 -103.0   4.457  101.1  0.1034   27.6  0.6689  -65.4
 2.560  0.7589 -103.6   4.435  100.7  0.1037   27.3  0.6664  -65.9
 2.580  0.7575 -104.3   4.414  100.2  0.1039   26.9  0.6639  -66.3
 2.600  0.7562 -104.9   4.393   99.7  0.1042   26.6  0.6615  -66.7
 2.620  0.7542 -105.5   4.370   99.3  0.1044   26.3  0.6591  -67.1
 2.640  0.7523 -106.1   4.346   98.9  0.1045   26.0  0.6567  -67.4
 2.660  0.7505 -106.6   4.323   98.5  0.1047   25.7  0.6543  -67.8
 2.680  0.7487 -107.2   4.301   98.0  0.1048   25.4  0.6519  -68.1
 2.700  0.7471 -107.8   4.278   97.6  0.1050   25.1  0.6496  -68.5
 2.720  0.7455 -108.4   4.256   97.2  0.1052   24.8  0.6473  -68.9
 2.740  0.7440 -109.0   4.234   96.7  0.1054   24.5  0.6450  -69.3
 2.760  0.7425 -109.6   4.212   96.3  0.1055   24.2  0.6428  -69.6
 2.780  0.7412 -110.2   4.190   95.9  0.1057   23.9  0.6406  -70.0
 2.800  0.7399 -110.8   4.169   95.4  0.1059   23.6  0.6384  -70.4
 2.820  0.7385 -111.3   4.148   95.0  0.1060   23.3  0.6363  -70.7
 2.840  0.7372 -111.8   4.126   94.6  0.1061   23.0  0.6343  -71.1
 2.860  0.7359 -112.4   4.105   94.2  0.1062   22.7  0.6323  -71.4
 2.880  0.7347 -112.9   4.085   93.8  0.1063   22.4  0.6303  -71.8
 2.900  0.7336 -113.4   4.064   93.4  0.1065   22.1  0.6283  -72.1
 2.920  0.7325 -114.0   4.043   93.0  0.1066   21.9  0.6264  -72.5
 2.940  0.7315 -114.5   4.023   92.6  0.1067   21.6  0.6244  -72.8
 2.960  0.7306 -115.0   4.003   92.2  0.1068   21.3  0.6225  -73.2
 2.980  0.7297 -115.6   3.984   91.7  0.1070   21.0  0.6207  -73.5
 3.000  0.7289 -116.1   3.964   91.3  0.1071   20.7  0.6188  -73.9
 3.100  0.7217 -118.4   3.869   89.7  0.1073   19.6  0.6107  -75.3
 3.200  0.7158 -120.8   3.778   88.0  0.1075   18.4  0.6029  -76.7
 3.300  0.7111 -123.3   3.691   86.2  0.1077   17.3  0.5955  -78.1
 3.400  0.7078 -125.7   3.607   84.3  0.1080   16.1  0.5884  -79.6
 3.500  0.7057 -128.2   3.527   82.3  0.1083   15.0  0.5818  -81.1
 3.600  0.7021 -130.3   3.454   80.8  0.1083   14.1  0.5758  -82.2
 3.700  0.6994 -132.4   3.384   79.3  0.1083   13.2  0.5700  -83.4
 3.800  0.6978 -134.6   3.316   77.8  0.1083   12.4  0.5645  -84.6
 3.900  0.6971 -136.7   3.251   76.1  0.1083   11.5  0.5592  -85.8
 4.000  0.6974 -138.9   3.188   74.4  0.1084   10.6  0.5542  -87.0
 4.100  0.6955 -141.0   3.127   72.9  0.1083    9.8  0.5485  -88.3
 4.200  0.6945 -143.1   3.068   71.3  0.1082    9.0  0.5431  -89.6
 4.300  0.6944 -145.3   3.011   69.7  0.1082    8.1  0.5379  -90.9
 4.400  0.6953 -147.4   2.957   68.0  0.1081    7.3  0.5331  -92.3
 4.500  0.6972 -149.5   2.905   66.3  0.1081    6.5  0.5286  -93.7
 4.600  0.6952 -151.4   2.849   64.9  0.1076    5.7  0.5233  -94.9
 4.700  0.6940 -153.3   2.794   63.4  0.1071    5.0  0.5182  -96.2
 4.800  0.6936 -155.2   2.741   61.9  0.1067    4.2  0.5134  -97.5
 4.900  0.6939 -157.1   2.690   60.3  0.1062    3.4  0.5089  -98.8
 5.000  0.6950 -159.0   2.642   58.6  0.1058    2.6  0.5046 -100.1
 5.100  0.6917 -160.5   2.594   57.4  0.1050    2.3  0.4997 -101.1
 5.200  0.6888 -162.0   2.546   56.1  0.1041    1.9  0.4950 -102.2
 5.300  0.6864 -163.6   2.500   54.7  0.1033    1.5  0.4905 -103.2
 5.400  0.6846 -165.1   2.456   53.3  0.1024    1.2  0.4861 -104.3
 5.500  0.6832 -166.7   2.413   51.9  0.1016    0.8  0.4819 -105.4
 5.600  0.6816 -168.4   2.379   50.6  0.1013    0.3  0.4767 -106.6
 5.700  0.6805 -170.0   2.346   49.3  0.1011   -0.1  0.4717 -107.9
 5.800  0.6800 -171.7   2.314   48.0  0.1008   -0.6  0.4669 -109.2
 5.900  0.6801 -173.3   2.284   46.6  0.1005   -1.0  0.4624 -110.5
 6.000  0.6808 -175.0   2.255   45.2  0.1003   -1.5  0.4581 -111.8
 6.100  0.6787 -176.7   2.223   43.9  0.0996   -1.9  0.4526 -113.1
 6.200  0.6773 -178.5   2.192   42.5  0.0989   -2.2  0.4473 -114.5
 6.300  0.6765  179.7   2.162   41.1  0.0982   -2.6  0.4423 -115.8
 6.400  0.6764  178.0   2.133   39.7  0.0976   -2.9  0.4375 -117.3
 6.500  0.6769  176.2   2.106   38.2  0.0969   -3.3  0.4330 -118.7
 6.600  0.6761  174.5   2.074   36.9  0.0959   -3.4  0.4274 -119.8
 6.800  0.6764  171.2   2.013   34.3  0.0940   -3.5  0.4168 -122.0
 7.000  0.6789  167.8   1.956   31.5  0.0921   -3.6  0.4068 -124.4
 7.200  0.6809  164.7   1.899   29.1  0.0906   -2.9  0.3943 -126.7
 7.400  0.6849  161.5   1.845   26.6  0.0891   -2.2  0.3824 -129.2
 7.600  0.6911  158.4   1.796   24.0  0.0885   -1.4  0.3708 -132.5
 7.800  0.6993  155.3   1.753   21.3  0.0887   -0.5  0.3603 -136.6
 8.000  0.7096  152.3   1.714   18.5  0.0890    0.4  0.3517 -140.9
 8.200  0.7134  149.4   1.661   15.9  0.0896    0.6  0.3434 -146.5
 8.400  0.7190  146.5   1.612   13.1  0.0902    0.9  0.3384 -152.3
 8.600  0.7218  143.9   1.562   10.4  0.0905    1.1  0.3341 -158.3
 8.800  0.7212  141.6   1.510    7.8  0.0906    1.2  0.3307 -164.5
 9.000  0.7219  139.2   1.461    5.1  0.0907    1.3  0.3313 -170.8
 9.200  0.7236  137.3   1.413    3.3  0.0910    1.5  0.3346 -177.3
 9.400  0.7262  135.4   1.367    1.4  0.0913    1.8  0.3422  176.4
 9.600  0.7329  133.3   1.326   -0.7  0.0916    2.1  0.3548  170.3
 9.800  0.7442  131.0   1.289   -3.1  0.0919    2.5  0.3726  164.4
10.000  0.7567  128.7   1.254   -5.6  0.0921    2.9  0.3939  159.1
!
!  f       NFmin   Gammaopt  rn/50
! GHz       dB    MAG  ANG    -
 0.450      0.44  0.76    9   0.24
 2.400      0.82  0.46   59   0.20
 5.500      1.23  0.53  146   0.09
10.000      2.50  0.60 -127   0.33
!
! (c) 2016  Infineon Technologies AG, Munich
