! Infineon Technologies  Discrete & RF Semiconductors
! BFP620F
! VCE =  1.3 V,  IC =  27 mA
! Common Emitter S-Parameters:                            Dec 2014
# GHz  S  MA  R  50
!  f         S11            S21            S12            S22
! GHz     MAG   ANG      MAG   ANG      MAG   ANG      MAG   ANG
 0.030  0.7177   -6.6  52.878  174.9  0.0028   88.7  0.9721   -3.9
 0.040  0.7153   -8.8  52.850  173.1  0.0036   83.9  0.9743   -5.8
 0.050  0.7120  -11.2  52.741  171.4  0.0047   79.5  0.9747   -7.5
 0.060  0.7085  -13.0  52.561  169.8  0.0053   91.6  0.9735   -9.1
 0.070  0.7041  -15.0  52.309  168.0  0.0057   83.8  0.9676  -10.9
 0.080  0.7040  -17.3  52.046  166.3  0.0068   87.5  0.9667  -12.8
 0.090  0.6977  -19.3  51.674  164.6  0.0077   84.9  0.9608  -14.6
 0.100  0.6923  -21.3  51.246  163.0  0.0085   77.0  0.9546  -16.1
 0.110  0.6878  -23.4  50.766  161.3  0.0098   78.3  0.9481  -17.9
 0.120  0.6832  -25.6  50.326  159.7  0.0101   80.1  0.9420  -19.6
 0.130  0.6782  -27.6  49.937  158.2  0.0102   78.2  0.9342  -21.2
 0.140  0.6725  -29.5  49.392  156.7  0.0120   78.3  0.9241  -22.8
 0.150  0.6669  -31.4  49.000  155.2  0.0128   78.1  0.9173  -24.3
 0.200  0.6364  -40.7  46.241  148.2  0.0158   72.6  0.8678  -31.6
 0.250  0.6015  -49.3  43.442  141.9  0.0187   70.6  0.8149  -38.0
 0.300  0.5689  -57.0  40.600  136.3  0.0216   68.1  0.7622  -43.9
 0.350  0.5370  -64.4  37.780  131.4  0.0240   66.6  0.7092  -49.0
 0.400  0.5062  -71.2  35.268  126.9  0.0262   65.1  0.6602  -53.6
 0.450  0.4819  -77.0  32.861  123.1  0.0283   64.0  0.6174  -57.8
 0.500  0.4560  -82.7  30.676  119.7  0.0303   63.2  0.5758  -61.5
 0.600  0.4155  -93.1  26.899  113.9  0.0337   62.0  0.5031  -68.1
 0.700  0.3844 -101.9  23.839  109.2  0.0371   61.7  0.4441  -73.8
 0.800  0.3608 -109.9  21.290  105.3  0.0405   61.1  0.3952  -78.7
 0.900  0.3411 -116.9  19.203  102.0  0.0436   61.0  0.3539  -83.3
 1.000  0.3275 -123.4  17.464   99.1  0.0471   61.0  0.3194  -87.5
 1.100  0.3148 -129.3  15.975   96.6  0.0502   61.2  0.2892  -91.8
 1.200  0.3079 -134.8  14.732   94.4  0.0535   61.2  0.2648  -95.7
 1.300  0.3002 -139.9  13.644   92.3  0.0566   61.1  0.2419  -99.8
 1.400  0.2971 -144.4  12.711   90.5  0.0599   61.0  0.2242 -103.9
 1.500  0.2922 -148.7  11.881   88.7  0.0631   61.1  0.2080 -108.1
 1.600  0.2914 -152.7  11.155   87.1  0.0664   61.0  0.1964 -112.3
 1.700  0.2888 -156.4  10.509   85.6  0.0697   60.6  0.1849 -116.5
 1.800  0.2888 -159.8   9.941   84.2  0.0730   60.5  0.1776 -120.8
 1.900  0.2880 -162.9   9.422   82.8  0.0761   60.1  0.1713 -124.9
 2.000  0.2882 -166.0   8.956   81.5  0.0795   59.9  0.1674 -128.7
 2.100  0.2898 -168.8   8.533   80.2  0.0827   59.4  0.1709 -131.8
 2.200  0.2898 -171.3   8.149   78.9  0.0861   59.1  0.1676 -135.0
 2.300  0.2903 -173.8   7.795   77.8  0.0896   58.9  0.1647 -138.0
 2.400  0.2910 -176.0   7.478   76.6  0.0926   58.5  0.1627 -140.9
 2.500  0.2918 -178.3   7.183   75.5  0.0961   58.0  0.1615 -143.5
 2.600  0.2922  179.6   6.909   74.4  0.0991   57.7  0.1600 -146.0
 2.700  0.2928  177.6   6.658   73.3  0.1026   57.3  0.1590 -148.1
 2.800  0.2924  175.6   6.422   72.3  0.1059   56.8  0.1584 -150.1
 2.900  0.2933  173.8   6.202   71.3  0.1090   56.3  0.1582 -152.1
 3.000  0.2936  171.8   6.002   70.2  0.1124   55.8  0.1582 -153.9
 3.100  0.2942  170.3   5.809   69.2  0.1156   55.4  0.1572 -155.5
 3.200  0.2940  168.4   5.629   68.2  0.1189   54.8  0.1570 -157.2
 3.300  0.2946  166.9   5.463   67.2  0.1222   54.4  0.1563 -158.5
 3.400  0.2944  165.2   5.308   66.2  0.1257   53.8  0.1562 -160.1
 3.500  0.2948  163.7   5.160   65.2  0.1289   53.2  0.1550 -161.5
 3.600  0.2951  162.0   5.019   64.2  0.1324   52.7  0.1545 -162.9
 3.700  0.2957  160.6   4.891   63.3  0.1354   52.1  0.1537 -164.4
 3.800  0.2957  159.0   4.762   62.3  0.1386   51.6  0.1527 -165.7
 3.900  0.2967  157.6   4.646   61.4  0.1419   51.0  0.1516 -167.3
 4.000  0.2968  156.2   4.532   60.4  0.1451   50.4  0.1500 -169.0
 4.100  0.2980  154.8   4.427   59.4  0.1484   49.8  0.1488 -170.6
 4.200  0.2991  153.4   4.326   58.5  0.1515   49.2  0.1478 -172.6
 4.300  0.3002  152.3   4.231   57.5  0.1549   48.6  0.1465 -174.4
 4.400  0.3017  151.0   4.139   56.6  0.1582   48.0  0.1455 -176.3
 4.500  0.3026  149.9   4.050   55.7  0.1613   47.3  0.1443 -178.3
 4.600  0.3049  148.6   3.966   54.7  0.1647   46.7  0.1435  179.5
 4.700  0.3061  147.6   3.888   53.7  0.1678   46.0  0.1429  177.6
 4.800  0.3087  146.5   3.810   52.8  0.1710   45.4  0.1421  175.4
 4.900  0.3105  145.6   3.736   51.9  0.1741   44.7  0.1415  173.1
 5.000  0.3130  144.4   3.666   50.9  0.1775   44.0  0.1417  171.0
 5.100  0.3147  143.5   3.598   49.9  0.1805   43.3  0.1407  169.0
 5.200  0.3174  142.7   3.533   49.0  0.1836   42.5  0.1407  166.8
 5.300  0.3194  141.7   3.469   48.0  0.1867   41.9  0.1409  164.8
 5.400  0.3225  140.8   3.408   47.0  0.1898   41.1  0.1416  162.8
 5.500  0.3250  140.0   3.347   46.1  0.1927   40.4  0.1415  160.6
 5.600  0.3282  139.1   3.288   45.1  0.1957   39.7  0.1425  158.5
 5.700  0.3303  138.2   3.233   44.2  0.1986   39.0  0.1432  156.5
 5.800  0.3329  137.3   3.179   43.2  0.2016   38.2  0.1438  154.5
 5.900  0.3357  136.4   3.126   42.2  0.2044   37.5  0.1450  152.3
 6.000  0.3383  135.4   3.073   41.3  0.2073   36.7  0.1457  150.5
 6.100  0.3410  134.4   3.023   40.3  0.2100   36.0  0.1465  148.2
 6.200  0.3434  133.4   2.973   39.3  0.2126   35.2  0.1476  145.9
 6.300  0.3467  132.3   2.924   38.3  0.2152   34.5  0.1495  143.5
 6.400  0.3493  131.2   2.877   37.3  0.2178   33.7  0.1512  141.4
 6.500  0.3519  130.0   2.830   36.4  0.2204   33.0  0.1523  138.7
 6.600  0.3546  128.9   2.782   35.5  0.2228   32.2  0.1547  136.3
 6.700  0.3571  127.6   2.738   34.5  0.2252   31.5  0.1563  133.7
 6.800  0.3598  126.3   2.695   33.6  0.2276   30.8  0.1582  131.2
 6.900  0.3630  125.0   2.651   32.7  0.2300   30.1  0.1603  128.4
 7.000  0.3664  123.8   2.608   31.7  0.2323   29.4  0.1628  125.7
 7.100  0.3698  122.6   2.569   30.9  0.2347   28.7  0.1657  122.8
 7.200  0.3733  121.4   2.530   30.0  0.2372   28.0  0.1691  120.1
 7.300  0.3776  120.3   2.492   29.1  0.2395   27.3  0.1736  117.4
 7.400  0.3821  119.2   2.455   28.2  0.2419   26.7  0.1784  114.9
 7.500  0.3874  118.3   2.420   27.4  0.2445   26.0  0.1840  112.3
 7.600  0.3929  117.4   2.385   26.6  0.2471   25.2  0.1900  109.9
 7.700  0.3990  116.5   2.351   25.7  0.2494   24.5  0.1975  107.7
 7.800  0.4053  115.7   2.318   24.9  0.2517   23.8  0.2052  105.6
 7.900  0.4129  114.9   2.286   24.0  0.2540   23.0  0.2140  103.5
 8.000  0.4206  114.1   2.254   23.1  0.2563   22.2  0.2230  101.6
!
!  f       NFmin   Gammaopt  rn/50
! GHz       dB    MAG  ANG    -
 0.450      1.05  0.02 -178   0.19
 0.900      1.09  0.03 -171   0.15
 1.500      1.10  0.05 -151   0.16
 1.800      1.12  0.06 -148   0.17
 1.900      1.12  0.07 -148   0.16
 2.400      1.14  0.08 -147   0.16
 3.500      1.21  0.11 -143   0.17
 5.500      1.36  0.19  238   0.12
 6.000      1.40  0.20  259   0.15
!
! (c) 2014  Infineon Technologies AG, Munich
