! Infineon Technologies  Discrete & RF Semiconductors
! BFP640
! VCE =  4.0 V,  IC =  32 mA
! Common Emitter S-Parameters:                            Apr 2013
# GHz  S  MA  R  50
!  f         S11            S21            S12            S22
! GHz     MAG   ANG      MAG   ANG      MAG   ANG      MAG   ANG
 0.030  0.5648   -4.7  58.265  174.6  0.0016   79.7  0.9594   -1.8
 0.040  0.5658   -6.6  57.979  173.3  0.0022   79.7  0.9639   -3.0
 0.050  0.5662   -8.7  57.862  172.1  0.0021   75.6  0.9648   -4.3
 0.060  0.5646  -10.5  57.750  170.5  0.0023   77.0  0.9622   -5.4
 0.070  0.5614  -12.5  57.484  169.3  0.0027   70.5  0.9630   -6.6
 0.080  0.5615  -14.5  57.320  167.8  0.0034   86.8  0.9619   -7.7
 0.090  0.5606  -16.6  56.894  166.5  0.0045   82.9  0.9590   -8.9
 0.100  0.5559  -18.2  56.657  165.2  0.0045   72.0  0.9546  -10.0
 0.110  0.5536  -20.2  56.374  163.8  0.0059   75.5  0.9484  -11.1
 0.120  0.5518  -22.1  56.067  162.4  0.0051   75.7  0.9456  -12.2
 0.130  0.5497  -23.8  55.659  161.1  0.0053   75.6  0.9401  -13.3
 0.140  0.5457  -25.7  55.305  159.7  0.0059   75.9  0.9342  -14.3
 0.150  0.5432  -27.5  54.993  158.4  0.0065   76.3  0.9283  -15.3
 0.200  0.5251  -36.2  52.822  152.0  0.0088   71.5  0.8956  -20.0
 0.250  0.5062  -44.3  50.317  146.0  0.0101   73.3  0.8581  -24.1
 0.300  0.4833  -52.2  47.713  140.5  0.0118   71.5  0.8173  -28.0
 0.350  0.4625  -59.4  45.020  135.6  0.0134   70.0  0.7765  -31.3
 0.400  0.4386  -66.4  42.544  130.9  0.0147   68.8  0.7355  -34.1
 0.450  0.4210  -72.7  39.997  126.9  0.0164   66.4  0.6993  -36.7
 0.500  0.4013  -78.9  37.681  123.2  0.0172   66.1  0.6637  -38.8
 0.600  0.3694  -90.0  33.488  116.7  0.0198   64.3  0.5987  -42.3
 0.700  0.3423 -100.0  29.938  111.4  0.0221   63.7  0.5434  -44.9
 0.800  0.3216 -109.4  26.949  106.9  0.0240   62.7  0.4955  -46.8
 0.900  0.3055 -117.6  24.447  103.1  0.0262   62.1  0.4546  -48.2
 1.000  0.2927 -125.5  22.303   99.7  0.0283   61.5  0.4200  -49.3
 1.100  0.2820 -132.7  20.496   96.7  0.0302   61.3  0.3895  -49.9
 1.200  0.2743 -139.3  18.933   93.9  0.0322   60.4  0.3653  -50.5
 1.300  0.2686 -145.4  17.580   91.5  0.0343   60.1  0.3433  -50.6
 1.400  0.2652 -150.8  16.414   89.2  0.0364   59.8  0.3255  -50.9
 1.500  0.2613 -156.3  15.388   87.0  0.0383   59.5  0.3085  -50.7
 1.600  0.2604 -161.2  14.489   85.0  0.0404   59.2  0.2943  -50.8
 1.700  0.2601 -165.8  13.676   83.1  0.0426   58.4  0.2810  -50.6
 1.800  0.2603 -170.2  12.949   81.2  0.0445   57.7  0.2689  -50.8
 1.900  0.2620 -174.2  12.307   79.4  0.0465   57.2  0.2572  -50.5
 2.000  0.2636 -178.2  11.717   77.7  0.0488   56.6  0.2472  -50.7
 2.100  0.2678  178.6  11.166   76.0  0.0504   55.9  0.2371  -51.1
 2.200  0.2690  175.1  10.680   74.3  0.0525   55.4  0.2289  -51.1
 2.300  0.2718  171.8  10.229   72.7  0.0544   54.9  0.2205  -50.9
 2.400  0.2740  168.8   9.816   71.1  0.0565   53.9  0.2132  -50.8
 2.500  0.2773  165.8   9.431   69.6  0.0586   53.5  0.2051  -50.5
 2.600  0.2808  162.8   9.073   68.1  0.0607   52.7  0.1975  -50.5
 2.700  0.2846  160.1   8.748   66.6  0.0624   51.8  0.1902  -50.1
 2.800  0.2887  157.4   8.441   65.1  0.0647   51.1  0.1825  -50.3
 2.900  0.2936  155.1   8.154   63.6  0.0667   50.5  0.1752  -50.3
 3.000  0.2981  152.5   7.887   62.2  0.0685   49.6  0.1671  -50.6
 3.100  0.3034  150.1   7.635   60.8  0.0705   49.1  0.1600  -50.7
 3.200  0.3091  147.9   7.399   59.4  0.0724   48.0  0.1525  -51.3
 3.300  0.3149  145.6   7.179   57.9  0.0744   47.2  0.1454  -51.7
 3.400  0.3214  143.3   6.966   56.5  0.0764   46.3  0.1376  -52.3
 3.500  0.3268  141.2   6.764   55.1  0.0783   45.5  0.1306  -52.5
 3.600  0.3340  139.2   6.577   53.8  0.0802   44.7  0.1226  -53.1
 3.700  0.3404  137.3   6.398   52.4  0.0820   43.8  0.1147  -53.6
 3.800  0.3474  135.3   6.228   51.0  0.0838   42.9  0.1070  -54.3
 3.900  0.3541  133.5   6.064   49.7  0.0858   42.3  0.0986  -54.9
 4.000  0.3611  131.7   5.907   48.4  0.0874   41.3  0.0910  -56.3
 4.100  0.3676  130.0   5.757   47.0  0.0893   40.5  0.0833  -57.3
 4.200  0.3755  128.3   5.614   45.7  0.0911   39.4  0.0764  -58.8
 4.300  0.3818  126.8   5.479   44.4  0.0929   38.6  0.0693  -60.3
 4.400  0.3894  125.4   5.347   43.1  0.0946   37.7  0.0629  -61.4
 4.500  0.3951  123.9   5.222   41.8  0.0963   37.0  0.0559  -62.6
 4.600  0.4025  122.7   5.104   40.5  0.0980   36.1  0.0498  -64.2
 4.700  0.4080  121.4   4.987   39.3  0.0997   35.2  0.0437  -65.2
 4.800  0.4147  120.2   4.879   38.0  0.1014   34.3  0.0375  -66.1
 4.900  0.4198  118.9   4.772   36.8  0.1030   33.5  0.0318  -66.3
 5.000  0.4258  117.9   4.672   35.6  0.1047   32.7  0.0265  -66.9
 5.100  0.4305  116.7   4.574   34.3  0.1063   31.8  0.0214  -66.5
 5.200  0.4355  115.7   4.483   33.1  0.1079   30.9  0.0168  -63.4
 5.300  0.4397  114.5   4.390   31.9  0.1096   30.1  0.0117  -58.4
 5.400  0.4440  113.6   4.304   30.7  0.1114   29.4  0.0080  -41.9
 5.500  0.4476  112.5   4.221   29.5  0.1129   28.4  0.0054   -2.4
 5.600  0.4514  111.6   4.142   28.3  0.1146   27.6  0.0066   36.4
 5.700  0.4537  110.7   4.065   27.2  0.1162   26.8  0.0108   58.0
 5.800  0.4580  109.7   3.992   26.0  0.1179   26.1  0.0145   66.6
 5.900  0.4612  108.9   3.923   24.8  0.1197   25.2  0.0190   72.2
 6.000  0.4642  107.9   3.858   23.6  0.1212   24.4  0.0233   75.8
 6.100  0.4693  107.2   3.795   22.5  0.1232   23.5  0.0273   78.3
 6.200  0.4711  106.2   3.734   21.4  0.1247   22.6  0.0316   81.2
 6.300  0.4766  105.2   3.675   20.1  0.1265   21.6  0.0363   82.5
 6.400  0.4791  104.2   3.619   18.9  0.1282   20.8  0.0410   84.3
 6.500  0.4843  103.0   3.563   17.6  0.1299   19.8  0.0459   85.2
 6.600  0.4874  102.0   3.506   16.4  0.1315   18.8  0.0505   86.0
 6.700  0.4923  100.9   3.455   15.2  0.1330   17.9  0.0553   86.2
 6.800  0.4963   99.7   3.400   14.0  0.1345   16.9  0.0599   86.7
 6.900  0.5011   98.6   3.351   12.8  0.1361   16.0  0.0653   86.8
 7.000  0.5051   97.2   3.301   11.5  0.1377   15.0  0.0696   87.7
 7.100  0.5102   96.1   3.254   10.2  0.1391   14.0  0.0749   88.0
 7.200  0.5145   94.9   3.206    9.0  0.1406   13.0  0.0793   88.4
 7.300  0.5191   93.7   3.161    7.7  0.1420   12.0  0.0849   88.1
 7.400  0.5241   92.4   3.114    6.5  0.1435   11.1  0.0897   87.9
 7.500  0.5299   91.2   3.068    5.2  0.1447   10.0  0.0961   87.3
 7.600  0.5352   89.9   3.022    3.9  0.1459    9.0  0.1021   87.3
 7.700  0.5422   88.7   2.978    2.6  0.1472    8.0  0.1082   86.5
 7.800  0.5482   87.4   2.933    1.3  0.1485    6.9  0.1145   85.8
 7.900  0.5552   86.2   2.888    0.1  0.1496    6.0  0.1224   84.9
 8.000  0.5620   85.0   2.845   -1.2  0.1508    5.0  0.1294   84.3
 8.500  0.6005   79.2   2.626   -7.6  0.1550   -0.1  0.1731   79.0
 9.000  0.6410   73.9   2.410  -13.3  0.1577   -4.8  0.2278   75.1
 9.500  0.6817   69.3   2.208  -18.4  0.1588   -8.9  0.2851   72.7
10.000  0.7166   65.9   2.039  -22.6  0.1598  -12.1  0.3339   72.1
!
!  f       NFmin   Gammaopt  rn/50
! GHz       dB    MAG  ANG    -
!
! noise parameter not available yet for this operation point!
!
! (c) 2013  Infineon Technologies AG, Munich
