! Infineon Technologies  Discrete & RF Semiconductors
! BFP640
! VCE =  3.5 V,  IC =  50 mA
! Common Emitter S-Parameters:                            Apr 2013
# GHz  S  MA  R  50
!  f         S11            S21            S12            S22
! GHz     MAG   ANG      MAG   ANG      MAG   ANG      MAG   ANG
 0.030  0.3598   -8.9  60.700  174.7  0.0014   73.3  0.9339   -1.6
 0.040  0.3601  -11.8  60.729  173.1  0.0016   84.6  0.9375   -3.1
 0.050  0.3656  -14.8  61.395  171.5  0.0022   87.9  0.9414   -4.8
 0.060  0.3643  -17.3  61.353  169.5  0.0014  129.1  0.9359   -6.0
 0.070  0.3657  -21.5  61.180  167.8  0.0038   78.9  0.9400   -7.8
 0.080  0.3648  -24.0  60.854  166.0  0.0028   82.5  0.9348   -9.0
 0.090  0.3628  -27.3  60.280  164.2  0.0033   82.6  0.9330  -10.5
 0.100  0.3604  -30.5  59.851  162.6  0.0049   79.0  0.9249  -12.0
 0.110  0.3597  -33.5  59.388  160.8  0.0045   70.7  0.9216  -13.3
 0.120  0.3578  -36.3  58.912  159.1  0.0058   69.8  0.9116  -14.5
 0.130  0.3567  -39.4  58.327  157.5  0.0052   82.0  0.9043  -15.9
 0.140  0.3563  -42.0  57.888  155.9  0.0058   79.3  0.8952  -17.0
 0.150  0.3554  -45.1  57.485  154.3  0.0061   70.6  0.8867  -18.3
 0.200  0.3512  -57.6  54.633  146.6  0.0074   71.2  0.8401  -23.5
 0.250  0.3444  -68.8  51.694  139.9  0.0094   71.3  0.7903  -27.9
 0.300  0.3365  -78.8  48.347  133.9  0.0108   71.1  0.7400  -31.6
 0.350  0.3306  -87.9  44.979  128.7  0.0117   68.8  0.6948  -34.8
 0.400  0.3221  -96.0  42.158  124.1  0.0131   67.3  0.6468  -37.2
 0.450  0.3165 -103.0  39.248  120.0  0.0146   68.4  0.6121  -39.2
 0.500  0.3092 -109.3  36.757  116.6  0.0155   66.6  0.5745  -40.9
 0.600  0.2990 -120.5  32.341  110.6  0.0180   67.1  0.5137  -43.3
 0.700  0.2927 -130.5  28.582  105.7  0.0199   65.9  0.4638  -45.0
 0.800  0.2888 -138.8  25.589  101.7  0.0220   65.9  0.4220  -45.9
 0.900  0.2860 -146.1  23.125   98.2  0.0239   65.5  0.3879  -46.6
 1.000  0.2855 -152.8  21.002   95.2  0.0260   65.2  0.3590  -46.9
 1.100  0.2848 -158.6  19.258   92.5  0.0282   64.9  0.3343  -46.9
 1.200  0.2860 -164.1  17.722   90.0  0.0302   64.3  0.3146  -46.8
 1.300  0.2864 -168.7  16.448   87.8  0.0324   64.1  0.2975  -46.5
 1.400  0.2877 -172.9  15.345   85.6  0.0345   63.4  0.2836  -46.4
 1.500  0.2888 -177.0  14.372   83.7  0.0365   62.9  0.2704  -45.7
 1.600  0.2913  179.4  13.517   81.8  0.0388   62.4  0.2596  -45.6
 1.700  0.2941  175.9  12.745   80.0  0.0409   61.7  0.2490  -44.9
 1.800  0.2965  172.7  12.069   78.2  0.0429   61.1  0.2400  -44.9
 1.900  0.3005  169.7  11.457   76.6  0.0452   60.4  0.2309  -44.4
 2.000  0.3043  166.8  10.888   74.9  0.0470   59.9  0.2230  -44.5
 2.100  0.3087  164.6  10.379   73.3  0.0491   58.8  0.2150  -44.7
 2.200  0.3115  161.9   9.919   71.7  0.0510   58.3  0.2086  -44.4
 2.300  0.3144  159.4   9.513   70.2  0.0533   57.6  0.2023  -44.1
 2.400  0.3183  157.0   9.112   68.7  0.0553   56.7  0.1961  -43.9
 2.500  0.3222  154.6   8.756   67.2  0.0572   56.2  0.1900  -43.5
 2.600  0.3272  152.3   8.403   65.7  0.0594   55.3  0.1836  -43.2
 2.700  0.3308  150.2   8.111   64.3  0.0617   54.4  0.1777  -42.7
 2.800  0.3354  148.0   7.821   62.8  0.0634   53.6  0.1714  -42.5
 2.900  0.3394  146.2   7.565   61.4  0.0654   52.9  0.1652  -42.5
 3.000  0.3450  144.1   7.305   60.0  0.0675   52.1  0.1581  -42.5
 3.100  0.3502  142.2   7.066   58.6  0.0694   51.2  0.1519  -42.4
 3.200  0.3555  140.3   6.853   57.2  0.0716   50.3  0.1451  -42.8
 3.300  0.3614  138.4   6.645   55.8  0.0733   49.4  0.1389  -43.0
 3.400  0.3681  136.6   6.446   54.5  0.0753   48.4  0.1317  -43.4
 3.500  0.3741  134.7   6.251   53.1  0.0773   47.7  0.1253  -43.2
 3.600  0.3807  133.0   6.080   51.8  0.0791   46.6  0.1181  -43.4
 3.700  0.3868  131.4   5.911   50.4  0.0811   45.9  0.1112  -43.3
 3.800  0.3928  129.8   5.761   49.1  0.0829   45.0  0.1037  -43.4
 3.900  0.3995  128.2   5.606   47.7  0.0848   44.0  0.0960  -43.8
 4.000  0.4076  126.6   5.447   46.4  0.0867   43.1  0.0888  -44.1
 4.100  0.4127  125.2   5.317   45.1  0.0883   42.4  0.0815  -44.4
 4.200  0.4207  123.7   5.181   43.8  0.0901   41.2  0.0751  -44.7
 4.300  0.4254  122.3   5.067   42.5  0.0921   40.5  0.0681  -45.2
 4.400  0.4336  121.1   4.935   41.2  0.0938   39.7  0.0622  -45.3
 4.500  0.4384  119.8   4.823   40.0  0.0954   38.7  0.0556  -45.0
 4.600  0.4457  118.7   4.710   38.7  0.0971   37.8  0.0500  -44.8
 4.700  0.4509  117.5   4.601   37.5  0.0987   36.9  0.0445  -43.3
 4.800  0.4568  116.4   4.507   36.2  0.1006   36.1  0.0389  -42.0
 4.900  0.4622  115.3   4.398   35.0  0.1023   35.2  0.0337  -39.0
 5.000  0.4679  114.3   4.309   33.8  0.1040   34.4  0.0295  -35.4
 5.100  0.4719  113.2   4.218   32.6  0.1055   33.5  0.0257  -30.4
 5.200  0.4758  112.3   4.139   31.4  0.1072   32.6  0.0229  -23.0
 5.300  0.4801  111.3   4.051   30.2  0.1088   31.8  0.0199  -12.3
 5.400  0.4841  110.4   3.972   29.0  0.1104   30.9  0.0186   -0.3
 5.500  0.4881  109.4   3.888   27.8  0.1122   30.1  0.0186   13.5
 5.600  0.4909  108.6   3.820   26.7  0.1139   29.3  0.0197   24.4
 5.700  0.4934  107.7   3.748   25.5  0.1156   28.5  0.0222   34.5
 5.800  0.4964  106.7   3.688   24.3  0.1173   27.6  0.0243   43.1
 5.900  0.4999  106.0   3.618   23.2  0.1190   26.8  0.0271   49.3
 6.000  0.5027  105.0   3.561   22.0  0.1207   25.9  0.0304   55.6
 6.100  0.5077  104.4   3.499   20.9  0.1226   25.0  0.0333   59.0
 6.200  0.5085  103.4   3.450   19.7  0.1241   24.1  0.0368   63.9
 6.300  0.5142  102.5   3.389   18.5  0.1261   23.2  0.0406   66.9
 6.400  0.5164  101.5   3.340   17.3  0.1278   22.2  0.0445   70.4
 6.500  0.5215  100.4   3.286   16.0  0.1294   21.2  0.0487   72.6
 6.600  0.5246   99.4   3.235   14.7  0.1309   20.2  0.0526   74.3
 6.700  0.5289   98.3   3.189   13.6  0.1326   19.3  0.0570   75.5
 6.800  0.5330   97.1   3.137   12.3  0.1341   18.3  0.0612   77.0
 6.900  0.5377   96.1   3.088   11.1  0.1358   17.4  0.0661   78.0
 7.000  0.5414   94.8   3.044    9.8  0.1375   16.3  0.0700   79.4
 7.100  0.5461   93.7   2.999    8.6  0.1386   15.3  0.0748   80.3
 7.200  0.5498   92.5   2.958    7.4  0.1402   14.4  0.0789   81.1
 7.300  0.5545   91.4   2.915    6.1  0.1416   13.3  0.0840   81.4
 7.400  0.5591   90.1   2.871    4.8  0.1431   12.3  0.0888   81.8
 7.500  0.5653   88.9   2.825    3.5  0.1444   11.4  0.0949   81.5
 7.600  0.5699   87.6   2.786    2.2  0.1456   10.3  0.1004   82.0
 7.700  0.5758   86.6   2.748    1.0  0.1469    9.3  0.1065   81.6
 7.800  0.5821   85.3   2.702   -0.3  0.1482    8.2  0.1126   81.2
 7.900  0.5886   84.2   2.662   -1.6  0.1492    7.2  0.1206   80.7
 8.000  0.5955   82.9   2.616   -2.9  0.1502    6.2  0.1269   80.3
 8.500  0.6314   77.3   2.416   -9.2  0.1546    1.2  0.1695   76.1
 9.000  0.6680   72.1   2.221  -14.9  0.1573   -3.6  0.2231   73.1
 9.500  0.7060   67.8   2.031  -19.8  0.1584   -7.6  0.2787   71.3
10.000  0.7387   64.5   1.875  -24.0  0.1597  -10.9  0.3264   71.3
!
!  f       NFmin   Gammaopt  rn/50
! GHz       dB    MAG  ANG    -
!
! noise parameter not available yet for this operation point!
!
! (c) 2013  Infineon Technologies AG, Munich
