! Infineon Technologies  Discrete & RF Semiconductors
! BFP620F
! VCE =  1.5 V,  IC =  12 mA
! Common Emitter S-Parameters:                            Dec 2014
# GHz  S  MA  R  50
!  f         S11            S21            S12            S22
! GHz     MAG   ANG      MAG   ANG      MAG   ANG      MAG   ANG
 0.030  0.8742   -3.6  30.431  176.5  0.0030   78.4  0.9908   -2.7
 0.040  0.8734   -4.8  30.430  175.4  0.0034   87.7  0.9902   -3.7
 0.050  0.8697   -6.1  30.487  174.5  0.0032   89.3  0.9894   -4.8
 0.060  0.8690   -7.4  30.456  173.6  0.0040   77.2  0.9873   -5.6
 0.070  0.8691   -8.5  30.392  172.5  0.0060   87.4  0.9880   -6.6
 0.080  0.8688   -9.8  30.359  171.4  0.0068   86.8  0.9868   -7.7
 0.090  0.8651  -11.1  30.293  170.4  0.0082   81.0  0.9851   -8.7
 0.100  0.8632  -12.2  30.152  169.4  0.0089   84.0  0.9846   -9.6
 0.110  0.8614  -13.5  30.005  168.3  0.0091   84.9  0.9818  -10.6
 0.120  0.8591  -14.7  29.939  167.3  0.0101   86.2  0.9788  -11.6
 0.130  0.8566  -15.9  29.826  166.4  0.0106   80.2  0.9758  -12.6
 0.140  0.8542  -17.1  29.667  165.4  0.0124   83.0  0.9719  -13.6
 0.150  0.8516  -18.3  29.660  164.4  0.0125   80.3  0.9686  -14.5
 0.200  0.8353  -24.1  28.898  159.7  0.0170   78.6  0.9483  -19.1
 0.250  0.8155  -29.8  28.233  155.0  0.0207   76.3  0.9244  -23.6
 0.300  0.7951  -35.2  27.393  150.7  0.0242   72.7  0.8974  -27.9
 0.350  0.7708  -40.5  26.447  146.5  0.0276   71.2  0.8665  -31.9
 0.400  0.7455  -45.8  25.624  142.5  0.0311   68.6  0.8330  -35.7
 0.450  0.7212  -50.4  24.626  138.8  0.0340   66.6  0.8032  -39.3
 0.500  0.6949  -55.2  23.708  135.4  0.0365   65.3  0.7696  -42.6
 0.600  0.6441  -64.1  21.894  129.0  0.0416   61.9  0.7044  -48.7
 0.700  0.5992  -72.0  20.157  123.5  0.0459   59.6  0.6446  -54.1
 0.800  0.5580  -79.3  18.552  118.7  0.0494   57.8  0.5895  -58.6
 0.900  0.5207  -86.1  17.131  114.5  0.0528   56.6  0.5388  -62.8
 1.000  0.4894  -92.4  15.858  110.8  0.0560   55.5  0.4950  -66.4
 1.100  0.4606  -98.1  14.710  107.5  0.0589   54.5  0.4539  -69.9
 1.200  0.4377 -103.8  13.722  104.5  0.0618   54.0  0.4194  -72.9
 1.300  0.4155 -109.0  12.822  101.9  0.0647   53.5  0.3858  -75.9
 1.400  0.3995 -114.0  12.040   99.4  0.0674   53.2  0.3585  -78.6
 1.500  0.3825 -118.8  11.320   97.1  0.0699   52.9  0.3319  -81.4
 1.600  0.3710 -123.4  10.681   95.0  0.0728   52.6  0.3112  -84.2
 1.700  0.3585 -127.7  10.108   93.0  0.0753   52.4  0.2905  -86.8
 1.800  0.3505 -131.8   9.592   91.2  0.0779   52.3  0.2743  -89.7
 1.900  0.3419 -135.6   9.117   89.5  0.0807   52.0  0.2592  -92.3
 2.000  0.3355 -139.4   8.690   87.9  0.0835   51.9  0.2479  -95.0
 2.100  0.3308 -143.1   8.297   86.2  0.0863   51.4  0.2431  -98.3
 2.200  0.3259 -146.3   7.939   84.7  0.0890   51.2  0.2330 -100.8
 2.300  0.3214 -149.7   7.607   83.3  0.0916   50.9  0.2240 -103.1
 2.400  0.3183 -152.6   7.306   81.9  0.0944   50.8  0.2158 -105.5
 2.500  0.3150 -155.5   7.027   80.6  0.0972   50.4  0.2091 -107.7
 2.600  0.3120 -158.3   6.765   79.3  0.0997   50.2  0.2032 -109.9
 2.700  0.3098 -160.9   6.525   78.0  0.1026   50.0  0.1976 -111.7
 2.800  0.3071 -163.4   6.300   76.8  0.1054   49.7  0.1930 -113.8
 2.900  0.3058 -165.9   6.091   75.6  0.1081   49.6  0.1889 -115.8
 3.000  0.3038 -168.3   5.899   74.4  0.1110   49.1  0.1854 -117.6
 3.100  0.3026 -170.4   5.712   73.3  0.1139   48.9  0.1815 -119.2
 3.200  0.3007 -172.6   5.539   72.1  0.1165   48.5  0.1783 -120.8
 3.300  0.3001 -174.6   5.379   71.0  0.1193   48.1  0.1751 -122.3
 3.400  0.2984 -176.8   5.229   69.8  0.1223   47.8  0.1723 -124.0
 3.500  0.2975 -178.7   5.086   68.8  0.1252   47.4  0.1692 -125.3
 3.600  0.2966  179.3   4.949   67.7  0.1280   47.0  0.1661 -126.7
 3.700  0.2961  177.4   4.823   66.6  0.1307   46.6  0.1635 -128.0
 3.800  0.2952  175.4   4.700   65.6  0.1336   46.2  0.1606 -129.3
 3.900  0.2953  173.5   4.588   64.5  0.1365   45.8  0.1570 -130.8
 4.000  0.2946  171.7   4.475   63.5  0.1391   45.4  0.1536 -132.1
 4.100  0.2954  170.0   4.373   62.4  0.1422   44.8  0.1504 -133.5
 4.200  0.2957  168.2   4.274   61.5  0.1450   44.4  0.1469 -135.3
 4.300  0.2964  166.7   4.181   60.4  0.1478   44.0  0.1436 -136.8
 4.400  0.2973  164.9   4.092   59.4  0.1509   43.5  0.1402 -138.4
 4.500  0.2983  163.4   4.005   58.4  0.1536   43.0  0.1366 -140.2
 4.600  0.2998  161.8   3.923   57.4  0.1563   42.4  0.1333 -142.0
 4.700  0.3009  160.4   3.847   56.4  0.1592   41.9  0.1302 -144.2
 4.800  0.3032  158.9   3.771   55.4  0.1622   41.4  0.1269 -146.2
 4.900  0.3051  157.6   3.699   54.4  0.1650   40.8  0.1233 -148.3
 5.000  0.3073  156.1   3.631   53.4  0.1678   40.2  0.1211 -150.7
 5.100  0.3089  154.8   3.565   52.3  0.1707   39.7  0.1177 -152.6
 5.200  0.3116  153.7   3.500   51.4  0.1736   39.1  0.1150 -155.2
 5.300  0.3134  152.4   3.438   50.4  0.1763   38.5  0.1128 -157.5
 5.400  0.3165  151.2   3.378   49.3  0.1790   37.9  0.1110 -159.9
 5.500  0.3186  150.0   3.319   48.4  0.1817   37.3  0.1087 -162.5
 5.600  0.3220  148.8   3.263   47.4  0.1846   36.7  0.1071 -165.4
 5.700  0.3240  147.6   3.208   46.4  0.1871   36.1  0.1055 -167.9
 5.800  0.3268  146.5   3.156   45.3  0.1897   35.4  0.1037 -170.8
 5.900  0.3292  145.3   3.105   44.3  0.1925   34.8  0.1022 -173.9
 6.000  0.3316  144.0   3.054   43.3  0.1950   34.2  0.1011 -176.6
 6.100  0.3343  142.8   3.004   42.4  0.1975   33.5  0.0995 -179.7
 6.200  0.3366  141.6   2.956   41.3  0.2001   32.8  0.0980  177.1
 6.300  0.3394  140.2   2.908   40.3  0.2023   32.2  0.0973  173.6
 6.400  0.3419  138.9   2.863   39.2  0.2047   31.5  0.0968  170.3
 6.500  0.3444  137.5   2.818   38.3  0.2070   30.9  0.0952  166.2
 6.600  0.3468  136.1   2.770   37.3  0.2092   30.2  0.0954  162.3
 6.700  0.3489  134.6   2.727   36.3  0.2115   29.6  0.0945  158.3
 6.800  0.3513  133.2   2.686   35.3  0.2137   29.0  0.0941  154.2
 6.900  0.3542  131.7   2.643   34.4  0.2160   28.3  0.0939  149.6
 7.000  0.3573  130.2   2.602   33.4  0.2183   27.7  0.0942  145.0
 7.100  0.3604  128.9   2.563   32.6  0.2206   27.2  0.0952  140.2
 7.200  0.3637  127.5   2.525   31.6  0.2228   26.6  0.0969  135.5
 7.300  0.3679  126.2   2.488   30.7  0.2251   26.0  0.1000  130.7
 7.400  0.3723  124.9   2.451   29.8  0.2273   25.4  0.1037  126.3
 7.500  0.3776  123.8   2.417   29.0  0.2298   24.8  0.1084  122.0
 7.600  0.3829  122.7   2.384   28.1  0.2323   24.1  0.1136  118.0
 7.700  0.3889  121.7   2.351   27.2  0.2346   23.5  0.1205  114.5
 7.800  0.3951  120.6   2.318   26.4  0.2368   22.8  0.1277  111.3
 7.900  0.4026  119.7   2.287   25.4  0.2390   22.1  0.1362  108.2
 8.000  0.4102  118.8   2.257   24.5  0.2412   21.4  0.1450  105.4
!
!  f       NFmin   Gammaopt  rn/50
! GHz       dB    MAG  ANG    -
 0.450      0.64  0.22    8   0.21
 0.900      0.71  0.20   19   0.18
 1.500      0.76  0.19   21   0.13
 1.800      0.79  0.19   23   0.11
 1.900      0.80  0.14   38   0.14
 2.400      0.84  0.12   53   0.12
 3.500      0.93  0.11   76   0.12
 5.500      1.10  0.10  193   0.09
 6.000      1.14  0.10  221   0.14
!
! (c) 2014  Infineon Technologies AG, Munich
