! Infineon Technologies  Discrete & RF Semiconductors
! BFP640F
! VCE =  3.5 V,  IC =  15 mA
! Common Emitter S-Parameters:                            Apr 2013
# GHz  S  MA  R  50
!  f         S11            S21            S12            S22
! GHz     MAG   ANG      MAG   ANG      MAG   ANG      MAG   ANG
 0.030  0.7708   -3.2  36.582  176.4  0.0019   71.9  0.9874   -1.7
 0.040  0.7702   -4.3  36.539  175.4  0.0024   82.1  0.9866   -2.4
 0.050  0.7656   -5.5  36.907  174.4  0.0021   94.1  0.9865   -3.2
 0.060  0.7689   -6.7  36.690  173.1  0.0046   87.1  0.9896   -4.0
 0.070  0.7641   -7.8  36.684  172.1  0.0033   69.7  0.9847   -4.7
 0.080  0.7623   -9.0  36.541  171.0  0.0047   78.3  0.9842   -5.5
 0.090  0.7619  -10.1  36.381  170.0  0.0048   81.7  0.9816   -6.2
 0.100  0.7607  -11.2  36.193  169.0  0.0055   83.0  0.9802   -7.0
 0.110  0.7575  -12.4  36.178  167.9  0.0060   86.2  0.9773   -7.7
 0.120  0.7558  -13.5  36.026  166.9  0.0066   87.7  0.9747   -8.5
 0.130  0.7529  -14.6  35.920  165.8  0.0069   81.3  0.9711   -9.1
 0.140  0.7514  -15.7  35.668  164.9  0.0073   78.9  0.9691   -9.8
 0.150  0.7478  -16.9  35.617  163.9  0.0072   79.8  0.9654  -10.5
 0.200  0.7327  -22.2  34.691  159.0  0.0099   81.5  0.9473  -13.8
 0.250  0.7133  -27.3  33.712  154.2  0.0120   78.1  0.9235  -16.9
 0.300  0.6909  -32.4  32.681  149.7  0.0141   75.5  0.8981  -19.8
 0.350  0.6680  -37.1  31.461  145.5  0.0157   73.2  0.8715  -22.4
 0.400  0.6420  -41.8  30.335  141.4  0.0180   73.1  0.8409  -24.8
 0.450  0.6179  -45.9  29.058  137.8  0.0196   71.8  0.8144  -26.9
 0.500  0.5917  -50.1  27.906  134.3  0.0216   70.6  0.7843  -28.9
 0.600  0.5424  -57.7  25.592  128.1  0.0245   69.3  0.7277  -32.2
 0.700  0.4958  -64.6  23.466  122.7  0.0276   68.0  0.6770  -34.8
 0.800  0.4546  -70.9  21.518  118.0  0.0303   66.7  0.6305  -36.9
 0.900  0.4180  -76.6  19.810  114.0  0.0328   66.0  0.5880  -38.4
 1.000  0.3856  -82.0  18.277  110.5  0.0354   64.9  0.5517  -39.6
 1.100  0.3576  -87.0  16.933  107.3  0.0379   64.6  0.5180  -40.5
 1.200  0.3326  -91.7  15.743  104.6  0.0404   64.6  0.4908  -41.1
 1.300  0.3116  -96.1  14.687  102.1  0.0426   64.2  0.4647  -41.5
 1.400  0.2927 -100.6  13.767   99.9  0.0449   63.8  0.4430  -41.9
 1.500  0.2748 -104.8  12.946   97.8  0.0472   63.5  0.4231  -42.0
 1.600  0.2615 -108.9  12.210   95.9  0.0494   63.4  0.4064  -42.3
 1.700  0.2488 -113.1  11.559   94.1  0.0519   63.3  0.3902  -42.2
 1.800  0.2381 -117.0  10.956   92.5  0.0541   63.1  0.3769  -42.5
 1.900  0.2281 -120.9  10.426   90.9  0.0564   63.1  0.3638  -42.6
 2.000  0.2203 -124.7   9.940   89.4  0.0589   62.7  0.3537  -42.9
 2.100  0.2172 -128.9   9.494   87.9  0.0611   62.4  0.3422  -43.5
 2.200  0.2103 -132.3   9.088   86.5  0.0635   62.1  0.3339  -43.6
 2.300  0.2047 -135.8   8.699   85.2  0.0658   62.0  0.3252  -43.7
 2.400  0.1992 -139.2   8.361   83.9  0.0681   61.8  0.3188  -44.0
 2.500  0.1943 -142.3   8.039   82.7  0.0704   61.5  0.3132  -44.0
 2.600  0.1899 -145.6   7.742   81.5  0.0728   61.0  0.3083  -44.3
 2.700  0.1869 -148.3   7.462   80.4  0.0749   60.8  0.3033  -44.4
 2.800  0.1828 -151.5   7.211   79.2  0.0774   60.6  0.2995  -44.7
 2.900  0.1805 -154.1   6.967   78.2  0.0797   60.2  0.2958  -44.8
 3.000  0.1770 -157.2   6.749   77.0  0.0819   59.9  0.2926  -45.2
 3.100  0.1748 -159.7   6.533   76.0  0.0843   59.6  0.2904  -45.4
 3.200  0.1723 -162.4   6.337   75.0  0.0864   59.1  0.2878  -45.7
 3.300  0.1705 -164.8   6.156   73.9  0.0889   59.0  0.2866  -46.0
 3.400  0.1688 -167.5   5.980   73.0  0.0912   58.5  0.2850  -46.4
 3.500  0.1670 -169.6   5.815   72.0  0.0935   58.1  0.2838  -46.6
 3.600  0.1658 -172.0   5.658   71.0  0.0958   57.8  0.2827  -46.8
 3.700  0.1645 -174.0   5.511   70.1  0.0981   57.4  0.2819  -47.1
 3.800  0.1638 -176.5   5.375   69.1  0.1006   57.1  0.2805  -47.3
 3.900  0.1632 -178.5   5.243   68.2  0.1030   56.6  0.2797  -47.7
 4.000  0.1627  179.1   5.117   67.3  0.1053   56.2  0.2785  -47.8
 4.100  0.1629  177.6   4.996   66.4  0.1076   55.8  0.2770  -48.1
 4.200  0.1631  175.0   4.885   65.5  0.1100   55.4  0.2758  -48.4
 4.300  0.1634  173.3   4.778   64.5  0.1122   55.0  0.2739  -48.6
 4.400  0.1648  171.2   4.676   63.6  0.1147   54.6  0.2727  -48.9
 4.500  0.1651  169.6   4.578   62.8  0.1171   54.1  0.2712  -49.0
 4.600  0.1675  167.8   4.485   61.9  0.1193   53.7  0.2696  -49.3
 4.700  0.1682  166.1   4.395   61.0  0.1218   53.2  0.2677  -49.4
 4.800  0.1701  164.4   4.311   60.1  0.1242   52.8  0.2654  -49.7
 4.900  0.1711  162.9   4.229   59.2  0.1263   52.3  0.2638  -49.8
 5.000  0.1731  161.3   4.148   58.4  0.1287   51.9  0.2618  -50.0
 5.100  0.1745  159.8   4.073   57.5  0.1312   51.4  0.2602  -50.2
 5.200  0.1759  158.3   4.000   56.6  0.1334   51.0  0.2583  -50.2
 5.300  0.1771  156.8   3.930   55.7  0.1358   50.4  0.2562  -50.4
 5.400  0.1793  155.5   3.860   54.9  0.1380   50.0  0.2548  -50.5
 5.500  0.1805  154.1   3.797   54.0  0.1405   49.4  0.2533  -50.8
 5.600  0.1823  152.9   3.732   53.1  0.1427   49.0  0.2518  -50.8
 5.700  0.1832  151.6   3.671   52.2  0.1450   48.5  0.2494  -51.0
 5.800  0.1847  150.0   3.613   51.3  0.1474   48.0  0.2485  -51.0
 5.900  0.1858  148.8   3.555   50.5  0.1496   47.5  0.2468  -51.1
 6.000  0.1867  147.3   3.500   49.6  0.1519   46.9  0.2455  -51.2
 6.100  0.1894  145.9   3.446   48.7  0.1542   46.4  0.2436  -51.3
 6.200  0.1890  144.5   3.391   47.9  0.1564   45.9  0.2422  -51.4
 6.300  0.1918  142.9   3.339   47.0  0.1586   45.4  0.2407  -51.4
 6.400  0.1922  141.7   3.287   46.2  0.1609   44.9  0.2382  -51.5
 6.500  0.1946  139.8   3.237   45.3  0.1631   44.4  0.2364  -51.4
 6.600  0.1961  138.4   3.187   44.4  0.1652   43.8  0.2340  -51.5
 6.700  0.1980  136.7   3.141   43.6  0.1674   43.3  0.2321  -51.4
 6.800  0.2002  135.2   3.093   42.8  0.1695   42.9  0.2301  -51.2
 6.900  0.2029  133.6   3.050   41.9  0.1717   42.4  0.2281  -50.9
 7.000  0.2046  132.1   3.005   41.1  0.1738   41.9  0.2256  -50.7
 7.100  0.2082  130.8   2.962   40.4  0.1761   41.4  0.2224  -50.3
 7.200  0.2112  129.4   2.921   39.6  0.1784   41.0  0.2194  -50.2
 7.300  0.2151  128.2   2.882   38.8  0.1808   40.5  0.2163  -49.9
 7.400  0.2186  127.1   2.844   38.1  0.1830   40.0  0.2129  -49.6
 7.500  0.2243  126.2   2.807   37.4  0.1852   39.6  0.2082  -49.3
 7.600  0.2290  125.2   2.774   36.6  0.1877   39.0  0.2036  -49.0
 7.700  0.2358  124.6   2.740   35.8  0.1903   38.4  0.1980  -48.5
 7.800  0.2422  123.7   2.709   35.1  0.1926   37.9  0.1918  -48.1
 7.900  0.2501  123.2   2.676   34.3  0.1949   37.3  0.1854  -47.3
 8.000  0.2572  122.5   2.647   33.5  0.1972   36.8  0.1783  -46.7
 8.500  0.3029  120.3   2.503   29.6  0.2081   33.9  0.1377  -39.0
 9.000  0.3495  118.2   2.371   25.8  0.2185   31.1  0.1005  -21.2
 9.500  0.3918  115.7   2.256   22.0  0.2292   28.4  0.0826    9.4
10.000  0.4307  113.0   2.152   18.2  0.2400   25.5  0.0896   45.3
!
!  f       NFmin   Gammaopt  rn/50
! GHz       dB    MAG  ANG    -
 0.450      0.74  0.06    6   0.05
 0.900      0.75  0.06   19   0.06
 1.500      0.76  0.05   35   0.07
 1.900      0.77  0.05   51   0.07
 2.400      0.79  0.04   76   0.08
 3.500      0.88  0.05  131   0.09
 5.500      1.07  0.14 -142   0.12
10.000      1.56  0.40  -93   0.36
!
! (c) 2013  Infineon Technologies AG, Munich
