! Infineon Technologies  Discrete & RF Semiconductors
! BFP640
! VCE =  2.5 V,  IC =  8.0 mA
! Common Emitter S-Parameters:                            Apr 2013
# GHz  S  MA  R  50
!  f         S11            S21            S12            S22
! GHz     MAG   ANG      MAG   ANG      MAG   ANG      MAG   ANG
 0.030  0.8887   -2.4  22.230  177.3  0.0017  108.9  0.9950   -1.4
 0.040  0.8899   -3.3  22.198  176.6  0.0024   80.8  0.9968   -2.0
 0.050  0.8893   -4.1  22.436  176.2  0.0038   79.4  0.9977   -2.6
 0.060  0.8898   -4.9  22.404  175.2  0.0040  107.6  0.9971   -3.0
 0.070  0.8884   -5.8  22.284  174.7  0.0041   83.4  0.9966   -3.5
 0.080  0.8863   -6.6  22.276  174.0  0.0046   73.5  0.9950   -4.1
 0.090  0.8877   -7.5  22.211  173.3  0.0043   93.9  0.9963   -4.5
 0.100  0.8844   -8.4  22.267  172.7  0.0059   88.6  0.9949   -5.1
 0.110  0.8843   -9.2  22.291  171.9  0.0065   80.8  0.9944   -5.6
 0.120  0.8833  -10.1  22.226  171.2  0.0063   87.4  0.9932   -6.1
 0.130  0.8832  -10.8  22.109  170.6  0.0075   88.3  0.9920   -6.6
 0.140  0.8825  -11.7  22.019  169.9  0.0077   84.5  0.9908   -7.2
 0.150  0.8816  -12.6  22.032  169.3  0.0086   81.7  0.9898   -7.7
 0.200  0.8750  -16.6  21.883  165.8  0.0117   82.5  0.9819  -10.3
 0.250  0.8672  -20.7  21.609  162.4  0.0141   82.8  0.9726  -12.8
 0.300  0.8575  -24.9  21.330  159.1  0.0163   78.3  0.9610  -15.3
 0.350  0.8473  -28.8  20.895  156.0  0.0192   76.4  0.9488  -17.7
 0.400  0.8344  -32.9  20.672  152.7  0.0219   74.0  0.9321  -20.1
 0.450  0.8211  -36.7  20.238  149.7  0.0243   71.7  0.9185  -22.3
 0.500  0.8053  -40.8  19.980  146.6  0.0267   70.2  0.8994  -24.6
 0.600  0.7739  -48.4  19.128  140.8  0.0312   67.1  0.8608  -28.8
 0.700  0.7414  -55.6  18.230  135.6  0.0353   63.1  0.8226  -32.5
 0.800  0.7033  -63.1  17.541  130.2  0.0386   60.1  0.7799  -36.1
 0.900  0.6712  -69.8  16.656  125.6  0.0420   57.3  0.7399  -39.2
 1.000  0.6389  -76.3  15.801  121.4  0.0450   54.9  0.7013  -42.0
 1.100  0.6100  -82.3  14.960  117.5  0.0475   52.6  0.6637  -44.4
 1.200  0.5802  -88.3  14.219  113.7  0.0500   50.7  0.6301  -46.6
 1.300  0.5533  -94.1  13.528  110.2  0.0521   48.9  0.5966  -48.5
 1.400  0.5307  -99.6  12.877  107.0  0.0540   47.3  0.5695  -50.1
 1.500  0.5080 -105.0  12.289  103.9  0.0562   46.1  0.5417  -51.6
 1.600  0.4879 -110.5  11.765  100.9  0.0577   44.7  0.5160  -53.1
 1.700  0.4715 -115.6  11.244   98.2  0.0598   43.7  0.4930  -54.1
 1.800  0.4574 -120.6  10.760   95.6  0.0615   42.5  0.4712  -55.5
 1.900  0.4465 -125.3  10.309   93.3  0.0632   41.6  0.4517  -56.5
 2.000  0.4348 -130.2   9.906   90.8  0.0647   40.7  0.4318  -57.7
 2.100  0.4271 -134.9   9.506   88.5  0.0664   39.7  0.4134  -58.8
 2.200  0.4162 -139.7   9.160   86.1  0.0677   38.7  0.3963  -59.7
 2.300  0.4100 -144.1   8.818   84.0  0.0692   38.2  0.3803  -60.4
 2.400  0.4030 -148.5   8.504   81.9  0.0709   37.5  0.3660  -61.2
 2.500  0.3987 -152.5   8.196   80.0  0.0722   36.6  0.3513  -61.8
 2.600  0.3934 -156.9   7.927   77.9  0.0737   35.9  0.3369  -62.5
 2.700  0.3903 -161.1   7.667   76.0  0.0751   35.2  0.3222  -63.0
 2.800  0.3871 -165.2   7.429   74.0  0.0767   34.5  0.3094  -63.8
 2.900  0.3864 -169.1   7.197   72.1  0.0782   33.9  0.2962  -64.5
 3.000  0.3856 -172.9   6.975   70.3  0.0797   33.1  0.2844  -65.4
 3.100  0.3848 -177.0   6.778   68.4  0.0809   32.7  0.2712  -66.1
 3.200  0.3857  179.4   6.578   66.7  0.0827   32.0  0.2602  -67.1
 3.300  0.3874  175.8   6.396   64.9  0.0840   31.3  0.2491  -68.1
 3.400  0.3905  172.4   6.210   63.2  0.0855   30.5  0.2383  -69.0
 3.500  0.3925  169.0   6.042   61.5  0.0868   29.9  0.2272  -69.9
 3.600  0.3958  165.8   5.878   59.8  0.0882   29.1  0.2163  -71.0
 3.700  0.3992  162.5   5.731   58.1  0.0895   28.4  0.2050  -72.1
 3.800  0.4041  159.5   5.578   56.5  0.0910   27.8  0.1946  -73.2
 3.900  0.4085  156.7   5.435   54.9  0.0923   27.1  0.1847  -74.5
 4.000  0.4132  153.8   5.298   53.3  0.0935   26.4  0.1752  -75.9
 4.100  0.4179  151.1   5.166   51.7  0.0949   25.8  0.1651  -77.4
 4.200  0.4236  148.3   5.042   50.1  0.0962   25.0  0.1568  -79.0
 4.300  0.4286  145.9   4.921   48.6  0.0974   24.4  0.1484  -80.6
 4.400  0.4353  143.5   4.803   47.1  0.0988   23.6  0.1413  -82.0
 4.500  0.4398  141.4   4.689   45.6  0.1001   23.0  0.1329  -83.6
 4.600  0.4461  139.2   4.585   44.1  0.1013   22.5  0.1251  -85.1
 4.700  0.4506  137.2   4.480   42.7  0.1024   21.7  0.1183  -86.5
 4.800  0.4571  135.3   4.383   41.2  0.1036   21.1  0.1112  -88.1
 4.900  0.4613  133.5   4.285   39.8  0.1047   20.4  0.1050  -89.4
 5.000  0.4674  131.8   4.193   38.4  0.1061   19.8  0.0987  -90.6
 5.100  0.4712  130.0   4.109   37.0  0.1072   19.2  0.0924  -92.0
 5.200  0.4758  128.5   4.023   35.7  0.1085   18.6  0.0870  -92.9
 5.300  0.4797  126.8   3.942   34.3  0.1098   17.8  0.0811  -94.1
 5.400  0.4841  125.5   3.859   33.0  0.1108   17.3  0.0759  -94.7
 5.500  0.4869  123.9   3.786   31.6  0.1122   16.6  0.0697  -95.6
 5.600  0.4905  122.7   3.713   30.4  0.1133   16.0  0.0644  -96.3
 5.700  0.4926  121.2   3.647   29.1  0.1146   15.5  0.0581  -96.9
 5.800  0.4968  119.9   3.579   27.8  0.1160   14.9  0.0531  -97.8
 5.900  0.4998  118.7   3.518   26.5  0.1173   14.2  0.0482  -98.7
 6.000  0.5029  117.5   3.456   25.2  0.1188   13.6  0.0430 -100.6
 6.100  0.5075  116.3   3.404   24.0  0.1201   12.9  0.0380 -102.6
 6.200  0.5094  115.0   3.347   22.7  0.1214   12.2  0.0329 -106.5
 6.300  0.5144  113.8   3.294   21.4  0.1228   11.4  0.0284 -109.9
 6.400  0.5171  112.5   3.242   20.1  0.1245   10.7  0.0234 -117.2
 6.500  0.5215  111.0   3.195   18.7  0.1258    9.9  0.0185 -127.1
 6.600  0.5246  109.7   3.144   17.4  0.1270    9.1  0.0152 -140.2
 6.700  0.5288  108.3   3.099   16.1  0.1284    8.4  0.0123 -161.2
 6.800  0.5330  106.9   3.047   14.8  0.1295    7.4  0.0119  176.2
 6.900  0.5372  105.5   3.004   13.5  0.1309    6.8  0.0137  149.3
 7.000  0.5408  104.0   2.960   12.1  0.1322    6.0  0.0175  137.1
 7.100  0.5453  102.6   2.919   10.8  0.1334    5.2  0.0224  126.1
 7.200  0.5495  101.1   2.875    9.5  0.1346    4.3  0.0265  120.5
 7.300  0.5538   99.7   2.835    8.1  0.1358    3.4  0.0314  114.8
 7.400  0.5586   98.3   2.791    6.8  0.1370    2.6  0.0358  111.2
 7.500  0.5639   96.8   2.752    5.4  0.1382    1.8  0.0419  106.3
 7.600  0.5691   95.3   2.710    4.0  0.1392    0.9  0.0479  104.2
 7.700  0.5757   93.9   2.672    2.7  0.1403   -0.0  0.0541  101.0
 7.800  0.5813   92.3   2.632    1.4  0.1412   -0.9  0.0596   98.3
 7.900  0.5882   91.0   2.590    0.0  0.1421   -1.7  0.0673   95.5
 8.000  0.5944   89.5   2.553   -1.4  0.1429   -2.6  0.0741   93.6
 8.500  0.6305   82.7   2.357   -8.1  0.1467   -7.0  0.1170   83.5
 9.000  0.6676   76.6   2.163  -14.2  0.1486  -11.2  0.1707   78.0
 9.500  0.7043   71.4   1.981  -19.5  0.1494  -14.7  0.2269   75.4
10.000  0.7355   67.7   1.831  -24.1  0.1504  -17.5  0.2759   75.3
!
!  f       NFmin   Gammaopt  rn/50
! GHz       dB    MAG  ANG    -
 0.450      0.60  0.33   11   0.07
 0.900      0.61  0.32   18   0.07
 1.500      0.64  0.29   30   0.07
 1.900      0.67  0.23   49   0.08
 2.400      0.72  0.21   58   0.08
 3.500      0.84  0.17   76   0.09
 5.500      1.07  0.23 -139   0.10
10.000      1.69  0.60  -62   0.41
!
! (c) 2013  Infineon Technologies AG, Munich
