! Infineon Technologies  Discrete & RF Semiconductors
! BFP620F
! VCE =  2.0 V,  IC =  45 mA
! Common Emitter S-Parameters:                            Dec 2014
# GHz  S  MA  R  50
!  f         S11            S21            S12            S22
! GHz     MAG   ANG      MAG   ANG      MAG   ANG      MAG   ANG
 0.030  0.5372   -7.1  66.321  174.8  0.0021  108.0  0.9467   -2.4
 0.040  0.5391   -9.4  66.286  172.8  0.0027   82.8  0.9547   -4.4
 0.050  0.5385  -11.3  66.233  170.8  0.0036  105.2  0.9582   -6.1
 0.060  0.5374  -13.6  65.988  169.0  0.0032  101.0  0.9566   -7.9
 0.070  0.5344  -16.1  65.663  167.0  0.0049   82.9  0.9544  -10.0
 0.080  0.5333  -18.1  65.263  165.0  0.0047   93.6  0.9530  -11.6
 0.090  0.5264  -20.4  64.650  163.2  0.0058   83.4  0.9465  -13.5
 0.100  0.5230  -22.5  64.028  161.4  0.0055   83.0  0.9414  -15.1
 0.110  0.5152  -24.7  63.338  159.6  0.0069   75.9  0.9318  -16.7
 0.120  0.5093  -26.8  62.625  157.9  0.0080   81.5  0.9223  -18.4
 0.130  0.5055  -28.9  62.017  156.2  0.0079   79.4  0.9151  -20.0
 0.140  0.5006  -30.9  61.217  154.6  0.0079   82.4  0.9042  -21.6
 0.150  0.4970  -32.8  60.611  153.0  0.0093   77.6  0.8954  -23.0
 0.200  0.4700  -42.2  56.573  145.5  0.0114   76.1  0.8405  -29.7
 0.250  0.4412  -50.5  52.551  138.9  0.0132   74.3  0.7826  -35.5
 0.300  0.4143  -58.1  48.600  133.2  0.0156   72.5  0.7260  -40.5
 0.350  0.3879  -65.1  44.801  128.4  0.0174   70.7  0.6717  -44.5
 0.400  0.3643  -71.7  41.479  124.0  0.0193   69.3  0.6224  -48.2
 0.450  0.3446  -77.1  38.428  120.3  0.0210   69.2  0.5801  -51.2
 0.500  0.3245  -82.5  35.659  117.1  0.0227   68.9  0.5399  -53.9
 0.600  0.2936  -92.5  31.023  111.5  0.0259   68.9  0.4707  -58.2
 0.700  0.2697 -100.9  27.333  107.1  0.0290   68.9  0.4157  -61.8
 0.800  0.2524 -108.9  24.326  103.5  0.0322   69.0  0.3693  -64.6
 0.900  0.2374 -115.8  21.871  100.5  0.0354   68.6  0.3308  -67.1
 1.000  0.2277 -122.6  19.857   97.8  0.0385   68.5  0.2980  -69.1
 1.100  0.2183 -128.6  18.133   95.5  0.0416   68.5  0.2690  -71.2
 1.200  0.2138 -134.2  16.701   93.4  0.0448   68.4  0.2451  -72.9
 1.300  0.2084 -139.5  15.453   91.6  0.0477   68.1  0.2224  -74.6
 1.400  0.2069 -144.4  14.386   89.8  0.0511   67.9  0.2039  -76.4
 1.500  0.2040 -148.9  13.443   88.3  0.0540   67.7  0.1865  -78.2
 1.600  0.2043 -153.2  12.618   86.7  0.0573   67.5  0.1730  -80.3
 1.700  0.2029 -157.2  11.882   85.3  0.0602   67.2  0.1592  -82.2
 1.800  0.2039 -160.8  11.238   84.0  0.0635   66.8  0.1491  -84.5
 1.900  0.2040 -164.1  10.650   82.7  0.0666   66.2  0.1396  -87.0
 2.000  0.2050 -167.3  10.126   81.5  0.0698   65.9  0.1328  -89.6
 2.100  0.2073 -170.3   9.643   80.3  0.0729   65.4  0.1327  -93.4
 2.200  0.2079 -172.8   9.209   79.1  0.0761   64.8  0.1273  -95.5
 2.300  0.2094 -175.6   8.809   78.0  0.0790   64.5  0.1222  -97.7
 2.400  0.2107 -177.9   8.451   76.9  0.0823   64.0  0.1178  -99.9
 2.500  0.2115  179.8   8.115   75.9  0.0853   63.3  0.1147 -101.9
 2.600  0.2126  177.5   7.806   74.8  0.0883   63.0  0.1114 -104.1
 2.700  0.2133  175.5   7.521   73.8  0.0917   62.3  0.1091 -105.7
 2.800  0.2136  173.3   7.253   72.9  0.0946   61.9  0.1072 -107.5
 2.900  0.2148  171.5   7.003   71.9  0.0975   61.4  0.1056 -109.4
 3.000  0.2153  169.4   6.778   70.8  0.1005   60.8  0.1046 -111.2
 3.100  0.2161  167.8   6.559   69.9  0.1035   60.2  0.1029 -112.4
 3.200  0.2162  165.9   6.356   69.0  0.1069   59.7  0.1019 -113.7
 3.300  0.2172  164.4   6.166   68.1  0.1097   59.1  0.1012 -114.8
 3.400  0.2170  162.6   5.991   67.1  0.1129   58.5  0.1002 -116.3
 3.500  0.2179  161.0   5.822   66.2  0.1160   58.0  0.0989 -117.2
 3.600  0.2180  159.3   5.664   65.3  0.1189   57.3  0.0979 -118.3
 3.700  0.2188  157.8   5.517   64.3  0.1219   56.7  0.0966 -119.3
 3.800  0.2189  156.1   5.371   63.4  0.1250   56.1  0.0957 -120.2
 3.900  0.2199  154.8   5.240   62.5  0.1280   55.6  0.0941 -121.2
 4.000  0.2202  153.2   5.110   61.7  0.1310   54.9  0.0918 -122.3
 4.100  0.2215  151.9   4.992   60.7  0.1340   54.3  0.0901 -123.2
 4.200  0.2227  150.5   4.877   59.9  0.1372   53.7  0.0878 -124.8
 4.300  0.2237  149.4   4.769   59.0  0.1401   53.0  0.0858 -125.8
 4.400  0.2253  148.0   4.664   58.1  0.1430   52.4  0.0835 -127.2
 4.500  0.2264  147.1   4.565   57.2  0.1461   51.7  0.0811 -128.6
 4.600  0.2286  145.8   4.469   56.3  0.1491   51.2  0.0784 -130.5
 4.700  0.2297  144.8   4.381   55.4  0.1520   50.4  0.0764 -132.3
 4.800  0.2319  143.7   4.293   54.5  0.1551   49.8  0.0737 -134.4
 4.900  0.2339  142.9   4.209   53.7  0.1580   49.1  0.0708 -136.7
 5.000  0.2362  141.9   4.131   52.7  0.1609   48.4  0.0693 -139.1
 5.100  0.2379  141.0   4.054   51.8  0.1639   47.8  0.0667 -140.8
 5.200  0.2404  140.4   3.980   50.9  0.1668   47.0  0.0644 -143.7
 5.300  0.2423  139.5   3.907   50.0  0.1697   46.3  0.0626 -146.2
 5.400  0.2451  138.7   3.839   49.1  0.1725   45.6  0.0614 -149.2
 5.500  0.2474  138.0   3.770   48.2  0.1754   44.9  0.0594 -152.1
 5.600  0.2506  137.3   3.706   47.3  0.1783   44.2  0.0581 -155.5
 5.700  0.2527  136.5   3.643   46.4  0.1809   43.5  0.0568 -158.8
 5.800  0.2550  135.7   3.582   45.4  0.1839   42.8  0.0554 -162.0
 5.900  0.2579  134.9   3.524   44.5  0.1863   42.1  0.0543 -166.3
 6.000  0.2603  134.0   3.465   43.6  0.1892   41.3  0.0535 -169.7
 6.100  0.2632  133.1   3.409   42.7  0.1920   40.6  0.0522 -173.7
 6.200  0.2656  132.2   3.353   41.8  0.1946   39.9  0.0513 -178.8
 6.300  0.2687  131.2   3.299   40.9  0.1970   39.1  0.0511  176.1
 6.400  0.2716  130.2   3.247   39.9  0.1995   38.4  0.0511  171.5
 6.500  0.2742  129.0   3.195   39.0  0.2019   37.7  0.0501  165.6
 6.600  0.2770  127.9   3.142   38.1  0.2042   37.0  0.0508  159.8
 6.700  0.2797  126.7   3.093   37.3  0.2066   36.3  0.0510  153.8
 6.800  0.2826  125.4   3.045   36.3  0.2091   35.6  0.0517  147.9
 6.900  0.2859  124.2   2.997   35.5  0.2114   34.9  0.0526  141.1
 7.000  0.2894  122.9   2.949   34.6  0.2138   34.3  0.0542  134.7
 7.100  0.2930  121.8   2.905   33.8  0.2163   33.6  0.0567  128.1
 7.200  0.2966  120.6   2.862   32.9  0.2188   33.0  0.0600  122.1
 7.300  0.3011  119.6   2.820   32.1  0.2212   32.3  0.0646  116.9
 7.400  0.3057  118.5   2.779   31.3  0.2236   31.7  0.0697  112.3
 7.500  0.3110  117.7   2.741   30.5  0.2262   31.0  0.0758  108.1
 7.600  0.3165  116.9   2.703   29.7  0.2288   30.3  0.0823  104.5
 7.700  0.3227  116.2   2.666   28.9  0.2311   29.6  0.0903  101.7
 7.800  0.3290  115.5   2.630   28.1  0.2335   28.9  0.0985   99.3
 7.900  0.3367  114.9   2.595   27.2  0.2359   28.1  0.1077   97.0
 8.000  0.3445  114.3   2.561   26.4  0.2384   27.3  0.1172   95.0
!
!  f       NFmin   Gammaopt  rn/50
! GHz       dB    MAG  ANG    -
 0.450      1.45  0.18 -172   0.16
 0.900      1.48  0.18 -172   0.14
 1.500      1.49  0.23 -153   0.10
 1.800      1.50  0.23 -152   0.10
 1.900      1.50  0.23 -151   0.11
 2.400      1.52  0.24  213   0.12
 3.500      1.58  0.24  220   0.15
 5.500      1.72  0.29  248   0.19
 6.000      1.76  0.29  261   0.24
!
! (c) 2014  Infineon Technologies AG, Munich
