! Infineon Technologies  Discrete & RF Semiconductors
! BFP640F
! VCE =  2.5 V,  IC =  4.0 mA
! Common Emitter S-Parameters:                            Apr 2013
# GHz  S  MA  R  50
!  f         S11            S21            S12            S22
! GHz     MAG   ANG      MAG   ANG      MAG   ANG      MAG   ANG
 0.030  0.9434   -1.6  12.288  178.4  0.0022   82.0  0.9987   -0.9
 0.040  0.9436   -2.2  12.211  178.0  0.0025   90.9  0.9982   -1.2
 0.050  0.9433   -2.9  12.411  177.6  0.0033   82.0  0.9996   -1.6
 0.060  0.9408   -3.4  12.343  176.8  0.0035   93.7  0.9983   -2.0
 0.070  0.9414   -3.9  12.363  176.4  0.0038   96.7  0.9996   -2.2
 0.080  0.9417   -4.5  12.381  175.9  0.0046   80.8  0.9972   -2.6
 0.090  0.9408   -5.0  12.367  175.4  0.0048   92.1  0.9980   -2.9
 0.100  0.9401   -5.5  12.361  175.0  0.0058   88.8  0.9973   -3.3
 0.110  0.9395   -6.2  12.454  174.4  0.0073   86.8  0.9972   -3.6
 0.120  0.9391   -6.8  12.412  173.9  0.0066   85.5  0.9967   -4.0
 0.130  0.9385   -7.3  12.398  173.4  0.0077   84.3  0.9955   -4.2
 0.140  0.9387   -7.8  12.295  173.0  0.0080   87.4  0.9948   -4.6
 0.150  0.9374   -8.4  12.339  172.5  0.0088   91.7  0.9945   -5.0
 0.200  0.9350  -11.2  12.257  170.0  0.0111   85.0  0.9912   -6.6
 0.250  0.9296  -14.0  12.217  167.6  0.0146   82.9  0.9862   -8.2
 0.300  0.9249  -16.7  12.106  165.2  0.0173   81.9  0.9809   -9.8
 0.350  0.9184  -19.4  11.990  162.8  0.0201   81.0  0.9748  -11.4
 0.400  0.9114  -22.2  11.895  160.4  0.0233   79.6  0.9654  -13.1
 0.450  0.9033  -24.8  11.745  158.1  0.0257   77.4  0.9580  -14.5
 0.500  0.8936  -27.6  11.688  155.8  0.0286   77.1  0.9483  -16.1
 0.600  0.8737  -32.9  11.388  151.4  0.0336   74.1  0.9262  -19.1
 0.700  0.8513  -38.1  11.108  147.2  0.0389   71.6  0.9029  -21.9
 0.800  0.8248  -43.4  10.872  142.9  0.0437   68.8  0.8764  -24.6
 0.900  0.7978  -48.4  10.568  138.9  0.0483   66.3  0.8491  -27.0
 1.000  0.7712  -53.2  10.199  135.2  0.0523   63.8  0.8207  -29.4
 1.100  0.7443  -57.7   9.823  131.7  0.0559   61.6  0.7912  -31.5
 1.200  0.7157  -62.1   9.487  128.2  0.0594   59.5  0.7636  -33.4
 1.300  0.6890  -66.4   9.140  125.1  0.0625   57.8  0.7357  -35.1
 1.400  0.6624  -70.6   8.838  122.0  0.0655   56.2  0.7118  -36.6
 1.500  0.6367  -74.6   8.519  119.1  0.0681   54.6  0.6858  -38.0
 1.600  0.6108  -78.7   8.256  116.3  0.0703   53.4  0.6619  -39.4
 1.700  0.5870  -82.6   7.984  113.6  0.0728   52.1  0.6409  -40.5
 1.800  0.5673  -86.1   7.683  111.3  0.0750   50.9  0.6200  -41.8
 1.900  0.5481  -89.7   7.419  109.0  0.0770   49.8  0.6005  -42.8
 2.000  0.5312  -93.1   7.160  106.9  0.0789   49.0  0.5816  -43.9
 2.100  0.5153  -96.9   6.929  104.5  0.0807   48.1  0.5639  -45.1
 2.200  0.4987 -100.1   6.710  102.4  0.0825   47.3  0.5487  -45.9
 2.300  0.4833 -103.3   6.481  100.5  0.0843   46.6  0.5348  -46.7
 2.400  0.4695 -106.2   6.274   98.6  0.0854   46.0  0.5217  -47.5
 2.500  0.4575 -109.0   6.067   96.9  0.0872   45.5  0.5091  -48.1
 2.600  0.4443 -112.1   5.890   95.1  0.0889   44.9  0.4975  -48.8
 2.700  0.4333 -114.8   5.709   93.5  0.0902   44.6  0.4870  -49.2
 2.800  0.4203 -117.8   5.559   91.7  0.0918   44.0  0.4788  -49.8
 2.900  0.4120 -120.4   5.394   90.2  0.0931   43.6  0.4698  -50.4
 3.000  0.4017 -123.0   5.252   88.6  0.0945   43.3  0.4620  -50.9
 3.100  0.3923 -125.7   5.111   87.1  0.0960   43.0  0.4540  -51.3
 3.200  0.3831 -128.3   4.981   85.6  0.0975   42.6  0.4483  -51.9
 3.300  0.3765 -130.7   4.852   84.2  0.0987   42.4  0.4424  -52.3
 3.400  0.3696 -133.2   4.727   82.9  0.1005   42.0  0.4367  -52.7
 3.500  0.3639 -135.5   4.610   81.6  0.1018   41.9  0.4306  -53.1
 3.600  0.3569 -137.9   4.500   80.3  0.1032   41.7  0.4263  -53.4
 3.700  0.3509 -140.2   4.399   79.0  0.1048   41.5  0.4215  -53.7
 3.800  0.3455 -142.7   4.301   77.7  0.1065   41.1  0.4183  -54.1
 3.900  0.3421 -144.8   4.201   76.5  0.1078   40.9  0.4137  -54.4
 4.000  0.3370 -147.2   4.111   75.2  0.1092   40.8  0.4091  -54.7
 4.100  0.3340 -149.3   4.022   74.1  0.1108   40.5  0.4049  -54.9
 4.200  0.3291 -151.9   3.947   72.8  0.1123   40.3  0.4014  -55.3
 4.300  0.3271 -154.0   3.865   71.6  0.1139   40.0  0.3973  -55.5
 4.400  0.3244 -156.4   3.790   70.5  0.1154   39.8  0.3936  -55.8
 4.500  0.3231 -158.2   3.711   69.4  0.1170   39.7  0.3892  -56.0
 4.600  0.3216 -160.6   3.644   68.2  0.1185   39.4  0.3855  -56.3
 4.700  0.3187 -162.8   3.582   67.1  0.1201   39.1  0.3825  -56.5
 4.800  0.3183 -164.9   3.516   65.9  0.1216   39.0  0.3780  -56.8
 4.900  0.3176 -166.8   3.452   64.8  0.1231   38.8  0.3736  -57.0
 5.000  0.3167 -168.9   3.391   63.7  0.1248   38.5  0.3707  -57.2
 5.100  0.3155 -170.9   3.337   62.6  0.1264   38.3  0.3673  -57.4
 5.200  0.3147 -172.8   3.279   61.5  0.1280   38.0  0.3646  -57.6
 5.300  0.3141 -174.7   3.226   60.5  0.1296   37.8  0.3608  -57.8
 5.400  0.3151 -176.5   3.170   59.4  0.1312   37.6  0.3580  -58.0
 5.500  0.3142 -178.4   3.121   58.3  0.1329   37.4  0.3544  -58.2
 5.600  0.3145  179.9   3.070   57.3  0.1346   37.2  0.3519  -58.3
 5.700  0.3131  178.0   3.026   56.2  0.1360   36.8  0.3486  -58.5
 5.800  0.3130  176.0   2.980   55.1  0.1376   36.6  0.3467  -58.8
 5.900  0.3130  174.2   2.935   54.1  0.1393   36.3  0.3436  -58.9
 6.000  0.3128  172.4   2.890   53.0  0.1409   36.0  0.3407  -59.0
 6.100  0.3126  170.3   2.854   52.0  0.1425   35.7  0.3382  -59.2
 6.200  0.3116  168.7   2.807   51.0  0.1442   35.4  0.3356  -59.4
 6.300  0.3120  166.5   2.768   49.9  0.1459   35.1  0.3330  -59.5
 6.400  0.3130  165.0   2.723   49.0  0.1476   34.9  0.3287  -59.6
 6.500  0.3119  162.7   2.686   47.9  0.1490   34.6  0.3258  -59.7
 6.600  0.3118  160.8   2.650   46.9  0.1505   34.3  0.3236  -59.8
 6.700  0.3122  158.8   2.611   45.9  0.1522   34.1  0.3202  -59.8
 6.800  0.3131  156.9   2.574   45.0  0.1537   33.7  0.3174  -59.9
 6.900  0.3146  155.0   2.537   44.0  0.1556   33.6  0.3133  -59.7
 7.000  0.3146  153.0   2.504   43.0  0.1570   33.3  0.3103  -59.7
 7.100  0.3165  151.0   2.470   42.1  0.1588   33.1  0.3059  -59.5
 7.200  0.3181  149.2   2.438   41.3  0.1603   32.8  0.3032  -59.6
 7.300  0.3211  147.4   2.406   40.3  0.1623   32.6  0.2989  -59.5
 7.400  0.3237  145.7   2.375   39.4  0.1640   32.4  0.2949  -59.4
 7.500  0.3286  144.0   2.345   38.6  0.1661   32.1  0.2888  -59.4
 7.600  0.3321  142.3   2.319   37.7  0.1681   31.9  0.2840  -59.4
 7.700  0.3380  140.8   2.293   36.8  0.1701   31.5  0.2783  -59.3
 7.800  0.3432  139.1   2.269   35.9  0.1719   31.1  0.2717  -59.3
 7.900  0.3507  137.8   2.240   35.0  0.1741   30.8  0.2643  -59.2
 8.000  0.3567  136.3   2.217   34.1  0.1759   30.5  0.2568  -59.2
 8.500  0.3974  130.2   2.101   29.6  0.1854   28.5  0.2120  -58.1
 9.000  0.4372  125.4   1.995   25.3  0.1943   26.7  0.1609  -55.6
 9.500  0.4729  121.3   1.904   21.1  0.2040   24.8  0.1072  -51.6
10.000  0.5051  117.5   1.820   16.8  0.2148   22.6  0.0499  -43.0
!
!  f       NFmin   Gammaopt  rn/50
! GHz       dB    MAG  ANG    -
 0.450      0.49  0.47    8   0.17
 0.900      0.54  0.47   21   0.17
 1.500      0.58  0.47   31   0.17
 1.900      0.61  0.44   44   0.17
 2.400      0.67  0.40   59   0.17
 3.500      0.76  0.30   79   0.18
 5.500      1.02  0.24  148   0.19
10.000      1.80  0.46 -106   0.37
!
! (c) 2013  Infineon Technologies AG, Munich
