! Infineon Technologies  Discrete & RF Semiconductors
! BFP640FESD
! VCE =  1.0 V,  IC =  50 mA
! Common Emitter S-Parameters:                            Jan 2016
# GHz  S  MA  R  50
!  f         S11            S21            S12            S22
! GHz     MAG   ANG      MAG   ANG      MAG   ANG      MAG   ANG
 0.010  0.1175 -167.0  12.383  178.5  0.0033   21.2  0.0932    4.4
 0.015  0.1211 -162.1  12.346  177.4  0.0036   19.6  0.0957    0.5
 0.020  0.1255 -157.6  12.313  176.2  0.0039   18.3  0.0987   -3.2
 0.025  0.1322 -154.0  12.288  175.4  0.0041   20.5  0.0988   -4.6
 0.030  0.1393 -150.8  12.267  174.5  0.0042   22.6  0.0990   -6.0
 0.035  0.1469 -147.8  12.247  173.7  0.0044   24.5  0.0993   -7.4
 0.040  0.1548 -145.2  12.231  172.8  0.0045   26.3  0.0996   -8.8
 0.045  0.1630 -142.8  12.217  172.0  0.0047   28.0  0.1000  -10.2
 0.050  0.1714 -140.7  12.206  171.1  0.0049   29.5  0.1004  -11.6
 0.055  0.1810 -139.4  12.160  170.2  0.0050   31.1  0.1001  -12.9
 0.060  0.1906 -138.3  12.116  169.3  0.0052   32.6  0.0998  -14.2
 0.065  0.2004 -137.2  12.076  168.4  0.0053   34.1  0.0996  -15.5
 0.070  0.2102 -136.3  12.038  167.5  0.0055   35.5  0.0994  -16.8
 0.075  0.2200 -135.4  12.004  166.6  0.0056   36.8  0.0993  -18.1
 0.080  0.2299 -134.7  11.973  165.6  0.0058   38.0  0.0992  -19.4
 0.085  0.2398 -133.9  11.945  164.7  0.0059   39.1  0.0992  -20.7
 0.090  0.2498 -133.3  11.920  163.8  0.0061   40.3  0.0992  -22.0
 0.095  0.2598 -132.7  11.898  162.8  0.0062   41.3  0.0993  -23.3
 0.100  0.2698 -132.1  11.880  161.9  0.0064   42.3  0.0994  -24.6
 0.105  0.2791 -132.2  11.811  161.1  0.0066   42.7  0.0988  -25.8
 0.110  0.2884 -132.4  11.743  160.3  0.0068   43.1  0.0982  -26.9
 0.115  0.2978 -132.5  11.679  159.5  0.0069   43.5  0.0977  -28.1
 0.120  0.3071 -132.6  11.616  158.6  0.0071   43.9  0.0972  -29.3
 0.125  0.3164 -132.7  11.556  157.8  0.0073   44.2  0.0968  -30.5
 0.130  0.3258 -132.8  11.499  157.0  0.0075   44.5  0.0964  -31.7
 0.135  0.3351 -132.9  11.444  156.1  0.0077   44.8  0.0961  -33.0
 0.140  0.3444 -133.0  11.392  155.2  0.0078   45.1  0.0958  -34.2
 0.145  0.3538 -133.1  11.342  154.4  0.0080   45.4  0.0955  -35.4
 0.150  0.3631 -133.2  11.295  153.5  0.0082   45.7  0.0953  -36.7
 0.155  0.3712 -133.6  11.218  152.8  0.0083   46.0  0.0947  -37.8
 0.160  0.3793 -133.9  11.143  152.1  0.0085   46.2  0.0942  -38.9
 0.165  0.3874 -134.3  11.069  151.3  0.0086   46.5  0.0937  -40.0
 0.170  0.3956 -134.6  10.997  150.6  0.0088   46.8  0.0932  -41.1
 0.175  0.4037 -135.0  10.928  149.9  0.0089   47.0  0.0927  -42.2
 0.180  0.4119 -135.3  10.860  149.1  0.0091   47.2  0.0923  -43.4
 0.185  0.4201 -135.6  10.793  148.3  0.0092   47.5  0.0920  -44.5
 0.190  0.4283 -135.9  10.729  147.6  0.0094   47.7  0.0916  -45.7
 0.195  0.4365 -136.1  10.667  146.8  0.0095   47.9  0.0914  -46.8
 0.200  0.4447 -136.4  10.607  146.0  0.0097   48.1  0.0911  -48.0
 0.220  0.4719 -138.2  10.289  143.4  0.0103   48.1  0.0890  -51.9
 0.240  0.4996 -139.9   9.993  140.7  0.0109   48.1  0.0874  -55.9
 0.260  0.5244 -141.4   9.706  138.2  0.0115   48.1  0.0856  -59.7
 0.280  0.5462 -143.0   9.420  135.9  0.0120   48.0  0.0836  -63.3
 0.300  0.5685 -144.5   9.150  133.5  0.0125   48.0  0.0819  -67.1
 0.320  0.5861 -146.0   8.872  131.6  0.0129   48.0  0.0801  -70.6
 0.340  0.6041 -147.5   8.604  129.6  0.0133   47.9  0.0785  -74.2
 0.360  0.6204 -148.9   8.346  127.6  0.0137   47.9  0.0772  -77.6
 0.380  0.6348 -150.2   8.096  125.8  0.0141   47.8  0.0759  -80.6
 0.400  0.6496 -151.5   7.855  123.9  0.0145   47.7  0.0749  -83.8
 0.420  0.6607 -152.7   7.625  122.4  0.0149   47.7  0.0736  -86.6
 0.440  0.6722 -153.9   7.401  120.7  0.0152   47.8  0.0724  -89.4
 0.450  0.6780 -154.5   7.291  119.9  0.0154   47.8  0.0719  -90.9
 0.460  0.6824 -155.1   7.188  119.2  0.0156   47.8  0.0714  -92.3
 0.480  0.6913 -156.2   6.985  117.9  0.0159   47.9  0.0704  -95.2
 0.500  0.7005 -157.3   6.786  116.4  0.0162   47.9  0.0696  -98.1
 0.520  0.7071 -158.3   6.607  115.3  0.0165   48.0  0.0689 -100.5
 0.540  0.7139 -159.2   6.431  114.2  0.0168   48.2  0.0682 -102.9
 0.560  0.7209 -160.2   6.257  113.0  0.0170   48.3  0.0677 -105.3
 0.580  0.7281 -161.1   6.086  111.7  0.0173   48.4  0.0673 -107.8
 0.600  0.7355 -162.0   5.918  110.4  0.0176   48.5  0.0671 -110.3
 0.620  0.7400 -162.8   5.777  109.5  0.0179   48.7  0.0668 -112.4
 0.640  0.7446 -163.5   5.638  108.6  0.0182   48.8  0.0666 -114.5
 0.660  0.7494 -164.3   5.500  107.7  0.0184   49.0  0.0665 -116.6
 0.680  0.7543 -165.1   5.364  106.7  0.0187   49.1  0.0665 -118.7
 0.700  0.7593 -165.8   5.229  105.6  0.0190   49.3  0.0666 -120.8
 0.720  0.7625 -166.5   5.114  104.9  0.0193   49.5  0.0666 -122.5
 0.740  0.7658 -167.1   5.000  104.1  0.0196   49.7  0.0666 -124.3
 0.760  0.7692 -167.7   4.888  103.3  0.0198   49.9  0.0667 -126.0
 0.780  0.7726 -168.4   4.776  102.4  0.0201   50.0  0.0669 -127.8
 0.800  0.7762 -169.0   4.665  101.5  0.0204   50.2  0.0671 -129.5
 0.820  0.7786 -169.6   4.572  100.8  0.0207   50.4  0.0674 -131.0
 0.840  0.7811 -170.2   4.480  100.1  0.0209   50.6  0.0677 -132.5
 0.860  0.7836 -170.8   4.389   99.4  0.0212   50.8  0.0680 -133.9
 0.880  0.7863 -171.3   4.298   98.7  0.0214   50.9  0.0685 -135.4
 0.900  0.7890 -171.9   4.208   97.9  0.0217   51.1  0.0689 -136.8
 0.920  0.7907 -172.4   4.129   97.3  0.0220   51.3  0.0694 -138.2
 0.940  0.7925 -172.9   4.051   96.7  0.0222   51.5  0.0699 -139.5
 0.960  0.7944 -173.4   3.972   96.1  0.0225   51.7  0.0705 -140.8
 0.980  0.7963 -173.9   3.895   95.4  0.0227   51.9  0.0711 -142.1
 1.000  0.7983 -174.4   3.818   94.7  0.0230   52.1  0.0718 -143.4
 1.020  0.7998 -174.8   3.753   94.2  0.0233   52.3  0.0724 -144.4
 1.040  0.8013 -175.2   3.689   93.6  0.0235   52.5  0.0730 -145.4
 1.060  0.8029 -175.7   3.625   93.1  0.0238   52.7  0.0737 -146.3
 1.080  0.8045 -176.1   3.561   92.5  0.0240   52.9  0.0743 -147.3
 1.100  0.8062 -176.5   3.498   91.9  0.0243   53.1  0.0750 -148.2
 1.120  0.8075 -176.9   3.442   91.4  0.0246   53.2  0.0759 -149.2
 1.140  0.8088 -177.3   3.386   90.9  0.0249   53.4  0.0768 -150.1
 1.160  0.8102 -177.7   3.330   90.3  0.0251   53.5  0.0778 -151.0
 1.180  0.8116 -178.1   3.275   89.8  0.0254   53.7  0.0787 -151.9
 1.200  0.8131 -178.5   3.220   89.2  0.0257   53.8  0.0797 -152.8
 1.220  0.8141 -178.8   3.172   88.8  0.0260   54.0  0.0804 -153.4
 1.240  0.8151 -179.2   3.125   88.3  0.0263   54.1  0.0812 -154.1
 1.260  0.8161 -179.5   3.077   87.9  0.0265   54.3  0.0819 -154.7
 1.280  0.8172 -179.9   3.030   87.4  0.0268   54.4  0.0826 -155.3
 1.300  0.8183  179.8   2.983   86.9  0.0271   54.6  0.0834 -155.9
 1.320  0.8188  179.5   2.941   86.5  0.0274   54.8  0.0845 -156.5
 1.340  0.8193  179.1   2.898   86.1  0.0276   54.9  0.0855 -157.0
 1.360  0.8198  178.8   2.856   85.6  0.0279   55.1  0.0866 -157.6
 1.380  0.8203  178.4   2.815   85.2  0.0281   55.2  0.0877 -158.1
 1.400  0.8209  178.1   2.773   84.7  0.0284   55.4  0.0888 -158.6
 1.420  0.8216  177.8   2.738   84.3  0.0287   55.5  0.0895 -159.0
 1.440  0.8224  177.5   2.703   83.9  0.0290   55.6  0.0902 -159.5
 1.460  0.8232  177.3   2.668   83.5  0.0293   55.7  0.0909 -159.9
 1.480  0.8240  177.0   2.633   83.1  0.0296   55.8  0.0917 -160.3
 1.500  0.8248  176.7   2.598   82.7  0.0299   55.9  0.0924 -160.7
 1.520  0.8255  176.4   2.566   82.3  0.0302   56.0  0.0935 -161.0
 1.540  0.8261  176.2   2.534   82.0  0.0305   56.1  0.0946 -161.3
 1.560  0.8268  175.9   2.502   81.6  0.0308   56.3  0.0958 -161.6
 1.580  0.8276  175.7   2.471   81.2  0.0311   56.4  0.0969 -161.9
 1.600  0.8283  175.4   2.439   80.8  0.0314   56.5  0.0980 -162.2
 1.620  0.8286  175.1   2.411   80.4  0.0317   56.6  0.0988 -162.5
 1.640  0.8289  174.8   2.383   80.0  0.0320   56.6  0.0995 -162.9
 1.660  0.8292  174.4   2.355   79.6  0.0322   56.7  0.1003 -163.2
 1.680  0.8296  174.1   2.328   79.2  0.0325   56.7  0.1010 -163.5
 1.700  0.8300  173.8   2.300   78.8  0.0328   56.8  0.1018 -163.8
 1.720  0.8303  173.6   2.274   78.5  0.0331   56.9  0.1027 -163.9
 1.740  0.8306  173.4   2.248   78.1  0.0334   57.0  0.1035 -164.1
 1.760  0.8309  173.1   2.222   77.8  0.0337   57.1  0.1044 -164.2
 1.780  0.8313  172.9   2.196   77.5  0.0340   57.2  0.1052 -164.4
 1.800  0.8316  172.7   2.170   77.1  0.0343   57.3  0.1061 -164.5
 1.820  0.8319  172.4   2.147   76.8  0.0346   57.3  0.1071 -164.8
 1.840  0.8323  172.1   2.125   76.4  0.0349   57.3  0.1081 -165.1
 1.860  0.8326  171.9   2.103   76.1  0.0352   57.4  0.1091 -165.4
 1.880  0.8330  171.6   2.080   75.8  0.0355   57.4  0.1101 -165.7
 1.900  0.8334  171.3   2.058   75.4  0.0358   57.4  0.1111 -166.0
 1.920  0.8334  171.1   2.038   75.1  0.0361   57.5  0.1118 -166.1
 1.940  0.8335  170.9   2.018   74.8  0.0364   57.6  0.1125 -166.2
 1.960  0.8335  170.7   1.998   74.5  0.0368   57.6  0.1132 -166.2
 1.980  0.8336  170.5   1.979   74.1  0.0371   57.7  0.1139 -166.3
 2.000  0.8337  170.3   1.959   73.8  0.0374   57.8  0.1146 -166.4
 2.020  0.8336  170.0   1.941   73.5  0.0377   57.8  0.1154 -166.6
 2.040  0.8336  169.8   1.923   73.2  0.0380   57.8  0.1162 -166.8
 2.060  0.8335  169.5   1.905   72.8  0.0383   57.8  0.1170 -166.9
 2.080  0.8335  169.3   1.887   72.5  0.0386   57.8  0.1179 -167.1
 2.100  0.8335  169.0   1.869   72.2  0.0389   57.9  0.1187 -167.3
 2.120  0.8336  168.7   1.851   71.8  0.0392   57.9  0.1195 -167.4
 2.140  0.8336  168.5   1.833   71.5  0.0395   57.9  0.1203 -167.6
 2.160  0.8336  168.2   1.815   71.1  0.0398   57.9  0.1212 -167.8
 2.180  0.8337  168.0   1.798   70.8  0.0401   57.9  0.1220 -167.9
 2.200  0.8338  167.7   1.780   70.4  0.0404   57.9  0.1228 -168.1
 2.220  0.8340  167.5   1.765   70.1  0.0407   57.9  0.1237 -168.2
 2.240  0.8342  167.3   1.750   69.9  0.0410   57.9  0.1246 -168.4
 2.260  0.8345  167.0   1.735   69.6  0.0413   57.9  0.1255 -168.5
 2.280  0.8347  166.8   1.721   69.3  0.0416   57.9  0.1264 -168.7
 2.300  0.8350  166.6   1.706   69.0  0.0419   57.9  0.1272 -168.8
 2.320  0.8353  166.4   1.691   68.7  0.0423   57.9  0.1281 -169.0
 2.340  0.8356  166.2   1.677   68.4  0.0426   57.9  0.1290 -169.1
 2.360  0.8359  165.9   1.662   68.1  0.0429   57.9  0.1299 -169.2
 2.380  0.8362  165.7   1.647   67.8  0.0432   57.9  0.1308 -169.4
 2.400  0.8365  165.5   1.633   67.5  0.0435   57.9  0.1317 -169.5
 2.420  0.8367  165.3   1.620   67.2  0.0438   57.9  0.1326 -169.6
 2.440  0.8370  165.0   1.607   66.9  0.0441   57.9  0.1335 -169.7
 2.460  0.8373  164.8   1.595   66.6  0.0444   57.9  0.1345 -169.8
 2.480  0.8375  164.6   1.582   66.4  0.0447   57.9  0.1354 -169.9
 2.500  0.8378  164.3   1.569   66.1  0.0449   57.8  0.1363 -170.0
 2.520  0.8381  164.1   1.557   65.8  0.0452   57.8  0.1372 -170.1
 2.540  0.8385  163.9   1.544   65.5  0.0455   57.8  0.1381 -170.2
 2.560  0.8388  163.7   1.532   65.1  0.0458   57.8  0.1391 -170.3
 2.580  0.8391  163.4   1.519   64.8  0.0461   57.8  0.1400 -170.4
 2.600  0.8395  163.2   1.507   64.5  0.0464   57.8  0.1409 -170.5
 2.620  0.8396  163.0   1.496   64.3  0.0467   57.8  0.1418 -170.6
 2.640  0.8396  162.8   1.485   64.0  0.0470   57.8  0.1427 -170.6
 2.660  0.8397  162.6   1.474   63.8  0.0473   57.8  0.1436 -170.7
 2.680  0.8398  162.4   1.463   63.5  0.0476   57.8  0.1445 -170.7
 2.700  0.8399  162.2   1.452   63.2  0.0479   57.7  0.1454 -170.8
 2.720  0.8400  162.0   1.441   63.0  0.0482   57.7  0.1464 -170.8
 2.740  0.8402  161.8   1.430   62.7  0.0485   57.7  0.1473 -170.9
 2.760  0.8403  161.6   1.419   62.5  0.0488   57.7  0.1482 -170.9
 2.780  0.8404  161.4   1.408   62.2  0.0491   57.7  0.1491 -171.0
 2.800  0.8406  161.2   1.397   61.9  0.0494   57.7  0.1500 -171.0
 2.820  0.8409  161.0   1.388   61.7  0.0497   57.7  0.1508 -171.0
 2.840  0.8413  160.9   1.379   61.4  0.0500   57.6  0.1516 -171.0
 2.860  0.8417  160.7   1.369   61.2  0.0504   57.6  0.1524 -171.0
 2.880  0.8420  160.5   1.360   60.9  0.0507   57.6  0.1532 -171.0
 2.900  0.8424  160.3   1.351   60.6  0.0510   57.5  0.1540 -171.1
 2.920  0.8428  160.2   1.342   60.4  0.0513   57.5  0.1548 -171.1
 2.940  0.8432  160.0   1.333   60.1  0.0516   57.5  0.1556 -171.1
 2.960  0.8436  159.8   1.324   59.8  0.0520   57.5  0.1564 -171.1
 2.980  0.8440  159.7   1.315   59.6  0.0523   57.4  0.1572 -171.1
 3.000  0.8444  159.5   1.306   59.3  0.0526   57.4  0.1580 -171.1
 3.100  0.8455  158.5   1.269   58.2  0.0542   57.2  0.1608 -171.2
 3.200  0.8468  157.6   1.233   57.0  0.0558   57.0  0.1636 -171.3
 3.300  0.8484  156.6   1.197   55.8  0.0573   56.8  0.1665 -171.4
 3.400  0.8502  155.7   1.162   54.5  0.0589   56.6  0.1693 -171.5
 3.500  0.8522  154.7   1.127   53.1  0.0605   56.4  0.1721 -171.6
 3.600  0.8530  153.7   1.100   52.0  0.0622   56.0  0.1733 -172.0
 3.700  0.8541  152.7   1.073   50.8  0.0639   55.7  0.1745 -172.5
 3.800  0.8555  151.6   1.047   49.5  0.0655   55.4  0.1757 -172.9
 3.900  0.8571  150.6   1.022   48.2  0.0672   55.1  0.1769 -173.3
 4.000  0.8590  149.6   0.997   46.8  0.0689   54.8  0.1781 -173.7
 4.100  0.8591  148.7   0.974   45.7  0.0705   54.3  0.1795 -174.6
 4.200  0.8593  147.8   0.952   44.5  0.0722   53.8  0.1809 -175.5
 4.300  0.8598  146.8   0.930   43.3  0.0738   53.4  0.1824 -176.4
 4.400  0.8606  145.9   0.908   42.0  0.0755   52.9  0.1839 -177.3
 4.500  0.8615  145.0   0.887   40.6  0.0771   52.5  0.1855 -178.2
 4.600  0.8604  144.2   0.868   39.6  0.0786   52.1  0.1868 -179.0
 4.700  0.8595  143.4   0.849   38.5  0.0800   51.7  0.1882 -179.9
 4.800  0.8587  142.7   0.831   37.4  0.0815   51.3  0.1896  179.3
 4.900  0.8581  141.9   0.813   36.3  0.0830   51.0  0.1911  178.5
 5.000  0.8577  141.1   0.795   35.1  0.0845   50.6  0.1926  177.7
 5.100  0.8556  140.3   0.781   34.2  0.0865   50.2  0.1930  176.9
 5.200  0.8537  139.5   0.766   33.3  0.0884   49.8  0.1934  176.1
 5.300  0.8519  138.8   0.752   32.3  0.0904   49.4  0.1939  175.3
 5.400  0.8503  138.0   0.739   31.3  0.0924   49.0  0.1944  174.5
 5.500  0.8488  137.2   0.725   30.3  0.0944   48.7  0.1949  173.7
 5.600  0.8486  136.1   0.714   29.2  0.0960   47.8  0.1957  172.2
 5.700  0.8488  135.1   0.703   28.2  0.0976   47.0  0.1967  170.7
 5.800  0.8492  134.0   0.693   27.0  0.0992   46.2  0.1978  169.2
 5.900  0.8499  133.0   0.683   25.9  0.1008   45.4  0.1990  167.7
 6.000  0.8509  131.9   0.673   24.7  0.1025   44.7  0.2004  166.3
 6.100  0.8507  130.8   0.663   23.7  0.1039   44.0  0.2016  164.7
 6.200  0.8507  129.7   0.652   22.6  0.1053   43.3  0.2030  163.1
 6.300  0.8511  128.6   0.642   21.5  0.1067   42.6  0.2046  161.5
 6.400  0.8518  127.5   0.633   20.4  0.1081   41.9  0.2063  160.0
 6.500  0.8528  126.4   0.623   19.2  0.1095   41.3  0.2081  158.5
 6.600  0.8532  125.4   0.613   18.3  0.1108   40.8  0.2083  156.8
 6.800  0.8548  123.5   0.595   16.3  0.1134   39.8  0.2091  153.6
 7.000  0.8574  121.6   0.577   14.2  0.1161   38.8  0.2107  150.3
 7.200  0.8592  119.8   0.561   12.4  0.1193   37.7  0.2122  145.9
 7.400  0.8619  117.9   0.545   10.5  0.1226   36.7  0.2150  141.5
 7.600  0.8655  116.1   0.529    8.6  0.1258   35.4  0.2215  136.9
 7.800  0.8699  114.2   0.515    6.6  0.1292   33.8  0.2319  132.2
 8.000  0.8753  112.4   0.501    4.5  0.1326   32.3  0.2437  127.9
 8.200  0.8726  110.8   0.485    2.7  0.1345   30.5  0.2584  123.9
 8.400  0.8705  109.1   0.469    0.8  0.1365   28.8  0.2742  120.3
 8.600  0.8668  107.7   0.453   -0.8  0.1381   27.3  0.2901  117.0
 8.800  0.8611  106.6   0.439   -2.2  0.1391   25.9  0.3059  113.9
 9.000  0.8557  105.4   0.424   -3.6  0.1402   24.6  0.3226  111.1
 9.200  0.8568  104.6   0.414   -4.2  0.1413   23.4  0.3424  109.0
 9.400  0.8582  103.7   0.403   -4.8  0.1425   22.2  0.3626  107.1
 9.600  0.8648  102.6   0.394   -5.8  0.1437   21.1  0.3853  105.7
 9.800  0.8770  101.3   0.386   -7.2  0.1448   20.1  0.4105  104.7
10.000  0.8897  100.0   0.378   -8.6  0.1460   19.1  0.4357  103.9
!
!  f       NFmin   Gammaopt  rn/50
! GHz       dB    MAG  ANG    -
 0.450      1.40  0.33 -171   0.09
 2.400      1.49  0.36 -152   0.11
 5.500      1.92  0.39 -139   0.16
10.000      2.79  0.55  -95   0.74
!
! (c) 2016  Infineon Technologies AG, Munich
