! Infineon Technologies  Discrete & RF Semiconductors
! BFP640
! VCE =  2.5 V,  IC =  4.0 mA
! Common Emitter S-Parameters:                            Apr 2013
# GHz  S  MA  R  50
!  f         S11            S21            S12            S22
! GHz     MAG   ANG      MAG   ANG      MAG   ANG      MAG   ANG
 0.030  0.9468   -1.7  12.312  178.0  0.0019   88.2  0.9984   -1.0
 0.040  0.9466   -2.3  12.198  177.5  0.0021  100.5  0.9988   -1.3
 0.050  0.9481   -2.8  12.332  177.4  0.0035   89.7  0.9993   -1.8
 0.060  0.9470   -3.4  12.302  176.7  0.0039   83.5  0.9971   -2.0
 0.070  0.9462   -4.1  12.358  176.3  0.0046   94.6  0.9995   -2.3
 0.080  0.9454   -4.6  12.342  175.8  0.0042   80.3  0.9975   -2.6
 0.090  0.9442   -5.2  12.332  175.3  0.0052   76.8  0.9980   -3.0
 0.100  0.9437   -5.8  12.299  174.9  0.0059   90.5  0.9975   -3.4
 0.110  0.9440   -6.4  12.338  174.4  0.0060   88.9  0.9991   -3.8
 0.120  0.9442   -7.0  12.322  173.9  0.0070   84.3  0.9968   -4.0
 0.130  0.9436   -7.6  12.335  173.4  0.0074   90.5  0.9962   -4.4
 0.140  0.9434   -8.2  12.311  173.0  0.0087   88.8  0.9964   -4.7
 0.150  0.9431   -8.8  12.308  172.5  0.0087   87.3  0.9952   -5.1
 0.200  0.9403  -11.6  12.172  170.1  0.0114   85.3  0.9923   -6.8
 0.250  0.9365  -14.6  12.167  167.7  0.0144   81.9  0.9881   -8.5
 0.300  0.9333  -17.4  12.045  165.3  0.0177   80.9  0.9826  -10.2
 0.350  0.9275  -20.4  12.054  162.8  0.0206   80.3  0.9781  -11.9
 0.400  0.9219  -23.3  11.950  160.5  0.0232   78.2  0.9699  -13.6
 0.450  0.9159  -26.1  11.844  158.1  0.0263   77.1  0.9644  -15.2
 0.500  0.9086  -28.9  11.678  155.9  0.0289   75.0  0.9547  -16.9
 0.600  0.8920  -34.7  11.474  151.3  0.0348   71.9  0.9358  -19.9
 0.700  0.8722  -40.4  11.262  147.0  0.0399   68.3  0.9145  -23.1
 0.800  0.8507  -46.2  11.059  142.6  0.0447   65.1  0.8904  -26.0
 0.900  0.8285  -51.7  10.795  138.5  0.0495   62.0  0.8650  -28.8
 1.000  0.8064  -57.0  10.450  134.7  0.0539   59.2  0.8388  -31.4
 1.100  0.7811  -62.5  10.205  130.7  0.0579   56.3  0.8116  -33.9
 1.200  0.7580  -67.5   9.862  127.1  0.0611   53.6  0.7837  -36.3
 1.300  0.7354  -72.5   9.543  123.7  0.0647   51.3  0.7588  -38.3
 1.400  0.7142  -77.5   9.260  120.4  0.0677   48.9  0.7345  -40.3
 1.500  0.6922  -82.3   8.973  117.3  0.0706   46.8  0.7102  -42.0
 1.600  0.6688  -87.6   8.790  113.9  0.0731   44.7  0.6863  -43.9
 1.700  0.6497  -92.3   8.514  111.0  0.0753   42.8  0.6621  -45.5
 1.800  0.6324  -97.0   8.251  108.1  0.0779   41.0  0.6427  -47.1
 1.900  0.6150 -101.8   8.038  105.3  0.0799   39.3  0.6198  -48.6
 2.000  0.6006 -106.4   7.791  102.6  0.0817   37.7  0.5993  -50.1
 2.100  0.5862 -111.2   7.572   99.8  0.0837   35.8  0.5780  -51.7
 2.200  0.5739 -115.4   7.330   97.3  0.0851   34.5  0.5591  -52.9
 2.300  0.5601 -120.0   7.132   94.7  0.0870   32.8  0.5424  -54.0
 2.400  0.5492 -124.2   6.917   92.4  0.0882   31.6  0.5242  -55.3
 2.500  0.5365 -128.8   6.745   89.9  0.0897   30.3  0.5077  -56.2
 2.600  0.5270 -133.1   6.554   87.6  0.0909   29.1  0.4881  -57.3
 2.700  0.5185 -137.4   6.377   85.4  0.0921   28.0  0.4731  -58.2
 2.800  0.5109 -141.6   6.206   83.1  0.0934   26.8  0.4559  -59.2
 2.900  0.5044 -145.9   6.046   80.9  0.0949   25.8  0.4424  -60.1
 3.000  0.4965 -150.2   5.900   78.7  0.0958   24.8  0.4258  -61.2
 3.100  0.4913 -154.3   5.748   76.6  0.0969   23.7  0.4108  -62.2
 3.200  0.4862 -158.6   5.611   74.4  0.0980   22.7  0.3965  -63.3
 3.300  0.4837 -162.6   5.471   72.4  0.0993   21.6  0.3836  -64.3
 3.400  0.4798 -167.0   5.347   70.3  0.1001   20.7  0.3693  -65.3
 3.500  0.4787 -170.7   5.210   68.4  0.1009   19.8  0.3554  -66.3
 3.600  0.4772 -174.7   5.088   66.4  0.1016   18.8  0.3418  -67.3
 3.700  0.4781 -178.3   4.956   64.5  0.1025   18.0  0.3286  -68.3
 3.800  0.4781  178.0   4.844   62.5  0.1035   17.0  0.3171  -69.2
 3.900  0.4779  174.3   4.739   60.6  0.1041   16.2  0.3048  -70.3
 4.000  0.4804  171.0   4.620   58.8  0.1047   15.4  0.2915  -71.5
 4.100  0.4819  167.7   4.515   56.9  0.1055   14.6  0.2812  -72.6
 4.200  0.4859  164.6   4.402   55.2  0.1060   13.8  0.2705  -73.7
 4.300  0.4877  161.4   4.306   53.4  0.1068   12.9  0.2618  -74.7
 4.400  0.4922  158.5   4.208   51.6  0.1073   12.3  0.2515  -75.7
 4.500  0.4940  155.6   4.119   49.9  0.1079   11.4  0.2429  -76.6
 4.600  0.4996  153.1   4.024   48.2  0.1083   10.9  0.2337  -77.6
 4.700  0.5022  150.5   3.934   46.7  0.1089   10.3  0.2249  -78.4
 4.800  0.5073  148.1   3.852   45.0  0.1096    9.5  0.2179  -79.2
 4.900  0.5099  145.7   3.772   43.4  0.1100    9.1  0.2093  -79.9
 5.000  0.5144  143.4   3.696   41.8  0.1105    8.4  0.2023  -80.6
 5.100  0.5181  141.4   3.612   40.3  0.1111    7.8  0.1953  -81.3
 5.200  0.5216  139.4   3.544   38.8  0.1117    7.2  0.1899  -81.7
 5.300  0.5244  137.4   3.470   37.3  0.1122    6.6  0.1831  -82.3
 5.400  0.5274  135.4   3.408   35.8  0.1129    6.1  0.1774  -82.6
 5.500  0.5298  133.7   3.339   34.3  0.1135    5.6  0.1700  -83.1
 5.600  0.5329  132.0   3.279   32.9  0.1141    5.1  0.1648  -83.4
 5.700  0.5350  130.5   3.211   31.5  0.1145    4.6  0.1584  -83.5
 5.800  0.5381  128.6   3.159   30.1  0.1153    4.0  0.1543  -83.9
 5.900  0.5410  127.3   3.102   28.8  0.1163    3.6  0.1480  -84.2
 6.000  0.5430  125.5   3.058   27.3  0.1171    3.1  0.1427  -84.8
 6.100  0.5477  124.2   3.003   26.0  0.1178    2.8  0.1364  -85.5
 6.200  0.5489  122.7   2.957   24.6  0.1186    2.0  0.1324  -86.1
 6.300  0.5533  121.1   2.912   23.2  0.1197    1.5  0.1259  -86.8
 6.400  0.5554  119.6   2.870   21.8  0.1205    0.8  0.1208  -87.7
 6.500  0.5599  118.0   2.823   20.3  0.1214    0.3  0.1145  -88.6
 6.600  0.5622  116.4   2.781   18.9  0.1223   -0.3  0.1089  -89.5
 6.700  0.5663  114.8   2.740   17.5  0.1229   -0.9  0.1042  -90.3
 6.800  0.5690  113.1   2.702   16.1  0.1239   -1.7  0.0985  -91.3
 6.900  0.5732  111.5   2.661   14.7  0.1248   -2.2  0.0922  -92.4
 7.000  0.5760  109.8   2.625   13.2  0.1256   -2.8  0.0870  -94.2
 7.100  0.5808  108.3   2.583   11.9  0.1265   -3.4  0.0816  -95.7
 7.200  0.5839  106.6   2.548   10.5  0.1270   -4.2  0.0774  -97.2
 7.300  0.5885  105.1   2.512    9.0  0.1279   -4.9  0.0718  -98.6
 7.400  0.5916  103.3   2.479    7.6  0.1287   -5.4  0.0669 -100.2
 7.500  0.5971  101.7   2.442    6.1  0.1295   -6.1  0.0597 -101.5
 7.600  0.6016  100.0   2.409    4.7  0.1301   -6.8  0.0542 -104.2
 7.700  0.6079   98.4   2.372    3.3  0.1309   -7.7  0.0490 -105.4
 7.800  0.6133   96.7   2.336    1.9  0.1315   -8.2  0.0422 -107.7
 7.900  0.6192   95.1   2.305    0.4  0.1320   -9.0  0.0352 -110.1
 8.000  0.6249   93.5   2.269   -1.0  0.1327   -9.5  0.0273 -115.2
 8.500  0.6585   86.0   2.096   -8.0  0.1351  -13.1  0.0160   95.8
 9.000  0.6914   79.1   1.931  -14.5  0.1363  -16.5  0.0670   82.0
 9.500  0.7242   73.5   1.774  -20.2  0.1368  -19.4  0.1252   81.0
10.000  0.7523   69.4   1.642  -25.2  0.1375  -21.5  0.1766   83.0
!
!  f       NFmin   Gammaopt  rn/50
! GHz       dB    MAG  ANG    -
 0.450      0.54  0.50   12   0.12
 0.900      0.55  0.50   22   0.12
 1.500      0.60  0.44   35   0.12
 1.900      0.65  0.39   51   0.12
 2.400      0.70  0.36   59   0.11
 3.500      0.85  0.30   87   0.11
 5.500      1.13  0.30 -163   0.12
10.000      1.90  0.64  -65   0.47
!
! (c) 2013  Infineon Technologies AG, Munich
