! Infineon Technologies  Discrete & RF Semiconductors
! BFP620F
! VCE =  2.0 V,  IC =  20 mA
! Common Emitter S-Parameters:                            Dec 2014
# GHz  S  MA  R  50
!  f         S11            S21            S12            S22
! GHz     MAG   ANG      MAG   ANG      MAG   ANG      MAG   ANG
 0.030  0.7701   -4.3  43.513  175.7  0.0020   80.5  0.9635   -2.7
 0.040  0.7710   -5.7  43.431  174.3  0.0033   75.6  0.9656   -3.9
 0.050  0.7673   -7.4  43.380  173.1  0.0023   71.7  0.9636   -5.1
 0.060  0.7683   -8.7  43.292  172.0  0.0047   90.9  0.9669   -6.1
 0.070  0.7646  -10.2  43.145  170.6  0.0050   73.4  0.9626   -7.5
 0.080  0.7640  -11.8  43.006  169.3  0.0058   75.5  0.9612   -8.6
 0.090  0.7594  -13.2  42.838  168.1  0.0070   75.1  0.9581   -9.8
 0.100  0.7580  -14.7  42.618  166.8  0.0066   79.7  0.9567  -10.9
 0.110  0.7547  -16.1  42.371  165.5  0.0075   82.3  0.9528  -12.1
 0.120  0.7492  -17.6  42.146  164.3  0.0092   80.4  0.9477  -13.2
 0.130  0.7476  -18.9  41.951  163.1  0.0093   77.7  0.9436  -14.2
 0.140  0.7440  -20.3  41.630  161.9  0.0099   76.4  0.9388  -15.4
 0.150  0.7399  -21.7  41.484  160.8  0.0107   75.5  0.9340  -16.5
 0.200  0.7181  -28.5  39.991  155.1  0.0135   74.9  0.9042  -21.7
 0.250  0.6916  -34.9  38.486  149.6  0.0166   73.8  0.8706  -26.4
 0.300  0.6647  -41.0  36.806  144.7  0.0192   70.6  0.8338  -31.0
 0.350  0.6356  -46.8  35.022  140.1  0.0214   69.1  0.7950  -34.9
 0.400  0.6056  -52.3  33.380  135.8  0.0240   68.2  0.7549  -38.5
 0.450  0.5793  -57.2  31.660  132.0  0.0263   66.5  0.7188  -42.0
 0.500  0.5502  -62.1  30.065  128.4  0.0280   65.0  0.6819  -45.0
 0.600  0.4997  -71.0  27.063  122.1  0.0317   63.5  0.6125  -50.2
 0.700  0.4571  -78.7  24.455  116.9  0.0351   62.2  0.5525  -54.6
 0.800  0.4204  -85.8  22.162  112.5  0.0381   61.9  0.4994  -58.2
 0.900  0.3879  -92.2  20.205  108.7  0.0412   61.3  0.4529  -61.4
 1.000  0.3629  -98.4  18.525  105.4  0.0441   60.9  0.4128  -64.0
 1.100  0.3392 -104.1  17.060  102.5  0.0468   60.6  0.3765  -66.5
 1.200  0.3219 -109.6  15.806   99.9  0.0497   60.5  0.3463  -68.6
 1.300  0.3047 -114.8  14.701   97.6  0.0526   60.3  0.3172  -70.6
 1.400  0.2931 -119.8  13.742   95.5  0.0553   60.1  0.2933  -72.4
 1.500  0.2809 -124.5  12.880   93.5  0.0582   60.0  0.2708  -74.3
 1.600  0.2728 -129.2  12.119   91.6  0.0610   60.0  0.2528  -76.2
 1.700  0.2640 -133.5  11.435   89.9  0.0639   60.0  0.2347  -78.0
 1.800  0.2590 -137.7  10.834   88.3  0.0667   59.8  0.2210  -80.1
 1.900  0.2538 -141.5  10.283   86.8  0.0694   59.6  0.2076  -82.1
 2.000  0.2495 -145.3   9.787   85.4  0.0725   59.2  0.1979  -84.3
 2.100  0.2474 -149.0   9.333   84.0  0.0753   58.9  0.1943  -87.4
 2.200  0.2444 -152.3   8.920   82.6  0.0782   58.4  0.1859  -89.2
 2.300  0.2421 -155.6   8.539   81.3  0.0812   58.4  0.1781  -91.0
 2.400  0.2403 -158.5   8.199   80.0  0.0839   57.9  0.1716  -92.8
 2.500  0.2387 -161.5   7.878   78.9  0.0867   57.5  0.1657  -94.5
 2.600  0.2369 -164.3   7.580   77.7  0.0898   57.3  0.1603  -96.2
 2.700  0.2362 -166.8   7.306   76.6  0.0925   57.0  0.1561  -97.6
 2.800  0.2346 -169.3   7.051   75.5  0.0955   56.7  0.1522  -99.2
 2.900  0.2342 -171.7   6.811   74.4  0.0981   56.2  0.1489 -100.8
 3.000  0.2331 -174.1   6.595   73.3  0.1012   55.8  0.1462 -102.4
 3.100  0.2329 -176.2   6.382   72.3  0.1042   55.4  0.1429 -103.5
 3.200  0.2314 -178.4   6.187   71.2  0.1070   55.0  0.1406 -104.8
 3.300  0.2317  179.7   6.006   70.2  0.1097   54.5  0.1384 -105.7
 3.400  0.2306  177.5   5.836   69.2  0.1128   54.1  0.1361 -107.1
 3.500  0.2304  175.5   5.673   68.2  0.1155   53.6  0.1338 -108.0
 3.600  0.2297  173.5   5.521   67.2  0.1182   53.1  0.1316 -109.0
 3.700  0.2298  171.6   5.378   66.2  0.1214   52.7  0.1293 -109.9
 3.800  0.2293  169.7   5.237   65.2  0.1243   52.2  0.1273 -110.8
 3.900  0.2300  167.9   5.110   64.3  0.1272   51.6  0.1248 -111.6
 4.000  0.2295  166.1   4.984   63.4  0.1299   51.1  0.1219 -112.5
 4.100  0.2308  164.4   4.870   62.4  0.1329   50.6  0.1192 -113.4
 4.200  0.2312  162.6   4.759   61.4  0.1357   50.1  0.1158 -114.5
 4.300  0.2321  161.2   4.655   60.5  0.1385   49.5  0.1131 -115.4
 4.400  0.2332  159.5   4.554   59.6  0.1414   49.0  0.1102 -116.4
 4.500  0.2342  158.2   4.456   58.6  0.1442   48.4  0.1068 -117.4
 4.600  0.2360  156.6   4.364   57.7  0.1471   47.8  0.1033 -118.8
 4.700  0.2373  155.3   4.279   56.7  0.1500   47.2  0.1005 -120.1
 4.800  0.2395  153.9   4.193   55.8  0.1529   46.7  0.0971 -121.7
 4.900  0.2415  152.8   4.112   54.9  0.1557   46.1  0.0934 -123.2
 5.000  0.2438  151.5   4.036   53.9  0.1587   45.4  0.0908 -125.0
 5.100  0.2453  150.3   3.961   53.0  0.1615   44.9  0.0875 -126.2
 5.200  0.2481  149.3   3.889   52.0  0.1643   44.2  0.0844 -128.1
 5.300  0.2499  148.2   3.819   51.1  0.1671   43.6  0.0816 -129.9
 5.400  0.2529  147.2   3.753   50.1  0.1698   43.0  0.0793 -132.0
 5.500  0.2552  146.2   3.687   49.2  0.1726   42.3  0.0764 -134.1
 5.600  0.2585  145.2   3.624   48.3  0.1753   41.7  0.0740 -136.7
 5.700  0.2606  144.2   3.563   47.3  0.1781   41.0  0.0714 -139.0
 5.800  0.2630  143.1   3.505   46.3  0.1808   40.3  0.0691 -141.3
 5.900  0.2660  142.1   3.448   45.4  0.1833   39.6  0.0664 -144.6
 6.000  0.2682  141.0   3.390   44.5  0.1859   39.0  0.0646 -147.3
 6.100  0.2709  139.9   3.336   43.6  0.1885   38.3  0.0620 -150.3
 6.200  0.2736  138.8   3.282   42.6  0.1911   37.6  0.0592 -154.2
 6.300  0.2764  137.4   3.229   41.6  0.1934   37.0  0.0570 -158.5
 6.400  0.2792  136.3   3.179   40.6  0.1958   36.3  0.0552 -163.0
 6.500  0.2816  134.9   3.128   39.7  0.1982   35.7  0.0519 -168.1
 6.600  0.2843  133.7   3.077   38.8  0.2006   35.0  0.0504 -174.2
 6.700  0.2868  132.2   3.030   37.9  0.2028   34.3  0.0480  179.9
 6.800  0.2895  130.8   2.983   37.0  0.2051   33.7  0.0462  173.4
 6.900  0.2927  129.4   2.936   36.1  0.2074   33.0  0.0445  165.7
 7.000  0.2961  128.0   2.890   35.2  0.2097   32.4  0.0436  157.5
 7.100  0.2994  126.7   2.847   34.3  0.2121   31.8  0.0437  148.4
 7.200  0.3028  125.4   2.805   33.4  0.2145   31.1  0.0449  139.7
 7.300  0.3072  124.2   2.764   32.6  0.2168   30.5  0.0480  131.1
 7.400  0.3117  123.0   2.724   31.7  0.2192   30.0  0.0520  123.7
 7.500  0.3170  121.9   2.687   30.9  0.2217   29.3  0.0571  117.1
 7.600  0.3225  121.0   2.650   30.1  0.2243   28.7  0.0630  111.5
 7.700  0.3288  120.1   2.614   29.3  0.2266   28.0  0.0705  107.2
 7.800  0.3351  119.2   2.579   28.5  0.2290   27.3  0.0784  103.8
 7.900  0.3428  118.4   2.545   27.6  0.2314   26.6  0.0875  100.6
 8.000  0.3505  117.7   2.512   26.7  0.2338   25.9  0.0969   97.9
!
!  f       NFmin   Gammaopt  rn/50
! GHz       dB    MAG  ANG    -
 0.450      0.84  0.05    2   0.21
 0.900      0.90  0.04    6   0.18
 1.500      0.94  0.04    8   0.15
 1.800      0.96  0.04    9   0.15
 1.900      0.97  0.01   28   0.15
 2.400      1.01  0.01   88   0.15
 3.500      1.08  0.04 -178   0.15
 5.500      1.22  0.15  230   0.10
 6.000      1.25  0.15  253   0.14
!
! (c) 2014  Infineon Technologies AG, Munich
