! Infineon Technologies  Discrete & RF Semiconductors
! BFP640
! VCE =  3.0 V,  IC =  28 mA
! Common Emitter S-Parameters:                            Apr 2013
# GHz  S  MA  R  50
!  f         S11            S21            S12            S22
! GHz     MAG   ANG      MAG   ANG      MAG   ANG      MAG   ANG
 0.030  0.6204   -5.1  55.483  175.0  0.0008   77.3  0.9823   -2.2
 0.040  0.6198   -6.7  55.302  173.7  0.0020   93.7  0.9848   -3.2
 0.050  0.6164   -8.5  55.370  172.6  0.0014  104.6  0.9820   -4.5
 0.060  0.6217  -10.5  55.113  171.0  0.0039   83.9  0.9857   -5.6
 0.070  0.6151  -12.4  54.930  169.7  0.0037   77.6  0.9831   -6.8
 0.080  0.6124  -14.1  54.705  168.3  0.0040   69.1  0.9790   -7.9
 0.090  0.6140  -15.8  54.433  167.0  0.0036   93.5  0.9807   -9.0
 0.100  0.6104  -17.4  54.201  165.8  0.0047   70.5  0.9746  -10.0
 0.110  0.6071  -19.5  54.011  164.3  0.0051   89.2  0.9710  -11.2
 0.120  0.6043  -21.2  53.649  163.0  0.0061   83.0  0.9660  -12.2
 0.130  0.6034  -22.8  53.274  161.7  0.0060   80.3  0.9618  -13.3
 0.140  0.5986  -24.6  52.925  160.4  0.0065   83.7  0.9563  -14.2
 0.150  0.5957  -26.4  52.701  159.1  0.0064   77.5  0.9501  -15.3
 0.200  0.5776  -34.7  50.713  152.8  0.0087   76.0  0.9185  -20.1
 0.250  0.5548  -42.7  48.555  146.9  0.0103   75.2  0.8804  -24.3
 0.300  0.5325  -50.1  46.044  141.6  0.0128   71.4  0.8410  -28.2
 0.350  0.5100  -57.2  43.608  136.6  0.0141   70.4  0.8003  -31.7
 0.400  0.4854  -64.0  41.279  132.0  0.0157   68.1  0.7589  -34.7
 0.450  0.4635  -70.2  38.973  127.9  0.0174   67.3  0.7213  -37.4
 0.500  0.4422  -76.1  36.770  124.2  0.0184   66.1  0.6843  -39.6
 0.600  0.4058  -87.1  32.790  117.7  0.0209   63.5  0.6180  -43.4
 0.700  0.3751  -96.8  29.390  112.4  0.0233   62.6  0.5599  -46.3
 0.800  0.3506 -106.0  26.512  107.7  0.0253   61.6  0.5101  -48.5
 0.900  0.3308 -114.3  24.095  103.8  0.0276   61.1  0.4666  -50.2
 1.000  0.3163 -121.8  21.994  100.4  0.0296   60.5  0.4306  -51.5
 1.100  0.3031 -129.1  20.230   97.3  0.0316   59.8  0.3981  -52.4
 1.200  0.2935 -135.6  18.702   94.5  0.0336   59.6  0.3716  -53.2
 1.300  0.2857 -141.9  17.373   91.9  0.0356   59.1  0.3487  -53.6
 1.400  0.2806 -147.5  16.234   89.6  0.0377   58.6  0.3291  -53.9
 1.500  0.2760 -152.7  15.220   87.5  0.0397   58.2  0.3113  -54.0
 1.600  0.2739 -157.9  14.337   85.3  0.0416   57.6  0.2958  -54.3
 1.700  0.2724 -162.6  13.537   83.4  0.0437   57.2  0.2806  -54.2
 1.800  0.2722 -167.0  12.819   81.5  0.0457   56.6  0.2683  -54.5
 1.900  0.2731 -171.2  12.186   79.7  0.0480   56.1  0.2555  -54.4
 2.000  0.2744 -175.1  11.602   77.9  0.0500   55.5  0.2447  -54.8
 2.100  0.2775 -178.8  11.060   76.2  0.0519   54.9  0.2340  -55.3
 2.200  0.2787  177.8  10.577   74.5  0.0540   54.1  0.2249  -55.2
 2.300  0.2809  174.4  10.132   72.8  0.0560   53.5  0.2159  -55.2
 2.400  0.2833  171.3   9.722   71.3  0.0580   52.8  0.2077  -55.2
 2.500  0.2861  168.1   9.341   69.7  0.0601   52.3  0.1990  -55.0
 2.600  0.2893  165.1   8.990   68.2  0.0620   51.7  0.1901  -55.0
 2.700  0.2929  162.2   8.663   66.6  0.0641   50.8  0.1826  -54.8
 2.800  0.2967  159.5   8.362   65.1  0.0661   50.0  0.1743  -55.0
 2.900  0.3015  157.0   8.079   63.6  0.0682   49.3  0.1665  -55.1
 3.000  0.3061  154.4   7.810   62.2  0.0699   48.6  0.1579  -55.5
 3.100  0.3111  152.0   7.562   60.8  0.0721   47.8  0.1504  -55.8
 3.200  0.3164  149.5   7.328   59.3  0.0740   46.9  0.1424  -56.5
 3.300  0.3220  147.3   7.107   57.9  0.0760   46.1  0.1354  -57.2
 3.400  0.3285  144.9   6.898   56.5  0.0780   45.3  0.1270  -57.9
 3.500  0.3344  142.8   6.697   55.1  0.0796   44.4  0.1196  -58.3
 3.600  0.3412  140.6   6.511   53.7  0.0816   43.7  0.1114  -59.4
 3.700  0.3476  138.6   6.333   52.3  0.0835   42.8  0.1032  -60.1
 3.800  0.3546  136.6   6.165   50.9  0.0854   42.0  0.0951  -61.2
 3.900  0.3610  134.7   6.002   49.5  0.0871   41.0  0.0869  -62.4
 4.000  0.3683  132.9   5.845   48.2  0.0892   40.2  0.0787  -64.3
 4.100  0.3744  131.1   5.697   46.8  0.0908   39.3  0.0712  -66.3
 4.200  0.3824  129.5   5.554   45.5  0.0927   38.5  0.0642  -68.7
 4.300  0.3885  127.8   5.420   44.2  0.0947   37.5  0.0574  -71.3
 4.400  0.3963  126.4   5.289   42.9  0.0962   36.7  0.0508  -73.8
 4.500  0.4018  124.8   5.166   41.6  0.0980   35.9  0.0443  -76.9
 4.600  0.4093  123.5   5.047   40.3  0.0997   35.1  0.0382  -80.5
 4.700  0.4146  122.2   4.930   39.1  0.1013   34.2  0.0321  -84.4
 4.800  0.4216  121.0   4.824   37.8  0.1030   33.3  0.0265  -90.0
 4.900  0.4265  119.7   4.718   36.5  0.1046   32.4  0.0210  -96.1
 5.000  0.4328  118.6   4.618   35.3  0.1064   31.7  0.0161 -105.0
 5.100  0.4372  117.4   4.521   34.1  0.1079   30.8  0.0119 -118.4
 5.200  0.4421  116.3   4.430   32.8  0.1096   30.0  0.0085 -140.3
 5.300  0.4463  115.2   4.338   31.6  0.1114   29.1  0.0074 -179.0
 5.400  0.4508  114.2   4.252   30.4  0.1129   28.3  0.0089  148.0
 5.500  0.4544  113.1   4.170   29.2  0.1146   27.5  0.0126  127.3
 5.600  0.4582  112.2   4.091   28.0  0.1162   26.7  0.0161  116.1
 5.700  0.4606  111.2   4.015   26.9  0.1179   25.9  0.0211  108.5
 5.800  0.4648  110.2   3.943   25.7  0.1195   25.0  0.0253  104.4
 5.900  0.4679  109.4   3.874   24.6  0.1213   24.2  0.0300  101.1
 6.000  0.4713  108.4   3.810   23.3  0.1230   23.4  0.0346   99.7
 6.100  0.4761  107.7   3.747   22.2  0.1248   22.6  0.0389   98.3
 6.200  0.4778  106.6   3.686   21.0  0.1264   21.6  0.0437   97.9
 6.300  0.4834  105.7   3.628   19.8  0.1283   20.6  0.0487   97.1
 6.400  0.4859  104.6   3.572   18.6  0.1300   19.7  0.0537   96.9
 6.500  0.4910  103.4   3.517   17.3  0.1317   18.7  0.0589   96.0
 6.600  0.4944  102.4   3.462   16.0  0.1331   17.8  0.0637   95.6
 6.700  0.4991  101.2   3.410   14.9  0.1347   16.9  0.0686   95.0
 6.800  0.5033  100.0   3.356   13.6  0.1363   15.9  0.0736   94.4
 6.900  0.5078   98.9   3.306   12.4  0.1378   15.0  0.0791   93.9
 7.000  0.5119   97.6   3.258   11.1  0.1396   14.0  0.0839   93.9
 7.100  0.5168   96.4   3.210    9.9  0.1409   13.0  0.0891   93.6
 7.200  0.5213   95.1   3.163    8.6  0.1423   12.0  0.0938   93.4
 7.300  0.5258   94.0   3.118    7.3  0.1436   11.0  0.0994   92.8
 7.400  0.5307   92.7   3.072    6.1  0.1451   10.1  0.1046   92.3
 7.500  0.5365   91.4   3.026    4.8  0.1465    9.0  0.1110   91.2
 7.600  0.5418   90.1   2.981    3.5  0.1477    8.0  0.1171   90.9
 7.700  0.5487   88.9   2.937    2.2  0.1490    7.0  0.1232   90.0
 7.800  0.5550   87.6   2.892    1.0  0.1501    5.9  0.1297   88.9
 7.900  0.5620   86.4   2.848   -0.3  0.1511    5.0  0.1375   87.8
 8.000  0.5685   85.2   2.805   -1.6  0.1523    3.9  0.1447   87.0
 8.500  0.6069   79.3   2.586   -8.0  0.1565   -1.1  0.1885   80.8
 9.000  0.6471   73.9   2.372  -13.8  0.1589   -5.9  0.2429   76.2
 9.500  0.6872   69.3   2.170  -18.8  0.1598   -9.9  0.3000   73.3
10.000  0.7216   65.9   2.003  -23.0  0.1608  -13.0  0.3483   72.3
!
!  f       NFmin   Gammaopt  rn/50
! GHz       dB    MAG  ANG    -
!
! noise parameter not available yet for this operation point!
!
! (c) 2013  Infineon Technologies AG, Munich
