! Infineon Technologies  Discrete & RF Semiconductors
! BFP640
! VCE =  3.5 V,  IC =  20 mA
! Common Emitter S-Parameters:                            Apr 2013
# GHz  S  MA  R  50
!  f         S11            S21            S12            S22
! GHz     MAG   ANG      MAG   ANG      MAG   ANG      MAG   ANG
 0.030  0.7150   -3.9  44.765  175.5  0.0012   81.2  0.9821   -2.0
 0.040  0.7155   -5.4  44.619  174.4  0.0019   83.0  0.9845   -2.9
 0.050  0.7131   -6.9  44.874  173.5  0.0023   69.3  0.9853   -3.9
 0.060  0.7141   -8.1  44.601  172.2  0.0029  103.4  0.9854   -4.5
 0.070  0.7098   -9.7  44.487  171.2  0.0031   58.4  0.9802   -5.7
 0.080  0.7124  -11.2  44.205  170.1  0.0045   85.9  0.9820   -6.6
 0.090  0.7092  -12.5  44.061  169.0  0.0037   86.3  0.9823   -7.4
 0.100  0.7079  -13.9  43.912  168.0  0.0046   79.6  0.9784   -8.3
 0.110  0.7045  -15.5  43.950  166.8  0.0048   80.1  0.9765   -9.2
 0.120  0.7029  -16.9  43.678  165.7  0.0059   83.0  0.9714  -10.1
 0.130  0.7013  -18.3  43.470  164.6  0.0059   83.2  0.9680  -11.0
 0.140  0.7001  -19.7  43.139  163.5  0.0076   77.5  0.9662  -11.8
 0.150  0.6965  -21.1  43.083  162.4  0.0071   79.9  0.9613  -12.7
 0.200  0.6816  -27.9  41.918  157.1  0.0097   77.1  0.9393  -16.7
 0.250  0.6614  -34.6  40.794  151.9  0.0118   75.4  0.9124  -20.5
 0.300  0.6416  -40.9  39.225  147.1  0.0135   71.8  0.8818  -24.1
 0.350  0.6200  -46.9  37.685  142.6  0.0152   70.1  0.8514  -27.4
 0.400  0.5974  -52.9  36.132  138.2  0.0173   69.0  0.8169  -30.3
 0.450  0.5737  -58.5  34.576  134.2  0.0192   67.1  0.7852  -33.0
 0.500  0.5505  -63.9  33.059  130.5  0.0204   66.1  0.7512  -35.5
 0.600  0.5066  -74.0  30.118  123.8  0.0230   62.7  0.6894  -39.6
 0.700  0.4676  -83.2  27.432  118.1  0.0256   61.3  0.6324  -43.0
 0.800  0.4348  -91.8  25.042  113.2  0.0279   59.7  0.5819  -45.7
 0.900  0.4050  -99.9  23.011  108.8  0.0301   58.2  0.5355  -47.9
 1.000  0.3826 -107.1  21.139  105.1  0.0320   57.5  0.4962  -49.7
 1.100  0.3619 -114.1  19.552  101.7  0.0339   56.9  0.4604  -51.0
 1.200  0.3453 -120.6  18.156   98.6  0.0361   55.9  0.4314  -52.1
 1.300  0.3312 -126.8  16.926   95.9  0.0380   55.5  0.4053  -52.9
 1.400  0.3200 -132.8  15.873   93.2  0.0398   55.0  0.3827  -53.5
 1.500  0.3105 -138.3  14.915   90.9  0.0418   54.1  0.3619  -53.9
 1.600  0.3040 -143.6  14.073   88.6  0.0437   53.7  0.3441  -54.5
 1.700  0.2982 -148.9  13.318   86.4  0.0457   53.2  0.3268  -54.6
 1.800  0.2948 -153.7  12.626   84.4  0.0474   52.8  0.3119  -55.1
 1.900  0.2925 -158.5  12.024   82.5  0.0493   52.5  0.2963  -55.3
 2.000  0.2915 -162.7  11.456   80.6  0.0511   51.5  0.2845  -55.8
 2.100  0.2924 -166.9  10.936   78.7  0.0534   51.2  0.2721  -56.3
 2.200  0.2913 -170.9  10.466   76.9  0.0552   50.5  0.2617  -56.5
 2.300  0.2914 -175.1  10.036   75.1  0.0572   50.1  0.2508  -56.5
 2.400  0.2921 -178.6   9.636   73.5  0.0588   49.5  0.2411  -56.7
 2.500  0.2935  177.8   9.264   71.8  0.0606   48.9  0.2313  -56.7
 2.600  0.2956  174.4   8.919   70.2  0.0625   48.2  0.2220  -56.8
 2.700  0.2983  171.1   8.601   68.6  0.0646   47.7  0.2130  -56.8
 2.800  0.3008  167.8   8.306   67.0  0.0665   47.1  0.2037  -57.0
 2.900  0.3047  165.0   8.025   65.5  0.0684   46.3  0.1949  -57.2
 3.000  0.3083  162.0   7.764   64.0  0.0703   45.7  0.1853  -57.7
 3.100  0.3127  159.2   7.519   62.4  0.0721   44.8  0.1776  -58.1
 3.200  0.3176  156.3   7.291   60.9  0.0742   44.1  0.1689  -58.8
 3.300  0.3226  153.8   7.071   59.5  0.0760   43.4  0.1612  -59.4
 3.400  0.3288  151.0   6.867   58.0  0.0778   42.8  0.1521  -60.2
 3.500  0.3340  148.7   6.668   56.5  0.0797   41.9  0.1442  -60.7
 3.600  0.3405  146.1   6.484   55.1  0.0815   41.0  0.1357  -61.6
 3.700  0.3463  143.8   6.307   53.7  0.0832   40.3  0.1274  -62.4
 3.800  0.3528  141.5   6.142   52.2  0.0851   39.3  0.1188  -63.5
 3.900  0.3594  139.4   5.980   50.8  0.0868   38.6  0.1099  -64.6
 4.000  0.3667  137.4   5.824   49.4  0.0885   37.9  0.1021  -66.2
 4.100  0.3726  135.4   5.676   48.0  0.0903   37.0  0.0942  -67.8
 4.200  0.3805  133.5   5.537   46.7  0.0921   36.2  0.0870  -69.9
 4.300  0.3864  131.6   5.403   45.3  0.0937   35.4  0.0797  -71.8
 4.400  0.3941  130.0   5.272   44.0  0.0954   34.6  0.0729  -73.7
 4.500  0.3995  128.3   5.149   42.6  0.0968   33.9  0.0661  -75.8
 4.600  0.4071  126.9   5.032   41.3  0.0986   33.1  0.0601  -78.0
 4.700  0.4124  125.3   4.916   40.1  0.1003   32.2  0.0536  -80.3
 4.800  0.4193  124.0   4.810   38.7  0.1018   31.4  0.0477  -82.8
 4.900  0.4243  122.6   4.704   37.4  0.1034   30.6  0.0417  -85.2
 5.000  0.4304  121.4   4.605   36.2  0.1051   29.8  0.0362  -87.8
 5.100  0.4351  120.1   4.508   34.9  0.1066   29.0  0.0313  -90.4
 5.200  0.4398  118.9   4.417   33.7  0.1082   28.2  0.0260  -92.9
 5.300  0.4441  117.7   4.326   32.4  0.1097   27.4  0.0209  -96.9
 5.400  0.4485  116.6   4.241   31.3  0.1115   26.7  0.0159  -99.9
 5.500  0.4522  115.5   4.158   30.0  0.1128   25.9  0.0109 -105.7
 5.600  0.4559  114.4   4.079   28.8  0.1144   25.1  0.0065 -115.4
 5.700  0.4586  113.4   4.004   27.6  0.1160   24.4  0.0024 -170.4
 5.800  0.4626  112.2   3.933   26.4  0.1176   23.6  0.0047  116.5
 5.900  0.4658  111.4   3.863   25.3  0.1195   22.8  0.0093  102.3
 6.000  0.4690  110.3   3.799   24.0  0.1210   22.0  0.0140   98.7
 6.100  0.4741  109.5   3.738   22.9  0.1229   21.1  0.0185   96.3
 6.200  0.4758  108.5   3.677   21.7  0.1245   20.3  0.0233   96.5
 6.300  0.4813  107.4   3.619   20.4  0.1260   19.4  0.0284   95.4
 6.400  0.4839  106.4   3.563   19.2  0.1278   18.5  0.0334   95.7
 6.500  0.4890  105.1   3.508   18.0  0.1295   17.5  0.0384   95.2
 6.600  0.4921  104.0   3.453   16.7  0.1309   16.6  0.0434   94.7
 6.700  0.4970  102.8   3.402   15.5  0.1325   15.7  0.0484   94.1
 6.800  0.5010  101.5   3.349   14.2  0.1341   14.8  0.0534   93.7
 6.900  0.5058  100.4   3.299   13.0  0.1355   13.9  0.0587   93.2
 7.000  0.5095   99.0   3.251   11.7  0.1371   12.9  0.0638   93.6
 7.100  0.5147   97.8   3.203   10.4  0.1385   11.9  0.0687   93.5
 7.200  0.5188   96.5   3.156    9.2  0.1399   11.0  0.0736   93.2
 7.300  0.5236   95.3   3.112    7.9  0.1411   10.0  0.0791   92.7
 7.400  0.5283   93.9   3.065    6.6  0.1427    9.1  0.0842   92.1
 7.500  0.5343   92.7   3.020    5.3  0.1439    8.1  0.0905   91.1
 7.600  0.5394   91.2   2.976    4.0  0.1451    7.1  0.0968   90.8
 7.700  0.5464   90.1   2.932    2.7  0.1463    6.1  0.1028   89.8
 7.800  0.5525   88.7   2.887    1.4  0.1475    5.1  0.1092   88.8
 7.900  0.5594   87.5   2.843    0.1  0.1486    4.2  0.1173   87.6
 8.000  0.5662   86.2   2.800   -1.2  0.1497    3.2  0.1241   86.8
 8.500  0.6048   80.2   2.584   -7.6  0.1538   -1.8  0.1676   80.5
 9.000  0.6447   74.6   2.372  -13.4  0.1563   -6.4  0.2224   76.1
 9.500  0.6847   69.9   2.172  -18.5  0.1573  -10.3  0.2798   73.4
10.000  0.7191   66.4   2.005  -22.8  0.1584  -13.5  0.3282   72.7
!
!  f       NFmin   Gammaopt  rn/50
! GHz       dB    MAG  ANG    -
 0.450      0.85  0.13    6   0.02
 0.900      0.85  0.13   14   0.03
 1.500      0.88  0.10   26   0.04
 1.900      0.90  0.14 -134   0.05
 2.400      0.94  0.19 -119   0.06
 3.500      1.06  0.24 -104   0.08
 5.500      1.25  0.25  -96   0.15
10.000      1.74  0.58  -55   0.46
!
! (c) 2013  Infineon Technologies AG, Munich
