! Infineon Technologies  Discrete & RF Semiconductors
! BFP620F
! VCE =  1.0 V,  IC =  1.0 mA
! Common Emitter S-Parameters:                            Dec 2014
# GHz  S  MA  R  50
!  f         S11            S21            S12            S22
! GHz     MAG   ANG      MAG   ANG      MAG   ANG      MAG   ANG
 0.030  0.9900   -1.1   3.604  178.7  0.0036   99.7  0.9997   -0.8
 0.040  0.9913   -1.5   3.426  178.4  0.0044   89.1  0.9999   -1.1
 0.050  0.9916   -2.1   3.445  178.2  0.0065   90.6  1.0000   -1.3
 0.060  0.9910   -2.4   3.454  178.1  0.0063   83.8  1.0000   -1.5
 0.070  0.9914   -2.7   3.453  177.7  0.0077   90.1  0.9986   -1.8
 0.080  0.9917   -3.1   3.457  177.3  0.0078   87.4  0.9984   -2.1
 0.090  0.9914   -3.4   3.474  177.0  0.0092   90.9  0.9993   -2.4
 0.100  0.9903   -3.9   3.477  176.7  0.0107   87.1  0.9991   -2.5
 0.110  0.9896   -4.3   3.479  176.3  0.0119   86.7  0.9986   -2.8
 0.120  0.9905   -4.7   3.495  176.0  0.0121   87.0  0.9985   -3.1
 0.130  0.9894   -5.0   3.500  175.7  0.0135   88.6  0.9984   -3.4
 0.140  0.9903   -5.5   3.488  175.4  0.0151   85.5  0.9975   -3.7
 0.150  0.9896   -5.8   3.500  175.2  0.0158   87.7  0.9976   -3.9
 0.200  0.9888   -7.7   3.478  173.5  0.0219   86.8  0.9955   -5.2
 0.250  0.9876   -9.7   3.488  171.8  0.0270   85.7  0.9943   -6.4
 0.300  0.9872  -11.6   3.467  170.2  0.0327   83.5  0.9914   -7.7
 0.350  0.9846  -13.6   3.466  168.6  0.0380   82.2  0.9888   -9.0
 0.400  0.9824  -15.5   3.480  166.9  0.0436   81.8  0.9848  -10.3
 0.450  0.9805  -17.4   3.440  165.3  0.0490   80.0  0.9816  -11.5
 0.500  0.9777  -19.4   3.445  163.7  0.0543   78.7  0.9776  -12.8
 0.600  0.9701  -23.3   3.422  160.3  0.0654   76.2  0.9666  -15.2
 0.700  0.9638  -27.1   3.389  157.2  0.0758   73.4  0.9562  -17.7
 0.800  0.9545  -31.0   3.378  154.0  0.0860   70.8  0.9436  -20.0
 0.900  0.9448  -34.8   3.347  150.9  0.0963   68.1  0.9298  -22.4
 1.000  0.9342  -38.6   3.301  147.9  0.1058   65.5  0.9151  -24.7
 1.100  0.9223  -42.3   3.269  144.7  0.1153   63.0  0.8996  -27.0
 1.200  0.9103  -46.0   3.222  141.8  0.1238   60.5  0.8831  -29.1
 1.300  0.8968  -49.8   3.194  138.8  0.1323   58.0  0.8660  -31.2
 1.400  0.8854  -53.4   3.132  136.1  0.1401   55.6  0.8485  -33.4
 1.500  0.8712  -57.0   3.090  133.3  0.1474   53.3  0.8305  -35.4
 1.600  0.8572  -60.8   3.074  130.4  0.1543   51.2  0.8131  -37.4
 1.700  0.8427  -64.2   3.014  127.6  0.1603   48.9  0.7954  -39.4
 1.800  0.8301  -67.7   2.960  125.0  0.1666   46.8  0.7792  -41.5
 1.900  0.8167  -71.1   2.906  122.4  0.1721   44.8  0.7624  -43.4
 2.000  0.8035  -74.5   2.863  119.8  0.1776   43.0  0.7476  -45.3
 2.100  0.7910  -77.9   2.814  117.3  0.1845   40.9  0.7376  -47.5
 2.200  0.7784  -81.2   2.774  114.8  0.1888   38.9  0.7223  -49.4
 2.300  0.7663  -84.3   2.716  112.4  0.1932   37.1  0.7079  -51.2
 2.400  0.7555  -87.3   2.660  110.0  0.1970   35.3  0.6944  -53.0
 2.500  0.7443  -90.4   2.611  107.8  0.2009   33.7  0.6810  -54.5
 2.600  0.7331  -93.4   2.569  105.6  0.2039   32.0  0.6672  -56.2
 2.700  0.7229  -96.4   2.524  103.5  0.2074   30.4  0.6555  -57.5
 2.800  0.7120  -99.3   2.485  101.4  0.2097   29.0  0.6418  -59.1
 2.900  0.7039 -102.2   2.438   99.3  0.2126   27.5  0.6316  -60.6
 3.000  0.6951 -104.9   2.393   97.3  0.2148   26.1  0.6196  -62.1
 3.100  0.6854 -107.8   2.358   95.2  0.2174   24.8  0.6105  -63.2
 3.200  0.6763 -110.5   2.319   93.2  0.2190   23.4  0.5985  -64.7
 3.300  0.6699 -113.1   2.276   91.4  0.2208   22.1  0.5887  -66.0
 3.400  0.6619 -115.7   2.240   89.5  0.2225   20.8  0.5793  -67.3
 3.500  0.6545 -118.4   2.204   87.6  0.2240   19.6  0.5710  -68.3
 3.600  0.6459 -121.1   2.174   85.7  0.2256   18.5  0.5618  -69.4
 3.700  0.6413 -123.4   2.132   84.0  0.2271   17.3  0.5538  -70.5
 3.800  0.6335 -126.0   2.099   82.2  0.2280   16.2  0.5448  -71.6
 3.900  0.6284 -128.5   2.068   80.5  0.2292   15.1  0.5374  -72.5
 4.000  0.6221 -131.0   2.035   78.8  0.2298   14.0  0.5288  -73.5
 4.100  0.6172 -133.5   2.008   77.0  0.2309   13.0  0.5208  -74.4
 4.200  0.6123 -135.9   1.971   75.4  0.2315   12.0  0.5120  -75.3
 4.300  0.6093 -138.3   1.944   73.8  0.2321   11.0  0.5040  -76.3
 4.400  0.6051 -140.6   1.912   72.2  0.2323   10.1  0.4952  -77.2
 4.500  0.6010 -143.1   1.890   70.6  0.2331    9.2  0.4889  -77.9
 4.600  0.5973 -145.5   1.863   69.0  0.2336    8.2  0.4813  -78.7
 4.700  0.5952 -147.8   1.838   67.4  0.2337    7.4  0.4728  -79.7
 4.800  0.5928 -150.1   1.813   66.0  0.2338    6.5  0.4651  -80.6
 4.900  0.5904 -152.4   1.790   64.5  0.2342    5.6  0.4577  -81.4
 5.000  0.5879 -154.9   1.772   62.8  0.2344    4.8  0.4511  -82.3
 5.100  0.5875 -156.9   1.744   61.4  0.2345    4.0  0.4445  -83.1
 5.200  0.5860 -159.2   1.724   59.9  0.2343    3.2  0.4365  -83.9
 5.300  0.5850 -161.2   1.700   58.4  0.2342    2.5  0.4289  -84.9
 5.400  0.5842 -163.5   1.680   56.9  0.2343    1.6  0.4236  -85.7
 5.500  0.5833 -165.5   1.660   55.5  0.2341    0.8  0.4171  -86.5
 5.600  0.5827 -167.8   1.644   54.0  0.2342    0.0  0.4107  -87.3
 5.700  0.5827 -169.7   1.620   52.6  0.2339   -0.7  0.4043  -88.2
 5.800  0.5822 -171.8   1.603   51.1  0.2333   -1.4  0.3974  -89.1
 5.900  0.5821 -173.7   1.582   49.7  0.2327   -2.1  0.3896  -90.0
 6.000  0.5809 -175.8   1.567   48.3  0.2326   -2.8  0.3853  -90.7
 6.100  0.5802 -177.8   1.549   47.0  0.2319   -3.5  0.3788  -91.4
 6.200  0.5793 -179.8   1.531   45.5  0.2311   -4.1  0.3715  -92.2
 6.300  0.5788  178.0   1.513   44.1  0.2301   -4.8  0.3639  -93.1
 6.400  0.5774  175.8   1.499   42.7  0.2298   -5.5  0.3586  -93.8
 6.500  0.5765  173.7   1.481   41.3  0.2289   -6.2  0.3520  -94.3
 6.600  0.5749  171.6   1.463   40.0  0.2278   -6.8  0.3435  -95.1
 6.700  0.5734  169.5   1.445   38.6  0.2265   -7.3  0.3360  -95.7
 6.800  0.5727  167.3   1.428   37.2  0.2252   -7.8  0.3286  -96.4
 6.900  0.5713  165.1   1.411   35.9  0.2243   -8.4  0.3217  -96.8
 7.000  0.5708  163.0   1.395   34.6  0.2234   -8.9  0.3149  -97.2
 7.100  0.5704  160.9   1.379   33.3  0.2220   -9.2  0.3067  -97.7
 7.200  0.5707  158.8   1.363   32.0  0.2206   -9.6  0.2985  -98.2
 7.300  0.5711  156.7   1.347   30.8  0.2197   -9.9  0.2907  -98.7
 7.400  0.5724  154.6   1.332   29.5  0.2188  -10.3  0.2829  -99.2
 7.500  0.5745  152.6   1.317   28.3  0.2179  -10.5  0.2739  -99.9
 7.600  0.5773  150.6   1.302   27.1  0.2171  -10.8  0.2651 -100.6
 7.700  0.5802  148.6   1.287   26.0  0.2163  -11.0  0.2553 -101.4
 7.800  0.5838  146.7   1.272   24.8  0.2156  -11.3  0.2457 -102.4
 7.900  0.5879  144.7   1.259   23.6  0.2151  -11.6  0.2360 -103.5
 8.000  0.5927  142.8   1.247   22.4  0.2146  -11.9  0.2265 -104.7
!
!  f       NFmin   Gammaopt  rn/50
! GHz       dB    MAG  ANG    -
 0.450      0.63  0.70   11   0.33
 0.900      0.82  0.71   21   0.28
 1.500      0.98  0.64   33   0.28
 1.800      1.05  0.63   37   0.28
 1.900      1.07  0.60   46   0.29
 2.400      1.19  0.58   59   0.27
 3.500      1.44  0.56   83   0.20
 5.500      1.85  0.41  143   0.17
 6.000      1.94  0.29  161   0.33
!
! (c) 2014  Infineon Technologies AG, Munich
