! Infineon Technologies  Discrete & RF Semiconductors
! BFP640F
! VCE =  3.0 V,  IC =  32 mA
! Common Emitter S-Parameters:                            Apr 2013
# GHz  S  MA  R  50
!  f         S11            S21            S12            S22
! GHz     MAG   ANG      MAG   ANG      MAG   ANG      MAG   ANG
 0.030  0.5542   -5.0  59.334  175.2  0.0016   99.3  0.9802   -1.9
 0.040  0.5537   -6.9  59.222  173.6  0.0022   89.9  0.9832   -3.1
 0.050  0.5434   -8.9  59.541  171.9  0.0009  -28.0  0.9762   -4.6
 0.060  0.5485  -10.4  59.133  170.0  0.0024   94.6  0.9800   -5.7
 0.070  0.5456  -12.3  58.939  168.5  0.0038   83.2  0.9808   -6.9
 0.080  0.5408  -14.1  58.584  166.9  0.0044   70.0  0.9730   -8.1
 0.090  0.5412  -16.0  58.226  165.3  0.0055   94.6  0.9731   -9.4
 0.100  0.5397  -17.3  57.850  163.7  0.0036   78.3  0.9683  -10.2
 0.110  0.5327  -19.3  57.561  162.1  0.0047   86.4  0.9618  -11.4
 0.120  0.5290  -21.0  57.076  160.6  0.0057   87.7  0.9547  -12.6
 0.130  0.5255  -22.6  56.530  159.0  0.0062   77.4  0.9490  -13.5
 0.140  0.5228  -24.2  55.929  157.6  0.0064   77.5  0.9422  -14.5
 0.150  0.5163  -25.8  55.585  156.1  0.0067   81.5  0.9343  -15.5
 0.200  0.4914  -33.4  52.676  149.1  0.0086   79.3  0.8925  -20.0
 0.250  0.4630  -40.4  49.519  142.9  0.0106   76.0  0.8471  -23.7
 0.300  0.4353  -46.8  46.331  137.3  0.0122   76.0  0.8021  -26.9
 0.350  0.4091  -52.5  43.160  132.5  0.0135   75.6  0.7583  -29.5
 0.400  0.3824  -57.9  40.297  128.1  0.0149   74.6  0.7166  -31.5
 0.450  0.3597  -62.7  37.551  124.3  0.0165   73.9  0.6804  -33.3
 0.500  0.3365  -67.2  35.112  120.9  0.0175   73.6  0.6459  -34.6
 0.600  0.2999  -75.4  30.829  115.2  0.0205   73.5  0.5860  -36.7
 0.700  0.2692  -82.8  27.317  110.6  0.0232   72.9  0.5368  -38.0
 0.800  0.2442  -89.6  24.424  106.7  0.0258   72.5  0.4951  -38.8
 0.900  0.2233  -96.1  22.046  103.5  0.0283   72.8  0.4604  -39.3
 1.000  0.2070 -102.2  20.039  100.8  0.0309   72.3  0.4311  -39.4
 1.100  0.1927 -108.1  18.360   98.4  0.0335   72.4  0.4050  -39.5
 1.200  0.1809 -113.7  16.919   96.2  0.0364   71.7  0.3846  -39.3
 1.300  0.1714 -119.3  15.683   94.3  0.0390   71.8  0.3657  -39.0
 1.400  0.1643 -124.7  14.612   92.5  0.0415   71.5  0.3504  -38.9
 1.500  0.1574 -129.7  13.673   90.9  0.0442   71.1  0.3363  -38.5
 1.600  0.1536 -134.6  12.849   89.4  0.0468   71.0  0.3244  -38.5
 1.700  0.1498 -139.6  12.122   88.0  0.0494   70.6  0.3130  -38.1
 1.800  0.1472 -143.9  11.461   86.7  0.0519   70.2  0.3042  -38.1
 1.900  0.1455 -148.2  10.881   85.4  0.0545   69.9  0.2948  -37.9
 2.000  0.1441 -152.2  10.352   84.2  0.0574   69.5  0.2874  -38.1
 2.100  0.1474 -156.0   9.870   83.0  0.0599   69.1  0.2789  -38.7
 2.200  0.1464 -159.4   9.434   81.8  0.0625   68.6  0.2736  -38.8
 2.300  0.1458 -162.9   9.020   80.7  0.0650   68.1  0.2679  -38.9
 2.400  0.1453 -165.9   8.655   79.7  0.0675   67.6  0.2637  -39.0
 2.500  0.1448 -169.0   8.318   78.6  0.0701   67.1  0.2598  -39.1
 2.600  0.1447 -172.0   8.003   77.6  0.0727   66.8  0.2562  -39.4
 2.700  0.1446 -174.6   7.712   76.6  0.0753   66.4  0.2537  -39.5
 2.800  0.1442 -177.6   7.442   75.5  0.0776   65.8  0.2512  -39.9
 2.900  0.1448 -179.6   7.188   74.6  0.0802   65.5  0.2497  -40.1
 3.000  0.1446  177.6   6.957   73.7  0.0830   64.9  0.2473  -40.6
 3.100  0.1444  175.4   6.733   72.8  0.0856   64.4  0.2464  -40.8
 3.200  0.1443  173.0   6.528   71.8  0.0879   63.9  0.2451  -41.4
 3.300  0.1442  171.0   6.335   70.9  0.0903   63.6  0.2447  -41.8
 3.400  0.1446  168.7   6.152   70.1  0.0931   62.8  0.2438  -42.3
 3.500  0.1446  167.0   5.982   69.2  0.0955   62.4  0.2436  -42.6
 3.600  0.1446  164.8   5.820   68.3  0.0979   61.9  0.2437  -42.9
 3.700  0.1448  163.0   5.666   67.4  0.1005   61.6  0.2435  -43.2
 3.800  0.1454  161.1   5.524   66.5  0.1030   61.0  0.2430  -43.6
 3.900  0.1459  159.7   5.387   65.7  0.1055   60.5  0.2428  -44.0
 4.000  0.1468  157.7   5.254   64.8  0.1079   60.0  0.2422  -44.4
 4.100  0.1474  156.6   5.131   64.0  0.1104   59.5  0.2415  -44.6
 4.200  0.1488  154.6   5.014   63.2  0.1129   58.9  0.2406  -45.0
 4.300  0.1497  153.4   4.903   62.3  0.1155   58.5  0.2396  -45.3
 4.400  0.1521  152.1   4.796   61.5  0.1182   57.9  0.2386  -45.7
 4.500  0.1527  150.9   4.695   60.7  0.1205   57.4  0.2377  -45.9
 4.600  0.1555  149.7   4.600   59.8  0.1231   56.9  0.2365  -46.2
 4.700  0.1568  148.6   4.505   59.0  0.1256   56.4  0.2351  -46.3
 4.800  0.1591  147.5   4.418   58.2  0.1280   55.8  0.2331  -46.7
 4.900  0.1604  146.5   4.332   57.3  0.1307   55.3  0.2314  -46.8
 5.000  0.1625  145.5   4.251   56.5  0.1331   54.7  0.2302  -47.1
 5.100  0.1642  144.5   4.172   55.7  0.1356   54.1  0.2289  -47.3
 5.200  0.1658  143.4   4.097   54.9  0.1381   53.6  0.2272  -47.3
 5.300  0.1676  142.4   4.023   54.1  0.1406   53.0  0.2255  -47.6
 5.400  0.1697  141.6   3.953   53.2  0.1431   52.5  0.2245  -47.6
 5.500  0.1712  140.6   3.886   52.4  0.1456   51.9  0.2227  -48.0
 5.600  0.1729  139.7   3.821   51.6  0.1481   51.4  0.2218  -47.9
 5.700  0.1741  138.8   3.757   50.7  0.1504   50.8  0.2196  -48.1
 5.800  0.1759  137.7   3.697   49.8  0.1529   50.2  0.2191  -48.2
 5.900  0.1772  136.7   3.636   49.0  0.1552   49.6  0.2175  -48.2
 6.000  0.1782  135.6   3.580   48.2  0.1577   49.1  0.2163  -48.3
 6.100  0.1810  134.6   3.524   47.4  0.1602   48.5  0.2148  -48.4
 6.200  0.1809  133.4   3.468   46.5  0.1623   47.8  0.2138  -48.6
 6.300  0.1840  132.2   3.413   45.7  0.1647   47.3  0.2122  -48.5
 6.400  0.1845  131.4   3.360   44.9  0.1670   46.7  0.2100  -48.6
 6.500  0.1873  129.7   3.309   44.0  0.1694   46.1  0.2081  -48.5
 6.600  0.1890  128.6   3.257   43.2  0.1715   45.6  0.2062  -48.5
 6.700  0.1913  127.2   3.209   42.4  0.1738   45.1  0.2045  -48.3
 6.800  0.1937  126.0   3.160   41.6  0.1761   44.4  0.2026  -48.1
 6.900  0.1966  124.8   3.114   40.8  0.1784   43.9  0.2005  -47.8
 7.000  0.1983  123.5   3.069   40.0  0.1807   43.4  0.1985  -47.5
 7.100  0.2022  122.5   3.025   39.3  0.1831   42.9  0.1954  -47.0
 7.200  0.2054  121.4   2.982   38.6  0.1853   42.3  0.1927  -46.8
 7.300  0.2094  120.5   2.942   37.8  0.1879   41.8  0.1898  -46.5
 7.400  0.2131  119.8   2.903   37.1  0.1902   41.3  0.1866  -46.0
 7.500  0.2186  119.3   2.864   36.4  0.1927   40.8  0.1819  -45.5
 7.600  0.2234  118.5   2.830   35.6  0.1950   40.2  0.1776  -45.0
 7.700  0.2300  118.4   2.796   34.9  0.1977   39.6  0.1719  -44.3
 7.800  0.2365  117.8   2.763   34.2  0.2001   39.0  0.1659  -43.6
 7.900  0.2441  117.6   2.730   33.5  0.2025   38.4  0.1596  -42.4
 8.000  0.2516  117.2   2.699   32.7  0.2048   37.8  0.1528  -41.3
 8.500  0.2969  116.3   2.550   28.9  0.2160   34.7  0.1160  -29.3
 9.000  0.3442  115.1   2.413   25.1  0.2264   31.7  0.0907   -3.7
 9.500  0.3878  113.2   2.293   21.5  0.2372   28.9  0.0937   29.6
10.000  0.4275  110.9   2.185   17.8  0.2481   25.9  0.1163   55.9
!
!  f       NFmin   Gammaopt  rn/50
! GHz       dB    MAG  ANG    -
!
! noise parameter not available yet for this operation point!
!
! (c) 2013  Infineon Technologies AG, Munich
