! Infineon Technologies  Discrete & RF Semiconductors
! BFP640F
! VCE =  3.0 V,  IC =  5.0 mA
! Common Emitter S-Parameters:                            Apr 2013
# GHz  S  MA  R  50
!  f         S11            S21            S12            S22
! GHz     MAG   ANG      MAG   ANG      MAG   ANG      MAG   ANG
 0.030  0.9294   -1.8  14.714  178.2  0.0012   65.2  0.9976   -1.1
 0.040  0.9291   -2.4  14.647  177.7  0.0024   90.0  0.9970   -1.4
 0.050  0.9284   -3.1  14.910  177.2  0.0036   93.8  0.9977   -1.7
 0.060  0.9272   -3.7  14.782  176.4  0.0039   64.0  0.9976   -2.2
 0.070  0.9272   -4.3  14.809  175.9  0.0038   94.0  0.9969   -2.4
 0.080  0.9265   -4.9  14.804  175.4  0.0041   95.5  0.9966   -2.9
 0.090  0.9261   -5.5  14.838  174.8  0.0048   84.7  0.9964   -3.2
 0.100  0.9261   -6.2  14.835  174.4  0.0043   98.4  0.9963   -3.6
 0.110  0.9247   -6.8  14.861  173.7  0.0064   89.5  0.9959   -4.0
 0.120  0.9239   -7.4  14.799  173.2  0.0063   89.6  0.9946   -4.4
 0.130  0.9232   -8.1  14.754  172.6  0.0072   83.2  0.9937   -4.7
 0.140  0.9236   -8.6  14.716  172.2  0.0073   85.5  0.9929   -5.1
 0.150  0.9221   -9.2  14.749  171.6  0.0083   90.0  0.9923   -5.5
 0.200  0.9183  -12.3  14.624  168.9  0.0111   83.8  0.9888   -7.3
 0.250  0.9117  -15.3  14.535  166.2  0.0141   81.6  0.9822   -9.1
 0.300  0.9062  -18.3  14.325  163.6  0.0167   81.8  0.9754  -10.8
 0.350  0.8978  -21.2  14.213  160.9  0.0192   78.6  0.9677  -12.6
 0.400  0.8884  -24.3  14.066  158.4  0.0220   78.9  0.9561  -14.3
 0.450  0.8783  -27.2  13.926  155.8  0.0247   76.9  0.9475  -15.9
 0.500  0.8676  -30.1  13.724  153.4  0.0274   75.5  0.9352  -17.6
 0.600  0.8433  -35.8  13.320  148.6  0.0322   73.3  0.9091  -20.8
 0.700  0.8163  -41.3  12.895  144.1  0.0368   70.5  0.8803  -23.8
 0.800  0.7834  -47.0  12.595  139.4  0.0412   67.7  0.8508  -26.4
 0.900  0.7529  -52.2  12.138  135.3  0.0453   65.4  0.8192  -29.0
 1.000  0.7247  -56.9  11.590  131.7  0.0489   63.1  0.7868  -31.3
 1.100  0.6926  -61.8  11.157  127.9  0.0521   61.1  0.7556  -33.3
 1.200  0.6625  -66.3  10.694  124.5  0.0551   59.2  0.7256  -35.1
 1.300  0.6329  -70.7  10.261  121.3  0.0581   57.7  0.6979  -36.6
 1.400  0.6063  -74.9   9.844  118.3  0.0606   56.4  0.6710  -38.1
 1.500  0.5810  -78.8   9.418  115.6  0.0629   55.0  0.6444  -39.3
 1.600  0.5524  -83.2   9.120  112.6  0.0652   53.9  0.6228  -40.5
 1.700  0.5303  -86.9   8.755  110.1  0.0673   53.0  0.5992  -41.5
 1.800  0.5111  -90.4   8.392  107.9  0.0694   52.0  0.5794  -42.6
 1.900  0.4916  -93.9   8.082  105.7  0.0711   51.3  0.5593  -43.4
 2.000  0.4752  -97.4   7.780  103.6  0.0732   50.5  0.5427  -44.4
 2.100  0.4587 -101.3   7.519  101.3  0.0749   49.8  0.5258  -45.5
 2.200  0.4447 -104.4   7.247   99.4  0.0766   49.0  0.5113  -46.2
 2.300  0.4292 -107.6   6.989   97.6  0.0784   48.6  0.4977  -46.8
 2.400  0.4186 -110.4   6.737   95.9  0.0799   48.3  0.4841  -47.5
 2.500  0.4049 -113.4   6.521   94.1  0.0817   47.9  0.4738  -47.9
 2.600  0.3935 -116.4   6.314   92.5  0.0832   47.5  0.4627  -48.5
 2.700  0.3823 -119.2   6.121   90.8  0.0850   47.1  0.4546  -48.8
 2.800  0.3719 -122.0   5.935   89.3  0.0864   46.8  0.4452  -49.4
 2.900  0.3645 -124.6   5.753   87.8  0.0880   46.4  0.4381  -49.8
 3.000  0.3552 -127.2   5.591   86.4  0.0896   46.3  0.4297  -50.3
 3.100  0.3460 -129.9   5.439   84.9  0.0912   45.9  0.4244  -50.6
 3.200  0.3381 -132.5   5.293   83.5  0.0927   45.6  0.4185  -51.1
 3.300  0.3331 -134.7   5.145   82.3  0.0943   45.4  0.4134  -51.5
 3.400  0.3259 -137.4   5.016   81.0  0.0959   45.2  0.4080  -51.8
 3.500  0.3210 -139.6   4.886   79.7  0.0975   45.0  0.4039  -52.1
 3.600  0.3137 -142.2   4.773   78.4  0.0994   44.8  0.4005  -52.4
 3.700  0.3096 -144.3   4.654   77.3  0.1009   44.6  0.3965  -52.7
 3.800  0.3045 -146.8   4.550   76.0  0.1024   44.3  0.3930  -52.9
 3.900  0.3013 -148.9   4.444   74.8  0.1042   44.2  0.3894  -53.2
 4.000  0.2978 -151.3   4.340   73.7  0.1057   44.2  0.3855  -53.4
 4.100  0.2940 -153.5   4.252   72.5  0.1076   43.8  0.3826  -53.7
 4.200  0.2913 -155.9   4.159   71.4  0.1092   43.7  0.3787  -54.0
 4.300  0.2891 -158.0   4.075   70.3  0.1110   43.3  0.3754  -54.2
 4.400  0.2883 -160.3   3.988   69.2  0.1129   43.2  0.3714  -54.4
 4.500  0.2859 -162.3   3.913   68.1  0.1146   43.0  0.3688  -54.6
 4.600  0.2849 -164.6   3.841   66.9  0.1161   42.6  0.3657  -54.8
 4.700  0.2835 -166.6   3.768   65.9  0.1180   42.5  0.3622  -55.1
 4.800  0.2838 -168.7   3.696   64.8  0.1199   42.2  0.3585  -55.3
 4.900  0.2829 -170.6   3.629   63.8  0.1216   42.0  0.3549  -55.5
 5.000  0.2817 -172.8   3.569   62.7  0.1233   41.7  0.3525  -55.7
 5.100  0.2819 -174.6   3.505   61.7  0.1250   41.5  0.3496  -55.9
 5.200  0.2815 -176.5   3.446   60.6  0.1268   41.1  0.3464  -56.0
 5.300  0.2820 -178.2   3.383   59.6  0.1286   41.0  0.3428  -56.2
 5.400  0.2822  179.9   3.329   58.6  0.1305   40.7  0.3407  -56.3
 5.500  0.2823  178.1   3.275   57.5  0.1322   40.4  0.3377  -56.6
 5.600  0.2817  176.1   3.226   56.5  0.1340   40.1  0.3361  -56.7
 5.700  0.2819  174.4   3.172   55.5  0.1358   39.8  0.3325  -56.9
 5.800  0.2819  172.4   3.126   54.4  0.1374   39.5  0.3309  -57.0
 5.900  0.2828  170.8   3.073   53.5  0.1394   39.2  0.3273  -57.1
 6.000  0.2820  168.9   3.031   52.4  0.1410   38.8  0.3256  -57.3
 6.100  0.2831  166.9   2.988   51.5  0.1428   38.5  0.3228  -57.5
 6.200  0.2817  165.3   2.940   50.5  0.1447   38.1  0.3212  -57.6
 6.300  0.2831  163.3   2.896   49.5  0.1464   37.9  0.3177  -57.7
 6.400  0.2829  161.6   2.853   48.5  0.1482   37.6  0.3150  -57.8
 6.500  0.2829  159.4   2.814   47.5  0.1498   37.2  0.3125  -57.9
 6.600  0.2834  157.6   2.773   46.5  0.1517   36.9  0.3095  -58.0
 6.700  0.2846  155.7   2.731   45.6  0.1533   36.6  0.3067  -57.9
 6.800  0.2852  153.7   2.693   44.7  0.1551   36.3  0.3039  -57.9
 6.900  0.2869  151.8   2.655   43.7  0.1569   36.0  0.3010  -57.8
 7.000  0.2866  149.8   2.621   42.8  0.1586   35.7  0.2981  -57.7
 7.100  0.2898  148.0   2.584   41.9  0.1604   35.4  0.2941  -57.6
 7.200  0.2913  146.1   2.550   41.1  0.1624   35.2  0.2909  -57.6
 7.300  0.2953  144.5   2.513   40.2  0.1645   34.9  0.2866  -57.4
 7.400  0.2974  142.9   2.483   39.3  0.1664   34.6  0.2829  -57.3
 7.500  0.3026  141.3   2.450   38.5  0.1681   34.3  0.2777  -57.3
 7.600  0.3058  139.5   2.426   37.6  0.1702   33.9  0.2734  -57.2
 7.700  0.3125  138.2   2.396   36.8  0.1725   33.5  0.2674  -57.1
 7.800  0.3187  136.7   2.367   35.9  0.1747   33.2  0.2603  -57.0
 7.900  0.3254  135.4   2.341   35.1  0.1766   32.8  0.2538  -56.8
 8.000  0.3323  134.1   2.316   34.2  0.1788   32.4  0.2460  -56.8
 8.500  0.3739  128.6   2.195   29.8  0.1883   30.2  0.2025  -55.1
 9.000  0.4154  124.2   2.084   25.6  0.1978   28.1  0.1524  -51.0
 9.500  0.4530  120.4   1.986   21.5  0.2079   26.0  0.1011  -43.3
10.000  0.4866  116.8   1.900   17.3  0.2186   23.7  0.0503  -25.4
!
!  f       NFmin   Gammaopt  rn/50
! GHz       dB    MAG  ANG    -
 0.450      0.52  0.39    9   0.12
 0.900      0.54  0.39   20   0.12
 1.500      0.58  0.37   28   0.13
 1.900      0.60  0.35   43   0.13
 2.400      0.65  0.32   59   0.14
 3.500      0.75  0.26   79   0.15
 5.500      0.99  0.21  151   0.17
10.000      1.71  0.44 -104   0.36
!
! (c) 2013  Infineon Technologies AG, Munich
