! Infineon Technologies  Discrete & RF Semiconductors
! BFP620F
! VCE =  0.5 V,  IC =  50 mA
! Common Emitter S-Parameters:                            Dec 2014
# GHz  S  MA  R  50
!  f         S11            S21            S12            S22
! GHz     MAG   ANG      MAG   ANG      MAG   ANG      MAG   ANG
 0.030  0.2226  -29.5  17.612  173.6  0.0061   58.8  0.2852  -21.1
 0.040  0.2314  -37.8  17.671  171.9  0.0072   61.0  0.2941  -28.1
 0.050  0.2552  -44.4  18.838  170.1  0.0077   56.9  0.2983  -34.9
 0.060  0.2690  -51.6  18.669  166.6  0.0102   64.6  0.3071  -40.6
 0.070  0.2815  -58.4  18.566  163.1  0.0117   63.6  0.3145  -47.2
 0.080  0.2974  -64.7  18.308  160.0  0.0123   63.6  0.3241  -53.0
 0.090  0.3111  -70.2  17.917  157.4  0.0135   62.3  0.3368  -58.8
 0.100  0.3258  -75.3  17.531  155.1  0.0148   62.4  0.3451  -64.9
 0.110  0.3411  -79.9  17.138  153.0  0.0159   62.2  0.3553  -71.1
 0.120  0.3567  -84.1  16.828  151.2  0.0165   61.6  0.3608  -76.7
 0.130  0.3725  -87.9  16.682  149.5  0.0178   60.1  0.3610  -82.2
 0.140  0.3889  -91.3  16.594  147.8  0.0184   59.7  0.3634  -86.6
 0.150  0.4031  -94.4  16.580  146.1  0.0195   59.8  0.3655  -90.2
 0.200  0.4666 -108.0  15.706  136.8  0.0234   55.3  0.3905 -106.5
 0.250  0.5143 -119.0  14.786  130.3  0.0265   54.8  0.3993 -119.6
 0.300  0.5482 -127.7  13.950  123.8  0.0288   53.7  0.4097 -128.9
 0.350  0.5718 -134.6  12.964  118.9  0.0312   53.8  0.4268 -136.3
 0.400  0.5908 -140.8  12.450  115.0  0.0334   54.2  0.4207 -144.2
 0.450  0.5992 -145.6  11.733  110.6  0.0356   54.2  0.4304 -147.0
 0.500  0.6066 -150.1  11.133  107.8  0.0380   55.1  0.4357 -152.9
 0.600  0.6153 -157.2  10.047  102.6  0.0422   55.8  0.4395 -159.9
 0.700  0.6172 -162.7   8.993   98.3  0.0463   56.7  0.4470 -165.0
 0.800  0.6186 -167.0   8.244   94.8  0.0506   57.5  0.4491 -169.3
 0.900  0.6186 -170.9   7.485   92.0  0.0552   58.3  0.4527 -173.2
 1.000  0.6209 -174.0   6.880   89.5  0.0594   58.8  0.4565 -176.5
 1.100  0.6195 -176.8   6.355   87.3  0.0641   59.2  0.4601 -179.5
 1.200  0.6211 -179.3   5.911   85.5  0.0684   59.3  0.4634  177.9
 1.300  0.6209  178.4   5.497   83.6  0.0729   59.4  0.4660  175.4
 1.400  0.6226  176.4   5.162   81.9  0.0776   59.4  0.4690  173.1
 1.500  0.6226  174.4   4.840   80.3  0.0821   59.3  0.4730  171.1
 1.600  0.6239  172.6   4.582   78.8  0.0866   59.1  0.4775  169.2
 1.700  0.6244  170.8   4.320   77.5  0.0914   59.0  0.4824  167.5
 1.800  0.6261  169.2   4.101   76.1  0.0959   58.7  0.4867  166.1
 1.900  0.6265  167.6   3.909   74.8  0.1006   58.3  0.4908  164.7
 2.000  0.6276  166.1   3.727   73.6  0.1051   57.7  0.4942  163.5
 2.100  0.6297  164.7   3.558   72.3  0.1089   57.0  0.4959  162.8
 2.200  0.6299  163.3   3.404   71.1  0.1135   56.6  0.4979  161.7
 2.300  0.6318  162.0   3.263   70.0  0.1180   56.2  0.4996  160.7
 2.400  0.6321  160.8   3.140   68.8  0.1225   55.6  0.5014  159.6
 2.500  0.6332  159.5   3.025   67.7  0.1271   55.1  0.5027  158.6
 2.600  0.6332  158.2   2.921   66.5  0.1314   54.5  0.5045  157.6
 2.700  0.6341  157.0   2.818   65.5  0.1359   54.0  0.5049  156.7
 2.800  0.6336  155.8   2.730   64.4  0.1403   53.4  0.5062  155.8
 2.900  0.6347  154.6   2.638   63.3  0.1447   52.7  0.5068  155.0
 3.000  0.6351  153.3   2.561   62.1  0.1491   52.0  0.5078  154.0
 3.100  0.6347  152.3   2.486   61.1  0.1534   51.4  0.5078  153.1
 3.200  0.6340  151.0   2.417   60.0  0.1579   50.6  0.5083  152.3
 3.300  0.6343  150.0   2.349   59.0  0.1622   50.0  0.5082  151.4
 3.400  0.6342  148.7   2.286   57.8  0.1665   49.3  0.5087  150.5
 3.500  0.6345  147.6   2.226   56.8  0.1708   48.5  0.5081  149.6
 3.600  0.6334  146.4   2.173   55.7  0.1752   47.8  0.5080  148.6
 3.700  0.6337  145.3   2.120   54.7  0.1794   47.0  0.5079  147.6
 3.800  0.6330  144.2   2.070   53.6  0.1835   46.3  0.5072  146.6
 3.900  0.6338  143.1   2.022   52.6  0.1876   45.4  0.5069  145.5
 4.000  0.6330  142.0   1.979   51.5  0.1915   44.7  0.5063  144.4
 4.100  0.6340  140.9   1.935   50.4  0.1959   43.9  0.5060  143.3
 4.200  0.6342  139.8   1.896   49.4  0.2001   43.1  0.5063  142.1
 4.300  0.6349  138.8   1.859   48.3  0.2042   42.3  0.5061  141.0
 4.400  0.6355  137.7   1.821   47.3  0.2082   41.5  0.5065  139.8
 4.500  0.6361  136.7   1.785   46.2  0.2121   40.6  0.5061  138.6
 4.600  0.6374  135.7   1.752   45.2  0.2161   39.8  0.5066  137.3
 4.700  0.6374  134.7   1.724   44.0  0.2198   38.9  0.5075  136.1
 4.800  0.6393  133.7   1.691   43.0  0.2237   38.1  0.5079  134.8
 4.900  0.6402  132.8   1.661   42.0  0.2276   37.3  0.5085  133.5
 5.000  0.6416  131.8   1.634   40.8  0.2312   36.4  0.5094  132.3
 5.100  0.6426  130.8   1.606   39.7  0.2351   35.5  0.5096  131.0
 5.200  0.6442  129.9   1.578   38.7  0.2387   34.6  0.5104  129.7
 5.300  0.6448  129.0   1.553   37.6  0.2421   33.7  0.5109  128.5
 5.400  0.6467  128.0   1.527   36.5  0.2456   32.8  0.5117  127.3
 5.500  0.6473  127.1   1.502   35.4  0.2487   31.9  0.5120  126.0
 5.600  0.6492  126.2   1.477   34.3  0.2522   31.0  0.5134  124.8
 5.700  0.6500  125.3   1.455   33.3  0.2552   30.1  0.5139  123.6
 5.800  0.6513  124.3   1.431   32.2  0.2584   29.2  0.5142  122.3
 5.900  0.6523  123.4   1.410   31.1  0.2614   28.3  0.5157  121.0
 6.000  0.6534  122.4   1.387   30.0  0.2646   27.3  0.5164  119.8
 6.100  0.6548  121.4   1.367   29.0  0.2672   26.5  0.5168  118.5
 6.200  0.6551  120.4   1.344   27.9  0.2697   25.5  0.5174  117.1
 6.300  0.6561  119.3   1.325   26.8  0.2722   24.7  0.5190  115.8
 6.400  0.6572  118.2   1.303   25.8  0.2747   23.7  0.5197  114.5
 6.500  0.6578  117.1   1.284   24.7  0.2769   22.9  0.5206  113.0
 6.600  0.6582  116.1   1.262   23.8  0.2789   22.0  0.5218  111.7
 6.700  0.6587  114.9   1.243   22.8  0.2810   21.2  0.5226  110.3
 6.800  0.6595  113.8   1.225   21.7  0.2832   20.3  0.5237  108.8
 6.900  0.6606  112.6   1.206   20.8  0.2853   19.5  0.5247  107.3
 7.000  0.6620  111.5   1.188   19.8  0.2874   18.7  0.5261  105.8
 7.100  0.6634  110.4   1.171   18.9  0.2894   17.9  0.5279  104.3
 7.200  0.6651  109.4   1.156   18.0  0.2914   17.1  0.5302  102.8
 7.300  0.6671  108.3   1.139   17.1  0.2933   16.3  0.5331  101.3
 7.400  0.6694  107.3   1.122   16.1  0.2952   15.5  0.5363   99.8
 7.500  0.6725  106.3   1.107   15.2  0.2970   14.7  0.5402   98.3
 7.600  0.6757  105.4   1.092   14.3  0.2988   13.8  0.5446   96.8
 7.700  0.6790  104.5   1.077   13.5  0.3003   13.0  0.5496   95.4
 7.800  0.6824  103.6   1.062   12.6  0.3018   12.2  0.5550   94.0
 7.900  0.6870  102.7   1.047   11.7  0.3030   11.3  0.5610   92.5
 8.000  0.6916  101.9   1.033   10.7  0.3044   10.5  0.5674   91.1
!
!  f       NFmin   Gammaopt  rn/50
! GHz       dB    MAG  ANG    -
 0.450      1.55  0.23 -171   0.17
 0.900      1.58  0.23 -171   0.15
 1.500      1.60  0.27 -155   0.10
 1.800      1.61  0.27 -153   0.10
 1.900      1.62  0.27 -151   0.10
 2.400      1.63  0.27  214   0.11
 3.500      1.71  0.28  221   0.13
 5.500      1.82  0.32  252   0.22
 6.000      1.84  0.32  261   0.28
!
! (c) 2014  Infineon Technologies AG, Munich
