! Infineon Technologies  Discrete & RF Semiconductors
! BFP640ESD
! VCE =  1.0 V,  IC =  20 mA
! Common Emitter S-Parameters:                            Jan 2016
# GHz  S  MA  R  50
!  f         S11            S21            S12            S22
! GHz     MAG   ANG      MAG   ANG      MAG   ANG      MAG   ANG
 0.010  0.7118   -3.2  47.625 -179.2  0.0006  106.1  0.9542    2.9
 0.015  0.7097   -3.6  47.727  179.4  0.0009   96.0  0.9674    0.7
 0.020  0.7076   -4.1  47.856  178.1  0.0012   90.9  0.9820   -1.5
 0.025  0.7061   -4.9  47.833  177.3  0.0015   88.5  0.9821   -2.1
 0.030  0.7048   -5.7  47.820  176.5  0.0018   86.8  0.9823   -2.7
 0.035  0.7036   -6.5  47.815  175.8  0.0021   85.7  0.9826   -3.4
 0.040  0.7026   -7.4  47.819  175.0  0.0024   84.8  0.9830   -4.0
 0.045  0.7017   -8.2  47.832  174.2  0.0027   84.1  0.9835   -4.6
 0.050  0.7009   -9.0  47.854  173.4  0.0030   83.6  0.9842   -5.2
 0.055  0.6992   -9.9  47.793  172.8  0.0033   83.2  0.9826   -5.8
 0.060  0.6976  -10.7  47.739  172.1  0.0035   82.9  0.9811   -6.3
 0.065  0.6962  -11.6  47.691  171.5  0.0038   82.6  0.9797   -6.9
 0.070  0.6949  -12.4  47.648  170.8  0.0041   82.4  0.9784   -7.5
 0.075  0.6938  -13.3  47.612  170.2  0.0043   82.2  0.9771   -8.0
 0.080  0.6929  -14.2  47.582  169.5  0.0046   82.0  0.9760   -8.6
 0.085  0.6921  -15.1  47.558  168.9  0.0049   81.8  0.9750   -9.2
 0.090  0.6915  -15.9  47.541  168.2  0.0052   81.7  0.9741   -9.7
 0.095  0.6911  -16.8  47.529  167.6  0.0054   81.5  0.9732  -10.3
 0.100  0.6908  -17.7  47.524  166.9  0.0057   81.4  0.9725  -10.9
 0.105  0.6885  -18.5  47.370  166.2  0.0060   80.9  0.9697  -11.4
 0.110  0.6864  -19.3  47.222  165.6  0.0062   80.5  0.9669  -12.0
 0.115  0.6843  -20.2  47.080  164.9  0.0065   80.1  0.9643  -12.5
 0.120  0.6825  -21.0  46.945  164.3  0.0067   79.7  0.9617  -13.1
 0.125  0.6808  -21.8  46.816  163.6  0.0070   79.3  0.9592  -13.6
 0.130  0.6792  -22.7  46.693  162.9  0.0073   79.0  0.9569  -14.2
 0.135  0.6778  -23.5  46.577  162.2  0.0075   78.7  0.9546  -14.7
 0.140  0.6765  -24.4  46.468  161.6  0.0078   78.4  0.9523  -15.3
 0.145  0.6754  -25.2  46.364  160.9  0.0080   78.1  0.9502  -15.8
 0.150  0.6744  -26.1  46.268  160.2  0.0083   77.9  0.9482  -16.4
 0.155  0.6718  -26.9  46.089  159.6  0.0085   77.4  0.9447  -16.9
 0.160  0.6693  -27.7  45.916  159.0  0.0088   77.0  0.9413  -17.4
 0.165  0.6669  -28.5  45.747  158.4  0.0090   76.6  0.9379  -17.9
 0.170  0.6647  -29.3  45.584  157.8  0.0093   76.2  0.9346  -18.4
 0.175  0.6626  -30.1  45.425  157.2  0.0095   75.9  0.9314  -18.9
 0.180  0.6606  -30.9  45.272  156.6  0.0097   75.5  0.9283  -19.4
 0.185  0.6588  -31.7  45.124  156.0  0.0100   75.2  0.9252  -19.9
 0.190  0.6571  -32.5  44.981  155.4  0.0102   74.9  0.9222  -20.5
 0.195  0.6555  -33.4  44.843  154.7  0.0105   74.6  0.9193  -21.0
 0.200  0.6541  -34.2  44.711  154.1  0.0107   74.3  0.9165  -21.5
 0.220  0.6425  -37.2  43.852  151.8  0.0116   73.0  0.9012  -23.3
 0.240  0.6327  -40.2  43.067  149.4  0.0125   71.9  0.8868  -25.2
 0.260  0.6229  -43.2  42.304  147.2  0.0133   70.8  0.8719  -26.9
 0.280  0.6129  -46.1  41.546  145.1  0.0141   69.6  0.8562  -28.6
 0.300  0.6045  -49.1  40.844  143.0  0.0149   68.6  0.8412  -30.3
 0.320  0.5936  -51.8  40.003  141.1  0.0157   67.7  0.8249  -31.8
 0.340  0.5841  -54.6  39.207  139.2  0.0164   66.8  0.8091  -33.4
 0.360  0.5747  -57.2  38.407  137.3  0.0171   65.9  0.7935  -34.8
 0.380  0.5652  -59.7  37.597  135.6  0.0178   65.1  0.7777  -36.1
 0.400  0.5567  -62.2  36.825  133.7  0.0185   64.3  0.7623  -37.5
 0.420  0.5468  -64.6  36.037  132.2  0.0191   63.6  0.7472  -38.7
 0.440  0.5380  -67.0  35.276  130.5  0.0196   63.0  0.7324  -39.9
 0.450  0.5339  -68.3  34.906  129.7  0.0199   62.7  0.7251  -40.5
 0.460  0.5291  -69.4  34.528  129.0  0.0202   62.4  0.7177  -41.0
 0.480  0.5200  -71.7  33.788  127.5  0.0208   61.9  0.7032  -42.1
 0.500  0.5117  -74.0  33.073  125.9  0.0214   61.4  0.6889  -43.3
 0.520  0.5030  -75.9  32.373  124.7  0.0219   60.9  0.6755  -44.1
 0.540  0.4948  -77.9  31.689  123.4  0.0224   60.4  0.6622  -45.0
 0.560  0.4873  -80.0  31.021  122.1  0.0228   60.0  0.6491  -45.9
 0.580  0.4805  -82.1  30.370  120.7  0.0233   59.5  0.6362  -46.9
 0.600  0.4743  -84.3  29.739  119.2  0.0238   59.1  0.6234  -47.9
 0.620  0.4671  -86.1  29.149  118.2  0.0243   58.8  0.6121  -48.6
 0.640  0.4603  -87.9  28.568  117.2  0.0247   58.5  0.6010  -49.4
 0.660  0.4540  -89.8  27.997  116.1  0.0252   58.2  0.5899  -50.2
 0.680  0.4483  -91.7  27.437  115.0  0.0256   58.0  0.5790  -51.0
 0.700  0.4430  -93.7  26.887  113.8  0.0261   57.7  0.5682  -51.8
 0.720  0.4372  -95.3  26.375  112.9  0.0265   57.5  0.5586  -52.4
 0.740  0.4318  -96.9  25.869  112.0  0.0269   57.3  0.5490  -53.0
 0.760  0.4267  -98.5  25.371  111.0  0.0274   57.1  0.5394  -53.6
 0.780  0.4220 -100.2  24.879  110.0  0.0278   56.9  0.5300  -54.2
 0.800  0.4176 -101.9  24.396  109.0  0.0282   56.7  0.5206  -54.9
 0.820  0.4131 -103.4  23.970  108.2  0.0286   56.6  0.5124  -55.4
 0.840  0.4090 -104.9  23.549  107.4  0.0290   56.4  0.5043  -56.0
 0.860  0.4051 -106.4  23.133  106.5  0.0294   56.3  0.4962  -56.5
 0.880  0.4015 -108.0  22.723  105.6  0.0298   56.1  0.4882  -57.1
 0.900  0.3982 -109.6  22.318  104.7  0.0302   56.0  0.4802  -57.7
 0.920  0.3944 -111.0  21.942  104.0  0.0306   55.9  0.4728  -58.2
 0.940  0.3908 -112.4  21.570  103.3  0.0310   55.8  0.4655  -58.7
 0.960  0.3874 -113.8  21.201  102.5  0.0313   55.8  0.4582  -59.2
 0.980  0.3843 -115.3  20.837  101.7  0.0317   55.7  0.4509  -59.7
 1.000  0.3815 -116.8  20.476  100.9  0.0321   55.6  0.4437  -60.3
 1.020  0.3787 -118.1  20.157  100.3  0.0325   55.5  0.4377  -60.7
 1.040  0.3762 -119.4  19.841   99.6  0.0329   55.4  0.4317  -61.1
 1.060  0.3738 -120.7  19.527   98.9  0.0332   55.4  0.4258  -61.5
 1.080  0.3716 -122.0  19.216   98.2  0.0336   55.3  0.4198  -62.0
 1.100  0.3696 -123.3  18.908   97.5  0.0340   55.2  0.4139  -62.4
 1.120  0.3674 -124.5  18.631   96.9  0.0344   55.1  0.4084  -62.8
 1.140  0.3653 -125.7  18.356   96.2  0.0348   55.1  0.4030  -63.2
 1.160  0.3634 -126.9  18.083   95.6  0.0351   55.0  0.3976  -63.7
 1.180  0.3617 -128.1  17.813   94.9  0.0355   55.0  0.3922  -64.1
 1.200  0.3601 -129.3  17.545   94.2  0.0359   54.9  0.3868  -64.6
 1.220  0.3584 -130.4  17.302   93.7  0.0363   54.9  0.3822  -64.9
 1.240  0.3568 -131.5  17.060   93.1  0.0367   54.8  0.3776  -65.3
 1.260  0.3553 -132.6  16.820   92.5  0.0371   54.8  0.3730  -65.7
 1.280  0.3540 -133.8  16.582   91.9  0.0375   54.7  0.3684  -66.0
 1.300  0.3528 -134.9  16.346   91.3  0.0379   54.7  0.3639  -66.4
 1.320  0.3514 -135.9  16.127   90.8  0.0383   54.7  0.3597  -66.7
 1.340  0.3501 -136.9  15.909   90.3  0.0387   54.6  0.3554  -67.1
 1.360  0.3490 -137.9  15.693   89.7  0.0390   54.6  0.3512  -67.5
 1.380  0.3479 -139.0  15.478   89.2  0.0394   54.5  0.3470  -67.8
 1.400  0.3470 -140.0  15.265   88.6  0.0398   54.5  0.3428  -68.2
 1.420  0.3459 -140.9  15.081   88.1  0.0402   54.5  0.3393  -68.5
 1.440  0.3448 -141.7  14.897   87.7  0.0406   54.5  0.3357  -68.8
 1.460  0.3439 -142.6  14.715   87.2  0.0410   54.4  0.3322  -69.1
 1.480  0.3430 -143.5  14.533   86.7  0.0414   54.4  0.3287  -69.4
 1.500  0.3422 -144.4  14.353   86.2  0.0418   54.4  0.3252  -69.7
 1.520  0.3416 -145.3  14.185   85.7  0.0422   54.3  0.3220  -70.0
 1.540  0.3411 -146.3  14.017   85.2  0.0426   54.3  0.3188  -70.4
 1.560  0.3407 -147.2  13.851   84.7  0.0430   54.2  0.3156  -70.8
 1.580  0.3403 -148.2  13.686   84.1  0.0434   54.2  0.3125  -71.1
 1.600  0.3401 -149.1  13.522   83.6  0.0438   54.1  0.3093  -71.5
 1.620  0.3393 -150.0  13.374   83.2  0.0442   54.0  0.3064  -71.8
 1.640  0.3386 -150.8  13.226   82.7  0.0446   54.0  0.3035  -72.1
 1.660  0.3380 -151.7  13.079   82.3  0.0450   53.9  0.3006  -72.4
 1.680  0.3375 -152.5  12.933   81.8  0.0454   53.9  0.2977  -72.8
 1.700  0.3370 -153.4  12.788   81.3  0.0458   53.8  0.2948  -73.1
 1.720  0.3366 -154.1  12.647   80.9  0.0462   53.8  0.2923  -73.4
 1.740  0.3362 -154.9  12.507   80.4  0.0466   53.7  0.2899  -73.6
 1.760  0.3359 -155.6  12.367   80.0  0.0470   53.7  0.2875  -73.9
 1.780  0.3357 -156.4  12.228   79.6  0.0474   53.6  0.2850  -74.2
 1.800  0.3355 -157.1  12.090   79.1  0.0478   53.6  0.2826  -74.5
 1.820  0.3354 -157.9  11.969   78.7  0.0482   53.5  0.2800  -74.9
 1.840  0.3353 -158.7  11.849   78.3  0.0487   53.4  0.2773  -75.3
 1.860  0.3354 -159.5  11.729   77.9  0.0491   53.4  0.2747  -75.7
 1.880  0.3354 -160.3  11.610   77.4  0.0496   53.3  0.2721  -76.2
 1.900  0.3356 -161.1  11.492   77.0  0.0500   53.2  0.2695  -76.6
 1.920  0.3353 -161.8  11.382   76.6  0.0504   53.1  0.2673  -76.8
 1.940  0.3351 -162.5  11.272   76.2  0.0508   53.0  0.2651  -77.1
 1.960  0.3349 -163.1  11.162   75.8  0.0513   53.0  0.2629  -77.3
 1.980  0.3347 -163.8  11.053   75.4  0.0517   52.9  0.2607  -77.6
 2.000  0.3346 -164.5  10.945   75.0  0.0521   52.8  0.2585  -77.8
 2.020  0.3346 -165.2  10.846   74.6  0.0525   52.7  0.2562  -78.2
 2.040  0.3346 -165.9  10.748   74.2  0.0529   52.6  0.2540  -78.5
 2.060  0.3346 -166.6  10.650   73.8  0.0533   52.5  0.2517  -78.9
 2.080  0.3348 -167.3  10.552   73.5  0.0537   52.4  0.2495  -79.3
 2.100  0.3349 -168.0  10.455   73.0  0.0541   52.3  0.2472  -79.7
 2.120  0.3351 -168.7  10.359   72.6  0.0546   52.2  0.2450  -80.1
 2.140  0.3354 -169.4  10.263   72.2  0.0550   52.1  0.2428  -80.5
 2.160  0.3357 -170.1  10.168   71.8  0.0554   52.0  0.2406  -80.9
 2.180  0.3361 -170.8  10.073   71.3  0.0558   51.9  0.2385  -81.4
 2.200  0.3365 -171.5   9.979   70.9  0.0562   51.8  0.2363  -81.8
 2.220  0.3368 -172.2   9.896   70.5  0.0566   51.7  0.2342  -82.2
 2.240  0.3372 -172.8   9.814   70.2  0.0571   51.6  0.2321  -82.6
 2.260  0.3376 -173.5   9.733   69.8  0.0575   51.5  0.2300  -83.1
 2.280  0.3381 -174.2   9.651   69.5  0.0580   51.4  0.2279  -83.5
 2.300  0.3386 -174.8   9.570   69.1  0.0584   51.3  0.2258  -83.9
 2.320  0.3391 -175.5   9.490   68.7  0.0588   51.2  0.2238  -84.4
 2.340  0.3397 -176.1   9.410   68.3  0.0593   51.1  0.2217  -84.9
 2.360  0.3404 -176.8   9.330   67.9  0.0597   51.0  0.2197  -85.3
 2.380  0.3411 -177.5   9.251   67.5  0.0602   50.9  0.2177  -85.8
 2.400  0.3418 -178.1   9.172   67.1  0.0606   50.8  0.2157  -86.3
 2.420  0.3424 -178.7   9.100   66.8  0.0610   50.7  0.2137  -86.8
 2.440  0.3431 -179.4   9.028   66.4  0.0614   50.5  0.2118  -87.3
 2.460  0.3439 -180.0   8.957   66.1  0.0619   50.4  0.2098  -87.8
 2.480  0.3446  179.4   8.886   65.7  0.0623   50.3  0.2079  -88.3
 2.500  0.3454  178.8   8.815   65.3  0.0627   50.2  0.2060  -88.8
 2.520  0.3463  178.1   8.745   65.0  0.0631   50.1  0.2041  -89.4
 2.540  0.3472  177.5   8.675   64.6  0.0635   49.9  0.2022  -89.9
 2.560  0.3481  176.9   8.606   64.2  0.0640   49.8  0.2004  -90.5
 2.580  0.3491  176.3   8.537   63.8  0.0644   49.7  0.1985  -91.0
 2.600  0.3501  175.7   8.468   63.4  0.0648   49.6  0.1967  -91.6
 2.620  0.3508  175.2   8.406   63.1  0.0652   49.5  0.1950  -92.1
 2.640  0.3516  174.6   8.345   62.7  0.0657   49.3  0.1934  -92.7
 2.660  0.3524  174.1   8.284   62.4  0.0661   49.2  0.1918  -93.3
 2.680  0.3533  173.5   8.224   62.1  0.0665   49.1  0.1901  -93.8
 2.700  0.3541  173.0   8.163   61.7  0.0669   49.0  0.1886  -94.4
 2.720  0.3550  172.5   8.103   61.4  0.0674   48.9  0.1870  -95.0
 2.740  0.3559  172.0   8.043   61.0  0.0678   48.7  0.1854  -95.6
 2.760  0.3569  171.4   7.984   60.6  0.0682   48.6  0.1839  -96.2
 2.780  0.3579  170.9   7.925   60.3  0.0687   48.5  0.1824  -96.9
 2.800  0.3589  170.4   7.866   59.9  0.0691   48.4  0.1809  -97.5
 2.820  0.3598  169.9   7.813   59.6  0.0695   48.2  0.1795  -98.1
 2.840  0.3607  169.4   7.759   59.3  0.0700   48.1  0.1781  -98.7
 2.860  0.3616  168.9   7.706   58.9  0.0704   47.9  0.1767  -99.3
 2.880  0.3626  168.4   7.654   58.6  0.0709   47.8  0.1754  -99.9
 2.900  0.3636  167.9   7.601   58.3  0.0713   47.6  0.1741 -100.6
 2.920  0.3646  167.4   7.549   57.9  0.0717   47.5  0.1728 -101.2
 2.940  0.3656  166.9   7.497   57.6  0.0722   47.3  0.1715 -101.9
 2.960  0.3667  166.4   7.445   57.2  0.0726   47.2  0.1702 -102.5
 2.980  0.3678  165.9   7.394   56.9  0.0731   47.0  0.1690 -103.2
 3.000  0.3689  165.4   7.343   56.5  0.0735   46.9  0.1678 -103.9
 3.100  0.3730  162.9   7.119   55.0  0.0757   46.1  0.1619 -107.2
 3.200  0.3779  160.5   6.901   53.5  0.0778   45.3  0.1565 -110.7
 3.300  0.3833  158.2   6.687   51.8  0.0800   44.5  0.1518 -114.5
 3.400  0.3894  155.9   6.480   50.1  0.0822   43.8  0.1478 -118.5
 3.500  0.3961  153.7   6.279   48.2  0.0844   43.1  0.1445 -122.7
 3.600  0.4012  151.4   6.106   46.8  0.0865   42.1  0.1407 -127.1
 3.700  0.4069  149.2   5.937   45.2  0.0887   41.2  0.1377 -131.7
 3.800  0.4131  147.0   5.772   43.6  0.0909   40.3  0.1356 -136.4
 3.900  0.4200  144.9   5.612   41.9  0.0931   39.5  0.1345 -141.3
 4.000  0.4274  142.9   5.458   40.1  0.0953   38.7  0.1344 -146.2
 4.100  0.4333  141.0   5.314   38.7  0.0972   37.7  0.1347 -151.3
 4.200  0.4396  139.2   5.174   37.2  0.0991   36.7  0.1360 -156.4
 4.300  0.4463  137.4   5.037   35.7  0.1011   35.7  0.1383 -161.3
 4.400  0.4535  135.7   4.905   34.0  0.1031   34.8  0.1417 -166.0
 4.500  0.4611  134.0   4.776   32.3  0.1051   33.9  0.1459 -170.5
 4.600  0.4658  132.6   4.661   31.0  0.1069   33.0  0.1479 -174.0
 4.700  0.4708  131.3   4.548   29.7  0.1087   32.1  0.1503 -177.4
 4.800  0.4760  130.0   4.437   28.3  0.1106   31.2  0.1534  179.3
 4.900  0.4815  128.7   4.330   26.8  0.1125   30.4  0.1568  176.1
 5.000  0.4872  127.5   4.225   25.3  0.1144   29.6  0.1608  173.1
 5.100  0.4910  126.3   4.136   24.1  0.1162   28.7  0.1626  170.2
 5.200  0.4949  125.2   4.049   22.8  0.1180   27.8  0.1649  167.3
 5.300  0.4991  124.1   3.964   21.5  0.1199   26.9  0.1675  164.5
 5.400  0.5034  123.0   3.881   20.1  0.1218   26.0  0.1705  161.8
 5.500  0.5079  121.9   3.800   18.7  0.1237   25.2  0.1739  159.2
 5.600  0.5124  120.8   3.729   17.5  0.1255   24.3  0.1773  156.3
 5.700  0.5171  119.6   3.659   16.2  0.1274   23.4  0.1812  153.6
 5.800  0.5220  118.5   3.591   14.8  0.1293   22.5  0.1855  151.0
 5.900  0.5270  117.5   3.526   13.4  0.1312   21.6  0.1901  148.5
 6.000  0.5323  116.4   3.462   12.0  0.1332   20.8  0.1951  146.1
 6.100  0.5365  115.2   3.402   10.7  0.1351   19.8  0.1998  144.1
 6.200  0.5409  114.0   3.345    9.3  0.1370   18.8  0.2047  142.1
 6.300  0.5456  112.9   3.289    7.9  0.1390   17.8  0.2099  140.2
 6.400  0.5505  111.7   3.235    6.5  0.1410   16.8  0.2152  138.5
 6.500  0.5556  110.6   3.183    5.0  0.1430   15.9  0.2208  136.8
 6.600  0.5586  109.2   3.132    3.7  0.1449   14.8  0.2236  134.9
 6.800  0.5656  106.6   3.035    0.9  0.1489   12.8  0.2298  131.4
 7.000  0.5738  104.0   2.946   -2.0  0.1530   10.9  0.2369  128.0
 7.200  0.5808  101.2   2.853   -4.8  0.1565    8.5  0.2470  124.0
 7.400  0.5891   98.5   2.768   -7.8  0.1602    6.2  0.2582  120.4
 7.600  0.5992   95.7   2.678  -10.7  0.1633    3.8  0.2714  116.7
 7.800  0.6112   92.9   2.583  -13.6  0.1657    1.3  0.2870  113.0
 8.000  0.6246   90.1   2.496  -16.8  0.1685   -1.1  0.3037  109.7
 8.200  0.6357   87.4   2.402  -19.3  0.1695   -3.2  0.3187  105.9
 8.400  0.6482   84.8   2.313  -22.0  0.1707   -5.4  0.3349  102.5
 8.600  0.6624   82.4   2.234  -24.5  0.1720   -7.3  0.3527   99.1
 8.800  0.6780   80.2   2.163  -26.8  0.1734   -9.1  0.3722   95.7
 9.000  0.6946   78.1   2.096  -29.3  0.1749  -10.8  0.3930   92.6
 9.200  0.7177   75.9   2.039  -31.7  0.1762  -12.7  0.4192   89.9
 9.400  0.7418   73.9   1.985  -34.2  0.1776  -14.5  0.4461   87.5
 9.600  0.7634   71.7   1.919  -36.7  0.1786  -16.4  0.4724   85.4
 9.800  0.7828   69.5   1.840  -39.4  0.1792  -18.4  0.4977   83.7
10.000  0.8033   67.3   1.765  -42.2  0.1800  -20.3  0.5234   82.1
!
!  f       NFmin   Gammaopt  rn/50
! GHz       dB    MAG  ANG    -
 0.450      0.89  0.04 -158   0.09
 0.900      0.89  0.06 -160   0.09
 1.900      0.91  0.11 -131   0.10
 2.400      0.93  0.12 -127   0.11
 5.500      1.18  0.36 -111   0.14
10.000      1.75  0.58  -76   0.70
!
! (c) 2016  Infineon Technologies AG, Munich
