! Infineon Technologies  Discrete & RF Semiconductors
! BFP640
! VCE =  2.5 V,  IC =  32 mA
! Common Emitter S-Parameters:                            Apr 2013
# GHz  S  MA  R  50
!  f         S11            S21            S12            S22
! GHz     MAG   ANG      MAG   ANG      MAG   ANG      MAG   ANG
 0.030  0.5702   -5.7  59.221  175.0  0.0018   90.6  0.9780   -2.1
 0.040  0.5698   -7.8  59.142  173.5  0.0022   95.7  0.9814   -3.4
 0.050  0.5723  -10.1  59.299  172.2  0.0039   71.5  0.9857   -5.0
 0.060  0.5664  -11.8  59.111  170.4  0.0019   85.5  0.9787   -6.0
 0.070  0.5673  -14.2  58.939  169.1  0.0039   79.0  0.9806   -7.4
 0.080  0.5631  -16.0  58.668  167.5  0.0035   73.3  0.9760   -8.4
 0.090  0.5620  -17.9  58.324  166.1  0.0040   78.9  0.9750   -9.7
 0.100  0.5595  -20.1  58.008  164.6  0.0043   83.3  0.9708  -11.0
 0.110  0.5568  -22.2  57.744  163.1  0.0051   79.7  0.9654  -12.2
 0.120  0.5540  -24.3  57.301  161.6  0.0054   81.1  0.9600  -13.3
 0.130  0.5505  -26.2  56.870  160.2  0.0057   86.8  0.9532  -14.5
 0.140  0.5476  -28.1  56.446  158.8  0.0067   78.3  0.9486  -15.5
 0.150  0.5438  -30.1  56.162  157.4  0.0064   80.7  0.9405  -16.7
 0.200  0.5252  -39.2  53.755  150.7  0.0089   76.3  0.9036  -21.8
 0.250  0.5035  -47.8  51.140  144.5  0.0108   72.5  0.8608  -26.2
 0.300  0.4821  -55.8  48.190  139.0  0.0124   71.7  0.8166  -30.2
 0.350  0.4595  -63.5  45.330  133.9  0.0141   69.7  0.7722  -33.7
 0.400  0.4380  -70.7  42.661  129.3  0.0152   66.8  0.7280  -36.8
 0.450  0.4180  -77.1  40.039  125.2  0.0166   66.9  0.6902  -39.4
 0.500  0.3997  -83.3  37.606  121.6  0.0177   65.1  0.6514  -41.7
 0.600  0.3681  -94.7  33.288  115.2  0.0203   64.1  0.5842  -45.2
 0.700  0.3434 -104.8  29.669  110.0  0.0225   63.8  0.5263  -47.9
 0.800  0.3244 -114.0  26.645  105.6  0.0249   62.4  0.4778  -49.9
 0.900  0.3094 -122.4  24.145  101.8  0.0268   62.4  0.4357  -51.4
 1.000  0.2992 -129.8  21.994   98.6  0.0289   61.7  0.4014  -52.6
 1.100  0.2896 -137.0  20.188   95.5  0.0310   61.1  0.3705  -53.4
 1.200  0.2831 -143.4  18.637   92.9  0.0331   60.7  0.3454  -53.9
 1.300  0.2782 -149.4  17.297   90.5  0.0353   60.4  0.3236  -54.3
 1.400  0.2757 -154.7  16.147   88.2  0.0373   59.9  0.3053  -54.5
 1.500  0.2728 -159.7  15.129   86.1  0.0394   59.7  0.2884  -54.5
 1.600  0.2727 -164.5  14.237   84.1  0.0417   58.9  0.2741  -54.7
 1.700  0.2725 -169.0  13.437   82.2  0.0435   58.4  0.2596  -54.5
 1.800  0.2738 -173.0  12.721   80.3  0.0455   57.6  0.2481  -54.9
 1.900  0.2756 -176.9  12.087   78.6  0.0477   57.1  0.2361  -54.7
 2.000  0.2778  179.4  11.503   76.8  0.0498   56.7  0.2256  -54.9
 2.100  0.2815  176.3  10.959   75.1  0.0521   56.2  0.2156  -55.3
 2.200  0.2834  173.1  10.476   73.5  0.0538   55.1  0.2072  -55.4
 2.300  0.2864  169.8  10.034   71.8  0.0563   54.5  0.1986  -55.3
 2.400  0.2889  167.0   9.629   70.3  0.0582   54.0  0.1907  -55.3
 2.500  0.2924  164.1   9.249   68.8  0.0602   53.1  0.1826  -55.1
 2.600  0.2961  161.3   8.897   67.3  0.0622   52.5  0.1742  -55.0
 2.700  0.3002  158.7   8.575   65.8  0.0642   51.7  0.1667  -54.7
 2.800  0.3042  156.2   8.271   64.3  0.0664   51.0  0.1587  -54.9
 2.900  0.3091  153.9   7.991   62.8  0.0685   50.2  0.1511  -55.1
 3.000  0.3137  151.4   7.726   61.4  0.0705   49.4  0.1428  -55.5
 3.100  0.3191  149.2   7.478   59.9  0.0725   48.5  0.1357  -55.7
 3.200  0.3247  146.8   7.244   58.5  0.0746   47.8  0.1279  -56.5
 3.300  0.3305  144.7   7.029   57.1  0.0766   46.8  0.1209  -57.1
 3.400  0.3370  142.5   6.819   55.7  0.0785   45.9  0.1127  -58.1
 3.500  0.3428  140.5   6.621   54.3  0.0804   45.1  0.1053  -58.5
 3.600  0.3498  138.5   6.434   52.9  0.0824   44.3  0.0972  -59.5
 3.700  0.3564  136.6   6.258   51.6  0.0842   43.3  0.0892  -60.2
 3.800  0.3632  134.7   6.090   50.2  0.0861   42.4  0.0814  -61.5
 3.900  0.3697  132.9   5.929   48.8  0.0881   41.7  0.0730  -63.0
 4.000  0.3771  131.2   5.774   47.5  0.0899   40.6  0.0654  -64.9
 4.100  0.3833  129.4   5.625   46.2  0.0914   39.8  0.0579  -67.3
 4.200  0.3911  127.9   5.485   44.9  0.0935   39.0  0.0508  -70.6
 4.300  0.3973  126.3   5.352   43.5  0.0953   37.9  0.0440  -74.1
 4.400  0.4049  124.9   5.222   42.2  0.0972   37.2  0.0375  -77.8
 4.500  0.4105  123.5   5.100   41.0  0.0988   36.3  0.0313  -82.6
 4.600  0.4181  122.2   4.983   39.7  0.1006   35.4  0.0258  -89.5
 4.700  0.4233  120.9   4.867   38.5  0.1024   34.6  0.0201  -97.9
 4.800  0.4300  119.8   4.762   37.2  0.1040   33.7  0.0155 -111.4
 4.900  0.4347  118.5   4.657   35.9  0.1057   32.9  0.0117 -131.3
 5.000  0.4412  117.5   4.558   34.7  0.1074   32.1  0.0101 -160.4
 5.100  0.4455  116.3   4.462   33.5  0.1091   31.2  0.0112  170.5
 5.200  0.4505  115.3   4.372   32.3  0.1108   30.3  0.0133  149.8
 5.300  0.4545  114.2   4.282   31.0  0.1125   29.5  0.0172  136.1
 5.400  0.4589  113.2   4.196   29.9  0.1141   28.6  0.0208  126.0
 5.500  0.4626  112.2   4.115   28.6  0.1156   27.8  0.0253  118.8
 5.600  0.4662  111.3   4.036   27.5  0.1173   27.0  0.0292  113.9
 5.700  0.4687  110.3   3.962   26.3  0.1190   26.1  0.0342  108.8
 5.800  0.4729  109.3   3.890   25.1  0.1206   25.3  0.0383  106.1
 5.900  0.4758  108.6   3.823   24.0  0.1224   24.4  0.0428  103.3
 6.000  0.4791  107.5   3.758   22.8  0.1242   23.6  0.0475  101.9
 6.100  0.4843  106.8   3.698   21.6  0.1262   22.8  0.0519  100.6
 6.200  0.4858  105.8   3.637   20.5  0.1277   21.8  0.0566   99.9
 6.300  0.4914  104.9   3.579   19.2  0.1296   20.8  0.0616   98.9
 6.400  0.4939  103.9   3.524   18.0  0.1312   19.9  0.0665   98.3
 6.500  0.4990  102.7   3.469   16.8  0.1330   19.0  0.0718   97.6
 6.600  0.5022  101.6   3.413   15.5  0.1346   18.0  0.0768   96.8
 6.700  0.5069  100.5   3.363   14.3  0.1361   17.0  0.0817   96.1
 6.800  0.5111   99.3   3.310   13.1  0.1378   16.0  0.0865   95.5
 6.900  0.5157   98.2   3.261   11.9  0.1392   15.1  0.0920   94.7
 7.000  0.5197   96.9   3.212   10.6  0.1409   14.0  0.0968   94.8
 7.100  0.5247   95.7   3.165    9.4  0.1423   13.0  0.1021   94.3
 7.200  0.5290   94.5   3.118    8.1  0.1437   12.1  0.1069   94.0
 7.300  0.5335   93.4   3.075    6.8  0.1451   11.1  0.1125   93.3
 7.400  0.5384   92.0   3.028    5.6  0.1467   10.1  0.1175   92.7
 7.500  0.5441   90.8   2.983    4.3  0.1479    9.1  0.1239   91.7
 7.600  0.5496   89.5   2.938    3.0  0.1491    8.0  0.1300   91.3
 7.700  0.5564   88.4   2.894    1.7  0.1504    7.0  0.1362   90.3
 7.800  0.5623   87.0   2.850    0.4  0.1516    5.9  0.1427   89.3
 7.900  0.5694   85.9   2.805   -0.9  0.1527    5.0  0.1506   88.1
 8.000  0.5760   84.6   2.763   -2.2  0.1537    3.9  0.1577   87.3
 8.500  0.6141   78.8   2.546   -8.5  0.1579   -1.2  0.2013   81.1
 9.000  0.6537   73.4   2.333  -14.3  0.1602   -6.0  0.2556   76.3
 9.500  0.6932   68.9   2.134  -19.2  0.1610  -10.0  0.3122   73.2
10.000  0.7268   65.5   1.968  -23.4  0.1620  -13.2  0.3601   72.1
!
!  f       NFmin   Gammaopt  rn/50
! GHz       dB    MAG  ANG    -
!
! noise parameter not available yet for this operation point!
!
! (c) 2013  Infineon Technologies AG, Munich
