! Infineon Technologies  Discrete & RF Semiconductors
! BFP640FESD
! VCE =  1.0 V,  IC =  6.0 mA
! Common Emitter S-Parameters:                            Jan 2016
# GHz  S  MA  R  50
!  f         S11            S21            S12            S22
! GHz     MAG   ANG      MAG   ANG      MAG   ANG      MAG   ANG
 0.010  0.9205   -0.3  18.531  179.7  0.0001   28.1  0.9899    0.7
 0.015  0.9181   -1.0  18.526  179.4  0.0007   82.2  0.9934   -0.2
 0.020  0.9158   -1.7  18.522  179.1  0.0013   85.8  0.9972   -1.0
 0.025  0.9157   -2.1  18.525  178.8  0.0016   87.1  0.9972   -1.3
 0.030  0.9157   -2.4  18.529  178.5  0.0019   87.9  0.9972   -1.5
 0.035  0.9157   -2.8  18.533  178.1  0.0021   88.6  0.9972   -1.8
 0.040  0.9158   -3.2  18.538  177.8  0.0024   89.1  0.9972   -2.1
 0.045  0.9159   -3.5  18.543  177.5  0.0027   89.5  0.9973   -2.3
 0.050  0.9160   -3.9  18.549  177.2  0.0030   89.8  0.9974   -2.6
 0.055  0.9156   -4.3  18.561  177.0  0.0033   89.2  0.9972   -2.9
 0.060  0.9152   -4.7  18.573  176.7  0.0036   88.6  0.9969   -3.1
 0.065  0.9149   -5.1  18.586  176.5  0.0040   88.2  0.9967   -3.4
 0.070  0.9146   -5.5  18.599  176.2  0.0043   87.8  0.9966   -3.6
 0.075  0.9143   -5.9  18.612  176.0  0.0046   87.5  0.9964   -3.9
 0.080  0.9141   -6.3  18.625  175.8  0.0049   87.2  0.9963   -4.2
 0.085  0.9140   -6.7  18.639  175.5  0.0052   87.0  0.9961   -4.4
 0.090  0.9139   -7.1  18.654  175.3  0.0056   86.8  0.9960   -4.7
 0.095  0.9138   -7.5  18.668  175.0  0.0059   86.6  0.9960   -4.9
 0.100  0.9138   -7.9  18.683  174.8  0.0062   86.4  0.9959   -5.2
 0.105  0.9133   -8.3  18.679  174.5  0.0065   86.1  0.9954   -5.5
 0.110  0.9129   -8.7  18.676  174.2  0.0068   85.8  0.9949   -5.7
 0.115  0.9125   -9.1  18.673  173.9  0.0071   85.5  0.9944   -6.0
 0.120  0.9121   -9.5  18.671  173.6  0.0074   85.3  0.9940   -6.3
 0.125  0.9118   -9.9  18.670  173.3  0.0077   85.0  0.9936   -6.5
 0.130  0.9115  -10.3  18.668  173.0  0.0080   84.8  0.9932   -6.8
 0.135  0.9113  -10.7  18.668  172.7  0.0083   84.6  0.9928   -7.1
 0.140  0.9111  -11.1  18.668  172.4  0.0086   84.4  0.9924   -7.4
 0.145  0.9110  -11.5  18.668  172.1  0.0089   84.3  0.9921   -7.6
 0.150  0.9109  -11.9  18.669  171.8  0.0092   84.1  0.9918   -7.9
 0.155  0.9105  -12.3  18.661  171.5  0.0095   83.7  0.9911   -8.2
 0.160  0.9101  -12.7  18.654  171.2  0.0098   83.3  0.9905   -8.4
 0.165  0.9098  -13.0  18.647  171.0  0.0101   83.0  0.9899   -8.7
 0.170  0.9095  -13.4  18.640  170.7  0.0104   82.6  0.9893   -8.9
 0.175  0.9092  -13.8  18.634  170.4  0.0107   82.3  0.9887   -9.2
 0.180  0.9090  -14.2  18.628  170.1  0.0111   82.0  0.9882   -9.5
 0.185  0.9088  -14.6  18.623  169.8  0.0114   81.8  0.9877   -9.7
 0.190  0.9087  -14.9  18.618  169.6  0.0117   81.5  0.9872  -10.0
 0.195  0.9086  -15.3  18.614  169.3  0.0120   81.2  0.9867  -10.2
 0.200  0.9085  -15.7  18.610  169.0  0.0123   81.0  0.9862  -10.5
 0.220  0.9058  -17.3  18.540  167.8  0.0135   80.2  0.9833  -11.5
 0.240  0.9038  -18.8  18.478  166.5  0.0146   79.6  0.9808  -12.5
 0.260  0.9017  -20.4  18.430  165.4  0.0158   78.8  0.9777  -13.5
 0.280  0.8993  -21.9  18.391  164.3  0.0170   77.9  0.9740  -14.6
 0.300  0.8976  -23.4  18.359  163.3  0.0182   77.1  0.9707  -15.6
 0.320  0.8945  -24.9  18.285  162.2  0.0193   76.2  0.9666  -16.6
 0.340  0.8920  -26.4  18.217  161.1  0.0204   75.5  0.9628  -17.7
 0.360  0.8892  -28.0  18.145  160.0  0.0215   74.6  0.9586  -18.7
 0.380  0.8862  -29.5  18.071  158.9  0.0226   73.7  0.9540  -19.6
 0.400  0.8838  -31.0  18.003  157.8  0.0237   72.9  0.9496  -20.6
 0.420  0.8801  -32.5  17.905  156.7  0.0248   72.1  0.9447  -21.6
 0.440  0.8770  -34.0  17.814  155.6  0.0259   71.4  0.9400  -22.5
 0.450  0.8757  -34.7  17.771  155.1  0.0264   71.1  0.9378  -23.0
 0.460  0.8736  -35.4  17.722  154.6  0.0269   70.7  0.9349  -23.5
 0.480  0.8699  -36.9  17.629  153.5  0.0280   69.9  0.9294  -24.4
 0.500  0.8668  -38.4  17.542  152.4  0.0290   69.1  0.9241  -25.4
 0.520  0.8622  -39.8  17.428  151.4  0.0299   68.2  0.9178  -26.3
 0.540  0.8581  -41.2  17.320  150.4  0.0309   67.4  0.9118  -27.2
 0.560  0.8546  -42.7  17.218  149.3  0.0319   66.6  0.9059  -28.1
 0.580  0.8516  -44.1  17.121  148.3  0.0328   65.9  0.9003  -29.1
 0.600  0.8492  -45.6  17.030  147.2  0.0338   65.2  0.8950  -30.0
 0.620  0.8443  -47.0  16.910  146.3  0.0347   64.4  0.8884  -30.9
 0.640  0.8398  -48.3  16.795  145.4  0.0355   63.7  0.8820  -31.8
 0.660  0.8358  -49.7  16.683  144.4  0.0364   62.9  0.8757  -32.7
 0.680  0.8323  -51.1  16.577  143.5  0.0373   62.3  0.8698  -33.6
 0.700  0.8293  -52.5  16.475  142.5  0.0382   61.6  0.8640  -34.5
 0.720  0.8245  -53.8  16.342  141.6  0.0390   60.9  0.8572  -35.3
 0.740  0.8202  -55.1  16.212  140.7  0.0398   60.2  0.8506  -36.1
 0.760  0.8163  -56.4  16.087  139.8  0.0406   59.5  0.8441  -36.9
 0.780  0.8128  -57.7  15.966  138.8  0.0414   58.9  0.8378  -37.8
 0.800  0.8097  -59.0  15.849  137.9  0.0422   58.3  0.8317  -38.6
 0.820  0.8048  -60.3  15.722  137.0  0.0429   57.6  0.8249  -39.4
 0.840  0.8003  -61.5  15.598  136.2  0.0436   57.0  0.8182  -40.2
 0.860  0.7961  -62.8  15.479  135.3  0.0443   56.4  0.8117  -41.0
 0.880  0.7924  -64.1  15.362  134.4  0.0450   55.8  0.8053  -41.8
 0.900  0.7891  -65.4  15.250  133.5  0.0457   55.2  0.7991  -42.6
 0.920  0.7845  -66.6  15.121  132.7  0.0463   54.6  0.7921  -43.3
 0.940  0.7802  -67.8  14.994  131.9  0.0469   54.0  0.7853  -44.1
 0.960  0.7763  -69.0  14.871  131.1  0.0475   53.5  0.7786  -44.8
 0.980  0.7728  -70.3  14.750  130.2  0.0482   52.9  0.7720  -45.6
 1.000  0.7696  -71.5  14.633  129.4  0.0488   52.4  0.7656  -46.4
 1.020  0.7653  -72.6  14.506  128.6  0.0494   51.9  0.7590  -47.1
 1.040  0.7612  -73.8  14.382  127.9  0.0499   51.3  0.7524  -47.8
 1.060  0.7575  -74.9  14.261  127.1  0.0505   50.8  0.7460  -48.5
 1.080  0.7541  -76.1  14.142  126.3  0.0510   50.3  0.7397  -49.2
 1.100  0.7510  -77.3  14.026  125.5  0.0516   49.8  0.7335  -49.9
 1.120  0.7469  -78.4  13.904  124.8  0.0521   49.3  0.7271  -50.6
 1.140  0.7430  -79.5  13.784  124.0  0.0526   48.8  0.7207  -51.3
 1.160  0.7394  -80.6  13.666  123.3  0.0531   48.3  0.7145  -52.0
 1.180  0.7361  -81.8  13.551  122.5  0.0536   47.8  0.7084  -52.7
 1.200  0.7331  -82.9  13.438  121.7  0.0541   47.3  0.7024  -53.4
 1.220  0.7293  -83.9  13.321  121.0  0.0545   46.8  0.6964  -54.0
 1.240  0.7257  -85.0  13.205  120.3  0.0550   46.4  0.6905  -54.6
 1.260  0.7223  -86.1  13.091  119.6  0.0554   45.9  0.6847  -55.3
 1.280  0.7192  -87.1  12.980  118.9  0.0559   45.4  0.6790  -55.9
 1.300  0.7164  -88.2  12.870  118.2  0.0563   45.0  0.6734  -56.6
 1.320  0.7127  -89.2  12.752  117.6  0.0567   44.6  0.6674  -57.2
 1.340  0.7092  -90.2  12.635  116.9  0.0570   44.2  0.6615  -57.8
 1.360  0.7059  -91.2  12.521  116.3  0.0574   43.8  0.6556  -58.4
 1.380  0.7028  -92.2  12.407  115.6  0.0577   43.4  0.6499  -59.1
 1.400  0.6999  -93.2  12.296  114.9  0.0581   43.0  0.6442  -59.7
 1.420  0.6968  -94.1  12.190  114.3  0.0584   42.7  0.6390  -60.3
 1.440  0.6939  -94.9  12.085  113.8  0.0588   42.3  0.6339  -60.8
 1.460  0.6911  -95.8  11.981  113.2  0.0591   42.0  0.6289  -61.4
 1.480  0.6885  -96.7  11.878  112.6  0.0595   41.6  0.6239  -62.0
 1.500  0.6860  -97.6  11.777  112.0  0.0598   41.3  0.6190  -62.6
 1.520  0.6832  -98.5  11.678  111.4  0.0601   40.9  0.6139  -63.1
 1.540  0.6807  -99.5  11.580  110.8  0.0604   40.6  0.6089  -63.7
 1.560  0.6783 -100.4  11.483  110.2  0.0606   40.2  0.6039  -64.3
 1.580  0.6760 -101.3  11.388  109.6  0.0609   39.9  0.5990  -64.8
 1.600  0.6740 -102.3  11.294  109.0  0.0612   39.5  0.5942  -65.4
 1.620  0.6712 -103.1  11.197  108.5  0.0615   39.2  0.5897  -65.9
 1.640  0.6685 -103.9  11.101  107.9  0.0617   38.9  0.5853  -66.4
 1.660  0.6659 -104.7  11.007  107.4  0.0620   38.6  0.5809  -66.9
 1.680  0.6635 -105.6  10.913  106.9  0.0622   38.3  0.5766  -67.5
 1.700  0.6612 -106.4  10.820  106.3  0.0625   38.0  0.5723  -68.0
 1.720  0.6590 -107.2  10.723  105.8  0.0627   37.8  0.5682  -68.5
 1.740  0.6569 -107.9  10.628  105.3  0.0629   37.5  0.5642  -69.0
 1.760  0.6550 -108.7  10.533  104.8  0.0632   37.3  0.5602  -69.5
 1.780  0.6531 -109.4  10.439  104.2  0.0634   37.0  0.5562  -70.0
 1.800  0.6514 -110.2  10.346  103.7  0.0636   36.8  0.5523  -70.5
 1.820  0.6493 -111.0  10.265  103.2  0.0638   36.5  0.5483  -71.0
 1.840  0.6472 -111.7  10.184  102.8  0.0640   36.3  0.5444  -71.5
 1.860  0.6453 -112.5  10.104  102.3  0.0643   36.0  0.5405  -72.0
 1.880  0.6436 -113.3  10.025  101.8  0.0645   35.8  0.5366  -72.6
 1.900  0.6419 -114.1   9.946  101.3  0.0647   35.5  0.5328  -73.1
 1.920  0.6399 -114.7   9.865  100.9  0.0649   35.3  0.5294  -73.5
 1.940  0.6379 -115.4   9.784  100.4  0.0651   35.1  0.5260  -74.0
 1.960  0.6360 -116.0   9.704  100.0  0.0652   34.9  0.5227  -74.4
 1.980  0.6342 -116.7   9.624   99.6  0.0654   34.7  0.5194  -74.8
 2.000  0.6325 -117.3   9.545   99.1  0.0656   34.5  0.5161  -75.3
 2.020  0.6305 -118.0   9.472   98.7  0.0658   34.3  0.5128  -75.7
 2.040  0.6286 -118.6   9.400   98.2  0.0659   34.1  0.5096  -76.2
 2.060  0.6268 -119.3   9.328   97.8  0.0661   33.9  0.5064  -76.6
 2.080  0.6250 -120.0   9.257   97.3  0.0663   33.6  0.5033  -77.1
 2.100  0.6234 -120.7   9.186   96.9  0.0664   33.4  0.5001  -77.6
 2.120  0.6218 -121.3   9.116   96.4  0.0666   33.2  0.4970  -78.0
 2.140  0.6204 -122.0   9.047   96.0  0.0668   33.0  0.4940  -78.5
 2.160  0.6190 -122.7   8.978   95.5  0.0670   32.8  0.4909  -79.0
 2.180  0.6177 -123.4   8.910   95.0  0.0671   32.6  0.4880  -79.5
 2.200  0.6165 -124.1   8.842   94.5  0.0673   32.4  0.4850  -80.0
 2.220  0.6148 -124.7   8.777   94.1  0.0674   32.2  0.4822  -80.4
 2.240  0.6132 -125.3   8.713   93.7  0.0676   32.1  0.4795  -80.8
 2.260  0.6117 -125.9   8.649   93.4  0.0677   31.9  0.4768  -81.3
 2.280  0.6102 -126.5   8.585   93.0  0.0679   31.8  0.4741  -81.7
 2.300  0.6089 -127.2   8.522   92.6  0.0680   31.6  0.4715  -82.1
 2.320  0.6075 -127.8   8.460   92.2  0.0682   31.4  0.4688  -82.6
 2.340  0.6063 -128.4   8.397   91.8  0.0683   31.3  0.4662  -83.0
 2.360  0.6051 -129.0   8.335   91.3  0.0685   31.1  0.4637  -83.5
 2.380  0.6040 -129.7   8.274   90.9  0.0686   31.0  0.4611  -83.9
 2.400  0.6030 -130.3   8.213   90.5  0.0688   30.8  0.4586  -84.4
 2.420  0.6018 -130.9   8.155   90.1  0.0689   30.6  0.4562  -84.8
 2.440  0.6008 -131.5   8.098   89.8  0.0690   30.5  0.4539  -85.2
 2.460  0.5997 -132.1   8.041   89.4  0.0691   30.3  0.4516  -85.6
 2.480  0.5988 -132.6   7.984   89.0  0.0692   30.2  0.4493  -86.1
 2.500  0.5979 -133.2   7.928   88.7  0.0693   30.0  0.4470  -86.5
 2.520  0.5970 -133.8   7.872   88.3  0.0695   29.9  0.4448  -86.9
 2.540  0.5962 -134.4   7.816   87.9  0.0696   29.7  0.4426  -87.4
 2.560  0.5955 -135.0   7.761   87.5  0.0697   29.6  0.4404  -87.8
 2.580  0.5949 -135.6   7.706   87.1  0.0698   29.4  0.4382  -88.3
 2.600  0.5943 -136.2   7.651   86.7  0.0699   29.3  0.4361  -88.7
 2.620  0.5930 -136.7   7.599   86.4  0.0700   29.2  0.4341  -89.1
 2.640  0.5918 -137.2   7.546   86.1  0.0701   29.1  0.4321  -89.5
 2.660  0.5907 -137.8   7.494   85.7  0.0702   29.0  0.4301  -89.9
 2.680  0.5895 -138.3   7.443   85.4  0.0703   28.9  0.4282  -90.3
 2.700  0.5885 -138.8   7.391   85.1  0.0703   28.7  0.4263  -90.7
 2.720  0.5875 -139.4   7.340   84.7  0.0704   28.6  0.4244  -91.1
 2.740  0.5865 -139.9   7.289   84.4  0.0705   28.5  0.4225  -91.5
 2.760  0.5856 -140.4   7.238   84.0  0.0706   28.4  0.4206  -92.0
 2.780  0.5847 -141.0   7.188   83.7  0.0707   28.3  0.4188  -92.4
 2.800  0.5839 -141.5   7.138   83.3  0.0708   28.2  0.4170  -92.8
 2.820  0.5833 -142.0   7.093   83.0  0.0709   28.1  0.4155  -93.1
 2.840  0.5827 -142.4   7.047   82.7  0.0710   28.0  0.4140  -93.5
 2.860  0.5822 -142.9   7.002   82.4  0.0711   27.9  0.4125  -93.9
 2.880  0.5818 -143.4   6.957   82.1  0.0712   27.8  0.4110  -94.2
 2.900  0.5813 -143.8   6.913   81.8  0.0712   27.7  0.4096  -94.6
 2.920  0.5809 -144.3   6.868   81.4  0.0713   27.6  0.4082  -94.9
 2.940  0.5805 -144.8   6.824   81.1  0.0714   27.5  0.4067  -95.3
 2.960  0.5802 -145.3   6.780   80.8  0.0715   27.4  0.4053  -95.7
 2.980  0.5799 -145.7   6.737   80.4  0.0716   27.3  0.4040  -96.0
 3.000  0.5797 -146.2   6.693   80.1  0.0717   27.2  0.4026  -96.4
 3.100  0.5763 -148.2   6.505   78.8  0.0721   26.9  0.3969  -97.8
 3.200  0.5736 -150.3   6.321   77.5  0.0725   26.7  0.3914  -99.2
 3.300  0.5716 -152.3   6.141   76.0  0.0730   26.4  0.3861 -100.6
 3.400  0.5704 -154.4   5.965   74.5  0.0734   26.2  0.3811 -102.1
 3.500  0.5699 -156.5   5.793   72.9  0.0738   25.9  0.3764 -103.6
 3.600  0.5688 -158.2   5.656   71.7  0.0743   25.8  0.3719 -104.7
 3.700  0.5682 -160.0   5.521   70.5  0.0749   25.6  0.3675 -105.8
 3.800  0.5681 -161.7   5.388   69.2  0.0754   25.5  0.3633 -106.9
 3.900  0.5685 -163.5   5.259   67.8  0.0760   25.3  0.3592 -108.0
 4.000  0.5695 -165.2   5.133   66.4  0.0765   25.2  0.3552 -109.2
 4.100  0.5698 -166.9   5.020   65.2  0.0771   25.0  0.3508 -110.5
 4.200  0.5706 -168.5   4.909   63.9  0.0777   24.8  0.3466 -111.9
 4.300  0.5718 -170.2   4.801   62.6  0.0783   24.7  0.3427 -113.2
 4.400  0.5736 -171.9   4.696   61.2  0.0789   24.5  0.3389 -114.7
 4.500  0.5758 -173.5   4.593   59.7  0.0795   24.3  0.3353 -116.1
 4.600  0.5762 -174.9   4.495   58.6  0.0799   24.1  0.3311 -117.4
 4.700  0.5770 -176.4   4.398   57.4  0.0803   24.0  0.3271 -118.6
 4.800  0.5781 -177.8   4.304   56.1  0.0808   23.8  0.3232 -120.0
 4.900  0.5796 -179.3   4.211   54.8  0.0812   23.7  0.3195 -121.3
 5.000  0.5815  179.3   4.121   53.5  0.0816   23.5  0.3160 -122.7
 5.100  0.5793  178.1   4.040   52.5  0.0822   23.7  0.3124 -123.5
 5.200  0.5774  176.9   3.960   51.5  0.0829   23.9  0.3089 -124.4
 5.300  0.5757  175.7   3.882   50.4  0.0835   24.0  0.3055 -125.3
 5.400  0.5743  174.4   3.805   49.3  0.0842   24.2  0.3021 -126.2
 5.500  0.5732  173.2   3.729   48.1  0.0848   24.4  0.2988 -127.1
 5.600  0.5735  171.8   3.672   47.0  0.0857   24.1  0.2954 -128.5
 5.700  0.5742  170.4   3.617   45.9  0.0866   23.8  0.2921 -130.0
 5.800  0.5752  169.0   3.563   44.7  0.0874   23.5  0.2890 -131.4
 5.900  0.5765  167.7   3.510   43.5  0.0883   23.2  0.2862 -133.0
 6.000  0.5782  166.3   3.459   42.3  0.0892   22.9  0.2835 -134.5
 6.100  0.5781  164.8   3.404   41.2  0.0898   22.7  0.2797 -136.1
 6.200  0.5785  163.2   3.350   40.0  0.0905   22.5  0.2761 -137.8
 6.300  0.5793  161.7   3.297   38.8  0.0911   22.2  0.2727 -139.5
 6.400  0.5805  160.1   3.246   37.6  0.0918   22.0  0.2696 -141.2
 6.500  0.5821  158.6   3.197   36.3  0.0924   21.8  0.2668 -143.0
 6.600  0.5832  157.2   3.145   35.2  0.0929   21.7  0.2618 -144.4
 6.800  0.5864  154.4   3.046   32.9  0.0940   21.6  0.2523 -147.4
 7.000  0.5910  151.6   2.951   30.5  0.0951   21.5  0.2435 -150.6
 7.200  0.5950  149.2   2.861   28.5  0.0968   21.6  0.2321 -153.9
 7.400  0.6001  146.8   2.774   26.4  0.0985   21.7  0.2215 -157.5
 7.600  0.6079  144.4   2.694   24.2  0.1006   21.5  0.2131 -162.2
 7.800  0.6186  142.1   2.622   21.9  0.1032   21.1  0.2079 -168.1
 8.000  0.6302  139.8   2.555   19.4  0.1058   20.7  0.2049 -174.3
 8.200  0.6376  137.6   2.473   17.1  0.1079   19.7  0.2070  178.5
 8.400  0.6460  135.4   2.395   14.7  0.1100   18.8  0.2123  171.5
 8.600  0.6520  133.3   2.318   12.4  0.1117   17.8  0.2191  164.6
 8.800  0.6556  131.5   2.240   10.3  0.1129   16.9  0.2277  157.6
 9.000  0.6599  129.6   2.165    8.1  0.1142   16.0  0.2393  151.3
 9.200  0.6652  128.0   2.098    6.7  0.1154   15.2  0.2548  145.5
 9.400  0.6711  126.4   2.032    5.2  0.1166   14.4  0.2726  140.4
 9.600  0.6809  124.5   1.973    3.4  0.1176   13.7  0.2945  136.0
 9.800  0.6949  122.4   1.921    1.4  0.1184   13.0  0.3202  132.4
10.000  0.7098  120.4   1.871   -0.7  0.1193   12.3  0.3470  129.3
!
!  f       NFmin   Gammaopt  rn/50
! GHz       dB    MAG  ANG    -
 0.450      0.56  0.41    7   0.12
 2.400      0.71  0.23   58   0.11
 5.500      0.99  0.39  149   0.08
10.000      1.78  0.49 -120   0.24
!
! (c) 2016  Infineon Technologies AG, Munich
