! Infineon Technologies  Discrete & RF Semiconductors
! BFP640F
! VCE =  3.0 V,  IC =  15 mA
! Common Emitter S-Parameters:                            Apr 2013
# GHz  S  MA  R  50
!  f         S11            S21            S12            S22
! GHz     MAG   ANG      MAG   ANG      MAG   ANG      MAG   ANG
 0.030  0.7754   -3.3  36.759  176.5  0.0015   78.0  0.9921   -1.8
 0.040  0.7732   -4.4  36.755  175.5  0.0022   80.4  0.9922   -2.5
 0.050  0.7693   -5.8  37.151  174.4  0.0023   53.4  0.9917   -3.4
 0.060  0.7680   -6.9  36.976  173.1  0.0034   68.8  0.9901   -4.2
 0.070  0.7704   -7.9  36.771  172.1  0.0037  102.3  0.9912   -4.7
 0.080  0.7666   -9.0  36.765  171.0  0.0038   82.8  0.9879   -5.6
 0.090  0.7656  -10.2  36.558  170.0  0.0047   84.6  0.9864   -6.4
 0.100  0.7623  -11.4  36.584  169.0  0.0052   82.6  0.9844   -7.1
 0.110  0.7605  -12.6  36.419  167.9  0.0058   87.4  0.9815   -7.9
 0.120  0.7588  -13.7  36.317  166.8  0.0062   79.6  0.9793   -8.6
 0.130  0.7572  -14.9  35.988  165.8  0.0064   83.4  0.9764   -9.3
 0.140  0.7541  -15.9  35.885  164.8  0.0071   83.7  0.9730  -10.1
 0.150  0.7511  -17.1  35.781  163.8  0.0076   79.7  0.9695  -10.8
 0.200  0.7343  -22.6  35.001  158.7  0.0102   79.1  0.9513  -14.1
 0.250  0.7147  -27.7  33.904  154.0  0.0119   79.1  0.9264  -17.3
 0.300  0.6923  -32.8  32.837  149.4  0.0143   76.2  0.8997  -20.2
 0.350  0.6699  -37.5  31.513  145.3  0.0163   75.1  0.8712  -23.0
 0.400  0.6427  -42.3  30.433  141.2  0.0182   73.2  0.8411  -25.4
 0.450  0.6186  -46.4  29.146  137.5  0.0200   72.2  0.8132  -27.6
 0.500  0.5912  -50.6  27.987  134.0  0.0217   70.9  0.7832  -29.5
 0.600  0.5414  -58.4  25.656  127.7  0.0250   68.7  0.7263  -32.9
 0.700  0.4974  -65.1  23.436  122.4  0.0278   67.9  0.6732  -35.6
 0.800  0.4525  -71.7  21.548  117.6  0.0306   66.7  0.6274  -37.6
 0.900  0.4174  -77.4  19.797  113.7  0.0333   65.8  0.5839  -39.2
 1.000  0.3859  -82.7  18.246  110.2  0.0358   65.1  0.5472  -40.4
 1.100  0.3574  -87.7  16.899  107.1  0.0382   64.6  0.5125  -41.3
 1.200  0.3331  -92.4  15.704  104.3  0.0408   64.2  0.4849  -41.9
 1.300  0.3098  -97.2  14.671  101.8  0.0431   64.2  0.4593  -42.3
 1.400  0.2927 -101.5  13.738   99.6  0.0455   63.9  0.4372  -42.7
 1.500  0.2753 -105.7  12.914   97.5  0.0477   63.6  0.4174  -42.8
 1.600  0.2608 -110.0  12.192   95.6  0.0498   63.4  0.4004  -43.1
 1.700  0.2494 -114.1  11.528   93.9  0.0524   63.4  0.3839  -43.1
 1.800  0.2385 -118.1  10.931   92.2  0.0547   63.0  0.3708  -43.4
 1.900  0.2301 -121.8  10.393   90.7  0.0569   62.8  0.3571  -43.4
 2.000  0.2217 -125.7   9.912   89.2  0.0596   62.7  0.3470  -43.7
 2.100  0.2184 -129.9   9.467   87.7  0.0617   62.5  0.3352  -44.4
 2.200  0.2115 -133.3   9.064   86.3  0.0640   62.0  0.3277  -44.5
 2.300  0.2060 -136.8   8.675   85.0  0.0666   62.0  0.3189  -44.7
 2.400  0.2012 -139.9   8.331   83.8  0.0689   61.4  0.3124  -44.9
 2.500  0.1965 -143.2   8.012   82.5  0.0712   61.3  0.3062  -45.0
 2.600  0.1923 -146.4   7.717   81.3  0.0735   60.9  0.3009  -45.2
 2.700  0.1883 -149.4   7.444   80.2  0.0757   60.6  0.2967  -45.3
 2.800  0.1849 -152.5   7.188   79.0  0.0782   60.4  0.2924  -45.6
 2.900  0.1827 -155.1   6.947   77.9  0.0805   60.1  0.2893  -45.8
 3.000  0.1800 -157.8   6.724   76.9  0.0829   59.9  0.2855  -46.1
 3.100  0.1768 -160.6   6.517   75.8  0.0852   59.4  0.2837  -46.4
 3.200  0.1748 -163.2   6.317   74.8  0.0875   59.1  0.2811  -46.7
 3.300  0.1731 -165.5   6.135   73.8  0.0898   58.7  0.2798  -47.0
 3.400  0.1720 -168.1   5.958   72.8  0.0922   58.4  0.2775  -47.3
 3.500  0.1698 -170.3   5.795   71.8  0.0945   58.0  0.2766  -47.6
 3.600  0.1682 -172.7   5.639   70.9  0.0968   57.6  0.2755  -47.8
 3.700  0.1672 -174.8   5.495   69.9  0.0993   57.3  0.2749  -48.1
 3.800  0.1665 -177.1   5.357   69.0  0.1017   56.9  0.2735  -48.3
 3.900  0.1663 -179.0   5.225   68.0  0.1041   56.5  0.2726  -48.5
 4.000  0.1657  178.7   5.098   67.1  0.1063   56.2  0.2711  -48.8
 4.100  0.1655  176.9   4.981   66.2  0.1088   55.7  0.2698  -49.0
 4.200  0.1661  174.5   4.869   65.3  0.1111   55.3  0.2684  -49.3
 4.300  0.1664  172.8   4.764   64.4  0.1136   54.8  0.2666  -49.5
 4.400  0.1681  171.0   4.658   63.5  0.1159   54.5  0.2654  -49.8
 4.500  0.1684  169.2   4.563   62.6  0.1184   54.0  0.2637  -49.9
 4.600  0.1704  167.3   4.472   61.7  0.1207   53.6  0.2622  -50.1
 4.700  0.1713  165.8   4.380   60.9  0.1231   53.1  0.2601  -50.3
 4.800  0.1734  164.0   4.297   59.9  0.1256   52.6  0.2579  -50.6
 4.900  0.1745  162.6   4.214   59.0  0.1277   52.2  0.2558  -50.7
 5.000  0.1764  161.0   4.135   58.2  0.1303   51.8  0.2539  -50.9
 5.100  0.1775  159.5   4.061   57.3  0.1325   51.3  0.2525  -51.1
 5.200  0.1791  158.0   3.987   56.4  0.1348   50.7  0.2503  -51.0
 5.300  0.1805  156.6   3.917   55.6  0.1373   50.3  0.2485  -51.3
 5.400  0.1827  155.4   3.847   54.7  0.1397   49.8  0.2471  -51.3
 5.500  0.1840  153.9   3.784   53.8  0.1420   49.3  0.2450  -51.6
 5.600  0.1855  152.7   3.720   52.9  0.1443   48.9  0.2436  -51.6
 5.700  0.1864  151.3   3.660   52.1  0.1466   48.3  0.2413  -51.7
 5.800  0.1881  149.9   3.601   51.1  0.1489   47.7  0.2403  -51.9
 5.900  0.1895  148.7   3.542   50.3  0.1513   47.3  0.2386  -51.8
 6.000  0.1903  147.2   3.488   49.4  0.1536   46.8  0.2370  -51.9
 6.100  0.1929  145.9   3.434   48.5  0.1558   46.2  0.2352  -52.0
 6.200  0.1924  144.4   3.380   47.7  0.1581   45.7  0.2340  -52.1
 6.300  0.1954  142.9   3.326   46.8  0.1604   45.1  0.2320  -52.1
 6.400  0.1959  141.7   3.276   45.9  0.1625   44.6  0.2297  -52.1
 6.500  0.1979  139.7   3.228   45.0  0.1648   44.1  0.2278  -52.1
 6.600  0.1996  138.4   3.177   44.2  0.1671   43.6  0.2254  -52.1
 6.700  0.2016  136.7   3.131   43.3  0.1692   43.1  0.2236  -51.9
 6.800  0.2039  135.4   3.082   42.6  0.1713   42.6  0.2213  -51.8
 6.900  0.2067  133.7   3.039   41.7  0.1737   42.1  0.2191  -51.5
 7.000  0.2081  132.2   2.995   40.9  0.1758   41.6  0.2166  -51.2
 7.100  0.2116  130.8   2.953   40.1  0.1780   41.1  0.2134  -50.8
 7.200  0.2148  129.5   2.911   39.4  0.1803   40.7  0.2104  -50.7
 7.300  0.2188  128.3   2.872   38.6  0.1827   40.2  0.2072  -50.3
 7.400  0.2224  127.3   2.833   37.8  0.1849   39.8  0.2038  -50.0
 7.500  0.2280  126.3   2.797   37.1  0.1873   39.2  0.1990  -49.6
 7.600  0.2328  125.3   2.765   36.3  0.1898   38.7  0.1944  -49.2
 7.700  0.2398  124.7   2.730   35.6  0.1922   38.1  0.1887  -48.6
 7.800  0.2462  123.9   2.698   34.8  0.1946   37.6  0.1825  -48.1
 7.900  0.2540  123.3   2.666   34.1  0.1969   37.0  0.1759  -47.3
 8.000  0.2614  122.6   2.637   33.2  0.1991   36.5  0.1688  -46.6
 8.500  0.3069  120.3   2.493   29.3  0.2102   33.5  0.1286  -37.7
 9.000  0.3537  118.1   2.360   25.5  0.2205   30.7  0.0936  -17.3
 9.500  0.3964  115.7   2.244   21.7  0.2310   28.0  0.0816   16.4
10.000  0.4352  112.9   2.140   17.9  0.2419   25.1  0.0953   50.6
!
!  f       NFmin   Gammaopt  rn/50
! GHz       dB    MAG  ANG    -
 0.450      0.74  0.06    6   0.05
 0.900      0.75  0.06   19   0.06
 1.500      0.76  0.05   35   0.07
 1.900      0.77  0.05   51   0.07
 2.400      0.79  0.04   76   0.08
 3.500      0.88  0.05  131   0.09
 5.500      1.07  0.14 -142   0.12
10.000      1.56  0.40  -93   0.36
!
! (c) 2013  Infineon Technologies AG, Munich
