! Infineon Technologies  Discrete & RF Semiconductors
! BFP640
! VCE =  3.0 V,  IC =  8.0 mA
! Common Emitter S-Parameters:                            Apr 2013
# GHz  S  MA  R  50
!  f         S11            S21            S12            S22
! GHz     MAG   ANG      MAG   ANG      MAG   ANG      MAG   ANG
 0.030  0.8895   -2.4  22.162  177.2  0.0017   67.2  0.9962   -1.4
 0.040  0.8890   -3.3  22.146  176.5  0.0022   71.0  0.9965   -1.9
 0.050  0.8881   -4.2  22.380  176.1  0.0035   46.6  0.9953   -2.6
 0.060  0.8878   -5.0  22.342  175.2  0.0047   79.3  0.9962   -3.0
 0.070  0.8882   -5.7  22.223  174.7  0.0034   84.3  0.9951   -3.4
 0.080  0.8872   -6.6  22.217  174.0  0.0041   90.3  0.9960   -3.9
 0.090  0.8852   -7.4  22.149  173.3  0.0051   89.7  0.9947   -4.4
 0.100  0.8843   -8.2  22.203  172.7  0.0056   83.0  0.9937   -5.0
 0.110  0.8836   -9.1  22.226  171.9  0.0056   86.8  0.9938   -5.5
 0.120  0.8827  -10.0  22.165  171.2  0.0064   84.5  0.9922   -6.0
 0.130  0.8829  -10.7  22.048  170.6  0.0073   85.7  0.9907   -6.5
 0.140  0.8819  -11.5  21.951  170.0  0.0077   84.8  0.9897   -7.0
 0.150  0.8807  -12.4  21.963  169.3  0.0079   80.4  0.9887   -7.6
 0.200  0.8740  -16.5  21.826  165.9  0.0109   80.1  0.9815  -10.1
 0.250  0.8663  -20.6  21.560  162.5  0.0134   82.2  0.9715  -12.5
 0.300  0.8574  -24.6  21.284  159.3  0.0165   78.0  0.9606  -14.9
 0.350  0.8479  -28.5  20.851  156.1  0.0188   75.1  0.9495  -17.3
 0.400  0.8345  -32.6  20.637  152.9  0.0214   74.2  0.9325  -19.6
 0.450  0.8216  -36.4  20.211  149.9  0.0237   71.8  0.9194  -21.8
 0.500  0.8058  -40.4  19.957  146.8  0.0260   70.5  0.9007  -24.1
 0.600  0.7749  -47.9  19.112  141.1  0.0306   66.5  0.8630  -28.2
 0.700  0.7427  -55.1  18.231  135.8  0.0345   63.2  0.8256  -31.9
 0.800  0.7040  -62.7  17.549  130.4  0.0379   60.2  0.7834  -35.3
 0.900  0.6723  -69.3  16.672  125.9  0.0414   57.5  0.7441  -38.4
 1.000  0.6402  -75.7  15.822  121.6  0.0444   55.1  0.7059  -41.1
 1.100  0.6109  -81.7  14.986  117.7  0.0469   52.9  0.6686  -43.5
 1.200  0.5812  -87.6  14.246  113.9  0.0492   51.0  0.6355  -45.6
 1.300  0.5543  -93.4  13.557  110.4  0.0511   49.1  0.6023  -47.5
 1.400  0.5313  -98.9  12.910  107.2  0.0535   47.6  0.5750  -49.1
 1.500  0.5083 -104.3  12.319  104.2  0.0553   46.1  0.5479  -50.5
 1.600  0.4881 -109.8  11.797  101.1  0.0569   45.0  0.5221  -52.0
 1.700  0.4714 -114.9  11.276   98.5  0.0586   44.1  0.4993  -53.0
 1.800  0.4571 -119.9  10.793   95.9  0.0604   42.8  0.4778  -54.3
 1.900  0.4462 -124.6  10.343   93.5  0.0621   41.9  0.4580  -55.2
 2.000  0.4340 -129.5   9.939   91.1  0.0638   41.0  0.4386  -56.4
 2.100  0.4260 -134.2   9.537   88.7  0.0653   40.1  0.4199  -57.4
 2.200  0.4148 -139.0   9.196   86.3  0.0668   39.2  0.4031  -58.3
 2.300  0.4082 -143.3   8.848   84.3  0.0682   38.3  0.3874  -59.0
 2.400  0.4012 -147.7   8.537   82.2  0.0697   37.8  0.3733  -59.7
 2.500  0.3970 -151.8   8.228   80.2  0.0712   37.0  0.3586  -60.2
 2.600  0.3914 -156.3   7.958   78.2  0.0728   36.1  0.3445  -60.9
 2.700  0.3882 -160.4   7.698   76.2  0.0740   35.7  0.3297  -61.4
 2.800  0.3849 -164.6   7.460   74.2  0.0756   34.9  0.3172  -62.1
 2.900  0.3839 -168.5   7.226   72.4  0.0769   34.2  0.3042  -62.7
 3.000  0.3830 -172.3   7.004   70.6  0.0786   33.6  0.2926  -63.5
 3.100  0.3820 -176.4   6.807   68.7  0.0800   33.0  0.2794  -64.2
 3.200  0.3829  179.9   6.607   67.0  0.0812   32.2  0.2683  -65.1
 3.300  0.3841  176.3   6.424   65.1  0.0830   31.5  0.2575  -66.0
 3.400  0.3875  172.9   6.237   63.5  0.0843   30.7  0.2468  -66.9
 3.500  0.3893  169.5   6.071   61.8  0.0855   30.2  0.2358  -67.6
 3.600  0.3928  166.3   5.906   60.1  0.0870   29.4  0.2248  -68.6
 3.700  0.3958  162.9   5.760   58.4  0.0883   28.9  0.2136  -69.5
 3.800  0.4005  160.0   5.607   56.8  0.0897   28.0  0.2036  -70.6
 3.900  0.4049  157.1   5.461   55.2  0.0911   27.4  0.1935  -71.7
 4.000  0.4098  154.1   5.326   53.6  0.0923   26.7  0.1843  -73.0
 4.100  0.4143  151.5   5.192   52.0  0.0936   26.2  0.1737  -74.3
 4.200  0.4202  148.7   5.070   50.4  0.0949   25.3  0.1657  -75.7
 4.300  0.4249  146.2   4.948   48.8  0.0962   24.7  0.1572  -77.0
 4.400  0.4318  143.9   4.830   47.3  0.0974   24.0  0.1502  -78.3
 4.500  0.4362  141.7   4.715   45.9  0.0986   23.4  0.1418  -79.6
 4.600  0.4426  139.5   4.612   44.3  0.0997   22.8  0.1340  -80.9
 4.700  0.4472  137.5   4.505   43.0  0.1010   22.1  0.1274  -82.0
 4.800  0.4534  135.6   4.408   41.5  0.1023   21.4  0.1201  -83.2
 4.900  0.4577  133.7   4.310   40.1  0.1033   20.7  0.1138  -84.2
 5.000  0.4637  132.1   4.218   38.7  0.1048   20.2  0.1076  -85.3
 5.100  0.4675  130.2   4.133   37.3  0.1059   19.5  0.1012  -86.2
 5.200  0.4723  128.7   4.047   36.0  0.1070   19.0  0.0958  -86.9
 5.300  0.4759  127.1   3.966   34.6  0.1083   18.2  0.0901  -87.7
 5.400  0.4807  125.7   3.882   33.3  0.1096   17.6  0.0847  -87.8
 5.500  0.4833  124.2   3.809   31.9  0.1107   17.0  0.0790  -88.2
 5.600  0.4872  122.9   3.736   30.7  0.1119   16.5  0.0735  -88.4
 5.700  0.4890  121.4   3.670   29.4  0.1131   15.9  0.0675  -88.4
 5.800  0.4932  120.1   3.602   28.0  0.1144   15.2  0.0627  -88.8
 5.900  0.4963  118.9   3.540   26.8  0.1159   14.6  0.0579  -88.8
 6.000  0.4994  117.6   3.478   25.5  0.1172   14.0  0.0527  -89.7
 6.100  0.5040  116.5   3.425   24.3  0.1187   13.3  0.0475  -90.3
 6.200  0.5057  115.3   3.369   23.0  0.1201   12.7  0.0421  -91.7
 6.300  0.5109  114.0   3.315   21.7  0.1213   11.9  0.0378  -92.8
 6.400  0.5136  112.7   3.264   20.4  0.1230   11.2  0.0321  -95.6
 6.500  0.5178  111.2   3.216   19.0  0.1244   10.4  0.0261  -98.3
 6.600  0.5211  109.9   3.165   17.7  0.1256    9.6  0.0215 -102.5
 6.700  0.5254  108.5   3.119   16.4  0.1269    8.9  0.0165 -107.7
 6.800  0.5295  107.0   3.068   15.1  0.1279    8.0  0.0125 -116.2
 6.900  0.5336  105.7   3.024   13.8  0.1294    7.3  0.0076 -140.5
 7.000  0.5373  104.1   2.980   12.4  0.1307    6.4  0.0071  178.3
 7.100  0.5417  102.7   2.940   11.1  0.1320    5.6  0.0097  140.3
 7.200  0.5459  101.3   2.895    9.8  0.1331    4.8  0.0133  127.2
 7.300  0.5503   99.9   2.856    8.4  0.1343    3.9  0.0180  116.2
 7.400  0.5548   98.4   2.810    7.1  0.1354    3.1  0.0225  110.7
 7.500  0.5604   96.9   2.772    5.7  0.1365    2.3  0.0287  104.2
 7.600  0.5655   95.4   2.730    4.3  0.1376    1.5  0.0347  101.9
 7.700  0.5720   94.0   2.691    3.0  0.1386    0.6  0.0407   98.4
 7.800  0.5777   92.5   2.650    1.7  0.1397   -0.4  0.0463   95.6
 7.900  0.5847   91.1   2.609    0.3  0.1406   -1.2  0.0543   92.9
 8.000  0.5908   89.7   2.572   -1.1  0.1416   -2.0  0.0609   91.2
 8.500  0.6271   82.8   2.377   -7.7  0.1452   -6.4  0.1040   81.5
 9.000  0.6645   76.7   2.182  -13.9  0.1473  -10.5  0.1579   77.0
 9.500  0.7015   71.6   1.999  -19.2  0.1482  -14.1  0.2141   74.9
10.000  0.7329   67.8   1.849  -23.8  0.1492  -16.8  0.2631   75.2
!
!  f       NFmin   Gammaopt  rn/50
! GHz       dB    MAG  ANG    -
 0.450      0.60  0.33   11   0.07
 0.900      0.61  0.32   18   0.07
 1.500      0.64  0.29   30   0.07
 1.900      0.67  0.23   49   0.08
 2.400      0.72  0.21   58   0.08
 3.500      0.84  0.17   76   0.09
 5.500      1.07  0.23 -139   0.10
10.000      1.69  0.60  -62   0.41
!
! (c) 2013  Infineon Technologies AG, Munich
