! Infineon Technologies  Discrete & RF Semiconductors
! BFP640F
! VCE =  3.5 V,  IC =  8.0 mA
! Common Emitter S-Parameters:                            Apr 2013
# GHz  S  MA  R  50
!  f         S11            S21            S12            S22
! GHz     MAG   ANG      MAG   ANG      MAG   ANG      MAG   ANG
 0.030  0.8809   -2.3  22.155  177.5  0.0017   80.1  0.9933   -1.3
 0.040  0.8799   -3.1  22.132  176.8  0.0019   82.0  0.9918   -1.8
 0.050  0.8772   -4.1  22.450  176.2  0.0020   80.7  0.9908   -2.3
 0.060  0.8758   -4.8  22.300  175.2  0.0030   67.5  0.9908   -2.8
 0.070  0.8767   -5.6  22.396  174.5  0.0040   76.4  0.9921   -3.2
 0.080  0.8760   -6.3  22.314  173.8  0.0046   80.8  0.9924   -3.8
 0.090  0.8750   -7.1  22.279  173.1  0.0047   86.8  0.9905   -4.2
 0.100  0.8746   -7.9  22.166  172.5  0.0061   87.5  0.9893   -4.7
 0.110  0.8736   -8.7  22.220  171.7  0.0060   86.6  0.9886   -5.3
 0.120  0.8721   -9.4  22.151  171.0  0.0060   78.4  0.9881   -5.8
 0.130  0.8708  -10.3  22.144  170.2  0.0072   82.8  0.9860   -6.2
 0.140  0.8700  -11.0  22.027  169.6  0.0077   84.2  0.9849   -6.7
 0.150  0.8681  -11.8  22.033  168.9  0.0077   84.9  0.9829   -7.2
 0.200  0.8622  -15.7  21.659  165.4  0.0105   82.5  0.9756   -9.6
 0.250  0.8500  -19.5  21.428  161.9  0.0130   82.2  0.9643  -11.8
 0.300  0.8395  -23.2  21.062  158.6  0.0155   78.9  0.9519  -14.1
 0.350  0.8246  -27.0  20.761  155.3  0.0179   77.8  0.9382  -16.3
 0.400  0.8098  -30.6  20.357  152.1  0.0206   75.7  0.9208  -18.4
 0.450  0.7934  -34.1  19.922  149.0  0.0229   74.3  0.9048  -20.3
 0.500  0.7766  -37.5  19.446  146.2  0.0253   72.5  0.8857  -22.2
 0.600  0.7390  -44.3  18.552  140.5  0.0292   70.2  0.8468  -25.7
 0.700  0.6992  -50.7  17.651  135.3  0.0328   67.9  0.8050  -28.9
 0.800  0.6581  -56.8  16.746  130.4  0.0365   65.7  0.7663  -31.5
 0.900  0.6199  -62.4  15.845  126.0  0.0393   64.0  0.7258  -33.9
 1.000  0.5849  -67.6  14.918  122.2  0.0423   62.2  0.6885  -35.9
 1.100  0.5492  -72.6  14.105  118.4  0.0449   60.9  0.6530  -37.5
 1.200  0.5180  -77.2  13.311  115.2  0.0473   59.8  0.6210  -39.0
 1.300  0.4899  -81.5  12.572  112.3  0.0498   58.8  0.5926  -40.1
 1.400  0.4632  -85.8  11.924  109.5  0.0520   58.1  0.5654  -41.1
 1.500  0.4386  -89.8  11.311  107.0  0.0543   57.4  0.5408  -41.8
 1.600  0.4155  -93.9  10.778  104.5  0.0564   57.0  0.5200  -42.6
 1.700  0.3957  -97.7  10.270  102.3  0.0584   56.2  0.4983  -43.2
 1.800  0.3788 -101.3   9.784  100.3  0.0604   55.9  0.4811  -43.9
 1.900  0.3615 -105.1   9.371   98.2  0.0623   55.8  0.4628  -44.3
 2.000  0.3485 -108.4   8.966   96.5  0.0644   55.3  0.4487  -45.0
 2.100  0.3377 -112.3   8.601   94.6  0.0665   54.8  0.4341  -45.8
 2.200  0.3272 -115.4   8.249   92.9  0.0685   54.6  0.4226  -46.2
 2.300  0.3152 -118.7   7.925   91.3  0.0702   54.3  0.4109  -46.5
 2.400  0.3058 -121.7   7.631   89.8  0.0721   54.2  0.4006  -46.9
 2.500  0.2957 -124.8   7.357   88.3  0.0739   53.9  0.3922  -47.2
 2.600  0.2873 -127.8   7.100   86.9  0.0761   53.7  0.3839  -47.5
 2.700  0.2804 -130.5   6.853   85.5  0.0779   53.3  0.3777  -47.7
 2.800  0.2726 -133.4   6.632   84.2  0.0798   53.2  0.3709  -48.1
 2.900  0.2670 -136.0   6.419   82.9  0.0816   52.9  0.3658  -48.4
 3.000  0.2595 -138.9   6.230   81.6  0.0838   52.9  0.3592  -48.7
 3.100  0.2550 -141.3   6.037   80.4  0.0856   52.6  0.3560  -49.0
 3.200  0.2493 -144.0   5.864   79.2  0.0877   52.3  0.3515  -49.3
 3.300  0.2452 -146.3   5.697   78.0  0.0897   52.2  0.3488  -49.6
 3.400  0.2399 -149.2   5.545   76.8  0.0916   51.9  0.3446  -49.9
 3.500  0.2369 -151.3   5.395   75.7  0.0935   51.7  0.3424  -50.1
 3.600  0.2326 -153.8   5.256   74.6  0.0955   51.6  0.3401  -50.2
 3.700  0.2302 -155.8   5.118   73.6  0.0975   51.3  0.3380  -50.5
 3.800  0.2269 -158.4   4.998   72.5  0.0996   51.0  0.3355  -50.7
 3.900  0.2244 -160.5   4.881   71.4  0.1015   50.8  0.3333  -51.0
 4.000  0.2224 -162.9   4.765   70.4  0.1037   50.5  0.3307  -51.2
 4.100  0.2212 -164.8   4.655   69.4  0.1057   50.2  0.3287  -51.4
 4.200  0.2199 -167.2   4.553   68.4  0.1079   50.0  0.3260  -51.6
 4.300  0.2190 -169.3   4.457   67.3  0.1099   49.6  0.3238  -51.8
 4.400  0.2186 -171.5   4.365   66.4  0.1120   49.4  0.3212  -52.0
 4.500  0.2179 -173.4   4.276   65.4  0.1143   49.0  0.3192  -52.2
 4.600  0.2191 -175.5   4.189   64.4  0.1160   48.7  0.3171  -52.4
 4.700  0.2186 -177.4   4.108   63.4  0.1182   48.4  0.3140  -52.5
 4.800  0.2198 -179.4   4.030   62.4  0.1202   48.1  0.3115  -52.8
 4.900  0.2197  178.8   3.955   61.5  0.1224   47.7  0.3087  -52.9
 5.000  0.2204  176.8   3.884   60.5  0.1244   47.3  0.3064  -53.1
 5.100  0.2213  175.0   3.812   59.6  0.1266   47.0  0.3045  -53.3
 5.200  0.2219  173.1   3.745   58.6  0.1287   46.6  0.3018  -53.3
 5.300  0.2226  171.4   3.680   57.7  0.1308   46.2  0.2995  -53.5
 5.400  0.2236  169.5   3.619   56.7  0.1331   45.9  0.2973  -53.6
 5.500  0.2244  167.9   3.559   55.7  0.1350   45.5  0.2953  -53.9
 5.600  0.2256  166.3   3.499   54.8  0.1370   45.0  0.2937  -53.9
 5.700  0.2263  164.8   3.442   53.9  0.1393   44.7  0.2909  -54.1
 5.800  0.2271  162.9   3.389   52.9  0.1413   44.3  0.2896  -54.2
 5.900  0.2278  161.4   3.335   52.0  0.1433   43.9  0.2871  -54.2
 6.000  0.2278  159.6   3.287   51.0  0.1454   43.4  0.2856  -54.4
 6.100  0.2300  157.9   3.235   50.1  0.1475   43.0  0.2833  -54.5
 6.200  0.2292  156.4   3.184   49.2  0.1494   42.5  0.2819  -54.7
 6.300  0.2311  154.4   3.138   48.2  0.1516   42.2  0.2793  -54.6
 6.400  0.2315  153.0   3.089   47.4  0.1535   41.8  0.2769  -54.8
 6.500  0.2329  150.9   3.041   46.4  0.1555   41.3  0.2750  -54.8
 6.600  0.2339  149.2   2.997   45.5  0.1575   40.9  0.2721  -54.8
 6.700  0.2354  147.3   2.953   44.6  0.1594   40.5  0.2700  -54.7
 6.800  0.2365  145.5   2.911   43.8  0.1615   40.1  0.2673  -54.7
 6.900  0.2389  143.7   2.869   42.9  0.1636   39.7  0.2650  -54.4
 7.000  0.2398  141.9   2.829   42.0  0.1654   39.3  0.2622  -54.3
 7.100  0.2437  140.3   2.787   41.2  0.1675   38.9  0.2589  -54.1
 7.200  0.2457  138.7   2.750   40.4  0.1696   38.5  0.2557  -54.1
 7.300  0.2497  137.1   2.713   39.6  0.1718   38.1  0.2521  -53.8
 7.400  0.2524  135.7   2.680   38.8  0.1740   37.8  0.2485  -53.6
 7.500  0.2579  134.4   2.644   38.0  0.1762   37.4  0.2437  -53.5
 7.600  0.2623  133.0   2.615   37.2  0.1785   36.9  0.2391  -53.3
 7.700  0.2693  132.0   2.582   36.4  0.1806   36.4  0.2334  -53.0
 7.800  0.2752  130.7   2.553   35.6  0.1831   35.9  0.2267  -52.8
 7.900  0.2826  129.8   2.524   34.8  0.1851   35.5  0.2204  -52.4
 8.000  0.2898  128.7   2.495   33.9  0.1875   35.0  0.2129  -52.1
 8.500  0.3343  124.7   2.361   29.8  0.1978   32.4  0.1705  -48.1
 9.000  0.3785  121.3   2.240   25.8  0.2078   29.9  0.1245  -38.8
 9.500  0.4183  118.2   2.135   21.9  0.2183   27.5  0.0844  -20.2
10.000  0.4549  115.0   2.039   17.9  0.2292   24.9  0.0604   18.6
!
!  f       NFmin   Gammaopt  rn/50
! GHz       dB    MAG  ANG    -
 0.450      0.59  0.27    8   0.06
 0.900      0.59  0.26   20   0.07
 1.500      0.62  0.25   28   0.08
 1.900      0.63  0.23   41   0.09
 2.400      0.67  0.20   55   0.09
 3.500      0.76  0.17   82   0.11
 5.500      0.97  0.15  168   0.14
10.000      1.57  0.41 -101   0.33
!
! (c) 2013  Infineon Technologies AG, Munich
