! Infineon Technologies  Discrete & RF Semiconductors
! BFP620F
! VCE =  0.3 V,  IC =  7.0 mA
! Common Emitter S-Parameters:                            Dec 2014
# GHz  S  MA  R  50
!  f         S11            S21            S12            S22
! GHz     MAG   ANG      MAG   ANG      MAG   ANG      MAG   ANG
 0.030  0.8967   -5.8  17.332  176.4  0.0055   84.8  0.9820   -3.8
 0.040  0.8948   -7.4  17.710  175.3  0.0072   84.4  0.9815   -5.2
 0.050  0.8948   -9.0  18.109  174.0  0.0088   81.2  0.9802   -6.5
 0.060  0.8963  -10.5  18.378  173.2  0.0096   80.5  0.9780   -7.6
 0.070  0.8962  -11.8  18.507  171.9  0.0121   83.8  0.9760   -8.9
 0.080  0.8979  -13.4  18.494  170.6  0.0140   87.5  0.9757  -10.2
 0.090  0.8933  -14.8  18.334  169.5  0.0152   82.9  0.9754  -11.4
 0.100  0.8867  -16.5  18.060  168.3  0.0182   80.1  0.9725  -12.7
 0.110  0.8811  -18.0  17.780  167.2  0.0189   79.9  0.9710  -14.0
 0.120  0.8762  -19.8  17.607  166.2  0.0207   80.3  0.9681  -15.3
 0.130  0.8715  -21.4  17.546  165.2  0.0226   79.7  0.9649  -16.6
 0.140  0.8689  -22.8  17.519  164.2  0.0240   78.6  0.9595  -17.9
 0.150  0.8683  -24.2  17.638  163.3  0.0257   77.3  0.9560  -19.1
 0.200  0.8553  -31.3  17.305  158.2  0.0338   74.2  0.9362  -25.1
 0.250  0.8384  -38.2  17.049  153.4  0.0411   71.0  0.9106  -31.0
 0.300  0.8250  -44.6  16.726  148.9  0.0478   67.4  0.8830  -36.7
 0.350  0.8006  -51.2  15.921  144.5  0.0542   64.5  0.8538  -42.2
 0.400  0.7810  -57.5  15.632  140.7  0.0600   61.4  0.8157  -47.3
 0.450  0.7672  -62.6  15.154  136.8  0.0651   58.8  0.7896  -52.2
 0.500  0.7428  -68.5  14.479  133.4  0.0695   56.3  0.7544  -57.1
 0.600  0.7055  -78.6  13.491  127.0  0.0773   52.1  0.6901  -65.5
 0.700  0.6710  -87.8  12.415  121.4  0.0837   48.7  0.6347  -73.6
 0.800  0.6418  -96.1  11.504  116.6  0.0888   46.0  0.5840  -80.4
 0.900  0.6145 -103.6  10.655  112.3  0.0932   44.0  0.5391  -87.1
 1.000  0.5930 -110.5   9.884  108.5  0.0969   42.1  0.5004  -93.2
 1.100  0.5721 -116.9   9.188  105.0  0.1003   40.7  0.4663  -99.1
 1.200  0.5577 -122.7   8.585  102.0  0.1034   39.6  0.4389 -104.4
 1.300  0.5428 -128.1   8.035   99.2  0.1061   38.8  0.4129 -109.7
 1.400  0.5338 -132.9   7.556   96.7  0.1089   38.1  0.3929 -114.8
 1.500  0.5230 -137.5   7.107   94.3  0.1114   37.6  0.3752 -119.7
 1.600  0.5168 -141.9   6.714   92.0  0.1141   37.1  0.3626 -124.4
 1.700  0.5093 -145.9   6.349   90.0  0.1166   36.9  0.3507 -129.0
 1.800  0.5058 -149.5   6.028   88.0  0.1190   36.5  0.3434 -133.3
 1.900  0.5012 -152.9   5.735   86.2  0.1215   36.2  0.3369 -137.3
 2.000  0.4979 -156.1   5.468   84.4  0.1244   36.1  0.3330 -141.0
 2.100  0.4963 -159.3   5.222   82.7  0.1269   35.4  0.3344 -144.1
 2.200  0.4939 -162.0   4.997   81.1  0.1295   35.1  0.3307 -147.3
 2.300  0.4922 -164.7   4.790   79.5  0.1317   35.0  0.3278 -150.3
 2.400  0.4908 -167.1   4.603   78.0  0.1341   34.8  0.3254 -153.2
 2.500  0.4901 -169.6   4.431   76.6  0.1371   34.6  0.3238 -155.8
 2.600  0.4886 -171.9   4.268   75.1  0.1395   34.5  0.3219 -158.2
 2.700  0.4878 -174.0   4.120   73.8  0.1422   34.3  0.3202 -160.3
 2.800  0.4867 -176.1   3.979   72.5  0.1447   34.1  0.3193 -162.5
 2.900  0.4864 -178.0   3.850   71.1  0.1475   33.9  0.3187 -164.6
 3.000  0.4859  179.9   3.732   69.8  0.1502   33.7  0.3185 -166.7
 3.100  0.4856  178.1   3.616   68.5  0.1529   33.4  0.3166 -168.4
 3.200  0.4845  176.2   3.509   67.3  0.1558   33.3  0.3159 -170.3
 3.300  0.4845  174.4   3.410   66.0  0.1586   33.0  0.3151 -172.0
 3.400  0.4838  172.7   3.317   64.8  0.1614   32.7  0.3144 -173.8
 3.500  0.4836  171.0   3.228   63.6  0.1643   32.4  0.3132 -175.4
 3.600  0.4832  169.2   3.144   62.4  0.1670   32.1  0.3120 -177.1
 3.700  0.4835  167.6   3.066   61.2  0.1700   31.8  0.3104 -178.7
 3.800  0.4829  165.9   2.989   60.0  0.1729   31.5  0.3093  179.6
 3.900  0.4838  164.4   2.920   58.9  0.1757   31.1  0.3082  178.0
 4.000  0.4837  162.8   2.851   57.7  0.1786   30.7  0.3063  176.3
 4.100  0.4847  161.3   2.789   56.5  0.1815   30.4  0.3049  174.6
 4.200  0.4857  159.8   2.727   55.4  0.1843   29.9  0.3037  172.8
 4.300  0.4870  158.4   2.671   54.2  0.1872   29.5  0.3029  171.1
 4.400  0.4883  156.9   2.615   53.1  0.1903   29.1  0.3021  169.4
 4.500  0.4893  155.6   2.562   52.0  0.1931   28.7  0.3007  167.7
 4.600  0.4913  154.1   2.511   50.8  0.1959   28.2  0.2998  165.9
 4.700  0.4927  152.9   2.464   49.6  0.1990   27.7  0.2996  164.1
 4.800  0.4952  151.5   2.417   48.6  0.2018   27.3  0.2990  162.2
 4.900  0.4970  150.3   2.371   47.5  0.2046   26.8  0.2988  160.4
 5.000  0.4996  148.9   2.330   46.3  0.2076   26.2  0.2990  158.6
 5.100  0.5013  147.7   2.289   45.1  0.2104   25.7  0.2981  156.9
 5.200  0.5039  146.5   2.249   44.0  0.2132   25.2  0.2983  155.1
 5.300  0.5059  145.3   2.210   42.9  0.2159   24.6  0.2991  153.3
 5.400  0.5088  144.1   2.172   41.7  0.2188   24.0  0.2995  151.6
 5.500  0.5108  143.0   2.135   40.6  0.2213   23.4  0.2996  149.8
 5.600  0.5138  141.8   2.099   39.5  0.2242   22.8  0.3005  148.2
 5.700  0.5156  140.7   2.065   38.4  0.2265   22.3  0.3009  146.5
 5.800  0.5178  139.5   2.032   37.2  0.2294   21.7  0.3017  144.7
 5.900  0.5203  138.3   1.999   36.1  0.2319   21.0  0.3032  142.9
 6.000  0.5223  137.1   1.967   35.0  0.2343   20.4  0.3036  141.3
 6.100  0.5246  135.9   1.936   33.9  0.2366   19.8  0.3040  139.6
 6.200  0.5262  134.6   1.904   32.7  0.2389   19.1  0.3050  137.7
 6.300  0.5286  133.3   1.874   31.6  0.2411   18.5  0.3068  135.8
 6.400  0.5305  132.1   1.845   30.4  0.2431   17.8  0.3078  134.0
 6.500  0.5323  130.7   1.816   29.3  0.2454   17.2  0.3086  132.1
 6.600  0.5338  129.4   1.784   28.3  0.2472   16.5  0.3103  130.1
 6.700  0.5353  128.1   1.757   27.2  0.2491   15.9  0.3114  128.1
 6.800  0.5371  126.7   1.730   26.2  0.2510   15.3  0.3129  126.2
 6.900  0.5392  125.4   1.703   25.1  0.2529   14.7  0.3143  124.1
 7.000  0.5415  124.0   1.676   24.1  0.2548   14.1  0.3160  122.1
 7.100  0.5439  122.7   1.651   23.1  0.2567   13.5  0.3183  119.9
 7.200  0.5465  121.4   1.626   22.1  0.2587   13.0  0.3210  117.8
 7.300  0.5500  120.2   1.603   21.1  0.2606   12.4  0.3244  115.8
 7.400  0.5537  118.9   1.579   20.1  0.2625   11.8  0.3283  113.8
 7.500  0.5579  117.8   1.557   19.2  0.2645   11.2  0.3330  111.7
 7.600  0.5624  116.7   1.535   18.2  0.2666   10.6  0.3382  109.7
 7.700  0.5674  115.6   1.513   17.3  0.2684    9.9  0.3447  107.7
 7.800  0.5727  114.5   1.491   16.3  0.2702    9.3  0.3515  105.8
 7.900  0.5787  113.5   1.470   15.3  0.2718    8.6  0.3588  103.9
 8.000  0.5850  112.5   1.450   14.3  0.2734    7.8  0.3665  102.1
!
!  f       NFmin   Gammaopt  rn/50
! GHz       dB    MAG  ANG    -
 0.450      0.55  0.38    9   0.25
 0.900      0.61  0.35   19   0.22
 1.500      0.68  0.32   24   0.19
 1.800      0.71  0.30   27   0.18
 1.900      0.72  0.25   40   0.19
 2.400      0.77  0.22   56   0.17
 3.500      0.88  0.21   75   0.14
 5.500      1.08  0.14  162   0.12
 6.000      1.12  0.11  185   0.21
!
! (c) 2014  Infineon Technologies AG, Munich
