! Infineon Technologies  Discrete & RF Semiconductors
! BFP620F
! VCE =  1.0 V,  IC =  37 mA
! Common Emitter S-Parameters:                            Dec 2014
# GHz  S  MA  R  50
!  f         S11            S21            S12            S22
! GHz     MAG   ANG      MAG   ANG      MAG   ANG      MAG   ANG
 0.030  0.6042  -10.2  58.324  174.2  0.0029   92.7  0.9511   -4.9
 0.040  0.6050  -13.3  59.193  171.8  0.0040   84.7  0.9557   -7.4
 0.050  0.6033  -16.5  60.060  169.4  0.0042   81.3  0.9539   -9.7
 0.060  0.6048  -19.4  60.367  167.4  0.0059   81.2  0.9534  -12.1
 0.070  0.6005  -21.8  60.244  165.1  0.0058   84.5  0.9474  -14.3
 0.080  0.6009  -25.0  59.848  162.9  0.0073   87.6  0.9454  -16.7
 0.090  0.5940  -27.9  59.073  160.8  0.0081   80.4  0.9370  -19.0
 0.100  0.5894  -31.0  58.204  158.7  0.0089   78.8  0.9282  -21.2
 0.110  0.5819  -34.0  57.289  156.6  0.0101   78.5  0.9182  -23.5
 0.120  0.5756  -37.0  56.449  154.7  0.0107   79.7  0.9088  -25.7
 0.130  0.5695  -39.6  55.823  152.9  0.0114   74.5  0.8969  -27.7
 0.140  0.5632  -42.1  55.128  151.1  0.0125   75.6  0.8839  -29.7
 0.150  0.5579  -44.4  54.585  149.4  0.0125   76.0  0.8721  -31.6
 0.200  0.5282  -56.1  50.407  141.5  0.0167   70.2  0.8068  -40.6
 0.250  0.4951  -66.3  46.342  134.8  0.0190   68.0  0.7411  -48.4
 0.300  0.4681  -75.3  42.457  129.1  0.0218   66.6  0.6798  -55.3
 0.350  0.4432  -83.8  38.757  124.2  0.0240   64.5  0.6227  -61.1
 0.400  0.4212  -91.0  35.638  120.1  0.0264   64.0  0.5715  -66.3
 0.450  0.4042  -97.4  32.840  116.5  0.0279   62.9  0.5295  -71.2
 0.500  0.3872 -103.5  30.310  113.4  0.0298   62.4  0.4896  -75.5
 0.600  0.3642 -114.2  26.184  108.1  0.0335   62.4  0.4239  -83.1
 0.700  0.3470 -122.9  22.943  103.9  0.0372   62.2  0.3739  -90.0
 0.800  0.3368 -130.5  20.354  100.6  0.0404   62.4  0.3337  -96.2
 0.900  0.3277 -137.0  18.262   97.7  0.0440   62.4  0.3013 -102.2
 1.000  0.3237 -142.8  16.544   95.1  0.0473   62.7  0.2753 -107.7
 1.100  0.3188 -147.9  15.085   92.9  0.0510   62.8  0.2534 -113.5
 1.200  0.3180 -152.4  13.881   90.9  0.0544   63.0  0.2367 -118.7
 1.300  0.3160 -156.6  12.832   89.1  0.0580   62.8  0.2219 -124.2
 1.400  0.3174 -160.3  11.937   87.4  0.0617   62.8  0.2117 -129.3
 1.500  0.3168 -163.8  11.144   85.8  0.0651   62.6  0.2029 -134.6
 1.600  0.3188 -166.9  10.454   84.3  0.0687   62.5  0.1978 -139.2
 1.700  0.3190 -169.9   9.840   82.9  0.0724   62.4  0.1931 -144.1
 1.800  0.3213 -172.5   9.301   81.6  0.0761   62.1  0.1915 -148.1
 1.900  0.3225 -174.9   8.813   80.3  0.0795   61.9  0.1906 -152.0
 2.000  0.3245 -177.3   8.375   79.1  0.0832   61.4  0.1911 -155.4
 2.100  0.3275 -179.5   7.973   77.9  0.0867   60.8  0.1967 -157.1
 2.200  0.3284  178.5   7.613   76.7  0.0903   60.4  0.1968 -159.8
 2.300  0.3302  176.5   7.281   75.6  0.0937   60.2  0.1972 -162.4
 2.400  0.3316  174.6   6.981   74.4  0.0974   59.7  0.1976 -164.8
 2.500  0.3331  172.7   6.706   73.4  0.1010   59.1  0.1983 -166.8
 2.600  0.3339  171.0   6.447   72.3  0.1043   58.6  0.1990 -168.8
 2.700  0.3350  169.4   6.211   71.3  0.1079   58.1  0.1995 -170.4
 2.800  0.3356  167.7   5.992   70.3  0.1116   57.6  0.2001 -172.0
 2.900  0.3369  166.2   5.787   69.3  0.1150   57.1  0.2011 -173.5
 3.000  0.3371  164.5   5.600   68.2  0.1187   56.6  0.2020 -175.0
 3.100  0.3384  163.2   5.419   67.3  0.1222   56.0  0.2022 -176.3
 3.200  0.3384  161.7   5.251   66.3  0.1256   55.5  0.2025 -177.6
 3.300  0.3395  160.4   5.095   65.3  0.1293   54.8  0.2025 -178.7
 3.400  0.3394  158.9   4.952   64.3  0.1328   54.3  0.2031  179.9
 3.500  0.3401  157.6   4.812   63.4  0.1362   53.7  0.2025  178.7
 3.600  0.3405  156.1   4.682   62.4  0.1398   53.1  0.2028  177.5
 3.700  0.3412  154.9   4.561   61.4  0.1433   52.5  0.2025  176.3
 3.800  0.3415  153.5   4.442   60.5  0.1466   51.8  0.2022  175.1
 3.900  0.3425  152.3   4.333   59.5  0.1502   51.1  0.2018  173.9
 4.000  0.3425  151.0   4.226   58.6  0.1537   50.5  0.2012  172.4
 4.100  0.3439  149.9   4.129   57.6  0.1570   49.9  0.2007  171.0
 4.200  0.3451  148.6   4.034   56.7  0.1607   49.2  0.2006  169.3
 4.300  0.3461  147.6   3.946   55.7  0.1641   48.5  0.2002  167.9
 4.400  0.3478  146.5   3.860   54.8  0.1676   47.8  0.1999  166.3
 4.500  0.3488  145.5   3.777   53.8  0.1710   47.1  0.1997  164.7
 4.600  0.3507  144.3   3.698   52.9  0.1742   46.4  0.1997  162.9
 4.700  0.3522  143.4   3.627   51.9  0.1778   45.7  0.2001  161.3
 4.800  0.3549  142.4   3.554   51.0  0.1812   45.0  0.2004  159.5
 4.900  0.3565  141.5   3.484   50.1  0.1845   44.3  0.2006  157.6
 5.000  0.3588  140.5   3.419   49.0  0.1878   43.5  0.2018  156.0
 5.100  0.3606  139.6   3.356   48.1  0.1913   42.7  0.2014  154.3
 5.200  0.3632  138.9   3.294   47.1  0.1944   42.0  0.2024  152.5
 5.300  0.3652  138.0   3.234   46.1  0.1976   41.2  0.2032  150.9
 5.400  0.3681  137.2   3.176   45.1  0.2010   40.5  0.2044  149.4
 5.500  0.3703  136.4   3.119   44.2  0.2039   39.7  0.2053  147.6
 5.600  0.3737  135.6   3.065   43.2  0.2070   38.9  0.2068  146.0
 5.700  0.3757  134.7   3.012   42.3  0.2100   38.1  0.2080  144.5
 5.800  0.3784  133.9   2.962   41.2  0.2132   37.3  0.2091  142.8
 5.900  0.3810  133.0   2.912   40.3  0.2160   36.6  0.2109  141.0
 6.000  0.3835  132.1   2.863   39.3  0.2191   35.8  0.2120  139.5
 6.100  0.3861  131.1   2.814   38.4  0.2219   35.0  0.2134  137.9
 6.200  0.3887  130.2   2.768   37.3  0.2247   34.2  0.2150  136.0
 6.300  0.3918  129.1   2.721   36.3  0.2271   33.3  0.2174  134.2
 6.400  0.3943  128.1   2.677   35.3  0.2299   32.6  0.2194  132.5
 6.500  0.3968  126.9   2.633   34.4  0.2325   31.8  0.2210  130.4
 6.600  0.3996  125.9   2.587   33.4  0.2348   31.0  0.2237  128.6
 6.700  0.4020  124.6   2.546   32.5  0.2374   30.3  0.2257  126.5
 6.800  0.4046  123.4   2.505   31.5  0.2399   29.5  0.2279  124.6
 6.900  0.4077  122.2   2.464   30.6  0.2423   28.8  0.2304  122.4
 7.000  0.4110  121.1   2.424   29.7  0.2447   28.0  0.2332  120.2
 7.100  0.4142  119.9   2.387   28.8  0.2471   27.3  0.2363  118.0
 7.200  0.4176  118.9   2.350   27.9  0.2495   26.6  0.2399  115.8
 7.300  0.4218  117.8   2.314   27.0  0.2519   25.8  0.2445  113.7
 7.400  0.4262  116.7   2.279   26.1  0.2544   25.1  0.2494  111.7
 7.500  0.4315  115.8   2.246   25.3  0.2568   24.4  0.2550  109.6
 7.600  0.4369  114.9   2.213   24.4  0.2592   23.6  0.2609  107.6
 7.700  0.4428  114.1   2.181   23.6  0.2615   22.9  0.2682  105.8
 7.800  0.4488  113.3   2.149   22.7  0.2638   22.1  0.2759  104.0
 7.900  0.4562  112.5   2.118   21.8  0.2660   21.3  0.2844  102.1
 8.000  0.4637  111.7   2.088   20.9  0.2682   20.4  0.2932  100.4
!
!  f       NFmin   Gammaopt  rn/50
! GHz       dB    MAG  ANG    -
 0.450      1.29  0.13 -172   0.16
 0.900      1.32  0.13 -172   0.13
 1.500      1.33  0.17 -151   0.11
 1.800      1.34  0.18 -151   0.12
 1.900      1.35  0.18 -150   0.12
 2.400      1.37  0.19  215   0.14
 3.500      1.43  0.19  219   0.18
 5.500      1.57  0.25  245   0.16
 6.000      1.61  0.26  261   0.18
!
! (c) 2014  Infineon Technologies AG, Munich
