! Infineon Technologies  Discrete & RF Semiconductors
! BFP650
! VCE =  2.5 V,  IC =  5.0 mA
! Common Emitter S-Parameters:                            Jan 2016
# GHz  S  MA  R  50
!  f         S11            S21            S12            S22
! GHz     MAG   ANG      MAG   ANG      MAG   ANG      MAG   ANG
 0.030  0.9351   -4.9  16.485  176.2  0.0064   91.4  0.9980   -3.3
 0.035  0.9328   -5.8  16.546  175.6  0.0067   87.8  0.9979   -3.8
 0.040  0.9308   -6.7  16.609  175.0  0.0070   84.5  0.9979   -4.4
 0.045  0.9279   -7.6  16.552  174.3  0.0058   82.8  0.9938   -5.0
 0.050  0.9253   -8.5  16.497  173.6  0.0046   80.1  0.9898   -5.6
 0.055  0.9277   -9.4  16.557  173.3  0.0079   85.2  0.9930   -6.1
 0.060  0.9304  -10.3  16.618  173.1  0.0112   87.3  0.9963   -6.5
 0.065  0.9291  -11.1  16.599  172.5  0.0113   80.5  0.9942   -7.0
 0.070  0.9280  -12.0  16.582  171.8  0.0116   73.9  0.9922   -7.6
 0.075  0.9299  -12.9  16.567  171.3  0.0127   80.1  0.9916   -8.1
 0.080  0.9320  -13.7  16.554  170.7  0.0139   85.2  0.9910   -8.6
 0.085  0.9317  -14.5  16.497  170.4  0.0152   84.9  0.9893   -9.2
 0.090  0.9316  -15.4  16.440  170.0  0.0166   84.6  0.9877   -9.8
 0.095  0.9291  -16.1  16.474  169.3  0.0167   81.3  0.9872  -10.3
 0.100  0.9267  -16.9  16.511  168.7  0.0168   78.0  0.9867  -10.9
 0.105  0.9265  -17.8  16.487  168.1  0.0176   78.6  0.9848  -11.5
 0.110  0.9265  -18.8  16.464  167.5  0.0185   79.2  0.9830  -12.1
 0.115  0.9255  -19.6  16.390  167.0  0.0196   80.0  0.9814  -12.6
 0.120  0.9247  -20.4  16.318  166.5  0.0208   80.7  0.9799  -13.1
 0.125  0.9229  -21.3  16.294  165.9  0.0220   80.0  0.9781  -13.6
 0.130  0.9213  -22.2  16.271  165.3  0.0233   79.4  0.9764  -14.2
 0.135  0.9216  -23.1  16.262  164.9  0.0227   79.3  0.9744  -14.7
 0.140  0.9222  -23.9  16.254  164.4  0.0221   79.2  0.9724  -15.2
 0.145  0.9212  -24.7  16.209  163.9  0.0232   77.7  0.9712  -15.7
 0.150  0.9204  -25.5  16.166  163.4  0.0243   76.4  0.9701  -16.2
 0.155  0.9187  -26.3  16.128  162.9  0.0249   75.8  0.9677  -16.7
 0.160  0.9172  -27.1  16.091  162.3  0.0256   75.3  0.9655  -17.2
 0.165  0.9159  -27.9  16.055  161.8  0.0262   74.7  0.9633  -17.7
 0.170  0.9147  -28.7  16.021  161.3  0.0268   74.3  0.9612  -18.3
 0.175  0.9138  -29.5  15.989  160.7  0.0275   73.8  0.9591  -18.8
 0.180  0.9130  -30.3  15.958  160.2  0.0281   73.3  0.9571  -19.3
 0.185  0.9124  -31.2  15.928  159.6  0.0288   72.9  0.9553  -19.8
 0.190  0.9120  -32.0  15.899  159.1  0.0294   72.5  0.9535  -20.3
 0.195  0.9117  -32.8  15.872  158.5  0.0301   72.1  0.9517  -20.9
 0.200  0.9117  -33.6  15.847  158.0  0.0307   71.7  0.9501  -21.4
 0.220  0.9060  -36.9  15.675  156.0  0.0342   70.3  0.9395  -23.4
 0.240  0.9032  -40.1  15.523  153.9  0.0377   69.1  0.9301  -25.5
 0.260  0.8987  -43.3  15.346  151.9  0.0408   67.6  0.9195  -27.4
 0.280  0.8923  -46.3  15.141  150.0  0.0435   65.9  0.9075  -29.3
 0.300  0.8884  -49.4  14.953  148.0  0.0463   64.3  0.8964  -31.2
 0.320  0.8821  -52.4  14.730  146.2  0.0486   62.7  0.8845  -33.0
 0.340  0.8783  -55.4  14.523  144.3  0.0508   61.2  0.8735  -34.9
 0.360  0.8733  -58.3  14.310  142.4  0.0530   59.8  0.8614  -36.7
 0.380  0.8667  -61.0  14.091  140.7  0.0550   58.4  0.8480  -38.4
 0.400  0.8622  -63.8  13.885  138.9  0.0570   57.2  0.8353  -40.1
 0.420  0.8552  -66.5  13.661  137.3  0.0592   55.8  0.8217  -41.7
 0.440  0.8502  -69.3  13.449  135.6  0.0615   54.5  0.8087  -43.3
 0.450  0.8485  -70.7  13.347  134.8  0.0626   53.9  0.8025  -44.1
 0.460  0.8447  -71.9  13.229  134.0  0.0635   53.2  0.7955  -44.9
 0.480  0.8382  -74.4  13.000  132.5  0.0653   51.7  0.7820  -46.5
 0.500  0.8333  -76.9  12.781  130.9  0.0671   50.4  0.7691  -48.1
 0.520  0.8256  -79.2  12.552  129.6  0.0685   49.1  0.7552  -49.4
 0.540  0.8193  -81.5  12.329  128.2  0.0700   47.9  0.7418  -50.8
 0.560  0.8143  -83.8  12.114  126.8  0.0715   46.7  0.7288  -52.2
 0.580  0.8107  -86.2  11.907  125.3  0.0730   45.6  0.7163  -53.7
 0.600  0.8085  -88.6  11.708  123.8  0.0746   44.5  0.7042  -55.2
 0.620  0.8016  -90.6  11.502  122.7  0.0756   43.6  0.6915  -56.4
 0.640  0.7957  -92.7  11.301  121.5  0.0767   42.7  0.6792  -57.6
 0.660  0.7909  -94.8  11.105  120.3  0.0778   41.8  0.6671  -58.8
 0.680  0.7871  -96.9  10.914  119.0  0.0789   40.9  0.6554  -60.1
 0.700  0.7844  -99.0  10.728  117.7  0.0800   40.1  0.6440  -61.5
 0.720  0.7789 -100.8  10.544  116.7  0.0808   39.3  0.6326  -62.6
 0.740  0.7742 -102.7  10.364  115.7  0.0817   38.6  0.6215  -63.7
 0.760  0.7703 -104.5  10.187  114.6  0.0825   37.8  0.6106  -64.8
 0.780  0.7672 -106.4  10.013  113.5  0.0834   37.1  0.6000  -66.0
 0.800  0.7650 -108.3   9.844  112.3  0.0843   36.4  0.5896  -67.2
 0.820  0.7604 -109.9   9.680  111.4  0.0850   35.6  0.5794  -68.1
 0.840  0.7564 -111.5   9.518  110.6  0.0857   34.8  0.5693  -69.1
 0.860  0.7530 -113.1   9.358  109.6  0.0864   34.0  0.5594  -70.1
 0.880  0.7502 -114.8   9.201  108.7  0.0871   33.2  0.5496  -71.1
 0.900  0.7480 -116.4   9.047  107.7  0.0879   32.4  0.5401  -72.2
 0.920  0.7447 -117.9   8.908  106.9  0.0885   31.9  0.5317  -73.1
 0.940  0.7420 -119.4   8.771  106.1  0.0891   31.3  0.5234  -74.0
 0.960  0.7397 -120.9   8.635  105.2  0.0897   30.8  0.5153  -74.9
 0.980  0.7379 -122.4   8.502  104.3  0.0903   30.3  0.5073  -75.8
 1.000  0.7367 -123.9   8.371  103.4  0.0909   29.8  0.4994  -76.8
 1.020  0.7337 -125.2   8.248  102.7  0.0914   29.2  0.4915  -77.7
 1.040  0.7311 -126.5   8.126  101.9  0.0919   28.6  0.4836  -78.6
 1.060  0.7289 -127.8   8.006  101.2  0.0924   28.0  0.4759  -79.5
 1.080  0.7271 -129.2   7.887  100.4  0.0930   27.5  0.4683  -80.4
 1.100  0.7257 -130.5   7.770   99.6  0.0935   26.9  0.4609  -81.4
 1.120  0.7239 -131.7   7.663   98.9  0.0938   26.4  0.4541  -82.2
 1.140  0.7225 -133.0   7.558   98.2  0.0942   25.8  0.4474  -82.9
 1.160  0.7214 -134.2   7.454   97.5  0.0945   25.3  0.4408  -83.7
 1.180  0.7207 -135.5   7.351   96.8  0.0948   24.8  0.4343  -84.6
 1.200  0.7203 -136.7   7.249   96.0  0.0952   24.3  0.4279  -85.4
 1.220  0.7185 -137.8   7.153   95.4  0.0954   23.9  0.4219  -86.1
 1.240  0.7169 -138.9   7.057   94.7  0.0957   23.5  0.4160  -86.9
 1.260  0.7156 -140.0   6.963   94.1  0.0959   23.0  0.4101  -87.7
 1.280  0.7146 -141.2   6.870   93.4  0.0961   22.6  0.4043  -88.5
 1.300  0.7138 -142.3   6.777   92.7  0.0964   22.2  0.3986  -89.3
 1.320  0.7124 -143.4   6.695   92.1  0.0966   21.8  0.3931  -90.0
 1.340  0.7112 -144.4   6.613   91.5  0.0969   21.4  0.3877  -90.8
 1.360  0.7102 -145.5   6.532   90.8  0.0971   21.1  0.3823  -91.5
 1.380  0.7096 -146.5   6.452   90.2  0.0974   20.7  0.3770  -92.3
 1.400  0.7091 -147.6   6.373   89.5  0.0976   20.3  0.3718  -93.1
 1.420  0.7083 -148.6   6.299   88.9  0.0978   20.0  0.3674  -93.8
 1.440  0.7077 -149.6   6.226   88.4  0.0981   19.7  0.3631  -94.5
 1.460  0.7073 -150.5   6.153   87.8  0.0983   19.4  0.3589  -95.3
 1.480  0.7071 -151.5   6.081   87.2  0.0986   19.1  0.3547  -96.0
 1.500  0.7071 -152.5   6.010   86.6  0.0988   18.8  0.3506  -96.8
 1.520  0.7063 -153.4   5.943   86.1  0.0991   18.5  0.3463  -97.4
 1.540  0.7057 -154.3   5.877   85.5  0.0993   18.2  0.3421  -98.1
 1.560  0.7053 -155.3   5.812   85.0  0.0996   17.8  0.3379  -98.8
 1.580  0.7051 -156.2   5.746   84.4  0.0998   17.5  0.3337  -99.5
 1.600  0.7050 -157.1   5.682   83.8  0.1001   17.2  0.3296 -100.2
 1.620  0.7041 -158.0   5.620   83.3  0.1002   16.9  0.3257 -100.8
 1.640  0.7033 -158.8   5.559   82.8  0.1003   16.6  0.3217 -101.5
 1.660  0.7027 -159.7   5.498   82.2  0.1004   16.4  0.3179 -102.2
 1.680  0.7022 -160.5   5.437   81.7  0.1005   16.1  0.3141 -102.9
 1.700  0.7019 -161.4   5.377   81.1  0.1006   15.8  0.3103 -103.6
 1.720  0.7015 -162.2   5.322   80.6  0.1007   15.6  0.3067 -104.3
 1.740  0.7012 -163.0   5.268   80.1  0.1009   15.3  0.3031 -105.0
 1.760  0.7010 -163.9   5.214   79.5  0.1010   15.1  0.2996 -105.8
 1.780  0.7011 -164.7   5.161   79.0  0.1012   14.8  0.2961 -106.5
 1.800  0.7012 -165.5   5.108   78.4  0.1013   14.6  0.2927 -107.3
 1.820  0.7008 -166.3   5.057   77.9  0.1014   14.4  0.2896 -107.9
 1.840  0.7004 -167.0   5.007   77.4  0.1014   14.1  0.2866 -108.5
 1.860  0.7002 -167.8   4.957   76.9  0.1015   13.9  0.2837 -109.2
 1.880  0.7002 -168.5   4.907   76.4  0.1015   13.6  0.2807 -109.8
 1.900  0.7002 -169.3   4.858   75.9  0.1016   13.4  0.2778 -110.5
 1.920  0.6998 -170.1   4.812   75.4  0.1017   13.2  0.2750 -111.2
 1.940  0.6994 -170.8   4.767   74.9  0.1018   13.0  0.2723 -111.8
 1.960  0.6992 -171.6   4.723   74.4  0.1018   12.9  0.2696 -112.5
 1.980  0.6992 -172.3   4.678   73.9  0.1019   12.7  0.2670 -113.2
 2.000  0.6992 -173.1   4.634   73.4  0.1020   12.5  0.2644 -113.9
 2.020  0.6989 -173.7   4.592   73.0  0.1022   12.3  0.2619 -114.5
 2.040  0.6987 -174.4   4.550   72.6  0.1023   12.1  0.2594 -115.2
 2.060  0.6986 -175.1   4.509   72.1  0.1025   11.9  0.2570 -115.8
 2.080  0.6985 -175.7   4.468   71.7  0.1027   11.7  0.2546 -116.5
 2.100  0.6986 -176.4   4.427   71.3  0.1029   11.4  0.2522 -117.2
 2.120  0.6987 -177.0   4.386   70.8  0.1031   11.2  0.2499 -117.9
 2.140  0.6990 -177.7   4.346   70.3  0.1032   11.0  0.2476 -118.6
 2.160  0.6993 -178.3   4.306   69.9  0.1034   10.8  0.2453 -119.3
 2.180  0.6997 -179.0   4.266   69.4  0.1036   10.6  0.2431 -120.1
 2.200  0.7002 -179.6   4.227   68.9  0.1038   10.4  0.2409 -120.8
 2.220  0.7000  179.8   4.192   68.5  0.1038   10.2  0.2388 -121.5
 2.240  0.6999  179.2   4.156   68.1  0.1039   10.0  0.2367 -122.1
 2.260  0.6998  178.6   4.122   67.6  0.1039    9.8  0.2347 -122.8
 2.280  0.6999  178.0   4.087   67.2  0.1039    9.6  0.2327 -123.5
 2.300  0.7000  177.3   4.052   66.7  0.1040    9.4  0.2307 -124.2
 2.320  0.7002  176.7   4.018   66.3  0.1040    9.3  0.2288 -125.0
 2.340  0.7005  176.1   3.984   65.8  0.1041    9.1  0.2269 -125.7
 2.360  0.7008  175.5   3.951   65.4  0.1041    8.9  0.2250 -126.5
 2.380  0.7013  174.9   3.917   64.9  0.1042    8.7  0.2232 -127.2
 2.400  0.7018  174.3   3.884   64.4  0.1042    8.5  0.2214 -128.0
 2.420  0.7018  173.7   3.854   64.0  0.1043    8.3  0.2198 -128.7
 2.440  0.7018  173.2   3.824   63.6  0.1043    8.2  0.2182 -129.4
 2.460  0.7019  172.6   3.795   63.2  0.1044    8.0  0.2166 -130.1
 2.480  0.7021  172.1   3.765   62.8  0.1045    7.8  0.2151 -130.8
 2.500  0.7024  171.5   3.736   62.4  0.1045    7.6  0.2136 -131.6
 2.520  0.7027  170.9   3.707   62.0  0.1046    7.5  0.2121 -132.3
 2.540  0.7031  170.4   3.678   61.5  0.1047    7.3  0.2107 -133.1
 2.560  0.7035  169.8   3.650   61.1  0.1048    7.1  0.2093 -133.8
 2.580  0.7040  169.3   3.621   60.7  0.1048    7.0  0.2079 -134.6
 2.600  0.7046  168.7   3.593   60.2  0.1049    6.8  0.2066 -135.4
 2.620  0.7046  168.2   3.567   59.8  0.1049    6.7  0.2052 -136.1
 2.640  0.7047  167.7   3.541   59.4  0.1049    6.5  0.2039 -136.9
 2.660  0.7049  167.1   3.515   59.0  0.1049    6.4  0.2026 -137.6
 2.680  0.7051  166.6   3.489   58.6  0.1049    6.3  0.2013 -138.4
 2.700  0.7053  166.1   3.464   58.2  0.1049    6.1  0.2000 -139.1
 2.720  0.7056  165.6   3.438   57.8  0.1050    6.0  0.1988 -139.9
 2.740  0.7060  165.1   3.413   57.4  0.1050    5.9  0.1977 -140.7
 2.760  0.7065  164.5   3.388   57.0  0.1050    5.8  0.1965 -141.5
 2.780  0.7069  164.0   3.364   56.5  0.1050    5.6  0.1955 -142.3
 2.800  0.7075  163.5   3.339   56.1  0.1050    5.5  0.1944 -143.1
 2.820  0.7076  163.0   3.316   55.7  0.1051    5.4  0.1936 -143.8
 2.840  0.7077  162.5   3.294   55.4  0.1052    5.2  0.1928 -144.6
 2.860  0.7079  162.0   3.271   55.0  0.1054    5.1  0.1920 -145.4
 2.880  0.7082  161.5   3.249   54.6  0.1055    4.9  0.1913 -146.1
 2.900  0.7085  161.0   3.227   54.2  0.1056    4.8  0.1906 -146.9
 2.920  0.7089  160.6   3.205   53.8  0.1057    4.7  0.1900 -147.7
 2.940  0.7093  160.1   3.183   53.4  0.1058    4.5  0.1893 -148.4
 2.960  0.7097  159.6   3.161   53.0  0.1060    4.4  0.1888 -149.2
 2.980  0.7102  159.1   3.139   52.6  0.1061    4.2  0.1882 -150.0
 3.000  0.7108  158.6   3.118   52.2  0.1062    4.1  0.1877 -150.8
 3.100  0.7110  156.3   3.021   50.5  0.1064    3.6  0.1852 -154.6
 3.200  0.7124  154.0   2.927   48.8  0.1065    3.0  0.1836 -158.4
 3.300  0.7150  151.7   2.835   46.9  0.1067    2.5  0.1828 -162.4
 3.400  0.7186  149.4   2.747   44.8  0.1069    1.9  0.1829 -166.3
 3.500  0.7234  147.2   2.663   42.7  0.1071    1.4  0.1838 -170.2
 3.600  0.7251  145.2   2.587   41.1  0.1073    0.8  0.1849 -173.8
 3.700  0.7278  143.1   2.513   39.4  0.1075    0.3  0.1867 -177.3
 3.800  0.7314  141.1   2.442   37.6  0.1078   -0.3  0.1893  179.2
 3.900  0.7358  139.2   2.373   35.6  0.1080   -0.8  0.1925  175.8
 4.000  0.7411  137.2   2.307   33.6  0.1083   -1.4  0.1963  172.6
 4.100  0.7431  135.5   2.246   32.1  0.1084   -1.7  0.1994  170.0
 4.200  0.7457  133.9   2.186   30.5  0.1084   -1.9  0.2029  167.5
 4.300  0.7489  132.2   2.128   28.8  0.1085   -2.2  0.2068  165.1
 4.400  0.7528  130.6   2.072   27.1  0.1085   -2.4  0.2110  162.7
 4.500  0.7572  129.0   2.018   25.2  0.1086   -2.7  0.2156  160.5
 4.600  0.7585  127.6   1.970   23.8  0.1090   -3.0  0.2187  158.6
 4.700  0.7603  126.2   1.923   22.3  0.1095   -3.4  0.2221  156.7
 4.800  0.7625  124.8   1.877   20.8  0.1099   -3.7  0.2256  154.9
 4.900  0.7652  123.5   1.833   19.2  0.1104   -4.1  0.2294  153.2
 5.000  0.7683  122.1   1.790   17.5  0.1108   -4.4  0.2334  151.5
 5.100  0.7686  120.8   1.751   16.1  0.1113   -4.6  0.2359  149.8
 5.200  0.7692  119.6   1.713   14.7  0.1118   -4.8  0.2386  148.1
 5.300  0.7702  118.3   1.676   13.3  0.1122   -5.0  0.2416  146.4
 5.400  0.7716  117.1   1.640   11.7  0.1127   -5.2  0.2447  144.8
 5.500  0.7733  115.8   1.606   10.1  0.1132   -5.4  0.2480  143.2
 5.600  0.7736  114.7   1.575    8.8  0.1140   -5.7  0.2514  141.5
 5.700  0.7741  113.7   1.544    7.5  0.1148   -6.0  0.2550  139.8
 5.800  0.7749  112.6   1.515    6.1  0.1155   -6.3  0.2589  138.1
 5.900  0.7760  111.6   1.486    4.7  0.1163   -6.5  0.2629  136.5
 6.000  0.7773  110.5   1.458    3.2  0.1171   -6.8  0.2672  135.0
 6.100  0.7795  109.4   1.435    1.9  0.1183   -7.2  0.2722  133.6
 6.200  0.7820  108.4   1.412    0.5  0.1196   -7.6  0.2773  132.2
 6.300  0.7847  107.4   1.390   -0.9  0.1208   -8.0  0.2826  130.8
 6.400  0.7877  106.3   1.369   -2.4  0.1220   -8.4  0.2880  129.5
 6.500  0.7910  105.3   1.349   -3.9  0.1233   -8.8  0.2936  128.3
 6.600  0.7930  104.1   1.327   -5.3  0.1242   -9.3  0.2986  127.1
 6.800  0.7981  101.8   1.287   -8.3  0.1260  -10.4  0.3089  124.8
 7.000  0.8044   99.5   1.250  -11.4  0.1279  -11.4  0.3196  122.7
 7.200  0.8082   96.9   1.208  -14.4  0.1294  -12.7  0.3288  120.0
 7.400  0.8137   94.3   1.170  -17.6  0.1310  -14.0  0.3386  117.4
 7.600  0.8185   91.6   1.131  -20.7  0.1325  -15.3  0.3491  114.5
 7.800  0.8227   88.8   1.091  -23.6  0.1341  -16.5  0.3606  111.2
 8.000  0.8288   86.1   1.054  -26.8  0.1357  -17.8  0.3733  108.1
 8.200  0.8328   83.4   1.014  -29.5  0.1367  -19.2  0.3873  104.8
 8.400  0.8387   80.6   0.977  -32.4  0.1377  -20.6  0.4026  101.7
 8.600  0.8442   78.0   0.940  -35.2  0.1386  -21.9  0.4189   98.6
 8.800  0.8491   75.6   0.903  -37.7  0.1393  -23.2  0.4363   95.6
 9.000  0.8556   73.1   0.868  -40.4  0.1400  -24.4  0.4549   92.8
 9.200  0.8619   71.2   0.833  -42.5  0.1402  -25.7  0.4747   90.1
 9.400  0.8692   69.3   0.800  -44.9  0.1404  -27.0  0.4955   87.6
 9.600  0.8766   67.7   0.770  -46.9  0.1405  -28.0  0.5156   85.7
 9.800  0.8837   66.5   0.741  -48.7  0.1405  -28.7  0.5346   84.4
10.000  0.8912   65.2   0.714  -50.6  0.1404  -29.5  0.5538   83.2
!
!  f       NFmin   Gammaopt  rn/50
! GHz       dB    MAG  ANG    -
 0.450      0.58  0.30   34   0.16
 0.900      0.60  0.29   65   0.15
 1.900      0.87  0.34  137   0.07
 2.400      1.01  0.35  156   0.07
 3.500      1.44  0.30 -144   0.31
!
! (c) 2016  Infineon Technologies AG, Munich
