! Infineon Technologies  Discrete & RF Semiconductors
! BFP650
! VCE =  1.0 V,  IC =  55 mA
! Common Emitter S-Parameters:                            Jan 2016
# GHz  S  MA  R  50
!  f         S11            S21            S12            S22
! GHz     MAG   ANG      MAG   ANG      MAG   ANG      MAG   ANG
 0.030  0.4138  -38.5  98.207  165.8  0.0042   45.7  0.9367  -19.3
 0.035  0.4134  -43.6  97.494  163.4  0.0047   64.0  0.9285  -22.5
 0.040  0.4163  -48.6  96.953  161.0  0.0055   77.9  0.9231  -25.7
 0.045  0.4205  -53.4  95.258  158.7  0.0061   84.8  0.9134  -28.4
 0.050  0.4275  -58.1  93.716  156.4  0.0068   90.4  0.9058  -31.1
 0.055  0.4343  -62.3  92.793  154.5  0.0066   87.5  0.8964  -34.2
 0.060  0.4433  -66.4  91.972  152.6  0.0064   84.4  0.8897  -37.3
 0.065  0.4458  -71.7  90.241  150.6  0.0073   63.3  0.8666  -40.8
 0.070  0.4520  -76.8  88.626  148.5  0.0089   48.3  0.8468  -44.4
 0.075  0.4633  -79.9  87.087  146.7  0.0093   56.5  0.8423  -46.8
 0.080  0.4760  -82.9  85.639  144.8  0.0098   63.9  0.8392  -49.2
 0.085  0.4854  -86.5  83.910  143.3  0.0114   64.2  0.8237  -52.0
 0.090  0.4967  -89.9  82.242  141.7  0.0130   64.4  0.8104  -55.0
 0.095  0.4987  -92.9  80.663  140.0  0.0128   60.7  0.7990  -57.1
 0.100  0.5020  -95.9  79.159  138.2  0.0126   56.8  0.7887  -59.2
 0.105  0.5119  -98.5  77.494  136.8  0.0123   61.6  0.7832  -61.8
 0.110  0.5229 -101.0  75.878  135.3  0.0121   66.5  0.7794  -64.5
 0.115  0.5247 -103.4  74.152  134.0  0.0121   63.0  0.7642  -66.6
 0.120  0.5274 -105.7  72.468  132.6  0.0121   59.5  0.7501  -68.7
 0.125  0.5325 -108.1  70.984  131.3  0.0130   60.3  0.7372  -70.9
 0.130  0.5385 -110.5  69.537  130.0  0.0139   61.0  0.7255  -73.2
 0.135  0.5412 -112.4  68.176  128.9  0.0144   59.1  0.7147  -74.8
 0.140  0.5444 -114.3  66.841  127.8  0.0149   57.3  0.7044  -76.4
 0.145  0.5476 -116.0  65.469  126.8  0.0153   56.2  0.6953  -78.2
 0.150  0.5513 -117.7  64.118  125.7  0.0158   55.2  0.6870  -80.1
 0.155  0.5525 -119.2  62.924  125.0  0.0160   54.6  0.6777  -81.5
 0.160  0.5541 -120.6  61.741  124.2  0.0162   54.1  0.6688  -83.0
 0.165  0.5560 -122.1  60.570  123.4  0.0164   53.5  0.6604  -84.5
 0.170  0.5583 -123.5  59.410  122.5  0.0166   53.0  0.6525  -86.1
 0.175  0.5610 -125.0  58.264  121.7  0.0168   52.4  0.6450  -87.7
 0.180  0.5640 -126.4  57.132  120.8  0.0170   51.9  0.6381  -89.3
 0.185  0.5673 -127.8  56.015  119.8  0.0172   51.4  0.6317  -91.0
 0.190  0.5710 -129.2  54.913  118.9  0.0174   50.9  0.6259  -92.7
 0.195  0.5750 -130.6  53.828  117.9  0.0176   50.5  0.6206  -94.4
 0.200  0.5793 -131.9  52.760  116.8  0.0178   50.0  0.6159  -96.2
 0.220  0.5845 -135.9  49.276  114.5  0.0183   50.6  0.5926 -100.9
 0.240  0.5926 -139.8  45.882  111.9  0.0188   51.2  0.5736 -105.9
 0.260  0.5988 -143.2  42.919  109.6  0.0194   51.1  0.5573 -110.4
 0.280  0.6025 -146.0  40.334  107.8  0.0200   50.3  0.5421 -114.2
 0.300  0.6076 -148.9  37.792  105.8  0.0206   49.6  0.5295 -118.3
 0.320  0.6105 -151.1  35.776  104.4  0.0208   48.7  0.5195 -121.5
 0.340  0.6143 -153.2  33.783  102.9  0.0210   47.9  0.5111 -124.7
 0.360  0.6170 -155.2  32.025  101.5  0.0214   48.0  0.5033 -127.7
 0.380  0.6186 -156.9  30.492  100.3  0.0219   49.0  0.4956 -130.4
 0.400  0.6207 -158.7  28.974   99.0  0.0224   50.0  0.4889 -133.1
 0.420  0.6223 -160.2  27.736   98.0  0.0234   50.2  0.4831 -135.4
 0.440  0.6244 -161.7  26.507   97.0  0.0243   50.3  0.4782 -137.7
 0.450  0.6256 -162.4  25.896   96.4  0.0248   50.4  0.4760 -138.9
 0.460  0.6261 -163.0  25.389   96.0  0.0250   50.4  0.4743 -139.9
 0.480  0.6273 -164.3  24.380   95.1  0.0253   50.3  0.4713 -141.9
 0.500  0.6288 -165.6  23.376   94.2  0.0257   50.2  0.4689 -143.9
 0.520  0.6295 -166.6  22.596   93.6  0.0262   50.7  0.4657 -145.5
 0.540  0.6304 -167.6  21.818   92.9  0.0267   51.3  0.4628 -147.2
 0.560  0.6315 -168.6  21.044   92.2  0.0272   51.8  0.4603 -148.8
 0.580  0.6327 -169.6  20.273   91.4  0.0277   52.2  0.4582 -150.5
 0.600  0.6342 -170.6  19.506   90.6  0.0282   52.7  0.4565 -152.2
 0.620  0.6346 -171.4  18.943   90.1  0.0288   52.9  0.4548 -153.5
 0.640  0.6351 -172.3  18.382   89.5  0.0294   53.0  0.4534 -154.8
 0.660  0.6357 -173.1  17.823   88.9  0.0301   53.1  0.4521 -156.1
 0.680  0.6365 -174.0  17.266   88.3  0.0307   53.3  0.4512 -157.4
 0.700  0.6374 -174.8  16.711   87.6  0.0313   53.4  0.4504 -158.7
 0.720  0.6381 -175.5  16.291   87.1  0.0320   53.5  0.4495 -159.8
 0.740  0.6388 -176.2  15.873   86.6  0.0327   53.6  0.4488 -160.9
 0.760  0.6397 -176.9  15.455   86.1  0.0334   53.7  0.4483 -161.9
 0.780  0.6406 -177.6  15.040   85.6  0.0341   53.8  0.4479 -163.0
 0.800  0.6417 -178.3  14.625   85.0  0.0348   53.9  0.4477 -164.1
 0.820  0.6422 -178.9  14.294   84.6  0.0354   53.8  0.4471 -165.0
 0.840  0.6428 -179.5  13.964   84.2  0.0360   53.8  0.4465 -166.0
 0.860  0.6434  179.9  13.635   83.8  0.0365   53.7  0.4461 -166.9
 0.880  0.6441  179.3  13.307   83.4  0.0371   53.7  0.4459 -167.9
 0.900  0.6449  178.7  12.979   82.9  0.0377   53.6  0.4457 -168.8
 0.920  0.6455  178.2  12.717   82.5  0.0383   53.6  0.4456 -169.6
 0.940  0.6461  177.6  12.456   82.1  0.0388   53.6  0.4456 -170.4
 0.960  0.6468  177.1  12.195   81.6  0.0394   53.6  0.4456 -171.2
 0.980  0.6476  176.5  11.935   81.2  0.0399   53.6  0.4458 -172.0
 1.000  0.6484  176.0  11.676   80.7  0.0405   53.6  0.4460 -172.8
 1.020  0.6486  175.5  11.461   80.3  0.0412   53.7  0.4460 -173.5
 1.040  0.6489  175.0  11.246   79.9  0.0419   53.8  0.4460 -174.3
 1.060  0.6492  174.5  11.032   79.5  0.0426   53.8  0.4461 -175.0
 1.080  0.6496  174.0  10.819   79.1  0.0433   53.9  0.4463 -175.8
 1.100  0.6500  173.5  10.606   78.7  0.0440   54.0  0.4465 -176.5
 1.120  0.6508  173.0  10.429   78.3  0.0445   53.9  0.4465 -177.1
 1.140  0.6516  172.5  10.252   77.9  0.0450   53.9  0.4467 -177.8
 1.160  0.6524  172.1  10.076   77.5  0.0455   53.8  0.4468 -178.4
 1.180  0.6533  171.6   9.900   77.1  0.0460   53.8  0.4470 -179.1
 1.200  0.6543  171.1   9.725   76.7  0.0465   53.7  0.4473 -179.7
 1.220  0.6546  170.7   9.572   76.4  0.0472   53.7  0.4474  179.7
 1.240  0.6549  170.2   9.420   76.0  0.0479   53.7  0.4476  179.1
 1.260  0.6553  169.8   9.267   75.7  0.0486   53.8  0.4478  178.5
 1.280  0.6557  169.3   9.115   75.3  0.0493   53.8  0.4481  177.9
 1.300  0.6561  168.9   8.964   74.9  0.0500   53.8  0.4484  177.3
 1.320  0.6567  168.5   8.836   74.6  0.0506   53.8  0.4489  176.7
 1.340  0.6574  168.0   8.709   74.2  0.0512   53.8  0.4494  176.2
 1.360  0.6581  167.6   8.582   73.9  0.0517   53.7  0.4500  175.6
 1.380  0.6588  167.1   8.455   73.5  0.0523   53.7  0.4506  175.1
 1.400  0.6596  166.7   8.329   73.1  0.0529   53.7  0.4512  174.5
 1.420  0.6602  166.3   8.217   72.7  0.0535   53.3  0.4515  174.0
 1.440  0.6609  165.9   8.104   72.4  0.0541   53.0  0.4519  173.5
 1.460  0.6615  165.4   7.993   72.0  0.0547   52.7  0.4522  173.1
 1.480  0.6622  165.0   7.881   71.6  0.0553   52.3  0.4527  172.6
 1.500  0.6630  164.6   7.770   71.2  0.0559   52.0  0.4531  172.1
 1.520  0.6634  164.2   7.671   70.9  0.0565   52.0  0.4533  171.6
 1.540  0.6639  163.8   7.572   70.5  0.0571   52.1  0.4536  171.1
 1.560  0.6644  163.5   7.473   70.2  0.0577   52.1  0.4539  170.5
 1.580  0.6649  163.1   7.374   69.9  0.0583   52.2  0.4543  170.0
 1.600  0.6655  162.7   7.276   69.5  0.0589   52.2  0.4547  169.5
 1.620  0.6659  162.3   7.188   69.2  0.0596   52.1  0.4552  169.0
 1.640  0.6663  161.9   7.100   68.9  0.0602   51.9  0.4558  168.6
 1.660  0.6667  161.5   7.013   68.6  0.0609   51.8  0.4564  168.1
 1.680  0.6672  161.1   6.925   68.2  0.0615   51.6  0.4570  167.7
 1.700  0.6677  160.7   6.838   67.9  0.0622   51.5  0.4577  167.2
 1.720  0.6682  160.3   6.760   67.6  0.0627   51.3  0.4581  166.7
 1.740  0.6687  159.9   6.682   67.2  0.0631   51.1  0.4585  166.3
 1.760  0.6693  159.5   6.604   66.8  0.0636   50.8  0.4590  165.8
 1.780  0.6699  159.1   6.527   66.5  0.0640   50.6  0.4595  165.4
 1.800  0.6705  158.7   6.450   66.1  0.0645   50.4  0.4600  164.9
 1.820  0.6707  158.3   6.377   65.8  0.0652   50.2  0.4602  164.5
 1.840  0.6709  158.0   6.305   65.4  0.0659   50.1  0.4604  164.1
 1.860  0.6712  157.6   6.233   65.1  0.0665   49.9  0.4607  163.6
 1.880  0.6715  157.3   6.161   64.8  0.0672   49.8  0.4610  163.2
 1.900  0.6718  156.9   6.089   64.4  0.0679   49.6  0.4613  162.8
 1.920  0.6723  156.5   6.026   64.1  0.0684   49.5  0.4616  162.4
 1.940  0.6729  156.1   5.963   63.7  0.0689   49.4  0.4619  162.0
 1.960  0.6735  155.8   5.901   63.4  0.0694   49.2  0.4622  161.5
 1.980  0.6741  155.4   5.838   63.1  0.0699   49.1  0.4626  161.1
 2.000  0.6748  155.0   5.776   62.7  0.0704   49.0  0.4630  160.7
 2.020  0.6754  154.7   5.721   62.4  0.0710   48.8  0.4635  160.3
 2.040  0.6760  154.3   5.667   62.2  0.0716   48.6  0.4641  159.9
 2.060  0.6766  154.0   5.613   61.9  0.0722   48.4  0.4647  159.5
 2.080  0.6772  153.7   5.558   61.6  0.0727   48.2  0.4652  159.1
 2.100  0.6779  153.3   5.504   61.3  0.0733   48.0  0.4659  158.7
 2.120  0.6786  153.0   5.450   61.0  0.0739   47.8  0.4665  158.3
 2.140  0.6793  152.7   5.396   60.7  0.0745   47.6  0.4672  157.9
 2.160  0.6801  152.4   5.343   60.4  0.0751   47.4  0.4679  157.5
 2.180  0.6808  152.0   5.289   60.1  0.0757   47.2  0.4686  157.1
 2.200  0.6816  151.7   5.236   59.8  0.0763   47.0  0.4693  156.7
 2.220  0.6818  151.4   5.190   59.5  0.0769   46.8  0.4697  156.3
 2.240  0.6821  151.0   5.144   59.2  0.0774   46.6  0.4702  155.9
 2.260  0.6824  150.7   5.097   58.9  0.0780   46.5  0.4706  155.5
 2.280  0.6827  150.3   5.052   58.6  0.0786   46.3  0.4711  155.1
 2.300  0.6830  150.0   5.006   58.2  0.0791   46.1  0.4717  154.7
 2.320  0.6834  149.7   4.960   57.9  0.0797   46.0  0.4722  154.3
 2.340  0.6838  149.3   4.915   57.6  0.0803   45.8  0.4728  153.9
 2.360  0.6842  149.0   4.870   57.2  0.0809   45.6  0.4734  153.5
 2.380  0.6846  148.6   4.825   56.9  0.0814   45.5  0.4740  153.1
 2.400  0.6851  148.3   4.780   56.5  0.0820   45.3  0.4746  152.7
 2.420  0.6856  148.0   4.741   56.2  0.0826   45.1  0.4752  152.3
 2.440  0.6861  147.7   4.701   55.9  0.0831   44.8  0.4759  152.0
 2.460  0.6866  147.3   4.662   55.6  0.0837   44.6  0.4766  151.6
 2.480  0.6872  147.0   4.623   55.3  0.0843   44.4  0.4773  151.2
 2.500  0.6877  146.7   4.584   55.0  0.0848   44.2  0.4780  150.9
 2.520  0.6883  146.4   4.545   54.6  0.0854   43.9  0.4787  150.5
 2.540  0.6889  146.1   4.507   54.3  0.0860   43.7  0.4794  150.2
 2.560  0.6896  145.7   4.468   54.0  0.0866   43.5  0.4802  149.8
 2.580  0.6902  145.4   4.430   53.6  0.0871   43.3  0.4810  149.5
 2.600  0.6909  145.1   4.392   53.3  0.0877   43.1  0.4818  149.1
 2.620  0.6914  144.8   4.358   53.0  0.0882   42.9  0.4824  148.7
 2.640  0.6918  144.5   4.324   52.7  0.0886   42.7  0.4829  148.4
 2.660  0.6924  144.1   4.291   52.4  0.0891   42.5  0.4835  148.0
 2.680  0.6929  143.8   4.257   52.1  0.0896   42.4  0.4841  147.6
 2.700  0.6934  143.5   4.223   51.8  0.0900   42.2  0.4848  147.3
 2.720  0.6940  143.2   4.190   51.5  0.0905   42.0  0.4854  146.9
 2.740  0.6946  142.9   4.157   51.2  0.0910   41.8  0.4861  146.6
 2.760  0.6952  142.5   4.124   50.9  0.0915   41.6  0.4868  146.2
 2.780  0.6958  142.2   4.091   50.5  0.0919   41.5  0.4875  145.9
 2.800  0.6965  141.9   4.058   50.2  0.0924   41.3  0.4882  145.5
 2.820  0.6969  141.6   4.029   49.9  0.0930   41.1  0.4889  145.2
 2.840  0.6974  141.3   4.000   49.6  0.0936   40.8  0.4895  144.8
 2.860  0.6979  141.0   3.972   49.3  0.0942   40.6  0.4902  144.5
 2.880  0.6984  140.7   3.943   49.1  0.0948   40.3  0.4910  144.2
 2.900  0.6989  140.3   3.915   48.8  0.0954   40.1  0.4917  143.8
 2.920  0.6995  140.0   3.886   48.5  0.0960   39.9  0.4924  143.5
 2.940  0.7001  139.7   3.858   48.1  0.0967   39.7  0.4932  143.2
 2.960  0.7007  139.4   3.830   47.8  0.0973   39.4  0.4940  142.9
 2.980  0.7013  139.1   3.802   47.5  0.0979   39.2  0.4948  142.5
 3.000  0.7019  138.8   3.774   47.2  0.0985   39.0  0.4956  142.2
 3.100  0.7043  137.3   3.651   45.9  0.1007   37.8  0.4993  140.6
 3.200  0.7071  135.7   3.531   44.5  0.1029   36.6  0.5033  139.1
 3.300  0.7105  134.2   3.413   43.0  0.1051   35.4  0.5077  137.6
 3.400  0.7143  132.7   3.297   41.3  0.1074   34.3  0.5124  136.1
 3.500  0.7187  131.2   3.184   39.6  0.1097   33.3  0.5175  134.7
 3.600  0.7220  129.7   3.089   38.3  0.1117   32.1  0.5221  133.3
 3.700  0.7258  128.3   2.996   36.9  0.1138   30.9  0.5270  131.9
 3.800  0.7301  126.8   2.904   35.5  0.1159   29.8  0.5323  130.5
 3.900  0.7348  125.4   2.814   33.9  0.1180   28.7  0.5378  129.2
 4.000  0.7400  124.0   2.727   32.3  0.1202   27.7  0.5436  127.9
 4.100  0.7431  122.8   2.652   31.1  0.1219   26.7  0.5478  126.7
 4.200  0.7466  121.5   2.579   29.8  0.1236   25.7  0.5523  125.6
 4.300  0.7504  120.3   2.506   28.5  0.1253   24.7  0.5570  124.4
 4.400  0.7546  119.1   2.435   27.1  0.1271   23.8  0.5619  123.3
 4.500  0.7591  117.9   2.366   25.6  0.1289   22.9  0.5670  122.2
 4.600  0.7610  116.8   2.309   24.5  0.1306   21.9  0.5697  121.1
 4.700  0.7631  115.7   2.252   23.4  0.1324   21.0  0.5727  120.0
 4.800  0.7655  114.6   2.196   22.2  0.1342   20.1  0.5758  118.9
 4.900  0.7682  113.6   2.142   20.9  0.1360   19.2  0.5792  117.8
 5.000  0.7712  112.5   2.088   19.6  0.1379   18.3  0.5828  116.7
 5.100  0.7717  111.5   2.043   18.5  0.1396   17.3  0.5845  115.5
 5.200  0.7724  110.5   1.999   17.4  0.1413   16.4  0.5865  114.3
 5.300  0.7734  109.4   1.955   16.2  0.1430   15.5  0.5887  113.1
 5.400  0.7746  108.4   1.913   14.9  0.1448   14.6  0.5912  112.0
 5.500  0.7761  107.4   1.871   13.6  0.1466   13.7  0.5939  110.8
 5.600  0.7764  106.5   1.835   12.5  0.1484   12.7  0.5959  109.6
 5.700  0.7768  105.6   1.799   11.4  0.1502   11.7  0.5982  108.4
 5.800  0.7774  104.8   1.764   10.2  0.1520   10.7  0.6007  107.2
 5.900  0.7782  103.9   1.730    9.0  0.1540    9.7  0.6035  106.1
 6.000  0.7792  103.0   1.697    7.7  0.1559    8.8  0.6065  104.9
 6.100  0.7813  102.1   1.669    6.6  0.1575    7.7  0.6091  103.8
 6.200  0.7836  101.2   1.642    5.4  0.1591    6.7  0.6118  102.8
 6.300  0.7861  100.3   1.616    4.2  0.1608    5.7  0.6148  101.7
 6.400  0.7888   99.5   1.591    2.9  0.1625    4.7  0.6179  100.7
 6.500  0.7916   98.6   1.566    1.6  0.1643    3.7  0.6213   99.7
 6.600  0.7937   97.5   1.540    0.4  0.1657    2.5  0.6238   98.8
 6.800  0.7987   95.5   1.492   -2.2  0.1687    0.2  0.6292   97.0
 7.000  0.8048   93.4   1.446   -5.0  0.1720   -2.0  0.6352   95.3
 7.200  0.8086   91.0   1.396   -7.6  0.1736   -4.4  0.6407   93.2
 7.400  0.8137   88.7   1.348  -10.3  0.1755   -6.7  0.6471   91.1
 7.600  0.8184   86.2   1.301  -13.0  0.1769   -9.0  0.6537   88.8
 7.800  0.8228   83.7   1.253  -15.6  0.1779  -11.2  0.6609   86.3
 8.000  0.8288   81.2   1.208  -18.3  0.1791  -13.4  0.6693   83.8
 8.200  0.8329   78.7   1.161  -20.6  0.1791  -15.4  0.6774   81.4
 8.400  0.8386   76.1   1.117  -23.0  0.1794  -17.5  0.6867   79.0
 8.600  0.8441   73.7   1.074  -25.3  0.1793  -19.5  0.6963   76.6
 8.800  0.8491   71.5   1.033  -27.4  0.1789  -21.4  0.7063   74.3
 9.000  0.8555   69.2   0.993  -29.6  0.1787  -23.4  0.7173   72.1
 9.200  0.8617   67.5   0.954  -31.3  0.1775  -24.9  0.7274   70.1
 9.400  0.8686   65.7   0.916  -33.1  0.1764  -26.4  0.7384   68.1
 9.600  0.8758   64.3   0.882  -34.7  0.1754  -27.7  0.7482   66.6
 9.800  0.8830   63.1   0.851  -35.9  0.1743  -28.6  0.7564   65.6
10.000  0.8905   62.0   0.821  -37.2  0.1733  -29.6  0.7649   64.6
!
!  f       NFmin   Gammaopt  rn/50
! GHz       dB    MAG  ANG    -
 0.450      1.01  0.41 -172   0.07
 0.900      1.03  0.43 -166   0.06
 1.900      1.18  0.47 -153   0.07
 2.400      1.26  0.45 -143   0.09
 3.500      1.48  0.47 -120   0.14
!
! (c) 2016  Infineon Technologies AG, Munich
