! Infineon Technologies  Discrete & RF Semiconductors
! BFP640ESD
! VCE =  2.5 V,  IC =  5.0 mA
! Common Emitter S-Parameters:                            Jan 2016
# GHz  S  MA  R  50
!  f         S11            S21            S12            S22
! GHz     MAG   ANG      MAG   ANG      MAG   ANG      MAG   ANG
 0.010  0.9291   -1.1  15.671 -180.0  0.0004  -91.0  0.9891    0.8
 0.015  0.9272   -1.2  15.630  179.7  0.0004   76.0  0.9939    0.1
 0.020  0.9253   -1.4  15.589  179.4  0.0011   80.7  0.9988   -0.6
 0.025  0.9256   -1.8  15.584  179.0  0.0013   82.1  0.9985   -0.8
 0.030  0.9260   -2.1  15.580  178.5  0.0016   83.1  0.9982   -1.1
 0.035  0.9264   -2.5  15.577  178.1  0.0018   83.8  0.9979   -1.3
 0.040  0.9268   -2.9  15.575  177.7  0.0020   84.4  0.9977   -1.6
 0.045  0.9273   -3.2  15.574  177.2  0.0023   84.8  0.9974   -1.8
 0.050  0.9278   -3.6  15.574  176.8  0.0025   85.2  0.9972   -2.1
 0.055  0.9274   -3.9  15.581  176.6  0.0028   85.1  0.9970   -2.3
 0.060  0.9270   -4.2  15.587  176.3  0.0030   85.0  0.9968   -2.5
 0.065  0.9267   -4.5  15.594  176.1  0.0033   84.9  0.9966   -2.7
 0.070  0.9264   -4.8  15.602  175.9  0.0036   84.9  0.9965   -2.9
 0.075  0.9261   -5.1  15.609  175.6  0.0038   84.8  0.9963   -3.1
 0.080  0.9259   -5.5  15.617  175.4  0.0041   84.7  0.9962   -3.3
 0.085  0.9256   -5.8  15.625  175.2  0.0044   84.7  0.9960   -3.5
 0.090  0.9254   -6.1  15.634  175.0  0.0047   84.7  0.9959   -3.7
 0.095  0.9252   -6.4  15.642  174.7  0.0049   84.6  0.9958   -3.9
 0.100  0.9251   -6.7  15.651  174.5  0.0052   84.6  0.9957   -4.1
 0.105  0.9247   -7.0  15.646  174.2  0.0054   84.5  0.9953   -4.3
 0.110  0.9243   -7.4  15.642  173.9  0.0057   84.5  0.9950   -4.5
 0.115  0.9240   -7.7  15.638  173.6  0.0059   84.4  0.9946   -4.7
 0.120  0.9237   -8.1  15.635  173.3  0.0062   84.4  0.9943   -4.9
 0.125  0.9235   -8.4  15.632  173.0  0.0064   84.3  0.9939   -5.1
 0.130  0.9232   -8.8  15.630  172.7  0.0067   84.3  0.9936   -5.4
 0.135  0.9231   -9.1  15.628  172.4  0.0069   84.2  0.9933   -5.6
 0.140  0.9229   -9.5  15.626  172.1  0.0072   84.2  0.9930   -5.8
 0.145  0.9228   -9.8  15.625  171.8  0.0074   84.1  0.9928   -6.0
 0.150  0.9227  -10.2  15.624  171.5  0.0077   84.1  0.9925   -6.2
 0.155  0.9220  -10.5  15.618  171.2  0.0079   83.8  0.9920   -6.4
 0.160  0.9213  -10.9  15.612  170.9  0.0082   83.6  0.9915   -6.6
 0.165  0.9207  -11.2  15.607  170.7  0.0084   83.4  0.9910   -6.8
 0.170  0.9201  -11.5  15.602  170.4  0.0087   83.2  0.9905   -7.0
 0.175  0.9195  -11.8  15.597  170.1  0.0089   83.0  0.9901   -7.2
 0.180  0.9190  -12.2  15.593  169.8  0.0092   82.8  0.9896   -7.5
 0.185  0.9185  -12.5  15.589  169.5  0.0094   82.6  0.9892   -7.7
 0.190  0.9180  -12.8  15.586  169.3  0.0097   82.4  0.9888   -7.9
 0.195  0.9175  -13.2  15.583  169.0  0.0099   82.3  0.9884   -8.1
 0.200  0.9171  -13.5  15.580  168.7  0.0102   82.1  0.9880   -8.3
 0.220  0.9144  -14.8  15.521  167.5  0.0112   81.2  0.9855   -9.1
 0.240  0.9121  -16.1  15.469  166.3  0.0122   80.4  0.9831   -9.9
 0.260  0.9097  -17.5  15.431  165.1  0.0132   79.7  0.9806  -10.7
 0.280  0.9072  -18.8  15.404  164.0  0.0141   78.9  0.9780  -11.5
 0.300  0.9051  -20.2  15.384  162.9  0.0151   78.3  0.9755  -12.3
 0.320  0.9016  -21.5  15.332  161.8  0.0161   77.4  0.9722  -13.1
 0.340  0.8985  -22.8  15.285  160.7  0.0170   76.7  0.9690  -13.9
 0.360  0.8953  -24.1  15.229  159.6  0.0180   75.9  0.9656  -14.7
 0.380  0.8918  -25.4  15.163  158.5  0.0189   75.2  0.9618  -15.4
 0.400  0.8887  -26.7  15.103  157.4  0.0198   74.5  0.9582  -16.2
 0.420  0.8848  -28.0  15.034  156.4  0.0207   73.7  0.9542  -17.0
 0.440  0.8813  -29.3  14.970  155.3  0.0216   73.0  0.9504  -17.7
 0.450  0.8797  -29.9  14.940  154.8  0.0221   72.7  0.9486  -18.1
 0.460  0.8773  -30.5  14.903  154.2  0.0225   72.3  0.9463  -18.5
 0.480  0.8730  -31.8  14.834  153.1  0.0234   71.6  0.9419  -19.3
 0.500  0.8690  -33.1  14.771  152.0  0.0243   70.9  0.9377  -20.1
 0.520  0.8639  -34.4  14.681  151.0  0.0251   70.1  0.9326  -20.8
 0.540  0.8591  -35.6  14.596  149.9  0.0259   69.4  0.9276  -21.5
 0.560  0.8548  -36.9  14.515  148.9  0.0267   68.7  0.9228  -22.2
 0.580  0.8509  -38.2  14.440  147.8  0.0276   68.1  0.9181  -22.9
 0.600  0.8475  -39.5  14.370  146.7  0.0284   67.5  0.9135  -23.6
 0.620  0.8419  -40.7  14.282  145.7  0.0292   66.8  0.9084  -24.3
 0.640  0.8367  -41.9  14.198  144.8  0.0299   66.1  0.9033  -25.0
 0.660  0.8319  -43.1  14.118  143.8  0.0307   65.5  0.8985  -25.7
 0.680  0.8274  -44.3  14.042  142.8  0.0315   64.9  0.8937  -26.4
 0.700  0.8233  -45.5  13.970  141.8  0.0323   64.3  0.8891  -27.1
 0.720  0.8179  -46.6  13.865  140.9  0.0330   63.6  0.8836  -27.7
 0.740  0.8129  -47.8  13.764  140.0  0.0337   63.0  0.8781  -28.4
 0.760  0.8081  -48.9  13.666  139.0  0.0344   62.4  0.8728  -29.0
 0.780  0.8037  -50.1  13.572  138.1  0.0351   61.9  0.8676  -29.6
 0.800  0.7997  -51.3  13.482  137.1  0.0358   61.3  0.8625  -30.3
 0.820  0.7942  -52.5  13.389  136.2  0.0364   60.7  0.8571  -30.9
 0.840  0.7889  -53.6  13.299  135.3  0.0371   60.1  0.8518  -31.5
 0.860  0.7841  -54.8  13.213  134.4  0.0377   59.6  0.8465  -32.1
 0.880  0.7795  -56.0  13.129  133.4  0.0384   59.0  0.8414  -32.8
 0.900  0.7753  -57.2  13.050  132.5  0.0390   58.5  0.8364  -33.4
 0.920  0.7695  -58.3  12.951  131.7  0.0396   57.9  0.8306  -34.0
 0.940  0.7640  -59.4  12.855  130.8  0.0401   57.4  0.8249  -34.6
 0.960  0.7588  -60.5  12.762  130.0  0.0407   56.9  0.8193  -35.2
 0.980  0.7539  -61.6  12.672  129.1  0.0413   56.4  0.8137  -35.8
 1.000  0.7493  -62.8  12.585  128.2  0.0419   55.9  0.8083  -36.4
 1.020  0.7441  -63.9  12.489  127.4  0.0424   55.4  0.8029  -36.9
 1.040  0.7391  -65.0  12.395  126.6  0.0430   54.9  0.7975  -37.5
 1.060  0.7344  -66.1  12.303  125.7  0.0435   54.4  0.7922  -38.0
 1.080  0.7300  -67.2  12.215  124.9  0.0441   54.0  0.7870  -38.5
 1.100  0.7259  -68.3  12.129  124.0  0.0446   53.5  0.7818  -39.1
 1.120  0.7205  -69.3  12.037  123.2  0.0451   53.1  0.7764  -39.6
 1.140  0.7154  -70.4  11.947  122.4  0.0456   52.6  0.7711  -40.2
 1.160  0.7105  -71.4  11.859  121.6  0.0461   52.2  0.7658  -40.7
 1.180  0.7059  -72.5  11.774  120.7  0.0466   51.8  0.7606  -41.2
 1.200  0.7015  -73.6  11.692  119.9  0.0471   51.4  0.7555  -41.8
 1.220  0.6965  -74.6  11.599  119.2  0.0475   51.0  0.7503  -42.3
 1.240  0.6917  -75.6  11.509  118.4  0.0479   50.5  0.7451  -42.7
 1.260  0.6871  -76.6  11.420  117.7  0.0484   50.1  0.7400  -43.2
 1.280  0.6827  -77.7  11.334  116.9  0.0488   49.7  0.7350  -43.7
 1.300  0.6786  -78.7  11.249  116.1  0.0492   49.3  0.7300  -44.2
 1.320  0.6737  -79.7  11.157  115.4  0.0496   48.9  0.7248  -44.6
 1.340  0.6690  -80.7  11.067  114.7  0.0500   48.5  0.7197  -45.1
 1.360  0.6645  -81.7  10.979  114.0  0.0503   48.1  0.7146  -45.6
 1.380  0.6603  -82.8  10.892  113.2  0.0507   47.8  0.7096  -46.0
 1.400  0.6562  -83.8  10.807  112.5  0.0511   47.4  0.7046  -46.5
 1.420  0.6520  -84.7  10.725  111.9  0.0515   47.1  0.7000  -46.9
 1.440  0.6480  -85.6  10.644  111.2  0.0519   46.7  0.6954  -47.3
 1.460  0.6441  -86.5  10.564  110.5  0.0522   46.4  0.6908  -47.7
 1.480  0.6404  -87.4  10.486  109.9  0.0526   46.1  0.6863  -48.2
 1.500  0.6368  -88.3  10.409  109.2  0.0530   45.8  0.6818  -48.6
 1.520  0.6328  -89.3  10.330  108.5  0.0533   45.5  0.6772  -49.0
 1.540  0.6289  -90.3  10.253  107.8  0.0536   45.1  0.6727  -49.5
 1.560  0.6252  -91.3  10.178  107.1  0.0540   44.8  0.6682  -49.9
 1.580  0.6218  -92.3  10.104  106.4  0.0543   44.5  0.6638  -50.3
 1.600  0.6185  -93.3  10.031  105.7  0.0546   44.2  0.6594  -50.8
 1.620  0.6144  -94.2   9.956  105.1  0.0549   43.9  0.6552  -51.2
 1.640  0.6105  -95.1   9.882  104.5  0.0552   43.6  0.6510  -51.5
 1.660  0.6068  -96.0   9.810  103.9  0.0556   43.4  0.6468  -51.9
 1.680  0.6032  -96.9   9.738  103.2  0.0559   43.1  0.6426  -52.3
 1.700  0.5997  -97.8   9.668  102.6  0.0562   42.8  0.6385  -52.7
 1.720  0.5963  -98.6   9.591  102.0  0.0565   42.6  0.6346  -53.1
 1.740  0.5930  -99.5   9.514  101.4  0.0568   42.3  0.6308  -53.4
 1.760  0.5898 -100.4   9.439  100.8  0.0570   42.1  0.6270  -53.8
 1.780  0.5868 -101.2   9.364  100.2  0.0573   41.8  0.6232  -54.1
 1.800  0.5839 -102.1   9.291   99.6  0.0576   41.6  0.6194  -54.5
 1.820  0.5806 -103.0   9.228   99.0  0.0579   41.4  0.6153  -54.9
 1.840  0.5775 -103.9   9.165   98.5  0.0582   41.2  0.6112  -55.3
 1.860  0.5745 -104.8   9.104   97.9  0.0585   40.9  0.6071  -55.7
 1.880  0.5716 -105.8   9.044   97.3  0.0588   40.7  0.6031  -56.1
 1.900  0.5689 -106.7   8.984   96.7  0.0591   40.5  0.5991  -56.5
 1.920  0.5658 -107.5   8.918   96.2  0.0593   40.3  0.5956  -56.8
 1.940  0.5629 -108.3   8.852   95.6  0.0596   40.1  0.5920  -57.1
 1.960  0.5600 -109.1   8.788   95.0  0.0598   39.8  0.5885  -57.4
 1.980  0.5572 -109.9   8.724   94.5  0.0601   39.6  0.5851  -57.8
 2.000  0.5546 -110.7   8.661   93.9  0.0603   39.4  0.5816  -58.1
 2.020  0.5515 -111.5   8.601   93.4  0.0606   39.2  0.5779  -58.4
 2.040  0.5486 -112.4   8.542   92.9  0.0608   39.0  0.5743  -58.8
 2.060  0.5458 -113.2   8.484   92.3  0.0611   38.8  0.5706  -59.1
 2.080  0.5431 -114.1   8.426   91.8  0.0613   38.6  0.5670  -59.4
 2.100  0.5405 -114.9   8.369   91.2  0.0616   38.4  0.5634  -59.8
 2.120  0.5381 -115.8   8.313   90.7  0.0619   38.2  0.5598  -60.1
 2.140  0.5358 -116.7   8.257   90.1  0.0621   38.1  0.5562  -60.5
 2.160  0.5336 -117.6   8.203   89.6  0.0624   37.9  0.5527  -60.9
 2.180  0.5315 -118.5   8.149   89.0  0.0626   37.7  0.5492  -61.2
 2.200  0.5296 -119.4   8.096   88.4  0.0629   37.5  0.5457  -61.6
 2.220  0.5269 -120.2   8.042   87.9  0.0631   37.3  0.5422  -61.9
 2.240  0.5243 -121.0   7.989   87.4  0.0634   37.2  0.5388  -62.3
 2.260  0.5219 -121.8   7.936   86.9  0.0636   37.0  0.5353  -62.6
 2.280  0.5195 -122.7   7.884   86.4  0.0638   36.8  0.5319  -62.9
 2.300  0.5173 -123.5   7.833   85.9  0.0640   36.6  0.5285  -63.3
 2.320  0.5151 -124.4   7.782   85.4  0.0643   36.5  0.5251  -63.6
 2.340  0.5131 -125.2   7.732   84.9  0.0645   36.3  0.5218  -64.0
 2.360  0.5112 -126.1   7.682   84.4  0.0647   36.1  0.5184  -64.4
 2.380  0.5094 -126.9   7.633   83.8  0.0650   36.0  0.5151  -64.7
 2.400  0.5077 -127.8   7.585   83.3  0.0652   35.8  0.5118  -65.1
 2.420  0.5057 -128.6   7.536   82.8  0.0654   35.6  0.5085  -65.4
 2.440  0.5039 -129.5   7.487   82.4  0.0656   35.5  0.5052  -65.8
 2.460  0.5021 -130.3   7.438   81.9  0.0658   35.3  0.5020  -66.1
 2.480  0.5005 -131.1   7.390   81.4  0.0660   35.1  0.4987  -66.4
 2.500  0.4989 -132.0   7.343   80.9  0.0662   35.0  0.4955  -66.8
 2.520  0.4975 -132.8   7.296   80.4  0.0665   34.8  0.4923  -67.1
 2.540  0.4962 -133.7   7.250   79.9  0.0667   34.7  0.4891  -67.5
 2.560  0.4950 -134.6   7.204   79.4  0.0669   34.5  0.4860  -67.9
 2.580  0.4939 -135.4   7.159   78.8  0.0671   34.4  0.4828  -68.2
 2.600  0.4929 -136.3   7.115   78.3  0.0673   34.2  0.4797  -68.6
 2.620  0.4912 -137.1   7.071   77.9  0.0675   34.1  0.4767  -68.9
 2.640  0.4895 -137.8   7.027   77.4  0.0677   34.0  0.4737  -69.3
 2.660  0.4879 -138.6   6.983   77.0  0.0679   33.8  0.4708  -69.6
 2.680  0.4865 -139.4   6.940   76.5  0.0681   33.7  0.4679  -69.9
 2.700  0.4851 -140.2   6.898   76.1  0.0683   33.6  0.4649  -70.3
 2.720  0.4838 -141.0   6.856   75.6  0.0685   33.5  0.4620  -70.6
 2.740  0.4826 -141.8   6.814   75.1  0.0687   33.4  0.4591  -71.0
 2.760  0.4815 -142.6   6.773   74.7  0.0689   33.2  0.4563  -71.4
 2.780  0.4805 -143.4   6.732   74.2  0.0691   33.1  0.4534  -71.7
 2.800  0.4796 -144.2   6.692   73.7  0.0693   33.0  0.4506  -72.1
 2.820  0.4785 -144.9   6.653   73.3  0.0695   32.9  0.4480  -72.4
 2.840  0.4775 -145.7   6.614   72.8  0.0697   32.8  0.4454  -72.7
 2.860  0.4765 -146.4   6.576   72.4  0.0699   32.7  0.4429  -73.1
 2.880  0.4756 -147.2   6.538   72.0  0.0701   32.6  0.4403  -73.4
 2.900  0.4748 -147.9   6.500   71.5  0.0703   32.4  0.4378  -73.8
 2.920  0.4741 -148.7   6.463   71.1  0.0706   32.3  0.4352  -74.1
 2.940  0.4735 -149.4   6.426   70.6  0.0708   32.2  0.4327  -74.4
 2.960  0.4729 -150.2   6.390   70.1  0.0710   32.1  0.4302  -74.8
 2.980  0.4725 -150.9   6.354   69.7  0.0712   32.0  0.4278  -75.1
 3.000  0.4721 -151.7   6.318   69.2  0.0714   31.9  0.4253  -75.5
 3.100  0.4667 -155.2   6.143   67.3  0.0724   31.4  0.4136  -77.1
 3.200  0.4631 -158.8   5.975   65.3  0.0735   30.9  0.4022  -78.8
 3.300  0.4613 -162.4   5.814   63.2  0.0745   30.5  0.3911  -80.7
 3.400  0.4614 -166.1   5.662   61.0  0.0756   30.0  0.3805  -82.6
 3.500  0.4634 -169.7   5.519   58.6  0.0766   29.6  0.3704  -84.6
 3.600  0.4613 -173.0   5.380   56.8  0.0778   29.2  0.3602  -86.4
 3.700  0.4607 -176.4   5.246   54.9  0.0789   28.7  0.3503  -88.4
 3.800  0.4617 -179.8   5.118   52.9  0.0801   28.3  0.3409  -90.4
 3.900  0.4643  176.9   4.997   50.8  0.0813   27.9  0.3320  -92.6
 4.000  0.4685  173.6   4.883   48.6  0.0825   27.5  0.3235  -94.9
 4.100  0.4698  170.7   4.760   46.8  0.0836   27.0  0.3148  -97.3
 4.200  0.4723  167.8   4.641   45.0  0.0848   26.4  0.3066  -99.7
 4.300  0.4760  164.9   4.528   43.1  0.0860   25.9  0.2990 -102.4
 4.400  0.4808  162.1   4.420   41.0  0.0871   25.4  0.2921 -105.1
 4.500  0.4868  159.4   4.318   38.9  0.0883   24.9  0.2859 -108.0
 4.600  0.4890  157.2   4.213   37.3  0.0894   24.4  0.2800 -110.2
 4.700  0.4919  155.1   4.112   35.7  0.0905   24.0  0.2746 -112.5
 4.800  0.4955  152.9   4.014   34.0  0.0916   23.5  0.2696 -114.9
 4.900  0.4997  150.9   3.920   32.2  0.0928   23.1  0.2651 -117.4
 5.000  0.5046  148.8   3.830   30.3  0.0939   22.7  0.2611 -120.0
 5.100  0.5070  147.0   3.748   28.9  0.0951   22.3  0.2563 -122.1
 5.200  0.5098  145.2   3.669   27.3  0.0963   21.8  0.2519 -124.3
 5.300  0.5132  143.4   3.592   25.8  0.0975   21.4  0.2479 -126.6
 5.400  0.5170  141.7   3.519   24.1  0.0988   21.0  0.2443 -128.9
 5.500  0.5213  140.0   3.448   22.4  0.1000   20.6  0.2411 -131.3
 5.600  0.5246  138.4   3.384   21.0  0.1014   20.2  0.2369 -133.9
 5.700  0.5283  136.8   3.322   19.5  0.1028   19.7  0.2333 -136.6
 5.800  0.5324  135.2   3.262   17.9  0.1042   19.3  0.2302 -139.4
 5.900  0.5368  133.7   3.205   16.4  0.1057   18.9  0.2277 -142.3
 6.000  0.5417  132.2   3.150   14.7  0.1071   18.5  0.2257 -145.2
 6.100  0.5451  130.7   3.097   13.2  0.1088   17.9  0.2243 -148.1
 6.200  0.5490  129.1   3.046   11.7  0.1105   17.3  0.2234 -150.9
 6.300  0.5532  127.6   2.998   10.1  0.1123   16.8  0.2232 -153.8
 6.400  0.5578  126.2   2.952    8.5  0.1140   16.2  0.2234 -156.7
 6.500  0.5627  124.7   2.908    6.8  0.1158   15.7  0.2243 -159.6
 6.600  0.5652  123.1   2.862    5.3  0.1176   15.0  0.2231 -162.1
 6.800  0.5716  119.8   2.775    2.2  0.1214   13.7  0.2220 -167.1
 7.000  0.5797  116.7   2.697   -1.1  0.1252   12.5  0.2226 -172.1
 7.200  0.5861  113.3   2.614   -4.2  0.1291   10.8  0.2225 -178.1
 7.400  0.5945  110.0   2.540   -7.5  0.1331    9.2  0.2249  175.9
 7.600  0.6042  106.6   2.461  -10.8  0.1368    7.3  0.2292  169.5
 7.800  0.6155  103.2   2.378  -14.1  0.1400    5.1  0.2360  162.6
 8.000  0.6289   99.9   2.303  -17.6  0.1435    3.1  0.2460  156.3
 8.200  0.6386   96.7   2.217  -20.4  0.1455    1.2  0.2531  149.6
 8.400  0.6503   93.5   2.136  -23.5  0.1476   -0.7  0.2634  143.3
 8.600  0.6640   90.6   2.064  -26.4  0.1497   -2.4  0.2756  137.0
 8.800  0.6793   88.0   2.000  -29.1  0.1517   -4.1  0.2901  130.7
 9.000  0.6961   85.5   1.940  -32.0  0.1538   -5.7  0.3077  125.1
 9.200  0.7198   83.0   1.884  -34.8  0.1558   -7.4  0.3321  119.7
 9.400  0.7448   80.6   1.834  -37.7  0.1579   -9.0  0.3589  115.1
 9.600  0.7675   78.2   1.770  -40.6  0.1598  -10.8  0.3874  111.4
 9.800  0.7883   75.6   1.695  -43.7  0.1616  -12.7  0.4170  108.3
10.000  0.8105   73.2   1.625  -47.1  0.1636  -14.5  0.4477  105.6
!
!  f       NFmin   Gammaopt  rn/50
! GHz       dB    MAG  ANG    -
 0.450      0.58  0.41   10   0.14
 0.900      0.60  0.39   22   0.13
 1.900      0.67  0.31   47   0.12
 2.400      0.72  0.27   62   0.11
 5.500      1.09  0.34 -144   0.08
10.000      2.11  0.63  -83   0.89
!
! (c) 2016  Infineon Technologies AG, Munich
