! Infineon Technologies  Discrete & RF Semiconductors
! BFP640F
! VCE =  4.0 V,  IC =  18 mA
! Common Emitter S-Parameters:                            Apr 2013
# GHz  S  MA  R  50
!  f         S11            S21            S12            S22
! GHz     MAG   ANG      MAG   ANG      MAG   ANG      MAG   ANG
 0.030  0.7175   -3.5  41.272  175.9  0.0013   63.2  0.9717   -1.8
 0.040  0.7173   -4.7  41.174  174.8  0.0021   62.1  0.9721   -2.6
 0.050  0.7140   -5.8  41.475  173.7  0.0029   87.3  0.9732   -3.3
 0.060  0.7114   -7.2  41.334  172.3  0.0028   62.2  0.9705   -4.3
 0.070  0.7127   -8.6  41.146  171.3  0.0046   72.9  0.9716   -5.1
 0.080  0.7081   -9.8  41.056  170.1  0.0041   71.4  0.9691   -5.8
 0.090  0.7098  -10.9  40.725  169.0  0.0045   76.6  0.9671   -6.7
 0.100  0.7071  -12.1  40.664  168.0  0.0048   70.2  0.9642   -7.4
 0.110  0.7046  -13.3  40.529  166.8  0.0057   73.0  0.9622   -8.2
 0.120  0.7015  -14.7  40.466  165.6  0.0056   73.4  0.9593   -9.0
 0.130  0.6996  -15.9  40.141  164.5  0.0061   72.5  0.9545   -9.8
 0.140  0.6966  -17.1  39.930  163.5  0.0067   78.3  0.9518  -10.5
 0.150  0.6941  -18.3  39.717  162.4  0.0074   74.7  0.9469  -11.3
 0.200  0.6761  -24.2  38.648  157.0  0.0091   79.1  0.9253  -14.8
 0.250  0.6539  -29.7  37.302  152.0  0.0114   74.2  0.8990  -17.9
 0.300  0.6291  -35.0  35.998  147.1  0.0132   73.5  0.8704  -20.8
 0.350  0.6059  -39.9  34.374  142.8  0.0148   72.6  0.8401  -23.5
 0.400  0.5774  -44.7  32.951  138.5  0.0170   72.9  0.8079  -25.8
 0.450  0.5540  -49.0  31.345  134.9  0.0187   70.6  0.7784  -28.0
 0.500  0.5268  -53.2  29.944  131.3  0.0201   70.2  0.7478  -29.8
 0.600  0.4773  -61.0  27.204  125.0  0.0230   68.7  0.6921  -32.8
 0.700  0.4351  -67.8  24.690  119.8  0.0260   67.9  0.6402  -35.1
 0.800  0.3958  -74.2  22.500  115.2  0.0287   67.6  0.5955  -36.9
 0.900  0.3634  -79.9  20.592  111.4  0.0310   66.7  0.5550  -38.1
 1.000  0.3339  -85.3  18.922  108.1  0.0334   66.4  0.5210  -39.0
 1.100  0.3088  -90.3  17.471  105.1  0.0360   66.5  0.4896  -39.6
 1.200  0.2877  -95.0  16.194  102.5  0.0384   65.9  0.4632  -40.0
 1.300  0.2679  -99.8  15.088  100.2  0.0407   66.0  0.4400  -40.2
 1.400  0.2525 -104.2  14.114   98.0  0.0432   65.8  0.4203  -40.4
 1.500  0.2365 -108.7  13.257   96.1  0.0455   65.5  0.4024  -40.4
 1.600  0.2256 -113.0  12.492   94.3  0.0478   65.3  0.3870  -40.6
 1.700  0.2154 -117.3  11.806   92.6  0.0503   65.3  0.3721  -40.4
 1.800  0.2056 -121.4  11.189   91.0  0.0528   64.9  0.3608  -40.6
 1.900  0.1987 -125.4  10.635   89.6  0.0550   64.6  0.3489  -40.6
 2.000  0.1920 -129.3  10.136   88.1  0.0575   64.5  0.3392  -40.8
 2.100  0.1906 -133.5   9.672   86.7  0.0598   64.2  0.3284  -41.4
 2.200  0.1849 -137.1   9.257   85.4  0.0623   63.8  0.3215  -41.5
 2.300  0.1805 -140.7   8.858   84.1  0.0646   63.5  0.3141  -41.6
 2.400  0.1767 -144.1   8.509   82.9  0.0669   63.3  0.3083  -41.8
 2.500  0.1727 -147.4   8.179   81.7  0.0693   63.0  0.3033  -41.9
 2.600  0.1698 -150.6   7.875   80.6  0.0717   62.8  0.2979  -42.1
 2.700  0.1672 -153.6   7.593   79.5  0.0741   62.5  0.2944  -42.2
 2.800  0.1641 -156.7   7.330   78.4  0.0766   62.1  0.2910  -42.5
 2.900  0.1621 -159.6   7.085   77.3  0.0787   61.8  0.2885  -42.7
 3.000  0.1602 -162.4   6.858   76.3  0.0812   61.5  0.2854  -43.1
 3.100  0.1582 -165.0   6.641   75.3  0.0835   61.0  0.2835  -43.3
 3.200  0.1565 -167.6   6.438   74.3  0.0859   60.6  0.2814  -43.6
 3.300  0.1548 -170.1   6.253   73.3  0.0882   60.3  0.2808  -44.0
 3.400  0.1542 -172.7   6.072   72.3  0.0907   59.7  0.2791  -44.3
 3.500  0.1530 -174.9   5.905   71.4  0.0930   59.5  0.2782  -44.6
 3.600  0.1521 -177.2   5.744   70.5  0.0953   59.1  0.2775  -44.8
 3.700  0.1509 -179.3   5.596   69.5  0.0977   58.7  0.2769  -45.1
 3.800  0.1506  178.3   5.457   68.6  0.1001   58.3  0.2761  -45.4
 3.900  0.1504  176.3   5.322   67.7  0.1023   57.8  0.2754  -45.7
 4.000  0.1505  174.0   5.192   66.8  0.1048   57.4  0.2742  -45.9
 4.100  0.1505  172.3   5.071   65.9  0.1071   57.0  0.2732  -46.2
 4.200  0.1514  170.0   4.956   65.0  0.1095   56.6  0.2720  -46.5
 4.300  0.1519  168.2   4.848   64.1  0.1119   56.2  0.2709  -46.8
 4.400  0.1538  166.4   4.743   63.3  0.1142   55.7  0.2695  -47.0
 4.500  0.1542  164.8   4.644   62.4  0.1166   55.3  0.2684  -47.2
 4.600  0.1566  163.0   4.550   61.5  0.1189   54.7  0.2668  -47.5
 4.700  0.1575  161.6   4.457   60.7  0.1214   54.3  0.2651  -47.6
 4.800  0.1596  159.8   4.373   59.8  0.1237   53.7  0.2633  -48.0
 4.900  0.1609  158.6   4.288   58.9  0.1261   53.3  0.2614  -48.1
 5.000  0.1631  157.1   4.207   58.1  0.1286   52.8  0.2596  -48.3
 5.100  0.1644  155.7   4.131   57.2  0.1310   52.4  0.2582  -48.5
 5.200  0.1659  154.2   4.057   56.4  0.1333   51.9  0.2564  -48.5
 5.300  0.1674  152.9   3.984   55.5  0.1355   51.4  0.2547  -48.8
 5.400  0.1695  151.7   3.915   54.6  0.1382   50.9  0.2537  -48.9
 5.500  0.1709  150.4   3.849   53.7  0.1403   50.4  0.2515  -49.2
 5.600  0.1726  149.3   3.784   52.9  0.1426   49.9  0.2507  -49.2
 5.700  0.1737  148.0   3.722   52.1  0.1450   49.4  0.2484  -49.3
 5.800  0.1750  146.5   3.663   51.2  0.1474   48.8  0.2476  -49.5
 5.900  0.1766  145.4   3.603   50.3  0.1495   48.3  0.2460  -49.5
 6.000  0.1774  143.9   3.548   49.4  0.1518   47.7  0.2448  -49.6
 6.100  0.1801  142.7   3.493   48.6  0.1541   47.3  0.2429  -49.6
 6.200  0.1797  141.3   3.437   47.8  0.1563   46.7  0.2420  -49.9
 6.300  0.1828  139.8   3.384   46.9  0.1586   46.1  0.2402  -49.9
 6.400  0.1832  138.7   3.331   46.1  0.1610   45.6  0.2381  -50.0
 6.500  0.1858  136.8   3.281   45.2  0.1630   45.1  0.2361  -49.9
 6.600  0.1873  135.5   3.230   44.3  0.1652   44.6  0.2340  -50.0
 6.700  0.1892  133.7   3.184   43.5  0.1673   44.0  0.2324  -49.9
 6.800  0.1914  132.4   3.134   42.7  0.1697   43.6  0.2304  -49.8
 6.900  0.1943  130.9   3.090   41.9  0.1718   43.0  0.2285  -49.5
 7.000  0.1960  129.5   3.044   41.1  0.1740   42.6  0.2260  -49.3
 7.100  0.1999  128.2   3.001   40.4  0.1763   42.1  0.2231  -49.0
 7.200  0.2028  126.9   2.960   39.7  0.1785   41.7  0.2200  -48.9
 7.300  0.2068  125.7   2.921   38.9  0.1808   41.1  0.2172  -48.6
 7.400  0.2104  124.8   2.881   38.1  0.1831   40.7  0.2138  -48.3
 7.500  0.2160  124.0   2.844   37.4  0.1855   40.2  0.2093  -48.0
 7.600  0.2207  123.1   2.810   36.6  0.1880   39.6  0.2046  -47.7
 7.700  0.2274  122.6   2.776   35.9  0.1905   39.0  0.1993  -47.1
 7.800  0.2338  121.8   2.744   35.2  0.1927   38.5  0.1932  -46.7
 7.900  0.2416  121.4   2.711   34.4  0.1949   38.0  0.1869  -46.0
 8.000  0.2489  120.9   2.681   33.6  0.1975   37.4  0.1798  -45.4
 8.500  0.2943  119.1   2.536   29.8  0.2085   34.5  0.1400  -37.6
 9.000  0.3411  117.3   2.403   26.0  0.2188   31.7  0.1036  -20.0
 9.500  0.3841  115.1   2.287   22.3  0.2296   28.9  0.0863    9.5
10.000  0.4233  112.5   2.181   18.5  0.2407   26.0  0.0921   43.9
!
!  f       NFmin   Gammaopt  rn/50
! GHz       dB    MAG  ANG    -
!
! noise parameter not available yet for this operation point!
!
! (c) 2013  Infineon Technologies AG, Munich
