! Infineon Technologies  Discrete & RF Semiconductors
! BFP640
! VCE =  3.5 V,  IC =  6.0 mA
! Common Emitter S-Parameters:                            Apr 2013
# GHz  S  MA  R  50
!  f         S11            S21            S12            S22
! GHz     MAG   ANG      MAG   ANG      MAG   ANG      MAG   ANG
 0.030  0.9177   -2.0  17.272  177.5  0.0014   88.9  0.9939   -1.2
 0.040  0.9189   -2.7  17.200  177.0  0.0024   81.6  0.9950   -1.6
 0.050  0.9196   -3.5  17.374  176.7  0.0026  104.6  0.9944   -2.0
 0.060  0.9186   -4.1  17.295  175.9  0.0028   89.4  0.9940   -2.4
 0.070  0.9168   -4.9  17.404  175.4  0.0039   79.9  0.9953   -2.8
 0.080  0.9168   -5.6  17.317  174.8  0.0046   85.5  0.9943   -3.2
 0.090  0.9161   -6.3  17.319  174.3  0.0050   86.5  0.9952   -3.6
 0.100  0.9155   -6.9  17.197  173.8  0.0058   83.8  0.9940   -4.1
 0.110  0.9147   -7.7  17.305  173.1  0.0062   81.4  0.9938   -4.5
 0.120  0.9143   -8.4  17.232  172.6  0.0064   84.5  0.9928   -4.9
 0.130  0.9137   -9.1  17.308  172.0  0.0074   85.6  0.9914   -5.4
 0.140  0.9132   -9.8  17.182  171.5  0.0079   82.6  0.9915   -5.8
 0.150  0.9133  -10.5  17.218  170.9  0.0086   85.7  0.9901   -6.2
 0.200  0.9090  -13.9  16.974  168.1  0.0114   79.6  0.9852   -8.3
 0.250  0.9035  -17.5  16.927  165.1  0.0137   79.5  0.9792  -10.3
 0.300  0.8966  -20.9  16.726  162.3  0.0166   78.7  0.9720  -12.3
 0.350  0.8879  -24.4  16.641  159.4  0.0194   77.4  0.9637  -14.3
 0.400  0.8799  -27.8  16.444  156.7  0.0219   75.5  0.9515  -16.4
 0.450  0.8705  -31.2  16.219  154.0  0.0243   74.7  0.9435  -18.2
 0.500  0.8596  -34.5  15.982  151.4  0.0267   72.2  0.9291  -20.2
 0.600  0.8356  -41.1  15.499  146.2  0.0318   68.6  0.9015  -23.8
 0.700  0.8077  -47.8  15.086  141.2  0.0361   65.3  0.8720  -27.2
 0.800  0.7789  -54.3  14.598  136.4  0.0406   62.5  0.8388  -30.5
 0.900  0.7493  -60.6  14.087  131.9  0.0442   59.5  0.8066  -33.4
 1.000  0.7210  -66.5  13.514  127.7  0.0477   56.7  0.7724  -36.2
 1.100  0.6915  -72.4  12.982  123.7  0.0506   54.1  0.7398  -38.6
 1.200  0.6636  -77.9  12.448  119.9  0.0534   51.7  0.7074  -40.9
 1.300  0.6394  -83.1  11.892  116.6  0.0558   49.7  0.6781  -42.8
 1.400  0.6143  -88.5  11.446  113.1  0.0583   47.8  0.6524  -44.6
 1.500  0.5907  -93.7  10.995  110.0  0.0605   45.8  0.6244  -46.2
 1.600  0.5681  -99.0  10.615  106.8  0.0624   44.3  0.5994  -47.8
 1.700  0.5472 -104.2  10.231  103.9  0.0644   42.7  0.5762  -49.0
 1.800  0.5325 -108.9   9.818  101.3  0.0660   41.4  0.5539  -50.5
 1.900  0.5164 -113.8   9.479   98.6  0.0678   40.2  0.5325  -51.7
 2.000  0.5024 -118.6   9.140   96.1  0.0694   39.0  0.5108  -53.0
 2.100  0.4902 -123.4   8.824   93.4  0.0711   37.7  0.4921  -54.2
 2.200  0.4779 -127.9   8.518   91.0  0.0724   36.7  0.4736  -55.2
 2.300  0.4683 -132.3   8.222   88.7  0.0741   35.5  0.4585  -56.0
 2.400  0.4589 -136.6   7.952   86.5  0.0752   34.7  0.4411  -56.9
 2.500  0.4508 -141.0   7.693   84.3  0.0768   33.6  0.4257  -57.6
 2.600  0.4418 -145.6   7.467   82.1  0.0777   32.8  0.4087  -58.4
 2.700  0.4366 -149.7   7.232   80.1  0.0790   32.1  0.3947  -59.0
 2.800  0.4303 -154.1   7.022   78.0  0.0803   31.3  0.3804  -59.7
 2.900  0.4284 -157.9   6.804   76.1  0.0820   30.5  0.3670  -60.5
 3.000  0.4236 -162.2   6.618   74.0  0.0830   29.7  0.3531  -61.3
 3.100  0.4204 -166.4   6.440   72.0  0.0842   28.9  0.3392  -62.1
 3.200  0.4188 -170.3   6.263   70.1  0.0856   28.1  0.3278  -63.0
 3.300  0.4188 -174.1   6.090   68.3  0.0869   27.3  0.3152  -63.8
 3.400  0.4187 -178.1   5.929   66.4  0.0879   26.5  0.3033  -64.7
 3.500  0.4192  178.3   5.774   64.7  0.0889   25.9  0.2902  -65.5
 3.600  0.4203  174.6   5.629   62.8  0.0901   25.2  0.2794  -66.4
 3.700  0.4226  171.2   5.486   61.0  0.0911   24.4  0.2672  -67.2
 3.800  0.4259  167.9   5.346   59.3  0.0924   23.6  0.2576  -68.1
 3.900  0.4287  164.7   5.213   57.6  0.0935   23.0  0.2460  -69.0
 4.000  0.4317  161.4   5.090   55.8  0.0945   22.4  0.2347  -70.2
 4.100  0.4354  158.5   4.964   54.2  0.0955   21.6  0.2251  -71.2
 4.200  0.4402  155.5   4.847   52.5  0.0965   21.0  0.2159  -72.4
 4.300  0.4446  152.9   4.727   50.9  0.0977   20.3  0.2075  -73.4
 4.400  0.4503  150.2   4.620   49.3  0.0985   19.6  0.1988  -74.4
 4.500  0.4540  147.8   4.511   47.8  0.0996   19.0  0.1903  -75.3
 4.600  0.4598  145.3   4.414   46.1  0.1006   18.4  0.1824  -76.3
 4.700  0.4635  143.0   4.316   44.7  0.1015   17.7  0.1754  -77.0
 4.800  0.4699  141.0   4.218   43.1  0.1026   17.1  0.1680  -77.8
 4.900  0.4733  138.8   4.132   41.6  0.1034   16.6  0.1600  -78.6
 5.000  0.4785  136.9   4.045   40.2  0.1043   16.0  0.1543  -79.2
 5.100  0.4824  135.0   3.960   38.7  0.1053   15.3  0.1477  -79.8
 5.200  0.4870  133.3   3.878   37.4  0.1063   14.7  0.1431  -80.2
 5.300  0.4904  131.5   3.799   35.9  0.1072   14.3  0.1362  -80.6
 5.400  0.4946  129.9   3.723   34.6  0.1084   13.6  0.1311  -80.8
 5.500  0.4969  128.2   3.654   33.2  0.1093   13.2  0.1241  -81.0
 5.600  0.5005  126.7   3.585   31.8  0.1102   12.5  0.1197  -81.1
 5.700  0.5024  125.3   3.519   30.5  0.1111   12.2  0.1137  -81.0
 5.800  0.5063  123.8   3.453   29.1  0.1122   11.4  0.1098  -81.0
 5.900  0.5094  122.5   3.394   27.9  0.1134   11.0  0.1039  -81.2
 6.000  0.5122  121.0   3.337   26.5  0.1146   10.5  0.0987  -81.4
 6.100  0.5165  119.7   3.288   25.2  0.1159    9.9  0.0936  -81.8
 6.200  0.5188  118.5   3.229   24.0  0.1170    9.1  0.0889  -82.4
 6.300  0.5231  117.0   3.182   22.6  0.1185    8.5  0.0834  -82.8
 6.400  0.5259  115.7   3.133   21.3  0.1195    7.8  0.0777  -83.6
 6.500  0.5298  114.1   3.087   19.9  0.1207    7.2  0.0720  -84.2
 6.600  0.5327  112.6   3.039   18.5  0.1219    6.5  0.0678  -84.8
 6.700  0.5373  111.2   2.993   17.2  0.1230    5.9  0.0621  -85.5
 6.800  0.5409  109.6   2.948   15.8  0.1239    5.0  0.0573  -86.1
 6.900  0.5450  108.2   2.905   14.5  0.1253    4.5  0.0503  -87.1
 7.000  0.5480  106.5   2.865   13.1  0.1264    3.7  0.0461  -88.9
 7.100  0.5527  105.1   2.824   11.7  0.1276    2.9  0.0404  -90.9
 7.200  0.5566  103.6   2.782   10.4  0.1284    2.1  0.0368  -92.5
 7.300  0.5610  102.1   2.742    9.0  0.1295    1.4  0.0305  -94.3
 7.400  0.5652  100.5   2.702    7.6  0.1306    0.6  0.0260  -96.2
 7.500  0.5706   99.0   2.666    6.2  0.1317   -0.1  0.0184  -98.1
 7.600  0.5753   97.4   2.627    4.8  0.1325   -0.9  0.0135 -104.6
 7.700  0.5821   96.0   2.587    3.5  0.1335   -1.7  0.0081 -110.3
 7.800  0.5874   94.3   2.549    2.1  0.1345   -2.5  0.0020 -152.3
 7.900  0.5942   92.9   2.511    0.7  0.1353   -3.3  0.0065   95.3
 8.000  0.5999   91.3   2.477   -0.7  0.1361   -4.1  0.0140   89.5
 8.500  0.6354   84.2   2.289   -7.5  0.1394   -8.1  0.0562   77.5
 9.000  0.6716   77.8   2.103  -13.7  0.1412  -11.9  0.1082   75.5
 9.500  0.7071   72.5   1.932  -19.3  0.1424  -15.2  0.1655   75.4
10.000  0.7376   68.6   1.789  -24.0  0.1435  -17.7  0.2156   77.1
!
!  f       NFmin   Gammaopt  rn/50
! GHz       dB    MAG  ANG    -
 0.450      0.56  0.40   11   0.09
 0.900      0.58  0.40   20   0.09
 1.500      0.60  0.35   32   0.09
 1.900      0.63  0.30   50   0.09
 2.400      0.69  0.27   58   0.09
 3.500      0.83  0.22   81   0.09
 5.500      1.09  0.26 -150   0.11
10.000      1.75  0.61  -63   0.42
!
! (c) 2013  Infineon Technologies AG, Munich
