! Infineon Technologies  Discrete & RF Semiconductors
! BFP620F
! VCE =  1.3 V,  IC =  5.0 mA
! Common Emitter S-Parameters:                            Dec 2014
# GHz  S  MA  R  50
!  f         S11            S21            S12            S22
! GHz     MAG   ANG      MAG   ANG      MAG   ANG      MAG   ANG
 0.030  0.9507   -2.2  14.689  177.7  0.0030   89.0  0.9975   -1.7
 0.040  0.9515   -3.0  14.636  177.1  0.0035   86.6  0.9973   -2.3
 0.050  0.9490   -3.8  14.695  176.6  0.0048   85.1  0.9986   -2.8
 0.060  0.9510   -4.5  14.682  176.2  0.0053   82.4  0.9963   -3.4
 0.070  0.9489   -5.2  14.676  175.5  0.0064   81.2  0.9952   -3.9
 0.080  0.9501   -6.1  14.702  174.8  0.0084   81.4  0.9946   -4.6
 0.090  0.9492   -6.7  14.684  174.2  0.0082   86.4  0.9956   -5.1
 0.100  0.9480   -7.5  14.659  173.6  0.0089   87.4  0.9959   -5.7
 0.110  0.9465   -8.3  14.658  172.9  0.0107   86.5  0.9950   -6.3
 0.120  0.9460   -9.0  14.626  172.3  0.0113   87.7  0.9931   -6.9
 0.130  0.9455   -9.7  14.612  171.7  0.0123   84.2  0.9925   -7.5
 0.140  0.9449  -10.5  14.588  171.1  0.0139   84.6  0.9910   -8.1
 0.150  0.9438  -11.2  14.591  170.5  0.0146   84.3  0.9900   -8.6
 0.200  0.9382  -14.9  14.452  167.5  0.0195   81.2  0.9832  -11.5
 0.250  0.9305  -18.6  14.349  164.3  0.0238   80.8  0.9746  -14.3
 0.300  0.9234  -22.2  14.156  161.5  0.0286   78.6  0.9645  -17.1
 0.350  0.9122  -25.8  14.002  158.5  0.0330   76.2  0.9522  -19.8
 0.400  0.9009  -29.5  13.835  155.6  0.0373   74.4  0.9363  -22.6
 0.450  0.8892  -32.9  13.629  152.8  0.0416   72.6  0.9238  -25.1
 0.500  0.8763  -36.3  13.384  150.2  0.0457   71.0  0.9062  -27.8
 0.600  0.8465  -43.2  12.948  144.8  0.0536   67.0  0.8687  -32.7
 0.700  0.8169  -49.7  12.481  139.9  0.0603   63.8  0.8305  -37.4
 0.800  0.7850  -56.0  11.960  135.3  0.0665   60.7  0.7895  -41.7
 0.900  0.7525  -62.1  11.471  130.9  0.0723   57.9  0.7487  -45.7
 1.000  0.7224  -67.7  10.931  127.0  0.0772   55.5  0.7084  -49.4
 1.100  0.6914  -73.1  10.429  123.2  0.0815   53.3  0.6689  -52.9
 1.200  0.6635  -78.5   9.961  119.7  0.0855   51.1  0.6314  -56.2
 1.300  0.6344  -83.5   9.516  116.3  0.0890   49.4  0.5958  -59.1
 1.400  0.6110  -88.4   9.095  113.3  0.0925   47.9  0.5639  -61.9
 1.500  0.5849  -93.2   8.706  110.3  0.0955   46.6  0.5325  -64.5
 1.600  0.5641  -97.8   8.326  107.6  0.0981   45.4  0.5047  -67.2
 1.700  0.5440 -102.0   7.960  105.1  0.1007   44.4  0.4786  -69.6
 1.800  0.5268 -106.3   7.637  102.6  0.1032   43.4  0.4561  -72.1
 1.900  0.5106 -110.1   7.316  100.4  0.1056   42.7  0.4344  -74.5
 2.000  0.4965 -114.0   7.026   98.3  0.1078   41.8  0.4164  -76.9
 2.100  0.4839 -117.9   6.753   96.1  0.1104   40.9  0.4036  -79.9
 2.200  0.4723 -121.4   6.502   94.2  0.1125   40.3  0.3879  -82.0
 2.300  0.4611 -124.8   6.260   92.3  0.1145   39.7  0.3736  -84.0
 2.400  0.4514 -128.1   6.043   90.4  0.1169   39.1  0.3598  -86.0
 2.500  0.4431 -131.2   5.834   88.8  0.1187   38.6  0.3477  -87.9
 2.600  0.4352 -134.2   5.633   87.2  0.1206   38.1  0.3360  -89.8
 2.700  0.4280 -137.2   5.454   85.5  0.1226   37.7  0.3257  -91.4
 2.800  0.4208 -140.1   5.285   84.0  0.1247   37.4  0.3161  -93.2
 2.900  0.4154 -142.9   5.122   82.5  0.1267   37.0  0.3082  -94.8
 3.000  0.4090 -145.6   4.975   80.9  0.1286   36.5  0.3001  -96.5
 3.100  0.4049 -148.1   4.827   79.5  0.1306   36.3  0.2920  -98.0
 3.200  0.3993 -150.6   4.692   78.1  0.1326   35.8  0.2853  -99.4
 3.300  0.3957 -153.1   4.565   76.7  0.1345   35.6  0.2788 -100.7
 3.400  0.3913 -155.6   4.450   75.3  0.1367   35.1  0.2726 -102.2
 3.500  0.3883 -157.8   4.332   74.1  0.1388   34.9  0.2666 -103.3
 3.600  0.3845 -160.2   4.224   72.7  0.1407   34.5  0.2603 -104.7
 3.700  0.3822 -162.3   4.121   71.5  0.1428   34.3  0.2543 -105.9
 3.800  0.3789 -164.6   4.020   70.2  0.1446   33.8  0.2493 -107.0
 3.900  0.3768 -166.8   3.932   69.0  0.1469   33.6  0.2435 -108.1
 4.000  0.3749 -168.8   3.837   67.8  0.1489   33.2  0.2374 -109.1
 4.100  0.3736 -170.8   3.755   66.5  0.1508   32.9  0.2317 -110.3
 4.200  0.3727 -172.9   3.674   65.3  0.1531   32.5  0.2252 -111.6
 4.300  0.3720 -174.9   3.600   64.1  0.1553   32.2  0.2202 -112.6
 4.400  0.3716 -176.8   3.526   63.0  0.1573   31.8  0.2143 -113.8
 4.500  0.3714 -178.6   3.456   61.8  0.1597   31.5  0.2087 -114.9
 4.600  0.3719  179.4   3.386   60.6  0.1616   31.2  0.2025 -116.2
 4.700  0.3724  177.6   3.323   59.4  0.1638   30.8  0.1974 -117.5
 4.800  0.3733  175.6   3.262   58.3  0.1660   30.4  0.1916 -118.8
 4.900  0.3744  173.9   3.200   57.2  0.1682   30.0  0.1860 -120.1
 5.000  0.3758  172.0   3.145   56.0  0.1704   29.5  0.1811 -121.8
 5.100  0.3769  170.3   3.089   54.9  0.1727   29.2  0.1754 -123.0
 5.200  0.3789  168.6   3.037   53.8  0.1749   28.7  0.1706 -124.4
 5.300  0.3799  167.0   2.985   52.6  0.1769   28.3  0.1659 -126.0
 5.400  0.3822  165.2   2.937   51.5  0.1791   27.8  0.1617 -127.5
 5.500  0.3842  163.7   2.886   50.4  0.1812   27.3  0.1566 -129.1
 5.600  0.3866  162.1   2.840   49.3  0.1833   26.9  0.1521 -131.0
 5.700  0.3884  160.6   2.794   48.2  0.1854   26.5  0.1475 -132.9
 5.800  0.3903  159.0   2.751   47.0  0.1874   25.9  0.1437 -134.4
 5.900  0.3923  157.4   2.708   45.9  0.1897   25.5  0.1389 -136.5
 6.000  0.3938  155.8   2.667   44.8  0.1915   24.9  0.1352 -138.3
 6.100  0.3961  154.3   2.623   43.7  0.1937   24.5  0.1302 -140.3
 6.200  0.3975  152.7   2.584   42.5  0.1954   24.0  0.1256 -142.5
 6.300  0.3995  150.9   2.545   41.4  0.1973   23.4  0.1210 -145.1
 6.400  0.4014  149.4   2.507   40.3  0.1993   22.9  0.1169 -147.5
 6.500  0.4030  147.7   2.468   39.2  0.2011   22.4  0.1109 -150.3
 6.600  0.4045  146.1   2.428   38.2  0.2029   21.9  0.1064 -153.2
 6.700  0.4058  144.4   2.392   37.1  0.2046   21.5  0.1012 -156.2
 6.800  0.4075  142.6   2.356   36.0  0.2063   21.0  0.0964 -159.5
 6.900  0.4093  140.9   2.321   35.0  0.2080   20.5  0.0907 -163.2
 7.000  0.4115  139.2   2.287   33.9  0.2097   20.0  0.0855 -167.3
 7.100  0.4141  137.6   2.253   32.9  0.2116   19.6  0.0804 -172.2
 7.200  0.4169  136.0   2.220   31.9  0.2134   19.2  0.0760 -177.8
 7.300  0.4202  134.4   2.189   30.9  0.2152   18.7  0.0725  175.8
 7.400  0.4238  132.9   2.158   29.9  0.2171   18.3  0.0700  168.9
 7.500  0.4284  131.5   2.128   29.0  0.2193   17.8  0.0687  161.2
 7.600  0.4333  130.1   2.099   28.0  0.2214   17.4  0.0687  153.4
 7.700  0.4387  128.7   2.072   27.1  0.2234   16.8  0.0709  145.4
 7.800  0.4443  127.4   2.045   26.1  0.2253   16.3  0.0744  138.0
 7.900  0.4513  126.1   2.017   25.2  0.2271   15.7  0.0798  130.7
 8.000  0.4585  124.9   1.991   24.1  0.2290   15.1  0.0863  124.4
!
!  f       NFmin   Gammaopt  rn/50
! GHz       dB    MAG  ANG    -
 0.450      0.52  0.46    9   0.28
 0.900      0.59  0.43   20   0.24
 1.500      0.66  0.38   26   0.22
 1.800      0.70  0.36   30   0.21
 1.900      0.71  0.31   42   0.23
 2.400      0.77  0.28   56   0.21
 3.500      0.90  0.27   77   0.16
 5.500      1.12  0.18  155   0.13
 6.000      1.17  0.14  173   0.25
!
! (c) 2014  Infineon Technologies AG, Munich
