! Infineon Technologies  Discrete & RF Semiconductors
! BFP640F
! VCE =  1.0 V,  IC =  42 mA
! Common Emitter S-Parameters:                            Apr 2013
# GHz  S  MA  R  50
!  f         S11            S21            S12            S22
! GHz     MAG   ANG      MAG   ANG      MAG   ANG      MAG   ANG
 0.030  0.1293  -38.7  22.242  174.6  0.0038   28.2  0.2962   -3.3
 0.040  0.1392  -48.8  21.919  172.6  0.0048   37.7  0.2972   -5.0
 0.050  0.1575  -56.1  22.175  170.5  0.0061   43.3  0.2979   -7.1
 0.060  0.1719  -62.9  21.915  168.1  0.0068   46.4  0.2955   -8.7
 0.070  0.1846  -69.6  21.671  166.0  0.0048   54.1  0.2943   -9.4
 0.080  0.1991  -75.8  21.424  164.0  0.0066   46.3  0.2904  -11.1
 0.090  0.2180  -80.1  21.241  162.0  0.0068   53.4  0.2893  -12.7
 0.100  0.2336  -84.5  21.068  160.1  0.0075   51.7  0.2843  -14.1
 0.110  0.2504  -88.6  20.857  158.1  0.0073   55.4  0.2838  -15.4
 0.120  0.2659  -92.4  20.524  156.1  0.0094   53.8  0.2798  -16.6
 0.130  0.2807  -96.0  20.163  154.3  0.0099   55.0  0.2782  -17.9
 0.140  0.2959  -99.0  19.762  152.5  0.0105   57.2  0.2744  -19.2
 0.150  0.3110 -101.9  19.506  150.8  0.0107   59.7  0.2702  -20.3
 0.200  0.3755 -113.6  17.958  142.7  0.0129   59.8  0.2505  -25.9
 0.250  0.4271 -123.0  16.273  136.1  0.0154   60.6  0.2327  -29.9
 0.300  0.4672 -130.5  14.852  130.3  0.0173   60.7  0.2144  -33.4
 0.350  0.4989 -136.7  13.558  125.3  0.0197   60.9  0.1988  -36.1
 0.400  0.5243 -141.8  12.386  121.1  0.0215   61.9  0.1829  -38.2
 0.450  0.5427 -146.2  11.475  117.4  0.0231   62.0  0.1699  -40.0
 0.500  0.5569 -149.9  10.644  114.2  0.0252   61.8  0.1567  -41.2
 0.600  0.5812 -156.4   9.164  108.8  0.0284   62.6  0.1349  -43.2
 0.700  0.5962 -161.6   8.046  104.4  0.0314   63.0  0.1179  -43.9
 0.800  0.6058 -165.7   7.219  100.7  0.0349   63.6  0.1013  -44.5
 0.900  0.6146 -169.3   6.472   97.6  0.0382   64.2  0.0888  -44.1
 1.000  0.6220 -172.4   5.868   94.9  0.0414   64.3  0.0776  -44.0
 1.100  0.6286 -175.3   5.331   92.5  0.0447   64.8  0.0676  -42.9
 1.200  0.6324 -177.7   4.922   90.3  0.0479   64.8  0.0591  -42.6
 1.300  0.6366 -180.0   4.559   88.3  0.0513   64.9  0.0505  -41.0
 1.400  0.6403  177.9   4.252   86.4  0.0547   65.0  0.0444  -40.9
 1.500  0.6428  175.9   3.976   84.7  0.0578   64.8  0.0376  -38.4
 1.600  0.6468  174.1   3.736   83.0  0.0612   64.7  0.0321  -38.3
 1.700  0.6495  172.3   3.529   81.4  0.0646   64.5  0.0267  -34.2
 1.800  0.6521  170.6   3.332   79.9  0.0678   64.2  0.0218  -34.4
 1.900  0.6554  169.0   3.156   78.4  0.0710   64.0  0.0175  -31.4
 2.000  0.6575  167.4   3.005   77.0  0.0744   63.6  0.0128  -32.5
 2.100  0.6596  166.2   2.857   75.6  0.0775   63.1  0.0088  -52.1
 2.200  0.6601  164.8   2.745   74.3  0.0811   62.9  0.0058  -62.2
 2.300  0.6617  163.5   2.619   73.1  0.0844   62.6  0.0037  -85.0
 2.400  0.6630  162.2   2.521   71.8  0.0874   62.0  0.0034 -125.6
 2.500  0.6655  160.8   2.413   70.5  0.0908   61.7  0.0044 -155.2
 2.600  0.6652  159.5   2.330   69.3  0.0940   61.2  0.0060 -170.4
 2.700  0.6670  158.3   2.247   68.1  0.0974   60.8  0.0073 -178.6
 2.800  0.6667  157.0   2.180   66.9  0.1007   60.1  0.0091  179.0
 2.900  0.6680  155.8   2.103   65.7  0.1040   59.8  0.0101  176.4
 3.000  0.6689  154.6   2.036   64.6  0.1074   59.2  0.0119  174.1
 3.100  0.6688  153.4   1.978   63.5  0.1106   58.8  0.0121  175.6
 3.200  0.6693  152.2   1.919   62.4  0.1137   58.0  0.0131  175.1
 3.300  0.6695  151.0   1.865   61.2  0.1170   57.5  0.0137  175.8
 3.400  0.6714  149.8   1.808   60.1  0.1204   56.8  0.0139  174.8
 3.500  0.6709  148.7   1.764   59.0  0.1235   56.3  0.0139  174.7
 3.600  0.6717  147.5   1.718   58.0  0.1269   55.7  0.0131  174.1
 3.700  0.6708  146.4   1.682   56.9  0.1299   55.1  0.0130  172.3
 3.800  0.6723  145.2   1.639   55.8  0.1330   54.5  0.0124  168.5
 3.900  0.6731  144.1   1.595   54.7  0.1362   53.9  0.0122  164.6
 4.000  0.6730  142.9   1.563   53.7  0.1394   53.2  0.0122  158.3
 4.100  0.6732  141.9   1.526   52.6  0.1423   52.6  0.0117  152.3
 4.200  0.6732  140.7   1.500   51.6  0.1454   51.9  0.0123  145.3
 4.300  0.6741  139.6   1.465   50.5  0.1485   51.2  0.0127  138.2
 4.400  0.6755  138.6   1.436   49.5  0.1518   50.6  0.0136  133.2
 4.500  0.6763  137.5   1.402   48.5  0.1546   50.0  0.0140  124.3
 4.600  0.6773  136.5   1.380   47.5  0.1577   49.4  0.0149  117.7
 4.700  0.6768  135.5   1.354   46.5  0.1606   48.7  0.0166  111.1
 4.800  0.6784  134.4   1.328   45.5  0.1635   48.0  0.0186  107.3
 4.900  0.6789  133.4   1.303   44.5  0.1665   47.3  0.0208  102.4
 5.000  0.6800  132.5   1.280   43.5  0.1694   46.7  0.0225   98.4
 5.100  0.6793  131.4   1.262   42.5  0.1723   46.1  0.0246   95.6
 5.200  0.6807  130.5   1.239   41.6  0.1753   45.4  0.0273   92.0
 5.300  0.6801  129.4   1.219   40.6  0.1779   44.8  0.0300   89.8
 5.400  0.6821  128.5   1.195   39.6  0.1811   44.1  0.0320   87.0
 5.500  0.6813  127.5   1.180   38.6  0.1838   43.4  0.0344   85.6
 5.600  0.6825  126.6   1.161   37.7  0.1867   42.8  0.0366   82.5
 5.700  0.6809  125.6   1.149   36.8  0.1893   42.1  0.0398   81.7
 5.800  0.6822  124.5   1.129   35.7  0.1922   41.4  0.0419   79.6
 5.900  0.6822  123.6   1.114   34.8  0.1948   40.7  0.0455   78.0
 6.000  0.6831  122.5   1.094   33.7  0.1977   39.9  0.0484   76.3
 6.100  0.6826  121.5   1.085   32.8  0.2004   39.3  0.0512   75.1
 6.200  0.6822  120.4   1.067   31.9  0.2030   38.5  0.0542   73.6
 6.300  0.6831  119.2   1.052   30.9  0.2055   37.8  0.0583   72.1
 6.400  0.6829  118.2   1.035   29.9  0.2081   37.1  0.0619   71.0
 6.500  0.6826  117.0   1.024   29.0  0.2103   36.4  0.0655   69.7
 6.600  0.6828  115.9   1.009   28.0  0.2126   35.7  0.0695   68.8
 6.700  0.6834  114.8   0.996   27.1  0.2150   35.0  0.0736   67.5
 6.800  0.6842  113.6   0.980   26.2  0.2174   34.2  0.0781   66.2
 6.900  0.6851  112.5   0.968   25.3  0.2198   33.6  0.0829   65.1
 7.000  0.6853  111.3   0.955   24.4  0.2220   32.9  0.0874   64.0
 7.100  0.6864  110.3   0.946   23.6  0.2241   32.2  0.0932   63.5
 7.200  0.6875  109.2   0.932   22.8  0.2264   31.6  0.0979   63.0
 7.300  0.6897  108.2   0.921   21.9  0.2287   30.9  0.1039   62.3
 7.400  0.6912  107.1   0.906   21.0  0.2308   30.2  0.1096   62.0
 7.500  0.6942  106.2   0.897   20.2  0.2327   29.6  0.1160   61.8
 7.600  0.6959  105.2   0.885   19.3  0.2348   28.8  0.1222   61.8
 7.700  0.6995  104.3   0.876   18.5  0.2371   28.1  0.1296   61.8
 7.800  0.7018  103.3   0.866   17.8  0.2389   27.4  0.1372   62.1
 7.900  0.7064  102.5   0.852   16.9  0.2405   26.7  0.1447   62.1
 8.000  0.7091  101.7   0.844   16.2  0.2422   26.1  0.1527   62.4
 8.500  0.7286   98.2   0.797   12.5  0.2494   22.9  0.1965   63.4
 9.000  0.7453   95.5   0.754    9.3  0.2563   20.3  0.2422   64.6
 9.500  0.7594   93.2   0.720    6.5  0.2643   17.9  0.2847   66.3
10.000  0.7713   90.8   0.691    3.6  0.2728   15.3  0.3221   68.7
!
!  f       NFmin   Gammaopt  rn/50
! GHz       dB    MAG  ANG    -
!
! noise parameter not available yet for this operation point!
!
! (c) 2013  Infineon Technologies AG, Munich
