! Infineon Technologies  Discrete & RF Semiconductors
! BFP620F
! VCE =  0.3 V,  IC =  12 mA
! Common Emitter S-Parameters:                            Dec 2014
# GHz  S  MA  R  50
!  f         S11            S21            S12            S22
! GHz     MAG   ANG      MAG   ANG      MAG   ANG      MAG   ANG
 0.030  0.7679  -10.8  20.103  175.2  0.0058   84.9  0.9514   -6.2
 0.040  0.7545  -13.8  20.759  174.0  0.0073   82.5  0.9490   -8.2
 0.050  0.7527  -16.2  21.645  172.7  0.0074   79.4  0.9463  -10.2
 0.060  0.7560  -18.6  22.277  170.8  0.0113   83.2  0.9435  -11.9
 0.070  0.7545  -21.1  22.624  168.6  0.0124   77.5  0.9404  -13.9
 0.080  0.7533  -23.8  22.561  166.5  0.0137   76.3  0.9375  -15.8
 0.090  0.7467  -26.4  22.171  164.7  0.0168   79.3  0.9378  -17.9
 0.100  0.7396  -28.9  21.650  163.1  0.0177   77.1  0.9346  -19.9
 0.110  0.7307  -31.6  21.119  161.6  0.0201   78.1  0.9302  -22.1
 0.120  0.7216  -34.2  20.730  160.2  0.0216   76.1  0.9226  -24.2
 0.130  0.7154  -36.6  20.596  159.1  0.0237   73.6  0.9148  -26.2
 0.140  0.7125  -38.8  20.660  157.9  0.0245   73.7  0.9042  -28.2
 0.150  0.7101  -41.0  20.868  156.6  0.0262   71.9  0.8963  -29.8
 0.200  0.7012  -51.7  20.284  149.5  0.0335   67.4  0.8604  -38.8
 0.250  0.6836  -61.5  20.012  143.8  0.0396   63.6  0.8131  -47.1
 0.300  0.6739  -70.6  19.495  137.8  0.0449   59.6  0.7710  -54.7
 0.350  0.6541  -79.1  18.088  132.9  0.0496   56.8  0.7331  -62.2
 0.400  0.6386  -86.3  17.818  129.0  0.0534   53.9  0.6757  -68.7
 0.450  0.6313  -92.2  17.073  124.3  0.0567   51.9  0.6531  -74.3
 0.500  0.6124  -98.4  16.127  121.3  0.0598   50.1  0.6109  -80.7
 0.600  0.5892 -108.4  14.815  115.2  0.0648   47.1  0.5490  -90.7
 0.700  0.5686 -117.2  13.340  110.1  0.0688   45.3  0.5048  -99.8
 0.800  0.5535 -124.5  12.209  105.9  0.0724   44.5  0.4666 -107.5
 0.900  0.5377 -131.2  11.193  102.3  0.0754   43.6  0.4356 -115.1
 1.000  0.5286 -137.2  10.287   99.1  0.0786   43.2  0.4123 -121.6
 1.100  0.5186 -142.4   9.491   96.3  0.0817   42.9  0.3932 -128.0
 1.200  0.5137 -147.1   8.813   93.8  0.0847   42.9  0.3790 -133.5
 1.300  0.5077 -151.4   8.195   91.6  0.0875   42.8  0.3667 -139.0
 1.400  0.5055 -155.2   7.677   89.5  0.0906   42.9  0.3584 -143.8
 1.500  0.5016 -158.9   7.193   87.5  0.0938   42.9  0.3522 -148.6
 1.600  0.5011 -162.1   6.777   85.7  0.0969   43.0  0.3495 -152.8
 1.700  0.4988 -165.3   6.388   84.0  0.1000   43.2  0.3470 -156.7
 1.800  0.4991 -168.0   6.053   82.3  0.1033   43.3  0.3472 -160.2
 1.900  0.4983 -170.6   5.752   80.8  0.1064   43.3  0.3475 -163.4
 2.000  0.4986 -173.1   5.475   79.3  0.1099   43.1  0.3491 -166.3
 2.100  0.5000 -175.5   5.220   77.9  0.1125   42.9  0.3533 -168.3
 2.200  0.4996 -177.6   4.989   76.5  0.1160   42.8  0.3537 -170.7
 2.300  0.5000 -179.7   4.776   75.1  0.1195   42.8  0.3542 -172.8
 2.400  0.5006  178.4   4.588   73.8  0.1228   42.6  0.3551 -174.9
 2.500  0.5010  176.5   4.414   72.6  0.1262   42.5  0.3560 -176.8
 2.600  0.5008  174.6   4.249   71.3  0.1295   42.3  0.3567 -178.8
 2.700  0.5014  172.9   4.098   70.1  0.1328   42.1  0.3570  179.7
 2.800  0.5013  171.1   3.957   68.9  0.1364   42.0  0.3576  178.1
 2.900  0.5018  169.5   3.826   67.7  0.1397   41.6  0.3585  176.6
 3.000  0.5022  167.8   3.707   66.5  0.1432   41.4  0.3594  175.1
 3.100  0.5026  166.4   3.590   65.4  0.1468   41.1  0.3592  173.7
 3.200  0.5020  164.8   3.484   64.3  0.1501   40.8  0.3600  172.3
 3.300  0.5023  163.4   3.382   63.2  0.1536   40.4  0.3595  171.1
 3.400  0.5023  161.8   3.290   62.0  0.1570   40.0  0.3601  169.8
 3.500  0.5029  160.4   3.200   60.9  0.1606   39.7  0.3594  168.5
 3.600  0.5024  159.0   3.116   59.7  0.1641   39.2  0.3594  167.2
 3.700  0.5030  157.6   3.039   58.6  0.1677   38.8  0.3592  165.8
 3.800  0.5030  156.2   2.962   57.5  0.1712   38.4  0.3589  164.6
 3.900  0.5040  154.9   2.892   56.5  0.1744   37.9  0.3582  163.2
 4.000  0.5039  153.5   2.823   55.4  0.1780   37.4  0.3572  161.9
 4.100  0.5050  152.3   2.761   54.3  0.1815   36.9  0.3570  160.4
 4.200  0.5059  151.0   2.700   53.2  0.1848   36.4  0.3570  158.9
 4.300  0.5072  149.8   2.645   52.1  0.1885   35.8  0.3568  157.5
 4.400  0.5085  148.5   2.588   51.0  0.1921   35.3  0.3565  156.1
 4.500  0.5100  147.4   2.534   49.9  0.1955   34.7  0.3563  154.5
 4.600  0.5119  146.2   2.484   48.9  0.1988   34.1  0.3566  153.0
 4.700  0.5129  145.1   2.438   47.8  0.2021   33.5  0.3571  151.5
 4.800  0.5153  143.9   2.390   46.7  0.2057   32.9  0.3575  150.0
 4.900  0.5172  142.8   2.344   45.7  0.2089   32.3  0.3578  148.4
 5.000  0.5193  141.7   2.303   44.5  0.2124   31.6  0.3588  146.9
 5.100  0.5210  140.6   2.262   43.4  0.2157   31.0  0.3588  145.3
 5.200  0.5236  139.7   2.222   42.3  0.2188   30.3  0.3598  143.8
 5.300  0.5254  138.6   2.182   41.2  0.2220   29.6  0.3604  142.4
 5.400  0.5280  137.5   2.144   40.1  0.2251   28.9  0.3616  140.9
 5.500  0.5300  136.6   2.107   39.1  0.2281   28.2  0.3621  139.4
 5.600  0.5328  135.5   2.071   38.0  0.2312   27.5  0.3637  137.9
 5.700  0.5344  134.6   2.038   36.9  0.2341   26.7  0.3647  136.5
 5.800  0.5365  133.5   2.005   35.8  0.2372   26.0  0.3657  135.0
 5.900  0.5391  132.4   1.972   34.7  0.2397   25.3  0.3673  133.5
 6.000  0.5409  131.3   1.939   33.6  0.2427   24.5  0.3684  132.1
 6.100  0.5432  130.3   1.908   32.6  0.2455   23.8  0.3694  130.6
 6.200  0.5446  129.2   1.876   31.4  0.2478   23.0  0.3706  128.9
 6.300  0.5471  127.9   1.845   30.3  0.2501   22.3  0.3724  127.4
 6.400  0.5490  126.8   1.815   29.2  0.2527   21.5  0.3739  125.8
 6.500  0.5505  125.6   1.786   28.2  0.2550   20.8  0.3751  124.1
 6.600  0.5521  124.4   1.756   27.2  0.2571   20.1  0.3772  122.5
 6.700  0.5536  123.1   1.728   26.1  0.2593   19.4  0.3785  120.8
 6.800  0.5554  121.9   1.701   25.1  0.2616   18.7  0.3801  119.1
 6.900  0.5575  120.6   1.674   24.1  0.2636   18.0  0.3817  117.3
 7.000  0.5598  119.4   1.647   23.1  0.2656   17.3  0.3838  115.5
 7.100  0.5621  118.2   1.622   22.1  0.2677   16.6  0.3863  113.7
 7.200  0.5647  117.1   1.597   21.1  0.2699   15.9  0.3891  111.9
 7.300  0.5680  115.9   1.574   20.2  0.2720   15.3  0.3929  110.1
 7.400  0.5715  114.8   1.550   19.2  0.2740   14.6  0.3972  108.3
 7.500  0.5758  113.7   1.528   18.3  0.2761   13.9  0.4019  106.6
 7.600  0.5802  112.7   1.506   17.4  0.2781   13.2  0.4071  104.8
 7.700  0.5851  111.7   1.484   16.5  0.2799   12.4  0.4133  103.1
 7.800  0.5901  110.7   1.462   15.6  0.2816   11.7  0.4199  101.5
 7.900  0.5961  109.8   1.440   14.6  0.2833   10.9  0.4271   99.8
 8.000  0.6023  108.9   1.420   13.6  0.2850   10.1  0.4347   98.2
!
!  f       NFmin   Gammaopt  rn/50
! GHz       dB    MAG  ANG    -
 0.450      0.64  0.22    8   0.21
 0.900      0.71  0.20   19   0.18
 1.500      0.76  0.19   21   0.13
 1.800      0.79  0.19   23   0.11
 1.900      0.80  0.14   38   0.14
 2.400      0.84  0.12   53   0.12
 3.500      0.93  0.11   76   0.12
 5.500      1.10  0.10  193   0.09
 6.000      1.14  0.10  221   0.14
!
! (c) 2014  Infineon Technologies AG, Munich
