! Infineon Technologies  Discrete & RF Semiconductors
! BFP640F
! VCE =  2.5 V,  IC =  15 mA
! Common Emitter S-Parameters:                            Apr 2013
# GHz  S  MA  R  50
!  f         S11            S21            S12            S22
! GHz     MAG   ANG      MAG   ANG      MAG   ANG      MAG   ANG
 0.030  0.7741   -3.4  36.901  176.6  0.0012  109.7  0.9920   -1.8
 0.040  0.7741   -4.6  36.900  175.6  0.0022   83.8  0.9927   -2.6
 0.050  0.7707   -5.9  37.275  174.5  0.0021   74.4  0.9941   -3.5
 0.060  0.7695   -6.9  37.061  173.1  0.0029   94.0  0.9921   -4.1
 0.070  0.7680   -8.0  37.044  172.1  0.0027   93.4  0.9910   -4.8
 0.080  0.7661   -9.3  36.970  171.0  0.0041   79.7  0.9900   -5.7
 0.090  0.7662  -10.4  36.788  169.9  0.0046   83.8  0.9885   -6.5
 0.100  0.7645  -11.5  36.655  168.9  0.0048   84.3  0.9862   -7.3
 0.110  0.7629  -12.7  36.542  167.8  0.0050   84.4  0.9839   -8.0
 0.120  0.7603  -13.9  36.437  166.7  0.0056   87.2  0.9812   -8.9
 0.130  0.7563  -15.1  36.231  165.7  0.0067   82.4  0.9775   -9.5
 0.140  0.7541  -16.2  36.103  164.7  0.0070   80.9  0.9745  -10.3
 0.150  0.7508  -17.3  35.975  163.6  0.0084   82.4  0.9705  -11.0
 0.200  0.7355  -22.9  35.018  158.6  0.0099   80.8  0.9510  -14.5
 0.250  0.7139  -28.1  33.998  153.8  0.0118   78.6  0.9255  -17.8
 0.300  0.6925  -33.2  32.873  149.2  0.0147   77.9  0.8992  -20.8
 0.350  0.6671  -38.0  31.664  144.9  0.0166   74.4  0.8701  -23.5
 0.400  0.6410  -42.8  30.477  140.8  0.0188   73.7  0.8388  -26.0
 0.450  0.6157  -47.1  29.195  137.1  0.0207   72.1  0.8090  -28.2
 0.500  0.5909  -51.2  27.942  133.7  0.0224   70.5  0.7782  -30.3
 0.600  0.5396  -59.2  25.609  127.4  0.0255   68.8  0.7207  -33.7
 0.700  0.4941  -66.1  23.419  122.1  0.0284   67.2  0.6672  -36.4
 0.800  0.4516  -72.5  21.464  117.3  0.0312   66.4  0.6196  -38.5
 0.900  0.4155  -78.3  19.734  113.4  0.0339   65.7  0.5762  -40.1
 1.000  0.3846  -83.7  18.174  109.9  0.0364   64.8  0.5389  -41.3
 1.100  0.3549  -88.9  16.847  106.7  0.0389   64.4  0.5058  -42.2
 1.200  0.3316  -93.6  15.645  104.0  0.0413   64.2  0.4767  -42.9
 1.300  0.3100  -98.3  14.597  101.6  0.0437   63.8  0.4509  -43.3
 1.400  0.2924 -102.7  13.673   99.4  0.0461   63.7  0.4284  -43.7
 1.500  0.2755 -106.9  12.849   97.3  0.0484   63.5  0.4086  -43.8
 1.600  0.2617 -111.3  12.128   95.4  0.0509   63.0  0.3918  -44.1
 1.700  0.2501 -115.4  11.471   93.7  0.0531   63.0  0.3746  -44.1
 1.800  0.2395 -119.3  10.875   92.0  0.0557   62.9  0.3619  -44.4
 1.900  0.2306 -123.3  10.349   90.5  0.0579   62.9  0.3488  -44.5
 2.000  0.2229 -127.0   9.867   89.0  0.0605   62.5  0.3382  -44.8
 2.100  0.2197 -131.2   9.421   87.5  0.0627   62.1  0.3266  -45.6
 2.200  0.2142 -134.5   9.013   86.1  0.0653   62.0  0.3178  -45.7
 2.300  0.2082 -138.1   8.629   84.8  0.0674   61.6  0.3100  -45.8
 2.400  0.2041 -141.3   8.287   83.6  0.0698   61.4  0.3031  -46.0
 2.500  0.1983 -144.7   7.973   82.3  0.0722   61.1  0.2976  -46.1
 2.600  0.1949 -147.7   7.676   81.1  0.0745   60.7  0.2919  -46.4
 2.700  0.1917 -150.7   7.401   80.0  0.0770   60.6  0.2876  -46.5
 2.800  0.1884 -153.5   7.147   78.8  0.0793   60.4  0.2828  -46.7
 2.900  0.1859 -156.2   6.910   77.7  0.0815   60.0  0.2801  -46.9
 3.000  0.1831 -159.2   6.689   76.7  0.0838   59.6  0.2762  -47.3
 3.100  0.1808 -161.6   6.479   75.7  0.0864   59.3  0.2740  -47.5
 3.200  0.1784 -164.2   6.285   74.6  0.0889   59.0  0.2717  -47.9
 3.300  0.1769 -166.4   6.101   73.6  0.0912   58.5  0.2704  -48.2
 3.400  0.1752 -169.3   5.929   72.6  0.0935   58.2  0.2684  -48.6
 3.500  0.1739 -171.3   5.766   71.6  0.0958   57.9  0.2674  -48.8
 3.600  0.1724 -173.8   5.611   70.7  0.0982   57.5  0.2663  -49.0
 3.700  0.1715 -175.6   5.464   69.8  0.1008   57.0  0.2649  -49.3
 3.800  0.1707 -178.0   5.330   68.8  0.1032   56.7  0.2638  -49.5
 3.900  0.1700 -180.0   5.200   67.8  0.1057   56.3  0.2632  -49.8
 4.000  0.1699  177.9   5.071   66.9  0.1079   55.9  0.2617  -49.9
 4.100  0.1699  176.2   4.955   66.0  0.1102   55.5  0.2600  -50.2
 4.200  0.1706  173.9   4.842   65.1  0.1127   55.1  0.2583  -50.4
 4.300  0.1709  172.1   4.737   64.2  0.1151   54.7  0.2569  -50.7
 4.400  0.1727  170.3   4.635   63.3  0.1177   54.2  0.2551  -51.0
 4.500  0.1727  168.5   4.540   62.4  0.1200   53.8  0.2541  -51.1
 4.600  0.1751  166.8   4.447   61.5  0.1226   53.3  0.2521  -51.3
 4.700  0.1760  165.3   4.357   60.6  0.1248   52.9  0.2499  -51.4
 4.800  0.1781  163.5   4.274   59.7  0.1273   52.4  0.2478  -51.7
 4.900  0.1790  162.1   4.192   58.8  0.1297   51.9  0.2458  -51.9
 5.000  0.1810  160.5   4.114   57.9  0.1322   51.5  0.2439  -52.0
 5.100  0.1825  159.2   4.038   57.1  0.1345   51.0  0.2420  -52.2
 5.200  0.1839  157.6   3.966   56.2  0.1370   50.5  0.2398  -52.1
 5.300  0.1854  156.3   3.895   55.3  0.1393   49.9  0.2379  -52.4
 5.400  0.1871  154.9   3.827   54.4  0.1416   49.5  0.2365  -52.4
 5.500  0.1888  153.6   3.763   53.5  0.1441   49.0  0.2345  -52.7
 5.600  0.1902  152.4   3.701   52.7  0.1465   48.5  0.2330  -52.7
 5.700  0.1916  151.2   3.639   51.8  0.1488   48.0  0.2304  -52.7
 5.800  0.1929  149.6   3.582   50.9  0.1511   47.4  0.2295  -52.8
 5.900  0.1944  148.5   3.523   50.0  0.1536   47.0  0.2277  -52.8
 6.000  0.1950  147.0   3.471   49.1  0.1557   46.4  0.2262  -52.9
 6.100  0.1978  145.8   3.415   48.3  0.1582   45.9  0.2240  -52.9
 6.200  0.1975  144.3   3.361   47.4  0.1604   45.3  0.2229  -53.1
 6.300  0.2004  142.7   3.309   46.5  0.1626   44.8  0.2209  -52.9
 6.400  0.2008  141.6   3.259   45.7  0.1650   44.3  0.2187  -53.0
 6.500  0.2030  139.7   3.209   44.8  0.1672   43.8  0.2165  -52.9
 6.600  0.2047  138.4   3.159   43.9  0.1694   43.3  0.2140  -52.9
 6.700  0.2068  136.7   3.113   43.1  0.1717   42.7  0.2120  -52.7
 6.800  0.2086  135.2   3.066   42.3  0.1737   42.2  0.2099  -52.4
 6.900  0.2117  133.7   3.023   41.4  0.1760   41.6  0.2077  -52.1
 7.000  0.2132  132.2   2.979   40.6  0.1782   41.2  0.2051  -51.8
 7.100  0.2170  130.9   2.936   39.8  0.1805   40.8  0.2015  -51.3
 7.200  0.2201  129.6   2.895   39.1  0.1828   40.2  0.1987  -51.1
 7.300  0.2241  128.4   2.856   38.3  0.1852   39.7  0.1955  -50.7
 7.400  0.2274  127.3   2.818   37.5  0.1874   39.2  0.1920  -50.3
 7.500  0.2333  126.5   2.781   36.8  0.1897   38.8  0.1871  -49.8
 7.600  0.2381  125.4   2.749   36.0  0.1922   38.2  0.1823  -49.4
 7.700  0.2451  124.8   2.715   35.2  0.1949   37.6  0.1767  -48.7
 7.800  0.2516  124.0   2.682   34.5  0.1971   37.1  0.1702  -48.1
 7.900  0.2593  123.4   2.651   33.7  0.1995   36.5  0.1636  -47.1
 8.000  0.2668  122.7   2.621   32.9  0.2019   36.0  0.1564  -46.2
 8.500  0.3127  120.3   2.476   28.9  0.2128   33.0  0.1170  -35.7
 9.000  0.3595  118.1   2.344   25.1  0.2230   30.1  0.0858  -11.1
 9.500  0.4020  115.5   2.227   21.3  0.2335   27.4  0.0826   25.6
10.000  0.4407  112.6   2.122   17.5  0.2445   24.5  0.1038   56.3
!
!  f       NFmin   Gammaopt  rn/50
! GHz       dB    MAG  ANG    -
 0.450      0.74  0.06    6   0.05
 0.900      0.75  0.06   19   0.06
 1.500      0.76  0.05   35   0.07
 1.900      0.77  0.05   51   0.07
 2.400      0.79  0.04   76   0.08
 3.500      0.88  0.05  131   0.09
 5.500      1.07  0.14 -142   0.12
10.000      1.56  0.40  -93   0.36
!
! (c) 2013  Infineon Technologies AG, Munich
