! Infineon Technologies  Discrete & RF Semiconductors
! BFP650
! VCE =  2.5 V,  IC =  35 mA
! Common Emitter S-Parameters:                            Jan 2016
# GHz  S  MA  R  50
!  f         S11            S21            S12            S22
! GHz     MAG   ANG      MAG   ANG      MAG   ANG      MAG   ANG
 0.030  0.5689  -19.5  77.835  169.7  0.0046   71.3  0.9771  -11.9
 0.035  0.5658  -22.5  77.673  168.0  0.0050   78.2  0.9707  -13.9
 0.040  0.5643  -25.6  77.579  166.3  0.0054   84.0  0.9655  -16.0
 0.045  0.5649  -28.9  76.777  164.6  0.0072   85.9  0.9668  -17.9
 0.050  0.5673  -32.1  76.042  162.9  0.0091   87.1  0.9691  -19.8
 0.055  0.5640  -35.1  75.805  161.6  0.0077   80.8  0.9556  -22.1
 0.060  0.5622  -38.1  75.611  160.2  0.0064   71.8  0.9436  -24.4
 0.065  0.5630  -41.6  74.825  158.6  0.0087   67.6  0.9342  -26.6
 0.070  0.5659  -45.1  74.098  157.0  0.0111   65.2  0.9263  -28.9
 0.075  0.5703  -47.2  73.398  155.6  0.0106   73.4  0.9236  -30.3
 0.080  0.5754  -49.3  72.746  154.1  0.0103   82.3  0.9214  -31.8
 0.085  0.5709  -51.9  71.851  153.0  0.0102   74.3  0.9062  -33.6
 0.090  0.5677  -54.6  70.984  151.8  0.0102   66.3  0.8919  -35.4
 0.095  0.5676  -57.5  70.269  150.3  0.0112   65.5  0.8851  -37.2
 0.100  0.5689  -60.4  69.602  148.8  0.0123   64.8  0.8792  -39.0
 0.105  0.5690  -62.9  68.733  147.5  0.0131   65.3  0.8686  -41.0
 0.110  0.5702  -65.4  67.900  146.2  0.0140   65.8  0.8590  -43.0
 0.115  0.5711  -67.5  66.855  145.0  0.0137   64.2  0.8497  -44.5
 0.120  0.5728  -69.6  65.839  143.8  0.0135   62.6  0.8411  -46.1
 0.125  0.5711  -72.0  64.986  142.6  0.0145   63.5  0.8303  -47.7
 0.130  0.5704  -74.5  64.164  141.3  0.0156   64.3  0.8201  -49.4
 0.135  0.5718  -76.5  63.368  140.3  0.0156   62.9  0.8123  -50.7
 0.140  0.5738  -78.5  62.594  139.2  0.0156   61.5  0.8049  -52.0
 0.145  0.5746  -80.5  61.706  138.2  0.0160   61.6  0.7947  -53.5
 0.150  0.5760  -82.4  60.839  137.1  0.0164   61.6  0.7851  -55.0
 0.155  0.5739  -84.1  59.981  136.3  0.0167   60.7  0.7750  -56.2
 0.160  0.5724  -85.9  59.136  135.4  0.0169   59.8  0.7653  -57.4
 0.165  0.5714  -87.6  58.304  134.6  0.0172   58.9  0.7559  -58.7
 0.170  0.5709  -89.4  57.486  133.7  0.0174   58.1  0.7469  -60.0
 0.175  0.5710  -91.1  56.683  132.7  0.0177   57.2  0.7382  -61.3
 0.180  0.5715  -92.9  55.895  131.8  0.0180   56.4  0.7300  -62.7
 0.185  0.5727  -94.6  55.122  130.8  0.0183   55.7  0.7222  -64.1
 0.190  0.5743  -96.4  54.366  129.8  0.0185   54.9  0.7149  -65.5
 0.195  0.5765  -98.1  53.628  128.8  0.0188   54.2  0.7080  -66.9
 0.200  0.5792  -99.8  52.907  127.7  0.0191   53.5  0.7015  -68.4
 0.220  0.5766 -105.1  50.068  125.0  0.0198   52.2  0.6703  -72.6
 0.240  0.5790 -110.5  47.352  122.0  0.0205   51.0  0.6430  -77.1
 0.260  0.5809 -115.1  44.871  119.4  0.0213   50.0  0.6180  -81.3
 0.280  0.5808 -119.2  42.567  117.2  0.0222   49.1  0.5942  -85.0
 0.300  0.5835 -123.2  40.331  114.8  0.0232   48.4  0.5730  -89.0
 0.320  0.5833 -126.5  38.413  113.1  0.0238   48.7  0.5541  -92.1
 0.340  0.5852 -129.9  36.534  111.1  0.0245   49.0  0.5368  -95.4
 0.360  0.5866 -132.9  34.842  109.4  0.0251   48.7  0.5210  -98.5
 0.380  0.5873 -135.6  33.320  107.9  0.0256   47.9  0.5062 -101.4
 0.400  0.5893 -138.3  31.823  106.3  0.0261   47.0  0.4928 -104.4
 0.420  0.5892 -140.5  30.559  105.1  0.0265   47.0  0.4807 -106.9
 0.440  0.5901 -142.7  29.310  103.7  0.0268   47.0  0.4695 -109.5
 0.450  0.5908 -143.8  28.692  103.0  0.0270   47.0  0.4643 -110.8
 0.460  0.5906 -144.8  28.160  102.5  0.0272   47.1  0.4594 -112.0
 0.480  0.5907 -146.7  27.102  101.4  0.0277   47.2  0.4503 -114.3
 0.500  0.5914 -148.6  26.055  100.2  0.0281   47.3  0.4419 -116.8
 0.520  0.5912 -150.1  25.215   99.4  0.0286   47.4  0.4342 -118.7
 0.540  0.5915 -151.6  24.380   98.6  0.0291   47.4  0.4270 -120.6
 0.560  0.5921 -153.2  23.551   97.7  0.0296   47.5  0.4203 -122.7
 0.580  0.5932 -154.7  22.727   96.7  0.0301   47.5  0.4142 -124.8
 0.600  0.5947 -156.2  21.911   95.7  0.0306   47.6  0.4086 -126.9
 0.620  0.5945 -157.4  21.294   95.0  0.0311   47.6  0.4035 -128.5
 0.640  0.5945 -158.6  20.679   94.4  0.0316   47.6  0.3987 -130.2
 0.660  0.5948 -159.8  20.068   93.6  0.0321   47.7  0.3942 -131.9
 0.680  0.5953 -161.0  19.460   92.8  0.0326   47.7  0.3901 -133.7
 0.700  0.5961 -162.2  18.856   92.0  0.0331   47.7  0.3864 -135.5
 0.720  0.5963 -163.2  18.390   91.4  0.0337   47.7  0.3830 -137.0
 0.740  0.5968 -164.2  17.925   90.9  0.0343   47.7  0.3799 -138.4
 0.760  0.5974 -165.2  17.463   90.2  0.0348   47.6  0.3770 -139.9
 0.780  0.5981 -166.2  17.003   89.6  0.0354   47.6  0.3744 -141.5
 0.800  0.5991 -167.2  16.545   88.9  0.0360   47.6  0.3720 -143.0
 0.820  0.5992 -168.0  16.173   88.4  0.0364   47.7  0.3695 -144.2
 0.840  0.5994 -168.9  15.803   88.0  0.0368   47.8  0.3672 -145.5
 0.860  0.5997 -169.7  15.433   87.5  0.0371   48.0  0.3650 -146.8
 0.880  0.6002 -170.6  15.065   86.9  0.0375   48.1  0.3631 -148.1
 0.900  0.6008 -171.4  14.698   86.4  0.0379   48.2  0.3613 -149.4
 0.920  0.6013 -172.1  14.405   85.9  0.0385   48.2  0.3598 -150.5
 0.940  0.6019 -172.9  14.114   85.5  0.0391   48.2  0.3585 -151.6
 0.960  0.6025 -173.6  13.823   85.0  0.0397   48.3  0.3573 -152.7
 0.980  0.6033 -174.4  13.533   84.4  0.0403   48.3  0.3562 -153.9
 1.000  0.6042 -175.1  13.245   83.9  0.0409   48.3  0.3553 -155.0
 1.020  0.6044 -175.8  13.002   83.5  0.0414   48.3  0.3544 -156.0
 1.040  0.6048 -176.4  12.760   83.1  0.0419   48.3  0.3536 -157.1
 1.060  0.6052 -177.1  12.519   82.6  0.0423   48.4  0.3529 -158.1
 1.080  0.6056 -177.7  12.278   82.2  0.0428   48.4  0.3523 -159.2
 1.100  0.6062 -178.4  12.038   81.7  0.0433   48.4  0.3519 -160.2
 1.120  0.6067 -179.0  11.838   81.3  0.0438   48.4  0.3511 -161.1
 1.140  0.6073 -179.6  11.638   80.9  0.0443   48.4  0.3505 -162.0
 1.160  0.6080  179.7  11.440   80.4  0.0449   48.5  0.3499 -162.8
 1.180  0.6088  179.1  11.241   80.0  0.0454   48.5  0.3493 -163.7
 1.200  0.6096  178.5  11.044   79.5  0.0459   48.5  0.3489 -164.6
 1.220  0.6098  178.0  10.871   79.1  0.0465   48.6  0.3485 -165.4
 1.240  0.6101  177.4  10.698   78.7  0.0472   48.7  0.3482 -166.3
 1.260  0.6104  176.9  10.526   78.3  0.0478   48.8  0.3480 -167.1
 1.280  0.6108  176.3  10.355   77.9  0.0485   48.9  0.3478 -168.0
 1.300  0.6112  175.8  10.184   77.5  0.0491   49.0  0.3477 -168.8
 1.320  0.6117  175.3  10.040   77.1  0.0496   48.8  0.3474 -169.6
 1.340  0.6123  174.8   9.896   76.8  0.0501   48.6  0.3471 -170.4
 1.360  0.6130  174.2   9.752   76.4  0.0507   48.4  0.3469 -171.1
 1.380  0.6137  173.7   9.610   76.0  0.0512   48.2  0.3468 -171.9
 1.400  0.6144  173.2   9.467   75.6  0.0517   48.0  0.3467 -172.7
 1.420  0.6150  172.7   9.340   75.2  0.0521   47.9  0.3466 -173.4
 1.440  0.6156  172.2   9.214   74.9  0.0525   47.8  0.3466 -174.0
 1.460  0.6163  171.7   9.088   74.5  0.0528   47.8  0.3467 -174.7
 1.480  0.6170  171.2   8.962   74.1  0.0532   47.7  0.3468 -175.3
 1.500  0.6178  170.7   8.837   73.7  0.0536   47.6  0.3469 -176.0
 1.520  0.6182  170.2   8.725   73.4  0.0542   47.6  0.3469 -176.6
 1.540  0.6187  169.8   8.614   73.0  0.0548   47.7  0.3469 -177.3
 1.560  0.6192  169.3   8.502   72.6  0.0555   47.7  0.3469 -177.9
 1.580  0.6197  168.9   8.392   72.3  0.0561   47.8  0.3470 -178.6
 1.600  0.6203  168.4   8.281   71.9  0.0567   47.8  0.3471 -179.2
 1.620  0.6207  167.9   8.181   71.6  0.0572   47.7  0.3472 -179.9
 1.640  0.6212  167.4   8.082   71.2  0.0576   47.5  0.3473  179.5
 1.660  0.6217  167.0   7.983   70.9  0.0581   47.4  0.3474  178.8
 1.680  0.6222  166.5   7.884   70.6  0.0585   47.2  0.3476  178.2
 1.700  0.6228  166.0   7.785   70.2  0.0590   47.1  0.3479  177.5
 1.720  0.6234  165.6   7.697   69.8  0.0596   46.9  0.3482  176.9
 1.740  0.6241  165.1   7.610   69.5  0.0602   46.8  0.3486  176.3
 1.760  0.6248  164.7   7.522   69.1  0.0609   46.6  0.3490  175.7
 1.780  0.6256  164.2   7.436   68.7  0.0615   46.5  0.3495  175.1
 1.800  0.6264  163.8   7.349   68.3  0.0621   46.3  0.3500  174.5
 1.820  0.6266  163.4   7.267   68.0  0.0626   46.3  0.3500  174.0
 1.840  0.6269  163.0   7.185   67.6  0.0631   46.3  0.3500  173.5
 1.860  0.6272  162.5   7.104   67.3  0.0635   46.4  0.3501  173.0
 1.880  0.6275  162.1   7.023   67.0  0.0640   46.4  0.3502  172.5
 1.900  0.6279  161.7   6.942   66.6  0.0645   46.4  0.3503  172.0
 1.920  0.6284  161.3   6.871   66.3  0.0650   46.3  0.3506  171.5
 1.940  0.6289  160.9   6.800   65.9  0.0655   46.2  0.3509  170.9
 1.960  0.6295  160.4   6.729   65.6  0.0660   46.0  0.3512  170.4
 1.980  0.6301  160.0   6.659   65.3  0.0665   45.9  0.3516  169.8
 2.000  0.6307  159.6   6.589   64.9  0.0670   45.8  0.3520  169.3
 2.020  0.6312  159.2   6.527   64.6  0.0675   45.6  0.3523  168.8
 2.040  0.6317  158.9   6.466   64.3  0.0680   45.4  0.3527  168.3
 2.060  0.6322  158.5   6.404   64.0  0.0685   45.2  0.3531  167.8
 2.080  0.6328  158.1   6.343   63.7  0.0690   45.0  0.3535  167.3
 2.100  0.6334  157.7   6.282   63.4  0.0695   44.9  0.3540  166.8
 2.120  0.6340  157.4   6.221   63.1  0.0701   44.7  0.3544  166.3
 2.140  0.6346  157.0   6.160   62.8  0.0706   44.5  0.3549  165.8
 2.160  0.6353  156.6   6.099   62.5  0.0711   44.3  0.3555  165.3
 2.180  0.6360  156.3   6.039   62.1  0.0716   44.2  0.3560  164.8
 2.200  0.6367  155.9   5.979   61.8  0.0721   44.0  0.3566  164.3
 2.220  0.6372  155.5   5.926   61.5  0.0726   43.9  0.3570  163.8
 2.240  0.6376  155.1   5.874   61.2  0.0732   43.7  0.3574  163.3
 2.260  0.6381  154.8   5.821   60.8  0.0737   43.6  0.3578  162.8
 2.280  0.6387  154.4   5.769   60.5  0.0743   43.5  0.3582  162.4
 2.300  0.6392  154.0   5.717   60.2  0.0748   43.3  0.3587  161.9
 2.320  0.6398  153.6   5.665   59.8  0.0754   43.2  0.3592  161.4
 2.340  0.6405  153.2   5.614   59.5  0.0759   43.1  0.3597  160.9
 2.360  0.6411  152.9   5.562   59.1  0.0765   42.9  0.3602  160.4
 2.380  0.6418  152.5   5.511   58.8  0.0770   42.8  0.3608  160.0
 2.400  0.6425  152.1   5.460   58.4  0.0776   42.7  0.3614  159.5
 2.420  0.6430  151.7   5.416   58.1  0.0780   42.5  0.3620  159.1
 2.440  0.6435  151.4   5.372   57.8  0.0785   42.4  0.3626  158.6
 2.460  0.6440  151.0   5.328   57.5  0.0789   42.2  0.3633  158.2
 2.480  0.6445  150.7   5.284   57.2  0.0794   42.1  0.3640  157.8
 2.500  0.6451  150.3   5.240   56.9  0.0798   41.9  0.3646  157.3
 2.520  0.6457  150.0   5.197   56.5  0.0803   41.8  0.3654  156.9
 2.540  0.6463  149.6   5.154   56.2  0.0807   41.6  0.3661  156.5
 2.560  0.6469  149.3   5.111   55.9  0.0812   41.5  0.3668  156.0
 2.580  0.6476  148.9   5.068   55.5  0.0816   41.3  0.3676  155.6
 2.600  0.6483  148.6   5.025   55.2  0.0821   41.2  0.3684  155.2
 2.620  0.6488  148.3   4.987   54.9  0.0826   41.0  0.3690  154.8
 2.640  0.6493  147.9   4.948   54.6  0.0831   40.8  0.3696  154.4
 2.660  0.6498  147.6   4.910   54.3  0.0835   40.5  0.3703  154.0
 2.680  0.6503  147.2   4.873   54.0  0.0840   40.3  0.3709  153.5
 2.700  0.6509  146.9   4.835   53.7  0.0845   40.1  0.3716  153.1
 2.720  0.6514  146.6   4.797   53.4  0.0850   39.9  0.3723  152.7
 2.740  0.6520  146.2   4.760   53.1  0.0854   39.7  0.3730  152.3
 2.760  0.6527  145.9   4.722   52.8  0.0859   39.5  0.3738  151.9
 2.780  0.6533  145.5   4.685   52.4  0.0864   39.3  0.3745  151.5
 2.800  0.6540  145.2   4.648   52.1  0.0869   39.1  0.3753  151.1
 2.820  0.6545  144.9   4.615   51.8  0.0874   38.9  0.3760  150.7
 2.840  0.6551  144.6   4.582   51.5  0.0878   38.8  0.3768  150.3
 2.860  0.6556  144.2   4.550   51.2  0.0883   38.6  0.3776  149.9
 2.880  0.6562  143.9   4.517   50.9  0.0887   38.4  0.3784  149.5
 2.900  0.6568  143.6   4.485   50.6  0.0892   38.3  0.3792  149.1
 2.920  0.6574  143.3   4.453   50.3  0.0897   38.1  0.3800  148.7
 2.940  0.6581  143.0   4.421   50.0  0.0901   38.0  0.3809  148.4
 2.960  0.6587  142.6   4.389   49.7  0.0906   37.8  0.3817  148.0
 2.980  0.6594  142.3   4.357   49.3  0.0910   37.7  0.3826  147.6
 3.000  0.6601  142.0   4.325   49.0  0.0915   37.5  0.3835  147.2
 3.100  0.6628  140.4   4.186   47.7  0.0937   36.5  0.3877  145.5
 3.200  0.6660  138.7   4.050   46.3  0.0959   35.5  0.3922  143.8
 3.300  0.6698  137.1   3.917   44.7  0.0982   34.6  0.3970  142.1
 3.400  0.6740  135.6   3.786   43.1  0.1005   33.7  0.4022  140.5
 3.500  0.6788  134.0   3.659   41.4  0.1028   32.9  0.4077  138.9
 3.600  0.6825  132.5   3.552   40.1  0.1046   31.8  0.4128  137.4
 3.700  0.6867  130.9   3.446   38.7  0.1065   30.7  0.4182  135.9
 3.800  0.6913  129.4   3.343   37.2  0.1085   29.7  0.4239  134.4
 3.900  0.6964  128.0   3.242   35.6  0.1104   28.7  0.4298  133.0
 4.000  0.7020  126.5   3.144   33.9  0.1124   27.7  0.4360  131.6
 4.100  0.7055  125.2   3.059   32.7  0.1140   26.7  0.4409  130.3
 4.200  0.7094  123.9   2.975   31.4  0.1157   25.7  0.4459  129.1
 4.300  0.7136  122.7   2.893   30.1  0.1174   24.7  0.4512  127.9
 4.400  0.7181  121.4   2.813   28.6  0.1191   23.8  0.4567  126.7
 4.500  0.7230  120.2   2.734   27.1  0.1209   22.9  0.4623  125.6
 4.600  0.7253  119.1   2.668   26.0  0.1226   22.0  0.4656  124.4
 4.700  0.7280  117.9   2.604   24.8  0.1243   21.1  0.4692  123.2
 4.800  0.7309  116.8   2.540   23.5  0.1260   20.2  0.4729  122.1
 4.900  0.7340  115.7   2.478   22.2  0.1278   19.4  0.4768  120.9
 5.000  0.7375  114.6   2.417   20.8  0.1296   18.6  0.4809  119.8
 5.100  0.7383  113.5   2.365   19.7  0.1313   17.7  0.4831  118.6
 5.200  0.7394  112.5   2.314   18.5  0.1329   16.8  0.4855  117.3
 5.300  0.7408  111.4   2.263   17.3  0.1347   16.0  0.4881  116.1
 5.400  0.7424  110.4   2.214   16.0  0.1364   15.1  0.4909  114.9
 5.500  0.7442  109.3   2.166   14.7  0.1382   14.3  0.4940  113.7
 5.600  0.7449  108.4   2.124   13.6  0.1398   13.4  0.4966  112.4
 5.700  0.7458  107.5   2.082   12.4  0.1415   12.4  0.4994  111.1
 5.800  0.7468  106.6   2.042   11.2  0.1432   11.5  0.5025  109.9
 5.900  0.7481  105.7   2.002    9.9  0.1449   10.7  0.5058  108.6
 6.000  0.7495  104.8   1.964    8.6  0.1467    9.8  0.5093  107.4
 6.100  0.7518  103.9   1.932    7.5  0.1484    8.8  0.5125  106.4
 6.200  0.7543  103.0   1.901    6.3  0.1502    7.8  0.5159  105.4
 6.300  0.7570  102.1   1.871    5.1  0.1521    6.8  0.5195  104.4
 6.400  0.7599  101.3   1.841    3.8  0.1540    5.8  0.5232  103.5
 6.500  0.7629  100.4   1.813    2.5  0.1559    4.9  0.5270  102.5
 6.600  0.7653   99.3   1.783    1.2  0.1573    3.8  0.5300  101.6
 6.800  0.7710   97.3   1.727   -1.4  0.1602    1.5  0.5365   99.8
 7.000  0.7777   95.2   1.674   -4.2  0.1633   -0.6  0.5434   98.1
 7.200  0.7822   92.8   1.616   -6.9  0.1652   -2.9  0.5503   95.9
 7.400  0.7881   90.4   1.562   -9.8  0.1673   -5.1  0.5579   93.8
 7.600  0.7936   87.9   1.508  -12.5  0.1690   -7.3  0.5660   91.5
 7.800  0.7987   85.3   1.453  -15.1  0.1701   -9.4  0.5748   88.9
 8.000  0.8055   82.8   1.401  -17.9  0.1714  -11.5  0.5848   86.4
 8.200  0.8107   80.2   1.347  -20.3  0.1717  -13.5  0.5947   83.9
 8.400  0.8176   77.7   1.296  -22.8  0.1722  -15.6  0.6058   81.4
 8.600  0.8242   75.2   1.247  -25.2  0.1725  -17.6  0.6175   79.0
 8.800  0.8305   72.9   1.199  -27.4  0.1725  -19.5  0.6299   76.6
 9.000  0.8381   70.6   1.153  -29.7  0.1728  -21.4  0.6433   74.4
 9.200  0.8450   68.8   1.107  -31.5  0.1714  -23.0  0.6556   72.3
 9.400  0.8528   67.0   1.063  -33.5  0.1702  -24.7  0.6688   70.3
 9.600  0.8609   65.5   1.023  -35.2  0.1693  -26.1  0.6809   68.8
 9.800  0.8689   64.3   0.987  -36.5  0.1688  -27.2  0.6914   67.8
10.000  0.8773   63.2   0.952  -38.0  0.1684  -28.3  0.7022   66.8
!
!  f       NFmin   Gammaopt  rn/50
! GHz       dB    MAG  ANG    -
 0.450      0.81  0.09  148   1.85
 0.900      0.85  0.32 -170   0.08
 1.900      0.98  0.37 -157   0.07
 2.400      1.06  0.38 -146   0.07
 3.500      1.26  0.40 -123   0.13
!
! (c) 2016  Infineon Technologies AG, Munich
