! Infineon Technologies  Discrete & RF Semiconductors
! BFP720
! VCE =  4.0 V,  IC =  10 mA
! Common Emitter S-Parameters:                            Aug 2012
# GHz  S  MA  R  50
!  f         S11            S21            S12            S22
! GHz     MAG   ANG      MAG   ANG      MAG   ANG      MAG   ANG
 0.010  0.8517    0.3  24.836  179.4  0.0007  -15.7  0.9663    1.5
 0.020  0.8678   -1.0  24.693  177.7  0.0007   70.9  0.9869   -0.5
 0.030  0.8667   -1.7  24.740  177.3  0.0011   68.6  0.9875   -1.0
 0.040  0.8657   -2.3  24.789  176.9  0.0015   67.5  0.9881   -1.4
 0.050  0.8648   -3.0  24.838  176.5  0.0019   66.9  0.9888   -1.8
 0.060  0.8645   -3.6  24.790  176.0  0.0022   70.3  0.9886   -2.2
 0.070  0.8643   -4.3  24.744  175.6  0.0025   72.9  0.9885   -2.7
 0.080  0.8642   -4.9  24.699  175.1  0.0028   74.9  0.9885   -3.1
 0.090  0.8642   -5.6  24.656  174.7  0.0031   76.6  0.9885   -3.5
 0.100  0.8644   -6.3  24.614  174.2  0.0034   78.0  0.9886   -4.0
 0.110  0.8635   -6.9  24.583  173.7  0.0037   78.3  0.9879   -4.3
 0.120  0.8626   -7.5  24.554  173.2  0.0040   78.6  0.9873   -4.7
 0.130  0.8619   -8.1  24.528  172.6  0.0044   78.9  0.9867   -5.1
 0.140  0.8612   -8.7  24.503  172.1  0.0047   79.1  0.9862   -5.5
 0.150  0.8607   -9.4  24.480  171.6  0.0050   79.3  0.9857   -5.9
 0.200  0.8574  -12.4  24.212  169.1  0.0067   79.1  0.9813   -7.9
 0.250  0.8525  -15.5  24.030  166.6  0.0084   78.2  0.9763   -9.8
 0.300  0.8470  -18.6  23.763  164.3  0.0100   76.6  0.9696  -11.7
 0.350  0.8408  -21.7  23.524  162.0  0.0116   75.6  0.9633  -13.7
 0.400  0.8350  -24.7  23.318  159.8  0.0131   74.1  0.9550  -15.5
 0.450  0.8282  -27.7  23.050  157.5  0.0147   72.6  0.9483  -17.4
 0.500  0.8211  -30.7  22.807  155.5  0.0162   71.1  0.9396  -19.2
 0.600  0.8058  -36.8  22.359  151.3  0.0192   68.3  0.9202  -22.8
 0.700  0.7900  -42.8  21.877  147.2  0.0220   65.3  0.9005  -26.4
 0.800  0.7715  -49.1  21.523  143.2  0.0247   62.5  0.8794  -29.9
 0.900  0.7555  -54.9  20.976  139.3  0.0272   59.5  0.8556  -33.2
 1.000  0.7381  -60.8  20.453  135.5  0.0295   56.7  0.8309  -36.5
 1.100  0.7207  -66.6  19.927  131.7  0.0316   53.9  0.8053  -39.7
 1.200  0.7028  -72.4  19.399  128.1  0.0335   51.4  0.7799  -42.7
 1.300  0.6857  -78.1  18.867  124.5  0.0353   48.8  0.7538  -45.7
 1.400  0.6695  -83.6  18.312  121.0  0.0369   46.5  0.7277  -48.5
 1.500  0.6537  -89.0  17.787  117.6  0.0383   44.3  0.7016  -51.1
 1.600  0.6374  -94.6  17.316  114.1  0.0396   42.1  0.6770  -53.6
 1.700  0.6239  -99.6  16.757  111.1  0.0407   40.1  0.6524  -56.0
 1.800  0.6124 -104.2  16.223  108.1  0.0417   38.2  0.6296  -58.3
 1.900  0.6009 -108.8  15.700  105.2  0.0426   36.5  0.6079  -60.5
 2.000  0.5918 -113.1  15.200  102.5  0.0434   34.8  0.5875  -62.6
 2.100  0.5822 -117.1  14.713  100.0  0.0441   33.3  0.5683  -64.4
 2.200  0.5755 -121.1  14.257   97.2  0.0448   31.9  0.5496  -66.3
 2.300  0.5685 -124.8  13.815   94.9  0.0454   30.6  0.5331  -68.1
 2.400  0.5638 -128.5  13.396   92.4  0.0459   29.3  0.5171  -70.0
 2.500  0.5573 -131.9  13.001   90.2  0.0464   28.2  0.5024  -71.6
 2.600  0.5529 -135.3  12.628   87.8  0.0469   27.0  0.4880  -73.2
 2.700  0.5483 -138.5  12.270   85.7  0.0473   26.0  0.4750  -74.8
 2.800  0.5456 -141.8  11.930   83.5  0.0477   25.0  0.4623  -76.5
 2.900  0.5410 -144.9  11.608   81.4  0.0480   24.1  0.4505  -78.1
 3.000  0.5381 -148.0  11.301   79.3  0.0484   23.2  0.4390  -79.7
 3.100  0.5323 -151.1  11.009   77.5  0.0486   22.4  0.4276  -81.1
 3.200  0.5281 -154.1  10.727   75.6  0.0489   21.7  0.4165  -82.6
 3.300  0.5253 -157.2  10.458   73.7  0.0492   20.9  0.4056  -84.2
 3.400  0.5242 -160.4  10.202   71.6  0.0494   20.1  0.3951  -85.9
 3.500  0.5246 -163.5   9.961   69.4  0.0497   19.4  0.3850  -87.7
 3.600  0.5209 -166.6   9.721   67.7  0.0499   18.8  0.3744  -89.3
 3.700  0.5188 -169.7   9.491   65.9  0.0501   18.2  0.3640  -91.0
 3.800  0.5182 -172.9   9.271   64.0  0.0503   17.6  0.3541  -92.9
 3.900  0.5192 -176.0   9.061   62.1  0.0505   17.0  0.3445  -94.8
 4.000  0.5217 -179.1   8.862   60.0  0.0508   16.4  0.3353  -96.8
 4.100  0.5212  178.0   8.658   58.4  0.0509   15.8  0.3251  -98.9
 4.200  0.5220  175.2   8.462   56.7  0.0511   15.3  0.3155 -101.2
 4.300  0.5240  172.3   8.273   54.9  0.0512   14.8  0.3063 -103.5
 4.400  0.5273  169.5   8.093   53.0  0.0514   14.3  0.2977 -106.0
 4.500  0.5319  166.8   7.922   51.1  0.0516   13.8  0.2897 -108.7
 4.600  0.5339  164.4   7.741   49.5  0.0516   13.4  0.2817 -111.2
 4.700  0.5369  162.0   7.566   47.9  0.0517   13.0  0.2743 -113.9
 4.800  0.5407  159.7   7.397   46.2  0.0518   12.6  0.2675 -116.7
 4.900  0.5455  157.4   7.235   44.5  0.0519   12.1  0.2615 -119.7
 5.000  0.5510  155.2   7.080   42.6  0.0520   11.7  0.2562 -122.8
 5.100  0.5541  153.3   6.928   41.2  0.0521   11.5  0.2523 -125.3
 5.200  0.5577  151.5   6.780   39.8  0.0521   11.2  0.2489 -127.9
 5.300  0.5618  149.8   6.637   38.2  0.0522   10.9  0.2460 -130.6
 5.400  0.5665  148.0   6.498   36.6  0.0522   10.6  0.2437 -133.3
 5.500  0.5717  146.3   6.365   35.0  0.0523   10.4  0.2419 -136.0
 5.600  0.5742  145.0   6.239   33.6  0.0524   10.2  0.2419 -137.9
 5.700  0.5770  143.6   6.117   32.3  0.0524   10.1  0.2421 -139.7
 5.800  0.5802  142.3   5.999   30.8  0.0525   10.0  0.2425 -141.6
 5.900  0.5836  141.0   5.884   29.4  0.0526    9.8  0.2432 -143.4
 6.000  0.5874  139.7   5.774   27.8  0.0526    9.7  0.2442 -145.2
 6.100  0.5876  138.5   5.670   26.6  0.0528    9.7  0.2448 -146.0
 6.200  0.5881  137.4   5.569   25.2  0.0530    9.8  0.2455 -146.9
 6.300  0.5889  136.3   5.470   23.9  0.0532    9.8  0.2463 -147.7
 6.400  0.5898  135.2   5.375   22.5  0.0534    9.8  0.2471 -148.6
 6.500  0.5910  134.0   5.284   21.0  0.0536    9.9  0.2479 -149.4
 6.600  0.5896  133.0   5.199   19.8  0.0540   10.0  0.2466 -149.6
 6.700  0.5884  131.9   5.116   18.5  0.0544   10.1  0.2453 -149.9
 6.800  0.5874  130.8   5.036   17.2  0.0548   10.2  0.2440 -150.1
 6.900  0.5866  129.8   4.959   15.9  0.0552   10.3  0.2427 -150.4
 7.000  0.5861  128.7   4.884   14.5  0.0556   10.4  0.2414 -150.6
 7.100  0.5858  127.4   4.820   13.3  0.0563   10.3  0.2393 -151.2
 7.200  0.5858  126.2   4.758   12.0  0.0570   10.2  0.2371 -151.8
 7.300  0.5861  125.0   4.698   10.6  0.0577   10.1  0.2350 -152.4
 7.400  0.5867  123.8   4.641    9.3  0.0584   10.0  0.2329 -153.0
 7.500  0.5875  122.5   4.587    7.9  0.0591    9.9  0.2309 -153.6
 7.600  0.5895  120.9   4.529    6.4  0.0598    9.5  0.2285 -155.5
 7.700  0.5920  119.3   4.475    4.9  0.0605    9.1  0.2263 -157.4
 7.800  0.5949  117.7   4.423    3.4  0.0612    8.7  0.2244 -159.4
 7.900  0.5983  116.2   4.375    1.9  0.0620    8.3  0.2228 -161.4
 8.000  0.6021  114.6   4.330    0.3  0.0627    7.9  0.2215 -163.4
 8.500  0.6280  105.6   4.023   -7.7  0.0654    5.7  0.2284  166.5
 9.000  0.6630   97.4   3.710  -15.3  0.0685    3.4  0.2568  149.1
 9.500  0.7092   90.6   3.408  -22.7  0.0712    0.2  0.3094  134.8
10.000  0.7538   84.6   3.095  -29.8  0.0721   -3.1  0.3721  123.6
10.500  0.7783   80.4   2.788  -35.2  0.0731   -4.8  0.4272  116.0
11.000  0.7934   78.8   2.587  -39.2  0.0754   -6.4  0.4711  111.7
11.500  0.8250   78.3   2.463  -44.5  0.0786   -9.1  0.5177  109.4
12.000  0.8543   76.6   2.315  -51.3  0.0801  -12.7  0.5634  106.6
!
!  f       NFmin   Gammaopt  rn/50
! GHz       dB    MAG  ANG    -
 0.450      0.53  0.29    1   0.21
 1.800      0.58  0.26   18   0.12
 2.400      0.64  0.23   38   0.29
 5.500      0.78  0.11   20   0.14
10.000      0.97  0.40  -78   0.22
!
! (c) 2012  Infineon Technologies AG, Munich
