! Infineon Technologies  Discrete & RF Semiconductors
! BFP780
! VCE =  3.0 V,  IC =  52 mA
! Common Emitter S-Parameters:                            Jul 2015
# GHz  S  MA  R  50
!  f         S11            S21            S12            S22
! GHz     MAG   ANG      MAG   ANG      MAG   ANG      MAG   ANG
 0.030  0.5125  -33.5  73.009  166.7  0.0055   77.0  0.9699  -18.8
 0.040  0.5242  -43.4  71.557  162.4  0.0076   74.0  0.9545  -25.0
 0.050  0.5360  -52.8  69.990  157.9  0.0091   70.3  0.9400  -31.0
 0.060  0.5563  -61.7  68.175  154.1  0.0113   63.8  0.9151  -36.6
 0.070  0.5692  -69.7  66.122  150.3  0.0134   60.4  0.8954  -42.3
 0.080  0.5871  -76.8  64.007  146.7  0.0138   60.5  0.8758  -47.3
 0.090  0.6006  -83.4  61.762  143.4  0.0148   56.1  0.8501  -52.3
 0.100  0.6163  -89.4  59.542  140.5  0.0161   56.5  0.8285  -57.0
 0.110  0.6282  -94.9  57.332  137.5  0.0169   52.1  0.8053  -61.6
 0.120  0.6415  -99.9  55.226  134.8  0.0173   50.6  0.7858  -65.8
 0.130  0.6529 -104.5  53.197  132.3  0.0179   47.1  0.7638  -69.7
 0.140  0.6634 -108.7  51.139  129.9  0.0193   44.1  0.7442  -73.6
 0.150  0.6726 -112.5  49.278  127.8  0.0200   42.4  0.7275  -77.1
 0.200  0.7106 -127.4  41.039  118.8  0.0215   37.5  0.6521  -92.5
 0.250  0.7314 -137.9  34.809  112.1  0.0230   32.7  0.6017 -104.6
 0.300  0.7459 -145.7  29.954  106.9  0.0244   29.1  0.5628 -114.5
 0.350  0.7558 -151.7  26.203  102.7  0.0248   26.5  0.5360 -122.5
 0.400  0.7636 -156.4  23.240   99.3  0.0253   24.4  0.5176 -129.1
 0.450  0.7672 -160.2  20.858   96.3  0.0257   23.0  0.5036 -134.5
 0.500  0.7699 -163.6  18.890   93.7  0.0263   22.6  0.4920 -139.4
 0.600  0.7769 -169.0  15.865   89.2  0.0269   21.3  0.4788 -147.2
 0.700  0.7780 -173.4  13.644   85.3  0.0271   20.4  0.4685 -153.3
 0.800  0.7832 -177.0  11.971   81.9  0.0278   20.3  0.4655 -158.3
 0.900  0.7843  179.8  10.646   78.8  0.0283   20.2  0.4620 -162.5
 1.000  0.7883  177.0   9.588   75.8  0.0288   20.4  0.4638 -165.9
 1.100  0.7879  174.4   8.697   73.0  0.0292   20.6  0.4633 -169.2
 1.200  0.7926  172.1   7.981   70.4  0.0297   20.6  0.4671 -171.8
 1.300  0.7924  169.8   7.353   67.8  0.0304   20.8  0.4680 -174.4
 1.400  0.7952  167.8   6.817   65.2  0.0308   21.1  0.4725 -176.6
 1.500  0.7952  165.8   6.349   62.8  0.0314   21.2  0.4752 -178.8
 1.600  0.7990  163.8   5.946   60.3  0.0321   21.3  0.4805  179.3
 1.700  0.7986  161.9   5.580   57.8  0.0326   21.7  0.4845  177.4
 1.800  0.7995  160.1   5.248   55.4  0.0330   21.6  0.4900  175.6
 1.900  0.8005  158.4   4.954   53.2  0.0337   21.7  0.4948  173.9
 2.000  0.8043  156.6   4.704   50.9  0.0343   21.6  0.5006  172.3
 2.100  0.8046  155.0   4.453   48.5  0.0347   21.6  0.5007  171.1
 2.200  0.8045  153.3   4.229   46.2  0.0353   21.9  0.5049  169.5
 2.300  0.8060  151.8   4.031   44.0  0.0358   22.1  0.5084  167.9
 2.400  0.8088  150.1   3.852   41.7  0.0365   21.8  0.5130  166.3
 2.500  0.8101  148.5   3.683   39.4  0.0372   21.7  0.5177  164.7
 2.600  0.8107  146.8   3.517   37.1  0.0376   22.0  0.5225  163.1
 2.700  0.8104  145.3   3.365   35.0  0.0382   22.1  0.5270  161.6
 2.800  0.8129  143.6   3.227   32.8  0.0387   22.0  0.5326  160.0
 2.900  0.8142  142.0   3.095   30.5  0.0393   21.8  0.5391  158.5
 3.000  0.8160  140.5   2.971   28.3  0.0399   21.7  0.5447  156.9
 3.100  0.8170  139.1   2.852   26.3  0.0405   21.8  0.5507  155.4
 3.200  0.8182  137.6   2.742   24.1  0.0412   21.6  0.5564  153.9
 3.300  0.8187  136.1   2.636   22.1  0.0418   21.4  0.5631  152.6
 3.400  0.8207  134.6   2.538   20.0  0.0424   21.4  0.5694  151.2
 3.500  0.8222  133.3   2.447   18.1  0.0431   20.9  0.5756  149.8
 3.600  0.8230  131.7   2.355   16.0  0.0438   21.0  0.5819  148.4
 3.700  0.8247  130.4   2.275   14.0  0.0443   20.9  0.5877  147.2
 3.800  0.8257  128.9   2.190   12.1  0.0450   20.4  0.5943  145.7
 3.900  0.8277  127.7   2.119   10.2  0.0456   20.3  0.6007  144.5
 4.000  0.8296  126.3   2.046    8.4  0.0461   19.9  0.6071  143.3
 4.100  0.8315  125.0   1.980    6.4  0.0469   19.7  0.6134  142.2
 4.200  0.8338  123.8   1.914    4.6  0.0475   19.6  0.6197  140.9
 4.300  0.8354  122.5   1.854    2.7  0.0484   19.3  0.6264  139.9
 4.400  0.8380  121.4   1.795    0.9  0.0489   18.8  0.6326  138.7
 4.500  0.8398  120.1   1.741   -0.9  0.0496   18.7  0.6385  137.6
 4.600  0.8426  119.0   1.687   -2.7  0.0504   18.3  0.6444  136.5
 4.700  0.8439  117.8   1.636   -4.5  0.0511   17.8  0.6496  135.3
 4.800  0.8459  116.8   1.586   -6.2  0.0518   17.5  0.6555  134.2
 4.900  0.8474  115.8   1.540   -7.9  0.0527   17.2  0.6601  133.1
 5.000  0.8491  114.7   1.496   -9.6  0.0533   16.8  0.6657  132.0
 5.100  0.8512  113.8   1.454  -11.4  0.0541   16.4  0.6700  130.9
 5.200  0.8518  112.8   1.413  -13.1  0.0549   15.8  0.6750  129.7
 5.300  0.8529  111.9   1.372  -14.8  0.0554   15.3  0.6791  128.6
 5.400  0.8541  110.9   1.335  -16.4  0.0562   14.9  0.6835  127.5
 5.500  0.8541  110.1   1.298  -17.9  0.0570   14.5  0.6867  126.4
 5.600  0.8547  109.3   1.264  -19.5  0.0578   14.2  0.6911  125.3
 5.700  0.8537  108.4   1.232  -21.2  0.0587   13.8  0.6951  124.1
 5.800  0.8548  107.5   1.200  -22.7  0.0596   13.1  0.6991  123.0
 5.900  0.8538  106.8   1.170  -24.2  0.0604   12.6  0.7031  121.9
 6.000  0.8544  105.7   1.140  -25.9  0.0614   11.9  0.7074  120.6
!
!  f       NFmin   Gammaopt  rn/50
! GHz       dB    MAG  ANG    -
!
! noise parameter not available yet for this operation point!
!
! (c) 2015  Infineon Technologies AG, Munich
