! Infineon Technologies  Discrete & RF Semiconductors
! BFP760
! VCE =  3.5 V,  IC =  55 mA
! Common Emitter S-Parameters:                            Nov 2012
# GHz  S  MA  R  50
!  f         S11            S21            S12            S22
! GHz     MAG   ANG      MAG   ANG      MAG   ANG      MAG   ANG
 0.030  0.4614  -13.0  82.672  173.6  0.0020   82.3  0.9561   -5.4
 0.040  0.4635  -17.0  82.392  171.5  0.0029   83.8  0.9577   -7.7
 0.050  0.4624  -21.2  82.585  168.6  0.0031   76.3  0.9526  -10.2
 0.060  0.4641  -25.7  81.905  166.4  0.0042   67.5  0.9478  -12.7
 0.070  0.4628  -29.6  81.290  164.2  0.0046   73.7  0.9424  -14.9
 0.080  0.4644  -33.3  80.298  162.1  0.0051   81.3  0.9368  -17.0
 0.090  0.4632  -37.0  79.301  160.1  0.0053   77.0  0.9266  -19.2
 0.100  0.4627  -40.9  78.191  158.0  0.0060   74.2  0.9161  -21.4
 0.110  0.4628  -44.6  77.016  156.1  0.0064   74.9  0.9047  -23.5
 0.120  0.4619  -48.2  75.868  154.2  0.0072   73.4  0.8921  -25.4
 0.130  0.4621  -51.5  74.634  152.4  0.0077   70.5  0.8804  -27.3
 0.140  0.4627  -54.7  73.443  150.7  0.0083   69.2  0.8668  -29.2
 0.150  0.4621  -58.1  72.282  148.9  0.0085   69.4  0.8538  -31.0
 0.200  0.4672  -72.4  66.010  141.4  0.0109   64.6  0.7889  -39.0
 0.250  0.4733  -84.1  60.261  135.3  0.0128   62.2  0.7288  -45.9
 0.300  0.4794  -94.1  54.971  130.1  0.0142   59.4  0.6766  -51.8
 0.350  0.4887 -102.6  50.339  125.8  0.0157   56.2  0.6299  -57.0
 0.400  0.4991 -109.8  46.433  122.2  0.0170   54.2  0.5890  -61.8
 0.450  0.5093 -115.8  42.978  119.0  0.0183   53.0  0.5547  -66.2
 0.500  0.5177 -121.3  39.999  116.1  0.0194   51.1  0.5231  -70.4
 0.600  0.5369 -130.6  35.061  111.2  0.0212   48.7  0.4716  -77.9
 0.700  0.5525 -138.0  31.165  107.1  0.0229   46.7  0.4303  -84.8
 0.800  0.5674 -144.3  27.998  103.5  0.0243   45.0  0.3970  -91.3
 0.900  0.5790 -149.8  25.405  100.3  0.0256   43.7  0.3693  -97.4
 1.000  0.5896 -154.5  23.227   97.5  0.0266   42.8  0.3475 -103.1
 1.100  0.5982 -158.7  21.368   94.8  0.0277   42.0  0.3289 -108.5
 1.200  0.6068 -162.4  19.790   92.4  0.0286   41.5  0.3146 -113.4
 1.300  0.6133 -165.9  18.410   90.1  0.0295   41.3  0.3018 -118.3
 1.400  0.6201 -168.9  17.208   88.0  0.0304   40.6  0.2925 -122.7
 1.500  0.6259 -171.8  16.152   86.0  0.0314   40.6  0.2836 -127.1
 1.600  0.6320 -174.4  15.226   84.1  0.0321   40.3  0.2779 -131.0
 1.700  0.6369 -177.0  14.381   82.1  0.0331   40.2  0.2715 -135.0
 1.800  0.6422 -179.4  13.626   80.3  0.0339   40.0  0.2687 -138.8
 1.900  0.6468  178.4  12.936   78.5  0.0346   40.0  0.2648 -142.5
 2.000  0.6516  176.3  12.321   76.8  0.0355   40.0  0.2636 -146.0
 2.100  0.6550  174.4  11.712   75.0  0.0362   39.8  0.2624 -149.1
 2.200  0.6582  172.4  11.180   73.4  0.0369   39.7  0.2614 -152.2
 2.300  0.6619  170.6  10.698   71.9  0.0378   39.5  0.2602 -155.2
 2.400  0.6652  168.8  10.253   70.3  0.0388   39.4  0.2601 -158.2
 2.500  0.6689  166.9   9.840   68.7  0.0394   39.4  0.2598 -161.1
 2.600  0.6720  165.2   9.449   67.1  0.0402   39.3  0.2602 -164.0
 2.700  0.6750  163.5   9.088   65.6  0.0412   39.1  0.2611 -166.7
 2.800  0.6781  161.9   8.748   64.2  0.0420   38.9  0.2630 -169.4
 2.900  0.6818  160.3   8.427   62.7  0.0427   38.8  0.2651 -172.0
 3.000  0.6852  158.7   8.134   61.1  0.0434   38.6  0.2682 -174.6
 3.100  0.6888  157.2   7.848   59.8  0.0443   38.4  0.2716 -176.8
 3.200  0.6924  155.8   7.584   58.4  0.0452   38.3  0.2747 -179.0
 3.300  0.6960  154.2   7.329   57.0  0.0460   38.1  0.2786  178.8
 3.400  0.6998  152.8   7.088   55.6  0.0467   37.7  0.2830  176.8
 3.500  0.7036  151.4   6.864   54.3  0.0475   37.7  0.2871  174.8
 3.600  0.7074  150.0   6.647   52.9  0.0481   37.3  0.2917  172.9
 3.700  0.7109  148.7   6.442   51.6  0.0490   37.2  0.2966  171.0
 3.800  0.7140  147.3   6.238   50.3  0.0497   36.8  0.3019  169.3
 3.900  0.7177  146.1   6.054   49.0  0.0504   36.7  0.3068  167.7
 4.000  0.7211  144.8   5.874   47.8  0.0512   36.2  0.3122  166.1
 4.100  0.7252  143.7   5.708   46.6  0.0518   36.2  0.3176  164.8
 4.200  0.7281  142.6   5.543   45.4  0.0526   35.8  0.3223  163.4
 4.300  0.7313  141.5   5.386   44.2  0.0532   35.7  0.3276  162.2
 4.400  0.7347  140.5   5.240   43.1  0.0539   35.4  0.3322  161.1
 4.500  0.7375  139.5   5.101   41.9  0.0547   35.1  0.3370  160.0
 4.600  0.7410  138.5   4.968   40.8  0.0554   34.9  0.3411  158.9
 4.700  0.7435  137.7   4.841   39.7  0.0561   34.6  0.3458  157.8
 4.800  0.7463  136.8   4.717   38.6  0.0568   34.5  0.3497  156.8
 4.900  0.7488  136.0   4.602   37.5  0.0575   34.1  0.3540  155.8
 5.000  0.7515  135.3   4.491   36.4  0.0582   33.9  0.3576  154.9
 5.100  0.7539  134.5   4.386   35.3  0.0589   33.5  0.3616  153.9
 5.200  0.7561  133.7   4.288   34.2  0.0597   33.4  0.3648  152.9
 5.300  0.7580  133.0   4.189   33.2  0.0603   33.2  0.3682  152.0
 5.400  0.7597  132.2   4.095   32.1  0.0610   32.8  0.3717  151.0
 5.500  0.7608  131.5   4.004   31.1  0.0617   32.5  0.3743  150.2
 5.600  0.7616  131.0   3.917   30.1  0.0625   32.3  0.3769  149.1
 5.700  0.7633  130.3   3.839   29.0  0.0632   32.0  0.3808  148.1
 5.800  0.7643  129.6   3.759   28.0  0.0640   31.8  0.3831  147.2
 5.900  0.7659  129.0   3.683   27.0  0.0649   31.5  0.3865  146.2
 6.000  0.7677  128.3   3.612   25.9  0.0656   31.2  0.3900  145.3
 6.100  0.7696  127.8   3.545   24.9  0.0666   30.9  0.3939  144.5
 6.200  0.7707  126.9   3.477   23.8  0.0673   30.4  0.3966  143.6
 6.300  0.7734  126.3   3.412   22.8  0.0683   30.0  0.4007  142.8
 6.400  0.7751  125.5   3.350   21.7  0.0689   29.4  0.4044  141.8
 6.500  0.7772  124.7   3.288   20.6  0.0698   29.0  0.4081  141.0
 6.600  0.7800  123.9   3.232   19.5  0.0705   28.5  0.4116  140.1
 6.700  0.7818  123.2   3.173   18.5  0.0713   28.1  0.4155  139.3
 6.800  0.7828  122.3   3.116   17.4  0.0720   27.6  0.4190  138.4
 6.900  0.7859  121.4   3.061   16.3  0.0729   27.0  0.4233  137.5
 7.000  0.7878  120.5   3.012   15.2  0.0735   26.5  0.4269  136.8
 7.100  0.7903  119.6   2.961   14.1  0.0744   26.0  0.4323  135.9
 7.200  0.7928  118.6   2.911   12.9  0.0752   25.4  0.4363  135.2
 7.300  0.7947  117.8   2.861   11.9  0.0758   24.9  0.4408  134.3
 7.400  0.7974  116.7   2.814   10.6  0.0765   24.2  0.4453  133.4
 7.500  0.8009  115.8   2.768    9.4  0.0772   23.6  0.4501  132.5
 7.600  0.8039  114.8   2.720    8.2  0.0779   22.8  0.4550  131.5
 7.700  0.8069  113.9   2.674    7.1  0.0784   22.2  0.4600  130.7
 7.800  0.8106  112.8   2.624    5.8  0.0789   21.4  0.4660  129.5
 7.900  0.8139  111.9   2.580    4.6  0.0794   20.8  0.4714  128.5
 8.000  0.8181  110.9   2.529    3.4  0.0798   20.0  0.4779  127.4
 8.500  0.8384  106.0   2.285   -2.7  0.0809   16.4  0.5103  121.9
 9.000  0.8566  101.8   2.037   -8.1  0.0803   13.4  0.5493  116.7
 9.500  0.8733   98.6   1.812  -12.1  0.0793   11.8  0.5868  112.9
10.000  0.8867   96.7   1.629  -14.9  0.0791   11.0  0.6202  111.3
!
!  f       NFmin   Gammaopt  rn/50
! GHz       dB    MAG  ANG    -
!
! noise parameter not available yet for this operation point!
!
! (c) 2012  Infineon Technologies AG, Munich
