! Infineon Technologies  Discrete & RF Semiconductors
! BFP740ESD
! VCE =  3.0 V,  IC =  30 mA
! Common Emitter S-Parameters:                            Jan 2016
# GHz  S  MA  R  50
!  f         S11            S21            S12            S22
! GHz     MAG   ANG      MAG   ANG      MAG   ANG      MAG   ANG
 0.010  0.6805   -1.6  59.124 -179.7  0.0007   96.3  0.9451    5.3
 0.015  0.6781   -2.5  58.700  178.7  0.0009   96.0  0.9583    2.2
 0.020  0.6758   -3.5  58.322  177.1  0.0011   95.8  0.9744   -0.9
 0.025  0.6743   -4.4  58.259  176.5  0.0013   93.1  0.9756   -1.5
 0.030  0.6729   -5.3  58.204  175.8  0.0015   91.0  0.9769   -2.0
 0.035  0.6717   -6.2  58.156  175.2  0.0016   89.5  0.9783   -2.6
 0.040  0.6706   -7.1  58.116  174.5  0.0018   88.2  0.9798   -3.2
 0.045  0.6697   -8.0  58.083  173.9  0.0020   87.2  0.9814   -3.7
 0.050  0.6690   -8.9  58.058  173.2  0.0022   86.3  0.9831   -4.3
 0.055  0.6679   -9.8  57.947  172.6  0.0024   85.7  0.9817   -4.9
 0.060  0.6671  -10.7  57.844  171.9  0.0026   85.2  0.9804   -5.4
 0.065  0.6663  -11.6  57.748  171.3  0.0028   84.7  0.9792   -6.0
 0.070  0.6657  -12.4  57.659  170.6  0.0030   84.3  0.9781   -6.6
 0.075  0.6653  -13.3  57.578  170.0  0.0032   84.0  0.9770   -7.1
 0.080  0.6651  -14.2  57.504  169.3  0.0035   83.7  0.9761   -7.7
 0.085  0.6650  -15.1  57.438  168.7  0.0037   83.4  0.9753   -8.3
 0.090  0.6651  -16.0  57.379  168.0  0.0039   83.2  0.9746   -8.9
 0.095  0.6653  -16.9  57.328  167.4  0.0041   83.0  0.9739   -9.4
 0.100  0.6657  -17.8  57.284  166.7  0.0043   82.8  0.9734  -10.0
 0.105  0.6635  -18.6  57.065  166.1  0.0045   82.1  0.9707  -10.5
 0.110  0.6615  -19.4  56.852  165.5  0.0047   81.6  0.9682  -11.0
 0.115  0.6596  -20.3  56.646  164.8  0.0049   81.0  0.9656  -11.5
 0.120  0.6578  -21.1  56.447  164.2  0.0051   80.5  0.9632  -12.0
 0.125  0.6562  -22.0  56.255  163.6  0.0053   80.0  0.9608  -12.5
 0.130  0.6548  -22.8  56.070  162.9  0.0056   79.6  0.9586  -13.0
 0.135  0.6534  -23.6  55.892  162.3  0.0058   79.2  0.9564  -13.5
 0.140  0.6522  -24.5  55.722  161.6  0.0060   78.9  0.9542  -14.1
 0.145  0.6512  -25.3  55.558  161.0  0.0062   78.5  0.9522  -14.6
 0.150  0.6503  -26.2  55.402  160.3  0.0064   78.2  0.9502  -15.1
 0.155  0.6484  -27.0  55.157  159.8  0.0066   77.7  0.9471  -15.5
 0.160  0.6466  -27.8  54.917  159.2  0.0068   77.3  0.9441  -16.0
 0.165  0.6449  -28.6  54.682  158.7  0.0070   76.9  0.9411  -16.4
 0.170  0.6433  -29.4  54.452  158.1  0.0072   76.5  0.9382  -16.9
 0.175  0.6419  -30.2  54.227  157.6  0.0073   76.1  0.9353  -17.3
 0.180  0.6406  -31.0  54.007  157.0  0.0075   75.8  0.9325  -17.8
 0.185  0.6394  -31.8  53.792  156.4  0.0077   75.4  0.9298  -18.2
 0.190  0.6383  -32.6  53.583  155.9  0.0079   75.1  0.9271  -18.7
 0.195  0.6374  -33.4  53.379  155.3  0.0081   74.8  0.9245  -19.1
 0.200  0.6366  -34.2  53.181  154.7  0.0083   74.5  0.9219  -19.6
 0.220  0.6288  -37.1  52.089  152.6  0.0090   73.1  0.9088  -21.2
 0.240  0.6227  -40.1  51.067  150.5  0.0097   71.8  0.8965  -22.9
 0.260  0.6166  -43.0  50.102  148.5  0.0103   70.7  0.8840  -24.5
 0.280  0.6104  -45.8  49.173  146.8  0.0109   69.5  0.8710  -26.0
 0.300  0.6057  -48.7  48.293  144.9  0.0115   68.5  0.8586  -27.5
 0.320  0.5992  -51.4  47.329  143.3  0.0121   67.3  0.8456  -28.9
 0.340  0.5941  -54.1  46.402  141.7  0.0128   66.3  0.8331  -30.3
 0.360  0.5891  -56.7  45.495  140.1  0.0134   65.3  0.8207  -31.6
 0.380  0.5842  -59.1  44.601  138.6  0.0139   64.4  0.8084  -32.8
 0.400  0.5803  -61.6  43.739  137.0  0.0145   63.5  0.7964  -34.1
 0.420  0.5751  -64.0  42.899  135.7  0.0150   62.6  0.7845  -35.3
 0.440  0.5709  -66.4  42.084  134.3  0.0155   61.7  0.7729  -36.5
 0.450  0.5692  -67.6  41.685  133.6  0.0158   61.3  0.7673  -37.1
 0.460  0.5669  -68.7  41.289  133.0  0.0160   60.9  0.7615  -37.6
 0.480  0.5629  -71.1  40.513  131.7  0.0165   60.1  0.7500  -38.8
 0.500  0.5598  -73.4  39.757  130.4  0.0170   59.3  0.7388  -39.9
 0.520  0.5552  -75.5  39.042  129.3  0.0174   58.5  0.7279  -40.8
 0.540  0.5514  -77.6  38.342  128.2  0.0178   57.8  0.7171  -41.8
 0.560  0.5483  -79.7  37.657  127.0  0.0183   57.1  0.7066  -42.8
 0.580  0.5460  -81.8  36.987  125.8  0.0187   56.4  0.6963  -43.8
 0.600  0.5445  -84.0  36.335  124.6  0.0191   55.8  0.6862  -44.8
 0.620  0.5410  -85.9  35.730  123.7  0.0195   55.1  0.6766  -45.7
 0.640  0.5381  -87.8  35.135  122.7  0.0199   54.5  0.6672  -46.6
 0.660  0.5359  -89.8  34.550  121.7  0.0202   53.9  0.6579  -47.5
 0.680  0.5342  -91.7  33.976  120.7  0.0206   53.3  0.6488  -48.4
 0.700  0.5332  -93.7  33.413  119.6  0.0210   52.7  0.6399  -49.4
 0.720  0.5306  -95.4  32.877  118.8  0.0213   52.1  0.6312  -50.2
 0.740  0.5284  -97.1  32.348  117.9  0.0216   51.6  0.6225  -51.0
 0.760  0.5268  -98.8  31.827  117.0  0.0220   51.0  0.6140  -51.8
 0.780  0.5255 -100.5  31.314  116.1  0.0223   50.5  0.6056  -52.6
 0.800  0.5248 -102.2  30.810  115.1  0.0226   50.0  0.5974  -53.5
 0.820  0.5229 -103.8  30.358  114.3  0.0229   49.5  0.5897  -54.2
 0.840  0.5213 -105.4  29.913  113.5  0.0232   49.1  0.5821  -54.9
 0.860  0.5202 -107.0  29.473  112.7  0.0235   48.6  0.5746  -55.7
 0.880  0.5196 -108.7  29.040  111.8  0.0238   48.2  0.5672  -56.4
 0.900  0.5193 -110.3  28.614  110.9  0.0241   47.8  0.5599  -57.2
 0.920  0.5177 -111.8  28.204  110.2  0.0243   47.4  0.5526  -57.9
 0.940  0.5163 -113.2  27.798  109.4  0.0246   47.0  0.5454  -58.6
 0.960  0.5154 -114.7  27.396  108.7  0.0248   46.6  0.5383  -59.4
 0.980  0.5148 -116.2  27.000  107.9  0.0251   46.2  0.5312  -60.1
 1.000  0.5145 -117.7  26.609  107.1  0.0253   45.8  0.5243  -60.9
 1.020  0.5136 -119.0  26.251  106.4  0.0255   45.4  0.5181  -61.5
 1.040  0.5129 -120.3  25.897  105.8  0.0257   45.1  0.5120  -62.1
 1.060  0.5126 -121.6  25.546  105.1  0.0260   44.8  0.5059  -62.7
 1.080  0.5125 -122.9  25.200  104.3  0.0262   44.4  0.4999  -63.3
 1.100  0.5126 -124.2  24.857  103.6  0.0264   44.1  0.4939  -64.0
 1.120  0.5119 -125.4  24.540  103.0  0.0266   43.8  0.4881  -64.6
 1.140  0.5114 -126.7  24.226  102.3  0.0268   43.5  0.4824  -65.2
 1.160  0.5111 -127.9  23.916  101.6  0.0270   43.2  0.4767  -65.9
 1.180  0.5111 -129.2  23.608  100.9  0.0272   43.0  0.4711  -66.5
 1.200  0.5113 -130.4  23.305  100.2  0.0274   42.7  0.4655  -67.2
 1.220  0.5108 -131.5  23.020   99.6  0.0276   42.4  0.4604  -67.7
 1.240  0.5106 -132.6  22.737   99.0  0.0278   42.2  0.4554  -68.3
 1.260  0.5105 -133.8  22.456   98.4  0.0279   41.9  0.4504  -68.8
 1.280  0.5106 -134.9  22.179   97.8  0.0281   41.7  0.4454  -69.4
 1.300  0.5109 -136.0  21.904   97.1  0.0283   41.4  0.4405  -70.0
 1.320  0.5104 -137.0  21.642   96.5  0.0285   41.2  0.4359  -70.5
 1.340  0.5102 -138.1  21.382   96.0  0.0286   41.0  0.4313  -71.1
 1.360  0.5100 -139.1  21.123   95.4  0.0288   40.8  0.4268  -71.6
 1.380  0.5101 -140.2  20.868   94.8  0.0289   40.6  0.4223  -72.2
 1.400  0.5103 -141.2  20.614   94.2  0.0291   40.4  0.4178  -72.8
 1.420  0.5100 -142.1  20.390   93.7  0.0293   40.2  0.4137  -73.3
 1.440  0.5099 -143.0  20.168   93.2  0.0295   40.0  0.4096  -73.7
 1.460  0.5098 -144.0  19.947   92.6  0.0296   39.8  0.4055  -74.2
 1.480  0.5100 -144.9  19.729   92.1  0.0298   39.6  0.4015  -74.7
 1.500  0.5102 -145.8  19.512   91.5  0.0300   39.4  0.3975  -75.2
 1.520  0.5104 -146.7  19.305   91.0  0.0301   39.2  0.3939  -75.7
 1.540  0.5108 -147.6  19.099   90.5  0.0303   39.1  0.3903  -76.2
 1.560  0.5112 -148.4  18.895   89.9  0.0304   38.9  0.3868  -76.7
 1.580  0.5118 -149.3  18.693   89.4  0.0306   38.8  0.3833  -77.2
 1.600  0.5125 -150.2  18.492   88.8  0.0307   38.6  0.3798  -77.7
 1.620  0.5122 -151.0  18.307   88.3  0.0308   38.5  0.3764  -78.1
 1.640  0.5120 -151.9  18.123   87.8  0.0310   38.3  0.3731  -78.6
 1.660  0.5119 -152.7  17.941   87.3  0.0311   38.2  0.3698  -79.1
 1.680  0.5120 -153.6  17.760   86.8  0.0313   38.0  0.3665  -79.5
 1.700  0.5121 -154.4  17.580   86.3  0.0314   37.9  0.3632  -80.0
 1.720  0.5121 -155.1  17.401   85.8  0.0315   37.8  0.3603  -80.4
 1.740  0.5122 -155.8  17.224   85.4  0.0317   37.7  0.3574  -80.9
 1.760  0.5123 -156.6  17.047   84.9  0.0318   37.6  0.3546  -81.3
 1.780  0.5126 -157.3  16.872   84.4  0.0320   37.5  0.3517  -81.7
 1.800  0.5129 -158.0  16.698   83.9  0.0321   37.4  0.3489  -82.2
 1.820  0.5132 -158.8  16.543   83.4  0.0322   37.3  0.3459  -82.7
 1.840  0.5136 -159.6  16.389   83.0  0.0324   37.1  0.3429  -83.2
 1.860  0.5140 -160.4  16.237   82.5  0.0325   37.0  0.3400  -83.7
 1.880  0.5146 -161.2  16.085   82.0  0.0327   36.8  0.3371  -84.2
 1.900  0.5153 -162.0  15.935   81.5  0.0328   36.7  0.3342  -84.7
 1.920  0.5152 -162.7  15.793   81.1  0.0329   36.6  0.3317  -85.1
 1.940  0.5153 -163.3  15.653   80.6  0.0330   36.6  0.3292  -85.4
 1.960  0.5153 -164.0  15.513   80.2  0.0332   36.5  0.3267  -85.8
 1.980  0.5155 -164.6  15.374   79.8  0.0333   36.5  0.3242  -86.2
 2.000  0.5157 -165.3  15.236   79.3  0.0334   36.4  0.3217  -86.6
 2.020  0.5157 -166.0  15.106   78.9  0.0335   36.3  0.3192  -87.0
 2.040  0.5157 -166.7  14.977   78.5  0.0337   36.2  0.3167  -87.5
 2.060  0.5159 -167.4  14.848   78.0  0.0338   36.1  0.3142  -88.0
 2.080  0.5161 -168.1  14.721   77.6  0.0339   36.0  0.3117  -88.4
 2.100  0.5164 -168.8  14.594   77.1  0.0340   35.9  0.3093  -88.9
 2.120  0.5167 -169.5  14.468   76.7  0.0342   35.9  0.3069  -89.4
 2.140  0.5172 -170.1  14.343   76.2  0.0343   35.8  0.3045  -89.9
 2.160  0.5177 -170.8  14.219   75.8  0.0344   35.7  0.3021  -90.4
 2.180  0.5182 -171.5  14.096   75.3  0.0346   35.6  0.2997  -90.9
 2.200  0.5189 -172.2  13.974   74.8  0.0347   35.5  0.2974  -91.4
 2.220  0.5192 -172.8  13.864   74.4  0.0348   35.4  0.2952  -91.9
 2.240  0.5195 -173.4  13.754   74.0  0.0350   35.3  0.2930  -92.3
 2.260  0.5199 -174.0  13.645   73.6  0.0351   35.3  0.2908  -92.8
 2.280  0.5203 -174.6  13.537   73.2  0.0352   35.2  0.2887  -93.3
 2.300  0.5208 -175.2  13.429   72.8  0.0353   35.1  0.2865  -93.8
 2.320  0.5214 -175.8  13.322   72.4  0.0355   35.0  0.2844  -94.3
 2.340  0.5220 -176.4  13.216   72.0  0.0356   34.9  0.2823  -94.8
 2.360  0.5227 -177.0  13.110   71.6  0.0357   34.9  0.2803  -95.3
 2.380  0.5234 -177.6  13.005   71.1  0.0359   34.8  0.2782  -95.8
 2.400  0.5242 -178.2  12.901   70.7  0.0360   34.7  0.2762  -96.3
 2.420  0.5247 -178.8  12.803   70.3  0.0361   34.6  0.2743  -96.8
 2.440  0.5253 -179.4  12.706   69.9  0.0362   34.6  0.2723  -97.3
 2.460  0.5259 -180.0  12.610   69.5  0.0364   34.5  0.2705  -97.9
 2.480  0.5266  179.5  12.514   69.1  0.0365   34.4  0.2686  -98.4
 2.500  0.5274  178.9  12.419   68.7  0.0366   34.3  0.2667  -99.0
 2.520  0.5282  178.3  12.324   68.3  0.0367   34.3  0.2649  -99.5
 2.540  0.5290  177.7  12.230   67.9  0.0368   34.2  0.2631 -100.1
 2.560  0.5299  177.1  12.137   67.5  0.0370   34.1  0.2614 -100.6
 2.580  0.5309  176.6  12.044   67.0  0.0371   34.1  0.2596 -101.2
 2.600  0.5319  176.0  11.952   66.6  0.0372   34.0  0.2579 -101.8
 2.620  0.5324  175.5  11.868   66.2  0.0373   34.0  0.2564 -102.3
 2.640  0.5329  175.0  11.784   65.9  0.0375   33.9  0.2549 -102.8
 2.660  0.5335  174.5  11.700   65.5  0.0376   33.9  0.2534 -103.4
 2.680  0.5341  174.0  11.617   65.1  0.0377   33.9  0.2520 -103.9
 2.700  0.5348  173.5  11.535   64.8  0.0378   33.8  0.2505 -104.4
 2.720  0.5355  173.0  11.453   64.4  0.0380   33.8  0.2491 -105.0
 2.740  0.5362  172.5  11.371   64.0  0.0381   33.8  0.2477 -105.5
 2.760  0.5370  172.0  11.290   63.6  0.0382   33.8  0.2464 -106.1
 2.780  0.5378  171.5  11.210   63.2  0.0384   33.7  0.2450 -106.6
 2.800  0.5387  171.0  11.130   62.8  0.0385   33.7  0.2437 -107.2
 2.820  0.5393  170.5  11.056   62.5  0.0386   33.6  0.2426 -107.7
 2.840  0.5400  170.1  10.983   62.1  0.0388   33.6  0.2414 -108.2
 2.860  0.5407  169.6  10.911   61.7  0.0389   33.5  0.2403 -108.7
 2.880  0.5414  169.1  10.838   61.4  0.0390   33.4  0.2393 -109.3
 2.900  0.5422  168.7  10.766   61.0  0.0391   33.3  0.2382 -109.8
 2.920  0.5430  168.2  10.695   60.6  0.0393   33.3  0.2372 -110.3
 2.940  0.5438  167.8  10.624   60.3  0.0394   33.2  0.2361 -110.9
 2.960  0.5447  167.3  10.554   59.9  0.0395   33.1  0.2351 -111.4
 2.980  0.5456  166.9  10.484   59.5  0.0397   33.1  0.2342 -111.9
 3.000  0.5465  166.4  10.414   59.1  0.0398   33.0  0.2332 -112.5
 3.100  0.5492  164.1  10.102   57.5  0.0405   32.7  0.2287 -115.2
 3.200  0.5528  161.9   9.799   55.8  0.0412   32.5  0.2248 -118.0
 3.300  0.5573  159.6   9.504   54.0  0.0419   32.3  0.2214 -120.9
 3.400  0.5625  157.4   9.220   52.0  0.0426   32.0  0.2187 -123.9
 3.500  0.5686  155.3   8.947   50.0  0.0433   31.8  0.2165 -127.0
 3.600  0.5719  153.2   8.701   48.4  0.0440   31.4  0.2143 -130.1
 3.700  0.5759  151.2   8.462   46.7  0.0448   31.1  0.2126 -133.2
 3.800  0.5807  149.1   8.230   45.0  0.0455   30.7  0.2117 -136.4
 3.900  0.5862  147.1   8.007   43.1  0.0463   30.4  0.2114 -139.6
 4.000  0.5924  145.2   7.793   41.1  0.0470   30.1  0.2117 -142.8
 4.100  0.5960  143.5   7.584   39.6  0.0477   29.7  0.2126 -146.0
 4.200  0.6001  141.8   7.380   38.0  0.0484   29.2  0.2142 -149.2
 4.300  0.6047  140.1   7.183   36.3  0.0490   28.8  0.2164 -152.4
 4.400  0.6099  138.4   6.992   34.5  0.0497   28.4  0.2192 -155.4
 4.500  0.6155  136.8   6.809   32.6  0.0504   28.0  0.2227 -158.4
 4.600  0.6181  135.6   6.639   31.3  0.0511   27.6  0.2250 -160.7
 4.700  0.6211  134.3   6.474   29.9  0.0518   27.3  0.2276 -163.0
 4.800  0.6243  133.1   6.312   28.4  0.0524   27.0  0.2306 -165.2
 4.900  0.6277  131.9   6.155   26.8  0.0531   26.6  0.2339 -167.4
 5.000  0.6315  130.7   6.002   25.2  0.0538   26.3  0.2375 -169.5
 5.100  0.6340  129.6   5.871   23.9  0.0545   25.9  0.2395 -171.6
 5.200  0.6367  128.6   5.743   22.5  0.0553   25.6  0.2419 -173.6
 5.300  0.6397  127.5   5.618   21.1  0.0560   25.3  0.2445 -175.6
 5.400  0.6428  126.4   5.497   19.6  0.0568   24.9  0.2475 -177.6
 5.500  0.6462  125.4   5.380   18.1  0.0575   24.6  0.2507 -179.5
 5.600  0.6494  124.4   5.277   16.8  0.0584   24.2  0.2536  178.3
 5.700  0.6527  123.4   5.177   15.4  0.0592   23.8  0.2569  176.2
 5.800  0.6563  122.4   5.081   14.0  0.0601   23.4  0.2605  174.1
 5.900  0.6600  121.4   4.987   12.5  0.0609   23.1  0.2644  172.1
 6.000  0.6640  120.4   4.897   11.0  0.0618   22.7  0.2687  170.1
 6.100  0.6676  119.3   4.811    9.6  0.0628   22.1  0.2734  168.3
 6.200  0.6715  118.2   4.728    8.2  0.0638   21.5  0.2783  166.6
 6.300  0.6756  117.2   4.648    6.7  0.0648   20.9  0.2835  164.9
 6.400  0.6799  116.1   4.571    5.1  0.0658   20.3  0.2889  163.3
 6.500  0.6844  115.1   4.498    3.5  0.0668   19.8  0.2945  161.8
 6.600  0.6871  113.9   4.422    2.0  0.0678   19.1  0.2977  160.2
 6.800  0.6934  111.4   4.280   -1.0  0.0699   17.8  0.3048  157.1
 7.000  0.7009  109.0   4.151   -4.3  0.0720   16.6  0.3128  154.2
 7.200  0.7066  106.3   4.015   -7.3  0.0740   14.8  0.3222  150.4
 7.400  0.7139  103.7   3.891  -10.6  0.0760   13.0  0.3330  146.8
 7.600  0.7214  101.0   3.759  -13.8  0.0778   11.1  0.3451  143.0
 7.800  0.7294   98.2   3.617  -17.1  0.0792    9.1  0.3589  139.0
 8.000  0.7391   95.5   3.487  -20.6  0.0808    7.1  0.3743  135.3
 8.200  0.7454   92.9   3.344  -23.4  0.0815    5.3  0.3860  131.3
 8.400  0.7532   90.4   3.209  -26.4  0.0822    3.6  0.3995  127.6
 8.600  0.7637   88.0   3.088  -29.3  0.0829    2.0  0.4149  123.7
 8.800  0.7766   85.9   2.977  -31.9  0.0836    0.5  0.4324  119.9
 9.000  0.7906   83.9   2.874  -34.8  0.0844   -0.9  0.4518  116.3
 9.200  0.8129   81.9   2.781  -37.5  0.0851   -2.4  0.4780  112.9
 9.400  0.8361   79.9   2.695  -40.3  0.0859   -3.8  0.5057  109.8
 9.600  0.8567   77.8   2.592  -43.2  0.0866   -5.4  0.5346  107.1
 9.800  0.8749   75.6   2.471  -46.3  0.0873   -7.2  0.5643  104.8
10.000  0.8944   73.4   2.358  -49.6  0.0881   -8.9  0.5949  102.7
!
!  f       NFmin   Gammaopt  rn/50
! GHz       dB    MAG  ANG    -
 0.450      0.96  0.14 -174   0.18
 0.900      1.01  0.16 -162   0.09
 1.900      1.03  0.19 -150   0.11
 2.400      1.09  0.22 -136   0.12
 5.500      1.24  0.37 -113   0.14
10.000      1.81  0.58  -83   0.65
!
! (c) 2016  Infineon Technologies AG, Munich
