! Infineon Technologies  Discrete & RF Semiconductors
! BFP740ESD
! VCE =  4.0 V,  IC =  10 mA
! Common Emitter S-Parameters:                            Jan 2016
# GHz  S  MA  R  50
!  f         S11            S21            S12            S22
! GHz     MAG   ANG      MAG   ANG      MAG   ANG      MAG   ANG
 0.010  0.8879   -1.7  28.041  179.4  0.0010  -24.2  0.9786    1.8
 0.015  0.8870   -1.7  27.841  178.8  0.0009   23.5  0.9824    0.4
 0.020  0.8862   -1.8  27.645  178.1  0.0013   58.1  0.9867   -1.0
 0.025  0.8858   -2.3  27.616  177.7  0.0015   60.9  0.9867   -1.3
 0.030  0.8855   -2.8  27.588  177.3  0.0017   63.1  0.9867   -1.6
 0.035  0.8853   -3.2  27.562  177.0  0.0018   64.9  0.9867   -1.9
 0.040  0.8851   -3.7  27.537  176.6  0.0020   66.4  0.9867   -2.2
 0.045  0.8850   -4.2  27.513  176.2  0.0022   67.6  0.9868   -2.5
 0.050  0.8850   -4.7  27.490  175.8  0.0024   68.6  0.9869   -2.8
 0.055  0.8843   -5.1  27.484  175.5  0.0026   70.6  0.9866   -3.1
 0.060  0.8837   -5.5  27.479  175.2  0.0029   72.2  0.9862   -3.4
 0.065  0.8832   -6.0  27.474  174.8  0.0031   73.6  0.9859   -3.7
 0.070  0.8826   -6.4  27.471  174.5  0.0033   74.8  0.9857   -4.0
 0.075  0.8822   -6.8  27.468  174.2  0.0036   75.9  0.9854   -4.2
 0.080  0.8817   -7.2  27.466  173.9  0.0038   76.8  0.9852   -4.5
 0.085  0.8814   -7.6  27.465  173.6  0.0041   77.6  0.9850   -4.8
 0.090  0.8810   -8.1  27.465  173.2  0.0043   78.3  0.9849   -5.1
 0.095  0.8807   -8.5  27.465  172.9  0.0046   78.9  0.9847   -5.4
 0.100  0.8805   -8.9  27.467  172.6  0.0048   79.5  0.9846   -5.7
 0.105  0.8797   -9.3  27.436  172.2  0.0050   79.3  0.9838   -6.0
 0.110  0.8790   -9.7  27.406  171.9  0.0052   79.1  0.9831   -6.3
 0.115  0.8783  -10.2  27.376  171.5  0.0055   78.9  0.9824   -6.6
 0.120  0.8777  -10.6  27.349  171.1  0.0057   78.7  0.9817   -6.9
 0.125  0.8771  -11.0  27.322  170.8  0.0059   78.6  0.9810   -7.1
 0.130  0.8766  -11.4  27.296  170.4  0.0061   78.4  0.9803   -7.4
 0.135  0.8761  -11.8  27.272  170.0  0.0063   78.3  0.9797   -7.7
 0.140  0.8756  -12.3  27.248  169.6  0.0066   78.1  0.9791   -8.0
 0.145  0.8752  -12.7  27.226  169.3  0.0068   78.0  0.9785   -8.3
 0.150  0.8749  -13.1  27.205  168.9  0.0070   77.9  0.9780   -8.6
 0.155  0.8740  -13.5  27.168  168.6  0.0072   77.8  0.9771   -8.9
 0.160  0.8732  -14.0  27.132  168.2  0.0074   77.6  0.9762   -9.2
 0.165  0.8725  -14.4  27.097  167.9  0.0077   77.5  0.9754   -9.4
 0.170  0.8718  -14.9  27.063  167.6  0.0079   77.4  0.9746   -9.7
 0.175  0.8711  -15.3  27.029  167.3  0.0081   77.3  0.9738  -10.0
 0.180  0.8705  -15.7  26.997  166.9  0.0083   77.2  0.9730  -10.3
 0.185  0.8699  -16.2  26.965  166.6  0.0085   77.1  0.9722  -10.6
 0.190  0.8694  -16.6  26.935  166.3  0.0088   77.0  0.9715  -10.8
 0.195  0.8690  -17.1  26.905  165.9  0.0090   76.9  0.9708  -11.1
 0.200  0.8686  -17.5  26.876  165.6  0.0092   76.8  0.9701  -11.4
 0.220  0.8643  -19.2  26.668  164.2  0.0101   76.0  0.9658  -12.5
 0.240  0.8607  -20.9  26.476  162.8  0.0110   75.3  0.9619  -13.6
 0.260  0.8573  -22.5  26.310  161.5  0.0119   74.5  0.9577  -14.6
 0.280  0.8541  -24.2  26.168  160.2  0.0128   73.7  0.9533  -15.7
 0.300  0.8515  -25.8  26.038  159.0  0.0136   73.0  0.9491  -16.7
 0.320  0.8469  -27.4  25.846  157.9  0.0144   72.1  0.9440  -17.7
 0.340  0.8430  -29.1  25.665  156.7  0.0153   71.4  0.9393  -18.8
 0.360  0.8390  -30.7  25.474  155.5  0.0161   70.5  0.9342  -19.8
 0.380  0.8350  -32.2  25.273  154.3  0.0169   69.7  0.9287  -20.8
 0.400  0.8315  -33.8  25.084  153.1  0.0177   68.9  0.9235  -21.8
 0.420  0.8267  -35.3  24.892  152.0  0.0185   68.1  0.9181  -22.8
 0.440  0.8225  -36.9  24.710  150.9  0.0193   67.4  0.9129  -23.7
 0.450  0.8206  -37.7  24.622  150.3  0.0197   67.1  0.9104  -24.2
 0.460  0.8183  -38.5  24.520  149.8  0.0201   66.6  0.9074  -24.7
 0.480  0.8141  -40.0  24.323  148.7  0.0208   65.8  0.9015  -25.6
 0.500  0.8106  -41.6  24.134  147.6  0.0216   65.0  0.8959  -26.6
 0.520  0.8052  -43.1  23.928  146.6  0.0223   64.1  0.8895  -27.5
 0.540  0.8002  -44.5  23.730  145.5  0.0229   63.3  0.8833  -28.4
 0.560  0.7959  -46.1  23.541  144.4  0.0236   62.6  0.8772  -29.3
 0.580  0.7921  -47.6  23.360  143.3  0.0243   61.9  0.8715  -30.2
 0.600  0.7888  -49.1  23.188  142.2  0.0250   61.2  0.8659  -31.1
 0.620  0.7836  -50.5  22.996  141.3  0.0256   60.4  0.8596  -32.0
 0.640  0.7790  -52.0  22.809  140.4  0.0263   59.7  0.8535  -32.8
 0.660  0.7748  -53.4  22.629  139.4  0.0269   58.9  0.8475  -33.7
 0.680  0.7711  -54.9  22.455  138.5  0.0276   58.3  0.8418  -34.6
 0.700  0.7680  -56.4  22.287  137.5  0.0282   57.6  0.8363  -35.5
 0.720  0.7631  -57.7  22.085  136.6  0.0288   56.9  0.8298  -36.3
 0.740  0.7586  -59.1  21.889  135.7  0.0293   56.2  0.8236  -37.1
 0.760  0.7545  -60.4  21.698  134.8  0.0299   55.5  0.8174  -37.9
 0.780  0.7509  -61.8  21.513  133.9  0.0305   54.9  0.8115  -38.8
 0.800  0.7477  -63.2  21.334  132.9  0.0311   54.3  0.8057  -39.6
 0.820  0.7429  -64.5  21.153  132.0  0.0316   53.6  0.7995  -40.4
 0.840  0.7385  -65.9  20.978  131.1  0.0321   52.9  0.7934  -41.1
 0.860  0.7346  -67.2  20.807  130.2  0.0326   52.3  0.7874  -41.9
 0.880  0.7310  -68.6  20.642  129.3  0.0332   51.6  0.7816  -42.7
 0.900  0.7279  -70.0  20.482  128.4  0.0337   51.0  0.7760  -43.5
 0.920  0.7235  -71.3  20.306  127.6  0.0342   50.4  0.7695  -44.2
 0.940  0.7195  -72.6  20.135  126.8  0.0346   49.8  0.7632  -45.0
 0.960  0.7158  -73.9  19.967  126.0  0.0351   49.2  0.7570  -45.7
 0.980  0.7126  -75.3  19.804  125.1  0.0355   48.6  0.7509  -46.5
 1.000  0.7097  -76.6  19.645  124.3  0.0360   48.0  0.7450  -47.3
 1.020  0.7054  -77.8  19.475  123.5  0.0364   47.4  0.7391  -48.0
 1.040  0.7015  -79.0  19.308  122.7  0.0368   46.8  0.7333  -48.7
 1.060  0.6979  -80.3  19.145  121.9  0.0372   46.3  0.7276  -49.4
 1.080  0.6946  -81.5  18.986  121.1  0.0376   45.7  0.7220  -50.1
 1.100  0.6917  -82.8  18.831  120.3  0.0380   45.2  0.7165  -50.8
 1.120  0.6879  -84.0  18.670  119.5  0.0384   44.7  0.7106  -51.5
 1.140  0.6844  -85.2  18.512  118.8  0.0388   44.1  0.7048  -52.2
 1.160  0.6812  -86.4  18.357  118.0  0.0391   43.6  0.6992  -52.9
 1.180  0.6783  -87.7  18.206  117.2  0.0395   43.1  0.6936  -53.7
 1.200  0.6757  -88.9  18.058  116.4  0.0399   42.6  0.6882  -54.4
 1.220  0.6723  -90.0  17.905  115.7  0.0402   42.1  0.6827  -55.0
 1.240  0.6691  -91.1  17.754  115.0  0.0405   41.5  0.6773  -55.6
 1.260  0.6662  -92.3  17.607  114.3  0.0408   41.0  0.6719  -56.3
 1.280  0.6636  -93.4  17.462  113.5  0.0412   40.5  0.6667  -56.9
 1.300  0.6612  -94.6  17.320  112.8  0.0415   40.0  0.6615  -57.6
 1.320  0.6576  -95.7  17.167  112.1  0.0418   39.5  0.6561  -58.2
 1.340  0.6542  -96.8  17.017  111.4  0.0420   39.1  0.6507  -58.8
 1.360  0.6511  -98.0  16.869  110.7  0.0423   38.6  0.6454  -59.4
 1.380  0.6483  -99.1  16.724  110.0  0.0425   38.1  0.6401  -60.1
 1.400  0.6457 -100.3  16.581  109.3  0.0428   37.7  0.6350  -60.7
 1.420  0.6431 -101.3  16.449  108.7  0.0431   37.3  0.6302  -61.2
 1.440  0.6407 -102.3  16.320  108.1  0.0433   36.9  0.6254  -61.8
 1.460  0.6386 -103.3  16.192  107.4  0.0436   36.5  0.6207  -62.4
 1.480  0.6366 -104.4  16.066  106.8  0.0438   36.1  0.6161  -62.9
 1.500  0.6348 -105.4  15.943  106.1  0.0441   35.7  0.6115  -63.5
 1.520  0.6323 -106.4  15.812  105.5  0.0443   35.3  0.6069  -64.1
 1.540  0.6300 -107.5  15.684  104.8  0.0445   34.9  0.6023  -64.6
 1.560  0.6279 -108.5  15.557  104.2  0.0448   34.5  0.5978  -65.2
 1.580  0.6260 -109.5  15.432  103.5  0.0450   34.1  0.5934  -65.8
 1.600  0.6243 -110.6  15.310  102.8  0.0452   33.7  0.5890  -66.4
 1.620  0.6217 -111.6  15.191  102.2  0.0454   33.3  0.5846  -66.9
 1.640  0.6193 -112.5  15.073  101.6  0.0456   33.0  0.5803  -67.4
 1.660  0.6170 -113.5  14.958  101.0  0.0457   32.6  0.5761  -67.9
 1.680  0.6150 -114.5  14.843  100.4  0.0459   32.3  0.5719  -68.5
 1.700  0.6131 -115.5  14.731   99.8  0.0461   31.9  0.5677  -69.0
 1.720  0.6111 -116.4  14.610   99.2  0.0463   31.6  0.5638  -69.5
 1.740  0.6092 -117.3  14.491   98.7  0.0465   31.2  0.5599  -70.0
 1.760  0.6075 -118.2  14.373   98.1  0.0466   30.9  0.5560  -70.5
 1.780  0.6059 -119.2  14.257   97.5  0.0468   30.5  0.5522  -71.1
 1.800  0.6045 -120.1  14.142   96.9  0.0470   30.2  0.5485  -71.6
 1.820  0.6026 -121.0  14.038   96.4  0.0472   29.9  0.5445  -72.1
 1.840  0.6009 -122.0  13.935   95.8  0.0473   29.5  0.5405  -72.7
 1.860  0.5994 -123.0  13.834   95.2  0.0475   29.2  0.5366  -73.2
 1.880  0.5980 -123.9  13.734   94.7  0.0476   28.8  0.5327  -73.7
 1.900  0.5968 -124.9  13.635   94.1  0.0478   28.5  0.5289  -74.3
 1.920  0.5949 -125.7  13.533   93.6  0.0479   28.2  0.5253  -74.7
 1.940  0.5931 -126.5  13.433   93.0  0.0481   27.9  0.5217  -75.2
 1.960  0.5915 -127.3  13.334   92.5  0.0482   27.7  0.5182  -75.6
 1.980  0.5899 -128.2  13.236   92.0  0.0484   27.4  0.5147  -76.0
 2.000  0.5885 -129.0  13.139   91.4  0.0485   27.1  0.5112  -76.5
 2.020  0.5867 -129.9  13.045   90.9  0.0486   26.8  0.5075  -77.0
 2.040  0.5851 -130.7  12.951   90.4  0.0487   26.5  0.5039  -77.5
 2.060  0.5836 -131.6  12.859   89.9  0.0488   26.2  0.5003  -78.0
 2.080  0.5823 -132.5  12.768   89.3  0.0489   26.0  0.4968  -78.5
 2.100  0.5810 -133.4  12.678   88.8  0.0490   25.7  0.4933  -79.0
 2.120  0.5799 -134.2  12.589   88.3  0.0491   25.4  0.4898  -79.5
 2.140  0.5790 -135.1  12.501   87.7  0.0493   25.1  0.4864  -80.0
 2.160  0.5782 -136.0  12.415   87.1  0.0494   24.8  0.4830  -80.5
 2.180  0.5775 -136.9  12.329   86.6  0.0495   24.6  0.4796  -81.1
 2.200  0.5770 -137.8  12.245   86.0  0.0496   24.3  0.4763  -81.6
 2.220  0.5756 -138.6  12.161   85.5  0.0497   24.0  0.4729  -82.1
 2.240  0.5743 -139.4  12.078   85.1  0.0498   23.8  0.4696  -82.5
 2.260  0.5731 -140.2  11.995   84.6  0.0499   23.5  0.4663  -83.0
 2.280  0.5721 -141.0  11.914   84.1  0.0499   23.3  0.4631  -83.5
 2.300  0.5711 -141.8  11.833   83.6  0.0500   23.0  0.4599  -84.0
 2.320  0.5703 -142.6  11.754   83.1  0.0501   22.8  0.4567  -84.5
 2.340  0.5696 -143.4  11.675   82.6  0.0502   22.5  0.4535  -85.0
 2.360  0.5690 -144.3  11.597   82.1  0.0503   22.3  0.4504  -85.5
 2.380  0.5685 -145.1  11.520   81.5  0.0504   22.0  0.4473  -86.1
 2.400  0.5681 -145.9  11.444   81.0  0.0505   21.8  0.4443  -86.6
 2.420  0.5671 -146.7  11.367   80.5  0.0505   21.6  0.4413  -87.1
 2.440  0.5662 -147.5  11.291   80.1  0.0506   21.4  0.4382  -87.6
 2.460  0.5655 -148.3  11.216   79.6  0.0506   21.1  0.4352  -88.1
 2.480  0.5648 -149.1  11.142   79.1  0.0507   20.9  0.4323  -88.6
 2.500  0.5643 -149.9  11.068   78.6  0.0507   20.7  0.4294  -89.1
 2.520  0.5638 -150.7  10.995   78.1  0.0508   20.5  0.4265  -89.6
 2.540  0.5635 -151.5  10.923   77.6  0.0508   20.3  0.4236  -90.1
 2.560  0.5633 -152.3  10.852   77.1  0.0509   20.0  0.4208  -90.6
 2.580  0.5632 -153.1  10.781   76.6  0.0509   19.8  0.4180  -91.2
 2.600  0.5632 -153.9  10.712   76.1  0.0510   19.6  0.4153  -91.7
 2.620  0.5624 -154.6  10.643   75.7  0.0510   19.4  0.4127  -92.2
 2.640  0.5616 -155.3  10.574   75.2  0.0511   19.2  0.4101  -92.7
 2.660  0.5610 -156.0  10.506   74.8  0.0511   19.1  0.4076  -93.1
 2.680  0.5604 -156.7  10.439   74.4  0.0512   18.9  0.4051  -93.6
 2.700  0.5599 -157.4  10.373   73.9  0.0512   18.7  0.4026  -94.1
 2.720  0.5595 -158.1  10.306   73.5  0.0513   18.5  0.4001  -94.6
 2.740  0.5592 -158.9  10.241   73.0  0.0513   18.3  0.3977  -95.1
 2.760  0.5590 -159.6  10.176   72.5  0.0514   18.2  0.3953  -95.7
 2.780  0.5589 -160.3  10.112   72.1  0.0514   18.0  0.3929  -96.2
 2.800  0.5588 -161.0  10.049   71.6  0.0515   17.8  0.3906  -96.7
 2.820  0.5584 -161.7   9.988   71.2  0.0515   17.6  0.3884  -97.2
 2.840  0.5582 -162.3   9.927   70.8  0.0516   17.5  0.3863  -97.6
 2.860  0.5580 -163.0   9.868   70.3  0.0516   17.3  0.3842  -98.1
 2.880  0.5578 -163.7   9.808   69.9  0.0516   17.1  0.3821  -98.6
 2.900  0.5578 -164.3   9.749   69.5  0.0516   16.9  0.3801  -99.1
 2.920  0.5578 -165.0   9.691   69.0  0.0517   16.8  0.3781  -99.6
 2.940  0.5579 -165.7   9.633   68.6  0.0517   16.6  0.3761 -100.1
 2.960  0.5581 -166.4   9.576   68.1  0.0517   16.4  0.3741 -100.6
 2.980  0.5584 -167.0   9.520   67.7  0.0518   16.3  0.3722 -101.1
 3.000  0.5587 -167.7   9.464   67.2  0.0518   16.1  0.3703 -101.6
 3.100  0.5566 -170.8   9.196   65.3  0.0519   15.5  0.3613 -103.9
 3.200  0.5561 -173.8   8.938   63.3  0.0521   14.8  0.3529 -106.3
 3.300  0.5571 -176.9   8.691   61.3  0.0522   14.2  0.3451 -108.8
 3.400  0.5598 -180.0   8.457   59.0  0.0523   13.5  0.3380 -111.5
 3.500  0.5641  177.0   8.236   56.7  0.0525   12.9  0.3317 -114.2
 3.600  0.5641  174.2   8.019   54.9  0.0527   12.4  0.3253 -116.8
 3.700  0.5655  171.4   7.811   53.0  0.0528   12.0  0.3195 -119.4
 3.800  0.5682  168.7   7.612   51.0  0.0530   11.5  0.3145 -122.2
 3.900  0.5722  166.0   7.423   48.8  0.0531   11.1  0.3102 -125.0
 4.000  0.5774  163.3   7.245   46.6  0.0533   10.6  0.3067 -127.9
 4.100  0.5789  161.0   7.053   44.9  0.0534   10.2  0.3034 -130.7
 4.200  0.5814  158.6   6.868   43.0  0.0534    9.8  0.3009 -133.6
 4.300  0.5848  156.3   6.690   41.1  0.0535    9.3  0.2991 -136.5
 4.400  0.5892  154.0   6.521   39.0  0.0535    8.9  0.2981 -139.4
 4.500  0.5945  151.8   6.360   36.9  0.0536    8.5  0.2979 -142.4
 4.600  0.5962  150.1   6.200   35.4  0.0537    8.4  0.2971 -144.7
 4.700  0.5983  148.4   6.045   33.8  0.0537    8.2  0.2968 -146.9
 4.800  0.6011  146.7   5.895   32.1  0.0538    8.1  0.2969 -149.2
 4.900  0.6043  145.0   5.750   30.4  0.0538    7.9  0.2975 -151.5
 5.000  0.6080  143.4   5.611   28.5  0.0539    7.8  0.2986 -153.7
 5.100  0.6099  142.0   5.487   27.1  0.0540    7.8  0.2983 -155.8
 5.200  0.6122  140.6   5.366   25.5  0.0542    7.7  0.2984 -157.8
 5.300  0.6149  139.2   5.249   24.0  0.0543    7.7  0.2989 -159.9
 5.400  0.6179  137.8   5.136   22.3  0.0545    7.6  0.2998 -162.0
 5.500  0.6213  136.4   5.028   20.6  0.0546    7.6  0.3011 -164.0
 5.600  0.6238  135.1   4.931   19.2  0.0550    7.6  0.3021 -166.3
 5.700  0.6267  133.8   4.837   17.7  0.0554    7.7  0.3035 -168.6
 5.800  0.6298  132.5   4.746   16.2  0.0557    7.7  0.3055 -170.8
 5.900  0.6333  131.3   4.658   14.6  0.0561    7.8  0.3079 -173.0
 6.000  0.6371  130.0   4.575   12.9  0.0565    7.8  0.3107 -175.2
 6.100  0.6404  128.7   4.494   11.4  0.0571    7.7  0.3139 -177.2
 6.200  0.6440  127.5   4.416    9.8  0.0577    7.6  0.3175 -179.2
 6.300  0.6479  126.2   4.342    8.2  0.0584    7.4  0.3214  178.8
 6.400  0.6521  125.0   4.271    6.5  0.0590    7.3  0.3257  176.9
 6.500  0.6566  123.8   4.204    4.8  0.0596    7.2  0.3304  175.1
 6.600  0.6590  122.4   4.133    3.3  0.0603    7.0  0.3328  173.3
 6.800  0.6649  119.6   4.001    0.0  0.0618    6.5  0.3385  169.8
 7.000  0.6724  116.9   3.883   -3.4  0.0633    6.1  0.3454  166.5
 7.200  0.6784  113.9   3.757   -6.6  0.0650    5.1  0.3527  162.3
 7.400  0.6863  110.9   3.643  -10.0  0.0667    4.2  0.3617  158.3
 7.600  0.6942  107.9   3.521  -13.4  0.0682    3.0  0.3718  154.1
 7.800  0.7024  104.8   3.389  -16.9  0.0695    1.6  0.3834  149.6
 8.000  0.7127  101.7   3.271  -20.7  0.0709    0.2  0.3972  145.4
 8.200  0.7184   98.8   3.135  -23.7  0.0716   -1.1  0.4065  141.0
 8.400  0.7260   96.0   3.009  -26.9  0.0723   -2.3  0.4180  136.9
 8.600  0.7364   93.4   2.894  -30.0  0.0731   -3.4  0.4314  132.6
 8.800  0.7494   91.0   2.788  -32.9  0.0739   -4.4  0.4470  128.4
 9.000  0.7637   88.7   2.690  -36.0  0.0748   -5.4  0.4649  124.4
 9.200  0.7859   86.4   2.599  -38.9  0.0756   -6.5  0.4900  120.5
 9.400  0.8093   84.2   2.515  -41.9  0.0765   -7.5  0.5171  116.9
 9.600  0.8305   82.0   2.416  -45.0  0.0774   -8.8  0.5461  113.8
 9.800  0.8499   79.6   2.300  -48.2  0.0783  -10.2  0.5765  111.1
10.000  0.8706   77.3   2.193  -51.8  0.0793  -11.7  0.6081  108.6
!
!  f       NFmin   Gammaopt  rn/50
! GHz       dB    MAG  ANG    -
 0.450      0.60  0.20    3   0.08
 0.900      0.63  0.19   13   0.10
 1.900      0.65  0.18   17   0.10
 2.400      0.70  0.12   37   0.11
 5.500      0.90  0.24 -138   0.14
10.000      1.66  0.57  -90   0.48
!
! (c) 2016  Infineon Technologies AG, Munich
