! Infineon Technologies  Discrete & RF Semiconductors
! BFP720ESD
! VCE =  2.0 V,  IC =  25 mA
! Common Emitter S-Parameters:                            Jan 2016
# GHz  S  MA  R  50
!  f         S11            S21            S12            S22
! GHz     MAG   ANG      MAG   ANG      MAG   ANG      MAG   ANG
 0.010  0.6411   -0.9  41.461 -179.8  0.0007  131.0  0.9222    4.4
 0.015  0.6491   -2.1  42.189  179.0  0.0008  109.0  0.9335    2.2
 0.020  0.6573   -3.3  42.933  177.9  0.0009   92.1  0.9462    0.1
 0.025  0.6564   -4.0  42.946  177.4  0.0011   91.1  0.9479   -0.3
 0.030  0.6556   -4.7  42.963  176.9  0.0012   90.4  0.9496   -0.8
 0.035  0.6549   -5.4  42.983  176.3  0.0014   89.8  0.9515   -1.2
 0.040  0.6542   -6.1  43.006  175.8  0.0016   89.4  0.9533   -1.6
 0.045  0.6537   -6.8  43.033  175.3  0.0017   89.0  0.9552   -2.1
 0.050  0.6533   -7.5  43.064  174.8  0.0019   88.7  0.9572   -2.5
 0.055  0.6524   -8.3  43.049  174.3  0.0021   87.2  0.9567   -2.9
 0.060  0.6516   -9.1  43.037  173.7  0.0022   86.0  0.9563   -3.3
 0.065  0.6509   -9.9  43.030  173.2  0.0024   84.9  0.9559   -3.7
 0.070  0.6504  -10.7  43.027  172.6  0.0026   84.0  0.9556   -4.1
 0.075  0.6500  -11.5  43.027  172.0  0.0027   83.2  0.9553   -4.5
 0.080  0.6498  -12.4  43.032  171.5  0.0029   82.5  0.9551   -5.0
 0.085  0.6496  -13.2  43.041  170.9  0.0031   81.8  0.9549   -5.4
 0.090  0.6496  -14.0  43.053  170.4  0.0033   81.3  0.9548   -5.8
 0.095  0.6497  -14.8  43.070  169.8  0.0034   80.8  0.9547   -6.2
 0.100  0.6500  -15.6  43.090  169.3  0.0036   80.3  0.9547   -6.6
 0.105  0.6485  -16.3  42.964  168.8  0.0038   80.0  0.9533   -7.0
 0.110  0.6471  -17.1  42.842  168.2  0.0039   79.7  0.9519   -7.3
 0.115  0.6459  -17.8  42.724  167.7  0.0041   79.4  0.9506   -7.7
 0.120  0.6447  -18.6  42.610  167.1  0.0042   79.1  0.9493   -8.0
 0.125  0.6437  -19.3  42.500  166.6  0.0044   78.9  0.9480   -8.4
 0.130  0.6427  -20.1  42.394  166.0  0.0046   78.7  0.9468   -8.7
 0.135  0.6419  -20.8  42.291  165.5  0.0047   78.4  0.9456   -9.1
 0.140  0.6412  -21.6  42.193  164.9  0.0049   78.3  0.9444   -9.5
 0.145  0.6406  -22.3  42.098  164.4  0.0050   78.1  0.9433   -9.8
 0.150  0.6401  -23.1  42.008  163.8  0.0052   77.9  0.9422  -10.2
 0.155  0.6389  -23.8  41.896  163.3  0.0054   77.5  0.9403  -10.5
 0.160  0.6377  -24.5  41.787  162.8  0.0055   77.1  0.9384  -10.9
 0.165  0.6367  -25.2  41.682  162.3  0.0057   76.8  0.9365  -11.2
 0.170  0.6358  -25.9  41.579  161.8  0.0058   76.5  0.9346  -11.5
 0.175  0.6349  -26.6  41.480  161.3  0.0060   76.1  0.9328  -11.9
 0.180  0.6342  -27.3  41.384  160.8  0.0062   75.8  0.9311  -12.2
 0.185  0.6335  -28.1  41.291  160.3  0.0063   75.6  0.9293  -12.6
 0.190  0.6330  -28.8  41.201  159.8  0.0065   75.3  0.9276  -12.9
 0.195  0.6325  -29.5  41.114  159.3  0.0066   75.0  0.9259  -13.3
 0.200  0.6322  -30.2  41.031  158.8  0.0068   74.8  0.9243  -13.6
 0.220  0.6262  -32.8  40.460  156.9  0.0074   73.6  0.9161  -14.8
 0.240  0.6216  -35.5  39.933  155.0  0.0079   72.6  0.9083  -16.0
 0.260  0.6172  -38.2  39.409  153.2  0.0085   71.6  0.9001  -17.1
 0.280  0.6129  -40.9  38.879  151.5  0.0090   70.6  0.8916  -18.3
 0.300  0.6100  -43.6  38.385  149.7  0.0096   69.8  0.8834  -19.4
 0.320  0.6051  -46.1  37.827  148.2  0.0102   68.8  0.8740  -20.5
 0.340  0.6013  -48.5  37.297  146.6  0.0107   67.8  0.8649  -21.5
 0.360  0.5977  -50.9  36.777  145.1  0.0112   66.9  0.8559  -22.6
 0.380  0.5943  -53.3  36.264  143.6  0.0117   66.0  0.8468  -23.5
 0.400  0.5918  -55.6  35.775  142.1  0.0122   65.1  0.8380  -24.4
 0.420  0.5876  -57.9  35.223  140.8  0.0127   64.2  0.8292  -25.3
 0.440  0.5844  -60.1  34.689  139.5  0.0132   63.3  0.8205  -26.2
 0.450  0.5831  -61.3  34.429  138.8  0.0134   62.9  0.8163  -26.7
 0.460  0.5808  -62.4  34.175  138.2  0.0136   62.5  0.8117  -27.1
 0.480  0.5768  -64.6  33.679  136.8  0.0140   61.8  0.8027  -28.0
 0.500  0.5737  -66.9  33.202  135.5  0.0144   61.1  0.7939  -28.9
 0.520  0.5697  -68.9  32.730  134.4  0.0148   60.3  0.7852  -29.6
 0.540  0.5663  -70.8  32.271  133.2  0.0152   59.5  0.7766  -30.3
 0.560  0.5636  -72.8  31.825  132.1  0.0155   58.7  0.7681  -31.1
 0.580  0.5617  -74.9  31.393  130.8  0.0159   58.0  0.7597  -31.8
 0.600  0.5604  -76.9  30.976  129.6  0.0163   57.3  0.7515  -32.6
 0.620  0.5569  -78.8  30.534  128.6  0.0167   56.6  0.7434  -33.3
 0.640  0.5540  -80.7  30.101  127.6  0.0170   55.9  0.7354  -33.9
 0.660  0.5517  -82.6  29.677  126.6  0.0174   55.2  0.7275  -34.6
 0.680  0.5500  -84.6  29.262  125.6  0.0177   54.6  0.7197  -35.3
 0.700  0.5490  -86.5  28.858  124.5  0.0181   54.0  0.7120  -36.0
 0.720  0.5463  -88.2  28.447  123.6  0.0184   53.4  0.7046  -36.6
 0.740  0.5441  -89.9  28.044  122.7  0.0187   52.8  0.6973  -37.2
 0.760  0.5423  -91.7  27.648  121.7  0.0189   52.3  0.6901  -37.8
 0.780  0.5411  -93.4  27.260  120.7  0.0192   51.7  0.6830  -38.4
 0.800  0.5404  -95.2  26.880  119.7  0.0195   51.2  0.6759  -39.0
 0.820  0.5384  -96.8  26.546  118.9  0.0198   50.6  0.6691  -39.5
 0.840  0.5368  -98.4  26.218  118.0  0.0200   50.1  0.6624  -40.0
 0.860  0.5356 -100.0  25.895  117.1  0.0203   49.5  0.6558  -40.6
 0.880  0.5348 -101.6  25.579  116.2  0.0205   49.0  0.6492  -41.1
 0.900  0.5345 -103.2  25.270  115.3  0.0208   48.5  0.6427  -41.7
 0.920  0.5327 -104.6  24.948  114.5  0.0210   48.1  0.6363  -42.2
 0.940  0.5312 -106.1  24.631  113.8  0.0212   47.6  0.6300  -42.7
 0.960  0.5301 -107.6  24.319  113.0  0.0215   47.2  0.6237  -43.2
 0.980  0.5293 -109.0  24.011  112.1  0.0217   46.8  0.6175  -43.7
 1.000  0.5289 -110.5  23.709  111.3  0.0219   46.4  0.6113  -44.2
 1.020  0.5277 -111.9  23.423  110.6  0.0221   46.0  0.6057  -44.6
 1.040  0.5267 -113.2  23.141  109.9  0.0223   45.7  0.6001  -45.1
 1.060  0.5261 -114.6  22.862  109.1  0.0224   45.3  0.5945  -45.5
 1.080  0.5257 -115.9  22.588  108.4  0.0226   44.9  0.5890  -45.9
 1.100  0.5257 -117.3  22.317  107.6  0.0228   44.6  0.5835  -46.4
 1.120  0.5246 -118.5  22.061  106.9  0.0230   44.3  0.5783  -46.8
 1.140  0.5238 -119.8  21.808  106.2  0.0232   43.9  0.5732  -47.2
 1.160  0.5233 -121.0  21.558  105.5  0.0233   43.6  0.5680  -47.6
 1.180  0.5230 -122.3  21.312  104.8  0.0235   43.3  0.5630  -48.1
 1.200  0.5229 -123.5  21.069  104.1  0.0237   43.0  0.5579  -48.5
 1.220  0.5222 -124.6  20.834  103.5  0.0239   42.7  0.5533  -48.9
 1.240  0.5217 -125.8  20.601  102.8  0.0240   42.4  0.5488  -49.2
 1.260  0.5214 -126.9  20.371  102.2  0.0242   42.1  0.5443  -49.6
 1.280  0.5214 -128.1  20.144  101.5  0.0243   41.8  0.5398  -50.0
 1.300  0.5215 -129.2  19.920  100.8  0.0245   41.5  0.5353  -50.4
 1.320  0.5209 -130.3  19.698  100.2  0.0246   41.3  0.5310  -50.7
 1.340  0.5204 -131.4  19.477   99.6  0.0247   41.0  0.5268  -51.1
 1.360  0.5202 -132.5  19.259   99.0  0.0249   40.8  0.5226  -51.5
 1.380  0.5202 -133.6  19.043   98.3  0.0250   40.5  0.5184  -51.8
 1.400  0.5203 -134.7  18.830   97.7  0.0251   40.3  0.5142  -52.2
 1.420  0.5199 -135.6  18.641   97.2  0.0252   40.1  0.5106  -52.5
 1.440  0.5196 -136.6  18.454   96.6  0.0254   39.9  0.5071  -52.8
 1.460  0.5195 -137.5  18.269   96.1  0.0255   39.8  0.5035  -53.1
 1.480  0.5195 -138.5  18.086   95.5  0.0257   39.6  0.5000  -53.4
 1.500  0.5196 -139.4  17.904   94.9  0.0258   39.4  0.4965  -53.7
 1.520  0.5195 -140.3  17.725   94.3  0.0259   39.2  0.4930  -54.0
 1.540  0.5195 -141.3  17.547   93.8  0.0260   39.0  0.4896  -54.4
 1.560  0.5197 -142.2  17.372   93.2  0.0261   38.8  0.4861  -54.7
 1.580  0.5200 -143.2  17.198   92.6  0.0262   38.6  0.4827  -55.1
 1.600  0.5204 -144.1  17.026   92.0  0.0263   38.4  0.4793  -55.4
 1.620  0.5199 -145.0  16.866   91.5  0.0264   38.2  0.4764  -55.7
 1.640  0.5196 -145.9  16.708   91.0  0.0265   38.1  0.4734  -55.9
 1.660  0.5194 -146.8  16.551   90.4  0.0266   37.9  0.4705  -56.2
 1.680  0.5193 -147.7  16.395   89.9  0.0267   37.8  0.4676  -56.5
 1.700  0.5193 -148.6  16.241   89.3  0.0268   37.6  0.4647  -56.8
 1.720  0.5192 -149.4  16.087   88.8  0.0269   37.5  0.4620  -57.1
 1.740  0.5192 -150.2  15.934   88.3  0.0270   37.3  0.4593  -57.4
 1.760  0.5193 -150.9  15.783   87.8  0.0272   37.2  0.4566  -57.6
 1.780  0.5195 -151.7  15.632   87.3  0.0273   37.0  0.4540  -57.9
 1.800  0.5198 -152.5  15.483   86.8  0.0274   36.9  0.4513  -58.2
 1.820  0.5196 -153.3  15.347   86.3  0.0275   36.8  0.4485  -58.5
 1.840  0.5195 -154.2  15.212   85.8  0.0276   36.7  0.4457  -58.8
 1.860  0.5196 -155.0  15.079   85.3  0.0277   36.6  0.4430  -59.1
 1.880  0.5197 -155.9  14.946   84.8  0.0278   36.5  0.4402  -59.5
 1.900  0.5200 -156.7  14.815   84.3  0.0279   36.4  0.4375  -59.8
 1.920  0.5197 -157.4  14.691   83.9  0.0280   36.3  0.4353  -60.0
 1.940  0.5194 -158.1  14.568   83.4  0.0281   36.2  0.4330  -60.2
 1.960  0.5193 -158.8  14.446   82.9  0.0282   36.1  0.4308  -60.5
 1.980  0.5192 -159.5  14.324   82.5  0.0283   36.0  0.4286  -60.7
 2.000  0.5192 -160.2  14.204   82.0  0.0284   35.9  0.4264  -60.9
 2.020  0.5188 -160.9  14.088   81.6  0.0285   35.8  0.4240  -61.2
 2.040  0.5185 -161.7  13.973   81.1  0.0286   35.7  0.4217  -61.5
 2.060  0.5183 -162.4  13.858   80.6  0.0287   35.6  0.4193  -61.7
 2.080  0.5182 -163.2  13.745   80.2  0.0288   35.5  0.4170  -62.0
 2.100  0.5181 -164.0  13.632   79.7  0.0288   35.4  0.4146  -62.3
 2.120  0.5182 -164.7  13.520   79.2  0.0289   35.4  0.4123  -62.6
 2.140  0.5183 -165.5  13.410   78.7  0.0290   35.3  0.4100  -62.9
 2.160  0.5186 -166.2  13.300   78.2  0.0291   35.2  0.4077  -63.2
 2.180  0.5189 -167.0  13.192   77.7  0.0292   35.1  0.4054  -63.5
 2.200  0.5193 -167.7  13.084   77.2  0.0293   35.0  0.4031  -63.8
 2.220  0.5192 -168.4  12.984   76.8  0.0294   34.9  0.4009  -64.1
 2.240  0.5191 -169.0  12.885   76.4  0.0295   34.9  0.3988  -64.4
 2.260  0.5192 -169.7  12.787   75.9  0.0296   34.8  0.3967  -64.6
 2.280  0.5192 -170.4  12.690   75.5  0.0297   34.8  0.3945  -64.9
 2.300  0.5194 -171.1  12.593   75.1  0.0297   34.7  0.3924  -65.2
 2.320  0.5196 -171.7  12.497   74.6  0.0298   34.6  0.3903  -65.5
 2.340  0.5200 -172.4  12.401   74.2  0.0299   34.6  0.3882  -65.8
 2.360  0.5203 -173.1  12.307   73.7  0.0300   34.5  0.3861  -66.1
 2.380  0.5208 -173.7  12.213   73.3  0.0301   34.5  0.3841  -66.4
 2.400  0.5213 -174.4  12.120   72.8  0.0302   34.4  0.3820  -66.7
 2.420  0.5214 -175.1  12.032   72.4  0.0303   34.3  0.3800  -67.0
 2.440  0.5217 -175.7  11.945   72.0  0.0304   34.3  0.3780  -67.3
 2.460  0.5219 -176.4  11.858   71.6  0.0304   34.2  0.3759  -67.6
 2.480  0.5223 -177.0  11.772   71.2  0.0305   34.2  0.3740  -67.9
 2.500  0.5227 -177.7  11.686   70.7  0.0306   34.1  0.3720  -68.2
 2.520  0.5232 -178.3  11.601   70.3  0.0307   34.0  0.3700  -68.5
 2.540  0.5237 -179.0  11.517   69.9  0.0308   34.0  0.3680  -68.8
 2.560  0.5244 -179.6  11.434   69.4  0.0308   33.9  0.3661  -69.2
 2.580  0.5250  179.7  11.351   69.0  0.0309   33.9  0.3641  -69.5
 2.600  0.5258  179.1  11.269   68.5  0.0310   33.8  0.3622  -69.8
 2.620  0.5261  178.5  11.191   68.1  0.0311   33.8  0.3605  -70.1
 2.640  0.5265  178.0  11.114   67.7  0.0312   33.8  0.3588  -70.4
 2.660  0.5269  177.4  11.038   67.3  0.0312   33.8  0.3571  -70.7
 2.680  0.5274  176.8  10.962   66.9  0.0313   33.8  0.3554  -71.0
 2.700  0.5280  176.3  10.886   66.5  0.0314   33.8  0.3537  -71.4
 2.720  0.5286  175.7  10.811   66.1  0.0315   33.8  0.3520  -71.7
 2.740  0.5292  175.2  10.737   65.7  0.0316   33.8  0.3504  -72.0
 2.760  0.5299  174.6  10.663   65.3  0.0316   33.8  0.3488  -72.3
 2.780  0.5306  174.1  10.590   64.8  0.0317   33.8  0.3471  -72.7
 2.800  0.5314  173.5  10.517   64.4  0.0318   33.8  0.3455  -73.0
 2.820  0.5319  173.0  10.449   64.0  0.0319   33.8  0.3440  -73.3
 2.840  0.5325  172.4  10.382   63.7  0.0320   33.8  0.3426  -73.6
 2.860  0.5332  171.9  10.315   63.3  0.0321   33.7  0.3412  -74.0
 2.880  0.5338  171.4  10.249   62.9  0.0322   33.7  0.3397  -74.3
 2.900  0.5346  170.8  10.183   62.5  0.0322   33.7  0.3383  -74.6
 2.920  0.5354  170.3  10.118   62.1  0.0323   33.7  0.3369  -74.9
 2.940  0.5362  169.8  10.053   61.7  0.0324   33.7  0.3355  -75.3
 2.960  0.5370  169.2   9.988   61.3  0.0325   33.6  0.3341  -75.6
 2.980  0.5379  168.7   9.924   60.9  0.0326   33.6  0.3328  -76.0
 3.000  0.5389  168.2   9.861   60.5  0.0327   33.6  0.3314  -76.3
 3.100  0.5415  165.8   9.570   58.8  0.0332   33.6  0.3252  -78.0
 3.200  0.5451  163.4   9.288   57.1  0.0337   33.6  0.3192  -79.8
 3.300  0.5496  161.0   9.015   55.2  0.0342   33.6  0.3137  -81.7
 3.400  0.5551  158.7   8.752   53.2  0.0347   33.6  0.3084  -83.6
 3.500  0.5614  156.4   8.501   51.1  0.0352   33.6  0.3035  -85.6
 3.600  0.5649  154.3   8.274   49.5  0.0358   33.6  0.2985  -87.7
 3.700  0.5691  152.2   8.055   47.7  0.0364   33.5  0.2938  -89.8
 3.800  0.5741  150.1   7.843   45.9  0.0370   33.5  0.2896  -92.0
 3.900  0.5799  148.1   7.640   44.0  0.0376   33.4  0.2858  -94.3
 4.000  0.5863  146.1   7.445   42.0  0.0382   33.4  0.2825  -96.6
 4.100  0.5899  144.4   7.253   40.4  0.0389   33.2  0.2792  -99.3
 4.200  0.5940  142.7   7.067   38.7  0.0395   33.0  0.2764 -102.0
 4.300  0.5985  141.0   6.888   36.9  0.0402   32.8  0.2743 -104.8
 4.400  0.6036  139.4   6.716   35.1  0.0408   32.7  0.2729 -107.6
 4.500  0.6092  137.8   6.551   33.1  0.0415   32.5  0.2721 -110.4
 4.600  0.6113  136.5   6.393   31.6  0.0422   32.3  0.2716 -112.9
 4.700  0.6137  135.2   6.238   30.1  0.0429   32.1  0.2715 -115.3
 4.800  0.6164  133.9   6.089   28.5  0.0435   31.9  0.2720 -117.8
 4.900  0.6194  132.7   5.945   26.8  0.0442   31.8  0.2730 -120.3
 5.000  0.6227  131.4   5.806   25.0  0.0449   31.6  0.2745 -122.7
 5.100  0.6243  130.1   5.681   23.6  0.0456   31.4  0.2744 -124.9
 5.200  0.6261  128.9   5.560   22.1  0.0464   31.1  0.2747 -127.0
 5.300  0.6283  127.7   5.442   20.6  0.0471   30.9  0.2754 -129.2
 5.400  0.6308  126.4   5.329   19.0  0.0479   30.7  0.2765 -131.4
 5.500  0.6335  125.2   5.220   17.3  0.0486   30.5  0.2780 -133.5
 5.600  0.6365  124.0   5.118   15.9  0.0495   30.2  0.2779 -136.0
 5.700  0.6399  122.7   5.019   14.4  0.0503   30.0  0.2783 -138.5
 5.800  0.6435  121.5   4.924   12.9  0.0512   29.8  0.2793 -140.9
 5.900  0.6474  120.3   4.833   11.3  0.0520   29.5  0.2807 -143.4
 6.000  0.6516  119.1   4.745    9.6  0.0529   29.3  0.2827 -145.8
 6.100  0.6561  118.0   4.658    8.1  0.0539   28.8  0.2847 -148.4
 6.200  0.6609  116.9   4.575    6.6  0.0549   28.3  0.2874 -151.0
 6.300  0.6660  115.7   4.495    5.0  0.0559   27.9  0.2905 -153.5
 6.400  0.6713  114.7   4.419    3.4  0.0570   27.4  0.2943 -155.9
 6.500  0.6768  113.6   4.346    1.7  0.0580   27.0  0.2985 -158.3
 6.600  0.6804  112.5   4.272    0.2  0.0591   26.4  0.3002 -160.5
 6.800  0.6884  110.4   4.133   -2.9  0.0614   25.4  0.3050 -164.8
 7.000  0.6973  108.4   4.007   -6.2  0.0637   24.4  0.3114 -168.9
 7.200  0.7026  106.1   3.886   -9.3  0.0663   22.7  0.3164 -173.8
 7.400  0.7090  103.9   3.777  -12.6  0.0689   21.1  0.3236 -178.4
 7.600  0.7150  101.4   3.658  -16.0  0.0712   19.1  0.3322  176.6
 7.800  0.7211   98.5   3.530  -19.6  0.0734   16.8  0.3428  171.4
 8.000  0.7290   95.7   3.417  -23.4  0.0756   14.7  0.3561  166.5
 8.200  0.7333   92.6   3.276  -26.5  0.0767   12.5  0.3653  161.2
 8.400  0.7398   89.5   3.146  -29.9  0.0779   10.3  0.3776  156.2
 8.600  0.7496   86.6   3.025  -33.1  0.0789    8.3  0.3904  151.0
 8.800  0.7624   83.9   2.911  -36.1  0.0796    6.6  0.4046  145.7
 9.000  0.7769   81.3   2.805  -39.4  0.0805    4.9  0.4219  140.8
 9.200  0.8006   79.0   2.701  -42.3  0.0813    3.4  0.4439  135.5
 9.400  0.8257   76.8   2.605  -45.4  0.0822    1.8  0.4693  130.7
 9.600  0.8489   74.8   2.495  -48.5  0.0832    0.2  0.4980  126.4
 9.800  0.8701   72.9   2.371  -51.6  0.0842   -1.5  0.5295  122.6
10.000  0.8921   71.2   2.255  -55.1  0.0853   -3.2  0.5631  119.2
!
!  f       NFmin   Gammaopt  rn/50
! GHz       dB    MAG  ANG    -
 0.450      1.07  0.02 -141   0.18
 0.900      1.10  0.05 -148   0.12
 1.900      1.13  0.08 -133   0.15
 2.400      1.13  0.10 -124   0.13
 5.500      1.29  0.28 -102   0.15
10.000      1.68  0.53  -84   0.53
!
! (c) 2016  Infineon Technologies AG, Munich
