! Infineon Technologies  Discrete & RF Semiconductors
! BFP740ESD
! VCE =  3.0 V,  IC =  50 mA
! Common Emitter S-Parameters:                            Jan 2016
# GHz  S  MA  R  50
!  f         S11            S21            S12            S22
! GHz     MAG   ANG      MAG   ANG      MAG   ANG      MAG   ANG
 0.010  0.3478   -4.4  40.494 -179.7  0.0010   52.4  0.6842    4.8
 0.015  0.3481   -6.7  40.626  178.6  0.0012   58.5  0.6927    2.2
 0.020  0.3489   -8.9  40.791  177.0  0.0015   62.6  0.7026   -0.4
 0.025  0.3481  -10.8  40.703  176.3  0.0017   62.5  0.7037   -1.0
 0.030  0.3476  -12.7  40.622  175.6  0.0019   62.5  0.7049   -1.6
 0.035  0.3476  -14.6  40.546  174.9  0.0020   62.4  0.7061   -2.2
 0.040  0.3479  -16.5  40.478  174.1  0.0022   62.4  0.7074   -2.8
 0.045  0.3486  -18.4  40.415  173.4  0.0024   62.3  0.7088   -3.4
 0.050  0.3497  -20.3  40.359  172.7  0.0026   62.3  0.7103   -4.0
 0.055  0.3493  -22.1  40.245  171.9  0.0028   63.0  0.7091   -4.5
 0.060  0.3494  -24.0  40.140  171.0  0.0030   63.6  0.7080   -5.1
 0.065  0.3497  -25.8  40.044  170.2  0.0032   64.1  0.7070   -5.6
 0.070  0.3504  -27.6  39.955  169.4  0.0034   64.6  0.7060   -6.2
 0.075  0.3515  -29.5  39.876  168.5  0.0035   65.0  0.7051   -6.7
 0.080  0.3530  -31.3  39.805  167.7  0.0037   65.4  0.7042   -7.3
 0.085  0.3547  -33.1  39.742  166.9  0.0039   65.7  0.7035   -7.8
 0.090  0.3569  -34.8  39.688  166.0  0.0041   66.1  0.7027   -8.4
 0.095  0.3593  -36.6  39.643  165.2  0.0043   66.3  0.7021   -8.9
 0.100  0.3621  -38.3  39.607  164.3  0.0045   66.6  0.7015   -9.5
 0.105  0.3622  -39.9  39.414  163.6  0.0047   66.4  0.6992  -10.0
 0.110  0.3627  -41.6  39.228  162.8  0.0049   66.2  0.6970  -10.5
 0.115  0.3634  -43.2  39.048  162.1  0.0050   66.0  0.6949  -10.9
 0.120  0.3645  -44.8  38.875  161.3  0.0052   65.9  0.6928  -11.4
 0.125  0.3658  -46.5  38.709  160.6  0.0054   65.7  0.6907  -11.9
 0.130  0.3674  -48.1  38.549  159.8  0.0056   65.6  0.6887  -12.4
 0.135  0.3693  -49.6  38.397  159.0  0.0058   65.5  0.6868  -12.9
 0.140  0.3715  -51.2  38.251  158.3  0.0059   65.3  0.6849  -13.4
 0.145  0.3740  -52.8  38.112  157.5  0.0061   65.2  0.6830  -13.9
 0.150  0.3767  -54.3  37.981  156.7  0.0063   65.1  0.6812  -14.4
 0.155  0.3776  -55.7  37.761  156.1  0.0065   65.0  0.6786  -14.8
 0.160  0.3788  -57.1  37.545  155.4  0.0066   64.8  0.6761  -15.2
 0.165  0.3801  -58.5  37.334  154.8  0.0068   64.7  0.6736  -15.6
 0.170  0.3817  -59.9  37.128  154.1  0.0070   64.5  0.6712  -16.0
 0.175  0.3835  -61.3  36.927  153.4  0.0071   64.4  0.6688  -16.4
 0.180  0.3856  -62.7  36.731  152.8  0.0073   64.3  0.6664  -16.8
 0.185  0.3878  -64.0  36.541  152.1  0.0075   64.2  0.6640  -17.2
 0.190  0.3903  -65.4  36.355  151.4  0.0077   64.1  0.6617  -17.7
 0.195  0.3930  -66.7  36.175  150.7  0.0078   64.0  0.6594  -18.1
 0.200  0.3959  -68.0  36.000  150.0  0.0080   63.9  0.6572  -18.5
 0.220  0.4012  -73.0  35.088  147.6  0.0086   62.8  0.6464  -19.9
 0.240  0.4095  -77.8  34.240  145.1  0.0092   61.9  0.6360  -21.4
 0.260  0.4177  -82.2  33.426  142.8  0.0098   61.0  0.6256  -22.7
 0.280  0.4255  -86.3  32.629  140.7  0.0103   60.0  0.6152  -23.9
 0.300  0.4354  -90.3  31.878  138.5  0.0109   59.2  0.6051  -25.2
 0.320  0.4429  -93.9  31.071  136.7  0.0114   58.3  0.5948  -26.3
 0.340  0.4522  -97.4  30.295  134.9  0.0119   57.6  0.5847  -27.4
 0.360  0.4603 -100.6  29.546  133.1  0.0124   56.7  0.5750  -28.5
 0.380  0.4669 -103.7  28.819  131.4  0.0129   55.8  0.5656  -29.4
 0.400  0.4749 -106.6  28.118  129.6  0.0133   55.0  0.5563  -30.4
 0.420  0.4808 -109.3  27.436  128.1  0.0137   54.4  0.5472  -31.2
 0.440  0.4878 -111.9  26.773  126.6  0.0141   53.8  0.5382  -32.1
 0.450  0.4917 -113.2  26.449  125.8  0.0143   53.5  0.5338  -32.5
 0.460  0.4946 -114.4  26.137  125.1  0.0145   53.1  0.5295  -32.9
 0.480  0.5009 -116.8  25.524  123.7  0.0149   52.3  0.5209  -33.7
 0.500  0.5082 -119.2  24.927  122.3  0.0153   51.6  0.5125  -34.5
 0.520  0.5125 -121.3  24.370  121.2  0.0156   51.0  0.5049  -35.1
 0.540  0.5176 -123.3  23.823  120.0  0.0159   50.4  0.4974  -35.7
 0.560  0.5232 -125.3  23.287  118.8  0.0162   49.8  0.4900  -36.4
 0.580  0.5295 -127.3  22.762  117.5  0.0165   49.2  0.4826  -37.0
 0.600  0.5364 -129.2  22.249  116.1  0.0168   48.7  0.4753  -37.7
 0.620  0.5403 -130.9  21.800  115.2  0.0171   48.2  0.4689  -38.2
 0.640  0.5446 -132.6  21.357  114.2  0.0174   47.7  0.4625  -38.8
 0.660  0.5493 -134.2  20.921  113.2  0.0176   47.2  0.4562  -39.3
 0.680  0.5546 -135.8  20.491  112.1  0.0179   46.7  0.4499  -39.9
 0.700  0.5602 -137.4  20.069  111.0  0.0182   46.3  0.4437  -40.5
 0.720  0.5633 -138.8  19.681  110.2  0.0184   45.9  0.4382  -40.9
 0.740  0.5666 -140.2  19.298  109.3  0.0186   45.6  0.4327  -41.4
 0.760  0.5704 -141.6  18.919  108.4  0.0189   45.2  0.4272  -41.8
 0.780  0.5744 -143.0  18.546  107.4  0.0191   44.8  0.4218  -42.3
 0.800  0.5788 -144.3  18.178  106.4  0.0193   44.5  0.4164  -42.8
 0.820  0.5816 -145.5  17.862  105.6  0.0195   44.1  0.4118  -43.2
 0.840  0.5848 -146.8  17.550  104.8  0.0197   43.8  0.4072  -43.6
 0.860  0.5881 -148.0  17.241  104.0  0.0199   43.5  0.4027  -44.0
 0.880  0.5918 -149.2  16.937  103.1  0.0201   43.1  0.3981  -44.5
 0.900  0.5957 -150.4  16.636  102.2  0.0203   42.8  0.3936  -44.9
 0.920  0.5979 -151.5  16.359  101.5  0.0205   42.6  0.3893  -45.2
 0.940  0.6004 -152.5  16.084  100.8  0.0206   42.3  0.3850  -45.6
 0.960  0.6031 -153.6  15.813  100.1  0.0208   42.1  0.3808  -46.0
 0.980  0.6059 -154.7  15.543   99.3  0.0209   41.8  0.3765  -46.3
 1.000  0.6090 -155.7  15.277   98.5  0.0211   41.6  0.3723  -46.7
 1.020  0.6111 -156.6  15.041   97.9  0.0213   41.4  0.3689  -47.0
 1.040  0.6133 -157.6  14.807   97.2  0.0214   41.3  0.3655  -47.4
 1.060  0.6157 -158.5  14.575   96.5  0.0216   41.1  0.3622  -47.7
 1.080  0.6183 -159.4  14.345   95.8  0.0217   41.0  0.3588  -48.0
 1.100  0.6210 -160.3  14.117   95.1  0.0219   40.8  0.3555  -48.4
 1.120  0.6228 -161.2  13.915   94.5  0.0220   40.7  0.3523  -48.7
 1.140  0.6247 -162.0  13.714   93.8  0.0222   40.5  0.3491  -49.1
 1.160  0.6268 -162.9  13.515   93.2  0.0223   40.4  0.3460  -49.4
 1.180  0.6290 -163.8  13.318   92.5  0.0225   40.2  0.3428  -49.7
 1.200  0.6314 -164.6  13.123   91.8  0.0226   40.1  0.3397  -50.1
 1.220  0.6329 -165.4  12.944   91.3  0.0227   40.0  0.3371  -50.4
 1.240  0.6344 -166.2  12.766   90.7  0.0228   39.9  0.3346  -50.7
 1.260  0.6361 -167.0  12.589   90.1  0.0230   39.8  0.3321  -51.0
 1.280  0.6380 -167.7  12.413   89.5  0.0231   39.7  0.3295  -51.3
 1.300  0.6399 -168.5  12.239   88.9  0.0232   39.6  0.3270  -51.6
 1.320  0.6411 -169.2  12.077   88.4  0.0233   39.5  0.3247  -51.9
 1.340  0.6424 -169.9  11.916   87.8  0.0234   39.4  0.3224  -52.2
 1.360  0.6438 -170.6  11.756   87.3  0.0236   39.4  0.3201  -52.5
 1.380  0.6452 -171.3  11.597   86.7  0.0237   39.3  0.3178  -52.9
 1.400  0.6468 -172.0  11.440   86.1  0.0238   39.2  0.3155  -53.2
 1.420  0.6479 -172.6  11.303   85.6  0.0239   39.1  0.3135  -53.5
 1.440  0.6492 -173.3  11.167   85.1  0.0240   39.1  0.3115  -53.7
 1.460  0.6505 -173.9  11.032   84.6  0.0242   39.0  0.3095  -54.0
 1.480  0.6518 -174.6  10.897   84.0  0.0243   39.0  0.3076  -54.2
 1.500  0.6533 -175.2  10.764   83.5  0.0244   38.9  0.3056  -54.5
 1.520  0.6544 -175.8  10.639   83.0  0.0245   38.9  0.3040  -54.8
 1.540  0.6555 -176.4  10.514   82.5  0.0246   38.9  0.3024  -55.2
 1.560  0.6567 -177.0  10.391   82.0  0.0248   38.8  0.3008  -55.5
 1.580  0.6580 -177.6  10.268   81.4  0.0249   38.8  0.2993  -55.9
 1.600  0.6593 -178.2  10.146   80.9  0.0250   38.8  0.2977  -56.2
 1.620  0.6601 -178.8  10.036   80.4  0.0251   38.8  0.2960  -56.5
 1.640  0.6610 -179.4   9.927   80.0  0.0252   38.8  0.2944  -56.7
 1.660  0.6620  179.9   9.818   79.5  0.0253   38.7  0.2928  -57.0
 1.680  0.6631  179.3   9.710   79.0  0.0254   38.7  0.2911  -57.2
 1.700  0.6642  178.7   9.603   78.5  0.0255   38.7  0.2895  -57.5
 1.720  0.6649  178.2   9.499   78.0  0.0256   38.7  0.2883  -57.8
 1.740  0.6656  177.7   9.395   77.6  0.0257   38.7  0.2871  -58.1
 1.760  0.6664  177.2   9.292   77.1  0.0259   38.7  0.2859  -58.4
 1.780  0.6672  176.7   9.190   76.6  0.0260   38.7  0.2848  -58.7
 1.800  0.6681  176.2   9.088   76.1  0.0261   38.7  0.2836  -59.0
 1.820  0.6689  175.6   8.996   75.7  0.0262   38.7  0.2820  -59.3
 1.840  0.6698  175.1   8.905   75.2  0.0263   38.7  0.2805  -59.7
 1.860  0.6708  174.5   8.814   74.8  0.0265   38.6  0.2790  -60.0
 1.880  0.6718  174.0   8.724   74.4  0.0266   38.6  0.2774  -60.4
 1.900  0.6729  173.4   8.634   73.9  0.0267   38.6  0.2759  -60.7
 1.920  0.6733  172.9   8.552   73.5  0.0268   38.6  0.2749  -60.9
 1.940  0.6737  172.4   8.470   73.0  0.0269   38.7  0.2739  -61.2
 1.960  0.6741  172.0   8.389   72.6  0.0271   38.7  0.2729  -61.4
 1.980  0.6746  171.5   8.308   72.2  0.0272   38.8  0.2719  -61.7
 2.000  0.6752  171.0   8.228   71.7  0.0273   38.8  0.2709  -61.9
 2.020  0.6755  170.5   8.153   71.3  0.0274   38.8  0.2696  -62.2
 2.040  0.6759  170.0   8.079   70.9  0.0275   38.8  0.2684  -62.6
 2.060  0.6764  169.5   8.005   70.5  0.0276   38.9  0.2671  -62.9
 2.080  0.6769  169.0   7.932   70.0  0.0277   38.9  0.2659  -63.2
 2.100  0.6775  168.5   7.859   69.6  0.0278   38.9  0.2646  -63.6
 2.120  0.6781  168.0   7.786   69.2  0.0280   38.9  0.2634  -63.9
 2.140  0.6787  167.5   7.714   68.7  0.0281   38.9  0.2622  -64.2
 2.160  0.6794  167.0   7.643   68.2  0.0282   39.0  0.2610  -64.6
 2.180  0.6802  166.5   7.572   67.8  0.0283   39.0  0.2598  -64.9
 2.200  0.6810  166.0   7.501   67.3  0.0284   39.0  0.2586  -65.3
 2.220  0.6815  165.6   7.439   66.9  0.0285   39.0  0.2574  -65.7
 2.240  0.6821  165.1   7.377   66.5  0.0287   39.0  0.2562  -66.0
 2.260  0.6828  164.7   7.316   66.1  0.0288   39.0  0.2550  -66.4
 2.280  0.6834  164.3   7.255   65.7  0.0289   39.0  0.2539  -66.8
 2.300  0.6841  163.8   7.194   65.3  0.0290   39.1  0.2527  -67.2
 2.320  0.6849  163.4   7.134   64.9  0.0292   39.1  0.2516  -67.5
 2.340  0.6856  163.0   7.074   64.5  0.0293   39.1  0.2504  -67.9
 2.360  0.6865  162.6   7.014   64.1  0.0294   39.1  0.2493  -68.3
 2.380  0.6873  162.1   6.955   63.6  0.0296   39.1  0.2482  -68.7
 2.400  0.6882  161.7   6.896   63.2  0.0297   39.1  0.2471  -69.1
 2.420  0.6889  161.3   6.841   62.8  0.0298   39.1  0.2460  -69.5
 2.440  0.6897  160.8   6.786   62.4  0.0299   39.1  0.2449  -69.9
 2.460  0.6905  160.4   6.732   62.0  0.0301   39.2  0.2438  -70.4
 2.480  0.6914  160.0   6.678   61.6  0.0302   39.2  0.2428  -70.8
 2.500  0.6923  159.5   6.624   61.2  0.0303   39.2  0.2417  -71.2
 2.520  0.6933  159.1   6.570   60.8  0.0304   39.2  0.2407  -71.6
 2.540  0.6942  158.7   6.517   60.4  0.0305   39.2  0.2397  -72.1
 2.560  0.6952  158.3   6.464   60.0  0.0307   39.3  0.2387  -72.5
 2.580  0.6963  157.8   6.412   59.5  0.0308   39.3  0.2377  -73.0
 2.600  0.6974  157.4   6.360   59.1  0.0309   39.3  0.2367  -73.4
 2.620  0.6980  157.0   6.313   58.8  0.0310   39.4  0.2358  -73.9
 2.640  0.6986  156.7   6.266   58.4  0.0312   39.4  0.2349  -74.3
 2.660  0.6992  156.3   6.220   58.0  0.0313   39.5  0.2341  -74.8
 2.680  0.6998  155.9   6.173   57.7  0.0314   39.5  0.2332  -75.2
 2.700  0.7005  155.5   6.127   57.3  0.0315   39.6  0.2324  -75.7
 2.720  0.7012  155.2   6.082   56.9  0.0317   39.6  0.2316  -76.2
 2.740  0.7020  154.8   6.036   56.6  0.0318   39.7  0.2308  -76.7
 2.760  0.7028  154.4   5.991   56.2  0.0319   39.7  0.2300  -77.1
 2.780  0.7036  154.1   5.946   55.8  0.0321   39.8  0.2292  -77.6
 2.800  0.7044  153.7   5.901   55.4  0.0322   39.8  0.2285  -78.1
 2.820  0.7051  153.3   5.861   55.0  0.0323   39.8  0.2278  -78.6
 2.840  0.7058  153.0   5.822   54.7  0.0325   39.8  0.2272  -79.0
 2.860  0.7065  152.6   5.782   54.3  0.0326   39.9  0.2265  -79.5
 2.880  0.7073  152.3   5.743   53.9  0.0328   39.9  0.2259  -80.0
 2.900  0.7081  151.9   5.704   53.6  0.0329   39.9  0.2253  -80.5
 2.920  0.7089  151.5   5.666   53.2  0.0331   39.9  0.2247  -80.9
 2.940  0.7098  151.2   5.627   52.8  0.0332   39.9  0.2241  -81.4
 2.960  0.7107  150.8   5.589   52.4  0.0334   40.0  0.2236  -81.9
 2.980  0.7116  150.5   5.552   52.0  0.0335   40.0  0.2230  -82.4
 3.000  0.7125  150.1   5.514   51.6  0.0337   40.0  0.2225  -82.9
 3.100  0.7152  148.3   5.342   50.0  0.0345   40.0  0.2193  -85.6
 3.200  0.7186  146.5   5.175   48.2  0.0353   40.0  0.2165  -88.3
 3.300  0.7227  144.7   5.013   46.3  0.0361   40.0  0.2143  -91.1
 3.400  0.7275  142.9   4.857   44.3  0.0369   40.0  0.2126  -93.9
 3.500  0.7330  141.2   4.707   42.2  0.0377   40.0  0.2114  -96.8
 3.600  0.7353  139.4   4.570   40.6  0.0386   39.8  0.2091  -99.9
 3.700  0.7383  137.7   4.438   38.8  0.0395   39.7  0.2075 -103.1
 3.800  0.7420  136.0   4.309   37.0  0.0403   39.5  0.2065 -106.4
 3.900  0.7464  134.3   4.186   35.1  0.0412   39.3  0.2062 -109.6
 4.000  0.7514  132.6   4.067   33.0  0.0421   39.2  0.2066 -112.9
 4.100  0.7531  131.2   3.953   31.5  0.0430   38.9  0.2069 -116.6
 4.200  0.7553  129.7   3.842   29.8  0.0439   38.5  0.2080 -120.2
 4.300  0.7579  128.3   3.734   28.1  0.0449   38.2  0.2099 -123.8
 4.400  0.7610  126.9   3.630   26.2  0.0458   37.9  0.2127 -127.3
 4.500  0.7646  125.5   3.530   24.3  0.0467   37.6  0.2162 -130.7
 4.600  0.7656  124.5   3.437   23.0  0.0476   37.3  0.2190 -133.7
 4.700  0.7669  123.5   3.347   21.5  0.0485   36.9  0.2225 -136.6
 4.800  0.7684  122.5   3.259   20.0  0.0495   36.6  0.2264 -139.4
 4.900  0.7701  121.5   3.172   18.5  0.0504   36.3  0.2309 -142.1
 5.000  0.7721  120.5   3.089   16.8  0.0513   36.0  0.2359 -144.7
 5.100  0.7735  119.6   3.020   15.5  0.0523   35.6  0.2387 -147.3
 5.200  0.7751  118.6   2.953   14.1  0.0533   35.2  0.2419 -149.8
 5.300  0.7770  117.7   2.887   12.6  0.0542   34.8  0.2456 -152.3
 5.400  0.7790  116.8   2.823   11.1  0.0552   34.4  0.2497 -154.7
 5.500  0.7812  115.9   2.762    9.5  0.0562   34.0  0.2543 -157.0
 5.600  0.7835  114.9   2.707    8.1  0.0573   33.5  0.2576 -159.8
 5.700  0.7860  114.0   2.653    6.7  0.0585   33.1  0.2616 -162.5
 5.800  0.7887  113.1   2.601    5.2  0.0596   32.6  0.2661 -165.2
 5.900  0.7916  112.1   2.550    3.6  0.0608   32.2  0.2712 -167.7
 6.000  0.7947  111.2   2.502    2.0  0.0619   31.8  0.2768 -170.2
 6.100  0.7974  110.2   2.454    0.5  0.0631   31.0  0.2820 -172.7
 6.200  0.8003  109.1   2.409   -1.1  0.0644   30.3  0.2876 -175.0
 6.300  0.8035  108.1   2.365   -2.7  0.0656   29.6  0.2938 -177.3
 6.400  0.8070  107.1   2.323   -4.4  0.0669   28.9  0.3004 -179.5
 6.500  0.8107  106.1   2.283   -6.1  0.0682   28.2  0.3074  178.4
 6.600  0.8125  104.9   2.241   -7.6  0.0695   27.3  0.3115  176.3
 6.800  0.8172  102.5   2.161  -10.8  0.0721   25.7  0.3209  172.3
 7.000  0.8233  100.2   2.088  -14.3  0.0748   24.2  0.3318  168.5
 7.200  0.8262   97.6   2.010  -17.4  0.0773   22.0  0.3416  163.8
 7.400  0.8308   95.0   1.939  -20.7  0.0799   19.9  0.3536  159.5
 7.600  0.8347   92.4   1.864  -24.0  0.0820   17.6  0.3662  154.9
 7.800  0.8380   89.8   1.785  -27.3  0.0838   15.2  0.3800  150.1
 8.000  0.8430   87.2   1.712  -30.8  0.0857   12.9  0.3963  145.7
 8.200  0.8442   84.9   1.635  -33.5  0.0865   10.7  0.4074  141.1
 8.400  0.8468   82.6   1.563  -36.5  0.0874    8.6  0.4210  136.8
 8.600  0.8529   80.6   1.498  -39.4  0.0883    6.7  0.4361  132.4
 8.800  0.8620   78.7   1.440  -42.0  0.0890    5.0  0.4531  127.9
 9.000  0.8721   76.9   1.385  -44.9  0.0899    3.4  0.4726  123.8
 9.200  0.8901   75.0   1.335  -47.5  0.0908    1.7  0.4990  119.8
 9.400  0.9091   73.2   1.287  -50.4  0.0917    0.1  0.5276  116.2
 9.600  0.9251   71.3   1.231  -53.3  0.0925   -1.7  0.5576  113.1
 9.800  0.9384   69.2   1.166  -56.3  0.0933   -3.7  0.5887  110.2
10.000  0.9529   67.2   1.105  -59.6  0.0941   -5.7  0.6211  107.7
!
!  f       NFmin   Gammaopt  rn/50
! GHz       dB    MAG  ANG    -
!
! noise parameter not available yet for this operation point!
!
! (c) 2016  Infineon Technologies AG, Munich
