! Infineon Technologies  Discrete & RF Semiconductors
! BFP780
! VCE =  3.0 V,  IC =  20 mA
! Common Emitter S-Parameters:                            Jul 2015
# GHz  S  MA  R  50
!  f         S11            S21            S12            S22
! GHz     MAG   ANG      MAG   ANG      MAG   ANG      MAG   ANG
 0.030  0.7227  -19.5  46.119  170.1  0.0065   80.0  0.9822  -12.9
 0.040  0.7225  -25.7  45.676  166.8  0.0091   78.3  0.9733  -17.1
 0.050  0.7206  -32.3  45.230  163.4  0.0117   63.8  0.9650  -21.6
 0.060  0.7266  -38.1  44.514  160.5  0.0136   69.0  0.9501  -25.4
 0.070  0.7234  -43.8  43.838  157.3  0.0153   68.5  0.9382  -29.4
 0.080  0.7259  -49.4  43.035  154.4  0.0169   67.3  0.9234  -33.2
 0.090  0.7273  -54.7  42.062  151.7  0.0185   64.6  0.9058  -37.0
 0.100  0.7290  -59.8  41.184  149.0  0.0198   60.5  0.8897  -40.5
 0.110  0.7296  -64.8  40.228  146.4  0.0215   57.2  0.8719  -44.3
 0.120  0.7325  -69.6  39.267  143.9  0.0230   56.1  0.8555  -47.5
 0.130  0.7333  -74.2  38.387  141.6  0.0245   54.1  0.8341  -50.8
 0.140  0.7342  -78.5  37.406  139.2  0.0250   52.2  0.8165  -54.0
 0.150  0.7362  -82.5  36.438  137.2  0.0262   50.3  0.8015  -56.9
 0.200  0.7454  -99.8  31.913  127.7  0.0307   41.5  0.7212  -70.5
 0.250  0.7495 -113.0  27.962  120.2  0.0340   35.8  0.6577  -81.7
 0.300  0.7534 -123.6  24.659  114.1  0.0354   31.7  0.6030  -91.4
 0.350  0.7561 -131.9  21.913  109.1  0.0375   26.8  0.5613  -99.4
 0.400  0.7591 -138.6  19.655  104.8  0.0384   23.8  0.5300 -106.4
 0.450  0.7602 -144.0  17.788  101.2  0.0387   21.4  0.5051 -112.3
 0.500  0.7599 -148.7  16.198   98.1  0.0393   19.4  0.4833 -117.7
 0.600  0.7636 -156.4  13.714   92.5  0.0403   15.9  0.4554 -126.6
 0.700  0.7633 -162.4  11.861   87.8  0.0402   13.4  0.4356 -133.9
 0.800  0.7667 -167.2  10.427   83.9  0.0407   11.6  0.4254 -139.8
 0.900  0.7673 -171.4   9.295   80.1  0.0407   10.3  0.4167 -144.9
 1.000  0.7710 -175.0   8.380   76.7  0.0409    8.8  0.4155 -149.2
 1.100  0.7712 -178.2   7.614   73.5  0.0408    7.9  0.4131 -153.2
 1.200  0.7757  178.9   6.984   70.4  0.0408    7.1  0.4159 -156.4
 1.300  0.7756  176.2   6.434   67.5  0.0407    6.2  0.4163 -159.4
 1.400  0.7785  173.8   5.961   64.6  0.0407    5.6  0.4209 -162.0
 1.500  0.7786  171.5   5.553   61.9  0.0406    5.2  0.4237 -164.4
 1.600  0.7827  169.2   5.197   59.1  0.0408    4.8  0.4302 -166.8
 1.700  0.7829  167.0   4.874   56.4  0.0405    4.1  0.4353 -169.0
 1.800  0.7841  164.9   4.584   53.6  0.0403    4.0  0.4422 -171.1
 1.900  0.7856  163.1   4.325   51.2  0.0401    3.8  0.4486 -173.1
 2.000  0.7898  161.1   4.105   48.6  0.0400    3.5  0.4565 -175.0
 2.100  0.7905  159.3   3.880   46.0  0.0398    3.2  0.4593 -176.3
 2.200  0.7910  157.5   3.682   43.5  0.0394    3.5  0.4654 -178.1
 2.300  0.7928  155.8   3.504   41.1  0.0393    3.3  0.4708 -179.8
 2.400  0.7959  154.0   3.347   38.5  0.0393    3.4  0.4774  178.4
 2.500  0.7978  152.3   3.198   36.1  0.0392    3.5  0.4842  176.6
 2.600  0.7991  150.4   3.051   33.6  0.0389    3.7  0.4909  174.7
 2.700  0.7994  148.8   2.915   31.2  0.0388    3.9  0.4976  173.0
 2.800  0.8023  147.1   2.791   28.8  0.0387    4.4  0.5050  171.2
 2.900  0.8038  145.4   2.673   26.4  0.0386    4.3  0.5132  169.5
 3.000  0.8062  143.7   2.564   24.0  0.0386    4.6  0.5213  167.6
 3.100  0.8078  142.2   2.458   21.7  0.0387    5.5  0.5294  165.9
 3.200  0.8089  140.7   2.360   19.4  0.0385    5.9  0.5372  164.1
 3.300  0.8108  139.1   2.264   17.2  0.0387    6.3  0.5455  162.6
 3.400  0.8129  137.6   2.177   14.9  0.0389    6.7  0.5539  161.0
 3.500  0.8148  136.2   2.093   12.8  0.0392    7.0  0.5625  159.4
 3.600  0.8162  134.5   2.011   10.6  0.0392    7.9  0.5705  157.8
 3.700  0.8184  133.2   1.939    8.5  0.0396    8.6  0.5786  156.3
 3.800  0.8198  131.6   1.865    6.4  0.0398    9.0  0.5871  154.6
 3.900  0.8224  130.4   1.798    4.4  0.0403    9.6  0.5954  153.2
 4.000  0.8248  128.9   1.731    2.3  0.0407    9.9  0.6034  151.7
 4.100  0.8274  127.6   1.673    0.3  0.0410   10.5  0.6117  150.4
 4.200  0.8298  126.2   1.613   -1.7  0.0415   10.8  0.6199  148.8
 4.300  0.8321  124.9   1.560   -3.7  0.0422   11.1  0.6282  147.6
 4.400  0.8351  123.7   1.505   -5.5  0.0426   11.5  0.6361  146.2
 4.500  0.8374  122.4   1.456   -7.5  0.0433   11.8  0.6437  144.9
 4.600  0.8407  121.2   1.408   -9.3  0.0440   11.9  0.6512  143.5
 4.700  0.8424  120.0   1.363  -11.3  0.0446   12.3  0.6580  142.2
 4.800  0.8451  118.9   1.318  -13.0  0.0454   12.3  0.6653  140.9
 4.900  0.8467  118.0   1.275  -14.8  0.0460   12.5  0.6713  139.6
 5.000  0.8490  116.7   1.235  -16.6  0.0468   12.3  0.6781  138.3
 5.100  0.8511  115.8   1.198  -18.4  0.0476   12.6  0.6836  136.9
 5.200  0.8523  114.7   1.162  -20.1  0.0482   12.5  0.6899  135.7
 5.300  0.8541  113.7   1.125  -21.9  0.0490   12.3  0.6949  134.4
 5.400  0.8554  112.7   1.092  -23.6  0.0497   12.2  0.7005  133.1
 5.500  0.8554  111.9   1.058  -25.2  0.0506   12.3  0.7046  131.8
 5.600  0.8564  111.1   1.028  -26.8  0.0516   12.1  0.7101  130.6
 5.700  0.8558  110.1   1.000  -28.4  0.0524   11.9  0.7147  129.3
 5.800  0.8571  109.2   0.972  -30.1  0.0534   11.6  0.7194  127.9
 5.900  0.8564  108.4   0.945  -31.6  0.0545   11.4  0.7242  126.7
 6.000  0.8574  107.3   0.918  -33.2  0.0555   10.8  0.7291  125.3
!
!  f       NFmin   Gammaopt  rn/50
! GHz       dB    MAG  ANG    -
 0.450      0.94  0.15  144   0.07
 0.900      1.00  0.21  161   0.09
 1.500      1.11  0.31  175   0.06
 1.800      1.30  0.38 -175   0.07
 2.400      1.47  0.43 -159   0.08
 3.000      1.80  0.48 -146   0.12
 3.500      2.39  0.54 -130   0.20
!
! (c) 2015  Infineon Technologies AG, Munich
