! Infineon Technologies  Discrete & RF Semiconductors
! BFP720FESD
! VCE =  1.0 V,  IC =  4.0 mA
! Common Emitter S-Parameters:                            Jan 2016
# GHz  S  MA  R  50
!  f         S11            S21            S12            S22
! GHz     MAG   ANG      MAG   ANG      MAG   ANG      MAG   ANG
 0.010  0.9553   -0.4  12.105  179.9  0.0004  101.0  0.9915    0.4
 0.015  0.9538   -0.6  12.110  179.7  0.0006   93.9  0.9948   -0.1
 0.020  0.9524   -0.8  12.116  179.6  0.0009   90.7  0.9982   -0.6
 0.025  0.9525   -1.0  12.119  179.4  0.0011   89.7  0.9982   -0.8
 0.030  0.9527   -1.2  12.121  179.2  0.0013   89.1  0.9982   -0.9
 0.035  0.9528   -1.4  12.124  178.9  0.0015   88.6  0.9982   -1.1
 0.040  0.9530   -1.6  12.127  178.7  0.0018   88.3  0.9982   -1.3
 0.045  0.9532   -1.8  12.131  178.5  0.0020   88.0  0.9983   -1.4
 0.050  0.9534   -2.0  12.134  178.3  0.0022   87.8  0.9983   -1.6
 0.055  0.9530   -2.2  12.142  178.2  0.0024   87.7  0.9983   -1.8
 0.060  0.9525   -2.4  12.151  178.0  0.0026   87.6  0.9982   -1.9
 0.065  0.9521   -2.7  12.159  177.9  0.0028   87.6  0.9982   -2.1
 0.070  0.9517   -2.9  12.168  177.8  0.0030   87.5  0.9982   -2.2
 0.075  0.9513   -3.1  12.177  177.6  0.0032   87.5  0.9982   -2.4
 0.080  0.9510   -3.3  12.185  177.5  0.0035   87.4  0.9981   -2.6
 0.085  0.9506   -3.5  12.194  177.4  0.0037   87.4  0.9981   -2.7
 0.090  0.9502   -3.8  12.203  177.3  0.0039   87.4  0.9982   -2.9
 0.095  0.9499   -4.0  12.212  177.1  0.0041   87.3  0.9982   -3.0
 0.100  0.9496   -4.2  12.221  177.0  0.0043   87.3  0.9982   -3.2
 0.105  0.9496   -4.4  12.224  176.8  0.0045   87.1  0.9981   -3.4
 0.110  0.9496   -4.6  12.227  176.6  0.0047   86.9  0.9979   -3.5
 0.115  0.9496   -4.9  12.230  176.4  0.0050   86.7  0.9978   -3.7
 0.120  0.9497   -5.1  12.234  176.2  0.0052   86.5  0.9977   -3.9
 0.125  0.9497   -5.3  12.237  176.0  0.0054   86.3  0.9976   -4.0
 0.130  0.9498   -5.5  12.241  175.9  0.0056   86.2  0.9975   -4.2
 0.135  0.9499   -5.7  12.245  175.7  0.0058   86.1  0.9974   -4.4
 0.140  0.9500   -6.0  12.249  175.5  0.0061   85.9  0.9973   -4.6
 0.145  0.9501   -6.2  12.253  175.3  0.0063   85.8  0.9973   -4.7
 0.150  0.9502   -6.4  12.257  175.1  0.0065   85.7  0.9972   -4.9
 0.155  0.9500   -6.6  12.257  174.9  0.0067   85.6  0.9970   -5.1
 0.160  0.9499   -6.8  12.256  174.8  0.0069   85.4  0.9969   -5.2
 0.165  0.9498   -7.0  12.256  174.6  0.0071   85.3  0.9967   -5.4
 0.170  0.9496   -7.2  12.256  174.4  0.0073   85.2  0.9965   -5.5
 0.175  0.9495   -7.4  12.256  174.3  0.0075   85.1  0.9964   -5.7
 0.180  0.9494   -7.7  12.256  174.1  0.0078   85.0  0.9963   -5.9
 0.185  0.9494   -7.9  12.256  173.9  0.0080   84.9  0.9961   -6.0
 0.190  0.9493   -8.1  12.256  173.7  0.0082   84.8  0.9960   -6.2
 0.195  0.9492   -8.3  12.257  173.6  0.0084   84.7  0.9959   -6.3
 0.200  0.9492   -8.5  12.257  173.4  0.0086   84.6  0.9958   -6.5
 0.220  0.9485   -9.3  12.233  172.6  0.0095   83.9  0.9949   -7.1
 0.240  0.9481  -10.2  12.210  171.9  0.0104   83.3  0.9942   -7.8
 0.260  0.9475  -11.0  12.202  171.2  0.0112   82.8  0.9933   -8.4
 0.280  0.9469  -11.9  12.206  170.5  0.0121   82.3  0.9923   -9.1
 0.300  0.9465  -12.7  12.212  169.9  0.0129   81.8  0.9914   -9.7
 0.320  0.9447  -13.5  12.199  169.2  0.0138   81.2  0.9901  -10.3
 0.340  0.9430  -14.4  12.188  168.5  0.0147   80.7  0.9890  -11.0
 0.360  0.9419  -15.2  12.172  167.9  0.0155   80.2  0.9877  -11.6
 0.380  0.9411  -16.0  12.152  167.2  0.0164   79.6  0.9863  -12.2
 0.400  0.9406  -16.8  12.134  166.5  0.0172   79.0  0.9850  -12.8
 0.420  0.9392  -17.6  12.110  165.8  0.0180   78.4  0.9835  -13.4
 0.440  0.9380  -18.5  12.088  165.1  0.0189   77.9  0.9822  -14.1
 0.450  0.9375  -18.9  12.078  164.8  0.0193   77.6  0.9816  -14.4
 0.460  0.9366  -19.3  12.071  164.5  0.0197   77.3  0.9807  -14.7
 0.480  0.9349  -20.2  12.057  163.8  0.0206   76.7  0.9791  -15.4
 0.500  0.9335  -21.1  12.045  163.1  0.0214   76.2  0.9776  -16.0
 0.520  0.9318  -21.9  12.016  162.4  0.0222   75.5  0.9755  -16.6
 0.540  0.9302  -22.7  11.988  161.7  0.0230   74.9  0.9736  -17.2
 0.560  0.9289  -23.5  11.963  161.1  0.0239   74.3  0.9717  -17.9
 0.580  0.9277  -24.3  11.938  160.4  0.0247   73.8  0.9700  -18.5
 0.600  0.9267  -25.1  11.916  159.7  0.0255   73.3  0.9684  -19.1
 0.620  0.9247  -25.9  11.893  159.1  0.0263   72.7  0.9662  -19.7
 0.640  0.9229  -26.8  11.871  158.5  0.0271   72.1  0.9641  -20.3
 0.660  0.9212  -27.6  11.851  157.8  0.0279   71.6  0.9621  -21.0
 0.680  0.9198  -28.5  11.832  157.2  0.0287   71.1  0.9603  -21.6
 0.700  0.9186  -29.3  11.814  156.6  0.0295   70.6  0.9585  -22.2
 0.720  0.9166  -30.1  11.775  156.0  0.0303   70.0  0.9560  -22.8
 0.740  0.9147  -30.9  11.737  155.3  0.0310   69.4  0.9535  -23.5
 0.760  0.9131  -31.7  11.701  154.7  0.0318   68.8  0.9512  -24.1
 0.780  0.9116  -32.5  11.666  154.0  0.0325   68.3  0.9491  -24.8
 0.800  0.9103  -33.3  11.633  153.4  0.0333   67.8  0.9470  -25.4
 0.820  0.9080  -34.1  11.606  152.8  0.0340   67.2  0.9445  -26.0
 0.840  0.9059  -34.9  11.580  152.2  0.0348   66.7  0.9421  -26.6
 0.860  0.9039  -35.7  11.555  151.5  0.0355   66.1  0.9397  -27.2
 0.880  0.9021  -36.5  11.532  150.9  0.0363   65.6  0.9375  -27.8
 0.900  0.9005  -37.3  11.510  150.3  0.0370   65.1  0.9354  -28.4
 0.920  0.8983  -38.1  11.473  149.7  0.0377   64.5  0.9325  -29.0
 0.940  0.8962  -38.9  11.436  149.1  0.0385   64.0  0.9298  -29.6
 0.960  0.8943  -39.7  11.402  148.5  0.0392   63.4  0.9271  -30.2
 0.980  0.8926  -40.5  11.368  147.8  0.0400   62.9  0.9245  -30.9
 1.000  0.8911  -41.3  11.336  147.2  0.0407   62.4  0.9221  -31.5
 1.020  0.8886  -42.1  11.302  146.6  0.0414   61.9  0.9192  -32.1
 1.040  0.8862  -42.8  11.270  146.0  0.0421   61.4  0.9165  -32.6
 1.060  0.8841  -43.6  11.239  145.4  0.0427   60.9  0.9138  -33.2
 1.080  0.8821  -44.4  11.209  144.7  0.0434   60.4  0.9112  -33.8
 1.100  0.8802  -45.2  11.181  144.1  0.0441   59.9  0.9087  -34.4
 1.120  0.8779  -46.0  11.144  143.5  0.0448   59.3  0.9056  -35.0
 1.140  0.8757  -46.7  11.108  142.9  0.0454   58.8  0.9026  -35.6
 1.160  0.8737  -47.5  11.073  142.3  0.0461   58.2  0.8997  -36.2
 1.180  0.8718  -48.3  11.040  141.6  0.0467   57.7  0.8969  -36.9
 1.200  0.8701  -49.1  11.008  141.0  0.0474   57.2  0.8942  -37.5
 1.220  0.8675  -49.9  10.968  140.4  0.0480   56.7  0.8911  -38.1
 1.240  0.8651  -50.6  10.929  139.9  0.0486   56.1  0.8881  -38.7
 1.260  0.8628  -51.4  10.891  139.3  0.0492   55.6  0.8851  -39.3
 1.280  0.8607  -52.2  10.855  138.7  0.0499   55.1  0.8823  -39.9
 1.300  0.8587  -53.0  10.819  138.1  0.0505   54.6  0.8796  -40.5
 1.320  0.8559  -53.8  10.776  137.5  0.0511   54.1  0.8762  -41.1
 1.340  0.8532  -54.5  10.735  136.9  0.0516   53.5  0.8730  -41.6
 1.360  0.8507  -55.3  10.694  136.3  0.0522   53.0  0.8698  -42.2
 1.380  0.8483  -56.0  10.655  135.7  0.0527   52.5  0.8667  -42.8
 1.400  0.8461  -56.8  10.617  135.1  0.0533   52.0  0.8637  -43.4
 1.420  0.8439  -57.5  10.574  134.6  0.0538   51.5  0.8606  -44.0
 1.440  0.8417  -58.2  10.533  134.0  0.0544   51.1  0.8575  -44.5
 1.460  0.8397  -58.8  10.492  133.5  0.0549   50.6  0.8545  -45.1
 1.480  0.8379  -59.5  10.452  132.9  0.0555   50.1  0.8516  -45.6
 1.500  0.8361  -60.2  10.413  132.4  0.0560   49.7  0.8488  -46.2
 1.520  0.8334  -61.0  10.375  131.8  0.0565   49.2  0.8455  -46.8
 1.540  0.8309  -61.7  10.338  131.2  0.0570   48.6  0.8424  -47.3
 1.560  0.8286  -62.5  10.302  130.6  0.0575   48.1  0.8393  -47.9
 1.580  0.8264  -63.2  10.267  130.0  0.0580   47.6  0.8363  -48.5
 1.600  0.8243  -64.0  10.233  129.4  0.0585   47.1  0.8334  -49.1
 1.620  0.8216  -64.7  10.189  128.9  0.0589   46.6  0.8303  -49.6
 1.640  0.8190  -65.3  10.145  128.4  0.0594   46.2  0.8273  -50.1
 1.660  0.8165  -66.0  10.103  127.9  0.0598   45.8  0.8243  -50.6
 1.680  0.8141  -66.7  10.061  127.3  0.0603   45.3  0.8214  -51.2
 1.700  0.8119  -67.4  10.020  126.8  0.0607   44.9  0.8186  -51.7
 1.720  0.8097  -68.1   9.971  126.3  0.0611   44.4  0.8156  -52.2
 1.740  0.8075  -68.7   9.923  125.8  0.0615   44.0  0.8127  -52.8
 1.760  0.8055  -69.4   9.875  125.3  0.0619   43.6  0.8099  -53.3
 1.780  0.8036  -70.0   9.829  124.7  0.0624   43.1  0.8071  -53.9
 1.800  0.8018  -70.7   9.783  124.2  0.0628   42.7  0.8044  -54.4
 1.820  0.7993  -71.4   9.746  123.7  0.0632   42.3  0.8014  -54.9
 1.840  0.7969  -72.0   9.711  123.2  0.0636   41.8  0.7985  -55.5
 1.860  0.7946  -72.7   9.676  122.7  0.0640   41.4  0.7956  -56.0
 1.880  0.7924  -73.4   9.641  122.1  0.0645   41.0  0.7928  -56.6
 1.900  0.7903  -74.1   9.608  121.6  0.0649   40.6  0.7901  -57.1
 1.920  0.7881  -74.7   9.560  121.1  0.0652   40.2  0.7873  -57.6
 1.940  0.7861  -75.3   9.512  120.6  0.0656   39.7  0.7845  -58.1
 1.960  0.7841  -75.8   9.465  120.1  0.0659   39.3  0.7818  -58.5
 1.980  0.7821  -76.4   9.419  119.6  0.0663   38.9  0.7792  -59.0
 2.000  0.7803  -77.0   9.374  119.1  0.0666   38.5  0.7766  -59.5
 2.020  0.7777  -77.6   9.332  118.6  0.0669   38.1  0.7737  -60.0
 2.040  0.7753  -78.2   9.290  118.2  0.0672   37.7  0.7708  -60.5
 2.060  0.7729  -78.9   9.249  117.7  0.0675   37.3  0.7680  -61.0
 2.080  0.7706  -79.5   9.209  117.2  0.0678   36.9  0.7653  -61.5
 2.100  0.7684  -80.1   9.169  116.8  0.0681   36.5  0.7626  -62.0
 2.120  0.7663  -80.7   9.130  116.3  0.0684   36.1  0.7600  -62.5
 2.140  0.7643  -81.4   9.092  115.8  0.0687   35.7  0.7575  -63.0
 2.160  0.7624  -82.0   9.054  115.3  0.0691   35.4  0.7550  -63.6
 2.180  0.7606  -82.7   9.017  114.8  0.0694   35.0  0.7526  -64.1
 2.200  0.7589  -83.3   8.981  114.3  0.0697   34.6  0.7502  -64.6
 2.220  0.7565  -83.9   8.940  113.8  0.0700   34.2  0.7475  -65.1
 2.240  0.7543  -84.5   8.899  113.4  0.0702   33.8  0.7448  -65.5
 2.260  0.7520  -85.0   8.858  112.9  0.0705   33.4  0.7422  -66.0
 2.280  0.7499  -85.6   8.819  112.5  0.0708   33.0  0.7397  -66.5
 2.300  0.7479  -86.2   8.780  112.0  0.0711   32.7  0.7372  -67.0
 2.320  0.7459  -86.8   8.741  111.5  0.0713   32.3  0.7347  -67.4
 2.340  0.7440  -87.4   8.703  111.1  0.0716   31.9  0.7323  -67.9
 2.360  0.7422  -88.0   8.666  110.6  0.0719   31.5  0.7299  -68.4
 2.380  0.7404  -88.6   8.629  110.1  0.0722   31.2  0.7276  -68.9
 2.400  0.7388  -89.2   8.593  109.6  0.0725   30.8  0.7254  -69.4
 2.420  0.7365  -89.8   8.552  109.2  0.0727   30.4  0.7228  -69.9
 2.440  0.7342  -90.4   8.512  108.8  0.0729   30.1  0.7203  -70.3
 2.460  0.7320  -90.9   8.472  108.4  0.0731   29.7  0.7178  -70.8
 2.480  0.7299  -91.5   8.433  107.9  0.0733   29.3  0.7154  -71.3
 2.500  0.7278  -92.1   8.394  107.5  0.0735   29.0  0.7130  -71.8
 2.520  0.7259  -92.7   8.355  107.1  0.0737   28.6  0.7106  -72.2
 2.540  0.7240  -93.3   8.317  106.6  0.0739   28.3  0.7084  -72.7
 2.560  0.7222  -93.9   8.280  106.2  0.0742   27.9  0.7061  -73.2
 2.580  0.7204  -94.5   8.243  105.7  0.0744   27.6  0.7039  -73.7
 2.600  0.7188  -95.1   8.206  105.3  0.0746   27.2  0.7018  -74.2
 2.620  0.7166  -95.6   8.167  104.9  0.0747   26.9  0.6995  -74.6
 2.640  0.7144  -96.2   8.128  104.5  0.0749   26.5  0.6972  -75.1
 2.660  0.7123  -96.7   8.089  104.1  0.0751   26.2  0.6950  -75.5
 2.680  0.7103  -97.3   8.051  103.7  0.0752   25.9  0.6928  -75.9
 2.700  0.7083  -97.8   8.014  103.2  0.0754   25.5  0.6906  -76.4
 2.720  0.7064  -98.4   7.976  102.8  0.0755   25.2  0.6885  -76.8
 2.740  0.7046  -98.9   7.940  102.4  0.0757   24.9  0.6865  -77.3
 2.760  0.7028  -99.5   7.903  102.0  0.0759   24.5  0.6844  -77.7
 2.780  0.7011 -100.0   7.867  101.5  0.0760   24.2  0.6824  -78.1
 2.800  0.6995 -100.6   7.832  101.1  0.0762   23.9  0.6805  -78.6
 2.820  0.6977 -101.1   7.795  100.7  0.0763   23.6  0.6785  -79.0
 2.840  0.6960 -101.6   7.758  100.3  0.0764   23.3  0.6765  -79.4
 2.860  0.6944 -102.1   7.721   99.9  0.0765   22.9  0.6745  -79.8
 2.880  0.6928 -102.6   7.685   99.5  0.0766   22.6  0.6726  -80.2
 2.900  0.6912 -103.1   7.649   99.1  0.0767   22.3  0.6707  -80.6
 2.920  0.6897 -103.6   7.613   98.7  0.0768   22.0  0.6688  -81.0
 2.940  0.6883 -104.1   7.578   98.3  0.0769   21.7  0.6670  -81.4
 2.960  0.6869 -104.7   7.543   97.9  0.0771   21.3  0.6652  -81.9
 2.980  0.6856 -105.2   7.509   97.5  0.0772   21.0  0.6634  -82.3
 3.000  0.6843 -105.7   7.475   97.1  0.0773   20.7  0.6617  -82.7
 3.100  0.6761 -107.8   7.303   95.5  0.0775   19.5  0.6538  -84.2
 3.200  0.6688 -109.9   7.136   93.9  0.0778   18.3  0.6464  -85.8
 3.300  0.6625 -112.1   6.975   92.2  0.0780   17.1  0.6394  -87.5
 3.400  0.6571 -114.3   6.821   90.4  0.0784   15.9  0.6331  -89.1
 3.500  0.6528 -116.6   6.674   88.5  0.0787   14.7  0.6272  -90.8
 3.600  0.6490 -118.5   6.546   87.1  0.0789   13.7  0.6218  -92.1
 3.700  0.6459 -120.5   6.422   85.6  0.0791   12.6  0.6168  -93.5
 3.800  0.6436 -122.4   6.303   84.1  0.0794   11.6  0.6121  -94.9
 3.900  0.6421 -124.4   6.189   82.5  0.0797   10.6  0.6078  -96.3
 4.000  0.6413 -126.4   6.079   80.8  0.0800    9.6  0.6039  -97.7
 4.100  0.6388 -128.4   5.971   79.3  0.0801    8.6  0.5988  -99.2
 4.200  0.6371 -130.4   5.866   77.8  0.0802    7.5  0.5941 -100.7
 4.300  0.6362 -132.4   5.766   76.3  0.0803    6.5  0.5897 -102.2
 4.400  0.6360 -134.5   5.670   74.7  0.0805    5.5  0.5859 -103.7
 4.500  0.6367 -136.5   5.579   73.0  0.0807    4.5  0.5824 -105.3
 4.600  0.6348 -138.3   5.476   71.6  0.0805    3.5  0.5774 -106.7
 4.700  0.6335 -140.2   5.377   70.1  0.0803    2.6  0.5727 -108.1
 4.800  0.6329 -142.0   5.282   68.6  0.0801    1.6  0.5683 -109.5
 4.900  0.6329 -143.9   5.190   67.0  0.0800    0.6  0.5643 -110.9
 5.000  0.6336 -145.7   5.103   65.4  0.0799   -0.4  0.5607 -112.4
 5.100  0.6307 -147.3   5.016   64.1  0.0796   -1.3  0.5559 -113.7
 5.200  0.6282 -148.8   4.931   62.7  0.0792   -2.1  0.5513 -114.9
 5.300  0.6262 -150.4   4.850   61.3  0.0789   -3.0  0.5470 -116.2
 5.400  0.6247 -152.0   4.771   59.8  0.0787   -3.9  0.5430 -117.6
 5.500  0.6237 -153.6   4.696   58.3  0.0784   -4.8  0.5393 -118.9
 5.600  0.6207 -155.1   4.628   57.0  0.0780   -5.6  0.5342 -120.2
 5.700  0.6182 -156.7   4.562   55.7  0.0776   -6.4  0.5293 -121.5
 5.800  0.6162 -158.3   4.499   54.3  0.0773   -7.2  0.5248 -122.9
 5.900  0.6146 -159.8   4.438   52.9  0.0769   -8.0  0.5205 -124.3
 6.000  0.6135 -161.4   4.380   51.5  0.0766   -8.8  0.5166 -125.7
 6.100  0.6104 -163.1   4.317   50.2  0.0760   -9.6  0.5114 -127.1
 6.200  0.6079 -164.7   4.256   48.9  0.0754  -10.3  0.5066 -128.6
 6.300  0.6059 -166.4   4.197   47.5  0.0749  -11.1  0.5021 -130.1
 6.400  0.6044 -168.1   4.141   46.1  0.0743  -11.9  0.4979 -131.6
 6.500  0.6034 -169.8   4.088   44.6  0.0738  -12.7  0.4941 -133.2
 6.600  0.6017 -171.4   4.024   43.3  0.0729  -13.3  0.4883 -134.4
 6.800  0.5998 -174.5   3.904   40.6  0.0711  -14.5  0.4772 -136.8
 7.000  0.5997 -177.7   3.792   37.7  0.0694  -15.8  0.4671 -139.3
 7.200  0.5997  179.3   3.680   35.4  0.0675  -16.1  0.4552 -141.7
 7.400  0.6014  176.4   3.575   32.9  0.0656  -16.4  0.4441 -144.3
 7.600  0.6059  173.3   3.481   30.3  0.0643  -16.5  0.4348 -147.5
 7.800  0.6134  170.3   3.399   27.6  0.0634  -16.4  0.4281 -151.3
 8.000  0.6226  167.3   3.325   24.7  0.0626  -16.3  0.4234 -155.3
 8.200  0.6271  164.3   3.227   21.9  0.0620  -16.9  0.4198 -160.3
 8.400  0.6333  161.4   3.137   18.9  0.0614  -17.4  0.4195 -165.4
 8.600  0.6369  158.7   3.041   16.0  0.0605  -18.0  0.4194 -170.5
 8.800  0.6377  156.2   2.938   13.2  0.0594  -18.6  0.4194 -175.7
 9.000  0.6397  153.7   2.843   10.2  0.0582  -19.2  0.4229  179.2
 9.200  0.6406  151.7   2.740    8.2  0.0570  -19.4  0.4278  174.0
 9.400  0.6424  149.6   2.641    6.0  0.0558  -19.5  0.4361  169.0
 9.600  0.6472  147.3   2.551    3.7  0.0546  -19.5  0.4493  164.2
 9.800  0.6554  144.9   2.469    1.2  0.0533  -19.2  0.4672  159.7
10.000  0.6647  142.5   2.393   -1.5  0.0521  -19.0  0.4877  155.6
!
!  f       NFmin   Gammaopt  rn/50
! GHz       dB    MAG  ANG    -
 0.450      0.48  0.63    3   0.17
 2.400      0.67  0.42   32   0.16
 5.500      0.83  0.43  107   0.11
10.000      1.44  0.35 -164   0.09
!
! (c) 2016  Infineon Technologies AG, Munich
