! Infineon Technologies  Discrete & RF Semiconductors
! BFP740F
! VCE =  2.0 V,  IC =  5.0 mA
! Common Emitter S-Parameters:                            Oct 2012
# GHz  S  MA  R  50
!  f         S11            S21            S12            S22
! GHz     MAG   ANG      MAG   ANG      MAG   ANG      MAG   ANG
 0.030  0.9493   -1.7  14.738  177.9  0.0016   95.9  0.9982   -1.1
 0.040  0.9499   -2.3  14.755  177.5  0.0022   88.4  0.9983   -1.5
 0.050  0.9491   -2.8  14.876  177.3  0.0032   80.7  0.9983   -2.0
 0.060  0.9478   -3.5  14.851  176.9  0.0031   79.6  0.9983   -2.3
 0.070  0.9493   -4.0  14.851  176.4  0.0034   96.3  0.9984   -2.7
 0.080  0.9487   -4.6  14.831  176.0  0.0048   84.5  0.9976   -3.2
 0.090  0.9492   -5.1  14.819  175.5  0.0046   93.0  0.9983   -3.5
 0.100  0.9482   -5.7  14.811  175.1  0.0055   89.6  0.9968   -3.9
 0.110  0.9482   -6.3  14.785  174.6  0.0058   83.9  0.9968   -4.3
 0.120  0.9468   -6.9  14.724  174.2  0.0060   82.3  0.9967   -4.7
 0.130  0.9469   -7.4  14.725  173.8  0.0069   86.6  0.9956   -5.1
 0.140  0.9467   -8.0  14.621  173.4  0.0077   84.1  0.9949   -5.5
 0.150  0.9463   -8.5  14.677  172.9  0.0079   84.8  0.9944   -5.9
 0.200  0.9442  -11.3  14.500  170.9  0.0109   84.1  0.9916   -7.8
 0.250  0.9413  -14.1  14.479  169.0  0.0134   82.4  0.9882   -9.7
 0.300  0.9386  -16.8  14.337  167.1  0.0163   80.5  0.9843  -11.6
 0.350  0.9351  -19.6  14.289  165.2  0.0186   78.5  0.9802  -13.5
 0.400  0.9323  -22.4  14.208  163.3  0.0213   76.7  0.9742  -15.4
 0.450  0.9292  -25.1  14.110  161.5  0.0239   75.0  0.9699  -17.2
 0.500  0.9253  -27.8  14.011  159.7  0.0265   73.3  0.9633  -19.1
 0.600  0.9168  -33.2  13.840  156.0  0.0314   69.7  0.9494  -22.8
 0.700  0.9082  -38.5  13.615  152.6  0.0361   66.7  0.9345  -26.4
 0.800  0.8973  -44.0  13.509  148.9  0.0405   63.3  0.9170  -30.0
 0.900  0.8864  -49.1  13.231  145.4  0.0448   60.2  0.8977  -33.6
 1.000  0.8745  -54.1  12.952  141.9  0.0487   57.1  0.8776  -37.0
 1.100  0.8621  -59.0  12.643  138.6  0.0525   54.1  0.8555  -40.5
 1.200  0.8486  -63.9  12.364  135.2  0.0557   51.1  0.8343  -43.7
 1.300  0.8360  -68.5  12.063  132.1  0.0589   48.3  0.8117  -46.9
 1.400  0.8237  -73.2  11.779  129.0  0.0616   45.7  0.7907  -49.9
 1.500  0.8111  -77.6  11.483  126.1  0.0640   43.2  0.7683  -52.9
 1.600  0.7986  -82.3  11.264  123.1  0.0662   40.9  0.7486  -55.8
 1.700  0.7862  -86.5  10.967  120.2  0.0683   38.5  0.7281  -58.6
 1.800  0.7783  -90.3  10.630  117.7  0.0703   36.4  0.7102  -61.5
 1.900  0.7676  -94.2  10.342  115.2  0.0720   34.3  0.6915  -64.2
 2.000  0.7593  -97.9  10.056  112.6  0.0735   32.2  0.6753  -66.9
 2.100  0.7508 -101.9   9.793  110.0  0.0748   30.2  0.6579  -69.8
 2.200  0.7427 -105.2   9.508  107.7  0.0761   28.2  0.6433  -72.2
 2.300  0.7342 -108.6   9.250  105.4  0.0769   26.5  0.6281  -74.7
 2.400  0.7270 -111.6   8.969  103.3  0.0781   24.7  0.6167  -76.9
 2.500  0.7198 -114.6   8.722  101.2  0.0787   23.2  0.6031  -79.1
 2.600  0.7138 -117.5   8.485   99.2  0.0794   21.7  0.5920  -81.2
 2.700  0.7075 -120.4   8.268   97.2  0.0800   20.3  0.5804  -83.2
 2.800  0.7026 -123.2   8.056   95.3  0.0807   18.9  0.5709  -85.1
 2.900  0.6975 -125.9   7.846   93.4  0.0810   17.6  0.5614  -87.1
 3.000  0.6930 -128.4   7.654   91.6  0.0816   16.3  0.5528  -89.0
 3.100  0.6876 -131.1   7.485   89.7  0.0819   15.0  0.5451  -90.8
 3.200  0.6838 -133.3   7.287   88.1  0.0820   13.9  0.5372  -92.5
 3.300  0.6805 -135.7   7.117   86.4  0.0823   12.8  0.5305  -94.1
 3.400  0.6777 -137.8   6.941   84.8  0.0826   11.7  0.5236  -95.7
 3.500  0.6752 -140.0   6.779   83.2  0.0826   10.5  0.5170  -97.2
 3.600  0.6725 -142.1   6.623   81.6  0.0829    9.5  0.5116  -98.5
 3.700  0.6705 -144.2   6.481   80.1  0.0828    8.5  0.5045 -100.0
 3.800  0.6687 -146.3   6.336   78.6  0.0829    7.6  0.4993 -101.2
 3.900  0.6674 -148.3   6.209   77.1  0.0831    6.7  0.4934 -102.6
 4.000  0.6654 -150.2   6.062   75.6  0.0831    5.7  0.4878 -104.0
 4.100  0.6648 -152.0   5.944   74.2  0.0831    4.8  0.4819 -105.3
 4.200  0.6633 -153.9   5.816   72.7  0.0831    3.9  0.4769 -106.5
 4.300  0.6628 -155.8   5.705   71.2  0.0829    3.0  0.4710 -107.8
 4.400  0.6618 -157.6   5.587   69.9  0.0828    2.2  0.4661 -109.1
 4.500  0.6616 -159.4   5.482   68.5  0.0826    1.4  0.4613 -110.3
 4.600  0.6616 -161.2   5.377   67.1  0.0826    0.6  0.4562 -111.5
 4.700  0.6614 -162.9   5.278   65.7  0.0823   -0.2  0.4508 -112.8
 4.800  0.6622 -164.6   5.178   64.3  0.0822   -0.9  0.4466 -114.0
 4.900  0.6622 -166.3   5.087   62.9  0.0820   -1.7  0.4414 -115.3
 5.000  0.6627 -167.7   4.986   61.7  0.0820   -2.5  0.4375 -116.4
 5.100  0.6636 -169.4   4.905   60.3  0.0815   -3.2  0.4321 -117.8
 5.200  0.6637 -170.8   4.813   59.0  0.0814   -3.9  0.4290 -118.9
 5.300  0.6640 -172.4   4.735   57.6  0.0810   -4.7  0.4240 -120.3
 5.400  0.6647 -173.7   4.650   56.5  0.0808   -5.3  0.4205 -121.4
 5.500  0.6653 -175.2   4.574   55.1  0.0804   -6.1  0.4168 -122.7
 5.600  0.6653 -176.5   4.494   53.9  0.0803   -6.7  0.4129 -123.7
 5.700  0.6655 -178.0   4.423   52.6  0.0797   -7.3  0.4081 -125.1
 5.800  0.6658 -179.4   4.353   51.3  0.0794   -8.0  0.4052 -126.3
 5.900  0.6659  179.1   4.284   50.0  0.0789   -8.7  0.4007 -127.5
 6.000  0.6659  177.6   4.216   48.8  0.0785   -9.4  0.3963 -128.7
 6.100  0.6661  176.0   4.153   47.4  0.0779  -10.0  0.3919 -130.1
 6.200  0.6659  174.6   4.086   46.1  0.0776  -10.7  0.3889 -131.2
 6.300  0.6648  173.0   4.022   44.9  0.0768  -11.2  0.3834 -132.5
 6.400  0.6640  171.6   3.956   43.6  0.0763  -11.8  0.3803 -133.6
 6.500  0.6632  169.9   3.897   42.4  0.0757  -12.4  0.3749 -134.9
 6.600  0.6623  168.4   3.832   41.1  0.0750  -12.9  0.3709 -136.0
 6.700  0.6608  166.8   3.774   39.9  0.0740  -13.3  0.3650 -137.2
 6.800  0.6606  165.3   3.713   38.6  0.0735  -13.8  0.3610 -138.3
 6.900  0.6592  163.7   3.658   37.4  0.0727  -14.0  0.3547 -139.6
 7.000  0.6589  162.2   3.597   36.2  0.0721  -14.3  0.3501 -140.7
 7.100  0.6582  160.6   3.546   35.0  0.0714  -14.3  0.3437 -142.1
 7.200  0.6584  159.1   3.491   33.8  0.0708  -14.5  0.3397 -143.4
 7.300  0.6588  157.6   3.438   32.5  0.0702  -14.6  0.3347 -144.9
 7.400  0.6602  156.1   3.388   31.3  0.0699  -14.6  0.3302 -146.4
 7.500  0.6616  154.7   3.340   30.2  0.0694  -14.6  0.3262 -148.1
 7.600  0.6636  153.1   3.290   28.9  0.0693  -14.7  0.3223 -149.7
 7.700  0.6659  151.7   3.242   27.8  0.0689  -14.8  0.3171 -151.8
 7.800  0.6693  150.1   3.196   26.5  0.0688  -15.0  0.3144 -153.9
 7.900  0.6722  148.8   3.149   25.4  0.0685  -15.0  0.3104 -156.1
 8.000  0.6767  147.2   3.102   24.1  0.0683  -15.5  0.3075 -158.6
 8.500  0.7001  140.9   2.878   18.1  0.0670  -16.7  0.3001 -172.4
 9.000  0.7220  135.7   2.661   12.2  0.0651  -18.2  0.3111  172.8
 9.500  0.7390  132.1   2.457    6.5  0.0627  -19.0  0.3435  159.1
10.000  0.7534  128.3   2.260    1.0  0.0601  -19.5  0.3918  148.4
!
!  f       NFmin   Gammaopt  rn/50
! GHz       dB    MAG  ANG    -
 0.450      0.37  0.38    7   0.20
 0.900      0.42  0.38   14   0.17
 1.500      0.50  0.37   24   0.14
 1.900      0.55  0.35   33   0.14
 2.400      0.61  0.33   42   0.13
 3.500      0.76  0.31   65   0.12
 5.500      1.02  0.20  113   0.15
10.000      1.55  0.42 -127   0.08
!
! (c) 2012  Infineon Technologies AG, Munich
