! Infineon Technologies  Discrete & RF Semiconductors
! BFP740F
! VCE =  3.0 V,  IC =  12 mA
! Common Emitter S-Parameters:                            Oct 2012
# GHz  S  MA  R  50
!  f         S11            S21            S12            S22
! GHz     MAG   ANG      MAG   ANG      MAG   ANG      MAG   ANG
 0.030  0.8716   -2.8  30.902  176.8  0.0015   80.6  0.9942   -1.7
 0.040  0.8715   -3.8  30.892  176.1  0.0017   79.4  0.9942   -2.3
 0.050  0.8692   -4.6  31.117  175.5  0.0023   94.8  0.9939   -2.9
 0.060  0.8700   -5.6  30.882  174.8  0.0032   94.2  0.9946   -3.5
 0.070  0.8690   -6.6  30.891  174.1  0.0035   84.8  0.9939   -4.2
 0.080  0.8685   -7.5  30.721  173.4  0.0038   87.1  0.9924   -4.8
 0.090  0.8680   -8.4  30.685  172.6  0.0040   82.1  0.9920   -5.4
 0.100  0.8672   -9.4  30.553  171.9  0.0050   80.4  0.9907   -6.1
 0.110  0.8661  -10.3  30.444  171.2  0.0057   85.9  0.9896   -6.7
 0.120  0.8656  -11.3  30.303  170.6  0.0060   83.2  0.9881   -7.3
 0.130  0.8650  -12.2  30.164  169.9  0.0066   84.3  0.9860   -7.9
 0.140  0.8636  -13.1  30.064  169.3  0.0071   84.9  0.9844   -8.5
 0.150  0.8631  -14.0  29.952  168.6  0.0073   82.1  0.9829   -9.1
 0.200  0.8578  -18.5  29.436  165.6  0.0098   80.4  0.9750  -12.0
 0.250  0.8529  -22.9  28.895  162.9  0.0122   77.0  0.9650  -14.8
 0.300  0.8463  -27.2  28.450  160.2  0.0143   74.8  0.9545  -17.6
 0.350  0.8413  -31.5  27.891  157.7  0.0165   73.0  0.9430  -20.3
 0.400  0.8351  -35.9  27.546  155.1  0.0187   71.1  0.9295  -22.9
 0.450  0.8297  -39.9  27.038  152.7  0.0206   68.3  0.9180  -25.5
 0.500  0.8236  -44.1  26.613  150.4  0.0228   66.5  0.9030  -28.1
 0.600  0.8108  -52.1  25.706  145.6  0.0263   62.2  0.8719  -33.1
 0.700  0.7977  -59.8  24.818  141.1  0.0299   58.4  0.8407  -37.9
 0.800  0.7840  -67.4  23.951  136.7  0.0328   54.8  0.8063  -42.5
 0.900  0.7712  -74.3  22.961  132.7  0.0356   51.2  0.7723  -46.8
 1.000  0.7581  -81.0  22.014  128.8  0.0379   48.0  0.7378  -51.0
 1.100  0.7453  -87.3  21.078  125.1  0.0399   45.2  0.7045  -54.8
 1.200  0.7334  -93.3  20.180  121.6  0.0416   42.4  0.6726  -58.6
 1.300  0.7224  -98.8  19.313  118.3  0.0430   39.9  0.6428  -62.0
 1.400  0.7130 -104.1  18.490  115.2  0.0444   37.7  0.6150  -65.3
 1.500  0.7036 -109.0  17.706  112.4  0.0455   35.6  0.5889  -68.3
 1.600  0.6963 -113.8  17.002  109.6  0.0465   33.8  0.5660  -71.4
 1.700  0.6896 -118.0  16.275  107.0  0.0473   32.1  0.5425  -74.3
 1.800  0.6855 -122.1  15.636  104.6  0.0480   30.5  0.5239  -77.2
 1.900  0.6806 -125.8  15.001  102.4  0.0486   29.1  0.5046  -79.9
 2.000  0.6764 -129.5  14.445  100.0  0.0493   27.7  0.4891  -82.7
 2.100  0.6741 -133.0  13.868   97.8  0.0497   26.0  0.4739  -85.6
 2.200  0.6702 -136.2  13.353   95.8  0.0501   24.9  0.4608  -88.0
 2.300  0.6669 -139.1  12.856   93.9  0.0503   23.9  0.4481  -90.4
 2.400  0.6639 -141.9  12.391   92.0  0.0506   23.0  0.4378  -92.6
 2.500  0.6612 -144.4  11.954   90.3  0.0509   22.0  0.4277  -94.6
 2.600  0.6590 -147.0  11.558   88.6  0.0511   21.2  0.4189  -96.6
 2.700  0.6570 -149.4  11.179   86.9  0.0514   20.3  0.4108  -98.5
 2.800  0.6555 -151.7  10.827   85.3  0.0514   19.7  0.4037 -100.4
 2.900  0.6541 -153.9  10.482   83.7  0.0517   18.9  0.3973 -102.1
 3.000  0.6527 -156.0  10.176   82.2  0.0518   18.3  0.3911 -104.0
 3.100  0.6512 -157.9   9.872   80.7  0.0519   17.8  0.3862 -105.6
 3.200  0.6499 -160.0   9.591   79.3  0.0521   17.2  0.3816 -107.1
 3.300  0.6494 -161.7   9.317   77.9  0.0521   16.6  0.3771 -108.6
 3.400  0.6487 -163.6   9.070   76.5  0.0524   16.1  0.3732 -109.9
 3.500  0.6481 -165.2   8.817   75.2  0.0523   15.8  0.3689 -111.2
 3.600  0.6476 -167.1   8.596   73.8  0.0525   15.3  0.3655 -112.4
 3.700  0.6471 -168.6   8.376   72.5  0.0526   14.9  0.3611 -113.6
 3.800  0.6472 -170.3   8.170   71.2  0.0527   14.6  0.3572 -114.8
 3.900  0.6477 -171.7   7.972   69.9  0.0526   14.1  0.3536 -116.0
 4.000  0.6470 -173.4   7.780   68.6  0.0527   13.7  0.3499 -117.2
 4.100  0.6479 -174.7   7.601   67.4  0.0528   13.4  0.3462 -118.3
 4.200  0.6477 -176.3   7.427   66.2  0.0529   13.2  0.3428 -119.4
 4.300  0.6487 -177.7   7.260   64.9  0.0530   12.9  0.3391 -120.6
 4.400  0.6490 -179.1   7.100   63.7  0.0530   12.5  0.3361 -121.7
 4.500  0.6499  179.5   6.947   62.5  0.0530   12.3  0.3330 -122.8
 4.600  0.6511  178.0   6.804   61.3  0.0531   12.1  0.3291 -123.9
 4.700  0.6517  176.7   6.656   60.1  0.0531   11.9  0.3260 -125.1
 4.800  0.6535  175.2   6.526   58.9  0.0532   11.5  0.3231 -126.2
 4.900  0.6541  173.9   6.389   57.7  0.0533   11.3  0.3197 -127.4
 5.000  0.6554  172.6   6.264   56.6  0.0533   11.1  0.3168 -128.5
 5.100  0.6571  171.3   6.143   55.5  0.0533   10.9  0.3137 -129.8
 5.200  0.6577  170.0   6.031   54.3  0.0534   10.7  0.3112 -130.8
 5.300  0.6586  168.8   5.915   53.2  0.0535   10.3  0.3081 -132.1
 5.400  0.6597  167.5   5.809   52.1  0.0535   10.3  0.3057 -133.2
 5.500  0.6606  166.4   5.701   50.9  0.0534   10.1  0.3035 -134.3
 5.600  0.6609  165.2   5.600   49.8  0.0535   10.0  0.3007 -135.3
 5.700  0.6618  164.0   5.501   48.7  0.0534    9.8  0.2975 -136.7
 5.800  0.6624  162.7   5.410   47.5  0.0535    9.6  0.2957 -137.9
 5.900  0.6629  161.5   5.315   46.4  0.0534    9.5  0.2927 -138.9
 6.000  0.6638  160.2   5.227   45.3  0.0534    9.2  0.2893 -140.2
 6.100  0.6642  159.0   5.136   44.1  0.0532    9.2  0.2865 -141.5
 6.200  0.6644  157.7   5.057   42.9  0.0533    9.0  0.2841 -142.6
 6.300  0.6639  156.6   4.964   41.9  0.0532    9.1  0.2804 -143.9
 6.400  0.6634  155.2   4.887   40.7  0.0531    9.0  0.2780 -145.0
 6.500  0.6632  153.9   4.802   39.6  0.0529    9.1  0.2739 -146.3
 6.600  0.6626  152.6   4.721   38.4  0.0529    9.0  0.2711 -147.3
 6.700  0.6618  151.2   4.639   37.4  0.0528    9.2  0.2670 -148.5
 6.800  0.6620  149.9   4.565   36.2  0.0528    9.4  0.2631 -149.7
 6.900  0.6611  148.6   4.487   35.1  0.0527    9.5  0.2590 -150.9
 7.000  0.6614  147.3   4.416   34.0  0.0528   10.0  0.2546 -152.2
 7.100  0.6609  146.1   4.341   33.0  0.0530   10.2  0.2504 -153.6
 7.200  0.6616  144.8   4.275   31.9  0.0532   10.6  0.2471 -155.1
 7.300  0.6624  143.6   4.202   30.8  0.0535   10.7  0.2439 -156.6
 7.400  0.6641  142.3   4.141   29.7  0.0540   11.0  0.2407 -158.4
 7.500  0.6660  141.3   4.077   28.8  0.0543   11.2  0.2385 -160.2
 7.600  0.6685  139.9   4.015   27.6  0.0548   11.3  0.2360 -162.2
 7.700  0.6711  139.0   3.950   26.7  0.0553   11.1  0.2334 -164.5
 7.800  0.6753  137.5   3.896   25.5  0.0558   11.2  0.2320 -167.1
 7.900  0.6785  136.6   3.834   24.5  0.0562   10.9  0.2306 -169.6
 8.000  0.6836  135.3   3.778   23.4  0.0565   10.8  0.2298 -172.6
 8.500  0.7094  130.5   3.495   18.0  0.0581    9.4  0.2361  171.9
 9.000  0.7346  126.6   3.233   12.9  0.0591    8.2  0.2614  156.5
 9.500  0.7550  124.0   2.986    7.9  0.0595    7.2  0.3049  144.4
10.000  0.7726  120.8   2.758    3.1  0.0598    6.5  0.3587  135.7
!
!  f       NFmin   Gammaopt  rn/50
! GHz       dB    MAG  ANG    -
 0.450      0.48  0.16    5   0.24
 0.900      0.53  0.17   13   0.13
 1.500      0.60  0.18   23   0.06
 1.900      0.64  0.17   33   0.05
 2.400      0.69  0.17   47   0.05
 3.500      0.80  0.14   69   0.13
 5.500      0.99  0.09  140   0.21
10.000      1.39  0.38 -115   0.11
!
! (c) 2012  Infineon Technologies AG, Munich
