! Infineon Technologies  Discrete & RF Semiconductors
! BFP740F
! VCE =  2.5 V,  IC =  20 mA
! Common Emitter S-Parameters:                            Oct 2012
# GHz  S  MA  R  50
!  f         S11            S21            S12            S22
! GHz     MAG   ANG      MAG   ANG      MAG   ANG      MAG   ANG
 0.030  0.7870   -3.9  45.126  176.1  0.0013   86.0  0.9887   -1.9
 0.040  0.7864   -5.3  45.074  175.1  0.0020   85.8  0.9904   -2.8
 0.050  0.7819   -6.6  45.160  174.2  0.0015   51.2  0.9898   -3.9
 0.060  0.7833   -7.9  44.959  173.2  0.0032   88.1  0.9912   -4.6
 0.070  0.7825   -9.2  44.808  172.2  0.0030   87.7  0.9894   -5.5
 0.080  0.7817  -10.5  44.584  171.2  0.0037   80.8  0.9875   -6.4
 0.090  0.7799  -11.8  44.359  170.2  0.0047   78.7  0.9860   -7.3
 0.100  0.7800  -13.1  44.158  169.2  0.0046   78.6  0.9844   -8.1
 0.110  0.7793  -14.4  43.836  168.3  0.0051   82.8  0.9823   -8.9
 0.120  0.7773  -15.7  43.621  167.5  0.0058   80.4  0.9791   -9.8
 0.130  0.7766  -16.9  43.296  166.6  0.0065   80.7  0.9763  -10.5
 0.140  0.7745  -18.2  43.040  165.7  0.0067   82.0  0.9728  -11.4
 0.150  0.7730  -19.5  42.859  164.8  0.0071   79.6  0.9703  -12.1
 0.200  0.7669  -25.6  41.503  161.0  0.0093   78.2  0.9549  -15.9
 0.250  0.7600  -31.6  40.358  157.5  0.0118   72.9  0.9373  -19.5
 0.300  0.7536  -37.3  39.134  154.3  0.0136   72.1  0.9196  -22.9
 0.350  0.7474  -43.0  38.063  151.3  0.0156   69.7  0.9004  -26.3
 0.400  0.7421  -48.5  37.071  148.3  0.0174   66.8  0.8796  -29.5
 0.450  0.7365  -53.7  36.091  145.5  0.0192   63.9  0.8611  -32.6
 0.500  0.7319  -58.9  35.082  142.9  0.0207   61.5  0.8389  -35.7
 0.600  0.7204  -68.9  33.280  137.5  0.0238   57.4  0.7956  -41.4
 0.700  0.7115  -77.8  31.421  132.7  0.0265   53.5  0.7525  -46.8
 0.800  0.7027  -86.4  29.691  128.1  0.0287   49.7  0.7098  -51.9
 0.900  0.6942  -94.2  28.040  123.9  0.0305   46.4  0.6679  -56.6
 1.000  0.6872 -101.2  26.439  120.1  0.0320   43.6  0.6295  -60.9
 1.100  0.6801 -107.8  24.972  116.5  0.0333   40.9  0.5922  -65.1
 1.200  0.6748 -113.7  23.577  113.2  0.0344   38.6  0.5602  -68.8
 1.300  0.6694 -119.2  22.317  110.1  0.0353   36.6  0.5287  -72.5
 1.400  0.6660 -124.1  21.133  107.3  0.0360   35.0  0.5032  -75.8
 1.500  0.6621 -128.7  20.064  104.7  0.0367   33.3  0.4774  -79.0
 1.600  0.6604 -132.8  19.080  102.2  0.0373   31.9  0.4568  -82.1
 1.700  0.6580 -136.8  18.167   99.9  0.0379   30.8  0.4365  -85.0
 1.800  0.6583 -140.3  17.334   97.8  0.0383   29.7  0.4198  -88.1
 1.900  0.6570 -143.6  16.567   95.7  0.0388   28.7  0.4041  -90.9
 2.000  0.6569 -146.7  15.852   93.7  0.0392   27.8  0.3911  -93.7
 2.100  0.6573 -149.8  15.160   91.6  0.0395   27.0  0.3798  -96.7
 2.200  0.6566 -152.4  14.529   89.9  0.0396   26.2  0.3695  -99.2
 2.300  0.6559 -154.9  13.957   88.2  0.0399   25.7  0.3603 -101.5
 2.400  0.6552 -157.2  13.409   86.6  0.0402   25.1  0.3524 -103.8
 2.500  0.6548 -159.4  12.914   85.0  0.0404   24.7  0.3453 -105.8
 2.600  0.6544 -161.5  12.447   83.5  0.0406   24.4  0.3391 -107.8
 2.700  0.6542 -163.5  12.018   82.0  0.0409   24.0  0.3335 -109.7
 2.800  0.6541 -165.4  11.611   80.6  0.0410   23.6  0.3291 -111.5
 2.900  0.6542 -167.3  11.226   79.2  0.0412   23.4  0.3247 -113.2
 3.000  0.6538 -168.9  10.872   77.8  0.0415   23.0  0.3209 -115.0
 3.100  0.6537 -170.6  10.537   76.5  0.0417   22.7  0.3181 -116.5
 3.200  0.6536 -172.2  10.221   75.2  0.0419   22.5  0.3152 -118.0
 3.300  0.6539 -173.8   9.923   73.9  0.0421   22.3  0.3126 -119.3
 3.400  0.6539 -175.3   9.640   72.6  0.0422   22.2  0.3101 -120.7
 3.500  0.6539 -176.8   9.370   71.4  0.0425   22.1  0.3078 -121.8
 3.600  0.6540 -178.2   9.118   70.2  0.0427   22.0  0.3055 -122.9
 3.700  0.6546 -179.6   8.884   69.0  0.0429   22.0  0.3025 -124.0
 3.800  0.6547  179.0   8.650   67.8  0.0430   21.8  0.2999 -125.2
 3.900  0.6556  177.7   8.439   66.6  0.0434   21.8  0.2976 -126.2
 4.000  0.6553  176.2   8.223   65.4  0.0435   21.6  0.2951 -127.4
 4.100  0.6566  174.9   8.034   64.2  0.0439   21.5  0.2927 -128.4
 4.200  0.6567  173.6   7.838   63.1  0.0440   21.5  0.2903 -129.5
 4.300  0.6579  172.2   7.661   61.9  0.0443   21.5  0.2878 -130.6
 4.400  0.6584  171.0   7.483   60.8  0.0445   21.4  0.2857 -131.8
 4.500  0.6594  169.7   7.319   59.7  0.0447   21.4  0.2837 -132.7
 4.600  0.6607  168.5   7.161   58.6  0.0449   21.4  0.2808 -133.9
 4.700  0.6617  167.3   7.007   57.5  0.0452   21.1  0.2788 -135.0
 4.800  0.6634  166.1   6.859   56.4  0.0455   21.2  0.2766 -136.1
 4.900  0.6639  164.9   6.715   55.3  0.0458   21.0  0.2744 -137.3
 5.000  0.6654  163.8   6.580   54.2  0.0459   21.1  0.2720 -138.5
 5.100  0.6672  162.7   6.450   53.1  0.0462   21.1  0.2702 -139.7
 5.200  0.6678  161.7   6.328   52.0  0.0465   21.1  0.2682 -140.8
 5.300  0.6688  160.5   6.208   50.9  0.0467   20.9  0.2661 -142.0
 5.400  0.6700  159.5   6.090   49.9  0.0470   20.9  0.2643 -143.1
 5.500  0.6708  158.4   5.978   48.8  0.0472   20.9  0.2630 -144.2
 5.600  0.6711  157.4   5.866   47.8  0.0475   20.7  0.2605 -145.2
 5.700  0.6721  156.3   5.763   46.7  0.0476   20.8  0.2584 -146.7
 5.800  0.6727  155.2   5.663   45.6  0.0478   20.7  0.2571 -147.8
 5.900  0.6733  154.1   5.564   44.5  0.0481   20.6  0.2548 -148.9
 6.000  0.6743  153.0   5.468   43.4  0.0483   20.6  0.2523 -150.2
 6.100  0.6746  151.9   5.371   42.3  0.0485   20.6  0.2505 -151.5
 6.200  0.6750  150.7   5.285   41.2  0.0487   20.5  0.2483 -152.7
 6.300  0.6746  149.7   5.188   40.2  0.0488   20.6  0.2456 -154.0
 6.400  0.6741  148.5   5.102   39.1  0.0491   20.7  0.2435 -155.2
 6.500  0.6740  147.2   5.012   38.0  0.0493   20.8  0.2408 -156.4
 6.600  0.6736  146.0   4.928   36.9  0.0494   20.9  0.2379 -157.6
 6.700  0.6728  144.8   4.838   35.9  0.0497   21.1  0.2348 -158.9
 6.800  0.6730  143.6   4.759   34.8  0.0500   21.3  0.2316 -160.2
 6.900  0.6722  142.4   4.677   33.8  0.0503   21.5  0.2282 -161.5
 7.000  0.6725  141.2   4.599   32.7  0.0507   21.8  0.2246 -162.8
 7.100  0.6721  140.1   4.522   31.7  0.0512   22.1  0.2211 -164.5
 7.200  0.6730  138.9   4.449   30.7  0.0517   22.1  0.2188 -166.1
 7.300  0.6739  137.8   4.374   29.7  0.0523   22.3  0.2166 -167.7
 7.400  0.6755  136.7   4.307   28.6  0.0530   22.4  0.2144 -169.7
 7.500  0.6775  135.8   4.241   27.7  0.0537   22.4  0.2133 -171.6
 7.600  0.6800  134.6   4.174   26.6  0.0544   22.3  0.2120 -173.8
 7.700  0.6826  133.7   4.107   25.8  0.0551   22.1  0.2108 -176.2
 7.800  0.6868  132.4   4.047   24.6  0.0558   21.7  0.2111 -179.0
 7.900  0.6901  131.6   3.983   23.6  0.0563   21.5  0.2112  178.4
 8.000  0.6952  130.5   3.921   22.6  0.0569   21.2  0.2122  175.4
 8.500  0.7213  126.3   3.625   17.5  0.0593   19.2  0.2279  160.1
 9.000  0.7467  122.8   3.347   12.6  0.0607   17.2  0.2613  146.0
 9.500  0.7678  120.6   3.090    7.9  0.0618   15.8  0.3093  135.6
10.000  0.7865  117.8   2.852    3.4  0.0625   14.4  0.3645  128.5
!
!  f       NFmin   Gammaopt  rn/50
! GHz       dB    MAG  ANG    -
 0.450      0.64  0.06    8   1.06
 0.900      0.67  0.07   22   0.67
 1.500      0.72  0.07   40   0.48
 1.900      0.75  0.07   56   0.40
 2.400      0.80  0.07   74   0.41
 3.500      0.90  0.06   94   0.37
 5.500      1.08  0.09 -158   0.31
10.000      1.47  0.39 -107   0.12
!
! (c) 2012  Infineon Technologies AG, Munich
