! Infineon Technologies  Discrete & RF Semiconductors
! BFP720F
! VCE =  2.5 V,  IC =  10 mA
! Common Emitter S-Parameters:                            Jan 2016
# GHz  S  MA  R  50
!  f         S11            S21            S12            S22
! GHz     MAG   ANG      MAG   ANG      MAG   ANG      MAG   ANG
 0.010  0.8647   -0.4  24.768  179.3  0.0003  -66.1  0.9767    0.8
 0.015  0.8698   -0.7  24.646  178.3  0.0003   82.8  0.9866   -0.2
 0.020  0.8750   -1.0  24.532  177.2  0.0008   94.0  0.9968   -1.2
 0.025  0.8747   -1.4  24.562  177.1  0.0009   92.0  0.9965   -1.3
 0.030  0.8744   -1.7  24.592  177.1  0.0011   90.6  0.9963   -1.4
 0.035  0.8742   -2.1  24.622  177.0  0.0012   89.5  0.9960   -1.5
 0.040  0.8740   -2.5  24.653  177.0  0.0014   88.7  0.9958   -1.6
 0.045  0.8738   -2.8  24.683  176.9  0.0015   88.0  0.9955   -1.7
 0.050  0.8737   -3.2  24.713  176.9  0.0017   87.4  0.9953   -1.8
 0.055  0.8734   -3.5  24.698  176.7  0.0019   87.5  0.9953   -2.0
 0.060  0.8731   -3.8  24.683  176.4  0.0020   87.5  0.9952   -2.2
 0.065  0.8729   -4.1  24.669  176.2  0.0022   87.6  0.9952   -2.4
 0.070  0.8726   -4.4  24.655  175.9  0.0024   87.6  0.9952   -2.6
 0.075  0.8724   -4.6  24.641  175.7  0.0025   87.7  0.9952   -2.8
 0.080  0.8722   -4.9  24.628  175.5  0.0027   87.7  0.9952   -2.9
 0.085  0.8721   -5.2  24.615  175.2  0.0029   87.7  0.9952   -3.1
 0.090  0.8719   -5.5  24.603  175.0  0.0031   87.8  0.9952   -3.3
 0.095  0.8718   -5.8  24.591  174.7  0.0032   87.8  0.9953   -3.5
 0.100  0.8717   -6.1  24.580  174.5  0.0034   87.8  0.9953   -3.7
 0.105  0.8713   -6.4  24.556  174.3  0.0036   87.4  0.9950   -3.9
 0.110  0.8710   -6.7  24.532  174.0  0.0038   87.1  0.9947   -4.1
 0.115  0.8706   -7.0  24.509  173.8  0.0039   86.7  0.9945   -4.3
 0.120  0.8703   -7.3  24.486  173.5  0.0041   86.4  0.9942   -4.5
 0.125  0.8700   -7.6  24.464  173.3  0.0043   86.2  0.9940   -4.7
 0.130  0.8698   -8.0  24.442  173.1  0.0045   85.9  0.9938   -4.9
 0.135  0.8695   -8.3  24.421  172.8  0.0047   85.7  0.9936   -5.1
 0.140  0.8693   -8.6  24.400  172.6  0.0048   85.5  0.9934   -5.3
 0.145  0.8692   -8.9  24.379  172.3  0.0050   85.3  0.9932   -5.5
 0.150  0.8690   -9.2  24.359  172.1  0.0052   85.1  0.9930   -5.7
 0.155  0.8686   -9.5  24.330  171.9  0.0054   84.9  0.9925   -5.9
 0.160  0.8682   -9.8  24.301  171.6  0.0055   84.6  0.9919   -6.1
 0.165  0.8679  -10.1  24.272  171.4  0.0057   84.4  0.9914   -6.3
 0.170  0.8676  -10.4  24.244  171.2  0.0059   84.2  0.9909   -6.5
 0.175  0.8673  -10.7  24.217  171.0  0.0060   84.0  0.9904   -6.6
 0.180  0.8670  -11.0  24.189  170.7  0.0062   83.8  0.9899   -6.8
 0.185  0.8667  -11.3  24.162  170.5  0.0064   83.7  0.9894   -7.0
 0.190  0.8665  -11.6  24.136  170.3  0.0066   83.5  0.9889   -7.2
 0.195  0.8663  -11.9  24.110  170.0  0.0067   83.3  0.9885   -7.4
 0.200  0.8661  -12.2  24.084  169.8  0.0069   83.2  0.9880   -7.6
 0.220  0.8641  -13.4  24.021  168.9  0.0076   82.3  0.9866   -8.3
 0.240  0.8625  -14.6  23.964  168.0  0.0083   81.6  0.9853   -9.0
 0.260  0.8610  -15.8  23.884  167.2  0.0089   80.9  0.9830   -9.8
 0.280  0.8595  -17.0  23.782  166.4  0.0096   80.3  0.9797  -10.6
 0.300  0.8585  -18.2  23.684  165.6  0.0102   79.7  0.9766  -11.4
 0.320  0.8567  -19.4  23.598  164.8  0.0109   79.0  0.9747  -12.1
 0.340  0.8552  -20.6  23.517  164.0  0.0116   78.3  0.9730  -12.8
 0.360  0.8534  -21.8  23.442  163.2  0.0122   77.6  0.9707  -13.6
 0.380  0.8512  -23.1  23.373  162.3  0.0129   76.9  0.9678  -14.3
 0.400  0.8495  -24.3  23.310  161.5  0.0135   76.3  0.9650  -15.1
 0.420  0.8470  -25.5  23.213  160.7  0.0141   75.6  0.9622  -15.8
 0.440  0.8448  -26.6  23.121  159.9  0.0148   74.9  0.9596  -16.5
 0.450  0.8438  -27.2  23.076  159.5  0.0151   74.6  0.9584  -16.9
 0.460  0.8427  -27.8  23.036  159.1  0.0154   74.3  0.9567  -17.3
 0.480  0.8408  -29.0  22.958  158.4  0.0161   73.6  0.9535  -18.0
 0.500  0.8392  -30.2  22.884  157.7  0.0167   73.0  0.9504  -18.7
 0.520  0.8360  -31.4  22.804  156.9  0.0173   72.2  0.9465  -19.4
 0.540  0.8332  -32.6  22.729  156.1  0.0179   71.5  0.9428  -20.1
 0.560  0.8307  -33.8  22.658  155.3  0.0185   70.8  0.9392  -20.8
 0.580  0.8286  -35.0  22.591  154.5  0.0191   70.2  0.9357  -21.6
 0.600  0.8269  -36.2  22.529  153.7  0.0197   69.6  0.9324  -22.3
 0.620  0.8235  -37.3  22.428  153.0  0.0203   68.9  0.9285  -23.0
 0.640  0.8205  -38.5  22.331  152.2  0.0209   68.2  0.9248  -23.6
 0.660  0.8178  -39.7  22.238  151.4  0.0214   67.5  0.9212  -24.3
 0.680  0.8154  -40.8  22.148  150.7  0.0220   66.9  0.9177  -25.0
 0.700  0.8134  -42.0  22.063  149.9  0.0226   66.3  0.9144  -25.7
 0.720  0.8097  -43.2  21.995  149.1  0.0232   65.6  0.9099  -26.4
 0.740  0.8063  -44.4  21.931  148.4  0.0237   65.0  0.9055  -27.0
 0.760  0.8033  -45.6  21.871  147.6  0.0243   64.4  0.9013  -27.7
 0.780  0.8007  -46.8  21.816  146.8  0.0248   63.8  0.8972  -28.4
 0.800  0.7984  -48.0  21.764  146.0  0.0254   63.2  0.8932  -29.1
 0.820  0.7948  -49.1  21.653  145.3  0.0259   62.5  0.8884  -29.7
 0.840  0.7916  -50.3  21.546  144.5  0.0264   61.9  0.8837  -30.4
 0.860  0.7886  -51.4  21.442  143.8  0.0269   61.3  0.8792  -31.1
 0.880  0.7860  -52.5  21.342  143.1  0.0274   60.7  0.8747  -31.7
 0.900  0.7837  -53.7  21.245  142.3  0.0279   60.1  0.8704  -32.4
 0.920  0.7803  -54.8  21.136  141.6  0.0284   59.5  0.8653  -33.0
 0.940  0.7772  -55.9  21.029  140.9  0.0289   58.9  0.8604  -33.7
 0.960  0.7743  -57.0  20.927  140.2  0.0293   58.3  0.8556  -34.3
 0.980  0.7718  -58.2  20.827  139.4  0.0298   57.7  0.8508  -34.9
 1.000  0.7696  -59.3  20.731  138.7  0.0303   57.2  0.8462  -35.6
 1.020  0.7662  -60.4  20.617  138.0  0.0307   56.6  0.8411  -36.2
 1.040  0.7630  -61.5  20.505  137.4  0.0311   56.0  0.8362  -36.8
 1.060  0.7601  -62.6  20.397  136.7  0.0316   55.4  0.8313  -37.4
 1.080  0.7575  -63.7  20.291  136.0  0.0320   54.8  0.8266  -38.1
 1.100  0.7552  -64.8  20.188  135.3  0.0324   54.3  0.8219  -38.7
 1.120  0.7515  -65.9  20.081  134.6  0.0328   53.7  0.8167  -39.3
 1.140  0.7481  -67.0  19.977  133.9  0.0332   53.2  0.8117  -39.9
 1.160  0.7450  -68.1  19.875  133.2  0.0336   52.6  0.8067  -40.5
 1.180  0.7422  -69.2  19.777  132.5  0.0340   52.1  0.8018  -41.1
 1.200  0.7396  -70.3  19.682  131.8  0.0344   51.6  0.7970  -41.7
 1.220  0.7361  -71.3  19.570  131.1  0.0348   51.1  0.7918  -42.3
 1.240  0.7328  -72.4  19.461  130.5  0.0351   50.5  0.7866  -42.8
 1.260  0.7297  -73.5  19.354  129.8  0.0355   50.0  0.7816  -43.4
 1.280  0.7269  -74.5  19.250  129.1  0.0358   49.5  0.7766  -44.0
 1.300  0.7244  -75.6  19.149  128.4  0.0362   49.0  0.7717  -44.6
 1.320  0.7213  -76.6  19.035  127.8  0.0365   48.5  0.7668  -45.1
 1.340  0.7184  -77.6  18.924  127.1  0.0368   48.0  0.7619  -45.7
 1.360  0.7158  -78.6  18.815  126.5  0.0372   47.5  0.7571  -46.2
 1.380  0.7134  -79.7  18.708  125.9  0.0375   47.1  0.7524  -46.7
 1.400  0.7112  -80.7  18.604  125.2  0.0378   46.6  0.7477  -47.3
 1.420  0.7080  -81.7  18.495  124.6  0.0381   46.1  0.7425  -47.8
 1.440  0.7050  -82.7  18.387  124.0  0.0384   45.6  0.7374  -48.4
 1.460  0.7022  -83.7  18.282  123.4  0.0387   45.1  0.7323  -49.0
 1.480  0.6997  -84.8  18.179  122.7  0.0390   44.7  0.7273  -49.5
 1.500  0.6974  -85.8  18.078  122.1  0.0393   44.2  0.7224  -50.1
 1.520  0.6944  -86.8  17.980  121.5  0.0396   43.7  0.7177  -50.6
 1.540  0.6916  -87.8  17.883  120.8  0.0398   43.3  0.7131  -51.0
 1.560  0.6891  -88.8  17.789  120.2  0.0401   42.9  0.7084  -51.5
 1.580  0.6867  -89.8  17.698  119.6  0.0403   42.4  0.7039  -52.0
 1.600  0.6846  -90.8  17.608  118.9  0.0406   42.0  0.6994  -52.5
 1.620  0.6819  -91.7  17.493  118.3  0.0408   41.6  0.6945  -53.0
 1.640  0.6794  -92.7  17.380  117.8  0.0410   41.1  0.6896  -53.5
 1.660  0.6771  -93.6  17.269  117.2  0.0413   40.7  0.6848  -54.0
 1.680  0.6750  -94.5  17.160  116.6  0.0415   40.2  0.6801  -54.5
 1.700  0.6730  -95.5  17.052  116.0  0.0417   39.8  0.6754  -55.0
 1.720  0.6707  -96.4  16.940  115.5  0.0419   39.4  0.6711  -55.4
 1.740  0.6686  -97.2  16.829  114.9  0.0421   39.0  0.6669  -55.9
 1.760  0.6666  -98.1  16.720  114.4  0.0423   38.6  0.6627  -56.4
 1.780  0.6648  -99.0  16.612  113.9  0.0425   38.2  0.6585  -56.8
 1.800  0.6631  -99.9  16.506  113.3  0.0427   37.8  0.6544  -57.3
 1.820  0.6606 -100.7  16.397  112.8  0.0429   37.4  0.6500  -57.7
 1.840  0.6583 -101.6  16.289  112.2  0.0431   37.1  0.6456  -58.2
 1.860  0.6561 -102.4  16.183  111.7  0.0432   36.7  0.6413  -58.7
 1.880  0.6541 -103.2  16.078  111.2  0.0434   36.4  0.6370  -59.1
 1.900  0.6522 -104.1  15.975  110.6  0.0436   36.0  0.6328  -59.6
 1.920  0.6505 -104.9  15.875  110.1  0.0438   35.7  0.6289  -60.0
 1.940  0.6488 -105.6  15.776  109.6  0.0439   35.3  0.6250  -60.4
 1.960  0.6473 -106.4  15.678  109.1  0.0441   35.0  0.6212  -60.8
 1.980  0.6460 -107.2  15.581  108.5  0.0442   34.6  0.6174  -61.2
 2.000  0.6447 -108.0  15.486  108.0  0.0444   34.3  0.6136  -61.6
 2.020  0.6429 -108.7  15.384  107.5  0.0445   34.0  0.6099  -62.0
 2.040  0.6413 -109.4  15.283  107.1  0.0446   33.6  0.6063  -62.3
 2.060  0.6397 -110.2  15.183  106.6  0.0448   33.3  0.6027  -62.7
 2.080  0.6382 -110.9  15.083  106.2  0.0449   33.0  0.5991  -63.1
 2.100  0.6369 -111.6  14.985  105.7  0.0450   32.6  0.5956  -63.5
 2.120  0.6356 -112.3  14.888  105.2  0.0452   32.3  0.5920  -63.9
 2.140  0.6344 -113.1  14.792  104.7  0.0453   32.0  0.5885  -64.3
 2.160  0.6334 -113.8  14.697  104.2  0.0454   31.6  0.5851  -64.7
 2.180  0.6324 -114.6  14.604  103.7  0.0456   31.3  0.5816  -65.1
 2.200  0.6316 -115.3  14.511  103.2  0.0457   31.0  0.5782  -65.5
 2.220  0.6302 -115.9  14.417  102.8  0.0458   30.7  0.5750  -65.8
 2.240  0.6289 -116.6  14.323  102.4  0.0459   30.4  0.5718  -66.2
 2.260  0.6277 -117.2  14.230  102.0  0.0460   30.1  0.5687  -66.5
 2.280  0.6265 -117.8  14.138  101.5  0.0460   29.9  0.5655  -66.9
 2.300  0.6255 -118.5  14.046  101.1  0.0461   29.6  0.5624  -67.2
 2.320  0.6245 -119.1  13.955  100.7  0.0462   29.3  0.5593  -67.6
 2.340  0.6236 -119.8  13.866  100.2  0.0463   29.0  0.5563  -67.9
 2.360  0.6227 -120.4  13.777   99.8  0.0464   28.8  0.5532  -68.3
 2.380  0.6220 -121.1  13.688   99.4  0.0465   28.5  0.5502  -68.6
 2.400  0.6213 -121.7  13.601   98.9  0.0466   28.2  0.5472  -69.0
 2.420  0.6202 -122.3  13.516   98.5  0.0467   27.9  0.5444  -69.3
 2.440  0.6191 -122.9  13.431   98.1  0.0467   27.7  0.5417  -69.6
 2.460  0.6181 -123.5  13.348   97.7  0.0468   27.4  0.5389  -69.8
 2.480  0.6172 -124.0  13.265   97.3  0.0468   27.2  0.5362  -70.1
 2.500  0.6163 -124.6  13.182   96.9  0.0469   26.9  0.5335  -70.4
 2.520  0.6155 -125.2  13.100   96.4  0.0469   26.7  0.5308  -70.7
 2.540  0.6148 -125.8  13.019   96.0  0.0470   26.4  0.5281  -71.0
 2.560  0.6141 -126.4  12.939   95.6  0.0471   26.2  0.5254  -71.3
 2.580  0.6135 -127.0  12.860   95.1  0.0471   25.9  0.5227  -71.6
 2.600  0.6130 -127.6  12.781   94.7  0.0472   25.7  0.5201  -71.9
 2.620  0.6121 -128.1  12.703   94.3  0.0472   25.5  0.5177  -72.1
 2.640  0.6112 -128.6  12.625   94.0  0.0473   25.3  0.5154  -72.4
 2.660  0.6104 -129.0  12.548   93.6  0.0473   25.2  0.5130  -72.6
 2.680  0.6096 -129.5  12.471   93.2  0.0474   25.0  0.5107  -72.9
 2.700  0.6088 -130.0  12.395   92.9  0.0474   24.8  0.5084  -73.1
 2.720  0.6081 -130.5  12.319   92.5  0.0475   24.6  0.5061  -73.4
 2.740  0.6074 -130.9  12.244   92.1  0.0475   24.4  0.5038  -73.6
 2.760  0.6068 -131.4  12.169   91.7  0.0476   24.3  0.5015  -73.9
 2.780  0.6062 -131.9  12.095   91.3  0.0476   24.1  0.4992  -74.1
 2.800  0.6057 -132.4  12.022   90.9  0.0477   23.9  0.4969  -74.4
 2.820  0.6052 -132.9  11.954   90.6  0.0478   23.7  0.4951  -74.6
 2.840  0.6047 -133.3  11.887   90.2  0.0478   23.6  0.4933  -74.9
 2.860  0.6043 -133.8  11.820   89.9  0.0479   23.4  0.4914  -75.1
 2.880  0.6039 -134.2  11.753   89.5  0.0479   23.2  0.4896  -75.3
 2.900  0.6036 -134.7  11.687   89.2  0.0480   23.0  0.4878  -75.6
 2.920  0.6033 -135.2  11.621   88.8  0.0481   22.9  0.4861  -75.8
 2.940  0.6030 -135.6  11.556   88.5  0.0481   22.7  0.4843  -76.1
 2.960  0.6027 -136.1  11.491   88.1  0.0482   22.5  0.4825  -76.3
 2.980  0.6026 -136.5  11.427   87.8  0.0482   22.4  0.4808  -76.6
 3.000  0.6024 -137.0  11.363   87.4  0.0483   22.2  0.4790  -76.8
 3.100  0.5997 -138.7  11.064   86.0  0.0484   21.5  0.4714  -77.6
 3.200  0.5974 -140.3  10.771   84.5  0.0486   20.7  0.4639  -78.4
 3.300  0.5957 -142.0  10.486   82.9  0.0488   20.0  0.4564  -79.3
 3.400  0.5945 -143.7  10.210   81.3  0.0489   19.3  0.4491  -80.2
 3.500  0.5938 -145.4   9.943   79.5  0.0491   18.6  0.4419  -81.1
 3.600  0.5918 -146.7   9.712   78.2  0.0492   18.1  0.4361  -81.6
 3.700  0.5900 -148.1   9.485   76.8  0.0494   17.6  0.4303  -82.2
 3.800  0.5886 -149.4   9.265   75.4  0.0495   17.1  0.4246  -82.7
 3.900  0.5876 -150.7   9.051   73.9  0.0497   16.6  0.4189  -83.3
 4.000  0.5868 -152.1   8.843   72.3  0.0498   16.1  0.4132  -83.9
 4.100  0.5859 -153.2   8.663   71.1  0.0499   15.7  0.4087  -84.3
 4.200  0.5853 -154.3   8.487   69.9  0.0501   15.3  0.4043  -84.8
 4.300  0.5849 -155.3   8.315   68.6  0.0502   15.0  0.3999  -85.2
 4.400  0.5846 -156.4   8.147   67.2  0.0504   14.6  0.3955  -85.7
 4.500  0.5846 -157.5   7.984   65.8  0.0505   14.2  0.3912  -86.2
 4.600  0.5834 -158.5   7.839   64.6  0.0507   13.9  0.3871  -86.7
 4.700  0.5823 -159.4   7.697   63.4  0.0509   13.5  0.3830  -87.2
 4.800  0.5813 -160.4   7.560   62.1  0.0510   13.2  0.3790  -87.7
 4.900  0.5806 -161.3   7.426   60.8  0.0512   12.8  0.3750  -88.2
 5.000  0.5800 -162.3   7.296   59.4  0.0514   12.5  0.3710  -88.7
 5.100  0.5709 -166.8   7.176   58.2  0.0516   12.2  0.3672  -89.2
 5.200  0.5653 -171.3   7.059   57.0  0.0518   11.9  0.3634  -89.7
 5.300  0.5635 -176.0   6.946   55.7  0.0519   11.6  0.3596  -90.3
 5.400  0.5653  179.4   6.835   54.4  0.0521   11.3  0.3559  -90.8
 5.500  0.5708  174.8   6.729   53.1  0.0523   11.0  0.3522  -91.4
 5.600  0.5689  173.4   6.630   51.9  0.0525   10.7  0.3495  -92.1
 5.700  0.5673  171.9   6.533   50.7  0.0527   10.4  0.3469  -92.8
 5.800  0.5661  170.5   6.440   49.4  0.0529   10.2  0.3443  -93.5
 5.900  0.5653  169.1   6.350   48.1  0.0531    9.9  0.3418  -94.2
 6.000  0.5648  167.6   6.263   46.8  0.0533    9.6  0.3393  -94.9
 6.100  0.5625  166.0   6.175   45.6  0.0535    9.3  0.3357  -95.9
 6.200  0.5606  164.3   6.089   44.3  0.0537    9.0  0.3323  -96.9
 6.300  0.5592  162.6   6.007   42.9  0.0540    8.6  0.3289  -97.9
 6.400  0.5583  161.0   5.928   41.6  0.0542    8.3  0.3256  -98.9
 6.500  0.5579  159.3   5.852   40.2  0.0544    8.0  0.3225 -100.0
 6.600  0.5555  157.5   5.767   38.9  0.0546    7.7  0.3177 -101.2
 6.800  0.5524  153.9   5.607   36.2  0.0549    7.0  0.3085 -103.7
 7.000  0.5514  150.3   5.459   33.4  0.0553    6.4  0.3000 -106.4
 7.200  0.5510  146.2   5.301   30.8  0.0557    5.7  0.2874 -109.8
 7.400  0.5534  142.2   5.154   28.1  0.0560    5.0  0.2760 -113.5
 7.600  0.5582  138.1   5.011   25.4  0.0564    4.3  0.2637 -117.9
 7.800  0.5656  134.1   4.872   22.7  0.0567    3.6  0.2513 -122.9
 8.000  0.5758  130.1   4.745   19.8  0.0570    2.9  0.2410 -128.5
 8.200  0.5879  126.0   4.589   17.1  0.0570    2.1  0.2285 -136.6
 8.400  0.6029  122.0   4.445   14.2  0.0571    1.2  0.2210 -145.5
 8.600  0.6180  118.4   4.293   11.5  0.0570    0.5  0.2147 -155.3
 8.800  0.6327  115.1   4.132    8.9  0.0569    0.0  0.2107 -166.1
 9.000  0.6493  112.0   3.979    6.2  0.0567   -0.5  0.2145 -177.0
 9.200  0.6647  109.8   3.833    4.1  0.0566   -0.9  0.2245  174.5
 9.400  0.6811  107.6   3.693    1.8  0.0565   -1.3  0.2389  166.9
 9.600  0.6977  105.8   3.560   -0.4  0.0565   -1.7  0.2559  160.4
 9.800  0.7143  104.4   3.435   -2.5  0.0564   -2.1  0.2744  154.8
10.000  0.7313  103.0   3.314   -4.7  0.0563   -2.5  0.2953  149.9
!
!  f       NFmin   Gammaopt  rn/50
! GHz       dB    MAG  ANG    -
 0.450      0.55  0.30    3   0.33
 0.900      0.58  0.27    8   0.12
 1.800      0.62  0.25   13   0.15
 2.400      0.65  0.22   23   0.14
 5.500      0.80  0.20   43   0.09
10.000      1.00  0.28  -91   0.17
!
! (c) 2016  Infineon Technologies AG, Munich
