! Infineon Technologies  Discrete & RF Semiconductors
! BFP720
! VCE =  2.0 V,  IC =  7.0 mA
! Common Emitter S-Parameters:                            Aug 2012
# GHz  S  MA  R  50
!  f         S11            S21            S12            S22
! GHz     MAG   ANG      MAG   ANG      MAG   ANG      MAG   ANG
 0.010  0.9089    0.2  18.811 -179.9  0.0001  109.0  0.9792    0.9
 0.020  0.9149   -1.0  18.768  178.6  0.0009   79.4  0.9972   -0.6
 0.030  0.9146   -1.5  18.842  178.1  0.0012   81.7  0.9970   -1.0
 0.040  0.9144   -2.1  18.917  177.7  0.0016   82.9  0.9969   -1.3
 0.050  0.9143   -2.6  18.993  177.3  0.0020   83.6  0.9968   -1.7
 0.060  0.9139   -3.1  18.973  176.9  0.0023   84.6  0.9969   -2.1
 0.070  0.9135   -3.7  18.954  176.5  0.0027   85.3  0.9970   -2.5
 0.080  0.9133   -4.2  18.936  176.1  0.0030   85.8  0.9972   -2.9
 0.090  0.9131   -4.7  18.918  175.7  0.0033   86.2  0.9974   -3.3
 0.100  0.9130   -5.3  18.902  175.3  0.0037   86.6  0.9977   -3.6
 0.110  0.9124   -5.8  18.892  174.8  0.0041   86.4  0.9971   -4.0
 0.120  0.9118   -6.3  18.883  174.3  0.0045   86.2  0.9966   -4.4
 0.130  0.9113   -6.9  18.875  173.9  0.0049   86.1  0.9962   -4.7
 0.140  0.9109   -7.4  18.868  173.4  0.0053   86.0  0.9958   -5.1
 0.150  0.9105   -8.0  18.862  173.0  0.0057   85.9  0.9954   -5.4
 0.200  0.9074  -10.5  18.706  170.8  0.0076   84.4  0.9925   -7.3
 0.250  0.9040  -13.2  18.626  168.6  0.0095   82.5  0.9891   -9.0
 0.300  0.8995  -15.7  18.470  166.5  0.0113   80.9  0.9845  -10.8
 0.350  0.8944  -18.4  18.345  164.6  0.0131   79.3  0.9799  -12.6
 0.400  0.8902  -21.0  18.249  162.6  0.0149   77.6  0.9737  -14.4
 0.450  0.8845  -23.5  18.088  160.6  0.0166   76.1  0.9687  -16.1
 0.500  0.8789  -26.1  17.961  158.7  0.0185   74.4  0.9625  -17.9
 0.600  0.8677  -31.3  17.720  154.9  0.0220   71.5  0.9476  -21.3
 0.700  0.8548  -36.5  17.462  151.2  0.0253   68.5  0.9329  -24.8
 0.800  0.8397  -42.0  17.337  147.5  0.0286   65.5  0.9167  -28.2
 0.900  0.8261  -47.2  17.023  143.9  0.0317   62.6  0.8978  -31.6
 1.000  0.8109  -52.4  16.725  140.3  0.0346   59.6  0.8780  -35.0
 1.100  0.7956  -57.6  16.412  136.8  0.0374   56.7  0.8562  -38.3
 1.200  0.7790  -62.8  16.103  133.2  0.0400   54.0  0.8343  -41.5
 1.300  0.7631  -68.0  15.780  129.7  0.0424   51.3  0.8115  -44.6
 1.400  0.7469  -73.0  15.428  126.3  0.0445   48.7  0.7880  -47.6
 1.500  0.7311  -78.1  15.101  123.0  0.0465   46.2  0.7639  -50.5
 1.600  0.7135  -83.4  14.835  119.4  0.0483   43.8  0.7408  -53.3
 1.700  0.6986  -88.1  14.440  116.3  0.0499   41.4  0.7166  -56.0
 1.800  0.6854  -92.6  14.065  113.2  0.0514   39.2  0.6944  -58.6
 1.900  0.6713  -96.9  13.684  110.3  0.0527   37.1  0.6730  -61.1
 2.000  0.6607 -101.2  13.313  107.5  0.0539   35.2  0.6525  -63.6
 2.100  0.6486 -105.1  12.941  104.8  0.0548   33.3  0.6324  -65.7
 2.200  0.6396 -109.1  12.598  102.0  0.0559   31.4  0.6133  -68.0
 2.300  0.6299 -112.8  12.247   99.5  0.0566   29.7  0.5958  -70.1
 2.400  0.6229 -116.5  11.919   96.9  0.0574   28.1  0.5792  -72.4
 2.500  0.6137 -119.9  11.606   94.6  0.0581   26.6  0.5632  -74.3
 2.600  0.6069 -123.5  11.313   92.1  0.0588   25.1  0.5479  -76.3
 2.700  0.6000 -126.8  11.021   89.8  0.0593   23.7  0.5334  -78.2
 2.800  0.5952 -130.2  10.746   87.5  0.0599   22.3  0.5196  -80.2
 2.900  0.5880 -133.4  10.478   85.3  0.0603   21.1  0.5063  -82.1
 3.000  0.5826 -136.7  10.225   83.1  0.0607   19.8  0.4937  -84.1
 3.100  0.5742 -139.8   9.977   81.1  0.0610   18.6  0.4803  -85.8
 3.200  0.5676 -143.0   9.740   79.1  0.0613   17.5  0.4675  -87.6
 3.300  0.5628 -146.3   9.516   77.0  0.0615   16.4  0.4551  -89.6
 3.400  0.5599 -149.7   9.306   74.8  0.0619   15.3  0.4433  -91.6
 3.500  0.5589 -153.0   9.110   72.5  0.0622   14.2  0.4321  -93.7
 3.600  0.5528 -156.3   8.899   70.7  0.0623   13.2  0.4198  -95.7
 3.700  0.5485 -159.6   8.698   68.7  0.0624   12.3  0.4079  -97.7
 3.800  0.5460 -162.9   8.507   66.8  0.0625   11.4  0.3967  -99.9
 3.900  0.5453 -166.3   8.327   64.7  0.0626   10.4  0.3860 -102.2
 4.000  0.5466 -169.6   8.159   62.5  0.0628    9.5  0.3759 -104.6
 4.100  0.5438 -172.7   7.975   60.8  0.0628    8.6  0.3645 -106.9
 4.200  0.5426 -175.7   7.799   58.9  0.0628    7.8  0.3537 -109.5
 4.300  0.5429 -178.8   7.631   57.0  0.0628    7.0  0.3437 -112.1
 4.400  0.5449  178.1   7.471   55.1  0.0628    6.1  0.3344 -114.9
 4.500  0.5483  175.0   7.321   53.0  0.0629    5.3  0.3260 -117.9
 4.600  0.5486  172.4   7.154   51.4  0.0627    4.6  0.3173 -120.6
 4.700  0.5500  169.8   6.993   49.6  0.0625    3.9  0.3094 -123.5
 4.800  0.5525  167.1   6.838   47.8  0.0624    3.2  0.3022 -126.5
 4.900  0.5562  164.5   6.690   46.0  0.0622    2.5  0.2960 -129.6
 5.000  0.5611  162.0   6.550   44.0  0.0621    1.8  0.2907 -132.9
 5.100  0.5630  159.9   6.407   42.5  0.0619    1.4  0.2866 -135.4
 5.200  0.5656  157.9   6.269   41.0  0.0616    0.9  0.2831 -138.0
 5.300  0.5689  155.9   6.135   39.4  0.0614    0.4  0.2802 -140.6
 5.400  0.5729  154.0   6.006   37.7  0.0612   -0.1  0.2778 -143.3
 5.500  0.5775  152.0   5.883   35.9  0.0610   -0.6  0.2761 -146.0
 5.600  0.5793  150.5   5.765   34.6  0.0607   -0.9  0.2759 -147.8
 5.700  0.5815  149.0   5.650   33.1  0.0605   -1.2  0.2759 -149.5
 5.800  0.5841  147.5   5.539   31.6  0.0602   -1.6  0.2762 -151.2
 5.900  0.5871  146.0   5.432   30.1  0.0600   -1.9  0.2767 -153.0
 6.000  0.5905  144.5   5.329   28.5  0.0597   -2.2  0.2775 -154.7
 6.100  0.5903  143.3   5.231   27.2  0.0596   -2.2  0.2776 -155.5
 6.200  0.5905  142.0   5.136   25.8  0.0594   -2.3  0.2777 -156.3
 6.300  0.5909  140.8   5.044   24.4  0.0593   -2.4  0.2780 -157.1
 6.400  0.5915  139.5   4.956   23.0  0.0591   -2.5  0.2782 -157.9
 6.500  0.5925  138.3   4.870   21.5  0.0590   -2.5  0.2786 -158.7
 6.600  0.5909  137.2   4.791   20.2  0.0591   -2.5  0.2765 -159.0
 6.700  0.5895  136.0   4.714   18.9  0.0591   -2.4  0.2745 -159.3
 6.800  0.5884  134.9   4.639   17.6  0.0592   -2.3  0.2725 -159.7
 6.900  0.5875  133.7   4.567   16.2  0.0593   -2.2  0.2705 -160.0
 7.000  0.5868  132.6   4.498   14.8  0.0594   -2.2  0.2685 -160.3
 7.100  0.5865  131.3   4.438   13.5  0.0598   -2.2  0.2659 -161.0
 7.200  0.5864  130.0   4.381   12.2  0.0602   -2.3  0.2633 -161.7
 7.300  0.5866  128.7   4.325   10.8  0.0606   -2.3  0.2608 -162.4
 7.400  0.5872  127.4   4.273    9.4  0.0610   -2.4  0.2584 -163.1
 7.500  0.5880  126.1   4.223    8.0  0.0615   -2.4  0.2559 -163.9
 7.600  0.5898  124.4   4.169    6.5  0.0619   -2.8  0.2523 -168.6
 7.700  0.5920  122.7   4.119    5.0  0.0623   -3.1  0.2504 -173.4
 7.800  0.5949  121.0   4.072    3.4  0.0628   -3.4  0.2503 -178.2
 7.900  0.5982  119.3   4.027    1.8  0.0632   -3.8  0.2519  177.0
 8.000  0.6020  117.6   3.986    0.2  0.0637   -4.1  0.2553  172.3
 8.500  0.6261  108.1   3.697   -8.0  0.0649   -5.8  0.2592  156.4
 9.000  0.6591   99.3   3.399  -15.8  0.0667   -7.2  0.2904  140.8
 9.500  0.7033   92.1   3.111  -23.3  0.0683   -9.6  0.3427  128.3
10.000  0.7457   85.8   2.816  -30.4  0.0686  -12.0  0.4029  118.5
10.500  0.7683   81.5   2.528  -35.8  0.0689  -13.0  0.4543  111.6
11.000  0.7833   79.8   2.343  -39.7  0.0709  -13.9  0.4951  107.8
11.500  0.8155   79.4   2.228  -45.1  0.0736  -15.9  0.5392  105.8
12.000  0.8439   77.6   2.091  -51.7  0.0748  -19.0  0.5817  103.2
!
!  f       NFmin   Gammaopt  rn/50
! GHz       dB    MAG  ANG    -
 0.450      0.44  0.40    3  -0.03
 1.800      0.52  0.37   23   0.13
 2.400      0.57  0.28   50   0.26
 5.500      0.71  0.17   49   0.16
10.000      0.94  0.39  -86   0.20
!
! (c) 2012  Infineon Technologies AG, Munich
