! Infineon Technologies  Discrete & RF Semiconductors
! BFP750
! VCE =  3.0 V,  IC =  40 mA
! Common Emitter S-Parameters:                            Jan 2016
# GHz  S  MA  R  50
!  f         S11            S21            S12            S22
! GHz     MAG   ANG      MAG   ANG      MAG   ANG      MAG   ANG
 0.030  0.7087  -13.0  61.829  173.2  0.0040   83.1  0.9809   -8.7
 0.035  0.7067  -15.1  61.732  172.1  0.0047   82.0  0.9799  -10.2
 0.040  0.7056  -17.3  61.657  171.0  0.0054   81.1  0.9797  -11.8
 0.045  0.7059  -19.7  61.644  169.7  0.0059   80.6  0.9779  -13.3
 0.050  0.7073  -22.0  61.663  168.4  0.0065   80.1  0.9769  -14.9
 0.055  0.7044  -24.0  61.434  167.5  0.0072   78.6  0.9743  -16.4
 0.060  0.7024  -26.0  61.220  166.6  0.0080   77.3  0.9725  -18.0
 0.065  0.7042  -28.3  60.933  165.4  0.0085   76.7  0.9690  -19.5
 0.070  0.7071  -30.5  60.672  164.2  0.0091   76.1  0.9661  -21.0
 0.075  0.7075  -32.6  60.442  163.4  0.0097   74.9  0.9625  -22.5
 0.080  0.7089  -34.6  60.225  162.5  0.0103   73.8  0.9596  -24.1
 0.085  0.7079  -36.5  59.817  161.4  0.0109   73.1  0.9556  -25.5
 0.090  0.7076  -38.4  59.432  160.3  0.0116   72.5  0.9522  -27.0
 0.095  0.7076  -40.5  59.112  159.3  0.0121   71.9  0.9477  -28.4
 0.100  0.7085  -42.5  58.812  158.2  0.0127   71.3  0.9438  -29.9
 0.105  0.7081  -44.3  58.421  157.3  0.0133   70.0  0.9388  -31.3
 0.110  0.7083  -46.1  58.047  156.3  0.0139   68.9  0.9344  -32.7
 0.115  0.7077  -48.0  57.658  155.3  0.0144   68.2  0.9295  -34.1
 0.120  0.7079  -49.9  57.286  154.3  0.0149   67.5  0.9251  -35.5
 0.125  0.7097  -51.8  56.885  153.4  0.0154   66.6  0.9198  -36.9
 0.130  0.7123  -53.6  56.499  152.5  0.0160   65.8  0.9151  -38.3
 0.135  0.7110  -55.3  56.096  151.6  0.0165   65.0  0.9096  -39.6
 0.140  0.7103  -57.1  55.708  150.6  0.0170   64.2  0.9047  -41.0
 0.145  0.7101  -59.0  55.336  149.7  0.0174   63.3  0.8992  -42.3
 0.150  0.7106  -60.9  54.980  148.7  0.0178   62.5  0.8941  -43.6
 0.155  0.7085  -62.5  54.484  147.9  0.0182   61.7  0.8868  -44.8
 0.160  0.7069  -64.1  53.999  147.1  0.0186   60.9  0.8800  -45.9
 0.165  0.7059  -65.7  53.523  146.3  0.0190   60.2  0.8734  -47.1
 0.170  0.7054  -67.3  53.059  145.5  0.0194   59.5  0.8673  -48.3
 0.175  0.7055  -68.9  52.606  144.7  0.0199   58.8  0.8616  -49.6
 0.180  0.7061  -70.5  52.164  143.8  0.0203   58.1  0.8562  -50.8
 0.185  0.7072  -72.1  51.733  143.0  0.0207   57.5  0.8513  -52.1
 0.190  0.7090  -73.7  51.314  142.1  0.0211   56.9  0.8468  -53.3
 0.195  0.7112  -75.2  50.908  141.2  0.0216   56.4  0.8427  -54.6
 0.200  0.7140  -76.8  50.514  140.3  0.0220   55.8  0.8390  -55.9
 0.220  0.7104  -82.0  48.710  137.7  0.0233   53.3  0.8140  -60.1
 0.240  0.7127  -87.2  47.014  134.9  0.0245   51.0  0.7936  -64.5
 0.260  0.7141  -92.1  45.356  132.3  0.0257   49.0  0.7736  -68.6
 0.280  0.7137  -96.8  43.703  129.8  0.0266   47.1  0.7530  -72.5
 0.300  0.7181 -101.5  42.135  127.2  0.0276   45.4  0.7359  -76.5
 0.320  0.7163 -105.3  40.608  125.3  0.0283   43.7  0.7168  -79.8
 0.340  0.7177 -109.0  39.131  123.2  0.0291   42.2  0.7002  -83.3
 0.360  0.7185 -112.5  37.750  121.2  0.0298   40.8  0.6846  -86.6
 0.380  0.7183 -115.8  36.451  119.4  0.0304   39.5  0.6695  -89.6
 0.400  0.7204 -119.0  35.191  117.5  0.0310   38.3  0.6564  -92.8
 0.420  0.7197 -121.8  34.036  116.0  0.0315   37.2  0.6429  -95.5
 0.440  0.7207 -124.6  32.906  114.4  0.0320   36.1  0.6310  -98.3
 0.450  0.7218 -126.0  32.351  113.6  0.0323   35.6  0.6256  -99.8
 0.460  0.7214 -127.2  31.842  113.0  0.0325   35.2  0.6198 -101.0
 0.480  0.7217 -129.7  30.837  111.6  0.0328   34.3  0.6090 -103.5
 0.500  0.7232 -132.1  29.850  110.2  0.0332   33.5  0.5994 -106.1
 0.520  0.7220 -134.1  29.005  109.2  0.0335   32.8  0.5898 -108.2
 0.540  0.7216 -136.0  28.169  108.1  0.0338   32.1  0.5811 -110.3
 0.560  0.7221 -138.0  27.344  107.0  0.0341   31.5  0.5731 -112.5
 0.580  0.7234 -139.9  26.530  105.8  0.0345   30.8  0.5660 -114.7
 0.600  0.7256 -141.9  25.729  104.5  0.0348   30.2  0.5598 -117.0
 0.620  0.7249 -143.5  25.078  103.7  0.0350   29.7  0.5532 -118.7
 0.640  0.7247 -145.1  24.433  102.8  0.0352   29.2  0.5472 -120.5
 0.660  0.7251 -146.6  23.794  101.8  0.0355   28.7  0.5416 -122.3
 0.680  0.7260 -148.2  23.161  100.8  0.0357   28.2  0.5366 -124.1
 0.700  0.7275 -149.8  22.536   99.8  0.0359   27.7  0.5322 -126.0
 0.720  0.7274 -151.1  22.023   99.1  0.0361   27.4  0.5276 -127.5
 0.740  0.7276 -152.4  21.514   98.3  0.0363   27.1  0.5233 -129.0
 0.760  0.7282 -153.7  21.008   97.5  0.0364   26.7  0.5194 -130.6
 0.780  0.7292 -155.0  20.508   96.6  0.0366   26.4  0.5158 -132.1
 0.800  0.7306 -156.3  20.012   95.7  0.0368   26.1  0.5127 -133.7
 0.820  0.7306 -157.4  19.597   95.1  0.0370   25.8  0.5095 -135.0
 0.840  0.7308 -158.4  19.184   94.4  0.0372   25.6  0.5066 -136.3
 0.860  0.7312 -159.5  18.774   93.7  0.0373   25.3  0.5040 -137.6
 0.880  0.7319 -160.5  18.367   93.0  0.0375   25.1  0.5016 -139.0
 0.900  0.7329 -161.6  17.963   92.2  0.0377   24.8  0.4995 -140.3
 0.920  0.7329 -162.6  17.617   91.6  0.0378   24.6  0.4972 -141.4
 0.940  0.7330 -163.6  17.273   91.0  0.0380   24.4  0.4951 -142.6
 0.960  0.7334 -164.5  16.932   90.4  0.0381   24.1  0.4931 -143.8
 0.980  0.7340 -165.5  16.592   89.7  0.0383   23.9  0.4914 -144.9
 1.000  0.7348 -166.5  16.255   89.0  0.0384   23.7  0.4899 -146.1
 1.020  0.7352 -167.3  15.977   88.5  0.0386   23.6  0.4883 -147.1
 1.040  0.7358 -168.1  15.701   87.9  0.0387   23.4  0.4868 -148.1
 1.060  0.7365 -169.0  15.427   87.3  0.0389   23.3  0.4854 -149.1
 1.080  0.7374 -169.8  15.154   86.7  0.0390   23.1  0.4842 -150.2
 1.100  0.7384 -170.6  14.883   86.1  0.0392   23.0  0.4832 -151.2
 1.120  0.7386 -171.4  14.639   85.6  0.0393   22.9  0.4821 -152.1
 1.140  0.7390 -172.2  14.395   85.1  0.0395   22.7  0.4811 -153.0
 1.160  0.7395 -172.9  14.153   84.5  0.0396   22.6  0.4802 -154.0
 1.180  0.7402 -173.7  13.912   84.0  0.0398   22.4  0.4795 -154.9
 1.200  0.7410 -174.5  13.673   83.4  0.0399   22.3  0.4789 -155.8
 1.220  0.7411 -175.2  13.469   82.9  0.0400   22.2  0.4780 -156.6
 1.240  0.7414 -175.9  13.267   82.4  0.0401   22.1  0.4772 -157.4
 1.260  0.7417 -176.5  13.066   81.9  0.0403   22.0  0.4766 -158.3
 1.280  0.7422 -177.2  12.865   81.4  0.0404   21.9  0.4760 -159.1
 1.300  0.7427 -177.9  12.666   80.8  0.0405   21.8  0.4755 -159.9
 1.320  0.7430 -178.6  12.485   80.3  0.0406   21.7  0.4750 -160.7
 1.340  0.7434 -179.2  12.304   79.9  0.0408   21.7  0.4745 -161.4
 1.360  0.7440 -179.9  12.124   79.4  0.0409   21.6  0.4741 -162.2
 1.380  0.7446  179.5  11.945   78.9  0.0411   21.6  0.4738 -162.9
 1.400  0.7453  178.8  11.767   78.4  0.0412   21.5  0.4736 -163.7
 1.420  0.7458  178.2  11.613   78.0  0.0413   21.4  0.4732 -164.4
 1.440  0.7464  177.6  11.460   77.5  0.0415   21.3  0.4729 -165.1
 1.460  0.7471  177.1  11.308   77.1  0.0416   21.3  0.4727 -165.7
 1.480  0.7479  176.5  11.157   76.6  0.0418   21.2  0.4725 -166.4
 1.500  0.7487  175.9  11.006   76.1  0.0419   21.1  0.4724 -167.1
 1.520  0.7489  175.3  10.868   75.7  0.0420   21.0  0.4722 -167.7
 1.540  0.7491  174.8  10.730   75.2  0.0422   20.9  0.4721 -168.4
 1.560  0.7494  174.2  10.593   74.8  0.0423   20.9  0.4720 -169.0
 1.580  0.7498  173.7  10.457   74.3  0.0425   20.8  0.4720 -169.7
 1.600  0.7503  173.1  10.321   73.8  0.0426   20.7  0.4720 -170.3
 1.620  0.7507  172.6  10.200   73.4  0.0427   20.6  0.4718 -170.9
 1.640  0.7511  172.0  10.079   73.0  0.0429   20.6  0.4717 -171.5
 1.660  0.7517  171.5   9.959   72.5  0.0430   20.5  0.4716 -172.1
 1.680  0.7522  170.9   9.840   72.1  0.0432   20.5  0.4716 -172.7
 1.700  0.7529  170.4   9.721   71.6  0.0433   20.4  0.4716 -173.3
 1.720  0.7532  169.9   9.609   71.2  0.0434   20.3  0.4715 -173.9
 1.740  0.7535  169.4   9.498   70.8  0.0436   20.3  0.4714 -174.4
 1.760  0.7538  169.0   9.388   70.3  0.0437   20.2  0.4714 -175.0
 1.780  0.7542  168.5   9.277   69.9  0.0439   20.2  0.4714 -175.5
 1.800  0.7547  168.0   9.168   69.4  0.0440   20.1  0.4715 -176.1
 1.820  0.7550  167.5   9.067   69.0  0.0441   20.0  0.4715 -176.7
 1.840  0.7554  167.0   8.966   68.6  0.0443   19.9  0.4716 -177.2
 1.860  0.7559  166.6   8.865   68.2  0.0444   19.9  0.4717 -177.8
 1.880  0.7564  166.1   8.765   67.7  0.0446   19.8  0.4719 -178.3
 1.900  0.7569  165.6   8.666   67.3  0.0447   19.7  0.4721 -178.9
 1.920  0.7573  165.1   8.578   66.9  0.0448   19.6  0.4721 -179.4
 1.940  0.7577  164.6   8.490   66.5  0.0450   19.6  0.4721 -179.9
 1.960  0.7582  164.2   8.403   66.1  0.0451   19.5  0.4721  179.6
 1.980  0.7587  163.7   8.316   65.7  0.0453   19.5  0.4722  179.1
 2.000  0.7593  163.2   8.230   65.3  0.0454   19.4  0.4723  178.6
 2.020  0.7593  162.7   8.150   64.9  0.0455   19.3  0.4723  178.1
 2.040  0.7594  162.3   8.071   64.5  0.0457   19.3  0.4723  177.6
 2.060  0.7595  161.8   7.992   64.2  0.0458   19.2  0.4724  177.1
 2.080  0.7597  161.4   7.913   63.8  0.0459   19.1  0.4725  176.6
 2.100  0.7599  160.9   7.834   63.4  0.0460   19.0  0.4726  176.1
 2.120  0.7602  160.4   7.757   62.9  0.0462   19.0  0.4728  175.6
 2.140  0.7605  160.0   7.679   62.5  0.0463   18.9  0.4730  175.1
 2.160  0.7608  159.5   7.602   62.1  0.0464   18.8  0.4732  174.6
 2.180  0.7612  159.1   7.525   61.6  0.0466   18.8  0.4735  174.1
 2.200  0.7617  158.6   7.449   61.2  0.0467   18.7  0.4738  173.6
 2.220  0.7617  158.2   7.381   60.9  0.0468   18.6  0.4739  173.1
 2.240  0.7618  157.8   7.313   60.5  0.0470   18.6  0.4741  172.6
 2.260  0.7619  157.4   7.246   60.1  0.0471   18.5  0.4742  172.2
 2.280  0.7620  157.0   7.179   59.8  0.0472   18.4  0.4744  171.7
 2.300  0.7622  156.5   7.112   59.4  0.0473   18.3  0.4747  171.2
 2.320  0.7624  156.1   7.046   59.0  0.0475   18.3  0.4750  170.7
 2.340  0.7627  155.7   6.979   58.6  0.0476   18.2  0.4753  170.2
 2.360  0.7630  155.3   6.914   58.2  0.0477   18.1  0.4756  169.8
 2.380  0.7633  154.9   6.848   57.8  0.0479   18.1  0.4760  169.3
 2.400  0.7637  154.5   6.783   57.4  0.0480   18.0  0.4764  168.8
 2.420  0.7637  154.1   6.724   57.1  0.0481   17.9  0.4766  168.4
 2.440  0.7636  153.7   6.665   56.7  0.0483   17.9  0.4769  167.9
 2.460  0.7637  153.3   6.607   56.4  0.0484   17.8  0.4772  167.5
 2.480  0.7637  152.9   6.549   56.0  0.0486   17.8  0.4775  167.0
 2.500  0.7638  152.5   6.491   55.6  0.0487   17.7  0.4779  166.6
 2.520  0.7640  152.1   6.433   55.3  0.0488   17.6  0.4783  166.2
 2.540  0.7641  151.7   6.376   54.9  0.0490   17.6  0.4787  165.7
 2.560  0.7644  151.3   6.318   54.5  0.0491   17.5  0.4791  165.3
 2.580  0.7646  150.9   6.262   54.1  0.0493   17.5  0.4796  164.8
 2.600  0.7649  150.5   6.205   53.7  0.0494   17.4  0.4801  164.4
 2.620  0.7651  150.1   6.156   53.4  0.0495   17.3  0.4805  164.0
 2.640  0.7654  149.8   6.108   53.0  0.0497   17.3  0.4808  163.6
 2.660  0.7657  149.4   6.060   52.7  0.0498   17.2  0.4813  163.2
 2.680  0.7661  149.0   6.012   52.4  0.0499   17.1  0.4817  162.8
 2.700  0.7665  148.6   5.964   52.0  0.0500   17.0  0.4821  162.3
 2.720  0.7669  148.3   5.916   51.7  0.0502   17.0  0.4826  161.9
 2.740  0.7673  147.9   5.869   51.3  0.0503   16.9  0.4831  161.5
 2.760  0.7678  147.5   5.822   50.9  0.0504   16.8  0.4837  161.1
 2.780  0.7683  147.2   5.775   50.6  0.0506   16.8  0.4842  160.7
 2.800  0.7688  146.8   5.728   50.2  0.0507   16.7  0.4848  160.3
 2.820  0.7691  146.4   5.685   49.9  0.0508   16.6  0.4852  159.9
 2.840  0.7694  146.1   5.642   49.5  0.0510   16.5  0.4857  159.6
 2.860  0.7697  145.7   5.599   49.2  0.0511   16.5  0.4862  159.2
 2.880  0.7700  145.4   5.557   48.9  0.0513   16.4  0.4867  158.8
 2.900  0.7704  145.0   5.514   48.5  0.0514   16.3  0.4872  158.4
 2.920  0.7708  144.6   5.472   48.2  0.0516   16.2  0.4877  158.1
 2.940  0.7713  144.3   5.430   47.8  0.0517   16.1  0.4883  157.7
 2.960  0.7718  143.9   5.389   47.4  0.0519   16.1  0.4889  157.3
 2.980  0.7723  143.6   5.347   47.1  0.0520   16.0  0.4895  157.0
 3.000  0.7728  143.2   5.306   46.7  0.0522   15.9  0.4901  156.6
 3.100  0.7739  141.4   5.124   45.2  0.0529   15.4  0.4928  154.9
 3.200  0.7758  139.6   4.945   43.6  0.0535   14.9  0.4960  153.1
 3.300  0.7785  137.8   4.770   41.9  0.0542   14.4  0.4996  151.4
 3.400  0.7819  136.1   4.601   40.0  0.0548   14.0  0.5036  149.7
 3.500  0.7860  134.3   4.436   38.0  0.0555   13.5  0.5081  148.1
 3.600  0.7882  132.7   4.295   36.6  0.0561   13.0  0.5122  146.6
 3.700  0.7909  131.1   4.157   35.1  0.0566   12.5  0.5165  145.2
 3.800  0.7943  129.6   4.022   33.5  0.0572   12.0  0.5212  143.8
 3.900  0.7982  128.0   3.891   31.7  0.0578   11.5  0.5263  142.4
 4.000  0.8027  126.5   3.763   29.9  0.0584   11.0  0.5316  141.0
 4.100  0.8045  125.2   3.653   28.6  0.0589   10.5  0.5358  139.8
 4.200  0.8068  124.0   3.545   27.3  0.0595   10.1  0.5402  138.6
 4.300  0.8094  122.8   3.439   25.8  0.0600    9.6  0.5449  137.4
 4.400  0.8123  121.5   3.335   24.3  0.0606    9.1  0.5498  136.2
 4.500  0.8157  120.3   3.234   22.7  0.0611    8.7  0.5549  135.1
 4.600  0.8163  119.2   3.150   21.4  0.0617    8.2  0.5573  134.1
 4.700  0.8172  118.1   3.067   20.1  0.0623    7.7  0.5599  133.0
 4.800  0.8184  116.9   2.986   18.7  0.0629    7.2  0.5627  132.0
 4.900  0.8199  115.8   2.907   17.2  0.0636    6.8  0.5657  131.0
 5.000  0.8217  114.7   2.830   15.6  0.0642    6.3  0.5688  130.0
 5.100  0.8211  113.6   2.760   14.4  0.0647    5.7  0.5695  128.8
 5.200  0.8208  112.5   2.691   13.1  0.0653    5.2  0.5705  127.7
 5.300  0.8209  111.3   2.623   11.7  0.0659    4.6  0.5718  126.5
 5.400  0.8212  110.2   2.557   10.3  0.0664    4.0  0.5732  125.3
 5.500  0.8219  109.1   2.493    8.8  0.0670    3.5  0.5749  124.2
 5.600  0.8219  108.1   2.438    7.7  0.0676    3.0  0.5759  122.9
 5.700  0.8221  107.2   2.383    6.5  0.0682    2.4  0.5773  121.7
 5.800  0.8225  106.2   2.330    5.2  0.0688    1.9  0.5789  120.4
 5.900  0.8232  105.3   2.278    4.0  0.0695    1.4  0.5807  119.1
 6.000  0.8241  104.3   2.227    2.6  0.0701    0.9  0.5829  117.9
 6.100  0.8260  103.4   2.186    1.4  0.0708    0.2  0.5855  116.9
 6.200  0.8281  102.6   2.146    0.1  0.0715   -0.5  0.5882  115.9
 6.300  0.8304  101.7   2.107   -1.2  0.0722   -1.1  0.5911  114.9
 6.400  0.8328  100.9   2.070   -2.5  0.0730   -1.8  0.5942  114.0
 6.500  0.8355  100.0   2.033   -3.9  0.0737   -2.4  0.5975  113.0
 6.600  0.8376   99.0   1.997   -5.2  0.0744   -3.2  0.6006  112.2
 6.800  0.8427   96.9   1.929   -8.0  0.0758   -4.8  0.6071  110.5
 7.000  0.8488   94.9   1.866  -11.0  0.0773   -6.3  0.6142  108.9
 7.200  0.8525   92.5   1.794  -14.0  0.0782   -8.3  0.6221  106.9
 7.400  0.8577   90.2   1.728  -17.2  0.0792  -10.2  0.6309  104.9
 7.600  0.8618   87.7   1.659  -20.2  0.0799  -12.1  0.6400  102.6
 7.800  0.8650   85.2   1.587  -23.0  0.0804  -14.0  0.6499  100.1
 8.000  0.8699   82.7   1.519  -26.1  0.0809  -15.8  0.6610   97.7
 8.200  0.8721   80.3   1.452  -28.6  0.0808  -17.6  0.6683   95.1
 8.400  0.8759   77.9   1.389  -31.3  0.0809  -19.4  0.6770   92.5
 8.600  0.8790   75.5   1.327  -33.9  0.0807  -21.2  0.6837   89.8
 8.800  0.8812   73.1   1.267  -36.3  0.0802  -22.9  0.6887   87.1
 9.000  0.8850   70.8   1.209  -38.9  0.0799  -24.7  0.6952   84.4
 9.200  0.8894   68.8   1.151  -40.9  0.0790  -26.0  0.7029   82.1
 9.400  0.8949   66.9   1.095  -43.1  0.0782  -27.4  0.7116   79.9
 9.600  0.9015   65.3   1.047  -45.0  0.0774  -28.6  0.7244   78.1
 9.800  0.9087   64.2   1.006  -46.5  0.0768  -29.5  0.7406   76.7
10.000  0.9163   63.1   0.965  -48.1  0.0761  -30.5  0.7573   75.3
!
!  f       NFmin   Gammaopt  rn/50
! GHz       dB    MAG  ANG    -
 0.450      0.94  0.16 -166   0.41
 0.900      0.96  0.20 -161   0.20
 1.500      0.98  0.29 -157   0.08
 1.900      0.99  0.31 -152   0.07
 2.400      1.00  0.32 -145   0.08
 3.500      1.23  0.35 -131   0.09
!
! (c) 2016  Infineon Technologies AG, Munich
