! Infineon Technologies  Discrete & RF Semiconductors
! BFP720F
! VCE =  1.0 V,  IC =  13 mA
! Common Emitter S-Parameters:                            Jan 2016
# GHz  S  MA  R  50
!  f         S11            S21            S12            S22
! GHz     MAG   ANG      MAG   ANG      MAG   ANG      MAG   ANG
 0.010  0.7983   -0.6  27.894  179.4  0.0005  -42.0  0.9654    1.0
 0.015  0.8062   -1.2  28.250  178.4  0.0004   67.2  0.9770   -0.2
 0.020  0.8141   -1.8  28.614  177.5  0.0010   95.4  0.9891   -1.4
 0.025  0.8139   -2.3  28.656  177.3  0.0012   91.7  0.9891   -1.6
 0.030  0.8137   -2.8  28.699  177.1  0.0014   89.1  0.9891   -1.8
 0.035  0.8136   -3.3  28.742  176.9  0.0016   87.2  0.9891   -2.0
 0.040  0.8135   -3.9  28.785  176.8  0.0019   85.8  0.9892   -2.2
 0.045  0.8135   -4.4  28.829  176.6  0.0021   84.6  0.9892   -2.4
 0.050  0.8136   -4.9  28.873  176.4  0.0023   83.7  0.9893   -2.6
 0.055  0.8132   -5.4  28.878  176.0  0.0025   84.0  0.9892   -2.9
 0.060  0.8129   -5.8  28.883  175.7  0.0028   84.3  0.9891   -3.2
 0.065  0.8126   -6.3  28.890  175.3  0.0030   84.5  0.9890   -3.5
 0.070  0.8123   -6.7  28.898  175.0  0.0033   84.7  0.9890   -3.8
 0.075  0.8121   -7.2  28.907  174.6  0.0035   84.9  0.9890   -4.0
 0.080  0.8120   -7.7  28.918  174.2  0.0037   85.1  0.9890   -4.3
 0.085  0.8119   -8.1  28.929  173.9  0.0040   85.2  0.9890   -4.6
 0.090  0.8119   -8.6  28.941  173.5  0.0042   85.3  0.9891   -4.9
 0.095  0.8119   -9.0  28.955  173.2  0.0045   85.4  0.9892   -5.2
 0.100  0.8120   -9.5  28.970  172.8  0.0047   85.5  0.9893   -5.5
 0.105  0.8110  -10.0  28.911  172.5  0.0049   85.2  0.9886   -5.8
 0.110  0.8101  -10.4  28.854  172.1  0.0051   84.9  0.9879   -6.1
 0.115  0.8092  -10.9  28.797  171.8  0.0053   84.6  0.9873   -6.4
 0.120  0.8084  -11.4  28.741  171.5  0.0055   84.3  0.9867   -6.7
 0.125  0.8077  -11.8  28.686  171.1  0.0057   84.1  0.9861   -7.0
 0.130  0.8070  -12.3  28.633  170.8  0.0060   83.9  0.9856   -7.3
 0.135  0.8063  -12.8  28.580  170.4  0.0062   83.6  0.9850   -7.6
 0.140  0.8057  -13.3  28.528  170.1  0.0064   83.5  0.9845   -7.9
 0.145  0.8052  -13.7  28.478  169.7  0.0066   83.3  0.9840   -8.2
 0.150  0.8047  -14.2  28.428  169.4  0.0068   83.1  0.9836   -8.5
 0.155  0.8044  -14.6  28.398  169.1  0.0070   82.8  0.9827   -8.8
 0.160  0.8041  -15.1  28.368  168.8  0.0073   82.4  0.9818   -9.0
 0.165  0.8038  -15.5  28.340  168.5  0.0075   82.2  0.9810   -9.3
 0.170  0.8037  -16.0  28.312  168.2  0.0077   81.9  0.9801   -9.6
 0.175  0.8035  -16.4  28.285  167.9  0.0079   81.6  0.9793   -9.8
 0.180  0.8034  -16.8  28.258  167.5  0.0082   81.4  0.9785  -10.1
 0.185  0.8034  -17.3  28.233  167.2  0.0084   81.1  0.9778  -10.4
 0.190  0.8034  -17.7  28.209  166.9  0.0086   80.9  0.9770  -10.7
 0.195  0.8034  -18.2  28.185  166.6  0.0089   80.7  0.9763  -10.9
 0.200  0.8035  -18.6  28.162  166.3  0.0091   80.5  0.9756  -11.2
 0.220  0.8006  -20.4  28.018  165.1  0.0100   79.5  0.9721  -12.3
 0.240  0.7985  -22.1  27.886  164.0  0.0109   78.7  0.9690  -13.4
 0.260  0.7969  -23.8  27.764  162.9  0.0117   77.8  0.9649  -14.5
 0.280  0.7957  -25.5  27.652  161.8  0.0126   76.9  0.9598  -15.6
 0.300  0.7951  -27.1  27.549  160.7  0.0135   76.1  0.9551  -16.7
 0.320  0.7914  -28.9  27.327  159.6  0.0143   75.1  0.9514  -17.7
 0.340  0.7885  -30.7  27.115  158.5  0.0152   74.3  0.9481  -18.8
 0.360  0.7854  -32.5  26.937  157.5  0.0160   73.4  0.9435  -19.8
 0.380  0.7820  -34.2  26.794  156.4  0.0168   72.5  0.9378  -20.9
 0.400  0.7794  -35.9  26.659  155.4  0.0176   71.6  0.9325  -22.0
 0.420  0.7781  -37.3  26.567  154.5  0.0184   70.8  0.9279  -23.0
 0.440  0.7773  -38.7  26.482  153.6  0.0192   70.0  0.9235  -23.9
 0.450  0.7771  -39.4  26.442  153.1  0.0196   69.7  0.9214  -24.4
 0.460  0.7746  -40.3  26.318  152.6  0.0200   69.2  0.9185  -24.9
 0.480  0.7703  -42.1  26.076  151.6  0.0207   68.4  0.9128  -26.0
 0.500  0.7667  -44.0  25.842  150.6  0.0215   67.6  0.9074  -27.0
 0.520  0.7632  -45.5  25.709  149.7  0.0222   66.6  0.9007  -28.0
 0.540  0.7602  -47.1  25.583  148.7  0.0230   65.8  0.8943  -29.0
 0.560  0.7578  -48.7  25.463  147.8  0.0237   64.9  0.8882  -30.0
 0.580  0.7560  -50.2  25.351  146.9  0.0245   64.1  0.8824  -31.0
 0.600  0.7547  -51.8  25.245  145.9  0.0252   63.4  0.8768  -32.0
 0.620  0.7504  -53.3  25.045  145.0  0.0258   62.5  0.8703  -32.9
 0.640  0.7467  -54.9  24.851  144.1  0.0265   61.7  0.8641  -33.8
 0.660  0.7436  -56.4  24.663  143.2  0.0271   60.9  0.8580  -34.7
 0.680  0.7409  -58.0  24.482  142.2  0.0278   60.2  0.8522  -35.7
 0.700  0.7389  -59.6  24.307  141.3  0.0284   59.5  0.8466  -36.6
 0.720  0.7355  -61.1  24.164  140.5  0.0290   58.7  0.8397  -37.5
 0.740  0.7326  -62.5  24.026  139.6  0.0295   58.0  0.8329  -38.4
 0.760  0.7301  -64.0  23.894  138.7  0.0301   57.3  0.8264  -39.3
 0.780  0.7282  -65.5  23.767  137.9  0.0307   56.6  0.8201  -40.2
 0.800  0.7267  -67.0  23.646  137.0  0.0313   56.0  0.8140  -41.1
 0.820  0.7230  -68.4  23.464  136.2  0.0318   55.3  0.8068  -41.9
 0.840  0.7198  -69.8  23.287  135.4  0.0324   54.5  0.7998  -42.7
 0.860  0.7170  -71.2  23.116  134.5  0.0329   53.8  0.7929  -43.6
 0.880  0.7146  -72.6  22.949  133.7  0.0335   53.2  0.7862  -44.4
 0.900  0.7127  -74.0  22.787  132.8  0.0340   52.5  0.7797  -45.3
 0.920  0.7091  -75.4  22.597  132.0  0.0345   51.8  0.7725  -46.1
 0.940  0.7060  -76.8  22.412  131.2  0.0349   51.2  0.7655  -46.9
 0.960  0.7032  -78.2  22.230  130.4  0.0354   50.5  0.7586  -47.8
 0.980  0.7009  -79.6  22.053  129.6  0.0358   49.9  0.7519  -48.6
 1.000  0.6990  -81.0  21.881  128.8  0.0363   49.3  0.7454  -49.5
 1.020  0.6958  -82.3  21.702  128.1  0.0367   48.7  0.7386  -50.2
 1.040  0.6928  -83.5  21.526  127.4  0.0371   48.1  0.7319  -51.0
 1.060  0.6903  -84.8  21.354  126.6  0.0375   47.5  0.7254  -51.7
 1.080  0.6881  -86.1  21.186  125.9  0.0380   46.9  0.7190  -52.5
 1.100  0.6862  -87.4  21.021  125.1  0.0384   46.3  0.7127  -53.3
 1.120  0.6833  -88.6  20.865  124.4  0.0387   45.7  0.7061  -54.0
 1.140  0.6807  -89.8  20.712  123.8  0.0391   45.2  0.6996  -54.7
 1.160  0.6784  -91.0  20.561  123.1  0.0394   44.7  0.6931  -55.5
 1.180  0.6764  -92.3  20.414  122.4  0.0398   44.1  0.6869  -56.2
 1.200  0.6747  -93.5  20.269  121.7  0.0401   43.6  0.6807  -57.0
 1.220  0.6720  -94.7  20.105  121.0  0.0404   43.1  0.6742  -57.7
 1.240  0.6695  -95.8  19.943  120.3  0.0407   42.5  0.6678  -58.4
 1.260  0.6674  -97.0  19.785  119.6  0.0410   42.0  0.6615  -59.1
 1.280  0.6655  -98.2  19.629  118.9  0.0414   41.5  0.6553  -59.9
 1.300  0.6639  -99.4  19.477  118.2  0.0417   41.0  0.6492  -60.6
 1.320  0.6617 -100.5  19.319  117.6  0.0420   40.5  0.6433  -61.2
 1.340  0.6597 -101.6  19.163  117.0  0.0422   40.0  0.6374  -61.9
 1.360  0.6579 -102.7  19.009  116.3  0.0425   39.5  0.6317  -62.5
 1.380  0.6564 -103.8  18.858  115.7  0.0427   39.1  0.6260  -63.2
 1.400  0.6551 -104.9  18.709  115.0  0.0430   38.6  0.6204  -63.9
 1.420  0.6527 -106.0  18.554  114.4  0.0432   38.2  0.6146  -64.5
 1.440  0.6506 -107.1  18.400  113.8  0.0435   37.7  0.6088  -65.2
 1.460  0.6487 -108.2  18.249  113.2  0.0437   37.3  0.6032  -65.8
 1.480  0.6471 -109.3  18.100  112.5  0.0440   36.9  0.5976  -66.5
 1.500  0.6457 -110.4  17.953  111.9  0.0442   36.5  0.5921  -67.2
 1.520  0.6440 -111.4  17.813  111.3  0.0444   36.1  0.5869  -67.8
 1.540  0.6425 -112.3  17.675  110.8  0.0446   35.7  0.5818  -68.4
 1.560  0.6411 -113.3  17.539  110.2  0.0448   35.3  0.5767  -69.0
 1.580  0.6400 -114.3  17.405  109.6  0.0450   34.9  0.5717  -69.6
 1.600  0.6390 -115.3  17.272  109.0  0.0452   34.5  0.5668  -70.2
 1.620  0.6373 -116.3  17.123  108.5  0.0454   34.1  0.5616  -70.8
 1.640  0.6357 -117.2  16.975  107.9  0.0456   33.7  0.5565  -71.4
 1.660  0.6344 -118.2  16.829  107.3  0.0457   33.4  0.5514  -72.0
 1.680  0.6332 -119.2  16.684  106.8  0.0459   33.0  0.5464  -72.6
 1.700  0.6322 -120.2  16.541  106.2  0.0461   32.6  0.5415  -73.2
 1.720  0.6310 -121.0  16.402  105.7  0.0462   32.3  0.5372  -73.7
 1.740  0.6299 -121.9  16.265  105.2  0.0464   31.9  0.5329  -74.3
 1.760  0.6289 -122.7  16.128  104.7  0.0465   31.6  0.5287  -74.9
 1.780  0.6281 -123.6  15.993  104.1  0.0467   31.2  0.5246  -75.4
 1.800  0.6274 -124.4  15.860  103.6  0.0468   30.9  0.5205  -76.0
 1.820  0.6261 -125.2  15.737  103.1  0.0469   30.6  0.5162  -76.5
 1.840  0.6250 -126.0  15.616  102.7  0.0470   30.3  0.5119  -77.0
 1.860  0.6239 -126.8  15.496  102.2  0.0472   29.9  0.5076  -77.5
 1.880  0.6230 -127.6  15.376  101.7  0.0473   29.6  0.5034  -78.1
 1.900  0.6222 -128.4  15.258  101.2  0.0474   29.3  0.4992  -78.6
 1.920  0.6215 -129.1  15.141  100.7  0.0475   29.0  0.4955  -79.1
 1.940  0.6209 -129.8  15.024  100.3  0.0476   28.7  0.4917  -79.5
 1.960  0.6204 -130.6  14.909   99.8  0.0478   28.5  0.4881  -80.0
 1.980  0.6200 -131.3  14.795   99.3  0.0479   28.2  0.4844  -80.5
 2.000  0.6197 -132.0  14.682   98.8  0.0480   27.9  0.4808  -81.0
 2.020  0.6190 -132.7  14.568   98.4  0.0481   27.6  0.4775  -81.4
 2.040  0.6183 -133.3  14.454   98.0  0.0482   27.4  0.4741  -81.9
 2.060  0.6177 -134.0  14.341   97.6  0.0482   27.1  0.4708  -82.3
 2.080  0.6172 -134.6  14.229   97.2  0.0483   26.8  0.4676  -82.8
 2.100  0.6168 -135.3  14.117   96.7  0.0484   26.6  0.4644  -83.3
 2.120  0.6165 -136.0  14.006   96.3  0.0485   26.3  0.4612  -83.7
 2.140  0.6162 -136.6  13.897   95.9  0.0485   26.1  0.4580  -84.2
 2.160  0.6161 -137.3  13.787   95.4  0.0486   25.8  0.4549  -84.7
 2.180  0.6160 -137.9  13.679   95.0  0.0487   25.6  0.4518  -85.2
 2.200  0.6160 -138.6  13.572   94.5  0.0488   25.3  0.4487  -85.7
 2.220  0.6156 -139.2  13.470   94.1  0.0489   25.1  0.4459  -86.1
 2.240  0.6152 -139.7  13.368   93.7  0.0489   24.9  0.4432  -86.5
 2.260  0.6149 -140.3  13.268   93.4  0.0490   24.6  0.4404  -86.9
 2.280  0.6146 -140.9  13.167   93.0  0.0490   24.4  0.4377  -87.3
 2.300  0.6144 -141.4  13.068   92.6  0.0491   24.2  0.4350  -87.7
 2.320  0.6142 -142.0  12.969   92.2  0.0492   24.0  0.4323  -88.2
 2.340  0.6142 -142.6  12.870   91.8  0.0492   23.8  0.4297  -88.6
 2.360  0.6142 -143.2  12.772   91.3  0.0493   23.5  0.4271  -89.0
 2.380  0.6142 -143.7  12.675   90.9  0.0493   23.3  0.4245  -89.5
 2.400  0.6143 -144.3  12.579   90.5  0.0494   23.1  0.4219  -89.9
 2.420  0.6140 -144.8  12.492   90.2  0.0494   22.9  0.4196  -90.2
 2.440  0.6137 -145.3  12.406   89.8  0.0495   22.7  0.4173  -90.6
 2.460  0.6135 -145.7  12.320   89.4  0.0495   22.6  0.4150  -90.9
 2.480  0.6133 -146.2  12.234   89.1  0.0496   22.4  0.4127  -91.3
 2.500  0.6132 -146.7  12.149   88.7  0.0496   22.2  0.4105  -91.6
 2.520  0.6131 -147.2  12.065   88.3  0.0496   22.0  0.4082  -92.0
 2.540  0.6131 -147.7  11.981   88.0  0.0497   21.8  0.4060  -92.3
 2.560  0.6131 -148.1  11.897   87.6  0.0497   21.7  0.4038  -92.7
 2.580  0.6131 -148.6  11.814   87.2  0.0498   21.5  0.4016  -93.0
 2.600  0.6132 -149.1  11.732   86.8  0.0498   21.3  0.3994  -93.4
 2.620  0.6129 -149.5  11.654   86.5  0.0498   21.2  0.3974  -93.7
 2.640  0.6126 -149.9  11.575   86.2  0.0499   21.1  0.3955  -94.0
 2.660  0.6123 -150.3  11.498   85.9  0.0499   20.9  0.3936  -94.2
 2.680  0.6121 -150.7  11.420   85.5  0.0500   20.8  0.3916  -94.5
 2.700  0.6118 -151.0  11.343   85.2  0.0500   20.7  0.3897  -94.8
 2.720  0.6117 -151.4  11.267   84.9  0.0500   20.6  0.3878  -95.1
 2.740  0.6115 -151.8  11.190   84.5  0.0501   20.5  0.3859  -95.4
 2.760  0.6114 -152.2  11.115   84.2  0.0501   20.3  0.3840  -95.7
 2.780  0.6113 -152.6  11.039   83.9  0.0502   20.2  0.3822  -96.0
 2.800  0.6112 -153.0  10.964   83.5  0.0502   20.1  0.3803  -96.3
 2.820  0.6113 -153.4  10.896   83.2  0.0502   20.0  0.3789  -96.6
 2.840  0.6114 -153.7  10.829   82.9  0.0503   19.9  0.3775  -96.9
 2.860  0.6115 -154.1  10.762   82.6  0.0503   19.7  0.3761  -97.1
 2.880  0.6117 -154.4  10.696   82.3  0.0504   19.6  0.3747  -97.4
 2.900  0.6118 -154.8  10.629   81.9  0.0504   19.5  0.3734  -97.7
 2.920  0.6121 -155.2  10.563   81.6  0.0505   19.4  0.3720  -98.0
 2.940  0.6123 -155.5  10.498   81.3  0.0505   19.3  0.3707  -98.3
 2.960  0.6125 -155.9  10.432   81.0  0.0506   19.1  0.3693  -98.6
 2.980  0.6128 -156.2  10.368   80.6  0.0506   19.0  0.3680  -98.9
 3.000  0.6131 -156.6  10.303   80.3  0.0507   18.9  0.3667  -99.2
 3.100  0.6124 -157.9  10.015   79.0  0.0509   18.4  0.3609 -100.1
 3.200  0.6121 -159.2   9.732   77.7  0.0511   17.9  0.3552 -101.1
 3.300  0.6121 -160.4   9.455   76.3  0.0513   17.4  0.3495 -102.0
 3.400  0.6123 -161.7   9.184   74.8  0.0515   16.9  0.3440 -103.1
 3.500  0.6129 -163.0   8.920   73.2  0.0517   16.4  0.3386 -104.1
 3.600  0.6122 -164.0   8.704   72.0  0.0519   16.1  0.3338 -104.7
 3.700  0.6118 -165.0   8.493   70.8  0.0521   15.7  0.3290 -105.4
 3.800  0.6115 -166.0   8.285   69.5  0.0523   15.4  0.3243 -106.1
 3.900  0.6114 -167.0   8.082   68.1  0.0525   15.0  0.3196 -106.8
 4.000  0.6115 -168.0   7.884   66.7  0.0527   14.7  0.3150 -107.5
 4.100  0.6063 -171.4   7.718   65.6  0.0530   14.4  0.3112 -108.1
 4.200  0.6032 -174.9   7.554   64.4  0.0532   14.1  0.3074 -108.7
 4.300  0.6024 -178.4   7.395   63.1  0.0535   13.8  0.3036 -109.3
 4.400  0.6038  178.2   7.238   61.8  0.0537   13.5  0.2999 -109.9
 4.500  0.6074  174.7   7.086   60.5  0.0540   13.2  0.2962 -110.5
 4.600  0.6067  173.4   6.952   59.4  0.0543   12.9  0.2927 -111.1
 4.700  0.6062  172.2   6.821   58.2  0.0546   12.6  0.2893 -111.8
 4.800  0.6060  170.9   6.692   57.0  0.0549   12.4  0.2859 -112.4
 4.900  0.6062  169.7   6.567   55.8  0.0552   12.1  0.2826 -113.1
 5.000  0.6066  168.4   6.445   54.5  0.0555   11.8  0.2793 -113.8
 5.100  0.6054  167.1   6.334   53.4  0.0558   11.5  0.2760 -114.5
 5.200  0.6045  165.8   6.226   52.2  0.0561   11.2  0.2728 -115.2
 5.300  0.6038  164.6   6.121   51.0  0.0565   11.0  0.2696 -116.0
 5.400  0.6035  163.3   6.018   49.7  0.0568   10.7  0.2665 -116.7
 5.500  0.6035  162.0   5.919   48.4  0.0571   10.4  0.2634 -117.5
 5.600  0.6022  160.7   5.827   47.2  0.0574   10.1  0.2614 -118.4
 5.700  0.6013  159.3   5.737   46.0  0.0578    9.7  0.2595 -119.2
 5.800  0.6007  158.0   5.650   44.8  0.0581    9.4  0.2577 -120.1
 5.900  0.6004  156.6   5.566   43.5  0.0585    9.0  0.2559 -121.0
 6.000  0.6005  155.3   5.484   42.2  0.0588    8.7  0.2542 -121.9
 6.100  0.5990  153.8   5.400   41.0  0.0591    8.3  0.2514 -123.2
 6.200  0.5979  152.2   5.318   39.7  0.0594    7.9  0.2488 -124.5
 6.300  0.5972  150.7   5.239   38.4  0.0598    7.5  0.2462 -125.8
 6.400  0.5970  149.1   5.163   37.1  0.0601    7.1  0.2438 -127.2
 6.500  0.5972  147.6   5.090   35.7  0.0604    6.7  0.2416 -128.6
 6.600  0.5956  145.9   5.010   34.5  0.0607    6.3  0.2378 -130.3
 6.800  0.5939  142.6   4.857   31.9  0.0612    5.5  0.2307 -133.8
 7.000  0.5942  139.2   4.714   29.1  0.0618    4.7  0.2246 -137.5
 7.200  0.5957  135.5   4.566   26.6  0.0623    3.8  0.2160 -142.5
 7.400  0.5998  131.8   4.427   24.0  0.0628    2.9  0.2092 -148.0
 7.600  0.6060  128.1   4.291   21.3  0.0632    2.0  0.2011 -156.8
 7.800  0.6144  124.5   4.158   18.6  0.0635    0.9  0.1972 -169.4
 8.000  0.6253  120.9   4.035   15.8  0.0639   -0.1  0.2030  178.1
 8.200  0.6374  117.2   3.886   13.2  0.0638   -1.2  0.2055  170.2
 8.400  0.6520  113.7   3.746   10.5  0.0637   -2.3  0.2117  162.7
 8.600  0.6662  110.5   3.602    7.9  0.0635   -3.1  0.2210  155.3
 8.800  0.6795  107.7   3.453    5.6  0.0632   -3.8  0.2335  148.3
 9.000  0.6944  105.0   3.310    3.1  0.0628   -4.5  0.2491  142.1
 9.200  0.7080  103.1   3.182    1.3  0.0626   -5.0  0.2668  137.1
 9.400  0.7222  101.4   3.057   -0.7  0.0624   -5.5  0.2864  132.7
 9.600  0.7368   99.9   2.941   -2.6  0.0622   -5.9  0.3072  129.1
 9.800  0.7514   98.7   2.832   -4.4  0.0619   -6.4  0.3287  126.2
10.000  0.7664   97.5   2.727   -6.3  0.0617   -6.8  0.3510  123.7
!
!  f       NFmin   Gammaopt  rn/50
! GHz       dB    MAG  ANG    -
 0.450      0.64  0.27    2   0.64
 0.900      0.67  0.23    8   0.14
 1.800      0.70  0.21   11   0.15
 2.400      0.72  0.18   18   0.13
 5.500      0.88  0.15   30   0.08
10.000      1.04  0.30  -88   0.19
!
! (c) 2016  Infineon Technologies AG, Munich
