! Infineon Technologies  Discrete & RF Semiconductors
! BFP720F
! VCE =  1.5 V,  IC =  20 mA
! Common Emitter S-Parameters:                            Jan 2016
# GHz  S  MA  R  50
!  f         S11            S21            S12            S22
! GHz     MAG   ANG      MAG   ANG      MAG   ANG      MAG   ANG
 0.010  0.6513   -1.4  32.805  179.1  0.0005  -20.9  0.9453    2.1
 0.015  0.6605   -1.9  33.345  178.2  0.0004   59.9  0.9615    0.5
 0.020  0.6698   -2.4  33.892  177.4  0.0009   93.2  0.9784   -1.1
 0.025  0.6695   -3.1  33.924  177.1  0.0011   90.6  0.9789   -1.3
 0.030  0.6692   -3.8  33.957  176.9  0.0012   88.8  0.9795   -1.6
 0.035  0.6691   -4.5  33.991  176.6  0.0014   87.4  0.9800   -1.8
 0.040  0.6691   -5.2  34.025  176.3  0.0016   86.2  0.9806   -2.0
 0.045  0.6691   -5.9  34.060  176.1  0.0017   85.3  0.9812   -2.3
 0.050  0.6693   -6.6  34.096  175.8  0.0019   84.6  0.9818   -2.5
 0.055  0.6689   -7.2  34.096  175.4  0.0021   84.2  0.9817   -2.8
 0.060  0.6687   -7.9  34.099  174.9  0.0023   83.9  0.9815   -3.2
 0.065  0.6685   -8.5  34.103  174.5  0.0024   83.7  0.9815   -3.5
 0.070  0.6683   -9.2  34.110  174.0  0.0026   83.5  0.9814   -3.8
 0.075  0.6683   -9.8  34.118  173.6  0.0028   83.3  0.9814   -4.1
 0.080  0.6684  -10.4  34.129  173.2  0.0030   83.1  0.9814   -4.5
 0.085  0.6685  -11.1  34.141  172.7  0.0032   83.0  0.9815   -4.8
 0.090  0.6687  -11.7  34.156  172.3  0.0033   82.8  0.9815   -5.1
 0.095  0.6690  -12.4  34.172  171.8  0.0035   82.7  0.9817   -5.5
 0.100  0.6694  -13.0  34.191  171.4  0.0037   82.6  0.9818   -5.8
 0.105  0.6684  -13.6  34.102  171.0  0.0039   82.4  0.9808   -6.1
 0.110  0.6675  -14.3  34.015  170.6  0.0041   82.2  0.9798   -6.4
 0.115  0.6666  -14.9  33.930  170.2  0.0043   82.0  0.9788   -6.8
 0.120  0.6659  -15.6  33.847  169.7  0.0045   81.9  0.9779   -7.1
 0.125  0.6652  -16.2  33.765  169.3  0.0047   81.8  0.9770   -7.4
 0.130  0.6647  -16.9  33.686  168.9  0.0049   81.6  0.9762   -7.7
 0.135  0.6642  -17.5  33.608  168.5  0.0051   81.5  0.9753   -8.0
 0.140  0.6638  -18.2  33.532  168.1  0.0053   81.4  0.9745   -8.4
 0.145  0.6634  -18.8  33.457  167.6  0.0055   81.3  0.9737   -8.7
 0.150  0.6632  -19.5  33.385  167.2  0.0057   81.2  0.9730   -9.0
 0.155  0.6630  -20.1  33.346  166.8  0.0059   80.9  0.9718   -9.3
 0.160  0.6628  -20.7  33.308  166.4  0.0061   80.7  0.9706   -9.6
 0.165  0.6627  -21.3  33.272  166.1  0.0062   80.4  0.9695   -9.9
 0.170  0.6627  -21.9  33.237  165.7  0.0064   80.2  0.9684  -10.2
 0.175  0.6628  -22.5  33.204  165.3  0.0066   79.9  0.9673  -10.4
 0.180  0.6629  -23.1  33.172  164.9  0.0068   79.7  0.9662  -10.7
 0.185  0.6631  -23.7  33.141  164.5  0.0070   79.5  0.9652  -11.0
 0.190  0.6634  -24.3  33.112  164.2  0.0071   79.4  0.9642  -11.3
 0.195  0.6638  -24.9  33.085  163.8  0.0073   79.2  0.9632  -11.6
 0.200  0.6642  -25.5  33.059  163.4  0.0075   79.0  0.9622  -11.9
 0.220  0.6617  -27.9  32.854  162.1  0.0082   77.8  0.9570  -13.0
 0.240  0.6603  -30.2  32.667  160.7  0.0089   76.8  0.9523  -14.1
 0.260  0.6598  -32.5  32.493  159.3  0.0095   75.7  0.9465  -15.3
 0.280  0.6601  -34.8  32.332  158.0  0.0102   74.6  0.9397  -16.4
 0.300  0.6615  -37.1  32.189  156.7  0.0109   73.7  0.9333  -17.5
 0.320  0.6582  -39.4  31.830  155.4  0.0116   72.8  0.9286  -18.6
 0.340  0.6559  -41.7  31.487  154.2  0.0123   72.1  0.9242  -19.7
 0.360  0.6540  -44.0  31.219  152.9  0.0129   71.1  0.9178  -20.8
 0.380  0.6522  -46.1  31.025  151.8  0.0136   69.9  0.9093  -21.9
 0.400  0.6514  -48.3  30.844  150.6  0.0142   68.8  0.9012  -23.0
 0.420  0.6517  -50.2  30.708  149.4  0.0148   68.0  0.8960  -23.9
 0.440  0.6526  -52.1  30.584  148.3  0.0153   67.3  0.8910  -24.8
 0.450  0.6534  -53.0  30.527  147.7  0.0156   66.9  0.8886  -25.3
 0.460  0.6515  -54.1  30.352  147.2  0.0159   66.4  0.8845  -25.8
 0.480  0.6483  -56.2  30.009  146.2  0.0166   65.5  0.8765  -26.8
 0.500  0.6460  -58.4  29.676  145.1  0.0172   64.7  0.8688  -27.8
 0.520  0.6437  -60.3  29.483  144.1  0.0177   63.7  0.8605  -28.7
 0.540  0.6422  -62.1  29.299  143.1  0.0182   62.8  0.8525  -29.7
 0.560  0.6413  -64.0  29.124  142.0  0.0187   61.9  0.8447  -30.6
 0.580  0.6411  -65.9  28.960  141.0  0.0193   61.1  0.8372  -31.6
 0.600  0.6416  -67.8  28.805  139.9  0.0198   60.3  0.8299  -32.6
 0.620  0.6386  -69.6  28.498  138.9  0.0203   59.5  0.8223  -33.4
 0.640  0.6362  -71.4  28.199  137.9  0.0207   58.7  0.8149  -34.3
 0.660  0.6345  -73.3  27.909  136.9  0.0212   57.9  0.8077  -35.1
 0.680  0.6335  -75.1  27.628  135.9  0.0217   57.2  0.8006  -36.0
 0.700  0.6331  -77.0  27.356  134.8  0.0222   56.5  0.7938  -36.9
 0.720  0.6317  -78.6  27.156  133.9  0.0226   55.8  0.7859  -37.6
 0.740  0.6309  -80.1  26.963  133.1  0.0230   55.1  0.7782  -38.4
 0.760  0.6304  -81.7  26.775  132.2  0.0233   54.4  0.7706  -39.2
 0.780  0.6305  -83.2  26.594  131.3  0.0237   53.7  0.7632  -40.0
 0.800  0.6310  -84.8  26.420  130.4  0.0241   53.1  0.7559  -40.8
 0.820  0.6291  -86.3  26.185  129.6  0.0245   52.4  0.7479  -41.5
 0.840  0.6276  -87.8  25.956  128.7  0.0248   51.7  0.7400  -42.2
 0.860  0.6265  -89.3  25.732  127.9  0.0252   51.1  0.7322  -43.0
 0.880  0.6259  -90.9  25.515  127.0  0.0255   50.4  0.7245  -43.7
 0.900  0.6257  -92.4  25.303  126.1  0.0259   49.8  0.7170  -44.5
 0.920  0.6236  -93.9  25.038  125.3  0.0262   49.2  0.7094  -45.2
 0.940  0.6219  -95.4  24.779  124.5  0.0265   48.6  0.7018  -45.9
 0.960  0.6206  -96.9  24.524  123.7  0.0269   48.0  0.6944  -46.6
 0.980  0.6197  -98.4  24.274  122.9  0.0272   47.4  0.6871  -47.3
 1.000  0.6193  -99.9  24.030  122.0  0.0275   46.8  0.6799  -48.1
 1.020  0.6175 -101.2  23.806  121.3  0.0278   46.3  0.6727  -48.7
 1.040  0.6160 -102.5  23.586  120.6  0.0280   45.7  0.6657  -49.3
 1.060  0.6149 -103.8  23.368  119.9  0.0283   45.2  0.6587  -49.9
 1.080  0.6140 -105.1  23.155  119.2  0.0285   44.7  0.6517  -50.6
 1.100  0.6135 -106.4  22.945  118.5  0.0288   44.2  0.6449  -51.2
 1.120  0.6123 -107.6  22.760  117.8  0.0290   43.7  0.6382  -51.8
 1.140  0.6113 -108.7  22.579  117.2  0.0292   43.2  0.6317  -52.4
 1.160  0.6106 -109.9  22.400  116.5  0.0294   42.7  0.6251  -53.0
 1.180  0.6101 -111.0  22.225  115.8  0.0296   42.3  0.6187  -53.6
 1.200  0.6099 -112.2  22.053  115.1  0.0298   41.8  0.6123  -54.2
 1.220  0.6088 -113.4  21.844  114.5  0.0300   41.3  0.6059  -54.7
 1.240  0.6079 -114.5  21.637  113.8  0.0302   40.9  0.5995  -55.2
 1.260  0.6073 -115.7  21.434  113.2  0.0304   40.5  0.5932  -55.8
 1.280  0.6069 -116.8  21.233  112.5  0.0306   40.0  0.5870  -56.3
 1.300  0.6068 -118.0  21.035  111.8  0.0308   39.6  0.5808  -56.9
 1.320  0.6060 -119.0  20.848  111.2  0.0310   39.2  0.5750  -57.4
 1.340  0.6055 -120.0  20.663  110.6  0.0311   38.8  0.5692  -57.9
 1.360  0.6051 -121.1  20.480  110.0  0.0313   38.4  0.5635  -58.4
 1.380  0.6049 -122.1  20.300  109.4  0.0314   38.1  0.5578  -58.9
 1.400  0.6049 -123.1  20.122  108.8  0.0316   37.7  0.5522  -59.4
 1.420  0.6039 -124.1  19.941  108.2  0.0317   37.3  0.5466  -59.9
 1.440  0.6030 -125.1  19.762  107.7  0.0319   37.0  0.5410  -60.4
 1.460  0.6024 -126.1  19.586  107.1  0.0320   36.6  0.5355  -60.9
 1.480  0.6019 -127.1  19.411  106.5  0.0322   36.3  0.5300  -61.4
 1.500  0.6016 -128.1  19.238  105.9  0.0323   35.9  0.5246  -61.9
 1.520  0.6012 -128.9  19.081  105.4  0.0324   35.6  0.5198  -62.3
 1.540  0.6010 -129.7  18.925  104.9  0.0325   35.3  0.5150  -62.7
 1.560  0.6009 -130.6  18.770  104.4  0.0327   35.0  0.5102  -63.1
 1.580  0.6009 -131.4  18.617  103.8  0.0328   34.7  0.5054  -63.6
 1.600  0.6010 -132.2  18.466  103.3  0.0329   34.4  0.5007  -64.0
 1.620  0.6003 -133.1  18.294  102.8  0.0330   34.1  0.4959  -64.4
 1.640  0.5998 -134.0  18.124  102.3  0.0331   33.8  0.4911  -64.9
 1.660  0.5994 -134.8  17.955  101.8  0.0332   33.5  0.4864  -65.4
 1.680  0.5992 -135.7  17.787  101.2  0.0333   33.2  0.4817  -65.8
 1.700  0.5991 -136.6  17.621  100.7  0.0334   32.9  0.4770  -66.3
 1.720  0.5988 -137.4  17.466  100.3  0.0335   32.7  0.4731  -66.7
 1.740  0.5987 -138.1  17.312   99.8  0.0336   32.5  0.4693  -67.1
 1.760  0.5987 -138.9  17.160   99.3  0.0337   32.2  0.4655  -67.5
 1.780  0.5987 -139.6  17.008   98.9  0.0338   32.0  0.4617  -67.9
 1.800  0.5989 -140.4  16.858   98.4  0.0339   31.8  0.4579  -68.3
 1.820  0.5986 -141.1  16.726   98.0  0.0340   31.6  0.4540  -68.7
 1.840  0.5984 -141.7  16.595   97.5  0.0340   31.3  0.4502  -69.0
 1.860  0.5982 -142.4  16.465   97.0  0.0341   31.1  0.4463  -69.4
 1.880  0.5982 -143.0  16.337   96.6  0.0341   30.8  0.4425  -69.8
 1.900  0.5982 -143.7  16.209   96.1  0.0342   30.6  0.4387  -70.2
 1.920  0.5983 -144.3  16.077   95.7  0.0343   30.4  0.4354  -70.5
 1.940  0.5984 -144.9  15.945   95.2  0.0344   30.2  0.4321  -70.9
 1.960  0.5986 -145.6  15.815   94.8  0.0344   30.0  0.4288  -71.2
 1.980  0.5989 -146.2  15.686   94.4  0.0345   29.8  0.4255  -71.5
 2.000  0.5992 -146.8  15.557   93.9  0.0346   29.6  0.4223  -71.9
 2.020  0.5993 -147.4  15.432   93.5  0.0347   29.4  0.4194  -72.2
 2.040  0.5994 -147.9  15.307   93.2  0.0347   29.2  0.4165  -72.5
 2.060  0.5995 -148.5  15.183   92.8  0.0348   29.1  0.4136  -72.8
 2.080  0.5998 -149.0  15.059   92.4  0.0348   28.9  0.4107  -73.2
 2.100  0.6000 -149.6  14.936   92.0  0.0349   28.7  0.4078  -73.5
 2.120  0.6004 -150.2  14.814   91.6  0.0350   28.5  0.4050  -73.8
 2.140  0.6008 -150.7  14.693   91.2  0.0350   28.3  0.4021  -74.2
 2.160  0.6012 -151.3  14.572   90.8  0.0351   28.2  0.3993  -74.5
 2.180  0.6017 -151.8  14.452   90.4  0.0351   28.0  0.3965  -74.8
 2.200  0.6023 -152.4  14.333   90.0  0.0352   27.8  0.3937  -75.2
 2.220  0.6025 -152.9  14.221   89.7  0.0352   27.7  0.3914  -75.5
 2.240  0.6027 -153.4  14.109   89.3  0.0353   27.6  0.3891  -75.8
 2.260  0.6030 -153.8  13.998   89.0  0.0353   27.4  0.3868  -76.1
 2.280  0.6033 -154.3  13.887   88.6  0.0354   27.3  0.3845  -76.4
 2.300  0.6037 -154.8  13.777   88.2  0.0354   27.2  0.3822  -76.7
 2.320  0.6041 -155.3  13.667   87.9  0.0354   27.1  0.3800  -77.0
 2.340  0.6045 -155.8  13.558   87.5  0.0355   27.0  0.3777  -77.3
 2.360  0.6050 -156.2  13.450   87.1  0.0355   26.8  0.3755  -77.6
 2.380  0.6055 -156.7  13.342   86.7  0.0356   26.7  0.3732  -77.9
 2.400  0.6061 -157.2  13.235   86.3  0.0356   26.6  0.3710  -78.2
 2.420  0.6063 -157.6  13.144   86.0  0.0356   26.5  0.3690  -78.4
 2.440  0.6066 -158.0  13.054   85.6  0.0357   26.4  0.3671  -78.7
 2.460  0.6068 -158.3  12.964   85.3  0.0357   26.3  0.3651  -78.9
 2.480  0.6071 -158.7  12.875   85.0  0.0357   26.2  0.3632  -79.1
 2.500  0.6075 -159.1  12.786   84.6  0.0357   26.1  0.3612  -79.4
 2.520  0.6078 -159.5  12.698   84.3  0.0358   26.0  0.3593  -79.6
 2.540  0.6082 -159.9  12.610   83.9  0.0358   25.9  0.3574  -79.9
 2.560  0.6086 -160.2  12.522   83.5  0.0358   25.8  0.3554  -80.1
 2.580  0.6090 -160.6  12.435   83.2  0.0359   25.7  0.3535  -80.3
 2.600  0.6095 -161.0  12.349   82.8  0.0359   25.6  0.3516  -80.6
 2.620  0.6095 -161.3  12.265   82.5  0.0359   25.5  0.3500  -80.8
 2.640  0.6095 -161.6  12.181   82.2  0.0360   25.5  0.3485  -80.9
 2.660  0.6095 -161.9  12.098   81.9  0.0360   25.4  0.3469  -81.1
 2.680  0.6095 -162.2  12.014   81.6  0.0361   25.4  0.3454  -81.3
 2.700  0.6095 -162.6  11.932   81.3  0.0361   25.3  0.3438  -81.5
 2.720  0.6096 -162.9  11.849   81.0  0.0361   25.3  0.3423  -81.7
 2.740  0.6097 -163.2  11.767   80.7  0.0362   25.2  0.3407  -81.8
 2.760  0.6098 -163.5  11.685   80.4  0.0362   25.2  0.3392  -82.0
 2.780  0.6099 -163.8  11.604   80.0  0.0363   25.1  0.3376  -82.2
 2.800  0.6100 -164.1  11.523   79.7  0.0363   25.1  0.3361  -82.4
 2.820  0.6104 -164.4  11.451   79.4  0.0363   25.0  0.3351  -82.6
 2.840  0.6108 -164.7  11.380   79.1  0.0364   25.0  0.3340  -82.8
 2.860  0.6112 -165.0  11.309   78.8  0.0364   24.9  0.3330  -83.0
 2.880  0.6116 -165.3  11.238   78.5  0.0365   24.9  0.3320  -83.2
 2.900  0.6120 -165.6  11.168   78.2  0.0365   24.8  0.3309  -83.4
 2.920  0.6125 -165.8  11.098   77.9  0.0366   24.8  0.3299  -83.6
 2.940  0.6129 -166.1  11.028   77.6  0.0366   24.7  0.3289  -83.9
 2.960  0.6134 -166.4  10.958   77.3  0.0367   24.7  0.3279  -84.1
 2.980  0.6139 -166.7  10.889   77.0  0.0367   24.6  0.3269  -84.3
 3.000  0.6144 -167.0  10.820   76.7  0.0368   24.6  0.3259  -84.5
 3.100  0.6148 -168.0  10.515   75.5  0.0370   24.4  0.3218  -85.1
 3.200  0.6154 -169.0  10.215   74.3  0.0373   24.3  0.3178  -85.8
 3.300  0.6162 -169.9   9.921   72.9  0.0375   24.1  0.3138  -86.4
 3.400  0.6172 -170.9   9.632   71.5  0.0378   24.0  0.3099  -87.1
 3.500  0.6183 -171.9   9.349   70.0  0.0380   23.8  0.3060  -87.8
 3.600  0.6144 -174.8   9.120   68.9  0.0383   23.7  0.3029  -88.1
 3.700  0.6121 -177.6   8.895   67.7  0.0385   23.7  0.2999  -88.5
 3.800  0.6114  179.5   8.674   66.5  0.0388   23.6  0.2968  -88.9
 3.900  0.6121  176.6   8.457   65.2  0.0390   23.6  0.2938  -89.2
 4.000  0.6145  173.7   8.245   63.8  0.0393   23.5  0.2908  -89.6
 4.100  0.6142  172.5   8.069   62.7  0.0396   23.5  0.2884  -89.9
 4.200  0.6141  171.3   7.896   61.6  0.0399   23.5  0.2860  -90.3
 4.300  0.6143  170.1   7.727   60.4  0.0403   23.4  0.2836  -90.6
 4.400  0.6148  168.9   7.561   59.1  0.0406   23.4  0.2813  -90.9
 4.500  0.6155  167.7   7.399   57.8  0.0409   23.4  0.2789  -91.3
 4.600  0.6149  166.6   7.259   56.7  0.0413   23.3  0.2766  -91.7
 4.700  0.6146  165.4   7.121   55.6  0.0417   23.3  0.2743  -92.1
 4.800  0.6145  164.3   6.986   54.5  0.0421   23.2  0.2721  -92.5
 4.900  0.6147  163.1   6.854   53.3  0.0425   23.2  0.2698  -93.0
 5.000  0.6151  162.0   6.725   52.0  0.0429   23.1  0.2676  -93.4
 5.100  0.6140  160.8   6.609   50.9  0.0433   23.0  0.2653  -93.9
 5.200  0.6132  159.7   6.495   49.8  0.0437   22.9  0.2631  -94.4
 5.300  0.6126  158.5   6.384   48.6  0.0442   22.9  0.2609  -94.9
 5.400  0.6123  157.4   6.275   47.4  0.0446   22.8  0.2587  -95.4
 5.500  0.6122  156.2   6.170   46.1  0.0450   22.7  0.2565  -95.9
 5.600  0.6112  155.0   6.073   45.0  0.0455   22.5  0.2551  -96.6
 5.700  0.6105  153.7   5.979   43.8  0.0460   22.3  0.2537  -97.3
 5.800  0.6101  152.5   5.887   42.6  0.0464   22.1  0.2524  -98.0
 5.900  0.6099  151.2   5.798   41.3  0.0469   22.0  0.2511  -98.8
 6.000  0.6101  150.0   5.712   40.0  0.0474   21.8  0.2499  -99.5
 6.100  0.6088  148.6   5.624   38.8  0.0479   21.5  0.2477 -100.5
 6.200  0.6079  147.1   5.539   37.6  0.0483   21.3  0.2455 -101.5
 6.300  0.6073  145.7   5.457   36.3  0.0488   21.0  0.2435 -102.6
 6.400  0.6072  144.2   5.377   35.0  0.0492   20.8  0.2415 -103.6
 6.500  0.6074  142.8   5.300   33.7  0.0497   20.5  0.2396 -104.7
 6.600  0.6062  141.2   5.217   32.5  0.0502   20.2  0.2362 -106.0
 6.800  0.6052  138.1   5.057   29.9  0.0511   19.6  0.2297 -108.7
 7.000  0.6060  134.9   4.909   27.2  0.0520   19.0  0.2238 -111.6
 7.200  0.6083  131.4   4.755   24.8  0.0529   18.2  0.2140 -115.5
 7.400  0.6128  128.0   4.611   22.2  0.0538   17.5  0.2054 -119.8
 7.600  0.6194  124.6   4.471   19.6  0.0546   16.6  0.1961 -125.0
 7.800  0.6280  121.1   4.334   17.0  0.0554   15.7  0.1869 -131.2
 8.000  0.6388  117.8   4.207   14.3  0.0562   14.8  0.1801 -137.9
 8.200  0.6511  114.4   4.057   11.8  0.0567   13.8  0.1727 -148.0
 8.400  0.6656  111.2   3.916    9.0  0.0572   12.9  0.1709 -158.6
 8.600  0.6798  108.3   3.772    6.5  0.0575   12.0  0.1723 -170.3
 8.800  0.6932  105.7   3.622    4.3  0.0578   11.3  0.1786  177.3
 9.000  0.7080  103.2   3.479    1.8  0.0580   10.6  0.1926  166.2
 9.200  0.7220  101.5   3.349   -0.1  0.0583   10.0  0.2073  158.4
 9.400  0.7366   99.9   3.223   -2.1  0.0586    9.3  0.2252  151.8
 9.600  0.7515   98.5   3.105   -4.1  0.0589    8.7  0.2458  146.3
 9.800  0.7665   97.4   2.994   -6.0  0.0591    8.1  0.2682  141.9
10.000  0.7818   96.3   2.887   -8.0  0.0593    7.5  0.2920  138.1
!
!  f       NFmin   Gammaopt  rn/50
! GHz       dB    MAG  ANG    -
 0.450      0.86  0.16    0   0.43
 0.900      0.89  0.09   -6   0.15
 1.800      0.92  0.07  -52   0.15
 2.400      0.94  0.08  -58   0.15
 5.500      1.06  0.08  -60   0.14
10.000      1.24  0.38  -81   0.26
!
! (c) 2016  Infineon Technologies AG, Munich
