! Infineon Technologies  Discrete & RF Semiconductors
! BFP740FESD
! VCE =  3.0 V,  IC =  25 mA
! Common Emitter S-Parameters:                            Jan 2016
# GHz  S  MA  R  50
!  f         S11            S21            S12            S22
! GHz     MAG   ANG      MAG   ANG      MAG   ANG      MAG   ANG
 0.010  0.6945   -2.0  52.435  179.9  0.0007  124.7  0.9496    3.4
 0.015  0.6962   -2.6  52.466  178.7  0.0008  105.0  0.9642    1.2
 0.020  0.6979   -3.1  52.519  177.6  0.0010   91.3  0.9802   -1.0
 0.025  0.6969   -3.9  52.465  177.1  0.0012   90.4  0.9813   -1.5
 0.030  0.6961   -4.7  52.414  176.7  0.0014   89.7  0.9824   -2.0
 0.035  0.6954   -5.5  52.367  176.2  0.0016   89.2  0.9837   -2.5
 0.040  0.6949   -6.3  52.324  175.7  0.0018   88.9  0.9850   -3.0
 0.045  0.6945   -7.1  52.284  175.3  0.0020   88.5  0.9863   -3.5
 0.050  0.6942   -7.9  52.247  174.8  0.0022   88.3  0.9878   -4.0
 0.055  0.6936   -8.7  52.212  174.3  0.0024   87.2  0.9870   -4.5
 0.060  0.6931   -9.5  52.181  173.8  0.0026   86.3  0.9863   -5.0
 0.065  0.6927  -10.3  52.154  173.4  0.0028   85.5  0.9857   -5.5
 0.070  0.6925  -11.1  52.130  172.9  0.0030   84.8  0.9851   -6.0
 0.075  0.6925  -11.9  52.110  172.4  0.0032   84.2  0.9846   -6.5
 0.080  0.6925  -12.7  52.094  171.9  0.0035   83.7  0.9842   -7.0
 0.085  0.6927  -13.5  52.081  171.4  0.0037   83.2  0.9839   -7.5
 0.090  0.6930  -14.3  52.072  171.0  0.0039   82.8  0.9836   -8.0
 0.095  0.6935  -15.1  52.067  170.5  0.0041   82.4  0.9834   -8.5
 0.100  0.6941  -15.9  52.065  170.0  0.0043   82.1  0.9833   -9.0
 0.105  0.6929  -16.7  51.959  169.5  0.0045   81.6  0.9815   -9.5
 0.110  0.6917  -17.5  51.857  169.0  0.0047   81.2  0.9798   -9.9
 0.115  0.6908  -18.3  51.759  168.5  0.0050   80.8  0.9781  -10.4
 0.120  0.6899  -19.1  51.665  168.0  0.0052   80.4  0.9766  -10.9
 0.125  0.6892  -19.9  51.575  167.5  0.0054   80.1  0.9750  -11.4
 0.130  0.6886  -20.7  51.490  167.0  0.0056   79.8  0.9736  -11.9
 0.135  0.6882  -21.5  51.408  166.4  0.0058   79.5  0.9722  -12.3
 0.140  0.6879  -22.3  51.331  165.9  0.0061   79.3  0.9709  -12.8
 0.145  0.6877  -23.1  51.257  165.4  0.0063   79.0  0.9697  -13.3
 0.150  0.6877  -23.9  51.188  164.9  0.0065   78.8  0.9685  -13.8
 0.155  0.6865  -24.6  51.057  164.4  0.0067   78.4  0.9663  -14.2
 0.160  0.6854  -25.4  50.929  164.0  0.0069   78.0  0.9641  -14.7
 0.165  0.6844  -26.1  50.804  163.5  0.0070   77.7  0.9620  -15.1
 0.170  0.6835  -26.8  50.682  163.0  0.0072   77.3  0.9599  -15.5
 0.175  0.6827  -27.6  50.564  162.6  0.0074   77.0  0.9579  -16.0
 0.180  0.6821  -28.3  50.450  162.1  0.0076   76.7  0.9559  -16.4
 0.185  0.6815  -29.1  50.339  161.6  0.0078   76.4  0.9540  -16.9
 0.190  0.6811  -29.8  50.231  161.2  0.0079   76.1  0.9522  -17.3
 0.195  0.6808  -30.6  50.127  160.7  0.0081   75.9  0.9504  -17.8
 0.200  0.6806  -31.3  50.026  160.2  0.0083   75.6  0.9487  -18.2
 0.220  0.6756  -34.1  49.335  158.4  0.0091   74.1  0.9388  -19.9
 0.240  0.6723  -37.0  48.697  156.5  0.0099   72.9  0.9297  -21.5
 0.260  0.6688  -39.8  48.092  154.7  0.0106   71.6  0.9199  -23.2
 0.280  0.6651  -42.6  47.510  153.1  0.0113   70.3  0.9092  -24.7
 0.300  0.6630  -45.4  46.967  151.4  0.0120   69.2  0.8992  -26.3
 0.320  0.6586  -48.0  46.285  149.9  0.0126   68.1  0.8880  -27.8
 0.340  0.6555  -50.7  45.637  148.3  0.0133   67.2  0.8773  -29.2
 0.360  0.6524  -53.2  44.979  146.8  0.0139   66.1  0.8664  -30.7
 0.380  0.6492  -55.7  44.306  145.4  0.0145   65.0  0.8553  -32.1
 0.400  0.6472  -58.2  43.661  143.9  0.0151   64.0  0.8446  -33.5
 0.420  0.6436  -60.5  42.985  142.6  0.0157   62.9  0.8335  -34.8
 0.440  0.6410  -62.8  42.331  141.3  0.0162   62.0  0.8227  -36.0
 0.450  0.6401  -64.0  42.013  140.6  0.0165   61.5  0.8175  -36.7
 0.460  0.6381  -65.1  41.685  140.0  0.0168   61.1  0.8118  -37.3
 0.480  0.6349  -67.4  41.046  138.7  0.0173   60.2  0.8007  -38.5
 0.500  0.6327  -69.7  40.429  137.3  0.0178   59.4  0.7900  -39.8
 0.520  0.6292  -71.7  39.797  136.2  0.0183   58.5  0.7790  -40.9
 0.540  0.6266  -73.7  39.178  135.1  0.0187   57.6  0.7683  -41.9
 0.560  0.6247  -75.7  38.575  134.0  0.0192   56.8  0.7578  -43.1
 0.580  0.6235  -77.8  37.988  132.8  0.0196   56.0  0.7476  -44.2
 0.600  0.6232  -79.8  37.417  131.6  0.0201   55.3  0.7378  -45.4
 0.620  0.6205  -81.6  36.855  130.7  0.0205   54.6  0.7278  -46.4
 0.640  0.6184  -83.5  36.302  129.7  0.0209   53.9  0.7181  -47.4
 0.660  0.6169  -85.4  35.760  128.7  0.0213   53.2  0.7086  -48.4
 0.680  0.6161  -87.2  35.229  127.7  0.0217   52.5  0.6993  -49.5
 0.700  0.6160  -89.1  34.709  126.7  0.0221   51.9  0.6903  -50.6
 0.720  0.6140  -90.7  34.193  125.9  0.0224   51.3  0.6812  -51.5
 0.740  0.6125  -92.3  33.686  125.0  0.0228   50.6  0.6723  -52.4
 0.760  0.6114  -93.9  33.186  124.1  0.0231   50.0  0.6636  -53.3
 0.780  0.6109  -95.6  32.695  123.2  0.0235   49.5  0.6550  -54.2
 0.800  0.6108  -97.2  32.212  122.2  0.0238   48.9  0.6466  -55.2
 0.820  0.6097  -98.7  31.768  121.5  0.0241   48.3  0.6384  -56.0
 0.840  0.6090 -100.2  31.329  120.7  0.0244   47.8  0.6304  -56.9
 0.860  0.6087 -101.6  30.896  119.9  0.0246   47.2  0.6225  -57.8
 0.880  0.6088 -103.1  30.468  119.1  0.0249   46.7  0.6147  -58.7
 0.900  0.6093 -104.6  30.047  118.3  0.0252   46.2  0.6071  -59.6
 0.920  0.6082 -106.0  29.641  117.6  0.0254   45.7  0.5995  -60.4
 0.940  0.6074 -107.3  29.239  116.9  0.0257   45.2  0.5919  -61.2
 0.960  0.6070 -108.7  28.842  116.1  0.0259   44.7  0.5845  -62.1
 0.980  0.6069 -110.0  28.450  115.4  0.0262   44.3  0.5772  -62.9
 1.000  0.6072 -111.4  28.063  114.6  0.0264   43.8  0.5701  -63.8
 1.020  0.6067 -112.6  27.701  114.0  0.0266   43.4  0.5635  -64.5
 1.040  0.6065 -113.8  27.343  113.3  0.0268   43.0  0.5569  -65.2
 1.060  0.6065 -114.9  26.988  112.7  0.0271   42.6  0.5505  -66.0
 1.080  0.6068 -116.1  26.636  112.0  0.0273   42.2  0.5442  -66.7
 1.100  0.6074 -117.3  26.289  111.3  0.0275   41.8  0.5379  -67.5
 1.120  0.6070 -118.4  25.962  110.7  0.0277   41.4  0.5318  -68.2
 1.140  0.6068 -119.5  25.638  110.1  0.0279   41.0  0.5258  -69.0
 1.160  0.6068 -120.6  25.318  109.4  0.0281   40.6  0.5199  -69.8
 1.180  0.6070 -121.7  25.000  108.8  0.0283   40.3  0.5141  -70.6
 1.200  0.6075 -122.8  24.686  108.1  0.0285   39.9  0.5084  -71.4
 1.220  0.6075 -123.8  24.393  107.6  0.0286   39.6  0.5031  -72.0
 1.240  0.6076 -124.7  24.102  107.0  0.0288   39.3  0.4979  -72.7
 1.260  0.6079 -125.7  23.813  106.5  0.0289   38.9  0.4928  -73.3
 1.280  0.6084 -126.6  23.526  105.9  0.0291   38.6  0.4877  -74.0
 1.300  0.6091 -127.6  23.242  105.3  0.0292   38.3  0.4827  -74.7
 1.320  0.6088 -128.5  22.968  104.8  0.0293   38.0  0.4777  -75.4
 1.340  0.6086 -129.4  22.696  104.3  0.0295   37.7  0.4728  -76.0
 1.360  0.6085 -130.3  22.426  103.7  0.0296   37.5  0.4680  -76.7
 1.380  0.6086 -131.2  22.158  103.2  0.0298   37.2  0.4632  -77.4
 1.400  0.6089 -132.1  21.892  102.6  0.0299   36.9  0.4585  -78.1
 1.420  0.6089 -132.9  21.657  102.2  0.0300   36.7  0.4544  -78.7
 1.440  0.6091 -133.6  21.424  101.7  0.0301   36.5  0.4503  -79.3
 1.460  0.6094 -134.4  21.192  101.3  0.0303   36.2  0.4463  -79.9
 1.480  0.6097 -135.1  20.961  100.8  0.0304   36.0  0.4423  -80.5
 1.500  0.6102 -135.9  20.732  100.3  0.0305   35.8  0.4384  -81.1
 1.520  0.6105 -136.6  20.513   99.8  0.0306   35.6  0.4347  -81.7
 1.540  0.6109 -137.4  20.296   99.3  0.0307   35.3  0.4311  -82.3
 1.560  0.6114 -138.1  20.081   98.8  0.0308   35.1  0.4276  -82.9
 1.580  0.6120 -138.9  19.866   98.3  0.0309   34.8  0.4241  -83.6
 1.600  0.6127 -139.6  19.654   97.8  0.0310   34.6  0.4206  -84.2
 1.620  0.6124 -140.3  19.459   97.4  0.0311   34.4  0.4174  -84.7
 1.640  0.6121 -141.0  19.265   96.9  0.0312   34.2  0.4142  -85.3
 1.660  0.6120 -141.7  19.072   96.5  0.0313   34.1  0.4111  -85.9
 1.680  0.6120 -142.4  18.881   96.1  0.0314   33.9  0.4080  -86.4
 1.700  0.6120 -143.1  18.690   95.6  0.0315   33.7  0.4049  -87.0
 1.720  0.6121 -143.7  18.499   95.2  0.0316   33.6  0.4021  -87.5
 1.740  0.6123 -144.2  18.310   94.8  0.0317   33.4  0.3994  -88.0
 1.760  0.6126 -144.8  18.121   94.4  0.0318   33.3  0.3967  -88.5
 1.780  0.6129 -145.3  17.933   94.0  0.0319   33.1  0.3940  -89.1
 1.800  0.6133 -145.9  17.746   93.6  0.0320   33.0  0.3914  -89.6
 1.820  0.6135 -146.5  17.585   93.2  0.0321   32.8  0.3888  -90.2
 1.840  0.6138 -147.1  17.425   92.8  0.0322   32.7  0.3863  -90.7
 1.860  0.6142 -147.8  17.266   92.4  0.0322   32.5  0.3838  -91.3
 1.880  0.6146 -148.4  17.107   92.0  0.0323   32.4  0.3814  -91.9
 1.900  0.6151 -149.0  16.950   91.6  0.0324   32.2  0.3790  -92.5
 1.920  0.6148 -149.5  16.796   91.3  0.0325   32.1  0.3769  -92.9
 1.940  0.6146 -150.0  16.643   90.9  0.0326   32.0  0.3748  -93.4
 1.960  0.6144 -150.4  16.490   90.5  0.0326   32.0  0.3728  -93.8
 1.980  0.6142 -150.9  16.338   90.2  0.0327   31.9  0.3707  -94.3
 2.000  0.6141 -151.4  16.187   89.8  0.0328   31.8  0.3687  -94.7
 2.020  0.6140 -151.9  16.051   89.5  0.0329   31.7  0.3668  -95.2
 2.040  0.6140 -152.4  15.915   89.1  0.0329   31.6  0.3650  -95.7
 2.060  0.6140 -152.9  15.780   88.8  0.0330   31.5  0.3632  -96.1
 2.080  0.6140 -153.4  15.645   88.4  0.0331   31.4  0.3614  -96.6
 2.100  0.6141 -153.9  15.511   88.0  0.0331   31.2  0.3596  -97.1
 2.120  0.6143 -154.4  15.378   87.7  0.0332   31.1  0.3579  -97.6
 2.140  0.6144 -154.9  15.245   87.3  0.0333   31.0  0.3562  -98.1
 2.160  0.6147 -155.4  15.113   86.9  0.0334   30.9  0.3545  -98.7
 2.180  0.6150 -155.9  14.982   86.5  0.0334   30.8  0.3528  -99.2
 2.200  0.6153 -156.4  14.851   86.1  0.0335   30.7  0.3512  -99.7
 2.220  0.6152 -156.9  14.734   85.8  0.0336   30.6  0.3498 -100.1
 2.240  0.6151 -157.3  14.618   85.5  0.0336   30.5  0.3483 -100.6
 2.260  0.6151 -157.8  14.501   85.2  0.0337   30.4  0.3469 -101.0
 2.280  0.6151 -158.2  14.386   84.8  0.0337   30.3  0.3456 -101.5
 2.300  0.6152 -158.7  14.271   84.5  0.0338   30.2  0.3442 -102.0
 2.320  0.6153 -159.1  14.156   84.2  0.0339   30.2  0.3429 -102.4
 2.340  0.6154 -159.6  14.042   83.8  0.0339   30.1  0.3416 -102.9
 2.360  0.6156 -160.0  13.928   83.5  0.0340   30.0  0.3403 -103.4
 2.380  0.6158 -160.5  13.815   83.2  0.0340   29.9  0.3390 -103.8
 2.400  0.6160 -160.9  13.702   82.8  0.0341   29.8  0.3378 -104.3
 2.420  0.6161 -161.3  13.600   82.5  0.0341   29.7  0.3368 -104.7
 2.440  0.6163 -161.8  13.498   82.2  0.0342   29.7  0.3357 -105.2
 2.460  0.6164 -162.2  13.396   81.9  0.0342   29.6  0.3347 -105.6
 2.480  0.6167 -162.6  13.295   81.6  0.0343   29.6  0.3338 -106.1
 2.500  0.6169 -163.1  13.194   81.3  0.0343   29.5  0.3328 -106.5
 2.520  0.6172 -163.5  13.094   80.9  0.0344   29.4  0.3319 -107.0
 2.540  0.6175 -163.9  12.994   80.6  0.0344   29.4  0.3309 -107.4
 2.560  0.6179 -164.3  12.895   80.3  0.0345   29.3  0.3300 -107.9
 2.580  0.6183 -164.8  12.796   79.9  0.0345   29.3  0.3292 -108.3
 2.600  0.6187 -165.2  12.697   79.6  0.0346   29.2  0.3283 -108.8
 2.620  0.6187 -165.6  12.607   79.3  0.0346   29.2  0.3276 -109.2
 2.640  0.6186 -165.9  12.517   79.1  0.0347   29.1  0.3270 -109.6
 2.660  0.6186 -166.3  12.427   78.8  0.0347   29.1  0.3263 -110.0
 2.680  0.6186 -166.6  12.338   78.5  0.0348   29.1  0.3257 -110.4
 2.700  0.6187 -167.0  12.248   78.3  0.0348   29.0  0.3251 -110.8
 2.720  0.6188 -167.4  12.159   78.0  0.0349   29.0  0.3244 -111.2
 2.740  0.6189 -167.7  12.071   77.7  0.0349   29.0  0.3239 -111.6
 2.760  0.6190 -168.1  11.983   77.4  0.0350   29.0  0.3233 -112.0
 2.780  0.6191 -168.4  11.895   77.1  0.0350   28.9  0.3227 -112.4
 2.800  0.6193 -168.8  11.807   76.8  0.0351   28.9  0.3222 -112.8
 2.820  0.6195 -169.1  11.729   76.5  0.0351   28.9  0.3218 -113.1
 2.840  0.6197 -169.4  11.652   76.3  0.0352   28.9  0.3214 -113.4
 2.860  0.6200 -169.7  11.574   76.0  0.0352   28.8  0.3211 -113.8
 2.880  0.6202 -170.0  11.497   75.7  0.0353   28.8  0.3207 -114.1
 2.900  0.6205 -170.3  11.421   75.4  0.0353   28.8  0.3204 -114.4
 2.920  0.6208 -170.6  11.344   75.2  0.0354   28.8  0.3200 -114.7
 2.940  0.6211 -170.9  11.268   74.9  0.0354   28.8  0.3197 -115.0
 2.960  0.6214 -171.2  11.192   74.6  0.0355   28.7  0.3194 -115.4
 2.980  0.6217 -171.5  11.116   74.3  0.0355   28.7  0.3191 -115.7
 3.000  0.6221 -171.8  11.041   74.0  0.0356   28.7  0.3188 -116.0
 3.100  0.6224 -173.2  10.727   72.9  0.0359   28.7  0.3177 -117.2
 3.200  0.6231 -174.6  10.418   71.7  0.0361   28.8  0.3168 -118.5
 3.300  0.6241 -176.0  10.113   70.5  0.0364   28.8  0.3161 -119.7
 3.400  0.6255 -177.3   9.813   69.2  0.0366   28.9  0.3155 -120.9
 3.500  0.6273 -178.7   9.518   67.8  0.0369   28.9  0.3150 -122.2
 3.600  0.6279 -179.9   9.288   66.7  0.0372   29.0  0.3141 -123.1
 3.700  0.6289  178.8   9.062   65.5  0.0376   29.1  0.3133 -124.1
 3.800  0.6301  177.6   8.840   64.3  0.0379   29.1  0.3125 -125.0
 3.900  0.6317  176.3   8.622   63.0  0.0383   29.2  0.3119 -126.0
 4.000  0.6335  175.1   8.409   61.7  0.0386   29.3  0.3113 -126.9
 4.100  0.6350  174.0   8.218   60.6  0.0390   29.3  0.3105 -128.1
 4.200  0.6366  172.8   8.031   59.4  0.0394   29.3  0.3099 -129.3
 4.300  0.6386  171.7   7.848   58.2  0.0397   29.3  0.3094 -130.5
 4.400  0.6408  170.6   7.668   56.9  0.0401   29.3  0.3090 -131.7
 4.500  0.6432  169.5   7.492   55.5  0.0405   29.3  0.3088 -132.9
 4.600  0.6442  168.5   7.328   54.4  0.0408   29.3  0.3082 -134.0
 4.700  0.6453  167.6   7.166   53.3  0.0412   29.3  0.3078 -135.1
 4.800  0.6467  166.6   7.007   52.2  0.0415   29.4  0.3075 -136.3
 4.900  0.6482  165.7   6.852   51.0  0.0419   29.4  0.3073 -137.4
 5.000  0.6499  164.7   6.699   49.7  0.0422   29.4  0.3072 -138.5
 5.100  0.6495  163.8   6.569   48.7  0.0426   29.4  0.3065 -139.5
 5.200  0.6492  162.9   6.441   47.7  0.0429   29.4  0.3058 -140.4
 5.300  0.6492  161.9   6.315   46.6  0.0433   29.5  0.3053 -141.4
 5.400  0.6492  161.0   6.191   45.5  0.0436   29.5  0.3048 -142.4
 5.500  0.6495  160.1   6.070   44.3  0.0440   29.5  0.3044 -143.4
 5.600  0.6494  159.0   5.969   43.2  0.0444   29.4  0.3033 -144.7
 5.700  0.6495  157.9   5.871   42.1  0.0448   29.3  0.3023 -145.9
 5.800  0.6498  156.8   5.774   40.9  0.0453   29.3  0.3015 -147.2
 5.900  0.6504  155.7   5.680   39.7  0.0457   29.2  0.3008 -148.5
 6.000  0.6512  154.6   5.589   38.5  0.0461   29.1  0.3003 -149.8
 6.100  0.6514  153.4   5.495   37.4  0.0464   29.0  0.2993 -151.3
 6.200  0.6519  152.2   5.403   36.3  0.0468   29.0  0.2985 -152.8
 6.300  0.6527  151.1   5.313   35.1  0.0471   28.9  0.2979 -154.3
 6.400  0.6538  149.9   5.226   33.9  0.0475   28.9  0.2975 -155.8
 6.500  0.6551  148.7   5.141   32.6  0.0478   28.8  0.2973 -157.3
 6.600  0.6560  147.6   5.053   31.5  0.0481   29.0  0.2948 -158.6
 6.800  0.6584  145.5   4.883   29.3  0.0488   29.3  0.2904 -161.3
 7.000  0.6617  143.4   4.721   26.9  0.0494   29.7  0.2866 -164.0
 7.200  0.6642  141.6   4.567   24.9  0.0507   30.3  0.2803 -166.9
 7.400  0.6673  139.8   4.419   22.7  0.0520   30.9  0.2748 -169.9
 7.600  0.6736  138.0   4.284   20.5  0.0536   31.0  0.2723 -173.7
 7.800  0.6829  136.3   4.162   18.2  0.0556   30.6  0.2736 -178.2
 8.000  0.6929  134.6   4.047   15.7  0.0576   30.2  0.2765  177.4
 8.200  0.6991  132.9   3.911   13.4  0.0591   28.9  0.2843  172.1
 8.400  0.7058  131.3   3.781   10.9  0.0605   27.7  0.2944  167.1
 8.600  0.7104  129.8   3.651    8.6  0.0616   26.5  0.3050  162.0
 8.800  0.7126  128.4   3.520    6.4  0.0623   25.3  0.3162  156.9
 9.000  0.7153  127.0   3.394    4.1  0.0630   24.2  0.3297  152.2
 9.200  0.7202  125.8   3.280    2.6  0.0636   23.3  0.3458  147.8
 9.400  0.7255  124.7   3.168    1.0  0.0642   22.4  0.3638  143.8
 9.600  0.7348  123.2   3.067   -0.8  0.0647   21.6  0.3860  140.2
 9.800  0.7485  121.5   2.977   -2.9  0.0651   20.9  0.4120  137.0
10.000  0.7628  119.9   2.891   -5.2  0.0655   20.2  0.4392  134.3
!
!  f       NFmin   Gammaopt  rn/50
! GHz       dB    MAG  ANG    -
 0.450      0.89  0.09 -166   0.08
 2.400      0.91  0.13 -166   0.09
 5.500      1.07  0.18 -165   0.08
10.000      1.57  0.39 -118   0.19
!
! (c) 2016  Infineon Technologies AG, Munich
