! Infineon Technologies  Discrete & RF Semiconductors
! BFP780
! VCE =  2.0 V,  IC =  52 mA
! Common Emitter S-Parameters:                            Jul 2015
# GHz  S  MA  R  50
!  f         S11            S21            S12            S22
! GHz     MAG   ANG      MAG   ANG      MAG   ANG      MAG   ANG
 0.030  0.5317  -37.7  73.904  164.9  0.0069   80.0  0.9691  -22.2
 0.040  0.5471  -48.9  72.073  160.1  0.0085   69.6  0.9517  -29.7
 0.050  0.5626  -59.1  70.079  155.3  0.0108   60.6  0.9375  -36.8
 0.060  0.5813  -68.0  67.806  151.2  0.0115   59.1  0.9060  -43.0
 0.070  0.5980  -75.8  65.329  147.1  0.0134   62.1  0.8892  -49.2
 0.080  0.6163  -83.6  62.816  143.4  0.0159   56.2  0.8659  -55.2
 0.090  0.6310  -90.3  60.174  139.9  0.0163   52.2  0.8408  -60.7
 0.100  0.6466  -96.4  57.664  136.8  0.0182   51.3  0.8180  -66.0
 0.110  0.6608 -101.8  55.203  133.8  0.0178   48.2  0.7994  -71.1
 0.120  0.6725 -106.8  52.873  131.1  0.0197   45.6  0.7782  -75.6
 0.130  0.6847 -111.2  50.682  128.6  0.0200   43.1  0.7581  -79.9
 0.140  0.6939 -115.3  48.516  126.3  0.0211   42.5  0.7391  -84.1
 0.150  0.7027 -118.9  46.560  124.2  0.0218   38.8  0.7250  -87.8
 0.200  0.7361 -133.0  38.162  115.6  0.0234   33.7  0.6605 -103.8
 0.250  0.7536 -142.7  32.059  109.3  0.0248   29.9  0.6208 -115.9
 0.300  0.7651 -150.0  27.394  104.5  0.0258   26.6  0.5914 -125.5
 0.350  0.7734 -155.5  23.869  100.6  0.0264   24.0  0.5721 -133.0
 0.400  0.7790 -159.8  21.106   97.4  0.0270   23.1  0.5589 -139.1
 0.450  0.7823 -163.3  18.903   94.6  0.0273   21.7  0.5496 -144.1
 0.500  0.7848 -166.5  17.093   92.2  0.0274   20.9  0.5410 -148.6
 0.600  0.7899 -171.4  14.329   88.0  0.0281   19.7  0.5329 -155.6
 0.700  0.7903 -175.5  12.303   84.4  0.0288   19.5  0.5257 -161.1
 0.800  0.7946 -178.8  10.784   81.3  0.0294   19.3  0.5244 -165.5
 0.900  0.7956  178.1   9.588   78.3  0.0299   19.2  0.5221 -169.3
 1.000  0.7989  175.4   8.632   75.5  0.0304   19.6  0.5248 -172.5
 1.100  0.7981  172.9   7.829   72.8  0.0309   19.7  0.5247 -175.5
 1.200  0.8027  170.7   7.183   70.3  0.0317   19.8  0.5283 -177.9
 1.300  0.8020  168.5   6.617   67.8  0.0321   19.8  0.5294  179.7
 1.400  0.8045  166.5   6.136   65.3  0.0327   20.4  0.5334  177.6
 1.500  0.8042  164.6   5.715   63.1  0.0334   20.1  0.5355  175.5
 1.600  0.8076  162.6   5.352   60.6  0.0339   20.4  0.5403  173.6
 1.700  0.8072  160.7   5.024   58.3  0.0347   20.8  0.5437  171.7
 1.800  0.8080  159.0   4.726   55.9  0.0351   20.4  0.5482  170.0
 1.900  0.8088  157.3   4.462   53.8  0.0358   20.4  0.5527  168.3
 2.000  0.8122  155.6   4.237   51.5  0.0367   20.4  0.5573  166.7
 2.100  0.8123  154.0   4.012   49.3  0.0369   20.5  0.5555  165.5
 2.200  0.8116  152.3   3.809   47.0  0.0374   20.0  0.5589  163.9
 2.300  0.8130  150.8   3.633   45.0  0.0379   20.1  0.5614  162.3
 2.400  0.8159  149.1   3.474   42.7  0.0386   20.1  0.5654  160.8
 2.500  0.8166  147.5   3.321   40.5  0.0393   20.1  0.5691  159.1
 2.600  0.8167  145.8   3.171   38.3  0.0399   19.9  0.5724  157.5
 2.700  0.8166  144.3   3.036   36.2  0.0405   19.6  0.5760  156.0
 2.800  0.8185  142.7   2.912   34.1  0.0410   19.5  0.5803  154.5
 2.900  0.8195  141.1   2.794   31.9  0.0416   19.3  0.5855  153.0
 3.000  0.8209  139.6   2.683   29.8  0.0421   19.2  0.5900  151.5
 3.100  0.8217  138.1   2.577   27.8  0.0429   19.0  0.5947  150.0
 3.200  0.8225  136.7   2.478   25.7  0.0432   18.9  0.5994  148.6
 3.300  0.8230  135.2   2.384   23.7  0.0441   18.5  0.6048  147.3
 3.400  0.8245  133.7   2.296   21.7  0.0446   18.3  0.6095  145.9
 3.500  0.8257  132.4   2.215   19.9  0.0452   18.2  0.6146  144.7
 3.600  0.8264  130.9   2.133   17.9  0.0458   17.7  0.6196  143.3
 3.700  0.8281  129.6   2.062   16.0  0.0465   17.6  0.6243  142.1
 3.800  0.8284  128.1   1.986   14.1  0.0469   17.4  0.6295  140.7
 3.900  0.8304  126.9   1.922   12.3  0.0475   16.8  0.6342  139.6
 4.000  0.8320  125.5   1.858   10.5  0.0481   16.7  0.6396  138.4
 4.100  0.8337  124.2   1.799    8.7  0.0489   16.3  0.6445  137.3
 4.200  0.8358  123.0   1.741    6.9  0.0494   16.2  0.6501  136.1
 4.300  0.8370  121.7   1.688    5.1  0.0501   15.7  0.6550  135.1
 4.400  0.8394  120.6   1.635    3.4  0.0507   15.5  0.6602  134.0
 4.500  0.8411  119.4   1.588    1.6  0.0513   15.2  0.6649  133.0
 4.600  0.8435  118.3   1.539   -0.1  0.0520   14.7  0.6697  131.9
 4.700  0.8442  117.1   1.494   -1.9  0.0525   14.5  0.6738  130.8
 4.800  0.8463  116.1   1.451   -3.5  0.0530   14.1  0.6786  129.8
 4.900  0.8476  115.2   1.410   -5.1  0.0537   13.6  0.6819  128.7
 5.000  0.8491  114.0   1.370   -6.8  0.0545   13.2  0.6864  127.7
 5.100  0.8509  113.2   1.334   -8.5  0.0550   13.0  0.6896  126.6
 5.200  0.8514  112.1   1.297  -10.1  0.0559   12.3  0.6938  125.6
 5.300  0.8522  111.2   1.261  -11.8  0.0563   11.9  0.6967  124.5
 5.400  0.8532  110.3   1.229  -13.4  0.0570   11.6  0.7005  123.5
 5.500  0.8529  109.5   1.195  -14.9  0.0576   11.2  0.7026  122.4
 5.600  0.8534  108.7   1.165  -16.4  0.0584   10.7  0.7062  121.3
 5.700  0.8525  107.8   1.137  -18.0  0.0592   10.2  0.7091  120.3
 5.800  0.8532  107.0   1.108  -19.5  0.0599    9.8  0.7124  119.2
 5.900  0.8521  106.2   1.082  -21.0  0.0607    9.4  0.7155  118.1
 6.000  0.8525  105.2   1.056  -22.6  0.0615    8.5  0.7190  116.9
!
!  f       NFmin   Gammaopt  rn/50
! GHz       dB    MAG  ANG    -
!
! noise parameter not available yet for this operation point!
!
! (c) 2015  Infineon Technologies AG, Munich
