! Infineon Technologies  Discrete & RF Semiconductors
! BFP760
! VCE =  1.5 V,  IC =  28 mA
! Common Emitter S-Parameters:                            Nov 2012
# GHz  S  MA  R  50
!  f         S11            S21            S12            S22
! GHz     MAG   ANG      MAG   ANG      MAG   ANG      MAG   ANG
 0.030  0.7170   -8.7  61.135  174.9  0.0026   97.4  0.9793   -5.1
 0.040  0.7179  -11.6  61.153  173.2  0.0034   82.9  0.9807   -7.1
 0.050  0.7144  -14.4  61.528  170.6  0.0041   82.0  0.9781   -9.1
 0.060  0.7141  -17.3  61.156  168.9  0.0056   78.1  0.9759  -11.1
 0.070  0.7115  -20.0  60.884  167.1  0.0060   81.5  0.9706  -12.9
 0.080  0.7077  -22.7  60.361  165.4  0.0068   76.8  0.9645  -14.8
 0.090  0.7065  -25.4  59.832  163.6  0.0071   83.6  0.9607  -16.7
 0.100  0.7012  -28.1  59.231  161.9  0.0081   77.3  0.9518  -18.5
 0.110  0.6979  -30.8  58.572  160.3  0.0088   78.6  0.9441  -20.4
 0.120  0.6953  -33.5  57.952  158.7  0.0092   74.2  0.9365  -22.1
 0.130  0.6908  -36.0  57.306  157.1  0.0100   73.0  0.9278  -23.8
 0.140  0.6879  -38.4  56.662  155.7  0.0107   71.4  0.9177  -25.5
 0.150  0.6834  -40.9  56.116  154.1  0.0115   73.4  0.9083  -27.1
 0.200  0.6676  -52.4  52.569  147.4  0.0145   66.6  0.8596  -34.8
 0.250  0.6520  -62.6  49.210  141.6  0.0172   63.7  0.8101  -41.6
 0.300  0.6382  -71.9  45.847  136.4  0.0196   59.1  0.7645  -47.8
 0.350  0.6286  -80.4  42.693  132.0  0.0217   56.6  0.7213  -53.4
 0.400  0.6213  -88.1  40.003  128.1  0.0233   53.6  0.6806  -58.5
 0.450  0.6179  -94.6  37.448  124.6  0.0252   51.1  0.6472  -63.2
 0.500  0.6138 -101.0  35.185  121.5  0.0265   49.0  0.6141  -67.8
 0.600  0.6117 -111.8  31.300  116.1  0.0291   45.9  0.5593  -76.0
 0.700  0.6123 -120.9  28.100  111.5  0.0312   42.7  0.5148  -83.5
 0.800  0.6155 -128.7  25.434  107.5  0.0330   40.4  0.4780  -90.3
 0.900  0.6180 -135.4  23.206  103.9  0.0344   38.3  0.4468  -96.9
 1.000  0.6216 -141.3  21.303  100.7  0.0356   36.8  0.4221 -102.7
 1.100  0.6244 -146.6  19.658   97.8  0.0367   35.5  0.4007 -108.4
 1.200  0.6286 -151.2  18.252   95.2  0.0376   34.4  0.3844 -113.5
 1.300  0.6316 -155.4  17.013   92.7  0.0385   33.6  0.3696 -118.6
 1.400  0.6357 -159.2  15.926   90.3  0.0393   32.8  0.3589 -123.0
 1.500  0.6390 -162.8  14.969   88.1  0.0401   32.2  0.3486 -127.5
 1.600  0.6434 -165.9  14.128   86.0  0.0409   31.7  0.3420 -131.6
 1.700  0.6472 -169.0  13.357   84.0  0.0416   31.1  0.3344 -135.6
 1.800  0.6513 -171.8  12.666   82.0  0.0424   30.7  0.3309 -139.5
 1.900  0.6549 -174.6  12.035   80.1  0.0430   30.3  0.3263 -143.2
 2.000  0.6589 -177.1  11.470   78.2  0.0436   30.0  0.3245 -146.7
 2.100  0.6614 -179.5  10.906   76.4  0.0443   29.8  0.3223 -149.9
 2.200  0.6638  178.3  10.412   74.6  0.0449   29.6  0.3205 -153.0
 2.300  0.6667  176.1   9.967   73.0  0.0456   29.2  0.3187 -156.1
 2.400  0.6698  174.0   9.557   71.3  0.0462   29.1  0.3182 -159.0
 2.500  0.6728  171.9   9.172   69.6  0.0466   28.9  0.3176 -161.9
 2.600  0.6754  169.9   8.809   68.0  0.0473   28.6  0.3177 -164.8
 2.700  0.6780  168.0   8.473   66.4  0.0478   28.5  0.3181 -167.6
 2.800  0.6810  166.2   8.156   64.9  0.0486   28.3  0.3194 -170.2
 2.900  0.6841  164.4   7.857   63.3  0.0491   28.1  0.3212 -172.8
 3.000  0.6872  162.6   7.582   61.7  0.0498   27.9  0.3240 -175.4
 3.100  0.6905  160.9   7.315   60.3  0.0503   27.8  0.3269 -177.7
 3.200  0.6938  159.2   7.069   58.8  0.0509   27.5  0.3296 -179.8
 3.300  0.6970  157.5   6.830   57.4  0.0515   27.3  0.3331  177.9
 3.400  0.7003  155.9   6.604   55.9  0.0521   27.2  0.3370  175.9
 3.500  0.7038  154.4   6.393   54.6  0.0527   27.0  0.3406  173.9
 3.600  0.7072  152.8   6.190   53.1  0.0533   26.8  0.3450  172.0
 3.700  0.7106  151.3   5.997   51.8  0.0538   26.7  0.3493  170.1
 3.800  0.7134  149.9   5.805   50.4  0.0543   26.5  0.3543  168.3
 3.900  0.7168  148.5   5.633   49.1  0.0549   26.3  0.3587  166.7
 4.000  0.7198  147.2   5.462   47.9  0.0554   26.1  0.3637  165.2
 4.100  0.7237  145.9   5.308   46.6  0.0558   26.0  0.3686  163.8
 4.200  0.7265  144.7   5.153   45.4  0.0564   25.8  0.3730  162.4
 4.300  0.7293  143.5   5.006   44.2  0.0569   25.7  0.3778  161.1
 4.400  0.7324  142.4   4.867   43.0  0.0574   25.5  0.3820  159.9
 4.500  0.7352  141.3   4.737   41.8  0.0580   25.4  0.3864  158.7
 4.600  0.7384  140.3   4.612   40.6  0.0585   25.1  0.3901  157.6
 4.700  0.7408  139.4   4.493   39.5  0.0590   25.0  0.3943  156.5
 4.800  0.7435  138.5   4.376   38.4  0.0596   24.8  0.3979  155.5
 4.900  0.7460  137.6   4.268   37.3  0.0601   24.7  0.4017  154.4
 5.000  0.7484  136.8   4.164   36.2  0.0607   24.5  0.4051  153.5
 5.100  0.7506  135.9   4.066   35.1  0.0612   24.3  0.4086  152.5
 5.200  0.7527  135.1   3.973   34.0  0.0617   24.2  0.4114  151.5
 5.300  0.7546  134.3   3.880   32.9  0.0623   24.0  0.4145  150.5
 5.400  0.7561  133.5   3.793   31.8  0.0629   23.8  0.4178  149.5
 5.500  0.7571  132.8   3.707   30.7  0.0634   23.7  0.4199  148.6
 5.600  0.7580  132.2   3.625   29.8  0.0641   23.6  0.4222  147.6
 5.700  0.7594  131.4   3.553   28.7  0.0646   23.4  0.4258  146.6
 5.800  0.7604  130.7   3.476   27.6  0.0653   23.2  0.4279  145.6
 5.900  0.7619  130.1   3.406   26.6  0.0660   23.0  0.4310  144.6
 6.000  0.7633  129.3   3.339   25.5  0.0667   22.9  0.4343  143.7
 6.100  0.7653  128.8   3.276   24.5  0.0675   22.6  0.4379  142.8
 6.200  0.7664  127.9   3.212   23.3  0.0682   22.3  0.4402  141.9
 6.300  0.7690  127.2   3.152   22.4  0.0689   22.0  0.4441  141.1
 6.400  0.7704  126.4   3.093   21.2  0.0695   21.6  0.4475  140.1
 6.500  0.7724  125.6   3.035   20.1  0.0704   21.2  0.4509  139.3
 6.600  0.7750  124.7   2.982   19.0  0.0708   20.8  0.4542  138.4
 6.700  0.7767  124.0   2.927   18.1  0.0716   20.5  0.4578  137.5
 6.800  0.7776  123.1   2.873   16.9  0.0721   20.0  0.4610  136.6
 6.900  0.7806  122.1   2.823   15.8  0.0728   19.6  0.4652  135.8
 7.000  0.7822  121.2   2.776   14.7  0.0735   19.2  0.4685  135.0
 7.100  0.7848  120.3   2.729   13.6  0.0742   18.7  0.4737  134.1
 7.200  0.7872  119.3   2.683   12.4  0.0748   18.2  0.4775  133.3
 7.300  0.7890  118.4   2.635   11.4  0.0755   17.8  0.4817  132.4
 7.400  0.7916  117.3   2.591   10.1  0.0759   17.1  0.4859  131.5
 7.500  0.7954  116.4   2.549    8.9  0.0766   16.6  0.4906  130.7
 7.600  0.7981  115.4   2.504    7.7  0.0772   16.0  0.4952  129.6
 7.700  0.8011  114.4   2.461    6.6  0.0776   15.5  0.4999  128.8
 7.800  0.8046  113.4   2.414    5.3  0.0781   14.8  0.5055  127.6
 7.900  0.8079  112.4   2.373    4.0  0.0784   14.1  0.5108  126.6
 8.000  0.8121  111.4   2.325    2.8  0.0788   13.4  0.5168  125.5
 8.500  0.8318  106.4   2.097   -3.3  0.0794   10.2  0.5471  120.0
 9.000  0.8494  102.0   1.866   -8.6  0.0786    7.6  0.5829  114.9
 9.500  0.8654   98.8   1.657  -12.6  0.0772    6.2  0.6171  111.2
10.000  0.8783   96.9   1.488  -15.2  0.0769    5.9  0.6472  109.6
!
!  f       NFmin   Gammaopt  rn/50
! GHz       dB    MAG  ANG    -
!
! noise parameter not available yet for this operation point!
!
! (c) 2012  Infineon Technologies AG, Munich
