! Infineon Technologies  Discrete & RF Semiconductors
! BFP740
! VCE =  3.5 V,  IC =  22 mA
! Common Emitter S-Parameters:                            Jan 2016
# GHz  S  MA  R  50
!  f         S11            S21            S12            S22
! GHz     MAG   ANG      MAG   ANG      MAG   ANG      MAG   ANG
 0.030  0.7717   -3.2  45.444  174.6  0.0018   84.8  0.9850   -1.7
 0.035  0.7708   -3.9  45.295  173.9  0.0017   79.7  0.9852   -2.2
 0.040  0.7700   -4.6  45.154  173.1  0.0017   74.3  0.9854   -2.7
 0.045  0.7709   -5.1  45.096  172.6  0.0026   88.9  0.9864   -3.2
 0.050  0.7718   -5.6  45.043  172.0  0.0035   96.0  0.9874   -3.6
 0.055  0.7685   -6.2  44.825  171.2  0.0025   86.1  0.9844   -4.0
 0.060  0.7653   -6.8  44.616  170.3  0.0016   64.0  0.9815   -4.4
 0.065  0.7663   -7.5  44.468  169.7  0.0027   79.5  0.9820   -4.8
 0.070  0.7674   -8.1  44.324  169.1  0.0038   86.0  0.9826   -5.2
 0.075  0.7663   -8.6  44.062  168.5  0.0035   87.6  0.9816   -5.6
 0.080  0.7653   -9.1  43.806  167.8  0.0033   89.4  0.9807   -6.0
 0.085  0.7635   -9.7  43.551  167.2  0.0043   87.3  0.9787   -6.4
 0.090  0.7617  -10.4  43.301  166.6  0.0053   86.0  0.9768   -6.9
 0.095  0.7617  -10.9  43.040  166.1  0.0047   85.7  0.9758   -7.2
 0.100  0.7618  -11.4  42.782  165.6  0.0041   85.3  0.9749   -7.5
 0.105  0.7606  -11.9  42.625  165.0  0.0042   81.0  0.9734   -7.9
 0.110  0.7595  -12.5  42.472  164.4  0.0043   76.9  0.9719   -8.3
 0.115  0.7580  -13.0  42.214  163.9  0.0050   80.5  0.9695   -8.6
 0.120  0.7566  -13.6  41.960  163.3  0.0058   83.1  0.9671   -9.0
 0.125  0.7555  -14.1  41.738  162.8  0.0059   82.5  0.9653   -9.3
 0.130  0.7544  -14.6  41.520  162.3  0.0060   82.0  0.9635   -9.7
 0.135  0.7538  -15.1  41.244  161.9  0.0061   80.2  0.9619  -10.0
 0.140  0.7533  -15.7  40.971  161.4  0.0062   78.4  0.9604  -10.4
 0.145  0.7522  -16.3  40.786  161.0  0.0066   78.5  0.9578  -10.7
 0.150  0.7511  -16.9  40.603  160.5  0.0070   78.5  0.9553  -11.1
 0.155  0.7500  -17.4  40.374  160.1  0.0072   78.3  0.9534  -11.4
 0.160  0.7489  -17.9  40.148  159.8  0.0074   78.0  0.9516  -11.7
 0.165  0.7478  -18.4  39.923  159.4  0.0076   77.8  0.9497  -12.0
 0.170  0.7468  -18.8  39.699  159.0  0.0078   77.6  0.9479  -12.3
 0.175  0.7459  -19.3  39.478  158.6  0.0079   77.4  0.9462  -12.6
 0.180  0.7450  -19.8  39.258  158.2  0.0081   77.2  0.9444  -12.9
 0.185  0.7442  -20.3  39.040  157.8  0.0083   77.0  0.9427  -13.3
 0.190  0.7435  -20.8  38.824  157.4  0.0085   76.8  0.9410  -13.6
 0.195  0.7428  -21.3  38.610  157.0  0.0087   76.7  0.9393  -13.9
 0.200  0.7421  -21.8  38.398  156.6  0.0089   76.5  0.9377  -14.2
 0.220  0.7371  -23.8  37.699  155.3  0.0096   76.1  0.9308  -15.3
 0.240  0.7329  -25.8  37.019  154.0  0.0103   75.8  0.9242  -16.4
 0.260  0.7293  -27.7  36.364  152.8  0.0111   74.9  0.9175  -17.6
 0.280  0.7261  -29.6  35.729  151.6  0.0120   73.6  0.9106  -18.7
 0.300  0.7236  -31.5  35.107  150.5  0.0130   72.5  0.9041  -19.8
 0.320  0.7197  -33.4  34.597  149.5  0.0138   72.2  0.8975  -20.9
 0.340  0.7167  -35.3  34.099  148.4  0.0145   72.0  0.8912  -22.0
 0.360  0.7137  -37.1  33.627  147.4  0.0153   71.3  0.8847  -23.1
 0.380  0.7108  -38.9  33.179  146.4  0.0161   70.3  0.8780  -24.1
 0.400  0.7086  -40.8  32.742  145.4  0.0169   69.4  0.8716  -25.2
 0.420  0.7051  -42.6  32.347  144.5  0.0176   68.3  0.8654  -26.2
 0.440  0.7023  -44.4  31.961  143.5  0.0183   67.3  0.8595  -27.2
 0.450  0.7012  -45.3  31.771  143.0  0.0187   66.8  0.8566  -27.7
 0.460  0.6996  -46.2  31.579  142.6  0.0190   66.5  0.8531  -28.2
 0.480  0.6970  -47.9  31.201  141.7  0.0196   66.0  0.8463  -29.2
 0.500  0.6950  -49.7  30.830  140.8  0.0202   65.5  0.8397  -30.2
 0.520  0.6909  -51.4  30.494  139.9  0.0209   64.6  0.8326  -31.1
 0.540  0.6874  -53.1  30.165  139.0  0.0215   63.8  0.8257  -32.1
 0.560  0.6846  -54.9  29.844  138.0  0.0222   63.1  0.8191  -33.0
 0.580  0.6824  -56.6  29.531  137.1  0.0228   62.4  0.8127  -34.0
 0.600  0.6808  -58.4  29.227  136.1  0.0235   61.7  0.8065  -35.0
 0.620  0.6769  -60.1  28.929  135.3  0.0241   61.0  0.7992  -35.9
 0.640  0.6737  -61.7  28.637  134.4  0.0246   60.2  0.7921  -36.8
 0.660  0.6710  -63.4  28.351  133.5  0.0252   59.6  0.7852  -37.8
 0.680  0.6688  -65.1  28.073  132.6  0.0258   58.9  0.7785  -38.7
 0.700  0.6673  -66.8  27.801  131.7  0.0264   58.3  0.7720  -39.7
 0.720  0.6642  -68.4  27.511  130.9  0.0269   57.5  0.7649  -40.5
 0.740  0.6615  -69.9  27.227  130.1  0.0275   56.7  0.7579  -41.4
 0.760  0.6594  -71.5  26.949  129.2  0.0280   56.0  0.7511  -42.3
 0.780  0.6577  -73.1  26.676  128.4  0.0286   55.3  0.7445  -43.2
 0.800  0.6566  -74.7  26.410  127.5  0.0291   54.6  0.7381  -44.1
 0.820  0.6534  -76.2  26.157  126.7  0.0296   53.9  0.7309  -44.9
 0.840  0.6507  -77.7  25.910  125.9  0.0300   53.2  0.7238  -45.7
 0.860  0.6484  -79.3  25.667  125.1  0.0305   52.5  0.7169  -46.6
 0.880  0.6466  -80.8  25.430  124.3  0.0310   51.8  0.7102  -47.4
 0.900  0.6453  -82.4  25.199  123.4  0.0315   51.2  0.7036  -48.3
 0.920  0.6426  -83.8  24.942  122.7  0.0319   50.6  0.6966  -49.1
 0.940  0.6404  -85.3  24.689  121.9  0.0323   50.0  0.6898  -49.9
 0.960  0.6385  -86.7  24.440  121.2  0.0328   49.4  0.6831  -50.7
 0.980  0.6370  -88.1  24.195  120.4  0.0332   48.9  0.6766  -51.5
 1.000  0.6360  -89.6  23.955  119.6  0.0336   48.3  0.6702  -52.4
 1.020  0.6332  -91.0  23.726  118.9  0.0339   47.7  0.6636  -53.1
 1.040  0.6308  -92.3  23.500  118.1  0.0343   47.2  0.6571  -53.8
 1.060  0.6287  -93.7  23.279  117.4  0.0346   46.6  0.6507  -54.6
 1.080  0.6270  -95.1  23.062  116.6  0.0350   46.1  0.6444  -55.3
 1.100  0.6257  -96.5  22.849  115.8  0.0353   45.6  0.6382  -56.1
 1.120  0.6235  -97.8  22.626  115.1  0.0356   45.1  0.6321  -56.8
 1.140  0.6216  -99.0  22.407  114.4  0.0360   44.7  0.6261  -57.5
 1.160  0.6200 -100.3  22.191  113.7  0.0363   44.2  0.6201  -58.2
 1.180  0.6187 -101.6  21.978  113.0  0.0367   43.7  0.6143  -59.0
 1.200  0.6177 -102.9  21.769  112.3  0.0370   43.3  0.6086  -59.7
 1.220  0.6159 -104.1  21.561  111.7  0.0373   42.9  0.6029  -60.3
 1.240  0.6143 -105.3  21.357  111.0  0.0376   42.4  0.5973  -61.0
 1.260  0.6130 -106.5  21.155  110.4  0.0378   42.0  0.5917  -61.6
 1.280  0.6120 -107.7  20.955  109.7  0.0381   41.6  0.5863  -62.3
 1.300  0.6112 -108.9  20.759  109.0  0.0384   41.2  0.5809  -63.0
 1.320  0.6097 -110.1  20.574  108.4  0.0387   40.7  0.5756  -63.6
 1.340  0.6085 -111.2  20.392  107.8  0.0389   40.3  0.5704  -64.3
 1.360  0.6075 -112.4  20.212  107.1  0.0392   39.9  0.5652  -64.9
 1.380  0.6068 -113.5  20.035  106.5  0.0394   39.4  0.5601  -65.6
 1.400  0.6063 -114.7  19.860  105.8  0.0397   39.0  0.5551  -66.3
 1.420  0.6048 -115.8  19.682  105.2  0.0399   38.6  0.5499  -66.9
 1.440  0.6035 -116.9  19.506  104.6  0.0402   38.3  0.5447  -67.5
 1.460  0.6025 -118.0  19.333  104.0  0.0404   37.9  0.5396  -68.1
 1.480  0.6016 -119.1  19.161  103.4  0.0407   37.6  0.5345  -68.7
 1.500  0.6010 -120.2  18.992  102.8  0.0409   37.2  0.5295  -69.3
 1.520  0.6001 -121.2  18.831  102.2  0.0411   36.9  0.5250  -69.9
 1.540  0.5995 -122.3  18.672  101.6  0.0413   36.5  0.5206  -70.5
 1.560  0.5990 -123.3  18.515  101.0  0.0414   36.2  0.5162  -71.1
 1.580  0.5988 -124.4  18.361  100.4  0.0416   35.8  0.5119  -71.7
 1.600  0.5987 -125.4  18.208   99.8  0.0418   35.5  0.5076  -72.3
 1.620  0.5978 -126.4  18.056   99.3  0.0420   35.2  0.5028  -72.9
 1.640  0.5971 -127.4  17.905   98.7  0.0422   34.9  0.4980  -73.4
 1.660  0.5966 -128.4  17.756   98.1  0.0424   34.5  0.4932  -74.0
 1.680  0.5963 -129.4  17.609   97.6  0.0426   34.2  0.4885  -74.6
 1.700  0.5961 -130.4  17.464   97.0  0.0428   33.9  0.4839  -75.2
 1.720  0.5955 -131.3  17.321   96.5  0.0430   33.6  0.4799  -75.8
 1.740  0.5951 -132.3  17.179   95.9  0.0432   33.3  0.4760  -76.4
 1.760  0.5948 -133.2  17.039   95.4  0.0434   32.9  0.4721  -77.0
 1.780  0.5947 -134.2  16.900   94.9  0.0436   32.6  0.4683  -77.6
 1.800  0.5948 -135.1  16.763   94.3  0.0438   32.3  0.4645  -78.2
 1.820  0.5944 -136.0  16.635   93.8  0.0440   32.1  0.4602  -78.7
 1.840  0.5941 -137.0  16.508   93.2  0.0441   31.9  0.4560  -79.3
 1.860  0.5940 -137.9  16.383   92.7  0.0443   31.6  0.4518  -79.8
 1.880  0.5940 -138.9  16.259   92.2  0.0444   31.4  0.4476  -80.4
 1.900  0.5942 -139.8  16.137   91.6  0.0446   31.2  0.4435  -81.0
 1.920  0.5940 -140.7  16.012   91.1  0.0447   30.9  0.4399  -81.6
 1.940  0.5939 -141.5  15.888   90.6  0.0449   30.6  0.4364  -82.1
 1.960  0.5939 -142.4  15.765   90.1  0.0450   30.3  0.4329  -82.7
 1.980  0.5941 -143.2  15.644   89.5  0.0452   30.0  0.4294  -83.3
 2.000  0.5944 -144.1  15.524   89.0  0.0453   29.7  0.4260  -83.9
 2.020  0.5942 -144.9  15.399   88.5  0.0454   29.4  0.4224  -84.5
 2.040  0.5941 -145.8  15.275   88.0  0.0456   29.1  0.4189  -85.0
 2.060  0.5941 -146.6  15.152   87.5  0.0457   28.9  0.4154  -85.6
 2.080  0.5943 -147.5  15.031   86.9  0.0459   28.6  0.4119  -86.2
 2.100  0.5946 -148.3  14.911   86.4  0.0460   28.3  0.4085  -86.8
 2.120  0.5942 -149.1  14.798   85.9  0.0461   28.1  0.4052  -87.3
 2.140  0.5938 -149.8  14.686   85.5  0.0462   27.9  0.4020  -87.9
 2.160  0.5936 -150.6  14.575   85.0  0.0463   27.6  0.3988  -88.4
 2.180  0.5935 -151.3  14.465   84.5  0.0464   27.4  0.3956  -88.9
 2.200  0.5935 -152.1  14.356   84.0  0.0465   27.2  0.3925  -89.5
 2.220  0.5933 -152.9  14.252   83.5  0.0466   27.0  0.3893  -90.0
 2.240  0.5933 -153.7  14.149   83.1  0.0468   26.8  0.3861  -90.5
 2.260  0.5933 -154.5  14.046   82.6  0.0469   26.6  0.3829  -91.0
 2.280  0.5935 -155.3  13.945   82.1  0.0471   26.4  0.3798  -91.6
 2.300  0.5938 -156.1  13.845   81.6  0.0472   26.2  0.3767  -92.1
 2.320  0.5937 -156.8  13.745   81.2  0.0473   26.0  0.3737  -92.6
 2.340  0.5937 -157.5  13.647   80.7  0.0473   25.8  0.3707  -93.2
 2.360  0.5937 -158.2  13.549   80.3  0.0474   25.7  0.3678  -93.7
 2.380  0.5939 -158.9  13.451   79.9  0.0474   25.5  0.3649  -94.2
 2.400  0.5941 -159.6  13.355   79.4  0.0475   25.3  0.3620  -94.8
 2.420  0.5940 -160.3  13.263   79.0  0.0477   25.1  0.3590  -95.3
 2.440  0.5940 -161.0  13.171   78.5  0.0478   24.8  0.3560  -95.8
 2.460  0.5941 -161.8  13.080   78.0  0.0480   24.6  0.3531  -96.3
 2.480  0.5942 -162.5  12.990   77.6  0.0481   24.3  0.3502  -96.9
 2.500  0.5945 -163.2  12.901   77.1  0.0483   24.1  0.3473  -97.4
 2.520  0.5945 -163.9  12.813   76.7  0.0484   23.9  0.3445  -97.9
 2.540  0.5947 -164.6  12.725   76.2  0.0484   23.7  0.3416  -98.5
 2.560  0.5949 -165.3  12.638   75.8  0.0485   23.6  0.3389  -99.1
 2.580  0.5952 -166.0  12.552   75.4  0.0485   23.4  0.3361  -99.6
 2.600  0.5956 -166.7  12.467   74.9  0.0486   23.2  0.3334 -100.2
 2.620  0.5957 -167.4  12.384   74.5  0.0487   23.1  0.3307 -100.7
 2.640  0.5959 -168.0  12.303   74.1  0.0489   22.9  0.3281 -101.2
 2.660  0.5961 -168.7  12.221   73.7  0.0490   22.8  0.3255 -101.7
 2.680  0.5965 -169.3  12.141   73.2  0.0492   22.6  0.3229 -102.3
 2.700  0.5969 -170.0  12.061   72.8  0.0493   22.5  0.3204 -102.8
 2.720  0.5969 -170.6  11.982   72.4  0.0494   22.3  0.3178 -103.4
 2.740  0.5970 -171.3  11.905   71.9  0.0494   22.2  0.3152 -104.0
 2.760  0.5972 -171.9  11.827   71.5  0.0495   22.0  0.3127 -104.6
 2.780  0.5975 -172.6  11.751   71.1  0.0495   21.9  0.3102 -105.2
 2.800  0.5978 -173.2  11.675   70.6  0.0496   21.7  0.3077 -105.8
 2.820  0.5980 -173.8  11.600   70.2  0.0497   21.5  0.3055 -106.4
 2.840  0.5984 -174.4  11.526   69.8  0.0498   21.3  0.3032 -106.9
 2.860  0.5987 -175.0  11.452   69.4  0.0498   21.2  0.3011 -107.5
 2.880  0.5992 -175.6  11.379   68.9  0.0499   21.0  0.2989 -108.1
 2.900  0.5997 -176.2  11.306   68.5  0.0500   20.8  0.2968 -108.7
 2.920  0.5998 -176.8  11.234   68.1  0.0501   20.7  0.2945 -109.3
 2.940  0.6000 -177.4  11.163   67.7  0.0501   20.6  0.2922 -110.0
 2.960  0.6003 -178.1  11.092   67.3  0.0502   20.4  0.2900 -110.6
 2.980  0.6006 -178.7  11.022   66.9  0.0502   20.3  0.2878 -111.2
 3.000  0.6010 -179.3  10.952   66.5  0.0503   20.2  0.2856 -111.9
 3.100  0.6034  177.9  10.617   64.5  0.0509   19.3  0.2761 -115.0
 3.200  0.6053  175.0  10.299   62.5  0.0511   18.7  0.2677 -118.4
 3.300  0.6081  172.3   9.999   60.5  0.0519   17.8  0.2607 -121.6
 3.400  0.6107  169.5   9.708   58.6  0.0521   17.5  0.2531 -125.2
 3.500  0.6137  166.9   9.430   56.7  0.0524   16.7  0.2463 -128.4
 3.600  0.6167  164.4   9.163   54.8  0.0527   16.1  0.2402 -132.1
 3.700  0.6198  162.1   8.905   53.0  0.0530   15.3  0.2351 -135.7
 3.800  0.6234  159.6   8.663   51.1  0.0534   14.8  0.2310 -139.4
 3.900  0.6259  157.3   8.425   49.4  0.0537   14.3  0.2276 -143.1
 4.000  0.6300  155.1   8.196   47.6  0.0541   13.7  0.2254 -146.8
 4.100  0.6330  153.0   7.977   45.9  0.0544   13.2  0.2235 -150.4
 4.200  0.6370  150.8   7.764   44.2  0.0545   12.7  0.2232 -153.7
 4.300  0.6398  148.8   7.565   42.4  0.0550   12.2  0.2228 -157.0
 4.400  0.6445  146.9   7.369   40.8  0.0551   11.8  0.2223 -160.1
 4.500  0.6467  145.1   7.184   39.2  0.0552   11.3  0.2224 -163.1
 4.600  0.6514  143.4   7.004   37.5  0.0557   10.9  0.2225 -166.1
 4.700  0.6536  141.7   6.830   36.0  0.0558   10.5  0.2226 -169.0
 4.800  0.6578  140.1   6.668   34.4  0.0561   10.0  0.2234 -171.7
 4.900  0.6599  138.6   6.510   32.9  0.0564    9.6  0.2237 -174.4
 5.000  0.6638  137.2   6.361   31.4  0.0568    9.4  0.2241 -176.9
 5.100  0.6656  135.7   6.213   29.9  0.0571    9.0  0.2251 -179.4
 5.200  0.6688  134.4   6.079   28.5  0.0573    8.7  0.2254  178.2
 5.300  0.6703  133.0   5.941   26.9  0.0577    8.3  0.2263  175.9
 5.400  0.6729  131.8   5.815   25.5  0.0579    8.0  0.2266  173.6
 5.500  0.6739  130.5   5.690   24.1  0.0584    7.7  0.2272  171.4
 5.600  0.6762  129.4   5.575   22.7  0.0588    7.4  0.2279  169.1
 5.700  0.6764  128.3   5.461   21.3  0.0591    7.3  0.2288  167.0
 5.800  0.6788  127.0   5.355   19.9  0.0596    7.0  0.2302  164.9
 5.900  0.6805  126.1   5.254   18.6  0.0600    6.6  0.2319  162.9
 6.000  0.6823  124.9   5.161   17.1  0.0606    6.4  0.2340  160.8
 6.100  0.6856  124.0   5.066   15.7  0.0613    5.9  0.2364  158.8
 6.200  0.6864  122.9   4.979   14.4  0.0617    5.5  0.2394  156.9
 6.300  0.6899  121.7   4.892   12.9  0.0625    5.1  0.2424  154.9
 6.400  0.6915  120.6   4.813   11.5  0.0630    4.6  0.2461  153.0
 6.500  0.6945  119.3   4.731   10.0  0.0636    4.1  0.2494  151.0
 6.600  0.6960  118.1   4.651    8.5  0.0642    3.7  0.2529  149.2
 6.800  0.7016  115.6   4.500    5.7  0.0651    2.5  0.2602  145.6
 7.000  0.7062  113.0   4.358    2.7  0.0663    1.4  0.2690  142.2
 7.200  0.7122  110.4   4.221   -0.2  0.0674    0.2  0.2781  139.0
 7.400  0.7178  107.7   4.091   -3.2  0.0685   -1.0  0.2870  135.8
 7.600  0.7251  104.9   3.961   -6.3  0.0694   -2.3  0.2972  132.2
 7.800  0.7337  102.0   3.832   -9.4  0.0705   -3.8  0.3070  128.7
 8.000  0.7428   99.2   3.705  -12.5  0.0714   -5.1  0.3183  124.9
 8.200  0.7513   96.3   3.567  -15.4  0.0719   -6.6  0.3299  120.7
 8.400  0.7616   93.6   3.440  -18.6  0.0724   -8.1  0.3432  116.7
 8.600  0.7714   90.9   3.310  -21.6  0.0728   -9.5  0.3586  112.8
 8.800  0.7805   88.3   3.177  -24.5  0.0730  -11.0  0.3764  108.9
 9.000  0.7913   85.7   3.052  -27.6  0.0733  -12.5  0.3957  105.4
 9.200  0.7998   83.5   2.921  -30.0  0.0731  -13.7  0.4152  102.2
 9.400  0.8095   81.3   2.796  -32.5  0.0730  -14.9  0.4360   99.3
 9.600  0.8186   79.4   2.680  -34.9  0.0729  -15.9  0.4563   97.1
 9.800  0.8266   77.8   2.570  -36.9  0.0728  -16.8  0.4758   95.4
10.000  0.8353   76.3   2.464  -39.2  0.0727  -17.6  0.4957   93.8
!
!  f       NFmin   Gammaopt  rn/50
! GHz       dB    MAG  ANG    -
!
! noise parameter not available yet for this operation point!
!
! (c) 2016  Infineon Technologies AG, Munich
