! Infineon Technologies  Discrete & RF Semiconductors
! BFP720FESD
! VCE =  3.0 V,  IC =  25 mA
! Common Emitter S-Parameters:                            Jan 2016
# GHz  S  MA  R  50
!  f         S11            S21            S12            S22
! GHz     MAG   ANG      MAG   ANG      MAG   ANG      MAG   ANG
 0.010  0.6775   -0.8  45.647  179.7  0.0007  107.0  0.9436    4.0
 0.015  0.6738   -1.5  45.701  178.9  0.0008   99.8  0.9586    2.0
 0.020  0.6703   -2.3  45.764  178.1  0.0009   94.2  0.9748    0.1
 0.025  0.6700   -2.9  45.737  177.8  0.0010   90.9  0.9767   -0.3
 0.030  0.6698   -3.4  45.712  177.4  0.0012   88.5  0.9786   -0.6
 0.035  0.6696   -4.0  45.688  177.1  0.0013   86.6  0.9806   -1.0
 0.040  0.6695   -4.6  45.667  176.7  0.0015   85.1  0.9826   -1.4
 0.045  0.6695   -5.1  45.646  176.4  0.0016   83.8  0.9847   -1.7
 0.050  0.6695   -5.7  45.628  176.0  0.0018   82.8  0.9868   -2.1
 0.055  0.6688   -6.3  45.631  175.6  0.0019   83.0  0.9867   -2.5
 0.060  0.6683   -6.9  45.637  175.3  0.0020   83.2  0.9866   -2.8
 0.065  0.6677   -7.5  45.644  174.9  0.0022   83.4  0.9865   -3.2
 0.070  0.6673   -8.1  45.653  174.5  0.0023   83.6  0.9865   -3.5
 0.075  0.6670   -8.7  45.664  174.1  0.0024   83.7  0.9866   -3.9
 0.080  0.6667   -9.4  45.677  173.8  0.0025   83.9  0.9866   -4.3
 0.085  0.6665  -10.0  45.692  173.4  0.0026   84.0  0.9867   -4.6
 0.090  0.6663  -10.6  45.709  173.0  0.0028   84.1  0.9869   -5.0
 0.095  0.6663  -11.2  45.727  172.7  0.0029   84.2  0.9871   -5.3
 0.100  0.6663  -11.8  45.748  172.3  0.0030   84.3  0.9873   -5.7
 0.105  0.6654  -12.4  45.694  171.9  0.0031   83.8  0.9863   -6.0
 0.110  0.6645  -13.0  45.642  171.5  0.0033   83.4  0.9854   -6.4
 0.115  0.6637  -13.6  45.593  171.0  0.0034   83.0  0.9845   -6.7
 0.120  0.6630  -14.3  45.546  170.6  0.0036   82.7  0.9837   -7.0
 0.125  0.6624  -14.9  45.502  170.2  0.0037   82.4  0.9828   -7.3
 0.130  0.6619  -15.5  45.460  169.8  0.0039   82.1  0.9820   -7.7
 0.135  0.6614  -16.1  45.421  169.4  0.0040   81.8  0.9813   -8.0
 0.140  0.6610  -16.8  45.384  168.9  0.0042   81.6  0.9806   -8.3
 0.145  0.6607  -17.4  45.349  168.5  0.0043   81.3  0.9799   -8.7
 0.150  0.6605  -18.0  45.317  168.1  0.0045   81.1  0.9792   -9.0
 0.155  0.6599  -18.6  45.244  167.7  0.0046   80.9  0.9779   -9.3
 0.160  0.6593  -19.1  45.173  167.3  0.0048   80.6  0.9766   -9.6
 0.165  0.6588  -19.7  45.104  166.9  0.0049   80.4  0.9753   -9.9
 0.170  0.6584  -20.2  45.038  166.6  0.0051   80.2  0.9741  -10.2
 0.175  0.6580  -20.8  44.973  166.2  0.0052   80.0  0.9729  -10.5
 0.180  0.6577  -21.4  44.910  165.8  0.0053   79.8  0.9717  -10.9
 0.185  0.6575  -21.9  44.850  165.4  0.0055   79.7  0.9706  -11.2
 0.190  0.6573  -22.5  44.791  165.0  0.0056   79.5  0.9695  -11.5
 0.195  0.6572  -23.0  44.735  164.6  0.0058   79.3  0.9684  -11.8
 0.200  0.6571  -23.6  44.681  164.2  0.0059   79.2  0.9673  -12.1
 0.220  0.6529  -25.8  44.258  162.6  0.0064   77.9  0.9612  -13.2
 0.240  0.6496  -28.1  43.869  161.0  0.0069   76.9  0.9556  -14.4
 0.260  0.6467  -30.3  43.503  159.5  0.0075   75.8  0.9494  -15.5
 0.280  0.6440  -32.4  43.153  158.1  0.0080   74.7  0.9427  -16.6
 0.300  0.6422  -34.6  42.828  156.7  0.0085   73.8  0.9363  -17.7
 0.320  0.6385  -36.7  42.386  155.4  0.0090   72.9  0.9289  -18.7
 0.340  0.6355  -38.8  41.966  154.1  0.0095   72.2  0.9217  -19.8
 0.360  0.6327  -40.8  41.536  152.8  0.0100   71.3  0.9144  -20.8
 0.380  0.6297  -42.8  41.093  151.4  0.0105   70.4  0.9068  -21.8
 0.400  0.6276  -44.8  40.673  150.1  0.0109   69.6  0.8994  -22.8
 0.420  0.6244  -46.7  40.208  148.9  0.0114   68.8  0.8917  -23.7
 0.440  0.6220  -48.7  39.761  147.7  0.0119   68.1  0.8843  -24.6
 0.450  0.6210  -49.7  39.544  147.1  0.0121   67.8  0.8807  -25.1
 0.460  0.6191  -50.6  39.316  146.5  0.0123   67.4  0.8766  -25.6
 0.480  0.6159  -52.5  38.872  145.4  0.0127   66.6  0.8687  -26.5
 0.500  0.6133  -54.4  38.444  144.2  0.0131   65.8  0.8610  -27.4
 0.520  0.6099  -56.1  37.985  143.2  0.0135   65.0  0.8529  -28.2
 0.540  0.6071  -57.9  37.539  142.1  0.0139   64.2  0.8450  -29.0
 0.560  0.6049  -59.6  37.106  141.0  0.0143   63.5  0.8372  -29.8
 0.580  0.6032  -61.4  36.686  139.9  0.0147   62.8  0.8296  -30.6
 0.600  0.6021  -63.2  36.280  138.8  0.0151   62.1  0.8222  -31.4
 0.620  0.5990  -64.9  35.855  137.9  0.0155   61.4  0.8145  -32.1
 0.640  0.5964  -66.6  35.439  137.0  0.0158   60.7  0.8070  -32.9
 0.660  0.5943  -68.3  35.031  136.1  0.0162   60.1  0.7996  -33.6
 0.680  0.5927  -70.0  34.633  135.2  0.0165   59.5  0.7923  -34.4
 0.700  0.5917  -71.7  34.244  134.2  0.0169   58.9  0.7852  -35.2
 0.720  0.5894  -73.2  33.839  133.4  0.0172   58.3  0.7778  -35.9
 0.740  0.5876  -74.7  33.441  132.5  0.0175   57.7  0.7705  -36.5
 0.760  0.5861  -76.2  33.050  131.7  0.0178   57.2  0.7633  -37.2
 0.780  0.5851  -77.8  32.667  130.8  0.0181   56.6  0.7562  -37.9
 0.800  0.5845  -79.3  32.292  129.9  0.0184   56.1  0.7492  -38.6
 0.820  0.5825  -80.7  31.935  129.1  0.0187   55.5  0.7424  -39.2
 0.840  0.5808  -82.2  31.583  128.4  0.0190   55.0  0.7356  -39.8
 0.860  0.5796  -83.6  31.238  127.6  0.0193   54.5  0.7290  -40.5
 0.880  0.5786  -85.0  30.899  126.7  0.0196   54.0  0.7225  -41.1
 0.900  0.5781  -86.5  30.566  125.9  0.0199   53.5  0.7160  -41.8
 0.920  0.5765  -87.8  30.227  125.2  0.0201   53.0  0.7093  -42.4
 0.940  0.5751  -89.2  29.892  124.5  0.0204   52.5  0.7026  -43.0
 0.960  0.5741  -90.5  29.562  123.8  0.0206   52.0  0.6961  -43.6
 0.980  0.5734  -91.9  29.237  123.1  0.0209   51.5  0.6896  -44.3
 1.000  0.5730  -93.2  28.917  122.3  0.0211   51.0  0.6832  -44.9
 1.020  0.5720  -94.4  28.608  121.6  0.0213   50.6  0.6771  -45.4
 1.040  0.5712  -95.6  28.302  121.0  0.0215   50.1  0.6711  -46.0
 1.060  0.5707  -96.9  28.000  120.3  0.0218   49.7  0.6651  -46.5
 1.080  0.5705  -98.1  27.703  119.6  0.0220   49.3  0.6592  -47.1
 1.100  0.5705  -99.3  27.409  118.9  0.0222   48.9  0.6534  -47.7
 1.120  0.5694 -100.5  27.122  118.3  0.0224   48.5  0.6476  -48.2
 1.140  0.5686 -101.6  26.838  117.6  0.0226   48.1  0.6418  -48.8
 1.160  0.5680 -102.8  26.558  117.0  0.0228   47.7  0.6361  -49.3
 1.180  0.5676 -103.9  26.282  116.3  0.0230   47.3  0.6305  -49.8
 1.200  0.5675 -105.1  26.009  115.6  0.0232   46.9  0.6249  -50.4
 1.220  0.5668 -106.2  25.745  115.0  0.0234   46.5  0.6197  -50.9
 1.240  0.5662 -107.2  25.484  114.4  0.0235   46.2  0.6145  -51.4
 1.260  0.5659 -108.3  25.226  113.8  0.0237   45.8  0.6094  -51.9
 1.280  0.5658 -109.3  24.971  113.2  0.0238   45.5  0.6043  -52.4
 1.300  0.5658 -110.4  24.718  112.6  0.0240   45.1  0.5993  -52.9
 1.320  0.5651 -111.4  24.466  112.1  0.0242   44.8  0.5943  -53.4
 1.340  0.5647 -112.4  24.217  111.5  0.0243   44.4  0.5893  -53.8
 1.360  0.5643 -113.3  23.969  111.0  0.0245   44.1  0.5844  -54.3
 1.380  0.5642 -114.3  23.725  110.4  0.0246   43.8  0.5795  -54.8
 1.400  0.5642 -115.3  23.482  109.8  0.0248   43.5  0.5746  -55.3
 1.420  0.5639 -116.1  23.261  109.3  0.0249   43.2  0.5703  -55.7
 1.440  0.5637 -117.0  23.041  108.8  0.0251   42.9  0.5660  -56.1
 1.460  0.5636 -117.8  22.823  108.3  0.0252   42.7  0.5617  -56.5
 1.480  0.5636 -118.7  22.606  107.8  0.0254   42.4  0.5575  -57.0
 1.500  0.5638 -119.5  22.392  107.3  0.0255   42.1  0.5533  -57.4
 1.520  0.5637 -120.4  22.184  106.8  0.0256   41.8  0.5492  -57.8
 1.540  0.5638 -121.3  21.979  106.3  0.0257   41.6  0.5450  -58.3
 1.560  0.5640 -122.1  21.775  105.7  0.0258   41.3  0.5410  -58.7
 1.580  0.5643 -123.0  21.573  105.2  0.0259   41.1  0.5369  -59.1
 1.600  0.5648 -123.9  21.373  104.6  0.0260   40.8  0.5329  -59.6
 1.620  0.5643 -124.7  21.183  104.2  0.0261   40.6  0.5293  -60.0
 1.640  0.5639 -125.4  20.995  103.7  0.0262   40.3  0.5258  -60.4
 1.660  0.5636 -126.2  20.808  103.2  0.0264   40.1  0.5223  -60.8
 1.680  0.5634 -126.9  20.622  102.8  0.0265   39.8  0.5188  -61.2
 1.700  0.5633 -127.7  20.438  102.3  0.0266   39.6  0.5153  -61.6
 1.720  0.5633 -128.4  20.249  101.9  0.0267   39.4  0.5121  -62.0
 1.740  0.5634 -129.1  20.060  101.4  0.0268   39.2  0.5088  -62.3
 1.760  0.5635 -129.7  19.873  101.0  0.0269   39.1  0.5056  -62.7
 1.780  0.5638 -130.4  19.688  100.6  0.0270   38.9  0.5025  -63.1
 1.800  0.5641 -131.1  19.503  100.1  0.0271   38.7  0.4993  -63.5
 1.820  0.5639 -131.8  19.344   99.7  0.0272   38.5  0.4962  -63.9
 1.840  0.5638 -132.5  19.186   99.2  0.0273   38.3  0.4931  -64.3
 1.860  0.5637 -133.2  19.029   98.8  0.0274   38.1  0.4900  -64.7
 1.880  0.5638 -133.9  18.873   98.4  0.0275   37.9  0.4869  -65.2
 1.900  0.5639 -134.6  18.718   97.9  0.0276   37.7  0.4839  -65.6
 1.920  0.5637 -135.2  18.562   97.5  0.0277   37.5  0.4813  -65.9
 1.940  0.5635 -135.7  18.407   97.1  0.0277   37.4  0.4787  -66.2
 1.960  0.5634 -136.3  18.253   96.7  0.0278   37.2  0.4761  -66.5
 1.980  0.5634 -136.8  18.100   96.3  0.0278   37.1  0.4735  -66.9
 2.000  0.5634 -137.4  17.948   95.9  0.0279   36.9  0.4710  -67.2
 2.020  0.5631 -138.0  17.808   95.5  0.0280   36.8  0.4686  -67.5
 2.040  0.5628 -138.6  17.669   95.1  0.0280   36.6  0.4661  -67.9
 2.060  0.5626 -139.2  17.531   94.8  0.0281   36.5  0.4637  -68.2
 2.080  0.5624 -139.8  17.393   94.4  0.0282   36.3  0.4613  -68.6
 2.100  0.5624 -140.4  17.256   94.0  0.0282   36.2  0.4589  -69.0
 2.120  0.5623 -141.1  17.121   93.6  0.0283   36.1  0.4566  -69.3
 2.140  0.5624 -141.7  16.986   93.2  0.0284   35.9  0.4542  -69.7
 2.160  0.5625 -142.3  16.852   92.8  0.0285   35.8  0.4519  -70.1
 2.180  0.5627 -142.9  16.718   92.3  0.0285   35.6  0.4496  -70.4
 2.200  0.5629 -143.5  16.586   91.9  0.0286   35.5  0.4473  -70.8
 2.220  0.5627 -144.0  16.464   91.6  0.0287   35.4  0.4452  -71.1
 2.240  0.5624 -144.5  16.343   91.2  0.0287   35.3  0.4432  -71.5
 2.260  0.5623 -145.1  16.223   90.9  0.0288   35.1  0.4411  -71.8
 2.280  0.5622 -145.6  16.103   90.5  0.0289   35.0  0.4391  -72.2
 2.300  0.5621 -146.1  15.984   90.2  0.0289   34.9  0.4371  -72.5
 2.320  0.5621 -146.6  15.865   89.8  0.0290   34.8  0.4351  -72.9
 2.340  0.5621 -147.1  15.747   89.4  0.0291   34.7  0.4331  -73.2
 2.360  0.5622 -147.7  15.630   89.1  0.0292   34.5  0.4312  -73.6
 2.380  0.5623 -148.2  15.513   88.7  0.0292   34.4  0.4292  -73.9
 2.400  0.5625 -148.7  15.397   88.3  0.0293   34.3  0.4273  -74.3
 2.420  0.5624 -149.2  15.288   88.0  0.0293   34.2  0.4256  -74.6
 2.440  0.5623 -149.7  15.180   87.6  0.0294   34.1  0.4239  -75.0
 2.460  0.5623 -150.2  15.072   87.3  0.0294   34.0  0.4222  -75.3
 2.480  0.5623 -150.7  14.965   87.0  0.0295   33.9  0.4205  -75.6
 2.500  0.5624 -151.3  14.859   86.6  0.0295   33.8  0.4189  -76.0
 2.520  0.5625 -151.8  14.753   86.3  0.0295   33.8  0.4172  -76.3
 2.540  0.5627 -152.3  14.647   85.9  0.0296   33.7  0.4156  -76.7
 2.560  0.5629 -152.8  14.542   85.5  0.0296   33.6  0.4140  -77.0
 2.580  0.5631 -153.3  14.438   85.2  0.0297   33.5  0.4124  -77.3
 2.600  0.5634 -153.8  14.334   84.8  0.0297   33.4  0.4108  -77.7
 2.620  0.5632 -154.2  14.237   84.5  0.0297   33.3  0.4094  -78.0
 2.640  0.5631 -154.7  14.139   84.2  0.0298   33.3  0.4081  -78.3
 2.660  0.5630 -155.1  14.043   83.9  0.0298   33.2  0.4068  -78.6
 2.680  0.5629 -155.5  13.946   83.6  0.0299   33.2  0.4054  -79.0
 2.700  0.5629 -155.9  13.850   83.3  0.0299   33.1  0.4041  -79.3
 2.720  0.5628 -156.4  13.755   83.0  0.0299   33.0  0.4028  -79.6
 2.740  0.5629 -156.8  13.660   82.7  0.0300   33.0  0.4016  -79.9
 2.760  0.5629 -157.2  13.565   82.4  0.0300   32.9  0.4003  -80.2
 2.780  0.5630 -157.7  13.471   82.0  0.0301   32.9  0.3990  -80.6
 2.800  0.5631 -158.1  13.377   81.7  0.0301   32.8  0.3978  -80.9
 2.820  0.5632 -158.5  13.292   81.4  0.0301   32.8  0.3968  -81.2
 2.840  0.5633 -158.9  13.206   81.1  0.0301   32.7  0.3957  -81.4
 2.860  0.5635 -159.3  13.122   80.8  0.0302   32.7  0.3947  -81.7
 2.880  0.5637 -159.7  13.037   80.5  0.0302   32.6  0.3937  -82.0
 2.900  0.5639 -160.1  12.953   80.2  0.0302   32.6  0.3927  -82.3
 2.920  0.5641 -160.4  12.870   79.9  0.0302   32.6  0.3917  -82.6
 2.940  0.5644 -160.8  12.786   79.6  0.0302   32.5  0.3908  -82.8
 2.960  0.5647 -161.2  12.704   79.3  0.0303   32.5  0.3898  -83.1
 2.980  0.5650 -161.6  12.621   78.9  0.0303   32.4  0.3888  -83.4
 3.000  0.5653 -162.0  12.539   78.6  0.0303   32.4  0.3879  -83.7
 3.100  0.5645 -163.6  12.185   77.4  0.0305   32.5  0.3856  -84.7
 3.200  0.5642 -165.1  11.836   76.2  0.0308   32.7  0.3835  -85.7
 3.300  0.5642 -166.7  11.493   74.9  0.0310   32.8  0.3815  -86.7
 3.400  0.5647 -168.2  11.156   73.6  0.0313   33.0  0.3796  -87.7
 3.500  0.5656 -169.8  10.826   72.1  0.0315   33.1  0.3778  -88.7
 3.600  0.5666 -171.2  10.570   71.0  0.0318   33.2  0.3767  -89.6
 3.700  0.5678 -172.5  10.319   69.8  0.0321   33.3  0.3756  -90.4
 3.800  0.5694 -173.8  10.072   68.5  0.0323   33.3  0.3747  -91.3
 3.900  0.5713 -175.2   9.830   67.2  0.0326   33.4  0.3738  -92.1
 4.000  0.5735 -176.5   9.594   65.8  0.0329   33.5  0.3730  -93.0
 4.100  0.5750 -177.8   9.382   64.7  0.0332   33.6  0.3716  -94.1
 4.200  0.5769 -179.1   9.174   63.4  0.0335   33.6  0.3704  -95.1
 4.300  0.5790  179.6   8.971   62.2  0.0339   33.7  0.3692  -96.2
 4.400  0.5814  178.4   8.771   60.9  0.0342   33.7  0.3683  -97.3
 4.500  0.5841  177.1   8.577   59.5  0.0345   33.8  0.3674  -98.4
 4.600  0.5853  176.0   8.394   58.4  0.0348   33.9  0.3663  -99.5
 4.700  0.5867  174.9   8.214   57.3  0.0351   34.0  0.3653 -100.5
 4.800  0.5883  173.8   8.037   56.1  0.0353   34.1  0.3644 -101.6
 4.900  0.5901  172.8   7.864   54.9  0.0356   34.2  0.3637 -102.7
 5.000  0.5921  171.7   7.695   53.6  0.0359   34.3  0.3631 -103.8
 5.100  0.5917  170.7   7.549   52.6  0.0362   34.4  0.3621 -104.7
 5.200  0.5916  169.7   7.405   51.5  0.0365   34.5  0.3611 -105.6
 5.300  0.5916  168.6   7.264   50.4  0.0369   34.5  0.3603 -106.5
 5.400  0.5918  167.6   7.126   49.3  0.0372   34.6  0.3596 -107.5
 5.500  0.5922  166.6   6.991   48.1  0.0375   34.7  0.3589 -108.4
 5.600  0.5919  165.4   6.878   47.0  0.0378   34.7  0.3569 -109.5
 5.700  0.5919  164.2   6.768   45.9  0.0382   34.7  0.3551 -110.5
 5.800  0.5921  163.1   6.660   44.8  0.0385   34.8  0.3534 -111.6
 5.900  0.5926  161.9   6.555   43.6  0.0389   34.8  0.3518 -112.7
 6.000  0.5933  160.7   6.453   42.4  0.0392   34.8  0.3503 -113.8
 6.100  0.5931  159.4   6.349   41.3  0.0395   34.9  0.3481 -115.0
 6.200  0.5933  158.1   6.247   40.2  0.0398   35.0  0.3460 -116.2
 6.300  0.5937  156.9   6.147   39.0  0.0401   35.1  0.3441 -117.5
 6.400  0.5945  155.6   6.051   37.8  0.0404   35.2  0.3424 -118.7
 6.500  0.5955  154.3   5.957   36.5  0.0407   35.3  0.3408 -120.0
 6.600  0.5962  153.2   5.859   35.4  0.0410   35.6  0.3378 -120.9
 6.800  0.5982  150.9   5.669   33.2  0.0416   36.3  0.3321 -122.9
 7.000  0.6012  148.6   5.489   30.8  0.0422   36.9  0.3268 -124.9
 7.200  0.6037  146.6   5.315   28.9  0.0434   37.9  0.3192 -126.7
 7.400  0.6070  144.7   5.147   26.8  0.0447   38.8  0.3120 -128.6
 7.600  0.6133  142.8   4.999   24.6  0.0463   39.3  0.3054 -131.5
 7.800  0.6224  141.1   4.871   22.4  0.0484   39.2  0.3003 -135.3
 8.000  0.6320  139.5   4.750   20.0  0.0504   39.2  0.2966 -139.2
 8.200  0.6398  137.7   4.606   17.7  0.0522   38.1  0.2939 -144.9
 8.400  0.6481  136.0   4.470   15.2  0.0540   37.0  0.2940 -150.6
 8.600  0.6545  134.5   4.335   12.8  0.0554   35.9  0.2944 -156.5
 8.800  0.6587  133.0   4.199   10.6  0.0565   34.7  0.2954 -162.7
 9.000  0.6634  131.6   4.070    8.2  0.0576   33.5  0.2998 -168.8
 9.200  0.6691  130.3   3.945    6.5  0.0585   32.4  0.3067 -175.1
 9.400  0.6752  129.0   3.824    4.7  0.0594   31.4  0.3172  178.9
 9.600  0.6853  127.5   3.713    2.7  0.0601   30.5  0.3323  173.0
 9.800  0.6998  125.6   3.613    0.4  0.0606   29.7  0.3524  167.2
10.000  0.7150  123.9   3.519   -2.1  0.0612   28.9  0.3756  162.1
!
!  f       NFmin   Gammaopt  rn/50
! GHz       dB    MAG  ANG    -
 0.450      1.08  0.05 -156   0.11
 2.400      1.10  0.07 -150   0.13
 5.500      1.29  0.18  170   0.11
10.000      1.76  0.32 -118   0.19
!
! (c) 2016  Infineon Technologies AG, Munich
