! Infineon Technologies  Discrete & RF Semiconductors
! BFP740
! VCE =  2.5 V,  IC =  20 mA
! Common Emitter S-Parameters:                            Jan 2016
# GHz  S  MA  R  50
!  f         S11            S21            S12            S22
! GHz     MAG   ANG      MAG   ANG      MAG   ANG      MAG   ANG
 0.030  0.7974   -3.4  43.245  175.0  0.0018   79.6  0.9902   -1.8
 0.035  0.7966   -4.0  43.138  174.3  0.0019   86.8  0.9903   -2.3
 0.040  0.7958   -4.6  43.037  173.6  0.0020   93.2  0.9905   -2.7
 0.045  0.7936   -5.2  43.008  173.0  0.0016   79.0  0.9882   -3.2
 0.050  0.7915   -5.8  42.983  172.4  0.0013   56.8  0.9859   -3.7
 0.055  0.7908   -6.3  42.826  171.6  0.0016   64.5  0.9852   -4.0
 0.060  0.7901   -6.9  42.678  170.8  0.0020   69.5  0.9846   -4.4
 0.065  0.7909   -7.6  42.438  170.3  0.0029   76.2  0.9853   -4.9
 0.070  0.7919   -8.2  42.202  169.7  0.0039   79.7  0.9860   -5.4
 0.075  0.7912   -8.6  42.041  169.1  0.0036   90.1  0.9853   -5.7
 0.080  0.7906   -9.1  41.886  168.4  0.0034  102.0  0.9846   -6.0
 0.085  0.7885   -9.7  41.624  167.8  0.0040   91.4  0.9829   -6.4
 0.090  0.7865  -10.3  41.367  167.2  0.0047   83.8  0.9812   -6.9
 0.095  0.7855  -10.8  41.232  166.7  0.0049   87.2  0.9797   -7.3
 0.100  0.7846  -11.4  41.101  166.2  0.0052   90.3  0.9782   -7.7
 0.105  0.7837  -11.9  40.898  165.6  0.0053   83.5  0.9769   -8.0
 0.110  0.7828  -12.5  40.700  165.0  0.0054   77.0  0.9757   -8.3
 0.115  0.7813  -13.0  40.493  164.5  0.0055   80.9  0.9732   -8.7
 0.120  0.7799  -13.6  40.290  164.0  0.0057   84.5  0.9708   -9.1
 0.125  0.7803  -14.1  39.999  163.6  0.0059   80.5  0.9698   -9.4
 0.130  0.7808  -14.6  39.711  163.1  0.0061   76.7  0.9688   -9.8
 0.135  0.7789  -15.1  39.523  162.7  0.0065   78.8  0.9672  -10.1
 0.140  0.7771  -15.7  39.337  162.2  0.0069   80.7  0.9657  -10.4
 0.145  0.7761  -16.2  39.154  161.8  0.0071   81.6  0.9636  -10.8
 0.150  0.7752  -16.8  38.974  161.3  0.0074   82.5  0.9616  -11.2
 0.155  0.7738  -17.3  38.784  160.9  0.0076   81.9  0.9597  -11.5
 0.160  0.7725  -17.8  38.596  160.5  0.0078   81.4  0.9579  -11.8
 0.165  0.7713  -18.3  38.409  160.2  0.0080   80.9  0.9561  -12.1
 0.170  0.7701  -18.8  38.224  159.8  0.0082   80.4  0.9543  -12.4
 0.175  0.7689  -19.3  38.041  159.4  0.0084   79.9  0.9526  -12.7
 0.180  0.7678  -19.8  37.860  159.0  0.0087   79.5  0.9509  -13.0
 0.185  0.7668  -20.3  37.680  158.6  0.0089   79.1  0.9492  -13.4
 0.190  0.7658  -20.8  37.502  158.2  0.0091   78.6  0.9475  -13.7
 0.195  0.7649  -21.3  37.326  157.8  0.0093   78.3  0.9459  -14.0
 0.200  0.7641  -21.8  37.152  157.4  0.0095   77.9  0.9443  -14.3
 0.220  0.7598  -23.7  36.484  156.2  0.0103   77.1  0.9374  -15.5
 0.240  0.7565  -25.7  35.833  154.9  0.0110   76.5  0.9308  -16.7
 0.260  0.7529  -27.7  35.231  153.6  0.0119   76.2  0.9242  -17.9
 0.280  0.7491  -29.6  34.673  152.5  0.0128   76.1  0.9176  -19.0
 0.300  0.7462  -31.5  34.129  151.3  0.0138   76.0  0.9113  -20.1
 0.320  0.7425  -33.3  33.623  150.3  0.0145   74.6  0.9046  -21.2
 0.340  0.7396  -35.2  33.127  149.2  0.0152   73.4  0.8982  -22.3
 0.360  0.7362  -37.0  32.690  148.2  0.0159   72.2  0.8916  -23.4
 0.380  0.7325  -38.9  32.312  147.1  0.0166   71.1  0.8846  -24.5
 0.400  0.7295  -40.8  31.945  146.0  0.0173   70.1  0.8779  -25.6
 0.420  0.7262  -42.5  31.559  145.1  0.0182   69.0  0.8719  -26.7
 0.440  0.7236  -44.3  31.182  144.1  0.0191   68.0  0.8661  -27.8
 0.450  0.7225  -45.2  30.997  143.6  0.0195   67.5  0.8634  -28.3
 0.460  0.7205  -46.1  30.825  143.2  0.0198   66.9  0.8598  -28.8
 0.480  0.7171  -47.8  30.488  142.2  0.0205   65.9  0.8528  -29.8
 0.500  0.7144  -49.6  30.159  141.3  0.0212   64.9  0.8461  -30.8
 0.520  0.7100  -51.3  29.838  140.4  0.0219   64.1  0.8387  -31.8
 0.540  0.7063  -53.1  29.525  139.4  0.0225   63.3  0.8316  -32.8
 0.560  0.7032  -54.8  29.220  138.5  0.0232   62.6  0.8248  -33.8
 0.580  0.7008  -56.6  28.924  137.5  0.0239   61.9  0.8181  -34.8
 0.600  0.6991  -58.4  28.636  136.5  0.0246   61.3  0.8118  -35.8
 0.620  0.6953  -60.0  28.332  135.7  0.0252   60.5  0.8045  -36.7
 0.640  0.6921  -61.6  28.035  134.8  0.0259   59.7  0.7974  -37.6
 0.660  0.6894  -63.2  27.744  133.9  0.0265   59.0  0.7905  -38.6
 0.680  0.6873  -64.9  27.460  133.0  0.0272   58.3  0.7838  -39.5
 0.700  0.6857  -66.5  27.183  132.1  0.0278   57.6  0.7774  -40.5
 0.720  0.6817  -68.1  26.918  131.2  0.0283   56.9  0.7699  -41.4
 0.740  0.6783  -69.7  26.659  130.4  0.0288   56.2  0.7625  -42.3
 0.760  0.6754  -71.4  26.407  129.5  0.0293   55.6  0.7553  -43.2
 0.780  0.6731  -73.0  26.161  128.5  0.0298   54.9  0.7484  -44.1
 0.800  0.6713  -74.7  25.922  127.6  0.0303   54.3  0.7416  -45.1
 0.820  0.6681  -76.2  25.666  126.8  0.0308   53.6  0.7342  -45.9
 0.840  0.6653  -77.7  25.416  126.0  0.0314   52.9  0.7269  -46.8
 0.860  0.6630  -79.2  25.170  125.2  0.0319   52.3  0.7198  -47.7
 0.880  0.6611  -80.7  24.930  124.4  0.0325   51.6  0.7129  -48.6
 0.900  0.6597  -82.2  24.695  123.5  0.0330   51.0  0.7062  -49.5
 0.920  0.6568  -83.6  24.443  122.8  0.0334   50.3  0.6994  -50.3
 0.940  0.6543  -85.0  24.196  122.0  0.0338   49.7  0.6928  -51.1
 0.960  0.6523  -86.4  23.953  121.3  0.0342   49.0  0.6862  -51.9
 0.980  0.6506  -87.9  23.714  120.5  0.0346   48.4  0.6798  -52.7
 1.000  0.6493  -89.3  23.479  119.7  0.0350   47.8  0.6736  -53.5
 1.020  0.6463  -90.7  23.249  118.9  0.0354   47.3  0.6666  -54.3
 1.040  0.6436  -92.0  23.024  118.2  0.0358   46.8  0.6598  -55.1
 1.060  0.6413  -93.4  22.803  117.4  0.0361   46.3  0.6531  -55.9
 1.080  0.6394  -94.8  22.586  116.6  0.0365   45.9  0.6465  -56.7
 1.100  0.6379  -96.2  22.373  115.8  0.0369   45.4  0.6400  -57.5
 1.120  0.6355  -97.5  22.155  115.1  0.0372   44.8  0.6339  -58.2
 1.140  0.6335  -98.7  21.940  114.4  0.0375   44.3  0.6279  -58.9
 1.160  0.6317 -100.0  21.728  113.7  0.0378   43.7  0.6220  -59.6
 1.180  0.6303 -101.3  21.520  113.0  0.0381   43.1  0.6162  -60.4
 1.200  0.6292 -102.6  21.315  112.3  0.0384   42.6  0.6105  -61.1
 1.220  0.6269 -103.8  21.116  111.6  0.0387   42.2  0.6045  -61.8
 1.240  0.6248 -105.1  20.920  111.0  0.0389   41.7  0.5986  -62.5
 1.260  0.6230 -106.3  20.727  110.3  0.0392   41.3  0.5928  -63.2
 1.280  0.6216 -107.5  20.536  109.6  0.0394   40.9  0.5870  -63.9
 1.300  0.6204 -108.8  20.349  108.9  0.0397   40.5  0.5814  -64.6
 1.320  0.6189 -109.9  20.162  108.3  0.0400   40.1  0.5761  -65.2
 1.340  0.6176 -111.0  19.978  107.7  0.0403   39.6  0.5709  -65.9
 1.360  0.6165 -112.1  19.796  107.0  0.0406   39.2  0.5658  -66.5
 1.380  0.6157 -113.3  19.617  106.4  0.0409   38.8  0.5608  -67.2
 1.400  0.6151 -114.4  19.440  105.7  0.0412   38.4  0.5558  -67.9
 1.420  0.6134 -115.5  19.266  105.1  0.0414   38.0  0.5507  -68.5
 1.440  0.6120 -116.5  19.094  104.5  0.0416   37.6  0.5457  -69.1
 1.460  0.6108 -117.6  18.924  103.9  0.0419   37.2  0.5407  -69.7
 1.480  0.6098 -118.7  18.757  103.3  0.0421   36.8  0.5358  -70.3
 1.500  0.6090 -119.8  18.591  102.7  0.0423   36.4  0.5309  -70.9
 1.520  0.6078 -120.9  18.435  102.1  0.0425   36.1  0.5261  -71.5
 1.540  0.6069 -122.0  18.282  101.5  0.0427   35.8  0.5213  -72.1
 1.560  0.6062 -123.0  18.130  100.9  0.0429   35.4  0.5166  -72.8
 1.580  0.6057 -124.1  17.981  100.3  0.0431   35.1  0.5120  -73.4
 1.600  0.6054 -125.2  17.833   99.7  0.0433   34.8  0.5074  -74.1
 1.620  0.6045 -126.2  17.680   99.2  0.0435   34.5  0.5027  -74.7
 1.640  0.6038 -127.2  17.529   98.6  0.0438   34.2  0.4981  -75.3
 1.660  0.6032 -128.1  17.379   98.0  0.0440   34.0  0.4935  -75.9
 1.680  0.6028 -129.1  17.231   97.5  0.0443   33.7  0.4890  -76.5
 1.700  0.6026 -130.1  17.085   96.9  0.0445   33.4  0.4845  -77.1
 1.720  0.6019 -131.1  16.945   96.4  0.0446   33.1  0.4805  -77.7
 1.740  0.6014 -132.0  16.806   95.8  0.0448   32.8  0.4765  -78.3
 1.760  0.6010 -133.0  16.669   95.2  0.0449   32.4  0.4725  -78.9
 1.780  0.6008 -133.9  16.533   94.7  0.0451   32.1  0.4686  -79.6
 1.800  0.6008 -134.9  16.399   94.1  0.0452   31.8  0.4648  -80.2
 1.820  0.6004 -135.8  16.271   93.6  0.0454   31.5  0.4605  -80.8
 1.840  0.6002 -136.7  16.144   93.1  0.0456   31.2  0.4563  -81.3
 1.860  0.6001 -137.5  16.018   92.6  0.0458   31.0  0.4522  -81.9
 1.880  0.6001 -138.4  15.894   92.0  0.0460   30.7  0.4481  -82.5
 1.900  0.6003 -139.3  15.771   91.5  0.0462   30.4  0.4440  -83.1
 1.920  0.5998 -140.2  15.650   91.0  0.0463   30.1  0.4404  -83.7
 1.940  0.5994 -141.1  15.531   90.5  0.0465   29.8  0.4369  -84.3
 1.960  0.5992 -142.0  15.413   90.0  0.0466   29.4  0.4334  -84.9
 1.980  0.5991 -142.9  15.296   89.4  0.0468   29.1  0.4299  -85.5
 2.000  0.5992 -143.8  15.180   88.9  0.0469   28.8  0.4265  -86.1
 2.020  0.5989 -144.6  15.056   88.4  0.0470   28.5  0.4228  -86.7
 2.040  0.5987 -145.4  14.932   87.9  0.0471   28.2  0.4191  -87.3
 2.060  0.5987 -146.3  14.810   87.4  0.0471   28.0  0.4154  -87.9
 2.080  0.5987 -147.1  14.690   86.8  0.0472   27.7  0.4118  -88.5
 2.100  0.5989 -147.9  14.570   86.3  0.0473   27.4  0.4083  -89.1
 2.120  0.5984 -148.7  14.461   85.8  0.0474   27.2  0.4052  -89.6
 2.140  0.5980 -149.5  14.353   85.3  0.0476   26.9  0.4021  -90.2
 2.160  0.5977 -150.3  14.246   84.8  0.0477   26.7  0.3990  -90.8
 2.180  0.5975 -151.1  14.140   84.3  0.0479   26.4  0.3960  -91.3
 2.200  0.5974 -151.9  14.035   83.8  0.0480   26.2  0.3930  -91.9
 2.220  0.5972 -152.7  13.932   83.4  0.0481   26.0  0.3897  -92.4
 2.240  0.5971 -153.5  13.830   82.9  0.0483   25.8  0.3863  -93.0
 2.260  0.5972 -154.2  13.729   82.4  0.0484   25.7  0.3831  -93.5
 2.280  0.5973 -155.0  13.629   82.0  0.0486   25.5  0.3798  -94.0
 2.300  0.5976 -155.8  13.530   81.5  0.0487   25.3  0.3766  -94.6
 2.320  0.5974 -156.5  13.433   81.1  0.0488   25.1  0.3738  -95.1
 2.340  0.5973 -157.2  13.336   80.6  0.0490   24.9  0.3711  -95.7
 2.360  0.5973 -157.9  13.241   80.1  0.0491   24.8  0.3684  -96.2
 2.380  0.5974 -158.6  13.146   79.7  0.0493   24.6  0.3657  -96.7
 2.400  0.5976 -159.3  13.052   79.2  0.0494   24.4  0.3631  -97.3
 2.420  0.5975 -160.0  12.961   78.8  0.0495   24.2  0.3600  -97.8
 2.440  0.5974 -160.7  12.871   78.3  0.0496   23.9  0.3570  -98.4
 2.460  0.5974 -161.5  12.781   77.8  0.0497   23.7  0.3539  -98.9
 2.480  0.5976 -162.2  12.693   77.4  0.0498   23.4  0.3510  -99.4
 2.500  0.5978 -162.9  12.605   76.9  0.0499   23.2  0.3480 -100.0
 2.520  0.5977 -163.6  12.518   76.5  0.0500   23.0  0.3452 -100.6
 2.540  0.5976 -164.3  12.432   76.0  0.0501   22.8  0.3425 -101.1
 2.560  0.5977 -164.9  12.346   75.6  0.0503   22.7  0.3397 -101.7
 2.580  0.5978 -165.6  12.261   75.2  0.0504   22.5  0.3370 -102.3
 2.600  0.5980 -166.3  12.177   74.7  0.0505   22.3  0.3344 -102.9
 2.620  0.5981 -167.0  12.097   74.3  0.0505   22.2  0.3316 -103.5
 2.640  0.5983 -167.7  12.018   73.9  0.0506   22.0  0.3288 -104.0
 2.660  0.5985 -168.3  11.940   73.5  0.0506   21.9  0.3261 -104.6
 2.680  0.5989 -169.0  11.862   73.0  0.0507   21.7  0.3234 -105.2
 2.700  0.5993 -169.7  11.785   72.6  0.0507   21.6  0.3207 -105.8
 2.720  0.5993 -170.3  11.707   72.2  0.0508   21.4  0.3183 -106.4
 2.740  0.5994 -171.0  11.630   71.7  0.0509   21.2  0.3159 -107.0
 2.760  0.5995 -171.6  11.553   71.3  0.0509   21.1  0.3135 -107.6
 2.780  0.5997 -172.3  11.477   70.9  0.0510   20.9  0.3112 -108.2
 2.800  0.6000 -172.9  11.402   70.4  0.0511   20.7  0.3089 -108.8
 2.820  0.6003 -173.5  11.329   70.0  0.0512   20.5  0.3066 -109.4
 2.840  0.6006 -174.1  11.257   69.6  0.0513   20.4  0.3044 -110.0
 2.860  0.6010 -174.8  11.185   69.2  0.0515   20.2  0.3022 -110.6
 2.880  0.6015 -175.4  11.114   68.7  0.0516   20.1  0.3000 -111.3
 2.900  0.6020 -176.0  11.043   68.3  0.0517   19.9  0.2979 -111.9
 2.920  0.6021 -176.6  10.972   67.9  0.0518   19.7  0.2958 -112.5
 2.940  0.6022 -177.2  10.902   67.5  0.0518   19.5  0.2938 -113.2
 2.960  0.6025 -177.8  10.832   67.1  0.0519   19.4  0.2918 -113.9
 2.980  0.6027 -178.4  10.763   66.7  0.0519   19.2  0.2898 -114.5
 3.000  0.6031 -179.0  10.694   66.3  0.0520   19.0  0.2879 -115.2
 3.100  0.6055  178.0  10.372   64.2  0.0525   18.4  0.2783 -118.4
 3.200  0.6070  175.2  10.057   62.3  0.0528   17.7  0.2705 -121.9
 3.300  0.6097  172.5   9.767   60.3  0.0532   16.7  0.2636 -125.2
 3.400  0.6126  169.8   9.476   58.4  0.0537   16.1  0.2567 -128.7
 3.500  0.6149  167.2   9.205   56.5  0.0540   15.4  0.2505 -132.1
 3.600  0.6179  164.7   8.943   54.6  0.0543   14.8  0.2447 -135.9
 3.700  0.6212  162.2   8.697   52.8  0.0545   14.3  0.2401 -139.5
 3.800  0.6248  159.8   8.456   50.9  0.0547   13.5  0.2362 -143.3
 3.900  0.6274  157.5   8.223   49.1  0.0553   13.0  0.2334 -147.0
 4.000  0.6308  155.3   7.997   47.4  0.0554   12.3  0.2320 -150.5
 4.100  0.6337  153.1   7.785   45.6  0.0556   11.8  0.2307 -154.2
 4.200  0.6379  151.0   7.577   43.9  0.0560   11.4  0.2307 -157.5
 4.300  0.6405  149.0   7.380   42.2  0.0561   10.7  0.2304 -160.7
 4.400  0.6453  147.1   7.188   40.5  0.0566   10.3  0.2305 -163.7
 4.500  0.6473  145.3   7.006   38.9  0.0567   10.0  0.2307 -166.8
 4.600  0.6522  143.5   6.834   37.3  0.0568    9.5  0.2312 -169.6
 4.700  0.6541  141.9   6.661   35.8  0.0572    9.1  0.2317 -172.4
 4.800  0.6584  140.2   6.504   34.1  0.0574    8.8  0.2326 -175.2
 4.900  0.6605  138.7   6.348   32.6  0.0576    8.2  0.2333 -177.8
 5.000  0.6644  137.3   6.203   31.2  0.0579    7.9  0.2340  179.7
 5.100  0.6663  135.8   6.059   29.6  0.0582    7.6  0.2351  177.4
 5.200  0.6694  134.5   5.927   28.2  0.0585    7.1  0.2358  175.1
 5.300  0.6707  133.1   5.792   26.7  0.0589    6.9  0.2368  172.9
 5.400  0.6734  131.9   5.667   25.3  0.0593    6.6  0.2373  170.6
 5.500  0.6743  130.6   5.545   23.8  0.0595    6.2  0.2382  168.4
 5.600  0.6765  129.5   5.433   22.4  0.0599    6.0  0.2390  166.2
 5.700  0.6770  128.4   5.323   21.0  0.0603    5.6  0.2399  164.1
 5.800  0.6794  127.1   5.219   19.6  0.0606    5.4  0.2416  162.1
 5.900  0.6811  126.2   5.120   18.3  0.0611    5.0  0.2433  160.1
 6.000  0.6828  125.0   5.028   16.8  0.0618    4.7  0.2457  158.0
 6.100  0.6861  124.0   4.936   15.4  0.0624    4.4  0.2482  156.2
 6.200  0.6871  122.9   4.852   14.1  0.0629    4.0  0.2513  154.3
 6.300  0.6900  121.8   4.765   12.6  0.0634    3.4  0.2544  152.3
 6.400  0.6917  120.7   4.688   11.2  0.0640    3.0  0.2580  150.5
 6.500  0.6951  119.4   4.608    9.7  0.0645    2.6  0.2616  148.6
 6.600  0.6967  118.2   4.529    8.2  0.0650    2.0  0.2652  146.8
 6.800  0.7018  115.6   4.381    5.4  0.0660    0.9  0.2727  143.3
 7.000  0.7067  113.0   4.243    2.4  0.0672   -0.1  0.2818  140.0
 7.200  0.7127  110.4   4.109   -0.5  0.0683   -1.3  0.2907  136.9
 7.400  0.7182  107.8   3.980   -3.5  0.0693   -2.5  0.2998  133.7
 7.600  0.7255  104.9   3.854   -6.7  0.0702   -3.8  0.3102  130.2
 7.800  0.7340  102.0   3.728   -9.7  0.0710   -5.4  0.3202  126.9
 8.000  0.7429   99.2   3.603  -12.9  0.0719   -6.7  0.3316  123.2
 8.200  0.7514   96.3   3.468  -15.8  0.0724   -8.2  0.3431  119.0
 8.400  0.7618   93.5   3.343  -19.0  0.0729   -9.7  0.3564  115.1
 8.600  0.7716   90.8   3.216  -22.0  0.0733  -11.2  0.3718  111.3
 8.800  0.7806   88.2   3.085  -24.8  0.0734  -12.7  0.3894  107.5
 9.000  0.7912   85.7   2.963  -27.9  0.0736  -14.2  0.4085  104.1
 9.200  0.7995   83.5   2.835  -30.3  0.0733  -15.3  0.4277  101.0
 9.400  0.8090   81.3   2.712  -32.8  0.0731  -16.4  0.4481   98.1
 9.600  0.8180   79.4   2.599  -35.2  0.0729  -17.4  0.4680   95.9
 9.800  0.8260   77.8   2.492  -37.2  0.0728  -18.2  0.4871   94.2
10.000  0.8346   76.3   2.389  -39.4  0.0727  -19.0  0.5065   92.6
!
!  f       NFmin   Gammaopt  rn/50
! GHz       dB    MAG  ANG    -
 0.450      0.68  0.07    3   0.22
 0.900      0.68  0.08   19   0.21
 1.500      0.71  0.08   38   0.21
 1.900      0.73  0.08   49   0.20
 2.400      0.76  0.08   60   0.19
 3.500      0.86  0.08  134   0.18
 5.500      1.03  0.18 -118   0.16
10.000      1.39  0.51  -67   0.23
!
! (c) 2016  Infineon Technologies AG, Munich
