! Infineon Technologies  Discrete & RF Semiconductors
! BFP750
! VCE =  2.5 V,  IC =  55 mA
! Common Emitter S-Parameters:                            Jan 2016
# GHz  S  MA  R  50
!  f         S11            S21            S12            S22
! GHz     MAG   ANG      MAG   ANG      MAG   ANG      MAG   ANG
 0.030  0.6412  -15.7  69.727  172.7  0.0041   84.9  0.9764   -9.7
 0.035  0.6410  -18.3  69.587  171.4  0.0047   83.1  0.9754  -11.5
 0.040  0.6422  -20.9  69.482  170.1  0.0053   81.7  0.9753  -13.3
 0.045  0.6414  -23.6  69.414  168.7  0.0059   80.4  0.9736  -15.1
 0.050  0.6421  -26.3  69.391  167.2  0.0066   79.4  0.9729  -16.9
 0.055  0.6412  -28.7  69.066  166.2  0.0071   78.4  0.9692  -18.6
 0.060  0.6415  -31.1  68.764  165.1  0.0077   77.6  0.9665  -20.4
 0.065  0.6428  -33.7  68.366  163.8  0.0083   76.6  0.9626  -22.1
 0.070  0.6455  -36.3  68.003  162.5  0.0090   75.8  0.9596  -23.9
 0.075  0.6490  -38.7  67.681  161.5  0.0096   74.2  0.9552  -25.6
 0.080  0.6537  -41.1  67.381  160.4  0.0102   72.8  0.9517  -27.3
 0.085  0.6526  -43.4  66.824  159.2  0.0107   71.9  0.9466  -29.0
 0.090  0.6525  -45.7  66.296  158.0  0.0112   71.1  0.9423  -30.7
 0.095  0.6529  -48.0  65.847  156.9  0.0117   70.0  0.9368  -32.3
 0.100  0.6543  -50.3  65.422  155.8  0.0122   68.9  0.9321  -33.9
 0.105  0.6555  -52.3  64.898  154.7  0.0128   67.8  0.9262  -35.4
 0.110  0.6574  -54.2  64.397  153.6  0.0134   66.8  0.9209  -37.0
 0.115  0.6577  -56.4  63.855  152.6  0.0138   66.1  0.9152  -38.6
 0.120  0.6589  -58.5  63.334  151.5  0.0143   65.4  0.9102  -40.2
 0.125  0.6619  -60.5  62.789  150.5  0.0148   64.4  0.9039  -41.7
 0.130  0.6656  -62.4  62.264  149.5  0.0153   63.5  0.8983  -43.2
 0.135  0.6647  -64.4  61.718  148.5  0.0157   62.7  0.8918  -44.7
 0.140  0.6646  -66.4  61.191  147.5  0.0162   61.9  0.8860  -46.2
 0.145  0.6660  -68.5  60.672  146.5  0.0166   61.1  0.8797  -47.6
 0.150  0.6682  -70.5  60.172  145.5  0.0170   60.4  0.8739  -49.1
 0.155  0.6669  -72.2  59.533  144.7  0.0173   59.5  0.8658  -50.3
 0.160  0.6662  -73.9  58.906  143.9  0.0177   58.7  0.8581  -51.6
 0.165  0.6660  -75.6  58.290  143.0  0.0180   57.9  0.8508  -52.9
 0.170  0.6665  -77.3  57.688  142.2  0.0184   57.1  0.8439  -54.2
 0.175  0.6675  -79.0  57.099  141.3  0.0188   56.4  0.8375  -55.5
 0.180  0.6692  -80.7  56.523  140.4  0.0191   55.7  0.8315  -56.9
 0.185  0.6714  -82.4  55.961  139.5  0.0195   55.0  0.8260  -58.2
 0.190  0.6742  -84.1  55.413  138.6  0.0199   54.3  0.8210  -59.6
 0.195  0.6776  -85.8  54.880  137.7  0.0202   53.7  0.8165  -61.0
 0.200  0.6815  -87.4  54.362  136.7  0.0206   53.1  0.8124  -62.4
 0.220  0.6810  -92.7  52.140  134.1  0.0217   50.7  0.7859  -66.8
 0.240  0.6863  -98.0  50.037  131.2  0.0227   48.6  0.7645  -71.6
 0.260  0.6908 -102.9  48.017  128.6  0.0237   46.6  0.7441  -75.9
 0.280  0.6934 -107.5  46.042  126.1  0.0245   44.8  0.7233  -79.9
 0.300  0.7005 -112.0  44.157  123.5  0.0253   43.1  0.7062  -84.1
 0.320  0.7007 -115.6  42.410  121.7  0.0259   41.7  0.6877  -87.5
 0.340  0.7038 -119.2  40.710  119.7  0.0265   40.3  0.6717  -91.1
 0.360  0.7064 -122.5  39.138  117.8  0.0270   39.0  0.6571  -94.5
 0.380  0.7081 -125.5  37.680  116.1  0.0275   37.9  0.6432  -97.5
 0.400  0.7117 -128.5  36.258  114.2  0.0280   36.8  0.6311 -100.7
 0.420  0.7124 -131.1  34.992  112.8  0.0284   35.9  0.6189 -103.4
 0.440  0.7144 -133.6  33.749  111.3  0.0288   34.9  0.6082 -106.3
 0.450  0.7160 -134.9  33.136  110.5  0.0290   34.5  0.6034 -107.7
 0.460  0.7162 -136.0  32.585  109.9  0.0292   34.1  0.5983 -108.9
 0.480  0.7173 -138.2  31.495  108.6  0.0295   33.4  0.5888 -111.4
 0.500  0.7195 -140.4  30.421  107.3  0.0298   32.7  0.5805 -113.9
 0.520  0.7193 -142.2  29.527  106.3  0.0301   32.1  0.5723 -115.9
 0.540  0.7199 -144.0  28.642  105.3  0.0303   31.6  0.5648 -118.0
 0.560  0.7211 -145.8  27.766  104.3  0.0306   31.1  0.5581 -120.1
 0.580  0.7231 -147.5  26.901  103.1  0.0308   30.5  0.5522 -122.3
 0.600  0.7257 -149.3  26.047  101.9  0.0311   30.0  0.5471 -124.5
 0.620  0.7258 -150.7  25.369  101.1  0.0313   29.6  0.5417 -126.2
 0.640  0.7264 -152.1  24.696  100.2  0.0315   29.3  0.5367 -127.9
 0.660  0.7273 -153.5  24.029   99.3  0.0316   28.9  0.5323 -129.6
 0.680  0.7288 -154.9  23.368   98.4  0.0318   28.6  0.5283 -131.3
 0.700  0.7306 -156.3  22.714   97.4  0.0320   28.2  0.5248 -133.1
 0.720  0.7309 -157.5  22.184   96.7  0.0322   28.0  0.5211 -134.5
 0.740  0.7314 -158.6  21.657   96.0  0.0324   27.7  0.5177 -136.0
 0.760  0.7323 -159.8  21.134   95.2  0.0325   27.5  0.5146 -137.5
 0.780  0.7334 -160.9  20.614   94.4  0.0327   27.2  0.5119 -139.0
 0.800  0.7349 -162.1  20.099   93.6  0.0329   27.0  0.5096 -140.5
 0.820  0.7352 -163.1  19.676   93.0  0.0331   26.8  0.5072 -141.7
 0.840  0.7357 -164.0  19.255   92.4  0.0333   26.7  0.5050 -142.9
 0.860  0.7364 -165.0  18.836   91.7  0.0334   26.5  0.5030 -144.1
 0.880  0.7373 -165.9  18.420   91.0  0.0336   26.4  0.5012 -145.4
 0.900  0.7384 -166.9  18.007   90.3  0.0338   26.2  0.4997 -146.6
 0.920  0.7385 -167.8  17.655   89.7  0.0340   26.1  0.4980 -147.7
 0.940  0.7388 -168.7  17.305   89.2  0.0341   26.0  0.4964 -148.8
 0.960  0.7393 -169.5  16.956   88.6  0.0343   25.9  0.4951 -149.9
 0.980  0.7399 -170.4  16.610   88.0  0.0344   25.8  0.4939 -151.0
 1.000  0.7407 -171.3  16.265   87.3  0.0346   25.7  0.4929 -152.1
 1.020  0.7413 -172.0  15.985   86.8  0.0347   25.6  0.4917 -153.0
 1.040  0.7420 -172.7  15.706   86.3  0.0349   25.5  0.4907 -154.0
 1.060  0.7428 -173.5  15.428   85.7  0.0350   25.5  0.4897 -154.9
 1.080  0.7437 -174.2  15.152   85.2  0.0352   25.4  0.4890 -155.9
 1.100  0.7448 -174.9  14.877   84.6  0.0353   25.3  0.4883 -156.8
 1.120  0.7451 -175.6  14.629   84.1  0.0355   25.2  0.4876 -157.6
 1.140  0.7456 -176.3  14.382   83.6  0.0356   25.1  0.4869 -158.5
 1.160  0.7462 -177.1  14.136   83.0  0.0358   25.1  0.4864 -159.3
 1.180  0.7469 -177.8  13.892   82.5  0.0359   25.0  0.4860 -160.2
 1.200  0.7477 -178.5  13.649   81.9  0.0361   24.9  0.4857 -161.0
 1.220  0.7480 -179.1  13.445   81.4  0.0362   24.9  0.4851 -161.8
 1.240  0.7485 -179.8  13.241   81.0  0.0364   24.8  0.4846 -162.5
 1.260  0.7490  179.6  13.039   80.5  0.0365   24.8  0.4842 -163.3
 1.280  0.7496  178.9  12.838   80.0  0.0367   24.7  0.4838 -164.0
 1.300  0.7503  178.3  12.637   79.5  0.0368   24.7  0.4836 -164.8
 1.320  0.7506  177.7  12.454   79.0  0.0370   24.7  0.4833 -165.5
 1.340  0.7510  177.1  12.272   78.6  0.0371   24.6  0.4831 -166.2
 1.360  0.7515  176.6  12.090   78.1  0.0373   24.6  0.4830 -166.9
 1.380  0.7521  176.0  11.910   77.6  0.0374   24.5  0.4829 -167.6
 1.400  0.7527  175.4  11.730   77.1  0.0376   24.5  0.4829 -168.3
 1.420  0.7532  174.9  11.576   76.7  0.0378   24.5  0.4827 -168.9
 1.440  0.7538  174.3  11.422   76.3  0.0379   24.4  0.4826 -169.6
 1.460  0.7544  173.8  11.270   75.8  0.0381   24.4  0.4826 -170.2
 1.480  0.7551  173.2  11.117   75.4  0.0382   24.3  0.4826 -170.9
 1.500  0.7559  172.7  10.966   74.9  0.0384   24.3  0.4827 -171.5
 1.520  0.7563  172.2  10.828   74.5  0.0386   24.3  0.4826 -172.1
 1.540  0.7568  171.7  10.690   74.1  0.0387   24.2  0.4826 -172.7
 1.560  0.7573  171.2  10.553   73.6  0.0389   24.2  0.4826 -173.2
 1.580  0.7579  170.7  10.416   73.2  0.0390   24.1  0.4827 -173.8
 1.600  0.7585  170.2  10.280   72.7  0.0392   24.1  0.4828 -174.4
 1.620  0.7588  169.7  10.158   72.3  0.0394   24.1  0.4828 -175.0
 1.640  0.7591  169.2  10.037   71.9  0.0395   24.0  0.4828 -175.5
 1.660  0.7595  168.7   9.917   71.5  0.0397   24.0  0.4829 -176.1
 1.680  0.7599  168.2   9.797   71.0  0.0398   23.9  0.4830 -176.6
 1.700  0.7604  167.7   9.677   70.6  0.0400   23.9  0.4832 -177.2
 1.720  0.7608  167.2   9.565   70.2  0.0402   23.9  0.4832 -177.7
 1.740  0.7612  166.7   9.454   69.8  0.0403   23.8  0.4832 -178.2
 1.760  0.7616  166.3   9.343   69.4  0.0405   23.8  0.4833 -178.8
 1.780  0.7621  165.8   9.233   68.9  0.0406   23.7  0.4834 -179.3
 1.800  0.7627  165.3   9.123   68.5  0.0408   23.7  0.4836 -179.8
 1.820  0.7630  164.9   9.022   68.1  0.0410   23.7  0.4838  179.7
 1.840  0.7633  164.4   8.922   67.7  0.0411   23.6  0.4840  179.2
 1.860  0.7636  164.0   8.822   67.3  0.0413   23.6  0.4843  178.6
 1.880  0.7641  163.5   8.722   66.9  0.0414   23.5  0.4846  178.1
 1.900  0.7645  163.1   8.623   66.5  0.0416   23.5  0.4849  177.6
 1.920  0.7647  162.7   8.534   66.1  0.0418   23.4  0.4849  177.1
 1.940  0.7649  162.2   8.446   65.7  0.0420   23.4  0.4850  176.6
 1.960  0.7652  161.8   8.358   65.3  0.0421   23.3  0.4851  176.2
 1.980  0.7655  161.3   8.271   64.9  0.0423   23.3  0.4852  175.7
 2.000  0.7659  160.9   8.184   64.5  0.0425   23.2  0.4854  175.2
 2.020  0.7660  160.5   8.104   64.1  0.0427   23.1  0.4855  174.7
 2.040  0.7662  160.0   8.025   63.7  0.0428   23.1  0.4856  174.3
 2.060  0.7664  159.6   7.946   63.4  0.0430   23.0  0.4857  173.8
 2.080  0.7667  159.1   7.867   63.0  0.0431   23.0  0.4859  173.4
 2.100  0.7670  158.7   7.789   62.6  0.0433   22.9  0.4861  172.9
 2.120  0.7673  158.3   7.711   62.1  0.0435   22.8  0.4863  172.4
 2.140  0.7677  157.8   7.633   61.7  0.0436   22.8  0.4866  172.0
 2.160  0.7682  157.4   7.556   61.3  0.0438   22.7  0.4869  171.5
 2.180  0.7687  156.9   7.479   60.8  0.0439   22.7  0.4872  171.1
 2.200  0.7692  156.5   7.403   60.4  0.0441   22.6  0.4876  170.6
 2.220  0.7692  156.1   7.335   60.1  0.0443   22.5  0.4878  170.1
 2.240  0.7693  155.7   7.268   59.7  0.0444   22.5  0.4880  169.7
 2.260  0.7695  155.3   7.201   59.4  0.0446   22.4  0.4882  169.2
 2.280  0.7696  154.9   7.134   59.0  0.0447   22.4  0.4885  168.8
 2.300  0.7698  154.5   7.067   58.7  0.0449   22.3  0.4888  168.3
 2.320  0.7700  154.2   7.001   58.3  0.0451   22.3  0.4891  167.9
 2.340  0.7703  153.8   6.935   58.0  0.0452   22.2  0.4895  167.4
 2.360  0.7706  153.4   6.869   57.6  0.0454   22.2  0.4898  167.0
 2.380  0.7709  153.0   6.803   57.2  0.0455   22.1  0.4903  166.5
 2.400  0.7713  152.6   6.738   56.8  0.0457   22.1  0.4907  166.1
 2.420  0.7714  152.2   6.680   56.5  0.0458   22.0  0.4910  165.7
 2.440  0.7714  151.8   6.621   56.1  0.0460   22.0  0.4913  165.3
 2.460  0.7716  151.5   6.563   55.8  0.0461   21.9  0.4917  164.8
 2.480  0.7717  151.1   6.506   55.4  0.0463   21.8  0.4920  164.4
 2.500  0.7719  150.7   6.448   55.0  0.0464   21.7  0.4924  164.0
 2.520  0.7722  150.3   6.391   54.7  0.0466   21.7  0.4928  163.6
 2.540  0.7724  149.9   6.334   54.3  0.0467   21.6  0.4933  163.2
 2.560  0.7727  149.6   6.277   53.9  0.0469   21.5  0.4938  162.7
 2.580  0.7730  149.2   6.221   53.5  0.0470   21.5  0.4943  162.3
 2.600  0.7734  148.8   6.165   53.1  0.0472   21.4  0.4948  161.9
 2.620  0.7736  148.4   6.116   52.8  0.0474   21.3  0.4952  161.5
 2.640  0.7739  148.1   6.068   52.5  0.0475   21.3  0.4956  161.1
 2.660  0.7742  147.7   6.019   52.1  0.0477   21.2  0.4961  160.7
 2.680  0.7745  147.4   5.971   51.8  0.0479   21.1  0.4966  160.3
 2.700  0.7748  147.0   5.923   51.5  0.0480   21.0  0.4971  159.9
 2.720  0.7752  146.6   5.876   51.1  0.0482   21.0  0.4976  159.6
 2.740  0.7756  146.3   5.828   50.8  0.0484   20.9  0.4981  159.2
 2.760  0.7760  145.9   5.781   50.4  0.0486   20.8  0.4987  158.8
 2.780  0.7765  145.6   5.734   50.1  0.0487   20.8  0.4993  158.4
 2.800  0.7770  145.2   5.687   49.7  0.0489   20.7  0.4999  158.0
 2.820  0.7772  144.9   5.644   49.4  0.0491   20.6  0.5004  157.6
 2.840  0.7775  144.5   5.602   49.0  0.0492   20.5  0.5008  157.3
 2.860  0.7777  144.2   5.559   48.7  0.0494   20.5  0.5013  156.9
 2.880  0.7780  143.8   5.517   48.4  0.0495   20.4  0.5019  156.6
 2.900  0.7784  143.5   5.475   48.0  0.0497   20.3  0.5024  156.2
 2.920  0.7787  143.2   5.433   47.7  0.0499   20.2  0.5030  155.8
 2.940  0.7791  142.8   5.392   47.3  0.0500   20.1  0.5035  155.5
 2.960  0.7795  142.5   5.350   46.9  0.0502   20.1  0.5041  155.1
 2.980  0.7799  142.1   5.309   46.6  0.0503   20.0  0.5048  154.8
 3.000  0.7804  141.8   5.268   46.2  0.0505   19.9  0.5054  154.4
 3.100  0.7815  140.0   5.086   44.7  0.0513   19.3  0.5082  152.8
 3.200  0.7834  138.2   4.908   43.2  0.0520   18.8  0.5114  151.1
 3.300  0.7860  136.5   4.734   41.5  0.0528   18.3  0.5150  149.5
 3.400  0.7893  134.7   4.565   39.7  0.0536   17.8  0.5190  148.0
 3.500  0.7934  133.0   4.400   37.7  0.0544   17.3  0.5234  146.4
 3.600  0.7956  131.5   4.260   36.3  0.0550   16.7  0.5275  145.0
 3.700  0.7984  130.0   4.122   34.8  0.0557   16.1  0.5319  143.6
 3.800  0.8017  128.5   3.987   33.2  0.0564   15.6  0.5366  142.2
 3.900  0.8056  127.0   3.856   31.5  0.0570   15.0  0.5416  140.8
 4.000  0.8100  125.5   3.728   29.7  0.0577   14.5  0.5469  139.5
 4.100  0.8118  124.3   3.620   28.4  0.0583   14.0  0.5511  138.3
 4.200  0.8140  123.0   3.513   27.1  0.0589   13.4  0.5555  137.2
 4.300  0.8166  121.8   3.408   25.7  0.0595   12.9  0.5602  136.0
 4.400  0.8195  120.6   3.306   24.2  0.0602   12.4  0.5650  134.9
 4.500  0.8228  119.4   3.206   22.6  0.0608   11.9  0.5701  133.8
 4.600  0.8234  118.3   3.122   21.3  0.0615   11.3  0.5725  132.8
 4.700  0.8242  117.2   3.040   20.0  0.0622   10.8  0.5751  131.8
 4.800  0.8254  116.2   2.959   18.6  0.0629   10.2  0.5779  130.8
 4.900  0.8269  115.1   2.880   17.2  0.0636    9.7  0.5808  129.8
 5.000  0.8286  114.0   2.803   15.6  0.0643    9.2  0.5839  128.8
 5.100  0.8279  112.9   2.734   14.4  0.0649    8.6  0.5845  127.6
 5.200  0.8275  111.7   2.666   13.1  0.0656    7.9  0.5854  126.5
 5.300  0.8275  110.6   2.599   11.8  0.0662    7.3  0.5865  125.3
 5.400  0.8278  109.4   2.534   10.4  0.0668    6.7  0.5879  124.2
 5.500  0.8284  108.3   2.470    8.9  0.0675    6.1  0.5895  123.0
 5.600  0.8284  107.4   2.415    7.8  0.0681    5.5  0.5905  121.7
 5.700  0.8286  106.5   2.361    6.6  0.0688    4.9  0.5918  120.5
 5.800  0.8291  105.5   2.308    5.4  0.0695    4.4  0.5933  119.3
 5.900  0.8297  104.6   2.256    4.1  0.0701    3.8  0.5952  118.0
 6.000  0.8306  103.7   2.205    2.7  0.0708    3.3  0.5973  116.8
 6.100  0.8325  102.9   2.165    1.5  0.0715    2.6  0.5997  115.8
 6.200  0.8345  102.0   2.126    0.3  0.0722    1.8  0.6023  114.8
 6.300  0.8367  101.2   2.087   -0.9  0.0730    1.1  0.6051  113.8
 6.400  0.8391  100.3   2.050   -2.2  0.0737    0.4  0.6080  112.9
 6.500  0.8417   99.5   2.014   -3.6  0.0745   -0.3  0.6111  111.9
 6.600  0.8437   98.5   1.979   -4.9  0.0752   -1.2  0.6141  111.1
 6.800  0.8486   96.4   1.911   -7.7  0.0767   -2.9  0.6205  109.5
 7.000  0.8546   94.4   1.849  -10.7  0.0783   -4.5  0.6274  107.9
 7.200  0.8584   92.0   1.778  -13.6  0.0792   -6.5  0.6353  105.9
 7.400  0.8636   89.7   1.711  -16.8  0.0803   -8.5  0.6439  104.0
 7.600  0.8676   87.3   1.643  -19.8  0.0810  -10.5  0.6529  101.7
 7.800  0.8705   84.8   1.571  -22.6  0.0815  -12.4  0.6625   99.2
 8.000  0.8750   82.3   1.504  -25.6  0.0820  -14.3  0.6734   96.8
 8.200  0.8771   79.9   1.437  -28.1  0.0819  -16.1  0.6804   94.2
 8.400  0.8808   77.5   1.374  -30.8  0.0820  -18.0  0.6888   91.6
 8.600  0.8836   75.1   1.313  -33.3  0.0817  -19.8  0.6952   88.9
 8.800  0.8857   72.7   1.254  -35.6  0.0813  -21.7  0.6997   86.3
 9.000  0.8892   70.4   1.197  -38.2  0.0809  -23.6  0.7058   83.6
 9.200  0.8935   68.5   1.140  -40.2  0.0800  -24.9  0.7131   81.4
 9.400  0.8989   66.5   1.084  -42.3  0.0792  -26.3  0.7214   79.2
 9.600  0.9053   65.0   1.036  -44.2  0.0784  -27.5  0.7338   77.4
 9.800  0.9124   63.9   0.995  -45.6  0.0777  -28.5  0.7496   76.0
10.000  0.9199   62.8   0.955  -47.2  0.0770  -29.5  0.7659   74.6
!
!  f       NFmin   Gammaopt  rn/50
! GHz       dB    MAG  ANG    -
 0.450      1.08  0.19 -168   0.47
 0.900      1.11  0.25 -161   0.24
 1.500      1.13  0.36 -155   0.09
 1.900      1.14  0.39 -150   0.08
 2.400      1.15  0.40 -143   0.09
 3.500      1.38  0.41 -127   0.10
!
! (c) 2016  Infineon Technologies AG, Munich
