! Infineon Technologies  Discrete & RF Semiconductors
! BFP760
! VCE =  3.5 V,  IC =  2.0 mA
! Common Emitter S-Parameters:                            Nov 2012
# GHz  S  MA  R  50
!  f         S11            S21            S12            S22
! GHz     MAG   ANG      MAG   ANG      MAG   ANG      MAG   ANG
 0.030  0.9824   -1.8   6.880  178.6  0.0020   80.5  1.0000   -1.3
 0.040  0.9824   -2.2   6.863  178.3  0.0034   86.7  0.9995   -1.6
 0.050  0.9814   -2.7   6.942  177.4  0.0038   97.8  0.9974   -1.7
 0.060  0.9812   -3.2   6.923  177.1  0.0053   84.4  0.9989   -2.1
 0.070  0.9808   -3.7   6.948  176.6  0.0059   83.0  0.9981   -2.5
 0.080  0.9809   -4.3   6.943  176.3  0.0073   86.4  0.9993   -2.8
 0.090  0.9814   -4.8   6.958  175.8  0.0075   88.9  0.9984   -3.2
 0.100  0.9806   -5.3   6.964  175.5  0.0085   86.8  0.9983   -3.5
 0.110  0.9802   -5.8   6.957  175.0  0.0093   85.9  0.9983   -3.9
 0.120  0.9795   -6.4   6.962  174.7  0.0102   86.0  0.9982   -4.2
 0.130  0.9797   -6.9   6.926  174.2  0.0111   85.5  0.9974   -4.6
 0.140  0.9790   -7.4   6.921  173.9  0.0117   85.5  0.9969   -4.9
 0.150  0.9790   -8.0   6.901  173.4  0.0126   86.4  0.9962   -5.3
 0.200  0.9771  -10.6   6.871  171.4  0.0166   82.6  0.9945   -7.0
 0.250  0.9753  -13.2   6.844  169.4  0.0210   80.9  0.9913   -8.8
 0.300  0.9727  -15.8   6.820  167.2  0.0251   79.3  0.9892  -10.5
 0.350  0.9695  -18.4   6.799  165.2  0.0294   77.5  0.9861  -12.2
 0.400  0.9665  -21.1   6.788  163.2  0.0333   75.6  0.9803  -13.9
 0.450  0.9636  -23.6   6.726  161.2  0.0375   74.1  0.9778  -15.5
 0.500  0.9592  -26.2   6.711  159.3  0.0414   72.1  0.9715  -17.3
 0.600  0.9510  -31.4   6.622  155.3  0.0492   68.6  0.9600  -20.7
 0.700  0.9422  -36.4   6.545  151.6  0.0568   65.3  0.9477  -24.0
 0.800  0.9321  -41.7   6.495  147.8  0.0638   61.9  0.9336  -27.3
 0.900  0.9216  -46.7   6.396  144.1  0.0707   58.4  0.9176  -30.5
 1.000  0.9103  -51.6   6.270  140.5  0.0769   55.1  0.9010  -33.7
 1.100  0.8986  -56.4   6.151  137.0  0.0830   51.9  0.8836  -36.8
 1.200  0.8868  -61.1   6.013  133.4  0.0883   48.8  0.8658  -39.8
 1.300  0.8752  -65.9   5.900  130.1  0.0934   45.8  0.8477  -42.8
 1.400  0.8651  -70.5   5.762  126.9  0.0983   43.0  0.8302  -45.6
 1.500  0.8539  -75.1   5.661  123.7  0.1026   40.2  0.8118  -48.4
 1.600  0.8433  -80.0   5.608  120.4  0.1067   37.6  0.7951  -51.1
 1.700  0.8333  -84.4   5.475  117.3  0.1103   34.9  0.7766  -53.8
 1.800  0.8258  -88.8   5.368  114.4  0.1140   32.3  0.7608  -56.7
 1.900  0.8174  -93.0   5.236  111.5  0.1171   29.8  0.7434  -59.3
 2.000  0.8098  -97.2   5.131  108.6  0.1202   27.4  0.7275  -62.0
 2.100  0.8022 -101.6   5.011  105.4  0.1228   24.7  0.7106  -64.7
 2.200  0.7945 -105.7   4.902  102.7  0.1248   22.3  0.6940  -67.3
 2.300  0.7873 -109.6   4.791  100.0  0.1270   20.0  0.6784  -69.7
 2.400  0.7814 -113.6   4.685   97.3  0.1287   17.7  0.6629  -72.4
 2.500  0.7751 -117.3   4.571   94.6  0.1305   15.5  0.6490  -74.7
 2.600  0.7686 -121.2   4.471   92.0  0.1316   13.4  0.6316  -77.2
 2.700  0.7624 -124.9   4.369   89.4  0.1330   11.3  0.6182  -79.5
 2.800  0.7572 -128.8   4.280   86.8  0.1336    9.2  0.6023  -82.1
 2.900  0.7520 -132.5   4.186   84.3  0.1346    7.2  0.5896  -84.6
 3.000  0.7472 -136.1   4.097   81.7  0.1350    5.1  0.5756  -87.1
 3.100  0.7419 -139.8   4.018   79.1  0.1354    3.1  0.5628  -89.7
 3.200  0.7374 -143.3   3.931   76.7  0.1355    1.3  0.5503  -92.0
 3.300  0.7339 -146.7   3.836   74.3  0.1353   -0.6  0.5381  -94.6
 3.400  0.7307 -150.1   3.751   71.8  0.1351   -2.6  0.5266  -97.1
 3.500  0.7285 -153.3   3.662   69.6  0.1347   -4.3  0.5163  -99.5
 3.600  0.7254 -156.5   3.577   67.2  0.1341   -6.2  0.5061 -102.0
 3.700  0.7235 -159.6   3.490   64.9  0.1335   -7.9  0.4970 -104.5
 3.800  0.7209 -162.7   3.405   62.6  0.1324   -9.6  0.4880 -107.1
 3.900  0.7199 -165.5   3.323   60.5  0.1315  -11.2  0.4805 -109.5
 4.000  0.7184 -168.4   3.242   58.3  0.1304  -12.9  0.4737 -112.0
 4.100  0.7186 -171.0   3.162   56.2  0.1292  -14.5  0.4682 -114.4
 4.200  0.7178 -173.6   3.081   54.1  0.1276  -15.9  0.4623 -116.7
 4.300  0.7173 -176.1   3.003   52.0  0.1265  -17.4  0.4581 -119.0
 4.400  0.7179 -178.6   2.930   50.1  0.1247  -18.7  0.4539 -121.3
 4.500  0.7186  179.1   2.860   48.1  0.1235  -20.1  0.4515 -123.4
 4.600  0.7193  176.9   2.794   46.2  0.1217  -21.5  0.4484 -125.5
 4.700  0.7200  174.9   2.724   44.3  0.1200  -22.7  0.4460 -127.7
 4.800  0.7210  172.9   2.660   42.5  0.1181  -23.9  0.4441 -129.7
 4.900  0.7223  171.0   2.597   40.7  0.1165  -25.1  0.4429 -131.7
 5.000  0.7238  169.2   2.540   38.9  0.1148  -26.2  0.4420 -133.7
 5.100  0.7254  167.5   2.480   37.2  0.1130  -27.3  0.4418 -135.6
 5.200  0.7268  165.8   2.427   35.5  0.1111  -28.3  0.4413 -137.5
 5.300  0.7280  164.2   2.369   33.8  0.1093  -29.4  0.4410 -139.3
 5.400  0.7294  162.6   2.318   32.1  0.1075  -30.4  0.4410 -141.3
 5.500  0.7298  161.2   2.265   30.5  0.1056  -31.3  0.4415 -142.9
 5.600  0.7306  159.8   2.216   28.9  0.1036  -32.1  0.4408 -144.8
 5.700  0.7316  158.5   2.170   27.3  0.1018  -33.0  0.4424 -146.7
 5.800  0.7322  157.1   2.125   25.7  0.0998  -33.7  0.4425 -148.5
 5.900  0.7338  155.9   2.081   24.2  0.0981  -34.4  0.4440 -150.4
 6.000  0.7353  154.6   2.041   22.6  0.0962  -35.1  0.4449 -152.3
 6.100  0.7372  153.5   2.001   21.1  0.0945  -35.6  0.4478 -154.2
 6.200  0.7382  152.1   1.965   19.5  0.0927  -36.3  0.4494 -156.0
 6.300  0.7402  151.0   1.925   18.0  0.0910  -36.8  0.4515 -157.8
 6.400  0.7419  149.6   1.889   16.4  0.0893  -37.4  0.4542 -159.8
 6.500  0.7439  148.3   1.852   14.8  0.0876  -37.9  0.4568 -161.6
 6.600  0.7464  147.0   1.820   13.3  0.0861  -38.5  0.4593 -163.5
 6.700  0.7479  145.9   1.782   11.8  0.0845  -38.9  0.4621 -165.3
 6.800  0.7487  144.5   1.751   10.3  0.0827  -39.3  0.4646 -167.2
 6.900  0.7516  143.2   1.716    8.7  0.0812  -39.7  0.4683 -169.1
 7.000  0.7537  141.9   1.688    7.2  0.0795  -40.1  0.4715 -170.9
 7.100  0.7559  140.6   1.657    5.7  0.0781  -40.4  0.4761 -172.8
 7.200  0.7587  139.2   1.628    4.1  0.0764  -40.7  0.4800 -174.6
 7.300  0.7608  137.9   1.597    2.7  0.0750  -40.9  0.4838 -176.5
 7.400  0.7638  136.4   1.570    1.0  0.0734  -41.2  0.4875 -178.4
 7.500  0.7677  135.0   1.543   -0.5  0.0720  -41.4  0.4923  179.8
 7.600  0.7708  133.6   1.516   -2.1  0.0705  -41.6  0.4960  177.9
 7.700  0.7739  132.2   1.488   -3.6  0.0689  -41.7  0.4999  176.2
 7.800  0.7778  130.7   1.460   -5.3  0.0674  -41.8  0.5047  174.2
 7.900  0.7810  129.4   1.434   -6.9  0.0661  -41.9  0.5095  172.4
 8.000  0.7857  127.9   1.405   -8.5  0.0645  -41.9  0.5143  170.4
 8.500  0.8058  121.0   1.263  -16.8  0.0573  -41.4  0.5412  160.5
 9.000  0.8240  114.9   1.114  -24.5  0.0508  -38.4  0.5777  150.8
 9.500  0.8423  110.2   0.968  -30.9  0.0457  -33.2  0.6196  142.7
10.000  0.8595  107.2   0.844  -35.4  0.0434  -25.9  0.6641  137.2
!
!  f       NFmin   Gammaopt  rn/50
! GHz       dB    MAG  ANG    -
 0.900      0.46  0.62   27   0.22
 1.800      0.60  0.52   57   0.18
 2.400      0.73  0.48   77   0.16
 3.500      0.93  0.42  109   0.14
 5.500      1.34  0.44 -164   0.08
 8.000      2.21  0.57 -108   0.43
!
! (c) 2012  Infineon Technologies AG, Munich
