! Infineon Technologies  Discrete & RF Semiconductors
! BFP720
! VCE =  2.0 V,  IC =  6.0 mA
! Common Emitter S-Parameters:                            Aug 2012
# GHz  S  MA  R  50
!  f         S11            S21            S12            S22
! GHz     MAG   ANG      MAG   ANG      MAG   ANG      MAG   ANG
 0.010  0.9240    0.2  16.551 -179.9  0.0004    2.5  0.9831    0.9
 0.020  0.9266   -0.9  16.495  178.6  0.0008   99.4  0.9974   -0.6
 0.030  0.9264   -1.4  16.561  178.3  0.0012   91.4  0.9974   -0.9
 0.040  0.9262   -1.9  16.629  177.9  0.0016   87.6  0.9974   -1.3
 0.050  0.9262   -2.4  16.698  177.5  0.0020   85.3  0.9975   -1.6
 0.060  0.9261   -2.9  16.682  177.1  0.0024   85.8  0.9974   -2.0
 0.070  0.9261   -3.3  16.667  176.7  0.0028   86.1  0.9974   -2.3
 0.080  0.9261   -3.8  16.653  176.4  0.0031   86.4  0.9974   -2.7
 0.090  0.9263   -4.3  16.640  176.0  0.0035   86.6  0.9975   -3.0
 0.100  0.9265   -4.8  16.627  175.6  0.0039   86.7  0.9976   -3.4
 0.110  0.9258   -5.3  16.623  175.2  0.0043   86.5  0.9973   -3.7
 0.120  0.9252   -5.8  16.619  174.8  0.0046   86.3  0.9969   -4.1
 0.130  0.9247   -6.3  16.617  174.4  0.0050   86.2  0.9967   -4.4
 0.140  0.9243   -6.8  16.615  174.0  0.0053   86.0  0.9964   -4.7
 0.150  0.9239   -7.3  16.615  173.5  0.0057   85.9  0.9962   -5.0
 0.200  0.9212   -9.6  16.493  171.5  0.0076   84.9  0.9938   -6.7
 0.250  0.9182  -12.0  16.444  169.5  0.0096   82.9  0.9913   -8.4
 0.300  0.9145  -14.4  16.327  167.6  0.0113   81.4  0.9872  -10.1
 0.350  0.9105  -16.8  16.244  165.7  0.0132   79.9  0.9837  -11.8
 0.400  0.9070  -19.2  16.178  163.9  0.0151   78.3  0.9787  -13.5
 0.450  0.9023  -21.6  16.054  162.0  0.0169   77.0  0.9745  -15.1
 0.500  0.8973  -24.0  15.972  160.2  0.0188   75.5  0.9693  -16.7
 0.600  0.8871  -28.7  15.799  156.7  0.0223   72.6  0.9569  -20.0
 0.700  0.8762  -33.6  15.616  153.2  0.0258   69.7  0.9446  -23.3
 0.800  0.8629  -38.7  15.556  149.7  0.0293   66.9  0.9313  -26.6
 0.900  0.8508  -43.5  15.331  146.2  0.0325   64.0  0.9148  -29.8
 1.000  0.8371  -48.4  15.112  142.8  0.0356   61.1  0.8974  -33.1
 1.100  0.8232  -53.2  14.877  139.4  0.0386   58.3  0.8786  -36.2
 1.200  0.8078  -58.1  14.646  135.9  0.0413   55.6  0.8589  -39.3
 1.300  0.7929  -63.0  14.407  132.5  0.0440   52.9  0.8386  -42.5
 1.400  0.7777  -67.8  14.129  129.2  0.0464   50.3  0.8170  -45.3
 1.500  0.7627  -72.6  13.880  125.9  0.0486   47.7  0.7946  -48.2
 1.600  0.7453  -77.6  13.701  122.4  0.0507   45.2  0.7732  -51.0
 1.700  0.7303  -82.2  13.381  119.3  0.0525   42.8  0.7506  -53.8
 1.800  0.7170  -86.5  13.075  116.2  0.0542   40.5  0.7298  -56.4
 1.900  0.7025  -90.8  12.763  113.2  0.0557   38.3  0.7093  -58.9
 2.000  0.6912  -94.9  12.443  110.4  0.0571   36.2  0.6892  -61.4
 2.100  0.6782  -98.7  12.128  107.7  0.0582   34.2  0.6696  -63.6
 2.200  0.6685 -102.7  11.842  104.9  0.0594   32.3  0.6509  -65.9
 2.300  0.6582 -106.3  11.536  102.4  0.0604   30.4  0.6337  -68.1
 2.400  0.6507 -109.9  11.253   99.7  0.0614   28.6  0.6175  -70.4
 2.500  0.6405 -113.4  10.979   97.3  0.0621   27.0  0.6012  -72.3
 2.600  0.6328 -116.9  10.725   94.8  0.0629   25.4  0.5857  -74.4
 2.700  0.6249 -120.2  10.469   92.5  0.0635   23.8  0.5711  -76.4
 2.800  0.6193 -123.7  10.231   90.1  0.0642   22.3  0.5572  -78.5
 2.900  0.6109 -126.9   9.991   87.9  0.0647   20.9  0.5437  -80.4
 3.000  0.6045 -130.2   9.766   85.6  0.0653   19.6  0.5308  -82.4
 3.100  0.5949 -133.3   9.541   83.6  0.0655   18.3  0.5169  -84.2
 3.200  0.5871 -136.6   9.327   81.5  0.0658   17.0  0.5035  -86.0
 3.300  0.5813 -140.0   9.126   79.3  0.0661   15.7  0.4906  -88.0
 3.400  0.5775 -143.4   8.939   77.1  0.0665   14.5  0.4784  -90.1
 3.500  0.5758 -146.8   8.767   74.7  0.0669   13.2  0.4668  -92.3
 3.600  0.5682 -150.1   8.571   72.8  0.0669   12.1  0.4538  -94.2
 3.700  0.5626 -153.5   8.385   70.9  0.0671   11.0  0.4414  -96.3
 3.800  0.5589 -156.9   8.210   68.8  0.0672    9.9  0.4295  -98.5
 3.900  0.5572 -160.3   8.045   66.7  0.0673    8.9  0.4184 -100.8
 4.000  0.5576 -163.8   7.892   64.4  0.0675    7.8  0.4079 -103.2
 4.100  0.5530 -167.2   7.719   62.6  0.0674    6.8  0.3957 -105.6
 4.200  0.5502 -170.5   7.554   60.8  0.0674    5.9  0.3841 -108.1
 4.300  0.5495 -174.0   7.397   58.8  0.0673    4.9  0.3734 -110.7
 4.400  0.5507 -177.4   7.249   56.8  0.0673    3.9  0.3634 -113.5
 4.500  0.5538  179.2   7.111   54.6  0.0673    3.0  0.3544 -116.4
 4.600  0.5535  176.7   6.951   52.9  0.0670    2.1  0.3449 -119.1
 4.700  0.5543  174.1   6.797   51.2  0.0668    1.3  0.3362 -121.9
 4.800  0.5563  171.5   6.650   49.3  0.0666    0.5  0.3284 -124.8
 4.900  0.5594  169.0   6.511   47.4  0.0663   -0.3  0.3214 -127.9
 5.000  0.5635  166.5   6.380   45.3  0.0661   -1.1  0.3154 -131.1
 5.100  0.5647  164.3   6.241   43.8  0.0658   -1.7  0.3106 -133.5
 5.200  0.5666  162.1   6.106   42.2  0.0654   -2.3  0.3064 -136.0
 5.300  0.5693  160.0   5.977   40.6  0.0651   -3.0  0.3028 -138.6
 5.400  0.5729  157.9   5.852   38.8  0.0647   -3.6  0.2998 -141.2
 5.500  0.5771  155.8   5.734   37.0  0.0644   -4.2  0.2974 -143.9
 5.600  0.5786  154.2   5.619   35.6  0.0640   -4.6  0.2966 -145.6
 5.700  0.5805  152.6   5.507   34.1  0.0636   -5.0  0.2961 -147.3
 5.800  0.5829  151.0   5.400   32.6  0.0632   -5.4  0.2959 -149.0
 5.900  0.5857  149.4   5.296   31.0  0.0628   -5.8  0.2959 -150.7
 6.000  0.5890  147.8   5.197   29.4  0.0624   -6.2  0.2962 -152.5
 6.100  0.5887  146.5   5.101   28.0  0.0621   -6.4  0.2960 -153.3
 6.200  0.5887  145.2   5.009   26.6  0.0618   -6.5  0.2958 -154.1
 6.300  0.5890  143.9   4.919   25.2  0.0615   -6.6  0.2957 -155.0
 6.400  0.5896  142.6   4.833   23.7  0.0612   -6.7  0.2957 -155.8
 6.500  0.5905  141.3   4.750   22.2  0.0609   -6.9  0.2957 -156.6
 6.600  0.5888  140.1   4.673   20.9  0.0608   -6.8  0.2934 -157.0
 6.700  0.5873  138.9   4.597   19.6  0.0607   -6.8  0.2912 -157.3
 6.800  0.5861  137.7   4.525   18.2  0.0606   -6.7  0.2890 -157.7
 6.900  0.5851  136.5   4.455   16.8  0.0605   -6.7  0.2868 -158.0
 7.000  0.5844  135.3   4.387   15.4  0.0604   -6.6  0.2846 -158.4
 7.100  0.5839  134.0   4.329   14.1  0.0607   -6.7  0.2818 -159.1
 7.200  0.5837  132.7   4.273   12.7  0.0610   -6.7  0.2790 -159.8
 7.300  0.5839  131.3   4.219   11.3  0.0613   -6.7  0.2763 -160.5
 7.400  0.5844  130.0   4.168    9.9  0.0616   -6.7  0.2737 -161.3
 7.500  0.5852  128.6   4.120    8.5  0.0618   -6.7  0.2711 -162.0
 7.600  0.5867  126.9   4.068    7.0  0.0621   -7.0  0.2670 -166.7
 7.700  0.5888  125.1   4.019    5.4  0.0624   -7.3  0.2648 -171.4
 7.800  0.5915  123.4   3.974    3.9  0.0627   -7.6  0.2644 -176.2
 7.900  0.5946  121.6   3.931    2.3  0.0630   -7.9  0.2658  179.0
 8.000  0.5984  119.9   3.891    0.6  0.0633   -8.2  0.2691  174.3
 8.500  0.6218  110.0   3.612   -7.8  0.0640   -9.6  0.2705  158.7
 9.000  0.6540  101.0   3.322  -15.7  0.0653  -10.6  0.2988  143.1
 9.500  0.6978   93.5   3.041  -23.3  0.0666  -12.5  0.3492  130.2
10.000  0.7400   87.1   2.751  -30.6  0.0668  -14.7  0.4083  120.1
10.500  0.7629   82.6   2.467  -36.1  0.0669  -15.4  0.4593  113.1
11.000  0.7786   80.9   2.283  -40.2  0.0687  -15.9  0.5003  109.1
11.500  0.8111   80.4   2.168  -45.5  0.0714  -17.6  0.5449  106.8
12.000  0.8398   78.6   2.033  -52.2  0.0726  -20.5  0.5878  104.1
!
!  f       NFmin   Gammaopt  rn/50
! GHz       dB    MAG  ANG    -
 0.450      0.43  0.44    3   0.13
 1.800      0.51  0.42   24   0.13
 2.400      0.55  0.30   55   0.23
 5.500      0.69  0.20   58   0.14
10.000      0.95  0.39  -89   0.21
!
! (c) 2012  Infineon Technologies AG, Munich
