! Infineon Technologies  Discrete & RF Semiconductors
! BFP720
! VCE =  0.5 V,  IC =  5.0 mA
! Common Emitter S-Parameters:                            Aug 2012
# GHz  S  MA  R  50
!  f         S11            S21            S12            S22
! GHz     MAG   ANG      MAG   ANG      MAG   ANG      MAG   ANG
 0.010  0.9326   -0.3  13.990 -179.6  0.0009  -22.8  0.9828    0.6
 0.020  0.9406   -1.1  14.054  178.9  0.0015   93.4  0.9948   -0.8
 0.030  0.9393   -1.7  14.121  178.5  0.0020   90.8  0.9944   -1.3
 0.040  0.9381   -2.3  14.190  178.0  0.0026   89.4  0.9941   -1.8
 0.050  0.9370   -3.0  14.259  177.5  0.0032   88.5  0.9939   -2.2
 0.060  0.9367   -3.5  14.253  177.1  0.0038   87.7  0.9939   -2.7
 0.070  0.9365   -4.1  14.248  176.6  0.0045   87.2  0.9940   -3.2
 0.080  0.9364   -4.6  14.243  176.2  0.0052   86.8  0.9942   -3.6
 0.090  0.9365   -5.2  14.239  175.8  0.0058   86.4  0.9944   -4.1
 0.100  0.9365   -5.7  14.236  175.4  0.0065   86.2  0.9947   -4.5
 0.110  0.9359   -6.3  14.231  174.9  0.0072   85.9  0.9942   -5.0
 0.120  0.9353   -6.9  14.226  174.4  0.0078   85.6  0.9937   -5.4
 0.130  0.9348   -7.4  14.223  173.9  0.0084   85.4  0.9932   -5.9
 0.140  0.9345   -8.0  14.220  173.4  0.0091   85.2  0.9929   -6.3
 0.150  0.9342   -8.6  14.219  172.9  0.0097   85.1  0.9925   -6.7
 0.200  0.9310  -11.4  14.116  170.7  0.0129   83.2  0.9900   -9.0
 0.250  0.9267  -14.2  14.065  168.4  0.0161   81.3  0.9869  -11.2
 0.300  0.9227  -16.9  13.971  166.3  0.0194   79.7  0.9819  -13.5
 0.350  0.9179  -19.8  13.877  164.1  0.0225   78.0  0.9780  -15.7
 0.400  0.9134  -22.6  13.807  162.1  0.0257   76.2  0.9714  -18.0
 0.450  0.9084  -25.2  13.722  160.1  0.0287   74.5  0.9667  -20.2
 0.500  0.9011  -28.2  13.591  157.9  0.0318   72.8  0.9598  -22.4
 0.600  0.8902  -33.6  13.428  154.1  0.0378   69.4  0.9441  -26.8
 0.700  0.8776  -39.3  13.229  150.2  0.0437   65.9  0.9288  -31.4
 0.800  0.8646  -45.0  13.150  146.4  0.0492   62.6  0.9124  -35.7
 0.900  0.8507  -50.5  12.904  142.6  0.0544   59.3  0.8920  -40.1
 1.000  0.8356  -56.2  12.666  138.8  0.0596   55.9  0.8704  -44.6
 1.100  0.8208  -61.8  12.412  135.1  0.0642   52.7  0.8478  -48.9
 1.200  0.8052  -67.2  12.182  131.5  0.0684   49.6  0.8247  -53.0
 1.300  0.7909  -72.7  11.950  127.8  0.0725   46.5  0.8004  -57.3
 1.400  0.7764  -77.9  11.676  124.3  0.0762   43.5  0.7752  -61.3
 1.500  0.7615  -83.3  11.421  120.8  0.0794   40.7  0.7503  -65.2
 1.600  0.7458  -88.8  11.215  117.2  0.0823   37.9  0.7261  -69.1
 1.700  0.7304  -94.0  10.882  113.9  0.0850   35.2  0.7009  -73.0
 1.800  0.7177  -98.7  10.582  110.7  0.0874   32.7  0.6791  -76.6
 1.900  0.7054 -103.1  10.306  107.7  0.0894   30.2  0.6575  -80.1
 2.000  0.6952 -107.4  10.016  104.8  0.0913   27.9  0.6367  -83.6
 2.100  0.6837 -111.5   9.718  102.1  0.0928   25.7  0.6165  -86.7
 2.200  0.6757 -115.7   9.445   99.2  0.0945   23.6  0.5981  -90.0
 2.300  0.6667 -119.4   9.163   96.6  0.0957   21.5  0.5808  -93.1
 2.400  0.6607 -123.2   8.901   93.9  0.0970   19.6  0.5653  -96.4
 2.500  0.6528 -126.7   8.665   91.5  0.0979   17.7  0.5498  -99.2
 2.600  0.6474 -130.3   8.445   89.0  0.0989   15.9  0.5356 -102.2
 2.700  0.6413 -133.7   8.219   86.7  0.0997   14.2  0.5217 -105.1
 2.800  0.6374 -137.1   8.007   84.2  0.1005   12.5  0.5091 -108.1
 2.900  0.6311 -140.3   7.801   82.1  0.1011   10.9  0.4967 -110.9
 3.000  0.6267 -143.6   7.608   79.7  0.1017    9.3  0.4856 -113.8
 3.100  0.6187 -146.8   7.412   77.8  0.1019    7.8  0.4722 -116.5
 3.200  0.6126 -150.0   7.225   75.7  0.1021    6.3  0.4599 -119.3
 3.300  0.6086 -153.4   7.048   73.5  0.1024    4.8  0.4489 -122.3
 3.400  0.6066 -156.7   6.881   71.2  0.1028    3.3  0.4391 -125.4
 3.500  0.6068 -160.1   6.727   68.8  0.1033    1.9  0.4306 -128.6
 3.600  0.6008 -163.4   6.561   67.0  0.1032    0.5  0.4194 -131.6
 3.700  0.5968 -166.7   6.403   65.0  0.1031   -0.8  0.4094 -134.8
 3.800  0.5949 -170.0   6.253   62.9  0.1032   -2.1  0.4006 -138.1
 3.900  0.5949 -173.4   6.112   60.8  0.1032   -3.4  0.3933 -141.5
 4.000  0.5970 -176.7   5.979   58.5  0.1033   -4.7  0.3874 -145.0
 4.100  0.5942 -179.7   5.833   56.8  0.1030   -5.9  0.3789 -148.5
 4.200  0.5930  177.2   5.692   54.9  0.1027   -7.2  0.3717 -152.0
 4.300  0.5935  174.2   5.558   53.0  0.1024   -8.4  0.3661 -155.7
 4.400  0.5956  171.2   5.431   50.9  0.1022   -9.7  0.3620 -159.5
 4.500  0.5994  168.2   5.310   48.8  0.1021  -10.9  0.3595 -163.4
 4.600  0.5991  165.6   5.178   47.2  0.1014  -11.9  0.3553 -166.7
 4.700  0.6000  163.1   5.051   45.5  0.1008  -13.0  0.3524 -170.1
 4.800  0.6021  160.6   4.928   43.7  0.1002  -14.1  0.3506 -173.5
 4.900  0.6053  158.1   4.810   41.8  0.0996  -15.1  0.3501 -176.9
 5.000  0.6097  155.6   4.697   39.8  0.0991  -16.2  0.3509  179.6
 5.100  0.6108  153.6   4.587   38.4  0.0984  -17.1  0.3513  177.4
 5.200  0.6126  151.7   4.481   36.9  0.0976  -17.9  0.3522  175.2
 5.300  0.6150  149.8   4.377   35.3  0.0969  -18.8  0.3536  172.9
 5.400  0.6182  147.9   4.276   33.7  0.0962  -19.6  0.3555  170.7
 5.500  0.6220  146.0   4.180   32.0  0.0956  -20.5  0.3580  168.6
 5.600  0.6230  144.6   4.092   30.7  0.0948  -21.2  0.3585  166.8
 5.700  0.6244  143.2   4.006   29.3  0.0941  -21.8  0.3594  165.0
 5.800  0.6262  141.8   3.922   27.9  0.0934  -22.5  0.3607  163.2
 5.900  0.6284  140.3   3.841   26.4  0.0927  -23.2  0.3623  161.4
 6.000  0.6309  138.9   3.763   24.9  0.0920  -23.9  0.3642  159.6
 6.100  0.6302  137.7   3.692   23.6  0.0913  -24.3  0.3633  158.4
 6.200  0.6298  136.5   3.622   22.3  0.0907  -24.8  0.3626  157.1
 6.300  0.6296  135.3   3.554   21.0  0.0901  -25.3  0.3620  155.8
 6.400  0.6297  134.1   3.489   19.6  0.0895  -25.7  0.3617  154.5
 6.500  0.6301  132.9   3.425   18.1  0.0889  -26.2  0.3615  153.2
 6.600  0.6283  131.8   3.369   16.9  0.0885  -26.5  0.3591  152.0
 6.700  0.6267  130.7   3.315   15.6  0.0882  -26.9  0.3568  150.9
 6.800  0.6253  129.6   3.262   14.3  0.0878  -27.3  0.3547  149.7
 6.900  0.6241  128.4   3.211   13.0  0.0875  -27.6  0.3528  148.5
 7.000  0.6233  127.3   3.161   11.6  0.0872  -28.0  0.3510  147.3
 7.100  0.6229  126.0   3.118   10.3  0.0871  -28.5  0.3497  145.8
 7.200  0.6229  124.7   3.076    9.0  0.0872  -28.9  0.3486  144.2
 7.300  0.6232  123.4   3.036    7.6  0.0872  -29.4  0.3478  142.7
 7.400  0.6239  122.0   2.998    6.1  0.0872  -29.9  0.3473  141.2
 7.500  0.6248  120.7   2.962    4.7  0.0872  -30.3  0.3470  139.6
 7.600  0.6267  119.0   2.920    3.2  0.0870  -31.1  0.3479  137.3
 7.700  0.6291  117.3   2.880    1.6  0.0869  -31.8  0.3494  135.1
 7.800  0.6321  115.5   2.842    0.0  0.0867  -32.6  0.3514  132.9
 7.900  0.6357  113.8   2.807   -1.6  0.0866  -33.3  0.3540  130.7
 8.000  0.6398  112.2   2.774   -3.3  0.0865  -34.1  0.3571  128.5
 8.500  0.6610  102.6   2.538  -11.5  0.0833  -37.6  0.3806  116.2
 9.000  0.6885   93.9   2.303  -18.8  0.0802  -39.6  0.4189  106.3
 9.500  0.7240   87.0   2.083  -25.6  0.0776  -41.5  0.4657   99.0
10.000  0.7561   81.1   1.869  -31.7  0.0743  -43.2  0.5119   93.2
10.500  0.7713   77.4   1.681  -35.9  0.0717  -43.3  0.5458   89.3
11.000  0.7824   76.2   1.573  -39.2  0.0715  -43.2  0.5708   87.5
11.500  0.8113   75.9   1.502  -44.1  0.0721  -44.5  0.6010   86.7
12.000  0.8333   74.4   1.408  -50.3  0.0711  -46.8  0.6280   85.0
!
!  f       NFmin   Gammaopt  rn/50
! GHz       dB    MAG  ANG    -
 0.450      0.39  0.49    4   0.18
 1.800      0.49  0.47   25   0.14
 2.400      0.53  0.34   60   0.19
 5.500      0.68  0.22   65   0.13
10.000      0.97  0.40  -93   0.22
!
! (c) 2012  Infineon Technologies AG, Munich
