! Infineon Technologies  Discrete & RF Semiconductors
! BFP720F
! VCE =  2.0 V,  IC =  20 mA
! Common Emitter S-Parameters:                            Jan 2016
# GHz  S  MA  R  50
!  f         S11            S21            S12            S22
! GHz     MAG   ANG      MAG   ANG      MAG   ANG      MAG   ANG
 0.010  0.7149   -0.4  37.242  179.4  0.0003   31.6  0.9487    2.3
 0.015  0.7200   -1.2  37.395  178.2  0.0005   80.8  0.9664    0.7
 0.020  0.7252   -1.9  37.563  177.1  0.0009   95.4  0.9849   -0.9
 0.025  0.7247   -2.5  37.589  176.9  0.0010   94.9  0.9855   -1.1
 0.030  0.7242   -3.1  37.615  176.7  0.0012   94.5  0.9861   -1.3
 0.035  0.7238   -3.6  37.642  176.4  0.0013   94.2  0.9867   -1.6
 0.040  0.7235   -4.2  37.669  176.2  0.0015   94.0  0.9874   -1.8
 0.045  0.7233   -4.8  37.697  176.0  0.0016   93.8  0.9880   -2.0
 0.050  0.7231   -5.4  37.725  175.8  0.0018   93.6  0.9887   -2.2
 0.055  0.7228   -5.9  37.702  175.4  0.0020   92.0  0.9885   -2.5
 0.060  0.7225   -6.4  37.680  175.0  0.0021   90.7  0.9884   -2.8
 0.065  0.7223   -7.0  37.660  174.6  0.0023   89.5  0.9883   -3.1
 0.070  0.7222   -7.5  37.643  174.2  0.0025   88.5  0.9883   -3.4
 0.075  0.7221   -8.0  37.627  173.8  0.0026   87.7  0.9882   -3.7
 0.080  0.7221   -8.5  37.612  173.4  0.0028   86.9  0.9882   -4.0
 0.085  0.7221   -9.0  37.600  173.0  0.0030   86.2  0.9882   -4.3
 0.090  0.7222   -9.6  37.590  172.6  0.0032   85.6  0.9882   -4.6
 0.095  0.7224  -10.1  37.581  172.2  0.0033   85.1  0.9883   -4.9
 0.100  0.7226  -10.6  37.574  171.8  0.0035   84.6  0.9884   -5.2
 0.105  0.7218  -11.1  37.493  171.4  0.0037   84.3  0.9876   -5.5
 0.110  0.7211  -11.7  37.413  171.1  0.0038   84.0  0.9869   -5.8
 0.115  0.7205  -12.2  37.335  170.7  0.0040   83.7  0.9862   -6.1
 0.120  0.7199  -12.7  37.258  170.3  0.0041   83.4  0.9855   -6.4
 0.125  0.7194  -13.2  37.183  169.9  0.0043   83.2  0.9848   -6.6
 0.130  0.7190  -13.8  37.110  169.5  0.0045   83.0  0.9841   -6.9
 0.135  0.7186  -14.3  37.038  169.2  0.0046   82.7  0.9835   -7.2
 0.140  0.7183  -14.8  36.968  168.8  0.0048   82.6  0.9829   -7.5
 0.145  0.7180  -15.4  36.900  168.4  0.0049   82.4  0.9823   -7.8
 0.150  0.7178  -15.9  36.833  168.0  0.0051   82.2  0.9818   -8.1
 0.155  0.7173  -16.4  36.769  167.7  0.0053   81.9  0.9807   -8.4
 0.160  0.7169  -16.9  36.707  167.3  0.0054   81.6  0.9796   -8.6
 0.165  0.7165  -17.4  36.646  167.0  0.0056   81.3  0.9785   -8.9
 0.170  0.7162  -17.9  36.586  166.7  0.0057   81.0  0.9775   -9.2
 0.175  0.7160  -18.4  36.527  166.4  0.0059   80.8  0.9764   -9.4
 0.180  0.7158  -18.9  36.469  166.0  0.0061   80.5  0.9754   -9.7
 0.185  0.7156  -19.4  36.413  165.7  0.0062   80.3  0.9744  -10.0
 0.190  0.7155  -19.9  36.358  165.4  0.0064   80.1  0.9735  -10.3
 0.195  0.7155  -20.4  36.304  165.0  0.0065   79.9  0.9725  -10.5
 0.200  0.7155  -20.9  36.251  164.7  0.0067   79.7  0.9716  -10.8
 0.220  0.7127  -22.9  36.016  163.4  0.0073   78.9  0.9674  -11.8
 0.240  0.7108  -24.9  35.798  162.1  0.0080   78.2  0.9635  -12.9
 0.260  0.7093  -26.8  35.570  160.9  0.0086   77.3  0.9585  -13.9
 0.280  0.7081  -28.7  35.329  159.8  0.0093   76.3  0.9525  -15.0
 0.300  0.7077  -30.6  35.102  158.7  0.0099   75.4  0.9467  -16.0
 0.320  0.7046  -32.6  34.791  157.6  0.0105   74.6  0.9420  -17.0
 0.340  0.7024  -34.6  34.493  156.4  0.0111   73.8  0.9375  -18.0
 0.360  0.6999  -36.6  34.233  155.3  0.0117   73.0  0.9322  -19.0
 0.380  0.6972  -38.5  34.007  154.2  0.0122   72.0  0.9260  -20.0
 0.400  0.6952  -40.4  33.794  153.1  0.0128   71.1  0.9201  -21.0
 0.420  0.6932  -42.1  33.567  152.1  0.0134   70.2  0.9145  -21.9
 0.440  0.6918  -43.8  33.350  151.0  0.0139   69.3  0.9091  -22.8
 0.450  0.6913  -44.6  33.246  150.5  0.0142   68.9  0.9065  -23.2
 0.460  0.6895  -45.6  33.100  150.0  0.0145   68.4  0.9032  -23.7
 0.480  0.6866  -47.5  32.814  149.0  0.0150   67.6  0.8967  -24.6
 0.500  0.6844  -49.4  32.539  148.0  0.0156   66.8  0.8905  -25.5
 0.520  0.6808  -51.1  32.307  147.0  0.0161   65.9  0.8832  -26.4
 0.540  0.6778  -52.8  32.083  146.0  0.0166   65.1  0.8761  -27.3
 0.560  0.6754  -54.6  31.870  145.0  0.0171   64.3  0.8693  -28.2
 0.580  0.6736  -56.3  31.667  144.0  0.0176   63.5  0.8626  -29.1
 0.600  0.6725  -58.1  31.473  143.0  0.0181   62.8  0.8562  -30.0
 0.620  0.6687  -59.8  31.183  142.1  0.0186   62.0  0.8492  -30.8
 0.640  0.6654  -61.5  30.900  141.2  0.0190   61.2  0.8423  -31.6
 0.660  0.6628  -63.2  30.626  140.2  0.0195   60.5  0.8356  -32.4
 0.680  0.6607  -64.9  30.360  139.3  0.0199   59.8  0.8291  -33.2
 0.700  0.6592  -66.6  30.103  138.3  0.0204   59.1  0.8227  -34.0
 0.720  0.6561  -68.2  29.864  137.4  0.0208   58.4  0.8153  -34.8
 0.740  0.6536  -69.8  29.632  136.5  0.0212   57.7  0.8080  -35.5
 0.760  0.6515  -71.4  29.407  135.6  0.0216   57.0  0.8009  -36.3
 0.780  0.6499  -73.0  29.189  134.7  0.0220   56.3  0.7939  -37.1
 0.800  0.6489  -74.6  28.979  133.8  0.0224   55.7  0.7871  -37.9
 0.820  0.6458  -76.1  28.720  133.0  0.0227   55.0  0.7797  -38.6
 0.840  0.6431  -77.6  28.466  132.2  0.0231   54.4  0.7724  -39.3
 0.860  0.6408  -79.1  28.218  131.3  0.0234   53.7  0.7652  -40.0
 0.880  0.6390  -80.6  27.977  130.5  0.0238   53.1  0.7581  -40.7
 0.900  0.6376  -82.1  27.742  129.6  0.0241   52.5  0.7511  -41.4
 0.920  0.6348  -83.5  27.483  128.8  0.0244   51.9  0.7438  -42.1
 0.940  0.6324  -85.0  27.229  128.0  0.0247   51.3  0.7366  -42.7
 0.960  0.6304  -86.5  26.980  127.2  0.0250   50.7  0.7295  -43.4
 0.980  0.6289  -87.9  26.737  126.4  0.0253   50.1  0.7226  -44.1
 1.000  0.6277  -89.4  26.499  125.6  0.0256   49.5  0.7157  -44.8
 1.020  0.6251  -90.7  26.254  124.9  0.0259   49.0  0.7088  -45.4
 1.040  0.6228  -92.1  26.013  124.2  0.0262   48.4  0.7021  -46.0
 1.060  0.6209  -93.4  25.777  123.4  0.0264   47.9  0.6954  -46.6
 1.080  0.6193  -94.7  25.545  122.7  0.0267   47.4  0.6887  -47.2
 1.100  0.6180  -96.1  25.317  121.9  0.0270   46.9  0.6822  -47.8
 1.120  0.6158  -97.3  25.096  121.2  0.0272   46.4  0.6756  -48.4
 1.140  0.6139  -98.6  24.879  120.6  0.0274   45.9  0.6691  -49.0
 1.160  0.6122  -99.9  24.664  119.9  0.0277   45.4  0.6626  -49.6
 1.180  0.6109 -101.1  24.454  119.2  0.0279   44.9  0.6562  -50.2
 1.200  0.6099 -102.4  24.247  118.5  0.0281   44.4  0.6499  -50.8
 1.220  0.6080 -103.6  24.024  117.8  0.0283   44.0  0.6436  -51.3
 1.240  0.6063 -104.8  23.805  117.2  0.0285   43.5  0.6373  -51.8
 1.260  0.6048 -106.0  23.589  116.5  0.0287   43.1  0.6311  -52.4
 1.280  0.6037 -107.2  23.376  115.8  0.0289   42.7  0.6249  -52.9
 1.300  0.6028 -108.4  23.167  115.1  0.0291   42.3  0.6188  -53.5
 1.320  0.6013 -109.5  22.958  114.5  0.0293   41.9  0.6131  -54.0
 1.340  0.6000 -110.6  22.752  113.9  0.0295   41.4  0.6074  -54.5
 1.360  0.5989 -111.7  22.549  113.3  0.0296   41.0  0.6018  -55.0
 1.380  0.5980 -112.9  22.348  112.6  0.0298   40.6  0.5962  -55.5
 1.400  0.5974 -114.0  22.150  112.0  0.0300   40.2  0.5907  -56.0
 1.420  0.5959 -115.1  21.950  111.4  0.0301   39.8  0.5851  -56.5
 1.440  0.5946 -116.1  21.753  110.8  0.0303   39.5  0.5795  -56.9
 1.460  0.5935 -117.2  21.557  110.2  0.0304   39.1  0.5739  -57.4
 1.480  0.5926 -118.3  21.364  109.6  0.0306   38.8  0.5684  -57.9
 1.500  0.5919 -119.4  21.174  109.0  0.0307   38.4  0.5629  -58.4
 1.520  0.5910 -120.3  20.992  108.5  0.0308   38.1  0.5580  -58.8
 1.540  0.5902 -121.2  20.812  107.9  0.0310   37.8  0.5532  -59.2
 1.560  0.5896 -122.2  20.634  107.4  0.0311   37.4  0.5484  -59.6
 1.580  0.5892 -123.1  20.457  106.9  0.0313   37.1  0.5436  -60.1
 1.600  0.5889 -124.0  20.283  106.3  0.0314   36.8  0.5388  -60.5
 1.620  0.5880 -124.9  20.101  105.8  0.0315   36.5  0.5339  -60.9
 1.640  0.5872 -125.9  19.921  105.2  0.0316   36.2  0.5290  -61.4
 1.660  0.5866 -126.8  19.743  104.7  0.0317   35.9  0.5242  -61.8
 1.680  0.5862 -127.8  19.567  104.2  0.0318   35.6  0.5194  -62.2
 1.700  0.5859 -128.7  19.392  103.6  0.0319   35.3  0.5146  -62.7
 1.720  0.5854 -129.5  19.222  103.1  0.0320   35.0  0.5105  -63.1
 1.740  0.5850 -130.3  19.054  102.6  0.0321   34.8  0.5064  -63.5
 1.760  0.5847 -131.2  18.887  102.1  0.0322   34.5  0.5024  -63.9
 1.780  0.5845 -132.0  18.722  101.6  0.0323   34.3  0.4984  -64.3
 1.800  0.5845 -132.8  18.558  101.1  0.0324   34.0  0.4944  -64.7
 1.820  0.5838 -133.6  18.402  100.6  0.0325   33.8  0.4904  -65.1
 1.840  0.5833 -134.4  18.248  100.2  0.0326   33.5  0.4864  -65.4
 1.860  0.5828 -135.1  18.095   99.7  0.0327   33.3  0.4824  -65.8
 1.880  0.5824 -135.9  17.943   99.2  0.0328   33.0  0.4784  -66.2
 1.900  0.5822 -136.7  17.793   98.7  0.0329   32.8  0.4745  -66.6
 1.920  0.5821 -137.4  17.650   98.3  0.0330   32.6  0.4710  -66.9
 1.940  0.5820 -138.0  17.508   97.8  0.0330   32.4  0.4675  -67.2
 1.960  0.5820 -138.7  17.368   97.4  0.0331   32.2  0.4640  -67.5
 1.980  0.5821 -139.3  17.228   97.0  0.0331   32.0  0.4605  -67.9
 2.000  0.5823 -140.0  17.089   96.5  0.0332   31.8  0.4570  -68.2
 2.020  0.5821 -140.6  16.951   96.1  0.0333   31.6  0.4539  -68.5
 2.040  0.5820 -141.2  16.815   95.7  0.0333   31.4  0.4509  -68.8
 2.060  0.5820 -141.9  16.679   95.3  0.0334   31.2  0.4478  -69.1
 2.080  0.5820 -142.5  16.543   94.9  0.0334   31.0  0.4448  -69.4
 2.100  0.5821 -143.1  16.409   94.5  0.0335   30.8  0.4418  -69.7
 2.120  0.5823 -143.7  16.276   94.1  0.0336   30.7  0.4388  -70.1
 2.140  0.5825 -144.3  16.143   93.6  0.0336   30.5  0.4358  -70.4
 2.160  0.5828 -145.0  16.011   93.2  0.0337   30.3  0.4328  -70.7
 2.180  0.5832 -145.6  15.881   92.8  0.0337   30.1  0.4298  -71.1
 2.200  0.5836 -146.2  15.751   92.3  0.0338   29.9  0.4269  -71.4
 2.220  0.5836 -146.7  15.631   91.9  0.0338   29.8  0.4244  -71.7
 2.240  0.5836 -147.2  15.512   91.6  0.0339   29.6  0.4218  -72.0
 2.260  0.5837 -147.8  15.393   91.2  0.0339   29.5  0.4193  -72.2
 2.280  0.5838 -148.3  15.275   90.8  0.0340   29.3  0.4168  -72.5
 2.300  0.5839 -148.8  15.158   90.5  0.0340   29.2  0.4143  -72.8
 2.320  0.5842 -149.3  15.041   90.1  0.0341   29.1  0.4118  -73.1
 2.340  0.5844 -149.8  14.925   89.7  0.0341   28.9  0.4093  -73.4
 2.360  0.5847 -150.4  14.810   89.3  0.0342   28.8  0.4068  -73.7
 2.380  0.5851 -150.9  14.695   88.9  0.0342   28.6  0.4044  -74.0
 2.400  0.5855 -151.4  14.581   88.5  0.0343   28.5  0.4019  -74.3
 2.420  0.5856 -151.8  14.477   88.2  0.0343   28.4  0.3998  -74.5
 2.440  0.5857 -152.3  14.373   87.8  0.0344   28.3  0.3977  -74.7
 2.460  0.5858 -152.7  14.270   87.5  0.0344   28.2  0.3956  -75.0
 2.480  0.5860 -153.2  14.168   87.1  0.0344   28.1  0.3935  -75.2
 2.500  0.5862 -153.6  14.066   86.8  0.0344   27.9  0.3915  -75.4
 2.520  0.5865 -154.0  13.965   86.4  0.0345   27.8  0.3894  -75.7
 2.540  0.5867 -154.5  13.864   86.0  0.0345   27.7  0.3873  -75.9
 2.560  0.5871 -154.9  13.764   85.7  0.0345   27.6  0.3853  -76.1
 2.580  0.5874 -155.4  13.664   85.3  0.0346   27.5  0.3832  -76.4
 2.600  0.5878 -155.8  13.565   84.9  0.0346   27.4  0.3812  -76.6
 2.620  0.5877 -156.1  13.472   84.6  0.0346   27.3  0.3795  -76.8
 2.640  0.5877 -156.5  13.379   84.3  0.0347   27.3  0.3778  -76.9
 2.660  0.5876 -156.9  13.286   84.0  0.0347   27.2  0.3762  -77.1
 2.680  0.5876 -157.2  13.194   83.7  0.0348   27.2  0.3745  -77.3
 2.700  0.5876 -157.6  13.102   83.4  0.0348   27.1  0.3728  -77.5
 2.720  0.5877 -157.9  13.011   83.0  0.0348   27.1  0.3711  -77.7
 2.740  0.5877 -158.3  12.920   82.7  0.0349   27.0  0.3695  -77.8
 2.760  0.5878 -158.6  12.830   82.4  0.0349   27.0  0.3678  -78.0
 2.780  0.5879 -159.0  12.740   82.0  0.0350   26.9  0.3662  -78.2
 2.800  0.5880 -159.3  12.650   81.7  0.0350   26.9  0.3645  -78.4
 2.820  0.5883 -159.6  12.570   81.4  0.0351   26.8  0.3633  -78.6
 2.840  0.5886 -159.9  12.490   81.1  0.0351   26.8  0.3621  -78.8
 2.860  0.5889 -160.3  12.411   80.8  0.0352   26.7  0.3610  -79.0
 2.880  0.5892 -160.6  12.332   80.5  0.0352   26.7  0.3598  -79.2
 2.900  0.5895 -160.9  12.253   80.2  0.0353   26.6  0.3586  -79.4
 2.920  0.5899 -161.2  12.175   79.9  0.0354   26.6  0.3575  -79.6
 2.940  0.5903 -161.5  12.097   79.6  0.0354   26.5  0.3563  -79.8
 2.960  0.5907 -161.9  12.019   79.3  0.0355   26.5  0.3552  -80.0
 2.980  0.5911 -162.2  11.942   79.0  0.0355   26.4  0.3540  -80.2
 3.000  0.5915 -162.5  11.865   78.7  0.0356   26.4  0.3529  -80.4
 3.100  0.5917 -163.6  11.530   77.5  0.0358   26.2  0.3483  -81.0
 3.200  0.5921 -164.7  11.200   76.2  0.0361   26.0  0.3437  -81.6
 3.300  0.5928 -165.8  10.877   74.8  0.0363   25.8  0.3392  -82.3
 3.400  0.5936 -166.9  10.560   73.3  0.0366   25.6  0.3347  -82.9
 3.500  0.5947 -168.0  10.250   71.8  0.0368   25.4  0.3303  -83.6
 3.600  0.5907 -170.9   9.998   70.6  0.0371   25.3  0.3269  -83.9
 3.700  0.5883 -173.9   9.751   69.4  0.0373   25.2  0.3235  -84.3
 3.800  0.5876 -176.9   9.508   68.2  0.0376   25.2  0.3201  -84.7
 3.900  0.5884 -179.9   9.270   66.8  0.0378   25.1  0.3167  -85.0
 4.000  0.5908  177.1   9.037   65.4  0.0381   25.0  0.3133  -85.4
 4.100  0.5904  175.9   8.844   64.3  0.0384   25.0  0.3107  -85.7
 4.200  0.5904  174.6   8.654   63.2  0.0387   25.0  0.3081  -86.0
 4.300  0.5906  173.4   8.468   62.0  0.0391   24.9  0.3055  -86.3
 4.400  0.5910  172.1   8.285   60.7  0.0394   24.9  0.3030  -86.7
 4.500  0.5918  170.9   8.107   59.4  0.0397   24.9  0.3004  -87.0
 4.600  0.5913  169.7   7.952   58.3  0.0401   24.9  0.2979  -87.4
 4.700  0.5910  168.6   7.801   57.2  0.0404   24.8  0.2954  -87.7
 4.800  0.5909  167.4   7.652   56.1  0.0408   24.8  0.2930  -88.1
 4.900  0.5911  166.3   7.507   54.9  0.0411   24.7  0.2905  -88.5
 5.000  0.5915  165.1   7.365   53.6  0.0415   24.7  0.2881  -88.9
 5.100  0.5904  163.9   7.238   52.5  0.0419   24.6  0.2857  -89.3
 5.200  0.5896  162.7   7.115   51.4  0.0423   24.5  0.2833  -89.8
 5.300  0.5890  161.5   6.994   50.2  0.0428   24.4  0.2810  -90.3
 5.400  0.5887  160.3   6.876   49.0  0.0432   24.3  0.2786  -90.7
 5.500  0.5887  159.1   6.761   47.7  0.0436   24.2  0.2763  -91.2
 5.600  0.5876  157.8   6.655   46.6  0.0441   24.1  0.2748  -91.8
 5.700  0.5868  156.6   6.552   45.4  0.0446   23.9  0.2734  -92.5
 5.800  0.5863  155.3   6.452   44.2  0.0450   23.8  0.2720  -93.2
 5.900  0.5861  154.1   6.355   42.9  0.0455   23.6  0.2706  -93.8
 6.000  0.5861  152.8   6.261   41.6  0.0460   23.5  0.2693  -94.5
 6.100  0.5847  151.3   6.166   40.4  0.0465   23.2  0.2670  -95.4
 6.200  0.5837  149.9   6.074   39.2  0.0469   23.0  0.2647  -96.4
 6.300  0.5830  148.4   5.985   37.9  0.0474   22.7  0.2626  -97.4
 6.400  0.5828  147.0   5.898   36.6  0.0478   22.4  0.2605  -98.4
 6.500  0.5829  145.5   5.815   35.3  0.0483   22.2  0.2585  -99.4
 6.600  0.5817  143.9   5.725   34.1  0.0488   21.9  0.2549 -100.6
 6.800  0.5805  140.6   5.554   31.6  0.0497   21.3  0.2482 -103.1
 7.000  0.5813  137.4   5.394   28.9  0.0506   20.8  0.2419 -105.8
 7.200  0.5837  133.8   5.229   26.5  0.0515   20.1  0.2317 -109.4
 7.400  0.5883  130.3   5.074   23.9  0.0524   19.3  0.2224 -113.2
 7.600  0.5949  126.8   4.924   21.3  0.0533   18.5  0.2123 -117.9
 7.800  0.6036  123.3   4.778   18.7  0.0542   17.7  0.2019 -123.5
 8.000  0.6145  119.9   4.641   16.0  0.0550   16.8  0.1937 -129.6
 8.200  0.6275  116.5   4.481   13.5  0.0555   15.8  0.1837 -138.9
 8.400  0.6427  113.2   4.330   10.7  0.0560   14.9  0.1789 -148.9
 8.600  0.6577  110.2   4.176    8.2  0.0565   14.0  0.1767 -160.4
 8.800  0.6721  107.5   4.014    5.8  0.0568   13.3  0.1792 -172.9
 9.000  0.6880  104.9   3.860    3.3  0.0571   12.6  0.1899  175.4
 9.200  0.7030  103.1   3.719    1.4  0.0575   12.0  0.2018  166.9
 9.400  0.7187  101.4   3.582   -0.7  0.0579   11.3  0.2175  159.5
 9.600  0.7346  100.0   3.453   -2.7  0.0582   10.7  0.2365  153.2
 9.800  0.7503   98.9   3.331   -4.6  0.0585   10.0  0.2581  148.0
10.000  0.7664   97.8   3.214   -6.7  0.0587    9.3  0.2814  143.6
!
!  f       NFmin   Gammaopt  rn/50
! GHz       dB    MAG  ANG    -
 0.450      0.86  0.16    0   0.43
 0.900      0.89  0.09   -6   0.15
 1.800      0.92  0.07  -52   0.15
 2.400      0.94  0.08  -58   0.15
 5.500      1.06  0.08  -60   0.14
10.000      1.24  0.38  -81   0.26
!
! (c) 2016  Infineon Technologies AG, Munich
