! Infineon Technologies  Discrete & RF Semiconductors
! BFP750
! VCE =  2.5 V,  IC =  5.0 mA
! Common Emitter S-Parameters:                            Jan 2016
# GHz  S  MA  R  50
!  f         S11            S21            S12            S22
! GHz     MAG   ANG      MAG   ANG      MAG   ANG      MAG   ANG
 0.030  0.9492   -4.1  15.359  177.2  0.0046   87.0  0.9979   -3.0
 0.035  0.9494   -4.8  15.373  176.7  0.0054   86.7  0.9976   -3.5
 0.040  0.9498   -5.4  15.389  176.2  0.0063   86.5  0.9973   -4.0
 0.045  0.9478   -6.2  15.438  175.5  0.0070   85.8  0.9973   -4.5
 0.050  0.9459   -7.0  15.488  174.9  0.0078   85.3  0.9974   -5.0
 0.055  0.9458   -7.6  15.487  174.7  0.0086   84.8  0.9971   -5.5
 0.060  0.9458   -8.3  15.487  174.4  0.0094   84.3  0.9969   -6.0
 0.065  0.9462   -9.0  15.465  173.9  0.0102   84.1  0.9962   -6.5
 0.070  0.9467   -9.6  15.444  173.4  0.0110   84.0  0.9956   -7.0
 0.075  0.9475  -10.4  15.458  173.1  0.0117   83.6  0.9952   -7.5
 0.080  0.9485  -11.1  15.473  172.9  0.0125   83.2  0.9948   -8.0
 0.085  0.9470  -11.7  15.440  172.4  0.0132   82.9  0.9941   -8.5
 0.090  0.9457  -12.3  15.409  171.8  0.0140   82.6  0.9935   -9.0
 0.095  0.9454  -13.0  15.408  171.4  0.0147   82.2  0.9928   -9.5
 0.100  0.9452  -13.8  15.408  171.0  0.0155   81.9  0.9922  -10.0
 0.105  0.9442  -14.4  15.381  170.6  0.0163   81.4  0.9915  -10.4
 0.110  0.9434  -15.0  15.355  170.1  0.0171   80.9  0.9909  -10.9
 0.115  0.9424  -15.7  15.351  169.7  0.0178   80.5  0.9901  -11.4
 0.120  0.9416  -16.5  15.347  169.2  0.0186   80.1  0.9893  -11.9
 0.125  0.9426  -17.2  15.320  168.9  0.0194   79.7  0.9884  -12.4
 0.130  0.9437  -17.8  15.294  168.5  0.0202   79.4  0.9875  -12.9
 0.135  0.9436  -18.4  15.283  168.0  0.0209   78.9  0.9866  -13.4
 0.140  0.9437  -19.1  15.274  167.5  0.0216   78.5  0.9857  -13.9
 0.145  0.9420  -19.8  15.285  167.0  0.0224   78.1  0.9846  -14.4
 0.150  0.9405  -20.6  15.297  166.6  0.0232   77.8  0.9836  -14.9
 0.155  0.9394  -21.3  15.272  166.2  0.0239   77.3  0.9821  -15.4
 0.160  0.9385  -22.0  15.248  165.7  0.0246   76.8  0.9807  -15.9
 0.165  0.9376  -22.6  15.226  165.3  0.0254   76.4  0.9793  -16.4
 0.170  0.9370  -23.3  15.203  164.9  0.0261   75.9  0.9780  -16.8
 0.175  0.9364  -24.0  15.182  164.4  0.0268   75.5  0.9768  -17.3
 0.180  0.9360  -24.7  15.162  164.0  0.0276   75.1  0.9756  -17.8
 0.185  0.9357  -25.4  15.143  163.5  0.0283   74.8  0.9745  -18.3
 0.190  0.9355  -26.0  15.124  163.1  0.0290   74.4  0.9735  -18.8
 0.195  0.9355  -26.7  15.107  162.6  0.0298   74.1  0.9726  -19.3
 0.200  0.9356  -27.4  15.090  162.2  0.0305   73.8  0.9717  -19.8
 0.220  0.9315  -29.9  14.982  160.6  0.0333   72.0  0.9652  -21.7
 0.240  0.9292  -32.5  14.885  158.9  0.0362   70.6  0.9597  -23.5
 0.260  0.9259  -35.1  14.788  157.3  0.0389   69.1  0.9533  -25.4
 0.280  0.9217  -37.7  14.689  155.6  0.0415   67.5  0.9460  -27.3
 0.300  0.9194  -40.4  14.603  153.9  0.0442   66.2  0.9397  -29.2
 0.320  0.9138  -42.9  14.454  152.3  0.0467   64.6  0.9313  -31.0
 0.340  0.9098  -45.3  14.317  150.7  0.0492   63.1  0.9238  -32.9
 0.360  0.9058  -47.8  14.183  149.1  0.0516   61.6  0.9156  -34.7
 0.380  0.9016  -50.3  14.052  147.5  0.0539   60.1  0.9067  -36.4
 0.400  0.8992  -52.8  13.932  145.9  0.0562   58.8  0.8986  -38.2
 0.420  0.8937  -55.1  13.783  144.4  0.0584   57.4  0.8897  -39.9
 0.440  0.8896  -57.4  13.644  142.9  0.0606   56.0  0.8816  -41.6
 0.450  0.8881  -58.6  13.578  142.1  0.0617   55.4  0.8779  -42.5
 0.460  0.8852  -59.7  13.499  141.4  0.0627   54.7  0.8729  -43.3
 0.480  0.8804  -62.1  13.347  140.0  0.0646   53.5  0.8633  -44.9
 0.500  0.8771  -64.4  13.204  138.5  0.0666   52.3  0.8544  -46.5
 0.520  0.8702  -66.5  13.031  137.2  0.0683   50.9  0.8440  -48.0
 0.540  0.8645  -68.6  12.866  135.8  0.0700   49.6  0.8341  -49.6
 0.560  0.8600  -70.8  12.708  134.5  0.0717   48.4  0.8250  -51.2
 0.580  0.8567  -72.9  12.557  133.0  0.0735   47.2  0.8164  -52.8
 0.600  0.8546  -75.1  12.414  131.6  0.0753   46.1  0.8086  -54.5
 0.620  0.8484  -77.1  12.254  130.4  0.0766   44.9  0.7985  -55.9
 0.640  0.8431  -79.0  12.099  129.3  0.0780   43.8  0.7890  -57.3
 0.660  0.8389  -81.0  11.949  128.0  0.0794   42.7  0.7799  -58.8
 0.680  0.8357  -83.1  11.804  126.8  0.0808   41.6  0.7713  -60.3
 0.700  0.8336  -85.1  11.666  125.5  0.0823   40.6  0.7633  -61.8
 0.720  0.8285  -86.9  11.510  124.4  0.0834   39.5  0.7540  -63.1
 0.740  0.8242  -88.7  11.358  123.3  0.0845   38.5  0.7451  -64.4
 0.760  0.8207  -90.5  11.210  122.2  0.0857   37.5  0.7365  -65.7
 0.780  0.8180  -92.4  11.067  121.0  0.0869   36.5  0.7284  -67.1
 0.800  0.8162  -94.2  10.929  119.8  0.0881   35.6  0.7207  -68.5
 0.820  0.8116  -95.8  10.784  118.8  0.0890   34.7  0.7123  -69.7
 0.840  0.8076  -97.5  10.643  117.8  0.0899   33.7  0.7042  -70.9
 0.860  0.8043  -99.1  10.505  116.8  0.0908   32.8  0.6965  -72.2
 0.880  0.8017 -100.8  10.371  115.7  0.0917   32.0  0.6891  -73.5
 0.900  0.7998 -102.5  10.240  114.6  0.0927   31.1  0.6821  -74.8
 0.920  0.7957 -104.0  10.107  113.7  0.0934   30.3  0.6745  -75.9
 0.940  0.7921 -105.6   9.976  112.7  0.0942   29.4  0.6672  -77.1
 0.960  0.7891 -107.1   9.848  111.7  0.0949   28.6  0.6601  -78.3
 0.980  0.7867 -108.7   9.724  110.7  0.0957   27.8  0.6534  -79.5
 1.000  0.7849 -110.3   9.602  109.7  0.0965   27.0  0.6469  -80.7
 1.020  0.7821 -111.7   9.484  108.9  0.0971   26.2  0.6402  -81.8
 1.040  0.7797 -113.1   9.368  108.0  0.0977   25.5  0.6337  -82.8
 1.060  0.7777 -114.5   9.255  107.1  0.0983   24.8  0.6275  -83.9
 1.080  0.7763 -115.9   9.143  106.2  0.0989   24.0  0.6215  -85.1
 1.100  0.7753 -117.3   9.034  105.3  0.0996   23.3  0.6157  -86.2
 1.120  0.7725 -118.6   8.924  104.5  0.1001   22.6  0.6097  -87.2
 1.140  0.7701 -120.0   8.816  103.7  0.1006   21.9  0.6039  -88.3
 1.160  0.7681 -121.3   8.709  102.8  0.1011   21.2  0.5983  -89.3
 1.180  0.7665 -122.6   8.605  102.0  0.1016   20.6  0.5930  -90.4
 1.200  0.7654 -124.0   8.502  101.1  0.1021   19.9  0.5878  -91.5
 1.220  0.7631 -125.2   8.403  100.4  0.1025   19.3  0.5826  -92.5
 1.240  0.7612 -126.4   8.306   99.6  0.1028   18.6  0.5775  -93.4
 1.260  0.7596 -127.6   8.210   98.9  0.1032   18.0  0.5726  -94.4
 1.280  0.7583 -128.8   8.116   98.1  0.1036   17.3  0.5679  -95.5
 1.300  0.7574 -130.0   8.023   97.3  0.1040   16.7  0.5634  -96.5
 1.320  0.7557 -131.2   7.931   96.6  0.1043   16.1  0.5587  -97.4
 1.340  0.7542 -132.3   7.841   95.8  0.1046   15.5  0.5541  -98.3
 1.360  0.7531 -133.5   7.751   95.1  0.1049   14.9  0.5496  -99.3
 1.380  0.7523 -134.6   7.663   94.3  0.1052   14.4  0.5453 -100.2
 1.400  0.7518 -135.8   7.577   93.5  0.1055   13.8  0.5412 -101.2
 1.420  0.7504 -136.9   7.497   92.8  0.1057   13.2  0.5371 -102.1
 1.440  0.7492 -137.9   7.417   92.2  0.1060   12.7  0.5332 -103.0
 1.460  0.7483 -139.0   7.339   91.5  0.1062   12.1  0.5293 -103.9
 1.480  0.7477 -140.0   7.261   90.8  0.1065   11.6  0.5257 -104.8
 1.500  0.7473 -141.1   7.185   90.1  0.1068   11.0  0.5221 -105.7
 1.520  0.7460 -142.1   7.109   89.4  0.1070   10.5  0.5184 -106.5
 1.540  0.7449 -143.1   7.033   88.8  0.1071   10.0  0.5149 -107.4
 1.560  0.7441 -144.0   6.959   88.1  0.1073    9.5  0.5114 -108.2
 1.580  0.7434 -145.0   6.885   87.4  0.1075    9.0  0.5081 -109.1
 1.600  0.7430 -146.0   6.813   86.7  0.1077    8.5  0.5049 -110.0
 1.620  0.7420 -147.0   6.746   86.1  0.1078    8.0  0.5017 -110.8
 1.640  0.7412 -147.9   6.680   85.5  0.1080    7.5  0.4986 -111.6
 1.660  0.7406 -148.9   6.615   84.9  0.1082    7.0  0.4956 -112.4
 1.680  0.7403 -149.8   6.551   84.2  0.1083    6.5  0.4927 -113.3
 1.700  0.7401 -150.8   6.487   83.6  0.1085    6.0  0.4899 -114.1
 1.720  0.7393 -151.7   6.422   83.0  0.1086    5.5  0.4871 -114.9
 1.740  0.7387 -152.6   6.358   82.4  0.1087    5.1  0.4844 -115.7
 1.760  0.7382 -153.4   6.295   81.7  0.1088    4.6  0.4818 -116.5
 1.780  0.7379 -154.3   6.233   81.1  0.1089    4.2  0.4793 -117.3
 1.800  0.7378 -155.2   6.171   80.4  0.1090    3.7  0.4769 -118.1
 1.820  0.7372 -156.0   6.112   79.8  0.1091    3.3  0.4742 -118.9
 1.840  0.7368 -156.9   6.055   79.2  0.1091    2.8  0.4715 -119.7
 1.860  0.7365 -157.7   5.997   78.6  0.1092    2.4  0.4690 -120.5
 1.880  0.7364 -158.6   5.941   78.0  0.1093    1.9  0.4666 -121.3
 1.900  0.7364 -159.4   5.885   77.4  0.1094    1.5  0.4642 -122.1
 1.920  0.7358 -160.2   5.832   76.8  0.1094    1.1  0.4619 -122.8
 1.940  0.7353 -161.0   5.779   76.3  0.1095    0.6  0.4597 -123.6
 1.960  0.7349 -161.9   5.727   75.7  0.1095    0.2  0.4576 -124.3
 1.980  0.7347 -162.7   5.675   75.1  0.1095   -0.3  0.4556 -125.0
 2.000  0.7347 -163.5   5.624   74.5  0.1096   -0.7  0.4536 -125.8
 2.020  0.7338 -164.3   5.574   74.0  0.1096   -1.1  0.4513 -126.5
 2.040  0.7330 -165.0   5.525   73.5  0.1095   -1.5  0.4491 -127.2
 2.060  0.7324 -165.8   5.476   72.9  0.1095   -1.9  0.4470 -127.9
 2.080  0.7318 -166.5   5.428   72.4  0.1095   -2.3  0.4449 -128.6
 2.100  0.7314 -167.3   5.380   71.8  0.1095   -2.7  0.4429 -129.3
 2.120  0.7312 -168.1   5.333   71.3  0.1095   -3.2  0.4409 -130.0
 2.140  0.7310 -168.8   5.286   70.7  0.1095   -3.6  0.4391 -130.8
 2.160  0.7310 -169.6   5.240   70.1  0.1095   -4.0  0.4373 -131.5
 2.180  0.7311 -170.3   5.194   69.5  0.1095   -4.4  0.4355 -132.3
 2.200  0.7314 -171.1   5.149   68.9  0.1095   -4.8  0.4339 -133.0
 2.220  0.7307 -171.8   5.105   68.4  0.1094   -5.2  0.4320 -133.7
 2.240  0.7302 -172.5   5.062   67.9  0.1093   -5.5  0.4302 -134.4
 2.260  0.7297 -173.2   5.019   67.4  0.1092   -5.9  0.4284 -135.0
 2.280  0.7294 -173.9   4.977   66.9  0.1092   -6.3  0.4267 -135.7
 2.300  0.7291 -174.5   4.935   66.4  0.1091   -6.6  0.4251 -136.4
 2.320  0.7290 -175.2   4.893   65.8  0.1090   -7.0  0.4235 -137.1
 2.340  0.7290 -175.9   4.852   65.3  0.1090   -7.4  0.4220 -137.8
 2.360  0.7290 -176.6   4.811   64.7  0.1089   -7.8  0.4205 -138.6
 2.380  0.7292 -177.3   4.771   64.2  0.1088   -8.1  0.4191 -139.3
 2.400  0.7295 -178.0   4.731   63.6  0.1088   -8.5  0.4178 -140.0
 2.420  0.7290 -178.6   4.692   63.1  0.1087   -8.8  0.4164 -140.7
 2.440  0.7285 -179.3   4.654   62.6  0.1085   -9.2  0.4150 -141.3
 2.460  0.7282 -179.9   4.616   62.2  0.1084   -9.5  0.4137 -142.0
 2.480  0.7279  179.5   4.578   61.7  0.1083   -9.9  0.4124 -142.6
 2.500  0.7277  178.9   4.541   61.2  0.1082  -10.2  0.4112 -143.3
 2.520  0.7277  178.2   4.504   60.6  0.1081  -10.5  0.4101 -144.0
 2.540  0.7277  177.6   4.467   60.1  0.1080  -10.9  0.4090 -144.7
 2.560  0.7278  177.0   4.431   59.6  0.1079  -11.2  0.4080 -145.3
 2.580  0.7279  176.3   4.395   59.0  0.1078  -11.6  0.4070 -146.0
 2.600  0.7282  175.7   4.360   58.5  0.1077  -11.9  0.4061 -146.7
 2.620  0.7279  175.1   4.327   58.1  0.1075  -12.2  0.4052 -147.3
 2.640  0.7277  174.6   4.295   57.6  0.1074  -12.5  0.4043 -148.0
 2.660  0.7276  174.0   4.263   57.2  0.1072  -12.9  0.4034 -148.6
 2.680  0.7275  173.4   4.231   56.7  0.1071  -13.2  0.4026 -149.2
 2.700  0.7275  172.8   4.200   56.2  0.1070  -13.5  0.4019 -149.9
 2.720  0.7276  172.3   4.169   55.8  0.1068  -13.8  0.4012 -150.5
 2.740  0.7277  171.7   4.138   55.3  0.1067  -14.1  0.4005 -151.2
 2.760  0.7279  171.1   4.107   54.8  0.1066  -14.5  0.3999 -151.8
 2.780  0.7282  170.6   4.077   54.3  0.1064  -14.8  0.3994 -152.5
 2.800  0.7286  170.0   4.047   53.8  0.1063  -15.1  0.3989 -153.1
 2.820  0.7284  169.5   4.018   53.4  0.1061  -15.4  0.3983 -153.7
 2.840  0.7283  168.9   3.989   52.9  0.1060  -15.7  0.3977 -154.3
 2.860  0.7282  168.4   3.960   52.5  0.1058  -16.0  0.3972 -154.9
 2.880  0.7283  167.8   3.931   52.0  0.1057  -16.3  0.3967 -155.5
 2.900  0.7283  167.3   3.903   51.5  0.1055  -16.5  0.3962 -156.1
 2.920  0.7285  166.8   3.875   51.1  0.1054  -16.8  0.3958 -156.7
 2.940  0.7287  166.2   3.847   50.6  0.1052  -17.1  0.3955 -157.4
 2.960  0.7290  165.7   3.819   50.1  0.1051  -17.4  0.3952 -158.0
 2.980  0.7293  165.1   3.792   49.6  0.1049  -17.7  0.3949 -158.6
 3.000  0.7297  164.6   3.765   49.1  0.1048  -18.0  0.3947 -159.2
 3.100  0.7286  162.0   3.637   47.1  0.1037  -19.3  0.3933 -162.0
 3.200  0.7289  159.5   3.514   45.0  0.1027  -20.7  0.3929 -164.9
 3.300  0.7307  156.9   3.395   42.8  0.1017  -22.1  0.3934 -167.7
 3.400  0.7340  154.4   3.283   40.4  0.1008  -23.5  0.3949 -170.5
 3.500  0.7386  151.9   3.176   37.8  0.1000  -25.0  0.3973 -173.3
 3.600  0.7396  149.7   3.075   36.0  0.0987  -26.1  0.3986 -175.8
 3.700  0.7416  147.6   2.977   34.0  0.0974  -27.2  0.4007 -178.2
 3.800  0.7447  145.4   2.883   32.0  0.0962  -28.3  0.4035  179.4
 3.900  0.7488  143.3   2.793   29.8  0.0950  -29.5  0.4070  177.0
 4.000  0.7539  141.2   2.707   27.4  0.0938  -30.7  0.4112  174.7
 4.100  0.7552  139.5   2.626   25.7  0.0924  -31.5  0.4146  172.8
 4.200  0.7573  137.8   2.547   23.9  0.0911  -32.3  0.4185  170.9
 4.300  0.7599  136.1   2.471   22.0  0.0898  -33.2  0.4228  169.0
 4.400  0.7632  134.5   2.398   20.0  0.0885  -34.1  0.4275  167.2
 4.500  0.7672  132.8   2.328   17.8  0.0872  -35.0  0.4327  165.4
 4.600  0.7681  131.4   2.264   16.2  0.0860  -35.6  0.4363  163.9
 4.700  0.7694  129.9   2.202   14.5  0.0848  -36.2  0.4401  162.5
 4.800  0.7712  128.5   2.143   12.7  0.0837  -36.9  0.4443  161.1
 4.900  0.7735  127.1   2.085   10.8  0.0825  -37.5  0.4487  159.7
 5.000  0.7763  125.7   2.030    8.8  0.0814  -38.2  0.4533  158.4
 5.100  0.7759  124.3   1.976    7.2  0.0803  -38.7  0.4556  156.9
 5.200  0.7760  123.0   1.924    5.6  0.0792  -39.1  0.4582  155.4
 5.300  0.7765  121.6   1.873    3.9  0.0781  -39.6  0.4610  154.0
 5.400  0.7774  120.3   1.825    2.0  0.0771  -40.1  0.4642  152.5
 5.500  0.7788  118.9   1.778    0.1  0.0760  -40.6  0.4677  151.1
 5.600  0.7794  117.8   1.735   -1.3  0.0750  -40.8  0.4703  149.5
 5.700  0.7803  116.7   1.693   -2.8  0.0741  -41.0  0.4733  147.9
 5.800  0.7815  115.5   1.653   -4.3  0.0731  -41.2  0.4766  146.3
 5.900  0.7830  114.4   1.613   -5.9  0.0722  -41.5  0.4803  144.7
 6.000  0.7848  113.3   1.575   -7.6  0.0712  -41.7  0.4844  143.2
 6.100  0.7872  112.2   1.543   -9.0  0.0706  -41.8  0.4892  141.8
 6.200  0.7898  111.2   1.511  -10.5  0.0699  -41.9  0.4944  140.4
 6.300  0.7927  110.2   1.481  -12.1  0.0693  -42.1  0.4998  139.0
 6.400  0.7958  109.1   1.452  -13.7  0.0686  -42.2  0.5054  137.7
 6.500  0.7992  108.1   1.424  -15.4  0.0680  -42.3  0.5114  136.4
 6.600  0.8020  106.9   1.396  -16.9  0.0676  -42.4  0.5166  135.2
 6.800  0.8085  104.6   1.344  -20.2  0.0667  -42.7  0.5276  132.8
 7.000  0.8163  102.3   1.297  -23.7  0.0659  -42.9  0.5395  130.5
 7.200  0.8209   99.6   1.243  -27.1  0.0651  -43.3  0.5502  127.8
 7.400  0.8273   97.0   1.194  -30.8  0.0644  -43.6  0.5621  125.2
 7.600  0.8324   94.3   1.144  -34.2  0.0636  -43.9  0.5739  122.4
 7.800  0.8365   91.5   1.090  -37.6  0.0629  -44.2  0.5863  119.3
 8.000  0.8426   88.8   1.040  -41.2  0.0622  -44.4  0.6003  116.4
 8.200  0.8458   86.1   0.989  -44.2  0.0616  -44.6  0.6116  113.1
 8.400  0.8510   83.4   0.942  -47.4  0.0609  -44.8  0.6248  109.9
 8.600  0.8552   80.8   0.895  -50.5  0.0603  -45.1  0.6356  106.7
 8.800  0.8584   78.2   0.850  -53.2  0.0598  -45.4  0.6442  103.2
 9.000  0.8634   75.6   0.806  -56.3  0.0592  -45.8  0.6551   99.9
 9.200  0.8687   73.4   0.763  -58.7  0.0585  -45.9  0.6658   96.8
 9.400  0.8752   71.2   0.721  -61.4  0.0578  -46.0  0.6784   93.8
 9.600  0.8831   69.5   0.684  -63.6  0.0572  -46.0  0.6952   91.3
 9.800  0.8916   68.2   0.652  -65.4  0.0567  -45.8  0.7156   89.3
10.000  0.9005   67.0   0.620  -67.4  0.0563  -45.6  0.7368   87.3
!
!  f       NFmin   Gammaopt  rn/50
! GHz       dB    MAG  ANG    -
 0.450      0.59  0.43    1   0.13
 0.900      0.61  0.36   29   0.13
 1.500      0.68  0.26   71   0.11
 1.900      0.74  0.25   97   0.07
 2.400      0.84  0.25  127   0.10
 3.500      1.23  0.30  174   0.08
!
! (c) 2016  Infineon Technologies AG, Munich
