! Infineon Technologies  Discrete & RF Semiconductors
! BFP750
! VCE =  3.0 V,  IC =  10 mA
! Common Emitter S-Parameters:                            Jan 2016
# GHz  S  MA  R  50
!  f         S11            S21            S12            S22
! GHz     MAG   ANG      MAG   ANG      MAG   ANG      MAG   ANG
 0.030  0.9031   -6.0  26.907  176.2  0.0046   84.9  0.9941   -4.5
 0.035  0.9032   -7.0  26.919  175.5  0.0053   84.7  0.9936   -5.2
 0.040  0.9035   -8.0  26.934  174.9  0.0060   84.5  0.9933   -5.9
 0.045  0.9041   -9.1  26.998  174.1  0.0067   83.1  0.9931   -6.7
 0.050  0.9050  -10.2  27.067  173.3  0.0074   82.0  0.9931   -7.5
 0.055  0.9030  -11.0  27.053  172.9  0.0082   82.7  0.9923   -8.2
 0.060  0.9012  -11.9  27.040  172.5  0.0090   83.3  0.9916   -8.9
 0.065  0.9007  -13.0  26.988  171.8  0.0097   82.1  0.9904   -9.7
 0.070  0.9005  -14.1  26.940  171.1  0.0105   81.1  0.9894  -10.5
 0.075  0.9016  -15.2  26.938  170.7  0.0112   80.9  0.9884  -11.2
 0.080  0.9030  -16.3  26.938  170.2  0.0119   80.7  0.9875  -12.0
 0.085  0.8993  -17.2  26.857  169.6  0.0126   80.2  0.9863  -12.7
 0.090  0.8958  -18.1  26.778  169.0  0.0133   79.7  0.9853  -13.5
 0.095  0.8955  -19.1  26.752  168.4  0.0140   79.2  0.9838  -14.2
 0.100  0.8956  -20.2  26.730  167.7  0.0148   78.8  0.9825  -14.9
 0.105  0.8952  -21.0  26.663  167.2  0.0155   78.2  0.9809  -15.6
 0.110  0.8949  -21.8  26.598  166.6  0.0162   77.7  0.9795  -16.4
 0.115  0.8940  -22.8  26.560  166.0  0.0169   77.1  0.9778  -17.1
 0.120  0.8934  -23.8  26.525  165.4  0.0177   76.5  0.9762  -17.8
 0.125  0.8933  -24.8  26.451  164.9  0.0183   76.1  0.9745  -18.5
 0.130  0.8935  -25.8  26.380  164.4  0.0190   75.7  0.9730  -19.3
 0.135  0.8924  -26.7  26.330  163.8  0.0197   75.1  0.9710  -20.0
 0.140  0.8916  -27.7  26.284  163.1  0.0204   74.5  0.9691  -20.8
 0.145  0.8902  -28.7  26.264  162.5  0.0211   74.0  0.9670  -21.5
 0.150  0.8891  -29.7  26.246  161.9  0.0219   73.5  0.9651  -22.2
 0.155  0.8871  -30.7  26.164  161.3  0.0225   72.9  0.9622  -22.9
 0.160  0.8854  -31.6  26.084  160.8  0.0232   72.3  0.9594  -23.6
 0.165  0.8839  -32.6  26.007  160.2  0.0238   71.7  0.9568  -24.3
 0.170  0.8827  -33.6  25.932  159.7  0.0244   71.1  0.9543  -25.0
 0.175  0.8817  -34.5  25.860  159.1  0.0251   70.6  0.9519  -25.7
 0.180  0.8810  -35.5  25.790  158.5  0.0257   70.1  0.9497  -26.4
 0.185  0.8805  -36.5  25.723  157.9  0.0264   69.7  0.9477  -27.1
 0.190  0.8803  -37.4  25.659  157.4  0.0270   69.2  0.9458  -27.9
 0.195  0.8803  -38.4  25.597  156.8  0.0277   68.8  0.9440  -28.6
 0.200  0.8806  -39.4  25.538  156.2  0.0283   68.4  0.9424  -29.3
 0.220  0.8740  -42.9  25.185  154.2  0.0306   66.3  0.9302  -31.9
 0.240  0.8707  -46.3  24.865  152.1  0.0330   64.4  0.9200  -34.6
 0.260  0.8661  -49.9  24.533  150.0  0.0353   62.6  0.9087  -37.3
 0.280  0.8604  -53.4  24.186  147.9  0.0374   60.8  0.8962  -39.9
 0.300  0.8581  -57.0  23.872  145.8  0.0396   59.2  0.8856  -42.6
 0.320  0.8505  -60.2  23.452  144.0  0.0415   57.4  0.8718  -45.0
 0.340  0.8456  -63.4  23.056  142.1  0.0434   55.7  0.8596  -47.4
 0.360  0.8409  -66.5  22.667  140.2  0.0452   54.1  0.8469  -49.8
 0.380  0.8363  -69.6  22.282  138.3  0.0469   52.5  0.8337  -52.2
 0.400  0.8342  -72.7  21.921  136.4  0.0486   51.0  0.8218  -54.6
 0.420  0.8276  -75.6  21.523  134.8  0.0501   49.5  0.8086  -56.7
 0.440  0.8232  -78.4  21.143  133.1  0.0515   48.1  0.7965  -59.0
 0.450  0.8217  -79.9  20.959  132.3  0.0523   47.4  0.7909  -60.1
 0.460  0.8186  -81.2  20.760  131.5  0.0529   46.7  0.7842  -61.1
 0.480  0.8138  -83.8  20.373  130.0  0.0542   45.4  0.7714  -63.2
 0.500  0.8107  -86.5  20.002  128.4  0.0555   44.1  0.7598  -65.4
 0.520  0.8038  -88.9  19.616  127.1  0.0565   42.8  0.7468  -67.2
 0.540  0.7982  -91.3  19.240  125.8  0.0575   41.6  0.7346  -69.1
 0.560  0.7941  -93.7  18.876  124.4  0.0585   40.4  0.7233  -71.0
 0.580  0.7914  -96.1  18.523  122.9  0.0596   39.3  0.7127  -73.0
 0.600  0.7902  -98.6  18.182  121.4  0.0607   38.2  0.7031  -75.1
 0.620  0.7850 -100.7  17.847  120.3  0.0614   37.2  0.6919  -76.7
 0.640  0.7808 -102.7  17.519  119.1  0.0622   36.1  0.6814  -78.4
 0.660  0.7777 -104.9  17.198  117.9  0.0629   35.1  0.6714  -80.2
 0.680  0.7756 -107.0  16.886  116.6  0.0637   34.2  0.6621  -82.0
 0.700  0.7746 -109.1  16.582  115.3  0.0645   33.2  0.6534  -83.8
 0.720  0.7707 -110.9  16.288  114.3  0.0650   32.3  0.6441  -85.3
 0.740  0.7676 -112.7  15.998  113.3  0.0656   31.4  0.6352  -86.8
 0.760  0.7653 -114.6  15.715  112.2  0.0662   30.6  0.6268  -88.4
 0.780  0.7637 -116.4  15.437  111.1  0.0668   29.7  0.6189  -90.0
 0.800  0.7630 -118.3  15.165  109.9  0.0674   28.9  0.6115  -91.7
 0.820  0.7599 -119.9  14.907  109.0  0.0678   28.2  0.6037  -93.1
 0.840  0.7575 -121.5  14.652  108.1  0.0682   27.4  0.5963  -94.4
 0.860  0.7556 -123.1  14.401  107.2  0.0687   26.7  0.5893  -95.9
 0.880  0.7543 -124.7  14.154  106.2  0.0691   26.0  0.5826  -97.3
 0.900  0.7536 -126.3  13.911  105.2  0.0696   25.3  0.5763  -98.8
 0.920  0.7510 -127.7  13.686  104.4  0.0699   24.6  0.5698 -100.1
 0.940  0.7488 -129.2  13.463  103.6  0.0703   24.0  0.5637 -101.4
 0.960  0.7471 -130.7  13.244  102.7  0.0707   23.4  0.5578 -102.7
 0.980  0.7459 -132.1  13.027  101.8  0.0710   22.7  0.5522 -104.1
 1.000  0.7452 -133.6  12.814  100.9  0.0714   22.1  0.5470 -105.5
 1.020  0.7438 -134.9  12.624  100.2  0.0716   21.5  0.5417 -106.7
 1.040  0.7428 -136.1  12.437   99.4  0.0719   21.0  0.5366 -107.9
 1.060  0.7421 -137.4  12.251   98.6  0.0722   20.4  0.5317 -109.1
 1.080  0.7418 -138.6  12.069   97.8  0.0724   19.9  0.5271 -110.3
 1.100  0.7419 -139.9  11.888   97.0  0.0727   19.3  0.5228 -111.6
 1.120  0.7404 -141.1  11.716   96.3  0.0729   18.8  0.5183 -112.7
 1.140  0.7392 -142.3  11.545   95.6  0.0731   18.3  0.5141 -113.9
 1.160  0.7383 -143.5  11.376   94.9  0.0733   17.7  0.5100 -115.0
 1.180  0.7377 -144.7  11.209   94.2  0.0736   17.2  0.5062 -116.2
 1.200  0.7375 -145.9  11.044   93.4  0.0738   16.7  0.5026 -117.4
 1.220  0.7366 -146.9  10.897   92.8  0.0740   16.3  0.4990 -118.4
 1.240  0.7359 -148.0  10.751   92.1  0.0741   15.8  0.4955 -119.4
 1.260  0.7355 -149.0  10.607   91.4  0.0743   15.4  0.4922 -120.5
 1.280  0.7353 -150.1  10.464   90.7  0.0744   14.9  0.4890 -121.5
 1.300  0.7354 -151.1  10.323   90.0  0.0746   14.5  0.4860 -122.6
 1.320  0.7346 -152.1  10.188   89.4  0.0747   14.1  0.4829 -123.6
 1.340  0.7340 -153.1  10.054   88.8  0.0748   13.7  0.4800 -124.6
 1.360  0.7337 -154.0   9.921   88.1  0.0749   13.2  0.4772 -125.6
 1.380  0.7335 -155.0   9.789   87.5  0.0751   12.8  0.4746 -126.6
 1.400  0.7336 -156.0   9.659   86.8  0.0752   12.4  0.4721 -127.6
 1.420  0.7332 -156.9   9.543   86.2  0.0753   12.0  0.4696 -128.5
 1.440  0.7331 -157.8   9.428   85.6  0.0755   11.6  0.4672 -129.4
 1.460  0.7331 -158.7   9.314   85.0  0.0756   11.3  0.4650 -130.3
 1.480  0.7332 -159.6   9.201   84.4  0.0758   10.9  0.4628 -131.3
 1.500  0.7336 -160.5   9.089   83.8  0.0759   10.5  0.4608 -132.2
 1.520  0.7331 -161.3   8.983   83.3  0.0760   10.2  0.4587 -133.1
 1.540  0.7327 -162.1   8.877   82.7  0.0760    9.8  0.4567 -133.9
 1.560  0.7325 -163.0   8.773   82.2  0.0761    9.5  0.4548 -134.8
 1.580  0.7324 -163.8   8.669   81.6  0.0761    9.1  0.4530 -135.7
 1.600  0.7325 -164.6   8.566   81.0  0.0762    8.8  0.4513 -136.6
 1.620  0.7324 -165.4   8.473   80.5  0.0763    8.5  0.4495 -137.4
 1.640  0.7324 -166.2   8.381   79.9  0.0763    8.1  0.4477 -138.2
 1.660  0.7326 -167.1   8.289   79.4  0.0764    7.8  0.4461 -139.0
 1.680  0.7329 -167.9   8.199   78.8  0.0764    7.4  0.4446 -139.9
 1.700  0.7334 -168.7   8.109   78.2  0.0765    7.1  0.4431 -140.7
 1.720  0.7331 -169.4   8.021   77.7  0.0766    6.8  0.4416 -141.5
 1.740  0.7330 -170.1   7.933   77.2  0.0766    6.5  0.4402 -142.2
 1.760  0.7329 -170.9   7.846   76.6  0.0767    6.1  0.4388 -143.0
 1.780  0.7330 -171.6   7.760   76.1  0.0767    5.8  0.4376 -143.8
 1.800  0.7332 -172.3   7.675   75.5  0.0768    5.5  0.4364 -144.6
 1.820  0.7331 -173.0   7.596   75.0  0.0768    5.2  0.4351 -145.4
 1.840  0.7332 -173.7   7.517   74.5  0.0768    4.9  0.4338 -146.1
 1.860  0.7334 -174.4   7.439   74.0  0.0769    4.7  0.4326 -146.9
 1.880  0.7336 -175.1   7.362   73.4  0.0769    4.4  0.4315 -147.7
 1.900  0.7340 -175.8   7.285   72.9  0.0769    4.1  0.4305 -148.5
 1.920  0.7338 -176.5   7.214   72.4  0.0769    3.8  0.4294 -149.2
 1.940  0.7338 -177.2   7.143   71.9  0.0770    3.5  0.4283 -149.9
 1.960  0.7338 -177.8   7.073   71.4  0.0770    3.3  0.4272 -150.6
 1.980  0.7340 -178.5   7.003   70.9  0.0771    3.0  0.4263 -151.3
 2.000  0.7342 -179.2   6.934   70.4  0.0771    2.7  0.4254 -152.0
 2.020  0.7340 -179.8   6.870   69.9  0.0771    2.4  0.4243 -152.7
 2.040  0.7338  179.5   6.806   69.5  0.0771    2.2  0.4232 -153.4
 2.060  0.7337  178.9   6.742   69.0  0.0771    1.9  0.4222 -154.1
 2.080  0.7337  178.3   6.679   68.5  0.0770    1.6  0.4212 -154.8
 2.100  0.7338  177.6   6.617   68.0  0.0770    1.4  0.4203 -155.5
 2.120  0.7340  177.0   6.555   67.5  0.0770    1.1  0.4195 -156.2
 2.140  0.7343  176.4   6.493   67.0  0.0770    0.8  0.4187 -156.9
 2.160  0.7347  175.8   6.432   66.5  0.0770    0.5  0.4180 -157.6
 2.180  0.7352  175.1   6.372   65.9  0.0770    0.3  0.4174 -158.3
 2.200  0.7357  174.5   6.312   65.4  0.0770    0.0  0.4168 -159.0
 2.220  0.7355  173.9   6.256   65.0  0.0770   -0.2  0.4159 -159.7
 2.240  0.7353  173.4   6.201   64.6  0.0770   -0.4  0.4151 -160.3
 2.260  0.7353  172.8   6.145   64.1  0.0769   -0.7  0.4144 -161.0
 2.280  0.7353  172.3   6.090   63.7  0.0769   -0.9  0.4137 -161.6
 2.300  0.7353  171.7   6.036   63.3  0.0769   -1.1  0.4131 -162.3
 2.320  0.7355  171.1   5.982   62.8  0.0769   -1.3  0.4125 -162.9
 2.340  0.7357  170.6   5.928   62.3  0.0768   -1.5  0.4120 -163.6
 2.360  0.7359  170.0   5.875   61.9  0.0768   -1.8  0.4115 -164.3
 2.380  0.7363  169.5   5.822   61.4  0.0768   -2.0  0.4111 -164.9
 2.400  0.7367  168.9   5.769   60.9  0.0768   -2.2  0.4107 -165.6
 2.420  0.7364  168.4   5.720   60.5  0.0768   -2.4  0.4102 -166.2
 2.440  0.7362  167.9   5.672   60.1  0.0767   -2.6  0.4097 -166.8
 2.460  0.7360  167.3   5.623   59.7  0.0767   -2.9  0.4093 -167.4
 2.480  0.7359  166.8   5.576   59.2  0.0766   -3.1  0.4089 -168.0
 2.500  0.7359  166.3   5.528   58.8  0.0766   -3.3  0.4086 -168.6
 2.520  0.7359  165.8   5.481   58.4  0.0765   -3.5  0.4083 -169.2
 2.540  0.7360  165.3   5.434   57.9  0.0765   -3.7  0.4081 -169.9
 2.560  0.7361  164.7   5.387   57.4  0.0765   -4.0  0.4079 -170.5
 2.580  0.7363  164.2   5.341   57.0  0.0764   -4.2  0.4078 -171.1
 2.600  0.7366  163.7   5.295   56.5  0.0764   -4.4  0.4077 -171.7
 2.620  0.7365  163.2   5.254   56.1  0.0763   -4.6  0.4075 -172.3
 2.640  0.7365  162.7   5.214   55.7  0.0763   -4.8  0.4073 -172.8
 2.660  0.7365  162.2   5.173   55.3  0.0762   -4.9  0.4072 -173.4
 2.680  0.7366  161.7   5.133   54.9  0.0762   -5.1  0.4071 -174.0
 2.700  0.7368  161.2   5.093   54.4  0.0761   -5.3  0.4071 -174.5
 2.720  0.7370  160.8   5.054   54.0  0.0761   -5.5  0.4071 -175.1
 2.740  0.7372  160.3   5.015   53.6  0.0760   -5.7  0.4071 -175.7
 2.760  0.7375  159.8   4.976   53.1  0.0760   -5.8  0.4072 -176.3
 2.780  0.7379  159.3   4.937   52.7  0.0759   -6.0  0.4073 -176.8
 2.800  0.7383  158.8   4.899   52.2  0.0759   -6.2  0.4075 -177.4
 2.820  0.7385  158.3   4.863   51.8  0.0759   -6.4  0.4075 -177.9
 2.840  0.7387  157.9   4.827   51.4  0.0758   -6.6  0.4076 -178.4
 2.860  0.7390  157.4   4.791   51.1  0.0758   -6.7  0.4077 -179.0
 2.880  0.7393  157.0   4.755   50.7  0.0757   -6.9  0.4079 -179.5
 2.900  0.7396  156.5   4.720   50.3  0.0757   -7.1  0.4081  180.0
 2.920  0.7400  156.1   4.685   49.9  0.0757   -7.3  0.4083  179.5
 2.940  0.7405  155.6   4.650   49.5  0.0756   -7.5  0.4085  179.0
 2.960  0.7410  155.2   4.616   49.0  0.0756   -7.6  0.4088  178.4
 2.980  0.7415  154.7   4.581   48.6  0.0755   -7.8  0.4091  177.9
 3.000  0.7421  154.3   4.547   48.2  0.0755   -8.0  0.4095  177.4
 3.100  0.7422  152.1   4.392   46.5  0.0752   -8.8  0.4108  175.0
 3.200  0.7435  149.9   4.241   44.6  0.0749   -9.6  0.4129  172.7
 3.300  0.7458  147.7   4.095   42.6  0.0746  -10.4  0.4156  170.4
 3.400  0.7493  145.5   3.954   40.5  0.0744  -11.2  0.4190  168.1
 3.500  0.7538  143.3   3.819   38.2  0.0741  -12.0  0.4230  165.9
 3.600  0.7555  141.4   3.698   36.6  0.0737  -12.6  0.4261  163.9
 3.700  0.7580  139.5   3.579   34.8  0.0732  -13.3  0.4297  162.0
 3.800  0.7613  137.7   3.465   33.0  0.0728  -13.9  0.4338  160.0
 3.900  0.7654  135.8   3.354   31.0  0.0724  -14.5  0.4384  158.1
 4.000  0.7703  134.0   3.247   28.9  0.0720  -15.2  0.4435  156.3
 4.100  0.7718  132.5   3.151   27.4  0.0716  -15.6  0.4474  154.7
 4.200  0.7739  131.0   3.058   25.8  0.0712  -16.1  0.4517  153.2
 4.300  0.7764  129.5   2.967   24.1  0.0708  -16.5  0.4563  151.7
 4.400  0.7795  128.1   2.878   22.3  0.0705  -17.0  0.4611  150.2
 4.500  0.7831  126.6   2.793   20.4  0.0701  -17.4  0.4663  148.8
 4.600  0.7839  125.3   2.719   19.0  0.0699  -17.7  0.4692  147.6
 4.700  0.7851  124.1   2.647   17.5  0.0696  -18.0  0.4723  146.4
 4.800  0.7866  122.8   2.576   15.9  0.0694  -18.3  0.4755  145.2
 4.900  0.7886  121.5   2.508   14.2  0.0691  -18.6  0.4790  144.0
 5.000  0.7909  120.3   2.442   12.4  0.0689  -18.9  0.4827  142.9
 5.100  0.7903  119.0   2.380   11.0  0.0687  -19.2  0.4842  141.6
 5.200  0.7901  117.8   2.319    9.5  0.0685  -19.5  0.4859  140.3
 5.300  0.7902  116.5   2.260    8.0  0.0684  -19.8  0.4879  139.0
 5.400  0.7908  115.3   2.202    6.3  0.0682  -20.1  0.4901  137.8
 5.500  0.7917  114.0   2.147    4.6  0.0680  -20.4  0.4925  136.5
 5.600  0.7920  113.0   2.098    3.3  0.0679  -20.6  0.4944  135.1
 5.700  0.7926  112.0   2.049    2.0  0.0679  -20.7  0.4965  133.7
 5.800  0.7935  110.9   2.002    0.5  0.0678  -20.9  0.4990  132.4
 5.900  0.7946  109.9   1.956   -0.9  0.0678  -21.0  0.5017  131.0
 6.000  0.7959  108.9   1.912   -2.5  0.0677  -21.2  0.5047  129.7
 6.100  0.7980  107.9   1.875   -3.8  0.0679  -21.4  0.5085  128.5
 6.200  0.8004  107.0   1.839   -5.2  0.0681  -21.7  0.5126  127.4
 6.300  0.8030  106.0   1.805   -6.6  0.0682  -21.9  0.5168  126.3
 6.400  0.8058  105.0   1.771   -8.1  0.0684  -22.2  0.5213  125.2
 6.500  0.8088  104.1   1.739   -9.6  0.0686  -22.4  0.5259  124.1
 6.600  0.8112  103.0   1.707  -11.0  0.0689  -22.8  0.5301  123.1
 6.800  0.8168  100.8   1.646  -14.1  0.0694  -23.5  0.5389  121.2
 7.000  0.8235   98.7   1.591  -17.4  0.0700  -24.3  0.5483  119.4
 7.200  0.8279   96.2   1.528  -20.6  0.0703  -25.4  0.5577  117.1
 7.400  0.8338   93.6   1.471  -24.1  0.0706  -26.5  0.5680  114.9
 7.600  0.8386   91.1   1.411  -27.3  0.0708  -27.6  0.5785  112.4
 7.800  0.8424   88.4   1.348  -30.4  0.0709  -28.7  0.5897  109.6
 8.000  0.8480   85.8   1.290  -33.8  0.0710  -29.8  0.6022  107.0
 8.200  0.8508   83.3   1.231  -36.6  0.0708  -30.9  0.6119  104.1
 8.400  0.8553   80.7   1.175  -39.7  0.0706  -32.0  0.6231  101.3
 8.600  0.8590   78.2   1.121  -42.5  0.0703  -33.2  0.6324   98.4
 8.800  0.8619   75.7   1.068  -45.2  0.0699  -34.4  0.6400   95.3
 9.000  0.8665   73.2   1.017  -48.1  0.0695  -35.6  0.6493   92.4
 9.200  0.8716   71.1   0.966  -50.4  0.0688  -36.4  0.6595   89.8
 9.400  0.8778   69.1   0.916  -52.8  0.0681  -37.3  0.6710   87.2
 9.600  0.8851   67.5   0.873  -55.0  0.0674  -38.0  0.6864   85.1
 9.800  0.8930   66.3   0.835  -56.8  0.0669  -38.5  0.7054   83.4
10.000  0.9013   65.1   0.798  -58.7  0.0663  -39.0  0.7249   81.8
!
!  f       NFmin   Gammaopt  rn/50
! GHz       dB    MAG  ANG    -
 0.450      0.64  0.24    2   0.09
 0.900      0.66  0.21   16   0.02
 1.500      0.68  0.13   78   0.06
 1.900      0.71  0.12  115   0.08
 2.400      0.78  0.17  153   0.08
 3.500      1.07  0.24 -166   0.05
!
! (c) 2016  Infineon Technologies AG, Munich
