! Infineon Technologies  Discrete & RF Semiconductors
! BFP740F
! VCE =  4.0 V,  IC =  10 mA
! Common Emitter S-Parameters:                            Oct 2012
# GHz  S  MA  R  50
!  f         S11            S21            S12            S22
! GHz     MAG   ANG      MAG   ANG      MAG   ANG      MAG   ANG
 0.030  0.8875   -2.5  26.514  176.8  0.0015   63.6  0.9853   -1.5
 0.040  0.8874   -3.3  26.490  176.2  0.0019   75.4  0.9856   -2.0
 0.050  0.8858   -4.1  26.701  175.8  0.0024   84.5  0.9857   -2.5
 0.060  0.8856   -4.9  26.483  175.3  0.0033   83.8  0.9866   -3.0
 0.070  0.8853   -5.8  26.540  174.6  0.0033   81.0  0.9856   -3.6
 0.080  0.8863   -6.6  26.350  174.0  0.0040   87.8  0.9857   -4.2
 0.090  0.8844   -7.4  26.375  173.3  0.0042   78.8  0.9850   -4.8
 0.100  0.8839   -8.3  26.250  172.7  0.0052   77.4  0.9833   -5.3
 0.110  0.8836   -9.0  26.188  172.1  0.0054   78.0  0.9828   -5.8
 0.120  0.8827   -9.9  26.067  171.6  0.0057   78.2  0.9815   -6.4
 0.130  0.8820  -10.7  25.988  171.0  0.0068   76.7  0.9804   -6.9
 0.140  0.8818  -11.5  25.862  170.5  0.0066   80.1  0.9789   -7.5
 0.150  0.8809  -12.3  25.858  169.8  0.0072   77.3  0.9777   -8.0
 0.200  0.8771  -16.3  25.425  167.2  0.0095   76.4  0.9718  -10.5
 0.250  0.8721  -20.3  25.125  164.6  0.0121   75.0  0.9637  -13.0
 0.300  0.8673  -24.1  24.748  162.2  0.0142   75.5  0.9558  -15.5
 0.350  0.8625  -28.0  24.404  159.8  0.0165   72.7  0.9469  -17.9
 0.400  0.8574  -31.9  24.155  157.5  0.0188   71.0  0.9361  -20.3
 0.450  0.8525  -35.5  23.772  155.2  0.0207   69.2  0.9272  -22.6
 0.500  0.8467  -39.3  23.498  153.0  0.0228   66.9  0.9143  -25.1
 0.600  0.8348  -46.6  22.833  148.6  0.0266   63.3  0.8892  -29.6
 0.700  0.8226  -53.8  22.190  144.3  0.0302   59.9  0.8620  -34.0
 0.800  0.8091  -60.8  21.572  140.1  0.0334   56.3  0.8329  -38.3
 0.900  0.7962  -67.4  20.840  136.2  0.0365   52.9  0.8027  -42.3
 1.000  0.7834  -73.6  20.063  132.4  0.0391   49.7  0.7720  -46.2
 1.100  0.7695  -79.7  19.358  128.7  0.0413   46.8  0.7411  -49.9
 1.200  0.7570  -85.4  18.604  125.2  0.0433   44.1  0.7116  -53.5
 1.300  0.7442  -91.0  17.935  121.8  0.0451   41.4  0.6827  -56.8
 1.400  0.7340  -96.1  17.220  118.8  0.0465   39.2  0.6565  -60.0
 1.500  0.7228 -101.2  16.598  115.8  0.0480   37.0  0.6306  -62.9
 1.600  0.7139 -106.1  16.005  112.9  0.0492   35.0  0.6080  -65.9
 1.700  0.7060 -110.2  15.361  110.3  0.0501   33.3  0.5845  -68.7
 1.800  0.7006 -114.4  14.799  107.8  0.0511   31.4  0.5654  -71.5
 1.900  0.6941 -118.2  14.241  105.5  0.0519   29.8  0.5459  -74.1
 2.000  0.6888 -122.0  13.743  103.1  0.0526   28.3  0.5293  -76.8
 2.100  0.6851 -125.8  13.238  100.7  0.0532   26.6  0.5137  -79.6
 2.200  0.6802 -129.1  12.769   98.6  0.0535   25.3  0.4987  -82.0
 2.300  0.6756 -132.1  12.318   96.6  0.0541   24.1  0.4860  -84.2
 2.400  0.6721 -135.0  11.892   94.7  0.0542   22.9  0.4740  -86.5
 2.500  0.6682 -137.8  11.490   92.8  0.0548   21.9  0.4639  -88.4
 2.600  0.6653 -140.5  11.123   91.0  0.0548   20.8  0.4533  -90.4
 2.700  0.6623 -143.0  10.771   89.3  0.0552   19.8  0.4448  -92.2
 2.800  0.6601 -145.5  10.445   87.6  0.0552   19.1  0.4364  -94.1
 2.900  0.6580 -147.8  10.123   86.0  0.0558   18.3  0.4295  -95.8
 3.000  0.6561 -150.0   9.833   84.4  0.0557   17.5  0.4222  -97.6
 3.100  0.6541 -152.1   9.551   82.8  0.0559   16.6  0.4167  -99.3
 3.200  0.6522 -154.3   9.290   81.3  0.0560   16.1  0.4111 -100.7
 3.300  0.6513 -156.2   9.031   79.9  0.0560   15.4  0.4060 -102.2
 3.400  0.6503 -158.2   8.796   78.4  0.0561   14.8  0.4011 -103.6
 3.500  0.6493 -159.9   8.558   77.0  0.0563   14.1  0.3968 -104.8
 3.600  0.6483 -161.8   8.346   75.6  0.0562   13.6  0.3921 -106.1
 3.700  0.6481 -163.5   8.140   74.3  0.0564   13.0  0.3880 -107.2
 3.800  0.6476 -165.3   7.943   72.9  0.0563   12.6  0.3828 -108.5
 3.900  0.6478 -166.8   7.754   71.6  0.0563   12.0  0.3791 -109.6
 4.000  0.6468 -168.6   7.569   70.2  0.0564   11.6  0.3750 -110.8
 4.100  0.6477 -170.0   7.400   69.0  0.0565   11.3  0.3710 -111.9
 4.200  0.6473 -171.7   7.232   67.7  0.0565   10.8  0.3666 -113.1
 4.300  0.6480 -173.2   7.075   66.4  0.0566   10.4  0.3631 -114.2
 4.400  0.6481 -174.7   6.920   65.1  0.0565   10.0  0.3589 -115.4
 4.500  0.6487 -176.1   6.774   63.9  0.0565    9.6  0.3562 -116.3
 4.600  0.6498 -177.7   6.637   62.6  0.0564    9.3  0.3517 -117.5
 4.700  0.6505 -179.0   6.495   61.4  0.0564    9.0  0.3482 -118.6
 4.800  0.6520  179.6   6.369   60.2  0.0564    8.7  0.3448 -119.7
 4.900  0.6527  178.2   6.237   59.0  0.0564    8.3  0.3413 -120.9
 5.000  0.6538  176.7   6.120   57.8  0.0564    7.9  0.3380 -121.9
 5.100  0.6554  175.4   6.001   56.6  0.0563    7.7  0.3345 -123.2
 5.200  0.6559  174.1   5.893   55.5  0.0563    7.4  0.3317 -124.2
 5.300  0.6569  172.7   5.783   54.3  0.0563    7.0  0.3285 -125.4
 5.400  0.6580  171.4   5.679   53.2  0.0561    6.9  0.3255 -126.5
 5.500  0.6587  170.2   5.576   52.0  0.0562    6.6  0.3234 -127.6
 5.600  0.6589  168.9   5.478   50.9  0.0560    6.3  0.3198 -128.6
 5.700  0.6599  167.6   5.382   49.7  0.0561    5.9  0.3167 -129.9
 5.800  0.6603  166.3   5.295   48.5  0.0558    5.8  0.3142 -131.1
 5.900  0.6609  165.0   5.203   47.4  0.0557    5.5  0.3112 -132.1
 6.000  0.6615  163.7   5.118   46.2  0.0555    5.4  0.3074 -133.3
 6.100  0.6619  162.5   5.029   45.0  0.0554    5.1  0.3044 -134.6
 6.200  0.6620  161.0   4.954   43.8  0.0553    5.0  0.3019 -135.6
 6.300  0.6615  159.9   4.863   42.7  0.0549    4.9  0.2978 -136.8
 6.400  0.6609  158.5   4.789   41.5  0.0549    4.8  0.2950 -137.9
 6.500  0.6606  157.1   4.706   40.4  0.0545    4.7  0.2909 -139.0
 6.600  0.6600  155.7   4.631   39.2  0.0544    4.7  0.2876 -140.1
 6.700  0.6591  154.4   4.548   38.1  0.0542    4.8  0.2831 -141.2
 6.800  0.6591  152.9   4.480   36.9  0.0540    4.9  0.2795 -142.3
 6.900  0.6582  151.6   4.402   35.8  0.0538    5.2  0.2747 -143.4
 7.000  0.6583  150.2   4.334   34.7  0.0538    5.4  0.2703 -144.5
 7.100  0.6578  149.0   4.262   33.6  0.0537    5.7  0.2655 -145.9
 7.200  0.6584  147.6   4.197   32.5  0.0538    6.1  0.2618 -147.3
 7.300  0.6591  146.4   4.128   31.4  0.0540    6.3  0.2583 -148.6
 7.400  0.6609  145.1   4.068   30.3  0.0542    6.6  0.2543 -150.3
 7.500  0.6626  143.9   4.006   29.3  0.0546    6.8  0.2518 -152.0
 7.600  0.6652  142.5   3.947   28.2  0.0548    7.0  0.2483 -153.9
 7.700  0.6677  141.5   3.884   27.2  0.0552    7.0  0.2450 -156.0
 7.800  0.6718  140.0   3.831   26.0  0.0557    7.0  0.2428 -158.5
 7.900  0.6750  139.0   3.771   25.0  0.0559    6.9  0.2404 -160.9
 8.000  0.6801  137.7   3.717   23.8  0.0562    6.8  0.2384 -163.8
 8.500  0.7058  132.6   3.444   18.4  0.0575    5.8  0.2385 -179.3
 9.000  0.7306  128.4   3.189   13.1  0.0581    4.8  0.2574  164.5
 9.500  0.7506  125.6   2.949    7.9  0.0583    4.0  0.2973  151.2
10.000  0.7678  122.4   2.725    2.9  0.0582    3.4  0.3502  141.3
!
!  f       NFmin   Gammaopt  rn/50
! GHz       dB    MAG  ANG    -
 0.450      0.44  0.22    5   0.24
 0.900      0.49  0.22   12   0.16
 1.500      0.57  0.22   23   0.10
 1.900      0.61  0.21   31   0.07
 2.400      0.66  0.21   42   0.06
 3.500      0.78  0.18   66   0.09
 5.500      0.98  0.10  127   0.10
10.000      1.39  0.38 -118   0.09
!
! (c) 2012  Infineon Technologies AG, Munich
