! Infineon Technologies  Discrete & RF Semiconductors
! BFP740FESD
! VCE =  4.0 V,  IC =  35 mA
! Common Emitter S-Parameters:                            Jan 2016
# GHz  S  MA  R  50
!  f         S11            S21            S12            S22
! GHz     MAG   ANG      MAG   ANG      MAG   ANG      MAG   ANG
 0.010  0.5840   -1.3  60.907  179.5  0.0010   45.1  0.9111    5.3
 0.015  0.5797   -2.5  60.861  178.3  0.0011   54.5  0.9273    2.4
 0.020  0.5757   -3.7  60.842  177.1  0.0012   62.3  0.9457   -0.4
 0.025  0.5749   -4.7  60.756  176.6  0.0014   64.0  0.9475   -1.0
 0.030  0.5742   -5.7  60.675  176.1  0.0016   65.2  0.9494   -1.6
 0.035  0.5738   -6.7  60.598  175.6  0.0017   66.2  0.9515   -2.2
 0.040  0.5735   -7.7  60.526  175.1  0.0019   67.1  0.9536   -2.8
 0.045  0.5733   -8.7  60.458  174.6  0.0021   67.7  0.9559   -3.4
 0.050  0.5734   -9.7  60.395  174.1  0.0023   68.3  0.9582   -4.0
 0.055  0.5725  -10.7  60.335  173.6  0.0025   69.1  0.9573   -4.6
 0.060  0.5717  -11.7  60.281  173.0  0.0026   69.8  0.9564   -5.1
 0.065  0.5711  -12.7  60.231  172.5  0.0028   70.4  0.9557   -5.7
 0.070  0.5707  -13.7  60.187  171.9  0.0030   71.0  0.9550   -6.3
 0.075  0.5705  -14.7  60.149  171.4  0.0031   71.5  0.9545   -6.8
 0.080  0.5704  -15.7  60.115  170.9  0.0033   71.9  0.9540   -7.4
 0.085  0.5705  -16.7  60.087  170.3  0.0035   72.3  0.9536   -8.0
 0.090  0.5708  -17.7  60.065  169.8  0.0037   72.7  0.9534   -8.6
 0.095  0.5713  -18.7  60.048  169.2  0.0038   73.0  0.9532   -9.1
 0.100  0.5719  -19.7  60.036  168.7  0.0040   73.3  0.9531   -9.7
 0.105  0.5709  -20.6  59.878  168.1  0.0042   73.2  0.9509  -10.2
 0.110  0.5701  -21.6  59.726  167.6  0.0044   73.1  0.9488  -10.7
 0.115  0.5694  -22.5  59.580  167.0  0.0045   73.1  0.9467  -11.3
 0.120  0.5689  -23.5  59.440  166.4  0.0047   73.0  0.9447  -11.8
 0.125  0.5685  -24.4  59.306  165.8  0.0049   72.9  0.9428  -12.3
 0.130  0.5683  -25.4  59.179  165.3  0.0051   72.9  0.9410  -12.9
 0.135  0.5682  -26.3  59.057  164.7  0.0053   72.8  0.9393  -13.4
 0.140  0.5683  -27.3  58.941  164.1  0.0054   72.8  0.9377  -13.9
 0.145  0.5686  -28.2  58.832  163.5  0.0056   72.7  0.9361  -14.5
 0.150  0.5690  -29.2  58.729  162.9  0.0058   72.7  0.9346  -15.0
 0.155  0.5681  -30.1  58.536  162.4  0.0060   72.3  0.9319  -15.5
 0.160  0.5672  -31.0  58.347  161.9  0.0062   71.9  0.9292  -15.9
 0.165  0.5666  -31.9  58.163  161.4  0.0063   71.6  0.9266  -16.4
 0.170  0.5660  -32.7  57.983  160.9  0.0065   71.3  0.9240  -16.9
 0.175  0.5656  -33.6  57.808  160.3  0.0067   70.9  0.9215  -17.4
 0.180  0.5654  -34.5  57.638  159.8  0.0069   70.6  0.9191  -17.8
 0.185  0.5653  -35.4  57.473  159.3  0.0071   70.4  0.9168  -18.3
 0.190  0.5653  -36.3  57.313  158.8  0.0072   70.1  0.9145  -18.8
 0.195  0.5654  -37.2  57.158  158.2  0.0074   69.8  0.9123  -19.3
 0.200  0.5657  -38.1  57.007  157.7  0.0076   69.6  0.9101  -19.8
 0.220  0.5618  -41.5  56.054  155.7  0.0082   68.8  0.8983  -21.5
 0.240  0.5600  -45.0  55.170  153.7  0.0089   68.1  0.8874  -23.3
 0.260  0.5582  -48.3  54.321  151.7  0.0095   67.2  0.8757  -25.0
 0.280  0.5563  -51.5  53.488  150.0  0.0101   66.1  0.8632  -26.6
 0.300  0.5561  -54.7  52.707  148.2  0.0107   65.2  0.8514  -28.3
 0.320  0.5534  -57.7  51.781  146.6  0.0112   64.2  0.8386  -29.8
 0.340  0.5521  -60.7  50.895  145.0  0.0117   63.2  0.8264  -31.3
 0.360  0.5513  -63.6  50.007  143.5  0.0123   62.3  0.8141  -32.8
 0.380  0.5506  -66.3  49.113  142.0  0.0128   61.4  0.8015  -34.1
 0.400  0.5511  -69.0  48.254  140.4  0.0133   60.6  0.7894  -35.5
 0.420  0.5498  -71.6  47.375  139.0  0.0138   59.8  0.7774  -36.8
 0.440  0.5497  -74.2  46.524  137.6  0.0143   59.1  0.7657  -38.0
 0.450  0.5500  -75.5  46.109  136.9  0.0145   58.7  0.7600  -38.7
 0.460  0.5494  -76.7  45.692  136.3  0.0147   58.3  0.7539  -39.3
 0.480  0.5488  -79.0  44.873  135.0  0.0151   57.5  0.7421  -40.5
 0.500  0.5492  -81.4  44.078  133.7  0.0155   56.7  0.7306  -41.8
 0.520  0.5479  -83.5  43.295  132.6  0.0159   56.0  0.7193  -42.8
 0.540  0.5473  -85.7  42.528  131.5  0.0163   55.2  0.7081  -43.9
 0.560  0.5476  -87.8  41.778  130.3  0.0166   54.6  0.6973  -44.9
 0.580  0.5485  -90.0  41.045  129.1  0.0170   53.9  0.6866  -46.1
 0.600  0.5503  -92.1  40.331  127.9  0.0174   53.3  0.6763  -47.2
 0.620  0.5499  -94.0  39.654  127.0  0.0177   52.7  0.6664  -48.1
 0.640  0.5500  -95.8  38.986  126.1  0.0181   52.0  0.6566  -49.1
 0.660  0.5507  -97.7  38.330  125.1  0.0184   51.4  0.6470  -50.1
 0.680  0.5520  -99.6  37.684  124.1  0.0188   50.9  0.6377  -51.1
 0.700  0.5539 -101.4  37.050  123.1  0.0191   50.3  0.6285  -52.1
 0.720  0.5540 -103.0  36.451  122.3  0.0194   49.8  0.6196  -52.9
 0.740  0.5544 -104.6  35.859  121.5  0.0197   49.3  0.6108  -53.8
 0.760  0.5553 -106.2  35.274  120.6  0.0199   48.8  0.6021  -54.7
 0.780  0.5567 -107.7  34.698  119.7  0.0202   48.4  0.5936  -55.6
 0.800  0.5584 -109.3  34.131  118.8  0.0205   47.9  0.5852  -56.5
 0.820  0.5590 -110.7  33.622  118.1  0.0207   47.4  0.5773  -57.3
 0.840  0.5600 -112.2  33.118  117.3  0.0210   47.0  0.5696  -58.1
 0.860  0.5613 -113.6  32.620  116.6  0.0212   46.6  0.5619  -58.9
 0.880  0.5630 -115.0  32.128  115.8  0.0215   46.1  0.5544  -59.7
 0.900  0.5650 -116.4  31.642  115.0  0.0217   45.7  0.5470  -60.6
 0.920  0.5655 -117.7  31.184  114.3  0.0219   45.3  0.5398  -61.3
 0.940  0.5662 -119.0  30.730  113.7  0.0221   44.9  0.5327  -62.1
 0.960  0.5673 -120.3  30.280  113.0  0.0223   44.5  0.5256  -62.9
 0.980  0.5686 -121.5  29.835  112.2  0.0225   44.2  0.5187  -63.7
 1.000  0.5702 -122.8  29.395  111.5  0.0227   43.8  0.5119  -64.5
 1.020  0.5712 -123.9  28.992  110.9  0.0229   43.5  0.5057  -65.2
 1.040  0.5723 -125.0  28.593  110.3  0.0231   43.1  0.4995  -65.8
 1.060  0.5737 -126.1  28.198  109.6  0.0232   42.8  0.4934  -66.5
 1.080  0.5752 -127.1  27.805  109.0  0.0234   42.5  0.4874  -67.3
 1.100  0.5770 -128.2  27.417  108.3  0.0236   42.2  0.4815  -68.0
 1.120  0.5778 -129.2  27.060  107.7  0.0238   41.9  0.4758  -68.7
 1.140  0.5788 -130.2  26.706  107.1  0.0239   41.6  0.4702  -69.4
 1.160  0.5800 -131.2  26.354  106.5  0.0241   41.3  0.4647  -70.1
 1.180  0.5813 -132.2  26.005  105.9  0.0242   41.0  0.4593  -70.8
 1.200  0.5828 -133.2  25.660  105.3  0.0244   40.7  0.4539  -71.6
 1.220  0.5836 -134.1  25.341  104.8  0.0245   40.4  0.4490  -72.2
 1.240  0.5845 -135.0  25.024  104.3  0.0247   40.2  0.4442  -72.8
 1.260  0.5855 -135.8  24.710  103.7  0.0248   39.9  0.4395  -73.5
 1.280  0.5867 -136.7  24.397  103.2  0.0250   39.7  0.4347  -74.1
 1.300  0.5880 -137.6  24.087  102.6  0.0251   39.4  0.4301  -74.8
 1.320  0.5885 -138.4  23.792  102.1  0.0252   39.2  0.4256  -75.4
 1.340  0.5891 -139.2  23.499  101.6  0.0253   39.0  0.4212  -76.0
 1.360  0.5899 -140.0  23.207  101.1  0.0255   38.8  0.4168  -76.7
 1.380  0.5907 -140.8  22.918  100.6  0.0256   38.6  0.4125  -77.3
 1.400  0.5917 -141.6  22.630  100.1  0.0257   38.4  0.4082  -78.0
 1.420  0.5925 -142.3  22.380   99.7  0.0258   38.2  0.4045  -78.5
 1.440  0.5933 -143.0  22.132   99.2  0.0259   38.1  0.4008  -79.1
 1.460  0.5942 -143.6  21.885   98.8  0.0260   37.9  0.3972  -79.6
 1.480  0.5952 -144.3  21.639   98.4  0.0261   37.8  0.3936  -80.2
 1.500  0.5963 -145.0  21.395   97.9  0.0262   37.6  0.3901  -80.8
 1.520  0.5972 -145.6  21.163   97.5  0.0263   37.4  0.3868  -81.4
 1.540  0.5982 -146.3  20.931   97.0  0.0264   37.3  0.3835  -81.9
 1.560  0.5993 -146.9  20.702   96.6  0.0265   37.1  0.3803  -82.5
 1.580  0.6005 -147.6  20.473   96.1  0.0266   37.0  0.3771  -83.1
 1.600  0.6017 -148.2  20.246   95.6  0.0267   36.8  0.3739  -83.7
 1.620  0.6019 -148.8  20.039   95.2  0.0268   36.7  0.3711  -84.2
 1.640  0.6022 -149.5  19.833   94.8  0.0269   36.5  0.3682  -84.7
 1.660  0.6026 -150.1  19.628   94.4  0.0270   36.4  0.3655  -85.2
 1.680  0.6031 -150.8  19.424   93.9  0.0271   36.2  0.3627  -85.8
 1.700  0.6036 -151.4  19.221   93.5  0.0272   36.1  0.3600  -86.3
 1.720  0.6041 -151.9  19.022   93.1  0.0273   36.0  0.3576  -86.8
 1.740  0.6046 -152.4  18.823   92.8  0.0274   36.0  0.3552  -87.3
 1.760  0.6052 -152.9  18.625   92.4  0.0274   35.9  0.3529  -87.8
 1.780  0.6058 -153.4  18.428   92.0  0.0275   35.9  0.3506  -88.3
 1.800  0.6065 -153.9  18.232   91.6  0.0276   35.8  0.3483  -88.8
 1.820  0.6071 -154.4  18.062   91.2  0.0277   35.7  0.3460  -89.3
 1.840  0.6077 -155.0  17.892   90.9  0.0278   35.6  0.3438  -89.9
 1.860  0.6083 -155.5  17.723   90.5  0.0279   35.4  0.3416  -90.5
 1.880  0.6090 -156.1  17.555   90.1  0.0280   35.3  0.3394  -91.0
 1.900  0.6098 -156.6  17.388   89.7  0.0281   35.2  0.3373  -91.6
 1.920  0.6099 -157.0  17.229   89.4  0.0282   35.1  0.3355  -92.0
 1.940  0.6101 -157.4  17.070   89.0  0.0283   35.1  0.3337  -92.4
 1.960  0.6102 -157.9  16.912   88.7  0.0283   35.0  0.3319  -92.8
 1.980  0.6105 -158.3  16.754   88.4  0.0284   35.0  0.3301  -93.2
 2.000  0.6107 -158.7  16.597   88.0  0.0285   34.9  0.3283  -93.6
 2.020  0.6109 -159.2  16.454   87.7  0.0286   34.8  0.3267  -94.1
 2.040  0.6111 -159.6  16.313   87.3  0.0286   34.8  0.3251  -94.5
 2.060  0.6113 -160.1  16.171   87.0  0.0287   34.7  0.3236  -95.0
 2.080  0.6116 -160.5  16.030   86.6  0.0288   34.7  0.3220  -95.5
 2.100  0.6119 -161.0  15.890   86.3  0.0288   34.6  0.3205  -95.9
 2.120  0.6122 -161.4  15.751   85.9  0.0289   34.6  0.3190  -96.4
 2.140  0.6126 -161.9  15.612   85.5  0.0290   34.5  0.3176  -96.9
 2.160  0.6130 -162.3  15.473   85.2  0.0291   34.5  0.3161  -97.4
 2.180  0.6135 -162.8  15.336   84.8  0.0291   34.4  0.3147  -97.9
 2.200  0.6140 -163.2  15.199   84.4  0.0292   34.4  0.3133  -98.4
 2.220  0.6141 -163.6  15.078   84.1  0.0293   34.4  0.3121  -98.8
 2.240  0.6143 -164.0  14.957   83.8  0.0294   34.3  0.3109  -99.3
 2.260  0.6145 -164.4  14.836   83.5  0.0294   34.3  0.3098  -99.7
 2.280  0.6147 -164.8  14.716   83.2  0.0295   34.2  0.3086 -100.2
 2.300  0.6150 -165.2  14.597   82.9  0.0296   34.2  0.3075 -100.6
 2.320  0.6153 -165.5  14.478   82.5  0.0297   34.2  0.3064 -101.1
 2.340  0.6156 -165.9  14.359   82.2  0.0298   34.1  0.3053 -101.5
 2.360  0.6159 -166.3  14.241   81.9  0.0298   34.1  0.3043 -102.0
 2.380  0.6163 -166.7  14.123   81.5  0.0299   34.0  0.3032 -102.4
 2.400  0.6167 -167.1  14.006   81.2  0.0300   34.0  0.3022 -102.9
 2.420  0.6170 -167.5  13.900   80.9  0.0301   34.0  0.3014 -103.3
 2.440  0.6173 -167.9  13.795   80.6  0.0301   34.0  0.3006 -103.8
 2.460  0.6177 -168.2  13.690   80.3  0.0302   33.9  0.2998 -104.2
 2.480  0.6181 -168.6  13.586   80.1  0.0302   33.9  0.2990 -104.6
 2.500  0.6185 -169.0  13.481   79.8  0.0303   33.9  0.2982 -105.1
 2.520  0.6190 -169.4  13.378   79.5  0.0304   33.9  0.2975 -105.5
 2.540  0.6194 -169.8  13.274   79.1  0.0304   33.9  0.2968 -106.0
 2.560  0.6199 -170.1  13.171   78.8  0.0305   33.8  0.2961 -106.4
 2.580  0.6204 -170.5  13.068   78.5  0.0305   33.8  0.2954 -106.9
 2.600  0.6210 -170.9  12.966   78.2  0.0306   33.8  0.2947 -107.3
 2.620  0.6211 -171.2  12.873   77.9  0.0307   33.8  0.2942 -107.7
 2.640  0.6213 -171.5  12.780   77.7  0.0307   33.8  0.2937 -108.1
 2.660  0.6214 -171.9  12.688   77.4  0.0308   33.8  0.2933 -108.4
 2.680  0.6216 -172.2  12.595   77.1  0.0308   33.8  0.2928 -108.8
 2.700  0.6218 -172.5  12.503   76.9  0.0309   33.9  0.2924 -109.2
 2.720  0.6220 -172.8  12.412   76.6  0.0310   33.9  0.2920 -109.6
 2.740  0.6223 -173.1  12.320   76.3  0.0310   33.9  0.2916 -109.9
 2.760  0.6225 -173.5  12.229   76.0  0.0311   33.9  0.2912 -110.3
 2.780  0.6228 -173.8  12.138   75.7  0.0311   33.9  0.2908 -110.7
 2.800  0.6231 -174.1  12.048   75.4  0.0312   33.9  0.2904 -111.1
 2.820  0.6235 -174.4  11.968   75.2  0.0313   33.9  0.2902 -111.4
 2.840  0.6239 -174.6  11.889   74.9  0.0313   33.9  0.2900 -111.7
 2.860  0.6243 -174.9  11.809   74.7  0.0314   33.9  0.2898 -112.1
 2.880  0.6248 -175.2  11.730   74.4  0.0315   33.9  0.2896 -112.4
 2.900  0.6252 -175.5  11.652   74.1  0.0316   33.9  0.2894 -112.7
 2.920  0.6257 -175.7  11.573   73.9  0.0316   33.9  0.2892 -113.0
 2.940  0.6262 -176.0  11.495   73.6  0.0317   33.9  0.2890 -113.3
 2.960  0.6267 -176.3  11.416   73.3  0.0318   33.9  0.2889 -113.7
 2.980  0.6272 -176.5  11.339   73.1  0.0318   33.9  0.2887 -114.0
 3.000  0.6277 -176.8  11.261   72.8  0.0319   33.9  0.2886 -114.3
 3.100  0.6285 -178.1  10.940   71.7  0.0322   34.0  0.2883 -115.5
 3.200  0.6296 -179.4  10.622   70.6  0.0326   34.1  0.2882 -116.6
 3.300  0.6310  179.3  10.309   69.4  0.0329   34.3  0.2882 -117.8
 3.400  0.6328  178.1  10.002   68.1  0.0333   34.4  0.2883 -118.9
 3.500  0.6348  176.8   9.699   66.7  0.0336   34.5  0.2885 -120.1
 3.600  0.6356  175.7   9.463   65.6  0.0340   34.7  0.2881 -121.0
 3.700  0.6367  174.5   9.231   64.5  0.0345   34.9  0.2878 -121.8
 3.800  0.6381  173.4   9.002   63.3  0.0349   35.1  0.2875 -122.7
 3.900  0.6397  172.2   8.778   62.0  0.0354   35.2  0.2873 -123.5
 4.000  0.6415  171.1   8.558   60.7  0.0358   35.4  0.2872 -124.4
 4.100  0.6430  170.0   8.362   59.6  0.0363   35.4  0.2869 -125.5
 4.200  0.6447  169.0   8.170   58.4  0.0367   35.5  0.2867 -126.7
 4.300  0.6466  168.0   7.981   57.2  0.0372   35.5  0.2866 -127.8
 4.400  0.6487  166.9   7.796   55.9  0.0376   35.6  0.2867 -129.0
 4.500  0.6510  165.9   7.615   54.6  0.0381   35.6  0.2868 -130.1
 4.600  0.6521  165.0   7.448   53.6  0.0385   35.6  0.2867 -131.2
 4.700  0.6533  164.1   7.284   52.5  0.0390   35.6  0.2867 -132.3
 4.800  0.6546  163.2   7.122   51.4  0.0394   35.7  0.2868 -133.4
 4.900  0.6561  162.4   6.963   50.2  0.0399   35.7  0.2870 -134.5
 5.000  0.6578  161.5   6.807   49.0  0.0403   35.7  0.2873 -135.6
 5.100  0.6573  160.6   6.675   48.0  0.0408   35.7  0.2869 -136.5
 5.200  0.6569  159.8   6.544   47.0  0.0412   35.7  0.2866 -137.4
 5.300  0.6567  158.9   6.416   45.9  0.0417   35.6  0.2864 -138.4
 5.400  0.6566  158.1   6.290   44.8  0.0421   35.6  0.2863 -139.3
 5.500  0.6567  157.2   6.167   43.6  0.0426   35.6  0.2862 -140.2
 5.600  0.6566  156.2   6.064   42.6  0.0431   35.5  0.2853 -141.4
 5.700  0.6568  155.1   5.964   41.5  0.0436   35.4  0.2846 -142.7
 5.800  0.6572  154.1   5.866   40.4  0.0441   35.3  0.2840 -144.0
 5.900  0.6578  153.0   5.770   39.2  0.0446   35.2  0.2835 -145.2
 6.000  0.6586  152.0   5.676   38.0  0.0451   35.1  0.2832 -146.5
 6.100  0.6588  150.9   5.580   36.9  0.0455   35.0  0.2824 -148.0
 6.200  0.6593  149.7   5.487   35.8  0.0460   34.9  0.2818 -149.4
 6.300  0.6600  148.6   5.395   34.6  0.0464   34.9  0.2814 -150.9
 6.400  0.6610  147.4   5.306   33.4  0.0469   34.8  0.2811 -152.4
 6.500  0.6623  146.3   5.220   32.1  0.0473   34.7  0.2811 -153.9
 6.600  0.6633  145.3   5.130   31.0  0.0477   34.8  0.2789 -155.2
 6.800  0.6658  143.2   4.957   28.8  0.0486   35.1  0.2748 -157.8
 7.000  0.6693  141.1   4.791   26.4  0.0494   35.3  0.2714 -160.5
 7.200  0.6721  139.4   4.635   24.5  0.0509   35.7  0.2653 -163.4
 7.400  0.6755  137.7   4.486   22.4  0.0524   36.0  0.2599 -166.4
 7.600  0.6818  136.0   4.349   20.2  0.0543   35.9  0.2574 -170.2
 7.800  0.6910  134.4   4.225   17.9  0.0564   35.3  0.2585 -174.8
 8.000  0.7007  132.8   4.109   15.5  0.0585   34.7  0.2612 -179.3
 8.200  0.7067  131.2   3.970   13.2  0.0601   33.2  0.2688  175.2
 8.400  0.7132  129.6   3.839   10.7  0.0617   31.9  0.2787  170.0
 8.600  0.7178  128.2   3.709    8.4  0.0629   30.6  0.2890  164.8
 8.800  0.7203  126.9   3.577    6.3  0.0636   29.3  0.3002  159.4
 9.000  0.7232  125.6   3.451    4.0  0.0644   28.1  0.3138  154.5
 9.200  0.7281  124.5   3.337    2.6  0.0651   27.0  0.3301  149.8
 9.400  0.7332  123.4   3.226    1.0  0.0657   26.0  0.3483  145.6
 9.600  0.7428  122.0   3.124   -0.8  0.0663   25.1  0.3708  141.9
 9.800  0.7569  120.4   3.033   -3.0  0.0668   24.3  0.3973  138.6
10.000  0.7717  118.8   2.946   -5.3  0.0672   23.5  0.4249  135.7
!
!  f       NFmin   Gammaopt  rn/50
! GHz       dB    MAG  ANG    -
 0.450      1.06  0.21 -171   0.08
 2.400      1.10  0.22 -158   0.09
 5.500      1.26  0.25 -159   0.10
10.000      1.79  0.43 -113   0.25
!
! (c) 2016  Infineon Technologies AG, Munich
