! Infineon Technologies  Discrete & RF Semiconductors
! BFP740
! VCE =  2.5 V,  IC =  6.0 mA
! Common Emitter S-Parameters:                            Jan 2016
# GHz  S  MA  R  50
!  f         S11            S21            S12            S22
! GHz     MAG   ANG      MAG   ANG      MAG   ANG      MAG   ANG
 0.030  0.9404   -1.8  17.244  177.3  0.0014   88.9  0.9972   -1.2
 0.035  0.9397   -2.1  17.206  177.0  0.0014   87.7  0.9974   -1.5
 0.040  0.9390   -2.4  17.168  176.6  0.0014   86.5  0.9977   -1.7
 0.045  0.9394   -2.7  17.248  176.4  0.0022  105.6  0.9982   -2.0
 0.050  0.9399   -3.0  17.329  176.2  0.0032  113.8  0.9988   -2.2
 0.055  0.9386   -3.3  17.283  175.8  0.0028  105.3  0.9975   -2.3
 0.060  0.9373   -3.6  17.238  175.3  0.0024   94.0  0.9962   -2.5
 0.065  0.9381   -3.9  17.196  175.0  0.0033   94.1  0.9964   -2.7
 0.070  0.9389   -4.2  17.155  174.7  0.0042   94.1  0.9967   -2.9
 0.075  0.9386   -4.5  17.139  174.4  0.0040   96.7  0.9965   -3.1
 0.080  0.9383   -4.8  17.124  174.1  0.0039   99.4  0.9964   -3.3
 0.085  0.9373   -5.1  17.089  173.8  0.0037   96.0  0.9967   -3.5
 0.090  0.9363   -5.5  17.055  173.4  0.0036   92.3  0.9971   -3.7
 0.095  0.9354   -5.7  17.057  173.1  0.0043   88.7  0.9958   -3.9
 0.100  0.9345   -6.0  17.060  172.9  0.0050   86.1  0.9946   -4.2
 0.105  0.9346   -6.4  17.040  172.6  0.0053   83.0  0.9946   -4.4
 0.110  0.9347   -6.7  17.021  172.3  0.0057   80.2  0.9947   -4.6
 0.115  0.9342   -6.9  16.982  172.0  0.0058   80.0  0.9940   -4.8
 0.120  0.9337   -7.2  16.944  171.7  0.0060   79.8  0.9934   -5.0
 0.125  0.9337   -7.5  16.870  171.5  0.0065   83.7  0.9927   -5.2
 0.130  0.9338   -7.8  16.796  171.2  0.0071   87.0  0.9920   -5.4
 0.135  0.9333   -8.1  16.766  171.0  0.0074   85.1  0.9919   -5.6
 0.140  0.9329   -8.4  16.737  170.7  0.0078   83.3  0.9919   -5.8
 0.145  0.9326   -8.7  16.713  170.5  0.0076   83.9  0.9913   -6.0
 0.150  0.9324   -9.0  16.690  170.2  0.0074   84.6  0.9908   -6.3
 0.155  0.9318   -9.3  16.661  170.0  0.0076   84.5  0.9903   -6.5
 0.160  0.9313   -9.6  16.632  169.7  0.0079   84.3  0.9898   -6.7
 0.165  0.9308   -9.9  16.604  169.5  0.0081   84.2  0.9893   -6.9
 0.170  0.9303  -10.2  16.576  169.2  0.0084   84.1  0.9888   -7.1
 0.175  0.9299  -10.4  16.549  169.0  0.0086   84.0  0.9883   -7.3
 0.180  0.9294  -10.7  16.521  168.7  0.0089   83.9  0.9879   -7.5
 0.185  0.9290  -11.0  16.494  168.5  0.0091   83.8  0.9875   -7.7
 0.190  0.9286  -11.3  16.467  168.2  0.0094   83.7  0.9870   -7.9
 0.195  0.9282  -11.6  16.441  168.0  0.0096   83.6  0.9866   -8.1
 0.200  0.9279  -11.9  16.415  167.7  0.0099   83.5  0.9862   -8.3
 0.220  0.9254  -13.1  16.313  166.8  0.0111   82.3  0.9841   -9.1
 0.240  0.9232  -14.2  16.214  165.9  0.0122   81.3  0.9821   -9.8
 0.260  0.9216  -15.3  16.103  165.1  0.0133   80.4  0.9800  -10.6
 0.280  0.9204  -16.4  15.981  164.3  0.0143   79.4  0.9778  -11.3
 0.300  0.9196  -17.5  15.861  163.5  0.0153   78.6  0.9758  -12.1
 0.320  0.9175  -18.6  15.785  162.7  0.0162   78.5  0.9736  -12.9
 0.340  0.9158  -19.7  15.711  161.9  0.0171   78.4  0.9716  -13.6
 0.360  0.9139  -20.9  15.644  161.1  0.0181   77.7  0.9691  -14.4
 0.380  0.9118  -22.0  15.584  160.3  0.0190   76.5  0.9662  -15.1
 0.400  0.9101  -23.1  15.526  159.5  0.0200   75.4  0.9634  -15.9
 0.420  0.9080  -24.2  15.471  158.7  0.0209   74.8  0.9615  -16.6
 0.440  0.9062  -25.3  15.419  157.9  0.0218   74.2  0.9598  -17.3
 0.450  0.9054  -25.9  15.394  157.5  0.0222   73.9  0.9590  -17.7
 0.460  0.9043  -26.4  15.360  157.1  0.0227   73.5  0.9573  -18.1
 0.480  0.9022  -27.5  15.293  156.4  0.0237   72.7  0.9541  -18.8
 0.500  0.9005  -28.6  15.229  155.6  0.0247   72.0  0.9511  -19.6
 0.520  0.8975  -29.7  15.167  154.8  0.0256   71.3  0.9478  -20.3
 0.540  0.8949  -30.8  15.108  154.1  0.0266   70.6  0.9447  -21.0
 0.560  0.8925  -31.9  15.051  153.3  0.0275   69.9  0.9417  -21.7
 0.580  0.8906  -33.0  14.998  152.5  0.0285   69.4  0.9389  -22.5
 0.600  0.8889  -34.1  14.947  151.7  0.0294   68.8  0.9362  -23.2
 0.620  0.8862  -35.2  14.879  151.0  0.0303   68.0  0.9328  -23.9
 0.640  0.8837  -36.2  14.813  150.3  0.0311   67.3  0.9295  -24.7
 0.660  0.8816  -37.3  14.750  149.6  0.0320   66.7  0.9263  -25.4
 0.680  0.8798  -38.4  14.689  148.8  0.0328   66.0  0.9233  -26.2
 0.700  0.8783  -39.5  14.630  148.1  0.0337   65.4  0.9205  -26.9
 0.720  0.8749  -40.6  14.599  147.3  0.0345   64.7  0.9166  -27.6
 0.740  0.8718  -41.8  14.570  146.5  0.0353   64.0  0.9127  -28.3
 0.760  0.8691  -43.0  14.544  145.7  0.0361   63.3  0.9091  -29.0
 0.780  0.8667  -44.1  14.521  144.9  0.0369   62.7  0.9056  -29.8
 0.800  0.8647  -45.3  14.501  144.1  0.0377   62.1  0.9022  -30.5
 0.820  0.8616  -46.3  14.439  143.4  0.0385   61.4  0.8981  -31.2
 0.840  0.8587  -47.4  14.379  142.6  0.0394   60.7  0.8941  -31.9
 0.860  0.8561  -48.5  14.321  141.9  0.0403   60.0  0.8903  -32.6
 0.880  0.8539  -49.5  14.266  141.2  0.0411   59.4  0.8866  -33.4
 0.900  0.8519  -50.6  14.213  140.4  0.0420   58.8  0.8830  -34.1
 0.920  0.8490  -51.6  14.130  139.7  0.0427   58.2  0.8789  -34.8
 0.940  0.8464  -52.6  14.050  139.1  0.0434   57.6  0.8749  -35.4
 0.960  0.8440  -53.6  13.971  138.4  0.0441   57.0  0.8711  -36.1
 0.980  0.8419  -54.7  13.895  137.7  0.0449   56.4  0.8673  -36.8
 1.000  0.8401  -55.7  13.820  137.0  0.0456   55.9  0.8637  -37.5
 1.020  0.8366  -56.7  13.760  136.3  0.0463   55.2  0.8591  -38.2
 1.040  0.8334  -57.8  13.703  135.5  0.0470   54.6  0.8546  -38.8
 1.060  0.8304  -58.8  13.648  134.8  0.0477   54.0  0.8503  -39.5
 1.080  0.8277  -59.8  13.595  134.1  0.0484   53.4  0.8460  -40.2
 1.100  0.8253  -60.9  13.545  133.3  0.0491   52.8  0.8419  -40.9
 1.120  0.8221  -61.9  13.472  132.6  0.0497   52.2  0.8374  -41.5
 1.140  0.8192  -62.9  13.402  131.9  0.0504   51.7  0.8331  -42.2
 1.160  0.8165  -63.9  13.333  131.2  0.0510   51.1  0.8288  -42.9
 1.180  0.8141  -64.9  13.267  130.5  0.0517   50.6  0.8246  -43.5
 1.200  0.8119  -65.9  13.202  129.8  0.0523   50.1  0.8206  -44.2
 1.220  0.8086  -66.9  13.143  129.1  0.0528   49.5  0.8163  -44.8
 1.240  0.8055  -68.0  13.086  128.4  0.0534   48.9  0.8122  -45.4
 1.260  0.8027  -69.0  13.031  127.7  0.0540   48.3  0.8081  -46.0
 1.280  0.8002  -70.0  12.978  127.0  0.0545   47.8  0.8041  -46.7
 1.300  0.7979  -71.1  12.927  126.3  0.0551   47.2  0.8002  -47.3
 1.320  0.7952  -72.0  12.860  125.7  0.0556   46.7  0.7959  -47.9
 1.340  0.7928  -73.0  12.795  125.0  0.0562   46.1  0.7918  -48.5
 1.360  0.7906  -74.0  12.731  124.4  0.0567   45.6  0.7877  -49.1
 1.380  0.7886  -74.9  12.669  123.8  0.0573   45.1  0.7837  -49.8
 1.400  0.7868  -75.9  12.609  123.1  0.0578   44.6  0.7798  -50.4
 1.420  0.7839  -76.8  12.540  122.5  0.0583   44.1  0.7756  -51.0
 1.440  0.7813  -77.8  12.473  121.9  0.0589   43.6  0.7716  -51.5
 1.460  0.7788  -78.7  12.407  121.3  0.0594   43.1  0.7676  -52.1
 1.480  0.7765  -79.6  12.342  120.6  0.0600   42.6  0.7636  -52.7
 1.500  0.7745  -80.6  12.279  120.0  0.0605   42.1  0.7598  -53.3
 1.520  0.7714  -81.7  12.242  119.3  0.0609   41.6  0.7555  -53.9
 1.540  0.7685  -82.7  12.206  118.7  0.0614   41.0  0.7513  -54.5
 1.560  0.7659  -83.8  12.172  118.0  0.0618   40.5  0.7472  -55.1
 1.580  0.7636  -84.9  12.140  117.3  0.0622   40.0  0.7431  -55.8
 1.600  0.7615  -86.0  12.110  116.6  0.0627   39.5  0.7392  -56.4
 1.620  0.7590  -86.9  12.044  116.0  0.0631   39.0  0.7348  -57.0
 1.640  0.7568  -87.8  11.978  115.4  0.0636   38.6  0.7305  -57.5
 1.660  0.7547  -88.7  11.915  114.8  0.0640   38.2  0.7263  -58.1
 1.680  0.7528  -89.6  11.852  114.2  0.0645   37.7  0.7221  -58.7
 1.700  0.7511  -90.5  11.791  113.6  0.0649   37.3  0.7180  -59.3
 1.720  0.7489  -91.4  11.728  113.0  0.0653   36.8  0.7144  -59.8
 1.740  0.7469  -92.3  11.666  112.5  0.0657   36.3  0.7109  -60.4
 1.760  0.7451  -93.2  11.606  111.9  0.0661   35.8  0.7075  -61.0
 1.780  0.7435  -94.1  11.546  111.3  0.0666   35.3  0.7041  -61.5
 1.800  0.7421  -95.0  11.488  110.7  0.0670   34.8  0.7008  -62.1
 1.820  0.7401  -95.9  11.432  110.1  0.0674   34.4  0.6964  -62.7
 1.840  0.7382  -96.8  11.377  109.6  0.0677   33.9  0.6920  -63.2
 1.860  0.7365  -97.7  11.323  109.0  0.0681   33.5  0.6877  -63.8
 1.880  0.7351  -98.7  11.270  108.4  0.0685   33.1  0.6835  -64.4
 1.900  0.7338  -99.6  11.218  107.8  0.0689   32.7  0.6794  -65.0
 1.920  0.7317 -100.5  11.161  107.2  0.0692   32.3  0.6757  -65.6
 1.940  0.7299 -101.4  11.105  106.7  0.0695   31.8  0.6722  -66.1
 1.960  0.7282 -102.3  11.051  106.1  0.0698   31.4  0.6686  -66.7
 1.980  0.7266 -103.2  10.997  105.5  0.0702   30.9  0.6652  -67.3
 2.000  0.7253 -104.1  10.945  104.9  0.0705   30.5  0.6618  -67.9
 2.020  0.7232 -105.1  10.893  104.3  0.0708   30.0  0.6573  -68.5
 2.040  0.7213 -106.0  10.842  103.6  0.0711   29.5  0.6528  -69.1
 2.060  0.7196 -107.0  10.792  103.0  0.0714   29.0  0.6484  -69.7
 2.080  0.7181 -107.9  10.744  102.4  0.0717   28.6  0.6441  -70.4
 2.100  0.7168 -108.9  10.697  101.7  0.0720   28.1  0.6399  -71.0
 2.120  0.7148 -109.7  10.640  101.2  0.0722   27.7  0.6364  -71.5
 2.140  0.7129 -110.6  10.583  100.6  0.0725   27.3  0.6329  -72.1
 2.160  0.7112 -111.4  10.528  100.0  0.0727   26.9  0.6295  -72.6
 2.180  0.7096 -112.3  10.473   99.5  0.0730   26.5  0.6262  -73.1
 2.200  0.7082 -113.1  10.420   98.9  0.0732   26.1  0.6229  -73.7
 2.220  0.7063 -114.0  10.369   98.4  0.0735   25.7  0.6190  -74.2
 2.240  0.7045 -114.8  10.319   97.8  0.0738   25.3  0.6152  -74.7
 2.260  0.7029 -115.7  10.270   97.3  0.0741   24.9  0.6115  -75.2
 2.280  0.7014 -116.5  10.221   96.8  0.0744   24.5  0.6078  -75.8
 2.300  0.7001 -117.4  10.174   96.2  0.0747   24.1  0.6041  -76.3
 2.320  0.6988 -118.2  10.114   95.7  0.0749   23.7  0.6008  -76.8
 2.340  0.6976 -118.9  10.054   95.2  0.0750   23.4  0.5976  -77.4
 2.360  0.6966 -119.7   9.995   94.7  0.0752   23.0  0.5945  -77.9
 2.380  0.6956 -120.4   9.937   94.2  0.0753   22.7  0.5914  -78.4
 2.400  0.6948 -121.2   9.880   93.7  0.0755   22.3  0.5883  -79.0
 2.420  0.6930 -122.1   9.834   93.2  0.0758   21.9  0.5846  -79.5
 2.440  0.6914 -122.9   9.789   92.6  0.0760   21.5  0.5808  -80.0
 2.460  0.6899 -123.8   9.744   92.1  0.0763   21.1  0.5772  -80.5
 2.480  0.6886 -124.6   9.701   91.5  0.0765   20.7  0.5736  -81.0
 2.500  0.6874 -125.5   9.658   91.0  0.0768   20.3  0.5700  -81.5
 2.520  0.6859 -126.3   9.609   90.5  0.0770   19.9  0.5662  -82.0
 2.540  0.6846 -127.1   9.560   90.0  0.0771   19.6  0.5624  -82.6
 2.560  0.6833 -127.9   9.512   89.5  0.0773   19.2  0.5587  -83.2
 2.580  0.6823 -128.7   9.465   88.9  0.0774   18.9  0.5550  -83.7
 2.600  0.6813 -129.5   9.419   88.4  0.0776   18.5  0.5514  -84.3
 2.620  0.6797 -130.3   9.377   87.9  0.0777   18.1  0.5479  -84.8
 2.640  0.6783 -131.2   9.335   87.3  0.0779   17.8  0.5445  -85.3
 2.660  0.6770 -132.0   9.294   86.8  0.0780   17.4  0.5411  -85.8
 2.680  0.6759 -132.9   9.254   86.2  0.0782   17.1  0.5378  -86.3
 2.700  0.6749 -133.7   9.215   85.7  0.0783   16.7  0.5345  -86.8
 2.720  0.6736 -134.5   9.168   85.2  0.0784   16.4  0.5310  -87.3
 2.740  0.6724 -135.3   9.123   84.7  0.0785   16.1  0.5275  -87.9
 2.760  0.6713 -136.0   9.077   84.2  0.0787   15.7  0.5241  -88.5
 2.780  0.6704 -136.8   9.033   83.7  0.0788   15.4  0.5207  -89.0
 2.800  0.6696 -137.6   8.989   83.2  0.0789   15.1  0.5174  -89.6
 2.820  0.6686 -138.4   8.944   82.7  0.0791   14.8  0.5145  -90.1
 2.840  0.6676 -139.2   8.901   82.2  0.0793   14.5  0.5116  -90.6
 2.860  0.6668 -139.9   8.857   81.7  0.0794   14.1  0.5088  -91.1
 2.880  0.6662 -140.7   8.815   81.2  0.0796   13.8  0.5060  -91.7
 2.900  0.6656 -141.5   8.773   80.7  0.0798   13.5  0.5033  -92.2
 2.920  0.6643 -142.2   8.727   80.2  0.0799   13.1  0.4999  -92.8
 2.940  0.6631 -143.0   8.682   79.8  0.0800   12.8  0.4966  -93.3
 2.960  0.6621 -143.7   8.638   79.3  0.0801   12.4  0.4934  -93.9
 2.980  0.6611 -144.5   8.594   78.8  0.0802   12.1  0.4902  -94.5
 3.000  0.6603 -145.2   8.551   78.3  0.0803   11.7  0.4870  -95.1
 3.100  0.6557 -149.3   8.376   75.7  0.0807   10.2  0.4724  -97.9
 3.200  0.6518 -153.0   8.173   73.3  0.0809    8.7  0.4579 -100.9
 3.300  0.6495 -156.5   7.973   71.0  0.0815    7.2  0.4465 -103.6
 3.400  0.6467 -160.2   7.781   68.7  0.0815    5.7  0.4326 -106.6
 3.500  0.6448 -163.7   7.594   66.4  0.0817    4.1  0.4207 -109.4
 3.600  0.6427 -167.2   7.420   64.1  0.0815    2.8  0.4077 -112.6
 3.700  0.6416 -170.5   7.240   61.9  0.0817    1.4  0.3969 -115.5
 3.800  0.6409 -173.9   7.071   59.7  0.0815    0.0  0.3863 -118.6
 3.900  0.6398 -177.0   6.896   57.5  0.0816   -1.4  0.3775 -121.6
 4.000  0.6397  180.0   6.719   55.4  0.0813   -2.5  0.3691 -124.7
 4.100  0.6391  176.9   6.571   53.3  0.0809   -3.6  0.3609 -127.8
 4.200  0.6400  174.1   6.403   51.2  0.0805   -4.8  0.3548 -130.7
 4.300  0.6401  171.3   6.257   49.2  0.0803   -5.9  0.3485 -133.5
 4.400  0.6423  168.8   6.094   47.2  0.0800   -6.9  0.3429 -136.3
 4.500  0.6421  166.2   5.956   45.3  0.0795   -8.0  0.3376 -139.1
 4.600  0.6448  163.6   5.823   43.3  0.0790   -8.9  0.3327 -141.9
 4.700  0.6450  161.4   5.682   41.5  0.0785   -9.8  0.3277 -144.6
 4.800  0.6477  159.1   5.552   39.6  0.0782  -10.7  0.3246 -147.0
 4.900  0.6482  157.0   5.426   37.8  0.0777  -11.4  0.3205 -149.6
 5.000  0.6508  154.9   5.311   36.0  0.0770  -12.3  0.3166 -152.2
 5.100  0.6516  152.9   5.189   34.2  0.0767  -12.9  0.3141 -154.5
 5.200  0.6537  151.1   5.079   32.6  0.0761  -13.7  0.3111 -156.9
 5.300  0.6542  149.3   4.960   30.8  0.0760  -14.4  0.3089 -159.1
 5.400  0.6562  147.6   4.859   29.2  0.0755  -15.1  0.3058 -161.5
 5.500  0.6562  145.9   4.755   27.5  0.0750  -15.7  0.3035 -163.8
 5.600  0.6580  144.3   4.667   25.9  0.0744  -16.1  0.3012 -166.3
 5.700  0.6576  142.8   4.567   24.3  0.0739  -16.7  0.2992 -168.5
 5.800  0.6594  141.2   4.483   22.7  0.0737  -17.2  0.2982 -170.8
 5.900  0.6607  139.9   4.392   21.2  0.0731  -17.7  0.2976 -173.0
 6.000  0.6618  138.4   4.318   19.5  0.0729  -17.9  0.2971 -175.4
 6.100  0.6647  137.0   4.242   18.0  0.0727  -18.4  0.2973 -177.9
 6.200  0.6653  135.7   4.171   16.5  0.0729  -19.1  0.2982  179.9
 6.300  0.6677  134.3   4.092   14.8  0.0726  -19.3  0.2989  177.6
 6.400  0.6690  132.8   4.030   13.2  0.0724  -19.9  0.3004  175.3
 6.500  0.6716  131.2   3.965   11.6  0.0722  -20.3  0.3015  173.0
 6.600  0.6725  129.7   3.898    9.9  0.0719  -20.6  0.3031  170.7
 6.800  0.6766  126.7   3.769    6.8  0.0715  -21.7  0.3068  166.5
 7.000  0.6803  123.6   3.655    3.5  0.0713  -22.5  0.3121  162.1
 7.200  0.6854  120.6   3.541    0.3  0.0710  -23.3  0.3183  158.2
 7.400  0.6902  117.5   3.431   -3.0  0.0708  -24.3  0.3245  154.2
 7.600  0.6968  114.1   3.328   -6.4  0.0705  -25.1  0.3315  149.8
 7.800  0.7046  110.8   3.216   -9.7  0.0703  -26.3  0.3384  145.7
 8.000  0.7130  107.5   3.113  -13.1  0.0700  -27.2  0.3461  141.2
 8.200  0.7207  104.2   2.997  -16.4  0.0695  -28.2  0.3539  136.3
 8.400  0.7307  100.9   2.892  -19.9  0.0690  -29.2  0.3642  131.6
 8.600  0.7401   97.8   2.784  -23.2  0.0685  -30.1  0.3767  126.9
 8.800  0.7487   94.8   2.671  -26.4  0.0679  -30.9  0.3916  122.2
 9.000  0.7592   91.9   2.567  -29.8  0.0674  -31.8  0.4089  117.9
 9.200  0.7672   89.4   2.452  -32.5  0.0666  -32.4  0.4269  113.9
 9.400  0.7767   86.9   2.342  -35.4  0.0658  -33.0  0.4467  110.3
 9.600  0.7857   84.8   2.240  -38.1  0.0651  -33.4  0.4669  107.3
 9.800  0.7937   83.0   2.143  -40.5  0.0645  -33.5  0.4868  105.0
10.000  0.8025   81.2   2.050  -43.1  0.0639  -33.7  0.5075  102.8
!
!  f       NFmin   Gammaopt  rn/50
! GHz       dB    MAG  ANG    -
 0.450      0.45  0.36   10   0.21
 0.900      0.46  0.37   17   0.20
 1.500      0.49  0.35   25   0.19
 1.900      0.52  0.34   42   0.19
 2.400      0.55  0.34   46   0.18
 3.500      0.65  0.31   66   0.17
 5.500      0.86  0.22  171   0.15
10.000      1.45  0.54  -80   0.20
!
! (c) 2016  Infineon Technologies AG, Munich
