! Infineon Technologies  Discrete & RF Semiconductors
! BFP740F
! VCE =  2.5 V,  IC =  35 mA
! Common Emitter S-Parameters:                            Oct 2012
# GHz  S  MA  R  50
!  f         S11            S21            S12            S22
! GHz     MAG   ANG      MAG   ANG      MAG   ANG      MAG   ANG
 0.030  0.5996   -6.4  57.329  175.6  0.0015   90.0  0.9720   -1.9
 0.040  0.6023   -8.6  57.528  174.2  0.0021   83.2  0.9765   -3.2
 0.050  0.6061  -10.5  58.057  172.8  0.0025   77.2  0.9758   -4.6
 0.060  0.6055  -12.7  57.998  171.3  0.0027   84.3  0.9771   -5.7
 0.070  0.6058  -14.8  58.007  169.8  0.0034   87.1  0.9756   -7.0
 0.080  0.6071  -16.7  57.616  168.4  0.0034   84.2  0.9730   -8.1
 0.090  0.6039  -18.9  57.168  167.0  0.0044   79.3  0.9693   -9.3
 0.100  0.6040  -20.9  56.599  165.7  0.0048   81.2  0.9653  -10.4
 0.110  0.6016  -22.9  55.951  164.4  0.0049   79.6  0.9620  -11.5
 0.120  0.6005  -24.9  55.436  163.2  0.0056   79.2  0.9566  -12.6
 0.130  0.5993  -26.9  54.924  162.0  0.0058   77.9  0.9522  -13.7
 0.140  0.6000  -28.7  54.540  160.9  0.0060   76.1  0.9464  -14.7
 0.150  0.5996  -30.6  54.262  159.7  0.0064   76.3  0.9415  -15.6
 0.200  0.6012  -39.4  52.002  154.7  0.0086   75.1  0.9153  -20.3
 0.250  0.6021  -47.6  50.028  150.4  0.0102   72.2  0.8865  -24.6
 0.300  0.6046  -55.1  47.979  146.6  0.0122   67.6  0.8590  -28.5
 0.350  0.6064  -62.8  45.811  143.0  0.0138   65.0  0.8321  -32.4
 0.400  0.6097  -69.3  44.319  139.8  0.0154   62.6  0.8017  -36.0
 0.450  0.6137  -75.7  42.549  136.7  0.0168   59.6  0.7764  -39.3
 0.500  0.6162  -81.6  40.937  133.9  0.0181   56.9  0.7472  -42.7
 0.600  0.6218  -92.5  38.004  128.5  0.0202   52.7  0.6931  -48.8
 0.700  0.6271 -102.0  35.141  123.6  0.0220   49.1  0.6431  -54.3
 0.800  0.6325 -110.4  32.619  119.2  0.0236   46.0  0.5956  -59.3
 0.900  0.6360 -117.7  30.379  115.3  0.0247   43.1  0.5524  -63.8
 1.000  0.6397 -124.3  28.277  111.7  0.0257   40.8  0.5138  -68.1
 1.100  0.6421 -129.9  26.418  108.5  0.0264   38.8  0.4787  -72.0
 1.200  0.6450 -135.1  24.725  105.6  0.0271   37.1  0.4484  -75.6
 1.300  0.6470 -139.6  23.212  102.9  0.0277   35.6  0.4209  -79.0
 1.400  0.6499 -143.7  21.848  100.4  0.0282   34.7  0.3979  -82.2
 1.500  0.6513 -147.4  20.631   98.1  0.0287   33.7  0.3764  -85.2
 1.600  0.6539 -150.7  19.529   96.0  0.0292   33.3  0.3593  -88.2
 1.700  0.6559 -153.9  18.515   93.9  0.0296   32.4  0.3420  -91.1
 1.800  0.6592 -156.7  17.607   92.0  0.0300   31.6  0.3295  -94.0
 1.900  0.6610 -159.3  16.772   90.2  0.0303   31.1  0.3166  -96.7
 2.000  0.6632 -161.8  16.010   88.4  0.0306   31.1  0.3073  -99.5
 2.100  0.6659 -164.1  15.265   86.6  0.0308   30.5  0.2995 -102.4
 2.200  0.6672 -166.2  14.610   85.0  0.0311   30.5  0.2925 -104.8
 2.300  0.6683 -168.2  14.002   83.5  0.0314   30.3  0.2860 -107.0
 2.400  0.6689 -170.0  13.433   82.0  0.0318   30.2  0.2811 -109.2
 2.500  0.6701 -171.7  12.916   80.7  0.0320   30.1  0.2764 -111.1
 2.600  0.6711 -173.4  12.441   79.3  0.0322   30.1  0.2727 -112.9
 2.700  0.6719 -175.0  11.996   77.9  0.0326   30.2  0.2692 -114.7
 2.800  0.6725 -176.5  11.580   76.6  0.0330   30.1  0.2666 -116.4
 2.900  0.6734 -178.0  11.185   75.3  0.0333   30.3  0.2644 -118.0
 3.000  0.6738 -179.4  10.823   74.0  0.0335   30.2  0.2623 -119.6
 3.100  0.6744  179.2  10.477   72.8  0.0339   30.2  0.2612 -121.0
 3.200  0.6746  177.8  10.159   71.6  0.0342   30.3  0.2600 -122.2
 3.300  0.6755  176.4   9.854   70.4  0.0345   30.4  0.2589 -123.4
 3.400  0.6759  175.1   9.569   69.2  0.0349   30.4  0.2581 -124.5
 3.500  0.6764  173.9   9.290   68.2  0.0352   30.4  0.2569 -125.5
 3.600  0.6768  172.5   9.038   66.9  0.0355   30.6  0.2560 -126.5
 3.700  0.6774  171.3   8.802   65.8  0.0359   30.8  0.2543 -127.4
 3.800  0.6778  170.1   8.563   64.7  0.0362   30.8  0.2529 -128.4
 3.900  0.6786  169.0   8.350   63.6  0.0368   30.9  0.2517 -129.3
 4.000  0.6787  167.7   8.127   62.5  0.0371   30.9  0.2505 -130.3
 4.100  0.6800  166.6   7.941   61.4  0.0374   31.1  0.2490 -131.2
 4.200  0.6803  165.4   7.743   60.3  0.0379   31.2  0.2477 -132.2
 4.300  0.6814  164.3   7.565   59.2  0.0382   31.4  0.2461 -133.2
 4.400  0.6822  163.2   7.385   58.1  0.0386   31.4  0.2451 -134.2
 4.500  0.6832  162.1   7.222   57.0  0.0390   31.3  0.2439 -135.1
 4.600  0.6845  161.0   7.060   55.9  0.0394   31.4  0.2420 -136.1
 4.700  0.6852  160.0   6.909   54.9  0.0399   31.5  0.2408 -137.2
 4.800  0.6870  158.9   6.760   53.9  0.0403   31.5  0.2396 -138.2
 4.900  0.6875  157.9   6.616   52.8  0.0406   31.4  0.2381 -139.3
 5.000  0.6890  156.9   6.480   51.8  0.0411   31.6  0.2367 -140.4
 5.100  0.6902  156.0   6.352   50.7  0.0415   31.5  0.2355 -141.6
 5.200  0.6911  155.1   6.228   49.7  0.0419   31.5  0.2344 -142.6
 5.300  0.6918  154.1   6.111   48.6  0.0423   31.4  0.2328 -143.8
 5.400  0.6930  153.1   5.990   47.7  0.0428   31.4  0.2318 -144.9
 5.500  0.6935  152.2   5.879   46.6  0.0431   31.5  0.2312 -145.9
 5.600  0.6940  151.3   5.767   45.6  0.0436   31.4  0.2294 -146.8
 5.700  0.6949  150.3   5.666   44.6  0.0440   31.3  0.2280 -148.3
 5.800  0.6953  149.3   5.565   43.5  0.0443   31.3  0.2273 -149.3
 5.900  0.6959  148.3   5.467   42.5  0.0447   31.3  0.2255 -150.4
 6.000  0.6968  147.3   5.371   41.4  0.0451   31.4  0.2237 -151.6
 6.100  0.6971  146.4   5.275   40.3  0.0455   31.3  0.2224 -153.0
 6.200  0.6975  145.2   5.188   39.2  0.0459   31.2  0.2209 -154.1
 6.300  0.6967  144.3   5.093   38.3  0.0462   31.2  0.2189 -155.3
 6.400  0.6964  143.2   5.006   37.1  0.0467   31.3  0.2174 -156.5
 6.500  0.6964  142.0   4.917   36.1  0.0471   31.4  0.2150 -157.7
 6.600  0.6959  140.9   4.834   35.1  0.0475   31.5  0.2129 -158.8
 6.700  0.6953  139.8   4.745   34.1  0.0480   31.6  0.2103 -160.1
 6.800  0.6954  138.7   4.666   33.0  0.0485   31.6  0.2078 -161.3
 6.900  0.6946  137.6   4.585   32.0  0.0490   31.9  0.2049 -162.7
 7.000  0.6950  136.5   4.506   31.0  0.0497   32.0  0.2020 -163.9
 7.100  0.6944  135.5   4.432   30.0  0.0504   32.1  0.1990 -165.7
 7.200  0.6954  134.3   4.358   29.0  0.0511   32.1  0.1974 -167.3
 7.300  0.6960  133.3   4.284   28.0  0.0518   32.0  0.1955 -169.0
 7.400  0.6979  132.3   4.217   27.0  0.0527   31.9  0.1939 -171.0
 7.500  0.6994  131.4   4.152   26.1  0.0536   31.8  0.1934 -173.1
 7.600  0.7020  130.3   4.085   25.0  0.0543   31.4  0.1927 -175.3
 7.700  0.7044  129.5   4.020   24.2  0.0552   31.1  0.1921 -177.9
 7.800  0.7086  128.4   3.958   23.1  0.0559   30.6  0.1929  179.3
 7.900  0.7115  127.6   3.896   22.2  0.0566   30.2  0.1935  176.6
 8.000  0.7168  126.6   3.834   21.1  0.0573   29.7  0.1952  173.5
 8.500  0.7416  122.8   3.543   16.2  0.0600   27.2  0.2140  157.9
 9.000  0.7667  119.8   3.270   11.4  0.0620   24.8  0.2505  143.9
 9.500  0.7873  117.9   3.020    6.9  0.0634   22.9  0.3004  133.8
10.000  0.8065  115.3   2.787    2.5  0.0645   21.1  0.3571  127.0
!
!  f       NFmin   Gammaopt  rn/50
! GHz       dB    MAG  ANG    -
!
! noise parameter not available yet for this operation point!
!
! (c) 2012  Infineon Technologies AG, Munich
