! Infineon Technologies  Discrete & RF Semiconductors
! BFP720FESD
! VCE =  3.0 V,  IC =  8.0 mA
! Common Emitter S-Parameters:                            Jan 2016
# GHz  S  MA  R  50
!  f         S11            S21            S12            S22
! GHz     MAG   ANG      MAG   ANG      MAG   ANG      MAG   ANG
 0.010  0.8895    0.1  21.862  179.4  0.0005    1.8  0.9853    1.3
 0.015  0.8944   -0.5  21.808  179.1  0.0005   57.4  0.9900    0.3
 0.020  0.8994   -1.1  21.754  178.8  0.0008   88.5  0.9950   -0.6
 0.025  0.8996   -1.4  21.739  178.6  0.0009   86.1  0.9953   -0.8
 0.030  0.8999   -1.6  21.724  178.3  0.0011   84.3  0.9956   -1.0
 0.035  0.9001   -1.9  21.710  178.1  0.0012   82.9  0.9960   -1.2
 0.040  0.9004   -2.2  21.696  177.9  0.0014   81.9  0.9963   -1.3
 0.045  0.9007   -2.4  21.682  177.6  0.0015   81.0  0.9966   -1.5
 0.050  0.9010   -2.7  21.669  177.4  0.0017   80.3  0.9970   -1.7
 0.055  0.9003   -3.0  21.678  177.2  0.0018   81.3  0.9970   -1.9
 0.060  0.8996   -3.3  21.687  177.1  0.0020   82.2  0.9969   -2.1
 0.065  0.8990   -3.6  21.696  176.9  0.0021   82.9  0.9969   -2.3
 0.070  0.8984   -3.9  21.705  176.7  0.0023   83.5  0.9969   -2.5
 0.075  0.8978   -4.2  21.715  176.5  0.0024   84.1  0.9969   -2.6
 0.080  0.8972   -4.5  21.724  176.4  0.0026   84.6  0.9969   -2.8
 0.085  0.8967   -4.8  21.734  176.2  0.0027   85.0  0.9969   -3.0
 0.090  0.8962   -5.1  21.744  176.0  0.0029   85.4  0.9969   -3.2
 0.095  0.8957   -5.4  21.755  175.9  0.0030   85.8  0.9970   -3.4
 0.100  0.8952   -5.7  21.765  175.7  0.0032   86.1  0.9970   -3.6
 0.105  0.8950   -6.0  21.762  175.5  0.0034   85.8  0.9967   -3.8
 0.110  0.8949   -6.3  21.759  175.2  0.0036   85.6  0.9965   -4.0
 0.115  0.8948   -6.6  21.756  175.0  0.0037   85.4  0.9962   -4.2
 0.120  0.8947   -6.9  21.754  174.8  0.0039   85.2  0.9960   -4.4
 0.125  0.8946   -7.2  21.752  174.6  0.0041   85.1  0.9958   -4.5
 0.130  0.8946   -7.5  21.751  174.3  0.0043   84.9  0.9955   -4.7
 0.135  0.8946   -7.8  21.749  174.1  0.0045   84.8  0.9953   -4.9
 0.140  0.8946   -8.1  21.749  173.9  0.0046   84.6  0.9952   -5.1
 0.145  0.8946   -8.4  21.748  173.6  0.0048   84.5  0.9950   -5.3
 0.150  0.8947   -8.7  21.748  173.4  0.0050   84.4  0.9948   -5.5
 0.155  0.8945   -9.0  21.741  173.2  0.0052   84.2  0.9944   -5.7
 0.160  0.8942   -9.3  21.734  173.0  0.0053   84.1  0.9941   -5.9
 0.165  0.8940   -9.5  21.728  172.7  0.0055   83.9  0.9937   -6.1
 0.170  0.8938   -9.8  21.722  172.5  0.0056   83.7  0.9934   -6.3
 0.175  0.8937  -10.1  21.716  172.3  0.0058   83.6  0.9931   -6.4
 0.180  0.8935  -10.4  21.711  172.1  0.0060   83.5  0.9927   -6.6
 0.185  0.8934  -10.7  21.706  171.9  0.0061   83.3  0.9924   -6.8
 0.190  0.8933  -10.9  21.701  171.6  0.0063   83.2  0.9922   -7.0
 0.195  0.8933  -11.2  21.697  171.4  0.0064   83.1  0.9919   -7.2
 0.200  0.8932  -11.5  21.693  171.2  0.0066   83.0  0.9916   -7.4
 0.220  0.8913  -12.6  21.623  170.2  0.0072   82.2  0.9900   -8.1
 0.240  0.8897  -13.7  21.560  169.3  0.0079   81.6  0.9886   -8.8
 0.260  0.8883  -14.9  21.512  168.4  0.0085   80.9  0.9868   -9.6
 0.280  0.8870  -16.0  21.478  167.6  0.0092   80.3  0.9848  -10.3
 0.300  0.8860  -17.1  21.448  166.8  0.0098   79.7  0.9829  -11.0
 0.320  0.8835  -18.2  21.392  166.0  0.0104   79.0  0.9807  -11.7
 0.340  0.8813  -19.3  21.341  165.1  0.0111   78.3  0.9787  -12.4
 0.360  0.8794  -20.4  21.278  164.3  0.0117   77.7  0.9764  -13.1
 0.380  0.8778  -21.5  21.204  163.4  0.0124   77.1  0.9738  -13.8
 0.400  0.8765  -22.6  21.134  162.6  0.0130   76.6  0.9713  -14.5
 0.420  0.8744  -23.7  21.055  161.8  0.0136   76.0  0.9687  -15.2
 0.440  0.8726  -24.8  20.981  160.9  0.0142   75.4  0.9663  -15.9
 0.450  0.8718  -25.3  20.945  160.5  0.0145   75.1  0.9651  -16.2
 0.460  0.8704  -25.9  20.909  160.1  0.0148   74.8  0.9636  -16.6
 0.480  0.8677  -27.0  20.841  159.2  0.0154   74.1  0.9606  -17.3
 0.500  0.8654  -28.1  20.777  158.4  0.0160   73.5  0.9578  -18.0
 0.520  0.8627  -29.1  20.688  157.6  0.0166   72.8  0.9543  -18.7
 0.540  0.8602  -30.2  20.603  156.8  0.0172   72.1  0.9510  -19.3
 0.560  0.8580  -31.3  20.521  156.0  0.0177   71.5  0.9478  -20.0
 0.580  0.8562  -32.3  20.444  155.2  0.0183   70.9  0.9447  -20.6
 0.600  0.8546  -33.4  20.371  154.4  0.0189   70.4  0.9417  -21.3
 0.620  0.8515  -34.4  20.282  153.7  0.0195   69.7  0.9381  -22.0
 0.640  0.8487  -35.5  20.196  152.9  0.0200   69.1  0.9347  -22.6
 0.660  0.8462  -36.5  20.113  152.2  0.0206   68.5  0.9314  -23.3
 0.680  0.8440  -37.5  20.034  151.5  0.0211   67.9  0.9282  -23.9
 0.700  0.8420  -38.6  19.958  150.7  0.0217   67.4  0.9251  -24.6
 0.720  0.8391  -39.6  19.854  150.0  0.0222   66.8  0.9212  -25.2
 0.740  0.8365  -40.6  19.752  149.3  0.0228   66.2  0.9174  -25.9
 0.760  0.8341  -41.6  19.654  148.6  0.0233   65.6  0.9138  -26.5
 0.780  0.8320  -42.6  19.559  147.8  0.0239   65.0  0.9102  -27.1
 0.800  0.8301  -43.6  19.467  147.1  0.0244   64.5  0.9068  -27.8
 0.820  0.8268  -44.6  19.376  146.4  0.0249   63.9  0.9029  -28.4
 0.840  0.8238  -45.6  19.288  145.7  0.0254   63.3  0.8991  -29.0
 0.860  0.8211  -46.6  19.203  145.0  0.0259   62.8  0.8954  -29.6
 0.880  0.8186  -47.7  19.120  144.3  0.0264   62.2  0.8919  -30.3
 0.900  0.8164  -48.7  19.041  143.6  0.0269   61.7  0.8884  -30.9
 0.920  0.8133  -49.7  18.940  142.9  0.0274   61.1  0.8842  -31.5
 0.940  0.8105  -50.6  18.842  142.3  0.0278   60.5  0.8801  -32.1
 0.960  0.8079  -51.6  18.747  141.6  0.0283   60.0  0.8760  -32.7
 0.980  0.8055  -52.6  18.654  140.9  0.0287   59.4  0.8721  -33.4
 1.000  0.8034  -53.6  18.564  140.2  0.0292   58.9  0.8683  -34.0
 1.020  0.8005  -54.5  18.467  139.5  0.0296   58.3  0.8641  -34.6
 1.040  0.7977  -55.5  18.373  138.9  0.0301   57.8  0.8600  -35.1
 1.060  0.7952  -56.5  18.281  138.2  0.0305   57.2  0.8560  -35.7
 1.080  0.7930  -57.4  18.192  137.5  0.0310   56.7  0.8520  -36.3
 1.100  0.7909  -58.4  18.105  136.8  0.0314   56.2  0.8482  -36.9
 1.120  0.7877  -59.3  18.011  136.2  0.0318   55.7  0.8440  -37.5
 1.140  0.7847  -60.3  17.920  135.5  0.0322   55.2  0.8398  -38.1
 1.160  0.7820  -61.2  17.830  134.8  0.0326   54.7  0.8357  -38.7
 1.180  0.7794  -62.1  17.743  134.2  0.0330   54.2  0.8318  -39.3
 1.200  0.7771  -63.1  17.659  133.5  0.0334   53.7  0.8279  -39.9
 1.220  0.7743  -64.0  17.558  132.9  0.0338   53.2  0.8238  -40.4
 1.240  0.7717  -64.9  17.459  132.3  0.0342   52.6  0.8197  -41.0
 1.260  0.7693  -65.8  17.362  131.7  0.0345   52.1  0.8157  -41.6
 1.280  0.7671  -66.7  17.268  131.0  0.0349   51.6  0.8118  -42.1
 1.300  0.7651  -67.6  17.175  130.4  0.0353   51.1  0.8080  -42.7
 1.320  0.7619  -68.5  17.073  129.8  0.0356   50.6  0.8036  -43.2
 1.340  0.7588  -69.4  16.973  129.2  0.0359   50.1  0.7994  -43.8
 1.360  0.7560  -70.3  16.875  128.6  0.0363   49.6  0.7952  -44.4
 1.380  0.7533  -71.2  16.779  127.9  0.0366   49.2  0.7910  -44.9
 1.400  0.7508  -72.1  16.685  127.3  0.0369   48.7  0.7870  -45.5
 1.420  0.7484  -72.9  16.588  126.8  0.0372   48.2  0.7831  -46.0
 1.440  0.7461  -73.7  16.492  126.2  0.0375   47.8  0.7793  -46.5
 1.460  0.7439  -74.5  16.398  125.6  0.0379   47.4  0.7755  -47.0
 1.480  0.7419  -75.3  16.306  125.1  0.0382   46.9  0.7718  -47.5
 1.500  0.7401  -76.1  16.215  124.5  0.0385   46.5  0.7681  -48.0
 1.520  0.7376  -76.9  16.124  123.9  0.0388   46.0  0.7640  -48.5
 1.540  0.7352  -77.8  16.035  123.3  0.0390   45.6  0.7600  -49.0
 1.560  0.7330  -78.7  15.948  122.7  0.0393   45.1  0.7561  -49.5
 1.580  0.7310  -79.5  15.863  122.1  0.0395   44.6  0.7522  -50.1
 1.600  0.7291  -80.4  15.779  121.5  0.0398   44.2  0.7484  -50.6
 1.620  0.7263  -81.1  15.686  121.0  0.0401   43.8  0.7448  -51.1
 1.640  0.7236  -81.9  15.595  120.5  0.0403   43.4  0.7412  -51.5
 1.660  0.7211  -82.7  15.505  120.0  0.0406   43.0  0.7376  -52.0
 1.680  0.7187  -83.4  15.416  119.4  0.0408   42.6  0.7341  -52.5
 1.700  0.7164  -84.2  15.328  118.9  0.0411   42.2  0.7307  -53.0
 1.720  0.7143  -84.9  15.226  118.4  0.0413   41.8  0.7272  -53.5
 1.740  0.7122  -85.7  15.125  117.9  0.0415   41.4  0.7238  -53.9
 1.760  0.7103  -86.4  15.026  117.4  0.0417   41.0  0.7204  -54.4
 1.780  0.7086  -87.2  14.928  116.8  0.0419   40.7  0.7171  -54.9
 1.800  0.7069  -87.9  14.831  116.3  0.0421   40.3  0.7138  -55.4
 1.820  0.7047  -88.7  14.752  115.8  0.0423   39.9  0.7103  -55.9
 1.840  0.7026  -89.4  14.674  115.3  0.0425   39.6  0.7069  -56.3
 1.860  0.7006  -90.2  14.597  114.8  0.0428   39.2  0.7035  -56.8
 1.880  0.6987  -90.9  14.521  114.3  0.0430   38.9  0.7002  -57.3
 1.900  0.6970  -91.7  14.446  113.8  0.0432   38.5  0.6969  -57.8
 1.920  0.6949  -92.3  14.356  113.3  0.0434   38.2  0.6938  -58.2
 1.940  0.6929  -93.0  14.267  112.9  0.0435   37.8  0.6907  -58.6
 1.960  0.6910  -93.6  14.180  112.4  0.0437   37.5  0.6876  -59.0
 1.980  0.6891  -94.3  14.093  111.9  0.0438   37.1  0.6846  -59.5
 2.000  0.6874  -94.9  14.007  111.4  0.0440   36.8  0.6816  -59.9
 2.020  0.6852  -95.6  13.926  111.0  0.0442   36.5  0.6785  -60.3
 2.040  0.6832  -96.2  13.846  110.5  0.0443   36.1  0.6755  -60.7
 2.060  0.6812  -96.9  13.766  110.0  0.0445   35.8  0.6725  -61.2
 2.080  0.6793  -97.5  13.688  109.6  0.0446   35.5  0.6695  -61.6
 2.100  0.6775  -98.2  13.611  109.1  0.0448   35.1  0.6666  -62.1
 2.120  0.6758  -98.9  13.534  108.6  0.0449   34.8  0.6637  -62.5
 2.140  0.6742  -99.6  13.458  108.2  0.0451   34.5  0.6609  -62.9
 2.160  0.6727 -100.2  13.384  107.7  0.0453   34.1  0.6581  -63.4
 2.180  0.6713 -100.9  13.310  107.2  0.0454   33.8  0.6553  -63.8
 2.200  0.6700 -101.6  13.237  106.7  0.0456   33.5  0.6526  -64.3
 2.220  0.6679 -102.2  13.162  106.3  0.0457   33.2  0.6498  -64.7
 2.240  0.6658 -102.9  13.087  105.9  0.0458   32.9  0.6470  -65.1
 2.260  0.6638 -103.5  13.013  105.4  0.0460   32.6  0.6443  -65.5
 2.280  0.6619 -104.1  12.940  105.0  0.0461   32.3  0.6416  -65.9
 2.300  0.6601 -104.8  12.868  104.6  0.0462   32.0  0.6389  -66.4
 2.320  0.6583 -105.4  12.796  104.1  0.0464   31.7  0.6363  -66.8
 2.340  0.6567 -106.0  12.726  103.7  0.0465   31.4  0.6337  -67.2
 2.360  0.6551 -106.7  12.656  103.2  0.0466   31.1  0.6311  -67.6
 2.380  0.6536 -107.3  12.586  102.8  0.0468   30.8  0.6286  -68.1
 2.400  0.6522 -108.0  12.518  102.3  0.0469   30.5  0.6261  -68.5
 2.420  0.6505 -108.6  12.446  101.9  0.0470   30.2  0.6235  -68.9
 2.440  0.6489 -109.2  12.375  101.5  0.0471   29.9  0.6209  -69.3
 2.460  0.6474 -109.8  12.304  101.1  0.0471   29.7  0.6184  -69.7
 2.480  0.6460 -110.4  12.233  100.7  0.0472   29.4  0.6159  -70.1
 2.500  0.6446 -111.0  12.164  100.3  0.0473   29.1  0.6134  -70.5
 2.520  0.6432 -111.6  12.095   99.9  0.0474   28.8  0.6110  -70.9
 2.540  0.6420 -112.2  12.026   99.5  0.0474   28.5  0.6085  -71.3
 2.560  0.6408 -112.8  11.959   99.1  0.0475   28.3  0.6062  -71.8
 2.580  0.6397 -113.4  11.891   98.6  0.0476   28.0  0.6038  -72.2
 2.600  0.6387 -114.0  11.825   98.2  0.0477   27.7  0.6015  -72.6
 2.620  0.6370 -114.6  11.758   97.8  0.0478   27.4  0.5993  -73.0
 2.640  0.6353 -115.1  11.692   97.5  0.0478   27.2  0.5972  -73.3
 2.660  0.6336 -115.7  11.626   97.1  0.0479   26.9  0.5950  -73.7
 2.680  0.6321 -116.2  11.560   96.7  0.0479   26.7  0.5929  -74.1
 2.700  0.6306 -116.8  11.495   96.3  0.0480   26.4  0.5908  -74.5
 2.720  0.6291 -117.4  11.431   95.9  0.0480   26.2  0.5888  -74.8
 2.740  0.6278 -118.0  11.367   95.5  0.0481   25.9  0.5867  -75.2
 2.760  0.6264 -118.5  11.304   95.1  0.0482   25.7  0.5847  -75.6
 2.780  0.6252 -119.1  11.241   94.7  0.0482   25.4  0.5828  -76.0
 2.800  0.6240 -119.7  11.179   94.3  0.0483   25.2  0.5808  -76.4
 2.820  0.6227 -120.2  11.118   93.9  0.0483   25.0  0.5789  -76.7
 2.840  0.6214 -120.7  11.058   93.6  0.0484   24.8  0.5771  -77.0
 2.860  0.6202 -121.2  10.998   93.2  0.0484   24.5  0.5752  -77.4
 2.880  0.6191 -121.8  10.939   92.9  0.0484   24.3  0.5734  -77.7
 2.900  0.6180 -122.3  10.880   92.5  0.0484   24.1  0.5716  -78.0
 2.920  0.6169 -122.8  10.822   92.1  0.0485   23.9  0.5698  -78.4
 2.940  0.6159 -123.3  10.764   91.8  0.0485   23.7  0.5681  -78.7
 2.960  0.6150 -123.8  10.707   91.4  0.0485   23.4  0.5663  -79.0
 2.980  0.6140 -124.4  10.650   91.0  0.0486   23.2  0.5646  -79.4
 3.000  0.6132 -124.9  10.593   90.6  0.0486   23.0  0.5629  -79.7
 3.100  0.6075 -127.0  10.322   89.2  0.0486   22.3  0.5565  -80.9
 3.200  0.6027 -129.1  10.058   87.7  0.0487   21.6  0.5503  -82.2
 3.300  0.5986 -131.2   9.801   86.1  0.0488   20.9  0.5444  -83.5
 3.400  0.5954 -133.3   9.552   84.4  0.0488   20.2  0.5388  -84.8
 3.500  0.5930 -135.5   9.311   82.7  0.0489   19.5  0.5335  -86.2
 3.600  0.5909 -137.3   9.114   81.4  0.0490   18.9  0.5294  -87.3
 3.700  0.5894 -139.2   8.921   80.0  0.0490   18.3  0.5255  -88.4
 3.800  0.5885 -141.1   8.734   78.6  0.0491   17.8  0.5218  -89.5
 3.900  0.5882 -142.9   8.552   77.1  0.0492   17.2  0.5182  -90.6
 4.000  0.5886 -144.8   8.376   75.6  0.0493   16.6  0.5149  -91.7
 4.100  0.5877 -146.6   8.210   74.3  0.0493   16.1  0.5110  -92.9
 4.200  0.5873 -148.5   8.049   72.9  0.0494   15.6  0.5074  -94.1
 4.300  0.5876 -150.3   7.892   71.4  0.0494   15.0  0.5040  -95.4
 4.400  0.5885 -152.2   7.741   69.9  0.0495   14.5  0.5008  -96.6
 4.500  0.5900 -154.0   7.596   68.3  0.0495   14.0  0.4979  -97.9
 4.600  0.5898 -155.6   7.446   67.0  0.0494   13.6  0.4943  -99.0
 4.700  0.5901 -157.2   7.299   65.7  0.0493   13.1  0.4910 -100.2
 4.800  0.5908 -158.8   7.157   64.3  0.0492   12.7  0.4879 -101.4
 4.900  0.5920 -160.3   7.019   62.9  0.0491   12.2  0.4849 -102.6
 5.000  0.5936 -161.9   6.885   61.4  0.0490   11.8  0.4822 -103.8
 5.100  0.5920 -163.3   6.762   60.2  0.0489   11.5  0.4790 -104.8
 5.200  0.5907 -164.7   6.641   59.0  0.0488   11.1  0.4759 -105.9
 5.300  0.5898 -166.1   6.524   57.7  0.0486   10.8  0.4730 -106.9
 5.400  0.5892 -167.5   6.410   56.4  0.0485   10.4  0.4703 -108.0
 5.500  0.5890 -168.9   6.300   55.0  0.0484   10.1  0.4677 -109.1
 5.600  0.5872 -170.3   6.205   53.8  0.0483    9.8  0.4638 -110.2
 5.700  0.5857 -171.8   6.113   52.6  0.0481    9.6  0.4602 -111.4
 5.800  0.5846 -173.2   6.024   51.4  0.0480    9.3  0.4567 -112.5
 5.900  0.5839 -174.7   5.937   50.1  0.0478    9.1  0.4534 -113.7
 6.000  0.5836 -176.1   5.854   48.8  0.0477    8.8  0.4503 -114.9
 6.100  0.5817 -177.6   5.765   47.6  0.0474    8.7  0.4463 -116.1
 6.200  0.5803 -179.2   5.678   46.3  0.0472    8.5  0.4424 -117.4
 6.300  0.5793  179.2   5.594   45.0  0.0469    8.4  0.4388 -118.6
 6.400  0.5787  177.7   5.513   43.7  0.0467    8.2  0.4354 -119.9
 6.500  0.5786  176.1   5.435   42.3  0.0464    8.1  0.4322 -121.2
 6.600  0.5780  174.6   5.350   41.1  0.0460    8.3  0.4277 -122.2
 6.800  0.5779  171.7   5.186   38.6  0.0453    8.6  0.4190 -124.1
 7.000  0.5793  168.7   5.033   36.0  0.0445    8.9  0.4109 -126.2
 7.200  0.5806  166.1   4.880   33.8  0.0442   10.3  0.4011 -128.1
 7.400  0.5830  163.5   4.735   31.5  0.0438   11.8  0.3917 -130.1
 7.600  0.5886  160.9   4.607   29.1  0.0441   13.1  0.3835 -132.8
 7.800  0.5973  158.5   4.497   26.7  0.0449   14.3  0.3770 -136.3
 8.000  0.6070  156.1   4.396   24.1  0.0458   15.4  0.3720 -139.9
 8.200  0.6138  153.7   4.268   21.5  0.0468   15.4  0.3675 -145.0
 8.400  0.6217  151.3   4.150   18.7  0.0478   15.4  0.3659 -150.1
 8.600  0.6274  149.1   4.030   16.1  0.0485   15.2  0.3642 -155.5
 8.800  0.6307  147.0   3.905   13.6  0.0490   14.9  0.3627 -161.0
 9.000  0.6348  145.0   3.788   10.9  0.0495   14.6  0.3647 -166.6
 9.200  0.6386  143.2   3.667    9.0  0.0499   14.4  0.3689 -172.2
 9.400  0.6431  141.5   3.550    6.9  0.0502   14.1  0.3766 -177.7
 9.600  0.6508  139.4   3.441    4.6  0.0505   14.0  0.3886  176.8
 9.800  0.6623  137.2   3.343    2.1  0.0506   14.0  0.4054  171.3
10.000  0.6747  135.0   3.251   -0.5  0.0508   14.0  0.4255  166.3
!
!  f       NFmin   Gammaopt  rn/50
! GHz       dB    MAG  ANG    -
 0.450      0.62  0.38    3   0.13
 2.400      0.71  0.25   30   0.13
 5.500      0.86  0.32  112   0.09
10.000      1.34  0.28 -156   0.10
!
! (c) 2016  Infineon Technologies AG, Munich
