! Infineon Technologies  Discrete & RF Semiconductors
! BFP720F
! VCE =  1.5 V,  IC =  13 mA
! Common Emitter S-Parameters:                            Jan 2016
# GHz  S  MA  R  50
!  f         S11            S21            S12            S22
! GHz     MAG   ANG      MAG   ANG      MAG   ANG      MAG   ANG
 0.010  0.8268   -0.2  29.779  179.7  0.0005  -15.4  0.9684    1.2
 0.015  0.8307   -0.9  29.717  178.6  0.0004   62.9  0.9802   -0.0
 0.020  0.8348   -1.5  29.666  177.4  0.0009   95.9  0.9925   -1.2
 0.025  0.8343   -1.9  29.706  177.3  0.0011   91.9  0.9925   -1.4
 0.030  0.8339   -2.3  29.747  177.1  0.0012   88.9  0.9926   -1.5
 0.035  0.8335   -2.7  29.787  177.0  0.0014   86.7  0.9926   -1.7
 0.040  0.8332   -3.2  29.828  176.9  0.0016   84.9  0.9927   -1.9
 0.045  0.8329   -3.6  29.869  176.7  0.0017   83.5  0.9927   -2.0
 0.050  0.8326   -4.0  29.910  176.6  0.0019   82.3  0.9928   -2.2
 0.055  0.8321   -4.4  29.889  176.3  0.0021   83.0  0.9927   -2.4
 0.060  0.8317   -4.8  29.869  176.0  0.0023   83.6  0.9926   -2.7
 0.065  0.8313   -5.1  29.850  175.6  0.0025   84.1  0.9925   -2.9
 0.070  0.8310   -5.5  29.832  175.3  0.0027   84.5  0.9925   -3.2
 0.075  0.8306   -5.9  29.815  175.0  0.0028   84.9  0.9925   -3.4
 0.080  0.8304   -6.3  29.799  174.7  0.0030   85.2  0.9925   -3.7
 0.085  0.8301   -6.7  29.784  174.4  0.0032   85.5  0.9925   -3.9
 0.090  0.8299   -7.0  29.770  174.0  0.0034   85.8  0.9925   -4.2
 0.095  0.8297   -7.4  29.756  173.7  0.0036   86.0  0.9925   -4.5
 0.100  0.8296   -7.8  29.744  173.4  0.0038   86.2  0.9926   -4.7
 0.105  0.8290   -8.2  29.702  173.1  0.0040   85.8  0.9921   -4.9
 0.110  0.8285   -8.6  29.661  172.8  0.0042   85.5  0.9916   -5.2
 0.115  0.8280   -9.0  29.620  172.5  0.0044   85.2  0.9912   -5.4
 0.120  0.8276   -9.4  29.580  172.2  0.0046   85.0  0.9908   -5.7
 0.125  0.8272   -9.8  29.541  171.9  0.0047   84.7  0.9904   -5.9
 0.130  0.8268  -10.2  29.503  171.6  0.0049   84.5  0.9900   -6.2
 0.135  0.8265  -10.6  29.466  171.3  0.0051   84.3  0.9896   -6.4
 0.140  0.8262  -11.0  29.429  171.0  0.0053   84.1  0.9892   -6.7
 0.145  0.8260  -11.4  29.394  170.7  0.0055   83.9  0.9889   -6.9
 0.150  0.8258  -11.8  29.359  170.4  0.0057   83.7  0.9886   -7.2
 0.155  0.8252  -12.2  29.314  170.1  0.0059   83.5  0.9878   -7.4
 0.160  0.8247  -12.6  29.270  169.9  0.0061   83.3  0.9870   -7.7
 0.165  0.8242  -12.9  29.226  169.6  0.0063   83.2  0.9863   -7.9
 0.170  0.8238  -13.3  29.183  169.3  0.0065   83.0  0.9855   -8.2
 0.175  0.8234  -13.7  29.140  169.1  0.0066   82.8  0.9848   -8.4
 0.180  0.8230  -14.1  29.099  168.8  0.0068   82.7  0.9841   -8.6
 0.185  0.8227  -14.5  29.057  168.5  0.0070   82.6  0.9834   -8.9
 0.190  0.8224  -14.8  29.017  168.2  0.0072   82.4  0.9827   -9.1
 0.195  0.8221  -15.2  28.977  168.0  0.0074   82.3  0.9820   -9.4
 0.200  0.8219  -15.6  28.938  167.7  0.0076   82.2  0.9814   -9.6
 0.220  0.8193  -17.1  28.811  166.6  0.0084   81.0  0.9788  -10.5
 0.240  0.8174  -18.6  28.694  165.5  0.0091   79.9  0.9764  -11.4
 0.260  0.8153  -20.1  28.556  164.5  0.0099   79.1  0.9730  -12.4
 0.280  0.8133  -21.6  28.395  163.6  0.0106   78.3  0.9685  -13.3
 0.300  0.8117  -23.1  28.241  162.7  0.0113   77.6  0.9643  -14.3
 0.320  0.8090  -24.6  28.077  161.7  0.0120   76.8  0.9612  -15.2
 0.340  0.8069  -26.1  27.922  160.7  0.0127   76.0  0.9583  -16.1
 0.360  0.8046  -27.7  27.784  159.7  0.0134   75.2  0.9546  -17.0
 0.380  0.8020  -29.2  27.661  158.8  0.0141   74.4  0.9502  -17.9
 0.400  0.7999  -30.7  27.546  157.9  0.0148   73.6  0.9461  -18.9
 0.420  0.7968  -32.1  27.391  156.9  0.0155   72.8  0.9421  -19.7
 0.440  0.7943  -33.6  27.243  156.0  0.0162   72.0  0.9382  -20.6
 0.450  0.7932  -34.3  27.172  155.5  0.0165   71.7  0.9364  -21.0
 0.460  0.7917  -35.0  27.096  155.1  0.0168   71.3  0.9339  -21.4
 0.480  0.7890  -36.5  26.949  154.2  0.0175   70.5  0.9292  -22.3
 0.500  0.7869  -38.0  26.807  153.4  0.0181   69.8  0.9246  -23.2
 0.520  0.7830  -39.4  26.668  152.5  0.0187   68.9  0.9190  -24.1
 0.540  0.7796  -40.9  26.535  151.6  0.0194   68.1  0.9136  -24.9
 0.560  0.7767  -42.3  26.409  150.7  0.0200   67.4  0.9085  -25.8
 0.580  0.7743  -43.8  26.289  149.8  0.0207   66.7  0.9035  -26.7
 0.600  0.7724  -45.3  26.176  148.9  0.0213   66.0  0.8988  -27.6
 0.620  0.7684  -46.7  26.005  148.0  0.0219   65.2  0.8933  -28.4
 0.640  0.7648  -48.1  25.839  147.2  0.0224   64.4  0.8879  -29.2
 0.660  0.7617  -49.5  25.680  146.3  0.0230   63.7  0.8827  -30.0
 0.680  0.7591  -50.9  25.526  145.4  0.0236   63.0  0.8777  -30.8
 0.700  0.7569  -52.3  25.379  144.5  0.0242   62.4  0.8729  -31.6
 0.720  0.7529  -53.7  25.240  143.7  0.0247   61.7  0.8668  -32.4
 0.740  0.7494  -55.1  25.107  142.8  0.0252   61.0  0.8609  -33.1
 0.760  0.7464  -56.5  24.979  142.0  0.0257   60.3  0.8551  -33.9
 0.780  0.7438  -58.0  24.856  141.2  0.0263   59.6  0.8495  -34.7
 0.800  0.7417  -59.4  24.739  140.3  0.0268   59.0  0.8441  -35.5
 0.820  0.7377  -60.7  24.565  139.5  0.0273   58.3  0.8377  -36.2
 0.840  0.7342  -62.0  24.396  138.7  0.0277   57.6  0.8315  -37.0
 0.860  0.7310  -63.4  24.232  137.9  0.0282   57.0  0.8254  -37.7
 0.880  0.7283  -64.7  24.073  137.1  0.0287   56.3  0.8194  -38.5
 0.900  0.7259  -66.1  23.918  136.3  0.0292   55.7  0.8136  -39.3
 0.920  0.7223  -67.4  23.748  135.5  0.0296   55.0  0.8072  -40.0
 0.940  0.7190  -68.7  23.583  134.8  0.0301   54.4  0.8008  -40.7
 0.960  0.7161  -70.0  23.421  134.0  0.0305   53.7  0.7947  -41.5
 0.980  0.7136  -71.3  23.264  133.2  0.0310   53.1  0.7886  -42.2
 1.000  0.7115  -72.6  23.112  132.4  0.0314   52.5  0.7827  -43.0
 1.020  0.7080  -73.8  22.941  131.7  0.0318   51.9  0.7764  -43.7
 1.040  0.7048  -75.0  22.774  131.0  0.0322   51.3  0.7703  -44.3
 1.060  0.7019  -76.3  22.610  130.2  0.0325   50.8  0.7643  -45.0
 1.080  0.6994  -77.5  22.451  129.5  0.0329   50.2  0.7583  -45.7
 1.100  0.6972  -78.8  22.295  128.7  0.0333   49.7  0.7525  -46.4
 1.120  0.6939  -80.0  22.137  128.0  0.0336   49.1  0.7463  -47.0
 1.140  0.6908  -81.2  21.981  127.3  0.0340   48.6  0.7401  -47.7
 1.160  0.6881  -82.4  21.829  126.6  0.0343   48.0  0.7341  -48.3
 1.180  0.6857  -83.7  21.680  125.9  0.0347   47.5  0.7281  -49.0
 1.200  0.6836  -84.9  21.535  125.2  0.0350   47.0  0.7223  -49.7
 1.220  0.6803  -86.1  21.374  124.5  0.0353   46.5  0.7162  -50.3
 1.240  0.6774  -87.2  21.215  123.8  0.0356   45.9  0.7102  -50.9
 1.260  0.6747  -88.4  21.060  123.1  0.0360   45.4  0.7043  -51.5
 1.280  0.6723  -89.6  20.908  122.4  0.0363   44.9  0.6985  -52.2
 1.300  0.6702  -90.8  20.759  121.7  0.0366   44.4  0.6927  -52.8
 1.320  0.6675  -91.9  20.602  121.1  0.0369   43.9  0.6870  -53.4
 1.340  0.6651  -93.0  20.448  120.4  0.0371   43.4  0.6814  -54.0
 1.360  0.6629  -94.1  20.297  119.8  0.0374   42.9  0.6759  -54.6
 1.380  0.6609  -95.2  20.147  119.2  0.0376   42.5  0.6705  -55.2
 1.400  0.6592  -96.3  20.001  118.5  0.0379   42.0  0.6651  -55.8
 1.420  0.6564  -97.4  19.848  117.9  0.0381   41.5  0.6594  -56.4
 1.440  0.6539  -98.5  19.698  117.2  0.0384   41.1  0.6537  -56.9
 1.460  0.6516  -99.6  19.550  116.6  0.0386   40.7  0.6482  -57.5
 1.480  0.6496 -100.7  19.404  116.0  0.0389   40.2  0.6426  -58.1
 1.500  0.6478 -101.8  19.261  115.3  0.0391   39.8  0.6372  -58.7
 1.520  0.6456 -102.8  19.119  114.7  0.0393   39.4  0.6321  -59.2
 1.540  0.6437 -103.8  18.980  114.1  0.0395   39.0  0.6271  -59.7
 1.560  0.6419 -104.8  18.843  113.5  0.0396   38.6  0.6221  -60.2
 1.580  0.6404 -105.9  18.707  112.9  0.0398   38.3  0.6172  -60.8
 1.600  0.6390 -106.9  18.574  112.3  0.0400   37.9  0.6123  -61.3
 1.620  0.6369 -107.9  18.428  111.8  0.0402   37.5  0.6071  -61.8
 1.640  0.6349 -108.8  18.283  111.2  0.0404   37.1  0.6020  -62.4
 1.660  0.6332 -109.8  18.140  110.6  0.0406   36.7  0.5969  -62.9
 1.680  0.6316 -110.8  17.999  110.1  0.0408   36.3  0.5919  -63.4
 1.700  0.6302 -111.8  17.860  109.5  0.0410   35.9  0.5869  -64.0
 1.720  0.6287 -112.7  17.721  109.0  0.0411   35.5  0.5825  -64.5
 1.740  0.6273 -113.5  17.583  108.4  0.0413   35.2  0.5781  -64.9
 1.760  0.6261 -114.4  17.447  107.9  0.0414   34.8  0.5738  -65.4
 1.780  0.6250 -115.2  17.312  107.4  0.0416   34.5  0.5695  -65.9
 1.800  0.6240 -116.1  17.179  106.8  0.0417   34.1  0.5653  -66.4
 1.820  0.6223 -116.9  17.048  106.3  0.0418   33.8  0.5609  -66.8
 1.840  0.6207 -117.8  16.918  105.8  0.0420   33.5  0.5565  -67.3
 1.860  0.6193 -118.6  16.789  105.3  0.0421   33.1  0.5521  -67.8
 1.880  0.6180 -119.5  16.661  104.8  0.0423   32.8  0.5478  -68.2
 1.900  0.6168 -120.3  16.535  104.3  0.0424   32.5  0.5435  -68.7
 1.920  0.6158 -121.0  16.414  103.8  0.0425   32.2  0.5396  -69.1
 1.940  0.6149 -121.8  16.294  103.4  0.0426   31.9  0.5357  -69.5
 1.960  0.6140 -122.5  16.175  102.9  0.0427   31.6  0.5319  -69.9
 1.980  0.6133 -123.3  16.057  102.4  0.0428   31.3  0.5281  -70.4
 2.000  0.6127 -124.0  15.941  101.9  0.0429   31.0  0.5243  -70.8
 2.020  0.6117 -124.7  15.822  101.5  0.0430   30.7  0.5208  -71.2
 2.040  0.6107 -125.4  15.704  101.0  0.0431   30.5  0.5173  -71.6
 2.060  0.6098 -126.1  15.587  100.6  0.0432   30.2  0.5138  -72.0
 2.080  0.6091 -126.8  15.471  100.1  0.0433   29.9  0.5104  -72.4
 2.100  0.6084 -127.5  15.356   99.7  0.0434   29.7  0.5070  -72.8
 2.120  0.6078 -128.2  15.241   99.2  0.0435   29.4  0.5036  -73.2
 2.140  0.6073 -129.0  15.128   98.8  0.0436   29.2  0.5002  -73.6
 2.160  0.6069 -129.7  15.016   98.3  0.0437   28.9  0.4969  -74.0
 2.180  0.6066 -130.4  14.905   97.8  0.0438   28.7  0.4936  -74.5
 2.200  0.6064 -131.1  14.795   97.3  0.0439   28.4  0.4903  -74.9
 2.220  0.6057 -131.7  14.688   96.9  0.0440   28.2  0.4873  -75.2
 2.240  0.6050 -132.3  14.582   96.5  0.0440   27.9  0.4843  -75.6
 2.260  0.6044 -132.9  14.476   96.1  0.0441   27.7  0.4814  -75.9
 2.280  0.6038 -133.5  14.372   95.7  0.0441   27.5  0.4784  -76.3
 2.300  0.6033 -134.1  14.267   95.3  0.0442   27.2  0.4755  -76.6
 2.320  0.6029 -134.7  14.164   94.9  0.0443   27.0  0.4726  -77.0
 2.340  0.6026 -135.3  14.061   94.5  0.0443   26.8  0.4697  -77.4
 2.360  0.6023 -135.9  13.959   94.1  0.0444   26.6  0.4669  -77.7
 2.380  0.6021 -136.5  13.858   93.6  0.0444   26.3  0.4640  -78.1
 2.400  0.6019 -137.1  13.758   93.2  0.0445   26.1  0.4612  -78.5
 2.420  0.6014 -137.6  13.665   92.8  0.0445   25.9  0.4587  -78.8
 2.440  0.6010 -138.1  13.573   92.5  0.0446   25.7  0.4562  -79.1
 2.460  0.6006 -138.7  13.481   92.1  0.0446   25.5  0.4537  -79.4
 2.480  0.6003 -139.2  13.389   91.7  0.0447   25.3  0.4512  -79.7
 2.500  0.6000 -139.7  13.299   91.3  0.0447   25.1  0.4487  -80.0
 2.520  0.5998 -140.2  13.209   90.9  0.0447   24.9  0.4463  -80.3
 2.540  0.5996 -140.7  13.119   90.5  0.0448   24.7  0.4438  -80.6
 2.560  0.5995 -141.3  13.031   90.1  0.0448   24.5  0.4414  -80.9
 2.580  0.5994 -141.8  12.942   89.7  0.0449   24.3  0.4390  -81.2
 2.600  0.5994 -142.3  12.855   89.3  0.0449   24.1  0.4366  -81.5
 2.620  0.5989 -142.7  12.770   89.0  0.0449   24.0  0.4345  -81.7
 2.640  0.5984 -143.2  12.686   88.6  0.0450   23.8  0.4324  -82.0
 2.660  0.5980 -143.6  12.601   88.3  0.0450   23.7  0.4303  -82.2
 2.680  0.5976 -144.0  12.518   88.0  0.0451   23.6  0.4282  -82.5
 2.700  0.5972 -144.4  12.435   87.6  0.0451   23.4  0.4261  -82.7
 2.720  0.5969 -144.9  12.352   87.3  0.0451   23.3  0.4241  -83.0
 2.740  0.5966 -145.3  12.270   86.9  0.0452   23.2  0.4220  -83.2
 2.760  0.5963 -145.7  12.188   86.5  0.0452   23.1  0.4200  -83.5
 2.780  0.5961 -146.2  12.107   86.2  0.0453   22.9  0.4179  -83.7
 2.800  0.5959 -146.6  12.026   85.8  0.0453   22.8  0.4159  -84.0
 2.820  0.5958 -147.0  11.954   85.5  0.0454   22.7  0.4143  -84.2
 2.840  0.5958 -147.4  11.881   85.2  0.0454   22.6  0.4128  -84.5
 2.860  0.5958 -147.8  11.810   84.9  0.0455   22.4  0.4112  -84.7
 2.880  0.5958 -148.2  11.738   84.6  0.0455   22.3  0.4097  -85.0
 2.900  0.5958 -148.6  11.667   84.2  0.0456   22.2  0.4082  -85.2
 2.920  0.5959 -149.0  11.596   83.9  0.0457   22.1  0.4066  -85.5
 2.940  0.5960 -149.4  11.526   83.6  0.0457   22.0  0.4051  -85.7
 2.960  0.5961 -149.8  11.456   83.3  0.0458   21.8  0.4036  -86.0
 2.980  0.5963 -150.2  11.386   82.9  0.0458   21.7  0.4021  -86.2
 3.000  0.5965 -150.6  11.317   82.6  0.0459   21.6  0.4006  -86.5
 3.100  0.5954 -152.0  11.005   81.3  0.0461   21.1  0.3942  -87.3
 3.200  0.5946 -153.4  10.698   79.9  0.0462   20.6  0.3879  -88.1
 3.300  0.5942 -154.8  10.399   78.4  0.0464   20.1  0.3817  -89.0
 3.400  0.5942 -156.2  10.106   76.9  0.0466   19.6  0.3756  -89.9
 3.500  0.5945 -157.6   9.822   75.2  0.0468   19.1  0.3696  -90.8
 3.600  0.5935 -158.7   9.586   74.0  0.0470   18.8  0.3646  -91.3
 3.700  0.5928 -159.8   9.354   72.7  0.0472   18.4  0.3596  -91.8
 3.800  0.5922 -160.9   9.127   71.4  0.0473   18.1  0.3547  -92.4
 3.900  0.5919 -162.0   8.906   70.0  0.0475   17.7  0.3498  -92.9
 4.000  0.5918 -163.1   8.690   68.5  0.0477   17.4  0.3449  -93.5
 4.100  0.5864 -166.6   8.507   67.3  0.0479   17.1  0.3410  -93.9
 4.200  0.5832 -170.1   8.329   66.1  0.0482   16.9  0.3372  -94.4
 4.300  0.5822 -173.7   8.154   64.9  0.0484   16.6  0.3333  -94.8
 4.400  0.5835 -177.3   7.983   63.6  0.0487   16.4  0.3295  -95.3
 4.500  0.5871  179.2   7.816   62.2  0.0489   16.1  0.3257  -95.8
 4.600  0.5863  177.9   7.670   61.1  0.0492   15.9  0.3221  -96.3
 4.700  0.5857  176.6   7.527   59.9  0.0494   15.6  0.3186  -96.8
 4.800  0.5855  175.2   7.388   58.7  0.0497   15.4  0.3151  -97.3
 4.900  0.5856  173.9   7.251   57.4  0.0499   15.1  0.3116  -97.9
 5.000  0.5860  172.6   7.119   56.1  0.0502   14.9  0.3081  -98.4
 5.100  0.5846  171.3   6.998   55.0  0.0505   14.7  0.3047  -99.0
 5.200  0.5835  170.0   6.880   53.8  0.0508   14.5  0.3014  -99.6
 5.300  0.5827  168.7   6.765   52.6  0.0510   14.2  0.2981 -100.2
 5.400  0.5822  167.3   6.653   51.3  0.0513   14.0  0.2948 -100.8
 5.500  0.5820  166.0   6.545   50.0  0.0516   13.8  0.2916 -101.4
 5.600  0.5806  164.6   6.444   48.8  0.0519   13.5  0.2894 -102.1
 5.700  0.5795  163.3   6.347   47.6  0.0523   13.3  0.2872 -102.9
 5.800  0.5787  161.9   6.252   46.4  0.0526   13.0  0.2851 -103.6
 5.900  0.5782  160.6   6.160   45.1  0.0530   12.8  0.2831 -104.4
 6.000  0.5781  159.2   6.071   43.8  0.0533   12.5  0.2811 -105.2
 6.100  0.5763  157.7   5.981   42.6  0.0536   12.2  0.2780 -106.3
 6.200  0.5750  156.1   5.893   41.3  0.0539   11.8  0.2751 -107.3
 6.300  0.5741  154.5   5.809   40.0  0.0543   11.5  0.2722 -108.4
 6.400  0.5736  153.0   5.727   38.7  0.0546   11.2  0.2695 -109.6
 6.500  0.5736  151.4   5.649   37.3  0.0549   10.9  0.2668 -110.7
 6.600  0.5719  149.7   5.563   36.1  0.0552   10.6  0.2626 -112.1
 6.800  0.5700  146.3   5.400   33.5  0.0558    9.9  0.2546 -115.0
 7.000  0.5702  142.8   5.249   30.7  0.0564    9.2  0.2473 -118.1
 7.200  0.5715  139.0   5.090   28.2  0.0569    8.4  0.2364 -122.2
 7.400  0.5752  135.3   4.940   25.6  0.0574    7.7  0.2268 -126.6
 7.600  0.5812  131.5   4.795   22.9  0.0580    6.9  0.2170 -131.9
 7.800  0.5896  127.7   4.653   20.2  0.0585    6.0  0.2076 -138.2
 8.000  0.6005  124.0   4.521   17.4  0.0590    5.1  0.2010 -145.0
 8.200  0.6131  120.2   4.364   14.8  0.0591    4.1  0.1943 -154.7
 8.400  0.6282  116.6   4.216   12.1  0.0592    3.2  0.1934 -164.9
 8.600  0.6432  113.4   4.063    9.5  0.0593    2.4  0.1955 -175.9
 8.800  0.6575  110.4   3.903    7.0  0.0592    1.7  0.2022  172.5
 9.000  0.6735  107.6   3.751    4.4  0.0591    1.1  0.2166  162.0
 9.200  0.6882  105.6   3.610    2.5  0.0591    0.6  0.2308  155.0
 9.400  0.7038  103.7   3.473    0.4  0.0591    0.1  0.2480  148.9
 9.600  0.7195  102.1   3.345   -1.6  0.0591   -0.3  0.2676  143.9
 9.800  0.7352  100.8   3.225   -3.6  0.0590   -0.8  0.2890  139.7
10.000  0.7512   99.6   3.108   -5.7  0.0589   -1.3  0.3118  136.1
!
!  f       NFmin   Gammaopt  rn/50
! GHz       dB    MAG  ANG    -
 0.450      0.64  0.27    2   0.64
 0.900      0.67  0.23    8   0.14
 1.800      0.70  0.21   11   0.15
 2.400      0.72  0.18   18   0.13
 5.500      0.88  0.15   30   0.08
10.000      1.04  0.30  -88   0.19
!
! (c) 2016  Infineon Technologies AG, Munich
