! Infineon Technologies  Discrete & RF Semiconductors
! BFP720F
! VCE =  0.5 V,  IC =  15 mA
! Common Emitter S-Parameters:                            Jan 2016
# GHz  S  MA  R  50
!  f         S11            S21            S12            S22
! GHz     MAG   ANG      MAG   ANG      MAG   ANG      MAG   ANG
 0.010  0.4515   -3.0  13.604  177.9  0.0091    4.9  0.3865   -0.2
 0.015  0.4526   -3.8  13.657  177.7  0.0093    8.6  0.3867   -1.7
 0.020  0.4537   -4.5  13.710  177.6  0.0095   12.1  0.3871   -3.1
 0.025  0.4539   -5.9  13.719  177.2  0.0096   14.4  0.3888   -3.6
 0.030  0.4543   -7.2  13.728  176.9  0.0097   16.6  0.3905   -4.2
 0.035  0.4550   -8.6  13.737  176.5  0.0099   18.7  0.3923   -4.7
 0.040  0.4560   -9.9  13.747  176.2  0.0100   20.8  0.3941   -5.3
 0.045  0.4572  -11.3  13.758  175.8  0.0102   22.8  0.3959   -5.8
 0.050  0.4586  -12.6  13.769  175.5  0.0104   24.8  0.3978   -6.3
 0.055  0.4579  -13.8  13.748  175.0  0.0106   26.2  0.3976   -6.8
 0.060  0.4574  -15.0  13.729  174.5  0.0109   27.5  0.3974   -7.2
 0.065  0.4571  -16.3  13.711  173.9  0.0111   28.8  0.3972   -7.7
 0.070  0.4571  -17.5  13.693  173.4  0.0113   30.0  0.3971   -8.2
 0.075  0.4572  -18.7  13.677  172.9  0.0116   31.2  0.3970   -8.6
 0.080  0.4575  -19.9  13.663  172.3  0.0118   32.3  0.3969   -9.1
 0.085  0.4581  -21.2  13.649  171.8  0.0121   33.4  0.3969   -9.6
 0.090  0.4589  -22.4  13.636  171.3  0.0124   34.4  0.3969  -10.1
 0.095  0.4598  -23.6  13.625  170.7  0.0126   35.4  0.3969  -10.5
 0.100  0.4610  -24.8  13.615  170.2  0.0129   36.3  0.3969  -11.0
 0.105  0.4608  -26.0  13.582  169.7  0.0132   37.1  0.3962  -11.6
 0.110  0.4608  -27.2  13.550  169.2  0.0135   37.9  0.3955  -12.1
 0.115  0.4611  -28.4  13.519  168.7  0.0139   38.6  0.3949  -12.7
 0.120  0.4615  -29.6  13.489  168.1  0.0142   39.3  0.3942  -13.2
 0.125  0.4621  -30.8  13.460  167.6  0.0145   40.0  0.3937  -13.8
 0.130  0.4629  -32.0  13.432  167.1  0.0149   40.6  0.3931  -14.3
 0.135  0.4639  -33.2  13.406  166.6  0.0152   41.2  0.3927  -14.9
 0.140  0.4652  -34.4  13.380  166.1  0.0155   41.8  0.3922  -15.5
 0.145  0.4666  -35.5  13.356  165.5  0.0159   42.4  0.3918  -16.0
 0.150  0.4682  -36.7  13.333  165.0  0.0162   42.9  0.3914  -16.6
 0.155  0.4687  -37.8  13.301  164.5  0.0166   43.3  0.3904  -17.2
 0.160  0.4694  -39.0  13.270  164.0  0.0169   43.6  0.3895  -17.9
 0.165  0.4702  -40.1  13.240  163.4  0.0173   44.0  0.3887  -18.5
 0.170  0.4713  -41.3  13.211  162.9  0.0177   44.3  0.3879  -19.2
 0.175  0.4725  -42.4  13.183  162.4  0.0180   44.6  0.3871  -19.8
 0.180  0.4739  -43.5  13.157  161.8  0.0184   44.9  0.3864  -20.5
 0.185  0.4755  -44.6  13.131  161.3  0.0188   45.2  0.3858  -21.1
 0.190  0.4772  -45.7  13.107  160.8  0.0192   45.5  0.3852  -21.8
 0.195  0.4792  -46.8  13.084  160.2  0.0195   45.7  0.3846  -22.4
 0.200  0.4813  -47.9  13.062  159.7  0.0199   46.0  0.3841  -23.1
 0.220  0.4842  -52.1  12.913  158.0  0.0213   46.1  0.3796  -24.9
 0.240  0.4896  -56.3  12.775  156.2  0.0226   46.2  0.3754  -26.8
 0.260  0.4952  -60.3  12.625  154.4  0.0239   46.0  0.3711  -28.8
 0.280  0.5008  -64.2  12.464  152.6  0.0252   45.8  0.3666  -30.9
 0.300  0.5087  -68.0  12.315  150.7  0.0265   45.5  0.3626  -33.1
 0.320  0.5136  -71.5  12.164  149.1  0.0277   45.0  0.3585  -35.2
 0.340  0.5204  -74.8  12.022  147.5  0.0290   44.6  0.3550  -37.4
 0.360  0.5267  -78.2  11.849  145.9  0.0302   44.0  0.3498  -39.4
 0.380  0.5328  -81.6  11.646  144.2  0.0313   43.2  0.3429  -41.3
 0.400  0.5406  -84.9  11.452  142.5  0.0324   42.5  0.3364  -43.2
 0.420  0.5449  -87.7  11.296  141.1  0.0334   41.8  0.3319  -45.0
 0.440  0.5506  -90.5  11.147  139.6  0.0344   41.1  0.3278  -46.9
 0.450  0.5539  -91.9  11.075  138.9  0.0349   40.8  0.3259  -47.8
 0.460  0.5565  -93.2  10.996  138.2  0.0353   40.4  0.3230  -48.6
 0.480  0.5625  -95.9  10.843  136.8  0.0362   39.6  0.3175  -50.1
 0.500  0.5697  -98.5  10.697  135.4  0.0370   38.9  0.3122  -51.7
 0.520  0.5728 -101.0  10.516  134.1  0.0377   38.1  0.3063  -53.3
 0.540  0.5771 -103.5  10.340  132.7  0.0385   37.4  0.3007  -55.0
 0.560  0.5824 -106.0  10.171  131.3  0.0393   36.7  0.2953  -56.8
 0.580  0.5887 -108.4  10.008  129.9  0.0400   36.0  0.2903  -58.6
 0.600  0.5961 -110.7   9.851  128.4  0.0408   35.3  0.2855  -60.5
 0.620  0.5987 -112.7   9.699  127.4  0.0414   34.6  0.2809  -61.8
 0.640  0.6020 -114.6   9.549  126.3  0.0419   33.9  0.2764  -63.2
 0.660  0.6059 -116.5   9.404  125.2  0.0425   33.3  0.2722  -64.6
 0.680  0.6106 -118.4   9.261  124.1  0.0431   32.6  0.2680  -66.1
 0.700  0.6159 -120.3   9.123  122.9  0.0437   32.0  0.2641  -67.6
 0.720  0.6188 -121.8   9.053  122.0  0.0442   31.4  0.2601  -68.9
 0.740  0.6222 -123.2   8.986  121.0  0.0446   30.8  0.2562  -70.2
 0.760  0.6259 -124.6   8.921  120.1  0.0451   30.2  0.2525  -71.6
 0.780  0.6300 -126.0   8.859  119.1  0.0455   29.7  0.2489  -73.0
 0.800  0.6345 -127.4   8.799  118.1  0.0460   29.1  0.2455  -74.5
 0.820  0.6365 -128.9   8.659  117.2  0.0463   28.5  0.2415  -75.6
 0.840  0.6390 -130.5   8.522  116.2  0.0467   28.0  0.2376  -76.8
 0.860  0.6419 -132.0   8.387  115.3  0.0470   27.5  0.2338  -78.0
 0.880  0.6453 -133.5   8.255  114.2  0.0474   26.9  0.2301  -79.3
 0.900  0.6491 -135.0   8.125  113.2  0.0477   26.4  0.2265  -80.6
 0.920  0.6508 -136.3   8.003  112.4  0.0480   25.9  0.2229  -81.8
 0.940  0.6528 -137.5   7.882  111.7  0.0483   25.5  0.2195  -83.0
 0.960  0.6552 -138.8   7.763  110.9  0.0485   25.0  0.2162  -84.3
 0.980  0.6578 -140.1   7.645  110.0  0.0488   24.5  0.2129  -85.6
 1.000  0.6608 -141.3   7.529  109.2  0.0491   24.1  0.2098  -87.0
 1.020  0.6625 -142.4   7.422  108.5  0.0493   23.7  0.2069  -88.1
 1.040  0.6644 -143.5   7.316  107.8  0.0495   23.3  0.2042  -89.2
 1.060  0.6665 -144.6   7.211  107.0  0.0498   22.9  0.2015  -90.3
 1.080  0.6690 -145.7   7.107  106.3  0.0500   22.5  0.1988  -91.4
 1.100  0.6716 -146.8   7.005  105.5  0.0502   22.1  0.1963  -92.6
 1.120  0.6732 -147.8   6.904  104.9  0.0504   21.7  0.1938  -93.7
 1.140  0.6750 -148.8   6.803  104.3  0.0505   21.4  0.1913  -94.8
 1.160  0.6770 -149.8   6.704  103.6  0.0507   21.0  0.1890  -96.0
 1.180  0.6793 -150.8   6.605  103.0  0.0508   20.7  0.1867  -97.2
 1.200  0.6817 -151.8   6.507  102.3  0.0510   20.3  0.1845  -98.4
 1.220  0.6828 -152.7   6.423  101.7  0.0511   20.0  0.1824  -99.5
 1.240  0.6841 -153.6   6.339  101.1  0.0513   19.7  0.1803 -100.6
 1.260  0.6855 -154.5   6.256  100.4  0.0514   19.3  0.1783 -101.7
 1.280  0.6871 -155.3   6.174   99.8  0.0516   19.0  0.1764 -102.9
 1.300  0.6889 -156.2   6.093   99.1  0.0517   18.7  0.1746 -104.1
 1.320  0.6901 -157.0   6.018   98.6  0.0518   18.4  0.1731 -105.1
 1.340  0.6914 -157.7   5.944   98.0  0.0519   18.1  0.1716 -106.1
 1.360  0.6929 -158.5   5.870   97.5  0.0520   17.9  0.1702 -107.1
 1.380  0.6944 -159.2   5.797   96.9  0.0521   17.6  0.1689 -108.1
 1.400  0.6961 -160.0   5.724   96.3  0.0522   17.3  0.1676 -109.2
 1.420  0.6971 -160.7   5.654   95.8  0.0523   17.1  0.1664 -110.2
 1.440  0.6983 -161.4   5.584   95.3  0.0524   16.8  0.1653 -111.1
 1.460  0.6995 -162.1   5.514   94.8  0.0524   16.6  0.1642 -112.1
 1.480  0.7009 -162.8   5.445   94.2  0.0525   16.3  0.1631 -113.1
 1.500  0.7023 -163.5   5.377   93.7  0.0526   16.1  0.1621 -114.1
 1.520  0.7032 -164.0   5.346   93.3  0.0527   15.9  0.1614 -115.0
 1.540  0.7041 -164.5   5.314   92.8  0.0528   15.7  0.1607 -115.8
 1.560  0.7050 -165.0   5.284   92.3  0.0528   15.4  0.1600 -116.7
 1.580  0.7060 -165.5   5.253   91.9  0.0529   15.2  0.1594 -117.6
 1.600  0.7071 -166.0   5.223   91.4  0.0530   15.0  0.1588 -118.5
 1.620  0.7080 -166.6   5.161   91.0  0.0530   14.8  0.1579 -119.4
 1.640  0.7090 -167.2   5.099   90.6  0.0531   14.6  0.1570 -120.3
 1.660  0.7100 -167.8   5.038   90.1  0.0531   14.4  0.1562 -121.2
 1.680  0.7112 -168.4   4.977   89.7  0.0532   14.2  0.1554 -122.1
 1.700  0.7124 -169.0   4.916   89.2  0.0532   14.0  0.1547 -123.0
 1.720  0.7134 -169.5   4.862   88.8  0.0532   13.8  0.1544 -123.7
 1.740  0.7145 -169.9   4.808   88.4  0.0533   13.7  0.1542 -124.5
 1.760  0.7157 -170.4   4.755   88.0  0.0533   13.5  0.1540 -125.2
 1.780  0.7169 -170.8   4.702   87.5  0.0534   13.4  0.1538 -126.0
 1.800  0.7181 -171.3   4.649   87.1  0.0534   13.2  0.1536 -126.7
 1.820  0.7191 -171.8   4.598   86.7  0.0534   13.0  0.1532 -127.5
 1.840  0.7201 -172.3   4.548   86.3  0.0535   12.9  0.1529 -128.3
 1.860  0.7211 -172.7   4.498   85.9  0.0535   12.7  0.1526 -129.1
 1.880  0.7222 -173.2   4.448   85.5  0.0536   12.6  0.1523 -129.9
 1.900  0.7234 -173.7   4.398   85.1  0.0536   12.4  0.1521 -130.7
 1.920  0.7242 -174.1   4.355   84.7  0.0536   12.3  0.1520 -131.4
 1.940  0.7251 -174.4   4.313   84.4  0.0536   12.1  0.1520 -132.0
 1.960  0.7260 -174.8   4.271   84.0  0.0537   12.0  0.1520 -132.7
 1.980  0.7269 -175.1   4.229   83.6  0.0537   11.8  0.1520 -133.3
 2.000  0.7278 -175.5   4.187   83.2  0.0537   11.7  0.1520 -134.0
 2.020  0.7287 -175.8   4.147   82.9  0.0537   11.6  0.1521 -134.5
 2.040  0.7297 -176.2   4.108   82.6  0.0537   11.5  0.1522 -135.1
 2.060  0.7307 -176.5   4.068   82.2  0.0538   11.3  0.1523 -135.6
 2.080  0.7317 -176.9   4.029   81.9  0.0538   11.2  0.1525 -136.2
 2.100  0.7328 -177.2   3.990   81.5  0.0538   11.1  0.1526 -136.7
 2.120  0.7339 -177.6   3.951   81.2  0.0538   11.0  0.1528 -137.3
 2.140  0.7349 -177.9   3.912   80.8  0.0538   10.9  0.1530 -137.8
 2.160  0.7361 -178.2   3.874   80.5  0.0539   10.7  0.1532 -138.3
 2.180  0.7372 -178.6   3.835   80.1  0.0539   10.6  0.1534 -138.9
 2.200  0.7384 -178.9   3.797   79.7  0.0539   10.5  0.1536 -139.4
 2.220  0.7394 -179.4   3.765   79.4  0.0539   10.4  0.1538 -139.8
 2.240  0.7405 -179.8   3.733   79.1  0.0539   10.3  0.1540 -140.2
 2.260  0.7416  179.7   3.701   78.8  0.0540   10.2  0.1542 -140.7
 2.280  0.7428  179.2   3.670   78.5  0.0540   10.1  0.1544 -141.1
 2.300  0.7441  178.8   3.638   78.2  0.0540   10.0  0.1546 -141.5
 2.320  0.7453  178.3   3.607   77.8  0.0540    9.9  0.1549 -141.9
 2.340  0.7466  177.9   3.575   77.5  0.0540    9.8  0.1551 -142.4
 2.360  0.7480  177.4   3.544   77.2  0.0541    9.7  0.1554 -142.8
 2.380  0.7494  177.0   3.513   76.8  0.0541    9.6  0.1556 -143.2
 2.400  0.7509  176.5   3.482   76.5  0.0541    9.5  0.1559 -143.6
 2.420  0.7513  176.2   3.455   76.2  0.0541    9.4  0.1562 -143.9
 2.440  0.7518  175.9   3.428   75.9  0.0541    9.4  0.1566 -144.2
 2.460  0.7522  175.5   3.401   75.6  0.0541    9.3  0.1569 -144.5
 2.480  0.7527  175.2   3.374   75.3  0.0541    9.2  0.1573 -144.7
 2.500  0.7533  174.9   3.348   75.0  0.0541    9.2  0.1576 -145.0
 2.520  0.7538  174.6   3.321   74.7  0.0541    9.1  0.1580 -145.3
 2.540  0.7544  174.3   3.295   74.4  0.0541    9.0  0.1583 -145.6
 2.560  0.7550  173.9   3.268   74.1  0.0541    8.9  0.1587 -145.8
 2.580  0.7556  173.6   3.242   73.7  0.0541    8.9  0.1590 -146.1
 2.600  0.7562  173.3   3.216   73.4  0.0541    8.8  0.1594 -146.4
 2.620  0.7564  173.0   3.193   73.1  0.0541    8.8  0.1597 -146.6
 2.640  0.7565  172.7   3.170   72.9  0.0541    8.7  0.1600 -146.8
 2.660  0.7567  172.5   3.147   72.6  0.0542    8.7  0.1603 -147.0
 2.680  0.7569  172.2   3.124   72.3  0.0542    8.7  0.1606 -147.2
 2.700  0.7572  171.9   3.101   72.1  0.0542    8.6  0.1609 -147.5
 2.720  0.7574  171.6   3.078   71.8  0.0542    8.6  0.1612 -147.7
 2.740  0.7577  171.3   3.056   71.5  0.0542    8.6  0.1615 -147.9
 2.760  0.7580  171.1   3.033   71.2  0.0543    8.6  0.1618 -148.1
 2.780  0.7583  170.8   3.010   70.9  0.0543    8.5  0.1621 -148.3
 2.800  0.7586  170.5   2.988   70.6  0.0543    8.5  0.1624 -148.5
 2.820  0.7589  170.2   2.968   70.3  0.0543    8.4  0.1628 -148.7
 2.840  0.7593  170.0   2.948   70.1  0.0544    8.4  0.1632 -148.8
 2.860  0.7596  169.7   2.928   69.8  0.0544    8.3  0.1636 -149.0
 2.880  0.7600  169.5   2.909   69.5  0.0544    8.3  0.1640 -149.1
 2.900  0.7604  169.2   2.889   69.2  0.0544    8.2  0.1644 -149.3
 2.920  0.7608  168.9   2.870   69.0  0.0545    8.2  0.1648 -149.5
 2.940  0.7612  168.7   2.850   68.7  0.0545    8.1  0.1653 -149.6
 2.960  0.7616  168.4   2.831   68.4  0.0545    8.1  0.1657 -149.8
 2.980  0.7620  168.2   2.811   68.1  0.0546    8.0  0.1661 -149.9
 3.000  0.7625  167.9   2.792   67.8  0.0546    8.0  0.1665 -150.1
 3.100  0.7626  166.8   2.712   66.7  0.0548    7.8  0.1676 -150.3
 3.200  0.7631  165.7   2.633   65.5  0.0549    7.6  0.1688 -150.5
 3.300  0.7638  164.5   2.555   64.2  0.0551    7.5  0.1699 -150.8
 3.400  0.7648  163.4   2.478   62.8  0.0552    7.3  0.1711 -151.0
 3.500  0.7661  162.3   2.403   61.4  0.0554    7.1  0.1722 -151.2
 3.600  0.7662  161.3   2.345   60.3  0.0556    7.0  0.1723 -151.5
 3.700  0.7665  160.2   2.288   59.2  0.0559    6.8  0.1723 -151.7
 3.800  0.7671  159.2   2.232   58.0  0.0561    6.7  0.1724 -152.0
 3.900  0.7679  158.1   2.177   56.7  0.0564    6.5  0.1724 -152.2
 4.000  0.7690  157.1   2.123   55.4  0.0566    6.4  0.1725 -152.5
 4.100  0.7689  156.1   2.075   54.3  0.0569    6.3  0.1725 -152.9
 4.200  0.7690  155.1   2.028   53.2  0.0571    6.1  0.1724 -153.2
 4.300  0.7693  154.0   1.982   52.0  0.0574    6.0  0.1724 -153.6
 4.400  0.7700  153.0   1.937   50.7  0.0576    5.8  0.1724 -153.9
 4.500  0.7708  152.0   1.893   49.4  0.0579    5.7  0.1724 -154.3
 4.600  0.7703  151.0   1.856   48.3  0.0582    5.5  0.1723 -154.8
 4.700  0.7699  150.0   1.820   47.1  0.0585    5.3  0.1722 -155.3
 4.800  0.7699  149.0   1.785   45.9  0.0589    5.2  0.1721 -155.9
 4.900  0.7700  148.0   1.751   44.7  0.0592    5.0  0.1721 -156.4
 5.000  0.7704  147.0   1.717   43.4  0.0595    4.8  0.1720 -156.9
 5.100  0.7693  145.9   1.687   42.3  0.0598    4.6  0.1718 -157.7
 5.200  0.7684  144.9   1.658   41.1  0.0602    4.3  0.1717 -158.5
 5.300  0.7678  143.8   1.629   39.9  0.0605    4.1  0.1715 -159.2
 5.400  0.7675  142.8   1.601   38.6  0.0609    3.8  0.1715 -160.0
 5.500  0.7674  141.7   1.574   37.3  0.0612    3.6  0.1714 -160.8
 5.600  0.7664  140.5   1.548   36.1  0.0616    3.3  0.1697 -165.6
 5.700  0.7657  139.3   1.522   34.9  0.0620    2.9  0.1692 -170.5
 5.800  0.7653  138.2   1.497   33.6  0.0623    2.6  0.1699 -175.4
 5.900  0.7652  137.0   1.473   32.3  0.0627    2.3  0.1719  179.8
 6.000  0.7655  135.8   1.450   30.9  0.0631    2.0  0.1750  175.1
 6.100  0.7638  134.4   1.426   29.6  0.0634    1.6  0.1749  173.6
 6.200  0.7625  133.0   1.403   28.4  0.0637    1.2  0.1749  172.1
 6.300  0.7617  131.7   1.380   27.0  0.0640    0.8  0.1751  170.7
 6.400  0.7613  130.3   1.358   25.6  0.0643    0.4  0.1753  169.2
 6.500  0.7613  128.9   1.337   24.2  0.0646    0.0  0.1757  167.7
 6.600  0.7593  127.4   1.313   23.0  0.0648   -0.4  0.1756  166.0
 6.800  0.7568  124.5   1.268   20.4  0.0653   -1.2  0.1758  162.5
 7.000  0.7564  121.5   1.225   17.7  0.0657   -2.0  0.1766  159.0
 7.200  0.7571  118.4   1.183   15.2  0.0660   -2.8  0.1785  154.2
 7.400  0.7601  115.2   1.143   12.6  0.0664   -3.7  0.1817  149.6
 7.600  0.7643  112.1   1.104   10.0  0.0667   -4.6  0.1867  144.6
 7.800  0.7699  109.0   1.067    7.4  0.0668   -5.6  0.1939  139.4
 8.000  0.7777  106.0   1.031    4.7  0.0670   -6.6  0.2025  134.6
 8.200  0.7844  103.0   0.988    2.3  0.0667   -7.6  0.2166  129.5
 8.400  0.7932  100.1   0.946   -0.2  0.0663   -8.6  0.2322  125.0
 8.600  0.8010   97.6   0.905   -2.5  0.0659   -9.3  0.2494  121.0
 8.800  0.8073   95.4   0.865   -4.5  0.0654   -9.8  0.2681  117.5
 9.000  0.8147   93.3   0.825   -6.6  0.0648  -10.2  0.2877  114.4
 9.200  0.8224   92.0   0.793   -8.0  0.0645  -10.4  0.3079  112.2
 9.400  0.8304   90.8   0.762   -9.6  0.0642  -10.7  0.3285  110.4
 9.600  0.8391   89.8   0.734  -11.1  0.0640  -10.9  0.3492  108.9
 9.800  0.8483   89.0   0.707  -12.5  0.0637  -11.2  0.3700  107.9
10.000  0.8577   88.3   0.681  -14.1  0.0634  -11.4  0.3909  106.9
!
!  f       NFmin   Gammaopt  rn/50
! GHz       dB    MAG  ANG    -
 0.450      0.69  0.24    1   0.47
 0.900      0.71  0.18    6   0.15
 1.800      0.75  0.16    8   0.15
 2.400      0.77  0.14   12   0.13
 5.500      0.93  0.11   16   0.08
10.000      1.10  0.32  -85   0.21
!
! (c) 2016  Infineon Technologies AG, Munich
