! Infineon Technologies  Discrete & RF Semiconductors
! BFP780
! VCE =  3.0 V,  IC =  75 mA
! Common Emitter S-Parameters:                            Jul 2015
# GHz  S  MA  R  50
!  f         S11            S21            S12            S22
! GHz     MAG   ANG      MAG   ANG      MAG   ANG      MAG   ANG
 0.030  0.4326  -40.8  80.721  165.7  0.0059   72.4  0.9710  -20.2
 0.040  0.4497  -52.5  78.873  161.1  0.0068   74.1  0.9493  -27.1
 0.050  0.4751  -62.8  76.850  156.4  0.0089   69.9  0.9345  -33.4
 0.060  0.5016  -71.6  74.559  152.4  0.0101   72.0  0.9091  -39.3
 0.070  0.5220  -80.1  72.007  148.4  0.0113   62.1  0.8865  -45.3
 0.080  0.5446  -87.5  69.409  144.7  0.0125   57.2  0.8622  -50.9
 0.090  0.5643  -94.3  66.677  141.3  0.0143   50.2  0.8332  -56.1
 0.100  0.5868  -99.8  64.043  138.2  0.0143   53.6  0.8127  -60.9
 0.110  0.6047 -105.2  61.419  135.2  0.0155   51.6  0.7894  -65.8
 0.120  0.6213 -109.9  58.950  132.5  0.0158   48.6  0.7683  -70.0
 0.130  0.6366 -114.1  56.603  130.1  0.0162   46.8  0.7465  -74.1
 0.140  0.6496 -117.9  54.231  127.7  0.0172   44.3  0.7264  -78.0
 0.150  0.6608 -121.4  52.134  125.6  0.0169   44.3  0.7101  -81.7
 0.200  0.7067 -134.8  42.957  116.8  0.0192   35.4  0.6376  -97.3
 0.250  0.7311 -144.2  36.221  110.4  0.0204   32.1  0.5905 -109.3
 0.300  0.7465 -151.1  31.022  105.4  0.0212   29.3  0.5552 -119.0
 0.350  0.7582 -156.5  27.071  101.4  0.0217   27.3  0.5317 -126.8
 0.400  0.7666 -160.6  23.970   98.1  0.0221   26.4  0.5158 -133.1
 0.450  0.7711 -164.0  21.480   95.3  0.0226   25.0  0.5039 -138.4
 0.500  0.7747 -167.1  19.435   92.8  0.0231   24.1  0.4934 -143.0
 0.600  0.7814 -171.8  16.300   88.5  0.0237   24.3  0.4823 -150.5
 0.700  0.7831 -175.9  14.009   84.7  0.0242   23.8  0.4740 -156.3
 0.800  0.7883 -179.2  12.286   81.5  0.0249   23.7  0.4721 -161.0
 0.900  0.7894  177.9  10.923   78.4  0.0253   24.3  0.4690 -165.1
 1.000  0.7937  175.2   9.836   75.6  0.0261   24.5  0.4715 -168.4
 1.100  0.7933  172.8   8.922   72.8  0.0268   24.8  0.4715 -171.5
 1.200  0.7979  170.6   8.184   70.3  0.0275   25.2  0.4751 -174.0
 1.300  0.7977  168.4   7.541   67.7  0.0282   25.6  0.4765 -176.5
 1.400  0.8003  166.5   6.992   65.2  0.0290   25.6  0.4807 -178.6
 1.500  0.8003  164.6   6.511   62.9  0.0297   26.1  0.4834  179.3
 1.600  0.8040  162.7   6.098   60.4  0.0303   26.4  0.4884  177.4
 1.700  0.8038  160.8   5.725   58.0  0.0309   26.6  0.4925  175.5
 1.800  0.8047  159.0   5.383   55.6  0.0318   26.4  0.4978  173.8
 1.900  0.8055  157.4   5.082   53.4  0.0325   26.8  0.5024  172.1
 2.000  0.8095  155.7   4.826   51.1  0.0333   26.4  0.5081  170.5
 2.100  0.8095  154.1   4.568   48.8  0.0338   26.6  0.5078  169.4
 2.200  0.8097  152.4   4.340   46.6  0.0344   26.8  0.5115  167.8
 2.300  0.8106  150.9   4.135   44.4  0.0353   26.6  0.5152  166.2
 2.400  0.8137  149.3   3.953   42.1  0.0359   27.0  0.5196  164.7
 2.500  0.8146  147.7   3.781   39.9  0.0367   26.5  0.5240  163.1
 2.600  0.8152  146.0   3.609   37.6  0.0374   26.4  0.5286  161.5
 2.700  0.8152  144.5   3.454   35.5  0.0381   26.4  0.5329  160.0
 2.800  0.8175  142.9   3.314   33.3  0.0386   26.2  0.5383  158.5
 2.900  0.8186  141.3   3.178   31.2  0.0395   25.8  0.5441  157.0
 3.000  0.8200  139.8   3.051   28.9  0.0402   25.8  0.5499  155.4
 3.100  0.8209  138.3   2.929   26.9  0.0408   25.5  0.5556  154.0
 3.200  0.8222  136.9   2.817   24.9  0.0418   25.4  0.5610  152.5
 3.300  0.8227  135.4   2.708   22.8  0.0424   24.9  0.5672  151.2
 3.400  0.8244  134.0   2.608   20.8  0.0431   24.7  0.5732  149.8
 3.500  0.8261  132.7   2.516   18.9  0.0438   24.5  0.5793  148.5
 3.600  0.8265  131.1   2.421   16.8  0.0444   23.9  0.5854  147.1
 3.700  0.8283  129.8   2.340   14.9  0.0454   23.8  0.5908  145.9
 3.800  0.8290  128.3   2.253   12.9  0.0459   23.4  0.5972  144.5
 3.900  0.8310  127.1   2.180   11.1  0.0468   22.9  0.6032  143.3
 4.000  0.8329  125.7   2.105    9.3  0.0474   22.5  0.6093  142.0
 4.100  0.8349  124.5   2.038    7.3  0.0481   22.1  0.6152  141.0
 4.200  0.8368  123.2   1.971    5.5  0.0489   22.0  0.6215  139.7
 4.300  0.8385  121.9   1.910    3.7  0.0495   21.6  0.6278  138.7
 4.400  0.8408  120.8   1.849    2.0  0.0503   21.1  0.6338  137.6
 4.500  0.8425  119.6   1.794    0.1  0.0511   20.5  0.6394  136.5
 4.600  0.8452  118.5   1.739   -1.6  0.0518   20.1  0.6452  135.4
 4.700  0.8462  117.3   1.687   -3.4  0.0526   19.8  0.6500  134.2
 4.800  0.8482  116.2   1.637   -5.1  0.0533   19.3  0.6557  133.2
 4.900  0.8498  115.3   1.589   -6.8  0.0540   18.8  0.6601  132.0
 5.000  0.8511  114.2   1.544   -8.5  0.0548   18.3  0.6654  131.0
 5.100  0.8531  113.3   1.502  -10.2  0.0554   17.7  0.6694  129.8
 5.200  0.8537  112.2   1.459  -11.9  0.0562   17.3  0.6742  128.8
 5.300  0.8546  111.4   1.418  -13.6  0.0571   16.6  0.6782  127.6
 5.400  0.8559  110.4   1.381  -15.2  0.0577   16.2  0.6824  126.6
 5.500  0.8553  109.7   1.342  -16.7  0.0584   15.7  0.6854  125.5
 5.600  0.8561  108.9   1.308  -18.3  0.0593   15.2  0.6897  124.4
 5.700  0.8553  108.0   1.275  -19.9  0.0603   14.7  0.6934  123.3
 5.800  0.8560  107.1   1.242  -21.5  0.0610   14.0  0.6971  122.1
 5.900  0.8549  106.4   1.212  -23.0  0.0619   13.4  0.7010  121.1
 6.000  0.8556  105.3   1.182  -24.6  0.0626   12.7  0.7052  119.8
!
!  f       NFmin   Gammaopt  rn/50
! GHz       dB    MAG  ANG    -
!
! noise parameter not available yet for this operation point!
!
! (c) 2015  Infineon Technologies AG, Munich
