! Infineon Technologies  Discrete & RF Semiconductors
! BFP720ESD
! VCE =  2.5 V,  IC =  5.0 mA
! Common Emitter S-Parameters:                            Jan 2016
# GHz  S  MA  R  50
!  f         S11            S21            S12            S22
! GHz     MAG   ANG      MAG   ANG      MAG   ANG      MAG   ANG
 0.010  0.9413   -0.2  15.025  179.3  0.0003  -16.3  0.9934    1.2
 0.015  0.9412   -0.5  14.981  179.1  0.0004   55.0  0.9950    0.4
 0.020  0.9412   -0.9  14.937  178.9  0.0007   78.9  0.9967   -0.3
 0.025  0.9411   -1.1  14.929  178.7  0.0009   79.3  0.9969   -0.5
 0.030  0.9410   -1.3  14.921  178.4  0.0011   79.6  0.9972   -0.7
 0.035  0.9408   -1.5  14.914  178.2  0.0013   79.8  0.9975   -0.9
 0.040  0.9408   -1.7  14.907  177.9  0.0015   79.9  0.9977   -1.0
 0.045  0.9407   -1.9  14.900  177.7  0.0017   80.0  0.9980   -1.2
 0.050  0.9406   -2.1  14.893  177.4  0.0019   80.1  0.9983   -1.4
 0.055  0.9402   -2.3  14.900  177.2  0.0020   81.1  0.9982   -1.6
 0.060  0.9399   -2.6  14.907  177.1  0.0022   82.0  0.9982   -1.7
 0.065  0.9396   -2.8  14.914  176.9  0.0023   82.7  0.9981   -1.9
 0.070  0.9393   -3.1  14.921  176.7  0.0025   83.4  0.9981   -2.1
 0.075  0.9390   -3.3  14.928  176.5  0.0026   84.0  0.9981   -2.2
 0.080  0.9387   -3.6  14.935  176.4  0.0028   84.5  0.9981   -2.4
 0.085  0.9385   -3.8  14.943  176.2  0.0029   85.0  0.9981   -2.6
 0.090  0.9382   -4.1  14.950  176.0  0.0031   85.5  0.9981   -2.8
 0.095  0.9380   -4.3  14.958  175.9  0.0032   85.8  0.9981   -2.9
 0.100  0.9378   -4.6  14.966  175.7  0.0034   86.2  0.9981   -3.1
 0.105  0.9376   -4.8  14.962  175.5  0.0036   86.0  0.9979   -3.3
 0.110  0.9374   -5.1  14.959  175.3  0.0038   85.9  0.9978   -3.4
 0.115  0.9373   -5.3  14.955  175.0  0.0039   85.7  0.9976   -3.6
 0.120  0.9372   -5.6  14.952  174.8  0.0041   85.6  0.9974   -3.7
 0.125  0.9370   -5.8  14.949  174.6  0.0043   85.5  0.9973   -3.9
 0.130  0.9369   -6.0  14.947  174.4  0.0045   85.4  0.9972   -4.1
 0.135  0.9369   -6.3  14.944  174.2  0.0047   85.3  0.9970   -4.2
 0.140  0.9368   -6.5  14.942  173.9  0.0048   85.2  0.9969   -4.4
 0.145  0.9367   -6.8  14.940  173.7  0.0050   85.1  0.9968   -4.5
 0.150  0.9367   -7.0  14.938  173.5  0.0052   85.0  0.9967   -4.7
 0.155  0.9365   -7.2  14.934  173.3  0.0054   84.8  0.9965   -4.9
 0.160  0.9363   -7.5  14.930  173.1  0.0055   84.7  0.9962   -5.0
 0.165  0.9362   -7.7  14.926  172.9  0.0057   84.6  0.9960   -5.2
 0.170  0.9360   -7.9  14.923  172.7  0.0059   84.4  0.9958   -5.3
 0.175  0.9359   -8.1  14.920  172.5  0.0060   84.3  0.9956   -5.5
 0.180  0.9357   -8.4  14.917  172.3  0.0062   84.2  0.9953   -5.7
 0.185  0.9356   -8.6  14.914  172.1  0.0064   84.1  0.9951   -5.8
 0.190  0.9355   -8.8  14.911  171.9  0.0066   84.0  0.9950   -6.0
 0.195  0.9355   -9.1  14.908  171.7  0.0067   83.9  0.9948   -6.1
 0.200  0.9354   -9.3  14.906  171.5  0.0069   83.8  0.9946   -6.3
 0.220  0.9333  -10.3  14.856  170.6  0.0076   83.0  0.9935   -6.9
 0.240  0.9314  -11.2  14.809  169.7  0.0083   82.4  0.9925   -7.6
 0.260  0.9299  -12.1  14.781  168.8  0.0089   81.7  0.9914   -8.2
 0.280  0.9287  -13.0  14.772  168.1  0.0096   81.0  0.9900   -8.9
 0.300  0.9277  -13.9  14.765  167.3  0.0103   80.4  0.9888   -9.5
 0.320  0.9263  -14.8  14.735  166.5  0.0110   79.7  0.9873  -10.1
 0.340  0.9252  -15.7  14.709  165.8  0.0117   79.2  0.9859  -10.8
 0.360  0.9239  -16.7  14.672  165.0  0.0123   78.5  0.9842  -11.4
 0.380  0.9226  -17.6  14.627  164.1  0.0130   77.9  0.9824  -12.0
 0.400  0.9215  -18.5  14.585  163.3  0.0137   77.3  0.9807  -12.6
 0.420  0.9196  -19.4  14.548  162.6  0.0143   76.7  0.9790  -13.2
 0.440  0.9180  -20.3  14.514  161.9  0.0150   76.2  0.9774  -13.8
 0.450  0.9172  -20.7  14.498  161.5  0.0153   76.0  0.9766  -14.1
 0.460  0.9161  -21.2  14.481  161.1  0.0156   75.7  0.9756  -14.4
 0.480  0.9141  -22.1  14.449  160.3  0.0163   75.0  0.9736  -15.1
 0.500  0.9123  -23.0  14.420  159.5  0.0170   74.4  0.9717  -15.7
 0.520  0.9098  -23.9  14.372  158.7  0.0176   73.7  0.9693  -16.3
 0.540  0.9075  -24.8  14.326  157.9  0.0182   73.0  0.9671  -16.9
 0.560  0.9055  -25.7  14.284  157.1  0.0189   72.4  0.9649  -17.4
 0.580  0.9037  -26.7  14.244  156.3  0.0195   71.8  0.9629  -18.0
 0.600  0.9021  -27.6  14.207  155.5  0.0201   71.2  0.9609  -18.6
 0.620  0.8994  -28.5  14.169  154.8  0.0207   70.6  0.9584  -19.2
 0.640  0.8969  -29.4  14.132  154.1  0.0213   70.0  0.9561  -19.8
 0.660  0.8947  -30.3  14.098  153.4  0.0220   69.4  0.9538  -20.5
 0.680  0.8926  -31.2  14.066  152.7  0.0226   68.9  0.9517  -21.1
 0.700  0.8908  -32.1  14.036  152.0  0.0232   68.4  0.9497  -21.7
 0.720  0.8881  -33.0  13.980  151.3  0.0238   67.8  0.9469  -22.3
 0.740  0.8856  -33.8  13.925  150.6  0.0244   67.2  0.9443  -22.8
 0.760  0.8834  -34.7  13.873  149.9  0.0249   66.6  0.9417  -23.4
 0.780  0.8813  -35.5  13.824  149.1  0.0255   66.0  0.9392  -23.9
 0.800  0.8794  -36.4  13.776  148.4  0.0261   65.5  0.9368  -24.5
 0.820  0.8766  -37.3  13.735  147.7  0.0267   64.9  0.9341  -25.1
 0.840  0.8740  -38.2  13.696  147.0  0.0272   64.3  0.9314  -25.7
 0.860  0.8716  -39.1  13.659  146.3  0.0278   63.7  0.9289  -26.3
 0.880  0.8694  -40.0  13.625  145.6  0.0283   63.1  0.9264  -26.9
 0.900  0.8674  -40.9  13.592  144.9  0.0289   62.6  0.9241  -27.5
 0.920  0.8644  -41.8  13.542  144.2  0.0295   62.0  0.9210  -28.1
 0.940  0.8615  -42.6  13.494  143.5  0.0300   61.4  0.9180  -28.6
 0.960  0.8589  -43.5  13.449  142.8  0.0306   60.9  0.9151  -29.2
 0.980  0.8564  -44.4  13.405  142.1  0.0311   60.3  0.9123  -29.7
 1.000  0.8542  -45.3  13.363  141.4  0.0317   59.8  0.9096  -30.3
 1.020  0.8512  -46.2  13.317  140.7  0.0322   59.2  0.9065  -30.9
 1.040  0.8484  -47.0  13.273  140.1  0.0327   58.7  0.9035  -31.4
 1.060  0.8457  -47.9  13.230  139.4  0.0332   58.1  0.9006  -32.0
 1.080  0.8433  -48.8  13.190  138.7  0.0337   57.6  0.8977  -32.5
 1.100  0.8411  -49.7  13.151  138.0  0.0342   57.1  0.8950  -33.1
 1.120  0.8381  -50.5  13.102  137.3  0.0347   56.5  0.8918  -33.7
 1.140  0.8352  -51.4  13.054  136.7  0.0352   56.0  0.8887  -34.2
 1.160  0.8326  -52.3  13.009  136.0  0.0356   55.4  0.8857  -34.8
 1.180  0.8301  -53.1  12.965  135.3  0.0361   54.9  0.8828  -35.3
 1.200  0.8278  -54.0  12.923  134.6  0.0366   54.4  0.8800  -35.9
 1.220  0.8247  -54.8  12.872  133.9  0.0371   53.8  0.8768  -36.4
 1.240  0.8219  -55.7  12.823  133.3  0.0375   53.3  0.8736  -37.0
 1.260  0.8192  -56.5  12.775  132.6  0.0380   52.7  0.8705  -37.5
 1.280  0.8166  -57.3  12.729  132.0  0.0384   52.2  0.8675  -38.1
 1.300  0.8143  -58.2  12.685  131.3  0.0389   51.7  0.8646  -38.6
 1.320  0.8110  -59.0  12.630  130.6  0.0393   51.2  0.8611  -39.1
 1.340  0.8080  -59.9  12.577  130.0  0.0397   50.7  0.8577  -39.7
 1.360  0.8051  -60.8  12.526  129.3  0.0401   50.2  0.8544  -40.2
 1.380  0.8023  -61.6  12.477  128.6  0.0405   49.7  0.8511  -40.8
 1.400  0.7998  -62.5  12.429  127.9  0.0409   49.2  0.8479  -41.3
 1.420  0.7970  -63.3  12.379  127.3  0.0413   48.7  0.8448  -41.8
 1.440  0.7943  -64.0  12.331  126.8  0.0417   48.3  0.8418  -42.3
 1.460  0.7917  -64.8  12.284  126.2  0.0421   47.8  0.8388  -42.8
 1.480  0.7893  -65.6  12.238  125.6  0.0425   47.3  0.8359  -43.3
 1.500  0.7871  -66.4  12.193  125.0  0.0429   46.9  0.8331  -43.8
 1.520  0.7841  -67.2  12.146  124.3  0.0433   46.4  0.8297  -44.3
 1.540  0.7813  -68.1  12.101  123.7  0.0436   45.8  0.8264  -44.8
 1.560  0.7786  -69.0  12.058  123.0  0.0440   45.3  0.8232  -45.3
 1.580  0.7761  -69.8  12.016  122.4  0.0443   44.8  0.8200  -45.9
 1.600  0.7738  -70.7  11.976  121.7  0.0447   44.3  0.8169  -46.4
 1.620  0.7709  -71.5  11.927  121.1  0.0450   43.9  0.8138  -46.9
 1.640  0.7682  -72.2  11.879  120.5  0.0453   43.4  0.8107  -47.3
 1.660  0.7656  -73.0  11.832  119.9  0.0457   43.0  0.8077  -47.8
 1.680  0.7632  -73.8  11.787  119.3  0.0460   42.6  0.8048  -48.3
 1.700  0.7609  -74.6  11.743  118.7  0.0463   42.2  0.8019  -48.8
 1.720  0.7581  -75.4  11.687  118.1  0.0466   41.7  0.7988  -49.3
 1.740  0.7555  -76.1  11.632  117.6  0.0469   41.3  0.7958  -49.7
 1.760  0.7530  -76.9  11.578  117.0  0.0473   40.9  0.7929  -50.2
 1.780  0.7507  -77.7  11.525  116.4  0.0476   40.4  0.7899  -50.7
 1.800  0.7485  -78.5  11.474  115.8  0.0479   40.0  0.7871  -51.2
 1.820  0.7456  -79.3  11.433  115.2  0.0482   39.6  0.7839  -51.7
 1.840  0.7429  -80.1  11.394  114.7  0.0485   39.1  0.7807  -52.1
 1.860  0.7403  -80.9  11.356  114.1  0.0488   38.7  0.7776  -52.6
 1.880  0.7379  -81.8  11.319  113.5  0.0491   38.3  0.7745  -53.1
 1.900  0.7356  -82.6  11.283  112.9  0.0494   37.9  0.7715  -53.6
 1.920  0.7330  -83.3  11.233  112.3  0.0497   37.5  0.7685  -54.0
 1.940  0.7304  -84.0  11.184  111.8  0.0499   37.0  0.7655  -54.5
 1.960  0.7280  -84.7  11.136  111.2  0.0502   36.6  0.7625  -54.9
 1.980  0.7257  -85.5  11.089  110.7  0.0504   36.2  0.7596  -55.4
 2.000  0.7235  -86.2  11.043  110.1  0.0507   35.8  0.7568  -55.8
 2.020  0.7203  -87.0  10.997  109.5  0.0509   35.4  0.7534  -56.3
 2.040  0.7172  -87.8  10.952  109.0  0.0512   34.9  0.7500  -56.7
 2.060  0.7143  -88.5  10.908  108.4  0.0514   34.5  0.7467  -57.2
 2.080  0.7115  -89.3  10.865  107.8  0.0516   34.1  0.7435  -57.7
 2.100  0.7089  -90.1  10.823  107.3  0.0519   33.7  0.7403  -58.1
 2.120  0.7064  -90.9  10.782  106.7  0.0521   33.3  0.7372  -58.6
 2.140  0.7040  -91.7  10.742  106.1  0.0524   32.9  0.7341  -59.1
 2.160  0.7017  -92.6  10.704  105.5  0.0526   32.5  0.7310  -59.6
 2.180  0.6996  -93.4  10.666  104.9  0.0528   32.1  0.7280  -60.1
 2.200  0.6977  -94.2  10.630  104.3  0.0531   31.7  0.7251  -60.6
 2.220  0.6946  -94.9  10.585  103.8  0.0533   31.3  0.7217  -61.1
 2.240  0.6916  -95.7  10.540  103.2  0.0535   30.9  0.7183  -61.5
 2.260  0.6887  -96.4  10.496  102.7  0.0537   30.5  0.7150  -62.0
 2.280  0.6859  -97.2  10.454  102.2  0.0539   30.1  0.7118  -62.4
 2.300  0.6833  -98.0  10.412  101.6  0.0541   29.7  0.7086  -62.9
 2.320  0.6807  -98.8  10.371  101.1  0.0543   29.3  0.7054  -63.4
 2.340  0.6783  -99.5  10.331  100.5  0.0545   28.9  0.7023  -63.8
 2.360  0.6761 -100.3  10.293   99.9  0.0548   28.6  0.6992  -64.3
 2.380  0.6739 -101.1  10.255   99.4  0.0550   28.2  0.6962  -64.8
 2.400  0.6719 -101.9  10.218   98.8  0.0552   27.8  0.6932  -65.3
 2.420  0.6689 -102.7  10.173   98.3  0.0553   27.4  0.6897  -65.7
 2.440  0.6660 -103.5  10.128   97.7  0.0555   27.0  0.6863  -66.2
 2.460  0.6632 -104.3  10.085   97.2  0.0556   26.6  0.6829  -66.7
 2.480  0.6606 -105.1  10.042   96.7  0.0557   26.3  0.6795  -67.1
 2.500  0.6581 -106.0  10.000   96.1  0.0559   25.9  0.6762  -67.6
 2.520  0.6558 -106.8   9.960   95.6  0.0560   25.5  0.6729  -68.1
 2.540  0.6536 -107.6   9.920   95.0  0.0562   25.1  0.6697  -68.5
 2.560  0.6515 -108.5   9.881   94.4  0.0563   24.7  0.6665  -69.0
 2.580  0.6496 -109.3   9.843   93.9  0.0564   24.4  0.6634  -69.5
 2.600  0.6478 -110.2   9.806   93.3  0.0566   24.0  0.6603  -70.0
 2.620  0.6450 -110.9   9.762   92.8  0.0567   23.7  0.6571  -70.4
 2.640  0.6422 -111.7   9.720   92.3  0.0568   23.3  0.6538  -70.9
 2.660  0.6396 -112.4   9.677   91.8  0.0569   23.0  0.6507  -71.3
 2.680  0.6371 -113.2   9.636   91.2  0.0570   22.6  0.6475  -71.7
 2.700  0.6347 -114.0   9.596   90.7  0.0571   22.3  0.6445  -72.2
 2.720  0.6324 -114.8   9.556   90.2  0.0572   21.9  0.6414  -72.6
 2.740  0.6303 -115.5   9.517   89.6  0.0573   21.6  0.6384  -73.1
 2.760  0.6282 -116.3   9.479   89.1  0.0574   21.3  0.6354  -73.6
 2.780  0.6263 -117.1   9.442   88.5  0.0575   20.9  0.6325  -74.0
 2.800  0.6245 -117.9   9.406   88.0  0.0576   20.6  0.6296  -74.5
 2.820  0.6222 -118.6   9.364   87.5  0.0577   20.3  0.6266  -74.9
 2.840  0.6200 -119.4   9.323   87.0  0.0577   19.9  0.6236  -75.3
 2.860  0.6179 -120.1   9.282   86.5  0.0578   19.6  0.6207  -75.8
 2.880  0.6158 -120.9   9.242   86.1  0.0579   19.3  0.6178  -76.2
 2.900  0.6139 -121.6   9.203   85.6  0.0579   18.9  0.6149  -76.6
 2.920  0.6122 -122.4   9.164   85.1  0.0580   18.6  0.6121  -77.1
 2.940  0.6105 -123.2   9.126   84.5  0.0581   18.3  0.6093  -77.5
 2.960  0.6089 -123.9   9.089   84.0  0.0581   18.0  0.6065  -78.0
 2.980  0.6074 -124.7   9.053   83.5  0.0582   17.6  0.6038  -78.4
 3.000  0.6061 -125.5   9.017   83.0  0.0583   17.3  0.6011  -78.9
 3.100  0.5945 -129.0   8.808   80.8  0.0583   15.9  0.5874  -80.9
 3.200  0.5852 -132.7   8.613   78.5  0.0584   14.5  0.5745  -82.9
 3.300  0.5783 -136.4   8.432   76.0  0.0584   13.1  0.5623  -85.0
 3.400  0.5740 -140.2   8.267   73.5  0.0586   11.8  0.5510  -87.3
 3.500  0.5723 -144.1   8.119   70.9  0.0587   10.4  0.5405  -89.6
 3.600  0.5653 -147.5   7.943   68.8  0.0586    9.3  0.5295  -91.7
 3.700  0.5605 -151.1   7.778   66.6  0.0585    8.2  0.5191  -93.8
 3.800  0.5577 -154.6   7.625   64.3  0.0585    7.2  0.5095  -96.0
 3.900  0.5572 -158.2   7.485   62.0  0.0584    6.1  0.5008  -98.3
 4.000  0.5588 -161.8   7.358   59.5  0.0584    5.0  0.4928 -100.7
 4.100  0.5552 -165.0   7.191   57.4  0.0581    4.0  0.4841 -103.0
 4.200  0.5533 -168.1   7.034   55.3  0.0577    3.1  0.4762 -105.4
 4.300  0.5530 -171.3   6.888   53.1  0.0574    2.1  0.4692 -107.9
 4.400  0.5546 -174.5   6.752   50.7  0.0572    1.1  0.4631 -110.5
 4.500  0.5578 -177.7   6.628   48.3  0.0569    0.1  0.4580 -113.1
 4.600  0.5558  179.8   6.475   46.5  0.0564   -0.5  0.4525 -115.2
 4.700  0.5549  177.3   6.329   44.5  0.0559   -1.1  0.4476 -117.3
 4.800  0.5550  174.9   6.190   42.5  0.0554   -1.7  0.4433 -119.4
 4.900  0.5561  172.4   6.060   40.4  0.0549   -2.4  0.4397 -121.6
 5.000  0.5583  169.9   5.938   38.2  0.0544   -3.0  0.4367 -123.8
 5.100  0.5569  167.8   5.811   36.5  0.0539   -3.3  0.4324 -125.6
 5.200  0.5564  165.6   5.690   34.7  0.0534   -3.6  0.4286 -127.5
 5.300  0.5566  163.5   5.574   32.8  0.0529   -3.9  0.4252 -129.4
 5.400  0.5575  161.3   5.465   30.9  0.0524   -4.2  0.4222 -131.3
 5.500  0.5593  159.2   5.362   28.9  0.0519   -4.5  0.4198 -133.2
 5.600  0.5596  157.2   5.260   27.2  0.0515   -4.4  0.4165 -135.2
 5.700  0.5606  155.2   5.162   25.5  0.0512   -4.3  0.4137 -137.3
 5.800  0.5623  153.2   5.069   23.8  0.0508   -4.3  0.4114 -139.4
 5.900  0.5647  151.2   4.981   21.9  0.0505   -4.2  0.4097 -141.6
 6.000  0.5677  149.2   4.899   20.0  0.0501   -4.1  0.4086 -143.7
 6.100  0.5705  147.4   4.812   18.3  0.0501   -3.8  0.4080 -145.8
 6.200  0.5738  145.6   4.729   16.6  0.0501   -3.6  0.4079 -148.0
 6.300  0.5777  143.8   4.651   14.8  0.0500   -3.3  0.4084 -150.1
 6.400  0.5821  142.1   4.577   13.0  0.0500   -3.1  0.4095 -152.3
 6.500  0.5871  140.4   4.508   11.1  0.0500   -2.8  0.4111 -154.4
 6.600  0.5902  138.8   4.433    9.5  0.0502   -2.5  0.4109 -156.3
 6.800  0.5977  135.8   4.294    6.0  0.0506   -1.8  0.4118 -160.2
 7.000  0.6068  132.8   4.171    2.4  0.0510   -1.2  0.4147 -164.1
 7.200  0.6121  129.8   4.054   -0.9  0.0521   -0.9  0.4160 -168.5
 7.400  0.6190  126.8   3.952   -4.5  0.0532   -0.6  0.4198 -172.9
 7.600  0.6252  123.5   3.840   -8.2  0.0544   -0.7  0.4243 -177.7
 7.800  0.6315  119.8   3.720  -12.1  0.0557   -1.1  0.4303  177.3
 8.000  0.6404  116.2   3.618  -16.2  0.0570   -1.6  0.4395  172.4
 8.200  0.6433  112.1   3.474  -19.7  0.0578   -2.2  0.4434  167.5
 8.400  0.6495  108.0   3.345  -23.6  0.0587   -2.8  0.4506  162.6
 8.600  0.6595  104.1   3.221  -27.2  0.0596   -3.4  0.4587  157.7
 8.800  0.6729  100.5   3.100  -30.7  0.0605   -4.0  0.4683  152.6
 9.000  0.6889   97.0   2.991  -34.4  0.0615   -4.5  0.4815  147.7
 9.200  0.7138   93.8   2.878  -37.6  0.0625   -5.1  0.4997  142.5
 9.400  0.7408   90.8   2.775  -41.0  0.0634   -5.6  0.5217  137.7
 9.600  0.7675   88.2   2.657  -44.4  0.0646   -6.4  0.5479  133.2
 9.800  0.7936   85.8   2.525  -48.0  0.0660   -7.4  0.5782  129.0
10.000  0.8209   83.6   2.404  -51.9  0.0675   -8.3  0.6111  125.3
!
!  f       NFmin   Gammaopt  rn/50
! GHz       dB    MAG  ANG    -
 0.450      0.54  0.48    5   0.15
 0.900      0.58  0.47   13   0.15
 1.900      0.62  0.41   32   0.14
 2.400      0.67  0.38   38   0.14
 5.500      0.90  0.17  118   0.09
10.000      1.55  0.55  -99   0.38
!
! (c) 2016  Infineon Technologies AG, Munich
