! Infineon Technologies  Discrete & RF Semiconductors
! BFP760
! VCE =  1.0 V,  IC =  22 mA
! Common Emitter S-Parameters:                            Nov 2012
# GHz  S  MA  R  50
!  f         S11            S21            S12            S22
! GHz     MAG   ANG      MAG   ANG      MAG   ANG      MAG   ANG
 0.030  0.7634   -8.5  50.412  175.2  0.0028   84.6  0.9818   -5.3
 0.040  0.7658  -11.2  50.857  173.6  0.0039   85.4  0.9806   -7.2
 0.050  0.7640  -13.8  51.724  171.1  0.0041   87.3  0.9766   -9.1
 0.060  0.7661  -16.3  51.578  169.4  0.0056   85.1  0.9751  -10.9
 0.070  0.7665  -18.9  51.536  167.6  0.0064   84.7  0.9726  -12.8
 0.080  0.7633  -21.5  51.161  166.1  0.0073   82.0  0.9683  -14.6
 0.090  0.7599  -24.1  50.701  164.3  0.0082   76.9  0.9623  -16.5
 0.100  0.7557  -26.8  50.173  162.7  0.0091   78.0  0.9575  -18.4
 0.110  0.7514  -29.4  49.544  161.1  0.0101   73.8  0.9506  -20.2
 0.120  0.7467  -32.0  49.061  159.5  0.0113   75.5  0.9430  -22.0
 0.130  0.7431  -34.4  48.561  158.0  0.0118   74.3  0.9357  -23.7
 0.140  0.7403  -36.7  48.181  156.7  0.0126   72.0  0.9267  -25.4
 0.150  0.7365  -39.0  47.843  155.2  0.0133   72.7  0.9183  -27.1
 0.200  0.7211  -50.0  45.236  148.7  0.0172   67.0  0.8751  -34.9
 0.250  0.7045  -59.6  42.718  143.1  0.0203   62.9  0.8296  -42.0
 0.300  0.6892  -68.7  40.119  138.0  0.0237   59.1  0.7878  -48.5
 0.350  0.6773  -77.1  37.500  133.5  0.0260   56.2  0.7469  -54.5
 0.400  0.6680  -84.6  35.410  129.6  0.0282   52.7  0.7076  -60.0
 0.450  0.6624  -91.1  33.270  126.1  0.0301   50.5  0.6762  -65.1
 0.500  0.6549  -97.5  31.375  122.9  0.0319   48.2  0.6434  -70.0
 0.600  0.6483 -108.4  28.065  117.4  0.0348   44.2  0.5900  -78.8
 0.700  0.6452 -117.8  25.277  112.5  0.0373   40.6  0.5472  -86.8
 0.800  0.6452 -125.8  22.940  108.4  0.0393   38.1  0.5113  -94.1
 0.900  0.6449 -132.7  20.976  104.7  0.0409   35.8  0.4812 -101.1
 1.000  0.6462 -138.8  19.273  101.4  0.0423   33.9  0.4578 -107.2
 1.100  0.6471 -144.3  17.806   98.4  0.0433   32.3  0.4375 -113.2
 1.200  0.6497 -149.0  16.542   95.7  0.0444   31.1  0.4225 -118.4
 1.300  0.6515 -153.4  15.428   93.1  0.0452   29.9  0.4088 -123.6
 1.400  0.6544 -157.3  14.446   90.7  0.0462   29.0  0.3991 -128.1
 1.500  0.6568 -161.0  13.582   88.5  0.0470   28.2  0.3899 -132.7
 1.600  0.6606 -164.3  12.825   86.3  0.0477   27.5  0.3840 -136.7
 1.700  0.6636 -167.5  12.126   84.2  0.0483   26.8  0.3777 -140.7
 1.800  0.6674 -170.5  11.500   82.1  0.0491   26.2  0.3747 -144.5
 1.900  0.6704 -173.3  10.929   80.2  0.0496   25.7  0.3710 -148.2
 2.000  0.6741 -175.9  10.416   78.3  0.0503   25.1  0.3696 -151.7
 2.100  0.6760 -178.4   9.900   76.4  0.0506   24.6  0.3679 -154.8
 2.200  0.6784  179.3   9.455   74.6  0.0512   24.4  0.3666 -157.8
 2.300  0.6808  177.0   9.049   73.0  0.0516   23.9  0.3653 -160.8
 2.400  0.6836  174.8   8.674   71.2  0.0522   23.6  0.3654 -163.7
 2.500  0.6863  172.7   8.325   69.5  0.0529   23.3  0.3648 -166.5
 2.600  0.6883  170.6   7.991   67.9  0.0533   23.1  0.3651 -169.2
 2.700  0.6909  168.7   7.688   66.2  0.0538   23.0  0.3659 -171.9
 2.800  0.6936  166.8   7.400   64.7  0.0543   22.6  0.3675 -174.4
 2.900  0.6966  164.9   7.126   63.1  0.0548   22.3  0.3694 -177.0
 3.000  0.6993  163.0   6.875   61.5  0.0553   22.0  0.3724 -179.4
 3.100  0.7022  161.3   6.631   60.0  0.0558   21.9  0.3754  178.4
 3.200  0.7053  159.6   6.405   58.6  0.0563   21.6  0.3780  176.4
 3.300  0.7083  157.9   6.187   57.1  0.0567   21.4  0.3816  174.3
 3.400  0.7110  156.2   5.980   55.6  0.0571   21.2  0.3853  172.3
 3.500  0.7145  154.6   5.788   54.2  0.0576   20.9  0.3889  170.4
 3.600  0.7175  153.0   5.600   52.8  0.0582   20.6  0.3932  168.6
 3.700  0.7207  151.5   5.426   51.4  0.0584   20.5  0.3973  166.8
 3.800  0.7233  150.0   5.250   50.1  0.0588   20.2  0.4022  165.1
 3.900  0.7263  148.6   5.092   48.7  0.0592   20.1  0.4063  163.5
 4.000  0.7292  147.3   4.937   47.5  0.0595   19.9  0.4110  162.0
 4.100  0.7326  145.9   4.795   46.2  0.0600   19.7  0.4156  160.7
 4.200  0.7353  144.7   4.654   45.0  0.0606   19.6  0.4197  159.3
 4.300  0.7378  143.5   4.520   43.7  0.0608   19.5  0.4242  158.1
 4.400  0.7406  142.4   4.394   42.6  0.0612   19.3  0.4280  156.9
 4.500  0.7432  141.3   4.276   41.4  0.0617   19.1  0.4321  155.8
 4.600  0.7462  140.2   4.161   40.2  0.0621   19.1  0.4355  154.6
 4.700  0.7483  139.3   4.053   39.1  0.0625   18.9  0.4393  153.6
 4.800  0.7508  138.4   3.947   38.0  0.0630   18.7  0.4425  152.6
 4.900  0.7531  137.5   3.849   36.9  0.0633   18.6  0.4462  151.5
 5.000  0.7555  136.6   3.754   35.8  0.0639   18.5  0.4491  150.5
 5.100  0.7575  135.8   3.665   34.7  0.0643   18.3  0.4523  149.6
 5.200  0.7594  135.0   3.580   33.6  0.0648   18.2  0.4548  148.6
 5.300  0.7612  134.1   3.497   32.5  0.0652   18.0  0.4576  147.6
 5.400  0.7625  133.3   3.417   31.4  0.0657   17.9  0.4606  146.6
 5.500  0.7634  132.6   3.339   30.3  0.0660   17.8  0.4623  145.7
 5.600  0.7640  132.0   3.264   29.4  0.0666   17.7  0.4643  144.7
 5.700  0.7653  131.2   3.198   28.3  0.0670   17.6  0.4677  143.7
 5.800  0.7662  130.5   3.129   27.2  0.0677   17.4  0.4695  142.8
 5.900  0.7674  129.8   3.066   26.2  0.0682   17.2  0.4723  141.8
 6.000  0.7688  129.1   3.004   25.1  0.0688   17.2  0.4753  140.8
 6.100  0.7707  128.5   2.947   24.1  0.0695   16.9  0.4786  140.0
 6.200  0.7715  127.6   2.889   23.0  0.0701   16.6  0.4808  139.1
 6.300  0.7739  126.9   2.834   22.0  0.0708   16.3  0.4842  138.3
 6.400  0.7750  126.1   2.780   20.9  0.0714   15.9  0.4872  137.3
 6.500  0.7772  125.3   2.728   19.8  0.0720   15.6  0.4904  136.5
 6.600  0.7794  124.4   2.680   18.7  0.0725   15.3  0.4934  135.6
 6.700  0.7809  123.7   2.630   17.7  0.0732   14.9  0.4967  134.8
 6.800  0.7816  122.7   2.582   16.6  0.0737   14.6  0.4997  133.8
 6.900  0.7844  121.8   2.535   15.5  0.0743   14.2  0.5036  133.0
 7.000  0.7861  120.9   2.494   14.4  0.0748   13.8  0.5066  132.2
 7.100  0.7883  120.0   2.450   13.3  0.0755   13.3  0.5115  131.3
 7.200  0.7907  119.0   2.409   12.2  0.0761   12.9  0.5150  130.6
 7.300  0.7927  118.1   2.366   11.1  0.0765   12.4  0.5189  129.7
 7.400  0.7950  117.0   2.326    9.8  0.0770   11.9  0.5228  128.8
 7.500  0.7985  116.0   2.287    8.6  0.0776   11.4  0.5273  127.9
 7.600  0.8011  115.0   2.247    7.4  0.0780   10.8  0.5316  126.9
 7.700  0.8039  114.0   2.208    6.3  0.0784   10.3  0.5358  126.1
 7.800  0.8073  113.0   2.166    5.1  0.0787    9.7  0.5412  124.9
 7.900  0.8105  112.0   2.128    3.8  0.0791    9.0  0.5460  123.9
 8.000  0.8144  111.0   2.084    2.6  0.0793    8.4  0.5516  122.9
 8.500  0.8331  106.0   1.877   -3.5  0.0795    5.3  0.5795  117.4
 9.000  0.8493  101.7   1.668   -8.6  0.0783    2.9  0.6121  112.5
 9.500  0.8643   98.4   1.480  -12.4  0.0766    1.9  0.6428  109.0
10.000  0.8763   96.6   1.330  -14.9  0.0760    1.8  0.6700  107.6
!
!  f       NFmin   Gammaopt  rn/50
! GHz       dB    MAG  ANG    -
!
! noise parameter not available yet for this operation point!
!
! (c) 2012  Infineon Technologies AG, Munich
