! Infineon Technologies  Discrete & RF Semiconductors
! BFP720
! VCE =  3.0 V,  IC =  25 mA
! Common Emitter S-Parameters:                            Aug 2012
# GHz  S  MA  R  50
!  f         S11            S21            S12            S22
! GHz     MAG   ANG      MAG   ANG      MAG   ANG      MAG   ANG
 0.010  0.6636    0.3  42.766  179.7  0.0004   22.6  0.9369    3.9
 0.020  0.6662   -2.2  43.274  177.7  0.0007   88.8  0.9787    0.1
 0.030  0.6651   -3.4  43.305  176.9  0.0011   92.0  0.9815   -0.7
 0.040  0.6643   -4.7  43.345  176.0  0.0015   93.5  0.9844   -1.5
 0.050  0.6638   -5.9  43.394  175.2  0.0019   94.4  0.9875   -2.2
 0.060  0.6629   -7.2  43.309  174.3  0.0022   90.8  0.9870   -3.0
 0.070  0.6623   -8.4  43.234  173.4  0.0025   88.0  0.9867   -3.7
 0.080  0.6620   -9.7  43.169  172.5  0.0027   85.7  0.9866   -4.4
 0.090  0.6620  -10.9  43.114  171.7  0.0030   83.9  0.9866   -5.2
 0.100  0.6624  -12.2  43.070  170.8  0.0033   82.3  0.9868   -5.9
 0.110  0.6602  -13.3  42.907  169.9  0.0036   82.0  0.9846   -6.5
 0.120  0.6584  -14.5  42.755  169.0  0.0039   81.8  0.9826   -7.2
 0.130  0.6568  -15.7  42.614  168.1  0.0042   81.6  0.9808   -7.8
 0.140  0.6556  -16.9  42.483  167.1  0.0045   81.4  0.9790   -8.4
 0.150  0.6546  -18.1  42.364  166.2  0.0047   81.2  0.9774   -9.1
 0.200  0.6485  -23.7  41.534  162.1  0.0062   79.1  0.9641  -12.1
 0.250  0.6402  -29.3  40.676  158.1  0.0077   76.4  0.9490  -14.9
 0.300  0.6317  -34.6  39.665  154.5  0.0091   74.8  0.9312  -17.7
 0.350  0.6222  -40.0  38.553  151.2  0.0104   72.1  0.9138  -20.3
 0.400  0.6135  -45.0  37.616  148.0  0.0118   70.4  0.8938  -22.7
 0.450  0.6050  -49.9  36.650  145.0  0.0130   68.3  0.8760  -25.0
 0.500  0.5962  -54.8  35.633  142.1  0.0142   66.5  0.8563  -27.3
 0.600  0.5791  -64.2  33.881  136.8  0.0164   62.8  0.8162  -31.5
 0.700  0.5632  -73.4  32.060  131.8  0.0183   59.4  0.7778  -35.5
 0.800  0.5500  -82.0  30.442  127.2  0.0200   56.4  0.7402  -39.1
 0.900  0.5382  -90.3  28.869  122.9  0.0216   53.7  0.7024  -42.5
 1.000  0.5272  -98.3  27.367  118.8  0.0230   51.3  0.6664  -45.6
 1.100  0.5179 -105.8  25.992  114.9  0.0242   49.1  0.6316  -48.4
 1.200  0.5105 -112.7  24.700  111.3  0.0252   47.1  0.5996  -51.0
 1.300  0.5055 -119.4  23.471  107.9  0.0262   45.3  0.5689  -53.5
 1.400  0.5012 -125.4  22.315  104.7  0.0270   43.8  0.5405  -55.6
 1.500  0.4981 -131.1  21.251  101.7  0.0277   42.4  0.5140  -57.7
 1.600  0.4962 -136.2  20.273   98.8  0.0284   41.2  0.4899  -59.5
 1.700  0.4948 -141.1  19.332   96.1  0.0291   40.2  0.4670  -61.3
 1.800  0.4946 -145.4  18.472   93.4  0.0296   39.2  0.4468  -63.0
 1.900  0.4949 -149.4  17.674   91.0  0.0302   38.5  0.4284  -64.5
 2.000  0.4963 -153.2  16.927   88.7  0.0307   37.8  0.4115  -66.0
 2.100  0.4966 -156.4  16.248   86.6  0.0312   37.2  0.3965  -67.2
 2.200  0.4985 -159.6  15.592   84.3  0.0317   36.6  0.3818  -68.6
 2.300  0.5000 -162.5  15.006   82.3  0.0322   36.2  0.3696  -69.8
 2.400  0.5028 -165.4  14.438   80.1  0.0327   35.8  0.3576  -71.2
 2.500  0.5039 -167.9  13.934   78.3  0.0332   35.4  0.3472  -72.3
 2.600  0.5061 -170.4  13.445   76.3  0.0337   35.0  0.3370  -73.5
 2.700  0.5078 -172.8  13.000   74.5  0.0341   34.7  0.3281  -74.8
 2.800  0.5105 -175.2  12.568   72.6  0.0346   34.4  0.3194  -76.1
 2.900  0.5100 -178.1  12.177   70.9  0.0351   34.2  0.3116  -77.2
 3.000  0.5108  179.1  11.798   69.0  0.0356   34.0  0.3039  -78.5
 3.100  0.5108  176.7  11.462   67.5  0.0361   33.8  0.2965  -79.6
 3.200  0.5116  174.3  11.134   65.9  0.0366   33.5  0.2892  -80.9
 3.300  0.5133  171.9  10.816   64.2  0.0372   33.3  0.2821  -82.2
 3.400  0.5159  169.6  10.508   62.3  0.0377   33.0  0.2751  -83.6
 3.500  0.5193  167.2  10.212   60.4  0.0382   32.8  0.2683  -85.0
 3.600  0.5206  165.0   9.947   58.9  0.0387   32.6  0.2610  -86.5
 3.700  0.5227  162.7   9.689   57.4  0.0393   32.3  0.2539  -88.1
 3.800  0.5255  160.5   9.439   55.7  0.0398   32.1  0.2471  -89.8
 3.900  0.5292  158.3   9.197   54.0  0.0403   31.9  0.2404  -91.5
 4.000  0.5336  156.2   8.964   52.2  0.0408   31.7  0.2340  -93.4
 4.100  0.5368  154.2   8.746   50.7  0.0414   31.4  0.2267  -95.6
 4.200  0.5407  152.1   8.534   49.2  0.0419   31.1  0.2197  -98.0
 4.300  0.5452  150.2   8.328   47.7  0.0425   30.8  0.2132 -100.4
 4.400  0.5504  148.2   8.128   46.0  0.0430   30.6  0.2070 -103.1
 4.500  0.5562  146.3   7.936   44.3  0.0436   30.3  0.2013 -105.9
 4.600  0.5606  144.6   7.751   42.9  0.0441   30.0  0.1956 -108.9
 4.700  0.5654  143.0   7.570   41.5  0.0446   29.7  0.1905 -112.1
 4.800  0.5707  141.4   7.395   40.0  0.0451   29.4  0.1859 -115.4
 4.900  0.5764  139.8   7.224   38.5  0.0456   29.2  0.1821 -118.9
 5.000  0.5826  138.2   7.059   36.8  0.0462   28.9  0.1789 -122.5
 5.100  0.5869  136.9   6.907   35.6  0.0467   28.6  0.1770 -125.7
 5.200  0.5916  135.7   6.759   34.3  0.0472   28.4  0.1756 -128.9
 5.300  0.5965  134.5   6.614   32.9  0.0477   28.1  0.1748 -132.2
 5.400  0.6016  133.3   6.473   31.5  0.0482   27.9  0.1746 -135.5
 5.500  0.6071  132.1   6.336   30.0  0.0488   27.6  0.1749 -138.7
 5.600  0.6103  131.1   6.212   28.8  0.0493   27.4  0.1766 -141.0
 5.700  0.6137  130.1   6.092   27.5  0.0498   27.2  0.1786 -143.2
 5.800  0.6172  129.2   5.974   26.2  0.0503   27.0  0.1808 -145.3
 5.900  0.6210  128.2   5.860   24.8  0.0509   26.7  0.1832 -147.4
 6.000  0.6249  127.3   5.749   23.4  0.0514   26.5  0.1859 -149.4
 6.100  0.6254  126.4   5.646   22.2  0.0520   26.4  0.1879 -150.4
 6.200  0.6262  125.5   5.546   21.0  0.0527   26.2  0.1899 -151.2
 6.300  0.6271  124.6   5.448   19.7  0.0533   26.1  0.1919 -152.1
 6.400  0.6281  123.7   5.353   18.4  0.0540   25.9  0.1940 -153.0
 6.500  0.6293  122.8   5.262   17.1  0.0546   25.8  0.1961 -153.8
 6.600  0.6282  121.9   5.178   15.9  0.0554   25.6  0.1957 -154.0
 6.700  0.6273  121.0   5.096   14.7  0.0563   25.3  0.1953 -154.2
 6.800  0.6265  120.1   5.017   13.5  0.0571   25.2  0.1950 -154.4
 6.900  0.6259  119.2   4.940   12.2  0.0580   25.0  0.1946 -154.5
 7.000  0.6254  118.3   4.866   10.9  0.0588   24.8  0.1942 -154.7
 7.100  0.6254  117.2   4.801    9.7  0.0599   24.3  0.1929 -155.3
 7.200  0.6256  116.1   4.738    8.4  0.0609   23.8  0.1916 -155.9
 7.300  0.6260  115.1   4.677    7.1  0.0619   23.4  0.1903 -156.5
 7.400  0.6267  114.0   4.619    5.8  0.0630   22.9  0.1891 -157.1
 7.500  0.6275  112.9   4.564    4.4  0.0640   22.5  0.1879 -157.7
 7.600  0.6300  111.5   4.505    3.0  0.0650   21.7  0.1855 -162.6
 7.700  0.6328  110.1   4.448    1.6  0.0659   21.0  0.1845 -167.5
 7.800  0.6361  108.7   4.394    0.1  0.0669   20.2  0.1849 -172.5
 7.900  0.6397  107.3   4.343   -1.4  0.0679   19.5  0.1866 -177.4
 8.000  0.6436  105.9   4.295   -2.9  0.0689   18.8  0.1897  177.8
 8.500  0.6706   98.1   3.975  -10.6  0.0726   15.1  0.1985  159.9
 9.000  0.7062   90.9   3.655  -17.8  0.0762   11.3  0.2359  142.1
 9.500  0.7505   84.9   3.350  -24.8  0.0789    6.9  0.2953  128.7
10.000  0.7930   79.6   3.039  -31.5  0.0797    2.9  0.3622  118.5
10.500  0.8152   75.9   2.740  -36.4  0.0807    0.4  0.4190  111.5
11.000  0.8285   74.5   2.554  -40.1  0.0833   -1.9  0.4623  107.7
11.500  0.8582   74.1   2.437  -45.3  0.0865   -5.2  0.5079  105.9
12.000  0.8853   72.6   2.291  -51.9  0.0877   -9.3  0.5528  103.4
!
!  f       NFmin   Gammaopt  rn/50
! GHz       dB    MAG  ANG    -
!
! noise parameter not available yet for this operation point!
!
! (c) 2012  Infineon Technologies AG, Munich
