! Infineon Technologies  Discrete & RF Semiconductors
! BFP760
! VCE =  3.5 V,  IC =  4.0 mA
! Common Emitter S-Parameters:                            Nov 2012
# GHz  S  MA  R  50
!  f         S11            S21            S12            S22
! GHz     MAG   ANG      MAG   ANG      MAG   ANG      MAG   ANG
 0.030  0.9620   -2.3  12.845  178.1  0.0025   88.8  0.9985   -1.8
 0.040  0.9624   -3.0  12.855  177.7  0.0037   85.7  0.9981   -2.2
 0.050  0.9613   -3.7  13.025  176.6  0.0042   98.3  0.9960   -2.5
 0.060  0.9604   -4.4  12.990  176.2  0.0047   92.1  0.9968   -3.0
 0.070  0.9593   -5.1  12.996  175.6  0.0057   82.2  0.9967   -3.6
 0.080  0.9598   -5.9  12.996  175.1  0.0070   85.9  0.9962   -4.0
 0.090  0.9598   -6.6  12.969  174.5  0.0076   84.3  0.9960   -4.5
 0.100  0.9595   -7.3  12.988  174.0  0.0082   84.3  0.9954   -5.1
 0.110  0.9585   -8.1  12.941  173.4  0.0089   84.0  0.9951   -5.5
 0.120  0.9573   -8.8  12.927  172.9  0.0101   83.3  0.9949   -6.1
 0.130  0.9573   -9.5  12.869  172.3  0.0107   83.7  0.9936   -6.6
 0.140  0.9568  -10.2  12.839  171.9  0.0116   83.2  0.9925   -7.1
 0.150  0.9559  -11.0  12.826  171.3  0.0125   82.4  0.9915   -7.6
 0.200  0.9525  -14.6  12.717  168.6  0.0167   79.9  0.9871  -10.0
 0.250  0.9480  -18.1  12.638  166.0  0.0209   78.0  0.9805  -12.5
 0.300  0.9425  -21.7  12.530  163.3  0.0249   75.8  0.9746  -14.9
 0.350  0.9364  -25.2  12.421  160.8  0.0287   73.7  0.9671  -17.3
 0.400  0.9306  -28.7  12.318  158.3  0.0322   71.8  0.9567  -19.6
 0.450  0.9246  -32.1  12.167  155.8  0.0360   69.9  0.9498  -21.9
 0.500  0.9176  -35.5  12.034  153.6  0.0397   67.5  0.9380  -24.3
 0.600  0.9033  -42.3  11.745  148.9  0.0465   63.3  0.9153  -28.8
 0.700  0.8888  -48.8  11.449  144.5  0.0530   59.5  0.8924  -33.1
 0.800  0.8727  -55.6  11.216  140.1  0.0590   55.9  0.8671  -37.3
 0.900  0.8574  -61.8  10.882  136.0  0.0644   52.1  0.8395  -41.5
 1.000  0.8423  -67.7  10.515  132.1  0.0691   48.6  0.8130  -45.4
 1.100  0.8270  -73.6  10.183  128.3  0.0734   45.3  0.7850  -49.2
 1.200  0.8125  -79.2   9.835  124.6  0.0772   42.2  0.7592  -52.8
 1.300  0.7982  -84.8   9.531  121.0  0.0807   39.2  0.7331  -56.3
 1.400  0.7866  -90.0   9.210  117.7  0.0838   36.5  0.7097  -59.5
 1.500  0.7744  -95.4   8.934  114.4  0.0864   33.8  0.6847  -62.8
 1.600  0.7635 -100.8   8.716  111.1  0.0888   31.4  0.6633  -65.9
 1.700  0.7543 -105.5   8.416  108.1  0.0910   29.0  0.6409  -68.9
 1.800  0.7483 -110.2   8.148  105.2  0.0930   26.7  0.6214  -72.1
 1.900  0.7407 -114.6   7.878  102.5  0.0947   24.5  0.6015  -75.1
 2.000  0.7350 -119.0   7.644   99.6  0.0963   22.4  0.5831  -78.1
 2.100  0.7286 -123.4   7.388   96.7  0.0973   20.1  0.5647  -81.1
 2.200  0.7229 -127.5   7.159   94.1  0.0982   18.2  0.5475  -83.9
 2.300  0.7176 -131.4   6.940   91.6  0.0992   16.2  0.5306  -86.7
 2.400  0.7142 -135.3   6.729   89.2  0.0998   14.4  0.5153  -89.4
 2.500  0.7102 -139.0   6.525   86.7  0.1004   12.8  0.5004  -92.1
 2.600  0.7064 -142.6   6.327   84.3  0.1007   11.0  0.4852  -94.8
 2.700  0.7024 -146.2   6.149   82.0  0.1010    9.3  0.4713  -97.6
 2.800  0.7000 -149.6   5.969   79.8  0.1013    7.8  0.4583 -100.2
 2.900  0.6977 -153.2   5.804   77.4  0.1012    6.2  0.4459 -103.2
 3.000  0.6958 -156.4   5.638   75.1  0.1013    4.7  0.4346 -106.0
 3.100  0.6939 -159.7   5.488   73.0  0.1011    3.3  0.4240 -108.8
 3.200  0.6922 -162.8   5.332   70.9  0.1007    1.9  0.4139 -111.5
 3.300  0.6916 -165.8   5.181   68.7  0.1005    0.5  0.4045 -114.4
 3.400  0.6911 -168.8   5.038   66.6  0.0999   -0.8  0.3960 -117.2
 3.500  0.6912 -171.6   4.899   64.7  0.0993   -2.0  0.3885 -119.9
 3.600  0.6909 -174.4   4.765   62.6  0.0988   -3.3  0.3817 -122.7
 3.700  0.6911 -177.1   4.635   60.6  0.0981   -4.4  0.3751 -125.5
 3.800  0.6911 -179.7   4.502   58.7  0.0974   -5.5  0.3702 -128.3
 3.900  0.6919  177.9   4.384   56.8  0.0965   -6.7  0.3656 -131.0
 4.000  0.6926  175.5   4.264   55.0  0.0956   -7.8  0.3618 -133.7
 4.100  0.6944  173.3   4.151   53.2  0.0947   -8.7  0.3594 -136.2
 4.200  0.6954  171.2   4.037   51.4  0.0938   -9.6  0.3569 -138.7
 4.300  0.6963  169.1   3.930   49.7  0.0928  -10.5  0.3551 -141.1
 4.400  0.6983  167.2   3.826   48.0  0.0918  -11.3  0.3543 -143.3
 4.500  0.7000  165.3   3.731   46.3  0.0907  -12.0  0.3537 -145.6
 4.600  0.7019  163.5   3.636   44.7  0.0898  -12.8  0.3532 -147.7
 4.700  0.7036  161.8   3.543   43.1  0.0887  -13.5  0.3531 -149.8
 4.800  0.7056  160.2   3.455   41.5  0.0876  -14.1  0.3534 -151.7
 4.900  0.7076  158.7   3.372   40.0  0.0866  -14.8  0.3541 -153.7
 5.000  0.7097  157.2   3.293   38.5  0.0856  -15.3  0.3546 -155.6
 5.100  0.7117  155.8   3.215   37.0  0.0846  -15.9  0.3560 -157.4
 5.200  0.7137  154.5   3.143   35.5  0.0835  -16.3  0.3569 -159.1
 5.300  0.7152  153.2   3.069   34.0  0.0824  -16.8  0.3578 -160.9
 5.400  0.7170  151.9   3.002   32.6  0.0814  -17.2  0.3594 -162.7
 5.500  0.7178  150.7   2.934   31.2  0.0803  -17.6  0.3605 -164.2
 5.600  0.7188  149.6   2.869   29.8  0.0792  -17.9  0.3611 -165.8
 5.700  0.7201  148.5   2.811   28.4  0.0782  -18.1  0.3633 -167.7
 5.800  0.7209  147.4   2.751   27.0  0.0773  -18.3  0.3648 -169.2
 5.900  0.7224  146.4   2.698   25.7  0.0763  -18.4  0.3667 -171.0
 6.000  0.7241  145.3   2.643   24.3  0.0755  -18.6  0.3691 -172.6
 6.100  0.7260  144.4   2.594   22.9  0.0747  -18.6  0.3728 -174.2
 6.200  0.7270  143.2   2.544   21.5  0.0739  -18.6  0.3750 -175.8
 6.300  0.7294  142.3   2.495   20.2  0.0732  -18.7  0.3783 -177.4
 6.400  0.7310  141.1   2.449   18.8  0.0726  -18.8  0.3815 -179.2
 6.500  0.7331  140.0   2.403   17.4  0.0719  -18.9  0.3850  179.4
 6.600  0.7357  138.9   2.361   16.0  0.0711  -19.0  0.3881  177.7
 6.700  0.7373  137.9   2.315   14.7  0.0706  -19.0  0.3918  176.4
 6.800  0.7382  136.7   2.273   13.3  0.0699  -18.9  0.3950  174.8
 6.900  0.7411  135.5   2.232   11.9  0.0692  -19.0  0.3996  173.3
 7.000  0.7431  134.4   2.195   10.5  0.0686  -19.0  0.4031  171.9
 7.100  0.7457  133.2   2.157    9.2  0.0681  -19.0  0.4086  170.3
 7.200  0.7484  132.0   2.120    7.8  0.0676  -18.9  0.4129  169.0
 7.300  0.7504  130.8   2.082    6.4  0.0670  -18.8  0.4172  167.5
 7.400  0.7535  129.5   2.047    4.9  0.0665  -18.9  0.4219  166.0
 7.500  0.7575  128.3   2.014    3.5  0.0661  -18.8  0.4268  164.5
 7.600  0.7605  127.0   1.977    2.0  0.0656  -18.7  0.4316  163.0
 7.700  0.7640  125.8   1.943    0.7  0.0651  -18.7  0.4361  161.5
 7.800  0.7677  124.5   1.907   -0.8  0.0647  -18.7  0.4417  159.7
 7.900  0.7714  123.3   1.875   -2.4  0.0643  -18.6  0.4470  158.1
 8.000  0.7759  121.9   1.837   -3.8  0.0638  -18.6  0.4529  156.4
 8.500  0.7971  115.8   1.659  -11.4  0.0611  -18.2  0.4837  147.8
 9.000  0.8161  110.3   1.472  -18.4  0.0585  -17.1  0.5239  139.7
 9.500  0.8344  106.2   1.294  -24.0  0.0563  -14.9  0.5676  133.2
10.000  0.8506  103.7   1.143  -28.2  0.0555  -11.8  0.6120  129.4
!
!  f       NFmin   Gammaopt  rn/50
! GHz       dB    MAG  ANG    -
 0.900      0.43  0.46   26   0.14
 1.800      0.52  0.39   54   0.12
 2.400      0.63  0.33   75   0.11
 3.500      0.81  0.27  109   0.10
 5.500      1.15  0.36 -157   0.08
 8.000      1.69  0.49 -104   0.29
!
! (c) 2012  Infineon Technologies AG, Munich
