! Infineon Technologies  Discrete & RF Semiconductors
! BFP740
! VCE =  3.0 V,  IC =  38 mA
! Common Emitter S-Parameters:                            Jan 2016
# GHz  S  MA  R  50
!  f         S11            S21            S12            S22
! GHz     MAG   ANG      MAG   ANG      MAG   ANG      MAG   ANG
 0.030  0.5900   -5.0  54.838  174.0  0.0018   80.9  0.9697   -1.7
 0.035  0.5900   -5.9  54.789  173.1  0.0018   84.5  0.9700   -2.3
 0.040  0.5901   -6.7  54.754  172.2  0.0019   87.9  0.9704   -2.9
 0.045  0.5947   -7.7  54.853  171.3  0.0028   78.6  0.9726   -3.7
 0.050  0.5995   -8.7  54.965  170.5  0.0037   73.8  0.9749   -4.4
 0.055  0.5941   -9.4  54.795  169.4  0.0029   57.8  0.9693   -4.9
 0.060  0.5889  -10.2  54.646  168.3  0.0024   32.7  0.9637   -5.5
 0.065  0.5913  -11.0  54.450  167.5  0.0025   62.7  0.9650   -5.9
 0.070  0.5938  -11.7  54.266  166.6  0.0032   84.7  0.9664   -6.3
 0.075  0.5929  -12.4  53.945  165.7  0.0029   77.7  0.9637   -6.8
 0.080  0.5921  -13.1  53.637  164.8  0.0026   69.0  0.9610   -7.3
 0.085  0.5929  -14.0  53.244  164.0  0.0031   76.7  0.9601   -7.8
 0.090  0.5939  -14.8  52.861  163.2  0.0036   82.3  0.9593   -8.4
 0.095  0.5925  -15.6  52.464  162.5  0.0039   86.4  0.9570   -8.9
 0.100  0.5912  -16.5  52.074  161.8  0.0042   90.0  0.9548   -9.4
 0.105  0.5899  -17.3  51.729  161.1  0.0043   84.0  0.9522   -9.8
 0.110  0.5888  -18.2  51.393  160.3  0.0044   78.3  0.9497  -10.3
 0.115  0.5867  -18.9  50.968  159.6  0.0050   79.4  0.9463  -10.7
 0.120  0.5848  -19.7  50.550  158.9  0.0056   80.2  0.9429  -11.2
 0.125  0.5849  -20.4  50.184  158.3  0.0054   80.1  0.9402  -11.6
 0.130  0.5851  -21.1  49.823  157.7  0.0053   79.9  0.9375  -12.1
 0.135  0.5846  -21.8  49.472  157.1  0.0056   78.4  0.9346  -12.5
 0.140  0.5843  -22.6  49.127  156.5  0.0060   77.0  0.9318  -12.9
 0.145  0.5846  -23.3  48.885  156.0  0.0062   82.1  0.9286  -13.3
 0.150  0.5850  -23.9  48.647  155.5  0.0064   86.9  0.9255  -13.7
 0.155  0.5842  -24.6  48.320  155.0  0.0065   85.9  0.9228  -14.1
 0.160  0.5834  -25.3  47.996  154.6  0.0067   85.0  0.9202  -14.4
 0.165  0.5828  -26.0  47.675  154.1  0.0068   84.2  0.9176  -14.8
 0.170  0.5822  -26.7  47.357  153.7  0.0070   83.3  0.9150  -15.1
 0.175  0.5817  -27.4  47.042  153.2  0.0071   82.5  0.9125  -15.5
 0.180  0.5813  -28.1  46.731  152.7  0.0073   81.8  0.9100  -15.8
 0.185  0.5810  -28.8  46.423  152.2  0.0074   81.0  0.9075  -16.2
 0.190  0.5808  -29.5  46.118  151.7  0.0076   80.3  0.9051  -16.6
 0.195  0.5806  -30.2  45.817  151.2  0.0077   79.7  0.9027  -16.9
 0.200  0.5806  -30.9  45.520  150.7  0.0079   79.0  0.9004  -17.3
 0.220  0.5788  -33.4  44.475  149.2  0.0090   76.7  0.8901  -18.5
 0.240  0.5780  -35.9  43.460  147.7  0.0101   74.9  0.8802  -19.8
 0.260  0.5769  -38.5  42.499  146.3  0.0109   73.9  0.8706  -21.0
 0.280  0.5753  -41.0  41.581  145.0  0.0115   73.5  0.8614  -22.2
 0.300  0.5748  -43.6  40.684  143.7  0.0121   73.1  0.8526  -23.5
 0.320  0.5735  -46.0  39.876  142.6  0.0128   71.8  0.8440  -24.7
 0.340  0.5732  -48.4  39.083  141.5  0.0135   70.6  0.8358  -26.0
 0.360  0.5724  -50.8  38.383  140.4  0.0142   69.3  0.8270  -27.1
 0.380  0.5712  -53.1  37.775  139.3  0.0149   67.9  0.8175  -28.3
 0.400  0.5709  -55.4  37.181  138.2  0.0156   66.7  0.8084  -29.4
 0.420  0.5704  -57.5  36.597  137.2  0.0163   65.8  0.8008  -30.5
 0.440  0.5706  -59.6  36.023  136.2  0.0170   65.0  0.7935  -31.6
 0.450  0.5710  -60.7  35.741  135.7  0.0173   64.6  0.7899  -32.1
 0.460  0.5701  -61.8  35.466  135.2  0.0176   64.2  0.7855  -32.6
 0.480  0.5688  -64.1  34.922  134.3  0.0182   63.4  0.7770  -33.7
 0.500  0.5685  -66.3  34.389  133.3  0.0188   62.6  0.7688  -34.8
 0.520  0.5665  -68.3  33.910  132.4  0.0194   61.8  0.7600  -35.8
 0.540  0.5651  -70.4  33.439  131.4  0.0199   61.0  0.7514  -36.8
 0.560  0.5646  -72.5  32.978  130.4  0.0205   60.3  0.7430  -37.8
 0.580  0.5647  -74.5  32.528  129.4  0.0210   59.6  0.7349  -38.8
 0.600  0.5656  -76.6  32.087  128.4  0.0216   58.9  0.7270  -39.9
 0.620  0.5641  -78.5  31.658  127.6  0.0221   58.2  0.7186  -40.8
 0.640  0.5632  -80.4  31.235  126.7  0.0226   57.5  0.7104  -41.7
 0.660  0.5629  -82.4  30.820  125.8  0.0230   56.8  0.7024  -42.7
 0.680  0.5633  -84.3  30.412  124.9  0.0235   56.2  0.6945  -43.6
 0.700  0.5643  -86.2  30.012  124.0  0.0240   55.6  0.6869  -44.6
 0.720  0.5633  -88.0  29.630  123.2  0.0244   54.8  0.6788  -45.4
 0.740  0.5629  -89.7  29.253  122.3  0.0248   54.0  0.6709  -46.3
 0.760  0.5629  -91.5  28.883  121.5  0.0252   53.3  0.6631  -47.2
 0.780  0.5636  -93.2  28.520  120.6  0.0257   52.6  0.6555  -48.1
 0.800  0.5647  -95.0  28.164  119.7  0.0261   51.9  0.6480  -49.0
 0.820  0.5638  -96.6  27.831  119.0  0.0265   51.2  0.6402  -49.8
 0.840  0.5633  -98.2  27.502  118.2  0.0269   50.6  0.6325  -50.6
 0.860  0.5633  -99.7  27.179  117.4  0.0272   50.0  0.6249  -51.5
 0.880  0.5637 -101.3  26.861  116.6  0.0276   49.4  0.6175  -52.3
 0.900  0.5645 -102.9  26.548  115.8  0.0280   48.8  0.6102  -53.2
 0.920  0.5638 -104.4  26.223  115.1  0.0283   48.3  0.6031  -53.9
 0.940  0.5635 -105.9  25.902  114.3  0.0286   47.9  0.5961  -54.7
 0.960  0.5637 -107.5  25.586  113.6  0.0290   47.5  0.5892  -55.5
 0.980  0.5642 -109.0  25.274  112.8  0.0293   47.0  0.5824  -56.3
 1.000  0.5651 -110.5  24.967  112.0  0.0296   46.6  0.5757  -57.1
 1.020  0.5644 -111.9  24.676  111.3  0.0299   46.1  0.5687  -57.8
 1.040  0.5640 -113.3  24.389  110.6  0.0302   45.5  0.5618  -58.5
 1.060  0.5639 -114.7  24.106  109.9  0.0304   45.0  0.5550  -59.2
 1.080  0.5642 -116.1  23.826  109.2  0.0307   44.5  0.5483  -59.9
 1.100  0.5648 -117.5  23.551  108.4  0.0310   44.0  0.5417  -60.7
 1.120  0.5645 -118.7  23.288  107.8  0.0312   43.6  0.5358  -61.4
 1.140  0.5644 -120.0  23.028  107.1  0.0315   43.3  0.5299  -62.0
 1.160  0.5645 -121.2  22.771  106.5  0.0317   42.9  0.5241  -62.7
 1.180  0.5650 -122.5  22.518  105.8  0.0320   42.5  0.5183  -63.4
 1.200  0.5657 -123.7  22.267  105.1  0.0322   42.2  0.5127  -64.1
 1.220  0.5654 -124.9  22.021  104.5  0.0324   41.8  0.5071  -64.7
 1.240  0.5654 -126.1  21.778  103.9  0.0326   41.3  0.5016  -65.3
 1.260  0.5656 -127.2  21.538  103.2  0.0329   40.9  0.4961  -65.9
 1.280  0.5661 -128.4  21.300  102.6  0.0331   40.5  0.4907  -66.6
 1.300  0.5668 -129.6  21.065  101.9  0.0333   40.1  0.4853  -67.2
 1.320  0.5669 -130.6  20.855  101.3  0.0335   39.8  0.4804  -67.8
 1.340  0.5673 -131.6  20.646  100.8  0.0336   39.5  0.4755  -68.4
 1.360  0.5678 -132.7  20.440  100.2  0.0338   39.1  0.4707  -69.0
 1.380  0.5684 -133.7  20.236   99.6  0.0339   38.8  0.4660  -69.6
 1.400  0.5693 -134.7  20.034   99.0  0.0341   38.5  0.4613  -70.2
 1.420  0.5692 -135.7  19.832   98.5  0.0343   38.2  0.4564  -70.7
 1.440  0.5693 -136.7  19.631   97.9  0.0345   37.9  0.4516  -71.3
 1.460  0.5695 -137.8  19.433   97.4  0.0347   37.6  0.4468  -71.8
 1.480  0.5700 -138.8  19.236   96.8  0.0349   37.3  0.4421  -72.4
 1.500  0.5706 -139.8  19.041   96.2  0.0351   37.0  0.4374  -73.0
 1.520  0.5709 -140.8  18.860   95.7  0.0353   36.7  0.4331  -73.5
 1.540  0.5714 -141.7  18.681   95.1  0.0354   36.5  0.4289  -74.1
 1.560  0.5721 -142.7  18.504   94.6  0.0356   36.2  0.4247  -74.6
 1.580  0.5729 -143.6  18.329   94.0  0.0357   36.0  0.4206  -75.2
 1.600  0.5739 -144.6  18.155   93.4  0.0359   35.7  0.4165  -75.8
 1.620  0.5741 -145.5  17.989   92.9  0.0361   35.5  0.4123  -76.3
 1.640  0.5744 -146.3  17.823   92.4  0.0363   35.4  0.4080  -76.8
 1.660  0.5748 -147.2  17.660   91.9  0.0364   35.2  0.4039  -77.3
 1.680  0.5754 -148.0  17.498   91.3  0.0366   35.1  0.3997  -77.9
 1.700  0.5761 -148.9  17.337   90.8  0.0368   34.9  0.3956  -78.4
 1.720  0.5766 -149.8  17.178   90.3  0.0370   34.6  0.3920  -79.0
 1.740  0.5773 -150.6  17.020   89.8  0.0371   34.3  0.3884  -79.5
 1.760  0.5780 -151.5  16.864   89.3  0.0373   33.9  0.3849  -80.1
 1.780  0.5790 -152.3  16.709   88.7  0.0374   33.6  0.3814  -80.7
 1.800  0.5800 -153.2  16.555   88.2  0.0376   33.3  0.3780  -81.3
 1.820  0.5805 -154.0  16.416   87.7  0.0377   33.1  0.3742  -81.8
 1.840  0.5811 -154.8  16.278   87.3  0.0378   32.9  0.3705  -82.3
 1.860  0.5818 -155.5  16.141   86.8  0.0380   32.6  0.3667  -82.8
 1.880  0.5827 -156.3  16.005   86.3  0.0381   32.4  0.3631  -83.4
 1.900  0.5836 -157.1  15.870   85.8  0.0382   32.2  0.3594  -83.9
 1.920  0.5840 -157.9  15.733   85.3  0.0383   32.1  0.3563  -84.4
 1.940  0.5845 -158.7  15.597   84.8  0.0385   32.0  0.3531  -85.0
 1.960  0.5852 -159.5  15.463   84.3  0.0386   31.8  0.3501  -85.6
 1.980  0.5859 -160.3  15.329   83.8  0.0388   31.7  0.3470  -86.1
 2.000  0.5868 -161.1  15.197   83.3  0.0389   31.6  0.3440  -86.7
 2.020  0.5873 -161.8  15.068   82.9  0.0390   31.4  0.3410  -87.2
 2.040  0.5879 -162.5  14.939   82.4  0.0391   31.3  0.3380  -87.7
 2.060  0.5886 -163.1  14.811   81.9  0.0392   31.1  0.3350  -88.2
 2.080  0.5894 -163.8  14.685   81.5  0.0393   31.0  0.3320  -88.8
 2.100  0.5902 -164.5  14.559   81.0  0.0394   30.8  0.3291  -89.3
 2.120  0.5905 -165.2  14.442   80.6  0.0395   30.6  0.3264  -89.8
 2.140  0.5909 -165.9  14.326   80.1  0.0396   30.4  0.3237  -90.3
 2.160  0.5913 -166.5  14.211   79.6  0.0397   30.1  0.3211  -90.8
 2.180  0.5919 -167.2  14.097   79.2  0.0398   29.9  0.3185  -91.4
 2.200  0.5925 -167.9  13.984   78.7  0.0399   29.7  0.3159  -91.9
 2.220  0.5929 -168.5  13.875   78.3  0.0400   29.6  0.3131  -92.4
 2.240  0.5933 -169.2  13.768   77.8  0.0401   29.4  0.3103  -92.9
 2.260  0.5938 -169.8  13.661   77.4  0.0403   29.3  0.3075  -93.4
 2.280  0.5944 -170.5  13.554   77.0  0.0404   29.1  0.3048  -93.9
 2.300  0.5950 -171.1  13.449   76.5  0.0405   29.0  0.3021  -94.4
 2.320  0.5954 -171.7  13.346   76.1  0.0406   28.9  0.2997  -94.9
 2.340  0.5959 -172.4  13.243   75.7  0.0407   28.7  0.2974  -95.4
 2.360  0.5964 -173.0  13.141   75.3  0.0408   28.6  0.2951  -95.9
 2.380  0.5970 -173.7  13.040   74.8  0.0409   28.4  0.2928  -96.4
 2.400  0.5977 -174.3  12.940   74.4  0.0410   28.3  0.2905  -96.9
 2.420  0.5982 -174.9  12.843   74.0  0.0411   28.2  0.2878  -97.4
 2.440  0.5988 -175.5  12.747   73.6  0.0412   28.1  0.2852  -97.8
 2.460  0.5995 -176.2  12.651   73.2  0.0412   28.1  0.2826  -98.3
 2.480  0.6002 -176.8  12.556   72.7  0.0413   28.0  0.2800  -98.8
 2.500  0.6010 -177.4  12.462   72.3  0.0414   27.9  0.2774  -99.3
 2.520  0.6013 -178.0  12.373   71.9  0.0416   27.8  0.2750  -99.8
 2.540  0.6017 -178.6  12.284   71.5  0.0417   27.6  0.2727 -100.4
 2.560  0.6021 -179.1  12.196   71.1  0.0419   27.5  0.2704 -100.9
 2.580  0.6026 -179.7  12.109   70.6  0.0420   27.3  0.2681 -101.4
 2.600  0.6032  179.7  12.022   70.2  0.0422   27.2  0.2658 -102.0
 2.620  0.6038  179.2  11.938   69.8  0.0423   27.1  0.2635 -102.5
 2.640  0.6044  178.6  11.855   69.4  0.0424   27.0  0.2612 -103.0
 2.660  0.6050  178.1  11.773   69.0  0.0425   26.8  0.2589 -103.5
 2.680  0.6057  177.5  11.691   68.6  0.0426   26.7  0.2566 -104.1
 2.700  0.6065  177.0  11.610   68.2  0.0427   26.6  0.2544 -104.6
 2.720  0.6068  176.5  11.533   67.8  0.0428   26.4  0.2524 -105.2
 2.740  0.6072  175.9  11.457   67.4  0.0429   26.2  0.2505 -105.8
 2.760  0.6076  175.4  11.381   67.0  0.0430   26.1  0.2486 -106.4
 2.780  0.6081  174.8  11.306   66.6  0.0431   25.9  0.2467 -107.1
 2.800  0.6086  174.3  11.231   66.2  0.0432   25.7  0.2449 -107.7
 2.820  0.6093  173.8  11.154   65.8  0.0433   25.7  0.2430 -108.3
 2.840  0.6100  173.3  11.078   65.4  0.0434   25.7  0.2410 -108.8
 2.860  0.6107  172.7  11.002   65.0  0.0436   25.7  0.2391 -109.4
 2.880  0.6115  172.2  10.927   64.6  0.0437   25.7  0.2373 -110.0
 2.900  0.6124  171.7  10.852   64.2  0.0438   25.7  0.2354 -110.6
 2.920  0.6128  171.2  10.781   63.8  0.0439   25.5  0.2336 -111.2
 2.940  0.6133  170.7  10.710   63.5  0.0440   25.3  0.2318 -111.9
 2.960  0.6138  170.2  10.640   63.1  0.0441   25.2  0.2300 -112.5
 2.980  0.6144  169.7  10.570   62.8  0.0442   25.0  0.2283 -113.2
 3.000  0.6150  169.2  10.501   62.4  0.0443   24.8  0.2266 -113.9
 3.100  0.6187  166.7  10.163   60.4  0.0447   24.3  0.2193 -117.1
 3.200  0.6217  164.4   9.859   58.6  0.0454   23.9  0.2127 -120.6
 3.300  0.6252  162.0   9.554   56.7  0.0459   23.6  0.2071 -124.1
 3.400  0.6293  159.7   9.269   54.9  0.0463   23.2  0.2017 -127.7
 3.500  0.6328  157.4   8.986   53.1  0.0467   22.6  0.1970 -131.3
 3.600  0.6366  155.3   8.730   51.4  0.0474   22.2  0.1930 -135.0
 3.700  0.6407  153.2   8.484   49.6  0.0477   21.5  0.1897 -139.0
 3.800  0.6445  151.2   8.251   47.9  0.0482   21.1  0.1873 -142.9
 3.900  0.6482  149.2   8.013   46.2  0.0487   20.7  0.1852 -146.8
 4.000  0.6523  147.2   7.790   44.5  0.0493   20.0  0.1855 -150.6
 4.100  0.6557  145.4   7.581   42.8  0.0498   19.8  0.1852 -154.4
 4.200  0.6602  143.6   7.381   41.2  0.0501   19.2  0.1866 -157.9
 4.300  0.6633  141.8   7.187   39.5  0.0507   18.8  0.1875 -161.3
 4.400  0.6682  140.2   6.999   38.0  0.0510   18.6  0.1887 -164.4
 4.500  0.6708  138.6   6.816   36.4  0.0513   18.2  0.1897 -167.4
 4.600  0.6755  137.1   6.646   34.8  0.0519   17.9  0.1917 -170.4
 4.700  0.6777  135.7   6.488   33.4  0.0523   17.3  0.1933 -173.2
 4.800  0.6822  134.3   6.329   31.8  0.0530   17.0  0.1951 -176.0
 4.900  0.6844  132.9   6.174   30.3  0.0531   16.7  0.1967 -178.7
 5.000  0.6883  131.7   6.037   29.0  0.0539   16.4  0.1982  179.0
 5.100  0.6903  130.3   5.896   27.5  0.0543   16.0  0.2004  176.5
 5.200  0.6935  129.2   5.771   26.1  0.0548   15.6  0.2018  174.3
 5.300  0.6949  128.0   5.637   24.6  0.0553   15.2  0.2035  172.0
 5.400  0.6975  126.9   5.516   23.3  0.0558   15.1  0.2045  169.9
 5.500  0.6986  125.7   5.397   21.8  0.0563   14.7  0.2063  167.7
 5.600  0.7007  124.8   5.289   20.5  0.0569   14.3  0.2079  165.6
 5.700  0.7011  123.8   5.183   19.1  0.0574   14.1  0.2098  163.4
 5.800  0.7035  122.6   5.082   17.7  0.0580   13.8  0.2117  161.4
 5.900  0.7052  121.8   4.985   16.4  0.0588   13.4  0.2142  159.4
 6.000  0.7071  120.7   4.894   15.0  0.0595   13.0  0.2168  157.4
 6.100  0.7102  119.8   4.810   13.7  0.0602   12.6  0.2203  155.6
 6.200  0.7112  118.8   4.724   12.3  0.0609   12.1  0.2236  153.7
 6.300  0.7147  117.8   4.642   10.9  0.0618   11.6  0.2271  151.8
 6.400  0.7165  116.7   4.562    9.5  0.0625   11.0  0.2312  150.0
 6.500  0.7197  115.5   4.486    8.0  0.0632   10.4  0.2355  148.1
 6.600  0.7209  114.4   4.414    6.6  0.0638    9.8  0.2395  146.4
 6.800  0.7263  112.0   4.267    3.7  0.0653    8.5  0.2475  143.0
 7.000  0.7312  109.5   4.131    0.8  0.0666    7.2  0.2573  139.8
 7.200  0.7373  107.1   4.002   -2.1  0.0680    6.0  0.2672  136.8
 7.400  0.7431  104.5   3.874   -5.1  0.0692    4.7  0.2768  133.7
 7.600  0.7502  101.8   3.750   -8.2  0.0704    3.0  0.2879  130.3
 7.800  0.7584   99.1   3.627  -11.2  0.0716    1.5  0.2985  126.9
 8.000  0.7672   96.4   3.503  -14.3  0.0725   -0.2  0.3106  123.3
 8.200  0.7755   93.7   3.371  -17.2  0.0733   -1.8  0.3231  119.1
 8.400  0.7855   91.0   3.249  -20.3  0.0741   -3.4  0.3372  115.3
 8.600  0.7949   88.4   3.126  -23.3  0.0746   -5.0  0.3534  111.5
 8.800  0.8035   85.9   2.999  -26.1  0.0749   -6.7  0.3717  107.7
 9.000  0.8137   83.5   2.880  -29.2  0.0753   -8.3  0.3915  104.3
 9.200  0.8216   81.4   2.756  -31.5  0.0752   -9.6  0.4117  101.2
 9.400  0.8307   79.3   2.637  -34.0  0.0752  -10.9  0.4331   98.4
 9.600  0.8393   77.5   2.526  -36.4  0.0752  -12.0  0.4539   96.2
 9.800  0.8470   76.1   2.422  -38.4  0.0751  -12.9  0.4738   94.6
10.000  0.8553   74.6   2.321  -40.6  0.0751  -13.9  0.4940   93.1
!
!  f       NFmin   Gammaopt  rn/50
! GHz       dB    MAG  ANG    -
!
! noise parameter not available yet for this operation point!
!
! (c) 2016  Infineon Technologies AG, Munich
