! Infineon Technologies  Discrete & RF Semiconductors
! BFP720
! VCE =  1.7 V,  IC =  5.0 mA
! Common Emitter S-Parameters:                            Aug 2012
# GHz  S  MA  R  50
!  f         S11            S21            S12            S22
! GHz     MAG   ANG      MAG   ANG      MAG   ANG      MAG   ANG
 0.010  0.9393   -0.1  14.166 -179.8  0.0011  -28.5  0.9870    0.8
 0.020  0.9404   -0.9  14.105  178.8  0.0009   94.0  0.9981   -0.6
 0.030  0.9399   -1.3  14.166  178.4  0.0012   93.3  0.9978   -0.9
 0.040  0.9394   -1.7  14.228  178.1  0.0016   92.8  0.9975   -1.2
 0.050  0.9390   -2.1  14.291  177.7  0.0019   92.5  0.9972   -1.5
 0.060  0.9389   -2.6  14.280  177.4  0.0023   91.2  0.9973   -1.9
 0.070  0.9389   -3.0  14.269  177.0  0.0027   90.2  0.9974   -2.2
 0.080  0.9389   -3.5  14.260  176.7  0.0031   89.5  0.9975   -2.5
 0.090  0.9390   -3.9  14.250  176.4  0.0036   89.0  0.9977   -2.9
 0.100  0.9392   -4.4  14.241  176.0  0.0040   88.5  0.9979   -3.2
 0.110  0.9388   -4.8  14.241  175.6  0.0044   88.0  0.9976   -3.5
 0.120  0.9384   -5.3  14.242  175.3  0.0048   87.5  0.9974   -3.8
 0.130  0.9381   -5.7  14.243  174.9  0.0052   87.1  0.9972   -4.1
 0.140  0.9378   -6.1  14.245  174.5  0.0056   86.8  0.9970   -4.4
 0.150  0.9376   -6.6  14.247  174.1  0.0060   86.5  0.9969   -4.7
 0.200  0.9349   -8.8  14.157  172.2  0.0080   85.1  0.9948   -6.4
 0.250  0.9327  -11.0  14.133  170.4  0.0100   83.6  0.9931   -7.9
 0.300  0.9295  -13.1  14.053  168.6  0.0119   82.2  0.9894   -9.5
 0.350  0.9266  -15.3  14.001  166.9  0.0138   80.5  0.9868  -11.1
 0.400  0.9233  -17.6  13.966  165.2  0.0158   79.1  0.9829  -12.7
 0.450  0.9192  -19.7  13.868  163.4  0.0178   77.7  0.9794  -14.3
 0.500  0.9151  -21.9  13.823  161.7  0.0197   76.3  0.9752  -15.8
 0.600  0.9064  -26.3  13.705  158.4  0.0235   73.6  0.9648  -18.9
 0.700  0.8975  -30.8  13.586  155.1  0.0273   70.8  0.9549  -22.1
 0.800  0.8862  -35.5  13.581  151.8  0.0309   68.1  0.9437  -25.3
 0.900  0.8753  -40.0  13.421  148.5  0.0345   65.3  0.9298  -28.4
 1.000  0.8635  -44.6  13.273  145.2  0.0379   62.5  0.9149  -31.6
 1.100  0.8506  -49.0  13.108  141.9  0.0412   59.7  0.8986  -34.7
 1.200  0.8372  -53.6  12.949  138.6  0.0443   57.0  0.8820  -37.8
 1.300  0.8236  -58.2  12.778  135.3  0.0473   54.3  0.8637  -40.8
 1.400  0.8098  -62.7  12.573  132.1  0.0501   51.7  0.8440  -43.7
 1.500  0.7961  -67.3  12.404  128.9  0.0526   49.1  0.8242  -46.6
 1.600  0.7794  -72.1  12.293  125.4  0.0550   46.5  0.8045  -49.4
 1.700  0.7650  -76.4  12.048  122.4  0.0572   44.1  0.7833  -52.3
 1.800  0.7518  -80.6  11.812  119.3  0.0592   41.7  0.7638  -55.0
 1.900  0.7376  -84.7  11.564  116.3  0.0611   39.4  0.7446  -57.5
 2.000  0.7257  -88.6  11.306  113.5  0.0627   37.2  0.7255  -60.1
 2.100  0.7127  -92.4  11.053  110.8  0.0641   35.0  0.7064  -62.4
 2.200  0.7029  -96.3  10.825  107.9  0.0656   33.0  0.6885  -64.8
 2.300  0.6919  -99.8  10.569  105.4  0.0668   31.0  0.6715  -67.1
 2.400  0.6836 -103.4  10.335  102.7  0.0680   29.0  0.6556  -69.5
 2.500  0.6729 -106.8  10.106  100.3  0.0690   27.3  0.6395  -71.5
 2.600  0.6647 -110.3   9.897   97.7  0.0700   25.6  0.6241  -73.7
 2.700  0.6561 -113.6   9.679   95.4  0.0708   23.9  0.6094  -75.8
 2.800  0.6498 -117.0   9.478   92.9  0.0717   22.2  0.5954  -77.9
 2.900  0.6404 -120.2   9.273   90.6  0.0723   20.7  0.5817  -80.0
 3.000  0.6331 -123.5   9.084   88.3  0.0730   19.1  0.5687  -82.1
 3.100  0.6221 -126.7   8.887   86.2  0.0734   17.6  0.5541  -84.0
 3.200  0.6131 -130.0   8.701   84.0  0.0737   16.2  0.5402  -86.0
 3.300  0.6062 -133.4   8.529   81.8  0.0742   14.7  0.5269  -88.1
 3.400  0.6015 -136.8   8.370   79.5  0.0746   13.3  0.5144  -90.3
 3.500  0.5990 -140.3   8.225   77.1  0.0752   11.9  0.5027  -92.6
 3.600  0.5900 -143.6   8.050   75.1  0.0752   10.6  0.4888  -94.6
 3.700  0.5830 -147.1   7.884   73.1  0.0754    9.4  0.4757  -96.8
 3.800  0.5782 -150.6   7.729   71.0  0.0755    8.1  0.4632  -99.1
 3.900  0.5756 -154.1   7.585   68.7  0.0757    6.9  0.4516 -101.5
 4.000  0.5752 -157.7   7.453   66.5  0.0759    5.7  0.4407 -104.1
 4.100  0.5691 -161.1   7.294   64.6  0.0758    4.5  0.4277 -106.5
 4.200  0.5651 -164.6   7.143   62.6  0.0757    3.3  0.4155 -109.1
 4.300  0.5632 -168.1   7.001   60.6  0.0756    2.2  0.4042 -111.8
 4.400  0.5634 -171.6   6.867   58.5  0.0756    1.0  0.3938 -114.6
 4.500  0.5658 -175.2   6.744   56.3  0.0756   -0.1  0.3844 -117.7
 4.600  0.5642 -177.9   6.594   54.5  0.0752   -1.1  0.3742 -120.3
 4.700  0.5639  179.4   6.451   52.7  0.0748   -2.1  0.3648 -123.1
 4.800  0.5649  176.7   6.315   50.8  0.0745   -3.1  0.3563 -126.1
 4.900  0.5671  174.0   6.187   48.7  0.0742   -4.1  0.3489 -129.2
 5.000  0.5706  171.3   6.066   46.6  0.0739   -5.1  0.3425 -132.4
 5.100  0.5708  169.0   5.934   45.1  0.0733   -5.9  0.3371 -134.8
 5.200  0.5720  166.7   5.807   43.4  0.0728   -6.7  0.3323 -137.3
 5.300  0.5740  164.4   5.685   41.7  0.0723   -7.5  0.3282 -139.8
 5.400  0.5770  162.2   5.568   39.9  0.0718   -8.3  0.3248 -142.4
 5.500  0.5809  159.9   5.457   38.0  0.0714   -9.1  0.3220 -145.1
 5.600  0.5818  158.2   5.347   36.6  0.0708   -9.6  0.3208 -146.8
 5.700  0.5833  156.5   5.241   35.1  0.0702  -10.1  0.3199 -148.5
 5.800  0.5853  154.8   5.138   33.5  0.0696  -10.7  0.3192 -150.2
 5.900  0.5878  153.1   5.040   31.9  0.0691  -11.3  0.3189 -151.9
 6.000  0.5907  151.4   4.946   30.2  0.0685  -11.9  0.3188 -153.6
 6.100  0.5902  150.0   4.854   28.8  0.0680  -12.1  0.3182 -154.5
 6.200  0.5899  148.6   4.766   27.4  0.0675  -12.4  0.3176 -155.3
 6.300  0.5901  147.3   4.681   25.9  0.0670  -12.7  0.3172 -156.2
 6.400  0.5905  145.9   4.599   24.4  0.0664  -12.9  0.3168 -157.0
 6.500  0.5913  144.5   4.521   22.8  0.0659  -13.2  0.3164 -157.9
 6.600  0.5894  143.2   4.446   21.5  0.0656  -13.3  0.3139 -158.3
 6.700  0.5878  142.0   4.374   20.2  0.0653  -13.3  0.3113 -158.7
 6.800  0.5864  140.8   4.305   18.8  0.0650  -13.4  0.3087 -159.1
 6.900  0.5853  139.5   4.238   17.4  0.0647  -13.4  0.3062 -159.5
 7.000  0.5845  138.3   4.174   15.9  0.0644  -13.5  0.3036 -159.9
 7.100  0.5839  136.9   4.118   14.5  0.0644  -13.6  0.3006 -160.6
 7.200  0.5837  135.5   4.065   13.2  0.0645  -13.6  0.2975 -161.4
 7.300  0.5838  134.1   4.014   11.8  0.0646  -13.7  0.2946 -162.1
 7.400  0.5843  132.7   3.966   10.3  0.0646  -13.8  0.2916 -162.9
 7.500  0.5851  131.3   3.920    8.8  0.0647  -13.9  0.2888 -163.7
 7.600  0.5864  129.5   3.871    7.3  0.0648  -14.2  0.2844 -168.4
 7.700  0.5883  127.7   3.825    5.8  0.0649  -14.5  0.2820 -173.1
 7.800  0.5908  125.9   3.782    4.2  0.0650  -14.8  0.2816 -177.9
 7.900  0.5939  124.1   3.742    2.5  0.0651  -15.1  0.2831  177.3
 8.000  0.5976  122.3   3.705    0.9  0.0652  -15.4  0.2866  172.6
 8.500  0.6192  112.1   3.439   -7.7  0.0647  -16.8  0.2872  157.2
 9.000  0.6506  102.6   3.161  -15.7  0.0649  -17.5  0.3145  141.9
 9.500  0.6931   94.9   2.889  -23.5  0.0654  -18.8  0.3634  129.4
10.000  0.7343   88.3   2.612  -30.8  0.0650  -20.4  0.4206  119.5
10.500  0.7572   83.7   2.338  -36.4  0.0646  -20.6  0.4702  112.6
11.000  0.7727   82.0   2.160  -40.5  0.0660  -20.6  0.5105  108.7
11.500  0.8060   81.4   2.050  -45.8  0.0684  -21.8  0.5545  106.4
12.000  0.8351   79.6   1.921  -52.6  0.0694  -24.3  0.5963  103.7
!
!  f       NFmin   Gammaopt  rn/50
! GHz       dB    MAG  ANG    -
 0.450      0.39  0.49    4   0.18
 1.800      0.49  0.47   25   0.14
 2.400      0.53  0.34   60   0.19
 5.500      0.68  0.22   65   0.13
10.000      0.97  0.40  -93   0.22
!
! (c) 2012  Infineon Technologies AG, Munich
