! Infineon Technologies  Discrete & RF Semiconductors
! BFP780
! VCE =  3.0 V,  IC =  35 mA
! Common Emitter S-Parameters:                            Jul 2015
# GHz  S  MA  R  50
!  f         S11            S21            S12            S22
! GHz     MAG   ANG      MAG   ANG      MAG   ANG      MAG   ANG
 0.030  0.6050  -26.8  62.456  168.0  0.0064   75.4  0.9761  -16.5
 0.040  0.6084  -35.4  61.509  164.1  0.0077   71.0  0.9608  -22.1
 0.050  0.6126  -43.5  60.468  160.0  0.0098   69.7  0.9486  -27.4
 0.060  0.6255  -51.2  59.192  156.5  0.0123   65.3  0.9290  -32.4
 0.070  0.6299  -58.2  57.725  153.0  0.0137   63.4  0.9127  -37.3
 0.080  0.6384  -64.9  56.185  149.6  0.0150   61.6  0.8921  -41.9
 0.090  0.6467  -71.3  54.516  146.5  0.0162   58.3  0.8717  -46.6
 0.100  0.6562  -77.2  52.859  143.6  0.0173   56.1  0.8514  -50.8
 0.110  0.6631  -82.5  51.166  140.7  0.0185   51.2  0.8303  -55.2
 0.120  0.6717  -87.8  49.553  138.1  0.0193   51.6  0.8105  -59.1
 0.130  0.6781  -92.6  47.991  135.6  0.0210   50.3  0.7888  -62.8
 0.140  0.6850  -96.9  46.333  133.2  0.0210   49.1  0.7689  -66.5
 0.150  0.6914 -101.0  44.836  131.1  0.0226   46.2  0.7525  -69.8
 0.200  0.7188 -117.3  37.958  121.9  0.0254   38.8  0.6736  -84.8
 0.250  0.7345 -129.1  32.552  114.8  0.0271   32.7  0.6168  -96.8
 0.300  0.7454 -138.0  28.215  109.3  0.0282   28.7  0.5723 -106.8
 0.350  0.7533 -144.9  24.797  104.8  0.0292   25.9  0.5404 -114.9
 0.400  0.7593 -150.4  22.061  101.1  0.0296   23.4  0.5178 -121.8
 0.450  0.7630 -154.7  19.847   97.9  0.0301   22.1  0.5005 -127.5
 0.500  0.7653 -158.7  18.011   95.1  0.0304   20.3  0.4857 -132.7
 0.600  0.7710 -164.8  15.157   90.2  0.0311   18.6  0.4681 -141.0
 0.700  0.7717 -169.8  13.053   86.1  0.0315   17.1  0.4552 -147.5
 0.800  0.7764 -173.7  11.463   82.6  0.0320   16.5  0.4502 -152.8
 0.900  0.7776 -177.3  10.200   79.2  0.0322   15.8  0.4450 -157.4
 1.000  0.7815  179.6   9.188   76.1  0.0327   15.6  0.4462 -161.2
 1.100  0.7813  176.8   8.338   73.2  0.0329   15.3  0.4449 -164.7
 1.200  0.7859  174.3   7.651   70.4  0.0334   14.9  0.4486 -167.4
 1.300  0.7855  171.9   7.048   67.7  0.0336   15.1  0.4495 -170.1
 1.400  0.7886  169.7   6.536   65.0  0.0341   14.8  0.4540 -172.4
 1.500  0.7886  167.7   6.086   62.5  0.0344   14.8  0.4567 -174.7
 1.600  0.7925  165.6   5.699   59.9  0.0348   15.1  0.4623 -176.8
 1.700  0.7924  163.6   5.349   57.4  0.0349   14.9  0.4667 -178.8
 1.800  0.7932  161.6   5.029   54.9  0.0352   15.0  0.4724  179.3
 1.900  0.7945  159.9   4.746   52.6  0.0355   15.0  0.4776  177.6
 2.000  0.7985  158.1   4.507   50.2  0.0361   15.0  0.4841  175.9
 2.100  0.7988  156.4   4.264   47.8  0.0361   15.2  0.4850  174.7
 2.200  0.7989  154.7   4.049   45.4  0.0364   15.0  0.4898  173.1
 2.300  0.8003  153.1   3.856   43.1  0.0368   15.1  0.4939  171.4
 2.400  0.8035  151.4   3.687   40.7  0.0371   15.3  0.4990  169.8
 2.500  0.8050  149.7   3.524   38.4  0.0374   15.6  0.5046  168.2
 2.600  0.8055  148.0   3.364   36.1  0.0377   15.6  0.5098  166.5
 2.700  0.8057  146.4   3.218   33.8  0.0381   15.7  0.5147  164.9
 2.800  0.8082  144.8   3.085   31.6  0.0386   16.0  0.5210  163.3
 2.900  0.8096  143.2   2.957   29.3  0.0388   16.0  0.5280  161.7
 3.000  0.8113  141.5   2.838   27.0  0.0395   15.9  0.5342  160.1
 3.100  0.8127  140.1   2.724   24.9  0.0396   16.5  0.5410  158.5
 3.200  0.8139  138.6   2.618   22.7  0.0404   16.1  0.5474  157.0
 3.300  0.8148  137.1   2.515   20.5  0.0407   16.3  0.5545  155.6
 3.400  0.8168  135.6   2.420   18.4  0.0412   16.6  0.5613  154.1
 3.500  0.8186  134.3   2.333   16.5  0.0417   16.4  0.5685  152.7
 3.600  0.8191  132.7   2.243   14.4  0.0422   16.6  0.5752  151.3
 3.700  0.8215  131.4   2.166   12.3  0.0428   16.7  0.5819  150.0
 3.800  0.8224  129.8   2.084   10.3  0.0431   16.4  0.5888  148.5
 3.900  0.8245  128.6   2.014    8.4  0.0438   16.6  0.5959  147.2
 4.000  0.8267  127.2   1.943    6.4  0.0445   16.5  0.6029  145.9
 4.100  0.8289  125.9   1.880    4.5  0.0449   16.5  0.6098  144.8
 4.200  0.8313  124.6   1.817    2.6  0.0457   16.5  0.6169  143.4
 4.300  0.8331  123.3   1.758    0.7  0.0463   16.5  0.6240  142.3
 4.400  0.8358  122.2   1.701   -1.1  0.0470   16.2  0.6308  141.1
 4.500  0.8377  120.9   1.648   -3.0  0.0477   16.0  0.6372  139.9
 4.600  0.8407  119.8   1.596   -4.8  0.0483   15.9  0.6439  138.7
 4.700  0.8421  118.6   1.547   -6.7  0.0490   15.9  0.6494  137.5
 4.800  0.8444  117.5   1.499   -8.4  0.0498   15.5  0.6561  136.4
 4.900  0.8461  116.6   1.454  -10.1  0.0505   15.3  0.6609  135.2
 5.000  0.8480  115.4   1.411  -11.9  0.0510   15.1  0.6670  134.1
 5.100  0.8501  114.5   1.371  -13.7  0.0520   14.8  0.6718  132.8
 5.200  0.8509  113.4   1.331  -15.4  0.0525   14.4  0.6773  131.7
 5.300  0.8522  112.5   1.292  -17.1  0.0533   14.0  0.6817  130.5
 5.400  0.8532  111.6   1.256  -18.8  0.0540   13.8  0.6867  129.4
 5.500  0.8533  110.7   1.219  -20.3  0.0548   13.5  0.6903  128.2
 5.600  0.8540  110.0   1.187  -21.9  0.0557   13.1  0.6951  127.0
 5.700  0.8534  109.0   1.156  -23.5  0.0565   12.8  0.6991  125.9
 5.800  0.8543  108.2   1.125  -25.1  0.0575   12.4  0.7035  124.7
 5.900  0.8539  107.4   1.096  -26.6  0.0584   12.0  0.7079  123.5
 6.000  0.8544  106.3   1.067  -28.3  0.0592   11.2  0.7124  122.2
!
!  f       NFmin   Gammaopt  rn/50
! GHz       dB    MAG  ANG    -
!
! noise parameter not available yet for this operation point!
!
! (c) 2015  Infineon Technologies AG, Munich
