! Infineon Technologies  Discrete & RF Semiconductors
! BFP720ESD
! VCE =  4.0 V,  IC =  15 mA
! Common Emitter S-Parameters:                            Jan 2016
# GHz  S  MA  R  50
!  f         S11            S21            S12            S22
! GHz     MAG   ANG      MAG   ANG      MAG   ANG      MAG   ANG
 0.010  0.8035    1.2  35.595  178.6  0.0003   57.3  0.9691    3.3
 0.015  0.8045   -0.0  35.207  177.9  0.0005   67.9  0.9739    1.6
 0.020  0.8058   -1.2  34.824  177.2  0.0008   71.9  0.9795   -0.1
 0.025  0.8051   -1.6  34.768  176.9  0.0009   73.4  0.9808   -0.4
 0.030  0.8044   -2.1  34.712  176.6  0.0010   74.6  0.9821   -0.7
 0.035  0.8037   -2.5  34.657  176.4  0.0011   75.6  0.9835   -1.0
 0.040  0.8031   -3.0  34.603  176.1  0.0013   76.3  0.9849   -1.2
 0.045  0.8026   -3.4  34.550  175.8  0.0014   77.0  0.9863   -1.5
 0.050  0.8021   -3.9  34.498  175.5  0.0015   77.5  0.9877   -1.8
 0.055  0.8016   -4.3  34.487  175.2  0.0017   78.1  0.9875   -2.1
 0.060  0.8011   -4.8  34.478  174.9  0.0018   78.6  0.9874   -2.4
 0.065  0.8007   -5.2  34.470  174.5  0.0020   79.0  0.9873   -2.7
 0.070  0.8004   -5.7  34.462  174.2  0.0021   79.4  0.9872   -3.0
 0.075  0.8001   -6.1  34.456  173.9  0.0023   79.7  0.9872   -3.2
 0.080  0.7998   -6.5  34.451  173.6  0.0025   80.0  0.9872   -3.5
 0.085  0.7996   -7.0  34.447  173.3  0.0026   80.2  0.9872   -3.8
 0.090  0.7994   -7.4  34.444  172.9  0.0028   80.4  0.9872   -4.1
 0.095  0.7993   -7.9  34.442  172.6  0.0029   80.6  0.9872   -4.4
 0.100  0.7992   -8.3  34.441  172.3  0.0031   80.8  0.9873   -4.7
 0.105  0.7986   -8.7  34.397  171.9  0.0032   80.5  0.9866   -5.0
 0.110  0.7981   -9.1  34.355  171.6  0.0034   80.2  0.9860   -5.2
 0.115  0.7976   -9.6  34.314  171.2  0.0035   80.0  0.9853   -5.5
 0.120  0.7971  -10.0  34.274  170.9  0.0037   79.8  0.9847   -5.7
 0.125  0.7967  -10.4  34.236  170.5  0.0038   79.5  0.9841   -6.0
 0.130  0.7963  -10.8  34.199  170.1  0.0040   79.4  0.9836   -6.3
 0.135  0.7959  -11.2  34.163  169.8  0.0041   79.2  0.9830   -6.5
 0.140  0.7957  -11.7  34.129  169.4  0.0043   79.0  0.9825   -6.8
 0.145  0.7954  -12.1  34.096  169.1  0.0044   78.8  0.9820   -7.0
 0.150  0.7952  -12.5  34.064  168.7  0.0046   78.7  0.9815   -7.3
 0.155  0.7945  -12.9  34.015  168.4  0.0048   78.6  0.9806   -7.5
 0.160  0.7938  -13.3  33.967  168.0  0.0049   78.4  0.9797   -7.8
 0.165  0.7931  -13.7  33.920  167.7  0.0051   78.3  0.9788   -8.0
 0.170  0.7925  -14.1  33.875  167.4  0.0052   78.2  0.9780   -8.3
 0.175  0.7919  -14.5  33.830  167.0  0.0054   78.1  0.9771   -8.5
 0.180  0.7914  -15.0  33.787  166.7  0.0056   78.0  0.9763   -8.7
 0.185  0.7909  -15.4  33.745  166.3  0.0057   77.9  0.9755   -9.0
 0.190  0.7904  -15.8  33.704  166.0  0.0059   77.9  0.9747   -9.2
 0.195  0.7900  -16.2  33.664  165.6  0.0060   77.8  0.9740   -9.5
 0.200  0.7896  -16.6  33.626  165.3  0.0062   77.7  0.9732   -9.7
 0.220  0.7856  -18.2  33.346  163.9  0.0068   76.8  0.9692  -10.7
 0.240  0.7823  -19.9  33.085  162.5  0.0073   76.1  0.9654  -11.6
 0.260  0.7789  -21.5  32.855  161.2  0.0079   75.4  0.9613  -12.6
 0.280  0.7754  -23.0  32.651  160.0  0.0084   74.8  0.9568  -13.5
 0.300  0.7724  -24.6  32.461  158.8  0.0090   74.2  0.9526  -14.4
 0.320  0.7681  -26.1  32.208  157.6  0.0096   73.5  0.9476  -15.2
 0.340  0.7644  -27.7  31.969  156.4  0.0101   72.8  0.9428  -16.1
 0.360  0.7608  -29.2  31.713  155.2  0.0107   72.1  0.9378  -16.9
 0.380  0.7571  -30.7  31.440  154.1  0.0112   71.4  0.9326  -17.8
 0.400  0.7539  -32.2  31.179  152.9  0.0117   70.8  0.9276  -18.6
 0.420  0.7494  -33.7  30.924  151.8  0.0122   70.1  0.9223  -19.4
 0.440  0.7453  -35.2  30.681  150.7  0.0127   69.4  0.9173  -20.2
 0.450  0.7435  -35.9  30.563  150.2  0.0130   69.1  0.9148  -20.6
 0.460  0.7411  -36.6  30.432  149.7  0.0132   68.7  0.9119  -21.0
 0.480  0.7367  -38.1  30.177  148.6  0.0137   68.0  0.9063  -21.8
 0.500  0.7328  -39.6  29.933  147.5  0.0142   67.4  0.9009  -22.6
 0.520  0.7277  -41.0  29.666  146.5  0.0147   66.6  0.8950  -23.3
 0.540  0.7230  -42.4  29.408  145.5  0.0151   65.9  0.8893  -24.1
 0.560  0.7188  -43.8  29.159  144.4  0.0156   65.2  0.8837  -24.8
 0.580  0.7150  -45.2  28.921  143.4  0.0160   64.6  0.8782  -25.5
 0.600  0.7117  -46.7  28.692  142.3  0.0165   64.0  0.8729  -26.3
 0.620  0.7068  -48.1  28.447  141.4  0.0169   63.3  0.8670  -27.0
 0.640  0.7022  -49.4  28.208  140.5  0.0173   62.6  0.8612  -27.7
 0.660  0.6981  -50.9  27.977  139.6  0.0178   62.0  0.8556  -28.4
 0.680  0.6944  -52.3  27.753  138.7  0.0182   61.4  0.8501  -29.2
 0.700  0.6911  -53.7  27.537  137.7  0.0186   60.8  0.8447  -29.9
 0.720  0.6863  -55.0  27.286  136.9  0.0190   60.2  0.8387  -30.5
 0.740  0.6819  -56.3  27.040  136.0  0.0194   59.6  0.8329  -31.2
 0.760  0.6779  -57.6  26.801  135.1  0.0198   59.0  0.8271  -31.8
 0.780  0.6742  -58.9  26.569  134.2  0.0202   58.4  0.8215  -32.4
 0.800  0.6709  -60.3  26.343  133.3  0.0206   57.9  0.8159  -33.1
 0.820  0.6665  -61.6  26.119  132.5  0.0209   57.3  0.8102  -33.7
 0.840  0.6625  -62.9  25.901  131.6  0.0213   56.7  0.8046  -34.3
 0.860  0.6588  -64.2  25.689  130.8  0.0216   56.2  0.7991  -34.9
 0.880  0.6554  -65.5  25.482  129.9  0.0220   55.6  0.7937  -35.6
 0.900  0.6524  -66.8  25.282  129.0  0.0223   55.1  0.7884  -36.2
 0.920  0.6479  -68.0  25.059  128.2  0.0226   54.6  0.7826  -36.8
 0.940  0.6438  -69.3  24.841  127.4  0.0230   54.1  0.7768  -37.4
 0.960  0.6399  -70.6  24.628  126.6  0.0233   53.6  0.7712  -38.0
 0.980  0.6364  -71.9  24.419  125.8  0.0237   53.1  0.7656  -38.6
 1.000  0.6332  -73.2  24.216  125.0  0.0240   52.6  0.7601  -39.2
 1.020  0.6294  -74.4  24.009  124.3  0.0243   52.1  0.7546  -39.7
 1.040  0.6259  -75.6  23.806  123.5  0.0245   51.6  0.7492  -40.3
 1.060  0.6226  -76.8  23.608  122.8  0.0248   51.1  0.7438  -40.9
 1.080  0.6196  -78.0  23.413  122.0  0.0250   50.6  0.7385  -41.4
 1.100  0.6169  -79.2  23.223  121.2  0.0253   50.1  0.7333  -42.0
 1.120  0.6132  -80.4  23.027  120.5  0.0256   49.7  0.7280  -42.5
 1.140  0.6098  -81.5  22.835  119.8  0.0259   49.2  0.7227  -43.1
 1.160  0.6066  -82.7  22.646  119.0  0.0261   48.8  0.7176  -43.6
 1.180  0.6037  -83.9  22.462  118.3  0.0264   48.4  0.7125  -44.1
 1.200  0.6011  -85.1  22.281  117.5  0.0267   48.0  0.7074  -44.7
 1.220  0.5979  -86.2  22.093  116.8  0.0269   47.6  0.7025  -45.2
 1.240  0.5949  -87.3  21.909  116.2  0.0271   47.1  0.6976  -45.6
 1.260  0.5922  -88.4  21.727  115.5  0.0274   46.7  0.6927  -46.1
 1.280  0.5897  -89.6  21.548  114.8  0.0276   46.3  0.6879  -46.6
 1.300  0.5874  -90.7  21.373  114.1  0.0278   45.9  0.6832  -47.1
 1.320  0.5841  -91.8  21.188  113.4  0.0280   45.5  0.6783  -47.6
 1.340  0.5810  -92.9  21.006  112.8  0.0282   45.2  0.6735  -48.0
 1.360  0.5781  -94.0  20.827  112.1  0.0284   44.8  0.6688  -48.5
 1.380  0.5754  -95.1  20.650  111.4  0.0286   44.4  0.6641  -49.0
 1.400  0.5730  -96.2  20.477  110.7  0.0288   44.1  0.6594  -49.5
 1.420  0.5703  -97.2  20.315  110.1  0.0290   43.8  0.6551  -49.9
 1.440  0.5678  -98.1  20.156  109.5  0.0292   43.4  0.6508  -50.3
 1.460  0.5654  -99.1  19.999  108.9  0.0293   43.1  0.6466  -50.7
 1.480  0.5632 -100.1  19.844  108.3  0.0295   42.7  0.6424  -51.2
 1.500  0.5612 -101.1  19.691  107.7  0.0297   42.4  0.6382  -51.6
 1.520  0.5589 -102.1  19.537  107.1  0.0299   42.1  0.6340  -52.0
 1.540  0.5568 -103.1  19.385  106.4  0.0300   41.7  0.6297  -52.4
 1.560  0.5548 -104.1  19.235  105.8  0.0302   41.4  0.6256  -52.8
 1.580  0.5530 -105.2  19.088  105.2  0.0303   41.0  0.6214  -53.3
 1.600  0.5514 -106.2  18.943  104.5  0.0305   40.7  0.6173  -53.7
 1.620  0.5489 -107.1  18.798  103.9  0.0307   40.4  0.6135  -54.1
 1.640  0.5465 -108.1  18.656  103.4  0.0308   40.1  0.6097  -54.5
 1.660  0.5443 -109.1  18.515  102.8  0.0310   39.9  0.6059  -54.9
 1.680  0.5423 -110.0  18.376  102.2  0.0311   39.6  0.6022  -55.3
 1.700  0.5404 -111.0  18.239  101.6  0.0313   39.3  0.5985  -55.7
 1.720  0.5384 -111.9  18.093  101.1  0.0314   39.0  0.5949  -56.1
 1.740  0.5366 -112.8  17.949  100.5  0.0316   38.8  0.5913  -56.4
 1.760  0.5349 -113.7  17.806  100.0  0.0317   38.5  0.5877  -56.8
 1.780  0.5333 -114.6  17.665   99.5  0.0319   38.3  0.5842  -57.2
 1.800  0.5319 -115.5  17.525   98.9  0.0320   38.0  0.5807  -57.6
 1.820  0.5297 -116.4  17.401   98.4  0.0321   37.8  0.5771  -58.0
 1.840  0.5277 -117.4  17.278   97.8  0.0323   37.5  0.5735  -58.4
 1.860  0.5258 -118.4  17.157   97.3  0.0324   37.3  0.5700  -58.8
 1.880  0.5241 -119.3  17.038   96.8  0.0326   37.0  0.5665  -59.2
 1.900  0.5225 -120.3  16.920   96.2  0.0327   36.8  0.5630  -59.6
 1.920  0.5209 -121.1  16.797   95.7  0.0328   36.6  0.5598  -59.9
 1.940  0.5193 -121.9  16.675   95.2  0.0329   36.4  0.5566  -60.2
 1.960  0.5179 -122.7  16.555   94.7  0.0330   36.1  0.5535  -60.5
 1.980  0.5165 -123.5  16.436   94.1  0.0331   35.9  0.5503  -60.9
 2.000  0.5153 -124.3  16.318   93.6  0.0332   35.7  0.5472  -61.2
 2.020  0.5132 -125.1  16.205   93.1  0.0333   35.5  0.5439  -61.5
 2.040  0.5112 -126.0  16.092   92.6  0.0334   35.3  0.5406  -61.9
 2.060  0.5093 -126.9  15.981   92.1  0.0335   35.1  0.5374  -62.2
 2.080  0.5076 -127.7  15.872   91.6  0.0336   34.9  0.5342  -62.6
 2.100  0.5059 -128.6  15.763   91.1  0.0337   34.7  0.5309  -62.9
 2.120  0.5044 -129.5  15.656   90.6  0.0339   34.5  0.5277  -63.3
 2.140  0.5030 -130.3  15.550   90.0  0.0340   34.3  0.5246  -63.7
 2.160  0.5017 -131.2  15.446   89.5  0.0341   34.1  0.5214  -64.0
 2.180  0.5005 -132.1  15.343   89.0  0.0342   33.9  0.5183  -64.4
 2.200  0.4995 -133.0  15.241   88.4  0.0343   33.7  0.5152  -64.8
 2.220  0.4980 -133.8  15.139   87.9  0.0344   33.5  0.5121  -65.1
 2.240  0.4966 -134.6  15.039   87.5  0.0345   33.4  0.5091  -65.5
 2.260  0.4953 -135.5  14.939   87.0  0.0346   33.2  0.5061  -65.8
 2.280  0.4941 -136.3  14.841   86.5  0.0347   33.0  0.5031  -66.2
 2.300  0.4931 -137.1  14.743   86.0  0.0347   32.8  0.5001  -66.5
 2.320  0.4921 -137.9  14.647   85.5  0.0348   32.7  0.4971  -66.8
 2.340  0.4912 -138.8  14.551   85.0  0.0349   32.5  0.4941  -67.2
 2.360  0.4904 -139.6  14.457   84.5  0.0350   32.3  0.4912  -67.6
 2.380  0.4898 -140.5  14.364   84.0  0.0351   32.2  0.4883  -67.9
 2.400  0.4892 -141.3  14.272   83.5  0.0352   32.0  0.4854  -68.3
 2.420  0.4880 -142.1  14.180   83.1  0.0353   31.8  0.4825  -68.6
 2.440  0.4868 -142.9  14.088   82.6  0.0354   31.7  0.4796  -69.0
 2.460  0.4858 -143.8  13.998   82.2  0.0354   31.5  0.4767  -69.3
 2.480  0.4849 -144.6  13.908   81.7  0.0355   31.3  0.4739  -69.6
 2.500  0.4841 -145.4  13.819   81.2  0.0356   31.1  0.4710  -70.0
 2.520  0.4834 -146.2  13.732   80.8  0.0357   31.0  0.4682  -70.3
 2.540  0.4827 -147.1  13.645   80.3  0.0358   30.8  0.4654  -70.7
 2.560  0.4822 -147.9  13.559   79.8  0.0358   30.6  0.4626  -71.1
 2.580  0.4818 -148.8  13.474   79.3  0.0359   30.5  0.4598  -71.4
 2.600  0.4815 -149.6  13.390   78.8  0.0360   30.3  0.4571  -71.8
 2.620  0.4805 -150.3  13.306   78.4  0.0361   30.2  0.4545  -72.1
 2.640  0.4796 -151.1  13.223   78.0  0.0361   30.1  0.4520  -72.5
 2.660  0.4788 -151.9  13.141   77.6  0.0362   30.0  0.4495  -72.8
 2.680  0.4780 -152.6  13.059   77.1  0.0362   29.9  0.4470  -73.2
 2.700  0.4773 -153.4  12.978   76.7  0.0363   29.7  0.4445  -73.5
 2.720  0.4768 -154.1  12.898   76.3  0.0364   29.6  0.4420  -73.9
 2.740  0.4763 -154.9  12.818   75.8  0.0364   29.5  0.4396  -74.2
 2.760  0.4759 -155.7  12.739   75.4  0.0365   29.4  0.4371  -74.6
 2.780  0.4755 -156.4  12.661   75.0  0.0365   29.3  0.4347  -74.9
 2.800  0.4753 -157.2  12.584   74.5  0.0366   29.2  0.4323  -75.3
 2.820  0.4748 -157.9  12.510   74.1  0.0367   29.1  0.4301  -75.6
 2.840  0.4744 -158.6  12.436   73.7  0.0367   29.0  0.4279  -76.0
 2.860  0.4741 -159.3  12.363   73.3  0.0368   28.9  0.4257  -76.3
 2.880  0.4739 -160.0  12.291   72.8  0.0368   28.8  0.4235  -76.6
 2.900  0.4737 -160.7  12.219   72.4  0.0369   28.7  0.4214  -77.0
 2.920  0.4736 -161.4  12.148   72.0  0.0370   28.6  0.4192  -77.3
 2.940  0.4735 -162.1  12.078   71.5  0.0370   28.5  0.4171  -77.6
 2.960  0.4735 -162.8  12.008   71.1  0.0371   28.4  0.4150  -78.0
 2.980  0.4736 -163.5  11.939   70.7  0.0371   28.3  0.4129  -78.3
 3.000  0.4738 -164.2  11.871   70.2  0.0372   28.2  0.4108  -78.7
 3.100  0.4720 -167.5  11.543   68.4  0.0375   27.9  0.4014  -80.3
 3.200  0.4717 -170.8  11.226   66.5  0.0378   27.5  0.3924  -82.0
 3.300  0.4730 -174.2  10.923   64.5  0.0381   27.2  0.3837  -83.8
 3.400  0.4759 -177.5  10.634   62.3  0.0384   26.9  0.3754  -85.7
 3.500  0.4804  179.3  10.361   60.1  0.0387   26.6  0.3675  -87.6
 3.600  0.4819  176.6  10.102   58.4  0.0391   26.4  0.3602  -89.5
 3.700  0.4844  173.8   9.852   56.6  0.0395   26.2  0.3533  -91.4
 3.800  0.4881  171.1   9.612   54.7  0.0398   26.0  0.3468  -93.4
 3.900  0.4928  168.5   9.384   52.7  0.0402   25.9  0.3407  -95.5
 4.000  0.4985  165.9   9.167   50.6  0.0406   25.7  0.3351  -97.6
 4.100  0.5012  163.6   8.944   48.9  0.0410   25.5  0.3299  -99.9
 4.200  0.5047  161.3   8.730   47.2  0.0414   25.2  0.3253 -102.3
 4.300  0.5090  159.1   8.524   45.3  0.0418   25.0  0.3212 -104.7
 4.400  0.5140  156.9   8.327   43.4  0.0422   24.8  0.3177 -107.2
 4.500  0.5198  154.7   8.140   41.4  0.0426   24.6  0.3149 -109.8
 4.600  0.5217  152.9   7.949   39.9  0.0430   24.5  0.3124 -111.9
 4.700  0.5242  151.2   7.764   38.2  0.0434   24.4  0.3104 -114.1
 4.800  0.5271  149.5   7.586   36.5  0.0438   24.2  0.3088 -116.2
 4.900  0.5305  147.8   7.414   34.8  0.0442   24.1  0.3077 -118.4
 5.000  0.5343  146.1   7.250   32.9  0.0446   24.0  0.3070 -120.6
 5.100  0.5358  144.5   7.098   31.4  0.0451   23.9  0.3053 -122.5
 5.200  0.5376  143.0   6.950   29.9  0.0455   23.8  0.3039 -124.4
 5.300  0.5399  141.4   6.808   28.4  0.0460   23.7  0.3029 -126.3
 5.400  0.5426  139.9   6.670   26.7  0.0464   23.6  0.3022 -128.3
 5.500  0.5456  138.4   6.539   25.0  0.0469   23.5  0.3018 -130.2
 5.600  0.5486  136.9   6.416   23.6  0.0475   23.5  0.3003 -132.4
 5.700  0.5519  135.5   6.297   22.1  0.0481   23.5  0.2993 -134.6
 5.800  0.5555  134.0   6.183   20.5  0.0487   23.4  0.2987 -136.8
 5.900  0.5595  132.6   6.073   19.0  0.0493   23.4  0.2986 -139.1
 6.000  0.5639  131.2   5.968   17.3  0.0499   23.4  0.2989 -141.3
 6.100  0.5683  129.9   5.865   15.8  0.0507   23.2  0.2997 -143.6
 6.200  0.5731  128.5   5.767   14.3  0.0515   23.0  0.3010 -145.9
 6.300  0.5781  127.2   5.672   12.7  0.0524   22.8  0.3028 -148.2
 6.400  0.5835  126.0   5.582   11.1  0.0532   22.6  0.3051 -150.4
 6.500  0.5891  124.7   5.497    9.4  0.0540   22.4  0.3078 -152.6
 6.600  0.5929  123.5   5.409    7.9  0.0549   22.1  0.3084 -154.6
 6.800  0.6014  121.2   5.244    4.9  0.0568   21.5  0.3107 -158.5
 7.000  0.6108  118.9   5.095    1.6  0.0586   21.0  0.3145 -162.4
 7.200  0.6170  116.5   4.952   -1.5  0.0608   19.8  0.3177 -166.9
 7.400  0.6244  114.2   4.825   -4.7  0.0631   18.7  0.3228 -171.3
 7.600  0.6315  111.4   4.688   -8.1  0.0652   17.3  0.3293 -176.2
 7.800  0.6389  108.4   4.543  -11.6  0.0673   15.5  0.3379  178.7
 8.000  0.6482  105.4   4.417  -15.4  0.0694   13.8  0.3492  173.8
 8.200  0.6543  101.9   4.250  -18.6  0.0706   11.9  0.3568  168.6
 8.400  0.6629   98.5   4.097  -22.1  0.0719   10.1  0.3673  163.6
 8.600  0.6750   95.2   3.954  -25.4  0.0731    8.4  0.3784  158.3
 8.800  0.6904   92.1   3.815  -28.5  0.0740    7.0  0.3910  152.7
 9.000  0.7078   89.2   3.689  -31.9  0.0750    5.5  0.4070  147.5
 9.200  0.7342   86.7   3.560  -34.8  0.0758    4.2  0.4274  141.9
 9.400  0.7619   84.3   3.441  -38.0  0.0767    2.8  0.4514  136.9
 9.600  0.7885   82.2   3.307  -41.1  0.0777    1.4  0.4792  132.4
 9.800  0.8139   80.2   3.156  -44.4  0.0790   -0.1  0.5103  128.5
10.000  0.8402   78.3   3.017  -48.0  0.0803   -1.6  0.5435  125.0
!
!  f       NFmin   Gammaopt  rn/50
! GHz       dB    MAG  ANG    -
 0.450      0.81  0.12    1   0.13
 0.900      0.83  0.12    7   0.12
 1.900      0.85  0.10    5   0.13
 2.400      0.86  0.09    4   0.14
 5.500      1.05  0.14 -111   0.11
10.000      1.42  0.51  -89   0.39
!
! (c) 2016  Infineon Technologies AG, Munich
