! Infineon Technologies  Discrete & RF Semiconductors
! BFP780
! VCE =  4.0 V,  IC =  37 mA
! Common Emitter S-Parameters:                            Jul 2015
# GHz  S  MA  R  50
!  f         S11            S21            S12            S22
! GHz     MAG   ANG      MAG   ANG      MAG   ANG      MAG   ANG
 0.030  0.5702  -26.1  62.786  168.6  0.0060   68.5  0.9549  -15.2
 0.040  0.5746  -34.3  61.879  164.9  0.0076   70.7  0.9415  -20.3
 0.050  0.5792  -42.6  60.963  161.0  0.0094   63.9  0.9317  -25.4
 0.060  0.5913  -49.6  59.755  157.6  0.0100   68.7  0.9098  -29.8
 0.070  0.5950  -57.0  58.421  154.2  0.0114   57.8  0.8916  -34.5
 0.080  0.6075  -63.7  57.022  150.9  0.0135   61.6  0.8774  -38.9
 0.090  0.6177  -70.0  55.451  147.9  0.0150   62.2  0.8583  -43.3
 0.100  0.6276  -75.8  53.890  145.1  0.0156   56.4  0.8382  -47.2
 0.110  0.6364  -81.2  52.287  142.2  0.0169   56.0  0.8175  -51.5
 0.120  0.6449  -86.3  50.739  139.6  0.0183   51.8  0.7986  -55.0
 0.130  0.6525  -91.0  49.225  137.2  0.0193   49.4  0.7778  -58.5
 0.140  0.6609  -95.4  47.632  134.8  0.0193   47.4  0.7587  -62.1
 0.150  0.6682  -99.3  46.173  132.7  0.0205   46.6  0.7419  -65.3
 0.200  0.7004 -115.8  39.380  123.4  0.0229   39.1  0.6621  -79.7
 0.250  0.7195 -127.7  33.947  116.1  0.0254   33.3  0.6034  -91.3
 0.300  0.7328 -136.7  29.524  110.5  0.0261   29.1  0.5555 -101.1
 0.350  0.7430 -143.8  26.018  105.9  0.0273   27.1  0.5205 -109.2
 0.400  0.7510 -149.2  23.194  102.1  0.0279   24.6  0.4955 -116.1
 0.450  0.7552 -153.7  20.893   98.7  0.0283   23.2  0.4763 -121.9
 0.500  0.7582 -157.7  18.976   95.8  0.0287   21.4  0.4593 -127.0
 0.600  0.7649 -164.0  15.991   90.9  0.0292   19.9  0.4389 -135.6
 0.700  0.7664 -169.0  13.786   86.6  0.0299   18.4  0.4244 -142.4
 0.800  0.7719 -173.1  12.109   82.9  0.0302   17.8  0.4181 -147.9
 0.900  0.7734 -176.7  10.779   79.5  0.0304   16.9  0.4125 -152.6
 1.000  0.7779 -179.8   9.714   76.3  0.0307   16.7  0.4129 -156.5
 1.100  0.7777  177.4   8.816   73.3  0.0310   16.5  0.4117 -160.2
 1.200  0.7827  174.8   8.090   70.5  0.0314   16.4  0.4153 -163.0
 1.300  0.7825  172.4   7.454   67.7  0.0316   16.2  0.4164 -165.8
 1.400  0.7857  170.2   6.911   65.0  0.0321   16.2  0.4210 -168.1
 1.500  0.7858  168.2   6.437   62.4  0.0324   16.8  0.4240 -170.5
 1.600  0.7900  166.0   6.026   59.8  0.0328   16.3  0.4301 -172.6
 1.700  0.7900  164.0   5.655   57.2  0.0331   16.5  0.4350 -174.7
 1.800  0.7914  162.1   5.317   54.6  0.0335   17.0  0.4412 -176.5
 1.900  0.7923  160.3   5.018   52.3  0.0339   17.0  0.4470 -178.3
 2.000  0.7967  158.5   4.764   49.8  0.0341   17.4  0.4540  180.0
 2.100  0.7969  156.8   4.507   47.4  0.0343   17.4  0.4561  178.9
 2.200  0.7973  155.1   4.279   44.9  0.0347   17.5  0.4617  177.1
 2.300  0.7989  153.5   4.076   42.7  0.0352   17.5  0.4664  175.5
 2.400  0.8022  151.8   3.896   40.2  0.0353   17.8  0.4724  173.8
 2.500  0.8037  150.1   3.723   37.8  0.0359   18.1  0.4786  172.1
 2.600  0.8048  148.4   3.553   35.5  0.0360   18.2  0.4845  170.4
 2.700  0.8048  146.8   3.398   33.2  0.0365   18.5  0.4903  168.8
 2.800  0.8071  145.2   3.256   30.9  0.0370   18.7  0.4971  167.1
 2.900  0.8089  143.5   3.122   28.6  0.0373   18.8  0.5048  165.5
 3.000  0.8110  141.9   2.997   26.3  0.0379   18.9  0.5119  163.8
 3.100  0.8122  140.5   2.874   24.1  0.0384   19.2  0.5195  162.2
 3.200  0.8137  138.9   2.761   21.9  0.0389   19.3  0.5266  160.6
 3.300  0.8147  137.4   2.654   19.7  0.0394   19.4  0.5346  159.2
 3.400  0.8171  135.9   2.554   17.5  0.0400   19.6  0.5421  157.7
 3.500  0.8188  134.6   2.459   15.5  0.0404   19.5  0.5498  156.2
 3.600  0.8197  133.0   2.364   13.4  0.0412   19.7  0.5575  154.7
 3.700  0.8219  131.7   2.282   11.3  0.0419   19.7  0.5649  153.3
 3.800  0.8231  130.2   2.196    9.2  0.0422   19.6  0.5727  151.8
 3.900  0.8255  128.9   2.120    7.3  0.0431   20.0  0.5803  150.4
 4.000  0.8276  127.5   2.046    5.3  0.0438   19.6  0.5880  149.0
 4.100  0.8298  126.2   1.978    3.3  0.0441   19.5  0.5959  147.9
 4.200  0.8322  124.9   1.910    1.4  0.0450   19.6  0.6037  146.4
 4.300  0.8343  123.6   1.848   -0.5  0.0458   19.5  0.6114  145.3
 4.400  0.8370  122.4   1.787   -2.4  0.0466   19.4  0.6190  144.0
 4.500  0.8391  121.1   1.731   -4.3  0.0473   19.2  0.6261  142.8
 4.600  0.8422  120.0   1.675   -6.1  0.0480   18.8  0.6335  141.5
 4.700  0.8436  118.8   1.623   -8.0  0.0487   18.7  0.6397  140.3
 4.800  0.8461  117.7   1.572   -9.8  0.0495   18.3  0.6468  139.1
 4.900  0.8478  116.8   1.523  -11.5  0.0502   18.2  0.6524  137.8
 5.000  0.8498  115.6   1.478  -13.3  0.0510   17.8  0.6591  136.7
 5.100  0.8520  114.7   1.435  -15.1  0.0519   17.5  0.6643  135.4
 5.200  0.8529  113.6   1.393  -16.9  0.0527   17.2  0.6703  134.2
 5.300  0.8541  112.7   1.351  -18.6  0.0535   16.9  0.6752  132.9
 5.400  0.8555  111.7   1.313  -20.3  0.0544   16.6  0.6808  131.8
 5.500  0.8558  110.9   1.274  -21.9  0.0551   16.0  0.6846  130.6
 5.600  0.8565  110.1   1.239  -23.5  0.0559   15.8  0.6901  129.3
 5.700  0.8557  109.2   1.207  -25.1  0.0570   15.2  0.6945  128.1
 5.800  0.8567  108.3   1.173  -26.8  0.0580   14.8  0.6994  126.9
 5.900  0.8560  107.5   1.143  -28.3  0.0589   14.1  0.7040  125.7
 6.000  0.8570  106.5   1.112  -30.0  0.0599   13.5  0.7091  124.3
!
!  f       NFmin   Gammaopt  rn/50
! GHz       dB    MAG  ANG    -
!
! noise parameter not available yet for this operation point!
!
! (c) 2015  Infineon Technologies AG, Munich
