! Infineon Technologies  Discrete & RF Semiconductors
! BFP720F
! VCE =  2.5 V,  IC =  0.5 mA
! Common Emitter S-Parameters:                            Jan 2016
# GHz  S  MA  R  50
!  f         S11            S21            S12            S22
! GHz     MAG   ANG      MAG   ANG      MAG   ANG      MAG   ANG
 0.010  0.9931    0.1   2.112  179.8  0.0004  -35.2  1.0000   -0.5
 0.015  0.9931   -0.1   2.046  179.1  0.0003   53.9  1.0000   -0.7
 0.020  0.9932   -0.2   1.981  178.3  0.0007   88.7  1.0000   -0.9
 0.025  0.9933   -0.3   1.977  178.4  0.0009   89.8  0.9997   -0.9
 0.030  0.9934   -0.5   1.972  178.5  0.0011   90.5  0.9994   -0.9
 0.035  0.9935   -0.6   1.968  178.6  0.0013   91.0  0.9990   -0.9
 0.040  0.9936   -0.7   1.964  178.7  0.0015   91.3  0.9987   -0.8
 0.045  0.9938   -0.9   1.959  178.8  0.0017   91.6  0.9984   -0.8
 0.050  0.9939   -1.0   1.955  178.9  0.0019   91.8  0.9981   -0.8
 0.055  0.9938   -1.1   1.955  178.8  0.0021   91.4  0.9982   -0.9
 0.060  0.9937   -1.2   1.955  178.8  0.0023   91.0  0.9982   -0.9
 0.065  0.9936   -1.2   1.955  178.7  0.0024   90.7  0.9983   -1.0
 0.070  0.9935   -1.3   1.955  178.6  0.0026   90.4  0.9984   -1.0
 0.075  0.9934   -1.4   1.955  178.6  0.0028   90.2  0.9984   -1.1
 0.080  0.9933   -1.5   1.955  178.5  0.0030   90.0  0.9985   -1.2
 0.085  0.9932   -1.6   1.955  178.4  0.0032   89.8  0.9986   -1.2
 0.090  0.9932   -1.6   1.955  178.3  0.0033   89.7  0.9987   -1.3
 0.095  0.9931   -1.7   1.955  178.3  0.0035   89.5  0.9987   -1.3
 0.100  0.9930   -1.8   1.955  178.2  0.0037   89.4  0.9988   -1.4
 0.105  0.9930   -1.9   1.956  178.1  0.0039   89.2  0.9989   -1.5
 0.110  0.9929   -2.0   1.957  178.0  0.0041   89.0  0.9989   -1.6
 0.115  0.9929   -2.0   1.958  177.9  0.0042   88.9  0.9990   -1.6
 0.120  0.9928   -2.1   1.959  177.8  0.0044   88.8  0.9990   -1.7
 0.125  0.9928   -2.2   1.959  177.7  0.0046   88.6  0.9991   -1.8
 0.130  0.9927   -2.3   1.960  177.7  0.0048   88.5  0.9991   -1.9
 0.135  0.9927   -2.4   1.961  177.6  0.0050   88.4  0.9992   -2.0
 0.140  0.9927   -2.4   1.962  177.5  0.0051   88.3  0.9993   -2.0
 0.145  0.9926   -2.5   1.963  177.4  0.0053   88.2  0.9993   -2.1
 0.150  0.9926   -2.6   1.964  177.3  0.0055   88.1  0.9994   -2.2
 0.155  0.9925   -2.7   1.964  177.2  0.0057   88.0  0.9992   -2.3
 0.160  0.9924   -2.8   1.963  177.1  0.0059   88.0  0.9991   -2.3
 0.165  0.9923   -2.9   1.963  177.1  0.0061   88.0  0.9989   -2.4
 0.170  0.9923   -3.0   1.963  177.0  0.0063   87.9  0.9988   -2.4
 0.175  0.9922   -3.0   1.962  176.9  0.0064   87.9  0.9986   -2.5
 0.180  0.9921   -3.1   1.962  176.8  0.0066   87.8  0.9985   -2.6
 0.185  0.9920   -3.2   1.962  176.7  0.0068   87.8  0.9983   -2.6
 0.190  0.9919   -3.3   1.962  176.7  0.0070   87.8  0.9982   -2.7
 0.195  0.9919   -3.4   1.961  176.6  0.0072   87.7  0.9980   -2.7
 0.200  0.9918   -3.5   1.961  176.5  0.0074   87.7  0.9979   -2.8
 0.220  0.9918   -3.9   1.964  176.1  0.0082   87.2  0.9984   -3.1
 0.240  0.9918   -4.3   1.967  175.8  0.0089   86.8  0.9989   -3.4
 0.260  0.9918   -4.7   1.968  175.4  0.0097   86.5  0.9985   -3.7
 0.280  0.9918   -5.0   1.966  175.1  0.0104   86.3  0.9971   -4.0
 0.300  0.9918   -5.4   1.964  174.7  0.0111   86.2  0.9957   -4.3
 0.320  0.9917   -5.8   1.965  174.4  0.0119   85.7  0.9962   -4.6
 0.340  0.9917   -6.1   1.966  174.1  0.0126   85.3  0.9967   -4.9
 0.360  0.9915   -6.5   1.970  173.7  0.0134   84.9  0.9969   -5.3
 0.380  0.9911   -6.8   1.975  173.3  0.0141   84.6  0.9966   -5.6
 0.400  0.9907   -7.2   1.980  172.9  0.0149   84.3  0.9964   -5.9
 0.420  0.9903   -7.6   1.972  172.5  0.0156   84.0  0.9961   -6.2
 0.440  0.9900   -7.9   1.965  172.1  0.0163   83.7  0.9957   -6.5
 0.450  0.9898   -8.1   1.961  171.9  0.0167   83.6  0.9956   -6.6
 0.460  0.9897   -8.3   1.964  171.8  0.0171   83.4  0.9955   -6.7
 0.480  0.9896   -8.6   1.969  171.5  0.0178   83.2  0.9954   -7.0
 0.500  0.9895   -9.0   1.975  171.3  0.0186   82.9  0.9953   -7.3
 0.520  0.9892   -9.4   1.976  170.9  0.0194   82.5  0.9950   -7.6
 0.540  0.9890   -9.8   1.978  170.5  0.0201   82.2  0.9947   -7.9
 0.560  0.9888  -10.1   1.980  170.1  0.0209   81.9  0.9944   -8.2
 0.580  0.9887  -10.5   1.981  169.7  0.0216   81.6  0.9941   -8.5
 0.600  0.9886  -10.9   1.983  169.3  0.0224   81.3  0.9939   -8.8
 0.620  0.9881  -11.3   1.983  168.9  0.0232   80.9  0.9937   -9.1
 0.640  0.9876  -11.6   1.982  168.6  0.0239   80.6  0.9936   -9.4
 0.660  0.9872  -12.0   1.982  168.2  0.0247   80.2  0.9935   -9.7
 0.680  0.9868  -12.3   1.982  167.9  0.0254   79.9  0.9934  -10.0
 0.700  0.9865  -12.7   1.982  167.5  0.0262   79.6  0.9934  -10.3
 0.720  0.9862  -13.1   1.984  167.2  0.0269   79.3  0.9930  -10.6
 0.740  0.9858  -13.5   1.987  166.8  0.0277   79.0  0.9926  -10.9
 0.760  0.9856  -13.8   1.990  166.5  0.0284   78.7  0.9922  -11.1
 0.780  0.9854  -14.2   1.992  166.1  0.0292   78.4  0.9919  -11.4
 0.800  0.9852  -14.6   1.995  165.8  0.0299   78.1  0.9916  -11.7
 0.820  0.9847  -15.0   1.997  165.4  0.0307   77.7  0.9912  -12.0
 0.840  0.9842  -15.4   1.999  165.0  0.0315   77.4  0.9909  -12.3
 0.860  0.9837  -15.7   2.001  164.7  0.0322   77.0  0.9906  -12.6
 0.880  0.9833  -16.1   2.003  164.3  0.0330   76.7  0.9903  -12.9
 0.900  0.9829  -16.5   2.005  163.9  0.0338   76.4  0.9900  -13.2
 0.920  0.9824  -16.9   2.006  163.5  0.0346   76.0  0.9894  -13.5
 0.940  0.9819  -17.3   2.008  163.1  0.0353   75.7  0.9889  -13.8
 0.960  0.9815  -17.6   2.009  162.8  0.0361   75.3  0.9884  -14.1
 0.980  0.9811  -18.0   2.010  162.4  0.0368   75.0  0.9879  -14.4
 1.000  0.9807  -18.4   2.012  162.0  0.0376   74.7  0.9874  -14.7
 1.020  0.9801  -18.8   2.013  161.6  0.0384   74.4  0.9869  -15.0
 1.040  0.9796  -19.2   2.015  161.2  0.0391   74.0  0.9865  -15.3
 1.060  0.9791  -19.5   2.016  160.9  0.0399   73.7  0.9861  -15.6
 1.080  0.9786  -19.9   2.017  160.5  0.0406   73.4  0.9857  -15.9
 1.100  0.9782  -20.3   2.019  160.1  0.0414   73.1  0.9853  -16.2
 1.120  0.9776  -20.7   2.020  159.7  0.0421   72.7  0.9847  -16.5
 1.140  0.9771  -21.1   2.021  159.3  0.0429   72.4  0.9842  -16.8
 1.160  0.9766  -21.4   2.022  159.0  0.0436   72.0  0.9837  -17.1
 1.180  0.9761  -21.8   2.023  158.6  0.0444   71.7  0.9832  -17.4
 1.200  0.9757  -22.2   2.024  158.2  0.0451   71.4  0.9827  -17.7
 1.220  0.9750  -22.6   2.025  157.8  0.0459   71.0  0.9821  -18.0
 1.240  0.9744  -23.0   2.026  157.4  0.0467   70.6  0.9816  -18.3
 1.260  0.9738  -23.4   2.027  156.9  0.0474   70.3  0.9811  -18.7
 1.280  0.9733  -23.8   2.029  156.5  0.0482   69.9  0.9806  -19.0
 1.300  0.9728  -24.2   2.030  156.1  0.0490   69.6  0.9802  -19.3
 1.320  0.9721  -24.6   2.030  155.7  0.0497   69.2  0.9795  -19.6
 1.340  0.9715  -25.0   2.030  155.3  0.0505   68.9  0.9789  -19.9
 1.360  0.9709  -25.3   2.030  154.9  0.0512   68.6  0.9782  -20.3
 1.380  0.9703  -25.7   2.031  154.5  0.0520   68.2  0.9777  -20.6
 1.400  0.9698  -26.1   2.031  154.1  0.0527   67.9  0.9771  -20.9
 1.420  0.9690  -26.5   2.032  153.7  0.0535   67.5  0.9764  -21.2
 1.440  0.9683  -26.9   2.033  153.3  0.0542   67.1  0.9757  -21.5
 1.460  0.9676  -27.3   2.034  152.9  0.0550   66.8  0.9750  -21.9
 1.480  0.9670  -27.7   2.036  152.5  0.0557   66.4  0.9744  -22.2
 1.500  0.9664  -28.1   2.037  152.1  0.0565   66.1  0.9738  -22.5
 1.520  0.9658  -28.5   2.039  151.7  0.0572   65.7  0.9731  -22.8
 1.540  0.9652  -28.9   2.041  151.3  0.0579   65.4  0.9725  -23.1
 1.560  0.9646  -29.3   2.043  150.9  0.0587   65.1  0.9719  -23.4
 1.580  0.9641  -29.7   2.046  150.5  0.0594   64.7  0.9713  -23.7
 1.600  0.9637  -30.1   2.048  150.1  0.0601   64.4  0.9708  -24.0
 1.620  0.9628  -30.5   2.051  149.7  0.0608   64.0  0.9700  -24.3
 1.640  0.9619  -30.9   2.053  149.2  0.0616   63.6  0.9692  -24.7
 1.660  0.9610  -31.4   2.056  148.8  0.0623   63.2  0.9684  -25.0
 1.680  0.9602  -31.8   2.059  148.3  0.0631   62.9  0.9677  -25.4
 1.700  0.9595  -32.2   2.062  147.9  0.0638   62.5  0.9670  -25.7
 1.720  0.9588  -32.6   2.061  147.5  0.0645   62.1  0.9663  -26.0
 1.740  0.9582  -33.0   2.059  147.1  0.0653   61.7  0.9657  -26.3
 1.760  0.9577  -33.4   2.058  146.6  0.0660   61.3  0.9651  -26.7
 1.780  0.9572  -33.8   2.057  146.2  0.0668   61.0  0.9645  -27.0
 1.800  0.9567  -34.2   2.056  145.8  0.0675   60.6  0.9640  -27.3
 1.820  0.9557  -34.6   2.055  145.4  0.0682   60.2  0.9632  -27.6
 1.840  0.9548  -35.0   2.054  145.0  0.0689   59.9  0.9624  -27.9
 1.860  0.9539  -35.4   2.053  144.5  0.0696   59.5  0.9616  -28.3
 1.880  0.9530  -35.8   2.053  144.1  0.0703   59.1  0.9609  -28.6
 1.900  0.9522  -36.2   2.052  143.7  0.0710   58.8  0.9602  -28.9
 1.920  0.9515  -36.6   2.051  143.3  0.0717   58.4  0.9593  -29.2
 1.940  0.9509  -37.0   2.050  142.9  0.0724   58.1  0.9585  -29.5
 1.960  0.9503  -37.3   2.049  142.5  0.0730   57.7  0.9577  -29.8
 1.980  0.9498  -37.7   2.049  142.1  0.0737   57.3  0.9569  -30.1
 2.000  0.9493  -38.1   2.048  141.7  0.0744   57.0  0.9561  -30.4
 2.020  0.9484  -38.5   2.047  141.3  0.0751   56.6  0.9553  -30.7
 2.040  0.9475  -38.9   2.046  140.8  0.0757   56.2  0.9545  -31.0
 2.060  0.9467  -39.3   2.045  140.4  0.0764   55.8  0.9537  -31.4
 2.080  0.9459  -39.7   2.044  140.0  0.0770   55.4  0.9530  -31.7
 2.100  0.9451  -40.0   2.043  139.6  0.0777   55.0  0.9523  -32.0
 2.120  0.9444  -40.4   2.042  139.1  0.0784   54.6  0.9516  -32.3
 2.140  0.9437  -40.8   2.042  138.7  0.0791   54.3  0.9510  -32.6
 2.160  0.9431  -41.2   2.041  138.3  0.0797   53.9  0.9503  -33.0
 2.180  0.9425  -41.6   2.041  137.8  0.0804   53.6  0.9498  -33.3
 2.200  0.9420  -42.0   2.041  137.4  0.0811   53.2  0.9492  -33.6
 2.220  0.9411  -42.4   2.038  137.0  0.0817   52.8  0.9484  -33.9
 2.240  0.9403  -42.8   2.035  136.6  0.0824   52.4  0.9476  -34.2
 2.260  0.9395  -43.1   2.032  136.2  0.0830   52.0  0.9468  -34.5
 2.280  0.9387  -43.5   2.030  135.8  0.0836   51.7  0.9461  -34.8
 2.300  0.9380  -43.9   2.027  135.4  0.0843   51.3  0.9454  -35.1
 2.320  0.9374  -44.3   2.025  135.0  0.0849   50.9  0.9447  -35.5
 2.340  0.9367  -44.7   2.022  134.5  0.0855   50.6  0.9440  -35.8
 2.360  0.9361  -45.0   2.020  134.1  0.0862   50.2  0.9434  -36.1
 2.380  0.9356  -45.4   2.018  133.7  0.0868   49.8  0.9428  -36.4
 2.400  0.9351  -45.8   2.016  133.3  0.0875   49.5  0.9422  -36.7
 2.420  0.9342  -46.2   2.014  132.9  0.0881   49.1  0.9413  -37.0
 2.440  0.9334  -46.6   2.012  132.5  0.0886   48.7  0.9405  -37.3
 2.460  0.9326  -46.9   2.010  132.1  0.0892   48.3  0.9397  -37.6
 2.480  0.9318  -47.3   2.008  131.7  0.0898   48.0  0.9389  -37.9
 2.500  0.9311  -47.7   2.006  131.3  0.0904   47.6  0.9381  -38.1
 2.520  0.9305  -48.1   2.004  130.8  0.0909   47.2  0.9374  -38.4
 2.540  0.9298  -48.5   2.002  130.4  0.0915   46.9  0.9367  -38.7
 2.560  0.9293  -48.8   2.001  130.0  0.0921   46.5  0.9360  -39.0
 2.580  0.9287  -49.2   1.999  129.6  0.0927   46.1  0.9353  -39.3
 2.600  0.9282  -49.6   1.998  129.2  0.0933   45.8  0.9347  -39.6
 2.620  0.9274  -50.0   1.996  128.8  0.0938   45.4  0.9337  -39.9
 2.640  0.9266  -50.3   1.993  128.4  0.0944   45.1  0.9328  -40.2
 2.660  0.9259  -50.7   1.991  128.0  0.0949   44.7  0.9319  -40.5
 2.680  0.9252  -51.1   1.989  127.6  0.0954   44.4  0.9310  -40.8
 2.700  0.9246  -51.4   1.987  127.2  0.0960   44.0  0.9302  -41.0
 2.720  0.9240  -51.8   1.985  126.8  0.0965   43.7  0.9293  -41.3
 2.740  0.9234  -52.2   1.984  126.4  0.0970   43.3  0.9285  -41.6
 2.760  0.9229  -52.6   1.982  126.0  0.0976   43.0  0.9277  -41.9
 2.780  0.9224  -52.9   1.980  125.6  0.0981   42.6  0.9269  -42.2
 2.800  0.9219  -53.3   1.979  125.2  0.0987   42.3  0.9262  -42.5
 2.820  0.9212  -53.7   1.976  124.8  0.0992   42.0  0.9255  -42.8
 2.840  0.9206  -54.0   1.972  124.4  0.0997   41.6  0.9249  -43.0
 2.860  0.9200  -54.4   1.969  124.1  0.1003   41.3  0.9242  -43.3
 2.880  0.9194  -54.7   1.966  123.7  0.1008   40.9  0.9236  -43.6
 2.900  0.9189  -55.1   1.963  123.3  0.1013   40.6  0.9230  -43.8
 2.920  0.9184  -55.5   1.960  122.9  0.1018   40.3  0.9224  -44.1
 2.940  0.9179  -55.8   1.957  122.6  0.1024   40.0  0.9219  -44.4
 2.960  0.9175  -56.2   1.954  122.2  0.1029   39.6  0.9213  -44.7
 2.980  0.9171  -56.5   1.952  121.8  0.1035   39.3  0.9208  -44.9
 3.000  0.9168  -56.9   1.949  121.4  0.1040   39.0  0.9203  -45.2
 3.100  0.9120  -58.5   1.933  119.5  0.1060   37.2  0.9158  -46.4
 3.200  0.9080  -60.2   1.918  117.6  0.1081   35.5  0.9117  -47.6
 3.300  0.9047  -61.8   1.906  115.7  0.1103   33.8  0.9080  -48.8
 3.400  0.9021  -63.5   1.897  113.7  0.1126   32.2  0.9047  -50.1
 3.500  0.9004  -65.2   1.889  111.7  0.1150   30.7  0.9019  -51.3
 3.600  0.8964  -66.7   1.870  110.0  0.1166   29.1  0.8979  -52.3
 3.700  0.8930  -68.1   1.852  108.3  0.1184   27.5  0.8942  -53.3
 3.800  0.8901  -69.6   1.836  106.6  0.1202   26.0  0.8908  -54.3
 3.900  0.8879  -71.1   1.822  104.8  0.1221   24.5  0.8877  -55.3
 4.000  0.8863  -72.6   1.809  103.0  0.1241   23.1  0.8848  -56.3
 4.100  0.8831  -74.0   1.793  101.4  0.1255   21.7  0.8813  -57.2
 4.200  0.8804  -75.3   1.779   99.8  0.1270   20.2  0.8781  -58.0
 4.300  0.8783  -76.7   1.766   98.1  0.1285   18.9  0.8751  -58.9
 4.400  0.8766  -78.1   1.755   96.5  0.1301   17.5  0.8722  -59.8
 4.500  0.8755  -79.5   1.745   94.8  0.1318   16.2  0.8696  -60.7
 4.600  0.8723  -80.8   1.734   93.3  0.1330   14.7  0.8658  -61.6
 4.700  0.8696  -82.1   1.724   91.8  0.1342   13.3  0.8622  -62.5
 4.800  0.8673  -83.4   1.715   90.2  0.1356   11.9  0.8589  -63.4
 4.900  0.8655  -84.8   1.707   88.7  0.1370   10.5  0.8557  -64.4
 5.000  0.8641  -86.1   1.701   87.1  0.1385    9.2  0.8528  -65.3
 5.100  0.8600  -87.3   1.689   85.6  0.1396    7.9  0.8489  -66.2
 5.200  0.8563  -88.5   1.679   84.0  0.1407    6.5  0.8451  -67.0
 5.300  0.8530  -89.7   1.670   82.4  0.1419    5.2  0.8416  -67.9
 5.400  0.8501  -91.0   1.662   80.8  0.1432    4.0  0.8382  -68.8
 5.500  0.8476  -92.2   1.656   79.2  0.1446    2.7  0.8351  -69.7
 5.600  0.8443  -93.4   1.647   77.7  0.1455    1.4  0.8314  -70.7
 5.700  0.8414  -94.6   1.639   76.2  0.1464    0.1  0.8280  -71.6
 5.800  0.8389  -95.8   1.633   74.6  0.1474   -1.2  0.8248  -72.6
 5.900  0.8368  -97.1   1.627   73.1  0.1485   -2.5  0.8218  -73.6
 6.000  0.8350  -98.3   1.623   71.5  0.1497   -3.7  0.8191  -74.6
 6.100  0.8297  -99.8   1.620   69.9  0.1506   -5.1  0.8147  -75.8
 6.200  0.8250 -101.4   1.617   68.3  0.1516   -6.5  0.8107  -77.0
 6.300  0.8209 -102.9   1.616   66.8  0.1526   -7.8  0.8070  -78.2
 6.400  0.8174 -104.5   1.617   65.2  0.1538   -9.2  0.8037  -79.5
 6.500  0.8146 -106.1   1.618   63.6  0.1550  -10.5  0.8008  -80.7
 6.600  0.8062 -107.9   1.612   61.9  0.1557  -12.0  0.7942  -82.1
 6.800  0.7921 -111.7   1.605   58.5  0.1573  -14.9  0.7823  -84.9
 7.000  0.7815 -115.6   1.604   55.0  0.1593  -17.8  0.7724  -87.8
 7.200  0.7605 -120.4   1.591   51.5  0.1598  -20.9  0.7530  -91.2
 7.400  0.7451 -125.3   1.584   47.9  0.1607  -23.9  0.7364  -94.8
 7.600  0.7288 -130.8   1.577   44.3  0.1615  -27.0  0.7193  -98.6
 7.800  0.7133 -136.9   1.570   40.5  0.1622  -30.2  0.7022 -102.6
 8.000  0.7061 -143.2   1.570   36.8  0.1634  -33.4  0.6888 -106.9
 8.200  0.6884 -151.0   1.555   32.6  0.1624  -37.1  0.6671 -112.4
 8.400  0.6841 -159.2   1.547   28.4  0.1621  -40.8  0.6520 -118.3
 8.600  0.6793 -167.7   1.527   24.1  0.1604  -44.5  0.6340 -124.6
 8.800  0.6766 -176.9   1.494   19.5  0.1572  -48.6  0.6146 -131.7
 9.000  0.6912  174.1   1.471   14.8  0.1549  -52.7  0.6051 -139.1
 9.200  0.6898  168.6   1.420   10.7  0.1497  -56.2  0.5857 -146.1
 9.400  0.6946  163.2   1.377    6.4  0.1451  -59.9  0.5756 -153.5
 9.600  0.7026  158.2   1.331    2.3  0.1399  -63.3  0.5701 -160.8
 9.800  0.7122  153.7   1.283   -1.6  0.1340  -66.5  0.5682 -167.8
10.000  0.7260  149.4   1.240   -5.8  0.1285  -69.9  0.5749 -174.8
!
!  f       NFmin   Gammaopt  rn/50
! GHz       dB    MAG  ANG    -
 0.450      0.54  0.90    6   0.96
 0.900      0.77  0.88   13   1.01
 2.400      1.03  0.86   32   0.70
 5.500      1.54  0.73   97   0.46
!
! (c) 2016  Infineon Technologies AG, Munich
