! Infineon Technologies  Discrete & RF Semiconductors
! BFP780
! VCE =  1.0 V,  IC =  10 mA
! Common Emitter S-Parameters:                            Jul 2015
# GHz  S  MA  R  50
!  f         S11            S21            S12            S22
! GHz     MAG   ANG      MAG   ANG      MAG   ANG      MAG   ANG
 0.030  0.8365  -17.7  28.315  170.1  0.0108   81.6  0.9864  -13.1
 0.040  0.8335  -23.4  28.071  166.8  0.0146   77.3  0.9776  -17.6
 0.050  0.8281  -29.1  27.954  163.4  0.0197   77.5  0.9732  -21.9
 0.060  0.8297  -34.3  27.455  160.6  0.0210   72.7  0.9559  -25.8
 0.070  0.8242  -39.7  26.974  157.5  0.0263   67.1  0.9459  -30.0
 0.080  0.8222  -45.0  26.610  154.6  0.0291   64.3  0.9327  -34.0
 0.090  0.8188  -49.9  25.993  151.9  0.0313   61.7  0.9170  -37.7
 0.100  0.8175  -54.6  25.365  149.4  0.0343   60.7  0.9029  -41.4
 0.110  0.8140  -59.4  24.872  146.7  0.0367   58.2  0.8862  -45.5
 0.120  0.8126  -63.9  24.320  144.3  0.0391   55.6  0.8714  -48.8
 0.130  0.8114  -68.1  23.738  142.1  0.0408   53.8  0.8532  -52.1
 0.140  0.8081  -72.5  23.248  139.7  0.0433   50.8  0.8359  -55.6
 0.150  0.8053  -76.3  22.699  137.6  0.0454   50.1  0.8215  -58.5
 0.200  0.7992  -93.6  20.015  128.2  0.0525   40.5  0.7469  -72.8
 0.250  0.7900 -107.1  17.641  120.5  0.0580   33.8  0.6875  -84.3
 0.300  0.7839 -118.1  15.603  114.2  0.0615   28.2  0.6375  -94.4
 0.350  0.7797 -126.9  13.919  109.0  0.0635   23.9  0.5982 -102.8
 0.400  0.7763 -133.9  12.481  104.7  0.0652   20.5  0.5687 -109.8
 0.450  0.7738 -139.8  11.325  100.8  0.0661   17.1  0.5461 -116.2
 0.500  0.7706 -144.9  10.324   97.5  0.0672   14.3  0.5264 -121.3
 0.600  0.7695 -153.1   8.751   91.8  0.0681   10.3  0.5007 -130.5
 0.700  0.7660 -159.6   7.573   86.8  0.0683    6.6  0.4828 -137.7
 0.800  0.7677 -164.6   6.652   82.7  0.0683    4.0  0.4736 -143.5
 0.900  0.7668 -169.1   5.929   78.8  0.0683    1.2  0.4663 -148.6
 1.000  0.7698 -172.9   5.347   75.2  0.0678   -0.7  0.4665 -152.9
 1.100  0.7690 -176.2   4.847   71.7  0.0675   -2.7  0.4647 -156.7
 1.200  0.7735 -179.2   4.444   68.5  0.0673   -4.5  0.4679 -159.7
 1.300  0.7728  178.0   4.088   65.4  0.0668   -6.1  0.4688 -162.5
 1.400  0.7757  175.4   3.792   62.3  0.0662   -7.7  0.4742 -165.2
 1.500  0.7759  173.0   3.530   59.5  0.0655   -9.2  0.4782 -167.7
 1.600  0.7798  170.7   3.298   56.5  0.0651  -10.6  0.4845 -169.9
 1.700  0.7802  168.4   3.095   53.7  0.0644  -11.8  0.4906 -172.2
 1.800  0.7814  166.3   2.908   50.8  0.0634  -13.2  0.4981 -174.3
 1.900  0.7831  164.3   2.741   48.3  0.0625  -14.3  0.5051 -176.4
 2.000  0.7873  162.4   2.596   45.5  0.0618  -15.3  0.5125 -178.2
 2.100  0.7880  160.6   2.451   42.8  0.0603  -16.3  0.5150 -179.5
 2.200  0.7887  158.7   2.324   40.1  0.0595  -17.9  0.5210  178.8
 2.300  0.7908  157.0   2.212   37.6  0.0584  -18.5  0.5269  176.9
 2.400  0.7941  155.1   2.112   35.0  0.0572  -19.1  0.5335  175.0
 2.500  0.7960  153.4   2.014   32.4  0.0563  -19.8  0.5405  173.1
 2.600  0.7972  151.5   1.917   29.8  0.0553  -20.4  0.5472  171.3
 2.700  0.7978  149.8   1.828   27.3  0.0540  -21.1  0.5536  169.6
 2.800  0.8009  148.1   1.751   24.8  0.0529  -21.5  0.5611  167.9
 2.900  0.8026  146.3   1.675   22.4  0.0519  -21.8  0.5693  166.0
 3.000  0.8049  144.6   1.606   19.9  0.0507  -22.2  0.5772  164.2
 3.100  0.8068  143.1   1.534   17.5  0.0497  -22.1  0.5847  162.5
 3.200  0.8084  141.5   1.472   15.2  0.0487  -22.3  0.5922  160.7
 3.300  0.8100  139.9   1.412   12.9  0.0476  -21.9  0.6006  159.1
 3.400  0.8123  138.4   1.356   10.7  0.0468  -21.8  0.6085  157.5
 3.500  0.8144  137.0   1.301    8.5  0.0457  -21.7  0.6166  155.9
 3.600  0.8158  135.3   1.247    6.2  0.0449  -21.3  0.6244  154.4
 3.700  0.8182  134.0   1.200    4.0  0.0442  -20.7  0.6316  152.8
 3.800  0.8199  132.4   1.153    1.9  0.0433  -19.9  0.6395  151.1
 3.900  0.8225  131.1   1.111   -0.0  0.0426  -19.5  0.6473  149.7
 4.000  0.8251  129.6   1.069   -2.0  0.0421  -18.8  0.6550  148.2
 4.100  0.8279  128.2   1.029   -4.2  0.0414  -17.7  0.6627  146.9
 4.200  0.8304  126.9   0.993   -6.1  0.0413  -16.6  0.6701  145.4
 4.300  0.8330  125.5   0.959   -8.1  0.0408  -15.5  0.6775  144.1
 4.400  0.8361  124.3   0.927   -9.8  0.0407  -14.6  0.6852  142.7
 4.500  0.8383  123.0   0.894  -11.8  0.0405  -13.9  0.6918  141.4
 4.600  0.8416  121.8   0.861  -13.7  0.0403  -12.8  0.6989  140.1
 4.700  0.8434  120.5   0.833  -15.5  0.0403  -11.9  0.7046  138.7
 4.800  0.8460  119.4   0.806  -17.2  0.0405  -10.7  0.7109  137.4
 4.900  0.8479  118.4   0.778  -18.9  0.0406   -9.8  0.7165  136.1
 5.000  0.8501  117.2   0.754  -20.7  0.0408   -9.3  0.7227  134.9
 5.100  0.8525  116.2   0.732  -22.3  0.0412   -8.0  0.7273  133.5
 5.200  0.8535  115.1   0.707  -24.1  0.0414   -7.4  0.7328  132.2
 5.300  0.8549  114.2   0.684  -25.8  0.0419   -6.3  0.7367  130.9
 5.400  0.8567  113.1   0.662  -27.4  0.0423   -5.5  0.7418  129.7
 5.500  0.8568  112.3   0.642  -28.8  0.0427   -4.8  0.7451  128.4
 5.600  0.8576  111.5   0.623  -30.3  0.0433   -4.3  0.7504  127.2
 5.700  0.8574  110.5   0.607  -31.8  0.0440   -3.6  0.7537  125.8
 5.800  0.8584  109.5   0.587  -33.4  0.0448   -3.0  0.7578  124.5
 5.900  0.8578  108.7   0.571  -34.8  0.0458   -2.6  0.7617  123.3
 6.000  0.8586  107.7   0.553  -36.3  0.0466   -2.5  0.7659  121.9
!
!  f       NFmin   Gammaopt  rn/50
! GHz       dB    MAG  ANG    -
 0.450      0.78  0.21   99   0.08
 0.900      0.87  0.24  126   0.11
 1.500      1.06  0.36  157   0.06
 1.800      1.29  0.44  173   0.06
 2.400      1.55  0.52 -176   0.07
 3.000      1.98  0.57 -157   0.12
 3.500      2.67  0.62 -142   0.24
!
! (c) 2015  Infineon Technologies AG, Munich
