! Infineon Technologies  Discrete & RF Semiconductors
! BFP740F
! VCE =  4.0 V,  IC =  40 mA
! Common Emitter S-Parameters:                            Oct 2012
# GHz  S  MA  R  50
!  f         S11            S21            S12            S22
! GHz     MAG   ANG      MAG   ANG      MAG   ANG      MAG   ANG
 0.030  0.5700   -5.9  63.302  175.0  0.0010   57.1  0.9502   -1.7
 0.040  0.5721   -7.8  63.135  173.6  0.0018   73.5  0.9547   -2.8
 0.050  0.5721   -9.7  63.150  172.4  0.0019   73.5  0.9546   -4.1
 0.060  0.5730  -11.9  62.860  171.0  0.0028   80.6  0.9568   -5.3
 0.070  0.5726  -13.9  62.616  169.6  0.0034   80.5  0.9566   -6.6
 0.080  0.5720  -15.9  62.123  168.3  0.0038   73.3  0.9523   -7.8
 0.090  0.5712  -17.8  61.665  166.9  0.0041   72.2  0.9501   -8.9
 0.100  0.5705  -19.7  61.131  165.6  0.0041   70.8  0.9453   -9.9
 0.110  0.5707  -21.6  60.525  164.4  0.0045   72.2  0.9419  -11.0
 0.120  0.5687  -23.6  59.994  163.2  0.0050   74.2  0.9377  -12.1
 0.130  0.5685  -25.4  59.381  162.1  0.0054   74.2  0.9325  -13.1
 0.140  0.5682  -27.2  58.832  161.0  0.0059   76.1  0.9272  -14.1
 0.150  0.5675  -29.1  58.369  159.9  0.0060   72.7  0.9225  -15.0
 0.200  0.5682  -37.8  55.589  155.1  0.0080   71.1  0.8975  -19.5
 0.250  0.5689  -46.1  53.132  150.9  0.0094   67.5  0.8705  -23.6
 0.300  0.5711  -53.8  50.730  147.2  0.0112   66.7  0.8441  -27.5
 0.350  0.5735  -61.4  48.535  143.7  0.0130   63.8  0.8166  -31.1
 0.400  0.5780  -68.3  46.630  140.4  0.0141   60.9  0.7893  -34.6
 0.450  0.5826  -74.8  44.756  137.4  0.0155   59.1  0.7636  -37.9
 0.500  0.5861  -80.9  42.990  134.5  0.0166   56.7  0.7360  -41.0
 0.600  0.5942  -92.2  39.766  129.1  0.0187   52.4  0.6837  -46.9
 0.700  0.6019 -101.9  36.785  124.2  0.0204   49.1  0.6348  -52.1
 0.800  0.6096 -110.4  34.102  119.8  0.0217   46.2  0.5886  -56.9
 0.900  0.6149 -118.0  31.693  115.8  0.0231   43.5  0.5459  -61.2
 1.000  0.6206 -124.5  29.496  112.3  0.0239   41.4  0.5082  -65.2
 1.100  0.6246 -130.3  27.529  109.0  0.0247   39.4  0.4734  -68.8
 1.200  0.6293 -135.4  25.758  106.0  0.0253   38.0  0.4436  -72.3
 1.300  0.6325 -140.1  24.174  103.3  0.0259   36.9  0.4161  -75.4
 1.400  0.6363 -144.1  22.747  100.8  0.0265   35.6  0.3932  -78.4
 1.500  0.6387 -147.9  21.464   98.5  0.0268   34.9  0.3718  -81.3
 1.600  0.6422 -151.2  20.312   96.4  0.0272   34.1  0.3547  -84.0
 1.700  0.6448 -154.3  19.257   94.3  0.0276   33.6  0.3373  -86.7
 1.800  0.6485 -157.1  18.312   92.3  0.0281   33.1  0.3244  -89.5
 1.900  0.6510 -159.8  17.440   90.5  0.0284   32.6  0.3114  -92.0
 2.000  0.6536 -162.2  16.646   88.7  0.0288   32.6  0.3017  -94.6
 2.100  0.6570 -164.5  15.873   86.9  0.0291   32.1  0.2937  -97.4
 2.200  0.6584 -166.5  15.188   85.4  0.0293   32.0  0.2864  -99.7
 2.300  0.6597 -168.5  14.558   83.8  0.0297   31.9  0.2794 -101.8
 2.400  0.6606 -170.3  13.970   82.4  0.0300   31.8  0.2746 -103.9
 2.500  0.6622 -172.1  13.434   81.0  0.0303   32.0  0.2693 -105.8
 2.600  0.6631 -173.8  12.935   79.6  0.0306   31.9  0.2657 -107.5
 2.700  0.6641 -175.3  12.468   78.2  0.0309   32.1  0.2618 -109.2
 2.800  0.6650 -176.8  12.038   76.9  0.0312   32.0  0.2595 -110.8
 2.900  0.6662 -178.3  11.625   75.6  0.0315   32.1  0.2569 -112.4
 3.000  0.6667 -179.7  11.253   74.3  0.0318   32.0  0.2548 -114.0
 3.100  0.6673  178.9  10.893   73.1  0.0323   32.3  0.2534 -115.3
 3.200  0.6677  177.5  10.558   71.9  0.0326   32.1  0.2523 -116.5
 3.300  0.6686  176.2  10.241   70.7  0.0329   32.4  0.2511 -117.7
 3.400  0.6691  174.8   9.945   69.5  0.0334   32.5  0.2505 -118.8
 3.500  0.6696  173.6   9.657   68.4  0.0336   32.6  0.2492 -119.7
 3.600  0.6700  172.3   9.394   67.2  0.0341   32.5  0.2485 -120.6
 3.700  0.6709  171.1   9.145   66.1  0.0342   32.9  0.2467 -121.5
 3.800  0.6714  169.8   8.900   65.0  0.0348   33.1  0.2454 -122.5
 3.900  0.6721  168.7   8.675   63.8  0.0351   33.2  0.2442 -123.3
 4.000  0.6722  167.5   8.451   62.7  0.0356   33.2  0.2431 -124.3
 4.100  0.6738  166.4   8.250   61.6  0.0359   33.3  0.2416 -125.2
 4.200  0.6738  165.2   8.048   60.6  0.0363   33.5  0.2403 -126.1
 4.300  0.6750  164.1   7.859   59.5  0.0367   33.4  0.2389 -127.0
 4.400  0.6758  163.0   7.675   58.4  0.0372   33.5  0.2378 -128.0
 4.500  0.6767  161.9   7.503   57.3  0.0376   33.5  0.2366 -128.8
 4.600  0.6782  160.8   7.339   56.3  0.0380   33.6  0.2348 -129.8
 4.700  0.6790  159.8   7.176   55.2  0.0384   33.7  0.2337 -130.9
 4.800  0.6807  158.8   7.026   54.2  0.0388   33.7  0.2325 -131.8
 4.900  0.6813  157.8   6.874   53.1  0.0391   33.7  0.2310 -132.9
 5.000  0.6827  156.8   6.734   52.1  0.0398   33.8  0.2295 -133.9
 5.100  0.6842  155.9   6.599   51.1  0.0402   33.8  0.2283 -135.0
 5.200  0.6849  154.9   6.473   50.1  0.0406   33.9  0.2272 -136.0
 5.300  0.6858  153.9   6.348   49.0  0.0410   33.8  0.2257 -137.1
 5.400  0.6868  153.0   6.227   48.0  0.0415   33.8  0.2246 -138.2
 5.500  0.6875  152.1   6.109   47.0  0.0419   33.8  0.2240 -139.2
 5.600  0.6877  151.2   5.995   46.0  0.0424   33.7  0.2223 -140.0
 5.700  0.6888  150.2   5.888   44.9  0.0428   33.7  0.2206 -141.4
 5.800  0.6893  149.2   5.785   43.9  0.0432   33.7  0.2200 -142.4
 5.900  0.6897  148.3   5.681   42.9  0.0435   33.7  0.2182 -143.4
 6.000  0.6908  147.2   5.584   41.8  0.0441   33.7  0.2164 -144.6
 6.100  0.6910  146.3   5.484   40.7  0.0445   33.7  0.2149 -145.9
 6.200  0.6913  145.2   5.395   39.6  0.0449   33.7  0.2135 -147.0
 6.300  0.6908  144.2   5.294   38.7  0.0452   33.7  0.2112 -148.2
 6.400  0.6904  143.1   5.207   37.6  0.0456   33.8  0.2098 -149.2
 6.500  0.6903  142.0   5.114   36.5  0.0460   33.7  0.2075 -150.4
 6.600  0.6900  140.9   5.027   35.5  0.0465   33.8  0.2053 -151.4
 6.700  0.6893  139.8   4.935   34.5  0.0469   34.0  0.2025 -152.6
 6.800  0.6893  138.7   4.853   33.4  0.0475   34.0  0.2000 -153.7
 6.900  0.6886  137.6   4.769   32.4  0.0480   34.2  0.1969 -154.9
 7.000  0.6888  136.5   4.690   31.4  0.0487   34.2  0.1939 -156.1
 7.100  0.6885  135.5   4.609   30.5  0.0495   34.4  0.1906 -157.8
 7.200  0.6891  134.4   4.535   29.5  0.0502   34.4  0.1888 -159.3
 7.300  0.6900  133.3   4.457   28.5  0.0511   34.4  0.1867 -160.9
 7.400  0.6915  132.3   4.390   27.5  0.0519   34.2  0.1847 -162.9
 7.500  0.6934  131.5   4.321   26.6  0.0527   34.1  0.1837 -164.9
 7.600  0.6958  130.4   4.253   25.6  0.0536   33.7  0.1825 -167.1
 7.700  0.6984  129.6   4.184   24.7  0.0543   33.4  0.1812 -169.8
 7.800  0.7025  128.5   4.124   23.6  0.0552   32.9  0.1814 -172.7
 7.900  0.7055  127.7   4.057   22.7  0.0559   32.5  0.1813 -175.6
 8.000  0.7106  126.7   3.995   21.7  0.0566   32.0  0.1822 -178.9
 8.500  0.7362  123.0   3.695   16.7  0.0593   29.4  0.1970  164.2
 9.000  0.7617  120.0   3.418   12.0  0.0614   27.0  0.2308  148.6
 9.500  0.7834  118.2   3.161    7.4  0.0630   25.0  0.2801  137.5
10.000  0.8031  115.6   2.923    3.0  0.0644   23.1  0.3375  130.1
!
!  f       NFmin   Gammaopt  rn/50
! GHz       dB    MAG  ANG    -
!
! noise parameter not available yet for this operation point!
!
! (c) 2012  Infineon Technologies AG, Munich
