! Infineon Technologies  Discrete & RF Semiconductors
! BFP750
! VCE =  4.0 V,  IC =  20 mA
! Common Emitter S-Parameters:                            Jan 2016
# GHz  S  MA  R  50
!  f         S11            S21            S12            S22
! GHz     MAG   ANG      MAG   ANG      MAG   ANG      MAG   ANG
 0.030  0.8037   -8.7  42.608  174.8  0.0042   70.0  0.9631   -6.3
 0.035  0.8034  -10.2  42.580  174.0  0.0049   71.6  0.9624   -7.3
 0.040  0.8037  -11.7  42.561  173.1  0.0057   72.7  0.9621   -8.4
 0.045  0.8024  -13.2  42.615  172.1  0.0063   73.4  0.9616   -9.5
 0.050  0.8017  -14.7  42.682  171.1  0.0070   74.0  0.9614  -10.6
 0.055  0.8015  -16.1  42.599  170.5  0.0077   73.9  0.9601  -11.7
 0.060  0.8017  -17.4  42.521  169.9  0.0084   73.9  0.9591  -12.8
 0.065  0.8019  -19.0  42.404  169.0  0.0090   73.1  0.9568  -13.8
 0.070  0.8027  -20.6  42.298  168.1  0.0096   72.4  0.9548  -14.9
 0.075  0.8024  -22.0  42.230  167.5  0.0102   72.5  0.9532  -16.0
 0.080  0.8026  -23.5  42.167  166.9  0.0109   72.6  0.9519  -17.1
 0.085  0.8004  -24.9  41.980  166.1  0.0115   72.3  0.9495  -18.2
 0.090  0.7987  -26.3  41.803  165.2  0.0122   72.0  0.9475  -19.3
 0.095  0.7980  -27.7  41.695  164.4  0.0128   71.4  0.9448  -20.3
 0.100  0.7978  -29.1  41.595  163.6  0.0135   70.8  0.9424  -21.3
 0.105  0.7983  -30.4  41.432  162.9  0.0141   70.5  0.9397  -22.3
 0.110  0.7992  -31.7  41.277  162.1  0.0147   70.2  0.9374  -23.4
 0.115  0.7970  -33.0  41.130  161.4  0.0153   69.6  0.9345  -24.4
 0.120  0.7952  -34.4  40.991  160.6  0.0160   69.1  0.9319  -25.4
 0.125  0.7966  -35.8  40.817  159.9  0.0166   68.4  0.9289  -26.4
 0.130  0.7984  -37.2  40.650  159.2  0.0172   67.7  0.9261  -27.4
 0.135  0.7959  -38.5  40.500  158.5  0.0178   67.3  0.9227  -28.4
 0.140  0.7939  -39.9  40.357  157.7  0.0184   66.9  0.9196  -29.5
 0.145  0.7934  -41.3  40.227  156.9  0.0189   66.2  0.9163  -30.5
 0.150  0.7933  -42.7  40.104  156.1  0.0194   65.6  0.9133  -31.5
 0.155  0.7908  -44.0  39.883  155.4  0.0199   65.0  0.9085  -32.4
 0.160  0.7887  -45.2  39.667  154.7  0.0205   64.4  0.9040  -33.3
 0.165  0.7870  -46.5  39.457  154.0  0.0210   63.8  0.8997  -34.3
 0.170  0.7857  -47.8  39.253  153.3  0.0215   63.3  0.8957  -35.2
 0.175  0.7848  -49.1  39.055  152.6  0.0221   62.7  0.8919  -36.2
 0.180  0.7843  -50.4  38.863  151.9  0.0226   62.2  0.8883  -37.1
 0.185  0.7841  -51.6  38.677  151.2  0.0232   61.8  0.8850  -38.1
 0.190  0.7844  -52.9  38.497  150.5  0.0237   61.3  0.8820  -39.0
 0.195  0.7850  -54.2  38.323  149.7  0.0243   60.9  0.8791  -40.0
 0.200  0.7861  -55.5  38.156  149.0  0.0248   60.5  0.8766  -41.0
 0.220  0.7794  -60.0  37.271  146.6  0.0266   58.3  0.8583  -44.5
 0.240  0.7776  -64.5  36.455  144.1  0.0284   56.3  0.8432  -48.1
 0.260  0.7746  -69.0  35.619  141.7  0.0300   54.4  0.8273  -51.5
 0.280  0.7702  -73.3  34.752  139.3  0.0316   52.6  0.8102  -54.8
 0.300  0.7702  -77.7  33.945  136.9  0.0331   50.9  0.7958  -58.2
 0.320  0.7643  -81.4  33.040  134.9  0.0343   49.2  0.7782  -61.2
 0.340  0.7615  -85.1  32.177  132.9  0.0356   47.6  0.7628  -64.3
 0.360  0.7592  -88.7  31.345  130.9  0.0367   46.0  0.7477  -67.2
 0.380  0.7567  -92.1  30.539  128.9  0.0378   44.5  0.7325  -70.0
 0.400  0.7570  -95.6  29.770  126.9  0.0389   43.1  0.7190  -72.9
 0.420  0.7528  -98.6  28.996  125.3  0.0397   41.8  0.7045  -75.4
 0.440  0.7507 -101.7  28.246  123.6  0.0406   40.5  0.6914  -78.1
 0.450  0.7504 -103.2  27.881  122.7  0.0410   39.9  0.6854  -79.4
 0.460  0.7487 -104.6  27.521  122.0  0.0414   39.3  0.6786  -80.6
 0.480  0.7465 -107.3  26.815  120.5  0.0421   38.2  0.6660  -82.9
 0.500  0.7460 -110.1  26.129  118.9  0.0428   37.1  0.6545  -85.4
 0.520  0.7421 -112.4  25.490  117.7  0.0433   36.1  0.6424  -87.4
 0.540  0.7393 -114.7  24.863  116.5  0.0438   35.1  0.6311  -89.5
 0.560  0.7378 -117.1  24.247  115.2  0.0444   34.1  0.6207  -91.7
 0.580  0.7376 -119.4  23.645  113.8  0.0449   33.2  0.6112  -93.9
 0.600  0.7386 -121.8  23.057  112.4  0.0455   32.3  0.6027  -96.2
 0.620  0.7359 -123.7  22.537  111.4  0.0459   31.5  0.5935  -98.0
 0.640  0.7340 -125.6  22.024  110.4  0.0463   30.8  0.5848  -99.8
 0.660  0.7330 -127.5  21.519  109.3  0.0467   30.0  0.5768 -101.7
 0.680  0.7328 -129.5  21.022  108.1  0.0471   29.3  0.5694 -103.6
 0.700  0.7334 -131.4  20.534  106.9  0.0475   28.6  0.5627 -105.6
 0.720  0.7319 -133.0  20.107  106.0  0.0478   28.0  0.5556 -107.2
 0.740  0.7309 -134.6  19.684  105.1  0.0480   27.4  0.5489 -108.8
 0.760  0.7306 -136.3  19.267  104.1  0.0483   26.8  0.5427 -110.5
 0.780  0.7308 -137.9  18.856  103.1  0.0486   26.2  0.5370 -112.2
 0.800  0.7316 -139.5  18.450  102.1  0.0489   25.6  0.5317 -113.9
 0.820  0.7304 -140.9  18.094  101.4  0.0491   25.1  0.5264 -115.3
 0.840  0.7296 -142.2  17.742  100.6  0.0494   24.6  0.5213 -116.7
 0.860  0.7292 -143.6  17.393   99.8  0.0496   24.1  0.5166 -118.2
 0.880  0.7293 -144.9  17.047   99.0  0.0499   23.7  0.5123 -119.7
 0.900  0.7297 -146.3  16.705   98.1  0.0501   23.2  0.5083 -121.2
 0.920  0.7289 -147.5  16.402   97.4  0.0503   22.8  0.5041 -122.5
 0.940  0.7285 -148.7  16.102   96.7  0.0505   22.4  0.5002 -123.8
 0.960  0.7283 -150.0  15.804   95.9  0.0506   21.9  0.4965 -125.1
 0.980  0.7286 -151.2  15.510   95.1  0.0508   21.5  0.4931 -126.4
 1.000  0.7291 -152.4  15.218   94.3  0.0510   21.1  0.4900 -127.8
 1.020  0.7287 -153.4  14.971   93.7  0.0512   20.8  0.4869 -129.0
 1.040  0.7285 -154.5  14.727   93.0  0.0513   20.4  0.4839 -130.1
 1.060  0.7286 -155.5  14.484   92.4  0.0515   20.1  0.4812 -131.3
 1.080  0.7289 -156.6  14.243   91.7  0.0516   19.7  0.4786 -132.5
 1.100  0.7295 -157.6  14.004   91.0  0.0518   19.4  0.4763 -133.7
 1.120  0.7293 -158.6  13.783   90.4  0.0519   19.1  0.4739 -134.8
 1.140  0.7293 -159.6  13.564   89.8  0.0521   18.8  0.4716 -135.8
 1.160  0.7296 -160.5  13.346   89.1  0.0522   18.5  0.4695 -136.9
 1.180  0.7300 -161.5  13.130   88.5  0.0524   18.2  0.4676 -138.0
 1.200  0.7307 -162.5  12.916   87.8  0.0525   17.9  0.4658 -139.1
 1.220  0.7306 -163.4  12.731   87.3  0.0526   17.6  0.4639 -140.0
 1.240  0.7307 -164.2  12.547   86.7  0.0527   17.4  0.4621 -141.0
 1.260  0.7310 -165.1  12.364   86.1  0.0529   17.1  0.4604 -142.0
 1.280  0.7314 -165.9  12.183   85.5  0.0530   16.9  0.4588 -142.9
 1.300  0.7320 -166.8  12.003   84.9  0.0531   16.6  0.4574 -143.9
 1.320  0.7320 -167.6  11.836   84.4  0.0532   16.4  0.4559 -144.8
 1.340  0.7321 -168.4  11.671   83.8  0.0533   16.2  0.4545 -145.7
 1.360  0.7324 -169.2  11.506   83.3  0.0534   15.9  0.4533 -146.6
 1.380  0.7328 -170.0  11.342   82.7  0.0535   15.7  0.4521 -147.6
 1.400  0.7333 -170.8  11.180   82.1  0.0536   15.5  0.4511 -148.5
 1.420  0.7335 -171.5  11.038   81.6  0.0537   15.3  0.4500 -149.3
 1.440  0.7338 -172.2  10.897   81.1  0.0538   15.1  0.4489 -150.1
 1.460  0.7342 -173.0  10.757   80.6  0.0539   14.8  0.4480 -150.9
 1.480  0.7347 -173.7  10.618   80.0  0.0540   14.6  0.4472 -151.8
 1.500  0.7354 -174.4  10.480   79.5  0.0541   14.4  0.4464 -152.6
 1.520  0.7353 -175.1  10.352   79.0  0.0542   14.2  0.4455 -153.4
 1.540  0.7354 -175.8  10.224   78.5  0.0543   14.0  0.4448 -154.2
 1.560  0.7356 -176.5  10.097   78.0  0.0543   13.9  0.4441 -154.9
 1.580  0.7358 -177.2   9.971   77.5  0.0544   13.7  0.4434 -155.7
 1.600  0.7362 -177.9   9.846   77.0  0.0545   13.5  0.4429 -156.5
 1.620  0.7365 -178.5   9.733   76.5  0.0546   13.3  0.4422 -157.2
 1.640  0.7369 -179.2   9.622   76.1  0.0547   13.1  0.4415 -157.9
 1.660  0.7374 -179.8   9.510   75.6  0.0548   13.0  0.4410 -158.7
 1.680  0.7379  179.5   9.400   75.1  0.0549   12.8  0.4404 -159.4
 1.700  0.7386  178.9   9.290   74.6  0.0550   12.6  0.4400 -160.1
 1.720  0.7388  178.3   9.185   74.1  0.0551   12.4  0.4395 -160.8
 1.740  0.7391  177.7   9.081   73.7  0.0552   12.3  0.4390 -161.5
 1.760  0.7394  177.1   8.977   73.2  0.0552   12.1  0.4386 -162.1
 1.780  0.7399  176.5   8.874   72.7  0.0553   12.0  0.4382 -162.8
 1.800  0.7404  175.9   8.772   72.2  0.0554   11.8  0.4379 -163.5
 1.820  0.7407  175.3   8.678   71.8  0.0555   11.6  0.4375 -164.2
 1.840  0.7410  174.8   8.585   71.3  0.0556   11.5  0.4371 -164.8
 1.860  0.7414  174.2   8.492   70.9  0.0556   11.3  0.4368 -165.5
 1.880  0.7419  173.7   8.400   70.4  0.0557   11.2  0.4366 -166.1
 1.900  0.7424  173.1   8.308   69.9  0.0558   11.0  0.4364 -166.8
 1.920  0.7425  172.6   8.225   69.5  0.0559   10.9  0.4360 -167.4
 1.940  0.7427  172.0   8.142   69.0  0.0560   10.7  0.4357 -168.0
 1.960  0.7429  171.5   8.059   68.6  0.0560   10.6  0.4354 -168.7
 1.980  0.7432  170.9   7.977   68.2  0.0561   10.4  0.4352 -169.3
 2.000  0.7436  170.4   7.896   67.7  0.0562   10.3  0.4350 -169.9
 2.020  0.7436  169.9   7.821   67.3  0.0563   10.2  0.4346 -170.5
 2.040  0.7436  169.3   7.746   66.9  0.0563   10.0  0.4342 -171.1
 2.060  0.7437  168.8   7.671   66.4  0.0564    9.9  0.4339 -171.7
 2.080  0.7439  168.3   7.597   66.0  0.0564    9.7  0.4337 -172.3
 2.100  0.7441  167.7   7.523   65.6  0.0565    9.6  0.4335 -172.9
 2.120  0.7444  167.2   7.450   65.1  0.0566    9.5  0.4333 -173.5
 2.140  0.7448  166.7   7.377   64.6  0.0566    9.3  0.4332 -174.1
 2.160  0.7452  166.2   7.305   64.2  0.0567    9.2  0.4331 -174.7
 2.180  0.7457  165.6   7.233   63.7  0.0567    9.0  0.4331 -175.3
 2.200  0.7462  165.1   7.162   63.2  0.0568    8.9  0.4331 -175.9
 2.220  0.7462  164.6   7.097   62.8  0.0569    8.8  0.4329 -176.5
 2.240  0.7462  164.1   7.033   62.5  0.0569    8.7  0.4327 -177.0
 2.260  0.7462  163.7   6.969   62.1  0.0570    8.6  0.4326 -177.6
 2.280  0.7464  163.2   6.905   61.7  0.0570    8.5  0.4326 -178.1
 2.300  0.7465  162.7   6.841   61.3  0.0571    8.3  0.4325 -178.7
 2.320  0.7468  162.2   6.778   60.9  0.0572    8.2  0.4325 -179.3
 2.340  0.7470  161.7   6.715   60.5  0.0572    8.1  0.4326 -179.8
 2.360  0.7474  161.3   6.653   60.1  0.0573    8.0  0.4327  179.6
 2.380  0.7478  160.8   6.591   59.6  0.0573    7.9  0.4328  179.1
 2.400  0.7482  160.3   6.529   59.2  0.0574    7.8  0.4330  178.5
 2.420  0.7482  159.9   6.473   58.8  0.0574    7.7  0.4330  178.0
 2.440  0.7482  159.4   6.417   58.5  0.0575    7.6  0.4331  177.5
 2.460  0.7483  159.0   6.362   58.1  0.0575    7.5  0.4331  177.0
 2.480  0.7484  158.5   6.307   57.7  0.0576    7.4  0.4333  176.5
 2.500  0.7486  158.1   6.252   57.3  0.0576    7.2  0.4334  175.9
 2.520  0.7488  157.7   6.198   56.9  0.0577    7.1  0.4336  175.4
 2.540  0.7491  157.2   6.144   56.5  0.0577    7.0  0.4338  174.9
 2.560  0.7494  156.8   6.090   56.1  0.0578    6.9  0.4341  174.4
 2.580  0.7497  156.3   6.036   55.6  0.0578    6.8  0.4344  173.9
 2.600  0.7501  155.9   5.983   55.2  0.0579    6.7  0.4347  173.4
 2.620  0.7503  155.5   5.936   54.8  0.0580    6.6  0.4349  172.9
 2.640  0.7505  155.0   5.890   54.5  0.0580    6.5  0.4352  172.5
 2.660  0.7507  154.6   5.844   54.1  0.0581    6.4  0.4355  172.0
 2.680  0.7510  154.2   5.798   53.8  0.0582    6.3  0.4358  171.5
 2.700  0.7513  153.7   5.752   53.4  0.0582    6.2  0.4361  171.0
 2.720  0.7517  153.3   5.706   53.0  0.0583    6.1  0.4365  170.6
 2.740  0.7521  152.9   5.661   52.6  0.0584    6.0  0.4369  170.1
 2.760  0.7526  152.5   5.616   52.2  0.0585    5.9  0.4373  169.6
 2.780  0.7531  152.0   5.571   51.8  0.0585    5.8  0.4378  169.2
 2.800  0.7536  151.6   5.527   51.4  0.0586    5.7  0.4383  168.7
 2.820  0.7538  151.2   5.486   51.1  0.0587    5.6  0.4386  168.3
 2.840  0.7540  150.8   5.444   50.7  0.0587    5.5  0.4390  167.8
 2.860  0.7542  150.4   5.404   50.3  0.0588    5.4  0.4394  167.4
 2.880  0.7545  150.0   5.363   50.0  0.0588    5.3  0.4398  166.9
 2.900  0.7548  149.6   5.322   49.6  0.0589    5.2  0.4403  166.5
 2.920  0.7551  149.2   5.282   49.2  0.0590    5.2  0.4407  166.0
 2.940  0.7555  148.8   5.242   48.9  0.0590    5.1  0.4412  165.6
 2.960  0.7559  148.4   5.202   48.5  0.0591    5.0  0.4418  165.2
 2.980  0.7564  148.0   5.162   48.1  0.0591    4.9  0.4423  164.7
 3.000  0.7569  147.6   5.123   47.7  0.0592    4.8  0.4429  164.3
 3.100  0.7577  145.6   4.948   46.1  0.0595    4.3  0.4453  162.3
 3.200  0.7595  143.7   4.776   44.4  0.0598    3.8  0.4483  160.4
 3.300  0.7621  141.7   4.610   42.6  0.0601    3.3  0.4518  158.4
 3.400  0.7656  139.8   4.448   40.6  0.0604    2.8  0.4557  156.6
 3.500  0.7699  137.9   4.292   38.5  0.0607    2.3  0.4602  154.7
 3.600  0.7721  136.2   4.156   37.0  0.0609    1.8  0.4640  153.0
 3.700  0.7749  134.5   4.023   35.4  0.0611    1.4  0.4683  151.4
 3.800  0.7784  132.8   3.894   33.7  0.0613    0.9  0.4729  149.7
 3.900  0.7826  131.1   3.768   31.9  0.0616    0.5  0.4779  148.2
 4.000  0.7874  129.5   3.646   29.9  0.0618    0.0  0.4832  146.6
 4.100  0.7891  128.1   3.540   28.5  0.0620   -0.3  0.4873  145.3
 4.200  0.7912  126.8   3.435   27.1  0.0622   -0.7  0.4918  143.9
 4.300  0.7938  125.5   3.333   25.6  0.0624   -1.0  0.4964  142.6
 4.400  0.7968  124.1   3.234   23.9  0.0626   -1.4  0.5013  141.4
 4.500  0.8002  122.8   3.137   22.2  0.0628   -1.7  0.5065  140.1
 4.600  0.8009  121.6   3.055   20.9  0.0631   -2.0  0.5091  139.0
 4.700  0.8019  120.4   2.974   19.4  0.0635   -2.4  0.5119  137.9
 4.800  0.8033  119.2   2.896   17.9  0.0638   -2.7  0.5149  136.8
 4.900  0.8050  118.1   2.819   16.4  0.0642   -3.1  0.5181  135.8
 5.000  0.8070  116.9   2.745   14.7  0.0645   -3.4  0.5214  134.7
 5.100  0.8065  115.7   2.676   13.4  0.0648   -3.8  0.5224  133.5
 5.200  0.8063  114.5   2.609   12.0  0.0652   -4.2  0.5237  132.3
 5.300  0.8065  113.4   2.544   10.6  0.0655   -4.6  0.5252  131.1
 5.400  0.8070  112.2   2.480    9.1  0.0659   -5.0  0.5269  129.9
 5.500  0.8078  111.0   2.418    7.5  0.0662   -5.4  0.5288  128.7
 5.600  0.8079  110.0   2.364    6.3  0.0666   -5.7  0.5302  127.4
 5.700  0.8083  109.0   2.311    5.1  0.0670   -6.1  0.5319  126.1
 5.800  0.8089  108.1   2.259    3.8  0.0675   -6.4  0.5339  124.8
 5.900  0.8097  107.1   2.208    2.4  0.0679   -6.8  0.5361  123.5
 6.000  0.8108  106.1   2.159    1.0  0.0683   -7.1  0.5386  122.2
 6.100  0.8127  105.2   2.119   -0.2  0.0689   -7.6  0.5417  121.2
 6.200  0.8148  104.3   2.080   -1.5  0.0694   -8.1  0.5450  120.1
 6.300  0.8172  103.4   2.042   -2.9  0.0700   -8.6  0.5484  119.1
 6.400  0.8197  102.5   2.005   -4.3  0.0705   -9.0  0.5520  118.1
 6.500  0.8224  101.6   1.969   -5.7  0.0711   -9.5  0.5558  117.1
 6.600  0.8246  100.5   1.934   -7.1  0.0717  -10.2  0.5593  116.2
 6.800  0.8299   98.5   1.868  -10.0  0.0729  -11.5  0.5666  114.5
 7.000  0.8362   96.4   1.807  -13.2  0.0741  -12.7  0.5745  112.8
 7.200  0.8403   94.0   1.737  -16.2  0.0748  -14.3  0.5830  110.7
 7.400  0.8459   91.6   1.672  -19.5  0.0756  -15.9  0.5922  108.7
 7.600  0.8503   89.1   1.606  -22.6  0.0762  -17.5  0.6018  106.4
 7.800  0.8535   86.5   1.536  -25.5  0.0766  -19.1  0.6123  103.8
 8.000  0.8585   84.0   1.471  -28.7  0.0770  -20.6  0.6239  101.3
 8.200  0.8611   81.5   1.406  -31.3  0.0770  -22.2  0.6323   98.6
 8.400  0.8654   79.0   1.344  -34.2  0.0770  -23.7  0.6422   95.9
 8.600  0.8688   76.6   1.284  -37.0  0.0768  -25.3  0.6502   93.2
 8.800  0.8715   74.1   1.225  -39.5  0.0764  -26.9  0.6566   90.4
 9.000  0.8757   71.7   1.169  -42.2  0.0761  -28.6  0.6645   87.6
 9.200  0.8805   69.7   1.113  -44.3  0.0753  -29.8  0.6734   85.1
 9.400  0.8863   67.8   1.058  -46.6  0.0746  -31.0  0.6836   82.8
 9.600  0.8932   66.2   1.010  -48.7  0.0739  -32.0  0.6977   80.8
 9.800  0.9006   65.0   0.969  -50.3  0.0732  -32.8  0.7151   79.4
10.000  0.9084   63.9   0.929  -52.0  0.0726  -33.6  0.7330   78.0
!
!  f       NFmin   Gammaopt  rn/50
! GHz       dB    MAG  ANG    -
 0.450      0.73  0.04 -167   3.69
 0.900      0.75  0.07 -173   0.54
 1.500      0.76  0.10 -175   0.25
 1.900      0.78  0.15 -172   0.10
 2.400      0.82  0.16 -169   0.11
 3.500      1.07  0.25 -145   0.07
!
! (c) 2016  Infineon Technologies AG, Munich
