! Infineon Technologies  Discrete & RF Semiconductors
! BFP740
! VCE =  1.5 V,  IC =  5.0 mA
! Common Emitter S-Parameters:                            Jan 2016
# GHz  S  MA  R  50
!  f         S11            S21            S12            S22
! GHz     MAG   ANG      MAG   ANG      MAG   ANG      MAG   ANG
 0.030  0.9509   -1.7  14.761  177.6  0.0017   83.9  0.9973   -1.2
 0.035  0.9504   -2.0  14.719  177.3  0.0018   87.3  0.9976   -1.4
 0.040  0.9499   -2.3  14.677  177.0  0.0019   90.4  0.9979   -1.6
 0.045  0.9513   -2.5  14.739  176.8  0.0032  101.6  0.9979   -1.8
 0.050  0.9528   -2.7  14.802  176.7  0.0046  106.2  0.9979   -2.1
 0.055  0.9510   -3.1  14.771  176.3  0.0040   92.3  0.9974   -2.3
 0.060  0.9492   -3.5  14.740  175.8  0.0038   75.3  0.9970   -2.5
 0.065  0.9487   -3.8  14.729  175.6  0.0043   76.7  0.9973   -2.7
 0.070  0.9482   -4.1  14.719  175.3  0.0049   77.7  0.9977   -2.9
 0.075  0.9485   -4.4  14.710  175.0  0.0047   82.6  0.9976   -3.1
 0.080  0.9488   -4.6  14.702  174.6  0.0046   87.9  0.9975   -3.3
 0.085  0.9480   -4.9  14.689  174.4  0.0050   88.1  0.9973   -3.5
 0.090  0.9473   -5.2  14.677  174.1  0.0054   88.2  0.9971   -3.7
 0.095  0.9465   -5.4  14.654  173.9  0.0056   85.4  0.9963   -3.9
 0.100  0.9458   -5.7  14.632  173.6  0.0058   82.7  0.9955   -4.1
 0.105  0.9457   -6.0  14.633  173.3  0.0060   84.5  0.9954   -4.3
 0.110  0.9457   -6.3  14.634  173.0  0.0063   86.1  0.9953   -4.5
 0.115  0.9456   -6.5  14.579  172.7  0.0065   83.7  0.9948   -4.7
 0.120  0.9455   -6.8  14.524  172.4  0.0067   81.5  0.9943   -4.9
 0.125  0.9456   -7.1  14.507  172.2  0.0070   81.5  0.9945   -5.2
 0.130  0.9458   -7.4  14.491  171.9  0.0073   81.5  0.9947   -5.4
 0.135  0.9449   -7.7  14.450  171.7  0.0075   82.3  0.9941   -5.6
 0.140  0.9441   -8.0  14.410  171.5  0.0078   83.1  0.9935   -5.8
 0.145  0.9439   -8.3  14.430  171.2  0.0082   84.6  0.9928   -5.9
 0.150  0.9438   -8.6  14.451  171.0  0.0087   86.0  0.9921   -6.1
 0.155  0.9434   -8.9  14.424  170.8  0.0089   85.5  0.9917   -6.3
 0.160  0.9429   -9.1  14.397  170.5  0.0092   85.0  0.9913   -6.5
 0.165  0.9425   -9.4  14.370  170.3  0.0094   84.5  0.9909   -6.7
 0.170  0.9421   -9.6  14.344  170.1  0.0097   84.1  0.9906   -6.9
 0.175  0.9418   -9.9  14.318  169.9  0.0099   83.6  0.9902   -7.1
 0.180  0.9414  -10.2  14.292  169.6  0.0102   83.2  0.9899   -7.3
 0.185  0.9411  -10.4  14.266  169.4  0.0104   82.8  0.9895   -7.5
 0.190  0.9408  -10.7  14.240  169.2  0.0107   82.5  0.9892   -7.7
 0.195  0.9405  -10.9  14.215  168.9  0.0109   82.1  0.9889   -7.9
 0.200  0.9402  -11.2  14.190  168.7  0.0112   81.8  0.9886   -8.1
 0.220  0.9384  -12.3  14.102  167.9  0.0124   81.4  0.9865   -8.9
 0.240  0.9370  -13.4  14.016  167.0  0.0136   81.1  0.9847   -9.6
 0.260  0.9355  -14.4  13.936  166.2  0.0147   80.7  0.9828  -10.4
 0.280  0.9341  -15.5  13.861  165.4  0.0156   80.2  0.9809  -11.1
 0.300  0.9329  -16.6  13.789  164.6  0.0166   79.8  0.9791  -11.9
 0.320  0.9312  -17.6  13.727  163.8  0.0176   78.9  0.9773  -12.7
 0.340  0.9298  -18.7  13.668  163.0  0.0186   78.1  0.9756  -13.4
 0.360  0.9280  -19.8  13.628  162.2  0.0197   77.4  0.9734  -14.2
 0.380  0.9259  -20.9  13.608  161.4  0.0208   76.8  0.9706  -14.9
 0.400  0.9242  -22.0  13.590  160.6  0.0220   76.3  0.9680  -15.7
 0.420  0.9224  -23.0  13.524  159.8  0.0231   75.4  0.9665  -16.4
 0.440  0.9209  -24.0  13.461  159.1  0.0242   74.6  0.9651  -17.1
 0.450  0.9203  -24.5  13.430  158.7  0.0247   74.2  0.9645  -17.5
 0.460  0.9191  -25.0  13.413  158.3  0.0252   73.8  0.9630  -17.9
 0.480  0.9171  -26.1  13.379  157.6  0.0263   73.0  0.9603  -18.7
 0.500  0.9153  -27.2  13.348  156.9  0.0273   72.3  0.9577  -19.5
 0.520  0.9128  -28.2  13.286  156.2  0.0283   71.6  0.9546  -20.2
 0.540  0.9106  -29.3  13.227  155.4  0.0294   71.0  0.9516  -20.9
 0.560  0.9086  -30.3  13.169  154.6  0.0304   70.4  0.9488  -21.6
 0.580  0.9070  -31.4  13.115  153.9  0.0315   69.9  0.9461  -22.4
 0.600  0.9057  -32.4  13.062  153.1  0.0325   69.4  0.9436  -23.1
 0.620  0.9030  -33.4  13.020  152.4  0.0334   68.6  0.9405  -23.8
 0.640  0.9005  -34.5  12.980  151.6  0.0344   67.9  0.9375  -24.6
 0.660  0.8984  -35.5  12.943  150.9  0.0354   67.2  0.9347  -25.3
 0.680  0.8965  -36.6  12.907  150.1  0.0363   66.5  0.9320  -26.1
 0.700  0.8950  -37.6  12.874  149.4  0.0373   65.9  0.9295  -26.8
 0.720  0.8919  -38.7  12.849  148.6  0.0382   65.2  0.9258  -27.5
 0.740  0.8891  -39.8  12.827  147.9  0.0392   64.5  0.9223  -28.2
 0.760  0.8866  -40.9  12.807  147.1  0.0402   63.9  0.9189  -28.9
 0.780  0.8844  -42.0  12.789  146.4  0.0411   63.3  0.9157  -29.7
 0.800  0.8826  -43.1  12.774  145.6  0.0421   62.7  0.9126  -30.4
 0.820  0.8797  -44.1  12.719  144.9  0.0430   62.0  0.9089  -31.1
 0.840  0.8770  -45.1  12.666  144.2  0.0438   61.3  0.9054  -31.8
 0.860  0.8747  -46.1  12.615  143.5  0.0447   60.7  0.9020  -32.5
 0.880  0.8726  -47.2  12.566  142.7  0.0456   60.1  0.8987  -33.2
 0.900  0.8708  -48.2  12.519  142.0  0.0465   59.5  0.8956  -33.9
 0.920  0.8678  -49.2  12.464  141.3  0.0473   58.8  0.8915  -34.6
 0.940  0.8650  -50.2  12.411  140.6  0.0482   58.2  0.8875  -35.3
 0.960  0.8624  -51.2  12.360  139.9  0.0490   57.6  0.8837  -36.0
 0.980  0.8602  -52.2  12.310  139.1  0.0498   57.0  0.8800  -36.8
 1.000  0.8582  -53.2  12.263  138.4  0.0507   56.4  0.8765  -37.5
 1.020  0.8550  -54.2  12.206  137.7  0.0515   55.7  0.8722  -38.2
 1.040  0.8521  -55.2  12.150  137.0  0.0522   55.1  0.8680  -38.9
 1.060  0.8494  -56.2  12.097  136.3  0.0530   54.5  0.8639  -39.6
 1.080  0.8470  -57.2  12.046  135.5  0.0538   53.9  0.8600  -40.3
 1.100  0.8448  -58.2  11.996  134.8  0.0546   53.3  0.8562  -41.0
 1.120  0.8414  -59.2  11.950  134.1  0.0553   52.6  0.8520  -41.7
 1.140  0.8382  -60.2  11.905  133.4  0.0560   52.0  0.8479  -42.3
 1.160  0.8353  -61.2  11.863  132.7  0.0567   51.4  0.8439  -43.0
 1.180  0.8327  -62.3  11.822  131.9  0.0575   50.8  0.8400  -43.7
 1.200  0.8303  -63.3  11.783  131.2  0.0582   50.2  0.8363  -44.4
 1.220  0.8274  -64.2  11.723  130.6  0.0589   49.6  0.8321  -45.0
 1.240  0.8247  -65.2  11.665  129.9  0.0595   49.1  0.8281  -45.7
 1.260  0.8222  -66.1  11.609  129.2  0.0602   48.5  0.8241  -46.4
 1.280  0.8199  -67.0  11.553  128.6  0.0609   48.0  0.8202  -47.0
 1.300  0.8179  -68.0  11.500  127.9  0.0616   47.5  0.8165  -47.7
 1.320  0.8153  -68.9  11.444  127.3  0.0622   46.9  0.8127  -48.3
 1.340  0.8129  -69.9  11.390  126.6  0.0629   46.3  0.8090  -48.9
 1.360  0.8108  -70.8  11.337  126.0  0.0636   45.8  0.8054  -49.5
 1.380  0.8088  -71.8  11.286  125.4  0.0642   45.2  0.8019  -50.1
 1.400  0.8071  -72.7  11.236  124.7  0.0649   44.7  0.7985  -50.7
 1.420  0.8041  -73.6  11.186  124.1  0.0654   44.2  0.7941  -51.3
 1.440  0.8013  -74.6  11.137  123.4  0.0660   43.6  0.7897  -51.9
 1.460  0.7987  -75.5  11.090  122.8  0.0665   43.1  0.7855  -52.5
 1.480  0.7963  -76.4  11.044  122.2  0.0670   42.6  0.7814  -53.2
 1.500  0.7941  -77.4  11.000  121.5  0.0676   42.1  0.7773  -53.8
 1.520  0.7912  -78.4  10.966  120.8  0.0681   41.6  0.7732  -54.4
 1.540  0.7885  -79.4  10.934  120.2  0.0687   41.0  0.7692  -55.1
 1.560  0.7860  -80.4  10.903  119.5  0.0692   40.5  0.7653  -55.7
 1.580  0.7838  -81.5  10.874  118.9  0.0697   40.0  0.7614  -56.3
 1.600  0.7819  -82.5  10.846  118.2  0.0703   39.5  0.7577  -57.0
 1.620  0.7793  -83.4  10.792  117.6  0.0708   39.0  0.7538  -57.6
 1.640  0.7769  -84.3  10.740  117.0  0.0714   38.5  0.7499  -58.1
 1.660  0.7747  -85.2  10.688  116.4  0.0719   38.0  0.7461  -58.7
 1.680  0.7727  -86.1  10.638  115.8  0.0725   37.6  0.7424  -59.3
 1.700  0.7709  -87.0  10.589  115.2  0.0730   37.1  0.7388  -59.9
 1.720  0.7687  -87.9  10.535  114.6  0.0734   36.6  0.7348  -60.5
 1.740  0.7668  -88.8  10.482  114.0  0.0739   36.1  0.7310  -61.2
 1.760  0.7650  -89.7  10.430  113.4  0.0744   35.6  0.7272  -61.8
 1.780  0.7634  -90.6  10.379  112.8  0.0748   35.2  0.7235  -62.4
 1.800  0.7620  -91.5  10.330  112.2  0.0753   34.7  0.7199  -63.1
 1.820  0.7598  -92.4  10.284  111.6  0.0758   34.2  0.7159  -63.7
 1.840  0.7578  -93.3  10.239  111.1  0.0763   33.8  0.7120  -64.2
 1.860  0.7560  -94.2  10.195  110.5  0.0768   33.3  0.7082  -64.8
 1.880  0.7544  -95.1  10.152  109.9  0.0773   32.8  0.7045  -65.4
 1.900  0.7530  -96.0  10.110  109.3  0.0778   32.4  0.7008  -66.0
 1.920  0.7508  -96.9  10.066  108.7  0.0781   31.9  0.6966  -66.6
 1.940  0.7487  -97.8  10.024  108.1  0.0784   31.5  0.6926  -67.3
 1.960  0.7469  -98.7   9.983  107.5  0.0787   31.0  0.6886  -67.9
 1.980  0.7453  -99.7   9.942  106.9  0.0791   30.6  0.6847  -68.5
 2.000  0.7438 -100.6   9.903  106.3  0.0794   30.1  0.6809  -69.2
 2.020  0.7417 -101.5   9.854  105.7  0.0798   29.6  0.6770  -69.8
 2.040  0.7399 -102.4   9.805  105.1  0.0802   29.1  0.6732  -70.4
 2.060  0.7382 -103.3   9.758  104.5  0.0806   28.6  0.6695  -71.0
 2.080  0.7367 -104.3   9.712  103.8  0.0810   28.1  0.6658  -71.6
 2.100  0.7354 -105.2   9.667  103.2  0.0814   27.6  0.6622  -72.2
 2.120  0.7332 -106.0   9.622  102.6  0.0817   27.2  0.6584  -72.8
 2.140  0.7312 -106.9   9.578  102.1  0.0820   26.7  0.6547  -73.4
 2.160  0.7293 -107.7   9.534  101.5  0.0823   26.3  0.6510  -74.0
 2.180  0.7276 -108.6   9.492  100.9  0.0827   25.8  0.6474  -74.6
 2.200  0.7260 -109.4   9.451  100.3  0.0830   25.4  0.6439  -75.2
 2.220  0.7242 -110.2   9.399   99.8  0.0833   25.0  0.6404  -75.7
 2.240  0.7226 -111.0   9.348   99.2  0.0836   24.6  0.6369  -76.3
 2.260  0.7211 -111.8   9.297   98.7  0.0839   24.2  0.6335  -76.8
 2.280  0.7197 -112.7   9.248   98.2  0.0843   23.8  0.6302  -77.3
 2.300  0.7185 -113.5   9.199   97.6  0.0846   23.4  0.6269  -77.9
 2.320  0.7167 -114.3   9.155   97.1  0.0849   23.0  0.6233  -78.5
 2.340  0.7150 -115.1   9.112   96.6  0.0851   22.6  0.6197  -79.0
 2.360  0.7135 -115.9   9.069   96.1  0.0854   22.2  0.6162  -79.6
 2.380  0.7121 -116.8   9.027   95.5  0.0856   21.8  0.6128  -80.2
 2.400  0.7109 -117.6   8.986   95.0  0.0859   21.4  0.6094  -80.8
 2.420  0.7093 -118.4   8.942   94.5  0.0861   21.0  0.6057  -81.3
 2.440  0.7079 -119.2   8.898   93.9  0.0863   20.6  0.6021  -81.9
 2.460  0.7066 -120.0   8.855   93.4  0.0865   20.1  0.5986  -82.5
 2.480  0.7054 -120.8   8.813   92.9  0.0868   19.7  0.5951  -83.0
 2.500  0.7044 -121.6   8.772   92.3  0.0870   19.3  0.5917  -83.6
 2.520  0.7025 -122.5   8.736   91.7  0.0872   18.9  0.5879  -84.1
 2.540  0.7007 -123.3   8.702   91.2  0.0873   18.6  0.5841  -84.7
 2.560  0.6991 -124.2   8.668   90.6  0.0875   18.2  0.5804  -85.3
 2.580  0.6977 -125.1   8.634   90.1  0.0877   17.9  0.5768  -85.8
 2.600  0.6964 -126.0   8.602   89.5  0.0879   17.5  0.5732  -86.4
 2.620  0.6949 -126.8   8.558   89.0  0.0881   17.1  0.5697  -86.9
 2.640  0.6936 -127.6   8.514   88.5  0.0883   16.7  0.5663  -87.5
 2.660  0.6924 -128.3   8.472   88.0  0.0885   16.4  0.5630  -88.1
 2.680  0.6913 -129.1   8.429   87.5  0.0888   16.0  0.5597  -88.6
 2.700  0.6904 -129.9   8.388   87.0  0.0890   15.6  0.5564  -89.2
 2.720  0.6888 -130.7   8.350   86.5  0.0892   15.2  0.5531  -89.7
 2.740  0.6874 -131.5   8.313   85.9  0.0894   14.8  0.5498  -90.3
 2.760  0.6861 -132.4   8.277   85.4  0.0896   14.5  0.5466  -90.9
 2.780  0.6850 -133.2   8.241   84.8  0.0898   14.1  0.5435  -91.4
 2.800  0.6840 -134.0   8.206   84.3  0.0900   13.7  0.5404  -92.0
 2.820  0.6829 -134.7   8.164   83.8  0.0901   13.3  0.5371  -92.6
 2.840  0.6820 -135.4   8.122   83.4  0.0903   12.9  0.5339  -93.2
 2.860  0.6812 -136.2   8.081   82.9  0.0904   12.5  0.5307  -93.8
 2.880  0.6804 -136.9   8.041   82.4  0.0906   12.1  0.5276  -94.4
 2.900  0.6798 -137.6   8.001   81.9  0.0907   11.7  0.5246  -95.0
 2.920  0.6782 -138.4   7.964   81.4  0.0908   11.4  0.5215  -95.6
 2.940  0.6767 -139.2   7.928   80.9  0.0910   11.1  0.5184  -96.1
 2.960  0.6754 -140.0   7.892   80.4  0.0911   10.7  0.5154  -96.7
 2.980  0.6742 -140.8   7.857   79.8  0.0913   10.4  0.5124  -97.3
 3.000  0.6731 -141.6   7.823   79.3  0.0914   10.1  0.5095  -97.9
 3.100  0.6681 -145.8   7.670   76.7  0.0919    8.5  0.4934 -101.0
 3.200  0.6636 -149.4   7.481   74.3  0.0926    6.7  0.4813 -103.9
 3.300  0.6601 -153.2   7.312   71.8  0.0928    5.0  0.4674 -107.1
 3.400  0.6566 -156.8   7.136   69.5  0.0930    3.2  0.4548 -110.1
 3.500  0.6536 -160.5   6.982   67.1  0.0929    1.8  0.4408 -113.3
 3.600  0.6509 -164.0   6.809   64.8  0.0931    0.2  0.4301 -116.3
 3.700  0.6489 -167.5   6.656   62.5  0.0930   -1.3  0.4182 -119.6
 3.800  0.6478 -170.7   6.487   60.3  0.0932   -2.8  0.4095 -122.6
 3.900  0.6461 -173.9   6.335   58.1  0.0929   -4.3  0.3990 -125.9
 4.000  0.6449 -177.4   6.193   55.8  0.0925   -5.6  0.3906 -129.2
 4.100  0.6440  179.7   6.038   53.7  0.0921   -6.8  0.3831 -132.3
 4.200  0.6443  176.6   5.896   51.6  0.0918   -8.2  0.3769 -135.3
 4.300  0.6438  174.1   5.743   49.5  0.0911   -9.5  0.3707 -138.2
 4.400  0.6452  171.2   5.613   47.5  0.0908  -10.8  0.3651 -141.1
 4.500  0.6450  168.7   5.477   45.5  0.0901  -11.8  0.3594 -144.0
 4.600  0.6472  166.0   5.356   43.5  0.0895  -12.8  0.3548 -146.8
 4.700  0.6470  163.7   5.228   41.7  0.0892  -14.0  0.3508 -149.3
 4.800  0.6492  161.4   5.107   39.7  0.0885  -15.1  0.3465 -152.0
 4.900  0.6496  159.0   5.000   37.8  0.0876  -15.9  0.3419 -154.8
 5.000  0.6518  157.0   4.885   36.1  0.0872  -16.9  0.3393 -157.1
 5.100  0.6523  154.9   4.777   34.2  0.0864  -17.8  0.3365 -159.6
 5.200  0.6542  153.1   4.666   32.6  0.0860  -18.7  0.3343 -161.8
 5.300  0.6545  151.1   4.566   30.7  0.0854  -19.4  0.3311 -164.3
 5.400  0.6562  149.4   4.468   29.1  0.0847  -20.2  0.3287 -166.6
 5.500  0.6560  147.5   4.380   27.4  0.0839  -20.9  0.3258 -169.2
 5.600  0.6575  146.0   4.288   25.8  0.0834  -21.7  0.3242 -171.4
 5.700  0.6572  144.4   4.203   24.2  0.0828  -22.2  0.3221 -173.7
 5.800  0.6587  142.9   4.114   22.5  0.0823  -23.0  0.3215 -175.9
 5.900  0.6602  141.4   4.041   20.9  0.0818  -23.4  0.3207 -178.2
 6.000  0.6610  139.9   3.965   19.3  0.0812  -24.0  0.3206  179.4
 6.100  0.6634  138.4   3.900   17.7  0.0809  -24.5  0.3213  177.3
 6.200  0.6642  137.2   3.827   16.2  0.0806  -25.1  0.3218  175.0
 6.300  0.6665  135.6   3.763   14.5  0.0803  -25.7  0.3227  172.8
 6.400  0.6675  134.1   3.701   12.9  0.0798  -26.1  0.3240  170.4
 6.500  0.6699  132.5   3.641   11.2  0.0794  -26.8  0.3254  168.2
 6.600  0.6708  131.0   3.576    9.6  0.0792  -27.6  0.3276  166.3
 6.800  0.6746  127.9   3.459    6.4  0.0783  -28.7  0.3313  162.0
 7.000  0.6781  124.7   3.352    3.0  0.0777  -29.7  0.3370  157.7
 7.200  0.6828  121.7   3.244   -0.2  0.0770  -30.9  0.3434  154.0
 7.400  0.6874  118.5   3.144   -3.5  0.0763  -31.9  0.3493  150.0
 7.600  0.6937  115.1   3.047   -6.9  0.0756  -32.9  0.3565  145.7
 7.800  0.7017  111.7   2.948  -10.3  0.0748  -34.2  0.3633  141.6
 8.000  0.7097  108.2   2.854  -13.8  0.0741  -35.1  0.3713  137.3
 8.200  0.7170  104.9   2.745  -17.0  0.0732  -36.1  0.3790  132.5
 8.400  0.7266  101.6   2.646  -20.6  0.0722  -37.2  0.3893  128.0
 8.600  0.7357   98.5   2.544  -23.9  0.0713  -38.1  0.4016  123.4
 8.800  0.7439   95.4   2.436  -27.1  0.0702  -39.0  0.4161  119.0
 9.000  0.7542   92.5   2.337  -30.5  0.0691  -39.9  0.4330  114.8
 9.200  0.7619   89.9   2.232  -33.2  0.0679  -40.4  0.4503  111.0
 9.400  0.7712   87.3   2.133  -36.1  0.0666  -40.9  0.4693  107.5
 9.600  0.7800   85.2   2.039  -38.8  0.0655  -41.2  0.4886  104.7
 9.800  0.7878   83.4   1.950  -41.1  0.0646  -41.3  0.5075  102.5
10.000  0.7963   81.7   1.865  -43.7  0.0637  -41.4  0.5270  100.5
!
!  f       NFmin   Gammaopt  rn/50
! GHz       dB    MAG  ANG    -
 0.450      0.44  0.40   11   0.23
 0.900      0.45  0.41   17   0.22
 1.500      0.49  0.39   26   0.21
 1.900      0.52  0.38   42   0.21
 2.400      0.55  0.38   46   0.20
 3.500      0.65  0.35   68   0.18
 5.500      0.87  0.24  164   0.16
10.000      1.52  0.55  -82   0.21
!
! (c) 2016  Infineon Technologies AG, Munich
