! Infineon Technologies  Discrete & RF Semiconductors
! BFP780
! VCE =  2.0 V,  IC = 0.11 A
! Common Emitter S-Parameters:                            Jul 2015
# GHz  S  MA  R  50
!  f         S11            S21            S12            S22
! GHz     MAG   ANG      MAG   ANG      MAG   ANG      MAG   ANG
 0.030  0.3945  -58.8  87.363  162.1  0.0057   72.5  0.9580  -26.3
 0.040  0.4333  -71.3  84.408  156.7  0.0079   65.6  0.9372  -34.8
 0.050  0.4701  -82.3  81.279  151.4  0.0089   59.7  0.9126  -42.9
 0.060  0.5068  -91.2  77.885  146.9  0.0099   57.4  0.8791  -50.0
 0.070  0.5396  -98.7  74.263  142.6  0.0118   60.1  0.8591  -57.0
 0.080  0.5703 -105.6  70.703  138.6  0.0124   51.1  0.8311  -63.4
 0.090  0.5986 -111.9  67.055  135.0  0.0140   50.2  0.8061  -69.7
 0.100  0.6225 -117.0  63.680  131.9  0.0150   49.3  0.7827  -75.1
 0.110  0.6431 -121.6  60.474  128.9  0.0151   46.4  0.7622  -80.6
 0.120  0.6602 -125.6  57.520  126.3  0.0158   43.9  0.7417  -85.3
 0.130  0.6753 -129.2  54.811  124.0  0.0156   42.3  0.7232  -89.7
 0.140  0.6879 -132.3  52.173  121.7  0.0165   39.2  0.7059  -93.9
 0.150  0.6990 -135.2  49.844  119.8  0.0165   39.4  0.6925  -97.6
 0.200  0.7407 -146.1  40.139  111.8  0.0186   32.3  0.6379 -113.4
 0.250  0.7623 -153.7  33.398  106.0  0.0194   29.2  0.6066 -124.9
 0.300  0.7754 -159.3  28.351  101.7  0.0203   28.4  0.5836 -133.8
 0.350  0.7848 -163.6  24.602   98.2  0.0205   25.9  0.5693 -140.6
 0.400  0.7916 -166.9  21.704   95.3  0.0209   25.9  0.5601 -146.2
 0.450  0.7948 -169.7  19.398   92.8  0.0213   25.4  0.5537 -150.6
 0.500  0.7972 -172.2  17.518   90.6  0.0218   25.6  0.5475 -154.6
 0.600  0.8031 -176.3  14.658   86.8  0.0226   25.2  0.5424 -160.8
 0.700  0.8035 -179.7  12.573   83.4  0.0233   25.5  0.5376 -165.8
 0.800  0.8082  177.4  11.017   80.4  0.0239   26.1  0.5376 -169.8
 0.900  0.8087  174.7   9.788   77.6  0.0248   26.6  0.5361 -173.2
 1.000  0.8123  172.4   8.810   75.0  0.0256   27.6  0.5392 -176.1
 1.100  0.8116  170.2   7.989   72.5  0.0264   27.8  0.5395 -178.9
 1.200  0.8161  168.1   7.329   70.0  0.0272   28.3  0.5431  178.9
 1.300  0.8151  166.1   6.751   67.6  0.0281   28.7  0.5446  176.6
 1.400  0.8177  164.2   6.261   65.3  0.0289   29.1  0.5485  174.7
 1.500  0.8173  162.5   5.831   63.1  0.0300   29.0  0.5506  172.7
 1.600  0.8208  160.6   5.461   60.7  0.0307   29.1  0.5553  170.9
 1.700  0.8200  158.8   5.126   58.5  0.0317   29.5  0.5587  169.1
 1.800  0.8208  157.1   4.822   56.2  0.0327   29.6  0.5630  167.4
 1.900  0.8212  155.6   4.552   54.1  0.0336   29.5  0.5672  165.8
 2.000  0.8248  153.9   4.324   51.9  0.0345   29.3  0.5715  164.3
 2.100  0.8243  152.4   4.094   49.7  0.0350   29.3  0.5691  163.1
 2.200  0.8241  150.7   3.889   47.5  0.0358   28.7  0.5720  161.5
 2.300  0.8248  149.3   3.707   45.5  0.0366   28.7  0.5746  160.0
 2.400  0.8272  147.7   3.544   43.3  0.0378   28.5  0.5778  158.4
 2.500  0.8282  146.1   3.391   41.2  0.0385   28.0  0.5816  156.9
 2.600  0.8284  144.4   3.239   39.0  0.0394   27.7  0.5845  155.3
 2.700  0.8281  143.0   3.101   37.0  0.0402   27.5  0.5879  153.8
 2.800  0.8302  141.4   2.975   34.9  0.0410   27.3  0.5917  152.3
 2.900  0.8305  139.8   2.853   32.8  0.0417   26.9  0.5967  150.9
 3.000  0.8319  138.3   2.741   30.7  0.0424   26.5  0.6009  149.4
 3.100  0.8325  136.9   2.633   28.8  0.0431   25.9  0.6054  147.9
 3.200  0.8331  135.5   2.532   26.8  0.0440   25.6  0.6096  146.5
 3.300  0.8336  134.0   2.437   24.9  0.0447   25.1  0.6145  145.3
 3.400  0.8349  132.6   2.348   22.9  0.0455   24.7  0.6189  143.9
 3.500  0.8357  131.3   2.265   21.1  0.0462   24.3  0.6236  142.7
 3.600  0.8361  129.7   2.182   19.2  0.0470   23.7  0.6283  141.4
 3.700  0.8375  128.5   2.109   17.3  0.0477   23.2  0.6324  140.2
 3.800  0.8379  127.0   2.033   15.5  0.0484   22.4  0.6373  138.8
 3.900  0.8394  125.8   1.968   13.8  0.0491   22.2  0.6419  137.7
 4.000  0.8409  124.5   1.902   12.0  0.0499   21.7  0.6467  136.5
 4.100  0.8424  123.2   1.844   10.2  0.0505   21.4  0.6511  135.5
 4.200  0.8442  122.0   1.785    8.4  0.0512   20.8  0.6563  134.3
 4.300  0.8453  120.7   1.730    6.7  0.0519   20.1  0.6610  133.4
 4.400  0.8473  119.6   1.678    5.0  0.0528   19.7  0.6657  132.3
 4.500  0.8489  118.4   1.630    3.3  0.0535   19.1  0.6699  131.3
 4.600  0.8510  117.3   1.581    1.6  0.0540   18.6  0.6745  130.2
 4.700  0.8517  116.2   1.535   -0.1  0.0548   18.1  0.6779  129.1
 4.800  0.8537  115.1   1.491   -1.7  0.0554   17.5  0.6823  128.1
 4.900  0.8545  114.2   1.449   -3.3  0.0560   17.0  0.6855  127.1
 5.000  0.8558  113.1   1.410   -5.0  0.0569   16.6  0.6894  126.1
 5.100  0.8571  112.2   1.372   -6.6  0.0575   15.8  0.6924  125.0
 5.200  0.8575  111.2   1.336   -8.2  0.0582   15.3  0.6961  124.0
 5.300  0.8582  110.3   1.299   -9.8  0.0587   14.7  0.6987  122.9
 5.400  0.8589  109.4   1.267  -11.4  0.0595   14.2  0.7019  121.9
 5.500  0.8586  108.6   1.233  -12.8  0.0602   13.6  0.7037  121.0
 5.600  0.8587  107.9   1.202  -14.4  0.0609   13.1  0.7072  119.9
 5.700  0.8575  107.0   1.174  -15.9  0.0617   12.6  0.7097  118.8
 5.800  0.8579  106.1   1.145  -17.4  0.0624   11.9  0.7127  117.7
 5.900  0.8568  105.4   1.119  -18.9  0.0632   11.2  0.7156  116.7
 6.000  0.8571  104.3   1.092  -20.4  0.0641   10.5  0.7186  115.5
!
!  f       NFmin   Gammaopt  rn/50
! GHz       dB    MAG  ANG    -
!
! noise parameter not available yet for this operation point!
!
! (c) 2015  Infineon Technologies AG, Munich
