! Infineon Technologies  Discrete & RF Semiconductors
! BFP740
! VCE =  1.5 V,  IC =  38 mA
! Common Emitter S-Parameters:                            Jan 2016
# GHz  S  MA  R  50
!  f         S11            S21            S12            S22
! GHz     MAG   ANG      MAG   ANG      MAG   ANG      MAG   ANG
 0.030  0.3484  -10.8  27.136  174.8  0.0035   49.5  0.5677   -1.3
 0.035  0.3472  -12.7  26.949  174.0  0.0034   42.9  0.5685   -1.9
 0.040  0.3464  -14.6  26.767  173.1  0.0033   35.9  0.5694   -2.5
 0.045  0.3512  -16.3  26.975  172.2  0.0039   39.3  0.5712   -3.1
 0.050  0.3563  -18.0  27.189  171.4  0.0045   41.8  0.5730   -3.6
 0.055  0.3571  -19.6  27.047  170.4  0.0043   45.3  0.5713   -3.9
 0.060  0.3581  -21.2  26.913  169.4  0.0042   49.0  0.5697   -4.3
 0.065  0.3586  -23.1  26.758  168.6  0.0047   55.1  0.5714   -4.8
 0.070  0.3595  -24.9  26.609  167.7  0.0053   59.9  0.5731   -5.3
 0.075  0.3587  -26.4  26.410  166.8  0.0049   58.9  0.5710   -5.6
 0.080  0.3582  -28.0  26.218  165.9  0.0045   57.8  0.5690   -6.0
 0.085  0.3590  -29.8  26.056  165.2  0.0057   57.2  0.5695   -6.6
 0.090  0.3602  -31.5  25.898  164.4  0.0070   56.8  0.5700   -7.1
 0.095  0.3623  -33.1  25.791  163.7  0.0067   57.2  0.5688   -7.5
 0.100  0.3646  -34.7  25.688  162.9  0.0064   57.6  0.5677   -8.0
 0.105  0.3655  -36.4  25.581  162.1  0.0069   60.2  0.5690   -8.5
 0.110  0.3668  -38.0  25.479  161.3  0.0074   62.5  0.5703   -8.9
 0.115  0.3686  -39.5  25.326  160.6  0.0075   60.3  0.5680   -9.3
 0.120  0.3707  -41.0  25.178  159.8  0.0076   58.1  0.5657   -9.8
 0.125  0.3720  -42.6  24.978  159.1  0.0080   60.0  0.5655  -10.2
 0.130  0.3735  -44.1  24.782  158.4  0.0084   61.7  0.5654  -10.6
 0.135  0.3753  -45.6  24.601  157.8  0.0088   60.9  0.5626  -11.0
 0.140  0.3773  -47.0  24.423  157.1  0.0092   60.1  0.5598  -11.5
 0.145  0.3790  -48.5  24.253  156.5  0.0091   60.9  0.5597  -11.9
 0.150  0.3809  -50.0  24.087  155.8  0.0091   61.7  0.5596  -12.3
 0.155  0.3825  -51.4  23.935  155.2  0.0094   61.6  0.5581  -12.7
 0.160  0.3843  -52.7  23.785  154.6  0.0098   61.6  0.5567  -13.1
 0.165  0.3863  -54.1  23.638  154.0  0.0101   61.5  0.5553  -13.5
 0.170  0.3885  -55.4  23.494  153.4  0.0104   61.5  0.5539  -13.9
 0.175  0.3910  -56.7  23.352  152.8  0.0107   61.4  0.5525  -14.3
 0.180  0.3936  -58.0  23.213  152.2  0.0111   61.4  0.5512  -14.7
 0.185  0.3964  -59.3  23.076  151.6  0.0114   61.3  0.5499  -15.1
 0.190  0.3995  -60.5  22.942  151.0  0.0117   61.3  0.5486  -15.6
 0.195  0.4027  -61.8  22.811  150.3  0.0121   61.2  0.5473  -16.0
 0.200  0.4061  -63.0  22.683  149.7  0.0124   61.2  0.5461  -16.4
 0.220  0.4149  -67.6  22.162  147.7  0.0131   59.7  0.5414  -17.9
 0.240  0.4262  -72.0  21.668  145.7  0.0138   58.4  0.5371  -19.5
 0.260  0.4368  -76.2  21.168  143.7  0.0146   57.2  0.5310  -21.0
 0.280  0.4465  -80.2  20.655  141.8  0.0156   56.1  0.5231  -22.3
 0.300  0.4584  -84.1  20.165  139.9  0.0166   55.2  0.5155  -23.7
 0.320  0.4671  -87.6  19.755  138.3  0.0175   54.6  0.5085  -25.1
 0.340  0.4775  -90.9  19.361  136.6  0.0184   54.1  0.5017  -26.5
 0.360  0.4875  -94.2  18.917  135.0  0.0193   53.4  0.4941  -27.7
 0.380  0.4971  -97.5  18.418  133.4  0.0200   52.7  0.4853  -28.8
 0.400  0.5082 -100.6  17.934  131.8  0.0208   52.1  0.4768  -29.9
 0.420  0.5158 -103.2  17.639  130.4  0.0214   50.7  0.4705  -31.0
 0.440  0.5244 -105.8  17.354  128.9  0.0220   49.3  0.4644  -32.2
 0.450  0.5291 -107.0  17.216  128.2  0.0223   48.7  0.4614  -32.8
 0.460  0.5325 -108.3  17.027  127.6  0.0226   48.4  0.4577  -33.3
 0.480  0.5402 -110.7  16.655  126.3  0.0232   47.9  0.4503  -34.2
 0.500  0.5488 -113.1  16.293  124.9  0.0238   47.4  0.4431  -35.2
 0.520  0.5542 -115.3  15.982  123.8  0.0242   46.4  0.4360  -36.0
 0.540  0.5603 -117.5  15.677  122.6  0.0247   45.4  0.4290  -36.9
 0.560  0.5672 -119.6  15.379  121.4  0.0251   44.5  0.4221  -37.8
 0.580  0.5749 -121.6  15.088  120.1  0.0255   43.6  0.4153  -38.7
 0.600  0.5833 -123.6  14.805  118.8  0.0260   42.7  0.4086  -39.6
 0.620  0.5875 -125.4  14.528  117.8  0.0264   42.1  0.4024  -40.3
 0.640  0.5922 -127.2  14.255  116.8  0.0268   41.4  0.3962  -41.0
 0.660  0.5976 -128.9  13.988  115.7  0.0272   40.8  0.3901  -41.7
 0.680  0.6034 -130.6  13.725  114.6  0.0276   40.3  0.3841  -42.4
 0.700  0.6098 -132.3  13.467  113.5  0.0280   39.7  0.3781  -43.2
 0.720  0.6134 -133.7  13.276  112.6  0.0283   39.1  0.3721  -43.7
 0.740  0.6173 -135.2  13.088  111.7  0.0286   38.5  0.3662  -44.3
 0.760  0.6217 -136.6  12.904  110.8  0.0289   37.9  0.3603  -44.9
 0.780  0.6263 -137.9  12.723  109.8  0.0292   37.4  0.3545  -45.5
 0.800  0.6314 -139.3  12.546  108.8  0.0295   36.8  0.3487  -46.1
 0.820  0.6343 -140.6  12.339  108.0  0.0298   36.3  0.3439  -46.6
 0.840  0.6376 -141.9  12.135  107.2  0.0300   35.9  0.3392  -47.2
 0.860  0.6412 -143.2  11.934  106.3  0.0303   35.5  0.3345  -47.7
 0.880  0.6451 -144.5  11.735  105.4  0.0305   35.0  0.3298  -48.3
 0.900  0.6494 -145.8  11.539  104.5  0.0308   34.6  0.3252  -48.9
 0.920  0.6520 -147.0  11.337  103.8  0.0310   34.1  0.3206  -49.3
 0.940  0.6549 -148.2  11.138  103.1  0.0312   33.6  0.3161  -49.7
 0.960  0.6580 -149.4  10.940  102.3  0.0314   33.1  0.3115  -50.2
 0.980  0.6615 -150.5  10.744  101.5  0.0316   32.7  0.3070  -50.6
 1.000  0.6652 -151.7  10.550  100.7  0.0318   32.2  0.3025  -51.1
 1.020  0.6671 -152.7  10.394  100.0  0.0320   31.8  0.2986  -51.5
 1.040  0.6692 -153.7  10.240   99.3  0.0321   31.5  0.2947  -51.8
 1.060  0.6715 -154.7  10.087   98.6  0.0323   31.1  0.2908  -52.2
 1.080  0.6741 -155.7   9.936   97.9  0.0324   30.8  0.2869  -52.6
 1.100  0.6768 -156.7   9.787   97.1  0.0326   30.4  0.2830  -53.0
 1.120  0.6787 -157.7   9.630   96.5  0.0328   30.1  0.2798  -53.4
 1.140  0.6807 -158.6   9.474   95.9  0.0329   29.8  0.2767  -53.8
 1.160  0.6829 -159.5   9.320   95.2  0.0331   29.5  0.2735  -54.2
 1.180  0.6853 -160.5   9.166   94.6  0.0332   29.2  0.2704  -54.6
 1.200  0.6879 -161.4   9.014   93.9  0.0334   28.9  0.2673  -55.0
 1.220  0.6893 -162.2   8.901   93.3  0.0335   28.7  0.2643  -55.3
 1.240  0.6908 -163.1   8.790   92.7  0.0336   28.5  0.2613  -55.6
 1.260  0.6924 -163.9   8.679   92.1  0.0337   28.4  0.2583  -55.9
 1.280  0.6942 -164.7   8.569   91.5  0.0338   28.2  0.2554  -56.2
 1.300  0.6961 -165.5   8.460   90.9  0.0339   28.0  0.2524  -56.5
 1.320  0.6975 -166.2   8.362   90.3  0.0340   27.7  0.2503  -56.9
 1.340  0.6990 -166.9   8.264   89.8  0.0342   27.5  0.2483  -57.3
 1.360  0.7006 -167.7   8.168   89.2  0.0343   27.2  0.2462  -57.7
 1.380  0.7024 -168.4   8.072   88.6  0.0345   27.0  0.2442  -58.1
 1.400  0.7042 -169.1   7.977   88.0  0.0346   26.7  0.2422  -58.5
 1.420  0.7053 -169.8   7.875   87.5  0.0347   26.6  0.2397  -58.7
 1.440  0.7065 -170.6   7.773   87.0  0.0348   26.5  0.2373  -59.0
 1.460  0.7078 -171.3   7.672   86.4  0.0350   26.3  0.2348  -59.2
 1.480  0.7092 -172.1   7.572   85.9  0.0351   26.2  0.2324  -59.4
 1.500  0.7108 -172.8   7.472   85.3  0.0352   26.1  0.2299  -59.7
 1.520  0.7119 -173.4   7.397   84.8  0.0353   25.9  0.2279  -60.0
 1.540  0.7131 -174.0   7.322   84.3  0.0353   25.8  0.2258  -60.3
 1.560  0.7144 -174.7   7.248   83.8  0.0354   25.6  0.2238  -60.6
 1.580  0.7158 -175.3   7.174   83.3  0.0354   25.5  0.2218  -60.9
 1.600  0.7173 -175.9   7.101   82.8  0.0355   25.3  0.2198  -61.2
 1.620  0.7182 -176.5   7.023   82.3  0.0356   25.1  0.2180  -61.5
 1.640  0.7193 -177.2   6.945   81.8  0.0357   24.9  0.2162  -61.8
 1.660  0.7204 -177.8   6.868   81.3  0.0358   24.8  0.2144  -62.1
 1.680  0.7216 -178.5   6.791   80.8  0.0359   24.6  0.2126  -62.5
 1.700  0.7229 -179.1   6.715   80.3  0.0360   24.4  0.2108  -62.8
 1.720  0.7239 -179.7   6.644   79.8  0.0361   24.3  0.2090  -63.1
 1.740  0.7249  179.7   6.573   79.4  0.0362   24.1  0.2072  -63.4
 1.760  0.7260  179.2   6.503   78.9  0.0362   24.0  0.2054  -63.7
 1.780  0.7272  178.6   6.433   78.4  0.0363   23.8  0.2036  -64.0
 1.800  0.7284  178.0   6.364   77.9  0.0364   23.7  0.2018  -64.3
 1.820  0.7293  177.4   6.299   77.5  0.0365   23.6  0.2001  -64.6
 1.840  0.7304  176.9   6.235   77.0  0.0366   23.5  0.1983  -64.9
 1.860  0.7314  176.3   6.171   76.5  0.0367   23.5  0.1966  -65.2
 1.880  0.7326  175.8   6.107   76.1  0.0368   23.4  0.1949  -65.6
 1.900  0.7338  175.2   6.044   75.6  0.0369   23.3  0.1932  -65.9
 1.920  0.7346  174.6   5.977   75.2  0.0370   23.2  0.1916  -66.2
 1.940  0.7355  174.1   5.911   74.7  0.0371   23.1  0.1901  -66.5
 1.960  0.7365  173.5   5.845   74.3  0.0372   23.0  0.1886  -66.8
 1.980  0.7375  173.0   5.780   73.8  0.0373   22.9  0.1870  -67.1
 2.000  0.7386  172.4   5.715   73.3  0.0374   22.8  0.1855  -67.4
 2.020  0.7390  172.0   5.664   72.9  0.0374   22.7  0.1844  -67.9
 2.040  0.7394  171.5   5.613   72.5  0.0374   22.5  0.1833  -68.3
 2.060  0.7399  171.1   5.562   72.1  0.0375   22.4  0.1823  -68.8
 2.080  0.7404  170.6   5.512   71.6  0.0375   22.2  0.1812  -69.3
 2.100  0.7410  170.2   5.462   71.2  0.0375   22.1  0.1802  -69.8
 2.120  0.7414  169.7   5.411   70.8  0.0376   22.1  0.1790  -70.1
 2.140  0.7420  169.2   5.359   70.3  0.0377   22.1  0.1777  -70.4
 2.160  0.7425  168.7   5.309   69.9  0.0378   22.0  0.1765  -70.7
 2.180  0.7431  168.2   5.258   69.5  0.0379   22.0  0.1753  -71.1
 2.200  0.7438  167.7   5.208   69.0  0.0380   22.0  0.1741  -71.4
 2.220  0.7442  167.3   5.174   68.6  0.0381   22.0  0.1729  -71.8
 2.240  0.7446  166.8   5.140   68.2  0.0381   21.9  0.1718  -72.1
 2.260  0.7451  166.4   5.106   67.8  0.0382   21.9  0.1707  -72.5
 2.280  0.7456  165.9   5.073   67.4  0.0382   21.8  0.1695  -72.8
 2.300  0.7462  165.5   5.040   67.0  0.0383   21.8  0.1684  -73.2
 2.320  0.7468  165.1   4.992   66.6  0.0384   21.8  0.1672  -73.5
 2.340  0.7474  164.6   4.943   66.2  0.0385   21.7  0.1661  -73.9
 2.360  0.7480  164.2   4.895   65.8  0.0385   21.7  0.1650  -74.2
 2.380  0.7488  163.7   4.848   65.4  0.0386   21.6  0.1638  -74.6
 2.400  0.7495  163.3   4.800   65.0  0.0387   21.6  0.1627  -74.9
 2.420  0.7499  162.8   4.765   64.6  0.0388   21.6  0.1615  -75.2
 2.440  0.7504  162.4   4.731   64.2  0.0389   21.5  0.1602  -75.5
 2.460  0.7510  161.9   4.697   63.8  0.0391   21.5  0.1590  -75.8
 2.480  0.7516  161.5   4.663   63.3  0.0392   21.4  0.1578  -76.2
 2.500  0.7522  161.0   4.630   62.9  0.0393   21.4  0.1566  -76.5
 2.520  0.7527  160.6   4.583   62.5  0.0393   21.4  0.1554  -76.9
 2.540  0.7532  160.1   4.537   62.1  0.0393   21.3  0.1541  -77.3
 2.560  0.7537  159.7   4.491   61.7  0.0394   21.3  0.1529  -77.7
 2.580  0.7544  159.2   4.445   61.3  0.0394   21.2  0.1517  -78.2
 2.600  0.7550  158.8   4.399   60.9  0.0394   21.2  0.1505  -78.6
 2.620  0.7555  158.4   4.372   60.5  0.0395   21.1  0.1493  -79.0
 2.640  0.7560  158.0   4.346   60.2  0.0396   21.1  0.1482  -79.3
 2.660  0.7566  157.6   4.320   59.8  0.0398   21.0  0.1471  -79.7
 2.680  0.7572  157.2   4.294   59.4  0.0399   21.0  0.1459  -80.1
 2.700  0.7578  156.8   4.268   59.0  0.0400   20.9  0.1448  -80.5
 2.720  0.7583  156.4   4.236   58.6  0.0400   20.9  0.1437  -81.1
 2.740  0.7588  156.0   4.203   58.2  0.0400   20.9  0.1426  -81.6
 2.760  0.7593  155.5   4.171   57.8  0.0401   20.9  0.1415  -82.2
 2.780  0.7599  155.1   4.140   57.4  0.0401   20.9  0.1405  -82.8
 2.800  0.7605  154.7   4.108   57.0  0.0401   20.9  0.1394  -83.4
 2.820  0.7608  154.3   4.084   56.6  0.0402   20.8  0.1383  -83.9
 2.840  0.7612  153.9   4.060   56.3  0.0403   20.8  0.1372  -84.4
 2.860  0.7615  153.6   4.036   55.9  0.0405   20.7  0.1361  -84.9
 2.880  0.7620  153.2   4.012   55.6  0.0406   20.7  0.1351  -85.4
 2.900  0.7624  152.8   3.989   55.2  0.0407   20.6  0.1340  -85.9
 2.920  0.7629  152.4   3.959   54.9  0.0408   20.5  0.1329  -86.5
 2.940  0.7633  152.0   3.929   54.5  0.0409   20.5  0.1318  -87.1
 2.960  0.7639  151.7   3.900   54.1  0.0410   20.4  0.1308  -87.8
 2.980  0.7644  151.3   3.870   53.8  0.0411   20.4  0.1297  -88.4
 3.000  0.7650  150.9   3.841   53.4  0.0412   20.3  0.1287  -89.1
 3.100  0.7679  148.9   3.700   51.5  0.0415   20.4  0.1240  -92.2
 3.200  0.7698  147.1   3.603   49.7  0.0421   20.2  0.1206  -96.3
 3.300  0.7725  145.3   3.475   47.8  0.0425   20.0  0.1167  -99.7
 3.400  0.7754  143.5   3.369   46.1  0.0431   19.6  0.1137 -104.0
 3.500  0.7783  141.6   3.236   44.3  0.0435   19.5  0.1103 -107.8
 3.600  0.7810  139.9   3.154   42.6  0.0437   19.1  0.1082 -112.5
 3.700  0.7837  138.3   3.053   40.9  0.0442   19.2  0.1060 -117.2
 3.800  0.7855  136.7   2.992   39.2  0.0447   18.8  0.1055 -122.4
 3.900  0.7877  135.1   2.899   37.5  0.0452   18.8  0.1049 -127.4
 4.000  0.7915  133.5   2.785   35.8  0.0456   18.6  0.1061 -132.5
 4.100  0.7926  132.0   2.727   34.1  0.0462   18.5  0.1076 -137.4
 4.200  0.7960  130.5   2.642   32.5  0.0465   18.1  0.1108 -142.1
 4.300  0.7968  129.1   2.597   30.9  0.0470   18.1  0.1138 -146.4
 4.400  0.8008  127.8   2.510   29.3  0.0474   17.8  0.1168 -150.2
 4.500  0.8016  126.5   2.451   27.8  0.0480   17.7  0.1201 -153.9
 4.600  0.8051  125.3   2.380   26.2  0.0483   17.4  0.1240 -157.3
 4.700  0.8058  124.1   2.325   24.8  0.0489   17.4  0.1282 -160.7
 4.800  0.8085  123.0   2.272   23.2  0.0495   17.0  0.1318 -163.8
 4.900  0.8099  121.8   2.197   21.7  0.0501   17.0  0.1355 -166.7
 5.000  0.8124  120.8   2.155   20.3  0.0506   16.7  0.1399 -169.4
 5.100  0.8129  119.6   2.101   18.8  0.0511   16.7  0.1438 -172.1
 5.200  0.8143  118.7   2.075   17.4  0.0518   16.4  0.1480 -174.8
 5.300  0.8145  117.6   2.013   15.9  0.0523   16.3  0.1516 -177.2
 5.400  0.8160  116.7   1.975   14.5  0.0527   16.0  0.1551 -179.6
 5.500  0.8165  115.7   1.913   13.0  0.0534   15.7  0.1589  178.0
 5.600  0.8173  114.9   1.887   11.7  0.0543   15.7  0.1627  175.7
 5.700  0.8173  113.9   1.842   10.3  0.0549   15.4  0.1665  173.3
 5.800  0.8181  113.0   1.825    8.9  0.0556   15.2  0.1709  171.0
 5.900  0.8195  112.1   1.777    7.5  0.0565   14.9  0.1754  168.7
 6.000  0.8200  111.2   1.751    6.1  0.0572   14.6  0.1800  166.5
 6.100  0.8224  110.4   1.709    4.7  0.0581   14.3  0.1851  164.3
 6.200  0.8223  109.4   1.692    3.3  0.0591   13.9  0.1901  162.2
 6.300  0.8248  108.4   1.653    1.8  0.0597   13.3  0.1953  160.0
 6.400  0.8251  107.4   1.625    0.4  0.0607   12.7  0.2008  158.0
 6.500  0.8277  106.3   1.592   -1.2  0.0615   12.2  0.2063  155.9
 6.600  0.8276  105.3   1.571   -2.7  0.0624   11.7  0.2121  153.9
 6.800  0.8313  103.1   1.516   -5.5  0.0638   10.3  0.2232  150.1
 7.000  0.8344  100.7   1.460   -8.6  0.0655    9.1  0.2356  146.4
 7.200  0.8381   98.4   1.420  -11.5  0.0671    7.7  0.2477  143.0
 7.400  0.8415   96.0   1.369  -14.6  0.0685    6.4  0.2597  139.5
 7.600  0.8460   93.4   1.317  -17.7  0.0699    4.9  0.2726  135.9
 7.800  0.8512   90.8   1.271  -20.8  0.0714    3.3  0.2847  132.2
 8.000  0.8565   88.3   1.216  -23.9  0.0723    1.7  0.2981  128.4
 8.200  0.8605   85.8   1.169  -26.8  0.0732   -0.1  0.3120  123.9
 8.400  0.8661   83.3   1.125  -29.9  0.0742   -1.8  0.3276  119.9
 8.600  0.8709   81.0   1.083  -32.9  0.0749   -3.5  0.3451  115.8
 8.800  0.8746   78.7   1.040  -35.6  0.0755   -5.1  0.3647  111.8
 9.000  0.8797   76.5   1.000  -38.5  0.0761   -6.8  0.3859  108.2
 9.200  0.8834   74.6   0.953  -40.7  0.0761   -8.1  0.4077  104.9
 9.400  0.8880   72.8   0.907  -43.2  0.0761   -9.4  0.4307  101.9
 9.600  0.8926   71.3   0.865  -45.4  0.0761  -10.6  0.4533   99.5
 9.800  0.8967   70.0   0.825  -47.3  0.0763  -11.7  0.4752   97.7
10.000  0.9012   68.7   0.786  -49.4  0.0764  -12.8  0.4974   96.1
!
!  f       NFmin   Gammaopt  rn/50
! GHz       dB    MAG  ANG    -
!
! noise parameter not available yet for this operation point!
!
! (c) 2016  Infineon Technologies AG, Munich
