! Infineon Technologies  Discrete & RF Semiconductors
! BFP740FESD
! VCE =  2.0 V,  IC =  35 mA
! Common Emitter S-Parameters:                            Jan 2016
# GHz  S  MA  R  50
!  f         S11            S21            S12            S22
! GHz     MAG   ANG      MAG   ANG      MAG   ANG      MAG   ANG
 0.010  0.5613   -1.7  56.111 -179.5  0.0009   94.7  0.9061    4.7
 0.015  0.5628   -3.5  57.318  179.1  0.0010   91.3  0.9238    1.8
 0.020  0.5649   -5.3  58.556  177.8  0.0011   88.6  0.9438   -0.9
 0.025  0.5641   -6.5  58.563  177.1  0.0013   86.4  0.9454   -1.6
 0.030  0.5635   -7.7  58.578  176.5  0.0016   84.9  0.9471   -2.2
 0.035  0.5631   -8.9  58.601  175.8  0.0018   83.8  0.9489   -2.9
 0.040  0.5630  -10.1  58.631  175.2  0.0020   82.9  0.9508   -3.6
 0.045  0.5632  -11.3  58.669  174.5  0.0023   82.3  0.9529   -4.2
 0.050  0.5636  -12.5  58.714  173.9  0.0025   81.7  0.9551   -4.9
 0.055  0.5623  -13.7  58.656  173.3  0.0027   81.3  0.9538   -5.5
 0.060  0.5612  -14.9  58.605  172.6  0.0029   80.9  0.9526   -6.2
 0.065  0.5604  -16.1  58.561  172.0  0.0031   80.6  0.9516   -6.8
 0.070  0.5598  -17.4  58.525  171.3  0.0033   80.4  0.9506   -7.4
 0.075  0.5595  -18.6  58.497  170.7  0.0035   80.1  0.9498   -8.1
 0.080  0.5595  -19.8  58.476  170.0  0.0038   79.9  0.9491   -8.7
 0.085  0.5597  -21.0  58.463  169.4  0.0040   79.8  0.9485   -9.4
 0.090  0.5601  -22.3  58.457  168.7  0.0042   79.6  0.9481  -10.0
 0.095  0.5608  -23.5  58.459  168.1  0.0044   79.4  0.9477  -10.7
 0.100  0.5618  -24.7  58.468  167.4  0.0046   79.3  0.9475  -11.3
 0.105  0.5603  -25.8  58.254  166.7  0.0048   78.7  0.9447  -11.9
 0.110  0.5591  -27.0  58.048  166.1  0.0050   78.1  0.9419  -12.5
 0.115  0.5580  -28.2  57.849  165.4  0.0052   77.6  0.9393  -13.1
 0.120  0.5573  -29.3  57.658  164.8  0.0054   77.1  0.9368  -13.7
 0.125  0.5567  -30.5  57.475  164.1  0.0056   76.7  0.9343  -14.3
 0.130  0.5563  -31.6  57.300  163.4  0.0058   76.3  0.9320  -14.9
 0.135  0.5562  -32.8  57.133  162.8  0.0060   75.9  0.9298  -15.5
 0.140  0.5564  -34.0  56.973  162.1  0.0062   75.6  0.9276  -16.1
 0.145  0.5567  -35.1  56.822  161.4  0.0064   75.2  0.9256  -16.7
 0.150  0.5573  -36.3  56.679  160.7  0.0066   74.9  0.9237  -17.3
 0.155  0.5567  -37.3  56.460  160.1  0.0068   74.4  0.9203  -17.8
 0.160  0.5563  -38.4  56.247  159.6  0.0070   74.0  0.9169  -18.4
 0.165  0.5561  -39.4  56.040  159.0  0.0072   73.6  0.9136  -18.9
 0.170  0.5561  -40.5  55.838  158.4  0.0074   73.2  0.9104  -19.4
 0.175  0.5562  -41.5  55.641  157.9  0.0075   72.9  0.9073  -20.0
 0.180  0.5565  -42.6  55.450  157.3  0.0077   72.5  0.9042  -20.5
 0.185  0.5571  -43.6  55.266  156.7  0.0079   72.2  0.9013  -21.0
 0.190  0.5578  -44.6  55.086  156.1  0.0081   71.9  0.8984  -21.6
 0.195  0.5586  -45.7  54.913  155.5  0.0083   71.6  0.8956  -22.1
 0.200  0.5597  -46.7  54.746  154.9  0.0085   71.3  0.8929  -22.7
 0.220  0.5563  -50.6  53.689  152.7  0.0092   69.7  0.8783  -24.6
 0.240  0.5556  -54.6  52.713  150.5  0.0099   68.2  0.8647  -26.6
 0.260  0.5553  -58.4  51.739  148.4  0.0105   66.8  0.8506  -28.4
 0.280  0.5549  -62.1  50.748  146.4  0.0112   65.4  0.8359  -30.2
 0.300  0.5567  -65.7  49.817  144.4  0.0118   64.2  0.8220  -32.0
 0.320  0.5555  -68.9  48.809  142.7  0.0124   63.0  0.8068  -33.6
 0.340  0.5561  -72.2  47.844  141.0  0.0129   61.9  0.7922  -35.2
 0.360  0.5569  -75.2  46.902  139.3  0.0135   60.8  0.7779  -36.8
 0.380  0.5576  -78.1  45.975  137.7  0.0140   59.7  0.7635  -38.2
 0.400  0.5596  -80.9  45.084  136.1  0.0145   58.6  0.7497  -39.7
 0.420  0.5597  -83.6  44.118  134.7  0.0150   57.7  0.7362  -41.0
 0.440  0.5610  -86.3  43.180  133.3  0.0155   56.8  0.7232  -42.4
 0.450  0.5621  -87.6  42.721  132.5  0.0157   56.4  0.7168  -43.1
 0.460  0.5620  -88.8  42.291  131.9  0.0159   56.0  0.7101  -43.7
 0.480  0.5626  -91.3  41.447  130.6  0.0164   55.1  0.6971  -45.0
 0.500  0.5642  -93.8  40.624  129.3  0.0168   54.3  0.6844  -46.3
 0.520  0.5643  -95.9  39.839  128.2  0.0172   53.5  0.6723  -47.3
 0.540  0.5651  -98.0  39.069  127.1  0.0175   52.8  0.6604  -48.4
 0.560  0.5666 -100.0  38.314  126.0  0.0179   52.1  0.6488  -49.5
 0.580  0.5689 -102.1  37.575  124.8  0.0182   51.4  0.6373  -50.6
 0.600  0.5719 -104.1  36.854  123.5  0.0186   50.7  0.6262  -51.8
 0.620  0.5724 -105.9  36.170  122.6  0.0189   50.0  0.6159  -52.7
 0.640  0.5735 -107.8  35.496  121.7  0.0192   49.4  0.6057  -53.7
 0.660  0.5751 -109.6  34.830  120.7  0.0195   48.8  0.5957  -54.7
 0.680  0.5774 -111.4  34.175  119.7  0.0198   48.2  0.5859  -55.7
 0.700  0.5802 -113.2  33.531  118.7  0.0201   47.6  0.5763  -56.8
 0.720  0.5810 -114.7  32.940  117.9  0.0204   47.1  0.5674  -57.6
 0.740  0.5822 -116.2  32.356  117.1  0.0206   46.6  0.5586  -58.5
 0.760  0.5838 -117.7  31.778  116.3  0.0209   46.1  0.5499  -59.4
 0.780  0.5858 -119.1  31.207  115.4  0.0211   45.6  0.5414  -60.3
 0.800  0.5882 -120.6  30.644  114.5  0.0214   45.1  0.5330  -61.2
 0.820  0.5895 -121.9  30.160  113.8  0.0216   44.6  0.5252  -62.0
 0.840  0.5910 -123.2  29.681  113.1  0.0218   44.2  0.5175  -62.8
 0.860  0.5929 -124.5  29.207  112.4  0.0221   43.8  0.5099  -63.6
 0.880  0.5951 -125.7  28.738  111.6  0.0223   43.3  0.5025  -64.4
 0.900  0.5975 -127.0  28.274  110.8  0.0225   42.9  0.4951  -65.3
 0.920  0.5984 -128.2  27.833  110.2  0.0227   42.5  0.4882  -66.0
 0.940  0.5996 -129.3  27.396  109.5  0.0229   42.2  0.4814  -66.8
 0.960  0.6010 -130.5  26.963  108.8  0.0231   41.8  0.4747  -67.6
 0.980  0.6026 -131.7  26.533  108.1  0.0233   41.4  0.4681  -68.4
 1.000  0.6045 -132.8  26.108  107.4  0.0235   41.1  0.4616  -69.2
 1.020  0.6057 -133.8  25.733  106.8  0.0237   40.8  0.4557  -69.9
 1.040  0.6070 -134.8  25.361  106.3  0.0238   40.5  0.4499  -70.5
 1.060  0.6085 -135.8  24.991  105.7  0.0240   40.2  0.4442  -71.2
 1.080  0.6102 -136.7  24.624  105.0  0.0241   39.9  0.4385  -72.0
 1.100  0.6121 -137.7  24.260  104.4  0.0243   39.6  0.4329  -72.7
 1.120  0.6132 -138.6  23.928  103.9  0.0244   39.3  0.4276  -73.4
 1.140  0.6145 -139.5  23.598  103.3  0.0246   39.0  0.4225  -74.1
 1.160  0.6159 -140.4  23.270  102.7  0.0247   38.8  0.4173  -74.8
 1.180  0.6174 -141.2  22.945  102.1  0.0249   38.5  0.4123  -75.5
 1.200  0.6191 -142.1  22.622  101.5  0.0250   38.2  0.4073  -76.3
 1.220  0.6201 -142.9  22.331  101.0  0.0251   38.0  0.4029  -76.9
 1.240  0.6212 -143.7  22.042  100.5  0.0252   37.8  0.3985  -77.5
 1.260  0.6225 -144.4  21.754  100.0  0.0254   37.5  0.3942  -78.2
 1.280  0.6238 -145.2  21.469   99.4  0.0255   37.3  0.3899  -78.8
 1.300  0.6253 -146.0  21.185   98.9  0.0256   37.1  0.3857  -79.5
 1.320  0.6260 -146.7  20.915   98.4  0.0257   36.9  0.3817  -80.1
 1.340  0.6267 -147.4  20.647   98.0  0.0258   36.7  0.3778  -80.7
 1.360  0.6275 -148.1  20.380   97.5  0.0259   36.6  0.3739  -81.4
 1.380  0.6285 -148.8  20.114   97.0  0.0260   36.4  0.3700  -82.0
 1.400  0.6295 -149.5  19.850   96.5  0.0261   36.2  0.3662  -82.7
 1.420  0.6304 -150.1  19.619   96.1  0.0262   36.1  0.3629  -83.2
 1.440  0.6314 -150.7  19.390   95.7  0.0263   35.9  0.3597  -83.8
 1.460  0.6324 -151.3  19.161   95.3  0.0264   35.8  0.3565  -84.3
 1.480  0.6335 -151.9  18.933   94.8  0.0265   35.6  0.3533  -84.9
 1.500  0.6347 -152.5  18.707   94.4  0.0266   35.5  0.3502  -85.5
 1.520  0.6356 -153.1  18.498   94.0  0.0267   35.4  0.3474  -86.1
 1.540  0.6365 -153.6  18.290   93.5  0.0268   35.3  0.3446  -86.7
 1.560  0.6375 -154.2  18.083   93.1  0.0269   35.1  0.3419  -87.3
 1.580  0.6385 -154.7  17.878   92.7  0.0270   35.0  0.3392  -87.9
 1.600  0.6396 -155.3  17.673   92.2  0.0271   34.9  0.3366  -88.5
 1.620  0.6401 -155.9  17.487   91.8  0.0272   34.8  0.3341  -89.0
 1.640  0.6408 -156.5  17.302   91.4  0.0273   34.7  0.3317  -89.5
 1.660  0.6414 -157.0  17.118   91.0  0.0273   34.5  0.3293  -90.0
 1.680  0.6422 -157.6  16.935   90.6  0.0274   34.4  0.3269  -90.6
 1.700  0.6430 -158.2  16.753   90.2  0.0275   34.3  0.3245  -91.1
 1.720  0.6435 -158.6  16.574   89.9  0.0276   34.2  0.3225  -91.6
 1.740  0.6439 -159.0  16.395   89.5  0.0277   34.2  0.3206  -92.1
 1.760  0.6445 -159.5  16.217   89.1  0.0277   34.1  0.3187  -92.6
 1.780  0.6450 -159.9  16.040   88.8  0.0278   34.1  0.3168  -93.1
 1.800  0.6456 -160.3  15.863   88.4  0.0279   34.0  0.3149  -93.6
 1.820  0.6460 -160.8  15.711   88.1  0.0280   33.9  0.3131  -94.1
 1.840  0.6465 -161.3  15.560   87.7  0.0281   33.8  0.3113  -94.7
 1.860  0.6471 -161.7  15.409   87.3  0.0281   33.7  0.3095  -95.3
 1.880  0.6477 -162.2  15.259   87.0  0.0282   33.6  0.3078  -95.8
 1.900  0.6483 -162.7  15.110   86.6  0.0283   33.5  0.3061  -96.4
 1.920  0.6486 -163.1  14.969   86.3  0.0284   33.5  0.3047  -96.8
 1.940  0.6489 -163.5  14.828   85.9  0.0285   33.5  0.3033  -97.2
 1.960  0.6492 -163.8  14.688   85.6  0.0285   33.4  0.3019  -97.6
 1.980  0.6496 -164.2  14.549   85.3  0.0286   33.4  0.3005  -98.1
 2.000  0.6500 -164.6  14.410   84.9  0.0287   33.4  0.2991  -98.5
 2.020  0.6501 -165.0  14.284   84.6  0.0288   33.4  0.2978  -99.0
 2.040  0.6503 -165.4  14.159   84.2  0.0288   33.3  0.2966  -99.4
 2.060  0.6505 -165.8  14.034   83.9  0.0289   33.3  0.2954  -99.9
 2.080  0.6507 -166.2  13.909   83.6  0.0289   33.2  0.2942 -100.4
 2.100  0.6510 -166.7  13.786   83.2  0.0290   33.2  0.2930 -100.9
 2.120  0.6513 -167.1  13.662   82.9  0.0291   33.2  0.2919 -101.3
 2.140  0.6516 -167.5  13.539   82.5  0.0291   33.1  0.2908 -101.8
 2.160  0.6520 -167.9  13.417   82.2  0.0292   33.1  0.2897 -102.3
 2.180  0.6524 -168.3  13.295   81.8  0.0292   33.0  0.2886 -102.8
 2.200  0.6528 -168.7  13.174   81.4  0.0293   33.0  0.2875 -103.3
 2.220  0.6530 -169.1  13.067   81.1  0.0294   33.0  0.2866 -103.7
 2.240  0.6532 -169.4  12.960   80.8  0.0295   32.9  0.2858 -104.2
 2.260  0.6535 -169.8  12.854   80.6  0.0295   32.9  0.2850 -104.6
 2.280  0.6537 -170.1  12.747   80.3  0.0296   32.9  0.2842 -105.0
 2.300  0.6540 -170.5  12.642   80.0  0.0297   32.8  0.2834 -105.5
 2.320  0.6544 -170.8  12.536   79.7  0.0298   32.8  0.2826 -105.9
 2.340  0.6547 -171.2  12.431   79.4  0.0299   32.8  0.2819 -106.4
 2.360  0.6551 -171.5  12.326   79.0  0.0299   32.8  0.2811 -106.8
 2.380  0.6555 -171.9  12.222   78.7  0.0300   32.7  0.2804 -107.2
 2.400  0.6559 -172.2  12.118   78.4  0.0301   32.7  0.2797 -107.7
 2.420  0.6562 -172.5  12.025   78.1  0.0302   32.7  0.2792 -108.1
 2.440  0.6565 -172.9  11.932   77.8  0.0302   32.7  0.2787 -108.6
 2.460  0.6569 -173.2  11.840   77.5  0.0303   32.7  0.2782 -109.0
 2.480  0.6572 -173.6  11.747   77.3  0.0303   32.7  0.2777 -109.4
 2.500  0.6576 -173.9  11.656   77.0  0.0304   32.6  0.2773 -109.9
 2.520  0.6580 -174.2  11.564   76.7  0.0305   32.6  0.2769 -110.3
 2.540  0.6585 -174.6  11.473   76.4  0.0305   32.6  0.2764 -110.8
 2.560  0.6589 -174.9  11.382   76.0  0.0306   32.6  0.2760 -111.2
 2.580  0.6594 -175.3  11.291   75.7  0.0306   32.6  0.2757 -111.7
 2.600  0.6599 -175.6  11.201   75.4  0.0307   32.6  0.2753 -112.1
 2.620  0.6601 -175.9  11.120   75.1  0.0308   32.6  0.2751 -112.5
 2.640  0.6603 -176.2  11.038   74.9  0.0308   32.7  0.2749 -112.8
 2.660  0.6605 -176.4  10.957   74.6  0.0309   32.7  0.2747 -113.2
 2.680  0.6608 -176.7  10.877   74.4  0.0309   32.7  0.2746 -113.6
 2.700  0.6611 -177.0  10.796   74.1  0.0310   32.8  0.2744 -113.9
 2.720  0.6613 -177.3  10.716   73.8  0.0311   32.8  0.2743 -114.3
 2.740  0.6616 -177.6  10.636   73.6  0.0311   32.8  0.2741 -114.7
 2.760  0.6619 -177.8  10.556   73.3  0.0312   32.8  0.2740 -115.1
 2.780  0.6623 -178.1  10.476   73.0  0.0312   32.9  0.2739 -115.4
 2.800  0.6626 -178.4  10.397   72.7  0.0313   32.9  0.2738 -115.8
 2.820  0.6630 -178.7  10.327   72.5  0.0314   32.9  0.2738 -116.1
 2.840  0.6634 -178.9  10.258   72.2  0.0314   32.9  0.2739 -116.4
 2.860  0.6638 -179.2  10.188   72.0  0.0315   32.9  0.2739 -116.7
 2.880  0.6642 -179.4  10.119   71.7  0.0315   32.9  0.2740 -117.0
 2.900  0.6647 -179.7  10.050   71.4  0.0316   33.0  0.2741 -117.3
 2.920  0.6651 -180.0   9.982   71.2  0.0317   33.0  0.2741 -117.6
 2.940  0.6656  179.8   9.913   70.9  0.0317   33.0  0.2742 -117.9
 2.960  0.6661  179.5   9.845   70.6  0.0318   33.0  0.2743 -118.2
 2.980  0.6666  179.3   9.777   70.4  0.0318   33.0  0.2744 -118.5
 3.000  0.6671  179.0   9.709   70.1  0.0319   33.0  0.2745 -118.8
 3.100  0.6679  177.8   9.428   69.0  0.0323   33.2  0.2752 -119.9
 3.200  0.6690  176.6   9.151   67.9  0.0326   33.4  0.2760 -121.0
 3.300  0.6704  175.4   8.878   66.7  0.0330   33.6  0.2770 -122.1
 3.400  0.6720  174.2   8.609   65.4  0.0333   33.8  0.2780 -123.2
 3.500  0.6740  173.0   8.345   64.0  0.0337   34.0  0.2791 -124.3
 3.600  0.6751  171.9   8.140   62.9  0.0341   34.2  0.2795 -125.1
 3.700  0.6765  170.9   7.938   61.8  0.0345   34.4  0.2800 -126.0
 3.800  0.6780  169.8   7.740   60.6  0.0350   34.6  0.2805 -126.8
 3.900  0.6799  168.7   7.545   59.4  0.0354   34.7  0.2811 -127.7
 4.000  0.6819  167.7   7.353   58.1  0.0358   34.9  0.2817 -128.5
 4.100  0.6831  166.7   7.183   57.0  0.0363   35.0  0.2820 -129.6
 4.200  0.6846  165.7   7.016   55.8  0.0368   35.1  0.2824 -130.8
 4.300  0.6863  164.7   6.851   54.6  0.0373   35.1  0.2830 -131.9
 4.400  0.6881  163.7   6.690   53.3  0.0378   35.2  0.2836 -133.1
 4.500  0.6902  162.7   6.533   52.0  0.0383   35.3  0.2844 -134.2
 4.600  0.6910  161.9   6.387   51.0  0.0387   35.4  0.2850 -135.3
 4.700  0.6919  161.0   6.243   49.9  0.0392   35.4  0.2856 -136.4
 4.800  0.6929  160.2   6.101   48.7  0.0396   35.5  0.2864 -137.5
 4.900  0.6941  159.3   5.962   47.5  0.0401   35.5  0.2872 -138.5
 5.000  0.6955  158.5   5.825   46.3  0.0405   35.6  0.2882 -139.6
 5.100  0.6950  157.7   5.710   45.3  0.0410   35.6  0.2883 -140.5
 5.200  0.6947  156.8   5.596   44.3  0.0415   35.6  0.2886 -141.5
 5.300  0.6945  156.0   5.485   43.2  0.0419   35.6  0.2889 -142.4
 5.400  0.6945  155.1   5.375   42.1  0.0424   35.6  0.2892 -143.4
 5.500  0.6946  154.3   5.268   40.9  0.0429   35.6  0.2897 -144.3
 5.600  0.6945  153.3   5.179   39.8  0.0434   35.5  0.2893 -145.6
 5.700  0.6947  152.3   5.091   38.7  0.0439   35.4  0.2891 -146.9
 5.800  0.6950  151.2   5.006   37.6  0.0445   35.3  0.2890 -148.1
 5.900  0.6956  150.2   4.922   36.4  0.0450   35.2  0.2890 -149.4
 6.000  0.6964  149.2   4.841   35.2  0.0455   35.1  0.2892 -150.7
 6.100  0.6966  148.1   4.758   34.1  0.0459   35.0  0.2889 -152.2
 6.200  0.6971  147.0   4.676   32.9  0.0464   34.9  0.2888 -153.7
 6.300  0.6978  145.9   4.597   31.7  0.0468   34.9  0.2890 -155.2
 6.400  0.6988  144.8   4.519   30.5  0.0473   34.8  0.2893 -156.7
 6.500  0.7000  143.7   4.444   29.2  0.0477   34.7  0.2898 -158.2
 6.600  0.7008  142.7   4.366   28.1  0.0482   34.8  0.2881 -159.5
 6.800  0.7030  140.7   4.216   25.9  0.0491   35.1  0.2852 -162.2
 7.000  0.7061  138.7   4.072   23.5  0.0500   35.3  0.2830 -165.0
 7.200  0.7091  137.0   3.937   21.5  0.0516   35.7  0.2782 -168.0
 7.400  0.7127  135.3   3.807   19.3  0.0533   36.0  0.2742 -171.2
 7.600  0.7188  133.6   3.687   17.1  0.0552   35.9  0.2731 -175.1
 7.800  0.7276  131.9   3.579   14.8  0.0574   35.2  0.2756 -179.6
 8.000  0.7369  130.3   3.476   12.3  0.0596   34.6  0.2798  176.0
 8.200  0.7417  128.7   3.353   10.0  0.0611   33.1  0.2885  170.6
 8.400  0.7470  127.1   3.236    7.4  0.0627   31.6  0.2996  165.7
 8.600  0.7503  125.7   3.121    5.1  0.0639   30.2  0.3110  160.7
 8.800  0.7514  124.4   3.006    3.0  0.0646   28.9  0.3230  155.6
 9.000  0.7528  123.1   2.895    0.7  0.0654   27.6  0.3373  151.0
 9.200  0.7567  122.1   2.796   -0.7  0.0660   26.5  0.3541  146.7
 9.400  0.7608  121.0   2.699   -2.3  0.0667   25.5  0.3728  142.7
 9.600  0.7697  119.7   2.610   -4.1  0.0672   24.6  0.3956  139.2
 9.800  0.7836  118.1   2.531   -6.2  0.0677   23.8  0.4222  136.2
10.000  0.7981  116.6   2.455   -8.5  0.0682   23.0  0.4498  133.5
!
!  f       NFmin   Gammaopt  rn/50
! GHz       dB    MAG  ANG    -
 0.450      1.06  0.21 -171   0.08
 2.400      1.10  0.22 -158   0.09
 5.500      1.26  0.25 -159   0.10
10.000      1.79  0.43 -113   0.25
!
! (c) 2016  Infineon Technologies AG, Munich
