! Infineon Technologies  Discrete & RF Semiconductors
! BFP750
! VCE =  2.0 V,  IC =  90 mA
! Common Emitter S-Parameters:                            Jan 2016
# GHz  S  MA  R  50
!  f         S11            S21            S12            S22
! GHz     MAG   ANG      MAG   ANG      MAG   ANG      MAG   ANG
 0.030  0.4741  -24.0  73.557  171.6  0.0042   76.1  0.9094  -11.5
 0.035  0.4754  -27.6  73.340  170.1  0.0048   75.5  0.9081  -13.7
 0.040  0.4785  -31.1  73.177  168.5  0.0054   75.1  0.9083  -16.0
 0.045  0.4791  -35.1  72.986  166.8  0.0060   74.7  0.9057  -18.2
 0.050  0.4821  -39.1  72.859  165.1  0.0066   74.3  0.9044  -20.5
 0.055  0.4880  -42.4  72.404  163.8  0.0073   72.7  0.9005  -22.6
 0.060  0.4954  -45.6  71.987  162.5  0.0080   71.4  0.8978  -24.8
 0.065  0.4998  -49.0  71.445  160.9  0.0084   70.0  0.8922  -26.9
 0.070  0.5060  -52.4  70.959  159.3  0.0089   68.7  0.8878  -29.0
 0.075  0.5126  -55.6  70.457  158.1  0.0094   67.9  0.8826  -31.1
 0.080  0.5208  -58.8  69.989  156.8  0.0100   67.1  0.8785  -33.2
 0.085  0.5244  -61.6  69.244  155.4  0.0105   66.0  0.8720  -35.2
 0.090  0.5293  -64.3  68.541  154.0  0.0111   65.0  0.8666  -37.2
 0.095  0.5345  -67.2  67.868  152.7  0.0115   63.9  0.8598  -39.1
 0.100  0.5411  -70.1  67.229  151.4  0.0120   62.8  0.8539  -41.0
 0.105  0.5468  -72.4  66.494  150.2  0.0124   61.7  0.8470  -42.8
 0.110  0.5533  -74.6  65.788  149.0  0.0129   60.6  0.8410  -44.7
 0.115  0.5583  -77.2  65.013  147.8  0.0133   59.9  0.8340  -46.5
 0.120  0.5645  -79.7  64.269  146.5  0.0138   59.2  0.8279  -48.4
 0.125  0.5702  -81.9  63.531  145.5  0.0142   58.3  0.8206  -50.2
 0.130  0.5768  -84.1  62.815  144.4  0.0147   57.5  0.8141  -52.0
 0.135  0.5809  -86.3  62.090  143.3  0.0150   56.7  0.8067  -53.7
 0.140  0.5859  -88.5  61.387  142.2  0.0153   55.9  0.8001  -55.4
 0.145  0.5906  -90.5  60.687  141.1  0.0157   55.1  0.7929  -57.0
 0.150  0.5960  -92.5  60.010  140.0  0.0161   54.4  0.7863  -58.6
 0.155  0.5979  -94.3  59.232  139.2  0.0164   53.6  0.7777  -59.9
 0.160  0.6004  -96.0  58.467  138.3  0.0166   52.8  0.7694  -61.3
 0.165  0.6035  -97.7  57.714  137.5  0.0169   52.1  0.7617  -62.7
 0.170  0.6071  -99.5  56.975  136.6  0.0172   51.4  0.7544  -64.2
 0.175  0.6112 -101.1  56.249  135.7  0.0175   50.7  0.7476  -65.6
 0.180  0.6159 -102.8  55.539  134.8  0.0178   50.0  0.7413  -67.1
 0.185  0.6210 -104.5  54.843  133.8  0.0180   49.3  0.7355  -68.6
 0.190  0.6267 -106.1  54.162  132.8  0.0183   48.7  0.7302  -70.2
 0.195  0.6329 -107.6  53.498  131.8  0.0186   48.1  0.7255  -71.7
 0.200  0.6395 -109.2  52.851  130.8  0.0189   47.5  0.7213  -73.3
 0.220  0.6484 -114.1  50.311  128.2  0.0196   45.3  0.6957  -78.0
 0.240  0.6619 -118.8  47.885  125.3  0.0204   43.3  0.6751  -83.0
 0.260  0.6736 -123.1  45.606  122.7  0.0211   41.6  0.6564  -87.6
 0.280  0.6827 -127.0  43.430  120.4  0.0217   40.2  0.6380  -91.7
 0.300  0.6948 -130.8  41.330  117.9  0.0223   38.8  0.6231  -96.1
 0.320  0.6992 -133.8  39.533  116.2  0.0227   37.6  0.6075  -99.6
 0.340  0.7055 -136.7  37.775  114.3  0.0232   36.5  0.5943 -103.2
 0.360  0.7109 -139.5  36.164  112.5  0.0236   35.5  0.5825 -106.6
 0.380  0.7150 -141.9  34.689  110.9  0.0239   34.7  0.5714 -109.6
 0.400  0.7205 -144.4  33.243  109.2  0.0243   33.9  0.5620 -112.7
 0.420  0.7236 -146.5  31.993  107.9  0.0246   33.2  0.5529 -115.3
 0.440  0.7276 -148.5  30.759  106.5  0.0249   32.6  0.5449 -118.0
 0.450  0.7300 -149.5  30.150  105.8  0.0250   32.3  0.5414 -119.4
 0.460  0.7310 -150.4  29.621  105.3  0.0251   32.1  0.5377 -120.6
 0.480  0.7335 -152.1  28.572  104.1  0.0254   31.6  0.5309 -123.0
 0.500  0.7367 -153.9  27.535  102.9  0.0256   31.1  0.5250 -125.4
 0.520  0.7380 -155.3  26.692  102.0  0.0258   30.8  0.5192 -127.3
 0.540  0.7398 -156.7  25.856  101.1  0.0260   30.5  0.5140 -129.2
 0.560  0.7420 -158.1  25.027  100.2  0.0262   30.2  0.5095 -131.2
 0.580  0.7447 -159.5  24.206   99.1  0.0264   29.9  0.5055 -133.2
 0.600  0.7478 -160.9  23.393   98.0  0.0266   29.6  0.5021 -135.2
 0.620  0.7486 -162.0  22.766   97.3  0.0268   29.4  0.4985 -136.7
 0.640  0.7497 -163.2  22.142   96.5  0.0270   29.2  0.4953 -138.3
 0.660  0.7510 -164.3  21.523   95.7  0.0271   29.1  0.4925 -139.9
 0.680  0.7527 -165.4  20.908   94.9  0.0273   28.9  0.4901 -141.5
 0.700  0.7546 -166.5  20.298   94.0  0.0275   28.7  0.4880 -143.1
 0.720  0.7554 -167.4  19.812   93.3  0.0277   28.6  0.4857 -144.4
 0.740  0.7565 -168.3  19.329   92.7  0.0278   28.5  0.4836 -145.7
 0.760  0.7577 -169.3  18.849   91.9  0.0280   28.4  0.4818 -147.0
 0.780  0.7591 -170.2  18.372   91.2  0.0281   28.3  0.4802 -148.3
 0.800  0.7607 -171.1  17.898   90.4  0.0283   28.2  0.4789 -149.6
 0.820  0.7614 -171.9  17.514   89.9  0.0285   28.2  0.4775 -150.7
 0.840  0.7622 -172.7  17.132   89.3  0.0286   28.1  0.4763 -151.8
 0.860  0.7632 -173.4  16.752   88.7  0.0288   28.1  0.4752 -152.9
 0.880  0.7643 -174.2  16.373   88.1  0.0289   28.0  0.4743 -154.0
 0.900  0.7655 -175.0  15.997   87.4  0.0291   28.0  0.4736 -155.1
 0.920  0.7659 -175.7  15.680   86.9  0.0293   28.0  0.4727 -156.1
 0.940  0.7665 -176.4  15.364   86.3  0.0295   28.0  0.4719 -157.0
 0.960  0.7671 -177.2  15.049   85.8  0.0296   28.0  0.4712 -158.0
 0.980  0.7679 -177.9  14.736   85.2  0.0298   28.0  0.4707 -158.9
 1.000  0.7688 -178.6  14.425   84.6  0.0300   28.0  0.4703 -159.9
 1.020  0.7695 -179.2  14.172   84.1  0.0302   28.0  0.4697 -160.7
 1.040  0.7702 -179.8  13.920   83.6  0.0304   28.0  0.4693 -161.5
 1.060  0.7711  179.6  13.669   83.1  0.0305   28.0  0.4689 -162.4
 1.080  0.7720  179.0  13.419   82.6  0.0307   28.0  0.4686 -163.2
 1.100  0.7730  178.4  13.171   82.0  0.0309   28.0  0.4684 -164.0
 1.120  0.7735  177.8  12.949   81.5  0.0311   28.0  0.4681 -164.8
 1.140  0.7741  177.2  12.728   81.1  0.0312   28.0  0.4679 -165.5
 1.160  0.7748  176.6  12.508   80.6  0.0314   28.1  0.4678 -166.3
 1.180  0.7756  176.0  12.289   80.0  0.0315   28.1  0.4678 -167.0
 1.200  0.7765  175.4  12.071   79.5  0.0317   28.1  0.4678 -167.8
 1.220  0.7768  174.9  11.888   79.1  0.0319   28.1  0.4676 -168.4
 1.240  0.7772  174.3  11.705   78.6  0.0320   28.1  0.4675 -169.1
 1.260  0.7776  173.8  11.523   78.2  0.0322   28.2  0.4674 -169.7
 1.280  0.7781  173.2  11.342   77.7  0.0323   28.2  0.4674 -170.4
 1.300  0.7787  172.7  11.162   77.2  0.0325   28.2  0.4675 -171.0
 1.320  0.7791  172.2  11.000   76.8  0.0327   28.2  0.4675 -171.6
 1.340  0.7796  171.7  10.838   76.4  0.0329   28.2  0.4676 -172.2
 1.360  0.7801  171.2  10.676   75.9  0.0331   28.3  0.4678 -172.9
 1.380  0.7807  170.7  10.516   75.5  0.0333   28.3  0.4680 -173.5
 1.400  0.7814  170.2  10.356   75.0  0.0335   28.3  0.4682 -174.1
 1.420  0.7819  169.7  10.219   74.6  0.0337   28.3  0.4683 -174.7
 1.440  0.7826  169.2  10.082   74.2  0.0339   28.3  0.4683 -175.2
 1.460  0.7832  168.8   9.946   73.7  0.0340   28.3  0.4685 -175.8
 1.480  0.7839  168.3   9.811   73.3  0.0342   28.3  0.4687 -176.3
 1.500  0.7847  167.8   9.676   72.8  0.0344   28.3  0.4689 -176.9
 1.520  0.7851  167.4   9.553   72.4  0.0346   28.3  0.4690 -177.4
 1.540  0.7856  166.9   9.430   72.0  0.0347   28.3  0.4692 -177.9
 1.560  0.7861  166.5   9.308   71.6  0.0349   28.3  0.4694 -178.5
 1.580  0.7866  166.0   9.186   71.1  0.0350   28.3  0.4697 -179.0
 1.600  0.7872  165.6   9.065   70.7  0.0352   28.3  0.4700 -179.5
 1.620  0.7875  165.1   8.957   70.3  0.0354   28.3  0.4702  180.0
 1.640  0.7878  164.7   8.850   69.9  0.0356   28.3  0.4704  179.5
 1.660  0.7882  164.2   8.743   69.5  0.0358   28.3  0.4707  179.0
 1.680  0.7886  163.8   8.637   69.0  0.0360   28.3  0.4710  178.5
 1.700  0.7891  163.3   8.531   68.6  0.0362   28.3  0.4713  178.0
 1.720  0.7894  162.9   8.431   68.2  0.0364   28.3  0.4714  177.6
 1.740  0.7898  162.5   8.331   67.8  0.0366   28.3  0.4716  177.1
 1.760  0.7902  162.1   8.232   67.4  0.0367   28.2  0.4718  176.7
 1.780  0.7906  161.7   8.133   66.9  0.0369   28.2  0.4720  176.2
 1.800  0.7911  161.3   8.035   66.5  0.0371   28.2  0.4723  175.8
 1.820  0.7914  160.9   7.946   66.1  0.0373   28.2  0.4726  175.3
 1.840  0.7918  160.5   7.857   65.8  0.0375   28.2  0.4729  174.9
 1.860  0.7922  160.0   7.768   65.4  0.0376   28.1  0.4733  174.4
 1.880  0.7927  159.6   7.680   65.0  0.0378   28.1  0.4737  174.0
 1.900  0.7932  159.2   7.592   64.6  0.0380   28.1  0.4741  173.5
 1.920  0.7934  158.8   7.514   64.2  0.0382   28.0  0.4742  173.1
 1.940  0.7936  158.4   7.436   63.8  0.0384   28.0  0.4744  172.6
 1.960  0.7939  158.0   7.359   63.4  0.0386   27.9  0.4746  172.2
 1.980  0.7942  157.6   7.282   63.0  0.0388   27.9  0.4748  171.7
 2.000  0.7946  157.2   7.205   62.6  0.0390   27.8  0.4750  171.3
 2.020  0.7947  156.8   7.134   62.2  0.0392   27.8  0.4752  170.9
 2.040  0.7948  156.4   7.064   61.9  0.0394   27.7  0.4754  170.5
 2.060  0.7949  156.0   6.993   61.5  0.0395   27.7  0.4757  170.0
 2.080  0.7951  155.6   6.923   61.1  0.0397   27.6  0.4759  169.6
 2.100  0.7953  155.2   6.854   60.7  0.0399   27.6  0.4762  169.2
 2.120  0.7956  154.8   6.785   60.3  0.0401   27.6  0.4766  168.8
 2.140  0.7959  154.4   6.716   59.9  0.0403   27.5  0.4769  168.4
 2.160  0.7962  154.0   6.647   59.5  0.0404   27.5  0.4773  167.9
 2.180  0.7966  153.6   6.579   59.0  0.0406   27.4  0.4777  167.5
 2.200  0.7970  153.2   6.511   58.6  0.0408   27.4  0.4781  167.1
 2.220  0.7971  152.8   6.451   58.3  0.0410   27.3  0.4784  166.7
 2.240  0.7972  152.5   6.391   57.9  0.0412   27.3  0.4787  166.3
 2.260  0.7974  152.1   6.332   57.6  0.0413   27.2  0.4790  165.9
 2.280  0.7976  151.8   6.272   57.2  0.0415   27.2  0.4794  165.5
 2.300  0.7978  151.4   6.213   56.9  0.0417   27.1  0.4797  165.0
 2.320  0.7981  151.0   6.155   56.5  0.0419   27.1  0.4801  164.6
 2.340  0.7983  150.7   6.096   56.2  0.0421   27.0  0.4806  164.2
 2.360  0.7987  150.3   6.038   55.8  0.0422   27.0  0.4810  163.8
 2.380  0.7990  150.0   5.980   55.4  0.0424   26.9  0.4815  163.4
 2.400  0.7994  149.6   5.922   55.0  0.0426   26.9  0.4820  163.0
 2.420  0.7993  149.2   5.870   54.7  0.0428   26.8  0.4824  162.6
 2.440  0.7992  148.9   5.819   54.3  0.0430   26.8  0.4828  162.2
 2.460  0.7992  148.5   5.768   54.0  0.0432   26.7  0.4832  161.8
 2.480  0.7992  148.2   5.717   53.6  0.0434   26.7  0.4837  161.4
 2.500  0.7992  147.8   5.666   53.3  0.0435   26.6  0.4842  161.0
 2.520  0.7993  147.4   5.616   52.9  0.0437   26.5  0.4847  160.7
 2.540  0.7993  147.1   5.565   52.5  0.0439   26.5  0.4852  160.3
 2.560  0.7995  146.7   5.515   52.2  0.0441   26.4  0.4857  159.9
 2.580  0.7996  146.4   5.466   51.8  0.0443   26.4  0.4863  159.5
 2.600  0.7998  146.0   5.416   51.4  0.0445   26.3  0.4869  159.1
 2.620  0.8000  145.7   5.373   51.1  0.0447   26.2  0.4873  158.7
 2.640  0.8003  145.3   5.331   50.8  0.0449   26.1  0.4878  158.4
 2.660  0.8005  145.0   5.288   50.4  0.0450   26.1  0.4883  158.0
 2.680  0.8008  144.6   5.246   50.1  0.0452   26.0  0.4888  157.7
 2.700  0.8011  144.3   5.204   49.8  0.0454   25.9  0.4893  157.3
 2.720  0.8015  144.0   5.162   49.4  0.0456   25.8  0.4898  156.9
 2.740  0.8019  143.6   5.120   49.1  0.0458   25.7  0.4904  156.6
 2.760  0.8023  143.3   5.078   48.7  0.0459   25.7  0.4910  156.2
 2.780  0.8027  142.9   5.037   48.4  0.0461   25.6  0.4916  155.9
 2.800  0.8032  142.6   4.996   48.0  0.0463   25.5  0.4922  155.5
 2.820  0.8035  142.3   4.958   47.7  0.0465   25.4  0.4927  155.2
 2.840  0.8039  141.9   4.920   47.3  0.0467   25.3  0.4933  154.8
 2.860  0.8043  141.6   4.883   47.0  0.0469   25.2  0.4939  154.5
 2.880  0.8047  141.3   4.845   46.7  0.0471   25.1  0.4944  154.2
 2.900  0.8051  140.9   4.808   46.3  0.0472   25.0  0.4950  153.8
 2.920  0.8056  140.6   4.771   46.0  0.0474   25.0  0.4957  153.5
 2.940  0.8061  140.3   4.734   45.6  0.0476   24.9  0.4963  153.2
 2.960  0.8066  140.0   4.698   45.2  0.0478   24.8  0.4969  152.9
 2.980  0.8071  139.6   4.661   44.9  0.0480   24.7  0.4976  152.5
 3.000  0.8077  139.3   4.625   44.5  0.0482   24.6  0.4983  152.2
 3.100  0.8086  137.6   4.465   43.0  0.0491   24.0  0.5013  150.6
 3.200  0.8103  136.0   4.308   41.5  0.0499   23.4  0.5047  149.1
 3.300  0.8125  134.4   4.155   39.8  0.0508   22.8  0.5085  147.6
 3.400  0.8155  132.7   4.005   38.0  0.0517   22.2  0.5126  146.1
 3.500  0.8191  131.1   3.860   36.0  0.0526   21.7  0.5171  144.6
 3.600  0.8210  129.6   3.737   34.6  0.0533   21.1  0.5213  143.3
 3.700  0.8234  128.2   3.615   33.1  0.0541   20.5  0.5259  142.0
 3.800  0.8263  126.7   3.497   31.5  0.0548   19.9  0.5307  140.7
 3.900  0.8297  125.3   3.381   29.8  0.0555   19.3  0.5357  139.4
 4.000  0.8337  123.9   3.269   28.0  0.0563   18.7  0.5410  138.2
 4.100  0.8353  122.7   3.173   26.7  0.0570   18.1  0.5454  137.1
 4.200  0.8373  121.5   3.079   25.4  0.0577   17.5  0.5499  136.0
 4.300  0.8396  120.3   2.987   23.9  0.0584   16.9  0.5547  135.0
 4.400  0.8423  119.2   2.896   22.4  0.0591   16.4  0.5596  133.9
 4.500  0.8453  118.0   2.808   20.8  0.0598   15.8  0.5647  132.9
 4.600  0.8457  116.9   2.734   19.6  0.0605   15.2  0.5673  131.9
 4.700  0.8464  115.8   2.662   18.3  0.0613   14.6  0.5700  131.0
 4.800  0.8474  114.8   2.592   16.9  0.0621   14.0  0.5729  130.0
 4.900  0.8487  113.7   2.522   15.4  0.0628   13.5  0.5759  129.0
 5.000  0.8503  112.6   2.455   13.9  0.0636   12.9  0.5791  128.1
 5.100  0.8495  111.5   2.394   12.7  0.0643   12.2  0.5799  127.0
 5.200  0.8490  110.4   2.334   11.4  0.0650   11.5  0.5810  125.8
 5.300  0.8489  109.4   2.275   10.0  0.0657   10.8  0.5822  124.7
 5.400  0.8490  108.3   2.217    8.6  0.0664   10.2  0.5838  123.5
 5.500  0.8494  107.2   2.161    7.1  0.0671    9.5  0.5855  122.4
 5.600  0.8492  106.3   2.113    6.0  0.0678    8.9  0.5867  121.2
 5.700  0.8492  105.4   2.065    4.8  0.0685    8.3  0.5882  120.0
 5.800  0.8494  104.4   2.019    3.6  0.0692    7.7  0.5899  118.8
 5.900  0.8498  103.5   1.973    2.3  0.0700    7.1  0.5919  117.6
 6.000  0.8505  102.6   1.929    0.9  0.0707    6.5  0.5941  116.4
 6.100  0.8522  101.8   1.893   -0.3  0.0715    5.7  0.5967  115.4
 6.200  0.8541  100.9   1.859   -1.5  0.0722    4.9  0.5995  114.5
 6.300  0.8561  100.1   1.825   -2.7  0.0730    4.2  0.6025  113.5
 6.400  0.8584   99.2   1.792   -4.0  0.0738    3.4  0.6056  112.5
 6.500  0.8608   98.4   1.760   -5.4  0.0746    2.7  0.6089  111.6
 6.600  0.8628   97.4   1.729   -6.7  0.0754    1.8  0.6120  110.8
 6.800  0.8676   95.4   1.670   -9.6  0.0769   -0.1  0.6186  109.2
 7.000  0.8735   93.4   1.615  -12.6  0.0786   -1.8  0.6257  107.6
 7.200  0.8768   91.0   1.552  -15.5  0.0796   -3.9  0.6336  105.6
 7.400  0.8816   88.7   1.493  -18.7  0.0806   -6.0  0.6423  103.7
 7.600  0.8852   86.3   1.432  -21.7  0.0814   -8.0  0.6514  101.5
 7.800  0.8875   83.8   1.369  -24.5  0.0819  -10.0  0.6612   99.0
 8.000  0.8915   81.4   1.310  -27.6  0.0825  -11.9  0.6721   96.7
 8.200  0.8928   79.0   1.252  -30.1  0.0825  -13.8  0.6792   94.1
 8.400  0.8957   76.7   1.196  -32.8  0.0825  -15.7  0.6877   91.5
 8.600  0.8979   74.3   1.142  -35.3  0.0824  -17.7  0.6943   88.9
 8.800  0.8995   72.0   1.090  -37.6  0.0819  -19.6  0.6989   86.2
 9.000  0.9026   69.7   1.040  -40.1  0.0816  -21.5  0.7050   83.6
 9.200  0.9064   67.8   0.990  -42.1  0.0807  -22.9  0.7124   81.3
 9.400  0.9111   65.8   0.942  -44.2  0.0799  -24.4  0.7209   79.1
 9.600  0.9170   64.4   0.900  -46.1  0.0791  -25.6  0.7333   77.3
 9.800  0.9235   63.3   0.864  -47.5  0.0785  -26.6  0.7494   75.9
10.000  0.9303   62.2   0.829  -49.1  0.0778  -27.6  0.7658   74.6
!
!  f       NFmin   Gammaopt  rn/50
! GHz       dB    MAG  ANG    -
 0.450      1.47  0.31 -169   0.33
 0.900      1.48  0.40 -164   0.16
 1.500      1.49  0.49 -154   0.09
 1.900      1.49  0.50 -149   0.10
 2.400      1.50  0.50 -142   0.12
 3.500      1.74  0.51 -125   0.17
!
! (c) 2016  Infineon Technologies AG, Munich
