! Infineon Technologies  Discrete & RF Semiconductors
! BFP740ESD
! VCE =  1.0 V,  IC =  30 mA
! Common Emitter S-Parameters:                            Jan 2016
# GHz  S  MA  R  50
!  f         S11            S21            S12            S22
! GHz     MAG   ANG      MAG   ANG      MAG   ANG      MAG   ANG
 0.010  0.4805   -5.0  28.395 -179.9  0.0027   14.7  0.5273    3.1
 0.015  0.4846   -6.2  28.814  178.6  0.0027   23.4  0.5324    0.5
 0.020  0.4889   -7.3  29.252  177.2  0.0027   32.2  0.5385   -2.0
 0.025  0.4870   -9.0  29.170  176.5  0.0029   36.0  0.5385   -2.7
 0.030  0.4856  -10.7  29.091  175.8  0.0032   39.3  0.5385   -3.4
 0.035  0.4846  -12.5  29.017  175.1  0.0035   42.0  0.5386   -4.2
 0.040  0.4841  -14.2  28.948  174.4  0.0037   44.4  0.5388   -4.9
 0.045  0.4840  -16.0  28.883  173.7  0.0040   46.4  0.5391   -5.6
 0.050  0.4844  -17.7  28.822  173.0  0.0043   48.2  0.5395   -6.3
 0.055  0.4832  -19.4  28.748  172.1  0.0046   49.8  0.5384   -6.9
 0.060  0.4825  -21.2  28.680  171.3  0.0048   51.2  0.5374   -7.6
 0.065  0.4822  -22.9  28.619  170.4  0.0051   52.4  0.5364   -8.2
 0.070  0.4823  -24.6  28.564  169.6  0.0054   53.5  0.5356   -8.9
 0.075  0.4829  -26.4  28.516  168.7  0.0057   54.6  0.5347   -9.5
 0.080  0.4839  -28.1  28.475  167.8  0.0060   55.5  0.5340  -10.2
 0.085  0.4854  -29.8  28.440  166.9  0.0062   56.3  0.5333  -10.8
 0.090  0.4873  -31.5  28.411  166.1  0.0065   57.1  0.5327  -11.5
 0.095  0.4896  -33.2  28.390  165.2  0.0068   57.8  0.5322  -12.1
 0.100  0.4924  -34.9  28.375  164.3  0.0071   58.4  0.5317  -12.8
 0.105  0.4919  -36.5  28.239  163.6  0.0074   58.5  0.5297  -13.4
 0.110  0.4918  -38.0  28.108  162.8  0.0077   58.6  0.5278  -14.0
 0.115  0.4920  -39.6  27.982  162.1  0.0079   58.7  0.5259  -14.6
 0.120  0.4926  -41.2  27.861  161.3  0.0082   58.7  0.5241  -15.2
 0.125  0.4936  -42.7  27.745  160.5  0.0085   58.8  0.5223  -15.8
 0.130  0.4949  -44.3  27.634  159.8  0.0088   58.9  0.5206  -16.5
 0.135  0.4966  -45.8  27.527  159.0  0.0091   58.9  0.5190  -17.1
 0.140  0.4986  -47.4  27.426  158.2  0.0093   59.0  0.5174  -17.7
 0.145  0.5010  -48.9  27.331  157.4  0.0096   59.0  0.5159  -18.4
 0.150  0.5038  -50.4  27.240  156.6  0.0099   59.1  0.5145  -19.0
 0.155  0.5040  -51.8  27.085  155.9  0.0102   59.0  0.5123  -19.5
 0.160  0.5044  -53.2  26.934  155.3  0.0104   58.8  0.5101  -20.0
 0.165  0.5052  -54.6  26.787  154.6  0.0107   58.7  0.5079  -20.6
 0.170  0.5063  -56.1  26.643  153.9  0.0109   58.6  0.5058  -21.1
 0.175  0.5077  -57.5  26.504  153.2  0.0112   58.5  0.5038  -21.6
 0.180  0.5094  -58.8  26.368  152.5  0.0115   58.4  0.5018  -22.2
 0.185  0.5114  -60.2  26.236  151.8  0.0117   58.3  0.4998  -22.7
 0.190  0.5137  -61.6  26.109  151.1  0.0120   58.2  0.4979  -23.3
 0.195  0.5162  -63.0  25.985  150.3  0.0122   58.1  0.4960  -23.8
 0.200  0.5191  -64.3  25.866  149.6  0.0125   58.0  0.4942  -24.4
 0.220  0.5218  -69.2  25.233  147.2  0.0135   56.8  0.4848  -26.3
 0.240  0.5282  -74.0  24.648  144.6  0.0144   55.9  0.4761  -28.4
 0.260  0.5346  -78.6  24.079  142.3  0.0153   54.9  0.4670  -30.2
 0.280  0.5404  -82.8  23.511  140.1  0.0162   53.9  0.4575  -32.0
 0.300  0.5491  -87.0  22.979  137.8  0.0170   53.1  0.4485  -33.8
 0.320  0.5532  -90.7  22.397  135.9  0.0177   52.0  0.4392  -35.4
 0.340  0.5596  -94.4  21.840  133.9  0.0184   51.1  0.4302  -37.0
 0.360  0.5657  -97.8  21.297  132.0  0.0191   50.1  0.4215  -38.6
 0.380  0.5710 -101.0  20.763  130.3  0.0198   49.2  0.4131  -40.0
 0.400  0.5781 -104.2  20.250  128.4  0.0204   48.3  0.4050  -41.5
 0.420  0.5822 -107.0  19.763  126.9  0.0210   47.5  0.3965  -42.7
 0.440  0.5877 -109.8  19.291  125.3  0.0216   46.7  0.3883  -44.0
 0.450  0.5910 -111.2  19.060  124.5  0.0219   46.3  0.3842  -44.7
 0.460  0.5929 -112.5  18.826  123.8  0.0221   45.9  0.3803  -45.3
 0.480  0.5977 -115.1  18.366  122.3  0.0226   45.1  0.3726  -46.5
 0.500  0.6037 -117.6  17.919  120.8  0.0231   44.3  0.3651  -47.8
 0.520  0.6063 -119.8  17.507  119.6  0.0235   43.6  0.3580  -48.8
 0.540  0.6098 -121.9  17.102  118.4  0.0240   42.9  0.3511  -49.8
 0.560  0.6141 -124.1  16.706  117.1  0.0244   42.2  0.3442  -50.8
 0.580  0.6193 -126.1  16.318  115.8  0.0249   41.6  0.3375  -51.9
 0.600  0.6253 -128.2  15.940  114.4  0.0253   41.0  0.3309  -53.0
 0.620  0.6276 -130.0  15.606  113.4  0.0256   40.4  0.3250  -53.9
 0.640  0.6305 -131.8  15.276  112.4  0.0259   39.9  0.3192  -54.8
 0.660  0.6340 -133.5  14.951  111.4  0.0263   39.3  0.3135  -55.7
 0.680  0.6381 -135.3  14.632  110.3  0.0266   38.8  0.3078  -56.7
 0.700  0.6428 -137.0  14.318  109.1  0.0269   38.3  0.3023  -57.7
 0.720  0.6449 -138.4  14.030  108.2  0.0272   37.8  0.2973  -58.4
 0.740  0.6474 -139.9  13.745  107.3  0.0275   37.3  0.2923  -59.2
 0.760  0.6503 -141.3  13.464  106.4  0.0277   36.8  0.2874  -60.0
 0.780  0.6536 -142.7  13.186  105.4  0.0280   36.4  0.2825  -60.8
 0.800  0.6573 -144.1  12.913  104.4  0.0283   35.9  0.2777  -61.7
 0.820  0.6593 -145.4  12.681  103.6  0.0285   35.5  0.2735  -62.4
 0.840  0.6616 -146.7  12.452  102.8  0.0287   35.1  0.2693  -63.2
 0.860  0.6642 -148.0  12.226  101.9  0.0290   34.7  0.2652  -64.0
 0.880  0.6672 -149.2  12.002  101.0  0.0292   34.4  0.2611  -64.8
 0.900  0.6705 -150.5  11.782  100.1  0.0294   34.0  0.2571  -65.6
 0.920  0.6719 -151.6  11.580   99.4  0.0296   33.7  0.2533  -66.3
 0.940  0.6736 -152.7  11.380   98.7  0.0298   33.4  0.2495  -67.0
 0.960  0.6755 -153.8  11.182   97.9  0.0299   33.1  0.2457  -67.7
 0.980  0.6777 -154.9  10.986   97.1  0.0301   32.8  0.2420  -68.4
 1.000  0.6801 -156.0  10.792   96.3  0.0303   32.5  0.2383  -69.2
 1.020  0.6815 -157.0  10.624   95.7  0.0305   32.3  0.2353  -69.8
 1.040  0.6830 -157.9  10.457   95.0  0.0307   32.0  0.2324  -70.4
 1.060  0.6848 -158.9  10.292   94.3  0.0308   31.8  0.2295  -71.0
 1.080  0.6868 -159.9  10.128   93.6  0.0310   31.5  0.2266  -71.6
 1.100  0.6889 -160.8   9.966   92.9  0.0312   31.3  0.2238  -72.3
 1.120  0.6903 -161.7   9.817   92.3  0.0313   31.1  0.2211  -73.0
 1.140  0.6918 -162.6   9.670   91.7  0.0315   30.9  0.2184  -73.6
 1.160  0.6935 -163.5   9.524   91.0  0.0316   30.6  0.2158  -74.3
 1.180  0.6954 -164.3   9.379   90.4  0.0318   30.4  0.2132  -75.1
 1.200  0.6974 -165.2   9.235   89.7  0.0319   30.2  0.2106  -75.8
 1.220  0.6984 -166.0   9.104   89.1  0.0320   30.0  0.2083  -76.3
 1.240  0.6995 -166.8   8.975   88.6  0.0321   29.8  0.2061  -76.9
 1.260  0.7008 -167.6   8.846   88.0  0.0323   29.7  0.2039  -77.4
 1.280  0.7022 -168.4   8.719   87.3  0.0324   29.5  0.2017  -78.0
 1.300  0.7037 -169.2   8.592   86.7  0.0325   29.3  0.1995  -78.6
 1.320  0.7044 -169.9   8.479   86.2  0.0326   29.2  0.1976  -79.2
 1.340  0.7053 -170.6   8.366   85.6  0.0327   29.1  0.1957  -79.8
 1.360  0.7063 -171.3   8.254   85.1  0.0329   28.9  0.1939  -80.5
 1.380  0.7073 -172.0   8.143   84.5  0.0330   28.8  0.1921  -81.1
 1.400  0.7085 -172.7   8.033   83.9  0.0331   28.7  0.1903  -81.8
 1.420  0.7093 -173.4   7.935   83.4  0.0332   28.6  0.1886  -82.3
 1.440  0.7101 -174.0   7.837   82.9  0.0333   28.5  0.1869  -82.9
 1.460  0.7111 -174.7   7.740   82.4  0.0335   28.3  0.1852  -83.4
 1.480  0.7122 -175.3   7.644   81.8  0.0336   28.2  0.1835  -83.9
 1.500  0.7133 -176.0   7.548   81.3  0.0337   28.1  0.1819  -84.5
 1.520  0.7140 -176.6   7.459   80.8  0.0338   28.0  0.1807  -85.1
 1.540  0.7148 -177.2   7.370   80.3  0.0339   27.9  0.1795  -85.6
 1.560  0.7157 -177.9   7.282   79.8  0.0340   27.9  0.1784  -86.2
 1.580  0.7167 -178.5   7.195   79.2  0.0341   27.8  0.1772  -86.8
 1.600  0.7178 -179.1   7.108   78.7  0.0342   27.7  0.1761  -87.4
 1.620  0.7184 -179.7   7.030   78.2  0.0343   27.6  0.1747  -87.9
 1.640  0.7190  179.7   6.952   77.7  0.0344   27.5  0.1734  -88.5
 1.660  0.7198  179.0   6.874   77.2  0.0346   27.4  0.1721  -89.1
 1.680  0.7206  178.4   6.797   76.7  0.0347   27.3  0.1708  -89.6
 1.700  0.7215  177.8   6.721   76.2  0.0348   27.2  0.1695  -90.2
 1.720  0.7220  177.3   6.645   75.7  0.0349   27.1  0.1686  -90.7
 1.740  0.7226  176.7   6.569   75.3  0.0350   27.1  0.1677  -91.2
 1.760  0.7232  176.2   6.494   74.8  0.0351   27.0  0.1668  -91.7
 1.780  0.7239  175.6   6.419   74.3  0.0352   27.0  0.1659  -92.3
 1.800  0.7247  175.1   6.345   73.8  0.0353   26.9  0.1650  -92.8
 1.820  0.7253  174.6   6.280   73.4  0.0354   26.8  0.1638  -93.4
 1.840  0.7259  174.1   6.215   72.9  0.0355   26.8  0.1627  -94.1
 1.860  0.7266  173.5   6.151   72.4  0.0356   26.7  0.1616  -94.7
 1.880  0.7273  173.0   6.087   72.0  0.0357   26.7  0.1605  -95.3
 1.900  0.7281  172.5   6.023   71.5  0.0358   26.6  0.1594  -96.0
 1.920  0.7283  172.0   5.964   71.1  0.0359   26.6  0.1586  -96.4
 1.940  0.7286  171.5   5.906   70.6  0.0360   26.6  0.1578  -96.9
 1.960  0.7289  171.1   5.848   70.2  0.0361   26.5  0.1570  -97.3
 1.980  0.7293  170.6   5.790   69.8  0.0362   26.5  0.1563  -97.8
 2.000  0.7297  170.1   5.733   69.3  0.0363   26.5  0.1555  -98.2
 2.020  0.7299  169.6   5.680   68.9  0.0364   26.5  0.1546  -98.8
 2.040  0.7301  169.1   5.627   68.5  0.0365   26.4  0.1537  -99.4
 2.060  0.7304  168.6   5.574   68.1  0.0366   26.4  0.1528 -100.0
 2.080  0.7307  168.1   5.522   67.6  0.0367   26.3  0.1520 -100.6
 2.100  0.7311  167.5   5.470   67.2  0.0367   26.3  0.1511 -101.3
 2.120  0.7315  167.0   5.418   66.8  0.0368   26.3  0.1503 -101.9
 2.140  0.7320  166.5   5.367   66.3  0.0369   26.2  0.1495 -102.5
 2.160  0.7326  166.0   5.316   65.8  0.0370   26.2  0.1487 -103.2
 2.180  0.7332  165.5   5.265   65.4  0.0371   26.1  0.1479 -103.8
 2.200  0.7339  165.0   5.215   64.9  0.0372   26.1  0.1472 -104.5
 2.220  0.7343  164.5   5.170   64.5  0.0373   26.1  0.1465 -105.2
 2.240  0.7347  164.1   5.126   64.1  0.0374   26.0  0.1458 -105.9
 2.260  0.7351  163.6   5.082   63.7  0.0375   26.0  0.1451 -106.6
 2.280  0.7356  163.2   5.038   63.3  0.0376   26.0  0.1444 -107.3
 2.300  0.7361  162.7   4.995   62.9  0.0377   25.9  0.1438 -108.0
 2.320  0.7367  162.3   4.951   62.5  0.0378   25.9  0.1432 -108.7
 2.340  0.7373  161.8   4.908   62.0  0.0379   25.9  0.1426 -109.4
 2.360  0.7380  161.4   4.866   61.6  0.0380   25.9  0.1420 -110.1
 2.380  0.7387  160.9   4.823   61.2  0.0381   25.8  0.1414 -110.9
 2.400  0.7395  160.5   4.781   60.7  0.0382   25.8  0.1409 -111.6
 2.420  0.7401  160.1   4.742   60.3  0.0383   25.8  0.1405 -112.3
 2.440  0.7407  159.6   4.703   59.9  0.0384   25.8  0.1400 -113.1
 2.460  0.7414  159.2   4.665   59.5  0.0385   25.7  0.1396 -113.8
 2.480  0.7421  158.8   4.627   59.1  0.0386   25.7  0.1392 -114.6
 2.500  0.7428  158.3   4.589   58.7  0.0387   25.7  0.1389 -115.4
 2.520  0.7436  157.9   4.551   58.3  0.0388   25.7  0.1386 -116.1
 2.540  0.7445  157.5   4.513   57.9  0.0389   25.7  0.1383 -116.9
 2.560  0.7453  157.1   4.476   57.5  0.0390   25.6  0.1380 -117.7
 2.580  0.7462  156.6   4.439   57.0  0.0391   25.6  0.1377 -118.4
 2.600  0.7472  156.2   4.402   56.6  0.0392   25.6  0.1375 -119.2
 2.620  0.7476  155.8   4.369   56.2  0.0393   25.6  0.1374 -119.9
 2.640  0.7479  155.4   4.336   55.9  0.0394   25.6  0.1373 -120.7
 2.660  0.7484  155.1   4.304   55.5  0.0395   25.6  0.1372 -121.4
 2.680  0.7488  154.7   4.271   55.1  0.0396   25.6  0.1372 -122.2
 2.700  0.7493  154.3   4.239   54.8  0.0397   25.7  0.1372 -122.9
 2.720  0.7498  153.9   4.207   54.4  0.0399   25.7  0.1372 -123.7
 2.740  0.7504  153.5   4.175   54.0  0.0400   25.7  0.1372 -124.5
 2.760  0.7509  153.2   4.144   53.6  0.0401   25.7  0.1372 -125.2
 2.780  0.7516  152.8   4.112   53.2  0.0402   25.7  0.1373 -126.0
 2.800  0.7522  152.4   4.081   52.8  0.0403   25.7  0.1374 -126.7
 2.820  0.7529  152.0   4.052   52.4  0.0404   25.7  0.1376 -127.4
 2.840  0.7536  151.7   4.023   52.1  0.0405   25.7  0.1377 -128.1
 2.860  0.7543  151.3   3.995   51.7  0.0406   25.7  0.1379 -128.9
 2.880  0.7551  151.0   3.967   51.3  0.0407   25.7  0.1381 -129.6
 2.900  0.7559  150.6   3.938   51.0  0.0408   25.6  0.1384 -130.3
 2.920  0.7567  150.2   3.910   50.6  0.0410   25.6  0.1386 -131.0
 2.940  0.7576  149.9   3.882   50.2  0.0411   25.6  0.1389 -131.7
 2.960  0.7584  149.5   3.855   49.8  0.0412   25.6  0.1392 -132.4
 2.980  0.7594  149.2   3.827   49.4  0.0413   25.6  0.1396 -133.1
 3.000  0.7603  148.8   3.800   49.0  0.0414   25.6  0.1399 -133.8
 3.100  0.7622  147.0   3.679   47.4  0.0420   25.5  0.1413 -137.5
 3.200  0.7648  145.1   3.561   45.6  0.0427   25.4  0.1433 -141.0
 3.300  0.7682  143.3   3.446   43.7  0.0433   25.4  0.1458 -144.5
 3.400  0.7724  141.5   3.335   41.7  0.0440   25.3  0.1489 -147.8
 3.500  0.7774  139.7   3.229   39.6  0.0446   25.2  0.1524 -151.0
 3.600  0.7788  137.9   3.131   38.0  0.0453   25.0  0.1556 -154.4
 3.700  0.7810  136.1   3.037   36.2  0.0460   24.8  0.1594 -157.7
 3.800  0.7839  134.4   2.945   34.4  0.0466   24.6  0.1636 -160.9
 3.900  0.7876  132.6   2.856   32.4  0.0473   24.5  0.1684 -163.8
 4.000  0.7920  130.9   2.771   30.3  0.0480   24.3  0.1735 -166.6
 4.100  0.7929  129.5   2.691   28.8  0.0487   24.0  0.1793 -169.5
 4.200  0.7942  128.0   2.613   27.2  0.0494   23.8  0.1856 -172.1
 4.300  0.7961  126.6   2.537   25.4  0.0500   23.5  0.1922 -174.6
 4.400  0.7984  125.2   2.463   23.6  0.0507   23.2  0.1992 -176.9
 4.500  0.8012  123.8   2.392   21.7  0.0514   23.0  0.2065 -179.1
 4.600  0.8013  122.8   2.328   20.4  0.0521   22.8  0.2123  179.1
 4.700  0.8016  121.8   2.265   19.0  0.0528   22.5  0.2184  177.4
 4.800  0.8022  120.7   2.204   17.5  0.0535   22.3  0.2246  175.8
 4.900  0.8031  119.7   2.144   15.9  0.0542   22.1  0.2310  174.2
 5.000  0.8042  118.7   2.086   14.3  0.0549   21.9  0.2375  172.8
 5.100  0.8050  117.8   2.038   13.0  0.0557   21.6  0.2423  171.1
 5.200  0.8061  116.9   1.992   11.7  0.0565   21.4  0.2474  169.4
 5.300  0.8073  116.0   1.946   10.3  0.0572   21.2  0.2526  167.9
 5.400  0.8088  115.1   1.902    8.8  0.0580   20.9  0.2580  166.3
 5.500  0.8104  114.2   1.859    7.3  0.0588   20.7  0.2636  164.9
 5.600  0.8122  113.2   1.821    5.9  0.0597   20.3  0.2693  163.0
 5.700  0.8142  112.3   1.784    4.5  0.0607   20.0  0.2753  161.2
 5.800  0.8165  111.3   1.747    3.0  0.0616   19.6  0.2816  159.4
 5.900  0.8190  110.3   1.713    1.5  0.0626   19.3  0.2881  157.8
 6.000  0.8217  109.4   1.679   -0.1  0.0635   19.0  0.2949  156.2
 6.100  0.8237  108.3   1.647   -1.5  0.0645   18.4  0.3013  154.6
 6.200  0.8260  107.3   1.615   -3.0  0.0656   17.7  0.3079  153.1
 6.300  0.8285  106.3   1.585   -4.5  0.0666   17.1  0.3148  151.7
 6.400  0.8313  105.2   1.556   -6.1  0.0676   16.6  0.3218  150.3
 6.500  0.8344  104.2   1.528   -7.8  0.0687   16.0  0.3290  149.0
 6.600  0.8356  103.0   1.499   -9.3  0.0698   15.3  0.3338  147.4
 6.800  0.8392  100.6   1.445  -12.4  0.0720   13.8  0.3442  144.5
 7.000  0.8442   98.3   1.395  -15.8  0.0742   12.5  0.3554  141.7
 7.200  0.8460   95.7   1.341  -18.8  0.0762   10.5  0.3669  138.0
 7.400  0.8495   93.2   1.291  -22.0  0.0782    8.7  0.3798  134.5
 7.600  0.8520   90.6   1.240  -25.2  0.0799    6.7  0.3933  131.0
 7.800  0.8537   87.9   1.187  -28.3  0.0811    4.6  0.4075  127.4
 8.000  0.8571   85.3   1.137  -31.7  0.0824    2.5  0.4232  124.1
 8.200  0.8567   83.1   1.085  -34.2  0.0829    0.7  0.4347  120.6
 8.400  0.8575   80.9   1.036  -37.0  0.0834   -1.0  0.4477  117.3
 8.600  0.8619   78.9   0.992  -39.6  0.0839   -2.6  0.4630  114.0
 8.800  0.8697   77.1   0.952  -42.1  0.0844   -3.9  0.4805  110.7
 9.000  0.8783   75.3   0.914  -44.7  0.0850   -5.2  0.4996  107.6
 9.200  0.8950   73.5   0.882  -47.1  0.0857   -6.6  0.5258  104.8
 9.400  0.9125   71.7   0.851  -49.6  0.0864   -7.9  0.5532  102.2
 9.600  0.9271   69.9   0.815  -52.2  0.0870   -9.5  0.5810   99.9
 9.800  0.9390   67.9   0.773  -54.9  0.0875  -11.3  0.6089   97.9
10.000  0.9519   66.0   0.733  -57.9  0.0880  -13.0  0.6375   96.0
!
!  f       NFmin   Gammaopt  rn/50
! GHz       dB    MAG  ANG    -
 0.450      0.96  0.14 -174   0.18
 0.900      1.01  0.16 -162   0.09
 1.900      1.03  0.19 -150   0.11
 2.400      1.09  0.22 -136   0.12
 5.500      1.24  0.37 -113   0.14
10.000      1.81  0.58  -83   0.65
!
! (c) 2016  Infineon Technologies AG, Munich
