! Infineon Technologies  Discrete & RF Semiconductors
! BFP740F
! VCE =  1.0 V,  IC =  25 mA
! Common Emitter S-Parameters:                            Oct 2012
# GHz  S  MA  R  50
!  f         S11            S21            S12            S22
! GHz     MAG   ANG      MAG   ANG      MAG   ANG      MAG   ANG
 0.030  0.5984   -7.4  37.862  176.4  0.0017   87.5  0.9558   -2.9
 0.040  0.6031   -9.8  38.394  175.3  0.0023   83.0  0.9572   -4.2
 0.050  0.6113  -12.0  39.316  174.0  0.0031   82.1  0.9573   -5.5
 0.060  0.6158  -14.3  39.740  172.5  0.0039   83.2  0.9568   -6.7
 0.070  0.6189  -16.8  40.075  170.7  0.0038   82.1  0.9545   -8.0
 0.080  0.6192  -19.3  39.845  169.1  0.0051   77.6  0.9525   -9.3
 0.090  0.6191  -21.6  39.522  167.6  0.0052   82.8  0.9524  -10.5
 0.100  0.6148  -24.2  38.947  166.2  0.0063   80.9  0.9482  -11.8
 0.110  0.6127  -26.5  38.385  165.0  0.0067   77.2  0.9450  -13.1
 0.120  0.6100  -29.0  37.899  163.8  0.0072   76.5  0.9397  -14.3
 0.130  0.6094  -31.1  37.606  162.6  0.0082   78.2  0.9336  -15.5
 0.140  0.6099  -33.2  37.506  161.6  0.0084   75.4  0.9273  -16.6
 0.150  0.6123  -35.2  37.587  160.4  0.0090   75.2  0.9215  -17.7
 0.200  0.6190  -45.4  36.456  154.7  0.0114   72.3  0.8969  -22.9
 0.250  0.6261  -54.1  35.733  150.3  0.0144   68.9  0.8663  -27.8
 0.300  0.6337  -62.4  34.674  145.8  0.0167   64.8  0.8390  -32.3
 0.350  0.6382  -70.5  32.944  141.8  0.0189   61.7  0.8142  -36.9
 0.400  0.6439  -77.1  32.420  138.6  0.0208   59.2  0.7741  -41.0
 0.450  0.6549  -83.3  31.338  134.8  0.0223   56.3  0.7570  -44.6
 0.500  0.6568  -89.4  30.179  132.0  0.0242   53.6  0.7206  -48.9
 0.600  0.6671  -99.8  28.423  126.4  0.0270   48.6  0.6639  -55.9
 0.700  0.6744 -109.0  26.254  121.3  0.0292   44.9  0.6176  -62.3
 0.800  0.6823 -116.5  24.638  116.8  0.0309   41.3  0.5717  -68.1
 0.900  0.6854 -123.3  23.095  112.9  0.0324   38.3  0.5281  -73.6
 1.000  0.6887 -129.2  21.610  109.4  0.0333   35.9  0.4929  -78.6
 1.100  0.6904 -134.5  20.267  106.2  0.0344   33.5  0.4589  -83.4
 1.200  0.6915 -139.0  19.099  103.5  0.0351   31.9  0.4319  -87.7
 1.300  0.6933 -143.3  17.941  100.7  0.0357   30.6  0.4061  -91.8
 1.400  0.6947 -146.9  17.007   98.4  0.0361   29.2  0.3859  -95.6
 1.500  0.6949 -150.4  16.097   96.2  0.0367   28.0  0.3663  -99.4
 1.600  0.6962 -153.3  15.313   94.1  0.0371   27.2  0.3517 -103.0
 1.700  0.6971 -156.3  14.551   92.2  0.0374   26.4  0.3375 -106.7
 1.800  0.6999 -159.0  13.830   90.3  0.0378   25.7  0.3289 -110.1
 1.900  0.7003 -161.4  13.235   88.6  0.0382   25.3  0.3179 -113.3
 2.000  0.7020 -163.8  12.640   86.8  0.0384   24.6  0.3118 -116.4
 2.100  0.7035 -165.9  12.083   85.1  0.0386   24.0  0.3059 -119.6
 2.200  0.7042 -167.9  11.559   83.6  0.0387   23.8  0.3022 -122.2
 2.300  0.7046 -169.8  11.087   82.1  0.0390   23.4  0.2969 -124.7
 2.400  0.7050 -171.6  10.634   80.6  0.0395   23.3  0.2950 -126.9
 2.500  0.7062 -173.3  10.225   79.2  0.0395   23.1  0.2911 -128.9
 2.600  0.7063 -174.9   9.869   77.9  0.0398   22.9  0.2891 -130.9
 2.700  0.7066 -176.3   9.538   76.6  0.0400   22.7  0.2860 -132.8
 2.800  0.7070 -177.9   9.210   75.3  0.0403   22.7  0.2853 -134.6
 2.900  0.7074 -179.2   8.907   74.0  0.0405   22.6  0.2837 -136.2
 3.000  0.7077  179.3   8.617   72.7  0.0408   22.4  0.2827 -137.8
 3.100  0.7080  178.0   8.349   71.6  0.0410   22.4  0.2821 -139.2
 3.200  0.7077  176.7   8.112   70.4  0.0413   22.4  0.2817 -140.5
 3.300  0.7086  175.3   7.864   69.2  0.0415   22.4  0.2807 -141.7
 3.400  0.7089  174.0   7.646   68.0  0.0418   22.4  0.2809 -142.9
 3.500  0.7094  172.7   7.419   66.9  0.0421   22.4  0.2794 -143.9
 3.600  0.7093  171.5   7.230   65.7  0.0424   22.5  0.2789 -144.9
 3.700  0.7100  170.3   7.040   64.6  0.0426   22.4  0.2769 -146.0
 3.800  0.7105  169.0   6.852   63.4  0.0430   22.7  0.2762 -147.1
 3.900  0.7113  167.9   6.674   62.3  0.0433   22.4  0.2749 -148.1
 4.000  0.7109  166.7   6.506   61.2  0.0436   22.5  0.2741 -149.2
 4.100  0.7125  165.5   6.351   60.1  0.0438   22.6  0.2723 -150.2
 4.200  0.7124  164.4   6.203   59.0  0.0442   22.6  0.2715 -151.3
 4.300  0.7135  163.3   6.059   57.9  0.0445   22.6  0.2699 -152.4
 4.400  0.7140  162.2   5.916   56.8  0.0449   22.5  0.2693 -153.5
 4.500  0.7149  161.1   5.787   55.7  0.0452   22.4  0.2678 -154.5
 4.600  0.7161  160.0   5.660   54.7  0.0456   22.5  0.2663 -155.6
 4.700  0.7168  159.0   5.535   53.6  0.0457   22.5  0.2652 -156.8
 4.800  0.7182  157.9   5.423   52.5  0.0462   22.4  0.2645 -157.9
 4.900  0.7189  156.9   5.301   51.5  0.0465   22.4  0.2631 -159.1
 5.000  0.7199  155.9   5.197   50.5  0.0469   22.4  0.2619 -160.3
 5.100  0.7214  155.0   5.090   49.4  0.0472   22.4  0.2610 -161.6
 5.200  0.7220  154.1   4.998   48.3  0.0475   22.4  0.2601 -162.7
 5.300  0.7229  153.0   4.896   47.2  0.0478   22.3  0.2587 -163.9
 5.400  0.7236  152.1   4.807   46.3  0.0483   22.4  0.2584 -165.1
 5.500  0.7245  151.2   4.710   45.2  0.0485   22.3  0.2575 -166.2
 5.600  0.7246  150.2   4.624   44.2  0.0490   22.2  0.2559 -167.2
 5.700  0.7255  149.3   4.542   43.1  0.0492   22.1  0.2548 -168.8
 5.800  0.7260  148.3   4.461   42.0  0.0496   22.1  0.2546 -169.9
 5.900  0.7263  147.3   4.385   41.0  0.0499   22.0  0.2530 -171.1
 6.000  0.7275  146.2   4.302   39.9  0.0500   22.0  0.2515 -172.5
 6.100  0.7276  145.3   4.225   38.8  0.0504   21.9  0.2508 -173.9
 6.200  0.7278  144.2   4.160   37.7  0.0508   21.9  0.2495 -175.1
 6.300  0.7273  143.2   4.078   36.7  0.0510   21.9  0.2478 -176.5
 6.400  0.7267  142.1   4.013   35.6  0.0513   22.0  0.2468 -177.8
 6.500  0.7268  140.9   3.934   34.5  0.0516   22.1  0.2449 -179.1
 6.600  0.7262  139.9   3.873   33.5  0.0519   22.1  0.2429  179.6
 6.700  0.7257  138.7   3.797   32.5  0.0522   22.2  0.2411  178.2
 6.800  0.7257  137.6   3.737   31.4  0.0527   22.3  0.2389  176.8
 6.900  0.7252  136.4   3.667   30.3  0.0531   22.5  0.2367  175.3
 7.000  0.7252  135.3   3.608   29.3  0.0536   22.5  0.2344  173.9
 7.100  0.7251  134.3   3.542   28.3  0.0542   22.8  0.2325  172.1
 7.200  0.7257  133.2   3.488   27.3  0.0548   22.8  0.2320  170.5
 7.300  0.7265  132.1   3.423   26.3  0.0555   22.8  0.2309  168.8
 7.400  0.7280  131.1   3.371   25.3  0.0563   22.7  0.2306  166.8
 7.500  0.7298  130.1   3.316   24.3  0.0570   22.7  0.2313  165.0
 7.600  0.7319  129.0   3.260   23.2  0.0579   22.4  0.2319  162.9
 7.700  0.7342  128.1   3.204   22.4  0.0585   22.0  0.2330  160.7
 7.800  0.7377  127.0   3.157   21.2  0.0592   21.6  0.2357  158.2
 7.900  0.7404  126.2   3.101   20.3  0.0598   21.3  0.2380  155.9
 8.000  0.7449  125.1   3.052   19.3  0.0604   20.8  0.2417  153.3
 8.500  0.7673  121.2   2.806   14.3  0.0626   18.4  0.2690  141.1
 9.000  0.7887  118.1   2.581    9.6  0.0640   16.3  0.3101  130.6
 9.500  0.8062  116.3   2.370    5.2  0.0648   14.6  0.3596  123.1
10.000  0.8214  113.7   2.182    1.1  0.0655   13.3  0.4127  118.0
!
!  f       NFmin   Gammaopt  rn/50
! GHz       dB    MAG  ANG    -
!
! noise parameter not available yet for this operation point!
!
! (c) 2012  Infineon Technologies AG, Munich
