! Infineon Technologies  Discrete & RF Semiconductors
! BFP720
! VCE =  3.0 V,  IC =  7.0 mA
! Common Emitter S-Parameters:                            Aug 2012
# GHz  S  MA  R  50
!  f         S11            S21            S12            S22
! GHz     MAG   ANG      MAG   ANG      MAG   ANG      MAG   ANG
 0.010  0.9066    0.4  18.820  179.9  0.0002   11.2  0.9790    1.0
 0.020  0.9136   -0.9  18.741  178.4  0.0006   92.5  0.9959   -0.5
 0.030  0.9128   -1.4  18.803  178.0  0.0012   88.2  0.9960   -0.9
 0.040  0.9121   -2.0  18.865  177.6  0.0017   86.6  0.9962   -1.3
 0.050  0.9114   -2.5  18.929  177.2  0.0023   85.7  0.9964   -1.6
 0.060  0.9115   -3.0  18.905  176.8  0.0025   85.5  0.9963   -2.0
 0.070  0.9117   -3.5  18.881  176.4  0.0028   85.4  0.9962   -2.3
 0.080  0.9119   -4.1  18.859  176.0  0.0031   85.3  0.9962   -2.7
 0.090  0.9122   -4.6  18.837  175.6  0.0034   85.2  0.9962   -3.1
 0.100  0.9126   -5.1  18.816  175.3  0.0037   85.1  0.9963   -3.4
 0.110  0.9120   -5.6  18.806  174.8  0.0040   85.2  0.9959   -3.8
 0.120  0.9113   -6.2  18.797  174.4  0.0043   85.3  0.9955   -4.1
 0.130  0.9108   -6.7  18.789  173.9  0.0047   85.4  0.9952   -4.5
 0.140  0.9103   -7.2  18.782  173.5  0.0050   85.5  0.9949   -4.8
 0.150  0.9099   -7.7  18.777  173.0  0.0054   85.6  0.9946   -5.1
 0.200  0.9068  -10.3  18.617  170.9  0.0071   84.2  0.9919   -6.9
 0.250  0.9036  -12.8  18.549  168.8  0.0089   81.9  0.9889   -8.5
 0.300  0.8989  -15.4  18.397  166.8  0.0106   80.3  0.9843  -10.3
 0.350  0.8945  -17.9  18.277  164.9  0.0123   79.1  0.9802  -12.0
 0.400  0.8902  -20.5  18.181  162.9  0.0140   77.6  0.9744  -13.7
 0.450  0.8852  -23.0  18.024  160.9  0.0157   76.2  0.9698  -15.4
 0.500  0.8798  -25.5  17.911  159.1  0.0174   74.7  0.9637  -17.0
 0.600  0.8683  -30.6  17.685  155.4  0.0207   71.7  0.9494  -20.3
 0.700  0.8560  -35.7  17.435  151.7  0.0239   68.8  0.9358  -23.6
 0.800  0.8409  -41.1  17.330  148.1  0.0270   65.9  0.9205  -26.9
 0.900  0.8276  -46.2  17.024  144.5  0.0299   63.1  0.9023  -30.1
 1.000  0.8127  -51.3  16.735  141.0  0.0327   60.2  0.8832  -33.3
 1.100  0.7975  -56.4  16.430  137.5  0.0353   57.4  0.8624  -36.5
 1.200  0.7813  -61.5  16.131  134.0  0.0377   54.7  0.8413  -39.5
 1.300  0.7654  -66.6  15.825  130.5  0.0400   52.0  0.8194  -42.5
 1.400  0.7497  -71.5  15.480  127.2  0.0421   49.4  0.7966  -45.3
 1.500  0.7339  -76.5  15.170  123.8  0.0440   47.0  0.7732  -48.1
 1.600  0.7160  -81.8  14.918  120.3  0.0458   44.6  0.7509  -50.7
 1.700  0.7009  -86.5  14.532  117.2  0.0473   42.3  0.7276  -53.4
 1.800  0.6878  -90.9  14.168  114.1  0.0488   40.1  0.7062  -55.8
 1.900  0.6739  -95.2  13.793  111.2  0.0500   38.0  0.6853  -58.2
 2.000  0.6628  -99.4  13.423  108.3  0.0512   36.1  0.6649  -60.5
 2.100  0.6505 -103.3  13.059  105.7  0.0521   34.2  0.6454  -62.5
 2.200  0.6412 -107.3  12.723  102.9  0.0531   32.4  0.6267  -64.7
 2.300  0.6314 -110.9  12.376  100.4  0.0538   30.7  0.6095  -66.7
 2.400  0.6242 -114.6  12.053   97.8  0.0546   29.0  0.5931  -68.8
 2.500  0.6149 -118.0  11.742   95.5  0.0553   27.5  0.5773  -70.6
 2.600  0.6077 -121.5  11.451   93.0  0.0559   26.1  0.5621  -72.5
 2.700  0.6005 -124.9  11.162   90.7  0.0564   24.7  0.5479  -74.3
 2.800  0.5953 -128.3  10.890   88.4  0.0570   23.3  0.5343  -76.2
 2.900  0.5879 -131.5  10.623   86.2  0.0574   22.1  0.5211  -78.0
 3.000  0.5824 -134.7  10.372   84.0  0.0578   20.9  0.5085  -79.8
 3.100  0.5737 -137.9  10.124   82.0  0.0581   19.8  0.4954  -81.4
 3.200  0.5668 -141.1   9.889   80.0  0.0583   18.7  0.4827  -83.1
 3.300  0.5617 -144.4   9.666   77.9  0.0586   17.6  0.4704  -84.9
 3.400  0.5586 -147.8   9.457   75.7  0.0589   16.5  0.4586  -86.8
 3.500  0.5573 -151.1   9.262   73.4  0.0592   15.4  0.4474  -88.8
 3.600  0.5509 -154.4   9.051   71.5  0.0593   14.5  0.4351  -90.6
 3.700  0.5463 -157.7   8.850   69.6  0.0594   13.5  0.4233  -92.5
 3.800  0.5435 -161.0   8.659   67.6  0.0595   12.6  0.4120  -94.5
 3.900  0.5426 -164.4   8.479   65.5  0.0597   11.7  0.4012  -96.6
 4.000  0.5436 -167.8   8.310   63.4  0.0598   10.8  0.3910  -98.8
 4.100  0.5406 -170.9   8.126   61.6  0.0598   10.0  0.3794 -101.0
 4.200  0.5392 -174.0   7.950   59.8  0.0598    9.2  0.3683 -103.3
 4.300  0.5394 -177.1   7.782   57.9  0.0598    8.4  0.3579 -105.7
 4.400  0.5412  179.8   7.623   55.9  0.0599    7.6  0.3482 -108.3
 4.500  0.5446  176.7   7.474   53.9  0.0599    6.8  0.3392 -111.0
 4.600  0.5446  174.0   7.306   52.2  0.0597    6.1  0.3300 -113.5
 4.700  0.5459  171.4   7.144   50.5  0.0596    5.5  0.3215 -116.2
 4.800  0.5483  168.7   6.989   48.7  0.0595    4.8  0.3137 -119.0
 4.900  0.5518  166.1   6.841   46.8  0.0594    4.2  0.3067 -121.9
 5.000  0.5565  163.5   6.702   44.8  0.0592    3.5  0.3005 -125.0
 5.100  0.5584  161.4   6.557   43.3  0.0590    3.1  0.2957 -127.3
 5.200  0.5610  159.4   6.417   41.7  0.0588    2.6  0.2914 -129.8
 5.300  0.5643  157.4   6.282   40.1  0.0586    2.1  0.2877 -132.3
 5.400  0.5684  155.4   6.153   38.4  0.0584    1.7  0.2846 -134.9
 5.500  0.5731  153.4   6.029   36.7  0.0582    1.2  0.2820 -137.5
 5.600  0.5749  151.8   5.909   35.3  0.0580    0.9  0.2813 -139.3
 5.700  0.5771  150.3   5.793   33.8  0.0577    0.7  0.2808 -141.0
 5.800  0.5797  148.8   5.680   32.3  0.0575    0.4  0.2806 -142.8
 5.900  0.5827  147.3   5.572   30.8  0.0573    0.1  0.2807 -144.5
 6.000  0.5862  145.8   5.468   29.2  0.0571   -0.1  0.2810 -146.3
 6.100  0.5860  144.5   5.368   27.8  0.0569   -0.2  0.2810 -147.1
 6.200  0.5862  143.2   5.271   26.5  0.0568   -0.2  0.2811 -147.9
 6.300  0.5867  142.0   5.177   25.0  0.0567   -0.2  0.2813 -148.8
 6.400  0.5874  140.7   5.087   23.6  0.0565   -0.2  0.2815 -149.6
 6.500  0.5884  139.5   5.000   22.1  0.0564   -0.3  0.2818 -150.5
 6.600  0.5869  138.3   4.919   20.8  0.0565   -0.1  0.2799 -150.8
 6.700  0.5855  137.2   4.840   19.5  0.0566   -0.0  0.2781 -151.1
 6.800  0.5844  136.0   4.764   18.2  0.0567    0.1  0.2762 -151.4
 6.900  0.5836  134.8   4.691   16.8  0.0568    0.3  0.2744 -151.7
 7.000  0.5829  133.7   4.620   15.3  0.0569    0.4  0.2726 -152.0
 7.100  0.5825  132.4   4.559   14.0  0.0573    0.4  0.2700 -152.6
 7.200  0.5824  131.1   4.500   12.7  0.0578    0.4  0.2675 -153.3
 7.300  0.5826  129.8   4.444   11.3  0.0582    0.4  0.2649 -153.9
 7.400  0.5831  128.5   4.391    9.9  0.0586    0.4  0.2625 -154.6
 7.500  0.5840  127.2   4.340    8.5  0.0591    0.5  0.2600 -155.3
 7.600  0.5856  125.4   4.286    7.0  0.0596    0.2  0.2572 -157.2
 7.700  0.5878  123.7   4.235    5.5  0.0600   -0.1  0.2547 -159.1
 7.800  0.5905  122.0   4.187    4.0  0.0605   -0.3  0.2524 -161.0
 7.900  0.5937  120.3   4.142    2.4  0.0610   -0.6  0.2505 -163.0
 8.000  0.5974  118.7   4.100    0.8  0.0614   -0.8  0.2488 -165.0
 8.500  0.6217  109.1   3.812   -7.5  0.0631   -2.4  0.2549  165.6
 9.000  0.6551  100.3   3.514  -15.4  0.0654   -3.7  0.2807  149.0
 9.500  0.7002   93.0   3.223  -23.0  0.0675   -6.1  0.3307  135.0
10.000  0.7437   86.7   2.922  -30.3  0.0682   -8.7  0.3911  124.1
10.500  0.7676   82.3   2.623  -35.8  0.0688   -9.9  0.4442  116.4
11.000  0.7835   80.5   2.428  -40.0  0.0710  -10.9  0.4873  112.0
11.500  0.8164   80.0   2.308  -45.3  0.0740  -12.9  0.5335  109.6
12.000  0.8454   78.2   2.166  -52.1  0.0754  -16.2  0.5786  106.7
!
!  f       NFmin   Gammaopt  rn/50
! GHz       dB    MAG  ANG    -
 0.450      0.44  0.40    3  -0.03
 1.800      0.52  0.37   23   0.13
 2.400      0.57  0.28   50   0.26
 5.500      0.71  0.17   49   0.16
10.000      0.94  0.39  -86   0.20
!
! (c) 2012  Infineon Technologies AG, Munich
