! Infineon Technologies  Discrete & RF Semiconductors
! BFP760
! VCE =  4.0 V,  IC =  55 mA
! Common Emitter S-Parameters:                            Nov 2012
# GHz  S  MA  R  50
!  f         S11            S21            S12            S22
! GHz     MAG   ANG      MAG   ANG      MAG   ANG      MAG   ANG
 0.030  0.4456  -12.5  81.771  173.6  0.0022   66.0  0.9344   -5.1
 0.040  0.4475  -16.4  81.401  171.6  0.0030   74.0  0.9352   -7.4
 0.050  0.4476  -20.8  81.505  168.7  0.0038   65.5  0.9334   -9.9
 0.060  0.4486  -24.8  80.781  166.7  0.0041   70.7  0.9276  -12.1
 0.070  0.4483  -28.9  80.183  164.5  0.0049   74.4  0.9229  -14.4
 0.080  0.4490  -32.6  79.217  162.5  0.0050   75.3  0.9152  -16.4
 0.090  0.4475  -36.3  78.291  160.5  0.0053   70.4  0.9068  -18.5
 0.100  0.4477  -40.3  77.228  158.5  0.0061   73.9  0.8961  -20.8
 0.110  0.4471  -43.7  76.138  156.6  0.0067   68.6  0.8854  -22.7
 0.120  0.4467  -47.2  75.018  154.8  0.0073   68.9  0.8744  -24.6
 0.130  0.4471  -50.5  73.840  153.0  0.0078   69.2  0.8634  -26.5
 0.140  0.4482  -53.8  72.674  151.3  0.0079   68.0  0.8505  -28.3
 0.150  0.4493  -57.1  71.550  149.6  0.0086   66.0  0.8390  -30.1
 0.200  0.4549  -71.3  65.512  142.2  0.0104   63.6  0.7777  -38.0
 0.250  0.4618  -83.1  59.941  136.1  0.0125   61.0  0.7199  -44.7
 0.300  0.4694  -93.1  54.793  130.9  0.0141   58.7  0.6698  -50.6
 0.350  0.4797 -101.7  50.263  126.6  0.0155   56.1  0.6246  -55.7
 0.400  0.4903 -108.8  46.428  122.9  0.0171   55.0  0.5851  -60.4
 0.450  0.5016 -114.9  43.033  119.7  0.0180   52.7  0.5513  -64.8
 0.500  0.5101 -120.5  40.075  116.8  0.0191   51.4  0.5196  -68.9
 0.600  0.5301 -129.8  35.178  111.9  0.0210   48.9  0.4691  -76.3
 0.700  0.5464 -137.3  31.304  107.7  0.0228   46.5  0.4281  -83.3
 0.800  0.5619 -143.7  28.153  104.1  0.0241   45.1  0.3948  -89.7
 0.900  0.5738 -149.2  25.561  100.8  0.0254   43.8  0.3669  -95.8
 1.000  0.5848 -153.9  23.380   97.9  0.0264   42.8  0.3448 -101.3
 1.100  0.5934 -158.2  21.518   95.3  0.0276   41.9  0.3260 -106.8
 1.200  0.6023 -161.9  19.939   92.9  0.0285   41.4  0.3113 -111.7
 1.300  0.6091 -165.4  18.555   90.6  0.0294   41.1  0.2983 -116.6
 1.400  0.6160 -168.5  17.345   88.4  0.0303   40.7  0.2886 -120.9
 1.500  0.6218 -171.4  16.285   86.3  0.0312   40.6  0.2797 -125.3
 1.600  0.6281 -174.0  15.351   84.4  0.0321   40.4  0.2736 -129.3
 1.700  0.6331 -176.6  14.502   82.5  0.0329   40.2  0.2669 -133.3
 1.800  0.6385 -179.0  13.744   80.6  0.0336   39.9  0.2638 -137.1
 1.900  0.6432  178.7  13.052   78.9  0.0345   39.8  0.2599 -140.9
 2.000  0.6483  176.6  12.433   77.1  0.0353   39.8  0.2582 -144.4
 2.100  0.6518  174.7  11.819   75.4  0.0361   39.7  0.2572 -147.5
 2.200  0.6550  172.7  11.282   73.7  0.0369   39.7  0.2557 -150.7
 2.300  0.6586  170.9  10.798   72.2  0.0376   39.5  0.2543 -153.8
 2.400  0.6622  169.0  10.350   70.6  0.0385   39.5  0.2542 -156.8
 2.500  0.6657  167.2   9.933   69.0  0.0393   39.5  0.2538 -159.7
 2.600  0.6687  165.4   9.538   67.4  0.0401   39.2  0.2540 -162.6
 2.700  0.6719  163.8   9.175   65.9  0.0408   39.1  0.2549 -165.5
 2.800  0.6754  162.2   8.832   64.5  0.0417   39.2  0.2564 -168.2
 2.900  0.6787  160.6   8.507   63.0  0.0425   39.0  0.2585 -170.8
 3.000  0.6823  159.0   8.213   61.4  0.0433   38.8  0.2615 -173.5
 3.100  0.6859  157.5   7.926   60.1  0.0441   38.4  0.2649 -175.8
 3.200  0.6895  156.0   7.660   58.7  0.0449   38.5  0.2680 -178.0
 3.300  0.6933  154.5   7.404   57.2  0.0457   38.2  0.2718  179.7
 3.400  0.6968  153.0   7.159   55.9  0.0464   37.9  0.2761  177.7
 3.500  0.7008  151.6   6.934   54.6  0.0472   37.8  0.2801  175.7
 3.600  0.7045  150.2   6.715   53.2  0.0480   37.5  0.2847  173.7
 3.700  0.7082  148.8   6.509   51.8  0.0487   37.2  0.2894  171.8
 3.800  0.7114  147.5   6.303   50.6  0.0494   36.9  0.2948  170.0
 3.900  0.7151  146.3   6.117   49.3  0.0502   36.6  0.2997  168.5
 4.000  0.7185  145.0   5.936   48.1  0.0508   36.5  0.3051  166.9
 4.100  0.7225  143.8   5.770   46.8  0.0516   36.2  0.3105  165.5
 4.200  0.7256  142.8   5.603   45.6  0.0523   35.9  0.3152  164.1
 4.300  0.7288  141.7   5.445   44.4  0.0531   35.8  0.3205  162.9
 4.400  0.7322  140.7   5.296   43.3  0.0538   35.4  0.3252  161.7
 4.500  0.7350  139.6   5.157   42.1  0.0545   35.3  0.3301  160.6
 4.600  0.7385  138.7   5.022   41.0  0.0551   35.0  0.3341  159.5
 4.700  0.7410  137.8   4.894   39.9  0.0558   34.8  0.3389  158.4
 4.800  0.7440  137.0   4.769   38.8  0.0565   34.6  0.3428  157.4
 4.900  0.7466  136.2   4.654   37.7  0.0573   34.2  0.3471  156.4
 5.000  0.7492  135.4   4.541   36.6  0.0580   34.0  0.3507  155.4
 5.100  0.7516  134.6   4.436   35.5  0.0587   33.8  0.3548  154.5
 5.200  0.7539  133.9   4.336   34.4  0.0594   33.5  0.3579  153.5
 5.300  0.7558  133.1   4.236   33.4  0.0600   33.2  0.3613  152.6
 5.400  0.7575  132.4   4.142   32.3  0.0608   33.0  0.3649  151.6
 5.500  0.7586  131.7   4.050   31.3  0.0614   32.7  0.3674  150.7
 5.600  0.7595  131.1   3.962   30.3  0.0622   32.5  0.3701  149.7
 5.700  0.7611  130.4   3.884   29.2  0.0629   32.3  0.3739  148.7
 5.800  0.7623  129.7   3.802   28.2  0.0638   32.0  0.3763  147.8
 5.900  0.7637  129.1   3.727   27.2  0.0646   31.7  0.3798  146.7
 6.000  0.7657  128.4   3.654   26.1  0.0655   31.4  0.3833  145.8
 6.100  0.7676  127.9   3.587   25.1  0.0663   31.0  0.3871  145.0
 6.200  0.7687  127.1   3.518   24.0  0.0671   30.6  0.3899  144.1
 6.300  0.7714  126.5   3.453   23.0  0.0679   30.2  0.3940  143.3
 6.400  0.7730  125.7   3.390   21.9  0.0687   29.7  0.3977  142.3
 6.500  0.7754  124.9   3.327   20.8  0.0696   29.3  0.4015  141.5
 6.600  0.7780  124.1   3.271   19.7  0.0703   28.7  0.4050  140.6
 6.700  0.7799  123.3   3.211   18.7  0.0711   28.3  0.4089  139.8
 6.800  0.7809  122.4   3.153   17.6  0.0718   27.8  0.4124  138.9
 6.900  0.7841  121.5   3.098   16.5  0.0726   27.3  0.4169  138.0
 7.000  0.7859  120.6   3.048   15.4  0.0734   26.7  0.4204  137.2
 7.100  0.7884  119.7   2.997   14.3  0.0741   26.2  0.4259  136.4
 7.200  0.7909  118.8   2.947   13.1  0.0749   25.7  0.4299  135.7
 7.300  0.7931  117.9   2.897   12.0  0.0755   25.1  0.4343  134.8
 7.400  0.7956  116.8   2.848   10.8  0.0762   24.4  0.4388  133.9
 7.500  0.7992  116.0   2.802    9.6  0.0769   23.7  0.4437  133.0
 7.600  0.8023  114.9   2.754    8.4  0.0777   23.0  0.4486  132.0
 7.700  0.8051  114.0   2.707    7.3  0.0782   22.5  0.4537  131.1
 7.800  0.8089  113.0   2.657    6.0  0.0787   21.7  0.4596  130.0
 7.900  0.8124  112.0   2.613    4.8  0.0792   21.0  0.4652  129.0
 8.000  0.8165  111.0   2.561    3.6  0.0795   20.3  0.4716  127.9
 8.500  0.8370  106.2   2.314   -2.6  0.0807   16.6  0.5043  122.3
 9.000  0.8553  101.9   2.065   -7.9  0.0802   13.7  0.5438  117.2
 9.500  0.8723   98.7   1.837  -12.0  0.0792   12.0  0.5817  113.3
10.000  0.8859   96.8   1.652  -14.8  0.0790   11.2  0.6156  111.7
!
!  f       NFmin   Gammaopt  rn/50
! GHz       dB    MAG  ANG    -
!
! noise parameter not available yet for this operation point!
!
! (c) 2012  Infineon Technologies AG, Munich
