! Infineon Technologies  Discrete & RF Semiconductors
! BFP740F
! VCE =  3.5 V,  IC =  40 mA
! Common Emitter S-Parameters:                            Oct 2012
# GHz  S  MA  R  50
!  f         S11            S21            S12            S22
! GHz     MAG   ANG      MAG   ANG      MAG   ANG      MAG   ANG
 0.030  0.5695   -6.3  62.327  175.1  0.0014   68.0  0.9664   -1.7
 0.040  0.5689   -8.4  62.328  173.7  0.0017   87.6  0.9682   -3.0
 0.050  0.5683  -10.3  62.587  172.4  0.0015   85.3  0.9685   -4.3
 0.060  0.5732  -12.6  62.374  171.0  0.0029   86.9  0.9713   -5.5
 0.070  0.5720  -14.6  62.237  169.5  0.0031   88.0  0.9691   -6.8
 0.080  0.5716  -16.5  61.756  168.1  0.0027   77.2  0.9655   -7.9
 0.090  0.5711  -18.6  61.294  166.7  0.0035   76.1  0.9633   -9.1
 0.100  0.5692  -20.9  60.703  165.3  0.0046   81.8  0.9591  -10.3
 0.110  0.5691  -22.7  60.070  164.1  0.0048   76.1  0.9548  -11.4
 0.120  0.5674  -24.9  59.500  162.9  0.0050   78.1  0.9500  -12.5
 0.130  0.5675  -26.8  58.919  161.7  0.0055   79.2  0.9450  -13.5
 0.140  0.5671  -28.7  58.413  160.6  0.0060   79.1  0.9392  -14.5
 0.150  0.5677  -30.5  57.993  159.4  0.0063   75.8  0.9344  -15.5
 0.200  0.5684  -39.5  55.293  154.5  0.0080   73.9  0.9073  -20.1
 0.250  0.5708  -47.8  52.906  150.2  0.0098   70.3  0.8789  -24.3
 0.300  0.5732  -55.7  50.538  146.4  0.0115   67.7  0.8510  -28.2
 0.350  0.5775  -63.3  48.262  142.9  0.0129   64.7  0.8233  -31.9
 0.400  0.5815  -70.2  46.432  139.7  0.0146   62.0  0.7941  -35.5
 0.450  0.5867  -76.6  44.519  136.6  0.0157   59.3  0.7675  -38.8
 0.500  0.5901  -82.8  42.749  133.7  0.0168   57.2  0.7385  -42.0
 0.600  0.5988  -93.8  39.511  128.3  0.0189   52.8  0.6849  -47.9
 0.700  0.6066 -103.6  36.500  123.4  0.0206   49.3  0.6347  -53.1
 0.800  0.6146 -111.9  33.819  119.1  0.0219   46.1  0.5878  -57.9
 0.900  0.6199 -119.4  31.406  115.1  0.0231   43.6  0.5444  -62.3
 1.000  0.6256 -125.8  29.214  111.6  0.0241   41.2  0.5066  -66.3
 1.100  0.6297 -131.6  27.244  108.3  0.0248   39.3  0.4713  -70.0
 1.200  0.6341 -136.5  25.486  105.4  0.0254   38.0  0.4418  -73.5
 1.300  0.6372 -141.1  23.903  102.7  0.0260   36.8  0.4138  -76.7
 1.400  0.6409 -145.1  22.491  100.3  0.0265   35.6  0.3915  -79.7
 1.500  0.6432 -148.8  21.212   98.0  0.0270   34.7  0.3697  -82.6
 1.600  0.6466 -152.0  20.072   95.8  0.0273   34.2  0.3526  -85.4
 1.700  0.6491 -155.1  19.031   93.8  0.0278   33.8  0.3357  -88.1
 1.800  0.6532 -157.9  18.088   91.9  0.0281   33.2  0.3226  -90.9
 1.900  0.6552 -160.5  17.230   90.1  0.0286   32.8  0.3099  -93.4
 2.000  0.6580 -162.9  16.439   88.3  0.0289   32.3  0.3002  -96.1
 2.100  0.6611 -165.1  15.676   86.5  0.0292   32.1  0.2928  -99.0
 2.200  0.6628 -167.2  14.995   85.0  0.0294   31.9  0.2854 -101.2
 2.300  0.6639 -169.1  14.375   83.5  0.0297   32.0  0.2788 -103.4
 2.400  0.6651 -170.9  13.789   82.0  0.0300   32.0  0.2736 -105.5
 2.500  0.6662 -172.6  13.259   80.6  0.0303   32.1  0.2691 -107.3
 2.600  0.6672 -174.3  12.767   79.2  0.0307   31.9  0.2653 -109.1
 2.700  0.6683 -175.8  12.310   77.9  0.0310   32.0  0.2616 -110.8
 2.800  0.6689 -177.3  11.877   76.6  0.0313   32.1  0.2593 -112.4
 2.900  0.6701 -178.8  11.473   75.3  0.0317   32.2  0.2566 -114.0
 3.000  0.6707  179.8  11.105   74.0  0.0320   32.2  0.2550 -115.6
 3.100  0.6711  178.4  10.750   72.8  0.0323   32.4  0.2536 -116.9
 3.200  0.6717  177.0  10.418   71.6  0.0327   32.4  0.2525 -118.1
 3.300  0.6724  175.7  10.106   70.4  0.0330   32.5  0.2514 -119.3
 3.400  0.6731  174.4   9.811   69.2  0.0334   32.6  0.2506 -120.4
 3.500  0.6734  173.2   9.531   68.1  0.0337   32.8  0.2496 -121.3
 3.600  0.6740  171.9   9.268   66.9  0.0341   32.9  0.2487 -122.2
 3.700  0.6748  170.7   9.025   65.8  0.0344   32.9  0.2471 -123.1
 3.800  0.6753  169.4   8.780   64.7  0.0350   32.9  0.2458 -124.1
 3.900  0.6762  168.3   8.560   63.6  0.0353   33.1  0.2447 -125.0
 4.000  0.6762  167.1   8.336   62.5  0.0357   33.4  0.2435 -126.0
 4.100  0.6775  166.0   8.141   61.4  0.0360   33.4  0.2422 -126.8
 4.200  0.6778  164.8   7.939   60.3  0.0364   33.5  0.2407 -127.8
 4.300  0.6789  163.7   7.756   59.2  0.0368   33.4  0.2395 -128.7
 4.400  0.6796  162.6   7.570   58.1  0.0373   33.6  0.2383 -129.7
 4.500  0.6806  161.6   7.404   57.1  0.0377   33.7  0.2373 -130.5
 4.600  0.6818  160.5   7.239   56.0  0.0381   33.7  0.2354 -131.4
 4.700  0.6827  159.5   7.080   55.0  0.0386   33.8  0.2344 -132.6
 4.800  0.6846  158.4   6.929   53.9  0.0390   33.8  0.2331 -133.5
 4.900  0.6851  157.5   6.780   52.9  0.0394   33.8  0.2316 -134.6
 5.000  0.6864  156.5   6.643   51.9  0.0400   33.9  0.2302 -135.6
 5.100  0.6878  155.6   6.508   50.8  0.0404   33.8  0.2291 -136.8
 5.200  0.6884  154.6   6.385   49.8  0.0408   33.8  0.2279 -137.7
 5.300  0.6895  153.7   6.261   48.7  0.0412   33.8  0.2266 -138.8
 5.400  0.6906  152.7   6.141   47.8  0.0416   33.9  0.2254 -139.9
 5.500  0.6910  151.8   6.027   46.7  0.0420   33.8  0.2249 -141.0
 5.600  0.6915  150.9   5.911   45.7  0.0426   33.8  0.2231 -141.7
 5.700  0.6923  150.0   5.808   44.7  0.0430   33.7  0.2216 -143.2
 5.800  0.6930  148.9   5.704   43.6  0.0435   33.6  0.2211 -144.2
 5.900  0.6933  148.0   5.604   42.6  0.0438   33.7  0.2192 -145.2
 6.000  0.6945  146.9   5.506   41.5  0.0442   33.5  0.2174 -146.4
 6.100  0.6946  146.0   5.407   40.5  0.0447   33.6  0.2161 -147.8
 6.200  0.6948  144.9   5.320   39.3  0.0450   33.6  0.2146 -148.8
 6.300  0.6944  144.0   5.221   38.4  0.0454   33.7  0.2125 -150.0
 6.400  0.6940  142.9   5.133   37.3  0.0458   33.7  0.2109 -151.1
 6.500  0.6939  141.7   5.041   36.3  0.0462   33.7  0.2087 -152.3
 6.600  0.6934  140.6   4.956   35.2  0.0468   33.7  0.2065 -153.3
 6.700  0.6929  139.5   4.865   34.3  0.0472   33.8  0.2039 -154.5
 6.800  0.6928  138.4   4.785   33.2  0.0478   34.0  0.2014 -155.6
 6.900  0.6922  137.3   4.701   32.2  0.0484   34.2  0.1984 -157.0
 7.000  0.6924  136.2   4.623   31.2  0.0490   34.2  0.1953 -158.1
 7.100  0.6920  135.2   4.544   30.2  0.0496   34.4  0.1922 -159.8
 7.200  0.6928  134.1   4.470   29.2  0.0504   34.3  0.1905 -161.4
 7.300  0.6935  133.1   4.395   28.2  0.0512   34.3  0.1884 -163.1
 7.400  0.6952  132.1   4.326   27.2  0.0521   34.1  0.1866 -165.0
 7.500  0.6969  131.2   4.260   26.3  0.0530   34.0  0.1857 -167.1
 7.600  0.6995  130.1   4.191   25.3  0.0538   33.7  0.1846 -169.3
 7.700  0.7019  129.3   4.124   24.5  0.0546   33.3  0.1836 -171.9
 7.800  0.7061  128.2   4.063   23.3  0.0554   32.7  0.1838 -174.8
 7.900  0.7089  127.5   3.999   22.4  0.0562   32.4  0.1841 -177.7
 8.000  0.7141  126.4   3.936   21.4  0.0568   31.8  0.1851  179.0
 8.500  0.7393  122.8   3.640   16.5  0.0596   29.2  0.2011  162.4
 9.000  0.7646  119.8   3.364   11.7  0.0616   26.8  0.2357  147.3
 9.500  0.7860  118.0   3.110    7.2  0.0632   24.7  0.2854  136.5
10.000  0.8057  115.4   2.875    2.7  0.0646   23.0  0.3426  129.3
!
!  f       NFmin   Gammaopt  rn/50
! GHz       dB    MAG  ANG    -
!
! noise parameter not available yet for this operation point!
!
! (c) 2012  Infineon Technologies AG, Munich
