! Infineon Technologies  Discrete & RF Semiconductors
! BFP740F
! VCE =  2.0 V,  IC =  20 mA
! Common Emitter S-Parameters:                            Oct 2012
# GHz  S  MA  R  50
!  f         S11            S21            S12            S22
! GHz     MAG   ANG      MAG   ANG      MAG   ANG      MAG   ANG
 0.030  0.7875   -4.1  45.219  176.2  0.0015   70.1  0.9894   -2.0
 0.040  0.7862   -5.5  45.202  175.2  0.0018   78.3  0.9901   -3.0
 0.050  0.7859   -6.7  45.339  174.2  0.0034   94.8  0.9911   -3.9
 0.060  0.7824   -8.1  45.051  173.2  0.0024   92.5  0.9890   -4.7
 0.070  0.7822   -9.6  45.024  172.1  0.0037   81.1  0.9890   -5.7
 0.080  0.7829  -10.8  44.685  171.2  0.0039   86.6  0.9870   -6.6
 0.090  0.7814  -12.1  44.566  170.1  0.0039   88.5  0.9867   -7.4
 0.100  0.7797  -13.5  44.259  169.1  0.0049   84.0  0.9831   -8.4
 0.110  0.7778  -14.8  44.016  168.2  0.0058   80.5  0.9802   -9.2
 0.120  0.7769  -16.1  43.726  167.3  0.0062   84.1  0.9776  -10.1
 0.130  0.7754  -17.4  43.458  166.4  0.0064   81.6  0.9751  -10.9
 0.140  0.7743  -18.7  43.153  165.5  0.0067   80.0  0.9721  -11.7
 0.150  0.7724  -20.0  42.986  164.6  0.0074   80.6  0.9692  -12.5
 0.200  0.7658  -26.2  41.586  160.7  0.0096   77.2  0.9529  -16.4
 0.250  0.7584  -32.3  40.418  157.2  0.0115   76.0  0.9346  -20.1
 0.300  0.7523  -38.1  39.187  153.9  0.0138   72.2  0.9163  -23.6
 0.350  0.7460  -43.9  38.037  150.8  0.0162   69.5  0.8966  -27.1
 0.400  0.7406  -49.5  37.073  147.8  0.0179   66.0  0.8756  -30.4
 0.450  0.7357  -54.8  36.008  145.0  0.0199   63.8  0.8561  -33.6
 0.500  0.7302  -60.0  35.038  142.3  0.0215   61.1  0.8340  -36.7
 0.600  0.7196  -70.0  33.145  137.0  0.0243   56.9  0.7893  -42.6
 0.700  0.7104  -79.2  31.288  132.1  0.0271   52.8  0.7461  -48.1
 0.800  0.7020  -87.8  29.526  127.5  0.0291   49.2  0.7028  -53.3
 0.900  0.6942  -95.5  27.830  123.3  0.0311   45.7  0.6606  -58.1
 1.000  0.6872 -102.6  26.235  119.4  0.0325   42.8  0.6222  -62.5
 1.100  0.6807 -109.1  24.740  115.9  0.0339   40.1  0.5851  -66.7
 1.200  0.6755 -115.0  23.355  112.6  0.0349   38.0  0.5528  -70.6
 1.300  0.6705 -120.4  22.079  109.6  0.0359   36.1  0.5221  -74.3
 1.400  0.6672 -125.3  20.910  106.8  0.0366   34.3  0.4963  -77.8
 1.500  0.6635 -129.8  19.830  104.2  0.0372   33.0  0.4714  -81.1
 1.600  0.6620 -134.0  18.852  101.7  0.0379   31.6  0.4514  -84.2
 1.700  0.6600 -137.9  17.946   99.4  0.0383   30.4  0.4305  -87.3
 1.800  0.6603 -141.3  17.116   97.3  0.0388   29.3  0.4153  -90.4
 1.900  0.6590 -144.7  16.350   95.3  0.0392   28.2  0.3992  -93.3
 2.000  0.6590 -147.7  15.644   93.3  0.0397   27.5  0.3871  -96.2
 2.100  0.6599 -150.7  14.955   91.2  0.0398   26.5  0.3761  -99.3
 2.200  0.6590 -153.3  14.333   89.5  0.0401   25.8  0.3664 -101.7
 2.300  0.6583 -155.8  13.762   87.8  0.0404   25.3  0.3571 -104.2
 2.400  0.6575 -158.1  13.222   86.2  0.0407   24.8  0.3499 -106.4
 2.500  0.6573 -160.2  12.729   84.7  0.0409   24.3  0.3430 -108.5
 2.600  0.6571 -162.4  12.274   83.1  0.0410   23.9  0.3375 -110.5
 2.700  0.6571 -164.3  11.846   81.7  0.0414   23.6  0.3317 -112.5
 2.800  0.6568 -166.2  11.445   80.2  0.0415   23.3  0.3278 -114.3
 2.900  0.6568 -168.0  11.061   78.9  0.0418   23.0  0.3236 -116.1
 3.000  0.6568 -169.7  10.717   77.5  0.0418   22.6  0.3202 -117.8
 3.100  0.6565 -171.3  10.383   76.2  0.0421   22.6  0.3173 -119.4
 3.200  0.6563 -172.9  10.069   74.9  0.0423   22.3  0.3148 -120.8
 3.300  0.6567 -174.5   9.777   73.6  0.0425   22.2  0.3122 -122.2
 3.400  0.6568 -176.0   9.498   72.3  0.0428   22.0  0.3101 -123.5
 3.500  0.6569 -177.4   9.228   71.1  0.0430   21.8  0.3078 -124.7
 3.600  0.6569 -178.8   8.984   69.9  0.0432   21.6  0.3056 -125.9
 3.700  0.6576  179.9   8.750   68.7  0.0435   21.6  0.3028 -126.9
 3.800  0.6579  178.3   8.522   67.5  0.0436   21.4  0.3002 -128.2
 3.900  0.6586  177.1   8.312   66.3  0.0439   21.5  0.2980 -129.2
 4.000  0.6583  175.6   8.098   65.1  0.0440   21.3  0.2958 -130.4
 4.100  0.6595  174.3   7.911   64.0  0.0443   21.2  0.2934 -131.4
 4.200  0.6598  173.0   7.721   62.8  0.0446   21.2  0.2909 -132.6
 4.300  0.6609  171.7   7.544   61.7  0.0448   21.2  0.2886 -133.7
 4.400  0.6615  170.4   7.370   60.6  0.0450   21.1  0.2865 -134.9
 4.500  0.6624  169.2   7.207   59.4  0.0453   21.0  0.2845 -135.9
 4.600  0.6638  167.9   7.052   58.3  0.0455   20.9  0.2817 -137.0
 4.700  0.6647  166.8   6.899   57.2  0.0457   20.9  0.2798 -138.2
 4.800  0.6664  165.6   6.755   56.1  0.0460   20.8  0.2777 -139.3
 4.900  0.6671  164.4   6.612   55.0  0.0463   20.9  0.2755 -140.5
 5.000  0.6686  163.3   6.479   54.0  0.0465   20.8  0.2734 -141.7
 5.100  0.6702  162.2   6.351   52.9  0.0468   20.7  0.2714 -143.0
 5.200  0.6709  161.2   6.231   51.8  0.0469   20.7  0.2696 -144.1
 5.300  0.6719  160.1   6.112   50.7  0.0472   20.5  0.2676 -145.3
 5.400  0.6730  159.0   5.996   49.7  0.0475   20.5  0.2659 -146.5
 5.500  0.6738  158.0   5.884   48.6  0.0477   20.5  0.2647 -147.6
 5.600  0.6741  156.9   5.775   47.5  0.0479   20.4  0.2622 -148.6
 5.700  0.6751  155.9   5.672   46.5  0.0482   20.3  0.2603 -150.1
 5.800  0.6758  154.7   5.574   45.3  0.0484   20.3  0.2590 -151.2
 5.900  0.6764  153.7   5.475   44.3  0.0487   20.2  0.2567 -152.4
 6.000  0.6772  152.5   5.381   43.2  0.0489   20.3  0.2543 -153.7
 6.100  0.6776  151.5   5.286   42.1  0.0490   20.2  0.2524 -155.1
 6.200  0.6780  150.3   5.201   40.9  0.0493   20.1  0.2505 -156.3
 6.300  0.6776  149.2   5.105   39.9  0.0494   20.3  0.2478 -157.6
 6.400  0.6771  148.1   5.021   38.8  0.0496   20.2  0.2458 -158.8
 6.500  0.6771  146.8   4.931   37.8  0.0499   20.3  0.2430 -160.1
 6.600  0.6766  145.7   4.848   36.7  0.0501   20.5  0.2404 -161.3
 6.700  0.6760  144.4   4.760   35.7  0.0502   20.7  0.2373 -162.6
 6.800  0.6760  143.2   4.682   34.5  0.0506   20.8  0.2343 -163.9
 6.900  0.6754  142.0   4.601   33.5  0.0509   21.0  0.2308 -165.3
 7.000  0.6756  140.9   4.524   32.5  0.0513   21.2  0.2275 -166.7
 7.100  0.6753  139.7   4.447   31.5  0.0517   21.5  0.2241 -168.4
 7.200  0.6760  138.6   4.375   30.4  0.0524   21.6  0.2221 -170.1
 7.300  0.6769  137.5   4.301   29.4  0.0530   21.8  0.2200 -171.7
 7.400  0.6788  136.4   4.236   28.4  0.0537   21.8  0.2180 -173.7
 7.500  0.6804  135.4   4.169   27.5  0.0544   21.9  0.2173 -175.6
 7.600  0.6832  134.2   4.104   26.4  0.0551   21.7  0.2162 -177.8
 7.700  0.6858  133.3   4.037   25.5  0.0557   21.5  0.2154  179.7
 7.800  0.6899  132.1   3.978   24.3  0.0564   21.2  0.2160  177.1
 7.900  0.6931  131.3   3.913   23.4  0.0570   20.9  0.2165  174.6
 8.000  0.6983  130.1   3.853   22.4  0.0575   20.6  0.2179  171.6
 8.500  0.7241  125.9   3.559   17.2  0.0598   18.5  0.2358  156.8
 9.000  0.7494  122.5   3.284   12.4  0.0612   16.6  0.2708  143.4
 9.500  0.7702  120.3   3.030    7.7  0.0622   15.0  0.3190  133.5
10.000  0.7885  117.5   2.794    3.3  0.0629   13.7  0.3738  126.7
!
!  f       NFmin   Gammaopt  rn/50
! GHz       dB    MAG  ANG    -
 0.450      0.64  0.06    8   1.06
 0.900      0.67  0.07   22   0.67
 1.500      0.72  0.07   40   0.48
 1.900      0.75  0.07   56   0.40
 2.400      0.80  0.07   74   0.41
 3.500      0.90  0.06   94   0.37
 5.500      1.08  0.09 -158   0.31
10.000      1.47  0.39 -107   0.12
!
! (c) 2012  Infineon Technologies AG, Munich
