! Infineon Technologies  Discrete & RF Semiconductors
! BFP720F
! VCE =  1.0 V,  IC =  20 mA
! Common Emitter S-Parameters:                            Jan 2016
# GHz  S  MA  R  50
!  f         S11            S21            S12            S22
! GHz     MAG   ANG      MAG   ANG      MAG   ANG      MAG   ANG
 0.010  0.4962   -2.4  22.899  178.2  0.0020   14.3  0.8168    1.3
 0.015  0.5040   -3.0  23.453  178.0  0.0020   26.0  0.8315   -0.2
 0.020  0.5118   -3.5  24.007  177.8  0.0021   37.2  0.8467   -1.6
 0.025  0.5117   -4.6  24.036  177.4  0.0023   41.5  0.8487   -1.9
 0.030  0.5119   -5.7  24.067  177.1  0.0025   45.2  0.8507   -2.2
 0.035  0.5122   -6.8  24.098  176.7  0.0027   48.4  0.8528   -2.6
 0.040  0.5127   -7.9  24.130  176.4  0.0029   51.1  0.8549   -2.9
 0.045  0.5134   -9.0  24.163  176.0  0.0031   53.5  0.8570   -3.2
 0.050  0.5143  -10.1  24.197  175.7  0.0033   55.5  0.8591   -3.5
 0.055  0.5138  -11.1  24.189  175.2  0.0035   57.0  0.8587   -3.9
 0.060  0.5135  -12.1  24.184  174.6  0.0038   58.4  0.8584   -4.3
 0.065  0.5133  -13.1  24.181  174.1  0.0040   59.6  0.8581   -4.7
 0.070  0.5133  -14.1  24.179  173.6  0.0043   60.6  0.8578   -5.1
 0.075  0.5135  -15.1  24.180  173.0  0.0045   61.6  0.8576   -5.5
 0.080  0.5138  -16.1  24.183  172.5  0.0048   62.4  0.8575   -5.9
 0.085  0.5143  -17.1  24.188  172.0  0.0050   63.1  0.8573   -6.3
 0.090  0.5149  -18.1  24.195  171.5  0.0053   63.8  0.8572   -6.7
 0.095  0.5157  -19.1  24.204  170.9  0.0055   64.4  0.8572   -7.1
 0.100  0.5166  -20.1  24.215  170.4  0.0058   65.0  0.8572   -7.5
 0.105  0.5158  -21.1  24.142  169.9  0.0060   65.1  0.8546   -7.9
 0.110  0.5151  -22.0  24.071  169.5  0.0063   65.2  0.8520   -8.3
 0.115  0.5146  -23.0  24.002  169.0  0.0065   65.3  0.8495   -8.7
 0.120  0.5142  -24.0  23.934  168.6  0.0068   65.4  0.8469   -9.1
 0.125  0.5140  -24.9  23.868  168.1  0.0070   65.5  0.8445   -9.5
 0.130  0.5139  -25.9  23.803  167.6  0.0073   65.5  0.8421   -9.9
 0.135  0.5139  -26.9  23.740  167.1  0.0075   65.6  0.8397  -10.3
 0.140  0.5141  -27.9  23.679  166.7  0.0078   65.7  0.8373  -10.7
 0.145  0.5145  -28.8  23.619  166.2  0.0080   65.7  0.8351  -11.1
 0.150  0.5150  -29.8  23.561  165.7  0.0083   65.8  0.8328  -11.5
 0.155  0.5152  -30.8  23.526  165.2  0.0085   65.9  0.8326  -11.9
 0.160  0.5156  -31.7  23.492  164.7  0.0088   65.9  0.8324  -12.3
 0.165  0.5161  -32.7  23.459  164.3  0.0090   65.9  0.8322  -12.7
 0.170  0.5168  -33.6  23.429  163.8  0.0093   66.0  0.8321  -13.1
 0.175  0.5176  -34.6  23.400  163.3  0.0095   66.0  0.8320  -13.5
 0.180  0.5185  -35.5  23.373  162.8  0.0098   66.1  0.8320  -13.9
 0.185  0.5196  -36.5  23.347  162.4  0.0100   66.1  0.8320  -14.3
 0.190  0.5208  -37.4  23.323  161.9  0.0103   66.1  0.8320  -14.7
 0.195  0.5222  -38.4  23.301  161.4  0.0105   66.2  0.8321  -15.1
 0.200  0.5237  -39.3  23.280  160.9  0.0108   66.2  0.8322  -15.5
 0.220  0.5235  -42.8  23.090  159.4  0.0118   65.3  0.8238  -16.8
 0.240  0.5252  -46.2  22.916  157.8  0.0127   64.5  0.8157  -18.1
 0.260  0.5280  -49.6  22.745  156.1  0.0136   63.6  0.8065  -19.5
 0.280  0.5320  -53.0  22.579  154.4  0.0145   62.6  0.7961  -20.8
 0.300  0.5378  -56.3  22.434  152.6  0.0153   61.8  0.7861  -22.2
 0.320  0.5382  -59.5  22.132  151.2  0.0161   61.0  0.7821  -23.7
 0.340  0.5402  -62.6  21.845  149.7  0.0170   60.3  0.7786  -25.2
 0.360  0.5426  -65.7  21.605  148.3  0.0178   59.3  0.7700  -26.4
 0.380  0.5452  -68.6  21.411  147.0  0.0185   58.0  0.7562  -27.5
 0.400  0.5492  -71.5  21.229  145.6  0.0193   56.8  0.7427  -28.7
 0.420  0.5527  -74.1  21.065  144.1  0.0200   56.0  0.7373  -29.8
 0.440  0.5573  -76.7  20.915  142.6  0.0207   55.2  0.7322  -30.9
 0.450  0.5600  -78.0  20.846  141.8  0.0210   54.8  0.7297  -31.4
 0.460  0.5605  -79.3  20.718  141.3  0.0213   54.3  0.7243  -32.0
 0.480  0.5624  -81.8  20.466  140.2  0.0220   53.4  0.7138  -33.2
 0.500  0.5654  -84.3  20.222  139.1  0.0226   52.6  0.7037  -34.5
 0.520  0.5668  -86.7  20.025  137.9  0.0231   51.6  0.6932  -35.4
 0.540  0.5691  -89.0  19.837  136.6  0.0237   50.6  0.6828  -36.4
 0.560  0.5724  -91.3  19.659  135.3  0.0243   49.7  0.6727  -37.4
 0.580  0.5767  -93.6  19.492  134.0  0.0248   48.8  0.6627  -38.4
 0.600  0.5818  -95.9  19.334  132.7  0.0254   48.0  0.6530  -39.4
 0.620  0.5825  -97.9  19.074  131.7  0.0259   47.2  0.6443  -40.3
 0.640  0.5840  -99.9  18.821  130.6  0.0263   46.4  0.6358  -41.1
 0.660  0.5861 -101.9  18.574  129.5  0.0268   45.6  0.6274  -42.0
 0.680  0.5890 -103.9  18.334  128.4  0.0272   44.9  0.6192  -43.0
 0.700  0.5925 -105.8  18.101  127.3  0.0277   44.2  0.6111  -43.9
 0.720  0.5948 -107.2  17.996  126.3  0.0281   43.5  0.6036  -44.6
 0.740  0.5974 -108.7  17.897  125.4  0.0284   42.9  0.5962  -45.4
 0.760  0.6004 -110.1  17.803  124.4  0.0288   42.2  0.5889  -46.1
 0.780  0.6038 -111.5  17.714  123.4  0.0291   41.6  0.5818  -46.9
 0.800  0.6075 -112.9  17.630  122.4  0.0295   41.0  0.5747  -47.7
 0.820  0.6085 -114.5  17.430  121.5  0.0298   40.4  0.5665  -48.3
 0.840  0.6099 -116.0  17.234  120.6  0.0301   39.8  0.5584  -49.0
 0.860  0.6118 -117.6  17.043  119.6  0.0303   39.2  0.5504  -49.6
 0.880  0.6142 -119.2  16.857  118.7  0.0306   38.6  0.5425  -50.3
 0.900  0.6170 -120.7  16.675  117.7  0.0309   38.0  0.5346  -51.0
 0.920  0.6175 -122.1  16.459  116.9  0.0312   37.4  0.5271  -51.6
 0.940  0.6183 -123.6  16.246  116.2  0.0314   36.9  0.5196  -52.2
 0.960  0.6196 -125.0  16.036  115.4  0.0317   36.3  0.5122  -52.8
 0.980  0.6212 -126.4  15.829  114.5  0.0319   35.7  0.5049  -53.4
 1.000  0.6232 -127.8  15.625  113.7  0.0322   35.2  0.4976  -54.1
 1.020  0.6240 -129.0  15.451  113.0  0.0324   34.7  0.4912  -54.6
 1.040  0.6251 -130.2  15.280  112.3  0.0326   34.3  0.4848  -55.1
 1.060  0.6264 -131.4  15.111  111.6  0.0328   33.8  0.4785  -55.7
 1.080  0.6280 -132.6  14.944  110.9  0.0330   33.3  0.4722  -56.2
 1.100  0.6299 -133.8  14.780  110.1  0.0332   32.9  0.4659  -56.8
 1.120  0.6305 -134.9  14.635  109.5  0.0333   32.5  0.4604  -57.3
 1.140  0.6314 -136.0  14.492  108.9  0.0335   32.1  0.4549  -57.8
 1.160  0.6325 -137.1  14.350  108.2  0.0336   31.8  0.4495  -58.3
 1.180  0.6339 -138.1  14.211  107.6  0.0338   31.4  0.4441  -58.9
 1.200  0.6354 -139.2  14.073  106.9  0.0339   31.0  0.4387  -59.4
 1.220  0.6362 -140.2  13.917  106.2  0.0340   30.6  0.4335  -59.8
 1.240  0.6372 -141.2  13.763  105.6  0.0342   30.3  0.4282  -60.2
 1.260  0.6384 -142.2  13.611  104.9  0.0343   29.9  0.4230  -60.6
 1.280  0.6397 -143.1  13.460  104.2  0.0345   29.6  0.4179  -61.1
 1.300  0.6413 -144.1  13.312  103.5  0.0346   29.2  0.4127  -61.5
 1.320  0.6421 -145.0  13.179  102.9  0.0347   28.9  0.4082  -61.9
 1.340  0.6430 -145.8  13.048  102.3  0.0348   28.6  0.4037  -62.2
 1.360  0.6440 -146.7  12.918  101.7  0.0349   28.3  0.3992  -62.6
 1.380  0.6453 -147.5  12.790  101.1  0.0350   28.0  0.3947  -63.0
 1.400  0.6466 -148.4  12.663  100.5  0.0351   27.7  0.3903  -63.4
 1.420  0.6471 -149.2  12.537  100.0  0.0352   27.4  0.3860  -63.8
 1.440  0.6478 -150.0  12.412   99.5  0.0353   27.1  0.3818  -64.2
 1.460  0.6486 -150.8  12.288   99.0  0.0353   26.9  0.3775  -64.6
 1.480  0.6495 -151.6  12.165   98.4  0.0354   26.6  0.3733  -65.1
 1.500  0.6505 -152.4  12.043   97.9  0.0355   26.3  0.3691  -65.5
 1.520  0.6510 -152.9  11.973   97.4  0.0356   26.1  0.3655  -65.8
 1.540  0.6515 -153.5  11.904   97.0  0.0357   25.8  0.3619  -66.2
 1.560  0.6521 -154.0  11.836   96.5  0.0357   25.6  0.3583  -66.5
 1.580  0.6528 -154.6  11.769   96.0  0.0358   25.3  0.3548  -66.8
 1.600  0.6535 -155.1  11.702   95.5  0.0359   25.1  0.3512  -67.2
 1.620  0.6540 -155.8  11.580   95.1  0.0360   24.9  0.3475  -67.6
 1.640  0.6546 -156.5  11.459   94.6  0.0360   24.7  0.3438  -68.0
 1.660  0.6554 -157.2  11.338   94.1  0.0361   24.5  0.3401  -68.4
 1.680  0.6562 -157.9  11.218   93.7  0.0361   24.3  0.3364  -68.8
 1.700  0.6571 -158.6  11.099   93.2  0.0362   24.1  0.3328  -69.2
 1.720  0.6578 -159.2  10.990   92.8  0.0363   23.9  0.3302  -69.5
 1.740  0.6587 -159.8  10.881   92.3  0.0363   23.7  0.3275  -69.9
 1.760  0.6595 -160.3  10.774   91.9  0.0364   23.6  0.3249  -70.3
 1.780  0.6605 -160.9  10.667   91.5  0.0364   23.4  0.3223  -70.6
 1.800  0.6615 -161.5  10.560   91.0  0.0365   23.2  0.3197  -71.0
 1.820  0.6621 -162.0  10.471   90.6  0.0365   23.0  0.3170  -71.3
 1.840  0.6627 -162.6  10.382   90.2  0.0366   22.9  0.3143  -71.7
 1.860  0.6634 -163.1  10.293   89.8  0.0366   22.7  0.3116  -72.0
 1.880  0.6642 -163.7  10.205   89.3  0.0367   22.6  0.3090  -72.3
 1.900  0.6650 -164.2  10.118   88.9  0.0367   22.4  0.3063  -72.7
 1.920  0.6656 -164.6  10.031   88.5  0.0367   22.3  0.3041  -73.0
 1.940  0.6663 -165.1   9.944   88.1  0.0368   22.1  0.3020  -73.2
 1.960  0.6670 -165.5   9.858   87.7  0.0368   22.0  0.2998  -73.5
 1.980  0.6678 -166.0   9.772   87.3  0.0369   21.8  0.2976  -73.8
 2.000  0.6686 -166.4   9.687   86.9  0.0369   21.7  0.2955  -74.1
 2.020  0.6693 -166.8   9.604   86.6  0.0369   21.6  0.2937  -74.4
 2.040  0.6701 -167.2   9.522   86.2  0.0370   21.5  0.2918  -74.7
 2.060  0.6709 -167.6   9.440   85.9  0.0370   21.4  0.2900  -75.0
 2.080  0.6717 -168.1   9.358   85.5  0.0370   21.3  0.2882  -75.3
 2.100  0.6726 -168.5   9.277   85.1  0.0370   21.1  0.2864  -75.6
 2.120  0.6735 -168.9   9.196   84.8  0.0371   21.0  0.2845  -75.9
 2.140  0.6745 -169.3   9.115   84.4  0.0371   20.9  0.2827  -76.2
 2.160  0.6754 -169.7   9.035   84.0  0.0371   20.8  0.2810  -76.5
 2.180  0.6765 -170.1   8.955   83.6  0.0372   20.7  0.2792  -76.8
 2.200  0.6775 -170.5   8.876   83.2  0.0372   20.6  0.2774  -77.1
 2.220  0.6781 -170.8   8.805   82.9  0.0372   20.5  0.2761  -77.4
 2.240  0.6787 -171.2   8.734   82.6  0.0373   20.4  0.2747  -77.7
 2.260  0.6793 -171.5   8.663   82.2  0.0373   20.4  0.2734  -77.9
 2.280  0.6800 -171.9   8.593   81.9  0.0373   20.3  0.2721  -78.2
 2.300  0.6807 -172.2   8.523   81.6  0.0373   20.2  0.2708  -78.5
 2.320  0.6814 -172.5   8.453   81.2  0.0374   20.1  0.2695  -78.8
 2.340  0.6821 -172.9   8.384   80.9  0.0374   20.0  0.2682  -79.1
 2.360  0.6828 -173.2   8.314   80.5  0.0374   20.0  0.2669  -79.4
 2.380  0.6836 -173.6   8.246   80.2  0.0375   19.9  0.2656  -79.7
 2.400  0.6844 -173.9   8.177   79.8  0.0375   19.8  0.2643  -80.0
 2.420  0.6850 -174.2   8.120   79.5  0.0375   19.7  0.2632  -80.2
 2.440  0.6857 -174.4   8.063   79.2  0.0375   19.7  0.2622  -80.4
 2.460  0.6864 -174.7   8.006   78.9  0.0375   19.6  0.2611  -80.6
 2.480  0.6870 -174.9   7.950   78.6  0.0375   19.6  0.2601  -80.9
 2.500  0.6877 -175.2   7.894   78.3  0.0375   19.5  0.2590  -81.1
 2.520  0.6884 -175.5   7.838   77.9  0.0376   19.4  0.2580  -81.3
 2.540  0.6892 -175.7   7.782   77.6  0.0376   19.4  0.2569  -81.5
 2.560  0.6899 -176.0   7.727   77.3  0.0376   19.3  0.2559  -81.7
 2.580  0.6906 -176.2   7.672   76.9  0.0376   19.3  0.2548  -82.0
 2.600  0.6914 -176.5   7.617   76.6  0.0376   19.2  0.2538  -82.2
 2.620  0.6913 -177.1   7.566   76.3  0.0376   19.2  0.2530  -82.4
 2.640  0.6912 -177.7   7.515   76.1  0.0377   19.2  0.2522  -82.5
 2.660  0.6912 -178.3   7.464   75.8  0.0377   19.2  0.2514  -82.7
 2.680  0.6913 -178.9   7.414   75.5  0.0377   19.2  0.2507  -82.9
 2.700  0.6915 -179.6   7.364   75.2  0.0377   19.2  0.2499  -83.0
 2.720  0.6917  179.8   7.314   74.9  0.0378   19.2  0.2491  -83.2
 2.740  0.6920  179.2   7.264   74.6  0.0378   19.2  0.2483  -83.4
 2.760  0.6925  178.6   7.214   74.3  0.0378   19.2  0.2475  -83.6
 2.780  0.6929  178.0   7.164   74.0  0.0379   19.2  0.2468  -83.7
 2.800  0.6935  177.4   7.115   73.7  0.0379   19.2  0.2460  -83.9
 2.820  0.6938  177.1   7.070   73.4  0.0379   19.2  0.2456  -84.1
 2.840  0.6940  176.8   7.025   73.2  0.0380   19.2  0.2453  -84.3
 2.860  0.6943  176.5   6.980   72.9  0.0380   19.1  0.2449  -84.5
 2.880  0.6946  176.2   6.936   72.6  0.0381   19.1  0.2445  -84.7
 2.900  0.6950  175.9   6.891   72.3  0.0381   19.1  0.2442  -84.9
 2.920  0.6953  175.7   6.847   72.1  0.0381   19.1  0.2438  -85.2
 2.940  0.6957  175.4   6.803   71.8  0.0382   19.1  0.2434  -85.4
 2.960  0.6961  175.1   6.759   71.5  0.0382   19.0  0.2431  -85.6
 2.980  0.6965  174.8   6.716   71.2  0.0383   19.0  0.2427  -85.8
 3.000  0.6969  174.5   6.672   70.9  0.0383   19.0  0.2424  -86.0
 3.100  0.6968  173.3   6.488   69.7  0.0385   19.0  0.2412  -86.6
 3.200  0.6970  172.0   6.307   68.5  0.0387   19.0  0.2400  -87.3
 3.300  0.6976  170.8   6.128   67.2  0.0389   18.9  0.2389  -88.0
 3.400  0.6985  169.5   5.953   65.9  0.0391   18.9  0.2378  -88.6
 3.500  0.6997  168.3   5.782   64.4  0.0393   18.9  0.2367  -89.3
 3.600  0.6996  167.2   5.640   63.3  0.0395   18.9  0.2358  -89.7
 3.700  0.6999  166.1   5.501   62.2  0.0398   19.0  0.2349  -90.1
 3.800  0.7003  164.9   5.364   61.0  0.0400   19.0  0.2340  -90.6
 3.900  0.7011  163.8   5.229   59.7  0.0403   19.1  0.2331  -91.0
 4.000  0.7021  162.7   5.097   58.4  0.0405   19.1  0.2322  -91.4
 4.100  0.7020  161.7   4.986   57.3  0.0408   19.2  0.2314  -91.8
 4.200  0.7020  160.6   4.878   56.2  0.0411   19.2  0.2306  -92.2
 4.300  0.7024  159.6   4.771   55.0  0.0415   19.3  0.2299  -92.5
 4.400  0.7029  158.5   4.666   53.8  0.0418   19.3  0.2291  -92.9
 4.500  0.7037  157.5   4.564   52.5  0.0421   19.4  0.2284  -93.3
 4.600  0.7031  156.5   4.478   51.4  0.0425   19.4  0.2274  -93.8
 4.700  0.7028  155.4   4.393   50.3  0.0429   19.4  0.2263  -94.4
 4.800  0.7027  154.4   4.310   49.1  0.0432   19.4  0.2253  -94.9
 4.900  0.7028  153.3   4.229   47.9  0.0436   19.4  0.2244  -95.5
 5.000  0.7032  152.3   4.150   46.6  0.0440   19.4  0.2234  -96.0
 5.100  0.7022  151.2   4.077   45.5  0.0444   19.4  0.2221  -96.6
 5.200  0.7015  150.1   4.005   44.4  0.0448   19.3  0.2208  -97.2
 5.300  0.7011  149.1   3.935   43.2  0.0453   19.3  0.2196  -97.8
 5.400  0.7009  148.0   3.867   42.0  0.0457   19.2  0.2184  -98.5
 5.500  0.7009  146.9   3.800   40.7  0.0461   19.2  0.2172  -99.1
 5.600  0.6999  145.7   3.739   39.5  0.0466   19.1  0.2165 -100.0
 5.700  0.6992  144.5   3.679   38.3  0.0471   18.9  0.2159 -100.8
 5.800  0.6989  143.4   3.621   37.1  0.0475   18.8  0.2154 -101.7
 5.900  0.6988  142.2   3.564   35.8  0.0480   18.6  0.2149 -102.5
 6.000  0.6990  141.0   3.510   34.5  0.0485   18.5  0.2144 -103.4
 6.100  0.6977  139.6   3.454   33.3  0.0490   18.3  0.2127 -104.6
 6.200  0.6967  138.2   3.400   32.0  0.0495   18.0  0.2111 -105.7
 6.300  0.6962  136.9   3.347   30.7  0.0499   17.8  0.2096 -106.9
 6.400  0.6961  135.5   3.296   29.4  0.0504   17.5  0.2081 -108.2
 6.500  0.6964  134.1   3.247   28.0  0.0509   17.3  0.2068 -109.4
 6.600  0.6949  132.6   3.193   26.8  0.0513   17.0  0.2040 -110.9
 6.800  0.6934  129.5   3.090   24.2  0.0522   16.4  0.1987 -113.9
 7.000  0.6938  126.5   2.994   21.4  0.0531   15.9  0.1941 -117.1
 7.200  0.6956  123.3   2.895   19.0  0.0539   15.2  0.1857 -121.6
 7.400  0.6996  120.1   2.801   16.4  0.0548   14.4  0.1786 -126.5
 7.600  0.7052  116.9   2.709   13.8  0.0556   13.6  0.1710 -132.4
 7.800  0.7125  113.7   2.620   11.2  0.0563   12.8  0.1639 -139.4
 8.000  0.7220  110.6   2.536    8.4  0.0571   11.9  0.1595 -147.0
 8.200  0.7314  107.5   2.440    5.9  0.0575   11.0  0.1547 -161.0
 8.400  0.7428  104.5   2.349    3.2  0.0579   10.1  0.1594 -175.1
 8.600  0.7536  101.8   2.257    0.8  0.0582    9.3  0.1685  173.6
 8.800  0.7632   99.5   2.162   -1.4  0.0584    8.7  0.1785  164.7
 9.000  0.7739   97.3   2.071   -3.8  0.0586    8.1  0.1923  156.9
 9.200  0.7844   95.9   1.991   -5.6  0.0589    7.6  0.2103  150.2
 9.400  0.7954   94.5   1.912   -7.5  0.0592    7.1  0.2308  144.6
 9.600  0.8069   93.3   1.840   -9.3  0.0595    6.5  0.2531  140.1
 9.800  0.8185   92.5   1.772  -11.1  0.0597    6.0  0.2768  136.4
10.000  0.8304   91.6   1.706  -13.0  0.0599    5.4  0.3015  133.3
!
!  f       NFmin   Gammaopt  rn/50
! GHz       dB    MAG  ANG    -
 0.450      0.86  0.16    0   0.43
 0.900      0.89  0.09   -6   0.15
 1.800      0.92  0.07  -52   0.15
 2.400      0.94  0.08  -58   0.15
 5.500      1.06  0.08  -60   0.14
10.000      1.24  0.38  -81   0.26
!
! (c) 2016  Infineon Technologies AG, Munich
