! Infineon Technologies  Discrete & RF Semiconductors
! BFP760
! VCE =  2.0 V,  IC =  40 mA
! Common Emitter S-Parameters:                            Nov 2012
# GHz  S  MA  R  50
!  f         S11            S21            S12            S22
! GHz     MAG   ANG      MAG   ANG      MAG   ANG      MAG   ANG
 0.030  0.5948  -11.2  72.946  174.2  0.0020   91.1  0.9703   -5.6
 0.040  0.5967  -14.7  73.072  172.2  0.0031   86.0  0.9718   -7.8
 0.050  0.5935  -18.3  73.710  169.3  0.0028   72.6  0.9642  -10.2
 0.060  0.5985  -21.8  73.295  167.3  0.0051   83.1  0.9665  -12.3
 0.070  0.5962  -25.2  72.931  165.1  0.0054   80.9  0.9591  -14.5
 0.080  0.5923  -28.4  72.148  163.2  0.0057   75.9  0.9510  -16.6
 0.090  0.5903  -31.7  71.324  161.2  0.0062   72.8  0.9425  -18.7
 0.100  0.5880  -35.1  70.364  159.3  0.0070   76.7  0.9354  -20.9
 0.110  0.5856  -38.4  69.390  157.4  0.0078   75.1  0.9236  -22.9
 0.120  0.5836  -41.6  68.461  155.6  0.0083   72.3  0.9137  -24.8
 0.130  0.5803  -44.6  67.526  153.8  0.0089   73.5  0.9018  -26.7
 0.140  0.5792  -47.4  66.631  152.2  0.0095   70.5  0.8891  -28.5
 0.150  0.5764  -50.4  65.780  150.5  0.0099   67.8  0.8781  -30.4
 0.200  0.5679  -63.5  60.693  143.2  0.0126   66.9  0.8179  -38.5
 0.250  0.5610  -74.7  55.955  137.1  0.0146   61.5  0.7605  -45.5
 0.300  0.5558  -84.5  51.407  132.0  0.0166   58.1  0.7096  -51.7
 0.350  0.5554  -93.2  47.322  127.6  0.0184   55.5  0.6634  -57.2
 0.400  0.5571 -100.7  43.890  123.8  0.0200   53.6  0.6227  -62.2
 0.450  0.5603 -107.2  40.759  120.5  0.0213   51.2  0.5878  -66.9
 0.500  0.5627 -113.1  38.040  117.6  0.0225   49.6  0.5556  -71.4
 0.600  0.5725 -123.2  33.491  112.5  0.0247   46.5  0.5035  -79.4
 0.700  0.5811 -131.4  29.841  108.2  0.0264   44.3  0.4612  -86.7
 0.800  0.5907 -138.3  26.857  104.5  0.0277   42.3  0.4275  -93.4
 0.900  0.5985 -144.3  24.410  101.2  0.0289   40.8  0.3991  -99.9
 1.000  0.6062 -149.6  22.335   98.2  0.0303   39.6  0.3771 -105.7
 1.100  0.6121 -154.2  20.565   95.5  0.0313   38.8  0.3583 -111.3
 1.200  0.6188 -158.2  19.054   93.1  0.0324   37.8  0.3441 -116.3
 1.300  0.6240 -162.0  17.737   90.7  0.0331   37.3  0.3314 -121.3
 1.400  0.6296 -165.4  16.582   88.5  0.0340   36.9  0.3224 -125.7
 1.500  0.6343 -168.5  15.570   86.4  0.0348   36.4  0.3137 -130.2
 1.600  0.6397 -171.4  14.682   84.5  0.0357   36.2  0.3083 -134.1
 1.700  0.6442 -174.1  13.869   82.5  0.0364   35.9  0.3020 -138.1
 1.800  0.6489 -176.6  13.143   80.6  0.0372   35.6  0.2995 -141.8
 1.900  0.6531 -179.1  12.482   78.8  0.0380   35.5  0.2959 -145.5
 2.000  0.6575  178.6  11.888   77.0  0.0388   35.3  0.2947 -148.9
 2.100  0.6605  176.6  11.300   75.3  0.0394   35.3  0.2936 -152.0
 2.200  0.6635  174.5  10.786   73.6  0.0401   34.9  0.2927 -155.0
 2.300  0.6667  172.5  10.322   72.0  0.0409   34.8  0.2916 -158.0
 2.400  0.6700  170.6   9.893   70.4  0.0417   34.8  0.2918 -160.9
 2.500  0.6733  168.7   9.492   68.8  0.0423   34.6  0.2916 -163.7
 2.600  0.6760  166.9   9.112   67.2  0.0431   34.5  0.2923 -166.5
 2.700  0.6790  165.1   8.767   65.6  0.0439   34.3  0.2931 -169.2
 2.800  0.6821  163.4   8.439   64.2  0.0445   34.2  0.2949 -171.7
 2.900  0.6854  161.7   8.127   62.7  0.0453   34.1  0.2971 -174.3
 3.000  0.6886  160.0   7.843   61.1  0.0461   33.8  0.3004 -176.8
 3.100  0.6922  158.5   7.567   59.7  0.0468   33.8  0.3038 -179.0
 3.200  0.6957  156.9   7.311   58.3  0.0476   33.6  0.3069  179.0
 3.300  0.6991  155.4   7.062   56.9  0.0482   33.4  0.3108  176.8
 3.400  0.7027  153.9   6.832   55.5  0.0489   33.2  0.3149  174.9
 3.500  0.7062  152.4   6.613   54.2  0.0496   32.9  0.3191  172.9
 3.600  0.7098  150.9   6.403   52.8  0.0504   32.8  0.3236  171.1
 3.700  0.7133  149.5   6.205   51.4  0.0510   32.6  0.3283  169.2
 3.800  0.7164  148.2   6.007   50.1  0.0516   32.3  0.3337  167.5
 3.900  0.7199  146.9   5.828   48.8  0.0523   32.2  0.3383  166.0
 4.000  0.7230  145.6   5.653   47.6  0.0530   32.0  0.3436  164.5
 4.100  0.7269  144.4   5.493   46.3  0.0536   31.6  0.3487  163.2
 4.200  0.7298  143.3   5.333   45.2  0.0543   31.5  0.3533  161.8
 4.300  0.7329  142.1   5.182   44.0  0.0548   31.3  0.3585  160.6
 4.400  0.7360  141.1   5.039   42.8  0.0555   31.1  0.3629  159.5
 4.500  0.7389  140.0   4.905   41.6  0.0562   30.9  0.3676  158.4
 4.600  0.7422  139.1   4.776   40.5  0.0568   30.7  0.3715  157.3
 4.700  0.7447  138.2   4.652   39.4  0.0574   30.5  0.3760  156.2
 4.800  0.7473  137.3   4.533   38.3  0.0580   30.3  0.3798  155.2
 4.900  0.7499  136.5   4.422   37.2  0.0587   30.1  0.3838  154.2
 5.000  0.7524  135.7   4.314   36.1  0.0594   29.8  0.3872  153.3
 5.100  0.7546  134.9   4.213   35.0  0.0601   29.5  0.3911  152.3
 5.200  0.7567  134.1   4.117   33.9  0.0606   29.4  0.3940  151.4
 5.300  0.7587  133.4   4.022   32.9  0.0613   29.2  0.3974  150.4
 5.400  0.7602  132.6   3.931   31.8  0.0619   28.8  0.4007  149.5
 5.500  0.7613  131.9   3.843   30.7  0.0626   28.7  0.4031  148.6
 5.600  0.7622  131.3   3.758   29.8  0.0633   28.5  0.4056  147.6
 5.700  0.7636  130.6   3.683   28.7  0.0640   28.3  0.4092  146.6
 5.800  0.7647  129.9   3.605   27.7  0.0647   28.1  0.4116  145.7
 5.900  0.7662  129.3   3.533   26.6  0.0655   27.8  0.4147  144.7
 6.000  0.7678  128.5   3.463   25.6  0.0663   27.5  0.4181  143.7
 6.100  0.7698  128.0   3.398   24.5  0.0672   27.2  0.4219  142.9
 6.200  0.7708  127.2   3.332   23.4  0.0679   26.8  0.4244  142.0
 6.300  0.7735  126.5   3.270   22.5  0.0687   26.4  0.4284  141.2
 6.400  0.7748  125.7   3.209   21.3  0.0693   26.1  0.4319  140.2
 6.500  0.7771  124.9   3.150   20.2  0.0702   25.6  0.4355  139.5
 6.600  0.7797  124.1   3.095   19.2  0.0709   25.1  0.4388  138.5
 6.700  0.7814  123.4   3.038   18.2  0.0717   24.7  0.4425  137.7
 6.800  0.7824  122.4   2.983   17.1  0.0723   24.2  0.4459  136.8
 6.900  0.7854  121.5   2.930   16.0  0.0731   23.7  0.4502  136.0
 7.000  0.7873  120.6   2.883   14.8  0.0738   23.3  0.4536  135.2
 7.100  0.7897  119.7   2.834   13.8  0.0745   22.8  0.4590  134.4
 7.200  0.7921  118.8   2.786   12.6  0.0753   22.2  0.4628  133.6
 7.300  0.7940  117.9   2.737   11.5  0.0758   21.7  0.4671  132.7
 7.400  0.7966  116.8   2.691   10.3  0.0765   21.0  0.4714  131.8
 7.500  0.8001  115.9   2.647    9.1  0.0771   20.4  0.4762  131.0
 7.600  0.8030  114.9   2.601    7.9  0.0778   19.7  0.4809  130.0
 7.700  0.8059  113.9   2.556    6.8  0.0782   19.2  0.4857  129.1
 7.800  0.8096  112.9   2.508    5.5  0.0787   18.5  0.4915  128.0
 7.900  0.8130  112.0   2.466    4.3  0.0793   17.7  0.4969  127.0
 8.000  0.8171  110.9   2.416    3.1  0.0795   17.0  0.5031  125.9
 8.500  0.8369  106.0   2.180   -3.1  0.0804   13.5  0.5342  120.4
 9.000  0.8544  101.8   1.941   -8.3  0.0797   10.7  0.5713  115.3
 9.500  0.8707   98.5   1.725  -12.3  0.0785    9.2  0.6067  111.6
10.000  0.8837   96.6   1.550  -15.0  0.0781    8.6  0.6381  110.1
!
!  f       NFmin   Gammaopt  rn/50
! GHz       dB    MAG  ANG    -
 0.900      0.92  0.23 -166   0.11
 1.800      0.94  0.24 -157   0.08
 2.400      0.99  0.25 -149   0.08
 3.500      1.15  0.25 -138   0.18
 5.500      1.38  0.32  -79   0.50
 8.000      1.61  0.47  -57   0.52
!
! (c) 2012  Infineon Technologies AG, Munich
