! Infineon Technologies  Discrete & RF Semiconductors
! BFP740
! VCE =  1.0 V,  IC =  6.0 mA
! Common Emitter S-Parameters:                            Jan 2016
# GHz  S  MA  R  50
!  f         S11            S21            S12            S22
! GHz     MAG   ANG      MAG   ANG      MAG   ANG      MAG   ANG
 0.030  0.9401   -2.0  17.266  177.4  0.0021   96.2  0.9966   -1.5
 0.035  0.9401   -2.3  17.234  177.1  0.0025   93.1  0.9972   -1.7
 0.040  0.9401   -2.6  17.202  176.7  0.0029   90.9  0.9978   -1.9
 0.045  0.9401   -3.1  17.286  176.4  0.0032   80.3  0.9974   -2.2
 0.050  0.9402   -3.5  17.371  176.2  0.0036   71.8  0.9970   -2.6
 0.055  0.9397   -3.8  17.342  175.8  0.0034   86.0  0.9965   -2.8
 0.060  0.9393   -4.1  17.314  175.3  0.0035  100.7  0.9961   -3.0
 0.065  0.9387   -4.4  17.289  175.0  0.0037   89.7  0.9957   -3.2
 0.070  0.9382   -4.8  17.264  174.7  0.0041   80.3  0.9953   -3.5
 0.075  0.9379   -5.1  17.218  174.4  0.0047   83.8  0.9952   -3.8
 0.080  0.9376   -5.4  17.173  174.0  0.0054   86.5  0.9951   -4.1
 0.085  0.9372   -5.7  17.127  173.7  0.0059   87.5  0.9952   -4.4
 0.090  0.9368   -6.1  17.081  173.3  0.0064   88.4  0.9954   -4.6
 0.095  0.9359   -6.4  17.068  173.1  0.0068   87.8  0.9946   -4.8
 0.100  0.9351   -6.7  17.056  172.8  0.0072   87.3  0.9938   -5.1
 0.105  0.9346   -7.1  17.064  172.4  0.0070   89.1  0.9938   -5.4
 0.110  0.9342   -7.5  17.072  172.1  0.0069   90.9  0.9939   -5.6
 0.115  0.9339   -7.8  17.046  171.8  0.0076   88.6  0.9926   -5.8
 0.120  0.9336   -8.1  17.021  171.5  0.0083   86.6  0.9914   -6.0
 0.125  0.9334   -8.4  16.967  171.2  0.0082   86.5  0.9914   -6.3
 0.130  0.9333   -8.7  16.914  170.9  0.0082   86.4  0.9914   -6.6
 0.135  0.9327   -9.0  16.864  170.7  0.0086   85.3  0.9909   -6.8
 0.140  0.9322   -9.4  16.814  170.4  0.0090   84.3  0.9905   -7.0
 0.145  0.9320   -9.7  16.776  170.2  0.0091   85.6  0.9893   -7.3
 0.150  0.9318  -10.1  16.738  169.9  0.0093   86.9  0.9881   -7.6
 0.155  0.9312  -10.4  16.707  169.6  0.0096   86.4  0.9876   -7.8
 0.160  0.9306  -10.7  16.676  169.4  0.0100   86.0  0.9871   -8.1
 0.165  0.9300  -11.0  16.645  169.1  0.0103   85.5  0.9866   -8.3
 0.170  0.9294  -11.3  16.615  168.9  0.0107   85.1  0.9861   -8.5
 0.175  0.9289  -11.6  16.585  168.6  0.0110   84.8  0.9857   -8.7
 0.180  0.9284  -12.0  16.556  168.4  0.0113   84.4  0.9852   -9.0
 0.185  0.9279  -12.3  16.527  168.1  0.0117   84.1  0.9848   -9.2
 0.190  0.9275  -12.6  16.498  167.8  0.0120   83.8  0.9844   -9.4
 0.195  0.9271  -12.9  16.469  167.6  0.0124   83.5  0.9840   -9.7
 0.200  0.9267  -13.2  16.441  167.3  0.0127   83.2  0.9836   -9.9
 0.220  0.9244  -14.5  16.368  166.3  0.0139   81.8  0.9810  -10.8
 0.240  0.9225  -15.8  16.299  165.3  0.0150   80.7  0.9786  -11.7
 0.260  0.9206  -17.0  16.210  164.4  0.0164   79.7  0.9760  -12.7
 0.280  0.9187  -18.3  16.099  163.5  0.0179   78.8  0.9732  -13.6
 0.300  0.9172  -19.5  15.991  162.6  0.0194   78.0  0.9707  -14.5
 0.320  0.9146  -20.7  15.911  161.7  0.0205   77.1  0.9681  -15.5
 0.340  0.9125  -22.0  15.836  160.8  0.0216   76.2  0.9658  -16.4
 0.360  0.9104  -23.2  15.754  160.0  0.0227   75.4  0.9629  -17.4
 0.380  0.9085  -24.5  15.667  159.1  0.0240   74.8  0.9594  -18.3
 0.400  0.9069  -25.7  15.583  158.2  0.0252   74.2  0.9561  -19.2
 0.420  0.9044  -26.9  15.516  157.4  0.0264   73.3  0.9538  -20.1
 0.440  0.9022  -28.1  15.452  156.5  0.0277   72.4  0.9517  -21.0
 0.450  0.9013  -28.7  15.421  156.1  0.0283   72.0  0.9507  -21.4
 0.460  0.8999  -29.3  15.383  155.7  0.0289   71.6  0.9487  -21.9
 0.480  0.8974  -30.6  15.309  154.9  0.0300   70.9  0.9449  -22.8
 0.500  0.8953  -31.8  15.238  154.1  0.0311   70.2  0.9414  -23.7
 0.520  0.8918  -33.0  15.176  153.3  0.0322   69.4  0.9372  -24.5
 0.540  0.8888  -34.2  15.118  152.4  0.0333   68.6  0.9333  -25.4
 0.560  0.8861  -35.4  15.063  151.5  0.0344   67.9  0.9295  -26.3
 0.580  0.8839  -36.7  15.012  150.7  0.0356   67.2  0.9259  -27.1
 0.600  0.8820  -37.9  14.964  149.8  0.0367   66.6  0.9226  -28.0
 0.620  0.8786  -39.1  14.890  149.0  0.0377   65.8  0.9182  -28.9
 0.640  0.8756  -40.3  14.820  148.2  0.0387   65.0  0.9139  -29.8
 0.660  0.8730  -41.5  14.752  147.4  0.0397   64.2  0.9099  -30.7
 0.680  0.8707  -42.7  14.687  146.5  0.0407   63.5  0.9061  -31.6
 0.700  0.8689  -43.9  14.626  145.7  0.0417   62.8  0.9026  -32.5
 0.720  0.8652  -45.1  14.566  144.9  0.0428   62.0  0.8980  -33.3
 0.740  0.8619  -46.3  14.508  144.1  0.0438   61.3  0.8937  -34.2
 0.760  0.8589  -47.5  14.454  143.3  0.0449   60.5  0.8895  -35.0
 0.780  0.8564  -48.8  14.402  142.4  0.0460   59.9  0.8855  -35.8
 0.800  0.8542  -50.0  14.354  141.6  0.0471   59.2  0.8817  -36.7
 0.820  0.8505  -51.2  14.290  140.8  0.0479   58.5  0.8766  -37.5
 0.840  0.8472  -52.4  14.229  140.0  0.0488   57.8  0.8717  -38.4
 0.860  0.8443  -53.6  14.170  139.2  0.0497   57.1  0.8670  -39.3
 0.880  0.8417  -54.8  14.114  138.4  0.0505   56.4  0.8625  -40.1
 0.900  0.8395  -56.0  14.061  137.6  0.0514   55.8  0.8582  -41.0
 0.920  0.8361  -57.1  13.973  136.9  0.0523   55.1  0.8531  -41.8
 0.940  0.8330  -58.2  13.887  136.1  0.0532   54.4  0.8481  -42.7
 0.960  0.8302  -59.3  13.803  135.3  0.0541   53.7  0.8434  -43.5
 0.980  0.8278  -60.4  13.722  134.6  0.0551   53.0  0.8388  -44.3
 1.000  0.8256  -61.5  13.643  133.8  0.0560   52.4  0.8344  -45.2
 1.020  0.8218  -62.6  13.570  133.1  0.0567   51.7  0.8291  -46.0
 1.040  0.8183  -63.8  13.500  132.3  0.0575   51.1  0.8239  -46.8
 1.060  0.8151  -64.9  13.431  131.5  0.0583   50.4  0.8189  -47.6
 1.080  0.8123  -66.0  13.365  130.8  0.0590   49.8  0.8141  -48.4
 1.100  0.8098  -67.2  13.302  130.0  0.0598   49.2  0.8094  -49.2
 1.120  0.8065  -68.2  13.213  129.3  0.0605   48.5  0.8043  -50.0
 1.140  0.8034  -69.3  13.127  128.6  0.0612   47.9  0.7994  -50.7
 1.160  0.8005  -70.3  13.042  127.9  0.0619   47.2  0.7946  -51.5
 1.180  0.7980  -71.3  12.959  127.1  0.0626   46.6  0.7899  -52.3
 1.200  0.7957  -72.4  12.879  126.4  0.0633   46.0  0.7854  -53.1
 1.220  0.7923  -73.5  12.807  125.7  0.0640   45.4  0.7807  -53.8
 1.240  0.7891  -74.5  12.736  125.0  0.0647   44.8  0.7761  -54.5
 1.260  0.7863  -75.6  12.667  124.3  0.0654   44.3  0.7716  -55.2
 1.280  0.7837  -76.7  12.601  123.6  0.0661   43.7  0.7672  -56.0
 1.300  0.7814  -77.8  12.536  122.9  0.0668   43.2  0.7630  -56.7
 1.320  0.7784  -78.8  12.469  122.2  0.0674   42.6  0.7581  -57.4
 1.340  0.7756  -79.9  12.404  121.6  0.0679   42.1  0.7533  -58.2
 1.360  0.7732  -81.0  12.340  120.9  0.0685   41.6  0.7487  -58.9
 1.380  0.7709  -82.0  12.278  120.2  0.0691   41.0  0.7442  -59.6
 1.400  0.7690  -83.1  12.218  119.5  0.0697   40.5  0.7398  -60.4
 1.420  0.7660  -84.1  12.147  118.9  0.0702   39.9  0.7349  -61.1
 1.440  0.7631  -85.1  12.077  118.2  0.0708   39.4  0.7300  -61.8
 1.460  0.7606  -86.1  12.009  117.5  0.0713   38.9  0.7253  -62.5
 1.480  0.7582  -87.1  11.942  116.9  0.0718   38.3  0.7207  -63.2
 1.500  0.7561  -88.1  11.877  116.2  0.0724   37.8  0.7162  -63.9
 1.520  0.7533  -89.1  11.820  115.6  0.0729   37.3  0.7120  -64.6
 1.540  0.7507  -90.2  11.764  114.9  0.0735   36.8  0.7079  -65.2
 1.560  0.7484  -91.3  11.710  114.2  0.0740   36.3  0.7038  -65.9
 1.580  0.7464  -92.3  11.657  113.6  0.0745   35.9  0.6999  -66.6
 1.600  0.7446  -93.4  11.606  112.9  0.0751   35.4  0.6961  -67.3
 1.620  0.7420  -94.4  11.539  112.3  0.0755   34.9  0.6911  -68.0
 1.640  0.7396  -95.4  11.473  111.7  0.0760   34.3  0.6862  -68.7
 1.660  0.7375  -96.4  11.409  111.1  0.0764   33.8  0.6815  -69.4
 1.680  0.7356  -97.4  11.346  110.4  0.0768   33.3  0.6768  -70.1
 1.700  0.7339  -98.4  11.284  109.8  0.0773   32.8  0.6722  -70.8
 1.720  0.7317  -99.3  11.218  109.2  0.0777   32.3  0.6682  -71.5
 1.740  0.7296 -100.3  11.153  108.6  0.0781   31.9  0.6642  -72.2
 1.760  0.7278 -101.3  11.090  108.0  0.0785   31.4  0.6604  -72.9
 1.780  0.7262 -102.2  11.028  107.3  0.0789   31.0  0.6566  -73.7
 1.800  0.7248 -103.2  10.967  106.7  0.0793   30.5  0.6530  -74.4
 1.820  0.7228 -104.1  10.907  106.1  0.0797   30.0  0.6483  -75.1
 1.840  0.7211 -105.1  10.848  105.6  0.0801   29.5  0.6438  -75.8
 1.860  0.7195 -106.0  10.791  105.0  0.0805   29.0  0.6393  -76.5
 1.880  0.7181 -107.0  10.734  104.4  0.0810   28.6  0.6349  -77.2
 1.900  0.7169 -107.9  10.679  103.8  0.0814   28.1  0.6306  -77.9
 1.920  0.7151 -108.8  10.614  103.2  0.0817   27.6  0.6268  -78.6
 1.940  0.7136 -109.6  10.550  102.7  0.0821   27.2  0.6231  -79.2
 1.960  0.7121 -110.5  10.487  102.1  0.0825   26.7  0.6194  -79.9
 1.980  0.7109 -111.4  10.425  101.5  0.0828   26.3  0.6159  -80.6
 2.000  0.7098 -112.3  10.364  100.9  0.0832   25.8  0.6124  -81.3
 2.020  0.7078 -113.3  10.303  100.3  0.0835   25.3  0.6082  -82.0
 2.040  0.7060 -114.2  10.243   99.7  0.0839   24.9  0.6040  -82.6
 2.060  0.7043 -115.2  10.185   99.1  0.0842   24.4  0.6000  -83.3
 2.080  0.7029 -116.1  10.127   98.4  0.0845   24.0  0.5960  -84.0
 2.100  0.7017 -117.1  10.071   97.8  0.0849   23.5  0.5921  -84.7
 2.120  0.6998 -118.0  10.012   97.3  0.0851   23.1  0.5884  -85.3
 2.140  0.6981 -118.8   9.954   96.7  0.0853   22.7  0.5848  -86.0
 2.160  0.6966 -119.7   9.897   96.1  0.0855   22.3  0.5812  -86.7
 2.180  0.6952 -120.5   9.841   95.6  0.0858   21.9  0.5778  -87.3
 2.200  0.6940 -121.4   9.786   95.0  0.0860   21.5  0.5744  -88.0
 2.220  0.6921 -122.3   9.734   94.4  0.0863   21.1  0.5706  -88.6
 2.240  0.6903 -123.2   9.683   93.9  0.0865   20.7  0.5669  -89.2
 2.260  0.6887 -124.1   9.632   93.3  0.0868   20.2  0.5632  -89.8
 2.280  0.6873 -125.1   9.583   92.7  0.0870   19.8  0.5596  -90.5
 2.300  0.6861 -126.0   9.535   92.1  0.0873   19.4  0.5561  -91.1
 2.320  0.6848 -126.8   9.477   91.6  0.0875   19.0  0.5524  -91.8
 2.340  0.6837 -127.6   9.419   91.1  0.0876   18.7  0.5488  -92.4
 2.360  0.6827 -128.3   9.362   90.6  0.0878   18.3  0.5452  -93.1
 2.380  0.6818 -129.1   9.306   90.1  0.0879   18.0  0.5418  -93.8
 2.400  0.6811 -129.9   9.251   89.6  0.0881   17.6  0.5384  -94.5
 2.420  0.6796 -130.7   9.201   89.1  0.0883   17.2  0.5349  -95.1
 2.440  0.6783 -131.6   9.151   88.6  0.0885   16.8  0.5315  -95.7
 2.460  0.6771 -132.4   9.102   88.1  0.0887   16.4  0.5282  -96.3
 2.480  0.6760 -133.3   9.053   87.5  0.0890   16.0  0.5249  -97.0
 2.500  0.6751 -134.1   9.006   87.0  0.0892   15.6  0.5217  -97.6
 2.520  0.6739 -134.9   8.952   86.5  0.0893   15.2  0.5180  -98.2
 2.540  0.6729 -135.6   8.900   86.0  0.0895   14.9  0.5145  -98.9
 2.560  0.6719 -136.4   8.847   85.5  0.0896   14.5  0.5109  -99.6
 2.580  0.6711 -137.1   8.796   85.0  0.0898   14.2  0.5075 -100.2
 2.600  0.6704 -137.9   8.745   84.5  0.0899   13.8  0.5041 -100.9
 2.620  0.6692 -138.7   8.699   84.0  0.0901   13.5  0.5011 -101.5
 2.640  0.6680 -139.6   8.653   83.5  0.0903   13.2  0.4981 -102.1
 2.660  0.6671 -140.4   8.608   83.0  0.0906   12.8  0.4952 -102.7
 2.680  0.6663 -141.3   8.564   82.4  0.0908   12.5  0.4924 -103.3
 2.700  0.6656 -142.1   8.520   81.9  0.0910   12.2  0.4896 -103.9
 2.720  0.6644 -142.9   8.474   81.4  0.0911   11.8  0.4862 -104.6
 2.740  0.6633 -143.7   8.430   80.9  0.0912   11.4  0.4830 -105.2
 2.760  0.6624 -144.4   8.385   80.4  0.0913   11.1  0.4797 -105.9
 2.780  0.6615 -145.2   8.342   79.8  0.0914   10.7  0.4766 -106.6
 2.800  0.6608 -146.0   8.299   79.3  0.0915   10.3  0.4735 -107.3
 2.820  0.6599 -146.8   8.255   78.8  0.0916   10.0  0.4707 -107.9
 2.840  0.6592 -147.6   8.212   78.3  0.0917    9.7  0.4679 -108.6
 2.860  0.6585 -148.3   8.169   77.8  0.0919    9.3  0.4652 -109.3
 2.880  0.6580 -149.1   8.127   77.3  0.0920    9.0  0.4625 -109.9
 2.900  0.6576 -149.9   8.085   76.8  0.0921    8.7  0.4599 -110.6
 2.920  0.6565 -150.7   8.041   76.3  0.0921    8.4  0.4567 -111.3
 2.940  0.6556 -151.4   7.997   75.9  0.0921    8.1  0.4536 -112.1
 2.960  0.6548 -152.2   7.954   75.4  0.0921    7.7  0.4506 -112.8
 2.980  0.6541 -152.9   7.911   74.9  0.0921    7.4  0.4477 -113.5
 3.000  0.6535 -153.7   7.869   74.4  0.0921    7.1  0.4448 -114.3
 3.100  0.6506 -157.4   7.663   72.0  0.0931    5.4  0.4339 -117.5
 3.200  0.6476 -161.1   7.472   69.6  0.0929    4.0  0.4220 -121.0
 3.300  0.6460 -164.6   7.277   67.3  0.0932    2.4  0.4117 -124.5
 3.400  0.6444 -168.2   7.086   65.0  0.0932    0.9  0.4011 -128.2
 3.500  0.6437 -171.4   6.894   62.9  0.0933   -0.5  0.3916 -131.5
 3.600  0.6421 -174.7   6.715   60.6  0.0933   -2.0  0.3834 -135.1
 3.700  0.6418 -177.9   6.541   58.5  0.0932   -3.4  0.3756 -138.6
 3.800  0.6418  178.8   6.382   56.3  0.0933   -4.7  0.3688 -142.1
 3.900  0.6414  175.9   6.215   54.2  0.0927   -6.0  0.3625 -145.8
 4.000  0.6425  173.2   6.043   52.2  0.0923   -7.2  0.3578 -149.2
 4.100  0.6421  170.3   5.893   50.1  0.0920   -8.4  0.3542 -152.4
 4.200  0.6438  167.6   5.739   48.2  0.0917   -9.6  0.3509 -155.7
 4.300  0.6442  164.8   5.603   46.1  0.0913  -10.8  0.3479 -158.8
 4.400  0.6464  162.4   5.456   44.3  0.0906  -11.7  0.3444 -162.0
 4.500  0.6468  160.0   5.323   42.4  0.0902  -12.6  0.3424 -164.8
 4.600  0.6497  157.8   5.188   40.5  0.0900  -13.8  0.3409 -167.4
 4.700  0.6503  155.6   5.063   38.8  0.0892  -14.8  0.3385 -170.3
 4.800  0.6531  153.5   4.945   36.9  0.0887  -15.7  0.3372 -173.0
 4.900  0.6539  151.6   4.824   35.2  0.0882  -16.4  0.3353 -175.7
 5.000  0.6565  149.6   4.714   33.6  0.0876  -17.2  0.3343 -178.1
 5.100  0.6576  147.8   4.603   31.8  0.0872  -18.1  0.3333  179.5
 5.200  0.6598  146.0   4.508   30.2  0.0866  -18.7  0.3324  177.2
 5.300  0.6600  144.3   4.401   28.5  0.0861  -19.5  0.3312  174.9
 5.400  0.6623  142.7   4.308   27.0  0.0856  -20.1  0.3304  172.6
 5.500  0.6623  141.2   4.208   25.4  0.0849  -20.7  0.3296  170.4
 5.600  0.6641  139.7   4.125   23.8  0.0847  -21.5  0.3294  168.4
 5.700  0.6639  138.3   4.037   22.3  0.0840  -22.0  0.3290  166.2
 5.800  0.6658  136.7   3.963   20.7  0.0838  -22.6  0.3296  164.1
 5.900  0.6672  135.5   3.883   19.2  0.0830  -23.0  0.3302  161.9
 6.000  0.6683  134.0   3.814   17.6  0.0828  -23.6  0.3314  159.9
 6.100  0.6707  132.8   3.740   16.2  0.0829  -24.2  0.3333  157.9
 6.200  0.6715  131.4   3.678   14.7  0.0826  -24.8  0.3352  156.0
 6.300  0.6740  130.1   3.609   13.1  0.0823  -25.3  0.3371  153.8
 6.400  0.6750  128.7   3.549   11.5  0.0821  -25.9  0.3400  151.9
 6.500  0.6776  127.3   3.486   10.0  0.0818  -26.6  0.3427  150.1
 6.600  0.6784  125.8   3.428    8.3  0.0817  -27.1  0.3452  148.1
 6.800  0.6824  122.9   3.313    5.3  0.0811  -28.2  0.3510  144.3
 7.000  0.6861  119.9   3.205    2.1  0.0807  -29.4  0.3587  140.8
 7.200  0.6912  116.9   3.104   -1.0  0.0802  -30.6  0.3660  137.5
 7.400  0.6959  113.9   3.004   -4.2  0.0797  -31.7  0.3736  134.0
 7.600  0.7021  110.7   2.906   -7.5  0.0793  -33.1  0.3822  130.4
 7.800  0.7100  107.5   2.809  -10.7  0.0788  -34.2  0.3904  126.7
 8.000  0.7180  104.3   2.711  -14.1  0.0780  -35.4  0.3998  122.9
 8.200  0.7253  101.1   2.606  -17.2  0.0771  -36.7  0.4091  118.8
 8.400  0.7347   97.9   2.510  -20.5  0.0763  -37.9  0.4204  114.9
 8.600  0.7436   94.9   2.412  -23.7  0.0753  -39.1  0.4334  111.0
 8.800  0.7517   92.0   2.312  -26.7  0.0743  -40.1  0.4483  107.2
 9.000  0.7616   89.2   2.218  -29.9  0.0732  -41.2  0.4650  103.6
 9.200  0.7689   86.8   2.118  -32.4  0.0718  -41.8  0.4814  100.4
 9.400  0.7775   84.5   2.022  -35.1  0.0705  -42.4  0.4992   97.5
 9.600  0.7856   82.4   1.933  -37.5  0.0693  -42.8  0.5167   95.2
 9.800  0.7928   80.8   1.849  -39.7  0.0683  -43.0  0.5332   93.4
10.000  0.8006   79.1   1.768  -42.0  0.0673  -43.2  0.5502   91.8
!
!  f       NFmin   Gammaopt  rn/50
! GHz       dB    MAG  ANG    -
 0.450      0.45  0.36   10   0.21
 0.900      0.46  0.37   17   0.20
 1.500      0.49  0.35   25   0.19
 1.900      0.52  0.34   42   0.19
 2.400      0.55  0.34   46   0.18
 3.500      0.65  0.31   66   0.17
 5.500      0.86  0.22  171   0.15
10.000      1.45  0.54  -80   0.20
!
! (c) 2016  Infineon Technologies AG, Munich
