! Infineon Technologies  Discrete & RF Semiconductors
! BFP740F
! VCE =  2.0 V,  IC =  6.0 mA
! Common Emitter S-Parameters:                            Oct 2012
# GHz  S  MA  R  50
!  f         S11            S21            S12            S22
! GHz     MAG   ANG      MAG   ANG      MAG   ANG      MAG   ANG
 0.030  0.9386   -1.9  17.328  177.8  0.0013   97.6  0.9975   -1.3
 0.040  0.9392   -2.6  17.345  177.3  0.0019   83.5  0.9982   -1.7
 0.050  0.9384   -3.1  17.489  177.0  0.0031   88.4  0.9981   -2.1
 0.060  0.9381   -3.8  17.450  176.6  0.0032   94.2  0.9978   -2.5
 0.070  0.9374   -4.4  17.445  176.0  0.0036   83.2  0.9971   -3.0
 0.080  0.9375   -5.1  17.407  175.6  0.0042   85.2  0.9976   -3.4
 0.090  0.9375   -5.7  17.404  175.0  0.0048   86.8  0.9974   -3.9
 0.100  0.9366   -6.3  17.355  174.5  0.0055   86.4  0.9963   -4.3
 0.110  0.9361   -7.0  17.358  174.1  0.0060   83.9  0.9959   -4.8
 0.120  0.9358   -7.6  17.251  173.6  0.0062   84.0  0.9950   -5.2
 0.130  0.9355   -8.2  17.256  173.1  0.0072   84.6  0.9942   -5.6
 0.140  0.9352   -8.8  17.152  172.7  0.0074   83.3  0.9938   -6.1
 0.150  0.9348   -9.5  17.185  172.2  0.0081   84.8  0.9934   -6.5
 0.200  0.9320  -12.5  16.981  170.0  0.0107   82.3  0.9896   -8.6
 0.250  0.9283  -15.6  16.895  167.9  0.0134   81.4  0.9853  -10.7
 0.300  0.9253  -18.6  16.728  165.8  0.0157   79.3  0.9802  -12.7
 0.350  0.9214  -21.6  16.626  163.8  0.0186   77.3  0.9750  -14.8
 0.400  0.9180  -24.7  16.509  161.9  0.0211   75.5  0.9679  -16.9
 0.450  0.9140  -27.6  16.374  159.9  0.0236   73.6  0.9623  -18.8
 0.500  0.9099  -30.6  16.228  158.0  0.0261   72.5  0.9543  -20.9
 0.600  0.9001  -36.5  15.977  154.1  0.0308   68.6  0.9374  -24.9
 0.700  0.8903  -42.2  15.670  150.4  0.0352   64.9  0.9197  -28.8
 0.800  0.8778  -48.3  15.492  146.5  0.0395   61.6  0.8987  -32.7
 0.900  0.8663  -53.7  15.081  143.0  0.0435   58.3  0.8769  -36.4
 1.000  0.8532  -59.2  14.739  139.3  0.0472   55.1  0.8532  -40.1
 1.100  0.8404  -64.3  14.311  135.9  0.0505   52.1  0.8286  -43.7
 1.200  0.8258  -69.5  13.965  132.4  0.0535   49.1  0.8040  -47.2
 1.300  0.8129  -74.4  13.553  129.3  0.0563   46.4  0.7799  -50.4
 1.400  0.8000  -79.4  13.204  126.1  0.0586   43.7  0.7562  -53.6
 1.500  0.7876  -83.9  12.807  123.1  0.0608   41.3  0.7331  -56.6
 1.600  0.7750  -88.8  12.520  120.1  0.0628   38.9  0.7121  -59.6
 1.700  0.7635  -93.0  12.123  117.3  0.0644   36.7  0.6894  -62.5
 1.800  0.7556  -97.0  11.739  114.8  0.0661   34.6  0.6713  -65.4
 1.900  0.7459 -100.8  11.376  112.3  0.0674   32.7  0.6514  -68.2
 2.000  0.7376 -104.7  11.044  109.8  0.0687   30.7  0.6352  -70.9
 2.100  0.7307 -108.6  10.709  107.1  0.0698   28.6  0.6177  -73.9
 2.200  0.7226 -112.1  10.389  104.9  0.0708   26.8  0.6027  -76.3
 2.300  0.7155 -115.3  10.063  102.7  0.0716   25.2  0.5881  -78.8
 2.400  0.7086 -118.5   9.761  100.6  0.0723   23.7  0.5759  -81.0
 2.500  0.7023 -121.2   9.451   98.7  0.0729   22.1  0.5634  -83.2
 2.600  0.6967 -124.3   9.199   96.6  0.0733   20.8  0.5520  -85.3
 2.700  0.6919 -127.0   8.928   94.7  0.0739   19.5  0.5414  -87.3
 2.800  0.6873 -129.8   8.700   92.9  0.0742   18.3  0.5319  -89.3
 2.900  0.6829 -132.3   8.446   91.1  0.0746   17.1  0.5234  -91.2
 3.000  0.6793 -134.8   8.239   89.3  0.0749   15.9  0.5147  -93.1
 3.100  0.6751 -137.4   8.031   87.6  0.0750   14.7  0.5071  -94.9
 3.200  0.6718 -139.6   7.821   85.9  0.0754   13.7  0.5006  -96.5
 3.300  0.6692 -141.8   7.621   84.3  0.0755   12.7  0.4938  -98.2
 3.400  0.6669 -144.0   7.434   82.7  0.0757   11.7  0.4877  -99.7
 3.500  0.6647 -146.0   7.244   81.3  0.0756   10.7  0.4816 -101.2
 3.600  0.6623 -148.2   7.082   79.7  0.0759    9.8  0.4763 -102.5
 3.700  0.6611 -150.0   6.912   78.2  0.0758    8.9  0.4701 -103.9
 3.800  0.6596 -152.2   6.765   76.7  0.0759    8.1  0.4646 -105.2
 3.900  0.6588 -153.9   6.613   75.3  0.0760    7.3  0.4590 -106.6
 4.000  0.6569 -155.8   6.460   73.8  0.0760    6.3  0.4542 -107.9
 4.100  0.6571 -157.5   6.323   72.5  0.0760    5.7  0.4488 -109.1
 4.200  0.6558 -159.4   6.190   71.0  0.0760    4.9  0.4437 -110.4
 4.300  0.6558 -161.1   6.059   69.7  0.0757    4.1  0.4385 -111.7
 4.400  0.6551 -163.0   5.940   68.3  0.0757    3.4  0.4340 -112.9
 4.500  0.6553 -164.5   5.814   67.0  0.0756    2.7  0.4296 -114.1
 4.600  0.6557 -166.3   5.707   65.6  0.0755    2.0  0.4245 -115.3
 4.700  0.6558 -167.9   5.592   64.3  0.0753    1.3  0.4198 -116.6
 4.800  0.6569 -169.5   5.490   63.0  0.0751    0.7  0.4157 -117.8
 4.900  0.6571 -171.1   5.384   61.6  0.0749    0.0  0.4109 -119.1
 5.000  0.6578 -172.5   5.281   60.4  0.0749   -0.6  0.4072 -120.2
 5.100  0.6592 -174.0   5.186   59.1  0.0746   -1.2  0.4024 -121.6
 5.200  0.6593 -175.4   5.093   57.8  0.0745   -1.9  0.3992 -122.7
 5.300  0.6600 -176.8   5.003   56.5  0.0741   -2.5  0.3948 -124.0
 5.400  0.6608 -178.2   4.916   55.3  0.0739   -3.0  0.3914 -125.2
 5.500  0.6616 -179.5   4.828   54.0  0.0737   -3.6  0.3880 -126.4
 5.600  0.6617  179.0   4.750   52.8  0.0734   -4.1  0.3843 -127.4
 5.700  0.6621  177.7   4.666   51.6  0.0731   -4.8  0.3799 -128.9
 5.800  0.6623  176.1   4.597   50.3  0.0727   -5.3  0.3773 -130.0
 5.900  0.6627  174.7   4.516   49.1  0.0724   -5.9  0.3731 -131.2
 6.000  0.6630  173.2   4.448   47.8  0.0721   -6.4  0.3689 -132.5
 6.100  0.6631  171.7   4.375   46.6  0.0714   -6.9  0.3649 -133.8
 6.200  0.6630  170.3   4.308   45.3  0.0712   -7.5  0.3619 -134.9
 6.300  0.6622  168.9   4.234   44.1  0.0705   -7.9  0.3569 -136.3
 6.400  0.6615  167.4   4.168   42.9  0.0702   -8.4  0.3538 -137.4
 6.500  0.6609  165.8   4.102   41.7  0.0694   -8.7  0.3487 -138.7
 6.600  0.6601  164.4   4.035   40.4  0.0691   -9.2  0.3452 -139.8
 6.700  0.6588  162.8   3.968   39.2  0.0683   -9.3  0.3394 -141.1
 6.800  0.6587  161.4   3.907   38.0  0.0679   -9.7  0.3356 -142.1
 6.900  0.6577  159.8   3.844   36.8  0.0671   -9.7  0.3298 -143.4
 7.000  0.6574  158.4   3.783   35.6  0.0668   -9.9  0.3251 -144.6
 7.100  0.6570  156.9   3.724   34.4  0.0661   -9.8  0.3193 -146.0
 7.200  0.6572  155.4   3.669   33.3  0.0658   -9.9  0.3153 -147.4
 7.300  0.6578  154.0   3.608   32.1  0.0654   -9.8  0.3107 -148.9
 7.400  0.6592  152.5   3.560   30.9  0.0652   -9.7  0.3067 -150.4
 7.500  0.6609  151.3   3.503   29.8  0.0650   -9.6  0.3030 -152.2
 7.600  0.6631  149.6   3.456   28.6  0.0649   -9.7  0.2996 -153.9
 7.700  0.6656  148.4   3.400   27.5  0.0648   -9.7  0.2951 -156.0
 7.800  0.6692  146.8   3.354   26.2  0.0648   -9.8  0.2926 -158.3
 7.900  0.6721  145.7   3.300   25.1  0.0648   -9.9  0.2894 -160.6
 8.000  0.6770  144.1   3.255   23.9  0.0647  -10.0  0.2870 -163.2
 8.500  0.7010  138.2   3.014   18.0  0.0641  -11.2  0.2836 -177.4
 9.000  0.7239  133.3   2.787   12.3  0.0629  -12.4  0.2986  167.6
 9.500  0.7415  129.9   2.572    6.8  0.0612  -13.0  0.3346  154.4
10.000  0.7566  126.3   2.368    1.6  0.0595  -13.4  0.3847  144.3
!
!  f       NFmin   Gammaopt  rn/50
! GHz       dB    MAG  ANG    -
 0.450      0.39  0.32    6   0.21
 0.900      0.44  0.32   12   0.18
 1.500      0.51  0.32   24   0.14
 1.900      0.55  0.31   32   0.13
 2.400      0.62  0.30   41   0.12
 3.500      0.75  0.27   66   0.11
 5.500      0.99  0.17  113   0.19
10.000      1.49  0.40 -125   0.07
!
! (c) 2012  Infineon Technologies AG, Munich
