! Infineon Technologies  Discrete & RF Semiconductors
! BFP750
! VCE =  1.0 V,  IC = 0.12 A
! Common Emitter S-Parameters:                            Jan 2016
# GHz  S  MA  R  50
!  f         S11            S21            S12            S22
! GHz     MAG   ANG      MAG   ANG      MAG   ANG      MAG   ANG
 0.030  0.5437 -175.1   8.913  172.3  0.0137    7.2  0.2798 -176.0
 0.035  0.5470 -174.5   8.894  171.1  0.0138    8.2  0.2809 -175.3
 0.040  0.5503 -174.0   8.879  169.8  0.0139    9.1  0.2820 -174.6
 0.045  0.5539 -173.4   8.844  168.4  0.0141    9.9  0.2839 -173.9
 0.050  0.5575 -172.9   8.814  167.0  0.0143   10.7  0.2858 -173.2
 0.055  0.5641 -172.5   8.758  165.9  0.0143   11.5  0.2876 -172.6
 0.060  0.5708 -172.1   8.706  164.7  0.0144   12.3  0.2895 -172.0
 0.065  0.5740 -171.5   8.653  163.3  0.0145   12.7  0.2919 -171.5
 0.070  0.5773 -171.0   8.605  161.8  0.0146   13.0  0.2944 -171.0
 0.075  0.5837 -170.4   8.553  160.7  0.0148   13.6  0.2971 -170.5
 0.080  0.5901 -169.8   8.504  159.6  0.0150   14.1  0.2999 -170.0
 0.085  0.5944 -169.5   8.449  158.4  0.0151   14.9  0.3026 -169.6
 0.090  0.5988 -169.3   8.398  157.2  0.0153   15.7  0.3053 -169.3
 0.095  0.6054 -169.1   8.335  156.1  0.0154   16.2  0.3082 -168.9
 0.100  0.6120 -168.9   8.276  154.9  0.0156   16.6  0.3111 -168.6
 0.105  0.6167 -168.7   8.219  153.7  0.0157   17.0  0.3141 -168.3
 0.110  0.6215 -168.6   8.166  152.5  0.0159   17.4  0.3171 -168.1
 0.115  0.6274 -168.4   8.094  151.5  0.0161   17.9  0.3201 -167.9
 0.120  0.6333 -168.2   8.025  150.4  0.0163   18.4  0.3232 -167.8
 0.125  0.6382 -168.0   7.950  149.3  0.0164   18.5  0.3262 -167.6
 0.130  0.6432 -167.8   7.878  148.2  0.0166   18.5  0.3292 -167.5
 0.135  0.6503 -167.9   7.814  147.2  0.0167   18.8  0.3322 -167.4
 0.140  0.6574 -167.9   7.752  146.2  0.0169   19.1  0.3352 -167.3
 0.145  0.6629 -168.0   7.672  145.2  0.0170   19.5  0.3381 -167.2
 0.150  0.6684 -168.0   7.594  144.2  0.0172   19.9  0.3411 -167.2
 0.155  0.6735 -168.1   7.511  143.4  0.0173   20.0  0.3438 -167.2
 0.160  0.6787 -168.1   7.430  142.5  0.0175   20.2  0.3465 -167.3
 0.165  0.6838 -168.2   7.351  141.7  0.0176   20.3  0.3491 -167.3
 0.170  0.6890 -168.3   7.273  140.8  0.0178   20.4  0.3518 -167.4
 0.175  0.6941 -168.3   7.197  139.9  0.0179   20.5  0.3545 -167.4
 0.180  0.6993 -168.4   7.122  139.0  0.0181   20.6  0.3572 -167.4
 0.185  0.7044 -168.4   7.050  138.1  0.0182   20.8  0.3599 -167.5
 0.190  0.7096 -168.5   6.979  137.2  0.0184   20.9  0.3625 -167.5
 0.195  0.7147 -168.5   6.911  136.2  0.0185   21.0  0.3652 -167.6
 0.200  0.7199 -168.6   6.844  135.2  0.0187   21.1  0.3679 -167.6
 0.220  0.7361 -169.3   6.563  132.4  0.0192   21.3  0.3765 -168.2
 0.240  0.7524 -169.9   6.299  129.4  0.0197   21.5  0.3851 -168.8
 0.260  0.7667 -170.6   6.043  126.6  0.0202   21.6  0.3927 -169.5
 0.280  0.7790 -171.3   5.789  124.2  0.0206   21.7  0.3994 -170.1
 0.300  0.7915 -172.0   5.547  121.5  0.0210   21.8  0.4061 -170.8
 0.320  0.8012 -172.8   5.328  119.5  0.0213   21.8  0.4113 -171.5
 0.340  0.8111 -173.6   5.116  117.4  0.0216   21.9  0.4166 -172.1
 0.360  0.8193 -174.4   4.918  115.4  0.0219   21.9  0.4211 -172.7
 0.380  0.8259 -175.1   4.733  113.6  0.0222   21.9  0.4251 -173.4
 0.400  0.8326 -175.8   4.552  111.6  0.0225   21.9  0.4291 -174.1
 0.420  0.8381 -176.5   4.392  110.1  0.0228   22.0  0.4321 -174.7
 0.440  0.8437 -177.2   4.235  108.5  0.0231   22.1  0.4352 -175.4
 0.450  0.8465 -177.5   4.158  107.7  0.0232   22.1  0.4368 -175.7
 0.460  0.8486 -177.8   4.088  107.0  0.0233   22.1  0.4380 -176.0
 0.480  0.8528 -178.5   3.951  105.7  0.0235   22.2  0.4405 -176.5
 0.500  0.8572 -179.2   3.816  104.2  0.0237   22.2  0.4431 -177.1
 0.520  0.8602 -179.8   3.704  103.2  0.0239   22.3  0.4449 -177.6
 0.540  0.8634  179.6   3.592  102.1  0.0241   22.4  0.4468 -178.2
 0.560  0.8666  179.0   3.483  100.9  0.0243   22.6  0.4487 -178.7
 0.580  0.8700  178.4   3.374   99.6  0.0245   22.7  0.4507 -179.2
 0.600  0.8734  177.8   3.268   98.3  0.0247   22.8  0.4527 -179.7
 0.620  0.8751  177.3   3.182   97.4  0.0249   22.9  0.4540  179.9
 0.640  0.8769  176.8   3.098   96.5  0.0251   23.1  0.4553  179.4
 0.660  0.8788  176.2   3.014   95.5  0.0252   23.2  0.4567  179.0
 0.680  0.8808  175.7   2.931   94.4  0.0254   23.4  0.4581  178.5
 0.700  0.8828  175.2   2.849   93.3  0.0256   23.5  0.4595  178.1
 0.720  0.8841  174.7   2.782   92.5  0.0258   23.6  0.4605  177.7
 0.740  0.8854  174.2   2.716   91.7  0.0260   23.8  0.4615  177.3
 0.760  0.8869  173.7   2.650   90.8  0.0261   23.9  0.4625  176.8
 0.780  0.8883  173.2   2.585   89.9  0.0263   24.1  0.4636  176.4
 0.800  0.8899  172.7   2.521   88.9  0.0265   24.2  0.4647  176.0
 0.820  0.8911  172.3   2.468   88.2  0.0267   24.3  0.4656  175.6
 0.840  0.8924  171.8   2.415   87.5  0.0268   24.5  0.4665  175.3
 0.860  0.8937  171.4   2.363   86.8  0.0270   24.6  0.4675  174.9
 0.880  0.8951  170.9   2.311   86.0  0.0271   24.8  0.4684  174.6
 0.900  0.8965  170.5   2.259   85.2  0.0273   24.9  0.4694  174.2
 0.920  0.8969  170.1   2.215   84.6  0.0275   25.0  0.4701  173.8
 0.940  0.8974  169.6   2.171   83.9  0.0277   25.2  0.4709  173.5
 0.960  0.8980  169.2   2.127   83.2  0.0278   25.3  0.4717  173.1
 0.980  0.8986  168.7   2.084   82.5  0.0280   25.5  0.4725  172.8
 1.000  0.8992  168.3   2.041   81.7  0.0282   25.6  0.4733  172.4
 1.020  0.9001  167.9   2.006   81.1  0.0284   25.7  0.4740  172.1
 1.040  0.9011  167.5   1.971   80.4  0.0286   25.8  0.4746  171.8
 1.060  0.9021  167.0   1.937   79.8  0.0287   26.0  0.4753  171.4
 1.080  0.9031  166.6   1.903   79.1  0.0289   26.1  0.4760  171.1
 1.100  0.9042  166.2   1.869   78.4  0.0291   26.2  0.4767  170.8
 1.120  0.9046  165.8   1.838   77.8  0.0293   26.3  0.4774  170.5
 1.140  0.9051  165.4   1.806   77.2  0.0295   26.4  0.4780  170.2
 1.160  0.9056  165.0   1.775   76.6  0.0297   26.5  0.4787  169.9
 1.180  0.9062  164.6   1.745   76.0  0.0299   26.6  0.4794  169.6
 1.200  0.9068  164.2   1.714   75.3  0.0301   26.7  0.4801  169.3
 1.220  0.9071  163.8   1.688   74.7  0.0303   26.8  0.4807  169.0
 1.240  0.9075  163.4   1.663   74.2  0.0305   26.9  0.4812  168.7
 1.260  0.9079  163.1   1.637   73.6  0.0306   27.1  0.4818  168.5
 1.280  0.9084  162.7   1.612   72.9  0.0308   27.2  0.4824  168.2
 1.300  0.9089  162.3   1.587   72.3  0.0310   27.3  0.4830  167.9
 1.320  0.9093  161.9   1.564   71.8  0.0312   27.4  0.4836  167.6
 1.340  0.9097  161.5   1.541   71.2  0.0314   27.5  0.4842  167.3
 1.360  0.9102  161.2   1.519   70.7  0.0315   27.5  0.4849  167.1
 1.380  0.9107  160.8   1.496   70.1  0.0317   27.6  0.4855  166.8
 1.400  0.9113  160.4   1.474   69.5  0.0319   27.7  0.4862  166.5
 1.420  0.9118  160.0   1.455   69.0  0.0321   27.8  0.4867  166.2
 1.440  0.9123  159.7   1.436   68.5  0.0323   27.8  0.4872  165.9
 1.460  0.9129  159.3   1.417   67.9  0.0325   27.9  0.4877  165.7
 1.480  0.9135  159.0   1.398   67.4  0.0327   27.9  0.4883  165.4
 1.500  0.9141  158.6   1.379   66.8  0.0329   28.0  0.4888  165.1
 1.520  0.9143  158.2   1.362   66.3  0.0331   28.0  0.4893  164.8
 1.540  0.9145  157.9   1.344   65.8  0.0333   28.1  0.4898  164.6
 1.560  0.9148  157.5   1.327   65.3  0.0335   28.1  0.4903  164.3
 1.580  0.9151  157.2   1.310   64.7  0.0337   28.2  0.4909  164.1
 1.600  0.9154  156.8   1.293   64.2  0.0339   28.2  0.4914  163.8
 1.620  0.9156  156.4   1.278   63.7  0.0341   28.2  0.4919  163.5
 1.640  0.9159  156.1   1.263   63.2  0.0343   28.3  0.4924  163.3
 1.660  0.9163  155.7   1.248   62.7  0.0345   28.3  0.4930  163.0
 1.680  0.9166  155.4   1.233   62.1  0.0347   28.4  0.4935  162.8
 1.700  0.9170  155.0   1.218   61.6  0.0349   28.4  0.4941  162.5
 1.720  0.9170  154.6   1.204   61.1  0.0351   28.4  0.4945  162.2
 1.740  0.9171  154.3   1.190   60.6  0.0353   28.4  0.4949  161.9
 1.760  0.9172  153.9   1.176   60.1  0.0355   28.4  0.4953  161.7
 1.780  0.9173  153.6   1.163   59.5  0.0357   28.4  0.4957  161.4
 1.800  0.9175  153.2   1.149   59.0  0.0359   28.4  0.4961  161.1
 1.820  0.9177  152.9   1.136   58.5  0.0361   28.4  0.4966  160.8
 1.840  0.9178  152.5   1.124   58.0  0.0363   28.4  0.4972  160.6
 1.860  0.9181  152.2   1.111   57.5  0.0365   28.5  0.4977  160.3
 1.880  0.9183  151.8   1.098   57.0  0.0367   28.5  0.4983  160.1
 1.900  0.9186  151.5   1.086   56.5  0.0369   28.5  0.4989  159.8
 1.920  0.9187  151.1   1.075   56.0  0.0371   28.5  0.4992  159.5
 1.940  0.9189  150.8   1.064   55.6  0.0373   28.5  0.4994  159.2
 1.960  0.9190  150.4   1.053   55.1  0.0375   28.4  0.4997  159.0
 1.980  0.9192  150.1   1.043   54.6  0.0377   28.4  0.5000  158.7
 2.000  0.9195  149.7   1.032   54.1  0.0379   28.4  0.5003  158.4
 2.020  0.9193  149.4   1.022   53.7  0.0381   28.4  0.5007  158.1
 2.040  0.9192  149.0   1.012   53.2  0.0383   28.4  0.5011  157.9
 2.060  0.9190  148.7   1.002   52.7  0.0385   28.3  0.5015  157.6
 2.080  0.9190  148.3   0.992   52.3  0.0387   28.3  0.5020  157.3
 2.100  0.9189  148.0   0.983   51.8  0.0388   28.3  0.5024  157.0
 2.120  0.9189  147.6   0.973   51.3  0.0390   28.3  0.5029  156.8
 2.140  0.9189  147.3   0.963   50.8  0.0392   28.3  0.5033  156.5
 2.160  0.9190  146.9   0.954   50.3  0.0394   28.2  0.5038  156.2
 2.180  0.9191  146.5   0.944   49.7  0.0396   28.2  0.5043  156.0
 2.200  0.9192  146.2   0.935   49.2  0.0398   28.2  0.5048  155.7
 2.220  0.9190  145.9   0.926   48.8  0.0400   28.1  0.5053  155.4
 2.240  0.9189  145.6   0.918   48.4  0.0402   28.1  0.5057  155.1
 2.260  0.9187  145.2   0.910   47.9  0.0404   28.0  0.5062  154.8
 2.280  0.9186  144.9   0.901   47.5  0.0406   28.0  0.5067  154.5
 2.300  0.9185  144.6   0.893   47.1  0.0408   27.9  0.5072  154.2
 2.320  0.9185  144.3   0.885   46.6  0.0410   27.9  0.5077  154.0
 2.340  0.9185  144.0   0.876   46.1  0.0412   27.8  0.5082  153.7
 2.360  0.9185  143.6   0.868   45.7  0.0414   27.8  0.5088  153.4
 2.380  0.9185  143.3   0.860   45.2  0.0416   27.7  0.5093  153.1
 2.400  0.9186  143.0   0.852   44.7  0.0418   27.7  0.5099  152.8
 2.420  0.9183  142.7   0.845   44.3  0.0420   27.6  0.5105  152.5
 2.440  0.9180  142.4   0.837   43.9  0.0422   27.6  0.5111  152.3
 2.460  0.9177  142.0   0.830   43.5  0.0424   27.5  0.5117  152.0
 2.480  0.9175  141.7   0.823   43.1  0.0426   27.5  0.5123  151.7
 2.500  0.9173  141.4   0.815   42.6  0.0428   27.4  0.5129  151.4
 2.520  0.9171  141.1   0.808   42.2  0.0430   27.4  0.5135  151.2
 2.540  0.9170  140.8   0.801   41.8  0.0432   27.3  0.5142  150.9
 2.560  0.9169  140.4   0.794   41.3  0.0434   27.3  0.5148  150.6
 2.580  0.9168  140.1   0.787   40.9  0.0436   27.2  0.5155  150.4
 2.600  0.9167  139.8   0.780   40.4  0.0438   27.2  0.5162  150.1
 2.620  0.9167  139.5   0.774   40.0  0.0440   27.1  0.5168  149.8
 2.640  0.9167  139.2   0.768   39.6  0.0442   27.1  0.5174  149.6
 2.660  0.9168  138.9   0.762   39.2  0.0444   27.0  0.5180  149.3
 2.680  0.9169  138.6   0.757   38.8  0.0446   27.0  0.5187  149.1
 2.700  0.9170  138.2   0.751   38.4  0.0448   26.9  0.5193  148.8
 2.720  0.9172  137.9   0.745   38.0  0.0450   26.8  0.5200  148.5
 2.740  0.9173  137.6   0.740   37.5  0.0452   26.8  0.5206  148.3
 2.760  0.9175  137.3   0.734   37.1  0.0454   26.7  0.5213  148.0
 2.780  0.9177  137.0   0.729   36.6  0.0456   26.7  0.5220  147.8
 2.800  0.9180  136.7   0.723   36.2  0.0458   26.6  0.5227  147.5
 2.820  0.9180  136.4   0.718   35.8  0.0460   26.5  0.5234  147.2
 2.840  0.9180  136.1   0.712   35.4  0.0462   26.4  0.5240  147.0
 2.860  0.9181  135.8   0.707   35.0  0.0464   26.3  0.5247  146.7
 2.880  0.9182  135.5   0.702   34.6  0.0466   26.2  0.5254  146.5
 2.900  0.9183  135.1   0.697   34.2  0.0468   26.1  0.5261  146.2
 2.920  0.9185  134.8   0.691   33.8  0.0470   26.1  0.5268  145.9
 2.940  0.9186  134.5   0.686   33.4  0.0472   26.0  0.5276  145.7
 2.960  0.9188  134.2   0.681   33.0  0.0474   25.9  0.5283  145.4
 2.980  0.9190  133.9   0.676   32.5  0.0476   25.8  0.5290  145.2
 3.000  0.9193  133.6   0.671   32.1  0.0478   25.7  0.5298  144.9
 3.100  0.9188  132.1   0.648   30.4  0.0487   25.1  0.5334  143.7
 3.200  0.9190  130.5   0.626   28.5  0.0497   24.5  0.5372  142.5
 3.300  0.9199  129.0   0.604   26.5  0.0506   24.0  0.5412  141.3
 3.400  0.9214  127.4   0.583   24.4  0.0516   23.4  0.5454  140.1
 3.500  0.9236  125.9   0.563   22.1  0.0525   22.9  0.5499  139.0
 3.600  0.9240  124.5   0.545   20.5  0.0533   22.2  0.5544  137.9
 3.700  0.9248  123.2   0.528   18.8  0.0541   21.6  0.5590  136.9
 3.800  0.9262  121.8   0.512   17.0  0.0549   21.0  0.5639  135.9
 3.900  0.9282  120.5   0.496   15.1  0.0558   20.4  0.5689  134.9
 4.000  0.9306  119.1   0.480   13.1  0.0566   19.8  0.5741  133.9
 4.100  0.9306  118.0   0.467   11.7  0.0573   19.2  0.5787  133.0
 4.200  0.9309  116.9   0.453   10.2  0.0581   18.6  0.5834  132.1
 4.300  0.9316  115.7   0.441    8.6  0.0588   18.1  0.5883  131.2
 4.400  0.9327  114.6   0.428    6.9  0.0595   17.5  0.5933  130.4
 4.500  0.9341  113.5   0.416    5.1  0.0603   17.0  0.5984  129.5
 4.600  0.9332  112.5   0.405    3.8  0.0611   16.4  0.6015  128.7
 4.700  0.9326  111.5   0.395    2.4  0.0620   15.8  0.6047  127.8
 4.800  0.9323  110.4   0.385    0.9  0.0628   15.2  0.6081  127.0
 4.900  0.9323  109.4   0.375   -0.7  0.0636   14.6  0.6116  126.2
 5.000  0.9326  108.4   0.366   -2.3  0.0645   14.0  0.6152  125.4
 5.100  0.9305  107.4   0.358   -3.6  0.0652   13.3  0.6166  124.4
 5.200  0.9286  106.3   0.349   -4.9  0.0660   12.6  0.6182  123.3
 5.300  0.9271  105.3   0.341   -6.2  0.0668   11.9  0.6200  122.3
 5.400  0.9259  104.2   0.334   -7.7  0.0675   11.2  0.6219  121.3
 5.500  0.9250  103.2   0.326   -9.2  0.0683   10.6  0.6241  120.3
 5.600  0.9240  102.3   0.319  -10.3  0.0691    9.9  0.6259  119.2
 5.700  0.9233  101.5   0.312  -11.4  0.0699    9.2  0.6280  118.0
 5.800  0.9227  100.6   0.306  -12.6  0.0707    8.6  0.6303  116.9
 5.900  0.9223   99.8   0.299  -13.8  0.0715    7.9  0.6329  115.8
 6.000  0.9222   98.9   0.293  -15.1  0.0723    7.3  0.6357  114.7
 6.100  0.9232   98.1   0.288  -16.2  0.0731    6.5  0.6388  113.7
 6.200  0.9244   97.2   0.283  -17.3  0.0739    5.7  0.6420  112.8
 6.300  0.9257   96.4   0.279  -18.5  0.0748    4.9  0.6454  111.8
 6.400  0.9273   95.5   0.274  -19.7  0.0756    4.1  0.6490  110.9
 6.500  0.9291   94.7   0.270  -21.0  0.0765    3.4  0.6528  110.0
 6.600  0.9302   93.7   0.266  -22.2  0.0773    2.4  0.6563  109.2
 6.800  0.9334   91.7   0.258  -24.8  0.0790    0.5  0.6637  107.6
 7.000  0.9377   89.7   0.251  -27.5  0.0808   -1.3  0.6716  106.0
 7.200  0.9385   87.4   0.242  -30.1  0.0818   -3.5  0.6796  104.0
 7.400  0.9408   85.1   0.234  -32.9  0.0829   -5.7  0.6884  102.1
 7.600  0.9415   82.7   0.225  -35.5  0.0837   -7.8  0.6974   99.9
 7.800  0.9408   80.4   0.216  -37.8  0.0841   -9.9  0.7070   97.4
 8.000  0.9416   78.0   0.207  -40.3  0.0847  -11.9  0.7178   95.1
 8.200  0.9405   75.7   0.198  -42.2  0.0846  -13.9  0.7244   92.5
 8.400  0.9409   73.4   0.190  -44.3  0.0847  -15.8  0.7324   90.0
 8.600  0.9406   71.2   0.183  -46.2  0.0844  -17.8  0.7381   87.4
 8.800  0.9395   69.0   0.176  -47.8  0.0839  -19.7  0.7414   84.8
 9.000  0.9399   66.8   0.169  -49.5  0.0835  -21.7  0.7463   82.2
 9.200  0.9413   65.0   0.161  -50.8  0.0825  -23.1  0.7524   80.0
 9.400  0.9437   63.2   0.154  -52.2  0.0816  -24.6  0.7596   77.9
 9.600  0.9474   61.8   0.148  -53.2  0.0808  -25.8  0.7709   76.1
 9.800  0.9520   60.8   0.143  -53.8  0.0801  -26.8  0.7859   74.7
10.000  0.9569   59.8   0.139  -54.5  0.0794  -27.9  0.8013   73.4
!
!  f       NFmin   Gammaopt  rn/50
! GHz       dB    MAG  ANG    -
 0.450      1.96  0.39 -169   0.34
 0.900      1.96  0.49 -163   0.17
 1.500      1.98  0.59 -154   0.11
 1.900      1.99  0.60 -148   0.13
 2.400      2.01  0.60 -141   0.19
 3.500      2.46  0.62 -124   0.32
!
! (c) 2016  Infineon Technologies AG, Munich
