! Infineon Technologies  Discrete & RF Semiconductors
! BFP720FESD
! VCE =  2.0 V,  IC =  4.0 mA
! Common Emitter S-Parameters:                            Jan 2016
# GHz  S  MA  R  50
!  f         S11            S21            S12            S22
! GHz     MAG   ANG      MAG   ANG      MAG   ANG      MAG   ANG
 0.010  0.9479    0.3  12.159  179.7  0.0007  -47.3  0.9941    0.6
 0.015  0.9493   -0.3  12.138  179.6  0.0002   21.8  0.9962    0.0
 0.020  0.9509   -0.9  12.118  179.5  0.0007   90.9  0.9983   -0.5
 0.025  0.9515   -1.0  12.117  179.3  0.0009   91.3  0.9984   -0.7
 0.030  0.9520   -1.2  12.116  179.1  0.0011   91.5  0.9984   -0.8
 0.035  0.9526   -1.3  12.115  178.9  0.0012   91.7  0.9985   -1.0
 0.040  0.9532   -1.4  12.115  178.7  0.0014   91.8  0.9986   -1.1
 0.045  0.9538   -1.6  12.114  178.5  0.0016   91.9  0.9987   -1.3
 0.050  0.9544   -1.7  12.114  178.3  0.0018   92.0  0.9988   -1.4
 0.055  0.9540   -1.9  12.122  178.2  0.0020   91.3  0.9988   -1.5
 0.060  0.9537   -2.2  12.131  178.1  0.0021   90.7  0.9987   -1.7
 0.065  0.9533   -2.4  12.140  177.9  0.0023   90.2  0.9987   -1.8
 0.070  0.9530   -2.6  12.148  177.8  0.0025   89.7  0.9987   -2.0
 0.075  0.9527   -2.8  12.157  177.7  0.0026   89.4  0.9987   -2.1
 0.080  0.9524   -3.1  12.166  177.6  0.0028   89.0  0.9987   -2.2
 0.085  0.9521   -3.3  12.174  177.5  0.0030   88.7  0.9987   -2.4
 0.090  0.9518   -3.5  12.183  177.3  0.0032   88.5  0.9987   -2.5
 0.095  0.9515   -3.8  12.192  177.2  0.0033   88.2  0.9987   -2.7
 0.100  0.9513   -4.0  12.201  177.1  0.0035   88.0  0.9987   -2.8
 0.105  0.9511   -4.2  12.202  176.9  0.0037   87.7  0.9986   -2.9
 0.110  0.9509   -4.4  12.203  176.7  0.0039   87.5  0.9985   -3.1
 0.115  0.9507   -4.6  12.205  176.6  0.0040   87.3  0.9984   -3.2
 0.120  0.9505   -4.8  12.206  176.4  0.0042   87.0  0.9983   -3.4
 0.125  0.9503   -5.0  12.207  176.2  0.0044   86.9  0.9983   -3.5
 0.130  0.9502   -5.3  12.209  176.0  0.0046   86.7  0.9982   -3.7
 0.135  0.9500   -5.5  12.211  175.8  0.0048   86.5  0.9981   -3.8
 0.140  0.9499   -5.7  12.213  175.7  0.0049   86.4  0.9981   -4.0
 0.145  0.9498   -5.9  12.215  175.5  0.0051   86.2  0.9980   -4.1
 0.150  0.9497   -6.1  12.217  175.3  0.0053   86.1  0.9980   -4.3
 0.155  0.9497   -6.3  12.217  175.1  0.0055   85.9  0.9978   -4.4
 0.160  0.9496   -6.5  12.217  175.0  0.0057   85.7  0.9977   -4.6
 0.165  0.9496   -6.6  12.218  174.8  0.0058   85.6  0.9975   -4.7
 0.170  0.9496   -6.8  12.218  174.7  0.0060   85.4  0.9973   -4.9
 0.175  0.9496   -7.0  12.219  174.5  0.0062   85.3  0.9972   -5.0
 0.180  0.9496   -7.2  12.219  174.3  0.0064   85.2  0.9970   -5.1
 0.185  0.9497   -7.4  12.220  174.2  0.0066   85.0  0.9969   -5.3
 0.190  0.9497   -7.5  12.221  174.0  0.0067   84.9  0.9968   -5.4
 0.195  0.9497   -7.7  12.222  173.9  0.0069   84.8  0.9966   -5.6
 0.200  0.9498   -7.9  12.223  173.7  0.0071   84.7  0.9965   -5.7
 0.220  0.9488   -8.7  12.205  172.9  0.0079   84.2  0.9958   -6.3
 0.240  0.9481   -9.6  12.188  172.2  0.0086   83.7  0.9953   -6.8
 0.260  0.9474  -10.4  12.181  171.5  0.0093   83.2  0.9945   -7.4
 0.280  0.9467  -11.2  12.183  171.0  0.0100   82.8  0.9937   -7.9
 0.300  0.9462  -12.0  12.186  170.4  0.0107   82.4  0.9929   -8.5
 0.320  0.9450  -12.8  12.175  169.8  0.0114   81.8  0.9918   -9.1
 0.340  0.9439  -13.5  12.165  169.2  0.0121   81.3  0.9909   -9.6
 0.360  0.9430  -14.3  12.153  168.6  0.0128   80.7  0.9898  -10.2
 0.380  0.9423  -15.1  12.137  167.9  0.0135   80.1  0.9886  -10.7
 0.400  0.9418  -15.9  12.123  167.2  0.0142   79.5  0.9875  -11.3
 0.420  0.9406  -16.7  12.102  166.6  0.0149   79.0  0.9863  -11.9
 0.440  0.9396  -17.4  12.083  165.9  0.0156   78.6  0.9851  -12.4
 0.450  0.9391  -17.8  12.074  165.6  0.0160   78.4  0.9846  -12.7
 0.460  0.9383  -18.2  12.066  165.3  0.0163   78.1  0.9838  -13.0
 0.480  0.9369  -19.0  12.052  164.6  0.0170   77.6  0.9824  -13.6
 0.500  0.9357  -19.8  12.039  164.0  0.0177   77.1  0.9811  -14.2
 0.520  0.9340  -20.6  12.016  163.3  0.0184   76.5  0.9794  -14.7
 0.540  0.9324  -21.4  11.994  162.7  0.0191   75.9  0.9777  -15.3
 0.560  0.9310  -22.1  11.974  162.0  0.0197   75.4  0.9762  -15.8
 0.580  0.9298  -22.9  11.955  161.4  0.0204   75.0  0.9747  -16.4
 0.600  0.9288  -23.7  11.938  160.7  0.0211   74.5  0.9733  -16.9
 0.620  0.9271  -24.5  11.916  160.1  0.0218   73.9  0.9714  -17.4
 0.640  0.9256  -25.3  11.895  159.5  0.0225   73.4  0.9697  -18.0
 0.660  0.9242  -26.0  11.876  159.0  0.0231   72.8  0.9680  -18.5
 0.680  0.9230  -26.8  11.857  158.4  0.0238   72.4  0.9664  -19.1
 0.700  0.9220  -27.6  11.840  157.8  0.0245   71.9  0.9649  -19.6
 0.720  0.9204  -28.4  11.807  157.2  0.0251   71.3  0.9627  -20.2
 0.740  0.9189  -29.1  11.775  156.6  0.0258   70.8  0.9607  -20.7
 0.760  0.9176  -29.9  11.745  155.9  0.0264   70.3  0.9587  -21.3
 0.780  0.9164  -30.6  11.716  155.3  0.0271   69.8  0.9568  -21.8
 0.800  0.9154  -31.4  11.688  154.7  0.0277   69.3  0.9550  -22.4
 0.820  0.9131  -32.2  11.663  154.1  0.0283   68.7  0.9529  -22.9
 0.840  0.9109  -32.9  11.639  153.5  0.0290   68.2  0.9508  -23.5
 0.860  0.9090  -33.7  11.617  152.9  0.0296   67.7  0.9489  -24.0
 0.880  0.9071  -34.5  11.596  152.3  0.0303   67.2  0.9470  -24.6
 0.900  0.9055  -35.3  11.576  151.7  0.0309   66.7  0.9452  -25.1
 0.920  0.9037  -36.0  11.542  151.1  0.0315   66.2  0.9427  -25.7
 0.940  0.9020  -36.8  11.510  150.5  0.0321   65.6  0.9403  -26.2
 0.960  0.9004  -37.5  11.479  150.0  0.0328   65.1  0.9380  -26.8
 0.980  0.8990  -38.3  11.449  149.4  0.0334   64.7  0.9358  -27.3
 1.000  0.8978  -39.0  11.420  148.8  0.0340   64.2  0.9337  -27.9
 1.020  0.8956  -39.7  11.389  148.2  0.0346   63.7  0.9311  -28.4
 1.040  0.8936  -40.5  11.360  147.6  0.0351   63.2  0.9286  -28.9
 1.060  0.8918  -41.2  11.332  147.0  0.0357   62.7  0.9262  -29.5
 1.080  0.8901  -42.0  11.305  146.4  0.0362   62.2  0.9239  -30.0
 1.100  0.8885  -42.7  11.279  145.8  0.0368   61.7  0.9216  -30.5
 1.120  0.8862  -43.5  11.247  145.2  0.0374   61.2  0.9190  -31.0
 1.140  0.8840  -44.2  11.216  144.6  0.0380   60.7  0.9165  -31.6
 1.160  0.8820  -45.0  11.187  144.0  0.0385   60.2  0.9140  -32.1
 1.180  0.8802  -45.7  11.158  143.4  0.0391   59.7  0.9117  -32.7
 1.200  0.8785  -46.5  11.131  142.8  0.0397   59.2  0.9094  -33.2
 1.220  0.8762  -47.2  11.098  142.2  0.0402   58.7  0.9067  -33.7
 1.240  0.8741  -48.0  11.065  141.6  0.0407   58.2  0.9041  -34.3
 1.260  0.8721  -48.7  11.034  141.1  0.0413   57.7  0.9016  -34.8
 1.280  0.8703  -49.5  11.004  140.5  0.0418   57.2  0.8992  -35.4
 1.300  0.8686  -50.2  10.975  139.9  0.0423   56.7  0.8968  -35.9
 1.320  0.8660  -50.9  10.937  139.3  0.0428   56.2  0.8938  -36.4
 1.340  0.8636  -51.6  10.900  138.8  0.0433   55.7  0.8909  -36.9
 1.360  0.8613  -52.3  10.864  138.2  0.0438   55.2  0.8880  -37.4
 1.380  0.8591  -53.1  10.829  137.6  0.0443   54.7  0.8852  -38.0
 1.400  0.8571  -53.8  10.795  137.0  0.0448   54.2  0.8825  -38.5
 1.420  0.8551  -54.5  10.754  136.5  0.0453   53.7  0.8797  -39.0
 1.440  0.8532  -55.1  10.715  136.0  0.0458   53.3  0.8771  -39.5
 1.460  0.8514  -55.8  10.676  135.5  0.0462   52.9  0.8744  -40.0
 1.480  0.8497  -56.4  10.638  134.9  0.0467   52.4  0.8719  -40.5
 1.500  0.8481  -57.1  10.601  134.4  0.0472   52.0  0.8694  -41.0
 1.520  0.8456  -57.8  10.569  133.8  0.0476   51.5  0.8665  -41.5
 1.540  0.8432  -58.6  10.539  133.2  0.0481   51.0  0.8636  -42.0
 1.560  0.8410  -59.3  10.510  132.7  0.0485   50.5  0.8608  -42.5
 1.580  0.8389  -60.1  10.481  132.1  0.0490   50.0  0.8581  -43.1
 1.600  0.8369  -60.8  10.454  131.5  0.0494   49.5  0.8554  -43.6
 1.620  0.8344  -61.5  10.412  131.0  0.0498   49.0  0.8526  -44.1
 1.640  0.8320  -62.1  10.370  130.5  0.0502   48.6  0.8499  -44.6
 1.660  0.8298  -62.8  10.330  130.0  0.0505   48.2  0.8472  -45.0
 1.680  0.8276  -63.4  10.290  129.4  0.0509   47.7  0.8446  -45.5
 1.700  0.8256  -64.1  10.251  128.9  0.0513   47.3  0.8420  -46.0
 1.720  0.8235  -64.7  10.204  128.4  0.0517   46.9  0.8393  -46.5
 1.740  0.8215  -65.4  10.158  127.9  0.0521   46.4  0.8366  -47.0
 1.760  0.8196  -66.0  10.113  127.4  0.0524   46.0  0.8340  -47.4
 1.780  0.8178  -66.7  10.069  126.8  0.0528   45.6  0.8315  -47.9
 1.800  0.8161  -67.3  10.025  126.3  0.0532   45.2  0.8290  -48.4
 1.820  0.8138  -68.0   9.991  125.8  0.0536   44.8  0.8262  -48.9
 1.840  0.8117  -68.6   9.958  125.3  0.0540   44.3  0.8235  -49.4
 1.860  0.8096  -69.3   9.926  124.8  0.0543   43.9  0.8208  -49.9
 1.880  0.8076  -69.9   9.895  124.3  0.0547   43.5  0.8182  -50.4
 1.900  0.8058  -70.6   9.864  123.8  0.0551   43.1  0.8157  -50.9
 1.920  0.8036  -71.2   9.818  123.3  0.0554   42.7  0.8131  -51.3
 1.940  0.8014  -71.8   9.774  122.9  0.0557   42.3  0.8106  -51.8
 1.960  0.7993  -72.3   9.729  122.4  0.0560   41.9  0.8081  -52.2
 1.980  0.7973  -72.9   9.686  121.9  0.0563   41.5  0.8057  -52.7
 2.000  0.7954  -73.5   9.643  121.4  0.0566   41.1  0.8033  -53.1
 2.020  0.7930  -74.1   9.604  120.9  0.0569   40.7  0.8006  -53.5
 2.040  0.7908  -74.7   9.565  120.5  0.0572   40.3  0.7980  -54.0
 2.060  0.7886  -75.3   9.527  120.0  0.0574   39.9  0.7954  -54.4
 2.080  0.7865  -75.9   9.490  119.5  0.0577   39.5  0.7929  -54.9
 2.100  0.7844  -76.5   9.454  119.0  0.0580   39.1  0.7904  -55.4
 2.120  0.7825  -77.1   9.418  118.5  0.0583   38.7  0.7880  -55.8
 2.140  0.7807  -77.7   9.383  118.0  0.0586   38.3  0.7856  -56.3
 2.160  0.7789  -78.4   9.349  117.5  0.0589   37.9  0.7833  -56.8
 2.180  0.7773  -79.0   9.315  117.0  0.0592   37.6  0.7810  -57.2
 2.200  0.7757  -79.6   9.282  116.5  0.0595   37.2  0.7788  -57.7
 2.220  0.7733  -80.2   9.243  116.1  0.0597   36.8  0.7762  -58.1
 2.240  0.7710  -80.7   9.204  115.6  0.0600   36.4  0.7737  -58.6
 2.260  0.7688  -81.3   9.166  115.2  0.0602   36.1  0.7712  -59.0
 2.280  0.7666  -81.9   9.128  114.7  0.0605   35.7  0.7688  -59.5
 2.300  0.7645  -82.5   9.091  114.2  0.0607   35.3  0.7664  -59.9
 2.320  0.7625  -83.0   9.055  113.8  0.0610   34.9  0.7640  -60.4
 2.340  0.7606  -83.6   9.019  113.3  0.0612   34.6  0.7617  -60.8
 2.360  0.7587  -84.2   8.984  112.8  0.0615   34.2  0.7595  -61.3
 2.380  0.7570  -84.8   8.949  112.4  0.0617   33.9  0.7573  -61.7
 2.400  0.7553  -85.4   8.915  111.9  0.0620   33.5  0.7551  -62.2
 2.420  0.7531  -86.0   8.875  111.5  0.0622   33.1  0.7526  -62.6
 2.440  0.7509  -86.5   8.836  111.1  0.0624   32.8  0.7502  -63.0
 2.460  0.7488  -87.1   8.798  110.6  0.0626   32.4  0.7478  -63.5
 2.480  0.7468  -87.7   8.760  110.2  0.0628   32.0  0.7454  -63.9
 2.500  0.7449  -88.3   8.722  109.7  0.0630   31.7  0.7431  -64.3
 2.520  0.7430  -88.8   8.685  109.3  0.0632   31.3  0.7408  -64.7
 2.540  0.7413  -89.4   8.648  108.9  0.0634   31.0  0.7386  -65.2
 2.560  0.7396  -90.0   8.612  108.4  0.0636   30.6  0.7364  -65.6
 2.580  0.7379  -90.6   8.577  108.0  0.0638   30.2  0.7342  -66.1
 2.600  0.7364  -91.2   8.542  107.5  0.0640   29.9  0.7321  -66.5
 2.620  0.7342  -91.7   8.503  107.1  0.0641   29.6  0.7298  -66.9
 2.640  0.7320  -92.3   8.465  106.7  0.0643   29.2  0.7276  -67.3
 2.660  0.7300  -92.8   8.427  106.3  0.0644   28.9  0.7254  -67.7
 2.680  0.7280  -93.4   8.389  105.9  0.0645   28.6  0.7232  -68.1
 2.700  0.7260  -93.9   8.352  105.4  0.0647   28.2  0.7211  -68.5
 2.720  0.7241  -94.5   8.315  105.0  0.0648   27.9  0.7190  -68.9
 2.740  0.7223  -95.0   8.279  104.6  0.0650   27.6  0.7169  -69.3
 2.760  0.7206  -95.6   8.243  104.2  0.0651   27.2  0.7149  -69.8
 2.780  0.7189  -96.1   8.208  103.7  0.0653   26.9  0.7129  -70.2
 2.800  0.7173  -96.7   8.173  103.3  0.0654   26.6  0.7110  -70.6
 2.820  0.7155  -97.2   8.136  102.9  0.0655   26.3  0.7090  -71.0
 2.840  0.7138  -97.7   8.100  102.5  0.0656   26.0  0.7071  -71.3
 2.860  0.7122  -98.2   8.063  102.1  0.0657   25.6  0.7051  -71.7
 2.880  0.7106  -98.7   8.028  101.7  0.0658   25.3  0.7032  -72.1
 2.900  0.7090  -99.2   7.992  101.3  0.0659   25.0  0.7014  -72.5
 2.920  0.7075  -99.7   7.957  100.9  0.0660   24.7  0.6995  -72.9
 2.940  0.7061 -100.2   7.922  100.5  0.0661   24.3  0.6977  -73.2
 2.960  0.7047 -100.7   7.888  100.1  0.0663   24.0  0.6960  -73.6
 2.980  0.7034 -101.2   7.854   99.7  0.0664   23.7  0.6942  -74.0
 3.000  0.7021 -101.7   7.821   99.3  0.0665   23.4  0.6925  -74.4
 3.100  0.6937 -103.8   7.648   97.7  0.0667   22.2  0.6848  -75.9
 3.200  0.6863 -106.0   7.481   96.0  0.0669   21.0  0.6775  -77.3
 3.300  0.6799 -108.2   7.321   94.2  0.0671   19.8  0.6707  -78.9
 3.400  0.6745 -110.4   7.168   92.4  0.0674   18.6  0.6643  -80.4
 3.500  0.6702 -112.7   7.023   90.5  0.0677   17.4  0.6585  -82.0
 3.600  0.6659 -114.7   6.892   89.1  0.0679   16.4  0.6533  -83.2
 3.700  0.6625 -116.6   6.765   87.5  0.0681   15.4  0.6483  -84.5
 3.800  0.6598 -118.7   6.643   86.0  0.0683   14.4  0.6437  -85.7
 3.900  0.6579 -120.7   6.526   84.4  0.0685   13.4  0.6394  -87.0
 4.000  0.6569 -122.7   6.414   82.7  0.0688   12.4  0.6354  -88.3
 4.100  0.6540 -124.7   6.304   81.2  0.0689   11.4  0.6305  -89.7
 4.200  0.6519 -126.8   6.198   79.7  0.0689   10.4  0.6260  -91.1
 4.300  0.6506 -128.8   6.097   78.1  0.0690    9.5  0.6219  -92.5
 4.400  0.6501 -130.8   6.000   76.5  0.0692    8.5  0.6181  -93.9
 4.500  0.6505 -132.9   5.909   74.8  0.0693    7.5  0.6148  -95.4
 4.600  0.6483 -134.7   5.803   73.4  0.0691    6.6  0.6100  -96.7
 4.700  0.6467 -136.6   5.701   71.9  0.0690    5.6  0.6056  -98.1
 4.800  0.6459 -138.5   5.603   70.3  0.0688    4.7  0.6015  -99.4
 4.900  0.6457 -140.3   5.509   68.7  0.0687    3.7  0.5977 -100.8
 5.000  0.6462 -142.2   5.420   67.1  0.0686    2.8  0.5943 -102.2
 5.100  0.6431 -143.8   5.330   65.8  0.0683    2.0  0.5896 -103.4
 5.200  0.6404 -145.4   5.242   64.4  0.0679    1.1  0.5851 -104.6
 5.300  0.6383 -147.0   5.158   63.0  0.0676    0.3  0.5809 -105.8
 5.400  0.6366 -148.6   5.077   61.5  0.0673   -0.5  0.5770 -107.0
 5.500  0.6355 -150.2   4.999   60.0  0.0670   -1.4  0.5733 -108.3
 5.600  0.6320 -151.8   4.929   58.7  0.0666   -2.1  0.5682 -109.5
 5.700  0.6290 -153.4   4.861   57.4  0.0663   -2.9  0.5633 -110.8
 5.800  0.6265 -155.0   4.796   56.0  0.0659   -3.6  0.5587 -112.1
 5.900  0.6244 -156.6   4.733   54.6  0.0656   -4.3  0.5544 -113.4
 6.000  0.6229 -158.2   4.674   53.1  0.0653   -5.1  0.5504 -114.7
 6.100  0.6194 -159.9   4.609   51.8  0.0647   -5.8  0.5452 -116.0
 6.200  0.6165 -161.5   4.546   50.4  0.0642   -6.5  0.5403 -117.4
 6.300  0.6141 -163.2   4.486   49.0  0.0636   -7.2  0.5357 -118.7
 6.400  0.6122 -164.9   4.428   47.6  0.0630   -7.9  0.5315 -120.1
 6.500  0.6109 -166.6   4.374   46.1  0.0625   -8.6  0.5275 -121.5
 6.600  0.6088 -168.2   4.308   44.8  0.0616   -9.1  0.5220 -122.6
 6.800  0.6061 -171.4   4.184   42.1  0.0598  -10.1  0.5114 -124.7
 7.000  0.6052 -174.6   4.070   39.2  0.0581  -11.1  0.5017 -127.0
 7.200  0.6052 -177.6   3.952   36.8  0.0563  -11.0  0.4904 -129.1
 7.400  0.6069  179.5   3.841   34.2  0.0546  -10.9  0.4797 -131.4
 7.600  0.6109  176.4   3.745   31.6  0.0534  -10.4  0.4704 -134.2
 7.800  0.6176  173.3   3.663   28.8  0.0527   -9.7  0.4631 -137.7
 8.000  0.6260  170.3   3.589   26.0  0.0520   -9.0  0.4576 -141.3
 8.200  0.6310  167.3   3.488   23.2  0.0517   -9.0  0.4517 -146.2
 8.400  0.6378  164.3   3.396   20.2  0.0514   -9.0  0.4492 -151.1
 8.600  0.6417  161.6   3.299   17.2  0.0509   -9.1  0.4461 -156.2
 8.800  0.6425  159.1   3.195   14.4  0.0502   -9.2  0.4426 -161.5
 9.000  0.6445  156.5   3.100   11.3  0.0495   -9.4  0.4429 -166.8
 9.200  0.6458  154.4   2.992    9.1  0.0487   -9.2  0.4447 -172.0
 9.400  0.6480  152.3   2.889    6.7  0.0480   -8.9  0.4500 -177.0
 9.600  0.6530  149.9   2.794    4.2  0.0472   -8.5  0.4598  177.8
 9.800  0.6611  147.4   2.707    1.5  0.0464   -7.9  0.4742  172.7
10.000  0.6705  144.9   2.627   -1.3  0.0456   -7.3  0.4922  167.9
!
!  f       NFmin   Gammaopt  rn/50
! GHz       dB    MAG  ANG    -
 0.450      0.48  0.63    3   0.17
 2.400      0.67  0.42   32   0.16
 5.500      0.83  0.43  107   0.11
10.000      1.44  0.35 -164   0.09
!
! (c) 2016  Infineon Technologies AG, Munich
