! Infineon Technologies  Discrete & RF Semiconductors
! BFP740
! VCE =  1.0 V,  IC =  42 mA
! Common Emitter S-Parameters:                            Jan 2016
# GHz  S  MA  R  50
!  f         S11            S21            S12            S22
! GHz     MAG   ANG      MAG   ANG      MAG   ANG      MAG   ANG
 0.030  0.0592  -96.2  12.086  174.3  0.0056   21.5  0.2181   -1.1
 0.035  0.0688  -96.8  12.059  173.4  0.0062   22.4  0.2191   -1.8
 0.040  0.0784  -97.2  12.036  172.4  0.0069   23.2  0.2201   -2.5
 0.045  0.0885  -99.1  12.000  171.5  0.0067   26.6  0.2196   -2.8
 0.050  0.0986 -100.7  11.967  170.6  0.0066   30.2  0.2192   -3.1
 0.055  0.1083 -100.0  11.932  169.6  0.0074   29.8  0.2199   -3.9
 0.060  0.1180  -99.5  11.901  168.5  0.0083   29.4  0.2206   -4.6
 0.065  0.1269 -101.0  11.854  167.7  0.0079   34.1  0.2215   -4.9
 0.070  0.1359 -102.3  11.809  166.8  0.0076   39.3  0.2225   -5.1
 0.075  0.1439 -102.9  11.756  166.0  0.0082   40.1  0.2219   -5.7
 0.080  0.1519 -103.5  11.705  165.1  0.0088   40.7  0.2213   -6.4
 0.085  0.1615 -104.3  11.652  164.2  0.0090   38.7  0.2215   -6.8
 0.090  0.1711 -105.0  11.602  163.3  0.0092   36.8  0.2218   -7.2
 0.095  0.1803 -105.6  11.554  162.5  0.0095   41.5  0.2221   -7.9
 0.100  0.1895 -106.1  11.508  161.6  0.0098   46.0  0.2224   -8.5
 0.105  0.1986 -107.0  11.453  160.8  0.0101   45.5  0.2224   -9.0
 0.110  0.2077 -107.8  11.400  159.9  0.0104   45.0  0.2224   -9.6
 0.115  0.2162 -108.4  11.336  159.1  0.0104   43.1  0.2219  -10.1
 0.120  0.2247 -108.9  11.275  158.2  0.0105   41.3  0.2214  -10.7
 0.125  0.2337 -109.7  11.210  157.5  0.0109   43.3  0.2213  -11.1
 0.130  0.2427 -110.4  11.147  156.7  0.0113   45.1  0.2213  -11.5
 0.135  0.2511 -111.1  11.076  155.9  0.0116   45.7  0.2212  -12.1
 0.140  0.2596 -111.7  11.008  155.1  0.0119   46.3  0.2211  -12.7
 0.145  0.2675 -112.5  10.945  154.4  0.0123   46.9  0.2206  -13.3
 0.150  0.2754 -113.3  10.883  153.6  0.0127   47.4  0.2201  -13.9
 0.155  0.2829 -114.1  10.810  152.9  0.0129   47.4  0.2196  -14.4
 0.160  0.2904 -114.8  10.739  152.3  0.0132   47.5  0.2190  -15.0
 0.165  0.2980 -115.5  10.669  151.6  0.0134   47.5  0.2185  -15.5
 0.170  0.3056 -116.2  10.600  150.9  0.0137   47.5  0.2180  -16.1
 0.175  0.3132 -116.8  10.533  150.2  0.0139   47.6  0.2175  -16.6
 0.180  0.3209 -117.4  10.468  149.5  0.0142   47.6  0.2171  -17.2
 0.185  0.3286 -118.0  10.404  148.8  0.0144   47.6  0.2167  -17.7
 0.190  0.3364 -118.6  10.342  148.1  0.0147   47.6  0.2163  -18.3
 0.195  0.3442 -119.1  10.282  147.3  0.0149   47.7  0.2159  -18.8
 0.200  0.3520 -119.6  10.223  146.6  0.0152   47.7  0.2155  -19.4
 0.220  0.3778 -122.3   9.944  144.2  0.0162   47.1  0.2128  -21.2
 0.240  0.4043 -124.6   9.682  141.7  0.0172   46.6  0.2104  -23.1
 0.260  0.4285 -126.8   9.424  139.4  0.0181   45.8  0.2073  -25.0
 0.280  0.4505 -129.0   9.165  137.2  0.0190   44.8  0.2035  -26.9
 0.300  0.4730 -131.0   8.919  134.9  0.0199   43.8  0.1999  -28.8
 0.320  0.4918 -133.2   8.676  133.0  0.0207   43.1  0.1958  -30.5
 0.340  0.5112 -135.2   8.444  131.0  0.0215   42.5  0.1918  -32.4
 0.360  0.5289 -137.1   8.219  129.0  0.0222   42.0  0.1880  -34.1
 0.380  0.5449 -138.9   7.998  127.3  0.0228   41.6  0.1844  -35.7
 0.400  0.5614 -140.6   7.785  125.4  0.0234   41.2  0.1809  -37.3
 0.420  0.5743 -142.3   7.580  123.9  0.0240   40.2  0.1771  -38.7
 0.440  0.5876 -143.9   7.381  122.2  0.0245   39.3  0.1735  -40.1
 0.450  0.5945 -144.7   7.284  121.4  0.0248   38.8  0.1717  -40.8
 0.460  0.5998 -145.5   7.190  120.7  0.0250   38.3  0.1697  -41.4
 0.480  0.6108 -147.0   7.007  119.2  0.0255   37.3  0.1659  -42.6
 0.500  0.6222 -148.5   6.828  117.7  0.0260   36.3  0.1621  -43.8
 0.520  0.6305 -149.9   6.664  116.5  0.0264   35.9  0.1587  -44.8
 0.540  0.6391 -151.2   6.502  115.3  0.0269   35.4  0.1554  -45.9
 0.560  0.6481 -152.4   6.344  114.1  0.0273   35.0  0.1521  -47.0
 0.580  0.6574 -153.7   6.189  112.7  0.0278   34.6  0.1489  -48.2
 0.600  0.6670 -154.9   6.037  111.3  0.0282   34.2  0.1457  -49.4
 0.620  0.6727 -156.1   5.903  110.3  0.0285   33.6  0.1425  -50.2
 0.640  0.6787 -157.2   5.771  109.3  0.0288   32.9  0.1394  -51.0
 0.660  0.6850 -158.3   5.640  108.2  0.0291   32.3  0.1362  -51.9
 0.680  0.6915 -159.4   5.512  107.1  0.0295   31.7  0.1332  -52.8
 0.700  0.6983 -160.5   5.386  105.9  0.0298   31.1  0.1301  -53.8
 0.720  0.7029 -161.5   5.275  105.0  0.0300   30.7  0.1275  -54.6
 0.740  0.7077 -162.5   5.165  104.1  0.0303   30.4  0.1249  -55.4
 0.760  0.7127 -163.4   5.057  103.1  0.0305   30.0  0.1224  -56.2
 0.780  0.7179 -164.4   4.950  102.1  0.0308   29.6  0.1199  -57.1
 0.800  0.7233 -165.3   4.845  101.1  0.0310   29.3  0.1174  -58.0
 0.820  0.7267 -166.2   4.753  100.3  0.0311   28.9  0.1150  -58.7
 0.840  0.7302 -167.0   4.663   99.5  0.0312   28.5  0.1125  -59.3
 0.860  0.7339 -167.8   4.573   98.7  0.0314   28.1  0.1101  -60.1
 0.880  0.7378 -168.7   4.485   97.8  0.0315   27.7  0.1078  -60.8
 0.900  0.7418 -169.5   4.397   96.9  0.0316   27.3  0.1054  -61.6
 0.920  0.7446 -170.3   4.320   96.2  0.0318   27.1  0.1035  -62.4
 0.940  0.7475 -171.0   4.244   95.5  0.0320   26.8  0.1017  -63.2
 0.960  0.7506 -171.7   4.168   94.7  0.0321   26.6  0.0999  -64.1
 0.980  0.7538 -172.5   4.093   93.9  0.0323   26.3  0.0981  -65.0
 1.000  0.7571 -173.2   4.019   93.1  0.0325   26.1  0.0963  -65.9
 1.020  0.7590 -173.9   3.953   92.4  0.0327   25.9  0.0946  -66.6
 1.040  0.7611 -174.6   3.887   91.8  0.0328   25.8  0.0929  -67.3
 1.060  0.7632 -175.3   3.822   91.1  0.0330   25.6  0.0913  -68.0
 1.080  0.7654 -175.9   3.757   90.3  0.0331   25.5  0.0896  -68.7
 1.100  0.7678 -176.6   3.693   89.6  0.0333   25.3  0.0880  -69.5
 1.120  0.7695 -177.2   3.636   89.0  0.0334   25.1  0.0868  -70.3
 1.140  0.7714 -177.8   3.580   88.4  0.0335   24.9  0.0856  -71.1
 1.160  0.7733 -178.4   3.524   87.7  0.0337   24.6  0.0845  -72.0
 1.180  0.7753 -179.0   3.469   87.1  0.0338   24.4  0.0833  -72.8
 1.200  0.7774 -179.6   3.414   86.4  0.0339   24.2  0.0822  -73.7
 1.220  0.7787  179.8   3.365   85.8  0.0340   24.1  0.0810  -74.4
 1.240  0.7801  179.2   3.316   85.3  0.0341   24.0  0.0798  -75.1
 1.260  0.7816  178.7   3.268   84.7  0.0343   23.9  0.0787  -75.9
 1.280  0.7832  178.1   3.220   84.0  0.0344   23.8  0.0775  -76.6
 1.300  0.7848  177.5   3.172   83.4  0.0345   23.7  0.0764  -77.4
 1.320  0.7862  177.0   3.130   82.9  0.0345   23.6  0.0757  -78.2
 1.340  0.7877  176.4   3.088   82.3  0.0346   23.4  0.0750  -79.0
 1.360  0.7892  175.9   3.046   81.8  0.0346   23.3  0.0743  -79.8
 1.380  0.7908  175.3   3.005   81.2  0.0347   23.1  0.0736  -80.7
 1.400  0.7925  174.8   2.964   80.6  0.0347   23.0  0.0730  -81.5
 1.420  0.7934  174.3   2.927   80.1  0.0348   22.9  0.0720  -82.1
 1.440  0.7943  173.8   2.890   79.6  0.0350   22.9  0.0710  -82.8
 1.460  0.7953  173.3   2.853   79.0  0.0351   22.8  0.0700  -83.5
 1.480  0.7964  172.8   2.817   78.5  0.0353   22.8  0.0690  -84.2
 1.500  0.7975  172.3   2.781   77.9  0.0354   22.7  0.0680  -84.9
 1.520  0.7986  171.8   2.748   77.4  0.0355   22.6  0.0674  -85.8
 1.540  0.7999  171.3   2.714   76.9  0.0356   22.4  0.0669  -86.6
 1.560  0.8011  170.9   2.681   76.3  0.0357   22.3  0.0663  -87.5
 1.580  0.8024  170.4   2.649   75.8  0.0358   22.1  0.0658  -88.4
 1.600  0.8038  169.9   2.616   75.2  0.0359   22.0  0.0653  -89.3
 1.620  0.8046  169.4   2.586   74.7  0.0360   22.0  0.0644  -90.1
 1.640  0.8056  168.9   2.557   74.2  0.0361   21.9  0.0635  -90.8
 1.660  0.8065  168.5   2.527   73.7  0.0363   21.9  0.0626  -91.6
 1.680  0.8075  168.0   2.498   73.2  0.0364   21.8  0.0618  -92.5
 1.700  0.8086  167.5   2.469   72.7  0.0365   21.8  0.0609  -93.3
 1.720  0.8094  167.1   2.442   72.2  0.0366   21.7  0.0605  -94.3
 1.740  0.8102  166.6   2.416   71.7  0.0367   21.6  0.0601  -95.3
 1.760  0.8111  166.2   2.390   71.2  0.0367   21.6  0.0597  -96.4
 1.780  0.8120  165.7   2.364   70.7  0.0368   21.5  0.0593  -97.4
 1.800  0.8130  165.3   2.338   70.2  0.0369   21.4  0.0590  -98.5
 1.820  0.8138  164.9   2.314   69.7  0.0370   21.4  0.0583  -99.5
 1.840  0.8145  164.5   2.290   69.3  0.0370   21.4  0.0576 -100.5
 1.860  0.8154  164.0   2.266   68.8  0.0371   21.3  0.0570 -101.5
 1.880  0.8163  163.6   2.242   68.3  0.0371   21.3  0.0563 -102.5
 1.900  0.8172  163.2   2.219   67.8  0.0372   21.3  0.0557 -103.6
 1.920  0.8177  162.8   2.197   67.3  0.0373   21.2  0.0555 -104.8
 1.940  0.8182  162.3   2.175   66.9  0.0374   21.1  0.0553 -106.0
 1.960  0.8188  161.9   2.153   66.4  0.0376   21.1  0.0551 -107.2
 1.980  0.8194  161.4   2.131   65.9  0.0377   21.0  0.0550 -108.4
 2.000  0.8201  161.0   2.109   65.4  0.0378   20.9  0.0549 -109.6
 2.020  0.8202  160.7   2.088   65.0  0.0379   20.9  0.0552 -110.6
 2.040  0.8203  160.3   2.066   64.5  0.0380   20.9  0.0555 -111.5
 2.060  0.8204  160.0   2.045   64.1  0.0380   20.8  0.0558 -112.5
 2.080  0.8206  159.6   2.024   63.7  0.0381   20.8  0.0561 -113.4
 2.100  0.8208  159.3   2.003   63.2  0.0382   20.8  0.0564 -114.3
 2.120  0.8210  158.9   1.985   62.8  0.0383   20.8  0.0562 -115.3
 2.140  0.8213  158.5   1.967   62.3  0.0384   20.8  0.0561 -116.4
 2.160  0.8217  158.2   1.949   61.9  0.0384   20.7  0.0559 -117.5
 2.180  0.8220  157.8   1.931   61.5  0.0385   20.7  0.0558 -118.5
 2.200  0.8224  157.4   1.913   61.0  0.0386   20.7  0.0557 -119.6
 2.220  0.8229  157.0   1.896   60.6  0.0387   20.7  0.0555 -120.6
 2.240  0.8234  156.6   1.879   60.1  0.0388   20.7  0.0554 -121.7
 2.260  0.8239  156.2   1.863   59.7  0.0388   20.7  0.0553 -122.7
 2.280  0.8245  155.8   1.846   59.3  0.0389   20.7  0.0552 -123.8
 2.300  0.8251  155.4   1.830   58.8  0.0390   20.7  0.0551 -124.8
 2.320  0.8254  155.1   1.815   58.4  0.0391   20.6  0.0551 -125.9
 2.340  0.8258  154.7   1.800   58.0  0.0391   20.6  0.0551 -127.0
 2.360  0.8262  154.4   1.785   57.6  0.0392   20.5  0.0552 -128.2
 2.380  0.8266  154.0   1.770   57.2  0.0392   20.5  0.0552 -129.3
 2.400  0.8271  153.7   1.755   56.8  0.0393   20.4  0.0553 -130.4
 2.420  0.8275  153.3   1.740   56.4  0.0395   20.4  0.0551 -131.4
 2.440  0.8280  152.9   1.726   55.9  0.0396   20.4  0.0549 -132.5
 2.460  0.8284  152.6   1.711   55.5  0.0398   20.5  0.0548 -133.5
 2.480  0.8289  152.2   1.697   55.1  0.0399   20.5  0.0546 -134.5
 2.500  0.8295  151.8   1.683   54.6  0.0401   20.5  0.0545 -135.6
 2.520  0.8297  151.4   1.669   54.2  0.0402   20.4  0.0545 -136.8
 2.540  0.8300  151.1   1.656   53.8  0.0402   20.4  0.0546 -138.1
 2.560  0.8302  150.7   1.643   53.4  0.0403   20.3  0.0547 -139.3
 2.580  0.8306  150.4   1.629   52.9  0.0403   20.3  0.0548 -140.6
 2.600  0.8309  150.0   1.616   52.5  0.0404   20.2  0.0550 -141.8
 2.620  0.8313  149.6   1.604   52.1  0.0405   20.2  0.0551 -143.0
 2.640  0.8318  149.3   1.591   51.7  0.0406   20.2  0.0552 -144.2
 2.660  0.8323  148.9   1.579   51.3  0.0408   20.2  0.0554 -145.4
 2.680  0.8328  148.6   1.567   50.9  0.0409   20.2  0.0556 -146.5
 2.700  0.8334  148.2   1.555   50.5  0.0410   20.2  0.0558 -147.7
 2.720  0.8336  147.9   1.543   50.1  0.0411   20.2  0.0561 -149.0
 2.740  0.8339  147.5   1.532   49.7  0.0412   20.2  0.0565 -150.2
 2.760  0.8342  147.2   1.521   49.3  0.0412   20.2  0.0569 -151.5
 2.780  0.8345  146.8   1.509   48.8  0.0413   20.2  0.0573 -152.7
 2.800  0.8349  146.5   1.498   48.4  0.0414   20.2  0.0578 -153.9
 2.820  0.8352  146.2   1.487   48.0  0.0415   20.2  0.0582 -155.2
 2.840  0.8355  145.8   1.476   47.6  0.0416   20.2  0.0586 -156.4
 2.860  0.8358  145.5   1.465   47.2  0.0418   20.1  0.0591 -157.6
 2.880  0.8362  145.1   1.455   46.8  0.0419   20.1  0.0596 -158.8
 2.900  0.8366  144.8   1.444   46.4  0.0420   20.1  0.0601 -160.0
 2.920  0.8368  144.5   1.434   46.0  0.0421   20.1  0.0608 -161.2
 2.940  0.8371  144.1   1.423   45.7  0.0422   20.0  0.0616 -162.4
 2.960  0.8374  143.8   1.413   45.3  0.0423   20.0  0.0624 -163.6
 2.980  0.8377  143.4   1.403   44.9  0.0424   19.9  0.0632 -164.7
 3.000  0.8381  143.1   1.393   44.5  0.0425   19.9  0.0640 -165.8
 3.100  0.8400  141.5   1.345   42.5  0.0432   19.6  0.0678 -170.8
 3.200  0.8419  139.8   1.300   40.6  0.0436   19.7  0.0727 -174.8
 3.300  0.8431  138.2   1.259   38.6  0.0439   19.4  0.0771 -178.7
 3.400  0.8455  136.6   1.217   36.8  0.0446   19.2  0.0827  177.9
 3.500  0.8468  135.0   1.179   34.9  0.0452   19.1  0.0877  174.7
 3.600  0.8489  133.5   1.142   33.1  0.0456   18.9  0.0937  171.6
 3.700  0.8504  132.0   1.108   31.3  0.0463   18.6  0.0997  168.8
 3.800  0.8527  130.6   1.075   29.4  0.0469   18.5  0.1059  166.4
 3.900  0.8532  129.2   1.043   27.7  0.0474   18.2  0.1128  164.2
 4.000  0.8556  127.8   1.013   26.0  0.0479   17.9  0.1202  162.5
 4.100  0.8565  126.4   0.984   24.2  0.0483   17.8  0.1270  160.9
 4.200  0.8585  125.1   0.956   22.6  0.0488   17.4  0.1341  159.5
 4.300  0.8594  123.8   0.931   20.8  0.0493   17.2  0.1406  158.4
 4.400  0.8615  122.6   0.905   19.2  0.0500   17.2  0.1472  157.3
 4.500  0.8620  121.4   0.881   17.6  0.0506   16.9  0.1534  156.0
 4.600  0.8642  120.3   0.858   16.0  0.0512   16.8  0.1598  155.0
 4.700  0.8645  119.3   0.836   14.5  0.0518   16.3  0.1658  153.8
 4.800  0.8662  118.2   0.816   12.9  0.0524   16.2  0.1720  152.8
 4.900  0.8663  117.1   0.796   11.3  0.0529   15.8  0.1775  151.7
 5.000  0.8685  116.2   0.777    9.8  0.0535   15.7  0.1832  150.6
 5.100  0.8679  115.2   0.758    8.3  0.0542   15.4  0.1885  149.5
 5.200  0.8698  114.3   0.742    6.9  0.0548   15.1  0.1940  148.3
 5.300  0.8686  113.3   0.724    5.4  0.0554   15.0  0.1991  147.2
 5.400  0.8698  112.5   0.709    4.0  0.0562   14.6  0.2039  145.9
 5.500  0.8689  111.5   0.693    2.5  0.0567   14.3  0.2088  144.6
 5.600  0.8700  110.7   0.678    1.1  0.0576   14.1  0.2138  143.4
 5.700  0.8692  109.9   0.665   -0.3  0.0582   13.8  0.2190  142.1
 5.800  0.8699  108.9   0.652   -1.8  0.0591   13.3  0.2248  140.7
 5.900  0.8703  108.2   0.639   -3.1  0.0600   13.1  0.2303  139.4
 6.000  0.8709  107.2   0.627   -4.6  0.0608   12.5  0.2360  138.0
 6.100  0.8724  106.4   0.616   -6.0  0.0617   12.1  0.2420  136.8
 6.200  0.8721  105.5   0.605   -7.4  0.0627   11.5  0.2479  135.5
 6.300  0.8735  104.6   0.593   -8.9  0.0635   11.0  0.2538  134.1
 6.400  0.8736  103.6   0.583  -10.4  0.0643   10.2  0.2602  132.9
 6.500  0.8756  102.5   0.573  -11.8  0.0652    9.7  0.2663  131.5
 6.600  0.8752  101.5   0.562  -13.4  0.0660    9.0  0.2723  130.3
 6.800  0.8779   99.4   0.543  -16.2  0.0676    7.7  0.2844  127.8
 7.000  0.8795   97.1   0.524  -19.2  0.0690    6.2  0.2974  125.3
 7.200  0.8824   94.8   0.506  -22.1  0.0705    4.7  0.3099  122.9
 7.400  0.8844   92.5   0.488  -25.1  0.0720    3.2  0.3222  120.4
 7.600  0.8875   90.0   0.470  -28.1  0.0732    1.4  0.3352  117.7
 7.800  0.8910   87.5   0.453  -31.0  0.0745   -0.3  0.3479  114.8
 8.000  0.8943   85.0   0.436  -33.9  0.0753   -1.9  0.3615  111.9
 8.200  0.8964   82.6   0.418  -36.6  0.0760   -3.7  0.3758  108.4
 8.400  0.9002   80.2   0.400  -39.5  0.0768   -5.4  0.3914  105.1
 8.600  0.9030   77.9   0.383  -42.1  0.0773   -7.1  0.4085  101.9
 8.800  0.9048   75.8   0.366  -44.6  0.0775   -8.8  0.4271   98.8
 9.000  0.9078   73.7   0.350  -47.2  0.0777  -10.5  0.4469   96.0
 9.200  0.9097   72.0   0.334  -49.0  0.0776  -11.8  0.4665   93.5
 9.400  0.9125   70.3   0.319  -51.0  0.0775  -13.1  0.4868   91.2
 9.600  0.9152   68.8   0.304  -52.8  0.0774  -14.3  0.5065   89.4
 9.800  0.9176   67.6   0.291  -54.2  0.0772  -15.2  0.5250   88.0
10.000  0.9204   66.4   0.278  -55.8  0.0771  -16.2  0.5438   86.8
!
!  f       NFmin   Gammaopt  rn/50
! GHz       dB    MAG  ANG    -
!
! noise parameter not available yet for this operation point!
!
! (c) 2016  Infineon Technologies AG, Munich
