! Infineon Technologies  Discrete & RF Semiconductors
! BFP740
! VCE =  3.0 V,  IC =  5.0 mA
! Common Emitter S-Parameters:                            Jan 2016
# GHz  S  MA  R  50
!  f         S11            S21            S12            S22
! GHz     MAG   ANG      MAG   ANG      MAG   ANG      MAG   ANG
 0.030  0.9499   -1.7  14.725  177.4  0.0017   82.9  0.9977   -1.2
 0.035  0.9501   -2.0  14.678  177.1  0.0021   84.1  0.9977   -1.4
 0.040  0.9503   -2.2  14.631  176.8  0.0025   84.9  0.9978   -1.5
 0.045  0.9498   -2.5  14.728  176.6  0.0025   90.0  0.9972   -1.7
 0.050  0.9494   -2.8  14.826  176.5  0.0026   95.0  0.9967   -2.0
 0.055  0.9488   -3.0  14.772  176.1  0.0026   87.7  0.9968   -2.1
 0.060  0.9482   -3.3  14.719  175.7  0.0026   80.4  0.9969   -2.2
 0.065  0.9484   -3.6  14.719  175.4  0.0027   79.4  0.9961   -2.4
 0.070  0.9486   -3.9  14.719  175.2  0.0029   78.5  0.9954   -2.6
 0.075  0.9484   -4.1  14.652  174.9  0.0030   80.6  0.9957   -2.8
 0.080  0.9482   -4.4  14.586  174.6  0.0032   82.5  0.9961   -2.9
 0.085  0.9478   -4.6  14.579  174.4  0.0039   77.9  0.9964   -3.2
 0.090  0.9475   -4.9  14.572  174.1  0.0047   74.7  0.9968   -3.4
 0.095  0.9467   -5.2  14.546  173.9  0.0046   76.0  0.9962   -3.5
 0.100  0.9459   -5.5  14.520  173.6  0.0045   77.4  0.9957   -3.7
 0.105  0.9452   -5.8  14.568  173.3  0.0052   81.2  0.9954   -3.9
 0.110  0.9446   -6.1  14.616  173.0  0.0059   84.1  0.9952   -4.2
 0.115  0.9442   -6.3  14.565  172.8  0.0060   84.6  0.9947   -4.3
 0.120  0.9439   -6.6  14.515  172.5  0.0062   85.1  0.9942   -4.5
 0.125  0.9445   -6.9  14.493  172.3  0.0065   83.9  0.9938   -4.7
 0.130  0.9451   -7.1  14.471  172.0  0.0069   82.8  0.9934   -4.9
 0.135  0.9448   -7.3  14.394  171.8  0.0071   80.5  0.9934   -5.1
 0.140  0.9446   -7.6  14.318  171.6  0.0073   78.4  0.9935   -5.2
 0.145  0.9443   -7.9  14.321  171.3  0.0073   79.7  0.9929   -5.4
 0.150  0.9441   -8.2  14.324  171.1  0.0073   80.9  0.9924   -5.7
 0.155  0.9436   -8.5  14.297  170.9  0.0076   81.2  0.9919   -5.9
 0.160  0.9431   -8.7  14.271  170.7  0.0078   81.5  0.9915   -6.0
 0.165  0.9427   -9.0  14.244  170.4  0.0081   81.8  0.9910   -6.2
 0.170  0.9423   -9.2  14.218  170.2  0.0083   82.1  0.9906   -6.4
 0.175  0.9419   -9.5  14.192  170.0  0.0086   82.3  0.9902   -6.5
 0.180  0.9415   -9.8  14.166  169.8  0.0089   82.6  0.9898   -6.7
 0.185  0.9411  -10.0  14.140  169.6  0.0091   82.8  0.9894   -6.9
 0.190  0.9407  -10.3  14.115  169.3  0.0094   83.0  0.9890   -7.1
 0.195  0.9404  -10.5  14.090  169.1  0.0096   83.2  0.9886   -7.2
 0.200  0.9401  -10.8  14.065  168.9  0.0099   83.4  0.9882   -7.4
 0.220  0.9381  -11.8  14.028  168.1  0.0111   83.6  0.9866   -8.1
 0.240  0.9365  -12.9  13.994  167.2  0.0122   83.7  0.9852   -8.8
 0.260  0.9351  -13.9  13.927  166.4  0.0133   82.9  0.9836   -9.5
 0.280  0.9339  -15.0  13.828  165.6  0.0142   81.3  0.9816  -10.2
 0.300  0.9331  -16.0  13.732  164.8  0.0151   79.9  0.9798  -10.9
 0.320  0.9312  -17.0  13.683  164.0  0.0160   78.8  0.9782  -11.6
 0.340  0.9296  -18.0  13.636  163.3  0.0169   77.8  0.9767  -12.3
 0.360  0.9281  -19.0  13.577  162.5  0.0179   77.0  0.9748  -13.0
 0.380  0.9266  -20.0  13.506  161.8  0.0190   76.5  0.9724  -13.7
 0.400  0.9255  -21.0  13.436  161.1  0.0201   76.0  0.9701  -14.4
 0.420  0.9238  -22.0  13.395  160.3  0.0209   75.7  0.9688  -15.1
 0.440  0.9223  -23.0  13.357  159.6  0.0217   75.3  0.9676  -15.8
 0.450  0.9217  -23.5  13.339  159.2  0.0221   75.2  0.9671  -16.1
 0.460  0.9206  -24.0  13.320  158.9  0.0226   74.8  0.9656  -16.5
 0.480  0.9186  -25.1  13.284  158.2  0.0235   74.1  0.9627  -17.2
 0.500  0.9169  -26.1  13.250  157.5  0.0245   73.4  0.9600  -17.9
 0.520  0.9144  -27.1  13.205  156.8  0.0254   72.7  0.9572  -18.6
 0.540  0.9121  -28.1  13.162  156.0  0.0263   72.0  0.9546  -19.2
 0.560  0.9102  -29.1  13.121  155.3  0.0273   71.4  0.9521  -19.9
 0.580  0.9085  -30.2  13.082  154.5  0.0282   70.8  0.9497  -20.5
 0.600  0.9071  -31.2  13.046  153.8  0.0291   70.2  0.9474  -21.2
 0.620  0.9046  -32.2  13.007  153.1  0.0300   69.4  0.9446  -21.9
 0.640  0.9023  -33.2  12.970  152.4  0.0308   68.7  0.9420  -22.5
 0.660  0.9003  -34.2  12.935  151.7  0.0317   68.0  0.9394  -23.2
 0.680  0.8985  -35.2  12.902  150.9  0.0326   67.3  0.9371  -23.9
 0.700  0.8971  -36.2  12.871  150.2  0.0335   66.7  0.9348  -24.6
 0.720  0.8943  -37.2  12.836  149.5  0.0344   66.1  0.9316  -25.3
 0.740  0.8919  -38.3  12.802  148.8  0.0353   65.5  0.9284  -25.9
 0.760  0.8897  -39.3  12.771  148.1  0.0362   64.9  0.9254  -26.6
 0.780  0.8878  -40.4  12.741  147.3  0.0372   64.4  0.9226  -27.2
 0.800  0.8862  -41.4  12.714  146.6  0.0381   63.9  0.9198  -27.9
 0.820  0.8832  -42.4  12.684  145.9  0.0389   63.2  0.9162  -28.6
 0.840  0.8805  -43.4  12.655  145.1  0.0398   62.5  0.9128  -29.2
 0.860  0.8781  -44.4  12.629  144.4  0.0406   61.8  0.9095  -29.9
 0.880  0.8760  -45.5  12.605  143.6  0.0414   61.2  0.9063  -30.5
 0.900  0.8741  -46.5  12.583  142.9  0.0423   60.6  0.9032  -31.2
 0.920  0.8714  -47.4  12.521  142.3  0.0430   59.9  0.8995  -31.8
 0.940  0.8689  -48.4  12.460  141.6  0.0438   59.3  0.8960  -32.5
 0.960  0.8666  -49.4  12.401  140.9  0.0446   58.7  0.8925  -33.2
 0.980  0.8647  -50.3  12.344  140.3  0.0453   58.1  0.8892  -33.8
 1.000  0.8629  -51.3  12.288  139.6  0.0461   57.5  0.8860  -34.5
 1.020  0.8599  -52.2  12.236  138.9  0.0468   56.9  0.8822  -35.1
 1.040  0.8571  -53.2  12.187  138.2  0.0476   56.3  0.8786  -35.7
 1.060  0.8546  -54.2  12.139  137.5  0.0483   55.7  0.8750  -36.3
 1.080  0.8523  -55.1  12.092  136.8  0.0491   55.1  0.8716  -37.0
 1.100  0.8502  -56.1  12.048  136.1  0.0498   54.6  0.8682  -37.6
 1.120  0.8472  -57.0  11.992  135.4  0.0504   54.0  0.8643  -38.2
 1.140  0.8444  -58.0  11.938  134.7  0.0511   53.4  0.8604  -38.9
 1.160  0.8418  -58.9  11.886  134.0  0.0518   52.8  0.8567  -39.5
 1.180  0.8395  -59.8  11.836  133.3  0.0524   52.3  0.8531  -40.1
 1.200  0.8374  -60.8  11.787  132.6  0.0531   51.7  0.8496  -40.8
 1.220  0.8346  -61.7  11.734  132.0  0.0537   51.1  0.8458  -41.4
 1.240  0.8319  -62.7  11.683  131.3  0.0543   50.5  0.8421  -41.9
 1.260  0.8295  -63.6  11.633  130.7  0.0549   50.0  0.8385  -42.5
 1.280  0.8274  -64.5  11.584  130.1  0.0555   49.4  0.8349  -43.1
 1.300  0.8254  -65.5  11.537  129.4  0.0561   48.9  0.8315  -43.7
 1.320  0.8225  -66.4  11.498  128.7  0.0567   48.4  0.8276  -44.3
 1.340  0.8199  -67.4  11.460  128.1  0.0574   47.9  0.8237  -44.9
 1.360  0.8175  -68.4  11.423  127.4  0.0580   47.4  0.8199  -45.5
 1.380  0.8153  -69.3  11.388  126.8  0.0587   46.9  0.8163  -46.1
 1.400  0.8134  -70.3  11.355  126.1  0.0593   46.4  0.8127  -46.7
 1.420  0.8107  -71.2  11.301  125.5  0.0598   45.9  0.8088  -47.2
 1.440  0.8081  -72.1  11.249  124.9  0.0603   45.3  0.8049  -47.8
 1.460  0.8058  -73.0  11.197  124.3  0.0608   44.8  0.8011  -48.4
 1.480  0.8036  -73.9  11.148  123.6  0.0614   44.3  0.7974  -48.9
 1.500  0.8017  -74.8  11.099  123.0  0.0619   43.8  0.7938  -49.5
 1.520  0.7990  -75.8  11.064  122.4  0.0625   43.3  0.7902  -50.1
 1.540  0.7965  -76.7  11.030  121.7  0.0630   42.8  0.7866  -50.6
 1.560  0.7942  -77.7  10.998  121.1  0.0636   42.3  0.7832  -51.2
 1.580  0.7922  -78.7  10.967  120.4  0.0641   41.8  0.7798  -51.8
 1.600  0.7904  -79.7  10.938  119.8  0.0647   41.3  0.7765  -52.4
 1.620  0.7877  -80.6  10.896  119.2  0.0651   40.8  0.7723  -52.9
 1.640  0.7852  -81.5  10.855  118.6  0.0655   40.3  0.7681  -53.5
 1.660  0.7828  -82.4  10.815  118.0  0.0659   39.8  0.7640  -54.1
 1.680  0.7807  -83.4  10.777  117.3  0.0664   39.3  0.7600  -54.6
 1.700  0.7788  -84.3  10.740  116.7  0.0668   38.8  0.7560  -55.2
 1.720  0.7767  -85.2  10.686  116.1  0.0673   38.4  0.7525  -55.8
 1.740  0.7747  -86.0  10.633  115.6  0.0678   37.9  0.7491  -56.3
 1.760  0.7729  -86.9  10.581  115.0  0.0683   37.5  0.7458  -56.9
 1.780  0.7713  -87.7  10.530  114.4  0.0688   37.1  0.7426  -57.4
 1.800  0.7699  -88.6  10.480  113.8  0.0693   36.7  0.7394  -58.0
 1.820  0.7677  -89.5  10.438  113.2  0.0697   36.2  0.7354  -58.5
 1.840  0.7657  -90.4  10.398  112.7  0.0701   35.7  0.7316  -59.1
 1.860  0.7639  -91.3  10.359  112.1  0.0705   35.2  0.7277  -59.7
 1.880  0.7623  -92.3  10.320  111.5  0.0709   34.8  0.7240  -60.2
 1.900  0.7609  -93.2  10.283  110.9  0.0713   34.3  0.7203  -60.8
 1.920  0.7591  -94.0  10.230  110.4  0.0717   33.9  0.7168  -61.3
 1.940  0.7574  -94.8  10.177  109.8  0.0721   33.4  0.7133  -61.9
 1.960  0.7559  -95.7  10.126  109.2  0.0725   33.0  0.7099  -62.5
 1.980  0.7545  -96.5  10.075  108.7  0.0730   32.6  0.7066  -63.0
 2.000  0.7533  -97.3  10.026  108.1  0.0734   32.2  0.7033  -63.6
 2.020  0.7511  -98.2   9.985  107.5  0.0738   31.7  0.6994  -64.2
 2.040  0.7491  -99.2   9.945  106.9  0.0742   31.2  0.6955  -64.7
 2.060  0.7473 -100.1   9.906  106.3  0.0746   30.7  0.6917  -65.3
 2.080  0.7457 -101.1   9.868  105.6  0.0750   30.2  0.6880  -65.9
 2.100  0.7443 -102.0   9.831  105.0  0.0754   29.7  0.6843  -66.5
 2.120  0.7422 -102.8   9.785  104.4  0.0756   29.3  0.6805  -67.0
 2.140  0.7402 -103.6   9.740  103.9  0.0758   28.8  0.6767  -67.6
 2.160  0.7384 -104.4   9.695  103.3  0.0760   28.4  0.6730  -68.1
 2.180  0.7368 -105.3   9.652  102.7  0.0763   27.9  0.6694  -68.6
 2.200  0.7353 -106.1   9.610  102.1  0.0765   27.5  0.6658  -69.2
 2.220  0.7331 -107.0   9.571  101.5  0.0769   27.1  0.6622  -69.7
 2.240  0.7311 -107.8   9.532  101.0  0.0772   26.6  0.6587  -70.2
 2.260  0.7292 -108.7   9.494  100.4  0.0776   26.2  0.6552  -70.7
 2.280  0.7275 -109.6   9.458   99.9  0.0779   25.8  0.6518  -71.2
 2.300  0.7260 -110.5   9.422   99.3  0.0783   25.4  0.6484  -71.7
 2.320  0.7244 -111.3   9.374   98.8  0.0785   25.0  0.6449  -72.2
 2.340  0.7229 -112.1   9.327   98.3  0.0787   24.6  0.6415  -72.8
 2.360  0.7216 -112.8   9.280   97.8  0.0789   24.1  0.6381  -73.3
 2.380  0.7204 -113.6   9.234   97.2  0.0792   23.7  0.6348  -73.8
 2.400  0.7193 -114.4   9.189   96.7  0.0794   23.3  0.6315  -74.4
 2.420  0.7176 -115.2   9.146   96.2  0.0797   23.0  0.6283  -74.9
 2.440  0.7160 -116.0   9.104   95.7  0.0800   22.6  0.6251  -75.3
 2.460  0.7146 -116.8   9.063   95.2  0.0804   22.3  0.6220  -75.8
 2.480  0.7133 -117.6   9.022   94.6  0.0807   21.9  0.6189  -76.3
 2.500  0.7121 -118.4   8.982   94.1  0.0810   21.6  0.6159  -76.8
 2.520  0.7104 -119.2   8.941   93.6  0.0812   21.2  0.6120  -77.3
 2.540  0.7087 -120.0   8.900   93.1  0.0813   20.8  0.6082  -77.8
 2.560  0.7073 -120.9   8.860   92.6  0.0815   20.3  0.6044  -78.3
 2.580  0.7060 -121.7   8.821   92.0  0.0816   19.9  0.6007  -78.9
 2.600  0.7048 -122.5   8.782   91.5  0.0818   19.5  0.5970  -79.4
 2.620  0.7032 -123.3   8.743   91.0  0.0820   19.1  0.5937  -79.9
 2.640  0.7018 -124.1   8.704   90.4  0.0822   18.8  0.5904  -80.3
 2.660  0.7005 -124.9   8.666   89.9  0.0824   18.4  0.5872  -80.8
 2.680  0.6994 -125.7   8.629   89.3  0.0826   18.1  0.5840  -81.3
 2.700  0.6984 -126.5   8.593   88.8  0.0828   17.7  0.5808  -81.8
 2.720  0.6966 -127.3   8.559   88.3  0.0830   17.3  0.5769  -82.4
 2.740  0.6950 -128.2   8.526   87.7  0.0831   16.9  0.5730  -82.9
 2.760  0.6935 -129.0   8.494   87.2  0.0833   16.6  0.5692  -83.5
 2.780  0.6922 -129.9   8.463   86.6  0.0835   16.2  0.5654  -84.1
 2.800  0.6910 -130.7   8.432   86.1  0.0837   15.8  0.5617  -84.7
 2.820  0.6898 -131.5   8.392   85.6  0.0839   15.4  0.5587  -85.2
 2.840  0.6888 -132.2   8.353   85.1  0.0840   15.1  0.5558  -85.7
 2.860  0.6878 -133.0   8.315   84.6  0.0842   14.7  0.5530  -86.2
 2.880  0.6870 -133.7   8.277   84.1  0.0843   14.4  0.5502  -86.8
 2.900  0.6863 -134.5   8.240   83.6  0.0845   14.0  0.5474  -87.3
 2.920  0.6846 -135.3   8.204   83.1  0.0846   13.6  0.5440  -87.8
 2.940  0.6831 -136.1   8.168   82.6  0.0847   13.3  0.5406  -88.4
 2.960  0.6817 -136.9   8.134   82.1  0.0848   12.9  0.5373  -88.9
 2.980  0.6804 -137.7   8.099   81.5  0.0850   12.6  0.5340  -89.4
 3.000  0.6793 -138.5   8.066   81.0  0.0851   12.2  0.5308  -90.0
 3.100  0.6747 -142.4   7.893   78.5  0.0857   10.6  0.5162  -92.6
 3.200  0.6688 -146.4   7.741   75.9  0.0863    9.0  0.5011  -95.5
 3.300  0.6656 -150.0   7.561   73.5  0.0866    7.2  0.4875  -98.2
 3.400  0.6614 -153.8   7.394   71.1  0.0869    5.6  0.4743 -101.0
 3.500  0.6591 -157.1   7.214   68.9  0.0871    4.0  0.4613 -103.7
 3.600  0.6556 -160.8   7.055   66.5  0.0872    2.3  0.4486 -106.6
 3.700  0.6533 -164.2   6.895   64.2  0.0872    0.9  0.4352 -109.5
 3.800  0.6513 -167.9   6.753   61.8  0.0869   -0.7  0.4240 -112.4
 3.900  0.6495 -171.1   6.592   59.6  0.0872   -2.0  0.4143 -115.2
 4.000  0.6487 -174.2   6.429   57.5  0.0868   -3.4  0.4043 -118.2
 4.100  0.6471 -177.4   6.283   55.3  0.0866   -4.7  0.3956 -121.1
 4.200  0.6469  179.4   6.141   53.1  0.0859   -6.1  0.3865 -124.1
 4.300  0.6462  176.6   6.003   51.0  0.0855   -7.3  0.3798 -126.7
 4.400  0.6474  173.7   5.862   48.9  0.0851   -8.4  0.3721 -129.5
 4.500  0.6469  171.2   5.721   46.9  0.0848   -9.7  0.3672 -132.0
 4.600  0.6490  168.6   5.591   44.9  0.0843  -10.8  0.3610 -134.6
 4.700  0.6486  166.0   5.472   43.0  0.0834  -11.7  0.3542 -137.3
 4.800  0.6506  163.7   5.347   41.0  0.0829  -12.8  0.3497 -139.8
 4.900  0.6508  161.5   5.223   39.2  0.0825  -13.7  0.3452 -142.1
 5.000  0.6529  159.2   5.113   37.4  0.0819  -14.6  0.3412 -144.5
 5.100  0.6535  157.2   4.999   35.5  0.0811  -15.5  0.3369 -147.0
 5.200  0.6551  155.1   4.901   33.7  0.0806  -16.2  0.3333 -149.2
 5.300  0.6554  153.2   4.790   31.9  0.0801  -17.1  0.3296 -151.5
 5.400  0.6572  151.3   4.692   30.3  0.0795  -17.9  0.3269 -153.7
 5.500  0.6570  149.7   4.587   28.5  0.0787  -18.5  0.3234 -156.0
 5.600  0.6585  148.0   4.499   26.9  0.0783  -19.2  0.3208 -158.2
 5.700  0.6580  146.4   4.409   25.2  0.0775  -19.7  0.3171 -160.6
 5.800  0.6594  144.6   4.331   23.5  0.0770  -20.4  0.3157 -162.9
 5.900  0.6609  143.2   4.248   22.0  0.0764  -20.8  0.3139 -165.2
 6.000  0.6618  141.7   4.172   20.3  0.0762  -21.3  0.3138 -167.4
 6.100  0.6642  140.2   4.102   18.7  0.0755  -21.7  0.3124 -170.0
 6.200  0.6648  138.8   4.031   17.1  0.0755  -22.4  0.3127 -172.2
 6.300  0.6669  137.3   3.962   15.4  0.0750  -22.7  0.3125 -174.7
 6.400  0.6680  135.9   3.893   13.8  0.0750  -23.5  0.3141 -176.9
 6.500  0.6705  134.2   3.830   12.1  0.0745  -23.9  0.3142 -179.5
 6.600  0.6711  132.6   3.773   10.4  0.0740  -24.4  0.3147  178.1
 6.800  0.6749  129.4   3.651    7.2  0.0734  -25.5  0.3174  173.8
 7.000  0.6785  126.3   3.535    3.9  0.0728  -26.4  0.3219  169.4
 7.200  0.6833  123.1   3.431    0.6  0.0721  -27.3  0.3266  165.1
 7.400  0.6878  119.9   3.325   -2.8  0.0716  -28.2  0.3318  161.0
 7.600  0.6940  116.5   3.220   -6.2  0.0709  -29.2  0.3379  156.5
 7.800  0.7018  113.0   3.121   -9.7  0.0703  -30.0  0.3431  152.0
 8.000  0.7097  109.6   3.017  -13.2  0.0698  -31.1  0.3502  147.5
 8.200  0.7171  106.2   2.905  -16.5  0.0691  -32.0  0.3566  142.4
 8.400  0.7270  102.8   2.804  -20.1  0.0684  -32.9  0.3657  137.5
 8.600  0.7362   99.6   2.701  -23.5  0.0676  -33.7  0.3771  132.5
 8.800  0.7448   96.5   2.592  -26.8  0.0669  -34.4  0.3911  127.5
 9.000  0.7554   93.5   2.492  -30.3  0.0662  -35.2  0.4078  122.9
 9.200  0.7634   90.9   2.381  -33.1  0.0652  -35.6  0.4253  118.6
 9.400  0.7729   88.3   2.275  -36.1  0.0641  -36.0  0.4450  114.6
 9.600  0.7819   86.2   2.175  -38.9  0.0632  -36.2  0.4654  111.5
 9.800  0.7899   84.4   2.078  -41.4  0.0625  -36.2  0.4857  108.9
10.000  0.7987   82.6   1.985  -44.1  0.0617  -36.2  0.5069  106.6
!
!  f       NFmin   Gammaopt  rn/50
! GHz       dB    MAG  ANG    -
 0.450      0.44  0.40   11   0.23
 0.900      0.45  0.41   17   0.22
 1.500      0.49  0.39   26   0.21
 1.900      0.52  0.38   42   0.21
 2.400      0.55  0.38   46   0.20
 3.500      0.65  0.35   68   0.18
 5.500      0.87  0.24  164   0.16
10.000      1.52  0.55  -82   0.21
!
! (c) 2016  Infineon Technologies AG, Munich
