! Infineon Technologies  Discrete & RF Semiconductors
! BFP760
! VCE =  2.0 V,  IC =  5.0 mA
! Common Emitter S-Parameters:                            Nov 2012
# GHz  S  MA  R  50
!  f         S11            S21            S12            S22
! GHz     MAG   ANG      MAG   ANG      MAG   ANG      MAG   ANG
 0.030  0.9527   -2.6  15.417  178.0  0.0026   89.1  0.9995   -1.9
 0.040  0.9526   -3.4  15.442  177.5  0.0035   83.3  0.9991   -2.5
 0.050  0.9525   -4.2  15.652  176.3  0.0053   78.3  0.9983   -3.0
 0.060  0.9506   -5.1  15.609  175.8  0.0051   86.5  0.9975   -3.6
 0.070  0.9504   -5.9  15.618  175.1  0.0060   84.5  0.9971   -4.2
 0.080  0.9494   -6.8  15.594  174.6  0.0070   83.7  0.9967   -4.8
 0.090  0.9496   -7.7  15.577  173.9  0.0081   85.0  0.9966   -5.4
 0.100  0.9487   -8.5  15.569  173.2  0.0089   85.8  0.9955   -6.1
 0.110  0.9476   -9.3  15.524  172.6  0.0099   86.3  0.9946   -6.7
 0.120  0.9467  -10.1  15.482  172.0  0.0108   85.0  0.9942   -7.3
 0.130  0.9461  -10.9  15.441  171.4  0.0112   82.7  0.9929   -7.9
 0.140  0.9458  -11.7  15.366  170.8  0.0123   82.9  0.9912   -8.4
 0.150  0.9446  -12.6  15.396  170.2  0.0135   82.6  0.9904   -9.0
 0.200  0.9396  -16.7  15.183  167.2  0.0177   80.3  0.9839  -12.0
 0.250  0.9337  -20.8  15.092  164.2  0.0219   77.2  0.9752  -14.9
 0.300  0.9271  -24.8  14.885  161.3  0.0260   74.9  0.9673  -17.7
 0.350  0.9191  -28.8  14.721  158.5  0.0297   72.6  0.9573  -20.6
 0.400  0.9119  -32.8  14.544  155.8  0.0339   70.2  0.9438  -23.3
 0.450  0.9039  -36.6  14.326  153.1  0.0377   68.1  0.9339  -26.0
 0.500  0.8955  -40.4  14.113  150.6  0.0412   65.5  0.9190  -28.8
 0.600  0.8783  -47.9  13.692  145.6  0.0480   61.0  0.8903  -33.9
 0.700  0.8615  -55.2  13.239  140.9  0.0543   56.8  0.8623  -38.9
 0.800  0.8433  -62.6  12.874  136.3  0.0600   52.9  0.8317  -43.7
 0.900  0.8268  -69.2  12.388  132.0  0.0650   49.1  0.7997  -48.4
 1.000  0.8103  -75.6  11.906  127.9  0.0694   45.5  0.7694  -52.7
 1.100  0.7945  -81.8  11.443  124.1  0.0732   42.2  0.7382  -57.0
 1.200  0.7797  -87.8  11.002  120.3  0.0766   39.2  0.7100  -60.9
 1.300  0.7658  -93.5  10.582  116.8  0.0796   36.2  0.6819  -64.8
 1.400  0.7543  -99.1  10.179  113.4  0.0822   33.6  0.6571  -68.4
 1.500  0.7432 -104.4   9.807  110.2  0.0844   31.1  0.6316  -71.9
 1.600  0.7339 -109.8   9.495  107.0  0.0865   28.8  0.6100  -75.4
 1.700  0.7256 -114.7   9.142  104.0  0.0882   26.5  0.5875  -78.7
 1.800  0.7210 -119.2   8.804  101.2  0.0898   24.3  0.5686  -82.2
 1.900  0.7144 -123.7   8.492   98.5  0.0911   22.3  0.5487  -85.5
 2.000  0.7102 -128.0   8.199   95.8  0.0924   20.2  0.5319  -88.8
 2.100  0.7048 -132.3   7.900   92.9  0.0931   18.2  0.5141  -92.1
 2.200  0.7004 -136.3   7.624   90.5  0.0938   16.4  0.4985  -95.1
 2.300  0.6966 -140.1   7.372   88.0  0.0942   14.7  0.4827  -98.2
 2.400  0.6941 -143.7   7.124   85.7  0.0949   13.1  0.4693 -101.2
 2.500  0.6913 -147.3   6.892   83.3  0.0952   11.5  0.4559 -104.2
 2.600  0.6888 -150.8   6.669   81.0  0.0954   10.0  0.4427 -107.2
 2.700  0.6864 -154.2   6.460   78.8  0.0955    8.5  0.4307 -110.2
 2.800  0.6852 -157.5   6.262   76.6  0.0956    7.0  0.4197 -113.2
 2.900  0.6839 -160.8   6.068   74.5  0.0955    5.7  0.4095 -116.4
 3.000  0.6832 -163.9   5.888   72.3  0.0953    4.4  0.4006 -119.5
 3.100  0.6825 -167.0   5.717   70.2  0.0952    3.1  0.3923 -122.5
 3.200  0.6819 -169.8   5.541   68.2  0.0948    2.0  0.3848 -125.4
 3.300  0.6819 -172.7   5.379   66.2  0.0944    0.8  0.3777 -128.6
 3.400  0.6824 -175.4   5.220   64.2  0.0939   -0.4  0.3719 -131.4
 3.500  0.6833 -178.1   5.072   62.3  0.0934   -1.5  0.3665 -134.5
 3.600  0.6839  179.3   4.924   60.4  0.0929   -2.5  0.3625 -137.3
 3.700  0.6847  176.9   4.785   58.5  0.0922   -3.5  0.3583 -140.3
 3.800  0.6855  174.5   4.643   56.7  0.0916   -4.4  0.3558 -143.1
 3.900  0.6869  172.3   4.517   54.9  0.0907   -5.4  0.3533 -145.9
 4.000  0.6882  170.1   4.386   53.2  0.0900   -6.3  0.3519 -148.6
 4.100  0.6905  168.0   4.269   51.5  0.0892   -7.0  0.3514 -151.1
 4.200  0.6919  166.1   4.148   49.8  0.0884   -7.8  0.3508 -153.5
 4.300  0.6934  164.2   4.035   48.2  0.0875   -8.5  0.3509 -155.9
 4.400  0.6955  162.4   3.926   46.6  0.0868   -9.2  0.3516 -158.0
 4.500  0.6977  160.6   3.826   45.0  0.0859   -9.8  0.3525 -160.2
 4.600  0.7000  159.0   3.726   43.4  0.0850  -10.3  0.3532 -162.1
 4.700  0.7019  157.5   3.631   41.9  0.0840  -10.8  0.3545 -164.1
 4.800  0.7041  156.0   3.538   40.5  0.0833  -11.4  0.3558 -165.9
 4.900  0.7063  154.6   3.454   39.0  0.0825  -11.8  0.3574 -167.8
 5.000  0.7087  153.3   3.368   37.6  0.0817  -12.3  0.3588 -169.5
 5.100  0.7108  151.9   3.290   36.1  0.0808  -12.6  0.3609 -171.2
 5.200  0.7128  150.7   3.213   34.7  0.0801  -13.0  0.3624 -172.8
 5.300  0.7145  149.5   3.139   33.3  0.0791  -13.3  0.3641 -174.5
 5.400  0.7162  148.3   3.068   31.9  0.0784  -13.7  0.3663 -176.1
 5.500  0.7171  147.2   2.999   30.6  0.0775  -13.8  0.3676 -177.6
 5.600  0.7182  146.3   2.931   29.3  0.0767  -14.0  0.3689 -179.0
 5.700  0.7195  145.2   2.872   28.0  0.0759  -14.1  0.3716  179.3
 5.800  0.7205  144.2   2.810   26.7  0.0752  -14.3  0.3735  177.9
 5.900  0.7220  143.2   2.754   25.4  0.0746  -14.4  0.3759  176.4
 6.000  0.7236  142.2   2.699   24.0  0.0739  -14.4  0.3786  175.0
 6.100  0.7256  141.4   2.649   22.7  0.0734  -14.3  0.3825  173.6
 6.200  0.7267  140.3   2.595   21.4  0.0729  -14.4  0.3848  172.2
 6.300  0.7291  139.4   2.547   20.1  0.0725  -14.4  0.3885  170.8
 6.400  0.7306  138.3   2.497   18.8  0.0720  -14.5  0.3920  169.4
 6.500  0.7328  137.2   2.452   17.4  0.0716  -14.5  0.3956  168.1
 6.600  0.7353  136.2   2.407   16.1  0.0711  -14.5  0.3989  166.6
 6.700  0.7369  135.2   2.362   14.9  0.0707  -14.5  0.4027  165.4
 6.800  0.7379  134.1   2.317   13.5  0.0702  -14.5  0.4063  164.0
 6.900  0.7409  132.9   2.277   12.2  0.0698  -14.5  0.4108  162.7
 7.000  0.7428  131.8   2.238   10.9  0.0695  -14.6  0.4146  161.5
 7.100  0.7454  130.7   2.199    9.6  0.0692  -14.5  0.4202  160.1
 7.200  0.7481  129.5   2.161    8.2  0.0689  -14.6  0.4246  158.9
 7.300  0.7503  128.4   2.122    6.9  0.0686  -14.4  0.4291  157.5
 7.400  0.7532  127.2   2.086    5.4  0.0683  -14.6  0.4336  156.2
 7.500  0.7571  126.0   2.052    4.1  0.0680  -14.6  0.4387  154.9
 7.600  0.7604  124.8   2.015    2.6  0.0679  -14.7  0.4437  153.5
 7.700  0.7635  123.6   1.981    1.3  0.0675  -14.6  0.4483  152.2
 7.800  0.7675  122.4   1.943   -0.1  0.0671  -14.8  0.4542  150.6
 7.900  0.7712  121.2   1.910   -1.6  0.0670  -14.8  0.4594  149.1
 8.000  0.7756  119.9   1.871   -3.0  0.0666  -15.0  0.4657  147.6
 8.500  0.7969  114.0   1.688  -10.3  0.0647  -15.2  0.4968  139.8
 9.000  0.8157  108.7   1.497  -16.9  0.0623  -15.0  0.5362  132.6
 9.500  0.8336  104.8   1.319  -22.2  0.0601  -13.5  0.5774  127.0
10.000  0.8493  102.5   1.168  -26.0  0.0592  -11.1  0.6184  124.0
!
!  f       NFmin   Gammaopt  rn/50
! GHz       dB    MAG  ANG    -
!
! noise parameter not available yet for this operation point!
!
! (c) 2012  Infineon Technologies AG, Munich
