! Infineon Technologies  Discrete & RF Semiconductors
! BFP720ESD
! VCE =  4.0 V,  IC =  25 mA
! Common Emitter S-Parameters:                            Jan 2016
# GHz  S  MA  R  50
!  f         S11            S21            S12            S22
! GHz     MAG   ANG      MAG   ANG      MAG   ANG      MAG   ANG
 0.010  0.6830    0.2  47.460  179.0  0.0005   46.9  0.9451    5.3
 0.015  0.6838   -0.8  47.021  178.0  0.0006   59.1  0.9534    2.8
 0.020  0.6847   -1.7  46.598  176.9  0.0008   66.7  0.9635    0.4
 0.025  0.6843   -2.3  46.530  176.6  0.0010   68.3  0.9658    0.0
 0.030  0.6839   -2.9  46.464  176.2  0.0011   69.4  0.9682   -0.4
 0.035  0.6836   -3.5  46.400  175.9  0.0013   70.2  0.9707   -0.8
 0.040  0.6834   -4.2  46.337  175.5  0.0015   70.9  0.9731   -1.1
 0.045  0.6833   -4.8  46.276  175.2  0.0016   71.4  0.9756   -1.5
 0.050  0.6832   -5.4  46.217  174.8  0.0018   71.8  0.9782   -1.9
 0.055  0.6825   -6.0  46.188  174.4  0.0019   72.4  0.9778   -2.3
 0.060  0.6820   -6.6  46.162  173.9  0.0021   73.0  0.9775   -2.7
 0.065  0.6814   -7.1  46.138  173.5  0.0022   73.5  0.9772   -3.0
 0.070  0.6810   -7.7  46.118  173.0  0.0023   73.9  0.9770   -3.4
 0.075  0.6806   -8.3  46.099  172.6  0.0024   74.3  0.9768   -3.8
 0.080  0.6803   -8.9  46.084  172.2  0.0026   74.6  0.9767   -4.2
 0.085  0.6801   -9.5  46.072  171.7  0.0027   74.9  0.9766   -4.6
 0.090  0.6799  -10.0  46.062  171.3  0.0028   75.2  0.9765   -4.9
 0.095  0.6798  -10.6  46.054  170.8  0.0030   75.5  0.9765   -5.3
 0.100  0.6798  -11.2  46.050  170.4  0.0031   75.7  0.9765   -5.7
 0.105  0.6787  -11.8  45.956  169.9  0.0032   75.9  0.9754   -6.0
 0.110  0.6776  -12.3  45.865  169.5  0.0033   76.0  0.9744   -6.3
 0.115  0.6766  -12.9  45.777  169.0  0.0035   76.1  0.9733   -6.6
 0.120  0.6757  -13.5  45.692  168.5  0.0036   76.3  0.9723   -6.9
 0.125  0.6749  -14.1  45.611  168.1  0.0037   76.4  0.9713   -7.2
 0.130  0.6741  -14.7  45.532  167.6  0.0038   76.5  0.9704   -7.6
 0.135  0.6734  -15.2  45.456  167.1  0.0039   76.6  0.9695   -7.9
 0.140  0.6728  -15.8  45.384  166.7  0.0041   76.7  0.9686   -8.2
 0.145  0.6722  -16.4  45.314  166.2  0.0042   76.8  0.9677   -8.5
 0.150  0.6717  -17.0  45.248  165.7  0.0043   76.9  0.9669   -8.8
 0.155  0.6707  -17.5  45.139  165.3  0.0044   76.6  0.9654   -9.1
 0.160  0.6698  -18.0  45.032  164.9  0.0046   76.4  0.9639   -9.4
 0.165  0.6689  -18.6  44.927  164.4  0.0047   76.1  0.9625   -9.7
 0.170  0.6681  -19.1  44.825  164.0  0.0049   75.9  0.9611  -10.0
 0.175  0.6673  -19.6  44.726  163.6  0.0050   75.6  0.9597  -10.3
 0.180  0.6666  -20.2  44.629  163.1  0.0051   75.4  0.9583  -10.6
 0.185  0.6659  -20.7  44.535  162.7  0.0053   75.2  0.9570  -10.9
 0.190  0.6653  -21.2  44.443  162.3  0.0054   75.0  0.9556  -11.2
 0.195  0.6648  -21.8  44.354  161.8  0.0056   74.9  0.9544  -11.5
 0.200  0.6643  -22.3  44.267  161.4  0.0057   74.7  0.9531  -11.8
 0.220  0.6586  -24.4  43.715  159.7  0.0062   74.0  0.9464  -12.9
 0.240  0.6538  -26.5  43.202  158.0  0.0067   73.4  0.9401  -14.0
 0.260  0.6495  -28.6  42.724  156.4  0.0073   72.8  0.9335  -15.1
 0.280  0.6457  -30.6  42.270  154.9  0.0078   72.1  0.9264  -16.1
 0.300  0.6427  -32.7  41.844  153.4  0.0083   71.6  0.9197  -17.1
 0.320  0.6376  -34.7  41.326  152.1  0.0088   70.8  0.9122  -18.1
 0.340  0.6333  -36.7  40.831  150.7  0.0093   70.1  0.9050  -19.1
 0.360  0.6290  -38.6  40.328  149.3  0.0097   69.4  0.8976  -20.0
 0.380  0.6247  -40.5  39.817  148.0  0.0102   68.5  0.8900  -20.9
 0.400  0.6211  -42.4  39.328  146.6  0.0106   67.8  0.8826  -21.8
 0.420  0.6164  -44.3  38.833  145.4  0.0110   67.2  0.8751  -22.6
 0.440  0.6124  -46.1  38.354  144.2  0.0115   66.6  0.8679  -23.5
 0.450  0.6106  -47.1  38.121  143.6  0.0117   66.3  0.8643  -23.9
 0.460  0.6080  -48.0  37.878  143.0  0.0119   65.9  0.8604  -24.3
 0.480  0.6031  -49.8  37.404  141.8  0.0124   65.2  0.8528  -25.1
 0.500  0.5989  -51.7  36.947  140.6  0.0128   64.5  0.8453  -26.0
 0.520  0.5940  -53.4  36.477  139.5  0.0132   63.8  0.8377  -26.7
 0.540  0.5896  -55.1  36.020  138.4  0.0136   63.1  0.8302  -27.4
 0.560  0.5858  -56.9  35.577  137.3  0.0139   62.5  0.8229  -28.2
 0.580  0.5825  -58.6  35.147  136.2  0.0143   61.9  0.8157  -28.9
 0.600  0.5798  -60.4  34.732  135.0  0.0147   61.3  0.8086  -29.7
 0.620  0.5752  -62.0  34.314  134.1  0.0150   60.6  0.8013  -30.4
 0.640  0.5711  -63.7  33.906  133.1  0.0154   60.0  0.7940  -31.1
 0.660  0.5675  -65.4  33.507  132.1  0.0157   59.4  0.7869  -31.8
 0.680  0.5643  -67.1  33.118  131.1  0.0161   58.8  0.7800  -32.5
 0.700  0.5617  -68.8  32.740  130.1  0.0164   58.3  0.7731  -33.2
 0.720  0.5577  -70.3  32.343  129.2  0.0167   57.7  0.7660  -33.8
 0.740  0.5541  -71.8  31.953  128.4  0.0170   57.2  0.7590  -34.4
 0.760  0.5509  -73.4  31.572  127.5  0.0173   56.7  0.7521  -35.0
 0.780  0.5481  -74.9  31.198  126.5  0.0176   56.2  0.7453  -35.7
 0.800  0.5457  -76.5  30.832  125.6  0.0179   55.7  0.7386  -36.3
 0.820  0.5421  -78.0  30.486  124.8  0.0182   55.2  0.7322  -36.9
 0.840  0.5389  -79.5  30.145  123.9  0.0185   54.7  0.7258  -37.4
 0.860  0.5361  -81.1  29.812  123.1  0.0187   54.2  0.7195  -38.0
 0.880  0.5336  -82.6  29.485  122.2  0.0190   53.7  0.7132  -38.6
 0.900  0.5316  -84.2  29.166  121.3  0.0193   53.2  0.7071  -39.2
 0.920  0.5284  -85.6  28.835  120.5  0.0195   52.8  0.7007  -39.7
 0.940  0.5255  -87.0  28.509  119.8  0.0198   52.3  0.6944  -40.3
 0.960  0.5229  -88.4  28.188  119.0  0.0200   51.9  0.6882  -40.8
 0.980  0.5206  -89.9  27.873  118.1  0.0203   51.5  0.6820  -41.3
 1.000  0.5187  -91.3  27.564  117.3  0.0205   51.1  0.6759  -41.9
 1.020  0.5161  -92.6  27.265  116.6  0.0207   50.7  0.6702  -42.4
 1.040  0.5138  -93.9  26.970  115.9  0.0209   50.3  0.6645  -42.8
 1.060  0.5118  -95.3  26.680  115.1  0.0212   49.9  0.6588  -43.3
 1.080  0.5101  -96.6  26.394  114.4  0.0214   49.6  0.6532  -43.8
 1.100  0.5086  -98.0  26.113  113.6  0.0216   49.2  0.6477  -44.3
 1.120  0.5063  -99.3  25.839  112.9  0.0218   48.8  0.6423  -44.8
 1.140  0.5043 -100.6  25.569  112.2  0.0220   48.5  0.6369  -45.2
 1.160  0.5025 -101.9  25.303  111.5  0.0221   48.2  0.6315  -45.7
 1.180  0.5010 -103.2  25.042  110.8  0.0223   47.8  0.6262  -46.2
 1.200  0.4998 -104.5  24.784  110.0  0.0225   47.5  0.6210  -46.7
 1.220  0.4979 -105.7  24.531  109.4  0.0227   47.2  0.6161  -47.1
 1.240  0.4963 -106.8  24.282  108.7  0.0229   46.8  0.6113  -47.5
 1.260  0.4948 -108.0  24.036  108.1  0.0230   46.5  0.6065  -47.9
 1.280  0.4936 -109.2  23.793  107.4  0.0232   46.2  0.6017  -48.3
 1.300  0.4926 -110.4  23.553  106.7  0.0234   45.9  0.5969  -48.7
 1.320  0.4908 -111.5  23.313  106.1  0.0236   45.6  0.5922  -49.1
 1.340  0.4892 -112.7  23.075  105.5  0.0237   45.4  0.5876  -49.5
 1.360  0.4878 -113.9  22.841  104.8  0.0239   45.1  0.5830  -49.9
 1.380  0.4866 -115.0  22.609  104.2  0.0240   44.9  0.5784  -50.3
 1.400  0.4856 -116.2  22.380  103.5  0.0242   44.6  0.5738  -50.7
 1.420  0.4842 -117.2  22.170  103.0  0.0244   44.4  0.5698  -51.0
 1.440  0.4829 -118.2  21.962  102.4  0.0245   44.2  0.5658  -51.4
 1.460  0.4817 -119.2  21.756  101.9  0.0247   43.9  0.5618  -51.7
 1.480  0.4807 -120.2  21.553  101.3  0.0248   43.7  0.5578  -52.1
 1.500  0.4799 -121.2  21.351  100.7  0.0250   43.5  0.5539  -52.4
 1.520  0.4790 -122.2  21.155  100.1  0.0251   43.3  0.5500  -52.7
 1.540  0.4783 -123.3  20.962   99.5  0.0252   43.1  0.5462  -53.1
 1.560  0.4777 -124.3  20.771   98.9  0.0254   42.8  0.5424  -53.5
 1.580  0.4773 -125.4  20.582   98.3  0.0255   42.6  0.5386  -53.8
 1.600  0.4771 -126.4  20.395   97.7  0.0256   42.4  0.5348  -54.2
 1.620  0.4757 -127.4  20.216   97.2  0.0257   42.2  0.5314  -54.5
 1.640  0.4744 -128.3  20.038   96.6  0.0258   42.0  0.5280  -54.8
 1.660  0.4732 -129.3  19.862   96.1  0.0260   41.8  0.5246  -55.1
 1.680  0.4722 -130.2  19.687   95.6  0.0261   41.6  0.5212  -55.5
 1.700  0.4713 -131.2  19.515   95.0  0.0262   41.4  0.5179  -55.8
 1.720  0.4705 -132.1  19.339   94.5  0.0263   41.3  0.5147  -56.1
 1.740  0.4698 -133.0  19.164   94.0  0.0264   41.1  0.5116  -56.4
 1.760  0.4693 -133.8  18.991   93.5  0.0266   41.0  0.5085  -56.7
 1.780  0.4688 -134.7  18.819   92.9  0.0267   40.8  0.5054  -57.1
 1.800  0.4685 -135.6  18.649   92.4  0.0268   40.7  0.5023  -57.4
 1.820  0.4676 -136.5  18.497   91.9  0.0269   40.6  0.4991  -57.7
 1.840  0.4668 -137.4  18.347   91.4  0.0270   40.4  0.4959  -58.0
 1.860  0.4662 -138.4  18.199   90.9  0.0272   40.3  0.4928  -58.3
 1.880  0.4656 -139.3  18.052   90.3  0.0273   40.1  0.4896  -58.7
 1.900  0.4652 -140.2  17.906   89.8  0.0274   40.0  0.4865  -59.0
 1.920  0.4644 -141.0  17.761   89.4  0.0275   39.9  0.4838  -59.3
 1.940  0.4637 -141.7  17.618   88.9  0.0276   39.8  0.4811  -59.5
 1.960  0.4630 -142.5  17.475   88.4  0.0278   39.7  0.4784  -59.8
 1.980  0.4625 -143.2  17.334   88.0  0.0279   39.6  0.4757  -60.0
 2.000  0.4620 -144.0  17.194   87.5  0.0280   39.5  0.4730  -60.3
 2.020  0.4611 -144.8  17.061   87.0  0.0281   39.4  0.4702  -60.6
 2.040  0.4603 -145.6  16.930   86.6  0.0282   39.3  0.4675  -60.9
 2.060  0.4595 -146.4  16.799   86.1  0.0283   39.1  0.4648  -61.1
 2.080  0.4589 -147.3  16.670   85.6  0.0284   39.0  0.4621  -61.4
 2.100  0.4584 -148.1  16.542   85.1  0.0285   38.9  0.4594  -61.7
 2.120  0.4579 -148.9  16.415   84.7  0.0286   38.8  0.4567  -62.0
 2.140  0.4576 -149.7  16.289   84.1  0.0287   38.7  0.4540  -62.3
 2.160  0.4573 -150.5  16.165   83.6  0.0288   38.5  0.4513  -62.6
 2.180  0.4572 -151.4  16.042   83.1  0.0289   38.4  0.4486  -62.9
 2.200  0.4571 -152.2  15.920   82.6  0.0290   38.3  0.4460  -63.2
 2.220  0.4565 -153.0  15.805   82.2  0.0291   38.2  0.4434  -63.5
 2.240  0.4561 -153.7  15.690   81.8  0.0292   38.1  0.4409  -63.8
 2.260  0.4557 -154.5  15.577   81.3  0.0293   38.0  0.4384  -64.1
 2.280  0.4554 -155.3  15.464   80.9  0.0294   37.9  0.4358  -64.4
 2.300  0.4551 -156.0  15.353   80.4  0.0295   37.8  0.4333  -64.7
 2.320  0.4550 -156.8  15.242   80.0  0.0296   37.8  0.4308  -65.0
 2.340  0.4549 -157.6  15.132   79.5  0.0297   37.7  0.4284  -65.3
 2.360  0.4549 -158.4  15.023   79.1  0.0298   37.6  0.4259  -65.7
 2.380  0.4550 -159.1  14.916   78.6  0.0299   37.5  0.4234  -66.0
 2.400  0.4552 -159.9  14.809   78.1  0.0300   37.4  0.4210  -66.3
 2.420  0.4550 -160.7  14.706   77.7  0.0301   37.3  0.4186  -66.6
 2.440  0.4549 -161.4  14.603   77.3  0.0302   37.3  0.4163  -66.9
 2.460  0.4548 -162.2  14.501   76.9  0.0303   37.2  0.4139  -67.2
 2.480  0.4549 -162.9  14.400   76.5  0.0304   37.1  0.4115  -67.5
 2.500  0.4550 -163.7  14.299   76.0  0.0304   37.0  0.4092  -67.8
 2.520  0.4552 -164.4  14.200   75.6  0.0305   37.0  0.4069  -68.1
 2.540  0.4554 -165.2  14.101   75.2  0.0306   36.9  0.4046  -68.4
 2.560  0.4558 -165.9  14.003   74.7  0.0307   36.8  0.4023  -68.7
 2.580  0.4562 -166.7  13.906   74.3  0.0308   36.8  0.4000  -69.0
 2.600  0.4567 -167.4  13.810   73.8  0.0309   36.7  0.3977  -69.3
 2.620  0.4566 -168.1  13.718   73.4  0.0310   36.7  0.3956  -69.6
 2.640  0.4566 -168.7  13.627   73.0  0.0311   36.6  0.3936  -69.9
 2.660  0.4567 -169.4  13.537   72.6  0.0312   36.6  0.3915  -70.2
 2.680  0.4568 -170.0  13.447   72.2  0.0313   36.5  0.3895  -70.5
 2.700  0.4569 -170.7  13.358   71.8  0.0313   36.5  0.3875  -70.8
 2.720  0.4572 -171.4  13.270   71.4  0.0314   36.5  0.3854  -71.1
 2.740  0.4575 -172.0  13.182   71.0  0.0315   36.4  0.3834  -71.4
 2.760  0.4578 -172.7  13.095   70.6  0.0316   36.4  0.3814  -71.8
 2.780  0.4582 -173.3  13.009   70.1  0.0317   36.3  0.3795  -72.1
 2.800  0.4587 -174.0  12.923   69.7  0.0318   36.3  0.3775  -72.4
 2.820  0.4589 -174.6  12.843   69.3  0.0319   36.2  0.3757  -72.7
 2.840  0.4592 -175.2  12.763   69.0  0.0320   36.2  0.3739  -73.0
 2.860  0.4596 -175.9  12.684   68.6  0.0321   36.1  0.3721  -73.3
 2.880  0.4600 -176.5  12.606   68.2  0.0322   36.1  0.3704  -73.6
 2.900  0.4605 -177.1  12.528   67.8  0.0323   36.0  0.3686  -74.0
 2.920  0.4610 -177.7  12.451   67.4  0.0324   36.0  0.3669  -74.3
 2.940  0.4616 -178.4  12.374   67.0  0.0325   35.9  0.3651  -74.6
 2.960  0.4622 -179.0  12.298   66.6  0.0326   35.9  0.3634  -74.9
 2.980  0.4629 -179.6  12.223   66.2  0.0327   35.8  0.3617  -75.3
 3.000  0.4636  179.8  12.148   65.8  0.0328   35.8  0.3600  -75.6
 3.100  0.4653  177.0  11.802   64.1  0.0333   35.7  0.3525  -77.2
 3.200  0.4682  174.2  11.466   62.3  0.0338   35.5  0.3452  -78.8
 3.300  0.4721  171.5  11.142   60.4  0.0343   35.4  0.3383  -80.5
 3.400  0.4770  168.8  10.832   58.4  0.0348   35.3  0.3316  -82.3
 3.500  0.4830  166.2  10.535   56.3  0.0353   35.2  0.3253  -84.1
 3.600  0.4864  163.9  10.264   54.7  0.0359   35.1  0.3193  -85.9
 3.700  0.4906  161.5  10.002   53.0  0.0365   35.0  0.3136  -87.9
 3.800  0.4955  159.3   9.748   51.2  0.0371   34.9  0.3083  -89.8
 3.900  0.5012  157.1   9.505   49.4  0.0377   34.8  0.3034  -91.9
 4.000  0.5077  154.9   9.272   47.4  0.0383   34.7  0.2989  -94.0
 4.100  0.5116  153.0   9.044   45.8  0.0389   34.4  0.2946  -96.4
 4.200  0.5162  151.1   8.822   44.1  0.0395   34.2  0.2908  -98.9
 4.300  0.5212  149.2   8.609   42.4  0.0402   34.0  0.2876 -101.5
 4.400  0.5269  147.4   8.405   40.5  0.0408   33.7  0.2849 -104.1
 4.500  0.5330  145.6   8.209   38.6  0.0414   33.5  0.2829 -106.7
 4.600  0.5356  144.1   8.017   37.1  0.0420   33.3  0.2813 -108.9
 4.700  0.5385  142.7   7.830   35.6  0.0427   33.1  0.2801 -111.2
 4.800  0.5418  141.2   7.648   34.0  0.0433   32.9  0.2793 -113.4
 4.900  0.5454  139.8   7.473   32.4  0.0440   32.7  0.2790 -115.7
 5.000  0.5493  138.4   7.305   30.6  0.0446   32.5  0.2791 -118.0
 5.100  0.5513  137.0   7.152   29.2  0.0453   32.2  0.2781 -120.0
 5.200  0.5536  135.7   7.004   27.7  0.0459   32.0  0.2773 -122.0
 5.300  0.5563  134.3   6.860   26.2  0.0466   31.7  0.2770 -124.0
 5.400  0.5592  133.0   6.722   24.6  0.0472   31.4  0.2770 -126.1
 5.500  0.5624  131.7   6.589   22.9  0.0479   31.2  0.2773 -128.1
 5.600  0.5656  130.4   6.465   21.5  0.0487   31.0  0.2763 -130.4
 5.700  0.5691  129.1   6.345   20.1  0.0495   30.7  0.2757 -132.7
 5.800  0.5729  127.9   6.230   18.6  0.0502   30.5  0.2756 -135.1
 5.900  0.5770  126.6   6.119   17.0  0.0510   30.3  0.2760 -137.4
 6.000  0.5813  125.4   6.012   15.4  0.0518   30.1  0.2768 -139.7
 6.100  0.5861  124.2   5.909   14.0  0.0528   29.7  0.2780 -142.1
 6.200  0.5911  123.0   5.810   12.5  0.0538   29.3  0.2797 -144.6
 6.300  0.5964  121.9   5.714   11.0  0.0547   28.9  0.2818 -147.0
 6.400  0.6019  120.7   5.623    9.4  0.0557   28.5  0.2845 -149.3
 6.500  0.6077  119.6   5.536    7.8  0.0567   28.1  0.2876 -151.6
 6.600  0.6118  118.5   5.447    6.3  0.0578   27.6  0.2885 -153.7
 6.800  0.6205  116.3   5.281    3.3  0.0599   26.6  0.2914 -157.7
 7.000  0.6302  114.2   5.131    0.0  0.0620   25.7  0.2958 -161.7
 7.200  0.6363  112.0   4.986   -3.0  0.0644   24.2  0.2995 -166.3
 7.400  0.6434  109.8   4.855   -6.2  0.0669   22.8  0.3052 -170.8
 7.600  0.6505  107.2   4.715   -9.5  0.0691   21.0  0.3124 -175.7
 7.800  0.6580  104.4   4.567  -13.0  0.0713   18.9  0.3218  179.0
 8.000  0.6672  101.6   4.437  -16.7  0.0735   17.0  0.3337  174.1
 8.200  0.6736   98.3   4.269  -19.8  0.0747   14.9  0.3422  168.7
 8.400  0.6822   95.1   4.114  -23.2  0.0761   12.8  0.3536  163.5
 8.600  0.6944   92.0   3.969  -26.5  0.0772   10.9  0.3655  158.1
 8.800  0.7099   89.1   3.830  -29.5  0.0781    9.2  0.3788  152.3
 9.000  0.7271   86.4   3.703  -32.8  0.0791    7.5  0.3957  147.0
 9.200  0.7534   84.0   3.576  -35.6  0.0799    6.0  0.4167  141.4
 9.400  0.7810   81.8   3.458  -38.7  0.0808    4.6  0.4412  136.3
 9.600  0.8072   79.7   3.324  -41.8  0.0818    3.1  0.4694  131.8
 9.800  0.8318   77.8   3.172  -45.0  0.0829    1.4  0.5007  127.9
10.000  0.8573   76.0   3.032  -48.6  0.0842   -0.2  0.5341  124.4
!
!  f       NFmin   Gammaopt  rn/50
! GHz       dB    MAG  ANG    -
 0.450      1.07  0.02 -141   0.18
 0.900      1.10  0.05 -148   0.12
 1.900      1.13  0.08 -133   0.15
 2.400      1.13  0.10 -124   0.13
 5.500      1.29  0.28 -102   0.15
10.000      1.68  0.53  -84   0.53
!
! (c) 2016  Infineon Technologies AG, Munich
