! Infineon Technologies  Discrete & RF Semiconductors
! BFP740F
! VCE =  1.5 V,  IC =  8.0 mA
! Common Emitter S-Parameters:                            Oct 2012
# GHz  S  MA  R  50
!  f         S11            S21            S12            S22
! GHz     MAG   ANG      MAG   ANG      MAG   ANG      MAG   ANG
 0.030  0.9173   -2.3  22.230  177.6  0.0016   90.0  0.9962   -1.5
 0.040  0.9174   -3.1  22.280  177.0  0.0022   83.3  0.9969   -2.0
 0.050  0.9161   -3.9  22.456  176.5  0.0031   74.9  0.9962   -2.7
 0.060  0.9163   -4.7  22.389  176.0  0.0040   85.9  0.9968   -3.1
 0.070  0.9144   -5.4  22.368  175.3  0.0036   83.4  0.9969   -3.7
 0.080  0.9151   -6.2  22.315  174.8  0.0045   83.1  0.9954   -4.2
 0.090  0.9147   -6.9  22.276  174.1  0.0048   85.7  0.9963   -4.7
 0.100  0.9142   -7.7  22.232  173.5  0.0054   86.2  0.9944   -5.3
 0.110  0.9137   -8.4  22.177  172.9  0.0058   86.4  0.9944   -5.8
 0.120  0.9126   -9.2  22.064  172.4  0.0066   80.9  0.9930   -6.4
 0.130  0.9124  -10.0  22.046  171.8  0.0072   86.5  0.9918   -6.9
 0.140  0.9115  -10.7  21.904  171.3  0.0077   82.3  0.9902   -7.4
 0.150  0.9107  -11.5  21.948  170.7  0.0081   83.5  0.9892   -7.9
 0.200  0.9069  -15.1  21.595  168.2  0.0111   81.6  0.9841  -10.5
 0.250  0.9022  -18.8  21.415  165.7  0.0136   80.1  0.9771  -13.0
 0.300  0.8980  -22.4  21.119  163.3  0.0163   78.0  0.9702  -15.5
 0.350  0.8930  -26.0  20.900  161.1  0.0190   75.1  0.9626  -18.0
 0.400  0.8886  -29.6  20.682  158.8  0.0217   73.3  0.9523  -20.4
 0.450  0.8834  -33.1  20.449  156.6  0.0240   71.5  0.9446  -22.8
 0.500  0.8781  -36.6  20.183  154.5  0.0264   69.4  0.9330  -25.2
 0.600  0.8660  -43.5  19.733  150.1  0.0311   65.3  0.9100  -29.9
 0.700  0.8541  -50.2  19.203  146.1  0.0354   61.6  0.8857  -34.5
 0.800  0.8401  -57.0  18.784  141.8  0.0394   58.0  0.8582  -38.9
 0.900  0.8269  -63.2  18.173  138.0  0.0430   54.6  0.8300  -43.2
 1.000  0.8128  -69.3  17.593  134.2  0.0461   51.1  0.8008  -47.3
 1.100  0.7988  -75.0  16.978  130.6  0.0490   48.0  0.7712  -51.3
 1.200  0.7842  -80.8  16.411  127.0  0.0515   45.1  0.7426  -55.1
 1.300  0.7712  -86.0  15.825  123.7  0.0537   42.4  0.7147  -58.7
 1.400  0.7589  -91.3  15.281  120.5  0.0556   39.9  0.6886  -62.1
 1.500  0.7471  -96.1  14.728  117.6  0.0573   37.5  0.6631  -65.4
 1.600  0.7364 -101.0  14.249  114.7  0.0587   35.3  0.6406  -68.6
 1.700  0.7263 -105.4  13.733  111.9  0.0601   33.3  0.6172  -71.7
 1.800  0.7201 -109.4  13.225  109.5  0.0613   31.3  0.5985  -74.8
 1.900  0.7118 -113.4  12.766  107.0  0.0622   29.5  0.5789  -77.7
 2.000  0.7056 -117.1  12.325  104.6  0.0632   27.8  0.5626  -80.7
 2.100  0.7001 -121.1  11.898  102.1  0.0639   25.9  0.5465  -83.8
 2.200  0.6941 -124.3  11.477  100.0  0.0646   24.5  0.5318  -86.4
 2.300  0.6883 -127.6  11.094   97.9  0.0652   23.1  0.5185  -88.9
 2.400  0.6836 -130.4  10.707   96.0  0.0655   21.7  0.5069  -91.3
 2.500  0.6788 -133.3  10.362   94.1  0.0660   20.5  0.4963  -93.5
 2.600  0.6750 -136.0  10.032   92.3  0.0662   19.4  0.4855  -95.8
 2.700  0.6711 -138.7   9.729   90.5  0.0666   18.3  0.4770  -97.7
 2.800  0.6683 -141.2   9.439   88.8  0.0668   17.2  0.4681  -99.9
 2.900  0.6651 -143.6   9.156   87.1  0.0671   16.1  0.4614 -101.7
 3.000  0.6628 -145.9   8.900   85.4  0.0672   15.3  0.4536 -103.7
 3.100  0.6600 -148.2   8.658   83.8  0.0675   14.5  0.4480 -105.5
 3.200  0.6576 -150.2   8.413   82.3  0.0675   13.5  0.4421 -107.2
 3.300  0.6560 -152.4   8.191   80.8  0.0677   12.7  0.4367 -108.8
 3.400  0.6548 -154.3   7.974   79.3  0.0677   12.0  0.4316 -110.4
 3.500  0.6533 -156.2   7.766   77.9  0.0678   11.2  0.4266 -111.8
 3.600  0.6521 -158.1   7.573   76.4  0.0678   10.5  0.4220 -113.2
 3.700  0.6514 -159.9   7.393   75.1  0.0679    9.8  0.4171 -114.5
 3.800  0.6508 -161.7   7.213   73.7  0.0679    9.2  0.4120 -116.0
 3.900  0.6506 -163.4   7.050   72.3  0.0679    8.6  0.4077 -117.3
 4.000  0.6495 -165.2   6.881   70.9  0.0680    7.9  0.4034 -118.6
 4.100  0.6500 -166.7   6.728   69.7  0.0680    7.3  0.3989 -119.9
 4.200  0.6495 -168.4   6.579   68.3  0.0679    6.7  0.3945 -121.2
 4.300  0.6500 -170.0   6.437   67.0  0.0680    6.1  0.3903 -122.4
 4.400  0.6500 -171.6   6.299   65.7  0.0678    5.5  0.3861 -123.8
 4.500  0.6505 -173.0   6.168   64.5  0.0678    5.0  0.3827 -124.9
 4.600  0.6515 -174.6   6.046   63.2  0.0677    4.5  0.3780 -126.2
 4.700  0.6521 -176.0   5.917   61.9  0.0677    4.1  0.3741 -127.5
 4.800  0.6535 -177.5   5.805   60.7  0.0676    3.6  0.3706 -128.8
 4.900  0.6541 -178.8   5.685   59.4  0.0675    3.0  0.3667 -130.1
 5.000  0.6551  179.7   5.580   58.2  0.0675    2.6  0.3631 -131.3
 5.100  0.6568  178.4   5.471   57.0  0.0672    2.1  0.3594 -132.7
 5.200  0.6572  176.9   5.374   55.8  0.0672    1.7  0.3564 -133.9
 5.300  0.6580  175.6   5.273   54.5  0.0670    1.2  0.3529 -135.2
 5.400  0.6591  174.2   5.179   53.4  0.0669    0.8  0.3498 -136.4
 5.500  0.6599  172.9   5.086   52.2  0.0668    0.4  0.3472 -137.7
 5.600  0.6603  171.6   4.997   51.1  0.0665    0.0  0.3435 -138.8
 5.700  0.6610  170.3   4.910   49.8  0.0664   -0.6  0.3403 -140.3
 5.800  0.6615  168.8   4.830   48.6  0.0661   -0.8  0.3376 -141.6
 5.900  0.6621  167.6   4.747   47.5  0.0659   -1.3  0.3344 -142.7
 6.000  0.6626  166.1   4.670   46.3  0.0657   -1.5  0.3302 -144.1
 6.100  0.6630  164.9   4.589   45.0  0.0654   -2.0  0.3273 -145.5
 6.200  0.6631  163.4   4.521   43.8  0.0651   -2.4  0.3245 -146.7
 6.300  0.6626  162.2   4.437   42.7  0.0648   -2.6  0.3202 -148.1
 6.400  0.6619  160.8   4.369   41.5  0.0644   -2.9  0.3174 -149.3
 6.500  0.6617  159.3   4.294   40.3  0.0639   -3.1  0.3130 -150.7
 6.600  0.6610  157.9   4.226   39.1  0.0637   -3.3  0.3095 -151.9
 6.700  0.6602  156.5   4.150   38.0  0.0632   -3.4  0.3049 -153.2
 6.800  0.6602  155.1   4.087   36.8  0.0630   -3.6  0.3009 -154.5
 6.900  0.6593  153.7   4.016   35.7  0.0625   -3.5  0.2961 -155.9
 7.000  0.6594  152.3   3.954   34.5  0.0623   -3.4  0.2916 -157.2
 7.100  0.6590  151.0   3.888   33.4  0.0621   -3.2  0.2868 -158.8
 7.200  0.6596  149.5   3.829   32.3  0.0619   -3.1  0.2835 -160.3
 7.300  0.6604  148.2   3.765   31.1  0.0618   -3.0  0.2799 -162.0
 7.400  0.6621  146.9   3.710   30.0  0.0618   -2.8  0.2764 -163.8
 7.500  0.6639  145.7   3.653   29.0  0.0620   -2.7  0.2741 -165.6
 7.600  0.6663  144.2   3.598   27.8  0.0622   -2.6  0.2713 -167.6
 7.700  0.6689  143.1   3.540   26.8  0.0623   -2.7  0.2687 -169.9
 7.800  0.6728  141.6   3.490   25.5  0.0626   -2.8  0.2676 -172.3
 7.900  0.6760  140.6   3.434   24.5  0.0627   -2.9  0.2661 -174.8
 8.000  0.6810  139.2   3.383   23.3  0.0628   -3.0  0.2655 -177.6
 8.500  0.7058  133.8   3.127   17.7  0.0631   -4.3  0.2724  168.2
 9.000  0.7294  129.4   2.886   12.3  0.0627   -5.5  0.2974  154.0
 9.500  0.7478  126.4   2.658    7.2  0.0619   -6.4  0.3396  142.6
10.000  0.7635  123.0   2.447    2.3  0.0609   -6.8  0.3914  134.3
!
!  f       NFmin   Gammaopt  rn/50
! GHz       dB    MAG  ANG    -
 0.450      0.42  0.27    6   0.19
 0.900      0.47  0.27   11   0.15
 1.500      0.53  0.26   23   0.11
 1.900      0.58  0.26   31   0.10
 2.400      0.63  0.25   42   0.09
 3.500      0.76  0.22   65   0.10
 5.500      0.98  0.13  118   0.12
10.000      1.43  0.38 -121   0.08
!
! (c) 2012  Infineon Technologies AG, Munich
