! Infineon Technologies  Discrete & RF Semiconductors
! BFP720FESD
! VCE =  2.5 V,  IC =  8.0 mA
! Common Emitter S-Parameters:                            Jan 2016
# GHz  S  MA  R  50
!  f         S11            S21            S12            S22
! GHz     MAG   ANG      MAG   ANG      MAG   ANG      MAG   ANG
 0.010  0.9066    0.0  21.831  179.5  0.0003   35.1  0.9847    1.3
 0.015  0.9021   -0.5  21.805  179.3  0.0004   85.1  0.9898    0.3
 0.020  0.8976   -1.1  21.780  179.0  0.0006  107.6  0.9952   -0.6
 0.025  0.8980   -1.4  21.770  178.8  0.0008  100.9  0.9955   -0.8
 0.030  0.8984   -1.7  21.761  178.5  0.0010   96.8  0.9959   -1.0
 0.035  0.8989   -2.1  21.752  178.3  0.0012   94.1  0.9962   -1.2
 0.040  0.8994   -2.4  21.743  178.0  0.0014   92.1  0.9966   -1.3
 0.045  0.8999   -2.7  21.735  177.8  0.0016   90.7  0.9969   -1.5
 0.050  0.9004   -3.0  21.727  177.5  0.0018   89.6  0.9973   -1.7
 0.055  0.9002   -3.3  21.737  177.3  0.0020   89.1  0.9973   -1.9
 0.060  0.8999   -3.5  21.748  177.1  0.0021   88.7  0.9973   -2.1
 0.065  0.8997   -3.8  21.759  177.0  0.0023   88.3  0.9973   -2.3
 0.070  0.8996   -4.1  21.770  176.8  0.0025   88.0  0.9973   -2.5
 0.075  0.8994   -4.3  21.781  176.6  0.0026   87.7  0.9973   -2.7
 0.080  0.8993   -4.6  21.792  176.4  0.0028   87.4  0.9973   -2.8
 0.085  0.8991   -4.9  21.804  176.2  0.0030   87.2  0.9974   -3.0
 0.090  0.8990   -5.2  21.816  176.1  0.0032   87.0  0.9975   -3.2
 0.095  0.8990   -5.4  21.828  175.9  0.0033   86.9  0.9975   -3.4
 0.100  0.8989   -5.7  21.840  175.7  0.0035   86.7  0.9976   -3.6
 0.105  0.8983   -6.0  21.836  175.5  0.0037   86.6  0.9973   -3.8
 0.110  0.8978   -6.3  21.832  175.2  0.0038   86.5  0.9970   -4.0
 0.115  0.8972   -6.6  21.829  175.0  0.0040   86.5  0.9967   -4.2
 0.120  0.8967   -6.9  21.825  174.8  0.0041   86.4  0.9964   -4.4
 0.125  0.8963   -7.2  21.823  174.6  0.0043   86.3  0.9961   -4.6
 0.130  0.8958   -7.6  21.820  174.3  0.0045   86.3  0.9959   -4.8
 0.135  0.8954   -7.9  21.818  174.1  0.0046   86.2  0.9957   -5.0
 0.140  0.8950   -8.2  21.816  173.9  0.0048   86.2  0.9954   -5.2
 0.145  0.8946   -8.5  21.815  173.6  0.0049   86.1  0.9952   -5.4
 0.150  0.8943   -8.8  21.814  173.4  0.0051   86.1  0.9950   -5.6
 0.155  0.8940   -9.1  21.808  173.2  0.0053   85.7  0.9947   -5.8
 0.160  0.8938   -9.3  21.802  173.0  0.0054   85.4  0.9943   -6.0
 0.165  0.8936   -9.6  21.796  172.7  0.0056   85.0  0.9940   -6.2
 0.170  0.8934   -9.9  21.791  172.5  0.0058   84.7  0.9937   -6.4
 0.175  0.8932  -10.1  21.786  172.3  0.0059   84.4  0.9934   -6.5
 0.180  0.8930  -10.4  21.781  172.1  0.0061   84.2  0.9931   -6.7
 0.185  0.8929  -10.7  21.777  171.9  0.0063   83.9  0.9928   -6.9
 0.190  0.8928  -11.0  21.773  171.6  0.0065   83.7  0.9925   -7.1
 0.195  0.8927  -11.2  21.769  171.4  0.0066   83.4  0.9923   -7.3
 0.200  0.8926  -11.5  21.766  171.2  0.0068   83.2  0.9920   -7.5
 0.220  0.8912  -12.7  21.693  170.2  0.0074   82.5  0.9903   -8.2
 0.240  0.8902  -13.8  21.626  169.2  0.0080   81.9  0.9888   -8.9
 0.260  0.8889  -15.0  21.579  168.3  0.0086   81.2  0.9871   -9.7
 0.280  0.8873  -16.1  21.549  167.5  0.0093   80.6  0.9851  -10.4
 0.300  0.8861  -17.2  21.523  166.7  0.0100   80.0  0.9833  -11.1
 0.320  0.8838  -18.3  21.458  165.9  0.0106   79.2  0.9809  -11.9
 0.340  0.8819  -19.4  21.398  165.0  0.0113   78.5  0.9787  -12.6
 0.360  0.8801  -20.6  21.333  164.2  0.0119   77.9  0.9764  -13.3
 0.380  0.8784  -21.7  21.262  163.3  0.0126   77.3  0.9738  -14.0
 0.400  0.8770  -22.8  21.196  162.4  0.0132   76.7  0.9713  -14.7
 0.420  0.8747  -23.9  21.114  161.6  0.0138   76.0  0.9686  -15.4
 0.440  0.8728  -25.0  21.036  160.8  0.0145   75.4  0.9660  -16.1
 0.450  0.8719  -25.5  20.998  160.4  0.0148   75.1  0.9648  -16.5
 0.460  0.8705  -26.1  20.961  160.0  0.0151   74.7  0.9632  -16.9
 0.480  0.8679  -27.2  20.889  159.1  0.0158   74.0  0.9602  -17.6
 0.500  0.8657  -28.3  20.822  158.3  0.0164   73.4  0.9573  -18.3
 0.520  0.8627  -29.4  20.731  157.5  0.0170   72.7  0.9537  -19.0
 0.540  0.8601  -30.4  20.643  156.7  0.0176   72.0  0.9503  -19.6
 0.560  0.8577  -31.5  20.560  155.9  0.0181   71.4  0.9470  -20.3
 0.580  0.8556  -32.6  20.482  155.0  0.0187   70.8  0.9438  -21.0
 0.600  0.8539  -33.7  20.407  154.2  0.0193   70.2  0.9408  -21.7
 0.620  0.8508  -34.7  20.317  153.5  0.0199   69.6  0.9372  -22.4
 0.640  0.8480  -35.8  20.230  152.7  0.0204   68.9  0.9337  -23.0
 0.660  0.8455  -36.9  20.146  152.0  0.0210   68.4  0.9304  -23.7
 0.680  0.8433  -37.9  20.066  151.3  0.0215   67.8  0.9272  -24.3
 0.700  0.8414  -39.0  19.989  150.5  0.0221   67.3  0.9241  -25.0
 0.720  0.8385  -40.0  19.882  149.8  0.0226   66.6  0.9201  -25.6
 0.740  0.8357  -40.9  19.778  149.0  0.0232   66.0  0.9162  -26.3
 0.760  0.8333  -41.9  19.677  148.3  0.0237   65.4  0.9125  -27.0
 0.780  0.8311  -42.9  19.580  147.6  0.0243   64.8  0.9088  -27.6
 0.800  0.8291  -43.9  19.486  146.8  0.0248   64.3  0.9053  -28.3
 0.820  0.8260  -44.9  19.396  146.1  0.0253   63.7  0.9014  -28.9
 0.840  0.8232  -46.0  19.310  145.4  0.0258   63.1  0.8975  -29.5
 0.860  0.8207  -47.0  19.226  144.7  0.0264   62.5  0.8938  -30.1
 0.880  0.8184  -48.0  19.145  144.0  0.0269   61.9  0.8901  -30.8
 0.900  0.8164  -49.1  19.067  143.3  0.0274   61.4  0.8866  -31.4
 0.920  0.8132  -50.1  18.964  142.6  0.0279   60.8  0.8823  -32.0
 0.940  0.8103  -51.0  18.863  142.0  0.0283   60.3  0.8781  -32.7
 0.960  0.8076  -52.0  18.764  141.3  0.0288   59.7  0.8740  -33.3
 0.980  0.8052  -53.0  18.669  140.6  0.0292   59.2  0.8700  -33.9
 1.000  0.8030  -54.0  18.576  139.9  0.0297   58.7  0.8661  -34.6
 1.020  0.7999  -54.9  18.479  139.3  0.0301   58.1  0.8619  -35.2
 1.040  0.7970  -55.9  18.384  138.6  0.0306   57.6  0.8578  -35.7
 1.060  0.7943  -56.9  18.291  137.9  0.0310   57.1  0.8537  -36.3
 1.080  0.7918  -57.8  18.201  137.3  0.0315   56.6  0.8498  -36.9
 1.100  0.7896  -58.8  18.113  136.6  0.0319   56.1  0.8459  -37.5
 1.120  0.7866  -59.7  18.014  135.9  0.0323   55.5  0.8416  -38.1
 1.140  0.7838  -60.7  17.918  135.3  0.0327   55.0  0.8374  -38.7
 1.160  0.7812  -61.6  17.825  134.6  0.0332   54.4  0.8334  -39.3
 1.180  0.7788  -62.5  17.734  133.9  0.0336   53.9  0.8294  -40.0
 1.200  0.7766  -63.5  17.645  133.2  0.0340   53.4  0.8255  -40.6
 1.220  0.7736  -64.4  17.546  132.6  0.0344   52.9  0.8212  -41.1
 1.240  0.7708  -65.3  17.448  132.0  0.0347   52.3  0.8171  -41.7
 1.260  0.7682  -66.2  17.353  131.4  0.0351   51.8  0.8130  -42.3
 1.280  0.7658  -67.2  17.259  130.7  0.0354   51.3  0.8089  -42.8
 1.300  0.7636  -68.1  17.168  130.1  0.0358   50.8  0.8050  -43.4
 1.320  0.7606  -69.0  17.066  129.5  0.0361   50.3  0.8006  -43.9
 1.340  0.7577  -69.9  16.966  128.8  0.0365   49.8  0.7963  -44.5
 1.360  0.7551  -70.8  16.868  128.2  0.0368   49.3  0.7920  -45.1
 1.380  0.7526  -71.7  16.773  127.6  0.0372   48.9  0.7878  -45.6
 1.400  0.7503  -72.6  16.679  126.9  0.0375   48.4  0.7837  -46.2
 1.420  0.7477  -73.4  16.578  126.4  0.0378   48.0  0.7798  -46.7
 1.440  0.7453  -74.2  16.478  125.8  0.0381   47.5  0.7759  -47.2
 1.460  0.7430  -75.0  16.380  125.3  0.0385   47.1  0.7720  -47.7
 1.480  0.7408  -75.8  16.283  124.8  0.0388   46.7  0.7683  -48.3
 1.500  0.7388  -76.6  16.188  124.2  0.0391   46.3  0.7646  -48.8
 1.520  0.7362  -77.4  16.097  123.6  0.0394   45.8  0.7605  -49.3
 1.540  0.7337  -78.3  16.007  123.0  0.0397   45.3  0.7565  -49.9
 1.560  0.7315  -79.2  15.919  122.4  0.0399   44.8  0.7525  -50.4
 1.580  0.7293  -80.0  15.832  121.8  0.0402   44.4  0.7486  -50.9
 1.600  0.7274  -80.9  15.748  121.2  0.0405   43.9  0.7448  -51.5
 1.620  0.7248  -81.6  15.654  120.7  0.0407   43.5  0.7411  -52.0
 1.640  0.7223  -82.4  15.562  120.1  0.0410   43.1  0.7375  -52.4
 1.660  0.7199  -83.2  15.471  119.6  0.0412   42.7  0.7340  -52.9
 1.680  0.7177  -83.9  15.381  119.1  0.0415   42.4  0.7305  -53.4
 1.700  0.7156  -84.7  15.293  118.5  0.0417   42.0  0.7270  -53.9
 1.720  0.7133  -85.4  15.191  118.0  0.0419   41.6  0.7235  -54.4
 1.740  0.7112  -86.2  15.090  117.5  0.0421   41.2  0.7200  -54.8
 1.760  0.7091  -86.9  14.990  117.0  0.0424   40.8  0.7165  -55.3
 1.780  0.7072  -87.7  14.891  116.5  0.0426   40.4  0.7131  -55.8
 1.800  0.7054  -88.4  14.794  116.0  0.0428   40.0  0.7098  -56.3
 1.820  0.7032  -89.2  14.716  115.5  0.0430   39.6  0.7063  -56.8
 1.840  0.7011  -89.9  14.638  115.0  0.0432   39.3  0.7029  -57.3
 1.860  0.6991  -90.7  14.562  114.5  0.0435   38.9  0.6995  -57.8
 1.880  0.6972  -91.4  14.487  114.0  0.0437   38.6  0.6962  -58.3
 1.900  0.6955  -92.2  14.413  113.5  0.0439   38.2  0.6929  -58.8
 1.920  0.6933  -92.8  14.322  113.0  0.0441   37.9  0.6898  -59.2
 1.940  0.6912  -93.5  14.232  112.6  0.0442   37.5  0.6867  -59.6
 1.960  0.6892  -94.1  14.142  112.1  0.0444   37.2  0.6836  -60.0
 1.980  0.6873  -94.8  14.054  111.6  0.0445   36.8  0.6806  -60.5
 2.000  0.6855  -95.4  13.967  111.1  0.0447   36.5  0.6776  -60.9
 2.020  0.6833  -96.1  13.886  110.7  0.0448   36.2  0.6745  -61.3
 2.040  0.6813  -96.7  13.806  110.2  0.0450   35.8  0.6714  -61.8
 2.060  0.6793  -97.4  13.726  109.7  0.0451   35.5  0.6684  -62.2
 2.080  0.6774  -98.1  13.648  109.3  0.0453   35.2  0.6654  -62.7
 2.100  0.6756  -98.8  13.570  108.8  0.0454   34.8  0.6624  -63.1
 2.120  0.6739  -99.4  13.493  108.3  0.0456   34.5  0.6595  -63.6
 2.140  0.6723 -100.1  13.418  107.9  0.0457   34.2  0.6567  -64.0
 2.160  0.6708 -100.8  13.343  107.4  0.0459   33.8  0.6538  -64.5
 2.180  0.6694 -101.5  13.269  106.9  0.0460   33.5  0.6510  -64.9
 2.200  0.6681 -102.2  13.196  106.4  0.0462   33.2  0.6483  -65.4
 2.220  0.6661 -102.8  13.120  106.0  0.0463   32.9  0.6455  -65.8
 2.240  0.6641 -103.4  13.045  105.6  0.0465   32.6  0.6428  -66.2
 2.260  0.6622 -104.1  12.971  105.1  0.0466   32.3  0.6401  -66.6
 2.280  0.6604 -104.7  12.897  104.7  0.0467   32.0  0.6374  -67.0
 2.300  0.6587 -105.3  12.825  104.3  0.0469   31.7  0.6347  -67.5
 2.320  0.6570 -105.9  12.752  103.8  0.0470   31.4  0.6321  -67.9
 2.340  0.6554 -106.6  12.681  103.4  0.0472   31.1  0.6295  -68.3
 2.360  0.6539 -107.2  12.611  102.9  0.0473   30.8  0.6270  -68.7
 2.380  0.6525 -107.9  12.541  102.5  0.0475   30.5  0.6245  -69.2
 2.400  0.6512 -108.5  12.472  102.0  0.0476   30.2  0.6220  -69.6
 2.420  0.6495 -109.1  12.400  101.6  0.0477   29.9  0.6194  -70.0
 2.440  0.6478 -109.7  12.329  101.2  0.0478   29.6  0.6169  -70.4
 2.460  0.6462 -110.3  12.258  100.8  0.0478   29.4  0.6143  -70.8
 2.480  0.6447 -110.9  12.187  100.4  0.0479   29.1  0.6118  -71.2
 2.500  0.6433 -111.5  12.118  100.0  0.0480   28.8  0.6094  -71.7
 2.520  0.6419 -112.1  12.049   99.6  0.0481   28.5  0.6070  -72.1
 2.540  0.6406 -112.7  11.980   99.2  0.0481   28.2  0.6046  -72.5
 2.560  0.6394 -113.4  11.913   98.8  0.0482   28.0  0.6022  -72.9
 2.580  0.6383 -114.0  11.845   98.3  0.0483   27.7  0.5999  -73.4
 2.600  0.6372 -114.6  11.779   97.9  0.0484   27.4  0.5976  -73.8
 2.620  0.6355 -115.1  11.711   97.5  0.0485   27.1  0.5954  -74.2
 2.640  0.6339 -115.7  11.644   97.2  0.0485   26.9  0.5932  -74.5
 2.660  0.6323 -116.3  11.578   96.8  0.0486   26.6  0.5910  -74.9
 2.680  0.6308 -116.8  11.512   96.4  0.0486   26.4  0.5889  -75.3
 2.700  0.6293 -117.4  11.446   96.0  0.0487   26.1  0.5868  -75.7
 2.720  0.6280 -117.9  11.381   95.6  0.0487   25.9  0.5847  -76.0
 2.740  0.6266 -118.5  11.317   95.2  0.0488   25.6  0.5826  -76.4
 2.760  0.6254 -119.1  11.253   94.8  0.0489   25.4  0.5806  -76.8
 2.780  0.6241 -119.6  11.190   94.4  0.0489   25.1  0.5786  -77.2
 2.800  0.6230 -120.2  11.127   94.0  0.0490   24.9  0.5766  -77.6
 2.820  0.6217 -120.7  11.066   93.6  0.0490   24.7  0.5747  -77.9
 2.840  0.6205 -121.2  11.006   93.3  0.0490   24.4  0.5729  -78.3
 2.860  0.6193 -121.7  10.946   92.9  0.0491   24.2  0.5711  -78.6
 2.880  0.6182 -122.2  10.887   92.6  0.0491   24.0  0.5693  -78.9
 2.900  0.6171 -122.7  10.828   92.2  0.0491   23.7  0.5675  -79.3
 2.920  0.6161 -123.2  10.769   91.8  0.0491   23.5  0.5657  -79.6
 2.940  0.6151 -123.8  10.711   91.5  0.0491   23.3  0.5640  -80.0
 2.960  0.6142 -124.3  10.654   91.1  0.0492   23.1  0.5623  -80.3
 2.980  0.6133 -124.8  10.597   90.7  0.0492   22.8  0.5606  -80.7
 3.000  0.6125 -125.3  10.540   90.3  0.0492   22.6  0.5589  -81.0
 3.100  0.6067 -127.4  10.270   88.9  0.0492   21.9  0.5525  -82.3
 3.200  0.6018 -129.5  10.007   87.4  0.0493   21.2  0.5464  -83.6
 3.300  0.5977 -131.6   9.751   85.8  0.0494   20.5  0.5405  -84.9
 3.400  0.5944 -133.8   9.503   84.1  0.0494   19.8  0.5350  -86.2
 3.500  0.5920 -136.0   9.263   82.4  0.0495   19.1  0.5297  -87.6
 3.600  0.5900 -137.8   9.066   81.1  0.0496   18.5  0.5256  -88.7
 3.700  0.5885 -139.7   8.873   79.7  0.0496   18.0  0.5216  -89.8
 3.800  0.5877 -141.6   8.686   78.3  0.0497   17.4  0.5179  -90.9
 3.900  0.5876 -143.4   8.505   76.8  0.0498   16.9  0.5144  -92.0
 4.000  0.5880 -145.3   8.329   75.3  0.0499   16.3  0.5110  -93.1
 4.100  0.5871 -147.1   8.164   74.0  0.0500   15.8  0.5071  -94.3
 4.200  0.5869 -148.9   8.004   72.6  0.0500   15.2  0.5034  -95.6
 4.300  0.5872 -150.8   7.848   71.1  0.0501   14.7  0.5000  -96.8
 4.400  0.5881 -152.6   7.698   69.6  0.0501   14.1  0.4968  -98.1
 4.500  0.5896 -154.4   7.554   68.0  0.0502   13.6  0.4939  -99.4
 4.600  0.5893 -156.0   7.404   66.7  0.0501   13.2  0.4904 -100.6
 4.700  0.5895 -157.6   7.258   65.4  0.0500   12.7  0.4871 -101.8
 4.800  0.5902 -159.2   7.115   64.1  0.0499   12.3  0.4841 -103.0
 4.900  0.5913 -160.7   6.977   62.7  0.0498   11.8  0.4812 -104.2
 5.000  0.5928 -162.3   6.843   61.2  0.0497   11.4  0.4786 -105.4
 5.100  0.5913 -163.7   6.720   60.0  0.0496   11.1  0.4753 -106.4
 5.200  0.5901 -165.1   6.600   58.7  0.0494   10.7  0.4722 -107.5
 5.300  0.5892 -166.5   6.483   57.4  0.0493   10.4  0.4692 -108.5
 5.400  0.5887 -167.9   6.370   56.1  0.0491   10.0  0.4664 -109.6
 5.500  0.5886 -169.3   6.260   54.7  0.0490    9.7  0.4637 -110.7
 5.600  0.5868 -170.7   6.164   53.5  0.0489    9.4  0.4598 -111.8
 5.700  0.5853 -172.2   6.072   52.3  0.0487    9.2  0.4562 -113.0
 5.800  0.5842 -173.6   5.981   51.1  0.0486    8.9  0.4527 -114.2
 5.900  0.5835 -175.1   5.894   49.8  0.0484    8.7  0.4494 -115.4
 6.000  0.5832 -176.5   5.810   48.5  0.0483    8.4  0.4463 -116.6
 6.100  0.5815 -178.0   5.722   47.3  0.0481    8.2  0.4423 -117.8
 6.200  0.5803 -179.6   5.636   46.1  0.0478    8.1  0.4385 -119.1
 6.300  0.5795  178.9   5.553   44.8  0.0476    7.9  0.4350 -120.4
 6.400  0.5791  177.3   5.473   43.5  0.0473    7.8  0.4316 -121.7
 6.500  0.5791  175.8   5.396   42.1  0.0471    7.6  0.4285 -123.0
 6.600  0.5783  174.3   5.311   40.9  0.0467    7.7  0.4240 -124.0
 6.800  0.5780  171.3   5.148   38.4  0.0459    8.0  0.4153 -126.0
 7.000  0.5792  168.3   4.995   35.8  0.0451    8.3  0.4071 -128.1
 7.200  0.5805  165.7   4.843   33.6  0.0448    9.7  0.3971 -130.0
 7.400  0.5829  163.2   4.698   31.3  0.0444   11.1  0.3877 -132.1
 7.600  0.5886  160.6   4.570   28.9  0.0447   12.4  0.3794 -134.8
 7.800  0.5974  158.2   4.461   26.4  0.0455   13.6  0.3731 -138.4
 8.000  0.6073  155.8   4.360   23.8  0.0464   14.7  0.3683 -142.0
 8.200  0.6145  153.4   4.232   21.2  0.0474   14.7  0.3642 -147.2
 8.400  0.6227  151.0   4.114   18.5  0.0483   14.6  0.3631 -152.4
 8.600  0.6284  148.8   3.993   15.9  0.0490   14.4  0.3620 -157.8
 8.800  0.6316  146.8   3.868   13.3  0.0495   14.1  0.3611 -163.3
 9.000  0.6355  144.7   3.751   10.6  0.0500   13.7  0.3636 -168.9
 9.200  0.6392  142.9   3.629    8.7  0.0503   13.5  0.3684 -174.5
 9.400  0.6435  141.2   3.511    6.7  0.0506   13.3  0.3766 -180.0
 9.600  0.6512  139.2   3.403    4.4  0.0509   13.2  0.3892  174.5
 9.800  0.6625  136.9   3.305    1.9  0.0510   13.2  0.4066  169.2
10.000  0.6747  134.8   3.213   -0.7  0.0512   13.2  0.4272  164.3
!
!  f       NFmin   Gammaopt  rn/50
! GHz       dB    MAG  ANG    -
 0.450      0.62  0.38    3   0.13
 2.400      0.71  0.25   30   0.13
 5.500      0.86  0.32  112   0.09
10.000      1.34  0.28 -156   0.10
!
! (c) 2016  Infineon Technologies AG, Munich
