! Infineon Technologies  Discrete & RF Semiconductors
! BFP720
! VCE =  1.5 V,  IC =  8.0 mA
! Common Emitter S-Parameters:                            Aug 2012
# GHz  S  MA  R  50
!  f         S11            S21            S12            S22
! GHz     MAG   ANG      MAG   ANG      MAG   ANG      MAG   ANG
 0.010  0.9012    0.2  20.924 -179.8  0.0003   26.8  0.9765    1.1
 0.020  0.9016   -1.1  20.941  178.6  0.0009   94.2  0.9956   -0.7
 0.030  0.9010   -1.7  21.028  178.1  0.0013   91.0  0.9958   -1.1
 0.040  0.9006   -2.4  21.117  177.6  0.0017   89.2  0.9960   -1.5
 0.050  0.9004   -3.0  21.207  177.1  0.0021   88.2  0.9962   -1.9
 0.060  0.9001   -3.6  21.182  176.7  0.0026   87.2  0.9961   -2.4
 0.070  0.8999   -4.2  21.159  176.2  0.0030   86.5  0.9960   -2.8
 0.080  0.8999   -4.8  21.137  175.8  0.0034   86.0  0.9960   -3.2
 0.090  0.8999   -5.4  21.116  175.3  0.0038   85.6  0.9960   -3.7
 0.100  0.9000   -6.0  21.097  174.8  0.0043   85.3  0.9961   -4.1
 0.110  0.8991   -6.6  21.081  174.3  0.0046   85.1  0.9956   -4.5
 0.120  0.8984   -7.2  21.066  173.8  0.0050   84.9  0.9951   -4.9
 0.130  0.8977   -7.8  21.053  173.3  0.0054   84.7  0.9946   -5.3
 0.140  0.8971   -8.4  21.041  172.8  0.0058   84.5  0.9942   -5.7
 0.150  0.8966   -9.0  21.032  172.3  0.0062   84.4  0.9939   -6.2
 0.200  0.8922  -11.8  20.829  169.8  0.0081   83.6  0.9900   -8.2
 0.250  0.8881  -14.8  20.712  167.4  0.0101   81.1  0.9857  -10.2
 0.300  0.8829  -17.7  20.508  165.2  0.0121   79.6  0.9792  -12.2
 0.350  0.8768  -20.6  20.322  163.0  0.0141   78.0  0.9740  -14.3
 0.400  0.8722  -23.5  20.182  160.9  0.0161   76.4  0.9664  -16.4
 0.450  0.8653  -26.4  19.978  158.7  0.0180   74.6  0.9600  -18.3
 0.500  0.8591  -29.3  19.791  156.6  0.0199   73.1  0.9517  -20.2
 0.600  0.8453  -35.0  19.459  152.6  0.0235   69.8  0.9337  -24.1
 0.700  0.8308  -40.8  19.096  148.6  0.0271   66.5  0.9150  -28.0
 0.800  0.8142  -46.8  18.862  144.7  0.0304   63.5  0.8954  -31.8
 0.900  0.7988  -52.5  18.444  140.9  0.0335   60.4  0.8725  -35.5
 1.000  0.7818  -58.2  18.035  137.1  0.0365   57.3  0.8487  -39.2
 1.100  0.7654  -63.9  17.628  133.4  0.0392   54.3  0.8235  -42.8
 1.200  0.7478  -69.5  17.217  129.7  0.0417   51.5  0.7982  -46.3
 1.300  0.7310  -75.1  16.793  126.1  0.0441   48.8  0.7722  -49.7
 1.400  0.7147  -80.4  16.342  122.6  0.0462   46.1  0.7459  -52.8
 1.500  0.6987  -85.8  15.921  119.2  0.0480   43.7  0.7194  -55.9
 1.600  0.6819  -91.3  15.545  115.6  0.0497   41.2  0.6942  -58.9
 1.700  0.6674  -96.3  15.071  112.5  0.0512   39.0  0.6686  -61.9
 1.800  0.6551 -101.0  14.619  109.4  0.0525   36.8  0.6449  -64.6
 1.900  0.6423 -105.5  14.174  106.5  0.0537   34.8  0.6226  -67.3
 2.000  0.6326 -109.8  13.741  103.7  0.0548   33.0  0.6010  -69.9
 2.100  0.6217 -113.8  13.316  101.1  0.0556   31.2  0.5806  -72.1
 2.200  0.6139 -117.9  12.921   98.3  0.0565   29.4  0.5612  -74.6
 2.300  0.6057 -121.5  12.528   95.9  0.0572   27.9  0.5435  -76.8
 2.400  0.6000 -125.3  12.158   93.3  0.0580   26.3  0.5267  -79.2
 2.500  0.5927 -128.7  11.810   91.0  0.0585   24.9  0.5109  -81.2
 2.600  0.5876 -132.2  11.482   88.6  0.0592   23.6  0.4957  -83.3
 2.700  0.5822 -135.5  11.164   86.4  0.0596   22.3  0.4816  -85.4
 2.800  0.5787 -138.9  10.863   84.1  0.0601   21.0  0.4682  -87.6
 2.900  0.5733 -142.0  10.573   82.0  0.0605   19.9  0.4553  -89.5
 3.000  0.5696 -145.2  10.297   79.8  0.0609   18.7  0.4430  -91.6
 3.100  0.5628 -148.3  10.032   78.0  0.0612   17.7  0.4303  -93.5
 3.200  0.5576 -151.4   9.778   76.0  0.0614   16.6  0.4180  -95.5
 3.300  0.5541 -154.6   9.536   74.0  0.0617   15.6  0.4062  -97.6
 3.400  0.5524 -157.8   9.307   71.8  0.0620   14.5  0.3950  -99.8
 3.500  0.5525 -161.1   9.091   69.5  0.0623   13.5  0.3844 -102.1
 3.600  0.5479 -164.2   8.871   67.8  0.0624   12.7  0.3729 -104.3
 3.700  0.5450 -167.5   8.660   65.9  0.0626   11.8  0.3619 -106.5
 3.800  0.5438 -170.7   8.459   64.0  0.0627   10.9  0.3514 -108.9
 3.900  0.5444 -173.9   8.268   62.0  0.0629   10.1  0.3417 -111.5
 4.000  0.5467 -177.1   8.087   59.8  0.0631    9.2  0.3327 -114.2
 4.100  0.5452  179.9   7.898   58.1  0.0631    8.5  0.3224 -116.9
 4.200  0.5452  177.0   7.716   56.4  0.0631    7.7  0.3128 -119.7
 4.300  0.5467  174.1   7.541   54.6  0.0632    6.9  0.3041 -122.7
 4.400  0.5495  171.2   7.374   52.6  0.0632    6.2  0.2962 -125.9
 4.500  0.5537  168.3   7.216   50.6  0.0633    5.4  0.2893 -129.3
 4.600  0.5549  165.8   7.047   49.0  0.0632    4.8  0.2824 -132.4
 4.700  0.5572  163.4   6.882   47.4  0.0631    4.1  0.2762 -135.6
 4.800  0.5604  161.0   6.724   45.7  0.0630    3.5  0.2710 -138.9
 4.900  0.5647  158.6   6.573   43.8  0.0629    2.8  0.2668 -142.4
 5.000  0.5699  156.2   6.428   41.9  0.0629    2.2  0.2635 -146.0
 5.100  0.5723  154.3   6.285   40.5  0.0627    1.8  0.2612 -148.6
 5.200  0.5753  152.4   6.146   39.0  0.0626    1.3  0.2595 -151.4
 5.300  0.5789  150.6   6.012   37.5  0.0624    0.8  0.2583 -154.1
 5.400  0.5832  148.8   5.882   35.9  0.0623    0.4  0.2578 -156.9
 5.500  0.5880  147.0   5.757   34.2  0.0621   -0.1  0.2578 -159.7
 5.600  0.5899  145.6   5.640   32.9  0.0620   -0.4  0.2587 -161.4
 5.700  0.5923  144.2   5.527   31.5  0.0618   -0.7  0.2597 -163.1
 5.800  0.5949  142.8   5.417   30.1  0.0617   -1.0  0.2611 -164.7
 5.900  0.5979  141.4   5.310   28.6  0.0615   -1.3  0.2626 -166.4
 6.000  0.6013  140.1   5.208   27.0  0.0614   -1.6  0.2643 -168.0
 6.100  0.6013  138.9   5.112   25.8  0.0613   -1.6  0.2647 -168.7
 6.200  0.6015  137.7   5.018   24.5  0.0612   -1.7  0.2652 -169.5
 6.300  0.6020  136.6   4.928   23.1  0.0612   -1.8  0.2657 -170.2
 6.400  0.6027  135.4   4.840   21.7  0.0611   -1.9  0.2663 -170.9
 6.500  0.6037  134.2   4.755   20.2  0.0611   -2.0  0.2668 -171.6
 6.600  0.6020  133.1   4.678   19.0  0.0613   -2.0  0.2643 -173.7
 6.700  0.6006  132.1   4.603   17.8  0.0615   -2.0  0.2622 -175.8
 6.800  0.5994  131.0   4.530   16.5  0.0617   -2.0  0.2604 -177.9
 6.900  0.5984  129.9   4.459   15.1  0.0618   -2.0  0.2589  180.0
 7.000  0.5977  128.8   4.391   13.7  0.0620   -2.0  0.2578  177.8
 7.100  0.5974  127.5   4.332   12.5  0.0625   -2.2  0.2561  176.4
 7.200  0.5975  126.2   4.275   11.1  0.0630   -2.3  0.2546  175.0
 7.300  0.5978  125.0   4.221    9.8  0.0635   -2.5  0.2531  173.6
 7.400  0.5984  123.7   4.169    8.4  0.0640   -2.6  0.2519  172.2
 7.500  0.5994  122.5   4.119    7.0  0.0645   -2.8  0.2508  170.7
 7.600  0.6013  120.8   4.066    5.5  0.0650   -3.2  0.2497  168.3
 7.700  0.6037  119.1   4.014    4.0  0.0654   -3.7  0.2491  165.9
 7.800  0.6067  117.5   3.966    2.5  0.0659   -4.2  0.2489  163.5
 7.900  0.6101  115.9   3.921    0.9  0.0664   -4.6  0.2492  161.1
 8.000  0.6140  114.3   3.878   -0.7  0.0669   -5.0  0.2499  158.7
 8.500  0.6389  105.0   3.584   -8.8  0.0681   -7.3  0.2629  143.2
 9.000  0.6717   96.6   3.285  -16.4  0.0695   -9.2  0.3010  129.3
 9.500  0.7143   89.7   2.999  -23.5  0.0707  -11.8  0.3559  118.8
10.000  0.7544   83.7   2.711  -30.3  0.0706  -14.3  0.4154  110.5
10.500  0.7756   79.5   2.437  -35.3  0.0706  -15.3  0.4643  104.8
11.000  0.7894   78.1   2.268  -39.0  0.0724  -16.3  0.5014  101.8
11.500  0.8199   77.7   2.161  -44.2  0.0749  -18.3  0.5420  100.3
12.000  0.8468   76.1   2.028  -50.7  0.0758  -21.5  0.5809   98.1
!
!  f       NFmin   Gammaopt  rn/50
! GHz       dB    MAG  ANG    -
 0.450      0.48  0.35    2   0.16
 1.800      0.54  0.32   22   0.14
 2.400      0.59  0.26   45   0.25
 5.500      0.73  0.14   40   0.14
10.000      0.95  0.39  -84   0.22
!
! (c) 2012  Infineon Technologies AG, Munich
