! Infineon Technologies  Discrete & RF Semiconductors
! BFP740F
! VCE =  4.0 V,  IC =  18 mA
! Common Emitter S-Parameters:                            Oct 2012
# GHz  S  MA  R  50
!  f         S11            S21            S12            S22
! GHz     MAG   ANG      MAG   ANG      MAG   ANG      MAG   ANG
 0.030  0.7932   -3.4  41.264  175.9  0.0016   60.0  0.9771   -1.8
 0.040  0.7927   -4.7  41.152  175.0  0.0018   66.5  0.9775   -2.5
 0.050  0.7911   -5.8  41.260  174.3  0.0020   77.3  0.9766   -3.3
 0.060  0.7911   -6.9  40.971  173.5  0.0022   80.6  0.9768   -4.1
 0.070  0.7902   -8.2  40.934  172.6  0.0030   78.5  0.9772   -4.9
 0.080  0.7906   -9.4  40.618  171.8  0.0043   77.7  0.9757   -5.8
 0.090  0.7885  -10.5  40.560  170.8  0.0039   66.0  0.9747   -6.4
 0.100  0.7887  -11.8  40.283  170.0  0.0047   82.7  0.9734   -7.3
 0.110  0.7871  -12.9  40.107  169.2  0.0054   78.1  0.9705   -8.0
 0.120  0.7867  -14.1  39.864  168.4  0.0056   80.3  0.9687   -8.7
 0.130  0.7854  -15.2  39.656  167.6  0.0058   76.9  0.9667   -9.4
 0.140  0.7843  -16.4  39.401  166.9  0.0063   75.2  0.9643  -10.2
 0.150  0.7830  -17.5  39.289  166.0  0.0070   78.5  0.9618  -10.8
 0.200  0.7774  -23.1  38.184  162.5  0.0091   75.5  0.9496  -14.2
 0.250  0.7712  -28.6  37.293  159.3  0.0111   73.4  0.9348  -17.4
 0.300  0.7658  -33.8  36.319  156.3  0.0131   70.4  0.9198  -20.6
 0.350  0.7602  -39.1  35.448  153.4  0.0150   68.8  0.9045  -23.6
 0.400  0.7540  -44.3  34.684  150.6  0.0167   67.3  0.8859  -26.6
 0.450  0.7496  -49.1  33.849  147.9  0.0189   64.4  0.8705  -29.5
 0.500  0.7441  -54.0  33.073  145.4  0.0205   62.3  0.8507  -32.4
 0.600  0.7333  -63.5  31.558  140.2  0.0235   57.9  0.8126  -37.7
 0.700  0.7230  -72.1  30.032  135.5  0.0263   54.1  0.7730  -42.9
 0.800  0.7132  -80.5  28.575  130.9  0.0286   50.8  0.7332  -47.6
 0.900  0.7040  -88.0  27.098  126.8  0.0306   47.5  0.6944  -52.1
 1.000  0.6952  -95.2  25.706  122.9  0.0322   44.6  0.6569  -56.2
 1.100  0.6871 -101.6  24.369  119.3  0.0337   42.1  0.6211  -60.1
 1.200  0.6803 -107.7  23.122  115.8  0.0349   39.5  0.5886  -63.8
 1.300  0.6738 -113.2  21.945  112.7  0.0360   37.4  0.5579  -67.2
 1.400  0.6690 -118.4  20.859  109.8  0.0367   35.6  0.5312  -70.4
 1.500  0.6643 -123.0  19.845  107.2  0.0376   34.0  0.5057  -73.5
 1.600  0.6613 -127.4  18.922  104.6  0.0382   32.5  0.4840  -76.4
 1.700  0.6582 -131.5  18.055  102.2  0.0388   31.3  0.4626  -79.2
 1.800  0.6577 -135.2  17.255   99.9  0.0394   30.0  0.4450  -82.1
 1.900  0.6557 -138.7  16.517   97.8  0.0397   28.9  0.4282  -84.7
 2.000  0.6549 -142.0  15.827   95.7  0.0402   28.1  0.4136  -87.5
 2.100  0.6549 -145.2  15.156   93.6  0.0406   26.8  0.4016  -90.3
 2.200  0.6538 -148.0  14.545   91.8  0.0407   26.0  0.3898  -92.7
 2.300  0.6524 -150.6  13.975   90.0  0.0409   25.6  0.3796  -94.9
 2.400  0.6516 -153.1  13.449   88.3  0.0412   24.8  0.3707  -97.1
 2.500  0.6508 -155.4  12.955   86.7  0.0415   24.2  0.3627  -99.0
 2.600  0.6502 -157.7  12.502   85.1  0.0417   23.8  0.3553 -101.0
 2.700  0.6495 -159.7  12.068   83.6  0.0419   23.3  0.3490 -102.8
 2.800  0.6493 -161.8  11.674   82.1  0.0421   22.8  0.3437 -104.6
 2.900  0.6490 -163.7  11.286   80.7  0.0423   22.6  0.3387 -106.3
 3.000  0.6485 -165.5  10.940   79.2  0.0425   22.0  0.3339 -108.0
 3.100  0.6482 -167.3  10.608   77.9  0.0426   21.8  0.3305 -109.6
 3.200  0.6479 -169.0  10.291   76.5  0.0428   21.7  0.3270 -111.0
 3.300  0.6479 -170.6   9.993   75.2  0.0431   21.4  0.3240 -112.3
 3.400  0.6479 -172.2   9.712   73.9  0.0432   21.2  0.3208 -113.7
 3.500  0.6480 -173.7   9.443   72.7  0.0433   20.9  0.3183 -114.7
 3.600  0.6481 -175.3   9.194   71.4  0.0435   20.7  0.3154 -115.9
 3.700  0.6485 -176.7   8.956   70.2  0.0437   20.6  0.3124 -116.9
 3.800  0.6487 -178.2   8.728   68.9  0.0439   20.5  0.3092 -118.1
 3.900  0.6494 -179.5   8.514   67.7  0.0441   20.2  0.3067 -119.1
 4.000  0.6491  179.1   8.296   66.5  0.0442   20.1  0.3038 -120.3
 4.100  0.6504  177.7   8.108   65.3  0.0444   20.0  0.3012 -121.2
 4.200  0.6506  176.3   7.913   64.1  0.0446   20.0  0.2982 -122.4
 4.300  0.6515  174.9   7.734   63.0  0.0449   19.9  0.2958 -123.4
 4.400  0.6522  173.6   7.558   61.8  0.0449   19.9  0.2931 -124.5
 4.500  0.6532  172.3   7.392   60.7  0.0453   19.6  0.2910 -125.4
 4.600  0.6544  171.0   7.233   59.5  0.0454   19.7  0.2877 -126.5
 4.700  0.6553  169.7   7.079   58.4  0.0456   19.5  0.2856 -127.7
 4.800  0.6571  168.5   6.933   57.3  0.0458   19.5  0.2830 -128.7
 4.900  0.6579  167.3   6.788   56.2  0.0460   19.4  0.2805 -129.8
 5.000  0.6592  166.1   6.651   55.1  0.0463   19.4  0.2780 -130.9
 5.100  0.6610  164.9   6.522   54.0  0.0463   19.3  0.2758 -132.1
 5.200  0.6617  163.9   6.398   52.9  0.0465   19.2  0.2737 -133.2
 5.300  0.6627  162.7   6.278   51.8  0.0468   19.2  0.2715 -134.3
 5.400  0.6638  161.6   6.160   50.8  0.0470   19.1  0.2692 -135.4
 5.500  0.6646  160.5   6.047   49.6  0.0472   19.1  0.2679 -136.5
 5.600  0.6650  159.4   5.936   48.6  0.0473   19.1  0.2652 -137.4
 5.700  0.6660  158.3   5.831   47.5  0.0475   19.0  0.2628 -138.8
 5.800  0.6667  157.1   5.733   46.4  0.0476   18.9  0.2613 -139.9
 5.900  0.6672  156.1   5.631   45.3  0.0478   18.9  0.2587 -141.0
 6.000  0.6683  154.9   5.536   44.2  0.0480   18.9  0.2560 -142.2
 6.100  0.6685  153.8   5.439   43.1  0.0481   18.8  0.2537 -143.5
 6.200  0.6688  152.6   5.351   41.9  0.0483   18.8  0.2515 -144.6
 6.300  0.6684  151.5   5.255   40.9  0.0484   18.9  0.2486 -145.8
 6.400  0.6678  150.3   5.168   39.8  0.0485   19.0  0.2464 -146.9
 6.500  0.6679  149.0   5.079   38.7  0.0486   19.0  0.2430 -148.1
 6.600  0.6673  147.8   4.993   37.6  0.0488   19.3  0.2403 -149.2
 6.700  0.6666  146.5   4.905   36.6  0.0490   19.5  0.2367 -150.4
 6.800  0.6668  145.3   4.825   35.5  0.0492   19.6  0.2335 -151.5
 6.900  0.6660  144.1   4.742   34.4  0.0495   19.9  0.2296 -152.7
 7.000  0.6662  142.9   4.664   33.4  0.0498   20.3  0.2259 -153.9
 7.100  0.6659  141.7   4.587   32.4  0.0501   20.7  0.2220 -155.4
 7.200  0.6665  140.5   4.513   31.3  0.0507   20.9  0.2192 -157.0
 7.300  0.6674  139.4   4.438   30.3  0.0514   21.1  0.2165 -158.5
 7.400  0.6692  138.2   4.372   29.3  0.0519   21.1  0.2136 -160.3
 7.500  0.6710  137.3   4.304   28.3  0.0526   21.2  0.2120 -162.2
 7.600  0.6736  136.0   4.239   27.2  0.0532   21.2  0.2100 -164.3
 7.700  0.6763  135.1   4.171   26.4  0.0539   20.9  0.2078 -166.7
 7.800  0.6805  133.9   4.111   25.2  0.0546   20.8  0.2072 -169.5
 7.900  0.6837  133.0   4.046   24.3  0.0551   20.4  0.2064 -172.1
 8.000  0.6889  131.8   3.985   23.2  0.0556   20.3  0.2061 -175.3
 8.500  0.7152  127.5   3.690   18.0  0.0578   18.5  0.2160  168.5
 9.000  0.7410  124.0   3.412   13.1  0.0593   16.8  0.2449  152.9
 9.500  0.7624  121.7   3.156    8.3  0.0604   15.3  0.2909  141.2
10.000  0.7813  118.8   2.916    3.7  0.0612   14.1  0.3463  133.0
!
!  f       NFmin   Gammaopt  rn/50
! GHz       dB    MAG  ANG    -
!
! noise parameter not available yet for this operation point!
!
! (c) 2012  Infineon Technologies AG, Munich
