! Infineon Technologies  Discrete & RF Semiconductors
! BFP720F
! VCE =  0.7 V,  IC =  13 mA
! Common Emitter S-Parameters:                            Jan 2016
# GHz  S  MA  R  50
!  f         S11            S21            S12            S22
! GHz     MAG   ANG      MAG   ANG      MAG   ANG      MAG   ANG
 0.010  0.7124   -1.4  23.408  178.9  0.0006   -6.6  0.9493    1.0
 0.015  0.7285   -1.8  24.241  178.4  0.0007   54.1  0.9628   -0.3
 0.020  0.7447   -2.2  25.076  177.9  0.0012   79.9  0.9768   -1.6
 0.025  0.7441   -2.8  25.102  177.7  0.0015   82.3  0.9772   -1.8
 0.030  0.7436   -3.4  25.129  177.5  0.0017   84.0  0.9775   -2.1
 0.035  0.7432   -4.0  25.156  177.3  0.0020   85.2  0.9779   -2.3
 0.040  0.7428   -4.6  25.183  177.1  0.0023   86.2  0.9783   -2.5
 0.045  0.7426   -5.2  25.210  176.9  0.0025   86.9  0.9788   -2.8
 0.050  0.7424   -5.8  25.238  176.7  0.0028   87.5  0.9792   -3.0
 0.055  0.7426   -6.4  25.269  176.2  0.0031   86.7  0.9790   -3.3
 0.060  0.7429   -7.0  25.302  175.8  0.0033   86.1  0.9788   -3.7
 0.065  0.7433   -7.6  25.336  175.3  0.0036   85.5  0.9787   -4.0
 0.070  0.7437   -8.3  25.372  174.9  0.0039   85.0  0.9786   -4.4
 0.075  0.7443   -8.9  25.409  174.4  0.0041   84.6  0.9785   -4.7
 0.080  0.7449   -9.5  25.448  174.0  0.0044   84.2  0.9785   -5.0
 0.085  0.7456  -10.1  25.489  173.5  0.0047   83.9  0.9785   -5.4
 0.090  0.7464  -10.7  25.531  173.1  0.0050   83.6  0.9785   -5.7
 0.095  0.7473  -11.3  25.575  172.6  0.0052   83.3  0.9786   -6.1
 0.100  0.7483  -11.9  25.620  172.2  0.0055   83.1  0.9787   -6.4
 0.105  0.7467  -12.5  25.546  171.8  0.0058   82.7  0.9772   -6.7
 0.110  0.7453  -13.1  25.472  171.5  0.0061   82.3  0.9758   -7.1
 0.115  0.7438  -13.7  25.400  171.1  0.0063   81.9  0.9745   -7.4
 0.120  0.7425  -14.3  25.328  170.7  0.0066   81.6  0.9731   -7.8
 0.125  0.7413  -14.9  25.258  170.4  0.0069   81.3  0.9718   -8.1
 0.130  0.7401  -15.5  25.189  170.0  0.0072   81.0  0.9705   -8.5
 0.135  0.7391  -16.2  25.120  169.6  0.0075   80.8  0.9693   -8.8
 0.140  0.7381  -16.8  25.053  169.3  0.0077   80.5  0.9681   -9.2
 0.145  0.7372  -17.4  24.987  168.9  0.0080   80.3  0.9669   -9.5
 0.150  0.7364  -18.0  24.922  168.5  0.0083   80.1  0.9658   -9.9
 0.155  0.7363  -18.6  24.919  168.1  0.0085   79.9  0.9654  -10.2
 0.160  0.7363  -19.1  24.918  167.8  0.0088   79.8  0.9650  -10.5
 0.165  0.7364  -19.7  24.917  167.4  0.0090   79.6  0.9647  -10.8
 0.170  0.7365  -20.2  24.918  167.0  0.0093   79.5  0.9644  -11.1
 0.175  0.7367  -20.8  24.920  166.6  0.0095   79.4  0.9641  -11.4
 0.180  0.7370  -21.4  24.922  166.3  0.0097   79.2  0.9638  -11.7
 0.185  0.7373  -21.9  24.926  165.9  0.0100   79.1  0.9636  -12.0
 0.190  0.7378  -22.5  24.930  165.5  0.0102   79.0  0.9633  -12.3
 0.195  0.7382  -23.0  24.936  165.2  0.0105   78.9  0.9632  -12.6
 0.200  0.7388  -23.6  24.943  164.8  0.0107   78.8  0.9630  -12.9
 0.220  0.7355  -25.7  24.820  163.6  0.0118   77.7  0.9581  -14.2
 0.240  0.7332  -27.9  24.709  162.3  0.0129   76.7  0.9536  -15.5
 0.260  0.7327  -30.0  24.647  161.0  0.0139   75.7  0.9479  -16.7
 0.280  0.7337  -32.1  24.634  159.7  0.0150   74.5  0.9407  -18.0
 0.300  0.7357  -34.1  24.634  158.4  0.0160   73.5  0.9341  -19.3
 0.320  0.7307  -36.3  24.339  157.2  0.0169   72.7  0.9319  -20.5
 0.340  0.7268  -38.6  24.055  155.9  0.0178   72.0  0.9301  -21.6
 0.360  0.7234  -40.7  23.847  154.8  0.0187   71.0  0.9246  -22.8
 0.380  0.7204  -42.7  23.711  153.7  0.0197   69.8  0.9154  -24.1
 0.400  0.7183  -44.8  23.584  152.6  0.0207   68.7  0.9066  -25.4
 0.420  0.7205  -46.4  23.647  151.4  0.0215   67.9  0.9026  -26.4
 0.440  0.7232  -48.0  23.720  150.2  0.0224   67.1  0.8989  -27.5
 0.450  0.7248  -48.8  23.761  149.6  0.0228   66.7  0.8971  -28.0
 0.460  0.7212  -49.9  23.574  149.1  0.0232   66.2  0.8935  -28.6
 0.480  0.7149  -52.0  23.206  148.2  0.0241   65.4  0.8866  -29.8
 0.500  0.7095  -54.2  22.844  147.2  0.0250   64.6  0.8801  -31.0
 0.520  0.7075  -55.9  22.763  146.2  0.0258   63.6  0.8718  -32.1
 0.540  0.7061  -57.7  22.690  145.1  0.0266   62.6  0.8639  -33.2
 0.560  0.7054  -59.4  22.624  144.1  0.0274   61.7  0.8563  -34.4
 0.580  0.7053  -61.2  22.565  143.1  0.0283   60.8  0.8490  -35.5
 0.600  0.7059  -62.9  22.514  142.0  0.0291   60.0  0.8421  -36.7
 0.620  0.7020  -64.7  22.287  141.0  0.0298   59.1  0.8347  -37.7
 0.640  0.6988  -66.4  22.066  140.1  0.0305   58.2  0.8276  -38.8
 0.660  0.6963  -68.2  21.852  139.1  0.0312   57.4  0.8207  -39.8
 0.680  0.6945  -70.0  21.644  138.0  0.0320   56.6  0.8142  -40.9
 0.700  0.6933  -71.8  21.444  137.0  0.0327   55.9  0.8079  -42.0
 0.720  0.6921  -73.3  21.347  136.1  0.0333   55.2  0.8009  -42.9
 0.740  0.6914  -74.7  21.256  135.2  0.0338   54.5  0.7941  -43.8
 0.760  0.6912  -76.2  21.170  134.3  0.0344   53.8  0.7875  -44.7
 0.780  0.6914  -77.6  21.089  133.4  0.0350   53.1  0.7811  -45.6
 0.800  0.6920  -79.1  21.013  132.5  0.0356   52.5  0.7749  -46.6
 0.820  0.6898  -80.5  20.862  131.7  0.0361   51.7  0.7669  -47.5
 0.840  0.6881  -81.9  20.715  130.9  0.0367   51.0  0.7591  -48.4
 0.860  0.6867  -83.3  20.572  130.0  0.0372   50.3  0.7514  -49.4
 0.880  0.6858  -84.8  20.434  129.2  0.0377   49.6  0.7440  -50.3
 0.900  0.6853  -86.2  20.301  128.3  0.0383   48.9  0.7368  -51.3
 0.920  0.6823  -87.7  20.093  127.5  0.0388   48.2  0.7288  -52.2
 0.940  0.6798  -89.2  19.890  126.6  0.0393   47.4  0.7210  -53.1
 0.960  0.6777  -90.7  19.691  125.8  0.0398   46.7  0.7134  -54.1
 0.980  0.6761  -92.2  19.496  124.9  0.0403   46.1  0.7059  -55.0
 1.000  0.6750  -93.7  19.306  124.0  0.0408   45.4  0.6987  -56.0
 1.020  0.6725  -95.0  19.142  123.3  0.0412   44.8  0.6918  -56.8
 1.040  0.6704  -96.3  18.980  122.6  0.0416   44.2  0.6850  -57.6
 1.060  0.6686  -97.6  18.821  121.9  0.0420   43.7  0.6784  -58.4
 1.080  0.6672  -98.9  18.665  121.2  0.0424   43.1  0.6719  -59.2
 1.100  0.6661 -100.2  18.512  120.5  0.0428   42.6  0.6655  -60.1
 1.120  0.6643 -101.3  18.396  119.9  0.0431   42.1  0.6589  -60.8
 1.140  0.6628 -102.3  18.282  119.2  0.0435   41.5  0.6523  -61.6
 1.160  0.6614 -103.4  18.170  118.6  0.0438   41.0  0.6459  -62.4
 1.180  0.6603 -104.5  18.061  118.0  0.0442   40.5  0.6397  -63.2
 1.200  0.6595 -105.6  17.954  117.3  0.0445   40.0  0.6335  -64.0
 1.220  0.6581 -106.7  17.811  116.6  0.0448   39.4  0.6268  -64.7
 1.240  0.6570 -107.9  17.671  115.9  0.0451   38.9  0.6202  -65.5
 1.260  0.6561 -109.0  17.534  115.2  0.0454   38.4  0.6137  -66.2
 1.280  0.6555 -110.2  17.399  114.5  0.0457   37.8  0.6073  -67.0
 1.300  0.6552 -111.3  17.267  113.8  0.0460   37.3  0.6010  -67.8
 1.320  0.6539 -112.3  17.133  113.2  0.0462   36.8  0.5949  -68.5
 1.340  0.6529 -113.3  17.000  112.6  0.0465   36.4  0.5889  -69.2
 1.360  0.6520 -114.3  16.870  112.0  0.0467   35.9  0.5830  -69.9
 1.380  0.6514 -115.3  16.741  111.3  0.0470   35.5  0.5772  -70.6
 1.400  0.6509 -116.3  16.615  110.7  0.0472   35.0  0.5715  -71.3
 1.420  0.6492 -117.3  16.474  110.1  0.0474   34.6  0.5659  -72.0
 1.440  0.6477 -118.4  16.334  109.6  0.0476   34.1  0.5604  -72.7
 1.460  0.6464 -119.4  16.195  109.0  0.0479   33.7  0.5549  -73.4
 1.480  0.6453 -120.5  16.059  108.4  0.0481   33.3  0.5496  -74.2
 1.500  0.6444 -121.5  15.924  107.8  0.0483   32.9  0.5443  -74.9
 1.520  0.6436 -122.3  15.809  107.3  0.0485   32.5  0.5392  -75.5
 1.540  0.6430 -123.2  15.695  106.7  0.0487   32.1  0.5343  -76.1
 1.560  0.6425 -124.0  15.582  106.2  0.0488   31.8  0.5293  -76.8
 1.580  0.6421 -124.9  15.471  105.7  0.0490   31.4  0.5245  -77.4
 1.600  0.6419 -125.7  15.361  105.1  0.0492   31.0  0.5197  -78.1
 1.620  0.6405 -126.7  15.214  104.6  0.0494   30.6  0.5146  -78.8
 1.640  0.6394 -127.6  15.068  104.1  0.0496   30.2  0.5096  -79.5
 1.660  0.6384 -128.6  14.923  103.5  0.0497   29.9  0.5047  -80.2
 1.680  0.6375 -129.5  14.780  103.0  0.0499   29.5  0.4999  -80.9
 1.700  0.6369 -130.5  14.638  102.4  0.0501   29.1  0.4951  -81.6
 1.720  0.6362 -131.3  14.513  101.9  0.0502   28.8  0.4913  -82.2
 1.740  0.6356 -132.1  14.389  101.5  0.0503   28.5  0.4876  -82.7
 1.760  0.6351 -132.8  14.266  101.0  0.0505   28.2  0.4839  -83.3
 1.780  0.6347 -133.6  14.144  100.5  0.0506   27.9  0.4802  -83.9
 1.800  0.6345 -134.4  14.023  100.0  0.0507   27.6  0.4766  -84.5
 1.820  0.6338 -135.1  13.929   99.6  0.0508   27.3  0.4726  -85.1
 1.840  0.6331 -135.7  13.836   99.1  0.0509   27.0  0.4686  -85.6
 1.860  0.6326 -136.4  13.744   98.7  0.0510   26.7  0.4647  -86.2
 1.880  0.6321 -137.0  13.653   98.3  0.0511   26.4  0.4608  -86.8
 1.900  0.6317 -137.7  13.562   97.8  0.0512   26.1  0.4570  -87.4
 1.920  0.6313 -138.3  13.458   97.4  0.0513   25.8  0.4535  -87.9
 1.940  0.6310 -139.0  13.355   96.9  0.0514   25.6  0.4501  -88.4
 1.960  0.6308 -139.6  13.253   96.4  0.0515   25.3  0.4467  -88.9
 1.980  0.6307 -140.3  13.151   96.0  0.0516   25.1  0.4433  -89.5
 2.000  0.6306 -140.9  13.051   95.5  0.0517   24.8  0.4400  -90.0
 2.020  0.6302 -141.5  12.947   95.1  0.0518   24.6  0.4370  -90.5
 2.040  0.6299 -142.1  12.843   94.7  0.0518   24.3  0.4340  -91.0
 2.060  0.6297 -142.7  12.740   94.3  0.0519   24.1  0.4310  -91.5
 2.080  0.6296 -143.3  12.637   93.9  0.0520   23.8  0.4281  -92.0
 2.100  0.6295 -143.9  12.535   93.5  0.0520   23.6  0.4252  -92.5
 2.120  0.6295 -144.6  12.434   93.1  0.0521   23.4  0.4224  -93.0
 2.140  0.6296 -145.2  12.333   92.7  0.0522   23.1  0.4196  -93.5
 2.160  0.6297 -145.8  12.233   92.3  0.0523   22.9  0.4168  -94.0
 2.180  0.6299 -146.4  12.134   91.8  0.0523   22.6  0.4140  -94.6
 2.200  0.6302 -147.0  12.035   91.4  0.0524   22.4  0.4113  -95.1
 2.220  0.6300 -147.5  11.943   91.0  0.0525   22.2  0.4089  -95.5
 2.240  0.6299 -148.0  11.851   90.7  0.0525   22.0  0.4065  -96.0
 2.260  0.6299 -148.6  11.759   90.3  0.0526   21.8  0.4042  -96.4
 2.280  0.6299 -149.1  11.668   89.9  0.0526   21.6  0.4018  -96.8
 2.300  0.6299 -149.6  11.578   89.5  0.0527   21.3  0.3995  -97.3
 2.320  0.6300 -150.1  11.488   89.1  0.0528   21.1  0.3973  -97.7
 2.340  0.6301 -150.6  11.399   88.7  0.0528   20.9  0.3950  -98.2
 2.360  0.6303 -151.2  11.310   88.3  0.0529   20.7  0.3928  -98.7
 2.380  0.6306 -151.7  11.222   87.9  0.0529   20.5  0.3906  -99.1
 2.400  0.6309 -152.2  11.134   87.5  0.0530   20.3  0.3884  -99.6
 2.420  0.6308 -152.6  11.061   87.2  0.0530   20.1  0.3863 -100.0
 2.440  0.6308 -153.0  10.988   86.9  0.0530   20.0  0.3843 -100.3
 2.460  0.6308 -153.4  10.915   86.5  0.0531   19.8  0.3823 -100.7
 2.480  0.6308 -153.8  10.843   86.2  0.0531   19.7  0.3803 -101.1
 2.500  0.6308 -154.2  10.771   85.9  0.0531   19.5  0.3783 -101.5
 2.520  0.6309 -154.6  10.699   85.5  0.0531   19.3  0.3763 -101.8
 2.540  0.6310 -155.0  10.628   85.2  0.0531   19.2  0.3744 -102.2
 2.560  0.6311 -155.4  10.557   84.8  0.0532   19.0  0.3724 -102.6
 2.580  0.6313 -155.8  10.487   84.5  0.0532   18.9  0.3705 -103.0
 2.600  0.6315 -156.2  10.417   84.1  0.0532   18.7  0.3686 -103.4
 2.620  0.6313 -156.5  10.348   83.8  0.0532   18.6  0.3669 -103.7
 2.640  0.6312 -156.9  10.280   83.5  0.0533   18.5  0.3652 -104.0
 2.660  0.6310 -157.2  10.212   83.2  0.0533   18.3  0.3635 -104.3
 2.680  0.6309 -157.5  10.144   82.9  0.0534   18.2  0.3618 -104.6
 2.700  0.6308 -157.8  10.077   82.6  0.0534   18.1  0.3602 -105.0
 2.720  0.6308 -158.2  10.010   82.3  0.0534   18.0  0.3585 -105.3
 2.740  0.6307 -158.5   9.943   82.0  0.0535   17.9  0.3569 -105.6
 2.760  0.6307 -158.8   9.876   81.7  0.0535   17.7  0.3552 -105.9
 2.780  0.6307 -159.2   9.810   81.3  0.0536   17.6  0.3536 -106.3
 2.800  0.6307 -159.5   9.744   81.0  0.0536   17.5  0.3520 -106.6
 2.820  0.6309 -159.8   9.685   80.7  0.0536   17.4  0.3509 -106.9
 2.840  0.6311 -160.1   9.627   80.4  0.0537   17.3  0.3497 -107.2
 2.860  0.6314 -160.5   9.569   80.1  0.0537   17.2  0.3486 -107.5
 2.880  0.6316 -160.8   9.511   79.8  0.0538   17.1  0.3475 -107.8
 2.900  0.6319 -161.1   9.453   79.5  0.0538   16.9  0.3464 -108.1
 2.920  0.6322 -161.4   9.395   79.2  0.0538   16.8  0.3453 -108.4
 2.940  0.6325 -161.7   9.338   78.9  0.0539   16.7  0.3442 -108.7
 2.960  0.6329 -162.1   9.281   78.6  0.0539   16.6  0.3431 -109.0
 2.980  0.6332 -162.4   9.224   78.3  0.0540   16.5  0.3421 -109.3
 3.000  0.6336 -162.7   9.168   78.0  0.0540   16.4  0.3410 -109.6
 3.100  0.6333 -163.8   8.913   76.8  0.0542   15.9  0.3360 -110.6
 3.200  0.6333 -164.9   8.662   75.5  0.0544   15.5  0.3311 -111.6
 3.300  0.6335 -166.1   8.416   74.1  0.0546   15.0  0.3264 -112.7
 3.400  0.6339 -167.2   8.175   72.6  0.0548   14.6  0.3217 -113.8
 3.500  0.6346 -168.3   7.940   71.1  0.0550   14.1  0.3172 -114.9
 3.600  0.6301 -171.3   7.749   69.9  0.0552   13.8  0.3129 -115.6
 3.700  0.6274 -174.3   7.561   68.7  0.0554   13.4  0.3087 -116.3
 3.800  0.6263 -177.3   7.376   67.5  0.0557   13.1  0.3046 -117.1
 3.900  0.6271  179.7   7.195   66.1  0.0559   12.7  0.3005 -117.8
 4.000  0.6295  176.7   7.019   64.7  0.0561   12.4  0.2964 -118.6
 4.100  0.6290  175.4   6.872   63.6  0.0564   12.1  0.2929 -119.2
 4.200  0.6288  174.2   6.728   62.4  0.0566   11.8  0.2895 -119.9
 4.300  0.6289  172.9   6.586   61.2  0.0569   11.5  0.2861 -120.6
 4.400  0.6294  171.7   6.448   59.9  0.0571   11.2  0.2828 -121.3
 4.500  0.6301  170.4   6.313   58.6  0.0574   10.9  0.2795 -122.0
 4.600  0.6294  169.2   6.194   57.5  0.0577   10.6  0.2764 -122.7
 4.700  0.6291  168.0   6.078   56.4  0.0580   10.3  0.2734 -123.5
 4.800  0.6290  166.7   5.964   55.2  0.0584   10.0  0.2704 -124.2
 4.900  0.6292  165.5   5.853   54.0  0.0587    9.7  0.2674 -125.0
 5.000  0.6297  164.3   5.744   52.7  0.0590    9.4  0.2645 -125.8
 5.100  0.6285  163.1   5.645   51.6  0.0593    9.1  0.2616 -126.6
 5.200  0.6276  161.8   5.548   50.4  0.0596    8.7  0.2588 -127.4
 5.300  0.6270  160.6   5.454   49.2  0.0600    8.4  0.2560 -128.3
 5.400  0.6267  159.3   5.362   47.9  0.0603    8.1  0.2533 -129.1
 5.500  0.6267  158.1   5.273   46.6  0.0606    7.8  0.2506 -130.0
 5.600  0.6255  156.8   5.190   45.4  0.0610    7.4  0.2490 -131.0
 5.700  0.6247  155.5   5.110   44.2  0.0613    7.1  0.2475 -131.9
 5.800  0.6242  154.2   5.031   43.0  0.0617    6.7  0.2461 -132.9
 5.900  0.6240  152.9   4.955   41.7  0.0620    6.4  0.2447 -133.9
 6.000  0.6241  151.6   4.882   40.4  0.0624    6.0  0.2434 -134.9
 6.100  0.6227  150.1   4.805   39.2  0.0627    5.6  0.2411 -136.3
 6.200  0.6217  148.6   4.731   37.9  0.0630    5.1  0.2389 -137.7
 6.300  0.6211  147.1   4.659   36.6  0.0633    4.7  0.2369 -139.2
 6.400  0.6210  145.6   4.590   35.3  0.0637    4.2  0.2350 -140.7
 6.500  0.6213  144.1   4.523   33.9  0.0640    3.8  0.2333 -142.2
 6.600  0.6198  142.4   4.450   32.7  0.0642    3.4  0.2301 -144.0
 6.800  0.6183  139.1   4.311   30.1  0.0647    2.5  0.2244 -147.9
 7.000  0.6189  135.8   4.182   27.3  0.0652    1.6  0.2198 -151.9
 7.200  0.6207  132.2   4.047   24.8  0.0656    0.6  0.2099 -163.8
 7.400  0.6248  128.7   3.919   22.2  0.0660   -0.3  0.2097 -176.4
 7.600  0.6310  125.1   3.795   19.5  0.0663   -1.3  0.2123  174.5
 7.800  0.6392  121.5   3.673   16.9  0.0666   -2.4  0.2122  168.5
 8.000  0.6499  118.0   3.560   14.0  0.0669   -3.4  0.2143  162.6
 8.200  0.6615  114.5   3.424   11.5  0.0667   -4.6  0.2215  155.5
 8.400  0.6754  111.1   3.295    8.7  0.0665   -5.7  0.2319  148.9
 8.600  0.6887  108.1   3.165    6.3  0.0661   -6.6  0.2448  142.6
 8.800  0.7009  105.4   3.030    4.1  0.0656   -7.3  0.2600  136.8
 9.000  0.7146  102.8   2.900    1.7  0.0651   -8.0  0.2776  131.7
 9.200  0.7272  101.0   2.785   -0.1  0.0648   -8.4  0.2962  127.7
 9.400  0.7404   99.3   2.674   -2.0  0.0645   -8.9  0.3161  124.2
 9.600  0.7540   97.9   2.570   -3.8  0.0641   -9.3  0.3368  121.3
 9.800  0.7675   96.8   2.474   -5.5  0.0638   -9.7  0.3578  119.0
10.000  0.7813   95.7   2.380   -7.3  0.0634  -10.1  0.3794  117.0
!
!  f       NFmin   Gammaopt  rn/50
! GHz       dB    MAG  ANG    -
 0.450      0.64  0.27    2   0.64
 0.900      0.67  0.23    8   0.14
 1.800      0.70  0.21   11   0.15
 2.400      0.72  0.18   18   0.13
 5.500      0.88  0.15   30   0.08
10.000      1.04  0.30  -88   0.19
!
! (c) 2016  Infineon Technologies AG, Munich
