! Infineon Technologies  Discrete & RF Semiconductors
! BFP720
! VCE =  4.0 V,  IC =  17 mA
! Common Emitter S-Parameters:                            Aug 2012
# GHz  S  MA  R  50
!  f         S11            S21            S12            S22
! GHz     MAG   ANG      MAG   ANG      MAG   ANG      MAG   ANG
 0.010  0.7650    0.4  35.758  179.1  0.0008   17.1  0.9485    2.7
 0.020  0.7725   -1.3  35.693  177.3  0.0009   65.9  0.9809   -0.3
 0.030  0.7720   -2.2  35.693  176.7  0.0012   73.0  0.9823   -0.9
 0.040  0.7717   -3.1  35.696  176.1  0.0015   77.2  0.9839   -1.5
 0.050  0.7716   -4.0  35.703  175.6  0.0018   80.0  0.9855   -2.0
 0.060  0.7709   -4.9  35.616  174.9  0.0021   78.9  0.9852   -2.6
 0.070  0.7705   -5.8  35.533  174.3  0.0024   78.1  0.9850   -3.2
 0.080  0.7703   -6.7  35.454  173.7  0.0027   77.5  0.9850   -3.8
 0.090  0.7702   -7.6  35.379  173.1  0.0030   77.0  0.9850   -4.3
 0.100  0.7704   -8.6  35.309  172.4  0.0033   76.6  0.9851   -4.9
 0.110  0.7692   -9.4  35.224  171.7  0.0036   77.4  0.9838   -5.4
 0.120  0.7681  -10.3  35.144  171.1  0.0039   78.1  0.9825   -5.9
 0.130  0.7673  -11.1  35.070  170.4  0.0042   78.7  0.9814   -6.4
 0.140  0.7666  -12.0  35.000  169.7  0.0044   79.2  0.9803   -7.0
 0.150  0.7661  -12.8  34.936  169.0  0.0047   79.7  0.9793   -7.5
 0.200  0.7605  -17.0  34.367  165.7  0.0064   78.1  0.9711  -10.0
 0.250  0.7521  -21.2  33.873  162.5  0.0078   76.1  0.9614  -12.4
 0.300  0.7446  -25.3  33.258  159.5  0.0094   74.9  0.9496  -14.7
 0.350  0.7358  -29.3  32.649  156.7  0.0108   73.4  0.9387  -17.0
 0.400  0.7271  -33.3  32.101  154.0  0.0122   71.7  0.9248  -19.2
 0.450  0.7178  -37.3  31.492  151.3  0.0136   69.8  0.9123  -21.4
 0.500  0.7079  -41.2  30.889  148.8  0.0149   68.3  0.8981  -23.4
 0.600  0.6887  -49.0  29.818  143.9  0.0174   65.0  0.8680  -27.5
 0.700  0.6695  -56.6  28.696  139.2  0.0197   61.7  0.8381  -31.4
 0.800  0.6493  -64.2  27.660  134.7  0.0218   58.7  0.8074  -35.1
 0.900  0.6317  -71.5  26.561  130.5  0.0237   55.8  0.7749  -38.5
 1.000  0.6143  -78.7  25.513  126.4  0.0255   53.2  0.7427  -41.9
 1.100  0.5978  -85.6  24.499  122.4  0.0270   50.6  0.7104  -44.9
 1.200  0.5824  -92.3  23.512  118.7  0.0283   48.4  0.6800  -47.8
 1.300  0.5690  -98.8  22.559  115.1  0.0296   46.2  0.6497  -50.6
 1.400  0.5570 -104.8  21.620  111.7  0.0306   44.3  0.6211  -53.1
 1.500  0.5464 -110.7  20.739  108.5  0.0316   42.5  0.5935  -55.4
 1.600  0.5375 -116.3  19.921  105.3  0.0324   40.9  0.5679  -57.6
 1.700  0.5295 -121.5  19.096  102.4  0.0332   39.4  0.5433  -59.7
 1.800  0.5238 -126.2  18.340   99.6  0.0339   38.0  0.5212  -61.7
 1.900  0.5184 -130.8  17.615   96.9  0.0345   36.9  0.5006  -63.5
 2.000  0.5153 -135.0  16.942   94.4  0.0351   35.8  0.4815  -65.2
 2.100  0.5113 -138.7  16.305   92.1  0.0356   34.9  0.4642  -66.7
 2.200  0.5095 -142.5  15.698   89.6  0.0361   34.0  0.4473  -68.3
 2.300  0.5074 -145.9  15.144   87.5  0.0366   33.2  0.4329  -69.8
 2.400  0.5071 -149.3  14.613   85.2  0.0370   32.4  0.4188  -71.3
 2.500  0.5053 -152.3  14.127   83.2  0.0375   31.8  0.4064  -72.6
 2.600  0.5049 -155.4  13.659   81.0  0.0379   31.1  0.3942  -74.1
 2.700  0.5043 -158.2  13.228   79.1  0.0383   30.6  0.3834  -75.4
 2.800  0.5049 -161.1  12.813   77.1  0.0387   30.0  0.3728  -76.8
 2.900  0.5039 -163.8  12.431   75.3  0.0391   29.5  0.3633  -78.2
 3.000  0.5040 -166.5  12.062   73.3  0.0395   29.1  0.3539  -79.5
 3.100  0.5012 -169.5  11.728   71.7  0.0399   28.7  0.3449  -80.8
 3.200  0.4997 -172.4  11.405   70.0  0.0403   28.3  0.3360  -82.1
 3.300  0.4995 -175.4  11.092   68.2  0.0407   27.9  0.3273  -83.5
 3.400  0.5007 -178.4  10.791   66.2  0.0411   27.5  0.3188  -85.0
 3.500  0.5032  178.7  10.503   64.2  0.0415   27.1  0.3105  -86.5
 3.600  0.5030  176.1  10.237   62.7  0.0419   26.8  0.3019  -88.0
 3.700  0.5038  173.5   9.979   61.0  0.0423   26.5  0.2936  -89.6
 3.800  0.5055  171.0   9.730   59.3  0.0427   26.2  0.2855  -91.4
 3.900  0.5083  168.5   9.490   57.5  0.0431   25.8  0.2777  -93.2
 4.000  0.5121  166.0   9.259   55.6  0.0435   25.5  0.2701  -95.1
 4.100  0.5144  163.6   9.039   54.1  0.0439   25.2  0.2617  -97.2
 4.200  0.5176  161.3   8.826   52.5  0.0443   24.9  0.2537  -99.4
 4.300  0.5217  159.0   8.619   50.9  0.0447   24.6  0.2461 -101.8
 4.400  0.5266  156.7   8.419   49.2  0.0451   24.3  0.2390 -104.4
 4.500  0.5323  154.5   8.228   47.4  0.0455   24.0  0.2323 -107.1
 4.600  0.5360  152.5   8.038   46.0  0.0459   23.8  0.2258 -109.8
 4.700  0.5404  150.6   7.852   44.5  0.0463   23.5  0.2197 -112.8
 4.800  0.5454  148.7   7.673   42.9  0.0466   23.2  0.2143 -115.8
 4.900  0.5510  146.8   7.499   41.3  0.0470   22.9  0.2096 -119.1
 5.000  0.5571  145.0   7.332   39.6  0.0474   22.6  0.2055 -122.5
 5.100  0.5613  143.5   7.175   38.3  0.0478   22.4  0.2028 -125.3
 5.200  0.5658  142.0   7.021   36.9  0.0481   22.2  0.2007 -128.2
 5.300  0.5707  140.6   6.872   35.5  0.0485   22.0  0.1990 -131.2
 5.400  0.5759  139.2   6.727   34.0  0.0489   21.8  0.1979 -134.2
 5.500  0.5814  137.8   6.587   32.4  0.0492   21.5  0.1974 -137.3
 5.600  0.5845  136.7   6.458   31.2  0.0496   21.4  0.1983 -139.3
 5.700  0.5877  135.6   6.333   29.9  0.0500   21.2  0.1994 -141.4
 5.800  0.5912  134.5   6.211   28.6  0.0504   21.1  0.2009 -143.4
 5.900  0.5949  133.4   6.093   27.1  0.0508   20.9  0.2025 -145.4
 6.000  0.5988  132.3   5.978   25.7  0.0511   20.8  0.2044 -147.3
 6.100  0.5994  131.3   5.871   24.5  0.0516   20.7  0.2058 -148.2
 6.200  0.6001  130.3   5.766   23.2  0.0521   20.6  0.2073 -149.0
 6.300  0.6011  129.4   5.665   21.9  0.0526   20.6  0.2087 -149.9
 6.400  0.6022  128.4   5.566   20.6  0.0531   20.5  0.2103 -150.7
 6.500  0.6034  127.4   5.470   19.2  0.0536   20.5  0.2118 -151.5
 6.600  0.6022  126.5   5.383   18.0  0.0543   20.4  0.2110 -151.7
 6.700  0.6011  125.5   5.298   16.8  0.0550   20.3  0.2102 -151.9
 6.800  0.6002  124.5   5.216   15.6  0.0557   20.3  0.2094 -152.1
 6.900  0.5995  123.6   5.136   14.3  0.0564   20.2  0.2086 -152.3
 7.000  0.5989  122.6   5.059   13.0  0.0571   20.1  0.2079 -152.5
 7.100  0.5988  121.4   4.992   11.7  0.0580   19.8  0.2062 -153.0
 7.200  0.5990  120.3   4.927   10.5  0.0589   19.5  0.2045 -153.6
 7.300  0.5993  119.2   4.865    9.2  0.0599   19.1  0.2029 -154.1
 7.400  0.5999  118.1   4.805    7.8  0.0608   18.8  0.2012 -154.7
 7.500  0.6008  116.9   4.748    6.5  0.0617   18.5  0.1996 -155.3
 7.600  0.6031  115.4   4.688    5.1  0.0626   17.9  0.1979 -157.3
 7.700  0.6059  114.0   4.630    3.6  0.0635   17.2  0.1964 -159.3
 7.800  0.6091  112.5   4.576    2.2  0.0644   16.6  0.1951 -161.4
 7.900  0.6127  111.0   4.525    0.7  0.0653   16.1  0.1941 -163.5
 8.000  0.6167  109.6   4.476   -0.9  0.0662   15.5  0.1934 -165.6
 8.500  0.6436  101.3   4.152   -8.6  0.0697   12.3  0.2042  163.3
 9.000  0.6799   93.8   3.827  -15.9  0.0733    9.0  0.2379  145.3
 9.500  0.7259   87.5   3.515  -23.0  0.0760    5.0  0.2948  131.4
10.000  0.7707   81.9   3.195  -29.9  0.0769    1.3  0.3604  120.8
10.500  0.7948   78.0   2.882  -35.0  0.0779   -1.1  0.4167  113.5
11.000  0.8092   76.4   2.684  -38.9  0.0805   -3.2  0.4604  109.5
11.500  0.8398   76.1   2.561  -44.1  0.0837   -6.2  0.5064  107.5
12.000  0.8682   74.5   2.409  -50.7  0.0850  -10.2  0.5518  104.9
!
!  f       NFmin   Gammaopt  rn/50
! GHz       dB    MAG  ANG    -
 0.450      0.67  0.19    1   0.39
 1.800      0.74  0.20   11   0.14
 2.400      0.79  0.19   17   0.43
 5.500      1.01  0.11  -46   0.18
10.000      1.18  0.45  -73   0.29
!
! (c) 2012  Infineon Technologies AG, Munich
