! Infineon Technologies  Discrete & RF Semiconductors
! BFP740
! VCE =  4.0 V,  IC =  5.0 mA
! Common Emitter S-Parameters:                            Jan 2016
# GHz  S  MA  R  50
!  f         S11            S21            S12            S22
! GHz     MAG   ANG      MAG   ANG      MAG   ANG      MAG   ANG
 0.030  0.9496   -1.6  14.694  177.3  0.0013  102.3  0.9935   -1.1
 0.035  0.9502   -1.9  14.644  177.1  0.0020   90.2  0.9937   -1.3
 0.040  0.9508   -2.1  14.594  176.8  0.0027   84.4  0.9940   -1.4
 0.045  0.9515   -2.4  14.647  176.6  0.0035   89.3  0.9942   -1.7
 0.050  0.9522   -2.6  14.701  176.5  0.0044   92.3  0.9944   -1.9
 0.055  0.9508   -2.9  14.721  176.0  0.0035   80.9  0.9934   -2.1
 0.060  0.9494   -3.3  14.742  175.6  0.0028   62.9  0.9925   -2.3
 0.065  0.9497   -3.6  14.696  175.4  0.0033   70.4  0.9927   -2.5
 0.070  0.9501   -3.9  14.650  175.2  0.0039   75.7  0.9929   -2.6
 0.075  0.9498   -4.1  14.644  174.9  0.0037   83.2  0.9924   -2.7
 0.080  0.9496   -4.4  14.638  174.5  0.0036   91.3  0.9919   -2.9
 0.085  0.9488   -4.6  14.559  174.3  0.0035   89.0  0.9927   -3.1
 0.090  0.9480   -4.9  14.480  174.0  0.0035   86.6  0.9935   -3.3
 0.095  0.9469   -5.1  14.498  173.8  0.0042   83.0  0.9926   -3.5
 0.100  0.9459   -5.4  14.516  173.6  0.0050   80.5  0.9917   -3.7
 0.105  0.9457   -5.7  14.501  173.3  0.0051   82.0  0.9914   -3.9
 0.110  0.9456   -6.0  14.486  173.0  0.0053   83.5  0.9911   -4.1
 0.115  0.9452   -6.3  14.507  172.7  0.0056   80.9  0.9908   -4.2
 0.120  0.9448   -6.6  14.528  172.4  0.0059   78.5  0.9906   -4.4
 0.125  0.9451   -6.8  14.464  172.2  0.0064   81.4  0.9903   -4.6
 0.130  0.9454   -7.0  14.400  171.9  0.0070   83.8  0.9901   -4.8
 0.135  0.9443   -7.3  14.379  171.7  0.0069   83.9  0.9894   -4.9
 0.140  0.9432   -7.6  14.358  171.5  0.0068   84.1  0.9887   -5.1
 0.145  0.9438   -7.9  14.294  171.3  0.0070   82.2  0.9886   -5.3
 0.150  0.9444   -8.1  14.230  171.1  0.0073   80.5  0.9885   -5.5
 0.155  0.9439   -8.4  14.210  170.9  0.0075   80.3  0.9881   -5.7
 0.160  0.9435   -8.6  14.191  170.6  0.0078   80.2  0.9876   -5.9
 0.165  0.9431   -8.9  14.172  170.4  0.0080   80.1  0.9872   -6.0
 0.170  0.9426   -9.1  14.153  170.2  0.0083   79.9  0.9868   -6.2
 0.175  0.9423   -9.4  14.135  170.0  0.0085   79.8  0.9864   -6.4
 0.180  0.9419   -9.7  14.116  169.7  0.0088   79.7  0.9860   -6.6
 0.185  0.9415   -9.9  14.098  169.5  0.0090   79.6  0.9856   -6.8
 0.190  0.9412  -10.2  14.080  169.3  0.0093   79.5  0.9852   -6.9
 0.195  0.9409  -10.4  14.062  169.0  0.0095   79.4  0.9849   -7.1
 0.200  0.9406  -10.7  14.045  168.8  0.0098   79.3  0.9845   -7.3
 0.220  0.9389  -11.7  13.966  168.0  0.0107   79.2  0.9831   -7.9
 0.240  0.9375  -12.8  13.889  167.2  0.0116   79.1  0.9818   -8.6
 0.260  0.9359  -13.8  13.822  166.4  0.0126   78.9  0.9802   -9.2
 0.280  0.9342  -14.8  13.765  165.6  0.0135   78.7  0.9782   -9.9
 0.300  0.9328  -15.8  13.710  164.8  0.0144   78.6  0.9763  -10.6
 0.320  0.9312  -16.8  13.639  164.1  0.0155   78.2  0.9747  -11.3
 0.340  0.9299  -17.8  13.571  163.4  0.0166   77.9  0.9733  -12.0
 0.360  0.9284  -18.8  13.514  162.6  0.0176   77.2  0.9714  -12.7
 0.380  0.9269  -19.8  13.470  161.9  0.0187   76.2  0.9690  -13.4
 0.400  0.9256  -20.8  13.429  161.1  0.0197   75.3  0.9667  -14.1
 0.420  0.9239  -21.8  13.355  160.4  0.0205   74.5  0.9654  -14.7
 0.440  0.9226  -22.8  13.284  159.7  0.0212   73.8  0.9642  -15.4
 0.450  0.9220  -23.3  13.249  159.3  0.0216   73.5  0.9637  -15.7
 0.460  0.9210  -23.8  13.231  159.0  0.0221   73.2  0.9624  -16.0
 0.480  0.9191  -24.8  13.197  158.3  0.0232   72.7  0.9599  -16.7
 0.500  0.9176  -25.8  13.165  157.6  0.0242   72.3  0.9575  -17.4
 0.520  0.9150  -26.8  13.133  156.9  0.0251   71.6  0.9548  -18.1
 0.540  0.9126  -27.8  13.102  156.1  0.0259   70.9  0.9523  -18.7
 0.560  0.9106  -28.8  13.074  155.4  0.0268   70.3  0.9499  -19.4
 0.580  0.9088  -29.9  13.049  154.6  0.0276   69.7  0.9476  -20.0
 0.600  0.9073  -30.9  13.025  153.9  0.0285   69.2  0.9455  -20.7
 0.620  0.9050  -31.9  12.973  153.2  0.0294   68.6  0.9428  -21.3
 0.640  0.9029  -32.8  12.923  152.5  0.0303   68.1  0.9401  -22.0
 0.660  0.9011  -33.8  12.875  151.8  0.0311   67.6  0.9376  -22.6
 0.680  0.8996  -34.8  12.829  151.1  0.0320   67.1  0.9353  -23.3
 0.700  0.8983  -35.8  12.785  150.4  0.0329   66.6  0.9330  -23.9
 0.720  0.8954  -36.8  12.761  149.7  0.0337   65.9  0.9297  -24.6
 0.740  0.8929  -37.8  12.740  149.0  0.0346   65.2  0.9266  -25.2
 0.760  0.8906  -38.8  12.720  148.2  0.0354   64.6  0.9236  -25.9
 0.780  0.8885  -39.9  12.703  147.5  0.0363   64.0  0.9207  -26.5
 0.800  0.8868  -40.9  12.687  146.8  0.0371   63.4  0.9179  -27.2
 0.820  0.8841  -41.9  12.643  146.1  0.0379   62.7  0.9147  -27.8
 0.840  0.8816  -42.9  12.601  145.4  0.0388   62.1  0.9116  -28.5
 0.860  0.8794  -43.9  12.561  144.7  0.0396   61.5  0.9086  -29.1
 0.880  0.8775  -44.9  12.522  144.0  0.0405   60.9  0.9057  -29.8
 0.900  0.8758  -45.9  12.486  143.3  0.0413   60.3  0.9029  -30.4
 0.920  0.8730  -46.8  12.437  142.6  0.0420   59.7  0.8993  -31.0
 0.940  0.8705  -47.8  12.389  142.0  0.0428   59.1  0.8958  -31.7
 0.960  0.8682  -48.8  12.343  141.3  0.0435   58.5  0.8924  -32.3
 0.980  0.8661  -49.7  12.299  140.6  0.0443   57.9  0.8891  -33.0
 1.000  0.8643  -50.7  12.257  139.9  0.0450   57.4  0.8859  -33.6
 1.020  0.8613  -51.7  12.210  139.2  0.0457   56.8  0.8821  -34.2
 1.040  0.8585  -52.6  12.164  138.5  0.0464   56.2  0.8784  -34.8
 1.060  0.8560  -53.6  12.121  137.8  0.0471   55.6  0.8747  -35.4
 1.080  0.8537  -54.6  12.079  137.1  0.0479   55.0  0.8712  -36.1
 1.100  0.8517  -55.6  12.039  136.4  0.0486   54.5  0.8678  -36.7
 1.120  0.8490  -56.5  11.975  135.8  0.0492   53.9  0.8641  -37.3
 1.140  0.8464  -57.4  11.912  135.1  0.0499   53.4  0.8605  -37.9
 1.160  0.8441  -58.3  11.851  134.4  0.0505   52.8  0.8571  -38.5
 1.180  0.8420  -59.2  11.792  133.8  0.0512   52.3  0.8537  -39.2
 1.200  0.8401  -60.1  11.734  133.1  0.0518   51.8  0.8504  -39.8
 1.220  0.8372  -61.0  11.691  132.4  0.0524   51.3  0.8465  -40.4
 1.240  0.8344  -62.0  11.649  131.8  0.0531   50.7  0.8428  -40.9
 1.260  0.8320  -63.0  11.609  131.1  0.0537   50.2  0.8391  -41.5
 1.280  0.8297  -63.9  11.570  130.5  0.0544   49.7  0.8355  -42.1
 1.300  0.8277  -64.9  11.533  129.8  0.0550   49.2  0.8320  -42.7
 1.320  0.8252  -65.8  11.481  129.2  0.0556   48.6  0.8286  -43.3
 1.340  0.8229  -66.7  11.431  128.6  0.0562   48.0  0.8253  -43.8
 1.360  0.8209  -67.6  11.382  128.0  0.0568   47.5  0.8221  -44.4
 1.380  0.8190  -68.5  11.334  127.3  0.0574   46.9  0.8190  -44.9
 1.400  0.8173  -69.4  11.288  126.7  0.0580   46.4  0.8159  -45.5
 1.420  0.8143  -70.3  11.248  126.1  0.0585   45.9  0.8119  -46.0
 1.440  0.8114  -71.3  11.210  125.4  0.0591   45.5  0.8079  -46.6
 1.460  0.8088  -72.2  11.173  124.8  0.0596   45.0  0.8041  -47.2
 1.480  0.8065  -73.1  11.137  124.1  0.0602   44.5  0.8003  -47.7
 1.500  0.8043  -74.1  11.103  123.5  0.0607   44.1  0.7966  -48.3
 1.520  0.8016  -75.0  11.069  122.9  0.0612   43.6  0.7927  -48.9
 1.540  0.7991  -76.0  11.037  122.2  0.0616   43.0  0.7889  -49.4
 1.560  0.7968  -77.0  11.006  121.6  0.0621   42.5  0.7852  -50.0
 1.580  0.7948  -77.9  10.977  120.9  0.0626   42.0  0.7816  -50.6
 1.600  0.7930  -78.9  10.949  120.3  0.0631   41.5  0.7780  -51.2
 1.620  0.7906  -79.8  10.896  119.7  0.0636   41.0  0.7745  -51.7
 1.640  0.7885  -80.6  10.844  119.1  0.0642   40.6  0.7710  -52.2
 1.660  0.7865  -81.5  10.794  118.5  0.0647   40.1  0.7676  -52.7
 1.680  0.7847  -82.4  10.744  117.9  0.0653   39.6  0.7642  -53.2
 1.700  0.7831  -83.3  10.696  117.3  0.0658   39.2  0.7609  -53.7
 1.720  0.7806  -84.2  10.656  116.7  0.0662   38.7  0.7572  -54.3
 1.740  0.7783  -85.2  10.618  116.1  0.0667   38.3  0.7535  -54.9
 1.760  0.7762  -86.1  10.581  115.5  0.0671   37.8  0.7500  -55.5
 1.780  0.7743  -87.1  10.545  114.9  0.0676   37.3  0.7465  -56.1
 1.800  0.7726  -88.0  10.510  114.3  0.0680   36.9  0.7431  -56.7
 1.820  0.7707  -88.8  10.461  113.8  0.0685   36.4  0.7393  -57.2
 1.840  0.7689  -89.7  10.414  113.2  0.0689   36.0  0.7356  -57.7
 1.860  0.7674  -90.5  10.367  112.6  0.0694   35.6  0.7319  -58.2
 1.880  0.7659  -91.4  10.322  112.1  0.0698   35.1  0.7283  -58.8
 1.900  0.7647  -92.2  10.277  111.5  0.0703   34.7  0.7247  -59.3
 1.920  0.7626  -93.1  10.233  110.9  0.0706   34.2  0.7209  -59.9
 1.940  0.7607  -93.9  10.190  110.4  0.0709   33.7  0.7172  -60.4
 1.960  0.7590  -94.8  10.148  109.8  0.0712   33.2  0.7135  -61.0
 1.980  0.7575  -95.7  10.108  109.2  0.0716   32.8  0.7099  -61.6
 2.000  0.7561  -96.6  10.068  108.6  0.0719   32.3  0.7064  -62.2
 2.020  0.7542  -97.5  10.019  108.0  0.0723   31.9  0.7026  -62.7
 2.040  0.7524  -98.3   9.972  107.4  0.0726   31.4  0.6989  -63.3
 2.060  0.7509  -99.2   9.926  106.8  0.0730   31.0  0.6952  -63.8
 2.080  0.7495 -100.1   9.880  106.2  0.0734   30.5  0.6916  -64.3
 2.100  0.7483 -101.0   9.836  105.6  0.0738   30.1  0.6880  -64.9
 2.120  0.7461 -101.9   9.794  105.0  0.0742   29.6  0.6845  -65.4
 2.140  0.7442 -102.7   9.752  104.5  0.0745   29.2  0.6812  -65.9
 2.160  0.7423 -103.6   9.712  103.9  0.0749   28.7  0.6778  -66.4
 2.180  0.7407 -104.4   9.672  103.3  0.0752   28.3  0.6745  -67.0
 2.200  0.7392 -105.3   9.634  102.7  0.0756   27.8  0.6713  -67.5
 2.220  0.7371 -106.1   9.593  102.1  0.0759   27.4  0.6678  -68.0
 2.240  0.7352 -107.0   9.553  101.6  0.0761   27.0  0.6643  -68.5
 2.260  0.7334 -107.8   9.514  101.0  0.0764   26.5  0.6609  -69.0
 2.280  0.7318 -108.7   9.476  100.5  0.0767   26.1  0.6575  -69.5
 2.300  0.7303 -109.5   9.439   99.9  0.0770   25.7  0.6542  -70.0
 2.320  0.7285 -110.3   9.393   99.4  0.0773   25.3  0.6507  -70.5
 2.340  0.7269 -111.1   9.349   98.9  0.0775   24.9  0.6473  -71.0
 2.360  0.7254 -111.9   9.305   98.4  0.0778   24.6  0.6440  -71.5
 2.380  0.7241 -112.7   9.261   97.8  0.0780   24.2  0.6407  -72.1
 2.400  0.7229 -113.5   9.219   97.3  0.0783   23.8  0.6374  -72.6
 2.420  0.7211 -114.3   9.179   96.8  0.0785   23.4  0.6337  -73.1
 2.440  0.7195 -115.1   9.139   96.2  0.0788   23.0  0.6301  -73.6
 2.460  0.7180 -115.9   9.100   95.7  0.0790   22.5  0.6266  -74.1
 2.480  0.7166 -116.8   9.062   95.1  0.0793   22.1  0.6231  -74.6
 2.500  0.7154 -117.6   9.025   94.6  0.0795   21.7  0.6196  -75.1
 2.520  0.7139 -118.4   8.981   94.1  0.0797   21.3  0.6160  -75.6
 2.540  0.7124 -119.2   8.937   93.6  0.0799   20.9  0.6125  -76.1
 2.560  0.7112 -119.9   8.894   93.1  0.0801   20.6  0.6090  -76.6
 2.580  0.7100 -120.7   8.852   92.5  0.0803   20.2  0.6055  -77.1
 2.600  0.7090 -121.5   8.811   92.0  0.0805   19.8  0.6021  -77.6
 2.620  0.7073 -122.3   8.775   91.5  0.0806   19.5  0.5986  -78.1
 2.640  0.7058 -123.1   8.739   91.0  0.0808   19.1  0.5951  -78.6
 2.660  0.7044 -124.0   8.704   90.5  0.0809   18.8  0.5917  -79.1
 2.680  0.7032 -124.8   8.670   89.9  0.0811   18.4  0.5883  -79.6
 2.700  0.7021 -125.6   8.636   89.4  0.0812   18.1  0.5850  -80.1
 2.720  0.7005 -126.4   8.597   88.9  0.0815   17.7  0.5818  -80.6
 2.740  0.6990 -127.2   8.558   88.3  0.0817   17.3  0.5787  -81.0
 2.760  0.6977 -128.0   8.520   87.8  0.0820   17.0  0.5756  -81.5
 2.780  0.6965 -128.8   8.483   87.2  0.0822   16.6  0.5725  -82.0
 2.800  0.6954 -129.6   8.447   86.7  0.0825   16.2  0.5695  -82.5
 2.820  0.6939 -130.4   8.415   86.2  0.0827   15.8  0.5661  -83.0
 2.840  0.6926 -131.3   8.385   85.7  0.0828   15.4  0.5627  -83.6
 2.860  0.6914 -132.1   8.354   85.2  0.0830   15.1  0.5593  -84.1
 2.880  0.6904 -133.0   8.325   84.6  0.0831   14.7  0.5560  -84.6
 2.900  0.6895 -133.8   8.296   84.1  0.0833   14.3  0.5528  -85.2
 2.920  0.6881 -134.5   8.256   83.6  0.0834   14.0  0.5497  -85.7
 2.940  0.6868 -135.3   8.217   83.1  0.0836   13.7  0.5465  -86.2
 2.960  0.6856 -136.0   8.178   82.6  0.0837   13.4  0.5435  -86.7
 2.980  0.6846 -136.8   8.140   82.1  0.0839   13.1  0.5405  -87.3
 3.000  0.6836 -137.5   8.103   81.6  0.0840   12.8  0.5375  -87.8
 3.100  0.6776 -141.5   7.948   79.0  0.0841   10.9  0.5211  -90.5
 3.200  0.6727 -145.3   7.772   76.6  0.0850    9.2  0.5080  -93.1
 3.300  0.6686 -149.2   7.622   74.0  0.0854    7.6  0.4932  -95.9
 3.400  0.6645 -152.9   7.442   71.7  0.0857    5.9  0.4794  -98.6
 3.500  0.6619 -156.5   7.280   69.3  0.0859    4.4  0.4649 -101.4
 3.600  0.6585 -159.9   7.103   67.1  0.0859    2.8  0.4526 -104.1
 3.700  0.6562 -163.4   6.953   64.7  0.0860    1.2  0.4400 -106.9
 3.800  0.6542 -166.9   6.800   62.4  0.0862   -0.2  0.4292 -109.6
 3.900  0.6517 -170.4   6.653   60.1  0.0857   -1.5  0.4170 -112.6
 4.000  0.6513 -173.4   6.482   58.0  0.0857   -3.0  0.4076 -115.5
 4.100  0.6497 -176.6   6.341   55.7  0.0850   -4.4  0.3980 -118.3
 4.200  0.6496 -179.7   6.190   53.6  0.0852   -5.7  0.3910 -121.0
 4.300  0.6482  177.2   6.061   51.4  0.0846   -6.9  0.3825 -123.7
 4.400  0.6497  174.5   5.915   49.4  0.0841   -8.1  0.3756 -126.3
 4.500  0.6488  171.7   5.784   47.3  0.0834   -9.2  0.3678 -129.1
 4.600  0.6509  169.2   5.650   45.3  0.0831  -10.3  0.3619 -131.6
 4.700  0.6508  166.8   5.515   43.5  0.0826  -11.5  0.3570 -133.9
 4.800  0.6524  164.2   5.407   41.4  0.0819  -12.4  0.3511 -136.5
 4.900  0.6527  161.9   5.283   39.5  0.0811  -13.4  0.3452 -139.0
 5.000  0.6548  159.9   5.163   37.8  0.0807  -14.3  0.3413 -141.3
 5.100  0.6553  157.7   5.052   35.9  0.0801  -15.1  0.3374 -143.5
 5.200  0.6567  155.7   4.947   34.1  0.0797  -16.1  0.3340 -145.7
 5.300  0.6569  153.7   4.843   32.3  0.0789  -16.8  0.3299 -148.0
 5.400  0.6585  151.9   4.735   30.6  0.0783  -17.4  0.3260 -150.3
 5.500  0.6583  150.0   4.648   28.9  0.0777  -18.0  0.3223 -152.6
 5.600  0.6596  148.4   4.550   27.2  0.0771  -18.8  0.3195 -154.8
 5.700  0.6592  146.8   4.462   25.6  0.0765  -19.5  0.3168 -156.9
 5.800  0.6605  145.2   4.369   23.9  0.0759  -20.0  0.3148 -159.2
 5.900  0.6620  143.7   4.294   22.3  0.0756  -20.5  0.3129 -161.4
 6.000  0.6629  142.2   4.216   20.6  0.0750  -21.0  0.3113 -163.9
 6.100  0.6655  140.7   4.147   19.0  0.0749  -21.5  0.3115 -166.1
 6.200  0.6660  139.3   4.073   17.5  0.0743  -22.0  0.3107 -168.5
 6.300  0.6684  137.7   4.005   15.8  0.0740  -22.5  0.3106 -170.9
 6.400  0.6692  136.2   3.943   14.1  0.0736  -22.9  0.3102 -173.6
 6.500  0.6713  134.5   3.881   12.4  0.0732  -23.5  0.3109 -176.0
 6.600  0.6724  133.1   3.811   10.8  0.0731  -24.1  0.3123 -178.2
 6.800  0.6760  129.9   3.690    7.5  0.0723  -25.2  0.3140  177.2
 7.000  0.6794  126.6   3.580    4.2  0.0717  -25.9  0.3176  172.6
 7.200  0.6840  123.5   3.466    0.9  0.0711  -27.0  0.3225  168.5
 7.400  0.6883  120.2   3.363   -2.5  0.0706  -27.7  0.3267  164.1
 7.600  0.6947  116.8   3.263   -6.0  0.0699  -28.6  0.3322  159.5
 7.800  0.7023  113.3   3.161   -9.4  0.0694  -29.6  0.3375  155.1
 8.000  0.7106  109.9   3.064  -12.9  0.0688  -30.4  0.3436  150.4
 8.200  0.7179  106.5   2.950  -16.3  0.0680  -31.2  0.3497  145.2
 8.400  0.7276  103.1   2.848  -19.9  0.0673  -32.0  0.3585  140.2
 8.600  0.7368   99.9   2.742  -23.3  0.0666  -32.8  0.3696  135.1
 8.800  0.7454   96.8   2.630  -26.6  0.0659  -33.5  0.3833  130.0
 9.000  0.7560   93.8   2.527  -30.1  0.0652  -34.2  0.3998  125.3
 9.200  0.7639   91.2   2.415  -32.9  0.0642  -34.6  0.4174  120.9
 9.400  0.7735   88.6   2.308  -36.0  0.0633  -35.1  0.4372  116.8
 9.600  0.7826   86.4   2.209  -38.8  0.0625  -35.3  0.4578  113.4
 9.800  0.7908   84.5   2.114  -41.3  0.0619  -35.2  0.4784  110.7
10.000  0.7998   82.7   2.023  -44.0  0.0613  -35.1  0.5000  108.2
!
!  f       NFmin   Gammaopt  rn/50
! GHz       dB    MAG  ANG    -
 0.450      0.44  0.40   11   0.23
 0.900      0.45  0.41   17   0.22
 1.500      0.49  0.39   26   0.21
 1.900      0.52  0.38   42   0.21
 2.400      0.55  0.38   46   0.20
 3.500      0.65  0.35   68   0.18
 5.500      0.87  0.24  164   0.16
10.000      1.52  0.55  -82   0.21
!
! (c) 2016  Infineon Technologies AG, Munich
