! Infineon Technologies  Discrete & RF Semiconductors
! BFP740FESD
! VCE =  2.5 V,  IC =  25 mA
! Common Emitter S-Parameters:                            Jan 2016
# GHz  S  MA  R  50
!  f         S11            S21            S12            S22
! GHz     MAG   ANG      MAG   ANG      MAG   ANG      MAG   ANG
 0.010  0.6940   -0.6  52.625 -179.9  0.0007  107.8  0.9486    3.5
 0.015  0.6965   -2.0  52.633  178.9  0.0009  101.6  0.9635    1.2
 0.020  0.6994   -3.3  52.663  177.8  0.0011   97.7  0.9799   -1.0
 0.025  0.6988   -4.1  52.624  177.3  0.0013   95.1  0.9810   -1.5
 0.030  0.6984   -4.9  52.589  176.8  0.0015   93.2  0.9822   -2.0
 0.035  0.6981   -5.7  52.558  176.3  0.0016   91.7  0.9834   -2.6
 0.040  0.6980   -6.5  52.531  175.8  0.0018   90.5  0.9848   -3.1
 0.045  0.6980   -7.3  52.508  175.3  0.0020   89.5  0.9862   -3.6
 0.050  0.6981   -8.1  52.489  174.8  0.0022   88.7  0.9877   -4.1
 0.055  0.6968   -8.9  52.458  174.3  0.0024   87.4  0.9869   -4.6
 0.060  0.6957   -9.7  52.431  173.8  0.0027   86.3  0.9862   -5.1
 0.065  0.6947  -10.6  52.408  173.3  0.0029   85.4  0.9855   -5.6
 0.070  0.6939  -11.4  52.388  172.8  0.0031   84.7  0.9849   -6.1
 0.075  0.6932  -12.2  52.373  172.4  0.0033   84.0  0.9844   -6.6
 0.080  0.6927  -13.1  52.361  171.9  0.0036   83.4  0.9840   -7.2
 0.085  0.6923  -13.9  52.353  171.4  0.0038   82.9  0.9837   -7.7
 0.090  0.6921  -14.7  52.349  170.9  0.0040   82.5  0.9834   -8.2
 0.095  0.6920  -15.6  52.348  170.4  0.0043   82.1  0.9832   -8.7
 0.100  0.6920  -16.4  52.352  169.9  0.0045   81.7  0.9831   -9.2
 0.105  0.6907  -17.2  52.242  169.4  0.0047   81.4  0.9813   -9.7
 0.110  0.6896  -18.0  52.137  168.9  0.0049   81.0  0.9796  -10.2
 0.115  0.6886  -18.8  52.035  168.4  0.0051   80.7  0.9779  -10.7
 0.120  0.6878  -19.6  51.938  167.8  0.0053   80.5  0.9763  -11.1
 0.125  0.6871  -20.4  51.846  167.3  0.0055   80.2  0.9748  -11.6
 0.130  0.6865  -21.2  51.757  166.8  0.0057   80.0  0.9733  -12.1
 0.135  0.6860  -22.0  51.673  166.3  0.0059   79.8  0.9719  -12.6
 0.140  0.6857  -22.8  51.593  165.8  0.0061   79.6  0.9706  -13.1
 0.145  0.6855  -23.6  51.517  165.2  0.0063   79.4  0.9694  -13.6
 0.150  0.6855  -24.4  51.446  164.7  0.0065   79.2  0.9682  -14.1
 0.155  0.6845  -25.1  51.308  164.2  0.0067   78.7  0.9659  -14.6
 0.160  0.6837  -25.9  51.173  163.8  0.0069   78.2  0.9636  -15.0
 0.165  0.6829  -26.6  51.042  163.3  0.0071   77.8  0.9613  -15.5
 0.170  0.6823  -27.4  50.914  162.8  0.0073   77.3  0.9592  -15.9
 0.175  0.6818  -28.1  50.789  162.3  0.0075   76.9  0.9571  -16.4
 0.180  0.6814  -28.9  50.669  161.8  0.0077   76.6  0.9550  -16.8
 0.185  0.6811  -29.6  50.552  161.4  0.0079   76.2  0.9531  -17.3
 0.190  0.6810  -30.4  50.438  160.9  0.0081   75.8  0.9511  -17.8
 0.195  0.6809  -31.1  50.328  160.4  0.0083   75.5  0.9493  -18.2
 0.200  0.6810  -31.9  50.222  159.9  0.0085   75.2  0.9475  -18.7
 0.220  0.6756  -34.8  49.520  158.0  0.0093   73.8  0.9374  -20.4
 0.240  0.6719  -37.7  48.873  156.1  0.0101   72.6  0.9281  -22.0
 0.260  0.6684  -40.6  48.252  154.3  0.0108   71.4  0.9179  -23.7
 0.280  0.6650  -43.4  47.643  152.7  0.0115   70.2  0.9069  -25.3
 0.300  0.6632  -46.3  47.074  151.0  0.0122   69.1  0.8966  -26.9
 0.320  0.6586  -48.9  46.371  149.5  0.0128   67.9  0.8850  -28.4
 0.340  0.6555  -51.6  45.701  147.9  0.0135   66.7  0.8741  -30.0
 0.360  0.6522  -54.1  45.027  146.4  0.0141   65.7  0.8630  -31.5
 0.380  0.6487  -56.6  44.342  145.0  0.0147   64.6  0.8516  -32.8
 0.400  0.6465  -59.1  43.685  143.5  0.0153   63.7  0.8407  -34.2
 0.420  0.6430  -61.4  42.995  142.2  0.0159   62.6  0.8293  -35.5
 0.440  0.6405  -63.8  42.330  140.8  0.0164   61.7  0.8184  -36.8
 0.450  0.6397  -65.0  42.006  140.1  0.0167   61.2  0.8131  -37.5
 0.460  0.6378  -66.1  41.670  139.5  0.0170   60.8  0.8073  -38.1
 0.480  0.6349  -68.4  41.014  138.2  0.0175   59.9  0.7959  -39.4
 0.500  0.6329  -70.7  40.378  136.9  0.0181   59.1  0.7850  -40.7
 0.520  0.6293  -72.7  39.736  135.8  0.0186   58.2  0.7738  -41.8
 0.540  0.6266  -74.8  39.109  134.7  0.0190   57.3  0.7629  -42.9
 0.560  0.6246  -76.8  38.498  133.5  0.0195   56.5  0.7524  -44.0
 0.580  0.6234  -78.9  37.904  132.3  0.0199   55.7  0.7421  -45.2
 0.600  0.6231  -81.0  37.327  131.0  0.0204   54.9  0.7321  -46.4
 0.620  0.6203  -82.8  36.756  130.1  0.0208   54.2  0.7221  -47.4
 0.640  0.6182  -84.7  36.194  129.2  0.0212   53.5  0.7122  -48.4
 0.660  0.6167  -86.6  35.642  128.2  0.0215   52.8  0.7027  -49.4
 0.680  0.6159  -88.4  35.101  127.2  0.0219   52.1  0.6933  -50.5
 0.700  0.6157  -90.3  34.570  126.2  0.0223   51.5  0.6842  -51.6
 0.720  0.6140  -91.9  34.049  125.4  0.0226   50.9  0.6750  -52.5
 0.740  0.6129  -93.5  33.535  124.5  0.0230   50.2  0.6660  -53.4
 0.760  0.6122  -95.2  33.030  123.6  0.0233   49.6  0.6572  -54.4
 0.780  0.6120  -96.8  32.532  122.7  0.0237   49.1  0.6486  -55.4
 0.800  0.6123  -98.4  32.044  121.7  0.0240   48.5  0.6402  -56.4
 0.820  0.6110  -99.9  31.599  120.9  0.0243   47.9  0.6320  -57.2
 0.840  0.6102 -101.4  31.159  120.2  0.0246   47.4  0.6240  -58.1
 0.860  0.6097 -102.8  30.725  119.4  0.0249   46.8  0.6161  -59.0
 0.880  0.6096 -104.3  30.297  118.5  0.0252   46.3  0.6083  -59.9
 0.900  0.6100 -105.8  29.876  117.7  0.0255   45.8  0.6007  -60.8
 0.920  0.6089 -107.1  29.466  117.0  0.0257   45.3  0.5931  -61.6
 0.940  0.6082 -108.5  29.060  116.3  0.0260   44.8  0.5856  -62.4
 0.960  0.6078 -109.8  28.658  115.6  0.0262   44.3  0.5782  -63.3
 0.980  0.6077 -111.2  28.261  114.9  0.0265   43.9  0.5710  -64.1
 1.000  0.6080 -112.5  27.869  114.1  0.0267   43.4  0.5639  -65.0
 1.020  0.6076 -113.7  27.505  113.5  0.0269   43.0  0.5573  -65.7
 1.040  0.6075 -114.9  27.145  112.8  0.0271   42.6  0.5507  -66.5
 1.060  0.6076 -116.0  26.788  112.2  0.0274   42.2  0.5443  -67.3
 1.080  0.6080 -117.2  26.435  111.5  0.0276   41.9  0.5379  -68.1
 1.100  0.6086 -118.4  26.085  110.8  0.0278   41.5  0.5317  -68.9
 1.120  0.6083 -119.5  25.759  110.2  0.0280   41.1  0.5257  -69.6
 1.140  0.6083 -120.6  25.436  109.6  0.0282   40.7  0.5197  -70.4
 1.160  0.6085 -121.6  25.116  108.9  0.0283   40.3  0.5138  -71.1
 1.180  0.6089 -122.7  24.799  108.3  0.0285   39.9  0.5081  -71.9
 1.200  0.6095 -123.8  24.486  107.6  0.0287   39.5  0.5024  -72.7
 1.220  0.6094 -124.8  24.193  107.1  0.0289   39.2  0.4971  -73.4
 1.240  0.6094 -125.7  23.901  106.5  0.0290   38.8  0.4919  -74.1
 1.260  0.6096 -126.7  23.612  106.0  0.0292   38.5  0.4868  -74.8
 1.280  0.6100 -127.6  23.325  105.4  0.0293   38.2  0.4817  -75.5
 1.300  0.6106 -128.6  23.041  104.8  0.0295   37.9  0.4767  -76.2
 1.320  0.6104 -129.5  22.768  104.3  0.0296   37.6  0.4719  -76.9
 1.340  0.6103 -130.4  22.497  103.8  0.0297   37.4  0.4671  -77.5
 1.360  0.6104 -131.3  22.228  103.2  0.0299   37.1  0.4624  -78.2
 1.380  0.6107 -132.2  21.961  102.7  0.0300   36.9  0.4578  -78.9
 1.400  0.6111 -133.1  21.696  102.1  0.0301   36.6  0.4532  -79.6
 1.420  0.6111 -133.9  21.462  101.7  0.0302   36.4  0.4492  -80.2
 1.440  0.6111 -134.6  21.229  101.2  0.0303   36.2  0.4452  -80.8
 1.460  0.6113 -135.4  20.997  100.8  0.0305   35.9  0.4412  -81.4
 1.480  0.6116 -136.1  20.767  100.3  0.0306   35.7  0.4373  -82.1
 1.500  0.6120 -136.9  20.538   99.8  0.0307   35.5  0.4335  -82.7
 1.520  0.6124 -137.6  20.320   99.3  0.0308   35.3  0.4298  -83.3
 1.540  0.6129 -138.4  20.103   98.9  0.0309   35.0  0.4262  -83.9
 1.560  0.6136 -139.1  19.888   98.4  0.0310   34.8  0.4226  -84.5
 1.580  0.6143 -139.9  19.674   97.9  0.0311   34.5  0.4191  -85.2
 1.600  0.6151 -140.6  19.461   97.4  0.0312   34.3  0.4156  -85.8
 1.620  0.6147 -141.3  19.267   97.0  0.0313   34.1  0.4125  -86.3
 1.640  0.6145 -142.0  19.074   96.5  0.0314   33.9  0.4094  -86.9
 1.660  0.6143 -142.6  18.882   96.1  0.0316   33.8  0.4064  -87.5
 1.680  0.6142 -143.3  18.691   95.7  0.0317   33.6  0.4034  -88.0
 1.700  0.6142 -144.0  18.501   95.2  0.0318   33.4  0.4004  -88.6
 1.720  0.6144 -144.6  18.312   94.8  0.0319   33.3  0.3977  -89.1
 1.740  0.6147 -145.1  18.123   94.4  0.0320   33.1  0.3950  -89.7
 1.760  0.6151 -145.7  17.936   94.0  0.0320   33.0  0.3924  -90.2
 1.780  0.6155 -146.2  17.749   93.6  0.0321   32.8  0.3898  -90.7
 1.800  0.6160 -146.8  17.563   93.2  0.0322   32.7  0.3872  -91.3
 1.820  0.6161 -147.4  17.403   92.8  0.0323   32.6  0.3847  -91.9
 1.840  0.6162 -148.0  17.243   92.5  0.0324   32.4  0.3823  -92.4
 1.860  0.6164 -148.7  17.084   92.1  0.0324   32.3  0.3799  -93.0
 1.880  0.6167 -149.3  16.926   91.7  0.0325   32.1  0.3776  -93.6
 1.900  0.6171 -149.9  16.769   91.3  0.0326   32.0  0.3753  -94.2
 1.920  0.6170 -150.4  16.616   91.0  0.0327   31.9  0.3732  -94.6
 1.940  0.6170 -150.8  16.464   90.6  0.0328   31.8  0.3712  -95.1
 1.960  0.6170 -151.3  16.313   90.2  0.0328   31.7  0.3692  -95.6
 1.980  0.6170 -151.7  16.162   89.9  0.0329   31.6  0.3672  -96.0
 2.000  0.6171 -152.2  16.012   89.5  0.0330   31.5  0.3652  -96.5
 2.020  0.6169 -152.7  15.877   89.2  0.0331   31.4  0.3634  -97.0
 2.040  0.6168 -153.2  15.742   88.8  0.0331   31.3  0.3616  -97.5
 2.060  0.6168 -153.7  15.608   88.5  0.0332   31.2  0.3598  -97.9
 2.080  0.6167 -154.2  15.474   88.1  0.0332   31.1  0.3581  -98.4
 2.100  0.6168 -154.7  15.342   87.7  0.0333   30.9  0.3564  -98.9
 2.120  0.6168 -155.2  15.209   87.4  0.0334   30.8  0.3547  -99.4
 2.140  0.6170 -155.7  15.078   87.0  0.0334   30.7  0.3530  -99.9
 2.160  0.6171 -156.2  14.947   86.6  0.0335   30.6  0.3514 -100.5
 2.180  0.6173 -156.7  14.817   86.2  0.0335   30.5  0.3498 -101.0
 2.200  0.6176 -157.2  14.687   85.8  0.0336   30.4  0.3482 -101.5
 2.220  0.6175 -157.7  14.571   85.5  0.0337   30.3  0.3468 -102.0
 2.240  0.6175 -158.1  14.455   85.2  0.0337   30.2  0.3455 -102.4
 2.260  0.6174 -158.6  14.340   84.9  0.0338   30.2  0.3442 -102.9
 2.280  0.6175 -159.0  14.225   84.5  0.0339   30.1  0.3429 -103.3
 2.300  0.6175 -159.5  14.111   84.2  0.0339   30.0  0.3416 -103.8
 2.320  0.6176 -159.9  13.997   83.9  0.0340   29.9  0.3404 -104.3
 2.340  0.6178 -160.4  13.884   83.5  0.0341   29.8  0.3391 -104.8
 2.360  0.6179 -160.8  13.771   83.2  0.0342   29.8  0.3379 -105.2
 2.380  0.6181 -161.3  13.659   82.9  0.0342   29.7  0.3368 -105.7
 2.400  0.6184 -161.7  13.547   82.5  0.0343   29.6  0.3356 -106.2
 2.420  0.6185 -162.1  13.445   82.2  0.0343   29.5  0.3346 -106.6
 2.440  0.6186 -162.5  13.344   81.9  0.0344   29.5  0.3336 -107.1
 2.460  0.6188 -162.9  13.243   81.6  0.0344   29.4  0.3327 -107.6
 2.480  0.6189 -163.3  13.143   81.3  0.0345   29.4  0.3317 -108.0
 2.500  0.6192 -163.8  13.042   81.0  0.0345   29.3  0.3308 -108.5
 2.520  0.6194 -164.2  12.943   80.6  0.0346   29.2  0.3299 -108.9
 2.540  0.6197 -164.6  12.843   80.3  0.0346   29.2  0.3291 -109.4
 2.560  0.6200 -165.0  12.744   80.0  0.0347   29.1  0.3282 -109.9
 2.580  0.6203 -165.4  12.646   79.6  0.0347   29.1  0.3274 -110.3
 2.600  0.6207 -165.8  12.548   79.3  0.0348   29.0  0.3266 -110.8
 2.620  0.6207 -166.2  12.458   79.0  0.0348   29.0  0.3260 -111.2
 2.640  0.6206 -166.5  12.369   78.8  0.0349   29.0  0.3254 -111.6
 2.660  0.6206 -166.9  12.280   78.5  0.0349   28.9  0.3248 -112.0
 2.680  0.6207 -167.2  12.191   78.2  0.0350   28.9  0.3242 -112.3
 2.700  0.6207 -167.6  12.102   77.9  0.0350   28.9  0.3236 -112.7
 2.720  0.6208 -167.9  12.014   77.6  0.0351   28.9  0.3231 -113.1
 2.740  0.6209 -168.3  11.926   77.3  0.0351   28.9  0.3225 -113.5
 2.760  0.6210 -168.6  11.838   77.0  0.0352   28.8  0.3220 -113.9
 2.780  0.6211 -169.0  11.751   76.7  0.0352   28.8  0.3215 -114.3
 2.800  0.6213 -169.3  11.664   76.4  0.0353   28.8  0.3210 -114.7
 2.820  0.6216 -169.6  11.587   76.1  0.0353   28.8  0.3207 -115.0
 2.840  0.6219 -169.9  11.511   75.9  0.0354   28.7  0.3203 -115.4
 2.860  0.6223 -170.2  11.435   75.6  0.0354   28.7  0.3200 -115.7
 2.880  0.6226 -170.5  11.359   75.4  0.0355   28.7  0.3197 -116.0
 2.900  0.6230 -170.9  11.283   75.1  0.0355   28.6  0.3194 -116.3
 2.920  0.6234 -171.2  11.207   74.8  0.0356   28.6  0.3191 -116.7
 2.940  0.6238 -171.5  11.132   74.5  0.0356   28.6  0.3188 -117.0
 2.960  0.6243 -171.8  11.057   74.3  0.0357   28.6  0.3185 -117.3
 2.980  0.6247 -172.1  10.982   74.0  0.0357   28.5  0.3183 -117.7
 3.000  0.6252 -172.4  10.908   73.7  0.0358   28.5  0.3180 -118.0
 3.100  0.6256 -173.8  10.598   72.6  0.0361   28.5  0.3171 -119.2
 3.200  0.6263 -175.1  10.291   71.4  0.0364   28.5  0.3163 -120.5
 3.300  0.6273 -176.5   9.989   70.2  0.0366   28.6  0.3157 -121.7
 3.400  0.6287 -177.9   9.693   68.9  0.0369   28.6  0.3152 -123.0
 3.500  0.6305 -179.2   9.401   67.5  0.0372   28.6  0.3149 -124.2
 3.600  0.6312  179.6   9.174   66.4  0.0375   28.7  0.3140 -125.1
 3.700  0.6322  178.3   8.950   65.2  0.0379   28.8  0.3133 -126.0
 3.800  0.6335  177.1   8.731   64.0  0.0382   28.9  0.3126 -126.9
 3.900  0.6350  175.9   8.515   62.7  0.0386   29.0  0.3119 -127.9
 4.000  0.6369  174.7   8.304   61.4  0.0389   29.1  0.3114 -128.8
 4.100  0.6384  173.6   8.115   60.3  0.0393   29.1  0.3107 -130.0
 4.200  0.6402  172.4   7.930   59.1  0.0397   29.1  0.3101 -131.2
 4.300  0.6422  171.3   7.748   57.9  0.0400   29.2  0.3097 -132.5
 4.400  0.6444  170.2   7.570   56.6  0.0404   29.2  0.3094 -133.7
 4.500  0.6469  169.1   7.396   55.2  0.0408   29.2  0.3093 -134.9
 4.600  0.6478  168.2   7.234   54.1  0.0411   29.2  0.3088 -136.0
 4.700  0.6488  167.2   7.074   53.0  0.0415   29.2  0.3084 -137.1
 4.800  0.6500  166.3   6.918   51.9  0.0418   29.3  0.3082 -138.3
 4.900  0.6514  165.3   6.764   50.7  0.0422   29.3  0.3080 -139.4
 5.000  0.6530  164.4   6.613   49.4  0.0425   29.3  0.3080 -140.5
 5.100  0.6525  163.5   6.484   48.4  0.0429   29.3  0.3073 -141.5
 5.200  0.6522  162.6   6.358   47.4  0.0433   29.3  0.3067 -142.5
 5.300  0.6521  161.6   6.233   46.3  0.0436   29.2  0.3062 -143.4
 5.400  0.6521  160.7   6.111   45.2  0.0440   29.2  0.3058 -144.4
 5.500  0.6523  159.8   5.991   44.0  0.0444   29.2  0.3055 -145.4
 5.600  0.6522  158.7   5.891   42.9  0.0448   29.1  0.3044 -146.7
 5.700  0.6523  157.6   5.794   41.8  0.0452   29.1  0.3036 -148.0
 5.800  0.6527  156.5   5.699   40.7  0.0456   29.0  0.3028 -149.3
 5.900  0.6533  155.4   5.606   39.5  0.0460   29.0  0.3022 -150.6
 6.000  0.6541  154.3   5.515   38.3  0.0464   28.9  0.3018 -151.9
 6.100  0.6543  153.1   5.422   37.2  0.0467   28.8  0.3009 -153.4
 6.200  0.6547  151.9   5.331   36.0  0.0471   28.8  0.3002 -154.9
 6.300  0.6554  150.8   5.242   34.8  0.0474   28.7  0.2997 -156.4
 6.400  0.6564  149.6   5.155   33.6  0.0478   28.7  0.2994 -157.9
 6.500  0.6577  148.4   5.071   32.3  0.0481   28.6  0.2993 -159.4
 6.600  0.6585  147.3   4.984   31.2  0.0484   28.8  0.2969 -160.7
 6.800  0.6608  145.2   4.815   28.9  0.0491   29.1  0.2926 -163.4
 7.000  0.6640  143.1   4.654   26.5  0.0497   29.4  0.2890 -166.2
 7.200  0.6669  141.3   4.502   24.5  0.0510   30.0  0.2829 -169.2
 7.400  0.6704  139.5   4.357   22.4  0.0523   30.5  0.2776 -172.2
 7.600  0.6767  137.7   4.223   20.2  0.0540   30.6  0.2755 -176.0
 7.800  0.6857  136.0   4.102   17.9  0.0560   30.2  0.2772  179.6
 8.000  0.6954  134.3   3.988   15.4  0.0580   29.8  0.2805  175.3
 8.200  0.7017  132.6   3.852   13.0  0.0594   28.5  0.2887  170.0
 8.400  0.7086  131.0   3.724   10.5  0.0609   27.2  0.2993  165.1
 8.600  0.7132  129.5   3.595    8.2  0.0619   26.0  0.3101  160.2
 8.800  0.7155  128.1   3.464    6.1  0.0626   24.9  0.3216  155.1
 9.000  0.7181  126.7   3.339    3.8  0.0633   23.8  0.3353  150.5
 9.200  0.7226  125.5   3.226    2.3  0.0638   22.9  0.3517  146.2
 9.400  0.7274  124.4   3.116    0.7  0.0644   22.0  0.3698  142.3
 9.600  0.7365  122.9   3.015   -1.1  0.0649   21.2  0.3921  138.8
 9.800  0.7501  121.3   2.925   -3.2  0.0654   20.5  0.4182  135.8
10.000  0.7644  119.7   2.839   -5.5  0.0658   19.8  0.4454  133.1
!
!  f       NFmin   Gammaopt  rn/50
! GHz       dB    MAG  ANG    -
 0.450      0.89  0.09 -166   0.08
 2.400      0.91  0.13 -166   0.09
 5.500      1.07  0.18 -165   0.08
10.000      1.57  0.39 -118   0.19
!
! (c) 2016  Infineon Technologies AG, Munich
