! Infineon Technologies  Discrete & RF Semiconductors
! BFP760
! VCE =  3.5 V,  IC =  45 mA
! Common Emitter S-Parameters:                            Nov 2012
# GHz  S  MA  R  50
!  f         S11            S21            S12            S22
! GHz     MAG   ANG      MAG   ANG      MAG   ANG      MAG   ANG
 0.030  0.5477  -10.7  77.712  173.8  0.0019   86.2  0.9655   -5.3
 0.040  0.5496  -14.2  77.353  171.9  0.0028   81.3  0.9671   -7.5
 0.050  0.5493  -17.8  77.428  169.2  0.0038   76.7  0.9647   -9.7
 0.060  0.5469  -21.5  76.780  167.3  0.0042   74.6  0.9600  -11.8
 0.070  0.5453  -24.8  76.230  165.2  0.0047   81.1  0.9551  -13.9
 0.080  0.5442  -28.3  75.383  163.3  0.0056   80.2  0.9480  -16.0
 0.090  0.5431  -31.5  74.560  161.3  0.0058   77.4  0.9394  -18.0
 0.100  0.5410  -34.8  73.657  159.5  0.0062   76.8  0.9313  -20.0
 0.110  0.5379  -37.9  72.679  157.7  0.0073   73.5  0.9189  -22.0
 0.120  0.5366  -41.1  71.730  155.9  0.0075   72.4  0.9096  -23.8
 0.130  0.5346  -44.1  70.652  154.2  0.0083   71.5  0.8983  -25.6
 0.140  0.5327  -47.1  69.641  152.6  0.0086   71.5  0.8856  -27.4
 0.150  0.5308  -50.1  68.644  150.9  0.0090   71.4  0.8749  -29.1
 0.200  0.5258  -63.4  63.235  143.7  0.0115   66.8  0.8154  -36.9
 0.250  0.5223  -74.8  58.180  137.6  0.0134   63.1  0.7587  -43.6
 0.300  0.5208  -84.8  53.435  132.4  0.0152   59.7  0.7085  -49.5
 0.350  0.5229  -93.5  49.224  128.1  0.0169   57.0  0.6619  -54.8
 0.400  0.5272 -101.0  45.599  124.3  0.0185   55.0  0.6213  -59.5
 0.450  0.5327 -107.5  42.375  121.0  0.0199   52.7  0.5861  -64.0
 0.500  0.5370 -113.4  39.543  118.1  0.0208   51.1  0.5538  -68.1
 0.600  0.5497 -123.4  34.826  113.0  0.0230   48.5  0.5007  -75.6
 0.700  0.5610 -131.6  31.057  108.7  0.0246   45.8  0.4573  -82.6
 0.800  0.5728 -138.5  27.976  105.0  0.0261   44.2  0.4219  -89.0
 0.900  0.5819 -144.5  25.432  101.7  0.0273   42.2  0.3921  -95.2
 1.000  0.5907 -149.6  23.281   98.8  0.0284   41.3  0.3687 -100.8
 1.100  0.5978 -154.3  21.443   96.0  0.0294   40.5  0.3482 -106.2
 1.200  0.6053 -158.3  19.877   93.6  0.0304   39.7  0.3326 -111.2
 1.300  0.6109 -162.1  18.510   91.2  0.0313   39.1  0.3183 -116.0
 1.400  0.6170 -165.4  17.307   89.0  0.0322   38.8  0.3081 -120.4
 1.500  0.6222 -168.6  16.253   86.9  0.0330   38.4  0.2981 -124.8
 1.600  0.6281 -171.3  15.329   84.9  0.0338   38.1  0.2915 -128.8
 1.700  0.6327 -174.1  14.484   83.0  0.0346   38.1  0.2842 -132.8
 1.800  0.6378 -176.6  13.727   81.1  0.0354   37.6  0.2807 -136.6
 1.900  0.6421 -179.0  13.039   79.3  0.0363   37.6  0.2761 -140.4
 2.000  0.6468  178.7  12.422   77.5  0.0371   37.2  0.2741 -143.9
 2.100  0.6502  176.6  11.810   75.8  0.0376   37.3  0.2724 -147.1
 2.200  0.6533  174.6  11.276   74.1  0.0384   37.3  0.2708 -150.3
 2.300  0.6567  172.7  10.792   72.5  0.0393   36.9  0.2691 -153.4
 2.400  0.6604  170.7  10.347   70.9  0.0400   36.9  0.2687 -156.4
 2.500  0.6636  168.8   9.929   69.3  0.0408   36.8  0.2679 -159.3
 2.600  0.6666  167.0   9.536   67.7  0.0416   36.9  0.2680 -162.3
 2.700  0.6695  165.3   9.172   66.2  0.0423   36.6  0.2685 -165.1
 2.800  0.6728  163.6   8.831   64.7  0.0431   36.4  0.2700 -167.8
 2.900  0.6762  161.9   8.507   63.2  0.0439   36.4  0.2718 -170.5
 3.000  0.6797  160.2   8.212   61.7  0.0445   36.2  0.2748 -173.1
 3.100  0.6834  158.7   7.924   60.3  0.0454   36.1  0.2779 -175.5
 3.200  0.6869  157.1   7.658   58.9  0.0460   36.0  0.2807 -177.7
 3.300  0.6906  155.5   7.402   57.5  0.0468   35.6  0.2844  180.0
 3.400  0.6940  154.1   7.157   56.1  0.0475   35.5  0.2885  177.9
 3.500  0.6980  152.6   6.932   54.7  0.0483   35.2  0.2923  175.9
 3.600  0.7018  151.1   6.714   53.4  0.0489   35.0  0.2970  173.9
 3.700  0.7053  149.8   6.507   52.0  0.0497   34.8  0.3015  172.0
 3.800  0.7085  148.4   6.300   50.7  0.0504   34.6  0.3067  170.2
 3.900  0.7121  147.1   6.115   49.5  0.0510   34.2  0.3115  168.5
 4.000  0.7155  145.8   5.933   48.2  0.0518   34.1  0.3167  166.9
 4.100  0.7194  144.6   5.766   46.9  0.0524   33.9  0.3219  165.6
 4.200  0.7225  143.5   5.600   45.8  0.0531   33.7  0.3266  164.2
 4.300  0.7257  142.4   5.442   44.6  0.0538   33.5  0.3318  162.9
 4.400  0.7290  141.4   5.293   43.4  0.0543   33.3  0.3363  161.7
 4.500  0.7320  140.3   5.154   42.2  0.0551   32.9  0.3410  160.6
 4.600  0.7353  139.3   5.018   41.1  0.0557   32.8  0.3450  159.4
 4.700  0.7380  138.5   4.890   40.0  0.0564   32.6  0.3496  158.3
 4.800  0.7406  137.6   4.765   38.9  0.0571   32.4  0.3534  157.3
 4.900  0.7433  136.7   4.649   37.8  0.0578   32.2  0.3576  156.3
 5.000  0.7459  136.0   4.537   36.7  0.0584   31.9  0.3611  155.3
 5.100  0.7484  135.2   4.431   35.7  0.0591   31.7  0.3651  154.3
 5.200  0.7507  134.4   4.331   34.5  0.0598   31.5  0.3682  153.3
 5.300  0.7526  133.6   4.232   33.5  0.0604   31.2  0.3715  152.4
 5.400  0.7542  132.9   4.137   32.4  0.0612   30.9  0.3749  151.4
 5.500  0.7554  132.2   4.045   31.4  0.0617   30.8  0.3774  150.5
 5.600  0.7562  131.6   3.956   30.4  0.0625   30.6  0.3799  149.5
 5.700  0.7578  130.9   3.878   29.3  0.0632   30.2  0.3836  148.5
 5.800  0.7590  130.2   3.796   28.3  0.0640   30.0  0.3860  147.5
 5.900  0.7605  129.6   3.721   27.3  0.0648   29.8  0.3892  146.5
 6.000  0.7623  128.8   3.649   26.2  0.0655   29.5  0.3928  145.6
 6.100  0.7642  128.3   3.581   25.2  0.0665   29.2  0.3966  144.7
 6.200  0.7654  127.5   3.512   24.1  0.0672   28.8  0.3993  143.8
 6.300  0.7680  126.8   3.447   23.1  0.0680   28.4  0.4032  143.0
 6.400  0.7696  126.1   3.383   22.0  0.0688   27.9  0.4068  142.0
 6.500  0.7719  125.2   3.322   20.9  0.0695   27.5  0.4105  141.2
 6.600  0.7747  124.4   3.265   19.8  0.0704   27.1  0.4140  140.3
 6.700  0.7765  123.7   3.205   18.8  0.0711   26.7  0.4178  139.5
 6.800  0.7775  122.8   3.148   17.7  0.0718   26.1  0.4212  138.5
 6.900  0.7805  121.8   3.092   16.6  0.0725   25.7  0.4257  137.7
 7.000  0.7825  120.9   3.043   15.5  0.0732   25.1  0.4292  136.9
 7.100  0.7849  120.0   2.991   14.4  0.0741   24.6  0.4345  136.1
 7.200  0.7874  119.1   2.942   13.2  0.0748   24.0  0.4385  135.3
 7.300  0.7895  118.2   2.891   12.1  0.0755   23.6  0.4429  134.4
 7.400  0.7922  117.1   2.843   10.9  0.0760   22.8  0.4472  133.5
 7.500  0.7958  116.2   2.797    9.7  0.0768   22.2  0.4522  132.7
 7.600  0.7988  115.2   2.748    8.5  0.0773   21.6  0.4570  131.6
 7.700  0.8018  114.3   2.702    7.4  0.0779   20.9  0.4619  130.8
 7.800  0.8055  113.2   2.652    6.1  0.0784   20.2  0.4677  129.6
 7.900  0.8087  112.3   2.608    4.9  0.0789   19.5  0.4733  128.6
 8.000  0.8131  111.3   2.556    3.7  0.0792   18.8  0.4797  127.5
 8.500  0.8336  106.4   2.309   -2.5  0.0803   15.3  0.5118  121.9
 9.000  0.8522  102.1   2.060   -7.8  0.0798   12.4  0.5506  116.8
 9.500  0.8691   98.8   1.832  -11.9  0.0787   10.8  0.5879  113.0
10.000  0.8827   96.9   1.648  -14.6  0.0785   10.1  0.6211  111.3
!
!  f       NFmin   Gammaopt  rn/50
! GHz       dB    MAG  ANG    -
!
! noise parameter not available yet for this operation point!
!
! (c) 2012  Infineon Technologies AG, Munich
