! Infineon Technologies  Discrete & RF Semiconductors
! BFP720F
! VCE =  0.5 V,  IC =  13 mA
! Common Emitter S-Parameters:                            Jan 2016
# GHz  S  MA  R  50
!  f         S11            S21            S12            S22
! GHz     MAG   ANG      MAG   ANG      MAG   ANG      MAG   ANG
 0.010  0.5628   -2.0  15.858  178.1  0.0057    4.9  0.6419   -0.5
 0.015  0.5713   -2.7  16.278  178.0  0.0058   11.9  0.6497   -1.7
 0.020  0.5798   -3.3  16.698  178.0  0.0059   18.7  0.6578   -2.9
 0.025  0.5793   -4.2  16.698  177.7  0.0060   22.5  0.6634   -3.3
 0.030  0.5790   -5.2  16.698  177.5  0.0061   26.1  0.6690   -3.7
 0.035  0.5788   -6.1  16.698  177.2  0.0063   29.6  0.6746   -4.1
 0.040  0.5788   -7.1  16.699  176.9  0.0064   32.9  0.6803   -4.5
 0.045  0.5789   -8.1  16.700  176.7  0.0066   36.0  0.6860   -4.9
 0.050  0.5792   -9.0  16.702  176.4  0.0068   39.0  0.6917   -5.3
 0.055  0.5789   -9.9  16.717  175.9  0.0071   40.9  0.6910   -5.7
 0.060  0.5787  -10.9  16.734  175.4  0.0074   42.6  0.6903   -6.2
 0.065  0.5787  -11.8  16.752  174.9  0.0078   44.1  0.6897   -6.6
 0.070  0.5788  -12.8  16.771  174.3  0.0081   45.6  0.6891   -7.0
 0.075  0.5791  -13.7  16.792  173.8  0.0084   46.9  0.6886   -7.4
 0.080  0.5795  -14.7  16.814  173.3  0.0088   48.1  0.6881   -7.9
 0.085  0.5802  -15.6  16.837  172.8  0.0091   49.2  0.6876   -8.3
 0.090  0.5809  -16.5  16.862  172.3  0.0095   50.2  0.6871   -8.7
 0.095  0.5818  -17.5  16.888  171.8  0.0098   51.2  0.6868   -9.2
 0.100  0.5829  -18.4  16.915  171.3  0.0102   52.1  0.6864   -9.6
 0.105  0.5818  -19.3  16.867  170.9  0.0106   52.5  0.6827  -10.0
 0.110  0.5809  -20.2  16.820  170.4  0.0110   52.9  0.6790  -10.5
 0.115  0.5801  -21.1  16.774  170.0  0.0114   53.3  0.6754  -10.9
 0.120  0.5794  -22.1  16.729  169.5  0.0118   53.6  0.6718  -11.4
 0.125  0.5789  -23.0  16.686  169.1  0.0121   54.0  0.6682  -11.8
 0.130  0.5786  -23.9  16.643  168.6  0.0125   54.3  0.6647  -12.3
 0.135  0.5784  -24.8  16.601  168.2  0.0129   54.5  0.6612  -12.8
 0.140  0.5783  -25.8  16.560  167.7  0.0133   54.8  0.6578  -13.2
 0.145  0.5784  -26.7  16.521  167.3  0.0137   55.1  0.6544  -13.7
 0.150  0.5787  -27.6  16.482  166.8  0.0141   55.3  0.6511  -14.2
 0.155  0.5786  -28.5  16.469  166.3  0.0145   55.8  0.6539  -14.8
 0.160  0.5787  -29.3  16.456  165.9  0.0148   56.2  0.6568  -15.4
 0.165  0.5789  -30.2  16.445  165.4  0.0152   56.7  0.6597  -16.0
 0.170  0.5793  -31.1  16.435  164.9  0.0156   57.1  0.6628  -16.6
 0.175  0.5798  -32.0  16.426  164.5  0.0159   57.5  0.6659  -17.2
 0.180  0.5804  -32.8  16.418  164.0  0.0163   57.9  0.6690  -17.8
 0.185  0.5811  -33.7  16.411  163.5  0.0167   58.2  0.6723  -18.4
 0.190  0.5820  -34.6  16.405  163.0  0.0171   58.6  0.6756  -19.0
 0.195  0.5830  -35.4  16.401  162.6  0.0174   58.9  0.6790  -19.5
 0.200  0.5842  -36.3  16.397  162.1  0.0178   59.2  0.6824  -20.1
 0.220  0.5830  -39.6  16.289  160.7  0.0193   58.4  0.6726  -21.7
 0.240  0.5837  -42.9  16.190  159.2  0.0208   57.8  0.6634  -23.3
 0.260  0.5851  -46.1  16.097  157.6  0.0222   57.0  0.6524  -24.9
 0.280  0.5871  -49.4  16.012  155.9  0.0236   56.2  0.6396  -26.6
 0.300  0.5910  -52.6  15.942  154.1  0.0250   55.5  0.6274  -28.4
 0.320  0.5902  -55.6  15.729  152.7  0.0263   55.3  0.6343  -30.5
 0.340  0.5911  -58.6  15.527  151.2  0.0276   55.2  0.6420  -32.6
 0.360  0.5921  -61.5  15.362  149.9  0.0289   54.5  0.6387  -34.4
 0.380  0.5933  -64.4  15.234  148.6  0.0302   53.3  0.6240  -36.0
 0.400  0.5959  -67.3  15.114  147.3  0.0314   52.2  0.6099  -37.7
 0.420  0.5976  -69.9  15.028  145.7  0.0325   51.2  0.6022  -39.1
 0.440  0.6005  -72.5  14.955  144.1  0.0336   50.3  0.5949  -40.6
 0.450  0.6024  -73.8  14.922  143.3  0.0341   49.9  0.5914  -41.3
 0.460  0.6025  -75.0  14.829  142.8  0.0346   49.6  0.5916  -42.1
 0.480  0.6036  -77.5  14.647  141.9  0.0356   49.0  0.5922  -43.8
 0.500  0.6058  -79.9  14.469  140.9  0.0366   48.5  0.5934  -45.4
 0.520  0.6063  -82.3  14.352  139.6  0.0375   47.5  0.5824  -46.9
 0.540  0.6079  -84.7  14.243  138.2  0.0384   46.5  0.5718  -48.4
 0.560  0.6106  -87.0  14.142  136.9  0.0394   45.5  0.5616  -50.0
 0.580  0.6142  -89.4  14.049  135.5  0.0403   44.7  0.5519  -51.6
 0.600  0.6189  -91.7  13.964  134.1  0.0413   43.8  0.5426  -53.3
 0.620  0.6186  -93.7  13.775  133.1  0.0420   43.0  0.5359  -54.6
 0.640  0.6190  -95.7  13.590  132.0  0.0427   42.2  0.5294  -55.9
 0.660  0.6202  -97.7  13.410  130.9  0.0434   41.5  0.5233  -57.3
 0.680  0.6222  -99.7  13.235  129.8  0.0441   40.8  0.5174  -58.7
 0.700  0.6249 -101.7  13.066  128.6  0.0448   40.1  0.5119  -60.1
 0.720  0.6267 -103.2  13.009  127.6  0.0453   39.4  0.5079  -61.2
 0.740  0.6289 -104.7  12.957  126.6  0.0459   38.8  0.5040  -62.3
 0.760  0.6316 -106.2  12.908  125.6  0.0465   38.1  0.5004  -63.4
 0.780  0.6346 -107.6  12.863  124.6  0.0470   37.5  0.4970  -64.5
 0.800  0.6381 -109.1  12.822  123.6  0.0476   36.9  0.4937  -65.7
 0.820  0.6385 -110.7  12.697  122.7  0.0481   36.3  0.4868  -66.8
 0.840  0.6395 -112.3  12.575  121.7  0.0485   35.6  0.4800  -67.9
 0.860  0.6409 -113.9  12.457  120.8  0.0490   35.0  0.4735  -69.0
 0.880  0.6428 -115.4  12.342  119.8  0.0495   34.4  0.4671  -70.2
 0.900  0.6452 -117.0  12.231  118.8  0.0500   33.8  0.4609  -71.4
 0.920  0.6450 -118.4  12.071  118.0  0.0504   33.2  0.4535  -72.5
 0.940  0.6453 -119.9  11.913  117.2  0.0507   32.5  0.4463  -73.6
 0.960  0.6460 -121.3  11.758  116.3  0.0511   31.9  0.4393  -74.7
 0.980  0.6470 -122.8  11.606  115.5  0.0515   31.3  0.4324  -75.9
 1.000  0.6485 -124.2  11.456  114.6  0.0519   30.7  0.4257  -77.1
 1.020  0.6489 -125.5  11.337  113.9  0.0522   30.2  0.4212  -78.0
 1.040  0.6497 -126.7  11.219  113.2  0.0525   29.7  0.4169  -79.0
 1.060  0.6508 -128.0  11.103  112.4  0.0528   29.2  0.4126  -80.0
 1.080  0.6522 -129.2  10.989  111.7  0.0531   28.8  0.4085  -81.0
 1.100  0.6539 -130.5  10.877  110.9  0.0534   28.3  0.4045  -82.0
 1.120  0.6543 -131.6  10.781  110.3  0.0536   27.9  0.4001  -82.9
 1.140  0.6549 -132.7  10.685  109.7  0.0538   27.4  0.3958  -83.7
 1.160  0.6558 -133.9  10.592  109.0  0.0541   27.0  0.3915  -84.6
 1.180  0.6569 -135.0  10.499  108.4  0.0543   26.5  0.3874  -85.6
 1.200  0.6583 -136.1  10.408  107.7  0.0545   26.1  0.3834  -86.5
 1.220  0.6587 -137.1  10.301  107.0  0.0547   25.7  0.3784  -87.4
 1.240  0.6594 -138.2  10.195  106.3  0.0549   25.2  0.3734  -88.3
 1.260  0.6602 -139.2  10.091  105.6  0.0552   24.8  0.3686  -89.3
 1.280  0.6613 -140.3   9.988  104.8  0.0554   24.3  0.3639  -90.3
 1.300  0.6626 -141.3   9.887  104.1  0.0556   23.9  0.3593  -91.3
 1.320  0.6632 -142.2   9.797  103.5  0.0557   23.6  0.3559  -92.0
 1.340  0.6639 -143.1   9.707  102.9  0.0559   23.2  0.3526  -92.8
 1.360  0.6648 -143.9   9.619  102.3  0.0560   22.9  0.3493  -93.5
 1.380  0.6659 -144.8   9.532  101.7  0.0562   22.5  0.3461  -94.3
 1.400  0.6671 -145.7   9.446  101.1  0.0563   22.2  0.3429  -95.1
 1.420  0.6673 -146.6   9.354  100.6  0.0564   21.9  0.3398  -95.9
 1.440  0.6677 -147.4   9.262  100.0  0.0565   21.6  0.3369  -96.7
 1.460  0.6682 -148.3   9.172   99.5  0.0566   21.2  0.3339  -97.5
 1.480  0.6689 -149.1   9.082   98.9  0.0567   20.9  0.3311  -98.4
 1.500  0.6697 -150.0   8.993   98.3  0.0568   20.6  0.3283  -99.2
 1.520  0.6701 -150.6   8.952   97.8  0.0569   20.3  0.3256  -99.9
 1.540  0.6706 -151.1   8.912   97.4  0.0570   20.0  0.3229 -100.6
 1.560  0.6711 -151.7   8.872   96.9  0.0572   19.8  0.3202 -101.4
 1.580  0.6717 -152.2   8.833   96.4  0.0573   19.5  0.3176 -102.1
 1.600  0.6724 -152.8   8.795   95.9  0.0574   19.2  0.3151 -102.9
 1.620  0.6727 -153.5   8.706   95.5  0.0575   18.9  0.3120 -103.7
 1.640  0.6731 -154.2   8.617   95.0  0.0576   18.6  0.3090 -104.6
 1.660  0.6735 -154.9   8.529   94.5  0.0576   18.4  0.3061 -105.4
 1.680  0.6741 -155.6   8.441   94.1  0.0577   18.1  0.3032 -106.3
 1.700  0.6748 -156.3   8.354   93.6  0.0578   17.8  0.3004 -107.2
 1.720  0.6753 -156.9   8.275   93.2  0.0579   17.6  0.2989 -107.9
 1.740  0.6759 -157.5   8.196   92.7  0.0579   17.4  0.2975 -108.5
 1.760  0.6766 -158.1   8.117   92.3  0.0580   17.1  0.2961 -109.2
 1.780  0.6774 -158.7   8.039   91.9  0.0580   16.9  0.2948 -109.9
 1.800  0.6782 -159.3   7.962   91.4  0.0581   16.7  0.2935 -110.6
 1.820  0.6786 -159.9   7.900   91.0  0.0581   16.5  0.2916 -111.3
 1.840  0.6790 -160.5   7.838   90.6  0.0582   16.3  0.2897 -111.9
 1.860  0.6796 -161.0   7.777   90.2  0.0582   16.0  0.2878 -112.6
 1.880  0.6801 -161.6   7.716   89.7  0.0583   15.8  0.2860 -113.3
 1.900  0.6808 -162.2   7.655   89.3  0.0583   15.6  0.2842 -114.0
 1.920  0.6813 -162.7   7.590   88.9  0.0584   15.4  0.2825 -114.6
 1.940  0.6818 -163.2   7.525   88.5  0.0584   15.2  0.2808 -115.2
 1.960  0.6823 -163.6   7.461   88.1  0.0585   15.0  0.2792 -115.8
 1.980  0.6829 -164.1   7.397   87.6  0.0585   14.8  0.2776 -116.5
 2.000  0.6836 -164.6   7.333   87.2  0.0586   14.6  0.2760 -117.1
 2.020  0.6842 -165.0   7.271   86.9  0.0586   14.4  0.2749 -117.7
 2.040  0.6848 -165.5   7.210   86.5  0.0586   14.3  0.2738 -118.2
 2.060  0.6855 -165.9   7.148   86.2  0.0587   14.1  0.2727 -118.8
 2.080  0.6862 -166.3   7.087   85.8  0.0587   13.9  0.2716 -119.3
 2.100  0.6869 -166.8   7.026   85.4  0.0587   13.7  0.2706 -119.9
 2.120  0.6877 -167.2   6.966   85.1  0.0587   13.6  0.2696 -120.5
 2.140  0.6885 -167.6   6.906   84.7  0.0587   13.4  0.2686 -121.0
 2.160  0.6894 -168.0   6.846   84.3  0.0588   13.2  0.2677 -121.6
 2.180  0.6903 -168.5   6.786   83.9  0.0588   13.1  0.2668 -122.2
 2.200  0.6912 -168.9   6.727   83.5  0.0588   12.9  0.2659 -122.8
 2.220  0.6916 -169.3   6.676   83.2  0.0588   12.7  0.2651 -123.3
 2.240  0.6921 -169.6   6.624   82.9  0.0588   12.6  0.2643 -123.8
 2.260  0.6926 -170.0   6.573   82.5  0.0589   12.4  0.2636 -124.2
 2.280  0.6931 -170.3   6.523   82.2  0.0589   12.3  0.2628 -124.7
 2.300  0.6937 -170.7   6.472   81.9  0.0589   12.1  0.2621 -125.2
 2.320  0.6942 -171.0   6.422   81.5  0.0589   12.0  0.2614 -125.7
 2.340  0.6948 -171.4   6.372   81.2  0.0589   11.8  0.2607 -126.2
 2.360  0.6955 -171.7   6.322   80.8  0.0590   11.7  0.2601 -126.7
 2.380  0.6961 -172.1   6.272   80.5  0.0590   11.5  0.2594 -127.2
 2.400  0.6968 -172.4   6.223   80.1  0.0590   11.4  0.2588 -127.7
 2.420  0.6973 -172.7   6.182   79.8  0.0590   11.3  0.2582 -128.1
 2.440  0.6979 -173.0   6.141   79.5  0.0590   11.2  0.2577 -128.4
 2.460  0.6985 -173.2   6.100   79.2  0.0590   11.1  0.2572 -128.8
 2.480  0.6990 -173.5   6.059   78.9  0.0590   11.0  0.2566 -129.1
 2.500  0.6996 -173.8   6.018   78.6  0.0590   10.9  0.2561 -129.5
 2.520  0.7003 -174.1   5.978   78.2  0.0590   10.7  0.2556 -129.8
 2.540  0.7009 -174.4   5.938   77.9  0.0590   10.6  0.2551 -130.2
 2.560  0.7015 -174.6   5.897   77.6  0.0590   10.5  0.2546 -130.6
 2.580  0.7022 -174.9   5.858   77.2  0.0590   10.4  0.2542 -130.9
 2.600  0.7029 -175.2   5.818   76.9  0.0590   10.3  0.2537 -131.3
 2.620  0.7027 -175.8   5.780   76.6  0.0590   10.2  0.2531 -131.6
 2.640  0.7026 -176.4   5.741   76.4  0.0590   10.1  0.2526 -131.9
 2.660  0.7026 -177.1   5.703   76.1  0.0591   10.1  0.2521 -132.2
 2.680  0.7027 -177.7   5.665   75.8  0.0591   10.0  0.2515 -132.6
 2.700  0.7028 -178.3   5.628   75.5  0.0591    9.9  0.2510 -132.9
 2.720  0.7031 -178.9   5.590   75.2  0.0591    9.8  0.2505 -133.2
 2.740  0.7034 -179.5   5.553   74.9  0.0591    9.7  0.2500 -133.5
 2.760  0.7038  179.8   5.515   74.6  0.0592    9.7  0.2495 -133.8
 2.780  0.7042  179.2   5.478   74.3  0.0592    9.6  0.2490 -134.2
 2.800  0.7048  178.6   5.441   74.0  0.0592    9.5  0.2485 -134.5
 2.820  0.7050  178.3   5.408   73.7  0.0592    9.4  0.2483 -134.8
 2.840  0.7052  178.0   5.374   73.4  0.0593    9.3  0.2482 -135.0
 2.860  0.7055  177.7   5.341   73.2  0.0593    9.3  0.2481 -135.3
 2.880  0.7058  177.4   5.308   72.9  0.0593    9.2  0.2479 -135.6
 2.900  0.7060  177.0   5.275   72.6  0.0593    9.1  0.2478 -135.8
 2.920  0.7064  176.7   5.242   72.3  0.0594    9.0  0.2477 -136.1
 2.940  0.7067  176.4   5.209   72.0  0.0594    8.9  0.2475 -136.4
 2.960  0.7070  176.1   5.177   71.7  0.0594    8.9  0.2474 -136.7
 2.980  0.7074  175.8   5.144   71.4  0.0595    8.8  0.2473 -136.9
 3.000  0.7078  175.5   5.112   71.1  0.0595    8.7  0.2472 -137.2
 3.100  0.7074  174.2   4.978   70.0  0.0596    8.4  0.2460 -138.0
 3.200  0.7074  172.9   4.846   68.8  0.0598    8.1  0.2449 -138.8
 3.300  0.7077  171.7   4.717   67.5  0.0599    7.7  0.2439 -139.6
 3.400  0.7084  170.4   4.590   66.2  0.0601    7.4  0.2429 -140.4
 3.500  0.7094  169.1   4.465   64.8  0.0602    7.1  0.2419 -141.2
 3.600  0.7092  167.9   4.359   63.7  0.0604    6.8  0.2402 -141.8
 3.700  0.7092  166.8   4.254   62.5  0.0606    6.6  0.2386 -142.5
 3.800  0.7096  165.6   4.151   61.3  0.0609    6.3  0.2370 -143.1
 3.900  0.7103  164.5   4.050   60.0  0.0611    6.1  0.2354 -143.7
 4.000  0.7112  163.3   3.951   58.7  0.0613    5.8  0.2338 -144.4
 4.100  0.7110  162.2   3.869   57.6  0.0615    5.6  0.2324 -145.0
 4.200  0.7110  161.1   3.788   56.5  0.0618    5.3  0.2310 -145.6
 4.300  0.7112  160.1   3.708   55.3  0.0620    5.1  0.2296 -146.2
 4.400  0.7117  159.0   3.631   54.0  0.0623    4.8  0.2282 -146.9
 4.500  0.7125  157.9   3.555   52.7  0.0625    4.6  0.2269 -147.5
 4.600  0.7119  156.9   3.490   51.6  0.0628    4.3  0.2256 -148.2
 4.700  0.7114  155.8   3.427   50.5  0.0631    4.1  0.2244 -148.9
 4.800  0.7113  154.8   3.365   49.3  0.0633    3.8  0.2233 -149.6
 4.900  0.7113  153.7   3.305   48.1  0.0636    3.6  0.2221 -150.4
 5.000  0.7116  152.7   3.246   46.8  0.0639    3.3  0.2210 -151.1
 5.100  0.7106  151.6   3.189   45.7  0.0642    3.0  0.2198 -152.0
 5.200  0.7098  150.4   3.133   44.5  0.0645    2.7  0.2186 -152.9
 5.300  0.7093  149.3   3.079   43.3  0.0649    2.3  0.2175 -153.8
 5.400  0.7091  148.1   3.026   42.0  0.0652    2.0  0.2164 -154.7
 5.500  0.7092  147.0   2.975   40.7  0.0655    1.7  0.2154 -155.6
 5.600  0.7083  145.8   2.926   39.5  0.0658    1.3  0.2122 -160.4
 5.700  0.7076  144.6   2.879   38.3  0.0662    0.9  0.2106 -165.4
 5.800  0.7073  143.4   2.832   37.1  0.0665    0.5  0.2106 -170.4
 5.900  0.7073  142.2   2.787   35.8  0.0669    0.2  0.2122 -175.4
 6.000  0.7076  141.0   2.744   34.5  0.0672   -0.2  0.2153  179.8
 6.100  0.7061  139.6   2.701   33.3  0.0674   -0.6  0.2145  178.3
 6.200  0.7050  138.2   2.659   32.0  0.0677   -1.1  0.2139  176.8
 6.300  0.7044  136.7   2.619   30.7  0.0679   -1.5  0.2134  175.3
 6.400  0.7042  135.3   2.580   29.3  0.0682   -2.0  0.2131  173.7
 6.500  0.7044  133.9   2.542   27.9  0.0684   -2.4  0.2129  172.2
 6.600  0.7027  132.4   2.498   26.7  0.0686   -2.9  0.2120  170.4
 6.800  0.7007  129.3   2.415   24.1  0.0689   -3.8  0.2109  166.8
 7.000  0.7008  126.2   2.337   21.3  0.0693   -4.7  0.2106  163.2
 7.200  0.7023  122.9   2.255   18.8  0.0695   -5.6  0.2110  158.6
 7.400  0.7062  119.6   2.178   16.2  0.0698   -6.5  0.2128  154.0
 7.600  0.7116  116.4   2.104   13.6  0.0699   -7.5  0.2164  149.0
 7.800  0.7186  113.1   2.033   11.0  0.0700   -8.6  0.2222  143.8
 8.000  0.7278  110.0   1.967    8.2  0.0701   -9.7  0.2297  138.9
 8.200  0.7366  106.9   1.888    5.8  0.0696  -10.8  0.2426  133.5
 8.400  0.7475  103.8   1.812    3.2  0.0691  -11.9  0.2575  128.6
 8.600  0.7575  101.1   1.736    0.9  0.0685  -12.7  0.2739  124.2
 8.800  0.7660   98.7   1.657   -1.2  0.0678  -13.2  0.2916  120.2
 9.000  0.7758   96.4   1.581   -3.4  0.0671  -13.7  0.3106  116.7
 9.200  0.7854   95.0   1.517   -5.0  0.0666  -14.0  0.3298  114.2
 9.400  0.7954   93.6   1.455   -6.7  0.0661  -14.3  0.3495  111.9
 9.600  0.8058   92.4   1.398   -8.3  0.0657  -14.5  0.3695  110.1
 9.800  0.8164   91.6   1.346   -9.9  0.0652  -14.8  0.3896  108.8
10.000  0.8271   90.7   1.295  -11.5  0.0648  -15.1  0.4098  107.5
!
!  f       NFmin   Gammaopt  rn/50
! GHz       dB    MAG  ANG    -
 0.450      0.64  0.27    2   0.64
 0.900      0.67  0.23    8   0.14
 1.800      0.70  0.21   11   0.15
 2.400      0.72  0.18   18   0.13
 5.500      0.88  0.15   30   0.08
10.000      1.04  0.30  -88   0.19
!
! (c) 2016  Infineon Technologies AG, Munich
