! Infineon Technologies  Discrete & RF Semiconductors
! BFP740F
! VCE =  1.5 V,  IC =  5.0 mA
! Common Emitter S-Parameters:                            Oct 2012
# GHz  S  MA  R  50
!  f         S11            S21            S12            S22
! GHz     MAG   ANG      MAG   ANG      MAG   ANG      MAG   ANG
 0.030  0.9494   -1.8  14.741  178.0  0.0015   86.6  0.9983   -1.2
 0.040  0.9499   -2.3  14.768  177.6  0.0026   92.0  0.9985   -1.6
 0.050  0.9496   -2.9  14.890  177.3  0.0033   74.6  0.9986   -2.1
 0.060  0.9481   -3.5  14.863  176.9  0.0029   88.7  0.9978   -2.4
 0.070  0.9488   -4.1  14.868  176.4  0.0038   92.5  0.9986   -2.9
 0.080  0.9485   -4.7  14.848  176.0  0.0045   86.1  0.9975   -3.3
 0.090  0.9480   -5.3  14.836  175.4  0.0052   84.9  0.9975   -3.7
 0.100  0.9481   -5.8  14.825  175.0  0.0060   86.7  0.9966   -4.1
 0.110  0.9474   -6.4  14.804  174.6  0.0061   84.3  0.9967   -4.5
 0.120  0.9474   -7.0  14.741  174.2  0.0072   84.4  0.9960   -4.9
 0.130  0.9465   -7.6  14.741  173.7  0.0070   86.5  0.9955   -5.3
 0.140  0.9466   -8.1  14.642  173.4  0.0082   85.8  0.9947   -5.7
 0.150  0.9461   -8.7  14.692  172.9  0.0082   86.5  0.9941   -6.1
 0.200  0.9440  -11.5  14.516  170.8  0.0112   83.6  0.9915   -8.1
 0.250  0.9408  -14.4  14.489  168.8  0.0139   82.0  0.9876  -10.1
 0.300  0.9381  -17.1  14.349  166.9  0.0170   80.0  0.9837  -12.1
 0.350  0.9348  -20.0  14.296  164.9  0.0195   78.3  0.9793  -14.1
 0.400  0.9314  -22.8  14.211  163.1  0.0223   76.0  0.9728  -16.0
 0.450  0.9283  -25.5  14.109  161.2  0.0249   74.6  0.9687  -17.9
 0.500  0.9242  -28.2  14.006  159.5  0.0279   72.7  0.9617  -19.9
 0.600  0.9156  -33.8  13.826  155.7  0.0330   69.4  0.9472  -23.8
 0.700  0.9066  -39.1  13.598  152.1  0.0379   66.3  0.9317  -27.5
 0.800  0.8954  -44.7  13.478  148.4  0.0426   62.9  0.9135  -31.3
 0.900  0.8840  -49.9  13.188  144.9  0.0470   59.6  0.8940  -34.9
 1.000  0.8721  -55.0  12.907  141.4  0.0511   56.5  0.8726  -38.6
 1.100  0.8594  -59.9  12.587  138.1  0.0550   53.4  0.8506  -42.1
 1.200  0.8455  -64.9  12.303  134.6  0.0583   50.5  0.8280  -45.6
 1.300  0.8328  -69.6  11.990  131.5  0.0615   47.7  0.8058  -48.8
 1.400  0.8202  -74.3  11.703  128.4  0.0643   45.1  0.7833  -52.0
 1.500  0.8075  -78.7  11.397  125.5  0.0670   42.6  0.7616  -55.0
 1.600  0.7949  -83.5  11.173  122.4  0.0692   40.2  0.7415  -58.0
 1.700  0.7824  -87.7  10.866  119.6  0.0713   37.9  0.7199  -61.0
 1.800  0.7744  -91.5  10.532  117.1  0.0733   35.6  0.7025  -64.0
 1.900  0.7638  -95.4  10.239  114.5  0.0749   33.5  0.6832  -66.8
 2.000  0.7552  -99.1   9.950  112.0  0.0766   31.6  0.6673  -69.5
 2.100  0.7471 -103.2   9.684  109.3  0.0779   29.3  0.6501  -72.6
 2.200  0.7385 -106.5   9.394  107.0  0.0793   27.5  0.6352  -75.1
 2.300  0.7302 -109.8   9.132  104.8  0.0801   25.7  0.6207  -77.6
 2.400  0.7232 -112.8   8.853  102.7  0.0810   24.0  0.6087  -79.9
 2.500  0.7159 -115.8   8.605  100.6  0.0818   22.5  0.5960  -82.1
 2.600  0.7099 -118.7   8.366   98.6  0.0826   21.0  0.5842  -84.3
 2.700  0.7040 -121.6   8.151   96.6  0.0831   19.6  0.5733  -86.4
 2.800  0.6991 -124.4   7.940   94.8  0.0836   18.3  0.5634  -88.5
 2.900  0.6938 -127.0   7.730   92.9  0.0841   16.9  0.5548  -90.4
 3.000  0.6895 -129.5   7.537   91.1  0.0845   15.5  0.5457  -92.4
 3.100  0.6843 -132.2   7.369   89.2  0.0848   14.3  0.5381  -94.2
 3.200  0.6803 -134.5   7.173   87.6  0.0851   13.2  0.5310  -95.9
 3.300  0.6776 -136.8   7.004   85.9  0.0854   12.0  0.5240  -97.7
 3.400  0.6749 -139.0   6.831   84.3  0.0855   11.0  0.5174  -99.3
 3.500  0.6721 -141.1   6.668   82.8  0.0857    9.8  0.5111 -100.8
 3.600  0.6696 -143.2   6.514   81.2  0.0860    8.8  0.5055 -102.2
 3.700  0.6676 -145.3   6.372   79.6  0.0860    7.9  0.4990 -103.6
 3.800  0.6660 -147.3   6.229   78.1  0.0861    6.9  0.4931 -105.1
 3.900  0.6648 -149.3   6.103   76.6  0.0860    5.9  0.4874 -106.5
 4.000  0.6626 -151.2   5.959   75.2  0.0861    5.0  0.4821 -107.9
 4.100  0.6623 -153.0   5.842   73.7  0.0861    4.1  0.4764 -109.2
 4.200  0.6609 -154.8   5.715   72.3  0.0862    3.2  0.4712 -110.5
 4.300  0.6604 -156.8   5.606   70.9  0.0860    2.3  0.4654 -111.9
 4.400  0.6597 -158.5   5.490   69.5  0.0860    1.5  0.4606 -113.2
 4.500  0.6596 -160.3   5.386   68.1  0.0857    0.7  0.4560 -114.4
 4.600  0.6596 -162.1   5.282   66.7  0.0857   -0.2  0.4505 -115.6
 4.700  0.6595 -163.8   5.183   65.3  0.0855   -0.9  0.4455 -117.0
 4.800  0.6603 -165.4   5.086   64.0  0.0853   -1.7  0.4411 -118.3
 4.900  0.6602 -167.2   4.995   62.6  0.0851   -2.5  0.4360 -119.6
 5.000  0.6609 -168.6   4.896   61.3  0.0851   -3.2  0.4321 -120.8
 5.100  0.6620 -170.2   4.816   59.9  0.0846   -4.0  0.4270 -122.2
 5.200  0.6621 -171.6   4.726   58.7  0.0845   -4.7  0.4234 -123.4
 5.300  0.6624 -173.1   4.648   57.3  0.0842   -5.5  0.4189 -124.7
 5.400  0.6632 -174.5   4.564   56.1  0.0840   -6.0  0.4152 -126.0
 5.500  0.6638 -175.9   4.489   54.8  0.0836   -6.8  0.4116 -127.2
 5.600  0.6639 -177.3   4.411   53.6  0.0833   -7.6  0.4076 -128.3
 5.700  0.6643 -178.7   4.340   52.3  0.0828   -8.3  0.4029 -129.8
 5.800  0.6644  179.9   4.271   51.0  0.0826   -8.8  0.4001 -131.1
 5.900  0.6647  178.4   4.203   49.7  0.0820   -9.5  0.3956 -132.3
 6.000  0.6647  176.8   4.136   48.4  0.0816  -10.3  0.3911 -133.6
 6.100  0.6651  175.2   4.074   47.1  0.0810  -10.9  0.3869 -135.0
 6.200  0.6648  173.8   4.008   45.8  0.0807  -11.6  0.3839 -136.1
 6.300  0.6638  172.3   3.944   44.6  0.0799  -12.1  0.3784 -137.5
 6.400  0.6629  170.8   3.879   43.3  0.0795  -12.8  0.3751 -138.7
 6.500  0.6623  169.2   3.821   42.1  0.0786  -13.3  0.3697 -140.0
 6.600  0.6613  167.7   3.757   40.8  0.0781  -13.8  0.3661 -141.2
 6.700  0.6600  166.0   3.699   39.6  0.0771  -14.2  0.3600 -142.5
 6.800  0.6598  164.6   3.639   38.3  0.0766  -14.7  0.3560 -143.7
 6.900  0.6586  163.0   3.585   37.1  0.0757  -15.0  0.3500 -145.0
 7.000  0.6583  161.5   3.526   35.9  0.0751  -15.3  0.3450 -146.2
 7.100  0.6577  160.0   3.474   34.7  0.0744  -15.4  0.3391 -147.7
 7.200  0.6579  158.4   3.419   33.5  0.0738  -15.7  0.3349 -149.1
 7.300  0.6583  156.9   3.367   32.3  0.0733  -15.7  0.3301 -150.6
 7.400  0.6597  155.4   3.318   31.0  0.0729  -15.8  0.3259 -152.3
 7.500  0.6612  154.0   3.271   29.9  0.0725  -15.8  0.3220 -154.0
 7.600  0.6632  152.4   3.221   28.6  0.0722  -16.0  0.3184 -155.8
 7.700  0.6656  151.1   3.174   27.6  0.0719  -16.2  0.3139 -157.9
 7.800  0.6691  149.4   3.128   26.2  0.0717  -16.4  0.3113 -160.1
 7.900  0.6720  148.1   3.081   25.1  0.0714  -16.5  0.3079 -162.4
 8.000  0.6766  146.6   3.035   23.9  0.0713  -16.8  0.3055 -164.9
 8.500  0.6998  140.3   2.810   17.8  0.0697  -18.4  0.3020 -178.8
 9.000  0.7217  135.1   2.599   12.0  0.0676  -20.0  0.3168  166.7
 9.500  0.7384  131.6   2.393    6.4  0.0650  -21.0  0.3521  153.9
10.000  0.7524  127.8   2.202    1.0  0.0623  -21.6  0.4012  143.9
!
!  f       NFmin   Gammaopt  rn/50
! GHz       dB    MAG  ANG    -
 0.450      0.37  0.38    7   0.20
 0.900      0.42  0.38   14   0.17
 1.500      0.50  0.37   24   0.14
 1.900      0.55  0.35   33   0.14
 2.400      0.61  0.33   42   0.13
 3.500      0.76  0.31   65   0.12
 5.500      1.02  0.20  113   0.15
10.000      1.55  0.42 -127   0.08
!
! (c) 2012  Infineon Technologies AG, Munich
