! Infineon Technologies  Discrete & RF Semiconductors
! BFP720
! VCE =  0.5 V,  IC =  17 mA
! Common Emitter S-Parameters:                            Aug 2012
# GHz  S  MA  R  50
!  f         S11            S21            S12            S22
! GHz     MAG   ANG      MAG   ANG      MAG   ANG      MAG   ANG
 0.010  0.3841   -4.3  11.617  178.7  0.0088    6.6  0.2169    1.2
 0.020  0.3820   -6.7  11.547  178.0  0.0100    9.5  0.2247   -2.0
 0.030  0.3822  -10.1  11.510  176.8  0.0101   13.4  0.2244   -3.5
 0.040  0.3837  -13.4  11.479  175.7  0.0103   17.1  0.2243   -4.9
 0.050  0.3865  -16.8  11.452  174.5  0.0105   20.8  0.2243   -6.3
 0.060  0.3861  -20.1  11.393  173.2  0.0110   23.8  0.2233   -7.6
 0.070  0.3870  -23.5  11.339  172.0  0.0115   26.5  0.2225   -8.8
 0.080  0.3892  -26.9  11.291  170.7  0.0120   29.1  0.2217  -10.1
 0.090  0.3927  -30.2  11.248  169.5  0.0125   31.4  0.2211  -11.4
 0.100  0.3976  -33.4  11.210  168.2  0.0131   33.5  0.2205  -12.6
 0.110  0.3989  -36.5  11.151  167.0  0.0137   35.1  0.2196  -13.9
 0.120  0.4013  -39.5  11.098  165.7  0.0143   36.5  0.2188  -15.1
 0.130  0.4049  -42.5  11.049  164.5  0.0150   37.8  0.2180  -16.4
 0.140  0.4096  -45.5  11.006  163.2  0.0156   39.0  0.2174  -17.6
 0.150  0.4153  -48.4  10.969  161.9  0.0162   40.1  0.2169  -18.9
 0.200  0.4388  -61.9  10.580  155.9  0.0194   43.0  0.2106  -25.1
 0.250  0.4627  -74.1  10.073  150.4  0.0227   43.9  0.2041  -31.1
 0.300  0.4873  -84.8   9.549  145.3  0.0256   43.2  0.1958  -36.9
 0.350  0.5121  -94.1   9.172  140.6  0.0285   42.3  0.1867  -42.3
 0.400  0.5357 -102.7   8.508  135.9  0.0310   40.6  0.1787  -48.1
 0.450  0.5566 -109.8   8.179  132.0  0.0333   39.0  0.1681  -53.3
 0.500  0.5768 -116.5   7.678  128.0  0.0354   37.3  0.1609  -58.0
 0.600  0.6101 -128.0   6.819  121.1  0.0387   34.0  0.1439  -68.0
 0.700  0.6361 -137.5   6.187  115.2  0.0413   31.0  0.1284  -77.5
 0.800  0.6586 -145.1   5.759  110.1  0.0433   28.3  0.1154  -87.3
 0.900  0.6770 -152.1   5.220  105.3  0.0448   25.9  0.1048  -96.6
 1.000  0.6915 -158.2   4.778  101.2  0.0461   23.8  0.0963 -106.7
 1.100  0.7037 -163.4   4.399   97.3  0.0471   22.0  0.0900 -116.4
 1.200  0.7150 -168.1   4.063   93.8  0.0479   20.4  0.0862 -126.3
 1.300  0.7242 -172.3   3.790   90.6  0.0485   19.1  0.0841 -135.6
 1.400  0.7317 -175.9   3.537   87.6  0.0490   17.9  0.0838 -143.8
 1.500  0.7386 -179.2   3.303   84.8  0.0495   16.9  0.0847 -151.4
 1.600  0.7447  178.1   3.132   82.2  0.0499   16.0  0.0868 -158.0
 1.700  0.7584  178.3   2.943   79.7  0.0502   15.3  0.0892 -163.7
 1.800  0.7630  175.5   2.776   77.3  0.0506   14.6  0.0923 -168.4
 1.900  0.7676  173.0   2.626   75.1  0.0509   13.9  0.0959 -172.7
 2.000  0.7716  170.7   2.499   72.9  0.0512   13.5  0.0997 -176.4
 2.100  0.7742  168.5   2.384   70.9  0.0515   13.0  0.1034 -178.5
 2.200  0.7778  166.4   2.272   68.8  0.0518   12.5  0.1073  179.4
 2.300  0.7801  164.4   2.175   66.9  0.0521   12.1  0.1104  176.9
 2.400  0.7834  162.4   2.081   64.8  0.0524   11.6  0.1137  174.5
 2.500  0.7851  160.4   1.999   62.9  0.0527   11.3  0.1167  172.4
 2.600  0.7878  158.5   1.919   60.9  0.0530   11.0  0.1198  170.4
 2.700  0.7894  156.7   1.849   59.1  0.0533   10.6  0.1227  168.4
 2.800  0.7919  154.9   1.781   57.2  0.0536   10.3  0.1256  166.4
 2.900  0.7927  153.2   1.721   55.4  0.0539   10.0  0.1283  164.6
 3.000  0.7942  151.4   1.664   53.6  0.0542    9.7  0.1311  162.9
 3.100  0.7940  149.7   1.611   52.0  0.0545    9.3  0.1334  160.9
 3.200  0.7945  147.9   1.560   50.3  0.0548    9.0  0.1357  159.0
 3.300  0.7958  146.1   1.511   48.6  0.0551    8.7  0.1383  157.2
 3.400  0.7979  144.3   1.463   46.7  0.0554    8.4  0.1409  155.4
 3.500  0.8007  142.6   1.417   44.6  0.0557    8.1  0.1437  153.6
 3.600  0.8008  140.8   1.376   43.1  0.0560    7.8  0.1472  151.5
 3.700  0.8016  139.1   1.336   41.5  0.0563    7.5  0.1509  149.4
 3.800  0.8032  137.4   1.298   39.8  0.0566    7.2  0.1548  147.5
 3.900  0.8055  135.7   1.261   38.0  0.0569    6.9  0.1588  145.6
 4.000  0.8085  134.0   1.225   36.1  0.0572    6.6  0.1631  143.8
 4.100  0.8092  132.4   1.191   34.6  0.0575    6.3  0.1683  142.0
 4.200  0.8104  130.9   1.159   33.1  0.0578    6.0  0.1737  140.2
 4.300  0.8123  129.3   1.127   31.6  0.0580    5.6  0.1792  138.6
 4.400  0.8147  127.8   1.097   29.9  0.0583    5.3  0.1849  137.1
 4.500  0.8178  126.3   1.067   28.1  0.0585    5.0  0.1907  135.6
 4.600  0.8188  125.0   1.039   26.8  0.0587    4.8  0.1970  134.5
 4.700  0.8202  123.8   1.012   25.5  0.0590    4.5  0.2033  133.4
 4.800  0.8220  122.5   0.986   24.0  0.0592    4.3  0.2097  132.4
 4.900  0.8241  121.3   0.960   22.5  0.0594    4.1  0.2162  131.5
 5.000  0.8267  120.1   0.935   20.9  0.0596    3.8  0.2227  130.6
 5.100  0.8281  119.2   0.913   19.8  0.0599    3.6  0.2287  130.0
 5.200  0.8299  118.2   0.892   18.5  0.0601    3.4  0.2346  129.5
 5.300  0.8318  117.3   0.872   17.3  0.0604    3.2  0.2406  128.9
 5.400  0.8340  116.4   0.852   15.9  0.0606    3.0  0.2467  128.4
 5.500  0.8363  115.4   0.833   14.5  0.0609    2.9  0.2527  128.0
 5.600  0.8373  114.7   0.816   13.4  0.0612    2.7  0.2569  127.7
 5.700  0.8383  113.9   0.800   12.2  0.0615    2.6  0.2612  127.4
 5.800  0.8396  113.1   0.785   11.0  0.0618    2.4  0.2655  127.1
 5.900  0.8409  112.3   0.769    9.7  0.0621    2.3  0.2697  126.9
 6.000  0.8425  111.6   0.754    8.4  0.0624    2.2  0.2740  126.6
 6.100  0.8416  110.8   0.741    7.3  0.0629    2.1  0.2759  126.3
 6.200  0.8408  110.0   0.728    6.1  0.0634    2.0  0.2777  125.9
 6.300  0.8403  109.2   0.715    4.9  0.0639    1.9  0.2796  125.6
 6.400  0.8398  108.4   0.703    3.7  0.0643    1.8  0.2815  125.3
 6.500  0.8396  107.6   0.691    2.4  0.0648    1.7  0.2834  125.0
 6.600  0.8378  106.8   0.680    1.3  0.0655    1.5  0.2838  124.2
 6.700  0.8362  105.9   0.670    0.1  0.0662    1.3  0.2843  123.4
 6.800  0.8347  105.0   0.660   -1.1  0.0670    1.1  0.2848  122.7
 6.900  0.8335  104.2   0.650   -2.3  0.0677    0.9  0.2854  121.9
 7.000  0.8325  103.3   0.640   -3.6  0.0684    0.7  0.2861  121.2
 7.100  0.8320  102.2   0.632   -4.9  0.0693    0.1  0.2873  119.9
 7.200  0.8318  101.1   0.624   -6.1  0.0702   -0.4  0.2888  118.6
 7.300  0.8319  100.0   0.616   -7.5  0.0711   -1.0  0.2903  117.3
 7.400  0.8324   98.9   0.608   -8.8  0.0720   -1.5  0.2920  116.0
 7.500  0.8331   97.8   0.601  -10.2  0.0729   -2.0  0.2939  114.7
 7.600  0.8339   96.4   0.592  -11.6  0.0734   -2.9  0.2976  112.8
 7.700  0.8352   95.0   0.583  -13.1  0.0740   -3.7  0.3016  111.0
 7.800  0.8370   93.5   0.574  -14.6  0.0746   -4.6  0.3059  109.2
 7.900  0.8393   92.1   0.566  -16.1  0.0752   -5.4  0.3105  107.5
 8.000  0.8421   90.7   0.559  -17.7  0.0758   -6.2  0.3154  105.8
 8.500  0.8522   83.3   0.507  -24.9  0.0765  -10.0  0.3506   96.9
 9.000  0.8652   76.8   0.458  -31.0  0.0771  -12.9  0.3959   90.6
 9.500  0.8828   71.6   0.413  -36.3  0.0772  -15.9  0.4444   86.1
10.000  0.8961   67.4   0.372  -40.8  0.0762  -18.3  0.4907   82.8
10.500  0.8987   64.9   0.337  -43.3  0.0761  -19.2  0.5264   80.5
11.000  0.9034   64.4   0.320  -45.2  0.0783  -20.4  0.5527   79.7
11.500  0.9259   64.0   0.309  -49.2  0.0809  -23.2  0.5815   79.5
12.000  0.9383   62.5   0.291  -54.3  0.0808  -26.6  0.6064   78.6
!
!  f       NFmin   Gammaopt  rn/50
! GHz       dB    MAG  ANG    -
 0.450      0.67  0.19    1   0.39
 1.800      0.74  0.20   11   0.14
 2.400      0.79  0.19   17   0.43
 5.500      1.01  0.11  -46   0.18
10.000      1.18  0.45  -73   0.29
!
! (c) 2012  Infineon Technologies AG, Munich
