! Infineon Technologies  Discrete & RF Semiconductors
! BFP720FESD
! VCE =  3.0 V,  IC =  6.0 mA
! Common Emitter S-Parameters:                            Jan 2016
# GHz  S  MA  R  50
!  f         S11            S21            S12            S22
! GHz     MAG   ANG      MAG   ANG      MAG   ANG      MAG   ANG
 0.010  0.9355   -0.4  17.221  179.3  0.0003  -92.9  0.9897    0.8
 0.015  0.9300   -0.7  17.202  179.2  0.0004   86.7  0.9930    0.1
 0.020  0.9245   -1.0  17.183  179.0  0.0010   86.8  0.9965   -0.5
 0.025  0.9245   -1.2  17.172  178.8  0.0011   86.5  0.9967   -0.7
 0.030  0.9245   -1.4  17.161  178.6  0.0013   86.2  0.9969   -0.8
 0.035  0.9245   -1.6  17.150  178.4  0.0014   86.0  0.9971   -1.0
 0.040  0.9245   -1.7  17.139  178.2  0.0015   85.9  0.9973   -1.2
 0.045  0.9246   -1.9  17.129  178.0  0.0017   85.7  0.9975   -1.3
 0.050  0.9246   -2.1  17.119  177.8  0.0018   85.6  0.9977   -1.5
 0.055  0.9244   -2.4  17.129  177.7  0.0019   85.5  0.9977   -1.7
 0.060  0.9241   -2.6  17.138  177.5  0.0021   85.5  0.9976   -1.8
 0.065  0.9240   -2.9  17.148  177.4  0.0022   85.5  0.9976   -2.0
 0.070  0.9238   -3.1  17.158  177.2  0.0024   85.4  0.9976   -2.2
 0.075  0.9236   -3.4  17.168  177.1  0.0025   85.4  0.9975   -2.3
 0.080  0.9235   -3.7  17.178  177.0  0.0027   85.4  0.9975   -2.5
 0.085  0.9234   -3.9  17.188  176.8  0.0028   85.4  0.9975   -2.7
 0.090  0.9232   -4.2  17.198  176.7  0.0030   85.3  0.9975   -2.9
 0.095  0.9232   -4.4  17.209  176.5  0.0031   85.3  0.9976   -3.0
 0.100  0.9231   -4.7  17.219  176.4  0.0033   85.3  0.9976   -3.2
 0.105  0.9230   -5.0  17.220  176.2  0.0035   85.2  0.9974   -3.4
 0.110  0.9229   -5.3  17.222  176.0  0.0036   85.1  0.9972   -3.5
 0.115  0.9228   -5.5  17.223  175.8  0.0038   85.1  0.9971   -3.7
 0.120  0.9228   -5.8  17.225  175.6  0.0040   85.0  0.9969   -3.9
 0.125  0.9227   -6.1  17.228  175.3  0.0041   84.9  0.9968   -4.0
 0.130  0.9227   -6.4  17.230  175.1  0.0043   84.9  0.9967   -4.2
 0.135  0.9227   -6.7  17.233  174.9  0.0045   84.8  0.9965   -4.4
 0.140  0.9228   -6.9  17.236  174.7  0.0047   84.8  0.9964   -4.6
 0.145  0.9228   -7.2  17.239  174.5  0.0048   84.7  0.9963   -4.7
 0.150  0.9229   -7.5  17.242  174.3  0.0050   84.7  0.9962   -4.9
 0.155  0.9228   -7.7  17.238  174.1  0.0052   84.5  0.9959   -5.1
 0.160  0.9227   -8.0  17.234  173.9  0.0053   84.3  0.9957   -5.2
 0.165  0.9226   -8.2  17.231  173.8  0.0055   84.2  0.9955   -5.4
 0.170  0.9226   -8.4  17.228  173.6  0.0057   84.0  0.9952   -5.5
 0.175  0.9225   -8.6  17.224  173.4  0.0058   83.8  0.9950   -5.7
 0.180  0.9225   -8.9  17.221  173.2  0.0060   83.7  0.9948   -5.9
 0.185  0.9225   -9.1  17.219  173.0  0.0062   83.6  0.9946   -6.0
 0.190  0.9225   -9.3  17.216  172.9  0.0064   83.4  0.9944   -6.2
 0.195  0.9225   -9.6  17.213  172.7  0.0065   83.3  0.9942   -6.3
 0.200  0.9225   -9.8  17.211  172.5  0.0067   83.2  0.9940   -6.5
 0.220  0.9207  -10.8  17.167  171.6  0.0074   82.8  0.9929   -7.1
 0.240  0.9193  -11.7  17.127  170.7  0.0081   82.4  0.9919   -7.8
 0.260  0.9179  -12.7  17.106  169.9  0.0087   82.0  0.9907   -8.4
 0.280  0.9167  -13.6  17.101  169.2  0.0094   81.3  0.9893   -9.1
 0.300  0.9157  -14.6  17.099  168.5  0.0100   80.8  0.9881   -9.7
 0.320  0.9139  -15.5  17.067  167.8  0.0107   80.1  0.9864  -10.3
 0.340  0.9124  -16.4  17.038  167.1  0.0114   79.6  0.9849  -11.0
 0.360  0.9111  -17.4  17.000  166.3  0.0120   79.0  0.9833  -11.6
 0.380  0.9101  -18.3  16.953  165.6  0.0127   78.4  0.9815  -12.2
 0.400  0.9093  -19.3  16.909  164.8  0.0133   77.9  0.9799  -12.8
 0.420  0.9074  -20.3  16.874  164.1  0.0139   77.3  0.9780  -13.4
 0.440  0.9058  -21.2  16.841  163.4  0.0146   76.8  0.9762  -14.0
 0.450  0.9051  -21.7  16.826  163.0  0.0149   76.6  0.9754  -14.3
 0.460  0.9040  -22.2  16.804  162.6  0.0152   76.3  0.9742  -14.6
 0.480  0.9020  -23.1  16.761  161.9  0.0159   75.7  0.9720  -15.3
 0.500  0.9002  -24.0  16.721  161.1  0.0165   75.1  0.9699  -16.0
 0.520  0.8980  -24.9  16.669  160.4  0.0171   74.4  0.9673  -16.6
 0.540  0.8961  -25.9  16.619  159.6  0.0177   73.8  0.9648  -17.2
 0.560  0.8944  -26.8  16.572  158.9  0.0183   73.2  0.9624  -17.8
 0.580  0.8929  -27.8  16.528  158.1  0.0189   72.7  0.9602  -18.4
 0.600  0.8917  -28.7  16.487  157.4  0.0195   72.2  0.9580  -19.0
 0.620  0.8892  -29.6  16.439  156.7  0.0201   71.6  0.9554  -19.6
 0.640  0.8870  -30.5  16.393  156.1  0.0207   71.0  0.9528  -20.2
 0.660  0.8850  -31.4  16.350  155.4  0.0213   70.5  0.9504  -20.8
 0.680  0.8832  -32.4  16.308  154.8  0.0219   70.0  0.9480  -21.4
 0.700  0.8817  -33.3  16.269  154.1  0.0225   69.5  0.9458  -22.0
 0.720  0.8793  -34.2  16.200  153.4  0.0231   68.9  0.9428  -22.6
 0.740  0.8772  -35.0  16.133  152.8  0.0237   68.3  0.9398  -23.2
 0.760  0.8752  -35.9  16.069  152.1  0.0242   67.7  0.9370  -23.8
 0.780  0.8734  -36.8  16.007  151.4  0.0248   67.2  0.9342  -24.4
 0.800  0.8719  -37.7  15.947  150.7  0.0254   66.7  0.9316  -25.0
 0.820  0.8693  -38.6  15.892  150.0  0.0259   66.1  0.9286  -25.6
 0.840  0.8669  -39.5  15.839  149.4  0.0265   65.6  0.9256  -26.1
 0.860  0.8647  -40.4  15.788  148.7  0.0270   65.0  0.9227  -26.7
 0.880  0.8628  -41.3  15.739  148.1  0.0276   64.5  0.9200  -27.3
 0.900  0.8610  -42.2  15.692  147.4  0.0281   64.0  0.9173  -27.9
 0.920  0.8583  -43.1  15.633  146.8  0.0286   63.4  0.9139  -28.5
 0.940  0.8557  -43.9  15.576  146.1  0.0292   62.9  0.9107  -29.0
 0.960  0.8534  -44.8  15.521  145.5  0.0297   62.3  0.9075  -29.6
 0.980  0.8512  -45.7  15.467  144.8  0.0303   61.8  0.9044  -30.2
 1.000  0.8493  -46.6  15.416  144.2  0.0308   61.3  0.9014  -30.8
 1.020  0.8465  -47.4  15.353  143.6  0.0313   60.7  0.8980  -31.4
 1.040  0.8439  -48.3  15.291  143.0  0.0318   60.2  0.8947  -31.9
 1.060  0.8415  -49.2  15.232  142.4  0.0322   59.7  0.8914  -32.5
 1.080  0.8393  -50.0  15.174  141.7  0.0327   59.2  0.8883  -33.0
 1.100  0.8373  -50.9  15.118  141.1  0.0332   58.7  0.8852  -33.6
 1.120  0.8346  -51.7  15.055  140.5  0.0337   58.2  0.8817  -34.2
 1.140  0.8321  -52.6  14.995  139.8  0.0342   57.7  0.8783  -34.7
 1.160  0.8297  -53.5  14.936  139.2  0.0346   57.2  0.8750  -35.3
 1.180  0.8276  -54.3  14.879  138.5  0.0351   56.7  0.8718  -35.8
 1.200  0.8256  -55.2  14.824  137.9  0.0356   56.2  0.8687  -36.4
 1.220  0.8230  -56.0  14.757  137.3  0.0360   55.7  0.8652  -37.0
 1.240  0.8206  -56.9  14.692  136.7  0.0364   55.1  0.8617  -37.5
 1.260  0.8184  -57.7  14.629  136.1  0.0369   54.6  0.8583  -38.1
 1.280  0.8163  -58.6  14.568  135.4  0.0373   54.1  0.8550  -38.6
 1.300  0.8144  -59.4  14.508  134.8  0.0377   53.6  0.8518  -39.2
 1.320  0.8113  -60.2  14.439  134.2  0.0381   53.1  0.8481  -39.7
 1.340  0.8084  -61.0  14.371  133.6  0.0385   52.6  0.8444  -40.3
 1.360  0.8057  -61.8  14.305  133.0  0.0389   52.1  0.8408  -40.8
 1.380  0.8031  -62.7  14.241  132.4  0.0393   51.7  0.8372  -41.4
 1.400  0.8007  -63.5  14.178  131.8  0.0397   51.2  0.8338  -41.9
 1.420  0.7983  -64.3  14.113  131.3  0.0401   50.7  0.8304  -42.4
 1.440  0.7960  -65.0  14.050  130.7  0.0405   50.3  0.8270  -42.9
 1.460  0.7938  -65.8  13.988  130.2  0.0408   49.8  0.8237  -43.4
 1.480  0.7918  -66.5  13.927  129.6  0.0412   49.3  0.8204  -43.9
 1.500  0.7899  -67.3  13.867  129.1  0.0416   48.9  0.8172  -44.4
 1.520  0.7873  -68.1  13.801  128.5  0.0419   48.4  0.8136  -44.9
 1.540  0.7848  -68.9  13.737  127.9  0.0422   47.9  0.8101  -45.4
 1.560  0.7825  -69.7  13.674  127.3  0.0426   47.4  0.8066  -45.9
 1.580  0.7804  -70.5  13.613  126.7  0.0429   47.0  0.8032  -46.5
 1.600  0.7784  -71.3  13.553  126.1  0.0432   46.5  0.7999  -47.0
 1.620  0.7757  -72.0  13.485  125.6  0.0435   46.1  0.7966  -47.5
 1.640  0.7731  -72.7  13.419  125.0  0.0438   45.6  0.7933  -47.9
 1.660  0.7707  -73.4  13.354  124.5  0.0441   45.2  0.7901  -48.4
 1.680  0.7683  -74.2  13.290  124.0  0.0444   44.8  0.7869  -48.9
 1.700  0.7661  -74.9  13.227  123.4  0.0447   44.4  0.7838  -49.4
 1.720  0.7638  -75.6  13.153  122.9  0.0450   44.0  0.7806  -49.9
 1.740  0.7617  -76.3  13.081  122.4  0.0453   43.6  0.7775  -50.3
 1.760  0.7596  -77.0  13.009  121.9  0.0455   43.2  0.7745  -50.8
 1.780  0.7577  -77.7  12.938  121.3  0.0458   42.8  0.7715  -51.3
 1.800  0.7559  -78.4  12.869  120.8  0.0461   42.4  0.7685  -51.8
 1.820  0.7536  -79.1  12.811  120.3  0.0464   42.0  0.7653  -52.3
 1.840  0.7515  -79.8  12.754  119.9  0.0467   41.6  0.7622  -52.7
 1.860  0.7494  -80.5  12.697  119.4  0.0469   41.2  0.7591  -53.2
 1.880  0.7475  -81.3  12.642  118.9  0.0472   40.9  0.7561  -53.7
 1.900  0.7457  -82.0  12.587  118.4  0.0475   40.5  0.7531  -54.2
 1.920  0.7433  -82.6  12.519  117.9  0.0477   40.1  0.7502  -54.6
 1.940  0.7411  -83.2  12.451  117.4  0.0479   39.7  0.7473  -55.0
 1.960  0.7389  -83.8  12.384  116.9  0.0482   39.3  0.7444  -55.5
 1.980  0.7368  -84.5  12.319  116.4  0.0484   39.0  0.7416  -55.9
 2.000  0.7348  -85.1  12.254  115.9  0.0486   38.6  0.7388  -56.3
 2.020  0.7325  -85.7  12.191  115.4  0.0488   38.2  0.7358  -56.7
 2.040  0.7303  -86.4  12.129  115.0  0.0490   37.9  0.7328  -57.2
 2.060  0.7281  -87.0  12.068  114.5  0.0491   37.5  0.7299  -57.6
 2.080  0.7261  -87.6  12.008  114.0  0.0493   37.1  0.7270  -58.1
 2.100  0.7241  -88.3  11.949  113.6  0.0495   36.8  0.7241  -58.6
 2.120  0.7223  -88.9  11.890  113.1  0.0497   36.4  0.7213  -59.0
 2.140  0.7205  -89.5  11.832  112.6  0.0499   36.1  0.7186  -59.5
 2.160  0.7188  -90.2  11.775  112.1  0.0501   35.7  0.7159  -60.0
 2.180  0.7172  -90.8  11.719  111.6  0.0503   35.3  0.7132  -60.4
 2.200  0.7157  -91.5  11.664  111.1  0.0505   35.0  0.7106  -60.9
 2.220  0.7134  -92.1  11.605  110.7  0.0507   34.7  0.7079  -61.3
 2.240  0.7111  -92.7  11.546  110.2  0.0508   34.3  0.7052  -61.7
 2.260  0.7089  -93.3  11.489  109.8  0.0510   34.0  0.7025  -62.1
 2.280  0.7068  -93.9  11.432  109.4  0.0512   33.7  0.6999  -62.5
 2.300  0.7048  -94.6  11.375  108.9  0.0514   33.3  0.6973  -63.0
 2.320  0.7029  -95.2  11.320  108.5  0.0516   33.0  0.6948  -63.4
 2.340  0.7010  -95.8  11.265  108.0  0.0517   32.7  0.6923  -63.8
 2.360  0.6993  -96.4  11.210  107.5  0.0519   32.3  0.6898  -64.2
 2.380  0.6976  -97.1  11.157  107.1  0.0521   32.0  0.6874  -64.7
 2.400  0.6960  -97.7  11.104  106.6  0.0523   31.7  0.6850  -65.1
 2.420  0.6940  -98.3  11.047  106.2  0.0524   31.4  0.6824  -65.5
 2.440  0.6920  -98.9  10.991  105.8  0.0525   31.0  0.6799  -65.9
 2.460  0.6901  -99.5  10.935  105.4  0.0527   30.7  0.6774  -66.3
 2.480  0.6883 -100.1  10.880  104.9  0.0528   30.4  0.6749  -66.7
 2.500  0.6866 -100.7  10.825  104.5  0.0529   30.0  0.6725  -67.2
 2.520  0.6850 -101.3  10.771  104.1  0.0531   29.7  0.6701  -67.6
 2.540  0.6834 -101.9  10.717  103.6  0.0532   29.4  0.6677  -68.0
 2.560  0.6819 -102.6  10.665  103.2  0.0533   29.0  0.6654  -68.4
 2.580  0.6805 -103.2  10.613  102.7  0.0535   28.7  0.6631  -68.9
 2.600  0.6792 -103.8  10.561  102.3  0.0536   28.4  0.6609  -69.3
 2.620  0.6772 -104.3  10.506  101.9  0.0537   28.1  0.6586  -69.7
 2.640  0.6753 -104.9  10.451  101.5  0.0537   27.8  0.6563  -70.1
 2.660  0.6734 -105.4  10.397  101.1  0.0538   27.5  0.6540  -70.4
 2.680  0.6716 -106.0  10.343  100.7  0.0539   27.2  0.6517  -70.8
 2.700  0.6698 -106.6  10.290  100.3  0.0540   26.9  0.6495  -71.2
 2.720  0.6682 -107.1  10.237   99.9  0.0541   26.6  0.6473  -71.6
 2.740  0.6666 -107.7  10.185   99.5  0.0541   26.4  0.6452  -72.0
 2.760  0.6650 -108.3  10.134   99.1  0.0542   26.1  0.6431  -72.4
 2.780  0.6635 -108.8  10.082   98.6  0.0543   25.8  0.6410  -72.8
 2.800  0.6621 -109.4  10.032   98.2  0.0544   25.5  0.6389  -73.2
 2.820  0.6605 -109.9   9.981   97.8  0.0544   25.2  0.6369  -73.5
 2.840  0.6589 -110.4   9.931   97.5  0.0545   25.0  0.6350  -73.9
 2.860  0.6574 -111.0   9.881   97.1  0.0545   24.7  0.6331  -74.2
 2.880  0.6560 -111.5   9.832   96.7  0.0546   24.4  0.6312  -74.6
 2.900  0.6546 -112.0   9.783   96.3  0.0546   24.1  0.6294  -74.9
 2.920  0.6533 -112.6   9.734   96.0  0.0547   23.9  0.6275  -75.3
 2.940  0.6520 -113.1   9.686   95.6  0.0547   23.6  0.6257  -75.6
 2.960  0.6508 -113.6   9.638   95.2  0.0548   23.3  0.6239  -76.0
 2.980  0.6496 -114.2   9.591   94.8  0.0548   23.1  0.6221  -76.3
 3.000  0.6485 -114.7   9.544   94.4  0.0549   22.8  0.6204  -76.7
 3.100  0.6414 -116.8   9.313   92.9  0.0550   21.9  0.6132  -78.0
 3.200  0.6352 -118.9   9.088   91.3  0.0551   21.0  0.6063  -79.4
 3.300  0.6300 -121.1   8.871   89.7  0.0552   20.0  0.5998  -80.8
 3.400  0.6256 -123.4   8.662   87.9  0.0553   19.1  0.5936  -82.2
 3.500  0.6222 -125.6   8.461   86.1  0.0554   18.2  0.5878  -83.6
 3.600  0.6190 -127.5   8.290   84.7  0.0555   17.4  0.5832  -84.7
 3.700  0.6165 -129.4   8.124   83.3  0.0556   16.7  0.5788  -85.9
 3.800  0.6147 -131.4   7.963   81.8  0.0557   15.9  0.5746  -87.0
 3.900  0.6137 -133.3   7.808   80.2  0.0558   15.2  0.5707  -88.2
 4.000  0.6133 -135.3   7.659   78.6  0.0559   14.4  0.5670  -89.4
 4.100  0.6115 -137.3   7.514   77.2  0.0559   13.7  0.5626  -90.7
 4.200  0.6104 -139.2   7.373   75.8  0.0559   13.0  0.5584  -91.9
 4.300  0.6100 -141.2   7.238   74.3  0.0559   12.2  0.5545  -93.2
 4.400  0.6103 -143.1   7.107   72.7  0.0560   11.5  0.5509  -94.6
 4.500  0.6114 -145.1   6.982   71.1  0.0560   10.8  0.5476  -95.9
 4.600  0.6105 -146.8   6.850   69.8  0.0558   10.1  0.5435  -97.1
 4.700  0.6101 -148.5   6.722   68.4  0.0557    9.5  0.5397  -98.3
 4.800  0.6102 -150.3   6.597   66.9  0.0556    8.8  0.5362  -99.6
 4.900  0.6109 -152.0   6.477   65.4  0.0554    8.2  0.5329 -100.8
 5.000  0.6122 -153.7   6.362   63.9  0.0553    7.5  0.5298 -102.1
 5.100  0.6098 -155.2   6.251   62.6  0.0551    7.0  0.5259 -103.2
 5.200  0.6078 -156.7   6.142   61.3  0.0548    6.4  0.5223 -104.3
 5.300  0.6062 -158.2   6.037   60.0  0.0546    5.9  0.5188 -105.4
 5.400  0.6050 -159.7   5.936   58.6  0.0544    5.3  0.5156 -106.6
 5.500  0.6043 -161.2   5.838   57.1  0.0542    4.8  0.5125 -107.7
 5.600  0.6018 -162.7   5.753   55.9  0.0539    4.4  0.5081 -108.8
 5.700  0.5997 -164.2   5.670   54.6  0.0537    3.9  0.5039 -110.0
 5.800  0.5981 -165.7   5.591   53.4  0.0534    3.5  0.4999 -111.2
 5.900  0.5968 -167.2   5.514   52.1  0.0532    3.0  0.4961 -112.4
 6.000  0.5960 -168.7   5.440   50.7  0.0529    2.6  0.4926 -113.6
 6.100  0.5937 -170.3   5.360   49.4  0.0525    2.3  0.4881 -114.9
 6.200  0.5919 -171.9   5.282   48.1  0.0521    1.9  0.4838 -116.1
 6.300  0.5906 -173.5   5.208   46.8  0.0517    1.5  0.4797 -117.4
 6.400  0.5897 -175.2   5.136   45.4  0.0513    1.2  0.4759 -118.8
 6.500  0.5893 -176.8   5.067   44.0  0.0509    0.8  0.4724 -120.1
 6.600  0.5880 -178.3   4.989   42.8  0.0503    0.7  0.4675 -121.1
 6.800  0.5866  178.6   4.839   40.2  0.0491    0.6  0.4581 -123.1
 7.000  0.5870  175.5   4.700   37.4  0.0479    0.4  0.4493 -125.2
 7.200  0.5874  172.7   4.560   35.1  0.0470    1.5  0.4390 -127.1
 7.400  0.5893  169.9   4.428   32.8  0.0461    2.6  0.4291 -129.1
 7.600  0.5943  167.1   4.312   30.3  0.0457    3.8  0.4204 -131.8
 7.800  0.6024  164.4   4.213   27.7  0.0459    5.1  0.4134 -135.2
 8.000  0.6118  161.8   4.122   25.0  0.0462    6.4  0.4080 -138.8
 8.200  0.6181  159.1   4.006   22.4  0.0468    6.6  0.4027 -143.7
 8.400  0.6258  156.5   3.899   19.6  0.0473    6.8  0.4005 -148.7
 8.600  0.6310  154.1   3.787   16.8  0.0477    6.9  0.3978 -153.9
 8.800  0.6335  151.8   3.669   14.1  0.0478    6.8  0.3952 -159.3
 9.000  0.6370  149.6   3.559   11.3  0.0480    6.7  0.3961 -164.8
 9.200  0.6397  147.7   3.442    9.2  0.0480    6.7  0.3987 -170.3
 9.400  0.6432  145.7   3.329    7.1  0.0480    6.8  0.4048 -175.6
 9.600  0.6497  143.6   3.226    4.7  0.0480    7.0  0.4155  179.0
 9.800  0.6596  141.2   3.131    2.1  0.0479    7.3  0.4310  173.6
10.000  0.6706  138.9   3.044   -0.6  0.0478    7.6  0.4499  168.7
!
!  f       NFmin   Gammaopt  rn/50
! GHz       dB    MAG  ANG    -
 0.450      0.55  0.51    3   0.14
 2.400      0.67  0.32   30   0.15
 5.500      0.83  0.37  108   0.10
10.000      1.36  0.31 -161   0.09
!
! (c) 2016  Infineon Technologies AG, Munich
