! Infineon Technologies  Discrete & RF Semiconductors
! BFP760
! VCE =  2.5 V,  IC =  40 mA
! Common Emitter S-Parameters:                            Nov 2012
# GHz  S  MA  R  50
!  f         S11            S21            S12            S22
! GHz     MAG   ANG      MAG   ANG      MAG   ANG      MAG   ANG
 0.030  0.6045  -10.6  74.619  174.1  0.0018   88.4  0.9743   -5.5
 0.040  0.6049  -13.9  74.394  172.2  0.0028   79.0  0.9753   -7.6
 0.050  0.6062  -17.3  74.572  169.4  0.0048   76.7  0.9760   -9.8
 0.060  0.6012  -20.5  73.963  167.5  0.0044   85.1  0.9682  -11.9
 0.070  0.5986  -23.8  73.479  165.5  0.0046   81.1  0.9624  -14.0
 0.080  0.5966  -27.1  72.697  163.6  0.0058   79.9  0.9557  -16.1
 0.090  0.5946  -30.2  71.915  161.6  0.0063   79.5  0.9482  -18.2
 0.100  0.5917  -33.4  71.069  159.8  0.0069   78.5  0.9393  -20.2
 0.110  0.5889  -36.4  70.137  158.0  0.0078   74.1  0.9284  -22.1
 0.120  0.5866  -39.6  69.265  156.2  0.0079   73.9  0.9189  -24.0
 0.130  0.5837  -42.4  68.262  154.5  0.0087   72.3  0.9079  -25.8
 0.140  0.5809  -45.3  67.318  152.9  0.0093   71.3  0.8962  -27.6
 0.150  0.5781  -48.2  66.393  151.2  0.0098   72.4  0.8843  -29.3
 0.200  0.5681  -61.2  61.297  144.0  0.0122   66.4  0.8262  -37.2
 0.250  0.5600  -72.4  56.525  137.9  0.0144   63.0  0.7696  -44.1
 0.300  0.5542  -82.3  51.989  132.8  0.0166   59.3  0.7193  -50.1
 0.350  0.5524  -90.9  47.946  128.4  0.0182   56.5  0.6729  -55.5
 0.400  0.5536  -98.5  44.476  124.6  0.0197   54.2  0.6323  -60.4
 0.450  0.5563 -105.1  41.355  121.3  0.0211   52.1  0.5968  -65.0
 0.500  0.5584 -111.1  38.616  118.4  0.0222   50.5  0.5645  -69.3
 0.600  0.5671 -121.3  34.042  113.2  0.0244   47.4  0.5109  -77.1
 0.700  0.5757 -129.7  30.370  108.9  0.0261   44.6  0.4677  -84.3
 0.800  0.5852 -136.8  27.363  105.1  0.0275   42.8  0.4325  -90.9
 0.900  0.5927 -142.9  24.880  101.8  0.0289   41.1  0.4030  -97.2
 1.000  0.6001 -148.2  22.779   98.8  0.0300   40.0  0.3797 -102.9
 1.100  0.6062 -153.0  20.981   96.1  0.0311   39.0  0.3596 -108.4
 1.200  0.6129 -157.1  19.450   93.6  0.0320   38.3  0.3444 -113.4
 1.300  0.6178 -161.0  18.109   91.2  0.0329   37.8  0.3305 -118.4
 1.400  0.6235 -164.4  16.934   89.0  0.0337   37.2  0.3207 -122.8
 1.500  0.6282 -167.6  15.903   86.9  0.0345   36.8  0.3111 -127.2
 1.600  0.6337 -170.5  14.998   84.9  0.0353   36.4  0.3048 -131.2
 1.700  0.6382 -173.3  14.171   82.9  0.0362   36.2  0.2979 -135.2
 1.800  0.6430 -175.8  13.430   81.0  0.0369   35.9  0.2947 -139.0
 1.900  0.6471 -178.3  12.757   79.2  0.0377   35.8  0.2905 -142.7
 2.000  0.6514  179.4  12.150   77.5  0.0385   35.6  0.2890 -146.2
 2.100  0.6547  177.2  11.554   75.7  0.0391   35.5  0.2875 -149.3
 2.200  0.6576  175.2  11.030   74.0  0.0398   35.4  0.2859 -152.5
 2.300  0.6611  173.2  10.557   72.4  0.0405   35.0  0.2844 -155.5
 2.400  0.6643  171.2  10.119   70.8  0.0414   35.1  0.2842 -158.4
 2.500  0.6678  169.3   9.711   69.1  0.0421   35.0  0.2836 -161.3
 2.600  0.6705  167.4   9.325   67.6  0.0427   35.0  0.2840 -164.2
 2.700  0.6733  165.7   8.968   66.1  0.0435   34.7  0.2846 -167.0
 2.800  0.6766  164.0   8.635   64.6  0.0444   34.6  0.2861 -169.6
 2.900  0.6800  162.2   8.319   63.1  0.0450   34.3  0.2881 -172.3
 3.000  0.6831  160.6   8.026   61.5  0.0458   34.2  0.2911 -174.8
 3.100  0.6867  159.0   7.745   60.1  0.0465   34.0  0.2943 -177.1
 3.200  0.6903  157.4   7.485   58.7  0.0472   33.9  0.2973 -179.3
 3.300  0.6937  155.8   7.233   57.3  0.0480   33.8  0.3009  178.5
 3.400  0.6973  154.3   6.995   55.9  0.0486   33.6  0.3051  176.5
 3.500  0.7011  152.9   6.774   54.5  0.0492   33.4  0.3092  174.5
 3.600  0.7046  151.4   6.558   53.1  0.0501   33.1  0.3136  172.6
 3.700  0.7083  149.9   6.356   51.8  0.0506   32.9  0.3183  170.7
 3.800  0.7114  148.6   6.154   50.5  0.0513   32.6  0.3234  168.9
 3.900  0.7148  147.3   5.971   49.2  0.0520   32.5  0.3281  167.4
 4.000  0.7182  146.0   5.794   48.0  0.0526   32.2  0.3333  165.8
 4.100  0.7221  144.8   5.629   46.7  0.0533   32.1  0.3385  164.4
 4.200  0.7250  143.6   5.466   45.5  0.0540   31.9  0.3431  163.1
 4.300  0.7282  142.5   5.311   44.3  0.0546   31.7  0.3482  161.8
 4.400  0.7313  141.5   5.165   43.2  0.0551   31.4  0.3527  160.7
 4.500  0.7343  140.4   5.029   42.0  0.0558   31.2  0.3572  159.5
 4.600  0.7376  139.4   4.897   40.8  0.0564   31.1  0.3613  158.4
 4.700  0.7400  138.5   4.770   39.7  0.0571   30.9  0.3657  157.3
 4.800  0.7430  137.6   4.648   38.6  0.0577   30.7  0.3695  156.3
 4.900  0.7455  136.8   4.535   37.5  0.0584   30.3  0.3736  155.3
 5.000  0.7481  136.0   4.425   36.5  0.0590   30.1  0.3770  154.3
 5.100  0.7505  135.2   4.321   35.4  0.0597   30.0  0.3808  153.3
 5.200  0.7526  134.4   4.224   34.3  0.0604   29.7  0.3840  152.4
 5.300  0.7546  133.7   4.126   33.2  0.0609   29.5  0.3872  151.4
 5.400  0.7561  132.9   4.033   32.1  0.0617   29.3  0.3906  150.4
 5.500  0.7572  132.2   3.942   31.1  0.0623   29.1  0.3930  149.5
 5.600  0.7581  131.6   3.856   30.1  0.0629   28.9  0.3954  148.5
 5.700  0.7595  130.9   3.780   29.1  0.0636   28.7  0.3991  147.5
 5.800  0.7608  130.2   3.700   28.0  0.0644   28.5  0.4014  146.6
 5.900  0.7623  129.6   3.626   27.0  0.0652   28.1  0.4047  145.6
 6.000  0.7639  128.8   3.554   25.9  0.0660   28.0  0.4080  144.6
 6.100  0.7658  128.3   3.488   24.9  0.0668   27.6  0.4118  143.8
 6.200  0.7670  127.5   3.421   23.8  0.0676   27.2  0.4144  142.9
 6.300  0.7696  126.8   3.357   22.8  0.0684   26.9  0.4183  142.1
 6.400  0.7712  126.0   3.295   21.7  0.0691   26.4  0.4219  141.1
 6.500  0.7734  125.2   3.234   20.6  0.0699   26.0  0.4256  140.3
 6.600  0.7760  124.4   3.179   19.5  0.0705   25.5  0.4290  139.4
 6.700  0.7778  123.6   3.120   18.5  0.0713   25.1  0.4327  138.6
 6.800  0.7788  122.7   3.064   17.4  0.0720   24.7  0.4362  137.6
 6.900  0.7819  121.8   3.010   16.3  0.0728   24.2  0.4405  136.8
 7.000  0.7837  120.9   2.961   15.2  0.0734   23.7  0.4439  136.0
 7.100  0.7862  120.0   2.911   14.1  0.0742   23.2  0.4491  135.2
 7.200  0.7887  119.0   2.862   12.9  0.0750   22.6  0.4531  134.4
 7.300  0.7906  118.1   2.812   11.8  0.0756   22.1  0.4574  133.5
 7.400  0.7933  117.1   2.765   10.6  0.0762   21.4  0.4617  132.6
 7.500  0.7969  116.1   2.720    9.4  0.0769   20.8  0.4666  131.8
 7.600  0.7998  115.1   2.673    8.2  0.0776   20.1  0.4714  130.7
 7.700  0.8028  114.2   2.628    7.1  0.0780   19.6  0.4762  129.9
 7.800  0.8065  113.2   2.579    5.8  0.0785   18.9  0.4820  128.7
 7.900  0.8098  112.2   2.535    4.6  0.0790   18.2  0.4874  127.7
 8.000  0.8141  111.2   2.484    3.4  0.0793   17.4  0.4936  126.7
 8.500  0.8343  106.3   2.243   -2.8  0.0803   14.0  0.5252  121.1
 9.000  0.8525  102.0   1.999   -8.1  0.0796   11.2  0.5630  116.0
 9.500  0.8690   98.7   1.777  -12.1  0.0784    9.6  0.5992  112.2
10.000  0.8822   96.8   1.597  -14.8  0.0782    9.0  0.6313  110.6
!
!  f       NFmin   Gammaopt  rn/50
! GHz       dB    MAG  ANG    -
 0.900      0.92  0.23 -166   0.11
 1.800      0.94  0.24 -157   0.08
 2.400      0.99  0.25 -149   0.08
 3.500      1.15  0.25 -138   0.18
 5.500      1.38  0.32  -79   0.50
 8.000      1.61  0.47  -57   0.52
!
! (c) 2012  Infineon Technologies AG, Munich
