! Infineon Technologies  Discrete & RF Semiconductors
! BFP750
! VCE =  4.0 V,  IC =  55 mA
! Common Emitter S-Parameters:                            Jan 2016
# GHz  S  MA  R  50
!  f         S11            S21            S12            S22
! GHz     MAG   ANG      MAG   ANG      MAG   ANG      MAG   ANG
 0.030  0.6048  -14.9  67.204  172.9  0.0038   71.5  0.9420   -9.0
 0.035  0.6051  -17.4  67.067  171.7  0.0044   72.8  0.9413  -10.6
 0.040  0.6065  -19.8  66.960  170.5  0.0051   73.8  0.9413  -12.3
 0.045  0.6058  -22.4  66.915  169.2  0.0056   73.0  0.9400  -13.9
 0.050  0.6064  -25.1  66.908  167.8  0.0061   72.4  0.9394  -15.6
 0.055  0.6053  -27.3  66.620  166.9  0.0067   72.1  0.9368  -17.2
 0.060  0.6052  -29.6  66.351  165.9  0.0074   71.8  0.9350  -18.9
 0.065  0.6089  -32.1  66.005  164.7  0.0079   71.3  0.9314  -20.5
 0.070  0.6137  -34.5  65.690  163.4  0.0084   70.9  0.9286  -22.2
 0.075  0.6139  -37.0  65.411  162.5  0.0089   69.7  0.9246  -23.8
 0.080  0.6153  -39.4  65.150  161.5  0.0095   68.6  0.9213  -25.4
 0.085  0.6155  -41.6  64.664  160.4  0.0100   68.2  0.9170  -27.0
 0.090  0.6166  -43.7  64.205  159.2  0.0106   67.9  0.9135  -28.6
 0.095  0.6185  -45.8  63.830  158.2  0.0111   67.4  0.9088  -30.1
 0.100  0.6212  -47.9  63.477  157.1  0.0117   66.9  0.9047  -31.6
 0.105  0.6237  -49.9  63.021  156.1  0.0121   66.0  0.8999  -33.1
 0.110  0.6270  -51.9  62.585  155.1  0.0125   65.2  0.8957  -34.6
 0.115  0.6261  -54.1  62.113  154.1  0.0130   64.7  0.8902  -36.1
 0.120  0.6261  -56.3  61.662  153.0  0.0136   64.2  0.8853  -37.6
 0.125  0.6290  -58.2  61.193  152.1  0.0140   63.3  0.8800  -39.0
 0.130  0.6325  -60.0  60.740  151.2  0.0145   62.4  0.8753  -40.4
 0.135  0.6331  -62.0  60.265  150.3  0.0149   61.6  0.8696  -41.8
 0.140  0.6345  -64.0  59.807  149.3  0.0154   60.9  0.8644  -43.3
 0.145  0.6358  -65.9  59.357  148.3  0.0158   60.1  0.8589  -44.6
 0.150  0.6377  -67.8  58.925  147.3  0.0163   59.3  0.8538  -46.0
 0.155  0.6369  -69.5  58.354  146.5  0.0166   58.6  0.8464  -47.2
 0.160  0.6367  -71.2  57.794  145.7  0.0170   57.9  0.8394  -48.4
 0.165  0.6371  -72.9  57.245  144.9  0.0173   57.3  0.8328  -49.7
 0.170  0.6379  -74.6  56.708  144.1  0.0176   56.7  0.8265  -50.9
 0.175  0.6394  -76.3  56.183  143.2  0.0180   56.1  0.8207  -52.2
 0.180  0.6414  -77.9  55.670  142.4  0.0183   55.5  0.8153  -53.5
 0.185  0.6440  -79.6  55.170  141.5  0.0187   54.9  0.8103  -54.8
 0.190  0.6470  -81.3  54.683  140.6  0.0190   54.4  0.8057  -56.1
 0.195  0.6507  -82.9  54.210  139.7  0.0194   53.9  0.8016  -57.4
 0.200  0.6548  -84.5  53.750  138.8  0.0197   53.4  0.7979  -58.8
 0.220  0.6557  -89.8  51.713  136.2  0.0208   51.1  0.7733  -63.1
 0.240  0.6623  -95.1  49.795  133.3  0.0219   49.1  0.7533  -67.6
 0.260  0.6678 -100.0  47.931  130.7  0.0229   47.2  0.7339  -71.9
 0.280  0.6716 -104.7  46.083  128.2  0.0237   45.4  0.7138  -75.8
 0.300  0.6797 -109.2  44.325  125.6  0.0246   43.7  0.6972  -80.0
 0.320  0.6808 -112.8  42.655  123.7  0.0252   42.3  0.6791  -83.4
 0.340  0.6847 -116.4  41.035  121.7  0.0259   40.9  0.6635  -86.9
 0.360  0.6881 -119.8  39.526  119.8  0.0265   39.7  0.6489  -90.2
 0.380  0.6905 -122.9  38.114  118.0  0.0270   38.6  0.6348  -93.3
 0.400  0.6950 -126.0  36.741  116.1  0.0275   37.5  0.6226  -96.5
 0.420  0.6963 -128.6  35.501  114.7  0.0279   36.6  0.6103  -99.2
 0.440  0.6991 -131.2  34.284  113.1  0.0284   35.7  0.5995 -102.0
 0.450  0.7010 -132.5  33.686  112.3  0.0286   35.3  0.5946 -103.5
 0.460  0.7015 -133.6  33.144  111.7  0.0288   34.9  0.5893 -104.7
 0.480  0.7035 -135.9  32.072  110.4  0.0291   34.1  0.5796 -107.2
 0.500  0.7065 -138.2  31.017  109.0  0.0294   33.4  0.5709 -109.7
 0.520  0.7065 -140.0  30.123  108.0  0.0297   32.8  0.5623 -111.7
 0.540  0.7073 -141.9  29.238  107.0  0.0300   32.3  0.5544 -113.9
 0.560  0.7088 -143.7  28.364  105.8  0.0302   31.7  0.5473 -116.0
 0.580  0.7110 -145.5  27.501  104.7  0.0305   31.2  0.5410 -118.2
 0.600  0.7139 -147.3  26.651  103.4  0.0308   30.7  0.5355 -120.5
 0.620  0.7141 -148.8  25.969  102.6  0.0310   30.3  0.5297 -122.2
 0.640  0.7149 -150.2  25.292  101.7  0.0312   29.9  0.5244 -123.9
 0.660  0.7160 -151.7  24.622  100.8  0.0314   29.5  0.5196 -125.7
 0.680  0.7177 -153.2  23.958   99.8  0.0316   29.2  0.5153 -127.5
 0.700  0.7198 -154.6  23.301   98.8  0.0318   28.8  0.5115 -129.3
 0.720  0.7202 -155.8  22.763   98.1  0.0320   28.5  0.5075 -130.8
 0.740  0.7209 -157.0  22.228   97.3  0.0322   28.3  0.5038 -132.3
 0.760  0.7219 -158.2  21.698   96.5  0.0324   28.0  0.5005 -133.8
 0.780  0.7233 -159.3  21.172   95.7  0.0326   27.8  0.4976 -135.3
 0.800  0.7249 -160.5  20.651   94.8  0.0328   27.5  0.4950 -136.9
 0.820  0.7253 -161.5  20.221   94.2  0.0330   27.3  0.4923 -138.2
 0.840  0.7259 -162.5  19.793   93.6  0.0331   27.1  0.4898 -139.4
 0.860  0.7267 -163.5  19.368   92.9  0.0333   27.0  0.4876 -140.7
 0.880  0.7277 -164.5  18.945   92.2  0.0334   26.8  0.4856 -142.0
 0.900  0.7290 -165.5  18.525   91.5  0.0336   26.6  0.4839 -143.3
 0.920  0.7294 -166.4  18.166   90.9  0.0338   26.5  0.4820 -144.4
 0.940  0.7300 -167.3  17.809   90.3  0.0339   26.4  0.4803 -145.5
 0.960  0.7307 -168.2  17.455   89.7  0.0341   26.2  0.4787 -146.6
 0.980  0.7317 -169.1  17.102   89.0  0.0342   26.1  0.4774 -147.8
 1.000  0.7328 -170.0  16.752   88.3  0.0344   26.0  0.4762 -148.9
 1.020  0.7332 -170.7  16.465   87.8  0.0346   25.9  0.4749 -149.9
 1.040  0.7338 -171.5  16.179   87.2  0.0347   25.8  0.4737 -150.8
 1.060  0.7344 -172.2  15.894   86.7  0.0349   25.8  0.4726 -151.8
 1.080  0.7352 -173.0  15.611   86.1  0.0350   25.7  0.4717 -152.8
 1.100  0.7361 -173.7  15.330   85.5  0.0352   25.6  0.4709 -153.8
 1.120  0.7367 -174.4  15.077   85.0  0.0354   25.5  0.4700 -154.7
 1.140  0.7374 -175.2  14.825   84.5  0.0355   25.4  0.4693 -155.6
 1.160  0.7383 -175.9  14.575   84.0  0.0357   25.4  0.4686 -156.5
 1.180  0.7392 -176.7  14.325   83.5  0.0358   25.3  0.4681 -157.4
 1.200  0.7403 -177.4  14.077   82.9  0.0360   25.2  0.4677 -158.3
 1.220  0.7406 -178.0  13.867   82.4  0.0361   25.1  0.4670 -159.1
 1.240  0.7410 -178.7  13.657   81.9  0.0363   25.1  0.4664 -159.9
 1.260  0.7415 -179.3  13.449   81.4  0.0364   25.0  0.4659 -160.6
 1.280  0.7420 -180.0  13.241   80.9  0.0366   25.0  0.4655 -161.4
 1.300  0.7427  179.4  13.035   80.4  0.0367   24.9  0.4652 -162.2
 1.320  0.7431  178.8  12.847   79.9  0.0369   24.9  0.4648 -162.9
 1.340  0.7436  178.2  12.660   79.5  0.0370   24.8  0.4646 -163.7
 1.360  0.7442  177.6  12.474   79.0  0.0372   24.8  0.4644 -164.4
 1.380  0.7449  177.0  12.289   78.5  0.0373   24.7  0.4642 -165.2
 1.400  0.7456  176.4  12.105   78.0  0.0375   24.7  0.4642 -165.9
 1.420  0.7461  175.8  11.947   77.6  0.0377   24.7  0.4639 -166.6
 1.440  0.7467  175.3  11.789   77.1  0.0378   24.6  0.4637 -167.2
 1.460  0.7473  174.7  11.632   76.7  0.0380   24.6  0.4636 -167.9
 1.480  0.7480  174.2  11.476   76.2  0.0381   24.5  0.4635 -168.5
 1.500  0.7488  173.6  11.321   75.7  0.0383   24.5  0.4635 -169.2
 1.520  0.7492  173.1  11.179   75.3  0.0385   24.5  0.4634 -169.8
 1.540  0.7496  172.6  11.037   74.9  0.0386   24.4  0.4633 -170.4
 1.560  0.7501  172.0  10.895   74.4  0.0388   24.4  0.4633 -171.0
 1.580  0.7506  171.5  10.755   74.0  0.0389   24.3  0.4634 -171.6
 1.600  0.7512  171.0  10.615   73.5  0.0391   24.3  0.4635 -172.2
 1.620  0.7516  170.5  10.490   73.1  0.0393   24.3  0.4634 -172.8
 1.640  0.7521  170.0  10.366   72.7  0.0394   24.2  0.4634 -173.4
 1.660  0.7526  169.5  10.243   72.3  0.0396   24.2  0.4635 -173.9
 1.680  0.7532  169.0  10.119   71.8  0.0397   24.1  0.4636 -174.5
 1.700  0.7538  168.5   9.997   71.4  0.0399   24.1  0.4637 -175.1
 1.720  0.7542  168.0   9.881   71.0  0.0401   24.0  0.4637 -175.6
 1.740  0.7546  167.5   9.766   70.6  0.0402   24.0  0.4637 -176.2
 1.760  0.7551  167.1   9.651   70.1  0.0404   23.9  0.4638 -176.7
 1.780  0.7556  166.6   9.537   69.7  0.0405   23.9  0.4639 -177.3
 1.800  0.7562  166.1   9.424   69.2  0.0407   23.8  0.4640 -177.8
 1.820  0.7565  165.6   9.320   68.8  0.0409   23.8  0.4641 -178.3
 1.840  0.7569  165.2   9.217   68.4  0.0410   23.8  0.4643 -178.9
 1.860  0.7573  164.7   9.115   68.0  0.0412   23.7  0.4645 -179.4
 1.880  0.7577  164.3   9.013   67.5  0.0413   23.7  0.4648 -180.0
 1.900  0.7582  163.8   8.911   67.1  0.0415   23.7  0.4651  179.5
 1.920  0.7586  163.4   8.820   66.7  0.0417   23.6  0.4651  179.0
 1.940  0.7590  162.9   8.729   66.3  0.0418   23.5  0.4652  178.5
 1.960  0.7595  162.5   8.639   65.9  0.0420   23.5  0.4652  178.0
 1.980  0.7600  162.0   8.549   65.5  0.0421   23.4  0.4653  177.5
 2.000  0.7606  161.6   8.459   65.1  0.0423   23.3  0.4655  177.0
 2.020  0.7607  161.2   8.377   64.7  0.0424   23.2  0.4656  176.5
 2.040  0.7608  160.7   8.295   64.4  0.0426   23.2  0.4657  176.0
 2.060  0.7609  160.3   8.213   64.0  0.0427   23.1  0.4658  175.6
 2.080  0.7611  159.8   8.132   63.6  0.0429   23.1  0.4659  175.1
 2.100  0.7614  159.4   8.052   63.2  0.0430   23.0  0.4661  174.6
 2.120  0.7617  159.0   7.971   62.8  0.0432   23.0  0.4664  174.1
 2.140  0.7620  158.5   7.891   62.4  0.0433   22.9  0.4666  173.6
 2.160  0.7624  158.1   7.812   62.0  0.0435   22.9  0.4669  173.2
 2.180  0.7628  157.6   7.733   61.5  0.0436   22.8  0.4672  172.7
 2.200  0.7633  157.2   7.654   61.1  0.0438   22.8  0.4676  172.2
 2.220  0.7634  156.8   7.584   60.8  0.0440   22.7  0.4678  171.7
 2.240  0.7635  156.4   7.515   60.4  0.0441   22.7  0.4680  171.3
 2.260  0.7636  156.0   7.445   60.1  0.0443   22.6  0.4682  170.8
 2.280  0.7638  155.6   7.376   59.7  0.0444   22.6  0.4685  170.4
 2.300  0.7640  155.2   7.308   59.3  0.0446   22.5  0.4688  169.9
 2.320  0.7643  154.8   7.239   59.0  0.0448   22.4  0.4691  169.4
 2.340  0.7646  154.4   7.171   58.6  0.0449   22.4  0.4695  169.0
 2.360  0.7649  154.0   7.103   58.2  0.0451   22.3  0.4698  168.5
 2.380  0.7653  153.6   7.036   57.8  0.0452   22.3  0.4703  168.1
 2.400  0.7657  153.2   6.969   57.4  0.0454   22.2  0.4707  167.6
 2.420  0.7657  152.8   6.908   57.1  0.0456   22.1  0.4710  167.2
 2.440  0.7658  152.4   6.848   56.7  0.0457   22.1  0.4713  166.7
 2.460  0.7659  152.1   6.788   56.4  0.0459   22.0  0.4717  166.3
 2.480  0.7661  151.7   6.728   56.0  0.0460   21.9  0.4721  165.9
 2.500  0.7663  151.3   6.669   55.6  0.0462   21.8  0.4725  165.4
 2.520  0.7665  150.9   6.610   55.3  0.0464   21.8  0.4729  165.0
 2.540  0.7667  150.5   6.551   54.9  0.0465   21.7  0.4734  164.6
 2.560  0.7670  150.2   6.492   54.5  0.0467   21.6  0.4738  164.2
 2.580  0.7673  149.8   6.434   54.1  0.0468   21.6  0.4744  163.7
 2.600  0.7677  149.4   6.376   53.7  0.0470   21.5  0.4749  163.3
 2.620  0.7679  149.0   6.326   53.4  0.0472   21.4  0.4753  162.9
 2.640  0.7681  148.7   6.276   53.0  0.0473   21.4  0.4757  162.5
 2.660  0.7684  148.3   6.227   52.7  0.0475   21.3  0.4761  162.1
 2.680  0.7687  147.9   6.178   52.4  0.0476   21.2  0.4766  161.7
 2.700  0.7690  147.5   6.129   52.0  0.0478   21.1  0.4771  161.3
 2.720  0.7694  147.2   6.080   51.7  0.0480   21.1  0.4776  160.9
 2.740  0.7698  146.8   6.031   51.3  0.0481   21.0  0.4781  160.5
 2.760  0.7702  146.4   5.983   50.9  0.0483   20.9  0.4786  160.1
 2.780  0.7707  146.1   5.935   50.6  0.0484   20.9  0.4792  159.7
 2.800  0.7712  145.7   5.887   50.2  0.0486   20.8  0.4798  159.3
 2.820  0.7715  145.3   5.843   49.9  0.0488   20.7  0.4803  158.9
 2.840  0.7718  145.0   5.799   49.6  0.0489   20.6  0.4808  158.6
 2.860  0.7722  144.6   5.755   49.2  0.0491   20.6  0.4813  158.2
 2.880  0.7725  144.3   5.711   48.9  0.0492   20.5  0.4818  157.8
 2.900  0.7729  143.9   5.668   48.6  0.0494   20.4  0.4823  157.4
 2.920  0.7734  143.6   5.624   48.2  0.0496   20.3  0.4829  157.1
 2.940  0.7738  143.2   5.581   47.9  0.0497   20.2  0.4835  156.7
 2.960  0.7743  142.9   5.538   47.5  0.0499   20.2  0.4841  156.3
 2.980  0.7749  142.5   5.495   47.2  0.0500   20.1  0.4847  156.0
 3.000  0.7754  142.2   5.453   46.8  0.0502   20.0  0.4854  155.6
 3.100  0.7767  140.4   5.266   45.3  0.0510   19.4  0.4883  153.9
 3.200  0.7786  138.7   5.082   43.7  0.0517   18.9  0.4917  152.2
 3.300  0.7813  136.9   4.903   42.0  0.0525   18.4  0.4954  150.6
 3.400  0.7848  135.2   4.728   40.2  0.0533   17.9  0.4996  149.0
 3.500  0.7889  133.5   4.559   38.2  0.0541   17.4  0.5041  147.4
 3.600  0.7912  132.0   4.414   36.8  0.0547   16.8  0.5082  145.9
 3.700  0.7940  130.4   4.273   35.3  0.0554   16.2  0.5127  144.5
 3.800  0.7974  128.9   4.134   33.7  0.0561   15.7  0.5174  143.1
 3.900  0.8014  127.4   3.999   32.0  0.0567   15.1  0.5225  141.7
 4.000  0.8059  125.9   3.867   30.2  0.0574   14.6  0.5278  140.4
 4.100  0.8077  124.7   3.754   28.9  0.0580   14.1  0.5321  139.2
 4.200  0.8098  123.4   3.644   27.6  0.0586   13.6  0.5366  138.0
 4.300  0.8123  122.2   3.536   26.1  0.0592   13.1  0.5414  136.9
 4.400  0.8152  121.0   3.429   24.6  0.0599   12.6  0.5463  135.7
 4.500  0.8184  119.8   3.326   23.0  0.0605   12.1  0.5515  134.6
 4.600  0.8192  118.7   3.239   21.8  0.0612   11.6  0.5540  133.6
 4.700  0.8203  117.6   3.154   20.5  0.0618   11.0  0.5567  132.6
 4.800  0.8216  116.5   3.071   19.1  0.0625   10.5  0.5596  131.6
 4.900  0.8233  115.4   2.989   17.6  0.0632   10.0  0.5626  130.6
 5.000  0.8253  114.3   2.910   16.1  0.0639    9.5  0.5658  129.6
 5.100  0.8246  113.2   2.838   14.9  0.0645    8.8  0.5666  128.4
 5.200  0.8243  112.1   2.767   13.6  0.0652    8.2  0.5676  127.2
 5.300  0.8242  110.9   2.698   12.2  0.0658    7.5  0.5688  126.0
 5.400  0.8245  109.8   2.631   10.8  0.0664    6.9  0.5703  124.9
 5.500  0.8251  108.7   2.565    9.3  0.0671    6.3  0.5720  123.7
 5.600  0.8252  107.8   2.508    8.2  0.0677    5.7  0.5731  122.4
 5.700  0.8255  106.8   2.452    7.0  0.0684    5.1  0.5745  121.2
 5.800  0.8260  105.9   2.398    5.7  0.0691    4.6  0.5762  120.0
 5.900  0.8267  104.9   2.344    4.5  0.0697    4.0  0.5781  118.7
 6.000  0.8277  104.0   2.292    3.1  0.0704    3.5  0.5803  117.5
 6.100  0.8296  103.1   2.250    1.9  0.0711    2.8  0.5829  116.5
 6.200  0.8317  102.3   2.210    0.7  0.0718    2.1  0.5856  115.5
 6.300  0.8339  101.4   2.170   -0.6  0.0726    1.4  0.5885  114.5
 6.400  0.8364  100.6   2.131   -1.9  0.0733    0.8  0.5916  113.6
 6.500  0.8390   99.7   2.094   -3.3  0.0741    0.1  0.5948  112.6
 6.600  0.8410   98.7   2.057   -4.6  0.0748   -0.8  0.5978  111.8
 6.800  0.8458   96.6   1.987   -7.4  0.0763   -2.5  0.6043  110.2
 7.000  0.8516   94.6   1.922  -10.4  0.0779   -4.1  0.6112  108.6
 7.200  0.8555   92.2   1.848  -13.3  0.0788   -6.2  0.6191  106.6
 7.400  0.8610   89.9   1.780  -16.5  0.0799   -8.2  0.6277  104.6
 7.600  0.8651   87.5   1.710  -19.5  0.0806  -10.2  0.6368  102.3
 7.800  0.8680   85.0   1.636  -22.3  0.0811  -12.0  0.6468   99.8
 8.000  0.8726   82.5   1.566  -25.3  0.0817  -13.9  0.6580   97.4
 8.200  0.8748   80.1   1.497  -27.8  0.0817  -15.7  0.6654   94.8
 8.400  0.8785   77.7   1.432  -30.5  0.0817  -17.6  0.6743   92.2
 8.600  0.8815   75.3   1.368  -33.1  0.0816  -19.4  0.6812   89.5
 8.800  0.8840   72.9   1.307  -35.5  0.0811  -21.3  0.6864   86.8
 9.000  0.8879   70.6   1.248  -38.1  0.0808  -23.2  0.6930   84.2
 9.200  0.8923   68.7   1.189  -40.1  0.0799  -24.6  0.7007   81.9
 9.400  0.8978   66.7   1.131  -42.2  0.0791  -26.0  0.7095   79.7
 9.600  0.9043   65.2   1.081  -44.1  0.0783  -27.2  0.7222   77.9
 9.800  0.9114   64.0   1.039  -45.6  0.0776  -28.1  0.7384   76.5
10.000  0.9188   62.9   0.997  -47.2  0.0769  -29.1  0.7550   75.1
!
!  f       NFmin   Gammaopt  rn/50
! GHz       dB    MAG  ANG    -
 0.450      1.08  0.19 -168   0.47
 0.900      1.11  0.25 -161   0.24
 1.500      1.13  0.36 -155   0.09
 1.900      1.14  0.39 -150   0.08
 2.400      1.15  0.40 -143   0.09
 3.500      1.38  0.41 -127   0.10
!
! (c) 2016  Infineon Technologies AG, Munich
