! Infineon Technologies  Discrete & RF Semiconductors
! BFP720
! VCE =  1.0 V,  IC =  7.0 mA
! Common Emitter S-Parameters:                            Aug 2012
# GHz  S  MA  R  50
!  f         S11            S21            S12            S22
! GHz     MAG   ANG      MAG   ANG      MAG   ANG      MAG   ANG
 0.010  0.9126    0.1  18.762 -179.7  0.0009   17.0  0.9785    1.0
 0.020  0.9153   -1.1  18.770  178.8  0.0010   98.2  0.9958   -0.7
 0.030  0.9140   -1.7  18.859  178.3  0.0014   93.2  0.9957   -1.2
 0.040  0.9128   -2.4  18.950  177.8  0.0018   90.6  0.9957   -1.6
 0.050  0.9117   -3.0  19.041  177.3  0.0022   88.9  0.9958   -2.1
 0.060  0.9115   -3.6  19.024  176.8  0.0028   88.4  0.9958   -2.5
 0.070  0.9115   -4.1  19.008  176.4  0.0033   88.1  0.9958   -3.0
 0.080  0.9115   -4.7  18.993  175.9  0.0038   87.9  0.9959   -3.5
 0.090  0.9116   -5.3  18.980  175.5  0.0043   87.7  0.9961   -3.9
 0.100  0.9118   -5.9  18.967  175.0  0.0048   87.5  0.9963   -4.4
 0.110  0.9111   -6.5  18.955  174.5  0.0053   86.8  0.9957   -4.8
 0.120  0.9106   -7.1  18.943  174.0  0.0058   86.2  0.9952   -5.2
 0.130  0.9101   -7.7  18.934  173.5  0.0063   85.7  0.9947   -5.7
 0.140  0.9098   -8.3  18.926  173.0  0.0068   85.3  0.9943   -6.1
 0.150  0.9095   -8.9  18.919  172.5  0.0073   84.9  0.9939   -6.5
 0.200  0.9053  -11.8  18.749  170.1  0.0097   82.8  0.9901   -8.7
 0.250  0.9015  -14.7  18.650  167.7  0.0120   81.6  0.9861  -10.8
 0.300  0.8964  -17.6  18.480  165.5  0.0145   79.8  0.9799  -13.0
 0.350  0.8912  -20.5  18.335  163.3  0.0168   78.0  0.9749  -15.2
 0.400  0.8860  -23.4  18.219  161.2  0.0191   76.3  0.9672  -17.3
 0.450  0.8799  -26.2  18.046  159.0  0.0214   74.5  0.9613  -19.4
 0.500  0.8734  -29.2  17.887  157.0  0.0236   72.8  0.9533  -21.5
 0.600  0.8606  -34.9  17.612  153.0  0.0281   69.5  0.9354  -25.7
 0.700  0.8466  -40.6  17.297  149.0  0.0323   66.1  0.9179  -29.9
 0.800  0.8309  -46.7  17.113  145.0  0.0363   62.9  0.8982  -34.0
 0.900  0.8159  -52.4  16.744  141.2  0.0401   59.7  0.8755  -38.1
 1.000  0.7995  -58.1  16.392  137.4  0.0437   56.5  0.8518  -42.2
 1.100  0.7837  -63.8  16.033  133.7  0.0470   53.4  0.8264  -46.0
 1.200  0.7667  -69.4  15.675  130.0  0.0500   50.5  0.8014  -49.9
 1.300  0.7506  -75.1  15.303  126.3  0.0529   47.6  0.7753  -53.7
 1.400  0.7344  -80.4  14.903  122.8  0.0554   44.8  0.7489  -57.2
 1.500  0.7187  -85.9  14.533  119.4  0.0576   42.2  0.7221  -60.8
 1.600  0.7020  -91.4  14.200  115.8  0.0596   39.7  0.6965  -64.1
 1.700  0.6878  -96.5  13.772  112.6  0.0615   37.3  0.6707  -67.5
 1.800  0.6753 -101.2  13.370  109.4  0.0631   35.0  0.6470  -70.7
 1.900  0.6627 -105.7  12.967  106.5  0.0645   32.8  0.6245  -73.7
 2.000  0.6529 -110.0  12.571  103.6  0.0658   30.8  0.6030  -76.7
 2.100  0.6419 -114.1  12.185  101.0  0.0668   28.9  0.5822  -79.3
 2.200  0.6343 -118.2  11.826   98.2  0.0680   27.0  0.5626  -82.2
 2.300  0.6261 -121.9  11.465   95.7  0.0688   25.3  0.5449  -84.8
 2.400  0.6205 -125.7  11.127   93.1  0.0696   23.6  0.5284  -87.5
 2.500  0.6129 -129.1  10.809   90.8  0.0703   22.0  0.5123  -89.9
 2.600  0.6076 -132.7  10.511   88.3  0.0710   20.5  0.4973  -92.5
 2.700  0.6020 -136.0  10.218   86.1  0.0716   19.1  0.4831  -94.9
 2.800  0.5985 -139.4   9.942   83.8  0.0722   17.6  0.4698  -97.5
 2.900  0.5930 -142.5   9.676   81.7  0.0726   16.3  0.4569  -99.9
 3.000  0.5893 -145.7   9.423   79.4  0.0730   15.1  0.4448 -102.4
 3.100  0.5823 -148.9   9.179   77.6  0.0733   13.9  0.4317 -104.6
 3.200  0.5771 -152.0   8.946   75.6  0.0735   12.7  0.4193 -107.0
 3.300  0.5737 -155.3   8.724   73.5  0.0738   11.5  0.4076 -109.5
 3.400  0.5721 -158.6   8.513   71.3  0.0742   10.3  0.3968 -112.1
 3.500  0.5724 -161.8   8.317   69.0  0.0745    9.1  0.3869 -114.9
 3.600  0.5676 -165.0   8.112   67.2  0.0746    8.1  0.3754 -117.5
 3.700  0.5645 -168.2   7.916   65.3  0.0747    7.1  0.3647 -120.2
 3.800  0.5633 -171.5   7.729   63.3  0.0748    6.0  0.3549 -123.1
 3.900  0.5638 -174.7   7.551   61.3  0.0749    5.0  0.3460 -126.2
 4.000  0.5662 -178.0   7.384   59.1  0.0751    4.0  0.3382 -129.4
 4.100  0.5644  179.1   7.207   57.4  0.0750    3.0  0.3287 -132.5
 4.200  0.5641  176.1   7.036   55.6  0.0750    2.1  0.3203 -135.8
 4.300  0.5653  173.2   6.873   53.8  0.0749    1.2  0.3130 -139.3
 4.400  0.5680  170.3   6.717   51.8  0.0749    0.2  0.3070 -142.9
 4.500  0.5722  167.4   6.569   49.8  0.0749   -0.7  0.3021 -146.7
 4.600  0.5731  164.9   6.410   48.2  0.0747   -1.5  0.2967 -150.0
 4.700  0.5749  162.4   6.257   46.5  0.0744   -2.2  0.2924 -153.5
 4.800  0.5779  160.0   6.109   44.8  0.0742   -3.0  0.2891 -157.0
 4.900  0.5819  157.6   5.967   43.0  0.0740   -3.8  0.2870 -160.6
 5.000  0.5869  155.2   5.831   41.1  0.0738   -4.6  0.2860 -164.3
 5.100  0.5888  153.3   5.698   39.6  0.0735   -5.2  0.2851 -166.9
 5.200  0.5914  151.4   5.569   38.2  0.0731   -5.8  0.2848 -169.5
 5.300  0.5947  149.6   5.444   36.6  0.0728   -6.4  0.2851 -172.1
 5.400  0.5985  147.7   5.323   35.0  0.0725   -7.0  0.2861 -174.7
 5.500  0.6030  145.9   5.206   33.3  0.0722   -7.6  0.2876 -177.3
 5.600  0.6046  144.5   5.098   32.0  0.0719   -8.1  0.2886 -179.2
 5.700  0.6066  143.1   4.994   30.7  0.0715   -8.5  0.2900  178.9
 5.800  0.6089  141.7   4.892   29.3  0.0712   -8.9  0.2917  177.1
 5.900  0.6116  140.3   4.794   27.8  0.0709   -9.4  0.2936  175.2
 6.000  0.6147  139.0   4.698   26.3  0.0706   -9.8  0.2959  173.4
 6.100  0.6143  137.8   4.611   25.0  0.0704  -10.0  0.2956  172.1
 6.200  0.6143  136.6   4.525   23.7  0.0701  -10.2  0.2954  170.8
 6.300  0.6145  135.5   4.442   22.4  0.0699  -10.5  0.2954  169.4
 6.400  0.6149  134.3   4.361   21.0  0.0697  -10.7  0.2955  168.1
 6.500  0.6156  133.1   4.283   19.5  0.0695  -10.9  0.2958  166.8
 6.600  0.6138  132.0   4.214   18.3  0.0695  -11.0  0.2938  165.7
 6.700  0.6122  130.9   4.146   17.1  0.0696  -11.2  0.2918  164.6
 6.800  0.6109  129.8   4.080   15.8  0.0696  -11.3  0.2900  163.5
 6.900  0.6098  128.7   4.016   14.5  0.0696  -11.4  0.2883  162.4
 7.000  0.6089  127.6   3.954   13.1  0.0696  -11.5  0.2866  161.2
 7.100  0.6087  126.3   3.901   11.8  0.0700  -11.8  0.2851  159.7
 7.200  0.6087  125.1   3.850   10.5  0.0703  -12.1  0.2837  158.3
 7.300  0.6090  123.8   3.800    9.1  0.0707  -12.3  0.2826  156.8
 7.400  0.6097  122.5   3.753    7.7  0.0710  -12.6  0.2816  155.3
 7.500  0.6106  121.3   3.708    6.3  0.0714  -12.9  0.2808  153.7
 7.600  0.6125  119.6   3.658    4.8  0.0717  -13.4  0.2809  151.4
 7.700  0.6150  117.9   3.610    3.3  0.0719  -14.0  0.2814  149.0
 7.800  0.6180  116.2   3.564    1.8  0.0722  -14.5  0.2824  146.7
 7.900  0.6215  114.6   3.522    0.2  0.0725  -15.1  0.2839  144.3
 8.000  0.6254  113.0   3.482   -1.5  0.0727  -15.6  0.2859  142.0
 8.500  0.6491  103.6   3.202   -9.6  0.0724  -18.3  0.3064  128.1
 9.000  0.6801   95.1   2.922  -17.0  0.0723  -20.1  0.3471  116.6
 9.500  0.7197   88.2   2.657  -24.0  0.0723  -22.3  0.4000  108.1
10.000  0.7564   82.3   2.394  -30.4  0.0711  -24.4  0.4544  101.3
10.500  0.7748   78.3   2.153  -35.0  0.0703  -25.1  0.4966   96.7
11.000  0.7871   77.1   2.010  -38.4  0.0714  -25.5  0.5278   94.4
11.500  0.8163   76.7   1.918  -43.4  0.0733  -27.3  0.5634   93.4
12.000  0.8416   75.1   1.800  -49.8  0.0735  -30.1  0.5965   91.6
!
!  f       NFmin   Gammaopt  rn/50
! GHz       dB    MAG  ANG    -
 0.450      0.44  0.40    3  -0.03
 1.800      0.52  0.37   23   0.13
 2.400      0.57  0.28   50   0.26
 5.500      0.71  0.17   49   0.16
10.000      0.94  0.39  -86   0.20
!
! (c) 2012  Infineon Technologies AG, Munich
