! Infineon Technologies  Discrete & RF Semiconductors
! BFP750
! VCE =  2.0 V,  IC =  30 mA
! Common Emitter S-Parameters:                            Jan 2016
# GHz  S  MA  R  50
!  f         S11            S21            S12            S22
! GHz     MAG   ANG      MAG   ANG      MAG   ANG      MAG   ANG
 0.030  0.7647  -11.8  54.729  173.8  0.0044   84.2  0.9869   -8.3
 0.035  0.7636  -13.7  54.665  172.7  0.0051   83.3  0.9859   -9.7
 0.040  0.7633  -15.6  54.621  171.6  0.0059   82.6  0.9855  -11.2
 0.045  0.7640  -17.6  54.639  170.4  0.0066   82.8  0.9844  -12.6
 0.050  0.7657  -19.6  54.680  169.2  0.0074   82.9  0.9839  -14.1
 0.055  0.7627  -21.4  54.514  168.4  0.0080   81.0  0.9813  -15.5
 0.060  0.7604  -23.3  54.360  167.5  0.0087   79.4  0.9793  -17.0
 0.065  0.7619  -25.5  54.136  166.4  0.0093   78.1  0.9760  -18.4
 0.070  0.7644  -27.6  53.934  165.2  0.0100   77.0  0.9733  -19.8
 0.075  0.7647  -29.4  53.771  164.4  0.0106   76.3  0.9703  -21.2
 0.080  0.7658  -31.2  53.618  163.6  0.0113   75.6  0.9679  -22.7
 0.085  0.7618  -32.9  53.286  162.6  0.0120   74.5  0.9642  -24.1
 0.090  0.7585  -34.6  52.972  161.5  0.0127   73.6  0.9611  -25.5
 0.095  0.7591  -36.5  52.737  160.6  0.0132   73.0  0.9572  -26.8
 0.100  0.7604  -38.3  52.516  159.6  0.0138   72.4  0.9537  -28.1
 0.105  0.7600  -40.0  52.203  158.7  0.0144   71.3  0.9494  -29.4
 0.110  0.7603  -41.8  51.905  157.7  0.0150   70.3  0.9457  -30.8
 0.115  0.7592  -43.5  51.597  156.8  0.0156   69.6  0.9411  -32.1
 0.120  0.7588  -45.3  51.303  155.8  0.0163   68.9  0.9371  -33.5
 0.125  0.7595  -47.0  50.979  155.0  0.0168   68.1  0.9325  -34.8
 0.130  0.7609  -48.7  50.667  154.1  0.0174   67.3  0.9284  -36.1
 0.135  0.7594  -50.4  50.349  153.2  0.0179   66.4  0.9235  -37.3
 0.140  0.7585  -52.1  50.043  152.3  0.0185   65.6  0.9190  -38.6
 0.145  0.7567  -53.7  49.760  151.4  0.0190   64.8  0.9139  -39.9
 0.150  0.7556  -55.4  49.489  150.5  0.0196   64.1  0.9092  -41.2
 0.155  0.7528  -56.9  49.083  149.7  0.0201   63.3  0.9025  -42.3
 0.160  0.7506  -58.4  48.687  149.0  0.0205   62.5  0.8962  -43.4
 0.165  0.7489  -60.0  48.299  148.2  0.0210   61.7  0.8902  -44.6
 0.170  0.7477  -61.5  47.921  147.4  0.0214   61.0  0.8845  -45.8
 0.175  0.7471  -63.0  47.552  146.6  0.0219   60.3  0.8793  -46.9
 0.180  0.7470  -64.6  47.193  145.7  0.0224   59.6  0.8744  -48.1
 0.185  0.7474  -66.1  46.843  144.9  0.0229   59.0  0.8699  -49.3
 0.190  0.7484  -67.6  46.504  144.0  0.0233   58.4  0.8658  -50.5
 0.195  0.7499  -69.2  46.176  143.2  0.0238   57.8  0.8620  -51.8
 0.200  0.7520  -70.7  45.858  142.3  0.0243   57.2  0.8587  -53.0
 0.220  0.7467  -75.8  44.352  139.7  0.0258   54.6  0.8351  -57.1
 0.240  0.7474  -80.9  42.942  136.9  0.0273   52.3  0.8161  -61.4
 0.260  0.7467  -85.7  41.549  134.3  0.0287   50.2  0.7970  -65.4
 0.280  0.7438  -90.3  40.147  131.9  0.0298   48.2  0.7770  -69.2
 0.300  0.7459  -95.0  38.823  129.3  0.0310   46.4  0.7605  -73.2
 0.320  0.7415  -98.8  37.493  127.3  0.0319   44.7  0.7416  -76.5
 0.340  0.7404 -102.6  36.211  125.2  0.0328   43.1  0.7253  -79.9
 0.360  0.7396 -106.2  35.007  123.2  0.0336   41.6  0.7097  -83.2
 0.380  0.7385 -109.5  33.867  121.4  0.0344   40.2  0.6944  -86.3
 0.400  0.7400 -112.9  32.765  119.4  0.0351   38.8  0.6812  -89.5
 0.420  0.7375 -115.8  31.733  117.9  0.0357   37.6  0.6675  -92.2
 0.440  0.7369 -118.7  30.724  116.3  0.0363   36.5  0.6553  -95.0
 0.450  0.7373 -120.2  30.229  115.5  0.0366   35.9  0.6498  -96.4
 0.460  0.7364 -121.5  29.768  114.8  0.0368   35.4  0.6438  -97.6
 0.480  0.7358 -124.0  28.859  113.4  0.0373   34.4  0.6326 -100.1
 0.500  0.7365 -126.5  27.968  111.9  0.0377   33.5  0.6227 -102.7
 0.520  0.7342 -128.6  27.197  110.9  0.0380   32.7  0.6126 -104.8
 0.540  0.7330 -130.7  26.435  109.7  0.0384   31.9  0.6033 -106.9
 0.560  0.7326 -132.7  25.684  108.6  0.0388   31.1  0.5949 -109.1
 0.580  0.7333 -134.8  24.944  107.3  0.0391   30.4  0.5874 -111.4
 0.600  0.7349 -136.9  24.217  106.0  0.0395   29.6  0.5808 -113.7
 0.620  0.7335 -138.6  23.616  105.1  0.0398   29.0  0.5737 -115.5
 0.640  0.7327 -140.3  23.020  104.2  0.0400   28.4  0.5671 -117.3
 0.660  0.7326 -141.9  22.431  103.2  0.0403   27.8  0.5612 -119.1
 0.680  0.7331 -143.6  21.849  102.2  0.0405   27.3  0.5558 -121.0
 0.700  0.7342 -145.3  21.274  101.1  0.0408   26.7  0.5510 -122.9
 0.720  0.7335 -146.7  20.796  100.3  0.0410   26.3  0.5460 -124.4
 0.740  0.7333 -148.1  20.322   99.5  0.0412   25.8  0.5413 -126.0
 0.760  0.7335 -149.5  19.852   98.6  0.0414   25.4  0.5371 -127.6
 0.780  0.7341 -150.9  19.387   97.7  0.0416   25.0  0.5333 -129.2
 0.800  0.7352 -152.3  18.927   96.8  0.0418   24.6  0.5299 -130.8
 0.820  0.7348 -153.4  18.540   96.2  0.0420   24.3  0.5264 -132.1
 0.840  0.7348 -154.6  18.155   95.5  0.0422   24.0  0.5231 -133.5
 0.860  0.7350 -155.7  17.772   94.8  0.0423   23.6  0.5201 -134.8
 0.880  0.7355 -156.9  17.393   94.1  0.0425   23.3  0.5175 -136.2
 0.900  0.7363 -158.0  17.016   93.3  0.0427   23.0  0.5151 -137.6
 0.920  0.7360 -159.0  16.691   92.7  0.0428   22.7  0.5125 -138.8
 0.940  0.7359 -160.1  16.368   92.0  0.0430   22.4  0.5101 -140.0
 0.960  0.7361 -161.1  16.048   91.3  0.0431   22.2  0.5079 -141.2
 0.980  0.7365 -162.2  15.730   90.6  0.0433   21.9  0.5059 -142.4
 1.000  0.7371 -163.2  15.414   89.9  0.0434   21.6  0.5042 -143.6
 1.020  0.7373 -164.1  15.152   89.3  0.0435   21.4  0.5024 -144.6
 1.040  0.7376 -164.9  14.892   88.8  0.0437   21.2  0.5007 -145.7
 1.060  0.7382 -165.8  14.634   88.2  0.0438   20.9  0.4991 -146.7
 1.080  0.7388 -166.6  14.377   87.5  0.0440   20.7  0.4978 -147.7
 1.100  0.7397 -167.5  14.122   86.9  0.0441   20.5  0.4966 -148.8
 1.120  0.7397 -168.3  13.892   86.4  0.0442   20.3  0.4953 -149.8
 1.140  0.7399 -169.2  13.663   85.8  0.0444   20.1  0.4941 -150.7
 1.160  0.7403 -170.0  13.435   85.3  0.0445   20.0  0.4931 -151.7
 1.180  0.7408 -170.9  13.209   84.7  0.0447   19.8  0.4922 -152.6
 1.200  0.7415 -171.7  12.984   84.1  0.0448   19.6  0.4914 -153.6
 1.220  0.7417 -172.4  12.792   83.6  0.0449   19.5  0.4904 -154.4
 1.240  0.7419 -173.2  12.601   83.1  0.0450   19.3  0.4894 -155.3
 1.260  0.7423 -173.9  12.411   82.5  0.0452   19.2  0.4886 -156.1
 1.280  0.7429 -174.7  12.222   82.0  0.0453   19.0  0.4879 -157.0
 1.300  0.7435 -175.4  12.034   81.4  0.0454   18.9  0.4873 -157.8
 1.320  0.7437 -176.1  11.863   80.9  0.0455   18.8  0.4866 -158.6
 1.340  0.7440 -176.8  11.692   80.4  0.0456   18.6  0.4860 -159.4
 1.360  0.7444 -177.4  11.523   79.9  0.0458   18.5  0.4855 -160.1
 1.380  0.7449 -178.1  11.354   79.4  0.0459   18.3  0.4851 -160.9
 1.400  0.7455 -178.8  11.186   78.9  0.0460   18.2  0.4848 -161.7
 1.420  0.7458 -179.4  11.040   78.4  0.0461   18.1  0.4843 -162.4
 1.440  0.7462  179.9  10.895   78.0  0.0462   18.0  0.4839 -163.1
 1.460  0.7467  179.3  10.751   77.5  0.0464   17.9  0.4836 -163.9
 1.480  0.7472  178.6  10.607   77.0  0.0465   17.8  0.4834 -164.6
 1.500  0.7479  178.0  10.464   76.5  0.0466   17.7  0.4832 -165.3
 1.520  0.7481  177.4  10.333   76.1  0.0467   17.6  0.4829 -165.9
 1.540  0.7484  176.8  10.203   75.6  0.0468   17.5  0.4827 -166.6
 1.560  0.7488  176.3  10.073   75.2  0.0470   17.3  0.4825 -167.2
 1.580  0.7493  175.7   9.944   74.7  0.0471   17.2  0.4824 -167.9
 1.600  0.7498  175.1   9.816   74.2  0.0472   17.1  0.4824 -168.5
 1.620  0.7502  174.5   9.701   73.8  0.0473   17.0  0.4822 -169.1
 1.640  0.7506  174.0   9.587   73.4  0.0474   16.9  0.4820 -169.8
 1.660  0.7511  173.4   9.474   72.9  0.0476   16.8  0.4819 -170.4
 1.680  0.7517  172.9   9.360   72.5  0.0477   16.7  0.4818 -171.1
 1.700  0.7524  172.3   9.248   72.0  0.0478   16.6  0.4818 -171.7
 1.720  0.7526  171.8   9.141   71.6  0.0479   16.5  0.4816 -172.3
 1.740  0.7529  171.3   9.035   71.1  0.0480   16.4  0.4815 -172.9
 1.760  0.7532  170.7   8.930   70.7  0.0482   16.3  0.4814 -173.4
 1.780  0.7536  170.2   8.825   70.2  0.0483   16.2  0.4814 -174.0
 1.800  0.7541  169.7   8.721   69.7  0.0484   16.1  0.4814 -174.6
 1.820  0.7543  169.2   8.626   69.3  0.0485   16.0  0.4814 -175.2
 1.840  0.7545  168.7   8.531   68.9  0.0486   15.9  0.4814 -175.7
 1.860  0.7548  168.2   8.436   68.5  0.0487   15.9  0.4814 -176.3
 1.880  0.7551  167.7   8.342   68.0  0.0488   15.8  0.4815 -176.8
 1.900  0.7555  167.2   8.249   67.6  0.0489   15.7  0.4817 -177.4
 1.920  0.7557  166.7   8.165   67.2  0.0490   15.6  0.4816 -177.9
 1.940  0.7560  166.2   8.081   66.8  0.0491   15.5  0.4815 -178.5
 1.960  0.7563  165.8   7.998   66.4  0.0493   15.4  0.4815 -179.0
 1.980  0.7567  165.3   7.915   65.9  0.0494   15.3  0.4815 -179.6
 2.000  0.7571  164.8   7.833   65.5  0.0495   15.2  0.4815  179.9
 2.020  0.7571  164.3   7.757   65.1  0.0496   15.1  0.4814  179.4
 2.040  0.7572  163.9   7.681   64.7  0.0497   15.0  0.4814  178.9
 2.060  0.7574  163.4   7.606   64.3  0.0498   15.0  0.4814  178.4
 2.080  0.7576  162.9   7.531   63.9  0.0499   14.9  0.4814  177.9
 2.100  0.7578  162.4   7.457   63.5  0.0500   14.8  0.4815  177.3
 2.120  0.7581  162.0   7.382   63.1  0.0501   14.7  0.4816  176.8
 2.140  0.7585  161.5   7.309   62.6  0.0502   14.6  0.4818  176.3
 2.160  0.7589  161.0   7.235   62.2  0.0503   14.6  0.4820  175.8
 2.180  0.7593  160.6   7.162   61.8  0.0504   14.5  0.4822  175.3
 2.200  0.7598  160.1   7.090   61.3  0.0505   14.4  0.4825  174.8
 2.220  0.7598  159.7   7.025   61.0  0.0506   14.3  0.4826  174.3
 2.240  0.7598  159.2   6.961   60.6  0.0507   14.2  0.4827  173.8
 2.260  0.7598  158.8   6.897   60.2  0.0508   14.1  0.4828  173.3
 2.280  0.7599  158.3   6.833   59.9  0.0509   14.0  0.4830  172.8
 2.300  0.7601  157.9   6.769   59.5  0.0510   13.9  0.4832  172.3
 2.320  0.7603  157.5   6.706   59.1  0.0512   13.9  0.4834  171.9
 2.340  0.7605  157.0   6.643   58.7  0.0513   13.8  0.4837  171.4
 2.360  0.7608  156.6   6.580   58.3  0.0514   13.7  0.4840  170.9
 2.380  0.7611  156.1   6.518   57.9  0.0515   13.6  0.4843  170.4
 2.400  0.7615  155.7   6.456   57.5  0.0516   13.5  0.4847  169.9
 2.420  0.7615  155.3   6.400   57.1  0.0517   13.4  0.4849  169.4
 2.440  0.7616  154.9   6.344   56.8  0.0518   13.4  0.4851  169.0
 2.460  0.7617  154.5   6.289   56.4  0.0519   13.3  0.4854  168.5
 2.480  0.7618  154.1   6.234   56.1  0.0520   13.2  0.4857  168.1
 2.500  0.7620  153.7   6.179   55.7  0.0521   13.1  0.4860  167.6
 2.520  0.7622  153.3   6.124   55.3  0.0523   13.1  0.4863  167.2
 2.540  0.7624  152.9   6.069   54.9  0.0524   13.0  0.4867  166.7
 2.560  0.7627  152.5   6.015   54.5  0.0525   12.9  0.4871  166.3
 2.580  0.7630  152.1   5.962   54.1  0.0526   12.9  0.4875  165.8
 2.600  0.7634  151.7   5.908   53.7  0.0527   12.8  0.4880  165.4
 2.620  0.7636  151.3   5.862   53.4  0.0528   12.7  0.4883  165.0
 2.640  0.7638  150.9   5.815   53.0  0.0529   12.6  0.4887  164.6
 2.660  0.7641  150.5   5.769   52.7  0.0530   12.6  0.4891  164.2
 2.680  0.7644  150.1   5.723   52.3  0.0531   12.5  0.4895  163.8
 2.700  0.7647  149.7   5.678   52.0  0.0532   12.4  0.4899  163.3
 2.720  0.7651  149.4   5.632   51.6  0.0533   12.3  0.4903  162.9
 2.740  0.7655  149.0   5.587   51.2  0.0534   12.2  0.4908  162.5
 2.760  0.7659  148.6   5.542   50.9  0.0535   12.2  0.4913  162.1
 2.780  0.7664  148.2   5.497   50.5  0.0536   12.1  0.4918  161.7
 2.800  0.7669  147.8   5.453   50.1  0.0537   12.0  0.4924  161.3
 2.820  0.7672  147.4   5.412   49.8  0.0538   11.9  0.4928  160.9
 2.840  0.7674  147.1   5.371   49.4  0.0539   11.9  0.4932  160.5
 2.860  0.7678  146.7   5.331   49.1  0.0541   11.8  0.4937  160.1
 2.880  0.7681  146.3   5.291   48.7  0.0542   11.8  0.4941  159.7
 2.900  0.7685  145.9   5.250   48.4  0.0543   11.7  0.4946  159.3
 2.920  0.7689  145.6   5.210   48.0  0.0544   11.6  0.4951  159.0
 2.940  0.7694  145.2   5.171   47.6  0.0545   11.6  0.4957  158.6
 2.960  0.7698  144.8   5.131   47.3  0.0547   11.5  0.4962  158.2
 2.980  0.7704  144.5   5.092   46.9  0.0548   11.5  0.4968  157.8
 3.000  0.7709  144.1   5.053   46.5  0.0549   11.4  0.4974  157.4
 3.100  0.7718  142.3   4.879   45.0  0.0554   10.9  0.5000  155.6
 3.200  0.7735  140.4   4.708   43.4  0.0560   10.4  0.5031  153.9
 3.300  0.7759  138.6   4.541   41.6  0.0565    9.9  0.5067  152.2
 3.400  0.7792  136.8   4.379   39.7  0.0571    9.4  0.5107  150.5
 3.500  0.7832  135.0   4.222   37.7  0.0576    8.9  0.5151  148.8
 3.600  0.7853  133.4   4.087   36.3  0.0581    8.4  0.5190  147.3
 3.700  0.7881  131.8   3.955   34.7  0.0585    8.0  0.5233  145.8
 3.800  0.7915  130.2   3.827   33.1  0.0590    7.5  0.5279  144.4
 3.900  0.7954  128.7   3.701   31.4  0.0595    7.0  0.5328  143.0
 4.000  0.8000  127.1   3.579   29.5  0.0600    6.6  0.5381  141.6
 4.100  0.8019  125.8   3.474   28.2  0.0604    6.2  0.5422  140.4
 4.200  0.8041  124.6   3.372   26.8  0.0609    5.7  0.5465  139.1
 4.300  0.8068  123.3   3.271   25.3  0.0613    5.3  0.5510  137.9
 4.400  0.8098  122.0   3.173   23.8  0.0618    4.9  0.5558  136.8
 4.500  0.8132  120.8   3.077   22.1  0.0622    4.5  0.5608  135.6
 4.600  0.8137  119.7   2.996   20.8  0.0627    4.1  0.5631  134.5
 4.700  0.8144  118.5   2.916   19.5  0.0632    3.6  0.5657  133.5
 4.800  0.8155  117.4   2.839   18.0  0.0637    3.2  0.5684  132.4
 4.900  0.8170  116.2   2.763   16.5  0.0643    2.8  0.5713  131.4
 5.000  0.8187  115.1   2.689   14.9  0.0648    2.4  0.5744  130.4
 5.100  0.8180  114.0   2.622   13.7  0.0653    1.9  0.5750  129.2
 5.200  0.8176  112.8   2.556   12.4  0.0658    1.4  0.5759  128.0
 5.300  0.8176  111.7   2.492   11.0  0.0663    0.9  0.5770  126.8
 5.400  0.8179  110.5   2.429    9.6  0.0668    0.4  0.5784  125.7
 5.500  0.8185  109.4   2.368    8.1  0.0673   -0.1  0.5800  124.5
 5.600  0.8186  108.4   2.315    6.9  0.0678   -0.6  0.5810  123.2
 5.700  0.8188  107.5   2.263    5.7  0.0684   -1.0  0.5823  122.0
 5.800  0.8194  106.5   2.212    4.4  0.0689   -1.5  0.5839  120.8
 5.900  0.8201  105.6   2.162    3.1  0.0695   -2.0  0.5857  119.5
 6.000  0.8211  104.6   2.114    1.7  0.0700   -2.4  0.5878  118.3
 6.100  0.8230  103.7   2.075    0.5  0.0706   -3.0  0.5904  117.3
 6.200  0.8250  102.8   2.037   -0.7  0.0713   -3.6  0.5931  116.3
 6.300  0.8273  101.9   2.000   -2.0  0.0720   -4.2  0.5961  115.3
 6.400  0.8298  101.1   1.964   -3.3  0.0726   -4.8  0.5992  114.3
 6.500  0.8324  100.2   1.929   -4.7  0.0733   -5.4  0.6025  113.3
 6.600  0.8346   99.2   1.895   -6.1  0.0740   -6.2  0.6057  112.5
 6.800  0.8397   97.1   1.830   -8.9  0.0753   -7.7  0.6124  110.8
 7.000  0.8459   95.1   1.770  -12.0  0.0767   -9.1  0.6196  109.2
 7.200  0.8497   92.7   1.701  -15.0  0.0776  -11.0  0.6276  107.2
 7.400  0.8549   90.4   1.638  -18.2  0.0785  -12.8  0.6363  105.2
 7.600  0.8589   87.9   1.572  -21.2  0.0792  -14.6  0.6454  102.9
 7.800  0.8620   85.4   1.504  -24.0  0.0795  -16.4  0.6551  100.4
 8.000  0.8668   82.9   1.439  -27.1  0.0800  -18.1  0.6661   97.9
 8.200  0.8689   80.5   1.375  -29.6  0.0799  -19.8  0.6733   95.3
 8.400  0.8726   78.1   1.313  -32.4  0.0799  -21.5  0.6818   92.7
 8.600  0.8757   75.7   1.255  -35.0  0.0797  -23.3  0.6884   90.0
 8.800  0.8782   73.3   1.198  -37.4  0.0792  -25.0  0.6932   87.3
 9.000  0.8823   70.9   1.144  -40.0  0.0789  -26.7  0.6995   84.6
 9.200  0.8867   68.9   1.089  -42.0  0.0780  -28.0  0.7070   82.3
 9.400  0.8921   67.0   1.036  -44.2  0.0772  -29.3  0.7156   80.1
 9.600  0.8987   65.4   0.990  -46.1  0.0765  -30.4  0.7282   78.2
 9.800  0.9059   64.3   0.950  -47.6  0.0758  -31.3  0.7445   76.8
10.000  0.9135   63.2   0.911  -49.3  0.0751  -32.2  0.7612   75.4
!
!  f       NFmin   Gammaopt  rn/50
! GHz       dB    MAG  ANG    -
 0.450      0.84  0.12 -165   0.43
 0.900      0.86  0.17 -162   0.16
 1.500      0.87  0.18 -161   0.13
 1.900      0.88  0.22 -155   0.08
 2.400      0.91  0.26 -148   0.08
 3.500      1.14  0.30 -134   0.08
!
! (c) 2016  Infineon Technologies AG, Munich
