! Infineon Technologies  Discrete & RF Semiconductors
! BFP842ESD
! VCE =  2.5 V,  IC =  30 mA
! Common Emitter S-Parameters:                            May 2012
# GHz  S  MA  R  50
!  f         S11            S21            S12            S22
! GHz     MAG   ANG      MAG   ANG      MAG   ANG      MAG   ANG
 0.030  0.6322   -3.2  53.960  175.1  0.0024   54.3  0.9413   -0.1
 0.040  0.6279   -3.9  53.780  173.5  0.0036  120.6  0.9422   -0.8
 0.050  0.6270   -5.6  53.380  171.7  0.0006  178.1  0.9416   -2.5
 0.060  0.6203   -7.9  54.139  170.2  0.0034   35.4  0.9517   -3.8
 0.070  0.6232   -7.9  53.413  168.9  0.0020   72.9  0.9444   -4.6
 0.080  0.6152   -9.2  53.346  167.1  0.0031   19.7  0.9388   -5.5
 0.090  0.6233  -10.1  52.507  166.0  0.0012  100.4  0.9470   -6.3
 0.100  0.6145  -11.6  52.613  164.5  0.0040   69.1  0.9403   -7.5
 0.110  0.6082  -13.1  52.690  162.7  0.0039   76.4  0.9371   -8.4
 0.120  0.6083  -14.3  52.153  161.4  0.0039   75.8  0.9340   -9.3
 0.130  0.6023  -15.1  51.439  159.9  0.0065   84.7  0.9272  -10.2
 0.140  0.5965  -16.1  51.218  158.6  0.0049   86.3  0.9224  -11.1
 0.150  0.5909  -17.2  51.005  157.1  0.0058   72.2  0.9187  -11.8
 0.200  0.5679  -21.9  48.639  150.5  0.0070   73.0  0.8892  -15.6
 0.250  0.5393  -26.3  46.301  144.2  0.0106   62.0  0.8548  -18.8
 0.300  0.5101  -30.2  43.475  138.6  0.0107   71.4  0.8225  -21.3
 0.350  0.4849  -33.4  41.005  133.7  0.0105   70.6  0.7927  -23.6
 0.400  0.4564  -35.9  38.457  129.1  0.0122   71.6  0.7595  -25.2
 0.450  0.4332  -38.2  36.167  125.1  0.0141   69.3  0.7337  -26.7
 0.500  0.4091  -40.3  34.064  121.6  0.0145   72.8  0.7073  -28.1
 0.600  0.3700  -43.2  30.249  115.3  0.0179   69.0  0.6670  -30.1
 0.700  0.3362  -45.2  27.118  110.0  0.0202   69.4  0.6326  -31.5
 0.800  0.3071  -47.0  24.469  105.3  0.0228   68.9  0.6045  -32.9
 0.900  0.2822  -48.0  22.267  101.4  0.0250   67.3  0.5815  -34.1
 1.000  0.2605  -49.0  20.422   97.7  0.0275   66.8  0.5633  -35.3
 1.100  0.2435  -49.5  18.826   94.5  0.0297   65.7  0.5479  -36.4
 1.200  0.2276  -50.3  17.408   91.4  0.0323   64.6  0.5352  -37.6
 1.300  0.2132  -50.6  16.215   88.7  0.0344   65.0  0.5228  -38.9
 1.400  0.2015  -50.7  15.182   86.0  0.0368   62.9  0.5144  -40.0
 1.500  0.1915  -50.5  14.236   83.4  0.0388   62.1  0.5056  -41.3
 1.600  0.1822  -51.1  13.396   81.0  0.0414   61.0  0.4986  -42.7
 1.700  0.1728  -51.0  12.670   78.8  0.0438   60.6  0.4901  -44.1
 1.800  0.1660  -51.1  12.031   76.6  0.0464   59.4  0.4851  -45.6
 1.900  0.1588  -51.3  11.426   74.3  0.0483   58.2  0.4794  -47.0
 2.000  0.1519  -51.1  10.848   72.2  0.0511   57.1  0.4725  -48.7
 2.100  0.1448  -51.2  10.373   70.2  0.0535   56.2  0.4671  -50.4
 2.200  0.1390  -51.2   9.936   68.2  0.0554   55.4  0.4630  -51.9
 2.300  0.1329  -51.0   9.513   66.2  0.0581   54.0  0.4589  -53.6
 2.400  0.1297  -51.3   9.109   64.3  0.0594   52.8  0.4538  -55.4
 2.500  0.1227  -50.9   8.762   62.3  0.0625   51.7  0.4478  -57.1
 2.600  0.1187  -50.2   8.448   60.5  0.0651   50.9  0.4451  -58.8
 2.700  0.1134  -49.8   8.135   58.6  0.0666   49.1  0.4396  -60.7
 2.800  0.1087  -49.9   7.853   56.8  0.0694   48.2  0.4347  -62.7
 2.900  0.1037  -49.6   7.587   54.8  0.0714   46.7  0.4304  -64.9
 3.000  0.0993  -49.5   7.341   53.1  0.0743   45.9  0.4252  -66.9
 3.100  0.0938  -48.6   7.115   51.2  0.0763   44.7  0.4202  -69.0
 3.200  0.0888  -48.8   6.888   49.5  0.0784   43.3  0.4150  -71.2
 3.300  0.0838  -48.0   6.678   47.6  0.0808   42.0  0.4110  -73.5
 3.400  0.0790  -47.2   6.488   45.9  0.0833   40.6  0.4060  -75.9
 3.500  0.0750  -45.9   6.300   44.0  0.0856   39.4  0.4020  -78.3
 3.600  0.0702  -44.3   6.122   42.2  0.0875   38.1  0.3973  -80.6
 3.700  0.0649  -42.9   5.961   40.4  0.0897   36.5  0.3941  -83.2
 3.800  0.0612  -41.3   5.797   38.5  0.0926   35.7  0.3899  -85.7
 3.900  0.0577  -39.1   5.639   36.8  0.0942   34.3  0.3863  -88.2
 4.000  0.0534  -36.9   5.486   34.9  0.0966   32.8  0.3821  -90.8
 4.100  0.0511  -34.4   5.347   33.1  0.0989   31.5  0.3799  -93.5
 4.200  0.0471  -32.4   5.207   31.3  0.1007   30.0  0.3769  -96.2
 4.300  0.0454  -30.5   5.079   29.5  0.1032   28.5  0.3751  -98.8
 4.400  0.0436  -28.3   4.949   27.7  0.1049   27.3  0.3725 -101.4
 4.500  0.0417  -26.3   4.832   25.8  0.1071   25.6  0.3723 -104.0
 4.600  0.0402  -24.9   4.715   24.1  0.1090   24.5  0.3707 -106.7
 4.700  0.0391  -23.9   4.600   22.3  0.1113   23.0  0.3697 -109.3
 4.800  0.0388  -23.9   4.488   20.5  0.1132   21.4  0.3691 -111.8
 4.900  0.0385  -23.4   4.377   18.7  0.1148   20.3  0.3683 -114.2
 5.000  0.0386  -23.2   4.275   16.9  0.1171   18.6  0.3686 -116.7
 5.100  0.0379  -23.7   4.175   15.1  0.1190   17.3  0.3679 -119.1
 5.200  0.0384  -27.3   4.077   13.4  0.1204   15.6  0.3695 -121.5
 5.300  0.0382  -29.0   3.985   11.6  0.1225   14.2  0.3696 -123.8
 5.400  0.0398  -32.1   3.897    9.8  0.1244   13.0  0.3705 -126.0
 5.500  0.0406  -33.3   3.807    8.0  0.1257   11.2  0.3702 -128.3
 5.600  0.0415  -38.3   3.722    6.2  0.1269    9.8  0.3719 -130.7
 5.700  0.0430  -40.8   3.638    4.5  0.1293    8.5  0.3724 -133.0
 5.800  0.0440  -47.0   3.554    2.7  0.1308    7.1  0.3755 -135.2
 5.900  0.0465  -49.5   3.478    0.9  0.1322    5.5  0.3761 -137.4
 6.000  0.0506  -54.0   3.401   -0.9  0.1336    4.2  0.3801 -139.8
 6.100  0.0514  -57.2   3.327   -2.7  0.1356    2.7  0.3821 -142.0
 6.200  0.0543  -61.7   3.256   -4.5  0.1369    1.2  0.3858 -144.6
 6.300  0.0571  -65.8   3.185   -6.2  0.1386   -0.4  0.3889 -146.7
 6.400  0.0620  -69.6   3.118   -8.1  0.1397   -1.7  0.3926 -149.0
 6.500  0.0654  -72.0   3.048  -10.0  0.1413   -3.3  0.3960 -151.6
 6.600  0.0694  -75.5   2.982  -11.8  0.1432   -5.0  0.3995 -153.8
 6.700  0.0739  -77.6   2.917  -13.6  0.1442   -6.4  0.4038 -156.3
 6.800  0.0786  -80.4   2.853  -15.5  0.1457   -8.2  0.4083 -158.6
 6.900  0.0825  -82.5   2.788  -17.3  0.1469   -9.6  0.4130 -160.9
 7.000  0.0870  -85.2   2.729  -19.2  0.1481  -11.2  0.4172 -163.3
 7.100  0.0921  -88.2   2.668  -21.1  0.1497  -12.9  0.4224 -165.6
 7.200  0.0966  -91.0   2.608  -22.9  0.1507  -14.6  0.4263 -168.2
 7.300  0.1020  -93.5   2.551  -24.8  0.1521  -16.3  0.4332 -170.4
 7.400  0.1078  -95.6   2.491  -26.6  0.1528  -17.9  0.4374 -172.9
 7.500  0.1115  -98.4   2.435  -28.6  0.1539  -19.6  0.4426 -175.4
 7.600  0.1169 -100.8   2.384  -30.5  0.1551  -21.4  0.4477 -178.0
 7.700  0.1209 -103.8   2.328  -32.4  0.1558  -23.2  0.4530  179.5
 7.800  0.1250 -106.7   2.274  -34.4  0.1567  -24.9  0.4574  177.0
 7.900  0.1297 -109.5   2.220  -36.4  0.1573  -26.8  0.4640  174.5
 8.000  0.1331 -112.4   2.166  -38.4  0.1581  -28.7  0.4677  172.2
 8.500  0.1561 -130.4   1.899  -49.0  0.1601  -38.4  0.4966  159.2
 9.000  0.1948 -152.5   1.624  -60.1  0.1582  -49.0  0.5359  146.0
 9.500  0.2708 -174.0   1.331  -71.3  0.1516  -60.3  0.5910  134.3
10.000  0.3874  169.4   1.032  -81.5  0.1387  -71.5  0.6562  125.3
!
!  f       NFmin   Gammaopt  rn/50
! GHz       dB    MAG  ANG    -
!
! noise parameter not available yet for this operation point!
!
! (c) 2012  Infineon Technologies AG, Munich
