! Infineon Technologies  Discrete & RF Semiconductors
! BFP843
! VCE =  1.0 V,  IC =  37 mA
! Common Emitter S-Parameters:                            Aug 2013
# GHz  S  MA  R  50
!  f         S11            S21            S12            S22
! GHz     MAG   ANG      MAG   ANG      MAG   ANG      MAG   ANG
 0.030  0.3104 -110.8  25.478  157.6  0.0271   29.0  0.2854  -91.7
 0.040  0.2824 -125.4  23.501  159.2  0.0293   21.6  0.2366 -105.7
 0.050  0.2696 -134.1  22.441  161.9  0.0317   15.6  0.2043 -116.8
 0.060  0.2589 -141.9  21.821  162.4  0.0301   20.4  0.1865 -124.2
 0.070  0.2485 -148.8  21.185  163.6  0.0300   10.4  0.1661 -132.4
 0.080  0.2450 -151.3  21.045  164.0  0.0307   18.7  0.1645 -138.0
 0.090  0.2411 -155.2  20.782  164.2  0.0313   12.1  0.1504 -142.4
 0.100  0.2327 -157.8  20.585  164.5  0.0311   12.9  0.1416 -148.7
 0.110  0.2388 -159.5  20.405  164.4  0.0316   14.0  0.1366 -152.3
 0.120  0.2309 -161.8  20.295  164.4  0.0337    7.3  0.1286 -155.3
 0.130  0.2288 -162.8  20.242  164.4  0.0328    9.5  0.1275 -159.8
 0.140  0.2335 -165.5  20.160  164.0  0.0319    7.7  0.1204 -162.5
 0.150  0.2247 -165.2  20.041  163.7  0.0301   12.7  0.1184 -165.5
 0.200  0.2160 -168.8  19.568  162.2  0.0329   10.8  0.1059 -173.7
 0.250  0.2114 -169.3  19.293  160.0  0.0340    8.8  0.0967 -178.0
 0.300  0.2070 -168.7  18.957  158.1  0.0331    7.6  0.0899  178.2
 0.350  0.2113 -168.1  18.658  155.7  0.0343    7.7  0.0847  175.0
 0.400  0.2153 -167.1  18.402  153.6  0.0346    6.7  0.0826  175.4
 0.450  0.2208 -166.2  18.166  151.5  0.0350    6.3  0.0803  175.2
 0.500  0.2272 -165.3  17.902  149.1  0.0343    6.0  0.0778  176.3
 0.600  0.2404 -164.6  17.412  144.6  0.0346    5.4  0.0764  176.2
 0.700  0.2559 -164.8  16.870  140.0  0.0353    7.3  0.0749  177.4
 0.800  0.2714 -165.2  16.406  135.8  0.0355    5.9  0.0756 -179.9
 0.900  0.2876 -166.1  15.832  131.4  0.0351    5.8  0.0781 -178.5
 1.000  0.3023 -167.5  15.333  127.3  0.0355    6.5  0.0804 -177.0
 1.100  0.3155 -169.3  14.865  123.5  0.0353    6.3  0.0841 -175.6
 1.200  0.3308 -170.9  14.316  119.6  0.0351    6.7  0.0879 -174.3
 1.300  0.3432 -173.1  13.844  115.9  0.0361    7.0  0.0907 -173.4
 1.400  0.3590 -174.6  13.308  112.2  0.0357    7.8  0.0935 -173.0
 1.500  0.3695 -176.6  12.869  109.0  0.0360    7.2  0.0989 -173.0
 1.600  0.3788 -178.8  12.478  105.7  0.0356    9.1  0.1035 -172.2
 1.700  0.3934  179.4  11.962  102.2  0.0362    8.4  0.1083 -173.1
 1.800  0.4008  177.4  11.593   99.3  0.0363    8.0  0.1131 -172.7
 1.900  0.4105  175.3  11.188   96.3  0.0365    9.3  0.1194 -174.1
 2.000  0.4176  173.5  10.868   93.4  0.0364    9.2  0.1235 -174.3
 2.100  0.4280  171.5  10.464   90.5  0.0362    9.8  0.1288 -175.2
 2.200  0.4366  169.9  10.106   87.8  0.0376    9.6  0.1348 -175.1
 2.300  0.4452  167.9   9.789   85.0  0.0373   10.9  0.1388 -176.5
 2.400  0.4513  166.1   9.478   82.5  0.0377   11.5  0.1445 -177.1
 2.500  0.4577  164.1   9.220   80.0  0.0378   12.0  0.1505 -178.8
 2.600  0.4640  162.4   8.913   77.4  0.0382   11.9  0.1552 -179.7
 2.700  0.4706  160.6   8.643   75.0  0.0382   11.8  0.1609  179.0
 2.800  0.4803  158.8   8.321   72.4  0.0390   12.6  0.1664  178.2
 2.900  0.4845  157.1   8.122   70.1  0.0392   13.3  0.1731  176.6
 3.000  0.4916  155.3   7.862   67.7  0.0395   13.9  0.1794  175.0
 3.100  0.4977  153.7   7.667   65.5  0.0399   14.3  0.1869  173.7
 3.200  0.5051  151.9   7.406   63.1  0.0399   15.1  0.1929  172.4
 3.300  0.5109  150.2   7.224   61.0  0.0401   14.6  0.2010  171.0
 3.400  0.5166  148.7   7.021   58.9  0.0413   14.7  0.2092  169.9
 3.500  0.5207  147.0   6.854   56.8  0.0417   15.6  0.2156  168.6
 3.600  0.5282  145.4   6.645   54.6  0.0421   14.6  0.2237  167.4
 3.700  0.5352  143.7   6.460   52.5  0.0424   15.6  0.2317  166.1
 3.800  0.5429  142.1   6.280   50.4  0.0429   15.6  0.2388  165.0
 3.900  0.5452  140.6   6.151   48.5  0.0438   16.3  0.2470  163.5
 4.000  0.5529  139.1   5.970   46.4  0.0446   16.3  0.2550  162.5
 4.100  0.5582  137.7   5.819   44.5  0.0447   17.1  0.2641  161.3
 4.200  0.5671  136.2   5.629   42.4  0.0455   16.8  0.2709  160.4
 4.300  0.5720  134.8   5.513   40.6  0.0462   16.6  0.2793  159.4
 4.400  0.5792  133.5   5.358   38.7  0.0467   16.4  0.2862  158.3
 4.500  0.5812  132.4   5.269   37.1  0.0467   17.3  0.2949  157.4
 4.600  0.5888  131.1   5.123   35.2  0.0477   16.9  0.3028  156.6
 4.700  0.5967  129.8   4.966   33.1  0.0490   16.7  0.3090  155.4
 4.800  0.6009  128.8   4.875   31.4  0.0487   16.9  0.3170  154.6
 4.900  0.6029  127.7   4.777   29.8  0.0493   17.2  0.3235  153.5
 5.000  0.6096  126.6   4.654   28.0  0.0504   17.1  0.3304  152.6
 5.100  0.6153  125.6   4.537   26.2  0.0515   17.0  0.3370  151.4
 5.200  0.6205  124.7   4.433   24.5  0.0518   16.7  0.3433  150.7
 5.300  0.6247  123.7   4.341   22.8  0.0524   16.7  0.3497  149.5
 5.400  0.6273  122.8   4.263   21.2  0.0539   16.9  0.3552  148.6
 5.500  0.6319  121.9   4.168   19.5  0.0545   16.2  0.3621  147.4
 5.600  0.6359  121.1   4.085   17.9  0.0552   16.4  0.3671  146.5
 5.700  0.6381  120.1   3.969   16.1  0.0559   16.2  0.3729  145.3
 5.800  0.6419  119.3   3.900   14.6  0.0568   16.4  0.3784  144.4
 5.900  0.6434  118.5   3.825   13.0  0.0579   16.5  0.3849  143.2
 6.000  0.6458  117.6   3.773   11.6  0.0591   15.6  0.3912  142.3
 6.100  0.6527  116.7   3.658    9.6  0.0600   15.6  0.3967  141.1
 6.200  0.6540  115.8   3.614    8.1  0.0607   14.6  0.4029  140.0
 6.300  0.6585  114.9   3.533    6.5  0.0618   14.8  0.4088  138.8
 6.400  0.6583  114.0   3.506    5.0  0.0628   14.2  0.4161  137.8
 6.500  0.6635  113.0   3.420    3.4  0.0642   13.6  0.4218  136.7
 6.600  0.6683  111.7   3.332    1.6  0.0644   13.0  0.4273  135.7
 6.700  0.6711  110.9   3.293    0.2  0.0656   12.5  0.4343  134.5
 6.800  0.6734  109.6   3.233   -1.6  0.0666   11.4  0.4391  133.4
 6.900  0.6753  108.7   3.191   -3.0  0.0677   11.3  0.4461  132.2
 7.000  0.6789  107.2   3.120   -4.8  0.0691   10.7  0.4531  131.1
 7.100  0.6839  106.0   3.066   -6.4  0.0697   10.0  0.4608  129.9
 7.200  0.6868  104.8   3.002   -8.0  0.0709    9.6  0.4666  128.8
 7.300  0.6916  103.5   2.961   -9.8  0.0720    8.7  0.4735  127.6
 7.400  0.6950  102.3   2.917  -11.3  0.0727    8.1  0.4790  126.5
 7.500  0.6987  101.0   2.870  -13.0  0.0735    7.3  0.4864  125.2
 7.600  0.7042   99.7   2.818  -14.7  0.0744    6.7  0.4935  123.9
 7.700  0.7110   98.3   2.761  -16.6  0.0750    5.5  0.5013  122.5
 7.800  0.7161   97.1   2.706  -18.3  0.0761    4.6  0.5086  121.1
 7.900  0.7211   95.8   2.683  -19.9  0.0769    3.9  0.5160  119.7
 8.000  0.7275   94.5   2.620  -21.8  0.0777    2.6  0.5238  118.3
 8.500  0.7605   87.8   2.355  -30.7  0.0801   -2.1  0.5659  110.6
 9.000  0.7884   78.8   2.075  -38.8  0.0815   -6.7  0.6123  102.8
 9.500  0.8072   73.5   1.807  -45.0  0.0816   -9.7  0.6563   96.3
10.000  0.8255   70.4   1.629  -49.4  0.0811  -11.9  0.6935   91.9
10.500  0.8513   67.3   1.479  -54.3  0.0822  -13.9  0.7239   89.8
11.000  0.8582   64.7   1.364  -59.1  0.0837  -15.5  0.7532   88.9
11.500  0.8583   62.9   1.265  -63.5  0.0876  -17.8  0.7687   87.6
12.000  0.8536   61.6   1.190  -68.0  0.0910  -20.6  0.7777   85.2
!
!  f       NFmin   Gammaopt  rn/50
! GHz       dB    MAG  ANG    -
!
! noise parameter not available yet for this operation point!
!
! (c) 2013  Infineon Technologies AG, Munich
