! Infineon Technologies  Discrete & RF Semiconductors
! BFP843F
! VCE =  2.0 V,  IC =  20 mA
! Common Emitter S-Parameters:                            Aug 2013
# GHz  S  MA  R  50
!  f         S11            S21            S12            S22
! GHz     MAG   ANG      MAG   ANG      MAG   ANG      MAG   ANG
 0.030  0.3196  -88.1  25.454  157.3  0.0346   29.1  0.3672  -69.4
 0.040  0.2636 -101.2  23.430  159.3  0.0385   20.1  0.2862  -76.7
 0.050  0.2237 -109.1  22.165  162.5  0.0380   17.5  0.2273  -81.7
 0.060  0.2042 -118.6  21.618  163.9  0.0408   17.6  0.1998  -85.6
 0.070  0.1805 -125.5  21.108  165.0  0.0369   13.4  0.1623  -87.7
 0.080  0.1695 -130.1  20.896  165.7  0.0387   14.5  0.1454  -91.4
 0.090  0.1624 -135.0  20.685  166.0  0.0409    8.8  0.1271  -92.5
 0.100  0.1527 -138.5  20.441  166.5  0.0384   10.4  0.1073  -94.9
 0.110  0.1508 -142.3  20.346  166.9  0.0403    9.5  0.0997  -95.0
 0.120  0.1437 -146.3  20.238  167.0  0.0397    8.7  0.0889  -95.5
 0.130  0.1366 -147.2  20.115  167.2  0.0395    8.9  0.0820  -96.6
 0.140  0.1391 -151.8  20.045  167.1  0.0412    7.5  0.0724  -95.1
 0.150  0.1342 -151.2  19.987  167.2  0.0418    8.2  0.0675  -97.3
 0.200  0.1217 -160.3  19.623  166.5  0.0401    5.6  0.0477  -93.2
 0.250  0.1113 -164.0  19.422  165.5  0.0417    5.2  0.0390  -84.7
 0.300  0.1073 -165.2  19.236  164.4  0.0424    4.8  0.0343  -83.4
 0.350  0.1051 -165.3  19.005  163.1  0.0412    4.6  0.0319  -75.8
 0.400  0.1045 -165.3  18.855  161.8  0.0413    4.1  0.0329  -77.0
 0.450  0.1032 -163.9  18.680  160.5  0.0423    4.1  0.0369  -74.3
 0.500  0.1035 -161.9  18.543  159.1  0.0419    4.4  0.0387  -72.4
 0.600  0.1076 -160.0  18.279  156.2  0.0425    3.1  0.0432  -80.9
 0.700  0.1133 -157.7  17.988  153.3  0.0435    3.0  0.0492  -83.6
 0.800  0.1227 -156.3  17.731  150.5  0.0427    2.1  0.0552  -91.4
 0.900  0.1285 -155.7  17.448  147.4  0.0436    1.6  0.0617  -96.7
 1.000  0.1390 -155.8  17.175  144.6  0.0424    2.0  0.0695 -103.3
 1.100  0.1474 -155.9  16.891  141.8  0.0431    2.6  0.0755 -108.9
 1.200  0.1570 -156.1  16.603  139.0  0.0430    1.0  0.0838 -112.5
 1.300  0.1652 -157.7  16.284  136.1  0.0427    1.4  0.0923 -116.7
 1.400  0.1728 -157.6  15.949  133.4  0.0428    0.8  0.1006 -119.8
 1.500  0.1824 -158.6  15.653  130.9  0.0430    1.1  0.1090 -123.0
 1.600  0.1909 -160.1  15.372  128.1  0.0430    0.9  0.1191 -126.0
 1.700  0.1982 -160.6  15.035  125.5  0.0424    1.2  0.1259 -128.4
 1.800  0.2076 -161.8  14.705  123.0  0.0421    1.0  0.1345 -130.8
 1.900  0.2133 -162.9  14.383  120.7  0.0420    1.3  0.1426 -133.8
 2.000  0.2230 -164.1  14.151  118.1  0.0425    1.0  0.1523 -135.1
 2.100  0.2289 -164.9  13.807  115.7  0.0424   -0.1  0.1617 -136.9
 2.200  0.2357 -166.1  13.483  113.5  0.0414    0.7  0.1719 -138.4
 2.300  0.2418 -167.0  13.199  111.3  0.0420    0.3  0.1782 -139.8
 2.400  0.2475 -168.1  12.927  109.1  0.0416    1.0  0.1878 -141.1
 2.500  0.2525 -169.3  12.622  106.9  0.0413    1.0  0.1937 -142.4
 2.600  0.2566 -170.1  12.347  104.9  0.0417    0.3  0.2023 -142.7
 2.700  0.2626 -171.0  12.062  102.9  0.0419    1.2  0.2085 -144.1
 2.800  0.2666 -171.6  11.802  101.0  0.0413    2.1  0.2160 -144.2
 2.900  0.2723 -172.6  11.569   99.0  0.0405    0.8  0.2231 -145.3
 3.000  0.2759 -173.3  11.309   97.1  0.0410    1.5  0.2300 -146.0
 3.100  0.2816 -174.5  11.090   95.1  0.0406    1.3  0.2362 -146.8
 3.200  0.2840 -175.4  10.835   93.3  0.0407    1.9  0.2430 -147.7
 3.300  0.2892 -176.3  10.613   91.6  0.0405    1.5  0.2486 -148.3
 3.400  0.2933 -177.3  10.397   89.8  0.0402    1.8  0.2550 -148.9
 3.500  0.2985 -178.2  10.201   88.0  0.0401    2.9  0.2585 -149.4
 3.600  0.3013 -179.0   9.990   86.3  0.0397    3.2  0.2638 -149.9
 3.700  0.3055 -179.9   9.788   84.6  0.0398    2.5  0.2675 -150.5
 3.800  0.3089  179.2   9.592   82.9  0.0395    3.0  0.2727 -151.2
 3.900  0.3135  178.2   9.411   81.3  0.0396    3.7  0.2746 -152.1
 4.000  0.3163  177.2   9.230   79.7  0.0394    3.5  0.2792 -152.6
 4.100  0.3226  176.3   9.066   78.1  0.0393    4.0  0.2823 -153.5
 4.200  0.3255  175.5   8.890   76.5  0.0396    4.8  0.2868 -154.1
 4.300  0.3301  174.5   8.724   74.9  0.0393    4.5  0.2893 -155.0
 4.400  0.3352  173.5   8.563   73.4  0.0395    5.8  0.2927 -155.8
 4.500  0.3392  172.6   8.418   71.9  0.0389    6.3  0.2954 -156.6
 4.600  0.3440  171.6   8.268   70.3  0.0391    6.1  0.2984 -157.5
 4.700  0.3481  170.9   8.133   68.8  0.0393    5.6  0.3016 -158.5
 4.800  0.3525  169.7   7.983   67.3  0.0391    8.0  0.3042 -159.3
 4.900  0.3564  168.9   7.855   65.9  0.0390    7.6  0.3061 -160.1
 5.000  0.3604  168.0   7.726   64.4  0.0392    7.5  0.3084 -161.1
 5.100  0.3644  167.0   7.592   62.9  0.0390    7.9  0.3108 -162.3
 5.200  0.3691  166.2   7.464   61.5  0.0388    8.9  0.3142 -163.2
 5.300  0.3735  165.1   7.339   60.0  0.0391    8.3  0.3159 -164.2
 5.400  0.3776  164.2   7.229   58.5  0.0390    9.6  0.3183 -165.2
 5.500  0.3813  163.2   7.110   57.1  0.0393   10.7  0.3210 -166.3
 5.600  0.3854  162.4   7.006   55.7  0.0391   10.1  0.3228 -167.1
 5.700  0.3880  161.4   6.877   54.2  0.0387   11.1  0.3256 -168.3
 5.800  0.3919  160.2   6.777   52.8  0.0393   11.8  0.3280 -169.3
 5.900  0.3954  159.5   6.668   51.5  0.0395   11.4  0.3299 -170.4
 6.000  0.3983  158.2   6.574   50.0  0.0392   13.2  0.3315 -171.3
 6.100  0.4014  157.3   6.464   48.5  0.0391   13.0  0.3323 -172.8
 6.200  0.4040  155.9   6.358   47.1  0.0392   13.8  0.3340 -173.9
 6.300  0.4070  155.0   6.259   45.7  0.0390   13.7  0.3345 -175.1
 6.400  0.4100  153.7   6.158   44.2  0.0394   14.6  0.3364 -176.4
 6.500  0.4123  152.5   6.064   42.9  0.0395   14.3  0.3365 -177.5
 6.600  0.4135  151.4   5.958   41.5  0.0399   15.8  0.3381 -178.8
 6.700  0.4163  150.0   5.862   40.2  0.0397   17.0  0.3371 -179.6
 6.800  0.4178  149.0   5.768   38.8  0.0401   17.6  0.3367  179.1
 6.900  0.4205  147.6   5.677   37.4  0.0402   17.8  0.3366  178.0
 7.000  0.4220  146.5   5.586   36.1  0.0408   19.8  0.3357  176.6
 7.100  0.4250  145.2   5.493   34.8  0.0409   20.1  0.3371  175.4
 7.200  0.4273  144.4   5.406   33.6  0.0419   21.1  0.3371  174.2
 7.300  0.4307  143.1   5.324   32.3  0.0425   21.9  0.3388  172.9
 7.400  0.4340  142.1   5.242   31.0  0.0432   22.2  0.3403  171.7
 7.500  0.4398  141.0   5.168   29.7  0.0439   23.0  0.3439  170.2
 7.600  0.4441  140.2   5.094   28.6  0.0445   24.0  0.3453  168.9
 7.700  0.4509  139.1   5.024   27.2  0.0462   23.6  0.3496  167.1
 7.800  0.4567  138.3   4.952   25.9  0.0465   23.2  0.3531  165.5
 7.900  0.4640  137.2   4.883   24.6  0.0469   24.1  0.3586  163.5
 8.000  0.4712  136.6   4.819   23.4  0.0479   23.4  0.3638  161.8
 8.500  0.5137  132.4   4.485   16.6  0.0511   22.4  0.3987  151.8
 9.000  0.5575  128.8   4.142    9.8  0.0535   21.1  0.4450  141.9
 9.500  0.5964  124.0   3.781    3.3  0.0558   20.0  0.5001  133.6
10.000  0.6223  120.3   3.406   -2.7  0.0574   19.1  0.5575  126.9
10.500  0.6472  116.9   3.098   -7.6  0.0587   18.4  0.6130  122.3
11.000  0.6724  112.8   2.833  -12.3  0.0594   17.9  0.6625  120.2
11.500  0.6911  109.3   2.592  -16.3  0.0599   18.3  0.6967  120.9
12.000  0.7011  106.8   2.361  -19.3  0.0613   19.6  0.7300  124.4
!
!  f       NFmin   Gammaopt  rn/50
! GHz       dB    MAG  ANG    -
 0.450      0.91  0.05  178   0.09
 0.900      0.91  0.06  172   0.09
 1.500      0.94  0.08  171   0.09
 1.900      0.99  0.08  172   0.10
 2.400      1.03  0.10  173   0.10
 3.500      1.07  0.13 -176   0.16
 5.500      1.18  0.21 -147   0.23
10.000      1.69  0.38 -105   0.33
!
! (c) 2013  Infineon Technologies AG, Munich
