! Infineon Technologies  Discrete & RF Semiconductors
! BFP842ESD
! VCE =  1.0 V,  IC =  5.0 mA
! Common Emitter S-Parameters:                            May 2012
# GHz  S  MA  R  50
!  f         S11            S21            S12            S22
! GHz     MAG   ANG      MAG   ANG      MAG   ANG      MAG   ANG
 0.030  0.9392   -1.5  15.615  178.2  0.0015   59.4  0.9955   -1.1
 0.040  0.9390   -2.0  15.594  177.4  0.0014   75.4  0.9961   -1.4
 0.050  0.9412   -2.8  15.511  176.5  0.0050   76.9  0.9981   -1.9
 0.060  0.9357   -3.3  15.762  176.0  0.0053   34.0  0.9982   -2.8
 0.070  0.9394   -3.2  15.611  175.6  0.0046  113.1  0.9972   -2.9
 0.080  0.9361   -4.3  15.645  174.8  0.0059   74.9  0.9941   -3.1
 0.090  0.9347   -4.7  15.448  174.6  0.0062   75.7  0.9935   -3.8
 0.100  0.9352   -5.1  15.592  173.9  0.0039   92.3  0.9953   -4.2
 0.110  0.9348   -5.9  15.725  173.0  0.0051   98.0  0.9951   -4.6
 0.120  0.9354   -6.3  15.638  172.7  0.0043   65.4  0.9973   -5.1
 0.130  0.9355   -6.7  15.511  171.9  0.0063   97.0  0.9935   -5.4
 0.140  0.9312   -7.2  15.556  171.5  0.0053   89.6  0.9928   -5.9
 0.150  0.9307   -7.8  15.617  170.8  0.0053   81.1  0.9916   -6.3
 0.200  0.9257  -10.1  15.493  168.0  0.0100   81.8  0.9881   -8.5
 0.250  0.9190  -12.8  15.464  164.8  0.0100   86.3  0.9822  -10.5
 0.300  0.9105  -15.4  15.254  161.8  0.0138   81.8  0.9775  -12.6
 0.350  0.9040  -17.7  15.159  158.9  0.0155   76.6  0.9707  -14.7
 0.400  0.8929  -20.3  14.964  156.0  0.0171   71.6  0.9616  -16.6
 0.450  0.8806  -22.6  14.780  153.1  0.0196   74.7  0.9512  -18.6
 0.500  0.8690  -24.9  14.630  150.4  0.0218   73.9  0.9416  -20.5
 0.600  0.8424  -29.3  14.145  145.0  0.0251   70.2  0.9189  -24.2
 0.700  0.8146  -33.5  13.713  140.0  0.0288   64.9  0.8972  -27.7
 0.800  0.7827  -37.7  13.237  134.8  0.0315   63.6  0.8731  -31.0
 0.900  0.7520  -41.5  12.757  130.2  0.0351   60.8  0.8480  -34.2
 1.000  0.7219  -45.2  12.287  125.7  0.0376   58.6  0.8245  -37.2
 1.100  0.6909  -48.6  11.810  121.4  0.0402   57.1  0.8008  -40.1
 1.200  0.6612  -52.0  11.336  117.3  0.0430   54.5  0.7783  -42.8
 1.300  0.6325  -55.1  10.901  113.6  0.0452   52.3  0.7560  -45.4
 1.400  0.6055  -57.9  10.476  109.8  0.0471   50.8  0.7355  -47.8
 1.500  0.5793  -60.7  10.059  106.2  0.0495   49.4  0.7157  -50.2
 1.600  0.5545  -63.4   9.671  102.8  0.0507   47.9  0.6987  -52.6
 1.700  0.5296  -66.1   9.314   99.6  0.0527   46.3  0.6783  -54.8
 1.800  0.5090  -68.6   8.986   96.5  0.0552   45.0  0.6633  -56.9
 1.900  0.4867  -71.0   8.656   93.4  0.0571   43.6  0.6483  -59.1
 2.000  0.4668  -73.4   8.324   90.4  0.0585   42.0  0.6331  -61.3
 2.100  0.4461  -75.6   8.044   87.5  0.0609   41.5  0.6193  -63.6
 2.200  0.4280  -78.0   7.782   84.7  0.0616   40.2  0.6065  -65.6
 2.300  0.4092  -80.2   7.514   82.0  0.0643   39.1  0.5947  -67.6
 2.400  0.3935  -82.2   7.253   79.4  0.0654   37.8  0.5812  -69.7
 2.500  0.3759  -84.3   7.023   76.8  0.0670   36.6  0.5695  -71.8
 2.600  0.3609  -86.2   6.817   74.3  0.0686   35.4  0.5601  -73.8
 2.700  0.3443  -88.3   6.599   71.7  0.0699   34.9  0.5485  -76.0
 2.800  0.3296  -90.4   6.406   69.3  0.0714   33.8  0.5376  -78.1
 2.900  0.3157  -92.5   6.213   66.8  0.0727   32.5  0.5288  -80.4
 3.000  0.3021  -94.6   6.036   64.5  0.0747   31.8  0.5189  -82.5
 3.100  0.2891  -96.7   5.874   62.1  0.0768   30.2  0.5101  -84.9
 3.200  0.2763  -99.1   5.703   59.8  0.0783   29.8  0.5011  -87.3
 3.300  0.2643 -101.3   5.545   57.5  0.0794   28.3  0.4932  -89.6
 3.400  0.2523 -103.8   5.397   55.2  0.0814   27.8  0.4847  -92.0
 3.500  0.2406 -105.8   5.253   52.9  0.0831   26.5  0.4778  -94.5
 3.600  0.2289 -108.2   5.113   50.7  0.0844   25.5  0.4705  -96.9
 3.700  0.2188 -110.6   4.986   48.4  0.0867   24.3  0.4653  -99.4
 3.800  0.2089 -113.3   4.854   46.2  0.0877   23.4  0.4588 -102.0
 3.900  0.1995 -115.6   4.726   44.0  0.0888   22.4  0.4530 -104.4
 4.000  0.1896 -118.3   4.601   41.8  0.0907   21.3  0.4474 -107.0
 4.100  0.1818 -121.1   4.485   39.7  0.0919   20.1  0.4436 -109.6
 4.200  0.1752 -124.0   4.372   37.5  0.0933   19.4  0.4395 -112.4
 4.300  0.1686 -126.7   4.262   35.4  0.0950   17.9  0.4365 -114.8
 4.400  0.1616 -129.3   4.154   33.3  0.0961   17.1  0.4325 -117.3
 4.500  0.1551 -132.0   4.053   31.1  0.0977   15.5  0.4307 -119.9
 4.600  0.1502 -134.7   3.956   29.1  0.0986   14.8  0.4286 -122.5
 4.700  0.1455 -137.0   3.859   27.0  0.1000   13.4  0.4263 -124.9
 4.800  0.1422 -139.4   3.763   25.0  0.1012   12.5  0.4246 -127.3
 4.900  0.1376 -141.9   3.669   23.0  0.1025   11.3  0.4230 -129.7
 5.000  0.1339 -143.9   3.581   20.9  0.1036   10.1  0.4220 -132.1
 5.100  0.1308 -146.0   3.495   19.0  0.1050    9.0  0.4208 -134.3
 5.200  0.1287 -147.9   3.412   17.1  0.1062    8.0  0.4207 -136.6
 5.300  0.1261 -149.6   3.333   15.0  0.1069    6.8  0.4198 -138.9
 5.400  0.1241 -150.9   3.257   13.1  0.1086    5.6  0.4195 -141.1
 5.500  0.1205 -152.7   3.180   11.2  0.1098    4.6  0.4188 -143.2
 5.600  0.1197 -153.5   3.108    9.2  0.1111    3.4  0.4190 -145.5
 5.700  0.1183 -154.6   3.036    7.3  0.1118    2.2  0.4191 -147.6
 5.800  0.1184 -155.8   2.965    5.4  0.1131    1.0  0.4203 -149.8
 5.900  0.1165 -156.2   2.901    3.5  0.1145    0.0  0.4202 -152.0
 6.000  0.1165 -156.2   2.835    1.6  0.1157   -1.3  0.4233 -154.2
 6.100  0.1150 -157.4   2.774   -0.3  0.1167   -2.3  0.4242 -156.3
 6.200  0.1150 -157.6   2.712   -2.3  0.1178   -3.6  0.4270 -158.8
 6.300  0.1157 -158.3   2.653   -4.1  0.1196   -4.7  0.4296 -160.8
 6.400  0.1161 -157.6   2.598   -6.0  0.1206   -5.8  0.4319 -163.0
 6.500  0.1152 -157.8   2.538   -8.1  0.1217   -7.1  0.4342 -165.4
 6.600  0.1161 -157.6   2.483   -9.9  0.1225   -8.3  0.4376 -167.5
 6.700  0.1155 -157.4   2.430  -11.9  0.1239   -9.5  0.4407 -169.8
 6.800  0.1162 -157.4   2.375  -13.8  0.1244  -10.8  0.4439 -172.0
 6.900  0.1156 -157.1   2.322  -15.7  0.1257  -12.1  0.4480 -174.1
 7.000  0.1169 -156.9   2.272  -17.7  0.1268  -13.6  0.4511 -176.3
 7.100  0.1183 -156.6   2.222  -19.6  0.1279  -15.0  0.4551 -178.6
 7.200  0.1194 -157.0   2.173  -21.5  0.1291  -16.4  0.4581  179.1
 7.300  0.1215 -156.3   2.126  -23.5  0.1300  -17.6  0.4637  177.2
 7.400  0.1225 -156.3   2.075  -25.4  0.1308  -19.3  0.4668  175.0
 7.500  0.1246 -156.6   2.030  -27.4  0.1316  -20.4  0.4713  172.9
 7.600  0.1267 -156.7   1.988  -29.5  0.1329  -22.0  0.4754  170.7
 7.700  0.1283 -157.2   1.942  -31.4  0.1335  -23.4  0.4796  168.4
 7.800  0.1312 -158.0   1.897  -33.5  0.1340  -24.8  0.4833  166.2
 7.900  0.1333 -159.1   1.852  -35.5  0.1344  -26.6  0.4893  163.8
 8.000  0.1361 -160.0   1.807  -37.6  0.1356  -28.2  0.4920  161.6
 8.500  0.1567 -168.3   1.583  -48.4  0.1369  -36.9  0.5179  149.6
 9.000  0.1980  179.6   1.353  -59.5  0.1360  -46.0  0.5543  137.4
 9.500  0.2726  168.5   1.112  -70.5  0.1312  -55.9  0.6036  126.7
10.000  0.3835  158.9   0.870  -80.3  0.1211  -65.4  0.6601  118.9
!
!  f       NFmin   Gammaopt  rn/50
! GHz       dB    MAG  ANG    -
 0.450      0.41  0.38    3   0.11
 0.900      0.43  0.40    8   0.11
 1.500      0.46  0.41   19   0.11
 1.900      0.48  0.39   29   0.11
 2.400      0.52  0.36   42   0.10
 3.500      0.63  0.26   79   0.08
 4.000      0.66  0.22  100   0.08
 5.000      0.72  0.20  119   0.07
 5.500      0.84  0.18  145   0.07
 6.000      0.97  0.16  155   0.08
!
! (c) 2012  Infineon Technologies AG, Munich
