! Infineon Technologies  Discrete & RF Semiconductors
! BFP843
! VCE =  2.0 V,  IC =  22 mA
! Common Emitter S-Parameters:                            Aug 2013
# GHz  S  MA  R  50
!  f         S11            S21            S12            S22
! GHz     MAG   ANG      MAG   ANG      MAG   ANG      MAG   ANG
 0.030  0.3041  -90.2  25.785  156.7  0.0323   27.7  0.3510  -70.0
 0.040  0.2474 -102.4  23.656  158.8  0.0368   22.1  0.2717  -76.0
 0.050  0.2091 -111.1  22.549  161.8  0.0374   21.3  0.2200  -79.5
 0.060  0.1894 -122.3  21.858  162.6  0.0377    6.4  0.1793  -86.1
 0.070  0.1667 -127.9  21.221  164.1  0.0389   12.2  0.1523  -85.4
 0.080  0.1540 -132.3  21.005  164.7  0.0368   14.4  0.1351  -88.7
 0.090  0.1444 -137.7  20.789  165.1  0.0398   11.3  0.1153  -89.7
 0.100  0.1357 -143.6  20.554  165.6  0.0407   12.9  0.0941  -92.8
 0.110  0.1355 -145.2  20.469  165.8  0.0384    8.6  0.0872  -90.1
 0.120  0.1265 -149.3  20.296  165.9  0.0401    7.4  0.0770  -88.7
 0.130  0.1204 -151.3  20.264  166.1  0.0390    8.3  0.0697  -91.8
 0.140  0.1204 -156.3  20.125  165.8  0.0384    9.0  0.0605  -88.4
 0.150  0.1149 -155.2  20.053  165.8  0.0393    9.5  0.0568  -87.7
 0.200  0.1010 -165.8  19.614  165.1  0.0397    8.6  0.0389  -80.6
 0.250  0.0916 -170.9  19.444  163.7  0.0381    5.4  0.0327  -63.0
 0.300  0.0845 -171.2  19.134  162.5  0.0404    5.7  0.0303  -53.8
 0.350  0.0830 -172.1  18.907  160.9  0.0412    3.7  0.0301  -47.7
 0.400  0.0829 -170.9  18.723  159.4  0.0417    4.0  0.0313  -48.6
 0.450  0.0811 -170.6  18.606  157.9  0.0412    3.3  0.0336  -47.9
 0.500  0.0825 -169.0  18.475  156.2  0.0419    2.9  0.0368  -50.2
 0.600  0.0851 -167.2  18.151  152.8  0.0416    3.0  0.0372  -55.5
 0.700  0.0886 -165.8  17.840  149.3  0.0419    2.0  0.0388  -61.4
 0.800  0.0941 -164.9  17.549  145.9  0.0415    3.0  0.0416  -68.6
 0.900  0.0989 -165.5  17.238  142.4  0.0416    2.0  0.0433  -76.9
 1.000  0.1063 -165.6  16.916  139.1  0.0421    2.3  0.0466  -85.5
 1.100  0.1121 -165.7  16.581  135.8  0.0418    0.3  0.0504  -92.0
 1.200  0.1192 -166.8  16.248  132.4  0.0416    0.8  0.0541  -98.5
 1.300  0.1259 -168.7  15.920  129.2  0.0421    0.6  0.0570 -104.3
 1.400  0.1328 -169.1  15.593  126.1  0.0416    1.3  0.0613 -108.8
 1.500  0.1406 -171.0  15.240  123.0  0.0418    0.6  0.0655 -114.4
 1.600  0.1472 -172.5  14.919  119.9  0.0418    0.9  0.0698 -118.7
 1.700  0.1542 -174.3  14.581  116.9  0.0414    1.1  0.0732 -123.8
 1.800  0.1614 -175.7  14.230  114.0  0.0416    0.1  0.0786 -127.8
 1.900  0.1672 -177.6  13.899  111.2  0.0418    0.4  0.0826 -132.5
 2.000  0.1752 -179.1  13.592  108.3  0.0412    1.3  0.0865 -136.3
 2.100  0.1818  179.1  13.265  105.6  0.0417    0.6  0.0920 -139.4
 2.200  0.1887  177.3  12.965  103.0  0.0411   -0.1  0.0964 -142.2
 2.300  0.1957  175.6  12.673  100.4  0.0410    0.2  0.1004 -146.1
 2.400  0.2004  174.2  12.376   97.8  0.0412    0.3  0.1053 -148.3
 2.500  0.2062  172.2  12.080   95.3  0.0413    0.3  0.1093 -152.0
 2.600  0.2119  170.3  11.817   92.8  0.0407    1.0  0.1135 -154.9
 2.700  0.2191  168.4  11.527   90.4  0.0406    2.8  0.1177 -158.4
 2.800  0.2247  166.5  11.271   88.0  0.0409    1.2  0.1214 -160.2
 2.900  0.2308  165.1  11.017   85.6  0.0405    0.9  0.1275 -163.6
 3.000  0.2371  163.0  10.765   83.3  0.0414    1.1  0.1320 -166.3
 3.100  0.2437  161.4  10.542   81.0  0.0410    1.6  0.1377 -168.9
 3.200  0.2495  159.9  10.302   78.7  0.0415    2.5  0.1437 -171.5
 3.300  0.2561  157.8  10.073   76.5  0.0408    1.7  0.1499 -174.1
 3.400  0.2622  156.3   9.852   74.4  0.0412    3.2  0.1555 -176.3
 3.500  0.2679  154.4   9.642   72.2  0.0410    3.6  0.1615 -178.3
 3.600  0.2745  152.9   9.430   70.1  0.0412    2.6  0.1683  179.8
 3.700  0.2810  151.1   9.241   68.0  0.0411    3.4  0.1744  177.7
 3.800  0.2873  149.6   9.047   65.9  0.0414    3.9  0.1813  176.2
 3.900  0.2939  148.0   8.844   63.8  0.0411    4.1  0.1884  174.2
 4.000  0.3008  146.6   8.667   61.8  0.0412    4.6  0.1960  172.8
 4.100  0.3075  144.9   8.481   59.9  0.0417    4.3  0.2024  171.0
 4.200  0.3146  143.5   8.318   57.8  0.0419    4.9  0.2099  169.9
 4.300  0.3213  142.4   8.139   55.9  0.0423    4.9  0.2171  168.4
 4.400  0.3288  141.1   7.971   54.0  0.0420    5.3  0.2227  167.2
 4.500  0.3338  140.0   7.807   52.1  0.0427    5.7  0.2294  166.0
 4.600  0.3424  138.9   7.658   50.3  0.0423    7.0  0.2370  165.0
 4.700  0.3479  137.8   7.520   48.3  0.0432    6.7  0.2434  163.8
 4.800  0.3559  136.9   7.371   46.5  0.0431    7.2  0.2499  162.8
 4.900  0.3607  136.0   7.229   44.8  0.0433    8.0  0.2549  161.6
 5.000  0.3672  135.1   7.094   42.9  0.0438    7.7  0.2615  160.6
 5.100  0.3736  134.2   6.961   41.1  0.0440    8.0  0.2678  159.5
 5.200  0.3791  133.5   6.834   39.4  0.0441    8.8  0.2736  158.7
 5.300  0.3857  132.7   6.709   37.6  0.0449    8.8  0.2789  157.5
 5.400  0.3899  131.9   6.589   35.8  0.0450    9.6  0.2842  156.5
 5.500  0.3958  131.1   6.467   34.0  0.0455    9.5  0.2894  155.4
 5.600  0.4007  130.6   6.362   32.4  0.0462    9.7  0.2949  154.4
 5.700  0.4035  129.6   6.244   30.7  0.0462   10.0  0.2995  153.3
 5.800  0.4085  129.1   6.136   29.0  0.0475   10.0  0.3047  152.3
 5.900  0.4110  128.5   6.040   27.4  0.0478   10.8  0.3102  151.3
 6.000  0.4169  127.7   5.936   25.8  0.0484   10.1  0.3153  150.3
 6.100  0.4213  127.1   5.845   24.0  0.0493   10.6  0.3215  149.3
 6.200  0.4265  126.2   5.751   22.3  0.0499   11.1  0.3271  148.1
 6.300  0.4308  125.6   5.661   20.7  0.0508   10.7  0.3329  147.0
 6.400  0.4342  124.8   5.573   19.0  0.0518   11.0  0.3389  146.0
 6.500  0.4395  123.8   5.489   17.4  0.0526   10.6  0.3450  145.0
 6.600  0.4432  122.8   5.406   15.7  0.0532   10.5  0.3514  143.9
 6.700  0.4488  121.9   5.325   14.1  0.0545   11.0  0.3565  142.9
 6.800  0.4520  120.8   5.248   12.3  0.0546   10.8  0.3623  141.8
 6.900  0.4565  119.8   5.167   10.8  0.0559   10.7  0.3688  140.7
 7.000  0.4596  118.4   5.092    9.0  0.0566   10.3  0.3759  139.6
 7.100  0.4661  117.3   5.023    7.4  0.0572   10.1  0.3829  138.5
 7.200  0.4697  116.0   4.952    5.7  0.0585   10.1  0.3888  137.4
 7.300  0.4757  114.8   4.885    3.9  0.0597    9.8  0.3958  136.3
 7.400  0.4809  113.6   4.814    2.3  0.0605    9.5  0.4026  135.2
 7.500  0.4867  112.3   4.746    0.6  0.0615    9.0  0.4093  133.9
 7.600  0.4935  111.0   4.683   -1.2  0.0621    8.7  0.4169  132.6
 7.700  0.5018  109.6   4.618   -3.0  0.0630    7.9  0.4255  131.3
 7.800  0.5090  108.4   4.550   -4.8  0.0640    7.3  0.4325  130.0
 7.900  0.5169  107.0   4.483   -6.6  0.0648    6.7  0.4403  128.5
 8.000  0.5247  105.8   4.421   -8.4  0.0658    5.8  0.4490  127.1
 8.500  0.5727   99.0   4.061  -17.7  0.0697    2.7  0.4951  119.3
 9.000  0.6215   89.8   3.668  -26.7  0.0726   -1.2  0.5501  111.1
 9.500  0.6622   83.9   3.251  -34.1  0.0736   -4.2  0.6045  103.9
10.000  0.6982   80.1   2.924  -39.9  0.0749   -6.4  0.6520   98.9
10.500  0.7366   76.7   2.692  -45.6  0.0767   -8.1  0.6900   96.4
11.000  0.7560   73.8   2.483  -51.5  0.0795   -9.7  0.7290   95.1
11.500  0.7657   71.9   2.308  -56.8  0.0831  -12.0  0.7500   93.5
12.000  0.7686   70.6   2.162  -62.1  0.0873  -15.1  0.7645   91.0
!
!  f       NFmin   Gammaopt  rn/50
! GHz       dB    MAG  ANG    -
!
! noise parameter not available yet for this operation point!
!
! (c) 2013  Infineon Technologies AG, Munich
