! Infineon Technologies  Discrete & RF Semiconductors
! BFP840FESD
! VCE =  0.5 V,  IC =  18 mA
! Common Emitter S-Parameters:                            May 2012
# GHz  S  MA  R  50
!  f         S11            S21            S12            S22
! GHz     MAG   ANG      MAG   ANG      MAG   ANG      MAG   ANG
 0.030  0.5984   -4.5  18.260  177.6  0.0031   39.0  0.6243   -0.4
 0.040  0.5995   -5.9  18.433  177.5  0.0028   36.0  0.6302   -1.2
 0.050  0.6095   -7.2  18.907  178.5  0.0040   53.1  0.6352   -2.0
 0.060  0.6109   -8.7  19.112  177.5  0.0042   44.5  0.6368   -3.0
 0.070  0.6111  -10.3  19.272  176.4  0.0042   50.5  0.6391   -3.9
 0.080  0.6105  -11.9  19.309  175.1  0.0041   56.2  0.6409   -4.8
 0.090  0.6097  -13.4  19.227  174.2  0.0044   59.3  0.6430   -5.6
 0.100  0.6077  -14.9  19.099  173.4  0.0053   56.5  0.6418   -6.6
 0.110  0.6054  -16.4  18.906  172.5  0.0060   63.1  0.6429   -7.6
 0.120  0.6024  -18.1  18.763  171.8  0.0062   61.8  0.6414   -8.5
 0.130  0.6012  -19.5  18.654  171.1  0.0070   61.3  0.6410   -9.3
 0.140  0.6005  -21.0  18.656  170.6  0.0072   63.8  0.6392  -10.1
 0.150  0.6011  -22.4  18.714  169.8  0.0075   64.0  0.6376  -10.8
 0.200  0.6027  -29.6  18.643  165.4  0.0095   63.2  0.6345  -14.9
 0.250  0.6027  -36.1  18.565  162.6  0.0116   64.7  0.6254  -18.7
 0.300  0.6039  -42.6  18.444  158.6  0.0135   63.0  0.6170  -22.4
 0.350  0.6017  -49.1  17.931  154.9  0.0159   63.0  0.6110  -26.4
 0.400  0.6002  -54.9  17.609  152.9  0.0176   61.0  0.5869  -29.7
 0.450  0.6060  -60.2  17.627  148.6  0.0193   59.2  0.5892  -32.7
 0.500  0.6026  -65.5  16.993  146.4  0.0212   57.7  0.5670  -36.8
 0.600  0.6040  -75.3  16.393  141.0  0.0242   54.8  0.5372  -42.9
 0.700  0.6068  -84.3  15.543  135.3  0.0269   51.5  0.5178  -49.0
 0.800  0.6126  -90.4  15.426  130.7  0.0292   48.9  0.4949  -54.4
 0.900  0.6125  -98.3  14.627  126.6  0.0313   45.9  0.4696  -60.0
 1.000  0.6163 -105.3  13.877  122.2  0.0332   43.5  0.4485  -65.1
 1.100  0.6172 -111.2  13.278  118.6  0.0348   41.2  0.4278  -70.2
 1.200  0.6175 -116.5  12.727  115.8  0.0362   39.1  0.4096  -74.8
 1.300  0.6202 -121.3  12.236  112.2  0.0373   37.2  0.3932  -79.0
 1.400  0.6239 -125.5  11.854  109.2  0.0382   35.4  0.3772  -82.8
 1.500  0.6247 -129.7  11.379  106.4  0.0393   33.7  0.3617  -87.4
 1.600  0.6240 -132.0  11.375  104.1  0.0400   32.1  0.3490  -91.5
 1.700  0.6237 -136.5  10.690  101.8  0.0408   30.9  0.3385  -96.2
 1.800  0.6278 -140.2  10.157   99.1  0.0413   29.7  0.3341  -99.9
 1.900  0.6275 -143.4   9.811   97.1  0.0418   28.6  0.3253 -103.6
 2.000  0.6288 -146.3   9.468   95.2  0.0422   27.8  0.3205 -106.6
 2.100  0.6298 -149.0   9.173   93.0  0.0425   26.7  0.3133 -110.1
 2.200  0.6299 -151.4   8.854   91.3  0.0429   26.0  0.3131 -113.1
 2.300  0.6307 -153.9   8.539   89.4  0.0432   25.2  0.3083 -116.0
 2.400  0.6319 -156.1   8.286   87.5  0.0434   24.9  0.3117 -118.4
 2.500  0.6309 -158.2   8.050   86.0  0.0436   24.0  0.3059 -120.3
 2.600  0.6316 -160.2   7.799   84.2  0.0439   23.5  0.3041 -123.2
 2.700  0.6312 -162.2   7.592   82.8  0.0441   23.0  0.3004 -125.1
 2.800  0.6320 -164.0   7.383   81.2  0.0443   22.4  0.2985 -127.7
 2.900  0.6330 -165.7   7.198   79.6  0.0445   22.1  0.2994 -129.3
 3.000  0.6332 -167.4   7.017   78.2  0.0448   21.8  0.2965 -131.2
 3.100  0.6307 -168.7   6.927   77.0  0.0449   21.5  0.2967 -133.0
 3.200  0.6322 -170.6   6.718   75.6  0.0450   20.8  0.2957 -135.0
 3.300  0.6336 -172.3   6.508   74.2  0.0454   20.9  0.2966 -136.8
 3.400  0.6345 -173.8   6.345   72.8  0.0456   20.7  0.2980 -138.4
 3.500  0.6361 -175.3   6.168   71.4  0.0458   20.4  0.2979 -139.7
 3.600  0.6357 -176.7   6.064   70.1  0.0458   20.3  0.2970 -141.2
 3.700  0.6365 -178.2   5.920   68.9  0.0461   20.0  0.2969 -142.5
 3.800  0.6371 -179.5   5.789   67.6  0.0463   19.9  0.2976 -143.9
 3.900  0.6379  179.1   5.671   66.4  0.0465   19.9  0.2988 -145.1
 4.000  0.6396  177.7   5.541   65.0  0.0466   19.7  0.2985 -146.1
 4.100  0.6416  176.2   5.411   63.8  0.0468   19.4  0.2981 -147.5
 4.200  0.6420  174.8   5.301   62.6  0.0471   19.3  0.2972 -148.8
 4.300  0.6439  173.5   5.190   61.4  0.0472   19.2  0.2976 -150.3
 4.400  0.6444  172.2   5.085   60.2  0.0474   19.2  0.2975 -151.3
 4.500  0.6462  170.9   4.977   59.0  0.0477   19.1  0.2974 -152.5
 4.600  0.6462  169.8   4.909   57.8  0.0478   19.0  0.2961 -153.6
 4.700  0.6479  168.6   4.806   56.6  0.0481   18.8  0.2957 -155.0
 4.800  0.6493  167.4   4.708   55.3  0.0483   18.7  0.2955 -156.2
 4.900  0.6499  166.3   4.622   54.2  0.0485   18.8  0.2953 -157.4
 5.000  0.6511  165.1   4.525   52.9  0.0488   18.7  0.2940 -158.5
 5.100  0.6517  163.9   4.442   51.8  0.0489   18.4  0.2924 -159.8
 5.200  0.6519  162.8   4.364   50.8  0.0491   18.4  0.2905 -160.9
 5.300  0.6525  161.6   4.283   49.6  0.0493   18.3  0.2891 -162.4
 5.400  0.6525  160.5   4.211   48.5  0.0496   18.2  0.2875 -163.5
 5.500  0.6533  159.3   4.133   47.3  0.0498   18.2  0.2859 -164.9
 5.600  0.6531  158.2   4.063   46.2  0.0498   18.2  0.2830 -166.1
 5.700  0.6526  157.0   3.992   45.0  0.0500   18.0  0.2815 -167.7
 5.800  0.6533  155.8   3.929   43.9  0.0503   18.0  0.2789 -169.3
 5.900  0.6534  154.7   3.860   42.8  0.0503   18.0  0.2775 -170.7
 6.000  0.6545  153.5   3.794   41.7  0.0506   17.9  0.2747 -172.4
 6.100  0.6537  152.3   3.748   40.6  0.0507   17.9  0.2736 -174.1
 6.200  0.6551  151.0   3.673   39.4  0.0509   17.9  0.2716 -175.8
 6.300  0.6561  149.6   3.600   38.3  0.0510   17.9  0.2702 -177.6
 6.400  0.6575  148.4   3.538   37.1  0.0511   18.0  0.2689 -179.2
 6.500  0.6576  147.1   3.481   36.1  0.0513   18.0  0.2669  178.9
 6.600  0.6582  145.9   3.420   35.0  0.0515   18.2  0.2659  177.3
 6.700  0.6594  144.6   3.361   33.9  0.0517   18.4  0.2647  175.4
 6.800  0.6603  143.3   3.308   32.8  0.0519   18.6  0.2638  173.8
 6.900  0.6612  142.0   3.251   31.7  0.0521   18.9  0.2633  172.0
 7.000  0.6626  140.7   3.203   30.6  0.0525   19.0  0.2624  170.3
 7.100  0.6644  139.5   3.148   29.5  0.0530   19.4  0.2626  168.4
 7.200  0.6660  138.3   3.106   28.5  0.0535   19.7  0.2626  166.8
 7.300  0.6682  137.2   3.051   27.5  0.0541   19.9  0.2632  165.0
 7.400  0.6705  136.1   3.010   26.4  0.0548   19.9  0.2647  163.3
 7.500  0.6733  135.0   2.959   25.4  0.0555   19.9  0.2662  161.6
 7.600  0.6756  134.0   2.917   24.3  0.0562   19.7  0.2684  159.8
 7.700  0.6781  132.9   2.874   23.2  0.0570   19.5  0.2711  158.0
 7.800  0.6815  131.9   2.829   22.1  0.0576   19.1  0.2747  156.1
 7.900  0.6858  130.8   2.779   21.0  0.0583   18.9  0.2775  154.2
 8.000  0.6889  129.9   2.744   19.8  0.0590   18.4  0.2808  152.2
 8.500  0.7069  125.3   2.514   14.4  0.0609   16.2  0.3037  141.3
 9.000  0.7224  121.3   2.303    9.6  0.0617   14.5  0.3348  130.4
 9.500  0.7406  117.9   2.109    5.1  0.0625   13.1  0.3779  121.0
10.000  0.7583  115.1   1.935    1.1  0.0631   12.2  0.4318  114.7
10.500  0.7753  112.6   1.783   -2.5  0.0638   11.5  0.4923  112.4
11.000  0.7870  109.6   1.643   -5.9  0.0643   10.7  0.5478  112.6
11.500  0.7943  107.2   1.521   -8.8  0.0646   10.3  0.5935  115.4
12.000  0.7962  105.2   1.406  -11.0  0.0645   10.8  0.6182  120.1
!
!  f       NFmin   Gammaopt  rn/50
! GHz       dB    MAG  ANG    -
!
! noise parameter not available yet for this operation point!
!
! (c) 2012  Infineon Technologies AG, Munich
