! Infineon Technologies  Discrete & RF Semiconductors
! BFP843
! VCE =  0.5 V,  IC =  3.0 mA
! Common Emitter S-Parameters:                            Aug 2013
# GHz  S  MA  R  50
!  f         S11            S21            S12            S22
! GHz     MAG   ANG      MAG   ANG      MAG   ANG      MAG   ANG
 0.030  0.7180  -16.9   8.322  169.5  0.0567   35.9  0.7460  -16.4
 0.040  0.6653  -16.2   8.000  169.7  0.0625   30.0  0.6946  -16.1
 0.050  0.6378  -15.7   7.783  171.4  0.0710   20.5  0.6671  -15.6
 0.060  0.6127  -14.0   7.723  171.3  0.0647   20.8  0.6381  -14.6
 0.070  0.5953  -13.0   7.545  171.7  0.0655   15.5  0.6232  -13.4
 0.080  0.5885  -12.3   7.538  171.8  0.0649   17.2  0.6168  -13.2
 0.090  0.5778  -11.7   7.464  171.8  0.0692   11.2  0.6116  -12.7
 0.100  0.5751  -11.1   7.410  171.9  0.0705   11.7  0.6008  -12.2
 0.110  0.5718  -11.1   7.428  172.0  0.0689   10.4  0.5979  -12.2
 0.120  0.5666  -10.6   7.419  171.9  0.0688   10.5  0.5953  -12.0
 0.130  0.5662  -10.6   7.408  172.0  0.0691    9.2  0.5927  -11.9
 0.140  0.5607  -10.4   7.423  171.4  0.0685    9.2  0.5927  -11.8
 0.150  0.5644  -10.4   7.350  171.4  0.0697    9.0  0.5920  -11.9
 0.200  0.5588  -10.4   7.281  170.2  0.0706    7.0  0.5855  -12.8
 0.250  0.5559  -11.0   7.275  168.8  0.0717    5.0  0.5841  -13.8
 0.300  0.5553  -12.1   7.227  167.5  0.0708    4.7  0.5799  -15.5
 0.350  0.5509  -13.3   7.193  166.0  0.0707    4.4  0.5798  -17.3
 0.400  0.5500  -14.5   7.172  164.5  0.0714    3.6  0.5762  -19.1
 0.450  0.5494  -15.8   7.139  163.0  0.0726    3.2  0.5759  -21.1
 0.500  0.5487  -17.2   7.119  161.5  0.0723    3.0  0.5750  -22.9
 0.600  0.5424  -20.2   7.103  158.2  0.0716    2.1  0.5679  -26.9
 0.700  0.5390  -23.0   7.020  154.9  0.0727    1.5  0.5647  -30.8
 0.800  0.5353  -26.0   6.961  151.6  0.0739    1.0  0.5605  -35.0
 0.900  0.5302  -28.8   6.892  148.4  0.0740    0.2  0.5546  -39.0
 1.000  0.5245  -31.9   6.831  145.2  0.0751   -0.4  0.5483  -43.2
 1.100  0.5197  -34.9   6.753  142.1  0.0756   -0.9  0.5432  -47.4
 1.200  0.5161  -37.9   6.641  138.9  0.0759   -1.6  0.5390  -51.4
 1.300  0.5082  -41.0   6.586  135.7  0.0763   -2.2  0.5333  -55.5
 1.400  0.5045  -44.0   6.493  132.8  0.0775   -3.3  0.5291  -59.4
 1.500  0.4963  -47.1   6.421  129.8  0.0779   -3.7  0.5226  -63.6
 1.600  0.4919  -50.2   6.332  126.7  0.0784   -4.7  0.5187  -67.5
 1.700  0.4861  -53.3   6.230  123.8  0.0791   -5.5  0.5137  -71.4
 1.800  0.4780  -56.6   6.160  120.8  0.0793   -7.1  0.5084  -75.7
 1.900  0.4731  -59.5   6.054  118.0  0.0802   -7.4  0.5021  -79.5
 2.000  0.4674  -62.7   5.971  115.0  0.0806   -8.7  0.4980  -83.5
 2.100  0.4622  -65.9   5.866  112.2  0.0806   -9.5  0.4945  -87.3
 2.200  0.4568  -69.1   5.774  109.6  0.0807  -10.9  0.4914  -91.2
 2.300  0.4503  -72.2   5.700  106.8  0.0812  -12.1  0.4856  -94.9
 2.400  0.4457  -75.3   5.613  104.0  0.0811  -13.4  0.4823  -98.6
 2.500  0.4393  -78.6   5.522  101.3  0.0802  -14.3  0.4780 -102.6
 2.600  0.4348  -81.5   5.419   98.7  0.0813  -15.3  0.4753 -106.0
 2.700  0.4286  -84.9   5.337   96.0  0.0803  -16.4  0.4704 -109.8
 2.800  0.4238  -88.0   5.245   93.4  0.0804  -17.6  0.4682 -113.4
 2.900  0.4170  -91.5   5.183   90.8  0.0800  -18.8  0.4646 -117.4
 3.000  0.4134  -94.5   5.083   88.2  0.0798  -20.3  0.4620 -120.9
 3.100  0.4082  -97.9   5.010   85.6  0.0797  -21.0  0.4606 -124.6
 3.200  0.4034 -101.3   4.933   83.0  0.0793  -21.6  0.4592 -128.2
 3.300  0.4003 -104.4   4.829   80.5  0.0784  -23.4  0.4567 -132.0
 3.400  0.3953 -107.9   4.758   78.0  0.0781  -25.0  0.4566 -135.4
 3.500  0.3926 -111.1   4.670   75.5  0.0768  -25.8  0.4561 -138.8
 3.600  0.3868 -114.8   4.605   72.9  0.0759  -27.2  0.4569 -142.1
 3.700  0.3851 -118.0   4.515   70.6  0.0747  -27.8  0.4571 -145.4
 3.800  0.3819 -121.6   4.444   68.1  0.0748  -29.2  0.4593 -148.6
 3.900  0.3807 -124.8   4.349   65.7  0.0729  -30.3  0.4589 -151.9
 4.000  0.3800 -128.3   4.274   63.3  0.0723  -31.5  0.4628 -154.8
 4.100  0.3785 -131.9   4.199   60.9  0.0713  -32.3  0.4641 -157.9
 4.200  0.3787 -135.3   4.124   58.6  0.0705  -33.2  0.4674 -160.6
 4.300  0.3797 -138.6   4.039   56.4  0.0689  -34.2  0.4694 -163.5
 4.400  0.3814 -142.1   3.958   54.1  0.0673  -35.0  0.4724 -166.0
 4.500  0.3825 -145.3   3.881   51.8  0.0664  -35.6  0.4756 -168.6
 4.600  0.3852 -148.8   3.816   49.6  0.0652  -36.5  0.4800 -170.9
 4.700  0.3879 -151.8   3.755   47.4  0.0637  -37.6  0.4831 -173.4
 4.800  0.3942 -154.9   3.669   45.2  0.0624  -37.8  0.4865 -175.7
 4.900  0.3970 -157.8   3.602   43.1  0.0609  -38.8  0.4893 -177.8
 5.000  0.4006 -161.1   3.547   40.9  0.0593  -38.9  0.4937 -180.0
 5.100  0.4056 -163.7   3.473   38.9  0.0582  -39.7  0.4965  177.9
 5.200  0.4112 -166.5   3.412   36.8  0.0566  -39.6  0.5007  176.0
 5.300  0.4169 -169.1   3.335   34.7  0.0554  -40.3  0.5037  173.9
 5.400  0.4223 -171.7   3.281   32.6  0.0539  -40.5  0.5066  172.1
 5.500  0.4275 -174.2   3.215   30.6  0.0526  -40.5  0.5108  170.2
 5.600  0.4330 -176.5   3.167   28.7  0.0509  -40.7  0.5139  168.4
 5.700  0.4365 -178.7   3.098   26.7  0.0498  -40.3  0.5176  166.5
 5.800  0.4424  179.0   3.042   24.8  0.0485  -39.8  0.5206  164.8
 5.900  0.4476  177.4   2.984   22.9  0.0476  -40.0  0.5244  163.0
 6.000  0.4523  175.2   2.933   21.0  0.0457  -38.8  0.5286  161.3
 6.100  0.4588  173.3   2.887   19.0  0.0448  -38.3  0.5329  159.5
 6.200  0.4637  171.3   2.829   17.1  0.0437  -37.2  0.5364  157.7
 6.300  0.4698  169.5   2.781   15.2  0.0430  -36.8  0.5410  156.1
 6.400  0.4747  167.7   2.732   13.4  0.0421  -35.4  0.5452  154.4
 6.500  0.4787  165.6   2.686   11.6  0.0408  -34.2  0.5487  152.7
 6.600  0.4830  163.6   2.646    9.7  0.0403  -33.5  0.5535  151.1
 6.700  0.4892  161.9   2.591    7.9  0.0400  -32.3  0.5581  149.4
 6.800  0.4916  159.9   2.555    6.0  0.0395  -31.3  0.5621  147.8
 6.900  0.4968  158.1   2.507    4.3  0.0389  -29.4  0.5663  146.1
 7.000  0.4988  155.8   2.477    2.4  0.0378  -28.3  0.5730  144.6
 7.100  0.5051  153.9   2.433    0.6  0.0382  -26.2  0.5771  143.0
 7.200  0.5085  151.9   2.398   -1.2  0.0378  -25.1  0.5819  141.4
 7.300  0.5143  149.8   2.354   -3.2  0.0380  -23.4  0.5867  139.8
 7.400  0.5179  147.7   2.321   -5.0  0.0384  -22.0  0.5925  138.2
 7.500  0.5237  145.6   2.281   -6.9  0.0384  -20.3  0.5968  136.6
 7.600  0.5290  143.2   2.256   -8.8  0.0384  -18.6  0.6028  134.9
 7.700  0.5361  141.0   2.216  -10.8  0.0392  -17.1  0.6080  133.1
 7.800  0.5428  139.0   2.177  -12.7  0.0393  -16.5  0.6134  131.5
 7.900  0.5500  136.6   2.144  -14.7  0.0400  -14.7  0.6197  129.7
 8.000  0.5567  134.6   2.112  -16.7  0.0403  -14.1  0.6261  128.0
 8.500  0.6000  123.5   1.917  -26.9  0.0441  -10.2  0.6569  118.9
 9.000  0.6439  111.2   1.700  -36.7  0.0483   -9.3  0.6944  109.9
 9.500  0.6819  102.2   1.468  -44.7  0.0515   -9.3  0.7302  102.3
10.000  0.7198   96.1   1.284  -50.4  0.0551   -8.8  0.7625   96.9
10.500  0.7628   90.9   1.161  -55.7  0.0586   -9.4  0.7896   94.0
11.000  0.7891   86.4   1.050  -61.1  0.0628  -10.0  0.8178   92.4
11.500  0.8022   83.2   0.960  -65.9  0.0679  -11.6  0.8330   90.5
12.000  0.8054   81.0   0.884  -70.4  0.0727  -14.2  0.8423   87.7
!
!  f       NFmin   Gammaopt  rn/50
! GHz       dB    MAG  ANG    -
 0.450      1.03  0.27    8   0.03
 0.900      1.05  0.28   18   0.05
 1.500      1.10  0.27   30   0.12
 1.900      1.13  0.26   40   0.21
 2.400      1.19  0.25   50   0.29
 3.500      1.32  0.20   69   0.40
 5.500      1.54  0.16  173   0.49
10.000      2.44  0.54  -80   0.55
!
! (c) 2013  Infineon Technologies AG, Munich
