! Infineon Technologies  Discrete & RF Semiconductors
! BFP842ESD
! VCE =  2.0 V,  IC =  5.0 mA
! Common Emitter S-Parameters:                            May 2012
# GHz  S  MA  R  50
!  f         S11            S21            S12            S22
! GHz     MAG   ANG      MAG   ANG      MAG   ANG      MAG   ANG
 0.030  0.9394   -1.5  15.600  178.0  0.0008  -86.1  0.9993   -1.1
 0.040  0.9391   -2.0  15.569  177.3  0.0015   72.5  0.9973   -1.2
 0.050  0.9344   -2.7  15.486  176.4  0.0034  -20.5  1.0000   -2.0
 0.060  0.9403   -3.0  15.723  176.0  0.0111  122.0  1.0000   -1.9
 0.070  0.9371   -3.4  15.581  175.5  0.0070   92.0  1.0000   -2.6
 0.080  0.9397   -4.1  15.601  174.8  0.0062  107.4  0.9971   -2.7
 0.090  0.9350   -4.4  15.393  174.6  0.0060   79.3  0.9946   -3.3
 0.100  0.9384   -5.0  15.533  174.0  0.0035  107.4  0.9948   -3.9
 0.110  0.9347   -5.7  15.680  173.1  0.0048  108.6  0.9958   -4.2
 0.120  0.9330   -6.2  15.601  172.8  0.0062   86.5  0.9972   -4.6
 0.130  0.9349   -6.5  15.477  172.1  0.0058   90.1  0.9923   -5.0
 0.140  0.9327   -7.0  15.511  171.7  0.0060   84.0  0.9947   -5.5
 0.150  0.9285   -7.4  15.556  171.0  0.0063   91.4  0.9941   -5.8
 0.200  0.9264   -9.8  15.432  168.3  0.0084   78.8  0.9898   -7.8
 0.250  0.9207  -12.4  15.432  165.2  0.0106   81.7  0.9847   -9.7
 0.300  0.9144  -14.9  15.237  162.3  0.0125   81.0  0.9803  -11.5
 0.350  0.9054  -17.2  15.150  159.5  0.0152   74.6  0.9724  -13.5
 0.400  0.8948  -19.5  14.947  156.7  0.0165   76.4  0.9652  -15.3
 0.450  0.8844  -21.9  14.772  153.9  0.0184   75.5  0.9561  -17.1
 0.500  0.8731  -24.2  14.638  151.2  0.0200   73.1  0.9473  -18.9
 0.600  0.8476  -28.6  14.192  146.0  0.0234   69.2  0.9275  -22.3
 0.700  0.8204  -32.6  13.778  141.0  0.0267   67.6  0.9065  -25.6
 0.800  0.7906  -36.6  13.310  136.1  0.0295   65.9  0.8834  -28.7
 0.900  0.7602  -40.5  12.867  131.5  0.0330   62.2  0.8607  -31.6
 1.000  0.7305  -44.1  12.413  127.0  0.0363   60.0  0.8385  -34.4
 1.100  0.7009  -47.4  11.950  122.8  0.0380   57.2  0.8167  -37.1
 1.200  0.6723  -50.8  11.479  118.8  0.0410   56.2  0.7951  -39.5
 1.300  0.6444  -53.9  11.055  115.1  0.0428   54.1  0.7747  -42.0
 1.400  0.6169  -56.7  10.650  111.3  0.0450   52.5  0.7546  -44.1
 1.500  0.5918  -59.4  10.240  107.8  0.0473   51.3  0.7366  -46.5
 1.600  0.5669  -62.2   9.853  104.5  0.0490   49.1  0.7198  -48.6
 1.700  0.5416  -64.8   9.508  101.3  0.0505   48.0  0.7011  -50.6
 1.800  0.5214  -67.3   9.183   98.2  0.0525   47.0  0.6873  -52.6
 1.900  0.4990  -69.7   8.859   95.1  0.0548   45.5  0.6731  -54.6
 2.000  0.4790  -72.1   8.523   92.1  0.0566   44.3  0.6580  -56.6
 2.100  0.4590  -74.4   8.248   89.3  0.0579   42.4  0.6441  -58.7
 2.200  0.4410  -76.6   7.988   86.5  0.0602   41.8  0.6321  -60.5
 2.300  0.4224  -78.7   7.726   83.7  0.0616   40.4  0.6215  -62.3
 2.400  0.4053  -80.7   7.461   81.2  0.0633   39.5  0.6095  -64.3
 2.500  0.3879  -83.0   7.236   78.6  0.0643   38.4  0.5980  -66.2
 2.600  0.3723  -84.8   7.028   76.1  0.0663   37.4  0.5885  -68.1
 2.700  0.3560  -86.9   6.814   73.6  0.0677   36.2  0.5777  -70.0
 2.800  0.3415  -89.0   6.618   71.2  0.0691   35.4  0.5675  -72.0
 2.900  0.3266  -91.1   6.431   68.7  0.0711   34.3  0.5596  -74.2
 3.000  0.3131  -93.1   6.251   66.4  0.0726   32.9  0.5500  -76.1
 3.100  0.2997  -95.2   6.086   64.0  0.0744   32.3  0.5408  -78.2
 3.200  0.2872  -97.5   5.919   61.7  0.0762   31.6  0.5321  -80.5
 3.300  0.2747  -99.7   5.759   59.4  0.0774   30.1  0.5249  -82.5
 3.400  0.2621 -102.0   5.613   57.2  0.0788   29.4  0.5162  -84.8
 3.500  0.2510 -104.1   5.467   54.9  0.0804   28.2  0.5091  -87.1
 3.600  0.2388 -106.5   5.327   52.6  0.0819   27.4  0.5026  -89.4
 3.700  0.2284 -109.0   5.199   50.4  0.0838   26.3  0.4968  -91.7
 3.800  0.2184 -111.3   5.068   48.1  0.0856   25.1  0.4900  -94.0
 3.900  0.2078 -113.9   4.939   46.0  0.0874   24.1  0.4843  -96.4
 4.000  0.1993 -116.7   4.812   43.7  0.0882   23.1  0.4786  -98.8
 4.100  0.1906 -119.1   4.696   41.6  0.0901   22.0  0.4737 -101.2
 4.200  0.1825 -122.0   4.581   39.4  0.0917   20.7  0.4689 -103.7
 4.300  0.1754 -124.4   4.473   37.3  0.0932   19.3  0.4660 -106.1
 4.400  0.1683 -127.0   4.362   35.2  0.0947   18.5  0.4620 -108.5
 4.500  0.1621 -129.8   4.259   33.0  0.0955   17.5  0.4599 -111.0
 4.600  0.1573 -132.7   4.161   30.9  0.0972   16.2  0.4564 -113.4
 4.700  0.1513 -134.9   4.061   28.9  0.0985   15.0  0.4541 -115.7
 4.800  0.1475 -137.2   3.965   26.8  0.0997   14.0  0.4525 -118.2
 4.900  0.1429 -139.8   3.867   24.8  0.1008   12.8  0.4497 -120.3
 5.000  0.1391 -141.9   3.776   22.7  0.1029   11.4  0.4491 -122.7
 5.100  0.1352 -144.1   3.690   20.8  0.1039   10.5  0.4467 -125.0
 5.200  0.1326 -145.7   3.604   18.8  0.1048    9.4  0.4465 -127.1
 5.300  0.1298 -147.4   3.522   16.7  0.1058    8.2  0.4455 -129.4
 5.400  0.1275 -148.7   3.445   14.8  0.1071    7.1  0.4450 -131.6
 5.500  0.1245 -150.5   3.365   12.8  0.1084    5.7  0.4441 -133.6
 5.600  0.1232 -151.6   3.290   10.8  0.1094    4.9  0.4438 -135.9
 5.700  0.1205 -153.0   3.216    8.9  0.1107    3.6  0.4431 -138.0
 5.800  0.1201 -153.8   3.144    7.0  0.1119    2.6  0.4448 -140.2
 5.900  0.1182 -154.3   3.076    5.0  0.1131    1.4  0.4442 -142.3
 6.000  0.1176 -154.3   3.009    3.1  0.1141    0.1  0.4464 -144.6
 6.100  0.1168 -155.4   2.944    1.2  0.1154   -0.8  0.4472 -146.7
 6.200  0.1169 -155.6   2.882   -0.8  0.1168   -2.0  0.4500 -149.0
 6.300  0.1165 -156.5   2.820   -2.7  0.1180   -3.4  0.4522 -151.1
 6.400  0.1171 -156.0   2.763   -4.6  0.1191   -4.5  0.4540 -153.3
 6.500  0.1156 -156.4   2.701   -6.7  0.1206   -5.9  0.4559 -155.8
 6.600  0.1160 -156.0   2.644   -8.6  0.1220   -7.2  0.4585 -158.0
 6.700  0.1151 -155.9   2.588  -10.5  0.1234   -8.5  0.4614 -160.2
 6.800  0.1150 -155.5   2.531  -12.5  0.1241   -9.7  0.4646 -162.5
 6.900  0.1150 -155.5   2.475  -14.4  0.1251  -11.1  0.4687 -164.7
 7.000  0.1162 -155.3   2.423  -16.4  0.1259  -12.4  0.4714 -167.0
 7.100  0.1166 -155.2   2.371  -18.4  0.1269  -13.9  0.4757 -169.3
 7.200  0.1177 -155.2   2.320  -20.3  0.1279  -15.3  0.4779 -171.7
 7.300  0.1196 -154.4   2.270  -22.3  0.1290  -16.6  0.4839 -173.9
 7.400  0.1203 -154.1   2.217  -24.3  0.1300  -18.2  0.4867 -176.3
 7.500  0.1220 -154.3   2.168  -26.3  0.1307  -19.4  0.4907 -178.6
 7.600  0.1239 -154.5   2.124  -28.4  0.1321  -21.1  0.4946  179.0
 7.700  0.1256 -154.7   2.076  -30.4  0.1331  -22.7  0.4989  176.7
 7.800  0.1278 -155.3   2.029  -32.4  0.1338  -24.2  0.5021  174.3
 7.900  0.1302 -156.5   1.982  -34.5  0.1339  -25.7  0.5073  171.9
 8.000  0.1323 -157.2   1.934  -36.6  0.1349  -27.6  0.5100  169.5
 8.500  0.1510 -165.2   1.698  -47.6  0.1368  -36.2  0.5339  157.0
 9.000  0.1904 -177.3   1.455  -59.0  0.1359  -45.5  0.5679  144.0
 9.500  0.2638  171.2   1.196  -70.4  0.1304  -55.7  0.6161  132.5
10.000  0.3747  161.3   0.934  -80.7  0.1207  -65.8  0.6735  123.7
!
!  f       NFmin   Gammaopt  rn/50
! GHz       dB    MAG  ANG    -
 0.450      0.41  0.38    3   0.11
 0.900      0.43  0.40    8   0.11
 1.500      0.46  0.41   19   0.11
 1.900      0.48  0.39   29   0.11
 2.400      0.52  0.36   42   0.10
 3.500      0.63  0.26   79   0.08
 4.000      0.66  0.22  100   0.08
 5.000      0.72  0.20  119   0.07
 5.500      0.84  0.18  145   0.07
 6.000      0.97  0.16  155   0.08
!
! (c) 2012  Infineon Technologies AG, Munich
