! Infineon Technologies  Discrete & RF Semiconductors
! BFP843
! VCE =  2.0 V,  IC =  9.0 mA
! Common Emitter S-Parameters:                            Aug 2013
# GHz  S  MA  R  50
!  f         S11            S21            S12            S22
! GHz     MAG   ANG      MAG   ANG      MAG   ANG      MAG   ANG
 0.030  0.4651  -39.9  17.358  162.7  0.0453   28.8  0.5222  -36.3
 0.040  0.3813  -40.4  16.260  163.8  0.0485   23.3  0.4403  -36.1
 0.050  0.3349  -38.4  15.646  166.2  0.0496   19.1  0.3888  -34.8
 0.060  0.2980  -38.2  15.303  166.6  0.0514   15.7  0.3595  -33.8
 0.070  0.2806  -34.5  14.850  167.6  0.0541   13.4  0.3312  -30.2
 0.080  0.2637  -32.1  14.781  168.0  0.0527   11.6  0.3204  -28.6
 0.090  0.2523  -30.1  14.648  168.2  0.0519   11.0  0.3083  -26.9
 0.100  0.2391  -28.1  14.525  168.5  0.0560   11.8  0.2959  -25.1
 0.110  0.2374  -27.6  14.492  168.7  0.0553    9.4  0.2937  -23.4
 0.120  0.2323  -25.6  14.392  168.7  0.0533    8.5  0.2896  -22.8
 0.130  0.2337  -24.4  14.352  168.9  0.0550    8.6  0.2824  -21.5
 0.140  0.2225  -23.5  14.325  168.5  0.0552    9.4  0.2867  -20.5
 0.150  0.2282  -23.1  14.251  168.5  0.0547    6.5  0.2813  -20.2
 0.200  0.2193  -20.0  14.034  167.7  0.0555    5.3  0.2787  -18.3
 0.250  0.2211  -19.1  13.946  166.4  0.0539    5.9  0.2799  -18.2
 0.300  0.2233  -19.7  13.775  165.2  0.0550    3.7  0.2772  -19.1
 0.350  0.2220  -20.9  13.652  163.7  0.0555    2.6  0.2756  -19.8
 0.400  0.2203  -22.4  13.579  162.2  0.0547    1.6  0.2756  -21.4
 0.450  0.2216  -24.1  13.523  160.8  0.0545    1.8  0.2745  -23.3
 0.500  0.2202  -26.2  13.468  159.2  0.0556    0.2  0.2760  -25.0
 0.600  0.2173  -30.2  13.319  155.9  0.0550    0.7  0.2730  -28.5
 0.700  0.2173  -34.3  13.123  152.7  0.0546   -0.5  0.2688  -32.6
 0.800  0.2130  -38.7  13.017  149.4  0.0560   -1.1  0.2686  -36.8
 0.900  0.2113  -42.8  12.830  146.1  0.0561   -1.8  0.2635  -40.9
 1.000  0.2095  -47.4  12.649  142.9  0.0564   -2.5  0.2614  -45.2
 1.100  0.2068  -51.9  12.464  139.7  0.0557   -3.1  0.2577  -49.8
 1.200  0.2059  -56.6  12.267  136.5  0.0558   -3.6  0.2556  -54.0
 1.300  0.1996  -61.5  12.114  133.3  0.0554   -3.7  0.2547  -58.3
 1.400  0.2010  -66.3  11.901  130.3  0.0556   -4.7  0.2516  -62.5
 1.500  0.1974  -70.9  11.699  127.3  0.0558   -5.1  0.2494  -66.8
 1.600  0.1954  -76.0  11.526  124.2  0.0551   -5.7  0.2481  -71.2
 1.700  0.1947  -80.6  11.302  121.3  0.0550   -6.2  0.2450  -75.3
 1.800  0.1928  -85.7  11.096  118.4  0.0554   -6.8  0.2450  -79.7
 1.900  0.1932  -89.9  10.868  115.6  0.0550   -7.9  0.2394  -84.3
 2.000  0.1927  -94.9  10.692  112.7  0.0550   -7.7  0.2397  -88.4
 2.100  0.1926  -99.7  10.482  109.9  0.0552   -8.3  0.2388  -92.3
 2.200  0.1923 -104.6  10.293  107.3  0.0541   -9.4  0.2397  -96.4
 2.300  0.1929 -108.8  10.102  104.6  0.0547   -9.6  0.2367 -100.3
 2.400  0.1941 -113.2   9.905  101.9  0.0541  -10.5  0.2369 -104.3
 2.500  0.1942 -117.8   9.707   99.3  0.0532  -10.9  0.2362 -108.7
 2.600  0.1953 -122.0   9.530   96.8  0.0529  -11.3  0.2357 -112.3
 2.700  0.1957 -126.9   9.344   94.2  0.0531  -12.1  0.2343 -116.2
 2.800  0.1981 -130.9   9.160   91.7  0.0527  -12.3  0.2357 -119.8
 2.900  0.2002 -135.2   8.990   89.2  0.0518  -12.7  0.2361 -123.9
 3.000  0.2017 -139.0   8.796   86.8  0.0515  -13.3  0.2368 -127.7
 3.100  0.2044 -143.6   8.663   84.3  0.0509  -14.1  0.2383 -131.5
 3.200  0.2071 -147.3   8.481   82.0  0.0510  -14.1  0.2398 -135.4
 3.300  0.2097 -151.5   8.317   79.6  0.0501  -14.7  0.2424 -139.2
 3.400  0.2140 -154.9   8.148   77.3  0.0501  -14.7  0.2452 -142.7
 3.500  0.2160 -158.6   8.000   75.0  0.0489  -15.1  0.2475 -146.0
 3.600  0.2206 -162.2   7.841   72.7  0.0478  -15.0  0.2508 -149.3
 3.700  0.2240 -166.1   7.701   70.4  0.0479  -15.8  0.2556 -152.6
 3.800  0.2289 -169.4   7.554   68.2  0.0477  -15.3  0.2596 -155.8
 3.900  0.2333 -172.5   7.396   66.0  0.0474  -15.4  0.2630 -159.0
 4.000  0.2400 -175.4   7.257   63.8  0.0458  -15.8  0.2695 -161.5
 4.100  0.2446 -178.7   7.119   61.7  0.0453  -16.0  0.2742 -164.4
 4.200  0.2511  178.5   6.985   59.5  0.0449  -16.1  0.2800 -166.7
 4.300  0.2575  176.0   6.849   57.4  0.0447  -16.2  0.2858 -169.3
 4.400  0.2658  173.4   6.705   55.4  0.0438  -14.9  0.2906 -171.6
 4.500  0.2707  171.3   6.576   53.3  0.0435  -14.9  0.2960 -173.7
 4.600  0.2791  168.6   6.464   51.3  0.0431  -14.4  0.3026 -175.8
 4.700  0.2855  166.9   6.346   49.2  0.0426  -14.8  0.3084 -177.9
 4.800  0.2946  164.8   6.227   47.3  0.0420  -13.8  0.3146 -179.6
 4.900  0.3007  163.1   6.105   45.4  0.0410  -13.3  0.3189  178.5
 5.000  0.3085  161.4   5.995   43.4  0.0412  -12.6  0.3246  176.6
 5.100  0.3154  159.5   5.889   41.4  0.0406  -12.1  0.3301  175.0
 5.200  0.3226  158.2   5.780   39.6  0.0406  -11.7  0.3359  173.4
 5.300  0.3304  156.7   5.673   37.6  0.0404  -10.6  0.3414  171.8
 5.400  0.3365  155.4   5.571   35.7  0.0400   -9.5  0.3448  170.1
 5.500  0.3436  153.9   5.470   33.8  0.0399   -9.0  0.3511  168.5
 5.600  0.3502  152.7   5.382   32.0  0.0391   -7.7  0.3554  167.1
 5.700  0.3544  151.4   5.280   30.2  0.0394   -7.2  0.3608  165.6
 5.800  0.3609  150.2   5.190   28.4  0.0391   -6.1  0.3658  164.1
 5.900  0.3650  149.5   5.104   26.7  0.0393   -4.4  0.3711  162.6
 6.000  0.3721  148.1   5.017   24.9  0.0397   -3.9  0.3760  161.2
 6.100  0.3779  147.1   4.939   23.0  0.0400   -2.9  0.3822  159.7
 6.200  0.3838  145.7   4.860   21.2  0.0402   -1.6  0.3876  158.2
 6.300  0.3907  144.8   4.775   19.5  0.0406   -0.7  0.3930  156.7
 6.400  0.3949  143.6   4.704   17.7  0.0409   -0.2  0.3994  155.3
 6.500  0.4016  142.1   4.633   16.0  0.0416    0.9  0.4051  154.0
 6.600  0.4056  140.9   4.558   14.2  0.0420    1.1  0.4110  152.5
 6.700  0.4121  139.6   4.489   12.5  0.0427    2.3  0.4172  151.1
 6.800  0.4160  138.3   4.416   10.7  0.0433    3.2  0.4222  149.6
 6.900  0.4215  136.9   4.350    9.0  0.0439    3.4  0.4283  148.2
 7.000  0.4248  135.2   4.283    7.2  0.0446    3.8  0.4356  146.8
 7.100  0.4320  133.6   4.228    5.4  0.0453    4.3  0.4422  145.4
 7.200  0.4365  132.3   4.164    3.7  0.0462    4.9  0.4484  144.1
 7.300  0.4431  130.5   4.106    1.8  0.0471    5.5  0.4553  142.7
 7.400  0.4487  129.1   4.043    0.1  0.0484    5.1  0.4613  141.2
 7.500  0.4552  127.3   3.987   -1.7  0.0488    5.7  0.4682  139.8
 7.600  0.4625  125.7   3.932   -3.6  0.0501    5.6  0.4748  138.2
 7.700  0.4716  123.9   3.878   -5.5  0.0509    5.9  0.4834  136.6
 7.800  0.4786  122.4   3.816   -7.4  0.0523    5.8  0.4896  135.1
 7.900  0.4870  120.5   3.762   -9.2  0.0529    6.0  0.4978  133.4
 8.000  0.4958  119.1   3.707  -11.1  0.0544    5.7  0.5058  131.8
 8.500  0.5466  110.3   3.401  -21.0  0.0587    3.4  0.5486  123.1
 9.000  0.5981  100.0   3.054  -30.6  0.0629    0.9  0.5998  114.0
 9.500  0.6429   92.8   2.679  -38.6  0.0656   -1.7  0.6499  106.2
10.000  0.6834   88.0   2.383  -44.7  0.0678   -3.8  0.6942  100.7
10.500  0.7272   83.9   2.172  -50.4  0.0706   -5.5  0.7315   97.7
11.000  0.7530   80.3   1.983  -56.4  0.0742   -6.6  0.7684   95.9
11.500  0.7670   77.9   1.821  -61.8  0.0787   -8.9  0.7888   94.0
12.000  0.7725   76.2   1.692  -66.9  0.0833  -12.4  0.8018   91.3
!
!  f       NFmin   Gammaopt  rn/50
! GHz       dB    MAG  ANG    -
 0.450      0.91  0.08    6   0.01
 0.900      0.92  0.08   17   0.04
 1.500      0.94  0.08   27   0.09
 1.900      0.97  0.07   36   0.17
 2.400      1.00  0.06   47   0.24
 3.500      1.06  0.03   59   0.28
 5.500      1.20  0.15 -131   0.32
10.000      1.84  0.50  -68   0.42
!
! (c) 2013  Infineon Technologies AG, Munich
