! Infineon Technologies  Discrete & RF Semiconductors
! BFP840FESD
! VCE =  1.5 V,  IC =  10 mA
! Common Emitter S-Parameters:                            May 2012
# GHz  S  MA  R  50
!  f         S11            S21            S12            S22
! GHz     MAG   ANG      MAG   ANG      MAG   ANG      MAG   ANG
 0.030  0.9040   -1.3  26.034  176.7  0.0006  117.2  0.9869   -0.4
 0.040  0.9043   -1.7  26.048  176.4  0.0010   98.2  0.9901   -0.8
 0.050  0.9031   -2.2  26.128  177.5  0.0015   91.7  0.9935   -1.1
 0.060  0.9035   -2.7  26.059  177.2  0.0018   58.7  0.9927   -1.6
 0.070  0.9039   -3.1  26.086  176.9  0.0020   74.7  0.9941   -2.0
 0.080  0.9034   -3.6  26.121  176.4  0.0025   89.4  0.9945   -2.4
 0.090  0.9034   -4.1  26.097  176.0  0.0023   96.7  0.9953   -2.7
 0.100  0.9036   -4.4  26.088  175.7  0.0022   79.7  0.9951   -3.1
 0.110  0.9034   -4.9  26.025  175.2  0.0025   87.3  0.9952   -3.6
 0.120  0.9025   -5.4  26.021  174.9  0.0028   89.6  0.9951   -3.9
 0.130  0.9027   -5.8  25.986  174.5  0.0032   91.6  0.9948   -4.3
 0.140  0.9023   -6.3  25.973  174.1  0.0038   86.4  0.9947   -4.7
 0.150  0.9015   -6.7  25.989  173.6  0.0040   83.7  0.9944   -5.1
 0.200  0.8991   -9.0  25.870  171.6  0.0052   86.1  0.9921   -6.9
 0.250  0.8968  -11.2  25.800  169.6  0.0063   82.7  0.9890   -8.7
 0.300  0.8925  -13.4  25.641  167.6  0.0071   81.8  0.9846  -10.5
 0.350  0.8880  -15.6  25.461  165.6  0.0087   81.6  0.9799  -12.3
 0.400  0.8838  -17.7  25.283  163.7  0.0097   80.0  0.9740  -14.0
 0.450  0.8793  -19.8  25.064  161.8  0.0108   77.3  0.9685  -15.6
 0.500  0.8738  -21.9  24.848  160.1  0.0121   76.3  0.9621  -17.3
 0.600  0.8629  -26.2  24.394  156.5  0.0143   73.4  0.9482  -20.6
 0.700  0.8512  -30.2  23.911  153.3  0.0164   71.4  0.9334  -23.8
 0.800  0.8374  -34.4  23.593  150.0  0.0187   68.7  0.9178  -27.0
 0.900  0.8246  -38.3  23.078  146.9  0.0205   66.3  0.9008  -30.1
 1.000  0.8111  -42.2  22.545  143.8  0.0222   63.9  0.8835  -33.1
 1.100  0.7966  -46.0  22.063  140.9  0.0241   61.6  0.8658  -36.1
 1.200  0.7823  -49.9  21.619  138.0  0.0258   59.3  0.8474  -39.0
 1.300  0.7675  -53.6  21.165  135.1  0.0275   57.0  0.8291  -41.9
 1.400  0.7538  -57.3  20.687  132.4  0.0288   55.2  0.8108  -44.7
 1.500  0.7384  -60.9  20.257  129.8  0.0302   53.2  0.7921  -47.5
 1.600  0.7238  -64.6  19.904  127.0  0.0315   51.1  0.7742  -50.3
 1.700  0.7090  -67.9  19.344  124.4  0.0326   49.1  0.7556  -52.9
 1.800  0.6969  -71.2  18.847  122.0  0.0337   47.4  0.7391  -55.6
 1.900  0.6823  -74.4  18.383  119.7  0.0346   45.5  0.7220  -58.1
 2.000  0.6703  -77.6  17.968  117.3  0.0356   43.9  0.7063  -60.6
 2.100  0.6581  -80.9  17.541  114.9  0.0363   42.5  0.6916  -63.0
 2.200  0.6466  -83.9  17.087  112.8  0.0371   40.9  0.6771  -65.4
 2.300  0.6345  -86.8  16.664  110.7  0.0377   39.7  0.6624  -67.6
 2.400  0.6251  -89.5  16.251  108.6  0.0383   38.3  0.6499  -69.9
 2.500  0.6137  -92.3  15.838  106.6  0.0388   37.1  0.6369  -71.9
 2.600  0.6039  -94.9  15.432  104.7  0.0392   35.9  0.6251  -74.0
 2.700  0.5934  -97.6  15.058  102.8  0.0397   34.9  0.6131  -75.9
 2.800  0.5852 -100.1  14.702  101.0  0.0399   33.9  0.6021  -77.8
 2.900  0.5766 -102.6  14.357   99.3  0.0403   32.9  0.5928  -79.7
 3.000  0.5689 -105.0  14.024   97.6  0.0408   32.1  0.5832  -81.4
 3.100  0.5597 -107.4  13.717   95.8  0.0409   31.2  0.5745  -83.2
 3.200  0.5536 -109.7  13.401   94.2  0.0411   30.4  0.5656  -84.9
 3.300  0.5476 -112.0  13.094   92.6  0.0414   29.7  0.5577  -86.6
 3.400  0.5418 -114.2  12.800   91.1  0.0417   29.0  0.5508  -88.3
 3.500  0.5364 -116.3  12.529   89.6  0.0418   28.4  0.5439  -89.8
 3.600  0.5305 -118.5  12.264   88.0  0.0420   27.8  0.5370  -91.3
 3.700  0.5251 -120.6  12.011   86.6  0.0421   27.1  0.5310  -92.7
 3.800  0.5207 -122.7  11.760   85.1  0.0422   26.6  0.5251  -94.2
 3.900  0.5168 -124.8  11.531   83.7  0.0425   26.2  0.5202  -95.6
 4.000  0.5137 -126.7  11.304   82.3  0.0425   25.7  0.5150  -96.9
 4.100  0.5109 -128.8  11.095   80.9  0.0427   25.2  0.5098  -98.3
 4.200  0.5074 -130.7  10.882   79.6  0.0428   24.9  0.5047  -99.6
 4.300  0.5053 -132.8  10.689   78.2  0.0429   24.4  0.4999 -101.0
 4.400  0.5026 -134.6  10.485   76.9  0.0431   24.0  0.4953 -102.3
 4.500  0.5010 -136.6  10.301   75.5  0.0431   23.7  0.4912 -103.5
 4.600  0.4991 -138.4  10.122   74.2  0.0431   23.4  0.4860 -104.7
 4.700  0.4977 -140.2   9.947   72.9  0.0432   23.2  0.4819 -106.0
 4.800  0.4962 -142.0   9.773   71.6  0.0434   22.9  0.4772 -107.2
 4.900  0.4951 -143.7   9.609   70.3  0.0434   22.4  0.4734 -108.4
 5.000  0.4938 -145.4   9.449   69.0  0.0435   22.3  0.4681 -109.5
 5.100  0.4925 -147.1   9.296   67.8  0.0435   22.0  0.4636 -110.7
 5.200  0.4914 -148.6   9.142   66.5  0.0435   21.7  0.4584 -111.7
 5.300  0.4903 -150.3   9.003   65.2  0.0436   21.5  0.4535 -113.0
 5.400  0.4892 -151.8   8.857   64.0  0.0436   21.2  0.4488 -114.0
 5.500  0.4878 -153.5   8.725   62.7  0.0437   21.1  0.4437 -115.2
 5.600  0.4861 -155.0   8.584   61.5  0.0437   21.0  0.4377 -116.3
 5.700  0.4841 -156.7   8.454   60.2  0.0437   20.7  0.4322 -117.6
 5.800  0.4829 -158.3   8.325   59.0  0.0436   20.6  0.4260 -118.7
 5.900  0.4811 -159.9   8.198   57.8  0.0435   20.4  0.4204 -119.9
 6.000  0.4798 -161.5   8.074   56.5  0.0435   20.3  0.4138 -121.1
 6.100  0.4772 -163.2   7.956   55.3  0.0436   20.3  0.4080 -122.4
 6.200  0.4760 -164.9   7.833   54.1  0.0434   20.2  0.4017 -123.6
 6.300  0.4740 -166.6   7.719   52.8  0.0434   20.1  0.3955 -125.0
 6.400  0.4732 -168.1   7.604   51.6  0.0432   20.3  0.3896 -126.2
 6.500  0.4707 -169.9   7.492   50.5  0.0431   20.3  0.3824 -127.6
 6.600  0.4689 -171.4   7.374   49.3  0.0429   20.5  0.3763 -128.8
 6.700  0.4670 -173.1   7.266   48.1  0.0428   20.6  0.3697 -130.2
 6.800  0.4654 -174.7   7.160   46.9  0.0428   21.0  0.3640 -131.5
 6.900  0.4635 -176.3   7.051   45.7  0.0426   21.5  0.3580 -132.9
 7.000  0.4623 -177.9   6.949   44.6  0.0426   21.9  0.3526 -134.1
 7.100  0.4615 -179.5   6.846   43.5  0.0427   22.6  0.3471 -135.4
 7.200  0.4616  178.9   6.748   42.4  0.0429   23.3  0.3425 -136.7
 7.300  0.4619  177.4   6.654   41.3  0.0432   23.9  0.3382 -138.0
 7.400  0.4632  176.0   6.565   40.3  0.0436   24.6  0.3351 -139.5
 7.500  0.4650  174.5   6.482   39.2  0.0440   25.1  0.3322 -141.0
 7.600  0.4679  173.1   6.398   38.1  0.0447   25.4  0.3296 -142.6
 7.700  0.4708  171.7   6.321   37.0  0.0453   25.8  0.3276 -144.2
 7.800  0.4754  170.2   6.248   35.8  0.0459   25.9  0.3267 -146.2
 7.900  0.4803  168.8   6.173   34.7  0.0465   25.9  0.3247 -148.1
 8.000  0.4855  167.5   6.103   33.5  0.0472   25.9  0.3233 -150.2
 8.500  0.5138  160.3   5.731   27.4  0.0498   25.0  0.3147 -162.9
 9.000  0.5426  153.5   5.340   21.5  0.0515   23.8  0.3113 -177.7
 9.500  0.5727  147.4   4.957   15.6  0.0528   22.7  0.3265  166.1
10.000  0.6008  141.9   4.569   10.1  0.0539   21.9  0.3682  152.0
10.500  0.6270  137.2   4.210    5.1  0.0549   21.2  0.4332  143.1
11.000  0.6466  132.4   3.865    0.4  0.0557   20.5  0.5011  138.4
11.500  0.6615  128.6   3.550   -3.6  0.0561   20.2  0.5642  138.0
12.000  0.6702  125.3   3.250   -6.8  0.0563   20.8  0.6073  140.2
!
!  f       NFmin   Gammaopt  rn/50
! GHz       dB    MAG  ANG    -
 0.450      0.66  0.31    5   0.14
 0.900      0.68  0.30   11   0.15
 1.500      0.70  0.28   16   0.15
 1.900      0.70  0.25   27   0.15
 2.400      0.71  0.23   35   0.15
 3.500      0.73  0.23   57   0.14
 5.500      0.79  0.15  102   0.11
 8.000      0.91  0.13  168   0.12
10.000      1.04  0.24 -135   0.12
12.000      1.26  0.40 -115   0.14
!
! (c) 2012  Infineon Technologies AG, Munich
