! Infineon Technologies  Discrete & RF Semiconductors
! BFP843
! VCE =  1.5 V,  IC =  2.0 mA
! Common Emitter S-Parameters:                            Aug 2013
# GHz  S  MA  R  50
!  f         S11            S21            S12            S22
! GHz     MAG   ANG      MAG   ANG      MAG   ANG      MAG   ANG
 0.030  0.7825  -12.6   6.031  170.9  0.0589   38.1  0.8030  -12.3
 0.040  0.7397  -12.1   5.828  171.0  0.0646   29.1  0.7598  -12.1
 0.050  0.7083  -11.8   5.708  172.5  0.0714   24.3  0.7314  -11.0
 0.060  0.6944  -10.4   5.627  172.5  0.0675   18.2  0.7137  -10.5
 0.070  0.6835  -10.1   5.524  172.8  0.0707   16.7  0.7047  -10.0
 0.080  0.6750   -9.5   5.511  172.9  0.0714   17.2  0.6992  -10.1
 0.090  0.6685   -9.2   5.516  172.9  0.0714   15.4  0.6933   -9.8
 0.100  0.6638   -8.6   5.453  172.9  0.0738   11.4  0.6853   -9.4
 0.110  0.6602   -8.5   5.486  173.1  0.0745   13.1  0.6828   -9.4
 0.120  0.6600   -8.2   5.434  172.9  0.0728   11.6  0.6831   -9.1
 0.130  0.6614   -8.2   5.444  173.0  0.0732   10.3  0.6784   -9.2
 0.140  0.6534   -8.2   5.452  172.5  0.0746    9.5  0.6814   -9.1
 0.150  0.6566   -8.4   5.437  172.5  0.0745    8.6  0.6766   -9.3
 0.200  0.6514   -8.3   5.380  171.5  0.0740    6.2  0.6737  -10.2
 0.250  0.6504   -9.2   5.400  170.1  0.0751    6.2  0.6716  -11.4
 0.300  0.6497  -10.1   5.321  169.0  0.0742    4.3  0.6688  -12.6
 0.350  0.6462  -11.1   5.330  167.6  0.0749    3.4  0.6692  -14.0
 0.400  0.6453  -12.1   5.314  166.3  0.0747    2.2  0.6645  -15.5
 0.450  0.6421  -13.3   5.341  164.9  0.0752    1.9  0.6642  -17.1
 0.500  0.6412  -14.4   5.314  163.6  0.0755    1.4  0.6618  -18.8
 0.600  0.6384  -16.9   5.298  160.6  0.0763    0.8  0.6596  -22.0
 0.700  0.6342  -19.4   5.272  157.6  0.0767   -0.3  0.6547  -25.3
 0.800  0.6323  -21.8   5.224  154.6  0.0769   -0.8  0.6506  -28.8
 0.900  0.6265  -24.4   5.226  151.5  0.0777   -1.4  0.6471  -32.1
 1.000  0.6234  -27.0   5.171  148.6  0.0782   -2.5  0.6413  -35.7
 1.100  0.6188  -29.5   5.137  145.7  0.0785   -2.7  0.6372  -39.1
 1.200  0.6154  -32.2   5.080  142.8  0.0793   -4.2  0.6311  -42.5
 1.300  0.6083  -34.7   5.050  139.8  0.0797   -4.6  0.6269  -46.0
 1.400  0.6042  -37.5   5.026  137.0  0.0801   -5.5  0.6222  -49.4
 1.500  0.5986  -40.0   4.967  134.2  0.0811   -6.5  0.6175  -52.9
 1.600  0.5940  -42.7   4.920  131.2  0.0815   -7.2  0.6128  -56.3
 1.700  0.5873  -45.5   4.891  128.4  0.0820   -8.5  0.6071  -59.7
 1.800  0.5823  -48.1   4.831  125.6  0.0823   -9.9  0.6035  -63.2
 1.900  0.5760  -50.7   4.786  122.9  0.0822  -10.3  0.5960  -66.7
 2.000  0.5720  -53.5   4.718  120.0  0.0827  -11.4  0.5908  -70.2
 2.100  0.5659  -56.4   4.683  117.2  0.0828  -13.5  0.5862  -73.6
 2.200  0.5612  -58.9   4.619  114.6  0.0828  -14.2  0.5804  -77.0
 2.300  0.5528  -61.8   4.597  111.8  0.0831  -15.9  0.5772  -80.3
 2.400  0.5486  -64.4   4.536  109.1  0.0834  -16.4  0.5714  -83.7
 2.500  0.5422  -67.2   4.483  106.4  0.0831  -17.8  0.5666  -87.1
 2.600  0.5376  -69.9   4.421  103.8  0.0833  -19.2  0.5610  -90.5
 2.700  0.5307  -72.7   4.370  101.1  0.0830  -20.2  0.5555  -94.0
 2.800  0.5244  -75.5   4.330   98.5  0.0825  -22.1  0.5519  -97.3
 2.900  0.5189  -78.3   4.280   95.8  0.0829  -23.4  0.5473 -100.7
 3.000  0.5125  -81.2   4.229   93.2  0.0821  -24.4  0.5435 -104.2
 3.100  0.5077  -84.1   4.171   90.5  0.0816  -26.1  0.5385 -107.8
 3.200  0.5003  -87.0   4.136   87.9  0.0805  -28.0  0.5346 -111.1
 3.300  0.4960  -89.9   4.072   85.3  0.0810  -28.8  0.5319 -114.6
 3.400  0.4897  -93.0   4.027   82.7  0.0796  -30.3  0.5289 -118.0
 3.500  0.4868  -95.8   3.954   80.1  0.0789  -31.9  0.5246 -121.4
 3.600  0.4803  -99.0   3.907   77.4  0.0779  -33.2  0.5232 -124.7
 3.700  0.4767 -101.7   3.846   74.9  0.0767  -34.7  0.5213 -128.1
 3.800  0.4703 -105.2   3.814   72.3  0.0756  -36.1  0.5222 -131.2
 3.900  0.4664 -108.1   3.744   69.8  0.0743  -37.9  0.5200 -134.6
 4.000  0.4656 -111.1   3.677   67.3  0.0733  -39.2  0.5197 -137.8
 4.100  0.4615 -114.4   3.624   64.8  0.0720  -40.5  0.5197 -140.9
 4.200  0.4591 -117.6   3.571   62.3  0.0704  -41.9  0.5214 -143.9
 4.300  0.4576 -120.8   3.518   59.9  0.0683  -43.1  0.5232 -146.7
 4.400  0.4569 -124.1   3.454   57.5  0.0668  -44.9  0.5241 -149.5
 4.500  0.4557 -127.2   3.389   55.1  0.0660  -45.7  0.5264 -152.3
 4.600  0.4569 -130.5   3.333   52.7  0.0639  -47.2  0.5286 -154.9
 4.700  0.4572 -133.7   3.292   50.3  0.0616  -48.5  0.5309 -157.6
 4.800  0.4598 -136.9   3.230   47.9  0.0599  -49.4  0.5343 -160.0
 4.900  0.4619 -139.7   3.163   45.7  0.0588  -50.1  0.5343 -162.5
 5.000  0.4641 -143.0   3.116   43.4  0.0562  -50.9  0.5379 -165.0
 5.100  0.4663 -145.9   3.055   41.1  0.0540  -52.4  0.5404 -167.3
 5.200  0.4697 -148.9   3.016   38.9  0.0522  -52.9  0.5450 -169.5
 5.300  0.4739 -151.8   2.954   36.6  0.0498  -53.8  0.5472 -171.8
 5.400  0.4772 -154.5   2.908   34.4  0.0480  -54.9  0.5496 -174.0
 5.500  0.4825 -157.1   2.840   32.2  0.0463  -54.7  0.5522 -176.4
 5.600  0.4868 -159.7   2.799   30.2  0.0444  -55.3  0.5558 -178.4
 5.700  0.4894 -162.0   2.739   28.0  0.0420  -55.0  0.5586  179.4
 5.800  0.4937 -164.7   2.703   25.9  0.0400  -55.5  0.5629  177.5
 5.900  0.4984 -166.7   2.650   24.0  0.0384  -55.6  0.5656  175.4
 6.000  0.5022 -169.3   2.606   21.9  0.0362  -54.7  0.5703  173.5
 6.100  0.5077 -171.6   2.560   19.8  0.0336  -53.6  0.5729  171.4
 6.200  0.5118 -174.0   2.518   17.8  0.0322  -53.8  0.5786  169.4
 6.300  0.5173 -176.2   2.473   15.8  0.0304  -51.6  0.5814  167.4
 6.400  0.5223 -178.4   2.427   13.7  0.0287  -49.7  0.5860  165.5
 6.500  0.5267  179.3   2.380   11.9  0.0274  -46.8  0.5888  163.6
 6.600  0.5288  177.1   2.351    9.9  0.0259  -44.8  0.5938  161.7
 6.700  0.5348  175.0   2.305    8.0  0.0242  -41.4  0.5983  159.9
 6.800  0.5373  172.8   2.272    6.0  0.0235  -39.2  0.6021  158.0
 6.900  0.5426  170.9   2.221    4.1  0.0229  -34.2  0.6058  156.1
 7.000  0.5439  168.6   2.191    2.1  0.0217  -29.4  0.6114  154.3
 7.100  0.5497  166.3   2.152    0.2  0.0219  -25.5  0.6157  152.5
 7.200  0.5514  164.1   2.129   -1.6  0.0215  -20.7  0.6210  150.8
 7.300  0.5569  161.7   2.091   -3.7  0.0220  -15.1  0.6250  148.9
 7.400  0.5597  159.5   2.060   -5.6  0.0219  -10.2  0.6307  147.1
 7.500  0.5654  157.3   2.018   -7.6  0.0228   -6.5  0.6350  145.3
 7.600  0.5699  154.8   1.994   -9.6  0.0241   -2.8  0.6402  143.4
 7.700  0.5754  152.3   1.967  -11.7  0.0248    1.2  0.6467  141.5
 7.800  0.5812  150.0   1.933  -13.7  0.0264    2.7  0.6506  139.6
 7.900  0.5876  147.4   1.901  -15.8  0.0273    5.8  0.6572  137.7
 8.000  0.5947  145.2   1.866  -17.8  0.0294    7.7  0.6619  135.8
 8.500  0.6338  132.9   1.692  -28.7  0.0377   11.5  0.6925  125.8
 9.000  0.6756  119.4   1.501  -39.1  0.0460   10.5  0.7286  115.8
 9.500  0.7124  109.1   1.284  -47.6  0.0521    7.1  0.7626  107.2
10.000  0.7483  101.9   1.106  -53.6  0.0579    4.6  0.7932  100.9
10.500  0.7918   95.9   0.988  -58.9  0.0621    2.1  0.8185   97.3
11.000  0.8175   90.6   0.890  -64.2  0.0674    0.1  0.8468   95.2
11.500  0.8291   86.8   0.806  -68.8  0.0731   -3.2  0.8615   93.0
12.000  0.8318   84.2   0.734  -73.1  0.0790   -7.0  0.8685   89.9
!
!  f       NFmin   Gammaopt  rn/50
! GHz       dB    MAG  ANG    -
 0.450      1.16  0.34    9   0.05
 0.900      1.19  0.35   19   0.08
 1.500      1.25  0.34   31   0.18
 1.900      1.30  0.33   40   0.27
 2.400      1.38  0.32   50   0.36
 3.500      1.55  0.27   71   0.52
 5.500      1.89  0.22  159   0.56
10.000      2.91  0.58  -85   0.63
!
! (c) 2013  Infineon Technologies AG, Munich
