! Infineon Technologies  Discrete & RF Semiconductors
! BFP843
! VCE =  2.0 V,  IC =  37 mA
! Common Emitter S-Parameters:                            Aug 2013
# GHz  S  MA  R  50
!  f         S11            S21            S12            S22
! GHz     MAG   ANG      MAG   ANG      MAG   ANG      MAG   ANG
 0.030  0.3365 -122.4  29.273  154.6  0.0262   22.1  0.3188  -91.3
 0.040  0.3107 -136.3  26.676  157.0  0.0296   22.8  0.2525 -103.2
 0.050  0.2987 -142.2  25.363  160.3  0.0370   22.3  0.2178 -111.6
 0.060  0.2954 -153.3  24.512  161.2  0.0317    6.2  0.1948 -123.3
 0.070  0.2793 -157.6  23.788  162.9  0.0314   11.6  0.1704 -129.7
 0.080  0.2782 -161.5  23.533  163.6  0.0322   12.2  0.1600 -134.9
 0.090  0.2701 -164.0  23.262  164.0  0.0303   10.7  0.1456 -139.9
 0.100  0.2656 -167.6  22.999  164.5  0.0316    9.0  0.1342 -147.0
 0.110  0.2726 -169.2  22.853  164.6  0.0320   12.4  0.1297 -150.5
 0.120  0.2631 -171.9  22.660  164.8  0.0323   10.3  0.1238 -152.5
 0.130  0.2631 -173.2  22.626  165.0  0.0329   11.6  0.1196 -158.1
 0.140  0.2630 -175.1  22.454  164.8  0.0341   11.5  0.1122 -159.9
 0.150  0.2559 -175.9  22.367  164.7  0.0323   12.2  0.1111 -163.1
 0.200  0.2423  178.6  21.828  164.0  0.0341    8.1  0.0945 -174.1
 0.250  0.2331  175.7  21.595  162.6  0.0345    9.2  0.0855  179.9
 0.300  0.2245  173.7  21.228  161.3  0.0334    5.6  0.0799  174.0
 0.350  0.2219  172.9  20.963  159.6  0.0350    7.9  0.0764  169.0
 0.400  0.2156  172.5  20.702  158.1  0.0349    7.5  0.0722  167.9
 0.450  0.2141  172.2  20.550  156.5  0.0348    5.1  0.0680  166.7
 0.500  0.2112  171.8  20.356  154.8  0.0349    6.0  0.0672  166.5
 0.600  0.2100  171.6  19.957  151.3  0.0361    5.3  0.0638  164.6
 0.700  0.2086  171.0  19.575  147.6  0.0358    5.4  0.0622  163.8
 0.800  0.2090  171.0  19.199  144.2  0.0357    5.4  0.0596  163.7
 0.900  0.2109  170.2  18.805  140.6  0.0357    5.1  0.0601  164.5
 1.000  0.2131  169.9  18.413  137.2  0.0362    4.7  0.0602  164.8
 1.100  0.2164  169.0  18.024  133.8  0.0357    5.2  0.0600  166.9
 1.200  0.2192  168.9  17.606  130.4  0.0361    5.2  0.0605  168.5
 1.300  0.2229  167.4  17.199  127.1  0.0362    5.5  0.0612  169.2
 1.400  0.2266  167.3  16.803  123.9  0.0363    5.7  0.0619  169.7
 1.500  0.2309  166.3  16.381  120.9  0.0364    5.4  0.0647  171.5
 1.600  0.2346  165.5  16.003  117.7  0.0363    6.2  0.0660  173.5
 1.700  0.2393  164.5  15.602  114.7  0.0359    5.8  0.0686  173.4
 1.800  0.2435  163.5  15.196  111.8  0.0364    6.5  0.0705  174.7
 1.900  0.2479  162.4  14.817  109.0  0.0363    5.9  0.0743  174.7
 2.000  0.2526  161.7  14.457  106.1  0.0367    7.1  0.0768  174.9
 2.100  0.2571  160.5  14.080  103.4  0.0369    8.3  0.0800  175.6
 2.200  0.2622  159.8  13.729  100.9  0.0371    7.3  0.0832  176.5
 2.300  0.2671  158.5  13.403   98.2  0.0367    8.6  0.0871  175.8
 2.400  0.2704  157.5  13.067   95.7  0.0372    9.1  0.0904  175.4
 2.500  0.2763  156.1  12.738   93.1  0.0372    8.6  0.0946  175.0
 2.600  0.2804  154.9  12.438   90.7  0.0374    9.4  0.0976  174.7
 2.700  0.2847  153.8  12.116   88.3  0.0378    8.4  0.1021  173.2
 2.800  0.2893  152.5  11.822   86.0  0.0383    9.9  0.1048  173.1
 2.900  0.2947  151.4  11.543   83.6  0.0378    9.2  0.1112  172.1
 3.000  0.2988  150.0  11.263   81.3  0.0382   10.4  0.1154  171.1
 3.100  0.3057  149.0  11.016   79.1  0.0386    9.9  0.1214  170.1
 3.200  0.3109  147.6  10.751   76.9  0.0385   10.5  0.1279  169.1
 3.300  0.3166  146.3  10.502   74.7  0.0386   10.9  0.1332  168.2
 3.400  0.3225  145.0  10.262   72.6  0.0387   11.3  0.1399  167.4
 3.500  0.3270  143.8  10.037   70.5  0.0399   11.9  0.1448  166.4
 3.600  0.3330  142.6   9.806   68.4  0.0393   11.7  0.1522  165.6
 3.700  0.3385  141.3   9.595   66.4  0.0403   12.4  0.1582  164.5
 3.800  0.3452  140.0   9.392   64.3  0.0400   12.0  0.1655  163.8
 3.900  0.3512  138.7   9.176   62.3  0.0405   13.4  0.1721  162.8
 4.000  0.3571  137.6   8.981   60.3  0.0410   13.4  0.1795  162.2
 4.100  0.3624  136.4   8.786   58.4  0.0412   13.6  0.1873  161.1
 4.200  0.3693  135.3   8.606   56.4  0.0419   13.9  0.1936  160.8
 4.300  0.3756  134.3   8.423   54.5  0.0424   13.7  0.2010  159.9
 4.400  0.3833  133.3   8.240   52.7  0.0430   14.3  0.2065  159.1
 4.500  0.3877  132.3   8.070   50.8  0.0433   14.2  0.2137  158.5
 4.600  0.3949  131.4   7.911   49.0  0.0439   15.0  0.2209  158.1
 4.700  0.4000  130.5   7.765   47.1  0.0445   14.6  0.2274  157.0
 4.800  0.4070  129.7   7.607   45.4  0.0443   14.4  0.2341  156.6
 4.900  0.4108  129.0   7.458   43.6  0.0453   14.9  0.2396  155.7
 5.000  0.4169  128.2   7.317   41.8  0.0461   14.9  0.2462  155.1
 5.100  0.4224  127.4   7.176   40.1  0.0465   15.3  0.2520  154.2
 5.200  0.4271  126.8   7.047   38.4  0.0473   14.8  0.2581  153.7
 5.300  0.4329  126.1   6.914   36.6  0.0476   15.7  0.2635  152.7
 5.400  0.4368  125.4   6.791   34.9  0.0484   15.6  0.2681  151.9
 5.500  0.4420  124.7   6.664   33.1  0.0490   15.7  0.2741  151.0
 5.600  0.4460  124.2   6.555   31.6  0.0495   15.5  0.2787  150.3
 5.700  0.4483  123.4   6.429   29.9  0.0502   15.5  0.2848  149.2
 5.800  0.4529  123.0   6.320   28.2  0.0510   16.0  0.2896  148.5
 5.900  0.4545  122.4   6.220   26.7  0.0514   15.7  0.2950  147.6
 6.000  0.4600  121.6   6.113   25.0  0.0523   15.4  0.3009  146.9
 6.100  0.4641  121.2   6.017   23.3  0.0536   15.7  0.3065  145.9
 6.200  0.4679  120.4   5.922   21.7  0.0544   15.3  0.3123  144.9
 6.300  0.4727  119.8   5.828   20.1  0.0552   15.2  0.3181  143.9
 6.400  0.4753  119.0   5.739   18.4  0.0560   14.6  0.3242  143.1
 6.500  0.4806  118.1   5.649   16.9  0.0565   14.8  0.3302  142.1
 6.600  0.4837  117.1   5.563   15.1  0.0583   14.4  0.3363  141.2
 6.700  0.4885  116.3   5.482   13.6  0.0589   13.9  0.3426  140.3
 6.800  0.4920  115.2   5.403   11.8  0.0595   13.9  0.3479  139.2
 6.900  0.4962  114.4   5.319   10.3  0.0603   13.3  0.3545  138.3
 7.000  0.4991  113.0   5.241    8.6  0.0612   12.9  0.3618  137.3
 7.100  0.5047  112.0   5.168    6.9  0.0623   12.7  0.3685  136.4
 7.200  0.5086  110.9   5.095    5.3  0.0632   12.1  0.3748  135.4
 7.300  0.5141  109.6   5.025    3.6  0.0644   11.7  0.3818  134.3
 7.400  0.5190  108.5   4.954    1.9  0.0657   11.0  0.3884  133.3
 7.500  0.5248  107.3   4.882    0.2  0.0660   10.6  0.3956  132.1
 7.600  0.5313  106.1   4.818   -1.5  0.0674   10.0  0.4036  130.9
 7.700  0.5391  104.8   4.748   -3.3  0.0683    9.1  0.4121  129.6
 7.800  0.5452  103.7   4.677   -5.1  0.0692    8.4  0.4196  128.4
 7.900  0.5532  102.4   4.611   -6.9  0.0701    7.8  0.4277  127.0
 8.000  0.5611  101.2   4.544   -8.6  0.0706    7.1  0.4362  125.7
 8.500  0.6066   94.9   4.169  -17.8  0.0740    3.0  0.4837  118.1
 9.000  0.6527   86.1   3.764  -26.6  0.0765   -1.3  0.5401  110.0
 9.500  0.6905   80.5   3.338  -33.7  0.0776   -5.1  0.5947  103.0
10.000  0.7240   76.9   3.011  -39.3  0.0785   -6.8  0.6427   98.1
10.500  0.7586   73.7   2.778  -45.0  0.0796   -9.2  0.6805   95.8
11.000  0.7750   70.9   2.569  -50.8  0.0820  -10.6  0.7196   94.6
11.500  0.7820   69.0   2.394  -56.1  0.0860  -13.1  0.7405   93.1
12.000  0.7830   67.8   2.249  -61.3  0.0896  -16.3  0.7547   90.6
!
!  f       NFmin   Gammaopt  rn/50
! GHz       dB    MAG  ANG    -
!
! noise parameter not available yet for this operation point!
!
! (c) 2013  Infineon Technologies AG, Munich
