! Infineon Technologies  Discrete & RF Semiconductors
! BFP843
! VCE =  1.5 V,  IC =  9.0 mA
! Common Emitter S-Parameters:                            Aug 2013
# GHz  S  MA  R  50
!  f         S11            S21            S12            S22
! GHz     MAG   ANG      MAG   ANG      MAG   ANG      MAG   ANG
 0.030  0.4697  -40.4  17.424  162.9  0.0454   29.0  0.5283  -36.2
 0.040  0.3876  -40.6  16.326  163.9  0.0488   23.9  0.4436  -36.2
 0.050  0.3441  -38.4  15.712  166.3  0.0525   17.0  0.3935  -35.0
 0.060  0.2975  -37.5  15.332  166.7  0.0479   13.9  0.3596  -33.0
 0.070  0.2762  -34.5  14.936  167.6  0.0521   13.0  0.3387  -30.9
 0.080  0.2626  -32.5  14.833  168.0  0.0546   13.7  0.3201  -29.7
 0.090  0.2560  -30.7  14.740  168.2  0.0510    9.7  0.3137  -26.9
 0.100  0.2459  -28.2  14.581  168.5  0.0519    8.9  0.2998  -25.5
 0.110  0.2378  -28.0  14.564  168.6  0.0550   10.3  0.2943  -24.1
 0.120  0.2326  -25.8  14.445  168.7  0.0532    7.3  0.2914  -23.6
 0.130  0.2325  -25.2  14.428  168.9  0.0544    6.7  0.2854  -22.2
 0.140  0.2255  -23.7  14.384  168.5  0.0516    6.9  0.2879  -20.7
 0.150  0.2261  -23.5  14.332  168.4  0.0549    6.7  0.2845  -20.8
 0.200  0.2216  -20.2  14.083  167.6  0.0550    4.9  0.2800  -19.0
 0.250  0.2226  -19.5  14.023  166.2  0.0538    4.9  0.2791  -18.9
 0.300  0.2238  -19.9  13.812  165.0  0.0547    2.5  0.2762  -20.0
 0.350  0.2214  -21.3  13.725  163.4  0.0539    2.3  0.2777  -20.7
 0.400  0.2199  -22.8  13.628  162.0  0.0548    1.7  0.2761  -22.6
 0.450  0.2199  -24.5  13.599  160.5  0.0549    1.4  0.2774  -24.2
 0.500  0.2198  -26.5  13.511  158.9  0.0550    1.4  0.2759  -26.2
 0.600  0.2189  -30.5  13.352  155.6  0.0553    0.1  0.2731  -30.0
 0.700  0.2170  -34.9  13.168  152.3  0.0551   -0.1  0.2710  -34.3
 0.800  0.2139  -39.2  13.031  149.0  0.0555   -0.7  0.2686  -38.7
 0.900  0.2115  -43.5  12.856  145.6  0.0561   -0.8  0.2657  -43.1
 1.000  0.2108  -48.3  12.644  142.4  0.0556   -2.8  0.2615  -47.8
 1.100  0.2072  -52.7  12.474  139.2  0.0556   -2.8  0.2603  -52.3
 1.200  0.2062  -57.6  12.265  136.0  0.0558   -3.4  0.2576  -56.9
 1.300  0.2006  -62.3  12.091  132.7  0.0559   -3.9  0.2559  -61.3
 1.400  0.2011  -67.4  11.887  129.7  0.0556   -4.4  0.2545  -65.6
 1.500  0.1994  -71.7  11.655  126.7  0.0553   -4.9  0.2508  -70.3
 1.600  0.1970  -77.0  11.485  123.6  0.0551   -5.4  0.2509  -74.7
 1.700  0.1958  -81.7  11.266  120.6  0.0553   -5.9  0.2490  -79.0
 1.800  0.1952  -86.4  11.036  117.7  0.0558   -6.8  0.2479  -83.6
 1.900  0.1940  -91.3  10.826  114.9  0.0553   -6.8  0.2452  -88.0
 2.000  0.1953  -96.2  10.628  112.0  0.0545   -7.8  0.2436  -92.4
 2.100  0.1934 -101.3  10.435  109.2  0.0545   -7.9  0.2442  -96.3
 2.200  0.1948 -105.5  10.219  106.6  0.0543   -8.7  0.2439 -100.6
 2.300  0.1956 -110.3  10.035  103.8  0.0543  -10.1  0.2435 -104.6
 2.400  0.1970 -114.0   9.824  101.2  0.0546   -9.7  0.2419 -108.5
 2.500  0.1972 -118.9   9.630   98.6  0.0536  -10.6  0.2423 -112.7
 2.600  0.1986 -123.2   9.444   96.0  0.0533  -11.3  0.2428 -116.4
 2.700  0.1987 -127.9   9.260   93.4  0.0534  -11.6  0.2429 -120.4
 2.800  0.2010 -131.9   9.070   91.0  0.0530  -12.2  0.2441 -124.1
 2.900  0.2036 -136.3   8.892   88.5  0.0523  -12.7  0.2441 -128.4
 3.000  0.2054 -140.2   8.709   86.0  0.0519  -12.7  0.2449 -132.0
 3.100  0.2085 -144.4   8.558   83.6  0.0517  -13.7  0.2474 -136.1
 3.200  0.2113 -148.6   8.382   81.2  0.0512  -13.9  0.2497 -139.6
 3.300  0.2143 -152.3   8.210   78.9  0.0506  -13.8  0.2520 -143.4
 3.400  0.2183 -156.0   8.053   76.6  0.0503  -14.1  0.2554 -146.7
 3.500  0.2214 -159.4   7.891   74.3  0.0493  -13.9  0.2585 -150.1
 3.600  0.2257 -163.4   7.744   72.0  0.0493  -14.7  0.2630 -153.2
 3.700  0.2291 -166.7   7.590   69.8  0.0484  -14.8  0.2666 -156.4
 3.800  0.2343 -170.1   7.449   67.5  0.0481  -14.8  0.2719 -159.4
 3.900  0.2388 -173.3   7.289   65.3  0.0474  -14.6  0.2754 -162.6
 4.000  0.2455 -176.1   7.145   63.2  0.0468  -14.2  0.2815 -165.3
 4.100  0.2507 -179.6   7.012   61.0  0.0463  -14.8  0.2871 -168.0
 4.200  0.2571  177.9   6.873   58.9  0.0464  -14.8  0.2924 -170.3
 4.300  0.2636  175.3   6.737   56.8  0.0452  -14.5  0.2977 -172.7
 4.400  0.2717  172.8   6.592   54.7  0.0451  -14.4  0.3025 -175.0
 4.500  0.2773  170.5   6.466   52.7  0.0443  -14.0  0.3090 -177.1
 4.600  0.2854  168.2   6.349   50.7  0.0439  -13.5  0.3156 -179.0
 4.700  0.2918  166.3   6.236   48.6  0.0433  -13.6  0.3209  178.9
 4.800  0.3004  164.4   6.111   46.7  0.0432  -12.4  0.3269  177.2
 4.900  0.3067  162.7   5.994   44.8  0.0427  -12.8  0.3313  175.4
 5.000  0.3150  160.7   5.890   42.8  0.0426  -11.7  0.3371  173.7
 5.100  0.3216  159.0   5.775   40.9  0.0415  -11.7  0.3419  171.9
 5.200  0.3297  157.6   5.673   39.0  0.0416  -11.3  0.3482  170.5
 5.300  0.3369  156.3   5.559   37.1  0.0415   -9.8  0.3528  168.7
 5.400  0.3433  154.7   5.466   35.2  0.0410   -9.8  0.3572  167.3
 5.500  0.3503  153.3   5.360   33.3  0.0409   -8.5  0.3626  165.7
 5.600  0.3567  152.0   5.280   31.6  0.0406   -7.4  0.3675  164.3
 5.700  0.3604  150.9   5.172   29.7  0.0409   -6.5  0.3722  162.7
 5.800  0.3681  149.6   5.087   28.0  0.0406   -6.3  0.3771  161.4
 5.900  0.3722  148.9   4.995   26.2  0.0412   -5.0  0.3812  159.8
 6.000  0.3786  147.3   4.914   24.5  0.0411   -4.0  0.3874  158.5
 6.100  0.3852  146.4   4.836   22.6  0.0417   -2.7  0.3930  157.0
 6.200  0.3906  145.1   4.757   20.9  0.0421   -1.7  0.3985  155.6
 6.300  0.3963  144.1   4.674   19.1  0.0422   -1.8  0.4032  154.0
 6.400  0.4012  142.8   4.604   17.3  0.0424   -0.1  0.4101  152.7
 6.500  0.4073  141.5   4.531   15.7  0.0433    0.4  0.4147  151.3
 6.600  0.4118  140.1   4.460   13.8  0.0437    1.5  0.4211  150.0
 6.700  0.4177  138.9   4.386   12.2  0.0444    1.5  0.4265  148.6
 6.800  0.4217  137.4   4.323   10.4  0.0452    2.0  0.4317  147.2
 6.900  0.4274  136.2   4.253    8.7  0.0454    2.6  0.4373  145.8
 7.000  0.4306  134.4   4.193    6.9  0.0461    3.2  0.4452  144.4
 7.100  0.4376  132.9   4.131    5.2  0.0469    3.7  0.4513  143.1
 7.200  0.4420  131.4   4.072    3.5  0.0481    3.7  0.4574  141.7
 7.300  0.4489  129.8   4.010    1.6  0.0483    4.1  0.4629  140.3
 7.400  0.4537  128.3   3.954   -0.1  0.0493    4.3  0.4698  138.9
 7.500  0.4613  126.6   3.894   -1.9  0.0500    4.5  0.4760  137.5
 7.600  0.4678  124.8   3.846   -3.7  0.0516    4.2  0.4835  136.0
 7.700  0.4765  123.1   3.788   -5.7  0.0517    4.5  0.4912  134.4
 7.800  0.4836  121.7   3.726   -7.5  0.0528    4.3  0.4975  132.9
 7.900  0.4927  119.8   3.676   -9.4  0.0542    3.8  0.5053  131.3
 8.000  0.5005  118.3   3.619  -11.3  0.0550    3.8  0.5133  129.7
 8.500  0.5508  109.7   3.315  -21.1  0.0597    1.8  0.5548  121.1
 9.000  0.6013   99.2   2.979  -30.5  0.0636   -1.1  0.6043  112.3
 9.500  0.6448   92.2   2.612  -38.3  0.0653   -3.4  0.6532  104.7
10.000  0.6851   87.4   2.325  -44.3  0.0677   -5.2  0.6963   99.4
10.500  0.7274   83.4   2.120  -50.0  0.0702   -6.8  0.7311   96.5
11.000  0.7531   79.9   1.940  -55.9  0.0740   -7.7  0.7678   95.0
11.500  0.7665   77.5   1.786  -61.2  0.0784   -9.7  0.7867   93.1
12.000  0.7718   75.8   1.659  -66.3  0.0827  -13.6  0.7997   90.4
!
!  f       NFmin   Gammaopt  rn/50
! GHz       dB    MAG  ANG    -
 0.450      0.91  0.08    6   0.01
 0.900      0.92  0.08   17   0.04
 1.500      0.94  0.08   27   0.09
 1.900      0.97  0.07   36   0.17
 2.400      1.00  0.06   47   0.24
 3.500      1.06  0.03   59   0.28
 5.500      1.20  0.15 -131   0.32
10.000      1.84  0.50  -68   0.42
!
! (c) 2013  Infineon Technologies AG, Munich
