! Infineon Technologies  Discrete & RF Semiconductors
! BFP840ESD
! VCE =  0.5 V,  IC =  14 mA
! Common Emitter S-Parameters:                            May 2012
# GHz  S  MA  R  50
!  f         S11            S21            S12            S22
! GHz     MAG   ANG      MAG   ANG      MAG   ANG      MAG   ANG
 0.030  0.7137   -3.0  21.782  179.0  0.0012   98.6  0.9380   -0.3
 0.080  0.7305   -7.8  23.755  175.0  0.0030   88.3  0.9509   -3.6
 0.130  0.7159  -13.1  22.601  171.4  0.0048   84.7  0.9504   -6.8
 0.180  0.7120  -17.9  22.720  167.8  0.0065   79.0  0.9448   -9.7
 0.230  0.7071  -22.4  22.735  164.5  0.0081   76.8  0.9370  -12.5
 0.280  0.7021  -26.8  22.757  161.3  0.0097   76.1  0.9283  -15.2
 0.330  0.6944  -31.4  22.297  157.7  0.0113   74.6  0.9210  -17.9
 0.380  0.6812  -35.6  21.823  155.3  0.0126   73.1  0.9050  -20.5
 0.430  0.6800  -39.2  22.042  152.2  0.0140   71.1  0.8957  -22.9
 0.500  0.6644  -45.2  21.134  148.6  0.0165   69.0  0.8755  -26.7
 0.600  0.6484  -52.1  20.857  143.7  0.0195   65.1  0.8476  -31.2
 0.700  0.6347  -59.8  19.908  138.3  0.0219   63.0  0.8254  -35.8
 0.800  0.6311  -64.8  19.833  133.8  0.0243   60.2  0.7996  -39.9
 0.900  0.6132  -70.7  19.302  130.0  0.0265   57.3  0.7710  -44.2
 1.000  0.6017  -76.9  18.708  125.6  0.0285   54.7  0.7445  -48.2
 1.100  0.5879  -82.5  18.147  121.9  0.0303   52.3  0.7184  -52.1
 1.200  0.5719  -87.3  17.677  118.8  0.0321   50.1  0.6916  -55.8
 1.300  0.5643  -92.4  17.202  115.1  0.0333   47.7  0.6665  -59.1
 1.400  0.5565  -96.3  16.974  111.9  0.0348   45.4  0.6404  -62.3
 1.500  0.5438 -101.2  16.415  108.8  0.0358   43.4  0.6149  -65.8
 1.600  0.5370 -104.2  16.192  106.0  0.0373   41.5  0.5903  -69.1
 1.700  0.5237 -109.5  15.496  103.3  0.0386   40.0  0.5682  -72.8
 1.800  0.5184 -114.4  14.921  100.1  0.0396   39.0  0.5526  -75.9
 1.900  0.5093 -117.7  14.676   97.6  0.0405   37.3  0.5316  -79.0
 2.000  0.4993 -121.7  14.241   95.3  0.0409   36.0  0.5146  -81.7
 2.100  0.4921 -125.4  13.896   92.7  0.0421   34.5  0.4934  -84.8
 2.200  0.4875 -129.3  13.479   90.3  0.0425   33.6  0.4802  -87.9
 2.300  0.4824 -133.3  13.067   87.9  0.0432   32.3  0.4632  -90.8
 2.400  0.4840 -137.0  12.689   85.1  0.0439   31.9  0.4562  -93.8
 2.500  0.4785 -139.8  12.503   83.0  0.0441   30.8  0.4378  -95.9
 2.600  0.4741 -143.5  12.142   80.8  0.0452   29.8  0.4218  -99.4
 2.700  0.4688 -146.2  11.939   78.8  0.0453   28.7  0.4068 -101.8
 2.800  0.4642 -149.8  11.617   76.8  0.0462   27.7  0.3915 -105.4
 2.900  0.4650 -152.8  11.370   74.4  0.0463   27.2  0.3826 -108.0
 3.000  0.4595 -155.5  11.147   72.7  0.0469   26.4  0.3688 -110.8
 3.100  0.4585 -158.4  10.923   70.7  0.0474   25.6  0.3595 -114.0
 3.200  0.4535 -161.1  10.716   68.9  0.0478   24.8  0.3486 -117.4
 3.300  0.4548 -164.8  10.395   66.7  0.0483   24.1  0.3412 -121.0
 3.400  0.4538 -167.8  10.157   64.8  0.0490   23.6  0.3355 -124.3
 3.500  0.4551 -171.2   9.874   62.7  0.0494   23.1  0.3292 -127.5
 3.600  0.4532 -173.5   9.742   60.9  0.0495   22.2  0.3217 -130.7
 3.700  0.4528 -176.4   9.512   59.1  0.0500   21.7  0.3165 -134.2
 3.800  0.4542 -179.5   9.275   57.2  0.0504   21.2  0.3132 -137.5
 3.900  0.4574  177.5   9.025   55.3  0.0508   20.8  0.3119 -140.7
 4.000  0.4599  174.9   8.821   53.4  0.0511   20.5  0.3090 -143.6
 4.100  0.4607  172.3   8.636   51.7  0.0514   19.7  0.3064 -146.8
 4.200  0.4626  170.0   8.462   50.1  0.0516   19.3  0.3030 -150.0
 4.300  0.4654  167.6   8.280   48.4  0.0522   18.6  0.3023 -153.4
 4.400  0.4690  165.2   8.089   46.7  0.0525   18.3  0.3013 -156.2
 4.500  0.4728  163.0   7.917   45.0  0.0530   17.8  0.3010 -158.9
 4.600  0.4760  160.9   7.748   43.4  0.0530   17.5  0.3000 -161.6
 4.700  0.4786  159.1   7.623   41.8  0.0535   16.9  0.2990 -164.6
 4.800  0.4823  157.0   7.450   40.3  0.0540   16.6  0.2994 -167.3
 4.900  0.4871  155.0   7.276   38.6  0.0543   16.2  0.2995 -169.9
 5.000  0.4908  153.3   7.135   37.1  0.0547   15.9  0.2993 -172.5
 5.100  0.4937  151.7   7.009   35.6  0.0552   15.4  0.2986 -174.8
 5.200  0.4974  150.0   6.878   34.0  0.0556   15.0  0.2977 -177.4
 5.300  0.5002  148.5   6.750   32.5  0.0558   14.7  0.2977 -179.9
 5.400  0.5040  146.9   6.605   31.0  0.0563   14.3  0.2975  178.0
 5.500  0.5075  145.4   6.479   29.4  0.0566   14.3  0.2983  175.6
 5.600  0.5112  143.8   6.345   27.9  0.0570   14.1  0.2972  173.4
 5.700  0.5123  142.6   6.238   26.5  0.0574   13.7  0.2971  171.1
 5.800  0.5142  141.2   6.119   25.2  0.0579   13.6  0.2978  168.8
 5.900  0.5171  140.0   6.013   23.8  0.0583   13.4  0.2991  166.8
 6.000  0.5207  138.7   5.900   22.3  0.0592   13.1  0.3000  164.7
 6.100  0.5229  137.5   5.799   21.0  0.0599   12.9  0.3033  162.8
 6.200  0.5259  136.3   5.707   19.6  0.0605   12.4  0.3055  160.9
 6.300  0.5302  134.9   5.598   18.1  0.0614   12.1  0.3097  158.9
 6.400  0.5335  133.6   5.513   16.7  0.0621   11.7  0.3132  157.2
 6.500  0.5377  132.2   5.415   15.2  0.0627   11.2  0.3175  155.2
 6.600  0.5400  131.0   5.344   13.8  0.0634   10.8  0.3215  153.5
 6.700  0.5434  129.6   5.263   12.4  0.0641   10.3  0.3263  151.9
 6.800  0.5461  128.3   5.182   11.0  0.0648    9.7  0.3304  150.3
 6.900  0.5488  126.8   5.104    9.6  0.0655    9.2  0.3357  149.0
 7.000  0.5523  125.4   5.026    8.1  0.0663    8.7  0.3391  147.3
 7.100  0.5551  124.1   4.962    6.7  0.0671    8.1  0.3445  145.8
 7.200  0.5578  122.7   4.901    5.2  0.0678    7.4  0.3480  144.2
 7.300  0.5613  121.3   4.832    3.8  0.0684    6.8  0.3528  142.6
 7.400  0.5641  119.7   4.757    2.2  0.0691    6.1  0.3565  141.1
 7.500  0.5691  118.1   4.691    0.6  0.0697    5.4  0.3611  139.4
 7.600  0.5720  116.5   4.627   -0.9  0.0704    4.7  0.3649  137.7
 7.700  0.5778  114.9   4.559   -2.4  0.0711    4.0  0.3689  136.0
 7.800  0.5827  113.2   4.484   -4.0  0.0715    3.1  0.3726  134.2
 7.900  0.5890  111.5   4.420   -5.7  0.0722    2.3  0.3766  132.3
 8.000  0.5949  109.9   4.349   -7.3  0.0724    1.6  0.3804  130.2
 8.500  0.6323  101.7   3.997  -15.3  0.0746   -2.1  0.4074  119.7
 9.000  0.6738   94.2   3.622  -23.1  0.0759   -5.9  0.4540  109.6
 9.500  0.7060   88.1   3.235  -29.5  0.0762   -9.2  0.5095  101.7
10.000  0.7272   83.7   2.920  -34.4  0.0768  -11.6  0.5609   97.4
10.500  0.7443   80.7   2.702  -38.4  0.0772  -14.0  0.5968   95.4
11.000  0.7660   78.5   2.555  -43.0  0.0784  -15.4  0.6222   94.1
11.500  0.7960   76.5   2.423  -48.7  0.0808  -17.4  0.6287   92.1
12.000  0.8173   74.6   2.259  -55.1  0.0838  -19.6  0.6327   89.4
!
!  f       NFmin   Gammaopt  rn/50
! GHz       dB    MAG  ANG    -
 0.450      0.96  0.19    1   0.13
 0.900      0.97  0.19    4   0.13
 1.500      0.97  0.20    8   0.12
 1.900      0.98  0.17   12   0.12
 2.400      0.99  0.14   19   0.12
 3.500      1.00  0.05   63   0.10
 5.500      1.03  0.07 -165   0.10
 8.000      1.14  0.29 -116   0.12
10.000      1.26  0.49  -83   0.22
12.000      1.48  0.62  -68   0.31
!
! (c) 2012  Infineon Technologies AG, Munich
