! Infineon Technologies  Discrete & RF Semiconductors
! BFP840ESD
! VCE =  2.0 V,  IC =  14 mA
! Common Emitter S-Parameters:                            May 2012
# GHz  S  MA  R  50
!  f         S11            S21            S12            S22
! GHz     MAG   ANG      MAG   ANG      MAG   ANG      MAG   ANG
 0.030  0.8293   -1.3  32.709  177.1  0.0010  112.4  0.9750    0.2
 0.080  0.8298   -4.0  32.600  174.6  0.0020   76.0  0.9875   -2.5
 0.130  0.8283   -6.8  32.290  172.1  0.0029   79.6  0.9874   -4.8
 0.180  0.8247   -9.4  31.929  169.4  0.0042   83.9  0.9831   -7.0
 0.230  0.8203  -11.9  31.600  166.8  0.0054   78.6  0.9775   -9.1
 0.280  0.8148  -14.5  31.250  164.2  0.0066   77.7  0.9712  -11.1
 0.330  0.8090  -17.0  30.820  161.7  0.0077   77.7  0.9645  -13.0
 0.380  0.8025  -19.4  30.389  159.4  0.0090   76.3  0.9566  -14.9
 0.430  0.7958  -21.8  29.960  157.1  0.0103   75.3  0.9478  -16.8
 0.500  0.7858  -25.2  29.399  154.0  0.0115   72.6  0.9349  -19.3
 0.600  0.7697  -29.9  28.557  149.8  0.0135   70.3  0.9161  -22.8
 0.700  0.7534  -34.5  27.758  146.0  0.0155   67.7  0.8966  -26.1
 0.800  0.7351  -39.1  27.061  142.2  0.0171   65.2  0.8753  -29.3
 0.900  0.7174  -43.5  26.296  138.6  0.0190   63.2  0.8541  -32.5
 1.000  0.6992  -47.9  25.538  135.1  0.0207   60.7  0.8324  -35.4
 1.100  0.6815  -52.1  24.810  131.8  0.0223   58.5  0.8103  -38.3
 1.200  0.6633  -56.3  24.093  128.5  0.0235   56.3  0.7888  -41.2
 1.300  0.6455  -60.4  23.414  125.3  0.0248   54.5  0.7661  -43.9
 1.400  0.6278  -64.5  22.758  122.2  0.0261   52.9  0.7454  -46.6
 1.500  0.6101  -68.4  22.151  119.2  0.0272   50.8  0.7240  -49.1
 1.600  0.5922  -72.4  21.558  116.2  0.0282   49.6  0.7030  -51.6
 1.700  0.5759  -76.2  20.952  113.4  0.0292   47.8  0.6829  -54.0
 1.800  0.5605  -80.0  20.353  110.7  0.0301   46.2  0.6639  -56.4
 1.900  0.5454  -83.8  19.796  108.0  0.0308   45.1  0.6446  -58.7
 2.000  0.5313  -87.4  19.252  105.4  0.0317   44.0  0.6266  -60.9
 2.100  0.5179  -91.0  18.744  102.9  0.0325   42.1  0.6092  -63.1
 2.200  0.5051  -94.6  18.245  100.4  0.0330   41.5  0.5919  -65.2
 2.300  0.4931  -98.3  17.767   98.0  0.0337   40.4  0.5741  -67.3
 2.400  0.4824 -101.8  17.307   95.7  0.0343   39.5  0.5584  -69.4
 2.500  0.4719 -105.4  16.870   93.3  0.0350   38.4  0.5421  -71.3
 2.600  0.4612 -108.9  16.443   91.0  0.0355   37.5  0.5262  -73.4
 2.700  0.4517 -112.4  16.034   88.8  0.0360   36.7  0.5107  -75.4
 2.800  0.4422 -116.0  15.652   86.6  0.0365   35.8  0.4961  -77.4
 2.900  0.4347 -119.5  15.283   84.4  0.0370   35.5  0.4817  -79.5
 3.000  0.4265 -123.0  14.913   82.3  0.0374   34.8  0.4687  -81.4
 3.100  0.4195 -126.6  14.579   80.2  0.0380   34.3  0.4556  -83.6
 3.200  0.4125 -130.0  14.231   78.1  0.0384   33.5  0.4433  -85.8
 3.300  0.4069 -133.6  13.913   76.0  0.0390   32.9  0.4315  -88.1
 3.400  0.4009 -137.0  13.587   74.0  0.0395   32.3  0.4209  -90.3
 3.500  0.3960 -140.6  13.288   72.0  0.0398   32.0  0.4098  -92.6
 3.600  0.3910 -144.0  12.985   70.1  0.0403   31.2  0.3996  -95.0
 3.700  0.3874 -147.6  12.693   68.1  0.0408   31.0  0.3899  -97.4
 3.800  0.3836 -151.1  12.407   66.2  0.0412   30.7  0.3808  -99.8
 3.900  0.3814 -154.6  12.138   64.3  0.0413   30.1  0.3728 -102.3
 4.000  0.3795 -158.0  11.864   62.4  0.0419   29.5  0.3650 -104.7
 4.100  0.3788 -161.4  11.604   60.5  0.0423   29.2  0.3574 -107.3
 4.200  0.3786 -164.7  11.361   58.7  0.0425   29.0  0.3511 -109.8
 4.300  0.3792 -167.8  11.117   56.9  0.0429   28.3  0.3452 -112.3
 4.400  0.3795 -171.0  10.876   55.1  0.0432   28.1  0.3395 -114.7
 4.500  0.3817 -173.8  10.653   53.3  0.0438   27.5  0.3341 -117.1
 4.600  0.3828 -176.7  10.425   51.7  0.0442   27.4  0.3290 -119.6
 4.700  0.3856 -179.4  10.224   49.9  0.0445   27.2  0.3246 -121.9
 4.800  0.3879  178.0  10.017   48.3  0.0450   26.9  0.3198 -124.1
 4.900  0.3909  175.6   9.813   46.6  0.0454   26.5  0.3156 -126.4
 5.000  0.3940  173.3   9.620   45.0  0.0457   26.4  0.3111 -128.6
 5.100  0.3975  171.1   9.435   43.4  0.0461   26.1  0.3072 -130.9
 5.200  0.4009  168.9   9.256   41.7  0.0465   25.9  0.3030 -133.1
 5.300  0.4040  166.8   9.078   40.1  0.0471   25.7  0.2991 -135.4
 5.400  0.4069  165.0   8.910   38.6  0.0475   25.5  0.2951 -137.5
 5.500  0.4098  163.0   8.747   37.0  0.0480   25.4  0.2917 -139.8
 5.600  0.4129  161.2   8.588   35.5  0.0484   25.4  0.2874 -142.0
 5.700  0.4150  159.5   8.424   34.0  0.0489   25.2  0.2841 -144.1
 5.800  0.4171  157.9   8.270   32.5  0.0495   25.2  0.2811 -146.4
 5.900  0.4202  156.3   8.132   31.0  0.0502   25.1  0.2791 -148.6
 6.000  0.4232  154.9   7.999   29.5  0.0506   25.0  0.2765 -150.8
 6.100  0.4262  153.5   7.865   28.1  0.0514   25.0  0.2765 -153.1
 6.200  0.4298  152.0   7.741   26.7  0.0522   24.5  0.2758 -155.3
 6.300  0.4333  150.5   7.622   25.2  0.0531   24.3  0.2763 -157.8
 6.400  0.4369  149.1   7.510   23.7  0.0538   24.0  0.2769 -160.0
 6.500  0.4407  147.5   7.399   22.3  0.0545   23.7  0.2783 -162.6
 6.600  0.4436  146.2   7.292   20.8  0.0553   23.4  0.2796 -164.8
 6.700  0.4472  144.5   7.190   19.3  0.0561   22.9  0.2819 -167.1
 6.800  0.4497  143.0   7.084   17.9  0.0570   22.7  0.2842 -169.2
 6.900  0.4527  141.4   6.985   16.4  0.0577   22.3  0.2874 -171.3
 7.000  0.4560  139.9   6.891   14.9  0.0587   21.9  0.2896 -173.4
 7.100  0.4593  138.4   6.802   13.5  0.0595   21.5  0.2933 -175.5
 7.200  0.4624  136.8   6.719   12.0  0.0605   20.9  0.2960 -177.6
 7.300  0.4657  135.2   6.631   10.5  0.0614   20.4  0.2992 -179.7
 7.400  0.4684  133.6   6.542    8.9  0.0621   19.6  0.3019  178.3
 7.500  0.4729  131.9   6.466    7.4  0.0630   19.3  0.3051  176.2
 7.600  0.4764  130.1   6.382    5.8  0.0640   18.5  0.3079  174.1
 7.700  0.4820  128.4   6.303    4.3  0.0648   18.0  0.3104  172.1
 7.800  0.4869  126.5   6.222    2.6  0.0656   17.3  0.3128  169.8
 7.900  0.4937  124.7   6.145    1.0  0.0666   16.5  0.3154  167.5
 8.000  0.4997  122.8   6.062   -0.7  0.0672   15.6  0.3174  165.0
 8.500  0.5422  113.8   5.644   -9.0  0.0708   12.1  0.3331  151.6
 9.000  0.5951  105.3   5.189  -17.4  0.0742    7.9  0.3725  136.9
 9.500  0.6417   98.1   4.675  -25.0  0.0760    4.2  0.4304  124.7
10.000  0.6745   92.7   4.228  -31.1  0.0780    0.9  0.4942  117.4
10.500  0.6995   88.7   3.887  -36.0  0.0795   -2.1  0.5454  113.3
11.000  0.7271   86.0   3.661  -41.2  0.0814   -4.2  0.5851  110.5
11.500  0.7637   83.7   3.462  -47.3  0.0843   -6.8  0.6004  107.5
12.000  0.7940   81.5   3.231  -54.2  0.0883   -9.3  0.6098  104.1
!
!  f       NFmin   Gammaopt  rn/50
! GHz       dB    MAG  ANG    -
 0.450      0.96  0.19    1   0.13
 0.900      0.97  0.19    4   0.13
 1.500      0.97  0.20    8   0.12
 1.900      0.98  0.17   12   0.12
 2.400      0.99  0.14   19   0.12
 3.500      1.00  0.05   63   0.10
 5.500      1.03  0.07 -165   0.10
 8.000      1.14  0.29 -116   0.12
10.000      1.26  0.49  -83   0.22
12.000      1.48  0.62  -68   0.31
!
! (c) 2012  Infineon Technologies AG, Munich
