! Infineon Technologies  Discrete & RF Semiconductors
! BFP843
! VCE =  0.5 V,  IC =  2.0 mA
! Common Emitter S-Parameters:                            Aug 2013
# GHz  S  MA  R  50
!  f         S11            S21            S12            S22
! GHz     MAG   ANG      MAG   ANG      MAG   ANG      MAG   ANG
 0.030  0.7844  -12.7   6.025  171.0  0.0603   37.5  0.8037  -12.4
 0.040  0.7396  -12.3   5.828  171.1  0.0645   29.0  0.7595  -12.2
 0.050  0.7109  -11.6   5.718  172.6  0.0699   21.6  0.7335  -12.1
 0.060  0.7018  -10.8   5.620  172.5  0.0693   20.0  0.7166  -11.5
 0.070  0.6846  -10.1   5.531  172.8  0.0696   17.3  0.7055  -10.4
 0.080  0.6769   -9.1   5.513  172.8  0.0725   15.9  0.6975  -10.3
 0.090  0.6682   -9.1   5.530  172.8  0.0718   13.4  0.6901  -10.1
 0.100  0.6625   -8.8   5.454  172.8  0.0720   13.1  0.6861  -10.0
 0.110  0.6619   -9.0   5.498  172.9  0.0739   12.0  0.6836   -9.7
 0.120  0.6584   -8.3   5.427  172.8  0.0724   10.6  0.6844   -9.8
 0.130  0.6577   -8.5   5.457  172.8  0.0732    9.7  0.6784   -9.9
 0.140  0.6527   -8.5   5.452  172.2  0.0745    9.9  0.6783   -9.7
 0.150  0.6557   -8.6   5.461  172.3  0.0741    9.4  0.6755  -10.1
 0.200  0.6500   -8.7   5.385  171.1  0.0749    6.3  0.6721  -11.1
 0.250  0.6490   -9.4   5.397  169.7  0.0757    5.9  0.6698  -12.5
 0.300  0.6482  -10.4   5.327  168.4  0.0749    5.1  0.6685  -14.1
 0.350  0.6446  -11.6   5.328  166.9  0.0758    4.6  0.6666  -15.7
 0.400  0.6436  -12.7   5.319  165.5  0.0757    3.4  0.6642  -17.5
 0.450  0.6410  -13.9   5.327  164.0  0.0754    3.3  0.6615  -19.3
 0.500  0.6397  -15.3   5.315  162.5  0.0761    2.8  0.6594  -21.2
 0.600  0.6377  -17.8   5.258  159.3  0.0775    2.3  0.6562  -24.9
 0.700  0.6328  -20.4   5.235  156.2  0.0782    1.9  0.6504  -28.6
 0.800  0.6290  -23.1   5.209  153.0  0.0783    0.9  0.6461  -32.5
 0.900  0.6240  -25.7   5.168  149.8  0.0793    0.9  0.6406  -36.3
 1.000  0.6209  -28.4   5.110  146.7  0.0806   -0.1  0.6353  -40.2
 1.100  0.6158  -31.1   5.061  143.7  0.0816   -0.5  0.6298  -44.0
 1.200  0.6098  -34.0   5.033  140.6  0.0816   -1.2  0.6224  -47.9
 1.300  0.6038  -36.6   4.976  137.5  0.0827   -1.9  0.6181  -51.7
 1.400  0.6000  -39.5   4.924  134.6  0.0834   -2.8  0.6108  -55.4
 1.500  0.5944  -42.2   4.851  131.7  0.0844   -3.8  0.6072  -59.2
 1.600  0.5877  -45.0   4.811  128.6  0.0851   -4.8  0.6021  -63.1
 1.700  0.5816  -47.8   4.765  125.6  0.0856   -5.6  0.5948  -66.8
 1.800  0.5771  -50.6   4.676  122.8  0.0862   -6.8  0.5917  -70.6
 1.900  0.5704  -53.3   4.628  120.0  0.0869   -7.8  0.5833  -74.4
 2.000  0.5649  -56.2   4.571  117.1  0.0877   -8.8  0.5779  -78.2
 2.100  0.5580  -59.1   4.527  114.2  0.0877  -10.0  0.5725  -81.9
 2.200  0.5528  -62.1   4.460  111.6  0.0879  -11.2  0.5689  -85.5
 2.300  0.5474  -64.7   4.395  108.8  0.0883  -12.4  0.5625  -89.2
 2.400  0.5437  -67.6   4.336  106.0  0.0891  -13.9  0.5591  -92.7
 2.500  0.5363  -70.4   4.270  103.3  0.0889  -15.1  0.5541  -96.4
 2.600  0.5289  -73.4   4.236  100.7  0.0895  -16.1  0.5487  -99.9
 2.700  0.5237  -76.3   4.162   97.9  0.0891  -17.3  0.5427 -103.6
 2.800  0.5181  -79.3   4.114   95.3  0.0890  -19.0  0.5396 -107.1
 2.900  0.5140  -82.1   4.034   92.8  0.0886  -20.1  0.5361 -110.7
 3.000  0.5062  -85.2   3.992   90.0  0.0891  -21.5  0.5315 -114.4
 3.100  0.5015  -88.2   3.939   87.4  0.0892  -22.7  0.5284 -118.0
 3.200  0.4962  -91.1   3.873   84.8  0.0885  -24.3  0.5251 -121.6
 3.300  0.4897  -94.3   3.835   82.1  0.0877  -25.9  0.5238 -125.0
 3.400  0.4846  -97.4   3.767   79.6  0.0867  -27.1  0.5205 -128.5
 3.500  0.4796 -100.4   3.715   77.0  0.0863  -28.2  0.5191 -132.0
 3.600  0.4766 -103.4   3.639   74.4  0.0848  -29.8  0.5170 -135.3
 3.700  0.4712 -106.6   3.590   71.9  0.0847  -30.9  0.5167 -138.7
 3.800  0.4685 -109.9   3.531   69.4  0.0830  -32.8  0.5173 -141.9
 3.900  0.4634 -113.1   3.478   66.9  0.0824  -33.9  0.5163 -145.1
 4.000  0.4622 -116.3   3.416   64.4  0.0818  -35.3  0.5182 -148.3
 4.100  0.4597 -119.5   3.353   62.0  0.0798  -36.5  0.5191 -151.4
 4.200  0.4578 -122.9   3.299   59.6  0.0782  -38.2  0.5205 -154.3
 4.300  0.4560 -126.1   3.244   57.2  0.0775  -39.2  0.5227 -157.0
 4.400  0.4556 -129.7   3.186   54.8  0.0761  -40.4  0.5245 -159.7
 4.500  0.4550 -132.7   3.127   52.5  0.0743  -41.2  0.5273 -162.4
 4.600  0.4564 -136.1   3.069   50.2  0.0731  -42.8  0.5295 -164.9
 4.700  0.4582 -139.1   3.014   47.8  0.0710  -43.9  0.5322 -167.5
 4.800  0.4596 -142.7   2.971   45.5  0.0697  -44.8  0.5363 -169.8
 4.900  0.4615 -145.5   2.914   43.4  0.0678  -45.7  0.5375 -172.2
 5.000  0.4656 -148.5   2.849   41.1  0.0657  -46.5  0.5400 -174.6
 5.100  0.4679 -151.5   2.801   38.9  0.0642  -47.3  0.5428 -176.9
 5.200  0.4725 -154.3   2.747   36.8  0.0627  -47.9  0.5470 -178.9
 5.300  0.4754 -157.3   2.705   34.6  0.0609  -48.9  0.5499  179.0
 5.400  0.4803 -159.9   2.653   32.4  0.0589  -49.6  0.5526  176.9
 5.500  0.4842 -162.7   2.602   30.3  0.0576  -50.0  0.5549  174.8
 5.600  0.4898 -165.0   2.549   28.3  0.0553  -50.3  0.5579  172.9
 5.700  0.4918 -167.4   2.500   26.2  0.0530  -50.6  0.5612  170.9
 5.800  0.4965 -170.0   2.456   24.2  0.0517  -51.2  0.5647  169.1
 5.900  0.5000 -172.1   2.417   22.3  0.0497  -50.8  0.5685  167.2
 6.000  0.5053 -174.6   2.373   20.3  0.0475  -50.9  0.5716  165.4
 6.100  0.5107 -176.7   2.326   18.2  0.0461  -50.5  0.5754  163.4
 6.200  0.5141 -179.2   2.290   16.2  0.0451  -50.0  0.5796  161.6
 6.300  0.5197  178.8   2.248   14.3  0.0434  -49.2  0.5826  159.7
 6.400  0.5233  176.6   2.211   12.3  0.0415  -49.0  0.5867  157.9
 6.500  0.5282  174.5   2.166   10.5  0.0403  -47.3  0.5900  156.1
 6.600  0.5325  172.6   2.128    8.5  0.0388  -46.4  0.5939  154.3
 6.700  0.5363  170.4   2.099    6.8  0.0377  -45.3  0.5991  152.6
 6.800  0.5390  168.4   2.061    4.8  0.0367  -44.4  0.6021  150.9
 6.900  0.5433  166.3   2.027    3.0  0.0352  -41.9  0.6062  149.1
 7.000  0.5456  164.3   1.985    1.0  0.0346  -40.3  0.6114  147.4
 7.100  0.5509  161.9   1.958   -0.8  0.0333  -38.4  0.6159  145.7
 7.200  0.5540  159.9   1.924   -2.6  0.0331  -36.0  0.6199  144.1
 7.300  0.5575  157.4   1.903   -4.6  0.0327  -33.7  0.6253  142.4
 7.400  0.5620  155.3   1.868   -6.4  0.0321  -31.2  0.6300  140.7
 7.500  0.5655  152.9   1.840   -8.4  0.0321  -28.6  0.6342  139.0
 7.600  0.5716  150.7   1.807  -10.4  0.0319  -26.1  0.6393  137.2
 7.700  0.5773  148.2   1.781  -12.4  0.0317  -23.3  0.6448  135.4
 7.800  0.5825  146.0   1.755  -14.4  0.0323  -22.4  0.6490  133.7
 7.900  0.5891  143.4   1.725  -16.4  0.0324  -19.8  0.6555  131.8
 8.000  0.5956  141.3   1.695  -18.4  0.0333  -17.1  0.6603  130.0
 8.500  0.6344  129.3   1.535  -29.0  0.0373   -9.9  0.6893  120.5
 9.000  0.6747  116.3   1.355  -39.0  0.0425   -6.9  0.7238  111.1
 9.500  0.7097  106.4   1.165  -47.1  0.0472   -6.5  0.7563  103.3
10.000  0.7443   99.6   1.015  -52.7  0.0517   -6.0  0.7856   97.6
10.500  0.7872   94.0   0.907  -57.8  0.0558   -6.5  0.8105   94.5
11.000  0.8126   89.0   0.820  -63.1  0.0610   -7.3  0.8368   92.7
11.500  0.8241   85.4   0.745  -67.6  0.0666   -9.4  0.8506   90.8
12.000  0.8266   82.9   0.684  -71.7  0.0723  -12.5  0.8577   87.8
!
!  f       NFmin   Gammaopt  rn/50
! GHz       dB    MAG  ANG    -
 0.450      1.16  0.34    9   0.05
 0.900      1.19  0.35   19   0.08
 1.500      1.25  0.34   31   0.18
 1.900      1.30  0.33   40   0.27
 2.400      1.38  0.32   50   0.36
 3.500      1.55  0.27   71   0.52
 5.500      1.89  0.22  159   0.56
10.000      2.91  0.58  -85   0.63
!
! (c) 2013  Infineon Technologies AG, Munich
