! Infineon Technologies  Discrete & RF Semiconductors
! BFP843F
! VCE =  0.5 V,  IC =  4.0 mA
! Common Emitter S-Parameters:                            Aug 2013
# GHz  S  MA  R  50
!  f         S11            S21            S12            S22
! GHz     MAG   ANG      MAG   ANG      MAG   ANG      MAG   ANG
 0.030  0.6599  -21.7  10.379  168.3  0.0553   34.4  0.6964  -20.9
 0.040  0.5957  -21.3   9.943  168.5  0.0600   27.0  0.6311  -20.4
 0.050  0.5558  -19.8   9.620  170.6  0.0615   20.6  0.5971  -19.6
 0.060  0.5317  -19.2   9.486  171.2  0.0617   22.6  0.5690  -18.5
 0.070  0.5156  -17.6   9.343  171.3  0.0641   17.7  0.5534  -17.0
 0.080  0.5039  -15.8   9.283  171.5  0.0627   12.4  0.5400  -16.4
 0.090  0.4914  -15.4   9.273  171.5  0.0677   15.8  0.5303  -15.9
 0.100  0.4897  -14.6   9.154  171.6  0.0648   12.8  0.5221  -15.2
 0.110  0.4787  -14.5   9.197  171.9  0.0656    9.7  0.5176  -14.8
 0.120  0.4781  -13.6   9.123  171.8  0.0668   10.2  0.5156  -14.5
 0.130  0.4770  -13.0   9.099  171.8  0.0660    9.8  0.5096  -14.1
 0.140  0.4701  -13.1   9.102  171.4  0.0675    8.7  0.5139  -14.1
 0.150  0.4728  -13.1   9.090  171.6  0.0660    9.3  0.5080  -14.2
 0.200  0.4660  -12.7   8.986  170.4  0.0662    7.3  0.5035  -14.6
 0.250  0.4623  -12.9   8.977  169.2  0.0685    5.7  0.4994  -16.0
 0.300  0.4650  -13.8   8.884  168.1  0.0680    5.2  0.4973  -17.2
 0.350  0.4603  -15.0   8.866  166.6  0.0682    4.3  0.4966  -18.9
 0.400  0.4599  -16.5   8.826  165.3  0.0688    3.8  0.4953  -20.7
 0.450  0.4568  -17.7   8.817  163.9  0.0685    3.7  0.4946  -22.6
 0.500  0.4572  -19.1   8.760  162.6  0.0694    3.4  0.4943  -24.7
 0.600  0.4540  -22.2   8.685  159.7  0.0696    2.6  0.4889  -28.9
 0.700  0.4501  -25.3   8.600  156.7  0.0702    3.0  0.4854  -33.0
 0.800  0.4453  -28.5   8.536  153.7  0.0708    1.9  0.4827  -37.4
 0.900  0.4410  -31.7   8.459  150.7  0.0711    1.9  0.4763  -41.8
 1.000  0.4394  -34.7   8.317  147.9  0.0717    1.7  0.4734  -46.1
 1.100  0.4346  -37.9   8.226  145.0  0.0721    1.1  0.4699  -50.5
 1.200  0.4309  -41.2   8.120  142.2  0.0731    0.7  0.4685  -54.8
 1.300  0.4251  -44.2   8.010  139.2  0.0731   -0.1  0.4652  -59.1
 1.400  0.4227  -47.4   7.874  136.5  0.0736   -0.5  0.4620  -63.4
 1.500  0.4200  -50.3   7.721  134.0  0.0738   -0.8  0.4605  -67.5
 1.600  0.4145  -53.6   7.633  131.1  0.0741   -1.9  0.4611  -71.7
 1.700  0.4128  -56.6   7.479  128.5  0.0743   -2.1  0.4579  -75.7
 1.800  0.4080  -59.8   7.356  125.9  0.0748   -2.6  0.4598  -79.7
 1.900  0.4053  -62.5   7.201  123.6  0.0753   -3.4  0.4573  -83.7
 2.000  0.4038  -65.6   7.096  120.9  0.0757   -4.4  0.4611  -87.3
 2.100  0.4021  -68.6   6.934  118.5  0.0752   -4.8  0.4616  -91.0
 2.200  0.3999  -71.4   6.788  116.2  0.0758   -5.7  0.4650  -94.6
 2.300  0.3976  -74.3   6.674  113.9  0.0757   -6.2  0.4650  -97.9
 2.400  0.3975  -76.9   6.544  111.6  0.0754   -7.1  0.4694 -101.0
 2.500  0.3959  -79.7   6.404  109.3  0.0747   -7.6  0.4714 -104.0
 2.600  0.3968  -82.0   6.254  107.3  0.0753   -8.4  0.4758 -106.6
 2.700  0.3949  -84.7   6.132  105.2  0.0754   -9.2  0.4764 -109.4
 2.800  0.3965  -87.0   6.004  103.3  0.0746   -9.6  0.4819 -111.9
 2.900  0.3959  -89.9   5.915  101.2  0.0750  -10.1  0.4847 -114.4
 3.000  0.3961  -92.0   5.780   99.3  0.0741  -10.6  0.4885 -116.8
 3.100  0.3967  -94.5   5.672   97.4  0.0747  -11.7  0.4917 -118.8
 3.200  0.3971  -96.8   5.559   95.5  0.0740  -12.2  0.4942 -121.2
 3.300  0.3972  -99.3   5.461   93.7  0.0738  -12.3  0.4969 -123.1
 3.400  0.3982 -101.6   5.358   91.9  0.0730  -13.5  0.5009 -125.2
 3.500  0.4001 -103.9   5.258   90.1  0.0734  -14.0  0.5035 -126.8
 3.600  0.4016 -106.1   5.157   88.3  0.0728  -14.1  0.5055 -128.7
 3.700  0.4026 -108.4   5.064   86.6  0.0721  -15.4  0.5067 -130.3
 3.800  0.4031 -110.6   4.981   84.9  0.0719  -15.9  0.5089 -132.2
 3.900  0.4043 -112.9   4.899   83.2  0.0715  -16.3  0.5099 -133.8
 4.000  0.4081 -114.8   4.798   81.5  0.0708  -16.9  0.5131 -135.4
 4.100  0.4090 -117.3   4.733   79.8  0.0706  -17.5  0.5132 -137.1
 4.200  0.4109 -119.3   4.644   78.2  0.0701  -17.8  0.5153 -138.7
 4.300  0.4119 -121.7   4.582   76.6  0.0695  -18.3  0.5146 -140.4
 4.400  0.4146 -123.8   4.498   75.0  0.0695  -19.0  0.5156 -141.9
 4.500  0.4157 -126.0   4.434   73.4  0.0687  -19.5  0.5177 -143.3
 4.600  0.4189 -128.1   4.359   71.7  0.0681  -19.8  0.5189 -144.9
 4.700  0.4232 -129.9   4.292   70.2  0.0675  -20.7  0.5192 -146.6
 4.800  0.4236 -132.3   4.232   68.6  0.0671  -20.9  0.5204 -148.1
 4.900  0.4275 -134.1   4.163   67.1  0.0664  -22.0  0.5213 -149.4
 5.000  0.4305 -136.0   4.100   65.5  0.0654  -22.1  0.5210 -151.0
 5.100  0.4321 -138.0   4.038   63.9  0.0653  -22.8  0.5205 -152.6
 5.200  0.4356 -140.1   3.982   62.3  0.0644  -23.3  0.5221 -154.2
 5.300  0.4375 -142.0   3.924   60.7  0.0638  -23.8  0.5220 -155.7
 5.400  0.4411 -143.9   3.870   59.2  0.0631  -24.7  0.5230 -157.2
 5.500  0.4431 -145.6   3.803   57.7  0.0624  -24.4  0.5240 -158.6
 5.600  0.4465 -147.4   3.754   56.2  0.0617  -24.9  0.5245 -160.1
 5.700  0.4488 -149.1   3.692   54.5  0.0604  -25.3  0.5245 -161.6
 5.800  0.4508 -151.3   3.652   53.0  0.0596  -25.9  0.5245 -163.2
 5.900  0.4543 -152.7   3.592   51.6  0.0593  -26.5  0.5246 -164.6
 6.000  0.4552 -154.7   3.550   50.0  0.0580  -27.0  0.5250 -166.0
 6.100  0.4590 -156.3   3.491   48.4  0.0574  -27.2  0.5245 -167.6
 6.200  0.4582 -158.4   3.448   46.8  0.0569  -27.9  0.5233 -169.2
 6.300  0.4605 -159.9   3.394   45.3  0.0554  -27.7  0.5220 -170.7
 6.400  0.4617 -161.8   3.346   43.8  0.0542  -28.1  0.5228 -172.2
 6.500  0.4629 -163.5   3.293   42.3  0.0532  -28.5  0.5216 -173.6
 6.600  0.4644 -165.2   3.241   40.7  0.0519  -28.9  0.5197 -175.3
 6.700  0.4639 -167.2   3.197   39.3  0.0508  -28.6  0.5180 -176.6
 6.800  0.4662 -168.7   3.147   37.8  0.0494  -28.9  0.5159 -178.1
 6.900  0.4675 -170.5   3.100   36.3  0.0487  -28.8  0.5147 -179.6
 7.000  0.4687 -172.1   3.052   34.8  0.0470  -27.8  0.5120  178.8
 7.100  0.4703 -174.1   3.004   33.3  0.0461  -27.6  0.5115  177.3
 7.200  0.4723 -175.6   2.963   31.9  0.0449  -26.7  0.5094  175.8
 7.300  0.4734 -177.6   2.920   30.4  0.0437  -25.9  0.5101  174.3
 7.400  0.4766 -179.2   2.877   28.9  0.0432  -24.6  0.5091  172.8
 7.500  0.4813  179.1   2.834   27.5  0.0421  -24.0  0.5112  171.2
 7.600  0.4849  177.3   2.794   26.1  0.0420  -22.6  0.5110  169.6
 7.700  0.4895  175.1   2.763   24.6  0.0415  -21.2  0.5131  167.6
 7.800  0.4948  173.4   2.718   23.1  0.0410  -21.1  0.5147  165.9
 7.900  0.5001  171.3   2.681   21.6  0.0410  -19.6  0.5176  163.9
 8.000  0.5073  170.0   2.636   20.1  0.0407  -18.6  0.5217  162.2
 8.500  0.5421  161.2   2.442   12.5  0.0393  -14.8  0.5453  152.1
 9.000  0.5804  153.9   2.240    5.0  0.0387  -11.1  0.5790  142.1
 9.500  0.6168  147.1   2.020   -2.1  0.0384   -6.7  0.6217  133.4
10.000  0.6413  141.3   1.791   -8.5  0.0379   -3.0  0.6674  126.3
10.500  0.6661  136.5   1.600  -13.4  0.0391    1.6  0.7106  121.2
11.000  0.6935  131.3   1.451  -17.8  0.0404    5.2  0.7487  118.7
11.500  0.7171  126.7   1.313  -21.4  0.0419    8.9  0.7740  119.1
12.000  0.7358  123.2   1.186  -24.1  0.0435   13.3  0.8001  122.2
!
!  f       NFmin   Gammaopt  rn/50
! GHz       dB    MAG  ANG    -
 0.450      0.87  0.19   11   0.07
 0.900      0.87  0.20   21   0.08
 1.500      0.95  0.20   27   0.08
 1.900      1.01  0.20   42   0.08
 2.400      1.04  0.19   56   0.09
 3.500      1.12  0.20   83   0.14
 5.500      1.25  0.19  144   0.22
10.000      2.02  0.40 -128   0.24
!
! (c) 2013  Infineon Technologies AG, Munich
