! Infineon Technologies  Discrete & RF Semiconductors
! BFP840ESD
! VCE =  1.8 V,  IC =  5.0 mA
! Common Emitter S-Parameters:                            May 2012
# GHz  S  MA  R  50
!  f         S11            S21            S12            S22
! GHz     MAG   ANG      MAG   ANG      MAG   ANG      MAG   ANG
 0.030  0.9440   -0.9  14.520  178.0  0.0007   84.8  0.9959   -0.7
 0.080  0.9434   -2.6  14.531  176.5  0.0021   80.6  0.9972   -2.2
 0.130  0.9428   -4.3  14.509  175.1  0.0034   87.4  0.9969   -3.6
 0.180  0.9416   -5.9  14.408  173.4  0.0042   84.0  0.9954   -5.0
 0.230  0.9402   -7.5  14.362  171.7  0.0059   84.5  0.9935   -6.4
 0.280  0.9382   -9.1  14.309  169.9  0.0072   82.4  0.9917   -7.8
 0.330  0.9356  -10.7  14.232  168.3  0.0084   79.6  0.9894   -9.2
 0.380  0.9331  -12.3  14.163  166.6  0.0099   79.0  0.9867  -10.5
 0.430  0.9305  -13.9  14.076  165.0  0.0110   78.7  0.9841  -11.9
 0.500  0.9263  -16.1  14.021  162.8  0.0127   76.0  0.9790  -13.8
 0.600  0.9190  -19.3  13.853  159.6  0.0151   75.1  0.9715  -16.5
 0.700  0.9118  -22.5  13.713  156.8  0.0174   73.2  0.9636  -19.2
 0.800  0.9024  -25.7  13.704  153.7  0.0200   69.8  0.9543  -21.8
 0.900  0.8932  -28.9  13.561  150.7  0.0222   67.6  0.9447  -24.5
 1.000  0.8835  -32.0  13.389  147.9  0.0242   65.3  0.9342  -27.1
 1.100  0.8738  -35.0  13.209  145.1  0.0265   63.2  0.9234  -29.7
 1.200  0.8630  -38.1  13.042  142.2  0.0284   61.1  0.9116  -32.2
 1.300  0.8520  -41.2  12.882  139.4  0.0302   58.7  0.8989  -34.8
 1.400  0.8412  -44.3  12.722  136.7  0.0321   56.6  0.8868  -37.3
 1.500  0.8294  -47.3  12.582  134.0  0.0340   54.9  0.8735  -39.8
 1.600  0.8156  -50.6  12.535  131.1  0.0355   52.5  0.8598  -42.3
 1.700  0.8032  -53.6  12.367  128.4  0.0371   50.6  0.8467  -44.7
 1.800  0.7916  -56.6  12.174  125.9  0.0386   48.2  0.8338  -47.2
 1.900  0.7795  -59.6  11.998  123.3  0.0401   46.5  0.8194  -49.6
 2.000  0.7675  -62.5  11.821  120.7  0.0414   45.1  0.8056  -52.0
 2.100  0.7556  -65.5  11.667  118.2  0.0426   42.9  0.7917  -54.3
 2.200  0.7440  -68.4  11.509  115.8  0.0439   41.1  0.7785  -56.7
 2.300  0.7315  -71.5  11.346  113.3  0.0450   39.5  0.7635  -59.0
 2.400  0.7207  -74.4  11.178  110.9  0.0460   37.5  0.7502  -61.4
 2.500  0.7095  -77.3  11.010  108.5  0.0468   36.3  0.7353  -63.6
 2.600  0.6980  -80.4  10.871  106.1  0.0476   34.3  0.7201  -66.0
 2.700  0.6857  -83.4  10.722  103.7  0.0486   33.1  0.7054  -68.2
 2.800  0.6732  -86.5  10.599  101.2  0.0491   31.5  0.6901  -70.5
 2.900  0.6627  -89.6  10.459   98.8  0.0498   29.9  0.6760  -72.9
 3.000  0.6502  -92.7  10.315   96.4  0.0504   28.7  0.6621  -75.1
 3.100  0.6364  -96.0  10.233   93.9  0.0510   27.2  0.6483  -77.5
 3.200  0.6244  -99.1  10.081   91.5  0.0514   25.6  0.6347  -79.9
 3.300  0.6142 -102.2   9.943   89.1  0.0519   24.3  0.6210  -82.4
 3.400  0.6028 -105.3   9.788   86.8  0.0524   23.0  0.6083  -84.9
 3.500  0.5922 -108.4   9.646   84.5  0.0528   21.6  0.5955  -87.4
 3.600  0.5809 -111.6   9.490   82.2  0.0530   20.6  0.5833  -89.8
 3.700  0.5702 -114.8   9.342   79.9  0.0532   19.4  0.5711  -92.3
 3.800  0.5597 -118.0   9.192   77.6  0.0531   18.1  0.5596  -94.8
 3.900  0.5504 -121.3   9.049   75.4  0.0535   17.1  0.5488  -97.4
 4.000  0.5414 -124.5   8.893   73.2  0.0535   15.7  0.5382  -99.9
 4.100  0.5334 -127.8   8.737   70.9  0.0535   15.0  0.5283 -102.5
 4.200  0.5258 -131.0   8.597   68.8  0.0534   13.9  0.5188 -104.9
 4.300  0.5196 -134.3   8.447   66.6  0.0533   13.0  0.5100 -107.5
 4.400  0.5134 -137.4   8.297   64.5  0.0532   12.1  0.5013 -109.9
 4.500  0.5095 -140.5   8.151   62.4  0.0530   11.2  0.4929 -112.3
 4.600  0.5038 -143.7   8.013   60.3  0.0529   10.6  0.4847 -114.7
 4.700  0.5004 -146.7   7.884   58.3  0.0527    9.8  0.4775 -117.0
 4.800  0.4972 -149.7   7.744   56.4  0.0524    9.2  0.4697 -119.3
 4.900  0.4944 -152.7   7.613   54.3  0.0521    8.5  0.4625 -121.5
 5.000  0.4929 -155.5   7.477   52.4  0.0519    8.0  0.4555 -123.7
 5.100  0.4914 -158.3   7.352   50.5  0.0515    7.5  0.4493 -125.9
 5.200  0.4909 -161.1   7.225   48.5  0.0513    7.1  0.4424 -128.0
 5.300  0.4900 -163.7   7.100   46.6  0.0511    7.0  0.4365 -130.2
 5.400  0.4892 -166.2   6.974   44.8  0.0507    6.4  0.4297 -132.3
 5.500  0.4887 -168.7   6.858   43.0  0.0504    6.2  0.4243 -134.5
 5.600  0.4882 -171.2   6.740   41.2  0.0503    6.4  0.4180 -136.6
 5.700  0.4875 -173.6   6.622   39.4  0.0499    6.1  0.4127 -138.7
 5.800  0.4867 -175.8   6.507   37.7  0.0500    6.1  0.4074 -140.9
 5.900  0.4872 -178.0   6.403   35.9  0.0496    6.3  0.4033 -143.0
 6.000  0.4882 -180.0   6.298   34.3  0.0495    6.5  0.3988 -145.2
 6.100  0.4881  177.9   6.210   32.6  0.0497    6.6  0.3971 -147.4
 6.200  0.4897  176.0   6.112   30.9  0.0498    6.8  0.3944 -149.6
 6.300  0.4912  174.0   6.019   29.2  0.0498    7.1  0.3934 -151.9
 6.400  0.4931  172.2   5.930   27.6  0.0501    7.3  0.3920 -154.1
 6.500  0.4943  170.1   5.848   25.9  0.0502    7.2  0.3915 -156.6
 6.600  0.4956  168.3   5.765   24.2  0.0504    7.4  0.3914 -158.8
 6.700  0.4972  166.3   5.684   22.5  0.0507    7.4  0.3922 -161.1
 6.800  0.4983  164.5   5.603   20.9  0.0511    7.6  0.3926 -163.2
 6.900  0.4992  162.5   5.523   19.3  0.0513    7.7  0.3941 -165.4
 7.000  0.5008  160.6   5.451   17.6  0.0518    7.9  0.3948 -167.5
 7.100  0.5026  158.8   5.383   16.0  0.0522    8.0  0.3973 -169.7
 7.200  0.5039  156.8   5.320   14.3  0.0528    8.1  0.3981 -171.8
 7.300  0.5059  154.9   5.252   12.7  0.0532    8.1  0.3999 -174.0
 7.400  0.5069  152.9   5.181   11.0  0.0538    8.0  0.4009 -176.1
 7.500  0.5101  150.9   5.125    9.2  0.0544    8.0  0.4027 -178.4
 7.600  0.5116  148.7   5.060    7.5  0.0549    7.9  0.4038  179.4
 7.700  0.5149  146.6   5.003    5.8  0.0557    7.8  0.4050  177.3
 7.800  0.5175  144.4   4.940    4.0  0.0561    7.6  0.4055  175.1
 7.900  0.5227  142.1   4.880    2.1  0.0567    7.4  0.4063  172.8
 8.000  0.5267  139.8   4.817    0.3  0.0573    7.1  0.4066  170.4
 8.500  0.5594  128.5   4.491   -9.0  0.0603    5.8  0.4132  157.5
 9.000  0.6041  117.8   4.119  -18.5  0.0637    3.4  0.4419  143.0
 9.500  0.6452  108.8   3.684  -27.1  0.0657    1.0  0.4914  130.3
10.000  0.6764  102.2   3.291  -34.0  0.0684   -0.9  0.5513  122.0
10.500  0.7028   97.3   2.990  -39.5  0.0704   -3.2  0.6007  117.0
11.000  0.7335   93.7   2.782  -44.9  0.0732   -4.6  0.6388  113.5
11.500  0.7735   90.6   2.605  -51.3  0.0767   -6.5  0.6542  110.1
12.000  0.8060   87.8   2.411  -58.5  0.0811   -8.8  0.6637  106.2
!
!  f       NFmin   Gammaopt  rn/50
! GHz       dB    MAG  ANG    -
 0.450      0.60  0.49    2   0.20
 0.900      0.60  0.49    5   0.19
 1.500      0.64  0.48   14   0.17
 1.900      0.67  0.46   18   0.16
 2.400      0.68  0.41   30   0.15
 3.500      0.72  0.30   57   0.12
 5.500      0.84  0.21  119   0.10
 8.000      1.02  0.35 -145   0.07
10.000      1.19  0.50 -102   0.16
12.000      1.42  0.59  -79   0.26
!
! (c) 2012  Infineon Technologies AG, Munich
