! Infineon Technologies  Discrete & RF Semiconductors
! BFP840FESD
! VCE =  1.8 V,  IC =  14 mA
! Common Emitter S-Parameters:                            May 2012
# GHz  S  MA  R  50
!  f         S11            S21            S12            S22
! GHz     MAG   ANG      MAG   ANG      MAG   ANG      MAG   ANG
 0.030  0.8611   -1.5  33.441  176.3  0.0012   91.8  0.9781    0.1
 0.040  0.8611   -2.1  33.425  175.9  0.0010   77.7  0.9835   -0.4
 0.050  0.8603   -2.6  33.460  177.0  0.0010   82.6  0.9862   -0.9
 0.060  0.8607   -3.1  33.355  176.6  0.0017   81.2  0.9880   -1.4
 0.070  0.8597   -3.6  33.388  176.3  0.0013   62.9  0.9888   -1.8
 0.080  0.8597   -4.2  33.421  175.7  0.0020   82.0  0.9903   -2.4
 0.090  0.8599   -4.7  33.382  175.3  0.0019   90.8  0.9918   -2.8
 0.100  0.8595   -5.2  33.356  174.9  0.0023   82.4  0.9916   -3.3
 0.110  0.8596   -5.8  33.277  174.4  0.0025   89.6  0.9921   -3.8
 0.120  0.8591   -6.3  33.263  174.0  0.0027   81.8  0.9918   -4.2
 0.130  0.8583   -6.9  33.220  173.5  0.0031   89.0  0.9913   -4.7
 0.140  0.8582   -7.4  33.199  173.1  0.0035   85.1  0.9915   -5.1
 0.150  0.8573   -7.9  33.204  172.5  0.0036   86.6  0.9907   -5.5
 0.200  0.8541  -10.6  32.989  170.2  0.0046   82.8  0.9878   -7.7
 0.250  0.8508  -13.2  32.816  167.9  0.0060   82.5  0.9831   -9.7
 0.300  0.8453  -15.8  32.523  165.6  0.0072   77.6  0.9763  -11.7
 0.350  0.8398  -18.3  32.185  163.3  0.0082   79.5  0.9703  -13.7
 0.400  0.8340  -20.8  31.859  161.2  0.0092   77.7  0.9621  -15.5
 0.450  0.8278  -23.2  31.491  159.1  0.0102   75.6  0.9544  -17.3
 0.500  0.8214  -25.7  31.112  157.2  0.0112   74.5  0.9461  -19.2
 0.600  0.8074  -30.5  30.340  153.3  0.0133   72.1  0.9274  -22.7
 0.700  0.7930  -35.1  29.546  149.7  0.0154   69.1  0.9086  -26.1
 0.800  0.7771  -39.8  28.889  146.2  0.0173   66.8  0.8886  -29.4
 0.900  0.7619  -44.2  28.097  142.9  0.0191   64.6  0.8673  -32.7
 1.000  0.7465  -48.6  27.298  139.7  0.0206   62.0  0.8465  -35.8
 1.100  0.7304  -52.8  26.566  136.6  0.0222   59.8  0.8253  -38.9
 1.200  0.7149  -57.1  25.871  133.6  0.0237   57.5  0.8039  -41.8
 1.300  0.6992  -61.2  25.176  130.6  0.0250   55.5  0.7828  -44.7
 1.400  0.6846  -65.2  24.473  127.9  0.0263   53.8  0.7623  -47.5
 1.500  0.6690  -69.1  23.820  125.2  0.0272   51.7  0.7414  -50.3
 1.600  0.6550  -73.1  23.235  122.5  0.0283   50.0  0.7218  -53.0
 1.700  0.6402  -76.7  22.506  119.9  0.0292   48.3  0.7017  -55.6
 1.800  0.6282  -80.3  21.847  117.5  0.0303   46.4  0.6842  -58.3
 1.900  0.6144  -83.7  21.227  115.2  0.0309   45.1  0.6660  -60.7
 2.000  0.6033  -87.1  20.667  112.9  0.0318   43.8  0.6498  -63.1
 2.100  0.5921  -90.5  20.078  110.6  0.0323   42.3  0.6346  -65.5
 2.200  0.5820  -93.6  19.495  108.5  0.0328   40.9  0.6201  -67.8
 2.300  0.5712  -96.7  18.947  106.4  0.0334   39.9  0.6051  -69.9
 2.400  0.5627  -99.6  18.429  104.4  0.0340   38.9  0.5924  -72.1
 2.500  0.5532 -102.4  17.914  102.5  0.0344   37.8  0.5797  -74.0
 2.600  0.5448 -105.2  17.410  100.6  0.0347   36.9  0.5683  -76.0
 2.700  0.5357 -107.9  16.938   98.8  0.0351   35.9  0.5567  -77.8
 2.800  0.5288 -110.5  16.499   97.1  0.0353   35.4  0.5463  -79.6
 2.900  0.5219 -113.0  16.076   95.4  0.0355   34.5  0.5375  -81.4
 3.000  0.5155 -115.5  15.668   93.8  0.0358   34.0  0.5285  -83.1
 3.100  0.5087 -117.9  15.284   92.1  0.0362   33.4  0.5203  -84.7
 3.200  0.5037 -120.2  14.906   90.6  0.0365   32.6  0.5122  -86.4
 3.300  0.4988 -122.5  14.548   89.1  0.0367   32.3  0.5048  -88.0
 3.400  0.4944 -124.8  14.199   87.6  0.0368   31.6  0.4986  -89.5
 3.500  0.4903 -126.9  13.878   86.2  0.0370   31.2  0.4922  -90.9
 3.600  0.4857 -129.1  13.564   84.7  0.0372   31.0  0.4862  -92.4
 3.700  0.4818 -131.2  13.265   83.3  0.0374   30.4  0.4807  -93.7
 3.800  0.4785 -133.2  12.972   81.9  0.0376   30.2  0.4755  -95.1
 3.900  0.4758 -135.3  12.701   80.6  0.0377   29.9  0.4711  -96.4
 4.000  0.4736 -137.2  12.438   79.2  0.0379   29.4  0.4666  -97.6
 4.100  0.4720 -139.2  12.193   77.9  0.0380   29.4  0.4621  -99.0
 4.200  0.4696 -141.1  11.947   76.6  0.0383   29.0  0.4576 -100.2
 4.300  0.4688 -143.1  11.717   75.2  0.0385   28.9  0.4534 -101.5
 4.400  0.4672 -144.9  11.484   74.0  0.0386   28.8  0.4493 -102.7
 4.500  0.4666 -146.7  11.269   72.7  0.0388   28.5  0.4457 -103.8
 4.600  0.4656 -148.4  11.060   71.5  0.0389   28.4  0.4411 -105.0
 4.700  0.4651 -150.2  10.858   70.2  0.0391   28.2  0.4378 -106.1
 4.800  0.4645 -151.8  10.659   68.9  0.0394   28.0  0.4335 -107.2
 4.900  0.4642 -153.5  10.470   67.8  0.0394   27.9  0.4303 -108.3
 5.000  0.4637 -155.0  10.289   66.5  0.0396   27.8  0.4256 -109.3
 5.100  0.4631 -156.6  10.114   65.3  0.0397   27.7  0.4215 -110.5
 5.200  0.4628 -158.0   9.940   64.1  0.0399   27.5  0.4171 -111.4
 5.300  0.4624 -159.6   9.782   62.9  0.0400   27.6  0.4127 -112.6
 5.400  0.4621 -161.1   9.617   61.7  0.0402   27.5  0.4085 -113.6
 5.500  0.4614 -162.6   9.466   60.5  0.0403   27.4  0.4039 -114.7
 5.600  0.4605 -164.1   9.308   59.3  0.0405   27.2  0.3984 -115.7
 5.700  0.4592 -165.7   9.161   58.1  0.0405   27.3  0.3937 -116.9
 5.800  0.4589 -167.2   9.016   56.9  0.0407   27.2  0.3879 -118.0
 5.900  0.4579 -168.7   8.873   55.7  0.0408   27.2  0.3829 -119.1
 6.000  0.4575 -170.2   8.736   54.6  0.0409   27.1  0.3768 -120.2
 6.100  0.4558 -171.8   8.602   53.3  0.0409   27.2  0.3714 -121.5
 6.200  0.4553 -173.4   8.464   52.2  0.0410   27.2  0.3656 -122.6
 6.300  0.4541 -175.0   8.338   51.0  0.0410   27.3  0.3598 -123.9
 6.400  0.4540 -176.5   8.211   49.8  0.0411   27.5  0.3545 -125.1
 6.500  0.4522 -178.2   8.085   48.7  0.0411   27.5  0.3477 -126.4
 6.600  0.4512 -179.7   7.954   47.5  0.0412   27.9  0.3421 -127.6
 6.700  0.4499  178.6   7.833   46.4  0.0412   28.3  0.3358 -128.9
 6.800  0.4489  176.9   7.716   45.3  0.0413   28.6  0.3307 -130.1
 6.900  0.4474  175.2   7.595   44.2  0.0414   29.1  0.3251 -131.4
 7.000  0.4466  173.5   7.481   43.1  0.0417   29.7  0.3202 -132.5
 7.100  0.4464  171.9   7.367   42.0  0.0420   30.2  0.3150 -133.8
 7.200  0.4470  170.4   7.258   40.9  0.0423   30.7  0.3111 -135.0
 7.300  0.4480  169.0   7.154   39.9  0.0428   31.3  0.3073 -136.3
 7.400  0.4496  167.7   7.056   38.9  0.0434   31.7  0.3045 -137.7
 7.500  0.4519  166.4   6.964   37.9  0.0441   32.3  0.3022 -139.2
 7.600  0.4551  165.2   6.872   36.9  0.0448   32.4  0.3000 -140.7
 7.700  0.4584  164.0   6.786   35.8  0.0456   32.5  0.2984 -142.5
 7.800  0.4635  162.7   6.706   34.7  0.0464   32.5  0.2978 -144.4
 7.900  0.4688  161.4   6.625   33.6  0.0472   32.4  0.2962 -146.4
 8.000  0.4744  160.3   6.549   32.5  0.0479   32.2  0.2952 -148.5
 8.500  0.5055  154.0   6.147   26.7  0.0509   30.7  0.2878 -161.7
 9.000  0.5371  148.1   5.732   21.0  0.0530   29.0  0.2855 -177.2
 9.500  0.5703  142.6   5.327   15.4  0.0547   27.5  0.3022  165.9
10.000  0.6012  137.5   4.921   10.0  0.0562   26.2  0.3460  151.4
10.500  0.6290  133.1   4.544    5.2  0.0576   25.0  0.4127  142.6
11.000  0.6494  128.5   4.181    0.5  0.0585   23.8  0.4823  138.1
11.500  0.6641  124.8   3.847   -3.4  0.0591   23.1  0.5465  137.9
12.000  0.6720  121.6   3.528   -6.5  0.0592   23.2  0.5910  140.3
!
!  f       NFmin   Gammaopt  rn/50
! GHz       dB    MAG  ANG    -
 0.450      0.76  0.22    4   0.12
 0.900      0.78  0.22   11   0.14
 1.500      0.80  0.20   17   0.14
 1.900      0.80  0.18   27   0.14
 2.400      0.81  0.17   37   0.14
 3.500      0.81  0.17   61   0.14
 5.500      0.86  0.10  123   0.12
 8.000      0.96  0.11 -177   0.13
10.000      1.08  0.25 -124   0.14
12.000      1.29  0.41 -109   0.16
!
! (c) 2012  Infineon Technologies AG, Munich
